# Hz S RI R 50
6.25e+09  -0.2353  -0.8739  0.004284  -0.07336  -0.0252  0.03981  0.1796  0.4757
6.251e+09  -0.4937  -0.7402  0.01088  0.000682  -0.0273  -0.009547  0.3866  0.4032
6.252e+09  -0.7664  -0.4355  0.009727  0.001824  0.02979  0.02822  0.5249  0.2513
6.254e+09  -0.896  -0.2037  0.001105  -0.0122  0.002777  0.003358  0.6182  -0.0222
6.255e+09  -0.8859  0.09026  -0.02802  -0.01558  -0.06861  -0.02278  0.5877  -0.2367
6.256e+09  -0.8034  0.4043  -0.01288  0.003067  0.05195  0.01553  0.4709  -0.4401
6.258e+09  -0.6178  0.6383  0.03965  0.0115  0.06781  -0.02893  0.2645  -0.5847
6.259e+09  -0.3457  0.8815  0.05098  0.02777  0.006721  0.02745  0.07701  -0.6875
6.26e+09  0.03793  0.9096  0.01837  0.01364  -0.01865  0.003522  -0.2345  -0.6749
6.261e+09  0.2807  0.8712  0.01327  0.00719  -0.02918  0.01579  -0.4488  -0.5418
6.262e+09  0.6121  0.681  -0.004963  -0.008235  -0.01191  -0.001797  -0.6339  -0.3136
6.264e+09  0.7914  0.4246  -0.002511  0.0338  -0.008586  -0.02374  -0.7188  -0.07864
6.265e+09  0.9271  0.1354  0.003454  -0.006736  0.05053  -0.00717  -0.7252  0.1661
6.266e+09  0.7983  -0.2065  0.009916  -0.0294  -0.02005  -0.03622  -0.6267  0.4214
6.268e+09  0.7211  -0.5141  0.002137  -0.008897  0.002477  -0.01601  -0.4409  0.5842
6.269e+09  0.5337  -0.7577  0.01358  -0.03257  -0.03137  -0.0441  -0.2027  0.7199
6.27e+09  0.2409  -0.8232  0.004225  -0.01674  0.009029  -0.05537  0.02607  0.7427
6.271e+09  -0.09874  -0.9219  -0.0006426  -0.01351  0.007154  -0.002311  0.3426  0.6936
6.272e+09  -0.4032  -0.7411  0.0155  0.01014  -0.03568  -0.0352  0.5681  0.5098
6.274e+09  -0.6372  -0.6085  0.00521  -0.002524  0.056  -0.02258  0.7066  0.2754
6.275e+09  -0.7823  -0.3022  -0.0099  -0.04114  -0.0185  0.006712  0.7343  0.04266
6.276e+09  -0.804  -0.03552  -0.03031  0.01045  0.06184  -0.05842  0.7235  -0.1945
6.278e+09  -0.8574  0.2204  0.004741  0.01613  -0.007838  0.006919  0.607  -0.4638
6.279e+09  -0.7443  0.5609  -0.005502  0.007361  -0.006823  -0.01625  0.4268  -0.647
6.28e+09  -0.4574  0.728  -0.003569  -0.001339  0.04788  0.05597  0.1701  -0.7502
6.281e+09  -0.2028  0.8835  0.0009688  -0.0131  -0.01874  -0.02555  -0.09103  -0.7743
6.282e+09  0.1107  0.8487  0.008786  0.006692  0.01124  0.006271  -0.3717  -0.6895
6.284e+09  0.4501  0.7453  -0.01153  -0.03223  0.0009802  0.009291  -0.574  -0.5508
6.285e+09  0.6577  0.5413  0.01027  0.01332  -0.002391  -0.006917  -0.7319  -0.2999
6.286e+09  0.7977  0.2812  0.01027  0.001323  -0.003631  0.00344  -0.7815  -0.02516
6.288e+09  0.8671  -0.03422  0.004577  -0.01536  -0.01478  -0.02204  -0.7468  0.2818
6.289e+09  0.8218  -0.3283  -0.008412  -0.003217  -0.03773  -0.007931  -0.609  0.5012
6.29e+09  0.6109  -0.6239  -0.00294  -0.02378  0.01891  -0.01152  -0.3945  0.68
6.291e+09  0.403  -0.7874  0.002073  -0.01983  0.009199  -0.03176  -0.1156  0.7935
6.292e+09  0.07412  -0.852  0.0112  -0.01392  0.001584  -0.009796  0.1621  0.7886
6.294e+09  -0.1802  -0.8054  0.008766  0.01895  0.01436  0.02665  0.3942  0.698
6.295e+09  -0.4456  -0.7304  -0.02387  -0.01173  0.0368  0.03715  0.6009  0.5248
6.296e+09  -0.7045  -0.5053  -0.018  -0.01568  -0.05195  -0.0128  0.778  0.2821
6.298e+09  -0.8355  -0.2207  0.01623  0.01371  0.01942  -0.001861  0.8311  -0.005873
6.299e+09  -0.9335  0.1133  -0.004059  -0.00917  -0.002988  -0.04662  0.7887  -0.2996
6.3e+09  -0.7571  0.4081  -0.003747  0.007485  0.03257  -0.006834  0.6318  -0.5515
6.301e+09  -0.6014  0.6642  -0.001463  0.007976  0.008762  -0.03302  0.4207  -0.7547
6.302e+09  -0.3427  0.827  0.02613  0.004308  -0.01096  0.018  0.1401  -0.8515
6.304e+09  -0.0483  0.8462  0.02374  0.004469  -0.01343  0.01202  -0.1279  -0.8172
6.305e+09  0.291  0.8616  0.01722  0.00849  0.0181  -0.01218  -0.4368  -0.7256
6.306e+09  0.5544  0.7102  -0.008201  0.01494  0.006924  0.01154  -0.6485  -0.5621
6.308e+09  0.778  0.4384  -0.01195  0.01824  0.009829  -0.01045  -0.777  -0.3099
6.309e+09  0.8794  0.1418  0.03887  0.03016  0.02146  0.03097  -0.8737  0.002902
6.31e+09  0.8111  -0.1178  -0.02925  -0.007861  -0.007819  -0.03887  -0.824  0.2775
6.311e+09  0.7703  -0.4541  -0.01125  0.009695  0.02576  0.04567  -0.676  0.5636
6.312e+09  0.5265  -0.664  0.01577  -0.007452  -0.03777  0.008202  -0.4204  0.7273
6.314e+09  0.2784  -0.8045  -0.01258  0.008453  0.01893  0.02126  -0.1437  0.8425
6.315e+09  -0.03044  -0.8413  -0.006698  -0.02345  0.005143  -0.03925  0.1271  0.8608
6.316e+09  -0.2971  -0.7902  0.009021  -0.006367  -0.03019  0.0004042  0.4749  0.7931
6.318e+09  -0.5509  -0.6035  0.008512  0.01585  0.02306  0.03589  0.6862  0.5871
6.319e+09  -0.8029  -0.3677  0.006916  -0.00113  -0.01055  0.03087  0.8425  0.2858
6.32e+09  -0.8711  -0.115  0.00783  -0.02682  -0.02023  0.02144  0.9002  0.00558
6.321e+09  -0.8951  0.2184  -0.05485  -0.02001  -0.1056  -0.02031  0.8164  -0.2807
6.322e+09  -0.7114  0.499  -0.01288  0.01844  0.006109  -0.03304  0.74  -0.5753
6.324e+09  -0.5123  0.7435  -0.01338  -0.002281  0.03271  0.02362  0.4781  -0.7563
6.325e+09  -0.2396  0.8513  0.008588  -0.004135  0.04493  0.004489  0.1676  -0.8948
6.326e+09  0.1519  0.8937  -0.01897  0.02068  -0.02211  -0.04106  -0.125  -0.9062
6.328e+09  0.3871  0.816  0.01376  -0.01719  0.01529  -0.01256  -0.4364  -0.7928
6.329e+09  0.6566  0.5854  -0.01691  -0.01123  0.002392  0.01633  -0.6756  -0.5722
6.33e+09  0.7888  0.3597  0.00737  -0.03027  -0.0254  -0.01369  -0.8087  -0.3135
6.331e+09  0.8958  0.006249  0.02206  -0.004695  0.0007014  -0.006008  -0.9068  -0.03914
6.332e+09  0.824  -0.3085  -0.00268  -0.03289  0.006924  0.02222  -0.8682  0.2731
6.334e+09  0.6266  -0.5595  -0.006026  -0.001068  0.02865  -0.005863  -0.7186  0.5438
6.335e+09  0.3865  -0.7417  0.01919  0.009063  0.03893  -0.01536  -0.5219  0.7519
6.336e+09  0.1655  -0.903  0.02363  0.02863  0.04493  -0.02861  -0.2252  0.8911
6.338e+09  -0.1753  -0.9058  0.002191  -0.03437  0.0007624  0.01617  0.1346  0.9056
6.339e+09  -0.4704  -0.7502  -0.0181  -0.005288  0.04447  0.01524  0.4254  0.7982
6.34e+09  -0.7109  -0.5328  0.01308  -0.0001506  -0.02875  -0.01294  0.673  0.5959
6.341e+09  -0.8335  -0.2817  -0.02224  -0.02941  -0.05322  0.00999  0.8425  0.3267
6.342e+09  -0.8801  0.06081  0.01136  0.02431  -0.009989  -0.02297  0.9181  0.08194
6.344e+09  -0.7776  0.36  0.00248  0.004713  0.03209  -0.01601  0.9048  -0.3092
6.345e+09  -0.6005  0.6537  0.01921  -0.003176  -0.01093  -0.006182  0.7546  -0.5618
6.346e+09  -0.3887  0.8153  -0.02839  -0.01693  -0.009143  0.02124  0.5027  -0.7812
6.348e+09  -0.07256  0.8686  0.01972  -0.01636  -0.01992  -0.01379  0.2136  -0.8894
6.349e+09  0.3156  0.8946  0.007149  0.02  0.01328  -0.01492  -0.1297  -0.949
6.35e+09  0.5525  0.6956  -0.01276  -0.03264  0.01943  -0.001372  -0.4098  -0.8349
6.351e+09  0.7627  0.4661  0.0009576  -0.008395  0.01221  -0.03815  -0.6609  -0.6433
6.352e+09  0.8749  0.1835  0.01113  -0.05837  0.01376  -0.0311  -0.8811  -0.4054
6.354e+09  0.8833  -0.1669  0.001396  0.008128  -0.007122  -0.02788  -0.93  -0.07417
6.355e+09  0.7751  -0.4791  0.03596  4.857e-05  0.02468  0.008636  -0.9115  0.2942
6.356e+09  0.5206  -0.723  0.04062  0.003322  0.01412  -0.03615  -0.7565  0.5508
6.358e+09  0.2935  -0.8864  0.002675  -0.005246  0.01263  0.004126  -0.5462  0.7936
6.359e+09  -0.04911  -0.9044  0.04112  0.01998  0.03067  -0.05786  -0.2619  0.8876
6.36e+09  -0.3527  -0.8427  -0.02689  -0.004059  -0.04501  -0.0184  0.1153  0.9132
6.361e+09  -0.6374  -0.6741  0.02589  0.009286  -0.01068  0.03175  0.3994  0.8603
6.362e+09  -0.8636  -0.3462  0.02331  -0.003099  -0.01582  -0.03139  0.6863  0.6662
6.364e+09  -0.902  -0.06919  -0.02296  0.01205  0.0002363  0.01946  0.854  0.3952
6.365e+09  -0.8119  0.2909  -0.01406  -0.03141  -0.007284  0.02517  0.9437  0.05649
6.366e+09  -0.7538  0.5293  -0.01809  0.01671  -0.01014  -0.005465  0.9438  -0.2234
6.368e+09  -0.4817  0.7907  -0.0221  0.02293  -0.02111  0.0179  0.7771  -0.5606
6.369e+09  -0.2141  0.9108  -0.01053  -0.04019  -0.01295  -0.02113  0.5375  -0.7612
6.37e+09  0.1482  0.8983  -0.01231  0.02566  0.01785  0.006875  0.2686  -0.8865
6.371e+09  0.4861  0.8014  0.02794  -0.01265  0.02505  0.02716  -0.1035  -0.9719
6.372e+09  0.7506  0.5195  -0.03892  -0.008653  -0.05779  0.05482  -0.3495  -0.8892
6.374e+09  0.882  0.3073  -0.03055  0.005505  0.003921  -0.004115  -0.6286  -0.6835
6.375e+09  0.8985  -0.1083  -0.01187  -0.01462  -0.004354  -0.03986  -0.8625  -0.4556
6.376e+09  0.8453  -0.3876  0.01839  -0.00415  -0.04374  0.02638  -0.9302  -0.08939
6.378e+09  0.7027  -0.6387  0.03886  -0.002162  -0.0368  0.02046  -0.8892  0.1862
6.379e+09  0.4089  -0.8716  0.01872  0.01905  -0.02408  0.02142  -0.7894  0.5571
6.38e+09  0.05482  -0.9851  -0.04013  0.01314  0.031  -0.0002499  -0.5673  0.7272
6.381e+09  -0.2746  -0.9103  -0.01192  -0.00821  0.05977  0.01309  -0.2795  0.89
6.382e+09  -0.5762  -0.729  -0.02109  0.000434  0.02256  -0.007199  0.0766  0.9189
6.384e+09  -0.8372  -0.4564  0.04709  0.02672  0.01989  0.03402  0.3764  0.8741
6.385e+09  -0.8895  -0.1263  -0.0008802  0.01483  0.00855  0.004908  0.6358  0.6982
6.386e+09  -0.96  0.1962  -0.03445  -0.02512  -0.03741  0.0118  0.8211  0.42
6.388e+09  -0.8418  0.53  0.05332  -0.02308  0.003249  -0.03732  0.9329  0.08392
6.389e+09  -0.5725  0.7514  0.01046  -0.0002796  0.01002  -0.02901  0.8942  -0.1189
6.39e+09  -0.2595  0.9212  0.0007059  0.01435  -0.04614  -0.02026  0.8202  -0.4921
6.391e+09  0.08097  0.9592  0.02433  -0.01044  -0.01311  0.04796  0.5742  -0.7259
6.392e+09  0.4337  0.8591  -0.009607  -0.009562  -0.02139  -0.01131  0.3011  -0.908
6.394e+09  0.6844  0.6434  0.03011  0.04257  0.0261  -0.001457  -0.04436  -0.9357
6.395e+09  0.8586  0.3516  0.04965  0.0377  -0.03666  0.04547  -0.3783  -0.8424
6.396e+09  0.9267  0.03612  -0.04865  -0.03316  -0.0113  0.02374  -0.6532  -0.668
6.398e+09  0.9125  -0.2847  0.02717  -0.005139  0.01374  0.02477  -0.7675  -0.4367
6.399e+09  0.7122  -0.5991  -0.006212  -0.006455  0.02699  0.01781  -0.9355  -0.1664
6.4e+09  0.4792  -0.8255  -0.009643  0.02634  0.05985  0.01589  -0.926  0.1592
6.401e+09  0.1097  -1.024  -0.01653  0.01194  -0.02448  -0.00586  -0.7842  0.4636
6.402e+09  -0.1978  -0.966  -0.0132  0.01287  0.02135  -0.01491  -0.6276  0.6956
6.404e+09  -0.5163  -0.7981  -0.00777  -0.01381  -0.02172  0.00248  -0.2928  0.876
6.405e+09  -0.7774  -0.5856  0.03532  -0.001556  -0.02214  -0.003821  -0.008772  0.8882
6.406e+09  -0.9054  -0.2874  -0.01181  0.0001823  0.007647  0.01189  0.3046  0.8407
6.408e+09  -0.944  0.06399  -0.05089  0.006063  0.03455  -0.0475  0.6017  0.7469
6.409e+09  -0.8214  0.3878  -0.04145  -0.02009  -0.0339  0.02731  0.8023  0.4523
6.41e+09  -0.6553  0.6704  0.02704  0.002176  -0.009095  0.05219  0.9009  0.126
6.411e+09  -0.3294  0.8777  -0.02007  0.02783  0.01768  0.02269  0.8708  -0.154
6.412e+09  -0.04338  0.9091  -0.008422  -0.02637  0.01658  0.02462  0.802  -0.4589
6.414e+09  0.3104  0.913  0.002828  -0.05447  -0.01161  0.03021  0.5921  -0.7227
6.415e+09  0.5956  0.7154  -0.01291  -0.004775  0.001449  0.03841  0.3799  -0.8737
6.416e+09  0.8414  0.5031  0.01867  -0.03802  0.00293  -0.06279  0.007669  -0.8704
6.418e+09  0.9268  0.128  -0.006019  -0.02164  0.01157  0.0437  -0.2276  -0.8566
6.419e+09  0.8896  -0.2193  0.03236  0.01878  0.03107  0.03259  -0.5468  -0.6706
6.42e+09  0.779  -0.5396  0.04235  0.005611  -0.01565  -0.01507  -0.7829  -0.5052
6.421e+09  0.6001  -0.7527  0.01857  0.002598  0.02594  -0.01485  -0.8952  -0.1589
6.422e+09  0.2257  -0.9722  0.03705  0.01368  -0.01864  -0.01334  -0.8709  0.1284
6.424e+09  -0.08391  -1.014  0.03111  -0.01047  -0.008863  0.005314  -0.8036  0.3558
6.425e+09  -0.4311  -0.8738  -0.009536  -0.00139  0.01721  -0.0415  -0.5807  0.613
6.426e+09  -0.6315  -0.6126  0.00339  0.00222  -0.0249  -0.01596  -0.337  0.8543
6.428e+09  -0.899  -0.3143  -0.02311  0.05386  -0.01602  -0.03248  -0.06148  0.8643
6.429e+09  -0.9586  0.01074  -0.01935  -0.02086  0.02195  -0.007641  0.2307  0.8227
6.43e+09  -0.8773  0.2668  -0.01357  -0.003978  0.01275  -0.03686  0.5245  0.673
6.431e+09  -0.7413  0.6011  0.01177  -0.01269  -0.02601  0.01182  0.7374  0.4722
6.432e+09  -0.468  0.8183  0.0136  0.04161  0.00209  0.007381  0.8492  0.23
6.434e+09  -0.1142  0.8851  0.002832  0.03011  0.008079  -0.01132  0.8833  -0.1146
6.435e+09  0.17  0.8571  -0.003783  0.008337  -0.04366  -0.02786  0.7706  -0.3921
6.436e+09  0.4549  0.7569  0.03627  -0.01502  -0.03129  0.02062  0.6087  -0.6396
6.438e+09  0.7807  0.5624  -0.03987  0.0149  0.04446  -0.03007  0.3719  -0.8617
6.439e+09  0.8926  0.2621  0.01655  0.01009  0.05752  -0.000515  0.06321  -0.8727
6.44e+09  0.855  -0.05691  -0.009817  -0.02803  -0.01331  0.0323  -0.2604  -0.8061
6.441e+09  0.8538  -0.3587  0.03464  -0.05357  0.003663  -0.04741  -0.483  -0.7021
6.442e+09  0.6275  -0.7041  0.000184  0.03616  -0.0001542  -0.01568  -0.704  -0.4889
6.444e+09  0.393  -0.8272  -0.02772  0.004752  -0.01301  -0.01523  -0.8788  -0.228
6.445e+09  0.04297  -0.9105  -0.01037  -0.01244  0.0528  -0.01296  -0.831  0.08029
6.446e+09  -0.2396  -0.868  0.01361  -0.002734  0.009673  0.02564  -0.7783  0.3675
6.448e+09  -0.5103  -0.7475  -0.0007202  0.02265  0.01387  -0.02194  -0.5799  0.5979
6.449e+09  -0.7933  -0.5231  0.0393  -0.003856  0.02147  0.02238  -0.3488  0.7543
6.45e+09  -0.8773  -0.1376  -0.02329  -0.05588  0.001433  0.003223  -0.05743  0.8497
6.451e+09  -0.89  0.144  0.02659  0.05399  -0.02272  -0.01452  0.202  0.7585
6.452e+09  -0.8374  0.5403  0.03383  -0.03776  -0.01767  0.017  0.5016  0.6766
6.454e+09  -0.5815  0.6825  0.03487  0.00488  -0.02201  0.01729  0.6773  0.4564
6.455e+09  -0.3117  0.871  -0.006329  0.005582  -0.05238  -0.01254  0.7847  0.302
6.456e+09  0.0119  0.8938  0.008615  -0.0005365  0.02154  0.02259  0.8041  -0.0501
6.458e+09  0.2775  0.8236  0.04998  -0.03225  0.007053  -0.00849  0.7447  -0.3673
6.459e+09  0.5979  0.6529  0.00936  -0.008215  0.01334  0.03554  0.5961  -0.5446
6.46e+09  0.753  0.4887  -0.02  0.02822  -0.01859  0.07164  0.3457  -0.722
6.461e+09  0.9076  0.09624  -0.01163  0.04931  0.01702  0.04612  0.04414  -0.7834
6.462e+09  0.9086  -0.1753  -0.0009257  0.01655  -0.0343  0.04094  -0.1751  -0.7938
6.464e+09  0.7526  -0.4305  0.06339  0.01214  -0.01547  0.03144  -0.4698  -0.6793
6.465e+09  0.5068  -0.7178  -0.009713  -0.01212  -0.02141  0.006134  -0.6892  -0.4721
6.466e+09  0.2662  -0.8538  -0.008925  0.01961  0.01477  -0.003809  -0.8077  -0.209
6.468e+09  -0.01573  -0.8737  -0.04671  0.008937  0.03753  0.06627  -0.8091  0.05337
6.469e+09  -0.3824  -0.8282  0.02915  -0.02307  -0.01281  0.00504  -0.7171  0.3665
6.47e+09  -0.5989  -0.6277  0.006493  -0.005936  -0.006261  0.02793  -0.5688  0.5679
6.471e+09  -0.7648  -0.4211  -0.01735  0.02436  -0.01871  0.01687  -0.361  0.706
6.472e+09  -0.9096  -0.115  0.03529  0.03619  -0.02561  0.0352  -0.0978  0.7605
6.474e+09  -0.8515  0.2242  -0.04593  0.03205  0.04061  -0.03441  0.2076  0.7228
6.475e+09  -0.7371  0.5627  -0.006301  -0.01664  -0.01476  0.01722  0.4768  0.6114
6.476e+09  -0.4618  0.6695  -0.05564  -0.03146  -0.0164  -0.02073  0.6757  0.4536
6.478e+09  -0.2024  0.7717  -0.02152  -0.01795  0.02067  0.01331  0.718  0.2057
6.479e+09  0.0322  0.899  -0.001544  0.01743  -0.007107  0.008183  0.7663  -0.09974
6.48e+09  0.3524  0.7543  0.0007216  -0.01663  0.03082  -0.01006  0.6878  -0.3138
6.481e+09  0.6145  0.5589  0.04766  -0.002589  -0.005891  -0.009345  0.5134  -0.5634
6.482e+09  0.8039  0.3236  -0.006949  -0.01654  -0.001919  -0.01154  0.2908  -0.698
6.484e+09  0.9038  0.07477  -0.01536  0.004696  0.01725  0.001303  0.06705  -0.7502
6.485e+09  0.8291  -0.2665  0.0007515  -0.006179  0.03801  -0.004867  -0.2288  -0.7784
6.486e+09  0.7184  -0.4972  -0.01298  -0.02014  -0.003742  0.01325  -0.4491  -0.6149
6.488e+09  1.229  -0.6412  0.02458  0.03119  -0.2508  -0.6697  -0.6369  -0.4817
6.489e+09  0.1699  -0.822  0.06123  -0.02354  -0.0246  0.02529  -0.7823  -0.1582
6.49e+09  -0.0982  -0.8662  0.04558  -0.05083  0.01395  0.01192  -0.7584  0.08059
6.491e+09  -0.4418  -0.7924  0.01125  0.03333  0.02161  -0.008849  -0.7165  0.3388
6.492e+09  -0.6136  -0.6377  0.001219  0.04342  0.005096  0.02774  -0.5418  0.5579
6.494e+09  -0.9483  -0.3566  -0.0365  -0.003683  0.04442  0.06646  -0.3061  0.725
6.495e+09  -0.8663  -0.03267  -0.005273  -0.01324  -0.02196  -0.01298  -0.06189  0.7438
6.496e+09  -0.7947  0.3584  -0.01768  0.001429  0.02665  0.0367  0.2206  0.7711
6.498e+09  -0.72  0.54  -0.01378  0.0006869  -0.02832  -0.004026  0.4691  0.5811
6.499e+09  -0.4424  0.7184  0.02813  -0.03099  -0.002518  0.0451  0.6383  0.4057
6.5e+09  -0.2757  1.181  0.0001804  0.03888  -0.005057  0.03861  0.7319  0.2014
6.501e+09  0.1264  0.9134  0.01592  -0.008451  -0.04112  0.03804  0.7822  -0.134
6.502e+09  0.4037  0.7611  -0.02421  0.0144  -0.005774  -0.04464  0.6652  -0.3586
6.504e+09  0.7052  0.5995  0.04299  0.02355  0.02563  0.03341  0.5147  -0.5554
6.505e+09  0.793  0.3097  0.02077  -0.01148  0.01398  0.01054  0.254  -0.6898
6.506e+09  0.8963  0.0456  0.004946  -0.02424  -0.004775  -0.04782  -0.0009647  -0.7293
6.508e+09  0.796  -0.3577  -0.0002701  0.02852  0.007001  0.04732  -0.2322  -0.7061
6.509e+09  0.6585  -0.5959  -0.01958  0.01171  -0.05559  -0.06132  -0.4687  -0.6031
6.51e+09  0.4503  -0.7494  0.0002668  0.02599  0.01186  0.002754  -0.6765  -0.3923
6.511e+09  0.172  -0.8734  0.01696  0.007092  0.008572  -0.003468  -0.7043  -0.1378
6.512e+09  -0.1743  -0.903  0.0368  0.02347  -0.02233  0.002579  -0.7607  0.1133
6.514e+09  -0.4485  -0.7325  0.01633  -0.02792  0.05562  0.03031  -0.6664  0.3771
6.515e+09  -0.7075  -0.4942  -0.004765  -0.03462  0.002927  0.001632  -0.4539  0.5702
6.516e+09  -0.8463  -0.2762  -0.04165  -0.02417  -0.004855  -0.01663  -0.2573  0.7294
6.518e+09  -0.8971  -0.001374  0.01328  0.02906  -0.002757  -0.05489  0.007677  0.7078
6.519e+09  -0.832  0.3085  0.003533  0.01485  -0.01151  -0.01253  0.282  0.6994
6.52e+09  -0.6263  0.5894  -0.01916  0.01825  -0.03778  -0.002646  0.4861  0.5425
6.521e+09  -0.4254  0.7998  0.007919  -0.02896  0.02335  -0.01406  0.6212  0.335
6.522e+09  -0.1548  0.8758  -0.03866  -0.01874  -0.029  0.05025  0.7487  0.08701
6.524e+09  0.2221  0.8783  0.01613  -0.01426  0.05516  0.05252  0.7143  -0.1671
6.525e+09  0.4659  0.7511  -0.02975  -0.02072  0.03905  -0.0446  0.5995  -0.4124
6.526e+09  0.7157  0.4979  -0.02765  -0.02359  -0.01761  0.02533  0.4482  -0.5918
6.528e+09  0.9069  0.3186  0.01765  0.009261  -0.01162  -0.006884  0.1797  -0.6706
6.529e+09  0.9519  -0.02261  -0.02299  0.03206  0.01398  -0.05752  -0.04532  -0.749
6.53e+09  0.8715  -0.3621  0.02861  0.01968  -0.08477  -0.05176  -0.2658  -0.6367
6.531e+09  0.6737  -0.6319  -0.001813  -0.001892  0.002385  0.04665  -0.4976  -0.4773
6.532e+09  0.4091  -0.9119  -0.0386  0.00492  0.01694  0.007075  -0.5864  -0.3027
6.534e+09  0.07818  -0.871  -0.02273  -0.02149  0.02088  0.03961  -0.6642  -0.08091
6.535e+09  -0.2466  -0.9053  0.02375  -0.004997  -0.008581  0.02173  -0.6066  0.115
6.536e+09  -0.5367  -0.7666  0.01483  -0.0392  -0.03306  -0.02735  -0.5613  0.2985
6.538e+09  -0.7845  -0.6011  -0.01182  -0.0142  0.01762  0.007566  -0.4604  0.4694
6.539e+09  -0.9413  -0.2233  -0.0171  0.01313  -0.02324  -0.06023  -0.2614  0.6086
6.54e+09  -0.9395  0.1313  0.01592  -0.005872  0.01132  0.01246  -0.07622  0.6741
6.541e+09  -0.8401  0.4769  0.04317  0.02647  -0.02429  -0.01775  0.1866  0.6905
6.542e+09  -0.6301  0.7091  -0.003249  -0.003243  0.008475  0.02192  0.426  0.5617
6.544e+09  -0.339  0.923  -0.01184  -0.007829  -0.008525  -0.01443  0.6033  0.3975
6.545e+09  0.02862  1.006  0.004961  -0.02699  -0.01643  -0.004998  0.6677  0.1378
6.546e+09  0.3212  0.949  -0.004513  -0.009161  0.001636  -0.03633  0.727  -0.06896
6.548e+09  0.6017  0.7546  -0.000491  -0.004086  0.03037  0.03908  0.6663  -0.3167
6.549e+09  0.8557  0.4816  0.03374  -0.003471  0.04037  -0.01372  0.5315  -0.5568
6.55e+09  0.9895  0.1846  0.03671  -0.04089  0.002155  0.006962  0.3171  -0.7157
6.551e+09  0.9869  -0.1851  0.0146  0.02182  -0.01622  0.03481  0.06937  -0.7182
