# Hz S RI R 50
6.25e+09  0.9423  -0.4168  0.008299  0.03802  0.01867  0.004888  0.1718  0.4876
6.251e+09  0.7249  -0.7455  -0.01032  -0.005342  -0.01213  -0.04924  0.3674  0.3899
6.252e+09  0.4579  -0.9512  0.02776  0.02909  0.02129  0.003966  0.5359  0.2634
6.254e+09  -0.0174  -0.9667  0.01103  -0.00393  -0.01378  0.01727  0.603  0.0335
6.255e+09  -0.2948  -0.955  -0.01604  0.00854  -0.008586  -0.01342  0.5787  -0.227
6.256e+09  -0.6079  -0.7643  0.01791  0.000616  0.01552  0.01806  0.4703  -0.434
6.258e+09  -0.8613  -0.5086  -0.00313  0.01892  -0.01842  -0.0189  0.2887  -0.6056
6.259e+09  -0.9764  -0.159  0.0002098  -0.01851  -0.008817  0.02277  0.01502  -0.6803
6.26e+09  -0.9365  0.2247  -0.006115  0.002164  -0.03066  -0.005734  -0.2424  -0.6767
6.261e+09  -0.882  0.5524  0.01058  -0.006453  0.03094  0.02312  -0.4333  -0.5399
6.262e+09  -0.5641  0.8077  -0.008311  0.01125  -0.02124  -0.02403  -0.6284  -0.3508
6.264e+09  -0.2535  1.017  -0.0044  -0.005151  -0.02222  0.06429  -0.7577  -0.1133
6.265e+09  0.07851  0.9705  -0.01978  0.006987  0.06709  0.03095  -0.7048  0.1291
6.266e+09  0.4451  0.8086  -0.01262  0.01649  -0.02293  -0.04723  -0.616  0.3869
6.268e+09  0.7415  0.6448  0.00699  0.03363  0.03521  -0.0432  -0.4422  0.5901
6.269e+09  0.9309  0.406  -0.002233  -0.002219  -0.004904  0.0351  -0.2298  0.6997
6.27e+09  1.002  -0.006383  0.02592  -0.002019  0.02598  -0.02812  0.07842  0.7443
6.271e+09  0.9044  -0.3284  -0.005557  -0.03543  -0.002273  -0.02443  0.3461  0.6832
6.272e+09  0.7354  -0.646  0.002414  -0.01601  0.03567  -0.01821  0.5251  0.5132
6.274e+09  0.4676  -0.8881  -0.002841  -0.01305  -0.009441  0.02921  0.6771  0.2788
6.275e+09  0.1196  -0.9823  0.006509  0.005826  0.03668  -0.06574  0.7722  0.06961
6.276e+09  -0.1978  -0.9321  -0.01197  0.01191  0.002457  -0.03868  0.7203  -0.2102
6.278e+09  -0.5541  -0.8087  0.01316  0.008714  -0.0145  0.005591  0.6061  -0.464
6.279e+09  -0.7764  -0.5558  0.0003061  0.01531  -0.01211  0.01439  0.4285  -0.6821
6.28e+09  -0.9381  -0.2671  0.007951  -0.01971  0.04154  0.01735  0.131  -0.7658
6.281e+09  -0.9578  0.1252  0.00948  0.02686  0.01161  0.004977  -0.1001  -0.7411
6.282e+09  -0.883  0.4387  0.001818  -0.003116  0.01286  0.02113  -0.3559  -0.6658
6.284e+09  -0.6816  0.6918  0.01869  -0.01086  -0.02898  -0.0254  -0.5802  -0.5541
6.285e+09  -0.3489  0.8616  0.02568  -0.01946  -0.0008804  0.04679  -0.7661  -0.2875
6.286e+09  -0.002646  0.9655  0.02913  0.02588  -0.07971  -0.01577  -0.7937  -0.02145
6.288e+09  0.2905  0.9434  -0.03861  0.01833  0.02276  0.01404  -0.7387  0.2496
6.289e+09  0.6027  0.7529  -0.01468  0.002327  -0.04035  0.01538  -0.6569  0.4935
6.29e+09  0.9001  0.4182  -0.007291  -0.001467  0.03811  0.0141  -0.4079  0.655
6.291e+09  0.9679  0.148  0.006684  -0.02542  0.04889  0.03116  -0.14  0.7679
6.292e+09  0.9785  -0.2161  -0.0142  -0.01387  -0.03927  -0.006135  0.1362  0.7905
6.294e+09  0.7675  -0.4859  0.0378  0.001704  0.01116  -0.01656  0.3647  0.7078
6.295e+09  0.5627  -0.7456  -0.0003433  -0.004415  0.04441  -0.04568  0.6364  0.5391
6.296e+09  0.2207  -0.9612  0.003782  -0.009369  0.006237  -0.04101  0.8105  0.3021
6.298e+09  -0.1544  -0.9803  -0.0006035  0.007102  0.03407  0.0529  0.8249  0.0308
6.299e+09  -0.3798  -0.8785  0.01608  0.008269  -0.04271  -0.01903  0.7753  -0.2793
6.3e+09  -0.6919  -0.699  0.01172  -0.009759  -0.03512  -0.02598  0.6422  -0.5379
6.301e+09  -0.9196  -0.3643  0.01349  0.0007692  -0.0199  0.002086  0.4471  -0.7579
6.302e+09  -1.006  -0.02344  -0.003566  0.003896  -0.03014  0.01384  0.1643  -0.8325
6.304e+09  -0.9515  0.3207  0.009278  0.01291  0.001063  -0.01177  -0.1175  -0.8127
6.305e+09  -0.7424  0.6595  0.03159  -0.02372  0.0258  0.04477  -0.4227  -0.7462
6.306e+09  -0.5087  0.8329  -0.02776  0.0527  -0.004323  0.003157  -0.6603  -0.5497
6.308e+09  -0.1945  0.9473  -0.02476  -0.006145  0.03681  0.009646  -0.8405  -0.3241
6.309e+09  0.1272  1.041  0.006221  0.0184  -0.01905  -0.01426  -0.8519  -0.01332
6.31e+09  0.5426  0.8508  0.03884  0.007241  -0.002197  -0.006598  -0.8124  0.286
6.311e+09  0.807  0.5873  0.01695  -0.0002535  0.02221  -0.04395  -0.676  0.5231
6.312e+09  1.005  0.2412  -0.01968  -0.0208  -0.03415  -0.02779  -0.4478  0.7492
6.314e+09  1.019  -0.07104  0.02411  -0.03063  -0.007125  0.03012  -0.1386  0.858
6.315e+09  0.9396  -0.4524  0.001006  0.002942  0.01388  0.03683  0.1326  0.8611
6.316e+09  0.7027  -0.6916  0.02475  -0.004776  -0.0121  -0.01901  0.46  0.7583
6.318e+09  0.4012  -0.9526  0.002706  0.003413  -0.03328  -0.05132  0.6589  0.5511
6.319e+09  0.02983  -0.9815  -0.02016  -0.03823  0.008536  0.007411  0.8229  0.28
6.32e+09  -0.3237  -0.9074  -0.02788  0.02449  -0.0103  -0.005681  0.8936  0.01746
6.321e+09  -0.614  -0.8185  -0.0354  -0.01036  0.03105  -0.01322  0.82  -0.2862
6.322e+09  -0.876  -0.4959  -0.02473  -0.01  -0.01719  0.01834  0.6918  -0.5638
6.324e+09  -0.9994  -0.194  0.002595  0.03318  0.006769  -0.008341  0.456  -0.768
6.325e+09  -1.038  0.1583  -0.0003459  0.007366  -0.01342  0.02797  0.1821  -0.8844
6.326e+09  -0.872  0.4966  -0.007918  -0.02573  0.004413  -0.003686  -0.1365  -0.9046
6.328e+09  -0.6574  0.7886  0.03158  -0.01633  -0.06305  -0.002994  -0.4457  -0.7885
6.329e+09  -0.3031  0.9661  0.01948  -0.0247  0.009171  0.003438  -0.6698  -0.6175
6.33e+09  0.03085  0.9972  0.003175  0.01436  -0.01702  -0.01756  -0.8346  -0.3601
6.331e+09  0.3646  0.9193  0.01243  0.01413  -0.0149  0.03619  -0.8903  -0.01624
6.332e+09  0.6681  0.719  -0.04631  -0.01629  0.03877  -0.05282  -0.8821  0.3001
6.334e+09  0.878  0.4347  7.427e-05  -0.0242  -0.01763  -0.03286  -0.7236  0.5832
6.335e+09  1.009  0.07938  0.01012  0.007088  -0.03816  0.02873  -0.4853  0.7628
6.336e+09  0.9486  -0.2749  0.0017  0.02923  4.865e-05  0.001883  -0.2072  0.8791
6.338e+09  0.8362  -0.5533  -0.02109  -0.01032  0.004565  -0.003333  0.1488  0.8949
6.339e+09  0.5622  -0.8679  0.002041  -0.04269  0.02689  -0.01392  0.4053  0.8321
6.34e+09  0.2514  -0.9813  0.02126  0.02439  -0.01011  0.008715  0.6779  0.6069
6.341e+09  -0.1322  -1.012  0.02479  0.001563  0.006683  -0.001807  0.8863  0.3541
6.342e+09  -0.5263  -0.9582  0.009926  -0.02317  -0.0109  0.02172  0.9424  0.0206
6.344e+09  -0.8004  -0.703  -0.03697  -0.02534  0.05281  0.02906  0.8787  -0.2574
6.345e+09  -0.9862  -0.4125  0.007725  -0.0005593  -0.008769  -0.003594  0.7599  -0.5625
6.346e+09  -1.045  0.00313  0.01664  -0.003128  0.01986  -0.02597  0.5056  -0.76
6.348e+09  -1.001  0.378  0.004088  -0.01355  0.02214  0.01835  0.2127  -0.9136
6.349e+09  -0.8183  0.6755  -0.03958  -0.001213  -0.0389  0.0353  -0.1423  -0.948
6.35e+09  -0.5013  0.9195  0.008612  -0.02483  0.03177  -0.009638  -0.439  -0.8549
6.351e+09  -0.09569  1.059  0.01353  -0.0009206  0.001023  -0.01702  -0.6936  -0.6305
6.352e+09  0.2895  1.027  -0.02199  0.03903  0.03619  -0.04336  -0.8558  -0.4058
6.354e+09  0.6456  0.9029  -0.01141  -0.01457  0.003284  -0.03223  -0.9406  -0.05972
6.355e+09  0.819  0.5966  0.008394  -0.006967  -0.01927  0.04947  -0.9458  0.2615
6.356e+09  1.05  0.2367  0.01993  0.02036  0.004251  -0.04792  -0.808  0.5002
6.358e+09  1.028  -0.08551  0.003343  0.001644  -0.008519  0.005718  -0.5321  0.7884
6.359e+09  0.9523  -0.5315  -0.003814  0.0188  -0.02007  -0.02551  -0.2316  0.8877
6.36e+09  0.7158  -0.762  -0.0403  0.01302  -0.03881  0.03613  0.1203  0.9313
6.361e+09  0.3983  -1.013  -0.01672  0.01041  -0.03798  0.02606  0.4107  0.853
6.362e+09  0.03358  -1.063  -0.01683  0.01668  0.04163  0.039  0.6697  0.6616
6.364e+09  -0.3679  -1.012  -0.02184  0.03043  -0.03165  0.01314  0.8762  0.4113
6.365e+09  -0.715  -0.8295  -0.03592  -0.02149  -0.01305  -0.003183  0.9544  0.1041
6.366e+09  -0.9908  -0.492  0.0321  -0.03782  0.0256  0.004493  0.9428  -0.237
6.368e+09  -1.122  -0.1261  0.01546  0.00898  0.04478  -0.005301  0.7909  -0.5129
6.369e+09  -1.055  0.257  -0.04106  -0.03607  -0.02245  0.02227  0.5426  -0.7655
6.37e+09  -0.9189  0.6208  -0.01922  -0.01459  -0.02984  -0.01486  0.2839  -0.8893
6.371e+09  -0.6182  0.9344  -0.003721  0.01767  0.01168  -0.0285  -0.06517  -0.9423
6.372e+09  -0.288  1.125  -0.01984  -0.03109  0.0004693  -0.002942  -0.3567  -0.8538
6.374e+09  0.1567  1.139  0.02099  -0.01702  -0.007501  0.03044  -0.7265  -0.7122
6.375e+09  0.5413  1.015  0.02404  0.0005753  0.02521  -0.01909  -0.8567  -0.4085
6.376e+09  0.885  0.7742  -0.004671  0.0314  -0.007062  0.01915  -0.9545  -0.08682
6.378e+09  1.068  0.3526  0.004848  -0.01  0.0521  -0.02967  -0.946  0.2308
6.379e+09  1.108  -0.07017  0.008442  0.04667  -0.0128  -0.01765  -0.8297  0.5325
6.38e+09  1.084  -0.4479  0.01569  -0.0008831  -0.0121  0.03723  -0.5366  0.7285
6.381e+09  0.8569  -0.7961  -0.02013  0.005952  0.04057  -0.003209  -0.243  0.9398
6.382e+09  0.4861  -1.039  -0.01851  -0.006448  0.02452  0.00962  0.07647  0.9169
6.384e+09  0.09548  -1.173  0.006805  0.01758  -0.0111  0.01145  0.3291  0.8594
6.385e+09  -0.3689  -1.093  -0.04033  0.0104  0.01002  -0.02864  0.6849  0.7022
6.386e+09  -0.7303  -0.9068  -0.009855  -0.006225  -0.006235  -0.005112  0.8308  0.4196
6.388e+09  -1.011  -0.6195  0.02327  -0.03173  -0.002165  0.01133  0.9007  0.106
6.389e+09  -1.155  -0.2009  -0.003939  0.04432  -0.005752  0.035  0.961  -0.2435
6.39e+09  -1.142  0.2121  0.01272  -0.01339  -0.05397  -0.00817  0.7912  -0.54
6.391e+09  -1.039  0.5866  -2.822e-05  0.008116  -0.007894  0.02439  0.5547  -0.737
6.392e+09  -0.7339  1.034  0.01056  -0.01059  0.03649  0.02985  0.2691  -0.8882
6.394e+09  -0.366  1.235  0.003291  -0.02269  0.03293  0.03579  -0.0197  -0.8736
6.395e+09  0.1067  1.216  0.05165  0.02212  -0.03609  -0.005329  -0.3354  -0.8541
6.396e+09  0.5076  1.147  -0.04578  0.00363  -0.02187  0.01252  -0.6051  -0.6777
6.398e+09  0.9136  0.8188  -0.009683  -0.002031  0.01947  -0.06358  -0.8455  -0.434
6.399e+09  1.233  0.4883  -0.03553  -0.03105  -0.01093  -0.03885  -0.8849  -0.1558
6.4e+09  1.233  0.1017  -0.05778  -0.007397  -0.002024  -0.02128  -0.9054  0.1787
6.401e+09  1.209  -0.4247  0.03296  0.0004806  -0.00106  0.02338  -0.799  0.4645
6.402e+09  0.9741  -0.79  -0.02803  -0.01034  0.02169  -0.02057  -0.6038  0.734
6.404e+09  0.6078  -1.138  0.02755  -0.01883  -0.005303  -0.01125  -0.3325  0.8666
6.405e+09  0.1571  -1.278  -0.006307  -0.01015  -0.0143  -0.01947  -0.004893  0.9153
6.406e+09  -0.3728  -1.254  -0.0407  0.0007227  0.002009  0.01831  0.288  0.8835
6.408e+09  -0.7966  -1.042  -0.02532  -0.04861  0.01842  0.0001532  0.6285  0.733
6.409e+09  -1.145  -0.7378  0.03841  -0.01557  0.01471  -0.02459  0.8268  0.4534
6.41e+09  -1.312  -0.2431  -0.001604  -0.004698  -0.01838  -0.0269  0.9002  0.1687
6.411e+09  -1.304  0.2415  0.01272  0.01457  -0.011  -0.01141  0.9409  -0.146
6.412e+09  -1.09  0.6621  0.05667  -0.004299  0.005549  -0.0426  0.8171  -0.3909
6.414e+09  -0.8042  1.075  0.01679  0.01569  -0.02189  0.02245  0.5664  -0.6586
6.415e+09  -0.3323  1.25  -0.02735  -0.02297  -0.02698  -0.01732  0.3206  -0.9075
6.416e+09  0.1175  1.245  0.003312  -0.04329  -0.01185  -0.01135  0.03536  -0.9132
6.418e+09  0.6225  1.137  0.05008  -0.01226  -0.02973  0.008883  -0.3086  -0.8457
6.419e+09  0.9983  0.8651  -0.02886  -0.01959  -0.007333  -0.02845  -0.5429  -0.6811
6.42e+09  1.285  0.3473  -0.02185  0.0293  0.009677  0.003943  -0.7713  -0.471
6.421e+09  1.3  -0.06425  0.0009055  -0.02215  0.01457  -0.002407  -0.8732  -0.1959
6.422e+09  1.227  -0.5094  -0.01678  -0.02161  0.002242  -0.02023  -0.8792  0.1262
6.424e+09  0.925  -0.9607  0.007411  0.009416  -0.02301  -0.008705  -0.816  0.3504
6.425e+09  0.5812  -1.198  0.002852  -0.009038  0.03352  -0.001719  -0.5848  0.6267
6.426e+09  0.1058  -1.313  -0.01737  0.005492  -0.01422  -0.04465  -0.3246  0.8122
6.428e+09  -0.4245  -1.186  0.02748  -0.001336  -0.01116  -0.01733  -0.04461  0.8987
6.429e+09  -0.8391  -0.9133  -0.01677  -0.002423  -0.05705  0.02271  0.2264  0.8638
6.43e+09  -1.167  -0.6437  0.04299  0.02337  -0.04037  -0.03913  0.5445  0.6498
6.431e+09  -1.293  -0.08741  0.01003  -0.03167  0.04494  -0.03183  0.7602  0.5149
6.432e+09  -1.249  0.3883  -0.03064  -0.002618  0.007288  0.01505  0.8754  0.2045
6.434e+09  -1.044  0.7536  -0.01128  0.0256  0.03142  -0.007551  0.8322  -0.07771
6.435e+09  -0.6876  1.084  -0.001655  0.03292  0.005165  -0.009933  0.7999  -0.3522
6.436e+09  -0.2606  1.235  -0.08249  0.01648  -0.00818  0.02536  0.5868  -0.6118
6.438e+09  0.1707  1.199  -0.007203  0.02935  0.005323  0.02286  0.3276  -0.817
6.439e+09  0.6605  1.067  -0.00261  0.006119  0.01001  -0.02134  0.05474  -0.8806
6.44e+09  0.9716  0.7004  0.009963  -0.0005052  -0.004588  -0.01956  -0.2416  -0.7817
6.441e+09  1.179  0.3623  0.003433  0.02241  0.01392  -0.07288  -0.5334  -0.6954
6.442e+09  1.22  -0.137  0.01095  -0.009316  -0.01971  -0.0303  -0.7431  -0.461
6.444e+09  1.09  -0.5245  0.03948  0.01122  0.03236  -0.02438  -0.8144  -0.185
6.445e+09  0.7635  -0.85  0.03646  0.01549  0.006544  0.02619  -0.8626  0.04921
6.446e+09  0.4771  -1.12  0.03388  0.01738  -0.008098  0.03952  -0.7192  0.3807
6.448e+09  0.05523  -1.2  -0.006345  0.01608  -0.02059  0.01493  -0.6207  0.5828
6.449e+09  -0.4437  -1.134  0.01836  0.0381  -0.0006883  0.01915  -0.3353  0.759
6.45e+09  -0.7889  -0.8747  0.01787  0.0437  0.007616  0.0245  -0.04653  0.8652
6.451e+09  -1.004  -0.5081  0.01738  0.009494  0.002713  -0.02887  0.2276  0.8185
6.452e+09  -1.147  -0.1721  0.006689  -0.01301  0.03104  0.04631  0.5452  0.6744
6.454e+09  -1.149  0.2502  0.0158  -0.009662  0.007547  -0.05274  0.6727  0.4679
6.455e+09  -0.9267  0.6309  -0.02982  0.02289  0.03017  0.001027  0.8292  0.1981
6.456e+09  -0.6444  0.9295  0.06382  0.02031  -0.01043  -0.01986  0.8717  -0.08716
6.458e+09  -0.2691  1.059  0.01219  0.02633  0.02907  0.07122  0.7569  -0.3598
6.459e+09  0.1164  1.174  -0.01276  -0.01595  -0.02604  -0.003857  0.553  -0.5886
6.46e+09  0.5197  0.9795  -0.01986  0.001097  -0.05716  -0.02074  0.3202  -0.7535
6.461e+09  0.8343  0.7386  -0.01651  -0.00339  0.001011  0.05621  0.09264  -0.8008
6.462e+09  1.081  0.4092  -0.00561  -0.02236  -0.01424  0.001614  -0.2411  -0.8242
6.464e+09  1.093  0.05503  -0.004207  -0.02927  0.0247  -0.0121  -0.5107  -0.6405
6.465e+09  1.025  -0.3372  -0.05096  -0.02804  -0.02355  0.0246  -0.6372  -0.4529
6.466e+09  0.8389  -0.7153  0.0531  -0.01908  0.04077  -0.01009  -0.7353  -0.2272
6.468e+09  0.5231  -0.9274  0.008633  0.02517  -0.01683  -0.05397  -0.7765  0.06607
6.469e+09  0.1268  -1.098  -0.0109  -0.00735  -0.00553  0.003907  -0.751  0.3148
6.47e+09  -0.2178  -1.035  0.01174  -0.01089  0.04524  0.0237  -0.5325  0.5765
6.471e+09  -0.537  -0.8991  0.01443  -0.03783  0.001396  -0.02137  -0.3406  0.7077
6.472e+09  -0.8535  -0.6594  0.02935  -0.01564  -0.0237  0.03102  -0.08752  0.8653
6.474e+09  -0.9836  -0.2651  -0.02077  -0.006295  -0.0125  -0.04933  0.1966  0.7783
6.475e+09  -1.024  0.09995  0.01807  0.01117  0.007285  -0.05485  0.463  0.6099
6.476e+09  -0.949  0.4394  0.0389  0.009514  0.03367  0.002811  0.6283  0.419
6.478e+09  -0.7565  0.7259  -0.009267  -0.0223  -0.04284  -0.006473  0.7505  0.1766
6.479e+09  -0.3957  0.9647  -0.01843  -0.02369  -0.01897  0.002913  0.7695  -0.112
6.48e+09  -0.1078  0.9981  -0.004712  0.01493  0.03891  -0.0589  0.6974  -0.3832
6.481e+09  0.2559  1.009  -0.02593  0.008123  0.04948  0.02519  0.5728  -0.5447
6.482e+09  0.6251  0.7972  0.04459  0.002356  -0.05814  0.01281  0.3188  -0.6919
6.484e+09  0.8514  0.5456  0.003904  -0.06428  0.04256  -0.0004623  0.08221  -0.7478
6.485e+09  0.9702  0.2168  -0.04997  -0.01754  -0.006159  0.004734  -0.2287  -0.7729
6.486e+09  1.06  -0.1453  -0.008754  0.01709  -0.04016  0.01633  -0.4597  -0.6121
6.488e+09  0.7075  -1.174  0.01291  -0.05275  0.2651  -0.623  -0.6579  -0.4264
6.489e+09  0.6508  -0.767  0.009347  -0.03615  -0.0259  -0.01815  -0.7511  -0.1914
6.49e+09  0.3919  -0.9237  -0.003292  -0.03318  -0.004585  0.05788  -0.76  0.0635
6.491e+09  -0.009175  -0.9899  -0.05903  0.03425  -0.004918  -0.02878  -0.705  0.3579
6.492e+09  -0.374  -0.9368  0.01179  -0.02716  -0.05741  -0.008989  -0.5314  0.5386
6.494e+09  -0.6097  -0.6671  0.04437  -0.01279  0.07091  -0.01631  -0.2873  0.7199
6.495e+09  -0.9086  -0.4635  -0.03327  0.005828  0.01021  0.002577  -0.04547  0.7769
6.496e+09  -1.049  -0.1902  -0.02301  0.009632  -0.004958  -0.03565  0.211  0.7189
6.498e+09  -0.9854  0.1673  0.006765  0.008935  -0.07233  0.01279  0.4868  0.5874
6.499e+09  -0.889  0.5203  0.007078  -0.001672  -0.06351  0.01379  0.6771  0.4242
6.5e+09  -0.1148  1.176  0.01751  0.02683  -0.0112  0.005023  0.7185  0.156
6.501e+09  -0.294  0.9917  0.02288  -0.01836  0.03553  -0.01498  0.7287  -0.09307
6.502e+09  0.06869  1.03  -0.0004388  -0.05942  0.0003157  0.01706  0.682  -0.3698
6.504e+09  0.3676  0.9598  0.01297  0.01846  -0.04151  -0.0437  0.5337  -0.5814
6.505e+09  0.6643  0.7407  -0.005957  0.01168  -0.0268  0.008264  0.2966  -0.698
6.506e+09  0.9632  0.4439  0.006388  -0.01446  -0.06999  0.01313  0.0127  -0.7615
6.508e+09  1.013  0.1753  0.002771  0.02423  0.00673  0.01454  -0.2694  -0.7406
6.509e+09  0.9423  -0.2207  -0.002561  -0.02019  0.01333  0.006266  -0.4892  -0.5958
6.51e+09  0.8806  -0.5235  0.02122  0.01492  0.03062  -0.01026  -0.6696  -0.4096
6.511e+09  0.6643  -0.8002  0.008207  -0.0165  0.01311  -0.02705  -0.7485  -0.1291
6.512e+09  0.3296  -0.9681  -0.01822  -0.02249  0.0127  -0.001765  -0.7088  0.1351
6.514e+09  -0.05004  -1.062  -0.04408  -0.005741  0.05865  0.00382  -0.6445  0.3628
6.515e+09  -0.4518  -0.945  0.03196  0.04206  -0.05964  -0.03044  -0.4356  0.6031
6.516e+09  -0.6561  -0.7654  0.006612  0.01338  0.004418  -0.03681  -0.2461  0.6981
6.518e+09  -0.8934  -0.4742  0.02607  0.003079  0.04542  0.01321  0.0423  0.7327
6.519e+09  -1.058  -0.08228  0.01931  -0.02836  -0.006859  0.02146  0.2793  0.6924
6.52e+09  -1.01  0.2584  -0.0267  0.0008185  0.01564  -0.01531  0.5102  0.5439
6.521e+09  -0.9154  0.6435  -0.02016  -0.01077  0.03327  0.04005  0.6678  0.3341
6.522e+09  -0.6117  0.8794  -0.01428  -0.0128  0.07558  0.0421  0.7529  0.09175
6.524e+09  -0.2706  1.073  0.01121  0.005682  0.02034  0.01269  0.6976  -0.1262
6.525e+09  0.1497  1.054  0.01813  0.01396  0.04731  0.01534  0.6195  -0.3817
6.526e+09  0.5076  1.031  -0.006609  -0.01525  0.004579  0.01738  0.3906  -0.5864
6.528e+09  0.8101  0.744  0.01827  0.02761  -0.01518  0.02554  0.1454  -0.7162
6.529e+09  1.052  0.4088  -0.01226  0.0126  0.001483  0.04112  -0.05007  -0.7063
6.53e+09  1.103  0.05827  -0.03811  0.01836  0.03553  -0.007794  -0.3117  -0.6248
6.531e+09  1.064  -0.3474  -0.00867  -0.01423  -0.008658  0.003053  -0.4756  -0.4942
6.532e+09  0.9459  -0.6873  0.0329  0.01471  -0.04383  0.008944  -0.5851  -0.2871
6.534e+09  0.5592  -0.9349  -0.03755  0.04093  -0.007349  -0.01475  -0.641  -0.1002
6.535e+09  0.2123  -1.105  -0.009859  -0.01565  -0.0248  -0.0006845  -0.6163  0.1345
6.536e+09  -0.1555  -1.098  0.03497  0.008045  -0.02089  0.02652  -0.5506  0.3192
6.538e+09  -0.5315  -0.9697  -0.0005382  0.007261  -0.0211  -0.0005021  -0.4665  0.4805
6.539e+09  -0.9188  -0.7385  -0.02671  -0.01764  0.009689  0.01943  -0.2623  0.6187
6.54e+09  -1.095  -0.3328  0.02592  0.01212  -0.04323  0.01269  -0.06949  0.6901
6.541e+09  -1.111  0.007002  -0.01011  0.01687  0.02561  0.007769  0.2104  0.6751
6.542e+09  -1.125  0.3833  0.02224  -0.01178  0.04064  0.042  0.41  0.5781
6.544e+09  -0.868  0.841  -0.0149  0.03037  -0.002388  0.05716  0.5968  0.4176
6.545e+09  -0.5546  1.079  -0.02415  -0.01449  0.007478  0.03372  0.6792  0.1531
6.546e+09  -0.1075  1.216  -0.01887  -0.003158  -0.02405  -0.01958  0.7351  -0.08137
6.548e+09  0.3143  1.134  -0.001629  -0.00387  0.02263  0.01807  0.6348  -0.35
6.549e+09  0.6871  0.9983  -0.008562  -0.01012  0.0124  0.03452  0.5081  -0.5266
6.55e+09  1.024  0.6942  0.02322  -0.02248  -0.02309  -0.02116  0.2777  -0.7058
6.551e+09  1.178  0.2631  -0.0006379  -0.0001278  -0.01511  0.01715  0.004609  -0.7617
6.552e+09  1.209  -0.1476  0.007769  -0.001098  -0.02339  -0.03093  -0.2064  -0.7042
