# Hz S RI R 50
6.25e+09  0.4679  0.8028  -0.003462  0.02867  -0.02931  0.02574  0.1798  0.4586
6.251e+09  0.7601  0.597  -0.02771  -0.002534  -0.03973  0.02819  0.4118  0.4106
6.252e+09  0.9634  0.2725  0.01287  -0.007115  -0.02661  -0.01934  0.5527  0.2437
6.254e+09  0.9416  -0.03969  -0.01837  -0.02772  0.01258  0.01213  0.643  -0.002555
6.255e+09  0.9009  -0.3595  -0.02163  -0.003772  0.0004404  0.0265  0.5686  -0.2394
6.256e+09  0.7231  -0.6088  0.0121  0.02072  -0.01354  -0.01227  0.4768  -0.4632
6.258e+09  0.4487  -0.8582  -0.04123  -0.02734  0.0217  0.02203  0.2659  -0.5814
6.259e+09  0.1157  -0.9671  0.01857  0.001727  -0.04407  -0.04175  0.04271  -0.6684
6.26e+09  -0.2327  -0.902  -0.007481  0.02718  0.01718  -0.05062  -0.18  -0.685
6.261e+09  -0.573  -0.7683  -0.00588  0.008816  -0.02538  -0.04459  -0.4553  -0.5334
6.262e+09  -0.8304  -0.5364  0.01346  -0.006654  -0.0258  -0.02607  -0.6151  -0.3373
6.264e+09  -0.9063  -0.1616  -0.002509  -0.01825  -0.02083  -0.04697  -0.6794  -0.07311
6.265e+09  -0.9524  0.1023  0.00381  0.01079  -0.01584  -0.06057  -0.7111  0.1527
6.266e+09  -0.8822  0.4417  0.02617  -0.01677  -0.02405  -0.04722  -0.6304  0.3759
6.268e+09  -0.693  0.7292  0.002814  0.003265  -0.03791  0.02233  -0.4042  0.5498
6.269e+09  -0.3653  0.8885  0.01512  -0.02216  -0.002341  -0.05827  -0.2116  0.6854
6.27e+09  -0.009512  0.9591  -0.009936  0.04339  -0.01493  0.0588  0.03772  0.7464
6.271e+09  0.3167  0.8988  -0.01708  0.01093  -0.005637  0.03089  0.3198  0.6522
6.272e+09  0.5543  0.7285  -0.03213  0.04199  0.02806  -0.01169  0.5102  0.5295
6.274e+09  0.8173  0.4617  -0.006707  0.03278  0.04889  0.02052  0.7052  0.3063
6.275e+09  0.9204  0.1355  0.004398  -0.02029  0.03704  -0.04118  0.7257  0.05543
6.276e+09  0.9469  -0.1891  0.004904  -0.005664  0.05141  -0.01429  0.73  -0.2127
6.278e+09  0.8224  -0.5115  0.001711  0.05252  0.01296  0.04752  0.6291  -0.458
6.279e+09  0.5193  -0.7126  -0.01339  -0.015  -0.001594  0.004393  0.3958  -0.6576
6.28e+09  0.2936  -0.9542  0.01078  0.01088  -0.02854  -0.05875  0.1677  -0.762
6.281e+09  -0.02844  -0.914  0.01264  -0.02088  0.04427  -0.01207  -0.09664  -0.7724
6.282e+09  -0.3315  -0.8635  0.01412  -0.0276  -0.04477  0.02423  -0.3648  -0.6983
6.284e+09  -0.6497  -0.7245  -0.001686  0.01495  0.02122  -0.04589  -0.5914  -0.5447
6.285e+09  -0.8196  -0.4818  -0.04244  -0.01429  0.03164  -0.04134  -0.7555  -0.3143
6.286e+09  -0.9022  -0.1428  -0.01653  -0.04021  -0.0114  -0.03277  -0.7824  -0.005069
6.288e+09  -0.8999  0.2271  -0.01829  -0.01221  0.001423  -0.0008397  -0.7558  0.2827
6.289e+09  -0.751  0.5328  0.03266  0.007992  0.02166  0.008464  -0.6235  0.5156
6.29e+09  -0.5584  0.7361  0.03409  -0.02028  -0.00948  0.0235  -0.3937  0.6742
6.291e+09  -0.2857  0.9595  -0.03314  -0.03463  -0.04463  -0.02109  -0.1893  0.797
6.292e+09  0.08122  0.9468  0.0101  -0.006461  0.02501  0.02086  0.1182  0.7985
6.294e+09  0.4564  0.8904  0.002436  -0.02176  0.004463  -0.01144  0.3987  0.6818
6.295e+09  0.6913  0.6467  -0.01501  0.02299  -0.04879  -0.01711  0.6325  0.5672
6.296e+09  0.8808  0.3909  -0.01548  0.003902  0.01651  -0.01686  0.8043  0.2558
6.298e+09  0.9212  0.02363  0.01603  -0.03456  -0.03895  -0.02698  0.8367  -0.002489
6.299e+09  0.8879  -0.3073  0.02774  -0.03323  -0.07124  -0.03454  0.8024  -0.2514
6.3e+09  0.7683  -0.6319  -0.0114  -0.01113  0.01068  0.04369  0.6181  -0.5309
6.301e+09  0.4714  -0.828  0.002573  0.003662  0.00222  0.004794  0.4013  -0.7006
6.302e+09  0.1693  -0.9923  -0.01432  0.004454  -0.006624  0.05921  0.1888  -0.8265
6.304e+09  -0.1227  -0.9067  0.0009719  -0.01015  -0.03144  -0.003474  -0.1701  -0.8418
6.305e+09  -0.5011  -0.9073  0.02203  -0.009106  -0.005046  0.005782  -0.4264  -0.7218
6.306e+09  -0.7574  -0.6236  0.01627  0.01283  -0.08054  0.03967  -0.6432  -0.5647
6.308e+09  -0.9321  -0.3175  -0.01131  -0.004723  0.00392  -0.0136  -0.7642  -0.2798
6.309e+09  -0.9636  0.0114  0.008257  -0.001737  -0.01409  -0.0142  -0.8504  0.01266
6.31e+09  -0.9078  0.3705  -0.0006121  -0.01554  0.05304  -0.04265  -0.8347  0.2981
6.311e+09  -0.7333  0.71  -0.002741  -0.01847  0.04847  -0.01253  -0.6714  0.5861
6.312e+09  -0.4371  0.8466  -0.008341  0.007671  -0.02622  -0.02384  -0.4756  0.7332
6.314e+09  -0.1049  1.02  -0.002421  0.02512  -0.004436  -0.0162  -0.1875  0.8685
6.315e+09  0.1946  0.9971  0.02075  0.0008289  -0.03899  -0.03852  0.1491  0.8752
6.316e+09  0.5573  0.8565  -0.02786  0.005396  0.04213  0.009636  0.4008  0.757
6.318e+09  0.8073  0.607  0.01101  0.005561  0.02055  -0.01852  0.6608  0.5567
6.319e+09  0.9729  0.2863  0.004205  0.0261  -0.01777  -0.01548  0.8098  0.3381
6.32e+09  1.012  -0.1105  -0.02699  -0.008819  0.01664  -0.01705  0.8903  -0.04098
6.321e+09  0.9499  -0.4033  -0.0006563  0.01783  0.05189  -0.02624  0.836  -0.2712
6.322e+09  0.6896  -0.6867  -0.01504  -0.008608  0.005586  0.008278  0.6931  -0.5753
6.324e+09  0.3743  -0.924  0.007161  -0.01336  -0.04008  0.01728  0.4479  -0.7722
6.325e+09  0.02848  -1.012  -0.002086  -0.03733  0.026  0.03085  0.1626  -0.8957
6.326e+09  -0.2801  -0.9779  -0.01125  0.02057  0.003264  0.02099  -0.1337  -0.9332
6.328e+09  -0.6757  -0.7765  -0.02438  -0.01899  0.108  -0.01541  -0.4667  -0.7873
6.329e+09  -0.9094  -0.5442  0.02834  0.001474  -0.007684  -0.02359  -0.6926  -0.587
6.33e+09  -1.022  -0.2267  0.008306  -0.03074  -0.0168  -0.01167  -0.8712  -0.3247
6.331e+09  -1.058  0.1735  0.001232  0.02102  -0.01338  0.02718  -0.9142  -0.01434
6.332e+09  -0.9046  0.5091  -0.01826  0.005589  0.03519  0.02842  -0.8805  0.3266
6.334e+09  -0.7322  0.7829  0.01598  -0.005605  -0.02424  -0.008594  -0.7327  0.5588
6.335e+09  -0.3757  0.9935  -0.02843  -0.01291  -0.01424  -0.009632  -0.4589  0.7829
6.336e+09  0.04114  1.006  -0.02123  -0.009452  -0.01739  -0.0317  -0.2162  0.9317
6.338e+09  0.3789  1.027  0.0122  -0.006478  -0.05811  -0.01026  0.1702  0.9291
6.339e+09  0.7348  0.8411  0.002843  -0.001857  -0.02509  0.0651  0.4618  0.8022
6.34e+09  0.9218  0.5185  -0.01083  -0.01402  -0.002668  -0.003095  0.6677  0.6367
6.341e+09  1.099  0.2049  0.005795  -0.01374  0.04302  -0.03905  0.8878  0.345
6.342e+09  1.107  -0.2013  0.009818  -0.0409  0.02982  0.03292  0.9198  0.08066
6.344e+09  0.9165  -0.6216  0.02192  0.009229  -0.03311  -0.01112  0.8739  -0.2585
6.345e+09  0.6313  -0.8758  -0.01904  0.01775  -0.02581  -0.02995  0.739  -0.5734
6.346e+09  0.3076  -1.026  -0.002219  -0.01419  -0.03326  -0.03345  0.5094  -0.7506
6.348e+09  -0.08206  -1.095  0.0004491  -0.02164  0.009976  0.006981  0.2167  -0.9067
6.349e+09  -0.4414  -1.023  -0.01289  0.01131  0.0248  -0.03755  -0.08777  -0.9352
6.35e+09  -0.806  -0.8519  0.002272  -0.05401  -0.02463  0.01485  -0.4234  -0.8539
6.351e+09  -1.013  -0.5303  -0.0006982  0.009012  -0.001184  -0.07867  -0.6513  -0.6342
6.352e+09  -1.114  -0.1471  0.01237  0.01021  -0.002783  0.01588  -0.8536  -0.4299
6.354e+09  -1.102  0.2926  0.01563  0.01839  -0.02909  -0.01144  -0.9456  -0.07062
6.355e+09  -0.9378  0.6269  -0.01549  0.02291  0.03932  -0.04124  -0.9148  0.27
6.356e+09  -0.625  0.9163  0.002773  -0.008423  0.01692  -0.03881  -0.7422  0.5753
6.358e+09  -0.2797  1.146  -0.01756  -0.04967  -0.0009297  -0.01803  -0.5223  0.7716
6.359e+09  0.0976  1.203  0.01573  -0.002666  -0.01398  0.01994  -0.21  0.8992
6.36e+09  0.5464  1.076  0.02969  0.06164  -0.002871  0.001198  0.06381  0.9309
6.361e+09  0.8648  0.8251  0.02376  -0.004142  -0.03179  0.01674  0.472  0.8188
6.362e+09  1.037  0.46  -0.05402  0.0008588  -0.001001  0.009123  0.7072  0.707
6.364e+09  1.158  0.04852  -0.04169  0.01499  0.005146  -0.03408  0.8609  0.4201
6.365e+09  1.084  -0.3664  -0.006163  -0.0212  0.007653  0.04638  0.9301  0.06053
6.366e+09  0.9414  -0.8093  0.004259  -0.03044  0.02933  -0.02024  0.9269  -0.2482
6.368e+09  0.5974  -1.068  0.02955  0.006851  -0.0009678  -0.01559  0.7551  -0.5748
6.369e+09  0.2338  -1.202  -0.003839  -0.004072  0.0004328  -0.0148  0.5495  -0.7583
6.37e+09  -0.1567  -1.185  0.00557  0.008461  -0.01274  0.02543  0.238  -0.8779
6.371e+09  -0.5987  -1.078  -0.01467  -0.04547  0.02781  0.001989  -0.1218  -0.967
6.372e+09  -0.9131  -0.7963  -0.02003  -0.005516  -0.0266  0.01384  -0.3681  -0.8862
6.374e+09  -1.225  -0.4397  -0.0321  -0.007048  0.03234  0.003182  -0.6767  -0.6543
6.375e+09  -1.279  -0.01657  -0.00813  -0.02495  0.02076  0.03882  -0.8377  -0.3886
6.376e+09  -1.207  0.4176  0.003744  -0.02471  0.008729  -0.002507  -0.9169  -0.07303
6.378e+09  -0.9803  0.8203  -0.01982  0.03776  -0.02974  -0.01189  -0.9186  0.2834
6.379e+09  -0.5927  1.109  -0.01655  -0.01878  -0.03308  0.04779  -0.7474  0.5266
6.38e+09  -0.2086  1.237  -0.0522  -0.0194  -0.04397  0.01743  -0.5554  0.7613
6.381e+09  0.2839  1.286  -0.03526  0.01198  -0.02099  -0.0234  -0.2502  0.8784
6.382e+09  0.7186  1.102  -0.04607  -0.01239  -0.01378  -0.06133  0.05882  0.9456
6.384e+09  1.065  0.8062  -0.001034  0.03166  -0.01365  -0.0089  0.4091  0.8465
6.385e+09  1.331  0.3936  0.01633  -0.003069  0.03371  0.00555  0.691  0.6717
6.386e+09  1.333  -0.08965  0.03983  -0.04473  -0.02902  0.01818  0.8273  0.4244
6.388e+09  1.256  -0.6037  0.02138  0.02352  -0.004622  0.03385  0.9129  0.1135
6.389e+09  0.959  -0.9795  0.01892  -0.02011  -0.03929  0.02327  0.9247  -0.2352
6.39e+09  0.6412  -1.252  -0.02646  0.002426  -0.04204  -0.03595  0.7708  -0.5236
6.391e+09  0.1665  -1.371  0.06701  -0.001739  -0.0125  -0.005378  0.5472  -0.7499
6.392e+09  -0.3487  -1.355  0.03395  0.006015  0.02482  0.006606  0.2427  -0.8589
6.394e+09  -0.8205  -1.231  0.0287  0.02114  0.009678  0.01524  0.006521  -0.9103
6.395e+09  -1.211  -0.8352  0.03165  0.01631  -0.01514  -0.00126  -0.3554  -0.8668
6.396e+09  -1.515  -0.337  0.01364  0.02066  -0.0265  -0.05599  -0.6153  -0.6893
6.398e+09  -1.471  0.1586  0.001727  -0.0151  0.008753  -0.03282  -0.8206  -0.4496
6.399e+09  -1.365  0.7025  0.02342  -0.0006958  0.03513  0.03177  -0.9471  -0.1633
6.4e+09  -1.003  1.078  -0.03153  -0.02507  0.004455  0.01543  -0.8785  0.1657
6.401e+09  -0.6322  1.378  -0.01235  0.02706  -0.01833  -0.0004761  -0.7595  0.4463
6.402e+09  -0.03535  1.539  0.01712  -0.03111  -0.02911  -0.01229  -0.6555  0.7287
6.404e+09  0.4546  1.497  0.02929  -0.003574  -0.0005637  -0.004157  -0.3168  0.843
6.405e+09  0.9885  1.289  -0.01639  0.02539  0.009824  -0.002989  -0.001865  0.9174
6.406e+09  1.399  0.9411  -0.01047  0.01552  0.02209  -0.03559  0.3033  0.852
6.408e+09  1.622  0.3446  0.02832  0.0165  0.01917  -0.03353  0.5811  0.732
6.409e+09  1.697  -0.2908  0.005469  -0.03312  0.02598  0.03712  0.8128  0.4517
6.41e+09  1.49  -0.8617  0.01577  -0.007064  0.04389  0.02315  0.9041  0.1682
6.411e+09  1.153  -1.308  0.0504  -0.01924  0.05466  -0.02394  0.9567  -0.1174
6.412e+09  0.5862  -1.618  0.03072  0.01554  0.0634  -0.008736  0.7982  -0.4216
6.414e+09  -0.05855  -1.835  0.0272  0.03422  0.06196  -0.0433  0.5864  -0.6781
6.415e+09  -0.6528  -1.638  0.0292  -0.008501  0.01754  0.02003  0.3017  -0.8698
6.416e+09  -1.191  -1.387  0.01563  0.006372  -0.02888  -0.02442  0.01154  -0.923
6.418e+09  -1.621  -0.884  -0.02416  -0.007479  0.01827  0.001163  -0.2747  -0.8178
6.419e+09  -1.857  -0.2074  -0.00712  -0.009311  0.05261  0.02066  -0.5745  -0.7187
6.42e+09  -1.864  0.4615  0.001551  0.02462  0.01289  -0.001876  -0.7091  -0.4685
6.421e+09  -1.617  1.138  0.00922  -0.03411  0.02769  -0.01038  -0.8858  -0.2083
6.422e+09  -1.154  1.65  -0.01337  0.02167  -0.04529  0.03939  -0.8709  0.1441
6.424e+09  -0.5155  1.939  0.01441  -0.02139  -0.01326  -0.005682  -0.7877  0.3922
6.425e+09  0.282  2.033  -0.02693  -0.02059  -0.0002735  0.01741  -0.6017  0.6764
6.426e+09  1.004  1.898  -0.01549  0.03902  -0.01661  0.06507  -0.3697  0.7911
6.428e+09  1.582  1.432  -0.04762  0.01048  0.04838  0.01779  -0.1013  0.8682
6.429e+09  2.074  0.787  -0.004667  -0.002752  -0.02636  -0.04606  0.2443  0.8254
6.43e+09  2.253  -0.01747  0.008044  0.01196  -0.04352  0.01587  0.5076  0.7121
6.431e+09  2.14  -0.8654  -0.01114  0.01036  0.06088  0.02491  0.7  0.4764
6.432e+09  1.813  -1.532  -0.003358  0.01549  -0.008255  -0.007587  0.8662  0.1937
6.434e+09  1.155  -2.103  0.01243  -0.02287  0.01084  0.03007  0.831  -0.1005
6.435e+09  0.262  -2.406  0.03219  -0.0295  0.01453  0.01437  0.8169  -0.3792
6.436e+09  -0.6558  -2.416  -0.004275  -0.0522  0.04785  -0.0263  0.592  -0.6259
6.438e+09  -1.491  -2.102  -0.02785  -0.02369  -0.03941  -0.03277  0.3282  -0.8021
6.439e+09  -2.169  -1.395  0.003878  0.009709  -0.005022  -0.0476  0.08491  -0.8481
6.44e+09  -2.605  -0.5624  -0.01444  -0.003598  0.04515  0.0295  -0.2329  -0.816
6.441e+09  -2.651  0.4308  0.008905  0.01924  -0.0468  0.01679  -0.4747  -0.6522
6.442e+09  -2.386  1.435  -0.0005162  -0.0199  -0.02724  0.03454  -0.7159  -0.4729
6.444e+09  -1.694  2.273  0.009905  -0.03009  -0.02703  0.01242  -0.7959  -0.1767
6.445e+09  -0.8128  2.83  -0.02504  0.001366  0.0005347  0.06338  -0.8485  0.06
6.446e+09  0.2297  2.964  -0.01457  -0.01267  -0.06753  -0.001528  -0.7312  0.3493
6.448e+09  1.309  2.791  -0.01365  -0.002875  -0.04052  -0.003962  -0.597  0.6059
6.449e+09  2.252  2.134  0.02843  -0.01128  0.05893  -0.03496  -0.355  0.7902
6.45e+09  2.921  1.144  0.002729  0.01086  -0.01017  0.01302  -0.06583  0.8225
6.451e+09  3.26  -0.08521  0.01971  0.03989  0.03138  0.04411  0.2919  0.7796
6.452e+09  3.129  -1.199  -0.02791  0.01021  -0.09959  0.03958  0.476  0.6629
6.454e+09  2.468  -2.366  -0.001004  0.01965  0.01348  -0.007876  0.7017  0.47
6.455e+09  1.444  -3.167  -0.02877  -0.003079  -0.09014  -0.02918  0.7833  0.1624
6.456e+09  0.2566  -3.605  -0.0222  -0.01863  -0.02895  -0.02612  0.8272  -0.07776
6.458e+09  -1.169  -3.491  -0.03881  -0.03655  -0.03909  0.05864  0.7427  -0.3962
6.459e+09  -2.368  -2.877  -0.009825  0.00949  0.05706  -0.01257  0.5557  -0.5934
6.46e+09  -3.385  -1.8  0.01185  0.005119  0.06903  -0.03464  0.3249  -0.8121
6.461e+09  -3.913  -0.4521  -0.00168  -0.009975  0.008406  -0.02601  0.04462  -0.8034
6.462e+09  -3.947  1.15  0.0114  0.004532  0.01775  0.0132  -0.1742  -0.7958
6.464e+09  -3.315  2.569  0.01833  -0.001093  0.06237  -0.01664  -0.4775  -0.645
6.465e+09  -2.117  3.657  -0.02983  -0.0124  0.06062  0.02119  -0.6618  -0.4614
6.466e+09  -0.6195  4.408  0.02376  0.007846  0.06624  0.01356  -0.7945  -0.2011
6.468e+09  1.064  4.383  0.0246  -0.01316  0.004558  0.07459  -0.7912  0.08557
6.469e+09  2.668  3.623  0.04709  -0.04325  0.01762  0.07351  -0.7077  0.3563
6.47e+09  3.944  2.391  0.006599  0.05279  -0.02453  -0.01365  -0.6112  0.578
6.471e+09  4.632  0.8087  0.01441  0.02515  0.03882  0.101  -0.3302  0.7241
6.472e+09  4.627  -1.192  0.02846  0.0117  -0.02222  0.02837  -0.01825  0.8064
6.474e+09  3.931  -2.749  -0.01794  0.004521  -0.005008  0.04309  0.1617  0.7133
6.475e+09  2.709  -4.314  -0.008247  -0.0156  -0.0004489  0.1329  0.4507  0.644
6.476e+09  0.759  -4.966  0.002597  -0.003206  0.05202  0.1029  0.6285  0.4496
6.478e+09  -1.131  -5.051  -0.02507  0.05111  0.01584  -0.006373  0.7752  0.1853
6.479e+09  -3.077  -4.251  0.005694  -0.02307  -0.0001125  0.1904  0.7582  -0.05584
6.48e+09  -4.561  -2.655  0.02389  0.01489  -0.01802  -0.02537  0.7157  -0.381
6.481e+09  -5.331  -0.82  -0.003083  -0.02626  -0.06732  -0.09314  0.5501  -0.5069
6.482e+09  -5.395  1.464  -0.01147  -0.03772  0.09131  0.004711  0.3336  -0.6922
6.484e+09  -4.345  3.375  0.02244  0.01806  -0.0221  -0.1039  0.03234  -0.8149
6.485e+09  -2.896  4.875  -0.001045  -0.0583  -0.01751  0.1073  -0.2434  -0.7656
6.486e+09  -0.7173  5.675  0.009705  -0.002958  -0.04563  0.08954  -0.4612  -0.6134
6.488e+09  0.8478  5.035  -0.02096  -0.04124  0.6866  -0.4243  -0.6462  -0.4319
6.489e+09  3.57  4.472  -0.03724  0.02223  -0.03433  -0.06322  -0.7756  -0.2203
6.49e+09  5.087  2.764  0.02096  0.02299  -0.03899  -0.02021  -0.7336  0.08067
6.491e+09  5.732  0.5902  -0.005179  -0.03482  0.01984  -0.0893  -0.696  0.3667
6.492e+09  5.587  -1.645  -0.0128  -0.04794  -0.01769  -0.0148  -0.5279  0.531
6.494e+09  4.334  -3.709  0.00348  0.0315  0.027  -0.135  -0.3667  0.6743
6.495e+09  2.759  -5.264  -0.02203  0.006668  -0.06373  0.04052  -0.000409  0.8073
6.496e+09  0.5131  -5.938  0.004794  0.009992  -0.068  0.06355  0.2165  0.7029
6.498e+09  -1.887  -5.673  -0.02117  -0.01841  0.08682  -0.03868  0.4528  0.6335
6.499e+09  -3.913  -4.461  -0.006516  0.004407  0.01747  0.06089  0.5951  0.4097
6.5e+09  -5.106  3.076  0.05737  -0.01438  0.05822  0.02492  0.7452  0.1749
6.501e+09  -5.959  -0.3203  -0.0009308  0.03636  0.1504  0.01421  0.7659  -0.1223
6.502e+09  -5.634  1.91  -0.03381  -0.01727  -0.136  -0.002883  0.6801  -0.3424
6.504e+09  -4.243  3.842  -0.02999  -0.01244  -0.01587  -0.03704  0.5455  -0.5375
6.505e+09  -2.393  5.302  0.02694  0.01113  0.1099  -0.002651  0.2924  -0.6818
6.506e+09  -0.2725  5.822  0.006162  -0.0123  -0.06166  -0.004542  0.02655  -0.7772
6.508e+09  2.132  5.489  0.004616  -0.00441  0.04206  0.02531  -0.2523  -0.7605
6.509e+09  3.903  4.217  0.01324  0.00623  -0.06921  -0.006234  -0.4747  -0.6085
6.51e+09  5.227  2.271  0.05453  0.003849  0.01472  -0.07456  -0.6566  -0.4361
6.511e+09  5.721  0.1074  0.009238  -0.002926  -0.008373  -0.03497  -0.7467  -0.1501
6.512e+09  5.242  -2.11  0.002985  0.03837  0.02642  -0.002841  -0.7374  0.109
6.514e+09  3.977  -3.929  -0.008186  0.0004282  -0.02648  -0.08696  -0.6646  0.3791
6.515e+09  2.174  -5.078  0.02994  -0.04168  0.018  -0.1028  -0.4975  0.5772
6.516e+09  0.03516  -5.46  -0.02278  -0.0189  0.03223  -0.07917  -0.2392  0.7202
6.518e+09  -1.957  -4.963  -0.002439  0.05765  0.01135  -0.05401  -0.0004131  0.7486
6.519e+09  -3.637  -3.817  -0.01012  0.02369  0.04463  -0.0696  0.2831  0.6782
6.52e+09  -4.789  -1.922  0.007666  -0.02361  0.03296  0.03727  0.513  0.5727
6.521e+09  -5.098  -0.09262  -0.01898  -0.0009419  0.03687  0.04441  0.6534  0.3661
6.522e+09  -4.657  1.931  -0.005206  -0.01992  -0.002397  0.06188  0.7541  0.1215
6.524e+09  -3.547  3.534  0.01368  0.01171  0.02827  0.0451  0.7235  -0.1727
6.525e+09  -1.915  4.47  0.002376  0.002366  -0.02295  0.0207  0.6008  -0.3885
6.526e+09  -0.03074  4.706  -0.03165  -0.007176  -0.07889  -0.01703  0.4119  -0.5875
6.528e+09  1.732  4.408  0.01831  0.003286  -0.02038  0.02669  0.2221  -0.6679
6.529e+09  3.15  3.326  -0.01185  0.02483  0.06332  -0.03097  -0.07241  -0.6622
6.53e+09  4.105  1.811  -0.01989  -0.0009097  0.004359  -0.04781  -0.2844  -0.6385
6.531e+09  4.461  0.1362  -0.02732  -0.01329  0.0045  -0.07216  -0.4879  -0.4422
6.532e+09  4.052  -1.446  0.01622  -0.007887  -0.03694  0.05551  -0.6014  -0.2981
6.534e+09  3.127  -2.924  -0.02175  -0.04415  -0.01147  0.04812  -0.6371  -0.09936
6.535e+09  1.764  -3.657  -0.01945  -0.00717  -0.0175  0.06574  -0.6043  0.1311
6.536e+09  0.2918  -4.01  -0.0107  0.01814  0.007156  -0.04028  -0.5507  0.3174
6.538e+09  -1.301  -3.752  -0.00152  -0.006183  -0.04702  -0.005111  -0.4629  0.4651
6.539e+09  -2.469  -3.056  -0.025  -0.0321  0.04098  -0.05896  -0.28  0.6001
6.54e+09  -3.321  -1.756  -0.02919  -0.03225  -0.04849  0.03951  -0.06601  0.6821
6.541e+09  -3.667  -0.3875  0.01657  -0.00317  0.06055  0.008696  0.2009  0.676
6.542e+09  -3.497  0.9017  0.001173  0.03064  -0.0905  -0.04756  0.4255  0.5723
6.544e+09  -2.764  2.056  0.01767  0.003239  0.004915  -0.04256  0.6312  0.3939
6.545e+09  -1.799  2.916  -0.03129  0.02772  -0.01492  0.01562  0.7086  0.1881
6.546e+09  -0.5724  3.329  0.02618  -0.01668  0.09486  -0.01255  0.7279  -0.09558
6.548e+09  0.6042  3.202  -0.003388  -0.02203  0.05363  0.03657  0.6369  -0.3295
6.549e+09  1.73  2.667  -0.003833  -0.01563  0.001797  0.05139  0.511  -0.5708
6.55e+09  2.498  1.813  -0.000378  0.002882  -0.08179  0.01282  0.2952  -0.6917
6.551e+09  2.862  0.7552  0.009095  -0.03262  -0.02824  0.06553  0.02457  -0.7285
6.552e+09  2.949  -0.2765  0.0001391  -0.01623  0.03147  0.03935  -0.2235  -0.7216
6.554e+09  2.556  -1.315  0.004226  8.938e-05  -0.001247  0.01001  -0.4467  -0.6317
