# Hz S RI R 50
6.25e+09  0.6591  0.7494  -0.01815  0.01595  -0.03075  -0.03089  0.1643  0.5122
6.251e+09  0.8665  0.4506  -0.008667  -0.006499  -0.07157  -0.04456  0.333  0.3942
6.252e+09  0.9633  0.1776  -0.006872  0.02624  -0.04717  -0.001579  0.5202  0.2485
6.254e+09  0.9936  -0.2661  0.003641  -0.01809  -0.04047  -0.02541  0.6203  0.02455
6.255e+09  0.8031  -0.553  0.002172  -0.01221  -0.002612  -0.00799  0.5729  -0.2083
6.256e+09  0.6087  -0.7903  -0.0001641  0.00806  -0.03304  -0.01441  0.4646  -0.4885
6.258e+09  0.3079  -0.8795  0.02234  -0.01496  0.03838  0.0006784  0.2844  -0.6225
6.259e+09  -0.1033  -0.9717  0.02697  0.003613  -0.02414  0.02062  0.04131  -0.6655
6.26e+09  -0.4381  -0.8258  0.005666  0.02964  -0.02048  0.04024  -0.2054  -0.6536
6.261e+09  -0.6621  -0.6961  -5.33e-05  0.008019  0.002023  -0.006383  -0.4577  -0.526
6.262e+09  -0.9065  -0.4006  -0.01013  -0.01357  0.02489  0.01607  -0.6064  -0.3198
6.264e+09  -0.9619  -0.04616  -0.01798  -0.0442  -0.03878  0.03114  -0.7094  -0.124
6.265e+09  -0.9495  0.2467  0.02486  0.0005048  -0.02  -0.004685  -0.6827  0.1351
6.266e+09  -0.7795  0.5512  -0.01201  -0.0003793  0.01479  -0.003779  -0.6044  0.3879
6.268e+09  -0.5151  0.8222  -0.02609  -0.01823  0.00696  -0.0133  -0.4078  0.5939
6.269e+09  -0.1674  0.9659  -0.01497  0.002726  0.01105  0.01134  -0.225  0.7092
6.27e+09  0.1439  0.9432  0.02558  0.008393  -0.1038  -0.01784  0.09631  0.7461
6.271e+09  0.4978  0.8193  0.008468  0.03702  -0.02533  0.03258  0.3374  0.6589
6.272e+09  0.7355  0.5737  -0.01199  0.003175  -0.007104  -0.03848  0.5392  0.5371
6.274e+09  0.8294  0.2976  0.04459  0.03235  0.02953  -0.01247  0.6878  0.2977
6.275e+09  1.013  0.009808  -0.001746  -0.01791  4.834e-06  0.01934  0.7727  0.05619
6.276e+09  0.8638  -0.3257  -0.01933  -0.02918  0.02972  0.01379  0.7222  -0.2004
6.278e+09  0.7661  -0.6944  0.001484  -0.007037  -0.000739  0.03001  0.6073  -0.4881
6.279e+09  0.4594  -0.859  -0.008635  -0.01024  0.04897  0.0465  0.4297  -0.6123
6.28e+09  0.1391  -0.8818  0.0074  0.005118  -0.01015  0.04159  0.1759  -0.7735
6.281e+09  -0.2032  -0.9493  -0.003954  0.0002609  0.03728  -0.0001001  -0.06213  -0.7809
6.282e+09  -0.5458  -0.7704  -0.0269  -0.02027  0.01789  0.006975  -0.3527  -0.6796
6.284e+09  -0.8215  -0.4815  -0.01023  -0.009299  -0.02012  0.006999  -0.5808  -0.5416
6.285e+09  -0.9092  -0.3193  -0.01047  0.004577  0.04027  -0.04641  -0.7504  -0.3004
6.286e+09  -0.9375  0.1024  0.0113  -0.008995  -0.02827  0.00841  -0.8013  -0.007284
6.288e+09  -0.9037  0.4237  0.00178  -0.005535  0.005956  -0.04855  -0.7447  0.2373
6.289e+09  -0.6434  0.7173  -0.01061  -0.01048  0.01718  -0.01768  -0.6446  0.4761
6.29e+09  -0.4151  0.8982  -0.003291  0.004784  0.06062  0.01229  -0.4067  0.6711
6.291e+09  -0.03943  0.9734  -0.01327  0.004873  -0.03096  0.01952  -0.1648  0.8098
6.292e+09  0.2883  0.9354  0.02886  -0.01407  -0.03179  0.05346  0.1094  0.8149
6.294e+09  0.6305  0.7741  0.005564  0.03946  -0.06254  -0.02749  0.3829  0.7279
6.295e+09  0.8949  0.5258  -0.007492  -0.0134  -0.02726  -0.02414  0.6505  0.5023
6.296e+09  0.9768  0.1865  0.01964  0.01848  -0.02615  0.01806  0.7437  0.2979
6.298e+09  0.9787  -0.1328  -0.01775  0.04035  0.007763  -0.01421  0.8625  -0.02125
6.299e+09  0.8654  -0.4945  -0.007387  0.01689  0.03511  -0.02735  0.7721  -0.259
6.3e+09  0.5835  -0.7704  0.008267  -0.01269  0.02716  0.03983  0.6554  -0.5592
6.301e+09  0.3345  -0.9598  -0.005057  0.0007762  -0.004465  -0.04258  0.4339  -0.7036
6.302e+09  -0.08623  -0.9877  -0.007854  0.009913  -0.00606  -0.05715  0.1605  -0.8143
6.304e+09  -0.4119  -0.9474  0.01299  0.017  0.01387  0.06398  -0.1687  -0.8077
6.305e+09  -0.6635  -0.7285  -0.006432  -0.002728  0.02354  -0.001604  -0.4394  -0.7646
6.306e+09  -0.938  -0.4398  -0.002428  -0.02757  0.00639  0.001347  -0.6329  -0.5674
6.308e+09  -0.9982  -0.1335  0.03351  0.03918  -0.05383  -0.05355  -0.7888  -0.324
6.309e+09  -0.9761  0.2856  0.01871  -0.002914  -0.05922  0.01617  -0.8333  -0.02512
6.31e+09  -0.8287  0.5427  0.01196  -0.0119  0.01995  -0.03124  -0.8184  0.2948
6.311e+09  -0.5866  0.8355  -0.02255  0.01046  -0.0002534  0.009145  -0.6711  0.5499
6.312e+09  -0.2144  0.933  0.01524  0.02007  0.01908  0.00276  -0.4217  0.7495
6.314e+09  0.03884  0.9927  0.02219  -0.006232  0.03946  -0.04074  -0.1832  0.8497
6.315e+09  0.4803  0.9357  0.003834  0.01988  -0.01767  -0.001607  0.132  0.8533
6.316e+09  0.6793  0.6954  0.03138  -0.002905  -0.0492  0.03966  0.4246  0.7512
6.318e+09  0.9283  0.3808  0.00315  -0.03244  0.03133  0.006692  0.6658  0.5873
6.319e+09  1.044  0.06721  -0.005153  -0.01219  0.01751  0.02571  0.8277  0.3246
6.32e+09  0.9414  -0.367  0.04285  0.01046  -0.01475  0.01195  0.8758  -0.01673
6.321e+09  0.7852  -0.6316  -0.01591  0.002332  -0.03149  -0.0159  0.8684  -0.2849
6.322e+09  0.5093  -0.8952  -0.006809  0.007966  -0.03338  9.369e-05  0.6722  -0.5722
6.324e+09  0.1721  -1.035  0.02532  -0.006368  0.02934  0.00489  0.462  -0.771
6.325e+09  -0.1252  -1.073  -0.02327  -0.05125  0.04566  0.01199  0.1775  -0.855
6.326e+09  -0.5287  -0.8903  0.009256  0.02079  0.001247  0.03432  -0.1597  -0.8825
6.328e+09  -0.8193  -0.6245  -0.008175  -0.03927  -0.002472  0.01611  -0.447  -0.7831
6.329e+09  -1.001  -0.3394  0.006134  0.03051  0.003999  0.01818  -0.6872  -0.6145
6.33e+09  -1.036  0.04994  0.01293  -0.001134  0.01938  0.05774  -0.8641  -0.3396
6.331e+09  -1.037  0.411  -0.005231  -0.02208  0.04513  0.057  -0.9361  -0.02241
6.332e+09  -0.8347  0.684  -0.003643  -0.05525  -0.006728  -0.02085  -0.8692  0.296
6.334e+09  -0.4809  1.008  0.01295  -0.002811  -0.04331  -0.007081  -0.7126  0.5814
6.335e+09  -0.1672  1.048  -0.03319  -0.0005602  0.01536  0.0228  -0.4803  0.7775
6.336e+09  0.2444  1.069  0.02097  0.01146  0.02347  -0.02297  -0.1533  0.9252
6.338e+09  0.6211  0.9122  -0.006797  0.02055  -0.03669  -0.06881  0.1367  0.8816
6.339e+09  0.9199  0.6861  0.001261  0.01271  0.02339  -0.01973  0.4299  0.8407
6.34e+09  1.07  0.3115  0.001753  0.0259  0.0365  0.001654  0.6722  0.6039
6.341e+09  1.068  -0.118  0.01321  -0.02985  -0.03137  -0.02013  0.863  0.3333
6.342e+09  0.9918  -0.4359  0.01067  0.01933  0.004848  -0.01373  0.9278  0.01016
6.344e+09  0.7796  -0.7842  0.0002879  -0.003003  0.00141  0.03428  0.8905  -0.305
6.345e+09  0.44  -1.01  0.02556  -0.01575  0.05601  0.005796  0.736  -0.5453
6.346e+09  0.03006  -1.057  -0.04762  0.001726  0.01793  -0.001479  0.5265  -0.7746
6.348e+09  -0.3527  -1.091  0.0006137  0.01509  0.02565  0.01133  0.2242  -0.8959
6.349e+09  -0.6843  -0.9541  0.03964  0.01035  -0.01342  0.02602  -0.1611  -0.9316
6.35e+09  -0.95  -0.632  -0.03533  -0.00403  -0.0471  0.001178  -0.4524  -0.8414
6.351e+09  -1.094  -0.2311  0.004313  0.0226  0.03174  -0.03264  -0.6841  -0.6562
6.352e+09  -1.121  0.1302  0.035  0.01821  -0.04788  0.005476  -0.8475  -0.3479
6.354e+09  -0.9629  0.5311  0.008578  0.00848  -0.01798  0.003748  -0.9241  -0.03943
6.355e+09  -0.7643  0.8874  0.03346  0.006122  -0.006156  -0.01531  -0.9191  0.2625
6.356e+09  -0.3726  1.066  -0.03828  -0.00928  -0.01696  0.007417  -0.7557  0.5735
6.358e+09  0.04485  1.121  -0.003172  0.01674  -0.01488  -0.01202  -0.5568  0.7965
6.359e+09  0.4096  1.171  0.007325  -0.002234  -0.01478  0.03168  -0.2424  0.9208
6.36e+09  0.7794  0.8443  0.01673  0.003207  -0.04638  -0.00339  0.09287  0.9275
6.361e+09  1.05  0.5935  -0.007499  -0.04084  -0.02021  0.000606  0.3827  0.857
6.362e+09  1.188  0.1734  -0.01099  0.00651  0.01188  -0.001432  0.7071  0.682
6.364e+09  1.17  -0.1814  0.02917  0.03908  -0.0151  -0.02801  0.9002  0.3709
6.365e+09  1.007  -0.6743  -0.009651  -0.03115  0.001677  0.02857  0.9623  0.07021
6.366e+09  0.7432  -0.9637  0.04609  -0.01431  -0.002785  0.00239  0.9244  -0.252
6.368e+09  0.3239  -1.134  0.02399  -0.01012  0.04175  -0.03848  0.7944  -0.5548
6.369e+09  -0.02846  -1.27  -0.001076  0.05884  -0.01758  0.03849  0.5614  -0.7658
6.37e+09  -0.512  -1.161  -0.01605  -0.007718  -0.01537  -0.006067  0.2741  -0.9107
6.371e+09  -0.8735  -0.8742  0.02403  0.008433  -0.003365  0.009857  -0.08451  -0.9678
6.372e+09  -1.149  -0.6054  0.001209  0.005095  -0.07083  -0.03776  -0.382  -0.8738
6.374e+09  -1.293  -0.1429  0.01018  0.006782  0.01508  0.07106  -0.5887  -0.6973
6.375e+09  -1.228  0.3399  0.007515  -0.0007044  0.008407  0.01339  -0.9145  -0.4019
6.376e+09  -1.077  0.7171  -0.04604  0.007321  -0.01881  0.0004521  -0.9603  -0.0753
6.378e+09  -0.7389  1.075  -0.006461  -0.04243  -0.007744  -0.03692  -0.8935  0.2512
6.379e+09  -0.2901  1.264  0.004454  -0.01812  -0.004814  -0.01696  -0.7745  0.5268
6.38e+09  0.1821  1.33  -0.00799  0.04322  -0.03656  0.01586  -0.5804  0.7706
6.381e+09  0.6395  1.232  -0.003117  0.0193  0.01368  -0.01081  -0.3014  0.8855
6.382e+09  1.004  0.9054  0.02335  0.02607  0.001718  -0.02007  0.04162  0.9497
6.384e+09  1.252  0.5166  -0.0285  -0.02646  -0.02401  -0.02173  0.3693  0.9071
6.385e+09  1.351  0.1073  -0.01587  -0.01297  -0.04202  0.05742  0.6495  0.7037
6.386e+09  1.294  -0.4154  0.02961  0.01997  0.04275  0.03591  0.8719  0.4185
6.388e+09  1.03  -0.8586  -0.01663  -0.007645  -0.01644  -0.02385  0.9933  0.1237
6.389e+09  0.6985  -1.201  0.01994  -0.007335  -0.0007546  -0.01108  0.8805  -0.1806
6.39e+09  0.3173  -1.411  0.003676  0.04191  -0.05673  -0.003085  0.7886  -0.5233
6.391e+09  -0.2051  -1.435  -0.005232  0.02926  -0.0105  -0.02666  0.5651  -0.7666
6.392e+09  -0.6997  -1.298  0.0187  0.00896  0.01629  0.003509  0.2996  -0.9182
6.394e+09  -1.148  -0.9361  0.009465  -0.02224  0.04821  0.06547  -0.03851  -0.938
6.395e+09  -1.368  -0.5275  0.008035  -0.002034  0.05391  0.02821  -0.3548  -0.8711
6.396e+09  -1.493  0.01708  -0.002726  -0.01293  0.02938  0.002062  -0.5961  -0.6881
6.398e+09  -1.41  0.5706  -0.03055  0.009536  -0.02327  0.005158  -0.8166  -0.4105
6.399e+09  -1.156  1.035  0.01146  -0.01873  -0.0281  -0.02246  -0.9071  -0.1445
6.4e+09  -0.7661  1.403  0.008421  -0.04916  0.001075  -0.04586  -0.9023  0.2069
6.401e+09  -0.1838  1.566  -0.001038  0.004132  -0.01215  0.006147  -0.7909  0.4653
6.402e+09  0.3134  1.582  0.03109  0.006747  -0.0526  0.009934  -0.6121  0.7056
6.404e+09  0.8477  1.391  -0.02161  0.008646  0.004364  -0.04927  -0.3263  0.8419
6.405e+09  1.284  0.9901  -0.02649  -0.0322  0.006164  0.02098  0.04022  0.9423
6.406e+09  1.601  0.4904  0.02586  0.02753  -0.007173  0.04558  0.3434  0.8279
6.408e+09  1.71  -0.126  0.02168  -0.01615  -0.01278  -0.0115  0.5954  0.6828
6.409e+09  1.641  -0.7102  0.0293  -0.02341  -0.04404  -0.01327  0.7827  0.4959
6.41e+09  1.201  -1.285  0.05637  0.01437  0.005632  0.105  0.8929  0.1893
6.411e+09  0.7091  -1.614  0.02433  0.03756  -0.02313  0.009263  0.9013  -0.1875
6.412e+09  0.04028  -1.859  -0.001796  0.03893  -0.01994  0.00013  0.8166  -0.4332
6.414e+09  -0.5915  -1.765  0.006576  0.01668  0.05029  -0.01751  0.569  -0.7074
6.415e+09  -1.19  -1.446  0.02111  0.01216  0.02038  0.0001278  0.3516  -0.841
6.416e+09  -1.662  -0.9501  0.03184  0.02782  -0.03408  -0.001903  -0.02105  -0.9389
6.418e+09  -1.929  -0.3176  -0.01436  -0.03806  -0.03266  -0.0466  -0.2653  -0.8203
6.419e+09  -1.968  0.4602  0.03009  0.01713  0.0475  -0.01032  -0.5507  -0.6865
6.42e+09  -1.7  1.125  0.02003  0.01738  -0.005258  0.008498  -0.7749  -0.4675
6.421e+09  -1.227  1.714  -0.006989  0.004379  0.04277  0.005566  -0.8435  -0.1754
6.422e+09  -0.5864  2.027  0.003126  0.01262  -0.03098  0.001663  -0.8617  0.1337
6.424e+09  0.1871  2.146  0.01209  -0.02363  -0.0537  0.0006081  -0.8218  0.4102
6.425e+09  0.9455  1.938  0.03673  -0.002165  -0.01848  0.04735  -0.6176  0.6007
6.426e+09  1.689  1.527  0.04368  -0.03895  0.01113  -0.009428  -0.3601  0.8215
6.428e+09  2.185  0.7894  0.01399  0.008562  -0.002366  -0.07054  -0.011  0.9185
6.429e+09  2.39  -0.04808  -0.04564  0.03022  0.003091  0.05122  0.244  0.8267
6.43e+09  2.306  -0.9444  0.004076  -0.03356  0.02963  0.004436  0.5374  0.6881
6.431e+09  1.829  -1.647  -0.04829  -0.01482  -0.04608  0.002908  0.6811  0.4986
6.432e+09  1.078  -2.308  0.008669  -0.03187  0.003025  0.009417  0.8427  0.2374
6.434e+09  0.207  -2.557  0.04623  0.006254  0.002097  -0.04855  0.8845  -0.06615
6.435e+09  -0.8051  -2.522  -0.002298  -0.0385  0.02764  -0.01047  0.7746  -0.4136
6.436e+09  -1.707  -2.14  0.01847  -0.009172  -0.0702  -0.05182  0.5604  -0.6488
6.438e+09  -2.415  -1.343  0.03162  0.0003032  -0.06468  0.03612  0.3615  -0.7772
6.439e+09  -2.731  -0.4061  -0.03511  -0.0041  -0.01459  0.002564  0.07296  -0.8493
6.44e+09  -2.767  0.7248  -0.009876  0.06096  -0.006399  -0.05102  -0.2348  -0.819
6.441e+09  -2.379  1.664  0.01557  -0.01754  0.04887  0.005871  -0.5198  -0.6604
6.442e+09  -1.623  2.561  -0.009112  0.002445  -0.03716  0.04154  -0.7276  -0.4473
6.444e+09  -0.5411  2.989  0.009592  -0.01668  -0.00374  -0.03864  -0.8084  -0.2406
6.445e+09  0.6149  3.066  -0.03753  0.03187  0.004392  -0.04446  -0.8813  0.05803
6.446e+09  1.804  2.55  0.006587  -0.01124  -0.02794  -0.0373  -0.7374  0.3552
6.448e+09  2.727  1.837  0.02549  -0.003939  0.08971  -0.02212  -0.5895  0.5882
6.449e+09  3.234  0.6989  -0.02163  0.03777  0.008629  0.02665  -0.3347  0.7574
6.45e+09  3.311  -0.6612  -0.003862  -0.008172  0.05643  0.04942  -0.0705  0.8175
6.451e+09  2.784  -1.836  -0.01237  0.07199  -0.01383  -0.06986  0.2434  0.8366
6.452e+09  2.009  -2.839  -0.001577  0.008912  -0.04304  0.02061  0.5504  0.6765
6.454e+09  0.7538  -3.378  -0.01075  0.002229  -0.008994  -0.05543  0.7021  0.4904
6.455e+09  -0.5421  -3.476  -0.02571  0.03526  -0.04619  -0.02835  0.8289  0.1983
6.456e+09  -1.97  -2.988  0.04698  -0.05187  0.006582  0.07499  0.8479  -0.07951
6.458e+09  -2.914  -2.085  0.02621  -0.01115  0.006887  -0.01007  0.7502  -0.3592
6.459e+09  -3.517  -0.8241  -0.001501  -0.008432  -0.03711  0.08647  0.5675  -0.5748
6.46e+09  -3.625  0.6475  0.01718  -0.005063  -0.1006  -0.07891  0.3772  -0.7659
6.461e+09  -3.153  1.972  0.002108  0.01988  0.01125  0.04014  0.1195  -0.8145
6.462e+09  -2.131  2.969  0.06025  -0.04021  -0.004975  -0.03976  -0.228  -0.7543
6.464e+09  -0.8194  3.586  -0.004275  0.03669  -0.003919  -0.04246  -0.497  -0.6883
6.465e+09  0.5134  3.591  -0.01234  0.008091  0.04726  -0.05439  -0.6444  -0.4366
6.466e+09  1.864  3.168  0.02281  -0.01343  0.002345  -0.09252  -0.7946  -0.1805
6.468e+09  3.011  2.217  -0.001477  -0.01255  0.01967  -0.0426  -0.7883  0.06294
6.469e+09  3.605  0.9134  0.05619  0.0297  -0.09339  -0.0214  -0.7072  0.3547
6.47e+09  3.659  -0.4239  0.0174  0.02381  0.04828  0.01538  -0.5647  0.5961
6.471e+09  3.152  -1.808  -0.002065  0.002858  -0.08234  -0.03745  -0.3134  0.7
6.472e+09  2.331  -2.967  0.02255  0.0141  -0.01473  0.1356  -0.06706  0.8149
6.474e+09  0.9819  -3.52  0.03017  -0.02872  0.01781  0.0008818  0.1727  0.753
6.475e+09  -0.3879  -3.631  -0.03103  -0.0281  -0.001128  0.05161  0.5053  0.6177
6.476e+09  -1.687  -3.292  -0.02319  0.01724  0.02513  -0.02907  0.6504  0.4499
6.478e+09  -2.773  -2.278  -0.04769  0.007605  0.01734  0.001643  0.8106  0.194
6.479e+09  -3.425  -1.128  0.01504  0.01339  -0.01895  0.01582  0.823  -0.1243
6.48e+09  -3.593  0.2339  -0.0008664  0.006001  -0.06881  -0.04889  0.7042  -0.3667
6.481e+09  -3.225  1.575  -0.001142  -0.01266  0.02788  -0.01428  0.5673  -0.5563
6.482e+09  -2.481  2.612  -0.01855  0.006476  -0.04343  0.04153  0.3361  -0.7001
6.484e+09  -1.227  3.279  -0.01572  0.0124  0.03698  -0.01148  0.07921  -0.7751
6.485e+09  0.05752  3.497  0.003323  0.01698  -0.007937  -0.0278  -0.2354  -0.7101
6.486e+09  1.335  3.232  0.04488  -0.003741  -0.07505  0.0292  -0.4675  -0.6372
6.488e+09  1.967  1.859  -0.02873  -0.01584  -0.6047  -0.3364  -0.6246  -0.444
6.489e+09  3.079  1.476  -0.009943  -0.02426  0.08296  0.01983  -0.7284  -0.1772
6.49e+09  3.418  0.2232  0.007976  -0.01443  -0.00951  0.04996  -0.7977  0.1279
6.491e+09  3.286  -1.042  -0.04007  -0.01596  -0.04203  0.007032  -0.682  0.4039
6.492e+09  2.541  -2.208  -0.007193  0.008839  -0.008506  -0.004111  -0.54  0.5521
6.494e+09  1.587  -2.888  -0.009892  -0.007908  -0.1327  0.06807  -0.2779  0.6969
6.495e+09  0.4588  -3.276  0.01007  -0.03485  -0.04971  0.03345  -0.03947  0.7643
6.496e+09  -0.8191  -3.274  -0.003905  -0.00797  0.001395  -0.01137  0.2159  0.7176
6.498e+09  -1.968  -2.784  -0.01019  -0.0176  -0.03151  0.01527  0.4762  0.6386
6.499e+09  -2.81  -1.865  -0.01664  -0.01587  0.01221  0.02494  0.6588  0.4094
6.5e+09  -2.158  2.208  -0.008572  -0.01595  0.006071  0.01889  0.7773  0.1886
6.501e+09  -3.291  0.5496  0.0229  0.01675  -0.02535  -0.05088  0.7593  -0.1106
6.502e+09  -2.874  1.691  0.004244  0.00152  0.01319  0.0388  0.6775  -0.3406
6.504e+09  -2.062  2.647  -0.003063  0.02028  -0.00296  0.09151  0.5  -0.5438
6.505e+09  -0.9415  3.215  0.02574  -0.01298  0.05635  -0.05344  0.2597  -0.7437
6.506e+09  0.3376  3.327  0.06334  -0.006653  -0.02243  0.02427  0.01594  -0.7906
6.508e+09  1.579  2.995  0.004664  0.01881  0.01218  -0.1368  -0.2602  -0.706
6.509e+09  2.416  2.314  -0.01155  -0.01616  0.05081  0.04635  -0.5044  -0.5764
6.51e+09  3.159  1.216  0.03782  0.01849  -0.04312  0.01553  -0.6515  -0.3831
6.511e+09  3.33  -0.06001  -0.004707  -0.003437  0.05857  0.07922  -0.7227  -0.1524
6.512e+09  3.117  -1.238  0.04844  -0.008756  0.06604  0.04728  -0.7307  0.07688
6.514e+09  2.513  -2.342  -0.024  -0.01397  -0.1025  0.05955  -0.6631  0.4208
6.515e+09  1.478  -3.156  -0.007419  -0.01962  0.04752  -0.02334  -0.4898  0.5633
6.516e+09  0.1874  -3.398  -0.02027  0.03436  -0.02724  -0.06771  -0.2257  0.6861
6.518e+09  -1.111  -3.276  -0.007777  0.004144  -0.00683  0.08124  -0.01529  0.7335
6.519e+09  -2.235  -2.775  0.02573  0.01027  -0.0137  0.01868  0.2772  0.6812
6.52e+09  -3.051  -1.697  0.03257  -0.01641  0.005115  -0.01162  0.5329  0.5708
6.521e+09  -3.447  -0.4389  0.0004575  -0.01923  -0.0507  -0.02341  0.6278  0.3889
6.522e+09  -3.401  0.8454  0.02354  -0.02593  -0.02783  -0.03346  0.7276  0.1047
6.524e+09  -2.954  2.081  0.005004  0.03834  0.006367  -0.027  0.668  -0.1591
6.525e+09  -1.91  3.033  -0.02834  -0.008335  -0.03676  -0.01703  0.6168  -0.4397
6.526e+09  -0.6013  3.577  -0.002688  0.02489  0.001944  -0.0344  0.4125  -0.5595
6.528e+09  0.696  3.503  -0.002992  -0.0016  0.007116  0.003352  0.1882  -0.6371
6.529e+09  1.914  3.047  0.02619  -0.02576  -0.05101  -0.04584  -0.02217  -0.6691
6.53e+09  2.967  2.053  -0.0009041  0.02729  -0.0637  -0.01222  -0.2784  -0.6465
6.531e+09  3.565  0.7674  -6.788e-05  -0.002551  0.006449  -0.1001  -0.4907  -0.5158
6.532e+09  3.622  -0.5796  0.006372  -0.01914  -0.006164  -0.08815  -0.5902  -0.2652
6.534e+09  3.06  -1.861  0.01748  0.0004716  -0.01532  -0.04583  -0.6468  -0.08695
6.535e+09  2.144  -2.845  0.001255  -0.00807  0.007172  0.001103  -0.6093  0.1196
6.536e+09  0.8081  -3.49  -0.02928  -0.009287  0.03941  -0.01032  -0.5748  0.3088
6.538e+09  -0.4825  -3.527  0.01277  -0.02219  -0.05353  -0.01441  -0.4478  0.4929
6.539e+09  -1.842  -3.095  0.01361  0.00446  0.04127  -0.02056  -0.2618  0.589
6.54e+09  -2.873  -2.141  -0.01248  -0.02017  0.03023  0.04115  -0.05199  0.6891
6.541e+09  -3.407  -0.907  0.0126  0.01503  0.01875  0.004052  0.1973  0.652
6.542e+09  -3.437  0.4136  -0.008606  0.01196  0.02542  -0.009347  0.4151  0.5607
6.544e+09  -3.093  1.695  0.04571  0.01637  0.02148  0.0197  0.6029  0.404
6.545e+09  -2.112  2.682  -0.004208  0.0002275  -0.03237  0.01665  0.7183  0.1565
6.546e+09  -1.011  3.164  -0.0002902  -0.01622  -0.003097  0.006629  0.742  -0.07483
6.548e+09  0.2401  3.366  0.0004858  0.004546  0.01444  0.0228  0.6466  -0.3569
6.549e+09  1.525  2.989  0.03476  -0.002931  0.007512  -0.02303  0.503  -0.5536
6.55e+09  2.484  2.231  -0.01469  0.005599  -0.04316  -0.02969  0.2886  -0.6626
6.551e+09  3.021  1.027  0.003079  0.0199  -0.006206  0.08943  0.0399  -0.7267
6.552e+09  3.165  -0.139  0.01364  0.01747  0.0482  0.02303  -0.2234  -0.7523
6.554e+09  2.835  -1.338  0.01212  -0.04259  -0.03942  -0.01747  -0.4525  -0.6153
