# Hz S RI R 50
6.25e+09  0.6994  0.6852  0.01092  8.57e-05  0.02708  0.006768  0.16  0.473
6.251e+09  0.9567  0.3377  0.01433  -0.01194  -0.04315  -0.02353  0.3967  0.4169
6.252e+09  0.9655  0.02255  -0.0007492  -0.01698  -0.0398  -0.01716  0.5382  0.2302
6.254e+09  0.9562  -0.3116  0.04435  -0.008658  0.02707  0.04476  0.618  0.0282
6.255e+09  0.722  -0.5902  -0.02437  -0.003779  0.05179  0.01323  0.6034  -0.224
6.256e+09  0.4094  -0.8617  -0.006088  0.01418  0.00868  -0.004351  0.5011  -0.4549
6.258e+09  0.1759  -0.9856  -0.01537  0.007482  0.02002  0.02224  0.2664  -0.5869
6.259e+09  -0.2165  -0.9191  0.01268  -0.005593  -0.01072  -0.0129  0.02661  -0.6951
6.26e+09  -0.4982  -0.8458  -0.0198  -0.02601  -0.04008  0.01717  -0.2168  -0.6219
6.261e+09  -0.8067  -0.5485  -0.01606  -0.0185  -0.05172  -0.005858  -0.429  -0.5328
6.262e+09  -0.9448  -0.3412  0.01987  0.001628  -0.0609  -0.04494  -0.5986  -0.3382
6.264e+09  -0.9626  0.09943  0.004154  -0.01244  0.03084  0.04035  -0.7302  -0.08144
6.265e+09  -0.8927  0.4279  0.002047  0.02344  -0.008757  -0.01032  -0.7071  0.1608
6.266e+09  -0.7121  0.7002  0.008079  0.0109  -0.01884  0.001491  -0.6113  0.4423
6.268e+09  -0.4089  0.8789  -0.01267  -0.002853  0.04055  -0.007224  -0.4699  0.5839
6.269e+09  -0.1612  0.9564  0.002003  -0.02305  -0.01849  0.01468  -0.229  0.7149
6.27e+09  0.2365  0.9473  0.01164  0.0009679  -0.002158  -0.01077  0.05148  0.7311
6.271e+09  0.559  0.8078  -0.01295  -0.005856  -0.00955  0.004537  0.3143  0.6507
6.272e+09  0.7614  0.5441  0.00351  0.008491  0.02923  0.01848  0.5679  0.5355
6.274e+09  0.9373  0.2485  0.03142  -0.01459  -0.01416  0.02625  0.6786  0.2865
6.275e+09  0.9332  -0.0737  0.0338  0.01463  -0.02788  -0.03603  0.7855  0.03292
6.276e+09  0.859  -0.4782  0.0004353  0.05647  -0.04693  -0.006219  0.724  -0.2206
6.278e+09  0.5863  -0.7166  0.03664  0.01766  0.007454  -0.005196  0.6118  -0.4334
6.279e+09  0.3841  -0.9049  0.01223  -0.01638  0.02375  0.008212  0.4126  -0.6464
6.28e+09  0.01646  -0.9585  -0.02981  0.002923  -0.002773  -0.007872  0.192  -0.7893
6.281e+09  -0.3541  -0.8721  -0.02037  0.02769  -0.0563  -0.01794  -0.07366  -0.7439
6.282e+09  -0.5865  -0.7601  -0.006862  0.004888  -0.02779  0.02769  -0.3725  -0.6664
6.284e+09  -0.83  -0.4917  -0.0293  0.02218  -0.006059  0.01236  -0.5883  -0.5412
6.285e+09  -0.9558  -0.1526  -0.02048  0.02593  -0.01504  -0.02921  -0.7543  -0.3192
6.286e+09  -0.9828  0.1883  -0.01029  0.005617  0.02465  0.01578  -0.8018  0.001348
6.288e+09  -0.8547  0.5471  -0.04743  -0.01108  0.02745  -0.006527  -0.7327  0.2422
6.289e+09  -0.6237  0.7311  0.004195  0.01144  -0.01197  -0.005667  -0.6426  0.5145
6.29e+09  -0.3121  0.9663  -0.0122  -0.007785  0.01732  0.01668  -0.4352  0.7037
6.291e+09  0.08091  0.9439  0.01386  0.005005  0.02051  -0.0372  -0.1658  0.7799
6.292e+09  0.3725  0.9074  0.01249  -0.02275  -0.01219  -0.02881  0.1465  0.7961
6.294e+09  0.7003  0.7215  -0.007814  0.03851  0.05496  -0.00868  0.3889  0.7299
6.295e+09  0.8762  0.4001  0.01904  -0.00555  0.01666  0.04249  0.6115  0.5357
6.296e+09  0.9773  0.04636  0.004584  0.01953  -0.01992  -0.005284  0.7663  0.3015
6.298e+09  0.9801  -0.2644  0.005387  0.0254  0.01375  0.05311  0.8242  0.01202
6.299e+09  0.7851  -0.6299  -0.01793  0.002976  0.01354  -0.02546  0.7642  -0.2921
6.3e+09  0.5126  -0.8338  -0.02929  -0.01357  0.002512  0.02409  0.6526  -0.5427
6.301e+09  0.2156  -0.9752  -0.01403  -0.02116  0.02502  0.03163  0.4077  -0.7565
6.302e+09  -0.1404  -0.9901  0.006351  0.008565  0.04323  0.006736  0.1473  -0.8258
6.304e+09  -0.4706  -0.8807  0.01602  0.03024  -0.04865  -0.01597  -0.1493  -0.8364
6.305e+09  -0.7798  -0.6707  -0.01524  0.01028  -0.03382  0.04396  -0.4164  -0.7204
6.306e+09  -0.9404  -0.3192  -0.03346  0.0291  -0.03418  0.01614  -0.6301  -0.5593
6.308e+09  -1.058  0.07948  0.008935  -0.015  0.0294  0.01014  -0.7943  -0.2876
6.309e+09  -0.9686  0.4036  -0.01112  0.005359  -0.02181  -0.02583  -0.8715  0.002245
6.31e+09  -0.7626  0.7071  -0.0178  -0.01902  -0.04909  -0.0008855  -0.8277  0.2989
6.311e+09  -0.4886  0.9329  -0.02633  -8.498e-05  -0.03251  0.02611  -0.6928  0.523
6.312e+09  -0.1294  1.055  0.008182  0.0009723  -0.007094  0.007388  -0.4321  0.7545
6.314e+09  0.2282  0.9922  0.01636  -0.0246  -0.007329  0.04764  -0.1631  0.8332
6.315e+09  0.5716  0.8331  0.001875  -0.01695  0.03638  -0.0318  0.1268  0.8613
6.316e+09  0.8418  0.5877  0.006584  -0.001448  0.01968  0.04318  0.4144  0.7594
6.318e+09  1.013  0.2959  -0.009406  0.006235  -0.002058  0.02616  0.6411  0.5677
6.319e+09  1.071  -0.1392  0.03211  0.01773  0.04261  -0.009868  0.8293  0.3061
6.32e+09  0.9621  -0.4426  0.01726  0.001112  0.06381  -0.01894  0.8779  0.02949
6.321e+09  0.6672  -0.7683  -0.008141  -0.0262  -0.01196  0.008773  0.8469  -0.2804
6.322e+09  0.4191  -0.9364  -0.02198  0.008552  0.00845  0.006075  0.7275  -0.5631
6.324e+09  0.07635  -1.08  -0.01133  -0.006638  -0.02598  0.05297  0.463  -0.7856
6.325e+09  -0.2715  -0.9839  -0.006625  0.02243  -0.01283  0.0148  0.1733  -0.8726
6.326e+09  -0.6177  -0.8227  -0.01641  -0.009561  0.007472  0.002758  -0.1555  -0.911
6.328e+09  -0.8782  -0.5401  -0.03372  0.008349  -0.004317  0.0008011  -0.4118  -0.823
6.329e+09  -1.029  -0.19  -0.006754  -0.01302  0.009161  -0.01325  -0.6853  -0.5971
6.33e+09  -1.043  0.1844  0.01723  0.0004242  -0.005734  0.01929  -0.8347  -0.3354
6.331e+09  -0.9178  0.6076  -0.01846  0.001184  0.01301  0.006612  -0.9227  -0.01897
6.332e+09  -0.6822  0.8681  -0.02639  0.03185  -0.01549  -0.02967  -0.859  0.2844
6.334e+09  -0.3309  0.9912  -0.009486  -0.01165  0.006227  0.004275  -0.7091  0.5622
6.335e+09  0.00974  1.082  0.003889  -0.004482  0.008841  0.007159  -0.4782  0.8031
6.336e+09  0.4394  1.04  -0.02665  0.007152  0.01671  -0.01996  -0.2234  0.9178
6.338e+09  0.7352  0.8092  -0.02852  0.006954  -0.01036  -0.04016  0.1452  0.9286
6.339e+09  0.9902  0.5109  0.03008  -0.01333  -0.0157  -0.007583  0.442  0.8277
6.34e+09  1.096  0.1612  0.004156  -0.009069  -0.05238  -0.0002968  0.674  0.6368
6.341e+09  1.088  -0.2745  -0.006145  0.02681  -0.0336  -0.01182  0.8986  0.3615
6.342e+09  0.9492  -0.6057  -0.005385  -0.01674  0.001316  -0.01787  0.9237  0.008675
6.344e+09  0.6518  -0.8871  0.01191  0.03508  -0.02718  -0.0001235  0.8772  -0.2645
6.345e+09  0.3059  -1.087  0.02769  0.04365  0.01361  0.05088  0.7543  -0.5563
6.346e+09  -0.1059  -1.099  0.01042  -0.01093  0.05469  0.03721  0.506  -0.7558
6.348e+09  -0.4944  -1.007  0.04741  -0.01765  0.01696  -0.02281  0.2215  -0.9012
6.349e+09  -0.8157  -0.7578  0.01377  0.02176  0.004755  0.01722  -0.1214  -0.9198
6.35e+09  -1.045  -0.5022  0.01429  -0.02989  -0.01076  0.002053  -0.4267  -0.8691
6.351e+09  -1.126  -0.09241  -0.001949  0.03188  -0.01849  -0.05475  -0.7104  -0.6399
6.352e+09  -1.077  0.376  0.02761  0.03131  0.02628  -0.002797  -0.8896  -0.349
6.354e+09  -0.9789  0.7  -0.04955  0.004732  -0.02102  -0.01443  -0.9288  -0.09663
6.355e+09  -0.5774  0.992  -0.01087  -0.001972  0.02403  0.06727  -0.9234  0.2613
6.356e+09  -0.282  1.104  0.0004945  -0.01396  0.01788  -0.052  -0.7505  0.5523
6.358e+09  0.1529  1.145  -0.01049  0.03946  0.0023  0.02647  -0.5404  0.801
6.359e+09  0.5891  1.078  0.001084  -0.00989  0.01621  -0.05245  -0.2209  0.9257
6.36e+09  0.869  0.7461  -0.01515  -0.02059  -0.0165  -0.0244  0.09048  0.9463
6.361e+09  1.096  0.3755  0.03562  0.02358  -0.02225  -0.01132  0.4095  0.8585
6.362e+09  1.18  -0.0223  0.004615  -0.005209  -0.06327  0.03799  0.6766  0.6829
6.364e+09  1.114  -0.3957  0.002561  -0.01035  -0.05028  -0.02075  0.8708  0.4064
6.365e+09  0.8947  -0.81  0.01052  0.001626  0.03503  -0.005439  0.9247  0.05294
6.366e+09  0.5964  -1.034  -0.004329  -0.01717  0.01967  0.04078  0.9004  -0.2296
6.368e+09  0.1943  -1.183  -0.01398  -0.008035  0.031  0.0175  0.7526  -0.5165
6.369e+09  -0.2007  -1.185  0.01641  0.002793  0.04168  0.02689  0.5436  -0.7467
6.37e+09  -0.6645  -1.051  -0.01552  -0.004132  -0.01362  0.04363  0.273  -0.9142
6.371e+09  -0.947  -0.8017  0.02346  -0.02879  -0.01808  0.00231  -0.05244  -0.9615
6.372e+09  -1.194  -0.369  -0.009063  -0.01025  -0.003866  -0.05902  -0.4155  -0.9021
6.374e+09  -1.293  0.05945  0.0411  -0.01496  0.006283  0.05696  -0.6655  -0.7066
6.375e+09  -1.17  0.5001  0.01544  0.0004723  -0.022  0.03133  -0.819  -0.4344
6.376e+09  -0.9238  0.9404  0.04996  0.02992  -0.01581  0.003417  -0.9444  -0.09948
6.378e+09  -0.5875  1.172  0.03697  0.02446  -0.006098  -0.006284  -0.9088  0.2103
6.379e+09  -0.0762  1.312  0.0008164  -0.01325  0.02532  -0.00763  -0.7904  0.5621
6.38e+09  0.3413  1.296  -0.04013  -0.008482  0.001699  0.01217  -0.5706  0.7727
6.381e+09  0.7612  1.082  0.005197  -0.01314  0.05257  0.005342  -0.2835  0.9358
6.382e+09  1.142  0.7807  0.000909  -0.01358  -0.007743  0.04017  0.022  0.9537
6.384e+09  1.334  0.3057  0.00549  -0.009006  -0.02171  -0.002001  0.3894  0.8392
6.385e+09  1.359  -0.1644  0.01609  0.02332  0.02084  -0.005814  0.6716  0.6647
6.386e+09  1.257  -0.6729  0.0292  0.0059  0.03085  0.01118  0.848  0.4475
6.388e+09  0.9645  -1.03  -0.01735  -0.02743  -0.006784  0.003963  0.9297  0.09703
6.389e+09  0.53  -1.33  -0.002709  0.01862  -0.003631  -0.003756  0.8834  -0.229
6.39e+09  0.05527  -1.419  0.02534  0.008989  0.03363  -0.06347  0.7596  -0.4999
6.391e+09  -0.52  -1.461  -0.01628  0.02301  -0.008702  -0.02453  0.5782  -0.7055
6.392e+09  -0.8986  -1.179  0.01819  -0.006889  -0.03367  0.00147  0.2762  -0.8885
6.394e+09  -1.282  -0.7633  0.02362  -0.02969  -0.007132  0.03926  -0.04597  -0.9188
6.395e+09  -1.529  -0.1859  0.006462  0.03497  0.02455  -0.03502  -0.3504  -0.8493
6.396e+09  -1.525  0.3018  -0.003164  -0.02409  -0.005474  -0.008211  -0.6238  -0.7002
6.398e+09  -1.334  0.8629  0.005834  0.03585  0.01124  0.016  -0.8577  -0.4043
6.399e+09  -0.9366  1.279  0.007949  -0.01717  0.01248  -0.007938  -0.9262  -0.1457
6.4e+09  -0.5049  1.537  0.007284  0.02779  0.02504  0.003604  -0.8708  0.1709
6.401e+09  0.06007  1.566  0.02792  -0.002928  0.03748  -0.02823  -0.7659  0.4876
6.402e+09  0.6467  1.486  0.03124  -0.02091  -0.01195  -0.0417  -0.5843  0.7268
6.404e+09  1.143  1.145  0.005487  -0.03787  -0.01636  0.01203  -0.3178  0.8493
6.405e+09  1.513  0.724  0.004589  0.001619  0.02964  0.0183  0.03144  0.9021
6.406e+09  1.719  0.147  0.02836  -0.03355  -0.009584  -0.0127  0.3065  0.8736
6.408e+09  1.657  -0.4569  -0.0344  -0.007148  -0.03877  -0.048  0.5928  0.6985
6.409e+09  1.459  -1.042  -0.01531  -0.06239  0.008774  0.01058  0.7806  0.4453
6.41e+09  0.9565  -1.578  -0.01064  0.004126  0.006003  -0.05503  0.8963  0.2006
6.411e+09  0.3918  -1.808  -0.04983  0.02374  0.05202  0.04082  0.8977  -0.1405
6.412e+09  -0.3163  -1.862  0.0292  0.005811  0.02788  0.02116  0.7844  -0.4381
6.414e+09  -1.009  -1.628  0.02362  -0.04056  0.014  0.06038  0.5999  -0.7196
6.415e+09  -1.507  -1.204  -0.0128  -0.03779  0.01006  -0.01656  0.3164  -0.8437
6.416e+09  -1.888  -0.5772  -0.04138  0.000996  -0.05522  -0.01601  0.08953  -0.9204
6.418e+09  -1.98  0.07824  -0.01036  -0.05588  -0.02269  0.0665  -0.2726  -0.8302
6.419e+09  -1.902  0.8447  -0.03741  0.02672  0.006321  -0.01273  -0.5444  -0.6889
6.42e+09  -1.416  1.471  -0.005485  0.02485  0.0006186  0.0543  -0.7836  -0.4948
6.421e+09  -0.8015  1.96  -0.01979  0.0156  0.01046  0.01725  -0.8364  -0.2125
6.422e+09  -0.1001  2.22  0.02819  -0.004218  -0.002714  0.007765  -0.8895  0.09916
6.424e+09  0.7446  2.057  -0.03551  -0.06712  0.03486  0.0386  -0.7833  0.4484
6.425e+09  1.452  1.796  -0.03652  -0.01301  0.02539  -0.01552  -0.6019  0.6319
6.426e+09  2.059  1.159  -0.02525  -0.01363  -0.06346  0.006317  -0.349  0.7849
6.428e+09  2.416  0.2386  -0.0262  -0.00703  0.05352  -0.03237  -0.0519  0.8419
6.429e+09  2.347  -0.6353  0.02017  0.005999  0.04887  -0.0362  0.269  0.8529
6.43e+09  1.953  -1.533  -0.004123  -0.05095  0.01168  0.02356  0.5395  0.7232
6.431e+09  1.345  -2.228  0.04419  -0.02327  0.01439  0.004583  0.7238  0.45
6.432e+09  0.441  -2.507  -0.02908  -0.02155  0.01581  -0.02134  0.8821  0.2345
6.434e+09  -0.5328  -2.56  0.02916  0.03532  0.005073  -0.03299  0.9044  -0.07046
6.435e+09  -1.466  -2.151  0.006274  -0.02859  -0.01311  -0.01346  0.7927  -0.3693
6.436e+09  -2.325  -1.547  -0.01213  -0.02423  -0.08168  -0.06648  0.5809  -0.6166
6.438e+09  -2.803  -0.5939  -0.02091  -0.03713  0.03738  -0.0225  0.3364  -0.7769
6.439e+09  -2.754  0.5242  0.02608  0.00526  -0.01593  0.02889  0.07584  -0.8581
6.44e+09  -2.5  1.517  -0.0165  -0.02017  0.0506  0.01595  -0.1826  -0.8262
6.441e+09  -1.729  2.414  0.01089  -0.001299  -0.04651  0.07091  -0.5119  -0.7492
6.442e+09  -0.7509  2.86  0.009498  0.01148  0.02609  0.01597  -0.6849  -0.4919
6.444e+09  0.5254  2.965  0.009951  -0.002824  -0.03057  -0.06654  -0.8645  -0.2328
6.445e+09  1.548  2.577  0.000702  0.004712  0.04309  0.08656  -0.8266  0.08778
6.446e+09  2.443  1.805  0.03223  0.00619  0.02112  0.05618  -0.7871  0.3908
6.448e+09  3.011  0.7231  0.01841  -0.03363  0.01573  -0.04414  -0.605  0.612
6.449e+09  3.11  -0.4186  -0.02833  -0.01239  -0.01341  -0.06094  -0.3778  0.7518
6.45e+09  2.691  -1.66  0.03092  0.026  0.04445  -0.01757  -0.1018  0.796
6.451e+09  1.94  -2.565  0.003535  -0.0005521  -0.01927  0.04023  0.2233  0.8041
6.452e+09  0.8043  -3.073  -0.00562  -0.06629  -0.0449  -0.01505  0.4965  0.7374
6.454e+09  -0.4046  -3.158  -0.007026  -0.007151  0.06859  0.02605  0.7078  0.467
6.455e+09  -1.609  -2.742  -0.00418  -0.009358  0.08369  0.04645  0.822  0.1955
6.456e+09  -2.484  -1.958  -0.01941  0.03018  0.02704  0.04331  0.8058  -0.05254
6.458e+09  -3.027  -0.8597  0.04803  0.0359  0.03039  0.07339  0.7238  -0.3655
6.459e+09  -3.173  0.4055  -0.01531  -0.05305  0.07545  0.07685  0.5406  -0.5559
6.46e+09  -2.702  1.552  0.01193  0.006899  0.04523  -0.0668  0.3603  -0.7959
6.461e+09  -1.949  2.389  0.0328  -0.04856  0.03781  -0.03223  0.08855  -0.8039
6.462e+09  -0.9582  2.997  0.03549  0.03642  0.01126  0.04138  -0.1955  -0.7892
6.464e+09  0.3508  3.094  -0.02576  -0.006204  -0.04517  -0.004237  -0.4504  -0.6856
6.465e+09  1.47  2.728  -0.03252  0.02636  0.08241  -0.001474  -0.628  -0.5008
6.466e+09  2.36  2.018  0.0216  -0.02211  0.0163  -0.006983  -0.7533  -0.2307
6.468e+09  2.788  1.01  -0.009176  -0.005956  0.002619  0.04378  -0.7717  0.103
6.469e+09  3.059  -0.1798  -0.03808  0.01724  0.02215  -0.004018  -0.6924  0.3453
6.47e+09  2.742  -1.302  -0.0174  0.00397  -0.00412  0.03745  -0.5632  0.6096
6.471e+09  2.002  -2.166  0.02797  -0.02417  -0.02775  0.001556  -0.2815  0.7484
6.472e+09  1.085  -2.793  -0.02296  0.01294  0.0122  -0.01619  -0.01885  0.8068
6.474e+09  -0.01383  -2.9  -0.01279  -0.05076  -0.0434  0.0003035  0.2211  0.7771
6.475e+09  -1.092  -2.715  0.04495  -0.02022  0.06224  -0.04218  0.4627  0.6268
6.476e+09  -2.034  -2.167  -0.03071  -0.0002911  -0.03445  -0.004284  0.6494  0.4105
6.478e+09  -2.624  -1.212  -0.02715  -0.002049  0.02963  0.01097  0.7693  0.2078
6.479e+09  -2.825  -0.224  0.009517  -0.02675  0.003247  -0.1042  0.7567  -0.08888
6.48e+09  -2.639  0.8603  -0.03602  -0.01268  0.01347  0.06762  0.7034  -0.3143
6.481e+09  -2.15  1.725  0.000955  0.0255  -0.008676  0.05801  0.5161  -0.5882
6.482e+09  -1.363  2.425  0.023  0.007264  -0.003108  0.02193  0.3291  -0.723
6.484e+09  -0.4169  2.74  -0.006298  -0.02537  -0.0003132  0.05244  0.03176  -0.7545
6.485e+09  0.5636  2.641  0.002213  0.03127  -0.01516  0.006502  -0.258  -0.7526
6.486e+09  1.576  2.224  -0.01555  0.03383  -0.01256  0.01819  -0.4529  -0.6714
6.488e+09  2.773  2.001  0.02427  0.0199  -0.001963  -0.7843  -0.6535  -0.4448
6.489e+09  2.629  0.5966  0.01082  -0.01375  0.04821  -0.01743  -0.7949  -0.1445
6.49e+09  2.59  -0.3569  -0.004237  0.04616  0.007935  -0.03003  -0.73  0.1438
6.491e+09  2.266  -1.287  -0.01755  -0.026  0.05123  0.04199  -0.6385  0.3514
6.492e+09  1.665  -2.046  -0.006127  -0.03057  0.03918  -0.02173  -0.52  0.5372
6.494e+09  0.7453  -2.388  -0.003536  0.04861  0.1299  0.05451  -0.3315  0.7201
6.495e+09  -0.1525  -2.563  0.01518  0.0196  -0.02006  -0.07354  -0.02278  0.7871
6.496e+09  -1.068  -2.394  0.01123  0.03343  -0.01097  0.01256  0.2384  0.7511
6.498e+09  -1.819  -1.866  -0.005621  -0.01653  0.006406  -0.01145  0.4796  0.6064
6.499e+09  -2.391  -1.129  -0.003787  -0.007702  -0.02212  0.006242  0.6284  0.4005
6.5e+09  -3.291  -2.34  -0.0182  -0.01733  0.07469  0.03694  0.7626  0.1485
6.501e+09  -2.429  0.7927  0.01146  -0.02924  0.01579  0.007844  0.8089  -0.1121
6.502e+09  -2.051  1.587  -0.007011  -0.02938  -0.03622  -0.03354  0.6787  -0.3978
6.504e+09  -1.351  2.217  0.0154  0.006971  0.009825  -0.009897  0.5582  -0.587
6.505e+09  -0.496  2.592  0.02765  -0.001442  -0.04837  0.002112  0.2574  -0.747
6.506e+09  0.4704  2.59  0.04036  -0.0601  0.02311  -0.01728  0.003513  -0.7378
6.508e+09  1.405  2.135  0.003199  0.002745  0.04204  0.0005234  -0.2493  -0.7252
6.509e+09  2.098  1.521  -0.02183  0.01276  -0.01087  0.06431  -0.4682  -0.5886
6.51e+09  2.522  0.7397  0.01554  -0.008573  0.03111  0.01501  -0.6481  -0.4231
6.511e+09  2.688  -0.1834  -0.0007019  0.002164  0.02465  0.02091  -0.7217  -0.1609
6.512e+09  2.439  -1.132  0.0149  0.02239  0.02306  0.001438  -0.744  0.1205
6.514e+09  1.849  -1.902  0.01851  4.823e-05  0.0143  0.005561  -0.6598  0.3752
6.515e+09  0.9825  -2.491  -0.006986  0.004556  0.02237  0.001875  -0.4863  0.572
6.516e+09  0.08997  -2.762  -0.00916  -0.01385  -0.06208  0.009128  -0.2114  0.7378
6.518e+09  -0.9163  -2.567  -0.02392  0.01031  0.05794  0.0222  0.0332  0.7362
6.519e+09  -1.807  -2.076  -0.01178  0.005477  -0.01785  -0.02322  0.2641  0.7039
6.52e+09  -2.51  -1.283  -0.007861  -0.05998  0.06226  -0.02415  0.4995  0.578
6.521e+09  -2.791  -0.3389  0.04631  0.009795  0.03035  0.02586  0.6605  0.349
6.522e+09  -2.687  0.7576  0.0112  0.04648  -0.002328  0.0102  0.7691  0.07703
6.524e+09  -2.272  1.635  -0.02928  0.01419  -0.039  -0.009534  0.7314  -0.1588
6.525e+09  -1.559  2.439  -0.007688  0.007674  -0.0323  0.01781  0.592  -0.414
6.526e+09  -0.5058  2.859  -0.03733  -0.01448  0.003015  -0.06922  0.4385  -0.5491
6.528e+09  0.4969  2.875  0.01505  -0.005107  0.0758  -0.01271  0.2421  -0.6923
6.529e+09  1.517  2.462  -0.02761  1.99e-06  -0.007073  0.08831  -0.07593  -0.6897
6.53e+09  2.331  1.748  0.009058  -0.002495  -0.008751  0.01116  -0.313  -0.6553
6.531e+09  2.866  0.7503  0.01936  0.02697  -0.03679  0.02391  -0.464  -0.4738
6.532e+09  2.981  -0.3547  -0.00925  0.01746  0.03118  0.04139  -0.5854  -0.2925
6.534e+09  2.615  -1.437  0.005246  -0.01053  0.02985  -0.05091  -0.6584  -0.07774
6.535e+09  1.98  -2.356  0.01203  -0.02474  -0.05302  -0.01065  -0.589  0.1142
6.536e+09  0.9732  -2.904  -0.02088  -0.01759  -0.0717  0.002209  -0.586  0.311
6.538e+09  -0.1986  -3.147  0.002721  0.03785  -0.01571  -0.01642  -0.4357  0.4713
6.539e+09  -1.334  -2.826  -0.06085  -0.02517  0.02681  0.03852  -0.2627  0.6295
6.54e+09  -2.297  -2.082  0.00567  -0.0251  -0.01857  0.0189  -0.07439  0.6969
6.541e+09  -2.91  -1.077  0.03548  0.03042  0.0215  0.01465  0.2122  0.656
6.542e+09  -3.147  0.0771  0.01234  -0.0004618  -0.005913  0.01161  0.4288  0.5771
6.544e+09  -2.834  1.271  0.001999  0.009976  -0.03754  0.005441  0.6163  0.4133
6.545e+09  -2.291  2.204  0.03105  -0.01298  -0.006153  0.02215  0.7133  0.1784
6.546e+09  -1.103  2.838  -0.01322  -0.004354  0.03497  -0.05961  0.7098  -0.08204
6.548e+09  0.01398  3.092  -0.02611  0.03623  0.02873  0.01833  0.6682  -0.3581
6.549e+09  1.186  2.828  -0.009237  -0.001229  -0.0137  -0.01204  0.5113  -0.5106
6.55e+09  2.141  2.188  0.006786  0.004157  -0.004252  -0.0111  0.2759  -0.6897
6.551e+09  2.826  1.213  0.03003  -0.01295  -0.02309  0.03476  0.0313  -0.7594
6.552e+09  3.039  0.07734  -0.01229  4.218e-05  0.01692  -0.06436  -0.2066  -0.6956
6.554e+09  2.843  -1.002  0.006496  -0.00419  -0.0135  0.0004909  -0.4394  -0.6063
6.555e+09  2.225  -2.023  -0.0002219  -0.02042  0.03931  0.01136  -0.6381  -0.3957
