# Hz S RI R 50
6.25e+09  0.8421  0.5167  -0.01342  -0.02971  -0.0409  0.0006883  0.1903  0.4904
6.251e+09  1.003  0.1602  0.02306  -0.01162  -0.04457  0.08153  0.3332  0.4104
6.252e+09  0.9862  -0.1423  0.01244  -0.006563  -0.04097  0.03076  0.5638  0.2321
6.254e+09  0.8449  -0.4818  0.01334  -0.01539  0.01083  0.04251  0.6208  -0.0009033
6.255e+09  0.6317  -0.8057  0.003894  -0.004722  0.0001673  0.06415  0.578  -0.1904
6.256e+09  0.3199  -0.9085  -0.00448  -0.01647  -0.03007  -0.007915  0.4645  -0.4862
6.258e+09  -0.02638  -0.9809  0.01293  -0.008355  -0.005828  0.06263  0.3427  -0.5794
6.259e+09  -0.441  -0.9006  0.01937  -0.0069  -0.00919  0.00191  0.01011  -0.679
6.26e+09  -0.6342  -0.7262  -0.03629  -0.0009502  0.01536  -0.01399  -0.2176  -0.6685
6.261e+09  -0.8647  -0.446  -0.007754  0.02023  -0.03718  -0.05758  -0.4421  -0.5635
6.262e+09  -0.981  -0.09503  -0.0016  0.009552  0.00315  -0.0528  -0.5972  -0.3454
6.264e+09  -0.9357  0.2367  0.01658  -0.000509  0.03509  -0.04148  -0.6916  -0.1009
6.265e+09  -0.8114  0.6064  -0.01294  -0.007918  0.005343  -0.02164  -0.6969  0.1426
6.266e+09  -0.5454  0.7991  0.007609  0.01416  0.008401  -0.02066  -0.6094  0.3987
6.268e+09  -0.1853  0.9815  -0.01213  0.01002  0.03628  0.02751  -0.4439  0.6146
6.269e+09  0.1438  0.9308  0.01179  -0.0237  0.02024  0.008672  -0.1805  0.7149
6.27e+09  0.4795  0.861  0.01013  0.02737  0.02146  0.001395  0.08229  0.734
6.271e+09  0.7366  0.6428  0.01257  -0.03677  0.06927  0.0009065  0.3107  0.6714
6.272e+09  0.91  0.2934  -0.0109  -0.01404  0.0376  -0.03594  0.5397  0.5377
6.274e+09  0.9675  -0.02638  0.02861  0.02679  0.0279  -0.003425  0.6634  0.2981
6.275e+09  0.8722  -0.2991  0.04553  -0.01304  0.03397  -0.02335  0.7438  0.05179
6.276e+09  0.759  -0.6889  -0.0246  -0.02726  -0.0397  -0.008261  0.7166  -0.2051
6.278e+09  0.4608  -0.8383  0.0141  -0.008008  -0.006577  -0.0124  0.5962  -0.483
6.279e+09  0.1578  -0.9582  0.001744  0.01745  0.006802  0.01139  0.4297  -0.6457
6.28e+09  -0.254  -0.9693  0.02256  -0.01391  -0.02054  0.003968  0.1714  -0.7597
6.281e+09  -0.564  -0.8255  -0.02212  0.003303  0.03679  0.009641  -0.1082  -0.7431
6.282e+09  -0.8246  -0.5644  0.01711  0.03402  0.02513  -0.04735  -0.3952  -0.6902
6.284e+09  -0.9922  -0.2425  0.007188  -0.008244  -0.00698  -0.05486  -0.5738  -0.5182
6.285e+09  -0.916  0.126  -0.008311  -0.0002918  0.03204  -0.04335  -0.7527  -0.2749
6.286e+09  -0.8466  0.4342  0.0195  -0.01347  -0.03996  0.02115  -0.7981  0.003535
6.288e+09  -0.6841  0.7403  0.01461  0.023  0.01925  -0.02002  -0.7229  0.2093
6.289e+09  -0.3554  0.895  -0.006546  -0.009125  0.01814  0.02599  -0.6232  0.4891
6.29e+09  -0.05141  1.011  0.003279  -0.0007795  0.01933  -0.005486  -0.3984  0.7018
6.291e+09  0.3386  0.9333  0.01692  0.00311  0.02847  0.02956  -0.1672  0.8101
6.292e+09  0.6583  0.7466  -0.006815  -0.01364  0.03062  0.03103  0.1463  0.8127
6.294e+09  0.8819  0.4901  -0.005824  -0.007682  0.01228  -0.01763  0.4126  0.713
6.295e+09  1.006  0.1333  -0.002506  0.009578  -0.01224  -0.0637  0.6424  0.5332
6.296e+09  0.9325  -0.1607  0.01303  -0.01078  0.05108  -0.02633  0.7411  0.2963
6.298e+09  0.908  -0.5343  -0.001171  0.01962  -0.01669  0.001678  0.8335  0.004182
6.299e+09  0.5876  -0.8069  0.0109  0.009202  -0.01144  -0.005061  0.7826  -0.2696
6.3e+09  0.2752  -0.9479  0.01149  -0.02723  -0.03524  -0.03033  0.6135  -0.5453
6.301e+09  -0.04889  -1.025  -0.009564  -0.00144  -0.05379  -0.04156  0.4297  -0.735
6.302e+09  -0.4585  -0.9555  -0.01259  -0.01053  -0.02481  -0.006013  0.1506  -0.8045
6.304e+09  -0.7022  -0.6767  0.01105  0.01035  0.05748  -0.01098  -0.1134  -0.8561
6.305e+09  -0.918  -0.437  0.003352  -0.002572  0.01698  0.03649  -0.4144  -0.7556
6.306e+09  -1.026  -0.06921  0.01458  0.02213  -0.03732  -0.00216  -0.655  -0.542
6.308e+09  -0.9502  0.2548  0.0006495  -0.01664  -0.005554  0.007762  -0.7883  -0.2803
6.309e+09  -0.7853  0.5749  -0.006255  -0.004158  0.06171  -0.04988  -0.8835  -0.007836
6.31e+09  -0.5679  0.911  -0.009708  -0.0243  0.001198  0.02569  -0.8177  0.2993
6.311e+09  -0.2424  1.004  0.02549  0.002361  0.02879  0.00239  -0.6796  0.5542
6.312e+09  0.1418  1  0.01877  0.002379  -0.006911  -0.05875  -0.4387  0.7441
6.314e+09  0.5609  0.895  -0.01278  -0.01161  0.0237  0.02986  -0.1551  0.8764
6.315e+09  0.779  0.679  0.01139  0.0308  0.07124  -0.0001422  0.1253  0.8416
6.316e+09  0.9379  0.3306  0.00748  0.01183  0.004746  0.02569  0.4373  0.7834
6.318e+09  1.058  -0.0253  0.01955  -0.0191  0.008173  0.002836  0.6747  0.5643
6.319e+09  0.9615  -0.3683  -0.01155  -0.009083  -0.009984  0.002976  0.8441  0.3166
6.32e+09  0.7439  -0.7326  -0.003152  -0.003929  -0.02951  -0.01264  0.8967  0.01971
6.321e+09  0.4379  -0.9145  0.01419  -0.003248  0.004662  0.03657  0.8423  -0.2838
6.322e+09  0.1261  -1  -0.007138  0.01959  0.05151  0.01789  0.7065  -0.5132
6.324e+09  -0.2469  -1.01  0.01  -0.03684  0.02943  0.02781  0.4608  -0.7453
6.325e+09  -0.5878  -0.8522  0.01347  -0.007845  0.017  -0.02216  0.1439  -0.8784
6.326e+09  -0.8724  -0.6314  0.008803  0.008122  -0.02252  -0.003529  -0.1486  -0.8392
6.328e+09  -1.016  -0.2872  -0.004249  0.003136  0.01429  0.0238  -0.4656  -0.8009
6.329e+09  -1.044  0.1344  -0.001737  -0.01225  0.03728  0.00872  -0.6891  -0.5793
6.33e+09  -1.034  0.4718  -0.008198  -0.008337  0.05034  0.0005924  -0.8818  -0.3009
6.331e+09  -0.8301  0.8146  -0.00986  0.008063  -0.004392  0.01913  -0.9468  -0.05028
6.332e+09  -0.4517  0.9854  0.02258  -0.04041  0.02456  0.05935  -0.8556  0.313
6.334e+09  -0.05415  1.052  0.007558  -0.001495  0.005857  0.05537  -0.7235  0.5501
6.335e+09  0.2983  1.062  0.006907  -0.02058  0.01269  0.0224  -0.4874  0.7623
6.336e+09  0.7122  0.8551  -0.007068  0.01839  -0.03962  -0.01063  -0.2042  0.8988
6.338e+09  0.9154  0.5653  -0.00144  -0.00774  -0.04418  -0.009083  0.1536  0.9046
6.339e+09  1.079  0.2014  -0.01012  -0.02106  -0.02926  0.02045  0.4268  0.8256
6.34e+09  1.109  -0.1531  0.005952  -0.001081  0.009953  0.0491  0.6888  0.6208
6.341e+09  0.9296  -0.5619  0.005505  0.01713  -0.001645  0.001214  0.8767  0.3726
6.342e+09  0.691  -0.8319  0.007347  0.01998  0.003816  0.002526  0.9286  0.04504
6.344e+09  0.3509  -1.021  -0.005846  0.02313  0.001451  0.01944  0.8795  -0.2912
6.345e+09  -0.02472  -1.146  0.01934  0.0269  -0.01869  -0.01391  0.7675  -0.5614
6.346e+09  -0.4033  -1.075  -0.0001672  -0.002847  0.0005367  0.04456  0.526  -0.7709
6.348e+09  -0.7475  -0.8715  0.03201  0.04138  -0.0002667  0.04424  0.2026  -0.8931
6.349e+09  -1.013  -0.5374  0.00657  0.0002356  0.02731  0.005833  -0.08906  -0.9256
6.35e+09  -1.154  -0.1455  -0.004467  -0.02111  0.02402  -0.008534  -0.4199  -0.8214
6.351e+09  -1.134  0.2502  0.00779  -0.005586  0.03079  0.05128  -0.7103  -0.6365
6.352e+09  -0.9897  0.6729  -0.002917  -0.03323  -0.03175  -0.06486  -0.8372  -0.3201
6.354e+09  -0.6885  0.9174  0.0374  -0.03557  -0.02796  -0.0292  -0.9464  -0.04292
6.355e+09  -0.3005  1.138  0.003744  -0.01144  0.03163  0.01914  -0.8675  0.2534
6.356e+09  0.1063  1.139  0.006366  0.0333  0.006167  -0.0173  -0.7665  0.5316
6.358e+09  0.5232  1.094  0.02527  -0.006314  0.01354  0.01007  -0.5227  0.7809
6.359e+09  0.8301  0.8259  -0.02745  0.01565  -0.01421  0.01446  -0.2092  0.901
6.36e+09  1.08  0.4991  -0.01365  0.03129  0.01418  0.04954  0.1041  0.9397
6.361e+09  1.223  0.06911  -0.0157  -0.02484  0.06153  -0.02724  0.4453  0.8561
6.362e+09  1.19  -0.3745  0.05126  -0.01261  0.01864  -0.02905  0.6746  0.6423
6.364e+09  0.943  -0.8189  0.03427  -0.01201  -0.01026  -0.06358  0.8604  0.4238
6.365e+09  0.6193  -1.079  0.01543  0.01716  -0.02596  -0.01568  0.9315  0.0803
6.366e+09  0.2009  -1.213  0.01157  0.02304  0.0001206  0.01274  0.915  -0.2368
6.368e+09  -0.2355  -1.256  0.01174  -0.001595  -0.01327  -0.001169  0.7736  -0.4992
6.369e+09  -0.6507  -1.063  -0.005066  0.01343  -0.01377  0.02635  0.5324  -0.8127
6.37e+09  -1.009  -0.7891  -0.01838  0.02107  0.0292  0.01619  0.2317  -0.9275
6.371e+09  -1.185  -0.3498  -0.01155  -0.02208  -0.004577  0.001106  -0.07091  -0.9524
6.372e+09  -1.255  0.0117  0.02037  -0.001959  -0.01611  0.0288  -0.3791  -0.8654
6.374e+09  -1.183  0.4446  -0.002254  0.0292  0.04533  -0.02251  -0.6295  -0.7083
6.375e+09  -0.9302  0.8557  0.0413  0.003053  -0.004959  -6.213e-05  -0.843  -0.4079
6.376e+09  -0.5729  1.156  0.02772  -0.0113  -0.04016  0.0054  -0.969  -0.109
6.378e+09  -0.1822  1.313  0.0213  -0.008318  0.01449  0.01093  -0.9424  0.2365
6.379e+09  0.356  1.298  0.02204  -0.04162  -0.01752  -0.001423  -0.8422  0.5425
6.38e+09  0.772  1.123  -0.02754  0.02439  -0.007603  -0.03653  -0.5598  0.7661
6.381e+09  1.046  0.7597  0.03895  0.008522  -0.01185  -0.03537  -0.2755  0.8829
6.382e+09  1.266  0.2688  -0.01782  0.01424  -0.0007535  -0.01001  0.04068  0.9423
6.384e+09  1.38  -0.1084  -0.01138  -0.003686  -0.02582  0.02116  0.3831  0.8421
6.385e+09  1.252  -0.6412  0.007393  -0.00545  0.03214  0.03945  0.6485  0.7195
6.386e+09  0.9335  -1.057  0.001663  -0.009764  0.0007197  -0.02236  0.8406  0.383
6.388e+09  0.5111  -1.323  -0.02366  0.00537  -0.004863  0.004134  0.898  0.1067
6.389e+09  -0.02975  -1.419  0.001379  -0.01191  0.001636  0.01506  0.9054  -0.2176
6.39e+09  -0.457  -1.403  -0.01399  0.02431  0.001022  -0.05106  0.7955  -0.5056
6.391e+09  -0.9722  -1.124  -0.0002773  -0.01976  0.02656  -0.001968  0.5758  -0.7664
6.392e+09  -1.273  -0.7088  0.01138  0.006676  0.008755  -0.02819  0.2918  -0.8882
6.394e+09  -1.423  -0.2616  -0.03035  -0.00196  -0.03128  0.01668  -0.07462  -0.9356
6.395e+09  -1.527  0.2671  -0.02702  -0.01871  0.02453  -0.01021  -0.3342  -0.8556
6.396e+09  -1.301  0.8337  -0.006524  0.004074  -0.0646  0.005504  -0.6119  -0.6932
6.398e+09  -1.079  1.209  0.003008  0.02562  -0.02285  0.0319  -0.8406  -0.4484
6.399e+09  -0.5072  1.52  -0.003186  0.007876  -0.02636  -0.007342  -0.8524  -0.1248
6.4e+09  0.1335  1.63  -0.01009  -0.03158  -0.04993  0.02216  -0.869  0.1571
6.401e+09  0.6428  1.49  -0.0007451  -0.0006536  -0.01518  0.01763  -0.7727  0.4818
6.402e+09  1.125  1.285  0.03758  0.02332  0.005106  0.05489  -0.5895  0.692
6.404e+09  1.464  0.7384  -0.01922  0.0205  0.006119  7.643e-05  -0.293  0.8594
6.405e+09  1.705  0.09628  -0.04299  -0.00551  -0.02526  -0.02969  0.03626  0.9386
6.406e+09  1.64  -0.5192  -0.03066  0.007106  0.03295  0.0271  0.3187  0.8633
6.408e+09  1.344  -1.101  -0.04173  0.01231  0.01609  -0.02229  0.5426  0.6648
6.409e+09  0.887  -1.589  -0.03413  -0.003394  -0.03093  0.02955  0.7977  0.4651
6.41e+09  0.2674  -1.802  0.07106  -0.02587  -0.01275  -0.002907  0.8933  0.1553
6.411e+09  -0.45  -1.823  -0.02801  0.01189  0.02788  0.0222  0.9186  -0.1332
6.412e+09  -1.069  -1.601  -0.003164  0.01222  -0.0482  -0.0298  0.801  -0.4329
6.414e+09  -1.636  -1.05  -0.02444  -0.007336  -0.01128  -0.0445  0.5632  -0.666
6.415e+09  -1.919  -0.4273  -0.01458  0.05421  0.02124  0.02247  0.303  -0.861
6.416e+09  -2.022  0.281  -0.04809  -0.04994  -0.02929  -0.01332  0.05766  -0.8817
6.418e+09  -1.751  1.014  -0.03772  -0.00768  -0.007838  -0.003695  -0.2812  -0.8634
6.419e+09  -1.299  1.706  0.002078  0.05093  -0.02434  0.03183  -0.5818  -0.7139
6.42e+09  -0.5709  2.043  -0.009656  -0.01238  0.01793  -0.04059  -0.7217  -0.5046
6.421e+09  0.1929  2.13  -0.00302  0.034  -0.03407  0.03472  -0.8421  -0.2365
6.422e+09  1.004  1.982  -0.0106  -0.01428  -0.09972  -0.04097  -0.882  0.06465
6.424e+09  1.623  1.48  -0.009453  0.00157  0.046  0.05232  -0.7757  0.3902
6.425e+09  2.078  0.6946  0.005069  -0.006132  -0.02073  0.02479  -0.5974  0.6568
6.426e+09  2.308  -0.1176  0.002277  -0.0369  -0.03664  0.001403  -0.3639  0.7767
6.428e+09  2.091  -0.9703  0.03202  0.02808  0.08182  0.01125  0.00284  0.8992
6.429e+09  1.598  -1.668  0.02254  -0.02586  0.01021  0.01051  0.2328  0.8381
6.43e+09  0.8889  -2.108  -0.00888  -0.01458  -0.02002  0.04375  0.5062  0.7082
6.431e+09  0.01668  -2.384  -0.02429  -0.01662  -0.04253  0.005987  0.723  0.5154
6.432e+09  -0.923  -2.289  -0.007107  -0.0383  8.125e-05  -0.01807  0.8673  0.2332
6.434e+09  -1.738  -1.72  -0.01954  0.01292  -0.01541  -0.05249  0.8763  -0.06912
6.435e+09  -2.229  -0.9969  0.009206  -0.01768  -0.00475  0.00928  0.7801  -0.3631
6.436e+09  -2.469  -0.02237  -0.04612  0.03594  0.02764  -0.006276  0.5971  -0.6548
6.438e+09  -2.424  0.8905  -0.01662  -0.004237  0.007761  -0.03089  0.3859  -0.7932
6.439e+09  -1.797  1.704  -0.03656  -0.03078  -0.06266  -0.04702  0.1005  -0.8883
6.44e+09  -1.006  2.257  -0.02261  0.02018  -0.06255  0.02695  -0.1973  -0.7892
6.441e+09  -0.1273  2.547  0.00815  0.02525  0.09296  0.01147  -0.5445  -0.6737
6.442e+09  0.8791  2.394  0.01025  0.01177  0.03515  -0.006677  -0.7192  -0.5294
6.444e+09  1.742  1.84  -0.01821  0.03029  0.05598  0.04547  -0.828  -0.2005
6.445e+09  2.257  1.077  0.02637  0.03255  0.006219  -0.01226  -0.8687  0.07817
6.446e+09  2.498  0.1667  0.01343  0.03122  -0.01194  -0.03105  -0.7644  0.3933
6.448e+09  2.406  -0.8976  -0.01716  -0.005037  0.007147  0.02035  -0.5894  0.61
6.449e+09  1.898  -1.622  -0.03035  0.00974  0.007072  -0.02738  -0.3651  0.7737
6.45e+09  1.1  -2.197  -0.01304  0.0001175  0.01238  -0.05224  -0.06222  0.8871
6.451e+09  0.1703  -2.453  -0.008879  -0.03596  -0.002746  0.02043  0.2379  0.8296
6.452e+09  -0.7426  -2.27  0.03755  -0.002003  0.001842  -0.05934  0.5086  0.6911
6.454e+09  -1.557  -1.895  0.01026  0.02274  0.01007  0.09827  0.714  0.4803
6.455e+09  -2.092  -1.057  -0.02493  -0.03256  -0.005796  0.0399  0.7916  0.1566
6.456e+09  -2.397  -0.2721  0.03684  -0.0271  -0.04212  0.0009869  0.8183  -0.0591
6.458e+09  -2.24  0.6236  -0.01624  -0.03196  -0.03644  -0.006207  0.764  -0.3696
6.459e+09  -1.859  1.378  0.01569  0.08474  0.00361  -0.06081  0.6157  -0.5885
6.46e+09  -1.215  1.94  -0.0002925  0.02335  -0.008263  0.003886  0.2888  -0.6806
6.461e+09  -0.3816  2.266  0.04913  0.0001751  -0.02971  -0.002486  0.01963  -0.8373
6.462e+09  0.4364  2.242  0.02017  0.02608  0.01877  -0.04868  -0.2061  -0.8155
6.464e+09  1.231  1.85  -0.008545  0.02148  -0.01133  0.009211  -0.518  -0.6512
6.465e+09  1.816  1.218  -0.01759  0.03958  0.02451  0.01345  -0.663  -0.4447
6.466e+09  2.131  0.4818  0.01069  -0.02006  -0.02887  0.01739  -0.7647  -0.1897
6.468e+09  2.173  -0.2665  0.02352  -0.01101  -0.06276  -0.01949  -0.8294  0.08971
6.469e+09  1.856  -1.044  0.01426  -0.009255  -0.02372  -0.0332  -0.6915  0.3581
6.47e+09  1.33  -1.627  -0.004131  -0.02809  0.02427  0.0111  -0.5308  0.5904
6.471e+09  0.6332  -2.039  0.001952  0.02471  0.03876  0.04503  -0.3441  0.7241
6.472e+09  -0.09391  -2.072  -0.01779  0.04571  -0.001309  -0.06335  -0.03181  0.8097
6.474e+09  -0.8371  -1.922  -0.01296  -0.02679  0.007061  -0.03772  0.2118  0.7937
6.475e+09  -1.415  -1.443  -0.0116  -0.0168  -0.003692  -0.0009922  0.4757  0.6717
6.476e+09  -1.827  -0.8864  -0.01268  0.0003518  -0.01938  -0.03482  0.7069  0.4106
6.478e+09  -2.029  -0.1561  -0.001174  -0.008826  -0.0126  -0.02789  0.7479  0.1853
6.479e+09  -1.886  0.5538  -0.0004397  -0.007778  -0.0394  0.01121  0.774  -0.07523
6.48e+09  -1.486  1.189  -0.01951  0.0239  -0.02654  -0.03969  0.7104  -0.3384
6.481e+09  -0.9918  1.708  0.02057  0.006416  0.03945  0.03158  0.5354  -0.6212
6.482e+09  -0.3197  1.912  0.0006714  0.02692  -0.002057  -0.03038  0.3518  -0.7102
6.484e+09  0.3563  1.875  0.01518  0.02521  -0.01016  0.01692  0.03217  -0.776
6.485e+09  0.9905  1.566  0.01328  0.02392  0.01429  0.02863  -0.1772  -0.7637
6.486e+09  1.527  1.164  -0.01372  0.02894  0.03419  -0.003404  -0.4554  -0.6031
6.488e+09  2.428  0.7293  -0.01173  0.03499  0.722  0.139  -0.6716  -0.4117
6.489e+09  1.831  -0.1603  0.04601  0.01333  -0.001993  0.04009  -0.7599  -0.1948
6.49e+09  1.637  -0.7979  0.02741  -0.008971  -0.0002186  0.003556  -0.7922  0.1051
6.491e+09  1.315  -1.285  0.02217  -0.04652  0.02769  0.08219  -0.672  0.3337
6.492e+09  0.7272  -1.639  -0.03358  -0.01482  -0.03955  0.03506  -0.5026  0.5659
6.494e+09  -0.01592  -1.775  0.00834  0.008184  -0.146  0.005273  -0.3018  0.6769
6.495e+09  -0.5152  -1.74  0.0104  -0.01744  -0.05095  0.009787  -0.02003  0.7453
6.496e+09  -1.158  -1.402  0.03894  -0.03352  0.00084  0.01384  0.2361  0.7265
6.498e+09  -1.502  -0.8895  -0.0265  -0.008261  -0.02031  0.003629  0.4657  0.5811
6.499e+09  -1.776  -0.3464  0.02297  0.01922  -0.04066  0.01606  0.6461  0.4447
6.5e+09  -1.729  -1.269  -0.001213  -0.02346  0.08293  -0.05451  0.7548  0.1154
6.501e+09  -1.484  0.9189  -0.01548  -0.01681  -0.01122  -0.03846  0.7577  -0.09176
6.502e+09  -1.135  1.394  0.006938  -0.0319  0.03092  0.03631  0.6331  -0.359
6.504e+09  -0.5545  1.699  0.04401  -0.01182  0.03331  -0.0448  0.5392  -0.6125
6.505e+09  0.08844  1.793  0.0004369  0.01748  0.01482  0.03233  0.2658  -0.7545
6.506e+09  0.7011  1.672  -0.01804  -0.00118  -0.01105  -0.01951  0.01531  -0.7701
6.508e+09  1.223  1.298  0.007742  0.06176  -0.0287  0.07028  -0.2631  -0.7147
6.509e+09  1.698  0.7611  -0.002152  0.02337  -0.0188  0.02846  -0.5093  -0.6086
6.51e+09  1.862  0.15  -0.009386  0.0264  -0.0283  0.04247  -0.6592  -0.3709
6.511e+09  1.718  -0.5022  0.00835  0.009194  -0.0922  -0.05438  -0.7307  -0.1052
6.512e+09  1.518  -1.1  -0.01157  0.00246  -0.03199  0.05188  -0.7971  0.176
6.514e+09  0.9556  -1.515  0.005223  0.02262  0.05457  0.01251  -0.6949  0.3474
6.515e+09  0.3852  -1.814  0.02518  0.01705  0.01606  -0.001478  -0.4402  0.5513
6.516e+09  -0.2496  -1.903  -0.02462  0.005959  0.01298  0.05309  -0.2181  0.7185
6.518e+09  -0.924  -1.705  -0.002659  -0.01931  -0.00504  -0.01181  0.002333  0.7827
6.519e+09  -1.457  -1.288  -0.01817  -0.01106  -0.06569  0.01335  0.2769  0.6479
6.52e+09  -1.764  -0.6519  0.005109  -0.01231  -0.07486  0.04321  0.4989  0.5542
6.521e+09  -1.973  0.0182  0.03225  -0.02247  0.002094  -0.05409  0.6611  0.3494
6.522e+09  -1.741  0.7043  -0.01791  -0.01611  -0.05515  -0.0621  0.7363  0.1365
6.524e+09  -1.434  1.301  0.01432  0.0005935  -0.02564  0.03826  0.7334  -0.1215
6.525e+09  -0.838  1.751  0.04221  -0.000934  0.0112  -0.02734  0.6089  -0.4145
6.526e+09  -0.2433  1.926  0.02697  0.008626  -0.01905  0.0257  0.4163  -0.5548
6.528e+09  0.5144  1.989  -0.009251  -0.004231  0.02596  0.0178  0.1898  -0.6726
6.529e+09  1.195  1.646  -0.01042  -0.004002  -0.0331  -0.01406  -0.04558  -0.7007
6.53e+09  1.728  1.116  -0.0194  -0.0389  0.007305  0.01417  -0.2843  -0.6073
6.531e+09  2.026  0.4424  0.04021  0.01777  0.01645  0.009239  -0.5087  -0.4841
6.532e+09  2.059  -0.321  -0.01877  -0.02135  0.01057  0.0001055  -0.5397  -0.2978
6.534e+09  1.841  -0.9846  0.001966  0.0116  -0.04325  0.001668  -0.634  -0.05277
6.535e+09  1.426  -1.715  -0.006661  0.01148  -0.09735  0.009395  -0.6198  0.1148
6.536e+09  0.6925  -2.112  0.003831  -0.00619  -0.06449  0.04061  -0.5628  0.3369
6.538e+09  -0.117  -2.206  -0.000597  0.006565  -0.04347  0.02451  -0.465  0.468
6.539e+09  -0.9476  -2.005  -0.01394  -0.00635  -0.006782  -0.009467  -0.2978  0.6141
6.54e+09  -1.606  -1.589  -0.03386  -0.01727  0.008051  -0.007098  -0.05239  0.663
6.541e+09  -2.077  -0.9132  0.02224  -0.004403  -0.07204  -0.02926  0.1975  0.662
6.542e+09  -2.315  -0.1108  0.00132  0.01637  0.002427  -0.04147  0.4122  0.5615
6.544e+09  -2.243  0.8235  -0.002213  -0.01641  0.0918  0.06919  0.6079  0.3983
6.545e+09  -1.722  1.546  0.01251  -0.003096  0.05465  -0.00714  0.7073  0.1611
6.546e+09  -1.087  2.078  0.02754  -0.01567  0.03804  0.05598  0.7269  -0.09549
6.548e+09  -0.2844  2.409  0.0165  0.02744  -0.09039  0.06438  0.6512  -0.3328
6.549e+09  0.6217  2.371  0.005567  -0.02903  0.06992  -0.008218  0.5107  -0.5386
6.55e+09  1.533  1.919  0.02299  -0.007739  -0.00764  0.01851  0.2774  -0.686
6.551e+09  2.113  1.266  -0.05133  0.005105  0.005755  0.07006  0.02429  -0.7006
6.552e+09  2.453  0.4073  -9.477e-05  -0.01925  0.01444  0.04412  -0.2186  -0.7255
6.554e+09  2.414  -0.4984  0.001374  0.02304  -0.04455  -0.03283  -0.4452  -0.5662
