# Hz S RI R 50
6.25e+09  0.06446  0.9292  -0.03884  0.01815  0.009461  0.0195  0.1353  0.474
6.251e+09  0.4022  0.8345  -0.02621  0.00035  -0.05809  0.0137  0.3842  0.3954
6.252e+09  0.6968  0.6667  0.001795  0.02264  -0.04302  0.04293  0.5495  0.2523
6.254e+09  0.8734  0.4084  -0.01536  0.003523  0.009346  -0.009183  0.6018  0.03495
6.255e+09  0.9094  0.1202  -0.01909  -0.01958  -0.03552  0.0234  0.6077  -0.2338
6.256e+09  0.9121  -0.2626  0.01324  0.01633  -0.004965  0.01556  0.4805  -0.454
6.258e+09  0.7646  -0.5427  -0.0156  -0.02498  -0.001888  -0.02145  0.3162  -0.6123
6.259e+09  0.564  -0.7316  0.02629  0.001569  -0.01292  -0.007038  0.02485  -0.6654
6.26e+09  0.2372  -0.8754  0.01054  0.02243  -0.009106  0.06281  -0.208  -0.6543
6.261e+09  -0.05076  -0.9323  0.03642  0.01861  0.05614  0.04317  -0.424  -0.5647
6.262e+09  -0.4155  -0.8492  0.01892  -0.02321  0.02806  -0.01359  -0.6231  -0.3405
6.264e+09  -0.6519  -0.6557  -0.03241  0.007041  0.01132  -0.0007087  -0.7113  -0.146
6.265e+09  -0.8066  -0.4265  0.01668  0.02181  -0.01669  -0.04557  -0.6825  0.1474
6.266e+09  -0.896  -0.09132  -0.01703  -0.0182  0.02146  -0.03588  -0.6252  0.429
6.268e+09  -0.8602  0.2808  0.01621  0.004725  0.007009  -0.01462  -0.4309  0.5855
6.269e+09  -0.7542  0.5519  0.0005864  0.0007719  0.03782  -0.01973  -0.1897  0.7272
6.27e+09  -0.531  0.8017  0.008888  -0.006657  0.03287  -0.02545  0.08072  0.7257
6.271e+09  -0.1736  0.8934  0.02115  -0.002938  -0.03334  0.007433  0.3558  0.6675
6.272e+09  0.1059  0.9497  -0.007223  0.001928  -0.06503  -0.01416  0.5352  0.5468
6.274e+09  0.4094  0.7719  0.01854  0.01345  -0.1011  -0.02127  0.7166  0.3065
6.275e+09  0.6978  0.5685  0.03779  0.01554  -0.01112  -0.01232  0.7545  0.04764
6.276e+09  0.8295  0.3745  0.03606  -0.01695  0.03481  0.0336  0.7328  -0.2255
6.278e+09  0.943  0.04491  0.01363  -0.01039  0.0006018  -0.0179  0.6047  -0.4672
6.279e+09  0.8736  -0.2767  0.003072  -0.003611  0.03345  -0.03225  0.4248  -0.6742
6.28e+09  0.7321  -0.535  -0.01289  -0.02751  -0.007399  0.01394  0.1861  -0.7485
6.281e+09  0.4069  -0.7692  2.599e-05  -0.01828  0.03203  -0.008835  -0.1257  -0.7858
6.282e+09  0.1449  -0.896  -0.0006769  -0.01603  0.03112  -0.01125  -0.3794  -0.6645
6.284e+09  -0.1398  -0.9023  0.01228  0.01872  0.01562  -0.04413  -0.6081  -0.5356
6.285e+09  -0.4936  -0.7858  0.02013  -0.02661  0.0002893  0.01191  -0.7622  -0.2642
6.286e+09  -0.7399  -0.5735  0.03373  0.03082  -0.02394  0.002809  -0.8268  -0.005407
6.288e+09  -0.8323  -0.3115  -0.007629  -0.006708  0.007709  0.02478  -0.7809  0.2589
6.289e+09  -0.9617  0.03451  0.01437  0.02998  -0.01285  -0.0183  -0.647  0.5029
6.29e+09  -0.8306  0.2745  -0.001497  -0.00999  -0.0003054  -0.00119  -0.438  0.6849
6.291e+09  -0.7615  0.6227  -0.01824  0.02854  0.05477  -0.004337  -0.1493  0.7939
6.292e+09  -0.4834  0.7772  0.002302  0.006545  0.01587  -0.04228  0.1512  0.8166
6.294e+09  -0.1586  0.9303  -0.0088  0.0449  0.01924  -0.03374  0.4158  0.7194
6.295e+09  0.1627  0.8987  0.0116  0.006047  0.003377  -0.03077  0.6419  0.5477
6.296e+09  0.4581  0.7772  -0.001831  -0.007358  0.005003  0.053  0.799  0.2795
6.298e+09  0.7363  0.5469  -0.002878  0.01699  -0.03261  -0.02878  0.8028  0.028
6.299e+09  0.9186  0.2786  0.03236  0.03928  0.005009  -0.0337  0.7885  -0.2929
6.3e+09  0.9565  -0.1024  0.03938  -0.01185  0.03646  -0.04533  0.6556  -0.5235
6.301e+09  0.9118  -0.4111  0.01216  0.008283  -0.02507  0.01944  0.4343  -0.7387
6.302e+09  0.7437  -0.6441  0.002577  0.01396  -0.02733  -0.0534  0.1287  -0.8143
6.304e+09  0.4262  -0.8524  0.003846  0.007556  0.01072  0.01155  -0.1721  -0.8721
6.305e+09  0.0916  -0.9353  0.02534  0.01274  -0.003662  -0.02703  -0.4606  -0.7231
6.306e+09  -0.2775  -0.895  0.0254  -0.01455  -0.02093  -0.00273  -0.6319  -0.5443
6.308e+09  -0.5485  -0.786  0.0171  -0.007979  -0.01187  0.03179  -0.7943  -0.3018
6.309e+09  -0.8038  -0.5717  0.007458  0.01295  0.02503  0.02718  -0.8977  0.01306
6.31e+09  -0.9801  -0.2424  -0.007646  0.01676  -0.02022  0.0118  -0.7804  0.2701
6.311e+09  -0.9525  0.06893  0.0438  0.01267  -0.0003092  0.007943  -0.6968  0.5488
6.312e+09  -0.862  0.4533  0.006912  -0.002202  0.01755  0.03603  -0.4692  0.7635
6.314e+09  -0.7293  0.764  -0.01734  -0.01087  0.05211  -0.04087  -0.1506  0.8232
6.315e+09  -0.3738  0.9273  0.02611  -0.0009209  0.006537  0.002108  0.1586  0.8515
6.316e+09  -0.03346  1.013  -0.007516  0.03069  0.01174  -0.01248  0.3887  0.7519
6.318e+09  0.3175  0.943  -0.001006  0.004649  -0.0361  0.02505  0.6893  0.559
6.319e+09  0.6471  0.8298  -0.01462  -0.02674  0.003624  0.007704  0.816  0.3148
6.32e+09  0.9038  0.5717  -0.03384  -0.01309  -0.01727  -0.006706  0.8771  -0.01557
6.321e+09  1.001  0.2026  0.01175  -0.004537  -0.02002  -0.01526  0.8419  -0.3231
6.322e+09  1.051  -0.1613  -0.02399  -3.823e-05  0.04004  0.0138  0.688  -0.5459
6.324e+09  0.8862  -0.5264  0.01437  -0.007862  -0.03706  0.04471  0.4545  -0.7592
6.325e+09  0.7251  -0.7808  -0.01402  -0.03478  -0.004059  0.009107  0.1492  -0.8663
6.326e+09  0.3388  -1  0.02553  0.01071  0.02845  -0.0008145  -0.1284  -0.9275
6.328e+09  0.005944  -0.9772  -0.01981  0.008812  -0.01769  -0.02787  -0.4344  -0.7984
6.329e+09  -0.3564  -0.9775  -0.01726  -0.04172  -0.01756  -0.02919  -0.6681  -0.612
6.33e+09  -0.716  -0.7819  -0.02542  -0.005939  -0.003955  0.01527  -0.8422  -0.355
6.331e+09  -0.9507  -0.4972  -0.004411  -0.009497  -0.03619  0.03323  -0.8909  -0.06565
6.332e+09  -1.116  -0.1716  0.00772  -0.01333  0.002429  0.0302  -0.8613  0.29
6.334e+09  -1.091  0.263  -0.01404  0.008268  0.000651  0.03675  -0.7266  0.5433
6.335e+09  -0.8798  0.5489  0.03568  0.001588  0.00726  -0.002282  -0.486  0.7669
6.336e+09  -0.6985  0.914  -0.02127  0.01582  0.02548  -0.05351  -0.2158  0.9126
6.338e+09  -0.2999  1.068  -0.04157  0.03981  0.0008317  -0.02381  0.1426  0.9061
6.339e+09  0.0851  1.144  0.02995  -0.007111  0.04431  -0.008103  0.4041  0.8397
6.34e+09  0.4787  1.021  -0.004863  0.01493  -0.03053  0.007363  0.7025  0.6379
6.341e+09  0.8149  0.7955  -0.02076  0.01405  0.003134  0.04726  0.895  0.3536
6.342e+09  1.079  0.41  0.0276  -0.007352  0.01678  -0.01989  0.9409  0.03771
6.344e+09  1.119  0.0165  0.03738  0.0005083  -0.002748  0.007284  0.9073  -0.2774
6.345e+09  1.114  -0.3377  0.02989  0.0335  0.03353  0.002132  0.7309  -0.572
6.346e+09  0.8986  -0.7242  -0.007792  0.04211  0.04657  0.009355  0.4977  -0.8025
6.348e+09  0.5933  -0.985  -0.02149  -0.0145  0.01106  -0.01955  0.1653  -0.9172
6.349e+09  0.1821  -1.146  0.03925  -0.03874  -0.02656  0.01291  -0.1141  -0.9047
6.35e+09  -0.2288  -1.133  -0.01214  -0.01735  -0.005928  -0.006729  -0.4244  -0.8526
6.351e+09  -0.6556  -0.9826  0.003576  -0.01731  0.001733  -0.01427  -0.7209  -0.6611
6.352e+09  -0.8754  -0.7517  0.01184  0.0133  0.03709  -0.001257  -0.8797  -0.3878
6.354e+09  -1.13  -0.3209  -0.01322  -0.01976  -0.04089  0.003707  -0.9089  -0.05658
6.355e+09  -1.176  0.03901  0.04777  0.01423  0.01978  -0.01132  -0.9  0.2688
6.356e+09  -1.094  0.497  -0.01408  0.02378  -0.003278  -0.004965  -0.783  0.5775
6.358e+09  -0.8745  0.813  -0.04966  -0.02228  0.013  -0.002045  -0.534  0.7815
6.359e+09  -0.4775  1.074  -0.01922  0.0135  -0.0251  0.011  -0.231  0.9037
6.36e+09  -0.04835  1.204  -0.01334  0.01629  0.03844  0.01384  0.1149  0.9507
6.361e+09  0.3416  1.167  0.007145  -0.001701  0.001739  -0.01685  0.4288  0.8927
6.362e+09  0.7541  0.9866  0.00968  -0.04189  0.02784  0.01117  0.6647  0.6512
6.364e+09  1.046  0.6368  0.03086  0.008658  -0.01494  -0.04529  0.8169  0.4215
6.365e+09  1.203  0.2319  0.002136  -0.01324  0.004517  -0.003846  0.9751  0.08548
6.366e+09  1.184  -0.1791  0.01866  0.02095  0.02361  0.01072  0.8993  -0.2862
6.368e+09  1.033  -0.5723  -0.03846  -0.02035  0.0213  0.007437  0.8054  -0.5599
6.369e+09  0.8274  -0.9866  0.0134  -0.03474  -0.005117  0.006289  0.5696  -0.7503
6.37e+09  0.3726  -1.138  0.01033  0.006394  -0.04984  -0.01551  0.2792  -0.9426
6.371e+09  -0.05868  -1.198  -0.03986  -0.02145  0.01993  -0.03679  -0.06586  -0.9391
6.372e+09  -0.5035  -1.147  0.01572  -0.02797  -0.01372  -0.02654  -0.3627  -0.8669
6.374e+09  -0.8408  -0.9398  0.008554  0.003088  -0.06989  0.0009704  -0.6689  -0.6871
6.375e+09  -1.106  -0.5498  0.02708  0.0003877  0.01506  -0.008342  -0.8429  -0.4327
6.376e+09  -1.226  -0.1509  -0.005664  -0.008483  -0.03127  0.003729  -0.9054  -0.0924
6.378e+09  -1.207  0.3097  0.01946  0.003528  0.02703  -0.007649  -0.9382  0.2196
6.379e+09  -0.987  0.7329  0.0142  -0.01368  0.03587  -0.0188  -0.7909  0.5142
6.38e+09  -0.6864  1.066  0.0229  0.02012  0.03697  -0.0168  -0.5757  0.7499
6.381e+09  -0.2784  1.203  -0.008722  0.011  0.01117  0.0053  -0.2587  0.9203
6.382e+09  0.1257  1.229  -0.00113  0.03129  0.01341  0.01601  0.0543  0.9027
6.384e+09  0.6017  1.027  0.005279  0.00396  0.001467  -0.02038  0.4354  0.8516
6.385e+09  0.9169  0.7981  0.0188  0.02886  -0.02475  -0.02046  0.6386  0.6785
6.386e+09  1.134  0.439  -0.026  -0.007698  0.03104  0.002878  0.8241  0.386
6.388e+09  1.179  0.009005  -0.04993  0.01891  -0.001226  0.0004369  0.9246  0.08079
6.389e+09  1.142  -0.4028  0.019  0.01344  -0.01247  -0.02595  0.9282  -0.2278
6.39e+09  0.9891  -0.7955  0.008067  -0.03044  -0.03963  0.01996  0.8136  -0.5302
6.391e+09  0.6277  -1.072  -0.006319  -0.01102  -0.06023  -0.03379  0.6121  -0.7548
6.392e+09  0.1855  -1.194  -0.02801  0.02094  -0.0331  0.03913  0.2778  -0.8748
6.394e+09  -0.2186  -1.164  -0.03027  -0.01863  0.0004864  0.04115  -0.04434  -0.8935
6.395e+09  -0.6122  -1.025  -0.01986  -0.02854  0.03141  0.01433  -0.331  -0.8197
6.396e+09  -0.8974  -0.7902  -0.0009005  -0.004604  0.02264  0.01863  -0.6329  -0.6617
6.398e+09  -1.166  -0.3794  -0.02579  -0.017  0.02576  -0.008636  -0.7931  -0.4213
6.399e+09  -1.227  0.04288  -0.006589  -0.02457  -0.03554  -0.01357  -0.8896  -0.1347
6.4e+09  -1.101  0.4844  -0.02116  0.01058  -0.005888  0.006943  -0.9004  0.1765
6.401e+09  -0.8571  0.8458  -0.0337  -0.04044  -0.05269  0.04402  -0.7926  0.4864
6.402e+09  -0.4787  1.077  0.01685  0.03272  0.01344  -0.04932  -0.6139  0.6953
6.404e+09  -0.1293  1.231  -0.06097  -0.01858  0.01848  -0.01185  -0.3073  0.8641
6.405e+09  0.338  1.195  0.01054  -0.01062  0.0093  0.03721  0.0003428  0.943
6.406e+09  0.6872  1.009  0.02802  0.0134  0.03076  -0.01535  0.3273  0.8824
6.408e+09  0.975  0.7077  0.0429  0.02429  0.0178  0.02829  0.5635  0.7372
6.409e+09  1.19  0.3402  0.0007677  -0.0372  -0.03587  0.0433  0.7532  0.49
6.41e+09  1.195  -0.1764  0.009186  -0.02496  0.01953  -0.03413  0.8927  0.1614
6.411e+09  1.03  -0.4915  -0.01389  0.01237  -0.01424  0.01926  0.922  -0.1893
6.412e+09  0.8006  -0.9169  -0.0009098  0.006234  0.004696  -0.001747  0.7795  -0.4001
6.414e+09  0.4856  -1.087  -0.009846  -0.01542  -0.02797  -0.04476  0.6008  -0.6815
6.415e+09  0.03723  -1.211  0.02032  0.03332  -0.0396  -0.0006859  0.3131  -0.8199
6.416e+09  -0.3841  -1.155  -0.009305  0.001866  -0.03865  0.02379  0.07882  -0.9173
6.418e+09  -0.7621  -0.898  -0.002323  -0.01726  0.03302  -0.00109  -0.2929  -0.8268
6.419e+09  -1.007  -0.6783  0.0008604  0.01417  -0.03672  0.005039  -0.5451  -0.6639
6.42e+09  -1.2  -0.2752  -0.04083  0.0304  0.01171  -0.0414  -0.7717  -0.457
6.421e+09  -1.232  0.147  -0.02989  -0.02106  0.007069  0.009617  -0.8116  -0.2077
6.422e+09  -1.04  0.611  -0.01896  0.01312  -0.04107  -0.01255  -0.8518  0.1298
6.424e+09  -0.798  0.8873  0.02237  -0.0156  0.007049  0.01956  -0.8415  0.3711
6.425e+09  -0.3667  1.16  -0.02056  0.01773  -0.04767  -0.01735  -0.5833  0.6289
6.426e+09  -0.04214  1.244  0.007064  -0.01763  -0.007438  0.04965  -0.3529  0.7931
6.428e+09  0.3599  1.168  0.02256  -0.009812  0.005514  0.004914  -0.04914  0.853
6.429e+09  0.7566  0.9392  -0.01499  0.02316  -0.03203  -0.02699  0.2087  0.8355
6.43e+09  1.066  0.5567  -0.01409  0.008387  0.03894  0.006233  0.5206  0.6843
6.431e+09  1.205  0.2141  -0.03261  -0.001448  -0.02903  -0.01064  0.6998  0.4816
6.432e+09  1.248  -0.2597  -0.009018  -0.02754  0.005042  -0.03787  0.8423  0.1987
6.434e+09  1.074  -0.6939  -0.01142  -0.04762  -0.01849  0.00951  0.903  -0.06421
6.435e+09  0.7594  -1.01  0.01449  0.04221  -0.009354  0.03517  0.7843  -0.401
6.436e+09  0.3514  -1.169  0.00784  -0.03969  0.02683  0.01759  0.595  -0.6235
6.438e+09  -0.04626  -1.275  -0.01076  -0.01576  -0.01593  -0.004169  0.3118  -0.7634
6.439e+09  -0.4805  -1.14  0.002895  -0.03878  -0.003027  0.01883  0.07399  -0.8541
6.44e+09  -0.8744  -0.9134  0.02771  -0.01548  -0.01418  0.02611  -0.2139  -0.8457
6.441e+09  -1.163  -0.5618  0.03062  -0.01272  0.02398  -0.01987  -0.5082  -0.6406
6.442e+09  -1.29  -0.1396  0.01199  0.04353  -0.04024  0.05215  -0.6681  -0.5029
6.444e+09  -1.218  0.3461  0.02435  -0.01045  0.008973  -0.05267  -0.8616  -0.2183
6.445e+09  -1.055  0.8087  -0.03231  -0.01892  0.05582  0.004434  -0.8689  0.06065
6.446e+09  -0.7058  1.079  0.01606  0.02104  0.02365  -0.04826  -0.8186  0.3418
6.448e+09  -0.2648  1.286  -0.01223  0.002903  0.06126  -0.009806  -0.5514  0.6017
6.449e+09  0.1619  1.283  -0.03866  0.02136  0.004251  0.0003702  -0.3512  0.7796
6.45e+09  0.602  1.24  -0.007245  -0.001476  -0.02474  -0.01286  -0.07059  0.845
6.451e+09  1.022  0.9148  0.006475  0.00104  0.02121  -0.02867  0.2352  0.7385
6.452e+09  1.249  0.5312  0.02247  -0.022  0.02108  -0.02465  0.4801  0.6742
6.454e+09  1.358  0.04331  0.007943  0.01512  -0.03195  -0.01477  0.6945  0.47
6.455e+09  1.27  -0.4203  0.03635  -0.006014  0.01425  -0.01025  0.7962  0.2508
6.456e+09  1.086  -0.9152  -0.02412  0.01162  -0.003735  0.006628  0.8538  -0.09558
6.458e+09  0.6422  -1.214  -0.0002061  0.001332  0.02222  -0.04696  0.7598  -0.3398
6.459e+09  0.1719  -1.377  -0.0002884  0.02183  -0.03531  -0.05265  0.581  -0.5887
6.46e+09  -0.3449  -1.403  -0.02042  -0.0146  -0.05062  -0.0005047  0.3598  -0.7533
6.461e+09  -0.763  -1.156  -0.009598  0.03395  0.00857  -0.01518  0.05656  -0.8281
6.462e+09  -1.119  -0.827  0.002895  -0.02417  -0.02248  -0.04344  -0.2161  -0.7921
6.464e+09  -1.352  -0.417  0.004835  -0.03582  0.005949  -0.01773  -0.4245  -0.6436
6.465e+09  -1.409  0.114  0.02585  -0.01322  0.04334  -0.04438  -0.6557  -0.456
6.466e+09  -1.324  0.61  0.01663  -0.03739  0.0008209  -0.001218  -0.7974  -0.2253
6.468e+09  -1.056  1.091  0.002698  -0.03164  -0.05164  0.03208  -0.8344  0.07376
6.469e+09  -0.5476  1.4  -0.01992  -0.002985  -0.01736  -0.006812  -0.7499  0.3368
6.47e+09  0.02354  1.485  0.00942  -0.00169  0.04288  0.01664  -0.5346  0.5655
6.471e+09  0.5714  1.473  -0.004876  0.007527  0.009339  -0.04126  -0.3373  0.7285
6.472e+09  0.9696  1.137  0.04393  0.005372  -0.0006625  0.02424  -0.06155  0.7591
6.474e+09  1.308  0.723  -0.01398  0.03876  0.0104  0.01072  0.2329  0.7964
6.475e+09  1.501  0.1899  -0.01215  -0.02582  -0.01267  -0.01248  0.4214  0.6539
6.476e+09  1.559  -0.3768  0.03226  0.01676  -0.000858  -0.007225  0.6128  0.4056
6.478e+09  1.279  -0.9941  0.02023  -0.004741  -0.01063  0.02606  0.781  0.1809
6.479e+09  0.8423  -1.244  0.03446  -0.00809  -0.005252  0.01755  0.8246  -0.1123
6.48e+09  0.3284  -1.569  0.02152  -0.007483  -0.00979  0.06229  0.7311  -0.3807
6.481e+09  -0.2878  -1.574  0.02035  0.002606  0.001246  -0.004765  0.5633  -0.5559
6.482e+09  -0.8237  -1.397  -0.01084  0.01005  -0.01092  0.03007  0.3383  -0.7124
6.484e+09  -1.281  -0.9486  0.004216  0.02353  -0.05113  -0.02327  0.02882  -0.801
6.485e+09  -1.508  -0.5169  0.006285  -0.005146  0.01773  -6.352e-05  -0.209  -0.7293
6.486e+09  -1.594  0.1363  -0.04633  -0.01185  -0.04964  -0.009567  -0.4779  -0.6371
6.488e+09  -1.028  0.09652  -0.009212  -0.04479  0.6974  0.2151  -0.6441  -0.3999
6.489e+09  -1.136  1.141  -0.01926  -0.002906  0.03489  0.04821  -0.7883  -0.2136
6.49e+09  -0.596  1.601  0.0006673  0.039  0.03515  -0.03822  -0.7644  0.09379
6.491e+09  0.0922  1.656  -0.007176  0.02635  0.01594  -0.0001512  -0.6875  0.3559
6.492e+09  0.5721  1.562  0.01016  -0.01251  0.008504  -0.03777  -0.5274  0.5876
6.494e+09  1.236  1.048  0.006495  -0.02374  -0.1179  0.01776  -0.261  0.6867
6.495e+09  1.499  0.7165  -0.04032  0.009255  0.00681  0.003634  -0.01258  0.7712
6.496e+09  1.686  0.1049  -0.008961  -0.008129  -0.0409  -0.004142  0.2074  0.7326
6.498e+09  1.56  -0.5265  0.00524  -0.01234  0.06853  0.01153  0.4534  0.6254
6.499e+09  1.251  -1.038  0.004618  -0.04842  0.04294  0.01925  0.5746  0.4504
6.5e+09  -0.4924  -1.499  -0.008308  -0.02492  -0.02971  -0.02286  0.7687  0.1925
6.501e+09  0.2054  -1.645  0.02519  0.02158  -0.00842  -0.01328  0.7615  -0.1368
6.502e+09  -0.4096  -1.588  0.005352  0.004593  -0.0004357  -0.07371  0.6822  -0.3915
6.504e+09  -0.9509  -1.324  -0.027  0.03043  -0.01983  -0.02523  0.4892  -0.5492
6.505e+09  -1.412  -0.8663  0.002621  -0.0176  -0.02056  0.005656  0.2847  -0.7142
6.506e+09  -1.562  -0.313  -0.06356  0.0398  -0.003793  -0.03444  0.01746  -0.7435
6.508e+09  -1.499  0.3066  0.01447  0.0429  -0.01616  -0.024  -0.2259  -0.7442
6.509e+09  -1.374  0.88  -0.002691  0.02515  -0.01885  0.01098  -0.4978  -0.5598
6.51e+09  -0.9057  1.296  -0.01451  0.01529  0.005752  -0.02495  -0.6651  -0.4054
6.511e+09  -0.3643  1.46  0.02424  0.03054  0.00601  -0.02296  -0.7548  -0.1709
6.512e+09  0.1489  1.492  0.0004087  0.02738  0.02174  0.01431  -0.7582  0.1508
6.514e+09  0.6809  1.388  0.03296  -0.02658  -0.01801  0.02099  -0.6485  0.3744
6.515e+09  1.128  0.9744  -0.02368  0.009705  -0.03504  -0.05035  -0.4888  0.6125
6.516e+09  1.448  0.4512  0.01122  -0.002711  -0.04803  -0.01223  -0.2245  0.7223
6.518e+09  1.467  -0.008159  -0.0291  0.01047  -0.003868  0.0571  0.03117  0.7126
6.519e+09  1.348  -0.5989  0.04046  0.01047  0.02671  0.01923  0.2572  0.6618
6.52e+09  1.086  -0.9958  -0.01026  -0.01584  -0.02973  -0.0146  0.5327  0.5664
6.521e+09  0.5937  -1.32  -0.01764  0.02412  0.01192  -0.0349  0.6421  0.3073
6.522e+09  0.02371  -1.436  -0.01923  0.02185  -0.006402  0.06125  0.7662  0.09646
6.524e+09  -0.5262  -1.325  -0.01271  0.001626  -0.008912  -0.02177  0.7097  -0.165
6.525e+09  -0.9251  -1.069  0.0009491  0.002379  -0.01429  0.04497  0.6412  -0.3864
6.526e+09  -1.2  -0.648  -0.01388  -0.001401  -0.02084  -0.01387  0.4049  -0.5982
6.528e+09  -1.375  -0.2088  0.01044  0.01884  -0.04429  0.06874  0.1685  -0.6854
6.529e+09  -1.316  0.3338  -0.01615  0.02523  0.0149  0.02355  -0.03988  -0.7194
6.53e+09  -1.067  0.7293  -0.00287  0.02032  0.03313  -0.00542  -0.2695  -0.6408
6.531e+09  -0.8011  1.055  0.01628  -0.006501  -0.01852  0.03041  -0.4374  -0.4808
6.532e+09  -0.3081  1.274  0.02385  -0.02179  -0.002824  0.00502  -0.6021  -0.3008
6.534e+09  0.1683  1.291  0.001525  0.02713  0.01145  0.006365  -0.6286  -0.07109
6.535e+09  0.6087  1.079  0.02067  -0.007211  -0.01227  0.02533  -0.6207  0.1298
6.536e+09  1.024  0.8228  -0.02556  0.006579  -0.01651  0.009048  -0.5582  0.2969
6.538e+09  1.124  0.3938  -0.02925  0.006234  0.003085  -0.01381  -0.443  0.4702
6.539e+09  1.222  -0.06655  0.006249  0.03894  0.07181  -0.008624  -0.2634  0.6449
6.54e+09  1.14  -0.4956  -0.0002976  -0.01327  -0.01914  -0.01534  -0.05092  0.6982
6.541e+09  0.8581  -0.8821  0.02932  0.03437  -0.01434  -0.01165  0.1969  0.6617
6.542e+09  0.5227  -1.068  0.01032  0.00919  -0.01743  0.04162  0.4217  0.5599
6.544e+09  0.08944  -1.22  -0.0189  0.03088  -0.02227  -0.03879  0.592  0.4172
6.545e+09  -0.3204  -1.112  -0.02547  0.03374  0.002038  0.05818  0.6696  0.1677
6.546e+09  -0.6783  -0.9505  -0.007278  0.0176  0.01691  -0.01079  0.7018  -0.05054
6.548e+09  -1.013  -0.579  0.005893  0.02137  0.02652  0.002637  0.65  -0.3197
6.549e+09  -1.109  -0.2295  0.002386  -0.02383  0.02321  -0.0557  0.5026  -0.5702
6.55e+09  -1.15  0.1953  -0.02626  -0.01093  0.01121  0.01531  0.3  -0.6558
6.551e+09  -0.9961  0.5078  -0.03466  0.01152  0.02721  -0.002928  0.05579  -0.7478
6.552e+09  -0.6953  0.8868  0.01732  0.01957  -0.01319  -0.02499  -0.23  -0.7104
6.554e+09  -0.3698  1.081  -0.007518  -0.02792  0.03049  0.02222  -0.4536  -0.5746
