# Hz S RI R 50
6.25e+09  0.1578  0.9344  -0.01224  0.001087  0.0349  -0.009251  0.1711  0.4676
6.251e+09  0.4444  0.7859  0.004934  0.019  0.009317  0.02943  0.3607  0.4202
6.252e+09  0.7348  0.6322  -0.03872  -0.00881  0.01834  0.02626  0.5246  0.2366
6.254e+09  0.897  0.3163  -0.008917  0.006002  0.006554  0.008316  0.6128  0.003397
6.255e+09  0.9374  0.04504  0.03542  0.003063  0.01289  0.0164  0.5824  -0.2422
6.256e+09  0.8369  -0.3511  0.007098  -0.0186  -0.009526  0.01689  0.473  -0.4289
6.258e+09  0.6906  -0.5696  0.003696  0.03577  0.00179  -0.04519  0.2681  -0.5949
6.259e+09  0.4162  -0.8181  -0.01354  -0.02065  0.02857  -0.01286  0.0403  -0.6614
6.26e+09  0.1055  -0.952  -0.02241  -0.02171  0.06167  0.03926  -0.2572  -0.672
6.261e+09  -0.1948  -0.9664  -0.0006436  0.03128  -0.06866  0.01445  -0.4434  -0.5449
6.262e+09  -0.4637  -0.7231  0.03856  0.01802  -0.008586  -0.02514  -0.5917  -0.361
6.264e+09  -0.7999  -0.5766  0.01122  0.02281  -0.001008  0.02283  -0.7082  -0.06654
6.265e+09  -0.8804  -0.2901  -0.001096  0.009277  -0.02702  0.04463  -0.6752  0.1348
6.266e+09  -0.9495  0.01228  -0.01642  -9.441e-06  0.004249  0.0003839  -0.6165  0.3769
6.268e+09  -0.828  0.3788  -0.003977  -0.008688  -0.03595  0.02013  -0.4106  0.5664
6.269e+09  -0.7164  0.6161  -0.006912  0.02268  0.0441  0.0003064  -0.1873  0.6873
6.27e+09  -0.4365  0.8014  0.01108  -0.01188  -0.04069  0.01443  0.06703  0.7497
6.271e+09  -0.1536  0.8789  0.02002  0.01079  0.007189  -0.02435  0.3352  0.6631
6.272e+09  0.1629  0.8859  0.0004816  -0.01868  0.02086  -0.007283  0.5186  0.5088
6.274e+09  0.5105  0.7865  0.02016  0.000921  -0.05276  0.01744  0.6887  0.311
6.275e+09  0.8092  0.5389  0.01485  -0.01172  0.003019  0.02821  0.7114  0.0531
6.276e+09  0.8763  0.223  0.0006982  0.01549  0.02965  -0.01795  0.7345  -0.2526
6.278e+09  0.9768  -0.06693  -0.00877  0.006765  0.04111  0.02937  0.5644  -0.4908
6.279e+09  0.8696  -0.3761  -0.003162  0.0247  -0.03165  -0.03316  0.4341  -0.636
6.28e+09  0.6387  -0.6582  0.03366  -0.01826  0.03916  -0.001096  0.1292  -0.7516
6.281e+09  0.4125  -0.8348  -0.002284  -0.001824  -0.02945  -0.02369  -0.1174  -0.7965
6.282e+09  0.1215  -0.9044  0.02726  -0.01644  0.01903  -0.006822  -0.3667  -0.7118
6.284e+09  -0.2474  -0.901  -0.01953  0.001168  -0.008151  -0.003059  -0.6086  -0.5379
6.285e+09  -0.5154  -0.7575  -0.03402  -0.01131  0.02689  0.01798  -0.7088  -0.2741
6.286e+09  -0.724  -0.5324  0.008822  0.02006  -0.02582  -0.01967  -0.8116  -0.05405
6.288e+09  -0.9626  -0.1892  0.02139  0.0192  0.03514  -0.008792  -0.7856  0.2796
6.289e+09  -0.8726  0.1008  0.01579  -0.006677  0.01716  0.07205  -0.611  0.5221
6.29e+09  -0.7895  0.388  -0.0255  -0.02404  -0.004042  0.005368  -0.4013  0.6845
6.291e+09  -0.6434  0.7123  0.003443  -0.012  0.02709  0.02774  -0.1449  0.8139
6.292e+09  -0.3498  0.8379  -0.02685  0.03429  0.006167  0.0483  0.125  0.7947
6.294e+09  0.00346  0.9759  0.01209  -0.01466  -0.01868  -0.0296  0.3909  0.6875
6.295e+09  0.2996  0.9214  -0.0272  -0.03216  -0.02298  0.02093  0.6434  0.5511
6.296e+09  0.6253  0.7124  -0.01602  0.002239  -0.02881  0.008373  0.7848  0.3056
6.298e+09  0.8127  0.4584  -0.002664  0.02494  0.02478  -0.02982  0.8244  0.01506
6.299e+09  0.9349  0.1656  0.0106  -0.0009911  0.03987  -0.01044  0.766  -0.2905
6.3e+09  0.955  -0.156  0.009146  -0.02399  0.007668  -0.004408  0.6894  -0.5611
6.301e+09  0.8515  -0.4755  -0.01046  -0.0336  0.0179  -0.04947  0.4247  -0.7218
6.302e+09  0.5941  -0.7836  -0.006814  0.0002594  0.005679  0.001414  0.1211  -0.8564
6.304e+09  0.3167  -0.8762  0.01755  -0.0006894  -0.004356  -0.009808  -0.1547  -0.8569
6.305e+09  0.02378  -0.9722  0.04618  -0.006308  0.02719  0.03726  -0.456  -0.7507
6.306e+09  -0.3558  -0.9347  -0.01258  -0.03812  -0.02067  0.03465  -0.6466  -0.5467
6.308e+09  -0.6921  -0.7501  -0.01265  0.01748  0.03987  0.04263  -0.822  -0.3319
6.309e+09  -0.8386  -0.4073  -0.004339  0.02246  0.0125  0.03631  -0.8457  -0.01397
6.31e+09  -0.9882  -0.1485  -0.02597  0.009765  0.03329  -0.02425  -0.8421  0.3016
6.311e+09  -0.9447  0.242  -0.0003534  -0.01899  -0.02115  0.03415  -0.6697  0.5449
6.312e+09  -0.8139  0.5695  0.02704  -0.01427  0.03014  0.02481  -0.4381  0.7361
6.314e+09  -0.554  0.821  -0.00229  -0.01278  0.0002376  -0.0007589  -0.1613  0.8747
6.315e+09  -0.3134  0.9077  0.007735  0.01249  0.001594  -0.03647  0.1384  0.885
6.316e+09  0.05057  1.007  -0.002262  0.01202  -0.008453  0.006528  0.4342  0.7914
6.318e+09  0.4112  0.8943  0.02966  -0.01778  -0.0393  0.06027  0.6471  0.5756
6.319e+09  0.7119  0.7378  0.02156  0.005719  0.03833  -0.03214  0.8281  0.3164
6.32e+09  0.9134  0.4717  0.001965  -0.01713  -0.02006  -0.01133  0.9158  -0.0277
6.321e+09  0.9867  0.07726  0.01651  -0.02584  0.02316  -0.03713  0.862  -0.2735
6.322e+09  1.043  -0.339  -0.007642  -0.01449  -0.006333  0.01844  0.6969  -0.5793
6.324e+09  0.8641  -0.5912  0.02131  0.02758  -0.006507  0.01011  0.4647  -0.7636
6.325e+09  0.5111  -0.868  -0.01528  0.008168  -0.02363  0.006206  0.1704  -0.8659
6.326e+09  0.1725  -1.006  -0.002684  -0.01164  0.01556  -0.008684  -0.1448  -0.906
6.328e+09  -0.1066  -1.058  -0.005918  0.02344  -0.01537  0.004371  -0.4451  -0.7907
6.329e+09  -0.4558  -0.9417  0.01752  -0.003094  0.008068  0.04724  -0.6828  -0.6115
6.33e+09  -0.755  -0.7313  -0.01822  0.01708  0.02718  0.004053  -0.8877  -0.3151
6.331e+09  -0.9735  -0.3859  0.009697  0.01251  0.03252  0.01446  -0.9207  -0.02063
6.332e+09  -1.101  -0.05788  -0.007615  0.02528  -0.0305  -0.006155  -0.8713  0.3008
6.334e+09  -1.058  0.3292  -0.00548  0.005699  0.0416  0.02899  -0.6906  0.5605
6.335e+09  -0.8101  0.6963  -0.006236  -0.0134  0.00392  -0.02841  -0.4507  0.7784
6.336e+09  -0.5655  0.9275  0.01283  0.008379  -0.03236  -0.002368  -0.2123  0.8942
6.338e+09  -0.1705  1.127  -0.002942  -0.007145  0.007172  0.0104  0.1256  0.9371
6.339e+09  0.181  1.085  -0.0186  0.01781  -0.00261  0.01754  0.4671  0.7959
6.34e+09  0.5434  0.9906  0.001226  0.02981  0.01772  0.03585  0.6636  0.6239
6.341e+09  0.8745  0.7233  0.01568  0.00571  -0.03714  0.001587  0.8315  0.3202
6.342e+09  1.099  0.2952  -0.03171  0.03063  0.02469  0.0649  0.9399  0.07115
6.344e+09  1.142  -0.0368  -0.001262  0.02105  -0.009106  -0.009824  0.9013  -0.2815
6.345e+09  1.054  -0.4328  -0.0112  0.01924  0.04419  -0.001953  0.7127  -0.5894
6.346e+09  0.8711  -0.7551  -0.008989  -0.01613  -0.01928  0.004909  0.4858  -0.7373
6.348e+09  0.4945  -1.011  0.0438  0.007205  -0.008242  -0.01283  0.2069  -0.8943
6.349e+09  0.1515  -1.135  -0.01524  0.001298  -0.01499  0.02469  -0.1099  -0.9548
6.35e+09  -0.2683  -1.119  0.0159  -0.005856  -0.01054  0.0427  -0.4326  -0.8777
6.351e+09  -0.6487  -1.011  -0.006654  0.02026  -0.006079  -0.04484  -0.6661  -0.6528
6.352e+09  -0.9394  -0.6619  -0.02654  -0.02024  -0.01355  0.01086  -0.8901  -0.3502
6.354e+09  -1.147  -0.289  -0.005078  0.03451  -0.02454  -0.0273  -0.9686  -0.04048
6.355e+09  -1.183  0.1416  0.03215  0.0008741  -0.008917  0.02194  -0.9274  0.2495
6.356e+09  -1.067  0.5115  0.03498  0.04067  0.008002  0.04395  -0.7825  0.5584
6.358e+09  -0.8349  0.8876  0.0479  0.03708  -0.01827  -0.02828  -0.5637  0.7632
6.359e+09  -0.4265  1.121  -0.007096  0.01769  0.02794  0.06592  -0.2452  0.9025
6.36e+09  -0.04548  1.25  0.01247  0.01725  -0.05906  -0.02236  0.103  0.9072
6.361e+09  0.4133  1.183  -0.03618  0.02154  0.0244  0.01864  0.4172  0.8667
6.362e+09  0.7385  0.9878  0.03349  -0.03167  -0.02267  0.01159  0.6459  0.628
6.364e+09  1.087  0.5902  -0.03182  -0.0416  -0.05282  -0.02567  0.8746  0.3935
6.365e+09  1.245  0.2131  -0.003363  0.0005269  -0.05685  -0.02732  0.9369  0.1021
6.366e+09  1.197  -0.2467  0.04636  0.002444  -0.03693  0.04698  0.9404  -0.2736
6.368e+09  1.076  -0.6664  0.01058  -0.01877  0.02257  -0.08361  0.8023  -0.5452
6.369e+09  0.7651  -1.011  0.03207  0.008005  0.02178  0.04033  0.5107  -0.8101
6.37e+09  0.3797  -1.193  0.01176  -0.003912  -0.05348  -0.01009  0.2618  -0.9295
6.371e+09  -0.03134  -1.283  -0.01586  -0.02855  0.0006208  -0.05061  -0.08873  -0.9462
6.372e+09  -0.4758  -1.174  -0.02717  -0.0132  0.00974  -0.01883  -0.3983  -0.8252
6.374e+09  -0.8987  -0.9733  -0.009679  0.01076  0.04902  0.02598  -0.6939  -0.7087
6.375e+09  -1.159  -0.608  -0.03076  0.04008  -0.01063  -0.02978  -0.8648  -0.4116
6.376e+09  -1.332  -0.1699  0.006559  0.01413  0.0184  -0.01233  -0.9886  -0.1111
6.378e+09  -1.29  0.3416  0.02349  0.01888  0.002696  -0.02286  -0.9223  0.2189
6.379e+09  -1.1  0.7636  0.01985  0.02037  0.01301  0.02137  -0.7707  0.577
6.38e+09  -0.7511  1.086  0.001678  0.02058  -0.01504  -0.01524  -0.5625  0.7741
6.381e+09  -0.3479  1.3  0.018  0.01953  0.04557  0.01715  -0.2487  0.8961
6.382e+09  0.1817  1.354  0.03099  -0.008629  -0.0185  -0.01329  0.07181  0.9759
6.384e+09  0.6167  1.216  0.01864  0.04339  -0.03855  0.04944  0.3922  0.8941
6.385e+09  1.03  0.9574  -0.02091  0.0122  -0.01547  0.003473  0.635  0.6997
6.386e+09  1.311  0.508  -0.006858  0.0308  -0.01031  0.031  0.8488  0.3914
6.388e+09  1.446  0.0219  -0.01121  -0.00504  0.009234  -0.03734  0.9316  0.0742
6.389e+09  1.331  -0.4503  -0.008923  -0.01385  0.03168  0.028  0.9196  -0.2036
6.39e+09  1.057  -0.8789  0.01516  -0.04676  -0.07158  -0.02727  0.7882  -0.4826
6.391e+09  0.6591  -1.217  -0.0006694  -0.01573  -0.03728  -0.01973  0.5568  -0.7265
6.392e+09  0.2035  -1.375  0.00797  -0.00693  0.05503  -0.03071  0.2955  -0.8996
6.394e+09  -0.27  -1.441  -0.02567  0.03061  -0.03268  0.01488  -0.04822  -0.9293
6.395e+09  -0.8349  -1.253  -0.006247  -0.02235  0.05923  0.007851  -0.3682  -0.842
6.396e+09  -1.153  -0.8962  0.01373  -0.0007707  -0.03555  0.001627  -0.624  -0.6808
6.398e+09  -1.407  -0.4407  0.04201  0.007725  0.02413  0.01786  -0.829  -0.4374
6.399e+09  -1.467  0.09058  -0.01265  -0.03298  0.01269  0.03829  -0.9064  -0.1361
6.4e+09  -1.314  0.5818  -0.01382  -0.02307  -0.03768  -0.04245  -0.8861  0.1894
6.401e+09  -1.066  1.036  0.01254  -0.004805  0.002378  0.01309  -0.7988  0.4673
6.402e+09  -0.6557  1.327  0.01396  -0.02594  0.00312  -0.01213  -0.5744  0.6629
6.404e+09  -0.1076  1.474  -0.02864  -0.01904  -0.04206  -0.003192  -0.2773  0.8559
6.405e+09  0.3887  1.429  0.02019  0.001831  0.009821  0.01914  0.05107  0.9194
6.406e+09  0.9058  1.212  -0.01985  0.008513  0.01913  0.01642  0.3146  0.8512
6.408e+09  1.223  0.8009  0.02222  0.003206  -0.0004502  -0.01948  0.548  0.7119
6.409e+09  1.481  0.3151  -0.02719  0.01804  -0.02267  -0.02988  0.8002  0.4666
6.41e+09  1.454  -0.24  -0.02175  0.005961  0.05513  0.02586  0.8514  0.2107
6.411e+09  1.304  -0.732  0.02676  0.04379  0.004385  0.02101  0.8995  -0.137
6.412e+09  0.989  -1.189  -0.03018  -0.006685  -0.02703  0.0007704  0.7813  -0.4357
6.414e+09  0.5638  -1.464  0.00167  0.01482  -0.01842  -0.006334  0.6035  -0.6651
6.415e+09  0.008795  -1.557  0.00148  0.01567  0.004164  0.03331  0.3191  -0.8232
6.416e+09  -0.5098  -1.449  0.01704  -0.0135  -0.02716  -0.0113  0.0002718  -0.9467
6.418e+09  -1.024  -1.102  -0.03782  -0.001318  -0.02818  -0.002256  -0.279  -0.8247
6.419e+09  -1.361  -0.792  -0.01321  0.06366  -0.0008469  0.02289  -0.5393  -0.7069
6.42e+09  -1.565  -0.1738  0.02408  0.01833  -0.02347  -0.02224  -0.733  -0.4708
6.421e+09  -1.535  0.3219  -0.01676  -0.01578  0.03357  -0.04533  -0.8825  -0.1665
6.422e+09  -1.373  0.871  -0.007601  -0.03132  -0.04037  0.02632  -0.8431  0.1361
6.424e+09  -0.9873  1.287  4.818e-05  -0.01615  -0.02255  -0.03796  -0.7849  0.4246
6.425e+09  -0.4877  1.512  0.007472  -0.008878  -0.04862  -0.03794  -0.5986  0.6641
6.426e+09  0.1316  1.636  -0.007925  0.004181  0.006242  0.03063  -0.3461  0.8411
6.428e+09  0.6676  1.494  -0.06284  0.01037  -0.01081  0.004795  -0.05225  0.8805
6.429e+09  1.173  1.102  -0.02107  0.03417  0.02418  -0.02458  0.2646  0.8451
6.43e+09  1.518  0.6856  -0.01404  0.0006253  0.03688  -0.03967  0.5899  0.7147
6.431e+09  1.661  0.08682  0.04126  -0.006264  0.05014  0.07118  0.7291  0.5348
6.432e+09  1.592  -0.5041  -0.004174  0.04064  -0.04868  0.05957  0.8467  0.1679
6.434e+09  1.332  -0.9806  -0.008892  -0.01162  0.01873  -0.01895  0.8424  -0.11
6.435e+09  0.9566  -1.489  0.0102  -0.003191  -0.007829  -0.02404  0.7801  -0.3571
6.436e+09  0.3162  -1.652  -0.01098  0.007496  -0.006959  0.05342  0.5882  -0.6432
6.438e+09  -0.2947  -1.748  0.02268  0.01027  -0.01145  0.009758  0.3564  -0.7995
6.439e+09  -0.8574  -1.592  0.02817  -0.01212  0.02118  -0.02563  0.08001  -0.8885
6.44e+09  -1.428  -1.08  -0.02417  -0.04855  -0.03239  0.02432  -0.2134  -0.8249
6.441e+09  -1.673  -0.5798  -0.008306  0.004401  -0.02935  0.009713  -0.4841  -0.697
6.442e+09  -1.821  0.02483  0.05542  0.02431  -0.02889  -0.01959  -0.7437  -0.5024
6.444e+09  -1.716  0.6724  0.02174  -0.02944  -0.03328  -0.0208  -0.8274  -0.263
6.445e+09  -1.393  1.274  -0.02305  0.002134  -0.009781  0.06947  -0.8421  0.07355
6.446e+09  -0.8002  1.637  0.01145  -0.005369  0.007538  -0.02621  -0.7317  0.3707
6.448e+09  -0.1952  1.839  -0.02746  -0.02242  -0.008792  -0.01728  -0.5713  0.5994
6.449e+09  0.4214  1.895  -0.005878  0.0002892  0.03865  0.04535  -0.3556  0.752
6.45e+09  1.219  1.52  -0.004455  -0.01837  0.02523  0.03066  -0.0511  0.8288
6.451e+09  1.64  1.067  -0.01016  0.03904  0.03476  -0.02822  0.225  0.8071
6.452e+09  1.955  0.4733  -0.01719  -0.01532  -0.04316  0.0002311  0.474  0.6513
6.454e+09  1.994  -0.2369  -0.005714  0.04673  -0.001962  -0.06344  0.7135  0.4704
6.455e+09  1.87  -0.9902  0.001558  0.008221  -0.01122  0.01169  0.8132  0.1997
6.456e+09  1.348  -1.541  0.04403  0.007602  -0.004845  0.001761  0.8494  -0.08322
6.458e+09  0.7953  -1.989  0.003469  -0.01024  0.0008206  -0.008421  0.7149  -0.3577
6.459e+09  -0.006122  -2.116  -0.001807  -0.01627  0.02229  0.01124  0.5897  -0.5543
6.46e+09  -0.7651  -2.022  -0.03729  0.01035  0.01148  -0.03634  0.3552  -0.7604
6.461e+09  -1.487  -1.623  0.03946  0.02582  -0.0338  -0.02253  0.07089  -0.8152
6.462e+09  -2.047  -1.057  0.01816  0.004948  -0.01645  0.01962  -0.1971  -0.7511
6.464e+09  -2.334  -0.2598  -0.003893  0.009195  -0.0105  0.01871  -0.4174  -0.6792
6.465e+09  -2.305  0.5613  0.002048  0.05728  -0.04213  0.03142  -0.6514  -0.4486
6.466e+09  -1.931  1.381  -0.02776  -0.02798  -0.01872  -0.03139  -0.7751  -0.2115
6.468e+09  -1.364  2.02  0.02277  0.02525  0.01331  0.02893  -0.7976  0.05853
6.469e+09  -0.535  2.453  -0.03472  0.01825  -0.04611  -0.03834  -0.7392  0.3439
6.47e+09  0.3225  2.486  -0.0455  0.01119  0.007156  -0.04109  -0.5678  0.562
6.471e+09  1.326  2.225  0.002305  -0.02629  0.01132  0.03919  -0.3246  0.7166
6.472e+09  2.142  1.752  0.02383  0.008251  -0.05341  0.06036  -0.03536  0.7662
6.474e+09  2.616  0.8384  0.006963  0.02211  0.01243  0.009106  0.2216  0.7431
6.475e+09  2.773  -0.1751  0.05643  -0.01219  -0.07911  -0.01012  0.4309  0.6118
6.476e+09  2.553  -1.272  0.00798  0.001191  -0.007806  -0.005262  0.6696  0.4573
6.478e+09  2.004  -2.132  0.03568  0.05858  0.02844  -0.04504  0.8171  0.1928
6.479e+09  1.18  -2.822  0.05701  0.04556  0.04045  -0.05985  0.7717  -0.08461
6.48e+09  -0.097  -3.116  0.02516  -0.001337  -0.07184  -0.005956  0.6888  -0.3668
6.481e+09  -1.196  -2.98  -0.01621  0.01662  -0.02696  0.04574  0.5277  -0.5419
6.482e+09  -2.291  -2.261  -0.0004261  -0.007916  -0.03969  -0.03119  0.315  -0.7008
6.484e+09  -3.079  -1.362  0.03132  -0.0232  0.02046  0.004623  0.04921  -0.8066
6.485e+09  -3.51  -0.03933  -0.02034  -0.001733  0.05605  0.01227  -0.1935  -0.6967
6.486e+09  -3.336  1.326  -0.03877  0.004888  -0.02136  -0.04049  -0.4552  -0.6259
6.488e+09  -2.243  1.859  -0.04134  0.01402  0.1189  -0.7295  -0.6386  -0.4733
6.489e+09  -1.432  3.408  0.02797  0.01031  -0.05844  0.06384  -0.7608  -0.1954
6.49e+09  0.06236  3.846  -0.03629  -0.04378  0.0253  -0.003839  -0.7635  0.09982
6.491e+09  1.434  3.586  -0.01132  -0.008774  -0.001608  -0.03114  -0.6556  0.3334
6.492e+09  2.884  2.812  -0.02121  0.00206  0.01371  -0.00739  -0.5324  0.5531
6.494e+09  3.833  1.442  -0.01818  -0.00456  0.08292  0.06772  -0.2749  0.6657
6.495e+09  4.111  -0.1785  -0.01171  0.00166  0.0213  -0.01141  -0.02988  0.7854
6.496e+09  3.725  -1.842  0.008944  0.03363  0.0325  -0.03038  0.2121  0.7255
6.498e+09  2.689  -3.169  0.01939  -0.02204  0.02077  0.04743  0.4728  0.629
6.499e+09  1.162  -4.1  0.004059  -0.01325  -0.03065  0.06492  0.6407  0.3969
6.5e+09  3.34  -4.064  0.004838  0.01292  0.0555  0.1168  0.7267  0.1674
6.501e+09  -2.032  -3.532  -0.02168  -0.03464  0.03557  0.06291  0.7922  -0.101
6.502e+09  -3.373  -2.382  -0.0005763  0.02588  0.09789  0.04172  0.6732  -0.3513
6.504e+09  -3.961  -0.9117  0.02362  -0.04781  0.04815  -0.03902  0.4971  -0.6018
6.505e+09  -3.973  0.8479  0.02489  -0.01953  -0.03894  -0.02913  0.275  -0.7354
6.506e+09  -3.289  2.304  0.003807  -0.01669  -0.03599  0.003556  -0.02881  -0.7605
6.508e+09  -2.028  3.284  -0.0133  -0.007276  -0.0003752  -0.0424  -0.2369  -0.7475
6.509e+09  -0.4373  3.756  0.03499  -0.01333  -0.003157  0.02453  -0.4605  -0.5876
6.51e+09  0.9055  3.552  -0.004469  -0.02332  0.009928  0.04189  -0.6293  -0.3824
6.511e+09  2.201  2.809  -0.01388  0.0177  0.06457  -0.04493  -0.7394  -0.1355
6.512e+09  2.991  1.721  -0.05182  -0.02297  -0.009842  0.01147  -0.6998  0.1306
6.514e+09  3.245  0.4187  -0.03099  0.01571  0.02423  -0.07061  -0.6502  0.4009
6.515e+09  3.161  -0.8577  0.04383  0.003201  -0.06068  -0.02755  -0.477  0.6048
6.516e+09  2.538  -1.994  0.02983  0.02593  -0.01321  0.05708  -0.2463  0.6998
6.518e+09  1.541  -2.615  -0.00382  0.02739  -0.00714  -0.004622  -0.00157  0.7433
6.519e+09  0.5128  -2.89  0.002929  -0.01296  -0.0694  0.03388  0.2842  0.7003
6.52e+09  -0.6298  -2.849  0.007023  0.03077  -0.02166  0.01557  0.5083  0.5219
6.521e+09  -1.664  -2.312  0.006307  -0.05333  -0.02151  -0.00222  0.6068  0.3541
6.522e+09  -2.247  -1.526  0.004607  -0.01826  0.025  -0.05289  0.7195  0.04608
6.524e+09  -2.616  -0.5654  0.01985  -0.01979  0.07831  0.01396  0.7353  -0.1541
6.525e+09  -2.534  0.3941  -0.01626  0.04603  -0.02169  0.01267  0.6024  -0.4408
6.526e+09  -2.172  1.31  -0.02015  0.02997  0.03031  0.002315  0.4119  -0.5993
6.528e+09  -1.486  1.948  0.00245  -0.04899  -0.02601  -0.08681  0.2052  -0.7119
6.529e+09  -0.6594  2.281  -0.0002639  0.02324  -0.005126  0.005381  -0.04305  -0.7062
6.53e+09  0.2329  2.39  -0.006459  -0.03762  0.02051  -0.04873  -0.2976  -0.6196
6.531e+09  0.9791  2.059  -0.01693  0.01441  0.02402  0.005912  -0.5086  -0.453
6.532e+09  1.669  1.539  0.01846  -0.008166  0.005399  -0.0133  -0.5748  -0.2855
6.534e+09  1.979  0.8006  0.01391  -0.001352  -0.005159  0.003919  -0.6684  -0.08962
6.535e+09  2.112  0.03108  0.008717  -0.02722  -0.003504  -0.0363  -0.6504  0.107
6.536e+09  1.945  -0.757  0.004349  -0.02614  -0.02586  0.02113  -0.5709  0.3488
6.538e+09  1.503  -1.317  -0.0356  0.006632  -0.01931  -0.02028  -0.4491  0.5003
6.539e+09  0.9856  -1.742  0.001812  -0.003337  0.003177  -0.0206  -0.2631  0.6281
6.54e+09  0.1748  -1.946  0.009363  0.005266  -0.04095  -0.07033  -0.09621  0.6437
6.541e+09  -0.4113  -1.885  0.03295  0.01495  0.03261  0.09886  0.1695  0.6801
6.542e+09  -1.068  -1.531  0.007542  -0.001239  0.03065  -0.01256  0.4396  0.5935
6.544e+09  -1.559  -1.091  0.008485  -0.006219  -0.001737  -0.01243  0.55  0.3963
6.545e+09  -1.802  -0.432  -0.003206  -0.01309  -0.04024  -0.06722  0.6938  0.1869
6.546e+09  -1.759  0.2565  0.03904  -0.02415  0.02282  0.04569  0.7312  -0.09436
6.548e+09  -1.555  0.8181  -0.04671  -0.001594  0.03036  -0.004544  0.6478  -0.3213
6.549e+09  -1.182  1.299  -0.01119  0.003364  -0.03768  -0.002164  0.5106  -0.5571
6.55e+09  -0.5713  1.6  -0.008064  -0.008442  0.003566  -0.01539  0.2852  -0.6748
6.551e+09  0.08257  1.674  0.002983  -0.004336  0.02452  0.007825  0.03692  -0.7293
6.552e+09  0.6535  1.497  -0.03919  -0.006803  -0.02985  0.01187  -0.2196  -0.6911
6.554e+09  1.098  1.243  -0.00162  -0.02778  -0.09293  -0.03056  -0.4532  -0.5701
