# Hz S RI R 50
6.25e+09  0.4969  0.8335  -0.02989  0.02313  0.008442  0.01278  0.1447  0.4991
6.251e+09  0.724  0.6307  -0.007687  0.01322  0.03702  0.01853  0.3926  0.3963
6.252e+09  0.9006  0.2758  0.03444  -0.01333  -0.02168  -0.01825  0.5265  0.2147
6.254e+09  0.8768  -0.0641  0.02589  0.01382  -0.01923  -0.03604  0.6401  0.02824
6.255e+09  0.9063  -0.3553  0.01011  -0.0282  0.02514  -0.009055  0.5785  -0.1928
6.256e+09  0.6993  -0.6132  0.01107  -0.008308  -0.03756  0.0004108  0.4391  -0.4313
6.258e+09  0.4986  -0.8535  0.0115  -0.003465  -0.005368  -0.01043  0.2819  -0.6193
6.259e+09  0.09774  -0.9371  0.01352  -0.01225  -0.03972  -0.02641  0.02201  -0.6329
6.26e+09  -0.1523  -0.9171  -0.002275  0.03029  0.01726  -0.03964  -0.2145  -0.6576
6.261e+09  -0.4924  -0.7551  0.01783  0.02307  0.01006  -0.003972  -0.4718  -0.5321
6.262e+09  -0.7521  -0.5516  0.01299  0.03718  0.02339  -0.0308  -0.6171  -0.3739
6.264e+09  -0.8796  -0.2625  -0.002321  -0.003137  0.03022  0.02798  -0.7313  -0.1065
6.265e+09  -0.9987  0.07076  0.02674  -0.04753  0.04246  0.0489  -0.6836  0.1708
6.266e+09  -0.851  0.4218  0.003004  0.001116  0.01627  -0.03944  -0.6285  0.4268
6.268e+09  -0.6527  0.6411  -0.007704  0.01358  0.003556  -0.0725  -0.4097  0.5846
6.269e+09  -0.4464  0.8525  0.01981  -0.002232  0.0006014  -0.02453  -0.2159  0.6902
6.27e+09  -0.05948  0.9153  -0.01244  -0.0248  -0.06417  -0.09484  0.03069  0.7485
6.271e+09  0.256  0.912  -0.001111  -0.01075  0.0123  0.03433  0.3206  0.6873
6.272e+09  0.6051  0.7951  -0.0003111  0.00523  0.02151  0.03731  0.5487  0.5525
6.274e+09  0.783  0.4753  -0.009416  -0.005114  -0.008378  -0.0139  0.677  0.322
6.275e+09  0.863  0.225  -0.01811  0.01032  0.03626  -0.003588  0.7484  0.0405
6.276e+09  0.9819  -0.1112  -0.04815  0.014  -0.04519  -0.004088  0.7196  -0.2308
6.278e+09  0.8126  -0.4306  -0.00885  -0.005028  0.00501  0.01154  0.5828  -0.4778
6.279e+09  0.6236  -0.7009  0.04009  0.02199  -0.01797  0.02893  0.465  -0.64
6.28e+09  0.3696  -0.8742  0.03962  -0.003178  0.0267  0.01343  0.1782  -0.7561
6.281e+09  0.006497  -1.014  0.007535  -0.01889  0.03064  0.01781  -0.09321  -0.7748
6.282e+09  -0.3702  -0.8735  -0.01919  -0.01088  -0.05126  0.0116  -0.3694  -0.7001
6.284e+09  -0.5938  -0.722  0.01451  0.005005  -0.004028  0.05307  -0.5517  -0.4673
6.285e+09  -0.8022  -0.4559  0.01946  0.01422  -0.02861  -0.004199  -0.7277  -0.2613
6.286e+09  -0.946  -0.167  0.01717  -0.001748  -0.02284  0.003133  -0.752  -0.02467
6.288e+09  -0.891  0.1603  0.008369  -0.01861  -0.01998  -0.001539  -0.7926  0.2743
6.289e+09  -0.7915  0.5033  -0.008023  0.009758  -0.009137  -0.01476  -0.6233  0.5158
6.29e+09  -0.6086  0.8225  0.01089  -0.0111  -0.002952  0.04586  -0.4091  0.6663
6.291e+09  -0.3267  0.8818  0.0003656  0.0003357  0.01461  -0.02774  -0.1457  0.8097
6.292e+09  0.05333  0.9575  -0.0118  0.01112  -0.003216  -0.0003517  0.1585  0.8259
6.294e+09  0.3908  0.8611  -0.02163  -0.01938  -0.01255  -0.006257  0.3994  0.7217
6.295e+09  0.6564  0.7237  0.02528  0.01558  0.03785  0.03674  0.5852  0.5139
6.296e+09  0.856  0.4077  -0.01214  0.02282  0.01249  0.03661  0.7758  0.2911
6.298e+09  0.9546  0.1451  0.005999  0.01743  -0.0112  0.002759  0.7968  0.01665
6.299e+09  0.925  -0.2972  -0.003417  0.01694  0.008413  -0.04155  0.7978  -0.3264
6.3e+09  0.8083  -0.5634  0.01006  0.0135  0.0266  -0.06075  0.645  -0.5271
6.301e+09  0.5579  -0.8458  0.004828  -0.01297  0.005613  0.001324  0.422  -0.7429
6.302e+09  0.2268  -0.949  0.005367  0.02876  -0.03814  0.0337  0.1598  -0.8357
6.304e+09  -0.09736  -0.9469  0.02496  0.005584  -0.04398  -0.007409  -0.1574  -0.8301
6.305e+09  -0.4611  -0.8659  0.0343  -0.007286  -0.003425  0.002521  -0.4209  -0.7539
6.306e+09  -0.6816  -0.6759  0.007484  0.02168  -0.004576  -0.04068  -0.6321  -0.5425
6.308e+09  -0.9167  -0.3675  -0.0105  -0.0115  0.006533  -0.05939  -0.7986  -0.2967
6.309e+09  -0.9903  -0.06969  -0.01409  -0.006348  0.01413  0.02077  -0.8481  -0.04145
6.31e+09  -0.9462  0.3323  0.01158  -0.01878  0.0166  0.01483  -0.8335  0.2975
6.311e+09  -0.7564  0.625  -0.01141  -0.004961  -0.01007  -0.009261  -0.6915  0.5553
6.312e+09  -0.4869  0.8603  -0.02491  -0.001416  -0.04597  0.01442  -0.4357  0.7268
6.314e+09  -0.1492  0.9568  -0.00442  0.009836  0.03109  0.06131  -0.1722  0.8379
6.315e+09  0.132  0.9842  -0.001904  0.01812  -0.01257  -0.02874  0.1044  0.8764
6.316e+09  0.5045  0.8471  -0.02244  0.0002417  -0.03264  0.02834  0.396  0.7827
6.318e+09  0.7524  0.6251  -0.01342  -0.02015  -0.0227  -0.04029  0.6718  0.5458
6.319e+09  0.9351  0.3042  0.01319  -0.0442  0.0237  -0.002421  0.8282  0.3211
6.32e+09  1.052  -0.01507  -0.02261  -0.02668  -0.005224  0.01379  0.9351  0.01944
6.321e+09  0.9493  -0.3721  -0.003653  -0.0655  -0.00961  -0.02095  0.858  -0.2964
6.322e+09  0.7901  -0.7314  0.008368  -0.01151  -0.01504  -0.0134  0.6622  -0.5864
6.324e+09  0.488  -0.9431  0.03007  0.03945  0.003666  -0.002161  0.4518  -0.8172
6.325e+09  0.1113  -1.066  -0.01641  -0.01268  -0.03635  -0.005626  0.1591  -0.8649
6.326e+09  -0.2336  -1.037  -0.00726  0.0182  -0.002304  0.02153  -0.1355  -0.9004
6.328e+09  -0.517  -0.8468  -0.02168  0.004796  -0.01024  0.04208  -0.4331  -0.8222
6.329e+09  -0.8282  -0.6318  -7.078e-05  0.03408  -0.02714  0.01514  -0.7008  -0.6222
6.33e+09  -0.9661  -0.2928  -0.006671  0.001892  0.03163  -0.01743  -0.837  -0.3393
6.331e+09  -1.058  0.09881  -0.03638  0.01137  -0.01567  0.03979  -0.8918  -0.009071
6.332e+09  -0.9287  0.4814  -0.01262  -0.0159  0.03236  -0.02393  -0.8607  0.2857
6.334e+09  -0.7403  0.7892  -0.03747  -0.003223  -0.008609  -0.0355  -0.6991  0.5387
6.335e+09  -0.4277  0.9863  0.002138  0.01901  -0.04375  0.01232  -0.4545  0.7787
6.336e+09  -0.05423  1.06  -0.01167  0.02339  0.03317  -0.02162  -0.2285  0.9147
6.338e+09  0.3509  1.065  0.02832  0.008583  0.02426  0.02421  0.1336  0.9039
6.339e+09  0.6982  0.8189  -0.01536  -0.009005  -0.01286  0.06188  0.4269  0.8207
6.34e+09  0.9204  0.6164  -0.01792  0.01557  -0.02764  0.01932  0.7155  0.5894
6.341e+09  1.141  0.2507  0.00401  -0.01513  0.05171  0.0003735  0.8786  0.341
6.342e+09  1.078  -0.1731  0.0224  0.006545  0.02834  -0.0009854  0.9265  0.02438
6.344e+09  1.007  -0.4875  -0.02184  0.004744  -0.01729  -0.02329  0.8689  -0.2925
6.345e+09  0.7231  -0.8252  0.004949  -0.01152  -0.02199  0.01935  0.7676  -0.5507
6.346e+09  0.3454  -1.072  0.01593  0.002275  -0.02756  -6.199e-05  0.4806  -0.7699
6.348e+09  0.01928  -1.112  0.0144  0.0008133  0.04327  -0.008482  0.2321  -0.911
6.349e+09  -0.3918  -1.099  0.04952  0.01945  0.0287  0.02331  -0.1007  -0.9478
6.35e+09  -0.7586  -0.8538  0.009789  -0.007373  -0.01547  -0.01195  -0.3976  -0.8437
6.351e+09  -0.9591  -0.5292  -0.0002498  -0.0006784  0.02983  -0.002739  -0.6587  -0.6208
6.352e+09  -1.095  -0.1413  0.0193  0.006952  0.01411  -0.002514  -0.8814  -0.3788
6.354e+09  -1.116  0.2048  -0.03079  0.01365  -0.0308  -0.0462  -0.9164  -0.06737
6.355e+09  -0.9671  0.5792  0.03868  -0.004086  -0.01888  -0.002105  -0.8604  0.2867
6.356e+09  -0.71  0.9481  0.02669  -0.01527  -0.008728  -0.005515  -0.7728  0.5696
6.358e+09  -0.3216  1.116  0.03751  -0.003121  0.00515  0.04451  -0.5178  0.7567
6.359e+09  0.05839  1.129  0.009906  0.01141  -0.01532  -0.03253  -0.1932  0.9182
6.36e+09  0.501  1.053  -0.009108  -0.01477  -0.03949  0.03763  0.1005  0.947
6.361e+09  0.7303  0.8262  0.006373  0.044  0.03928  -0.004623  0.4359  0.8602
6.362e+09  1.077  0.5257  -0.006076  0.01104  -0.006644  -0.04544  0.6742  0.6655
6.364e+09  1.166  0.1403  0.00196  -0.008822  0.01364  -0.02007  0.8516  0.3583
6.365e+09  1.165  -0.2741  0.01568  -0.01535  -0.02995  0.06382  0.969  0.1186
6.366e+09  1.002  -0.6884  -0.00978  0.02622  -0.02041  0.005669  0.9019  -0.2629
6.368e+09  0.6866  -0.9605  0.01029  0.01665  -0.01271  0.008141  0.7704  -0.5356
6.369e+09  0.3295  -1.189  -0.004626  -0.01962  -0.02903  -0.004954  0.5224  -0.7784
6.37e+09  -0.154  -1.231  -0.01014  -0.0007465  0.02349  -0.003915  0.2543  -0.9097
6.371e+09  -0.553  -1.15  -0.03717  0.01488  0.008384  -0.03538  -0.09185  -0.9215
6.372e+09  -0.9345  -0.8985  0.01972  -0.00314  -0.009561  -0.009838  -0.4071  -0.881
6.374e+09  -1.167  -0.5105  0.04283  0.007327  -0.01126  -0.02432  -0.6547  -0.7032
6.375e+09  -1.283  -0.05748  0.01164  -0.03429  0.03447  0.01679  -0.8413  -0.4121
6.376e+09  -1.221  0.3204  -0.02441  -0.01665  0.008971  0.02681  -0.9288  -0.1181
6.378e+09  -1.028  0.7839  -0.01672  0.02154  0.006971  0.009781  -0.9269  0.2119
6.379e+09  -0.6986  1.035  -0.02076  -0.01531  -0.02954  0.00104  -0.8004  0.5153
6.38e+09  -0.2539  1.274  -0.003892  -0.0149  -0.03856  -0.029  -0.5643  0.7204
6.381e+09  0.198  1.259  0.04998  0.04631  -0.06228  0.002069  -0.2544  0.9073
6.382e+09  0.6533  1.177  0.01441  0.04967  0.01213  0.001863  0.05115  0.9426
6.384e+09  1.001  0.8759  0.02226  -0.03821  -0.03528  0.001962  0.3919  0.8905
6.385e+09  1.266  0.5181  -0.003819  -0.006703  0.03074  -0.01454  0.6159  0.6728
6.386e+09  1.352  0.006855  0.01389  -0.003272  0.004247  0.03438  0.8498  0.4637
6.388e+09  1.33  -0.5087  0.01748  -0.0008536  0.03753  0.002982  0.8927  0.1202
6.389e+09  1.087  -0.9409  -0.03951  0.01381  -0.004834  0.02493  0.9663  -0.1991
6.39e+09  0.7044  -1.202  -0.01925  -0.008876  0.004886  -0.05306  0.7884  -0.514
6.391e+09  0.2715  -1.388  -0.01218  -0.04375  0.02433  0.02121  0.5515  -0.7072
6.392e+09  -0.2046  -1.441  0.001265  0.02092  -0.01256  0.03851  0.3108  -0.8985
6.394e+09  -0.7267  -1.261  -0.0112  0.03898  0.009951  -0.01764  -0.01066  -0.9373
6.395e+09  -1.172  -0.9744  -0.007904  -0.005625  0.001384  -0.04728  -0.3287  -0.863
6.396e+09  -1.37  -0.4691  -0.01225  0.01912  0.01597  -0.007308  -0.6241  -0.6562
6.398e+09  -1.467  -5.211e-05  0.01256  -0.02754  0.01251  0.01603  -0.823  -0.418
6.399e+09  -1.384  0.5335  -0.02221  -0.01253  -0.01839  0.0302  -0.9584  -0.1476
6.4e+09  -1.146  1.012  -0.04329  0.04069  -0.008457  0.01911  -0.8763  0.1824
6.401e+09  -0.7135  1.303  0.01026  -0.01945  0.02751  0.04334  -0.8056  0.463
6.402e+09  -0.1821  1.539  0.04981  0.009511  -0.03912  0.04925  -0.5687  0.7545
6.404e+09  0.3298  1.502  -0.01097  -0.01887  0.009269  -0.005368  -0.3049  0.8593
6.405e+09  0.8371  1.35  0.002509  -0.01901  0.02021  -0.04017  0.03536  0.9168
6.406e+09  1.264  0.9397  -0.009714  -0.006597  0.01206  -0.01467  0.2941  0.8647
6.408e+09  1.572  0.4397  -0.01046  0.00292  -0.02465  0.01297  0.5966  0.719
6.409e+09  1.599  -0.1612  -0.01454  -0.003167  -0.02358  0.0224  0.7691  0.4553
6.41e+09  1.567  -0.7185  0.005112  0.003541  0.0271  0.04967  0.9163  0.1856
6.411e+09  1.171  -1.253  -0.001052  0.05295  0.05307  0.03576  0.8571  -0.1492
6.412e+09  0.7265  -1.571  0.01949  -0.03335  -0.02129  0.03776  0.8167  -0.4362
6.414e+09  0.06637  -1.754  0.01161  0.01452  0.0214  -0.009526  0.6181  -0.6632
6.415e+09  -0.5067  -1.694  -0.02138  0.01945  -0.07654  0.009702  0.3697  -0.8241
6.416e+09  -1.139  -1.477  -0.002365  -0.001372  -0.06474  0.01402  0.06855  -0.8808
6.418e+09  -1.589  -0.9184  -0.06003  0.03259  0.01673  0.003685  -0.2702  -0.8127
6.419e+09  -1.827  -0.3832  0.007893  0.004141  -0.05528  0.01991  -0.5787  -0.6899
6.42e+09  -1.944  0.3106  -0.02071  0.006919  0.03942  -0.02437  -0.7459  -0.4758
6.421e+09  -1.703  0.9517  -0.0438  0.01942  -0.007878  -0.01032  -0.8529  -0.2121
6.422e+09  -1.294  1.503  0.01722  0.04731  0.0344  -0.03591  -0.8768  0.1654
6.424e+09  -0.5964  1.879  -0.02715  -0.02135  -0.06216  -0.03924  -0.7749  0.3823
6.425e+09  0.1712  2.027  -0.03685  -0.02586  -0.03358  0.0155  -0.5908  0.6547
6.426e+09  0.7777  1.939  0.0083  -0.001616  0.06061  -0.02202  -0.314  0.7809
6.428e+09  1.417  1.489  -0.008166  0.04612  0.02774  0.0114  -0.05261  0.8468
6.429e+09  1.996  0.9404  0.008982  0.01213  0.02054  0.06271  0.2627  0.8563
6.43e+09  2.187  0.1671  0.01827  0.01557  -0.05575  0.06532  0.5499  0.7368
6.431e+09  2.173  -0.6116  0.01605  0.006812  -0.05179  0.01493  0.7075  0.4522
6.432e+09  1.777  -1.368  0.01608  0.00998  0.02922  -0.06277  0.8732  0.2132
6.434e+09  1.266  -1.98  0.03063  -0.03563  0.06204  -0.02665  0.8678  -0.101
6.435e+09  0.4243  -2.389  0.0637  -0.03384  -0.0002752  0.01621  0.7799  -0.393
6.436e+09  -0.4343  -2.412  0.007279  -0.003925  -0.04912  0.04832  0.6229  -0.575
6.438e+09  -1.195  -2.124  -0.03208  0.007402  0.003045  0.05042  0.3538  -0.7826
6.439e+09  -2.036  -1.554  -0.01527  0.008657  0.01391  -0.03248  0.093  -0.8349
6.44e+09  -2.456  -0.8176  0.01285  0.001206  -0.04883  0.00966  -0.2381  -0.8215
6.441e+09  -2.655  0.168  -0.01457  0.004148  0.03027  -0.0559  -0.5118  -0.6997
6.442e+09  -2.403  1.103  -0.01937  -0.004863  -0.03024  -0.02197  -0.7114  -0.4728
6.444e+09  -1.978  1.889  0.02978  0.02705  -0.05964  -0.01231  -0.8338  -0.2131
6.445e+09  -1.1  2.513  0.01056  0.012  0.009653  0.005478  -0.8184  0.08717
6.446e+09  -0.09259  2.885  -0.004275  -0.02509  0.004374  0.001731  -0.7639  0.3726
6.448e+09  0.9546  2.808  -0.01166  -0.01706  0.02499  -0.04613  -0.6051  0.5797
6.449e+09  2.012  2.371  -0.01677  0.003571  -0.05596  -0.003127  -0.4045  0.7541
6.45e+09  2.675  1.482  -0.03499  -0.0463  0.05108  0.07569  -0.07586  0.8772
6.451e+09  3.147  0.2764  0.0127  -0.0002575  0.06798  -0.03134  0.2157  0.8286
6.452e+09  3.172  -0.8025  -0.01743  0.02594  -0.05084  0.01008  0.5111  0.6958
6.454e+09  2.696  -1.834  0.02807  0.01488  -0.003722  0.003199  0.6751  0.4642
6.455e+09  1.922  -2.83  0.02918  0.02543  -0.08902  -0.06903  0.7955  0.233
6.456e+09  0.6512  -3.438  -0.02917  0.00829  -0.0415  -0.03164  0.8414  -0.09823
6.458e+09  -0.6122  -3.532  0.006619  -0.02384  -0.01457  -0.0631  0.7581  -0.312
6.459e+09  -1.868  -3.198  -0.01914  0.03436  0.1617  -0.05289  0.5439  -0.5971
6.46e+09  -2.993  -2.279  0.009887  0.004574  -0.02705  0.005354  0.3172  -0.7671
6.461e+09  -3.666  -1.004  -0.004753  0.03425  -0.07618  0.07011  0.0968  -0.8182
6.462e+09  -3.871  0.3918  0.01023  -0.003832  -0.03608  0.05006  -0.2101  -0.7612
6.464e+09  -3.556  1.977  -0.02663  0.003105  0.007133  0.08669  -0.4867  -0.6247
6.465e+09  -2.63  3.202  -0.008115  0.001457  -0.008135  -0.06566  -0.6747  -0.4432
6.466e+09  -1.274  4.014  -0.01187  0.03914  -0.06702  0.01956  -0.7933  -0.2004
6.468e+09  0.2548  4.408  0.03504  -0.005401  -0.06945  0.03101  -0.826  0.07236
6.469e+09  1.855  4.138  -0.01394  0.02355  0.0458  0.03675  -0.7628  0.334
6.47e+09  3.458  3.142  0.008976  -0.01307  -0.02934  0.08933  -0.5283  0.5839
6.471e+09  4.444  1.712  0.0007191  0.01403  0.05482  -0.1104  -0.3203  0.7072
6.472e+09  4.976  -0.1838  -0.02025  0.01941  0.09136  0.004275  -0.07719  0.7926
6.474e+09  4.499  -2.008  -0.006354  0.04055  0.0208  -0.08107  0.2436  0.7847
6.475e+09  3.504  -3.717  0.01005  0.0002251  0.01559  -0.0718  0.4302  0.6699
6.476e+09  1.998  -4.956  0.002966  0.005362  -0.01583  0.01228  0.6442  0.4075
6.478e+09  -0.09798  -5.508  -0.01905  0.02008  0.05438  0.03656  0.7726  0.1836
6.479e+09  -2.314  -5.244  0.028  -0.01844  0.07114  0.03528  0.7697  -0.0732
6.48e+09  -4.28  -3.995  0.0156  -0.01763  0.13  0.002577  0.7384  -0.3408
6.481e+09  -5.389  -1.999  -0.02086  -0.01632  -0.0007798  -0.01061  0.5118  -0.5917
6.482e+09  -5.993  0.252  -0.0005751  0.008977  0.01908  -0.01518  0.3012  -0.7126
6.484e+09  -5.552  2.575  -0.01598  0.001664  0.1455  0.1474  0.04141  -0.789
6.485e+09  -4.004  4.773  -0.009563  -0.01413  0.03267  0.01802  -0.2068  -0.7136
6.486e+09  -1.881  5.988  -0.03624  -0.01269  -0.1199  -0.0534  -0.4513  -0.606
6.488e+09  -0.29  6.561  -0.002847  -0.03147  0.09236  0.7485  -0.6626  -0.4593
6.489e+09  3.151  5.899  -0.01604  0.01021  -0.0364  -0.02127  -0.7633  -0.167
6.49e+09  5.112  4.152  0.02114  -0.005582  -0.07248  0.04507  -0.776  0.033
6.491e+09  6.556  1.838  0.000652  0.003913  -0.04167  0.00473  -0.6697  0.3717
6.492e+09  6.809  -0.8939  0.0008774  0.02113  -0.02167  0.05414  -0.4958  0.5605
6.494e+09  5.933  -3.725  -0.04109  0.02664  0.117  -0.05952  -0.2763  0.7074
6.495e+09  4.149  -5.759  -0.01821  -0.02136  0.03628  0.1089  -0.02512  0.7699
6.496e+09  1.412  -6.901  -0.03242  -0.02049  -0.06632  0.01317  0.1921  0.7245
6.498e+09  -1.332  -6.987  -0.00371  0.00362  0.04265  -0.06731  0.4343  0.5979
6.499e+09  -4.125  -5.832  0.002783  0.03753  -0.007348  0.04798  0.6436  0.4277
6.5e+09  -3.354  -10  -0.0331  -0.02054  -0.1157  0.2408  0.7432  0.1764
6.501e+09  -7.037  -0.8417  0.02663  0.006347  -0.192  -0.05992  0.7469  -0.08728
6.502e+09  -6.91  2.02  -0.01111  0.02923  0.1041  0.0434  0.699  -0.3865
6.504e+09  -5.392  4.468  -0.01132  -0.03111  -0.09759  0.008846  0.5119  -0.574
6.505e+09  -3.194  6.278  -0.02186  -0.0385  0.007131  0.03378  0.2753  -0.6761
6.506e+09  -0.3169  7.012  -0.002223  0.01923  -0.05722  0.03829  0.02656  -0.7732
6.508e+09  2.494  6.382  0.006427  -0.04256  -0.05631  -0.02345  -0.232  -0.7009
6.509e+09  4.793  4.876  0.0668  0.005446  0.03577  -0.0865  -0.4963  -0.5475
6.51e+09  6.109  2.492  -0.001097  0.01552  0.06839  -0.01727  -0.6097  -0.4351
6.511e+09  6.62  -0.102  -0.004394  0.02763  0.03511  -0.09355  -0.7823  -0.1361
6.512e+09  5.842  -2.631  -0.02259  0.01882  0.1705  0.0905  -0.7478  0.1477
6.514e+09  4.302  -4.575  0.007989  -0.01935  0.1245  -0.03476  -0.645  0.3727
6.515e+09  2.236  -5.842  -0.01023  0.0274  -0.005308  -0.009299  -0.4821  0.5788
6.516e+09  -0.2343  -6.062  0.001679  -0.0426  0.03766  -0.004621  -0.2102  0.7311
6.518e+09  -2.508  -5.354  -0.005944  -0.003612  -0.0004915  0.08069  0.0006543  0.7169
6.519e+09  -4.283  -3.755  0.01867  0.006275  -0.06974  0.0425  0.2929  0.6967
6.52e+09  -5.265  -1.74  -0.01411  0.004449  -0.03278  0.04895  0.4794  0.5392
6.521e+09  -5.6  0.3538  0.00808  -0.01437  0.0889  0.0664  0.6553  0.3336
6.522e+09  -4.817  2.31  -0.001663  0.009561  0.09285  -0.02536  0.7452  0.1288
6.524e+09  -3.475  3.888  -0.02216  0.03885  -0.02667  0.04327  0.7088  -0.1782
6.525e+09  -1.71  4.752  -0.02834  -0.0004411  0.06039  0.05984  0.6035  -0.3897
6.526e+09  0.3135  4.904  0.0286  0.0008466  0.02794  0.00841  0.4423  -0.5513
6.528e+09  2.015  4.408  -0.03444  0.01806  0.02157  -0.006298  0.2017  -0.6962
6.529e+09  3.39  3.183  -0.007857  -0.005665  0.05036  -0.01246  -0.0326  -0.7169
6.53e+09  4.223  1.567  0.005812  -0.01771  -0.1226  -0.04184  -0.2679  -0.6173
6.531e+09  4.435  -0.04609  0.01577  0.01772  0.02665  -0.04067  -0.4462  -0.495
6.532e+09  4.014  -1.656  -0.01715  -0.01766  0.01625  0.05357  -0.5777  -0.2692
6.534e+09  2.934  -2.966  -0.04783  0.01832  0.04538  0.03795  -0.6186  -0.05392
6.535e+09  1.64  -3.664  -0.01924  0.005113  0.02008  -0.04987  -0.6443  0.1254
6.536e+09  0.1464  -3.967  0.01814  -0.01038  -0.02595  -0.02282  -0.5528  0.2722
6.538e+09  -1.214  -3.638  0.0003598  -0.007763  0.01753  0.0619  -0.4478  0.499
6.539e+09  -2.43  -2.783  0.002672  0.006704  0.07851  0.02738  -0.2581  0.5906
6.54e+09  -3.307  -1.765  0.001902  0.02018  0.03476  0.07483  -0.07288  0.6957
6.541e+09  -3.512  -0.3676  -0.02596  0.02609  -0.001199  -0.05689  0.147  0.6631
6.542e+09  -3.342  0.9526  0.03291  0.03254  -0.05343  0.006153  0.4023  0.562
6.544e+09  -2.775  1.992  -0.01319  -0.002687  0.01676  0.02137  0.5709  0.3922
6.545e+09  -1.793  2.846  -0.02061  0.005792  0.03187  0.006128  0.6637  0.1937
6.546e+09  -0.6532  3.185  0.01027  0.01341  0.02385  -0.0001487  0.7115  -0.06479
6.548e+09  0.5965  3.112  -0.006545  -0.01031  0.03121  -0.03753  0.6428  -0.3271
6.549e+09  1.533  2.618  0.03921  -0.01067  -0.02858  -0.01382  0.5204  -0.5419
6.55e+09  2.391  1.856  0.02002  -0.0007507  0.02293  -0.05399  0.2969  -0.6906
6.551e+09  2.777  0.8182  -0.02231  -0.03024  -0.06778  -0.01988  0.02652  -0.7549
6.552e+09  2.877  -0.2493  -0.01361  0.006861  0.0226  0.0499  -0.2346  -0.7157
6.554e+09  2.543  -1.23  0.01774  -0.002912  -0.02752  -0.001421  -0.4689  -0.5931
6.555e+09  1.851  -1.991  -0.0003294  -0.01222  -0.01926  0.04026  -0.6211  -0.4152
