# Hz S RI R 50
6.25e+09  0.4237  0.9131  -0.02371  -0.01675  -0.01778  -0.01972  0.1895  0.4796
6.251e+09  0.739  0.6178  -0.01057  0.01062  0.01895  -0.03859  0.3377  0.4131
6.252e+09  0.9278  0.3629  -0.002851  0.005452  0.002148  0.04465  0.5377  0.2209
6.254e+09  0.9208  0.01861  0.01514  -0.02992  -0.005864  0.03186  0.6079  0.008948
6.255e+09  0.8748  -0.2672  0.00753  -0.01436  0.05655  0.05432  0.5772  -0.2509
6.256e+09  0.7565  -0.5655  -0.001752  -0.02769  0.02045  0.001353  0.4562  -0.4402
6.258e+09  0.5033  -0.8041  -0.02358  0.01605  0.02363  -0.04258  0.3099  -0.6078
6.259e+09  0.1192  -1.021  0.007703  0.0006034  -0.06467  -0.0111  0.05973  -0.681
6.26e+09  -0.1977  -0.9089  0.04822  0.008011  -0.02157  -0.02244  -0.2285  -0.6614
6.261e+09  -0.5043  -0.8184  0.02504  0.009369  0.01476  -0.01225  -0.4526  -0.5257
6.262e+09  -0.7035  -0.5626  0.02845  -0.009749  0.03664  0.03457  -0.6109  -0.3323
6.264e+09  -0.9056  -0.3461  -0.03688  -0.009877  -0.01268  0.01502  -0.7255  -0.1128
6.265e+09  -0.9362  0.004892  -0.008698  0.02426  0.0008752  0.04766  -0.6889  0.1296
6.266e+09  -0.8826  0.3505  0.05027  -0.0334  -0.0216  -0.02033  -0.6063  0.406
6.268e+09  -0.709  0.6352  -0.04164  -0.008789  0.0382  -0.01011  -0.413  0.5766
6.269e+09  -0.4079  0.8735  -0.01294  0.01762  0.0826  -0.0129  -0.1881  0.6831
6.27e+09  -0.09743  0.9332  -0.04007  0.02186  -0.05631  -0.02349  0.04968  0.7107
6.271e+09  0.208  0.8553  -0.02835  0.0008708  0.007627  0.01277  0.3337  0.6669
6.272e+09  0.4755  0.8036  0.01781  0.01809  -0.006351  0.02665  0.5689  0.5145
6.274e+09  0.7198  0.5555  0.01647  0.03434  -0.02746  -0.03771  0.7145  0.3171
6.275e+09  0.8696  0.2847  0.0006994  0.005179  0.005542  0.03895  0.7638  0.04239
6.276e+09  0.9092  -0.07517  -0.042  -0.01672  0.04763  0.006665  0.7454  -0.229
6.278e+09  0.8779  -0.3888  -0.01319  -0.0005754  -0.04106  -0.06989  0.622  -0.5052
6.279e+09  0.7068  -0.667  -0.01346  0.01326  0.003496  -0.02061  0.39  -0.6274
6.28e+09  0.3776  -0.907  -0.02567  0.003205  -0.03458  -0.05928  0.1714  -0.7838
6.281e+09  0.06944  -0.9573  0.003797  0.00523  0.01359  0.09409  -0.09509  -0.7989
6.282e+09  -0.2788  -0.9359  -0.00058  -0.01501  0.04666  -0.03565  -0.356  -0.693
6.284e+09  -0.5854  -0.7478  -0.01717  0.02393  -0.03577  -0.00697  -0.5881  -0.5461
6.285e+09  -0.839  -0.5142  0.008453  0.01104  -0.03368  -0.00488  -0.7358  -0.2809
6.286e+09  -0.93  -0.2209  0.01895  -0.01368  -0.03172  -0.02989  -0.7942  -0.03122
6.288e+09  -0.9325  0.1275  0.000495  0.01828  0.02073  -0.08065  -0.7635  0.2643
6.289e+09  -0.805  0.4595  -0.00356  0.01222  -0.008376  0.01243  -0.6336  0.5121
6.29e+09  -0.6495  0.6584  0.001984  -0.01168  0.02444  -0.07779  -0.4013  0.6418
6.291e+09  -0.3394  0.9101  -0.009622  0.001304  0.04222  0.0606  -0.1438  0.7838
6.292e+09  0.01581  0.9538  -0.001079  0.02197  -0.00236  -0.01781  0.1458  0.8115
6.294e+09  0.3111  0.8973  -0.006501  -0.005059  -0.01185  -0.03367  0.4066  0.7136
6.295e+09  0.6328  0.757  -0.008095  -0.00967  -0.03071  -0.03139  0.6268  0.5353
6.296e+09  0.8366  0.442  -0.03419  0.005021  0.02872  0.01763  0.7828  0.2715
6.298e+09  0.9305  0.1688  -0.01188  0.006966  -0.01675  0.004062  0.8228  0.03886
6.299e+09  0.9611  -0.1894  0.002204  -0.01443  -0.04024  0.01233  0.8092  -0.3143
6.3e+09  0.7803  -0.5459  -0.01136  0.02133  -0.03586  0.03327  0.6308  -0.5269
6.301e+09  0.5871  -0.8074  -0.02309  0.02795  0.01058  -0.01998  0.4093  -0.7288
6.302e+09  0.3015  -0.9151  -0.01345  0.01769  0.01699  -0.01251  0.1669  -0.8507
6.304e+09  -0.03833  -0.933  -0.0003918  0.01139  0.04442  -0.004377  -0.1103  -0.8774
6.305e+09  -0.3652  -0.9285  0.02614  -0.01863  0.009985  -0.01052  -0.4221  -0.7318
6.306e+09  -0.6596  -0.6934  0.02918  0.0174  -0.00905  -0.06538  -0.655  -0.551
6.308e+09  -0.8956  -0.4052  0.002811  0.01119  -0.07541  0.02646  -0.8211  -0.294
6.309e+09  -0.9642  -0.04094  0.008226  0.00423  -0.01268  -0.02184  -0.8171  -0.0004427
6.31e+09  -0.9611  0.3238  0.04321  -0.01267  -0.03907  -0.00963  -0.8008  0.2725
6.311e+09  -0.7608  0.594  0.0008898  -0.008753  -0.02857  0.05233  -0.6579  0.5834
6.312e+09  -0.5259  0.7764  0.02082  0.002544  -0.00221  0.01185  -0.4448  0.7812
6.314e+09  -0.1909  0.9402  -0.006796  0.006162  0.03541  -0.01527  -0.1676  0.8877
6.315e+09  0.08885  0.9386  -0.02738  -0.005599  0.03009  -0.04418  0.1585  0.8573
6.316e+09  0.4671  0.8872  0.01976  0.03547  -0.05252  -0.01163  0.4007  0.7745
6.318e+09  0.6898  0.663  -0.05388  -0.01514  0.06267  -0.00665  0.6598  0.5884
6.319e+09  0.9265  0.4245  0.02991  -0.01863  -0.009831  -0.01383  0.8493  0.3061
6.32e+09  1.043  -0.03335  0.001484  -0.02976  -0.01637  -0.04004  0.8724  0.001132
6.321e+09  0.9594  -0.2882  -0.03025  -0.022  -0.02535  -0.02205  0.8408  -0.286
6.322e+09  0.8049  -0.6108  0.0003808  0.005397  0.008809  -0.007165  0.7029  -0.5699
6.324e+09  0.5097  -0.889  0.001348  -0.001141  -0.01867  -0.02045  0.467  -0.8099
6.325e+09  0.1992  -1.03  -0.0164  0.01473  0.03521  -0.03333  0.1483  -0.8793
6.326e+09  -0.2204  -0.984  -0.01102  -0.003497  -0.00508  0.05812  -0.1525  -0.9079
6.328e+09  -0.5006  -0.9395  -0.01006  -0.004517  0.03032  0.0178  -0.4473  -0.7965
6.329e+09  -0.7866  -0.6211  0.0173  0.003972  0.01419  0.01846  -0.6813  -0.593
6.33e+09  -0.9412  -0.3561  0.003006  0.01326  0.00617  -0.01127  -0.8607  -0.3146
6.331e+09  -1.053  0.03279  -0.03119  -0.003774  -0.008409  -0.01134  -0.9219  -0.007368
6.332e+09  -0.9863  0.3766  -0.01064  0.009826  -0.02436  -0.06511  -0.8791  0.2869
6.334e+09  -0.8493  0.6897  0.01723  -0.03234  0.01323  0.0119  -0.695  0.5603
6.335e+09  -0.5219  0.9439  0.004214  0.01539  0.02611  0.02358  -0.4797  0.7546
6.336e+09  -0.1081  1.052  0.005453  -0.02203  -0.01371  0.01843  -0.1834  0.9388
6.338e+09  0.2431  1.016  0.02985  0.02047  0.004205  0.01008  0.1269  0.9171
6.339e+09  0.6416  0.8911  0.005901  0.01211  0.021  -0.03147  0.4251  0.8497
6.34e+09  0.8759  0.6555  0.02353  -0.007894  0.05246  0.04529  0.6883  0.6484
6.341e+09  1.038  0.2704  -0.0106  -0.006981  0.00882  0.01296  0.8495  0.3434
6.342e+09  1.077  -0.1036  -0.01022  -0.0003641  0.02476  -0.01884  0.9529  0.05541
6.344e+09  0.9997  -0.4871  -0.0002086  0.01211  0.0005428  0.017  0.8962  -0.2697
6.345e+09  0.8154  -0.7703  0.01923  -0.02998  -0.01668  -0.0126  0.7534  -0.5501
6.346e+09  0.4663  -1.049  -0.0113  -0.02027  -0.01378  -0.004533  0.5107  -0.7789
6.348e+09  0.04814  -1.107  0.01998  0.04366  -0.0317  -0.02363  0.2142  -0.9025
6.349e+09  -0.306  -1.027  -0.01147  0.009019  0.02091  -0.005505  -0.09832  -0.8748
6.35e+09  -0.6688  -0.8819  -0.01843  -0.009658  -0.006821  -0.0255  -0.4237  -0.8458
6.351e+09  -0.9688  -0.6319  0.002995  -0.05779  0.005068  -0.04839  -0.6745  -0.6703
6.352e+09  -1.13  -0.254  -0.02147  0.008488  -0.01478  -0.005002  -0.8487  -0.3407
6.354e+09  -1.139  0.2056  0.0006674  0.01525  -0.02111  -0.004836  -0.9206  -0.0667
6.355e+09  -1.092  0.5349  0.01095  -0.003215  -0.01754  -0.03028  -0.8926  0.2559
6.356e+09  -0.7678  0.8764  -0.02803  0.03964  -0.01521  0.04438  -0.7804  0.5545
6.358e+09  -0.4232  1.112  -0.002834  -0.01049  0.02477  0.03824  -0.5036  0.789
6.359e+09  0.02914  1.168  0.03612  0.01596  -0.008127  -0.02971  -0.2041  0.9369
6.36e+09  0.4077  1.12  0.01602  -0.02485  -0.01475  -0.02761  0.0577  0.9596
6.361e+09  0.7648  0.8896  -0.006947  0.007331  -0.005253  0.01354  0.3858  0.8277
6.362e+09  1.044  0.5806  0.0006294  0.01517  0.007619  -0.006973  0.6661  0.6721
6.364e+09  1.192  0.1829  0.01047  0.008954  -0.04735  -0.04227  0.8811  0.3608
6.365e+09  1.163  -0.2195  0.04386  0.04057  0.01392  -0.007421  0.965  0.03483
6.366e+09  1.034  -0.613  -0.007213  0.0004799  -0.05227  0.00365  0.9613  -0.2818
6.368e+09  0.711  -0.9381  -0.02484  0.01991  -0.007321  -0.0003715  0.747  -0.5453
6.369e+09  0.4107  -1.16  0.01807  0.009294  -0.000243  0.02449  0.5264  -0.7546
6.37e+09  -0.03082  -1.213  -0.04672  -0.01878  0.001645  0.002498  0.2206  -0.8901
6.371e+09  -0.4715  -1.138  0.002634  0.04692  0.01719  0.005274  -0.1182  -0.9365
6.372e+09  -0.8144  -0.9342  0.004189  0.04864  -0.001109  -0.002169  -0.3913  -0.8907
6.374e+09  -1.148  -0.5421  0.01256  0.0263  -0.02343  -0.005515  -0.6339  -0.6372
6.375e+09  -1.208  -0.129  8.299e-05  -0.03675  -0.006354  0.007356  -0.7886  -0.4053
6.376e+09  -1.228  0.3103  0.02174  -0.0213  -0.02323  -0.01336  -0.9102  -0.09253
6.378e+09  -1.055  0.7288  0.004148  -0.01193  -0.02066  0.01603  -0.9454  0.2664
6.379e+09  -0.7232  1.068  0.02847  0.01575  0.02723  -0.006859  -0.8037  0.5163
6.38e+09  -0.3597  1.227  0.005152  -0.01961  0.005815  -0.01508  -0.5433  0.7748
6.381e+09  0.07421  1.33  0.01064  0.004702  -0.04512  0.01772  -0.2755  0.8557
6.382e+09  0.547  1.195  -0.003144  0.006417  0.03089  -0.004339  0.07237  0.9589
6.384e+09  0.8621  0.9014  0.0005101  0.02614  0.01923  0.02131  0.3676  0.9012
6.385e+09  1.256  0.5491  0.01414  -0.02042  -0.0441  -0.02753  0.6507  0.7005
6.386e+09  1.365  0.1001  -0.03573  0.0136  -0.02147  -0.009652  0.8267  0.4367
6.388e+09  1.296  -0.3791  0.0106  0.0144  0.01608  -0.01036  0.9303  0.122
6.389e+09  1.069  -0.8065  0.02137  0.01992  0.05668  0.02614  0.9105  -0.2087
6.39e+09  0.7864  -1.104  0.02092  -0.01202  0.05545  -0.04609  0.784  -0.4928
6.391e+09  0.3255  -1.377  -0.02781  0.02427  -0.06165  -0.01793  0.5417  -0.7406
6.392e+09  -0.215  -1.412  -0.001928  -0.003569  0.01762  -0.02442  0.2799  -0.8716
6.394e+09  -0.6646  -1.258  -0.002851  0.04876  0.01665  -0.0215  -0.01429  -0.8863
6.395e+09  -1.084  -0.9445  -0.02815  0.0101  -0.02591  -0.002786  -0.3797  -0.8584
6.396e+09  -1.361  -0.5856  0.02031  0.005278  0.04318  0.0384  -0.6424  -0.6855
6.398e+09  -1.509  -0.03231  0.03447  0.01933  -0.005702  0.03573  -0.8156  -0.4431
6.399e+09  -1.445  0.4687  0.01206  -0.03414  0.02559  -0.0499  -0.8973  -0.1531
6.4e+09  -1.18  1.004  0.01349  -0.01763  -0.01985  0.01743  -0.9483  0.1484
6.401e+09  -0.7584  1.269  -0.03745  -0.0006118  -0.02539  -0.02556  -0.7627  0.4843
6.402e+09  -0.2854  1.528  -0.007504  -0.04126  0.0639  0.02373  -0.6199  0.6975
6.404e+09  0.2404  1.557  -0.09102  0.0193  -0.02772  0.0502  -0.3808  0.8332
6.405e+09  0.7616  1.383  -0.02955  0.022  0.0247  0.0004714  -0.004131  0.9211
6.406e+09  1.2  1.035  -0.05896  -0.005309  0.05897  -0.01236  0.2824  0.8744
6.408e+09  1.469  0.4944  -0.01335  0.01306  -0.02821  0.01396  0.5874  0.6957
6.409e+09  1.678  -0.04808  -0.01369  -0.009014  0.03014  -0.02392  0.7937  0.5029
6.41e+09  1.538  -0.5935  -0.03498  -0.03351  -0.041  0.008667  0.8975  0.1294
6.411e+09  1.231  -1.176  0.008196  0.004861  0.07302  0.01387  0.9355  -0.1433
6.412e+09  0.7712  -1.608  -0.014  -0.006838  0.02053  0.0007317  0.7554  -0.4386
6.414e+09  0.2551  -1.703  -0.04547  -0.001707  -0.05721  -0.006265  0.5922  -0.6512
6.415e+09  -0.4293  -1.708  0.001286  -0.008717  0.00619  0.02839  0.2941  -0.8401
6.416e+09  -1.039  -1.468  -0.004188  0.004929  -0.02884  0.01718  0.03663  -0.893
6.418e+09  -1.498  -1.125  -0.007015  0.03103  0.02623  -0.01215  -0.2835  -0.8891
6.419e+09  -1.821  -0.4443  -0.05002  0.05102  0.0123  -0.003744  -0.5432  -0.6912
6.42e+09  -1.839  0.2201  -0.01813  -0.06049  0.0939  -0.004438  -0.7093  -0.4804
6.421e+09  -1.707  0.9012  -0.05546  0.002849  -0.03718  -0.01333  -0.8529  -0.1829
6.422e+09  -1.322  1.43  -0.04553  0.02165  0.02588  -0.01715  -0.8415  0.07611
6.424e+09  -0.7609  1.797  -0.007947  0.009913  0.04145  0.01552  -0.7842  0.3732
6.425e+09  -0.04082  1.978  0.0152  0.05993  -0.0109  0.03816  -0.5793  0.589
6.426e+09  0.6486  1.868  0.00966  -0.0531  -0.01574  -0.03778  -0.34  0.826
6.428e+09  1.312  1.565  0.04355  -0.002148  -0.0109  -0.02449  -0.04188  0.8676
6.429e+09  1.819  0.9759  -0.01874  -0.003844  0.05489  -0.0007713  0.2363  0.8312
6.43e+09  2.11  0.3693  0.007501  0.0285  -0.04469  0.01748  0.5322  0.7203
6.431e+09  2.174  -0.4726  0.02456  -0.06999  0.0148  0.03937  0.7328  0.4986
6.432e+09  1.947  -1.217  -0.02264  -0.006231  -0.007751  0.036  0.8296  0.2266
6.434e+09  1.349  -1.818  0.02294  0.02448  0.05589  0.03492  0.8697  -0.0823
6.435e+09  0.6198  -2.242  -0.01484  -0.01124  0.01301  0.03526  0.7482  -0.3908
6.436e+09  -0.201  -2.287  0.04439  -0.004872  -0.07791  -0.03903  0.5942  -0.6285
6.438e+09  -1.005  -2.177  0.02244  0.009249  -0.04891  0.02353  0.3582  -0.7719
6.439e+09  -1.777  -1.702  -0.006091  -0.006196  0.0489  0.02109  0.05049  -0.8562
6.44e+09  -2.313  -0.9425  0.01227  0.02579  0.01946  -0.05635  -0.2508  -0.8467
6.441e+09  -2.542  -0.06595  0.01669  0.01468  -0.004606  -0.06657  -0.5319  -0.701
6.442e+09  -2.436  0.8295  -0.01986  -0.0283  0.08318  0.0425  -0.683  -0.4975
6.444e+09  -1.965  1.699  -0.01951  0.02424  0.01598  -0.007106  -0.8461  -0.2126
6.445e+09  -1.305  2.371  0.02388  0.004563  0.002557  -0.07188  -0.8649  0.08063
6.446e+09  -0.3444  2.722  0.006731  -0.02684  -0.04832  0.05669  -0.7652  0.3878
6.448e+09  0.6513  2.705  0.01605  0.0276  0.04162  -0.04496  -0.5986  0.5931
6.449e+09  1.655  2.463  0.032  0.02855  0.04965  -0.04535  -0.3291  0.7149
6.45e+09  2.425  1.613  0.02146  -0.0009344  0.04901  0.03219  -0.08933  0.8484
6.451e+09  2.974  0.6915  -0.002275  -0.01698  0.04918  0.02491  0.2303  0.8179
6.452e+09  3.141  -0.4542  0.004113  -0.05754  -0.0135  0.04832  0.4976  0.6768
6.454e+09  2.808  -1.528  -0.02966  -0.008437  0.0322  -0.06172  0.6862  0.4628
6.455e+09  2.135  -2.565  -0.02164  0.00236  -0.01356  -0.002777  0.7896  0.237
6.456e+09  1.099  -3.26  -0.02134  0.01506  -0.05354  0.05679  0.816  -0.08491
6.458e+09  -0.1647  -3.483  0.04947  -0.02245  -0.01246  -0.00946  0.7162  -0.3515
6.459e+09  -1.52  -3.214  0.007126  0.01647  -0.03926  -0.0342  0.6052  -0.5733
6.46e+09  -2.556  -2.57  0.01528  0.0005727  -0.01377  -0.03342  0.3454  -0.7339
6.461e+09  -3.413  -1.528  0.04142  0.002917  0.005949  -0.01356  0.09729  -0.8276
6.462e+09  -3.765  -0.1847  -0.007772  0.007897  0.05411  0.05649  -0.2017  -0.7785
6.464e+09  -3.687  1.28  0.02855  -0.01226  -0.06413  0.06638  -0.4242  -0.6908
6.465e+09  -3.146  2.616  0.05369  0.01023  0.06002  -0.009733  -0.6467  -0.4342
6.466e+09  -1.916  3.691  0.0008909  -0.01136  0.07661  0.0329  -0.7481  -0.216
6.468e+09  -0.4438  4.191  -0.009281  -0.00868  0.163  0.01691  -0.8348  0.08421
6.469e+09  1.145  4.281  0.01481  -0.009081  0.05943  0.05034  -0.7585  0.332
6.47e+09  2.72  3.703  -0.01673  -0.02628  -0.00433  -0.04978  -0.5322  0.564
6.471e+09  4.041  2.296  -0.001649  0.003578  0.107  -0.08616  -0.325  0.7432
6.472e+09  4.906  0.753  -0.03044  -0.02374  -0.03082  -0.006927  -0.07641  0.7597
6.474e+09  4.85  -1.21  -0.05489  -0.02535  -0.02059  0.06476  0.2671  0.7999
6.475e+09  4.279  -2.97  0.01334  0.01496  -0.09138  -0.1514  0.4438  0.6639
6.476e+09  2.823  -4.538  -0.0222  -0.03774  -0.001512  -0.003903  0.6441  0.4276
6.478e+09  1.056  -5.533  0.003788  -0.01663  -0.01468  0.1095  0.7457  0.2055
6.479e+09  -1.191  -5.718  0.008157  -0.003912  0.0007403  0.09638  0.7758  -0.06231
6.48e+09  -3.312  -4.748  -0.01781  0.02346  0.001872  -0.05528  0.7037  -0.368
6.481e+09  -5.147  -3.306  -0.04567  0.01271  0.01312  0.03449  0.5752  -0.5254
6.482e+09  -6.249  -1.091  -0.003988  -0.01146  -0.0536  -0.03972  0.3341  -0.7062
6.484e+09  -6.436  1.592  0.01594  -0.02318  0.03236  -0.1351  0.08685  -0.7743
6.485e+09  -5.453  4.014  0.01202  -0.02087  0.008161  -0.1007  -0.2314  -0.7465
6.486e+09  -3.438  6.009  -0.01578  0.0233  -0.03224  -0.1678  -0.4484  -0.6432
6.488e+09  -1.626  7.215  -0.02125  -0.06003  0.3226  0.7536  -0.6408  -0.4207
6.489e+09  2.187  6.94  0.03063  0.03051  0.05977  -0.06025  -0.7304  -0.1699
6.49e+09  5.035  5.68  -0.01796  0.01118  -0.05757  0.02852  -0.7627  0.1332
6.491e+09  7.067  3.22  0.02234  -0.001135  -0.08702  0.05278  -0.6961  0.3002
6.492e+09  7.935  0.227  -0.009583  0.03076  0.07057  0.04303  -0.5118  0.5664
6.494e+09  7.452  -3.227  -0.01364  -0.0006108  -0.1086  0.1081  -0.3035  0.6975
6.495e+09  5.705  -6.024  -0.001326  -0.00232  0.06288  -0.01691  -0.04775  0.8061
6.496e+09  2.765  -8.006  -0.02298  0.004867  0.05695  -0.09203  0.2175  0.7686
6.498e+09  -0.8791  -8.408  0.01297  0.008901  0.05264  0.01046  0.4911  0.6249
6.499e+09  -4.333  -7.108  -0.02218  0.01397  -0.07361  -0.06764  0.6479  0.4368
6.5e+09  -11.41  2.205  -0.03167  0.006636  0.0569  -0.03478  0.7121  0.1758
6.501e+09  -8.359  -1.46  -0.001421  0.002091  -0.04237  0.1011  0.7609  -0.07938
6.502e+09  -8.218  2.186  -0.0168  -0.003524  0.04566  0.09032  0.6481  -0.3938
6.504e+09  -6.529  5.375  0.01418  0.02909  0.05652  0.0486  0.4795  -0.6196
6.505e+09  -3.738  7.455  0.0379  -0.03885  -0.04474  -0.03986  0.2648  -0.7052
6.506e+09  -0.3203  8.155  -0.03084  -0.002165  -0.07404  -0.01318  0.02067  -0.7803
6.508e+09  2.877  7.582  -0.01038  0.02376  0.08177  -0.05251  -0.2458  -0.7289
6.509e+09  5.608  5.369  0.02932  0.001852  -0.04669  0.07614  -0.5018  -0.6369
6.51e+09  7.073  2.783  0.002497  -0.01867  0.03425  -0.01335  -0.6719  -0.4174
6.511e+09  7.36  -0.3226  0.03214  0.02001  0.006151  0.004227  -0.7276  -0.1865
6.512e+09  6.387  -3.256  0.01676  -0.01928  0.1064  -0.05063  -0.7815  0.108
6.514e+09  4.414  -5.138  0.00794  -0.02277  -0.007715  0.05223  -0.6694  0.4042
6.515e+09  1.905  -6.353  -0.001714  -0.03467  -0.08322  -0.1594  -0.4599  0.5607
6.516e+09  -0.6068  -6.394  -0.02445  -0.04098  0.0003115  0.0181  -0.2522  0.7319
6.518e+09  -2.973  -5.509  -0.01686  0.01281  -0.0761  -0.05573  0.00934  0.77
6.519e+09  -4.672  -3.847  -0.006301  -0.03009  -0.06198  -0.03936  0.2684  0.6915
6.52e+09  -5.566  -1.699  -0.0328  -0.03615  -0.1279  -0.004391  0.4687  0.5747
6.521e+09  -5.629  0.5189  -0.003901  -0.00884  0.04907  -0.0238  0.6428  0.4084
6.522e+09  -4.798  2.508  0.01747  0.002388  0.04268  0.0913  0.7519  0.1158
6.524e+09  -3.303  4.134  -0.007808  0.009486  -0.06862  -0.03128  0.7169  -0.167
6.525e+09  -1.46  4.809  -0.009528  0.004934  -0.01643  0.017  0.6535  -0.4012
6.526e+09  0.4431  4.936  0.001684  -0.01557  0.03679  0.03954  0.4362  -0.5874
6.528e+09  2.142  4.277  -0.001373  -0.01929  0.0726  -0.004921  0.1634  -0.6964
6.529e+09  3.429  3.06  -0.004089  0.02552  0.04176  -0.02392  -0.1045  -0.7351
6.53e+09  4.253  1.558  0.01993  0.01222  -0.04359  -0.01405  -0.2694  -0.64
6.531e+09  4.337  -0.1367  -0.003265  0.0411  0.01013  0.003756  -0.485  -0.4554
6.532e+09  3.881  -1.687  0.01671  -0.02269  -0.09697  0.03537  -0.5669  -0.3168
6.534e+09  2.956  -2.8  -0.009744  0.007041  -0.01828  0.003431  -0.6132  -0.09371
6.535e+09  1.544  -3.546  0.01291  0.006531  -0.1119  0.05683  -0.6337  0.1406
6.536e+09  0.1234  -3.901  -0.0133  0.001511  -0.05268  -0.008866  -0.5891  0.3033
6.538e+09  -1.152  -3.502  0.006021  0.03274  -0.02415  -0.03849  -0.436  0.476
6.539e+09  -2.301  -2.786  -0.01492  -0.02564  -0.03633  0.005652  -0.2519  0.633
6.54e+09  -3.124  -1.676  -0.005374  0.02563  -0.01457  0.04264  -0.07579  0.7067
6.541e+09  -3.461  -0.436  -0.0282  -0.005555  0.03376  0.012  0.1843  0.652
6.542e+09  -3.239  0.8868  0.001761  0.04384  -0.02584  -0.02138  0.4439  0.5534
6.544e+09  -2.612  1.882  -0.02216  -0.0008658  0.04334  0.03823  0.6057  0.417
6.545e+09  -1.777  2.68  -0.008986  0.01087  -0.02271  -0.0405  0.6876  0.162
6.546e+09  -0.6674  3.067  0.001716  0.01205  0.05122  0.01977  0.7196  -0.06888
6.548e+09  0.3897  2.99  0.008075  -0.03431  -0.05528  -0.03628  0.6885  -0.3626
6.549e+09  1.474  2.553  0.00295  0.001697  0.02231  -0.0234  0.4846  -0.5417
6.55e+09  2.241  1.836  0.0184  0.005154  0.01149  -0.03185  0.274  -0.6883
6.551e+09  2.7  0.9086  0.01473  0.007435  -0.052  -0.006786  0.01545  -0.7335
6.552e+09  2.848  -0.1082  -0.006016  0.01201  -0.009839  -0.005613  -0.2245  -0.7109
6.554e+09  2.502  -1.045  0.01456  -0.004775  0.03814  -0.031  -0.477  -0.6116
6.555e+09  1.878  -1.798  0.001705  0.03039  -0.07104  -0.07157  -0.6509  -0.3735
