# Hz S RI R 50
6.25e+09  -0.1519  -0.9111  0.003424  0.004312  -0.05665  -0.03991  0.1601  0.4901
6.251e+09  -0.4345  -0.7816  -0.003884  -0.007889  0.0274  -0.03496  0.3381  0.3881
6.252e+09  -0.7318  -0.5319  0.008803  0.02677  0.03272  0.008362  0.5265  0.2343
6.254e+09  -0.8473  -0.2473  -0.001241  0.004824  0.01125  -0.01755  0.6063  0.01649
6.255e+09  -0.9318  0.04658  0.01473  -0.005773  -0.03259  -0.002753  0.5987  -0.2595
6.256e+09  -0.8425  0.3817  0.004683  0.01338  0.05394  -0.01069  0.4406  -0.4419
6.258e+09  -0.5992  0.6253  0.03178  0.008862  0.005569  0.03314  0.2568  -0.5998
6.259e+09  -0.4468  0.8105  -0.009405  0.01895  -0.03258  0.02137  0.03607  -0.6574
6.26e+09  -0.08527  0.8729  0.01043  -0.01457  0.007607  -0.04807  -0.1902  -0.6687
6.261e+09  0.2595  0.8527  -0.004589  0.02832  -0.04257  -0.0222  -0.4642  -0.5463
6.262e+09  0.5297  0.7134  -0.01618  0.02395  0.03233  -0.05954  -0.6027  -0.3354
6.264e+09  0.7222  0.4635  -0.01394  -0.0004325  -0.0107  -0.01122  -0.6907  -0.09497
6.265e+09  0.8683  0.1901  0.02138  0.02691  -0.01079  0.006302  -0.7036  0.1995
6.266e+09  0.9192  -0.1191  0.001248  -0.006874  0.01464  -0.01121  -0.5868  0.3967
6.268e+09  0.7525  -0.5127  0.03378  0.01493  -0.01634  0.01135  -0.461  0.6148
6.269e+09  0.5473  -0.6202  0.01858  -0.000858  0.003764  -0.02472  -0.1854  0.7406
6.27e+09  0.2837  -0.8323  0.01468  0.008124  -0.001487  -0.01807  0.07255  0.7208
6.271e+09  0.01502  -0.845  0.01739  0.01864  -0.02171  -0.03819  0.3102  0.6755
6.272e+09  -0.3241  -0.8594  0.01724  -0.01673  -0.02169  0.03705  0.5413  0.5533
6.274e+09  -0.5607  -0.6343  -0.004533  0.0038  -0.03865  0.02351  0.6807  0.3052
6.275e+09  -0.7727  -0.3601  -0.008704  0.02093  0.0006052  -0.01584  0.7647  0.0336
6.276e+09  -0.9328  -0.1016  -0.0005926  -0.003752  -0.0317  0.03626  0.7214  -0.2545
6.278e+09  -0.8975  0.2155  0.02152  -0.01445  -8.083e-05  0.005916  0.5941  -0.4649
6.279e+09  -0.7705  0.467  0.03748  -0.01147  -0.04126  0.05104  0.4083  -0.651
6.28e+09  -0.5218  0.718  0.02767  -0.01321  -0.02574  -0.02928  0.1755  -0.749
6.281e+09  -0.2074  0.8431  0.008828  0.01571  0.01508  0.04201  -0.1177  -0.7841
6.282e+09  0.09986  0.8902  -0.002423  -0.01431  0.01628  -0.007957  -0.3845  -0.7015
6.284e+09  0.3827  0.8014  0.03437  0.004515  0.03165  0.01558  -0.6083  -0.5134
6.285e+09  0.6185  0.6004  -0.004231  -0.0124  -0.006273  0.0106  -0.7494  -0.3135
6.286e+09  0.8186  0.3913  -0.002114  -0.002935  0.004887  0.009378  -0.7905  -0.04271
6.288e+09  0.8897  0.002848  0.00357  0.03196  0.008114  -0.02615  -0.7344  0.2118
6.289e+09  0.768  -0.2306  0.009245  -0.01577  0.009765  0.01788  -0.5894  0.4976
6.29e+09  0.7058  -0.4866  -0.02977  -0.009008  0.006253  -0.002384  -0.3906  0.6941
6.291e+09  0.4589  -0.755  0.004054  0.002763  0.005603  -0.009714  -0.1623  0.7686
6.292e+09  0.1563  -0.8694  -0.01505  0.02768  0.03227  0.03885  0.1242  0.826
6.294e+09  -0.1393  -0.8744  0.0004343  0.02108  0.01096  -0.02933  0.3494  0.7475
6.295e+09  -0.4338  -0.6675  0.01811  -0.01781  -0.003849  -0.001092  0.6045  0.5194
6.296e+09  -0.7238  -0.5953  -0.004335  -0.02085  -0.02126  0.0008229  0.7419  0.3018
6.298e+09  -0.8759  -0.2907  0.01076  0.007801  -2.274e-05  -0.008749  0.8456  0.01797
6.299e+09  -0.9112  0.003309  0.02099  0.007451  0.02099  -0.01859  0.7921  -0.2802
6.3e+09  -0.8718  0.3601  -0.03677  -0.02275  -0.06019  -0.02986  0.6529  -0.5048
6.301e+09  -0.6031  0.6225  -0.001863  0.004016  0.01058  0.02088  0.4179  -0.7269
6.302e+09  -0.3595  0.8053  -0.006175  -0.01057  0.003688  0.02037  0.1638  -0.8081
6.304e+09  -0.08887  0.8497  0.001361  0.007433  -0.01723  -0.004476  -0.1506  -0.8076
6.305e+09  0.1977  0.8225  -0.05583  -0.02518  -0.05078  -0.01853  -0.3911  -0.7264
6.306e+09  0.4939  0.7171  -0.02264  -0.01445  -0.01408  -0.001997  -0.6532  -0.5397
6.308e+09  0.711  0.5312  -0.01486  -0.005448  0.002686  0.03806  -0.7964  -0.3034
6.309e+09  0.8778  0.1731  -0.007658  -0.006057  0.007717  0.0003334  -0.8317  -0.01876
6.31e+09  0.8533  -0.149  -0.01782  0.01155  0.00381  0.0102  -0.8411  0.2836
6.311e+09  0.8326  -0.3909  0.01431  0.005119  -0.02172  0.004642  -0.6752  0.5666
6.312e+09  0.5757  -0.6865  -0.007415  -0.03554  -0.01887  -0.05908  -0.4636  0.7243
6.314e+09  0.3624  -0.8327  -0.002504  0.0005814  0.01887  0.006411  -0.1657  0.8511
6.315e+09  -0.005365  -0.8847  0.01501  -0.0114  -0.009059  0.04859  0.1689  0.8396
6.316e+09  -0.2598  -0.7981  0.01548  -0.00556  0.02437  -0.002586  0.4349  0.7628
6.318e+09  -0.5789  -0.682  0.01316  -0.02787  0.03456  0.0004529  0.7071  0.5462
6.319e+09  -0.771  -0.4825  0.02672  0.03199  -0.02703  -0.004038  0.8294  0.3205
6.32e+09  -0.8555  -0.1873  0.009497  0.005706  0.007824  0.01458  0.8946  -0.02195
6.321e+09  -0.8717  0.1701  0.03911  -0.007421  -0.03313  0.04156  0.8172  -0.3001
6.322e+09  -0.7564  0.4397  -0.008209  -0.00815  0.03998  -0.03223  0.7239  -0.5784
6.324e+09  -0.553  0.6794  -0.01696  0.001003  0.01617  0.03836  0.4703  -0.7567
6.325e+09  -0.2648  0.8755  0.009238  0.003327  -0.02176  0.0244  0.1719  -0.8737
6.326e+09  0.02947  0.842  -0.009019  0.04754  0.0581  0.009281  -0.1441  -0.8917
6.328e+09  0.3275  0.8162  -0.01716  -0.02493  -0.01541  0.02711  -0.4237  -0.8088
6.329e+09  0.6277  0.6262  -0.009348  0.01189  -0.02287  0.02854  -0.7034  -0.6215
6.33e+09  0.798  0.3846  -0.0112  0.02906  -0.0493  -0.0407  -0.8323  -0.3487
6.331e+09  0.884  0.08565  0.01282  0.02062  -0.03391  0.004394  -0.9187  -0.02979
6.332e+09  0.8864  -0.251  0.0147  0.01034  0.005238  0.02716  -0.8844  0.2747
6.334e+09  0.7396  -0.4832  -0.0305  0.0008757  0.006895  -0.003185  -0.7072  0.5648
6.335e+09  0.511  -0.7567  0.02271  0.02388  -0.006183  0.06754  -0.4913  0.8117
6.336e+09  0.1847  -0.8757  0.003604  0.002173  0.04058  0.001823  -0.1948  0.9026
6.338e+09  -0.1264  -0.9366  -0.01744  -0.01834  0.02919  -0.02247  0.1262  0.9115
6.339e+09  -0.4315  -0.7572  0.0294  -0.009426  0.04271  0.00649  0.4339  0.7936
6.34e+09  -0.7155  -0.5803  -0.002952  0.008672  0.009181  0.02689  0.6958  0.5953
6.341e+09  -0.8141  -0.3294  0.01282  0.0132  -0.02835  0.02815  0.8562  0.3364
6.342e+09  -0.9114  0.0147  0.02116  0.01004  0.003648  -0.0159  0.9283  0.03618
6.344e+09  -0.8295  0.3368  -0.007792  -0.00723  0.01506  -0.05493  0.9031  -0.2399
6.345e+09  -0.6388  0.6476  -0.006417  0.01277  -0.02164  -0.02545  0.726  -0.5688
6.346e+09  -0.3871  0.8196  -0.002892  -0.03837  0.03857  -0.01149  0.4717  -0.7947
6.348e+09  -0.1097  0.8735  -0.004835  0.006409  0.00669  0.009055  0.1743  -0.8771
6.349e+09  0.2091  0.846  -0.01078  0.0155  0.0004983  0.002494  -0.1335  -0.9274
6.35e+09  0.5476  0.7006  -0.00562  -0.0393  0.0057  -0.01633  -0.3834  -0.8607
6.351e+09  0.7898  0.5096  -0.04378  0.01715  0.004878  -0.05873  -0.6857  -0.6742
6.352e+09  0.872  0.1999  0.03141  0.002932  0.04297  0.02612  -0.8842  -0.3775
6.354e+09  0.9035  -0.1568  0.01897  -0.004915  -0.02352  0.002828  -0.9395  -0.08338
6.355e+09  0.8385  -0.4307  -0.003455  -0.01366  -0.0137  -0.03995  -0.9224  0.2845
6.356e+09  0.5886  -0.6473  -0.03234  -0.01672  0.01578  0.01809  -0.7353  0.5764
6.358e+09  0.3207  -0.8344  0.005727  -0.02055  -0.02091  0.03065  -0.5178  0.7903
6.359e+09  -0.02537  -0.9232  -0.03585  -0.05701  -0.02934  0.02424  -0.2388  0.9638
6.36e+09  -0.3035  -0.8915  0.006312  0.01844  -0.01584  0.008489  0.1254  0.9629
6.361e+09  -0.665  -0.6859  0.03159  -0.02116  0.01556  0.02978  0.4175  0.862
6.362e+09  -0.8311  -0.4211  0.01777  -0.007392  0.03645  0.01785  0.6967  0.689
6.364e+09  -0.9407  -0.1654  0.00604  0.01169  0.01334  0.01509  0.8934  0.3899
6.365e+09  -0.8902  0.2158  -0.01445  -0.006096  -0.0459  0.04373  0.945  0.06067
6.366e+09  -0.739  0.5391  -0.01414  -0.01734  -0.005843  0.02553  0.8974  -0.2462
6.368e+09  -0.5196  0.7357  -0.0148  -0.02657  0.04078  0.01259  0.7452  -0.5575
6.369e+09  -0.2605  0.9374  0.01776  -0.02138  0.02613  -0.03618  0.4767  -0.788
6.37e+09  0.09174  0.9059  -0.004131  -0.004559  -0.01812  -0.005576  0.234  -0.9401
6.371e+09  0.4679  0.8401  -0.00757  0.009076  -0.009524  -0.02286  -0.09049  -0.9529
6.372e+09  0.7132  0.6403  -0.0197  0.01219  0.04664  0.04533  -0.4143  -0.8435
6.374e+09  0.8766  0.342  0.007658  0.003836  0.01161  4.655e-05  -0.6752  -0.7358
6.375e+09  0.8983  -0.02622  0.03286  0.001837  -0.04583  0.002526  -0.8461  -0.4413
6.376e+09  0.8888  -0.3422  0.05507  0.01651  0.02505  -0.007914  -0.917  -0.1356
6.378e+09  0.7259  -0.6052  0.05224  -0.01478  -0.01679  -0.03358  -0.9424  0.2619
6.379e+09  0.4345  -0.8459  0.04879  0.0108  0.03034  -0.01281  -0.7803  0.5155
6.38e+09  0.1265  -0.9337  0.0221  0.05432  0.01426  0.02775  -0.5757  0.7516
6.381e+09  -0.2629  -0.8832  -0.03292  -0.002041  -0.01573  -0.03365  -0.264  0.885
6.382e+09  -0.5524  -0.7948  0.00731  0.01684  -0.01492  0.006596  0.08033  0.9849
6.384e+09  -0.7596  -0.593  -0.02627  0.00735  -0.007137  -0.003059  0.363  0.861
6.385e+09  -0.9526  -0.2365  0.006172  0.03003  0.01787  -0.01358  0.6378  0.737
6.386e+09  -0.9487  0.1467  -0.001797  0.05693  -0.02004  0.0255  0.8418  0.4521
6.388e+09  -0.7954  0.4231  -0.02058  -0.01743  0.0392  0.02581  0.9208  0.1198
6.389e+09  -0.6455  0.7513  -0.02112  -0.04666  0.01044  -0.0167  0.9135  -0.1909
6.39e+09  -0.3354  0.8932  -0.052  -0.002023  0.01046  0.01994  0.7994  -0.4861
6.391e+09  0.003734  0.9718  -0.001232  0.005682  0.003319  0.04983  0.565  -0.7837
6.392e+09  0.3561  0.9153  0.004092  -0.00133  -0.03671  0.03058  0.2627  -0.8639
6.394e+09  0.6853  0.7376  0.03953  0.01226  -0.0623  -0.01138  -0.06642  -0.9438
6.395e+09  0.878  0.3888  -0.01302  -0.01222  0.01396  0.01702  -0.3542  -0.8601
6.396e+09  0.9871  0.139  -0.01739  0.005241  0.0321  -0.002841  -0.5892  -0.6926
6.398e+09  0.9139  -0.2764  0.03581  0.03181  -0.001412  0.02014  -0.7895  -0.4474
6.399e+09  0.7624  -0.6049  -0.028  0.002366  0.02531  0.02157  -0.9297  -0.1372
6.4e+09  0.5009  -0.8552  0.02242  -0.01484  0.007639  -0.01918  -0.8783  0.1649
6.401e+09  0.232  -0.9178  -0.014  0.06928  -0.01761  0.001363  -0.7526  0.4206
6.402e+09  -0.1575  -0.9703  -0.004536  -0.03012  0.006793  -0.0408  -0.5977  0.7456
6.404e+09  -0.4985  -0.8382  0.02685  -0.006343  -0.02304  0.03733  -0.2909  0.8742
6.405e+09  -0.7398  -0.6094  -0.0306  -0.025  0.008504  0.04194  -0.02921  0.9187
6.406e+09  -0.9756  -0.3122  -0.007703  0.01283  -0.03878  -0.02141  0.2931  0.8711
6.408e+09  -0.9767  0.02225  -0.03277  0.01448  0.04616  0.02171  0.57  0.6868
6.409e+09  -0.8919  0.3904  0.0258  0.01103  -0.01952  0.05992  0.8235  0.4596
6.41e+09  -0.7298  0.6864  0.01808  0.01629  -0.000445  0.01242  0.8678  0.1988
6.411e+09  -0.4578  0.9077  0.01422  -0.03672  -0.03768  0.02537  0.9171  -0.1438
6.412e+09  -0.05929  0.9302  0.02634  -0.006705  -0.0685  0.01815  0.7807  -0.4537
6.414e+09  0.2867  0.9566  -0.02438  0.02524  -0.02637  0.03711  0.5882  -0.6865
6.415e+09  0.6464  0.7897  0.00714  0.04423  0.02067  0.04021  0.2877  -0.7969
6.416e+09  0.8348  0.4537  0.03015  -0.03149  0.01776  0.003298  -0.003795  -0.8692
6.418e+09  0.9514  0.1972  0.01025  0.03015  0.002579  0.01196  -0.2785  -0.8601
6.419e+09  0.9592  -0.1951  -0.003943  0.02325  0.00112  -0.001003  -0.5462  -0.6979
6.42e+09  0.8472  -0.5349  -0.023  -0.005891  -0.05404  -0.00456  -0.7673  -0.5064
6.421e+09  0.5896  -0.7563  0.02222  0.01987  -0.02204  -0.002915  -0.8719  -0.2152
6.422e+09  0.2654  -0.8575  0.001108  0.007504  0.02147  0.003583  -0.8804  0.1153
6.424e+09  -0.05932  -0.9137  0.02472  -0.05129  -0.02393  -0.0239  -0.787  0.4105
6.425e+09  -0.3803  -0.8585  -0.02962  -0.009924  -0.07267  -0.02025  -0.5828  0.63
6.426e+09  -0.6961  -0.6867  0.00138  0.05175  -0.002245  0.03612  -0.3525  0.8293
6.428e+09  -0.8789  -0.3853  0.02019  0.0008867  -0.04154  0.005045  -0.08242  0.9294
6.429e+09  -0.9004  -0.06889  0.04015  0.007507  0.02417  -0.04435  0.2665  0.8281
6.43e+09  -0.875  0.3055  0.03495  0.01554  -0.006751  0.02336  0.5315  0.7016
6.431e+09  -0.7398  0.5578  -0.01903  -0.0037  -0.05176  0.03653  0.7339  0.466
6.432e+09  -0.5299  0.8016  0.0207  0.02088  0.005395  -0.06617  0.8074  0.1839
6.434e+09  -0.1714  0.8871  -0.02327  0.008394  0.05012  -0.02235  0.8473  -0.09845
6.435e+09  0.1267  0.9421  0.01695  -0.01032  0.01195  0.02328  0.793  -0.3869
6.436e+09  0.4827  0.8116  0.01321  -0.02013  -0.02501  0.01711  0.6161  -0.6279
6.438e+09  0.6973  0.5839  0.01744  0.02242  -0.02804  -0.02704  0.3547  -0.8058
6.439e+09  0.8566  0.3361  -0.01843  -0.008696  -0.02897  -0.003343  0.01765  -0.8656
6.44e+09  0.9565  -0.03888  -0.004293  0.01008  0.01475  0.01391  -0.2037  -0.8225
6.441e+09  0.8622  -0.3397  0.009002  -0.01228  0.03453  0.007411  -0.4985  -0.6838
6.442e+09  0.6397  -0.666  0.03224  -0.001222  -0.03386  -0.02204  -0.7308  -0.4077
6.444e+09  0.3968  -0.818  0.03987  0.03735  -0.008551  -0.03807  -0.8146  -0.1871
6.445e+09  0.1017  -0.904  -0.01684  -0.0443  -0.0002134  -0.009928  -0.8456  0.1076
6.446e+09  -0.2145  -0.9247  -0.003649  0.0128  -0.0474  0.001091  -0.7398  0.3794
6.448e+09  -0.5098  -0.7931  -0.01098  -0.002279  0.04038  0.02141  -0.626  0.5636
6.449e+09  -0.7206  -0.5206  0.04189  0.02028  0.01471  -0.005002  -0.3637  0.7763
6.45e+09  -0.893  -0.1682  -0.01092  -0.01364  -0.04533  0.01464  -0.06318  0.8432
6.451e+09  -0.9069  0.09399  -0.004651  -0.002845  -0.007396  -0.003071  0.2539  0.8306
6.452e+09  -0.7871  0.4296  0.03271  -0.01623  -0.06302  0.00922  0.5088  0.6695
6.454e+09  -0.6289  0.665  -0.05536  0.02154  0.03854  0.01142  0.7524  0.5226
6.455e+09  -0.3536  0.8076  0.0173  -0.003678  0.02909  -0.01543  0.7807  0.2207
6.456e+09  -0.02713  0.9011  0.03765  -0.01626  0.004412  0.03547  0.8128  -0.1307
6.458e+09  0.3241  0.803  -0.001792  -0.00853  -0.01808  -0.01422  0.7367  -0.299
6.459e+09  0.5204  0.642  7.395e-05  -0.002442  -0.005145  -0.01757  0.6001  -0.5779
6.46e+09  0.7548  0.4756  -0.0006384  0.02052  0.01078  0.02931  0.3146  -0.7557
6.461e+09  0.9286  0.1619  -0.0403  -0.01382  0.01007  0.02841  0.1  -0.8106
6.462e+09  0.8203  -0.138  0.001292  0.004742  -0.03205  -0.009075  -0.2012  -0.7842
6.464e+09  0.7261  -0.5016  -0.0114  -0.04941  0.03452  -0.0008379  -0.4894  -0.628
6.465e+09  0.5351  -0.6958  0.04794  0.009419  -0.004282  0.006927  -0.6759  -0.46
6.466e+09  0.2729  -0.8781  -0.02519  -0.008948  0.02129  0.004525  -0.7306  -0.2173
6.468e+09  -0.01406  -0.8711  0.002894  -0.008916  0.003865  -0.03283  -0.8361  0.08727
6.469e+09  -0.3653  -0.852  -0.04303  0.04121  -0.03498  0.01295  -0.7502  0.2996
6.47e+09  -0.6402  -0.6542  0.0126  -0.05645  -0.01266  0.0007964  -0.5659  0.554
6.471e+09  -0.8213  -0.4396  0.05006  -0.004265  -0.004426  0.03387  -0.3185  0.7471
6.472e+09  -0.8936  -0.0915  0.01146  0.03047  -0.002027  0.03538  -0.06681  0.7586
6.474e+09  -0.845  0.1622  -0.001468  0.02959  -0.01019  0.0001702  0.1742  0.7762
6.475e+09  -0.7874  0.4519  -0.02624  0.002098  0.01259  -0.01236  0.4449  0.6415
6.476e+09  -0.5672  0.7056  -0.02646  -0.007954  0.01343  -0.04256  0.6224  0.4111
6.478e+09  -0.2619  0.8325  -0.008114  -0.01763  0.01406  0.01759  0.7441  0.1505
6.479e+09  0.09625  0.8815  -0.03663  -0.01779  -0.004657  0.02618  0.8046  -0.05027
6.48e+09  0.3861  0.7944  0.004858  0.01165  0.03166  -0.05273  0.724  -0.3072
6.481e+09  0.5775  0.6481  -0.03645  0.01101  -0.008956  -0.03598  0.576  -0.5601
6.482e+09  0.7787  0.4493  -0.02653  0.006313  0.01654  0.01052  0.3036  -0.6976
6.484e+09  0.8596  0.06623  0.007939  0.003808  -0.03978  -0.008399  0.05759  -0.8111
6.485e+09  0.8389  -0.2255  0.02577  0.005214  0.005543  -0.02217  -0.2143  -0.7546
6.486e+09  0.7643  -0.4832  0.02052  0.001281  0.05113  0.001494  -0.4357  -0.5956
6.488e+09  1.146  -1.019  -0.001337  -0.01615  0.6941  0.09729  -0.6278  -0.3846
6.489e+09  0.2151  -0.8803  -0.01933  0.02434  -0.01463  -0.01341  -0.7412  -0.1734
6.49e+09  -0.1054  -0.888  -0.03576  0.01286  0.002801  -0.01632  -0.7608  0.1013
6.491e+09  -0.3467  -0.7436  0.0216  0.01684  -0.02177  0.05493  -0.6766  0.3154
6.492e+09  -0.6064  -0.6248  -0.01675  -0.005854  0.0003171  -0.0266  -0.4862  0.5623
6.494e+09  -0.8253  -0.4748  -0.01759  -0.02097  -0.083  -0.0302  -0.2896  0.7011
6.495e+09  -0.8939  -0.07013  -0.04442  0.002159  0.02097  -0.04244  -0.0679  0.7645
6.496e+09  -0.8511  0.2473  -0.02245  0.01818  -0.04534  -0.004682  0.2  0.7115
6.498e+09  -0.6994  0.5107  0.005378  0.01012  0.05885  -0.01818  0.4714  0.615
6.499e+09  -0.5247  0.726  -0.02428  0.03022  -0.04488  -0.008698  0.6577  0.3915
6.5e+09  0.01715  0.6366  -0.01955  0.03114  -0.0234  0.01133  0.7811  0.154
6.501e+09  0.1457  0.8276  -0.01088  0.003675  -0.06162  -0.01347  0.732  -0.1082
6.502e+09  0.3984  0.76  0.01074  0.006915  0.01599  0.005205  0.6523  -0.4097
6.504e+09  0.6459  0.6006  0.01953  0.05526  -0.007838  0.03189  0.489  -0.567
6.505e+09  0.8233  0.3338  -0.01332  -0.01318  -0.001615  0.009686  0.2606  -0.6851
6.506e+09  0.8859  -0.01543  -0.02481  -0.006264  0.04282  0.01243  0.02949  -0.7624
6.508e+09  0.8403  -0.2559  0.00949  0.002761  0.03279  0.00841  -0.2578  -0.7117
6.509e+09  0.7514  -0.5052  0.01576  0.023  -0.008841  0.02461  -0.4763  -0.608
6.51e+09  0.4792  -0.7528  0.01851  0.004735  0.009526  0.04021  -0.656  -0.4002
6.511e+09  0.1803  -0.9201  0.007807  0.02276  0.02692  -0.01227  -0.7328  -0.1409
6.512e+09  -0.2078  -0.8869  0.02204  0.01876  0.01373  0.02254  -0.7345  0.1268
6.514e+09  -0.3808  -0.7807  -0.009759  0.008967  0.04411  0.01987  -0.6548  0.3498
6.515e+09  -0.7511  -0.592  -0.007573  0.01905  -0.0284  0.03843  -0.514  0.584
6.516e+09  -0.8712  -0.3299  0.01657  -0.003607  -0.01906  0.04007  -0.2434  0.6616
6.518e+09  -0.9307  0.009496  0.003314  0.01072  -0.03916  -0.01598  -0.003065  0.759
6.519e+09  -0.8147  0.3023  0.001294  -0.02058  0.01688  0.02478  0.2694  0.6533
6.52e+09  -0.6712  0.5981  0.002305  0.02194  -1.578e-05  -0.0009156  0.467  0.5394
6.521e+09  -0.4286  0.7582  -0.01548  0.02385  0.03545  -0.0275  0.6618  0.3423
6.522e+09  -0.1389  0.9308  0.004077  -0.03969  -0.02858  -0.01404  0.7361  0.1144
6.524e+09  0.1856  0.8946  0.02261  0.001112  -0.02575  0.009069  0.7249  -0.1502
6.525e+09  0.5008  0.7935  0.02984  -0.02128  0.03312  -0.0128  0.6313  -0.3892
6.526e+09  0.7544  0.5535  -0.02548  -0.001041  0.06327  -0.004627  0.441  -0.5473
6.528e+09  0.9228  0.3146  -0.009165  0.01014  0.0404  0.06325  0.1758  -0.7064
6.529e+09  0.9261  -0.05394  0.04665  0.02227  0.0002444  -0.01406  -0.04708  -0.7226
6.53e+09  0.8769  -0.3335  -0.005583  -0.02104  0.04003  0.02619  -0.3256  -0.6139
6.531e+09  0.6774  -0.6485  -0.01131  -0.01547  0.00275  -0.01179  -0.4467  -0.5033
6.532e+09  0.3976  -0.8836  -0.01412  -0.02234  -0.03585  0.04352  -0.597  -0.2908
6.534e+09  0.09312  -0.9428  -0.004416  -0.005094  -0.0168  -0.00263  -0.6344  -0.06508
6.535e+09  -0.2791  -0.9326  -0.02143  0.0095  -0.01733  -0.004511  -0.6362  0.08616
6.536e+09  -0.5747  -0.784  -0.02026  -0.01571  0.008433  -0.01408  -0.5708  0.3044
6.538e+09  -0.8172  -0.5664  0.00952  0.0004051  -0.02994  0.01774  -0.5093  0.4912
6.539e+09  -0.9189  -0.2812  0.02384  0.02204  0.001106  0.009063  -0.2822  0.636
6.54e+09  -1.003  0.0916  -0.02565  0.006064  -0.02781  0.01308  -0.03118  0.6837
6.541e+09  -0.9145  0.4345  -0.001654  0.009654  0.02669  -0.003242  0.1741  0.6646
6.542e+09  -0.6683  0.7662  -0.009028  0.01101  0.02018  0.03287  0.4046  0.5529
6.544e+09  -0.3595  0.9321  -0.00523  0.0522  0.02081  -0.01159  0.6139  0.4009
6.545e+09  -0.0223  1.008  0.02552  -0.01484  -0.03649  -0.03743  0.6943  0.1656
6.546e+09  0.306  0.9106  -0.001774  0.01004  0.02364  -0.0004142  0.7077  -0.08636
6.548e+09  0.5742  0.7856  -0.02054  -0.01694  0.04893  -0.007951  0.6668  -0.3124
6.549e+09  0.8644  0.501  0.02358  -0.0009526  -0.01425  0.02322  0.491  -0.5759
6.55e+09  0.9931  0.1624  -0.01591  0.005879  0.0221  0.01786  0.355  -0.6539
