# Hz S RI R 50
6.25e+09  0.1703  0.9175  -0.002421  0.006323  -0.04116  -0.01488  0.1561  0.4591
6.251e+09  0.4614  0.8138  0.005899  0.02949  -0.01596  -0.05208  0.3533  0.414
6.252e+09  0.7071  0.6251  -0.0333  0.01569  0.0265  -0.01452  0.5083  0.2534
6.254e+09  0.9158  0.3259  -0.0188  -0.0174  -0.01513  -0.0007475  0.593  0.01844
6.255e+09  0.8862  0.009624  -0.04068  -0.01095  0.02586  0.04018  0.5813  -0.212
6.256e+09  0.899  -0.369  -0.01676  0.01245  0.007539  -0.03022  0.4638  -0.4888
6.258e+09  0.6789  -0.5975  -0.009875  -0.001183  0.001832  -0.0001529  0.3093  -0.6144
6.259e+09  0.4792  -0.8141  -0.03695  0.02296  0.02905  0.005934  0.04551  -0.6922
6.26e+09  0.1252  -0.97  0.02839  -0.009962  -0.06106  -0.01018  -0.2381  -0.6638
6.261e+09  -0.1818  -0.9256  0.01849  0.01142  0.008999  0.03012  -0.4389  -0.5445
6.262e+09  -0.5237  -0.7733  0.03642  0.02141  0.03234  -0.01967  -0.6202  -0.3324
6.264e+09  -0.7089  -0.5914  0.01723  -0.003591  -0.02298  0.05589  -0.6884  -0.1178
6.265e+09  -0.869  -0.2503  -0.0002901  -0.03421  0.01866  0.04089  -0.7423  0.1678
6.266e+09  -0.9012  0.05213  0.01712  0.01334  -0.04081  -0.01174  -0.6145  0.3835
6.268e+09  -0.8522  0.3959  -0.01127  -0.002524  0.04008  -0.002111  -0.4454  0.6155
6.269e+09  -0.6416  0.61  -0.02137  -0.005634  -0.009475  -0.009392  -0.1872  0.7081
6.27e+09  -0.3626  0.7885  0.01323  -0.02538  0.03133  0.0124  0.1002  0.7527
6.271e+09  -0.1412  0.9628  -0.006259  0.01869  0.03074  0.005465  0.3519  0.6625
6.272e+09  0.2323  0.9006  0.01958  0.05229  0.009537  -0.008032  0.5027  0.5288
6.274e+09  0.5508  0.8064  -0.01833  0.0153  -0.05877  -0.04757  0.6887  0.2965
6.275e+09  0.7216  0.5319  0.02291  0.004081  0.05714  0.009499  0.7584  0.04278
6.276e+09  0.8705  0.2613  -0.0182  -0.0009679  0.02054  0.008771  0.7534  -0.2153
6.278e+09  0.9247  -0.101  -0.02764  0.008501  0.001876  0.06391  0.6149  -0.4738
6.279e+09  0.8274  -0.4038  -0.02434  0.0167  0.004734  0.0206  0.378  -0.635
6.28e+09  0.6015  -0.6818  -0.01128  -0.007804  -0.007984  0.04081  0.1427  -0.771
6.281e+09  0.3976  -0.8392  -0.02349  0.03037  0.008315  -0.01142  -0.1305  -0.7539
6.282e+09  0.08832  -0.94  -0.02492  0.035  -0.006941  -0.0415  -0.3958  -0.7019
6.284e+09  -0.2376  -0.8837  0.03488  -0.02885  0.01012  -0.01865  -0.6162  -0.536
6.285e+09  -0.5957  -0.7164  0.002804  -0.01084  -0.03941  -0.02945  -0.7461  -0.2695
6.286e+09  -0.784  -0.4948  0.009536  -0.01682  0.007529  0.04074  -0.7673  -0.03472
6.288e+09  -0.8956  -0.2608  -0.01165  0.01081  0.003232  0.03641  -0.7832  0.2617
6.289e+09  -0.8936  0.1149  0.03599  -0.0472  -0.01976  0.01251  -0.6474  0.5235
6.29e+09  -0.8249  0.4764  -0.01371  -0.01454  -0.03482  -0.00481  -0.3949  0.6473
6.291e+09  -0.5647  0.6727  -0.001256  -0.02356  -0.05534  0.008549  -0.1562  0.7702
6.292e+09  -0.3767  0.9115  -0.02641  0.03882  -0.03189  0.02101  0.1362  0.7944
6.294e+09  0.008807  0.9138  0.006873  -0.01456  0.02799  -0.0276  0.401  0.7371
6.295e+09  0.3168  0.863  -0.002719  -0.01221  0.001109  -0.06559  0.6123  0.5313
6.296e+09  0.6198  0.7966  -0.0009658  -0.01  0.01877  -0.0005888  0.7839  0.2899
6.298e+09  0.821  0.515  -0.02738  -0.04303  -0.0235  -0.03128  0.8313  0.01983
6.299e+09  0.9298  0.1611  0.01916  -0.01162  0.02055  -0.01989  0.811  -0.2752
6.3e+09  0.9377  -0.1878  -0.0139  0.01552  0.0137  -0.01638  0.6602  -0.534
6.301e+09  0.8502  -0.4979  -0.007484  0.003907  -0.006769  -0.02362  0.4301  -0.6982
6.302e+09  0.5656  -0.7271  0.008492  0.01911  -0.01562  0.01424  0.1454  -0.813
6.304e+09  0.3166  -0.9158  0.0002156  -0.03919  -0.009371  -0.004988  -0.1507  -0.8441
6.305e+09  -0.05442  -0.9324  0.02319  -0.01272  0.04737  0.003226  -0.4235  -0.762
6.306e+09  -0.3947  -0.9107  -0.01888  0.003373  -0.01435  -0.03746  -0.6575  -0.5786
6.308e+09  -0.6673  -0.6343  -0.0118  -0.000256  -0.01525  -0.01401  -0.7961  -0.2837
6.309e+09  -0.8719  -0.4038  0.01351  -0.0009869  0.01559  -0.06485  -0.8859  -0.02808
6.31e+09  -0.9901  -0.1285  0.02055  0.02339  -0.01106  -0.05045  -0.7979  0.2791
6.311e+09  -0.9814  0.2527  0.01362  -0.0009561  -0.01703  -0.01119  -0.6559  0.5718
6.312e+09  -0.82  0.4963  -0.01851  0.007034  -0.02846  0.00219  -0.4131  0.7648
6.314e+09  -0.6047  0.7606  -0.01176  -0.04945  0.002508  -0.0187  -0.1374  0.8515
6.315e+09  -0.248  0.9391  -0.01223  0.01585  0.02869  -0.009032  0.1885  0.8814
6.316e+09  0.08594  1.017  0.03126  -0.0115  0.04095  -0.01118  0.4418  0.7841
6.318e+09  0.4559  0.887  0.01578  0.01143  0.004869  -0.007819  0.6651  0.5461
6.319e+09  0.7671  0.7035  -0.03634  0.04116  0.01971  0.02628  0.8609  0.326
6.32e+09  0.9102  0.398  -0.007261  -0.009556  0.05433  0.01811  0.8909  0.04538
6.321e+09  0.9742  0.02011  -0.002474  0.01995  0.03655  -0.02467  0.8273  -0.3145
6.322e+09  1.007  -0.2678  0.01551  0.03001  -0.01246  -0.04112  0.6919  -0.5888
6.324e+09  0.8312  -0.6379  -0.02601  0.01409  -0.01661  -0.009554  0.4992  -0.7655
6.325e+09  0.5397  -0.8642  0.002081  -0.03873  0.01975  -0.02274  0.1573  -0.888
6.326e+09  0.2315  -0.9911  0.008494  0.008655  -0.003782  -0.0425  -0.1522  -0.9201
6.328e+09  -0.1727  -1.043  -0.007589  0.0226  0.0219  -0.03425  -0.4469  -0.748
6.329e+09  -0.4987  -0.9667  -0.008526  0.009409  -0.0006902  -0.003287  -0.6467  -0.5913
6.33e+09  -0.7592  -0.6678  0.02281  -0.004134  0.0118  -0.047  -0.8732  -0.3484
6.331e+09  -1.002  -0.4006  -0.04216  -0.01948  0.02032  -0.0183  -0.9179  -0.07365
6.332e+09  -1.036  -0.01571  0.005587  -0.02656  0.04175  -0.02734  -0.8912  0.2465
6.334e+09  -1.039  0.3418  -0.01113  0.01148  -0.04957  -0.0532  -0.7349  0.5749
6.335e+09  -0.8496  0.6718  0.03082  0.004324  0.004241  -0.009573  -0.481  0.7597
6.336e+09  -0.5169  0.9619  -0.00273  -0.04714  0.01361  0.01394  -0.1924  0.9244
6.338e+09  -0.187  1.122  0.0297  -0.04799  0.005668  -0.0004492  0.1412  0.917
6.339e+09  0.2446  1.034  -0.02318  0.02337  -0.04643  -0.02118  0.4276  0.844
6.34e+09  0.5554  0.9746  0.001859  0.01191  0.03356  0.07141  0.6819  0.6181
6.341e+09  0.852  0.6817  0.002943  -0.009476  0.02415  0.04771  0.8335  0.3852
6.342e+09  1.104  0.2982  0.02633  0.007538  -0.002722  -0.00511  0.8923  0.0262
6.344e+09  1.097  -0.0565  -0.01206  0.02067  0.009696  0.0006499  0.8923  -0.2784
6.345e+09  1.077  -0.4578  -0.0007356  0.01207  -0.01503  -0.01353  0.7297  -0.5518
6.346e+09  0.7841  -0.7959  -0.01437  0.01248  -0.009675  -0.003829  0.4948  -0.7861
6.348e+09  0.4837  -1.047  0.0401  0.03371  -0.02528  -0.05939  0.2085  -0.9031
6.349e+09  0.07252  -1.221  -0.009691  0.002875  0.02234  -0.01172  -0.09697  -0.9422
6.35e+09  -0.3063  -1.119  0.0184  0.009367  -0.001576  -0.04801  -0.4083  -0.8689
6.351e+09  -0.6797  -0.9634  0.009113  -0.009403  -0.003098  0.006649  -0.647  -0.6307
6.352e+09  -0.9425  -0.6551  -0.01784  0.01749  0.003385  0.02446  -0.8592  -0.3912
6.354e+09  -1.132  -0.2745  -0.01192  0.01766  0.0183  0.06734  -0.9428  -0.07467
6.355e+09  -1.199  0.09418  -0.005213  0.00333  0.01367  -0.009323  -0.9035  0.2862
6.356e+09  -1.07  0.5252  -0.02549  0.01209  0.02225  0.01838  -0.7803  0.5747
6.358e+09  -0.813  0.9248  -0.01433  0.005922  -0.02149  -8.679e-05  -0.5494  0.7893
6.359e+09  -0.4758  1.152  -0.02136  0.006184  0.05995  -0.08115  -0.2158  0.9126
6.36e+09  -0.02202  1.187  0.02451  -0.02565  -0.00951  -0.01578  0.08514  0.9409
6.361e+09  0.4228  1.154  0.003266  0.04052  0.004699  -0.02137  0.4334  0.8627
6.362e+09  0.8162  0.9407  -0.02882  0.006798  -0.004062  -0.01084  0.6765  0.6425
6.364e+09  1.066  0.6939  0.0132  -0.03549  0.002995  0.007769  0.8447  0.4001
6.365e+09  1.227  0.2064  -0.01992  0.05436  -0.01904  0.01056  0.9778  0.04666
6.366e+09  1.177  -0.2569  -0.0187  0.005822  -0.07004  0.008326  0.872  -0.2404
6.368e+09  1.051  -0.6467  -0.01426  0.01845  0.03308  -0.0151  0.7351  -0.5607
6.369e+09  0.7607  -0.9626  0.009811  0.05202  0.0237  -0.02839  0.5166  -0.7418
6.37e+09  0.3789  -1.229  0.006157  0.0153  -0.01053  -0.02272  0.2792  -0.9088
6.371e+09  -0.07698  -1.278  -0.01597  -0.02328  -0.04501  -0.05447  -0.08652  -0.9633
6.372e+09  -0.5643  -1.196  0.02564  0.01153  -0.02968  -0.002761  -0.3758  -0.8482
6.374e+09  -0.8261  -0.9736  -0.0309  -0.02534  -0.02711  0.007258  -0.6525  -0.6437
6.375e+09  -1.17  -0.5401  -0.01297  -0.02142  -0.00052  0.005642  -0.8555  -0.4516
6.376e+09  -1.297  -0.1398  -0.04212  0.00459  0.02021  -0.02163  -0.9232  -0.07555
6.378e+09  -1.253  0.346  0.01436  -0.03489  0.004592  0.02008  -0.9082  0.2283
6.379e+09  -1.024  0.7861  0.02305  -0.04514  -0.0108  0.006073  -0.7877  0.5514
6.38e+09  -0.8037  1.127  0.01272  0.006401  0.02791  -0.02428  -0.5271  0.7921
6.381e+09  -0.3704  1.34  -0.02055  0.05047  -0.0182  0.001624  -0.2639  0.8903
6.382e+09  0.1592  1.341  0.008521  0.008277  0.001056  -0.03413  0.09654  0.9227
6.384e+09  0.6399  1.258  -0.001803  -0.0006735  -0.00718  0.005662  0.3758  0.8496
6.385e+09  1.051  0.921  -0.02041  0.00958  -0.006505  -0.03339  0.6408  0.6872
6.386e+09  1.348  0.5536  -0.01833  -0.02503  -0.03551  -0.01037  0.8433  0.4028
6.388e+09  1.333  -0.01427  -0.00357  0.02129  0.002317  0.01734  0.909  0.114
6.389e+09  1.356  -0.4496  -0.04288  -0.008795  -0.01628  0.006896  0.8731  -0.2205
6.39e+09  1.087  -0.9062  -0.01211  -0.0385  -0.015  -0.03149  0.8059  -0.4883
6.391e+09  0.716  -1.238  -0.03928  0.0002436  -0.03143  0.03083  0.5453  -0.7601
6.392e+09  0.2567  -1.427  -0.0003542  -0.0009496  0.02771  0.03604  0.2774  -0.8831
6.394e+09  -0.2628  -1.416  -0.01955  0.028  0.04389  0.03951  -0.05772  -0.933
6.395e+09  -0.7553  -1.251  0.04577  -0.02827  0.007822  0.003037  -0.3402  -0.8637
6.396e+09  -1.134  -0.915  -0.03456  0.01132  0.003754  0.006834  -0.6128  -0.6784
6.398e+09  -1.434  -0.3969  -0.0405  -0.0009193  0.04655  -0.01426  -0.8147  -0.4511
6.399e+09  -1.545  0.07327  0.02588  -0.006315  0.02211  0.004204  -0.9199  -0.0844
6.4e+09  -1.374  0.5931  -0.03348  0.0001765  0.02425  -0.02575  -0.8689  0.1304
6.401e+09  -1.062  1.013  0.03005  -0.006429  0.001348  -0.02608  -0.8155  0.4968
6.402e+09  -0.6577  1.316  0.02408  -0.02119  0.02612  0.05427  -0.5961  0.7305
6.404e+09  -0.09597  1.469  -0.009403  -0.04541  -0.007968  0.01935  -0.3279  0.8858
6.405e+09  0.4352  1.416  0.006589  -0.01682  0.06379  0.05634  0.01446  0.9258
6.406e+09  0.8343  1.203  0.004637  -0.002321  -0.01529  -0.01089  0.3404  0.8737
6.408e+09  1.22  0.8372  0.02744  -0.03574  0.04901  0.009865  0.5536  0.6631
6.409e+09  1.487  0.3782  -0.02018  0.002474  -0.02798  -0.05093  0.7591  0.4613
6.41e+09  1.495  -0.1728  0.003769  0.02788  -0.01914  -0.005344  0.9007  0.1752
6.411e+09  1.427  -0.7081  0.03377  -0.04188  0.03435  0.02012  0.9191  -0.1442
6.412e+09  1.009  -1.182  0.007948  -0.004559  -0.01703  0.0182  0.765  -0.4318
6.414e+09  0.5652  -1.477  -0.03312  -0.02706  -0.02505  0.01397  0.6157  -0.6977
6.415e+09  0.03121  -1.544  -0.01638  0.01569  -0.02543  -0.02814  0.3555  -0.8223
6.416e+09  -0.5379  -1.462  -0.01106  -0.005093  -0.04295  -0.03511  -0.008157  -0.8569
6.418e+09  -1.042  -1.234  0.02714  0.01052  0.008319  -0.0383  -0.2425  -0.849
6.419e+09  -1.404  -0.791  -0.004562  -0.0005693  -0.0341  -0.0154  -0.5232  -0.7072
6.42e+09  -1.582  -0.2544  0.04729  0.009844  -0.0641  -0.02245  -0.741  -0.5037
6.421e+09  -1.57  0.3165  -0.01502  -0.02001  -0.0005788  -0.02477  -0.8574  -0.2279
6.422e+09  -1.347  0.8653  0.0007566  -0.01119  0.03742  -0.02064  -0.8929  0.1237
6.424e+09  -0.9863  1.323  -0.01506  0.01941  0.01761  0.01099  -0.7342  0.4083
6.425e+09  -0.4819  1.555  0.006441  -0.02564  -0.02565  0.005998  -0.5994  0.6733
6.426e+09  0.09505  1.714  -0.007813  0.01937  -0.01452  -0.04349  -0.3249  0.8425
6.428e+09  0.7153  1.465  -0.0268  -0.005464  -0.03017  0.02007  -0.1244  0.8278
6.429e+09  1.175  1.181  0.007425  -0.01426  -0.04689  0.03068  0.2705  0.8567
6.43e+09  1.541  0.7105  0.009839  -0.0288  -0.006721  0.0009745  0.4663  0.6884
6.431e+09  1.734  0.08065  0.02109  0.01918  -0.03711  -0.006316  0.7529  0.4999
6.432e+09  1.611  -0.5135  -0.03101  0.02455  -0.01195  0.01453  0.8328  0.1917
6.434e+09  1.387  -1.071  -0.02351  0.02457  -0.01233  0.04816  0.8661  -0.051
6.435e+09  0.8805  -1.508  -0.004573  -0.007459  -0.02285  -0.00772  0.7506  -0.3939
6.436e+09  0.3658  -1.773  -0.01981  0.04878  0.01262  0.02572  0.5787  -0.6321
6.438e+09  -0.2837  -1.776  -0.01711  -0.06495  -0.0151  0.009423  0.3413  -0.7993
6.439e+09  -0.9137  -1.547  -0.02033  -0.03358  -0.02134  -0.03938  0.07712  -0.9201
6.44e+09  -1.383  -1.176  -0.006012  -0.02088  -0.004137  0.03694  -0.2513  -0.8321
6.441e+09  -1.792  -0.637  0.002516  0.02027  -0.02297  -0.02984  -0.5436  -0.7013
6.442e+09  -1.81  0.04435  0.01687  -0.02199  -0.04473  -0.00314  -0.6841  -0.4942
6.444e+09  -1.735  0.7046  -0.04727  -0.01438  -0.01211  -0.007529  -0.8321  -0.1813
6.445e+09  -1.433  1.321  0.005772  -0.01089  -0.009576  0.06586  -0.8275  0.08566
6.446e+09  -0.826  1.731  -0.02113  0.02391  0.05252  -0.0006511  -0.7844  0.3535
6.448e+09  -0.1921  2.014  0.0333  -0.01812  0.01811  -0.0184  -0.5899  0.6059
6.449e+09  0.4835  1.939  -0.004335  0.01335  0.00927  0.07377  -0.3141  0.8116
6.45e+09  1.189  1.605  -0.01086  0.03187  0.0467  -0.00447  -0.1122  0.8021
6.451e+09  1.667  1.176  0.03804  0.0164  0.004808  0.003854  0.2841  0.7876
6.452e+09  2.037  0.5245  0.00499  -0.02761  0.005176  -0.0006083  0.4419  0.7071
6.454e+09  2.1  -0.2252  -0.04125  0.008351  0.04566  -0.02996  0.664  0.4725
6.455e+09  1.872  -1.008  0.01465  -0.02795  -0.01498  -0.05582  0.8447  0.2462
6.456e+09  1.421  -1.611  0.01402  -0.00756  0.03278  -0.04278  0.8312  -0.1101
6.458e+09  0.7295  -2.107  -0.02529  0.008082  0.004584  0.01411  0.787  -0.363
6.459e+09  -0.01504  -2.265  0.01049  -0.01117  -0.04277  0.04065  0.5801  -0.5723
6.46e+09  -0.8849  -2.148  0.01528  0.006754  -0.1014  -0.05371  0.337  -0.732
6.461e+09  -1.534  -1.78  -0.01647  0.02142  0.02188  0.08298  0.05  -0.8528
6.462e+09  -2.147  -1.085  -0.0124  -0.04797  0.01253  -0.03416  -0.2206  -0.7937
6.464e+09  -2.41  -0.3728  0.03978  0.01293  -0.01304  0.04799  -0.4396  -0.6664
6.465e+09  -2.395  0.6781  -0.04805  -0.008657  -0.06101  0.02725  -0.6835  -0.4769
6.466e+09  -2.014  1.5  0.01554  -0.009325  0.03463  -0.02578  -0.7933  -0.1994
6.468e+09  -1.455  2.161  -0.0004222  -0.005705  -0.01753  0.0552  -0.787  0.0802
6.469e+09  -0.5402  2.542  -0.01444  0.03772  -0.01605  0.001216  -0.741  0.3556
6.47e+09  0.4142  2.648  -0.01243  -0.0304  -0.03127  -0.05047  -0.5824  0.5972
6.471e+09  1.402  2.439  -6.61e-05  -0.007561  0.0472  0.04776  -0.2991  0.6976
6.472e+09  2.184  1.822  -0.006925  -0.009096  0.01067  -0.02883  -0.1083  0.7776
6.474e+09  2.746  0.8647  -0.0193  -0.002138  -0.06984  -0.05088  0.2039  0.8066
6.475e+09  3.01  -0.09927  -0.0218  -0.01088  -0.05388  0.04425  0.4784  0.6632
6.476e+09  2.833  -1.32  -0.04595  -0.01121  0.03646  0.1123  0.6495  0.4555
6.478e+09  2.104  -2.328  0.01119  0.01637  0.02643  0.03762  0.7622  0.2063
6.479e+09  1.24  -3.014  0.02258  -0.01173  0.002445  0.009338  0.7635  -0.05684
6.48e+09  -0.108  -3.407  -0.02405  0.00877  0.03973  -0.01434  0.6715  -0.2912
6.481e+09  -1.274  -3.202  0.03589  -0.004077  0.02515  -0.01032  0.5359  -0.5829
6.482e+09  -2.549  -2.458  -0.0156  0.02406  -0.007188  -0.05162  0.3244  -0.7032
6.484e+09  -3.359  -1.4  0.006329  0.02275  -0.06725  -0.06433  0.05057  -0.7617
6.485e+09  -3.803  -0.0552  0.01662  -0.01676  -0.0114  0.04563  -0.236  -0.7566
6.486e+09  -3.638  1.458  0.01677  -0.00567  -0.02522  0.01145  -0.4541  -0.6507
6.488e+09  -3.506  3.152  -0.007824  -0.0001172  -0.6033  -0.39  -0.6077  -0.4821
6.489e+09  -1.575  3.809  -0.01218  0.02125  -0.04716  -0.02886  -0.7532  -0.181
6.49e+09  0.05669  4.251  -0.01934  0.006156  0.07515  -0.04515  -0.7802  0.05976
6.491e+09  1.706  3.973  0.003738  0.01279  -0.0613  0.08444  -0.6839  0.3452
6.492e+09  3.265  3.078  -0.01113  0.03047  0.05204  0.003003  -0.5607  0.5675
6.494e+09  4.193  1.377  0.005293  0.0138  -0.1521  0.03994  -0.2973  0.7639
6.495e+09  4.638  -0.3814  -0.01994  -0.03313  -0.05689  0.06646  -0.01424  0.7551
6.496e+09  4.225  -2.325  -0.04303  0.005665  0.03249  -0.01164  0.2292  0.6679
6.498e+09  2.943  -3.775  0.002064  0.01892  0.0301  -0.06711  0.4596  0.6098
6.499e+09  1.074  -4.656  -0.03428  0.003424  -0.0522  -0.02466  0.6578  0.3863
6.5e+09  2.35  -7.549  -0.0251  0.007859  -0.0168  0.01321  0.7285  0.2035
6.501e+09  -2.674  -3.898  -0.001707  -0.03737  -0.05975  -0.00747  0.7654  -0.133
6.502e+09  -4.1  -2.412  -0.02279  0.01102  0.02751  0.004621  0.6645  -0.3689
6.504e+09  -4.61  -0.6161  0.001408  -0.003003  -0.05818  0.007728  0.4981  -0.554
6.505e+09  -4.329  1.305  0.02817  -0.03732  0.07556  0.01259  0.3062  -0.7124
6.506e+09  -3.435  2.926  -0.02098  -0.01725  -0.005795  -0.008004  0.02568  -0.7371
6.508e+09  -1.839  3.832  0.02721  -0.01112  -0.04953  -0.005588  -0.2552  -0.707
6.509e+09  -0.156  4.204  -0.004748  -0.007825  -0.001435  -0.0002757  -0.4708  -0.6258
6.51e+09  1.52  3.81  -0.04329  0.01732  0.03555  0.0514  -0.6354  -0.3797
6.511e+09  2.693  2.846  0.01702  0.03538  -0.1313  0.03362  -0.7459  -0.1426
6.512e+09  3.51  1.521  -0.02191  -0.02577  0.02886  -0.01384  -0.7272  0.1653
6.514e+09  3.723  0.1253  -0.003865  -0.00351  -0.03681  0.0394  -0.6082  0.3853
6.515e+09  3.407  -1.333  -0.03371  -0.006277  0.0351  -0.01655  -0.5059  0.5614
6.516e+09  2.592  -2.389  0.01273  0.001142  0.005669  0.01056  -0.2578  0.7308
6.518e+09  1.428  -3.025  0.01844  -0.01272  -0.007063  -0.008108  0.009277  0.7015
6.519e+09  0.1851  -3.19  0.01137  0.004053  -0.003622  0.02463  0.2659  0.6887
6.52e+09  -1.045  -3.054  -0.001272  0.03454  0.08155  0.004925  0.5025  0.563
6.521e+09  -1.913  -2.281  -0.007627  -0.0008532  0.03264  0.07756  0.6766  0.3213
6.522e+09  -2.61  -1.402  -0.02635  -0.01375  -0.004946  0.03629  0.7182  0.09023
6.524e+09  -2.825  -0.2489  0.01022  -0.00272  -0.004196  -0.01264  0.7002  -0.128
6.525e+09  -2.628  0.7718  0.02154  -0.005399  -0.07323  -0.01885  0.5859  -0.3802
6.526e+09  -2.147  1.61  0.01457  -0.004171  0.08169  0.03358  0.4432  -0.5723
6.528e+09  -1.44  2.263  0.01845  0.007191  0.003149  0.04118  0.2011  -0.7124
6.529e+09  -0.4622  2.492  0.006348  0.02621  -0.01298  -0.03002  -0.008347  -0.7128
6.53e+09  0.4231  2.438  -0.006872  0.02002  -0.09817  -0.04925  -0.2925  -0.6079
6.531e+09  1.312  2.042  -0.004392  0.02201  0.02953  -0.02293  -0.4738  -0.4695
6.532e+09  1.898  1.453  0.03115  -0.02783  -0.02969  -0.02136  -0.62  -0.2861
6.534e+09  2.187  0.6748  -0.004417  0.00413  -0.02275  -0.01115  -0.5981  -0.1147
6.535e+09  2.224  -0.2219  0.001787  0.01527  -0.04899  -0.0244  -0.6426  0.1252
6.536e+09  1.905  -1.017  0.01212  -0.01735  -0.02324  0.02615  -0.5723  0.2926
6.538e+09  1.477  -1.543  0.00559  -0.002113  -0.0367  0.04944  -0.4458  0.4991
6.539e+09  0.7528  -2.058  0.02971  0.0224  -0.0207  0.003987  -0.2907  0.6156
6.54e+09  0.02417  -2.082  -0.02385  0.003926  0.05247  0.02778  -0.09651  0.6866
6.541e+09  -0.6848  -1.847  0.003024  0.01813  0.001311  0.006962  0.1874  0.6526
6.542e+09  -1.294  -1.505  0.003833  0.01419  -0.04207  -0.02731  0.4103  0.5624
6.544e+09  -1.71  -0.8779  0.008332  0.02641  -0.03173  -0.02181  0.6031  0.3922
6.545e+09  -1.956  -0.3004  0.02789  -0.007021  0.02495  -0.0167  0.7208  0.1559
6.546e+09  -1.767  0.4296  0.002074  0.007318  0.004665  0.01496  0.6746  -0.1151
6.548e+09  -1.457  1.08  -0.04186  -0.01946  0.009065  0.01504  0.6317  -0.344
6.549e+09  -1.038  1.49  0.01627  0.01333  -0.03206  0.009425  0.4808  -0.514
6.55e+09  -0.4222  1.783  0.003244  0.04335  -0.05997  0.06367  0.3133  -0.6612
6.551e+09  0.2117  1.758  -0.0108  -0.002591  -0.05304  0.03293  0.06262  -0.7691
6.552e+09  0.8008  1.527  0.00141  -0.002221  -0.02731  -0.06836  -0.2006  -0.7236
6.554e+09  1.355  1.144  0.01191  0.01967  -0.04606  -0.01418  -0.4213  -0.6269
