# Hz S RI R 50
6.25e+09  -0.004711  0.9052  0.000737  -0.006787  -0.05179  -0.03454  0.1451  0.5024
6.251e+09  0.2749  0.8437  0.003646  -0.01262  0.02308  -0.008129  0.3827  0.4108
6.252e+09  0.5849  0.7455  -5.581e-05  0.001408  0.02382  -0.01997  0.5471  0.2413
6.254e+09  0.7945  0.4427  0.00262  -0.01007  -0.01427  0.07886  0.5629  0.002647
6.255e+09  0.93  0.1438  -0.0262  0.008349  -0.005332  0.0304  0.5753  -0.2297
6.256e+09  0.8747  -0.169  -0.01377  -0.008622  0.005444  0.003224  0.4997  -0.4081
6.258e+09  0.7759  -0.4469  -0.02375  -0.002562  0.009301  0.05291  0.2712  -0.6019
6.259e+09  0.5928  -0.6827  0.03211  0.0445  0.04965  0.022  0.03756  -0.6782
6.26e+09  0.2672  -0.831  0.03596  0.00978  0.03736  -0.02682  -0.2188  -0.6591
6.261e+09  0.00429  -0.9036  0.003663  0.006009  0.01722  -0.002759  -0.4456  -0.5597
6.262e+09  -0.3056  -0.8551  0.03895  0.003898  -0.02532  0.03034  -0.6233  -0.3626
6.264e+09  -0.5842  -0.6852  0.02116  -0.01335  -0.01015  0.01273  -0.7337  -0.09656
6.265e+09  -0.8042  -0.4187  -0.03004  -0.01293  0.01431  0.02712  -0.7027  0.1575
6.266e+09  -0.9361  -0.0826  -0.001354  -0.02027  -0.01158  0.008777  -0.5735  0.3963
6.268e+09  -0.8764  0.1642  -0.02518  -0.006258  -0.04782  0.01708  -0.4418  0.6
6.269e+09  -0.7395  0.477  -0.004459  -0.01931  -0.02975  -0.02575  -0.1911  0.7049
6.27e+09  -0.5663  0.6951  -0.01273  0.007064  -0.02283  0.004911  0.0157  0.761
6.271e+09  -0.2738  0.8543  -0.01699  -0.005386  0.05474  -0.001033  0.2979  0.664
6.272e+09  0.05511  0.9632  0.002091  0.008621  0.03032  0.03032  0.5646  0.5525
6.274e+09  0.3614  0.843  0.01733  0.006046  -0.005302  -0.03814  0.7215  0.3035
6.275e+09  0.6161  0.7396  0.002241  -0.0335  -0.03695  -0.004147  0.7697  0.02892
6.276e+09  0.7543  0.4448  -0.008071  0.004714  0.0004201  0.03363  0.7366  -0.2158
6.278e+09  0.8557  0.1283  -0.03597  -0.0273  -0.04209  0.02456  0.6004  -0.4622
6.279e+09  0.8469  -0.2579  0.003645  0.02804  -0.004604  -0.01065  0.4354  -0.6373
6.28e+09  0.7835  -0.478  -0.0116  0.001838  0.005036  0.03588  0.1607  -0.7579
6.281e+09  0.5101  -0.7773  0.03096  0.008915  -0.04092  0.007052  -0.09809  -0.779
6.282e+09  0.2042  -0.818  -0.02231  -0.006647  -0.03908  -0.04212  -0.3627  -0.6742
6.284e+09  -0.07348  -0.931  -0.02054  0.004397  0.02651  0.02192  -0.6026  -0.515
6.285e+09  -0.3067  -0.7897  0.0004115  -0.01464  -0.06609  -0.05632  -0.7482  -0.2849
6.286e+09  -0.627  -0.6689  -0.004251  -0.005028  -0.04878  -0.0396  -0.8348  -0.0175
6.288e+09  -0.8319  -0.3725  -0.002729  -0.01946  0.001707  0.02487  -0.7383  0.2816
6.289e+09  -0.914  -0.05632  -0.01144  -0.009096  -0.04267  -0.008971  -0.6304  0.5211
6.29e+09  -0.9041  0.2547  -0.01526  0.02148  -0.02554  0.08056  -0.402  0.6758
6.291e+09  -0.7792  0.5164  0.00147  -0.02367  -0.01561  0.0004886  -0.1765  0.7897
6.292e+09  -0.4823  0.7882  0.01741  -0.01523  0.001659  -0.04929  0.1241  0.8007
6.294e+09  -0.2254  0.9003  -0.01516  0.01086  -0.01736  0.04531  0.4095  0.7362
6.295e+09  0.1125  0.9291  -0.007872  0.01347  0.02246  -0.004834  0.6403  0.5555
6.296e+09  0.4527  0.8193  -0.005668  -0.01007  -0.05471  0.019  0.7915  0.2838
6.298e+09  0.7667  0.6674  0.02897  0.01318  -0.01346  -0.003711  0.8255  0.008109
6.299e+09  0.8461  0.3439  0.005202  0.01943  -0.0268  0.01996  0.7823  -0.2809
6.3e+09  0.9151  0.04752  -0.009503  0.01585  -0.02397  -0.001201  0.6525  -0.5241
6.301e+09  0.8615  -0.2746  0.003393  -0.02451  -0.03097  0.0293  0.4304  -0.7294
6.302e+09  0.6726  -0.6056  0.01253  0.001303  0.02603  0.01822  0.1528  -0.797
6.304e+09  0.4653  -0.7845  0.02869  0.01751  -0.02985  -0.008636  -0.1197  -0.8341
6.305e+09  0.1645  -0.9703  -0.005633  0.02987  0.02774  0.02932  -0.4219  -0.7027
6.306e+09  -0.1476  -0.8975  -0.004101  0.003179  -0.02401  -0.07864  -0.6294  -0.5707
6.308e+09  -0.526  -0.7881  0.0008455  -0.03309  -0.03098  0.008049  -0.7792  -0.3062
6.309e+09  -0.7823  -0.5646  -0.02596  -0.006051  -0.01872  -0.03665  -0.8552  -0.002283
6.31e+09  -0.8927  -0.3035  0.0301  -0.001251  0.05652  0.04591  -0.8072  0.2957
6.311e+09  -1  0.04517  0.02628  0.03437  0.004663  -0.02018  -0.6749  0.551
6.312e+09  -0.9261  0.3537  -0.007816  0.007577  0.05285  -0.005208  -0.4349  0.7276
6.314e+09  -0.7598  0.6734  -0.01223  -0.008433  0.00146  -0.02394  -0.1601  0.8379
6.315e+09  -0.487  0.8758  -0.005579  -0.01278  0.06745  0.02805  0.1634  0.8709
6.316e+09  -0.1075  0.9933  0.02446  0.02306  -0.008796  0.06395  0.4382  0.7568
6.318e+09  0.2457  0.9234  -0.01707  -0.006647  0.000709  -0.02997  0.6587  0.5547
6.319e+09  0.5797  0.8385  0.001535  -0.0006232  -0.001853  0.02599  0.8222  0.291
6.32e+09  0.8376  0.5693  0.01408  0.007995  -0.06438  -0.01932  0.901  -0.005185
6.321e+09  0.9276  0.2688  -0.01361  0.001546  0.02889  0.0003095  0.8366  -0.3098
6.322e+09  0.9477  -0.1389  -0.004715  -0.03877  0.03416  0.03213  0.7191  -0.556
6.324e+09  0.8984  -0.4346  0.01506  0.004832  -0.0593  0.03375  0.4556  -0.7858
6.325e+09  0.7008  -0.7362  0.0208  0.005013  0.02647  -0.0082  0.1604  -0.8633
6.326e+09  0.4172  -0.958  -0.04295  0.001288  0.005619  0.002392  -0.1351  -0.88
6.328e+09  0.01047  -1.032  0.0116  -0.006267  0.01659  0.02068  -0.3947  -0.8144
6.329e+09  -0.3436  -0.9513  -0.006492  -0.01168  0.03478  0.002993  -0.6887  -0.5955
6.33e+09  -0.6501  -0.7398  -0.004129  -0.03654  -0.05084  0.009022  -0.8515  -0.3541
6.331e+09  -0.8996  -0.4877  0.01368  -0.0004439  -0.02038  0.01163  -0.9358  -0.01102
6.332e+09  -1.043  -0.1892  -0.008252  0.008115  0.0002724  0.0172  -0.8944  0.2807
6.334e+09  -0.9925  0.1959  0.03173  0.002136  0.03703  0.01026  -0.695  0.5583
6.335e+09  -0.856  0.5215  -0.0002173  0.0163  0.003678  -0.008423  -0.4765  0.7708
6.336e+09  -0.5887  0.8353  0.02554  0.008577  0.01183  -0.01152  -0.2181  0.9006
6.338e+09  -0.2758  1.023  0.009648  0.007862  -0.02166  0.02017  0.137  0.8966
6.339e+09  0.07668  1.055  -0.01743  0.007142  -0.002547  0.002666  0.4389  0.817
6.34e+09  0.385  0.9671  0.01199  -0.008824  -0.02487  -0.07179  0.6681  0.6667
6.341e+09  0.7398  0.7422  -0.0104  0.00633  -0.03359  0.006658  0.8147  0.3773
6.342e+09  0.9788  0.4108  -0.009084  0.005877  0.001834  -0.00346  0.9162  0.01331
6.344e+09  1.061  0.08143  -0.006611  -0.005792  0.03965  -0.01604  0.8633  -0.2858
6.345e+09  1.036  -0.3486  0.004457  -0.01659  -0.03049  -0.03519  0.7513  -0.5715
6.346e+09  0.8709  -0.6147  -0.04816  0.01081  -0.0189  0.01188  0.5078  -0.7771
6.348e+09  0.5353  -0.9275  -0.004774  0.005316  -0.02508  -0.01832  0.1942  -0.9129
6.349e+09  0.1402  -0.9936  0.01163  0.01453  -0.004938  0.0005387  -0.1307  -0.9424
6.35e+09  -0.2066  -1.065  -0.02268  -0.03062  -0.01243  -0.03567  -0.4155  -0.8231
6.351e+09  -0.5641  -0.9211  -0.01269  0.01279  -0.001405  0.03231  -0.6685  -0.6537
6.352e+09  -0.8434  -0.6821  0.008374  0.009562  0.003699  0.004777  -0.9121  -0.3818
6.354e+09  -0.9765  -0.3846  -0.003892  -0.02326  0.05193  -0.006853  -0.9145  -0.06006
6.355e+09  -1.013  0.04001  0.02441  0.01738  0.0031  -0.01332  -0.9014  0.2514
6.356e+09  -0.984  0.3964  0.04541  0.005145  -0.02361  -0.005125  -0.7606  0.5772
6.358e+09  -0.8181  0.7567  0.004486  0.007275  0.003828  0.03145  -0.563  0.7791
6.359e+09  -0.473  0.9086  0.01425  0.02007  0.04087  0.01618  -0.2255  0.9532
6.36e+09  -0.128  1.025  -0.006726  0.01775  -0.01922  -0.001514  0.1048  0.9443
6.361e+09  0.2625  1.02  -0.004708  0.03262  0.03638  0.02384  0.4684  0.8418
6.362e+09  0.578  0.8274  0.0331  0.003581  -0.01913  0.01336  0.7149  0.6634
6.364e+09  0.8804  0.5828  0.008318  -0.005202  0.006757  -0.002348  0.8611  0.3776
6.365e+09  0.9969  0.2121  -0.03417  0.02197  -0.001084  0.008193  0.9008  0.08763
6.366e+09  1.037  -0.1505  0.006648  0.001618  0.0007715  -0.04309  0.9142  -0.2554
6.368e+09  0.9137  -0.516  -0.01863  -0.03991  0.004457  0.01969  0.7637  -0.5505
6.369e+09  0.6861  -0.718  0.02266  -0.02234  0.01192  0.01375  0.5096  -0.776
6.37e+09  0.3418  -0.9352  0.01362  -0.003923  0.05843  0.003888  0.2419  -0.9283
6.371e+09  0.06861  -0.991  0.01236  -0.02348  0.0303  -0.02193  -0.0311  -0.9665
6.372e+09  -0.3246  -0.9673  -0.006984  -0.01069  -0.008299  0.009771  -0.3814  -0.8679
6.374e+09  -0.6357  -0.8115  -0.000123  0.02071  0.02931  -0.01598  -0.6613  -0.6489
6.375e+09  -0.8689  -0.544  0.0217  -0.023  0.06617  -0.01978  -0.837  -0.3926
6.376e+09  -1.045  -0.1957  0.009331  -0.001746  0.006069  0.007216  -0.9837  -0.1273
6.378e+09  -0.9855  0.2009  -0.001272  -0.002267  -0.005075  0.04223  -0.9141  0.2591
6.379e+09  -0.9302  0.5732  0.01593  -0.02306  0.01522  0.01294  -0.8061  0.5518
6.38e+09  -0.6342  0.8244  0.01575  0.008965  -0.02071  -0.02297  -0.5549  0.7885
6.381e+09  -0.3227  0.944  0.03402  -0.01856  0.01279  -0.02986  -0.2437  0.9039
6.382e+09  -0.01427  1.032  0.02542  -0.02479  0.01235  -0.002328  0.07295  0.9789
6.384e+09  0.3979  0.9184  -0.01278  -0.005336  0.001822  0.006923  0.376  0.8237
6.385e+09  0.6316  0.7548  0.00701  0.02822  -0.02279  -0.00886  0.6172  0.668
6.386e+09  0.9127  0.4792  -0.02128  -0.02337  0.01316  -0.01605  0.8321  0.4096
6.388e+09  0.9957  0.1441  -0.02234  0.01764  -0.01384  0.001124  0.9201  0.09765
6.389e+09  0.9521  -0.2261  0.03336  -0.03392  -0.02393  0.01276  0.9516  -0.2068
6.39e+09  0.8237  -0.5519  -0.00479  -0.001444  0.01278  0.02041  0.7951  -0.4668
6.391e+09  0.6132  -0.8504  -0.004029  0.01738  0.004353  -0.005338  0.5781  -0.754
6.392e+09  0.271  -0.9557  0.003544  0.01221  -0.04602  -0.008324  0.3108  -0.8411
6.394e+09  -0.06283  -0.9813  -0.01727  -0.01258  -0.006441  -0.01954  -0.03163  -0.9031
6.395e+09  -0.3838  -0.8969  -0.02159  -0.04024  0.009404  -0.001006  -0.3688  -0.8868
6.396e+09  -0.7107  -0.7075  -0.03189  -0.02524  0.0106  -0.01446  -0.617  -0.6798
6.398e+09  -0.9025  -0.4324  -0.01248  -0.01808  0.02288  -0.01613  -0.7857  -0.4401
6.399e+09  -1.014  -0.07063  -0.04468  0.008663  0.02066  0.002094  -0.8536  -0.1406
6.4e+09  -0.9384  0.2686  0.0341  -0.01437  -0.03404  -0.01809  -0.9138  0.1639
6.401e+09  -0.7782  0.5359  0.02227  -0.04413  0.0002539  -0.006472  -0.7672  0.4875
6.402e+09  -0.5576  0.8131  0.003674  0.008868  -0.01129  6.42e-05  -0.5333  0.6916
6.404e+09  -0.2943  0.9627  -0.03191  0.002778  -0.007481  -0.01192  -0.2805  0.86
6.405e+09  0.05241  0.965  0.001782  0.02424  -0.01117  0.01009  -0.007869  0.8804
6.406e+09  0.4232  0.8644  -0.001502  0.04218  -0.01704  0.01088  0.313  0.8563
6.408e+09  0.709  0.6958  0.0269  -0.005569  0.02018  0.02645  0.5953  0.73
6.409e+09  0.871  0.3659  -0.02798  -0.01436  0.04392  -0.01938  0.765  0.4327
6.41e+09  1.046  0.0944  -0.03569  0.02392  -0.02281  -0.01163  0.9209  0.1992
6.411e+09  0.9482  -0.2611  -0.02557  0.03756  0.02484  -0.002782  0.9002  -0.1435
6.412e+09  0.8066  -0.5944  -0.02678  -0.02549  0.01969  0.04737  0.7923  -0.4371
6.414e+09  0.5559  -0.8039  0.01811  -0.02805  -0.01344  0.01131  0.6014  -0.7178
6.415e+09  0.2041  -0.9517  -0.003121  0.02459  -0.02307  -0.02333  0.2935  -0.8321
6.416e+09  -0.0781  -0.9737  0.01375  0.01354  0.006556  -0.01054  0.01974  -0.8974
6.418e+09  -0.4693  -0.8964  -0.02426  -0.005267  0.01455  -0.006624  -0.2819  -0.8659
6.419e+09  -0.7575  -0.6725  0.0151  0.03081  0.02164  -0.01828  -0.558  -0.711
6.42e+09  -0.8664  -0.37  0.009802  0.007458  0.0004488  -0.003552  -0.7138  -0.5056
6.421e+09  -0.9853  -0.01453  -0.01268  0.007137  0.01645  0.01627  -0.8882  -0.1823
6.422e+09  -0.9671  0.36  -0.04283  -0.04218  -0.01876  -0.03333  -0.8474  0.0653
6.424e+09  -0.7788  0.6431  -0.004067  0.002029  0.01555  -0.003528  -0.7668  0.4071
6.425e+09  -0.5128  0.8621  0.0502  0.01051  0.01191  -0.007461  -0.592  0.6506
6.426e+09  -0.2429  1.002  0.01919  0.02689  -0.005939  -0.008325  -0.3598  0.7769
6.428e+09  0.1654  0.9912  -0.02614  0.0356  0.02781  0.02764  -0.05906  0.9002
6.429e+09  0.4965  0.9174  -0.005096  -0.04797  0.04057  -0.04824  0.2612  0.8522
6.43e+09  0.761  0.6902  0.04083  -0.009532  -0.02631  -0.0009408  0.5333  0.7343
6.431e+09  0.9626  0.3479  0.02352  -0.003914  -0.004276  0.01563  0.7286  0.4948
6.432e+09  0.9865  0.001345  0.007973  0.04826  0.007557  0.02671  0.8881  0.22
6.434e+09  0.9559  -0.3714  0.02703  0.01457  -0.02394  0.04188  0.8398  -0.04852
6.435e+09  0.7521  -0.6443  0.01239  0.0315  -0.009487  -0.03268  0.7161  -0.4069
6.436e+09  0.49  -0.903  -0.004173  0.004429  0.03729  0.04572  0.5813  -0.6175
6.438e+09  0.1352  -1.021  -0.02126  -0.02666  -0.02013  0.009411  0.3551  -0.7574
6.439e+09  -0.209  -1.001  -0.04362  0.05169  -0.03295  -0.01868  0.06567  -0.8934
6.44e+09  -0.5268  -0.8811  -0.01698  -0.005334  -0.01425  0.005923  -0.2503  -0.8289
6.441e+09  -0.7904  -0.6565  -0.002408  -0.005324  0.008072  -0.02968  -0.4651  -0.6965
6.442e+09  -0.9562  -0.3701  0.03753  0.03316  -0.006263  0.04281  -0.715  -0.4846
6.444e+09  -1.014  0.07902  0.01832  -0.0296  -0.01948  0.02917  -0.7721  -0.1965
6.445e+09  -0.9117  0.4244  -0.02934  -0.02789  0.06579  0.0622  -0.8136  0.08418
6.446e+09  -0.7474  0.7125  -0.004006  0.01267  -0.0186  0.006104  -0.7726  0.3432
6.448e+09  -0.4797  0.8894  -0.01082  0.03983  0.03655  -0.05893  -0.5724  0.6357
6.449e+09  -0.1266  1.022  -0.01133  0.02158  -0.01814  -0.02789  -0.3631  0.803
6.45e+09  0.1962  1.027  -0.03268  -0.03329  -0.003777  -0.01656  -0.07993  0.8089
6.451e+09  0.614  0.8883  0.01474  -0.01229  -0.02506  -0.03837  0.2597  0.8132
6.452e+09  0.8447  0.6377  0.002545  -0.03028  0.03468  -0.01607  0.5105  0.6771
6.454e+09  0.9814  0.2567  -0.01467  0.07633  0.03085  -0.03123  0.6493  0.4661
6.455e+09  1.057  -0.09359  -0.005418  -0.005655  -0.05001  0.006932  0.8265  0.2276
6.456e+09  0.9528  -0.4424  -0.001953  -0.02347  0.008593  0.04892  0.8235  -0.07985
6.458e+09  0.7101  -0.7668  0.01063  0.007567  0.00203  0.03097  0.7559  -0.4114
6.459e+09  0.4092  -0.9768  0.002792  0.0003022  0.03217  -0.04861  0.5209  -0.5532
6.46e+09  0.05852  -1.087  -0.02618  -0.01792  -0.02028  -0.007815  0.3317  -0.7356
6.461e+09  -0.3329  -1.024  -0.0102  0.01933  0.02273  0.0227  0.06001  -0.8167
6.462e+09  -0.637  -0.858  -0.02681  -0.009667  -0.03307  -0.02851  -0.205  -0.7905
6.464e+09  -0.9641  -0.5099  0.05026  -0.03691  -0.0001458  -0.03979  -0.4852  -0.6711
6.465e+09  -1.077  -0.2032  0.01418  -0.0005667  -0.0113  -0.0193  -0.6645  -0.4559
6.466e+09  -1.035  0.2373  0.007125  -0.0105  0.02239  -7.082e-05  -0.7677  -0.2164
6.468e+09  -0.89  0.5023  0.0205  -0.006959  -0.01453  0.001145  -0.7829  0.1015
6.469e+09  -0.6369  0.855  0.0298  0.001756  0.006231  -0.01683  -0.6986  0.3318
6.47e+09  -0.3288  1.002  -0.0001984  0.0244  -0.0432  -0.00231  -0.5447  0.5433
6.471e+09  0.0583  1.12  -0.001301  -0.005047  0.01362  0.04536  -0.3429  0.7328
6.472e+09  0.4358  1.003  0.007112  -0.009847  0.003269  -0.0314  -0.01928  0.7826
6.474e+09  0.7985  0.8237  -0.002755  0.02983  -0.009744  -0.0305  0.1853  0.7583
6.475e+09  1.03  0.4863  -0.01651  0.05184  0.03311  -0.003644  0.4525  0.6565
6.476e+09  1.071  0.08583  0.01684  -0.03155  0.007732  -0.003462  0.6509  0.4815
6.478e+09  1.066  -0.2882  0.01347  0.01636  -0.0406  0.0483  0.7461  0.1724
6.479e+09  0.895  -0.6241  -0.02567  0.01673  0.0275  0.01476  0.7797  -0.0915
6.48e+09  0.6341  -0.9331  -0.03736  0.006522  -0.05301  -0.04865  0.6947  -0.3331
6.481e+09  0.2246  -1.16  0.01456  0.01445  0.028  -0.01543  0.5469  -0.5116
6.482e+09  -0.1742  -1.111  0.01439  -0.01675  -0.02365  -0.008085  0.3259  -0.7456
6.484e+09  -0.5842  -0.9978  0.01289  -0.03441  -0.03101  0.008314  0.02014  -0.7941
6.485e+09  -0.8383  -0.7278  0.02556  -0.001631  0.01522  0.05842  -0.2112  -0.7617
6.486e+09  -1.041  -0.3424  -0.02565  -0.0323  0.0007784  -0.05567  -0.4769  -0.6164
6.488e+09  -1.829  0.1778  -0.01144  -0.00216  0.3942  0.5821  -0.6769  -0.4308
6.489e+09  -1.081  0.4548  -0.01403  0.007405  -0.01339  -0.01098  -0.7501  -0.1607
6.49e+09  -0.7807  0.7711  0.007631  0.02564  -0.009926  0.00134  -0.7822  0.06746
6.491e+09  -0.4717  1.024  0.03731  -0.02369  0.03478  0.06824  -0.6675  0.359
6.492e+09  -0.09567  1.1  -0.02494  0.01218  0.003685  -0.00176  -0.5162  0.5824
6.494e+09  0.2131  1.007  -0.008562  0.04218  -0.00637  0.09764  -0.2757  0.6978
6.495e+09  0.6362  0.8836  -0.007409  -0.008469  0.01639  0.06398  -0.007262  0.7822
6.496e+09  0.9002  0.5492  -0.02661  0.008704  -0.02405  0.03711  0.1925  0.782
6.498e+09  1.1  0.2691  -0.01351  -0.05501  -0.01024  -0.008403  0.4746  0.6396
6.499e+09  1.153  -0.1866  0.005608  0.04051  -0.03849  -0.03387  0.6796  0.4067
6.5e+09  0.5544  -0.1997  0.01224  -0.01651  0.03419  0.004672  0.7646  0.1763
6.501e+09  0.6742  -0.9124  -0.01155  0.02403  -0.03461  0.01588  0.725  -0.1116
6.502e+09  0.354  -1.082  -0.04622  -0.01523  0.02697  -0.02213  0.6616  -0.3891
6.504e+09  -0.07854  -1.15  0.007306  0.01313  -0.01863  0.01369  0.5093  -0.5323
6.505e+09  -0.5019  -1.054  0.01628  -0.001962  0.01226  -0.02101  0.2815  -0.715
6.506e+09  -0.7746  -0.7942  0.02122  0.04619  -0.03632  0.002681  -0.0009174  -0.7434
6.508e+09  -1.023  -0.443  0.01308  0.006685  0.05014  -0.03636  -0.2082  -0.731
6.509e+09  -1.099  -0.04593  0.02752  0.01814  0.01445  -0.05146  -0.4888  -0.5849
6.51e+09  -1.022  0.3108  -0.01401  0.02254  -0.03936  -0.004108  -0.6735  -0.3568
6.511e+09  -0.8774  0.6548  -0.00419  -0.01644  0.03004  -0.07271  -0.7704  -0.1157
6.512e+09  -0.5645  0.9395  0.007288  0.004605  -0.01393  0.03301  -0.743  0.1214
6.514e+09  -0.1823  1.042  0.01657  0.004049  0.01489  -0.01016  -0.6727  0.3666
6.515e+09  0.188  1.067  0.02366  0.04458  -0.003622  -0.02882  -0.4761  0.5861
6.516e+09  0.5223  0.9224  -0.02497  -0.0027  0.01672  0.03451  -0.2765  0.6922
6.518e+09  0.904  0.6134  0.02116  0.01881  0.01412  -0.01255  0.01018  0.7446
6.519e+09  1.063  0.271  0.02184  -0.008731  -0.0344  -0.01075  0.249  0.701
6.52e+09  1.083  -0.09352  -0.002942  -0.007966  0.01255  0.01085  0.5083  0.559
6.521e+09  0.9908  -0.4172  0.06342  0.01499  0.01621  0.01464  0.6378  0.3223
6.522e+09  0.7372  -0.7721  -0.03118  0.007101  0.0108  -0.0003598  0.7169  0.1327
6.524e+09  0.4921  -0.9797  -0.03197  0.02857  -0.00923  0.01791  0.7023  -0.1846
6.525e+09  0.003273  -1.08  -0.02909  -0.00798  0.003615  -0.02613  0.6426  -0.3967
6.526e+09  -0.3383  -0.9524  0.0076  -0.01248  0.003213  0.01024  0.4501  -0.6053
6.528e+09  -0.6363  -0.8573  0.01013  -0.02825  -0.04464  -0.01833  0.175  -0.6736
6.529e+09  -0.9111  -0.5086  -0.03289  0.01624  -0.01091  0.005521  -0.04976  -0.7252
6.53e+09  -1.026  -0.1591  0.003006  -0.01711  -0.03263  -0.01328  -0.3298  -0.6071
6.531e+09  -1.007  0.1987  0.02631  0.01798  -0.02985  -0.004324  -0.4627  -0.5093
6.532e+09  -0.8492  0.5523  0.02358  -0.005678  0.0156  0.01159  -0.5997  -0.336
6.534e+09  -0.6032  0.8706  0.004461  -0.01321  -0.05176  -0.006607  -0.6171  -0.08967
6.535e+09  -0.2825  0.9017  -0.006605  0.01418  0.001106  0.01108  -0.5963  0.121
6.536e+09  0.09324  0.9863  -0.006047  0.008785  0.05097  -0.005218  -0.5647  0.3311
6.538e+09  0.4658  0.8912  -0.001518  0.008113  0.02177  -0.02436  -0.4556  0.4865
6.539e+09  0.6902  0.7041  -0.03743  -0.01971  -0.005  0.00927  -0.2664  0.5738
6.54e+09  0.941  0.3542  0.01075  -0.005345  0.01327  -0.002823  -0.07998  0.7012
6.541e+09  0.9658  0.04258  -0.01629  0.01057  0.006319  -0.01421  0.1862  0.6796
6.542e+09  0.8982  -0.3771  -0.0003953  0.008625  -0.009198  -0.004263  0.4242  0.6022
6.544e+09  0.7149  -0.6246  -0.01281  0.01341  0.0309  0.0107  0.5897  0.3773
6.545e+09  0.4336  -0.787  -0.03623  -0.03039  0.0145  -0.00402  0.7249  0.1602
6.546e+09  0.1842  -0.885  -0.007117  -0.01961  -0.03624  0.001314  0.7206  -0.02757
6.548e+09  -0.1509  -0.9558  -0.004251  0.0077  -0.01683  0.02508  0.6245  -0.3615
6.549e+09  -0.561  -0.7534  0.01821  -0.0073  0.03282  -0.01741  0.4999  -0.528
6.55e+09  -0.7678  -0.5589  -0.01582  -0.01114  -0.033  -0.01122  0.2903  -0.6846
6.551e+09  -0.8717  -0.2198  -0.03046  -0.01557  -0.008345  -0.01273  0.0554  -0.7714
