# Hz S RI R 50
6.25e+09  0.8806  0.4819  0.001235  -0.01668  -0.01148  -0.02448  0.1797  0.4982
6.251e+09  1.032  0.1322  0.01064  0.03596  -0.006246  0.0485  0.3633  0.4037
6.252e+09  0.9522  -0.225  0.04066  0.03495  -0.01066  -0.009937  0.5189  0.2265
6.254e+09  0.8209  -0.5613  0.01108  -0.00418  0.06661  0.03356  0.6095  0.01971
6.255e+09  0.5904  -0.7973  -0.05123  -0.009452  0.03404  -0.005452  0.5929  -0.2316
6.256e+09  0.2213  -0.8961  0.01987  0.006285  0.01877  0.04388  0.4563  -0.458
6.258e+09  -0.07774  -0.964  -0.03764  -0.02133  0.002606  -0.04826  0.287  -0.6025
6.259e+09  -0.4421  -0.8803  -0.01776  0.03415  -0.005993  0.01597  0.0248  -0.6739
6.26e+09  -0.7554  -0.6737  0.01636  -0.01324  0.03183  -0.0251  -0.2306  -0.6641
6.261e+09  -0.9152  -0.3817  0.0155  -0.01424  0.01541  -0.003567  -0.4496  -0.5359
6.262e+09  -1.009  -0.01579  0.025  0.008412  -0.02791  0.03831  -0.6119  -0.3446
6.264e+09  -0.9509  0.2774  0.02439  0.007264  0.04975  -0.01444  -0.6826  -0.09627
6.265e+09  -0.7375  0.633  0.01444  -0.01459  0.01298  0.002283  -0.6873  0.133
6.266e+09  -0.5034  0.9071  -0.01013  0.02095  0.02614  0.02112  -0.6044  0.4029
6.268e+09  -0.1912  0.9451  -0.05237  -0.0207  -0.001968  -0.01376  -0.4103  0.582
6.269e+09  0.1892  0.9454  0.01309  0.004165  0.02972  -0.0229  -0.1787  0.7097
6.27e+09  0.538  0.7803  -0.02284  -0.01462  -0.05763  -0.01161  0.04525  0.7754
6.271e+09  0.7923  0.6009  0.01011  0.0127  0.02097  0.0597  0.3111  0.6987
6.272e+09  0.9621  0.2826  0.01901  -0.01882  0.03226  -0.01324  0.552  0.5126
6.274e+09  0.9612  -0.04633  0.04437  -0.001937  0.0239  -0.02158  0.6925  0.2783
6.275e+09  0.862  -0.4155  -0.01578  0.01774  -0.02897  0.01994  0.7412  0.02657
6.276e+09  0.6523  -0.6669  -0.0318  0.01492  -0.03061  0.07841  0.7199  -0.2495
6.278e+09  0.3668  -0.9313  0.01356  0.0006005  -0.02279  -0.01834  0.5888  -0.4503
6.279e+09  0.1266  -1.014  -0.02861  -0.03887  -0.01872  0.03387  0.4144  -0.6245
6.28e+09  -0.2966  -0.9608  0.01587  0.005526  0.04459  -0.01206  0.1412  -0.7715
6.281e+09  -0.6154  -0.8312  0.03271  0.0259  -0.03418  0.02084  -0.06774  -0.7759
6.282e+09  -0.824  -0.4806  0.002605  -0.01073  -0.003039  -0.03855  -0.3929  -0.6752
6.284e+09  -1.001  -0.1838  0.01345  -0.01526  -0.03236  0.01284  -0.6164  -0.536
6.285e+09  -0.9657  0.162  -0.0008362  -0.0004692  0.01829  -0.01419  -0.7622  -0.2903
6.286e+09  -0.8881  0.4819  0.01936  0.006421  0.01576  -0.02602  -0.7647  -0.01713
6.288e+09  -0.5943  0.7169  -0.01266  -0.001397  -0.02049  -0.04704  -0.7632  0.266
6.289e+09  -0.3122  0.9402  0.0007889  0.002484  -0.01072  -0.03773  -0.6365  0.4984
6.29e+09  0.01031  1.003  -0.03207  0.008582  -0.006421  -0.0112  -0.4154  0.7016
6.291e+09  0.3575  0.9326  -0.0147  0.01952  -0.03972  0.03803  -0.16  0.78
6.292e+09  0.7294  0.767  0.0057  0.008806  -0.0102  0.002713  0.108  0.8146
6.294e+09  0.9355  0.4198  0.0002671  0.03349  -0.00733  0.01059  0.3894  0.7409
6.295e+09  0.9838  0.09687  -0.01511  -0.01056  -0.003196  0.02023  0.599  0.556
6.296e+09  1.026  -0.2211  0.05572  0.00242  -0.004665  -0.01954  0.7928  0.2847
6.298e+09  0.8128  -0.5828  0.007252  0.03598  -0.0178  0.06499  0.8421  0.04196
6.299e+09  0.5797  -0.8314  0.002344  0.03155  0.002066  0.001458  0.7737  -0.3192
6.3e+09  0.2566  -0.9898  -0.00572  -0.0004091  0.0381  0.02641  0.6531  -0.5551
6.301e+09  -0.1365  -0.996  -0.0136  -0.01867  -0.0004038  -0.002654  0.4377  -0.7394
6.302e+09  -0.4206  -0.9201  0.02767  0.009506  -0.03092  -0.0323  0.1708  -0.8349
6.304e+09  -0.7251  -0.6753  -0.003971  -0.006934  -0.01302  -0.02564  -0.1476  -0.81
6.305e+09  -0.9286  -0.433  0.002519  0.01047  0.01324  0.0003334  -0.4393  -0.7718
6.306e+09  -0.9929  -0.02555  -0.01063  -0.03996  0.03971  -0.02281  -0.6486  -0.568
6.308e+09  -0.8989  0.3274  -0.006179  0.02578  -0.000261  -0.03916  -0.8052  -0.3071
6.309e+09  -0.7725  0.6643  0.01652  0.01551  0.01449  -0.06572  -0.8753  -0.02639
6.31e+09  -0.4784  0.9213  -0.005553  -0.01275  -0.0002795  0.02318  -0.8028  0.2483
6.311e+09  -0.1657  0.9943  -0.0041  -0.02228  -0.03058  0.01835  -0.6428  0.5507
6.312e+09  0.1928  0.9789  -0.01032  -0.006759  -0.002024  0.01131  -0.4227  0.7359
6.314e+09  0.563  0.9007  0.003942  -0.01133  0.01413  -0.00416  -0.1714  0.8461
6.315e+09  0.844  0.6128  0.0263  0.0009352  0.03175  0.05498  0.1583  0.8603
6.316e+09  1.026  0.2873  0.01671  0.009725  0.02836  -0.04407  0.4573  0.7827
6.318e+09  0.9952  -0.06216  0.001567  0.02242  -0.004853  -0.02843  0.6645  0.5654
6.319e+09  0.9321  -0.4721  -0.013  0.007151  0.02443  -0.03826  0.8081  0.32
6.32e+09  0.7408  -0.7444  0.03711  0.002109  0.06654  -0.01411  0.8822  0.03765
6.321e+09  0.4251  -0.9739  0.02519  -0.01492  -0.04476  -0.04016  0.8613  -0.2786
6.322e+09  0.07175  -1.097  -0.007146  0.03875  -0.05376  -0.03197  0.6773  -0.5281
6.324e+09  -0.2836  -1.01  0.007847  -0.003387  -0.008992  -0.01609  0.4446  -0.7747
6.325e+09  -0.6284  -0.8456  0.01045  0.01531  0.0217  0.01805  0.1628  -0.8848
6.326e+09  -0.9412  -0.6153  -0.02841  -0.02909  0.003673  0.04257  -0.1052  -0.9193
6.328e+09  -1.027  -0.2306  -0.005148  -0.01305  -0.003714  -0.01075  -0.4181  -0.7835
6.329e+09  -1.037  0.1873  -0.01486  -0.01574  -0.02511  0.00566  -0.6845  -0.5932
6.33e+09  -0.9231  0.538  0.01866  -0.001089  -0.002076  -0.005876  -0.8545  -0.3476
6.331e+09  -0.7147  0.8285  0.01586  -0.002125  -0.01389  0.01555  -0.9023  -0.0471
6.332e+09  -0.3358  0.9983  0.009596  0.0102  -0.02966  0.01026  -0.8531  0.2819
6.334e+09  0.03713  1.073  -0.0337  -0.02672  0.07083  0.01915  -0.6969  0.5505
6.335e+09  0.4079  1.001  0.001855  -0.0133  -0.03876  0.002517  -0.4814  0.7917
6.336e+09  0.7161  0.7891  0.01438  -0.01685  -0.0208  0.007575  -0.1932  0.9252
6.338e+09  0.9626  0.5137  -0.01226  -0.04586  -0.01429  -0.01141  0.0967  0.9213
6.339e+09  1.036  0.1588  0.01472  -0.002177  -0.05112  0.001484  0.4255  0.8201
6.34e+09  1.048  -0.2232  -0.01583  0.003792  -0.008925  0.005201  0.6738  0.6271
6.341e+09  0.8932  -0.5905  -0.03175  0.005385  0.01627  -0.01723  0.897  0.3492
6.342e+09  0.6654  -0.9044  0.02702  -0.0005793  0.05336  0.0133  0.9201  0.031
6.344e+09  0.3316  -1.082  -0.009142  -0.004425  -0.005683  0.05674  0.9158  -0.2765
6.345e+09  -0.1215  -1.105  0.01573  0.0006259  0.001029  0.01154  0.7564  -0.5646
6.346e+09  -0.503  -1.041  -0.02129  -0.002424  -0.03417  0.006853  0.5311  -0.7647
6.348e+09  -0.7861  -0.772  0.02508  -0.0282  0.0001139  0.01253  0.2092  -0.9285
6.349e+09  -1.013  -0.4497  -0.01864  -0.01186  0.0423  0.01114  -0.1089  -0.9576
6.35e+09  -1.135  -0.03162  0.005412  -0.03614  0.001205  -0.02866  -0.4084  -0.8131
6.351e+09  -1.117  0.3793  -0.01117  -0.01304  -0.03686  -0.008023  -0.6732  -0.6629
6.352e+09  -0.9412  0.7005  -0.004104  -0.001605  0.0348  0.001048  -0.8499  -0.3929
6.354e+09  -0.6501  0.9697  0.002122  0.01113  -0.00949  -0.006765  -0.9113  -0.1056
6.355e+09  -0.2782  1.137  0.02358  0.01365  0.04825  -0.005055  -0.9155  0.2853
6.356e+09  0.1969  1.147  0.01339  -0.04281  -0.001076  0.005969  -0.7409  0.6008
6.358e+09  0.6031  0.9912  0.002368  0.006538  -0.0006391  0.006162  -0.5428  0.7831
6.359e+09  0.9001  0.7439  0.02438  0.006199  -0.006052  -0.002284  -0.2418  0.9227
6.36e+09  1.106  0.4194  -0.02916  -0.04846  0.01972  -0.01563  0.1318  0.9243
6.361e+09  1.226  -0.0588  0.006449  -0.001956  0.03926  -0.01825  0.4045  0.8448
6.362e+09  1.146  -0.4382  -0.004882  -0.0009303  0.02402  0.04311  0.7147  0.6381
6.364e+09  0.9093  -0.8209  0.02045  -0.003551  -0.00794  0.01284  0.8881  0.3911
6.365e+09  0.5374  -1.111  -0.0348  -0.003278  -0.02739  0.00632  0.9592  0.06685
6.366e+09  0.1722  -1.173  0.01099  -0.009603  0.0009575  0.001612  0.9045  -0.1999
6.368e+09  -0.2739  -1.19  -0.006346  0.001143  0.005501  0.02104  0.7674  -0.5503
6.369e+09  -0.6976  -1.048  0.01147  0.002943  -0.03587  0.02301  0.5342  -0.7768
6.37e+09  -1.021  -0.7171  -0.02043  -0.01047  0.02092  -0.009781  0.2432  -0.9131
6.371e+09  -1.247  -0.2858  0.003013  -0.01459  0.01116  -0.002955  -0.1114  -0.953
6.372e+09  -1.259  0.1215  0.01359  -0.01427  0.02116  -0.000991  -0.3992  -0.8268
6.374e+09  -1.131  0.5473  0.007014  -0.02168  -0.01141  0.02699  -0.634  -0.6872
6.375e+09  -0.8911  0.9466  -0.0101  -0.02074  -0.02213  -0.0001906  -0.842  -0.4269
6.376e+09  -0.4665  1.2  -0.001844  -0.01131  0.02113  -0.02448  -0.9231  -0.06133
6.378e+09  -0.05632  1.339  0.02247  0.005842  0.02133  0.03693  -0.9361  0.2278
6.379e+09  0.3734  1.226  -0.02213  0.03426  0.03717  0.02083  -0.7841  0.5129
6.38e+09  0.819  0.9968  -0.01625  0.006914  -0.02491  -0.003651  -0.599  0.7432
6.381e+09  1.132  0.6754  0.03136  0.0214  -0.05118  -0.03177  -0.2543  0.9203
6.382e+09  1.339  0.231  0.02271  0.0245  -0.03301  -0.02618  0.07446  0.9589
6.384e+09  1.324  -0.2381  0.02451  0.01144  -0.03262  0.04611  0.3486  0.86
6.385e+09  1.181  -0.6923  0.04439  -0.02589  -0.008761  -0.0172  0.6497  0.6581
6.386e+09  0.8684  -1.118  -0.05481  -0.01487  0.01671  -0.02865  0.8246  0.4164
6.388e+09  0.4102  -1.358  0.03637  -0.009616  -0.04923  0.02718  0.9402  0.1034
6.389e+09  -0.06793  -1.405  0.0002223  0.03267  0.02544  -0.01077  0.9153  -0.2537
6.39e+09  -0.515  -1.317  0.02103  -0.007083  -0.02089  -0.002344  0.8225  -0.4992
6.391e+09  -1.004  -1.046  -0.03525  0.02398  -0.02855  0.02899  0.5838  -0.7574
6.392e+09  -1.328  -0.6677  -0.03904  0.01989  -0.0007917  -0.003136  0.2514  -0.8626
6.394e+09  -1.534  -0.145  0.001875  -0.0355  0.03512  0.005788  -0.006451  -0.935
6.395e+09  -1.458  0.4402  0.04482  0.01771  -0.08124  0.01091  -0.3474  -0.8575
6.396e+09  -1.296  0.969  0.002339  0.006449  0.01504  0.01843  -0.631  -0.6808
6.398e+09  -0.838  1.35  -0.009771  0.01582  -0.002348  0.06992  -0.8242  -0.4129
6.399e+09  -0.3559  1.581  -0.0281  0.009386  0.006412  -0.02502  -0.9068  -0.1055
6.4e+09  0.2603  1.598  0.01839  -0.01576  -0.03993  0.007824  -0.8557  0.1814
6.401e+09  0.793  1.401  0.01194  0.02186  -0.02844  0.0299  -0.8082  0.43
6.402e+09  1.258  1.095  -0.02875  -0.03983  0.002909  -0.02495  -0.5734  0.7369
6.404e+09  1.582  0.5754  0.01167  -0.02388  0.04336  0.02466  -0.3145  0.8714
6.405e+09  1.683  -0.04538  -0.02398  0.01707  -0.02839  0.01674  0.02499  0.9179
6.406e+09  1.571  -0.6842  0.03856  0.006464  -0.05302  0.01376  0.3271  0.8625
6.408e+09  1.277  -1.267  0.04206  -0.01603  0.001606  0.003016  0.6087  0.6887
6.409e+09  0.697  -1.62  -0.01  0.03227  0.03902  -0.0004417  0.7983  0.4962
6.41e+09  0.1117  -1.828  0.002823  -0.02347  -0.004208  7.556e-05  0.8503  0.1609
6.411e+09  -0.5264  -1.762  -9.94e-05  -0.02506  -0.02055  -0.02101  0.8827  -0.1538
6.412e+09  -1.193  -1.409  -0.01985  0.01045  0.02365  -0.009407  0.7777  -0.4436
6.414e+09  -1.692  -0.8768  -0.007645  0.02364  -0.01938  0.05987  0.592  -0.6614
6.415e+09  -1.99  -0.2209  -0.003533  -0.03246  -0.008873  -0.03065  0.298  -0.8259
6.416e+09  -1.863  0.4756  0.009245  -0.004894  0.03148  -0.02211  0.03467  -0.8795
6.418e+09  -1.627  1.244  0.03617  -0.04153  0.0199  -0.0305  -0.3035  -0.8177
6.419e+09  -1.07  1.735  -0.03411  -0.007972  0.03473  -0.0266  -0.4967  -0.6844
6.42e+09  -0.4313  2.047  0.005173  0.01668  -0.08637  0.02917  -0.7735  -0.4773
6.421e+09  0.3717  2.053  0.04636  0.002385  0.01313  0.03813  -0.8915  -0.1991
6.422e+09  1.134  1.778  0.02456  -0.003848  0.01256  -0.03427  -0.8864  0.1003
6.424e+09  1.729  1.24  0.03326  -0.03061  0.02359  0.02155  -0.8046  0.4299
6.425e+09  2.171  0.5663  -0.01957  -0.03595  0.01919  -0.001906  -0.6451  0.678
6.426e+09  2.234  -0.344  0.03674  0.01383  -0.01526  -0.0152  -0.338  0.8253
6.428e+09  1.886  -1.136  -0.02513  0.02859  -0.03933  0.01176  -0.03455  0.8845
6.429e+09  1.393  -1.813  0.009364  0.01204  0.01395  -0.06176  0.295  0.8414
6.43e+09  0.5905  -2.223  -0.02771  0.03305  0.0004435  -0.0102  0.5479  0.721
6.431e+09  -0.2917  -2.36  0.01623  -0.009161  0.0456  0.03703  0.7242  0.4924
6.432e+09  -1.17  -2.055  -0.02853  -0.01479  0.01324  0.04828  0.8818  0.2266
6.434e+09  -1.84  -1.461  -0.003016  0.0241  0.06036  0.03217  0.8772  -0.08511
6.435e+09  -2.242  -0.7109  -0.0153  0.02982  -0.0637  -0.001511  0.7786  -0.4149
6.436e+09  -2.409  0.2252  0.009396  -0.008792  0.04208  0.04279  0.5968  -0.5824
6.438e+09  -2.103  1.154  0.001887  -0.03458  0.05011  0.0605  0.3448  -0.8408
6.439e+09  -1.535  1.851  0.03551  -0.01832  -0.08473  0.02323  0.02334  -0.8385
6.44e+09  -0.7579  2.267  -0.01293  0.009646  0.04537  -0.04828  -0.182  -0.8797
6.441e+09  0.1901  2.402  0.0261  -0.03293  0.02607  0.008513  -0.4955  -0.6534
6.442e+09  1.137  2.156  -0.02037  0.003555  -0.02572  0.02579  -0.6866  -0.4922
6.444e+09  1.809  1.587  0.03075  0.01927  -0.05847  -0.01606  -0.8214  -0.259
6.445e+09  2.262  0.7573  -0.008664  0.003118  0.01933  0.0307  -0.8261  0.06515
6.446e+09  2.384  -0.1637  0.001745  -0.01097  -0.01207  -0.03546  -0.7687  0.3384
6.448e+09  2.176  -1.054  -0.004861  0.0008272  -0.007155  -0.005952  -0.5768  0.5678
6.449e+09  1.633  -1.706  0.03299  0.0135  -0.01204  0.01928  -0.3221  0.7277
6.45e+09  0.7861  -2.156  0.03334  0.009799  0.03267  -0.04611  -0.03157  0.8379
6.451e+09  -0.03581  -2.311  0.04936  -0.005425  0.032  -0.03722  0.2555  0.8095
6.452e+09  -0.9087  -2.036  -0.02833  -0.01314  0.01031  0.01303  0.5014  0.692
6.454e+09  -1.599  -1.666  0.0004918  0.00658  -0.0317  -0.03397  0.6807  0.4307
6.455e+09  -2.026  -0.8834  0.05861  0.001954  -0.03123  0.01438  0.8062  0.2422
6.456e+09  -2.251  -0.0143  -0.03044  0.01109  0.01076  0.002891  0.8039  -0.1028
6.458e+09  -2.025  0.7142  0.002568  -0.00623  0.007675  -0.05491  0.738  -0.3455
6.459e+09  -1.643  1.48  0.03737  -0.0009414  -0.002638  0.001479  0.608  -0.5502
6.46e+09  -0.9993  1.893  -0.01016  -0.008117  -0.001042  -0.01757  0.3408  -0.7549
6.461e+09  -0.216  2.139  -0.03048  0.02188  -0.01908  0.02239  0.0642  -0.845
6.462e+09  0.6004  2.05  -0.008022  0.01272  0.05351  -0.01242  -0.2122  -0.7813
6.464e+09  1.239  1.594  -0.03545  -0.005948  -0.004256  -0.009815  -0.4818  -0.6296
6.465e+09  1.81  1.02  0.05197  -0.00331  -0.04235  0.02878  -0.6751  -0.4704
6.466e+09  2.051  0.4324  -0.05169  -0.01264  -0.02859  -0.01668  -0.789  -0.2116
6.468e+09  1.972  -0.3824  0.01285  -0.003469  0.03684  -0.04332  -0.7981  0.09724
6.469e+09  1.673  -1.124  -0.0356  -0.03033  -0.007062  -0.002823  -0.6917  0.3682
6.47e+09  1.191  -1.593  0.01508  -0.003786  -0.01724  0.06297  -0.5439  0.6113
6.471e+09  0.579  -1.892  0.01759  0.02082  -0.0292  0.05493  -0.3849  0.7129
6.472e+09  -0.1212  -1.957  -0.003631  -0.01262  -0.04419  0.04747  -0.07969  0.7702
6.474e+09  -0.9104  -1.736  -0.007337  -0.03676  -0.03091  6.017e-05  0.2558  0.7644
6.475e+09  -1.372  -1.235  0.02744  0.02452  -0.02734  0.01793  0.4679  0.685
6.476e+09  -1.728  -0.6466  -0.04493  -0.02699  -0.03013  -0.01095  0.6619  0.4536
6.478e+09  -1.875  0.0285  0.0333  0.05045  -0.0008734  0.04061  0.7584  0.1731
6.479e+09  -1.733  0.6494  0.002482  0.01477  -0.002473  0.06062  0.7829  -0.06967
6.48e+09  -1.348  1.229  0.01062  0.007139  -0.06231  0.01809  0.6987  -0.328
6.481e+09  -0.8101  1.581  0.002126  0.00643  -0.01391  0.01041  0.5651  -0.5719
6.482e+09  -0.189  1.769  -0.02468  0.01725  -0.04574  -0.002864  0.3448  -0.7074
6.484e+09  0.4603  1.755  -0.004124  0.005216  0.01622  -0.03007  0.06307  -0.8119
6.485e+09  1.061  1.482  -0.004674  -0.01573  0.01633  0.04286  -0.2198  -0.7725
6.486e+09  1.444  0.958  -0.008029  0.002498  0.001163  -0.05324  -0.4461  -0.6291
6.488e+09  1.372  1.052  0.01045  -0.02967  0.7501  -0.1906  -0.6743  -0.4538
6.489e+09  1.769  -0.224  0.0205  -0.0365  0.02233  0.07082  -0.7701  -0.1439
6.49e+09  1.482  -0.8795  0.01147  -0.001751  0.04519  -0.03732  -0.7398  0.1265
6.491e+09  1.15  -1.261  -0.01113  0.0106  0.01899  0.01196  -0.6879  0.3437
6.492e+09  0.5896  -1.621  -0.002944  -0.01838  -0.03516  0.005449  -0.5014  0.5499
6.494e+09  0.01653  -1.757  -0.02126  0.0001948  -0.06341  -0.131  -0.2995  0.7035
6.495e+09  -0.5905  -1.576  0.006925  -0.01929  0.05786  -0.04492  -0.04787  0.8004
6.496e+09  -1.082  -1.271  -0.007129  -0.003493  0.03658  0.02282  0.2237  0.7081
6.498e+09  -1.495  -0.8209  0.0241  -0.006256  0.001809  -0.009047  0.4483  0.6223
6.499e+09  -1.696  -0.2235  -0.009641  0.04046  -0.03799  0.0008197  0.648  0.4224
6.5e+09  -0.1304  0.3633  0.00658  -0.02435  0.02905  -0.04931  0.7572  0.114
6.501e+09  -1.356  0.9346  0.03635  0.006268  -0.07357  -0.076  0.7734  -0.1436
6.502e+09  -1.046  1.41  0.01007  0.01149  -0.02878  -0.02021  0.6734  -0.3379
6.504e+09  -0.4498  1.677  0.007646  -0.01594  0.006204  -0.03655  0.5159  -0.5448
6.505e+09  0.1699  1.722  -0.006431  0.001366  0.01968  -0.02142  0.3109  -0.7469
6.506e+09  0.7838  1.461  -0.03655  0.006063  0.007943  0.0005552  0.03561  -0.7595
6.508e+09  1.275  1.17  0.01721  0.002025  -0.07056  0.03644  -0.2636  -0.7321
6.509e+09  1.538  0.7083  -2.016e-05  -0.007345  0.03753  -0.04297  -0.4816  -0.5628
6.51e+09  1.706  0.0459  0.04505  0.01712  -0.04747  -0.03269  -0.6365  -0.342
6.511e+09  1.687  -0.534  -0.01718  -0.01689  0.04032  -0.07969  -0.7569  -0.1371
6.512e+09  1.353  -1.021  0.04159  -0.00728  -0.07252  -0.0438  -0.7451  0.167
6.514e+09  0.9068  -1.536  -0.01833  0.02241  0.008206  -0.01677  -0.6777  0.3763
6.515e+09  0.3643  -1.667  -0.01901  0.0005694  -0.01291  -0.05139  -0.4981  0.5761
6.516e+09  -0.2711  -1.731  -0.0171  -0.02187  0.05069  -0.01786  -0.2189  0.6804
6.518e+09  -0.9399  -1.595  0.003328  -0.008817  -0.004734  0.01544  0.005587  0.7452
6.519e+09  -1.414  -1.152  0.002684  -0.006635  0.002938  -0.001691  0.2718  0.7045
6.52e+09  -1.719  -0.5786  -0.01231  -0.02216  0.05142  0.02669  0.4912  0.5101
6.521e+09  -1.759  0.06463  -0.005256  0.007476  0.06012  0.06579  0.676  0.3537
6.522e+09  -1.661  0.7892  -0.03173  -0.02012  0.03232  0.021  0.7509  0.107
6.524e+09  -1.345  1.263  -0.01325  0.02536  0.03624  0.02136  0.7018  -0.1397
6.525e+09  -0.816  1.691  0.006915  -0.02541  -0.000827  0.01106  0.615  -0.3849
6.526e+09  -0.1516  1.81  0.02418  -0.02428  -0.01529  -0.02129  0.454  -0.5985
6.528e+09  0.5156  1.839  -0.009908  0.006609  0.03971  -0.03382  0.1439  -0.6884
6.529e+09  1.081  1.523  0.004809  0.01032  0.06429  -0.03242  -0.02648  -0.7133
6.53e+09  1.664  0.9942  0.01747  -0.02085  0.005286  0.002079  -0.311  -0.6522
6.531e+09  1.908  0.3412  -0.009875  0.02399  0.01424  -0.0008191  -0.5042  -0.5105
6.532e+09  1.983  -0.3136  0.02078  -0.0243  -0.003757  0.001272  -0.6013  -0.2992
6.534e+09  1.738  -1.093  -0.0008149  -0.003898  0.01778  0.01226  -0.6148  -0.09648
6.535e+09  1.211  -1.578  -0.02284  -0.03821  -0.06769  -0.03938  -0.6451  0.119
6.536e+09  0.6134  -1.947  -0.009737  -0.02583  -0.04059  -0.02975  -0.5567  0.2786
6.538e+09  -0.1207  -2.079  -0.01941  -0.02171  0.06593  0.04639  -0.4136  0.4575
6.539e+09  -0.8776  -1.888  -0.006571  0.02738  0.01614  0.0348  -0.2661  0.6246
6.54e+09  -1.529  -1.482  -0.008159  0.0417  0.0447  -0.09597  -0.06614  0.6931
6.541e+09  -1.997  -0.9227  -0.03389  0.05311  -0.01311  -0.03718  0.1829  0.6911
6.542e+09  -2.145  -0.01429  0.01753  0.008039  0.01698  -0.03163  0.4129  0.5709
6.544e+09  -1.98  0.7998  -0.01772  -0.008813  0.004008  -0.0358  0.5741  0.3848
6.545e+09  -1.701  1.49  0.03564  0.02635  -0.02762  -0.02312  0.711  0.1803
6.546e+09  -0.9699  1.98  -0.01873  -0.02743  -0.002072  -0.05069  0.7164  -0.04637
6.548e+09  -0.1956  2.296  -0.001868  -0.02238  -0.02567  0.06101  0.6591  -0.3088
6.549e+09  0.5932  2.211  -0.02289  -0.0273  0.01163  0.002393  0.4674  -0.5296
6.55e+09  1.376  1.831  -0.004793  -0.018  -0.03475  -0.03175  0.2668  -0.6846
6.551e+09  2.023  1.192  -0.001472  -0.01951  0.03058  -0.006137  0.04767  -0.7001
6.552e+09  2.346  0.4187  0.02509  0.02051  -0.02643  0.02372  -0.23  -0.7049
6.554e+09  2.244  -0.4813  -0.004421  -0.02295  0.04836  -0.01282  -0.4356  -0.5949
