# Hz S RI R 50
6.25e+09  0.04356  0.9425  -0.003596  8.827e-05  -0.003311  0.001332  0.1475  0.4783
6.251e+09  0.3736  0.9064  -0.02823  -0.00188  -0.004839  -0.05116  0.3898  0.4054
6.252e+09  0.6123  0.6801  -0.01249  -0.0006808  -0.05  0.006717  0.546  0.2256
6.254e+09  0.8183  0.4443  -0.002511  -0.007374  0.01665  0.04718  0.5906  0.02111
6.255e+09  0.8867  0.09343  0.01557  0.01202  0.0358  0.05673  0.6111  -0.2483
6.256e+09  0.9085  -0.1689  0.006492  -0.02517  0.02368  0.01263  0.4711  -0.4695
6.258e+09  0.7905  -0.5005  0.00644  -0.018  0.04702  0.03119  0.2978  -0.5978
6.259e+09  0.5302  -0.7862  0.01054  -0.01816  0.003818  0.003008  0.0458  -0.681
6.26e+09  0.2804  -0.8624  0.0001899  0.002488  0.00314  0.04887  -0.1939  -0.6953
6.261e+09  -0.02601  -0.9373  0.0004056  -0.01518  0.02025  -0.03324  -0.4692  -0.5307
6.262e+09  -0.3552  -0.8438  0.02277  -0.05582  0.01424  -0.009236  -0.6186  -0.3491
6.264e+09  -0.6021  -0.6616  0.003347  0.001454  -0.05003  -0.008876  -0.7325  -0.07064
6.265e+09  -0.8331  -0.425  -0.02154  0.01733  -0.01377  -0.002514  -0.6815  0.1684
6.266e+09  -0.918  -0.1285  -0.00738  0.04519  0.01464  -0.02625  -0.6156  0.4199
6.268e+09  -0.9087  0.2086  -0.01682  -0.01664  -0.09846  0.03064  -0.4357  0.5838
6.269e+09  -0.7425  0.4799  -0.02706  0.001617  0.008321  0.03112  -0.1896  0.6979
6.27e+09  -0.5156  0.7082  -0.01334  -0.03814  0.03467  0.01336  0.05678  0.7155
6.271e+09  -0.2037  0.9028  0.03175  0.01489  -0.01308  -0.005789  0.3253  0.6583
6.272e+09  0.06493  0.915  0.009942  0.000219  -0.05552  0.01043  0.5144  0.5203
6.274e+09  0.3489  0.8124  -0.005713  0.008005  -0.04761  -0.02327  0.7172  0.3062
6.275e+09  0.6118  0.6791  -0.01148  -0.0164  -0.01642  0.0439  0.747  0.04131
6.276e+09  0.8461  0.3659  -0.01883  0.01997  -0.01496  -0.03821  0.726  -0.2288
6.278e+09  0.9572  0.03366  0.01057  0.01004  -0.02939  0.006131  0.6184  -0.4539
6.279e+09  0.8664  -0.244  0.04965  0.005529  -0.002054  -0.01131  0.4211  -0.6635
6.28e+09  0.8072  -0.5104  -0.005446  0.003277  -0.04307  -0.01831  0.1417  -0.7665
6.281e+09  0.4916  -0.7671  -0.009666  -0.006484  0.02825  -0.01771  -0.07995  -0.7517
6.282e+09  0.189  -0.8695  0.01521  -0.01679  0.01227  -0.01197  -0.3781  -0.6789
6.284e+09  -0.1413  -0.9246  0.02227  -0.002424  -0.01281  -0.02618  -0.5748  -0.5357
6.285e+09  -0.4734  -0.8333  -0.02047  0.00771  -0.004703  0.003217  -0.7569  -0.2998
6.286e+09  -0.6832  -0.6315  -0.01139  -0.002787  0.01526  -0.03443  -0.8162  -0.04557
6.288e+09  -0.8653  -0.32  0.01846  -0.006345  0.002715  0.01648  -0.7669  0.2651
6.289e+09  -0.8892  -0.02604  -0.01014  0.007765  -0.004004  -0.0165  -0.6326  0.5184
6.29e+09  -0.8267  0.3008  -0.002568  -0.0214  0.05804  -0.01035  -0.4346  0.707
6.291e+09  -0.722  0.6374  -0.0078  -0.01471  -0.004808  0.07545  -0.1234  0.7939
6.292e+09  -0.4779  0.8007  0.005625  -0.02121  -0.02398  0.02824  0.131  0.8062
6.294e+09  -0.1245  0.9605  0.007363  -0.01794  0.007249  0.01392  0.3912  0.7292
6.295e+09  0.1491  0.9299  0.01289  -0.01428  -0.04443  -0.03206  0.6169  0.507
6.296e+09  0.4517  0.8058  -0.01012  -0.01428  -0.04119  0.006613  0.7594  0.2734
6.298e+09  0.7418  0.6127  -0.003009  0.00598  -0.006839  -0.01878  0.8451  0.01688
6.299e+09  0.86  0.2909  -0.001661  -0.01805  0.08022  -0.008564  0.7813  -0.3007
6.3e+09  0.9617  -0.01105  -0.02891  0.00973  -0.004928  -0.01461  0.6459  -0.5388
6.301e+09  0.9104  -0.4229  -0.0238  0.02449  -0.01664  0.02258  0.4343  -0.7391
6.302e+09  0.7368  -0.5903  -0.0001601  -0.01829  -0.04232  -0.02115  0.1421  -0.8427
6.304e+09  0.4339  -0.8623  -0.005291  -0.02421  -0.006586  0.0006501  -0.1357  -0.8635
6.305e+09  0.1286  -0.9461  0.001147  0.01163  -0.05811  -0.01715  -0.4175  -0.7343
6.306e+09  -0.2174  -0.9634  -0.009246  -0.01722  0.03947  0.001104  -0.6366  -0.538
6.308e+09  -0.5637  -0.8449  0.01489  -0.02277  -0.03289  0.03344  -0.8019  -0.2809
6.309e+09  -0.7575  -0.5501  -0.0303  -0.006961  0.003995  -0.01239  -0.8844  -0.003476
6.31e+09  -0.9604  -0.3034  -0.03835  -0.01339  0.01486  -0.02207  -0.8108  0.2969
6.311e+09  -0.9775  0.1155  0.03125  0.01166  -0.001371  -0.04514  -0.6586  0.573
6.312e+09  -0.914  0.4083  0.04514  -0.01352  -0.002156  0.012  -0.4466  0.7825
6.314e+09  -0.6788  0.7008  -0.01134  -0.02253  0.01919  0.01589  -0.171  0.8883
6.315e+09  -0.3987  0.9173  -0.002673  -0.04936  -0.004389  -0.01515  0.1501  0.8622
6.316e+09  -0.07799  0.9911  0.02975  -0.0284  0.009467  -0.01345  0.4322  0.7802
6.318e+09  0.2868  0.9843  0.0005071  -0.01898  0.01255  0.02211  0.6465  0.5709
6.319e+09  0.621  0.7998  0.0129  0.01191  -0.006357  -0.03449  0.8485  0.3352
6.32e+09  0.8462  0.5326  -0.006451  0.007075  0.005172  0.0207  0.8589  0.04979
6.321e+09  0.9858  0.233  0.01009  -0.008855  -0.02091  -0.02476  0.8336  -0.2745
6.322e+09  1.033  -0.1036  -0.01449  0.03366  -0.0008903  0.02648  0.6862  -0.5487
6.324e+09  0.9002  -0.5021  0.00962  -0.01327  0.007272  0.01074  0.4715  -0.778
6.325e+09  0.6579  -0.795  -0.009801  0.01132  0.002169  -0.04775  0.142  -0.914
6.326e+09  0.3422  -0.9886  0.002129  -0.002253  0.04795  -0.004587  -0.1431  -0.9227
6.328e+09  0.01673  -1.096  -0.0141  0.03172  0.04226  0.02915  -0.426  -0.7903
6.329e+09  -0.3958  -0.9961  0.008159  -0.005691  0.01939  0.01486  -0.7006  -0.6061
6.33e+09  -0.7582  -0.7907  0.002798  -0.0221  0.02633  0.01074  -0.8334  -0.3587
6.331e+09  -0.9264  -0.5218  -0.01165  -0.04727  0.01449  -0.03025  -0.9139  -0.01066
6.332e+09  -1.025  -0.186  0.003832  -0.02425  -0.02037  -0.03232  -0.8482  0.3097
6.334e+09  -1.053  0.2498  -0.002795  -0.004088  0.02149  0.007053  -0.7299  0.5723
6.335e+09  -0.9058  0.6082  -0.02035  -0.02812  -0.04785  -0.004513  -0.4705  0.7956
6.336e+09  -0.6741  0.9366  -0.01239  -0.006543  0.04197  0.03497  -0.1641  0.8989
6.338e+09  -0.3558  1.046  -0.007832  -0.006108  0.02489  0.02351  0.1347  0.8966
6.339e+09  0.1009  1.127  0.004316  -0.00849  0.01056  -0.01709  0.4429  0.8323
6.34e+09  0.4804  1.047  -0.05078  -7.773e-06  0.01239  0.01814  0.6793  0.6305
6.341e+09  0.8184  0.7717  0.003512  0.008623  0.02663  0.02979  0.8388  0.3264
6.342e+09  1.045  0.3941  -0.003384  -0.005549  0.05355  0.01083  0.9017  0.05327
6.344e+09  1.141  0.03331  -0.007044  0.01183  -0.02962  0.01761  0.9048  -0.3003
6.345e+09  1.037  -0.3588  0.03205  0.0006169  -0.01027  0.01585  0.7365  -0.5677
6.346e+09  0.9112  -0.6854  0.01698  -0.03839  0.01326  -0.02501  0.4934  -0.782
6.348e+09  0.6174  -1.026  0.01399  0.01217  0.03439  0.01369  0.25  -0.9092
6.349e+09  0.1613  -1.096  -0.03194  0.0272  -0.02753  -0.02194  -0.1064  -0.9461
6.35e+09  -0.1622  -1.149  -0.01276  -0.009341  0.05866  -0.0007194  -0.4712  -0.8416
6.351e+09  -0.6036  -0.9179  -0.00639  -0.01127  0.01963  -0.03818  -0.671  -0.6297
6.352e+09  -0.8952  -0.6974  -0.01957  0.01588  0.005561  -0.01567  -0.8539  -0.3897
6.354e+09  -1.143  -0.3916  0.01032  0.008304  0.01387  0.02606  -0.9455  -0.09812
6.355e+09  -1.145  0.04485  -0.007541  -0.01186  -0.05555  0.01567  -0.8753  0.2312
6.356e+09  -1.101  0.48  -0.002933  0.02784  0.004148  -0.0209  -0.781  0.5587
6.358e+09  -0.8199  0.8574  0.006476  0.00399  -0.01439  -0.05745  -0.5564  0.7739
6.359e+09  -0.4461  1.084  0.00477  0.007483  -0.004143  -0.0219  -0.2045  0.897
6.36e+09  -0.09859  1.179  0.008672  0.01843  -0.04439  -0.005306  0.1312  0.9592
6.361e+09  0.2978  1.142  0.01916  -0.003627  0.03761  -0.007023  0.4348  0.8804
6.362e+09  0.7344  0.9529  0.001696  -0.003646  -0.01815  0.04331  0.6681  0.6745
6.364e+09  1.034  0.5984  -0.002258  0.03743  0.01647  0.01803  0.8481  0.3854
6.365e+09  1.149  0.2407  -0.02846  0.01085  0.03131  0.03067  0.9541  0.0888
6.366e+09  1.163  -0.1604  0.004689  -0.0009166  -0.002609  -0.008497  0.9096  -0.2212
6.368e+09  1.102  -0.5803  -0.01997  -0.0035  -0.0004049  0.006517  0.7785  -0.5632
6.369e+09  0.7684  -0.8906  -0.01513  -0.04067  0.008101  0.01319  0.5365  -0.7547
6.37e+09  0.3228  -1.135  0.0108  -0.008855  0.008887  0.004443  0.2005  -0.9034
6.371e+09  -0.03872  -1.161  -0.002096  -0.01662  -0.02181  0.03646  -0.06305  -0.9264
6.372e+09  -0.4434  -1.097  0.01387  -0.01512  0.007783  -0.05616  -0.4381  -0.8681
6.374e+09  -0.869  -0.8497  0.01918  0.02125  -0.001751  0.01612  -0.6578  -0.6603
6.375e+09  -1.082  -0.5037  0.001911  0.01449  0.02277  0.002872  -0.8399  -0.388
6.376e+09  -1.165  -0.1121  -0.002393  0.009919  0.01282  -0.01127  -0.9632  -0.1022
6.378e+09  -1.135  0.2155  -0.0004634  0.009348  -0.04216  -0.03309  -0.9187  0.2089
6.379e+09  -0.9622  0.6508  -0.004139  0.01882  0.00382  -0.01842  -0.7703  0.5334
6.38e+09  -0.6287  0.9645  -0.02634  -0.01011  -0.02654  0.0008573  -0.5549  0.7847
6.381e+09  -0.3073  1.131  -0.04313  0.01827  0.01154  -0.0378  -0.2797  0.8771
6.382e+09  0.1758  1.197  0.04457  -0.00435  -0.01403  0.0078  0.08171  0.9592
6.384e+09  0.5783  1.053  0.0155  0.05299  0.002472  0.008355  0.3644  0.8829
6.385e+09  0.8361  0.786  0.02043  -0.04244  0.007021  -0.02315  0.6776  0.7057
6.386e+09  1.099  0.4252  0.04156  0.01071  -0.01403  -0.02381  0.8448  0.4617
6.388e+09  1.152  0.06716  0.02228  0.04808  -0.04327  -0.0321  0.9103  0.1185
6.389e+09  1.093  -0.3553  0.02698  0.001413  0.006884  0.02838  0.8781  -0.2548
6.39e+09  0.9056  -0.7308  0.02778  -0.0183  -0.03209  -0.002989  0.8005  -0.5104
6.391e+09  0.606  -1.024  0.02768  -0.00821  0.04483  -0.04955  0.5992  -0.7511
6.392e+09  0.1931  -1.133  -0.009951  -0.01008  -0.05141  -0.02343  0.2759  -0.9031
6.394e+09  -0.189  -1.152  -0.02599  -0.02931  0.007416  -0.01545  -0.04286  -0.9425
6.395e+09  -0.5858  -0.9753  -0.03518  -0.01368  -0.03927  -0.005005  -0.3306  -0.8186
6.396e+09  -0.8758  -0.7248  -0.003504  -0.01754  -0.01276  -0.03771  -0.5789  -0.6888
6.398e+09  -1.095  -0.4035  0.02934  -0.006296  0.0002853  0.03874  -0.8493  -0.4503
6.399e+09  -1.109  0.04508  -0.049  0.006271  -0.005349  0.03602  -0.8874  -0.201
6.4e+09  -1.048  0.4026  -0.009321  0.03273  -0.06288  -0.008999  -0.9066  0.1732
6.401e+09  -0.8711  0.7695  -0.00876  0.003497  -0.02673  0.06796  -0.783  0.4885
6.402e+09  -0.4807  1.016  0.01282  -0.06013  0.02777  0.002637  -0.5938  0.6851
6.404e+09  -0.153  1.11  -0.004383  -0.01278  0.0103  -0.02289  -0.3391  0.9122
6.405e+09  0.2507  1.132  0.002053  0.04104  -0.01501  -0.01486  0.02094  0.9244
6.406e+09  0.5968  0.935  -0.009587  0.02702  0.01207  0.006225  0.3182  0.8724
6.408e+09  0.88  0.6851  0.02906  -0.02604  0.02131  -0.02923  0.6179  0.7014
6.409e+09  1.087  0.367  -0.0273  -0.05159  0.01586  -0.01525  0.79  0.458
6.41e+09  1.124  -0.05858  -0.02585  -0.001233  -0.007617  0.01274  0.8691  0.1467
6.411e+09  1.012  -0.4668  -0.01157  0.02667  0.03809  0.0001156  0.86  -0.156
6.412e+09  0.8455  -0.7872  -0.01268  0.02935  0.02338  -0.01171  0.8196  -0.4546
6.414e+09  0.4638  -1.013  0.0142  0.03043  -0.01922  0.02982  0.595  -0.6559
6.415e+09  0.1593  -1.131  0.008017  -0.02787  -0.03764  -0.008463  0.3475  -0.8536
6.416e+09  -0.3165  -1.098  -0.00422  0.007473  -0.02734  0.007508  -0.02845  -0.8704
6.418e+09  -0.7057  -0.9357  0.01527  -0.01145  0.03091  -0.01911  -0.2771  -0.8188
6.419e+09  -0.9391  -0.6823  0.006861  -0.05245  0.01484  -0.02197  -0.5862  -0.6872
6.42e+09  -1.126  -0.2914  -0.01307  0.003574  0.00874  0.02276  -0.7933  -0.5334
6.421e+09  -1.102  0.09671  -0.002217  0.02297  0.02508  0.004453  -0.833  -0.2012
6.422e+09  -1.004  0.4962  -0.03886  -0.03262  -0.03123  -0.005557  -0.8388  0.1423
6.424e+09  -0.8087  0.7944  0.03543  0.01566  -0.003731  0.00902  -0.791  0.3999
6.425e+09  -0.4465  1.071  -0.0404  -0.001973  -0.003215  -0.0278  -0.5983  0.6301
6.426e+09  -0.008936  1.13  -0.03324  -0.0384  -0.0842  0.004286  -0.3305  0.7986
6.428e+09  0.3496  1.078  -0.02742  0.01739  0.03239  -0.01141  -0.05658  0.9048
6.429e+09  0.7102  0.9114  0.02136  -0.0001955  -0.003507  -0.04518  0.279  0.8161
6.43e+09  0.991  0.5906  0.03276  -0.008185  -0.05348  -0.01927  0.5143  0.6966
6.431e+09  1.133  0.2163  -0.04713  -0.01288  0.007049  -0.002653  0.7234  0.4675
6.432e+09  1.172  -0.2221  0.007714  -0.01184  -0.01326  0.01271  0.9062  0.2037
6.434e+09  1.028  -0.5691  -0.02625  -0.01008  -0.007343  -0.009308  0.8715  -0.08068
6.435e+09  0.7727  -0.8741  -0.02166  0.01191  0.04047  0.0161  0.7928  -0.3466
6.436e+09  0.3881  -1.092  -0.0207  0.04031  0.008501  -0.08772  0.5755  -0.632
6.438e+09  0.01968  -1.124  0.01063  0.02681  -0.009335  -0.008682  0.3058  -0.8034
6.439e+09  -0.4359  -1.149  0.04413  -0.0009054  -0.007607  -0.03936  0.06239  -0.8702
6.44e+09  -0.7294  -0.9044  0.0226  0.01422  0.004004  0.04986  -0.2606  -0.8406
6.441e+09  -0.9982  -0.5478  0.04373  0.01481  0.02989  0.03683  -0.4728  -0.6715
6.442e+09  -1.22  -0.193  -0.008115  0.03067  -0.002899  -0.01609  -0.692  -0.444
6.444e+09  -1.188  0.2338  -0.009788  -0.004061  -0.04272  0.03565  -0.7992  -0.1979
6.445e+09  -1.037  0.6834  0.0199  -0.05112  0.03242  0.004716  -0.8679  0.04268
6.446e+09  -0.7216  0.9399  0.01845  0.01755  0.03682  0.006542  -0.7901  0.3705
6.448e+09  -0.3313  1.214  -0.005603  -0.03025  0.03554  -0.03766  -0.5921  0.6316
6.449e+09  0.09824  1.264  -0.03638  -0.004538  -0.008809  0.01421  -0.3912  0.7471
6.45e+09  0.532  1.102  -0.01847  -0.02235  0.01374  -0.02531  -0.09876  0.8271
6.451e+09  0.9043  0.9174  0.002238  0.00085  0.009213  0.05801  0.2312  0.8345
6.452e+09  1.162  0.4925  0.01214  0.01186  0.003541  0.009498  0.4966  0.6797
6.454e+09  1.258  0.148  0.01547  -0.02712  -0.0593  -0.02745  0.6584  0.4896
6.455e+09  1.204  -0.3589  -0.0003055  0.0197  -0.04002  0.006191  0.7853  0.1909
6.456e+09  1.041  -0.8251  -0.0004115  -0.002231  0.01757  0.01351  0.8012  -0.1193
6.458e+09  0.7344  -1.105  -0.05523  0.00383  0.005079  0.0009778  0.7392  -0.3273
6.459e+09  0.2445  -1.228  0.06346  -0.02794  0.05425  -0.005367  0.5482  -0.572
6.46e+09  -0.217  -1.317  0.03572  -0.03752  -0.03829  0.03307  0.3495  -0.7311
6.461e+09  -0.6231  -1.123  0.04466  0.04897  0.03665  0.04112  0.07092  -0.8038
6.462e+09  -0.9899  -0.8381  -0.02336  0.02143  -0.03231  0.008571  -0.2205  -0.8092
6.464e+09  -1.249  -0.3951  -0.001302  0.02126  0.02221  -0.02906  -0.4696  -0.6903
6.465e+09  -1.323  0.00634  0.008027  0.00735  -0.04256  -0.03253  -0.6976  -0.5072
6.466e+09  -1.269  0.5187  -0.01202  -0.00865  0.04457  -0.02536  -0.7352  -0.2635
6.468e+09  -1  0.9003  -0.006899  -0.003036  0.01467  0.00324  -0.7935  0.07239
6.469e+09  -0.5561  1.216  -0.005148  -0.02232  -0.004094  0.05733  -0.7471  0.3415
6.47e+09  -0.13  1.311  0.0187  0.05486  -0.02402  0.05929  -0.5726  0.5837
6.471e+09  0.354  1.308  -0.007474  0.01425  0.01025  0.04377  -0.3386  0.7039
6.472e+09  0.8372  1.045  0.02343  0.01933  0.02428  0.05365  -0.06788  0.7935
6.474e+09  1.147  0.7299  -0.03587  -0.01922  0.03346  -0.02542  0.2276  0.7236
6.475e+09  1.355  0.2648  -0.003384  -0.01417  -0.004008  0.03675  0.4627  0.6561
6.476e+09  1.381  -0.2083  -0.02058  0.01574  0.01831  -0.03329  0.6408  0.4445
6.478e+09  1.198  -0.7288  -0.009255  -0.0204  -0.01201  -0.02617  0.7409  0.2189
6.479e+09  0.8415  -1.124  -0.002432  -0.01654  0.03596  -0.04233  0.7778  -0.1189
6.48e+09  0.4372  -1.302  -0.05613  -0.01516  -0.04014  0.001559  0.7052  -0.3155
6.481e+09  -0.09965  -1.393  -0.01106  0.005592  0.032  0.006721  0.5576  -0.5691
6.482e+09  -0.6867  -1.283  0.03907  -0.0127  -0.004572  0.03766  0.302  -0.7461
6.484e+09  -1.046  -0.9765  -0.0026  -0.01824  0.05887  0.003394  0.07763  -0.8031
6.485e+09  -1.354  -0.5351  0.0178  0.03129  0.03752  -0.03083  -0.2338  -0.7445
6.486e+09  -1.505  -0.01836  -0.003242  -0.03197  -0.04731  0.01675  -0.4195  -0.6618
6.488e+09  -1.043  -0.1649  0.01788  0.01854  0.6972  -0.2361  -0.6314  -0.4215
6.489e+09  -1.071  0.9727  -0.001401  -0.006595  -0.01451  -0.00701  -0.7667  -0.2067
6.49e+09  -0.6412  1.299  -0.07428  -0.02284  0.02883  0.0337  -0.7689  0.07291
6.491e+09  -0.1471  1.468  0.0159  0.02648  -0.02615  0.03666  -0.7142  0.3256
6.492e+09  0.3494  1.459  0.01295  0.001816  0.002144  -0.08681  -0.5401  0.5675
6.494e+09  0.9518  1.131  0.02471  0.001857  -0.04545  -0.1335  -0.2511  0.6819
6.495e+09  1.272  0.7871  0.01643  -0.01424  0.003394  -0.01148  -0.08173  0.8187
6.496e+09  1.438  0.291  -0.01071  0.005203  0.01309  0.0252  0.2445  0.7328
6.498e+09  1.424  -0.3129  0.02283  -0.02026  0.03093  0.01794  0.4513  0.6388
6.499e+09  1.195  -0.7668  0.03225  0.03099  0.02229  0.04636  0.6564  0.4204
6.5e+09  -0.2358  -1.239  0.002411  -0.02541  0.03891  0.06902  0.7526  0.1926
6.501e+09  0.3774  -1.376  0.007664  0.01415  0.01292  -0.006615  0.7635  -0.09618
6.502e+09  -0.1865  -1.417  0.007635  -0.03348  0.01076  -0.006473  0.6941  -0.3688
6.504e+09  -0.6349  -1.253  -0.02449  0.0332  -0.01665  0.001167  0.5321  -0.5372
6.505e+09  -1.022  -0.929  0.008813  0.00842  -0.026  -0.0544  0.2625  -0.7078
6.506e+09  -1.317  -0.4684  -0.01104  -0.02572  0.01766  0.02444  0.02809  -0.7665
6.508e+09  -1.406  0.03019  -0.02354  0.0008215  0.02375  -0.04027  -0.2489  -0.7399
6.509e+09  -1.275  0.5704  -0.01037  -0.007693  -0.0363  -0.007621  -0.4963  -0.589
6.51e+09  -0.9738  1.004  -0.0441  -0.03273  0.01715  -0.01588  -0.6818  -0.3839
6.511e+09  -0.5206  1.278  0.02788  0.02264  -0.04208  0.02412  -0.7421  -0.1615
6.512e+09  -0.06314  1.365  0.04653  0.0274  0.0002134  0.03203  -0.7709  0.09495
6.514e+09  0.4135  1.309  -0.006459  -0.0141  0.04529  0.0402  -0.675  0.4128
6.515e+09  0.8482  1.028  0.002286  0.009684  -0.01866  0.05014  -0.4668  0.5531
6.516e+09  1.174  0.6978  0.01435  -0.001004  -0.03701  0.01157  -0.2721  0.7043
6.518e+09  1.329  0.2104  -0.00785  -0.002195  0.03852  0.03179  0.02382  0.7788
6.519e+09  1.289  -0.2802  0.01766  0.02172  -0.03481  0.03474  0.2767  0.6842
6.52e+09  1.15  -0.7189  -0.01468  -0.01714  -0.008456  0.01299  0.5161  0.5641
6.521e+09  0.7214  -1.09  0.03038  -0.01757  -0.002046  0.04111  0.6701  0.3159
6.522e+09  0.3278  -1.249  0.003852  0.002031  -0.008321  -0.02484  0.7347  0.0903
6.524e+09  -0.1011  -1.278  0.0004677  0.01723  -0.01588  -0.01744  0.7249  -0.1423
6.525e+09  -0.6284  -1.102  0.02286  0.01949  -0.02273  -0.03122  0.6239  -0.4399
6.526e+09  -0.9506  -0.7733  -0.003345  -0.003248  -0.04413  -0.02453  0.3864  -0.5754
6.528e+09  -1.176  -0.403  0.0164  -8.891e-05  -0.00289  0.00118  0.1836  -0.6946
6.529e+09  -1.204  0.02119  0.03902  -0.004932  -0.01962  0.01801  -0.07045  -0.7041
6.53e+09  -1.105  0.4225  -0.002202  0.01557  0.06409  -0.03671  -0.2957  -0.6107
6.531e+09  -0.8744  0.7905  0.0279  -0.02688  0.02556  -0.02767  -0.4781  -0.4936
6.532e+09  -0.4775  1.085  -0.03256  0.0261  -0.007567  0.001182  -0.5671  -0.258
6.534e+09  -0.1407  1.183  -0.009599  -0.001578  0.07444  -0.04416  -0.6288  -0.08702
6.535e+09  0.3152  1.138  0.03721  -0.02244  0.0299  -0.03852  -0.6158  0.1416
6.536e+09  0.7401  0.9492  -0.01911  -0.015  0.02057  -0.005765  -0.5466  0.3027
6.538e+09  0.988  0.6096  -0.009451  -0.00265  -0.03357  -0.01173  -0.4458  0.4659
6.539e+09  1.162  0.1974  0.01445  0.01351  -0.04583  0.06121  -0.2947  0.5811
6.54e+09  1.073  -0.2325  0.002963  -0.003256  0.01751  -0.03492  -0.03791  0.6834
6.541e+09  0.978  -0.5459  0.001004  0.005089  0.002839  0.02247  0.2069  0.6709
6.542e+09  0.6979  -0.8588  0.003171  -0.006904  -0.04964  -0.0187  0.3891  0.5813
6.544e+09  0.3028  -1.086  0.01397  0.0007267  -0.005387  -0.05847  0.584  0.3914
6.545e+09  -0.07933  -1.097  -0.01367  0.01096  -0.01492  -0.03579  0.7093  0.1585
6.546e+09  -0.4641  -0.9453  -0.003494  0.01302  -0.0008486  -0.03665  0.7404  -0.06838
6.548e+09  -0.7687  -0.7407  -0.001948  0.01488  -0.05236  0.009163  0.6609  -0.3558
6.549e+09  -1.036  -0.4738  0.02078  -0.03454  -0.05234  -0.005148  0.5324  -0.5302
6.55e+09  -1.073  -0.03552  0.008116  0.009075  0.062  -0.02595  0.2693  -0.7011
6.551e+09  -1.047  0.3456  0.01102  -0.02704  -0.01802  -0.02727  0.001094  -0.744
6.552e+09  -0.8479  0.6434  -0.006006  0.009914  0.015  -0.008299  -0.2163  -0.701
