# Hz S RI R 50
6.25e+09  0.2176  -0.8968  -0.01816  0.01484  -0.01268  0.007738  0.1586  0.4517
6.251e+09  -0.1547  -0.9741  0.003792  0.05075  -0.001825  0.01577  0.3807  0.4067
6.252e+09  -0.4337  -0.7771  -0.03336  -0.0007689  0.002545  0.03421  0.5467  0.2433
6.254e+09  -0.6685  -0.6602  -0.04513  0.0002335  -0.009825  -0.0085  0.6301  0.02924
6.255e+09  -0.9015  -0.3031  0.01746  -0.01075  0.06121  -0.02922  0.5906  -0.2246
6.256e+09  -1.004  -0.02152  0.02652  -0.02222  0.007928  0.0129  0.4628  -0.4479
6.258e+09  -0.8486  0.3663  -0.004661  -0.02455  -0.03021  -0.03066  0.2808  -0.5959
6.259e+09  -0.683  0.6199  0.02188  0.02643  -0.01947  0.01404  0.01983  -0.6893
6.26e+09  -0.4498  0.8365  0.003704  0.02297  0.05869  0.003793  -0.215  -0.6481
6.261e+09  -0.05022  0.8934  -0.007285  0.02106  -0.03406  0.0162  -0.4565  -0.5304
6.262e+09  0.2236  0.9353  -0.009546  -0.02333  0.04007  0.01693  -0.6129  -0.3637
6.264e+09  0.5112  0.7557  0.005515  0.0004032  -0.009647  0.0009812  -0.7312  -0.09691
6.265e+09  0.7466  0.5289  0.0138  0.02242  -0.008666  -0.05079  -0.6851  0.1427
6.266e+09  0.8672  0.2418  0.01636  -0.005978  -0.008528  0.05421  -0.6162  0.3969
6.268e+09  0.9246  -0.1039  0.01718  -0.004202  -0.0433  -0.00776  -0.4291  0.5724
6.269e+09  0.8209  -0.4317  0.00338  0.009294  0.00486  -0.008132  -0.1896  0.7046
6.27e+09  0.6186  -0.6354  -0.00668  0.01383  -0.002904  0.02302  0.08928  0.7233
6.271e+09  0.3364  -0.9036  -0.01702  0.003083  -0.01824  0.01828  0.3172  0.6609
6.272e+09  0.04781  -0.9298  0.0005142  0.006707  0.01291  0.00728  0.5395  0.5209
6.274e+09  -0.3215  -0.8632  -0.004563  -0.01006  -0.01515  -0.01575  0.7038  0.2974
6.275e+09  -0.6181  -0.6928  0.01106  -0.006931  0.004979  -0.04931  0.7764  0.08117
6.276e+09  -0.8253  -0.4257  -0.00324  0.01376  -0.02533  0.04757  0.7389  -0.2112
6.278e+09  -0.9507  -0.1142  -0.01105  0.008839  0.01578  -0.03815  0.6131  -0.4944
6.279e+09  -0.8669  0.2147  -0.002841  -0.02259  0.02743  0.02112  0.3808  -0.6559
6.28e+09  -0.8154  0.466  -0.02476  0.01671  0.006901  0.01697  0.1552  -0.7383
6.281e+09  -0.5423  0.7513  -0.01196  0.008764  0.01076  0.01675  -0.09118  -0.7532
6.282e+09  -0.2658  0.8884  0.03609  0.0132  -0.04628  0.01881  -0.3687  -0.7318
6.284e+09  0.09287  0.9089  0.0003157  -0.0119  -0.0077  0.08938  -0.5918  -0.5217
6.285e+09  0.4093  0.776  -0.008284  0.01999  -0.02915  -0.0165  -0.7703  -0.2867
6.286e+09  0.6784  0.6462  -0.0005844  -0.0154  0.004854  0.05114  -0.8178  -0.03949
6.288e+09  0.8132  0.3491  -0.0217  0.01429  0.03272  0.01265  -0.7681  0.2416
6.289e+09  0.9422  0.06219  -0.01136  0.01811  0.01189  0.0226  -0.605  0.4948
6.29e+09  0.8661  -0.2603  0.02215  0.01987  -0.01483  -0.009365  -0.4105  0.7133
6.291e+09  0.6977  -0.5682  0.005297  -0.01858  0.01937  -0.04101  -0.1516  0.7941
6.292e+09  0.442  -0.7695  0.02734  -0.000791  -0.0373  -0.05826  0.1133  0.8171
6.294e+09  0.1609  -0.9414  -0.02222  -0.01463  -0.002376  0.02716  0.3958  0.6979
6.295e+09  -0.1963  -0.9411  -0.02262  -0.008304  -0.041  -0.05442  0.5962  0.5308
6.296e+09  -0.4971  -0.7842  -0.02075  0.009882  0.03047  0.01747  0.7898  0.3096
6.298e+09  -0.7424  -0.5226  0.01387  0.03014  0.009783  -0.003007  0.8435  -0.004468
6.299e+09  -0.9129  -0.2806  -0.007897  0.02904  0.002182  -0.006434  0.7564  -0.2878
6.3e+09  -0.8915  0.06299  -0.0167  0.001895  -0.02326  -0.01527  0.6455  -0.5326
6.301e+09  -0.857  0.3701  -0.03645  0.02812  0.03027  0.00928  0.4242  -0.7164
6.302e+09  -0.6599  0.6361  0.0169  0.005056  0.01463  -0.003019  0.1435  -0.8443
6.304e+09  -0.4033  0.811  0.003518  0.03796  0.03197  -0.05441  -0.1385  -0.8154
6.305e+09  -0.06665  0.9186  -0.004255  0.0175  0.01252  0.02626  -0.405  -0.7328
6.306e+09  0.2765  0.8649  -0.01103  0.02054  -0.01146  0.03071  -0.6677  -0.5667
6.308e+09  0.5797  0.7098  0.01485  -0.01117  0.03096  0.01868  -0.8357  -0.3278
6.309e+09  0.7569  0.5354  0.008606  -0.005459  0.007578  0.02655  -0.878  -0.002685
6.31e+09  0.8781  0.1805  -0.02407  -0.003933  0.03299  -0.01608  -0.7883  0.3015
6.311e+09  0.8631  -0.1218  -0.007718  0.02965  0.004113  0.01033  -0.6684  0.5629
6.312e+09  0.8346  -0.412  -0.007105  -0.01518  -0.02625  0.009385  -0.4165  0.7575
6.314e+09  0.5945  -0.7061  0.03953  -0.0215  0.03011  -0.03334  -0.1804  0.8723
6.315e+09  0.3042  -0.8824  0.01669  -0.01042  -0.02798  -0.005659  0.1745  0.8736
6.316e+09  -0.04672  -0.9274  -0.006255  0.02617  -0.004183  0.02478  0.4225  0.7607
6.318e+09  -0.3222  -0.8358  -0.02244  -0.01776  -0.02189  -0.02349  0.6369  0.5737
6.319e+09  -0.6139  -0.6967  0.009176  0.02357  0.04384  -0.01564  0.8408  0.3449
6.32e+09  -0.7677  -0.446  -0.0157  -0.0297  0.00593  -0.004625  0.8757  0.026
6.321e+09  -0.8948  -0.1177  -0.002437  -0.008341  0.003171  0.03992  0.849  -0.2554
6.322e+09  -0.887  0.2112  0.001231  0.006456  0.002962  -0.03054  0.6816  -0.5527
6.324e+09  -0.7829  0.5214  -0.008458  -0.01282  -0.02037  0.01555  0.4713  -0.7836
6.325e+09  -0.5335  0.7639  -0.0178  0.01056  -0.05046  -0.01158  0.1581  -0.8916
6.326e+09  -0.2213  0.9072  -0.03716  -0.004682  0.01034  -0.002157  -0.1465  -0.8748
6.328e+09  0.09973  0.8902  -0.02229  0.004131  0.04531  0.03841  -0.4206  -0.7725
6.329e+09  0.4007  0.8384  -0.02057  0.01239  -0.0106  0.04049  -0.6631  -0.5944
6.33e+09  0.6731  0.6204  -0.0137  0.02242  0.004361  -0.0003024  -0.8359  -0.3425
6.331e+09  0.8298  0.3584  0.0353  0.01995  0.01355  -0.002231  -0.9223  -0.02691
6.332e+09  0.9695  0.007404  0.003043  -0.01706  0.007598  -0.03716  -0.9011  0.2965
6.334e+09  0.8276  -0.3219  0.009265  -0.004345  -0.007351  -0.0242  -0.7771  0.5571
6.335e+09  0.744  -0.6026  0.02506  0.01697  0.01096  0.004064  -0.4949  0.7833
6.336e+09  0.4655  -0.8224  0.01459  0.0189  0.0209  0.01601  -0.2021  0.8844
6.338e+09  0.1376  -0.9474  0.01502  -0.02703  0.01924  0.01341  0.1518  0.8903
6.339e+09  -0.1479  -0.9395  -0.02226  -0.00209  0.01283  0.02707  0.4323  0.8285
6.34e+09  -0.4625  -0.8232  0.004442  -0.02186  -0.01253  -0.01496  0.7232  0.6588
6.341e+09  -0.7121  -0.5225  -0.007457  -0.02784  0.007631  0.01553  0.8897  0.3468
6.342e+09  -0.927  -0.2742  -0.04072  -0.01945  0.01309  0.01802  0.897  0.03656
6.344e+09  -0.9099  0.05778  -8.789e-05  -0.0006432  -0.001836  -0.007098  0.8657  -0.2932
6.345e+09  -0.8949  0.3731  0.03814  0.000389  -0.052  0.01051  0.7472  -0.5677
6.346e+09  -0.65  0.6604  0.007528  0.01147  0.03969  0.003694  0.5041  -0.7996
6.348e+09  -0.4029  0.9005  0.005246  0.0002466  -0.01653  -0.008366  0.215  -0.9324
6.349e+09  -0.03899  0.9606  -0.02179  -0.0009908  0.01584  -0.02017  -0.1321  -0.9219
6.35e+09  0.2577  0.8823  -0.005423  0.003156  0.02528  -0.02118  -0.4128  -0.844
6.351e+09  0.6111  0.7752  -0.01933  0.02751  0.01893  -0.01664  -0.6794  -0.6592
6.352e+09  0.8211  0.5054  -0.02219  -0.00145  -0.03699  -0.03408  -0.905  -0.3569
6.354e+09  0.9573  0.1751  0.01679  0.03129  0.006886  -0.01918  -0.9157  -0.03177
6.355e+09  0.9519  -0.169  0.02284  0.005434  -0.005347  -0.024  -0.9229  0.2564
6.356e+09  0.7959  -0.4463  0.03586  0.01128  0.02718  0.01151  -0.7802  0.5735
6.358e+09  0.5957  -0.7474  -0.01013  -0.04376  0.0117  -0.01564  -0.529  0.7939
6.359e+09  0.298  -0.8927  -0.004854  -0.01582  0.01411  0.008173  -0.2276  0.8958
6.36e+09  -0.08261  -0.9889  -0.004863  -0.01392  -0.004384  -0.02522  0.1159  0.9543
6.361e+09  -0.3803  -0.9006  0.01843  0.0354  -0.0163  -0.01532  0.4008  0.8492
6.362e+09  -0.6541  -0.7056  -0.006753  0.009441  0.04451  0.0009957  0.666  0.6671
6.364e+09  -0.9009  -0.4196  0.002868  0.04169  0.0205  -0.0002313  0.8376  0.3703
6.365e+09  -0.9904  -0.05358  -0.01719  -0.0008563  -0.00821  -0.02902  0.9227  0.06371
6.366e+09  -0.9436  0.2677  0.002894  -0.05635  -0.05499  0.05095  0.9702  -0.2578
6.368e+09  -0.7566  0.6159  0.01582  0.0306  0.02772  -0.009427  0.7705  -0.5473
6.369e+09  -0.5118  0.8287  0.01802  -0.02973  -0.01557  0.04423  0.5479  -0.7681
6.37e+09  -0.1691  0.95  0.002045  0.01564  -0.02051  0.01072  0.2029  -0.8967
6.371e+09  0.1716  0.9945  0.03442  -0.01192  -0.009168  0.01521  -0.06853  -0.9283
6.372e+09  0.5313  0.836  -0.01129  0.03715  -0.03386  -0.04694  -0.4267  -0.8724
6.374e+09  0.7762  0.5752  0.02623  0.003764  -0.02206  0.03744  -0.6621  -0.7024
6.375e+09  0.9046  0.2901  0.0005775  -0.002732  -0.007836  -0.02004  -0.8679  -0.455
6.376e+09  0.9676  -0.1107  -0.00158  -0.002906  -0.01968  -0.009683  -0.9207  -0.09934
6.378e+09  0.9406  -0.4529  -0.03973  0.01014  -0.01631  0.002312  -0.9221  0.2041
6.379e+09  0.7213  -0.7234  0.004643  -0.06764  0.02072  0.004072  -0.7408  0.5319
6.38e+09  0.4186  -0.9449  -0.01339  -0.02834  -0.002169  -0.01185  -0.5733  0.7587
6.381e+09  0.06077  -0.9792  -0.002167  0.03928  -0.003247  -0.002059  -0.2671  0.9195
6.382e+09  -0.3434  -0.9913  0.02546  0.002675  -0.0455  0.01369  0.1018  0.9078
6.384e+09  -0.6625  -0.7513  -0.01702  0.03037  -0.01711  0.03351  0.343  0.8602
6.385e+09  -0.8648  -0.4716  -0.04742  -0.01532  -0.04942  -0.05005  0.6249  0.6771
6.386e+09  -0.9294  -0.1397  0.03108  -0.01532  0.03598  0.03562  0.8367  0.4174
6.388e+09  -1.016  0.2598  0.008113  -0.03986  -0.01407  -0.007127  0.8922  0.1283
6.389e+09  -0.8049  0.5832  0.01883  0.02265  -0.008502  0.01886  0.9366  -0.2044
6.39e+09  -0.5789  0.8095  0.02329  -0.01567  0.01847  -0.01173  0.8056  -0.5013
6.391e+09  -0.2291  0.9899  -0.03412  -0.03754  -0.06804  -0.01319  0.5535  -0.7886
6.392e+09  0.1278  0.9977  -0.02323  -0.009872  0.007224  0.003099  0.277  -0.891
6.394e+09  0.4761  0.9263  0.01864  -0.002608  -0.04311  -0.00112  -0.01489  -0.9116
6.395e+09  0.761  0.6787  -0.007983  -0.04235  -0.002046  -0.05096  -0.3249  -0.8397
6.396e+09  0.9501  0.3917  0.01841  -0.02549  -0.01049  -0.01373  -0.6016  -0.6873
6.398e+09  1.015  -0.02178  -0.02161  0.02662  -0.03841  0.005034  -0.7803  -0.4015
6.399e+09  0.9722  -0.3866  -0.008596  0.0123  -0.006866  -0.003643  -0.8874  -0.1662
6.4e+09  0.8049  -0.7201  -0.003533  0.005031  0.008184  0.03153  -0.9112  0.1574
6.401e+09  0.4358  -0.9238  0.02655  -0.01781  -0.02695  -0.04319  -0.8009  0.4958
6.402e+09  0.08827  -1.005  -0.004097  -0.03023  0.009644  0.01815  -0.5717  0.7216
6.404e+09  -0.2397  -0.9943  -0.01515  -0.0129  -0.009302  -0.01826  -0.3828  0.9
6.405e+09  -0.575  -0.8425  0.0008678  0.03691  0.003137  0.0247  0.01256  0.8779
6.406e+09  -0.8557  -0.5339  0.01898  0.02567  -0.000475  -0.05159  0.2911  0.8111
6.408e+09  -0.9929  -0.2183  0.04496  -0.03598  0.01399  0.01622  0.5499  0.6702
6.409e+09  -1.042  0.1533  -0.01172  0.03459  0.0133  -0.0126  0.7974  0.4206
6.41e+09  -0.8664  0.5184  0.008967  0.0127  -0.03495  -0.01579  0.9083  0.1801
6.411e+09  -0.6377  0.8161  0.03497  -0.03031  0.01184  -0.0494  0.9372  -0.1473
6.412e+09  -0.3213  0.9096  0.01061  -0.01117  0.023  -0.006917  0.7808  -0.4507
6.414e+09  0.07019  0.9872  -0.01342  -0.01846  -0.04035  -0.03373  0.6102  -0.7161
6.415e+09  0.44  0.9761  -0.01199  -0.08969  -0.04819  -0.04015  0.3504  -0.8422
6.416e+09  0.7363  0.6804  0.02974  0.04253  -0.009738  0.007064  0.0317  -0.9286
6.418e+09  0.9502  0.3961  -0.008704  -0.04779  0.03529  -0.01092  -0.2925  -0.8947
6.419e+09  0.9808  0.009341  0.008666  0.01003  -0.00953  -0.01865  -0.5523  -0.7366
6.42e+09  0.9615  -0.2908  -0.005463  0.01647  -0.01005  -0.02645  -0.7755  -0.4934
6.421e+09  0.7964  -0.6665  -0.01439  0.03992  0.02177  -0.01502  -0.886  -0.1715
6.422e+09  0.4633  -0.8811  -0.01514  -0.008971  -0.0478  -0.002105  -0.8743  0.09726
6.424e+09  0.1235  -0.9632  0.0102  -0.0173  -0.02563  0.03555  -0.7511  0.3983
6.425e+09  -0.2146  -1.021  0.04417  0.02214  -0.01674  0.009996  -0.6105  0.6559
6.426e+09  -0.5145  -0.8621  -0.02406  0.04745  0.002213  -0.05097  -0.3712  0.7899
6.428e+09  -0.8219  -0.6111  -0.004303  -0.01429  -0.002555  0.03245  -0.05764  0.9067
6.429e+09  -0.9543  -0.3009  0.01535  0.01314  0.05073  0.06417  0.2375  0.8107
6.43e+09  -0.9833  0.06422  0.02221  -0.03989  0.009664  -0.00452  0.5504  0.7133
6.431e+09  -0.9083  0.4759  0.01587  -0.01162  -0.04152  0.02741  0.7134  0.5025
6.432e+09  -0.7064  0.7163  0.02635  0.05065  0.02951  -0.03556  0.8304  0.2094
6.434e+09  -0.3844  0.9077  0.002403  -0.03034  0.001965  -0.03067  0.8848  -0.09947
6.435e+09  -0.004856  0.9752  -0.006755  -0.00772  0.04313  -0.01407  0.7679  -0.3638
6.436e+09  0.2737  0.9445  0.01217  0.006034  0.07989  0.0134  0.5873  -0.6073
6.438e+09  0.6596  0.7708  -0.04282  0.0211  0.001483  0.004505  0.3528  -0.7828
6.439e+09  0.8717  0.5092  0.04243  -0.03504  0.003451  -0.006828  0.0673  -0.8541
6.44e+09  0.9511  0.1247  0.01383  0.0005158  -0.02173  0.01519  -0.232  -0.858
6.441e+09  0.9688  -0.201  -0.01512  -0.01898  -0.01832  0.0113  -0.5512  -0.7193
6.442e+09  0.7891  -0.5553  -0.09545  -0.01103  0.02633  0.0188  -0.6895  -0.502
6.444e+09  0.6009  -0.7787  0.03243  -0.0263  0.0271  -0.001469  -0.8076  -0.1749
6.445e+09  0.2544  -0.9092  0.02619  -0.02295  -0.0175  -0.008674  -0.8746  0.05384
6.446e+09  -0.06424  -0.959  -0.01384  -0.009461  -0.04236  -0.03125  -0.7457  0.3508
6.448e+09  -0.4602  -0.816  -0.03853  -3.111e-05  -0.008156  -0.02095  -0.5933  0.5934
6.449e+09  -0.7048  -0.6505  0.003316  0.01743  0.06294  0.03679  -0.3483  0.7657
6.45e+09  -0.8936  -0.3802  0.002112  0.01973  -0.0059  0.002968  -0.05272  0.8748
6.451e+09  -0.9854  0.004083  -0.03426  -0.006174  -0.0135  -0.032  0.2129  0.8022
6.452e+09  -0.963  0.2984  -0.01134  0.01788  -0.01976  -0.002977  0.535  0.6907
6.454e+09  -0.733  0.5877  -0.02625  -0.02877  0.001621  0.01391  0.6695  0.4696
6.455e+09  -0.4667  0.8306  -0.0204  0.01001  -0.009582  0.007944  0.7756  0.2081
6.456e+09  -0.1462  0.9307  -0.03305  0.01836  0.02131  0.03003  0.8161  -0.108
6.458e+09  0.2036  0.9021  0.01247  0.05563  -0.02063  -0.008574  0.7993  -0.3344
6.459e+09  0.4645  0.783  0.01449  -0.03507  0.02678  -0.02962  0.587  -0.6008
6.46e+09  0.7024  0.6132  0.00377  -0.005351  -0.03067  -0.02759  0.4111  -0.7463
6.461e+09  0.8473  0.2389  0.001481  0.009104  0.05446  -0.003993  0.07047  -0.8013
6.462e+09  0.9333  -0.008566  -0.002173  0.02682  -0.02245  -0.01291  -0.2434  -0.7813
6.464e+09  0.8606  -0.3741  -0.0002542  -0.007809  0.01231  -0.05117  -0.4783  -0.6797
6.465e+09  0.6919  -0.6762  0.02244  -0.02453  -0.009126  0.003066  -0.6683  -0.4763
6.466e+09  0.4193  -0.7972  -0.01009  0.009597  0.009747  -0.07364  -0.8044  -0.2008
6.468e+09  0.1154  -0.9427  0.01915  0.03973  0.04075  0.04036  -0.7895  0.1333
6.469e+09  -0.2292  -0.936  0.02841  0.03374  -0.01106  -0.007117  -0.7549  0.3156
6.47e+09  -0.5077  -0.7435  0.01429  0.01707  0.0145  -0.03192  -0.5925  0.5575
6.471e+09  -0.7604  -0.513  0.04004  -0.001606  -0.007785  0.05244  -0.3211  0.6761
6.472e+09  -0.8613  -0.2781  -0.008899  0.0002997  -0.01438  -7.77e-05  -0.01939  0.8304
6.474e+09  -0.9074  0.02469  0.004646  0.02115  -0.03446  0.0005131  0.1889  0.7573
6.475e+09  -0.7462  0.3809  0.005966  0.005048  0.00759  -0.03323  0.4751  0.6261
6.476e+09  -0.6591  0.6589  -0.02155  0.01192  0.006666  0.05765  0.6853  0.4167
6.478e+09  -0.3643  0.8066  -0.01724  -0.007371  -0.004883  0.02642  0.7495  0.1595
6.479e+09  -0.08494  0.9524  -0.01104  -0.01625  0.006003  0.02477  0.7787  -0.08548
6.48e+09  0.2677  0.9052  0.02077  -0.01545  -0.04168  0.002171  0.7086  -0.3638
6.481e+09  0.5128  0.7378  -0.008279  -0.01606  0.01263  -0.04076  0.5315  -0.5542
6.482e+09  0.7616  0.5029  0.02508  0.04002  -0.05892  -0.0001455  0.3388  -0.7275
6.484e+09  0.8882  0.2127  -0.01586  -0.002435  0.01508  -0.02527  0.06384  -0.7709
6.485e+09  0.8646  -0.1248  -0.04984  -0.02036  0.03929  -0.01559  -0.199  -0.7458
6.486e+09  0.7948  -0.4161  0.002729  0.02235  -0.03537  -0.00225  -0.4413  -0.5973
6.488e+09  0.5015  -1.332  0.02293  -0.02381  -0.4033  0.5941  -0.6434  -0.4738
6.489e+09  0.3561  -0.8557  0.01539  0.04351  -0.01007  0.03148  -0.7689  -0.1689
6.49e+09  0.03051  -0.9388  -0.01042  -0.008655  0.03393  -0.00868  -0.7799  0.07591
6.491e+09  -0.2547  -0.806  -0.01975  0.02889  0.008597  0.007424  -0.6892  0.3292
6.492e+09  -0.5881  -0.7137  0.0172  -0.01471  -0.02708  0.007052  -0.4917  0.598
6.494e+09  -0.7009  -0.3839  -0.006749  -0.0019  0.03771  -0.02748  -0.3218  0.6725
6.495e+09  -0.9135  -0.1675  -0.01813  -0.0009159  0.02943  -0.02148  -0.02101  0.7408
6.496e+09  -0.9167  0.1467  0.04008  -0.00137  -0.007492  -0.01881  0.2054  0.7026
6.498e+09  -0.7344  0.4329  0.04005  0.01122  -0.02895  0.007437  0.5027  0.6105
6.499e+09  -0.5786  0.6864  0.005492  0.003267  -0.007986  0.03694  0.6808  0.3843
6.5e+09  0.08641  1.073  0.02514  -0.0358  -0.02381  0.01505  0.7781  0.1462
6.501e+09  0.02454  0.8512  0.01502  0.01974  0.02079  -0.03759  0.7673  -0.1054
6.502e+09  0.353  0.8243  -0.05179  -0.03628  0.03321  -0.004818  0.6872  -0.3519
6.504e+09  0.6031  0.6844  -0.0006372  -0.03592  -0.03784  0.04006  0.4823  -0.5929
6.505e+09  0.7687  0.4043  -0.004271  -0.003366  -0.03448  0.03032  0.3024  -0.7186
6.506e+09  0.9057  0.1301  -0.01385  0.01399  0.0279  0.01755  0.03635  -0.7903
6.508e+09  0.8524  -0.212  -0.03067  0.01344  -0.002619  -0.01439  -0.2467  -0.7445
6.509e+09  0.7866  -0.4363  0.009484  -0.03658  0.05925  0.02426  -0.4762  -0.6179
6.51e+09  0.5603  -0.7077  -0.05486  0.0163  0.02651  0.007603  -0.6568  -0.3543
6.511e+09  0.2986  -0.8438  0.01991  0.0009695  0.004524  0.01162  -0.7331  -0.1507
6.512e+09  -0.03552  -0.8993  -0.006508  0.006257  -0.01046  -0.006318  -0.7365  0.1228
6.514e+09  -0.3012  -0.8235  -0.00743  -0.01511  0.01393  0.01071  -0.6779  0.3963
6.515e+09  -0.6034  -0.6904  0.01874  0.003377  -0.03683  -0.0307  -0.495  0.5769
6.516e+09  -0.8152  -0.4254  -0.006911  -0.04365  0.005253  -0.03198  -0.2774  0.681
6.518e+09  -0.9817  -0.1141  -0.01401  0.004993  -0.02234  -0.01499  -0.0006932  0.7373
6.519e+09  -0.8948  0.2008  -0.01427  -0.001403  0.00345  -0.04134  0.259  0.6802
6.52e+09  -0.8446  0.5471  0.02575  -0.008531  -0.01543  0.01314  0.4903  0.5361
6.521e+09  -0.5495  0.7347  0.01684  -0.001834  0.0003329  -0.02836  0.6508  0.3581
6.522e+09  -0.3096  0.8996  -0.03241  -0.01716  -0.004744  0.03189  0.7595  0.0856
6.524e+09  0.02966  0.9724  0.01197  -0.01432  0.04222  -0.009553  0.724  -0.171
6.525e+09  0.3732  0.8808  -0.0111  0.02438  -0.02456  -0.01576  0.6071  -0.3846
6.526e+09  0.718  0.7409  -0.02806  -0.02617  0.02508  -0.02237  0.4363  -0.5951
6.528e+09  0.897  0.393  0.0192  0.008342  0.01218  -0.003153  0.2015  -0.6816
6.529e+09  0.9823  0.1389  -0.02996  0.01174  -0.007505  0.01409  -0.04219  -0.7275
6.53e+09  0.9603  -0.29  0.0133  -0.002303  -0.007743  -0.047  -0.3169  -0.6313
6.531e+09  0.7483  -0.555  0.03953  -0.03794  0.04963  0.04793  -0.4878  -0.5078
6.532e+09  0.5162  -0.8152  -0.01062  -0.03248  -0.006498  0.02828  -0.5918  -0.2767
6.534e+09  0.2661  -0.9607  -0.03683  -0.01366  0.002266  0.01546  -0.637  -0.08129
6.535e+09  -0.08626  -0.9444  0.003705  -0.005374  -0.01695  0.00481  -0.6371  0.1148
6.536e+09  -0.4789  -0.9165  -0.01228  -0.02051  -0.0198  -0.02937  -0.5905  0.3123
6.538e+09  -0.7075  -0.6707  -0.008937  0.0007882  -0.01523  0.002157  -0.47  0.4742
6.539e+09  -0.9127  -0.3439  -0.02017  0.00881  0.004748  0.01466  -0.2766  0.6044
6.54e+09  -1.001  0.01434  0.003048  -0.004468  0.008261  0.03289  -0.06046  0.6946
6.541e+09  -0.9267  0.315  0.02724  -0.01331  0.02205  0.03658  0.1667  0.6587
6.542e+09  -0.7968  0.6868  -0.003451  0.01057  0.03158  0.0378  0.412  0.5467
6.544e+09  -0.4695  0.9433  0.01004  -0.008561  -0.01517  0.003984  0.6241  0.3952
6.545e+09  -0.1869  0.9808  -0.0007513  -0.0119  0.008938  -0.01611  0.6832  0.1157
6.546e+09  0.2299  1.014  0.002429  -0.0306  0.05645  -0.0375  0.7322  -0.09478
6.548e+09  0.5125  0.8959  -0.004319  0.01538  0.0109  -0.0006253  0.6399  -0.3151
6.549e+09  0.8153  0.5864  -0.0003135  -0.02369  0.007706  -0.02763  0.518  -0.5335
6.55e+09  0.9391  0.303  0.007117  0.02234  -0.00558  0.04657  0.2917  -0.6973
