# Hz S RI R 50
6.25e+09  -0.006978  0.9838  0.01729  -0.02313  -0.01051  0.001905  0.1393  0.4699
6.251e+09  0.3567  0.8508  -0.02703  0.0174  -0.01366  0.02029  0.3662  0.3955
6.252e+09  0.6571  0.7287  -0.01629  -0.02295  -0.01331  -0.02953  0.5281  0.2479
6.254e+09  0.795  0.3906  -0.03994  0.03963  0.02142  0.03796  0.6421  0.0187
6.255e+09  0.95  0.1128  -0.01865  -0.01316  -0.02422  0.02724  0.5962  -0.2603
6.256e+09  0.9303  -0.2829  -0.01515  0.001984  -0.04133  -0.03943  0.4623  -0.4217
6.258e+09  0.8045  -0.5301  -0.009685  0.008916  -0.006473  -0.003557  0.2901  -0.5915
6.259e+09  0.4839  -0.7214  -0.03101  0.003897  0.02111  -0.01145  0.04077  -0.6657
6.26e+09  0.2495  -0.9209  0.01024  -0.03313  -0.0349  -0.01866  -0.2179  -0.6582
6.261e+09  -0.04799  -0.9574  0.01366  -0.001208  0.08787  -0.003149  -0.4605  -0.5284
6.262e+09  -0.3784  -0.8093  -0.01245  0.01746  -0.03856  0.01365  -0.608  -0.3458
6.264e+09  -0.6418  -0.6169  -0.004462  0.01518  0.03288  -0.01763  -0.7158  -0.06752
6.265e+09  -0.8226  -0.3681  -0.0208  -0.01463  -0.06696  0.02387  -0.7266  0.1868
6.266e+09  -0.8992  -0.1485  0.01634  -0.01711  -0.02542  -0.02661  -0.6423  0.409
6.268e+09  -0.8416  0.2016  0.0006342  -0.001378  -0.01375  0.03523  -0.4269  0.5687
6.269e+09  -0.7822  0.588  0.0009492  0.007064  -0.003742  0.0195  -0.2141  0.695
6.27e+09  -0.5232  0.7277  0.002787  0.01285  -0.0005866  -0.05665  0.06478  0.7366
6.271e+09  -0.229  0.855  -0.009558  0.003696  0.05528  -0.009897  0.3272  0.669
6.272e+09  0.08492  0.9589  -0.01124  0.001911  0.05264  -0.01306  0.5651  0.5391
6.274e+09  0.3847  0.8284  -0.003575  0.003784  -0.02515  0.01921  0.6997  0.3177
6.275e+09  0.6198  0.6631  0.01863  0.003222  0.0119  -0.008788  0.7654  0.04615
6.276e+09  0.8704  0.3461  0.01555  0.0179  0.02482  0.005733  0.7154  -0.2412
6.278e+09  0.931  0.007682  -0.01192  0.01242  -0.009534  -0.01669  0.5936  -0.4748
6.279e+09  0.9048  -0.2647  -0.02249  0.01457  0.01925  0.02224  0.3767  -0.6375
6.28e+09  0.7275  -0.4848  -0.03217  0.006997  -0.002776  0.004019  0.1564  -0.7737
6.281e+09  0.5559  -0.8015  -0.01629  0.01651  -0.006504  -0.01572  -0.08223  -0.7683
6.282e+09  0.154  -0.895  -0.004606  -0.00192  0.01731  -0.0267  -0.3579  -0.6976
6.284e+09  -0.1298  -0.9134  -0.01954  -0.009651  -0.01437  -0.02483  -0.5685  -0.5293
6.285e+09  -0.4399  -0.7647  -0.0154  0.01189  0.01416  0.02614  -0.7354  -0.2936
6.286e+09  -0.6407  -0.6214  -0.0008037  -0.01551  0.001944  -0.04663  -0.7695  -0.009363
6.288e+09  -0.952  -0.2958  -0.00672  -0.01877  -0.03958  -0.009201  -0.7643  0.2584
6.289e+09  -0.8988  -0.008696  -0.01704  0.006953  -0.008146  0.0252  -0.6244  0.4884
6.29e+09  -0.8729  0.2764  0.01674  -0.02859  0.007939  -0.01625  -0.4438  0.6943
6.291e+09  -0.7393  0.604  -0.006212  -0.007241  0.02426  0.005241  -0.1324  0.7867
6.292e+09  -0.487  0.8316  -0.005942  -0.007252  -0.009033  0.04001  0.138  0.8199
6.294e+09  -0.2003  0.9484  -0.02703  0.02693  0.004252  0.01778  0.3843  0.7001
6.295e+09  0.1494  0.9635  -0.009272  -0.01844  0.01624  0.05635  0.587  0.5295
6.296e+09  0.5209  0.8096  -0.01876  -0.004767  -0.002491  -0.02227  0.7617  0.2886
6.298e+09  0.7656  0.5936  0.002306  -0.001411  -0.02115  0.024  0.7976  -0.01323
6.299e+09  0.8464  0.2965  -0.01489  -0.005433  0.01971  -0.02141  0.7898  -0.2864
6.3e+09  0.9507  -0.05418  0.003611  0.009506  0.005616  -0.002314  0.6528  -0.5136
6.301e+09  0.8484  -0.3653  0.04231  -0.005912  0.03074  0.06713  0.4214  -0.7376
6.302e+09  0.7229  -0.6019  0.00646  0.0234  -0.001037  -0.008867  0.167  -0.8347
6.304e+09  0.4301  -0.8811  0.02298  0.01183  -0.01048  -0.00714  -0.121  -0.8204
6.305e+09  0.0907  -0.9911  -0.01964  0.01229  -0.01761  -0.03885  -0.4164  -0.707
6.306e+09  -0.2141  -0.9516  0.0002044  0.01585  -0.02109  -0.07836  -0.6584  -0.5744
6.308e+09  -0.5029  -0.8304  -0.0007314  -0.01308  0.03815  -0.02412  -0.7994  -0.3014
6.309e+09  -0.7753  -0.5468  -0.006259  0.01991  -0.0278  -0.01074  -0.878  -0.00743
6.31e+09  -0.941  -0.2359  0.004771  0.005953  -0.02052  0.05329  -0.8212  0.3111
6.311e+09  -0.9964  0.09179  -0.03478  0.004522  -0.03998  0.03787  -0.6697  0.5452
6.312e+09  -0.8739  0.4175  -0.004827  -0.006573  0.006378  -0.01998  -0.4367  0.7497
6.314e+09  -0.7672  0.6766  0.004126  -0.002109  -0.02957  -0.006683  -0.1843  0.8684
6.315e+09  -0.4423  0.8846  0.006639  0.005787  0.006838  -0.01076  0.1101  0.8311
6.316e+09  -0.08625  0.9773  -0.02843  -0.0008852  -0.008217  0.00253  0.4125  0.7432
6.318e+09  0.3438  0.9951  -0.02005  -0.008301  0.02784  0.04026  0.6326  0.5854
6.319e+09  0.6225  0.8108  0.005717  0.009619  0.01954  0.03108  0.8657  0.3146
6.32e+09  0.8853  0.5357  0.0119  0.001458  0.04927  0.03224  0.8946  0.04138
6.321e+09  0.9841  0.1752  0.01735  -0.0224  -0.01778  0.02459  0.8299  -0.3094
6.322e+09  0.9778  -0.1204  -0.0009017  -0.04679  0.04059  -0.03727  0.6827  -0.5262
6.324e+09  0.9066  -0.4754  -0.01753  0.0006267  -0.02236  -0.002644  0.4495  -0.7974
6.325e+09  0.743  -0.7876  0.02585  0.02414  0.01573  0.01044  0.1605  -0.9076
6.326e+09  0.3324  -0.9935  0.004199  -0.01871  0.04114  0.009703  -0.1235  -0.9104
6.328e+09  0.01221  -1.057  -0.005936  0.0002522  0.04031  0.03418  -0.4368  -0.7947
6.329e+09  -0.4168  -1.001  -0.01288  0.02258  0.02788  -0.03448  -0.6774  -0.603
6.33e+09  -0.7121  -0.7844  0.01131  0.004091  -0.01585  0.01908  -0.8556  -0.317
6.331e+09  -1.002  -0.509  -0.01951  0.008982  0.02093  0.006944  -0.8991  -0.02533
6.332e+09  -1.091  -0.1303  0.0006505  0.007656  -0.004975  0.01631  -0.8641  0.2768
6.334e+09  -1.088  0.2382  0.01021  0.01072  -0.05441  0.03022  -0.7169  0.5702
6.335e+09  -0.9631  0.6113  0.01429  0.003626  -0.002425  0.04788  -0.4967  0.7749
6.336e+09  -0.6333  0.8645  0.001283  -0.002994  0.01363  -0.02668  -0.1484  0.9081
6.338e+09  -0.2877  1.072  -0.004848  -0.001918  0.02409  0.009521  0.1519  0.9037
6.339e+09  0.08005  1.095  0.006002  -0.00115  0.04351  -0.01751  0.4265  0.8371
6.34e+09  0.4645  1.034  0.03744  0.05395  0.01528  -0.01192  0.6581  0.6161
6.341e+09  0.8046  0.7792  0.009902  0.008188  0.01964  0.04151  0.8177  0.3709
6.342e+09  1.024  0.4265  0.001099  0.003689  0.0005349  0.006188  0.93  0.01968
6.344e+09  1.137  0.07983  -0.01426  0.01494  -0.02672  0.01462  0.9452  -0.2749
6.345e+09  1.071  -0.3468  -0.001528  0.004137  0.01046  0.03766  0.7443  -0.5518
6.346e+09  0.9  -0.7058  -0.01439  0.03203  0.008418  -0.008973  0.5265  -0.7628
6.348e+09  0.5791  -0.9511  -0.01678  0.004544  0.02281  -0.01372  0.2196  -0.9164
6.349e+09  0.2181  -1.141  0.00967  0.001004  -0.007301  0.001373  -0.1341  -0.8984
6.35e+09  -0.2361  -1.128  0.02783  -0.0002003  -0.003866  -0.01249  -0.4045  -0.855
6.351e+09  -0.5984  -1.006  0.03331  -0.001758  -0.02377  -0.01456  -0.6771  -0.6564
6.352e+09  -0.9223  -0.7253  0.01528  -0.01769  0.02193  -0.02995  -0.8186  -0.4078
6.354e+09  -1.169  -0.3892  -0.0177  0.01853  0.009325  -0.0276  -0.95  -0.06831
6.355e+09  -1.169  0.08336  -0.009776  0.03818  -0.03126  0.005429  -0.908  0.2738
6.356e+09  -1.089  0.5004  -0.01183  -0.005963  0.01896  -0.02817  -0.7457  0.5319
6.358e+09  -0.8439  0.8122  0.003725  -0.005385  -0.002928  -0.003175  -0.5178  0.7973
6.359e+09  -0.4672  1.074  0.02338  -0.007484  -0.01568  -0.01596  -0.2482  0.9398
6.36e+09  -0.08127  1.177  -0.005845  -0.02224  -0.0279  0.01356  0.108  0.9636
6.361e+09  0.3611  1.146  0.03458  -0.01931  0.03317  0.05328  0.4191  0.8471
6.362e+09  0.6999  0.9252  0.01109  0.002572  -0.03838  0.01113  0.6715  0.651
6.364e+09  0.988  0.6481  -0.03651  0.006017  0.05674  0.01265  0.8781  0.3735
6.365e+09  1.154  0.2562  0.02843  0.05651  0.02913  -0.04261  0.9606  0.07759
6.366e+09  1.197  -0.2339  -0.002366  -0.01622  -0.01067  -0.0192  0.8997  -0.2393
6.368e+09  1.021  -0.6223  0.00399  -0.0001319  -0.01376  0.01211  0.8115  -0.5541
6.369e+09  0.7736  -0.8993  -0.004277  0.03248  0.0264  -0.04467  0.5701  -0.8426
6.37e+09  0.4134  -1.159  -0.01068  -0.06189  0.01573  0.007794  0.2602  -0.9229
6.371e+09  -0.03426  -1.21  0.01028  -0.00814  -0.03487  0.007842  -0.0618  -0.952
6.372e+09  -0.4945  -1.118  0.01556  -0.01345  0.049  -0.00332  -0.3981  -0.8589
6.374e+09  -0.8129  -0.8585  -0.01047  -0.01148  -0.0004074  0.001657  -0.6538  -0.6971
6.375e+09  -1.062  -0.5401  0.01446  -0.002699  -0.02291  0.03678  -0.8584  -0.4107
6.376e+09  -1.132  -0.1119  0.004692  0.02334  0.007519  0.007343  -0.9382  -0.08367
6.378e+09  -1.144  0.2676  0.005902  0.006148  -0.01304  0.02276  -0.9206  0.213
6.379e+09  -0.9643  0.7068  0.004714  -0.02142  -0.001571  0.01012  -0.7669  0.5333
6.38e+09  -0.6708  0.9584  0.001878  -0.01326  -0.03297  0.02623  -0.5297  0.7328
6.381e+09  -0.2698  1.169  0.03091  0.02466  -0.01778  0.003067  -0.3009  0.9284
6.382e+09  0.1851  1.189  -0.01473  -0.01713  0.02878  -0.001321  0.1145  0.9354
6.384e+09  0.5273  1.131  0.02296  0.002227  -0.006064  -0.03417  0.4054  0.8636
6.385e+09  0.8118  0.8207  0.01975  0.01561  0.03202  -0.01612  0.6254  0.6991
6.386e+09  1.106  0.4592  0.008269  -0.01563  -0.005304  0.008326  0.8167  0.389
6.388e+09  1.199  0.06191  0.0008826  -0.0272  0.02002  0.05051  0.9373  0.1173
6.389e+09  1.109  -0.3813  0.009705  -0.01335  -0.01756  0.01144  0.8839  -0.2211
6.39e+09  0.9118  -0.735  -0.04547  -0.00446  -0.02405  0.0003426  0.7382  -0.488
6.391e+09  0.6115  -1.035  -0.01461  -0.0005307  -0.0009675  -0.00837  0.5788  -0.7434
6.392e+09  0.1817  -1.145  -0.02824  0.009212  0.0287  0.03643  0.2479  -0.8646
6.394e+09  -0.263  -1.196  0.006146  -0.01386  -0.03403  0.00142  -0.03575  -0.9359
6.395e+09  -0.6308  -1.015  -0.001258  -0.02378  -0.04414  0.0002317  -0.3546  -0.8104
6.396e+09  -0.927  -0.6894  0.01587  0.03054  -0.03739  0.02045  -0.5665  -0.6989
6.398e+09  -1.11  -0.3788  0.02493  0.02662  -0.0009854  -0.01044  -0.7967  -0.4839
6.399e+09  -1.194  0.08708  -0.004942  -0.04974  -0.01764  0.02965  -0.9082  -0.1038
6.4e+09  -1.09  0.4378  0.003802  0.0194  0.06418  0.02788  -0.9035  0.1518
6.401e+09  -0.8618  0.801  0.04277  0.01518  -0.00344  0.05269  -0.7962  0.5071
6.402e+09  -0.4555  1.016  -0.02854  -0.001597  0.01142  0.00575  -0.5614  0.7618
6.404e+09  -0.1249  1.16  0.008953  -0.008294  -0.02481  -0.01908  -0.3285  0.8517
6.405e+09  0.2344  1.078  0.03798  0.001728  -0.003004  -0.02057  -0.002972  0.8782
6.406e+09  0.6276  0.947  -0.04004  0.01231  -0.05889  0.03622  0.2717  0.8518
6.408e+09  0.9185  0.6692  -0.007315  0.02374  -0.04335  -0.05487  0.5787  0.7302
6.409e+09  1.096  0.3505  0.02122  0.007918  0.006284  0.02519  0.7867  0.4697
6.41e+09  1.16  -0.05947  0.006453  0.01441  0.007211  0.03591  0.8432  0.1692
6.411e+09  1.016  -0.4895  -0.002547  0.006081  0.01158  -0.03535  0.8711  -0.175
6.412e+09  0.7939  -0.8145  -0.009337  -0.02731  0.01167  -0.03372  0.8311  -0.4838
6.414e+09  0.4665  -1.052  -0.01292  0.01085  0.01146  -0.0002475  0.5826  -0.6695
6.415e+09  0.1092  -1.135  0.03384  0.01942  0.02592  -0.09355  0.2892  -0.8169
6.416e+09  -0.3366  -1.151  -0.00683  0.005992  -0.02471  -0.003199  0.01042  -0.9211
6.418e+09  -0.6995  -0.9528  0.01503  0.00362  -0.02188  -0.02959  -0.3065  -0.8504
6.419e+09  -0.9764  -0.6586  -0.01339  -0.04583  0.0204  -0.0177  -0.5288  -0.6842
6.42e+09  -1.155  -0.2369  -0.002358  -0.02061  -0.02217  -0.02871  -0.7846  -0.4925
6.421e+09  -1.144  0.1768  -0.02251  -0.002324  -0.08958  -0.04448  -0.8822  -0.2406
6.422e+09  -1.065  0.5306  0.009218  -0.01928  0.005028  0.002527  -0.885  0.0932
6.424e+09  -0.754  0.8435  -0.00833  0.01265  -0.03375  0.003877  -0.7319  0.3955
6.425e+09  -0.4719  1.052  0.02547  -0.005635  -0.05237  -0.03788  -0.6405  0.6037
6.426e+09  -0.06446  1.202  0.01527  -0.03049  0.03124  -0.002791  -0.3465  0.8249
6.428e+09  0.3885  1.047  0.008082  0.02033  0.01766  -0.02211  -0.04576  0.8383
6.429e+09  0.7583  0.8999  -0.0003044  -0.002434  -0.03206  0.00678  0.2283  0.8637
6.43e+09  1.056  0.6059  -0.03293  -0.04366  -0.002262  0.01024  0.5271  0.7431
6.431e+09  1.15  0.2223  0.01477  0.00108  0.02006  0.02712  0.7431  0.502
6.432e+09  1.151  -0.1551  0.03108  -0.001604  0.05461  0.006747  0.8006  0.1463
6.434e+09  1.015  -0.5821  0.01398  -0.05434  0.01622  -0.01151  0.8548  -0.09646
6.435e+09  0.7498  -0.9309  0.00665  0.0447  0.03931  -0.01182  0.7925  -0.3924
6.436e+09  0.4316  -1.148  0.01255  0.00348  0.008959  0.007189  0.6055  -0.6226
6.438e+09  -0.02124  -1.188  0.02359  -0.01196  0.02476  -0.0845  0.4045  -0.8404
6.439e+09  -0.4141  -1.15  -0.02544  -0.01803  -0.02565  0.07883  0.01077  -0.8666
6.44e+09  -0.8131  -0.881  0.01142  0.07787  -0.02205  -0.01146  -0.2052  -0.8498
6.441e+09  -1.097  -0.5765  -0.02242  0.05311  -0.01412  -0.004038  -0.4458  -0.6675
6.442e+09  -1.197  -0.1689  -0.02155  -0.005337  0.01873  -0.05094  -0.7023  -0.4702
6.444e+09  -1.163  0.2701  0.02734  0.009086  0.0283  -0.03785  -0.8158  -0.1898
6.445e+09  -1.02  0.6918  0.01126  -0.02704  0.02732  0.02558  -0.8683  0.1201
6.446e+09  -0.7199  1.011  0.03348  -0.002965  -0.04226  -0.03158  -0.7822  0.4094
6.448e+09  -0.3653  1.181  -0.01155  -0.002223  -0.03481  -0.04743  -0.6192  0.6137
6.449e+09  0.1234  1.278  0.04898  -0.0006983  -0.01817  -0.006131  -0.3002  0.7276
6.45e+09  0.5211  1.151  0.01414  -0.01252  -0.01877  0.03639  -0.05449  0.8241
6.451e+09  0.9393  0.8459  0.02447  -0.0001297  -0.03788  0.03275  0.1981  0.8327
6.452e+09  1.122  0.5192  -0.0184  -0.01896  0.02646  0.01841  0.4518  0.7074
6.454e+09  1.283  0.06309  0.05005  -0.002498  0.01374  0.008532  0.7472  0.4424
6.455e+09  1.284  -0.3982  0.01292  -0.0005611  0.002212  -0.04271  0.7965  0.2106
6.456e+09  1.021  -0.8164  0.04132  0.0137  -0.006488  0.02361  0.835  -0.07834
6.458e+09  0.6865  -1.133  0.0006833  0.01089  -0.02761  -0.01909  0.751  -0.4073
6.459e+09  0.2025  -1.269  0.005122  -0.04694  -0.01673  -0.02199  0.5677  -0.5629
6.46e+09  -0.187  -1.325  0.005943  0.01548  -0.04118  0.002795  0.3433  -0.7443
6.461e+09  -0.6835  -1.128  0.0009248  -0.01948  0.03599  -0.01185  0.07164  -0.8077
6.462e+09  -1.063  -0.8504  -0.01413  -0.02869  0.02114  0.03424  -0.2222  -0.7943
6.464e+09  -1.306  -0.4035  0.02897  0.03023  -0.06161  -0.0004997  -0.4471  -0.6884
6.465e+09  -1.326  0.08428  0.004514  0.01986  -0.06984  -0.06584  -0.7094  -0.4258
6.466e+09  -1.234  0.5557  -0.01193  -0.004643  0.02602  -0.01279  -0.7921  -0.2172
6.468e+09  -0.9498  0.9588  -0.01883  0.008759  -0.01257  0.003748  -0.8008  0.06062
6.469e+09  -0.5454  1.236  -0.006651  0.0242  0.008071  0.04126  -0.7386  0.3506
6.47e+09  -0.1074  1.378  -0.0105  0.003638  0.03543  0.01673  -0.5525  0.5779
6.471e+09  0.4807  1.351  -0.009877  -0.0006158  0.02998  -0.02473  -0.3105  0.7462
6.472e+09  0.8793  1.113  -0.009636  0.003457  0.02309  -0.02035  -0.07674  0.7922
6.474e+09  1.248  0.7726  -0.02598  0.01291  0.02199  0.05316  0.2474  0.7911
6.475e+09  1.4  0.2241  0.04742  -0.01219  0.004183  -0.01794  0.4109  0.6115
6.476e+09  1.384  -0.2884  -0.00915  -0.003506  -0.01896  -0.04248  0.6611  0.4351
6.478e+09  1.169  -0.7465  -0.007325  -0.02743  0.02093  -0.002452  0.7532  0.1706
6.479e+09  0.8344  -1.164  -0.01043  0.007499  0.02383  0.01782  0.7677  -0.04346
6.48e+09  0.4053  -1.444  -0.0316  0.03878  -0.05694  -0.04841  0.7453  -0.3508
6.481e+09  -0.1496  -1.451  0.03649  0.04873  0.0221  0.0136  0.5034  -0.5954
6.482e+09  -0.6677  -1.326  -0.01649  0.02577  0.01014  -0.01897  0.3123  -0.7358
6.484e+09  -1.087  -0.979  -0.04038  -0.001492  -0.004011  -0.001247  0.07013  -0.7733
6.485e+09  -1.363  -0.5412  0.004798  0.009754  0.02017  -0.04103  -0.1751  -0.7518
6.486e+09  -1.502  0.04092  0.03006  0.001842  -0.01477  0.04102  -0.4981  -0.6452
6.488e+09  -1.18  1.286  -0.08795  0.0001716  -0.6637  0.3254  -0.6836  -0.439
6.489e+09  -1.083  1.067  0.007321  -0.05662  0.02013  -0.0005255  -0.7688  -0.1822
6.49e+09  -0.6612  1.335  0.01312  -0.00722  -0.01595  -0.02494  -0.7858  0.1463
6.491e+09  -0.1044  1.479  0.01834  0.02291  -0.04248  -0.0001743  -0.6726  0.3549
6.492e+09  0.4719  1.481  -0.0264  0.002768  0.0003995  -0.02505  -0.5014  0.5546
6.494e+09  0.9973  1.269  0.01697  -0.0344  0.02931  -0.1827  -0.2858  0.742
6.495e+09  1.305  0.7614  0.01255  0.001881  -0.0001544  0.01967  -0.06142  0.7866
6.496e+09  1.446  0.2673  0.0147  -0.006647  -0.05755  -0.02179  0.2512  0.7158
6.498e+09  1.502  -0.3288  0.01201  0.002235  -0.01772  0.01679  0.4623  0.6352
6.499e+09  1.219  -0.8412  0.001517  -0.01925  0.008668  0.0299  0.6603  0.3927
6.5e+09  1.517  -0.3251  0.0145  -0.02137  0.01206  -0.01122  0.7286  0.1825
6.501e+09  0.3185  -1.423  0.002108  0.01121  0.003376  0.04414  0.7592  -0.1052
6.502e+09  -0.2379  -1.485  0.01722  0.007965  0.03571  0.001329  0.6824  -0.3463
6.504e+09  -0.7382  -1.257  0.01882  -0.03698  -0.002514  0.02094  0.5116  -0.5916
6.505e+09  -1.163  -0.9078  0.0295  0.01499  -0.01103  -0.006111  0.2732  -0.7262
6.506e+09  -1.438  -0.3992  -0.0007231  -0.01811  -0.0007495  -0.02749  0.006276  -0.7774
6.508e+09  -1.465  0.1128  -0.02726  -0.01368  -0.01592  0.01163  -0.29  -0.7308
6.509e+09  -1.308  0.6215  0.02458  -0.00347  0.0303  0.03606  -0.49  -0.6191
6.51e+09  -0.9949  1.096  0.008488  0.0003219  -0.004927  -0.01152  -0.6441  -0.3879
6.511e+09  -0.4959  1.326  0.01327  -0.0125  -0.04281  0.0151  -0.7235  -0.1573
6.512e+09  0.0293  1.447  -0.03224  -0.01196  0.01927  -0.0014  -0.7384  0.09553
6.514e+09  0.5572  1.319  -0.02218  0.004805  -0.07302  -0.001733  -0.6296  0.3844
6.515e+09  0.9241  1.081  -0.003187  -0.001903  0.002596  0.0007516  -0.4658  0.5897
6.516e+09  1.253  0.6425  0.06463  0.01527  -0.02787  -0.0421  -0.2393  0.7039
6.518e+09  1.4  0.09638  -0.01887  -0.03438  0.02424  -0.005881  0.0306  0.7477
6.519e+09  1.294  -0.3958  0.01044  -0.01413  0.03408  0.011  0.2949  0.6766
6.52e+09  1.041  -0.8052  0.007579  0.02204  0.03183  -0.0387  0.5314  0.5468
6.521e+09  0.7003  -1.192  0.04182  -0.009799  -0.01588  0.03401  0.6286  0.3672
6.522e+09  0.2403  -1.31  -0.01996  -0.01653  -0.02385  0.009909  0.711  0.1042
6.524e+09  -0.2327  -1.249  0.001523  0.01873  0.03397  -0.003197  0.7058  -0.1593
6.525e+09  -0.7022  -1.116  0.01518  0.03714  -0.06744  0.006207  0.6406  -0.4092
6.526e+09  -1  -0.8002  -0.04309  0.006236  -0.04773  -0.003374  0.3959  -0.6033
6.528e+09  -1.272  -0.3076  0.003885  -0.002671  0.04694  0.007395  0.1924  -0.696
6.529e+09  -1.297  0.1018  0.01902  -0.01128  0.02116  0.03382  -0.07331  -0.703
6.53e+09  -1.121  0.5697  0.01402  0.02062  0.0001421  -0.003111  -0.3204  -0.6163
6.531e+09  -0.8176  0.9663  -0.0185  -0.01201  0.01275  0.04314  -0.4774  -0.5044
6.532e+09  -0.4775  1.183  0.02294  0.01656  -0.03317  -0.006262  -0.5962  -0.3021
6.534e+09  0.02518  1.222  0.03311  -0.01701  -0.04366  0.003389  -0.6404  -0.08545
6.535e+09  0.4289  1.165  -0.01446  -0.01318  -0.007485  -0.003853  -0.6214  0.1128
6.536e+09  0.7735  0.9121  0.02179  -0.03039  0.0102  0.02353  -0.5461  0.3253
6.538e+09  0.967  0.5393  -0.01266  0.01021  -0.01043  0.07971  -0.4201  0.4322
6.539e+09  1.135  0.09375  0.01007  -0.02437  0.02057  0.01877  -0.2834  0.6224
6.54e+09  1.125  -0.2874  0.03536  -0.01714  0.01416  -0.003844  -0.04324  0.6929
6.541e+09  0.9448  -0.6931  -0.005042  -0.0006294  -0.04161  0.03456  0.1506  0.6685
6.542e+09  0.6309  -0.9567  -0.01406  0.0156  -0.04873  0.03027  0.433  0.572
6.544e+09  0.3187  -1.073  0.03815  0.02071  -0.01961  -0.03799  0.6079  0.3816
6.545e+09  -0.1366  -1.167  0.009594  0.005813  -0.03717  0.01483  0.6563  0.1745
6.546e+09  -0.5305  -0.9848  0.007307  0.005786  -0.02532  0.03062  0.7027  -0.112
6.548e+09  -0.8429  -0.7016  0.01927  -0.02275  -0.01444  -0.0232  0.6343  -0.3356
6.549e+09  -1.033  -0.3982  -8.62e-06  0.01663  0.02432  -0.02619  0.5043  -0.5479
6.55e+09  -1.089  0.0714  -0.02936  0.02326  -0.02609  0.04547  0.2884  -0.6794
6.551e+09  -0.9515  0.4482  0.03642  0.002144  0.01295  -0.03804  0.05299  -0.7366
