# Hz S RI R 50
6.25e+09  -0.05742  0.9162  -0.01089  -0.02828  -0.004752  0.02225  0.1724  0.4974
6.251e+09  0.2797  0.841  -0.02994  0.01468  0.004915  0.0244  0.3639  0.41
6.252e+09  0.5872  0.6862  0.01186  -0.01274  -0.0185  0.0008141  0.5178  0.2242
6.254e+09  0.7726  0.4689  -0.03273  -0.02782  0.02391  -0.007774  0.5966  0.02377
6.255e+09  0.8666  0.1457  -0.038  0.01106  -0.01011  -0.01971  0.6098  -0.2089
6.256e+09  0.9356  -0.1672  -0.0001362  0.02203  -0.04282  0.02363  0.4742  -0.4773
6.258e+09  0.8697  -0.4583  0.01083  0.01223  0.007964  0.009547  0.2963  -0.5929
6.259e+09  0.5861  -0.7351  -0.008236  0.007335  -0.0004458  -0.01977  0.0625  -0.6981
6.26e+09  0.3397  -0.8629  -0.01616  -0.007477  -0.003489  -0.006979  -0.2276  -0.6583
6.261e+09  0.008961  -0.883  -0.02421  -0.008081  -0.02827  -0.0101  -0.4529  -0.5584
6.262e+09  -0.347  -0.8864  0.002897  -0.007481  -0.01962  -0.03773  -0.6323  -0.3272
6.264e+09  -0.6212  -0.6923  0.001101  -0.01899  0.06224  -0.04174  -0.6986  -0.1016
6.265e+09  -0.8134  -0.4095  -0.006145  -0.04959  -0.009009  -0.04972  -0.6909  0.1172
6.266e+09  -0.8762  -0.1238  0.01551  -0.003312  0.00516  -0.05701  -0.6176  0.4098
6.268e+09  -0.8876  0.1873  -0.029  -0.01102  -0.000545  -0.03796  -0.4416  0.6082
6.269e+09  -0.8148  0.4868  0.01546  0.02574  -0.03075  0.01308  -0.229  0.6798
6.27e+09  -0.5685  0.7217  0.007366  0.01307  -0.02817  0.0386  0.09026  0.713
6.271e+09  -0.2521  0.8652  0.002865  0.03814  0.007429  -0.05702  0.3449  0.6702
6.272e+09  0.04474  0.9126  0.01055  -0.006981  -0.001492  0.01797  0.5484  0.555
6.274e+09  0.386  0.8857  -0.02247  0.01578  0.001461  0.03301  0.7193  0.2926
6.275e+09  0.688  0.7128  -0.008293  0.01888  0.01395  -0.02067  0.7707  0.05969
6.276e+09  0.8048  0.3993  0.001357  0.008213  0.04907  0.00122  0.7512  -0.2164
6.278e+09  0.8898  0.1117  0.03134  -0.008106  0.02326  -0.03626  0.6519  -0.4507
6.279e+09  0.8558  -0.2282  0.002705  -0.02038  0.06625  0.004238  0.439  -0.6419
6.28e+09  0.7893  -0.5043  -0.02302  -0.001637  -0.01688  -0.01052  0.1513  -0.7518
6.281e+09  0.5612  -0.7415  -0.001818  0.02202  0.003373  -0.03533  -0.1244  -0.7774
6.282e+09  0.2847  -0.8944  0.0152  -0.003805  -0.01107  0.01436  -0.3704  -0.6881
6.284e+09  -0.08639  -0.9265  -0.05194  -0.01129  -0.04258  -0.0456  -0.5673  -0.5477
6.285e+09  -0.4466  -0.8307  -0.009747  0.005995  -0.03974  -0.02995  -0.7378  -0.3069
6.286e+09  -0.6883  -0.7103  -0.01328  -0.01769  0.00654  -0.05369  -0.7659  -0.05684
6.288e+09  -0.8402  -0.3318  -0.01391  0.02366  0.007963  0.006239  -0.7303  0.2365
6.289e+09  -0.9106  -0.05233  -0.01717  0.01301  -0.05528  -0.05435  -0.6125  0.4791
6.29e+09  -0.8498  0.2481  0.01415  0.023  -0.03918  -0.01549  -0.4375  0.6939
6.291e+09  -0.8062  0.5428  0.01763  0.01732  0.02302  0.008642  -0.1314  0.7861
6.292e+09  -0.4862  0.7715  0.00675  0.0301  0.002363  0.02031  0.1326  0.8124
6.294e+09  -0.1855  0.9544  0.02879  -0.001569  0.02717  0.0009882  0.4067  0.7143
6.295e+09  0.09742  0.9329  -0.0105  -0.0192  0.02341  -0.02569  0.6169  0.5386
6.296e+09  0.3936  0.8181  -0.009304  0.001524  -0.06385  -0.01359  0.7775  0.2779
6.298e+09  0.7818  0.5573  0.009482  0.01448  -0.04206  -0.016  0.8013  0.03141
6.299e+09  0.9069  0.3107  -0.02069  -0.005564  0.01533  0.03064  0.775  -0.2908
6.3e+09  0.9051  0.0009212  -0.02298  -0.006397  0.02513  -0.033  0.6261  -0.5455
6.301e+09  0.8675  -0.3515  0.01572  -0.009163  -0.007286  -0.0149  0.4233  -0.7375
6.302e+09  0.7358  -0.6431  0.02424  0.004115  -0.0366  -0.01717  0.1551  -0.8477
6.304e+09  0.4407  -0.8068  -0.005074  -0.01322  -0.0321  0.02794  -0.1394  -0.8284
6.305e+09  0.1765  -0.9006  -0.001577  -0.02019  0.04057  -0.02428  -0.4221  -0.7251
6.306e+09  -0.2495  -0.9461  -0.02205  -0.02462  -0.01426  0.02111  -0.6475  -0.5439
6.308e+09  -0.5334  -0.766  -0.001759  -0.01255  0.003066  -0.02147  -0.8323  -0.2907
6.309e+09  -0.7853  -0.6089  0.01188  0.001809  -0.003911  0.04535  -0.8784  -0.005033
6.31e+09  -0.9484  -0.2576  -0.02155  -0.002842  -0.03338  -0.02142  -0.8124  0.2917
6.311e+09  -0.9851  0.001064  0.001516  -0.01539  -0.02403  0.03338  -0.6931  0.5341
6.312e+09  -0.9245  0.3831  -0.01622  -0.01118  0.001197  -0.007474  -0.4223  0.7371
6.314e+09  -0.7521  0.7065  -0.01966  0.008915  0.04365  0.02126  -0.16  0.8514
6.315e+09  -0.4593  0.8976  -0.02399  -0.01662  -0.01739  0.009712  0.1216  0.8641
6.316e+09  -0.1023  0.9639  -0.03743  -0.004181  -0.005795  0.0007101  0.4599  0.8071
6.318e+09  0.2618  0.9989  -0.001387  -0.02042  0.006604  -0.02665  0.6951  0.5731
6.319e+09  0.5764  0.7933  -0.01533  0.01926  0.01952  0.009693  0.8372  0.282
6.32e+09  0.8483  0.6155  -0.0002711  0.02337  0.006203  -0.04113  0.9074  0.02196
6.321e+09  1.064  0.2313  -0.0155  0.00488  -0.005913  -0.0007342  0.8511  -0.3078
6.322e+09  1.019  -0.1129  0.006127  0.0071  -0.04006  -0.0142  0.6826  -0.5598
6.324e+09  0.8856  -0.4906  0.01067  -0.03254  -0.03819  0.006325  0.4879  -0.773
6.325e+09  0.6968  -0.8158  -0.001572  -0.001304  -0.04715  0.01545  0.1777  -0.9022
6.326e+09  0.4062  -0.9961  0.03808  -0.003792  -0.01837  0.05568  -0.1287  -0.8883
6.328e+09  0.0723  -0.9872  -0.00342  -0.01729  -0.002234  -0.04869  -0.4675  -0.8275
6.329e+09  -0.3787  -0.9509  -0.008383  0.01261  0.001152  0.02445  -0.6686  -0.6047
6.33e+09  -0.7166  -0.7993  0.01948  0.03341  -0.0212  0.04524  -0.8412  -0.3219
6.331e+09  -0.9143  -0.5367  -0.004384  -0.01849  0.00577  -0.000606  -0.9072  -0.03085
6.332e+09  -1.066  -0.1449  -0.009354  -0.02576  0.006556  0.01803  -0.8584  0.2971
6.334e+09  -1.072  0.2007  -0.004217  0.05039  0.02001  -0.0002018  -0.7052  0.5755
6.335e+09  -0.8819  0.6216  0.02926  -0.01025  0.001602  0.007222  -0.4593  0.8003
6.336e+09  -0.6597  0.8959  0.02739  0.02807  -0.02467  -0.008057  -0.1643  0.8599
6.338e+09  -0.3098  1.021  -0.003811  -0.006911  0.06809  0.003955  0.1228  0.908
6.339e+09  0.04982  1.075  -0.02357  -0.004786  0.004246  -0.02605  0.4626  0.8164
6.34e+09  0.4575  0.976  -0.0197  -0.001438  0.0575  0.06527  0.6819  0.6223
6.341e+09  0.799  0.76  -0.01079  0.004617  0.04663  0.03457  0.8418  0.3605
6.342e+09  0.9882  0.4348  0.02193  0.03025  0.03701  -0.03864  0.9601  0.03173
6.344e+09  1.104  0.04307  0.005918  0.006113  -0.02305  0.005339  0.9037  -0.2967
6.345e+09  1.058  -0.3173  0.002936  -0.001193  -0.01468  -0.01357  0.7565  -0.5669
6.346e+09  0.8447  -0.7495  -0.007813  -0.01329  0.02546  -0.045  0.519  -0.7893
6.348e+09  0.5601  -0.9636  0.031  -0.01731  0.0314  0.005567  0.2045  -0.9261
6.349e+09  0.1783  -1.11  -0.003458  0.01622  -0.02995  -0.03416  -0.09894  -0.9058
6.35e+09  -0.2067  -1.099  0.02728  -0.006345  -0.04585  0.03274  -0.435  -0.8564
6.351e+09  -0.5784  -0.9668  -0.002346  -0.008709  0.007802  -0.008047  -0.6766  -0.6447
6.352e+09  -0.8476  -0.7321  0.02417  -0.01262  0.02705  0.001929  -0.8802  -0.3375
6.354e+09  -1.033  -0.3143  0.0009488  0.02679  -0.02609  -0.02022  -0.9651  -0.0742
6.355e+09  -1.121  0.0392  0.0005147  -0.003625  0.02857  -0.001999  -0.8634  0.2702
6.356e+09  -0.9768  0.4813  0.02121  0.03176  0.03889  -0.008018  -0.7569  0.5684
6.358e+09  -0.7612  0.7807  0.00958  -0.02177  0.0457  0.05375  -0.5415  0.7968
6.359e+09  -0.493  0.994  -0.03187  -0.03161  -0.006177  -0.02857  -0.2404  0.927
6.36e+09  -0.07735  1.126  0.01125  0.04625  0.02628  0.01381  0.113  0.9715
6.361e+09  0.3004  1.008  0.0131  0.01916  -0.01801  0.003766  0.3632  0.8433
6.362e+09  0.664  0.8902  -0.03112  0.03614  0.03996  0.009733  0.6905  0.6921
6.364e+09  0.9429  0.6202  0.01551  0.01426  -0.00851  0.02366  0.8513  0.3969
6.365e+09  1.043  0.2253  -0.004643  0.02245  0.01525  0.01362  0.9451  0.1033
6.366e+09  1.022  -0.1995  0.004113  0.01477  0.00948  0.001993  0.8804  -0.3061
6.368e+09  0.9517  -0.5672  0.04001  0.01634  0.007493  -0.01566  0.7616  -0.5332
6.369e+09  0.7601  -0.8313  0.01676  0.002024  -4.205e-05  0.01656  0.5247  -0.8073
6.37e+09  0.3547  -1.013  0.02244  0.0002337  -0.01426  0.01354  0.2859  -0.8751
6.371e+09  -0.002144  -1.063  0.009736  -0.006334  0.01015  0.03947  -0.1096  -0.9379
6.372e+09  -0.3829  -1.011  0.01518  -0.01774  0.01139  0.02612  -0.3797  -0.8475
6.374e+09  -0.7  -0.7811  0.007516  0.004577  0.0395  0.02224  -0.6824  -0.6857
6.375e+09  -0.9383  -0.4459  -0.0048  -0.01417  0.03285  -0.01255  -0.8358  -0.4411
6.376e+09  -1.09  -0.1324  -0.0274  -0.02199  -0.03402  -0.02638  -0.993  -0.0816
6.378e+09  -1.041  0.2512  0.002187  -0.01853  0.008514  0.0165  -0.9627  0.2564
6.379e+09  -0.91  0.5757  -0.03442  0.01198  0.002673  0.03026  -0.7984  0.5107
6.38e+09  -0.6288  0.8106  -0.008376  -0.02037  0.01905  -0.008275  -0.538  0.7288
6.381e+09  -0.3206  1.063  -0.03458  0.00301  0.04449  -0.006813  -0.2476  0.8902
6.382e+09  0.06006  1.039  0.01769  0.01357  -0.005142  -0.02964  0.04867  0.9356
6.384e+09  0.4515  1.021  -0.04975  0.0009471  0.02085  -0.04027  0.3767  0.8405
6.385e+09  0.7472  0.7745  0.0005282  0.0182  -0.04274  0.007679  0.5776  0.6801
6.386e+09  0.9924  0.4228  -0.03247  0.01382  -0.04752  -0.004864  0.843  0.4405
6.388e+09  1.039  0.1037  0.005342  0.009856  -0.00838  0.0027  0.9034  0.1205
6.389e+09  0.9876  -0.3034  -0.03664  0.03621  0.0151  -0.008688  0.9078  -0.2191
6.39e+09  0.9082  -0.6078  0.01193  -0.019  0.02609  0.04347  0.7384  -0.4872
6.391e+09  0.5894  -0.9256  0.02379  -0.05064  -0.01182  0.0002164  0.5594  -0.7598
6.392e+09  0.2499  -0.987  0.002067  -0.02431  -0.00426  -0.0331  0.2401  -0.9355
6.394e+09  -0.1069  -1.044  -0.01224  -0.03488  -0.004251  0.002193  -0.06089  -0.9089
6.395e+09  -0.4704  -0.9102  -0.004392  -0.002474  -0.008158  0.005404  -0.3064  -0.8574
6.396e+09  -0.7962  -0.7539  -0.0001253  -0.01437  -0.004768  -0.005208  -0.6209  -0.7192
6.398e+09  -0.9469  -0.438  0.02793  0.06282  0.02113  -0.07123  -0.814  -0.4318
6.399e+09  -1.034  -0.07831  0.02799  0.002899  0.08753  -0.01812  -0.9269  -0.1295
6.4e+09  -0.9842  0.3215  0.02415  -0.004919  0.04181  0.01205  -0.887  0.1625
6.401e+09  -0.793  0.6358  -0.0167  -0.04946  0.01898  0.004714  -0.8062  0.5097
6.402e+09  -0.552  0.8146  -0.005973  0.01598  0.01156  0.01449  -0.5902  0.7043
6.404e+09  -0.1844  0.9931  0.005082  -0.0586  -0.006225  0.011  -0.3055  0.8502
6.405e+09  0.1532  1.017  -0.01346  0.007604  -0.02449  -0.02785  0.01567  0.9094
6.406e+09  0.5209  0.8726  0.006773  0.0124  0.008744  0.01453  0.2933  0.8958
6.408e+09  0.7461  0.7151  0.02522  -0.04935  0.009168  -0.03309  0.5538  0.7027
6.409e+09  0.9497  0.3216  0.03353  0.01507  -0.02593  0.008121  0.7754  0.4464
6.41e+09  1.008  -0.03093  -0.005318  -0.003775  0.004873  0.0196  0.8937  0.1559
6.411e+09  0.9811  -0.351  0.033  0.02486  -0.03051  0.005021  0.9077  -0.1615
6.412e+09  0.7722  -0.6401  0.01382  -0.01373  -0.01768  0.01315  0.7939  -0.4085
6.414e+09  0.5521  -0.9196  0.02095  -0.007  0.02981  0.02488  0.642  -0.676
6.415e+09  0.1935  -0.9833  -0.005462  0.01277  -0.01122  -0.01919  0.2984  -0.8405
6.416e+09  -0.159  -0.9775  -0.02167  0.0161  -0.01657  -0.02527  0.009608  -0.893
6.418e+09  -0.5116  -0.8839  0.02225  0.0006368  -0.02657  0.01099  -0.2936  -0.8688
6.419e+09  -0.7705  -0.6454  -0.05367  0.008083  0.007323  -0.0257  -0.5591  -0.6973
6.42e+09  -0.9402  -0.3582  -0.03557  0.02277  -0.001782  -0.0279  -0.7675  -0.4458
6.421e+09  -1.041  -0.01781  0.02869  -0.004179  -0.003839  0.01396  -0.861  -0.2141
6.422e+09  -0.9682  0.407  -0.005293  -0.01685  0.02385  -0.004358  -0.8783  0.108
6.424e+09  -0.7441  0.6598  0.03731  -0.00391  0.03022  0.03894  -0.7826  0.3967
6.425e+09  -0.4723  0.9455  0.007935  -0.04136  -0.01787  -0.007534  -0.6206  0.6637
6.426e+09  -0.1489  1.052  0.02126  0.04371  -0.001483  0.06542  -0.407  0.7802
6.428e+09  0.2013  1.054  -0.01311  -0.008117  0.007011  -0.03054  -0.04555  0.8766
6.429e+09  0.5418  0.8637  -0.00392  -0.0288  -0.002348  -0.01138  0.2331  0.8195
6.43e+09  0.8795  0.6373  0.02534  -0.01053  -0.04896  -0.01581  0.5148  0.6819
6.431e+09  0.9702  0.3079  -0.06265  -0.008313  -0.02685  -0.04373  0.7185  0.4815
6.432e+09  1.06  -0.07679  -0.005532  0.02164  0.006521  -0.03125  0.8411  0.2355
6.434e+09  0.9622  -0.4108  0.03581  0.01297  -0.05812  0.02016  0.8764  -0.06853
6.435e+09  0.7177  -0.7322  0.0122  -0.01482  0.01208  0.00238  0.7414  -0.376
6.436e+09  0.4346  -0.9815  0.02298  -0.01497  0.01096  0.02459  0.5692  -0.6045
6.438e+09  0.08478  -1.02  -0.02129  0.00319  0.02383  -0.01028  0.348  -0.8264
6.439e+09  -0.2663  -1.019  0.001554  -0.05209  0.02042  -0.01865  0.06045  -0.8434
6.44e+09  -0.641  -0.8497  0.00513  0.03112  0.004142  -0.01139  -0.2345  -0.834
6.441e+09  -0.8609  -0.5525  -0.04149  0.02047  0.01536  0.009111  -0.47  -0.6711
6.442e+09  -1.1  -0.2357  -0.03359  -0.01335  0.03172  -0.01575  -0.6841  -0.4848
6.444e+09  -1.039  0.101  -0.02116  -0.03777  0.03216  -0.04305  -0.8381  -0.2175
6.445e+09  -0.9323  0.4888  0.007908  -0.003834  0.01185  0.06553  -0.8553  0.08384
6.446e+09  -0.7289  0.796  0.02197  -0.02162  0.03017  0.03894  -0.7428  0.4013
6.448e+09  -0.4382  0.9974  -0.02809  -0.02872  0.0356  0.0009092  -0.6034  0.552
6.449e+09  -0.03833  1.093  0.04629  -0.007172  -0.005163  0.04015  -0.3923  0.7557
6.45e+09  0.3498  1.028  0.02647  -0.02108  -0.04849  -0.0554  -0.04789  0.849
6.451e+09  0.6498  0.8138  -0.0003731  0.00724  0.01718  -0.09496  0.2101  0.7667
6.452e+09  0.9852  0.551  0.02967  -0.04787  0.008762  0.009681  0.5189  0.6736
6.454e+09  1.036  0.2213  -0.01327  0.02117  -0.05212  0.03366  0.7015  0.5239
6.455e+09  1.106  -0.2011  -0.01108  0.04195  -0.01832  0.0212  0.7425  0.2415
6.456e+09  0.9737  -0.6038  -0.0336  -0.0373  0.03298  0.01273  0.8113  -0.06645
6.458e+09  0.6822  -0.847  0.01622  -0.01818  -0.02968  -0.02136  0.7124  -0.3452
6.459e+09  0.3776  -1.101  0.000232  -0.01038  -0.03634  -0.008654  0.5986  -0.5638
6.46e+09  -0.03785  -1.151  -0.05391  0.04689  0.02131  0.01302  0.3693  -0.7079
6.461e+09  -0.4376  -1.074  0.02739  0.01292  -0.009074  -0.004256  0.0317  -0.8012
6.462e+09  -0.7894  -0.8822  0.03162  -0.0283  0.01257  0.004855  -0.2007  -0.7631
6.464e+09  -1.034  -0.4968  -0.03572  -0.02571  0.01093  -0.06552  -0.4976  -0.6628
6.465e+09  -1.137  -0.1119  0.02605  0.003974  0.002269  -0.01676  -0.6541  -0.4637
6.466e+09  -1.169  0.3179  0.0211  -0.02518  0.01166  0.002848  -0.7801  -0.2637
6.468e+09  -0.9675  0.6858  -0.0128  0.009727  0.01467  -0.04981  -0.8019  0.06773
6.469e+09  -0.5921  1.012  0.02568  0.03261  -0.06947  0.01283  -0.6896  0.386
6.47e+09  -0.2454  1.119  0.006112  -0.006796  -0.02074  0.02239  -0.5546  0.5691
6.471e+09  0.1598  1.154  -0.0001202  -0.0009934  -0.01186  0.0152  -0.3373  0.7092
6.472e+09  0.5409  1.037  -0.02578  -0.02132  -0.02925  0.03151  -0.03153  0.8322
6.474e+09  0.9408  0.8061  -0.004822  0.02669  -0.04558  -0.05711  0.2014  0.7755
6.475e+09  1.128  0.3902  0.02345  -0.0006453  -0.002371  0.01688  0.4714  0.6523
6.476e+09  1.143  0.02325  -0.009794  0.007328  0.0003591  -0.005835  0.6652  0.4257
6.478e+09  1.098  -0.4466  -0.005123  0.03713  0.04349  -0.03453  0.7895  0.172
6.479e+09  0.887  -0.8236  -0.01962  -0.008401  -0.03431  0.0006409  0.7679  -0.03251
6.48e+09  0.5466  -1.094  0.01829  -0.006343  -0.02685  0.02997  0.6846  -0.3274
6.481e+09  0.1297  -1.219  0.006308  -0.01794  -0.008809  0.006236  0.5316  -0.5707
6.482e+09  -0.3033  -1.152  0.0006329  -0.03937  -0.02837  0.02429  0.2691  -0.7016
6.484e+09  -0.733  -0.9749  -0.02746  -0.02142  -0.00283  0.008574  0.04386  -0.7901
6.485e+09  -1.034  -0.6594  -0.01539  0.008636  -0.02541  -0.04422  -0.2337  -0.7179
6.486e+09  -1.21  -0.2665  -0.01298  0.0183  0.02636  -0.02385  -0.4493  -0.6239
6.488e+09  -0.4596  0.224  -0.02088  0.02109  0.3686  0.6293  -0.6059  -0.4074
6.489e+09  -1.076  0.6485  0.003377  0.02264  -0.02281  0.06463  -0.7336  -0.2152
6.49e+09  -0.7535  0.9113  0.01019  0.009707  0.02648  0.003407  -0.8044  0.08055
6.491e+09  -0.3569  1.185  0.004245  -0.005383  -0.01714  0.002275  -0.7037  0.363
6.492e+09  0.01816  1.226  0.01402  0.01499  -0.005642  0.04443  -0.5144  0.595
6.494e+09  0.4262  1.116  0.01017  0.007727  0.04394  0.08623  -0.2715  0.7124
6.495e+09  0.8445  0.8744  0.02672  0.005767  -0.01405  -0.02754  -0.06383  0.7523
6.496e+09  1.149  0.5208  0.01337  -0.01863  -0.008486  -0.03291  0.2421  0.7251
6.498e+09  1.174  0.07024  -0.006508  -0.009325  0.008455  -0.0003548  0.4159  0.6169
6.499e+09  1.189  -0.3385  -0.02421  0.02415  0.0002133  -0.01251  0.6504  0.4027
6.5e+09  0.5647  -0.1094  -0.007661  -0.01027  0.0494  0.01342  0.7234  0.1538
6.501e+09  0.5982  -1.058  0.005743  -0.0318  0.004127  -0.0386  0.7478  -0.07459
6.502e+09  0.1904  -1.227  0.01529  -0.01304  -0.06212  0.04524  0.6733  -0.382
6.504e+09  -0.2306  -1.153  0.03417  0.04525  -0.02191  0.01865  0.5083  -0.563
6.505e+09  -0.6521  -1.007  0.003563  -0.00971  -0.0206  -0.06835  0.2782  -0.715
6.506e+09  -0.99  -0.7096  0.008072  -0.01033  -0.0348  -0.01791  0.02795  -0.7363
6.508e+09  -1.132  -0.375  -0.01682  0.01932  0.01486  -0.02704  -0.2494  -0.7278
6.509e+09  -1.221  0.1413  0.03397  0.0163  0.01437  0.04262  -0.4887  -0.5791
6.51e+09  -1.035  0.4936  -0.00907  0.01208  -0.01456  -0.03131  -0.6279  -0.4198
6.511e+09  -0.7811  0.8769  -0.022  -0.04171  -0.03272  0.04274  -0.7411  -0.1202
6.512e+09  -0.4641  1.069  0.04571  -0.0259  -0.02303  0.02375  -0.7316  0.1079
6.514e+09  -0.07206  1.198  -0.008213  -0.0007062  -0.0199  0.01548  -0.6273  0.3889
6.515e+09  0.4531  1.103  0.01702  0.006092  -0.02957  -0.03102  -0.4862  0.6204
6.516e+09  0.8585  0.8428  0.01707  0.009954  -0.004999  -0.01075  -0.2302  0.7229
6.518e+09  1.004  0.4985  -0.006857  -0.007649  -0.009038  -0.02671  -0.02851  0.7821
6.519e+09  1.085  0.1274  0.0117  -0.02649  0.04389  0.02485  0.2703  0.7219
6.52e+09  1.122  -0.205  -0.01381  -0.002074  -0.001004  0.04615  0.5278  0.5404
6.521e+09  0.9324  -0.6634  -0.01303  0.01016  -0.03075  0.0389  0.6739  0.3614
6.522e+09  0.5773  -0.9352  -0.01062  0.008977  -0.03547  -0.04212  0.7423  0.1107
6.524e+09  0.2508  -1.059  -0.02457  -0.0004202  0.07041  -0.03742  0.7123  -0.1379
6.525e+09  -0.1717  -1.093  -0.04055  -0.01547  -0.02817  0.001885  0.594  -0.417
6.526e+09  -0.5299  -0.9671  -0.0008096  0.009346  -0.04614  -0.01112  0.4069  -0.6078
6.528e+09  -0.8576  -0.7322  0.04089  -0.00597  0.01923  0.01894  0.179  -0.6689
6.529e+09  -1.04  -0.3944  -0.01466  -0.01081  0.002315  -0.008083  -0.07238  -0.6862
6.53e+09  -1.094  0.0154  -0.02174  0.001972  0.09703  -0.02668  -0.2733  -0.6578
6.531e+09  -0.97  0.4546  0.002329  0.004432  -0.007741  0.0117  -0.4739  -0.4599
6.532e+09  -0.7037  0.707  0.02298  -0.01765  0.02309  0.00675  -0.5814  -0.2844
6.534e+09  -0.4721  0.9451  0.009983  -0.02387  0.03757  0.0002282  -0.6257  -0.09258
6.535e+09  -0.1129  1.071  0.0006241  0.02628  0.001992  0.03676  -0.6301  0.1274
6.536e+09  0.3124  0.9695  0.001561  -0.01893  0.003956  -0.01809  -0.5501  0.2861
6.538e+09  0.5954  0.8145  -0.05291  -0.007277  -0.04537  0.02343  -0.4536  0.5114
6.539e+09  0.8444  0.5306  -0.008376  0.00837  0.01156  -0.02632  -0.2552  0.6203
6.54e+09  0.956  0.2043  -0.01304  0.01075  0.0167  0.05107  -0.04324  0.6632
6.541e+09  0.9864  -0.1727  0.01114  0.02031  0.01415  0.01037  0.178  0.6623
6.542e+09  0.8875  -0.4867  0.0127  0.03579  0.02763  0.008786  0.3854  0.6036
6.544e+09  0.6936  -0.7921  0.0255  0.0194  -0.01093  -0.01136  0.5833  0.4255
6.545e+09  0.2795  -0.8983  -0.01766  0.04295  0.027  -0.000945  0.7031  0.1974
6.546e+09  -0.03523  -0.9159  -0.03158  0.0001217  -0.01462  0.007714  0.7506  -0.07507
6.548e+09  -0.405  -0.8741  0.000724  -0.02811  0.021  0.01215  0.6378  -0.3082
6.549e+09  -0.7505  -0.7091  -0.00545  -0.0169  -0.02354  -0.01551  0.4883  -0.5031
6.55e+09  -0.8274  -0.4398  0.03533  0.003039  -0.003716  -0.008015  0.2661  -0.6876
6.551e+09  -0.9223  -0.1202  -0.01178  -0.003474  0.02623  -0.01653  0.0528  -0.7312
