# Hz S RI R 50
6.25e+09  0.8229  0.65  -0.02387  -0.001757  0.01183  0.01271  0.1456  0.4798
6.251e+09  0.9279  0.3609  -0.01045  -0.03624  -0.01545  -0.03335  0.3753  0.4016
6.252e+09  0.9882  -0.02228  0.01354  0.007032  0.01694  0.04961  0.5546  0.2335
6.254e+09  0.8624  -0.3973  0.008484  -0.001725  -0.02949  -0.01784  0.6255  0.02086
6.255e+09  0.7138  -0.6108  -0.00729  0.002176  -0.003801  0.01501  0.5941  -0.2274
6.256e+09  0.4307  -0.8464  0.01958  -0.02968  0.01458  -0.03188  0.4798  -0.4444
6.258e+09  0.1178  -0.9435  0.0324  -0.04387  0.006858  0.02732  0.2716  -0.6373
6.259e+09  -0.2488  -0.9933  0.01451  -0.01635  0.02587  -0.007325  0.03544  -0.6843
6.26e+09  -0.4952  -0.8204  -0.003848  -0.02071  -0.01899  0.001873  -0.1992  -0.6208
6.261e+09  -0.7835  -0.5773  0.03053  0.03146  0.04565  0.03274  -0.4439  -0.5513
6.262e+09  -0.95  -0.2633  -0.004803  -0.002266  0.007471  -0.02027  -0.6412  -0.3422
6.264e+09  -0.9472  0.0796  0.01657  -0.002608  -0.06022  -0.02189  -0.7121  -0.09977
6.265e+09  -0.9111  0.4495  -0.002481  -0.01595  -0.02939  -0.01721  -0.6894  0.1772
6.266e+09  -0.7172  0.7109  0.001419  -0.0004837  -0.01199  0.01485  -0.6009  0.3799
6.268e+09  -0.3429  0.8679  0.03187  0.005482  0.04903  0.004616  -0.3846  0.594
6.269e+09  -0.06905  0.9657  0.009202  0.00914  -0.05852  0.03132  -0.1795  0.7497
6.27e+09  0.3175  0.8848  -0.01554  -0.008261  -0.03778  -0.01218  0.06684  0.7579
6.271e+09  0.6254  0.7565  -0.01861  0.02169  0.02683  -0.02435  0.321  0.6952
6.272e+09  0.8494  0.5042  -0.04133  0.01617  -0.02083  0.05484  0.559  0.5583
6.274e+09  0.9255  0.2104  0.002304  -0.003558  -0.00344  0.0519  0.667  0.29
6.275e+09  0.9537  -0.1904  0.009409  0.01823  -0.02787  0.02719  0.7537  0.04544
6.276e+09  0.8443  -0.5061  0.009261  -0.00278  0.02277  -0.02473  0.7073  -0.2114
6.278e+09  0.6  -0.7717  -0.003658  0.006762  0.03018  0.009347  0.6329  -0.481
6.279e+09  0.3109  -0.9196  0.001633  0.008635  0.0332  -0.04412  0.4246  -0.6594
6.28e+09  0.01489  -0.964  0.04922  -0.01979  0.02834  0.01137  0.1574  -0.765
6.281e+09  -0.368  -0.8623  0.008554  -0.005253  -0.002958  -0.01575  -0.07193  -0.7588
6.282e+09  -0.6715  -0.6507  -0.02618  0.02023  0.01332  -0.006739  -0.3537  -0.7135
6.284e+09  -0.9274  -0.4123  0.006467  -0.02594  -0.005651  -0.04553  -0.5727  -0.515
6.285e+09  -0.9624  -0.08706  0.01646  0.01835  0.009678  -0.01195  -0.7046  -0.293
6.286e+09  -0.8764  0.2547  0.0002749  0.002272  -0.0002433  -0.03334  -0.7713  -0.01449
6.288e+09  -0.7889  0.5648  0.02274  0.001667  0.005264  0.00974  -0.7654  0.2782
6.289e+09  -0.5786  0.8098  0.007797  0.02054  0.02797  -0.01811  -0.6323  0.4915
6.29e+09  -0.1811  0.9547  0.01714  -0.003405  -0.01786  0.0296  -0.4321  0.6852
6.291e+09  0.1248  0.9694  0.01394  -0.01703  0.03341  -0.003061  -0.1711  0.7876
6.292e+09  0.4126  0.9303  0.02912  -0.03246  0.03856  0.01321  0.1396  0.7844
6.294e+09  0.7293  0.6715  0.02193  0.004438  0.01668  0.002142  0.4155  0.683
6.295e+09  0.9588  0.392  0.01395  -0.01642  0.01454  0.04534  0.6225  0.5341
6.296e+09  0.9739  0.005546  0.03068  0.02692  -0.0426  -0.01754  0.7369  0.2758
6.298e+09  0.912  -0.3119  0.006583  0.01675  0.0006417  0.01795  0.8396  0.003413
6.299e+09  0.7557  -0.6608  -0.002369  -0.0484  0.02223  0.00256  0.8165  -0.259
6.3e+09  0.4929  -0.8523  0.001162  0.006447  -0.01702  0.03207  0.6519  -0.5084
6.301e+09  0.1147  -0.9622  0.005399  0.03078  0.01235  -0.01095  0.4258  -0.7428
6.302e+09  -0.2322  -0.9541  -0.01347  0.004956  -0.0003408  0.02313  0.1663  -0.8182
6.304e+09  -0.4995  -0.8445  -0.008032  -0.0106  0.02609  -0.01615  -0.1672  -0.8309
6.305e+09  -0.8107  -0.5932  0.01969  0.01314  -0.0337  -0.01761  -0.4138  -0.7371
6.306e+09  -0.9596  -0.2889  0.00864  -0.01815  -0.007688  -0.0009044  -0.6385  -0.5644
6.308e+09  -1.021  0.06659  -0.005315  -0.01122  -0.001922  -0.003215  -0.799  -0.2822
6.309e+09  -0.9065  0.3987  0.02202  0.01832  0.006726  -0.05686  -0.8445  -0.03222
6.31e+09  -0.7434  0.7132  0.01407  -0.0262  -0.04241  0.05351  -0.8105  0.2717
6.311e+09  -0.4437  0.9037  -0.0101  -0.01796  -0.03427  0.01153  -0.6994  0.5444
6.312e+09  -0.07369  0.9913  0.03485  -0.01348  -0.001334  0.03223  -0.4094  0.7651
6.314e+09  0.3124  0.9837  -0.0199  0.0003491  0.0183  0.008145  -0.1589  0.8962
6.315e+09  0.5663  0.8064  0.01191  0.01888  0.0822  0.00278  0.1775  0.8517
6.316e+09  0.8452  0.5698  0.03126  0.02142  0.005868  -0.0437  0.4744  0.7446
6.318e+09  0.9425  0.2474  0.002967  0.02518  -0.08623  0.02382  0.68  0.5704
6.319e+09  0.9981  -0.1592  0.01839  -0.02449  -0.03422  0.0284  0.8148  0.3015
6.32e+09  0.9356  -0.4602  -0.01077  0.006245  -0.003827  0.04684  0.8803  0.01542
6.321e+09  0.7298  -0.7806  -0.01103  0.02365  0.01183  -0.000116  0.8285  -0.2831
6.322e+09  0.4259  -0.9743  0.02845  0.01074  0.01357  -0.007538  0.6829  -0.5813
6.324e+09  0.01898  -1.05  -0.02196  0.001139  -0.01797  -0.02117  0.4164  -0.7794
6.325e+09  -0.3643  -0.9911  0.002461  -0.001426  -0.01532  0.01828  0.1709  -0.8752
6.326e+09  -0.7329  -0.7915  -0.04262  -0.01218  -0.05308  -0.02462  -0.1421  -0.8986
6.328e+09  -0.9014  -0.5247  -0.01443  -0.02  -0.001498  0.02909  -0.4409  -0.8155
6.329e+09  -1.026  -0.1437  -0.001187  0.01298  0.01932  -0.003472  -0.671  -0.5876
6.33e+09  -0.9962  0.2612  -0.005716  0.03369  -0.03343  -0.03227  -0.8661  -0.3176
6.331e+09  -0.9023  0.5709  -0.02676  -0.004665  -0.005123  -0.03597  -0.9333  -0.03203
6.332e+09  -0.6356  0.8191  0.01977  -0.004821  0.02665  -0.05418  -0.8491  0.2695
6.334e+09  -0.3132  0.9977  -0.00343  0.01083  -0.0119  0.005409  -0.7705  0.5927
6.335e+09  0.06784  1.086  -0.01784  -0.006683  -0.02352  -0.02737  -0.481  0.8001
6.336e+09  0.4075  0.9725  0.01212  -0.004859  0.03501  -0.01069  -0.2022  0.8848
6.338e+09  0.7996  0.7869  0.007251  -0.01969  0.006475  0.02464  0.1274  0.9174
6.339e+09  1.005  0.4426  -0.009685  -0.0009162  -0.01331  0.02106  0.402  0.83
6.34e+09  1.145  0.01018  0.04029  0.02465  0.04367  0.003181  0.6894  0.6317
6.341e+09  1.062  -0.3143  0.01534  -0.004099  0.02703  -0.02777  0.8421  0.3919
6.342e+09  0.8981  -0.6647  9.869e-05  0.003304  0.007927  0.007696  0.9057  0.0345
6.344e+09  0.5785  -0.9697  -0.00455  0.007447  0.001921  0.05834  0.895  -0.2526
6.345e+09  0.212  -1.1  0.02931  0.01984  -0.0237  -0.0004224  0.747  -0.5494
6.346e+09  -0.1543  -1.12  -0.005568  -0.01953  -0.04557  -0.01456  0.4869  -0.7666
6.348e+09  -0.4785  -0.9495  -0.006846  0.04348  -0.04548  -0.01268  0.1872  -0.8634
6.349e+09  -0.8487  -0.7423  0.01763  0.01318  -0.05411  -0.003013  -0.1074  -0.9359
6.35e+09  -1.027  -0.4292  -0.002737  -0.01677  -0.004456  -0.05138  -0.4173  -0.8199
6.351e+09  -1.174  -0.01233  0.01205  -0.01173  0.009031  0.002862  -0.7155  -0.6462
6.352e+09  -1.075  0.3962  -0.004792  0.02497  0.0177  0.00199  -0.8761  -0.3999
6.354e+09  -0.8825  0.7722  -0.01194  0.0157  0.0397  0.009719  -0.9315  -0.02428
6.355e+09  -0.5592  0.9988  -0.03611  0.001937  -0.006065  -0.03128  -0.882  0.2805
6.356e+09  -0.1594  1.095  -0.002686  0.004517  0.02686  0.03  -0.7857  0.5619
6.358e+09  0.2893  1.136  0.007686  0.01152  -0.06967  -0.03173  -0.5063  0.7901
6.359e+09  0.6091  0.9528  0.02262  -0.02648  0.01002  0.005055  -0.2596  0.8763
6.36e+09  0.8892  0.7458  -0.01733  0.05905  -0.01278  0.008711  0.09495  0.9576
6.361e+09  1.139  0.3309  0.02176  0.02637  -0.01645  -0.007293  0.4264  0.8858
6.362e+09  1.228  -0.0644  0.04715  0.01239  0.005671  0.02917  0.6709  0.6576
6.364e+09  1.098  -0.5191  0.01407  -0.01148  0.009827  -0.02319  0.8686  0.3956
6.365e+09  0.8374  -0.8652  -0.01478  -0.003055  0.03672  -0.02011  0.9735  0.04762
6.366e+09  0.5057  -1.057  0.02371  0.04338  0.004249  -0.04414  0.9111  -0.2346
6.368e+09  0.06803  -1.248  0.04082  0.04188  0.006332  -0.01435  0.7969  -0.5398
6.369e+09  -0.319  -1.145  -0.03434  0.02729  0.01121  -0.007628  0.5534  -0.7559
6.37e+09  -0.7651  -1.001  -0.009924  0.01042  -0.02812  0.003966  0.2708  -0.9484
6.371e+09  -1.018  -0.6811  -0.002268  -0.03033  0.01213  0.03266  -0.1037  -0.9403
6.372e+09  -1.242  -0.276  -0.01767  -0.009063  -0.05563  0.01691  -0.3695  -0.8501
6.374e+09  -1.312  0.1489  -0.01076  0.06306  0.0353  -0.05996  -0.6469  -0.6692
6.375e+09  -1.13  0.5692  -0.01567  -0.008925  -0.007396  -0.004483  -0.8166  -0.3899
6.376e+09  -0.8586  0.9316  0.008543  0.004246  0.02756  0.03366  -0.9559  -0.07807
6.378e+09  -0.4813  1.24  -0.003234  0.02119  -0.07049  -0.01911  -0.878  0.231
6.379e+09  -0.06939  1.315  0.0085  0.03388  -0.01015  0.02044  -0.7673  0.5301
6.38e+09  0.4276  1.237  3.036e-06  -0.01334  -0.006013  -0.01134  -0.5699  0.7718
6.381e+09  0.8701  1.028  0.01403  -0.000127  -0.01373  0.008348  -0.2692  0.9364
6.382e+09  1.11  0.7643  0.023  -0.06911  0.0205  -0.006148  0.1024  0.9302
6.384e+09  1.368  0.2066  -0.02512  0.0001508  -0.02179  0.031  0.3645  0.8604
6.385e+09  1.349  -0.263  -0.01158  0.004027  -0.02448  -0.001063  0.6767  0.6948
6.386e+09  1.211  -0.7494  -0.01301  -0.0369  0.06169  -0.01866  0.8065  0.431
6.388e+09  0.8614  -1.151  0.04358  0.0215  -0.04182  -0.0321  0.906  0.1197
6.389e+09  0.4063  -1.351  -0.004124  -0.002404  0.03601  -0.02664  0.9277  -0.2158
6.39e+09  -0.06175  -1.442  -0.00338  -0.02616  -0.0299  0.01233  0.7762  -0.4612
6.391e+09  -0.5889  -1.357  0.008162  -0.04639  0.007026  -0.002605  0.6297  -0.7457
6.392e+09  -0.9853  -1.097  0.01102  0.0003458  -0.02041  -0.02906  0.3196  -0.9039
6.394e+09  -1.275  -0.6646  -0.02618  0.008327  0.02699  -0.005128  -0.09703  -0.8734
6.395e+09  -1.481  -0.2068  -0.01082  0.006205  0.01553  0.01207  -0.3642  -0.8351
6.396e+09  -1.431  0.3202  0.05482  -0.0328  0.01549  0.02807  -0.64  -0.6909
6.398e+09  -1.32  0.9123  -0.03896  -0.03887  -0.07222  -0.02891  -0.7848  -0.4084
6.399e+09  -0.9509  1.331  0.02263  -0.04423  0.009915  0.01663  -0.9061  -0.1178
6.4e+09  -0.3737  1.506  -0.01732  0.05349  0.03974  0.009497  -0.9137  0.1729
6.401e+09  0.2258  1.602  0.04943  -0.006021  -0.02857  -0.0333  -0.7953  0.4927
6.402e+09  0.7519  1.421  0.02953  -0.01707  0.063  -0.03281  -0.545  0.7207
6.404e+09  1.21  1.038  -0.003119  0.004086  0.04527  -0.01909  -0.2912  0.9002
6.405e+09  1.512  0.6369  0.004255  -0.007413  0.03526  -0.01815  0.009137  0.9718
6.406e+09  1.703  0.05146  0.04564  0.01225  0.01794  0.02244  0.3177  0.8978
6.408e+09  1.632  -0.5362  0.003088  -0.03604  -0.0457  0.009482  0.5713  0.6752
6.409e+09  1.377  -1.212  0.009369  -0.02114  -0.05916  -0.04731  0.7533  0.4562
6.41e+09  0.8771  -1.613  0.03806  -0.00824  0.00524  0.04697  0.9191  0.1486
6.411e+09  0.2493  -1.806  -4.429e-05  -0.02815  -0.02288  -0.02972  0.8551  -0.1434
6.412e+09  -0.4058  -1.82  0.01235  0.03581  0.02668  -0.04441  0.7852  -0.4641
6.414e+09  -1.143  -1.591  0.001093  0.001809  0.01163  -0.03753  0.576  -0.718
6.415e+09  -1.613  -1.031  -0.001118  0.001057  -0.04315  -0.04238  0.2799  -0.825
6.416e+09  -1.955  -0.4345  -0.04365  -0.01304  -0.06125  0.02427  -0.00788  -0.887
6.418e+09  -2.038  0.2917  -0.02542  0.01144  0.02559  0.02441  -0.2677  -0.8373
6.419e+09  -1.818  1.052  0.005643  0.01179  0.02127  -0.0187  -0.58  -0.7409
6.42e+09  -1.361  1.58  -0.02625  0.01376  -0.02878  -0.02444  -0.7426  -0.4504
6.421e+09  -0.7148  2.112  -0.02466  -0.04339  -0.008563  -0.004823  -0.822  -0.2083
6.422e+09  0.1875  2.189  -0.009609  0.0007154  -0.01358  0.01451  -0.8889  0.09111
6.424e+09  0.9007  2.056  -0.02269  0.009097  0.05963  0.006459  -0.8212  0.3978
6.425e+09  1.621  1.626  -0.02272  0.01192  -0.002955  0.00992  -0.6155  0.6566
6.426e+09  2.236  0.8445  -0.0177  -0.01319  -0.00774  -0.01338  -0.3651  0.8139
6.428e+09  2.389  -0.0349  -0.02988  -0.03978  -0.008631  0.004249  -0.08631  0.903
6.429e+09  2.295  -0.9156  -0.005867  0.0248  0.08755  -0.06785  0.2696  0.8387
6.43e+09  1.841  -1.663  -0.03506  0.005559  0.06847  -0.02003  0.4854  0.7508
6.431e+09  1.082  -2.328  -0.02007  -0.01828  -0.01662  0.01656  0.7113  0.4853
6.432e+09  0.2177  -2.531  -0.03361  -0.01216  0.03067  -0.06193  0.8285  0.2493
6.434e+09  -0.8066  -2.456  0.03732  -0.02029  -0.004803  0.02198  0.8549  -0.08062
6.435e+09  -1.755  -2.059  -0.03841  -0.03673  -0.02967  -0.01665  0.8003  -0.3731
6.436e+09  -2.393  -1.304  0.03435  -0.006458  0.03656  -0.02643  0.6162  -0.5977
6.438e+09  -2.77  -0.2734  -0.03004  -0.01015  -0.02213  -0.00846  0.3802  -0.7945
6.439e+09  -2.677  0.8297  -0.02382  -0.03201  0.02274  -0.02272  0.05783  -0.8477
6.44e+09  -2.192  1.777  -0.02506  0.0009444  0.05808  0.04609  -0.2199  -0.8209
6.441e+09  -1.427  2.453  -0.01135  -0.005236  0.05939  0.01855  -0.5467  -0.7202
6.442e+09  -0.3379  2.875  -0.01684  0.01151  -0.00224  -0.01085  -0.7185  -0.4316
6.444e+09  0.8007  2.85  -0.003363  -0.0127  -0.006535  0.059  -0.8396  -0.2491
6.445e+09  1.878  2.429  0.0217  0.002426  -0.01163  -0.008474  -0.8289  0.06284
6.446e+09  2.584  1.496  0.06318  -0.02661  0.01207  -0.001585  -0.7516  0.3601
6.448e+09  2.936  0.4252  -0.03111  0.01498  0.006882  -0.0428  -0.6132  0.6382
6.449e+09  2.917  -0.7781  -0.02904  -0.008531  -0.009879  0.0442  -0.3324  0.8091
6.45e+09  2.477  -1.896  -0.01126  0.008145  0.09298  0.06022  -0.09027  0.8707
6.451e+09  1.485  -2.636  0.01183  -0.01829  -0.03261  -0.1005  0.2054  0.8058
6.452e+09  0.3558  -3.013  -0.007519  -0.01479  0.01695  -0.04844  0.515  0.6637
6.454e+09  -0.7241  -2.948  0.03142  0.02949  0.02501  -0.06701  0.7215  0.49
6.455e+09  -1.772  -2.468  -0.02591  0.03727  -0.04325  -0.0282  0.8255  0.1686
6.456e+09  -2.67  -1.554  0.01644  0.007344  0.02055  0.03237  0.8354  -0.105
6.458e+09  -3.037  -0.4356  -0.009201  0.03265  -0.01493  0.05871  0.734  -0.3227
6.459e+09  -2.913  0.7581  0.02566  0.008212  0.05076  0.01972  0.614  -0.5496
6.46e+09  -2.451  1.69  0.0025  -0.02428  -0.002828  -0.02586  0.3486  -0.7513
6.461e+09  -1.587  2.549  -0.03286  -0.02197  -0.03293  -0.02741  0.03431  -0.8124
6.462e+09  -0.4722  2.856  0.02594  0.0296  0.05496  -0.02587  -0.2081  -0.8127
6.464e+09  0.5555  2.905  -0.03135  0.02231  0.01829  -0.01508  -0.4582  -0.6262
6.465e+09  1.596  2.475  0.01431  -0.03356  0.03697  0.001842  -0.6733  -0.433
6.466e+09  2.324  1.644  -0.01044  0.02712  -0.02806  -0.01365  -0.7262  -0.2316
6.468e+09  2.795  0.6376  -0.02079  0.05978  0.01578  0.01738  -0.807  0.05877
6.469e+09  2.809  -0.4225  -0.04666  0.03623  -0.002544  -0.01461  -0.7267  0.349
6.47e+09  2.383  -1.441  0.02282  -0.01916  -0.01242  0.05222  -0.5729  0.5804
6.471e+09  1.715  -2.187  -0.01988  0.002207  -0.02099  0.02277  -0.277  0.7113
6.472e+09  0.8433  -2.667  -0.001001  0.01788  -0.03201  0.006844  -0.04993  0.796
6.474e+09  -0.3061  -2.697  -0.03916  -0.04887  -0.05875  -0.01078  0.198  0.7193
6.475e+09  -1.23  -2.408  -0.01859  -0.04711  -0.02047  0.0372  0.4521  0.6365
6.476e+09  -1.975  -1.809  -0.01962  0.02508  0.05498  0.03322  0.6819  0.4362
6.478e+09  -2.421  -0.9254  -0.002529  -0.01201  -0.0149  -0.02517  0.6989  0.2071
6.479e+09  -2.66  0.05393  -0.02468  -0.02652  -0.02241  -0.001707  0.8111  -0.1049
6.48e+09  -2.449  0.9886  -0.006923  -0.01301  -0.06094  0.03039  0.7432  -0.3398
6.481e+09  -1.829  1.77  -0.03037  -0.04396  0.03296  0.008165  0.5373  -0.5713
6.482e+09  -1.004  2.299  -0.01177  -0.05263  0.03468  0.03353  0.3164  -0.7287
6.484e+09  -0.1933  2.508  -0.05074  0.01871  -0.05395  -0.0301  0.03202  -0.7896
6.485e+09  0.7529  2.438  -0.02745  0.02467  -0.02617  -0.01425  -0.213  -0.7984
6.486e+09  1.566  2.008  0.01573  0.008383  0.002789  0.06011  -0.48  -0.6375
6.488e+09  2.799  0.9893  0.01409  0.0421  -0.3984  -0.6352  -0.6602  -0.4274
6.489e+09  2.444  0.4007  0.02219  -0.01862  0.04685  -0.03299  -0.7466  -0.1841
6.49e+09  2.439  -0.5041  0.02936  -0.008266  -0.03875  -0.02339  -0.7547  0.09093
6.491e+09  2.12  -1.323  0.03777  -0.02432  -0.02752  0.02426  -0.6981  0.3892
6.492e+09  1.508  -1.918  0.02992  0.04638  0.003831  -0.02157  -0.53  0.5818
6.494e+09  0.6271  -2.441  -0.0492  -0.003552  -0.06855  0.05521  -0.3103  0.7386
6.495e+09  -0.2086  -2.495  -0.02021  -0.02316  0.009349  0.011  -0.04376  0.753
6.496e+09  -1.062  -2.196  -0.02479  -0.01285  -0.06505  0.01202  0.2332  0.6932
6.498e+09  -1.761  -1.611  -0.001063  -0.001814  -0.01125  0.007174  0.5024  0.609
6.499e+09  -2.267  -0.9164  0.01697  -0.01968  -0.02898  -0.01416  0.6203  0.3941
6.5e+09  -0.7336  -1.433  -0.02476  0.01401  -0.001279  -0.01256  0.7607  0.1556
6.501e+09  -2.193  0.8175  0.01344  -0.03017  0.01412  -0.05951  0.7485  -0.1182
6.502e+09  -1.869  1.566  0.01854  -0.0331  0.01504  0.03444  0.7037  -0.3595
6.504e+09  -1.163  2.067  -0.0475  -0.002437  0.06153  0.009868  0.5368  -0.5753
6.505e+09  -0.2578  2.354  -0.007031  -0.003472  -0.058  -0.04606  0.2572  -0.6814
6.506e+09  0.5861  2.353  0.01229  0.01473  0.01114  -0.01104  -0.002707  -0.7409
6.508e+09  1.417  2.049  -0.00875  0.02473  -0.04288  0.009486  -0.2355  -0.7075
6.509e+09  2.008  1.344  0.004156  0.002662  0.03311  -0.01187  -0.4426  -0.6111
6.51e+09  2.348  0.6227  -0.01747  -0.0004568  0.05087  0.01777  -0.6626  -0.3815
6.511e+09  2.43  -0.2789  0.0223  -0.03058  0.09999  0.04434  -0.762  -0.1626
6.512e+09  2.117  -1.141  -0.01686  0.00575  -0.05539  -0.04529  -0.7399  0.1154
6.514e+09  1.672  -1.826  0.01825  -0.004062  -0.04115  -0.01809  -0.6286  0.3461
6.515e+09  0.8942  -2.344  0.03963  0.01323  -0.018  0.01699  -0.5105  0.5764
6.516e+09  0.001283  -2.52  -0.0001685  0.0164  -0.01916  0.001671  -0.2223  0.7214
6.518e+09  -0.9124  -2.357  0.01059  -0.01461  0.02829  -0.01244  -0.001171  0.7352
6.519e+09  -1.674  -1.928  -0.02121  0.007527  -0.006661  -0.0006907  0.2437  0.6964
6.52e+09  -2.278  -1.139  -0.02674  0.02265  0.02268  0.08858  0.468  0.5572
6.521e+09  -2.604  -0.2761  -0.04621  0.004149  0.08775  -0.04593  0.6666  0.3609
6.522e+09  -2.492  0.7191  0.008525  -0.0172  -0.06524  -0.07152  0.7158  0.1058
6.524e+09  -2.141  1.564  -0.004059  -0.007934  0.02041  -0.0122  0.7142  -0.1568
6.525e+09  -1.332  2.299  -0.01078  -0.0007175  0.001008  0.04634  0.6052  -0.405
6.526e+09  -0.482  2.545  -0.02145  -0.003718  0.02822  0.03046  0.4042  -0.5676
6.528e+09  0.5196  2.686  -0.01371  -0.01658  -0.018  0.01817  0.1955  -0.6773
6.529e+09  1.418  2.277  0.02967  0.009624  0.09826  0.01923  -0.02561  -0.6788
6.53e+09  2.227  1.678  0.02877  0.009488  -0.01005  -0.004123  -0.2968  -0.6125
6.531e+09  2.68  0.7934  0.02651  0.04097  0.02196  -0.009475  -0.4953  -0.4662
6.532e+09  2.763  -0.3114  -0.01334  -0.01939  -0.002447  -0.01173  -0.558  -0.283
6.534e+09  2.415  -1.326  0.004676  -0.02392  -0.05176  -0.03045  -0.6287  -0.09173
6.535e+09  1.829  -2.148  0.02008  -0.004197  -0.005867  0.01217  -0.6111  0.1191
6.536e+09  0.8742  -2.681  -0.02854  0.0128  -0.1087  0.06789  -0.5736  0.3122
6.538e+09  -0.1385  -2.888  -0.00211  -0.02824  -0.0345  -0.01384  -0.4391  0.4387
6.539e+09  -1.18  -2.594  -0.01206  0.01972  -0.06024  -0.0003772  -0.2838  0.6034
6.54e+09  -2.116  -2.118  -0.02452  0.0003277  -0.03884  0.00558  -0.05526  0.6884
6.541e+09  -2.736  -1.05  -0.001523  -0.009671  0.02625  -0.03574  0.2082  0.7166
6.542e+09  -2.9  -0.003946  -0.007584  0.005653  0.002261  -0.0018  0.444  0.543
6.544e+09  -2.769  1.061  0.01555  0.01095  -0.04388  0.01749  0.5796  0.4123
6.545e+09  -2.228  2.067  0.002869  -0.02153  -0.1272  -0.01046  0.7198  0.1871
6.546e+09  -1.221  2.706  -0.007098  0.01297  -0.008193  0.01305  0.7227  -0.0836
6.548e+09  -0.1005  3.037  -0.01146  -0.0212  -0.03415  -0.06166  0.6554  -0.3635
6.549e+09  1.058  2.818  -0.02109  -0.02515  -0.01647  0.05707  0.5279  -0.5249
6.55e+09  1.964  2.217  0.02551  0.00998  0.06078  0.03627  0.26  -0.7132
6.551e+09  2.591  1.173  0.0009113  0.009199  -0.0008923  -0.05608  0.04499  -0.7191
6.552e+09  2.942  0.1011  0.01358  -0.008311  0.02719  0.04649  -0.2143  -0.7189
6.554e+09  2.782  -0.9496  -0.02563  -0.01992  -0.02142  0.05244  -0.4355  -0.5851
