# Hz S RI R 50
6.25e+09  0.03246  0.9611  -0.0187  0.03311  0.03136  0.04478  0.1738  0.4816
6.251e+09  0.3428  0.8525  0.001959  0.01349  0.02486  -0.01846  0.3787  0.3942
6.252e+09  0.6407  0.6909  0.001359  -0.008498  0.004109  -0.02136  0.5351  0.2398
6.254e+09  0.8365  0.3513  -0.02272  0.02393  0.04314  -0.01018  0.6085  -0.02164
6.255e+09  0.8958  0.07774  -0.01167  -0.006062  -0.02641  -0.04095  0.5886  -0.2282
6.256e+09  0.9099  -0.2285  0.01104  0.02016  -0.04178  -0.01074  0.462  -0.4545
6.258e+09  0.7381  -0.5457  0.01443  0.0008525  0.05405  0.01398  0.2901  -0.5795
6.259e+09  0.5416  -0.7317  0.00334  -0.01494  0.03767  -0.01272  0.05738  -0.6697
6.26e+09  0.2476  -0.8855  0.00895  -0.02232  0.02422  0.01377  -0.208  -0.6214
6.261e+09  -0.05361  -0.8769  0.01532  -0.008856  0.03846  0.0148  -0.4272  -0.507
6.262e+09  -0.4006  -0.7893  0.01202  -0.0124  -0.01685  -0.008307  -0.6381  -0.3314
6.264e+09  -0.6513  -0.6366  -0.02572  0.01057  0.004047  -0.03979  -0.7234  -0.1175
6.265e+09  -0.8119  -0.3498  -0.04378  -0.003004  0.04177  -0.0357  -0.7068  0.1583
6.266e+09  -0.951  -0.1013  -0.01797  0.01308  0.02  -0.03753  -0.6155  0.3985
6.268e+09  -0.8653  0.2629  0.03225  0.0005749  0.001436  0.001758  -0.4134  0.6091
6.269e+09  -0.7665  0.5478  -0.00931  0.009962  0.01175  0.04017  -0.1737  0.7012
6.27e+09  -0.5265  0.804  0.02446  0.02755  0.01447  0.00436  0.0637  0.7631
6.271e+09  -0.1863  0.886  0.01356  0.009943  -0.04003  -0.00659  0.2996  0.6734
6.272e+09  0.09932  0.913  -0.01058  -0.004708  0.04918  0.003041  0.5253  0.5213
6.274e+09  0.4067  0.8306  -0.01372  0.02706  -0.02628  -0.02183  0.707  0.3119
6.275e+09  0.6378  0.5917  0.03857  0.01922  0.01682  0.08196  0.7635  0.04094
6.276e+09  0.8544  0.342  -0.01395  -0.003769  0.01014  0.006077  0.7456  -0.2204
6.278e+09  0.9002  0.0434  -0.01081  -0.003673  -0.02345  0.01226  0.5748  -0.4361
6.279e+09  0.8693  -0.3069  -0.006976  0.01888  0.04327  0.03433  0.4065  -0.6571
6.28e+09  0.6705  -0.5873  0.0021  0.02759  -0.01309  0.03077  0.1732  -0.77
6.281e+09  0.4388  -0.8089  0.01098  0.02631  0.02521  -0.03009  -0.1266  -0.7405
6.282e+09  0.1576  -0.9469  0.04805  0.001592  -0.01117  -0.03198  -0.3451  -0.6898
6.284e+09  -0.1673  -0.9608  0.004713  -0.01547  0.05139  0.002634  -0.5802  -0.5332
6.285e+09  -0.4605  -0.8021  -0.01513  -0.003035  0.005005  0.0435  -0.7453  -0.2834
6.286e+09  -0.6758  -0.6276  -0.0006142  -0.009026  0.02785  0.06089  -0.7787  -0.05006
6.288e+09  -0.8867  -0.3015  -0.01499  0.004601  0.03833  -0.02712  -0.7432  0.2689
6.289e+09  -0.962  0.01446  0.03127  -0.00689  0.03872  0.02688  -0.6239  0.4963
6.29e+09  -0.8397  0.3008  0.01537  -0.02494  -0.02606  -0.04311  -0.4362  0.6617
6.291e+09  -0.7353  0.6151  0.01243  -0.001207  -0.03347  0.003287  -0.1465  0.8049
6.292e+09  -0.4404  0.8747  0.01965  -0.02676  -0.007709  0.0089  0.1152  0.8009
6.294e+09  -0.1376  0.9551  -0.005638  -0.01762  0.02154  0.002184  0.3865  0.6988
6.295e+09  0.1591  0.8911  -0.01351  -0.02082  -0.0175  -0.0104  0.6372  0.5173
6.296e+09  0.4964  0.822  -0.0081  -0.02619  -0.05209  -0.05623  0.7582  0.2927
6.298e+09  0.7096  0.6163  0.01695  0.013  0.01654  0.02999  0.8454  0.009839
6.299e+09  0.9501  0.3148  0.008365  0.01046  -0.0006482  0.04224  0.7784  -0.2704
6.3e+09  0.9503  -0.05667  -0.03152  -0.00418  0.02044  0.009735  0.6732  -0.5203
6.301e+09  0.8508  -0.405  -0.007543  0.02127  0.008086  0.007497  0.4239  -0.7267
6.302e+09  0.6877  -0.6638  0.00395  -0.01715  0.03712  0.003322  0.1452  -0.8322
6.304e+09  0.415  -0.8717  -0.02588  0.01394  0.02766  -0.0531  -0.09799  -0.8318
6.305e+09  0.09611  -0.9483  0.008084  0.007886  -0.01338  -0.05432  -0.4243  -0.7048
6.306e+09  -0.2222  -0.899  -0.01463  0.008927  0.006104  0.01479  -0.6639  -0.5556
6.308e+09  -0.5682  -0.7889  -0.0147  -0.001179  -0.007548  -0.01615  -0.807  -0.325
6.309e+09  -0.8029  -0.5684  0.01304  0.01508  -0.003682  -0.0372  -0.8349  -0.009133
6.31e+09  -0.9634  -0.2608  0.009791  0.01077  0.0009159  -0.00127  -0.8328  0.2822
6.311e+09  -0.9407  0.09369  -0.005942  0.02228  0.06185  -0.002058  -0.6616  0.5521
6.312e+09  -0.9149  0.4661  0.03245  -0.004772  0.04937  -0.01158  -0.3906  0.7548
6.314e+09  -0.6662  0.7614  -0.002161  -0.01367  0.00112  0.004547  -0.1591  0.8977
6.315e+09  -0.3492  0.8982  0.007188  -0.007408  0.006597  0.02652  0.1705  0.8628
6.316e+09  -0.0839  1.001  -0.001187  0.008721  0.008725  0.009061  0.4147  0.7561
6.318e+09  0.3172  1.026  -0.007606  0.003523  0.01215  -0.05991  0.6598  0.5543
6.319e+09  0.5908  0.7619  0.02912  0.01614  0.01164  0.02507  0.8239  0.3104
6.32e+09  0.8488  0.537  -0.001346  -0.01474  -0.01992  -0.007378  0.8875  0.02424
6.321e+09  1.021  0.1921  -0.02453  -0.01784  -0.02725  -0.05362  0.8283  -0.2555
6.322e+09  1.039  -0.1212  0.02313  -0.01609  0.002239  -0.0211  0.673  -0.5761
6.324e+09  0.9537  -0.5083  -0.02404  -0.0199  -0.02146  -0.05293  0.4703  -0.752
6.325e+09  0.6525  -0.8185  -0.02629  0.00978  0.01751  -0.02085  0.163  -0.9155
6.326e+09  0.3902  -0.9739  -0.01354  0.02217  -0.03672  0.05138  -0.1601  -0.8868
6.328e+09  -0.05404  -1.081  0.01432  -0.01496  -0.000441  0.03451  -0.4516  -0.7951
6.329e+09  -0.4078  -0.9957  -0.048  -0.02537  0.05293  -0.03787  -0.6949  -0.6053
6.33e+09  -0.7446  -0.7985  0.02553  -0.00227  0.03746  -0.01701  -0.8254  -0.3608
6.331e+09  -0.9766  -0.4935  0.005822  0.0286  -0.02022  0.006016  -0.9161  -0.01396
6.332e+09  -1.123  -0.1466  -0.003195  0.03023  -0.03733  -0.01953  -0.8684  0.2585
6.334e+09  -1.067  0.2579  0.006412  -0.0156  -0.004257  0.008271  -0.7034  0.5595
6.335e+09  -0.9062  0.6217  -0.02525  -0.02965  -0.01211  0.04676  -0.5049  0.7957
6.336e+09  -0.5834  0.877  -0.01971  -0.01116  0.02522  0.0426  -0.2073  0.8803
6.338e+09  -0.2775  1.106  -0.007035  0.005313  -0.0104  -0.007919  0.1265  0.9137
6.339e+09  0.05735  1.071  0.01432  -0.01901  -0.0336  -8.447e-05  0.4204  0.8203
6.34e+09  0.5348  0.9858  -0.006229  -0.02255  0.0114  0.01618  0.6658  0.6295
6.341e+09  0.8139  0.7689  0.01324  0.003182  -0.03276  0.009765  0.8211  0.3732
6.342e+09  1.096  0.4481  -0.02041  -0.01085  -0.00842  0.00952  0.8834  0.01536
6.344e+09  1.142  0.02956  -0.01627  -0.0337  -0.05192  -0.03851  0.8887  -0.2908
6.345e+09  1.079  -0.401  0.002468  0.008037  -0.01457  0.01185  0.7332  -0.59
6.346e+09  0.8531  -0.7348  0.01386  0.003118  0.01977  0.0131  0.5019  -0.7833
6.348e+09  0.5483  -1.046  -0.0009868  -0.01986  -0.0542  0.0414  0.2315  -0.8974
6.349e+09  0.2021  -1.118  -0.02947  0.01451  -0.04243  0.05562  -0.06658  -0.9349
6.35e+09  -0.2452  -1.151  0.0178  -0.02472  -0.02868  -0.006316  -0.4128  -0.8403
6.351e+09  -0.6254  -1.013  0.02176  0.02503  0.02295  0.0365  -0.6656  -0.5984
6.352e+09  -0.9374  -0.7373  -0.0356  0.01718  0.01487  -0.04817  -0.8385  -0.3491
6.354e+09  -1.161  -0.3138  -0.01398  0.0001908  -0.01376  0.02295  -0.9458  -0.08587
6.355e+09  -1.22  0.08262  -0.01949  -0.02417  0.01676  0.03492  -0.9101  0.2589
6.356e+09  -1.096  0.451  0.03083  -0.006956  0.008165  0.004276  -0.7486  0.5793
6.358e+09  -0.8754  0.8637  -0.01405  0.03835  -0.01471  -0.02029  -0.5146  0.7637
6.359e+09  -0.4773  1.118  0.01084  -0.03354  -0.009532  0.03111  -0.2446  0.899
6.36e+09  -0.03832  1.209  -0.004805  -0.002742  0.0458  -0.005144  0.118  0.9374
6.361e+09  0.3629  1.155  0.01369  -0.01984  0.01672  0.02303  0.4044  0.8588
6.362e+09  0.7138  0.9609  -0.0117  0.02258  0.03658  -0.003351  0.6782  0.6367
6.364e+09  1.041  0.646  0.03781  -0.002135  0.02763  -0.03399  0.8894  0.406
6.365e+09  1.147  0.2959  0.004103  -0.002042  0.02374  -0.001927  0.9093  0.08039
6.366e+09  1.203  -0.1977  -0.02478  -0.003524  0.007641  -0.008154  0.9354  -0.2758
6.368e+09  1.104  -0.6783  0.02469  0.01362  -0.005244  0.003074  0.7995  -0.5252
6.369e+09  0.7807  -0.922  -0.01285  -0.03404  0.02201  -0.00927  0.5546  -0.7608
6.37e+09  0.3947  -1.159  -0.04631  0.05455  -0.002219  -0.03834  0.2582  -0.9313
6.371e+09  -0.05103  -1.233  -0.0166  0.02743  -0.005165  0.01393  -0.0934  -0.9357
6.372e+09  -0.4745  -1.123  -0.02412  0.02156  -0.003548  0.01562  -0.401  -0.8563
6.374e+09  -0.8056  -0.9524  -0.01011  -0.03093  -0.01956  -0.002582  -0.6687  -0.69
6.375e+09  -1.162  -0.5502  0.02182  -0.009331  -0.02013  0.02852  -0.8586  -0.4252
6.376e+09  -1.206  -0.1598  -0.03387  0.005346  -0.009372  -0.04794  -0.9565  -0.1238
6.378e+09  -1.199  0.3488  -0.05914  0.003791  0.04897  0.01672  -0.8812  0.232
6.379e+09  -0.9997  0.727  -0.02233  -0.04812  0.02187  -0.01093  -0.7753  0.5043
6.38e+09  -0.7006  1.044  -0.004889  0.009463  0.02306  0.01656  -0.5883  0.7587
6.381e+09  -0.3371  1.232  0.01757  -0.007403  0.04161  0.005218  -0.2474  0.9354
6.382e+09  0.1709  1.271  0.03764  0.02377  -0.03052  0.02724  0.0491  0.9405
6.384e+09  0.6193  1.067  -0.002904  0.00511  -0.03456  -0.03752  0.3522  0.8758
6.385e+09  0.9362  0.8148  0.01039  0.02428  -0.01251  0.02222  0.5973  0.695
6.386e+09  1.155  0.4679  0.008644  0.001978  -0.0291  -0.03534  0.8573  0.4581
6.388e+09  1.239  0.04179  -0.0167  -0.01849  -0.01269  -0.007763  0.9248  0.08602
6.389e+09  1.16  -0.4219  0.008999  -0.005508  -0.02489  0.04374  0.922  -0.2223
6.39e+09  0.969  -0.8233  0.00614  -0.01547  -0.01492  -0.009526  0.8154  -0.5186
6.391e+09  0.6207  -1.076  0.009084  -0.03512  -0.01572  -0.03181  0.5444  -0.7146
6.392e+09  0.2238  -1.19  0.02301  0.01162  -0.02594  -0.04133  0.2787  -0.878
6.394e+09  -0.2303  -1.221  -0.02876  -0.003188  0.01821  -0.005638  -0.05565  -0.8966
6.395e+09  -0.6589  -1.078  -0.005774  -0.03038  -0.02167  0.01932  -0.325  -0.8497
6.396e+09  -0.981  -0.7442  -0.0001784  0.02778  0.009388  0.001695  -0.5987  -0.6422
6.398e+09  -1.204  -0.3458  -0.01626  -0.006089  -0.001529  -0.06901  -0.8083  -0.4477
6.399e+09  -1.193  0.08662  -0.005731  -0.009  -0.04355  -0.06063  -0.9319  -0.1668
6.4e+09  -1.104  0.503  -0.05273  -0.02858  -0.006353  -0.02225  -0.8904  0.1762
6.401e+09  -0.9083  0.8105  -0.0006881  0.05623  -0.001943  -0.0297  -0.8348  0.5108
6.402e+09  -0.508  1.092  -0.003949  0.005848  0.007256  -0.06584  -0.6071  0.6984
6.404e+09  -0.1239  1.201  -0.02005  0.009824  0.01324  0.02865  -0.3035  0.8722
6.405e+09  0.3425  1.146  -0.03121  -0.02064  -0.007498  0.04522  -0.004032  0.9215
6.406e+09  0.7337  1.021  -0.0005008  0.02708  -0.01197  0.01109  0.2998  0.8793
6.408e+09  0.9873  0.7096  0.01717  -0.0157  0.0122  0.006824  0.6104  0.6996
6.409e+09  1.137  0.2764  0.0117  -0.02715  0.002075  0.02068  0.8121  0.4499
6.41e+09  1.201  -0.1129  -0.03291  -0.004157  0.02997  0.04489  0.8732  0.1572
6.411e+09  1.097  -0.5635  -0.00734  0.03715  -0.001727  -0.007423  0.8375  -0.1226
6.412e+09  0.8101  -0.8633  -0.01181  0.01763  -0.04528  -0.01764  0.8282  -0.4273
6.414e+09  0.412  -1.14  0.01969  -0.01417  -0.01673  -0.02056  0.5651  -0.6773
6.415e+09  0.0226  -1.236  0.009705  -0.005563  0.01031  0.0008486  0.3106  -0.8546
6.416e+09  -0.4227  -1.158  -0.00943  -0.01077  -0.01351  0.01734  0.01943  -0.9464
6.418e+09  -0.7477  -0.9344  0.02963  0.006885  -0.004412  -0.04021  -0.2906  -0.8426
6.419e+09  -1.033  -0.6261  0.001224  -0.01932  0.006702  -0.000336  -0.5639  -0.7536
6.42e+09  -1.277  -0.3089  0.0348  -0.03327  -0.01346  -0.002877  -0.7745  -0.4779
6.421e+09  -1.219  0.1971  -0.0137  -0.002878  -0.05028  -0.009696  -0.828  -0.1988
6.422e+09  -1.078  0.635  0.03252  0.01221  -0.04656  0.009467  -0.8838  0.1282
6.424e+09  -0.8404  0.9605  -0.0121  -0.003595  0.03494  -0.002928  -0.8434  0.4107
6.425e+09  -0.4173  1.183  -0.004123  -0.02302  0.0001202  0.002431  -0.5718  0.6583
6.426e+09  0.04333  1.248  -0.00931  0.003796  -0.005728  -0.01954  -0.3425  0.8216
6.428e+09  0.3999  1.186  -0.02254  0.001094  -0.02388  -0.02875  -0.03105  0.8469
6.429e+09  0.8291  0.9496  -0.0002735  0.02592  0.02508  0.07309  0.2645  0.86
6.43e+09  1.136  0.6054  -0.01269  -0.01568  -0.005151  -0.02267  0.5168  0.7338
6.431e+09  1.274  0.1734  0.0268  -0.01936  -0.01435  -0.04021  0.6904  0.458
6.432e+09  1.25  -0.2943  0.01877  0.03361  0.01069  -0.02631  0.8157  0.2261
6.434e+09  1.053  -0.6662  -0.002586  -0.002762  0.005152  -0.0187  0.8792  -0.1191
6.435e+09  0.7471  -1.01  -0.007541  0.07196  -0.01679  -0.04334  0.7892  -0.383
6.436e+09  0.3915  -1.25  0.01713  -0.02822  -0.01638  0.02198  0.5993  -0.5834
6.438e+09  -0.09023  -1.236  -0.01425  -0.003474  -0.02867  0.01689  0.3357  -0.7983
6.439e+09  -0.5292  -1.149  -0.03181  0.004975  -0.03851  -0.01997  0.07535  -0.8533
6.44e+09  -0.9495  -0.8949  0.0182  0.01292  -0.01961  -0.009736  -0.2335  -0.8055
6.441e+09  -1.188  -0.5917  0.00864  -0.02477  0.05802  -0.0005785  -0.4967  -0.7229
6.442e+09  -1.366  -0.1179  -0.01254  0.025  -0.001232  0.002596  -0.7427  -0.4509
6.444e+09  -1.267  0.3806  -0.04622  0.004769  0.0145  -0.0526  -0.7774  -0.2607
6.445e+09  -1.068  0.736  -0.03786  0.002569  0.02659  -0.0411  -0.7969  0.09696
6.446e+09  -0.7097  1.125  -0.002764  0.007802  -0.0003447  -0.02684  -0.7652  0.405
6.448e+09  -0.2293  1.341  -0.00152  -0.03793  -0.04157  -0.009806  -0.6401  0.5962
6.449e+09  0.1938  1.379  0.005834  0.0167  -0.0107  0.01639  -0.3602  0.7537
6.45e+09  0.6771  1.228  0.04604  -0.0235  0.01853  0.03124  -0.05908  0.8848
6.451e+09  1.032  0.874  0.007745  -0.01335  -0.03654  -0.08731  0.1507  0.7957
6.452e+09  1.261  0.4806  -0.02194  0.005233  -0.01168  0.01354  0.5262  0.6727
6.454e+09  1.383  0.004704  0.009911  0.05082  -0.03414  0.02111  0.6835  0.4231
6.455e+09  1.327  -0.4928  -0.02056  -0.001005  -0.05648  -0.006734  0.8139  0.2325
6.456e+09  1.004  -0.9668  -0.02114  0.005576  0.06628  -0.006457  0.7891  -0.05774
6.458e+09  0.7114  -1.236  0.002964  -0.004623  -0.0251  -0.02933  0.7138  -0.3897
6.459e+09  0.1901  -1.392  0.01013  -0.03015  0.004155  0.006385  0.5594  -0.5662
6.46e+09  -0.3693  -1.377  -0.03496  -0.02129  -0.008995  0.07736  0.3657  -0.7123
6.461e+09  -0.8562  -1.201  0.009803  -0.0334  -0.01497  -0.05201  0.111  -0.8145
6.462e+09  -1.178  -0.8403  0.01098  -0.0132  -0.01949  -0.001773  -0.2051  -0.7305
6.464e+09  -1.475  -0.3891  -0.03111  -0.01881  0.01568  -0.002037  -0.4555  -0.6635
6.465e+09  -1.441  0.1769  0.02525  -0.04167  -0.01905  0.04598  -0.6835  -0.4692
6.466e+09  -1.293  0.7267  0.01497  0.02598  -0.03432  0.005704  -0.8215  -0.1719
6.468e+09  -1.002  1.163  0.00244  0.01164  0.03695  0.01926  -0.8323  0.02217
6.469e+09  -0.5182  1.436  0.02308  -0.01565  0.03295  -0.04074  -0.7309  0.3662
6.47e+09  0.01566  1.505  -0.009055  -0.01752  -0.01094  0.02152  -0.5631  0.5811
6.471e+09  0.5632  1.425  -0.009215  0.01389  -0.01981  -0.006024  -0.3363  0.7332
6.472e+09  1.107  1.12  0.01037  -0.03069  0.02739  -0.00904  -0.05484  0.7871
6.474e+09  1.425  0.6496  0.02839  -0.009827  -0.008426  -0.02208  0.2163  0.7563
6.475e+09  1.607  0.1213  0.006682  -0.0171  -0.03147  0.002098  0.4723  0.6464
6.476e+09  1.548  -0.4692  0.0254  0.01594  -0.06554  -0.047  0.6553  0.4431
6.478e+09  1.318  -0.9676  -0.03051  -0.0231  0.03171  -0.03059  0.7457  0.1898
6.479e+09  0.8283  -1.354  -0.001309  0.009723  0.03409  0.03152  0.7744  -0.09587
6.48e+09  0.3064  -1.586  0.03386  0.007192  -0.007814  -0.03489  0.7181  -0.3447
6.481e+09  -0.2728  -1.599  -0.04842  -0.05879  0.03215  0.06451  0.544  -0.5912
6.482e+09  -0.8827  -1.405  -0.03967  0.04774  0.02102  0.04099  0.3351  -0.699
6.484e+09  -1.392  -0.9682  0.008884  0.04157  -0.03692  0.009908  0.07566  -0.7966
6.485e+09  -1.595  -0.4313  -0.005788  -0.05044  0.02445  0.002969  -0.2474  -0.7241
6.486e+09  -1.68  0.1868  0.01555  -0.01486  -0.01512  0.03145  -0.465  -0.6473
6.488e+09  -2.304  0.6952  0.0004668  0.009458  0.1338  0.728  -0.6225  -0.4091
6.489e+09  -1.181  1.258  -0.01637  -0.04005  0.03609  0.03407  -0.79  -0.1963
6.49e+09  -0.5257  1.632  0.01704  0.03521  -0.03234  0.003709  -0.7436  0.1035
6.491e+09  0.07612  1.735  0.0006469  -0.02756  0.023  -0.006877  -0.6829  0.3458
6.492e+09  0.7359  1.562  0.03643  0.008411  -0.02006  -0.01638  -0.5736  0.5682
6.494e+09  1.111  1.197  -0.02799  0.01592  0.03082  0.05019  -0.2891  0.7128
6.495e+09  1.669  0.6426  -0.009913  0.02834  -0.007913  0.0209  -0.0407  0.8096
6.496e+09  1.687  0.05345  -0.03025  0.03613  0.01922  0.07199  0.2304  0.7193
6.498e+09  1.652  -0.5849  -0.02984  0.02715  0.04186  -0.03949  0.474  0.6093
6.499e+09  1.273  -1.232  0.01041  -0.004231  0.002684  -0.02988  0.6695  0.3767
6.5e+09  1.505  -2.716  0.01231  0.01204  0.04024  0.02885  0.7473  0.1831
6.501e+09  0.115  -1.725  0.02155  0.005809  -0.01554  -0.01273  0.7919  -0.1324
6.502e+09  -0.5112  -1.645  0.01993  0.01514  -0.0005849  0.03582  0.6953  -0.3187
6.504e+09  -1.084  -1.359  -0.005929  -0.002927  0.01659  -0.01903  0.5338  -0.5495
6.505e+09  -1.476  -0.843  0.0001521  -0.0006597  -0.07482  0.03895  0.277  -0.7052
6.506e+09  -1.72  -0.14  -0.03913  0.02133  0.03435  0.0396  0.006093  -0.7499
6.508e+09  -1.622  0.4029  -0.02722  -0.001121  -0.06809  -0.0112  -0.2506  -0.7226
6.509e+09  -1.302  0.9782  0.03955  -0.02613  0.04118  0.01839  -0.4625  -0.6059
6.51e+09  -0.8424  1.421  -0.02608  0.02222  0.01575  -0.008296  -0.6297  -0.3515
6.511e+09  -0.2811  1.62  0.005816  0.03514  -0.02076  0.02103  -0.7681  -0.1309
6.512e+09  0.3623  1.612  -0.004567  -0.01393  0.05578  0.07416  -0.7343  0.1449
6.514e+09  0.8491  1.316  -0.001122  0.04269  -0.008135  0.008716  -0.6825  0.3787
6.515e+09  1.248  0.9264  -0.01279  -0.001104  0.01339  -0.007626  -0.4713  0.5994
6.516e+09  1.473  0.4227  -0.0476  -0.008984  -0.02419  -0.04307  -0.2507  0.6961
6.518e+09  1.578  -0.2024  -0.01255  -0.02338  -0.01694  -0.02922  0.02257  0.7628
6.519e+09  1.381  -0.7662  -0.0177  -0.0005996  0.0002669  0.039  0.2665  0.7042
6.52e+09  0.9968  -1.128  -0.001153  0.02465  0.02309  0.001462  0.4969  0.536
6.521e+09  0.5116  -1.43  0.03335  -0.02553  -0.01952  -0.03391  0.5989  0.3505
6.522e+09  -0.09418  -1.487  -0.03025  0.01446  -0.01981  -0.03097  0.7017  0.07289
6.524e+09  -0.5217  -1.373  0.01331  0.006353  0.02553  -0.001219  0.7085  -0.1292
6.525e+09  -1.038  -1.087  0.02465  -0.0005106  -0.0147  -0.01731  0.5917  -0.4117
6.526e+09  -1.285  -0.5602  0.02749  0.01701  -0.03713  -0.03104  0.4152  -0.5465
6.528e+09  -1.404  -0.06716  0.02358  -0.004483  -0.01542  0.02301  0.1851  -0.6935
6.529e+09  -1.337  0.403  -0.01556  -0.02118  0.05727  0.01147  -0.07725  -0.7312
6.53e+09  -1.142  0.8841  0.004859  0.01727  0.02238  -0.03227  -0.3027  -0.6444
6.531e+09  -0.6832  1.176  -0.00496  0.01083  0.0001343  -0.01689  -0.4783  -0.485
6.532e+09  -0.1889  1.326  -0.009286  -0.006128  -0.015  0.007685  -0.5842  -0.2401
6.534e+09  0.283  1.305  -0.02454  -0.01106  0.02638  -0.01063  -0.6328  -0.06004
6.535e+09  0.7402  1.128  0.01572  -0.006166  -0.0001301  -0.05934  -0.63  0.09696
6.536e+09  1.021  0.7903  0.008523  -0.01749  -0.01324  -0.02343  -0.5419  0.324
6.538e+09  1.214  0.3612  -0.02689  0.01354  -0.02313  0.01055  -0.413  0.4647
6.539e+09  1.201  -0.1335  0.06744  -0.0006466  -0.03703  -0.01625  -0.272  0.6292
6.54e+09  1.112  -0.5917  -0.02567  -0.02893  -0.006652  0.002535  -0.05771  0.703
6.541e+09  0.8105  -0.9177  0.01506  0.01504  -0.01011  -0.01304  0.1657  0.6753
6.542e+09  0.4555  -1.149  -0.01569  -0.008232  0.06856  0.052  0.4088  0.5623
6.544e+09  0.004378  -1.149  -0.01036  0.002893  0.01985  0.01039  0.5681  0.393
6.545e+09  -0.3846  -1.125  -0.01881  -0.02806  -0.03152  0.03067  0.6934  0.1957
6.546e+09  -0.7895  -0.8562  0.004121  -0.006038  0.05649  -0.0009924  0.7318  -0.06612
6.548e+09  -1.065  -0.5592  -0.02862  -0.002808  0.009306  -0.02906  0.6525  -0.3425
6.549e+09  -1.145  -0.1287  0.0005911  -0.03236  0.04495  -0.007256  0.4836  -0.5411
6.55e+09  -1.153  0.3003  -0.007533  -0.03053  0.04972  -0.06728  0.2939  -0.6521
6.551e+09  -0.9397  0.6686  -0.01213  0.006916  -0.01302  0.06029  0.06304  -0.7574
6.552e+09  -0.664  0.9  0.03329  -0.02626  0.01369  -0.01894  -0.265  -0.7424
