# Hz S RI R 50
6.25e+09  0.2735  0.9499  0.01884  -0.01535  -0.02447  0.03816  0.1786  0.4885
6.251e+09  0.5538  0.7803  0.02684  0.008051  0.006291  -0.02036  0.3717  0.4041
6.252e+09  0.8001  0.5629  0.01004  -0.01775  0.03639  -0.01109  0.5196  0.2437
6.254e+09  0.8829  0.206  -0.03019  0.01637  -0.01347  -0.06428  0.6012  0.007702
6.255e+09  0.9486  -0.09587  0.007661  -0.001341  -0.01832  -0.0454  0.5905  -0.2239
6.256e+09  0.8497  -0.4542  0.004447  0.0214  0.02268  0.05862  0.4722  -0.4142
6.258e+09  0.6147  -0.7246  -0.01709  0.00234  0.03216  0.03382  0.279  -0.6049
6.259e+09  0.3231  -0.9434  0.005568  -0.01806  0.00578  -0.01892  0.06815  -0.6794
6.26e+09  -0.0245  -0.9619  -0.02679  -0.04139  -0.02397  -0.0354  -0.1901  -0.6959
6.261e+09  -0.267  -0.8856  0.02827  0.01379  -0.05234  -0.01847  -0.4572  -0.5403
6.262e+09  -0.5523  -0.7129  -0.01555  0.01037  0.01656  -0.03343  -0.6158  -0.3587
6.264e+09  -0.8208  -0.4771  -0.01429  0.03366  -0.04391  0.001758  -0.7075  -0.1459
6.265e+09  -0.8724  -0.178  -0.005311  0.02111  0.0191  0.06338  -0.7179  0.1868
6.266e+09  -0.9197  0.1395  0.02974  0.006342  -0.01728  0.001061  -0.6421  0.4386
6.268e+09  -0.7688  0.5026  -0.03943  -0.03518  -0.002176  -0.03805  -0.4091  0.607
6.269e+09  -0.6507  0.737  -0.00352  -0.005871  -0.04285  0.01862  -0.1842  0.7355
6.27e+09  -0.3119  0.8139  -0.008465  0.003502  -0.003296  -0.01073  0.05739  0.7441
6.271e+09  0.01034  0.9424  0.01438  -0.02032  -0.01001  0.006774  0.3479  0.6587
6.272e+09  0.318  0.8593  -0.02382  -0.02473  -0.04318  -0.01347  0.5428  0.4965
6.274e+09  0.6078  0.71  -0.002879  -0.01113  -0.001096  -0.009579  0.7381  0.3289
6.275e+09  0.8348  0.4701  0.04008  -0.02612  0.004448  -0.02427  0.7409  0.05479
6.276e+09  0.94  0.1337  -0.03583  0.0009768  0.01671  -0.03746  0.7066  -0.2092
6.278e+09  0.8872  -0.2113  -0.01412  -0.02413  0.006782  0.03986  0.6198  -0.4358
6.279e+09  0.7891  -0.5174  -0.004268  0.009632  0.01834  -0.0171  0.417  -0.6312
6.28e+09  0.5521  -0.7841  -0.01626  -0.02087  0.009058  0.001508  0.1825  -0.7433
6.281e+09  0.2873  -0.8838  0.0362  -0.01482  -0.02382  0.01126  -0.08397  -0.7667
6.282e+09  -0.06465  -0.9528  -0.02015  0.003379  0.02982  -0.02811  -0.3996  -0.6696
6.284e+09  -0.3854  -0.8346  0.006498  -0.02591  0.06863  -0.02951  -0.6122  -0.5357
6.285e+09  -0.7  -0.6487  0.001667  0.02504  0.0293  0.04718  -0.732  -0.2997
6.286e+09  -0.8977  -0.4369  0.01404  0.006153  -0.03689  0.007395  -0.7739  -0.05876
6.288e+09  -0.9351  -0.09929  0.001286  0.01707  -0.04911  -0.03056  -0.7399  0.2621
6.289e+09  -0.8885  0.2517  0.04275  -0.009163  0.003334  0.04906  -0.6543  0.4873
6.29e+09  -0.7933  0.5584  0.0218  -0.02797  -0.004089  0.005274  -0.3981  0.6789
6.291e+09  -0.4814  0.7897  -0.003379  -0.01701  0.02666  -0.01001  -0.1466  0.7757
6.292e+09  -0.2763  0.9179  0.007622  -0.001354  -0.02434  -0.07241  0.1148  0.7944
6.294e+09  0.06444  0.949  -0.009324  -0.03344  -0.01083  -0.00907  0.3933  0.7136
6.295e+09  0.41  0.8436  0.003238  0.02097  -0.0003078  -0.02916  0.6629  0.5038
6.296e+09  0.7145  0.6174  0.04414  0.007812  -0.01432  0.01692  0.7615  0.2914
6.298e+09  0.8749  0.3591  -0.001286  0.008928  -0.02126  -0.05292  0.8028  0.01822
6.299e+09  0.9056  0.03757  0.06071  -0.03108  0.00977  -0.01346  0.7756  -0.2693
6.3e+09  0.9346  -0.3169  0.02542  0.007018  0.02244  0.02914  0.6102  -0.5192
6.301e+09  0.7019  -0.5835  -0.02385  0.00135  -0.02055  0.008495  0.4056  -0.7515
6.302e+09  0.5021  -0.7788  -0.000933  0.001562  0.0469  -0.01876  0.1527  -0.8439
6.304e+09  0.1793  -0.9711  0.005255  0.01694  -0.0001143  -0.04306  -0.1512  -0.8456
6.305e+09  -0.1486  -0.9555  -0.007621  0.00331  0.02501  0.05981  -0.4298  -0.7235
6.306e+09  -0.4746  -0.8254  -0.01033  0.005166  -0.01137  -0.009745  -0.6468  -0.5614
6.308e+09  -0.7908  -0.5977  0.02815  -0.00385  -0.03596  0.03709  -0.7866  -0.2981
6.309e+09  -0.9474  -0.3377  -0.01761  -0.01904  0.001845  -0.008897  -0.8538  -0.002451
6.31e+09  -0.9822  -0.02797  0.01094  -0.007426  -0.05455  -0.001332  -0.8335  0.3027
6.311e+09  -0.873  0.3227  -0.008376  0.00285  0.02923  -0.02543  -0.6774  0.5647
6.312e+09  -0.7349  0.6273  -0.0154  0.008706  -0.01196  0.03534  -0.4418  0.7412
6.314e+09  -0.46  0.8803  -0.007652  0.02045  -0.007168  0.01026  -0.1718  0.851
6.315e+09  -0.1174  0.9691  -0.001545  -0.03072  0.006754  -0.02958  0.1252  0.8579
6.316e+09  0.2319  1  -0.03739  -0.02273  0.01666  -0.01526  0.4397  0.7737
6.318e+09  0.5583  0.7838  -0.009509  0.008707  0.008667  -0.01875  0.6732  0.5619
6.319e+09  0.8198  0.6135  -0.007767  0.005601  -0.04386  -0.0007171  0.8077  0.2889
6.32e+09  0.9643  0.2512  -0.01518  0.01201  -0.03037  -0.04259  0.8913  0.01754
6.321e+09  1.004  -0.03568  -0.01493  -0.003221  -0.03677  0.02963  0.8411  -0.2641
6.322e+09  0.9037  -0.4404  -0.02452  0.01387  0.002979  0.03335  0.7247  -0.5367
6.324e+09  0.7233  -0.7167  0.004972  -0.007819  0.01977  -0.0007165  0.4801  -0.7549
6.325e+09  0.4641  -0.9124  0.004766  -0.009096  0.01014  0.03019  0.2042  -0.9003
6.326e+09  0.0982  -0.9909  0.0007456  -0.03947  -0.01094  -0.007411  -0.1586  -0.872
6.328e+09  -0.2482  -1.059  0.007225  0.02136  0.006864  0.01476  -0.4616  -0.809
6.329e+09  -0.6103  -0.8715  -0.02725  -0.02801  -0.01076  0.01377  -0.6544  -0.5925
6.33e+09  -0.8752  -0.6274  -0.02671  0.01314  -0.03626  -0.008777  -0.822  -0.3398
6.331e+09  -0.9701  -0.2811  -0.004002  0.02829  0.007548  0.002401  -0.9381  -0.02187
6.332e+09  -1.051  0.1473  -0.000907  -0.008857  0.01892  -0.05233  -0.8519  0.2512
6.334e+09  -0.9686  0.4369  -0.000779  0.01058  0.01721  -0.01393  -0.7016  0.5703
6.335e+09  -0.7072  0.7455  -0.001525  -0.003437  -0.03344  0.04867  -0.5246  0.7851
6.336e+09  -0.3804  0.9966  -0.0002045  0.0185  -0.02215  -0.01638  -0.1667  0.8661
6.338e+09  -0.0057  1.089  0.001387  0.02722  0.02442  0.02543  0.1144  0.9084
6.339e+09  0.3848  1.069  -0.01396  -0.05222  -0.03844  0.01782  0.435  0.8171
6.34e+09  0.7091  0.8484  0.0313  0.001865  -0.03048  0.0005945  0.6605  0.6309
6.341e+09  0.9187  0.5582  -0.0005971  0.003745  -0.02309  -0.003317  0.8715  0.3598
6.342e+09  1.116  0.211  0.003734  0.02173  0.01488  0.001782  0.9038  0.06783
6.344e+09  1.046  -0.1964  -0.00981  0.02179  0.02423  0.05866  0.8667  -0.238
6.345e+09  0.9606  -0.5626  0.03462  -0.006994  -0.06594  0.006807  0.737  -0.5816
6.346e+09  0.7051  -0.863  0.006238  -0.01271  -0.0346  -0.0345  0.522  -0.7558
6.348e+09  0.3696  -1.078  0.001274  -0.008319  0.00483  -0.02093  0.2492  -0.9106
6.349e+09  -0.03518  -1.149  0.02211  0.02432  0.01201  0.01141  -0.06831  -0.9229
6.35e+09  -0.415  -1.081  -0.006143  -0.0003661  -0.01277  -0.02633  -0.4478  -0.856
6.351e+09  -0.7985  -0.8747  0.007485  0.001026  0.01613  -0.00591  -0.6624  -0.636
6.352e+09  -1.028  -0.5669  -0.03818  0.00542  0.002295  0.01672  -0.8471  -0.3662
6.354e+09  -1.11  -0.1458  -0.005034  0.0008751  -0.01015  0.001334  -0.9675  -0.09044
6.355e+09  -1.149  0.2536  -0.006003  0.02563  0.02709  0.05591  -0.9053  0.2809
6.356e+09  -0.9802  0.6482  -0.02914  -0.000277  -0.006986  0.03432  -0.7357  0.5672
6.358e+09  -0.6767  0.9625  -0.02304  0.02788  -0.02713  -0.02347  -0.5367  0.7876
6.359e+09  -0.3244  1.115  -0.01293  -0.01294  -0.01591  0.06438  -0.2153  0.9116
6.36e+09  0.1592  1.191  0.00857  0.02894  0.02226  -0.02365  0.103  0.9418
6.361e+09  0.5031  1.103  -0.01903  0.001471  -0.05658  -0.01946  0.3824  0.86
6.362e+09  0.8517  0.8542  -0.01749  -0.01612  -0.01741  -0.03272  0.6761  0.6723
6.364e+09  1.098  0.5123  -0.01331  -0.01482  -0.02745  0.01653  0.8156  0.3835
6.365e+09  1.258  0.1087  0.02072  -0.02344  0.01391  -0.007305  0.9619  0.09189
6.366e+09  1.137  -0.3376  0.004206  0.01521  0.02579  0.003694  0.9383  -0.2795
6.368e+09  0.9525  -0.7206  -0.005565  0.005714  0.02693  0.02819  0.7572  -0.5262
6.369e+09  0.6409  -1.069  -0.0002665  0.01016  -0.01869  0.002346  0.5508  -0.7466
6.37e+09  0.2628  -1.147  -0.003833  -0.002738  -0.001201  -0.02679  0.2172  -0.9188
6.371e+09  -0.213  -1.287  -0.005774  0.01311  -0.01399  -0.0259  -0.09044  -0.9559
6.372e+09  -0.6048  -1.106  0.02788  -0.009743  -0.02816  0.02059  -0.4067  -0.8921
6.374e+09  -0.9263  -0.825  0.01281  -0.01541  0.01301  0.0404  -0.6443  -0.7099
6.375e+09  -1.164  -0.444  0.002043  0.009638  -0.01894  -0.0452  -0.9001  -0.3546
6.376e+09  -1.308  -0.008682  0.03613  0.009554  0.005419  0.01318  -0.9606  -0.07153
6.378e+09  -1.237  0.4542  0.01817  -0.03041  -0.01219  0.01944  -0.9009  0.2277
6.379e+09  -0.9949  0.822  -0.01106  0.01493  -0.03286  -0.005119  -0.8222  0.5565
6.38e+09  -0.693  1.138  -0.001214  0.001898  0.01332  0.009481  -0.5571  0.7243
6.381e+09  -0.1899  1.33  0.02051  -0.008808  0.002648  -0.04598  -0.265  0.9138
6.382e+09  0.2574  1.309  -0.0301  0.02434  0.0238  0.03707  0.04395  0.9401
6.384e+09  0.7194  1.141  -0.0008056  0.01018  0.001975  0.002296  0.3987  0.852
6.385e+09  1.092  0.818  -0.01161  0.003181  -0.01851  -0.01023  0.6782  0.6996
6.386e+09  1.303  0.4115  0.008228  -0.01255  -0.05673  0.01215  0.8247  0.4472
6.388e+09  1.395  -0.1337  0.04749  0.005128  -0.01357  0.0002232  0.8795  0.1059
6.389e+09  1.285  -0.4854  0.02026  0.001825  -0.006576  -0.01898  0.8859  -0.2219
6.39e+09  1.022  -1.004  0.003434  -0.01043  0.04962  0.02304  0.8047  -0.4921
6.391e+09  0.6487  -1.288  -0.0117  0.006838  0.03608  -0.05104  0.5934  -0.7289
6.392e+09  0.1142  -1.407  0.006902  -0.008919  -0.03575  -0.01937  0.2762  -0.8976
6.394e+09  -0.3443  -1.431  -0.01141  0.01943  0.02784  -0.05682  -0.008869  -0.9161
6.395e+09  -0.8386  -1.198  0.04555  0.01009  0.003451  0.02538  -0.3374  -0.8606
6.396e+09  -1.186  -0.8615  -0.0387  -0.002538  -0.04374  -0.00908  -0.6069  -0.6888
6.398e+09  -1.424  -0.4331  -0.06543  -0.02872  0.01304  0.04884  -0.8158  -0.4259
6.399e+09  -1.521  0.1297  0.00823  0.02762  -0.008108  -0.04547  -0.8917  -0.09731
6.4e+09  -1.392  0.6176  0.006536  0.003553  0.02953  -0.0133  -0.8791  0.1736
6.401e+09  -1.091  1.153  0.03511  -0.003393  -0.00126  -0.00862  -0.807  0.4925
6.402e+09  -0.6304  1.391  -0.01086  -0.001283  -0.01276  -0.03846  -0.6159  0.7092
6.404e+09  -0.08499  1.529  -0.01609  -0.01414  -0.02541  -0.0002224  -0.3088  0.8864
6.405e+09  0.4638  1.55  -0.01016  0.02592  0.003092  0.004969  0.04035  0.94
6.406e+09  1.02  1.243  -0.0339  -0.02605  0.0259  0.06669  0.2983  0.8525
6.408e+09  1.375  0.8258  -0.03476  0.01164  0.02844  0.003564  0.5697  0.6949
6.409e+09  1.553  0.2931  0.03583  -0.009709  0.02458  -0.05863  0.7903  0.4313
6.41e+09  1.598  -0.2991  -0.03082  -0.008367  0.02223  0.01411  0.9138  0.1671
6.411e+09  1.44  -0.8148  0.02051  -0.01042  -0.04964  0.02577  0.8905  -0.1219
6.412e+09  1.051  -1.288  0.004697  0.01593  0.003294  0.0002363  0.7593  -0.4575
6.414e+09  0.5362  -1.619  -0.02011  -0.009764  -0.02265  0.006355  0.636  -0.6649
6.415e+09  -0.09059  -1.66  0.02778  0.02858  -0.03787  0.02023  0.3131  -0.8159
6.416e+09  -0.644  -1.534  -0.02777  -0.06584  -0.004187  0.03976  -0.02648  -0.888
6.418e+09  -1.115  -1.308  -0.06303  -0.01379  0.00621  0.006278  -0.2552  -0.878
6.419e+09  -1.557  -0.7807  -0.007118  -0.03785  -0.07451  0.02713  -0.5592  -0.7069
6.42e+09  -1.774  -0.2104  0.01828  0.0173  -0.01635  0.008596  -0.7308  -0.4804
6.421e+09  -1.718  0.4068  -0.02537  0.01161  0.02422  0.06452  -0.8592  -0.2247
6.422e+09  -1.504  0.9967  0.004659  0.001545  -0.003055  0.0554  -0.8771  0.1061
6.424e+09  -1.064  1.436  -0.02559  0.001526  -0.009932  0.006697  -0.7671  0.4085
6.425e+09  -0.4937  1.782  -0.01193  0.01953  0.004212  0.008679  -0.6303  0.6836
6.426e+09  0.2007  1.857  -0.005352  0.01702  -0.04244  0.007504  -0.3516  0.8277
6.428e+09  0.8724  1.67  -0.01214  0.02468  0.007159  0.04587  -0.01771  0.8721
6.429e+09  1.4  1.256  0.01193  -0.03902  0.0129  -0.007889  0.2933  0.8449
6.43e+09  1.79  0.7207  -0.04355  0.05842  0.02142  0.001277  0.4761  0.6895
6.431e+09  1.92  0.05876  0.04923  -0.02056  0.03439  0.001417  0.7263  0.5486
6.432e+09  1.816  -0.6093  0.02083  -0.009625  -0.04582  -0.01209  0.8732  0.2114
6.434e+09  1.582  -1.312  0.000133  -0.05875  0.03798  0.02384  0.8133  -0.08086
6.435e+09  1.038  -1.745  0.01627  -0.05282  -0.007582  0.06916  0.7903  -0.3647
6.436e+09  0.3408  -2.011  -0.007201  0.03006  0.009904  0.02299  0.6127  -0.6194
6.438e+09  -0.45  -2.107  0.02465  0.02431  -0.03397  -0.03754  0.3548  -0.7628
6.439e+09  -1.136  -1.772  -0.02706  0.00954  0.0377  0.0152  0.08143  -0.8585
6.44e+09  -1.686  -1.334  -0.01744  -0.01158  -0.03482  -0.03036  -0.2548  -0.8309
6.441e+09  -2.059  -0.6263  -0.005038  0.006625  -0.00152  -0.0547  -0.4819  -0.7185
6.442e+09  -2.182  0.2255  0.03717  0.01926  0.03389  -0.0372  -0.6952  -0.4869
6.444e+09  -2.08  0.9798  -0.03752  -0.002187  -0.01331  -0.02654  -0.8184  -0.2124
6.445e+09  -1.637  1.578  0.007937  0.005121  -0.02574  0.03682  -0.881  0.09266
6.446e+09  -0.8951  2.13  -0.005286  -0.005317  0.02561  0.02666  -0.7773  0.3517
6.448e+09  -0.1611  2.361  0.01291  -0.01308  -0.04671  0.01661  -0.6691  0.6071
6.449e+09  0.746  2.368  0.02187  0.02707  -0.01234  -0.03601  -0.3375  0.7321
6.45e+09  1.46  1.986  -0.01414  0.0734  -0.04829  -0.01381  -0.04811  0.8055
6.451e+09  2.149  1.311  -0.04948  -0.02324  0.05719  -0.04024  0.2457  0.8078
6.452e+09  2.501  0.5553  -0.01438  0.01505  -0.077  0.03619  0.4598  0.7038
6.454e+09  2.586  -0.4641  0.01163  -0.05656  0.0884  -0.08134  0.697  0.4327
6.455e+09  2.303  -1.371  -0.02025  0.01519  0.04613  -0.0507  0.7697  0.2241
6.456e+09  1.734  -2.057  0.01974  0.01055  -0.009375  0.0005537  0.835  -0.05609
6.458e+09  0.8647  -2.587  0.01636  -0.05014  0.009672  -0.01607  0.7171  -0.344
6.459e+09  -0.08606  -2.893  -0.05122  -0.005988  -0.06179  -0.07471  0.6051  -0.5902
6.46e+09  -1.144  -2.69  -0.02047  -0.01542  0.0368  -0.1197  0.3403  -0.7711
6.461e+09  -2.13  -2.106  -0.01756  -0.05012  0.02281  0.04691  0.07798  -0.8005
6.462e+09  -2.722  -1.263  0.05051  0.01176  -0.0946  -0.01383  -0.2371  -0.8225
6.464e+09  -3.123  -0.2683  -0.0441  -0.01278  -0.0214  0.04846  -0.467  -0.6494
6.465e+09  -3.171  0.9429  0.004459  -0.04211  -7.072e-05  -0.005487  -0.6577  -0.4897
6.466e+09  -2.611  2.008  0.01482  -0.003299  -0.06046  -0.03003  -0.7683  -0.182
6.468e+09  -1.709  2.986  0.009125  -0.0149  -0.05629  0.07013  -0.7979  0.0475
6.469e+09  -0.5517  3.446  0.03372  0.04248  -0.04592  -0.002942  -0.7403  0.3709
6.47e+09  0.7222  3.453  -0.03769  0.01149  -0.0499  -0.002671  -0.5333  0.5692
6.471e+09  1.955  3.27  0.004773  0.01012  -0.05522  0.02046  -0.387  0.744
6.472e+09  3.109  2.321  0.03464  -0.01559  0.02071  0.01716  -0.09596  0.7688
6.474e+09  3.979  1.133  -0.03713  -0.00954  0.004736  0.01625  0.2565  0.7654
6.475e+09  4.232  -0.4956  -0.0161  -0.03324  0.02613  -0.08627  0.4821  0.6401
6.476e+09  3.822  -2.009  -0.06356  0.004342  -0.06299  0.03704  0.6723  0.4646
6.478e+09  2.842  -3.446  -0.008232  0.04206  0.07514  0.09886  0.7644  0.2062
6.479e+09  1.79  -4.458  -0.01937  0.0002987  0.0917  0.04697  0.7888  -0.04334
6.48e+09  -0.09447  -5.126  -0.00669  0.04188  0.02363  0.0217  0.7044  -0.3272
6.481e+09  -1.936  -4.734  0.02078  -0.002685  0.1375  0.03813  0.5819  -0.5783
6.482e+09  -4.002  -3.837  -0.03642  -0.02156  -0.002516  0.05862  0.3161  -0.7119
6.484e+09  -5.284  -2.041  0.01155  -0.008064  -0.09213  0.07049  0.04573  -0.7584
6.485e+09  -6.083  0.04246  -0.005565  -0.02549  0.0312  0.0221  -0.2368  -0.7787
6.486e+09  -6.042  2.594  -0.01091  0.016  -0.1855  0.1943  -0.4427  -0.6493
6.488e+09  -4.142  4.503  -0.003777  -0.02027  -0.5048  0.3922  -0.6609  -0.4548
6.489e+09  -2.501  6.883  -0.01962  0.006241  -0.06416  -5.776e-05  -0.7712  -0.1905
6.49e+09  0.5079  7.956  -0.006939  -0.006923  0.04987  0.2173  -0.7493  0.06222
6.491e+09  3.799  7.233  0.01096  0.03184  0.08258  -0.0958  -0.6853  0.3326
6.492e+09  7.096  5.177  -0.001446  -0.006265  0.03347  -0.02836  -0.529  0.5811
6.494e+09  9.142  2.002  0.01693  0.01383  -0.08316  -0.05554  -0.3218  0.7285
6.495e+09  9.51  -2.436  -0.002464  -0.006016  0.052  0.1543  -0.03953  0.7928
6.496e+09  7.725  -6.639  -0.03201  -0.01407  -0.0767  0.04142  0.244  0.7545
6.498e+09  4.016  -9.864  -0.01242  0.02508  -0.01569  -0.07758  0.455  0.5941
6.499e+09  -0.9274  -10.75  0.001129  -0.01276  -0.05979  -0.007668  0.6478  0.4003
6.5e+09  3.943  -12.13  0.01655  -0.001019  -0.3093  -0.1557  0.7189  0.1856
6.501e+09  -9.368  -5.434  -0.01155  -0.05738  0.02417  -0.05716  0.7516  -0.122
6.502e+09  -10.77  -0.4901  -0.02128  -0.003686  0.08735  0.1209  0.6795  -0.3328
6.504e+09  -9.33  4.349  0.004588  0.02482  0.156  0.00289  0.4804  -0.5072
6.505e+09  -6.228  7.571  0.004977  -0.02082  -0.08157  -0.1177  0.2791  -0.7083
6.506e+09  -2.148  8.967  -0.002549  -0.03418  0.0215  -0.0355  -0.006704  -0.7501
6.508e+09  1.803  8.414  0.01835  0.009502  -0.07695  -0.06507  -0.258  -0.7312
6.509e+09  4.859  6.49  0.0053  -0.005479  -0.02  -0.06342  -0.4724  -0.591
6.51e+09  6.609  3.858  -0.0101  0.004824  0.1253  0.06458  -0.6715  -0.4295
6.511e+09  7.158  0.7216  -0.0006289  -0.0187  -0.01009  0.05385  -0.7255  -0.1298
6.512e+09  6.399  -2.054  -0.01439  0.001814  0.05247  -0.01631  -0.7655  0.09979
6.514e+09  4.866  -3.996  0.006248  0.04713  0.03331  0.01379  -0.6459  0.4156
6.515e+09  2.812  -5.215  -0.009584  0.005953  0.01021  -0.03507  -0.4694  0.6047
6.516e+09  0.5446  -5.548  0.001816  -0.00213  -0.07317  0.0302  -0.2411  0.7291
6.518e+09  -1.534  -5.101  -0.008345  -0.02988  0.04292  -0.0106  -0.02923  0.7271
6.519e+09  -3.178  -4.018  -0.01095  0.04198  -0.03913  -0.02937  0.2817  0.7125
6.52e+09  -4.122  -2.375  0.04094  -0.02407  -0.006452  -0.01247  0.5025  0.575
6.521e+09  -4.478  -0.6716  -0.01813  -0.007342  -0.01229  0.02055  0.702  0.3562
6.522e+09  -4.265  0.9661  -0.005301  0.01457  0.07422  0.02906  0.7301  0.08985
6.524e+09  -3.418  2.394  -0.03613  0.006015  0.02501  0.02753  0.7337  -0.1693
6.525e+09  -2.262  3.323  0.01956  -0.00465  0.04988  -0.0212  0.6156  -0.3867
6.526e+09  -0.8992  3.814  0.02156  0.02221  -0.07377  -0.01533  0.376  -0.5638
6.528e+09  0.4759  3.692  -0.0195  -0.002727  0.08003  -0.01795  0.1899  -0.7335
6.529e+09  1.75  3.083  0.02091  -0.02745  3.83e-06  0.0196  -0.03915  -0.734
6.53e+09  2.599  2.254  -0.01277  -0.06397  0.02885  -0.03722  -0.2832  -0.6604
6.531e+09  3.168  1.075  -0.01817  -0.02093  -0.01934  -0.06326  -0.4735  -0.4698
6.532e+09  3.215  -0.1529  0.01217  0.007561  0.09373  0.03311  -0.636  -0.2735
6.534e+09  2.894  -1.232  -0.001591  0.02451  -0.00748  0.05234  -0.6275  -0.1193
6.535e+09  2.222  -2.06  0.01892  0.02569  0.0007771  0.006653  -0.6048  0.1443
6.536e+09  1.261  -2.679  -0.02087  -0.02986  0.005989  -0.004697  -0.5389  0.3048
6.538e+09  0.2002  -2.884  -0.01185  0.01132  -0.06105  0.03535  -0.4402  0.4683
6.539e+09  -0.8163  -2.79  0.01556  -0.009505  -0.004287  0.008865  -0.2963  0.6339
6.54e+09  -1.67  -2.151  -0.02201  0.008065  0.01144  0.005138  -0.07598  0.6954
6.541e+09  -2.258  -1.414  0.01938  -0.00641  0.009823  -0.06646  0.1588  0.6948
6.542e+09  -2.528  -0.5994  -0.0001132  -0.006733  -0.0002826  -0.01319  0.4539  0.5666
6.544e+09  -2.513  0.4306  -0.01451  -0.0003923  0.02597  0.03898  0.6014  0.406
6.545e+09  -2.154  1.191  0.02214  -0.003239  0.04925  -0.01402  0.7374  0.1849
6.546e+09  -1.522  1.874  0.02057  0.005134  -0.01088  0.0246  0.7104  -0.06591
6.548e+09  -0.7823  2.292  0.03057  -0.03455  0.06838  0.009728  0.6372  -0.3281
6.549e+09  0.07498  2.341  -0.000281  -0.02032  0.01319  -0.02051  0.4994  -0.5769
6.55e+09  0.8817  2.118  -0.005759  0.02398  -0.02348  0.01705  0.3109  -0.6566
6.551e+09  1.572  1.655  -0.005645  0.01815  -0.007885  -0.03352  0.04616  -0.7494
6.552e+09  1.981  0.9692  0.02166  0.01536  0.01845  -0.02177  -0.2315  -0.7044
6.554e+09  2.148  0.1778  -0.02187  0.009728  -0.03331  -0.01158  -0.4602  -0.6067
