# Hz S RI R 50
6.25e+09  0.04845  1.049  -0.01326  -0.01928  0.006021  -0.02048  0.158  0.4651
6.251e+09  0.295  0.8798  -0.02431  0.02039  0.05573  -0.02334  0.3665  0.448
6.252e+09  0.5892  0.7288  -0.008826  0.0153  -0.02572  0.01288  0.496  0.2184
6.254e+09  0.8385  0.428  -0.007318  -0.02244  -0.05541  -0.01184  0.5964  0.0009867
6.255e+09  0.9086  0.149  0.01432  0.01834  0.003813  -0.02392  0.5905  -0.2075
6.256e+09  0.9272  -0.2293  0.02536  -0.01898  -0.02189  0.01082  0.4824  -0.4269
6.258e+09  0.7153  -0.472  -0.008795  0.003738  0.006386  -0.01441  0.2768  -0.6075
6.259e+09  0.5431  -0.7075  0.009328  0.04077  0.002602  0.01297  0.03183  -0.6729
6.26e+09  0.2964  -0.8864  0.007752  0.03104  0.03633  0.005109  -0.2334  -0.6643
6.261e+09  -0.04011  -0.9197  0.02017  -0.00134  -0.005798  -0.04484  -0.4596  -0.5241
6.262e+09  -0.3778  -0.8222  0.005668  -0.02502  -0.03245  -0.01317  -0.6198  -0.3402
6.264e+09  -0.678  -0.6053  0.0005301  -0.02057  -0.02355  0.05901  -0.708  -0.1307
6.265e+09  -0.8683  -0.3852  -0.007904  0.01625  0.02939  0.001007  -0.7033  0.1614
6.266e+09  -0.8795  -0.09586  -0.01643  -0.00551  0.01197  -0.03113  -0.6167  0.4439
6.268e+09  -0.8962  0.2584  -0.02992  -0.01407  0.001274  0.01983  -0.4264  0.6154
6.269e+09  -0.787  0.5087  -0.00444  -0.005757  -0.02758  0.01701  -0.1965  0.7456
6.27e+09  -0.5361  0.7731  0.0006965  0.004014  0.03698  0.003755  0.06674  0.7284
6.271e+09  -0.2509  0.861  -0.01612  0.04633  0.04591  -0.08002  0.3326  0.6791
6.272e+09  0.1154  0.8712  -0.04999  -0.03628  -0.05057  0.01996  0.5239  0.5147
6.274e+09  0.3449  0.782  0.0008935  -0.003327  -0.048  -0.02791  0.7094  0.2957
6.275e+09  0.6969  0.663  -0.01629  0.003853  0.0122  0.02439  0.731  0.02435
6.276e+09  0.7987  0.3899  -0.008607  0.01618  0.001851  0.01446  0.7368  -0.2145
6.278e+09  0.961  0.1037  0.02127  -0.01866  -0.02655  0.02485  0.6322  -0.462
6.279e+09  0.8462  -0.2092  -0.005261  0.003848  0.04036  0.01449  0.3942  -0.619
6.28e+09  0.7267  -0.5333  -0.008082  -0.02236  -0.02565  -0.04243  0.1724  -0.732
6.281e+09  0.5126  -0.7688  -0.002934  0.01008  -0.02935  0.01405  -0.1179  -0.7904
6.282e+09  0.2145  -0.8591  -0.009812  -0.0007019  0.03838  -0.000728  -0.3626  -0.6798
6.284e+09  -0.1193  -0.9018  -0.01732  -0.01541  -0.06665  0.04812  -0.5818  -0.5339
6.285e+09  -0.4366  -0.8149  0.02825  0.001529  -0.03192  -0.08057  -0.7136  -0.2902
6.286e+09  -0.6906  -0.5806  -0.0005189  0.006864  0.04983  0.009045  -0.7991  -0.01342
6.288e+09  -0.8412  -0.3883  -0.0004709  0.03352  0.01087  -0.05806  -0.7895  0.2533
6.289e+09  -0.861  -0.01234  -0.02886  0.01151  -0.01076  0.02181  -0.6355  0.5253
6.29e+09  -0.9201  0.2979  0.006626  -0.003935  0.01008  0.02531  -0.377  0.6924
6.291e+09  -0.7144  0.6098  0.0299  0.01401  0.007562  -0.03727  -0.1443  0.8014
6.292e+09  -0.4936  0.8503  0.01791  -0.002688  0.0371  0.001809  0.126  0.8118
6.294e+09  -0.1454  0.8879  -0.001086  0.0402  0.02597  0.01505  0.3999  0.7087
6.295e+09  0.1723  0.9059  0.01276  0.01396  0.02424  -0.01672  0.6181  0.5485
6.296e+09  0.4855  0.8554  0.004848  0.01224  -0.01088  0.01015  0.7332  0.2851
6.298e+09  0.7194  0.5643  0.01507  0.02112  -0.03501  0.0008505  0.8449  -0.01652
6.299e+09  0.8996  0.3043  -0.01553  -0.02201  0.01128  -0.03124  0.7955  -0.2743
6.3e+09  0.9587  -0.03244  -0.02571  0.002871  -0.05356  0.008187  0.6457  -0.5261
6.301e+09  0.9021  -0.348  -0.0268  -0.00144  0.02189  -0.004512  0.3893  -0.6913
6.302e+09  0.7237  -0.6175  0.01924  0.002434  0.01521  0.008161  0.1331  -0.8207
6.304e+09  0.4237  -0.81  0.005824  0.004063  0.0363  -0.002432  -0.1474  -0.8326
6.305e+09  0.1704  -0.9298  0.007683  0.004533  0.01476  0.02157  -0.4035  -0.7643
6.306e+09  -0.2409  -0.9417  0.003753  0.04561  0.04423  0.03586  -0.6575  -0.552
6.308e+09  -0.5318  -0.8159  -0.008031  0.009772  0.00238  -0.02539  -0.7918  -0.2781
6.309e+09  -0.8016  -0.6264  0.02978  0.001402  0.0173  -0.006586  -0.8448  -0.01317
6.31e+09  -0.9794  -0.3006  -0.01098  0.007419  -0.03417  0.01293  -0.7853  0.2829
6.311e+09  -1.021  0.09962  -0.007019  0.01476  -0.01233  0.02746  -0.6539  0.55
6.312e+09  -0.8952  0.4338  -0.005634  -0.01468  0.01644  -0.0103  -0.4673  0.735
6.314e+09  -0.6735  0.7418  -0.01062  0.007372  0.005827  0.007303  -0.1357  0.8428
6.315e+09  -0.4259  0.9163  0.01714  0.02507  -0.01015  0.02637  0.1574  0.8734
6.316e+09  -0.09323  1.006  0.02797  -0.008129  0.01777  0.04184  0.4253  0.7856
6.318e+09  0.3033  0.9618  -0.01941  0.02889  -0.00821  -0.01808  0.6821  0.5817
6.319e+09  0.6233  0.8161  -0.0002746  0.01248  0.03307  -0.003842  0.845  0.3105
6.32e+09  0.9035  0.5086  -0.009423  -0.01136  0.002128  0.01139  0.9128  -0.006521
6.321e+09  1.028  0.2206  0.01  0.004962  0.01709  -0.00671  0.8359  -0.3542
6.322e+09  1.025  -0.09952  -0.02523  0.0004391  0.03389  -0.00195  0.7044  -0.5743
6.324e+09  0.9749  -0.4558  -0.02191  -0.01247  -0.01603  -0.0105  0.4561  -0.765
6.325e+09  0.6908  -0.7767  0.001476  0.00343  0.007648  -0.04473  0.1556  -0.92
6.326e+09  0.371  -0.9919  -0.04213  0.0185  -0.004906  -0.006319  -0.1193  -0.8944
6.328e+09  -0.01385  -1.034  0.003745  0.01517  0.03012  0.01396  -0.4225  -0.7829
6.329e+09  -0.3727  -1.013  0.01025  -0.003509  0.01016  -0.002803  -0.6478  -0.5569
6.33e+09  -0.7089  -0.8235  0.01802  0.02868  0.01778  0.01673  -0.8737  -0.3557
6.331e+09  -0.9307  -0.5284  -0.01484  -0.01255  0.01925  -0.01889  -0.9188  -0.01776
6.332e+09  -1.081  -0.1386  0.008232  0.01637  0.02644  -0.04768  -0.8903  0.282
6.334e+09  -1.039  0.2131  0.002918  -0.007422  0.02098  0.00171  -0.7477  0.5802
6.335e+09  -0.8991  0.5989  0.02875  0.01744  0.07037  -0.01974  -0.4716  0.7883
6.336e+09  -0.6166  0.8833  0.01305  -0.01409  -0.007686  -0.01181  -0.1817  0.8629
6.338e+09  -0.3019  1.061  0.02983  0.01236  -0.009991  0.01958  0.1269  0.914
6.339e+09  0.06477  1.126  -0.02595  0.02716  0.02398  -0.01877  0.4437  0.821
6.34e+09  0.4835  1.026  0.005272  0.02224  -0.03085  0.0277  0.6676  0.627
6.341e+09  0.8023  0.7345  -0.03366  0.04099  -0.005624  -0.01887  0.8871  0.3623
6.342e+09  1.035  0.4646  0.004899  -0.01988  0.00611  -0.03199  0.9331  0.07102
6.344e+09  1.097  0.00715  0.02104  -0.01135  0.001609  0.0258  0.9017  -0.2879
6.345e+09  1.084  -0.3256  -0.01233  -0.0178  0.009154  -0.005011  0.7564  -0.5818
6.346e+09  0.878  -0.7049  -0.01828  0.02581  -0.007693  -0.022  0.5051  -0.771
6.348e+09  0.5889  -0.9651  -0.0087  -0.00218  0.02041  -0.009717  0.2326  -0.9141
6.349e+09  0.2154  -1.161  0.02425  -0.005529  0.02304  -0.03015  -0.1268  -0.9531
6.35e+09  -0.2166  -1.121  0.01852  0.001136  0.01118  -0.007369  -0.4288  -0.8596
6.351e+09  -0.5939  -0.9705  0.0114  -0.003322  0.02654  0.01526  -0.6558  -0.6542
6.352e+09  -0.9342  -0.7228  0.009681  0.01572  0.04842  -0.003242  -0.8444  -0.3748
6.354e+09  -1.114  -0.3444  0.01437  0.01159  0.00849  -0.03851  -0.959  -0.04478
6.355e+09  -1.112  0.06904  -0.02126  0.01245  0.01454  -0.01668  -0.9013  0.2732
6.356e+09  -1.051  0.4689  0.001358  0.0004317  -0.0123  0.04147  -0.7646  0.566
6.358e+09  -0.7577  0.8166  -0.002848  0.009026  0.01744  0.01092  -0.5132  0.7749
6.359e+09  -0.4781  1.047  0.01275  0.002698  -0.01525  0.03157  -0.2412  0.9478
6.36e+09  -0.07801  1.162  0.0108  -0.00776  -0.002547  0.01268  0.08662  0.9318
6.361e+09  0.332  1.098  0.02124  -0.01955  -0.01408  0.0437  0.4317  0.8915
6.362e+09  0.7025  0.9053  -0.05207  0.02101  0.008739  0.01696  0.6762  0.6694
6.364e+09  1.015  0.591  -0.01335  0.00715  -0.02385  -0.04181  0.8838  0.3782
6.365e+09  1.126  0.2647  -0.005833  -0.02116  0.01318  -0.02101  0.9671  0.08452
6.366e+09  1.119  -0.1647  -0.01133  0.0512  0.0523  -0.07305  0.9033  -0.2159
6.368e+09  1.018  -0.5527  -0.0387  0.02221  -0.005025  -0.004668  0.7814  -0.5503
6.369e+09  0.7481  -0.8495  -0.00576  0.0043  -0.03791  -0.00792  0.5438  -0.8321
6.37e+09  0.3677  -1.073  0.000497  -0.03168  0.0375  0.00241  0.2452  -0.9298
6.371e+09  -0.04491  -1.192  0.01033  0.02449  0.02245  -0.02032  -0.05472  -0.9457
6.372e+09  -0.4542  -1.069  0.02296  0.01847  0.03723  0.04043  -0.4483  -0.8843
6.374e+09  -0.8096  -0.887  0.01118  0.02891  -0.01498  -0.002863  -0.6011  -0.6507
6.375e+09  -1.02  -0.5221  0.03721  -0.02374  -0.02143  -0.04213  -0.8929  -0.3954
6.376e+09  -1.138  -0.09777  0.002316  -0.03879  -0.02091  0.01758  -0.9368  -0.08691
6.378e+09  -1.124  0.2942  -0.02316  -0.004493  -0.008127  0.02882  -0.8924  0.2297
6.379e+09  -0.9389  0.6817  -0.005542  0.01458  -0.03508  0.02989  -0.7806  0.5231
6.38e+09  -0.6459  0.963  0.01621  -0.03005  -0.00403  0.0297  -0.5623  0.738
6.381e+09  -0.2718  1.126  -0.004987  0.01246  -0.01241  0.02721  -0.2942  0.8872
6.382e+09  0.1352  1.142  0.001238  -0.03854  0.02007  -0.03601  0.0347  0.9275
6.384e+09  0.5081  1.04  0.0007861  -0.003577  -0.02356  0.04118  0.36  0.8578
6.385e+09  0.8346  0.8132  0.0179  0.009626  0.01757  -0.0378  0.6144  0.6866
6.386e+09  1.078  0.4886  0.00503  -0.02849  0.01371  -0.01248  0.8416  0.4619
6.388e+09  1.178  0.0568  0.005022  0.01437  0.03325  -0.01948  0.9196  0.1135
6.389e+09  1.074  -0.3755  0.03641  -0.01184  -0.002627  0.003732  0.9106  -0.2227
6.39e+09  0.8978  -0.7136  -0.01732  0.006445  -0.01545  0.005844  0.808  -0.4905
6.391e+09  0.6005  -0.995  -0.0165  -0.01806  0.01539  0.01746  0.5725  -0.7362
6.392e+09  0.2028  -1.099  0.007078  0.008247  0.02627  -0.008831  0.324  -0.8635
6.394e+09  -0.1892  -1.102  -0.009466  -0.009852  0.01565  -0.02094  -0.03947  -0.8935
6.395e+09  -0.5999  -0.9947  -0.04374  0.04908  0.005276  -0.002993  -0.3443  -0.8633
6.396e+09  -0.8171  -0.7274  -0.02001  -0.001569  0.03316  0.01733  -0.634  -0.7109
6.398e+09  -1.078  -0.3693  -0.008844  -0.00472  -0.02884  -0.0009963  -0.7463  -0.469
6.399e+09  -1.158  0.03185  -0.008018  0.004769  -0.01733  0.006879  -0.9266  -0.1743
6.4e+09  -1.071  0.4234  0.02418  0.04162  0.0204  0.01574  -0.9147  0.1657
6.401e+09  -0.8355  0.7365  -0.003184  0.02694  0.006334  -0.009759  -0.8012  0.4593
6.402e+09  -0.5112  0.9798  0.01267  0.01623  -0.01645  0.01815  -0.5485  0.6686
6.404e+09  -0.1359  1.106  -0.02237  -0.0128  -0.004562  -0.01072  -0.3049  0.8527
6.405e+09  0.2309  1.064  0.04459  0.02268  -0.01254  -0.015  -0.009533  0.9024
6.406e+09  0.6007  0.9126  0.00465  0.01394  -0.02159  0.003098  0.2968  0.8702
6.408e+09  0.8929  0.6702  -0.0134  0.0009307  -0.008921  -0.02155  0.5882  0.6893
6.409e+09  1.064  0.3364  -0.006712  0.01772  -0.01179  0.04715  0.7643  0.4573
6.41e+09  1.122  -0.0576  0.02476  -0.01927  -0.01048  -0.02911  0.9004  0.1953
6.411e+09  1.023  -0.45  0.02485  -0.05736  0.03238  0.009045  0.9105  -0.1144
6.412e+09  0.8191  -0.7914  0.02933  -0.009266  -0.01364  -0.02713  0.7775  -0.4446
6.414e+09  0.4178  -1.007  0.0195  -0.02496  -0.01017  -0.008187  0.6103  -0.6972
6.415e+09  0.09294  -1.145  0.01099  0.02535  0.01155  0.003167  0.3618  -0.8428
6.416e+09  -0.2911  -1.077  0.007395  0.002731  -0.004442  -0.01954  0.04062  -0.888
6.418e+09  -0.6073  -0.9488  -0.01394  0.06819  0.002733  -0.06128  -0.2845  -0.8562
6.419e+09  -0.9272  -0.6692  -0.04949  0.05123  -0.004835  -0.03839  -0.511  -0.7203
6.42e+09  -1.086  -0.2634  0.0116  0.01527  0.02822  -0.01237  -0.7968  -0.4684
6.421e+09  -1.111  0.1351  -0.000643  -0.03432  0.00157  -0.004122  -0.8982  -0.1898
6.422e+09  -1.046  0.4219  -0.008124  -0.009072  0.005491  0.01302  -0.8662  0.1186
6.424e+09  -0.7803  0.8413  -0.02209  0.06119  0.03057  0.00856  -0.7765  0.4022
6.425e+09  -0.423  0.9946  0.0162  0.01749  -0.02754  -0.01002  -0.5938  0.6194
6.426e+09  -0.02229  1.119  0.01591  0.02297  0.03147  0.002846  -0.3672  0.821
6.428e+09  0.3287  1.077  -0.01159  0.004174  -0.0149  -0.01209  -0.01349  0.8653
6.429e+09  0.6961  0.9552  -0.006982  -0.005365  0.051  -0.02256  0.2235  0.844
6.43e+09  0.9752  0.6246  -0.001662  -0.01081  -0.01776  0.02663  0.5198  0.7169
6.431e+09  1.124  0.2574  0.0254  0.02551  -0.007285  0.0007904  0.757  0.5007
6.432e+09  1.106  -0.1375  -0.01992  0.03874  -0.007562  0.001633  0.788  0.2043
6.434e+09  0.9834  -0.6008  -0.01206  0.008475  -0.0001021  -0.04919  0.8893  -0.09898
6.435e+09  0.7687  -0.8529  -0.009153  -0.01949  -0.03053  0.01171  0.7935  -0.3965
6.436e+09  0.3967  -1.041  0.02216  -0.01158  -0.01068  -0.0415  0.5649  -0.6194
6.438e+09  0.01828  -1.134  -0.01372  -0.002117  -0.05793  0.01129  0.3455  -0.7976
6.439e+09  -0.3774  -1.104  -0.00608  0.01528  -0.0414  0.02398  0.0945  -0.8456
6.44e+09  -0.7245  -0.9324  0.01114  0.05076  -0.0338  0.003368  -0.2475  -0.8634
6.441e+09  -1.037  -0.585  0.002347  -0.007257  -0.01109  -0.05346  -0.4851  -0.7652
6.442e+09  -1.125  -0.1161  -0.02966  0.03886  -0.04498  0.04384  -0.6812  -0.5185
6.444e+09  -1.192  0.2207  0.01831  0.01476  0.01681  -0.01999  -0.8228  -0.2026
6.445e+09  -1.009  0.6235  0.03979  0.003749  0.02659  0.008323  -0.8974  0.09615
6.446e+09  -0.7397  0.9757  -0.01703  -0.02162  0.03124  -0.003  -0.7456  0.3554
6.448e+09  -0.3762  1.146  0.01138  -0.02143  0.04263  -0.047  -0.5994  0.5713
6.449e+09  0.0745  1.231  0.001452  -0.01058  0.005329  0.02162  -0.3576  0.7747
6.45e+09  0.5071  1.139  -0.01954  -0.02034  -0.007603  0.03155  -0.09192  0.8322
6.451e+09  0.8063  0.8636  0.001375  0.01627  -0.004103  0.02968  0.2065  0.764
6.452e+09  1.098  0.5633  -0.0181  0.004221  0.03257  0.06613  0.469  0.6626
6.454e+09  1.234  0.07861  -0.008265  0.03128  -0.01742  0.04056  0.651  0.4381
6.455e+09  1.153  -0.3363  -0.01642  -0.02319  -0.01149  0.006006  0.7748  0.2272
6.456e+09  1.006  -0.7821  0.03127  -0.04633  -0.01833  -0.0113  0.8199  -0.0885
6.458e+09  0.6629  -1.003  -0.01715  0.02002  0.02356  0.0466  0.6983  -0.3301
6.459e+09  0.2726  -1.274  -0.00392  0.001597  0.03993  -0.02501  0.5844  -0.5998
6.46e+09  -0.1691  -1.236  -0.07665  0.02866  0.0126  0.008973  0.3436  -0.7352
6.461e+09  -0.5926  -1.116  -0.01056  -0.0487  0.03727  -0.00967  0.04371  -0.808
6.462e+09  -0.9886  -0.8046  -0.01419  -0.03245  0.008824  -0.03786  -0.216  -0.8044
6.464e+09  -1.184  -0.4203  -0.01242  0.003119  -0.01436  0.04988  -0.4497  -0.6429
6.465e+09  -1.272  0.01229  -0.05078  -0.01509  0.01888  0.001844  -0.6626  -0.4361
6.466e+09  -1.245  0.4461  -0.03416  0.01584  0.04126  0.07435  -0.7807  -0.2397
6.468e+09  -0.9316  0.8405  -0.00102  -0.00949  0.0002649  -0.007938  -0.8457  0.05985
6.469e+09  -0.6259  1.08  0.005611  -0.01671  0.05221  0.00144  -0.7154  0.34
6.47e+09  -0.206  1.311  -0.007619  0.003836  0.02826  -0.008967  -0.5859  0.5272
6.471e+09  0.2952  1.228  0.003233  -0.01069  0.03431  -0.03601  -0.3524  0.7177
6.472e+09  0.7661  1.084  -0.00881  -0.00117  0.001142  0.01699  -0.06494  0.7708
6.474e+09  1.092  0.7332  -0.006035  0.005894  -0.03245  0.008483  0.1941  0.7641
6.475e+09  1.29  0.3041  0.0115  0.009701  -0.02218  -0.03038  0.4715  0.6564
6.476e+09  1.31  -0.1708  -0.0341  -0.00222  -0.01975  -0.03255  0.6598  0.4315
6.478e+09  1.136  -0.7021  -0.005115  0.004272  -0.02928  0.058  0.762  0.2352
6.479e+09  0.8804  -1.024  0.04264  0.02589  0.02325  -0.07141  0.7405  -0.07861
6.48e+09  0.4335  -1.331  0.006336  0.007354  0.04013  0.004005  0.7193  -0.3901
6.481e+09  -0.005154  -1.363  0.03182  0.01046  -0.008612  0.0009234  0.5533  -0.5401
6.482e+09  -0.5325  -1.316  -0.004035  -0.02777  -0.007006  -0.05434  0.3665  -0.7291
6.484e+09  -0.953  -0.9591  -0.02271  0.01065  -0.00756  0.01628  0.06317  -0.7943
6.485e+09  -1.268  -0.5544  -0.001855  2.241e-05  -0.02301  -0.0289  -0.2177  -0.778
6.486e+09  -1.398  -0.06566  0.0186  -0.001861  0.02967  -0.003277  -0.4483  -0.5995
6.488e+09  -2  0.6154  -0.02262  -0.0009678  0.5504  -0.5533  -0.5991  -0.4364
6.489e+09  -1.071  0.841  0.05114  0.02246  -0.03191  0.002028  -0.7336  -0.1603
6.49e+09  -0.69  1.242  0.02124  -0.05507  0.00038  -0.01145  -0.7296  0.1275
6.491e+09  -0.2306  1.388  0.02014  0.01406  0.01569  0.0213  -0.7268  0.3546
6.492e+09  0.3315  1.401  0.01668  -0.04234  -0.01551  0.005735  -0.509  0.575
6.494e+09  0.6979  1.1  -0.0326  0.01951  0.06697  -0.07596  -0.3184  0.7207
6.495e+09  1.155  0.8168  0.01153  0.002879  0.06751  -0.01685  -0.02181  0.7701
6.496e+09  1.321  0.3299  0.009461  0.01093  -0.004664  -0.06956  0.2058  0.7223
6.498e+09  1.435  -0.2217  0.001968  -0.006042  -0.007689  -0.01555  0.5142  0.6445
6.499e+09  1.244  -0.6872  0.00573  0.00394  -0.01414  0.00167  0.6542  0.4267
6.5e+09  1.604  -1.728  0.008836  -0.02665  -0.0006594  0.07327  0.7702  0.1466
6.501e+09  0.3996  -1.303  -0.003688  0.01777  0.02777  -0.04918  0.7883  -0.05702
6.502e+09  -0.07961  -1.44  0.03183  0.02242  0.03739  -0.04497  0.6996  -0.3523
6.504e+09  -0.5787  -1.203  -0.0007712  -0.01441  -0.005407  -0.03501  0.5081  -0.5676
6.505e+09  -0.9443  -0.9988  0.02127  -0.03475  -0.007798  0.04409  0.2888  -0.7329
6.506e+09  -1.333  -0.5166  -0.01264  -0.001347  -0.03033  -0.006033  0.03382  -0.7211
6.508e+09  -1.38  -0.023  0.01399  -0.02538  0.00382  -0.003  -0.2507  -0.7403
6.509e+09  -1.265  0.4637  -0.02297  0.007713  0.02268  0.00899  -0.4687  -0.6009
6.51e+09  -1.082  0.8978  0.02693  0.009635  -0.04719  0.01734  -0.6643  -0.3588
6.511e+09  -0.667  1.195  -0.01895  -0.01656  -0.02624  0.05083  -0.7451  -0.0732
6.512e+09  -0.1324  1.299  0.02194  -0.006824  -0.02374  0.07286  -0.7326  0.1208
6.514e+09  0.3695  1.272  0.01324  0.0181  -0.004056  0.0397  -0.6512  0.3656
6.515e+09  0.735  1.109  0.003146  0.002376  0.04554  -0.0227  -0.4718  0.5979
6.516e+09  1.135  0.7064  -0.02671  0.01902  0.03324  -0.03312  -0.2369  0.7206
6.518e+09  1.318  0.246  0.01685  0.01142  -0.02738  0.01168  -0.001865  0.7659
6.519e+09  1.26  -0.1828  -0.03567  0.01094  -0.01257  -0.02651  0.2773  0.7261
6.52e+09  1.09  -0.6057  -0.01186  0.04456  -0.006704  -0.002612  0.4969  0.547
6.521e+09  0.7939  -0.9154  -0.02389  -0.01602  -0.05544  0.01085  0.656  0.3422
6.522e+09  0.3743  -1.129  -0.0106  -0.009139  -0.05515  0.02597  0.7154  0.09697
6.524e+09  -0.07929  -1.248  0.008394  -0.02212  0.01164  0.04049  0.7132  -0.1772
6.525e+09  -0.496  -1.136  -0.003636  0.006035  -0.01775  0.004652  0.6025  -0.3952
6.526e+09  -0.8913  -0.8789  0.03741  -0.01239  0.01863  -0.001845  0.4349  -0.5917
6.528e+09  -1.115  -0.4882  -0.01126  -0.001874  -0.01517  -0.03749  0.188  -0.7063
6.529e+09  -1.193  -0.06923  -0.0106  -0.0132  -0.01501  0.008169  -0.04009  -0.6829
6.53e+09  -1.106  0.3827  0.03247  0.005851  0.0002151  -0.003507  -0.3122  -0.6084
6.531e+09  -0.9065  0.6938  -0.02717  0.01984  0.01503  -0.03261  -0.4652  -0.4844
6.532e+09  -0.6238  0.9945  0.01236  -0.01755  0.009159  0.01281  -0.5182  -0.2973
6.534e+09  -0.2456  1.156  0.004269  0.002906  -0.02663  -0.03149  -0.648  -0.08241
6.535e+09  0.2195  1.094  0.003324  -0.01836  0.04394  -0.06022  -0.6297  0.1095
6.536e+09  0.6842  0.9784  0.01328  -0.005104  -0.002722  -0.02294  -0.5664  0.3051
6.538e+09  0.9014  0.6189  0.02768  0.001763  0.004234  -0.01997  -0.4426  0.4604
6.539e+09  1.04  0.2966  0.05834  0.0122  -0.03139  0.04229  -0.2814  0.5943
6.54e+09  1.112  -0.08871  -0.0003198  -0.005628  -0.0617  0.04118  -0.03942  0.7093
6.541e+09  1.003  -0.4937  -0.00058  0.03531  0.07692  -0.009752  0.1932  0.6461
6.542e+09  0.6818  -0.7899  -0.02755  -0.007088  0.067  0.0005289  0.4089  0.5914
6.544e+09  0.4038  -0.9909  -0.0009984  -0.0103  -0.008219  -0.03619  0.5987  0.3847
6.545e+09  0.02479  -1.048  -0.009017  0.02939  0.02289  -0.004921  0.7101  0.1866
6.546e+09  -0.3635  -1.023  0.01737  0.02068  0.006104  0.01202  0.7466  -0.04335
6.548e+09  -0.6671  -0.8317  0.01661  -0.0181  0.05571  0.03399  0.6826  -0.3081
6.549e+09  -0.8838  -0.4588  0.02981  0.009959  -0.07855  0.02186  0.5084  -0.528
6.55e+09  -1.059  -0.05898  -0.01163  -0.01814  0.02246  0.005723  0.2398  -0.6525
6.551e+09  -1.038  0.2534  0.007221  -0.03462  0.02337  0.01486  0.02774  -0.7381
6.552e+09  -0.874  0.5682  0.026  0.01672  0.02578  0.01131  -0.1975  -0.7266
