# Hz S RI R 50
6.25e+09  0.3722  0.9122  -0.03981  0.01335  0.01131  -0.01798  0.1575  0.5049
6.251e+09  0.6323  0.6588  -0.01988  0.002225  -0.02761  -0.007855  0.396  0.405
6.252e+09  0.8591  0.4186  0.006234  0.005087  0.01908  0.02677  0.5165  0.2701
6.254e+09  1.035  0.07997  0.002764  -0.008685  -0.02663  -0.01483  0.6177  0.006373
6.255e+09  0.8996  -0.2478  -0.003977  0.001365  0.007468  -0.001722  0.5736  -0.2559
6.256e+09  0.7743  -0.5177  0.04463  -0.008872  0.005863  -0.009521  0.4565  -0.3937
6.258e+09  0.5416  -0.7703  -0.0141  0.01305  -0.008773  -0.00654  0.3322  -0.609
6.259e+09  0.2472  -0.9375  -0.03478  0.01277  -0.05633  -0.007543  0.05603  -0.6539
6.26e+09  -0.1202  -0.9665  0.008407  -0.01055  -0.01043  0.01341  -0.2529  -0.6616
6.261e+09  -0.4697  -0.8582  0.01315  -0.01579  0.01384  -0.007621  -0.4384  -0.5406
6.262e+09  -0.7023  -0.6486  0.0131  -0.01597  -0.05518  0.03608  -0.6176  -0.3886
6.264e+09  -0.8862  -0.3645  -0.03099  -0.001031  -0.01635  0.03821  -0.7332  -0.1154
6.265e+09  -0.9732  -0.09721  0.01037  0.01731  0.003671  0.02065  -0.7163  0.1544
6.266e+09  -0.963  0.2337  -0.01119  -0.02635  0.01358  -0.02249  -0.6484  0.409
6.268e+09  -0.7613  0.5716  -0.01658  0.02379  0.01071  0.009011  -0.4205  0.5942
6.269e+09  -0.4877  0.8246  0.009644  -0.01574  0.01305  -0.04182  -0.1752  0.6943
6.27e+09  -0.1873  0.8719  -0.01481  0.008758  0.02238  0.006855  0.07986  0.7604
6.271e+09  0.1596  0.9041  -0.007829  0.01284  0.06349  -0.003979  0.2888  0.681
6.272e+09  0.4452  0.7515  -0.008186  -0.007365  -0.01679  -0.05868  0.5196  0.5138
6.274e+09  0.6677  0.6133  0.004333  0.003508  0.01283  0.05814  0.6834  0.3056
6.275e+09  0.8906  0.2945  -0.02778  0.01977  0.00769  -0.0121  0.7427  0.03671
6.276e+09  0.9532  -0.03847  0.01482  -0.02459  -0.0165  0.02568  0.7335  -0.2219
6.278e+09  0.8853  -0.3557  0.02309  0.02591  0.001437  -0.009865  0.5975  -0.4774
6.279e+09  0.7208  -0.6612  -0.00761  -0.005311  -0.06443  0.05609  0.4277  -0.6411
6.28e+09  0.4098  -0.8333  0.01279  0.02071  -0.004819  -0.03123  0.159  -0.7747
6.281e+09  0.1228  -0.9354  0.02685  -0.02909  0.05361  -0.02715  -0.1204  -0.7597
6.282e+09  -0.1601  -0.9013  -0.01128  0.00196  0.01669  0.0273  -0.3564  -0.6981
6.284e+09  -0.4749  -0.791  -0.02086  0.01468  0.02919  0.05792  -0.5761  -0.5216
6.285e+09  -0.7789  -0.5395  -0.01329  0.008729  0.03484  -0.00611  -0.7368  -0.2498
6.286e+09  -0.9157  -0.2927  -0.02304  0.01288  -0.0189  -0.004804  -0.7853  -0.04363
6.288e+09  -0.9748  0.07047  0.04373  -0.04386  -0.03594  0.05912  -0.7531  0.2464
6.289e+09  -0.8938  0.3876  0.03464  0.01223  -0.04584  -0.02119  -0.6127  0.4935
6.29e+09  -0.6931  0.6654  -0.01446  -0.03611  -0.07288  -0.01243  -0.4163  0.6886
6.291e+09  -0.3949  0.8555  0.014  0.009625  -0.005068  -0.003112  -0.1452  0.7734
6.292e+09  -0.09012  0.9635  -0.00839  -0.01281  0.01692  0.01576  0.1078  0.7889
6.294e+09  0.3064  0.8826  0.006141  -0.001181  0.04529  -0.007524  0.4059  0.7013
6.295e+09  0.5837  0.8038  0.01102  -0.009836  -0.0001908  0.03116  0.6145  0.5146
6.296e+09  0.7798  0.4953  0.003656  0.006977  -0.002856  -0.02154  0.7595  0.2975
6.298e+09  0.9531  0.2319  -0.002369  0.005011  -0.04985  -0.03162  0.8288  0.0402
6.299e+09  0.9056  -0.1251  0.01503  0.02983  -0.006059  0.02597  0.7885  -0.2931
6.3e+09  0.8406  -0.4491  -0.009879  0.0103  -0.02871  -0.001365  0.6373  -0.5471
6.301e+09  0.6487  -0.7528  -0.01692  0.00352  0.02759  0.01117  0.4449  -0.7263
6.302e+09  0.3477  -0.8906  0.001539  -0.00424  -0.03519  0.05473  0.149  -0.8042
6.304e+09  -0.008227  -0.9916  -0.02254  -0.02347  0.01234  0.006295  -0.1692  -0.813
6.305e+09  -0.3318  -0.8733  0.007618  -0.02801  0.01615  -0.01374  -0.4229  -0.7654
6.306e+09  -0.5762  -0.7514  0.003841  0.01456  0.009002  -0.03044  -0.6252  -0.5105
6.308e+09  -0.8652  -0.4671  -0.007725  -0.02042  -0.04308  -0.034  -0.7974  -0.3198
6.309e+09  -0.9501  -0.1238  0.02636  -0.01485  0.002056  0.01539  -0.8739  -0.01832
6.31e+09  -0.9277  0.1999  -0.0007724  0.02109  -0.004  -0.01248  -0.8282  0.3126
6.311e+09  -0.8215  0.516  0.004884  0.01124  0.01087  -0.02386  -0.619  0.5374
6.312e+09  -0.5682  0.7503  -0.02116  -0.02478  -0.04383  -0.02504  -0.4556  0.7342
6.314e+09  -0.2903  0.943  -0.01036  0.02953  0.01563  0.02458  -0.1524  0.8941
6.315e+09  0.05312  1.014  6.607e-05  0.03063  -0.01343  0.002286  0.1506  0.8428
6.316e+09  0.3677  0.9459  -0.002493  0.002637  -0.07874  0.04177  0.4098  0.7556
6.318e+09  0.6766  0.7028  0.0161  0.0392  -0.01105  0.03072  0.6556  0.5724
6.319e+09  0.8721  0.4144  0.01887  0.01398  -0.02076  -0.01431  0.8337  0.3101
6.32e+09  1.039  0.1079  0.006629  -0.0007749  0.02586  0.003811  0.8702  0.03516
6.321e+09  0.948  -0.2397  -0.005875  0.03663  0.02389  0.0412  0.8114  -0.279
6.322e+09  0.8146  -0.6255  -0.005988  -0.02191  0.02329  -0.002963  0.696  -0.5737
6.324e+09  0.5538  -0.8578  0.01833  -0.0389  0.03738  0.04848  0.4546  -0.7815
6.325e+09  0.2857  -1.018  -0.05271  -0.01599  -0.004269  0.01398  0.1706  -0.9098
6.326e+09  -0.08622  -0.9912  -0.0335  0.02077  0.02891  -0.003736  -0.1409  -0.8944
6.328e+09  -0.4035  -0.9195  -0.01371  0.0009634  0.006383  -0.01876  -0.441  -0.852
6.329e+09  -0.7323  -0.7352  0.02357  -0.004629  0.008836  0.0381  -0.6904  -0.5618
6.33e+09  -0.9256  -0.3775  -0.008402  -0.02189  -0.02181  0.007667  -0.8426  -0.358
6.331e+09  -1.089  -0.037  -0.006878  -0.005163  -0.03183  0.04415  -0.9112  -0.007235
6.332e+09  -1.005  0.3545  -0.005296  -0.004332  0.01041  0.04218  -0.864  0.3061
6.334e+09  -0.8447  0.6095  -0.007885  -0.01125  0.03451  0.01093  -0.7204  0.5676
6.335e+09  -0.5382  0.8775  0.02514  0.009431  0.0001848  0.0005651  -0.4708  0.779
6.336e+09  -0.2209  1.031  -0.01612  -0.02036  0.0505  -0.004144  -0.2093  0.9133
6.338e+09  0.1716  1.104  0.002037  0.0086  -0.0267  0.01128  0.1374  0.8949
6.339e+09  0.4643  0.9391  -0.02868  0.01799  0.003881  0.008709  0.4407  0.7853
6.34e+09  0.7953  0.7219  0.003291  0.002246  -0.0009635  -0.0392  0.6639  0.6128
6.341e+09  0.9858  0.4064  0.01766  -0.01917  0.004027  -0.03222  0.8862  0.3508
6.342e+09  1.13  0.05095  0.03603  -0.002986  0.03728  -0.00358  0.9226  0.03968
6.344e+09  0.9972  -0.4225  0.0212  -0.004002  0.02806  0.01737  0.9417  -0.2669
6.345e+09  0.8541  -0.741  0.01636  -0.02013  0.01679  -0.006289  0.744  -0.5863
6.346e+09  0.523  -0.944  -0.01124  -0.02704  0.03633  -0.02257  0.5403  -0.7798
6.348e+09  0.1036  -1.084  -0.01345  -0.02329  -0.03189  -0.06404  0.2087  -0.9091
6.349e+09  -0.23  -1.103  0.02438  -0.01137  -0.06127  -0.0334  -0.132  -0.9505
6.35e+09  -0.577  -0.9523  -0.04711  -0.03676  -0.01033  0.007106  -0.4416  -0.815
6.351e+09  -0.8741  -0.6946  -0.0446  0.01406  -0.02764  -0.04824  -0.6834  -0.6982
6.352e+09  -1.096  -0.3277  -0.003776  -0.04127  0.04135  -0.03231  -0.8687  -0.3547
6.354e+09  -1.129  0.13  -0.008961  -0.00646  -0.03132  -0.003668  -0.9209  -0.1122
6.355e+09  -0.9923  0.451  -0.007108  0.01808  0.03387  -0.001584  -0.8962  0.2749
6.356e+09  -0.8513  0.8237  -0.02096  -0.005227  0.002648  -0.006692  -0.7344  0.5642
6.358e+09  -0.5304  1.095  0.03036  -0.04031  0.02064  -0.02357  -0.5037  0.8097
6.359e+09  -0.09105  1.163  0.04143  -0.04905  -0.01307  0.03204  -0.23  0.8814
6.36e+09  0.2968  1.142  0.02894  -0.0162  0.006181  0.009304  0.1287  0.9265
6.361e+09  0.6661  1.004  0.02352  0.01586  0.03443  -0.04483  0.3971  0.8528
6.362e+09  0.9911  0.6635  0.01978  0.03688  0.003662  0.01036  0.68  0.633
6.364e+09  1.15  0.2812  0.02533  -0.01133  -0.03419  0.01896  0.8671  0.3706
6.365e+09  1.219  -0.1352  0.02877  -0.01342  0.0101  0.02814  0.9721  0.06374
6.366e+09  1.082  -0.5997  -0.00539  0.03601  -0.005244  -0.02563  0.9482  -0.2601
6.368e+09  0.8111  -0.8797  0.003132  0.004683  0.01437  -0.05357  0.8231  -0.5599
6.369e+09  0.4846  -1.158  -0.01773  -0.01603  -0.008007  -0.01768  0.5565  -0.7726
6.37e+09  0.09649  -1.223  0.04811  0.01204  0.04274  -0.02862  0.2444  -0.923
6.371e+09  -0.4067  -1.174  0.01599  0.00568  0.0498  -0.01362  -0.07962  -0.9404
6.372e+09  -0.722  -1.002  -0.02728  0.02729  0.006825  0.03984  -0.4037  -0.8727
6.374e+09  -1.048  -0.6608  0.01452  6.58e-05  -0.007464  0.04503  -0.7065  -0.6477
6.375e+09  -1.231  -0.2441  -0.02174  -0.03026  -0.02508  -0.01325  -0.8603  -0.4271
6.376e+09  -1.301  0.1868  0.01039  -0.007249  -0.02835  -0.002399  -0.9533  -0.0526
6.378e+09  -1.094  0.5989  -0.01358  -0.02091  0.03647  -0.01445  -0.9381  0.245
6.379e+09  -0.8309  0.9932  0.0007726  -0.008184  0.01117  0.02039  -0.8017  0.5423
6.38e+09  -0.4131  1.267  -0.02637  0.03177  -0.03046  0.005914  -0.5563  0.7366
6.381e+09  0.02002  1.342  -0.004648  -0.02227  -0.06417  -0.003461  -0.2705  0.924
6.382e+09  0.4183  1.21  0.002052  -0.003903  -0.03975  0.01092  0.0196  0.9022
6.384e+09  0.8073  0.964  -0.004581  -0.04178  -0.009768  0.02822  0.3852  0.8652
6.385e+09  1.154  0.6081  -0.004377  -0.05028  0.000976  -0.03929  0.6321  0.6147
6.386e+09  1.385  0.2109  -0.01748  0.02381  -0.02106  -0.003323  0.8445  0.4616
6.388e+09  1.358  -0.2913  0.01077  0.02574  0.04861  0.01997  0.9293  0.1697
6.389e+09  1.167  -0.7547  -0.004509  0.04011  -0.01328  0.0195  0.9697  -0.2263
6.39e+09  0.8221  -1.095  0.005075  0.0179  0.002904  -0.006296  0.8165  -0.5564
6.391e+09  0.4293  -1.375  0.01531  0.009474  0.03455  0.02487  0.586  -0.7165
6.392e+09  -0.09889  -1.406  0.02728  0.04304  -0.07364  -0.04136  0.2835  -0.862
6.394e+09  -0.4957  -1.353  -0.05547  0.02703  0.01944  0.05117  -0.03998  -0.8912
6.395e+09  -1.007  -1.063  -0.03014  -0.02843  0.003806  0.00172  -0.3315  -0.8502
6.396e+09  -1.27  -0.6867  0.03383  0.004709  0.05146  0.03168  -0.625  -0.6643
6.398e+09  -1.476  -0.1631  0.04882  -0.002007  0.01112  0.02368  -0.7754  -0.4241
6.399e+09  -1.495  0.3371  -0.01388  0.01888  0.02333  -0.019  -0.8997  -0.1438
6.4e+09  -1.228  0.8372  -0.02703  -0.00701  -0.03742  -0.03368  -0.893  0.2118
6.401e+09  -0.8553  1.253  -0.04311  -0.03403  -0.01303  0.01904  -0.7364  0.4744
6.402e+09  -0.4131  1.476  -0.005745  0.01747  -0.01891  -0.01457  -0.601  0.7019
6.404e+09  0.2039  1.579  0.02005  -0.0142  0.0006023  -0.08106  -0.3334  0.8789
6.405e+09  0.683  1.444  0.005178  -0.009962  0.006932  0.02932  -0.001468  0.9182
6.406e+09  1.133  1.077  -0.04723  -0.06021  -0.04137  0.05438  0.301  0.878
6.408e+09  1.463  0.687  -0.007573  -0.002807  -0.002329  0.0413  0.5954  0.6859
6.409e+09  1.594  0.1178  -0.007297  -0.01858  0.006155  -0.007087  0.7848  0.4791
6.41e+09  1.546  -0.4622  0.0451  0.04267  0.01524  -0.03026  0.8867  0.1436
6.411e+09  1.334  -1.006  0.03837  -0.00265  0.01291  -0.02447  0.876  -0.1171
6.412e+09  0.8724  -1.429  0.01293  0.01164  0.006622  0.0151  0.7993  -0.4753
6.414e+09  0.3549  -1.718  0.00213  -0.05818  0.02026  -0.009134  0.5838  -0.6469
6.415e+09  -0.2858  -1.755  0.007708  -0.02763  -0.05052  0.01377  0.3248  -0.8207
6.416e+09  -0.8773  -1.466  0.02314  0.007649  -0.04621  0.04508  0.06553  -0.9172
6.418e+09  -1.378  -1.108  0.04391  -0.00662  -0.01917  -0.00946  -0.2886  -0.8259
6.419e+09  -1.751  -0.5584  -0.001822  -0.03934  -0.03298  0.04414  -0.5219  -0.7107
6.42e+09  -1.843  0.08007  0.03261  0.004033  -0.0003185  0.02709  -0.7559  -0.4728
6.421e+09  -1.686  0.632  0.007126  0.03119  0.01255  -0.05193  -0.8827  -0.1751
6.422e+09  -1.327  1.258  -0.006813  0.0002434  -0.0119  -0.007007  -0.8644  0.1156
6.424e+09  -0.8852  1.688  0.008431  -0.02989  0.005456  -0.00137  -0.7755  0.3842
6.425e+09  -0.206  1.929  0.04691  0.005003  -0.00192  -0.00561  -0.612  0.6304
6.426e+09  0.512  1.924  0.01863  -0.01241  -0.01369  -0.01508  -0.3398  0.8395
6.428e+09  1.208  1.681  -0.0007219  0.02088  -0.02346  -0.005426  -0.05445  0.8814
6.429e+09  1.662  1.153  0.009308  -0.02168  -0.02591  0.0314  0.1731  0.8815
6.43e+09  2.042  0.5545  -0.02644  -0.00418  -0.005613  0.03419  0.4879  0.6986
6.431e+09  2.088  -0.3141  -0.02652  0.01609  -0.01867  0.01534  0.7288  0.5064
6.432e+09  1.892  -0.9581  0.04022  -0.002605  -0.05251  0.02727  0.8635  0.2367
6.434e+09  1.428  -1.631  -0.03102  0.03878  -0.06142  0.00213  0.8583  -0.08591
6.435e+09  0.7645  -2.036  -0.0004769  -0.03181  -0.02088  0.01907  0.7643  -0.3678
6.436e+09  0.05864  -2.232  0.02056  0.0137  -0.0234  0.02424  0.6228  -0.5806
6.438e+09  -0.7647  -2.161  -0.002252  -0.002495  0.009617  0.03171  0.3222  -0.787
6.439e+09  -1.568  -1.786  0.01368  -0.003775  -0.01334  -0.03255  0.06539  -0.8156
6.44e+09  -2.047  -1.127  0.01113  0.02135  0.05511  0.02388  -0.2255  -0.7993
6.441e+09  -2.414  -0.3715  0.01914  0.0459  0.01343  -0.03464  -0.505  -0.6818
6.442e+09  -2.438  0.6169  0.008078  -0.02498  -0.03305  -0.05182  -0.7231  -0.4806
6.444e+09  -2.142  1.454  -0.03931  -0.005249  -0.0204  -0.05521  -0.8083  -0.2376
6.445e+09  -1.446  2.134  -0.01676  -0.02863  -0.01669  0.03911  -0.8599  0.07204
6.446e+09  -0.733  2.56  -0.02253  -0.02025  0.01809  0.01565  -0.7742  0.3761
6.448e+09  0.3228  2.623  0.0639  -0.01989  -0.006787  -0.009304  -0.5937  0.5941
6.449e+09  1.186  2.384  -0.00344  -0.01178  0.0691  -0.02757  -0.3508  0.768
6.45e+09  2.169  1.871  -0.05539  0.01921  -0.002168  -0.001357  -0.1178  0.8657
6.451e+09  2.737  1.029  -0.01493  -0.0003927  0.03518  0.02898  0.2757  0.7951
6.452e+09  2.905  -0.04734  -0.0007389  -0.05567  0.07562  -0.01335  0.4564  0.6708
6.454e+09  2.81  -1.142  0.02148  0.03492  -0.01177  0.05819  0.7017  0.4787
6.455e+09  2.24  -2.12  0.005044  0.004693  -0.03323  -0.04274  0.7736  0.2312
6.456e+09  1.438  -2.808  0.01385  0.009743  -0.02171  -0.03481  0.8403  -0.07851
6.458e+09  0.3237  -3.216  -0.04066  -0.03774  -0.02071  0.02675  0.7549  -0.389
6.459e+09  -0.8517  -3.223  -0.02618  0.009556  0.06711  0.01437  0.5916  -0.5638
6.46e+09  -2.045  -2.738  -0.04624  -0.05323  0.02454  -0.02396  0.3979  -0.7204
6.461e+09  -3.001  -1.856  -0.01412  -0.01182  -0.02792  0.1051  0.02428  -0.8099
6.462e+09  -3.514  -0.6197  -0.01388  -0.0126  -0.01174  0.04037  -0.2177  -0.7916
6.464e+09  -3.628  0.5921  -0.008564  -0.002233  0.03062  0.06474  -0.4528  -0.6153
6.465e+09  -3.23  1.89  0.006637  -0.002875  0.08446  -0.03735  -0.6709  -0.4434
6.466e+09  -2.439  2.982  0.008105  0.02764  0.1129  0.006313  -0.7949  -0.1706
6.468e+09  -1.192  3.865  0.0196  -0.007667  -0.007172  0.08328  -0.824  0.07042
6.469e+09  0.2918  4.126  -0.004175  -0.02365  -0.04906  0.09654  -0.7407  0.3801
6.47e+09  1.925  4.016  0.02896  0.007338  0.09281  -0.02566  -0.5735  0.5819
6.471e+09  3.347  3.063  0.01468  0.03914  0.09935  -0.003636  -0.3638  0.6988
6.472e+09  4.438  1.668  -0.02  -2.23e-05  0.03611  -0.03789  -0.05135  0.7719
6.474e+09  4.898  -0.1661  -0.004033  0.05017  -0.05803  0.02219  0.2341  0.7624
6.475e+09  4.78  -1.813  -0.04224  -0.03071  -0.0979  -0.09722  0.4554  0.6306
6.476e+09  3.751  -3.605  0.02327  0.01379  0.07048  0.01408  0.6523  0.4607
6.478e+09  2.191  -4.944  0.04343  0.03376  -0.03605  -0.0435  0.7319  0.1728
6.479e+09  0.2774  -5.624  0.01922  -0.0001715  0.08139  0.07041  0.7388  -0.0887
6.48e+09  -2.003  -5.499  0.02473  0.01014  -0.1222  0.0706  0.6724  -0.3335
6.481e+09  -4.227  -4.546  0.01248  -0.0003183  0.1227  -0.07095  0.5349  -0.55
6.482e+09  -5.665  -2.772  -0.02223  -0.009392  0.07535  -0.1165  0.3053  -0.6997
6.484e+09  -6.779  -0.2675  0.003116  -0.009186  0.05856  0.07762  0.06727  -0.7768
6.485e+09  -6.543  2.536  -0.0007309  -0.004808  -0.06547  0.05195  -0.1733  -0.7739
6.486e+09  -5.176  5.222  0.02966  0.003684  0.1088  0.01134  -0.4543  -0.645
6.488e+09  -3.51  7.223  0.01349  -0.00675  -0.2995  -0.8219  -0.6249  -0.4673
6.489e+09  0.2144  8.14  -0.01468  -0.02358  -0.0379  0.00204  -0.7739  -0.1911
6.49e+09  3.697  7.465  0.02203  0.02673  0.1253  -0.08715  -0.811  0.04225
6.491e+09  6.773  5.757  -0.01288  0.01871  -0.1276  -0.02159  -0.7226  0.3096
6.492e+09  8.944  2.404  0.002581  -0.01203  0.01747  -0.08974  -0.551  0.5846
6.494e+09  9.403  -1.623  -0.04692  -0.02283  0.04128  -0.02062  -0.2985  0.7448
6.495e+09  8.306  -5.577  0.0114  -0.002031  0.01965  0.1224  -0.06037  0.7628
6.496e+09  4.938  -9.023  -0.01466  0.00695  0.007059  0.01561  0.2329  0.7066
6.498e+09  0.7261  -10.37  0.01296  -0.03567  0.1823  -0.1356  0.4697  0.5885
6.499e+09  -4.013  -9.732  -0.002638  -0.02823  -0.2088  0.08552  0.6735  0.4244
6.5e+09  -4.264  -16.28  -0.01283  -0.02317  -0.3519  0.3028  0.7624  0.1235
6.501e+09  -10.12  -2.628  -0.01413  -0.03589  0.1189  0.147  0.754  -0.1771
6.502e+09  -10.41  2.024  -0.001688  0.02206  -0.1543  0.07544  0.6604  -0.3696
6.504e+09  -8.075  6.086  -0.05183  -0.01251  0.04914  0.09874  0.5127  -0.5654
6.505e+09  -4.472  8.875  -0.01017  0.04075  -0.1469  -0.08933  0.2901  -0.6944
6.506e+09  -0.2848  9.817  0.0221  0.03037  0.006091  0.04386  0.03983  -0.7264
6.508e+09  3.509  8.432  -0.004264  0.006854  0.05154  0.004175  -0.2205  -0.7161
6.509e+09  6.524  6.111  0.01493  0.006328  0.001754  -0.1563  -0.5152  -0.607
6.51e+09  8.184  2.542  0.03904  0.01087  -0.0244  0.03731  -0.6575  -0.422
6.511e+09  8.059  -0.7057  0.02137  -0.03956  0.08844  -0.05652  -0.7421  -0.1153
6.512e+09  6.681  -3.683  0.03372  -0.01684  -0.001771  0.01392  -0.7598  0.1467
6.514e+09  4.448  -5.877  -0.003038  0.02911  -0.02041  -0.04604  -0.6229  0.3511
6.515e+09  1.863  -6.698  -0.006102  -0.03991  -0.01682  -0.0229  -0.4807  0.5548
6.516e+09  -1.029  -6.548  0.02611  0.04084  -0.04814  -0.09137  -0.2153  0.7125
6.518e+09  -3.224  -5.57  0.00353  0.02356  -0.06885  0.05755  0.0117  0.7101
6.519e+09  -4.865  -3.609  -0.004195  -0.02492  -0.03743  0.05424  0.2688  0.7273
6.52e+09  -5.62  -1.48  -0.04069  0.02298  0.01197  0.04688  0.4876  0.531
6.521e+09  -5.518  0.6158  -0.006553  0.02114  0.01281  0.03304  0.693  0.3504
6.522e+09  -4.651  2.602  -0.01803  -0.0214  0.05039  0.04383  0.7445  0.1217
6.524e+09  -3.248  3.938  0.03325  -0.03601  0.05215  0.1368  0.7322  -0.165
6.525e+09  -1.405  4.682  -0.03757  -0.03128  -0.01787  -0.02501  0.6096  -0.4252
6.526e+09  0.2952  4.731  0.01381  -0.006525  0.079  0.03768  0.435  -0.6026
6.528e+09  2.03  4.12  0.03372  -0.02624  -0.02767  -0.0246  0.1922  -0.709
6.529e+09  3.14  2.985  0.01206  0.02368  -0.001491  -0.02872  -0.04194  -0.7216
6.53e+09  3.965  1.616  0.005998  0.0535  0.04701  -0.02698  -0.2941  -0.6082
6.531e+09  4.004  0.03096  -0.01133  -0.02255  -0.01895  -0.01425  -0.4599  -0.4627
6.532e+09  3.712  -1.432  0.02429  0.01126  -0.01791  -0.07319  -0.5815  -0.3113
6.534e+09  2.874  -2.592  -0.01038  0.00345  0.01573  -0.03719  -0.6431  -0.07816
6.535e+09  1.665  -3.285  -0.02202  3.434e-05  -0.04987  -0.04466  -0.6351  0.1032
6.536e+09  0.3022  -3.618  0.006195  -0.009411  0.02888  0.01466  -0.5899  0.3141
6.538e+09  -0.9349  -3.457  -0.003232  0.03274  0.003765  -0.06922  -0.4226  0.4427
6.539e+09  -2.023  -2.713  -0.01869  -0.01257  0.001787  -0.02992  -0.2455  0.6084
6.54e+09  -2.753  -1.771  -0.0009967  -0.03323  0.04496  -0.03206  -0.05401  0.6848
6.541e+09  -3.25  -0.6318  0.0218  0.01791  0.01053  -0.0628  0.2034  0.705
6.542e+09  -3.14  0.6026  -0.02044  -0.01734  0.007811  -0.01782  0.383  0.5334
6.544e+09  -2.639  1.511  0.007837  0.000777  -0.03926  0.04056  0.5654  0.4197
6.545e+09  -1.838  2.366  -0.001204  -0.004853  -0.06434  -0.03605  0.7223  0.1792
6.546e+09  -0.9135  2.809  -0.02801  -0.0129  -0.06419  0.0516  0.7224  -0.1
6.548e+09  0.1486  2.877  0.01143  0.004096  -5.753e-05  -0.03347  0.6622  -0.3648
6.549e+09  1.157  2.566  0.003737  -0.0242  0.0134  -0.06268  0.4736  -0.5405
6.55e+09  1.946  1.863  0.01066  -0.04117  -0.02603  -0.02562  0.2875  -0.6631
6.551e+09  2.434  1.067  0.02148  0.00494  0.03443  -0.04544  0.01815  -0.7443
6.552e+09  2.584  0.08983  0.01098  -0.0007063  0.002321  0.02245  -0.2414  -0.6853
6.554e+09  2.405  -0.7753  0.01512  -0.01373  -0.01887  -0.01863  -0.4423  -0.584
6.555e+09  2.026  -1.565  -0.0005134  -0.0253  -0.003682  -0.01946  -0.6005  -0.4647
