# Hz S RI R 50
6.25e+09  0.5957  -0.7825  0.03555  -0.0362  0.01685  0.002293  0.1633  0.45
6.251e+09  0.2711  -0.9895  -0.001876  0.02626  0.06175  0.03547  0.3758  0.4297
6.252e+09  -0.16  -0.986  -0.02809  0.03061  -0.002476  -0.03744  0.5359  0.2451
6.254e+09  -0.4625  -0.8588  -0.03308  -0.01318  0.02882  -0.01709  0.5966  0.004362
6.255e+09  -0.778  -0.6805  0.01763  0.02611  -0.0381  0.04129  0.6105  -0.2246
6.256e+09  -0.8807  -0.33  -0.01767  0.003437  0.02361  -0.08962  0.4329  -0.4168
6.258e+09  -1  0.002748  -0.02878  -0.02353  0.08979  0.05452  0.2658  -0.6149
6.259e+09  -0.9053  0.4049  0.009848  0.002764  0.009851  -0.0129  0.07501  -0.6781
6.26e+09  -0.7061  0.6165  0.008247  -0.001071  0.001734  -0.02381  -0.2146  -0.6639
6.261e+09  -0.4436  0.8536  -0.01584  -0.02376  -0.03367  -0.00524  -0.4622  -0.519
6.262e+09  -0.1399  0.9641  -0.01347  -0.023  -0.01963  0.01313  -0.6006  -0.3779
6.264e+09  0.2471  0.9441  -0.008739  -0.0226  0.09121  -0.01708  -0.6982  -0.09477
6.265e+09  0.5144  0.7991  -0.003631  0.001674  -0.004958  0.0143  -0.7003  0.1404
6.266e+09  0.8106  0.5546  0.001388  -0.009592  -0.08583  0.01525  -0.5894  0.4233
6.268e+09  0.9278  0.2015  0.02329  -0.004708  -0.005182  0.04682  -0.4388  0.5951
6.269e+09  0.9314  -0.1253  0.001279  0.02131  -0.04659  -0.06385  -0.1996  0.75
6.27e+09  0.8395  -0.4221  0.02543  -0.005976  0.04934  -0.01794  0.08989  0.7641
6.271e+09  0.655  -0.7541  0.007865  0.00379  -0.005945  0.01266  0.3007  0.6712
6.272e+09  0.333  -0.8781  0.009874  -0.0143  -0.003895  -0.01835  0.5423  0.527
6.274e+09  -0.02705  -0.9263  -0.02626  -0.008464  0.04784  0.02287  0.6514  0.3163
6.275e+09  -0.3561  -0.8611  -0.02838  -0.01188  -0.02409  -0.01909  0.7505  0.06162
6.276e+09  -0.5641  -0.659  -0.01049  -0.02785  -0.01688  0.01562  0.7544  -0.2112
6.278e+09  -0.8636  -0.4525  -0.002234  -0.003464  -0.0003055  -0.01186  0.638  -0.4568
6.279e+09  -0.9032  -0.1148  -0.01492  -0.01771  0.02966  -0.000104  0.3915  -0.6535
6.28e+09  -0.9352  0.267  -0.004686  -0.001404  0.05448  -0.0153  0.1607  -0.7446
6.281e+09  -0.7669  0.5647  0.01217  0.0015  0.04064  -0.02549  -0.1383  -0.7922
6.282e+09  -0.541  0.7788  0.008249  -0.02596  0.004019  0.02882  -0.3942  -0.7114
6.284e+09  -0.2309  0.9542  0.02353  0.02305  -0.003583  0.006551  -0.5762  -0.5516
6.285e+09  0.1175  0.96  0.02647  -0.0145  -0.05722  0.05304  -0.7524  -0.2815
6.286e+09  0.4811  0.858  -0.001647  0.01578  0.01179  0.005554  -0.808  -0.021
6.288e+09  0.7065  0.6223  -0.01432  -0.0002052  0.01561  0.01103  -0.735  0.2602
6.289e+09  0.8646  0.3698  0.0006758  -0.01746  -0.07952  -0.04834  -0.6082  0.4793
6.29e+09  0.9518  0.03691  0.005164  0.004902  -0.0662  0.03186  -0.4193  0.6941
6.291e+09  0.8982  -0.3344  0.001998  -0.02591  0.01777  -0.006551  -0.1571  0.8159
6.292e+09  0.7228  -0.6268  -0.02319  -0.008399  0.007923  -0.01845  0.1243  0.8215
6.294e+09  0.4548  -0.8252  -0.01435  0.03111  0.02657  0.000504  0.4204  0.703
6.295e+09  0.1882  -0.9573  -0.02962  -0.002445  -0.005351  0.03701  0.6343  0.5507
6.296e+09  -0.1865  -0.8943  -0.001616  -0.01659  0.01179  0.1028  0.7368  0.2815
6.298e+09  -0.4924  -0.7817  0.01011  -0.01254  0.009458  0.05819  0.8505  -0.01345
6.299e+09  -0.7829  -0.5568  -0.01484  -0.0184  -0.0114  0.02742  0.7673  -0.2979
6.3e+09  -0.8751  -0.2688  -0.01733  -0.004714  -0.01416  0.009989  0.6382  -0.5442
6.301e+09  -0.949  0.08524  -0.04461  -0.03761  0.02471  0.01814  0.4129  -0.7344
6.302e+09  -0.8685  0.4419  -0.015  0.006633  0.007221  0.008235  0.1274  -0.8742
6.304e+09  -0.6523  0.6651  -0.02804  0.002207  -0.02126  -0.0108  -0.1416  -0.8195
6.305e+09  -0.3556  0.9192  -0.01813  -0.02332  0.02064  -0.00598  -0.4231  -0.7382
6.306e+09  -0.009247  0.8933  0.01877  0.006467  -0.006576  -0.01868  -0.6245  -0.5756
6.308e+09  0.3126  0.8898  -0.01432  0.004164  0.02481  -0.00365  -0.8253  -0.3156
6.309e+09  0.5759  0.7476  -0.03587  -0.006186  -0.02802  -0.02378  -0.8701  0.01886
6.31e+09  0.8715  0.4621  0.0009244  0.02043  -0.03512  0.01033  -0.828  0.2853
6.311e+09  0.9611  0.1525  0.01176  0.005592  -0.04651  -0.006658  -0.6785  0.5261
6.312e+09  0.9147  -0.2052  -0.002219  0.01562  0.02397  0.003602  -0.4735  0.7677
6.314e+09  0.8171  -0.5063  -0.02587  -0.003975  0.03367  0.03329  -0.1685  0.8713
6.315e+09  0.6031  -0.7454  -0.01257  0.01474  0.01221  -0.02774  0.1685  0.8842
6.316e+09  0.2402  -0.8911  -0.02312  0.004122  0.04284  0.009385  0.4519  0.744
6.318e+09  -0.05571  -0.9378  0.0132  0.03644  0.007265  0.03022  0.7007  0.5814
6.319e+09  -0.384  -0.8629  -0.007486  -0.009786  0.02886  0.006295  0.8217  0.3024
6.32e+09  -0.6901  -0.6819  0.01324  -0.02603  0.008029  0.004509  0.8513  -0.001664
6.321e+09  -0.8749  -0.3698  -0.0002182  0.02768  -0.03271  -0.03692  0.8125  -0.287
6.322e+09  -0.988  -0.05462  -0.004988  0.03092  0.02853  -0.01592  0.6842  -0.5651
6.324e+09  -0.9165  0.2931  0.01116  -0.02835  0.004464  0.0187  0.4638  -0.7898
6.325e+09  -0.7992  0.5838  -0.01062  0.0159  0.01293  -0.05282  0.1817  -0.8702
6.326e+09  -0.5082  0.7828  0.0052  0.01771  0.02052  -0.02748  -0.151  -0.8969
6.328e+09  -0.1996  0.9107  0.01261  0.0005787  0.09209  0.04373  -0.4537  -0.7884
6.329e+09  0.1778  0.9172  -0.00594  -0.02255  0.0003563  -0.03181  -0.6785  -0.5863
6.33e+09  0.4551  0.8299  0.01082  -0.03969  0.02926  0.0298  -0.8428  -0.3644
6.331e+09  0.7132  0.5815  -0.01481  -0.01456  -0.03135  -0.02921  -0.8704  -0.02799
6.332e+09  0.9266  0.3213  0.004806  -0.01308  -0.03074  -0.004531  -0.8914  0.3056
6.334e+09  1.002  -0.0513  0.02554  -0.01623  0.01257  0.01883  -0.7231  0.5261
6.335e+09  0.9167  -0.3574  -0.008816  0.01299  -0.01337  0.0261  -0.4812  0.7963
6.336e+09  0.6888  -0.6393  -0.002859  -0.01398  0.02389  0.001056  -0.2012  0.9327
6.338e+09  0.4443  -0.8644  0.005088  0.01688  -0.02437  0.006969  0.1626  0.9097
6.339e+09  0.08003  -0.9679  -0.01099  0.0004846  -0.009688  -0.03268  0.4085  0.7903
6.34e+09  -0.2234  -0.9559  0.01818  0.003533  -0.004365  0.05996  0.6598  0.6401
6.341e+09  -0.5597  -0.8086  0.01702  0.001126  0.01834  -0.03708  0.8415  0.3451
6.342e+09  -0.8116  -0.551  -0.04111  -0.0153  -0.00461  -0.0404  0.9233  0.05771
6.344e+09  -0.9528  -0.2345  0.03833  -0.01122  -0.0466  -0.006162  0.8774  -0.3008
6.345e+09  -0.9659  0.1489  -0.009783  -0.01323  -0.00594  -0.02314  0.7279  -0.5622
6.346e+09  -0.8653  0.4439  -0.00269  0.01976  0.01817  -0.003179  0.5283  -0.8214
6.348e+09  -0.6528  0.7213  0.01322  0.002858  -0.03413  -0.01387  0.2011  -0.8899
6.349e+09  -0.377  0.8802  -0.003341  -0.008763  -0.005045  -0.03647  -0.1544  -0.9331
6.35e+09  0.02725  0.9992  0.001753  0.001702  0.02618  0.004078  -0.4155  -0.8139
6.351e+09  0.3445  0.9312  -0.0183  0.04146  0.01857  -0.01258  -0.7084  -0.6687
6.352e+09  0.6787  0.7285  0.001686  -0.006279  -0.05362  0.005624  -0.8618  -0.3656
6.354e+09  0.8568  0.5053  0.001163  -0.03031  -0.01796  0.01638  -0.9125  -0.08128
6.355e+09  0.9514  0.1089  -0.01192  0.01991  0.05862  -0.02757  -0.9152  0.2763
6.356e+09  0.9785  -0.2072  -0.05029  -0.002239  -0.004327  0.02664  -0.7697  0.5234
6.358e+09  0.821  -0.5647  -0.03832  0.0304  -0.02594  -0.002525  -0.5045  0.7681
6.359e+09  0.5612  -0.8549  -0.0173  -0.01514  0.004704  0.009512  -0.2682  0.8995
6.36e+09  0.2531  -0.9776  0.03212  -0.02059  0.007587  -0.003397  0.115  0.9633
6.361e+09  -0.1233  -1.01  0.01343  0.002237  -0.005762  0.0007174  0.4446  0.8872
6.362e+09  -0.4597  -0.9062  -0.0295  -0.008605  -0.00823  0.005515  0.6708  0.6615
6.364e+09  -0.743  -0.6743  -0.01975  -0.00263  0.022  -0.03189  0.8841  0.3934
6.365e+09  -0.9404  -0.3643  -0.009531  0.02985  0.03896  -0.001498  0.9399  0.1006
6.366e+09  -1.057  -0.009403  0.03103  -0.02316  0.04475  -0.02432  0.9484  -0.2734
6.368e+09  -0.9452  0.372  -0.004113  -0.009703  0.02866  -0.02508  0.75  -0.5462
6.369e+09  -0.7429  0.6793  0.01191  0.02664  -0.03628  -0.002243  0.5611  -0.7773
6.37e+09  -0.4871  0.9232  0.01092  -0.009998  0.00702  -0.04293  0.255  -0.9148
6.371e+09  -0.1023  1.061  -0.006284  -0.05708  -0.03615  -0.004676  -0.0881  -0.9384
6.372e+09  0.2999  0.9262  -0.02994  -0.01878  -0.02194  -0.02887  -0.3918  -0.8662
6.374e+09  0.5846  0.8811  0.001914  0.009798  0.006329  -0.0217  -0.6735  -0.6931
6.375e+09  0.8522  0.5736  0.02413  0.0533  0.0002968  -0.03489  -0.8691  -0.3786
6.376e+09  1.062  0.2416  0.01284  0.02231  0.01357  0.006553  -0.9171  -0.09946
6.378e+09  1.016  -0.2209  0.01331  0.03513  0.004504  -0.008476  -0.923  0.2327
6.379e+09  0.9727  -0.5092  0.00402  -0.02257  -0.01349  -0.01861  -0.7838  0.5091
6.38e+09  0.657  -0.8027  0.01524  0.03281  -0.009883  -0.01416  -0.5448  0.7326
6.381e+09  0.3342  -1.004  0.02671  0.005489  -0.003403  -0.02403  -0.2637  0.9309
6.382e+09  -0.06166  -1.072  0.002531  0.02621  -0.02256  -0.03145  0.05142  0.9364
6.384e+09  -0.405  -1.046  -0.008314  0.0311  -0.02915  0.01626  0.3661  0.8445
6.385e+09  -0.7747  -0.7158  -0.02969  -0.03109  -0.01756  0.0008667  0.6748  0.6833
6.386e+09  -0.9579  -0.4418  0.04811  0.0002395  -0.02065  0.03317  0.7843  0.4401
6.388e+09  -1.082  -0.06013  -0.04014  -0.001771  -0.04166  -0.0131  0.9369  0.09465
6.389e+09  -1.021  0.293  -0.04398  -0.01227  -0.01581  0.007672  0.9502  -0.271
6.39e+09  -0.8398  0.7033  0.02058  -0.01979  -0.07202  -0.06455  0.8105  -0.5049
6.391e+09  -0.5574  0.9479  -0.01348  0.00103  -0.02324  0.003031  0.5903  -0.7005
6.392e+09  -0.164  1.073  0.01401  -0.003624  0.02307  -0.003898  0.2663  -0.8747
6.394e+09  0.2654  1.069  -0.004195  0.01272  -0.03014  -0.01065  -0.02714  -0.9193
6.395e+09  0.5993  0.9168  -0.01547  -0.006826  -0.03558  0.03739  -0.3561  -0.8706
6.396e+09  0.9179  0.6793  0.009082  -0.0517  0.004816  0.02416  -0.6446  -0.7
6.398e+09  1.059  0.287  -0.02257  0.02842  -0.006351  0.007439  -0.8233  -0.4469
6.399e+09  1.066  -0.08482  -0.0138  -0.03574  -0.02606  0.03142  -0.8757  -0.1772
6.4e+09  1.012  -0.4635  0.01673  -0.004151  0.01238  0.02002  -0.9103  0.1641
6.401e+09  0.7217  -0.7474  -0.0197  0.001539  -0.01688  0.01666  -0.8418  0.4728
6.402e+09  0.3696  -1.063  -0.04007  0.009699  -0.006451  0.04477  -0.5782  0.6831
6.404e+09  0.00778  -1.091  0.005597  0.009138  -0.05963  0.02212  -0.3342  0.8312
6.405e+09  -0.3995  -1.03  -0.04886  -0.005954  0.008707  -0.04159  -0.04105  0.9205
6.406e+09  -0.7593  -0.7584  -0.0213  0.01731  0.0446  0.01305  0.3338  0.8698
6.408e+09  -0.9806  -0.4931  -0.03006  -0.006074  -0.007178  -0.04116  0.5992  0.7038
6.409e+09  -1.08  -0.08124  -0.005883  -0.003954  -0.007761  0.0006113  0.7681  0.4839
6.41e+09  -1.058  0.2827  -0.005085  0.005306  0.02741  -0.03237  0.9028  0.1898
6.411e+09  -0.9158  0.6077  -0.0251  -0.008201  0.02279  0.014  0.9027  -0.13
6.412e+09  -0.6182  0.9255  -0.04605  -0.06251  -0.02892  0.002418  0.7765  -0.4536
6.414e+09  -0.2178  1.129  0.0354  0.01506  -0.01112  -0.007863  0.5839  -0.6771
6.415e+09  0.2184  1.061  -0.01999  0.004155  -0.004316  0.04022  0.3666  -0.8118
6.416e+09  0.5397  0.9642  0.06298  -0.06438  -0.0009833  -0.0007485  0.003193  -0.8883
6.418e+09  0.904  0.6559  -0.03017  -0.02358  0.04596  0.03369  -0.3128  -0.8532
6.419e+09  1.075  0.3015  0.01619  -0.02686  0.04045  -0.0198  -0.5726  -0.6968
6.42e+09  1.106  -0.1033  0.01722  0.008689  -0.00179  -0.0289  -0.745  -0.4897
6.421e+09  0.9759  -0.4989  -0.02137  0.02691  0.01039  0.0133  -0.8704  -0.1874
6.422e+09  0.6922  -0.8075  0.02146  -0.01942  -0.01222  0.03395  -0.8837  0.1142
6.424e+09  0.411  -0.9877  -0.005199  -0.008291  0.02102  -0.02213  -0.8023  0.3783
6.425e+09  0.03645  -1.123  0.00587  -0.003714  0.0152  -0.003592  -0.5909  0.6778
6.426e+09  -0.3771  -1.008  0.01896  -0.02139  0.02708  0.03932  -0.3689  0.8022
6.428e+09  -0.7427  -0.8035  0.0148  0.01069  -0.04203  -0.02394  -0.06536  0.8413
6.429e+09  -1.005  -0.4726  -0.004625  0.00597  0.02467  -0.01698  0.2624  0.8154
6.43e+09  -1.082  -0.1074  -0.02605  -0.006663  0.01025  0.002184  0.5475  0.7073
6.431e+09  -1.023  0.2716  0.03189  -0.03712  0.02878  0.0123  0.6721  0.4829
6.432e+09  -0.8784  0.6378  -0.01217  0.03498  0.005967  0.01141  0.8586  0.2319
6.434e+09  -0.5936  0.9071  -0.00413  0.0158  0.01692  0.03099  0.8437  -0.105
6.435e+09  -0.1873  1.071  -0.01355  0.02641  0.00402  -0.03152  0.7676  -0.3735
6.436e+09  0.1492  1.04  -0.0157  -0.01992  -0.03161  0.02426  0.6337  -0.6405
6.438e+09  0.5537  0.9077  0.01232  0.03287  0.01716  -0.03295  0.3863  -0.7685
6.439e+09  0.7807  0.6681  0.04408  -0.007744  0.04303  -0.02619  0.08438  -0.8105
6.44e+09  1.005  0.3545  -0.003983  0.0104  -0.01217  0.02388  -0.1622  -0.8274
6.441e+09  1.018  -0.07077  -0.01213  -0.02074  0.02473  0.01803  -0.4797  -0.6893
6.442e+09  0.9135  -0.3754  0.01575  0.04446  0.01388  -0.05733  -0.6952  -0.4651
6.444e+09  0.7439  -0.7204  -0.01218  -0.03331  -0.02425  0.03684  -0.8139  -0.2412
6.445e+09  0.4795  -0.9474  0.01287  0.0109  0.02689  -0.01041  -0.8586  0.1105
6.446e+09  0.1016  -0.9978  -0.04811  0.0149  0.02604  0.02678  -0.8123  0.3701
6.448e+09  -0.2571  -0.9668  0.002369  -0.007513  0.003319  -0.008069  -0.5904  0.6227
6.449e+09  -0.6285  -0.8273  -0.007282  0.03898  -0.01879  0.02999  -0.3737  0.796
6.45e+09  -0.8147  -0.5126  -0.01001  -0.01409  -0.01576  -0.006254  -0.03994  0.8802
6.451e+09  -1.047  -0.184  0.008705  0.03369  0.04106  0.0149  0.2275  0.7915
6.452e+09  -1.006  0.1518  0.04465  -0.01245  -0.004394  0.04367  0.4865  0.6978
6.454e+09  -0.8311  0.4975  0.01487  0.01089  -0.02737  0.009849  0.5939  0.404
6.455e+09  -0.6649  0.7935  0.009556  -0.01346  -0.002172  0.04057  0.8211  0.2012
6.456e+09  -0.3179  0.9127  -0.0194  0.02236  0.03959  -0.00275  0.8487  -0.1101
6.458e+09  0.008507  0.9759  -0.01661  0.01107  -0.005044  -0.004548  0.7637  -0.3252
6.459e+09  0.3506  0.8779  0.0104  0.05165  -0.04596  0.009912  0.5651  -0.5989
6.46e+09  0.6167  0.7526  0.002123  -0.03466  0.04018  0.01635  0.3315  -0.7463
6.461e+09  0.8975  0.4432  0.06033  -0.01875  -0.007252  -0.02029  0.06339  -0.8353
6.462e+09  1.002  0.09524  0.01823  -0.04638  0.002875  -0.03496  -0.1928  -0.7954
6.464e+09  0.9487  -0.2095  0.01502  -0.01442  0.03711  0.02092  -0.4422  -0.7072
6.465e+09  0.7672  -0.5032  -0.01922  -0.01653  0.01814  0.005969  -0.6835  -0.4358
6.466e+09  0.5473  -0.789  -0.03577  -0.01966  0.01558  0.00192  -0.7949  -0.2119
6.468e+09  0.2674  -0.9258  -0.01555  0.04709  -0.05768  -0.01035  -0.8026  0.09537
6.469e+09  -0.1142  -0.9581  0.03547  -0.01412  0.02661  0.00952  -0.7416  0.3342
6.47e+09  -0.4059  -0.8162  0.00458  0.01906  0.02227  0.00229  -0.5655  0.5869
6.471e+09  -0.6501  -0.6933  0.007146  -0.02846  0.0174  0.02565  -0.3099  0.7279
6.472e+09  -0.8605  -0.3264  -0.03361  -0.01909  0.003562  0.006221  -0.08412  0.83
6.474e+09  -0.9288  -0.01752  0.01059  -0.01923  -0.001863  -0.03403  0.2204  0.7699
6.475e+09  -0.8818  0.3078  0.02036  0.02401  0.01416  -0.02933  0.4407  0.6415
6.476e+09  -0.7297  0.6157  -0.006039  -0.009235  -0.07103  0.002031  0.6459  0.4515
6.478e+09  -0.525  0.8468  0.01589  -0.05666  0.01974  0.01464  0.7354  0.1868
6.479e+09  -0.1946  0.9122  -0.01316  -0.006504  -0.03411  0.02525  0.7655  -0.09537
6.48e+09  0.1061  0.932  0.02032  7.419e-05  -0.0306  -0.0181  0.6962  -0.3468
6.481e+09  0.4946  0.8122  -0.02453  -0.02034  0.003109  -0.02001  0.5387  -0.5436
6.482e+09  0.6984  0.5867  -0.04221  -0.002942  0.01031  0.02292  0.3294  -0.7274
6.484e+09  0.8745  0.288  0.02518  -0.01458  0.01675  0.01895  0.06442  -0.7738
6.485e+09  0.9996  -0.004333  -0.005154  -0.05247  0.01548  0.03039  -0.1601  -0.8096
6.486e+09  0.8606  -0.3237  -0.02607  -0.01658  -0.01794  -0.07036  -0.4442  -0.6258
6.488e+09  0.02727  -0.3556  -0.01284  -0.006659  0.731  0.06855  -0.6724  -0.4561
6.489e+09  0.3983  -0.8269  -0.01444  0.02495  -0.02156  -0.02111  -0.7427  -0.1848
6.49e+09  0.1481  -0.9554  0.01094  0.003614  0.02289  -0.00663  -0.776  0.1079
6.491e+09  -0.1674  -0.9599  0.001022  -0.01025  0.02829  0.003432  -0.7095  0.3187
6.492e+09  -0.5343  -0.779  -0.006562  0.002265  0.01631  -0.009731  -0.533  0.5257
6.494e+09  -0.7713  -0.6885  0.008548  0.00699  -0.08451  -0.05505  -0.2887  0.7046
6.495e+09  -0.9147  -0.3012  0.02093  0.0326  -0.02324  0.002467  -0.05089  0.7385
6.496e+09  -0.9234  0.03259  0.003502  -0.02598  -0.008821  -0.04671  0.2192  0.7345
6.498e+09  -0.8657  0.3699  0.008725  0.02123  -0.04097  -0.00333  0.4793  0.6296
6.499e+09  -0.6979  0.6324  0.03035  -0.01621  0.05207  -0.005168  0.6307  0.4036
6.5e+09  -0.7146  1.145  0.01536  0.009496  -0.04175  0.008024  0.7482  0.1591
6.501e+09  -0.09142  0.9192  -0.001569  0.001239  -0.002816  0.0256  0.7216  -0.1019
6.502e+09  0.2447  0.9482  -0.02164  0.01916  -0.0594  -0.00826  0.6414  -0.334
6.504e+09  0.5192  0.7519  -0.02399  0.008483  0.01689  -0.009925  0.4856  -0.6135
6.505e+09  0.7746  0.575  -0.02259  0.02765  -0.06275  0.06033  0.2741  -0.7009
6.506e+09  0.9218  0.2558  0.00684  0.01023  -0.01679  -0.000144  0.02256  -0.7834
6.508e+09  0.9712  -0.07176  -0.005085  -0.000339  0.02524  -0.0257  -0.2566  -0.6933
6.509e+09  0.8836  -0.4099  0.003476  0.01075  0.005044  0.004591  -0.4988  -0.5814
6.51e+09  0.6588  -0.7009  -0.01472  0.02738  -0.03615  -0.01687  -0.651  -0.354
6.511e+09  0.463  -0.8384  -0.009356  0.009542  -0.005945  0.003219  -0.7434  -0.1527
6.512e+09  0.03967  -0.9434  -0.01247  0.01207  0.0281  -0.009649  -0.745  0.08977
6.514e+09  -0.2334  -0.9592  0.009176  0.02009  -0.01885  -0.006182  -0.693  0.3488
6.515e+09  -0.541  -0.7571  -0.007602  0.01022  -0.007757  0.01257  -0.4573  0.5314
6.516e+09  -0.8049  -0.5088  -0.01175  0.01571  0.03125  0.01959  -0.2055  0.734
6.518e+09  -0.9276  -0.2372  0.0212  -0.02625  0.005674  0.008958  -0.01042  0.7469
6.519e+09  -0.967  0.149  -0.0004096  0.001476  0.001144  -0.01611  0.2861  0.7124
6.52e+09  -0.8714  0.4084  -0.01122  -0.03322  0.004507  -0.02675  0.5118  0.5906
6.521e+09  -0.6824  0.7364  -0.05318  0.01261  -0.04091  -0.0004695  0.6455  0.3321
6.522e+09  -0.3998  0.881  0.01504  0.01824  -0.02363  -0.01449  0.7385  0.1256
6.524e+09  -0.04763  0.9456  -9.04e-05  -0.002387  0.01185  0.02262  0.7163  -0.1721
6.525e+09  0.3313  0.9373  0.01444  -0.002413  -0.03404  -0.01555  0.6088  -0.4285
6.526e+09  0.6187  0.7794  -0.008212  0.0005439  0.01146  -0.006867  0.4356  -0.5931
6.528e+09  0.834  0.4981  0.005967  0.001118  0.02247  0.04057  0.2225  -0.6417
6.529e+09  1.025  0.193  0.02136  -0.03043  0.008543  -0.02095  -0.06096  -0.708
6.53e+09  0.9809  -0.1751  0.005452  0.04211  0.0226  0.01615  -0.2823  -0.6422
6.531e+09  0.8832  -0.4891  0.02444  0.002565  0.004612  0.01752  -0.4646  -0.4728
6.532e+09  0.6584  -0.7991  -0.0173  -0.01881  0.01414  0.02454  -0.5966  -0.2761
6.534e+09  0.3558  -0.9404  -0.03027  -0.04351  -0.02504  -0.02018  -0.6388  -0.07107
6.535e+09  -0.005249  -1.067  -0.01148  0.02739  -0.0004851  0.03516  -0.5927  0.1044
6.536e+09  -0.3406  -0.9517  0.03755  0.03126  -0.01126  -0.01828  -0.5533  0.3302
6.538e+09  -0.6896  -0.8256  -0.007079  -0.006957  -0.02178  0.0486  -0.4478  0.5085
6.539e+09  -0.9738  -0.4833  0.008546  -0.01312  0.04482  0.01421  -0.2617  0.5879
6.54e+09  -1.018  -0.08408  -0.0093  0.0001516  -0.03533  -0.01503  -0.06896  0.705
6.541e+09  -1.014  0.2673  -0.03079  0.006645  0.0481  -0.009252  0.2301  0.6731
6.542e+09  -0.8384  0.6087  -0.001749  -0.01687  0.01486  -0.0111  0.4184  0.5884
6.544e+09  -0.624  0.8537  -0.007023  0.01005  -0.08198  -0.03957  0.57  0.398
6.545e+09  -0.2593  1.005  -0.01197  -0.008375  0.009839  -0.01928  0.679  0.1815
6.546e+09  0.08938  1.08  -0.03187  -0.03706  0.03081  -0.01886  0.7363  -0.07901
6.548e+09  0.4657  0.9898  0.02315  0.04059  0.058  0.001378  0.6786  -0.3033
6.549e+09  0.7902  0.7095  0.001093  -0.01289  -0.01489  0.003573  0.5117  -0.518
6.55e+09  0.9807  0.4334  0.02702  0.01284  -0.006536  -0.03144  0.2667  -0.6751
6.551e+09  1.114  0.1003  0.0009559  -0.0164  -0.03175  -0.005865  -0.0003726  -0.7521
