# Hz S RI R 50
6.25e+09  1.003  0.2205  0.008294  -0.01149  0.0526  -0.007137  0.1509  0.4671
6.251e+09  1.017  -0.1806  0.008602  0.003706  -0.02387  0.06688  0.3707  0.4198
6.252e+09  0.8947  -0.5103  -0.000957  0.0349  0.03013  -0.01681  0.5712  0.2556
6.254e+09  0.5938  -0.7991  -0.02249  -0.02362  0.01037  -0.04345  0.5969  -0.0001122
6.255e+09  0.3632  -0.9938  0.006117  0.003912  -0.02191  0.001583  0.561  -0.2444
6.256e+09  -0.04221  -1.027  -0.02745  -0.03016  -0.03141  0.0301  0.5039  -0.435
6.258e+09  -0.3797  -0.9757  -0.004869  -0.01176  0.02203  0.005068  0.2805  -0.6005
6.259e+09  -0.6439  -0.7623  -0.005778  -0.007118  0.03451  -0.004752  0.05009  -0.6747
6.26e+09  -0.8685  -0.492  0.01936  -0.01128  -0.04513  -0.0206  -0.1946  -0.6846
6.261e+09  -1.057  -0.0996  -0.02468  -0.0002997  -0.004918  0.005297  -0.4355  -0.5307
6.262e+09  -0.9794  0.2854  -0.01469  0.006124  -0.009312  0.02981  -0.6257  -0.3598
6.264e+09  -0.8198  0.5497  -0.03468  0.02612  -0.01394  -0.01711  -0.7182  -0.06694
6.265e+09  -0.5651  0.8214  -0.005092  -0.01091  -0.01927  -0.01469  -0.7134  0.1727
6.266e+09  -0.2297  0.9788  0.03024  0.02248  0.01847  -0.0004612  -0.619  0.4222
6.268e+09  0.1377  0.9548  -0.009216  -0.0139  0.01721  0.04231  -0.3977  0.6055
6.269e+09  0.4404  0.8536  0.003105  -0.007958  0.04678  -0.08752  -0.1758  0.7049
6.27e+09  0.7629  0.627  0.0193  -0.014  0.03633  0.01856  0.05678  0.7674
6.271e+09  0.9483  0.2759  -0.00775  0.002222  0.001841  0.07098  0.3402  0.6741
6.272e+09  1.061  -0.05018  -0.00535  0.001268  -0.02548  -0.01801  0.5119  0.5028
6.274e+09  0.9247  -0.3325  -0.01483  0.006563  0.02732  -0.04489  0.6591  0.309
6.275e+09  0.7828  -0.6532  0.02123  0.01336  -0.02689  0.03428  0.772  0.05826
6.276e+09  0.476  -0.8707  0.03567  0.009984  -0.0335  0.0033  0.7352  -0.2245
6.278e+09  0.1662  -1.049  0.006096  -0.001522  -0.02934  -0.03067  0.656  -0.4552
6.279e+09  -0.2761  -1.014  -0.006402  -0.00206  0.03699  0.04355  0.3945  -0.6281
6.28e+09  -0.5497  -0.8585  0.01276  -0.01002  0.03563  0.06371  0.1786  -0.7532
6.281e+09  -0.8135  -0.5715  -0.02275  0.02712  -0.0004896  0.01516  -0.1187  -0.7562
6.282e+09  -0.9291  -0.2226  -0.007564  0.00814  -0.008112  0.002747  -0.3565  -0.679
6.284e+09  -0.9886  0.1254  0.006262  0.008155  -0.01321  0.003596  -0.5673  -0.5083
6.285e+09  -0.9109  0.4315  0.01973  -0.007074  -0.01012  0.02378  -0.748  -0.2799
6.286e+09  -0.6413  0.7248  -0.01916  -0.004162  0.05755  0.03151  -0.8075  -0.04237
6.288e+09  -0.3395  0.9318  0.02981  0.01752  0.01922  -0.005445  -0.7405  0.2445
6.289e+09  0.001198  0.9924  -0.00602  0.01402  -0.03787  0.03537  -0.6443  0.4806
6.29e+09  0.3815  0.8939  0.008015  -0.009439  -0.07209  0.01541  -0.4282  0.7019
6.291e+09  0.6313  0.736  0.03628  -0.01713  0.003503  -0.000599  -0.1474  0.7616
6.292e+09  0.8732  0.5014  -0.04187  -0.02702  0.0005501  0.002001  0.1104  0.8096
6.294e+09  1.007  0.1098  -0.02407  -0.008767  -0.03334  -0.01858  0.4059  0.7257
6.295e+09  0.9427  -0.2053  -0.01128  -0.01272  0.03685  -0.01138  0.6403  0.5603
6.296e+09  0.8257  -0.5308  0.01289  0.02476  0.0532  -0.01536  0.7484  0.2932
6.298e+09  0.6202  -0.825  0.02262  0.002505  -0.05045  -0.006315  0.8013  0.006048
6.299e+09  0.2318  -0.9948  -0.0007379  0.001717  0.01105  -0.003752  0.802  -0.2981
6.3e+09  -0.07225  -0.9536  0.007043  -0.01904  -0.03314  0.05147  0.6473  -0.5346
6.301e+09  -0.4443  -0.9189  0.03044  -0.01354  0.001364  0.03317  0.4084  -0.7006
6.302e+09  -0.6618  -0.7071  0.0001859  -0.03869  -0.01197  0.03356  0.1721  -0.7801
6.304e+09  -0.9681  -0.3631  0.004964  -0.02677  0.03748  -0.02461  -0.1746  -0.8222
6.305e+09  -0.9835  -0.05086  -0.001775  0.00294  0.001236  0.03338  -0.3907  -0.7455
6.306e+09  -0.976  0.291  -0.02608  -0.002006  -0.02458  -0.02581  -0.6541  -0.5857
6.308e+09  -0.7794  0.6898  0.01589  -0.02872  -0.02457  0.01307  -0.7916  -0.3103
6.309e+09  -0.5252  0.8333  0.01584  -0.03098  -0.03477  -0.01151  -0.8735  -0.02073
6.31e+09  -0.171  1.035  -0.008346  0.002371  0.03156  -0.01833  -0.8379  0.3066
6.311e+09  0.1636  1.022  -0.01516  0.02511  0.02682  0.002682  -0.6849  0.5429
6.312e+09  0.5171  0.8681  -0.01144  -0.004451  -0.007824  0.008623  -0.4315  0.7671
6.314e+09  0.8077  0.6964  0.02234  0.04364  -0.009431  0.01527  -0.1293  0.8448
6.315e+09  0.9724  0.3009  0.009108  -0.01239  0.01211  0.005163  0.1472  0.8489
6.316e+09  1.053  -0.108  -0.02306  0.02121  0.01196  -0.009788  0.4305  0.7657
6.318e+09  0.9307  -0.4327  0.0296  0.01115  -0.06008  0.008019  0.6573  0.5663
6.319e+09  0.7231  -0.7342  0.004753  0.02369  -0.002355  0.05699  0.8261  0.3039
6.32e+09  0.4358  -0.9329  0.01476  0.007014  0.04258  0.02132  0.8491  0.01354
6.321e+09  0.08704  -1.058  -0.008044  0.02488  -0.0366  -0.0444  0.8428  -0.2686
6.322e+09  -0.2797  -1.038  -0.01075  -0.0154  -0.03523  -0.002083  0.6822  -0.5448
6.324e+09  -0.6614  -0.8586  0.02086  -0.01143  -0.009786  -0.0453  0.459  -0.7661
6.325e+09  -0.8827  -0.5906  0.02346  0.03683  0.0001706  0.01536  0.1806  -0.8682
6.326e+09  -0.9836  -0.2391  0.007281  -0.007179  -0.0125  0.01248  -0.1241  -0.8705
6.328e+09  -1.053  0.1508  -0.004344  -0.0006188  -0.02077  -0.007693  -0.4307  -0.7899
6.329e+09  -0.9289  0.541  0.003649  0.01781  0.008599  -0.005299  -0.7012  -0.5833
6.33e+09  -0.7136  0.7759  0.0349  0.00378  -0.01956  -0.02638  -0.836  -0.3166
6.331e+09  -0.3953  1.03  -0.01941  0.02104  0.01487  0.005135  -0.8842  -0.01726
6.332e+09  0.04405  1.073  0.03454  -0.01625  -0.001018  0.057  -0.8835  0.3029
6.334e+09  0.3628  1.03  0.007666  0.005673  -0.005623  0.0317  -0.695  0.5579
6.335e+09  0.743  0.809  0.009568  0.007625  0.007883  -0.007071  -0.4993  0.8083
6.336e+09  0.9621  0.4613  -0.001975  0.0007789  -0.01898  -0.01731  -0.1746  0.9128
6.338e+09  1.103  0.1607  -0.02084  -0.004325  -0.04244  0.06016  0.156  0.9285
6.339e+09  1.059  -0.2577  0.01506  -0.008432  0.02054  0.01321  0.4016  0.8168
6.34e+09  0.9031  -0.6396  -0.01566  -0.003318  -0.009597  0.04105  0.6484  0.6498
6.341e+09  0.6709  -0.8588  -0.01246  0.01118  0.02721  -0.0374  0.873  0.3518
6.342e+09  0.3002  -1.047  -0.01023  0.006251  0.009165  -0.02532  0.9148  0.03092
6.344e+09  -0.04121  -1.09  0.001853  0.006931  -0.0219  -0.051  0.8886  -0.2921
6.345e+09  -0.4865  -0.9152  -0.003153  -0.001283  0.02207  -0.004579  0.7243  -0.5686
6.346e+09  -0.8286  -0.7466  -0.007256  0.01889  -0.0004453  -0.03266  0.5666  -0.7903
6.348e+09  -1.04  -0.3937  0.03003  0.01678  -0.01806  0.05376  0.2125  -0.9231
6.349e+09  -1.077  -0.04771  -0.01305  -0.02355  -0.05037  -0.02677  -0.1165  -0.9276
6.35e+09  -1.062  0.3747  -0.02676  -0.03263  0.0005771  0.01638  -0.4008  -0.8357
6.351e+09  -0.8799  0.6974  0.02719  0.009218  0.03693  0.01298  -0.688  -0.67
6.352e+09  -0.537  0.9822  -0.003086  0.002783  -0.02572  0.02841  -0.8575  -0.3846
6.354e+09  -0.1751  1.174  0.01786  -0.01212  -0.003334  0.01545  -0.979  -0.05814
6.355e+09  0.2417  1.097  -0.01071  -0.01683  0.03594  -0.00519  -0.9482  0.2398
6.356e+09  0.6072  1.008  -0.005713  0.02686  -0.005784  0.03109  -0.7712  0.5473
6.358e+09  0.9244  0.7619  -0.01312  0.01077  0.0183  0.02742  -0.4963  0.7743
6.359e+09  1.077  0.3166  0.01584  -0.03483  0.02438  0.004582  -0.2429  0.9281
6.36e+09  1.151  -0.03763  -0.02265  0.02698  -0.002526  -0.0125  0.07645  0.97
6.361e+09  1.054  -0.4764  -0.04104  0.01202  0.009813  -0.01387  0.3979  0.8311
6.362e+09  0.8302  -0.8472  0.004743  0.02689  -0.01739  0.005709  0.6504  0.621
6.364e+09  0.5383  -1.037  0.02237  -0.03029  -0.03367  0.02911  0.8771  0.4181
6.365e+09  0.1126  -1.203  -0.01845  0.0003127  -0.03613  0.01793  0.9475  0.0521
6.366e+09  -0.3491  -1.127  -0.05456  -0.009066  0.000709  -0.03416  0.9511  -0.2526
6.368e+09  -0.7336  -0.9396  -0.01994  -0.008558  -0.00279  0.01071  0.7851  -0.5243
6.369e+09  -1.025  -0.6524  0.005725  0.002839  -0.04941  0.005415  0.5059  -0.8175
6.37e+09  -1.157  -0.2151  0.0115  -0.04027  -0.03682  0.02104  0.2691  -0.9001
6.371e+09  -1.21  0.1867  -0.004179  0.02274  -0.03587  0.004873  -0.12  -0.9554
6.372e+09  -1.108  0.5712  -0.001225  0.02729  0.03548  0.0226  -0.4018  -0.8789
6.374e+09  -0.8817  0.9954  0.03756  -0.01628  -0.002593  -0.02609  -0.6614  -0.671
6.375e+09  -0.447  1.156  0.00572  0.02393  -0.001698  0.04141  -0.8796  -0.406
6.376e+09  -0.009325  1.333  -0.001681  -0.01075  0.01741  0.01991  -0.9309  -0.1208
6.378e+09  0.4764  1.197  0.003567  -0.01852  0.03846  -0.03342  -0.915  0.2115
6.379e+09  0.8535  0.9361  0.01177  0.003878  -0.01076  0.001885  -0.8105  0.5742
6.38e+09  1.142  0.5926  0.0225  -0.01686  0.02452  0.006315  -0.5442  0.7479
6.381e+09  1.306  0.1128  -0.002176  0.01486  0.01011  -0.0311  -0.2797  0.8701
6.382e+09  1.325  -0.2895  0.0008012  0.01166  0.006718  0.05264  0.02383  0.9319
6.384e+09  1.094  -0.7811  -0.0103  -0.001659  0.02208  -0.01735  0.3472  0.855
6.385e+09  0.7691  -1.129  0.0171  -0.04098  -0.006215  0.01377  0.6324  0.6931
6.386e+09  0.3286  -1.364  -0.01094  0.05774  0.02155  0.06368  0.8561  0.4356
6.388e+09  -0.2062  -1.399  -0.005791  -0.02254  -0.05029  -0.0394  0.9497  0.108
6.389e+09  -0.691  -1.193  -0.005686  0.04012  0.0257  0.004639  0.9001  -0.1946
6.39e+09  -1.061  -0.8386  0.00731  -0.04245  -0.02023  -0.02028  0.8114  -0.5649
6.391e+09  -1.287  -0.5473  0.01057  0.05836  0.01526  0.006859  0.5602  -0.7159
6.392e+09  -1.424  -0.094  0.004171  0.04262  0.03424  0.02435  0.2484  -0.858
6.394e+09  -1.339  0.4234  0.00797  -0.02234  0.01518  0.005464  -0.08464  -0.9861
6.395e+09  -1.123  0.9542  -0.003537  0.02274  0.03246  0.0306  -0.3503  -0.8686
6.396e+09  -0.6234  1.397  -0.05286  -0.01503  -0.06775  0.001961  -0.6414  -0.6607
6.398e+09  -0.1367  1.514  0.0102  0.0001611  0.008629  -0.02549  -0.8193  -0.429
6.399e+09  0.4397  1.428  -0.01584  -0.008017  -0.006405  0.02758  -0.8762  -0.1377
6.4e+09  0.8586  1.279  -0.01511  0.01125  0.0556  0.01354  -0.9209  0.1704
6.401e+09  1.296  0.8618  0.0005132  0.0765  0.007905  0.03393  -0.8724  0.4355
6.402e+09  1.511  0.3564  0.03916  0.02766  -0.0296  -0.04234  -0.5695  0.7066
6.404e+09  1.613  -0.2756  -0.006061  0.03947  0.02454  0.05841  -0.2645  0.8466
6.405e+09  1.377  -0.8442  0.005937  0.03936  0.01487  -0.06352  -0.004015  0.8973
6.406e+09  1.003  -1.345  0.02942  -0.06679  -0.02376  0.01791  0.3326  0.8682
6.408e+09  0.433  -1.571  -0.004361  -0.02384  0.03034  0.0113  0.6309  0.7135
6.409e+09  -0.1421  -1.644  -0.01686  0.0132  0.01078  0.04999  0.7805  0.4603
6.41e+09  -0.777  -1.544  -0.03367  -0.003196  0.002813  -0.01711  0.8741  0.1601
6.411e+09  -1.34  -1.114  -0.008184  -0.01295  0.05585  0.05736  0.875  -0.1591
6.412e+09  -1.623  -0.6149  -0.005043  -0.01349  0.02217  0.02738  0.8015  -0.4331
6.414e+09  -1.734  0.03818  -0.0001166  -0.03934  -0.0003359  0.01163  0.6056  -0.6908
6.415e+09  -1.669  0.7456  -0.005568  -0.01222  -0.01089  -0.02122  0.3614  -0.8233
6.416e+09  -1.276  1.31  -0.03832  0.01148  -0.003827  0.02999  0.02229  -0.8728
6.418e+09  -0.7055  1.675  0.008339  -0.02096  -0.05325  -0.0142  -0.2787  -0.9141
6.419e+09  -0.05824  1.857  -0.02927  0.006158  -0.02115  0.004148  -0.5631  -0.6625
6.42e+09  0.6841  1.738  0.03327  0.005218  0.02227  0.01454  -0.7552  -0.4683
6.421e+09  1.315  1.348  0.01901  -0.02371  -0.02042  -0.003538  -0.8844  -0.1878
6.422e+09  1.713  0.8216  -0.03617  0.02911  -0.04432  0.00659  -0.9269  0.1193
6.424e+09  1.864  0.1118  -0.06467  -0.05044  -0.01633  -0.005488  -0.8014  0.4115
6.425e+09  1.779  -0.5573  -0.01531  0.01813  0.005623  0.06501  -0.6255  0.607
6.426e+09  1.439  -1.258  -0.04054  0.01165  -0.04855  0.02252  -0.3507  0.8111
6.428e+09  0.8716  -1.703  0.02741  -0.0122  -0.02764  0.006568  -0.06131  0.8582
6.429e+09  0.2023  -1.826  0.01336  -0.01536  0.01672  0.03719  0.2164  0.8539
6.43e+09  -0.5599  -1.804  -0.04383  -0.01016  -0.03471  -0.04288  0.5031  0.7096
6.431e+09  -1.166  -1.455  -0.02767  0.009834  0.02463  -0.02598  0.725  0.5162
6.432e+09  -1.649  -0.8839  -0.02478  -0.001657  0.006012  0.009763  0.8798  0.2477
6.434e+09  -1.975  -0.2429  -0.04402  -0.009807  -0.01098  0.03733  0.8448  -0.09866
6.435e+09  -1.828  0.425  -0.01291  0.03348  -0.02492  -0.03679  0.7901  -0.3803
6.436e+09  -1.522  1.111  0.01133  -0.03395  -0.002967  0.01333  0.6166  -0.6087
6.438e+09  -0.9874  1.585  0.03738  -0.04075  -0.05382  -0.0204  0.3509  -0.8308
6.439e+09  -0.3379  1.836  -0.02142  -0.05012  0.04402  0.01334  0.1055  -0.8595
6.44e+09  0.3861  1.848  0.06659  0.009447  0.02156  -0.008235  -0.2356  -0.8441
6.441e+09  1.039  1.583  0.02611  0.008976  -0.04428  -0.04381  -0.4801  -0.6518
6.442e+09  1.561  1.052  0.01076  0.02363  0.023  0.003797  -0.7335  -0.4634
6.444e+09  1.804  0.3708  -0.02544  0.002602  -0.03086  -0.002821  -0.7927  -0.2295
6.445e+09  1.736  -0.3083  -0.003809  0.01659  0.01259  0.06818  -0.8447  0.09738
6.446e+09  1.51  -0.9397  0.01275  0.04489  0.01998  -0.0222  -0.766  0.3217
6.448e+09  1.125  -1.403  0.03507  -0.02105  0.03325  0.00272  -0.6154  0.6324
6.449e+09  0.4822  -1.624  -0.03044  -0.01854  0.02271  0.04276  -0.3289  0.7185
6.45e+09  -0.1895  -1.76  0.02062  0.01775  -0.02142  -0.02056  -0.1104  0.8561
6.451e+09  -0.7922  -1.61  0.05797  -0.04964  -0.01407  -0.04282  0.2216  0.8097
6.452e+09  -1.321  -1.157  -0.003148  0.007463  -0.0151  -0.007846  0.5261  0.6847
6.454e+09  -1.542  -0.6151  -0.003768  -0.03244  -0.05475  0.01106  0.7047  0.4403
6.455e+09  -1.624  0.03647  -0.01082  0.00537  0.008868  0.04212  0.7924  0.2262
6.456e+09  -1.533  0.6045  -0.009547  0.02828  0.04552  -0.06919  0.849  -0.06672
6.458e+09  -1.184  1.109  -0.01436  -0.006604  -0.002364  0.03082  0.7045  -0.3751
6.459e+09  -0.7059  1.479  -0.02315  -0.03132  -0.0159  0.001382  0.5946  -0.5647
6.46e+09  -0.1169  1.607  -0.02228  -0.04207  0.008072  0.01723  0.3436  -0.7425
6.461e+09  0.5141  1.494  0.01868  -0.0221  -0.02266  -0.003879  0.07949  -0.8173
6.462e+09  0.9241  1.224  0.02569  0.02691  -0.02219  -0.01441  -0.211  -0.8062
6.464e+09  1.342  0.8187  -0.0193  0.02296  0.02355  -0.006748  -0.4451  -0.6821
6.465e+09  1.561  0.2564  -0.01501  0.02909  0.01006  -0.03858  -0.6694  -0.5075
6.466e+09  1.521  -0.2791  -0.004917  -0.0001247  0.0006776  0.01011  -0.7874  -0.1593
6.468e+09  1.327  -0.814  -0.02823  -0.005591  0.04145  0.04976  -0.8093  0.0831
6.469e+09  0.9067  -1.156  -0.00276  0.01178  -0.04498  0.0001209  -0.7588  0.3678
6.47e+09  0.4047  -1.419  -0.01499  0.04443  0.005004  0.03688  -0.5274  0.5933
6.471e+09  -0.168  -1.455  0.01773  0.01622  -0.005075  -0.0286  -0.3157  0.7079
6.472e+09  -0.6376  -1.313  -0.02518  0.02083  0.02524  -0.004261  -0.05859  0.8074
6.474e+09  -1.039  -0.9843  -0.01674  -0.02543  0.003023  0.08559  0.1572  0.7706
6.475e+09  -1.27  -0.6167  0.003307  0.01382  -0.009337  -0.01443  0.4619  0.6435
6.476e+09  -1.473  -0.05994  -0.02257  -0.04441  -0.02311  0.01086  0.6616  0.4257
6.478e+09  -1.355  0.4368  0.001263  -0.01921  0.02139  0.04387  0.7807  0.1914
6.479e+09  -1.102  0.9064  0.03544  -0.02799  0.03563  0.009597  0.7645  -0.0578
6.48e+09  -0.7244  1.172  0.001034  -0.02379  -0.01271  0.01374  0.7348  -0.3163
6.481e+09  -0.2014  1.384  0.006941  -0.02187  0.01007  0.01652  0.5127  -0.5467
6.482e+09  0.2283  1.372  -0.01329  0.005426  0.02148  0.02515  0.3459  -0.6967
6.484e+09  0.7714  1.122  0.008504  0.002038  0.01931  0.02369  0.08213  -0.8129
6.485e+09  0.9994  0.791  0.04501  0.01668  0.01471  0.02848  -0.2251  -0.7453
6.486e+09  1.305  0.4129  -0.01082  -0.001488  0.0139  0.01515  -0.4617  -0.6352
6.488e+09  0.9732  -0.6501  -0.02378  0.008737  -0.1457  0.7139  -0.6424  -0.4541
6.489e+09  1.239  -0.563  -0.01819  0.01883  -0.01224  0.05869  -0.7744  -0.1785
6.49e+09  0.9689  -0.926  -0.0432  0.007122  0.01828  0.01889  -0.8268  0.07715
6.491e+09  0.5523  -1.246  0.01047  0.0008922  0.0215  -0.01178  -0.7036  0.2989
6.492e+09  0.1231  -1.36  0.01199  -0.009633  0.002751  -0.008688  -0.5323  0.5538
6.494e+09  -0.3388  -1.173  -0.02215  -0.00711  0.08899  -0.004619  -0.3036  0.7046
6.495e+09  -0.7298  -1.105  -0.002846  0.004792  -0.04889  0.004663  -0.03148  0.7656
6.496e+09  -1.105  -0.7416  0.03078  -0.01254  0.05121  0.05352  0.2137  0.7193
6.498e+09  -1.289  -0.3239  -0.01197  0.008601  0.0554  0.03752  0.44  0.5977
6.499e+09  -1.329  0.1954  0.03445  -0.002542  -0.05849  0.03355  0.6831  0.4294
6.5e+09  -1.728  -0.2653  -0.007729  0.007833  -0.008752  -0.01555  0.754  0.1525
6.501e+09  -0.8733  1.025  0.01116  -0.01536  -0.02194  -0.0181  0.745  -0.07291
6.502e+09  -0.5111  1.251  -0.01079  -0.01599  -0.01021  0.005514  0.6731  -0.3379
6.504e+09  -0.02883  1.337  0.005619  0.00688  0.006677  -0.03335  0.515  -0.5515
6.505e+09  0.4073  1.243  0.002812  -0.01289  -0.0243  0.004684  0.2868  -0.7418
6.506e+09  0.817  1.069  0.02722  -0.007561  -0.0149  -0.03786  0.02274  -0.7288
6.508e+09  1.142  0.6724  0.01935  -0.01509  -0.0009622  -0.005255  -0.2426  -0.7148
6.509e+09  1.282  0.2433  0.0003161  0.01206  -0.0104  -0.01813  -0.4638  -0.5737
6.51e+09  1.348  -0.237  0.03415  0.005287  0.01777  -0.01252  -0.6244  -0.3988
6.511e+09  1.139  -0.6842  -0.03236  -0.01978  -0.006908  -0.03053  -0.7613  -0.1467
6.512e+09  0.8502  -1.038  0.001342  0.02934  0.007333  -0.006656  -0.7622  0.1234
6.514e+09  0.4212  -1.301  -0.002851  -0.01409  -0.03262  0.03433  -0.6369  0.3901
6.515e+09  -0.02863  -1.39  -0.0009145  -0.01572  0.02565  -0.04539  -0.4798  0.5536
6.516e+09  -0.5643  -1.269  -0.003141  -0.009265  -0.03055  0.02951  -0.2636  0.6948
6.518e+09  -0.9234  -0.9785  -0.005224  -0.01922  -0.01917  -0.03958  0.03184  0.769
6.519e+09  -1.227  -0.6676  -0.00819  -0.01172  0.03307  -0.04218  0.275  0.7042
6.52e+09  -1.362  -0.1636  0.009928  0.01868  -0.04436  0.04122  0.511  0.5404
6.521e+09  -1.396  0.3312  0.0156  -0.04559  0.02951  0.01275  0.6718  0.3402
6.522e+09  -1.149  0.7503  -0.007307  -0.01242  0.02971  -0.05639  0.7227  0.09874
6.524e+09  -0.8329  1.109  -0.01743  -0.02867  0.01199  -0.008318  0.7135  -0.1577
6.525e+09  -0.4038  1.432  -0.02407  -0.01193  -0.002095  0.01748  0.5581  -0.4202
6.526e+09  0.2086  1.447  0.007807  0.02447  -0.0131  -0.03681  0.4288  -0.5783
6.528e+09  0.6576  1.261  0.004196  0.001441  0.02528  -0.01762  0.1962  -0.6903
6.529e+09  1.036  1.004  -0.01299  -0.005216  0.06511  -0.04558  -0.05619  -0.6844
6.53e+09  1.29  0.5888  -0.001162  0.01595  0.06084  -0.002611  -0.2903  -0.6264
6.531e+09  1.502  0.09755  0.04893  0.03098  0.005959  -0.01308  -0.4777  -0.466
6.532e+09  1.508  -0.5119  -0.002877  -0.03599  0.005237  0.003719  -0.5708  -0.321
6.534e+09  1.161  -0.9473  0.005539  -0.01412  0.01179  0.007364  -0.6297  -0.1032
6.535e+09  0.7778  -1.382  -0.005221  -0.02741  0.01508  0.0787  -0.6146  0.123
6.536e+09  0.2365  -1.5  0.02173  -0.02966  0.07331  0.01417  -0.5513  0.2833
6.538e+09  -0.3291  -1.529  0.002483  0.03746  0.03791  0.00668  -0.4586  0.4512
6.539e+09  -0.8816  -1.298  0.01101  -0.0253  0.001086  -0.02782  -0.2617  0.5894
6.54e+09  -1.178  -0.9434  0.01053  -0.01205  0.003025  0.0445  -0.0614  0.6778
6.541e+09  -1.546  -0.4334  0.0131  -0.02348  0.0183  -0.02606  0.1697  0.6843
6.542e+09  -1.656  0.1513  0.008515  -0.01946  0.0433  -0.01355  0.3919  0.5488
6.544e+09  -1.459  0.7492  -0.04531  -0.0513  -0.02785  0.02589  0.6086  0.3965
6.545e+09  -1.17  1.232  -0.0102  0.01272  -0.01735  -0.005399  0.7024  0.1602
6.546e+09  -0.6573  1.584  0.02955  -0.007067  -0.00456  0.0005414  0.6974  -0.1154
6.548e+09  -0.07766  1.729  0.04624  0.05042  0.0234  0.0276  0.6645  -0.3506
6.549e+09  0.5324  1.64  0.01015  -0.001496  0.01418  0.02052  0.5061  -0.5535
6.55e+09  1.112  1.363  -0.007482  0.009565  0.03651  -0.03989  0.2875  -0.6757
6.551e+09  1.547  0.8467  -0.04562  0.004211  0.002637  0.02437  0.006358  -0.7332
6.552e+09  1.715  0.2217  0.04783  -0.02168  0.02915  -0.07556  -0.2414  -0.7176
6.554e+09  1.75  -0.4606  -0.0004338  -0.02809  0.09566  0.004364  -0.4931  -0.5716
