# Hz S RI R 50
6.25e+09  0.3313  0.8982  -0.004834  -0.03275  0.04226  -0.01074  0.1718  0.4416
6.251e+09  0.6153  0.7864  -0.02975  0.0133  -0.004641  0.03081  0.3866  0.4082
6.252e+09  0.8344  0.425  -0.004982  0.009705  0.007729  0.03953  0.5227  0.2545
6.254e+09  0.9844  0.1249  -0.01972  0.02675  -0.001884  -0.01694  0.6139  0.02938
6.255e+09  0.9542  -0.1852  -0.01748  -0.006464  0.009742  0.01889  0.6212  -0.2395
6.256e+09  0.8405  -0.505  0.01406  0.009089  -0.0132  0.01609  0.4927  -0.4334
6.258e+09  0.5684  -0.7798  0.01261  -0.009677  -0.0109  -0.002388  0.2921  -0.6397
6.259e+09  0.2782  -0.9024  -0.007118  0.002656  0.001339  -0.017  0.04895  -0.6969
6.26e+09  -0.03324  -0.9206  0.02925  3.138e-05  0.05606  0.02826  -0.1904  -0.6899
6.261e+09  -0.3431  -0.8938  -0.01378  -0.008713  0.05079  0.009692  -0.4283  -0.5264
6.262e+09  -0.683  -0.6945  -0.001339  0.01682  0.01399  -0.044  -0.5934  -0.3326
6.264e+09  -0.8823  -0.3881  0.01266  -0.01289  -0.01104  -0.03111  -0.725  -0.08993
6.265e+09  -0.8848  -0.06045  0.01069  -0.01817  -0.01168  0.01246  -0.6806  0.1735
6.266e+09  -0.9537  0.2476  0.008986  0.007921  0.01689  -0.002631  -0.5684  0.4097
6.268e+09  -0.7022  0.5426  0.01048  0.0306  0.01427  0.03829  -0.4332  0.5986
6.269e+09  -0.5401  0.7636  0.02062  0.01628  0.01953  0.00115  -0.1947  0.6865
6.27e+09  -0.2478  0.862  0.01281  0.03101  0.003326  0.02911  0.07432  0.7402
6.271e+09  0.1311  0.9562  0.007974  0.007256  -0.03131  0.01225  0.2981  0.7007
6.272e+09  0.4326  0.8958  -0.01582  0.01369  0.01655  -0.042  0.5487  0.5138
6.274e+09  0.6759  0.6389  -0.004057  0.003267  0.04679  0.0002826  0.7055  0.3112
6.275e+09  0.8698  0.3756  -0.01292  -0.02196  0.005878  0.02656  0.7471  0.0429
6.276e+09  0.9866  0.03704  0.01045  -0.00253  0.04263  -0.04335  0.723  -0.2362
6.278e+09  0.8989  -0.2724  -0.007396  0.05175  0.07528  -0.02772  0.6094  -0.4651
6.279e+09  0.7612  -0.5418  -0.01008  0.01219  -0.01161  -0.01378  0.4357  -0.6577
6.28e+09  0.4828  -0.797  -0.03037  0.04645  0.003524  -0.00477  0.1634  -0.7259
6.281e+09  0.2133  -0.9594  -0.003322  -0.006798  -0.02709  -0.0198  -0.1218  -0.7872
6.282e+09  -0.07334  -0.9378  0.03277  -0.009337  -0.04533  0.01882  -0.342  -0.6837
6.284e+09  -0.5016  -0.8597  0.01556  -0.0318  0.01666  -0.009618  -0.6168  -0.5184
6.285e+09  -0.7054  -0.6063  -0.01584  -0.02538  0.01013  0.03284  -0.7115  -0.2864
6.286e+09  -0.8659  -0.3528  0.001974  0.03621  0.02154  0.01097  -0.78  -0.009597
6.288e+09  -0.929  -0.002779  -0.01103  0.01334  0.03846  0.008778  -0.7695  0.2431
6.289e+09  -0.8606  0.3536  0.001229  0.01109  0.02265  0.01331  -0.5862  0.5165
6.29e+09  -0.684  0.6066  -0.02199  -0.01949  0.03022  -0.03649  -0.4378  0.6782
6.291e+09  -0.4267  0.8331  -0.0214  0.01676  0.00916  -0.01061  -0.1496  0.8014
6.292e+09  -0.194  0.9523  0.01587  -0.003275  0.05997  0.006491  0.1156  0.7898
6.294e+09  0.2049  0.9113  0.002422  0.0345  0.01908  -0.03352  0.4019  0.7272
6.295e+09  0.5174  0.7749  -0.01903  -0.01077  0.04551  0.03795  0.6427  0.5341
6.296e+09  0.7691  0.5725  0.003699  0.006869  0.01607  -0.02123  0.7383  0.3028
6.298e+09  0.9395  0.2607  -0.0138  0.009958  -0.0435  -0.02909  0.8117  0.01042
6.299e+09  0.9863  -0.03922  -0.002883  -0.04949  0.01908  -0.006594  0.7606  -0.2941
6.3e+09  0.814  -0.4024  0.01549  0.02738  -0.01024  -0.01173  0.6408  -0.5139
6.301e+09  0.6972  -0.6736  -0.006402  0.01906  -0.0001313  -0.02064  0.4287  -0.7459
6.302e+09  0.4152  -0.8849  0.008603  -0.00779  -0.06263  -0.03382  0.1556  -0.8042
6.304e+09  0.07908  -0.9736  0.04073  -0.003672  -0.03895  0.03414  -0.1417  -0.8322
6.305e+09  -0.3314  -0.9617  -0.01895  -0.009019  0.001723  0.02565  -0.4346  -0.7578
6.306e+09  -0.5413  -0.8069  -0.04143  -0.01483  -0.00518  0.0007804  -0.6391  -0.5769
6.308e+09  -0.7978  -0.5513  0.007313  0.0121  0.07046  0.008365  -0.7915  -0.3169
6.309e+09  -0.9932  -0.241  -0.008731  0.02174  0.0443  -0.009841  -0.8393  -0.01711
6.31e+09  -1.004  0.1356  0.01255  0.02911  0.02034  -0.03551  -0.8418  0.2853
6.311e+09  -0.9069  0.4262  0.01691  0.01811  0.0144  0.04993  -0.6636  0.5805
6.312e+09  -0.7114  0.7234  -0.02078  0.05049  -0.06085  -0.01544  -0.454  0.7773
6.314e+09  -0.401  0.9256  0.0003223  0.006493  -0.01156  -0.03995  -0.1486  0.8572
6.315e+09  -0.02354  0.9456  -0.00833  0.009708  0.03769  0.02673  0.1496  0.8694
6.316e+09  0.3167  0.9392  0.003206  -0.01603  -0.04839  0.001298  0.4319  0.7833
6.318e+09  0.6267  0.7769  -0.01514  -0.008579  0.01711  -0.002931  0.6808  0.5773
6.319e+09  0.8918  0.5358  -0.01516  0.003005  0.01388  0.08298  0.8118  0.349
6.32e+09  1.005  0.2208  0.011  -0.01993  -0.006618  -0.005182  0.8946  0.02903
6.321e+09  0.9712  -0.1372  -0.0134  -0.01777  0.0145  -0.03229  0.8407  -0.3061
6.322e+09  0.8419  -0.4847  -0.009802  -0.0001801  0.04381  -0.0009969  0.7031  -0.5791
6.324e+09  0.6053  -0.7674  0.005205  -0.005771  0.02716  -0.01786  0.4995  -0.7928
6.325e+09  0.3398  -0.9684  0.005863  0.002055  -0.01292  0.009411  0.1531  -0.8999
6.326e+09  -0.06023  -1.018  0.008874  0.01168  -0.01783  -0.004634  -0.1453  -0.9091
6.328e+09  -0.3847  -0.9753  -0.01212  0.00201  -0.01695  -0.0003653  -0.4554  -0.7634
6.329e+09  -0.682  -0.7599  -0.0243  -0.02356  -0.007174  0.008155  -0.6824  -0.5998
6.33e+09  -0.9491  -0.5359  0.02061  -0.01229  -0.01171  -0.02641  -0.8301  -0.35
6.331e+09  -1.032  -0.1168  -0.01561  0.0102  0.01631  0.05265  -0.9087  -0.04583
6.332e+09  -1.06  0.1818  0.009215  0.009237  0.003799  -0.008542  -0.881  0.2982
6.334e+09  -0.8789  0.5602  0.009729  -0.003583  -0.04861  0.002138  -0.7392  0.5572
6.335e+09  -0.6322  0.838  -0.01585  0.02151  0.02649  -0.001557  -0.4754  0.7743
6.336e+09  -0.2644  1.026  -0.003642  0.01006  -0.05028  -0.01637  -0.1857  0.8801
6.338e+09  0.09468  1.081  -0.02412  -0.05948  0.01635  0.01483  0.1192  0.893
6.339e+09  0.4478  0.9524  0.004212  0.04378  0.02962  0.005002  0.4443  0.841
6.34e+09  0.7714  0.7723  0.01331  -0.01088  0.01885  -0.007241  0.682  0.6059
6.341e+09  1.037  0.4618  -0.007768  -0.0002884  0.002518  -0.04191  0.866  0.3423
6.342e+09  1.086  0.07322  0.005794  0.01146  -0.01999  -0.006859  0.9566  0.0874
6.344e+09  1.056  -0.3314  -0.01089  -0.04007  0.009353  0.007158  0.888  -0.2721
6.345e+09  0.8706  -0.6347  0.05604  -0.007618  0.03747  -0.003508  0.7536  -0.5533
6.346e+09  0.6385  -0.9561  -0.01935  -0.0381  0.03608  -0.0003682  0.5071  -0.7623
6.348e+09  0.2227  -1.103  0.02087  -0.001026  -0.01233  0.005006  0.2179  -0.9309
6.349e+09  -0.1362  -1.145  -0.00827  0.006205  0.03083  -0.04195  -0.1212  -0.904
6.35e+09  -0.5485  -1.019  -0.02812  -0.007231  -0.03038  -0.01393  -0.4435  -0.8609
6.351e+09  -0.8582  -0.7436  0.02016  -0.0404  -0.01807  0.001389  -0.65  -0.6636
6.352e+09  -1.099  -0.423  -0.001594  0.004296  -0.03593  0.002047  -0.8899  -0.3701
6.354e+09  -1.174  -0.07419  0.02639  0.0212  0.001145  0.000143  -0.9654  -0.08539
6.355e+09  -1.117  0.3967  -0.02468  -0.008801  0.004126  0.001854  -0.8915  0.2714
6.356e+09  -0.9245  0.8035  -0.007091  0.038  0.01031  0.02597  -0.7618  0.5332
6.358e+09  -0.5771  1.006  -0.002831  0.004466  -0.02014  -0.03014  -0.5659  0.7753
6.359e+09  -0.2204  1.129  -0.005718  0.003102  0.008418  0.01376  -0.2311  0.9222
6.36e+09  0.2351  1.153  -0.01426  -0.02213  -0.01459  0.01362  0.1223  0.9347
6.361e+09  0.6254  0.9886  -0.01267  -0.02421  0.01351  0.02112  0.4145  0.8302
6.362e+09  0.9114  0.7479  0.002339  0.01053  -0.02844  -0.0243  0.7125  0.6747
6.364e+09  1.098  0.4193  -0.01518  -0.01412  0.01193  0.0185  0.9216  0.3992
6.365e+09  1.233  -0.004554  0.009433  -0.01778  0.002879  0.002968  0.9303  0.06968
6.366e+09  1.113  -0.4414  -0.01139  -0.007392  -0.01262  -0.007178  0.9259  -0.2045
6.368e+09  0.9317  -0.824  -0.003575  -0.01768  -0.04106  -0.04553  0.7978  -0.5297
6.369e+09  0.5176  -1.058  0.02318  -0.02376  -0.02828  0.01202  0.5916  -0.7642
6.37e+09  0.1753  -1.22  0.0342  0.01952  -0.01489  -0.04895  0.2111  -0.9149
6.371e+09  -0.3194  -1.243  -0.01131  -0.008304  -0.009524  0.004199  -0.07009  -0.9823
6.372e+09  -0.6612  -1.063  -0.01991  0.0001376  0.00472  -0.00544  -0.4096  -0.8476
6.374e+09  -1.041  -0.7414  -0.001943  0.007612  0.05932  0.01346  -0.6805  -0.7118
6.375e+09  -1.302  -0.3455  -0.0122  -0.0009437  0.002497  -0.00246  -0.8379  -0.3812
6.376e+09  -1.27  0.09975  0.0006354  -0.01946  -0.01391  0.006778  -0.9793  -0.09791
6.378e+09  -1.22  0.5126  0.03102  -0.004938  0.03756  0.01219  -0.899  0.1704
6.379e+09  -0.9152  0.9707  -0.03751  0.01268  -0.0127  -0.002657  -0.8121  0.5083
6.38e+09  -0.5552  1.163  0.01268  0.02555  0.003162  -0.00143  -0.5619  0.7515
6.381e+09  -0.07372  1.279  -0.01966  0.02412  0.04479  -0.005848  -0.2514  0.8774
6.382e+09  0.3846  1.267  -0.01228  -0.02792  -0.008817  0.02054  0.04849  0.9594
6.384e+09  0.7506  1.03  0.005961  -0.03196  -0.006393  -0.005998  0.395  0.882
6.385e+09  1.148  0.7211  -0.01892  -0.006389  -0.0283  0.02962  0.619  0.6937
6.386e+09  1.325  0.2978  0.001557  0.02011  -0.02668  -0.04845  0.8555  0.4158
6.388e+09  1.375  -0.182  -0.04285  -0.004138  -0.01454  -0.008644  0.9228  0.08301
6.389e+09  1.212  -0.6276  0.01911  -0.02078  -0.02516  0.001014  0.8953  -0.2154
6.39e+09  0.9799  -1.021  0.006315  -0.02624  0.02867  0.02351  0.7622  -0.4746
6.391e+09  0.5632  -1.313  0.0006747  -0.03923  -0.004298  -0.01254  0.5538  -0.7039
6.392e+09  0.04517  -1.39  -0.008413  0.0136  -0.01473  0.03535  0.2781  -0.9013
6.394e+09  -0.4244  -1.348  0.01772  0.02478  0.007652  -0.002945  -0.04725  -0.9627
6.395e+09  -0.8769  -1.131  -0.002107  0.008332  -0.003974  0.04815  -0.3095  -0.8589
6.396e+09  -1.246  -0.7783  0.02699  -0.01181  -0.01424  5.123e-05  -0.5934  -0.7043
6.398e+09  -1.416  -0.2437  0.008889  0.01482  0.04425  0.01693  -0.7906  -0.4362
6.399e+09  -1.536  0.3065  -0.009709  -0.01116  -0.00911  0.1063  -0.8802  -0.1208
6.4e+09  -1.312  0.7085  -0.04253  -0.0004475  0.0508  -0.003926  -0.8685  0.2085
6.401e+09  -0.9739  1.182  -0.01837  -0.005901  0.01527  0.05888  -0.8022  0.4896
6.402e+09  -0.5164  1.417  -0.03154  0.009417  0.01195  -0.01689  -0.5995  0.7482
6.404e+09  0.002521  1.539  -0.0009252  0.01067  0.0008574  0.003736  -0.3047  0.8173
6.405e+09  0.5392  1.442  -0.01526  -0.02674  0.01367  -0.03166  -0.02535  0.9583
6.406e+09  1.044  1.182  0.01069  0.03291  0.06022  0.03059  0.309  0.8644
6.408e+09  1.415  0.7101  0.01242  -0.001367  0.02211  -0.01167  0.5573  0.6848
6.409e+09  1.588  0.1769  -0.01363  -0.01501  0.04496  -0.03372  0.8074  0.4877
6.41e+09  1.563  -0.3981  -0.01319  -0.02954  -0.01724  0.004649  0.8777  0.2012
6.411e+09  1.298  -0.8722  -0.02142  0.05099  -0.04308  -0.01905  0.8649  -0.08382
6.412e+09  0.9489  -1.38  -0.007995  -0.02951  -0.009241  -0.002984  0.8073  -0.4332
6.414e+09  0.435  -1.62  0.02005  -0.01049  -0.006823  -0.01229  0.5791  -0.6599
6.415e+09  -0.166  -1.666  0.02066  -0.01459  -0.02247  -0.003105  0.3621  -0.8356
6.416e+09  -0.7511  -1.5  -0.0007292  0.006294  -0.01314  -0.03955  -0.01627  -0.9334
6.418e+09  -1.257  -1.174  -0.002122  -0.02697  0.009718  0.01879  -0.2798  -0.8605
6.419e+09  -1.661  -0.722  0.0182  0.02985  -0.002179  -0.03027  -0.5414  -0.6695
6.42e+09  -1.771  -0.07157  0.01726  0.01048  -0.058  0.01144  -0.6899  -0.4538
6.421e+09  -1.74  0.5079  -0.004417  0.01066  0.01361  0.00898  -0.9  -0.1865
6.422e+09  -1.486  1.168  0.01319  -0.05571  0.003766  0.0758  -0.9061  0.06178
6.424e+09  -0.984  1.591  0.03281  -0.01544  0.03022  0.01352  -0.8009  0.3531
6.425e+09  -0.3815  1.867  -0.0152  0.002644  0.02577  -0.07798  -0.6363  0.6294
6.426e+09  0.2955  1.864  -0.00905  0.003451  -0.03809  -0.02628  -0.2918  0.8081
6.428e+09  0.9923  1.698  0.02496  -0.01261  0.01492  -0.002093  -0.07357  0.9025
6.429e+09  1.59  1.222  0.001413  -0.03779  0.03497  0.002935  0.2426  0.866
6.43e+09  1.924  0.5841  -0.007157  0.01018  -0.01054  0.03008  0.5306  0.7091
6.431e+09  2.012  -0.1028  0.02308  0.01766  -0.002426  -0.03767  0.7297  0.515
6.432e+09  1.99  -0.8102  -0.04985  -0.01564  -0.03137  -0.02011  0.804  0.2298
6.434e+09  1.513  -1.471  -0.006049  -0.04797  -0.01938  -0.02433  0.8205  -0.09067
6.435e+09  0.9402  -1.905  -0.02165  0.001638  0.05228  0.03129  0.7797  -0.3806
6.436e+09  0.2241  -2.149  -0.002591  -0.002534  -0.02261  -0.009301  0.581  -0.6596
6.438e+09  -0.5754  -2.151  -0.001944  -0.03022  0.01853  -0.04858  0.3974  -0.8004
6.439e+09  -1.366  -1.834  -0.06958  0.03412  0.02184  -0.0598  0.06338  -0.8555
6.44e+09  -1.929  -1.249  -0.01905  0.00534  -0.01046  -0.04009  -0.2838  -0.826
6.441e+09  -2.268  -0.5075  0.01466  0.01802  0.03431  -0.05137  -0.4819  -0.7271
6.442e+09  -2.255  0.3794  0.009551  -0.03359  9.95e-05  -0.03993  -0.7436  -0.4318
6.444e+09  -2.128  1.118  0.004288  0.00388  0.04861  0.03662  -0.8463  -0.2205
6.445e+09  -1.564  1.878  -0.001853  0.02223  0.04591  0.001636  -0.8208  0.1215
6.446e+09  -0.816  2.409  -0.01596  0.04094  0.001427  0.00914  -0.7881  0.3624
6.448e+09  0.05557  2.552  0.01198  0.04717  0.01062  -0.01493  -0.5963  0.617
6.449e+09  1.003  2.351  0.005577  0.02969  0.0106  -0.0007323  -0.3161  0.7838
6.45e+09  1.853  1.942  -0.04702  -0.004219  -0.05663  -0.007861  -0.0478  0.8315
6.451e+09  2.448  1.206  0.0237  0.01386  -0.01682  -0.005974  0.2626  0.7613
6.452e+09  2.748  0.2413  0.0592  0.03552  -0.08727  0.04337  0.5497  0.7268
6.454e+09  2.823  -0.6952  0.02122  -0.0002461  -0.03883  -0.007726  0.7154  0.4789
6.455e+09  2.408  -1.718  0.005797  -0.02766  -0.0614  -0.01916  0.7986  0.1925
6.456e+09  1.602  -2.511  0.005305  0.00785  0.06348  -0.05762  0.8323  -0.06311
6.458e+09  0.6324  -2.957  -0.01882  -0.0001925  -0.003032  -0.01572  0.7098  -0.364
6.459e+09  -0.5417  -3.053  0.001801  -0.04859  0.03025  0.05853  0.5941  -0.5996
6.46e+09  -1.507  -2.799  0.02702  -0.02144  0.08265  -0.03904  0.3013  -0.7531
6.461e+09  -2.537  -2.013  -0.04228  -0.04041  0.1034  0.03131  0.04651  -0.8166
6.462e+09  -3.231  -1.057  -0.009629  0.01738  0.03878  0.02472  -0.2256  -0.762
6.464e+09  -3.436  0.1064  0.03085  0.01479  0.06084  0.07269  -0.4927  -0.6252
6.465e+09  -3.301  1.416  0.009767  0.04049  -0.01064  -0.03177  -0.6608  -0.4431
6.466e+09  -2.753  2.606  0.004823  0.0069  -0.01553  0.03488  -0.8238  -0.1998
6.468e+09  -1.517  3.591  0.02741  0.01324  -0.05906  -0.02179  -0.7994  0.00826
6.469e+09  -0.3122  3.941  0.001614  -0.02256  0.01505  0.03304  -0.7157  0.3387
6.47e+09  1.186  3.826  -0.002759  0.02504  -0.04666  0.003245  -0.5905  0.5674
6.471e+09  2.786  3.242  -0.005121  -0.01188  0.02282  0.01842  -0.2996  0.7872
6.472e+09  3.866  2.251  0.000287  -0.02576  -0.005479  -0.1105  -0.06479  0.8031
6.474e+09  4.495  0.633  -0.01692  -0.01005  0.05366  -0.01747  0.1985  0.721
6.475e+09  4.685  -1.071  0.004595  -0.05875  0.05406  0.04007  0.4901  0.666
6.476e+09  4.107  -2.631  -0.003935  -0.01002  -0.0113  -0.07123  0.6171  0.4867
6.478e+09  2.796  -4.336  -0.03717  0.009873  0.1259  -0.08238  0.7704  0.2103
6.479e+09  1.081  -5.18  0.01909  -0.05005  0.1146  0.09279  0.7573  -0.06882
6.48e+09  -1.118  -5.598  0.01019  0.01943  -0.1806  0.01048  0.6956  -0.3067
6.481e+09  -3.005  -5.048  0.001994  0.005672  -0.03458  -0.04106  0.543  -0.5406
6.482e+09  -4.985  -3.583  0.01231  0.0003429  -0.1369  -0.05653  0.3227  -0.7205
6.484e+09  -6.411  -1.643  0.01173  -0.001975  0.1473  -0.09967  0.03646  -0.7676
6.485e+09  -6.82  1.171  -0.01552  0.03316  -0.0267  0.1782  -0.2523  -0.7705
6.486e+09  -6.31  3.71  0.01181  0.008901  -0.2138  -0.1613  -0.4457  -0.6358
6.488e+09  -4.888  6.852  -0.007301  -0.008268  -0.768  -0.1931  -0.5904  -0.4208
6.489e+09  -1.557  7.937  -0.006568  0.01665  0.07767  -0.05683  -0.7513  -0.1906
6.49e+09  1.897  8.511  -0.008936  -0.006335  -0.03767  -0.1592  -0.7798  0.1144
6.491e+09  5.659  7.47  0.02403  -0.01269  -0.02287  -0.144  -0.7177  0.2933
6.492e+09  8.633  4.494  -0.008109  0.02893  -0.08426  0.1445  -0.521  0.5704
6.494e+09  10.33  0.1347  -0.003558  -0.01058  -0.1624  0.07653  -0.3068  0.7003
6.495e+09  9.947  -4.371  -0.01659  0.03426  -0.05639  -0.1275  -0.04456  0.7901
6.496e+09  7.256  -8.703  -0.01186  -0.01188  -0.1136  0.1178  0.238  0.7628
6.498e+09  2.549  -11.51  0.02735  -0.02559  -0.1295  -0.1114  0.4803  0.5835
6.499e+09  -2.983  -11.64  0.01204  -0.01915  -0.1233  -0.08382  0.634  0.4684
6.5e+09  -18.26  -3.2  0.005329  -0.005353  0.2364  0.07026  0.7721  0.1812
6.501e+09  -11.24  -4.024  -0.01371  -0.03062  -0.102  0.2355  0.7443  -0.09558
6.502e+09  -11.48  1.73  0.01698  -0.01123  0.008821  0.06589  0.6636  -0.3384
6.504e+09  -9.557  6.306  -0.06327  0.01082  0.1897  -0.09122  0.5201  -0.5862
6.505e+09  -5.348  9.324  -0.03368  0.0219  0.07002  -0.003857  0.2815  -0.6513
6.506e+09  -0.7028  10.23  -0.002813  0.008596  -0.02841  -0.07567  0.008652  -0.7488
6.508e+09  3.487  9.127  0.02273  0.01572  -0.1321  0.1504  -0.2495  -0.7304
6.509e+09  6.659  6.239  -0.0007109  -0.01423  -0.03946  0.04976  -0.4713  -0.586
6.51e+09  8.19  2.876  0.006657  0.0005072  -0.09681  0.07238  -0.6358  -0.3653
6.511e+09  8.058  -0.6561  0.005711  0.01413  -0.03686  -0.06354  -0.722  -0.1486
6.512e+09  6.744  -3.614  -0.01343  0.01175  -0.09574  -0.04994  -0.7694  0.1224
6.514e+09  4.507  -5.622  0.01664  -0.01456  0.04292  0.03717  -0.6664  0.3553
6.515e+09  1.869  -6.471  0.02369  -0.02841  -0.08345  0.00872  -0.491  0.5716
6.516e+09  -0.6815  -6.441  0.002813  -0.03849  0.01232  0.1434  -0.2247  0.7598
6.518e+09  -2.938  -5.415  0.02082  -0.03255  -0.0212  -0.04126  -0.03207  0.7615
6.519e+09  -4.526  -3.656  -0.01909  0.002077  -0.005244  0.08122  0.2644  0.7109
6.52e+09  -5.314  -1.683  -0.001646  -0.01388  -0.03545  0.07328  0.4899  0.5583
6.521e+09  -5.134  0.4078  -0.033  -0.02133  0.008854  -0.01834  0.6165  0.3536
6.522e+09  -4.525  2.148  -0.004513  0.01178  -0.02117  -0.08096  0.7195  0.09273
6.524e+09  -3.199  3.519  -0.01943  0.00181  0.05777  -0.02393  0.6925  -0.1685
6.525e+09  -1.695  4.2  -0.002348  -0.01422  -0.003101  0.01973  0.5994  -0.4426
6.526e+09  0.011  4.423  -0.0429  0.009351  0.03548  0.06043  0.4387  -0.5878
6.528e+09  1.542  3.992  -0.00389  -0.04143  0.04809  0.0118  0.1855  -0.685
6.529e+09  2.73  3.02  0.01406  0.02827  -0.08483  0.05707  -0.04664  -0.7107
6.53e+09  3.543  1.71  0.002223  -0.008815  0.04674  -0.07201  -0.321  -0.6755
6.531e+09  3.815  0.3318  -0.01188  -0.004885  0.02579  -0.004097  -0.4577  -0.4646
6.532e+09  3.557  -0.9706  0.01007  -0.006665  0.09315  0.0003032  -0.5817  -0.291
6.534e+09  2.889  -2.098  0.005977  -0.009408  -0.02731  -0.00447  -0.6445  -0.0884
6.535e+09  1.8  -2.985  0.03164  -0.004552  0.01056  -0.06325  -0.649  0.1231
6.536e+09  0.5582  -3.315  -0.01324  -0.01443  -0.05066  -0.001068  -0.581  0.3041
6.538e+09  -0.5901  -3.175  -0.02756  -0.01392  0.04447  0.03537  -0.461  0.4783
6.539e+09  -1.599  -2.714  -0.01853  -0.02325  -0.01369  0.02625  -0.2726  0.5773
6.54e+09  -2.368  -1.921  0.02086  -0.0007281  0.01257  -0.006432  -0.0827  0.6971
6.541e+09  -2.851  -0.8954  -0.0242  0.01133  0.03275  0.02887  0.1936  0.6669
6.542e+09  -2.916  0.1472  0.007124  0.02013  0.03356  -0.008978  0.4413  0.5728
6.544e+09  -2.608  1.172  0.04838  -0.02638  0.03958  -0.01879  0.5952  0.4173
6.545e+09  -2.033  2.017  -0.008601  -0.01053  0.03813  -0.01974  0.7022  0.1848
6.546e+09  -1.057  2.457  -0.009779  -0.02454  -0.001727  -0.01127  0.6886  -0.07657
6.548e+09  -0.1766  2.653  0.009205  0.0191  -0.04104  0.007854  0.6646  -0.3374
6.549e+09  0.7803  2.576  -0.01812  0.01497  0.01298  -0.02906  0.5248  -0.5459
6.55e+09  1.644  2.054  -0.03401  0.01189  0.0419  -0.01697  0.2423  -0.6424
6.551e+09  2.093  1.258  -0.00137  0.02832  0.04277  0.004772  0.0384  -0.7583
6.552e+09  2.371  0.4207  -0.01597  0.006576  0.02094  -0.07883  -0.2079  -0.6951
6.554e+09  2.363  -0.4304  -0.002991  0.03656  0.01264  -0.05595  -0.4575  -0.578
