# Hz S RI R 50
6.25e+09  0.02773  0.9324  -0.0383  -0.01347  -0.005333  -0.02832  0.1648  0.4823
6.251e+09  0.3296  0.8613  -0.005927  -0.01781  -0.01172  -0.02517  0.36  0.3733
6.252e+09  0.592  0.738  -0.01421  0.02689  0.08768  0.01496  0.5877  0.2747
6.254e+09  0.7956  0.3888  0.006269  -0.0002019  0.04648  -0.05567  0.6154  0.006599
6.255e+09  0.9244  0.1482  0.02416  0.02635  -0.02658  0.0108  0.6078  -0.2048
6.256e+09  0.919  -0.2325  0.005805  -0.01679  -0.02739  0.007081  0.4961  -0.4598
6.258e+09  0.7871  -0.501  -0.0008571  -0.004516  0.01424  0.01319  0.3133  -0.5895
6.259e+09  0.5923  -0.7434  -0.01843  -0.0178  -0.04061  -0.02279  0.03544  -0.6759
6.26e+09  0.306  -0.8851  0.01486  0.02472  -0.004095  -0.0003487  -0.2206  -0.6634
6.261e+09  -0.01802  -0.9147  0.02746  -0.02309  -0.0083  -0.01793  -0.4562  -0.5312
6.262e+09  -0.3331  -0.8948  -0.01096  -0.01568  0.004647  -0.01251  -0.6351  -0.3199
6.264e+09  -0.6013  -0.6531  -0.00647  0.001284  0.003918  -0.005069  -0.719  -0.08517
6.265e+09  -0.841  -0.3764  -0.01518  0.0447  0.01269  -0.02023  -0.714  0.1843
6.266e+09  -0.9055  -0.0708  -0.001211  -0.023  0.009795  0.02259  -0.6102  0.398
6.268e+09  -0.9085  0.231  0.01629  -0.02466  -0.01049  -0.00353  -0.43  0.6246
6.269e+09  -0.7147  0.5342  -0.016  -0.002907  -0.01652  0.07188  -0.1864  0.7139
6.27e+09  -0.5484  0.7611  -0.004222  -0.01706  0.00277  -0.01093  0.06188  0.7197
6.271e+09  -0.2331  0.9062  0.008873  0.0125  0.02068  0.002151  0.3005  0.6721
6.272e+09  0.0654  0.84  -0.007423  -0.01381  0.05443  -0.03582  0.5354  0.5216
6.274e+09  0.4002  0.8363  0.009079  -0.004599  0.01949  0.0186  0.7148  0.2846
6.275e+09  0.638  0.6357  0.003588  0.01981  -0.0131  0.0282  0.7392  0.02191
6.276e+09  0.8437  0.4264  0.02373  -0.002997  0.02204  0.0217  0.708  -0.1675
6.278e+09  0.9042  0.1258  -0.02298  0.01845  0.0238  0.02024  0.6144  -0.4964
6.279e+09  0.8621  -0.2162  -0.01068  0.01045  0.0274  -0.0442  0.4469  -0.6515
6.28e+09  0.7577  -0.5438  0.02571  4.29e-06  0.09114  -0.005521  0.1997  -0.759
6.281e+09  0.5242  -0.7684  0.000287  0.006463  -0.02262  0.01273  -0.1304  -0.7689
6.282e+09  0.2409  -0.8774  -0.01463  0.004049  -0.03478  0.02857  -0.361  -0.6711
6.284e+09  -0.0717  -0.9183  0.01675  0.01566  -0.0387  -0.01079  -0.5931  -0.5398
6.285e+09  -0.4976  -0.7896  0.001703  0.008883  0.02221  0.002605  -0.7147  -0.3205
6.286e+09  -0.7082  -0.6269  -0.001059  0.0003379  -0.01824  0.03652  -0.7963  -0.06675
6.288e+09  -0.7982  -0.3419  0.002768  0.01166  -0.00342  -0.0202  -0.759  0.2677
6.289e+09  -0.9115  -0.02988  0.009577  -0.01138  -0.009306  0.01605  -0.6225  0.4927
6.29e+09  -0.8859  0.28  0.0111  0.01079  0.02145  -0.0806  -0.4046  0.6791
6.291e+09  -0.7547  0.5574  0.01238  -0.01443  0.02288  0.04239  -0.1196  0.76
6.292e+09  -0.4678  0.795  -0.01095  0.01239  0.05631  -0.01981  0.1128  0.7833
6.294e+09  -0.2134  0.8895  0.0008433  0.02202  -0.03371  -0.0218  0.4092  0.7065
6.295e+09  0.1618  0.9189  -0.02093  -0.02193  0.0134  -0.03878  0.6401  0.5132
6.296e+09  0.4406  0.8281  -0.00153  0.02378  -0.005661  0.0558  0.8009  0.2866
6.298e+09  0.7243  0.6608  -0.01501  0.004857  0.03586  0.002702  0.8436  0.009994
6.299e+09  0.8761  0.3009  -0.0008606  0.009998  0.03342  0.01318  0.7937  -0.2762
6.3e+09  0.9645  0.01331  0.01179  0.0008743  0.008327  -0.02398  0.6297  -0.5425
6.301e+09  0.9137  -0.3721  -0.01266  -0.007159  -0.05587  -0.05694  0.4275  -0.7227
6.302e+09  0.6797  -0.6044  -0.00724  -0.002853  0.007922  0.005954  0.1247  -0.8696
6.304e+09  0.4413  -0.8328  -0.0003836  -0.01775  0.01724  0.008937  -0.1411  -0.8072
6.305e+09  0.09461  -0.9241  -0.01087  -0.01329  0.0211  -0.03588  -0.4378  -0.756
6.306e+09  -0.24  -0.9503  -0.02162  -0.03895  0.03185  0.01769  -0.6357  -0.5376
6.308e+09  -0.5115  -0.7916  -0.01083  0.05319  0.01391  -0.002624  -0.8104  -0.293
6.309e+09  -0.779  -0.5672  -0.01117  -0.007182  -0.03028  0.01402  -0.8623  -0.006931
6.31e+09  -0.9142  -0.2554  0.004082  -0.01133  -0.01517  0.02439  -0.8441  0.2804
6.311e+09  -0.9919  0.04861  0.01018  -0.02573  -0.02533  -0.01441  -0.6749  0.5569
6.312e+09  -0.9295  0.3785  0.01715  -0.001575  -0.02715  0.004157  -0.4557  0.7549
6.314e+09  -0.7279  0.7071  -0.009485  -0.01425  -0.009143  0.02577  -0.1845  0.8769
6.315e+09  -0.4623  0.927  0.01282  0.005542  -0.001608  -0.0003953  0.1428  0.8468
6.316e+09  -0.09144  0.9877  -0.01494  -0.008975  -0.02167  0.01409  0.4224  0.764
6.318e+09  0.2079  1.002  0.01188  0.01087  0.03125  0.02126  0.6782  0.525
6.319e+09  0.6222  0.8618  0.0183  0.002521  -0.01421  -0.02515  0.8291  0.2867
6.32e+09  0.812  0.5747  -0.01618  -0.008605  -0.05231  0.003295  0.8957  0.03955
6.321e+09  1.006  0.2388  0.009361  0.03855  0.01903  0.02767  0.844  -0.2751
6.322e+09  1.034  -0.1719  0.01976  -0.003594  -0.0003974  -0.02096  0.6915  -0.5789
6.324e+09  0.9042  -0.495  -0.01699  -0.0002245  -0.02449  0.02693  0.4904  -0.7829
6.325e+09  0.6784  -0.7777  0.004337  0.01448  -0.06122  0.01873  0.1619  -0.8317
6.326e+09  0.3857  -0.9532  -0.012  -0.001815  0.04336  0.01121  -0.1412  -0.8981
6.328e+09  0.01658  -1.128  0.03551  0.001094  -0.01269  -0.02723  -0.4465  -0.7923
6.329e+09  -0.3961  -0.9633  0.007292  0.004844  -0.009953  0.02389  -0.7142  -0.5945
6.33e+09  -0.7123  -0.7642  0.003227  0.02849  0.07897  0.02918  -0.8598  -0.3116
6.331e+09  -0.9392  -0.5182  -0.04098  0.003407  0.033  -0.02039  -0.9332  -0.03885
6.332e+09  -1.027  -0.1693  0.02394  -0.01291  0.02818  0.00967  -0.8553  0.2798
6.334e+09  -1.045  0.2176  -0.02464  0.013  0.02427  -0.009827  -0.7598  0.5536
6.335e+09  -0.9142  0.6024  -0.009567  -0.0048  0.01034  -0.02551  -0.5094  0.7703
6.336e+09  -0.6108  0.8681  0.009219  -0.04566  0.01128  0.002749  -0.1716  0.8818
6.338e+09  -0.2991  1.058  -0.02319  0.003541  -0.005576  -0.007022  0.1251  0.8975
6.339e+09  0.1093  1.079  -0.01642  0.0005419  0.004278  -0.02629  0.4676  0.8049
6.34e+09  0.5223  1.019  -0.02483  0.01069  0.05321  -0.01441  0.7351  0.6226
6.341e+09  0.808  0.7873  -0.003858  0.003515  -0.02224  0.0135  0.8577  0.3481
6.342e+09  1.035  0.443  -0.006994  -0.03238  0.04389  -0.01343  0.9284  0.01344
6.344e+09  1.116  0.07301  -0.02803  -0.008195  -0.0288  0.0006542  0.8802  -0.26
6.345e+09  1.078  -0.3409  -0.01323  -0.02995  0.02924  0.001875  0.7247  -0.5784
6.346e+09  0.8417  -0.7042  -0.01838  -0.01084  -0.007081  0.01258  0.5115  -0.7827
6.348e+09  0.645  -0.9998  0.02252  0.01618  -0.0008267  0.01752  0.1985  -0.9329
6.349e+09  0.1784  -1.098  0.009767  -0.00506  0.04038  -0.006292  -0.09654  -0.9369
6.35e+09  -0.2415  -1.098  0.02871  0.02065  0.03439  -0.01766  -0.4231  -0.839
6.351e+09  -0.6033  -0.9329  0.03889  -0.03146  0.007652  -0.03088  -0.752  -0.6807
6.352e+09  -0.8906  -0.7006  -0.03919  0.001219  -0.04673  -0.01193  -0.8837  -0.3929
6.354e+09  -1.073  -0.3391  0.05113  0.01814  0.01749  0.02951  -0.9351  -0.06474
6.355e+09  -1.139  0.07293  0.03789  0.02195  -0.01408  0.01111  -0.8874  0.2719
6.356e+09  -1.026  0.4742  -0.03184  0.01852  0.05622  -0.01041  -0.7521  0.6075
6.358e+09  -0.8283  0.8128  0.03332  -0.01332  -0.01098  0.05427  -0.5495  0.8007
6.359e+09  -0.5123  1.054  0.01675  0.004952  0.01461  -0.0007178  -0.2427  0.9096
6.36e+09  -0.08123  1.184  -0.02385  0.02171  -0.0125  -0.01201  0.1263  0.9555
6.361e+09  0.369  1.078  0.01994  0.01553  0.0315  -0.04469  0.4513  0.875
6.362e+09  0.7031  0.8781  -0.02373  0.00659  -0.01441  -0.003971  0.6659  0.6584
6.364e+09  0.9647  0.6226  0.01008  -0.03482  0.009339  -0.0155  0.8294  0.3949
6.365e+09  1.142  0.2478  -0.01782  0.003146  -0.03473  -0.01015  0.9293  0.08359
6.366e+09  1.131  -0.1909  0.06018  -0.006613  -0.01063  -0.004172  0.9061  -0.2592
6.368e+09  0.9592  -0.5831  -0.02725  0.02183  0.01787  0.0006889  0.7684  -0.5815
6.369e+09  0.7394  -0.8737  0.005911  -0.009535  0.0248  -0.01973  0.5415  -0.7786
6.37e+09  0.4033  -1.054  -0.007769  -0.006214  0.04101  0.05476  0.242  -0.9148
6.371e+09  -0.03535  -1.144  0.02596  -0.01725  0.0167  -0.004996  -0.1496  -0.9489
6.372e+09  -0.4272  -1.056  0.02209  -0.0269  0.002509  0.005124  -0.363  -0.877
6.374e+09  -0.8425  -0.8233  0.007299  0.02097  -0.01859  -0.045  -0.6651  -0.6777
6.375e+09  -1.034  -0.5056  0.02457  -0.0284  -0.013  -0.05489  -0.831  -0.3648
6.376e+09  -1.136  -0.112  -0.02706  -0.007597  0.005946  0.01877  -0.9417  -0.05043
6.378e+09  -1.081  0.2517  0.009176  -0.005024  -0.009765  -0.01221  -0.9425  0.2215
6.379e+09  -0.9495  0.6565  -0.01556  0.0005927  -0.02944  0.02979  -0.754  0.5367
6.38e+09  -0.6411  0.9387  -0.03114  -0.03048  0.0491  0.0008652  -0.5644  0.7963
6.381e+09  -0.3196  1.098  -0.007186  0.003297  -0.003612  -0.03028  -0.2681  0.8827
6.382e+09  0.1354  1.089  9.463e-06  0.007855  -0.02741  -0.001574  0.07166  0.9553
6.384e+09  0.5127  1.009  -0.03498  0.00321  -0.01938  -0.01624  0.3424  0.8458
6.385e+09  0.7703  0.8016  0.03085  0.003413  0.0205  0.01271  0.6532  0.7417
6.386e+09  1.039  0.4789  -0.03367  0.0285  0.06502  0.03312  0.8057  0.3829
6.388e+09  1.147  0.05041  -0.02623  0.03854  -0.03078  0.006419  0.8956  0.1314
6.389e+09  1.024  -0.3299  0.05779  -0.001525  -0.0319  -0.0124  0.8965  -0.1703
6.39e+09  0.8842  -0.6993  -0.01773  0.0254  0.03233  -0.02214  0.8227  -0.5001
6.391e+09  0.5619  -0.9636  0.00771  0.01499  -0.002427  -0.03508  0.5745  -0.7182
6.392e+09  0.2184  -1.094  -0.04316  -0.009109  0.004264  -0.0312  0.2627  -0.8956
6.394e+09  -0.1432  -1.087  0.01879  0.009553  -0.04506  0.01396  -0.01148  -0.9141
6.395e+09  -0.5508  -0.9741  0.01649  0.001368  0.004695  -0.02151  -0.3196  -0.8595
6.396e+09  -0.8732  -0.6996  -0.01756  -0.03358  -0.04331  0.0001338  -0.5974  -0.7039
6.398e+09  -1.02  -0.3569  0.004787  -0.05373  0.009387  -0.007168  -0.8051  -0.4205
6.399e+09  -1.095  0.01002  -0.06057  0.00247  0.02619  0.01207  -0.9631  -0.1818
6.4e+09  -1.064  0.3929  0.005693  0.01388  0.0168  0.0008157  -0.9243  0.1518
6.401e+09  -0.7755  0.6645  0.002633  0.04647  0.01137  -0.004666  -0.7722  0.4521
6.402e+09  -0.5414  0.927  0.005207  -0.03721  -0.0219  0.02785  -0.6071  0.7663
6.404e+09  -0.2154  1.068  -0.00761  -0.00955  0.005691  0.02759  -0.3134  0.8777
6.405e+09  0.2159  1.101  0.03665  0.03635  -0.0006037  -0.02117  0.01669  0.9228
6.406e+09  0.4988  0.9423  -0.01073  -0.03245  -0.0203  0.01264  0.3484  0.9191
6.408e+09  0.7953  0.6609  0.06788  0.04741  -0.01623  0.02236  0.5577  0.709
6.409e+09  0.978  0.3718  0.07639  -0.0004229  0.02456  0.006404  0.7748  0.44
6.41e+09  1.076  -0.04515  0.04443  0.005683  -0.009782  0.01767  0.8809  0.1703
6.411e+09  0.9954  -0.3632  -0.03133  0.004836  0.05861  -0.01629  0.9  -0.1161
6.412e+09  0.7927  -0.6713  -0.02377  0.02976  -0.02439  -0.01683  0.8043  -0.4109
6.414e+09  0.4967  -0.9461  0.006838  0.002165  0.03333  0.01727  0.6003  -0.6751
6.415e+09  0.1322  -1.094  -0.00653  -0.03671  -0.02222  0.02691  0.3275  -0.8865
6.416e+09  -0.2366  -1.086  -0.02592  0.02288  -0.01015  -0.03469  0.01578  -0.8924
6.418e+09  -0.554  -0.936  0.01679  0.03604  0.0003196  -0.01794  -0.3034  -0.8831
6.419e+09  -0.8512  -0.6024  -0.01859  0.03787  0.04675  -0.02851  -0.5577  -0.6988
6.42e+09  -1.064  -0.3153  -0.03698  0.01472  -0.001841  -0.004243  -0.6938  -0.4715
6.421e+09  -1.078  0.06171  0.0291  0.02918  -0.007869  0.06284  -0.8844  -0.2288
6.422e+09  -0.9966  0.387  -0.007365  0.01347  -0.03747  -0.02441  -0.8467  0.1309
6.424e+09  -0.748  0.7806  -0.01734  0.01158  0.008784  -0.009694  -0.768  0.4124
6.425e+09  -0.4607  1.002  -0.01737  0.009891  -0.0732  -0.01272  -0.5713  0.6435
6.426e+09  -0.07939  1.066  0.03349  -0.007896  -0.02164  0.04681  -0.3272  0.8409
6.428e+09  0.273  1.093  -0.01629  -0.02366  0.01452  -0.02551  -0.05856  0.9119
6.429e+09  0.6978  0.8885  -0.002709  -0.005639  -0.03124  0.02949  0.289  0.844
6.43e+09  0.9208  0.5926  -0.006277  -0.07173  -0.05489  -0.006576  0.5138  0.7363
6.431e+09  1.063  0.2751  -0.02345  0.04362  0.01382  0.02367  0.753  0.4669
6.432e+09  1.074  -0.09092  -0.02277  -0.04274  0.009858  0.008937  0.8834  0.1552
6.434e+09  1.013  -0.5047  -0.03717  -0.03248  -0.04663  -0.01118  0.8915  -0.08299
6.435e+09  0.7529  -0.779  0.02399  0.009167  -0.005187  -0.05786  0.7783  -0.3731
6.436e+09  0.4196  -1.029  -0.05184  0.02067  -0.02503  0.009009  0.592  -0.6365
6.438e+09  0.01854  -1.15  -0.02391  -0.01659  -0.01618  -0.02254  0.3369  -0.8198
6.439e+09  -0.358  -1.057  -0.01888  -0.01439  -0.04043  0.002659  0.03542  -0.8799
6.44e+09  -0.6898  -0.8471  0.02733  0.02799  -0.0002858  0.009043  -0.2903  -0.7938
6.441e+09  -0.9277  -0.6123  -0.005546  0.006977  -0.07733  -0.0001598  -0.4528  -0.6627
6.442e+09  -1.154  -0.2223  0.02102  -0.03621  -0.007934  0.008262  -0.7183  -0.437
6.444e+09  -1.122  0.1672  0.03944  0.002898  -0.005286  0.009243  -0.8214  -0.2051
6.445e+09  -0.9693  0.5298  -0.07278  -0.001994  0.03229  0.06092  -0.8273  0.08552
6.446e+09  -0.6737  0.9004  -0.001278  -0.03043  0.04391  -0.04492  -0.7765  0.3773
6.448e+09  -0.3732  1.09  0.03926  0.006551  -0.0329  0.007946  -0.598  0.6077
6.449e+09  0.01254  1.162  -0.02042  -0.001709  0.01037  -0.01762  -0.3227  0.7707
6.45e+09  0.44  1.064  -0.01388  0.01826  -0.01686  -0.01594  -0.0376  0.8196
6.451e+09  0.7611  0.8561  0.01748  -0.005912  -0.01246  0.01398  0.2387  0.797
6.452e+09  1.042  0.5726  -0.04777  -0.005696  -0.01588  -0.0006311  0.4673  0.6539
6.454e+09  1.159  0.2042  -0.02036  -0.04019  0.04671  -0.0003767  0.7249  0.4107
6.455e+09  1.142  -0.3033  -0.008405  -0.03093  -0.006994  0.01555  0.8093  0.2039
6.456e+09  0.958  -0.6322  -0.04387  -0.01624  0.01815  0.0009586  0.8244  -0.1075
6.458e+09  0.6391  -0.9446  0.01141  -0.05052  0.015  -0.05065  0.7697  -0.3398
6.459e+09  0.3186  -1.11  -0.02603  -0.01002  -0.05276  0.02935  0.6186  -0.5911
6.46e+09  -0.06358  -1.187  -0.01786  0.009398  -0.01289  -0.003276  0.3339  -0.738
6.461e+09  -0.5178  -1.065  0.007901  0.01391  0.01008  0.02165  0.07825  -0.8049
6.462e+09  -0.8251  -0.8371  0.05443  -0.02753  -0.004814  0.0006645  -0.1954  -0.751
6.464e+09  -1.119  -0.4317  -0.01309  0.05515  -0.007513  -0.03074  -0.4536  -0.6582
6.465e+09  -1.193  -0.03576  0.01592  0.0556  -0.06185  -0.0162  -0.6392  -0.4685
6.466e+09  -1.138  0.4601  0.01844  0.02689  0.01856  0.03705  -0.7785  -0.2307
6.468e+09  -0.9008  0.7745  -0.0117  -0.00296  0.01336  -0.06784  -0.7786  0.09083
6.469e+09  -0.6037  1.079  0.009247  0.03413  -0.0152  -0.05189  -0.7205  0.3645
6.47e+09  -0.1782  1.218  -0.01254  -0.0111  -0.04322  0.01316  -0.5606  0.5544
6.471e+09  0.2547  1.209  0.01218  -0.02024  -0.001737  -0.04653  -0.3628  0.7001
6.472e+09  0.6427  1.086  -0.007526  -0.01453  -0.002814  -0.001605  -0.09563  0.795
6.474e+09  1.033  0.8183  0.005733  0.01424  -0.007644  -0.01096  0.163  0.7876
6.475e+09  1.245  0.3746  0.03033  0.01837  0.01489  0.01294  0.4767  0.6627
6.476e+09  1.227  -0.08484  0.009359  0.03579  0.03015  -0.02796  0.6314  0.4247
6.478e+09  1.186  -0.6106  -0.01315  0.01928  0.03879  0.008005  0.7656  0.1723
6.479e+09  0.8361  -0.9576  0.01783  -0.003582  -0.01344  0.04044  0.788  -0.0844
6.48e+09  0.4978  -1.165  0.01273  0.01484  -0.05775  0.01871  0.7211  -0.3368
6.481e+09  0.01315  -1.307  0.004881  -0.02921  -0.0337  0.02599  0.5848  -0.6119
6.482e+09  -0.4484  -1.246  0.00012  -0.006031  -0.01894  -0.03042  0.2591  -0.701
6.484e+09  -0.8633  -0.9223  -0.008631  -0.04578  0.02894  -0.01791  0.07051  -0.7987
6.485e+09  -1.121  -0.5987  -0.07435  0.04708  -0.07998  0.03593  -0.2275  -0.7255
6.486e+09  -1.333  -0.1411  0.00881  0.007473  -0.03114  -0.01579  -0.4517  -0.6071
6.488e+09  -1.667  0.944  -0.03217  0.003759  -0.1828  -0.7163  -0.6449  -0.4117
6.489e+09  -1.115  0.7169  0.05088  -0.002708  0.005762  -0.02956  -0.7644  -0.184
6.49e+09  -0.7167  1.102  0.01466  0.02632  0.007872  0.02939  -0.762  0.05802
6.491e+09  -0.2991  1.303  0.02946  0.008707  -0.0003856  0.007446  -0.6874  0.3616
6.492e+09  0.1944  1.327  -0.01129  0.001225  -0.006596  -0.02295  -0.5283  0.5769
6.494e+09  0.7277  1.081  0.01695  -0.02105  0.08685  0.07774  -0.278  0.6809
6.495e+09  1.001  0.8349  -0.006541  -0.01575  0.04892  -0.02006  -0.04942  0.8071
6.496e+09  1.233  0.3929  -0.02774  -0.0108  0.02346  -0.01881  0.2168  0.7537
6.498e+09  1.283  -0.01976  -0.01691  -0.01091  -0.01314  0.03081  0.4602  0.6165
6.499e+09  1.265  -0.5426  0.0147  -0.0005826  -0.001057  0.01779  0.654  0.3972
6.5e+09  1.747  -0.8175  0.008373  -0.03746  0.005213  -0.06516  0.759  0.1342
6.501e+09  0.5363  -1.172  0.0151  -0.01768  0.02203  0.003649  0.7707  -0.1041
6.502e+09  0.03778  -1.264  0.01787  -0.01182  0.005864  -0.02806  0.7007  -0.3278
6.504e+09  -0.4705  -1.237  0.01672  -0.005882  -0.04248  0.006798  0.541  -0.5615
6.505e+09  -0.8278  -0.9405  -0.003208  0.03815  0.05675  0.001968  0.298  -0.6792
6.506e+09  -1.101  -0.6055  -0.02678  0.05878  -0.009757  -0.004594  0.03562  -0.7815
6.508e+09  -1.283  -0.1814  -0.03561  -0.01291  0.01897  -0.0277  -0.2264  -0.7142
6.509e+09  -1.216  0.285  -0.03767  -0.05359  0.05052  -0.04347  -0.5434  -0.5791
6.51e+09  -1.018  0.7298  -0.01584  0.004808  0.03577  0.03254  -0.6879  -0.4046
6.511e+09  -0.6804  1.053  -0.006867  -0.02809  0.001383  -0.009694  -0.7485  -0.14
6.512e+09  -0.313  1.208  0.006369  -0.002857  -0.02355  0.008  -0.7384  0.1607
6.514e+09  0.1901  1.245  -0.008315  -0.01331  0.02073  0.001807  -0.6323  0.3725
6.515e+09  0.5866  1.065  0.002433  0.008073  0.04691  -0.02097  -0.4312  0.5744
6.516e+09  0.9769  0.8399  -0.006822  0.0419  -0.007656  -0.009904  -0.2417  0.703
6.518e+09  1.144  0.3531  -0.01951  0.0007885  -0.0198  -0.04298  0.03474  0.7261
6.519e+09  1.206  -0.06827  -0.01104  -0.01018  -0.02008  0.01246  0.2459  0.6886
6.52e+09  1.104  -0.5051  0.009283  -0.03423  0.03791  -0.0703  0.4901  0.522
6.521e+09  0.8077  -0.8881  -0.03748  -0.01953  0.01946  -0.06695  0.6381  0.3507
6.522e+09  0.4925  -1.071  -0.03316  -0.01076  -0.03179  0.01593  0.7437  0.08957
6.524e+09  0.08542  -1.163  -0.005344  0.008226  -0.02661  0.01126  0.7028  -0.146
6.525e+09  -0.3459  -1.109  0.004689  -0.01178  -0.01194  0.04254  0.6534  -0.4064
6.526e+09  -0.7194  -0.9289  -0.03631  0.005496  0.03015  -0.01037  0.4543  -0.5826
6.528e+09  -1.019  -0.5829  -0.02031  -0.02365  -0.002858  -0.006986  0.2012  -0.6921
6.529e+09  -1.136  -0.1926  0.018  0.01761  0.02112  0.005173  -0.07073  -0.6808
6.53e+09  -1.086  0.221  -0.0146  -0.006573  -0.009625  0.06383  -0.2638  -0.6248
6.531e+09  -0.9407  0.6499  -0.02097  0.01892  -0.006585  -0.03846  -0.4894  -0.4751
6.532e+09  -0.6654  0.8689  0.02135  0.03277  -0.04322  0.0132  -0.6146  -0.2936
6.534e+09  -0.3472  1.095  -0.008767  0.02361  0.01574  0.0008652  -0.6398  -0.1065
6.535e+09  0.1215  1.063  -0.01792  0.006308  0.01795  -0.01391  -0.5668  0.1337
6.536e+09  0.5212  0.9917  0.02026  -0.05486  0.04566  0.007307  -0.5461  0.3388
6.538e+09  0.76  0.7127  -0.01921  -0.0156  -0.05527  -0.04092  -0.4678  0.488
6.539e+09  1.012  0.3754  0.00526  0.01063  0.02194  -0.04333  -0.2597  0.614
6.54e+09  1.106  -0.03894  0.02623  -0.01344  -0.01883  0.05168  -0.09711  0.6488
6.541e+09  0.984  -0.3456  -0.03193  -0.02008  0.01764  -0.005803  0.1496  0.6799
6.542e+09  0.8197  -0.6536  0.03078  -0.01369  0.01523  0.01582  0.4628  0.5629
6.544e+09  0.4662  -0.9061  -0.00386  -0.00544  0.00838  0.03509  0.6193  0.4121
6.545e+09  0.1899  -1.083  -0.01238  0.01572  -0.04627  0.001834  0.6677  0.1857
6.546e+09  -0.2187  -0.9763  -0.004996  0.01564  0.01656  0.04313  0.7175  -0.084
6.548e+09  -0.6046  -0.8632  0.009441  -0.01608  0.009535  -0.00429  0.6405  -0.327
6.549e+09  -0.8612  -0.5645  -0.005782  -0.02266  0.09182  0.02387  0.4802  -0.5257
6.55e+09  -0.9501  -0.2275  0.003092  -0.0006541  -0.02824  -0.01453  0.2713  -0.6593
6.551e+09  -1.001  0.1192  0.01458  0.01895  0.01807  -0.0209  0.0196  -0.7383
6.552e+09  -0.8653  0.4509  0.01959  -0.0002867  -0.03901  -0.009826  -0.2113  -0.7087
