# Hz S RI R 50
6.25e+09  0.6394  -0.7598  0.007908  -0.002572  -0.01449  -0.01441  0.1568  0.4632
6.251e+09  0.3809  -0.8955  0.005606  -0.0119  0.01185  -0.001603  0.3436  0.4138
6.252e+09  -0.0499  -0.9905  -0.01151  -0.04382  -0.06168  0.01766  0.5575  0.2701
6.254e+09  -0.4122  -0.9061  0.01529  -0.01451  0.05329  -0.01931  0.6392  -0.008663
6.255e+09  -0.6985  -0.7332  0.006706  -0.002736  0.004146  0.06863  0.5858  -0.2369
6.256e+09  -0.8341  -0.3608  0.001041  -0.02137  0.009717  0.01448  0.5054  -0.4522
6.258e+09  -1.037  -0.1184  -0.005601  0.01213  -0.0002706  -0.02923  0.2853  -0.6006
6.259e+09  -0.959  0.2321  -0.008532  -0.005541  0.00546  0.01144  0.04418  -0.6672
6.26e+09  -0.7867  0.5598  0.01915  -0.0004557  0.02202  0.004716  -0.1832  -0.6812
6.261e+09  -0.5057  0.8486  -0.009024  0.01756  -0.0579  0.02993  -0.4278  -0.5408
6.262e+09  -0.1753  0.9782  0.02822  0.01783  0.009243  -0.04824  -0.5869  -0.3444
6.264e+09  0.1446  0.9382  -0.006036  0.01233  0.008018  -0.003622  -0.6847  -0.08379
6.265e+09  0.4787  0.8384  0.01163  -0.01912  -0.01031  -0.00336  -0.6957  0.1429
6.266e+09  0.8001  0.6669  -0.01378  0.0414  0.01425  0.0004037  -0.616  0.3856
6.268e+09  0.9091  0.2486  0.02161  -0.0288  0.02122  0.0208  -0.4673  0.5837
6.269e+09  0.9619  0.001371  0.006715  -0.003882  -0.01002  0.05358  -0.1868  0.7489
6.27e+09  0.8785  -0.3575  -0.009703  -0.04329  0.0382  0.01107  0.08109  0.7435
6.271e+09  0.6598  -0.7094  0.002303  0.02318  0.03567  0.02139  0.3155  0.6948
6.272e+09  0.39  -0.823  -0.004437  0.009752  -0.04476  0.02438  0.5478  0.513
6.274e+09  0.09123  -0.9416  0.01776  -0.00711  -0.005917  0.01507  0.6973  0.325
6.275e+09  -0.3053  -0.9331  0.01609  -0.01011  0.04628  -0.02592  0.7474  0.08093
6.276e+09  -0.5323  -0.7676  -0.008045  0.0381  0.001727  -0.04415  0.7166  -0.2331
6.278e+09  -0.7776  -0.4486  -0.02643  -0.02125  -0.005381  0.001274  0.625  -0.4583
6.279e+09  -0.9589  -0.1328  0.001123  0.008854  0.006252  0.002528  0.3948  -0.6724
6.28e+09  -0.9783  0.1677  0.01476  0.001455  0.005266  -0.008575  0.1817  -0.7513
6.281e+09  -0.7924  0.503  0.01707  0.001167  -0.0265  0.004978  -0.1052  -0.7589
6.282e+09  -0.6388  0.7676  -0.01163  0.017  -0.03901  -0.01556  -0.3693  -0.6859
6.284e+09  -0.3121  0.8719  0.006212  0.01632  0.01738  -0.03401  -0.5855  -0.5315
6.285e+09  0.06022  0.9691  0.01176  -0.01308  -0.002084  0.06104  -0.7567  -0.3064
6.286e+09  0.3648  0.9001  -0.01216  -0.0002583  0.004214  0.02341  -0.7735  0.002237
6.288e+09  0.6768  0.6482  -0.002684  -0.007618  0.01397  -0.01557  -0.7292  0.2487
6.289e+09  0.8425  0.4435  0.02793  -0.02695  -0.0102  -0.04404  -0.6054  0.4914
6.29e+09  0.9622  0.0724  -0.01292  0.03674  -0.006735  0.0003695  -0.4085  0.6693
6.291e+09  0.9403  -0.2684  0.01518  0.00378  0.002207  -0.004513  -0.1694  0.8004
6.292e+09  0.7534  -0.6122  -0.02436  0.01885  0.01541  0.004012  0.1384  0.8332
6.294e+09  0.5079  -0.7833  0.0199  0.004779  0.00955  -0.01695  0.3961  0.7296
6.295e+09  0.1631  -0.9187  0.0216  -0.01777  -0.01087  -0.04045  0.6061  0.521
6.296e+09  -0.1455  -0.9099  -0.001261  0.02103  0.009767  0.1049  0.7992  0.2699
6.298e+09  -0.4994  -0.8047  -0.01173  -0.009325  0.008575  0.0494  0.8115  -0.01033
6.299e+09  -0.721  -0.6107  -0.02501  -0.02437  -0.02306  -0.02576  0.8042  -0.2669
6.3e+09  -0.8742  -0.267  0.007489  0.003553  0.01822  -0.01076  0.6447  -0.5473
6.301e+09  -0.9628  0.04227  0.006344  0.02018  0.04453  -0.03336  0.3844  -0.6983
6.302e+09  -0.867  0.3697  0.008427  0.01279  -0.005043  0.02736  0.1414  -0.8475
6.304e+09  -0.7123  0.6513  -0.01575  0.006353  -0.03151  -0.04581  -0.1659  -0.8337
6.305e+09  -0.4647  0.9099  0.003853  0.008711  0.04599  -0.009771  -0.409  -0.731
6.306e+09  -0.1035  0.9262  -0.006836  -0.02369  -0.000756  0.02433  -0.6329  -0.5132
6.308e+09  0.2608  0.9277  0.004271  0.01172  0.02578  -0.02177  -0.8329  -0.3071
6.309e+09  0.5555  0.7882  0.01373  -0.01833  -0.01545  0.02482  -0.8759  -0.03006
6.31e+09  0.7749  0.5635  -0.005391  0.002548  0.007447  -0.02277  -0.8406  0.293
6.311e+09  0.9442  0.2964  0.0322  0.000353  0.002218  0.03712  -0.6728  0.5564
6.312e+09  0.952  -0.1393  -0.0005191  -0.008707  -0.02606  0.0002986  -0.4357  0.7462
6.314e+09  0.8031  -0.4102  -0.01123  -0.0001311  -0.02314  -0.009404  -0.2023  0.8884
6.315e+09  0.617  -0.7304  -0.01571  -0.01007  -0.01545  0.00253  0.1534  0.8658
6.316e+09  0.4023  -0.8629  -0.03184  -0.01137  0.03416  -0.04323  0.4075  0.7738
6.318e+09  0.01667  -0.9273  -0.005929  0.01696  -0.01932  -0.04894  0.6726  0.5655
6.319e+09  -0.3679  -0.9456  0.001543  -0.007184  -0.01095  0.02058  0.8288  0.2905
6.32e+09  -0.5862  -0.7676  -0.02733  0.01594  -0.04661  0.0002123  0.9125  -0.01784
6.321e+09  -0.8559  -0.4968  -0.007923  0.01149  0.0156  -0.04468  0.8616  -0.3118
6.322e+09  -0.9635  -0.1311  0.009619  0.01167  0.01457  0.03416  0.6832  -0.5721
6.324e+09  -0.9551  0.1656  0.01995  -0.01126  0.02956  -0.02585  0.434  -0.7941
6.325e+09  -0.8201  0.58  -0.009065  -0.01966  -0.01637  0.008248  0.1383  -0.8921
6.326e+09  -0.5431  0.7849  0.03362  0.01478  0.0309  -0.0121  -0.12  -0.8764
6.328e+09  -0.2789  0.9516  -0.004372  0.008088  -0.003142  -0.02769  -0.4548  -0.7873
6.329e+09  0.07976  0.9893  0.03075  -0.005997  -0.02903  0.02972  -0.7448  -0.5858
6.33e+09  0.4019  0.9065  -0.002032  0.0001799  -0.006928  -0.02217  -0.8363  -0.3477
6.331e+09  0.7085  0.7375  0.005538  0.02311  0.01977  -0.003489  -0.9147  -0.02751
6.332e+09  0.9126  0.3681  -0.01205  0.009585  -0.04877  -0.004454  -0.8614  0.2971
6.334e+09  0.9603  0.05743  0.002705  -0.02995  -0.04538  -0.02421  -0.6982  0.5393
6.335e+09  0.9277  -0.3092  -0.001167  0.006448  0.01122  -0.04509  -0.4832  0.7268
6.336e+09  0.7502  -0.5544  0.02079  -0.01548  -0.02928  0.003599  -0.1972  0.9218
6.338e+09  0.509  -0.8346  0.002494  0.01068  0.02143  -0.03569  0.1175  0.9246
6.339e+09  0.2337  -0.9738  0.003282  -0.01205  0.006938  0.0005531  0.4622  0.8193
6.34e+09  -0.1514  -0.9607  0.01582  0.02008  0.01118  0.03371  0.6862  0.593
6.341e+09  -0.5021  -0.8506  -0.009309  -0.01408  -0.01753  0.008264  0.8494  0.3397
6.342e+09  -0.7446  -0.6261  -0.0363  0.0159  0.01292  0.01277  0.9429  0.05222
6.344e+09  -0.9235  -0.3317  -0.01902  -0.001103  -0.005496  0.002681  0.8971  -0.2909
6.345e+09  -0.9943  -0.0003965  0.03223  0.003686  -0.06223  0.03763  0.7401  -0.5823
6.346e+09  -0.9225  0.3788  0.05939  0.02243  0.003482  0.02016  0.5046  -0.7453
6.348e+09  -0.7366  0.7092  -0.004196  -0.01068  0.04599  0.02722  0.1779  -0.9146
6.349e+09  -0.3357  0.8749  -0.01653  0.01006  0.000381  0.03838  -0.136  -0.9277
6.35e+09  -0.02786  1.03  0.0227  -0.003868  -0.01823  -0.003442  -0.4001  -0.8441
6.351e+09  0.3261  0.9728  1.984e-05  -0.02219  0.005168  -0.0212  -0.6643  -0.6735
6.352e+09  0.6323  0.8467  0.02223  0.004132  0.005928  -0.007239  -0.8669  -0.3814
6.354e+09  0.8545  0.5169  0.002087  -0.004619  0.04113  0.0365  -0.9414  -0.06965
6.355e+09  0.9535  0.1952  -0.004079  -0.0003842  0.02645  0.001751  -0.9285  0.2606
6.356e+09  1.015  -0.1796  0.02887  -0.02491  -0.00852  -0.05301  -0.7585  0.5396
6.358e+09  0.8918  -0.5088  -0.02072  0.007675  0.0107  -0.0156  -0.5095  0.7607
6.359e+09  0.6633  -0.8298  0.02165  -0.0112  0.004911  -0.05127  -0.275  0.9128
6.36e+09  0.3277  -1.011  0.001667  0.00265  0.03067  0.02514  0.105  0.911
6.361e+09  -0.01441  -1.068  -0.01432  0.0202  -0.01239  0.01184  0.4251  0.8601
6.362e+09  -0.357  -0.9758  -0.001034  -0.01429  -0.01251  -0.04844  0.6903  0.6608
6.364e+09  -0.7543  -0.7253  -0.02008  0.01652  0.01681  -0.01117  0.8746  0.3486
6.365e+09  -0.9114  -0.4374  0.01342  0.007705  0.02316  -0.001725  0.9316  0.01527
6.366e+09  -1.05  -0.05569  -0.0125  -0.01492  -0.01081  0.005027  0.8971  -0.235
6.368e+09  -0.9994  0.2862  0.03771  -0.02136  -0.003649  0.01851  0.726  -0.5287
6.369e+09  -0.8425  0.6527  0.008104  -0.0159  -0.02143  -0.01443  0.533  -0.7758
6.37e+09  -0.5431  0.8909  0.01387  -0.02864  -0.008961  0.02284  0.2608  -0.9081
6.371e+09  -0.1923  1.045  0.01099  -0.008683  0.02811  0.02055  -0.06738  -0.9621
6.372e+09  0.213  1.002  0.01065  -0.003953  0.01536  -0.002406  -0.4  -0.8799
6.374e+09  0.5388  0.9184  -0.004957  -0.03534  0.02383  0.04671  -0.7121  -0.6616
6.375e+09  0.8313  0.6591  0.01008  0.04092  -0.01323  -0.01896  -0.8701  -0.3805
6.376e+09  1.006  0.304  0.007871  -0.007616  -0.007277  0.008076  -0.9391  -0.08453
6.378e+09  1.033  -0.0492  0.01935  -0.009686  0.0299  -0.02975  -0.8815  0.2723
6.379e+09  0.9422  -0.4318  -0.02564  -0.03457  0.01901  0.03514  -0.7571  0.5288
6.38e+09  0.7321  -0.7672  0.005172  0.02603  0.04637  -0.005906  -0.5516  0.7426
6.381e+09  0.4471  -1.012  -0.01753  -0.02489  0.022  -0.0323  -0.2958  0.9145
6.382e+09  0.04192  -1.088  -0.02767  -0.008643  -0.04558  -0.01697  0.02232  0.9247
6.384e+09  -0.3446  -1.001  0.05748  0.0006914  0.00266  0.003567  0.4248  0.852
6.385e+09  -0.6851  -0.8938  0.01956  -0.005863  0.02391  -0.04091  0.6496  0.7111
6.386e+09  -1.018  -0.5144  0.01887  0.004605  0.01612  -0.04204  0.8667  0.4498
6.388e+09  -1.119  -0.1566  -0.02987  -0.03047  0.02919  0.01008  0.9341  0.1386
6.389e+09  -1.061  0.2288  -0.006083  0.009925  0.02206  0.03576  0.8976  -0.2228
6.39e+09  -0.934  0.5882  0.01831  0.007098  -0.005253  0.02128  0.7881  -0.5105
6.391e+09  -0.6324  0.8998  -0.01795  0.03927  0.0005983  -0.03369  0.5579  -0.7589
6.392e+09  -0.2695  1.019  0.01535  -0.02381  0.01037  0.02635  0.2756  -0.8311
6.394e+09  0.1545  1.071  -0.03683  0.008446  0.03233  0.005835  -0.009642  -0.9544
6.395e+09  0.5267  0.9832  -0.04228  0.02763  0.02203  -0.01769  -0.3288  -0.9006
6.396e+09  0.8455  0.7439  0.0213  -0.03534  -0.01226  -0.04652  -0.6016  -0.689
6.398e+09  1.04  0.366  0.01736  -0.001117  -0.01971  -0.02579  -0.8749  -0.4615
6.399e+09  1.119  -0.05085  -0.03341  0.002784  0.01601  0.01195  -0.8743  -0.1236
6.4e+09  1.04  -0.4585  0.02347  -0.001314  0.01843  -0.01511  -0.8523  0.176
6.401e+09  0.8132  -0.7598  -0.0121  0.00923  -0.009436  -0.0172  -0.8093  0.5164
6.402e+09  0.4776  -1.021  -0.01583  0.02684  0.01028  -0.02728  -0.6421  0.7443
6.404e+09  0.09226  -1.14  -0.0347  -0.0305  -0.02617  -0.01529  -0.3085  0.8656
6.405e+09  -0.3009  -1.079  -0.01269  0.02689  0.04767  0.01342  -0.02509  0.9129
6.406e+09  -0.7377  -0.913  0.008114  0.03671  0.02123  6.64e-06  0.2842  0.8284
6.408e+09  -1.006  -0.5301  -0.001525  -0.004277  -0.02235  0.02783  0.5848  0.7338
6.409e+09  -1.109  -0.1873  0.001538  -0.03345  0.0006612  0.0273  0.7492  0.5025
6.41e+09  -1.119  0.2333  -0.03547  -0.004326  -0.01249  -0.01551  0.9034  0.1902
6.411e+09  -1.008  0.6595  -0.005975  -0.02159  0.009471  0.005702  0.9218  -0.1405
6.412e+09  -0.6827  0.9486  -0.02397  0.02017  0.00902  0.002817  0.7513  -0.4346
6.414e+09  -0.2829  1.098  -0.03522  -0.03037  -0.01848  -0.01266  0.6  -0.6774
6.415e+09  0.1515  1.118  0.03653  0.008814  0.006633  0.03205  0.3601  -0.8225
6.416e+09  0.4835  1.029  0.03691  -0.007935  0.0338  0.03132  0.01742  -0.9004
6.418e+09  0.8623  0.7404  0.0262  -0.01674  0.02046  0.0326  -0.3052  -0.8563
6.419e+09  1.076  0.4108  0.01439  0.004978  -0.01196  -0.02722  -0.5344  -0.6913
6.42e+09  1.13  -0.002949  -0.03247  0.00958  -0.01593  -0.00302  -0.7803  -0.4885
6.421e+09  1.041  -0.4203  -0.01601  0.008351  0.006659  0.02776  -0.847  -0.1782
6.422e+09  0.7814  -0.7906  0.0132  -0.005241  0.009353  -0.0003554  -0.8613  0.1473
6.424e+09  0.442  -1.044  -0.01055  0.04  -2.733e-05  -0.04545  -0.7793  0.3885
6.425e+09  0.09732  -1.07  0.003038  0.03204  0.001242  -0.03443  -0.6407  0.663
6.426e+09  -0.3206  -1.093  0.008597  0.01175  0.01386  -0.02577  -0.349  0.8215
6.428e+09  -0.7042  -0.8844  -0.03467  0.006804  0.006751  0.04068  -0.06951  0.8815
6.429e+09  -0.9736  -0.5599  0.01065  0.01327  -0.02363  0.004872  0.2426  0.8377
6.43e+09  -1.115  -0.1995  0.02152  -0.04067  0.03457  0.006882  0.5321  0.7293
6.431e+09  -1.044  0.2243  -0.003766  -0.009955  -0.02511  0.01173  0.7042  0.462
6.432e+09  -0.9622  0.6149  0.0006084  -0.02209  0.02679  -0.02828  0.843  0.2164
6.434e+09  -0.6637  0.8779  0.02533  0.04212  0.01077  -0.01788  0.8906  -0.09408
6.435e+09  -0.2509  1.083  -0.06328  0.01962  0.02121  0.02267  0.7842  -0.324
6.436e+09  0.1186  1.062  -0.01301  -0.05124  -0.01145  0.002129  0.5685  -0.6192
6.438e+09  0.5024  0.9515  -0.04202  -0.02629  -0.00359  0.01147  0.3466  -0.8173
6.439e+09  0.8639  0.6983  -0.01168  0.03522  0.04803  0.04978  0.07003  -0.8756
6.44e+09  1.012  0.4173  0.02524  0.03056  -0.03537  0.01123  -0.2413  -0.8746
6.441e+09  1.06  -0.0109  0.01467  -0.03126  0.01157  0.05178  -0.5105  -0.7244
6.442e+09  0.9757  -0.3945  0.01228  0.01866  -0.004459  0.007664  -0.6753  -0.5129
6.444e+09  0.7661  -0.6977  0.02328  -0.03863  0.00161  0.01228  -0.8572  -0.1604
6.445e+09  0.5201  -0.9623  0.04146  -0.03669  0.04201  -0.003693  -0.8168  0.06309
6.446e+09  0.1266  -1.085  0.004326  0.02552  0.02502  -0.009899  -0.8182  0.3434
6.448e+09  -0.2348  -1.071  0.03272  0.04166  0.03836  -0.008309  -0.6095  0.5652
6.449e+09  -0.5798  -0.8518  -0.03494  -0.01818  0.01752  -0.01281  -0.3405  0.7523
6.45e+09  -0.8432  -0.602  0.02988  -0.003955  0.05438  -0.0007689  -0.01889  0.8653
6.451e+09  -1.04  -0.2511  0.02662  0.01334  -0.0263  0.0001789  0.2121  0.8185
6.452e+09  -1.048  0.1265  -0.0398  -0.009623  0.05299  0.01769  0.5094  0.6579
6.454e+09  -0.864  0.4515  -0.009888  -0.01036  -0.01367  0.04078  0.7207  0.4846
6.455e+09  -0.6896  0.7383  -0.01746  0.02696  0.004855  0.03788  0.8035  0.2158
6.456e+09  -0.3437  1.019  -0.01825  -0.005267  0.03723  0.005426  0.7938  -0.1051
6.458e+09  0.005654  0.9381  0.01278  -0.0235  0.003583  0.01664  0.7509  -0.3577
6.459e+09  0.3081  0.9389  0.03729  -0.01381  0.03151  0.01628  0.5955  -0.5695
6.46e+09  0.6417  0.7672  -0.02457  -0.004416  0.01137  0.01281  0.3774  -0.7628
6.461e+09  0.8623  0.5139  -0.01411  -0.02906  0.05015  -0.03806  0.08631  -0.7938
6.462e+09  0.9681  0.1467  -0.01132  -0.02548  -0.08096  0.00105  -0.2254  -0.7736
6.464e+09  0.9748  -0.2748  -0.004777  0.004532  -0.02386  0.003572  -0.4703  -0.67
6.465e+09  0.8108  -0.5148  0.02305  0.02591  -0.02293  -0.008493  -0.6891  -0.4488
6.466e+09  0.5593  -0.7686  0.01506  0.04581  0.0418  0.02071  -0.8164  -0.2022
6.468e+09  0.3104  -0.9706  -0.02164  -0.05648  0.04118  -0.01957  -0.782  0.1039
6.469e+09  -0.04698  -0.9711  -0.006577  -0.01017  0.0007882  0.01145  -0.7077  0.3411
6.47e+09  -0.3916  -0.8814  0.007075  0.0007945  -0.02748  -0.02518  -0.5542  0.5742
6.471e+09  -0.6739  -0.7122  0.003211  0.0362  0.01372  0.001012  -0.2878  0.7082
6.472e+09  -0.8442  -0.4391  0.01472  0.01838  -0.004246  0.008545  -0.06553  0.7629
6.474e+09  -0.9517  -0.1044  -0.03789  -0.0527  0.002196  0.003162  0.2411  0.7948
6.475e+09  -0.9035  0.2727  -0.03027  0.008501  -0.03011  -0.0212  0.4637  0.6389
6.476e+09  -0.8372  0.6068  -0.007024  0.002427  0.01967  0.02249  0.6674  0.4411
6.478e+09  -0.5339  0.8425  -0.05492  0.02043  0.04111  -0.04394  0.7601  0.2133
6.479e+09  -0.2198  0.9735  -0.01539  -0.01259  0.01113  0.01124  0.7704  -0.1283
6.48e+09  0.1004  0.9108  -0.02161  -0.01704  -0.06169  -0.001429  0.7163  -0.3493
6.481e+09  0.3944  0.8493  -0.04269  0.0004679  -0.003545  0.01854  0.5279  -0.5538
6.482e+09  0.6826  0.6364  0.005349  -0.01496  0.0355  0.02354  0.3086  -0.6745
6.484e+09  0.8574  0.3429  -0.02965  -0.02855  -0.0185  0.01853  0.027  -0.7556
6.485e+09  0.9599  0.00421  0.008628  -0.01002  0.00509  -0.04507  -0.2335  -0.7293
6.486e+09  0.8869  -0.3309  -0.008525  -0.001997  -0.03018  0.01769  -0.4851  -0.67
6.488e+09  1.373  -0.3553  -0.01856  -0.01931  0.4357  -0.5145  -0.6269  -0.4225
6.489e+09  0.445  -0.8227  -0.02693  0.006052  -0.03404  0.0002441  -0.7729  -0.2068
6.49e+09  0.1846  -0.9239  0.004687  0.02786  -0.002516  0.03029  -0.8083  0.07404
6.491e+09  -0.1961  -0.9094  0.01727  0.004242  -0.00402  -0.003601  -0.6857  0.385
6.492e+09  -0.4513  -0.7924  -0.02331  -0.001001  0.05464  0.007273  -0.5305  0.5553
6.494e+09  -0.8193  -0.5201  0.01823  0.02406  0.1433  -0.04324  -0.2817  0.6955
6.495e+09  -0.8768  -0.3171  -0.04617  -0.01718  -0.03787  0.01672  -0.08477  0.7547
6.496e+09  -0.9404  -0.06014  -0.02152  0.006294  0.01667  -0.01969  0.2017  0.7514
6.498e+09  -0.8761  0.2916  -0.03697  -0.01161  -0.01081  0.05662  0.4762  0.5909
6.499e+09  -0.7304  0.6438  -0.03635  -0.02186  -0.04801  0.01443  0.6353  0.4196
6.5e+09  -0.3865  1.321  -0.004887  -0.006066  -0.01254  -0.02629  0.7414  0.1442
6.501e+09  -0.1628  0.9017  0.01462  -0.01126  0.0263  -0.00619  0.7644  -0.1219
6.502e+09  0.1908  0.9129  -0.00182  0.001225  -0.03396  0.0261  0.6913  -0.3538
6.504e+09  0.4629  0.8339  0.000393  0.01608  0.03788  0.0427  0.5166  -0.5777
6.505e+09  0.684  0.6201  -0.0007969  -0.001213  0.04054  -0.0445  0.3094  -0.7113
6.506e+09  0.9153  0.213  -0.004111  0.01406  -0.02196  0.02069  -0.008945  -0.7809
6.508e+09  0.9585  -0.03887  0.0286  0.004868  0.03251  -0.01525  -0.208  -0.7288
6.509e+09  0.8331  -0.371  0.004812  0.0006508  -0.02509  -0.06106  -0.4992  -0.5945
6.51e+09  0.6914  -0.6833  -0.003432  0.01124  0.02819  -0.008856  -0.6634  -0.3556
6.511e+09  0.4251  -0.8625  -0.001348  0.02106  0.019  -0.01408  -0.7505  -0.1182
6.512e+09  0.09106  -0.9642  -0.02831  -0.0129  0.0004313  0.01742  -0.7207  0.1254
6.514e+09  -0.2516  -0.9083  0.009233  0.06122  0.03294  -0.003283  -0.6295  0.367
6.515e+09  -0.5476  -0.8238  0.01323  -0.0358  -0.03874  -0.03037  -0.4746  0.5703
6.516e+09  -0.7864  -0.5987  0.01496  0.01352  -0.02096  -0.01586  -0.2533  0.6814
6.518e+09  -0.9422  -0.287  0.01055  0.04832  -0.03305  -0.07045  0.01569  0.769
6.519e+09  -0.9466  0.07455  0.009493  0.04614  0.006874  0.04802  0.2797  0.6777
6.52e+09  -0.9022  0.4413  -0.0111  0.01361  -0.04576  -0.02685  0.47  0.5755
6.521e+09  -0.6771  0.6747  0.003612  0.03646  0.005318  0.02343  0.6291  0.3753
6.522e+09  -0.3827  0.8473  0.02502  -0.01541  0.0231  0.02818  0.7464  0.06596
6.524e+09  -0.1005  1.026  -0.02863  -0.01194  0.01114  -0.01888  0.6979  -0.1628
6.525e+09  0.2867  0.9676  0.004114  0.007117  0.006902  -0.01349  0.6163  -0.3812
6.526e+09  0.5779  0.7623  -0.008022  -0.01298  0.05338  0.03635  0.4123  -0.5806
6.528e+09  0.8491  0.4785  -0.0106  -0.02305  0.06986  -0.01699  0.1866  -0.6895
6.529e+09  0.9991  0.2225  0.01513  0.009279  -0.01337  0.01889  -0.09402  -0.7076
6.53e+09  1.005  -0.1858  -0.01322  0.04343  -0.03347  -0.02968  -0.309  -0.6252
6.531e+09  0.8864  -0.5036  -0.02286  0.0199  0.009892  -0.06523  -0.4193  -0.4818
6.532e+09  0.6932  -0.8159  -0.008095  0.05066  -0.013  0.02766  -0.6218  -0.2865
6.534e+09  0.4346  -0.938  0.004626  0.0005653  0.02307  -0.04311  -0.6445  -0.09985
6.535e+09  0.05737  -1.067  0.001971  -0.03491  -0.03  -0.05411  -0.6164  0.127
6.536e+09  -0.3108  -0.9542  -0.006852  -0.001889  0.009587  -0.04413  -0.5516  0.325
6.538e+09  -0.6664  -0.7769  -0.02589  -0.005575  -0.001954  -0.03127  -0.4475  0.4748
6.539e+09  -0.9267  -0.595  0.02612  -0.004615  -0.001352  0.01508  -0.2505  0.6227
6.54e+09  -1.05  -0.1543  0.01485  -0.01792  0.02071  -0.0008272  -0.02279  0.7208
6.541e+09  -1.044  0.1927  -0.04278  0.01373  -0.01036  -0.01565  0.1742  0.6542
6.542e+09  -0.9637  0.6169  0.01511  0.008547  -0.03561  -0.02278  0.4194  0.5616
6.544e+09  -0.6268  0.8687  0.009238  -0.004824  -0.008355  0.01062  0.5798  0.3926
6.545e+09  -0.3287  1.02  -0.002897  0.02663  0.05598  -0.01672  0.7196  0.1745
6.546e+09  -2.781e-05  1.086  0.0003985  0.02919  -0.008319  0.03205  0.6977  -0.09558
6.548e+09  0.4571  0.9831  -0.03173  -0.0517  -0.06353  0.04299  0.6256  -0.3071
6.549e+09  0.7371  0.8151  -0.02948  0.005589  0.04032  0.01307  0.5031  -0.5022
6.55e+09  0.9768  0.4883  -0.01649  -0.01121  -0.02585  -0.04416  0.2995  -0.6611
6.551e+09  1.122  0.1027  -0.02522  -0.00154  0.05278  0.01607  0.06915  -0.745
