# Hz S RI R 50
6.25e+09  0.9614  0.2871  0.01122  0.05428  -0.01188  -0.002706  0.1628  0.4798
6.251e+09  1.003  -0.1231  0.01575  -0.004494  0.02455  0.08505  0.384  0.3691
6.252e+09  0.9021  -0.4564  -0.003889  0.01512  -0.003461  -0.03397  0.5137  0.2363
6.254e+09  0.7533  -0.7439  -0.008847  -0.009234  -0.01967  0.01381  0.6198  0.03416
6.255e+09  0.4162  -0.8911  -0.007477  0.007723  0.07019  0.002187  0.6058  -0.2376
6.256e+09  0.01628  -0.957  0.003176  0.009209  0.02282  0.01671  0.4939  -0.4149
6.258e+09  -0.3138  -0.9504  -0.01252  -0.02281  0.03358  0.007148  0.2661  -0.6137
6.259e+09  -0.6284  -0.8149  0.01044  -0.005424  -0.03137  0.04084  0.0527  -0.6766
6.26e+09  -0.8874  -0.5143  -0.01293  -0.01827  0.01529  -0.04479  -0.1733  -0.6506
6.261e+09  -0.9697  -0.1552  -0.01949  0.008122  -0.03728  -0.02414  -0.4521  -0.514
6.262e+09  -1.054  0.1903  0.008931  0.005858  -0.00609  -0.001445  -0.602  -0.3707
6.264e+09  -0.8545  0.4909  0.01958  -0.0001193  0.02547  0.01084  -0.7011  -0.0894
6.265e+09  -0.6321  0.7426  0.02768  0.003696  -0.01793  -0.008627  -0.6742  0.1404
6.266e+09  -0.2706  0.926  -0.02774  -0.01826  0.01823  -0.0101  -0.5977  0.3726
6.268e+09  0.06163  0.9437  0.01771  0.01939  0.01424  -0.01242  -0.4414  0.5834
6.269e+09  0.4029  0.9093  -0.0293  -0.01119  0.02798  -0.01823  -0.2076  0.7104
6.27e+09  0.6576  0.6872  -0.01589  0.01554  -0.01943  -0.01076  0.08013  0.7024
6.271e+09  0.9299  0.4353  -0.02255  -0.0003775  -0.01265  0.02198  0.3552  0.6942
6.272e+09  0.996  0.07887  -0.02675  0.006107  0.03622  -0.03033  0.5433  0.5176
6.274e+09  0.9464  -0.358  0.04322  -0.02509  -0.01342  0.00864  0.6665  0.3381
6.275e+09  0.7512  -0.5674  -0.008947  -0.00152  0.04369  0.02929  0.7471  0.06267
6.276e+09  0.5147  -0.7642  0.006837  0.006716  -0.001969  0.002992  0.7352  -0.2228
6.278e+09  0.16  -0.9778  -0.001701  -0.02272  0.01298  0.009522  0.6161  -0.4478
6.279e+09  -0.1383  -0.9972  -0.02478  0.0005779  -0.05644  0.02526  0.4253  -0.6725
6.28e+09  -0.5137  -0.8234  -0.006007  0.01252  -0.01614  0.01446  0.1472  -0.7885
6.281e+09  -0.7495  -0.6158  -0.007517  -0.01508  -0.03963  -0.0241  -0.113  -0.7936
6.282e+09  -0.9774  -0.3133  0.02159  0.003017  0.057  -0.06157  -0.3522  -0.725
6.284e+09  -1.015  0.05885  0.00915  0.01257  0.01897  0.02747  -0.6036  -0.5433
6.285e+09  -0.9098  0.3203  -0.0199  0.01878  -0.05328  0.03177  -0.7567  -0.2974
6.286e+09  -0.7086  0.684  0.0004034  0.005201  0.003469  0.01038  -0.7794  -0.006652
6.288e+09  -0.4268  0.8879  0.002768  -0.01083  -0.04374  -0.03496  -0.7365  0.2507
6.289e+09  -0.06697  0.9967  0.00275  -0.01416  -0.06085  -0.009161  -0.6224  0.5019
6.29e+09  0.2998  0.9763  0.02464  -0.007066  -0.04799  0.02331  -0.4167  0.7067
6.291e+09  0.5953  0.8314  -0.01032  0.002641  -0.006446  0.06494  -0.1455  0.812
6.292e+09  0.8353  0.5357  0.0174  0.006525  -0.03589  0.07298  0.1168  0.8267
6.294e+09  0.9988  0.2177  -0.0009432  -0.01771  0.05826  0.01717  0.3782  0.7266
6.295e+09  0.9759  -0.1706  0.003039  0.01883  -0.02769  -0.004563  0.6308  0.5091
6.296e+09  0.8583  -0.4701  -0.02282  -0.0001654  0.0185  0.004509  0.786  0.2907
6.298e+09  0.6576  -0.7921  -0.007794  0.0004681  0.003963  -0.01721  0.8371  0.01134
6.299e+09  0.4102  -0.9678  -0.007777  0.02487  0.008845  -0.0594  0.792  -0.2556
6.3e+09  -0.06123  -0.9802  0.01802  -0.008203  -0.05226  -0.03968  0.6703  -0.5049
6.301e+09  -0.3491  -0.9732  -0.0133  -0.005089  0.03067  -0.03173  0.4187  -0.7054
6.302e+09  -0.6393  -0.7287  -0.01619  0.0252  0.004784  0.03104  0.1557  -0.8223
6.304e+09  -0.9232  -0.5003  -0.01752  -0.02353  -0.0368  -0.08127  -0.1416  -0.8657
6.305e+09  -0.9757  -0.119  0.02226  -0.01948  -0.02372  0.02783  -0.4331  -0.7437
6.306e+09  -0.9641  0.2389  0.02806  0.003974  0.01145  0.01398  -0.6052  -0.5169
6.308e+09  -0.7952  0.6229  0.01796  -0.02129  -0.0429  -0.0134  -0.8112  -0.2902
6.309e+09  -0.5773  0.8979  -0.004952  -0.01099  0.004799  0.006857  -0.8863  -0.003449
6.31e+09  -0.2868  1.014  0.02158  -0.01219  0.03383  -0.02746  -0.7771  0.2441
6.311e+09  0.1272  0.9958  0.01328  0.01549  0.01026  0.008517  -0.6444  0.5402
6.312e+09  0.4799  0.8904  -0.01228  0.005016  -0.02778  -0.006016  -0.4288  0.7387
6.314e+09  0.7828  0.6933  -0.002456  0.03221  0.008852  -0.006203  -0.1426  0.8611
6.315e+09  0.9924  0.3563  -0.008764  0.02362  0.01796  -0.02664  0.1765  0.8441
6.316e+09  0.9615  0.02268  0.004114  -0.003008  0.01205  -0.00727  0.413  0.7691
6.318e+09  1.037  -0.3574  -0.009102  -0.03102  -0.006013  -0.02813  0.6917  0.5555
6.319e+09  0.8046  -0.6472  -4.792e-05  0.01272  0.02244  -0.004502  0.8174  0.3292
6.32e+09  0.4458  -0.8542  -0.02133  -0.01948  0.03086  -0.03193  0.8969  0.0009357
6.321e+09  0.1463  -0.9816  -0.02253  0.004206  -0.0151  -0.03726  0.8609  -0.2934
6.322e+09  -0.1994  -1.059  0.001037  -0.01201  0.002276  0.005206  0.6887  -0.5902
6.324e+09  -0.6192  -0.9045  -0.0173  0.03787  0.01254  -0.03296  0.4671  -0.7424
6.325e+09  -0.8782  -0.6073  0.003427  -0.01868  -0.06636  0.03609  0.1458  -0.8509
6.326e+09  -1.008  -0.2966  -0.03788  -0.0275  -0.02697  -0.002421  -0.1313  -0.9057
6.328e+09  -1.055  0.1136  -0.01059  0.0009513  0.00655  -0.0167  -0.4017  -0.795
6.329e+09  -1.027  0.4403  -0.01381  -0.01654  0.03605  0.01707  -0.6749  -0.5977
6.33e+09  -0.7305  0.7285  -0.004953  0.005965  0.01888  -0.01421  -0.8688  -0.3289
6.331e+09  -0.4126  0.9796  0.00775  0.01475  0.0339  0.0223  -0.8798  -0.01977
6.332e+09  -0.07853  1.096  0.04757  0.005331  -0.008118  -0.003909  -0.8667  0.3057
6.334e+09  0.2839  0.9931  0.003013  -0.01555  0.01728  0.02265  -0.6924  0.5518
6.335e+09  0.6263  0.9041  0.001368  0.0107  -0.02884  0.01431  -0.4768  0.7683
6.336e+09  0.943  0.5458  -4.267e-06  -0.02202  0.01146  -0.04278  -0.1935  0.9197
6.338e+09  1.077  0.232  0.01755  -0.001254  0.04539  -0.01354  0.09615  0.9354
6.339e+09  1.064  -0.1168  0.01867  0.02026  -0.005094  0.006514  0.4467  0.8382
6.34e+09  0.9415  -0.5482  -0.02606  -0.003062  -0.00698  -0.0116  0.6696  0.6331
6.341e+09  0.7044  -0.8438  -0.005029  0.01897  0.08583  0.02591  0.858  0.3538
6.342e+09  0.3464  -1.051  0.03052  -0.0135  -0.008137  -0.04439  0.9627  0.03914
6.344e+09  -0.03206  -1.113  0.004799  -0.00818  -0.03191  -0.03824  0.8615  -0.2967
6.345e+09  -0.4099  -1.037  -0.002754  0.01598  0.02556  0.04259  0.7363  -0.5417
6.346e+09  -0.7589  -0.83  -0.009896  -0.04419  -0.01798  0.01474  0.5095  -0.7873
6.348e+09  -0.9688  -0.4887  0.002569  -0.005444  0.02284  -0.01732  0.2105  -0.9286
6.349e+09  -1.114  -0.1312  -0.01095  -0.02413  0.004691  -0.01659  -0.1005  -0.9391
6.35e+09  -1.111  0.3464  0.01127  -0.002461  0.008501  -0.02344  -0.4498  -0.7877
6.351e+09  -0.9259  0.641  0.03073  -0.004766  -0.02546  -0.02659  -0.7112  -0.6349
6.352e+09  -0.65  0.9187  -0.009721  -0.01138  0.01355  -0.01683  -0.8596  -0.3759
6.354e+09  -0.2858  1.097  0.01869  -0.03193  -0.03292  -0.02683  -0.9518  -0.08257
6.355e+09  0.1386  1.161  0.02488  0.03972  -0.03808  -0.008488  -0.8981  0.2797
6.356e+09  0.461  1.028  -0.001827  0.00935  -0.02809  -0.01603  -0.7572  0.535
6.358e+09  0.8566  0.7782  0.01318  0.02966  0.01961  0.001154  -0.5247  0.812
6.359e+09  1.085  0.4484  -0.008254  0.00759  -0.0165  -0.009786  -0.2575  0.8849
6.36e+09  1.195  0.1005  -0.003613  0.02381  0.003571  0.002372  0.1154  0.9449
6.361e+09  1.153  -0.3766  0.005716  -0.00705  -0.04889  0.03349  0.4076  0.8488
6.362e+09  0.9477  -0.7385  0.01023  -0.01673  -0.02822  -0.008133  0.707  0.6837
6.364e+09  0.5886  -1.075  -0.00491  0.03791  0.02456  0.01022  0.8782  0.4078
6.365e+09  0.2151  -1.235  0.01554  -0.006817  0.05426  -0.01619  0.9179  0.09236
6.366e+09  -0.1965  -1.196  -0.02663  0.01882  -0.02744  0.01683  0.9146  -0.2219
6.368e+09  -0.6501  -1.028  -0.006093  -0.01907  0.03047  0.03262  0.8125  -0.5489
6.369e+09  -0.9064  -0.768  0.03855  -0.02849  0.00608  -0.04045  0.5187  -0.8059
6.37e+09  -1.199  -0.3847  0.003844  -0.02801  -0.04046  -0.0009412  0.2572  -0.9074
6.371e+09  -1.257  0.04071  -0.02925  -0.02476  0.03277  -0.0363  -0.06876  -0.9162
6.372e+09  -1.136  0.4823  -0.01316  0.01354  -0.04466  0.03394  -0.3953  -0.8231
6.374e+09  -0.9229  0.9032  -0.01113  -0.004392  -0.004863  -0.04033  -0.653  -0.6536
6.375e+09  -0.5262  1.112  -0.004474  -0.009988  0.01618  -0.006455  -0.8717  -0.4388
6.376e+09  -0.03726  1.288  -0.03467  -0.002576  0.03878  -0.0306  -0.9669  -0.07603
6.378e+09  0.399  1.199  -0.0165  0.003971  -0.01476  0.006392  -0.8885  0.2169
6.379e+09  0.7431  1.052  -0.02319  -0.004757  -0.001506  0.02723  -0.8014  0.512
6.38e+09  1.062  0.7334  -0.04085  0.005831  -0.036  -0.04234  -0.583  0.7724
6.381e+09  1.315  0.2714  -0.02179  0.01312  -0.02999  0.02785  -0.2606  0.9081
6.382e+09  1.328  -0.1814  -0.01156  -0.006606  0.07969  -0.02036  0.05741  0.949
6.384e+09  1.139  -0.6225  0.02525  -0.02904  0.0005703  -0.05438  0.3729  0.885
6.385e+09  0.8782  -1.091  0.03051  0.02159  -0.002904  -0.01187  0.6278  0.6588
6.386e+09  0.4368  -1.323  0.013  0.01869  0.02537  -0.01922  0.8358  0.4422
6.388e+09  -0.009659  -1.368  0.01544  -0.00856  -0.0006002  0.07841  0.9022  0.1185
6.389e+09  -0.5735  -1.269  0.04228  0.03476  -0.02571  0.004567  0.8878  -0.2266
6.39e+09  -0.9834  -1.025  -0.02165  -0.0315  -0.02959  0.04224  0.782  -0.5034
6.391e+09  -1.272  -0.5847  0.002476  0.03535  0.02239  -0.01935  0.6015  -0.7672
6.392e+09  -1.417  -0.04599  0.006597  -0.02416  -0.02005  -0.002078  0.2743  -0.8823
6.394e+09  -1.358  0.4554  -0.01614  0.003173  -0.001691  -0.03952  -0.03658  -0.9187
6.395e+09  -1.191  0.9192  -0.003535  0.00694  0.03476  -0.01776  -0.3443  -0.8649
6.396e+09  -0.7476  1.295  0.02102  0.03207  0.02697  0.03584  -0.6186  -0.7007
6.398e+09  -0.3647  1.438  0.006728  -0.008384  -0.02898  0.03008  -0.7973  -0.4302
6.399e+09  0.2474  1.56  -0.0301  -0.01927  0.001831  0.006338  -0.9  -0.1674
6.4e+09  0.7531  1.389  0.006754  -0.01272  0.002918  0.01573  -0.9392  0.1666
6.401e+09  1.254  0.9752  -0.005842  0.03527  0.02761  -0.01765  -0.7728  0.494
6.402e+09  1.525  0.527  0.02763  -0.02744  -0.0527  0.02571  -0.5965  0.7186
6.404e+09  1.577  -0.1013  0.01489  0.01662  0.008876  0.02364  -0.2696  0.8425
6.405e+09  1.508  -0.6543  0.0007665  -0.01631  0.01836  -0.02894  0.01806  0.9498
6.406e+09  1.188  -1.222  -0.002196  -0.04475  -0.0009001  -0.001402  0.3401  0.8963
6.408e+09  0.6234  -1.585  0.007443  0.005252  -0.03084  -0.01481  0.5619  0.6713
6.409e+09  0.05155  -1.752  0.01512  0.02451  0.05357  -0.04483  0.8055  0.4266
6.41e+09  -0.6552  -1.609  0.00364  0.02266  0.009684  -0.009563  0.9239  0.18
6.411e+09  -1.227  -1.328  0.005126  0.01218  0.005703  0.0334  0.9269  -0.135
6.412e+09  -1.59  -0.7396  0.03281  -0.02992  -0.01482  -0.03146  0.7795  -0.4133
6.414e+09  -1.788  -0.09622  0.005921  -0.03846  0.02807  -0.05178  0.5748  -0.6951
6.415e+09  -1.738  0.5489  -0.004582  0.02402  0.03362  -0.007758  0.3655  -0.8584
6.416e+09  -1.476  1.178  0.03574  -0.01541  -0.02835  -0.07151  -0.003264  -0.8858
6.418e+09  -0.8562  1.599  -0.01813  0.00246  0.006364  -0.006429  -0.3004  -0.8263
6.419e+09  -0.2238  1.893  -0.01783  0.003925  0.001284  0.02109  -0.5258  -0.696
6.42e+09  0.4409  1.884  0.03197  0.01074  -0.01435  0.0009054  -0.7392  -0.4845
6.421e+09  1.152  1.557  -0.02217  0.02023  -0.01224  -0.01416  -0.8968  -0.1824
6.422e+09  1.669  0.9915  0.02936  0.01344  -0.04075  0.003672  -0.8335  0.08849
6.424e+09  1.954  0.2755  0.002269  0.05819  0.003668  -0.008284  -0.7681  0.4256
6.425e+09  1.942  -0.3905  -0.03157  -0.02154  0.002831  0.02502  -0.5892  0.6662
6.426e+09  1.589  -1.111  -0.04553  0.005329  -0.0189  -0.003378  -0.3429  0.8468
6.428e+09  1.115  -1.677  0.005066  -0.03207  -0.0338  0.0006197  -0.01895  0.8633
6.429e+09  0.381  -1.981  -0.02623  -0.005133  -0.0382  0.0007747  0.2796  0.8608
6.43e+09  -0.3396  -1.963  0.005566  0.02659  0.04273  0.01924  0.5343  0.6984
6.431e+09  -1.109  -1.669  -0.03487  0.02026  0.03299  0.01838  0.7215  0.4732
6.432e+09  -1.61  -1.153  0.01219  0.04592  -0.0111  -0.0007741  0.8775  0.2163
6.434e+09  -1.928  -0.4543  0.001013  -0.006071  0.01108  0.05148  0.8838  -0.09927
6.435e+09  -1.967  0.215  -0.02761  0.02522  0.02273  -0.02816  0.8371  -0.4142
6.436e+09  -1.689  0.9907  0.0244  0.004439  -0.03981  -0.03159  0.6301  -0.6768
6.438e+09  -1.208  1.62  0.01931  0.01709  0.02315  0.04032  0.3396  -0.7909
6.439e+09  -0.5675  1.959  -0.01008  0.02111  0.01423  0.03093  -0.02023  -0.9156
6.44e+09  0.2119  1.931  -0.003982  0.01754  -0.04431  0.05235  -0.2274  -0.8198
6.441e+09  0.966  1.7  0.01453  0.02944  0.02634  0.01865  -0.485  -0.6821
6.442e+09  1.532  1.226  0.009561  0.01903  -0.0184  0.04572  -0.6957  -0.4701
6.444e+09  1.833  0.6015  -0.0299  0.03333  0.02399  0.000598  -0.8141  -0.1881
6.445e+09  1.892  -0.1415  0.01923  0.01539  0.05033  -0.05548  -0.8402  0.06003
6.446e+09  1.698  -0.8089  0.0101  0.01056  0.01863  -0.02858  -0.7649  0.3943
6.448e+09  1.275  -1.411  0.03723  -0.02312  0.005176  0.006931  -0.6268  0.595
6.449e+09  0.6066  -1.731  -0.01238  -0.03899  -0.00921  -0.01136  -0.3485  0.7345
6.45e+09  0.01155  -1.813  0.02057  0.004356  -0.02013  -0.007132  -0.06905  0.8473
6.451e+09  -0.7195  -1.692  -0.01284  0.05183  -0.01341  -0.004083  0.2307  0.7911
6.452e+09  -1.276  -1.319  0.03718  -0.01351  0.005267  0.03751  0.4377  0.6859
6.454e+09  -1.595  -0.7488  0.003281  -0.01388  0.01673  -0.01513  0.7295  0.4608
6.455e+09  -1.749  -0.0449  -0.01026  0.004824  -0.02618  0.03059  0.7695  0.2234
6.456e+09  -1.645  0.5513  -0.0184  -0.02276  -0.0241  0.02745  0.8  -0.08492
6.458e+09  -1.384  1.089  -0.04167  0.01821  -0.007709  -0.03155  0.7372  -0.343
6.459e+09  -0.8558  1.514  -0.02982  0.01607  -0.02369  -0.05195  0.5512  -0.6235
6.46e+09  -0.2088  1.726  -0.02094  -0.02444  0.01422  0.001845  0.3421  -0.7635
6.461e+09  0.3923  1.651  0.05304  0.004469  -0.003727  0.01156  0.09959  -0.8667
6.462e+09  0.9256  1.364  0.001708  0.02432  -0.01422  -0.02531  -0.2224  -0.748
6.464e+09  1.328  0.9867  0.004388  -0.01478  0.02775  0.00651  -0.4903  -0.6908
6.465e+09  1.585  0.404  -0.0628  -0.0203  -0.02303  -0.04417  -0.6376  -0.4583
6.466e+09  1.565  -0.1335  -0.02403  0.01414  -0.01081  0.007324  -0.7579  -0.2185
6.468e+09  1.476  -0.7035  -0.02957  -0.01395  0.007137  0.04792  -0.78  0.03759
6.469e+09  1.025  -1.168  -0.03605  -0.0003109  -0.01501  -0.02444  -0.7295  0.3351
6.47e+09  0.5092  -1.471  0.01888  0.04419  -0.02267  0.02371  -0.5799  0.5483
6.471e+09  0.01238  -1.629  -0.04505  0.037  0.001632  0.02206  -0.3606  0.7333
6.472e+09  -0.6099  -1.398  -0.02055  -0.01973  0.0367  -0.001824  -0.06493  0.7928
6.474e+09  -1.041  -1.134  -0.007217  -0.02756  -0.05192  0.04178  0.2478  0.7669
6.475e+09  -1.392  -0.654  0.004584  0.01971  -0.009975  0.0009372  0.4653  0.6374
6.476e+09  -1.566  -0.1114  0.01065  0.01715  -0.02246  0.02058  0.6707  0.4646
6.478e+09  -1.417  0.398  -0.02124  -0.008984  -0.04969  0.008345  0.7955  0.1911
6.479e+09  -1.164  0.8456  -0.01536  -0.03228  -0.0145  0.0416  0.7999  -0.0951
6.48e+09  -0.8049  1.273  0.02332  0.04557  0.008856  -0.01087  0.7357  -0.3071
6.481e+09  -0.3382  1.375  0.017  0.05233  0.0159  0.04186  0.5021  -0.5517
6.482e+09  0.2262  1.403  -0.03244  -0.006675  0.01824  0.06378  0.3121  -0.7315
6.484e+09  0.7024  1.244  -0.01799  0.009275  0.03884  0.05677  0.07198  -0.8102
6.485e+09  1.065  0.9797  -0.04274  -0.02126  -0.02132  0.000864  -0.2382  -0.7206
6.486e+09  1.371  0.4983  0.02582  0.01481  0.01942  0.06922  -0.4477  -0.656
6.488e+09  1.958  -0.3945  0.04082  0.01216  0.6808  -0.1469  -0.6444  -0.4347
6.489e+09  1.321  -0.4764  -0.002067  -0.009935  -0.05149  -0.03317  -0.7588  -0.2078
6.49e+09  1.022  -0.9265  0.003864  -0.01128  -0.01547  -0.01428  -0.7901  0.09799
6.491e+09  0.6681  -1.206  0.04286  -0.00863  -0.02026  0.02279  -0.7085  0.369
6.492e+09  0.239  -1.384  -0.01437  0.004917  -0.03683  -0.03266  -0.5601  0.5497
6.494e+09  -0.2198  -1.468  0.002571  0.0231  -0.03891  -0.1148  -0.2974  0.707
6.495e+09  -0.7096  -1.169  -0.003102  -0.04693  0.01164  0.008364  -0.04525  0.7899
6.496e+09  -1.097  -0.8419  -0.005936  0.009219  0.01799  -0.03768  0.2074  0.7389
6.498e+09  -1.284  -0.4021  0.03568  0.002105  -0.01685  -0.01108  0.472  0.5651
6.499e+09  -1.387  0.09275  -0.01213  -0.003156  -0.004871  0.02152  0.6253  0.3797
6.5e+09  -2.32  1.016  -0.02541  0.02313  -0.02114  -0.02215  0.7743  0.1396
6.501e+09  -0.984  1.038  -0.02023  -0.01962  0.01419  0.002243  0.7572  -0.1135
6.502e+09  -0.5432  1.257  0.02712  -0.01429  0.01805  -0.02014  0.6676  -0.331
6.504e+09  -0.1049  1.387  -0.006211  0.004518  -0.03985  -0.0183  0.508  -0.5408
6.505e+09  0.3839  1.275  -0.02551  -0.02566  -0.02465  0.01426  0.2987  -0.7251
6.506e+09  0.7952  1.107  -0.02512  0.01825  0.0058  -0.003273  0.002942  -0.7521
6.508e+09  1.123  0.7256  0.005373  -0.01609  -0.008772  -0.01602  -0.2631  -0.7125
6.509e+09  1.366  0.2587  -0.003532  -0.01086  -0.03804  -0.02271  -0.4596  -0.59
6.51e+09  1.396  -0.198  -0.01838  -0.007782  -0.02874  0.00963  -0.6784  -0.4073
6.511e+09  1.218  -0.6504  0.01592  0.0172  0.0211  -0.011  -0.728  -0.1392
6.512e+09  0.946  -1.027  0.01602  -0.007917  0.01562  -0.07751  -0.7309  0.1225
6.514e+09  0.5035  -1.277  0.005287  -0.00253  0.0006172  -0.01691  -0.6203  0.3823
6.515e+09  0.04831  -1.527  0.003146  -0.01315  0.008258  0.0006423  -0.4664  0.5761
6.516e+09  -0.4192  -1.336  -0.02551  0.01991  -0.01613  -0.03144  -0.2566  0.6784
6.518e+09  -0.9016  -1.072  -0.01698  -0.01634  -0.00219  0.002932  -0.02763  0.7438
6.519e+09  -1.286  -0.723  -0.01647  0.01229  -0.03162  0.01209  0.3007  0.7064
6.52e+09  -1.484  -0.1964  0.001142  0.02454  -0.008437  0.001174  0.4845  0.5846
6.521e+09  -1.464  0.2386  0.004999  -0.005237  -0.001683  -0.002075  0.6648  0.3095
6.522e+09  -1.231  0.7829  0.0004079  0.007406  -0.000996  0.01924  0.7323  0.0697
6.524e+09  -0.9418  1.177  -0.01251  -0.005382  -0.01771  -0.003554  0.7393  -0.1762
6.525e+09  -0.3875  1.415  0.01007  0.00618  -0.06225  -0.009369  0.6314  -0.4106
6.526e+09  0.08593  1.516  0.0256  0.00684  0.01508  0.02472  0.4249  -0.5549
6.528e+09  0.626  1.392  0.01275  0.02952  0.006594  0.02638  0.2146  -0.72
6.529e+09  1.09  1.136  0.0146  0.005833  -0.02901  -0.07061  -0.06194  -0.7019
6.53e+09  1.376  0.6463  -0.002422  0.008973  0.05138  -0.06775  -0.2756  -0.5799
6.531e+09  1.599  0.09143  0.01615  -0.0121  -0.02871  0.01575  -0.4651  -0.4577
6.532e+09  1.537  -0.4869  0.0277  -0.008  0.03099  -0.02186  -0.5959  -0.2749
6.534e+09  1.32  -0.9473  0.03052  -0.009004  -0.03977  -0.02304  -0.6365  -0.08071
6.535e+09  0.9075  -1.366  0.01435  -0.01966  0.03426  0.01951  -0.6107  0.1149
6.536e+09  0.3208  -1.656  -0.04054  -0.03198  -0.03487  -0.03371  -0.5546  0.2911
6.538e+09  -0.2644  -1.605  -0.02743  -0.01114  0.00556  -3.437e-05  -0.4256  0.4448
6.539e+09  -0.8648  -1.425  0.001735  0.02005  -0.01742  -0.02558  -0.2616  0.6142
6.54e+09  -1.27  -1.087  0.03223  0.058  0.02275  -0.0007254  -0.05935  0.7012
6.541e+09  -1.65  -0.5074  -0.006062  -0.004114  0.0174  -0.0009023  0.1988  0.682
6.542e+09  -1.721  0.1187  -0.01022  0.01874  0.01896  -0.007548  0.389  0.533
6.544e+09  -1.586  0.708  -0.03494  0.01162  -0.008594  0.05466  0.6074  0.3866
6.545e+09  -1.26  1.234  -0.00242  0.005593  -0.01214  -0.003288  0.7104  0.1623
6.546e+09  -0.6775  1.603  -0.01365  0.0248  -0.01457  0.005042  0.729  -0.06683
6.548e+09  -0.09932  1.745  -0.03615  0.01323  0.01943  -0.03237  0.6487  -0.3213
6.549e+09  0.5772  1.747  0.01445  0.004428  -0.06625  -0.006399  0.4742  -0.538
6.55e+09  1.18  1.421  0.03779  -0.00901  -0.0316  0.006652  0.2656  -0.6597
6.551e+09  1.619  0.9338  0.007172  0.03199  0.01439  0.01069  0.01164  -0.7273
6.552e+09  1.819  0.2945  0.002683  -0.0041  0.02643  0.03812  -0.2037  -0.7364
6.554e+09  1.874  -0.3872  -0.02284  0.001108  -0.01543  0.001836  -0.4749  -0.5894
