# Hz S RI R 50
6.25e+09  0.4655  -0.8723  -0.02537  0.01688  -0.06186  -0.03701  0.1404  0.4674
6.251e+09  0.1609  -0.9248  0.003453  0.01005  0.01176  -0.02115  0.3643  0.4298
6.252e+09  -0.1936  -0.9484  -0.002194  -0.02965  0.0192  -0.07076  0.5353  0.2421
6.254e+09  -0.5255  -0.8502  0.003513  -0.02741  -0.07087  -0.04415  0.6116  -0.03653
6.255e+09  -0.7405  -0.6  -0.008238  0.02262  0.02805  0.03973  0.6212  -0.2142
6.256e+09  -0.9477  -0.2556  0.02625  0.005556  0.02388  0.006609  0.4947  -0.4095
6.258e+09  -0.9948  0.08147  -0.0001256  -0.05139  -0.04814  -0.007261  0.27  -0.6108
6.259e+09  -0.8778  0.4293  -0.008455  0.02183  0.02838  0.01398  0.05197  -0.6962
6.26e+09  -0.6166  0.6748  0.01896  -0.0204  -0.007481  -0.05357  -0.1967  -0.6655
6.261e+09  -0.3401  0.8508  -0.01342  -0.006157  -0.05198  0.02938  -0.4595  -0.5875
6.262e+09  -0.01953  0.9923  -0.01099  0.02993  0.0006713  0.004341  -0.6227  -0.3515
6.264e+09  0.3234  0.953  0.01301  -0.005531  -0.01545  0.02138  -0.6956  -0.1021
6.265e+09  0.6265  0.7084  -0.0155  -0.01195  0.03534  -0.01012  -0.7033  0.1347
6.266e+09  0.8594  0.4555  -0.001728  0.01196  -0.06893  -0.04123  -0.6194  0.3947
6.268e+09  0.9683  0.1424  0.003406  0.01327  0.007557  -0.01586  -0.4247  0.5898
6.269e+09  0.9047  -0.2267  0.009892  -0.01655  0.04364  -0.005267  -0.2068  0.7066
6.27e+09  0.7733  -0.5084  -0.01219  -0.01744  -0.02118  -0.03993  0.05958  0.7506
6.271e+09  0.551  -0.7611  0.003479  -0.03864  0.03664  -0.04753  0.3409  0.6544
6.272e+09  0.1966  -0.9401  0.004899  0.02533  0.01841  0.03965  0.5512  0.5076
6.274e+09  -0.149  -0.9404  -0.006016  -0.005917  0.02737  -0.01461  0.6878  0.298
6.275e+09  -0.4334  -0.8306  -0.01605  0.02486  0.01173  -0.001561  0.7748  0.03053
6.276e+09  -0.7281  -0.6198  -0.006277  -0.00121  -0.03712  0.04353  0.7341  -0.2221
6.278e+09  -0.9013  -0.357  0.0005866  -0.01626  0.02445  0.01192  0.6452  -0.4488
6.279e+09  -0.9505  -0.02645  -0.01625  -0.007352  -0.05514  0.01278  0.4059  -0.6068
6.28e+09  -0.9357  0.286  -0.02132  0.02192  0.01646  0.009735  0.1428  -0.7405
6.281e+09  -0.6894  0.6243  -0.01356  -0.004691  -0.04182  -0.001804  -0.1478  -0.7834
6.282e+09  -0.4682  0.8123  0.00209  0.002642  -0.02457  0.01457  -0.3565  -0.6986
6.284e+09  -0.1589  0.9437  0.03632  0.004426  0.03377  0.06086  -0.6012  -0.4872
6.285e+09  0.1972  0.9378  0.03325  -0.0005603  0.01247  -0.08877  -0.7116  -0.2954
6.286e+09  0.5389  0.8011  -0.01166  -0.004259  0.0141  0.02795  -0.7797  -0.003728
6.288e+09  0.7294  0.5843  -0.004838  0.03432  0.01796  -0.01985  -0.7442  0.2551
6.289e+09  0.956  0.249  -0.005436  -0.02564  -0.02511  0.003634  -0.6365  0.5475
6.29e+09  0.92  -0.09049  -0.001011  -0.0005436  -0.04273  0.008482  -0.3962  0.6889
6.291e+09  0.8671  -0.4353  -0.01005  -0.002621  -0.05995  0.01504  -0.1241  0.7666
6.292e+09  0.6889  -0.6853  -0.009902  -0.01585  -0.03546  -0.014  0.1524  0.8211
6.294e+09  0.4338  -0.8551  0.01773  0.02334  0.04475  0.01564  0.3976  0.7188
6.295e+09  -0.01994  -0.9443  -0.03999  -0.01181  -0.004388  0.0199  0.643  0.5725
6.296e+09  -0.2789  -0.8929  -0.02329  -0.01547  -0.05435  -0.00262  0.7737  0.3006
6.298e+09  -0.5552  -0.7262  -0.007095  0.01583  0.009878  0.009715  0.8188  0.01882
6.299e+09  -0.78  -0.4753  0.01707  0.02224  0.03373  -0.01167  0.803  -0.2842
6.3e+09  -0.8654  -0.1661  0.03282  0.009752  -0.01304  0.02586  0.6261  -0.5391
6.301e+09  -0.9044  0.1696  0.01046  -0.04214  -0.005696  -0.02777  0.4575  -0.7182
6.302e+09  -0.7817  0.4885  0.01061  -0.0222  -0.008439  0.03076  0.1587  -0.8191
6.304e+09  -0.5863  0.792  0.01097  -0.001252  -0.06469  0.05162  -0.1328  -0.8051
6.305e+09  -0.2986  0.8673  -0.01125  -0.006858  -0.004225  -0.03329  -0.4244  -0.7751
6.306e+09  0.067  0.9774  -0.01522  0.0213  -0.005778  0.04358  -0.6414  -0.5486
6.308e+09  0.3334  0.8793  0.003971  -0.007379  -0.04178  -0.02607  -0.8511  -0.2844
6.309e+09  0.6695  0.6579  -0.02659  -0.02133  0.02569  -0.01394  -0.8765  -0.04391
6.31e+09  0.8646  0.3362  -0.0123  0.01101  0.03952  0.03939  -0.8081  0.2781
6.311e+09  0.9623  0.1183  -0.007632  -0.01461  -0.01395  0.003009  -0.6687  0.5419
6.312e+09  0.9201  -0.2484  0.01416  -0.004019  -0.04553  -0.052  -0.4077  0.7634
6.314e+09  0.7875  -0.5404  -0.004635  -0.0002574  -0.01305  0.02178  -0.169  0.8524
6.315e+09  0.4814  -0.7456  0.04962  0.01704  -0.005544  -0.01735  0.1398  0.8934
6.316e+09  0.1603  -0.9213  0.008439  -0.00167  0.004775  -0.01694  0.4266  0.7802
6.318e+09  -0.08395  -0.9213  0.00631  0.006675  -0.03098  0.008557  0.6889  0.5814
6.319e+09  -0.4926  -0.8432  0.03023  0.01123  0.02941  0.05505  0.8363  0.3179
6.32e+09  -0.7234  -0.6425  0.0146  -0.004044  -0.03885  -0.02849  0.8431  0.0404
6.321e+09  -0.8499  -0.2963  -0.0235  0.01156  0.002771  0.01045  0.8056  -0.3046
6.322e+09  -0.9285  -0.03851  -0.0164  0.008678  0.03972  -0.02776  0.6656  -0.5663
6.324e+09  -0.8968  0.3365  0.02502  0.001845  -0.006579  -0.001449  0.466  -0.7804
6.325e+09  -0.7097  0.6209  -0.006703  -0.02  -0.06182  0.005949  0.1722  -0.8622
6.326e+09  -0.4258  0.8181  0.0219  0.0008996  -0.008017  -0.01253  -0.1374  -0.9137
6.328e+09  -0.1485  0.9558  0.0166  -0.004351  -0.003559  0.02818  -0.4287  -0.7832
6.329e+09  0.2217  0.933  -0.02216  -0.003849  0.02974  0.00215  -0.6937  -0.623
6.33e+09  0.5378  0.8316  -0.009183  -0.009764  -0.0511  -0.04914  -0.8632  -0.3349
6.331e+09  0.7839  0.5259  -0.02137  -0.006182  -0.004782  -9.023e-05  -0.8893  -0.03867
6.332e+09  0.901  0.2241  0.02305  0.008879  -0.01823  0.02843  -0.8942  0.2578
6.334e+09  0.9697  -0.1275  -0.02656  0.002854  -0.0009063  0.01251  -0.6973  0.5253
6.335e+09  0.8232  -0.4309  0.001974  0.01589  -0.008036  -0.009733  -0.5085  0.8082
6.336e+09  0.6912  -0.6584  -0.008791  0.01063  -0.04304  -0.03502  -0.1946  0.8728
6.338e+09  0.3738  -0.9634  -0.02485  0.01827  -0.07025  -0.009649  0.1504  0.9013
6.339e+09  0.05035  -0.972  -0.002551  -0.01514  0.05674  0.0394  0.4405  0.8336
6.34e+09  -0.3309  -0.8965  0.01929  -0.01219  0.01706  -0.02918  0.69  0.6124
6.341e+09  -0.6357  -0.7535  -0.03859  -0.004241  -0.003918  -0.01395  0.8747  0.3545
6.342e+09  -0.8071  -0.4797  -0.01334  -0.005045  0.02433  0.03155  0.9468  0.07425
6.344e+09  -0.9981  -0.134  0.0135  0.0165  0.005759  -0.04807  0.8496  -0.2696
6.345e+09  -0.978  0.2072  -0.01122  -0.003743  0.004147  0.008769  0.7426  -0.5593
6.346e+09  -0.7966  0.5095  0.02393  -0.005327  -0.02251  0.01011  0.513  -0.7767
6.348e+09  -0.5734  0.8075  -0.006494  -0.02853  0.02255  -0.04095  0.1817  -0.8833
6.349e+09  -0.3298  0.9075  0.009299  -0.005851  -0.008729  -0.0004604  -0.1038  -0.9385
6.35e+09  0.06016  1.02  -0.004803  -0.02067  -0.01449  0.00162  -0.431  -0.8423
6.351e+09  0.4067  0.8977  -0.02142  0.02687  0.02012  -0.03569  -0.7009  -0.6496
6.352e+09  0.702  0.7005  -0.01133  -0.005653  0.01797  0.01512  -0.8822  -0.3606
6.354e+09  0.89  0.3751  0.01418  0.009956  -0.009252  -0.01182  -0.918  -0.05951
6.355e+09  1.046  0.01588  0.01168  -0.01495  -0.05055  0.007654  -0.9312  0.2286
6.356e+09  0.9306  -0.3444  0.03202  0.03145  0.03552  0.01216  -0.7569  0.5837
6.358e+09  0.786  -0.6793  0.02305  0.02706  -0.007771  0.04431  -0.5014  0.7992
6.359e+09  0.4858  -0.8818  0.002777  0.03788  0.01451  -0.02367  -0.2318  0.9066
6.36e+09  0.1483  -0.9701  -0.02606  -0.01991  -0.0499  0.01174  0.07005  0.9333
6.361e+09  -0.1885  -0.9388  -0.03534  -0.008372  -0.01318  -0.03591  0.4146  0.8742
6.362e+09  -0.5423  -0.8301  0.01384  0.03006  0.01387  0.0204  0.6955  0.6556
6.364e+09  -0.794  -0.5944  0.0115  -0.01613  0.00714  0.04233  0.8382  0.416
6.365e+09  -0.9948  -0.29  0.002324  0.02234  -0.05346  -0.0006547  0.9381  0.07601
6.366e+09  -0.9716  0.1122  0.009538  -0.004295  -0.003308  0.01796  0.9064  -0.2463
6.368e+09  -0.894  0.4111  -0.01158  -0.01589  0.03626  -0.02621  0.8229  -0.5526
6.369e+09  -0.7331  0.723  0.01019  0.02234  0.004337  0.01175  0.546  -0.7661
6.37e+09  -0.3897  0.9843  -0.003325  -0.006356  0.008783  0.04201  0.254  -0.8826
6.371e+09  0.002213  0.9923  0.02525  -0.02518  -0.01293  0.01588  -0.08737  -0.9503
6.372e+09  0.3482  0.9663  -0.006817  0.007917  0.002535  0.007442  -0.4336  -0.8496
6.374e+09  0.6131  0.75  0.0001502  -0.003765  -0.03784  0.01094  -0.6667  -0.6679
6.375e+09  0.9037  0.5094  0.003212  0.002667  0.03021  -0.04284  -0.8399  -0.3461
6.376e+09  1.013  0.144  -0.01561  0.0324  -0.03024  -0.01142  -0.9735  -0.1153
6.378e+09  1.011  -0.2048  -0.01643  0.0161  -0.01127  -0.01031  -0.9206  0.2425
6.379e+09  0.84  -0.5441  0.01123  0.02252  0.005212  0.06769  -0.8072  0.5266
6.38e+09  0.5872  -0.8201  0.0008939  -0.009894  0.00854  0.006158  -0.5295  0.7474
6.381e+09  0.2899  -0.9619  0.00599  -0.0006785  0.003329  0.006505  -0.2772  0.913
6.382e+09  -0.1259  -1.033  -0.005063  0.02457  0.005755  0.0192  0.0744  0.9653
6.384e+09  -0.466  -0.9371  0.0346  0.01076  0.01331  0.005642  0.4098  0.8783
6.385e+09  -0.808  -0.7341  0.01761  -0.02795  -0.03159  0.01252  0.6834  0.6521
6.386e+09  -0.9714  -0.3312  0.0169  0.003762  0.01856  0.01107  0.8465  0.4012
6.388e+09  -1.071  0.01236  0.009154  -0.001742  -0.03292  -0.0009896  0.9299  0.08913
6.389e+09  -0.9483  0.4068  -0.03903  0.01192  0.01812  -0.03779  0.9462  -0.1983
6.39e+09  -0.7472  0.716  0.0002827  -0.03005  0.004451  0.01565  0.7869  -0.4461
6.391e+09  -0.4328  1.012  -0.009486  -0.03932  0.00936  -0.0242  0.539  -0.7057
6.392e+09  -0.07362  1.069  0.02359  0.01314  -0.01436  -0.01323  0.2888  -0.9053
6.394e+09  0.316  1.02  0.004779  -0.0402  -0.01218  -9.581e-06  -0.06287  -0.935
6.395e+09  0.6888  0.8793  0.04699  -0.001649  -0.01685  0.02097  -0.3676  -0.8344
6.396e+09  0.9053  0.5467  -0.02909  0.01539  -0.02234  -0.0425  -0.5982  -0.6976
6.398e+09  1.035  0.1939  0.003971  0.04048  0.03252  -0.03586  -0.834  -0.4654
6.399e+09  1.05  -0.1826  -0.03665  -0.005713  0.00607  -0.0397  -0.9351  -0.1422
6.4e+09  0.9096  -0.5172  -0.01675  0.0141  0.008317  0.01929  -0.8771  0.2336
6.401e+09  0.7062  -0.7866  0.01217  -0.01091  0.02176  0.001777  -0.7639  0.4585
6.402e+09  0.3485  -1.016  0.02158  0.01929  0.0275  -0.008751  -0.5918  0.6931
6.404e+09  -0.04539  -1.092  -0.001594  -0.01076  -0.01645  0.0159  -0.2913  0.8877
6.405e+09  -0.4702  -0.9934  -0.004195  0.0165  0.02176  0.033  0.033  0.9307
6.406e+09  -0.7776  -0.716  0.01389  0.02548  -0.03112  0.01114  0.2921  0.8598
6.408e+09  -0.9801  -0.46  -0.01358  0.04678  0.0392  -0.01688  0.5889  0.7184
6.409e+09  -1.118  -0.02736  0.02639  0.02567  -0.03525  0.01349  0.8059  0.451
6.41e+09  -1.066  0.3533  -0.02618  -0.01357  0.005332  0.03327  0.9105  0.1792
6.411e+09  -0.8684  0.7102  0.02557  0.00277  -0.01294  -0.0327  0.9207  -0.1162
6.412e+09  -0.5234  0.9778  -0.02599  -0.02032  0.02533  0.0554  0.8242  -0.4095
6.414e+09  -0.1226  1.113  -0.03535  -0.06449  -0.0505  0.002753  0.6075  -0.7055
6.415e+09  0.2749  1.037  0.01828  -0.01572  0.03471  -0.006017  0.3382  -0.8137
6.416e+09  0.6252  0.9195  0.04152  -0.01235  0.01655  0.02281  0.02891  -0.9147
6.418e+09  0.8613  0.5796  0.006697  -0.01243  -0.01926  -0.06299  -0.3011  -0.8371
6.419e+09  1.035  0.2074  -0.01851  0.04069  -0.006877  -0.009266  -0.5767  -0.698
6.42e+09  1.045  -0.1947  -0.0115  0.003827  0.02619  0.02882  -0.7538  -0.4612
6.421e+09  0.8888  -0.5051  0.009061  -0.006791  0.06195  -0.02665  -0.8808  -0.1348
6.422e+09  0.6613  -0.8169  -0.005027  -0.02319  -0.01374  0.01229  -0.8864  0.1189
6.424e+09  0.3555  -1.023  0.002535  0.02063  0.007278  0.04622  -0.7735  0.3642
6.425e+09  -0.01075  -1.085  -0.02824  -0.01379  -0.01984  0.06467  -0.5684  0.6335
6.426e+09  -0.4291  -0.9557  0.02734  -0.01069  0.0001613  -0.003254  -0.3373  0.738
6.428e+09  -0.759  -0.797  -0.001091  0.01992  0.03527  -0.03129  -0.04693  0.8559
6.429e+09  -0.9467  -0.4112  0.02417  0.002128  0.05042  -0.001014  0.2208  0.8439
6.43e+09  -1.04  -0.005027  0.0118  -0.01738  -0.04054  0.00538  0.5251  0.708
6.431e+09  -0.9954  0.3115  0.02463  0.003374  0.007915  0.001065  0.7524  0.5377
6.432e+09  -0.7557  0.6902  0.02353  0.01859  0.03904  0.01746  0.8266  0.2294
6.434e+09  -0.5496  0.8989  0.004232  0.02424  0.001702  0.04314  0.8733  -0.0638
6.435e+09  -0.1679  1.008  0.03703  -0.01769  8.481e-05  -0.01279  0.7929  -0.4042
6.436e+09  0.187  1.006  -0.02947  -0.01321  0.01399  -0.004174  0.6003  -0.6161
6.438e+09  0.5806  0.8781  0.02221  -0.0005643  0.01067  0.008352  0.3669  -0.7896
6.439e+09  0.8269  0.633  0.03702  0.02652  -0.007033  0.01588  0.04793  -0.8669
6.44e+09  1.015  0.2645  0.01175  -0.02044  0.03312  0.05567  -0.2915  -0.838
6.441e+09  1.043  -0.06036  0.008888  -0.01951  0.005629  0.03246  -0.507  -0.6607
6.442e+09  0.9581  -0.4769  -0.0628  -0.009124  0.01022  0.02113  -0.7128  -0.5135
6.444e+09  0.7146  -0.7672  0.03621  0.005186  0.01695  0.01748  -0.7993  -0.2167
6.445e+09  0.4107  -0.9854  0.0083  0.03517  0.009177  -0.01867  -0.875  0.1094
6.446e+09  0.04386  -1.031  0.04238  0.02309  0.009772  0.02581  -0.7226  0.3586
6.448e+09  -0.3236  -0.9281  -0.01438  0.008311  0.05366  -0.05606  -0.62  0.5999
6.449e+09  -0.6235  -0.7617  0.05602  -0.009503  0.01654  0.003122  -0.3615  0.7622
6.45e+09  -0.8783  -0.5038  0.01934  0.01453  0.03205  0.01188  -0.07067  0.8302
6.451e+09  -1.001  -0.2279  0.01306  -0.008895  -0.01649  0.05324  0.2957  0.7903
6.452e+09  -0.9391  0.1665  -0.03401  -0.0008749  0.02516  -0.005753  0.4776  0.69
6.454e+09  -0.8131  0.5063  -0.005355  -0.01234  -0.0351  0.02422  0.6559  0.472
6.455e+09  -0.5845  0.7257  -4.032e-05  0.02511  0.005862  -0.01619  0.8076  0.2284
6.456e+09  -0.2495  0.9026  -0.008479  -0.04913  0.0005728  0.02502  0.8302  -0.04893
6.458e+09  0.05439  0.9706  0.04807  0.02777  -0.01813  0.01678  0.7516  -0.3709
6.459e+09  0.3906  0.9001  0.04197  0.003405  -0.02734  0.01065  0.5656  -0.5932
6.46e+09  0.6853  0.669  0.02123  -0.01031  -0.02283  0.007582  0.3063  -0.7708
6.461e+09  0.9175  0.3975  0.001337  -0.01451  0.01041  0.0014  0.05666  -0.8331
6.462e+09  0.9959  0.09491  -0.0188  -0.01732  0.007327  -0.03691  -0.2038  -0.7858
6.464e+09  0.8969  -0.2559  -0.009674  0.01677  0.07583  -0.004103  -0.5169  -0.6224
6.465e+09  0.7513  -0.5798  -0.0224  0.01214  -0.008672  0.02309  -0.6464  -0.4782
6.466e+09  0.4939  -0.8052  0.0432  -0.009175  0.07158  -0.009498  -0.809  -0.1907
6.468e+09  0.2241  -0.9483  0.01182  -0.02037  -0.02575  0.04163  -0.8146  0.1064
6.469e+09  -0.1503  -0.9599  -0.0414  0.02235  0.04069  -0.04687  -0.7056  0.3624
6.47e+09  -0.455  -0.807  0.01217  0.01669  0.04259  -0.0006092  -0.573  0.5894
6.471e+09  -0.6975  -0.6163  -0.005044  0.01641  0.01183  -0.000361  -0.3159  0.7356
6.472e+09  -0.8859  -0.3466  0.06069  0.01743  -0.04245  -0.0368  -0.06041  0.7998
6.474e+09  -0.9385  0.02667  0.03095  -0.005402  0.0217  0.01673  0.2032  0.7523
6.475e+09  -0.8496  0.3644  0.02766  -0.002696  -0.00209  0.002553  0.4674  0.6543
6.476e+09  -0.6815  0.6069  -0.01329  0.01633  0.005076  0.01093  0.6449  0.4793
6.478e+09  -0.4752  0.7897  -0.02798  -0.03813  0.003444  0.05299  0.7583  0.2045
6.479e+09  -0.1255  0.8737  0.02903  -0.01922  -0.03397  0.07192  0.7365  -0.09396
6.48e+09  0.1909  0.9376  -0.02311  0.05222  -0.0404  0.0003172  0.699  -0.3589
6.481e+09  0.4578  0.7793  0.01161  0.01127  -0.01984  -0.03428  0.5465  -0.5873
6.482e+09  0.7169  0.5179  0.058  -0.01449  0.01038  -0.01794  0.3547  -0.7095
6.484e+09  0.8304  0.3047  -0.00982  -0.02066  -0.01696  -0.02307  0.08939  -0.7621
6.485e+09  0.8996  -0.09178  -0.006583  -0.03679  -0.04656  0.01234  -0.2154  -0.7023
6.486e+09  0.8516  -0.3601  0.01517  -0.00271  -0.02914  0.0406  -0.4594  -0.6126
6.488e+09  0.7144  -1.329  0.0231  0.01018  -0.05741  0.7293  -0.662  -0.3609
6.489e+09  0.4583  -0.8461  0.003995  -0.003072  0.01179  0.02329  -0.7482  -0.154
6.49e+09  0.1242  -0.8968  0.03026  -0.009447  0.01457  -0.05204  -0.7519  0.0497
6.491e+09  -0.1979  -0.8828  0.02287  0.03534  -0.04686  0.004738  -0.7122  0.3321
6.492e+09  -0.4769  -0.8069  -0.02541  0.002473  0.03285  -0.07269  -0.5693  0.5821
6.494e+09  -0.7013  -0.487  -0.03942  0.01611  0.1108  0.04155  -0.3265  0.7447
6.495e+09  -0.9206  -0.2572  0.01869  -0.02883  0.01351  0.02517  -0.02291  0.7873
6.496e+09  -0.9262  0.08554  -0.02002  0.009305  -0.0162  0.05665  0.2117  0.7269
6.498e+09  -0.8203  0.3764  0.0006246  -0.00164  -0.003224  -0.005939  0.4951  0.6408
6.499e+09  -0.6286  0.6852  -0.02712  -0.03838  -0.0236  -0.01884  0.6618  0.3752
6.5e+09  0.05135  0.9958  -0.00591  -0.0002272  -0.008144  0.005145  0.775  0.1883
6.501e+09  -0.08469  0.9257  0.00271  0.007104  -0.03666  0.007656  0.7997  -0.1006
6.502e+09  0.2623  0.8921  -0.03698  -0.03724  0.02601  0.02117  0.6412  -0.34
6.504e+09  0.4906  0.7494  0.04055  0.03502  0.02439  0.02776  0.4902  -0.5672
6.505e+09  0.7581  0.5069  -0.03212  -0.007136  -0.00436  0.04183  0.2532  -0.7173
6.506e+09  0.9016  0.2161  -0.003047  0.003981  -0.04735  0.02059  0.03185  -0.7841
6.508e+09  0.8571  -0.1299  0.001621  0.01549  -0.01358  0.01506  -0.2519  -0.726
6.509e+09  0.831  -0.4665  0.04351  -0.02684  0.03138  -0.06356  -0.4698  -0.5758
6.51e+09  0.6113  -0.6882  -0.003416  -0.005043  0.04276  -0.01894  -0.6462  -0.4111
6.511e+09  0.373  -0.8787  0.00553  -0.03988  -0.01073  -0.04202  -0.7317  -0.1365
6.512e+09  0.03706  -0.9604  0.01372  0.007219  0.03842  0.009623  -0.765  0.1421
6.514e+09  -0.2736  -0.9472  -0.003566  0.02476  -0.01368  0.02241  -0.6578  0.3671
6.515e+09  -0.5751  -0.7733  -0.005181  -0.04272  -0.0008134  0.01351  -0.4989  0.5488
6.516e+09  -0.8017  -0.5084  -0.008379  -0.01806  -0.01775  -0.01166  -0.2451  0.7146
6.518e+09  -0.9165  -0.2022  -0.01836  0.04176  -0.01164  0.06116  0.01374  0.7439
6.519e+09  -0.9506  0.1592  0.000715  0.004582  -0.03792  -0.01086  0.2989  0.7027
6.52e+09  -0.8395  0.4744  -0.01156  -0.02928  -0.01808  0.03811  0.5005  0.5267
6.521e+09  -0.6402  0.7285  -0.02527  -0.04054  -0.04657  -0.03582  0.6541  0.3843
6.522e+09  -0.3746  0.9159  0.04964  0.001978  0.01073  -0.003294  0.6702  0.09137
6.524e+09  0.006616  0.9767  -0.00202  -0.03554  -0.03312  0.04845  0.7085  -0.193
6.525e+09  0.4088  0.8785  -0.003083  -0.004514  0.0233  0.006879  0.6103  -0.3762
6.526e+09  0.6219  0.7619  0.009829  0.01818  -0.007817  0.02392  0.388  -0.5842
6.528e+09  0.8528  0.4952  3.373e-05  0.00214  -0.0585  0.01097  0.1707  -0.6699
6.529e+09  0.9701  0.191  -0.01071  0.008963  -0.05377  0.0008781  -0.09221  -0.7083
6.53e+09  0.9494  -0.1826  -0.02945  0.003815  -0.02362  0.02312  -0.2294  -0.6454
6.531e+09  0.8412  -0.5033  -0.001112  0.02822  0.0574  -0.04762  -0.4573  -0.4536
6.532e+09  0.5966  -0.796  0.02824  0.01336  0.002466  0.03007  -0.562  -0.2579
6.534e+09  0.2868  -0.9782  -0.0345  -0.005395  -0.0426  0.0295  -0.6444  -0.04847
6.535e+09  -0.03591  -1.046  0.02822  0.003799  0.01789  0.05164  -0.6488  0.1056
6.536e+09  -0.3795  -0.9154  -0.001888  -0.005235  0.01078  0.03821  -0.5926  0.28
6.538e+09  -0.7238  -0.7034  0.02496  -0.06164  0.001392  0.005004  -0.4221  0.5002
6.539e+09  -0.8969  -0.4378  -0.01706  0.02424  -0.0152  -0.0155  -0.2849  0.6411
6.54e+09  -1.038  -0.1074  -0.008239  -0.00736  0.007857  -0.03744  -0.04929  0.6895
6.541e+09  -1.031  0.2421  -0.0115  -0.008523  -0.01735  0.02308  0.1913  0.6647
6.542e+09  -0.8707  0.5912  0.01096  -0.03579  0.02607  0.01068  0.3988  0.5921
6.544e+09  -0.5539  0.8644  0.002345  0.01497  0.02927  -0.05556  0.5976  0.3908
6.545e+09  -0.2824  1.023  -0.009022  0.00386  -0.02994  -0.005345  0.6783  0.1803
6.546e+09  0.163  1.051  0.03082  -0.002424  0.004016  -0.05172  0.7644  -0.08074
6.548e+09  0.4587  0.9508  -0.02814  0.01652  0.01272  0.03105  0.6355  -0.3021
6.549e+09  0.7919  0.7183  -0.007558  -0.00925  -0.03447  0.008453  0.5045  -0.5325
6.55e+09  1.001  0.4026  -0.01931  -0.006291  -0.0007056  0.02509  0.2992  -0.6827
6.551e+09  1.064  0.08474  0.01212  0.001677  -0.03344  -0.02049  0.01593  -0.7772
