# Hz S RI R 50
6.25e+09  0.3004  0.8968  -0.03766  0.002223  -0.04031  0.01045  0.1562  0.4644
6.251e+09  0.6041  0.7495  -0.008609  -0.004609  0.009888  0.008415  0.3697  0.417
6.252e+09  0.8013  0.5077  0.02744  0.04241  0.02565  -0.01555  0.4954  0.2226
6.254e+09  0.9434  0.2252  0.001138  0.02231  -0.01809  -0.01352  0.5849  0.02048
6.255e+09  0.9458  -0.1168  -0.009789  -0.01588  -0.01638  -0.03107  0.5728  -0.2178
6.256e+09  0.8377  -0.4477  -0.01124  -0.01366  0.03323  0.06983  0.4842  -0.4585
6.258e+09  0.6286  -0.7049  0.03129  0.02689  0.0001105  0.02928  0.3196  -0.588
6.259e+09  0.3024  -0.8859  0.01244  0.02372  -0.02809  0.03575  0.06692  -0.6775
6.26e+09  0.08385  -0.9456  0.001042  -0.04345  0.03225  -0.001201  -0.2219  -0.6647
6.261e+09  -0.3224  -0.919  -0.00305  0.02616  0.037  0.01358  -0.4403  -0.5413
6.262e+09  -0.5895  -0.723  0.01973  0.02564  0.04152  0.03617  -0.5889  -0.3428
6.264e+09  -0.8332  -0.4171  0.005938  0.01293  -0.004336  0.02731  -0.6926  -0.09092
6.265e+09  -0.8697  -0.1931  0.00891  0.01086  -0.05476  -0.04221  -0.6778  0.2011
6.266e+09  -0.9147  0.1793  -0.01825  -0.009062  0.02847  -0.02537  -0.6098  0.4154
6.268e+09  -0.8073  0.5119  -0.011  0.01715  0.04592  0.04011  -0.4154  0.6178
6.269e+09  -0.5882  0.7027  0.0207  0.01161  -0.01578  -0.03167  -0.2155  0.7454
6.27e+09  -0.2567  0.8313  0.02273  0.01168  -0.007355  0.03914  0.06762  0.7375
6.271e+09  0.0959  0.9652  -0.0235  0.02138  -0.03745  -0.0234  0.3485  0.6696
6.272e+09  0.3367  0.8777  -0.02504  0.0006445  -0.01396  0.04311  0.533  0.5167
6.274e+09  0.6634  0.7087  0.02469  -0.04034  0.01865  0.007145  0.7122  0.302
6.275e+09  0.7951  0.43  0.0285  0.01898  0.004225  -0.01764  0.767  0.05384
6.276e+09  0.9117  0.09999  -0.01531  0.009646  -0.008628  -0.03244  0.7487  -0.2341
6.278e+09  0.9362  -0.2056  0.004201  0.0158  -0.004051  -0.01941  0.6369  -0.454
6.279e+09  0.7816  -0.5058  -0.01496  0.007453  -0.04377  0.04356  0.4357  -0.6656
6.28e+09  0.5381  -0.8028  0.001096  0.00726  -0.01865  0.05464  0.1595  -0.7749
6.281e+09  0.2063  -0.8655  0.02719  -0.003451  0.02704  -0.04612  -0.1496  -0.7694
6.282e+09  -0.05054  -0.9197  -0.01552  -0.001353  -0.02726  -0.03079  -0.3777  -0.6672
6.284e+09  -0.3686  -0.8416  0.0324  0.01017  0.01506  -0.03436  -0.5986  -0.5377
6.285e+09  -0.6721  -0.6265  0.02873  0.02259  0.006049  -0.01348  -0.7338  -0.2544
6.286e+09  -0.8909  -0.3829  0.004972  0.0009635  0.007862  -0.009402  -0.7973  -0.01059
6.288e+09  -0.914  -0.07348  0.012  -0.01824  -0.02433  0.03244  -0.7823  0.2424
6.289e+09  -0.9228  0.2717  0.005425  -0.004388  -0.01564  0.04495  -0.6223  0.4975
6.29e+09  -0.8316  0.5302  0.00953  -0.003313  0.03136  0.06458  -0.4171  0.6892
6.291e+09  -0.5185  0.808  -0.01491  0.01917  -0.01865  0.008877  -0.1429  0.7859
6.292e+09  -0.2493  0.8606  0.01586  0.01492  -0.007849  0.01703  0.1453  0.8033
6.294e+09  0.1671  0.9544  -0.025  -0.01228  0.02838  -0.01078  0.3782  0.721
6.295e+09  0.4428  0.8684  0.02914  0.01594  0.01437  0.01245  0.6042  0.532
6.296e+09  0.7007  0.6053  0.004645  0.01065  0.03356  -0.02843  0.769  0.3055
6.298e+09  0.9058  0.3323  0.006984  0.03733  0.01565  -0.003193  0.8588  0.04092
6.299e+09  0.9493  0.04423  -0.01344  0.0008407  0.01614  0.04321  0.7961  -0.2732
6.3e+09  0.9035  -0.2799  -0.005362  -0.00152  0.02665  0.0004714  0.6276  -0.5387
6.301e+09  0.7815  -0.6001  0.01749  -0.01769  0.002628  0.02175  0.4145  -0.7198
6.302e+09  0.4739  -0.791  0.02398  -0.008647  0.03196  -0.01219  0.1485  -0.8088
6.304e+09  0.1515  -0.9638  -0.01956  0.02226  -0.002723  0.02992  -0.146  -0.8425
6.305e+09  -0.2185  -1.014  0.01072  0.02207  -0.03946  -0.0514  -0.4073  -0.7285
6.306e+09  -0.5163  -0.8458  0.02497  0.01518  -0.005442  0.02315  -0.6372  -0.5439
6.308e+09  -0.7519  -0.5899  -0.05046  0.007573  0.01798  0.02736  -0.7923  -0.3126
6.309e+09  -0.9129  -0.3573  -0.02589  -0.00838  -0.01824  -0.001302  -0.8395  -0.01858
6.31e+09  -0.9609  0.02254  -0.006638  -0.05043  0.02129  -0.01649  -0.7686  0.2635
6.311e+09  -0.8812  0.3763  -0.003122  0.02048  0.01556  -0.007717  -0.6635  0.5184
6.312e+09  -0.7538  0.6315  0.01805  0.00485  -0.01017  -0.0247  -0.4393  0.7321
6.314e+09  -0.4659  0.8384  0.0011  -0.006653  0.009209  -0.02087  -0.176  0.8735
6.315e+09  -0.09472  0.9958  -0.02251  -0.02279  -0.02471  -0.005296  0.1585  0.8714
6.316e+09  0.2528  0.9681  -0.03454  0.01091  0.02921  0.01841  0.436  0.7349
6.318e+09  0.5622  0.8431  -0.02585  -0.0126  -0.02404  -0.02363  0.6716  0.5967
6.319e+09  0.8544  0.6025  -0.00197  -0.02641  -0.002082  -0.03066  0.8406  0.2978
6.32e+09  0.9887  0.2336  0.01553  0.01177  0.009323  0.01076  0.9156  0.002264
6.321e+09  1.019  -0.04805  0.008536  0.02192  -0.05484  0.01979  0.8216  -0.2894
6.322e+09  0.9473  -0.4212  0.002583  -0.03992  0.02138  0.0197  0.6753  -0.5682
6.324e+09  0.7235  -0.6924  -0.01382  0.02429  -0.0233  0.03242  0.4446  -0.762
6.325e+09  0.4037  -0.9292  0.01449  -0.01029  -0.03902  -0.028  0.114  -0.8764
6.326e+09  0.06582  -1.019  0.03106  -0.0007795  -0.02512  0.04488  -0.1081  -0.8945
6.328e+09  -0.2908  -1.044  0.01048  -0.02253  -0.01892  0.01598  -0.4595  -0.8319
6.329e+09  -0.6211  -0.8147  -0.02939  -0.003258  0.04124  -0.02171  -0.6843  -0.5927
6.33e+09  -0.8897  -0.5643  0.01286  0.01174  -0.0009654  0.005047  -0.8475  -0.3564
6.331e+09  -1.002  -0.2268  0.004472  0.002331  0.05255  0.01065  -0.9432  0.01855
6.332e+09  -1.024  0.113  0.02572  -0.05568  -0.005414  -0.03728  -0.8849  0.3036
6.334e+09  -0.9155  0.5024  -0.02416  -0.008519  0.05274  0.003228  -0.7265  0.5878
6.335e+09  -0.6938  0.8161  0.01557  0.01401  0.001075  -0.01337  -0.5104  0.7758
6.336e+09  -0.3567  0.9876  0.01253  0.0336  0.01223  -0.06357  -0.1749  0.8875
6.338e+09  0.007277  1.043  -0.03075  -0.001028  -0.001516  -0.002058  0.1201  0.9183
6.339e+09  0.3946  1.046  0.0043  0.0002176  0.009785  0.02774  0.437  0.8323
6.34e+09  0.7232  0.8376  -0.01406  -0.01115  0.02114  -0.07472  0.6597  0.63
6.341e+09  0.9716  0.5565  0.02497  -0.02381  -0.03124  0.01109  0.8492  0.3536
6.342e+09  1.086  0.1648  0.009892  -0.01954  0.02483  -0.03924  0.9157  0.07956
6.344e+09  1.076  -0.184  0.02436  0.01453  -0.01151  -0.0145  0.8746  -0.2926
6.345e+09  0.9124  -0.5642  0.01561  0.0309  0.05465  -0.01017  0.7373  -0.5487
6.346e+09  0.6642  -0.8653  0.001573  -0.01384  0.003428  -0.007302  0.5333  -0.7844
6.348e+09  0.3121  -1.083  0.02394  0.006861  -0.007431  -0.007276  0.2495  -0.946
6.349e+09  -0.07294  -1.11  -0.01623  -0.002857  -0.02593  -0.01965  -0.1326  -0.9426
6.35e+09  -0.4857  -1.03  -0.01621  0.0215  0.003102  -0.02719  -0.4168  -0.8217
6.351e+09  -0.8218  -0.822  0.02273  -0.0472  -0.01052  -0.03431  -0.6584  -0.6604
6.352e+09  -1.019  -0.5431  0.02385  -0.01198  0.04582  -0.02261  -0.839  -0.3725
6.354e+09  -1.164  -0.1078  0.0477  0.01433  0.01239  -0.01073  -0.977  -0.02913
6.355e+09  -1.105  0.3029  -0.01086  0.01876  0.02026  -0.02714  -0.9116  0.2797
6.356e+09  -0.9908  0.6685  0.01261  -0.0005675  -0.08071  0.00848  -0.7732  0.5747
6.358e+09  -0.6824  0.9388  0.05054  -0.02816  0.02222  -0.04315  -0.5212  0.797
6.359e+09  -0.339  1.137  -0.01885  -0.003655  0.02223  0.0007867  -0.2271  0.9177
6.36e+09  0.1532  1.15  -0.02765  -0.009293  -0.02672  0.006476  0.09234  0.9409
6.361e+09  0.5741  1.107  0.01471  -0.01291  0.01817  -0.007727  0.3883  0.8335
6.362e+09  0.8713  0.8646  -0.00642  -0.005531  -0.0618  0.04827  0.7068  0.6572
6.364e+09  1.157  0.4204  -0.02638  0.04595  0.01298  -0.02176  0.8803  0.3934
6.365e+09  1.178  0.09765  0.006175  -0.02366  0.02679  0.004225  0.9592  0.06099
6.366e+09  1.175  -0.3451  -0.003783  0.04674  -0.00929  0.05515  0.9501  -0.249
6.368e+09  0.9955  -0.77  -0.05379  -0.008222  0.02598  0.01305  0.774  -0.537
6.369e+09  0.6603  -1.083  0.007439  0.03263  -0.03351  0.01828  0.5417  -0.7707
6.37e+09  0.2352  -1.221  -0.01221  -0.01123  0.02841  0.0123  0.2587  -0.9307
6.371e+09  -0.1571  -1.251  0.02316  -0.01148  0.004314  0.006131  -0.08226  -0.9731
6.372e+09  -0.6389  -1.143  0.03214  -0.0299  0.005373  -0.002656  -0.399  -0.8427
6.374e+09  -0.9444  -0.8383  0.04679  -0.0287  0.001333  -0.02204  -0.6773  -0.6733
6.375e+09  -1.17  -0.4925  0.02703  0.02003  -0.03146  0.06482  -0.8012  -0.3983
6.376e+09  -1.28  0.08253  0.01553  0.00396  0.04356  -0.03025  -0.9233  -0.07838
6.378e+09  -1.22  0.4168  -0.0008522  0.006354  0.006173  0.01012  -0.9176  0.2535
6.379e+09  -0.9646  0.8594  -0.0007044  -8.624e-05  0.009159  0.02885  -0.7581  0.5348
6.38e+09  -0.6325  1.122  0.002769  -0.01873  0.02313  -0.01968  -0.5395  0.7866
6.381e+09  -0.1851  1.337  0.007076  0.01714  0.01896  -0.04313  -0.3315  0.9503
6.382e+09  0.261  1.317  -0.001724  -0.009909  0.01852  0.01506  0.07454  0.9345
6.384e+09  0.6986  1.174  0.009476  0.02329  0.03203  0.03597  0.3618  0.8469
6.385e+09  1.117  0.875  0.0006537  0.03229  0.002118  -0.0279  0.6657  0.6851
6.386e+09  1.323  0.3953  -0.01373  0.03384  0.04378  -0.0251  0.8281  0.4297
6.388e+09  1.45  -0.1198  0.03203  -0.01117  0.005194  -0.01722  0.9162  0.1382
6.389e+09  1.347  -0.5718  -0.004365  0.005618  0.00916  -0.02095  0.9691  -0.212
6.39e+09  1.007  -1.044  0.0358  0.02429  -0.01034  0.008883  0.815  -0.4737
6.391e+09  0.6156  -1.246  0.01117  0.008964  0.01401  0.02366  0.5232  -0.7456
6.392e+09  0.1346  -1.424  0.01068  -0.02516  -0.006988  0.006503  0.3031  -0.891
6.394e+09  -0.3486  -1.414  -0.02026  -0.04724  -0.02653  -0.0595  -0.037  -0.8933
6.395e+09  -0.8151  -1.179  -0.0007746  -0.02574  -0.005211  0.005648  -0.3311  -0.8398
6.396e+09  -1.255  -0.8767  -0.01152  -0.03362  -0.001318  0.04834  -0.5732  -0.6796
6.398e+09  -1.423  -0.4137  0.01178  -0.0008932  -0.05683  0.006399  -0.8423  -0.4098
6.399e+09  -1.545  0.2454  0.0615  0.01576  -0.00755  -0.02569  -0.9083  -0.1492
6.4e+09  -1.411  0.7196  -0.01783  -0.03443  -0.01287  -0.03198  -0.9057  0.1751
6.401e+09  -1.016  1.093  -0.007114  -0.05808  0.02904  0.01537  -0.8125  0.4697
6.402e+09  -0.6276  1.395  -0.01212  0.01359  0.0003565  -0.00715  -0.5717  0.7229
6.404e+09  -0.0106  1.581  -0.02612  -0.008971  -0.009942  -0.0178  -0.3578  0.8611
6.405e+09  0.5438  1.471  0.003465  0.01368  0.001013  0.01456  -0.02215  0.94
6.406e+09  1.021  1.216  -0.03069  -0.01211  -0.006473  -0.003283  0.3342  0.8647
6.408e+09  1.362  0.8055  0.006313  -0.02088  0.03788  -0.0155  0.5985  0.6645
6.409e+09  1.589  0.2895  -0.003493  -0.01927  0.01866  -0.02905  0.8172  0.4628
6.41e+09  1.619  -0.3348  0.01378  -0.02054  0.003926  -0.008294  0.8969  0.2035
6.411e+09  1.399  -0.8309  0.03066  -0.001289  -0.02814  -0.005957  0.9282  -0.17
6.412e+09  1  -1.279  -0.01282  -0.009307  0.02168  -0.01783  0.8413  -0.4456
6.414e+09  0.543  -1.59  -0.005327  -0.006369  -0.005454  0.02343  0.558  -0.7256
6.415e+09  -0.03544  -1.669  -0.02791  -0.003834  0.04731  0.0129  0.3356  -0.834
6.416e+09  -0.6479  -1.581  0.02016  -0.03434  0.02509  -0.04159  0.03366  -0.8883
6.418e+09  -1.182  -1.238  0.01156  -0.0004487  0.06667  -0.02668  -0.2837  -0.9087
6.419e+09  -1.575  -0.7957  -0.01421  0.0256  -0.01157  -0.01763  -0.5703  -0.7506
6.42e+09  -1.793  -0.1655  0.01631  -0.004477  0.02482  -0.008885  -0.7663  -0.4913
6.421e+09  -1.729  0.4183  0.004752  -0.03597  0.06102  -0.03806  -0.8876  -0.1497
6.422e+09  -1.544  1.045  0.002312  -0.004888  0.02  -0.01878  -0.8853  0.1216
6.424e+09  -1.026  1.543  0.02085  0.0009146  0.02034  0.05645  -0.8104  0.4459
6.425e+09  -0.458  1.762  0.02029  -0.03397  -0.003375  -0.059  -0.6015  0.6457
6.426e+09  0.2178  1.836  0.02352  0.006287  -0.006015  0.03336  -0.3749  0.8469
6.428e+09  0.9022  1.752  0.009762  -0.02115  0.01896  -0.04599  -0.08829  0.8793
6.429e+09  1.443  1.266  0.0636  -0.007917  0.01107  -0.02762  0.2763  0.8338
6.43e+09  1.793  0.7126  0.01179  -0.06368  0.002186  -0.03835  0.536  0.7043
6.431e+09  1.948  0.01381  -0.01258  0.01702  0.01524  0.02911  0.7196  0.4913
6.432e+09  1.878  -0.6864  -0.04434  0.03251  -0.03247  0.04383  0.8595  0.2211
6.434e+09  1.531  -1.284  -0.0255  0.01101  0.05663  0.02029  0.8487  -0.104
6.435e+09  0.9363  -1.816  -0.01484  -0.01981  0.05242  0.06726  0.7548  -0.3817
6.436e+09  0.26  -2.064  0.04681  0.02167  0.03387  -0.01063  0.5985  -0.6123
6.438e+09  -0.4623  -2.088  -0.0194  0.00665  -0.008733  0.01791  0.3419  -0.7821
6.439e+09  -1.115  -1.764  0.004222  0.02828  0.03185  -0.002343  0.02479  -0.8572
6.44e+09  -1.817  -1.262  0.01114  -0.02362  -0.01772  0.00812  -0.234  -0.8132
6.441e+09  -2.122  -0.5721  -0.02705  -0.02311  -0.008419  0.05905  -0.5136  -0.6997
6.442e+09  -2.246  0.1988  -0.02874  0.02377  -0.01792  0.03839  -0.738  -0.4831
6.444e+09  -2.139  0.9635  -0.04354  -0.0007265  0.03807  -0.00154  -0.8021  -0.2118
6.445e+09  -1.609  1.744  -0.0474  -0.01028  -0.03639  0.0024  -0.826  0.1172
6.446e+09  -0.9158  2.111  0.005553  0.01045  -0.01452  0.03253  -0.7643  0.3499
6.448e+09  -0.03685  2.362  -0.01255  0.006371  -0.01076  -0.02412  -0.6183  0.5866
6.449e+09  0.7808  2.295  0.01326  -0.007621  0.01661  0.009625  -0.3803  0.7328
6.45e+09  1.6  1.957  -0.01072  -0.01535  -0.02821  0.01765  -0.03915  0.8157
6.451e+09  2.174  1.28  0.02401  -0.01974  0.04264  0.002269  0.2518  0.7843
6.452e+09  2.577  0.4362  -0.03384  0.003748  0.04325  -0.01624  0.5114  0.7042
6.454e+09  2.643  -0.4991  -0.0106  0.01735  0.0001419  0.03698  0.7082  0.4921
6.455e+09  2.361  -1.403  0.004749  -0.0155  0.0628  0.04306  0.7781  0.2502
6.456e+09  1.782  -2.163  0.05773  0.01573  -0.00181  0.03146  0.7975  -0.144
6.458e+09  0.7846  -2.732  -0.0005485  0.008687  0.01705  -0.06547  0.7619  -0.3527
6.459e+09  -0.2402  -2.89  0.02206  -0.01532  -0.06335  0.01543  0.6115  -0.599
6.46e+09  -1.192  -2.802  0.02218  0.02671  -0.1211  0.007528  0.3395  -0.7081
6.461e+09  -2.2  -2.177  -0.01549  -0.009792  -0.01481  -0.03865  0.07916  -0.8169
6.462e+09  -2.894  -1.312  -0.02132  -0.03377  -0.05368  0.06832  -0.1946  -0.7577
6.464e+09  -3.252  -0.07282  -0.01952  -0.004198  -0.03688  -0.03427  -0.4695  -0.6642
6.465e+09  -3.194  1.11  0.007765  0.009665  -0.02658  0.0267  -0.6663  -0.4818
6.466e+09  -2.621  2.172  -0.0161  0.01361  0.01173  0.03734  -0.7857  -0.1545
6.468e+09  -1.752  3.077  0.009981  -0.01553  -0.04921  0.06389  -0.7746  0.02536
6.469e+09  -0.5538  3.501  -0.05218  0.01707  -0.0943  -0.01192  -0.6857  0.3406
6.47e+09  0.8729  3.651  0.005915  0.01419  -0.1221  -0.0685  -0.5659  0.5365
6.471e+09  2.143  3.118  0.01505  -0.0003932  -0.07489  0.07168  -0.3552  0.7249
6.472e+09  3.313  2.374  -0.02034  0.01999  0.0347  -0.09531  -0.04381  0.7655
6.474e+09  4.071  1.097  -0.03087  -0.01561  -0.03469  0.01183  0.1553  0.7608
6.475e+09  4.31  -0.6653  -0.01469  -0.00192  -0.1444  -0.1324  0.4521  0.6412
6.476e+09  3.975  -2.076  0.01389  -0.01282  0.01184  -0.06038  0.6744  0.4686
6.478e+09  2.982  -3.624  -0.01484  0.009035  0.02165  -0.07236  0.7883  0.2015
6.479e+09  1.521  -4.72  0.004385  -0.01922  0.0424  0.01456  0.776  -0.08917
6.48e+09  -0.3963  -5.244  0.03665  -0.01876  0.009396  -0.004826  0.692  -0.3591
6.481e+09  -2.379  -5.082  -0.04107  -0.02182  0.02808  0.0309  0.5345  -0.5605
6.482e+09  -4.164  -3.937  0.0632  0.01927  0.0754  0.008945  0.3048  -0.6884
6.484e+09  -5.687  -2.169  0.02026  -0.005289  0.05432  -0.05909  0.02446  -0.8292
6.485e+09  -6.492  0.3218  -0.01855  -0.03437  -0.02493  0.04421  -0.234  -0.7154
6.486e+09  -6.198  2.91  0.009201  0.01541  0.1664  0.177  -0.4686  -0.5973
6.488e+09  -5.552  5.294  -0.007068  -0.05022  0.01648  -0.6407  -0.6242  -0.411
6.489e+09  -2.552  7.116  -0.004696  -0.02203  -0.1454  0.06305  -0.7858  -0.2106
6.49e+09  0.8824  8.017  -0.01035  0.02343  -0.01605  0.1727  -0.7488  0.08177
6.491e+09  4.282  7.539  0.04935  0.01171  -0.02377  -0.09106  -0.6666  0.3516
6.492e+09  7.451  5.343  -0.02088  -0.04831  0.0323  0.02294  -0.5253  0.5865
6.494e+09  9.366  1.599  0.0416  -0.01675  0.1959  0.1823  -0.3154  0.6636
6.495e+09  9.992  -2.806  0.02957  0.007241  -0.01891  0.06318  -0.02346  0.7645
6.496e+09  8.144  -7.339  -0.0002865  0.001132  -0.07771  -0.1118  0.2305  0.7276
6.498e+09  3.849  -10.7  0.02052  -0.01812  -0.05318  0.08404  0.4649  0.648
6.499e+09  -1.324  -11.4  -0.01301  0.02627  0.09577  0.01171  0.6676  0.4439
6.5e+09  -9.682  0.8739  0.01828  -0.03395  0.2889  0.2871  0.7543  0.1858
6.501e+09  -10.46  -5.157  -0.02354  -0.01218  -0.06787  0.1201  0.7688  -0.09714
6.502e+09  -11.41  0.1813  -0.001949  -0.04216  -0.1541  -0.111  0.6575  -0.3713
6.504e+09  -9.463  5.033  -0.001817  -0.002859  -0.1843  -0.1117  0.4829  -0.5641
6.505e+09  -6.022  8.428  0.005872  -0.0197  0.1273  -0.1465  0.3139  -0.7226
6.506e+09  -1.61  9.596  -0.04584  -0.02201  -0.1017  -0.09709  0.03227  -0.7771
6.508e+09  2.463  8.871  0.04683  0.003569  -0.04023  0.1229  -0.2694  -0.7159
6.509e+09  5.5  6.581  -0.01317  -0.01874  0.0705  0.0497  -0.4965  -0.5357
6.51e+09  7.118  3.584  -0.02099  0.004269  0.01523  0.02378  -0.6213  -0.3748
6.511e+09  7.566  0.3187  -0.005163  0.001439  -0.0758  0.01728  -0.7508  -0.1449
6.512e+09  6.458  -2.447  -0.008673  0.008408  0.06463  -0.04474  -0.7228  0.1289
6.514e+09  4.779  -4.457  0.03126  0.0156  0.08281  0.03076  -0.6779  0.3943
6.515e+09  2.568  -5.652  -0.008446  -0.02646  -0.02826  -0.02699  -0.476  0.5635
6.516e+09  0.221  -5.774  0.006023  -0.01722  -0.00296  0.02034  -0.2615  0.7175
6.518e+09  -1.947  -5.188  -0.02705  -0.009083  0.06244  -0.02419  0.01636  0.7444
6.519e+09  -3.505  -3.958  0.0006716  -0.006666  0.002981  -0.1562  0.2975  0.6755
6.52e+09  -4.462  -2.222  -0.03979  0.03241  0.001584  -0.02422  0.496  0.5795
6.521e+09  -4.723  -0.3505  -0.03807  -0.04054  0.01573  -0.0151  0.6497  0.3677
6.522e+09  -4.364  1.346  -0.02412  0.01438  0.02261  -0.01433  0.7542  0.08534
6.524e+09  -3.342  2.65  -0.03618  -0.01145  -0.01689  0.02518  0.7465  -0.1479
6.525e+09  -2.065  3.684  0.006845  0.004469  0.05283  0.06034  0.6072  -0.3995
6.526e+09  -0.7055  3.963  0.006396  0.05224  -0.006649  -0.04398  0.4365  -0.6049
6.528e+09  0.7844  3.746  -0.01353  -0.008133  0.04196  0.009115  0.1935  -0.6734
6.529e+09  2.038  3.189  0.008285  -0.01806  0.03303  -0.02177  -0.05316  -0.6834
6.53e+09  2.913  2.071  0.003627  -0.01482  -0.006646  0.08114  -0.2704  -0.5917
6.531e+09  3.365  0.8597  0.00112  -0.02636  0.05472  -0.0691  -0.4734  -0.4874
6.532e+09  3.351  -0.3669  -0.02519  -0.01552  0.03204  0.01195  -0.6082  -0.2783
6.534e+09  2.91  -1.413  0.02261  -0.02479  -0.06942  0.02741  -0.6226  -0.1061
6.535e+09  2.107  -2.353  0.01795  0.00621  -0.06393  0.006247  -0.6306  0.1211
6.536e+09  1.078  -2.848  0.01365  0.02215  -0.0915  -0.05021  -0.5661  0.3045
6.538e+09  0.02824  -2.93  -0.03658  0.001183  -0.00517  0.003524  -0.4528  0.4695
6.539e+09  -1.051  -2.705  0.01269  0.03561  0.04909  -0.0396  -0.2671  0.6069
6.54e+09  -1.808  -2.073  -0.03141  0.01399  -0.01855  0.04669  -0.05095  0.6804
6.541e+09  -2.404  -1.263  -0.01159  -0.01434  0.009819  -0.01472  0.192  0.6786
6.542e+09  -2.662  -0.2731  -0.003802  0.0148  -0.01962  -0.03232  0.3898  0.5888
6.544e+09  -2.552  0.6712  0.01431  0.0004762  0.02364  -0.0005353  0.6202  0.4012
6.545e+09  -2.117  1.354  0.007613  -0.02457  0.003199  -0.0137  0.7097  0.1948
6.546e+09  -1.43  2.091  -0.00769  -0.006724  -0.01498  0.04839  0.7469  -0.07938
6.548e+09  -0.6661  2.39  -0.03911  -0.009497  0.02155  0.003401  0.6588  -0.3247
6.549e+09  0.2188  2.412  -0.0007218  0.03355  -0.03805  0.0641  0.494  -0.5264
6.55e+09  1.048  2.093  -0.004645  0.01345  0.01088  -0.01874  0.2993  -0.6779
6.551e+09  1.703  1.564  0.007905  -0.006022  -0.03693  0.09147  0.02684  -0.7151
6.552e+09  2.068  0.7892  0.04086  -0.0285  -0.02747  -0.003682  -0.2319  -0.7208
6.554e+09  2.167  0.01438  0.01017  -0.008423  -0.03853  0.009106  -0.4456  -0.5887
6.555e+09  2.054  -0.7094  -0.0003173  -0.03573  -0.01446  0.0263  -0.6563  -0.3745
