# Hz S RI R 50
6.25e+09  -0.05107  -0.9232  0.02327  -0.03486  0.01833  -0.04082  0.1709  0.4408
6.251e+09  -0.3015  -0.8848  -0.002007  -0.008578  0.02191  -0.00498  0.3893  0.3913
6.252e+09  -0.6107  -0.7055  -0.004273  -0.009781  -0.01318  0.02866  0.5407  0.2036
6.254e+09  -0.8156  -0.401  -0.02636  0.009816  -0.0188  -0.02614  0.6258  0.01998
6.255e+09  -0.9399  -0.03656  -0.001451  -0.007044  0.01372  0.0771  0.552  -0.2438
6.256e+09  -0.8307  0.2378  -0.00135  -0.0242  0.01247  -0.007455  0.4798  -0.4456
6.258e+09  -0.7513  0.5123  0.02289  -0.02357  0.0007658  -0.02981  0.2604  -0.6094
6.259e+09  -0.5579  0.7927  0.008299  0.02829  0.03135  0.03683  0.04144  -0.6809
6.26e+09  -0.2257  0.9147  -0.0457  0.007594  0.0004366  0.02355  -0.1975  -0.6591
6.261e+09  0.1376  0.87  0.02316  0.004947  0.03484  0.00291  -0.4494  -0.5434
6.262e+09  0.4254  0.8249  -0.02766  0.02869  0.02133  -0.02822  -0.6112  -0.3391
6.264e+09  0.6531  0.6004  -0.01583  -0.01942  -0.02232  0.04941  -0.6947  -0.09222
6.265e+09  0.8567  0.3047  -0.01143  -0.006172  0.00481  0.004323  -0.7224  0.2035
6.266e+09  0.9008  0.06034  -0.007955  0.001121  0.01806  -0.009957  -0.614  0.3839
6.268e+09  0.88  -0.298  -0.007826  -0.02167  0.02898  0.03085  -0.4311  0.5933
6.269e+09  0.6849  -0.5739  0.006906  0.03256  -0.06375  -0.003138  -0.2003  0.7017
6.27e+09  0.4327  -0.8604  -0.01626  -0.01422  0.00353  0.04299  0.03619  0.707
6.271e+09  0.1395  -0.9024  -0.008924  0.0179  0.032  -0.04541  0.3283  0.65
6.272e+09  -0.2166  -0.8531  0.01552  -0.002871  0.05892  0.004942  0.5709  0.5335
6.274e+09  -0.5361  -0.725  0.003592  -0.001755  0.011  0.0306  0.7027  0.3509
6.275e+09  -0.743  -0.5427  -0.005916  -0.008114  -0.005457  0.004438  0.7896  0.01595
6.276e+09  -0.8765  -0.2693  0.01017  -0.02235  0.0586  -0.04514  0.7301  -0.2145
6.278e+09  -0.8905  0.05915  -0.0197  -0.01451  -0.01962  -0.03072  0.6373  -0.4632
6.279e+09  -0.7636  0.4212  0.007389  0.003554  -0.02287  -0.03616  0.4031  -0.6657
6.28e+09  -0.6253  0.5892  -0.01261  0.04151  0.06779  -0.04966  0.1498  -0.7918
6.281e+09  -0.347  0.8551  -0.0009249  -0.008394  -0.03433  0.02121  -0.09527  -0.7705
6.282e+09  -0.02634  0.8701  -0.009366  0.01738  0.002437  0.025  -0.408  -0.6693
6.284e+09  0.312  0.887  0.004888  -0.00136  0.02808  -0.01569  -0.5851  -0.5305
6.285e+09  0.5581  0.631  -0.02915  -0.02305  0.036  -0.01441  -0.714  -0.288
6.286e+09  0.7524  0.4165  -0.04254  0.005749  -0.02801  0.04709  -0.789  -0.02083
6.288e+09  0.902  0.1412  -0.02283  -0.01867  -0.06884  -0.03063  -0.7348  0.265
6.289e+09  0.8405  -0.2042  -0.01029  0.02796  0.03504  0.009903  -0.6039  0.5227
6.29e+09  0.7738  -0.4338  -0.04393  0.01051  0.01527  -0.01848  -0.4203  0.6862
6.291e+09  0.5822  -0.6899  -0.004137  -0.01101  0.02965  -0.007259  -0.1619  0.8184
6.292e+09  0.2462  -0.8284  0.0207  0.01206  -0.01445  0.07193  0.1082  0.8069
6.294e+09  -0.05071  -0.8566  0.004895  0.02748  0.06601  -0.000629  0.4082  0.7041
6.295e+09  -0.2953  -0.8697  -0.01402  -0.00594  -0.01865  0.01062  0.6419  0.5435
6.296e+09  -0.5928  -0.71  -0.005628  0.03093  -0.03501  0.0157  0.7567  0.2812
6.298e+09  -0.8108  -0.4309  -0.01102  -0.01366  -0.00533  -0.02084  0.8194  -0.005961
6.299e+09  -0.8841  -0.09793  -0.03418  0.03821  -0.02055  -0.002715  0.7896  -0.2549
6.3e+09  -0.863  0.2295  -0.02469  0.002457  0.02555  -0.02589  0.6373  -0.5277
6.301e+09  -0.7142  0.5253  0.001272  0.01435  -0.01312  0.008242  0.4608  -0.7333
6.302e+09  -0.4728  0.7211  -0.02841  0.0092  0.006149  -0.02191  0.1654  -0.8318
6.304e+09  -0.1849  0.8602  -0.00402  -0.01424  0.03075  -0.0156  -0.1688  -0.8206
6.305e+09  0.1156  0.8446  -0.01005  0.01347  0.007783  -0.02425  -0.4549  -0.7759
6.306e+09  0.3829  0.7983  -0.008128  -0.01315  0.01404  -0.03423  -0.6355  -0.5354
6.308e+09  0.6167  0.6007  -0.0005413  0.009129  0.001557  -0.02066  -0.8176  -0.2829
6.309e+09  0.8004  0.3581  -0.01794  0.003656  0.02267  0.003037  -0.8621  0.00865
6.31e+09  0.8462  0.005692  -0.007093  0.001289  -0.03569  -0.02901  -0.8255  0.2932
6.311e+09  0.8499  -0.2741  -0.01234  0.01598  0.02212  0.04484  -0.6618  0.5535
6.312e+09  0.6516  -0.5625  -0.02333  -0.0136  0.03178  0.02278  -0.4433  0.7539
6.314e+09  0.4307  -0.7733  0.0006776  0.01883  -0.03073  -0.0031  -0.2254  0.8445
6.315e+09  0.1177  -0.8879  0.01245  -0.002054  0.05432  0.05243  0.1304  0.8784
6.316e+09  -0.2073  -0.8911  0.01019  0.05229  -0.02063  -0.01761  0.4364  0.7746
6.318e+09  -0.4877  -0.7714  -0.01505  0.03203  0.04271  0.01151  0.6493  0.5765
6.319e+09  -0.7291  -0.5124  -0.007406  0.01904  -0.005594  0.004433  0.8072  0.3165
6.32e+09  -0.842  -0.2324  0.0114  0.01967  -0.03759  -0.0273  0.9149  0.04599
6.321e+09  -0.9445  0.05197  0.01709  -0.05166  0.01549  -0.007541  0.8454  -0.3101
6.322e+09  -0.7844  0.3964  -0.0317  0.03623  0.02146  0.01299  0.7114  -0.556
6.324e+09  -0.6902  0.6527  0.01569  -0.00438  -0.01562  -0.006643  0.4519  -0.7657
6.325e+09  -0.364  0.7882  -0.01282  0.005474  0.03873  -0.04241  0.1647  -0.8792
6.326e+09  -0.0189  0.9177  -0.009341  0.01621  -0.002144  -0.03621  -0.1424  -0.9354
6.328e+09  0.247  0.8751  -0.002663  0.01492  -0.01691  0.0152  -0.4007  -0.7654
6.329e+09  0.543  0.7209  0.00756  0.01004  -0.05176  0.002494  -0.6627  -0.6692
6.33e+09  0.7741  0.4771  0.006601  -0.02244  -0.03449  0.02277  -0.9125  -0.355
6.331e+09  0.9228  0.1885  0.01256  0.03472  -0.001557  -0.02784  -0.9277  -0.04871
6.332e+09  0.8586  -0.1234  -0.01722  0.04066  0.02769  -0.006099  -0.8385  0.2915
6.334e+09  0.7897  -0.4539  -0.006427  -0.01502  -0.02015  -0.0003994  -0.7049  0.5742
6.335e+09  0.624  -0.6974  0.02196  0.01835  0.05881  0.0192  -0.5099  0.7986
6.336e+09  0.3023  -0.8603  -0.006245  -0.01151  0.06392  -0.0691  -0.179  0.9306
6.338e+09  -0.04979  -0.8583  -0.01062  -0.01636  0.04693  -0.08641  0.09069  0.9416
6.339e+09  -0.3499  -0.895  0.04427  0.006726  0.006007  -0.02866  0.424  0.8408
6.34e+09  -0.6528  -0.6539  0.01797  0.008871  0.01808  -0.03341  0.6728  0.635
6.341e+09  -0.7833  -0.418  -0.03521  -0.01449  -0.06409  -0.007671  0.8726  0.3445
6.342e+09  -0.9271  -0.09844  0.01084  0.0008942  -0.01168  -0.004126  0.9401  0.05753
6.344e+09  -0.9066  0.2121  0.01482  0.01528  0.01168  0.02858  0.9052  -0.2905
6.345e+09  -0.761  0.5534  0.006522  -0.004892  -0.004141  0.04908  0.7613  -0.5519
6.346e+09  -0.5178  0.7677  -0.02053  0.0264  -0.03139  0.004559  0.5086  -0.7715
6.348e+09  -0.2113  0.8647  0.01712  0.02393  -0.007754  -0.00463  0.2402  -0.9236
6.349e+09  0.1177  0.9034  0.002914  -0.005964  0.02537  -0.01877  -0.09381  -0.9303
6.35e+09  0.3812  0.7928  -0.02492  0.01451  -0.02925  0.01613  -0.4374  -0.8124
6.351e+09  0.674  0.5758  0.01115  -1.623e-06  0.001433  0.004759  -0.6962  -0.6599
6.352e+09  0.8884  0.2828  -0.01216  0.009733  0.01705  0.01799  -0.8647  -0.3413
6.354e+09  0.8877  0.006457  -0.02296  0.006105  -0.02617  -0.04344  -0.9587  -0.07745
6.355e+09  0.856  -0.3419  -0.01392  0.004187  0.02986  0.007174  -0.9026  0.2529
6.356e+09  0.7022  -0.6473  0.02747  -0.01783  0.02225  0.01648  -0.7329  0.5467
6.358e+09  0.409  -0.8186  0.02279  0.004066  -0.006855  -0.03124  -0.5293  0.7488
6.359e+09  0.1238  -0.8988  0.03052  0.004138  0.01302  0.04411  -0.2339  0.9424
6.36e+09  -0.2203  -0.9436  -0.007495  -0.05047  -0.01428  0.02064  0.1165  0.9519
6.361e+09  -0.5697  -0.7456  -0.03227  -0.02073  0.008124  0.03569  0.4214  0.8651
6.362e+09  -0.7759  -0.527  -0.006625  -0.0147  0.00575  0.005423  0.7045  0.6847
6.364e+09  -0.9325  -0.2407  -0.01207  0.01205  0.01537  0.002821  0.8828  0.3845
6.365e+09  -0.9233  0.1046  -0.01871  -0.03539  0.03384  -0.01546  0.965  0.08628
6.366e+09  -0.8308  0.4342  0.05166  -0.0006459  -0.03046  -0.04223  0.8915  -0.2606
6.368e+09  -0.5812  0.7251  0.0222  -0.01338  -0.03058  -0.001596  0.7594  -0.5153
6.369e+09  -0.321  0.8572  0.008831  0.01895  -0.002382  -0.01706  0.5708  -0.7987
6.37e+09  0.006027  0.9918  -0.02166  0.04771  -0.04433  -0.02286  0.2417  -0.9228
6.371e+09  0.3253  0.9264  -0.02025  -0.003868  0.02417  -0.03869  -0.06686  -0.9301
6.372e+09  0.614  0.71  0.01047  -0.007984  0.01782  -0.003902  -0.4221  -0.8839
6.374e+09  0.8581  0.4554  -0.01395  -0.02288  0.004456  0.03703  -0.6748  -0.6627
6.375e+09  0.9444  0.1245  0.00364  -0.005195  -0.02495  -0.04044  -0.8658  -0.434
6.376e+09  0.9741  -0.2129  -0.01865  0.001677  0.006282  0.002444  -0.9152  -0.1154
6.378e+09  0.7904  -0.5418  0.007607  0.01959  -0.0233  0.0156  -0.9447  0.2661
6.379e+09  0.5363  -0.8165  -0.0002855  -0.01114  0.02953  -0.0238  -0.7908  0.5449
6.38e+09  0.2312  -0.9747  0.0334  0.01449  -0.06981  0.05317  -0.5467  0.7876
6.381e+09  -0.1129  -0.9679  0.02574  0.02771  0.003759  0.005437  -0.2786  0.9066
6.382e+09  -0.4959  -0.839  -0.0007564  0.04036  0.009484  0.02382  0.0707  0.9631
6.384e+09  -0.758  -0.6135  -0.01058  0.008337  -0.02977  0.01104  0.3691  0.8685
6.385e+09  -0.9427  -0.2998  0.01526  0.02628  -0.02781  0.01629  0.6516  0.6758
6.386e+09  -0.9402  0.03602  0.006985  -0.009894  -0.038  0.0034  0.8161  0.4393
6.388e+09  -0.9343  0.3891  -0.03331  -0.01138  0.0401  0.0537  0.9338  0.1037
6.389e+09  -0.7303  0.6468  -0.01645  -0.01359  0.03378  -0.01739  0.913  -0.1901
6.39e+09  -0.4314  0.8777  0.01329  -0.02756  0.04914  -0.01869  0.8043  -0.5005
6.391e+09  -0.07758  0.9953  -0.01001  0.007304  0.008488  -0.01003  0.5854  -0.7553
6.392e+09  0.3044  0.9363  0.006915  -0.01401  -8.496e-05  -0.0004447  0.2604  -0.8656
6.394e+09  0.6298  0.811  0.002938  0.02403  -0.01236  0.04785  -0.05299  -0.9251
6.395e+09  0.8178  0.4598  0.02415  -0.01781  -0.005738  0.038  -0.324  -0.8615
6.396e+09  0.9943  0.2021  -0.003923  0.0143  0.01765  -0.01259  -0.6003  -0.6746
6.398e+09  0.9353  -0.1641  0.02076  -0.02405  -0.0277  0.01776  -0.7917  -0.4064
6.399e+09  0.8151  -0.474  0.03675  0.02148  0.002841  -0.02467  -0.8861  -0.1288
6.4e+09  0.6155  -0.7477  0.0137  -0.001979  0.02896  -0.001084  -0.8496  0.2024
6.401e+09  0.2642  -0.9095  -0.04056  -0.003382  -0.02547  -0.01795  -0.791  0.443
6.402e+09  -0.1262  -0.9768  0.03407  0.0197  -0.001076  0.02678  -0.5989  0.6952
6.404e+09  -0.4386  -0.8821  -0.00154  0.01709  -0.005212  0.02173  -0.3015  0.8432
6.405e+09  -0.6904  -0.6415  -0.04682  -0.03593  -0.0006582  0.00284  0.02393  0.9496
6.406e+09  -0.8682  -0.3983  0.003673  -0.005998  0.001931  0.02288  0.3546  0.8738
6.408e+09  -0.9557  -0.1174  0.02064  -0.03825  -0.05633  0.009261  0.5525  0.6969
6.409e+09  -0.9491  0.311  -0.01134  -0.003403  0.02743  0.05889  0.8113  0.4575
6.41e+09  -0.7321  0.6478  0.01941  -0.007201  -0.01426  -0.01862  0.909  0.2186
6.411e+09  -0.5027  0.8761  -7.307e-05  -0.01863  -0.007605  -0.0143  0.8999  -0.1425
6.412e+09  -0.177  0.9897  -0.004213  0.01255  0.02744  -0.01799  0.7931  -0.4631
6.414e+09  0.1958  1.002  0.06198  0.01618  -0.02209  0.01572  0.6086  -0.6726
6.415e+09  0.5868  0.7968  -0.02805  0.009968  -0.01566  -0.01385  0.3296  -0.8455
6.416e+09  0.7955  0.6192  0.06805  0.02372  -0.02236  -0.006071  0.03309  -0.9116
6.418e+09  0.9302  0.2584  0.00647  -0.008948  -0.01517  -0.02062  -0.274  -0.8162
6.419e+09  0.9795  -0.07513  0.02497  0.0008604  -0.02024  0.0002073  -0.5375  -0.7435
6.42e+09  0.8787  -0.4494  0.001826  0.02801  0.01913  0.032  -0.7553  -0.4605
6.421e+09  0.6146  -0.7059  0.01586  0.01832  -0.01915  -0.02284  -0.8863  -0.1496
6.422e+09  0.3713  -0.8659  0.05674  -0.01157  0.02406  0.008137  -0.873  0.1158
6.424e+09  0.005828  -0.9875  0.02438  -0.008505  0.0007525  -0.02085  -0.8128  0.4201
6.425e+09  -0.299  -0.886  0.01132  -0.003114  -0.0124  -0.05032  -0.5877  0.637
6.426e+09  -0.6397  -0.7987  -0.02999  0.005251  0.02594  0.03065  -0.3629  0.8074
6.428e+09  -0.8335  -0.4407  0.03031  -0.01477  -0.02012  -0.03512  -0.07186  0.8756
6.429e+09  -0.9282  -0.1578  0.006603  -0.000766  -0.01076  -0.003094  0.2782  0.8726
6.43e+09  -0.9456  0.2084  -0.03836  -0.04237  0.0147  -0.08722  0.5723  0.7341
6.431e+09  -0.8048  0.4881  -0.01871  -0.01965  0.01369  0.04167  0.7123  0.449
6.432e+09  -0.5687  0.7509  0.004409  0.05866  0.04855  0.06125  0.8648  0.1876
6.434e+09  -0.2405  0.9263  -0.01242  -0.00171  0.003618  0.04008  0.8501  -0.0609
6.435e+09  0.03566  0.9301  0.02937  0.01167  0.003021  -0.05057  0.7479  -0.3754
6.436e+09  0.4424  0.8162  0.006434  -0.01437  0.001293  0.03111  0.6078  -0.6205
6.438e+09  0.689  0.6801  0.00722  -0.01971  -0.005216  -0.008833  0.4045  -0.7729
6.439e+09  0.877  0.3692  0.02133  0.02638  0.02087  0.05847  0.05078  -0.887
6.44e+09  0.9283  0.002806  -0.01189  -0.01704  -0.06625  -0.0503  -0.2436  -0.8083
6.441e+09  0.8109  -0.3246  -0.04769  -0.01707  0.01676  -0.02453  -0.5075  -0.6885
6.442e+09  0.7101  -0.6007  -0.02017  -0.0003391  -0.01072  -0.008435  -0.7007  -0.5094
6.444e+09  0.4529  -0.8115  -0.01367  0.005028  0.007119  0.02196  -0.8497  -0.2149
6.445e+09  0.1756  -0.9393  0.00575  0.00516  0.0007591  0.009623  -0.8702  0.061
6.446e+09  -0.1769  -0.9245  0.02562  0.009145  0.003436  0.01371  -0.7722  0.3833
6.448e+09  -0.4445  -0.8354  0.009487  0.08047  0.04287  -0.04437  -0.6041  0.5966
6.449e+09  -0.7437  -0.6089  -0.007327  -0.01902  -0.0009272  0.02443  -0.356  0.7204
6.45e+09  -0.9216  -0.3112  -0.00784  -0.008715  -0.008366  0.04016  -0.09581  0.8319
6.451e+09  -0.9129  0.08085  0.02927  -0.01918  -0.001801  -0.02937  0.2088  0.7815
6.452e+09  -0.8603  0.4132  0.02643  -0.01953  0.04959  0.06536  0.5074  0.6668
6.454e+09  -0.7095  0.6087  0.02418  -0.009513  0.005853  0.0306  0.6943  0.5032
6.455e+09  -0.4195  0.82  0.02912  0.0123  -0.002425  0.01419  0.8028  0.186
6.456e+09  -0.0445  0.8968  0.006867  -0.005904  -0.006043  0.01379  0.809  -0.04624
6.458e+09  0.3059  0.8967  0.004703  0.01358  -0.04971  -0.001588  0.7572  -0.3364
6.459e+09  0.502  0.8153  -0.03295  0.00758  -0.008328  -0.0459  0.5954  -0.5981
6.46e+09  0.7796  0.5572  -0.002856  0.02231  0.03025  -0.002673  0.3585  -0.742
6.461e+09  0.9055  0.1929  0.02146  0.0303  -0.001372  0.01367  0.0824  -0.7943
6.462e+09  0.8888  -0.1337  -0.01974  0.006378  -0.02144  0.05762  -0.2063  -0.7674
6.464e+09  0.8315  -0.3835  -0.01316  -0.007133  0.01339  0.0182  -0.4787  -0.6353
6.465e+09  0.618  -0.7129  -0.02116  -0.01363  -0.0574  -0.02142  -0.708  -0.4827
6.466e+09  0.348  -0.8388  0.02787  -0.01785  0.00502  -0.007451  -0.8013  -0.2476
6.468e+09  0.02079  -0.9033  0.01459  -0.004625  -0.0151  0.01225  -0.8246  0.09968
6.469e+09  -0.2847  -0.8743  -0.001557  -0.001766  0.002389  -0.006326  -0.7505  0.3808
6.47e+09  -0.5765  -0.7041  0.05901  -0.07422  0.03848  0.03797  -0.5707  0.6007
6.471e+09  -0.7217  -0.4686  -0.03918  0.002357  -0.02113  -0.04534  -0.3302  0.7276
6.472e+09  -0.9233  -0.1802  0.01301  0.008645  -0.01126  0.03241  -0.05889  0.8185
6.474e+09  -0.8203  0.1512  -0.01506  0.04613  -0.00795  0.01292  0.1925  0.7769
6.475e+09  -0.7594  0.4309  -0.0204  0.007263  -0.02695  0.01376  0.4993  0.6398
6.476e+09  -0.5622  0.7025  0.02397  0.01764  0.01935  0.0305  0.6566  0.48
6.478e+09  -0.2934  0.7871  -0.01109  -0.02043  -0.032  -0.01163  0.8058  0.2004
6.479e+09  0.009255  0.8943  -0.0236  0.01893  0.0043  0.03722  0.8001  -0.1408
6.48e+09  0.3457  0.7998  -0.02632  -0.01233  -0.02451  -0.01171  0.7232  -0.3018
6.481e+09  0.6139  0.607  0.005015  0.00746  0.02624  -0.01501  0.5556  -0.5742
6.482e+09  0.8017  0.4326  0.02352  0.01195  0.03495  0.0206  0.2934  -0.702
6.484e+09  0.8615  0.09466  -0.004763  -0.007  -0.03826  0.03935  0.02565  -0.794
6.485e+09  0.8391  -0.227  -0.05905  0.02942  0.01538  0.02966  -0.2  -0.7536
6.486e+09  0.7565  -0.4853  0.0153  0.02021  0.04392  0.04252  -0.4574  -0.6558
6.488e+09  0.7157  -1.427  0.01083  0.005197  0.3837  -0.6066  -0.6036  -0.4185
6.489e+09  0.2375  -0.8784  -0.009873  -0.01372  0.006312  0.01955  -0.7609  -0.1899
6.49e+09  -0.05027  -0.877  -0.01328  -0.01009  -0.0377  0.0522  -0.7613  0.0933
6.491e+09  -0.3561  -0.8006  0.003609  -0.01668  -0.002166  -0.005928  -0.7143  0.3481
6.492e+09  -0.5686  -0.6611  0.01907  0.0637  0.02406  -0.01206  -0.52  0.5605
6.494e+09  -0.6283  -0.3447  -0.01433  0.01616  0.1202  -0.09296  -0.3382  0.6996
6.495e+09  -0.9287  -0.06923  -0.005677  0.06132  0.009897  0.005713  -0.06577  0.7624
6.496e+09  -0.93  0.1902  -0.04078  0.02052  0.04495  -0.01366  0.2474  0.734
6.498e+09  -0.7011  0.4799  0.03887  -0.02625  0.02487  0.04668  0.4521  0.6203
6.499e+09  -0.5503  0.7535  -0.00788  -0.02299  0.03688  0.01914  0.6755  0.3809
6.5e+09  0.1688  0.8977  -0.004338  0.03111  0.009243  0.0719  0.785  0.1556
6.501e+09  0.08088  0.9046  0.03391  0.01067  0.03555  -0.01405  0.7544  -0.1544
6.502e+09  0.3735  0.8239  0.03062  0.002191  0.02019  -0.02325  0.7138  -0.3888
6.504e+09  0.6515  0.5652  -0.02546  -0.01261  -0.006164  -0.01319  0.4904  -0.5623
6.505e+09  0.8211  0.3384  0.02817  -0.009125  0.04963  -0.01057  0.2601  -0.7319
6.506e+09  0.9326  0.07311  0.005028  0.0212  -0.0003352  -0.002741  0.0405  -0.7247
6.508e+09  0.8297  -0.2837  0.01946  -0.01777  0.009997  0.01048  -0.258  -0.7237
6.509e+09  0.7213  -0.5678  -0.02906  0.01782  -0.03385  0.03221  -0.4458  -0.5553
6.51e+09  0.5178  -0.7783  0.001425  -0.00781  -0.005542  0.0003023  -0.5997  -0.428
6.511e+09  0.1544  -0.8702  -0.01382  0.01943  0.03833  -0.005083  -0.7251  -0.1373
6.512e+09  -0.1221  -0.8872  0.007205  -0.001068  0.03038  -0.01171  -0.7456  0.1315
6.514e+09  -0.3662  -0.8147  0.001659  -0.01869  0.02402  0.002124  -0.6392  0.3558
6.515e+09  -0.6523  -0.6271  -0.01899  -0.01994  0.008193  -0.01518  -0.4578  0.6018
6.516e+09  -0.8547  -0.3808  0.01589  -0.01118  0.01248  -0.042  -0.2419  0.7423
6.518e+09  -0.8824  -0.02075  0.01226  -0.0003072  0.06455  -0.04217  -0.03197  0.7552
6.519e+09  -0.8913  0.2773  0.01105  -0.01598  -0.02961  -0.038  0.3035  0.7045
6.52e+09  -0.7769  0.5522  0.009579  -0.03271  0.03452  -0.01431  0.4975  0.5324
6.521e+09  -0.5083  0.8386  0.02063  0.00313  -0.03245  0.02711  0.6631  0.3634
6.522e+09  -0.1339  0.9395  0.02546  -0.01062  -0.01414  0.01515  0.702  0.1264
6.524e+09  0.1227  0.8564  -0.001219  0.003927  -0.006981  0.0394  0.708  -0.158
6.525e+09  0.4473  0.8288  -0.01919  -0.02785  -0.000983  0.002812  0.6441  -0.4088
6.526e+09  0.6985  0.5902  0.02254  0.02297  0.00815  0.01966  0.4062  -0.6188
6.528e+09  0.9004  0.303  -0.009821  0.0251  -0.04855  -0.05224  0.2261  -0.7093
6.529e+09  0.9752  0.008072  -0.01164  0.01954  -0.02521  -0.03309  -0.04009  -0.6893
6.53e+09  0.8638  -0.3223  -0.01162  -0.008581  0.02324  -0.01535  -0.3156  -0.6249
6.531e+09  0.7586  -0.5999  0.01137  -0.0212  -0.004963  0.01294  -0.4796  -0.5024
6.532e+09  0.5085  -0.8738  -0.01521  -0.01363  -0.03294  0.01456  -0.595  -0.2601
6.534e+09  0.1026  -1.01  0.01622  -0.007742  -0.006664  -0.01491  -0.6554  -0.1034
6.535e+09  -0.2223  -0.9708  -0.01008  0.009716  0.009188  0.02245  -0.6591  0.1012
6.536e+09  -0.5227  -0.8362  0.009622  0.03189  0.002707  -0.0757  -0.5931  0.2701
6.538e+09  -0.8142  -0.6122  -0.01736  0.006302  -0.02361  -0.02138  -0.4593  0.4704
6.539e+09  -0.9263  -0.2415  -0.005839  -0.02888  -0.03202  -0.04346  -0.2615  0.5969
6.54e+09  -0.9664  0.07746  0.00321  -0.002472  0.00446  -0.006869  -0.04883  0.6621
6.541e+09  -0.9005  0.3596  -0.01529  -0.0009573  0.0471  -0.02169  0.1836  0.7044
6.542e+09  -0.73  0.7121  0.01485  0.02201  0.002425  0.01862  0.4434  0.5964
6.544e+09  -0.4252  0.9002  -0.01765  -0.01802  0.00409  -0.07602  0.5994  0.3944
6.545e+09  -0.09214  0.9299  0.0005886  -0.01201  0.005448  -0.007271  0.7107  0.1658
6.546e+09  0.2857  0.9485  0.02043  0.0007332  -0.04467  0.02452  0.7222  -0.0678
6.548e+09  0.6186  0.8026  0.03948  -0.00365  -0.02862  -0.01676  0.6401  -0.3132
6.549e+09  0.8839  0.6158  0.005929  0.02489  -0.02207  0.01611  0.4828  -0.5598
6.55e+09  0.9982  0.1764  4.052e-05  0.01866  0.03159  0.003576  0.3142  -0.7002
6.551e+09  1.014  -0.1449  -0.001591  -0.003919  0.01356  0.01611  0.04053  -0.7547
