# Hz S RI R 50
6.25e+09  1.036  -0.1138  -0.001541  0.01667  0.06128  0.01976  0.1602  0.4936
6.251e+09  0.9188  -0.4827  -0.01101  -0.01423  0.0006186  0.04285  0.3488  0.4293
6.252e+09  0.7099  -0.7613  -0.01672  -0.01909  0.01529  -0.009646  0.4953  0.2711
6.254e+09  0.3682  -0.9513  -0.02169  0.02368  0.006412  -0.002304  0.6323  0.02372
6.255e+09  -0.02123  -1.018  0.005508  0.002632  0.02426  -0.02003  0.592  -0.2307
6.256e+09  -0.3696  -0.9439  0.03006  -0.01215  0.007192  0.01818  0.4484  -0.4214
6.258e+09  -0.6929  -0.7254  0.009042  -0.0492  -0.02673  0.01909  0.2753  -0.6184
6.259e+09  -0.8959  -0.4174  -0.006319  0.002799  0.009663  0.02507  0.03636  -0.6961
6.26e+09  -0.9962  -0.1203  0.0317  -0.009602  -0.05707  0.00137  -0.2278  -0.6827
6.261e+09  -0.975  0.2483  -0.0001253  0.02507  0.07706  -0.01393  -0.4606  -0.5451
6.262e+09  -0.895  0.5752  -0.01956  0.01267  -0.03352  -0.03875  -0.6295  -0.3565
6.264e+09  -0.5838  0.8427  0.02891  -0.01383  0.02557  0.01558  -0.6901  -0.1176
6.265e+09  -0.2238  0.918  0.0217  -0.003634  -0.00424  -0.04267  -0.6851  0.1323
6.266e+09  0.1343  0.9684  0.01724  -0.003258  0.01607  -0.02604  -0.6059  0.4221
6.268e+09  0.5186  0.8605  0.002771  -0.002124  0.01976  0.02318  -0.4297  0.5869
6.269e+09  0.7253  0.6897  0.01754  -0.01329  -0.03212  -0.04622  -0.2025  0.7248
6.27e+09  0.9408  0.3416  0.04033  -0.01308  -0.0009418  -0.01258  0.07844  0.7393
6.271e+09  0.9508  -0.03459  0.005385  0.03148  0.02459  0.008653  0.349  0.6824
6.272e+09  0.8816  -0.3806  -0.01274  0.006209  0.01117  -0.01588  0.5405  0.509
6.274e+09  0.7329  -0.7092  -0.008894  -0.009881  0.0003027  0.006566  0.6895  0.3235
6.275e+09  0.4708  -0.8284  -0.01312  0.01464  0.006426  -0.04639  0.773  0.05401
6.276e+09  0.1186  -0.958  -0.0174  -0.005369  -0.01451  0.03692  0.7087  -0.2335
6.278e+09  -0.2288  -0.995  0.003158  -0.01542  0.009067  0.02511  0.6221  -0.4571
6.279e+09  -0.5876  -0.8022  0.02513  -0.0167  -0.006526  -0.01657  0.3904  -0.6931
6.28e+09  -0.8091  -0.507  -0.002991  -0.01106  -0.01757  -0.03303  0.1808  -0.7781
6.281e+09  -0.9372  -0.2686  -0.01547  -0.01013  0.0177  -0.01918  -0.106  -0.7599
6.282e+09  -0.9675  0.1225  -0.02026  -0.01024  -0.01364  -0.01286  -0.3591  -0.6741
6.284e+09  -0.9081  0.4799  0.006834  -0.004841  0.01836  -0.00189  -0.5668  -0.5042
6.285e+09  -0.6122  0.7628  0.008393  -0.02278  -0.01694  0.02665  -0.7276  -0.2694
6.286e+09  -0.3575  0.8875  0.02993  -0.004643  0.003875  0.02646  -0.7854  -0.03399
6.288e+09  -0.03431  0.9846  0.04788  0.01921  0.002119  -0.06412  -0.7387  0.2482
6.289e+09  0.3033  0.9179  -0.001856  -0.003882  0.04724  -0.005505  -0.6393  0.5112
6.29e+09  0.6436  0.7351  -0.006457  0.03319  0.006125  -0.05881  -0.3795  0.6876
6.291e+09  0.8718  0.4508  0.02166  0.01297  -0.01236  -0.01617  -0.1685  0.7959
6.292e+09  1.007  0.1442  0.008004  0.002258  0.03872  0.03579  0.1362  0.7927
6.294e+09  0.9769  -0.2695  0.03586  -0.001578  -0.03848  0.05063  0.4005  0.7186
6.295e+09  0.8425  -0.537  0.02418  -0.007506  -0.006693  -0.03313  0.6515  0.5322
6.296e+09  0.5586  -0.7878  -0.003634  -0.02459  -0.02027  -0.01654  0.766  0.2777
6.298e+09  0.2576  -0.9636  -0.005592  0.0001099  -0.004664  -0.005384  0.8408  -0.007866
6.299e+09  -0.1214  -0.9574  -0.007027  -0.0355  0.005105  0.003124  0.7904  -0.2738
6.3e+09  -0.5087  -0.8701  0.01204  -0.00601  -0.0189  0.006189  0.6897  -0.5291
6.301e+09  -0.7616  -0.6491  0.00546  0.02161  -0.02774  -0.03212  0.3809  -0.7049
6.302e+09  -0.9463  -0.3348  0.02028  -0.001362  -0.006884  0.06076  0.1595  -0.812
6.304e+09  -0.9654  -0.0448  -0.002882  -0.01683  -0.01689  0.004088  -0.08964  -0.8621
6.305e+09  -0.9734  0.4181  -0.0184  -0.000871  0.003607  -0.03182  -0.4258  -0.7333
6.306e+09  -0.776  0.6627  -0.00729  -0.007625  0.01962  -0.01824  -0.6499  -0.5633
6.308e+09  -0.4689  0.8916  -0.006248  0.01337  0.0128  0.04312  -0.8142  -0.2997
6.309e+09  -0.1559  0.9736  0.02913  -0.02722  -0.01313  -0.027  -0.8529  0.01742
6.31e+09  0.2154  0.9826  0.01002  0.005797  -0.01661  -0.01546  -0.8233  0.2845
6.311e+09  0.5862  0.8422  -0.02368  0.02751  0.0679  -0.05222  -0.6573  0.5368
6.312e+09  0.7919  0.5782  0.02073  -0.01748  0.003384  0.06189  -0.4484  0.7485
6.314e+09  0.9999  0.3031  -0.008548  0.0007273  0.0001424  -0.01877  -0.1615  0.8693
6.315e+09  0.978  -0.08044  -0.01181  0.003472  0.028  0.07102  0.141  0.8656
6.316e+09  0.9572  -0.4599  -0.01951  -0.008998  0.0191  -0.001369  0.4429  0.7863
6.318e+09  0.6859  -0.7726  0.009553  -0.03097  -0.04474  -0.03546  0.6295  0.5746
6.319e+09  0.3723  -0.9316  0.02903  0.00596  0.01094  0.01159  0.8356  0.3021
6.32e+09  0.04948  -1.019  0.009849  0.001247  -0.007134  0.008918  0.8934  0.02838
6.321e+09  -0.3123  -0.9597  0.002005  0.004875  -0.0145  0.01102  0.8648  -0.2857
6.322e+09  -0.6401  -0.8459  -0.02254  -0.002947  0.03253  -0.06799  0.7065  -0.5825
6.324e+09  -0.9408  -0.4778  0.02456  -0.002475  -0.01309  -0.06049  0.4859  -0.7764
6.325e+09  -0.9603  -0.1544  -0.006309  -0.007494  0.01306  -0.01298  0.2027  -0.8748
6.326e+09  -1.054  0.1857  -0.01269  0.002754  -0.01546  -0.01655  -0.1599  -0.8913
6.328e+09  -0.8938  0.5211  0.02398  0.04114  -0.03956  0.02494  -0.4161  -0.7796
6.329e+09  -0.6576  0.8184  0.00376  0.01986  -0.02715  0.008374  -0.6677  -0.5695
6.33e+09  -0.3338  0.9679  -0.02759  -0.005509  0.02418  -0.0205  -0.8684  -0.3314
6.331e+09  0.1117  1.035  -0.02923  0.01186  -0.002704  -0.01164  -0.9096  0.03088
6.332e+09  0.4426  0.9969  0.03195  0.0143  0.03294  -0.03362  -0.8282  0.2875
6.334e+09  0.7133  0.7449  0.0396  0.03013  -0.008041  0.01162  -0.7309  0.6143
6.335e+09  0.9692  0.4608  -0.03451  -0.02056  0.04696  0.01458  -0.4884  0.8011
6.336e+09  1.042  0.09839  0.00972  -0.02257  -0.005833  0.05443  -0.1863  0.9186
6.338e+09  0.9953  -0.3415  0.01505  0.01727  -0.004842  -0.01242  0.1243  0.8914
6.339e+09  0.8493  -0.5938  -0.003518  -0.001633  0.006493  -0.01797  0.4164  0.8624
6.34e+09  0.5938  -0.893  -0.0258  -0.001839  0.01123  -0.02681  0.65  0.6303
6.341e+09  0.2507  -1.061  0.02321  0.0117  0.04792  0.004029  0.8887  0.3203
6.342e+09  -0.1485  -1.064  0.01515  -0.003365  0.01576  0.01365  0.9093  0.05665
6.344e+09  -0.5294  -0.9165  -0.01048  0.0281  -0.007201  -0.03842  0.8814  -0.2973
6.345e+09  -0.7754  -0.6794  0.02434  0.006261  -0.01076  0.04134  0.7582  -0.5923
6.346e+09  -1.005  -0.3687  0.02956  0.01439  0.002896  0.005572  0.5164  -0.7662
6.348e+09  -1.091  0.04227  0.0004637  -0.03286  -0.02627  -0.0294  0.1905  -0.9193
6.349e+09  -0.9777  0.4167  -0.01932  -0.01385  -0.005016  0.0187  -0.1353  -0.9551
6.35e+09  -0.785  0.7703  0.007605  -0.02357  -0.02339  0.01308  -0.4117  -0.8166
6.351e+09  -0.5187  1.027  -0.02118  0.02281  0.02098  -0.04542  -0.6863  -0.6513
6.352e+09  -0.09573  1.079  0.02669  0.02207  0.01861  -0.004297  -0.855  -0.3765
6.354e+09  0.2951  1.06  -0.003749  0.01434  0.01346  0.02335  -0.9475  -0.02511
6.355e+09  0.6467  0.9138  -0.02242  -0.01496  0.03541  -0.05467  -0.927  0.2821
6.356e+09  0.9056  0.6013  -0.004348  0.02431  0.04535  -0.005538  -0.7623  0.5713
6.358e+09  1.081  0.2792  0.01897  -0.01268  -0.002512  0.004823  -0.5137  0.7768
6.359e+09  1.11  -0.1525  -0.004535  -0.006201  -0.006273  0.003392  -0.2189  0.9371
6.36e+09  0.9797  -0.5047  -0.01246  0.01351  0.03671  -0.0148  0.08928  0.9526
6.361e+09  0.7667  -0.8506  0.03667  -0.0337  0.007643  0.003351  0.4044  0.8519
6.362e+09  0.406  -1.023  0.01311  -0.00562  -0.005385  0.001306  0.7361  0.6501
6.364e+09  0.02587  -1.116  0.02799  0.008999  0.04533  0.001958  0.8726  0.4145
6.365e+09  -0.4003  -1.086  -0.01241  0.007265  -0.003383  -0.00773  1.004  0.07595
6.366e+09  -0.7742  -0.8707  0.004093  0.006797  -0.005916  -0.02578  0.915  -0.2407
6.368e+09  -1.083  -0.6097  -0.01065  -0.0007126  -0.0005275  -0.03259  0.7597  -0.5462
6.369e+09  -1.154  -0.1524  -0.01423  0.01497  0.03591  -0.01123  0.5413  -0.7494
6.37e+09  -1.153  0.2806  -0.02007  -0.01978  0.043  -0.01997  0.2681  -0.877
6.371e+09  -0.9658  0.6382  0.008612  -0.01961  0.004222  0.01082  -0.09109  -0.9365
6.372e+09  -0.6676  0.9338  -0.03121  -0.05524  -0.0003852  0.02562  -0.3815  -0.832
6.374e+09  -0.2549  1.145  -0.004744  -0.03803  0.01049  0.03708  -0.669  -0.694
6.375e+09  0.1246  1.156  0.02616  -0.004233  0.00567  0.007965  -0.8648  -0.4193
6.376e+09  0.5443  1.115  -0.0008946  -0.01113  0.009575  0.007845  -0.9521  -0.1273
6.378e+09  0.8953  0.8622  0.0304  -0.01677  0.03093  -0.03294  -0.8907  0.232
6.379e+09  1.187  0.4328  -0.008712  -0.0221  0.000871  -0.06378  -0.7644  0.5301
6.38e+09  1.238  -0.002025  -0.015  0.01349  -0.01952  0.02434  -0.5649  0.7882
6.381e+09  1.175  -0.4472  -0.01735  0.008079  0.001024  -0.01848  -0.2812  0.8806
6.382e+09  0.9358  -0.8671  -0.03091  0.01425  -0.02661  -0.01535  0.05483  0.9605
6.384e+09  0.5759  -1.122  0.03479  0.008776  -0.01075  0.01575  0.3813  0.8543
6.385e+09  0.1533  -1.25  -0.008127  -0.01707  0.002244  -0.005919  0.6502  0.7071
6.386e+09  -0.3904  -1.252  -0.01652  0.01546  -0.02814  0.02041  0.8586  0.4144
6.388e+09  -0.7686  -1.026  0.01359  -0.04504  -0.01751  0.01523  0.9164  0.1354
6.389e+09  -1.122  -0.7586  0.01297  0.0001736  0.03211  0.00779  0.8724  -0.2215
6.39e+09  -1.27  -0.24  0.02679  -0.01243  -0.004625  -0.02235  0.754  -0.5244
6.391e+09  -1.241  0.2691  -0.03035  -0.01276  -0.03698  -0.01583  0.6094  -0.7372
6.392e+09  -1.131  0.6305  0.006239  0.007195  -0.007363  0.004733  0.2526  -0.8688
6.394e+09  -0.8381  1.041  -0.003719  0.01757  0.009974  0.03082  -0.03504  -0.95
6.395e+09  -0.4073  1.313  0.02229  -0.03566  -0.02421  0.008548  -0.3352  -0.8472
6.396e+09  -0.001656  1.436  -0.008001  -0.00792  0.0164  -0.01602  -0.5887  -0.6427
6.398e+09  0.6394  1.276  -0.0156  0.01247  -0.003987  0.03819  -0.8116  -0.4587
6.399e+09  0.9685  0.9976  -0.009479  0.02096  -0.04838  -0.03681  -0.9151  -0.1563
6.4e+09  1.286  0.5347  0.008824  0.01626  0.04527  0.007606  -0.8939  0.1629
6.401e+09  1.412  0.14  -0.01169  -0.03639  -0.006434  0.03036  -0.7887  0.4304
6.402e+09  1.362  -0.4157  0.01587  -0.04899  0.01561  0.01907  -0.5783  0.708
6.404e+09  1.119  -0.9131  -0.0475  0.01879  0.002886  0.04196  -0.3036  0.8415
6.405e+09  0.6842  -1.343  0.01419  -0.02442  0.03639  -0.01678  -0.03744  0.9152
6.406e+09  0.1963  -1.436  -0.02226  0.01106  0.0111  0.004595  0.2573  0.8812
6.408e+09  -0.3575  -1.468  0.007271  0.0135  -0.1019  -0.02918  0.5802  0.702
6.409e+09  -0.8481  -1.208  0.03883  -0.02669  0.02175  -0.02673  0.7542  0.44
6.41e+09  -1.252  -0.8005  -0.04812  -0.0293  -0.03203  -0.03857  0.9341  0.1974
6.411e+09  -1.507  -0.2778  -0.009261  -0.004606  0.002973  -0.01111  0.9099  -0.1558
6.412e+09  -1.408  0.3032  0.004299  0.0192  0.004975  -0.03423  0.8081  -0.3756
6.414e+09  -1.245  0.8271  0.001972  0.04821  0.01135  0.02545  0.5821  -0.6329
6.415e+09  -0.8265  1.227  -0.01961  -0.0315  0.04908  -0.02417  0.3302  -0.8679
6.416e+09  -0.3555  1.475  0.01548  -0.03915  0.003833  0.01587  0.04482  -0.9067
6.418e+09  0.1944  1.547  -0.01251  0.01357  0.01375  0.0282  -0.2818  -0.8894
6.419e+09  0.7598  1.297  0.004155  0.002567  -0.02554  0.01415  -0.5842  -0.6824
6.42e+09  1.166  0.949  -0.02939  -0.01084  0.0261  0.002053  -0.7768  -0.4884
6.421e+09  1.485  0.4625  0.01945  0.01036  -0.02176  -0.06758  -0.8426  -0.2131
6.422e+09  1.589  -0.09132  0.01033  -0.003941  -0.005425  -0.05022  -0.9022  0.1519
6.424e+09  1.403  -0.719  -0.04149  -0.02854  -0.001662  -0.004156  -0.7666  0.3788
6.425e+09  1.013  -1.119  -0.005758  0.01915  -0.01073  -0.02028  -0.6135  0.6599
6.426e+09  0.5584  -1.375  -0.02933  -0.01507  -0.02778  0.04777  -0.353  0.7951
6.428e+09  -0.06176  -1.544  0.01745  0.03193  0.008734  -0.03313  -0.0465  0.8761
6.429e+09  -0.5703  -1.363  0.01593  0.04189  -0.0002124  0.06738  0.273  0.8303
6.43e+09  -1.065  -1.102  -0.01705  0.04795  -0.02823  0.07113  0.4899  0.6958
6.431e+09  -1.302  -0.6284  0.0005493  0.01622  0.0882  0.003516  0.6843  0.4699
6.432e+09  -1.523  -0.08043  0.0003137  0.0224  0.01088  -0.02382  0.8616  0.2235
6.434e+09  -1.393  0.4621  -0.05197  -0.01296  0.01963  0.01211  0.855  -0.0915
6.435e+09  -1.132  0.9753  0.002685  0.01321  0.01255  -0.01401  0.7552  -0.369
6.436e+09  -0.6699  1.297  -0.05649  0.02509  -0.01756  0.03696  0.6195  -0.6051
6.438e+09  -0.1579  1.492  0.02439  0.01939  -0.005765  0.0245  0.358  -0.7473
6.439e+09  0.3295  1.439  0.0142  -0.004654  0.02087  -0.0006857  0.08895  -0.8632
6.44e+09  0.8009  1.166  -0.01591  -0.05233  0.006728  0.03719  -0.2046  -0.828
6.441e+09  1.243  0.6925  -0.0129  0.01848  -0.03461  0.01514  -0.4844  -0.6895
6.442e+09  1.381  0.2768  0.002519  -0.01067  -0.02262  -0.02464  -0.7266  -0.486
6.444e+09  1.402  -0.3173  0.02044  0.02092  -0.0143  0.0241  -0.848  -0.1926
6.445e+09  1.194  -0.7346  -0.04466  0.03874  0.02084  -0.0006944  -0.8534  0.09684
6.446e+09  0.872  -1.112  -0.01076  0.01258  -0.02095  0.01949  -0.7484  0.3963
6.448e+09  0.4024  -1.262  -0.02692  0.00759  -0.03703  -0.006396  -0.5796  0.6165
6.449e+09  -0.2257  -1.351  0.03931  0.007569  -0.03556  -0.01471  -0.3698  0.7677
6.45e+09  -0.6171  -1.196  0.01157  0.006018  -0.02061  -0.01457  -0.03828  0.8459
6.451e+09  -0.9849  -0.9171  -0.00355  -0.03954  -0.0485  -0.08437  0.2422  0.7773
6.452e+09  -1.23  -0.4844  0.01686  -0.01377  0.003308  0.06984  0.4704  0.7257
6.454e+09  -1.325  -0.04065  -0.006911  -0.03056  -0.02991  0.0006533  0.6718  0.44
6.455e+09  -1.229  0.4671  0.03444  -0.06077  0.02288  0.009568  0.7989  0.2355
6.456e+09  -0.9932  0.8641  0.01979  0.01956  0.03525  -0.02083  0.8165  -0.0964
6.458e+09  -0.5863  1.068  -0.003019  0.02135  0.01182  0.0009002  0.7283  -0.3706
6.459e+09  -0.1476  1.27  0.01565  0.01813  -0.04575  -0.04739  0.5884  -0.6016
6.46e+09  0.2922  1.22  0.05018  0.01062  -0.03273  0.02029  0.361  -0.75
6.461e+09  0.7488  1.04  -0.02174  0.01412  -0.01636  -0.02053  0.03586  -0.8221
6.462e+09  1.015  0.7365  -0.02815  -0.01087  -0.08862  0.006495  -0.2236  -0.7924
6.464e+09  1.197  0.2431  -0.02383  -0.03242  0.003445  -0.002756  -0.4512  -0.6334
6.465e+09  1.181  -0.1595  0.02564  0.04125  -0.0381  0.003359  -0.633  -0.4466
6.466e+09  1.109  -0.6289  0.01421  -0.01676  0.01433  -0.0222  -0.7558  -0.2173
6.468e+09  0.7997  -0.9257  -0.04345  -0.006995  -0.03174  -0.01366  -0.81  0.02568
6.469e+09  0.3975  -1.109  -0.01693  0.03159  -0.03204  0.004407  -0.7219  0.3106
6.47e+09  0.01339  -1.17  0.01006  -0.01794  -0.01202  0.04644  -0.5863  0.5448
6.471e+09  -0.4563  -1.143  -0.005635  -0.03195  -0.02598  0.03657  -0.3298  0.753
6.472e+09  -0.8357  -0.8647  0.01405  0.01605  -0.03751  -0.01655  -0.08616  0.7942
6.474e+09  -0.9786  -0.5437  -0.02618  -0.001971  -0.008886  0.004522  0.2471  0.7534
6.475e+09  -1.158  -0.2133  0.00212  0.001801  -0.00215  0.00867  0.4844  0.6312
6.476e+09  -1.126  0.2656  0.01333  0.01739  -0.005098  -0.009533  0.6743  0.4564
6.478e+09  -0.931  0.6851  0.02257  0.05248  0.02028  0.07184  0.74  0.1847
6.479e+09  -0.7024  0.9387  0.03644  0.01755  0.01603  -0.0399  0.8094  -0.06939
6.48e+09  -0.3064  1.095  0.005277  0.03225  -0.01063  -0.04438  0.7073  -0.3507
6.481e+09  0.126  1.119  -0.006579  0.009774  -0.01752  -0.007026  0.5448  -0.5753
6.482e+09  0.4803  1.05  0.0288  0.00692  -0.0183  0.04302  0.3555  -0.7024
6.484e+09  0.7998  0.8134  -0.01281  0.005609  -0.02745  -0.0158  0.06352  -0.7881
6.485e+09  1.046  0.417  -0.006279  0.0082  -0.02218  0.02174  -0.1903  -0.7286
6.486e+09  1.115  0.06786  -0.01291  -1.686e-06  0.01052  0.04821  -0.465  -0.6296
6.488e+09  0.6249  -0.8782  -0.02332  -0.01654  -0.04068  -0.7754  -0.618  -0.4498
6.489e+09  0.88  -0.7176  0.003741  0.03378  0.04666  -0.01815  -0.7433  -0.1521
6.49e+09  0.5892  -0.9371  0.001016  0.0004285  0.006975  0.02459  -0.7588  0.07049
6.491e+09  0.286  -1.059  -0.006767  -0.0293  -0.008508  0.002754  -0.7328  0.356
6.492e+09  -0.1888  -1.065  0.02771  -0.02316  -0.0348  -0.0006368  -0.5548  0.5686
6.494e+09  -0.6079  -0.9009  0.02478  -0.0007097  0.09126  0.05523  -0.2871  0.7163
6.495e+09  -0.8685  -0.7429  0.03311  0.02959  0.01821  -0.04304  -0.0522  0.7707
6.496e+09  -1.059  -0.3674  0.02987  0.03305  0.03993  -0.007787  0.2382  0.733
6.498e+09  -1.122  0.0317  -0.01306  -0.009032  0.005686  -0.05639  0.4896  0.6071
6.499e+09  -1.043  0.4039  -0.01461  0.01341  -0.003435  -0.0002392  0.6582  0.4189
6.5e+09  -0.497  1.425  0.02647  0.008385  0.03436  0.0284  0.7138  0.195
6.501e+09  -0.5278  0.9547  -0.007812  -0.0008305  0.01886  -0.001436  0.7453  -0.09939
6.502e+09  -0.1813  1.063  -0.01707  -0.008572  -0.06618  0.04625  0.6407  -0.32
6.504e+09  0.2405  1.083  -0.0009609  -0.007245  -0.0006736  0.02698  0.5467  -0.5464
6.505e+09  0.5433  0.926  0.02038  -0.01024  -0.01791  -0.02332  0.2769  -0.6861
6.506e+09  0.8971  0.673  -0.01215  0.025  -0.01529  -0.0406  0.03241  -0.7985
6.508e+09  1.046  0.3011  0.02256  0.01085  0.008538  0.01318  -0.2626  -0.7212
6.509e+09  1.136  -0.07894  0.005247  -0.03318  -0.01452  -0.0204  -0.4544  -0.5918
6.51e+09  1.057  -0.4744  -0.006901  -0.01164  -0.02249  0.0387  -0.6366  -0.3895
6.511e+09  0.8094  -0.8084  0.01659  0.01224  -0.01152  0.016  -0.757  -0.1701
6.512e+09  0.5026  -0.9587  -0.03026  0.02822  0.01286  0.02047  -0.7575  0.1332
6.514e+09  0.1025  -1.093  0.002546  -0.007442  0.01811  0.03552  -0.663  0.4108
6.515e+09  -0.2826  -1.115  -0.02518  -0.02835  0.004258  0.03844  -0.4421  0.5719
6.516e+09  -0.6562  -0.9203  -0.001739  0.003016  0.03734  0.02943  -0.2405  0.6631
6.518e+09  -0.9532  -0.6127  0.03115  0.009268  -0.01528  0.007386  0.003153  0.752
6.519e+09  -1.119  -0.2204  -0.02007  0.0105  0.02691  0.01135  0.239  0.7185
6.52e+09  -1.154  0.1748  -0.008776  0.00503  -0.006707  -0.03327  0.5025  0.553
6.521e+09  -1.011  0.5059  -0.004781  0.009371  0.02439  0.02898  0.6549  0.3397
6.522e+09  -0.7975  0.8795  0.01018  -0.04344  -0.04141  -0.007182  0.7121  0.1141
6.524e+09  -0.4386  1.088  -0.002593  0.02089  -0.01309  -0.001212  0.6978  -0.1894
6.525e+09  -0.04954  1.255  -0.0238  0.002009  0.01896  0.01523  0.5719  -0.3595
6.526e+09  0.3508  1.193  -0.05016  -0.00601  -0.03691  -0.03055  0.4141  -0.6054
6.528e+09  0.6933  0.9342  0.02448  -0.02136  0.06095  -0.02979  0.183  -0.6604
6.529e+09  1.054  0.6189  0.01483  0.01089  0.01154  0.05438  -0.02341  -0.6969
6.53e+09  1.187  0.2137  -0.008261  0.004786  0.001825  -0.05947  -0.257  -0.5984
6.531e+09  1.225  -0.2045  -0.001757  -0.03008  0.01143  0.02103  -0.4548  -0.4881
6.532e+09  1.034  -0.5999  -0.0007858  -0.01211  -0.02007  0.03439  -0.5853  -0.283
6.534e+09  0.8492  -0.9253  0.02682  -0.002989  -0.03167  6.811e-05  -0.6283  -0.09671
6.535e+09  0.3864  -1.17  0.01771  -0.0001432  0.009054  0.03846  -0.6297  0.1089
6.536e+09  -0.06346  -1.217  0.007767  0.006855  -0.02511  0.001086  -0.5972  0.2623
6.538e+09  -0.4538  -1.185  0.01004  -0.006214  0.008353  0.008002  -0.4248  0.4953
6.539e+09  -0.8576  -0.9052  -0.01874  -0.01301  0.0004504  -0.003707  -0.2593  0.6192
6.54e+09  -1.199  -0.5802  -0.007172  -0.03211  0.02164  0.01168  -0.07466  0.6825
6.541e+09  -1.281  -0.09925  0.001071  0.02079  0.01184  -0.001039  0.1843  0.6538
6.542e+09  -1.295  0.2945  -0.009781  0.02004  0.004094  0.01747  0.3995  0.5918
6.544e+09  -1.104  0.7956  0.01399  -0.02557  -0.01515  0.04081  0.5686  0.3969
6.545e+09  -0.7425  1.071  0.004125  0.007678  0.004426  -0.02008  0.7289  0.174
6.546e+09  -0.3168  1.337  0.00135  0.0373  -0.001728  -0.01164  0.7237  -0.09472
6.548e+09  0.1832  1.354  -0.01922  0.01031  0.003648  -0.003131  0.6546  -0.3102
6.549e+09  0.7027  1.257  -0.003489  -0.04672  0.013  0.04493  0.4745  -0.5583
6.55e+09  1.013  0.8792  0.008332  -0.009483  0.03319  -0.04903  0.2765  -0.675
6.551e+09  1.374  0.5217  0.009362  0.02117  -0.008366  -0.02924  0.02448  -0.7384
6.552e+09  1.433  0.03793  -0.006378  0.007309  -0.04821  0.01987  -0.2231  -0.6914
