# Hz S RI R 50
6.25e+09  -0.05308  0.9127  0.004536  -0.005706  -0.05313  -0.04129  0.1581  0.4785
6.251e+09  0.2941  0.8801  -0.009095  -0.000667  0.05558  0.04838  0.3661  0.3946
6.252e+09  0.5792  0.6867  0.002033  -0.03149  0.05196  0.01443  0.5424  0.2157
6.254e+09  0.7841  0.4329  0.007546  -0.02351  0.008074  0.03143  0.6187  0.01009
6.255e+09  0.8527  0.1662  0.00922  0.00783  0.01541  0.01055  0.6393  -0.2185
6.256e+09  0.9153  -0.1522  -0.004427  0.01406  -0.02237  0.01016  0.4445  -0.4556
6.258e+09  0.8019  -0.3744  0.01771  0.01315  -0.0473  -0.04307  0.2921  -0.6032
6.259e+09  0.5628  -0.6683  0.02999  0.00531  0.00722  0.006478  0.01882  -0.7056
6.26e+09  0.3217  -0.8  0.03394  0.003977  0.03407  0.03461  -0.2206  -0.646
6.261e+09  0.01546  -0.9034  0.002106  0.03654  0.004978  0.001715  -0.4486  -0.557
6.262e+09  -0.3232  -0.8989  -0.01093  0.02835  0.03879  -0.03763  -0.6302  -0.3266
6.264e+09  -0.5375  -0.7033  0.004314  0.003865  -0.01309  -0.02439  -0.7151  -0.08858
6.265e+09  -0.7598  -0.4079  0.02706  0.02898  0.003165  -0.04296  -0.7028  0.1452
6.266e+09  -0.8549  -0.1903  -0.01654  0.004304  0.01754  -0.04648  -0.6132  0.4089
6.268e+09  -0.841  0.1082  0.01609  0.009527  -0.03225  -0.018  -0.4322  0.5988
6.269e+09  -0.792  0.4598  0.01301  -0.03328  -0.01358  -0.04299  -0.2024  0.7063
6.27e+09  -0.5618  0.7005  0.008482  -0.02532  0.002407  0.02581  0.04234  0.7292
6.271e+09  -0.2737  0.8494  0.03253  0.01175  0.03276  0.003968  0.2979  0.6705
6.272e+09  0.01426  0.8554  0.02617  -0.007216  -0.00987  -0.01262  0.5333  0.5228
6.274e+09  0.3262  0.8781  -0.0003529  0.006224  -0.02275  0.01694  0.6785  0.3112
6.275e+09  0.6023  0.6688  0.009664  -0.002979  0.01667  0.009064  0.7489  0.02689
6.276e+09  0.8178  0.4208  -0.01541  0.02646  -0.02719  -0.01854  0.7108  -0.2212
6.278e+09  0.9199  0.1073  -0.03857  0.01482  -0.01748  -0.003074  0.6109  -0.4443
6.279e+09  0.8768  -0.1584  -0.03383  -0.007504  0.02828  0.03262  0.4119  -0.645
6.28e+09  0.7937  -0.5012  -0.01171  0.0274  -0.003022  -0.03221  0.1546  -0.7573
6.281e+09  0.5005  -0.6676  0.003621  0.003661  0.01626  -0.01833  -0.09772  -0.7816
6.282e+09  0.2501  -0.8551  -0.01596  -0.03327  0.05347  -0.002591  -0.365  -0.6728
6.284e+09  -0.06962  -0.888  0.006662  0.01386  -0.04738  -0.04677  -0.5981  -0.541
6.285e+09  -0.3822  -0.8203  0.001606  -7.972e-05  -0.01551  -0.02449  -0.743  -0.2755
6.286e+09  -0.6064  -0.6475  0.002974  -0.008137  -0.03377  0.02396  -0.7729  -0.00394
6.288e+09  -0.8092  -0.399  -0.02916  0.01168  0.04393  -0.02026  -0.7678  0.2705
6.289e+09  -0.8989  0.004957  -0.01641  0.0001065  0.03516  -0.04086  -0.6188  0.4771
6.29e+09  -0.9278  0.2481  0.0137  0.01636  0.03474  0.04488  -0.3995  0.6933
6.291e+09  -0.7298  0.5508  -0.01183  0.05573  -0.06252  -0.007779  -0.1282  0.7702
6.292e+09  -0.4672  0.727  0.01576  -0.02275  -0.05113  0.008848  0.1503  0.8135
6.294e+09  -0.2003  0.8767  0.001974  -0.004577  0.0002738  0.04211  0.3885  0.7216
6.295e+09  0.08965  0.9086  -0.03185  0.01883  -0.01636  0.02775  0.6119  0.5312
6.296e+09  0.4446  0.8213  -0.005061  0.007228  0.06395  -0.008679  0.7692  0.3147
6.298e+09  0.6845  0.5971  0.002176  -0.009644  -0.03336  0.02178  0.8455  0.02048
6.299e+09  0.8811  0.3271  0.03049  0.04185  0.03516  -0.0009499  0.8116  -0.2687
6.3e+09  0.9567  0.02853  -0.01388  -0.007209  -0.03722  0.01107  0.6526  -0.5244
6.301e+09  0.8724  -0.3343  -0.01032  0.02611  0.01711  -0.03103  0.422  -0.7597
6.302e+09  0.7501  -0.5363  0.03165  -0.0016  0.005069  0.04348  0.1416  -0.8284
6.304e+09  0.4792  -0.7894  -0.008991  0.01148  0.04416  0.006452  -0.1292  -0.8196
6.305e+09  0.1819  -0.9184  0.01046  0.004327  0.003213  -0.02363  -0.4317  -0.7196
6.306e+09  -0.1973  -0.9643  -0.01956  -0.008779  -0.00732  -0.005663  -0.6462  -0.5364
6.308e+09  -0.4537  -0.8171  -0.001913  0.02712  -0.02484  -0.02357  -0.8118  -0.2992
6.309e+09  -0.7048  -0.5953  0.01442  0.03338  -0.04286  0.0042  -0.8687  0.008519
6.31e+09  -0.9314  -0.3392  0.0193  0.03347  0.007471  0.02765  -0.8331  0.318
6.311e+09  -0.9544  0.03225  0.01606  0.01899  -0.04515  -0.03184  -0.6709  0.5631
6.312e+09  -0.8776  0.3665  -6.411e-05  -0.01139  -0.01701  0.06725  -0.4554  0.7343
6.314e+09  -0.7099  0.6237  0.01316  0.01481  -0.007479  0.02815  -0.1635  0.834
6.315e+09  -0.4539  0.8508  0.04624  0.002001  0.02315  -0.02996  0.1697  0.8368
6.316e+09  -0.07844  1.007  -0.005475  -0.009936  -0.006834  0.03287  0.4376  0.7746
6.318e+09  0.2294  0.8911  0.00849  -0.00611  0.02049  0.02745  0.6868  0.5975
6.319e+09  0.5367  0.7991  0.02923  0.01048  0.03101  -0.01583  0.8444  0.3082
6.32e+09  0.8218  0.5626  -0.01209  -0.001284  -0.02343  0.01996  0.8708  0.01257
6.321e+09  0.9768  0.2538  -0.02793  0.00104  0.02724  0.009211  0.8184  -0.2857
6.322e+09  1.006  -0.07768  -0.008412  -0.01195  0.03601  -0.04027  0.6719  -0.5339
6.324e+09  0.8771  -0.4567  0.01808  -0.004769  0.06752  0.01435  0.4679  -0.7766
6.325e+09  0.6921  -0.7367  -0.005831  0.02381  -0.02396  0.01158  0.1635  -0.8975
6.326e+09  0.3358  -0.92  -0.003437  0.01518  0.01435  0.01918  -0.1543  -0.8703
6.328e+09  0.04929  -0.9967  0.01624  0.01564  0.03007  0.0149  -0.4511  -0.8112
6.329e+09  -0.3152  -0.9348  -0.02518  0.01789  -0.007913  -0.02841  -0.6871  -0.5713
6.33e+09  -0.653  -0.7886  -0.01582  0.01355  0.0392  0.009707  -0.8802  -0.3416
6.331e+09  -0.8616  -0.4634  0.02365  0.03915  -0.03874  0.01108  -0.8921  -0.01583
6.332e+09  -1.011  -0.164  -0.0205  0.02664  0.009749  -0.007262  -0.8626  0.295
6.334e+09  -1.014  0.2078  0.03092  -0.01977  0.0243  0.00896  -0.7445  0.5946
6.335e+09  -0.8817  0.5488  -0.027  0.02919  -0.0381  -0.04266  -0.5034  0.7692
6.336e+09  -0.6158  0.8155  0.001382  0.001773  -0.04305  -0.01177  -0.1944  0.8874
6.338e+09  -0.2582  0.9397  -0.01217  -0.0183  0.02823  -0.007407  0.1213  0.9337
6.339e+09  0.02021  1.006  -0.04072  -0.02284  -0.01556  0.042  0.4447  0.8035
6.34e+09  0.3716  0.9216  -0.002895  0.0369  0.001742  0.02633  0.6556  0.6532
6.341e+09  0.7449  0.6716  -0.01693  0.02974  -0.06113  0.007246  0.8842  0.3792
6.342e+09  0.9172  0.4181  0.01665  0.00373  -0.03147  0.01159  0.8916  0.06688
6.344e+09  1.032  0.06439  -0.02901  0.008898  0.05109  0.03302  0.909  -0.236
6.345e+09  0.9526  -0.277  -1.406e-05  -0.005696  0.0208  -0.03788  0.7321  -0.5463
6.346e+09  0.8102  -0.63  0.0362  -0.01849  -0.007145  -0.002759  0.5069  -0.7917
6.348e+09  0.5268  -0.8427  -0.008838  0.002922  0.0171  -0.02776  0.2461  -0.8972
6.349e+09  0.1804  -0.9809  0.002385  0.004573  -0.003683  -0.007576  -0.08588  -0.9212
6.35e+09  -0.1417  -0.9969  0.02213  -0.01323  0.04476  0.009101  -0.409  -0.8706
6.351e+09  -0.52  -0.8864  0.02876  0.006716  0.002878  0.02137  -0.6891  -0.6891
6.352e+09  -0.7687  -0.6533  -0.04347  -0.0152  0.01982  -0.0211  -0.8683  -0.394
6.354e+09  -0.8956  -0.2852  0.004054  -0.001507  0.01244  0.03965  -0.9077  -0.09467
6.355e+09  -1.036  0.04771  -0.006552  0.02436  0.00505  -0.03959  -0.8849  0.2688
6.356e+09  -0.928  0.3706  -0.01982  -0.01547  -0.06449  -0.07114  -0.7371  0.5627
6.358e+09  -0.7377  0.6549  -0.0002774  0.01313  0.01086  0.02619  -0.5396  0.7905
6.359e+09  -0.5156  0.8791  -0.01744  -0.0112  0.0196  0.004023  -0.243  0.9062
6.36e+09  -0.15  1.003  0.01753  0.01402  -0.002764  0.01439  0.05212  0.939
6.361e+09  0.2298  0.9658  0.02094  -0.007122  -0.01581  -0.0329  0.3827  0.848
6.362e+09  0.522  0.7963  0.00725  0.01559  -0.03652  -0.008323  0.6499  0.6783
6.364e+09  0.7735  0.6014  0.01481  0.009205  0.02652  -0.005726  0.8719  0.3617
6.365e+09  0.959  0.2719  0.04575  -0.03162  -0.02778  0.02685  0.9596  0.0687
6.366e+09  1.022  -0.1022  0.007705  0.005391  -0.01615  0.02968  0.9108  -0.235
6.368e+09  0.8717  -0.4505  0.02055  -0.02339  -0.008767  0.01082  0.7445  -0.5424
6.369e+09  0.699  -0.6746  0.02657  0.02432  -0.03489  -0.001435  0.5288  -0.7747
6.37e+09  0.4099  -0.9285  0.03382  -0.04419  -0.02757  -0.01195  0.1957  -0.8926
6.371e+09  0.03863  -1.018  -0.03001  0.03352  0.02142  0.02225  -0.02419  -0.9332
6.372e+09  -0.2906  -0.968  -0.02425  0.02141  -0.004598  -0.003132  -0.3855  -0.8456
6.374e+09  -0.563  -0.7973  0.005656  0.03114  -0.01948  0.002405  -0.6771  -0.6797
6.375e+09  -0.8303  -0.5222  -0.00735  -0.01679  0.002649  0.03888  -0.8557  -0.4068
6.376e+09  -0.9633  -0.1776  -0.00538  -0.03024  -0.02279  -0.01049  -1.003  -0.1175
6.378e+09  -0.9469  0.1655  0.007941  0.03615  0.01943  -0.0128  -0.9014  0.2499
6.379e+09  -0.8642  0.4226  0.01717  0.009844  0.02357  -0.04422  -0.7348  0.5561
6.38e+09  -0.6574  0.7096  -0.004344  -0.01058  0.003473  -0.007687  -0.5808  0.7749
6.381e+09  -0.3423  0.938  0.01259  -0.01387  -0.02244  0.01312  -0.3063  0.8972
6.382e+09  -0.009647  0.9935  0.001856  0.007653  -0.01048  -0.0187  0.07626  0.9196
6.384e+09  0.3432  0.9034  -0.04732  -0.02457  -0.0101  -0.04314  0.3516  0.8826
6.385e+09  0.6057  0.7336  0.03683  0.01692  0.02762  0.004524  0.6643  0.668
6.386e+09  0.8383  0.4607  -0.02056  0.03784  -0.0001031  -0.006844  0.8388  0.4362
6.388e+09  0.977  0.188  -0.01322  0.01137  0.01207  -0.03015  0.9102  0.09345
6.389e+09  0.9833  -0.1397  0.005039  -0.03264  0.007745  -0.02773  0.9039  -0.2278
6.39e+09  0.8864  -0.4959  -0.00379  0.007261  0.02983  0.04621  0.8381  -0.4733
6.391e+09  0.6467  -0.773  0.01861  -0.01387  -0.007719  -0.02464  0.5805  -0.742
6.392e+09  0.3428  -0.9051  -0.01721  0.03044  -0.0108  0.0083  0.2995  -0.8419
6.394e+09  0.0003651  -0.9517  0.02556  0.01742  0.002634  -0.005401  -0.02087  -0.9317
6.395e+09  -0.3055  -0.8831  0.008952  -0.03405  0.01586  -0.007297  -0.381  -0.9044
6.396e+09  -0.6888  -0.6997  -0.009813  0.004751  0.003126  0.01028  -0.5901  -0.7009
6.398e+09  -0.8304  -0.5148  -0.01471  -0.05098  -0.02134  0.04234  -0.7977  -0.4645
6.399e+09  -0.9863  -0.1652  0.009784  0.01605  0.005353  -0.0308  -0.9295  -0.1355
6.4e+09  -0.9636  0.1866  -0.005722  0.03069  -0.01543  0.01092  -0.888  0.1477
6.401e+09  -0.7916  0.5045  0.0605  0.02767  0.01389  0.02065  -0.7966  0.4984
6.402e+09  -0.5424  0.7188  0.02734  0.0003251  -0.01092  0.02248  -0.581  0.7582
6.404e+09  -0.2596  0.9252  -0.00282  -0.009795  0.03073  -0.01187  -0.2852  0.8789
6.405e+09  0.02855  0.9609  0.003123  0.03396  0.0494  -0.0006809  0.00878  0.892
6.406e+09  0.3648  0.8469  0.008988  0.01278  -0.02459  0.06388  0.3469  0.915
6.408e+09  0.6079  0.7299  -0.003081  -0.004611  0.07611  0.03687  0.5709  0.7096
6.409e+09  0.7906  0.4521  -0.02242  -0.01891  0.02447  -0.007203  0.7881  0.4852
6.41e+09  0.9514  0.1255  -0.04602  -0.03878  0.01974  0.03255  0.9217  0.1676
6.411e+09  0.9158  -0.1523  0.001629  -0.02486  -0.01637  -0.02015  0.9049  -0.0831
6.412e+09  0.7956  -0.4805  -0.02735  0.01765  0.002882  0.02985  0.7417  -0.4107
6.414e+09  0.5919  -0.7657  -0.005399  0.02829  -0.0006835  -0.0375  0.5751  -0.676
6.415e+09  0.2752  -0.9049  -0.003965  -0.02221  0.0158  0.01145  0.3035  -0.8228
6.416e+09  -0.08349  -0.9323  0.01543  0.006169  -0.01417  0.02717  0.04429  -0.9172
6.418e+09  -0.3548  -0.9217  -0.02011  0.03123  -0.01374  0.06734  -0.2484  -0.8373
6.419e+09  -0.6979  -0.6665  -0.03233  0.00968  0.0009518  -0.04034  -0.5633  -0.6881
6.42e+09  -0.8582  -0.4381  0.01733  -0.04709  0.01218  -0.0027  -0.723  -0.4536
6.421e+09  -0.9912  -0.05233  0.001382  -0.01004  0.01601  0.0286  -0.8602  -0.2088
6.422e+09  -0.931  0.2254  0.003247  0.006111  0.02135  -0.04142  -0.9162  0.1256
6.424e+09  -0.8078  0.5436  0.02713  0.01126  -0.04245  -0.005879  -0.8124  0.3826
6.425e+09  -0.5758  0.7866  0.03851  0.002069  -0.02389  -0.01075  -0.5797  0.6216
6.426e+09  -0.2508  0.9197  0.02003  0.03172  -0.002998  0.04307  -0.3735  0.8036
6.428e+09  0.05445  0.9863  0.0245  -0.01207  0.01967  -0.02649  -0.05462  0.9033
6.429e+09  0.359  0.8571  0.01691  0.04591  0.02039  0.02293  0.2752  0.8042
6.43e+09  0.7007  0.6352  0.01085  0.01496  -0.007937  0.003755  0.487  0.7322
6.431e+09  0.8724  0.4007  0.009997  0.04013  0.0113  0.007267  0.7118  0.4922
6.432e+09  0.9329  0.1003  0.02537  -0.0202  0.008688  0.005546  0.816  0.196
6.434e+09  0.9527  -0.2931  0.009557  -0.05989  -0.0315  -0.05363  0.8919  -0.1312
6.435e+09  0.7779  -0.5856  0.01301  0.02178  -0.004457  -0.02447  0.767  -0.4069
6.436e+09  0.5677  -0.8851  -0.05125  -0.05847  -0.02835  -0.04305  0.6451  -0.6013
6.438e+09  0.2556  -0.9461  -0.007705  0.006554  -0.01241  0.008842  0.3635  -0.7611
6.439e+09  -0.08571  -0.9761  -0.0475  0.01566  0.03538  0.01085  0.06026  -0.8646
6.44e+09  -0.4842  -0.8637  0.004891  -0.01839  0.005545  -0.008505  -0.212  -0.8065
6.441e+09  -0.7183  -0.6631  -0.0416  0.006349  0.014  0.05081  -0.4994  -0.7105
6.442e+09  -0.8702  -0.3802  -0.01186  -0.02089  0.005803  0.007276  -0.6832  -0.5041
6.444e+09  -0.9664  -0.01498  -0.02935  -0.004647  -0.05998  -0.005376  -0.8045  -0.2324
6.445e+09  -0.9338  0.3056  0.01935  0.005141  -0.00594  -0.00404  -0.8366  0.08779
6.446e+09  -0.7447  0.579  -0.05365  -0.003217  -0.009017  -0.02006  -0.7553  0.3951
6.448e+09  -0.5079  0.8436  -0.01102  0.0178  -0.02378  0.004369  -0.5559  0.605
6.449e+09  -0.1662  0.9367  -0.01979  0.03236  -0.02204  0.01253  -0.3117  0.8084
6.45e+09  0.2032  1.013  -0.04618  -0.002913  -0.05492  -0.005844  -0.04237  0.8238
6.451e+09  0.5119  0.8893  0.01464  -3.148e-06  -0.007497  -0.02405  0.2078  0.78
6.452e+09  0.7785  0.6211  0.02574  -0.002948  0.0106  -0.01352  0.4649  0.6667
6.454e+09  0.9078  0.389  0.01508  -0.006059  -0.01111  0.06295  0.7184  0.4634
6.455e+09  0.9569  -0.01694  -0.007046  0.009607  0.0002324  0.01671  0.809  0.1772
6.456e+09  0.9271  -0.4159  -0.009367  -0.005425  0.009159  -0.01372  0.7985  -0.04271
6.458e+09  0.7329  -0.6819  0.004472  0.005863  0.007832  -0.002345  0.7629  -0.3319
6.459e+09  0.4124  -0.8577  -0.02456  0.02208  -0.006552  -0.01289  0.5767  -0.5923
6.46e+09  0.1291  -0.9955  -0.001647  -0.01695  -0.01896  -0.03265  0.3138  -0.7658
6.461e+09  -0.2233  -0.9926  -0.03113  0.01145  0.01681  0.01135  0.07431  -0.7878
6.462e+09  -0.5492  -0.8305  -0.03513  0.02628  0.03485  0.03828  -0.2133  -0.7494
6.464e+09  -0.8192  -0.6309  -0.01708  0.0508  -0.04208  0.01285  -0.4972  -0.6702
6.465e+09  -0.9599  -0.2662  0.04072  0.06258  -0.008112  0.01417  -0.6451  -0.4942
6.466e+09  -1.043  0.1011  0.0227  0.01033  -0.01643  0.044  -0.7672  -0.2065
6.468e+09  -0.9239  0.4377  -0.0645  -0.0004993  0.009955  -0.002409  -0.8328  0.08705
6.469e+09  -0.7261  0.7174  -0.002547  0.009895  0.05127  -0.01147  -0.6802  0.3907
6.47e+09  -0.3775  0.9796  0.00384  -0.001097  0.05112  0.04044  -0.5488  0.5845
6.471e+09  -0.03049  1.053  0.00981  -0.02787  0.00625  -0.006034  -0.3157  0.7452
6.472e+09  0.2763  1.001  -0.0184  0.02853  0.008682  0.0655  -0.0618  0.7671
6.474e+09  0.6463  0.8356  0.005778  -0.01129  0.03586  0.05084  0.2159  0.7361
6.475e+09  0.9457  0.5512  0.002688  0.01452  0.01146  -0.01458  0.4523  0.6057
6.476e+09  1.025  0.2145  0.000529  0.005231  -0.01753  0.002802  0.6463  0.4424
6.478e+09  1.048  -0.239  0.007978  -0.008949  -0.01497  -0.01661  0.7715  0.2234
6.479e+09  0.8864  -0.5005  -0.0318  0.02155  0.06115  -0.005676  0.7757  -0.07438
6.48e+09  0.6612  -0.8517  -0.006323  -0.02525  -0.028  -0.003718  0.7013  -0.3057
6.481e+09  0.2977  -1.039  -0.01631  -0.07581  -0.008318  0.04164  0.5242  -0.5791
6.482e+09  -0.05562  -1.042  -0.01737  -0.0489  -0.03308  -0.03547  0.3518  -0.7039
6.484e+09  -0.3735  -0.9662  -0.007214  -0.02635  -0.0479  -0.02404  0.07587  -0.8077
6.485e+09  -0.7171  -0.8135  -0.01363  -0.02305  -0.009002  -0.03052  -0.1966  -0.7251
6.486e+09  -0.9325  -0.457  -0.02576  0.02573  0.01664  0.0322  -0.468  -0.6274
6.488e+09  -1.319  0.5831  0.001075  0.03392  0.6239  0.4253  -0.6471  -0.3991
6.489e+09  -1.016  0.2466  0.01242  -0.01268  -0.02056  0.008674  -0.7932  -0.1244
6.49e+09  -0.8339  0.651  0.01025  -0.003634  0.007988  0.01833  -0.7835  0.0984
6.491e+09  -0.595  0.9047  -0.03693  0.04374  0.01503  -0.004939  -0.6846  0.3562
6.492e+09  -0.214  1.086  0.006377  -0.01154  0.01545  0.008752  -0.5341  0.5702
6.494e+09  0.2104  0.9894  -0.01144  -0.01913  -0.08148  0.09564  -0.2925  0.7319
6.495e+09  0.5866  0.8869  0.01295  0.02346  -0.0214  -0.02917  -0.04737  0.8038
6.496e+09  0.8209  0.7476  0.036  0.009308  -0.009131  0.02097  0.2203  0.7546
6.498e+09  1.005  0.3013  -0.03265  0.00961  0.03123  0.02171  0.4647  0.6212
6.499e+09  1.057  -0.03106  0.000703  0.03351  0.04312  -0.008242  0.6411  0.3935
6.5e+09  0.5642  -0.5581  0.02211  0.02459  0.00813  0.02595  0.6923  0.1477
6.501e+09  0.7751  -0.7086  0.00805  -0.01592  0.0391  -0.02896  0.7519  -0.1044
6.502e+09  0.4523  -0.9082  0.01837  -0.004077  0.01701  -0.0288  0.6886  -0.3356
6.504e+09  0.1452  -1.024  0.008917  0.02508  0.03127  0.01248  0.4947  -0.5684
6.505e+09  -0.2915  -1.02  0.02219  0.009377  -0.05036  -0.01855  0.2961  -0.7065
6.506e+09  -0.6067  -0.8851  -0.0004141  -0.001485  0.002783  -0.01679  -0.01187  -0.7728
6.508e+09  -0.8714  -0.5601  0.01638  -0.02691  -0.08878  0.04246  -0.2511  -0.6893
6.509e+09  -1.012  -0.2408  -0.007329  -0.03033  0.009276  0.07254  -0.525  -0.5953
6.51e+09  -1.065  0.1368  0.01582  0.0009564  -0.006598  -0.00853  -0.6604  -0.4109
6.511e+09  -0.8912  0.4428  -0.004858  -0.006362  0.03406  0.003993  -0.7156  -0.1035
6.512e+09  -0.7074  0.7929  0.003265  0.001278  0.006155  -0.01076  -0.7121  0.1214
6.514e+09  -0.3344  0.982  0.02729  0.0003758  -0.004429  0.01043  -0.6372  0.3879
6.515e+09  -0.007365  1.035  0.01595  0.01161  0.003288  -0.01382  -0.4865  0.5726
6.516e+09  0.3991  0.9609  0.005713  0.003022  0.01994  -0.01595  -0.2484  0.7048
6.518e+09  0.6849  0.7406  0.004652  -0.03731  -0.004172  -0.01297  0.00723  0.7595
6.519e+09  0.9675  0.4645  -0.02089  0.03443  -0.004431  -0.04498  0.3031  0.7312
6.52e+09  1.073  0.08222  -0.02738  0.02471  -0.02472  -0.03119  0.5062  0.5417
6.521e+09  0.9522  -0.2029  -0.0008405  -0.04485  -0.04664  -0.01256  0.662  0.327
6.522e+09  0.8195  -0.6031  -0.04632  -0.009356  0.01333  -0.003863  0.7319  0.09538
6.524e+09  0.5832  -0.8495  0.01682  0.01329  0.004621  0.03342  0.7325  -0.1941
6.525e+09  0.1987  -0.9897  0.02046  0.01732  -0.0208  0.01071  0.6216  -0.3948
6.526e+09  -0.1164  -0.981  -0.001626  0.007555  -0.003456  0.0392  0.4557  -0.5927
6.528e+09  -0.4266  -0.9133  -0.03421  0.01722  0.02015  -0.05745  0.2207  -0.6828
6.529e+09  -0.7599  -0.623  0.008366  0.03325  -0.01001  0.0356  -0.05822  -0.7189
6.53e+09  -0.9658  -0.2676  -0.03369  -0.005097  0.04896  0.004127  -0.291  -0.6284
6.531e+09  -0.9865  0.06512  0.01067  0.03149  -0.003365  0.02589  -0.4583  -0.5031
6.532e+09  -0.9132  0.4123  -0.01676  0.01112  -0.01802  -0.0161  -0.5968  -0.3034
6.534e+09  -0.7191  0.7163  0.005007  -0.01879  0.0008683  -0.004904  -0.6449  -0.1076
6.535e+09  -0.4382  0.8332  0.03396  0.003691  0.0141  0.05872  -0.6174  0.09798
6.536e+09  -0.1092  0.9704  0.02253  0.003943  0.05259  -0.02229  -0.5823  0.3269
6.538e+09  0.2374  0.9028  0.02182  0.005089  0.01861  0.06081  -0.4629  0.4869
6.539e+09  0.5872  0.7704  -0.01902  0.01445  -0.06262  0.04253  -0.2886  0.6177
6.54e+09  0.7674  0.5487  0.01442  0.02775  -0.02992  0.01437  -0.05972  0.6821
6.541e+09  0.9191  0.163  -0.009761  -0.007364  0.07408  -0.05322  0.1796  0.7093
6.542e+09  0.9344  -0.1245  -0.02922  -0.01558  0.004383  -0.01163  0.4306  0.6042
6.544e+09  0.7786  -0.4073  -0.02163  -0.001887  -0.04894  -0.00673  0.5695  0.4094
6.545e+09  0.6056  -0.6821  -0.0159  0.03651  -0.0002125  0.0404  0.7053  0.1821
6.546e+09  0.2944  -0.8588  -0.006782  -0.002313  0.04193  0.0005081  0.7305  -0.09346
6.548e+09  -0.003403  -0.9449  -0.03807  -0.0127  0.008546  0.004124  0.6159  -0.3456
6.549e+09  -0.3076  -0.8521  0.03455  -0.01012  -0.03488  0.005431  0.5098  -0.5147
6.55e+09  -0.6271  -0.6734  -0.02771  -0.008478  -0.02239  -0.03076  0.315  -0.6895
6.551e+09  -0.7447  -0.4005  0.01458  0.02017  0.02412  -0.01495  0.05035  -0.7423
