# Hz S RI R 50
6.25e+09  0.1041  0.9247  -0.01397  -0.04264  -0.03373  0.01403  0.1478  0.4761
6.251e+09  0.3892  0.8465  -0.02679  0.004324  -0.005153  0.005609  0.3896  0.4292
6.252e+09  0.6502  0.6765  -0.01917  0.008868  0.02477  0.08116  0.5462  0.2291
6.254e+09  0.9399  0.3492  0.002266  -0.01236  -0.04563  0.02128  0.6152  0.02598
6.255e+09  0.9201  0.02775  0.004216  -0.01963  0.05076  0.0225  0.5615  -0.1787
6.256e+09  0.8704  -0.3301  0.007527  -0.01172  0.01095  -0.005508  0.4701  -0.4731
6.258e+09  0.7987  -0.593  -0.0156  -0.008153  -0.02821  0.07498  0.3077  -0.6052
6.259e+09  0.4706  -0.7341  -0.001604  0.009829  0.02587  -0.02369  0.03411  -0.6742
6.26e+09  0.1932  -0.9725  -0.02196  -0.0008197  0.005378  0.05613  -0.2176  -0.6689
6.261e+09  -0.1398  -0.9494  0.02077  -0.01637  0.02023  0.01067  -0.4554  -0.5305
6.262e+09  -0.421  -0.791  0.01859  -0.02979  0.02623  -0.02291  -0.6136  -0.3439
6.264e+09  -0.7359  -0.5783  0.008718  -0.01599  0.008813  0.02471  -0.6925  -0.09287
6.265e+09  -0.9075  -0.2985  0.001389  0.02305  -0.02215  0.04443  -0.708  0.1886
6.266e+09  -0.8468  -0.03288  0.02596  0.033  -0.006374  -0.03192  -0.5898  0.3987
6.268e+09  -0.895  0.3723  -0.003853  -0.00932  -0.01805  -0.01605  -0.4206  0.6099
6.269e+09  -0.7426  0.5634  0.01059  -6.909e-05  -0.0426  -0.01595  -0.1887  0.7023
6.27e+09  -0.4319  0.7856  -0.001441  0.03063  -0.0055  -0.0348  0.0678  0.7685
6.271e+09  -0.1416  0.8888  0.006706  -0.01686  0.01471  0.00761  0.312  0.6615
6.272e+09  0.1615  0.9507  -0.006939  -0.005821  0.04125  -0.02376  0.511  0.5348
6.274e+09  0.4517  0.8354  -0.01567  -0.0004424  -0.03771  0.0005526  0.7115  0.3242
6.275e+09  0.7194  0.4842  -0.0008519  0.009194  -0.02932  0.00372  0.7746  0.07
6.276e+09  0.8969  0.2491  -0.02089  -0.008339  0.01251  0.02751  0.7397  -0.2127
6.278e+09  0.9459  0.01531  0.01932  -0.01111  -0.03597  0.07143  0.6501  -0.4531
6.279e+09  0.866  -0.3521  -0.01374  0.01297  -0.0182  -0.00875  0.4153  -0.6507
6.28e+09  0.6297  -0.6124  0.01641  -5.297e-05  -0.02577  0.01392  0.1559  -0.7643
6.281e+09  0.4137  -0.8242  -0.01066  0.006365  -0.02376  0.01193  -0.08812  -0.746
6.282e+09  0.1087  -0.8902  -0.0033  -0.00478  0.03293  0.04086  -0.3845  -0.6873
6.284e+09  -0.2323  -0.9328  0.02197  0.02022  0.05263  -0.02848  -0.5951  -0.5192
6.285e+09  -0.5286  -0.7633  -0.01112  -0.00171  -0.00482  0.0308  -0.7412  -0.2764
6.286e+09  -0.7518  -0.5455  0.006331  -0.002374  0.005028  0.004873  -0.8014  -0.04431
6.288e+09  -0.9123  -0.27  -0.001752  0.02647  0.001963  -0.01414  -0.7887  0.2383
6.289e+09  -0.9423  0.1029  -0.001719  -0.006971  0.03838  0.03203  -0.6268  0.4923
6.29e+09  -0.8235  0.4129  0.03806  0.005997  -0.02084  0.03102  -0.4089  0.7065
6.291e+09  -0.6714  0.7203  -0.009075  0.01643  0.02066  0.0299  -0.1624  0.8088
6.292e+09  -0.4276  0.868  0.009397  -0.01747  0.01055  0.01058  0.1255  0.7669
6.294e+09  -0.01702  0.9317  0.0009542  0.003604  -0.03031  0.06155  0.3795  0.6837
6.295e+09  0.2748  0.8544  0.02326  0.02088  -0.02122  -0.01784  0.6174  0.5277
6.296e+09  0.55  0.7252  0.02769  0.00525  -0.06397  -0.03358  0.7724  0.2985
6.298e+09  0.7887  0.4807  -0.001319  0.01256  0.004149  0.02757  0.8625  -0.01234
6.299e+09  0.9397  0.1965  0.02363  0.008171  0.008006  -0.009644  0.7996  -0.2747
6.3e+09  0.9211  -0.1351  0.01213  0.008568  -0.01699  -0.01739  0.6653  -0.5322
6.301e+09  0.8339  -0.4439  -0.01955  -0.01052  0.001569  0.01759  0.4571  -0.7297
6.302e+09  0.6152  -0.7353  -0.02261  0.03427  0.0576  -0.0294  0.1501  -0.8583
6.304e+09  0.3562  -0.8953  -0.003126  0.009694  0.0755  0.0007751  -0.158  -0.8408
6.305e+09  0.04005  -0.9652  0.01548  0.01206  0.04925  0.02447  -0.4272  -0.7423
6.306e+09  -0.2678  -0.8624  -0.007553  0.02866  -0.02082  0.007045  -0.6518  -0.563
6.308e+09  -0.5753  -0.7436  -0.00997  -0.02618  -0.02476  0.01176  -0.7988  -0.3113
6.309e+09  -0.8837  -0.4704  -0.02149  0.005331  -0.04695  0.02337  -0.8453  0.002205
6.31e+09  -0.9564  -0.2226  0.003546  -0.004135  -0.004752  0.02081  -0.8146  0.3131
6.311e+09  -0.9538  0.1375  0.00982  -0.001355  0.04268  -0.02013  -0.6549  0.5359
6.312e+09  -0.8541  0.4694  0.003096  -0.02213  -0.06137  0.01077  -0.4619  0.7547
6.314e+09  -0.6345  0.7769  -0.03378  0.01373  0.03642  -0.00624  -0.1381  0.8495
6.315e+09  -0.3373  0.8862  -0.005624  -0.0185  0.02195  -0.001241  0.1336  0.8644
6.316e+09  0.06284  1.039  -0.01029  -0.01863  -0.01281  -0.04866  0.4501  0.7586
6.318e+09  0.3448  0.9498  -0.00424  0.01888  -0.02508  -0.07977  0.6659  0.5974
6.319e+09  0.6774  0.7121  0.02859  0.0009297  0.001905  -0.01646  0.8446  0.3401
6.32e+09  0.9242  0.4757  -0.02237  0.0006087  0.005914  -0.003091  0.8854  -0.01465
6.321e+09  0.9963  0.1789  -0.02461  -0.009885  0.03076  -0.008082  0.8613  -0.3065
6.322e+09  1.026  -0.2204  0.04137  -0.0007598  -0.01609  0.0003096  0.7157  -0.561
6.324e+09  0.8425  -0.5753  0.01605  -0.01936  0.04435  0.01746  0.4424  -0.7588
6.325e+09  0.5938  -0.8635  0.0008554  0.02069  -0.02358  -0.00269  0.1402  -0.8416
6.326e+09  0.2799  -1.046  -0.01164  0.003673  -0.008863  0.01017  -0.119  -0.8785
6.328e+09  -0.04484  -1.054  -0.02904  -0.01904  -0.009298  -0.005577  -0.4385  -0.8154
6.329e+09  -0.4553  -0.9714  0.004818  0.00568  0.03172  -0.01501  -0.6877  -0.6154
6.33e+09  -0.8235  -0.6991  0.0001666  0.01689  0.03102  -0.02565  -0.843  -0.327
6.331e+09  -0.9778  -0.3977  -0.02776  -0.019  -0.05171  -0.01587  -0.8986  -0.003756
6.332e+09  -1.099  -0.05269  0.01281  -0.02608  -0.02247  0.02529  -0.8581  0.2701
6.334e+09  -1.034  0.305  -0.01454  0.006769  -0.05044  -0.03743  -0.6996  0.5959
6.335e+09  -0.8599  0.6264  -0.007826  -0.01314  0.01854  -0.0211  -0.497  0.7966
6.336e+09  -0.5799  0.9453  0.001242  -0.02692  0.004097  -0.02256  -0.1901  0.8914
6.338e+09  -0.2547  1.086  -0.02846  0.02169  -0.007444  0.03687  0.1164  0.8864
6.339e+09  0.2251  1.101  -0.03557  0.006165  0.007498  -0.02007  0.4527  0.8112
6.34e+09  0.492  0.9624  0.02749  -0.003968  0.03687  0.0008467  0.6563  0.645
6.341e+09  0.8847  0.725  0.04069  -0.0156  0.006755  0.003091  0.8735  0.3618
6.342e+09  1.081  0.4287  0.00522  0.0325  0.02799  -0.06248  0.9236  0.0396
6.344e+09  1.144  -0.04806  -0.03572  -0.002606  -0.0007802  -0.001425  0.9296  -0.2858
6.345e+09  1.049  -0.4102  0.01715  0.00224  -0.001314  -0.02106  0.7711  -0.533
6.346e+09  0.9129  -0.7553  0.001241  0.01003  0.01158  0.05511  0.5213  -0.7722
6.348e+09  0.5797  -1.001  -0.01883  -4.853e-05  -0.03952  -0.01354  0.2111  -0.9464
6.349e+09  0.1114  -1.173  -0.01179  -0.008999  -0.0008582  -0.01905  -0.09968  -0.9203
6.35e+09  -0.276  -1.103  -0.006014  0.02009  0.02252  -0.004089  -0.4023  -0.858
6.351e+09  -0.6683  -0.9947  -0.01356  0.01292  -0.006409  0.02052  -0.738  -0.6542
6.352e+09  -0.9693  -0.6761  -0.00166  -0.006209  -0.00473  -0.002898  -0.8331  -0.4183
6.354e+09  -1.197  -0.3341  -0.04525  -0.03263  -0.007331  0.002907  -0.9695  -0.04148
6.355e+09  -1.193  0.09739  -0.001052  -0.02603  0.02101  0.01668  -0.9097  0.2623
6.356e+09  -1.067  0.5295  -0.01005  0.05425  -0.01835  0.009853  -0.7348  0.5663
6.358e+09  -0.8375  0.8457  0.0006489  0.007806  -0.00792  -0.04091  -0.5077  0.749
6.359e+09  -0.5289  1.17  0.02696  0.01116  -0.01807  -0.001886  -0.24  0.96
6.36e+09  -0.07899  1.253  0.04003  0.01366  0.05902  0.01748  0.08285  0.9105
6.361e+09  0.367  1.186  0.03418  -0.004672  0.0284  -0.05088  0.4256  0.8412
6.362e+09  0.7695  0.9694  -0.01169  0.01361  -0.02051  -0.01673  0.6896  0.6488
6.364e+09  1.107  0.6557  0.01271  -0.0226  0.02548  0.006489  0.8431  0.3839
6.365e+09  1.238  0.2129  -0.006931  0.00681  0.0163  -0.02972  0.9808  0.1049
6.366e+09  1.202  -0.182  -0.01061  0.005483  0.004476  -0.002302  0.9578  -0.2805
6.368e+09  1.114  -0.6334  0.02745  0.01097  -0.05191  -0.00675  0.7919  -0.525
6.369e+09  0.8392  -1.011  0.004277  -0.00902  0.002564  0.01827  0.595  -0.8098
6.37e+09  0.4552  -1.184  -0.01697  -0.009615  0.01626  0.02373  0.2271  -0.9414
6.371e+09  -0.03857  -1.292  0.007775  0.01088  0.03522  0.01199  -0.1176  -0.9227
6.372e+09  -0.4742  -1.238  0.002417  -0.03066  -0.01041  -0.03757  -0.4341  -0.838
6.374e+09  -0.9257  -0.9399  -0.03663  -0.05261  -0.07241  -0.006137  -0.6781  -0.6831
6.375e+09  -1.178  -0.6057  -0.003924  -0.00154  -0.04529  -0.003405  -0.8575  -0.416
6.376e+09  -1.295  -0.1273  -0.002808  0.05243  -0.04962  -0.003166  -0.967  -0.0924
6.378e+09  -1.285  0.3253  -0.009372  0.006177  0.01976  0.0235  -0.917  0.2297
6.379e+09  -1.127  0.7462  -0.0004957  0.01676  0.03037  0.0001835  -0.8029  0.5591
6.38e+09  -0.7174  1.128  0.02463  -0.01853  0.03311  -0.03212  -0.564  0.7624
6.381e+09  -0.3529  1.277  0.005952  0.0145  0.0136  0.07956  -0.2867  0.8868
6.382e+09  0.1665  1.314  0.002516  -0.01496  -0.02333  0.02535  0.1011  0.9378
6.384e+09  0.6249  1.165  0.03206  0.01605  0.01494  -0.003122  0.3833  0.8778
6.385e+09  1.011  0.9173  -0.00378  0.02391  -0.02055  -0.04193  0.6718  0.6994
6.386e+09  1.276  0.535  0.01948  -0.001093  -0.004637  0.001408  0.8417  0.4342
6.388e+09  1.397  0.02869  -0.01443  -0.01824  0.01178  -0.0005142  0.9227  0.1191
6.389e+09  1.265  -0.493  -0.02382  -0.018  0.01279  0.01441  0.883  -0.1875
6.39e+09  1.112  -0.9383  -0.01184  0.04413  -0.002483  0.02186  0.7974  -0.5131
6.391e+09  0.6795  -1.288  0.01263  0.01711  0.0348  -0.004316  0.5698  -0.7177
6.392e+09  0.1977  -1.355  0.005452  -0.004378  0.03301  0.01742  0.2889  -0.8843
6.394e+09  -0.2565  -1.379  -0.01375  -0.02798  0.008356  0.02171  -0.06591  -0.9338
6.395e+09  -0.7461  -1.213  -0.0001905  0.01689  0.01652  -0.02691  -0.3225  -0.8704
6.396e+09  -1.068  -0.8525  0.003913  -0.02257  -0.005163  -0.003881  -0.6166  -0.7212
6.398e+09  -1.329  -0.448  -0.00418  -0.03422  -0.006241  -0.005098  -0.8149  -0.4131
6.399e+09  -1.407  0.1157  0.005281  -0.03327  -0.0155  0.01197  -0.884  -0.1064
6.4e+09  -1.297  0.584  0.0217  -0.02548  0.012  -0.00761  -0.9089  0.1498
6.401e+09  -1.024  1.012  -0.005704  -0.001023  0.07205  -0.006753  -0.7575  0.4858
6.402e+09  -0.5866  1.278  -0.01741  0.04479  -0.03919  -0.001502  -0.6391  0.7512
6.404e+09  -0.1068  1.428  -0.01419  -0.02984  -0.01355  0.04419  -0.3258  0.8567
6.405e+09  0.3736  1.397  -0.05796  -0.008085  0.01337  0.01892  -0.005714  0.9216
6.406e+09  0.8568  1.14  -0.008798  -0.005765  0.02844  -0.002814  0.3127  0.855
6.408e+09  1.22  0.7939  -0.01811  0.01411  0.0006544  0.0201  0.5709  0.7113
6.409e+09  1.363  0.3446  -0.001002  -0.02125  0.006812  0.07384  0.7755  0.48
6.41e+09  1.415  -0.176  0.03183  -0.03991  -0.01031  -0.02572  0.8789  0.1472
6.411e+09  1.246  -0.7089  0.0008184  0.003031  -0.006654  -0.02943  0.8807  -0.1553
6.412e+09  0.9106  -1.097  0.03891  0.006751  0.01001  -0.02236  0.748  -0.477
6.414e+09  0.5001  -1.366  0.002327  0.02969  0.03086  0.02662  0.5779  -0.689
6.415e+09  -0.02588  -1.447  -0.03884  0.002572  0.02008  -0.00453  0.3139  -0.8257
6.416e+09  -0.5058  -1.262  0.0573  -0.01429  0.01465  0.002311  0.03566  -0.9071
6.418e+09  -0.9541  -1.139  0.03645  -0.006001  0.004529  0.02959  -0.2397  -0.8294
6.419e+09  -1.217  -0.6939  0.01156  -0.03489  -0.02141  -0.03868  -0.5791  -0.6963
6.42e+09  -1.484  -0.1933  0.01822  -0.02776  0.03268  -0.02328  -0.7629  -0.4695
6.421e+09  -1.484  0.3142  -0.03084  -0.01442  -0.01829  0.009422  -0.8523  -0.1843
6.422e+09  -1.223  0.8122  -0.007651  -0.02282  0.02309  0.03121  -0.895  0.07983
6.424e+09  -0.8885  1.202  -0.001437  0.001704  -0.005339  -0.01231  -0.7669  0.3914
6.425e+09  -0.4264  1.429  -0.03031  0.005129  -0.005349  -0.01447  -0.6072  0.6671
6.426e+09  0.1142  1.536  0.01891  -0.0005283  -0.002058  -0.02276  -0.3937  0.8027
6.428e+09  0.6512  1.414  0.001835  0.01153  0.04333  0.03646  -0.04089  0.8856
6.429e+09  1.053  1.066  0.02752  -0.00628  -0.006963  0.05076  0.2594  0.8528
6.43e+09  1.395  0.6427  0.0451  0.01034  0.0266  -0.02517  0.4994  0.671
6.431e+09  1.572  0.1563  0.02016  -0.03179  -0.03409  -0.002793  0.7367  0.4794
6.432e+09  1.468  -0.5135  -0.03595  0.04782  0.04119  0.02541  0.8311  0.1674
6.434e+09  1.286  -0.9916  -0.001999  -0.008063  -0.02767  0.02806  0.8454  -0.09901
6.435e+09  0.8418  -1.361  -0.01983  -0.03066  -0.005046  0.005518  0.7416  -0.3832
6.436e+09  0.3638  -1.541  -0.01391  0.02021  -0.006214  -0.02658  0.6072  -0.6114
6.438e+09  -0.2078  -1.582  0.006698  -0.03607  -0.01362  0.01701  0.3052  -0.7661
6.439e+09  -0.7724  -1.416  -0.03681  -0.02939  -0.01073  0.04701  0.1149  -0.8984
6.44e+09  -1.211  -1.087  -0.0299  -0.03399  -0.04423  0.01383  -0.2151  -0.8384
6.441e+09  -1.485  -0.5258  0.01853  -0.02061  0.03279  0.01451  -0.5515  -0.7033
6.442e+09  -1.645  0.00363  0.01711  0.01222  -0.009868  -0.0188  -0.6629  -0.4769
6.444e+09  -1.567  0.5883  0.0605  -0.02667  -0.03784  -0.0002355  -0.8602  -0.2003
6.445e+09  -1.225  1.117  0.04578  0.04115  -0.0009427  0.01062  -0.7845  0.05181
6.446e+09  -0.7918  1.49  -0.0123  -0.007407  -0.01858  -0.01597  -0.7755  0.3882
6.448e+09  -0.1791  1.673  -0.01618  0.02878  -0.01625  -0.05694  -0.549  0.5995
6.449e+09  0.3826  1.653  0.01725  0.08808  -0.03091  -0.02107  -0.3488  0.7538
6.45e+09  0.9461  1.461  0.001256  0.02625  0.03143  -0.01874  -0.08645  0.8528
6.451e+09  1.506  1.033  -0.03672  0.004294  -0.01073  0.02426  0.2566  0.8343
6.452e+09  1.686  0.466  -0.006505  0.006349  0.01898  0.02532  0.4733  0.6917
6.454e+09  1.803  -0.1651  0.02166  -0.006737  0.02039  0.08216  0.7032  0.4536
6.455e+09  1.645  -0.8544  0.04007  0.04583  0.03805  0.0462  0.8203  0.1826
6.456e+09  1.242  -1.401  -0.01313  -0.006912  -0.03772  -0.04993  0.8321  -0.101
6.458e+09  0.7523  -1.83  0.0231  0.02167  -0.04617  0.01351  0.7643  -0.3596
6.459e+09  0.004242  -1.942  -0.001445  0.01063  -0.002523  -0.03504  0.5367  -0.6229
6.46e+09  -0.6091  -1.787  -0.01083  0.03656  -0.07647  -0.04476  0.3676  -0.7381
6.461e+09  -1.211  -1.534  0.01179  0.001332  0.005753  0.0043  0.03624  -0.7995
6.462e+09  -1.762  -0.9799  0.01869  0.0256  -0.008914  0.02831  -0.1973  -0.7808
6.464e+09  -2.012  -0.2546  -0.004611  0.0009719  0.003842  0.0246  -0.502  -0.6809
6.465e+09  -2.024  0.4937  0.05386  0.013  -0.01258  0.02511  -0.6733  -0.4468
6.466e+09  -1.695  1.131  0.03937  0.04208  0.03542  -0.04402  -0.7936  -0.2279
6.468e+09  -1.198  1.784  0.01628  0.01395  0.004547  0.09722  -0.7866  0.05836
6.469e+09  -0.5169  2.101  0.02921  -0.02051  0.05921  0.01129  -0.713  0.4065
6.47e+09  0.2354  2.146  0.01946  0.04369  0.01972  0.008574  -0.5394  0.5599
6.471e+09  1.112  1.935  0.01682  -0.00342  -0.01219  0.04111  -0.3484  0.7357
6.472e+09  1.808  1.501  0.01977  -0.009964  -0.04113  0.03156  -0.07514  0.7711
6.474e+09  2.255  0.7919  -0.01258  -0.03621  -0.02936  0.02375  0.2408  0.7472
6.475e+09  2.355  -0.04805  -0.006216  -0.0182  -0.004934  -0.0005989  0.4513  0.6367
6.476e+09  2.16  -0.9809  0.02845  0.01713  0.0237  0.01466  0.6419  0.4584
6.478e+09  1.711  -1.789  -0.01522  -0.01631  -0.01056  0.02543  0.7585  0.1776
6.479e+09  0.9166  -2.341  0.01215  0.0009083  -0.05035  0.0568  0.8282  -0.1118
6.48e+09  0.03103  -2.528  -0.001017  -0.03375  0.01191  -0.02321  0.7387  -0.3446
6.481e+09  -0.936  -2.479  -0.001921  -0.003906  -0.005178  -0.04184  0.5439  -0.5721
6.482e+09  -1.804  -1.904  0.005766  -0.007351  -0.01973  -0.03224  0.3339  -0.6867
6.484e+09  -2.438  -1.194  -0.02727  -0.003696  -0.08493  0.002746  0.04704  -0.7656
6.485e+09  -2.806  -0.1465  -0.01358  -0.03321  -0.003897  0.01109  -0.1919  -0.7362
6.486e+09  -2.621  0.9103  -0.00864  0.001072  0.0353  0.02968  -0.4407  -0.6458
6.488e+09  -2.457  2.506  -0.05155  0.004581  0.73  -0.1701  -0.6304  -0.386
6.489e+09  -1.4  2.525  -0.04178  0.01001  0.05314  -0.04628  -0.7352  -0.184
6.49e+09  -0.1919  2.84  -0.03722  -0.007219  -0.01405  -0.03124  -0.7602  0.09311
6.491e+09  1.013  2.818  0.0206  -0.02555  0.00625  0.03611  -0.6786  0.3196
6.492e+09  1.969  2.291  0.005309  0.02661  -0.02698  -0.03716  -0.5213  0.5676
6.494e+09  2.886  1.286  0.01305  -0.007485  -0.08102  -0.1206  -0.3118  0.7048
6.495e+09  3.063  0.1476  -0.005911  0.003854  -0.02283  0.02731  -0.04522  0.776
6.496e+09  2.867  -1.067  -0.008234  -0.004635  -0.08104  -0.006792  0.2367  0.7569
6.498e+09  2.28  -2.14  -0.03979  -0.007692  -0.06174  0.07468  0.4603  0.6365
6.499e+09  1.301  -2.81  0.01215  -0.007461  0.0668  -0.07395  0.6589  0.3686
6.5e+09  -2.518  -3.816  0.0101  -0.02383  0.01592  0.02573  0.7618  0.1298
6.501e+09  -1.093  -2.887  0.01395  -0.0351  -0.02081  0.01551  0.7072  -0.08797
6.502e+09  -2.125  -2.193  0.002779  -0.01758  0.02539  0.0999  0.66  -0.3855
6.504e+09  -2.825  -1.214  0.01563  0.01452  0.04692  0.0566  0.5346  -0.5692
6.505e+09  -2.935  0.02177  -0.01479  -0.01653  -0.01665  -0.05847  0.2895  -0.7177
6.506e+09  -2.751  1.122  -0.04873  -0.05981  -0.02476  -0.01847  0.008135  -0.7684
6.508e+09  -2.053  2.047  -0.02999  0.03046  0.04996  -0.01951  -0.238  -0.7466
6.509e+09  -1.057  2.651  0.03218  0.003638  -0.03006  -0.03661  -0.4663  -0.5554
6.51e+09  0.01185  2.763  -0.01022  -0.01334  -0.005902  -0.006724  -0.6656  -0.3543
6.511e+09  1.026  2.536  0.01817  -0.01839  -0.02211  -0.05471  -0.7055  -0.1235
6.512e+09  1.863  1.88  0.01386  0.005904  -0.02325  -0.01494  -0.7646  0.1106
6.514e+09  2.384  1.01  -0.01959  0.02527  0.001246  0.01218  -0.6569  0.4071
6.515e+09  2.523  0.0791  -0.005005  0.03719  0.0133  -0.02967  -0.4892  0.5897
6.516e+09  2.329  -0.869  -0.009657  0.005854  0.00248  0.01341  -0.2615  0.7258
6.518e+09  1.768  -1.665  -0.036  0.0006842  0.01072  0.03607  0.01553  0.7546
6.519e+09  1.037  -2.228  0.01035  -0.01319  -0.03876  -0.04881  0.2938  0.7151
6.52e+09  0.1409  -2.359  0.00769  0.006195  -0.07628  0.04158  0.4986  0.5303
6.521e+09  -0.7297  -2.248  0.007511  0.01419  0.03158  -0.02802  0.6557  0.4045
6.522e+09  -1.427  -1.741  -0.03641  -0.0005739  -0.006737  -0.03641  0.7137  0.09724
6.524e+09  -1.961  -1.092  -0.000328  0.01387  0.01535  -0.02531  0.7168  -0.1762
6.525e+09  -2.096  -0.2403  -0.02874  -0.03321  -0.009595  -0.01241  0.6637  -0.3571
6.526e+09  -2.087  0.5376  0.02777  0.009855  -0.0282  -0.04614  0.4469  -0.601
6.528e+09  -1.723  1.286  -0.01469  0.02958  0.01158  -0.004195  0.2085  -0.6891
6.529e+09  -1.043  1.702  -0.01506  -0.02309  0.0005024  0.06585  -0.0269  -0.6949
6.53e+09  -0.4089  1.957  -0.0002039  0.003293  -0.004535  0.02458  -0.2896  -0.6129
6.531e+09  0.3276  1.947  -0.006183  0.01589  -0.01884  0.007315  -0.4904  -0.4779
6.532e+09  1.005  1.655  0.02831  -0.02098  -0.03477  -0.05203  -0.5811  -0.3161
6.534e+09  1.455  1.205  0.03171  -0.008593  0.008676  0.04115  -0.5941  -0.05086
6.535e+09  1.736  0.5198  0.01103  -0.03093  -0.01613  -0.01008  -0.6443  0.1263
6.536e+09  1.852  -0.1568  0.02007  -0.0127  0.02069  0.007322  -0.5864  0.3229
6.538e+09  1.579  -0.764  -0.008964  -0.00896  -0.04223  0.01017  -0.4572  0.4718
6.539e+09  1.126  -1.249  0.01841  -0.004134  -0.05837  0.01786  -0.2856  0.6407
6.54e+09  0.6517  -1.546  0.02124  0.003788  0.01855  0.001359  -0.07374  0.6481
6.541e+09  0.1009  -1.67  -0.01058  0.01732  0.02836  -0.05026  0.2015  0.6795
6.542e+09  -0.4961  -1.57  0.02886  0.03218  -0.05679  -0.03471  0.4142  0.5829
6.544e+09  -1.104  -1.267  -0.02813  0.03124  -0.0038  0.01417  0.6074  0.4107
6.545e+09  -1.41  -0.8032  0.00298  -0.008933  0.009193  -0.08146  0.723  0.1481
6.546e+09  -1.519  -0.1958  -0.02335  0.0002732  0.01245  0.00293  0.7279  -0.06995
6.548e+09  -1.506  0.291  -0.02061  -0.01248  -0.02112  0.02483  0.6591  -0.318
6.549e+09  -1.33  0.8942  -0.00979  0.02297  -0.01474  0.07329  0.4864  -0.5181
6.55e+09  -0.9062  1.255  0.008241  -0.001004  0.01331  -0.02319  0.268  -0.7033
6.551e+09  -0.3714  1.459  -0.02121  0.01403  0.0923  -0.01346  0.06028  -0.7218
6.552e+09  0.1624  1.488  -0.02032  0.007911  0.01407  -0.04714  -0.2326  -0.6985
6.554e+09  0.6578  1.277  0.00383  -0.01461  -0.03401  -0.05901  -0.4937  -0.5811
