# Hz S RI R 50
6.25e+09  0.2532  0.8937  0.03819  -0.01466  0.008709  0.01957  0.1388  0.4941
6.251e+09  0.5584  0.7782  -0.01309  0.007765  0.009715  0.01317  0.3932  0.4142
6.252e+09  0.7897  0.4879  -0.006575  -0.007105  -0.04598  0.0146  0.5448  0.2482
6.254e+09  0.9282  0.2878  0.008024  0.01041  0.04579  0.008473  0.6156  0.03806
6.255e+09  0.9234  -0.0824  -0.004235  -0.01105  -0.04677  -0.01274  0.6036  -0.2551
6.256e+09  0.8364  -0.4405  -0.04333  -0.005659  -0.004405  -0.04046  0.4466  -0.4576
6.258e+09  0.7012  -0.6997  0.01105  0.01221  -0.01285  -0.04914  0.2857  -0.6353
6.259e+09  0.3938  -0.8744  -0.01559  0.01471  0.03582  0.006581  0.03975  -0.704
6.26e+09  0.0461  -0.8853  0.01426  -0.006277  -0.01306  0.0279  -0.1972  -0.664
6.261e+09  -0.2152  -0.8835  0.002597  -0.02203  0.03144  -0.01342  -0.4589  -0.5579
6.262e+09  -0.5724  -0.7831  -0.01667  0.02292  0.01708  -0.03809  -0.6003  -0.3719
6.264e+09  -0.7183  -0.4486  -0.001834  0.004412  0.008378  0.02899  -0.7038  -0.09242
6.265e+09  -0.9413  -0.1866  -0.0149  -0.003559  0.01668  -0.02192  -0.6932  0.1648
6.266e+09  -0.8841  0.1392  -0.01654  -0.01819  0.04553  -0.004385  -0.6061  0.3941
6.268e+09  -0.8594  0.488  0.003246  -0.01015  -0.02924  0.102  -0.4379  0.5655
6.269e+09  -0.5692  0.7189  -0.03952  -0.01874  -0.0307  0.03452  -0.1925  0.7172
6.27e+09  -0.384  0.8758  -0.03573  -0.004717  0.01035  -0.0009504  0.0818  0.7395
6.271e+09  -0.01735  0.9082  -0.011  0.01307  0.04423  0.0184  0.3144  0.6855
6.272e+09  0.3292  0.8609  0.01046  0.01244  0.07091  0.001767  0.535  0.5348
6.274e+09  0.5747  0.7568  -0.01758  0.001363  -0.02214  0.0418  0.7048  0.3054
6.275e+09  0.7873  0.5043  0.04144  0.008728  -0.00926  0.003583  0.7684  0.03698
6.276e+09  0.9387  0.1606  0.01618  -0.0267  0.02561  0.02665  0.7742  -0.222
6.278e+09  0.8635  -0.1497  -0.02092  -0.01666  0.0813  -0.004974  0.6338  -0.4776
6.279e+09  0.7641  -0.4904  -0.03427  0.002352  0.0232  0.04238  0.4103  -0.6554
6.28e+09  0.6221  -0.7065  -0.02238  -0.008602  -0.02374  -0.006808  0.1788  -0.7509
6.281e+09  0.3056  -0.8316  -0.001954  0.03349  0.02082  0.01685  -0.1074  -0.7445
6.282e+09  -0.05523  -0.9074  -0.02903  0.02763  -0.003629  -0.08157  -0.3604  -0.6756
6.284e+09  -0.3516  -0.8972  -0.002056  -0.01076  -0.04008  0.04429  -0.5904  -0.5295
6.285e+09  -0.7151  -0.6687  0.01983  0.01682  -0.0118  -0.05739  -0.7104  -0.2704
6.286e+09  -0.8221  -0.3716  -0.0339  0.01694  0.0146  -0.05364  -0.7986  -0.01937
6.288e+09  -0.893  -0.1103  0.01949  -0.02173  -0.004513  0.03566  -0.775  0.2556
6.289e+09  -0.9247  0.1993  -0.001796  -0.04805  -0.009274  0.07042  -0.6385  0.4862
6.29e+09  -0.777  0.492  -0.002771  0.01104  -0.0259  0.04025  -0.4216  0.6784
6.291e+09  -0.5442  0.7825  0.01545  0.00534  0.00297  -0.02489  -0.1348  0.7978
6.292e+09  -0.2472  0.891  0.004468  -0.02177  -0.008577  0.02485  0.1014  0.8149
6.294e+09  0.003863  0.9689  -0.001012  -0.03963  0.00284  0.08574  0.3815  0.6691
6.295e+09  0.3832  0.9096  0.01267  0.01852  0.02394  -0.0138  0.6186  0.5429
6.296e+09  0.6449  0.6408  0.01874  -0.004792  0.017  0.01755  0.7847  0.2787
6.298e+09  0.8544  0.3651  -0.03584  -0.0005618  0.03502  -0.02108  0.8301  0.02844
6.299e+09  0.9374  0.03228  0.02517  -0.02936  0.01294  0.01686  0.8009  -0.3107
6.3e+09  0.9175  -0.237  0.000302  -0.02212  -0.04182  0.003344  0.6541  -0.5088
6.301e+09  0.811  -0.5262  0.008547  6.024e-05  0.07197  0.0504  0.4402  -0.7294
6.302e+09  0.5317  -0.7913  0.001743  -0.01139  0.03064  -0.002868  0.1371  -0.8685
6.304e+09  0.1756  -0.9191  0.002108  0.01214  -0.004786  0.009957  -0.1644  -0.8466
6.305e+09  -0.09459  -0.9429  0.002647  -0.01421  0.01049  0.01312  -0.4125  -0.7493
6.306e+09  -0.4544  -0.856  0.01948  0.01664  0.03194  0.006323  -0.6455  -0.5508
6.308e+09  -0.7535  -0.6263  0.01639  -0.0281  0.02016  0.02516  -0.8064  -0.2714
6.309e+09  -0.838  -0.3289  -0.01772  -0.001011  0.01369  -0.04163  -0.8325  -0.02294
6.31e+09  -0.9731  0.003371  0.01454  -0.02033  -0.01372  -0.01413  -0.7877  0.291
6.311e+09  -0.9024  0.3496  0.04515  0.01043  -0.003685  -0.002777  -0.6697  0.5308
6.312e+09  -0.765  0.6117  0.01469  -0.02873  0.02064  -0.005896  -0.426  0.7684
6.314e+09  -0.481  0.8515  -0.005785  0.009405  -0.01049  0.01749  -0.1549  0.8603
6.315e+09  -0.1973  0.9617  0.03197  0.01097  -0.0141  0.01101  0.1271  0.8492
6.316e+09  0.1645  0.989  0.006458  0.03772  0.04659  -0.02139  0.4534  0.7574
6.318e+09  0.4997  0.8295  -0.01673  0.0277  -0.009051  0.01993  0.6764  0.5687
6.319e+09  0.719  0.6277  0.02655  0.0279  -0.007521  0.003825  0.8332  0.3408
6.32e+09  0.9687  0.3865  -0.009586  0.01394  0.01203  0.07703  0.8677  0.01884
6.321e+09  0.9672  -0.0005502  -0.01821  0.03054  0.02848  -0.04643  0.8593  -0.2762
6.322e+09  0.9653  -0.3623  0.01221  -0.01505  0.01052  0.06717  0.7137  -0.5365
6.324e+09  0.7887  -0.7135  -0.0128  -0.001369  0.02958  -0.01442  0.4746  -0.7718
6.325e+09  0.4367  -0.8969  0.01977  0.0006399  0.01506  -0.02413  0.1967  -0.8756
6.326e+09  0.1465  -0.9988  -0.006225  0.004248  -0.04371  -0.008496  -0.1169  -0.9241
6.328e+09  -0.2391  -1.021  -0.005125  0.0222  -0.01879  -0.07303  -0.4339  -0.8138
6.329e+09  -0.6019  -0.8889  0.006087  -0.0007519  0.01174  0.04113  -0.685  -0.5987
6.33e+09  -0.8362  -0.6151  -0.01075  -0.02269  0.02452  -0.04183  -0.8877  -0.3351
6.331e+09  -1.008  -0.2721  -0.02366  -0.001337  0.00545  0.02325  -0.9018  -0.005166
6.332e+09  -1.089  0.1039  0.02094  0.0006323  -0.01013  0.001931  -0.8726  0.2948
6.334e+09  -1.006  0.4257  -0.02204  -0.02645  -0.03015  -0.02182  -0.7553  0.5699
6.335e+09  -0.7355  0.7355  -0.002324  0.01653  0.01773  -0.007768  -0.4777  0.7861
6.336e+09  -0.4407  0.9488  0.05617  -0.01178  0.005642  0.06569  -0.1578  0.8643
6.338e+09  -0.088  1.064  0.01872  -0.00475  -0.0228  0.004917  0.1123  0.901
6.339e+09  0.2808  1.066  -0.022  -0.04381  0.02293  0.01863  0.3851  0.8245
6.34e+09  0.5708  0.8796  0.03261  0.007936  0.0001585  -0.0179  0.6711  0.6756
6.341e+09  0.9363  0.6013  0.0009939  -0.02211  0.001265  -0.0121  0.8783  0.3795
6.342e+09  1.037  0.2329  -0.01817  -0.03488  -0.01697  0.02108  0.9234  0.04839
6.344e+09  1.11  -0.1481  0.00981  0.01378  0.01937  -0.0442  0.8527  -0.242
6.345e+09  0.9901  -0.5698  -0.02963  0.00771  0.02898  -0.005523  0.7293  -0.5772
6.346e+09  0.7267  -0.8637  -0.002558  0.02643  -0.003238  -0.0001668  0.5107  -0.8266
6.348e+09  0.365  -1.024  -0.03552  0.02668  0.005123  -0.01675  0.1939  -0.891
6.349e+09  0.02489  -1.12  0.01188  -0.01041  0.001405  0.02064  -0.102  -0.9246
6.35e+09  -0.3532  -1.126  -0.01832  0.01358  -0.02461  -0.025  -0.4138  -0.8488
6.351e+09  -0.7315  -0.8547  -0.03661  -0.01348  0.01817  0.01659  -0.7008  -0.6537
6.352e+09  -0.9959  -0.5584  0.02557  0.038  -0.01828  0.04831  -0.8365  -0.3735
6.354e+09  -1.138  -0.1936  -0.01526  -0.01145  -0.002893  0.02109  -0.933  -0.05676
6.355e+09  -1.149  0.2595  -0.02527  0.04018  0.001659  -0.006134  -0.906  0.2478
6.356e+09  -0.9943  0.6454  0.007694  0.02651  -0.007038  0.01757  -0.7798  0.5607
6.358e+09  -0.7099  0.9304  0.0211  -0.02492  -0.002363  -0.002921  -0.5563  0.7936
6.359e+09  -0.3568  1.126  -0.0287  0.01499  -0.01544  -0.01208  -0.2069  0.9259
6.36e+09  0.02474  1.175  0.002814  0.00378  -0.006338  -0.04907  0.08534  0.8907
6.361e+09  0.4588  1.124  0.0266  0.0136  -0.01485  0.01522  0.4332  0.8451
6.362e+09  0.8551  0.8654  -3.274e-05  -0.03105  -0.02634  -0.03945  0.6661  0.6783
6.364e+09  1.115  0.4966  -0.005072  0.01411  -0.009631  -0.0002109  0.8414  0.4243
6.365e+09  1.224  0.1477  -0.03265  -0.01444  -0.0375  -0.0008223  0.937  0.06556
6.366e+09  1.183  -0.3135  0.004361  -2.716e-05  0.01644  0.004303  0.9292  -0.2659
6.368e+09  1.001  -0.7073  0.0007617  -0.01399  -0.01029  0.0211  0.778  -0.5311
6.369e+09  0.6678  -1.001  0.002979  -0.02735  0.01474  -0.01051  0.5275  -0.7878
6.37e+09  0.337  -1.211  0.05291  0.005101  -0.0009492  -0.006735  0.2391  -0.8962
6.371e+09  -0.1314  -1.301  -0.001303  0.03995  -0.01519  0.04394  -0.09436  -0.9722
6.372e+09  -0.5787  -1.155  0.008001  -0.01708  0.04528  -0.02816  -0.365  -0.8642
6.374e+09  -0.9197  -0.8763  0.01515  0.00396  -0.03284  -0.02775  -0.6811  -0.656
6.375e+09  -1.206  -0.5088  -0.01145  -0.02123  -0.002505  0.01892  -0.8774  -0.3918
6.376e+09  -1.263  -0.04899  -0.03776  0.01829  0.001427  -0.01333  -0.9202  -0.1099
6.378e+09  -1.277  0.3906  -0.001747  -0.00131  -0.003791  0.01322  -0.9514  0.226
6.379e+09  -1.081  0.8332  -0.003459  0.01098  -0.02985  -0.006688  -0.7996  0.5227
6.38e+09  -0.7224  1.126  0.01113  -0.01295  -0.0422  -0.01344  -0.533  0.7358
6.381e+09  -0.2709  1.324  -0.005906  -0.01701  0.01222  -0.005418  -0.2788  0.8426
6.382e+09  0.1975  1.313  -0.001998  0.01135  0.001695  -0.01773  0.06514  0.9512
6.384e+09  0.6676  1.202  0.04644  0.001337  0.006961  -0.003219  0.3639  0.8461
6.385e+09  1.076  0.8998  -0.01132  -0.02651  -0.02216  0.06268  0.6279  0.6897
6.386e+09  1.325  0.4443  -0.02968  -0.003979  0.02743  -0.02929  0.8692  0.4255
6.388e+09  1.358  -0.03223  -0.0144  0.001356  -0.03735  0.007668  0.9759  0.1306
6.389e+09  1.314  -0.4881  0.02572  -0.06781  -0.006419  -0.07017  0.8946  -0.1874
6.39e+09  1.088  -0.901  0.01537  -0.005618  -0.04825  0.0265  0.7816  -0.5499
6.391e+09  0.6915  -1.269  0.01679  -0.01642  -0.03841  0.007721  0.5397  -0.7608
6.392e+09  0.1924  -1.423  -1.16e-05  -0.007476  -0.01707  -0.02966  0.3054  -0.8463
6.394e+09  -0.3409  -1.443  0.02033  0.02105  0.05312  0.02808  -0.05237  -0.9025
6.395e+09  -0.7832  -1.269  0.02095  0.0002207  -0.0426  0.06001  -0.3686  -0.8647
6.396e+09  -1.178  -0.8938  0.02329  -0.03333  0.004805  0.06625  -0.641  -0.6826
6.398e+09  -1.429  -0.3974  -0.008017  -0.03374  -0.007987  -0.005725  -0.8163  -0.4239
6.399e+09  -1.544  0.0706  -0.02313  0.04641  0.01854  -0.04213  -0.9162  -0.1641
6.4e+09  -1.391  0.6735  -0.01957  0.00874  -0.02176  -0.02638  -0.9101  0.1649
6.401e+09  -1.073  1.058  0.03913  0.02642  0.002181  -0.001278  -0.7987  0.4704
6.402e+09  -0.6256  1.431  -0.02745  -0.02211  -0.00874  0.04874  -0.6038  0.6986
6.404e+09  -0.1377  1.541  -0.06264  -0.01664  -0.01911  0.002189  -0.3432  0.8701
6.405e+09  0.467  1.462  -0.03076  0.005636  -0.01886  -0.01718  0.04205  0.9896
6.406e+09  0.9318  1.243  -0.01832  -0.04838  0.02215  0.02665  0.3228  0.8307
6.408e+09  1.323  0.818  0.005808  -0.03442  -0.04869  0.02433  0.5973  0.742
6.409e+09  1.56  0.2995  -0.004715  -0.01696  -0.03648  0.009444  0.7992  0.475
6.41e+09  1.574  -0.2132  0.0009374  -0.009107  0.04278  0.02666  0.9333  0.1846
6.411e+09  1.39  -0.8254  0.02658  -0.008816  -0.03789  0.006009  0.928  -0.1349
6.412e+09  1.055  -1.171  0.003326  0.01755  -0.009292  -0.01309  0.7679  -0.4928
6.414e+09  0.6  -1.559  0.03038  0.04693  0.01784  0.04247  0.5883  -0.6729
6.415e+09  -0.05895  -1.686  0.01444  -0.01718  -0.007829  -0.0005794  0.3325  -0.8321
6.416e+09  -0.5719  -1.549  0.003721  -0.02666  0.0261  -0.02261  0.05212  -0.8925
6.418e+09  -1.111  -1.255  -0.0144  -0.01157  -0.006704  -0.005362  -0.256  -0.8477
6.419e+09  -1.477  -0.7931  -0.00114  0.01139  -0.07759  -0.02975  -0.5866  -0.7422
6.42e+09  -1.74  -0.2364  0.03269  -0.009222  -0.03974  -0.001017  -0.7219  -0.4899
6.421e+09  -1.706  0.382  0.0463  -0.01774  -0.002196  0.0255  -0.8945  -0.2166
6.422e+09  -1.471  0.9766  -0.03701  -0.06178  0.002121  -0.03329  -0.8766  0.09815
6.424e+09  -1.065  1.462  0.029  -0.001783  -0.000994  -0.02226  -0.799  0.4197
6.425e+09  -0.475  1.781  0.001951  0.002014  0.01465  0.04746  -0.6034  0.6142
6.426e+09  0.2185  1.788  -0.03276  -0.0205  -0.02428  -0.0234  -0.3275  0.7932
6.428e+09  0.8545  1.677  0.005763  -0.03501  -0.02427  -0.05613  -0.01482  0.8887
6.429e+09  1.312  1.305  -0.027  -0.00523  -0.03419  -0.01682  0.2111  0.8266
6.43e+09  1.705  0.7309  0.02455  0.02288  0.01445  0.005505  0.5072  0.7166
6.431e+09  1.929  0.07982  0.04098  0.0145  0.02866  -0.01824  0.7039  0.4696
6.432e+09  1.792  -0.5491  -0.02386  -0.01097  -0.01472  0.008695  0.8272  0.1739
6.434e+09  1.525  -1.219  0.00259  -0.005104  -0.02394  0.04016  0.8837  -0.03524
6.435e+09  0.962  -1.657  -0.0116  0.003145  0.02176  -0.06748  0.7946  -0.3475
6.436e+09  0.3375  -1.959  -0.00739  -0.004503  0.01273  -0.06752  0.6117  -0.6576
6.438e+09  -0.3928  -1.978  -0.00112  0.001438  0.01217  -0.02138  0.3382  -0.7892
6.439e+09  -1.059  -1.781  -0.03115  0.007851  -0.02886  -0.01353  0.05766  -0.8698
6.44e+09  -1.647  -1.284  0.02382  -0.006831  -0.002589  -0.01057  -0.222  -0.846
6.441e+09  -1.944  -0.5539  -0.01194  -0.002719  0.02828  0.01661  -0.4679  -0.711
6.442e+09  -2.193  0.1669  -0.03076  0.01004  0.02121  0.007551  -0.744  -0.4604
6.444e+09  -2.014  0.91  -0.0148  -0.01853  0.0134  0.02147  -0.8346  -0.183
6.445e+09  -1.557  1.537  0.01079  0.002021  0.01012  0.02309  -0.8404  0.1006
6.446e+09  -0.9935  1.967  -0.0263  -0.02079  0.04279  -0.01274  -0.7331  0.3416
6.448e+09  -0.1571  2.251  0.003558  0.04428  0.04065  0.02417  -0.6047  0.5977
6.449e+09  0.6017  2.205  -0.02554  0.0007842  0.006251  0.0203  -0.3598  0.7713
6.45e+09  1.402  1.834  -0.02025  0.04468  0.007476  0.08515  -0.1124  0.8694
6.451e+09  2.009  1.357  -0.007531  -0.01247  -0.05682  -0.006475  0.2298  0.8254
6.452e+09  2.334  0.5218  0.008296  0.008929  -0.04176  -0.001087  0.481  0.6503
6.454e+09  2.435  -0.4243  0.03528  0.01633  0.06217  0.03525  0.6506  0.4523
6.455e+09  2.229  -1.212  -0.02695  -0.01893  -0.08086  0.04846  0.793  0.2035
6.456e+09  1.624  -1.946  0.0147  -0.02937  -0.002854  -0.04059  0.8244  -0.05545
6.458e+09  0.8375  -2.377  -0.00669  0.009324  -0.01193  0.06199  0.7714  -0.3507
6.459e+09  -0.01322  -2.627  0.01074  0.02872  0.03415  0.0001965  0.6031  -0.57
6.46e+09  -0.9285  -2.496  -0.01903  0.009068  0.04158  -0.05438  0.3302  -0.7309
6.461e+09  -1.929  -2.024  0.0427  -0.018  -0.07813  0.009149  0.07571  -0.7781
6.462e+09  -2.604  -1.325  0.003209  -0.007275  -0.02203  0.01573  -0.2076  -0.7957
6.464e+09  -2.982  -0.2703  0.02048  0.05236  -0.009693  -0.05447  -0.4766  -0.6319
6.465e+09  -2.973  0.7941  0.02087  -0.02138  0.07884  0.07579  -0.6361  -0.4372
6.466e+09  -2.493  1.922  -0.02955  -0.01195  0.05571  -0.02412  -0.7788  -0.1632
6.468e+09  -1.763  2.685  -0.0199  -0.02846  -0.005595  -0.01563  -0.7819  0.09307
6.469e+09  -0.6699  3.249  -0.006164  0.06644  0.02175  -0.00544  -0.7504  0.3451
6.47e+09  0.5672  3.433  0.01927  0.01111  -0.03159  -0.01162  -0.5571  0.5229
6.471e+09  1.815  3.069  -0.003477  -0.03967  -0.001905  -0.1378  -0.3292  0.7285
6.472e+09  2.812  2.298  -0.02058  0.05677  0.0469  0.07285  -0.04739  0.8042
6.474e+09  3.541  1.075  0.01014  0.008707  -0.07115  0.08365  0.2352  0.7887
6.475e+09  4.002  -0.176  0.02298  -0.01037  -0.01885  0.03364  0.4664  0.6609
6.476e+09  3.576  -1.79  0.01503  -0.008718  -0.006179  -0.0475  0.6703  0.4636
6.478e+09  2.894  -3.021  0.03319  0.00316  0.02314  0.0104  0.7678  0.2529
6.479e+09  1.448  -4.078  0.03676  -0.03576  -0.01291  0.1927  0.799  -0.1192
6.48e+09  -0.06156  -4.569  0.002339  0.01663  0.0001916  0.02143  0.7394  -0.3128
6.481e+09  -1.847  -4.241  0.03431  0.007338  -0.05595  -0.01578  0.5282  -0.5503
6.482e+09  -3.556  -3.512  0.02009  0.0351  -0.04522  -0.06996  0.3152  -0.697
6.484e+09  -4.872  -2.011  -0.03524  0.01436  0.0223  0.1524  0.0837  -0.7743
6.485e+09  -5.536  -0.02609  0.01107  -0.01589  -0.01368  0.009543  -0.2295  -0.7495
6.486e+09  -5.283  2.204  0.01337  -0.03282  -0.097  0.05373  -0.4565  -0.5794
6.488e+09  -3.673  3.802  0.00753  0.009119  0.6664  0.332  -0.6198  -0.4066
6.489e+09  -2.282  5.882  -0.02656  -0.02762  -0.04235  0.04028  -0.7205  -0.1518
6.49e+09  0.4275  6.856  -0.0281  0.02033  -0.1265  0.1341  -0.7336  0.08383
6.491e+09  3.053  6.433  -0.01209  -0.02985  -0.0225  -0.06307  -0.7038  0.3524
6.492e+09  5.834  4.91  -0.02072  0.02331  -0.0001787  0.04241  -0.5664  0.5765
6.494e+09  7.68  2.008  -0.004268  -0.001614  -0.02776  0.05739  -0.3147  0.705
6.495e+09  8.309  -1.672  -0.01008  -0.006624  -0.001493  0.08952  -0.01285  0.7811
6.496e+09  6.98  -5.191  0.0312  0.0195  -0.004158  0.01474  0.2129  0.7054
6.498e+09  4.193  -8.076  -0.008135  0.009036  -0.003581  -0.08181  0.4856  0.605
6.499e+09  -0.07962  -9.048  0.007243  0.02492  0.03755  0.0284  0.6346  0.4123
6.5e+09  -11.84  -4.966  -0.02754  -0.002295  0.07009  0.01359  0.761  0.1617
6.501e+09  -7.332  -5.369  0.01289  0.002333  -0.1157  0.02465  0.7648  -0.1044
6.502e+09  -8.829  -1.407  0.00531  0.02817  0.06797  0.0966  0.6627  -0.3084
6.504e+09  -8.292  2.535  -0.05322  0.0007205  0.00835  -0.05115  0.5327  -0.5765
6.505e+09  -6.132  5.547  -0.02385  -0.02504  -0.04307  0.06816  0.2426  -0.7045
6.506e+09  -3.033  7.287  0.005886  0.009033  0.07183  0.08384  0.00196  -0.7289
6.508e+09  0.3616  7.276  0.004955  -0.01571  -0.02881  0.02178  -0.2496  -0.722
6.509e+09  3.071  6.275  0.02014  0.01558  -0.07409  0.04409  -0.4962  -0.5584
6.51e+09  4.995  4.241  -0.03552  0.0001464  0.01148  -0.02657  -0.612  -0.4061
6.511e+09  5.979  1.816  0.01824  0.00105  -0.0002225  -0.1414  -0.7294  -0.1377
6.512e+09  5.853  -0.7768  -0.01027  -0.007553  -0.1066  -0.05008  -0.7113  0.1134
6.514e+09  4.833  -2.649  0.0112  -0.01493  -0.01228  -0.009686  -0.6919  0.3676
6.515e+09  3.301  -4.137  -0.0155  -0.02899  0.08488  -0.06829  -0.4644  0.5304
6.516e+09  1.442  -4.879  0.003674  -0.02628  0.07255  -0.03137  -0.2201  0.7377
6.518e+09  -0.5342  -4.726  -0.02302  0.02636  0.02555  -0.01383  -0.005384  0.7398
6.519e+09  -2.184  -3.915  -0.01394  -0.03473  0.06486  0.003842  0.2696  0.6809
6.52e+09  -3.347  -2.763  -0.02038  0.01354  0.03913  0.01698  0.4908  0.5373
6.521e+09  -3.87  -1.377  0.005377  -0.01938  0.04161  0.03772  0.6416  0.3499
6.522e+09  -3.996  0.2244  0.009157  -0.0273  0.01565  -0.01309  0.7699  0.1559
6.524e+09  -3.481  1.63  0.003423  0.02266  0.04499  -0.03465  0.6964  -0.1505
6.525e+09  -2.561  2.606  -0.002358  0.01379  0.03725  -0.02054  0.5999  -0.3817
6.526e+09  -1.388  3.29  -0.0115  -0.04904  -0.05101  0.003857  0.4033  -0.5693
6.528e+09  -0.1545  3.38  -0.0234  -0.008506  -0.02334  0.03134  0.211  -0.6915
6.529e+09  1.057  3.066  -0.008965  -0.02046  0.04139  0.008919  -0.09424  -0.7374
6.53e+09  1.994  2.397  -0.01208  -0.008483  0.028  -0.003518  -0.2947  -0.6311
6.531e+09  2.623  1.509  0.0001619  0.01581  0.008871  -0.0418  -0.4576  -0.4917
6.532e+09  2.946  0.4543  0.03227  0.01551  -0.02381  -0.03207  -0.6168  -0.2639
6.534e+09  2.749  -0.5988  0.0006333  0.001528  -0.01602  0.005751  -0.6425  -0.1142
6.535e+09  2.298  -1.491  -0.003323  0.01364  0.04519  -0.0006479  -0.6408  0.1164
6.536e+09  1.581  -2.275  -0.02003  0.02379  -0.04449  -0.02479  -0.5813  0.3141
6.538e+09  0.6403  -2.625  -0.01269  0.02609  0.05138  -0.0362  -0.4195  0.4838
6.539e+09  -0.2053  -2.633  0.01842  0.01438  -0.07185  -0.00952  -0.2897  0.589
6.54e+09  -1.168  -2.288  -0.01472  -0.01882  0.03207  0.009382  -0.06029  0.6886
6.541e+09  -1.796  -1.611  0.01895  0.006049  0.02255  -0.02381  0.1695  0.6858
6.542e+09  -2.233  -0.867  0.006152  -0.01216  -0.001012  0.05735  0.4407  0.5393
6.544e+09  -2.374  -0.03037  -0.01627  -0.01325  0.001101  0.04492  0.5927  0.387
6.545e+09  -2.17  0.8211  0.03034  -0.006059  -0.0112  0.06162  0.6891  0.1332
6.546e+09  -1.691  1.503  0.01316  0.01729  0.01609  0.03812  0.7218  -0.08389
6.548e+09  -1.063  1.962  0.0006717  -0.0231  0.04462  -0.04397  0.6742  -0.3619
6.549e+09  -0.2988  2.133  0.03031  -0.03242  -0.04839  0.03419  0.4999  -0.5493
6.55e+09  0.5208  2.084  -0.01352  0.008577  -0.02824  -0.03005  0.2933  -0.62
6.551e+09  1.166  1.804  -0.009269  0.01385  0.03548  -0.009112  0.0565  -0.7804
6.552e+09  1.637  1.231  0.01075  -0.00991  0.03896  0.00315  -0.2077  -0.7272
6.554e+09  1.89  0.5327  -0.006454  -0.03621  0.02756  -0.00247  -0.4561  -0.5916
6.555e+09  2.003  -0.2065  -0.005141  -0.03462  -0.04741  0.03442  -0.6478  -0.4309
