# Hz S RI R 50
6.25e+09  0.2219  -0.9285  0.01474  0.006071  -0.03992  -0.003843  0.1401  0.4956
6.251e+09  -0.1718  -0.9846  0.006391  -0.02462  0.03916  -0.007274  0.3938  0.3945
6.252e+09  -0.4963  -0.8341  -0.01546  -0.0186  0.0039  0.001851  0.5295  0.2555
6.254e+09  -0.789  -0.5276  -0.01536  -0.007021  0.03216  -0.02361  0.628  -0.01637
6.255e+09  -0.8548  -0.2688  0.02122  -0.01375  0.02618  -0.03938  0.6233  -0.2129
6.256e+09  -0.9554  0.09126  -0.01749  0.005985  0.02016  0.04733  0.4708  -0.4578
6.258e+09  -0.8391  0.4145  -0.02389  -0.005884  0.04257  -0.01342  0.2729  -0.6193
6.259e+09  -0.6145  0.6957  0.01327  -0.005463  0.0341  -0.006485  0.06417  -0.6816
6.26e+09  -0.3841  0.8605  -0.008954  0.004826  -0.002207  0.01734  -0.1973  -0.6638
6.261e+09  -0.03729  0.9507  -0.01208  0.01325  0.02066  -0.003579  -0.4349  -0.5305
6.262e+09  0.2868  0.8898  -0.005211  -0.02462  -0.02413  -0.01997  -0.6184  -0.3465
6.264e+09  0.642  0.6861  -0.01014  0.02206  0.004899  0.04559  -0.7011  -0.1155
6.265e+09  0.7774  0.479  -0.03372  0.006071  0.01447  0.03112  -0.724  0.1841
6.266e+09  0.8998  0.161  -0.01226  -0.0088  0.04779  -0.004914  -0.6078  0.4065
6.268e+09  0.8988  -0.1943  0.01602  0.01103  0.005898  -0.05941  -0.4172  0.5804
6.269e+09  0.7945  -0.4658  0.001666  0.01289  0.09402  -0.002523  -0.232  0.6821
6.27e+09  0.5564  -0.6918  -0.001183  -0.01238  0.001939  0.01761  0.07489  0.7516
6.271e+09  0.2305  -0.8592  0.02234  -0.04489  0.03363  0.007417  0.3327  0.6463
6.272e+09  -0.06846  -0.8883  -0.01192  0.01627  -0.001491  -0.05148  0.5403  0.5327
6.274e+09  -0.3904  -0.7886  -0.02058  0.006692  -0.004217  -0.05669  0.6705  0.3182
6.275e+09  -0.6531  -0.6056  -0.02883  -0.001605  -0.02539  -0.003426  0.7885  0.03127
6.276e+09  -0.8276  -0.4005  0.01274  -0.001271  0.03573  0.002427  0.7169  -0.2354
6.278e+09  -0.9007  -0.09867  0.0005157  0.01858  -0.05838  0.002592  0.5962  -0.4628
6.279e+09  -0.8794  0.2987  -0.01045  0.02366  0.01582  -0.0569  0.421  -0.6708
6.28e+09  -0.6935  0.5647  0.004896  0.01725  0.04253  0.07325  0.1231  -0.7268
6.281e+09  -0.5374  0.7746  -0.02437  0.004004  -0.02419  0.02432  -0.1262  -0.7644
6.282e+09  -0.1367  0.9049  -0.0032  -0.01154  0.01435  0.006103  -0.4001  -0.7158
6.284e+09  0.157  0.9187  -0.0136  -0.03352  -0.008495  0.02224  -0.5709  -0.539
6.285e+09  0.5145  0.773  -0.02234  -0.01901  0.01723  -0.004105  -0.7755  -0.2908
6.286e+09  0.6858  0.5955  0.01944  0.01591  -0.0304  0.01346  -0.789  -0.003815
6.288e+09  0.8263  0.3036  0.003645  -0.007011  -0.01012  0.009965  -0.7517  0.2649
6.289e+09  0.965  -0.03077  -0.004664  0.003515  -0.04951  -0.006077  -0.6201  0.4842
6.29e+09  0.8337  -0.3788  0.007505  -0.009641  0.001727  0.01471  -0.4053  0.6659
6.291e+09  0.6617  -0.5899  0.004071  0.01049  0.01796  0.01565  -0.1486  0.8061
6.292e+09  0.3955  -0.8136  0.002375  -0.02123  -0.04447  -2.898e-05  0.1394  0.8002
6.294e+09  0.119  -0.9111  0.01303  -0.008838  0.07635  -0.019  0.3802  0.7462
6.295e+09  -0.1977  -0.8709  -0.006289  0.01798  -0.01825  0.02794  0.6104  0.5308
6.296e+09  -0.5493  -0.7649  -0.01738  0.005779  -0.01649  0.05101  0.7821  0.2933
6.298e+09  -0.7569  -0.5565  -0.004356  -0.01627  0.02469  -0.02111  0.8125  0.03255
6.299e+09  -0.9197  -0.2203  -0.03011  -0.02052  0.004871  0.0693  0.788  -0.2435
6.3e+09  -0.9276  0.1004  -0.002372  0.009982  0.01355  -0.000724  0.6591  -0.5321
6.301e+09  -0.8471  0.4671  0.008609  -0.03408  -0.01938  0.0004767  0.4001  -0.7401
6.302e+09  -0.6523  0.6937  0.02353  0.01052  0.04246  0.0447  0.1494  -0.8205
6.304e+09  -0.3429  0.853  0.009407  0.01163  -0.02349  0.0158  -0.132  -0.849
6.305e+09  0.02652  0.9216  0.01297  0.01334  -0.02158  0.0249  -0.3921  -0.7464
6.306e+09  0.3021  0.805  -0.01632  -0.009843  -0.0002518  0.0002932  -0.6397  -0.5248
6.308e+09  0.5933  0.7357  0.009632  0.009698  -0.00692  -0.01434  -0.7959  -0.311
6.309e+09  0.831  0.4361  -0.01894  0.01047  -0.06894  -0.05621  -0.8772  0.02187
6.31e+09  0.9028  0.1344  0.001612  0.007279  0.02324  -0.03218  -0.8147  0.3194
6.311e+09  0.8825  -0.1932  0.01928  0.00137  0.002787  -0.01646  -0.6813  0.5731
6.312e+09  0.7785  -0.4692  0.01645  -0.02571  0.01485  -0.02109  -0.4424  0.7546
6.314e+09  0.5176  -0.71  -0.02472  -0.02146  0.03085  0.003075  -0.1534  0.8245
6.315e+09  0.2824  -0.8703  -0.01352  0.02839  0.001028  0.02525  0.1528  0.8845
6.316e+09  -0.1096  -0.9152  0.0333  -0.001192  0.002543  0.01506  0.4304  0.7702
6.318e+09  -0.3665  -0.8242  0.004034  -0.007996  0.03295  0.01134  0.6678  0.5555
6.319e+09  -0.6532  -0.5945  -0.01562  -0.002199  -0.009346  0.008809  0.8124  0.3359
6.32e+09  -0.8518  -0.4241  0.001931  -0.01473  0.02749  -0.05137  0.8867  -0.01212
6.321e+09  -0.9279  -0.0331  0.01905  0.02631  -0.01958  -0.01695  0.8329  -0.2878
6.322e+09  -0.9034  0.3035  -0.01659  0.03459  -0.003371  -0.004274  0.6796  -0.5678
6.324e+09  -0.7094  0.5235  -0.03405  -0.02713  0.01461  0.04278  0.4642  -0.7751
6.325e+09  -0.471  0.7512  -0.00604  -0.003401  -0.0183  0.002859  0.1412  -0.8882
6.326e+09  -0.1335  0.8976  0.008157  0.04399  -0.007323  -0.03329  -0.1653  -0.8854
6.328e+09  0.09703  0.9367  -3.269e-05  0.01244  -0.02161  0.01163  -0.4357  -0.7975
6.329e+09  0.5173  0.7851  -0.001753  -0.008931  -0.01813  -0.03246  -0.6501  -0.5942
6.33e+09  0.7003  0.6135  -0.02366  0.01378  -0.001102  -0.01133  -0.8539  -0.355
6.331e+09  0.8251  0.3038  0.02123  0.01469  0.006366  0.01722  -0.9163  -0.01906
6.332e+09  0.9346  -0.02782  0.002223  0.007569  -0.00106  -0.006908  -0.8467  0.2899
6.334e+09  0.8679  -0.3187  -0.0009803  0.05241  0.01349  -0.019  -0.7056  0.5844
6.335e+09  0.6836  -0.6577  0.003378  0.003529  0.06452  0.0287  -0.4739  0.797
6.336e+09  0.3828  -0.842  -0.01673  0.004956  -0.007439  0.009893  -0.1809  0.9443
6.338e+09  0.07329  -0.9069  -0.004913  0.003952  -0.007367  -0.009994  0.1549  0.9248
6.339e+09  -0.2294  -0.9409  -0.00522  0.006088  -0.01714  0.003184  0.4439  0.8241
6.34e+09  -0.5336  -0.772  0.02989  -0.04121  -0.03551  -0.06054  0.6662  0.6419
6.341e+09  -0.7434  -0.4953  0.005263  -0.007276  0.03688  -0.008947  0.8537  0.3444
6.342e+09  -0.9176  -0.1854  -0.02717  0.04978  -0.004861  -0.02847  0.9161  0.04262
6.344e+09  -0.9067  0.1252  -0.02353  -0.04014  -0.03867  -0.03136  0.8862  -0.3077
6.345e+09  -0.8203  0.4649  0.003236  0.008905  -0.01064  0.003921  0.7419  -0.5505
6.346e+09  -0.6272  0.7253  0.03727  -0.03651  -0.02947  -0.03116  0.5333  -0.7712
6.348e+09  -0.2959  0.8832  0.00864  -0.04866  -0.04814  0.0005546  0.2075  -0.9034
6.349e+09  0.01989  0.9409  -0.01438  0.001579  0.04421  0.006516  -0.137  -0.9592
6.35e+09  0.3348  0.8831  -0.003636  0.02536  -0.006133  -0.02758  -0.4389  -0.8341
6.351e+09  0.5942  0.6298  0.008494  0.01549  0.004024  -0.02862  -0.6894  -0.6382
6.352e+09  0.8399  0.4496  -0.0002469  -0.004661  -0.005903  -0.02261  -0.876  -0.3797
6.354e+09  0.9342  0.1254  -0.007816  0.02568  0.004611  -0.0008691  -0.9381  -0.04245
6.355e+09  0.8866  -0.2602  -0.04079  0.01632  0.002299  -0.02369  -0.9092  0.2776
6.356e+09  0.7906  -0.602  -0.02539  -0.007461  -0.003951  0.004598  -0.7407  0.5197
6.358e+09  0.548  -0.7618  0.02961  -0.02239  -0.01057  -0.02363  -0.5403  0.7866
6.359e+09  0.2313  -0.8967  0.0299  0.0114  -0.04522  0.007315  -0.2253  0.9363
6.36e+09  -0.1309  -0.9573  -0.003942  -0.008162  -0.03702  0.01814  0.09624  0.9694
6.361e+09  -0.4486  -0.8407  0.004227  0.005865  -0.003664  -0.0002164  0.4472  0.848
6.362e+09  -0.6966  -0.633  -0.02301  0.02486  0.0163  0.01652  0.6658  0.6719
6.364e+09  -0.8826  -0.3164  0.009751  -0.01389  0.04935  0.03577  0.862  0.39
6.365e+09  -0.9557  -0.03418  -0.01014  0.007623  -0.00302  -0.03232  0.9653  0.05126
6.366e+09  -0.8597  0.3414  0.03032  -0.01678  0.02911  0.0001126  0.9386  -0.2492
6.368e+09  -0.6956  0.6467  0.008403  -0.0225  -0.01264  0.01789  0.7905  -0.5803
6.369e+09  -0.444  0.8777  -0.01925  -0.02671  -0.02868  -0.006745  0.5656  -0.8009
6.37e+09  -0.1191  0.9398  -0.002521  0.004857  0.01873  0.01454  0.2217  -0.8893
6.371e+09  0.2526  0.9406  -0.01839  -0.01336  -0.005998  0.03063  -0.07413  -0.9307
6.372e+09  0.5466  0.7793  -0.03517  -0.007559  0.006035  -0.01065  -0.4116  -0.8465
6.374e+09  0.797  0.5422  0.004672  -0.02751  0.01469  0.0005677  -0.6365  -0.6545
6.375e+09  0.9923  0.2661  -0.004035  0.007892  0.007397  0.01906  -0.8585  -0.3934
6.376e+09  0.9452  -0.1146  -0.03666  0.01813  0.01269  -0.04048  -0.9066  -0.07365
6.378e+09  0.8851  -0.5135  -0.0144  0.02733  0.004689  0.02848  -0.9768  0.2399
6.379e+09  0.594  -0.7789  0.03351  -0.004847  0.04003  -0.005378  -0.8018  0.5445
6.38e+09  0.2879  -0.9405  -0.01359  0.01768  0.01123  -0.01779  -0.5656  0.7065
6.381e+09  -0.03612  -0.9981  0.002137  0.008306  0.01633  0.04984  -0.2535  0.8944
6.382e+09  -0.3899  -0.9196  0.01564  -0.033  0.03779  -0.02285  0.09925  0.9035
6.384e+09  -0.6806  -0.7259  0.02108  0.04823  -0.003821  -0.006619  0.3251  0.8533
6.385e+09  -0.8898  -0.4599  0.02656  -0.009357  -0.03359  -0.04662  0.6462  0.6808
6.386e+09  -0.9819  -0.08669  -0.01091  0.009527  -0.01576  -0.005653  0.8499  0.4418
6.388e+09  -0.9652  0.3  -0.01274  0.008746  -0.0248  -0.01472  0.9357  0.1052
6.389e+09  -0.8101  0.6304  -0.005252  -0.008059  -0.02695  0.0464  0.8975  -0.1777
6.39e+09  -0.5056  0.8686  -0.01114  -0.01992  -0.009081  0.008697  0.7776  -0.4597
6.391e+09  -0.1275  0.9685  -0.006111  0.0282  -0.02624  -0.01935  0.542  -0.7267
6.392e+09  0.1642  0.9893  -0.02225  -0.0003088  -0.02725  0.006846  0.2597  -0.8835
6.394e+09  0.5142  0.8997  -0.043  0.02016  -0.01181  0.005937  -0.02424  -0.9481
6.395e+09  0.799  0.6091  0.006083  -0.003908  0.002402  0.03529  -0.3867  -0.8639
6.396e+09  0.9553  0.2866  0.0005279  -0.007233  -0.02292  -0.01068  -0.6119  -0.678
6.398e+09  1.022  -0.01937  -0.02771  0.01751  0.01554  -0.04175  -0.7432  -0.4731
6.399e+09  0.9425  -0.4182  0.02696  0.008938  -0.04313  -0.01542  -0.8885  -0.1453
6.4e+09  0.7238  -0.7302  0.01325  0.05084  0.007457  -0.02239  -0.942  0.1823
6.401e+09  0.3498  -0.9066  -0.00164  0.03797  0.03753  0.02203  -0.7982  0.4551
6.402e+09  0.0341  -0.9721  0.004329  -0.01485  0.02329  0.05269  -0.5504  0.7186
6.404e+09  -0.3133  -0.9742  -0.007521  -0.02024  -0.02914  0.01801  -0.2777  0.8759
6.405e+09  -0.6429  -0.8026  -0.03826  -0.01447  -0.0117  -0.0231  -0.04758  0.9223
6.406e+09  -0.8574  -0.4924  -0.03778  0.02217  -0.02062  0.03004  0.2953  0.8671
6.408e+09  -0.9753  -0.1323  0.003867  0.01684  0.04073  0.03573  0.5583  0.7176
6.409e+09  -1.002  0.195  -0.01548  -0.01026  0.01105  0.002295  0.8425  0.451
6.41e+09  -0.8905  0.4859  0.03266  -0.04828  -0.03209  0.005502  0.9057  0.166
6.411e+09  -0.6181  0.8323  -0.01169  -0.01822  -0.005886  0.02618  0.8955  -0.1506
6.412e+09  -0.2935  0.9282  0.02184  -0.03362  -0.0527  0.03468  0.8038  -0.4093
6.414e+09  0.1065  1.002  0.01024  -0.005207  -0.04847  -0.01623  0.6155  -0.6567
6.415e+09  0.4677  0.8731  -0.01314  0.0477  -0.003455  0.03439  0.3231  -0.8423
6.416e+09  0.6912  0.6608  0.001629  0.001283  -0.01593  0.0329  0.0197  -0.8959
6.418e+09  0.9529  0.3762  0.01791  -0.01568  0.005645  -0.007021  -0.2641  -0.8826
6.419e+09  1.007  0.004745  0.02745  -0.0333  -0.006267  -0.0003548  -0.5705  -0.7329
6.42e+09  0.9277  -0.3712  -0.01679  -0.01263  0.01083  0.005812  -0.8194  -0.455
6.421e+09  0.7734  -0.648  0.01834  -0.03697  0.01167  0.006462  -0.8962  -0.1747
6.422e+09  0.4669  -0.9228  -0.03139  -0.01284  -0.0507  0.04949  -0.8584  0.1054
6.424e+09  0.1467  -0.9686  -0.05119  0.04812  0.01752  -0.001692  -0.8007  0.4008
6.425e+09  -0.2888  -0.9839  -0.003378  -0.02067  -0.01964  -0.02343  -0.6265  0.6253
6.426e+09  -0.6048  -0.8382  0.004105  -0.0315  0.002727  0.007253  -0.384  0.8443
6.428e+09  -0.8032  -0.4961  -0.04568  -0.02396  0.001978  -0.04902  -0.03484  0.8512
6.429e+09  -1.003  -0.2346  -0.03956  0.0007993  0.01034  -0.0271  0.243  0.831
6.43e+09  -0.9981  0.1216  0.01621  0.02979  0.04486  0.01737  0.5287  0.6954
6.431e+09  -0.8612  0.4694  -0.01684  0.005077  0.01038  -0.02235  0.7054  0.478
6.432e+09  -0.5888  0.7848  0.01767  -0.02846  -0.008197  0.05443  0.8374  0.2327
6.434e+09  -0.2908  0.9566  0.04331  0.02355  -0.01156  -0.02474  0.8462  -0.09481
6.435e+09  0.03173  0.9743  -0.008794  -0.02545  -0.00892  -0.03746  0.8008  -0.3696
6.436e+09  0.3721  0.894  0.01771  -0.009156  -0.001895  0.002374  0.5677  -0.6261
6.438e+09  0.6794  0.7309  0.03314  0.0364  0.01467  -0.01715  0.3486  -0.772
6.439e+09  0.8998  0.4399  0.008332  0.03965  0.01906  0.01487  0.01918  -0.8669
6.44e+09  0.9913  0.0679  -0.03118  0.008208  0.04445  0.02491  -0.2439  -0.818
6.441e+09  0.9516  -0.2818  0.06107  -0.04253  -0.04588  0.04923  -0.4924  -0.7095
6.442e+09  0.8036  -0.5758  0.03097  -0.01262  -0.0401  0.04487  -0.7228  -0.5315
6.444e+09  0.5053  -0.7642  0.002709  -0.04861  0.01582  -0.01789  -0.8334  -0.1925
6.445e+09  0.2229  -0.9527  0.0005246  0.011  0.02462  0.003931  -0.8189  0.06368
6.446e+09  -0.1379  -0.9222  -0.01116  -0.01058  0.01297  0.05962  -0.7283  0.3842
6.448e+09  -0.4651  -0.8639  0.0003053  0.01923  -0.03736  -0.01367  -0.5554  0.6361
6.449e+09  -0.685  -0.6216  0.02621  -0.06144  0.002373  -0.03925  -0.3668  0.8232
6.45e+09  -0.8621  -0.3084  0.001914  -0.008875  0.01343  -0.01366  -0.07566  0.8418
6.451e+09  -0.887  0.007272  -0.002362  0.03501  -0.0296  0.02174  0.2151  0.807
6.452e+09  -0.9031  0.3116  -0.005705  0.006716  0.03681  0.03199  0.4502  0.6385
6.454e+09  -0.7252  0.6361  -0.03734  -0.0235  -0.01279  0.01472  0.7206  0.4883
6.455e+09  -0.4729  0.7723  -0.006643  -0.01248  0.0394  -0.02458  0.8034  0.1766
6.456e+09  -0.1717  0.8856  -0.03247  -0.01416  -0.04152  -0.02163  0.7861  -0.1039
6.458e+09  0.196  0.9382  0.002451  0.002131  -0.01059  0.005135  0.7532  -0.3341
6.459e+09  0.5166  0.7903  0.0414  -0.0002731  -0.01958  0.02425  0.6143  -0.5857
6.46e+09  0.6628  0.554  0.02935  0.03565  0.02135  0.01793  0.3383  -0.7968
6.461e+09  0.8821  0.2872  -0.003716  -0.01136  -0.001084  -0.07443  0.06291  -0.8384
6.462e+09  0.9074  -0.05894  -0.007576  0.02512  0.01112  0.00908  -0.2187  -0.7815
6.464e+09  0.8687  -0.3495  0.02146  0.0378  -0.01167  0.03161  -0.468  -0.6564
6.465e+09  0.6235  -0.6372  0.005039  -0.007026  -0.01931  -0.0107  -0.6393  -0.4602
6.466e+09  0.419  -0.7839  -0.0005778  -0.03395  0.02632  -0.05134  -0.7495  -0.1872
6.468e+09  0.04947  -0.921  -0.005989  0.0482  0.0201  -0.05217  -0.8449  0.07878
6.469e+09  -0.2553  -0.9039  0.01406  -0.03037  -0.04741  -0.05422  -0.7034  0.3482
6.47e+09  -0.5075  -0.7366  -0.01245  0.0109  0.0173  -0.02683  -0.5842  0.5697
6.471e+09  -0.7504  -0.5699  -0.03336  -0.02015  0.01446  -0.02598  -0.3289  0.7503
6.472e+09  -0.8485  -0.2435  0.03888  0.006222  -0.04092  0.01688  -0.07238  0.7759
6.474e+09  -0.8863  0.07596  0.02649  -0.01025  -0.01229  -0.01374  0.1904  0.7803
6.475e+09  -0.7947  0.3598  -0.00169  -0.0006959  -0.01741  0.01962  0.4802  0.6502
6.476e+09  -0.6483  0.6599  -0.0276  -0.02831  0.03224  -0.08373  0.6796  0.4365
6.478e+09  -0.334  0.8505  0.01987  -0.004154  -0.02328  0.02186  0.7733  0.2265
6.479e+09  -0.03763  0.8531  -0.01449  8.906e-05  -0.03357  0.05786  0.821  -0.07767
6.48e+09  0.2462  0.8469  -0.003388  0.01954  0.04546  0.0384  0.7059  -0.3639
6.481e+09  0.5372  0.7075  0.01887  0.0282  -0.02466  0.0042  0.55  -0.542
6.482e+09  0.7327  0.4892  -0.01367  0.01542  0.02528  -0.004463  0.3137  -0.7046
6.484e+09  0.8662  0.1663  -0.01278  -0.001105  0.01941  0.08111  0.06742  -0.7558
6.485e+09  0.8759  -0.1716  0.02843  -0.03045  0.05529  -0.01594  -0.2005  -0.7379
6.486e+09  0.7331  -0.4428  -0.005995  0.01796  -0.01467  -0.02856  -0.4704  -0.6028
6.488e+09  1.295  -0.7298  -0.002917  -0.03228  -0.4022  0.6535  -0.6311  -0.4492
6.489e+09  0.2926  -0.8416  -0.02385  -0.01793  -0.004385  0.01608  -0.701  -0.1955
6.49e+09  -0.008926  -0.8504  0.0212  -0.0385  0.01749  0.003213  -0.7561  0.09124
6.491e+09  -0.3013  -0.8598  -0.03035  -0.01369  -0.03649  -0.006461  -0.6982  0.374
6.492e+09  -0.5814  -0.6669  -0.003173  -0.01444  -0.04075  0.03678  -0.5051  0.5536
6.494e+09  -0.826  -0.4702  0.007426  0.02859  0.1252  -0.01708  -0.3014  0.728
6.495e+09  -0.9045  -0.1698  -0.01715  0.001284  -0.005966  0.01843  -0.03031  0.822
6.496e+09  -0.8552  0.1973  0.02749  -0.01199  0.01605  0.02228  0.227  0.7899
6.498e+09  -0.7784  0.4624  0.006002  -0.002326  0.04924  -0.03145  0.438  0.6267
6.499e+09  -0.5172  0.6907  0.0005032  -0.001345  -0.01343  -0.0452  0.6311  0.4389
6.5e+09  -0.08564  0.4228  0.006352  -0.01092  -0.02893  -0.04324  0.7248  0.1686
6.501e+09  0.02061  0.9174  -0.02149  -0.01349  0.02933  0.0006776  0.7943  -0.07779
6.502e+09  0.3318  0.8568  -0.00124  0.02081  0.04685  -0.01106  0.6666  -0.3479
6.504e+09  0.5709  0.6797  0.01632  -0.006266  0.04227  -9.197e-05  0.4855  -0.6033
6.505e+09  0.8251  0.4404  0.008505  -0.003071  -0.007912  -0.02173  0.2547  -0.6838
6.506e+09  0.9386  0.1576  0.003657  -0.04846  -0.0534  0.003796  0.04649  -0.7468
6.508e+09  0.8962  -0.2287  0.03887  -0.02018  -0.05922  -0.01492  -0.2146  -0.7271
6.509e+09  0.7583  -0.46  -0.01908  -0.0384  -0.008766  0.01249  -0.5376  -0.5498
6.51e+09  0.5093  -0.7237  -0.01702  0.01838  -0.02207  -0.001534  -0.6578  -0.3793
6.511e+09  0.2197  -0.9061  -0.002975  -0.01445  -0.007035  0.01185  -0.7749  -0.1191
6.512e+09  -0.08972  -0.9054  -0.002979  -0.005838  -0.01551  -0.03547  -0.7953  0.1321
6.514e+09  -0.3946  -0.8233  0.003813  0.01367  0.002773  0.005664  -0.6417  0.3834
6.515e+09  -0.645  -0.6147  -0.0627  0.01874  0.02493  0.02544  -0.4874  0.596
6.516e+09  -0.901  -0.4007  -0.0102  -0.03934  -0.03508  -0.04793  -0.2295  0.6816
6.518e+09  -0.9153  -0.0526  0.02003  -0.002063  -0.001567  -0.01946  0.01988  0.7846
6.519e+09  -0.8852  0.2272  0.01643  0.007002  -0.02089  0.01457  0.2434  0.7267
6.52e+09  -0.7738  0.5105  0.01827  -0.0212  -0.03273  -0.009472  0.4737  0.5718
6.521e+09  -0.5483  0.725  0.004869  0.03283  0.03252  0.002331  0.6372  0.3586
6.522e+09  -0.2398  0.9789  0.004106  0.03988  0.003712  0.03739  0.7299  0.08284
6.524e+09  0.1053  0.933  -0.03625  -0.008289  -0.04147  -0.01792  0.7058  -0.1105
6.525e+09  0.3633  0.8439  0.02191  -0.007502  0.03083  0.02878  0.5967  -0.3887
6.526e+09  0.7147  0.6187  0.009706  -0.00626  -0.03067  -0.02341  0.3876  -0.5476
6.528e+09  0.7998  0.3886  -0.007135  -0.001354  0.012  -0.01211  0.1914  -0.6921
6.529e+09  0.9694  0.05302  0.02252  0.02615  -0.01452  0.0167  -0.03277  -0.7223
6.53e+09  0.9647  -0.3062  0.0008229  -0.002731  0.01329  0.01193  -0.2785  -0.6308
6.531e+09  0.7692  -0.6092  -0.0004864  0.008697  -0.03994  -0.02148  -0.4929  -0.4776
6.532e+09  0.4903  -0.8289  0.01309  0.003526  0.01301  -0.0277  -0.5616  -0.2682
6.534e+09  0.2157  -0.9729  -0.02141  0.002808  -0.0337  0.04311  -0.6594  -0.1077
6.535e+09  -0.1671  -0.9882  0.004924  -0.01041  -0.0285  -0.057  -0.6147  0.09303
6.536e+09  -0.5131  -0.8518  -0.01395  -0.001703  -0.001052  0.03228  -0.5999  0.3343
6.538e+09  -0.7503  -0.5947  0.03988  0.01319  0.008549  -0.0002153  -0.4574  0.4894
6.539e+09  -0.955  -0.4082  -0.02549  -0.01007  -0.02667  -0.0156  -0.307  0.5616
6.54e+09  -0.9491  0.003864  0.01531  -0.005692  0.01973  0.0007911  -0.0357  0.6928
6.541e+09  -0.927  0.3687  0.01141  -0.005731  -0.02239  0.003837  0.1904  0.647
6.542e+09  -0.7027  0.6243  0.007977  -0.0005576  0.006393  -0.02666  0.4238  0.5665
6.544e+09  -0.5032  0.8898  0.01408  -0.0002552  0.01476  0.04982  0.6239  0.3881
6.545e+09  -0.111  0.9563  -0.01435  0.00564  -0.01826  -0.03201  0.6983  0.1796
6.546e+09  0.2522  0.9773  -0.01547  0.003953  0.06097  0.01676  0.694  -0.07015
6.548e+09  0.5405  0.8414  0.0006301  0.00461  0.0225  -0.01533  0.6751  -0.3265
6.549e+09  0.779  0.6441  -0.01623  -0.02177  0.01295  0.007195  0.4745  -0.514
6.55e+09  1.021  0.2711  0.002075  -0.01901  -0.01292  0.02858  0.2916  -0.6648
