# Hz S RI R 50
6.25e+09  0.3883  0.9114  0.005468  -0.008498  0.0379  0.01273  0.1764  0.4749
6.251e+09  0.692  0.5961  -0.01861  -0.04318  0.01974  -0.038  0.3796  0.4309
6.252e+09  0.9148  0.45  -0.005045  0.009282  0.01868  0.03757  0.5132  0.2492
6.254e+09  0.9122  0.004712  -0.009435  -0.02005  0.02383  -0.0107  0.632  0.03424
6.255e+09  0.9063  -0.3062  0.0008391  0.03108  -0.03938  -0.05171  0.5518  -0.2649
6.256e+09  0.7405  -0.6236  0.01894  0.01096  0.0552  -0.004121  0.4998  -0.4809
6.258e+09  0.5218  -0.8196  0.01117  -0.003288  -0.05369  0.04736  0.283  -0.6258
6.259e+09  0.2327  -0.8965  -0.001037  -0.008605  -0.03116  -0.02428  0.04804  -0.6393
6.26e+09  -0.1437  -0.9595  -0.0183  0.003779  0.007731  -0.02172  -0.2097  -0.6311
6.261e+09  -0.5185  -0.8237  0.003086  -0.01202  0.03644  0.01142  -0.3949  -0.5488
6.262e+09  -0.7131  -0.5777  0.00763  0.00512  0.009521  -0.003635  -0.5817  -0.3478
6.264e+09  -0.8918  -0.3793  -0.01078  0.008848  -0.02151  0.009215  -0.71  -0.1125
6.265e+09  -0.9181  0.02122  -0.001633  -0.02336  -0.02191  -0.02898  -0.7068  0.1716
6.266e+09  -0.9126  0.3325  -0.005839  -0.01605  -0.00838  -0.02122  -0.6224  0.3936
6.268e+09  -0.7359  0.6422  -0.03758  -0.02638  0.006719  -0.01172  -0.4392  0.6002
6.269e+09  -0.4837  0.8423  -0.01735  0.02052  -0.005367  -0.02755  -0.1924  0.7112
6.27e+09  -0.1596  0.9287  0.008299  0.01146  0.03236  -0.07732  0.0769  0.7697
6.271e+09  0.1865  0.9718  -0.01956  -0.01929  -0.02195  0.05995  0.3246  0.6753
6.272e+09  0.5482  0.8158  -0.001803  0.003655  -0.02099  0.02043  0.5642  0.5031
6.274e+09  0.7938  0.6209  0.01053  -0.01923  0.01212  -0.0005992  0.6841  0.2894
6.275e+09  0.9561  0.3083  0.004323  0.006574  -0.03497  -0.02753  0.7408  0.03401
6.276e+09  0.9501  0.002669  -0.01177  -0.009625  0.01397  0.02939  0.7224  -0.2275
6.278e+09  0.9185  -0.328  -0.04931  0.02653  -0.002541  0.0004852  0.622  -0.4489
6.279e+09  0.6854  -0.641  0.0009778  0.005048  -0.01135  0.01319  0.4122  -0.6203
6.28e+09  0.4539  -0.8291  -0.01569  0.02797  -0.03403  -0.008846  0.1893  -0.7628
6.281e+09  0.0794  -0.9137  0.02508  -0.0004936  -0.03451  -0.04728  -0.1196  -0.7775
6.282e+09  -0.2337  -0.9066  0.01547  -0.005414  -0.01474  0.01179  -0.3541  -0.6895
6.284e+09  -0.5437  -0.7992  -0.01093  -0.006009  -0.015  -0.03215  -0.6009  -0.5218
6.285e+09  -0.7378  -0.5759  0.008755  -0.003282  -0.0116  0.02746  -0.7683  -0.236
6.286e+09  -0.9506  -0.2464  0.012  -0.000676  0.01406  -0.01321  -0.7785  -0.04159
6.288e+09  -0.9491  0.09234  -0.01202  0.02646  -0.07493  0.04079  -0.7506  0.261
6.289e+09  -0.8673  0.438  0.0006424  -0.006652  -0.05049  0.04528  -0.5984  0.5065
6.29e+09  -0.5894  0.6834  -0.01842  -0.02115  0.003713  -0.002412  -0.4424  0.6975
6.291e+09  -0.3347  0.8804  0.007834  -0.003373  0.02736  0.03695  -0.1529  0.8206
6.292e+09  -0.03778  0.9289  0.028  -0.0197  0.02234  -0.002561  0.1279  0.7819
6.294e+09  0.3045  0.9164  -0.01059  -0.008313  0.01795  -0.01194  0.4433  0.7174
6.295e+09  0.6087  0.7746  -0.01081  0.005327  0.01523  -0.007369  0.6418  0.531
6.296e+09  0.8468  0.4993  -0.02637  0.02304  0.01477  -0.04475  0.7845  0.3038
6.298e+09  0.9128  0.1481  0.01271  -0.01025  0.002404  0.01366  0.8404  0.0123
6.299e+09  0.9342  -0.1996  0.01269  0.01554  0.005694  0.02054  0.7924  -0.2823
6.3e+09  0.8378  -0.5165  0.005507  0.005953  0.01514  -0.00394  0.6465  -0.5589
6.301e+09  0.5961  -0.7606  -0.003754  0.009544  0.01102  0.01167  0.4266  -0.724
6.302e+09  0.3492  -0.927  -0.008219  0.01808  0.02522  -0.01641  0.1223  -0.8128
6.304e+09  -0.01078  -0.9403  0.01796  0.01255  0.009509  0.04837  -0.1408  -0.8425
6.305e+09  -0.3805  -0.9492  -0.008082  0.004207  -0.02683  -0.0391  -0.4216  -0.7396
6.306e+09  -0.681  -0.7239  0.01368  0.005488  -0.008567  -0.05113  -0.6369  -0.5635
6.308e+09  -0.8356  -0.484  -0.008152  -0.02841  0.02184  -0.007093  -0.7801  -0.3015
6.309e+09  -0.9664  -0.1411  -0.00704  -0.0002882  0.004435  0.07185  -0.8659  0.01645
6.31e+09  -0.9262  0.2204  -0.01019  0.02337  0.006242  0.03163  -0.8102  0.2881
6.311e+09  -0.815  0.5114  -0.02548  0.01201  0.04808  0.03539  -0.6701  0.5588
6.312e+09  -0.5972  0.7771  -0.02839  -0.01285  -0.01632  -0.01613  -0.4396  0.7259
6.314e+09  -0.2924  0.9798  -0.004214  0.02476  0.02511  0.03492  -0.1701  0.8869
6.315e+09  0.08293  1.026  -0.004232  0.01869  0.0001449  0.0102  0.14  0.8594
6.316e+09  0.4499  0.8698  -0.0216  -0.01884  0.001482  0.01819  0.4339  0.7781
6.318e+09  0.7493  0.6768  -0.01983  -0.002361  0.0166  0.005906  0.6698  0.5524
6.319e+09  0.9398  0.3981  0.01057  0.009496  -0.04178  -0.009067  0.8462  0.3177
6.32e+09  0.9917  0.03831  0.03569  -0.01005  0.03203  0.0379  0.8625  0.02207
6.321e+09  0.9359  -0.2685  0.006395  0.01424  0.008276  -0.01427  0.8508  -0.286
6.322e+09  0.7612  -0.585  0.004667  -0.02949  -0.01274  -0.1081  0.7154  -0.5782
6.324e+09  0.5222  -0.8706  0.03264  0.02125  0.02127  0.0373  0.4595  -0.7834
6.325e+09  0.2077  -1.006  -0.03617  0.007821  0.03972  -0.03888  0.1846  -0.8887
6.326e+09  -0.1794  -1.015  0.006973  -0.03448  0.02315  0.02595  -0.1477  -0.9046
6.328e+09  -0.507  -0.9633  -0.008086  -0.007072  0.007437  0.027  -0.4096  -0.811
6.329e+09  -0.8083  -0.6956  -0.003304  0.002342  0.0101  -0.03209  -0.6774  -0.5847
6.33e+09  -0.9511  -0.4182  -0.01955  0.03798  -0.01827  0.02296  -0.8072  -0.2986
6.331e+09  -1.073  -0.0185  -0.003455  -0.002141  0.02249  -0.05148  -0.9098  -0.02202
6.332e+09  -0.97  0.3446  -0.04665  0.02289  -0.05193  -0.0063  -0.8706  0.3152
6.334e+09  -0.8146  0.6995  0.02051  -0.02665  -0.01247  -0.02782  -0.6898  0.5789
6.335e+09  -0.523  0.9333  -0.0007964  0.0358  0.005224  -0.006422  -0.4751  0.7699
6.336e+09  -0.1803  1.075  -0.0265  0.02003  0.05373  0.05446  -0.1872  0.8999
6.338e+09  0.2112  1.09  -0.02299  -0.01673  0.02884  -0.02018  0.1482  0.8987
6.339e+09  0.6033  0.9304  -0.01183  0.002678  0.01772  -0.00524  0.4163  0.8144
6.34e+09  0.9046  0.6462  -0.02451  0.01152  -0.003372  -0.004498  0.702  0.5798
6.341e+09  1.039  0.3367  0.0298  -0.01098  0.006041  0.05314  0.8449  0.3525
6.342e+09  1.116  -0.03027  -0.00535  0.002481  0.01167  -0.02926  0.9374  0.02472
6.344e+09  0.9926  -0.4521  -0.02562  -0.008981  -0.01973  0.004426  0.8794  -0.2913
6.345e+09  0.7768  -0.7847  0.004823  0.02951  0.003704  -0.02771  0.7711  -0.5679
6.346e+09  0.445  -1.021  0.02033  -0.02033  0.01429  -0.03578  0.4765  -0.7844
6.348e+09  0.1058  -1.086  -0.002645  0.0248  -0.04218  -0.03887  0.2204  -0.9543
6.349e+09  -0.2633  -1.073  0.01317  -0.005459  -0.0008359  -0.02122  -0.1398  -0.9262
6.35e+09  -0.6415  -0.8955  -0.0003689  -0.01758  0.02115  -0.02937  -0.4246  -0.818
6.351e+09  -0.97  -0.6035  0.0312  -0.005705  -0.03109  -0.0108  -0.663  -0.6721
6.352e+09  -1.114  -0.295  0.03632  0.02745  0.005307  0.0002588  -0.8344  -0.3587
6.354e+09  -1.12  0.1445  0.02555  -0.0138  0.000971  -0.03265  -0.9555  -0.05567
6.355e+09  -1.005  0.4992  0.03348  -0.005176  0.007849  -0.05916  -0.91  0.2601
6.356e+09  -0.7784  0.8549  -0.001524  0.00156  0.007596  -0.06451  -0.7741  0.5641
6.358e+09  -0.4261  1.067  -0.008153  0.0142  0.02564  0.04636  -0.5275  0.7569
6.359e+09  -0.04725  1.153  -0.02594  0.01469  0.01734  0.02191  -0.1907  0.9128
6.36e+09  0.3969  1.125  -0.03557  -0.0419  -0.00872  0.02329  0.08237  0.9286
6.361e+09  0.7104  0.9164  -0.007702  -0.01853  -0.009071  -0.008354  0.4145  0.8654
6.362e+09  1.015  0.6582  -0.01042  -0.01523  0.007929  -0.04099  0.6833  0.6857
6.364e+09  1.181  0.2191  -0.006227  0.002101  -0.0003394  0.01282  0.8656  0.4406
6.365e+09  1.223  -0.2278  0.008988  0.0159  -0.03587  -0.007901  0.9321  0.09494
6.366e+09  1.06  -0.6067  -0.02601  0.009013  -0.01278  0.04313  0.9349  -0.2466
6.368e+09  0.7754  -0.9001  -0.01225  0.009104  -0.04362  0.0115  0.8081  -0.5541
6.369e+09  0.4637  -1.187  -0.002179  -0.0001926  0.05841  0.01127  0.5675  -0.7806
6.37e+09  -0.006101  -1.244  0.00268  -0.01362  0.02012  0.01395  0.2195  -0.9334
6.371e+09  -0.4298  -1.132  0.002058  -0.001191  -0.02684  -0.01437  -0.1092  -0.9634
6.372e+09  -0.8438  -0.994  -0.01101  -0.001591  -0.001288  -0.009952  -0.398  -0.8463
6.374e+09  -1.087  -0.5485  -0.0168  0.01389  -0.03675  -0.02148  -0.6746  -0.6529
6.375e+09  -1.243  -0.2101  0.01012  -0.01773  0.03104  0.006382  -0.8517  -0.3791
6.376e+09  -1.225  0.2561  0.04264  0.005539  -0.03495  -0.02537  -0.9245  -0.07733
6.378e+09  -1.07  0.6892  0.03012  -0.008533  0.0409  -0.04971  -0.8703  0.2213
6.379e+09  -0.7873  1.06  0.01539  -0.00734  0.01556  0.02757  -0.8043  0.5789
6.38e+09  -0.423  1.258  0.02617  -0.01968  0.01342  0.02775  -0.5665  0.7678
6.381e+09  0.02949  1.336  -0.002832  -0.005349  -0.007736  -0.0209  -0.2651  0.9326
6.382e+09  0.482  1.225  -0.005804  -0.01191  0.01211  0.01348  0.04897  0.9503
6.384e+09  0.9326  0.9949  0.008414  0.01308  0.02104  -0.04646  0.3625  0.8497
6.385e+09  1.24  0.5962  -0.03252  0.01337  0.02311  0.03674  0.6466  0.6677
6.386e+09  1.394  0.1348  0.02626  0.0007452  -0.008896  0.01056  0.8007  0.4251
6.388e+09  1.327  -0.3046  0.05026  0.0005472  -0.02015  0.01151  0.9323  0.1003
6.389e+09  1.177  -0.7409  -0.01274  -0.02317  -0.004532  0.02116  0.9371  -0.1973
6.39e+09  0.7466  -1.14  0.01952  0.04289  -0.01361  0.02329  0.7638  -0.4866
6.391e+09  0.3476  -1.389  -0.004677  -0.01057  -0.07753  9.355e-05  0.6164  -0.7142
6.392e+09  -0.1519  -1.447  -0.03316  0.0403  0.009956  0.009264  0.2946  -0.8556
6.394e+09  -0.6049  -1.257  0.0005187  -0.002652  0.002885  0.001121  -0.04278  -0.8986
6.395e+09  -1.059  -1.008  0.03139  0.0002303  0.01395  0.03656  -0.3227  -0.8745
6.396e+09  -1.361  -0.5869  0.003158  -0.0417  0.03883  0.006387  -0.6088  -0.7483
6.398e+09  -1.506  -0.07518  0.002565  -0.0007035  0.03419  -0.005661  -0.807  -0.3976
6.399e+09  -1.397  0.495  -0.005237  0.004052  -0.03135  -0.01408  -0.8944  -0.111
6.4e+09  -1.239  0.8638  -0.0352  -0.01276  -0.0149  -0.02724  -0.8727  0.1705
6.401e+09  -0.8329  1.232  -0.01399  0.009399  0.008812  0.008332  -0.811  0.4806
6.402e+09  -0.329  1.463  -0.01819  -0.008781  -0.006396  -0.01077  -0.638  0.719
6.404e+09  0.2565  1.537  0.01392  0.007112  0.0295  0.02657  -0.3628  0.9031
6.405e+09  0.6564  1.362  0.01288  -0.01936  0.02107  0.005061  0.01681  0.9311
6.406e+09  1.272  1.076  -0.01106  -0.0348  0.004079  -0.0371  0.2929  0.8263
6.408e+09  1.522  0.6082  -0.03222  -0.0006915  0.05867  0.02371  0.5626  0.6928
6.409e+09  1.627  -0.02229  -0.02589  0.003505  0.01893  -0.03939  0.7372  0.4475
6.41e+09  1.612  -0.596  0.02419  -0.04024  -0.01207  -0.02712  0.9191  0.1418
6.411e+09  1.278  -1.097  -0.006307  0.01908  -0.04388  0.03311  0.8996  -0.1014
6.412e+09  0.8525  -1.563  0.04823  0.007141  0.002997  0.06142  0.7996  -0.4412
6.414e+09  0.2296  -1.74  0.01248  -0.0006423  -0.06259  -0.002091  0.5979  -0.6373
6.415e+09  -0.4246  -1.752  -0.0301  -0.03287  0.03788  0.00173  0.3018  -0.825
6.416e+09  -0.9442  -1.5  0.006277  0.03124  0.007936  -0.03992  0.0451  -0.9086
6.418e+09  -1.5  -1.075  -0.02319  -0.01217  0.03275  -0.02396  -0.27  -0.8627
6.419e+09  -1.701  -0.4363  -0.0331  -0.03123  -0.02919  -0.05826  -0.5609  -0.7194
6.42e+09  -1.851  0.1621  -0.03788  -0.007727  -0.01719  0.02468  -0.7621  -0.5177
6.421e+09  -1.76  0.8378  0.01815  0.005119  0.06024  0.03098  -0.8776  -0.2199
6.422e+09  -1.364  1.401  -0.008892  -0.01402  0.03006  0.003399  -0.8729  0.1295
6.424e+09  -0.7559  1.782  0.02704  0.04695  0.02266  -0.007177  -0.7835  0.44
6.425e+09  -0.1037  1.941  0.03438  0.02585  -0.06137  0.03626  -0.5902  0.6286
6.426e+09  0.6131  1.885  -0.04171  -0.02253  0.02201  -0.01671  -0.3801  0.8037
6.428e+09  1.272  1.58  0.01492  -0.0322  0.04145  -0.0315  -0.06342  0.8482
6.429e+09  1.823  1.048  -0.0002228  -0.008901  -0.009627  -0.001671  0.2721  0.8601
6.43e+09  2.104  0.4214  0.04365  0.04293  -0.03258  -0.0468  0.4946  0.6806
6.431e+09  2.142  -0.3241  0.0004637  -0.005185  0.02018  -0.03365  0.7137  0.501
6.432e+09  1.88  -1.159  0.02285  0.02954  -0.02459  0.0402  0.8538  0.1925
6.434e+09  1.383  -1.713  0.01813  -0.04057  -0.03703  0.01173  0.864  -0.09896
6.435e+09  0.7192  -2.221  0.02085  0.04089  0.0394  -0.01107  0.7809  -0.3299
6.436e+09  -0.0985  -2.301  0.01252  0.002398  0.04228  -0.06886  0.6086  -0.6516
6.438e+09  -0.9221  -2.131  -0.03817  -0.01116  -0.02708  -0.07908  0.3941  -0.7584
6.439e+09  -1.669  -1.697  0.009353  0.007126  -0.0002234  -0.04468  0.06416  -0.8521
6.44e+09  -2.24  -1.002  -0.04121  0.0007628  0.004919  -0.01364  -0.3037  -0.8424
6.441e+09  -2.507  -0.1126  -0.04683  -0.01658  0.02517  -0.009293  -0.4761  -0.7316
6.442e+09  -2.438  0.775  0.02395  -0.01371  -0.0192  -0.02737  -0.6934  -0.4576
6.444e+09  -2.014  1.645  0.01436  -0.04917  0.01253  -0.01718  -0.8105  -0.2256
6.445e+09  -1.337  2.274  0.01313  0.008404  -0.03369  0.04206  -0.865  0.07302
6.446e+09  -0.4961  2.71  -0.04444  -0.0005338  -0.03136  -0.03857  -0.7331  0.3976
6.448e+09  0.5349  2.691  -0.023  0.01507  -0.02274  0.0726  -0.5587  0.5967
6.449e+09  1.55  2.416  -0.01617  0.005874  0.03832  0.03048  -0.335  0.754
6.45e+09  2.306  1.8  -0.03627  -0.01146  0.05593  -0.01054  -0.02127  0.8155
6.451e+09  2.764  0.8031  -0.02364  0.01057  0.003569  0.01559  0.1986  0.7591
6.452e+09  3.039  -0.3027  -0.01783  -0.06762  0.0166  -0.06207  0.4883  0.6845
6.454e+09  2.765  -1.345  0.003262  0.01859  -0.01938  -0.03277  0.6998  0.4538
6.455e+09  2.161  -2.31  -0.01078  -0.02792  0.02236  0.05896  0.8403  0.2008
6.456e+09  1.247  -3.018  0.05427  0.01169  -0.0002268  0.03258  0.8662  -0.1001
6.458e+09  0.005982  -3.373  0.007494  0.02148  -0.04323  -0.006884  0.7726  -0.3737
6.459e+09  -1.238  -3.273  -0.004302  0.01184  -0.05499  0.006886  0.5724  -0.5748
6.46e+09  -2.353  -2.609  0.02629  0.01541  0.01291  -0.03802  0.3399  -0.737
6.461e+09  -3.24  -1.596  0.00348  0.01955  -0.0289  -0.008719  0.07157  -0.7588
6.462e+09  -3.706  -0.4021  0.0368  0.02186  -0.02587  0.0617  -0.2844  -0.7774
6.464e+09  -3.742  1.101  -0.01241  0.03426  0.002184  -0.008274  -0.4748  -0.6499
6.465e+09  -3.188  2.4  0.006946  -0.009316  0.09314  0.0101  -0.6797  -0.4605
6.466e+09  -2.131  3.477  0.001039  -0.008571  0.03502  0.006569  -0.7827  -0.2293
6.468e+09  -0.6945  3.998  -0.02655  0.002424  0.02087  -0.06765  -0.7707  0.03108
6.469e+09  0.805  4.25  0.01037  -0.01961  0.0637  -0.09765  -0.7456  0.3423
6.47e+09  2.492  3.879  0.04556  0.001804  -0.02353  0.1298  -0.5295  0.5791
6.471e+09  3.752  2.673  0.0007305  0.001831  0.07378  0.0592  -0.3605  0.7426
6.472e+09  4.763  1.166  -0.02891  0.004601  -0.002871  0.1278  -0.06073  0.8184
6.474e+09  4.902  -0.742  0.01815  -0.02577  -0.01144  -0.009623  0.2709  0.7664
6.475e+09  4.592  -2.476  0.05644  -0.01885  -0.01259  -0.11  0.4463  0.634
6.476e+09  3.227  -4.307  0.04121  -0.03831  0.002613  -0.1464  0.6002  0.4719
6.478e+09  1.51  -5.34  0.03992  -0.002528  0.1511  -0.02427  0.7445  0.2049
6.479e+09  -0.6552  -5.593  -0.0134  0.004649  0.09057  -0.05489  0.7665  -0.03273
6.48e+09  -2.826  -5.175  0.007453  0.02346  -0.09715  -0.003615  0.6833  -0.3592
6.481e+09  -4.929  -3.765  -0.005108  0.01943  0.027  -0.01962  0.5241  -0.5933
6.482e+09  -6.273  -1.585  0.02227  0.01792  0.005895  0.09981  0.2748  -0.7209
6.484e+09  -6.698  1.024  0.009908  0.01669  -0.01813  -0.02276  0.0659  -0.8048
6.485e+09  -6.054  3.577  -0.006973  -0.01475  -0.06044  0.1787  -0.178  -0.7975
6.486e+09  -4.333  5.73  -0.006962  -0.001124  0.02566  0.003777  -0.4233  -0.6322
6.488e+09  -1.147  7.798  -0.008232  0.01377  -0.2738  0.5683  -0.6559  -0.4375
6.489e+09  1.411  7.639  0.006999  0.02008  0.004258  0.09881  -0.7674  -0.1688
6.49e+09  4.529  6.535  -0.01533  0.01612  0.08657  -0.009222  -0.7394  0.09033
6.491e+09  7.201  4.146  0.01406  -0.01793  -0.02902  -0.1737  -0.7259  0.3612
6.492e+09  8.417  0.8601  -0.0146  0.01503  -0.03977  0.02438  -0.4992  0.5958
6.494e+09  8.204  -2.518  -0.02391  0.04369  0.1153  0.08464  -0.2998  0.6694
6.495e+09  6.4  -5.875  -0.0296  -0.003307  -0.1146  -0.131  -0.02145  0.7642
6.496e+09  3.602  -8.333  0.007754  -0.003877  -0.05525  -0.1768  0.1948  0.7317
6.498e+09  -0.3544  -9.14  -0.001187  -0.002993  0.01586  0.0116  0.5039  0.6134
6.499e+09  -4.358  -8.27  0.03335  -0.001615  -0.01253  0.1276  0.6427  0.433
6.5e+09  -10.29  -13.73  0.003006  -0.003002  0.1739  -0.3597  0.7583  0.168
6.501e+09  -9.062  -1.967  -0.04288  0.001885  0.1062  -0.126  0.7573  -0.1112
6.502e+09  -9.001  2.149  -0.004514  -0.04526  -0.0927  0.07489  0.677  -0.3733
6.504e+09  -7.132  5.697  -0.03871  0.02914  -0.05605  0.07806  0.4526  -0.572
6.505e+09  -4.082  8.033  0.0185  -0.01712  0.02746  0.0112  0.2876  -0.7032
6.506e+09  -0.3332  8.619  0.0245  -0.02213  0.07417  -0.1061  0.02439  -0.733
6.508e+09  3.175  7.818  -0.00984  -0.002461  0.1325  0.02329  -0.2638  -0.6918
6.509e+09  5.928  5.753  0.01094  0.004649  -0.1712  0.04129  -0.4739  -0.5871
6.51e+09  7.485  2.618  0.01922  0.00474  -0.04147  0.04327  -0.6452  -0.3604
6.511e+09  7.739  -0.5453  0.01543  0.01146  0.08956  0.05232  -0.7771  -0.1535
6.512e+09  6.555  -3.429  0.00186  0.00201  -0.03064  0.03119  -0.7478  0.1392
6.514e+09  4.545  -5.579  0.001427  -0.03229  -0.04822  -0.01977  -0.6673  0.3765
6.515e+09  1.922  -6.65  -0.005532  -0.02368  0.09788  0.00968  -0.4587  0.543
6.516e+09  -0.7601  -6.479  0.01444  -0.01609  0.06657  0.02799  -0.2619  0.715
6.518e+09  -3.164  -5.455  -0.0001552  -0.03075  -0.05163  0.0002354  -0.05144  0.7465
6.519e+09  -4.732  -3.849  0.02995  -0.02266  -0.07711  -0.0444  0.2881  0.6923
6.52e+09  -5.573  -1.537  0.00243  0.02106  0.005918  0.07768  0.5066  0.5571
6.521e+09  -5.665  0.6758  0.01135  0.006489  -0.03064  -0.04251  0.6427  0.3117
6.522e+09  -4.615  2.641  -0.05132  0.004902  0.02135  -0.03394  0.7137  0.1352
6.524e+09  -3.249  4.028  -0.02987  -0.01894  0.05641  0.03489  0.7288  -0.2023
6.525e+09  -1.276  4.776  -0.01958  -0.008174  -0.03285  -0.01137  0.6277  -0.4174
6.526e+09  0.421  4.853  -0.03194  0.01155  -0.02904  -0.008443  0.4319  -0.6089
6.528e+09  2.109  4.133  -0.02478  0.0007224  -0.01727  -0.03174  0.2142  -0.7145
6.529e+09  3.391  2.978  0.01424  -0.01059  0.01677  -0.04499  -0.093  -0.7038
6.53e+09  4.084  1.483  -0.01004  -0.001276  0.005636  0.02134  -0.3147  -0.6271
6.531e+09  4.242  -0.1273  -0.008082  -0.01108  -0.005351  0.07102  -0.4688  -0.5038
6.532e+09  3.749  -1.646  -0.008545  -0.002099  0.002198  0.005337  -0.5865  -0.3037
6.534e+09  2.843  -2.773  -0.02799  -0.03574  0.02674  -0.02929  -0.6362  -0.09605
6.535e+09  1.662  -3.535  -0.01714  0.01469  -0.001227  -0.002138  -0.5831  0.1185
6.536e+09  0.1631  -3.777  0.008424  -0.004269  -0.02729  -0.01665  -0.5674  0.3155
6.538e+09  -1.179  -3.546  -0.03085  -0.005328  -0.05016  0.02304  -0.4448  0.4677
6.539e+09  -2.249  -2.806  -0.001941  0.03241  0.01208  0.02698  -0.2829  0.6073
6.54e+09  -3.077  -1.696  -0.01517  0.0153  0.04549  -0.09182  -0.02946  0.6777
6.541e+09  -3.362  -0.5174  -0.01455  -0.008329  0.01633  -0.005514  0.1695  0.6828
6.542e+09  -3.164  0.7176  0.001386  0.005371  0.005776  0.01251  0.39  0.5906
6.544e+09  -2.626  1.785  -0.002464  -0.006362  0.05336  -0.01624  0.6061  0.388
6.545e+09  -1.819  2.493  -0.02475  -0.001012  -0.02323  -0.03822  0.6965  0.1953
6.546e+09  -0.7527  2.851  0.001795  -0.002445  0.02267  0.01975  0.7298  -0.06244
6.548e+09  0.3297  2.948  -0.01133  0.007078  -0.02257  0.03501  0.6354  -0.323
6.549e+09  1.31  2.587  0.04562  -0.02153  -0.0318  0.04081  0.5251  -0.5063
6.55e+09  2.152  1.819  -0.01661  0.0007001  0.0394  -0.02399  0.2764  -0.6735
6.551e+09  2.602  0.9925  -0.01691  0.01487  0.01886  0.04817  0.02951  -0.7064
6.552e+09  2.758  -0.01083  -0.03751  -0.01946  0.005958  -0.04569  -0.2121  -0.6947
6.554e+09  2.484  -1.023  0.01975  -0.01926  -0.02355  0.02258  -0.4782  -0.5836
6.555e+09  1.914  -1.757  0.02172  0.005049  -0.06584  0.08439  -0.6581  -0.4292
