# Hz S RI R 50
6.25e+09  -0.02694  0.9526  -0.001388  -0.0002281  0.002411  -0.0166  0.1699  0.4893
6.251e+09  0.3403  0.8317  -0.001018  0.006888  -0.04124  -0.03095  0.3709  0.4251
6.252e+09  0.5843  0.7369  -0.03917  -0.01685  -0.02911  -0.05893  0.5346  0.2586
6.254e+09  0.7855  0.4381  -0.008511  0.03302  0.03052  0.01803  0.58  -0.00641
6.255e+09  0.9225  0.168  -0.009239  0.01919  -0.008006  0.04875  0.5958  -0.2085
6.256e+09  0.9367  -0.04924  0.02508  0.04191  0.02969  -0.03565  0.4755  -0.4541
6.258e+09  0.8437  -0.4617  0.03041  -0.006586  0.04851  -0.01947  0.2816  -0.6013
6.259e+09  0.5735  -0.6174  0.02897  0.0384  0.0393  -0.01569  0.01972  -0.6832
6.26e+09  0.3333  -0.8165  -0.01237  -0.007843  0.01885  -8.627e-05  -0.2127  -0.6751
6.261e+09  0.0255  -0.9065  0.008223  0.02506  0.009683  0.03809  -0.455  -0.5423
6.262e+09  -0.2522  -0.8794  -0.002632  -0.04226  0.02454  0.03195  -0.5989  -0.3313
6.264e+09  -0.5631  -0.7101  0.04014  0.023  0.03977  -0.01149  -0.7087  -0.08769
6.265e+09  -0.8237  -0.4715  -0.01225  -0.006291  0.01279  0.03127  -0.6959  0.1537
6.266e+09  -0.9011  -0.1581  -0.009796  0.01577  0.05412  0.03274  -0.5811  0.3981
6.268e+09  -0.8431  0.1485  -0.0112  0.01785  -0.009141  0.003091  -0.4109  0.6133
6.269e+09  -0.7122  0.4729  -0.02638  -0.00648  0.02049  0.02324  -0.1744  0.6937
6.27e+09  -0.5765  0.6866  -0.01601  0.01302  0.0097  0.01175  0.053  0.7271
6.271e+09  -0.298  0.8864  -0.002509  -0.01082  0.005341  -0.004125  0.3456  0.6628
6.272e+09  -0.008689  0.8698  -0.02407  -0.01211  -0.01754  0.03657  0.552  0.5346
6.274e+09  0.3718  0.8263  -0.009285  -0.02219  0.0166  -0.02742  0.7032  0.3075
6.275e+09  0.6181  0.6563  -0.006472  -0.0002986  -0.005199  0.06196  0.7397  0.02805
6.276e+09  0.8008  0.4049  0.02222  -0.002418  0.005042  0.04045  0.7485  -0.2272
6.278e+09  0.8686  0.1273  0.02337  -0.005864  -0.0414  0.007767  0.6449  -0.4971
6.279e+09  0.8888  -0.2262  0.02002  0.01268  -0.005937  0.04378  0.4054  -0.6463
6.28e+09  0.7115  -0.5313  -0.03884  0.02238  -0.006823  -0.01258  0.1584  -0.7814
6.281e+09  0.5483  -0.7672  -0.008267  -0.04311  0.03952  0.01714  -0.1152  -0.8026
6.282e+09  0.2706  -0.8816  -0.03523  0.01389  0.0119  -0.008055  -0.3755  -0.6746
6.284e+09  -0.05445  -0.8918  0.01392  -0.01758  -0.02804  -0.009486  -0.5774  -0.507
6.285e+09  -0.4066  -0.8591  -0.03778  -0.008892  0.04269  -0.01369  -0.7255  -0.2875
6.286e+09  -0.605  -0.6347  -0.01302  0.02998  -0.02893  0.004322  -0.8371  0.007847
6.288e+09  -0.8081  -0.4091  -0.0168  -0.0006981  -0.01226  -0.0485  -0.7761  0.2625
6.289e+09  -0.9177  -0.05329  0.002578  0.02615  0.01541  -0.03412  -0.6498  0.5036
6.29e+09  -0.9355  0.1998  -0.02381  0.04351  -0.01624  0.01938  -0.3799  0.6838
6.291e+09  -0.6908  0.5187  0.01018  0.007299  -0.03374  -0.007474  -0.1616  0.8238
6.292e+09  -0.5513  0.7201  0.00142  -0.01285  -0.03465  -0.02977  0.1238  0.8633
6.294e+09  -0.1947  0.8276  0.02078  -0.003328  -0.06456  -0.01964  0.3718  0.7098
6.295e+09  0.08335  0.9654  -0.00635  -0.01256  -0.06035  0.007776  0.6287  0.5457
6.296e+09  0.4181  0.8322  -0.03076  -0.02331  0.001252  0.008793  0.7523  0.2916
6.298e+09  0.6436  0.6196  -0.01058  0.02149  0.03459  -0.01393  0.8074  0.00926
6.299e+09  0.8289  0.3604  0.04124  0.02336  -0.01692  0.03061  0.8099  -0.3014
6.3e+09  0.9714  0.08165  2.895e-05  0.007262  -0.02141  -0.02641  0.6523  -0.5367
6.301e+09  0.8813  -0.3011  -0.007443  -0.02559  0.01541  0.01796  0.399  -0.7108
6.302e+09  0.7253  -0.5256  -0.03446  -0.009975  0.01965  0.04564  0.1442  -0.7847
6.304e+09  0.5006  -0.8269  -0.02155  0.0182  0.04012  -0.01849  -0.1488  -0.8385
6.305e+09  0.1425  -0.913  0.04185  0.008727  0.01771  -0.0105  -0.4585  -0.7454
6.306e+09  -0.1884  -0.971  -0.003603  0.03514  0.02764  -0.000567  -0.6625  -0.5515
6.308e+09  -0.481  -0.8245  0.01677  -0.009806  0.01779  -0.04479  -0.7976  -0.2992
6.309e+09  -0.7272  -0.5652  -0.01572  0.02301  0.009731  0.01606  -0.866  -0.01602
6.31e+09  -0.8604  -0.3381  -0.02216  -0.01227  -0.02201  -0.007581  -0.797  0.3146
6.311e+09  -0.9665  0.0132  -0.0006165  0.01844  0.00521  -0.01986  -0.6761  0.5102
6.312e+09  -0.874  0.3992  0.001551  0.000642  -0.006974  -0.008569  -0.446  0.7456
6.314e+09  -0.6697  0.6672  -0.006369  -0.01818  0.01279  0.01975  -0.1894  0.8437
6.315e+09  -0.4203  0.8802  -0.01964  0.008635  -0.0005225  -0.01976  0.1422  0.8751
6.316e+09  -0.1167  1.001  0.009265  -0.01209  -0.01241  -0.05539  0.4298  0.7565
6.318e+09  0.2207  0.9269  0.03275  -0.0345  -0.009328  -0.005065  0.6969  0.5972
6.319e+09  0.5607  0.7524  0.02029  0.003571  -0.04329  0.006638  0.8086  0.3278
6.32e+09  0.8074  0.5444  -0.01949  0.002286  0.01802  -0.04566  0.8777  0.005879
6.321e+09  0.9247  0.2594  -0.02986  -0.01075  -0.00848  -0.002632  0.8377  -0.2972
6.322e+09  1.008  -0.1133  -0.008891  0.006683  0.04723  -0.01668  0.6922  -0.5499
6.324e+09  0.8847  -0.4858  0.01141  -0.01975  0.03165  0.02223  0.4626  -0.7685
6.325e+09  0.6597  -0.7721  0.03233  -0.009285  0.009228  -0.02033  0.1771  -0.9144
6.326e+09  0.4085  -0.9061  -0.00671  -0.007861  0.01816  -0.05066  -0.09215  -0.9034
6.328e+09  0.04185  -0.9793  -0.02053  0.01361  0.02616  0.006028  -0.4264  -0.7592
6.329e+09  -0.3624  -0.9209  0.00293  0.02962  0.02661  -0.01141  -0.6646  -0.5986
6.33e+09  -0.6248  -0.7422  -0.005356  -0.005697  -0.01119  -0.04601  -0.8138  -0.3507
6.331e+09  -0.8715  -0.5034  -0.003058  0.004058  0.01767  -0.003302  -0.914  -0.0388
6.332e+09  -0.9463  -0.1767  0.005952  0.001543  0.004693  -0.02029  -0.8856  0.3104
6.334e+09  -0.9533  0.2336  0.01236  -0.0246  0.01333  -0.06213  -0.7413  0.5325
6.335e+09  -0.8154  0.5098  -0.001655  -0.02118  -0.01819  0.003078  -0.5087  0.771
6.336e+09  -0.6463  0.7877  0.01033  -0.02346  0.003988  0.003885  -0.1999  0.9246
6.338e+09  -0.2666  1.011  -0.0006898  -0.006834  0.02987  0.001615  0.09882  0.9472
6.339e+09  0.05135  0.9974  -0.01019  -0.01503  0.01419  0.03947  0.4023  0.823
6.34e+09  0.4354  0.9684  0.007582  0.005618  0.004671  0.05717  0.6831  0.6049
6.341e+09  0.7328  0.7318  0.009076  0.001708  -0.03057  -0.004727  0.8473  0.3472
6.342e+09  0.9317  0.4542  0.02887  -0.00341  -0.02403  -0.01878  0.9139  0.03194
6.344e+09  0.959  0.0137  0.01279  0.0231  -0.009813  -0.04365  0.881  -0.2698
6.345e+09  0.9871  -0.2962  -0.01379  0.00683  0.009322  0.03125  0.7395  -0.5811
6.346e+09  0.8371  -0.6216  -0.05001  0.01943  0.001881  0.03036  0.5292  -0.7791
6.348e+09  0.5492  -0.8939  0.01278  0.007414  -0.02708  -0.01052  0.1474  -0.9196
6.349e+09  0.1948  -0.9755  -0.002702  -0.004154  0.01886  -0.01115  -0.1524  -0.953
6.35e+09  -0.2259  -1.011  -0.02261  0.01243  -0.008285  -0.01646  -0.4115  -0.8276
6.351e+09  -0.4498  -0.8867  0.0009779  0.0359  -0.02481  -0.02045  -0.6692  -0.6723
6.352e+09  -0.7897  -0.6161  0.01834  -0.006187  0.02311  -0.01634  -0.8957  -0.3678
6.354e+09  -1.015  -0.3231  -0.001464  0.01661  0.04952  0.01939  -0.9246  -0.06897
6.355e+09  -1.026  0.01998  0.002492  -0.006612  0.0646  -0.03918  -0.9095  0.2493
6.356e+09  -0.9561  0.3756  -0.0264  -0.01958  -0.02823  -0.03865  -0.7331  0.5925
6.358e+09  -0.7708  0.711  -0.03117  -0.00323  -0.01983  0.00156  -0.5332  0.7801
6.359e+09  -0.4538  0.8898  -0.009975  -0.00291  0.007832  0.01058  -0.2574  0.9211
6.36e+09  -0.147  0.9823  0.02046  0.008748  0.0191  -0.007689  0.1142  0.9507
6.361e+09  0.2121  0.9684  0.01857  -0.003248  -0.01862  -0.01425  0.4407  0.8255
6.362e+09  0.5241  0.8308  0.02759  -0.02443  -0.04178  -0.01127  0.6719  0.6709
6.364e+09  0.8587  0.6078  0.02638  -0.04307  0.007506  -0.02349  0.8866  0.425
6.365e+09  1  0.3112  0.02749  -0.005655  -0.01373  -0.001486  0.9549  0.06368
6.366e+09  1.003  -0.07203  0.04709  -0.0002722  -0.01165  -0.009154  0.9423  -0.2342
6.368e+09  0.919  -0.4506  -0.01401  -0.02538  -0.02605  0.02011  0.7655  -0.5669
6.369e+09  0.6928  -0.7136  0.01847  -0.007387  0.01162  -0.01119  0.5488  -0.7692
6.37e+09  0.3621  -0.8652  0.01273  0.03619  -0.05109  0.02938  0.24  -0.8877
6.371e+09  0.06996  -1.022  0.007268  0.01544  -0.03169  -0.0009608  -0.1221  -0.9364
6.372e+09  -0.3062  -0.928  0.01613  -0.01087  0.006766  -0.005945  -0.4056  -0.8809
6.374e+09  -0.62  -0.7867  0.02192  0.008912  0.02817  0.01316  -0.6607  -0.6438
6.375e+09  -0.8198  -0.5582  -0.003035  0.008716  0.09776  -0.02569  -0.8825  -0.411
6.376e+09  -0.9843  -0.1736  -0.0388  0.03704  0.01713  -0.005858  -0.9501  -0.1235
6.378e+09  -0.9555  0.1362  0.03481  0.006262  0.01999  0.03337  -0.8541  0.2677
6.379e+09  -0.8705  0.4612  0.006585  -0.0006671  0.03153  -0.03141  -0.8217  0.5191
6.38e+09  -0.6221  0.7755  0.04005  0.02468  -0.02829  0.01298  -0.579  0.8075
6.381e+09  -0.3899  0.9307  -0.03698  0.008123  -0.04506  0.007942  -0.2692  0.9436
6.382e+09  -0.002782  0.964  -0.002499  0.02668  -0.0123  -0.01421  0.05839  0.9291
6.384e+09  0.3264  0.915  -0.02104  -0.00293  -0.004909  0.05113  0.3726  0.8892
6.385e+09  0.6083  0.7913  -0.0667  0.007432  -0.02036  0.03211  0.6538  0.6791
6.386e+09  0.8766  0.4819  -0.006357  0.05808  -0.04542  -0.02496  0.8312  0.4341
6.388e+09  0.9504  0.1567  -0.0005085  -0.01001  -0.01325  -0.01944  0.9598  0.07547
6.389e+09  0.9532  -0.186  -0.003777  -0.02884  -0.01565  -0.04768  0.8845  -0.2114
6.39e+09  0.8117  -0.4797  -0.003036  -0.03055  0.0107  0.05401  0.7853  -0.5237
6.391e+09  0.5689  -0.767  -0.03101  0.02828  -0.01139  0.006129  0.5356  -0.7142
6.392e+09  0.3116  -0.9201  -0.0154  -0.01454  -0.01172  -0.02918  0.2913  -0.8757
6.394e+09  -0.04785  -0.9628  -0.03931  0.01217  0.01628  0.02804  -0.01778  -0.9353
6.395e+09  -0.3768  -0.8825  0.03862  0.008085  0.006841  0.008688  -0.3414  -0.8524
6.396e+09  -0.5977  -0.6919  -0.006593  -0.01443  0.01335  -0.006015  -0.598  -0.7269
6.398e+09  -0.8476  -0.3847  -0.01281  0.03115  -0.01276  0.03474  -0.8003  -0.4374
6.399e+09  -0.9222  -0.1469  -0.02169  0.03731  0.0245  0.06136  -0.9026  -0.1694
6.4e+09  -0.9479  0.2546  0.01446  -0.0059  -0.01349  -0.003027  -0.8996  0.2038
6.401e+09  -0.7463  0.5084  0.02103  -0.003025  -0.001245  0.007601  -0.7704  0.4879
6.402e+09  -0.5525  0.741  -0.02268  0.0009886  0.03017  0.009992  -0.5387  0.7175
6.404e+09  -0.2656  0.9042  -0.00509  -0.00858  0.01352  -0.03877  -0.2938  0.8385
6.405e+09  0.03025  0.9126  0.001569  -0.01417  0.01316  0.03649  0.02083  0.9302
6.406e+09  0.3553  0.8879  0.00858  0.006101  0.01532  0.0209  0.3006  0.9247
6.408e+09  0.6832  0.7404  0.003456  -0.002634  0.02822  0.001343  0.584  0.722
6.409e+09  0.8364  0.4216  -0.002246  0.01699  -0.03924  0.02072  0.7874  0.4489
6.41e+09  0.9459  0.09306  0.01577  -0.0004951  0.02609  -0.031  0.9067  0.1847
6.411e+09  0.9508  -0.2363  0.04128  -0.02352  -0.05034  -0.03257  0.9017  -0.1857
6.412e+09  0.839  -0.513  -0.02973  0.03649  -0.02511  -0.001346  0.771  -0.4368
6.414e+09  0.5533  -0.8002  -0.01036  0.004699  -0.0004728  0.01956  0.5796  -0.6671
6.415e+09  0.2631  -0.8984  0.02246  -0.0007408  0.01078  0.05656  0.3681  -0.8081
6.416e+09  -0.1438  -0.9555  0.006289  0.02711  -0.01883  -0.03889  0.01462  -0.9161
6.418e+09  -0.3867  -0.8633  0.008855  0.02556  -0.009841  0.01502  -0.2731  -0.8473
6.419e+09  -0.6225  -0.6498  0.05867  0.01244  0.02517  0.01754  -0.5352  -0.7107
6.42e+09  -0.9053  -0.4625  0.02281  0.0005631  0.0596  0.03729  -0.7421  -0.4545
6.421e+09  -0.924  -0.0714  -0.01908  0.03691  0.01563  -0.003941  -0.845  -0.1963
6.422e+09  -0.934  0.2562  0.001982  0.03377  0.006092  -0.02705  -0.84  0.1232
6.424e+09  -0.7749  0.5663  0.03653  -0.004088  -0.003881  -0.03151  -0.8113  0.4203
6.425e+09  -0.51  0.8239  -0.002311  0.03851  -0.02562  -0.002698  -0.5906  0.6423
6.426e+09  -0.25  0.9707  0.01373  0.01748  -0.002017  0.005441  -0.3652  0.8417
6.428e+09  0.1365  1.038  0.00893  0.03282  -0.004082  0.002198  -0.08982  0.866
6.429e+09  0.4861  0.8396  -0.01512  -0.01923  0.01929  0.01037  0.1578  0.8369
6.43e+09  0.7497  0.6815  -0.02457  -0.01123  -0.03797  0.03501  0.5139  0.6654
6.431e+09  0.8706  0.3759  0.05385  0.008156  0.02499  0.02147  0.7536  0.5226
6.432e+09  1.016  0.0368  -0.02452  -0.01282  0.07681  -0.01599  0.8452  0.2432
6.434e+09  0.9193  -0.3081  -0.002522  0.01986  0.07679  0.02707  0.8915  -0.08329
6.435e+09  0.8198  -0.6389  8.641e-05  -0.02666  0.03972  -0.004913  0.7796  -0.3971
6.436e+09  0.5424  -0.8116  0.008447  0.04428  -0.0129  -0.04778  0.6084  -0.5844
6.438e+09  0.1881  -0.9863  0.0116  0.01091  0.02786  -0.03992  0.3795  -0.8428
6.439e+09  -0.1497  -0.9735  -0.01427  -0.0006329  0.01526  0.02651  0.06541  -0.8448
6.44e+09  -0.4817  -0.8772  0.05077  0.03884  -0.03522  0.06849  -0.2219  -0.8275
6.441e+09  -0.7452  -0.6414  0.01917  0.0244  0.01205  0.00308  -0.4608  -0.7166
6.442e+09  -0.9106  -0.3452  -0.01354  0.01019  -0.01846  0.03283  -0.72  -0.4872
6.444e+09  -1.016  -0.01651  0.01691  -0.01909  0.01756  -0.00368  -0.8321  -0.263
6.445e+09  -0.955  0.3624  0.009481  -0.01607  -9.129e-05  0.02101  -0.8242  0.0438
6.446e+09  -0.7449  0.6903  0.027  -0.01446  -0.01089  -0.02521  -0.7858  0.3787
6.448e+09  -0.4726  0.8264  0.01872  -0.01124  0.004994  -0.0002739  -0.6041  0.5832
6.449e+09  -0.1439  0.9917  0.04162  -0.03868  0.03505  0.02252  -0.3042  0.7319
6.45e+09  0.1723  1.038  -0.005382  0.0277  0.03421  -0.04201  -0.05171  0.844
6.451e+09  0.5776  0.877  0.03333  0.0007736  0.001569  -0.0349  0.2467  0.8214
6.452e+09  0.7516  0.6031  -0.01662  0.02874  0.00615  0.0207  0.4789  0.6921
6.454e+09  0.9903  0.2764  0.003981  -0.05295  -0.001476  -0.04188  0.6646  0.4834
6.455e+09  0.975  -0.04661  -0.00256  0.02674  0.007256  -0.04037  0.7973  0.1873
6.456e+09  0.9761  -0.4112  0.004729  0.02594  -0.009358  -0.02863  0.8026  -0.05452
6.458e+09  0.7613  -0.7552  0.00362  -0.05139  -0.02193  0.002817  0.7523  -0.3901
6.459e+09  0.4248  -0.9091  0.001454  0.003145  0.01377  -0.052  0.5644  -0.6036
6.46e+09  0.06925  -0.9781  -0.000148  -0.02438  -0.02756  -0.02545  0.3717  -0.768
6.461e+09  -0.2693  -1.049  -0.04344  0.009942  0.01354  -0.08428  0.07201  -0.8197
6.462e+09  -0.6072  -0.8241  -0.0426  0.02888  -0.01173  0.02965  -0.2526  -0.8108
6.464e+09  -0.8521  -0.5528  -0.006287  0.03003  0.03471  0.001477  -0.4669  -0.6779
6.465e+09  -0.9373  -0.2484  -0.0006742  -0.06159  -0.01078  -0.06088  -0.7033  -0.488
6.466e+09  -1.036  0.09286  -0.04884  0.01787  0.0004548  -0.02843  -0.8039  -0.1584
6.468e+09  -0.9792  0.4512  0.03495  0.02474  0.02394  0.05451  -0.7667  0.04564
6.469e+09  -0.7051  0.7628  0.04772  0.01703  -0.04065  -0.005048  -0.7502  0.3359
6.47e+09  -0.4162  0.97  -0.01836  0.009266  -0.01698  -0.004743  -0.5354  0.5642
6.471e+09  0.01442  1.043  -0.006794  -0.009756  -0.0339  0.01933  -0.3336  0.7284
6.472e+09  0.3681  1.004  -0.02662  -0.03298  0.002786  0.01338  -0.04937  0.733
6.474e+09  0.6627  0.7873  0.02995  -0.03865  0.01632  0.01729  0.2069  0.7619
6.475e+09  0.897  0.5144  -0.002751  0.03475  0.005774  0.007293  0.4943  0.6294
6.476e+09  1.029  0.1395  0.01718  -0.009688  -0.001841  -0.01651  0.635  0.3801
6.478e+09  1.083  -0.2286  0.04584  -0.00479  -0.006243  -0.006817  0.7101  0.1741
6.479e+09  0.9068  -0.556  0.003681  0.01957  -0.002456  0.0197  0.7455  -0.05337
6.48e+09  0.6408  -0.8279  0.02811  -0.03444  0.01854  0.01699  0.7228  -0.3324
6.481e+09  0.2752  -0.982  -0.02336  0.02288  -0.02746  -0.07089  0.5912  -0.5776
6.482e+09  -0.08966  -1.114  0.007997  0.02248  0.008552  -0.04862  0.2817  -0.7017
6.484e+09  -0.4296  -0.9491  -0.02857  0.002536  -0.04585  -0.03097  0.01577  -0.8161
6.485e+09  -0.7635  -0.766  0.01963  -0.01518  -0.009339  -0.02521  -0.2018  -0.7618
6.486e+09  -0.9649  -0.4513  0.02542  -0.0115  -0.02768  0.01699  -0.4712  -0.6129
6.488e+09  -0.424  0.2385  0.03734  0.008366  -0.3624  -0.6346  -0.6574  -0.4521
6.489e+09  -1.084  0.3494  0.02046  -0.05055  -0.01311  0.05974  -0.7726  -0.1695
6.49e+09  -0.7692  0.6915  0.01561  0.03325  -0.007334  0.005218  -0.7391  0.08516
6.491e+09  -0.5505  0.879  -0.006174  -0.02341  -0.04155  -0.04696  -0.6912  0.3281
6.492e+09  -0.1988  1.092  0.008093  -0.01019  -0.02676  0.04787  -0.5164  0.5674
6.494e+09  0.09469  1.037  0.0459  -0.002497  -0.04289  0.04736  -0.3048  0.6937
6.495e+09  0.5987  0.941  -0.02057  0.01597  0.02798  0.005917  -0.04177  0.7483
6.496e+09  0.8571  0.6886  0.008852  -0.008966  -0.05006  0.03326  0.2368  0.7007
6.498e+09  1.069  0.2759  -0.002344  0.01408  0.003182  -0.001943  0.4094  0.6213
6.499e+09  1.075  -0.01858  0.005103  -0.005276  0.01348  0.007703  0.62  0.3883
6.5e+09  1.122  -0.902  -0.02373  0.002383  -0.03027  0.02892  0.7181  0.1214
6.501e+09  0.7614  -0.8063  -0.01811  0.02513  -0.01383  -0.01704  0.7964  -0.1267
6.502e+09  0.4152  -0.9562  0.02833  -0.02245  -0.01156  -0.004312  0.6892  -0.3956
6.504e+09  0.0432  -1.107  0.007672  0.004732  0.02478  0.005877  0.5151  -0.5811
6.505e+09  -0.3774  -1.008  0.01616  -0.02147  0.02874  0.03351  0.265  -0.7151
6.506e+09  -0.7057  -0.8052  0.002705  0.01842  0.007815  0.006019  0.01128  -0.7399
6.508e+09  -0.9317  -0.5637  -0.03012  0.02978  -0.03023  0.0175  -0.2538  -0.7171
6.509e+09  -1.058  -0.1326  -0.03056  0.01651  -0.002391  -0.02508  -0.4571  -0.5742
6.51e+09  -1.087  0.1879  -0.03237  -0.01973  0.02274  0.008495  -0.6731  -0.3543
6.511e+09  -0.8657  0.5608  0.02979  -0.005631  0.04946  -0.01126  -0.726  -0.1286
6.512e+09  -0.655  0.9004  0.02185  -0.07586  0.02855  -0.0242  -0.7153  0.1185
6.514e+09  -0.2471  1.007  -0.02654  -0.002338  -0.002396  -0.02333  -0.6524  0.3683
6.515e+09  0.07514  1.069  0.02071  0.021  0.03321  0.0113  -0.4574  0.5877
6.516e+09  0.4455  0.9818  -0.02731  -0.03791  -0.01778  -0.01825  -0.22  0.6877
6.518e+09  0.6996  0.7482  -0.01925  -0.002938  -0.007519  -0.02847  -0.02405  0.7479
6.519e+09  0.9754  0.4281  0.03546  -0.01034  -0.05091  0.02296  0.2821  0.6951
6.52e+09  1.081  0.02461  0.01124  -0.02789  -0.03112  -0.02832  0.4907  0.5507
6.521e+09  1.068  -0.2904  0.01309  0.03867  0.04859  0.07031  0.6424  0.3756
6.522e+09  0.7894  -0.6289  -0.01453  0.00208  -0.007971  -0.01126  0.7407  0.09795
6.524e+09  0.5022  -0.89  0.01316  -0.009357  0.02478  -0.03568  0.703  -0.1773
6.525e+09  0.1558  -1.001  0.03612  -0.007164  -0.03581  0.01712  0.6045  -0.3992
6.526e+09  -0.226  -0.9023  -0.01121  0.0009942  0.009767  0.05585  0.4257  -0.5773
6.528e+09  -0.552  -0.8711  -0.00159  -0.04055  0.01999  0.01149  0.1734  -0.7023
6.529e+09  -0.8265  -0.5986  -0.006242  0.00583  0.0005094  -0.009  -0.06303  -0.7193
6.53e+09  -0.9475  -0.335  -0.03113  0.04255  -0.001819  -0.007907  -0.2806  -0.6378
6.531e+09  -0.9625  0.1096  -0.02116  0.001904  0.01039  -0.03742  -0.5004  -0.48
6.532e+09  -0.9613  0.4586  -0.0154  0.02279  -0.0002112  -0.002443  -0.5801  -0.2882
6.534e+09  -0.6249  0.7032  0.052  -0.006703  0.008647  -0.03642  -0.6282  -0.09505
6.535e+09  -0.3749  0.8932  -0.00198  0.007347  0.006088  0.02306  -0.6647  0.1295
6.536e+09  -0.09165  0.9733  0.03102  -0.006757  0.03163  0.04281  -0.5856  0.3267
6.538e+09  0.3319  0.9334  -0.01269  0.004709  -0.04487  -0.005519  -0.4558  0.4591
6.539e+09  0.6315  0.7429  0.01781  0.0006017  -0.04774  -0.01496  -0.306  0.6234
6.54e+09  0.852  0.4757  -0.0001466  0.03406  0.001009  -0.04208  -0.05788  0.6689
6.541e+09  0.981  0.1276  0.01671  0.007896  -0.03579  0.01274  0.1938  0.6913
6.542e+09  0.9192  -0.2203  -0.01453  -0.00711  -0.006024  -0.02345  0.4075  0.6034
6.544e+09  0.8112  -0.487  -0.01717  0.0219  -0.009981  0.07252  0.5711  0.4148
6.545e+09  0.5657  -0.7763  0.001681  -0.0245  -0.007316  -0.01417  0.7263  0.1883
6.546e+09  0.3123  -0.8866  -0.01365  -0.01746  0.01075  -0.02089  0.7196  -0.08355
6.548e+09  -0.1306  -0.9281  -0.002084  0.002245  0.005974  0.03775  0.6365  -0.349
6.549e+09  -0.3596  -0.8147  0.03132  3.809e-05  -0.05131  -0.0169  0.4914  -0.5179
6.55e+09  -0.6867  -0.5957  0.006523  0.05387  -0.04374  0.03158  0.2927  -0.6722
