# Hz S RI R 50
6.25e+09  0.3748  0.8521  0.03199  0.002553  -0.03986  -0.04919  0.1594  0.535
6.251e+09  0.7063  0.7343  -0.006516  -0.009814  0.05111  0.005642  0.3527  0.4262
6.252e+09  0.8318  0.4089  0.005738  -0.01348  0.00222  -0.02517  0.5358  0.2302
6.254e+09  1  0.04432  -0.007342  0.05563  0.01208  0.04703  0.6078  0.01648
6.255e+09  0.9866  -0.2284  0.01695  -0.0048  0.03401  -0.0388  0.5852  -0.2152
6.256e+09  0.8367  -0.5482  -0.01467  -0.001523  -0.02785  -0.04153  0.4659  -0.4507
6.258e+09  0.5425  -0.7974  0.002427  -0.01077  -0.04907  -0.05493  0.2805  -0.5802
6.259e+09  0.2682  -0.8723  0.003026  0.01663  0.01765  0.009642  0.07486  -0.6543
6.26e+09  -0.1196  -1.012  -0.02111  0.0006464  0.01586  0.01256  -0.1892  -0.6332
6.261e+09  -0.4306  -0.8883  -0.005906  0.005629  0.02679  0.004831  -0.43  -0.5197
6.262e+09  -0.6303  -0.6921  0.00588  -0.00342  0.009366  0.04104  -0.5843  -0.3332
6.264e+09  -0.8337  -0.3997  0.04281  -0.02548  0.004554  -0.02659  -0.693  -0.1297
6.265e+09  -0.9535  -0.03166  -0.01797  0.01372  0.04127  -0.01667  -0.7009  0.1549
6.266e+09  -0.8902  0.2558  -0.00427  -0.02847  0.004113  0.01514  -0.6184  0.4257
6.268e+09  -0.7065  0.525  0.03473  0.00389  -0.03695  -0.0005876  -0.3977  0.6035
6.269e+09  -0.4636  0.7649  -0.01036  -0.01691  0.06334  -0.01874  -0.2017  0.7433
6.27e+09  -0.2058  0.9345  -0.002723  -0.008909  -0.0353  0.009314  0.08493  0.7006
6.271e+09  0.1173  0.9518  -0.0002956  -0.01731  -0.003602  -0.01476  0.358  0.7144
6.272e+09  0.4886  0.7921  -0.01723  -0.02547  -0.03876  0.00549  0.5313  0.4996
6.274e+09  0.6794  0.6003  -8.419e-05  0.02108  0.02301  0.06268  0.7221  0.3072
6.275e+09  0.8628  0.3059  -0.0007155  -0.008629  -0.02383  0.02095  0.7469  0.03819
6.276e+09  0.9267  0.009609  0.003799  0.01532  0.01716  -0.01125  0.7324  -0.2215
6.278e+09  0.8938  -0.3558  -0.009184  -0.003667  0.03668  0.0187  0.605  -0.4577
6.279e+09  0.7357  -0.6148  -0.0126  0.0007643  0.01508  0.03844  0.4212  -0.6599
6.28e+09  0.4312  -0.8114  0.01565  0.0178  -0.009266  -0.04658  0.1327  -0.7573
6.281e+09  0.1376  -0.9035  0.002473  0.003701  -0.01326  0.0068  -0.1407  -0.7983
6.282e+09  -0.1714  -0.9437  -0.003788  0.008633  0.01266  -0.01776  -0.3614  -0.7069
6.284e+09  -0.4489  -0.7915  -0.03278  -0.0071  0.03343  0.007021  -0.5646  -0.5388
6.285e+09  -0.7915  -0.6072  0.02961  0.008723  0.03767  0.01304  -0.7598  -0.2662
6.286e+09  -0.8977  -0.257  -0.02129  0.007592  0.01303  -0.02561  -0.7994  -0.03259
6.288e+09  -0.9476  0.01494  0.01764  0.002143  0.04793  0.02319  -0.7679  0.234
6.289e+09  -0.8934  0.3946  -0.01596  -0.0212  -0.000985  -0.03267  -0.6238  0.4995
6.29e+09  -0.6281  0.6577  0.01829  -0.01546  0.03579  -0.03451  -0.3641  0.6706
6.291e+09  -0.4186  0.8243  0.007372  0.003253  -0.002336  0.07074  -0.158  0.7897
6.292e+09  -0.1013  0.9253  0.008143  0.03487  0.02801  -0.05801  0.1312  0.7791
6.294e+09  0.2098  0.9263  0.01346  0.006446  0.06757  0.01947  0.4088  0.7149
6.295e+09  0.5236  0.7838  0.007409  0.003302  0.007666  -0.01701  0.6119  0.5102
6.296e+09  0.7847  0.4895  -0.02311  0.0142  -0.03454  -0.003117  0.7844  0.265
6.298e+09  0.9837  0.2484  -0.02358  0.0007365  0.02788  -0.007814  0.8395  0.04978
6.299e+09  0.9558  -0.1727  0.02998  -0.02931  0.02095  -0.01613  0.7764  -0.2451
6.3e+09  0.8572  -0.4318  0.00352  0.002893  0.02421  0.01798  0.6299  -0.5457
6.301e+09  0.6977  -0.7397  0.002258  -0.01968  -0.01274  0.00488  0.4179  -0.7018
6.302e+09  0.3654  -0.9369  -0.02503  0.01216  -0.006401  -0.0079  0.2008  -0.8129
6.304e+09  0.0683  -0.9915  -0.02495  -0.02048  -0.04728  -0.006508  -0.1603  -0.8258
6.305e+09  -0.2973  -0.9517  0.03415  0.02243  0.03255  -0.0213  -0.4068  -0.7149
6.306e+09  -0.6163  -0.7687  0.03208  -0.009243  -0.02534  0.01356  -0.6582  -0.5234
6.308e+09  -0.8434  -0.5333  0.01153  -0.0001547  0.006176  -0.0224  -0.7971  -0.3251
6.309e+09  -0.9752  -0.1804  0.0005981  0.01637  0.02278  0.01681  -0.8561  -0.04895
6.31e+09  -0.9644  0.1684  0.02068  0.0002582  0.0004373  0.007272  -0.7924  0.2761
6.311e+09  -0.8716  0.4931  0.01243  0.008883  0.02256  -0.04111  -0.6564  0.5555
6.312e+09  -0.6368  0.7541  0.006851  0.02875  -0.007731  0.01  -0.4481  0.7368
6.314e+09  -0.3312  0.9216  0.01465  -0.01324  -0.007177  0.04538  -0.1296  0.8596
6.315e+09  -0.02862  1.014  -0.00634  -0.00949  0.06297  -0.01393  0.1637  0.8627
6.316e+09  0.3647  0.9  -0.001605  -0.008498  -0.02606  0.02091  0.4453  0.7715
6.318e+09  0.6273  0.7602  -0.02771  -0.0174  -0.00899  0.01133  0.6436  0.566
6.319e+09  0.8969  0.4472  0.01383  0.001358  -0.005734  0.01012  0.8253  0.3112
6.32e+09  1.015  0.111  0.01799  -0.007614  -0.00765  -0.03299  0.8743  -0.009545
6.321e+09  0.9929  -0.2026  0.0179  -0.002375  0.02931  -0.00233  0.86  -0.2896
6.322e+09  0.8614  -0.5195  -0.01986  0.004074  0.03786  0.01688  0.6761  -0.5392
6.324e+09  0.5709  -0.7935  0.007382  0.005033  -0.01856  -0.03269  0.4887  -0.7659
6.325e+09  0.258  -1.046  0.004729  -0.01356  0.02004  0.01106  0.1824  -0.9007
6.326e+09  -0.07794  -1.031  0.006449  -0.01882  -0.01204  0.04663  -0.1561  -0.8939
6.328e+09  -0.3952  -0.9357  -0.005572  0.00124  0.01317  0.02851  -0.4657  -0.806
6.329e+09  -0.7278  -0.7125  -0.00671  0.006656  -0.01455  0.01075  -0.6936  -0.613
6.33e+09  -0.9625  -0.4471  0.0149  0.01217  -0.02951  0.001749  -0.8484  -0.3573
6.331e+09  -1.044  -0.1191  0.009279  0.02529  -0.009528  -0.01903  -0.906  -0.02071
6.332e+09  -1.035  0.2857  -0.02605  0.01935  -0.01406  0.03188  -0.9188  0.2946
6.334e+09  -0.8389  0.5691  0.01165  0.02174  0.009967  0.04124  -0.728  0.5831
6.335e+09  -0.6188  0.8569  -0.02548  0.001992  -0.02918  0.03808  -0.471  0.7659
6.336e+09  -0.288  1.056  -0.0261  0.003898  -0.01111  -0.04493  -0.165  0.9048
6.338e+09  0.1206  1.026  -0.01249  0.01033  -0.02107  -0.006473  0.1073  0.8992
6.339e+09  0.5189  0.9328  0.01796  -0.02093  -0.005742  -0.03307  0.4222  0.806
6.34e+09  0.8054  0.7021  -0.003273  -0.0276  0.01315  0.009066  0.6923  0.634
6.341e+09  1.022  0.3971  -0.0008775  0.004753  -0.03889  -0.01541  0.8426  0.361
6.342e+09  1.094  -0.006785  0.002862  0.01041  0.02916  0.0009175  0.9529  0.03616
6.344e+09  1.073  -0.3939  0.0164  0.01679  -0.01937  0.0376  0.8672  -0.2602
6.345e+09  0.8897  -0.7188  0.01044  -0.01427  -0.006753  0.0101  0.7625  -0.5757
6.346e+09  0.5546  -0.9808  -0.00734  -0.01638  0.06589  0.0116  0.4786  -0.7871
6.348e+09  0.1747  -1.113  0.02168  -0.04098  0.0279  0.006856  0.2389  -0.9452
6.349e+09  -0.2176  -1.091  -0.01574  0.007801  0.001954  0.01722  -0.09803  -0.9324
6.35e+09  -0.5772  -1.012  0.01172  -0.02053  0.003195  -0.037  -0.3744  -0.842
6.351e+09  -0.9344  -0.7072  -0.03842  0.01711  -0.03533  0.0509  -0.6757  -0.6868
6.352e+09  -1.078  -0.349  0.01261  -0.01543  -0.02076  -0.02222  -0.8743  -0.3497
6.354e+09  -1.199  0.03998  0.01194  0.0193  -0.0275  0.009832  -0.9577  -0.08579
6.355e+09  -1.069  0.4703  0.002351  -0.01114  0.01248  -0.02256  -0.9132  0.2515
6.356e+09  -0.8138  0.7882  0.005724  0.007657  0.01421  0.02019  -0.7436  0.5344
6.358e+09  -0.5668  1.013  0.01665  -0.0001433  -0.007165  0.006937  -0.5398  0.7809
6.359e+09  -0.1597  1.139  -0.01721  0.01014  0.007809  -0.02122  -0.2238  0.9232
6.36e+09  0.315  1.123  0.02037  0.02077  -0.02252  -0.01669  0.0446  0.9277
6.361e+09  0.6933  0.9704  -0.02462  -0.008528  -0.03083  -0.008908  0.4128  0.8487
6.362e+09  0.9814  0.6906  0.04114  0.03209  -0.008579  -0.006021  0.6526  0.6626
6.364e+09  1.18  0.335  0.01892  -0.003116  -0.02326  -0.02744  0.8856  0.3957
6.365e+09  1.154  -0.1403  -4.908e-05  0.0001086  0.0147  -0.02862  0.9345  0.04469
6.366e+09  1.09  -0.5512  -0.00779  0.01118  -0.01015  0.005082  0.9524  -0.2801
6.368e+09  0.8786  -0.8403  0.04212  -0.007337  0.009639  -0.0239  0.8001  -0.5391
6.369e+09  0.4518  -1.12  -0.02022  0.01088  -0.01425  -0.04871  0.5378  -0.7518
6.37e+09  0.09898  -1.159  0.002508  0.02953  0.0203  -0.01509  0.2799  -0.9137
6.371e+09  -0.3047  -1.145  0.02006  0.001153  0.04967  0.02283  -0.1065  -0.9259
6.372e+09  -0.7779  -1.019  -0.03086  5.204e-05  0.0187  0.002269  -0.371  -0.8596
6.374e+09  -1.055  -0.6976  -0.01253  0.02217  -0.01641  -0.006984  -0.6664  -0.7059
6.375e+09  -1.186  -0.3084  -0.02735  0.02895  -0.001304  0.006646  -0.8669  -0.4174
6.376e+09  -1.253  0.1671  0.01498  -0.01615  -0.03685  0.006951  -0.9418  -0.09518
6.378e+09  -1.098  0.5861  0.006679  0.01862  -0.04933  0.03942  -0.8804  0.22
6.379e+09  -0.8819  0.9496  0.01254  0.03039  0.02262  -0.04186  -0.7507  0.5192
6.38e+09  -0.4517  1.178  -0.05535  0.03563  -0.01022  0.03878  -0.5682  0.7538
6.381e+09  -0.0449  1.334  -0.002671  -0.003574  0.01263  0.00909  -0.2512  0.9057
6.382e+09  0.411  1.234  0.007325  0.005469  -0.03594  0.03482  0.05899  0.923
6.384e+09  0.8433  1.042  -0.03086  -0.01005  0.0251  0.02504  0.3903  0.8339
6.385e+09  1.142  0.6963  -0.03188  0.009158  -0.05233  -0.02668  0.639  0.6784
6.386e+09  1.348  0.2713  0.01401  0.00235  -0.00394  -0.03046  0.8037  0.423
6.388e+09  1.361  -0.2067  -0.03171  -0.02965  -0.01352  -0.00159  0.8996  0.1115
6.389e+09  1.164  -0.6952  0.03991  -0.02194  -0.07446  -0.04101  0.9201  -0.232
6.39e+09  0.8651  -1.081  0.03627  -0.01286  -0.01052  0.02077  0.8077  -0.5004
6.391e+09  0.4942  -1.307  0.009371  0.019  -0.01647  0.01085  0.5477  -0.7311
6.392e+09  -0.02664  -1.449  0.01837  -0.01218  0.0002388  -0.026  0.2821  -0.9056
6.394e+09  -0.5297  -1.38  -0.006893  0.02294  -0.0337  0.04449  -0.02573  -0.9118
6.395e+09  -0.9583  -1.081  0.02043  -0.02184  0.03402  0.02972  -0.3568  -0.883
6.396e+09  -1.334  -0.7037  0.002989  0.01728  0.006959  0.07913  -0.5893  -0.7042
6.398e+09  -1.497  -0.206  0.03684  -0.02875  -0.0503  -0.05256  -0.8289  -0.4175
6.399e+09  -1.504  0.3507  0.03969  0.02423  -0.02766  -0.0381  -0.8486  -0.1429
6.4e+09  -1.288  0.8491  0.02579  -0.0009863  0.007337  0.002604  -0.9124  0.1872
6.401e+09  -0.9392  1.188  -0.03247  0.02829  -0.0297  -0.0166  -0.787  0.4391
6.402e+09  -0.4171  1.461  -0.008248  -0.01205  0.02107  0.01138  -0.5595  0.6979
6.404e+09  0.1181  1.56  0.02755  -0.04541  0.006303  -0.0467  -0.3078  0.8924
6.405e+09  0.5953  1.446  -0.003266  0.02816  -0.01613  -0.005122  0.01927  0.9073
6.406e+09  1.108  1.069  -0.01649  0.0143  0.002185  0.008326  0.364  0.8399
6.408e+09  1.477  0.6617  -0.04169  0.0239  -0.03166  -0.008041  0.6179  0.7188
6.409e+09  1.595  0.1216  -0.0623  -0.01938  -0.01261  0.01378  0.7829  0.4136
6.41e+09  1.577  -0.4734  -0.03711  0.02359  -0.009157  -0.01736  0.9317  0.1687
6.411e+09  1.327  -1.006  0.002096  0.008547  0.008341  -0.0434  0.9432  -0.1421
6.412e+09  0.9064  -1.391  0.01699  0.03715  0.03042  0.04857  0.7682  -0.4185
6.414e+09  0.4187  -1.62  0.01039  -0.05283  0.005936  0.0595  0.6484  -0.6727
6.415e+09  -0.2408  -1.727  0.05839  0.03783  0.01207  -0.02766  0.3311  -0.821
6.416e+09  -0.8238  -1.508  -0.004327  0.01364  -0.04915  -0.03195  0.05086  -0.9294
6.418e+09  -1.357  -1.143  0.01367  0.01212  0.01449  -0.02786  -0.2934  -0.8583
6.419e+09  -1.669  -0.6776  0.009956  0.04575  0.01872  -0.006287  -0.5804  -0.7093
6.42e+09  -1.822  -0.0007765  0.01235  0.002831  -0.03534  -0.0007465  -0.8094  -0.4719
6.421e+09  -1.756  0.6745  0.01111  -0.01644  -0.004444  -0.016  -0.8578  -0.1663
6.422e+09  -1.412  1.281  -0.02352  -0.03148  -0.04244  0.01584  -0.8828  0.1387
6.424e+09  -0.9277  1.629  0.02524  -0.03997  -0.07196  -0.02923  -0.8101  0.3893
6.425e+09  -0.2341  1.954  -0.01479  0.00288  0.01978  -0.003348  -0.6008  0.6688
6.426e+09  0.5186  1.941  0.02381  0.03413  0.04581  0.02083  -0.3554  0.8011
6.428e+09  1.128  1.663  -0.04529  0.001223  -0.024  -0.02367  -0.039  0.9207
6.429e+09  1.645  1.153  0.001443  -0.03264  -0.02506  0.02815  0.2494  0.8421
6.43e+09  1.997  0.5559  -0.02517  -0.01112  0.05577  0.006036  0.5206  0.7072
6.431e+09  2.073  -0.1743  0.01615  -0.01113  -0.002351  -0.01265  0.725  0.4747
6.432e+09  1.917  -0.9379  0.01654  0.03481  -0.01705  0.04057  0.8293  0.2107
6.434e+09  1.439  -1.61  -0.003185  0.05112  -0.03426  -0.07118  0.8878  -0.08958
6.435e+09  0.8329  -1.962  0.006247  -0.01875  -0.01076  -0.01725  0.7521  -0.3683
6.436e+09  0.1124  -2.229  -0.03254  0.04661  0.01281  0.01681  0.558  -0.5933
6.438e+09  -0.7327  -2.155  -0.0181  0.004885  0.005384  0.0003269  0.3712  -0.792
6.439e+09  -1.516  -1.823  0.00352  -0.006043  -0.01825  -0.05916  0.1343  -0.8163
6.44e+09  -1.994  -1.23  0.01787  0.02294  -0.03073  0.01406  -0.2364  -0.8411
6.441e+09  -2.412  -0.3908  0.01695  -0.02373  -0.02268  0.0095  -0.4938  -0.7191
6.442e+09  -2.335  0.4953  -0.04157  -0.009541  0.01019  -0.0003218  -0.685  -0.4786
6.444e+09  -2.094  1.251  -0.006135  0.003436  -0.02868  0.05928  -0.787  -0.1509
6.445e+09  -1.592  2.059  -0.008404  0.01695  0.02036  -0.07959  -0.8767  0.09533
6.446e+09  -0.6708  2.484  -0.01615  -0.0128  -0.008742  -0.02578  -0.7848  0.3883
6.448e+09  0.2009  2.692  0.00725  -0.01262  0.01937  -0.03381  -0.5869  0.5665
6.449e+09  1.142  2.462  -0.01122  0.01267  -0.03724  -0.01813  -0.3225  0.7844
6.45e+09  2.011  2.006  0.0171  -0.01882  -0.03056  -0.00124  -0.09443  0.8723
6.451e+09  2.59  1.072  -0.03626  0.007026  -0.02522  0.07922  0.2864  0.8268
6.452e+09  2.931  0.09497  0.0259  -0.01927  -0.004944  -0.0007774  0.4619  0.6724
6.454e+09  2.735  -0.9754  -0.01331  0.02121  0.02736  0.001315  0.67  0.4418
6.455e+09  2.356  -1.903  0.04051  -0.0259  -0.008647  0.02286  0.7799  0.1863
6.456e+09  1.478  -2.623  0.02301  -0.01991  -0.03692  0.04527  0.8274  -0.05665
6.458e+09  0.4079  -3.133  -0.03569  -0.03795  0.02209  0.02645  0.7772  -0.3386
6.459e+09  -0.7869  -3.199  0.008778  0.001019  -0.09742  0.02072  0.623  -0.5666
6.46e+09  -1.959  -2.819  0.0165  -0.03163  -0.1021  -0.004849  0.3402  -0.6752
6.461e+09  -2.915  -1.979  -0.01027  0.005601  -0.05285  0.07395  0.06511  -0.8182
6.462e+09  -3.377  -0.8631  0.01816  0.01673  0.006046  0.05889  -0.243  -0.7657
6.464e+09  -3.515  0.4559  0.02776  -0.006224  -0.04119  -0.04759  -0.4567  -0.6381
6.465e+09  -3.342  1.739  0.01393  -0.03077  -0.008504  0.0641  -0.6942  -0.4713
6.466e+09  -2.469  2.945  0.01252  0.01428  -0.04753  -0.04766  -0.8002  -0.1816
6.468e+09  -1.4  3.789  0.01049  0.009914  0.0685  0.07943  -0.7848  0.08467
6.469e+09  0.1255  4.072  0.01944  0.01442  0.09815  -0.05194  -0.7339  0.334
6.47e+09  1.644  3.796  0.009687  -0.008115  -0.01039  -0.06338  -0.5677  0.5572
6.471e+09  3.101  3.051  -0.005533  -0.0468  0.02244  -0.03661  -0.3489  0.7375
6.472e+09  4.208  1.761  0.01163  0.01627  0.04848  0.08166  -0.1049  0.8066
6.474e+09  4.64  0.2763  0.03424  -0.01825  0.05767  -0.05269  0.1886  0.7856
6.475e+09  4.672  -1.578  0.0004503  0.005628  0.1489  -0.007502  0.4453  0.697
6.476e+09  3.885  -3.349  0.04025  0.004003  -0.2057  -0.01128  0.6822  0.4343
6.478e+09  2.345  -4.795  0.02296  0.04648  0.1126  -0.09415  0.7517  0.191
6.479e+09  0.434  -5.754  -0.001848  -0.01294  0.03391  -0.01494  0.7975  -0.06118
6.48e+09  -1.595  -5.627  0.03115  0.02027  -0.05132  -0.05097  0.7077  -0.3695
6.481e+09  -3.807  -4.687  0.003496  -0.03895  0.1766  -0.08483  0.5203  -0.5465
6.482e+09  -5.789  -3.137  0.009411  0.0304  0.03858  0.06206  0.3184  -0.7139
6.484e+09  -6.795  -0.6745  -0.008098  0.007328  -0.005634  -0.0387  0.02105  -0.8087
6.485e+09  -6.724  2.047  -0.001983  -0.008302  -0.06426  0.09532  -0.2674  -0.7226
6.486e+09  -5.702  4.652  0.002279  0.01427  -0.09706  0.0002319  -0.4726  -0.601
6.488e+09  -4.208  7.187  0.02625  0.001763  -0.5779  0.2216  -0.6216  -0.4203
6.489e+09  -0.6539  8.124  0.05596  0.01709  -0.05162  -0.1013  -0.7338  -0.1478
6.49e+09  3.148  8.178  -0.009672  -0.007543  0.06257  0.01251  -0.7795  0.096
6.491e+09  6.383  6.562  -0.02144  -0.0117  -0.06798  0.06689  -0.7195  0.3454
6.492e+09  8.988  3.25  0.02879  0.0004645  -0.03552  -0.03365  -0.5453  0.5915
6.494e+09  9.853  -0.8324  0.03731  0.02575  0.003108  -0.2079  -0.3371  0.7176
6.495e+09  9.027  -5.321  0.01068  0.01065  -0.02138  -0.1659  -0.03659  0.799
6.496e+09  5.833  -8.943  -0.04293  -0.01994  -0.08935  -0.0608  0.2484  0.7435
6.498e+09  1.173  -11.06  -0.001735  -0.01334  0.09123  0.1062  0.4863  0.6246
6.499e+09  -3.949  -10.48  0.02494  0.01713  -0.06847  -0.06368  0.6145  0.4156
6.5e+09  -12.36  1.969  0.01987  0.03706  0.185  0.07756  0.7762  0.1662
6.501e+09  -10.69  -3.091  -0.01499  -0.009065  -0.1402  0.1352  0.7318  -0.1241
6.502e+09  -10.79  1.858  -0.001827  -0.01408  0.08353  0.06921  0.6878  -0.3604
6.504e+09  -8.724  6.352  0.01174  0.02015  -0.02299  -0.096  0.4684  -0.5805
6.505e+09  -4.773  9.227  -0.003074  0.03512  0.1396  -0.06248  0.1993  -0.6846
6.506e+09  -0.3664  10.05  -0.01262  0.0506  0.03786  0.004613  0.02193  -0.7434
6.508e+09  3.828  8.84  0.009462  0.02516  0.04044  0.01996  -0.2635  -0.7142
6.509e+09  6.696  6.091  -0.002678  0.01819  -0.09572  -0.1461  -0.4725  -0.5906
6.51e+09  8.187  2.706  -0.005075  0.01084  0.01621  -0.02957  -0.713  -0.4075
6.511e+09  8.138  -0.8484  0.04172  0.03077  0.06175  0.03087  -0.7513  -0.1101
6.512e+09  6.892  -3.827  0.00573  -0.00232  0.0172  -0.1007  -0.7436  0.1159
6.514e+09  4.466  -5.623  0.009624  0.04499  0.005794  0.06338  -0.6634  0.4051
6.515e+09  1.732  -6.8  -0.02377  -0.01298  0.02081  -0.05296  -0.4998  0.5689
6.516e+09  -0.9626  -6.62  0.05368  -0.007037  0.03364  -0.009398  -0.2322  0.6889
6.518e+09  -3.242  -5.39  -0.01328  -0.02745  0.03559  0.05682  -0.0004361  0.7557
6.519e+09  -4.838  -3.694  -0.04584  0.00583  -0.05755  0.01151  0.2771  0.7379
6.52e+09  -5.528  -1.469  -0.006794  0.05343  0.02039  0.01817  0.4637  0.5632
6.521e+09  -5.475  0.6996  0.003702  0.0009573  0.09394  -0.07276  0.6624  0.3237
6.522e+09  -4.571  2.466  -0.02217  -0.02977  -0.002433  -0.01457  0.7428  0.08337
6.524e+09  -3.223  3.832  0.02426  -0.0004649  0.002574  -0.0898  0.7052  -0.1408
6.525e+09  -1.512  4.551  -0.03816  -0.007062  0.04707  -0.02111  0.6046  -0.3628
6.526e+09  0.3445  4.613  0.005963  0.003282  -0.01288  -0.0887  0.4299  -0.5742
6.528e+09  1.831  4.115  0.002541  0.02938  0.06573  -0.02453  0.1985  -0.6986
6.529e+09  3.107  2.908  0.02103  -0.01091  -0.03358  0.03326  -0.01389  -0.7224
6.53e+09  3.786  1.605  0.02351  -0.00662  0.05972  -0.03656  -0.3424  -0.6286
6.531e+09  3.92  0.1092  0.007202  -0.004195  -0.01962  -0.03127  -0.4572  -0.5185
6.532e+09  3.626  -1.334  -0.02478  0.05172  -0.005985  0.02649  -0.5868  -0.2702
6.534e+09  2.823  -2.456  0.01088  0.0009129  -0.02822  -0.007375  -0.6  -0.09022
6.535e+09  1.698  -3.171  0.03235  -0.01585  0.03129  0.02527  -0.6272  0.08959
6.536e+09  0.39  -3.496  0.005037  0.01426  -0.0508  0.07907  -0.5953  0.2993
6.538e+09  -0.8451  -3.235  0.02352  -0.005942  -0.07437  -0.01792  -0.4306  0.4708
6.539e+09  -1.89  -2.679  0.0009145  -0.04986  -0.03649  -0.01086  -0.233  0.6077
6.54e+09  -2.653  -1.854  0.00364  0.01083  0.01101  0.03281  -0.0572  0.7015
6.541e+09  -3.07  -0.7559  -0.02598  -0.007605  -0.0001393  0.03632  0.1959  0.6746
6.542e+09  -3.027  0.4404  0.04709  -0.001596  0.01057  -0.03619  0.4162  0.5597
6.544e+09  -2.594  1.415  0.02104  0.009438  0.006876  0.04235  0.5879  0.3987
6.545e+09  -1.835  2.207  0.008797  0.0374  0.02436  0.01216  0.6832  0.1713
6.546e+09  -0.9307  2.688  -0.01215  -0.007039  0.007139  0.01317  0.7455  -0.08579
6.548e+09  0.09158  2.809  -0.008223  -0.02098  -0.01714  0.06589  0.6637  -0.3537
6.549e+09  1.055  2.522  -0.02082  -0.01262  0.03681  -0.01496  0.4931  -0.5065
6.55e+09  1.808  1.934  -0.01908  -0.03926  0.07611  0.06814  0.2938  -0.6816
6.551e+09  2.305  1.128  0.001807  0.02206  -0.0155  -0.03764  0.05274  -0.7084
6.552e+09  2.517  0.2306  0.01696  -0.009542  0.02683  -0.009321  -0.2196  -0.6873
6.554e+09  2.453  -0.706  -0.02282  0.01049  -7.696e-05  -0.06333  -0.474  -0.5902
6.555e+09  1.985  -1.449  0.02374  0.01016  0.007654  0.02066  -0.6277  -0.3918
