# Hz S RI R 50
6.25e+09  -0.01148  0.916  0.03717  0.00321  -0.008779  -0.01526  0.1283  0.5075
6.251e+09  0.2459  0.863  -0.02754  0.007246  0.03302  0.01648  0.3878  0.4118
6.252e+09  0.5739  0.7209  -0.0145  0.02784  0.03418  0.0008704  0.5483  0.2307
6.254e+09  0.7938  0.4824  0.01374  0.007236  -0.01509  0.02322  0.5855  0.0113
6.255e+09  0.883  0.1412  0.002218  0.00538  -0.01681  0.04281  0.5722  -0.2036
6.256e+09  0.945  -0.09771  -0.004239  0.007273  -0.04805  0.005911  0.4781  -0.4124
6.258e+09  0.7958  -0.4017  -0.02937  0.008311  0.03122  -0.01369  0.3087  -0.5945
6.259e+09  0.5508  -0.6468  0.008068  -0.01029  -0.006064  -0.01379  0.02835  -0.6813
6.26e+09  0.3249  -0.8363  0.03843  -0.01169  0.01455  -0.06196  -0.1836  -0.6403
6.261e+09  0.06129  -0.8913  -0.02277  0.01139  0.0129  0.004158  -0.4675  -0.5317
6.262e+09  -0.2891  -0.8647  0.0106  0.01032  0.02261  -0.003026  -0.6053  -0.3432
6.264e+09  -0.5568  -0.587  0.01223  -0.01663  0.0397  0.07501  -0.7151  -0.1136
6.265e+09  -0.7884  -0.4715  0.007569  -0.02256  -0.03651  0.01877  -0.7189  0.1674
6.266e+09  -0.8916  -0.1736  -0.006085  0.004882  0.03347  -0.01708  -0.6486  0.4281
6.268e+09  -0.8533  0.1532  -0.02175  0.02193  0.00873  0.01924  -0.4668  0.6006
6.269e+09  -0.7467  0.4489  0.02553  -0.01881  -0.05204  0.02581  -0.2137  0.7265
6.27e+09  -0.6149  0.7166  -0.01247  0.008046  -0.01603  0.004126  0.05442  0.7547
6.271e+09  -0.2848  0.8575  0.006441  0.01854  0.01219  -0.02435  0.3327  0.6755
6.272e+09  0.05057  0.9233  -0.01062  0.01558  0.02293  -0.02135  0.5509  0.4898
6.274e+09  0.347  0.8423  -0.02889  0.02681  -0.03261  -0.003053  0.717  0.33
6.275e+09  0.6223  0.7345  0.01567  -0.01341  0.004498  0.005337  0.7792  -0.003513
6.276e+09  0.8045  0.4419  0.00108  0.02413  -0.02521  0.06745  0.7358  -0.2501
6.278e+09  0.9154  0.1513  -0.005975  -0.006221  -0.0144  -0.008934  0.569  -0.4791
6.279e+09  0.8358  -0.1929  0.03807  -0.009579  0.01909  -0.02986  0.4306  -0.6392
6.28e+09  0.7805  -0.4808  -0.03233  0.002399  0.007499  0.02061  0.1338  -0.7631
6.281e+09  0.5501  -0.7134  0.01756  0.01683  -0.007524  -0.04406  -0.1103  -0.778
6.282e+09  0.2643  -0.9099  -0.01279  0.02169  0.02998  0.01236  -0.348  -0.7091
6.284e+09  0.003211  -0.9172  -0.01476  0.03353  0.0312  0.01093  -0.5946  -0.5226
6.285e+09  -0.3357  -0.8153  -0.01353  0.005162  -0.0001852  0.04436  -0.719  -0.3004
6.286e+09  -0.6551  -0.6641  -0.002034  -0.01646  0.008179  -0.02162  -0.7924  -0.07129
6.288e+09  -0.8163  -0.4073  0.003337  -0.01316  0.001822  -0.004361  -0.784  0.262
6.289e+09  -0.8848  -0.09451  0.009689  -0.01227  -0.0544  0.008744  -0.6457  0.4963
6.29e+09  -0.8232  0.2286  -0.0273  -0.001742  -0.006715  0.01403  -0.4425  0.7089
6.291e+09  -0.7479  0.5399  -0.004842  -0.004379  0.01049  -0.004642  -0.1342  0.7868
6.292e+09  -0.5405  0.7952  -0.002123  -0.01403  0.007998  -0.005235  0.08278  0.7979
6.294e+09  -0.2387  0.8638  -0.008108  0.01366  0.006746  -0.008765  0.3778  0.736
6.295e+09  0.135  0.9514  -0.02099  -0.01053  -0.006984  -0.04718  0.6308  0.5339
6.296e+09  0.4199  0.8557  0.02001  0.01839  0.02493  -0.007614  0.7995  0.2768
6.298e+09  0.7078  0.6702  0.0133  0.02594  -0.02567  -0.004313  0.8501  -0.02037
6.299e+09  0.876  0.3569  -0.02746  0.0004896  0.04718  0.02788  0.7538  -0.3067
6.3e+09  0.9756  0.02881  -0.0212  -0.01084  0.05139  -0.0001719  0.6198  -0.5488
6.301e+09  0.9553  -0.2838  -0.01145  0.01194  -0.02257  -0.0008383  0.4231  -0.7218
6.302e+09  0.7562  -0.5827  0.003676  -0.007372  -0.02123  0.02139  0.1283  -0.8208
6.304e+09  0.4831  -0.807  -0.002146  0.009052  -0.01785  0.01715  -0.163  -0.8284
6.305e+09  0.1989  -0.8696  0.02062  0.01006  -0.01362  -0.01256  -0.4448  -0.7161
6.306e+09  -0.1995  -0.9125  -0.0243  0.008975  -0.02575  0.03066  -0.6239  -0.5508
6.308e+09  -0.4788  -0.8208  0.0115  0.01256  0.05001  0.01109  -0.7727  -0.272
6.309e+09  -0.7008  -0.5926  0.01627  -0.02985  -0.0002864  0.01299  -0.8652  -0.003288
6.31e+09  -0.8736  -0.2893  2.84e-05  -0.001013  0.02799  0.007994  -0.7795  0.2882
6.311e+09  -0.9497  0.0114  -0.02256  0.02954  -0.007698  0.04494  -0.6567  0.5451
6.312e+09  -0.8765  0.3451  0.001212  0.02445  -0.03357  0.0009126  -0.4118  0.757
6.314e+09  -0.6723  0.6559  0.03349  -0.01321  0.007918  -0.01994  -0.1987  0.8532
6.315e+09  -0.3988  0.8481  -0.00326  -0.0001398  -0.01063  -0.06889  0.1241  0.8666
6.316e+09  -0.08636  1.002  0.03385  0.01736  0.005746  0.04644  0.4468  0.7736
6.318e+09  0.2372  0.9368  0.02029  -0.01632  0.001086  -0.01684  0.6826  0.6114
6.319e+09  0.5669  0.8159  -0.02418  -0.01943  0.007985  0.006207  0.8141  0.3111
6.32e+09  0.8132  0.528  -0.04014  -0.01326  0.02129  0.02172  0.8876  0.02422
6.321e+09  0.9263  0.2404  0.01707  0.02204  -0.00407  0.05131  0.809  -0.2749
6.322e+09  0.9961  -0.1258  0.01253  -0.02489  -0.03344  -0.02692  0.7229  -0.5602
6.324e+09  0.9041  -0.4798  0.04539  -0.006632  0.00805  0.004  0.4757  -0.8201
6.325e+09  0.6903  -0.7483  -0.01905  0.0271  0.004976  0.04038  0.1809  -0.8665
6.326e+09  0.3802  -0.9303  -0.02238  0.01739  -0.01107  0.02324  -0.1042  -0.9141
6.328e+09  0.02983  -0.9794  -0.002926  0.01254  -0.04356  0.03938  -0.4075  -0.835
6.329e+09  -0.3477  -0.9571  -0.01007  -0.005893  -0.01047  -0.02596  -0.6775  -0.634
6.33e+09  -0.6275  -0.7874  -0.01469  0.0109  0.03542  0.02887  -0.85  -0.3389
6.331e+09  -0.8667  -0.4628  0.00154  0.007703  0.0154  -0.01281  -0.9136  -0.04957
6.332e+09  -0.9706  -0.1888  0.02893  -0.007905  -0.02231  -0.03537  -0.8536  0.3102
6.334e+09  -1.014  0.2457  0.00443  0.03899  -0.01162  -0.007963  -0.7222  0.5541
6.335e+09  -0.8025  0.4962  -0.02917  0.0223  -0.002865  0.03433  -0.5151  0.7937
6.336e+09  -0.6021  0.8038  -0.0149  0.03003  0.001536  0.03192  -0.1762  0.8987
6.338e+09  -0.3262  0.9451  -0.009044  0.02375  0.008836  0.001561  0.1316  0.9473
6.339e+09  0.07454  1.014  -0.01244  0.01136  0.02184  -0.01414  0.4168  0.7899
6.34e+09  0.4156  0.9253  0.006807  0.007366  -0.02346  0.04743  0.6758  0.6469
6.341e+09  0.7433  0.728  0.007417  -0.004696  0.01879  0.008283  0.8532  0.3211
6.342e+09  0.9172  0.4226  0.01799  -0.02545  -0.01821  -0.02849  0.9317  0.05621
6.344e+09  0.9996  0.0936  0.0005948  0.0135  0.01994  0.02756  0.8797  -0.271
6.345e+09  0.9736  -0.299  0.04214  0.009026  0.0111  0.01535  0.7558  -0.5444
6.346e+09  0.785  -0.5998  0.001049  -0.01809  -0.04743  0.01127  0.5147  -0.8119
6.348e+09  0.5221  -0.8828  0.01094  0.01596  -0.03226  0.08419  0.186  -0.9141
6.349e+09  0.219  -0.9916  0.01656  -0.001466  0.004188  0.04451  -0.1549  -0.9369
6.35e+09  -0.178  -0.9754  0.003326  -0.0247  0.05631  -0.003481  -0.3761  -0.8554
6.351e+09  -0.5057  -0.9182  -0.0004692  0.02869  0.01301  0.03442  -0.679  -0.6156
6.352e+09  -0.7859  -0.6395  -0.005386  0.007424  0.03563  -0.0147  -0.847  -0.376
6.354e+09  -0.9885  -0.3111  0.02394  -0.03731  -0.02292  0.00689  -0.9206  -0.06672
6.355e+09  -1.022  0.08839  -0.01101  0.03881  -0.01175  -0.01268  -0.9115  0.2523
6.356e+09  -0.9827  0.4059  0.0006742  -0.03134  0.03523  -0.008499  -0.7764  0.5676
6.358e+09  -0.7716  0.6257  -0.01924  0.026  -0.02702  0.003912  -0.5438  0.8315
6.359e+09  -0.4783  0.8934  0.005622  -0.02162  -0.003976  0.001366  -0.2177  0.8955
6.36e+09  -0.1137  0.9753  -0.007453  -0.02022  0.01322  -0.02691  0.07072  0.9376
6.361e+09  0.246  0.9553  0.01245  0.01814  -0.01994  -0.02001  0.4097  0.8347
6.362e+09  0.5442  0.8585  0.01803  -0.01843  0.01504  0.02897  0.6569  0.693
6.364e+09  0.7995  0.586  0.01451  -0.003142  0.006202  0.0112  0.8416  0.3989
6.365e+09  0.9581  0.2559  0.005022  -0.041  0.003925  0.01911  0.96  0.08441
6.366e+09  1.006  -0.1004  0.009626  -0.01189  -0.02393  0.01048  0.884  -0.2441
6.368e+09  0.8846  -0.4901  -0.02496  -0.02311  -0.05197  0.02186  0.7862  -0.5498
6.369e+09  0.6711  -0.7211  -0.05297  0.00724  0.01667  -0.02685  0.5826  -0.7672
6.37e+09  0.4054  -0.945  -0.01751  0.008565  -0.001649  -0.005762  0.2329  -0.9386
6.371e+09  0.07474  -0.943  -0.02327  0.01648  0.05358  -0.03378  -0.06095  -0.9481
6.372e+09  -0.2647  -0.9967  0.004452  0.0342  0.02261  0.001406  -0.3933  -0.8495
6.374e+09  -0.5947  -0.7721  0.00741  0.0119  0.002702  0.02802  -0.6435  -0.626
6.375e+09  -0.8275  -0.4931  -0.01824  -0.01553  -0.01024  -0.002368  -0.8563  -0.4125
6.376e+09  -0.9967  -0.2245  -0.01967  0.001551  0.008939  0.0373  -0.9305  -0.1481
6.378e+09  -1.017  0.1676  -0.03154  0.01738  0.01333  -0.01968  -0.9134  0.2339
6.379e+09  -0.8564  0.474  -0.000702  -0.01033  -0.03014  0.04165  -0.7872  0.5116
6.38e+09  -0.6739  0.7366  0.02119  0.00963  0.04101  -0.001557  -0.5923  0.7883
6.381e+09  -0.3792  0.8981  0.02483  -0.003124  -0.03321  0.009517  -0.2843  0.8981
6.382e+09  -0.02562  0.9793  -0.003031  -0.009251  0.008043  -0.009708  0.04502  0.9521
6.384e+09  0.3401  0.9267  0.02239  0.007361  -0.02615  0.007631  0.374  0.9192
6.385e+09  0.5792  0.7295  0.004676  -0.005825  0.03272  0.003446  0.661  0.701
6.386e+09  0.8437  0.4897  -0.00782  0.02313  0.03403  0.01512  0.8611  0.4046
6.388e+09  1.02  0.1763  -0.02151  0.01552  -0.07186  -0.006653  0.9305  0.1194
6.389e+09  0.9244  -0.2195  0.003757  -0.02829  -0.02102  -0.02882  0.8896  -0.2051
6.39e+09  0.8538  -0.5246  -0.02306  -0.01267  -0.02306  0.001089  0.7729  -0.5167
6.391e+09  0.6151  -0.8001  0.01002  0.02428  0.00917  -0.01502  0.6161  -0.7412
6.392e+09  0.3099  -0.8994  -0.02801  0.03055  -0.01196  -0.01184  0.291  -0.8699
6.394e+09  0.01487  -0.9324  -0.01153  0.02617  -0.01312  -0.005091  -0.02063  -0.9512
6.395e+09  -0.3626  -0.9179  -0.01467  -0.009717  -0.03854  -0.008025  -0.385  -0.8169
6.396e+09  -0.653  -0.7441  -0.04187  0.03938  0.009853  -0.03587  -0.5833  -0.693
6.398e+09  -0.8787  -0.488  -0.006497  0.009147  0.0127  -0.02582  -0.8035  -0.4401
6.399e+09  -0.9878  -0.1612  -0.04569  0.02218  0.02132  0.02972  -0.8849  -0.1267
6.4e+09  -0.9483  0.2324  0.01536  -0.01862  -0.005148  -0.01181  -0.9038  0.1832
6.401e+09  -0.7662  0.506  -0.03001  0.04159  0.002214  -0.03094  -0.7831  0.5008
6.402e+09  -0.5751  0.7475  0.02445  0.01094  -0.002683  0.003314  -0.6013  0.7219
6.404e+09  -0.2523  0.9102  -0.003124  -0.01189  0.03345  -0.02409  -0.3207  0.9084
6.405e+09  0.05159  0.9783  0.006481  -0.02098  -0.06317  0.01039  0.01614  0.8771
6.406e+09  0.3816  0.8771  0.03661  -0.02225  -0.03422  -0.001376  0.3063  0.8691
6.408e+09  0.654  0.6669  0.02795  0.02511  -0.005016  -0.00391  0.6293  0.69
6.409e+09  0.8448  0.3828  0.008781  0.02659  -0.01133  0.00362  0.8096  0.4697
6.41e+09  0.9123  0.1337  0.04521  -0.04104  -0.003844  0.02112  0.9056  0.1531
6.411e+09  0.9412  -0.2213  -0.01164  -0.001515  0.02363  0.01435  0.8744  -0.16
6.412e+09  0.8027  -0.5417  0.008705  0.03437  -0.003621  -0.02012  0.7709  -0.446
6.414e+09  0.577  -0.7871  -0.01403  0.002656  0.02468  0.03305  0.5276  -0.6932
6.415e+09  0.2343  -0.9143  -0.01257  0.007859  -0.0004555  -0.006475  0.3293  -0.8339
6.416e+09  -0.04496  -0.9444  0.01681  -0.01324  0.01071  0.02377  0.002127  -0.9232
6.418e+09  -0.3361  -0.8628  0.02043  0.03404  -0.01468  0.03533  -0.2796  -0.8317
6.419e+09  -0.669  -0.6747  -0.01487  -0.01138  0.008533  0.01506  -0.5837  -0.7161
6.42e+09  -0.8543  -0.3561  0.02371  0.05544  0.006182  -0.01738  -0.7303  -0.4763
6.421e+09  -0.9488  -0.1189  -0.01615  0.02064  -0.02139  -0.03512  -0.8912  -0.2594
6.422e+09  -0.9202  0.2448  0.004091  0.019  0.0176  0.01766  -0.8701  0.1088
6.424e+09  -0.7767  0.5724  0.002604  0.0122  -0.006176  0.01088  -0.7769  0.4384
6.425e+09  -0.5819  0.8071  0.001601  -0.001103  -0.03029  -0.00462  -0.6092  0.6452
6.426e+09  -0.2409  0.9534  -0.02621  0.01091  0.005857  -0.02972  -0.373  0.8149
6.428e+09  0.07866  0.958  -0.003039  -0.005085  -0.05005  0.01484  -0.08966  0.9102
6.429e+09  0.4624  0.8766  0.01139  0.01945  0.0105  -0.009653  0.2719  0.8258
6.43e+09  0.7011  0.656  0.01197  -0.01078  -0.00124  0.01143  0.4705  0.7121
6.431e+09  0.8822  0.4015  0.01191  -0.03878  0.01869  -0.003623  0.7291  0.5057
6.432e+09  0.9646  0.02056  0.04552  0.02036  -0.04267  -0.01149  0.8809  0.2059
6.434e+09  0.9152  -0.2189  -0.01303  0.04201  -0.006245  0.009312  0.8504  -0.06109
6.435e+09  0.8044  -0.5993  -0.04665  0.01295  0.002929  0.004293  0.7414  -0.3595
6.436e+09  0.5553  -0.8132  -0.0138  0.01756  -0.007611  -0.004261  0.5974  -0.6059
6.438e+09  0.2236  -0.9866  0.0745  0.01808  0.002714  0.003754  0.3307  -0.7539
6.439e+09  -0.155  -0.967  -0.02222  0.02398  -0.01652  -0.03469  0.08766  -0.8784
6.44e+09  -0.4817  -0.8768  0.008559  -0.001317  -0.03756  0.01431  -0.2171  -0.8102
6.441e+09  -0.7325  -0.6558  0.03664  -0.02685  -0.03526  -0.04429  -0.489  -0.6381
6.442e+09  -0.8595  -0.355  -0.002179  -0.008734  -0.03705  0.02106  -0.754  -0.5069
6.444e+09  -0.9755  -0.08042  -0.01508  0.007923  -0.007178  0.01966  -0.842  -0.2153
6.445e+09  -0.9256  0.2973  -0.003022  -0.03416  -0.02629  -0.02947  -0.8755  0.05268
6.446e+09  -0.808  0.6086  -0.01616  0.02143  0.02006  0.01103  -0.7246  0.3285
6.448e+09  -0.4903  0.8775  0.03156  -0.02489  -0.01009  0.03227  -0.5847  0.6032
6.449e+09  -0.1766  0.9747  0.02852  -0.03227  0.03308  0.01556  -0.3566  0.777
6.45e+09  0.1584  0.9798  -0.01734  -0.009155  0.006167  0.01787  -0.07522  0.8279
6.451e+09  0.472  0.8509  -0.02207  0.01546  -0.01544  0.04374  0.2005  0.7869
6.452e+09  0.7779  0.6435  0.05134  0.01888  -0.0116  0.02192  0.5261  0.624
6.454e+09  0.9878  0.3122  -0.02221  -0.03217  0.002365  -0.01767  0.6585  0.4844
6.455e+09  1.035  -0.03055  -0.0006573  -0.0007142  0.0216  -0.001995  0.8168  0.2126
6.456e+09  0.8982  -0.4051  -0.01183  0.01569  -0.02184  0.0448  0.8459  -0.08518
6.458e+09  0.8026  -0.7087  0.004432  0.02024  -0.01795  0.0103  0.7806  -0.3125
6.459e+09  0.4289  -0.9386  0.02752  0.01297  0.0112  -0.007376  0.567  -0.6209
6.46e+09  0.1501  -0.9888  -0.02209  -0.01822  -0.03139  -0.007063  0.331  -0.7676
6.461e+09  -0.2365  -0.9731  -0.03284  0.001304  0.02336  0.01339  0.09166  -0.8063
6.462e+09  -0.5549  -0.8359  -0.005608  0.009224  0.0233  -0.0328  -0.2455  -0.7666
6.464e+09  -0.7928  -0.6149  -0.007036  0.002458  0.03686  -0.0399  -0.4414  -0.6935
6.465e+09  -0.9863  -0.2362  0.008118  -0.02041  0.004559  0.03564  -0.6516  -0.4374
6.466e+09  -1.049  0.07361  0.01885  -0.01676  0.0172  0.03245  -0.8018  -0.238
6.468e+09  -0.9563  0.4706  0.02671  0.04956  -0.007959  0.03033  -0.8068  0.06384
6.469e+09  -0.7141  0.7336  0.01178  0.03072  0.02166  0.04729  -0.7459  0.3371
6.47e+09  -0.4449  0.9208  0.003183  0.0111  -0.009151  0.0105  -0.5687  0.5518
6.471e+09  -0.06371  1.108  0.03625  0.02299  -0.01878  0.07455  -0.316  0.7691
6.472e+09  0.3522  0.982  0.02641  -0.02212  0.01744  0.008796  -0.09388  0.8081
6.474e+09  0.7081  0.817  -0.005149  0.02169  0.009855  0.005163  0.2295  0.7616
6.475e+09  0.8783  0.5299  0.01167  0.02756  0.002708  -0.02051  0.4656  0.6516
6.476e+09  1.056  0.2212  0.006003  -0.005277  0.03066  -0.01386  0.6354  0.4415
6.478e+09  1.12  -0.1782  0.02165  -0.04757  -0.02211  0.02476  0.7856  0.2336
6.479e+09  0.9574  -0.5392  -0.01626  0.02333  0.05506  0.02276  0.7999  -0.02455
6.48e+09  0.6864  -0.8672  0.02807  -0.003766  -0.01619  -0.0006052  0.7082  -0.3549
6.481e+09  0.3286  -1.076  0.02048  0.01721  -0.02936  -0.01578  0.5572  -0.5358
6.482e+09  -0.07131  -1.044  0.03124  0.009507  -0.02679  -0.02807  0.3013  -0.7207
6.484e+09  -0.4636  -0.9737  0.01255  0.01829  -0.03409  0.01584  0.06466  -0.7037
6.485e+09  -0.7364  -0.787  -0.005692  0.00823  0.02818  -0.03399  -0.1566  -0.7403
6.486e+09  -0.951  -0.4443  0.01409  -0.001492  -0.01867  -0.05169  -0.4602  -0.6615
6.488e+09  -1.709  -0.3154  0.01118  -0.04066  -0.5613  -0.4338  -0.6534  -0.4686
6.489e+09  -1.024  0.2971  -0.001312  0.03098  0.02659  -0.04193  -0.7541  -0.1597
6.49e+09  -0.9239  0.6375  0.006048  0.007344  -0.04958  -0.04161  -0.7834  0.08563
6.491e+09  -0.6016  0.9313  -0.01902  -0.01409  0.04047  0.007834  -0.6768  0.3482
6.492e+09  -0.1501  1.049  0.003473  0.0543  -0.03209  0.01527  -0.5303  0.5578
6.494e+09  0.1189  1.091  0.01158  -0.007379  -0.06894  0.1089  -0.3257  0.7024
6.495e+09  0.5421  0.9173  0.02913  5.337e-05  -0.04307  0.01213  -0.01379  0.7955
6.496e+09  0.8675  0.6601  -0.003968  -0.01009  -0.0007902  -0.03552  0.1845  0.7627
6.498e+09  1.098  0.315  -0.03309  0.003262  0.01577  -0.05119  0.4366  0.6062
6.499e+09  1.063  0.007683  0.01234  0.0005369  0.01364  -0.02208  0.6326  0.4503
6.5e+09  0.8982  0.02713  -0.02476  0.02646  0.05508  0.004794  0.7281  0.1701
6.501e+09  0.7054  -0.7262  0.01877  0.01051  0.01237  -0.008111  0.7335  -0.08508
6.502e+09  0.3909  -0.904  0.02062  -0.01189  0.04124  0.01277  0.6901  -0.2996
6.504e+09  0.07212  -1.124  0.01952  -0.004622  0.007006  -0.001448  0.5199  -0.5975
6.505e+09  -0.3189  -1.007  -0.02998  -0.02192  -0.01678  -0.002208  0.2845  -0.6806
6.506e+09  -0.6254  -0.8214  0.01322  -0.03511  0.02006  -0.04334  -0.002801  -0.7523
6.508e+09  -0.9269  -0.6005  0.04664  0.0197  0.04545  -0.01915  -0.2726  -0.7681
6.509e+09  -1.095  -0.2374  -0.02415  0.0284  0.04362  0.01485  -0.507  -0.5917
6.51e+09  -1.013  0.1837  -0.02601  -0.01237  0.01943  -0.0009627  -0.6587  -0.3705
6.511e+09  -0.8849  0.5782  -0.002853  -0.01544  0.0152  -0.002899  -0.7372  -0.1503
6.512e+09  -0.6651  0.7852  -0.02408  -0.01917  0.002205  -0.003365  -0.7624  0.1479
6.514e+09  -0.3775  0.9891  0.05695  0.01781  -0.04431  0.01494  -0.6409  0.3907
6.515e+09  0.005071  1.026  0.02216  -0.02561  -0.021  -0.003219  -0.4775  0.5739
6.516e+09  0.416  0.949  -0.01742  0.01758  0.02832  0.009809  -0.2107  0.7398
6.518e+09  0.746  0.7074  -0.004963  -0.02246  -0.0219  0.01682  0.02873  0.7655
6.519e+09  0.9065  0.3815  -0.0006782  0.03457  0.03362  -0.03496  0.2603  0.7309
6.52e+09  1.034  0.1143  0.02056  0.03132  -0.02958  0.02118  0.5363  0.5756
6.521e+09  0.9906  -0.369  -0.03234  -0.02118  0.02261  0.01116  0.6411  0.3464
6.522e+09  0.8164  -0.6095  -0.01467  0.0158  -0.0002888  0.04065  0.7481  0.1081
6.524e+09  0.5036  -0.8842  0.01808  0.005724  0.03549  0.02417  0.7163  -0.1772
6.525e+09  0.2326  -1.054  -0.005839  0.003112  0.07664  -0.0407  0.6324  -0.4153
6.526e+09  -0.1766  -0.9894  0.004783  0.001304  0.01513  -0.03399  0.4421  -0.5613
6.528e+09  -0.5567  -0.9031  -0.008208  0.0164  0.05849  0.01037  0.1825  -0.715
6.529e+09  -0.7764  -0.6345  -0.04986  -0.01071  0.01077  -0.01183  -0.04608  -0.6985
6.53e+09  -0.9586  -0.3138  0.02345  0.01577  0.01035  0.01739  -0.3078  -0.6069
6.531e+09  -1.043  0.07658  -0.0168  0.008592  0.01329  0.01833  -0.4715  -0.501
6.532e+09  -0.877  0.4225  -0.0008587  -0.003711  -0.0005928  -0.03006  -0.5655  -0.2863
6.534e+09  -0.7216  0.6616  0.01486  -0.007006  0.02125  0.00259  -0.6617  -0.1144
6.535e+09  -0.4058  0.8658  -0.00949  0.004093  0.08738  -0.07402  -0.6367  0.1325
6.536e+09  -0.08237  0.9653  0.02714  -0.01971  0.02059  0.03146  -0.5433  0.2717
6.538e+09  0.32  0.9236  -0.0271  -0.0004352  -0.06395  -0.01162  -0.4525  0.485
6.539e+09  0.556  0.775  0.01299  0.005789  -0.01181  -0.01761  -0.28  0.6256
6.54e+09  0.7737  0.5142  0.01904  0.006839  -0.008661  0.03194  -0.05596  0.6732
6.541e+09  0.9728  0.1484  0.01796  0.01439  -0.05396  0.002697  0.1663  0.6641
6.542e+09  0.9211  -0.1747  0.01926  0.009664  0.002798  0.009166  0.4411  0.5723
6.544e+09  0.7246  -0.4776  -0.01305  -0.01332  -0.0177  -0.05842  0.6181  0.4155
6.545e+09  0.5531  -0.7406  -0.02019  -0.01322  0.01455  -0.009676  0.6894  0.1979
6.546e+09  0.3279  -0.9149  0.006353  -0.01182  0.01046  0.01188  0.7122  -0.1
6.548e+09  -0.104  -0.91  -0.006383  -0.01547  -0.00209  0.006066  0.6463  -0.2949
6.549e+09  -0.3691  -0.8569  0.01562  -0.009887  0.01944  0.003403  0.4794  -0.5329
6.55e+09  -0.6446  -0.6712  -0.008187  -0.01034  0.02219  -0.004508  0.284  -0.6899
6.551e+09  -0.7423  -0.371  -0.02983  -0.003303  0.035  0.05712  0.01566  -0.7405
