# Hz S RI R 50
6.25e+09  0.7296  0.6007  0.01663  -0.01042  -0.05371  -0.01549  0.1528  0.5128
6.251e+09  0.9792  0.2757  0.008479  -0.02211  -0.003819  0.03411  0.3546  0.4086
6.252e+09  0.9923  -0.04045  0.0008633  -0.008814  0.02175  0.02793  0.5584  0.2014
6.254e+09  0.927  -0.3729  -0.01916  0.00163  -0.009659  0.02068  0.6263  0.04666
6.255e+09  0.7074  -0.7073  0.04763  0.01058  -0.04947  -0.001426  0.5961  -0.2577
6.256e+09  0.4079  -0.9012  0.02654  -0.005153  0.04157  0.01518  0.4516  -0.4437
6.258e+09  0.08032  -0.9865  0.006316  -0.004866  0.036  -0.003645  0.2704  -0.5712
6.259e+09  -0.2557  -0.9628  0.00699  -0.01163  0.01592  0.0194  0.04931  -0.6898
6.26e+09  -0.5377  -0.812  0.03183  0.01433  -0.04152  -0.0429  -0.2432  -0.6736
6.261e+09  -0.8026  -0.5621  0.0174  0.02198  -0.009946  0.0437  -0.426  -0.5087
6.262e+09  -0.9155  -0.2175  0.01427  -0.0121  0.03251  0.009752  -0.6337  -0.3365
6.264e+09  -0.9593  0.1226  -0.04909  0.001902  -0.01994  0.02975  -0.7158  -0.1202
6.265e+09  -0.8789  0.5144  -0.02945  0.005484  -0.03798  -0.02527  -0.7274  0.1426
6.266e+09  -0.6453  0.769  -0.008539  -0.002564  0.04793  0.001035  -0.5955  0.3825
6.268e+09  -0.3761  0.9365  -0.02154  0.01704  0.005819  0.009576  -0.4399  0.5849
6.269e+09  -0.01181  0.9178  -0.007686  0.009358  0.003754  -0.02647  -0.2077  0.7228
6.27e+09  0.3135  0.8793  0.002572  0.003807  -0.01209  -0.01921  0.08092  0.74
6.271e+09  0.6632  0.7952  0.001727  -0.02115  -0.08575  -0.01307  0.3379  0.69
6.272e+09  0.8385  0.4653  -0.01524  0.01348  0.00336  0.03298  0.5659  0.533
6.274e+09  0.9246  0.1178  -0.002219  -0.0227  -0.03093  -0.03682  0.7405  0.2865
6.275e+09  0.9262  -0.1786  -0.0258  -0.02219  -0.03662  -0.008481  0.7602  0.04666
6.276e+09  0.8493  -0.5374  -0.007165  -0.00137  -0.01898  0.03107  0.7561  -0.215
6.278e+09  0.5755  -0.8167  0.0007628  -0.03987  0.008877  -0.04969  0.6256  -0.4619
6.279e+09  0.3045  -0.9306  -0.02344  -0.005804  -0.01175  -0.05296  0.425  -0.6412
6.28e+09  -0.06923  -0.9939  -0.01602  0.04317  0.005365  0.02896  0.1564  -0.7454
6.281e+09  -0.4555  -0.901  0.005907  -0.009802  -0.005339  0.01415  -0.1201  -0.766
6.282e+09  -0.7444  -0.6657  0.02728  -0.002074  -0.04274  0.03164  -0.3468  -0.7144
6.284e+09  -0.9169  -0.3787  -0.03413  0.01931  -0.007029  -0.01848  -0.5883  -0.5158
6.285e+09  -0.952  -0.1298  0.05494  0.02779  -0.01736  -0.04284  -0.7343  -0.2759
6.286e+09  -0.9474  0.3004  0.01253  -0.00189  0.03208  0.03056  -0.8289  -0.04988
6.288e+09  -0.7641  0.5821  0.0007099  0.0191  0.02304  -0.01113  -0.7608  0.2434
6.289e+09  -0.5302  0.8358  0.009384  0.02592  -0.02367  0.008006  -0.6309  0.4914
6.29e+09  -0.1317  0.9981  -0.03839  -0.004421  -0.007934  0.04314  -0.3997  0.6933
6.291e+09  0.1925  0.972  -0.03054  0.002266  0.01129  -0.005251  -0.1341  0.803
6.292e+09  0.4774  0.9335  0.02416  0.005464  -0.05944  -0.0732  0.1328  0.8111
6.294e+09  0.778  0.6004  -0.01321  0.002769  0.01477  -0.01287  0.3881  0.688
6.295e+09  0.9416  0.2895  -0.002263  -0.009611  0.02993  -0.006394  0.6414  0.5487
6.296e+09  1.011  -0.078  -0.0151  -0.002661  -0.04021  -0.009642  0.7891  0.2974
6.298e+09  0.9081  -0.3445  0.02074  0.01531  0.02726  0.01074  0.8342  0.02109
6.299e+09  0.7063  -0.6851  -0.01833  0.003974  -0.004488  0.0101  0.8002  -0.2715
6.3e+09  0.4615  -0.8906  -0.002798  0.01059  -0.009438  0.01335  0.647  -0.5478
6.301e+09  0.1708  -1.011  0.004999  0.01717  -0.00432  0.004385  0.4379  -0.7065
6.302e+09  -0.3259  -0.918  0.006063  -0.007386  0.02246  0.02881  0.1661  -0.8139
6.304e+09  -0.6165  -0.8852  -0.01979  0.003325  0.03069  0.03187  -0.1483  -0.8444
6.305e+09  -0.8594  -0.5438  -0.01375  -0.02197  -0.02198  0.001989  -0.4116  -0.7222
6.306e+09  -1  -0.2219  -0.0002508  -0.02851  0.0018  0.02654  -0.6377  -0.5349
6.308e+09  -1.01  0.121  -0.03105  -0.02212  -0.0512  0.006246  -0.8304  -0.2938
6.309e+09  -0.8913  0.5015  -0.002684  0.004543  0.02132  -0.01276  -0.8729  -0.0387
6.31e+09  -0.6973  0.7773  -0.02129  0.002194  0.02373  0.01762  -0.8119  0.3008
6.311e+09  -0.3486  0.9842  0.007327  0.001087  -0.01425  -0.02567  -0.6724  0.5861
6.312e+09  -0.005976  1.047  -0.002754  0.03197  -0.02689  -0.007343  -0.4411  0.7581
6.314e+09  0.3487  0.9375  -0.0002674  0.009453  -0.02572  -0.03566  -0.1587  0.8376
6.315e+09  0.656  0.831  -0.01683  0.007019  0.01611  0.02352  0.1811  0.8651
6.316e+09  0.9139  0.4988  0.02803  0.01328  -0.03552  -0.04252  0.4404  0.7527
6.318e+09  1.058  0.1896  -0.01603  0.0513  0.004729  0.01748  0.6666  0.5958
6.319e+09  0.9849  -0.2132  0.0201  0.03098  0.01664  0.02384  0.8365  0.3355
6.32e+09  0.9149  -0.5353  -0.005556  -0.02435  0.007663  0.0337  0.8868  0.03008
6.321e+09  0.6456  -0.7815  0.01737  -0.04421  0.03254  -0.002942  0.8306  -0.3077
6.322e+09  0.3037  -0.9839  -0.03189  -0.04602  0.004584  0.01321  0.6486  -0.5493
6.324e+09  -0.08565  -1.044  0.006088  0.002683  -0.001589  -0.005357  0.4742  -0.7613
6.325e+09  -0.3666  -0.9907  -0.02322  -0.01325  0.02015  0.04956  0.1619  -0.9059
6.326e+09  -0.78  -0.7737  0.00401  -0.00713  -0.05794  -0.03785  -0.176  -0.8591
6.328e+09  -0.9168  -0.5057  -0.005671  0.02926  -0.01592  0.03836  -0.4257  -0.7955
6.329e+09  -1.036  -0.1275  -0.001745  -0.009118  0.04077  -0.02883  -0.6534  -0.6388
6.33e+09  -1.02  0.2894  -0.00679  0.004804  0.01514  0.01916  -0.8422  -0.3353
6.331e+09  -0.8784  0.6199  -0.01548  -0.00445  0.006984  0.00827  -0.8763  -0.02462
6.332e+09  -0.6185  0.9004  0.008176  0.03306  0.009169  -0.06207  -0.8722  0.2766
6.334e+09  -0.3262  1.065  -0.03005  0.004853  -0.0246  -0.02349  -0.692  0.5833
6.335e+09  0.1431  1.057  -0.005254  0.0583  -0.01159  -0.06153  -0.4853  0.7528
6.336e+09  0.4951  0.9208  0.03659  -0.05621  0.03121  0.001921  -0.1556  0.8989
6.338e+09  0.8634  0.7253  0.004186  -0.004753  0.04289  -0.004354  0.1313  0.8919
6.339e+09  1.019  0.4087  -0.002416  0.003126  -0.04327  0.01465  0.4239  0.8411
6.34e+09  1.085  0.01508  -0.02604  0.01308  0.02656  -0.01408  0.6718  0.6195
6.341e+09  1.053  -0.3751  0.03621  0.0254  0.04603  -0.05687  0.8423  0.3372
6.342e+09  0.838  -0.7301  -0.001854  -0.01367  -0.01107  0.008554  0.9662  0.07016
6.344e+09  0.547  -0.9681  0.0001372  0.01616  -0.01827  0.0111  0.8981  -0.2657
6.345e+09  0.1837  -1.115  0.02964  0.02463  -0.02386  0.005146  0.7424  -0.602
6.346e+09  -0.2471  -1.112  0.00459  0.01399  -0.001507  0.01166  0.5058  -0.7859
6.348e+09  -0.5981  -0.9555  -0.01493  -0.002199  0.01763  -0.0184  0.2193  -0.9291
6.349e+09  -0.9112  -0.7121  -0.00727  -0.0002646  0.01353  -0.03929  -0.1296  -0.9392
6.35e+09  -1.049  -0.3471  0.02073  0.0181  0.01812  0.02774  -0.4396  -0.8458
6.351e+09  -1.164  0.0755  -0.009138  -0.02492  0.007829  -0.03054  -0.6619  -0.6321
6.352e+09  -1.039  0.4453  0.01748  -0.0166  0.04951  0.0001821  -0.8647  -0.3708
6.354e+09  -0.8115  0.7881  0.003815  0.01634  -0.03826  -0.006003  -0.9537  -0.05749
6.355e+09  -0.5228  1.041  0.0056  0.01533  -0.02894  0.02997  -0.8816  0.2325
6.356e+09  -0.0994  1.2  0.02111  -0.006652  -0.02984  -0.01415  -0.7709  0.5768
6.358e+09  0.3121  1.167  0.04162  -0.0007179  0.007255  0.03437  -0.507  0.7904
6.359e+09  0.7039  0.9508  0.0002722  -0.01795  0.01245  -0.04641  -0.2636  0.9009
6.36e+09  0.9752  0.6723  -0.04832  -0.0182  0.02411  0.006811  0.1295  0.9278
6.361e+09  1.158  0.269  0.004308  0.03322  -0.02252  -0.03217  0.4129  0.8507
6.362e+09  1.206  -0.1394  0.0103  -0.0129  -0.01772  0.02108  0.7223  0.6737
6.364e+09  1.099  -0.6058  0.006284  -0.03473  -0.05156  0.002686  0.8482  0.3691
6.365e+09  0.8799  -0.8812  -0.01391  0.01357  -0.02941  -0.01352  0.918  0.05664
6.366e+09  0.4819  -1.118  -0.004933  0.003521  -0.04533  -0.02775  0.9316  -0.2515
6.368e+09  0.05537  -1.236  0.01831  -0.01733  -0.02379  0.04104  0.7564  -0.5472
6.369e+09  -0.4154  -1.155  -0.001355  -0.0007575  0.02989  -0.02805  0.5629  -0.7925
6.37e+09  -0.8136  -0.9987  -0.003074  0.008581  -0.05421  0.003534  0.227  -0.8568
6.371e+09  -1.099  -0.6656  0.003586  -0.04095  0.009841  -0.02097  -0.08338  -0.947
6.372e+09  -1.266  -0.2072  0.01201  -0.008443  -0.01889  -0.01158  -0.3977  -0.8461
6.374e+09  -1.266  0.2226  -0.01932  -0.004038  0.03744  0.02436  -0.6751  -0.68
6.375e+09  -1.103  0.6553  0.01747  0.01572  0.0186  -0.0093  -0.8586  -0.419
6.376e+09  -0.7738  0.9642  -0.05629  0.04054  0.005337  -0.0003252  -0.9482  -0.1293
6.378e+09  -0.4055  1.253  -0.002047  -0.03867  -0.01358  -0.01707  -0.9  0.2207
6.379e+09  0.03158  1.338  -0.0654  -0.01901  -0.02801  0.009123  -0.7614  0.5084
6.38e+09  0.5372  1.216  0.00546  0.001925  0.04399  -0.03185  -0.5485  0.7662
6.381e+09  0.9018  0.9708  -0.0219  -0.00315  -0.03951  0.02348  -0.239  0.8682
6.382e+09  1.204  0.6312  -0.01491  -0.02968  0.03533  -0.005655  0.05013  0.9103
6.384e+09  1.368  0.1272  -0.01758  0.04224  0.02321  0.0261  0.382  0.8497
6.385e+09  1.313  -0.3308  0.002019  0.003266  -0.02508  0.01512  0.6427  0.7082
6.386e+09  1.183  -0.7786  0.02106  0.01403  -0.01548  0.02357  0.8248  0.4594
6.388e+09  0.7777  -1.164  0.03031  -0.02653  -0.02686  0.0339  0.9528  0.1059
6.389e+09  0.3415  -1.443  -0.003545  0.01164  0.02254  0.05925  0.898  -0.2021
6.39e+09  -0.1336  -1.387  -0.01257  0.05  0.04933  -0.03008  0.819  -0.4697
6.391e+09  -0.6829  -1.334  0.002466  -0.03554  -0.05098  0.01137  0.5643  -0.7372
6.392e+09  -1.076  -1.056  0.008111  -0.009453  0.01137  0.03424  0.3027  -0.9014
6.394e+09  -1.361  -0.5747  0.02823  0.004974  0.03108  -0.01834  -0.0575  -0.9338
6.395e+09  -1.504  -0.04251  -0.003067  -0.004763  0.001381  0.01231  -0.3375  -0.8622
6.396e+09  -1.51  0.4747  0.014  -0.008577  -0.01661  -0.06904  -0.6161  -0.6993
6.398e+09  -1.207  1.005  0.01107  -0.02007  -0.02333  0.04174  -0.7951  -0.4395
6.399e+09  -0.8798  1.354  -0.01486  0.04117  0.05669  0.008739  -0.886  -0.1141
6.4e+09  -0.327  1.61  0.008718  0.02831  -0.04043  9.399e-05  -0.8719  0.1905
6.401e+09  0.3519  1.546  -0.0627  0.01134  -0.01027  0.04604  -0.7937  0.4792
6.402e+09  0.9337  1.37  0.00183  0.02679  0.0008716  0.006359  -0.5935  0.7332
6.404e+09  1.36  1.037  0.02563  -0.0009686  -0.003664  0.01307  -0.3337  0.8744
6.405e+09  1.581  0.4446  -0.007759  0.03536  -0.04775  0.01036  0.01452  0.9252
6.406e+09  1.708  -0.139  0.009036  0.02528  -0.02508  -0.01515  0.2973  0.8259
6.408e+09  1.613  -0.7171  0.03264  -0.00103  0.0625  0.03191  0.604  0.6861
6.409e+09  1.301  -1.256  0.03788  0.0159  -0.02495  -0.01057  0.7698  0.4829
6.41e+09  0.7466  -1.648  0.001841  -0.01569  -0.02435  0.03239  0.9408  0.1759
6.411e+09  0.08471  -1.886  -0.0302  -0.01116  0.004229  -0.002571  0.9196  -0.1691
6.412e+09  -0.6015  -1.841  0.01544  -0.006875  -0.009897  -0.03216  0.7805  -0.4501
6.414e+09  -1.217  -1.526  0.003505  -0.01441  -0.02276  -0.0341  0.5528  -0.7218
6.415e+09  -1.725  -0.931  0.004307  0.04035  -0.009617  0.003905  0.3011  -0.8076
6.416e+09  -2.02  -0.2061  0.01003  0.02576  -0.01574  -0.02975  0.02698  -0.9078
6.418e+09  -1.967  0.5116  -0.03009  0.02431  -0.0756  -0.01334  -0.2509  -0.8379
6.419e+09  -1.719  1.153  0.02685  0.01524  -0.07064  -0.008407  -0.5655  -0.7255
6.42e+09  -1.181  1.742  0.01372  0.02435  -0.01042  0.01255  -0.7256  -0.4786
6.421e+09  -0.509  2.046  -0.02657  0.02783  -0.02821  -0.005854  -0.8694  -0.151
6.422e+09  0.3128  2.222  -0.01565  -0.002876  0.0009405  -0.02298  -0.8737  0.1373
6.424e+09  1.085  1.993  0.003069  0.04072  0.01102  -0.02594  -0.7987  0.4319
6.425e+09  1.782  1.473  0.03621  0.03853  0.005178  0.01207  -0.5794  0.6576
6.426e+09  2.229  0.6704  -0.005704  0.007854  0.03367  0.02102  -0.3243  0.7666
6.428e+09  2.388  -0.2282  0.001208  -0.008843  0.05996  0.01568  -0.04208  0.8279
6.429e+09  2.198  -1.099  -0.004349  -0.02515  -0.0008604  0.01241  0.2746  0.844
6.43e+09  1.605  -1.834  -0.005166  -0.003664  0.1056  -0.02966  0.5033  0.7383
6.431e+09  0.8306  -2.368  0.01884  0.01377  -0.02978  -0.01308  0.7067  0.4541
6.432e+09  -0.1323  -2.567  -0.02899  0.03482  -0.008737  0.02033  0.8477  0.2005
6.434e+09  -1.098  -2.331  -0.009375  0.006614  -0.05432  0.006877  0.8572  -0.107
6.435e+09  -1.93  -1.837  0.009498  0.0795  0.01921  0.001157  0.785  -0.3753
6.436e+09  -2.487  -1.022  -0.05316  0.01078  0.1134  -0.03097  0.6187  -0.6474
6.438e+09  -2.708  0.05516  0.02474  0.04557  -0.03841  -0.05117  0.3198  -0.7694
6.439e+09  -2.514  1.096  0.03622  -0.003764  0.01629  0.03956  0.09458  -0.9142
6.44e+09  -1.985  1.903  -0.06691  0.003434  0.02156  0.02192  -0.232  -0.808
6.441e+09  -1.081  2.642  -0.02519  -0.01364  -0.01238  0.01162  -0.5172  -0.673
6.442e+09  -0.009364  2.892  -0.01299  -0.05741  -0.01297  -0.04521  -0.6534  -0.4655
6.444e+09  1.057  2.68  -0.0123  0.005223  -0.02479  0.08805  -0.8531  -0.2764
6.445e+09  2.034  2.01  -0.04849  0.01395  -0.01554  0.0164  -0.8618  0.03303
6.446e+09  2.658  1.195  -0.01247  0.02474  -0.003798  0.02898  -0.7523  0.3496
6.448e+09  2.933  -0.02655  0.001813  0.0008904  0.04568  -0.04241  -0.6114  0.5644
6.449e+09  2.67  -1.096  0.03661  0.0164  0.003715  -0.01092  -0.3178  0.7953
6.45e+09  2.124  -2.056  0.03252  0.04113  -0.05639  -0.04393  -0.1053  0.8567
6.451e+09  1.163  -2.65  -0.01483  0.0136  0.03572  0.06785  0.2501  0.7514
6.452e+09  0.1293  -2.933  -0.01033  0.004214  0.003412  0.03474  0.4796  0.6901
6.454e+09  -1.041  -2.787  -0.03805  0.02288  0.01812  0.04983  0.6648  0.4662
6.455e+09  -2.018  -2.165  0.02363  0.0001014  0.02506  -0.02384  0.8099  0.2197
6.456e+09  -2.626  -1.231  0.03  0.01697  0.02926  -0.02315  0.8066  -0.07539
6.458e+09  -2.824  -0.09846  -0.0003206  0.02556  -0.03519  -0.02859  0.6987  -0.357
6.459e+09  -2.689  0.9423  0.05273  0.02491  0.02062  0.0494  0.5606  -0.5696
6.46e+09  -2.154  1.824  0.004094  -0.02686  0.006178  -0.0007385  0.3407  -0.7518
6.461e+09  -1.262  2.496  -0.002721  0.01828  -0.01032  0.005269  0.06322  -0.7893
6.462e+09  -0.2133  2.805  -0.02846  0.01454  0.005295  0.06366  -0.2693  -0.7863
6.464e+09  0.7937  2.604  -0.03353  0.02345  0.000171  -0.03403  -0.4266  -0.6524
6.465e+09  1.724  2.107  -0.009651  0.02934  0.03997  0.03343  -0.6224  -0.4352
6.466e+09  2.297  1.36  -0.01029  0.0151  0.07955  0.01519  -0.7487  -0.1645
6.468e+09  2.588  0.3257  0.0179  -0.03732  0.01154  -0.0129  -0.8149  0.06515
6.469e+09  2.562  -0.6299  -0.003808  0.0222  0.02705  -0.05079  -0.7302  0.3133
6.47e+09  2.109  -1.543  -0.001277  0.01367  -0.01788  0.06069  -0.5704  0.5557
6.471e+09  1.37  -2.114  -0.00559  -0.001069  -0.001409  0.02347  -0.3041  0.704
6.472e+09  0.4953  -2.483  0.01215  -0.01324  -0.03666  -0.03713  -0.09202  0.7892
6.474e+09  -0.4489  -2.544  -0.01471  -0.032  0.03272  -0.01967  0.2404  0.7478
6.475e+09  -1.308  -2.195  0.03361  -0.003697  0.003924  -0.001506  0.4455  0.6089
6.476e+09  -2.013  -1.482  -0.02067  0.01606  -0.03007  0.03183  0.6657  0.4115
6.478e+09  -2.367  -0.6194  0.04874  -0.02017  0.0009732  0.03031  0.793  0.1569
6.479e+09  -2.495  0.2129  -0.003574  -0.02425  -0.01142  0.03107  0.7826  -0.0677
6.48e+09  -2.194  1.092  -0.02774  -0.000105  0.04669  -0.06029  0.7822  -0.3723
6.481e+09  -1.618  1.791  0.0347  -0.03286  0.0279  -0.04751  0.6019  -0.5539
6.482e+09  -0.845  2.247  0.03473  -0.008002  -0.02801  0.03175  0.338  -0.6785
6.484e+09  0.03787  2.389  0.02638  -0.03136  -0.01159  0.005912  0.04816  -0.7715
6.485e+09  0.819  2.214  -0.03522  0.0005896  -0.03692  -0.006042  -0.2097  -0.7668
6.486e+09  1.525  1.662  0.01024  0.02011  0.06574  0.003208  -0.4777  -0.6347
6.488e+09  2.689  1.355  0.001997  0.0197  0.4395  0.5786  -0.6612  -0.4037
6.489e+09  2.272  0.2399  -0.02953  -0.02572  0.04761  0.03061  -0.7609  -0.1856
6.49e+09  2.178  -0.5769  -0.01631  -0.04428  -0.02707  -0.03061  -0.7583  0.06993
6.491e+09  1.839  -1.288  0.04688  -0.005786  -0.01487  0.01192  -0.72  0.3275
6.492e+09  1.262  -1.857  0.003271  0.02037  -0.00612  -0.008108  -0.5373  0.5909
6.494e+09  0.3485  -2.215  -0.03241  -0.002343  -0.07779  0.03796  -0.3356  0.7353
6.495e+09  -0.305  -2.229  0.005743  0.04936  -0.007817  0.01507  -0.05212  0.7705
6.496e+09  -1.09  -1.872  -0.02435  -0.01327  0.02345  -0.01073  0.2336  0.7242
6.498e+09  -1.735  -1.403  0.002984  -0.0005033  0.02018  0.03067  0.442  0.6231
6.499e+09  -2.152  -0.7556  -0.00405  0.006029  -0.07067  -0.06296  0.6404  0.4049
6.5e+09  -1.932  -1.996  0.02094  -0.01779  0.05597  -0.03427  0.7602  0.1789
6.501e+09  -2.072  0.9059  -0.03512  -0.02812  0.02491  -0.008335  0.7314  -0.08711
6.502e+09  -1.637  1.537  -0.01114  0.000343  0.0118  0.0773  0.6681  -0.3394
6.504e+09  -0.961  2.025  -0.007686  0.003921  -0.05232  0.01743  0.5102  -0.5925
6.505e+09  -0.2431  2.243  0.01842  0.01862  0.0247  0.02978  0.2525  -0.6945
6.506e+09  0.6301  2.125  -0.02063  0.01525  -0.03048  -0.02134  -0.003051  -0.7778
6.508e+09  1.309  1.821  0.0189  -0.0158  0.011  0.06133  -0.2327  -0.7371
6.509e+09  1.904  1.233  -0.01459  0.02829  -0.01029  0.06024  -0.5054  -0.5907
6.51e+09  2.202  0.4344  -0.009497  0.007492  0.03487  0.02124  -0.6167  -0.3824
6.511e+09  2.19  -0.337  -0.005027  0.01154  0.06071  0.0249  -0.7477  -0.1438
6.512e+09  2.015  -1.076  -0.009645  -0.03489  -0.01046  0.004056  -0.7467  0.1337
6.514e+09  1.456  -1.785  0.01486  -0.009048  0.01198  -0.03031  -0.6162  0.3839
6.515e+09  0.745  -2.168  0.01984  0.02583  0.05564  0.01921  -0.4938  0.5038
6.516e+09  -0.05229  -2.351  -0.03896  0.01673  0.01631  -0.02995  -0.2195  0.7256
6.518e+09  -0.9259  -2.145  0.01996  0.00604  -0.03786  0.04214  0.0438  0.7472
6.519e+09  -1.646  -1.757  -0.02245  -0.02401  -0.00976  -0.02516  0.2643  0.7193
6.52e+09  -2.184  -0.9726  -0.03347  0.03795  -0.03867  0.01853  0.5135  0.5683
6.521e+09  -2.425  -0.1868  -0.001032  -0.001338  0.004271  -0.04214  0.6489  0.3504
6.522e+09  -2.341  0.7304  -0.01004  -0.008696  0.01165  0.0007481  0.703  0.09467
6.524e+09  -1.99  1.46  -0.02819  -0.01148  -0.01355  0.003031  0.6853  -0.2231
6.525e+09  -1.268  2.034  0.01394  -0.01064  0.0009337  -0.02763  0.6147  -0.3935
6.526e+09  -0.4392  2.456  -0.01765  -0.008289  -0.08919  0.03773  0.4348  -0.5701
6.528e+09  0.5472  2.448  -0.01356  0.007078  -0.0006218  0.007953  0.1853  -0.6883
6.529e+09  1.333  2.122  -0.009916  -0.005548  0.03988  -0.02475  -0.02661  -0.6652
6.53e+09  2.08  1.535  0.03637  -0.01889  -0.0072  -0.02104  -0.3051  -0.6205
6.531e+09  2.55  0.6217  -0.03741  -0.005072  0.0008569  -0.02856  -0.4747  -0.4872
6.532e+09  2.641  -0.3108  -0.002994  0.01875  -0.01984  -0.03817  -0.5914  -0.2821
6.534e+09  2.298  -1.235  -0.01421  -0.01095  -0.001903  -0.04929  -0.6759  -0.1049
6.535e+09  1.721  -2.016  0.02393  -0.04284  -0.03842  -0.03872  -0.6091  0.09902
6.536e+09  0.8824  -2.593  -0.01705  -0.02442  -0.04837  0.02346  -0.5325  0.2813
6.538e+09  -0.1075  -2.656  0.0125  0.01284  -0.04534  -0.0176  -0.4373  0.4883
6.539e+09  -1.097  -2.492  0.035  -0.0003686  -0.01852  -0.02502  -0.2685  0.6178
6.54e+09  -2.033  -1.895  -0.01073  0.03473  -0.04978  -0.01941  -0.06607  0.705
6.541e+09  -2.594  -1.058  0.002186  -0.03525  -0.04913  -0.06394  0.213  0.6481
6.542e+09  -2.828  -0.05082  -0.005691  0.01895  -0.04003  0.003356  0.4028  0.5648
6.544e+09  -2.646  0.966  0.0109  0.003021  0.03477  0.02185  0.5965  0.4016
6.545e+09  -2.089  1.884  -0.01407  0.01879  -0.07184  -0.004244  0.6913  0.1973
6.546e+09  -1.146  2.547  0.007031  -0.008508  0.0907  0.02397  0.7293  -0.07654
6.548e+09  -0.1112  2.9  0.00851  0.00992  0.01507  -0.0453  0.6317  -0.3437
6.549e+09  0.8464  2.706  0.01081  0.006584  -0.02762  -0.08217  0.5073  -0.5391
6.55e+09  1.832  2.194  0.007875  -0.02729  -0.03772  0.03153  0.2844  -0.6603
6.551e+09  2.482  1.299  -0.01918  -0.02345  0.036  -0.04518  0.04437  -0.7375
6.552e+09  2.787  0.2282  0.00226  0.01816  -0.0394  0.01041  -0.2051  -0.724
6.554e+09  2.724  -0.8454  -0.009361  0.01745  0.02578  0.006262  -0.4585  -0.5906
6.555e+09  2.177  -1.781  0.01713  0.01707  0.009082  -0.000416  -0.6292  -0.3851
