# Hz S RI R 50
6.25e+09  0.8227  -0.5372  0.002773  0.02351  -0.01091  0.008918  0.1735  0.4818
6.251e+09  0.6065  -0.8852  0.01802  -0.01263  0.01506  -0.05492  0.3742  0.3647
6.252e+09  0.2521  -1.03  -0.02325  0.01789  0.03891  -0.01778  0.5186  0.2642
6.254e+09  -0.1496  -0.9831  0.0227  -0.01123  0.005249  -0.0118  0.6265  0.01009
6.255e+09  -0.4388  -0.8312  0.02411  0.01393  0.03207  0.03449  0.6092  -0.2013
6.256e+09  -0.7821  -0.5707  0.01191  -0.005125  -0.01246  0.04229  0.4824  -0.4667
6.258e+09  -0.9955  -0.4056  -0.0104  0.03563  -0.04905  0.002291  0.2678  -0.6245
6.259e+09  -0.9834  -0.03052  0.0004277  0.02397  0.0351  0.03798  0.02491  -0.6492
6.26e+09  -0.8716  0.3622  0.02011  0.008756  -0.01453  0.01828  -0.2093  -0.6567
6.261e+09  -0.7493  0.6428  0.003127  -0.0002276  0.000994  0.01509  -0.4453  -0.5215
6.262e+09  -0.4618  0.9299  -0.004601  -0.0038  -0.04424  -0.0172  -0.6296  -0.3415
6.264e+09  -0.04097  0.9543  0.006517  -0.0228  0.012  -0.00595  -0.7357  -0.1014
6.265e+09  0.2871  0.9317  0.004234  0.01054  -0.0386  0.05536  -0.7051  0.1645
6.266e+09  0.5697  0.771  0.006032  -0.01736  0.04059  0.02157  -0.6335  0.3841
6.268e+09  0.824  0.5644  0.00613  -0.006506  -0.01725  -0.001885  -0.4178  0.6108
6.269e+09  0.97  0.1876  0.002  0.01359  0.03014  0.005853  -0.1878  0.7274
6.27e+09  0.9002  -0.1393  0.002978  -0.005258  0.01146  -0.01876  0.07519  0.7811
6.271e+09  0.8227  -0.5522  -0.00906  -0.003209  0.001744  -0.01851  0.332  0.7095
6.272e+09  0.6036  -0.7572  0.006821  -0.01434  0.009103  0.01134  0.5408  0.4889
6.274e+09  0.2719  -0.9144  0.01077  0.02856  -0.04537  0.02154  0.6481  0.3131
6.275e+09  -0.08355  -0.9873  0.02208  0.005949  -0.02301  0.01903  0.7794  0.043
6.276e+09  -0.4298  -0.8674  0.01701  0.000724  -0.02336  -0.004033  0.7327  -0.2457
6.278e+09  -0.6644  -0.7501  -0.005095  -0.00831  -0.02295  -0.01993  0.6029  -0.4537
6.279e+09  -0.8296  -0.4396  -0.0007923  0.002914  -0.01806  -0.006396  0.4036  -0.6912
6.28e+09  -0.9404  -0.07095  -0.002223  0.01242  0.02732  0.03919  0.1232  -0.7823
6.281e+09  -0.9351  0.1968  -0.003196  0.01469  0.01112  0.01769  -0.1501  -0.7659
6.282e+09  -0.7636  0.5924  -0.0177  0.006663  0.03789  -0.03824  -0.3763  -0.6666
6.284e+09  -0.5435  0.8561  0.003943  0.01494  0.02702  -0.03791  -0.5861  -0.5
6.285e+09  -0.1808  0.9405  -0.001489  0.003593  0.0217  0.02165  -0.7453  -0.276
6.286e+09  0.1271  0.9644  -0.02257  0.007996  -0.02081  0.06115  -0.8194  -0.02536
6.288e+09  0.478  0.8947  -0.007168  -0.009523  -0.02726  -0.02878  -0.7655  0.2592
6.289e+09  0.7609  0.6116  0.01848  0.01729  -0.0004599  0.0114  -0.6343  0.5276
6.29e+09  0.9088  0.3402  -0.0009457  0.007252  0.02382  0.01046  -0.4154  0.6963
6.291e+09  0.9235  -0.01349  0.002788  0.03148  -0.0009497  -0.02504  -0.1631  0.7892
6.292e+09  0.9119  -0.3618  0.01195  0.006326  -0.02043  -0.01829  0.07846  0.7943
6.294e+09  0.7272  -0.6665  -0.005739  -0.008623  -0.03171  -0.003665  0.4098  0.7009
6.295e+09  0.4209  -0.8386  -0.004143  -0.0102  -0.001047  0.04583  0.6139  0.5395
6.296e+09  0.07338  -0.9401  -0.02745  -0.006523  -0.01707  -0.003735  0.8102  0.2838
6.298e+09  -0.2132  -0.9545  0.001667  0.01544  -0.02697  0.04495  0.8401  -0.01545
6.299e+09  -0.5752  -0.7781  -0.02861  -0.01218  -0.009915  0.02982  0.7791  -0.2831
6.3e+09  -0.8572  -0.5514  -0.03373  0.02678  -0.004014  0.02005  0.6345  -0.5173
6.301e+09  -0.9413  -0.2143  0.0002787  -0.01178  -0.03064  -0.05039  0.4152  -0.7285
6.302e+09  -0.9244  0.09081  0.02965  0.004785  0.02249  -0.0096  0.1397  -0.8432
6.304e+09  -0.8805  0.4139  -0.002448  -0.0367  0.002254  -0.03682  -0.1641  -0.8264
6.305e+09  -0.6141  0.6949  0.01768  0.002202  -0.01581  0.07113  -0.4374  -0.7484
6.306e+09  -0.3332  0.8752  -0.0269  -0.007923  0.02237  -0.001517  -0.6352  -0.5481
6.308e+09  -0.01584  0.9526  -0.003769  0.02349  0.04382  0.0272  -0.7927  -0.3369
6.309e+09  0.3834  0.9495  -0.03584  -0.0285  0.01935  0.01895  -0.8606  -0.03425
6.31e+09  0.6739  0.7434  0.01172  0.0209  -0.01556  0.002627  -0.7959  0.3279
6.311e+09  0.8732  0.4262  -0.02334  -0.009063  0.03938  -0.02102  -0.6552  0.5568
6.312e+09  0.977  0.1733  0.001444  0.005733  0.02631  -0.02885  -0.4305  0.7585
6.314e+09  0.9368  -0.1731  0.003668  -0.04666  -0.03048  0.001479  -0.1681  0.8684
6.315e+09  0.827  -0.569  0.0204  0.00235  0.003992  0.001685  0.1497  0.8478
6.316e+09  0.5843  -0.8063  -0.02293  -0.005073  -0.02377  -0.02719  0.4393  0.8027
6.318e+09  0.2253  -0.9218  -0.0111  -0.02561  -0.02095  0.001169  0.6978  0.5672
6.319e+09  -0.1039  -0.9705  -0.004936  0.02238  0.01016  -0.009808  0.8292  0.325
6.32e+09  -0.4446  -0.9009  -0.008402  0.01964  0.02128  0.008661  0.8792  0.001616
6.321e+09  -0.7201  -0.7108  -0.02138  0.03854  0.01316  -0.01797  0.8315  -0.298
6.322e+09  -0.9181  -0.3792  0.01604  -0.01605  0.02312  0.02355  0.7022  -0.5781
6.324e+09  -1.022  -0.004921  -0.003879  0.01685  0.01  0.00605  0.4687  -0.7419
6.325e+09  -0.9354  0.3221  -0.03892  -0.0286  -0.0484  0.002312  0.1717  -0.9139
6.326e+09  -0.7781  0.6258  -0.0176  0.002272  -0.02622  0.01321  -0.1247  -0.8923
6.328e+09  -0.4804  0.8395  0.01672  -0.001271  0.01458  -0.004089  -0.4449  -0.8144
6.329e+09  -0.1575  1.014  -0.03909  -0.01996  0.03298  0.0112  -0.7  -0.6088
6.33e+09  0.1922  0.9472  0.0007831  0.01114  0.02525  -0.01937  -0.8568  -0.3409
6.331e+09  0.5349  0.8335  -0.01502  -0.0008488  0.02227  -0.00956  -0.9129  -0.02108
6.332e+09  0.7427  0.5779  -0.0002295  0.01907  -0.04028  -0.01746  -0.8589  0.2757
6.334e+09  0.9071  0.2767  -0.009904  -0.01502  0.03744  -0.03152  -0.7243  0.5605
6.335e+09  1.013  -0.09047  0.02599  -0.01484  -0.009578  -0.0292  -0.4834  0.7865
6.336e+09  0.9492  -0.4297  0.02717  -0.009508  -0.03726  0.01968  -0.1579  0.9216
6.338e+09  0.7272  -0.7015  -0.01934  0.02524  -0.07016  0.01511  0.1066  0.9172
6.339e+09  0.382  -0.9508  0.009479  0.01639  -0.00308  0.05034  0.456  0.7962
6.34e+09  0.05443  -1.034  -0.001914  -0.001257  -0.03044  -0.009155  0.6915  0.6421
6.341e+09  -0.2998  -1.014  -0.007351  0.01483  0.04387  0.007223  0.8571  0.3643
6.342e+09  -0.63  -0.7921  -0.01946  0.00394  0.02046  -0.005628  0.913  0.03444
6.344e+09  -0.8148  -0.5335  -0.0104  -0.04064  -0.008563  -0.00299  0.8928  -0.2788
6.345e+09  -1.002  -0.2187  0.01059  0.04251  0.01786  0.003227  0.7305  -0.5681
6.346e+09  -0.9903  0.1745  0.02526  -0.02836  0.01931  -0.03771  0.5094  -0.8055
6.348e+09  -0.8682  0.5084  -0.0263  0.008347  -0.02374  0.009998  0.2417  -0.9049
6.349e+09  -0.6224  0.7973  0.03779  0.02052  -0.04435  0.05251  -0.07775  -0.9004
6.35e+09  -0.2987  1.002  -0.01364  0.005971  0.01326  0.004443  -0.4407  -0.8256
6.351e+09  0.09444  0.9934  0.008685  0.009962  0.0153  -0.009385  -0.6508  -0.6198
6.352e+09  0.3951  0.9411  0.02449  0.02281  0.002981  -0.02738  -0.8867  -0.3662
6.354e+09  0.719  0.7462  0.005119  0.04145  -0.05834  0.04154  -0.9774  -0.06633
6.355e+09  0.9416  0.4205  -0.01787  0.02285  0.006677  0.001198  -0.9338  0.2759
6.356e+09  1.069  0.09399  0.02097  -0.04449  0.02784  0.02162  -0.7653  0.5471
6.358e+09  0.9646  -0.3015  0.01833  -0.001571  0.0497  0.001376  -0.5679  0.83
6.359e+09  0.8369  -0.6186  0.02137  -0.02191  0.01777  0.009396  -0.2316  0.9121
6.36e+09  0.5835  -0.8804  0.002726  0.01471  0.02217  -0.0222  0.08438  0.9555
6.361e+09  0.2175  -1.071  -0.01035  0.02095  0.05289  -0.004316  0.4517  0.8495
6.362e+09  -0.1141  -1.055  -0.03722  -0.03537  -0.03373  -0.0482  0.7123  0.6726
6.364e+09  -0.5358  -0.9687  -0.02836  -4.469e-05  -0.04065  -0.003093  0.8552  0.3905
6.365e+09  -0.8395  -0.6395  -0.02132  -0.002979  -0.03561  -0.03049  0.9293  0.11
6.366e+09  -1.03  -0.3384  0.0516  -0.01133  -0.01625  0.00626  0.9163  -0.2954
6.368e+09  -1.07  0.03198  0.03124  -0.009192  0.05941  -0.003619  0.7788  -0.5221
6.369e+09  -0.9889  0.3874  -0.03689  -0.03214  -0.01926  0.004712  0.5334  -0.8069
6.37e+09  -0.8069  0.7359  -0.03708  -0.01146  0.02949  -0.03017  0.2087  -0.886
6.371e+09  -0.4199  0.9802  0.01899  0.01058  -0.002146  -0.05136  -0.07482  -0.9365
6.372e+09  -0.09531  1.132  0.01289  -0.001745  0.004722  0.004125  -0.4018  -0.8572
6.374e+09  0.2879  1.03  0.01913  -0.007424  0.01368  0.006949  -0.6552  -0.6737
6.375e+09  0.6542  0.8847  -0.00576  0.0002627  -0.004863  0.00742  -0.861  -0.4016
6.376e+09  0.9352  0.587  0.03712  -0.01466  -0.0342  -0.02813  -0.9537  -0.1161
6.378e+09  1.084  0.2101  0.02771  -0.01222  -0.02232  -0.0002752  -0.8755  0.258
6.379e+09  1.096  -0.1896  -0.001005  0.04202  0.03104  0.03258  -0.8065  0.5525
6.38e+09  0.9891  -0.6337  -0.01106  0.01178  -0.02518  -0.02617  -0.5723  0.7697
6.381e+09  0.6472  -0.9155  0.04382  0.01954  0.03358  -0.02425  -0.2611  0.8713
6.382e+09  0.2848  -1.121  -0.03412  0.02766  -0.04736  -0.03114  0.0746  0.9655
6.384e+09  -0.07268  -1.142  -0.01016  0.009076  -0.005098  0.03723  0.3956  0.8595
6.385e+09  -0.5288  -1.009  -0.01982  -0.02091  -0.03017  -0.002741  0.6864  0.6751
6.386e+09  -0.8753  -0.7859  -0.01309  0.02021  -0.02409  -0.00166  0.8851  0.3984
6.388e+09  -1.127  -0.4459  0.03052  0.008458  0.01129  0.04059  0.9568  0.09912
6.389e+09  -1.187  -0.01402  0.00109  -0.02358  0.04364  -0.002557  0.9006  -0.1871
6.39e+09  -1.049  0.409  0.0003667  0.01863  0.0146  -6.7e-05  0.7663  -0.4602
6.391e+09  -0.8797  0.7908  0.03389  0.03014  -0.02125  -0.000961  0.5467  -0.7267
6.392e+09  -0.5618  0.9666  -0.009097  -0.02671  -0.01056  0.01046  0.2749  -0.9376
6.394e+09  -0.2079  1.094  -0.03417  0.002835  0.03954  0.01818  -0.0252  -0.9118
6.395e+09  0.2309  1.157  0.0108  0.004939  0.009463  -0.0176  -0.3481  -0.8635
6.396e+09  0.6879  1.007  0.04462  -0.004158  0.02943  0.01326  -0.618  -0.6898
6.398e+09  1.015  0.6577  -0.02605  -0.01696  0.001327  0.01502  -0.7858  -0.4475
6.399e+09  1.206  0.2259  -0.023  -0.03103  -0.02325  -0.003582  -0.8916  -0.1439
6.4e+09  1.239  -0.09935  0.03388  -0.01896  0.01915  -0.01435  -0.9183  0.1811
6.401e+09  0.9415  -0.6172  0.02128  0.004895  -0.0009324  -0.01183  -0.7813  0.4425
6.402e+09  0.738  -0.968  -0.01328  -0.03162  0.0219  0.01051  -0.5896  0.7213
6.404e+09  0.325  -1.128  0.03036  0.0005616  -0.04558  -0.002315  -0.299  0.8749
6.405e+09  -0.1377  -1.17  0.0662  0.02368  -0.01955  0.02927  -0.01186  0.9191
6.406e+09  -0.5612  -1.085  0.01626  0.02636  0.006482  0.01261  0.3326  0.8741
6.408e+09  -0.8943  -0.8911  -0.01852  -0.02492  0.02737  -0.01205  0.61  0.7256
6.409e+09  -1.13  -0.4839  -0.01203  0.02137  0.02186  0.006823  0.7548  0.4327
6.41e+09  -1.24  0.0245  -0.0096  -0.05236  -0.008441  0.05477  0.9066  0.1824
6.411e+09  -1.139  0.3706  0.01969  -0.01264  -0.005468  -0.007584  0.9121  -0.1869
6.412e+09  -0.9335  0.8108  -0.004781  -0.00388  -0.004438  -0.007187  0.8194  -0.4731
6.414e+09  -0.5623  1.127  0.01754  -0.009418  -0.01455  -0.01355  0.5894  -0.6809
6.415e+09  -0.1164  1.234  -0.01594  -0.0138  -0.002653  0.01575  0.3949  -0.8413
6.416e+09  0.3582  1.218  0.01367  -0.002732  -0.08015  -0.02341  -0.02854  -0.8821
6.418e+09  0.7267  0.9393  -0.04438  0.005193  -0.02353  -0.0005161  -0.2732  -0.8484
6.419e+09  1.059  0.6682  0.06096  -0.03813  0.03578  0.0137  -0.5508  -0.7316
6.42e+09  1.249  0.2633  0.05028  -0.01376  -0.009929  -0.02827  -0.7596  -0.4592
6.421e+09  1.185  -0.2502  -0.01215  0.0168  -0.05555  0.01929  -0.9281  -0.1946
6.422e+09  1.026  -0.6616  0.008606  -0.001301  0.0135  -0.009195  -0.8895  0.1248
6.424e+09  0.7808  -0.9472  -0.01266  0.008529  0.0005113  -0.003488  -0.802  0.4094
6.425e+09  0.3438  -1.222  0.01636  -0.01607  -0.03664  -0.004845  -0.5799  0.618
6.426e+09  -0.08669  -1.175  0.01273  -0.009864  0.01468  0.01943  -0.353  0.7786
6.428e+09  -0.6033  -1.09  -0.00743  -0.0346  0.01448  -0.02521  -0.00389  0.8877
6.429e+09  -0.9117  -0.794  -0.02882  0.02948  -0.03896  0.003732  0.2526  0.7978
6.43e+09  -1.127  -0.3619  0.02344  -0.01724  -0.05561  0.06212  0.5791  0.7047
6.431e+09  -1.227  0.008115  -0.003573  -0.003166  -0.0281  0.03391  0.6899  0.5157
6.432e+09  -1.111  0.4592  0.005003  0.008579  0.03091  -0.02405  0.8665  0.24
6.434e+09  -0.8997  0.8067  0.02571  0.01501  -0.003227  -8.222e-05  0.8366  -0.09407
6.435e+09  -0.4498  1.048  0.01918  -0.001493  0.009132  0.02142  0.7246  -0.3697
6.436e+09  -0.124  1.212  -0.02466  0.07071  -0.01953  -0.03112  0.5626  -0.6254
6.438e+09  0.3489  1.126  0.007207  -0.04127  0.003097  0.004538  0.3649  -0.7717
6.439e+09  0.6774  0.9315  -0.01677  -0.01362  -0.039  -0.02488  0.1061  -0.8515
6.44e+09  0.9924  0.5735  0.02395  0.02939  0.08  0.03024  -0.2119  -0.823
6.441e+09  1.147  0.1826  -0.01638  -0.003778  0.01883  0.002664  -0.4523  -0.6901
6.442e+09  1.082  -0.1824  -0.02202  0.01797  0.0336  0.008204  -0.7079  -0.4793
6.444e+09  0.9206  -0.6263  -0.004307  -0.01409  -0.02047  -0.02404  -0.8283  -0.2166
6.445e+09  0.6943  -0.8957  -0.03308  -0.008171  0.01752  0.003772  -0.8613  0.1013
6.446e+09  0.3063  -1.026  0.02528  0.00841  0.03041  -0.01912  -0.7676  0.3073
6.448e+09  -0.07419  -1.116  0.02534  0.0178  0.01207  -0.01776  -0.614  0.588
6.449e+09  -0.5064  -1.027  -0.01744  0.01301  -0.007411  -0.03055  -0.3752  0.7469
6.45e+09  -0.7624  -0.7642  0.006792  0.01091  0.01014  -0.01494  -0.04277  0.8237
6.451e+09  -0.9944  -0.5022  0.0141  -0.000508  -0.02878  -0.02638  0.2219  0.8018
6.452e+09  -1.117  -0.05137  0.007163  -0.04309  -0.04467  0.06385  0.5282  0.6847
6.454e+09  -1.066  0.4061  0.002369  -0.02509  -0.004435  0.0308  0.7118  0.4637
6.455e+09  -0.8431  0.7125  0.04386  0.008486  -0.04112  0.005597  0.8231  0.25
6.456e+09  -0.4904  0.938  0.002637  -0.02996  0.008996  0.01358  0.8487  -0.09065
6.458e+09  -0.1715  1.065  0.004161  0.04306  0.008008  0.005937  0.7915  -0.3408
6.459e+09  0.2176  0.9927  0.01687  -0.02643  0.03266  0.0135  0.557  -0.6081
6.46e+09  0.6029  0.9526  0.01067  -0.006902  0.02715  0.006775  0.3698  -0.6833
6.461e+09  0.8271  0.6465  -0.0006452  0.0205  -0.02068  -0.03727  0.04901  -0.8115
6.462e+09  1.047  0.3317  0.01193  0.002995  -0.0005396  -0.03873  -0.1989  -0.779
6.464e+09  1.049  -0.09884  -0.005538  -0.04442  0.02247  -0.006848  -0.5131  -0.6329
6.465e+09  0.9495  -0.4527  0.01476  0.01129  0.01645  -0.002786  -0.675  -0.4696
6.466e+09  0.709  -0.761  -0.01279  0.0006025  -0.09142  0.02104  -0.7851  -0.2289
6.468e+09  0.4022  -0.965  0.01692  -0.001029  0.04698  -0.05597  -0.7996  0.09052
6.469e+09  0.06203  -1.067  0.02846  0.01435  -0.02299  -0.003578  -0.7241  0.3712
6.47e+09  -0.3194  -0.9665  -0.02089  -0.04001  0.006734  -0.00799  -0.5838  0.5602
6.471e+09  -0.5784  -0.8267  0.008723  -0.01292  0.005384  -0.01306  -0.3164  0.7115
6.472e+09  -0.8536  -0.5313  0.03333  -0.008428  -0.02948  0.02384  -0.06566  0.7904
6.474e+09  -0.9922  -0.2169  0.01216  -0.02824  0.005435  -0.03102  0.2122  0.7631
6.475e+09  -1.003  0.1839  0.0269  0.003325  -0.03454  0.03826  0.4585  0.6284
6.476e+09  -0.9241  0.5201  0.004638  -0.01929  -0.004944  -0.02344  0.6404  0.4586
6.478e+09  -0.6501  0.7693  -0.00323  0.01904  -0.003363  0.02713  0.7522  0.195
6.479e+09  -0.2764  0.9185  0.01714  0.0387  0.0008436  0.01801  0.7822  -0.1153
6.48e+09  -0.004217  0.9507  0.004877  -0.007428  0.06743  0.01392  0.7004  -0.3542
6.481e+09  0.3631  0.9692  0.01552  0.02902  -0.04122  -0.02292  0.4903  -0.5423
6.482e+09  0.6265  0.796  -0.004378  0.02843  -0.00551  -0.01218  0.3595  -0.6776
6.484e+09  0.8999  0.4847  0.01776  -0.03398  -0.01631  0.03628  0.09635  -0.7884
6.485e+09  0.9833  0.08254  0.001876  0.00726  0.04121  0.02963  -0.194  -0.767
6.486e+09  0.9715  -0.1812  -0.008993  0.02343  -0.01041  0.01867  -0.4602  -0.6162
6.488e+09  1.528  -0.4885  -0.002403  0.03323  -0.6694  -0.3395  -0.6467  -0.4412
6.489e+09  0.5618  -0.8095  -0.02661  0.004412  0.02214  0.04388  -0.7516  -0.1684
6.49e+09  0.2606  -0.9344  0.02255  0.01984  0.03271  0.004241  -0.7566  0.112
6.491e+09  -0.05838  -0.9566  0.02405  0.0116  -0.001974  -0.02315  -0.73  0.3516
6.492e+09  -0.4105  -0.9041  -0.03246  0.005599  -0.03306  -0.0257  -0.4988  0.5553
6.494e+09  -0.7494  -0.709  -0.008881  -0.002523  -0.08329  0.1399  -0.2887  0.746
6.495e+09  -0.8561  -0.4011  -0.01604  0.001769  0.0004986  0.02119  -0.0415  0.7877
6.496e+09  -0.9853  -0.05619  0.001792  0.03924  -0.02392  -0.0111  0.2326  0.7505
6.498e+09  -0.9045  0.2476  -0.00216  0.009233  0.003559  0.01128  0.4225  0.5687
6.499e+09  -0.7939  0.5665  0.0009796  0.02099  -0.00885  0.03861  0.6706  0.4049
6.5e+09  -0.3971  0.2619  -0.01416  0.02196  -0.03531  0.06585  0.768  0.1346
6.501e+09  -0.2586  0.9992  -0.02593  0.03807  0.01165  -0.009403  0.7205  -0.1114
6.502e+09  0.07207  0.9826  0.008441  -0.004154  0.0004401  -0.006327  0.6553  -0.3455
6.504e+09  0.469  0.8694  0.0004377  -0.01298  -0.03335  0.03028  0.482  -0.6017
6.505e+09  0.6984  0.6586  0.02371  0.04011  -0.009687  0.01576  0.2894  -0.7091
6.506e+09  0.8833  0.3741  0.0413  0.03564  0.006763  -0.08038  0.01919  -0.7771
6.508e+09  0.9499  0.05296  3.762e-05  0.02184  0.01754  -0.04207  -0.2609  -0.7294
6.509e+09  0.9597  -0.2765  -0.02201  0.01668  0.02156  0.03086  -0.4702  -0.5877
6.51e+09  0.8254  -0.5898  0.0006181  -0.01314  0.02764  -0.01833  -0.6797  -0.3761
6.511e+09  0.5698  -0.8348  0.02948  0.01424  0.03021  -0.02763  -0.7326  -0.107
6.512e+09  0.2117  -0.9742  0.004876  -0.009355  -0.04321  -0.03826  -0.7089  0.1063
6.514e+09  -0.1208  -0.9865  0.0204  -0.009853  -0.007764  -0.04939  -0.6287  0.3804
6.515e+09  -0.4613  -0.9189  0.006537  0.0233  0.04507  -0.05763  -0.4933  0.5958
6.516e+09  -0.7717  -0.6666  -0.01892  0.02449  0.02478  -0.03924  -0.2452  0.6655
6.518e+09  -0.9313  -0.3855  -0.02083  -0.0007082  -0.02086  0.004384  0.00449  0.779
6.519e+09  -1.037  -0.0211  -0.03175  -0.01242  0.01675  0.03709  0.2865  0.6846
6.52e+09  -0.9578  0.3572  0.01817  -0.0351  0.04196  -0.03803  0.461  0.5372
6.521e+09  -0.7971  0.6189  -0.003087  0.05038  -0.05137  0.002107  0.6274  0.3706
6.522e+09  -0.5141  0.8946  0.04135  -0.0164  0.02765  0.04677  0.728  0.08151
6.524e+09  -0.2203  1.019  -0.004353  0.01243  -0.01861  0.002949  0.7202  -0.1693
6.525e+09  0.1444  1.028  -0.01094  0.005176  -0.02884  0.0002694  0.618  -0.4013
6.526e+09  0.5255  0.903  -0.002405  0.002007  0.03519  0.03846  0.4507  -0.5482
6.528e+09  0.8065  0.6447  0.001064  -0.01724  -0.01177  -0.02626  0.1863  -0.6821
6.529e+09  1.019  0.3411  -0.02247  -0.007605  -0.04107  -0.00217  -0.04776  -0.696
6.53e+09  1.021  0.006125  -0.01812  -0.01177  -0.03842  0.006417  -0.3092  -0.6062
6.531e+09  0.995  -0.4168  0.01557  0.008497  0.02349  -0.09317  -0.4785  -0.4504
6.532e+09  0.8289  -0.7024  0.0005777  0.01731  -0.0489  -0.009787  -0.5816  -0.2931
6.534e+09  0.5189  -0.9579  -0.004926  0.004461  0.02253  -0.03425  -0.635  -0.1158
6.535e+09  0.1224  -1.098  0.003419  -0.01292  -0.01309  -0.07195  -0.6022  0.1262
6.536e+09  -0.291  -1.06  0.01155  0.01729  -0.02406  -0.02504  -0.5567  0.3419
6.538e+09  -0.6023  -0.9029  -0.03082  -0.003986  0.009392  -0.03813  -0.4657  0.438
6.539e+09  -0.9325  -0.636  0.04811  0.02231  0.04219  -0.02834  -0.2517  0.6417
6.54e+09  -1.119  -0.327  -0.02148  0.006214  -0.01237  -0.001833  -0.02695  0.7114
6.541e+09  -1.148  0.1094  -0.004407  -0.01742  -0.03463  -0.001433  0.1589  0.7104
6.542e+09  -0.9608  0.5066  -0.00969  0.006305  0.03252  -0.01962  0.4301  0.5683
6.544e+09  -0.8227  0.8324  0.01225  -0.004825  -0.01752  0.002908  0.5923  0.394
6.545e+09  -0.4573  1.075  -0.0069  0.02672  0.01958  -0.04853  0.7032  0.1655
6.546e+09  -0.05951  1.184  -0.02342  -0.05193  0.03469  0.005243  0.7354  -0.08492
6.548e+09  0.3228  1.064  0.003589  -0.015  0.02893  -0.05164  0.6858  -0.3198
6.549e+09  0.7143  0.9733  -0.008745  0.03263  0.002958  -0.005062  0.5065  -0.5026
6.55e+09  0.9948  0.6437  0.01801  -0.04192  0.003438  -0.01002  0.2842  -0.7041
6.551e+09  1.162  0.2083  -0.01446  0.002592  0.0311  0.02344  0.05347  -0.7349
