# Hz S RI R 50
6.25e+09  -0.05489  0.9337  -0.04368  0.0284  -0.00806  0.0327  0.1362  0.4709
6.251e+09  0.3062  0.8272  -0.00833  0.002293  0.0269  0.008509  0.3289  0.4172
6.252e+09  0.6488  0.7022  -0.01606  0.006182  -0.03247  0.05591  0.5118  0.1982
6.254e+09  0.771  0.4386  -0.01394  -0.01735  -0.05591  -0.02435  0.5966  0.00715
6.255e+09  0.931  0.1602  0.003002  0.02022  0.03073  -0.03308  0.5875  -0.2373
6.256e+09  0.8837  -0.1679  0.02176  0.003968  -0.02275  0.02852  0.4554  -0.4575
6.258e+09  0.809  -0.4978  -0.01377  -0.01472  -0.0077  0.03167  0.2958  -0.6188
6.259e+09  0.5827  -0.7061  0.03058  -0.02436  0.04625  0.002061  0.03556  -0.6651
6.26e+09  0.3418  -0.8367  0.04135  -0.0116  -0.02345  -0.03194  -0.2041  -0.643
6.261e+09  -0.0568  -0.9285  -0.02353  -0.002927  0.008434  0.03108  -0.4118  -0.5517
6.262e+09  -0.2964  -0.8256  0.0111  -0.03764  -0.01576  -0.02915  -0.6144  -0.3604
6.264e+09  -0.574  -0.6704  -0.002851  0.002996  -0.004142  0.02576  -0.7229  -0.112
6.265e+09  -0.7602  -0.371  -0.005779  -0.004298  0.00888  -0.0281  -0.702  0.1504
6.266e+09  -0.9165  -0.1466  0.01287  0.009911  0.02878  -0.0003846  -0.6014  0.3494
6.268e+09  -0.8695  0.1931  0.00467  -0.02462  -0.03443  0.0002225  -0.4313  0.6315
6.269e+09  -0.7923  0.4591  -0.008369  0.001589  0.002279  0.08216  -0.161  0.7173
6.27e+09  -0.5327  0.6934  -0.01125  -0.005605  0.008049  0.02245  0.07972  0.7424
6.271e+09  -0.2192  0.8318  -0.009793  0.0384  -0.02829  0.01298  0.3402  0.689
6.272e+09  0.02096  0.9286  -0.04566  -0.003846  0.01494  0.04611  0.5483  0.4816
6.274e+09  0.367  0.843  -0.01179  0.01305  0.003134  -0.009181  0.6875  0.3096
6.275e+09  0.6125  0.6383  -0.007214  0.03037  0.03409  -0.01294  0.7652  0.03165
6.276e+09  0.8343  0.3918  -0.04165  0.001334  0.03393  -0.04638  0.7458  -0.2433
6.278e+09  0.863  0.08026  -0.00194  0.01951  0.0002281  -0.01135  0.5879  -0.4762
6.279e+09  0.9319  -0.19  0.01948  -0.00148  0.01013  -0.007113  0.441  -0.6499
6.28e+09  0.7275  -0.529  -0.005365  -0.003216  0.006708  0.01353  0.1387  -0.7667
6.281e+09  0.5543  -0.7382  0.0249  0.0103  0.04926  0.01376  -0.1171  -0.7506
6.282e+09  0.1952  -0.9108  -0.007114  -0.00654  0.03662  -0.02393  -0.3846  -0.6748
6.284e+09  -0.09795  -0.9243  -0.01953  -0.02301  -0.05146  0.03153  -0.5764  -0.4985
6.285e+09  -0.4244  -0.8538  -0.009942  0.009729  -0.006735  0.01904  -0.7073  -0.2683
6.286e+09  -0.6403  -0.6347  0.007997  -0.003301  -0.02542  0.01148  -0.8021  -0.01056
6.288e+09  -0.8482  -0.3623  -0.01319  0.02619  -0.01341  -0.001937  -0.7347  0.2772
6.289e+09  -0.9136  -0.02449  0.007359  -0.02821  0.02349  -0.01859  -0.6445  0.5092
6.29e+09  -0.8711  0.2577  0.02649  0.007344  0.0113  0.04167  -0.4038  0.6888
6.291e+09  -0.7386  0.5591  0.002521  0.01183  0.008798  0.001748  -0.1632  0.8185
6.292e+09  -0.4668  0.7619  -0.01842  0.01865  0.03441  0.02407  0.08439  0.8184
6.294e+09  -0.2304  0.9151  -0.006427  -0.005698  0.002212  0.006614  0.3911  0.7228
6.295e+09  0.09737  0.9847  -0.004668  0.01978  -0.0158  0.01657  0.5828  0.5311
6.296e+09  0.4594  0.8122  0.02026  0.007512  -0.02937  -0.05586  0.7794  0.2649
6.298e+09  0.7043  0.6324  -0.03324  -0.007189  0.01006  -0.01972  0.8607  -0.02866
6.299e+09  0.8719  0.2988  -0.002798  -0.02506  0.0302  0.0025  0.7489  -0.2899
6.3e+09  0.9839  -0.002151  -0.01865  0.005536  -0.03269  0.03639  0.6338  -0.4903
6.301e+09  0.8874  -0.2984  0.01076  -0.02581  -0.003882  0.007772  0.4236  -0.7267
6.302e+09  0.6999  -0.6726  0.03302  -0.01395  -0.0005037  -0.001294  0.1654  -0.8209
6.304e+09  0.4848  -0.8748  0.007975  -0.01693  0.02279  -0.00648  -0.1547  -0.8316
6.305e+09  0.1869  -0.9741  0.001816  -0.02197  0.04777  0.01127  -0.4315  -0.7466
6.306e+09  -0.1525  -0.9841  -0.0136  -0.01646  0.01139  0.02671  -0.6591  -0.5754
6.308e+09  -0.4923  -0.8408  0.008621  0.008274  0.01505  -0.004972  -0.7926  -0.2817
6.309e+09  -0.764  -0.5877  0.0193  -0.006022  0.0194  -0.02617  -0.8491  -0.0334
6.31e+09  -0.9057  -0.286  0.008516  0.03751  0.002798  -0.03857  -0.8254  0.3155
6.311e+09  -0.9857  0.0263  0.005558  0.009136  0.006621  -0.009296  -0.6711  0.5859
6.312e+09  -0.9259  0.3749  -0.003254  -0.00302  -0.01209  -0.03951  -0.4071  0.7648
6.314e+09  -0.7382  0.7235  0.02711  0.004317  0.01942  -0.01044  -0.1432  0.8764
6.315e+09  -0.4728  0.9062  -0.03053  0.007316  0.02934  -0.00885  0.1198  0.8533
6.316e+09  -0.06917  1.021  -0.01438  -0.01168  0.01407  0.01384  0.4282  0.8045
6.318e+09  0.2059  0.9624  0.02298  0.002214  -0.0455  -0.01457  0.6916  0.5939
6.319e+09  0.6102  0.8143  0.008465  0.009616  -0.01376  -0.02186  0.8164  0.3139
6.32e+09  0.9073  0.5011  -0.02058  -0.006887  -0.03777  0.03007  0.9309  0.03013
6.321e+09  0.9495  0.2309  0.003367  -0.01567  2.538e-05  0.002531  0.8546  -0.2705
6.322e+09  1.035  -0.1405  -0.03333  0.008839  0.0131  0.01584  0.7113  -0.5674
6.324e+09  0.9264  -0.4441  0.00697  0.004042  0.03263  0.0138  0.4845  -0.7697
6.325e+09  0.6814  -0.7062  -0.01401  -0.05833  -0.02855  -0.01355  0.1535  -0.8945
6.326e+09  0.3484  -0.9077  0.02201  0.007412  -0.002046  0.009681  -0.1878  -0.9164
6.328e+09  0.03538  -1.011  0.02863  0.001447  0.02998  -0.02307  -0.4387  -0.763
6.329e+09  -0.328  -1.004  -0.004897  0.007002  -0.005748  0.05078  -0.6676  -0.6101
6.33e+09  -0.6498  -0.7632  0.005415  0.02691  0.01239  0.01027  -0.8434  -0.3023
6.331e+09  -0.9037  -0.5585  -0.002392  -0.002801  -0.01451  -0.01156  -0.9085  0.007076
6.332e+09  -0.9798  -0.1814  -0.0015  0.006569  -0.004078  -0.01454  -0.8665  0.2907
6.334e+09  -1.061  0.1808  -0.02402  -0.004071  -0.01831  0.01178  -0.7173  0.5899
6.335e+09  -0.8837  0.5979  -0.01018  -0.01102  -0.01621  0.01742  -0.4524  0.7674
6.336e+09  -0.6529  0.8207  0.02394  -0.03733  -0.03475  0.009371  -0.164  0.9048
6.338e+09  -0.3635  0.9671  -0.00562  -0.02719  -0.01631  -0.03162  0.1317  0.9236
6.339e+09  0.09819  1.109  0.03006  0.00225  -0.01909  -0.02051  0.4184  0.7946
6.34e+09  0.4368  1.011  0.02179  -0.005494  -0.001164  -0.03291  0.6854  0.6228
6.341e+09  0.7362  0.7465  -0.0358  -0.004309  -0.002646  -0.03512  0.8679  0.3405
6.342e+09  0.9755  0.4164  0.0541  0.008768  0.01483  -0.01288  0.89  0.03763
6.344e+09  1.092  0.08776  -0.02496  0.002639  0.002114  -0.04551  0.8996  -0.2661
6.345e+09  1.015  -0.3362  -0.004377  -0.003632  0.002359  0.02148  0.7636  -0.5769
6.346e+09  0.8455  -0.7024  0.008593  0.007214  -0.01395  0.01285  0.5184  -0.77
6.348e+09  0.5125  -0.9303  -0.01317  -0.003664  -0.004616  0.01234  0.1985  -0.9093
6.349e+09  0.1793  -1.052  -0.01038  0.005942  0.02834  0.0413  -0.1074  -0.9534
6.35e+09  -0.2007  -1.072  0.01255  -0.0495  0.009414  0.03826  -0.4279  -0.8241
6.351e+09  -0.5214  -0.8937  0.01284  -0.00906  0.006113  -0.03797  -0.686  -0.6573
6.352e+09  -0.8525  -0.6861  -0.01011  -0.01457  -0.0168  0.04352  -0.8594  -0.3803
6.354e+09  -1.081  -0.3797  0.001198  0.0008805  -0.02102  -0.01706  -0.9229  -0.06931
6.355e+09  -1.071  0.02655  -0.0154  0.000482  -0.008182  -0.04372  -0.8689  0.284
6.356e+09  -0.9499  0.4268  0.006557  0.008765  0.05497  -0.01255  -0.7612  0.6405
6.358e+09  -0.7423  0.7131  0.02269  -0.02231  -0.02907  -0.01356  -0.5246  0.805
6.359e+09  -0.4402  0.9989  -0.01668  0.006658  0.003826  -0.01317  -0.2285  0.8925
6.36e+09  -0.08316  1.019  -0.002577  0.01237  0.01829  0.008094  0.0783  0.9618
6.361e+09  0.294  1.057  -0.006529  0.03718  -0.003788  -0.0197  0.4124  0.8524
6.362e+09  0.6695  0.8252  0.02948  0.02866  0.00636  0.003449  0.6516  0.6449
6.364e+09  0.8567  0.5638  0.006125  0.004272  -0.03825  0.01054  0.8535  0.4029
6.365e+09  0.9912  0.218  0.0073  -0.0131  0.005195  0.03397  0.9366  0.09392
6.366e+09  1.046  -0.1028  -0.009774  0.007057  0.01583  -0.01652  0.9225  -0.232
6.368e+09  0.9477  -0.5482  -0.0195  0.01067  -0.02721  0.0005674  0.8114  -0.5337
6.369e+09  0.6713  -0.748  -0.01365  0.03505  -0.02761  0.04035  0.5  -0.7829
6.37e+09  0.3823  -1.005  0.0001936  -0.004062  0.005231  0.03474  0.2512  -0.9463
6.371e+09  0.0222  -1.06  -0.01811  -0.03488  -0.001615  -0.006669  -0.09263  -0.9461
6.372e+09  -0.3529  -1.012  -0.0102  -0.01242  -0.00324  0.01772  -0.3961  -0.8657
6.374e+09  -0.709  -0.7924  0.04005  0.008557  -0.00519  0.005958  -0.6686  -0.6672
6.375e+09  -0.9452  -0.5267  -0.03018  0.01701  -0.008995  -0.02626  -0.8401  -0.3601
6.376e+09  -1.021  -0.1475  0.01969  -0.007936  -0.02783  -0.008205  -0.9572  -0.07328
6.378e+09  -1.055  0.2174  -0.04121  0.01456  -0.05248  0.01033  -0.8848  0.245
6.379e+09  -0.9233  0.5461  0.01244  -0.02428  -0.0003029  -0.0236  -0.7917  0.5376
6.38e+09  -0.6331  0.7889  -0.001771  0.01605  0.04986  -0.01973  -0.5466  0.7835
6.381e+09  -0.3419  0.9606  -0.02778  -0.006411  -0.01672  0.03809  -0.2422  0.9102
6.382e+09  0.09693  1.076  0.01543  -0.01739  0.046  0.01135  0.06119  0.9119
6.384e+09  0.4043  0.9305  0.04282  0.0009336  -0.05733  -0.01629  0.3643  0.8894
6.385e+09  0.7107  0.7515  0.01216  -0.01855  -0.01331  0.01056  0.6625  0.6972
6.386e+09  0.912  0.436  0.003208  0.01594  -0.01651  0.03087  0.8315  0.4251
6.388e+09  1.006  0.1215  0.05018  0.003818  -0.002832  0.01725  0.9327  0.1487
6.389e+09  1.042  -0.262  -0.01676  0.001838  0.01874  -0.006555  0.902  -0.2158
6.39e+09  0.8827  -0.5713  0.002678  0.0003966  -0.04874  0.01337  0.7411  -0.5208
6.391e+09  0.5818  -0.8459  -8.828e-05  0.02404  -0.006005  0.01914  0.5716  -0.7545
6.392e+09  0.1817  -0.9898  0.01966  0.01693  -0.0007987  -0.01899  0.2421  -0.8867
6.394e+09  -0.07931  -1.012  0.02864  -0.0513  -0.02425  -0.01961  0.02368  -0.9291
6.395e+09  -0.3998  -0.9066  0.02607  0.003227  0.0156  0.03037  -0.2925  -0.8348
6.396e+09  -0.7196  -0.7834  0.0124  -0.01795  0.0253  0.01201  -0.6012  -0.6792
6.398e+09  -0.9554  -0.4233  -0.02982  -0.03574  -0.003129  0.0212  -0.8125  -0.4434
6.399e+09  -1.05  -0.06361  -0.02052  0.007678  -0.02854  0.03662  -0.8778  -0.131
6.4e+09  -1.008  0.3015  -0.01904  0.08239  0.01811  0.0171  -0.8874  0.1656
6.401e+09  -0.7868  0.5968  -0.01822  0.007491  -0.01427  -0.01911  -0.8154  0.4569
6.402e+09  -0.5917  0.8141  0.02647  -0.02598  0.001482  -0.003452  -0.5989  0.695
6.404e+09  -0.2808  1.004  -0.004518  0.07311  -0.005764  -0.002392  -0.269  0.9099
6.405e+09  0.1343  1.021  0.01909  0.02841  -0.05318  0.03112  0.001718  0.8936
6.406e+09  0.4021  0.866  0.009652  0.01603  -0.04072  0.0036  0.2966  0.806
6.408e+09  0.7237  0.6311  0.002908  0.007479  0.03088  0.04956  0.5989  0.7045
6.409e+09  0.9004  0.4247  -0.02236  0.01535  0.03462  0.005123  0.8039  0.4408
6.41e+09  0.969  0.05212  -0.02252  0.04214  0.05098  0.009588  0.8647  0.1913
6.411e+09  0.9352  -0.238  -0.007934  0.02221  -0.02743  -0.006631  0.8476  -0.1415
6.412e+09  0.7833  -0.619  0.01994  -0.03974  -0.0349  0.07139  0.7898  -0.4434
6.414e+09  0.5476  -0.8432  0.009294  0.02605  -0.01922  -0.02519  0.5931  -0.693
6.415e+09  0.1649  -0.9811  -0.00199  0.01561  0.01053  0.0158  0.3491  -0.8435
6.416e+09  -0.1772  -0.937  0.002081  -0.01616  0.02876  0.01945  0.07064  -0.8893
6.418e+09  -0.512  -0.8391  0.01588  0.001212  0.01969  0.03457  -0.3006  -0.88
6.419e+09  -0.7276  -0.6679  -0.03062  0.02323  0.01237  0.01524  -0.5006  -0.7298
6.42e+09  -0.9512  -0.3323  -0.0386  0.007379  -0.0461  -0.001215  -0.7338  -0.4985
6.421e+09  -1.031  0.01784  -0.02179  0.03632  0.01805  0.02716  -0.8546  -0.1849
6.422e+09  -0.9439  0.3498  0.009474  0.03325  -0.02648  -0.02242  -0.8835  0.1066
6.424e+09  -0.7961  0.6611  -0.01098  -0.03086  0.009545  0.0338  -0.7859  0.3509
6.425e+09  -0.4731  0.9016  0.007524  -0.008579  0.0281  -0.02612  -0.6232  0.642
6.426e+09  -0.1408  1.014  -0.01803  0.01759  0.005427  -0.03725  -0.3667  0.7948
6.428e+09  0.2554  0.9833  -0.01422  0.05754  0.01074  0.02004  -0.03012  0.9173
6.429e+09  0.5143  0.8675  -0.00966  -0.03826  -0.009383  -0.002935  0.292  0.8253
6.43e+09  0.8223  0.6779  -0.01574  0.03055  -0.007526  0.003488  0.5268  0.7392
6.431e+09  0.9904  0.3353  0.03213  -0.01013  0.006857  0.03946  0.7007  0.4619
6.432e+09  1.032  -0.04368  -0.003569  -0.01625  0.03506  0.01351  0.8315  0.1879
6.434e+09  0.9976  -0.3725  -0.008368  0.01348  -0.007159  0.04699  0.9119  -0.08491
6.435e+09  0.7653  -0.6739  -0.01529  0.06466  -0.03009  -0.01342  0.7607  -0.3683
6.436e+09  0.4589  -0.9193  -0.002344  -0.007513  -0.01215  0.0001647  0.5865  -0.5938
6.438e+09  0.1906  -1.076  0.02368  0.004521  0.04086  -0.01459  0.3716  -0.7691
6.439e+09  -0.2877  -0.9655  0.02987  -0.02966  -0.0173  -0.01061  0.07148  -0.8823
6.44e+09  -0.517  -0.8777  -0.009688  -0.0221  -0.01487  -0.03217  -0.2182  -0.8232
6.441e+09  -0.8599  -0.5918  -0.03202  -0.01652  -0.03263  0.02131  -0.5035  -0.6976
6.442e+09  -1.023  -0.2927  0.004116  0.02115  0.04357  0.006028  -0.6887  -0.4822
6.444e+09  -1.041  0.09759  0.02885  -0.03209  0.03904  -0.006186  -0.8058  -0.2256
6.445e+09  -0.9379  0.461  -2.366e-05  -0.02534  0.02721  -0.04388  -0.7978  0.1083
6.446e+09  -0.75  0.7628  -0.02653  -0.048  0.0423  -0.0003326  -0.7531  0.3592
6.448e+09  -0.4568  1.014  -0.01558  0.01185  -0.006339  -0.01292  -0.5808  0.6172
6.449e+09  -0.1037  1.043  0.05065  -0.0007114  -0.008925  -0.04886  -0.316  0.8025
6.45e+09  0.301  1.063  0.02794  -0.02814  0.02796  -0.04189  -0.05102  0.8292
6.451e+09  0.6318  0.8527  0.008002  -0.003824  -0.01587  -0.006858  0.228  0.8219
6.452e+09  0.9216  0.6216  0.01847  0.03722  -0.01765  -0.05144  0.5025  0.6707
6.454e+09  1.003  0.2726  -0.04396  0.006518  0.02217  0.02229  0.6384  0.4662
6.455e+09  1.079  -0.137  0.0008291  -0.04847  0.03191  -0.01857  0.7901  0.2332
6.456e+09  0.977  -0.5458  0.01921  0.02281  0.0123  0.05332  0.7983  -0.05281
6.458e+09  0.7057  -0.8223  0.01115  0.01271  0.01737  -0.002048  0.7632  -0.3285
6.459e+09  0.3699  -1.054  -0.01261  0.01331  0.0243  -0.04077  0.5714  -0.579
6.46e+09  0.01899  -1.084  0.002101  -0.03636  -0.0559  0.02665  0.2945  -0.7462
6.461e+09  -0.3821  -1.012  0.001843  0.05724  -0.03174  -0.006008  0.09306  -0.8227
6.462e+09  -0.6819  -0.9003  0.002117  -0.02167  -0.03383  0.006316  -0.2032  -0.7719
6.464e+09  -0.9864  -0.566  -0.01268  0.008174  -0.003431  0.03171  -0.4572  -0.6563
6.465e+09  -1.097  -0.1735  -0.04695  -0.009857  0.007966  0.03012  -0.6558  -0.462
6.466e+09  -1.116  0.254  -0.02225  -0.007076  -0.04858  -0.01714  -0.7734  -0.2139
6.468e+09  -0.9372  0.6396  0.002851  -0.01109  0.03356  -0.01503  -0.7869  0.05987
6.469e+09  -0.6939  0.9211  -0.03209  -0.01963  -0.02749  0.05232  -0.7136  0.362
6.47e+09  -0.2858  1.094  0.00484  -0.005742  0.00251  -0.0009178  -0.5367  0.5676
6.471e+09  0.002749  1.135  0.02852  0.003795  -0.02866  -0.02971  -0.3361  0.7248
6.472e+09  0.5239  1.051  -0.01079  -0.0007399  -0.01831  -0.01312  -0.07769  0.8378
6.474e+09  0.8176  0.7449  -0.0308  -0.00588  -0.001208  -0.005689  0.2305  0.7416
6.475e+09  1.062  0.4972  0.02757  0.02849  -0.06679  -0.05607  0.4534  0.6648
6.476e+09  1.132  0.08865  -0.01854  0.003321  -0.02179  -0.01977  0.6363  0.4131
6.478e+09  1.095  -0.3701  -0.006971  0.05757  0.005591  -0.01224  0.7764  0.1815
6.479e+09  0.9366  -0.7334  -0.03088  -0.01037  0.007063  -0.006354  0.765  -0.1389
6.48e+09  0.5534  -0.9665  -0.01507  0.008978  0.007598  0.0202  0.7322  -0.3502
6.481e+09  0.1838  -1.159  -0.004811  0.01771  -0.01578  0.01139  0.5502  -0.5396
6.482e+09  -0.1877  -1.121  0.0324  -0.009493  -0.03416  0.03076  0.3058  -0.6913
6.484e+09  -0.584  -0.9116  -0.03941  0.01237  0.02569  0.02145  0.05891  -0.7825
6.485e+09  -0.9297  -0.6743  -0.0644  -0.01323  -0.03134  -0.01213  -0.2324  -0.7708
6.486e+09  -1.095  -0.3479  -0.001909  0.01937  -0.01138  -0.02151  -0.4523  -0.6473
6.488e+09  -0.9416  -0.6001  0.01078  -0.02561  0.4963  -0.5925  -0.643  -0.4002
6.489e+09  -1.055  0.5128  0.001987  -0.008874  0.01775  -0.02656  -0.745  -0.1424
6.49e+09  -0.7962  0.8971  0.02798  0.01499  0.01126  -0.04032  -0.7573  0.1238
6.491e+09  -0.4724  1.157  0.01121  -0.003803  0.03022  0.009122  -0.6942  0.3466
6.492e+09  -0.009472  1.162  -0.05266  0.03019  -0.02772  -0.06112  -0.5072  0.5767
6.494e+09  0.4648  1.071  0.0006793  -0.004833  0.07029  -0.09848  -0.2885  0.6871
6.495e+09  0.7255  0.9072  -0.006904  -0.02774  -0.006441  -0.01304  -0.04152  0.7753
6.496e+09  1.054  0.621  -0.03615  0.024  -0.0251  -0.02568  0.2389  0.7195
6.498e+09  1.165  0.1516  0.01941  -0.01137  -0.001799  0.02558  0.4544  0.608
6.499e+09  1.12  -0.2416  0.01667  0.005123  -0.04338  -0.0432  0.6443  0.3474
6.5e+09  1.618  -0.4658  0.0005845  0.01102  -0.01777  0.01327  0.7116  0.1195
6.501e+09  0.6192  -0.96  0.01909  0.0004592  -0.0006852  -0.03874  0.7568  -0.1444
6.502e+09  0.3045  -1.159  -0.0213  -0.0355  -0.01938  0.01975  0.6941  -0.3311
6.504e+09  -0.1932  -1.12  0.01482  0.05061  -0.01552  -0.01716  0.5398  -0.5473
6.505e+09  -0.5328  -1.052  -0.001291  -0.01713  -0.009173  -0.04362  0.2692  -0.7348
6.506e+09  -0.8612  -0.7466  0.0296  0.01161  -0.009209  -0.01343  0.006246  -0.746
6.508e+09  -1.148  -0.3412  0.001799  -0.02096  0.007113  0.03768  -0.2427  -0.6976
6.509e+09  -1.171  0.0333  0.06353  -0.01117  -0.05147  -0.04767  -0.4934  -0.5981
6.51e+09  -1.044  0.4257  -0.01984  -0.01723  0.01607  0.02588  -0.6465  -0.3776
6.511e+09  -0.8125  0.799  -0.007195  -0.01489  0.01484  0.002447  -0.7562  -0.1258
6.512e+09  -0.4727  1.01  -0.02922  -0.007154  -0.01389  -0.008702  -0.7702  0.136
6.514e+09  -0.0738  1.089  0.02385  0.02179  -0.03027  0.01581  -0.64  0.3302
6.515e+09  0.3018  1.051  0.007128  0.0164  -0.01583  -0.03545  -0.4422  0.5668
6.516e+09  0.6489  0.9082  -0.02024  -0.01975  -0.003027  0.04276  -0.2378  0.7261
6.518e+09  0.9184  0.5533  0.002339  0.01265  0.02163  -0.003647  0.04863  0.7106
6.519e+09  1.052  0.2424  -0.02523  -0.02921  0.003569  -0.01286  0.2646  0.7321
6.52e+09  1.028  -0.1792  -0.01801  0.002927  0.01109  0.01726  0.5114  0.5768
6.521e+09  0.908  -0.6086  -0.04286  -0.0107  0.03233  -0.02036  0.6334  0.3478
6.522e+09  0.7254  -0.829  -0.03071  0.004012  -0.01143  -0.009324  0.7478  0.08624
6.524e+09  0.3113  -1.059  -0.00642  -0.0007399  -0.04173  -0.001568  0.7088  -0.1552
6.525e+09  -0.05865  -1.032  -0.0165  -0.03889  0.01057  -0.02027  0.5979  -0.4073
6.526e+09  -0.4489  -0.985  -0.002957  -0.0002797  -0.009518  0.03902  0.4414  -0.5966
6.528e+09  -0.7329  -0.7729  0.03693  -0.01137  -0.02382  -0.04031  0.1973  -0.6325
6.529e+09  -0.9735  -0.4608  -0.01266  -0.008101  -0.005542  0.04207  -0.04717  -0.6951
6.53e+09  -1.039  -0.02631  0.008508  -0.02059  0.03156  0.01716  -0.3023  -0.6447
6.531e+09  -0.9736  0.3188  0.003522  -0.01277  -0.05013  0.06  -0.4778  -0.4726
6.532e+09  -0.8357  0.5802  -0.007141  -0.02113  0.03077  -0.02953  -0.5895  -0.2789
6.534e+09  -0.5275  0.8897  -0.003647  -0.01055  -0.01484  -0.02633  -0.6283  -0.1156
6.535e+09  -0.1135  1.01  0.0211  -0.009788  0.03334  0.01887  -0.6189  0.1044
6.536e+09  0.181  1.007  0.002184  -0.02407  -0.006925  -0.00603  -0.5477  0.3139
6.538e+09  0.4989  0.8681  0.00798  -0.01671  0.01969  0.004233  -0.4018  0.4723
6.539e+09  0.7664  0.6288  0.02529  -0.03631  0.02942  0.02505  -0.2806  0.6073
6.54e+09  0.9796  0.2857  -0.001303  0.003363  -0.009387  0.0151  -0.05128  0.7012
6.541e+09  0.9314  -0.02458  -0.04425  -0.004914  0.01761  0.01299  0.1467  0.6732
6.542e+09  0.8843  -0.3796  -0.01041  -0.006894  -0.008813  0.03105  0.3876  0.5796
6.544e+09  0.6962  -0.6708  -0.01662  -0.00661  0.01791  -0.04978  0.5887  0.4219
6.545e+09  0.353  -0.9016  0.02478  0.003503  -0.001758  -0.01498  0.7038  0.17
6.546e+09  0.04283  -0.9512  0.02012  -0.02185  0.0003939  -2.439e-05  0.7664  -0.07854
6.548e+09  -0.3324  -0.8797  -0.007823  -0.01981  0.002437  -0.02881  0.6502  -0.3319
6.549e+09  -0.606  -0.7238  -0.009177  0.01531  -0.03292  0.04242  0.5163  -0.5275
6.55e+09  -0.7942  -0.4795  -0.0142  0.001179  0.02066  0.003994  0.2918  -0.6886
6.551e+09  -0.8733  -0.1726  0.004918  0.03079  -0.03154  0.002468  0.00457  -0.7309
