# Hz S RI R 50
6.25e+09  0.949  -0.3454  -0.007175  0.01867  0.003593  -0.03912  0.1356  0.5048
6.251e+09  0.7888  -0.6525  0.01401  -0.01192  -0.01213  -0.02923  0.3542  0.4255
6.252e+09  0.4839  -0.8592  -0.01026  -0.006263  -0.0392  0.0235  0.5331  0.1917
6.254e+09  0.1224  -1.08  0.0005315  -0.01532  -0.003763  0.01163  0.6357  0.006902
6.255e+09  -0.198  -0.9187  -0.006376  -0.005538  0.02898  -0.03463  0.5836  -0.2086
6.256e+09  -0.6289  -0.8468  0.02811  -0.01811  0.004473  0.0001661  0.5063  -0.4422
6.258e+09  -0.8159  -0.5235  -0.01681  0.008447  0.03204  0.06964  0.3008  -0.6042
6.259e+09  -1.016  -0.184  0.02192  -0.01437  0.05084  -0.06949  0.03935  -0.6877
6.26e+09  -1.005  0.1323  -0.02138  0.01749  -0.04149  0.0006946  -0.2227  -0.6263
6.261e+09  -0.8244  0.4532  -0.03058  -0.05663  -0.02788  -0.01867  -0.4397  -0.5223
6.262e+09  -0.6891  0.7462  -0.01609  -0.03941  0.03998  0.07817  -0.6339  -0.3186
6.264e+09  -0.2985  0.9502  -5.083e-05  0.02393  -0.03341  0.04194  -0.7004  -0.0727
6.265e+09  0.01689  1.011  -0.01063  -0.02501  -0.08139  -0.03276  -0.7174  0.143
6.266e+09  0.2952  0.9098  0.002321  0.01602  -0.009184  -0.01426  -0.6119  0.4126
6.268e+09  0.6626  0.719  -0.006514  -0.03117  -0.004781  -0.01846  -0.4677  0.6024
6.269e+09  0.8632  0.4677  -0.003145  -0.01527  0.03845  0.01775  -0.1964  0.698
6.27e+09  0.9936  0.1046  0.01404  -0.01841  -0.003356  0.03671  0.0428  0.7651
6.271e+09  0.9798  -0.2416  0.02765  0.004801  -0.02573  0.01499  0.3636  0.6875
6.272e+09  0.7889  -0.5698  0.009568  0.03532  0.001415  0.008868  0.5545  0.5127
6.274e+09  0.5488  -0.8437  0.02143  0.01494  -0.02401  0.03561  0.6954  0.2949
6.275e+09  0.2272  -0.9744  -0.05663  0.0249  0.005604  -0.02163  0.7919  0.03719
6.276e+09  -0.1306  -0.9689  0.001793  0.01734  0.01879  0.01266  0.7428  -0.2116
6.278e+09  -0.5081  -0.8905  -0.001283  0.01417  0.003541  0.001771  0.588  -0.4858
6.279e+09  -0.8085  -0.6547  -0.003275  0.01121  0.04232  0.003808  0.4087  -0.6506
6.28e+09  -0.955  -0.337  -0.03205  0.001041  -0.003931  -0.009369  0.1612  -0.7572
6.281e+09  -0.9468  0.001409  -0.05677  0.02105  -0.03204  0.03339  -0.1141  -0.7831
6.282e+09  -0.9096  0.3403  0.001957  0.01972  -0.05704  0.0369  -0.3577  -0.6929
6.284e+09  -0.7187  0.6224  -0.01538  -0.004137  -0.04341  -0.01745  -0.5878  -0.5119
6.285e+09  -0.3993  0.8272  0.007338  -0.0179  0.007735  -0.01393  -0.7207  -0.3398
6.286e+09  -0.07889  0.9615  -0.01383  -0.00656  0.04519  -0.02282  -0.7814  0.001499
6.288e+09  0.2507  1.01  -0.01655  0.02051  0.01606  0.02776  -0.7761  0.2696
6.289e+09  0.6281  0.8055  -0.01777  0.00264  -0.01899  0.02684  -0.642  0.5145
6.29e+09  0.8428  0.5974  0.01602  -0.01588  -0.002085  -0.03077  -0.453  0.685
6.291e+09  0.9314  0.2358  -0.002741  0.01146  -0.002394  0.04504  -0.1572  0.7779
6.292e+09  0.9689  -0.0961  0.006029  0.04689  -0.01652  -0.004742  0.1348  0.8194
6.294e+09  0.869  -0.4671  0.0103  0.006271  0.02745  -0.046  0.3821  0.707
6.295e+09  0.6673  -0.7713  -0.002914  -0.001603  -0.01044  -0.0677  0.6536  0.568
6.296e+09  0.3328  -0.9072  -0.002821  0.006258  -0.001623  0.04769  0.7726  0.3313
6.298e+09  0.01242  -0.967  -0.03762  0.01918  0.01241  -0.0002788  0.8447  0.02086
6.299e+09  -0.3256  -0.9373  -0.006805  -9.742e-05  0.05321  0.009274  0.7901  -0.2606
6.3e+09  -0.6487  -0.7997  -0.0218  0.0115  -0.02907  -0.03813  0.6755  -0.5201
6.301e+09  -0.9443  -0.4485  0.01182  -0.01324  -0.02275  0.03307  0.4259  -0.7094
6.302e+09  -1  -0.14  0.006111  -0.0002705  0.02722  0.01969  0.1567  -0.8458
6.304e+09  -1.007  0.2225  -0.0102  -0.01519  -0.003845  0.04841  -0.1233  -0.8475
6.305e+09  -0.8621  0.6002  -0.003492  0.0165  0.04644  -0.003988  -0.442  -0.7672
6.306e+09  -0.5604  0.8189  -0.01091  0.01339  -0.04624  -0.0436  -0.6321  -0.5393
6.308e+09  -0.2371  0.9488  -0.001535  -0.01737  -0.03979  -0.02603  -0.7941  -0.2861
6.309e+09  0.1041  1.002  0.01241  0.02821  0.002462  0.01331  -0.8755  -0.02915
6.31e+09  0.4959  0.9026  0.009027  -0.009846  -0.02676  0.01061  -0.7769  0.3093
6.311e+09  0.7351  0.6784  0.01861  -0.008101  0.0005143  -0.02037  -0.6742  0.5225
6.312e+09  0.8988  0.36  0.001819  0.009311  -0.04616  -0.01557  -0.4362  0.7899
6.314e+09  0.9561  0.0129  0.002392  -0.02251  -0.01544  0.04557  -0.1291  0.8641
6.315e+09  0.9813  -0.3805  0.007817  0.02778  -0.02611  0.01913  0.1202  0.8784
6.316e+09  0.7212  -0.677  -0.004669  0.02244  0.01455  0.03914  0.433  0.7759
6.318e+09  0.5206  -0.8945  0.006091  -0.02097  0.0007253  0.001136  0.6427  0.5757
6.319e+09  0.1432  -0.9648  0.007345  -0.001035  0.02373  0.02645  0.8341  0.2987
6.32e+09  -0.1677  -0.999  0.007075  0.006735  -0.009111  -0.05393  0.8885  0.0276
6.321e+09  -0.5293  -0.8112  -0.02606  -0.02626  0.03841  0.004486  0.8393  -0.2957
6.322e+09  -0.8128  -0.6372  0.002385  0.006395  0.01806  -0.01256  0.7134  -0.5788
6.324e+09  -0.9775  -0.274  -0.007283  -0.01605  0.005374  0.03718  0.4494  -0.7545
6.325e+09  -1.02  0.05214  0.002584  -0.01175  0.02422  0.008426  0.1629  -0.8825
6.326e+09  -0.9469  0.401  -0.007752  -0.03226  0.03851  0.0309  -0.1219  -0.9046
6.328e+09  -0.7108  0.6827  -0.02216  -0.005086  0.0244  0.007268  -0.4409  -0.8128
6.329e+09  -0.4091  0.9117  0.01664  -0.001194  0.02193  -0.01458  -0.682  -0.6425
6.33e+09  -0.07929  1.018  -0.0262  -0.02408  0.007452  0.03843  -0.8433  -0.3352
6.331e+09  0.3117  0.9552  -0.02078  -0.02599  0.05491  -0.01897  -0.9251  -0.03151
6.332e+09  0.6333  0.8172  -0.02033  0.02115  0.02104  -0.02127  -0.8708  0.307
6.334e+09  0.843  0.5481  0.03084  -0.01779  -0.009364  -0.0127  -0.7324  0.5711
6.335e+09  0.9978  0.1573  0.03516  -0.02398  0.01049  -0.0008787  -0.4919  0.798
6.336e+09  1.105  -0.2703  0.008439  0.03932  -0.001191  0.006862  -0.202  0.8983
6.338e+09  0.8957  -0.5629  -0.01439  -0.02925  -0.05269  0.02154  0.1198  0.9294
6.339e+09  0.6425  -0.8269  -0.01167  0.01136  0.007674  0.02352  0.4476  0.805
6.34e+09  0.3521  -0.9422  0.008156  0.001772  -0.01037  0.01279  0.6949  0.6135
6.341e+09  -0.0805  -1.062  -0.004738  0.02002  -0.03555  0.009308  0.8621  0.3441
6.342e+09  -0.3661  -0.9657  0.02574  0.01553  -0.02126  0.04603  0.8905  0.06168
6.344e+09  -0.6722  -0.7602  -0.003951  -0.03128  -0.01176  0.009993  0.8586  -0.2546
6.345e+09  -0.926  -0.4231  0.01847  0.0137  -0.007168  -0.008811  0.7655  -0.5723
6.346e+09  -1.041  -0.1086  0.0108  0.04336  -0.03823  0.003342  0.479  -0.8174
6.348e+09  -1.03  0.2911  -0.03762  -0.02322  0.03231  0.004989  0.2044  -0.9156
6.349e+09  -0.8422  0.6346  0.02106  -0.04367  0.01392  0.01402  -0.1193  -0.9588
6.35e+09  -0.5998  0.8763  0.01291  -0.0002817  0.04748  -0.02951  -0.4115  -0.8367
6.351e+09  -0.1953  1.067  -0.0001918  0.01003  0.01189  0.02876  -0.7197  -0.6347
6.352e+09  0.1595  1.03  0.03609  -0.000791  -0.0602  -0.02473  -0.8816  -0.3783
6.354e+09  0.521  0.9206  -0.03928  -0.02043  0.02572  -0.02727  -0.9569  -0.06151
6.355e+09  0.8486  0.7027  0.02908  -0.03281  0.01965  -0.02798  -0.9242  0.2546
6.356e+09  1.062  0.4045  0.01213  0.01484  0.0008168  0.05048  -0.7906  0.6004
6.358e+09  1.125  -0.02502  -0.01144  0.01869  0.00903  0.00274  -0.5536  0.7599
6.359e+09  1.003  -0.4138  0.01277  -0.001351  0.03641  -0.008029  -0.2367  0.908
6.36e+09  0.8158  -0.7418  0.003133  0.05744  0.02586  0.006157  0.08859  0.923
6.361e+09  0.4911  -1.007  0.02034  -0.001234  -0.01968  0.02527  0.4443  0.8821
6.362e+09  0.08882  -1.094  0.0308  0.009667  -0.05033  -0.005264  0.6658  0.678
6.364e+09  -0.2922  -1.09  0.01065  -0.05091  0.00514  -0.02335  0.8627  0.3819
6.365e+09  -0.6326  -0.9099  0.02016  0.01366  -0.01698  -0.01353  0.9086  0.0552
6.366e+09  -0.9413  -0.6326  -0.005706  0.01967  0.01795  0.0161  0.9051  -0.2513
6.368e+09  -1.106  -0.2775  -0.01752  0.00965  -0.04407  0.02406  0.7864  -0.5533
6.369e+09  -1.123  0.1608  -0.002749  0.01232  -0.01622  0.0005415  0.5448  -0.7428
6.37e+09  -1.046  0.5483  -0.05444  0.01885  -0.01664  0.02533  0.2459  -0.9449
6.371e+09  -0.7284  0.8678  0.008076  -0.01808  -0.06207  0.01504  -0.1024  -0.8988
6.372e+09  -0.3652  1.04  -0.0103  -0.005566  -0.002136  -0.002201  -0.4285  -0.8871
6.374e+09  0.06048  1.144  -0.002062  0.03221  0.00712  0.04933  -0.6544  -0.6418
6.375e+09  0.4387  1.12  -0.003325  0.001627  -0.04377  0.01329  -0.8521  -0.4177
6.376e+09  0.8104  0.875  -0.0241  -0.002378  -0.04254  -0.02879  -0.9434  -0.1564
6.378e+09  0.9978  0.4989  0.02064  -0.0002466  -0.02993  -0.01045  -0.8798  0.2502
6.379e+09  1.157  0.1156  -0.02627  0.02567  0.002823  -0.008505  -0.8124  0.5394
6.38e+09  1.136  -0.2869  -0.0268  0.004532  0.00159  0.01258  -0.5642  0.7214
6.381e+09  0.9349  -0.7408  -0.02402  0.001071  0.006476  -0.03913  -0.2711  0.9294
6.382e+09  0.6566  -1.062  -0.0128  -0.003448  0.01404  0.009899  0.03927  0.935
6.384e+09  0.2046  -1.198  -0.007584  0.01603  0.00731  0.04294  0.3812  0.8591
6.385e+09  -0.1808  -1.228  -0.007113  0.04368  0.01144  0.002447  0.6757  0.6913
6.386e+09  -0.6656  -1.047  -0.02535  -0.003558  0.004955  -0.04674  0.8204  0.3974
6.388e+09  -0.9729  -0.7422  -0.001579  0.002316  -0.02218  -0.02752  0.8782  0.09356
6.389e+09  -1.195  -0.3404  -0.02228  -0.006944  0.02021  0.02739  0.9327  -0.1921
6.39e+09  -1.227  0.1191  -0.002885  0.02522  0.02496  0.04659  0.7983  -0.5474
6.391e+09  -1.167  0.5128  -0.0007216  0.003072  -0.006195  0.004301  0.5606  -0.7692
6.392e+09  -0.9158  0.8925  0.007742  -0.006011  0.0307  0.0557  0.2994  -0.896
6.394e+09  -0.5  1.153  -0.03439  -0.002008  0.01548  0.04061  -0.01844  -0.95
6.395e+09  -0.04116  1.275  -0.005147  -0.03622  0.05257  0.009499  -0.3152  -0.8543
6.396e+09  0.3582  1.232  -0.0166  0.0117  -0.01326  -0.03041  -0.5736  -0.7038
6.398e+09  0.7705  1.016  -0.001501  -0.02472  -0.004942  0.02838  -0.804  -0.4325
6.399e+09  1.154  0.6416  0.001687  0.01687  0.03394  0.02438  -0.9194  -0.131
6.4e+09  1.316  0.1485  0.03229  -0.02803  0.02606  -0.03005  -0.9169  0.1927
6.401e+09  1.312  -0.3667  0.01328  -0.01906  -0.002276  -0.01521  -0.835  0.4501
6.402e+09  1.1  -0.7611  0.006062  0.004965  0.03004  0.006501  -0.646  0.7541
6.404e+09  0.7835  -1.078  -0.0156  0.04124  -0.03533  -0.0171  -0.2997  0.8609
6.405e+09  0.2947  -1.298  0.00705  0.03573  0.04959  0.02467  -0.005809  0.9485
6.406e+09  -0.1634  -1.328  -0.03745  -0.008904  -0.0416  -0.007365  0.2965  0.806
6.408e+09  -0.7218  -1.191  0.01662  -0.02771  0.01733  0.02042  0.5715  0.7531
6.409e+09  -1.103  -0.8434  0.01725  0.02399  -0.005313  0.009131  0.7943  0.4642
6.41e+09  -1.296  -0.3965  0.0004602  0.0415  -0.03166  -0.02519  0.8908  0.1609
6.411e+09  -1.424  0.1035  0.0184  -0.001826  0.02165  -0.04143  0.881  -0.1175
6.412e+09  -1.144  0.6046  -0.005794  0.02484  0.02509  0.02055  0.8129  -0.4501
6.414e+09  -0.935  0.9184  0.03465  -0.01359  0.004298  0.00632  0.5981  -0.7134
6.415e+09  -0.4732  1.296  0.007009  0.02965  -0.02836  0.02503  0.3098  -0.8452
6.416e+09  0.009394  1.404  0.001791  0.01282  -0.03279  0.08249  0.04111  -0.9193
6.418e+09  0.5421  1.22  0.001177  0.00575  -0.02255  0.05806  -0.272  -0.8774
6.419e+09  0.9384  0.9802  0.02513  0.01491  0.009954  0.04747  -0.5486  -0.7221
6.42e+09  1.261  0.5892  -0.011  -0.006445  0.05999  0.01985  -0.7979  -0.4766
6.421e+09  1.319  0.09794  -0.02992  0.001282  -0.01932  -0.01617  -0.8496  -0.2058
6.422e+09  1.316  -0.4309  -0.03716  -0.06646  0.003303  0.03567  -0.8496  0.1215
6.424e+09  1.055  -0.8968  -0.02967  0.02329  -0.02338  0.03827  -0.7889  0.3765
6.425e+09  0.6047  -1.199  -0.02171  -0.02075  0.02746  -0.001258  -0.5767  0.6314
6.426e+09  0.1921  -1.348  0.003842  -0.01291  -0.006217  0.02321  -0.342  0.8199
6.428e+09  -0.3245  -1.31  0.0361  -0.01319  0.02257  -0.01022  -0.04216  0.9076
6.429e+09  -0.812  -1.041  -0.02687  -0.001962  0.007672  -0.01582  0.2587  0.8836
6.43e+09  -1.09  -0.7025  0.02672  0.05243  0.01865  -0.004473  0.462  0.6572
6.431e+09  -1.357  -0.2599  0.0166  0.01487  -0.003508  0.04565  0.704  0.5196
6.432e+09  -1.342  0.2786  -0.006113  -0.02788  -0.03786  0.003198  0.8565  0.245
6.434e+09  -1.176  0.6983  -0.001594  -0.03046  0.03414  0.06264  0.8502  -0.08141
6.435e+09  -0.7751  1.028  -0.01779  -0.01085  0.01143  -0.02121  0.8469  -0.3282
6.436e+09  -0.4094  1.239  -0.03603  0.0306  -0.03361  0.03525  0.6123  -0.651
6.438e+09  0.1095  1.337  0.0009525  0.0377  -0.003473  -0.0368  0.3595  -0.7733
6.439e+09  0.578  1.147  0.003013  -0.02951  -0.01035  -0.03102  0.02074  -0.8756
6.44e+09  0.974  0.8379  -0.03487  0.03017  -0.03272  0.01303  -0.194  -0.8647
6.441e+09  1.201  0.4617  -0.00127  -0.05573  -0.04244  -0.02432  -0.5029  -0.704
6.442e+09  1.266  -0.009211  -0.0004013  0.04482  0.07526  -0.02333  -0.7027  -0.4496
6.444e+09  1.113  -0.4989  0.02701  -0.001563  -0.008421  -0.05516  -0.8159  -0.231
6.445e+09  0.9133  -0.8273  -0.02337  0.007474  -0.007431  0.007301  -0.8908  0.05942
6.446e+09  0.546  -1.137  -0.007412  -0.04286  0.01929  0.004621  -0.7713  0.4099
6.448e+09  0.09659  -1.19  0.04216  0.02307  0.02986  0.02801  -0.5656  0.6088
6.449e+09  -0.3103  -1.178  -0.01402  -0.02329  -0.01538  -0.0351  -0.3374  0.8098
6.45e+09  -0.7536  -0.9423  -0.01434  -0.01884  -0.06472  -0.03053  -0.1076  0.8462
6.451e+09  -1.031  -0.6247  -0.01475  0.005465  0.06198  -0.00911  0.1868  0.7932
6.452e+09  -1.198  -0.2242  -0.01622  0.007759  0.0233  -0.03159  0.4562  0.6502
6.454e+09  -1.13  0.2369  0.03565  -0.01897  0.01167  0.03382  0.6622  0.4785
6.455e+09  -1.016  0.61  -0.007599  0.04084  -0.005163  -0.003564  0.7903  0.2167
6.456e+09  -0.6991  0.875  0.002074  0.01635  -0.07944  -0.02442  0.8112  -0.09725
6.458e+09  -0.3055  1.093  0.006587  0.02204  -0.02367  -0.007229  0.7573  -0.3827
6.459e+09  0.08084  1.115  -0.008292  0.005343  -0.008489  0.004127  0.5504  -0.5882
6.46e+09  0.4087  1.056  0.02718  0.009765  0.0274  -0.00951  0.3384  -0.7749
6.461e+09  0.8358  0.8676  0.02019  0.01587  0.002107  0.0221  0.02986  -0.8265
6.462e+09  1.004  0.4431  0.006077  -0.01184  0.001366  0.03831  -0.1599  -0.7999
6.464e+09  1.112  0.1064  -0.002754  0.08263  -0.004631  -0.05867  -0.4448  -0.6627
6.465e+09  1.042  -0.3071  0.004019  0.03935  -0.03962  -0.04262  -0.6568  -0.4778
6.466e+09  0.8903  -0.6408  -0.01114  -0.01955  -0.01593  0.01136  -0.7839  -0.2376
6.468e+09  0.5564  -0.961  -0.01724  0.003736  0.06894  0.0348  -0.8092  0.05956
6.469e+09  0.1935  -1.063  -0.008838  0.008437  -0.02789  -0.01087  -0.7253  0.3574
6.47e+09  -0.2226  -1.096  -0.01072  0.04451  0.009288  -0.004505  -0.5838  0.5636
6.471e+09  -0.5353  -0.9015  -0.02067  -0.006833  -0.01785  -0.02044  -0.2981  0.7193
6.472e+09  -0.8583  -0.6753  0.01808  0.01001  0.0007084  -0.03022  -0.05807  0.7801
6.474e+09  -1.008  -0.3513  0.01674  0.001001  -0.01057  -0.05014  0.2273  0.7623
6.475e+09  -1.063  0.01026  -0.05725  -0.002411  0.04857  0.01098  0.4207  0.6148
6.476e+09  -0.9837  0.3708  -0.002277  -0.003415  0.01536  0.01157  0.6642  0.4782
6.478e+09  -0.8104  0.7109  -0.04801  0.01239  0.003336  -0.008853  0.783  0.228
6.479e+09  -0.4997  0.9599  0.001974  0.05235  -0.006832  0.01241  0.7987  -0.06052
6.48e+09  -0.1543  1.065  0.02598  0.02445  0.05381  -0.03345  0.7409  -0.3292
6.481e+09  0.2551  1.038  -0.02289  0.02818  -0.02379  0.04576  0.5652  -0.5687
6.482e+09  0.6007  0.8552  -0.02733  -0.03925  -0.02052  0.003981  0.3066  -0.7121
6.484e+09  0.7932  0.606  0.008849  0.01085  -0.01658  -0.004578  0.08416  -0.7723
6.485e+09  0.9872  0.2758  0.01199  0.002221  0.005324  -0.0241  -0.1964  -0.7494
6.486e+09  1.021  -0.06973  -0.01299  0.0273  0.002696  -0.004258  -0.4736  -0.6074
6.488e+09  1.487  -1.035  -0.01498  -0.02323  0.6915  0.1269  -0.6547  -0.4033
6.489e+09  0.7339  -0.7431  -0.01834  0.02062  0.04051  0.009706  -0.792  -0.1924
6.49e+09  0.4163  -0.9439  -0.02326  -0.02162  0.02686  -0.006491  -0.7458  0.09023
6.491e+09  0.05669  -1.079  -0.009502  -0.04576  -0.01009  0.0868  -0.6974  0.3799
6.492e+09  -0.2791  -0.9876  -0.02496  -0.01021  0.02059  -0.04839  -0.5327  0.572
6.494e+09  -0.5277  -0.938  -0.0096  -0.02163  -0.133  -0.02935  -0.2986  0.6938
6.495e+09  -0.8824  -0.5951  -0.01261  -0.002098  -0.0001871  -0.05456  -0.05571  0.7592
6.496e+09  -1.024  -0.1836  -0.01565  0.02905  -0.007002  0.01301  0.2364  0.7343
6.498e+09  -0.996  0.07037  -0.0428  -0.04582  0.02757  0.004642  0.4957  0.5804
6.499e+09  -0.9242  0.4977  -0.02315  0.04756  -0.01173  -0.05354  0.6779  0.4169
6.5e+09  -0.0722  0.5988  0.002049  0.01232  0.00118  0.0009012  0.7386  0.1913
6.501e+09  -0.3781  0.9848  0.02754  0.004578  -0.01432  -0.007769  0.7563  -0.1206
6.502e+09  -0.03852  1.043  0.0004038  -0.0348  -0.04121  -0.05592  0.7235  -0.3771
6.504e+09  0.3197  0.9643  0.01602  -0.0106  0.02159  -0.0008741  0.5545  -0.5625
6.505e+09  0.6773  0.7981  -0.03558  0.01085  0.009998  0.01977  0.2603  -0.6937
6.506e+09  0.8736  0.5514  -0.005769  0.0236  0.002315  -0.003656  -0.007731  -0.7536
6.508e+09  1.065  0.1295  0.02081  0.01329  0.02291  0.003554  -0.2446  -0.7206
6.509e+09  1.035  -0.162  0.009613  0.006871  -0.06475  -0.03045  -0.4673  -0.6143
6.51e+09  0.8703  -0.4837  -0.0312  -0.07468  0.06611  0.01173  -0.6348  -0.3734
6.511e+09  0.6787  -0.8369  -0.001526  0.01748  0.03276  0.05083  -0.7553  -0.1635
6.512e+09  0.3085  -1.006  -0.00968  -0.02705  -0.02609  -0.03397  -0.7472  0.1226
6.514e+09  -0.003966  -1.057  -0.02224  -0.01063  -0.03388  -0.01245  -0.6748  0.3534
6.515e+09  -0.4184  -0.9679  0.02135  -0.01455  0.006384  0.04964  -0.4889  0.5836
6.516e+09  -0.7291  -0.7568  0.01255  0.002721  0.01198  -0.04749  -0.218  0.7029
6.518e+09  -0.9557  -0.5225  -0.001637  -0.003902  -0.04165  0.0307  0.01779  0.748
6.519e+09  -1.106  -0.1547  -0.009305  0.01502  -0.006821  0.01493  0.2719  0.7247
6.52e+09  -1.036  0.2148  0.01835  -0.001891  0.02098  -0.01978  0.5185  0.5629
6.521e+09  -0.9192  0.5967  0.01587  -0.02492  0.001023  -0.008796  0.6948  0.3166
6.522e+09  -0.6553  0.7804  0.02412  0.02301  -0.0458  0.001696  0.7452  0.1049
6.524e+09  -0.3033  1.039  -0.003789  0.04253  -0.01273  -0.006217  0.6884  -0.1343
6.525e+09  0.02313  1.092  0.02942  0.01774  -0.01438  0.003249  0.6242  -0.3922
6.526e+09  0.4287  1.002  0.03138  -0.008702  0.009115  0.02234  0.4329  -0.5725
6.528e+09  0.8193  0.8108  0.005507  0.01428  0.06491  8.017e-05  0.193  -0.6654
6.529e+09  1.059  0.4816  -0.001439  -0.01518  -0.01198  0.03132  -0.03533  -0.6955
6.53e+09  1.095  0.04684  0.02739  0.008071  -0.02947  -0.01545  -0.2851  -0.6467
6.531e+09  1.11  -0.3162  0.03167  0.01  0.001398  -0.007637  -0.4593  -0.4895
6.532e+09  0.9409  -0.7094  -0.01663  -0.004181  -0.05241  -0.003618  -0.5743  -0.2728
6.534e+09  0.6356  -0.9811  -0.02167  0.02846  -0.01686  0.02566  -0.6452  -0.101
6.535e+09  0.2941  -1.096  0.0008167  0.02516  -0.006598  0.03018  -0.6281  0.1226
6.536e+09  -0.185  -1.146  -0.02395  -0.01523  0.03885  -0.00825  -0.5707  0.2461
6.538e+09  -0.5738  -1.017  0.01112  0.004545  -0.03209  0.04693  -0.4189  0.4895
6.539e+09  -0.9134  -0.7752  -0.008371  0.003209  -0.02908  -0.02069  -0.2983  0.5773
6.54e+09  -1.142  -0.3917  0.02786  0.01011  0.03099  0.02281  -0.03665  0.6529
6.541e+09  -1.187  -0.009603  0.02415  -0.0201  0.05582  0.07088  0.2037  0.6602
6.542e+09  -1.133  0.4217  0.006361  -0.00175  0.03585  0.03263  0.3739  0.5604
6.544e+09  -0.9265  0.7889  -0.01756  0.01222  0.006561  -0.01861  0.5978  0.4215
6.545e+09  -0.558  1.058  -0.01643  0.01609  0.0106  -0.0402  0.7122  0.1679
6.546e+09  -0.1252  1.26  0.01026  -0.003611  -0.04058  -0.03906  0.7272  -0.08861
6.548e+09  0.2819  1.187  0.007788  0.01288  0.04082  -0.01657  0.6757  -0.3513
6.549e+09  0.6827  1.088  0.03751  -0.01516  0.02247  0.02013  0.5206  -0.5426
6.55e+09  1.041  0.7425  -0.008562  -0.0007979  0.002575  -0.002049  0.2932  -0.6933
6.551e+09  1.245  0.376  -0.01144  -0.03682  -0.04749  -0.05089  0.03421  -0.7209
6.552e+09  1.281  -0.1198  0.03303  0.01201  0.01333  -0.003086  -0.2216  -0.6953
