# Hz S RI R 50
6.25e+09  0.9586  0.3863  0.02433  0.008445  -0.04863  -0.01586  0.1956  0.5012
6.251e+09  0.9982  0.01677  -0.01629  0.03173  0.0132  0.01786  0.4025  0.4295
6.252e+09  0.9373  -0.2813  0.008176  0.00358  0.003052  -0.007221  0.528  0.2241
6.254e+09  0.7836  -0.6708  0.01265  0.02527  0.04171  0.02182  0.6259  0.06114
6.255e+09  0.48  -0.8346  -0.03897  -0.001375  -0.01894  0.005173  0.5897  -0.2544
6.256e+09  0.2132  -0.9406  -0.001629  -0.00665  -0.05162  0.02947  0.4843  -0.4575
6.258e+09  -0.2086  -0.9694  -0.004623  0.02317  -0.0191  -0.04752  0.3054  -0.6393
6.259e+09  -0.5174  -0.8206  -0.006128  -0.00648  0.03635  -0.04977  0.06158  -0.6666
6.26e+09  -0.7602  -0.5999  0.006752  0.01116  -0.02588  -0.02143  -0.2256  -0.6566
6.261e+09  -0.9588  -0.294  0.02088  0.006332  -0.0646  -0.01445  -0.4466  -0.5301
6.262e+09  -1.012  0.06337  0.01048  -0.008324  -0.05418  -0.006405  -0.6325  -0.354
6.264e+09  -0.879  0.3436  -0.007188  -0.0008759  0.02107  0.005581  -0.7065  -0.1144
6.265e+09  -0.7094  0.6888  -0.03989  0.00861  -0.01688  -0.008267  -0.7031  0.1482
6.266e+09  -0.4022  0.9351  -0.01548  -0.02324  0.01503  -0.06765  -0.5946  0.3904
6.268e+09  -0.07387  1.022  0.004073  0.006595  -0.03508  0.01512  -0.4652  0.5699
6.269e+09  0.2426  0.9232  -0.01892  0.01608  -0.00466  -0.0218  -0.2065  0.7003
6.27e+09  0.5955  0.8226  -0.01952  -0.02962  -0.01623  0.04018  0.06033  0.7308
6.271e+09  0.8451  0.5006  0.01129  -0.04239  -0.06897  0.02819  0.3446  0.6869
6.272e+09  1.015  0.1755  0.002541  0.03418  0.008767  -0.02375  0.5457  0.5306
6.274e+09  1.01  -0.2093  0.018  -0.02051  0.004304  0.02199  0.6693  0.2978
6.275e+09  0.9167  -0.5006  -0.01598  -0.002851  -0.04264  0.0009141  0.7788  0.0953
6.276e+09  0.6069  -0.7694  0.008944  -0.004293  0.009998  0.0347  0.7529  -0.184
6.278e+09  0.3613  -0.9751  -0.03361  0.02147  4.563e-05  -0.0144  0.6241  -0.4722
6.279e+09  -0.07023  -0.9834  -0.008072  -0.02837  -0.01162  0.004737  0.4414  -0.6465
6.28e+09  -0.4632  -0.9739  -0.03218  -0.01019  -0.06817  0.01482  0.1978  -0.7601
6.281e+09  -0.7122  -0.719  -0.01527  0.01816  -0.01393  0.01742  -0.1183  -0.7922
6.282e+09  -0.8423  -0.4023  0.02004  -0.004729  0.01332  -0.02988  -0.384  -0.6805
6.284e+09  -1.016  -0.08005  -0.004944  0.00646  -0.02097  0.02614  -0.6086  -0.541
6.285e+09  -0.9597  0.2384  0.0113  0.01947  -0.07557  0.03368  -0.765  -0.2877
6.286e+09  -0.8278  0.5959  0.0335  0.01159  0.03378  -0.009845  -0.804  0.004279
6.288e+09  -0.5919  0.8284  0.007683  -0.01782  -0.004125  -0.0199  -0.7572  0.2636
6.289e+09  -0.2481  0.9952  -0.02614  0.0221  -0.01701  -0.0009439  -0.6192  0.4898
6.29e+09  0.1278  1.012  0.00134  0.03597  -0.001338  0.02437  -0.4052  0.6694
6.291e+09  0.4936  0.9255  0.004016  0.01525  0.02275  0.02126  -0.1238  0.7713
6.292e+09  0.7619  0.6789  0.03504  0.007856  -0.05127  -0.01321  0.1438  0.7888
6.294e+09  1.009  0.3125  -0.008909  0.004181  0.01077  0.02125  0.4109  0.7091
6.295e+09  1  -0.03976  -0.01929  0.04893  4.812e-05  -1.373e-05  0.6125  0.5561
6.296e+09  0.9574  -0.3494  -0.001128  0.001738  0.02177  -0.003102  0.7876  0.2824
6.298e+09  0.7942  -0.6935  0.006995  -0.01584  -0.01075  0.02256  0.8063  0.003726
6.299e+09  0.4433  -0.9343  0.006349  0.00277  -0.04051  0.04055  0.7878  -0.2724
6.3e+09  0.07239  -0.9432  0.03398  -0.02941  0.02662  0.0424  0.6101  -0.5183
6.301e+09  -0.1962  -0.9786  -0.03004  -0.003128  0.01503  0.02309  0.4125  -0.7364
6.302e+09  -0.5454  -0.826  -0.009898  -0.00977  -0.04861  0.009585  0.1406  -0.8418
6.304e+09  -0.8432  -0.5784  0.01745  -0.007302  -0.002096  -0.04314  -0.1439  -0.8377
6.305e+09  -0.9801  -0.2456  -0.03092  -0.006568  0.01875  -0.02263  -0.44  -0.7299
6.306e+09  -1.003  0.1122  0.0146  0.00903  0.001536  -0.01639  -0.6741  -0.5582
6.308e+09  -0.9323  0.5036  -0.006263  -0.001878  0.003349  0.03375  -0.8089  -0.2972
6.309e+09  -0.6718  0.6982  0.001633  -0.006328  -0.02236  -0.005401  -0.848  -0.02474
6.31e+09  -0.3757  0.9393  -0.02046  0.01365  0.006627  -0.00454  -0.8141  0.2631
6.311e+09  -0.02867  1.033  0.007245  -0.01501  0.04456  -0.0252  -0.6739  0.5858
6.312e+09  0.2949  0.9941  0.02321  -0.001115  0.02216  0.01852  -0.4074  0.7645
6.314e+09  0.6611  0.79  -0.03219  0.01632  -0.0002552  -0.00771  -0.1703  0.8751
6.315e+09  0.8856  0.4836  -0.001267  0.02289  0.04299  0.01323  0.1159  0.8604
6.316e+09  1.002  0.1968  -0.02177  0.002403  -0.002884  0.02309  0.4194  0.7505
6.318e+09  1.01  -0.1867  0.009013  -0.00835  -0.01191  0.006614  0.7056  0.5895
6.319e+09  0.8617  -0.523  -0.01055  0.01043  -0.05069  0.05133  0.809  0.3155
6.32e+09  0.6452  -0.8391  -0.01502  0.04423  -0.05296  -0.0294  0.9021  0.02784
6.321e+09  0.3044  -1.015  -0.01084  0.01659  0.02723  0.0246  0.8356  -0.2775
6.322e+09  -0.1109  -1.07  -0.03018  -0.02553  0.0254  -0.04727  0.6873  -0.5932
6.324e+09  -0.3939  -0.9431  0.007497  0.01313  -0.006625  0.05196  0.5009  -0.7918
6.325e+09  -0.7773  -0.719  0.01269  0.01146  0.02113  -0.008213  0.1847  -0.8623
6.326e+09  -0.9765  -0.4186  0.0151  -0.009884  -0.003075  0.01655  -0.1708  -0.902
6.328e+09  -1.055  -0.07522  -0.02975  -0.007861  -0.01366  -0.01562  -0.4393  -0.7742
6.329e+09  -1.065  0.3194  0.003601  0.003926  -0.03796  0.007415  -0.6614  -0.5752
6.33e+09  -0.8813  0.6719  0.009772  -0.02621  -0.01017  0.007429  -0.894  -0.3784
6.331e+09  -0.5913  0.9342  0.005832  0.007183  -0.02398  0.01704  -0.9364  -0.03569
6.332e+09  -0.1937  1.075  -0.002378  0.02179  -0.02834  0.01894  -0.8975  0.2986
6.334e+09  0.132  1.075  0.02614  0.00606  0.03238  0.007771  -0.6991  0.5819
6.335e+09  0.5169  0.9245  0.01681  0.04174  0.04899  -0.01908  -0.4905  0.7691
6.336e+09  0.7888  0.6939  0.0003679  0.0007816  0.008247  -0.009039  -0.1913  0.8814
6.338e+09  1.017  0.3793  -0.002583  0.01294  -0.02381  0.03824  0.1122  0.893
6.339e+09  1.102  0.02398  0.01503  -0.02636  0.01234  0.00132  0.3832  0.8322
6.34e+09  1.013  -0.4137  -0.001333  -0.008957  0.0113  0.02101  0.6909  0.63
6.341e+09  0.8142  -0.7698  -0.03265  0.0002814  0.0268  0.01081  0.8798  0.3581
6.342e+09  0.5517  -0.9752  -0.01996  -0.02438  -0.01683  0.02692  0.9308  0.07485
6.344e+09  0.127  -1.101  0.0166  -0.03365  -0.01703  0.02257  0.8819  -0.27
6.345e+09  -0.2821  -1.097  -0.01406  -0.00189  -0.01436  -0.007567  0.7322  -0.5548
6.346e+09  -0.6127  -0.9513  -0.005055  0.01708  -0.01932  -0.02941  0.5445  -0.775
6.348e+09  -0.9688  -0.6637  -0.03078  0.04848  0.0346  -0.08017  0.2026  -0.9108
6.349e+09  -1.057  -0.3033  -0.04159  -0.004268  -0.01823  0.03597  -0.09458  -0.8918
6.35e+09  -1.183  0.04452  0.002366  -0.01813  0.01256  0.02951  -0.4256  -0.8561
6.351e+09  -0.9849  0.4873  0.0352  0.01262  -0.01285  -0.01174  -0.7051  -0.6254
6.352e+09  -0.7997  0.8687  -0.006273  -0.0208  0.03905  -0.01603  -0.8552  -0.3461
6.354e+09  -0.4928  1.043  0.0253  0.01057  -0.00701  -0.008418  -0.93  -0.03557
6.355e+09  -0.06794  1.161  -0.03194  0.03002  -0.02748  -0.0573  -0.9072  0.2563
6.356e+09  0.337  1.093  0.02856  0.007728  0.01017  -0.003813  -0.7871  0.5565
6.358e+09  0.7006  0.9256  0.007957  -0.01955  0.05173  -0.01493  -0.501  0.7939
6.359e+09  0.997  0.5847  0.01748  -0.005058  0.008883  0.002756  -0.2106  0.92
6.36e+09  1.215  0.2064  -0.02284  0.01088  0.009405  -0.02073  0.1194  0.9489
6.361e+09  1.173  -0.1788  0.03244  0.01677  -0.02265  -0.002618  0.4471  0.88
6.362e+09  1.03  -0.5826  0.0178  -0.01962  0.0148  -0.02021  0.6897  0.6983
6.364e+09  0.7527  -0.9516  -0.0002051  -0.00258  0.0352  -0.04917  0.8566  0.4341
6.365e+09  0.4481  -1.151  -0.01908  0.00259  0.03186  -0.01288  0.9864  0.09014
6.366e+09  -0.05278  -1.177  0.005835  -0.004308  -0.008586  0.0245  0.8784  -0.2381
6.368e+09  -0.4535  -1.125  0.001476  0.02493  0.01575  0.02313  0.7552  -0.503
6.369e+09  -0.8103  -0.9303  -0.02342  0.03993  -0.008865  0.06047  0.5123  -0.7735
6.37e+09  -1.15  -0.5824  0.006418  -0.01056  0.002753  -0.01094  0.2354  -0.9198
6.371e+09  -1.235  -0.1717  0.02797  0.0005552  -0.009917  -0.04452  -0.08066  -0.9528
6.372e+09  -1.193  0.3102  -0.02397  -0.04742  0.01235  -0.0105  -0.4231  -0.8931
6.374e+09  -1.048  0.7361  -0.006185  0.01035  0.01694  0.001698  -0.6582  -0.665
6.375e+09  -0.7303  1.087  -0.01658  -0.04661  -0.03159  -0.02339  -0.9027  -0.3975
6.376e+09  -0.2353  1.268  0.03048  -0.003022  0.01633  -0.01939  -0.9345  -0.06098
6.378e+09  0.1566  1.29  -0.02711  -0.0255  -0.02394  0.009724  -0.9179  0.2125
6.379e+09  0.6474  1.181  -0.009824  0.03673  0.009045  3.533e-05  -0.7867  0.5201
6.38e+09  0.9614  0.8871  -0.009106  0.005673  0.05432  0.004281  -0.5521  0.7537
6.381e+09  1.222  0.515  0.01533  0.029  -0.01363  0.0252  -0.2004  0.9132
6.382e+09  1.347  0.04234  -0.006637  0.006473  0.03284  0.009029  0.06233  0.9323
6.384e+09  1.289  -0.4946  0.02272  0.01986  -0.005086  -0.001656  0.3589  0.8568
6.385e+09  1.033  -0.875  -0.01613  0.0233  -0.009  0.05164  0.6429  0.6738
6.386e+09  0.6315  -1.208  0.01091  -0.01082  -0.0003751  0.0303  0.8757  0.4293
6.388e+09  0.1704  -1.353  -0.02873  0.0001024  -0.01238  0.01554  0.9428  0.1433
6.389e+09  -0.3319  -1.342  0.02567  0.008208  0.0009346  0.02906  0.885  -0.1859
6.39e+09  -0.7379  -1.187  0.007608  0.002521  -0.006011  0.04152  0.7769  -0.5246
6.391e+09  -1.121  -0.8819  -0.01564  -0.02594  -0.008204  0.03822  0.5613  -0.7218
6.392e+09  -1.458  -0.4057  -0.001418  0.0326  -0.02133  -0.01822  0.2816  -0.846
6.394e+09  -1.466  0.1872  -0.0008351  -0.002038  -0.0201  -0.06133  -0.07951  -0.9533
6.395e+09  -1.314  0.6784  0.02938  0.06638  -0.01473  -0.01702  -0.3531  -0.8841
6.396e+09  -1.033  1.12  -0.007833  0.0111  0.03844  -0.01919  -0.5732  -0.7164
6.398e+09  -0.5541  1.396  0.007204  -0.0482  -0.01402  0.008539  -0.8143  -0.4446
6.399e+09  -0.07151  1.576  -0.002756  -0.0001296  0.02672  0.02027  -0.8931  -0.1207
6.4e+09  0.5557  1.527  -0.03086  0.008304  0.007446  0.02492  -0.9236  0.1651
6.401e+09  1.048  1.174  -0.04277  0.03336  -0.01771  0.04907  -0.8396  0.4549
6.402e+09  1.493  0.7213  -0.003116  0.01947  0.02611  -0.03125  -0.5583  0.6954
6.404e+09  1.63  0.2138  0.04625  0.01244  0.03188  -0.02301  -0.3002  0.887
6.405e+09  1.645  -0.3773  -0.0184  0.004098  -0.01202  0.04  0.01862  0.905
6.406e+09  1.409  -0.9748  0.01437  0.006792  -0.02361  -0.03436  0.288  0.8754
6.408e+09  1.006  -1.475  0.03349  0.03765  0.01236  0.02888  0.6428  0.7274
6.409e+09  0.35  -1.704  -0.04307  0.001663  0.0395  -0.02157  0.8049  0.4818
6.41e+09  -0.286  -1.814  -0.0003825  0.02241  -0.0164  -0.0009592  0.8734  0.2009
6.411e+09  -0.9353  -1.618  0.02323  -0.02357  -0.01733  -0.01091  0.8765  -0.1543
6.412e+09  -1.521  -1.189  0.002533  0.0344  0.06157  -0.01798  0.7838  -0.4019
6.414e+09  -1.754  -0.5308  0.01253  -0.04108  0.007435  -0.03179  0.615  -0.6639
6.415e+09  -1.896  0.1982  0.003498  -0.02486  0.03481  -0.04722  0.3349  -0.8581
6.416e+09  -1.717  0.7976  0.00295  0.02995  0.02574  -0.0002046  0.02306  -0.9102
6.418e+09  -1.305  1.474  -0.005803  -0.007998  0.06812  0.009735  -0.2862  -0.8436
6.419e+09  -0.7357  1.853  0.03481  -2.68e-05  0.03353  0.003098  -0.5257  -0.7284
6.42e+09  0.06712  1.987  0.03326  0.002189  -0.06455  -0.03118  -0.7588  -0.4415
6.421e+09  0.8216  1.827  0.03489  -0.0123  -0.004915  0.004283  -0.9052  -0.1755
6.422e+09  1.471  1.482  0.002773  0.02071  0.007801  0.005218  -0.8894  0.1032
6.424e+09  1.966  0.7744  -0.009109  -0.01449  -0.0126  -0.003586  -0.7978  0.4079
6.425e+09  2.155  0.03045  -0.03446  -0.02053  0.06229  -0.07033  -0.5916  0.6145
6.426e+09  1.971  -0.817  0.0134  -0.01324  -0.009748  -0.01044  -0.3603  0.8398
6.428e+09  1.513  -1.494  -0.01023  0.03117  -0.01648  0.006489  -0.01759  0.8729
6.429e+09  0.8901  -1.904  -0.03306  0.01147  -0.003695  -0.002398  0.2332  0.8137
6.43e+09  0.08391  -2.16  -0.01829  -0.0147  -0.01059  -0.02514  0.491  0.7038
6.431e+09  -0.7364  -2.005  -0.006484  -0.03846  0.1045  -0.006657  0.7143  0.4662
6.432e+09  -1.45  -1.682  -0.02747  -0.02781  -0.03656  -0.02171  0.8455  0.2094
6.434e+09  -1.993  -0.902  -0.01291  0.02353  0.02565  -0.02294  0.8728  -0.08749
6.435e+09  -2.152  -0.1363  -0.01144  0.0248  -0.01061  0.008721  0.8015  -0.4324
6.436e+09  -2.069  0.7765  0.01438  -0.01274  0.0808  0.02328  0.6244  -0.6179
6.438e+09  -1.579  1.489  -0.01162  0.003642  0.009087  0.006407  0.3751  -0.7983
6.439e+09  -0.9937  1.93  -0.01242  -0.03757  0.003725  0.05588  0.02613  -0.855
6.44e+09  -0.172  2.145  0.004265  -0.03477  0.01371  0.007219  -0.2342  -0.8123
6.441e+09  0.6117  2.112  -0.02635  -0.00673  -0.09364  -0.01235  -0.5418  -0.703
6.442e+09  1.4  1.771  -0.01726  0.007996  -0.0233  -0.01604  -0.7056  -0.4858
6.444e+09  1.902  1.034  -0.003667  0.01241  0.01183  -0.006782  -0.7881  -0.2341
6.445e+09  2.127  0.2165  -0.02603  0.01329  0.04054  0.004868  -0.8724  0.05993
6.446e+09  2.036  -0.5645  0.02041  -0.02076  0.03574  -0.01733  -0.7529  0.4155
6.448e+09  1.676  -1.295  -0.01871  -0.0448  -0.09989  -0.02501  -0.5873  0.5459
6.449e+09  1.044  -1.765  -0.0129  0.02546  0.007805  0.05662  -0.4111  0.7673
6.45e+09  0.3405  -2.061  -0.06472  0.01156  0.03558  0.02945  -0.05915  0.8515
6.451e+09  -0.4332  -1.921  -0.03552  0.04095  -0.02833  -0.03972  0.2258  0.8116
6.452e+09  -1.182  -1.627  -0.01935  -0.0201  -0.02257  0.01189  0.4874  0.609
6.454e+09  -1.638  -1.132  -0.01405  -0.002253  -0.01381  -0.01091  0.6989  0.5043
6.455e+09  -1.974  -0.4375  -0.003854  0.03634  -0.01801  -0.0101  0.8023  0.2568
6.456e+09  -1.949  0.3165  0.008262  -0.01896  0.0339  -0.007693  0.8161  -0.05149
6.458e+09  -1.623  1.02  0.003893  -0.007835  -0.02371  -0.03924  0.7205  -0.3035
6.459e+09  -1.189  1.453  0.03655  -0.01533  0.01362  -0.01503  0.6058  -0.5915
6.46e+09  -0.6064  1.869  0.02486  0.01882  0.01089  0.06327  0.346  -0.7408
6.461e+09  0.1609  1.93  0.01604  -0.0001922  0.06273  0.0271  0.08653  -0.8031
6.462e+09  0.8391  1.703  -0.01819  -0.02394  -0.01175  0.07342  -0.2147  -0.7332
6.464e+09  1.363  1.324  0.00752  0.01539  -0.02075  0.01942  -0.4964  -0.6471
6.465e+09  1.659  0.7284  -0.002129  -0.03853  -0.04972  -0.02756  -0.6833  -0.4328
6.466e+09  1.751  0.03987  0.003772  -0.04126  0.009876  -0.02429  -0.7771  -0.2126
6.468e+09  1.702  -0.6472  -0.002583  0.00985  0.02291  0.01321  -0.7952  0.05697
6.469e+09  1.311  -1.179  0.004786  -0.02053  -0.04218  0.01736  -0.7853  0.2908
6.47e+09  0.8103  -1.544  0.006524  0.03107  -0.02169  -0.001116  -0.5493  0.5705
6.471e+09  0.2243  -1.674  0.005452  -0.03016  0.02091  0.0231  -0.2999  0.7192
6.472e+09  -0.3745  -1.616  0.02086  0.03935  -0.0336  0.02426  -0.1089  0.8029
6.474e+09  -0.9534  -1.379  0.03293  0.01205  0.00137  -0.06418  0.2141  0.7574
6.475e+09  -1.415  -0.9352  -0.03511  -0.0416  -0.01345  -0.004017  0.4608  0.6425
6.476e+09  -1.582  -0.3932  -0.02531  0.006421  -0.002831  -0.01142  0.6668  0.461
6.478e+09  -1.63  0.2033  0.001965  0.005258  -0.01733  -0.03518  0.7644  0.2001
6.479e+09  -1.393  0.7759  0.01963  0.007441  0.01184  0.01028  0.7642  -0.07264
6.48e+09  -1.02  1.266  -0.013  0.04264  0.02151  0.004475  0.7073  -0.3217
6.481e+09  -0.5897  1.501  -0.0207  0.0006295  -0.0139  -0.01407  0.5395  -0.6001
6.482e+09  0.06853  1.587  -0.02172  0.02869  -0.0548  0.02642  0.2944  -0.7277
6.484e+09  0.5923  1.468  0.02163  0.0314  -0.02632  0.03233  0.05999  -0.7951
6.485e+09  1.059  1.226  0.02172  0.01854  0.0181  0.01783  -0.2167  -0.7408
6.486e+09  1.41  0.7368  0.0178  -0.04258  0.0003459  -0.05924  -0.4657  -0.6517
6.488e+09  0.8244  0.1902  -0.02229  -0.006112  0.5719  0.4162  -0.6564  -0.4321
6.489e+09  1.495  -0.3329  0.00616  0.0007337  0.03983  -0.05852  -0.7532  -0.211
6.49e+09  1.279  -0.8599  -0.0213  0.04775  -0.002734  0.05463  -0.7544  0.08517
6.491e+09  0.8785  -1.304  -0.00221  -0.02872  -0.01458  0.02766  -0.7169  0.3505
6.492e+09  0.3833  -1.52  -0.03146  -0.002658  0.03261  0.001035  -0.5204  0.5455
6.494e+09  -0.2706  -1.603  0.009919  0.01154  -0.0766  0.05876  -0.2962  0.7044
6.495e+09  -0.7074  -1.391  -0.01501  -0.01749  0.03026  0.03061  -0.02167  0.7209
6.496e+09  -1.095  -1.05  -0.00299  -0.0005597  0.03664  0.006324  0.2564  0.7099
6.498e+09  -1.392  -0.6367  -0.007549  -0.01218  0.007959  0.02142  0.4985  0.6051
6.499e+09  -1.524  -0.08882  -0.009638  0.02361  -0.04494  -0.006033  0.6592  0.4304
6.5e+09  -0.8025  -0.7173  -0.04704  -0.008466  0.0648  -0.02697  0.7244  0.1757
6.501e+09  -1.19  0.9586  -0.04224  0.03004  -0.048  0.01526  0.768  -0.1297
6.502e+09  -0.7559  1.338  0.02598  -0.003256  -0.0213  -0.001265  0.6455  -0.3524
6.504e+09  -0.2763  1.49  0.01574  -0.02276  -0.01493  0.0667  0.5015  -0.6012
6.505e+09  0.2849  1.507  0.001505  0.01757  0.0223  0.01896  0.3139  -0.7203
6.506e+09  0.8208  1.306  0.02178  -0.005219  -0.03744  0.01704  0.03747  -0.7361
6.508e+09  1.181  0.9535  0.00275  6.596e-05  -0.05084  -0.04868  -0.2013  -0.7243
6.509e+09  1.497  0.4566  0.02359  -0.03391  -0.04027  -0.008549  -0.5052  -0.5767
6.51e+09  1.549  -0.1011  -0.03908  -0.003911  -0.04602  0.01466  -0.6834  -0.3486
6.511e+09  1.401  -0.5635  -0.01617  -0.01634  0.02955  0.0153  -0.7182  -0.1508
6.512e+09  1.16  -1.096  0.0006175  -0.0185  0.005092  -0.03755  -0.7065  0.1404
6.514e+09  0.6799  -1.419  -0.005599  0.01296  -0.01428  0.0313  -0.6309  0.394
6.515e+09  0.1274  -1.534  -0.01127  -0.004923  -0.02226  0.01156  -0.4714  0.5248
6.516e+09  -0.37  -1.537  0.002913  0.02039  -0.01748  0.02228  -0.2255  0.7235
6.518e+09  -0.8757  -1.293  -0.004774  0.006378  0.0001111  -0.01657  0.03735  0.7625
6.519e+09  -1.361  -0.8859  0.01822  -0.03101  -0.01197  0.01247  0.2699  0.7101
6.52e+09  -1.572  -0.3963  0.04618  0.002787  -0.01386  -0.03769  0.4767  0.5461
6.521e+09  -1.621  0.2436  -0.003028  -0.02966  -0.01067  0.02153  0.6588  0.3333
6.522e+09  -1.427  0.753  0.008272  0.04018  -0.007937  -0.03169  0.7331  0.1153
6.524e+09  -1.025  1.275  -0.05219  -0.0414  -0.001084  -0.00629  0.7321  -0.1674
6.525e+09  -0.6272  1.503  -0.02631  -0.005675  0.04455  0.007677  0.5933  -0.4004
6.526e+09  -0.05258  1.685  -0.002932  -0.0003195  -0.02854  -0.001694  0.4408  -0.5903
6.528e+09  0.5768  1.627  -0.03101  0.009262  0.0193  0.0603  0.2079  -0.6867
6.529e+09  1.095  1.307  -0.002552  -1.633e-05  -0.01619  -0.02033  -0.03419  -0.7022
6.53e+09  1.533  0.8146  0.003911  -0.04305  0.02757  0.03335  -0.3009  -0.6298
6.531e+09  1.735  0.1992  0.02111  -0.0004807  0.01954  0.005641  -0.4744  -0.4796
6.532e+09  1.736  -0.349  0.01371  0.0025  0.009463  0.07598  -0.5946  -0.2889
6.534e+09  1.495  -1.02  -0.01845  0.00777  0.01724  0.0184  -0.6174  -0.07828
6.535e+09  1.027  -1.481  0.001002  -0.01569  -0.03401  -0.02651  -0.6304  0.1167
6.536e+09  0.4559  -1.776  -0.02659  0.01365  0.05283  0.00543  -0.5338  0.3133
6.538e+09  -0.1753  -1.858  -0.02108  0.01119  -0.05848  -0.02348  -0.44  0.4769
6.539e+09  -0.8551  -1.684  -0.01774  0.02606  -0.02102  0.02013  -0.2905  0.5973
6.54e+09  -1.457  -1.26  -0.004074  0.03193  -0.07665  -0.01833  -0.06965  0.6654
6.541e+09  -1.738  -0.7327  0.005779  0.0002643  0.00131  0.0255  0.2239  0.6846
6.542e+09  -1.988  -0.01327  -0.02552  0.01348  -0.005679  -0.03659  0.3933  0.5811
6.544e+09  -1.778  0.7167  0.01999  0.027  -0.02057  -0.03834  0.5706  0.4197
6.545e+09  -1.417  1.268  0.009344  -0.02728  0.03578  -0.01371  0.7071  0.1494
6.546e+09  -0.8459  1.804  0.0226  0.007094  -0.05506  0.01771  0.7098  -0.1032
6.548e+09  -0.1516  1.971  0.02371  -0.004006  -0.02705  -0.03185  0.6513  -0.3125
6.549e+09  0.5485  1.923  -0.01837  0.005181  0.04144  -0.02654  0.4849  -0.5499
6.55e+09  1.234  1.619  0.01796  0.0007754  0.05516  0.02615  0.3064  -0.6649
6.551e+09  1.796  1.038  -0.02566  -0.02089  0.1091  -0.03684  0.01801  -0.6991
6.552e+09  2.09  0.3627  -0.02718  0.03981  -0.01215  -0.03634  -0.2394  -0.708
6.554e+09  2.027  -0.4426  -0.01484  0.02196  -0.007245  -0.05306  -0.4693  -0.5819
