# Hz S RI R 50
6.25e+09  -0.06178  0.9176  -0.009507  0.0301  0.03664  0.03035  0.156  0.4853
6.251e+09  0.2201  0.8774  -0.05208  -0.01602  0.0188  0.001017  0.3782  0.4563
6.252e+09  0.5323  0.7192  0.004046  0.003118  -0.0123  -0.04074  0.5486  0.2324
6.254e+09  0.7728  0.397  0.008721  -0.002534  0.0388  0.01254  0.6383  0.02945
6.255e+09  0.9035  0.1881  -0.02915  0.01397  -0.00181  -0.04979  0.5964  -0.2416
6.256e+09  0.9301  -0.1238  0.02455  0.03374  -0.01007  -0.03557  0.4777  -0.4079
6.258e+09  0.8329  -0.4274  0.009882  -0.01277  0.01304  -0.01016  0.2771  -0.6157
6.259e+09  0.5697  -0.6976  -0.008214  0.02561  0.02689  -0.03896  0.014  -0.6927
6.26e+09  0.3042  -0.8134  0.0167  -0.007089  0.001063  -0.02354  -0.2215  -0.6402
6.261e+09  0.02072  -0.9705  -0.01694  -0.007331  -0.01521  -0.01536  -0.4443  -0.5345
6.262e+09  -0.3423  -0.8339  0.005233  -0.03571  0.03541  0.005916  -0.6437  -0.355
6.264e+09  -0.5513  -0.6869  -0.04098  0.01421  0.01472  0.01517  -0.6806  -0.09748
6.265e+09  -0.7432  -0.4944  -0.004732  -0.002019  0.01971  0.03488  -0.7127  0.1538
6.266e+09  -0.8671  -0.1441  -0.0118  0.02908  -0.04859  0.004023  -0.5978  0.3844
6.268e+09  -0.8476  0.1079  0.01834  0.007974  -0.02055  0.02553  -0.4438  0.5892
6.269e+09  -0.7878  0.4585  -0.001655  -0.00945  0.002997  0.004213  -0.2316  0.6859
6.27e+09  -0.5921  0.6528  0.0219  0.01196  0.008905  0.04303  0.06407  0.7401
6.271e+09  -0.2804  0.8855  -0.01955  0.02828  0.02441  0.02008  0.3252  0.6504
6.272e+09  0.03759  0.8865  -0.02437  -0.04225  -0.03206  0.007345  0.5323  0.5112
6.274e+09  0.3323  0.8487  -0.0002863  0.008204  0.06135  0.03327  0.7167  0.3167
6.275e+09  0.5518  0.7003  0.004585  0.01905  0.03806  0.0273  0.7464  0.03791
6.276e+09  0.7956  0.4617  0.005502  0.03385  0.0567  0.01124  0.7312  -0.2301
6.278e+09  0.8979  0.17  -0.0002422  0.01313  -0.004178  -0.04169  0.6172  -0.4857
6.279e+09  0.9004  -0.1854  0.03103  -0.01062  0.003352  -0.005079  0.4163  -0.6622
6.28e+09  0.7933  -0.4796  0.01828  -0.001898  -0.01716  -0.03109  0.1624  -0.7403
6.281e+09  0.5361  -0.6621  -0.01224  0.0002193  -0.005427  -0.03284  -0.1113  -0.7924
6.282e+09  0.3  -0.8436  -0.01489  0.01055  -0.02643  -0.006753  -0.3578  -0.6783
6.284e+09  0.01109  -0.8942  -0.01505  -0.006694  -0.04399  -0.03958  -0.5889  -0.5026
6.285e+09  -0.3664  -0.765  0.01359  0.03505  0.006555  -0.02929  -0.7463  -0.2812
6.286e+09  -0.596  -0.5618  0.0005498  -0.0003971  -0.02304  0.03127  -0.7984  -0.01202
6.288e+09  -0.8317  -0.3931  -0.04402  0.0201  -0.02642  0.06895  -0.7662  0.2819
6.289e+09  -0.9127  -0.105  -0.01517  -0.02897  -0.02875  0.05686  -0.6403  0.4741
6.29e+09  -0.904  0.2224  -0.02924  -0.007369  0.01071  0.002246  -0.4092  0.7037
6.291e+09  -0.7701  0.5065  -0.02273  0.01691  0.008862  0.0139  -0.1467  0.8082
6.292e+09  -0.545  0.7395  -0.007728  -0.01635  -0.01661  -0.01657  0.1203  0.8007
6.294e+09  -0.2191  0.8454  0.008601  0.002858  0.04935  0.03269  0.3921  0.7002
6.295e+09  0.06692  0.872  -0.002231  0.02124  -0.03129  0.02063  0.62  0.5348
6.296e+09  0.3662  0.8226  0.01042  0.01605  -0.03279  -0.01877  0.7617  0.2789
6.298e+09  0.6579  0.6458  0.005237  0.02761  0.0369  -0.008378  0.8324  -0.008754
6.299e+09  0.8424  0.378  0.006963  -0.0143  0.05347  -0.01329  0.7711  -0.2816
6.3e+09  0.937  0.05544  -0.008047  0.001698  -0.02336  0.04731  0.6324  -0.5208
6.301e+09  0.8833  -0.2723  0.01327  -0.03253  0.003717  0.01611  0.4437  -0.766
6.302e+09  0.7379  -0.5562  -0.02622  -0.01254  -0.007843  -0.03063  0.1485  -0.8224
6.304e+09  0.4639  -0.7872  0.004049  0.005778  -0.01986  0.01062  -0.1632  -0.8112
6.305e+09  0.2034  -0.8923  -0.03064  0.004414  -0.007802  -0.01117  -0.4245  -0.7394
6.306e+09  -0.1737  -0.8807  0.03855  0.01885  -0.01476  0.001442  -0.6602  -0.5679
6.308e+09  -0.4726  -0.7973  0.01017  -0.01029  -0.03533  0.01157  -0.8433  -0.3264
6.309e+09  -0.7599  -0.5849  0.02541  -0.02966  -0.007381  0.0275  -0.864  0.003738
6.31e+09  -0.8607  -0.2892  -0.02857  -0.02117  -0.06519  -0.02756  -0.8057  0.2593
6.311e+09  -0.9313  0.01612  0.009701  -0.007405  -0.01222  0.0237  -0.6489  0.5531
6.312e+09  -0.915  0.3436  0.001713  0.02744  0.03378  0.02351  -0.4535  0.7569
6.314e+09  -0.7156  0.662  0.0008359  -0.003565  0.04469  -0.001238  -0.1678  0.8787
6.315e+09  -0.4277  0.8598  -0.003177  -0.008731  0.05031  0.01756  0.1456  0.876
6.316e+09  -0.1068  0.9539  -0.01827  0.003515  0.01879  0.01673  0.3876  0.7663
6.318e+09  0.2388  0.9035  0.00378  -0.01757  -0.02958  -0.02857  0.6837  0.5736
6.319e+09  0.5343  0.7971  0.02675  -0.0006988  -0.03169  -0.01443  0.8215  0.2883
6.32e+09  0.7534  0.566  0.009314  0.02888  -0.01281  -0.00188  0.901  0.009516
6.321e+09  0.9503  0.2212  0.002957  0.001248  -0.007232  -0.0009002  0.8347  -0.2973
6.322e+09  0.9736  -0.05124  0.001746  -0.007278  -0.05416  0.02206  0.656  -0.556
6.324e+09  0.8856  -0.4434  0.009159  -0.003427  -0.02182  -0.004251  0.4609  -0.7904
6.325e+09  0.6497  -0.7032  -0.03077  -0.0106  -0.007725  -0.008718  0.1803  -0.8777
6.326e+09  0.4159  -0.876  -0.009091  -0.01326  -0.005248  0.008874  -0.1665  -0.903
6.328e+09  -0.002411  -0.988  -0.007032  -0.006824  -0.007356  0.008842  -0.4231  -0.8076
6.329e+09  -0.3129  -0.9297  0.01052  0.02967  -0.05997  0.05502  -0.6569  -0.5986
6.33e+09  -0.6093  -0.7781  0.01304  -0.005573  -0.007927  -0.01031  -0.8346  -0.314
6.331e+09  -0.827  -0.5012  -0.01625  -0.01725  -0.007484  0.01413  -0.884  -0.04228
6.332e+09  -0.9828  -0.204  -0.02056  -0.02676  0.004591  -0.01944  -0.8629  0.2989
6.334e+09  -1.004  0.1592  0.002319  0.006697  0.0379  0.008788  -0.7282  0.5647
6.335e+09  -0.8292  0.4989  0.007643  0.03439  0.0116  -0.02153  -0.5119  0.7453
6.336e+09  -0.5998  0.7125  0.05584  -0.01537  0.009027  0.03379  -0.2039  0.894
6.338e+09  -0.282  0.9349  -0.01295  0.0001145  0.006591  0.03495  0.1296  0.911
6.339e+09  0.08846  1.013  -0.01429  0.01549  0.04654  0.01551  0.4401  0.833
6.34e+09  0.4136  0.8938  -0.0232  -0.03211  -0.01983  -0.05479  0.6747  0.6578
6.341e+09  0.6673  0.7025  -0.0127  0.01137  0.02149  -0.01361  0.8809  0.3525
6.342e+09  0.875  0.4105  0.0002873  0.008484  -0.008874  0.006096  0.9614  0.0461
6.344e+09  0.9669  0.1153  0.004726  0.04964  -0.02819  -0.007367  0.8761  -0.2792
6.345e+09  0.9651  -0.2472  -0.009057  -0.004406  0.009232  -0.0295  0.7013  -0.5666
6.346e+09  0.7927  -0.6103  0.002998  0.006424  0.05804  0.00271  0.5212  -0.7751
6.348e+09  0.5873  -0.8564  -0.02683  0.006285  0.02757  -0.006723  0.1999  -0.9551
6.349e+09  0.2508  -0.914  0.00741  -0.006476  -0.009631  0.01889  -0.1007  -0.9484
6.35e+09  -0.1187  -1.012  -0.005605  -0.01097  -0.00352  -0.01055  -0.4341  -0.859
6.351e+09  -0.4414  -0.8823  0.008573  0.014  -0.00577  0.003511  -0.6814  -0.6707
6.352e+09  -0.7243  -0.6995  -0.01785  0.007706  -0.01656  0.04999  -0.838  -0.421
6.354e+09  -0.9187  -0.3777  -0.01191  -0.03446  0.01674  -0.02422  -0.9189  -0.05631
6.355e+09  -0.984  0.06408  -0.00846  0.02555  -0.03773  0.01676  -0.908  0.2767
6.356e+09  -0.9209  0.398  -0.007075  -0.01135  -0.001985  0.02656  -0.764  0.5833
6.358e+09  -0.7117  0.5886  -0.009918  0.01556  0.0002576  -0.01624  -0.5203  0.7872
6.359e+09  -0.514  0.8567  0.006465  0.008475  -0.04362  0.006711  -0.2256  0.9362
6.36e+09  -0.1202  0.9854  0.005798  -0.02894  0.006587  0.01461  0.1337  0.9143
6.361e+09  0.2147  1.007  0.005556  0.0517  0.006335  0.006623  0.4034  0.8185
6.362e+09  0.5266  0.8018  -0.008736  0.006908  -0.01145  0.02005  0.6739  0.6592
6.364e+09  0.7995  0.5798  -0.009763  -0.01691  0.03642  -0.02684  0.9091  0.3692
6.365e+09  0.9672  0.31  -0.004549  -0.03054  0.01858  -0.03432  0.9609  0.07963
6.366e+09  0.9566  -0.05213  -0.04669  0.003165  -0.007048  -0.01515  0.8737  -0.246
6.368e+09  0.8878  -0.3772  -0.00758  0.001181  -0.01904  0.0172  0.7923  -0.5238
6.369e+09  0.719  -0.6813  0.03  -0.004542  0.008323  -0.04185  0.538  -0.7752
6.37e+09  0.4202  -0.8871  0.0007982  -0.005573  0.001242  0.01414  0.1887  -0.9146
6.371e+09  0.08608  -0.9663  -0.01888  0.02269  -0.005492  -0.01162  -0.1114  -0.9808
6.372e+09  -0.2042  -0.9261  -0.03024  -0.01953  0.00413  -0.03583  -0.4111  -0.8452
6.374e+09  -0.588  -0.7716  -0.027  -0.01238  -0.02068  0.04259  -0.65  -0.7164
6.375e+09  -0.7684  -0.5212  -0.01888  -0.03787  0.01046  -0.05066  -0.8661  -0.3858
6.376e+09  -0.9489  -0.2467  -0.02215  -0.005006  -0.03913  -0.03931  -0.9082  -0.05962
6.378e+09  -0.9434  0.1309  0.002708  0.008345  -0.04598  -0.005249  -0.8957  0.2282
6.379e+09  -0.8771  0.4744  -0.02413  -0.02381  0.01019  0.01609  -0.7974  0.5471
6.38e+09  -0.6842  0.699  -0.008163  0.005627  0.006806  0.02832  -0.5564  0.7763
6.381e+09  -0.373  0.8597  -0.006015  0.01948  -0.007244  0.01764  -0.2376  0.9285
6.382e+09  -0.01763  0.96  0.005502  0.0139  0.02138  -0.02567  0.07512  0.9915
6.384e+09  0.308  0.9338  -0.00648  0.03213  0.002071  -0.0236  0.3838  0.8301
6.385e+09  0.5794  0.738  -0.0103  0.01424  -0.02705  0.03326  0.6868  0.6246
6.386e+09  0.7892  0.5082  -0.01564  0.001532  -0.06948  -0.0205  0.8245  0.4655
6.388e+09  0.9483  0.2011  0.02563  -0.003614  -0.03212  -0.007983  0.8947  0.1361
6.389e+09  0.8914  -0.1233  0.01012  -0.03045  0.009418  0.005373  0.942  -0.1913
6.39e+09  0.8456  -0.4724  0.002731  -0.008855  0.01752  0.02684  0.7544  -0.4974
6.391e+09  0.58  -0.7236  0.03214  0.0177  -0.008771  -0.005633  0.5378  -0.7342
6.392e+09  0.3498  -0.9238  0.02547  -0.01857  0.006866  -0.04553  0.299  -0.9035
6.394e+09  0.01803  -0.9526  0.005893  0.006805  -0.01302  0.01319  -0.08295  -0.9541
6.395e+09  -0.3148  -0.8894  -0.002128  0.02682  0.02584  -0.003933  -0.31  -0.8584
6.396e+09  -0.617  -0.7409  0.03255  0.05352  0.02707  0.04632  -0.6211  -0.6801
6.398e+09  -0.8074  -0.4646  -0.00461  -0.005363  -0.01676  -0.001665  -0.7916  -0.4023
6.399e+09  -0.93  -0.1781  0.01675  0.01384  -0.02766  0.03206  -0.8886  -0.1363
6.4e+09  -0.938  0.1828  -0.02618  0.02332  0.003584  -0.0426  -0.8843  0.1737
6.401e+09  -0.7742  0.4787  -0.03186  0.009438  -0.01282  0.02927  -0.7878  0.448
6.402e+09  -0.6131  0.7546  -0.04835  -0.01067  0.008366  -0.01176  -0.5857  0.6978
6.404e+09  -0.3034  0.8458  -0.02759  0.02762  -0.06336  -0.01563  -0.3184  0.8824
6.405e+09  0.0256  0.9893  -0.008729  -0.01785  -0.01213  0.05226  -0.005212  0.9072
6.406e+09  0.3554  0.8552  -0.001592  0.01419  0.02273  0.02754  0.3107  0.869
6.408e+09  0.5622  0.7248  -0.007935  -0.03264  0.04516  -0.04144  0.5937  0.7281
6.409e+09  0.8374  0.4443  0.02005  0.001583  0.03862  0.01285  0.7823  0.4497
6.41e+09  0.9266  0.1492  0.03696  0.00774  -0.02126  -0.03462  0.8857  0.1597
6.411e+09  0.9249  -0.1661  -0.02318  0.002498  0.0319  0.001415  0.9326  -0.1074
6.412e+09  0.8116  -0.4595  0.02577  0.01811  0.009165  0.02069  0.7767  -0.4624
6.414e+09  0.6176  -0.7474  0.03192  -0.003029  0.0005562  0.01152  0.6053  -0.7257
6.415e+09  0.2674  -0.8985  0.01994  -0.02987  0.002445  0.0006141  0.3456  -0.8494
6.416e+09  0.01067  -0.9246  -0.01916  -0.01124  -0.009558  -0.005514  0.01107  -0.9197
6.418e+09  -0.3437  -0.8907  0.0354  0.03728  -0.00308  -0.01957  -0.2884  -0.8638
6.419e+09  -0.626  -0.6537  0.01819  -0.03573  -0.02459  0.009294  -0.542  -0.6929
6.42e+09  -0.8313  -0.4625  0.0266  0.002761  -0.002723  0.03788  -0.7399  -0.4689
6.421e+09  -0.9513  -0.1275  0.004578  0.02226  0.006042  0.02951  -0.8771  -0.1778
6.422e+09  -0.9386  0.2061  0.02379  -0.02003  -0.04276  -0.0004861  -0.915  0.08744
6.424e+09  -0.8113  0.4789  -0.0103  -0.005559  -0.01354  0.02538  -0.7326  0.3857
6.425e+09  -0.566  0.7733  -0.0259  0.01049  -0.02415  0.01822  -0.6138  0.6832
6.426e+09  -0.2614  0.8913  -0.011  -0.001853  -0.02812  -0.03058  -0.3471  0.7864
6.428e+09  0.07295  0.9368  0.004508  -0.02593  0.007477  -0.0439  -0.02959  0.8395
6.429e+09  0.3778  0.9003  -0.03333  -0.009847  0.008673  -0.04679  0.2715  0.8557
6.43e+09  0.6616  0.7343  -0.01763  0.01231  -0.01278  -0.03727  0.5418  0.7217
6.431e+09  0.8321  0.4043  -0.02858  0.005713  0.01592  -0.01893  0.7121  0.4766
6.432e+09  0.9744  0.1401  0.01508  0.03283  0.02394  -0.04412  0.8938  0.2038
6.434e+09  0.8902  -0.2336  -0.03586  -0.01053  -0.0293  0.0261  0.8738  -0.1171
6.435e+09  0.8314  -0.5237  0.007842  0.01361  0.02164  0.02383  0.7914  -0.3753
6.436e+09  0.5152  -0.7727  -0.008009  -0.01762  -0.007132  -0.03744  0.6015  -0.5947
6.438e+09  0.2175  -0.9671  -0.001588  -0.002686  -0.04034  0.002493  0.3255  -0.814
6.439e+09  -0.1144  -0.9563  0.02088  0.03561  0.0001033  0.02664  0.02723  -0.8223
6.44e+09  -0.4215  -0.8382  0.003264  -0.02115  -0.0004366  -0.004464  -0.2232  -0.8163
6.441e+09  -0.7392  -0.6881  -0.01036  0.004899  -0.004889  0.02179  -0.4833  -0.7024
6.442e+09  -0.8683  -0.414  -0.02667  -0.009268  -0.03554  0.002778  -0.722  -0.482
6.444e+09  -0.9854  -0.04685  0.01336  -0.0534  -0.0249  -0.0257  -0.8468  -0.2434
6.445e+09  -0.9144  0.273  0.0001056  -0.003026  -0.002363  0.03242  -0.8142  0.1229
6.446e+09  -0.778  0.5384  -0.0441  0.04591  0.01659  0.01216  -0.7785  0.3397
6.448e+09  -0.5195  0.8385  0.008211  -0.02272  -0.005579  0.008863  -0.552  0.5828
6.449e+09  -0.2535  0.9692  0.006942  -0.03217  -0.008356  0.004789  -0.3343  0.8042
6.45e+09  0.1541  0.9664  -0.01315  0.01672  -0.02213  0.05437  -0.08894  0.8501
6.451e+09  0.4327  0.8549  -0.02404  -0.01835  0.01534  0.03166  0.2399  0.8189
6.452e+09  0.7199  0.6356  0.02791  -0.0172  -0.009771  -0.005281  0.4885  0.6815
6.454e+09  0.911  0.3106  0.004597  0.03936  -0.04411  -0.01366  0.6682  0.4827
6.455e+09  1.027  0.04837  0.003115  -0.00836  0.01025  0.05226  0.8256  0.2368
6.456e+09  0.9466  -0.3058  0.005469  0.004852  -0.003749  -0.03777  0.8402  -0.06109
6.458e+09  0.7852  -0.665  0.03181  -0.04269  -0.04928  0.02697  0.7117  -0.3202
6.459e+09  0.4926  -0.8254  0.0002821  0.02866  0.04213  -0.005227  0.6251  -0.5826
6.46e+09  0.1704  -1.022  -0.04782  0.04537  0.04475  -0.0121  0.3889  -0.7369
6.461e+09  -0.2169  -0.9782  -0.0179  0.01203  -0.02601  -0.04341  0.06015  -0.8395
6.462e+09  -0.4971  -0.8239  -0.01133  -0.0244  0.01844  -0.03106  -0.2174  -0.8122
6.464e+09  -0.8263  -0.6238  -0.03079  0.02903  0.004995  0.01469  -0.4746  -0.6988
6.465e+09  -0.9629  -0.3305  0.01923  -0.01371  0.003924  0.03267  -0.706  -0.4704
6.466e+09  -1.004  0.0751  0.01626  0.04337  0.04407  -0.01698  -0.7847  -0.228
6.468e+09  -0.9273  0.3967  -0.03516  -0.02804  -0.06843  -0.003028  -0.7916  0.1138
6.469e+09  -0.7067  0.6829  0.01864  -0.005951  -0.09662  -0.007732  -0.746  0.3313
6.47e+09  -0.4516  0.9449  0.01676  -0.01811  -0.001159  -0.03588  -0.5589  0.5973
6.471e+09  -0.08589  0.9945  -0.002607  -0.00529  -0.001219  0.006657  -0.3384  0.7279
6.472e+09  0.283  1.019  -0.03265  0.003765  -0.01712  0.01988  -0.1348  0.7841
6.474e+09  0.6297  0.7946  0.01802  -0.02396  0.01411  0.01046  0.1272  0.759
6.475e+09  0.8326  0.5192  0.01932  -0.03312  0.04529  -0.02339  0.4655  0.6992
6.476e+09  0.9866  0.2329  -0.01817  0.006567  -0.06098  -0.02577  0.6629  0.4263
6.478e+09  1.066  -0.1249  0.03509  0.00265  -0.0364  -0.008082  0.7871  0.2082
6.479e+09  0.8968  -0.4362  0.03462  -0.03776  -0.005691  -0.001455  0.7849  -0.03288
6.48e+09  0.6841  -0.7874  -0.007921  0.01797  0.04774  0.01702  0.7142  -0.3409
6.481e+09  0.4032  -0.9406  -0.02569  0.00368  0.0006393  0.01955  0.5551  -0.5648
6.482e+09  -0.02202  -1.047  -0.04682  -0.01623  -0.0201  0.01883  0.2895  -0.7325
6.484e+09  -0.3768  -0.9637  -0.05032  0.003228  0.04732  -0.01406  0.02487  -0.7843
6.485e+09  -0.6462  -0.7879  -0.01511  0.000724  0.001943  -0.01539  -0.2248  -0.7111
6.486e+09  -0.8746  -0.5247  0.01555  0.01835  -0.0312  0.003191  -0.4118  -0.6271
6.488e+09  -1.726  -0.3469  0.0008406  0.007871  -0.171  -0.7256  -0.6126  -0.4764
6.489e+09  -1.005  0.2267  0.01042  0.008344  -0.04612  -0.01428  -0.7225  -0.1661
6.49e+09  -0.8524  0.5658  0.0002809  0.003874  0.002092  -0.02384  -0.7493  0.05381
6.491e+09  -0.577  0.8461  -0.0006744  -0.01546  -0.06167  -0.008013  -0.6545  0.3379
6.492e+09  -0.2526  0.9682  -0.05857  0.02553  -0.006381  -0.01796  -0.5271  0.5919
6.494e+09  -0.04218  1.043  -0.01179  0.009312  -0.003003  0.1246  -0.353  0.7056
6.495e+09  0.4325  0.8961  -0.03677  0.002987  -0.009292  -0.005435  -0.01061  0.8034
6.496e+09  0.8093  0.7401  0.05449  -0.005418  0.01479  0.02492  0.2045  0.7329
6.498e+09  0.9876  0.4365  0.02648  -0.01821  -0.02363  0.007877  0.4567  0.5994
6.499e+09  1.036  0.06532  0.01503  -0.02624  -0.03486  0.022  0.653  0.4248
6.5e+09  1.114  -0.7343  -0.005889  -0.02657  -0.01685  0.04533  0.7655  0.1492
6.501e+09  0.8302  -0.6484  0.01436  -0.01364  0.0644  -0.03001  0.789  -0.1151
6.502e+09  0.4929  -0.8903  -0.02843  -0.03644  -0.03897  0.03772  0.6994  -0.3563
6.504e+09  0.1605  -0.9986  -0.01532  0.04159  0.03075  -0.008761  0.4687  -0.5835
6.505e+09  -0.2413  -1.039  -0.02494  0.02069  -0.04312  0.006211  0.2771  -0.7193
6.506e+09  -0.5325  -0.8285  0.0157  -0.03642  -0.003592  0.02731  0.02484  -0.7537
6.508e+09  -0.7969  -0.6315  -0.03135  0.01045  -0.02906  -0.0406  -0.2722  -0.7159
6.509e+09  -1.017  -0.2775  -0.04264  0.02092  -0.02295  0.0001419  -0.4492  -0.5605
6.51e+09  -1.024  0.09262  0.02585  0.0009213  -0.02781  -0.01535  -0.6856  -0.3893
6.511e+09  -0.926  0.4045  0.02497  -0.0003129  0.05689  0.009908  -0.7298  -0.1161
6.512e+09  -0.6867  0.699  -0.05794  -0.01685  -0.00841  -0.02357  -0.7486  0.1696
6.514e+09  -0.3883  0.924  0.003471  0.01438  0.03041  0.02962  -0.6693  0.4314
6.515e+09  -0.08097  1.022  -0.0009776  -0.002154  0.06402  0.004529  -0.4323  0.5516
6.516e+09  0.3382  0.9715  -0.006812  -0.01801  -0.04911  0.001915  -0.2551  0.6888
6.518e+09  0.6482  0.7513  0.009996  -0.02386  0.02101  -0.007676  0.009245  0.7267
6.519e+09  0.8409  0.4994  0.02858  0.01405  0.005275  0.01519  0.301  0.7177
6.52e+09  1.003  0.196  -0.006607  -0.002154  -0.02015  0.01819  0.4648  0.5262
6.521e+09  0.9701  -0.2564  0.02112  -0.03226  0.04638  -0.02347  0.6661  0.3533
6.522e+09  0.8585  -0.5705  -0.000805  0.01916  -0.01154  0.04626  0.7298  0.1072
6.524e+09  0.6395  -0.7881  -0.008286  0.01329  0.01495  0.03171  0.7289  -0.1739
6.525e+09  0.2662  -0.9595  -0.006803  0.02732  0.003415  0.05392  0.5749  -0.4053
6.526e+09  -0.0394  -1.022  0.001721  0.006385  0.02071  0.01904  0.4325  -0.6605
6.528e+09  -0.4335  -0.9073  0.007247  0.02646  -0.01688  0.06186  0.2053  -0.6889
6.529e+09  -0.7368  -0.6526  -0.01507  0.008556  -0.01233  -0.0396  -0.0878  -0.6977
6.53e+09  -0.8937  -0.3833  0.01517  -0.008048  -0.00551  0.00743  -0.2414  -0.6529
6.531e+09  -0.9565  -0.09234  0.01449  -0.02088  -0.02255  0.02344  -0.5028  -0.4672
6.532e+09  -0.9215  0.2577  0.01667  -0.03281  -0.004376  0.02297  -0.5898  -0.281
6.534e+09  -0.7083  0.6555  0.02285  0.01274  -0.02472  -0.016  -0.6628  -0.06031
6.535e+09  -0.4704  0.8881  -0.004346  -0.009681  -0.0286  0.05022  -0.6022  0.1513
6.536e+09  -0.12  0.9455  -0.00303  -0.03435  0.01062  -0.01956  -0.5458  0.338
6.538e+09  0.1747  0.9157  -0.01766  -0.007699  -0.008086  -0.009537  -0.4405  0.465
6.539e+09  0.5499  0.8325  0.05061  0.007004  0.06339  -0.04395  -0.2589  0.6425
6.54e+09  0.7075  0.5719  -0.02663  -0.007853  -0.06479  0.03018  -0.08438  0.6726
6.541e+09  0.892  0.2268  -0.01193  0.006205  -0.01003  0.006332  0.1914  0.6527
6.542e+09  0.942  -0.06991  -0.001839  0.01797  0.01648  -0.004046  0.396  0.6266
6.544e+09  0.8905  -0.3711  0.02005  0.006481  -0.01159  -0.04556  0.6208  0.3692
6.545e+09  0.6398  -0.6471  -0.001158  -0.006129  -0.01492  0.01071  0.658  0.1754
6.546e+09  0.3561  -0.858  -0.01849  0.02486  0.005688  -0.01699  0.725  -0.08911
6.548e+09  0.04613  -0.8987  0.007172  0.00316  -0.006379  -0.01688  0.6604  -0.311
6.549e+09  -0.2666  -0.9072  -0.00544  -0.01192  0.01775  0.001718  0.5373  -0.5494
6.55e+09  -0.5665  -0.6772  0.005269  0.01762  0.03032  -0.02501  0.2905  -0.7128
