# Hz S RI R 50
6.25e+09  1.01  0.07859  0.01227  -0.02823  0.02404  0.001983  0.1378  0.5043
6.251e+09  1.012  -0.2358  0.007164  -0.01878  0.02797  -0.09502  0.3997  0.4247
6.252e+09  0.8182  -0.6067  -0.0105  -0.01386  0.01299  -0.006926  0.5628  0.231
6.254e+09  0.554  -0.9035  -0.02755  -0.02803  0.01602  -0.01328  0.6263  0.009074
6.255e+09  0.1745  -0.9636  0.00424  -0.02346  -0.0257  0.03484  0.5769  -0.2219
6.256e+09  -0.2096  -1.02  0.01129  0.003978  -0.02842  0.01546  0.4625  -0.5017
6.258e+09  -0.4931  -0.8366  0.0006088  0.03558  -0.007917  -0.04494  0.2562  -0.6137
6.259e+09  -0.7304  -0.7039  0.013  0.02505  0.007319  -0.03227  0.05799  -0.6604
6.26e+09  -0.8869  -0.3649  0.005309  -0.01188  -0.01034  -0.03245  -0.1991  -0.701
6.261e+09  -1.005  -0.02568  -0.008629  0.01887  0.01088  -0.01858  -0.4419  -0.5481
6.262e+09  -0.9255  0.4175  -0.006834  -0.006559  0.01171  -0.04011  -0.6373  -0.3625
6.264e+09  -0.7247  0.7311  -0.001778  0.0264  -0.01022  -0.07504  -0.6976  -0.122
6.265e+09  -0.4394  0.8506  -0.002187  0.003922  0.03319  0.0278  -0.7195  0.1269
6.266e+09  -0.07833  1.012  0.01555  -0.02191  0.006471  -0.007489  -0.6161  0.3993
6.268e+09  0.2253  0.9367  -0.01864  0.01788  -0.004544  0.0007338  -0.4125  0.5995
6.269e+09  0.6346  0.8469  -0.01134  -0.01525  -0.01624  0.02428  -0.1679  0.6953
6.27e+09  0.8341  0.5654  0.006401  0.04363  0.0439  0.00945  0.08219  0.7492
6.271e+09  1.001  0.2064  -0.01352  0.009194  -0.02776  0.002903  0.3435  0.6813
6.272e+09  0.9837  -0.1814  0.01046  -0.005515  0.04518  0.02155  0.5829  0.5261
6.274e+09  0.8723  -0.5147  -0.0002886  -0.003545  -0.0004585  -0.04154  0.6845  0.3124
6.275e+09  0.6344  -0.7718  -0.0003589  0.01121  -0.02206  -0.01788  0.7591  0.02988
6.276e+09  0.3584  -0.9961  0.0002315  -0.0005491  -0.01929  0.01575  0.7281  -0.1908
6.278e+09  -0.04327  -0.9771  -0.01297  0.01446  0.03411  -0.0385  0.6176  -0.4959
6.279e+09  -0.3686  -0.9629  0.001834  -0.02772  0.03907  -0.01913  0.3975  -0.633
6.28e+09  -0.6576  -0.7048  -0.005746  0.003108  -0.007557  -0.003286  0.1323  -0.7856
6.281e+09  -0.8749  -0.4304  0.01123  -0.02508  0.0002357  0.01937  -0.1113  -0.7962
6.282e+09  -1.064  -0.1267  0.0339  -0.01049  0.02431  0.008765  -0.3585  -0.7054
6.284e+09  -0.9533  0.2497  0.01513  -0.01089  0.02529  -0.06173  -0.5693  -0.5123
6.285e+09  -0.8181  0.5527  -0.0007784  -0.01629  -0.007177  0.02683  -0.7247  -0.2921
6.286e+09  -0.6081  0.8238  -0.01094  -0.03922  0.08409  -0.02886  -0.7929  -0.0355
6.288e+09  -0.2145  0.9909  -0.007733  -0.02157  0.01055  0.02174  -0.7521  0.2874
6.289e+09  0.112  1.022  -0.006026  -0.01482  0.0375  -0.02256  -0.637  0.4764
6.29e+09  0.4567  0.8976  -0.01264  -0.01048  0.00525  0.01479  -0.439  0.6934
6.291e+09  0.7603  0.6626  0.01829  -0.002053  -0.01052  0.03382  -0.1179  0.7758
6.292e+09  0.9809  0.3586  0.008944  0.01507  0.0209  0.001569  0.1222  0.8048
6.294e+09  1.017  0.002006  0.0186  0.02375  -0.01493  0.02498  0.381  0.7309
6.295e+09  0.9003  -0.3901  -0.002873  0.02802  -0.01571  -0.03591  0.584  0.5403
6.296e+09  0.7888  -0.6471  0.01607  0.002307  -0.001966  -0.01948  0.7765  0.2741
6.298e+09  0.4938  -0.8762  -0.02998  -0.01588  0.0231  0.06586  0.8221  -0.01047
6.299e+09  0.1326  -0.9898  0.02041  0.0004747  0.008198  -0.004335  0.7746  -0.2972
6.3e+09  -0.2412  -0.9806  0.01026  -0.004294  0.03507  0.02326  0.6195  -0.5197
6.301e+09  -0.5076  -0.813  -0.01859  0.005199  -0.03357  -0.03942  0.4161  -0.7074
6.302e+09  -0.8865  -0.56  -0.007369  0.01708  -0.05647  -0.02983  0.1369  -0.8225
6.304e+09  -0.9794  -0.2669  -0.002335  -0.001754  -0.02165  0.0118  -0.149  -0.8058
6.305e+09  -1.013  0.1566  -0.01134  0.01352  0.04334  -0.02853  -0.4202  -0.7691
6.306e+09  -0.8741  0.4616  -0.02458  0.01035  0.01303  0.04398  -0.6563  -0.541
6.308e+09  -0.6935  0.7382  0.01103  -0.03454  -0.00195  -0.00158  -0.7868  -0.3005
6.309e+09  -0.3364  0.9213  0.007898  -0.0209  -0.01596  -0.003339  -0.8513  -0.00932
6.31e+09  0.02241  1.014  -0.007537  -0.01217  0.02754  -0.01575  -0.8346  0.2928
6.311e+09  0.3873  0.9558  -0.001655  -0.006694  0.02388  0.02778  -0.6809  0.5599
6.312e+09  0.6697  0.7955  0.001989  0.02955  0.02595  0.01174  -0.4378  0.7321
6.314e+09  0.9282  0.4897  -0.008157  -0.03949  -0.005738  -0.01002  -0.1557  0.8498
6.315e+09  0.9782  0.1157  -0.004098  0.01548  0.01121  -0.009187  0.1235  0.8786
6.316e+09  1.004  -0.1968  -0.01591  -0.02309  -0.02782  0.04456  0.4481  0.7428
6.318e+09  0.8699  -0.5598  -0.005922  -0.001741  0.005809  0.009454  0.7027  0.5718
6.319e+09  0.6197  -0.8091  0.0001457  -0.004143  0.01933  0.007046  0.8319  0.3116
6.32e+09  0.317  -0.9347  -0.000837  0.01726  -0.01151  0.008493  0.9145  0.02973
6.321e+09  -0.06689  -0.9975  0.00563  -0.005942  -0.02148  -0.0208  0.86  -0.2839
6.322e+09  -0.3913  -0.9325  0.01172  0.007171  -0.007813  0.01883  0.6758  -0.5649
6.324e+09  -0.727  -0.7428  -0.03569  -0.008841  0.006213  0.008176  0.4568  -0.7857
6.325e+09  -0.9843  -0.3976  -0.0009367  -0.005701  -0.01897  -0.006323  0.1783  -0.8811
6.326e+09  -1.048  -0.05705  -0.02028  -0.02318  0.03767  -0.0384  -0.1558  -0.9246
6.328e+09  -1.03  0.2883  0.004199  -0.01097  0.008009  0.01111  -0.4154  -0.811
6.329e+09  -0.8658  0.6709  -0.006265  -0.01963  0.02135  0.0378  -0.6728  -0.5834
6.33e+09  -0.567  0.921  0.01595  0.01304  0.004496  0.002591  -0.8638  -0.3282
6.331e+09  -0.1775  1.067  0.0003295  -0.03481  0.005531  -5.893e-05  -0.9106  -0.01824
6.332e+09  0.1798  1.068  0.01339  0.0167  0.0489  -0.06899  -0.8772  0.2822
6.334e+09  0.5241  0.9165  -0.0252  0.003812  0.02175  0.03562  -0.7082  0.5901
6.335e+09  0.8256  0.6718  0.003195  0.01843  -0.02839  -0.01917  -0.5043  0.8247
6.336e+09  1.047  0.3643  -0.006324  -0.01313  -0.008627  -0.02185  -0.2148  0.8959
6.338e+09  1.036  -0.05477  -0.01292  0.01268  0.005242  -0.05256  0.1345  0.8694
6.339e+09  1.01  -0.4271  -0.02447  -0.03327  -0.02142  0.001311  0.4202  0.812
6.34e+09  0.7677  -0.7654  -0.01687  -0.01875  0.00982  -0.0172  0.6791  0.6358
6.341e+09  0.4889  -1.024  0.004876  -0.01143  -0.005692  -0.01858  0.8764  0.3529
6.342e+09  0.112  -1.114  -0.0009179  0.003769  0.04944  -0.02441  0.9597  0.05481
6.344e+09  -0.2423  -1.062  0.008435  -0.01964  -0.04001  0.00541  0.8625  -0.272
6.345e+09  -0.6602  -0.8915  0.02102  0.01436  0.01793  0.01627  0.7335  -0.6121
6.346e+09  -0.8974  -0.6288  -0.01367  0.02674  0.006883  0.01139  0.5208  -0.8006
6.348e+09  -1.099  -0.2794  0.02593  0.02427  0.006536  -0.04585  0.2193  -0.9203
6.349e+09  -1.099  0.1874  -0.008682  0.02066  0.01816  -0.04145  -0.1358  -0.9247
6.35e+09  -1.03  0.4853  -0.01633  -0.02262  0.04309  -0.04459  -0.3904  -0.8451
6.351e+09  -0.6922  0.8326  0.01708  -0.007363  -0.03932  0.01992  -0.6901  -0.6144
6.352e+09  -0.3929  1.047  0.002114  -0.00838  -0.05858  0.02548  -0.8566  -0.3406
6.354e+09  -0.004594  1.152  0.0001729  -0.01537  -0.002831  0.03372  -0.9262  -0.04059
6.355e+09  0.397  1.019  -0.01213  -0.0295  -0.01851  0.01847  -0.9347  0.2681
6.356e+09  0.7479  0.8661  -0.01657  0.007245  0.05243  -0.01378  -0.7669  0.5613
6.358e+09  0.9877  0.5571  0.008276  -0.04088  -0.03739  -0.01515  -0.4823  0.7764
6.359e+09  1.083  0.1732  0.001861  0.01571  0.0153  0.05825  -0.2615  0.9122
6.36e+09  1.072  -0.2831  0.02185  0.002384  0.01645  0.05001  0.09153  0.945
6.361e+09  0.9434  -0.639  -0.03426  -0.005995  -0.003496  -0.009638  0.4329  0.8443
6.362e+09  0.7068  -0.9109  -0.002084  0.01957  0.0268  0.0005778  0.7111  0.6914
6.364e+09  0.3273  -1.131  0.01619  0.007498  0.005306  0.02328  0.8936  0.359
6.365e+09  -0.1004  -1.199  0.03419  -0.01147  0.01135  -0.03131  0.9314  0.106
6.366e+09  -0.5096  -1.092  0.0509  -0.001992  0.02422  -0.02296  0.9118  -0.2444
6.368e+09  -0.8643  -0.7883  -0.01031  0.0448  -0.01222  0.002596  0.7893  -0.5305
6.369e+09  -1.096  -0.4268  -0.007577  -0.004466  0.0695  0.02954  0.5146  -0.7751
6.37e+09  -1.18  -0.004694  -0.0386  0.00901  -0.0169  -0.03565  0.2396  -0.8679
6.371e+09  -1.166  0.4228  -0.006332  -0.01265  -0.01136  0.03216  -0.1191  -0.9586
6.372e+09  -0.9282  0.719  -0.03395  0.004928  0.02896  0.01352  -0.3962  -0.9229
6.374e+09  -0.6244  1.052  0.002865  -0.0009763  -0.006483  0.04821  -0.6734  -0.6849
6.375e+09  -0.1886  1.216  0.006879  -0.004131  0.01117  0.0006823  -0.8368  -0.4151
6.376e+09  0.2604  1.246  0.0005113  0.02727  -0.01618  0.06147  -0.8904  -0.1215
6.378e+09  0.6848  1.087  0.01364  -0.0005287  0.0195  -0.003214  -0.95  0.2246
6.379e+09  0.9455  0.7612  -0.019  -0.01753  -0.04297  -0.0343  -0.7941  0.5642
6.38e+09  1.288  0.3348  -0.01666  -0.03185  0.05566  -0.002213  -0.5027  0.7765
6.381e+09  1.295  -0.1044  -0.02189  -0.003632  0.01307  -0.02464  -0.2404  0.8968
6.382e+09  1.189  -0.5741  -0.03634  0.002958  -0.03687  -0.02103  0.0756  0.9762
6.384e+09  0.9098  -0.9502  -0.01227  -0.01909  0.03723  0.0328  0.3399  0.8406
6.385e+09  0.4999  -1.234  -0.003351  -0.01872  0.008385  -0.02452  0.6598  0.6815
6.386e+09  0.03296  -1.401  -0.03079  -0.04136  0.04182  -0.03229  0.8589  0.3958
6.388e+09  -0.4393  -1.225  0.001801  0.01081  -0.004953  0.006461  0.8768  0.1105
6.389e+09  -0.9242  -1.044  -0.002746  -0.01532  0.01183  0.04628  0.9317  -0.1929
6.39e+09  -1.174  -0.6432  -0.01413  -0.007524  0.03986  0.005158  0.7733  -0.4883
6.391e+09  -1.384  -0.1804  0.01087  -0.001557  -0.00111  0.002702  0.586  -0.7284
6.392e+09  -1.35  0.2953  0.009306  -0.08844  -0.03295  0.02848  0.2858  -0.9006
6.394e+09  -1.177  0.7491  -0.001746  0.01416  0.01093  0.009042  -0.03549  -0.9344
6.395e+09  -0.9048  1.124  -0.03436  0.01517  0.009818  0.002549  -0.3451  -0.8601
6.396e+09  -0.3818  1.364  0.01302  0.008475  -0.01512  -0.0005243  -0.6423  -0.6661
6.398e+09  0.1211  1.431  0.001217  -0.02251  -0.01636  0.01481  -0.8193  -0.4795
6.399e+09  0.7358  1.335  -0.01556  0.009399  -0.01368  -0.01969  -0.9228  -0.109
6.4e+09  1.084  1.047  -0.0317  0.009506  0.006979  0.01614  -0.8598  0.1875
6.401e+09  1.356  0.5177  0.02916  0.01627  -0.05685  0.01973  -0.8135  0.4749
6.402e+09  1.503  -0.04469  -0.02305  0.008384  -0.0052  -0.01493  -0.581  0.7352
6.404e+09  1.371  -0.5075  0.02294  -0.007754  -0.02052  -0.01914  -0.293  0.8585
6.405e+09  1.111  -1.044  -0.007928  -0.07112  0.01097  -0.01424  -0.003644  0.9312
6.406e+09  0.7269  -1.405  0.01923  0.002119  0.04009  0.04279  0.3012  0.854
6.408e+09  0.07324  -1.63  -0.01035  0.009355  -0.0101  -0.02407  0.5795  0.6987
6.409e+09  -0.4964  -1.551  0.007196  -0.01375  0.007662  -0.007435  0.7648  0.4875
6.41e+09  -1.011  -1.318  -0.03361  0.002531  -0.01378  0.01728  0.9259  0.1633
6.411e+09  -1.402  -0.7603  -0.02911  0.0301  -0.0331  0.01391  0.9194  -0.113
6.412e+09  -1.638  -0.2004  -0.02947  0.03652  -0.05778  -0.01033  0.8413  -0.4543
6.414e+09  -1.553  0.3979  0.001044  -0.0129  -0.004512  0.02125  0.5943  -0.6734
6.415e+09  -1.342  0.9941  -0.009219  -0.01311  -0.008891  0.02679  0.3344  -0.8412
6.416e+09  -0.8249  1.446  0.02464  -0.001494  -0.01058  0.07227  0.003602  -0.8749
6.418e+09  -0.2688  1.591  -0.01784  0.03119  -0.03273  9.808e-05  -0.2428  -0.8511
6.419e+09  0.3673  1.657  0.02063  -0.01103  0.02087  0.001219  -0.5611  -0.7559
6.42e+09  0.956  1.421  -0.02306  -0.01019  0.01072  -0.02575  -0.7776  -0.4684
6.421e+09  1.421  0.9695  0.01611  0.02161  -0.02401  -0.01887  -0.8768  -0.1945
6.422e+09  1.662  0.3777  -0.03244  0.0376  0.0278  -0.01645  -0.878  0.09913
6.424e+09  1.641  -0.2842  0.006833  -0.03851  -0.02921  0.04438  -0.8055  0.4331
6.425e+09  1.479  -0.8764  -0.02447  -0.003255  -0.0005057  0.01298  -0.6146  0.6724
6.426e+09  1.06  -1.396  0.01349  -0.0235  -0.0234  -0.02344  -0.299  0.802
6.428e+09  0.4774  -1.62  -0.009165  -0.05986  -0.004138  -0.07788  -0.07526  0.8489
6.429e+09  -0.1934  -1.733  0.03097  -0.01796  -0.009896  0.009536  0.2916  0.8139
6.43e+09  -0.8394  -1.497  0.00332  0.0139  -0.02801  0.00548  0.5497  0.6891
6.431e+09  -1.383  -1.167  0.04206  0.0003923  -0.01593  -0.001444  0.7404  0.4365
6.432e+09  -1.646  -0.4936  0.002209  0.01546  -0.03023  -0.01187  0.8936  0.1929
6.434e+09  -1.718  0.123  -0.01811  -0.00394  0.02494  -0.03447  0.8576  -0.052
6.435e+09  -1.538  0.8023  0.04908  0.03021  0.003841  0.01643  0.7642  -0.3425
6.436e+09  -1.14  1.28  0.01131  -0.05755  -0.0246  0.01817  0.6188  -0.6346
6.438e+09  -0.5597  1.581  0.03238  -0.02156  -0.001303  -0.01168  0.3702  -0.7885
6.439e+09  -0.01117  1.67  0.02925  -0.0005239  0.00516  0.001504  0.05733  -0.8341
6.44e+09  0.6226  1.561  -0.0292  -0.04448  0.007472  0.02606  -0.2405  -0.8522
6.441e+09  1.174  1.164  -0.02156  -0.009225  0.02225  -0.0359  -0.4872  -0.6911
6.442e+09  1.476  0.6705  0.0234  -0.01891  -0.0147  -0.05376  -0.7036  -0.5362
6.444e+09  1.623  0.09099  0.03485  0.02249  0.005012  -0.05749  -0.8445  -0.2181
6.445e+09  1.508  -0.5047  -0.0248  0.01146  -0.0133  0.02983  -0.8626  0.08416
6.446e+09  1.231  -1.063  -0.005309  -0.0009315  0.01819  0.01793  -0.753  0.3664
6.448e+09  0.7619  -1.386  0.02278  0.02186  0.04207  -0.01343  -0.6092  0.572
6.449e+09  0.1725  -1.542  0.01491  0.01106  -0.006214  -0.03158  -0.3323  0.8152
6.45e+09  -0.4391  -1.518  0.02145  0.003674  0.02962  -0.02472  -0.03367  0.876
6.451e+09  -0.9428  -1.21  0.009719  0.0005373  -0.001534  0.08344  0.2026  0.8445
6.452e+09  -1.289  -0.7694  -0.04313  -0.01376  -0.04062  -0.003413  0.4988  0.7193
6.454e+09  -1.395  -0.319  -0.01332  0.01512  -0.001622  -0.03448  0.6998  0.442
6.455e+09  -1.505  0.2503  -0.02478  0.01061  0.02  -0.00444  0.8491  0.1813
6.456e+09  -1.31  0.8076  0.03371  -0.01417  0.01029  -0.02874  0.8124  -0.1035
6.458e+09  -0.9684  1.15  -0.03405  -0.03715  -0.003916  0.001414  0.755  -0.3537
6.459e+09  -0.459  1.37  -0.01409  -0.0278  -0.005825  0.014  0.5812  -0.5611
6.46e+09  0.07661  1.443  0.06514  -0.01857  -0.009332  0.0007301  0.3715  -0.7313
6.461e+09  0.6029  1.309  0.006882  -0.01727  0.0246  -0.00972  0.05815  -0.8345
6.462e+09  1.012  1.037  -0.02214  -0.04498  0.002304  -0.05233  -0.1673  -0.76
6.464e+09  1.354  0.5637  -5.756e-05  -0.02766  0.02706  -0.02514  -0.4837  -0.6741
6.465e+09  1.345  0.0414  0.03247  0.00316  0.01127  0.0026  -0.7026  -0.4407
6.466e+09  1.339  -0.4442  -0.009036  -0.001607  0.04133  0.0248  -0.7469  -0.1839
6.468e+09  1.095  -0.8724  0.01141  -0.01729  -0.03684  0.04361  -0.8148  0.04386
6.469e+09  0.6997  -1.15  0.001838  0.02282  -0.03669  -0.01281  -0.7296  0.3477
6.47e+09  0.1939  -1.323  -0.02158  -0.04953  -0.0004385  -0.02958  -0.5791  0.5837
6.471e+09  -0.2856  -1.299  0.0001985  -0.001164  0.02121  -0.01867  -0.3554  0.7091
6.472e+09  -0.7148  -1.134  0.01636  0.0339  0.01635  -0.03064  -0.06488  0.8056
6.474e+09  -1.07  -0.8006  -0.03693  -0.01835  0.002554  0.03449  0.2443  0.7264
6.475e+09  -1.271  -0.3894  -0.028  0.02803  0.02895  0.0321  0.472  0.6378
6.476e+09  -1.371  0.09917  0.002008  -0.01201  0.01826  0.01974  0.6226  0.4606
6.478e+09  -1.242  0.5192  0.009654  -0.01048  0.02618  -0.03655  0.7395  0.1845
6.479e+09  -0.9439  0.9249  -0.04523  0.02006  0.007816  0.04927  0.8151  -0.05713
6.48e+09  -0.5034  1.148  0.01762  -0.007008  -0.03343  -0.01175  0.7068  -0.3338
6.481e+09  -0.05136  1.259  -0.003975  0.02972  0.02374  0.001292  0.5304  -0.5658
6.482e+09  0.376  1.233  -0.01579  -0.03533  -0.0008888  -0.02462  0.3118  -0.7166
6.484e+09  0.7794  0.9677  -0.009159  -0.01209  0.005714  0.05697  0.0317  -0.7661
6.485e+09  1.057  0.6293  0.01836  -0.001079  0.007814  -0.005331  -0.2274  -0.742
6.486e+09  1.199  0.2723  0.004393  0.01527  -0.0256  0.02925  -0.4806  -0.6019
6.488e+09  0.6313  0.1791  -0.02197  0.01857  0.01859  -0.7271  -0.6642  -0.4186
6.489e+09  1.11  -0.605  0.01656  -0.03547  0.04815  0.006477  -0.7349  -0.1752
6.49e+09  0.776  -0.932  0.02477  0.009845  -0.03072  0.0003512  -0.755  0.1002
6.491e+09  0.4631  -1.21  -0.0134  0.02828  0.009155  0.01386  -0.6901  0.3315
6.492e+09  0.01643  -1.237  0.02474  -0.007404  -0.01863  0.006096  -0.5057  0.5796
6.494e+09  -0.4222  -1.261  -0.01388  0.02078  0.145  0.01334  -0.305  0.7012
6.495e+09  -0.8296  -0.8877  0.01535  0.01711  0.03674  -0.04371  -0.02618  0.7701
6.496e+09  -1.09  -0.5672  0.01169  0.007253  0.01931  0.03286  0.2092  0.7498
6.498e+09  -1.27  -0.1914  0.01406  -0.003601  -0.006866  0.009634  0.501  0.5845
6.499e+09  -1.182  0.2541  -0.02345  0.01069  -0.02922  0.03981  0.6558  0.4338
6.5e+09  -0.2822  0.09899  -0.0101  0.04564  0.03303  -0.0314  0.7577  0.1685
6.501e+09  -0.6933  0.956  0.017  -0.01298  0.02123  0.01127  0.7785  -0.1283
6.502e+09  -0.3482  1.206  0.003495  -0.02135  -0.005595  0.03189  0.694  -0.3549
6.504e+09  0.0815  1.172  -0.04018  0.007846  0.00124  0.0306  0.5027  -0.5275
6.505e+09  0.4806  1.09  -0.0154  0.0004895  0.01409  -0.03387  0.3238  -0.7073
6.506e+09  0.9323  0.8617  -0.0244  0.001958  0.006889  -0.006566  0.01722  -0.7405
6.508e+09  1.078  0.5228  0.01316  0.0002345  -0.009451  0.01272  -0.2705  -0.7074
6.509e+09  1.153  0.09551  0.01392  -0.07538  -0.003738  -0.002032  -0.4621  -0.5959
6.51e+09  1.152  -0.3115  0.04348  0.02293  0.01261  -0.01928  -0.6477  -0.4155
6.511e+09  0.9878  -0.7721  -0.02413  -0.02418  -0.0217  0.01714  -0.7603  -0.1362
6.512e+09  0.6733  -1.03  0.02454  0.008348  -0.04077  0.008342  -0.7237  0.1371
6.514e+09  0.2565  -1.24  0.02314  0.02532  -0.03667  -0.0008788  -0.6937  0.4163
6.515e+09  -0.1734  -1.217  0.0003212  -0.01226  -0.05589  -0.0259  -0.4958  0.5985
6.516e+09  -0.621  -1.148  0.004619  0.01321  0.01193  0.008828  -0.2185  0.7102
6.518e+09  -0.964  -0.8725  0.02369  -0.0124  0.02532  0.03442  0.0001579  0.724
6.519e+09  -1.166  -0.4924  0.007146  0.004087  -0.003217  0.0771  0.2354  0.6918
6.52e+09  -1.312  -0.04213  -0.04296  0.02417  0.00255  0.0423  0.5117  0.5241
6.521e+09  -1.202  0.3971  -0.01391  -0.02941  -0.03529  0.01985  0.6493  0.3316
6.522e+09  -1.04  0.8357  -0.0175  0.02102  -0.004035  0.02057  0.7612  0.09476
6.524e+09  -0.6528  1.121  0.0281  0.005475  -0.003626  -0.02479  0.7263  -0.1601
6.525e+09  -0.2634  1.266  0.001782  0.00571  -0.03321  -0.0117  0.5914  -0.3917
6.526e+09  0.3038  1.292  0.01043  -0.01903  0.007357  0.02384  0.4268  -0.5779
6.528e+09  0.7011  1.147  0.00103  0.002463  -0.01626  0.04177  0.1992  -0.6777
6.529e+09  1.043  0.8294  -0.01267  0.001902  0.03541  -0.006609  -0.04293  -0.6925
6.53e+09  1.317  0.4148  -0.02826  -0.01573  -0.00905  -0.003664  -0.2627  -0.654
6.531e+09  1.364  -0.08968  -0.0235  0.002961  -0.02279  -0.01301  -0.4444  -0.5143
6.532e+09  1.269  -0.5417  -0.01647  0.001066  0.02849  -0.03762  -0.6242  -0.3166
6.534e+09  1.011  -0.9681  0.03119  -0.02633  -0.02144  0.02155  -0.6241  -0.08519
6.535e+09  0.6357  -1.231  -0.01241  0.005513  -0.04942  0.01905  -0.6234  0.1201
6.536e+09  0.1138  -1.383  -0.007497  -0.01144  -0.01251  -0.03151  -0.5177  0.2866
6.538e+09  -0.3953  -1.354  0.01213  -0.01252  -0.02036  -0.004423  -0.4381  0.4897
6.539e+09  -0.858  -1.118  0.009653  0.03434  -0.02586  -0.04469  -0.2759  0.5825
6.54e+09  -1.235  -0.7168  0.01047  0.006894  0.03383  -0.05221  -0.0371  0.6688
6.541e+09  -1.421  -0.3199  0.02114  -0.0189  -0.005434  0.02545  0.2263  0.6868
6.542e+09  -1.462  0.2145  -0.02311  -0.015  -0.06241  -0.01246  0.4207  0.5455
6.544e+09  -1.301  0.6916  0.0004999  -0.01464  -0.03924  -0.01715  0.6174  0.389
6.545e+09  -0.9725  1.151  0.01174  0.04084  0.01123  0.01802  0.7175  0.1621
6.546e+09  -0.5008  1.449  -0.01522  -0.01617  -0.05157  -0.06061  0.7151  -0.08114
6.548e+09  0.04805  1.545  -0.01042  0.01237  0.003428  -0.01165  0.6983  -0.3338
6.549e+09  0.554  1.443  -0.03384  0.0116  -0.02727  -0.02452  0.4747  -0.5367
6.55e+09  1.099  1.142  -0.0347  0.04287  -0.01052  -0.03749  0.2843  -0.6735
6.551e+09  1.522  0.7337  -0.01641  0.01199  -0.02872  -0.05918  0.06974  -0.7408
6.552e+09  1.573  0.07997  -0.0006566  -0.02354  -0.005473  -0.01326  -0.2462  -0.6855
