# Hz S RI R 50
6.25e+09  -0.08506  0.9444  -0.01979  -0.01346  -0.007285  -0.1056  0.1832  0.454
6.251e+09  0.2544  0.8441  0.01035  0.03398  0.002995  -0.02666  0.3693  0.4035
6.252e+09  0.5876  0.7757  -0.01527  0.03211  -0.02122  0.05723  0.5507  0.2931
6.254e+09  0.7529  0.5033  -0.02207  0.0227  -0.01633  0.07653  0.6496  -0.006573
6.255e+09  0.8554  0.157  -0.005762  0.01493  0.04551  0.01638  0.5719  -0.2309
6.256e+09  0.8795  -0.1649  0.002328  0.01917  0.03189  -0.0341  0.4666  -0.4384
6.258e+09  0.7343  -0.4201  -0.006728  0.02572  0.0149  0.006308  0.2702  -0.6164
6.259e+09  0.6103  -0.6416  0.002637  -0.008177  0.02182  -0.03997  0.0303  -0.694
6.26e+09  0.2782  -0.8483  0.01552  0.004816  0.02767  0.01086  -0.2314  -0.6922
6.261e+09  -0.006552  -0.8922  -0.01099  -0.004111  0.01127  0.01184  -0.4162  -0.5079
6.262e+09  -0.3041  -0.863  -0.006745  -0.01849  -0.03338  -0.01145  -0.6292  -0.3641
6.264e+09  -0.6064  -0.6547  0.01186  -0.00457  -0.03935  0.02052  -0.6709  -0.1132
6.265e+09  -0.7711  -0.4645  0.02699  0.04129  -0.01307  -0.007211  -0.7175  0.1396
6.266e+09  -0.8877  -0.1908  0.006007  0.01252  0.0005566  0.05236  -0.6161  0.4249
6.268e+09  -0.8417  0.09189  0.00024  0.04  0.01552  -0.07492  -0.4371  0.5913
6.269e+09  -0.7533  0.4519  -0.0008062  -0.00745  -0.04563  -0.001705  -0.1885  0.7192
6.27e+09  -0.5669  0.6924  0.01117  -0.00253  -0.001561  0.01208  0.08009  0.7202
6.271e+09  -0.2706  0.8704  -0.01335  -0.02392  -0.04834  -0.01742  0.3308  0.6433
6.272e+09  -0.01592  0.8641  -0.0008086  0.005991  -0.006288  -0.008023  0.5371  0.5161
6.274e+09  0.3406  0.8294  0.01646  -0.001893  -0.01917  0.01476  0.685  0.3167
6.275e+09  0.6001  0.6662  0.007152  0.03477  -0.03549  -0.02569  0.7494  0.05231
6.276e+09  0.778  0.423  0.01558  -0.003179  0.008735  -0.01762  0.7353  -0.2087
6.278e+09  0.9593  0.1304  0.01566  -0.00051  0.03508  0.02401  0.6235  -0.4522
6.279e+09  0.8909  -0.1649  -0.006117  0.03682  -0.009089  0.02823  0.4104  -0.6711
6.28e+09  0.7235  -0.4876  -0.001379  0.01082  -0.05173  0.01966  0.1619  -0.7285
6.281e+09  0.5622  -0.6765  0.01561  0.005911  0.05009  -0.02502  -0.1314  -0.7635
6.282e+09  0.2771  -0.838  0.01863  -0.02387  -0.01219  0.05369  -0.3644  -0.7108
6.284e+09  -0.05521  -0.9349  -0.01663  -0.003727  0.03467  0.01918  -0.5936  -0.5168
6.285e+09  -0.3046  -0.8114  -0.01955  0.0116  -0.02226  -0.02553  -0.734  -0.2628
6.286e+09  -0.6599  -0.5936  0.01514  -0.0129  0.002665  -0.02196  -0.813  -0.002522
6.288e+09  -0.7848  -0.4253  -0.01348  -0.02337  0.03987  0.01757  -0.7387  0.2764
6.289e+09  -0.9192  -0.06964  -0.00785  0.009967  0.016  0.04855  -0.6133  0.5118
6.29e+09  -0.9096  0.25  0.02194  0.01018  -0.04436  -0.02514  -0.4255  0.6799
6.291e+09  -0.6909  0.526  0.01099  -0.02338  0.05964  -0.007346  -0.1287  0.81
6.292e+09  -0.548  0.7847  0.003122  0.002251  -0.00987  0.02343  0.1435  0.8037
6.294e+09  -0.2479  0.828  -0.01172  0.01125  -0.003776  -0.01845  0.427  0.6924
6.295e+09  0.09034  0.9599  -0.007606  -0.00301  -0.03634  -0.02527  0.606  0.5363
6.296e+09  0.4617  0.8359  -0.02455  -0.02115  0.006923  0.01732  0.7804  0.2739
6.298e+09  0.6785  0.646  -0.009935  0.001782  0.03677  -0.0563  0.7993  0.01091
6.299e+09  0.9179  0.3791  0.01084  0.003458  0.008296  0.002683  0.784  -0.2832
6.3e+09  0.9544  0.01815  -0.007647  0.000448  -0.00291  0.03856  0.5982  -0.5127
6.301e+09  0.9317  -0.2989  0.00811  0.00617  -0.01981  -0.01211  0.4164  -0.7232
6.302e+09  0.7478  -0.5485  0.01459  0.002107  0.02471  0.0343  0.1747  -0.8408
6.304e+09  0.4778  -0.8243  -0.03357  0.01763  -0.05562  -0.02102  -0.1519  -0.8596
6.305e+09  0.2075  -0.9494  -0.02426  0.0388  0.00447  -0.0005362  -0.4137  -0.7601
6.306e+09  -0.1316  -0.8587  -0.01637  0.01287  -0.004538  -0.04341  -0.6451  -0.5695
6.308e+09  -0.4707  -0.8415  0.00391  -0.004028  -0.01249  -0.02148  -0.8034  -0.293
6.309e+09  -0.7429  -0.6233  -0.009156  0.00223  0.00192  0.03226  -0.8459  -0.003012
6.31e+09  -0.8909  -0.307  -0.01581  0.009196  0.04244  -0.04946  -0.7976  0.3139
6.311e+09  -0.9312  0.02681  -0.01209  0.02729  -0.02356  -0.005726  -0.6539  0.5616
6.312e+09  -0.8835  0.3577  0.004455  -0.004223  -0.02139  0.02853  -0.4118  0.7612
6.314e+09  -0.7171  0.6395  -0.01648  0.001724  -0.08091  0.01474  -0.1405  0.8837
6.315e+09  -0.4648  0.8254  0.001343  -0.008622  -0.05149  -0.01275  0.185  0.8712
6.316e+09  -0.08458  0.9289  0.008877  -0.00373  0.005052  -0.01462  0.4277  0.7679
6.318e+09  0.1755  0.9337  -0.01547  0.02808  -0.005043  -0.03766  0.6823  0.5598
6.319e+09  0.5204  0.7642  -0.005409  0.01114  -0.02187  -0.008835  0.8383  0.3265
6.32e+09  0.7661  0.6083  0.0006418  -0.001678  -0.000917  0.01224  0.8886  0.02226
6.321e+09  0.9599  0.2219  0.04489  0.04166  0.02602  0.01916  0.8422  -0.2818
6.322e+09  0.9776  -0.08857  0.007678  -0.01502  -0.0243  -0.03284  0.7099  -0.5556
6.324e+09  0.9378  -0.4374  0.003806  0.03355  0.03571  0.02446  0.4639  -0.7822
6.325e+09  0.6806  -0.7057  0.0265  -0.0236  -0.005261  0.02526  0.1881  -0.8719
6.326e+09  0.3457  -0.9157  0.007352  -0.03449  -0.03377  0.009057  -0.1647  -0.8862
6.328e+09  0.0147  -0.9602  0.01357  0.003193  0.05926  0.01453  -0.4636  -0.8244
6.329e+09  -0.2789  -0.9457  -0.0006089  0.01228  0.05175  0.0288  -0.6755  -0.5904
6.33e+09  -0.5954  -0.8075  0.03108  0.01054  0.02905  -0.02291  -0.8468  -0.3277
6.331e+09  -0.8396  -0.4955  0.0001172  0.008768  -0.003947  0.0004817  -0.9078  -0.01237
6.332e+09  -0.9408  -0.1348  -0.0132  -0.03029  -0.01973  -0.001187  -0.8703  0.2821
6.334e+09  -0.9909  0.2049  0.01544  0.01598  0.005544  0.008864  -0.6996  0.5473
6.335e+09  -0.8281  0.5362  0.01377  -0.01004  0.02534  -0.006237  -0.4858  0.7988
6.336e+09  -0.6281  0.7485  -0.0002456  0.02388  -0.01565  0.02933  -0.1871  0.8526
6.338e+09  -0.2808  0.9634  -0.01137  0.01719  -0.02338  0.00118  0.1503  0.8989
6.339e+09  0.04643  1.022  0.009654  0.02613  -0.03093  0.03338  0.4143  0.8253
6.34e+09  0.4007  0.9487  0.0458  -0.01817  -0.007553  0.003951  0.7026  0.653
6.341e+09  0.6792  0.7168  0.03972  0.0269  -0.01005  0.001216  0.8548  0.3732
6.342e+09  0.9126  0.4136  0.008641  -0.01217  -0.01073  -0.01772  0.9353  0.007093
6.344e+09  1  0.1166  0.01313  0.005503  -0.003742  -0.02724  0.8821  -0.2825
6.345e+09  0.9656  -0.2652  0.002745  -0.008171  -0.0261  -0.01338  0.7472  -0.551
6.346e+09  0.7901  -0.5877  0.00843  0.007928  -0.02319  -0.001781  0.5411  -0.8137
6.348e+09  0.5463  -0.8478  -9.236e-05  0.01963  -0.01123  0.004241  0.2087  -0.8734
6.349e+09  0.1972  -0.9747  0.006799  -0.02377  0.06087  -0.03403  -0.1095  -0.9687
6.35e+09  -0.1353  -1.028  0.003394  -0.004266  -0.01766  -0.03432  -0.3799  -0.8706
6.351e+09  -0.4783  -0.8755  0.03122  -0.011  -0.006669  0.0003535  -0.6924  -0.6635
6.352e+09  -0.7743  -0.6879  0.02758  0.002367  -0.03946  -0.004892  -0.8751  -0.3574
6.354e+09  -0.9396  -0.3064  -0.02355  -0.03314  -0.01905  -0.01862  -0.9409  -0.07825
6.355e+09  -1.013  0.008121  -0.03186  -0.0207  -0.00148  -0.04123  -0.8878  0.2705
6.356e+09  -0.956  0.3701  -0.00731  0.008102  -0.01079  0.01399  -0.7614  0.5355
6.358e+09  -0.7286  0.6523  -0.0005157  -0.02527  -0.0274  -0.03875  -0.467  0.8052
6.359e+09  -0.4495  0.9116  0.02142  0.02542  0.002264  0.01262  -0.1958  0.9336
6.36e+09  -0.1597  1  0.01602  -0.006799  0.00771  -0.05615  0.05901  0.9371
6.361e+09  0.172  0.9563  0.0006392  0.02752  0.05119  0.03244  0.397  0.8135
6.362e+09  0.5318  0.8571  0.03937  0.02366  0.03604  0.03309  0.6997  0.6717
6.364e+09  0.7574  0.6215  0.001607  -0.01999  -0.001409  0.05014  0.8889  0.3501
6.365e+09  0.9328  0.2747  0.01245  -0.02417  -0.01333  0.02517  0.9712  0.06492
6.366e+09  0.9493  -0.03313  0.001241  0.01204  0.004829  0.01108  0.8975  -0.2604
6.368e+09  0.8369  -0.396  -0.0006185  0.001159  0.006029  -0.01474  0.79  -0.5443
6.369e+09  0.7174  -0.7217  -0.02816  0.02388  -0.05308  -0.05405  0.5568  -0.819
6.37e+09  0.4084  -0.898  0.02915  -0.02101  -0.02663  0.04615  0.2319  -0.9284
6.371e+09  0.06435  -0.9298  0.02876  -0.07345  0.02351  0.02489  -0.1131  -0.9325
6.372e+09  -0.2911  -0.9483  0.05494  0.009686  -0.03706  -0.01756  -0.4092  -0.8581
6.374e+09  -0.5788  -0.8146  -0.01675  -0.06074  -0.01765  0.02933  -0.7002  -0.7076
6.375e+09  -0.8097  -0.5296  0.001092  0.002063  0.04172  -0.0003195  -0.8624  -0.3867
6.376e+09  -0.9546  -0.2104  -0.0421  0.01365  0.04391  -0.001021  -0.9337  -0.09648
6.378e+09  -1.007  0.1284  -0.03918  -0.0126  0.02049  -0.009234  -0.9759  0.2208
6.379e+09  -0.8501  0.4501  0.01697  -0.01424  -0.006756  -0.002668  -0.8045  0.5305
6.38e+09  -0.6254  0.7639  0.01836  0.01122  0.03857  -0.003301  -0.5136  0.7805
6.381e+09  -0.394  0.9071  0.01674  -0.02067  0.02912  -0.009653  -0.294  0.877
6.382e+09  -0.01616  0.9627  0.0295  -0.01616  0.05799  -0.02334  0.111  0.9253
6.384e+09  0.305  0.8944  0.004944  0.02592  0.02792  0.01601  0.3837  0.8689
6.385e+09  0.6438  0.7884  0.01187  -0.0452  0.006807  -0.0306  0.6112  0.6927
6.386e+09  0.8768  0.4866  0.02143  0.04958  0.01004  -0.03802  0.8477  0.4489
6.388e+09  0.9447  0.1606  -0.02941  0.05153  0.000322  -0.02611  0.9616  0.08588
6.389e+09  0.9862  -0.1485  0.04828  0.0321  0.03345  -0.02317  0.8846  -0.1673
6.39e+09  0.8822  -0.4845  0.01007  -0.003109  9.774e-05  -0.0006324  0.8114  -0.4874
6.391e+09  0.6089  -0.7773  -0.007711  0.01357  -0.0204  0.025  0.5644  -0.7447
6.392e+09  0.3183  -0.8633  -0.01549  -0.005226  -0.03058  0.02778  0.2929  -0.8743
6.394e+09  -0.01576  -0.9723  0.03681  0.007682  0.0193  -0.02788  -0.05162  -0.9196
6.395e+09  -0.3475  -0.906  0.01358  -0.01305  0.04079  0.04242  -0.3624  -0.8617
6.396e+09  -0.6292  -0.6986  -0.01656  0.03434  -0.01361  0.01812  -0.59  -0.6663
6.398e+09  -0.8835  -0.4426  0.03737  0.05808  -0.0194  -0.04073  -0.8075  -0.403
6.399e+09  -0.936  -0.2085  -0.001368  0.0276  -0.00727  0.0004054  -0.8837  -0.1423
6.4e+09  -0.9053  0.143  0.01834  0.01154  0.02189  -0.02614  -0.8775  0.1536
6.401e+09  -0.8376  0.4691  -0.0007126  -0.01865  0.04235  0.01077  -0.7852  0.4675
6.402e+09  -0.5638  0.717  0.02127  0.002773  -0.03854  0.01212  -0.6121  0.7009
6.404e+09  -0.3109  0.9096  0.02858  0.01371  0.001701  0.008545  -0.3423  0.8411
6.405e+09  0.06202  0.9307  -0.000212  -0.009768  0.06445  -0.01316  0.04899  0.9164
6.406e+09  0.343  0.8919  0.02352  -0.001921  0.01506  0.03388  0.3002  0.8519
6.408e+09  0.6082  0.7335  -0.02143  -0.005701  0.01009  0.01475  0.6074  0.7325
6.409e+09  0.8506  0.4366  -0.02014  -0.003786  -0.05536  -0.01231  0.8015  0.489
6.41e+09  0.9379  0.1386  0.02944  0.008538  -0.02863  -0.01377  0.9187  0.1439
6.411e+09  0.9422  -0.147  -0.008206  0.01768  -0.03486  0.01677  0.8989  -0.1759
6.412e+09  0.7714  -0.5417  0.02504  0.05338  -0.007994  0.01813  0.7938  -0.4299
6.414e+09  0.5723  -0.755  0.02583  -0.04762  -0.01381  -0.02875  0.6177  -0.6944
6.415e+09  0.2612  -0.9447  0.02006  0.009889  -0.03048  -0.004311  0.3108  -0.8045
6.416e+09  -0.06273  -0.9604  0.008466  -0.01061  -0.0004044  0.03894  0.009738  -0.8795
6.418e+09  -0.3628  -0.8329  -0.05502  -0.02314  0.007978  -0.01534  -0.2885  -0.8416
6.419e+09  -0.6731  -0.7165  0.03125  0.004307  0.007611  0.02723  -0.5365  -0.6868
6.42e+09  -0.8224  -0.4228  -0.009318  0.008755  -0.05492  -0.001369  -0.72  -0.4646
6.421e+09  -0.9486  -0.1702  -0.04165  0.02895  0.02961  0.05242  -0.8925  -0.2261
6.422e+09  -0.9535  0.1744  0.03783  0.03899  0.02358  0.01536  -0.8835  0.08009
6.424e+09  -0.7254  0.5736  0.01469  0.03417  -0.01149  -0.0235  -0.7801  0.4059
6.425e+09  -0.5527  0.7943  -0.01809  -0.01824  -0.01297  -0.03276  -0.5757  0.6845
6.426e+09  -0.2084  0.8963  0.009465  -0.004336  0.005922  -0.01442  -0.3351  0.7611
6.428e+09  0.05429  0.9111  -0.002972  -0.01928  0.04091  -0.0337  -0.06538  0.8674
6.429e+09  0.4251  0.888  0.005383  0.02136  -0.00319  -0.0004891  0.2546  0.8602
6.43e+09  0.6804  0.6533  -0.0004211  0.002917  -0.009831  -0.007879  0.4961  0.7111
6.431e+09  0.8628  0.3929  -0.02371  0.01076  -0.01148  -0.01028  0.7166  0.5404
6.432e+09  0.9751  0.07249  0.0152  -0.03886  -0.01331  0.02613  0.8873  0.2075
6.434e+09  0.8986  -0.2768  -0.01247  -0.009894  -0.02791  -0.01253  0.866  -0.1244
6.435e+09  0.7803  -0.5634  0.03068  0.02686  0.005698  0.01327  0.788  -0.3677
6.436e+09  0.564  -0.7967  -0.005094  -0.03002  -0.02907  -0.02905  0.5791  -0.6159
6.438e+09  0.1869  -0.9857  -0.01523  2.849e-05  -0.05799  0.0218  0.3267  -0.8018
6.439e+09  -0.1311  -0.9235  0.01284  -0.01115  -0.001937  0.02477  0.07878  -0.8988
6.44e+09  -0.4168  -0.9322  -0.01936  0.0308  -0.00392  -0.01878  -0.2462  -0.8129
6.441e+09  -0.7093  -0.6202  0.00808  0.01877  0.02893  -0.01314  -0.4909  -0.6722
6.442e+09  -0.8257  -0.3783  0.01243  0.03115  0.02383  -0.03953  -0.6983  -0.415
6.444e+09  -1.016  -0.03619  -0.01487  0.03117  0.003604  0.01091  -0.9022  -0.2093
6.445e+09  -0.972  0.2585  -0.01436  -0.02165  0.04842  0.002183  -0.8432  0.07273
6.446e+09  -0.7716  0.541  0.001225  -0.0007365  -0.0514  0.01629  -0.7662  0.3124
6.448e+09  -0.541  0.8495  0.03356  -0.05744  0.04155  -0.005032  -0.6003  0.5728
6.449e+09  -0.2161  0.963  -0.01249  -0.03841  0.005382  -0.02805  -0.2951  0.7293
6.45e+09  0.1419  0.9777  0.01122  0.001513  -0.04906  -0.003156  -0.0789  0.8109
6.451e+09  0.4642  0.8951  0.03814  -0.05829  0.007478  -0.01608  0.2283  0.7653
6.452e+09  0.7838  0.69  0.01291  0.04337  -0.02137  0.02128  0.473  0.6392
6.454e+09  0.9528  0.3043  0.05123  -0.03733  0.04316  -0.001975  0.7391  0.4595
6.455e+09  0.9832  -0.07012  0.02445  0.016  -0.001489  -0.02705  0.836  0.1653
6.456e+09  0.9069  -0.3464  -0.03015  -0.01202  -0.02955  -0.009246  0.8341  -0.09365
6.458e+09  0.8027  -0.6623  0.06441  -0.02194  0.012  0.007751  0.7158  -0.3491
6.459e+09  0.4747  -0.8363  0.02226  -0.04453  0.02259  -0.01883  0.5748  -0.5946
6.46e+09  0.1317  -0.9832  -0.03171  0.007862  -0.008436  -0.0123  0.3649  -0.7289
6.461e+09  -0.1708  -0.9473  0.01894  0.01417  0.02968  -0.03806  0.06614  -0.7853
6.462e+09  -0.5086  -0.8612  0.01337  0.006182  -0.02672  -0.02845  -0.2472  -0.7995
6.464e+09  -0.7779  -0.6173  -0.0057  0.02619  0.00421  0.01636  -0.4848  -0.6766
6.465e+09  -0.9506  -0.3073  0.01122  -0.007136  -0.01802  0.0268  -0.7137  -0.4567
6.466e+09  -1.022  0.06104  0.02135  -0.03585  0.03266  0.04263  -0.761  -0.2376
6.468e+09  -0.9428  0.441  0.002814  0.03199  0.01591  0.05331  -0.8128  0.09938
6.469e+09  -0.7263  0.7125  0.01716  0.02447  -0.0001686  0.01379  -0.7334  0.3235
6.47e+09  -0.4503  0.9315  -0.00987  -0.04987  -0.007543  0.0304  -0.5528  0.5343
6.471e+09  -0.058  1.056  0.02307  -0.01659  -0.03902  -0.0005124  -0.3576  0.7883
6.472e+09  0.2276  1.023  0.05036  0.0001592  -0.00859  -0.05908  -0.05737  0.774
6.474e+09  0.6134  0.8338  -0.04196  -0.007328  0.01249  -0.01459  0.1985  0.7454
6.475e+09  0.8754  0.5754  -0.05169  -0.02511  0.03241  0.0007707  0.4466  0.6472
6.476e+09  0.9948  0.2141  -0.009711  0.003601  0.02861  -0.008413  0.674  0.4113
6.478e+09  1.003  -0.1565  0.002984  0.02992  -0.02643  -0.005589  0.7982  0.1999
6.479e+09  0.981  -0.5329  -0.0197  0.0336  0.01916  -0.0007054  0.7651  -0.09729
6.48e+09  0.6728  -0.7342  -0.05944  -0.01085  0.03983  -0.006245  0.7083  -0.3601
6.481e+09  0.3291  -0.9876  -0.03674  -0.03192  -0.001734  0.01949  0.4813  -0.5561
6.482e+09  -0.04698  -1.03  0.005879  -0.01515  0.0004141  0.03468  0.3318  -0.7262
6.484e+09  -0.3879  -0.9564  0.02262  -0.01387  -0.03494  -0.0233  0.05243  -0.7525
6.485e+09  -0.7286  -0.7655  -0.01707  -0.01619  -0.02427  -0.02192  -0.1744  -0.725
6.486e+09  -0.9399  -0.4956  0.01973  -0.0101  -0.003346  -0.0009783  -0.4748  -0.6332
6.488e+09  -0.4361  -0.478  0.01763  0.001559  0.552  0.43  -0.6048  -0.3909
6.489e+09  -1.057  0.2134  -0.01718  0.002516  0.01045  0.04951  -0.7416  -0.1887
6.49e+09  -0.8688  0.588  0.01676  -0.004509  0.009035  -0.0009693  -0.7435  0.08327
6.491e+09  -0.5795  0.8765  0.02632  0.01125  0.05587  0.03357  -0.7073  0.3427
6.492e+09  -0.2386  1.012  0.01848  -0.004285  0.04603  0.02324  -0.5473  0.5918
6.494e+09  0.07436  0.925  -0.0139  0.01551  -0.08809  0.06975  -0.3167  0.7166
6.495e+09  0.4797  0.9939  -0.02507  -0.04082  -0.01729  -0.03069  -0.0408  0.8245
6.496e+09  0.807  0.7246  -0.03096  0.03182  -0.01442  0.02824  0.2134  0.7348
6.498e+09  0.9465  0.3191  -0.02167  -0.06278  0.05005  -0.002477  0.4658  0.5941
6.499e+09  1.037  -0.0351  0.04754  0.003332  -0.005133  0.06326  0.6468  0.4171
6.5e+09  0.5667  -0.1864  -0.0004251  -0.03158  0.02264  -0.02611  0.7522  0.1888
6.501e+09  0.7641  -0.7113  -0.002876  0.006994  0.009809  0.06262  0.7887  -0.1019
6.502e+09  0.4858  -0.9173  -0.003469  0.02144  -0.01741  0.02254  0.6718  -0.3467
6.504e+09  0.1572  -1.042  0.003515  0.01383  -0.03807  -0.04295  0.5059  -0.546
6.505e+09  -0.2429  -0.9857  0.0076  -0.01811  0.0487  -0.01761  0.2576  -0.7149
6.506e+09  -0.5861  -0.8493  -0.0006298  -0.005373  -0.02293  0.01029  -0.01437  -0.7911
6.508e+09  -0.8845  -0.641  0.01046  -0.02589  0.04827  -0.02633  -0.229  -0.7054
6.509e+09  -1.04  -0.2944  -0.0376  -0.001908  -0.04469  -0.01219  -0.4662  -0.6246
6.51e+09  -1.025  0.08478  -0.008046  0.02257  -0.01849  0.02602  -0.6884  -0.3896
6.511e+09  -0.9367  0.4784  0.00543  0.02532  -0.001024  0.008921  -0.7395  -0.09128
6.512e+09  -0.6824  0.7651  -0.01757  -0.02612  0.01046  0.04291  -0.7668  0.1049
6.514e+09  -0.3817  0.976  0.03905  -0.00997  0.04203  -0.008127  -0.6355  0.3739
6.515e+09  -0.02052  1.04  -0.02374  0.008964  0.042  -0.03393  -0.4712  0.575
6.516e+09  0.3783  0.9524  0.0135  -0.006928  -0.03286  -0.005585  -0.2629  0.7164
6.518e+09  0.6403  0.7435  0.01572  -0.03029  0.01913  -0.004513  0.02888  0.7667
6.519e+09  0.8727  0.4961  -0.01186  0.0182  -0.002949  0.02274  0.2687  0.7479
6.52e+09  0.9885  0.1263  0.0115  -0.03556  0.03999  -0.002621  0.4515  0.5421
6.521e+09  1.007  -0.2122  0.01443  0.009094  -0.005497  0.008027  0.6068  0.3666
6.522e+09  0.8148  -0.6308  0.00701  6.235e-05  -0.06781  -0.03908  0.7318  0.1164
6.524e+09  0.6015  -0.8064  0.003346  -0.01127  0.01959  0.02443  0.7014  -0.176
6.525e+09  0.2379  -0.9777  -0.006511  -0.004546  -0.006908  0.04615  0.6119  -0.4334
6.526e+09  -0.1305  -1.008  -0.01698  -0.02468  -0.01028  0.000528  0.392  -0.5938
6.528e+09  -0.4695  -0.8321  -0.008932  0.009791  0.008538  -0.0123  0.2174  -0.6977
6.529e+09  -0.7137  -0.5859  -0.01172  0.01421  -0.03067  -0.02187  -0.04127  -0.7096
6.53e+09  -0.8902  -0.3962  -0.0313  0.03876  -0.003906  -0.02786  -0.3083  -0.6557
6.531e+09  -0.985  0.01005  0.006913  -0.006165  -0.01102  -0.006637  -0.4483  -0.4908
6.532e+09  -1.014  0.3483  0.01385  0.01399  -0.01766  -0.002868  -0.6235  -0.2685
6.534e+09  -0.7304  0.6251  -0.009744  -0.01035  -0.004891  0.03145  -0.6327  -0.08694
6.535e+09  -0.4728  0.8495  -0.02715  -0.01758  0.009946  -0.01809  -0.6083  0.1062
6.536e+09  -0.1453  0.948  -0.01855  0.03138  0.02013  -0.04018  -0.565  0.3051
6.538e+09  0.188  0.967  -0.03255  -0.0003895  -0.01449  -0.008633  -0.4842  0.4621
6.539e+09  0.5532  0.7903  -0.003692  0.02639  0.0227  0.01508  -0.2577  0.6054
6.54e+09  0.7273  0.5384  -0.005097  -0.01247  -0.0004483  0.03611  -0.03248  0.6803
6.541e+09  0.8693  0.221  -0.0122  0.01408  0.01304  0.02111  0.1962  0.7057
6.542e+09  0.9866  -0.1414  -0.02489  0.03829  -0.03469  -0.01917  0.4347  0.5638
6.544e+09  0.8744  -0.4432  -0.01693  -0.005364  0.009125  -0.005769  0.5748  0.4028
6.545e+09  0.6016  -0.6719  -0.007883  -0.003005  -0.02416  -0.01231  0.6872  0.1704
6.546e+09  0.3506  -0.8485  0.04327  0.01265  0.03398  0.00299  0.6999  -0.06689
6.548e+09  0.01043  -0.9353  -0.003342  -0.01952  -0.04204  0.03942  0.682  -0.328
6.549e+09  -0.2945  -0.8857  -0.04776  -0.02444  0.02897  -0.003075  0.4852  -0.5302
6.55e+09  -0.5677  -0.6735  0.01684  -0.01235  -0.009365  -0.06348  0.281  -0.7294
