# Hz S RI R 50
6.25e+09  0.6236  -0.8063  0.001456  0.006236  -0.02719  -0.04095  0.1508  0.5066
6.251e+09  0.3542  -0.97  0.0123  -0.02665  0.01967  -0.01174  0.3555  0.3967
6.252e+09  -0.127  -0.9566  0.01392  0.02382  -0.002047  0.02227  0.5369  0.2145
6.254e+09  -0.4121  -0.8245  0.002534  -0.006953  -0.04626  -0.01439  0.591  0.00415
6.255e+09  -0.7003  -0.7183  0.004721  -0.02464  -0.03023  -0.0105  0.6032  -0.2215
6.256e+09  -0.8744  -0.4223  -0.001405  -0.007384  -0.03061  0.003692  0.497  -0.4519
6.258e+09  -0.9086  -0.07867  0.00277  -0.01425  -0.04109  -0.03726  0.2721  -0.5912
6.259e+09  -0.9323  0.2381  -0.002649  0.001783  0.02035  -0.01865  0.04606  -0.7004
6.26e+09  -0.74  0.56  -0.00433  -0.008889  -0.04221  0.04112  -0.151  -0.6231
6.261e+09  -0.4852  0.8227  0.0147  0.01746  0.007845  -0.0129  -0.4221  -0.5388
6.262e+09  -0.1735  0.8946  0.01787  0.001289  0.01518  0.02095  -0.6226  -0.3857
6.264e+09  0.1348  0.9221  -0.001309  0.006351  -0.02276  -0.0327  -0.697  -0.09242
6.265e+09  0.4971  0.8378  0.004309  -0.008637  -0.04636  -0.01034  -0.751  0.1568
6.266e+09  0.7655  0.634  -0.007399  0.007687  0.04947  -0.03642  -0.5958  0.4011
6.268e+09  0.9011  0.3121  0.006837  0.00216  0.007738  0.01049  -0.4533  0.5596
6.269e+09  0.9642  -0.08617  -0.007774  0.0005036  0.03786  0.0086  -0.1816  0.6829
6.27e+09  0.9219  -0.3754  -0.02193  -0.01178  -0.06664  -0.01913  0.04339  0.7414
6.271e+09  0.6918  -0.6602  0.002361  0.0005335  -0.02261  0.01225  0.3185  0.6328
6.272e+09  0.4306  -0.8431  0.01495  -0.02754  0.01378  0.03039  0.4964  0.5338
6.274e+09  0.03493  -0.9144  -0.02004  0.01735  0.008102  0.01116  0.6835  0.2943
6.275e+09  -0.2993  -0.8659  0.01214  -0.03742  0.05244  -0.001801  0.7815  0.05424
6.276e+09  -0.5654  -0.7605  0.01466  -0.01103  -0.02106  0.006289  0.7386  -0.2313
6.278e+09  -0.8185  -0.5186  0.01549  -0.0162  -0.01911  0.02812  0.6086  -0.4482
6.279e+09  -0.961  -0.2041  0.01851  0.01023  0.02284  0.02481  0.4017  -0.628
6.28e+09  -0.9162  0.09224  0.006831  -0.01694  0.04216  -0.001822  0.1859  -0.7433
6.281e+09  -0.7971  0.4484  -0.03515  0.002448  0.009101  0.04157  -0.0986  -0.7745
6.282e+09  -0.5483  0.7558  -0.01148  -0.01175  -0.005563  0.03443  -0.3732  -0.6972
6.284e+09  -0.3142  0.9382  0.007392  -0.01842  -0.008138  0.0243  -0.5583  -0.5495
6.285e+09  0.08831  0.9437  0.002368  -0.03201  0.005487  0.0472  -0.7404  -0.286
6.286e+09  0.3386  0.8556  0.001032  0.01239  0.03318  -0.005439  -0.7939  0.01834
6.288e+09  0.6619  0.6446  0.02009  0.009018  0.03597  -0.0187  -0.7107  0.2552
6.289e+09  0.864  0.4321  0.02557  -0.02575  0.0002491  -0.03924  -0.6158  0.4918
6.29e+09  0.9758  0.1012  -0.03394  0.01439  0.01382  0.02967  -0.4267  0.6627
6.291e+09  0.898  -0.2772  -0.009061  -0.01518  -0.02243  0.005857  -0.1844  0.793
6.292e+09  0.7935  -0.5464  -0.005303  0.005213  0.01092  0.006776  0.1098  0.8055
6.294e+09  0.5307  -0.7971  -0.01048  0.005873  0.02405  -0.01991  0.4314  0.7016
6.295e+09  0.1687  -0.9309  -0.04907  -0.01509  0.02389  0.00288  0.6132  0.5386
6.296e+09  -0.1862  -0.961  0.007499  -0.01656  -0.01269  -0.009844  0.7644  0.2964
6.298e+09  -0.4388  -0.84  -0.001055  -0.02346  0.05095  -0.01771  0.8172  0.003846
6.299e+09  -0.7187  -0.6341  0.01992  0.03254  -0.01296  0.02658  0.7908  -0.2712
6.3e+09  -0.8426  -0.2732  -0.0003552  -0.001166  0.01644  0.04332  0.6211  -0.5075
6.301e+09  -0.9501  0.02817  0.02781  0.01183  0.04022  0.02044  0.4309  -0.7325
6.302e+09  -0.8219  0.3191  0.0005085  0.009611  -0.03154  -0.05001  0.1694  -0.8326
6.304e+09  -0.7306  0.6235  -0.01381  -0.001909  0.005319  0.003465  -0.144  -0.8214
6.305e+09  -0.4556  0.888  -0.007455  0.03676  -0.002557  0.02219  -0.4177  -0.7288
6.306e+09  -0.1138  0.9464  0.008769  -0.01342  0.03012  0.003065  -0.6615  -0.5682
6.308e+09  0.2009  0.9201  0.0211  -0.01476  -0.01474  0.01041  -0.7955  -0.3283
6.309e+09  0.5096  0.7907  0.008192  -0.0278  0.001795  0.02919  -0.8596  -0.01962
6.31e+09  0.7706  0.5541  0.01266  -0.002241  -0.05585  0.02742  -0.8098  0.2912
6.311e+09  0.8898  0.1582  -0.01014  -0.04411  -0.03808  -0.003512  -0.6313  0.5251
6.312e+09  0.9478  -0.1143  0.009393  0.02191  -0.01876  0.01079  -0.448  0.7478
6.314e+09  0.8891  -0.411  0.024  0.02385  0.006053  0.01501  -0.1369  0.8488
6.315e+09  0.7037  -0.6701  0.0268  -0.003382  -0.007561  -0.002002  0.1343  0.876
6.316e+09  0.3657  -0.8668  0.01444  0.005363  -0.0007616  0.02366  0.4097  0.7417
6.318e+09  0.04042  -0.9268  -0.01715  -0.02584  -0.0406  -0.02328  0.6514  0.5636
6.319e+09  -0.3637  -0.8689  -0.03419  0.03752  -0.002025  0.003336  0.8169  0.3574
6.32e+09  -0.6214  -0.7422  -0.02063  -0.03203  0.005204  0.007831  0.8563  0.01683
6.321e+09  -0.8486  -0.427  -0.0007627  -0.02348  -0.04177  -0.005453  0.8489  -0.279
6.322e+09  -0.9534  -0.1505  -0.01986  0.003308  -0.01665  -0.05792  0.6577  -0.5514
6.324e+09  -0.9508  0.2258  0.03921  0.01435  -0.06245  -0.009491  0.4637  -0.7464
6.325e+09  -0.7845  0.5235  0.01949  -0.0003135  -0.02904  -0.03201  0.2193  -0.931
6.326e+09  -0.5834  0.7082  -0.0157  0.02028  0.02646  0.0371  -0.1601  -0.9073
6.328e+09  -0.2699  0.9143  -0.005954  0.02057  0.02246  0.00246  -0.4509  -0.779
6.329e+09  0.03879  0.9402  -0.01152  0.01209  0.003649  0.007521  -0.682  -0.6083
6.33e+09  0.4242  0.835  0.03257  0.01163  -0.0123  -0.01495  -0.84  -0.3446
6.331e+09  0.6743  0.6781  -0.01059  0.0005385  -0.0008948  -0.02136  -0.8994  -0.04639
6.332e+09  0.8966  0.3829  0.008799  -0.003116  -0.002473  0.0174  -0.9011  0.3418
6.334e+09  1.002  0.07498  0.005011  0.01258  -0.03317  0.003877  -0.7086  0.5583
6.335e+09  0.9266  -0.3209  0.03501  -0.002857  0.04451  -0.01018  -0.4676  0.7603
6.336e+09  0.7236  -0.6051  0.02202  -0.008531  -0.007148  -0.02774  -0.2046  0.9198
6.338e+09  0.5005  -0.7982  -0.01316  -0.04534  -0.03127  0.03559  0.1405  0.9228
6.339e+09  0.1456  -0.9774  -0.02336  0.004333  -0.03357  0.0005876  0.4084  0.8282
6.34e+09  -0.173  -0.9911  0.01821  -0.02103  -0.03824  0.01639  0.6684  0.6175
6.341e+09  -0.5215  -0.8669  -0.02431  -0.004534  0.07973  0.03379  0.8761  0.3567
6.342e+09  -0.7532  -0.6278  -0.0116  0.01153  0.03791  0.04569  0.9417  0.0506
6.344e+09  -0.9406  -0.3377  -0.003381  0.006195  0.03921  -0.004291  0.853  -0.293
6.345e+09  -1.001  0.04126  0.01339  0.01588  0.01882  -0.03223  0.7436  -0.5794
6.346e+09  -0.9399  0.4026  0.01508  -0.007865  -0.004483  0.0268  0.519  -0.8183
6.348e+09  -0.7094  0.7452  0.01748  -0.001902  0.008197  0.01656  0.1848  -0.901
6.349e+09  -0.4109  0.952  -0.003766  -0.008717  -0.004457  -0.03911  -0.1154  -0.9124
6.35e+09  -0.07281  1.003  -0.01615  0.002887  0.02789  -0.001459  -0.428  -0.8397
6.351e+09  0.279  0.9388  0.02385  -0.009563  0.002456  0.0583  -0.6373  -0.6247
6.352e+09  0.5705  0.8079  0.0193  0.004652  0.04083  -0.05456  -0.8844  -0.3753
6.354e+09  0.8291  0.4993  0.001571  0.007188  -0.001154  -0.01974  -0.9078  -0.07616
6.355e+09  0.9482  0.206  0.005996  0.001072  0.0054  0.0527  -0.8827  0.2926
6.356e+09  1.012  -0.1425  -0.01024  0.01651  0.01492  0.03917  -0.7674  0.5705
6.358e+09  0.8482  -0.5046  -0.004854  -0.009419  -0.04218  0.0395  -0.5633  0.7335
6.359e+09  0.6293  -0.7843  -0.02906  0.01685  0.009209  0.007612  -0.2319  0.9149
6.36e+09  0.3093  -0.9602  0.01951  -0.01343  -0.01269  -0.02283  0.1023  0.9404
6.361e+09  -0.01725  -1.008  0.00171  0.0005051  -0.01283  0.04572  0.4178  0.8414
6.362e+09  -0.4268  -0.9163  -0.01073  0.02393  0.007009  0.04829  0.6405  0.6808
6.364e+09  -0.7313  -0.7507  0.01093  0.003413  0.04065  0.009208  0.8582  0.4137
6.365e+09  -0.9365  -0.4067  -0.01578  0.01618  -0.01436  -0.05062  0.9105  0.06696
6.366e+09  -1.029  -0.02728  -0.02109  -0.001168  -0.008869  -0.02475  0.8747  -0.22
6.368e+09  -0.9762  0.2934  0.009354  0.0103  0.002681  0.0252  0.7699  -0.5285
6.369e+09  -0.8046  0.5861  -0.01358  -0.01515  0.00943  0.005275  0.5316  -0.7522
6.37e+09  -0.5329  0.8972  0.007602  -0.01384  0.01978  -0.02933  0.2191  -0.8949
6.371e+09  -0.1445  1.004  -0.01588  -0.03147  0.008871  0.03986  -0.0891  -0.9588
6.372e+09  0.205  1.005  0.01375  0.01415  0.00703  -0.003106  -0.3822  -0.8639
6.374e+09  0.5465  0.9168  0.04081  0.02703  -0.05529  -0.009759  -0.659  -0.6794
6.375e+09  0.8043  0.6781  -0.02108  0.0202  -0.03006  0.01567  -0.8398  -0.4055
6.376e+09  1.02  0.2519  -0.006183  -0.001399  0.02079  0.02184  -0.9137  -0.07806
6.378e+09  1.001  -0.07177  -0.001983  -0.002944  0.02517  -0.02803  -0.8749  0.2385
6.379e+09  0.9177  -0.4545  0.03753  -0.0106  -0.001656  -0.0008134  -0.7939  0.5187
6.38e+09  0.7127  -0.7241  0.01005  0.007006  -0.0008878  -0.04303  -0.5539  0.7567
6.381e+09  0.4039  -0.9475  -0.04973  0.01704  -0.05128  0.01699  -0.229  0.8985
6.382e+09  0.02301  -1.075  -0.0147  -0.01526  0.007349  -0.01997  0.08948  0.9125
6.384e+09  -0.3477  -0.9664  0.02726  -0.01687  0.009304  -0.02545  0.3557  0.841
6.385e+09  -0.6044  -0.8264  -0.01696  -0.02082  -0.03683  0.03204  0.6682  0.6772
6.386e+09  -0.9384  -0.5141  0.004142  -0.02664  0.03055  0.03212  0.8354  0.408
6.388e+09  -1.107  -0.1841  0.01611  0.01584  -0.01945  -0.03143  0.9303  0.09549
6.389e+09  -1.086  0.2458  -0.01875  0.004789  0.05694  -0.02452  0.9019  -0.199
6.39e+09  -0.8863  0.6357  -0.0009771  -0.03167  -0.02839  0.04901  0.7744  -0.4946
6.391e+09  -0.5967  0.9322  0.01942  -0.01861  0.009272  0.004206  0.5469  -0.7051
6.392e+09  -0.2813  1.015  -0.04216  0.03265  0.01189  -0.01852  0.2781  -0.8616
6.394e+09  0.08594  1.113  -0.01981  -0.04941  -0.01282  -0.01243  -0.02344  -0.9376
6.395e+09  0.4892  0.9565  -0.001734  -0.01023  0.001334  -0.03353  -0.3372  -0.8712
6.396e+09  0.8365  0.7441  -0.03218  -0.003738  0.02275  -0.04386  -0.5404  -0.6964
6.398e+09  1.073  0.3616  0.001456  0.01228  -0.02773  0.0183  -0.7608  -0.4505
6.399e+09  1.122  -0.06672  0.009422  -0.006875  0.002425  -0.01295  -0.9015  -0.1706
6.4e+09  1.069  -0.4561  0.0355  -0.0252  -0.03209  0.01479  -0.9134  0.1823
6.401e+09  0.7832  -0.7826  0.01899  0.00818  0.04431  -0.01435  -0.7988  0.442
6.402e+09  0.412  -0.9829  0.005476  0.01485  0.0129  -0.002589  -0.5766  0.6825
6.404e+09  0.06722  -1.146  -0.03729  0.02521  -0.07669  -0.03193  -0.2942  0.8898
6.405e+09  -0.2792  -1.086  -0.0118  -0.0159  -0.0646  0.02821  -0.03971  0.9164
6.406e+09  -0.7296  -0.8746  0.009966  0.04391  -0.005229  -0.02118  0.2896  0.8018
6.408e+09  -0.9751  -0.5304  0.02321  -0.007912  -0.0438  -0.01537  0.5546  0.7311
6.409e+09  -1.073  -0.1479  0.0123  0.01093  -0.01448  0.002662  0.8109  0.5007
6.41e+09  -1.136  0.2255  0.001388  0.03953  0.03946  -0.02549  0.9012  0.1086
6.411e+09  -0.9792  0.608  0.01229  0.03093  -0.0166  -0.05836  0.8566  -0.1175
6.412e+09  -0.6554  0.8551  0.001462  -0.004712  -0.01107  -0.01442  0.8056  -0.3772
6.414e+09  -0.2928  1.115  -0.02047  0.01345  0.03785  -0.01063  0.5913  -0.6722
6.415e+09  0.0326  1.146  0.02926  0.01282  0.05816  -0.02062  0.3261  -0.8536
6.416e+09  0.5319  1.028  0.0632  0.02536  -0.02391  0.02045  -0.004655  -0.878
6.418e+09  0.8748  0.7787  -0.02893  -0.01726  -0.01254  -0.02879  -0.2414  -0.9077
6.419e+09  1.08  0.4222  -0.03463  0.01715  0.02562  -0.0245  -0.53  -0.6915
6.42e+09  1.112  -0.01503  -0.006282  -0.02564  0.02381  0.01813  -0.7515  -0.4763
6.421e+09  1.078  -0.4099  0.007577  -0.02943  -0.01433  0.02291  -0.8803  -0.187
6.422e+09  0.7478  -0.7723  0.0002171  -0.003399  -0.01165  -0.01244  -0.8129  0.1339
6.424e+09  0.4124  -0.9556  -0.006285  -0.003713  0.004768  0.0105  -0.7576  0.3874
6.425e+09  0.06633  -1.089  -0.002145  0.004438  -0.002017  0.003244  -0.6329  0.6224
6.426e+09  -0.3399  -1.058  -0.05699  -0.01007  0.01983  -0.02997  -0.3197  0.8365
6.428e+09  -0.7077  -0.8737  0.0001446  0.003487  0.009535  -0.01748  -0.08997  0.824
6.429e+09  -0.9687  -0.5796  -0.01982  0.004125  -0.0008237  0.002879  0.2595  0.8262
6.43e+09  -1.132  -0.2055  -0.01694  -0.02828  0.02241  -0.02108  0.5313  0.6681
6.431e+09  -1.066  0.2342  0.01147  0.04481  -0.01186  0.002088  0.7215  0.4547
6.432e+09  -0.9675  0.5635  -0.01012  -0.01671  -0.02516  -0.003794  0.8274  0.245
6.434e+09  -0.6709  0.9068  0.05903  -0.01569  -0.007676  0.03898  0.8267  -0.1085
6.435e+09  -0.293  1.043  -0.00171  0.03016  -0.01316  0.04686  0.803  -0.3822
6.436e+09  0.1208  1.033  -0.04342  -0.006006  -0.004522  0.02652  0.5491  -0.5808
6.438e+09  0.4701  0.9857  -0.03396  0.00685  0.007973  0.02848  0.341  -0.8018
6.439e+09  0.7608  0.6876  0.03603  0.01675  -0.01889  0.0102  0.03004  -0.854
6.44e+09  0.946  0.4075  0.04876  0.03537  0.02877  0.03635  -0.2243  -0.8195
6.441e+09  1.058  -0.003061  0.01749  0.001615  0.04042  0.01076  -0.5149  -0.7083
6.442e+09  0.9691  -0.3559  0.05276  0.02102  0.0666  0.02545  -0.6936  -0.4934
6.444e+09  0.8239  -0.7033  -0.03775  -0.00201  0.01889  0.006302  -0.8363  -0.2047
6.445e+09  0.495  -0.9089  -0.03779  0.02211  0.02032  0.006873  -0.8679  0.1005
6.446e+09  0.1421  -1.044  0.02712  -0.03379  -0.02536  0.006634  -0.7509  0.3392
6.448e+09  -0.2341  -1.008  0.02809  0.01712  -0.02695  0.007916  -0.6077  0.5734
6.449e+09  -0.5383  -0.8467  -0.01975  0.03146  0.01823  -0.01648  -0.3332  0.7492
6.45e+09  -0.8122  -0.5921  0.004123  -0.01523  -0.01348  -0.01005  -0.04668  0.8526
6.451e+09  -0.9763  -0.2594  0.03187  -0.01762  0.01405  0.03716  0.1802  0.8166
6.452e+09  -1.016  0.1189  -0.03178  -0.001526  0.003199  -0.04296  0.4553  0.6437
6.454e+09  -0.9061  0.4795  0.02752  -0.003704  0.0205  -0.02845  0.671  0.471
6.455e+09  -0.7096  0.8112  -0.0295  -0.001023  -0.00434  -0.04284  0.7959  0.1789
6.456e+09  -0.3765  0.93  0.007762  0.002772  -0.01736  -0.04476  0.7888  -0.08263
6.458e+09  -0.04158  0.9665  -0.02897  -0.02049  -0.01347  -0.007594  0.7444  -0.3655
6.459e+09  0.3709  0.9534  0.02989  -0.03028  0.005705  0.02848  0.5815  -0.6115
6.46e+09  0.6419  0.7805  0.03801  -0.005764  -0.04199  -0.03826  0.3198  -0.765
6.461e+09  0.8686  0.4831  -0.01448  0.01577  0.02406  -0.01221  0.06893  -0.7826
6.462e+09  0.9435  0.1514  0.01339  -0.03286  -0.07162  0.04744  -0.2025  -0.8053
6.464e+09  0.9885  -0.1871  0.01051  0.002395  0.01904  -0.01958  -0.498  -0.6659
6.465e+09  0.8662  -0.5484  0.03062  0.02552  0.04622  0.02738  -0.6404  -0.4803
6.466e+09  0.6208  -0.7519  0.0139  0.01235  0.0187  -0.01872  -0.7775  -0.2044
6.468e+09  0.2881  -0.8866  -0.02593  0.0005295  0.006795  0.01191  -0.8049  0.02976
6.469e+09  -0.07577  -1.024  0.04189  -0.00525  -0.01481  -0.02003  -0.6304  0.3652
6.47e+09  -0.4104  -0.8704  -0.00353  0.002897  -0.03508  0.002281  -0.5459  0.561
6.471e+09  -0.6716  -0.6643  -0.05216  0.01606  -0.02635  0.05148  -0.3396  0.7116
6.472e+09  -0.8553  -0.3883  -0.0036  0.03036  -0.01152  0.00821  -0.06813  0.801
6.474e+09  -0.9605  -0.08219  -0.02844  -0.006732  -0.007992  -0.001969  0.2141  0.7277
6.475e+09  -0.9424  0.2276  0.01374  0.0001636  0.0618  0.02721  0.423  0.6582
6.476e+09  -0.7777  0.5812  -0.01552  0.0607  0.0118  0.009341  0.639  0.4319
6.478e+09  -0.497  0.8151  -0.00437  0.02535  -0.02679  -0.02836  0.7214  0.1859
6.479e+09  -0.2085  0.9241  0.04844  0.003583  0.01033  -0.01002  0.7722  -0.07072
6.48e+09  0.04569  0.9167  0.007274  0.03595  0.01151  -0.02697  0.7012  -0.3306
6.481e+09  0.4474  0.8387  -0.00847  0.02113  -0.01268  0.007833  0.5507  -0.5105
6.482e+09  0.6548  0.6165  -0.01266  -0.02096  0.03136  0.02453  0.3084  -0.708
6.484e+09  0.9126  0.33  0.02222  -0.01394  -0.006877  0.005677  0.09443  -0.7738
6.485e+09  0.9208  0.03244  -0.01728  -0.005851  0.01752  0.04454  -0.221  -0.703
6.486e+09  0.8664  -0.2969  -0.00905  -0.05745  0.02878  0.0258  -0.4436  -0.6129
6.488e+09  0.798  -1.268  0.03404  -0.0219  0.6377  -0.3568  -0.6445  -0.4228
6.489e+09  0.4934  -0.8035  0.03078  0.01372  0.01323  -0.01245  -0.7266  -0.1846
6.49e+09  0.1789  -0.9155  0.01969  -0.02165  -0.01049  -0.05423  -0.7729  0.08298
6.491e+09  -0.1536  -0.9969  -0.01854  -0.03223  -0.01794  -0.05226  -0.6718  0.392
6.492e+09  -0.4486  -0.8137  -0.04006  -0.006948  0.01988  0.02428  -0.5205  0.5943
6.494e+09  -0.6478  -0.5574  0.00258  0.01429  -0.007063  -0.1393  -0.3352  0.6912
6.495e+09  -0.8749  -0.3096  -0.04127  0.04939  0.01141  -0.00523  -0.1006  0.7976
6.496e+09  -0.9877  -0.01235  0.03517  0.03512  0.006854  -0.02647  0.2387  0.7456
6.498e+09  -0.8836  0.3075  0.03275  0.00516  0.007462  0.03258  0.4978  0.5927
6.499e+09  -0.7349  0.5928  -0.004649  0.01535  -0.02296  -0.0005741  0.6046  0.3961
6.5e+09  0.06863  0.9722  0.01091  0.004575  0.009577  0.03386  0.7538  0.1545
6.501e+09  -0.1583  0.9419  0.01141  -0.007176  -0.04868  0.07592  0.7343  -0.08073
6.502e+09  0.2459  0.8765  0.01333  0.01941  0.005127  -0.004487  0.6955  -0.3196
6.504e+09  0.4637  0.8184  0.02513  0.008634  -0.03002  0.04751  0.5082  -0.5609
6.505e+09  0.7512  0.6138  -0.01428  0.018  -0.002101  0.02316  0.3099  -0.7159
6.506e+09  0.9228  0.3199  -0.01522  0.02465  -0.01854  0.01103  -0.01948  -0.7615
6.508e+09  0.8862  -0.003822  -0.04014  -0.01321  0.00795  -0.01836  -0.2287  -0.715
6.509e+09  0.8701  -0.3154  0.006818  -0.0261  -0.02227  0.02759  -0.4398  -0.5701
6.51e+09  0.7308  -0.6438  0.007996  -0.04997  -0.02226  -0.007339  -0.6241  -0.4025
6.511e+09  0.4785  -0.8427  -0.01664  -0.01352  0.01036  0.01235  -0.7299  -0.1206
6.512e+09  0.09535  -0.9163  0.002267  -0.01835  -0.01514  0.00993  -0.7344  0.1333
6.514e+09  -0.239  -0.8747  -0.0156  0.00714  0.01215  -0.03502  -0.7144  0.3734
6.515e+09  -0.5516  -0.7648  0.02655  0.01189  -0.01326  0.01083  -0.4906  0.5968
6.516e+09  -0.772  -0.5466  -0.02214  -0.02423  -0.004466  0.01101  -0.2211  0.7243
6.518e+09  -0.9379  -0.2688  -0.0106  0.01259  -0.006522  -0.04078  0.02061  0.7669
6.519e+09  -0.9709  0.02706  -0.006514  0.008335  0.005272  -0.05149  0.2477  0.6913
6.52e+09  -0.8846  0.4345  -0.01495  0.008429  -0.05985  -0.04942  0.4873  0.5607
6.521e+09  -0.6752  0.6974  0.02252  -0.005759  -0.00838  0.0171  0.6655  0.3285
6.522e+09  -0.427  0.9098  0.01283  0.008546  -0.01455  -0.0261  0.7345  0.09151
6.524e+09  -0.06782  0.965  -0.0008463  0.005806  -0.04298  -0.01364  0.7238  -0.1254
6.525e+09  0.2658  0.9148  0.02672  0.02321  0.03293  0.00145  0.5706  -0.4053
6.526e+09  0.5721  0.7894  0.007744  0.01397  0.05369  0.002748  0.4379  -0.594
6.528e+09  0.8571  0.5585  0.003399  0.02336  0.01808  0.01273  0.2061  -0.6453
6.529e+09  0.9476  0.2341  -0.02463  0.002169  0.00129  -0.01913  -0.05974  -0.72
6.53e+09  1.002  -0.1397  0.02564  0.004694  0.00936  0.04849  -0.2715  -0.6031
6.531e+09  0.8764  -0.4584  0.01412  -0.03086  -0.01058  -0.01378  -0.4596  -0.4662
6.532e+09  0.7135  -0.7867  9.47e-05  0.03203  0.02643  0.03579  -0.5913  -0.2679
6.534e+09  0.4355  -0.9624  -0.007047  0.02707  0.007808  -0.006661  -0.6228  -0.1275
6.535e+09  -0.009702  -1.061  0.01018  0.008517  -0.01471  0.06181  -0.6263  0.08418
6.536e+09  -0.3641  -0.9703  0.001817  0.02075  0.06921  0.01609  -0.5453  0.3266
6.538e+09  -0.6824  -0.8175  0.006777  -0.01026  0.02729  -0.06727  -0.4765  0.4639
6.539e+09  -0.9426  -0.5084  0.02969  -0.007952  0.01196  0.01516  -0.2661  0.6144
6.54e+09  -1.067  -0.1349  -0.02371  -0.01038  0.0009791  0.04065  -0.0712  0.7002
6.541e+09  -1.043  0.2157  -0.0141  -0.003099  -0.006754  0.00156  0.1782  0.6713
6.542e+09  -0.946  0.5879  0.04068  0.0218  0.02655  0.0001155  0.4108  0.5574
6.544e+09  -0.6657  0.8042  0.009589  0.002107  0.01839  0.07566  0.5983  0.3963
6.545e+09  -0.2662  1.04  0.02337  0.01933  0.01215  -0.02755  0.716  0.182
6.546e+09  0.04949  1.051  0.05548  -0.03256  -0.01972  -0.02038  0.7196  -0.1221
6.548e+09  0.4195  0.979  0.01038  0.003244  -0.03294  -0.04892  0.661  -0.3179
6.549e+09  0.8012  0.7722  -0.02041  -0.002351  -0.03883  0.03793  0.5237  -0.5185
6.55e+09  1.019  0.5129  0.01359  0.01809  -0.02313  0.01341  0.2929  -0.6943
6.551e+09  1.038  0.07478  -0.006772  -0.01204  0.005325  -0.024  0.07608  -0.7285
