# Hz S RI R 50
6.25e+09  -0.6481  -0.5198  -0.009981  -0.03626  -0.05122  0.005071  0.1946  0.4639
6.251e+09  -0.7896  -0.3246  -0.005894  -0.01514  -0.0252  -0.02578  0.3868  0.4085
6.252e+09  -0.8499  0.02029  -0.02794  0.005852  -0.06527  0.04404  0.5517  0.2189
6.254e+09  -0.8158  0.3005  -0.004109  -0.02942  -0.01037  0.01599  0.6239  0.0003459
6.255e+09  -0.6396  0.5487  0.0001418  -0.005309  0.004699  0.07871  0.582  -0.2147
6.256e+09  -0.3481  0.7383  0.01416  0.007338  0.005988  0.02212  0.4588  -0.4325
6.258e+09  -0.1119  0.839  -0.001365  0.0007109  0.01515  0.03609  0.2731  -0.5961
6.259e+09  0.2133  0.8356  -0.01356  0.03106  0.02758  -0.03035  0.07572  -0.6537
6.26e+09  0.4042  0.6564  -0.001912  0.03166  0.03404  0.0136  -0.1889  -0.661
6.261e+09  0.6765  0.4993  -0.01637  0.01934  -0.04855  -0.0003975  -0.4589  -0.5582
6.262e+09  0.8368  0.2806  0.01973  -0.01054  0.03167  0.01027  -0.5893  -0.3359
6.264e+09  0.8211  -0.02041  -0.02643  0.003106  0.002616  -0.008314  -0.7087  -0.1228
6.265e+09  0.8009  -0.2724  0.01915  0.01452  -0.03434  -0.03083  -0.7239  0.1454
6.266e+09  0.614  -0.5465  -0.00965  -0.001448  0.02946  0.02821  -0.6363  0.399
6.268e+09  0.367  -0.7763  0.02587  0.01224  -0.01389  -0.01527  -0.4286  0.5841
6.269e+09  0.07635  -0.7826  0.01477  0.0254  0.06443  -0.01031  -0.1978  0.697
6.27e+09  -0.1686  -0.812  0.0008035  -0.003438  0.01024  -0.0284  0.08758  0.7277
6.271e+09  -0.482  -0.6941  -0.02276  -0.03712  0.01223  0.001044  0.3233  0.6683
6.272e+09  -0.6678  -0.4694  -0.003121  -0.003132  -0.04642  0.01916  0.5103  0.5066
6.274e+09  -0.7728  -0.2009  0.0004743  -0.03915  0.06734  0.009573  0.6913  0.275
6.275e+09  -0.8557  0.09924  -0.001972  -0.002869  -0.05543  -0.01892  0.7682  0.05659
6.276e+09  -0.7681  0.3637  0.02135  -0.006542  -0.05622  -0.04778  0.7325  -0.2096
6.278e+09  -0.5738  0.6708  -0.008614  -0.003428  -0.02702  -0.01018  0.6101  -0.4551
6.279e+09  -0.3573  0.7095  -0.01575  0.02745  -0.009014  -0.009007  0.4231  -0.6283
6.28e+09  0.01564  0.8518  0.03436  0.006481  0.05268  -0.02222  0.1518  -0.7634
6.281e+09  0.279  0.7626  0.006475  0.01047  -0.02617  0.0277  -0.1002  -0.7345
6.282e+09  0.4866  0.6362  0.006586  -0.007641  -0.02614  -0.009143  -0.3687  -0.6879
6.284e+09  0.7221  0.3904  0.0007413  -0.02058  -0.002801  -0.008166  -0.6029  -0.5155
6.285e+09  0.8222  0.1367  0.0175  0.01821  0.003478  -0.03145  -0.7049  -0.2876
6.286e+09  0.8108  -0.1502  0.01034  0.01469  0.02108  -0.002296  -0.7425  -0.0114
6.288e+09  0.6807  -0.3466  0.0101  -0.00608  -0.003525  -0.001383  -0.7611  0.2794
6.289e+09  0.5007  -0.6416  0.008627  0.03172  0.0003232  -0.003533  -0.5982  0.5105
6.29e+09  0.3053  -0.8168  -0.02777  0.003909  0.01976  0.02403  -0.4124  0.6821
6.291e+09  -0.001262  -0.8249  -0.004225  0.0001473  0.004728  0.0006204  -0.1502  0.7799
6.292e+09  -0.2359  -0.7778  -0.02943  -0.01209  0.01254  0.0526  0.1219  0.8056
6.294e+09  -0.608  -0.6435  -0.0051  0.01595  0.01103  0.01322  0.3996  0.7157
6.295e+09  -0.6964  -0.4421  -0.01134  0.001035  0.002767  0.0378  0.6029  0.5346
6.296e+09  -0.8452  -0.1209  -0.01962  0.01755  -0.005269  -0.01409  0.7621  0.3001
6.298e+09  -0.8087  0.14  -0.01801  -0.009121  -0.008776  0.0009426  0.8138  0.02106
6.299e+09  -0.7181  0.5015  0.006665  0.0309  -0.003208  0.01118  0.7873  -0.2673
6.3e+09  -0.4483  0.6853  -0.02987  -0.001304  -0.05954  0.007742  0.6347  -0.5228
6.301e+09  -0.2214  0.7917  0.02259  -0.003102  0.03317  -0.04915  0.4587  -0.6847
6.302e+09  0.04618  0.8381  -0.01393  -0.004525  -0.001275  -0.04648  0.1574  -0.8273
6.304e+09  0.3744  0.7261  0.02327  0.006831  -0.03383  0.02074  -0.141  -0.8396
6.305e+09  0.5979  0.6096  0.02503  0.01967  0.04616  -0.03458  -0.399  -0.7318
6.306e+09  0.7427  0.3501  0.02847  0.006275  -0.01032  -0.0183  -0.6507  -0.5714
6.308e+09  0.789  0.09465  -0.007644  -0.01634  -0.0826  0.007823  -0.7728  -0.2859
6.309e+09  0.804  -0.2467  -0.008183  -0.004724  -0.02373  -0.02051  -0.877  -0.01952
6.31e+09  0.6345  -0.5032  0.01231  -0.01993  0.03683  0.02607  -0.7974  0.306
6.311e+09  0.4123  -0.6987  0.004603  -0.002562  -0.003874  0.02274  -0.6943  0.5393
6.312e+09  0.1745  -0.8273  0.02374  -0.007383  0.003483  0.05854  -0.4729  0.7355
6.314e+09  -0.1291  -0.7918  0.00559  0.003941  -0.04011  0.01518  -0.1652  0.8753
6.315e+09  -0.4074  -0.7467  -0.01458  0.007764  -0.0004992  0.001099  0.1527  0.8817
6.316e+09  -0.6814  -0.5382  -0.0007755  -0.02218  0.001906  0.02467  0.3953  0.7651
6.318e+09  -0.8143  -0.3003  -0.01831  -0.008254  0.02079  -0.00216  0.646  0.5526
6.319e+09  -0.7815  -0.01758  -5.484e-05  0.01825  -0.018  -0.02826  0.8231  0.3022
6.32e+09  -0.7885  0.2799  -0.02412  -0.008262  0.009679  -0.02885  0.8885  0.01327
6.321e+09  -0.632  0.5609  -0.001395  0.01401  -0.0004708  0.00323  0.8705  -0.3003
6.322e+09  -0.3991  0.757  0.01901  -0.008821  0.01407  0.002824  0.6868  -0.5607
6.324e+09  -0.1395  0.8585  -0.02326  0.005036  -0.009482  0.04621  0.4417  -0.7842
6.325e+09  0.1508  0.7726  0.02133  0.00442  0.007859  -0.008335  0.1527  -0.885
6.326e+09  0.4378  0.7457  -0.005577  -0.007854  -0.002564  0.02755  -0.1748  -0.8819
6.328e+09  0.7558  0.4844  -0.01793  0.009109  -0.05087  0.03385  -0.4413  -0.7917
6.329e+09  0.8106  0.2744  0.0167  -0.009522  0.01912  0.0138  -0.6496  -0.6288
6.33e+09  0.8362  -0.01349  0.008117  0.005281  -0.03487  0.03652  -0.8404  -0.3403
6.331e+09  0.7417  -0.3456  0.02676  0.01922  0.01071  -0.03222  -0.8864  0.01195
6.332e+09  0.5847  -0.577  0.03756  -0.01177  0.0001362  0.001061  -0.8854  0.3037
6.334e+09  0.3822  -0.8  -0.01537  0.0118  -0.002059  -0.02023  -0.7173  0.5707
6.335e+09  0.06097  -0.8227  0.0289  -0.008621  -0.03428  0.02743  -0.4873  0.7796
6.336e+09  -0.1955  -0.782  0.01274  0.01427  -0.007222  -0.003921  -0.1921  0.903
6.338e+09  -0.5438  -0.6795  0.0506  0.00609  0.05744  -0.007694  0.1251  0.8719
6.339e+09  -0.6628  -0.458  -0.02715  -0.03125  -0.02275  0.01273  0.4368  0.8081
6.34e+09  -0.8381  -0.1529  -0.002984  0.0101  -0.01544  0.02201  0.6715  0.6346
6.341e+09  -0.8542  0.1119  0.019  0.04999  -0.007321  -0.01268  0.8507  0.3469
6.342e+09  -0.7948  0.4413  -0.007238  -0.01144  0.02359  -0.05209  0.9293  0.06945
6.344e+09  -0.5427  0.6913  -0.03345  0.005457  0.01011  -0.002495  0.907  -0.2637
6.345e+09  -0.2986  0.8068  -0.007052  0.01605  0.01001  -0.02284  0.7721  -0.5681
6.346e+09  0.01341  0.9178  0.01629  -0.01355  -0.02836  -0.01764  0.5267  -0.7643
6.348e+09  0.3496  0.8029  0.01245  -0.0201  -0.02358  -0.009897  0.2109  -0.9357
6.349e+09  0.5966  0.6532  -0.02349  0.01491  -0.03107  0.04722  -0.1059  -0.9196
6.35e+09  0.7527  0.4426  -0.0129  -0.03542  -0.06344  -0.02488  -0.4447  -0.8775
6.351e+09  0.9033  0.08512  0.002846  -3.617e-05  -0.0189  0.01793  -0.6743  -0.664
6.352e+09  0.8658  -0.2307  0.01188  -0.03949  0.01982  0.01135  -0.8509  -0.3792
6.354e+09  0.6906  -0.4398  0.001737  -0.008054  0.0399  0.01317  -0.8992  -0.005089
6.355e+09  0.5284  -0.7245  -0.004198  -0.02118  -0.0001647  -0.001124  -0.8777  0.2741
6.356e+09  0.2236  -0.8498  0.01396  -0.008291  0.002968  -0.04079  -0.7428  0.5639
6.358e+09  -0.1238  -0.8825  0.004279  0.0008667  0.0001893  0.008436  -0.5537  0.7997
6.359e+09  -0.3876  -0.7964  0.005206  0.02596  -0.002847  0.003266  -0.2072  0.8687
6.36e+09  -0.681  -0.5562  -0.02102  -0.01798  -0.005742  -0.01628  0.04478  0.9379
6.361e+09  -0.7833  -0.3734  0.01496  -0.0284  -0.0171  -0.04834  0.4396  0.808
6.362e+09  -0.9004  -0.06327  0.001422  -0.02343  -0.01994  0.04077  0.7014  0.6587
6.364e+09  -0.8506  0.2808  -0.01688  0.009449  -0.01789  0.04369  0.835  0.3797
6.365e+09  -0.6728  0.6039  -0.02313  0.01752  0.03421  0.0168  0.9685  0.06974
6.366e+09  -0.4238  0.7493  -0.004539  -0.02968  0.004668  -0.02769  0.8953  -0.2518
6.368e+09  -0.1603  0.8832  0.01113  0.01936  -0.01971  0.02832  0.7723  -0.5384
6.369e+09  0.1688  0.8581  -0.007208  0.03298  0.00558  -0.01325  0.5331  -0.7712
6.37e+09  0.4532  0.7496  0.01567  -0.03121  -0.01633  0.03674  0.286  -0.9077
6.371e+09  0.7716  0.5225  -0.01205  0.004374  0.01309  0.01211  -0.07896  -0.958
6.372e+09  0.8311  0.2016  -0.003715  0.02096  -0.008139  -0.008601  -0.4203  -0.8564
6.374e+09  0.8759  -0.1018  -0.007559  0.02956  0.03278  0.002156  -0.6466  -0.6679
6.375e+09  0.8364  -0.4286  0.0276  -0.02103  -0.01331  0.008764  -0.8452  -0.4209
6.376e+09  0.6094  -0.6662  0.01311  0.01916  0.04822  -0.008544  -0.9231  -0.1305
6.378e+09  0.3392  -0.7766  -0.01221  -0.001264  -0.02547  -0.04159  -0.8752  0.2028
6.379e+09  0.005971  -0.9095  0.02002  0.0009914  -0.00252  -0.001342  -0.8285  0.5339
6.38e+09  -0.2747  -0.818  -0.01712  -0.004936  -0.002248  -0.009351  -0.5433  0.7129
6.381e+09  -0.5638  -0.6765  0.00656  0.03676  0.005158  0.002404  -0.2806  0.9456
6.382e+09  -0.8372  -0.407  -0.02886  0.008229  -0.0109  -0.01064  0.04648  0.9589
6.384e+09  -0.8817  -0.09326  0.02181  0.0142  0.01905  0.008148  0.3678  0.8611
6.385e+09  -0.8937  0.1948  -0.008227  0.02935  -0.02429  0.01049  0.6438  0.6481
6.386e+09  -0.7496  0.4778  0.00458  -0.02492  0.01385  0.01939  0.8837  0.4014
6.388e+09  -0.5241  0.7331  -0.00647  0.02393  0.005514  0.032  0.8947  0.1254
6.389e+09  -0.245  0.8142  0.04391  -0.009398  0.03852  0.03483  0.8746  -0.1897
6.39e+09  0.08901  0.9156  -0.008766  -0.005123  -0.04378  -0.01522  0.7411  -0.4913
6.391e+09  0.4302  0.7926  -0.009297  -0.004533  0.008551  0.002341  0.6202  -0.761
6.392e+09  0.6224  0.597  0.009378  0.0204  0.0256  0.03107  0.252  -0.8852
6.394e+09  0.8436  0.337  0.02771  0.0253  -0.009193  0.03026  -0.02009  -0.9472
6.395e+09  0.9285  -0.03877  -0.00199  0.0156  0.04047  -0.0158  -0.3546  -0.8889
6.396e+09  0.8559  -0.3122  -0.01197  0.02288  -0.01984  -0.003298  -0.5894  -0.6822
6.398e+09  0.6856  -0.6092  0.01136  0.04842  0.03522  -0.03242  -0.8106  -0.4379
6.399e+09  0.4979  -0.7109  -0.0274  0.008654  -0.00424  -0.01509  -0.894  -0.1258
6.4e+09  0.1478  -0.8897  -0.02603  -0.009368  -0.02895  0.0006187  -0.9202  0.1749
6.401e+09  -0.1402  -0.876  0.03523  0.01359  0.009735  -0.005087  -0.7691  0.4302
6.402e+09  -0.4483  -0.776  -0.01151  0.003292  0.001151  -0.0221  -0.5781  0.7005
6.404e+09  -0.7351  -0.5562  -0.01677  0.01248  0.02638  0.03055  -0.2982  0.8699
6.405e+09  -0.8688  -0.2419  0.002769  -0.04795  -0.009826  0.02275  -0.01809  0.9031
6.406e+09  -0.9144  0.01683  -0.02434  0.001391  -0.01381  0.01265  0.2833  0.8669
6.408e+09  -0.843  0.3706  0.003199  -0.03009  -0.03014  0.028  0.5706  0.707
6.409e+09  -0.6055  0.5761  0.02957  0.001257  0.02966  0.0166  0.8071  0.4582
6.41e+09  -0.4096  0.7655  0.0467  0.01984  -0.02321  -0.0102  0.8932  0.1733
6.411e+09  -0.0712  0.8866  -0.007309  -0.01272  -0.03801  -0.02434  0.8665  -0.1762
6.412e+09  0.2377  0.8493  -0.01977  -0.01555  0.01044  0.02586  0.8078  -0.4174
6.414e+09  0.5416  0.7165  -0.003414  0.01174  0.03545  0.05199  0.6279  -0.6746
6.415e+09  0.7685  0.4481  0.03346  -0.01492  0.01216  -0.01311  0.2855  -0.867
6.416e+09  0.8468  0.1829  0.0276  0.02081  0.02655  0.03563  -0.008608  -0.8855
6.418e+09  0.8471  -0.1435  0.02676  -0.02792  0.002  -0.03177  -0.3033  -0.8345
6.419e+09  0.7497  -0.4363  0.002671  0.002638  -0.06166  0.02275  -0.5087  -0.6758
6.42e+09  0.5433  -0.6591  -0.007437  -0.01937  -0.03856  -0.01929  -0.8038  -0.4628
6.421e+09  0.3102  -0.8074  0.007654  0.0127  0.009807  -0.008173  -0.8474  -0.2131
6.422e+09  0.02927  -0.9177  -0.00627  0.02905  -0.002841  0.04232  -0.8508  0.1241
6.424e+09  -0.2954  -0.8292  -0.04978  -0.01864  -0.001603  0.03194  -0.7967  0.3577
6.425e+09  -0.6102  -0.6164  0.01162  -0.0113  0.01139  -0.03524  -0.6018  0.6399
6.426e+09  -0.7505  -0.4607  0.01336  0.02048  0.02675  0.01107  -0.3933  0.7928
6.428e+09  -0.8531  -0.0777  -0.001533  0.008731  -0.04536  -0.02213  -0.04212  0.8697
6.429e+09  -0.8728  0.1951  -0.02816  -0.008289  0.00266  0.01192  0.2523  0.8629
6.43e+09  -0.7422  0.4591  0.02608  -0.05077  -0.01455  -0.01564  0.546  0.7207
6.431e+09  -0.5209  0.6931  0.03327  -0.005165  -0.03931  -0.03513  0.7498  0.4959
6.432e+09  -0.2408  0.8826  -0.002937  -0.004938  -0.04463  0.03423  0.8542  0.2063
6.434e+09  0.0409  0.8609  -0.01392  -0.03105  0.022  0.04141  0.8456  -0.04165
6.435e+09  0.3505  0.7832  -0.01566  -0.02464  0.03083  -0.01033  0.8045  -0.3481
6.436e+09  0.6426  0.5358  -0.04396  -0.00795  0.00138  -0.01897  0.5632  -0.6215
6.438e+09  0.8146  0.3444  0.007958  -0.01657  0.02131  0.04495  0.3743  -0.8049
6.439e+09  0.8171  -0.01365  -0.002722  0.02148  -0.0005025  -0.03165  0.05287  -0.8602
6.44e+09  0.8037  -0.2378  -0.01768  -0.001022  0.02003  -0.004871  -0.2499  -0.7942
6.441e+09  0.6705  -0.5619  0.03026  -0.007436  -0.03742  -0.006364  -0.4967  -0.6927
6.442e+09  0.4595  -0.7034  -0.02155  -0.007994  -0.01057  0.03144  -0.725  -0.4991
6.444e+09  0.1536  -0.8444  0.01312  0.04009  0.01127  -0.003597  -0.8125  -0.1401
6.445e+09  -0.1355  -0.802  -0.00859  -0.02062  0.01833  -0.001677  -0.8495  0.04006
6.446e+09  -0.3949  -0.7296  -0.02254  -0.01201  0.01594  -0.01671  -0.8361  0.3872
6.448e+09  -0.6357  -0.5998  -0.007437  0.02686  -0.03077  -0.01341  -0.6075  0.5786
6.449e+09  -0.7919  -0.2799  -0.004029  0.03666  -0.05389  0.01502  -0.3325  0.7292
6.45e+09  -0.8169  0.009933  -0.02863  0.01963  -0.01242  0.03871  -0.0649  0.8346
6.451e+09  -0.7806  0.3493  -0.0275  -0.005686  -0.008965  -0.0141  0.2186  0.8121
6.452e+09  -0.6113  0.5725  0.007026  0.03557  0.03579  0.04395  0.5043  0.6687
6.454e+09  -0.4263  0.7722  0.03241  0.03134  0.002955  0.008878  0.6619  0.4675
6.455e+09  -0.1324  0.8603  -0.005997  -0.008267  -0.01634  0.01836  0.7767  0.202
6.456e+09  0.195  0.8502  -0.0289  0.001528  -0.04531  0.05122  0.804  -0.08409
6.458e+09  0.4434  0.7981  -0.008243  -0.04768  -0.04544  -0.01817  0.7513  -0.3796
6.459e+09  0.7452  0.506  -0.01048  0.07142  0.02151  -0.02109  0.6016  -0.603
6.46e+09  0.8222  0.2743  -0.01422  0.0002252  -0.06439  -0.01121  0.3087  -0.7314
6.461e+09  0.8312  -0.05013  -0.03445  0.01736  -0.002873  0.02995  0.06568  -0.7681
6.462e+09  0.8047  -0.3684  0.01166  0.002003  0.002641  -0.01439  -0.2453  -0.781
6.464e+09  0.6284  -0.6168  0.003993  0.01211  -0.00276  -0.01495  -0.4768  -0.6282
6.465e+09  0.3837  -0.7779  0.01807  0.02756  0.01233  0.03434  -0.6905  -0.436
6.466e+09  0.05062  -0.8626  0.03173  0.02221  0.007753  -0.05802  -0.7311  -0.1768
6.468e+09  -0.2121  -0.8248  -0.01819  -0.008733  0.03894  0.02089  -0.8213  0.07918
6.469e+09  -0.4038  -0.7215  0.02255  0.03343  -0.04382  -0.0252  -0.7242  0.3376
6.47e+09  -0.6356  -0.4803  0.01391  0.01212  0.002491  0.01066  -0.5253  0.5689
6.471e+09  -0.7859  -0.2263  -0.01736  -0.03285  -0.02143  -0.01371  -0.3178  0.7529
6.472e+09  -0.8465  0.1015  -0.01047  -0.002342  0.01251  -0.02647  -0.04869  0.8107
6.474e+09  -0.7554  0.3565  0.01273  0.02825  0.05845  -0.03678  0.205  0.7446
6.475e+09  -0.5871  0.5953  -0.02093  -0.007216  -0.05079  0.01187  0.4547  0.6314
6.476e+09  -0.3686  0.7957  0.04604  -0.03764  0.0009539  -0.01132  0.6135  0.442
6.478e+09  -0.01174  0.849  0.02007  -0.03229  0.0007401  -0.003686  0.7597  0.2019
6.479e+09  0.2318  0.7853  0.001276  -0.03098  0.00677  -0.01959  0.7728  -0.03935
6.48e+09  0.5048  0.6416  0.03594  0.01521  0.01022  0.04078  0.6831  -0.3689
6.481e+09  0.6508  0.4834  -0.06045  0.03615  -0.02343  -0.02954  0.5458  -0.5808
6.482e+09  0.8428  0.1559  -0.04087  4.322e-05  -0.01055  -0.03715  0.3121  -0.6901
6.484e+09  0.8367  -0.1431  0.04074  -0.05892  0.0003596  -0.01354  0.09527  -0.7718
6.485e+09  0.7033  -0.3907  -0.03206  -0.007092  0.02951  0.018  -0.1775  -0.7716
6.486e+09  0.5894  -0.5923  -0.01758  -0.01741  0.0617  -0.02493  -0.4669  -0.6053
6.488e+09  0.6699  -1.435  0.04008  -0.01237  -0.4389  0.5825  -0.6637  -0.4927
6.489e+09  0.003578  -0.8745  -0.01218  -0.01382  -0.02589  -0.001688  -0.7583  -0.2041
6.49e+09  -0.2808  -0.8002  -0.01223  -0.01813  0.06798  0.009006  -0.7879  0.1309
6.491e+09  -0.4998  -0.7086  0.0466  -0.02747  -0.001514  0.04822  -0.6721  0.3774
6.492e+09  -0.6783  -0.4849  0.03743  -0.02776  0.001841  0.0003999  -0.5412  0.5355
6.494e+09  -0.7315  -0.1851  0.009326  -0.02002  0.06285  -0.03963  -0.2636  0.7291
6.495e+09  -0.8026  0.1197  -0.03656  -0.03915  -0.0007894  0.01961  -0.04489  0.7616
6.496e+09  -0.7936  0.4175  0.01419  -0.005078  -0.02001  0.003599  0.2074  0.7352
6.498e+09  -0.5404  0.6449  0.0294  0.03722  -0.01656  0.03984  0.4566  0.6181
6.499e+09  -0.3514  0.8118  0.003255  -0.0002634  -0.006935  0.02635  0.6225  0.4358
6.5e+09  0.2231  0.8165  0.03071  0.01348  0.008426  0.04006  0.7733  0.1937
6.501e+09  0.2667  0.7884  0.03346  0.03951  0.01458  -0.01085  0.7572  -0.06801
6.502e+09  0.5487  0.6673  0.02285  0.007178  -0.02886  0.01545  0.6677  -0.3606
6.504e+09  0.7179  0.5047  -0.007404  -0.0002717  0.01711  0.001863  0.4784  -0.5796
6.505e+09  0.8679  0.1314  -0.0421  -0.02856  -0.001201  -0.01608  0.3072  -0.7385
6.506e+09  0.8562  -0.1833  0.002418  0.008267  -0.02725  0.0007972  0.04922  -0.7634
6.508e+09  0.7352  -0.4524  -0.0128  -0.01139  -0.01383  0.009962  -0.2169  -0.7275
6.509e+09  0.5508  -0.6992  0.01495  -0.009333  -0.01797  0.03717  -0.4697  -0.5892
6.51e+09  0.2991  -0.8541  -0.03448  -0.02976  0.04002  0.03004  -0.6514  -0.4296
6.511e+09  -0.03158  -0.8551  0.0177  -0.005371  -0.01598  0.006517  -0.7206  -0.1489
6.512e+09  -0.2776  -0.8408  0.03516  -0.000655  -0.000603  0.06386  -0.7325  0.1168
6.514e+09  -0.5074  -0.6657  0.01861  -0.04432  -0.02978  -0.0541  -0.6174  0.3783
6.515e+09  -0.7471  -0.4733  0.01051  0.007318  0.009893  -0.01009  -0.4526  0.5976
6.516e+09  -0.845  -0.1518  0.008189  -0.01791  -0.02581  0.003769  -0.2508  0.7355
6.518e+09  -0.8752  0.2085  -0.0004809  -0.01969  0.001959  0.009565  0.008018  0.7435
6.519e+09  -0.7175  0.4645  -0.02072  -0.00853  -0.01371  0.01032  0.2752  0.727
6.52e+09  -0.523  0.743  -0.02856  0.03142  0.02465  -0.009084  0.5134  0.5558
6.521e+09  -0.2652  0.8832  -0.01573  -0.005395  0.02154  0.005362  0.6347  0.3354
6.522e+09  0.0709  0.9301  0.01186  -0.05418  -0.01055  0.001273  0.73  0.06933
6.524e+09  0.3192  0.8669  0.04794  -0.01327  -0.01027  -0.01793  0.7165  -0.1306
6.525e+09  0.5676  0.6822  -0.01948  -0.03527  0.01409  0.02066  0.5898  -0.3669
6.526e+09  0.814  0.4161  -0.0002754  0.03943  -0.009527  -0.00217  0.406  -0.589
6.528e+09  0.9589  0.08208  0.002267  0.01337  0.0237  -0.01674  0.164  -0.6548
6.529e+09  0.8897  -0.2312  0.01411  -0.03073  -0.0001529  -0.03885  -0.05842  -0.6874
6.53e+09  0.7607  -0.5452  -0.007459  0.02693  -0.003545  -0.04068  -0.2747  -0.6444
6.531e+09  0.5086  -0.7159  0.0002747  -0.01487  -0.002862  0.02316  -0.4295  -0.4903
6.532e+09  0.2545  -0.8787  0.01182  -0.002984  -0.017  0.003791  -0.6  -0.3082
6.534e+09  -0.02589  -0.9168  0.003147  -0.02606  -0.03496  0.01422  -0.6552  -0.08623
6.535e+09  -0.3529  -0.8696  0.01071  0.01182  0.00247  0.03122  -0.5895  0.1298
6.536e+09  -0.6591  -0.6455  -0.01233  0.01379  -0.02786  -0.0363  -0.5702  0.3194
6.538e+09  -0.8657  -0.4235  0.01504  0.02453  0.01615  0.00562  -0.4046  0.4772
6.539e+09  -0.9549  -0.008798  -0.0005486  0.001144  0.01863  0.03607  -0.3038  0.5978
6.54e+09  -0.9024  0.2369  -0.0473  -0.01659  0.02156  -0.0406  -0.02775  0.6565
6.541e+09  -0.748  0.5849  0.008316  -0.01471  0.008993  -0.01697  0.1898  0.6808
6.542e+09  -0.4844  0.7303  -0.004487  -0.004108  0.00629  0.008389  0.3878  0.5752
6.544e+09  -0.2055  0.9567  -0.004748  -0.006283  0.03964  -0.00428  0.6155  0.4133
6.545e+09  0.1495  0.9382  0.002789  0.009562  -0.002239  -0.04128  0.7398  0.2037
6.546e+09  0.4733  0.8523  -0.02411  -0.02013  0.02946  0.003009  0.7496  -0.07841
6.548e+09  0.7423  0.5701  0.02477  0.01798  0.02002  0.02532  0.6148  -0.3019
6.549e+09  0.8726  0.3373  -0.01207  0.0005542  -0.004448  -0.005527  0.4731  -0.5628
