# Hz S RI R 50
6.25e+09  -0.1821  0.774  0.01082  0.02643  -0.01517  0.02088  0.1528  0.4787
6.251e+09  -0.02937  0.8553  0.0174  -0.01032  0.0002111  0.01453  0.3517  0.3834
6.252e+09  0.3112  0.7222  -0.01758  0.001124  0.03068  0.02474  0.509  0.2541
6.254e+09  0.5851  0.6151  0.005366  0.0159  0.04368  -0.02123  0.6123  0.0208
6.255e+09  0.811  0.3643  -0.0142  0.009625  0.05289  0.01763  0.5821  -0.209
6.256e+09  0.8081  0.09434  -0.002001  0.01041  -0.02147  -0.01145  0.5147  -0.4427
6.258e+09  0.7715  -0.195  0.006304  -0.0127  0.005866  -0.05739  0.3001  -0.5844
6.259e+09  0.6635  -0.4391  -0.0233  0.003492  -0.02074  -0.02227  0.04319  -0.6951
6.26e+09  0.4719  -0.6849  -0.01273  0.005556  -0.0005378  0.006375  -0.2108  -0.6376
6.261e+09  0.2735  -0.7753  0.03867  -0.01929  0.03326  -0.02956  -0.4564  -0.5315
6.262e+09  -0.04329  -0.8479  0.007677  0.01679  -0.007556  -0.00221  -0.6189  -0.3528
6.264e+09  -0.2864  -0.7842  -0.01351  -0.00533  -0.001238  0.01657  -0.7013  -0.1137
6.265e+09  -0.6097  -0.5593  0.03361  -0.005723  0.02594  0.007883  -0.6941  0.1572
6.266e+09  -0.6771  -0.29  0.009128  0.01281  0.005287  -0.006721  -0.6276  0.3686
6.268e+09  -0.813  -0.06457  -0.007409  -0.0178  0.01496  -0.05499  -0.4245  0.5864
6.269e+09  -0.7557  0.2263  -0.01235  0.009843  0.03124  -0.002308  -0.2014  0.7295
6.27e+09  -0.7027  0.4221  0.03616  0.02688  0.02514  -0.02494  0.0808  0.7261
6.271e+09  -0.4821  0.6366  -0.01411  -0.0005821  0.03248  0.01051  0.3173  0.6658
6.272e+09  -0.1887  0.8142  -0.01957  -0.00277  0.008247  -0.005701  0.5313  0.5014
6.274e+09  0.0693  0.774  -0.0389  -0.003962  -0.002179  -0.007779  0.6963  0.3043
6.275e+09  0.3339  0.7389  -0.02422  -0.02975  0.02165  -0.01426  0.7575  0.05927
6.276e+09  0.5413  0.5585  -0.0002948  -0.008691  0.02192  -0.01187  0.7224  -0.2494
6.278e+09  0.7208  0.3229  -0.0005506  0.01894  0.02397  -0.01488  0.6415  -0.4589
6.279e+09  0.8213  0.04138  -0.01298  0.02351  -0.02627  -0.007208  0.4025  -0.6697
6.28e+09  0.7548  -0.2699  -0.009122  0.03263  -0.02609  0.01511  0.1618  -0.7614
6.281e+09  0.6728  -0.5032  -0.01053  0.01472  -0.03208  0.01808  -0.1245  -0.7736
6.282e+09  0.4735  -0.7105  0.004918  0.005875  -0.04033  -0.03005  -0.3376  -0.6741
6.284e+09  0.1678  -0.78  -0.02003  -0.01122  0.01129  0.06056  -0.5856  -0.5209
6.285e+09  -0.1149  -0.7894  0.002972  0.007393  -0.00782  0.01663  -0.7053  -0.3163
6.286e+09  -0.3679  -0.7218  -0.04121  0.0018  -0.0642  -0.00399  -0.7738  -0.03441
6.288e+09  -0.5919  -0.5501  0.008873  -0.008924  0.06628  -0.01184  -0.7122  0.2646
6.289e+09  -0.7267  -0.305  0.01153  0.02119  -0.005034  0.05016  -0.6191  0.5028
6.29e+09  -0.7868  -0.05647  -0.004816  -0.01807  -0.04962  -0.02052  -0.4154  0.6655
6.291e+09  -0.725  0.2644  0.01454  0.00809  0.02617  -0.0286  -0.1662  0.7521
6.292e+09  -0.6245  0.5303  -0.001102  -0.01454  -0.004782  0.01832  0.1176  0.7858
6.294e+09  -0.4062  0.6393  0.008094  -0.0205  -0.01742  -0.06069  0.3919  0.7125
6.295e+09  -0.1805  0.8239  0.001847  0.005768  -0.02257  0.01877  0.6169  0.5371
6.296e+09  0.08761  0.8474  0.003504  0.01982  -0.01446  -0.007523  0.7821  0.3029
6.298e+09  0.3882  0.703  0.008393  -0.01978  0.01858  0.004948  0.8513  0.02176
6.299e+09  0.6092  0.5468  0.01036  0.02052  -0.03924  -0.0239  0.7624  -0.255
6.3e+09  0.7599  0.2321  -0.006806  -0.02581  0.006146  0.003446  0.64  -0.4919
6.301e+09  0.7663  -0.01322  0.0226  0.02289  0.02985  -7.077e-05  0.4256  -0.6861
6.302e+09  0.7749  -0.2687  0.002863  -0.005051  -0.002646  -0.002413  0.1486  -0.8117
6.304e+09  0.6405  -0.516  -0.01746  0.03084  0.007552  0.03936  -0.1632  -0.8185
6.305e+09  0.4104  -0.7405  0.01373  -0.0153  0.05424  0.01951  -0.4233  -0.7276
6.306e+09  0.1263  -0.7699  0.004067  0.007032  0.01972  0.01208  -0.6378  -0.5735
6.308e+09  -0.1466  -0.7982  -0.02567  0.0168  -0.002247  0.0239  -0.7957  -0.2986
6.309e+09  -0.4646  -0.7285  0.002056  -0.01044  0.007546  0.008822  -0.878  0.00498
6.31e+09  -0.6626  -0.5031  0.03075  -0.003393  0.04126  0.04935  -0.8  0.255
6.311e+09  -0.7527  -0.2741  0.01302  -0.02242  0.02822  -0.01423  -0.6589  0.5464
6.312e+09  -0.7997  0.1095  -0.01022  0.003075  0.03156  -0.0135  -0.4281  0.7591
6.314e+09  -0.7528  0.2909  -0.02057  0.001205  0.04055  0.0408  -0.156  0.8543
6.315e+09  -0.6082  0.572  0.01369  -0.02596  0.0136  0.008547  0.1334  0.8713
6.316e+09  -0.3212  0.7042  0.01664  0.009703  -0.03677  -0.003925  0.4623  0.773
6.318e+09  -0.1266  0.8419  0.002584  -0.01453  0.0003732  -0.01907  0.6792  0.5529
6.319e+09  0.1601  0.8559  -0.0008627  0.009004  -0.01751  -0.0102  0.8041  0.2702
6.32e+09  0.5097  0.6949  -0.02946  0.001731  -0.006143  0.01787  0.866  -0.02014
6.321e+09  0.6588  0.4773  -0.01319  -0.01256  -0.01934  -0.04715  0.8243  -0.2931
6.322e+09  0.8143  0.2301  -0.009913  0.005387  0.02297  -0.01075  0.6864  -0.5595
6.324e+09  0.8499  -0.06108  -0.0276  0.02623  -0.00171  -0.01181  0.4624  -0.7661
6.325e+09  0.7234  -0.3906  -0.01638  -0.02208  0.005307  -0.01714  0.17  -0.8752
6.326e+09  0.5846  -0.5809  0.01076  0.03214  0.02835  -0.0009168  -0.1446  -0.8665
6.328e+09  0.3271  -0.7996  -0.0006017  0.0001855  0.008303  0.05726  -0.4487  -0.7935
6.329e+09  0.04983  -0.8229  -0.02249  -0.02599  -0.002399  -0.01138  -0.6711  -0.6183
6.33e+09  -0.2015  -0.7751  -0.03979  -0.0008812  0.006988  -0.05484  -0.8232  -0.3335
6.331e+09  -0.5512  -0.6465  0.00451  0.0319  0.02447  -0.00996  -0.9051  -0.01978
6.332e+09  -0.6971  -0.4117  -0.03654  0.02182  0.0277  0.009208  -0.8146  0.298
6.334e+09  -0.8413  -0.1531  0.02398  -0.02065  -0.000387  0.03505  -0.7129  0.5853
6.335e+09  -0.8579  0.1278  0.003174  -0.005164  0.0003078  -0.02605  -0.4859  0.8024
6.336e+09  -0.7607  0.4562  0.03804  0.02311  0.01026  -0.04005  -0.185  0.8811
6.338e+09  -0.5494  0.6321  0.02588  -0.00372  0.05171  0.03143  0.128  0.9286
6.339e+09  -0.3314  0.7816  0.008036  -0.01983  -0.01482  -0.01871  0.4527  0.8125
6.34e+09  0.0347  0.8943  0.00652  -0.02053  -0.01995  0.0007618  0.701  0.6172
6.341e+09  0.3075  0.7917  -0.04988  0.002288  -0.03845  -0.01152  0.8404  0.3714
6.342e+09  0.573  0.6039  0.01059  0.005951  -0.01149  0.01934  0.9384  0.06981
6.344e+09  0.6932  0.3514  0.006754  0.009802  -0.03733  -0.01451  0.8674  -0.2739
6.345e+09  0.8308  0.08946  0.002796  0.003003  -0.01455  0.06436  0.7107  -0.5483
6.346e+09  0.8237  -0.1885  -0.01767  -0.004306  -0.01871  0.036  0.5007  -0.7741
6.348e+09  0.7032  -0.4321  -0.01692  -0.001382  0.01584  -0.04902  0.2102  -0.9517
6.349e+09  0.5162  -0.6966  0.002282  0.02148  0.02925  -0.02733  -0.106  -0.9126
6.35e+09  0.229  -0.844  0.005199  -0.03126  -0.03788  0.0005837  -0.4294  -0.8513
6.351e+09  -0.04928  -0.8799  -0.001217  0.01063  0.005495  -0.04141  -0.6586  -0.6685
6.352e+09  -0.3226  -0.7984  0.0225  0.0187  -0.01717  0.0003781  -0.8601  -0.385
6.354e+09  -0.5939  -0.6139  0.04172  0.01659  0.01889  0.01384  -0.9199  -0.08561
6.355e+09  -0.7888  -0.3616  -0.01288  0.0002155  -0.002263  -0.001026  -0.9019  0.2477
6.356e+09  -0.8896  -0.02088  0.01324  -0.0216  0.002036  -0.006035  -0.8046  0.5073
6.358e+09  -0.8382  0.2339  0.01897  0.01667  -0.05725  -0.004463  -0.5353  0.7684
6.359e+09  -0.7097  0.5123  0.01728  -0.004827  0.003003  -0.01528  -0.2433  0.9254
6.36e+09  -0.5102  0.7261  -0.003248  0.005613  -0.06352  -0.01226  0.1154  0.9481
6.361e+09  -0.1944  0.8531  -0.006946  0.01252  -0.03215  0.008415  0.4434  0.8271
6.362e+09  0.1224  0.8228  -0.0178  0.02703  -0.0496  0.007517  0.664  0.6575
6.364e+09  0.4268  0.7647  -0.03303  0.0111  0.02927  -0.03892  0.8376  0.4091
6.365e+09  0.6598  0.574  0.01906  0.01039  0.01639  -0.05164  0.962  0.06509
6.366e+09  0.786  0.3344  -0.01329  0.001948  -0.02777  0.02439  0.9366  -0.2853
6.368e+09  0.8366  0.01915  -0.01941  0.01485  -0.01326  0.01854  0.7762  -0.5035
6.369e+09  0.8215  -0.3114  -0.01415  -0.01832  -0.03621  -0.0009409  0.5068  -0.7819
6.37e+09  0.6458  -0.5429  0.02445  -0.03793  -0.02821  0.04163  0.25  -0.9123
6.371e+09  0.4404  -0.7255  -0.02542  -0.02416  -0.0423  0.02016  -0.06232  -0.9304
6.372e+09  0.1454  -0.8233  -0.02471  -0.02898  0.004585  0.02991  -0.4081  -0.8574
6.374e+09  -0.1621  -0.8705  0.01304  0.01893  -0.0361  -0.05198  -0.6634  -0.7067
6.375e+09  -0.4876  -0.7086  -0.04027  -0.01371  0.02323  0.005091  -0.8685  -0.4008
6.376e+09  -0.6953  -0.5272  -0.009456  -0.02061  -0.04742  -0.03336  -0.9528  -0.08626
6.378e+09  -0.8393  -0.2963  -0.02668  0.02962  0.0297  0.01438  -0.9052  0.2139
6.379e+09  -0.8798  -0.01319  -0.0012  0.00222  0.01136  0.0119  -0.7428  0.5527
6.38e+09  -0.7908  0.2705  -0.02618  -0.006995  -0.005729  -0.009896  -0.5533  0.745
6.381e+09  -0.6502  0.611  -0.0409  -0.01916  0.02905  -0.00222  -0.2662  0.956
6.382e+09  -0.3629  0.798  -0.007567  -0.01139  0.004448  0.006741  0.0634  0.9258
6.384e+09  -0.1273  0.8863  0.008935  0.02476  -0.03855  -0.005433  0.3673  0.8491
6.385e+09  0.1821  0.8595  -0.002768  0.03577  -0.02654  0.001322  0.6621  0.6707
6.386e+09  0.4816  0.7356  0.0145  0.02317  0.03561  -0.004919  0.864  0.466
6.388e+09  0.6619  0.5251  -0.001342  0.0005344  -0.005427  0.03556  0.9301  0.1257
6.389e+09  0.7976  0.22  0.03644  0.02393  0.006374  -0.009406  0.8978  -0.2272
6.39e+09  0.8544  -0.07149  0.01863  -0.009496  0.03143  0.005588  0.7328  -0.4858
6.391e+09  0.8086  -0.3378  0.05228  -0.02422  0.004618  -0.01672  0.5732  -0.7052
6.392e+09  0.6062  -0.6426  -0.02137  -0.01648  -0.003106  0.03692  0.3013  -0.8636
6.394e+09  0.3677  -0.7847  0.02945  -0.0004709  -0.009008  0.0236  -0.03859  -0.92
6.395e+09  0.08156  -0.8864  0.02558  -0.0318  0.01163  -0.02293  -0.3752  -0.8556
6.396e+09  -0.1879  -0.8903  0.02454  -0.01236  0.004251  -0.005756  -0.5939  -0.6863
6.398e+09  -0.509  -0.7245  0.01565  -0.004335  0.01832  0.02864  -0.8008  -0.4571
6.399e+09  -0.6857  -0.5289  0.003552  -0.02161  -0.009495  -0.02641  -0.8702  -0.1431
6.4e+09  -0.8116  -0.2091  0.007798  0.03865  -0.0195  0.02097  -0.9348  0.1367
6.401e+09  -0.8941  0.08025  0.04424  -0.008398  0.01351  0.02111  -0.837  0.4553
6.402e+09  -0.8026  0.3833  -0.02958  0.01653  0.004049  -0.003286  -0.6256  0.7057
6.404e+09  -0.5727  0.6086  -0.02103  -0.02506  0.001701  -0.01225  -0.2737  0.8728
6.405e+09  -0.3245  0.7676  -0.00924  0.002776  -0.0003031  0.0002321  -0.01051  0.9442
6.406e+09  -0.04754  0.8231  -0.01071  0.03398  -0.008803  -0.02292  0.3314  0.8375
6.408e+09  0.1931  0.8466  0.007596  0.03284  0.01136  -0.01358  0.6098  0.7512
6.409e+09  0.4936  0.6722  -0.01652  0.04951  -0.0115  -0.001318  0.7574  0.4604
6.41e+09  0.6815  0.4742  0.04415  0.01034  0.02556  0.06718  0.8678  0.1515
6.411e+09  0.8057  0.2194  -0.01085  0.007801  0.0156  0.01245  0.8612  -0.1364
6.412e+09  0.8446  -0.07781  0.01972  0.01308  0.01451  -0.05437  0.801  -0.4536
6.414e+09  0.7618  -0.411  0.04128  0.04378  0.02225  -0.02714  0.5979  -0.7295
6.415e+09  0.6062  -0.6085  -0.007253  0.03036  -0.01908  -0.0001082  0.3011  -0.8545
6.416e+09  0.3079  -0.8346  0.02355  0.01517  0.01202  0.0216  0.05858  -0.8647
6.418e+09  0.04878  -0.866  -0.06488  0.03299  -0.005963  0.03579  -0.2702  -0.8826
6.419e+09  -0.2421  -0.8157  0.01591  0.01674  -0.03018  -0.03102  -0.5432  -0.7255
6.42e+09  -0.5137  -0.6594  -0.01833  -0.03852  0.008627  -0.01955  -0.7817  -0.4624
6.421e+09  -0.7316  -0.4222  0.01881  -0.05126  -0.02961  0.003952  -0.8793  -0.2425
6.422e+09  -0.8929  -0.1566  0.01393  0.01839  -0.03157  0.005893  -0.8574  0.1027
6.424e+09  -0.8364  0.1137  0.02183  -0.00691  -0.05377  0.004787  -0.77  0.4165
6.425e+09  -0.7744  0.44  -0.03562  -0.02013  0.01235  -0.005492  -0.5829  0.662
6.426e+09  -0.5501  0.5964  -0.04206  0.01193  0.0332  0.01809  -0.3791  0.8081
6.428e+09  -0.327  0.8118  -0.03719  0.01031  -0.07295  -0.01444  -0.03833  0.888
6.429e+09  -0.02214  0.855  -0.01006  -0.02238  0.03059  -0.01333  0.2389  0.8506
6.43e+09  0.2382  0.848  0.02665  0.01177  0.02554  0.04562  0.5132  0.6796
6.431e+09  0.5686  0.6665  0.005057  -0.02116  0.01167  0.01253  0.7115  0.4812
6.432e+09  0.6784  0.4944  0.06764  0.01648  0.0006931  -0.008761  0.8662  0.2175
6.434e+09  0.8064  0.1619  -0.02133  -0.02762  -0.07891  -0.00105  0.8394  -0.1012
6.435e+09  0.8552  -0.1455  -0.02244  -0.002643  0.01754  0.02942  0.7681  -0.4499
6.436e+09  0.7747  -0.4451  0.02036  0.001348  -0.01504  0.02816  0.5529  -0.6203
6.438e+09  0.5219  -0.6516  0.012  -0.02885  0.05132  0.02761  0.3605  -0.7481
6.439e+09  0.3143  -0.8526  -0.01699  -0.05594  -0.003363  0.01422  0.05052  -0.7894
6.44e+09  0.01994  -0.8563  0.02396  -0.002683  0.03909  0.007114  -0.2244  -0.8507
6.441e+09  -0.2809  -0.8332  -0.005394  -0.01456  0.07646  -0.008164  -0.4217  -0.676
6.442e+09  -0.532  -0.663  0.001119  -0.01038  -0.01216  0.03393  -0.7075  -0.4571
6.444e+09  -0.7383  -0.4068  0.004269  -0.01287  -0.01637  -0.004818  -0.802  -0.1787
6.445e+09  -0.8512  -0.1462  0.002327  -0.05864  0.009751  -0.01253  -0.8539  0.06306
6.446e+09  -0.8237  0.1435  0.04159  -0.009707  0.002821  0.00628  -0.7838  0.3792
6.448e+09  -0.7476  0.4555  -0.008979  0.01905  -0.03255  0.04203  -0.5882  0.5625
6.449e+09  -0.5226  0.6845  0.03603  0.0003079  -0.01675  -0.01826  -0.3157  0.7954
6.45e+09  -0.2926  0.8016  -0.01921  -0.02553  -0.02385  -0.009521  -0.06237  0.8342
6.451e+09  0.01093  0.8719  0.04026  -0.03725  -0.07258  0.02163  0.2445  0.8415
6.452e+09  0.324  0.8809  -0.00546  0.01439  -0.03432  -0.01903  0.4446  0.6916
6.454e+09  0.5981  0.6475  -0.004038  0.008434  0.01773  0.05102  0.6506  0.4432
6.455e+09  0.7532  0.4304  0.004285  0.01586  -0.01407  -0.03591  0.8423  0.235
6.456e+09  0.8557  0.2075  0.01376  -0.06363  0.04125  0.01149  0.8453  -0.06222
6.458e+09  0.825  -0.158  -0.03971  -0.01701  -0.01927  -0.0088  0.7598  -0.3576
6.459e+09  0.7463  -0.4187  -0.06026  0.03017  0.05632  0.0398  0.5925  -0.5855
6.46e+09  0.5814  -0.6925  -0.01043  0.01265  0.009076  0.04375  0.3228  -0.7386
6.461e+09  0.2789  -0.7883  0.01387  0.005339  -0.02858  0.01028  0.06278  -0.8225
6.462e+09  -0.0145  -0.8818  -0.01674  0.01071  -0.003824  0.01413  -0.2235  -0.7565
6.464e+09  -0.3546  -0.7725  -0.01542  -0.001357  0.003725  -0.0361  -0.4461  -0.6969
6.465e+09  -0.5792  -0.6444  0.0004249  -0.01468  -0.03391  0.01756  -0.6426  -0.4988
6.466e+09  -0.7858  -0.3979  -0.0007704  0.008991  -0.01426  0.005912  -0.8087  -0.182
6.468e+09  -0.8625  -0.1398  -0.007014  -0.003889  -0.001086  -0.03485  -0.8044  0.09568
6.469e+09  -0.9089  0.1324  0.01153  0.01517  0.007442  -0.04236  -0.7217  0.3473
6.47e+09  -0.746  0.493  0.03759  0.001729  0.008538  -0.04378  -0.5269  0.51
6.471e+09  -0.5222  0.6743  -0.003785  0.04722  -0.0635  -0.02619  -0.3038  0.6949
6.472e+09  -0.2346  0.8095  -0.00723  -0.001001  0.02956  -0.02533  -0.0257  0.7579
6.474e+09  0.05247  0.8674  -0.05479  -0.02043  -0.0007608  -0.00234  0.2177  0.7544
6.475e+09  0.3316  0.8417  0.01462  -0.02643  0.03679  -0.018  0.459  0.6417
6.476e+09  0.6262  0.6149  0.05626  -0.04171  -0.01943  0.01227  0.6295  0.4594
6.478e+09  0.8272  0.4258  -0.0158  -0.01095  -0.003768  0.006527  0.7935  0.1572
6.479e+09  0.8268  0.1024  -0.01842  -0.03686  -0.0463  -0.02063  0.7815  -0.06291
6.48e+09  0.8434  -0.226  0.02811  0.03993  -0.006727  0.01266  0.6866  -0.3237
6.481e+09  0.7381  -0.5293  -0.01823  -0.001716  0.01332  -0.03992  0.5651  -0.5682
6.482e+09  0.5154  -0.7219  0.004011  0.0376  -0.015  0.0113  0.3158  -0.7413
6.484e+09  0.2709  -0.8615  0.01152  -0.02283  0.04451  -0.01849  0.04388  -0.7981
6.485e+09  -0.07429  -0.8873  0.00454  0.03829  -0.02073  -0.04078  -0.2094  -0.7205
6.486e+09  -0.4156  -0.813  -0.02357  0.003502  0.009299  -0.05276  -0.5025  -0.6752
6.488e+09  -0.186  0.01725  -0.01031  0.03087  -0.6534  -0.3583  -0.6461  -0.452
6.489e+09  -0.8209  -0.4093  -0.01528  -0.003669  0.00199  -0.03021  -0.7741  -0.1762
6.49e+09  -0.8757  -0.03143  -0.02351  -0.002091  -0.01741  0.04216  -0.7733  0.06143
6.491e+09  -0.8463  0.2362  -0.005057  0.03609  0.03812  0.0175  -0.653  0.3696
6.492e+09  -0.7324  0.4756  -0.03007  -0.0003338  0.04735  0.01701  -0.5721  0.5384
6.494e+09  -0.5199  0.8397  -0.02855  -0.002034  -0.1122  0.05092  -0.2972  0.6881
6.495e+09  -0.257  0.9157  -0.04223  -0.01237  0.03624  -0.007129  -0.03181  0.795
6.496e+09  0.1192  0.8979  0.03044  -0.0168  0.0257  -0.01074  0.2387  0.7324
6.498e+09  0.4069  0.8018  0.03315  -0.006545  0.02922  -0.00934  0.4453  0.6133
6.499e+09  0.6586  0.6474  0.02137  -0.01893  -0.02008  0.02857  0.6767  0.4378
6.5e+09  0.8407  0.2786  0.006009  -0.01477  0.009937  0.04239  0.7478  0.1305
6.501e+09  0.933  0.01351  -0.005391  0.03764  0.02159  0.006541  0.7349  -0.0838
6.502e+09  0.8887  -0.2941  0.02674  0.0349  0.01633  -0.0257  0.6684  -0.3284
6.504e+09  0.7568  -0.6047  0.01159  -0.006706  0.01075  0.0196  0.5429  -0.5544
6.505e+09  0.4676  -0.723  -0.01056  0.01982  -0.04387  -0.02864  0.2857  -0.6932
6.506e+09  0.1501  -0.9641  -0.0052  -0.03149  0.007136  -0.02002  0.02617  -0.7953
6.508e+09  -0.1597  -0.9277  0.04419  -0.01446  0.03036  -0.0376  -0.2817  -0.7193
6.509e+09  -0.4897  -0.7586  0.03058  0.002529  -0.01523  -0.02007  -0.4616  -0.6189
6.51e+09  -0.718  -0.6273  -0.008944  0.01524  0.02402  -0.03838  -0.6435  -0.3924
6.511e+09  -0.8201  -0.3675  -0.01039  -0.02476  0.005551  0.002587  -0.7164  -0.1324
6.512e+09  -0.946  -0.02198  -0.0272  0.03024  0.01586  0.04748  -0.7627  0.1435
6.514e+09  -0.8336  0.3403  -0.007566  0.0117  -0.05108  0.01477  -0.6793  0.3839
6.515e+09  -0.7193  0.6164  -0.01708  -0.01472  -0.03303  0.02673  -0.4853  0.573
6.516e+09  -0.4628  0.8202  -0.02081  -0.009299  0.01676  -0.02846  -0.2384  0.6991
6.518e+09  -0.1261  0.9473  0.02934  0.03293  0.04808  0.04099  0.05162  0.735
6.519e+09  0.2066  0.8869  -0.01386  0.03091  -0.01429  0.04683  0.2638  0.6973
6.52e+09  0.554  0.8062  -0.002354  0.001905  -0.0002209  0.006326  0.4948  0.5411
6.521e+09  0.7407  0.5691  -0.006402  0.01434  0.03946  -0.02268  0.6368  0.334
6.522e+09  0.8774  0.2394  0.02485  0.0004701  -0.006121  -0.01816  0.7392  0.1267
6.524e+09  0.944  -0.06955  0.00951  0.01094  -0.03344  -3.471e-05  0.7085  -0.1503
6.525e+09  0.8678  -0.3998  0.03713  -0.01276  -0.01111  0.04036  0.5961  -0.3585
6.526e+09  0.605  -0.6212  -0.001848  -0.008748  -0.01141  -0.01977  0.3835  -0.5936
6.528e+09  0.4085  -0.835  -0.009007  0.01711  -0.001632  0.02226  0.2028  -0.6922
6.529e+09  0.06375  -0.9347  0.003358  0.009138  -0.03146  -0.00313  -0.07968  -0.6922
6.53e+09  -0.2899  -0.921  0.0006297  -0.01451  0.03674  -0.004001  -0.2615  -0.6515
6.531e+09  -0.5705  -0.7423  0.004549  -0.000586  -0.003004  -0.003334  -0.4858  -0.4935
6.532e+09  -0.8214  -0.5078  -0.001323  0.04378  -0.03242  0.006736  -0.625  -0.3036
6.534e+09  -0.968  -0.152  0.02686  0.00321  -0.01224  -0.02786  -0.647  -0.1254
6.535e+09  -0.9286  0.1446  -0.003655  -0.03456  0.03405  0.00228  -0.627  0.08426
6.536e+09  -0.8511  0.4412  0.01026  -0.004156  -0.003174  0.03266  -0.5756  0.28
6.538e+09  -0.6514  0.7482  -0.00156  -0.03828  0.01479  0.01586  -0.4959  0.4738
6.539e+09  -0.2911  0.851  -0.005846  -0.0378  -0.05435  -0.03272  -0.289  0.6442
6.54e+09  0.06353  0.9194  0.007547  0.01905  -0.007573  -0.02653  -0.05985  0.684
6.541e+09  0.395  0.8303  -0.03197  -0.0102  0.03393  -0.03317  0.2069  0.6549
6.542e+09  0.5979  0.7004  0.002411  0.01348  0.04319  -0.09301  0.4109  0.5782
6.544e+09  0.8457  0.3893  -0.006289  0.007875  -0.009185  -0.02436  0.5934  0.3756
6.545e+09  0.9116  0.1072  -0.01379  0.02129  0.01634  -0.01924  0.7186  0.1474
6.546e+09  0.9011  -0.2706  0.0156  -0.003205  -0.01587  0.005544  0.7047  -0.08971
6.548e+09  0.7559  -0.526  0.01669  -0.003275  0.0396  0.0366  0.6633  -0.3065
6.549e+09  0.5023  -0.7305  0.001355  -0.02978  -0.0677  -0.005154  0.5027  -0.5253
6.55e+09  0.2122  -0.8736  0.01478  -0.02199  -0.03938  -0.01007  0.2856  -0.6704
