# Hz S RI R 50
6.25e+09  -0.3237  0.7965  -0.01019  -0.03142  0.02994  -0.01395  0.1358  0.4973
6.251e+09  -0.07975  0.8182  -0.03513  0.009503  -0.03382  0.08235  0.3524  0.4187
6.252e+09  0.2699  0.7701  -0.01361  0.01567  -0.01879  0.02665  0.5254  0.2732
6.254e+09  0.4355  0.7  -0.009167  0.01048  0.0002354  -0.004889  0.6048  0.008104
6.255e+09  0.6907  0.4963  -0.02092  -0.03226  0.01013  0.02087  0.5974  -0.2189
6.256e+09  0.7524  0.1648  -0.01654  0.04449  -0.003189  -0.01628  0.4856  -0.436
6.258e+09  0.8152  -0.1  0.007317  0.004124  0.07053  -0.05853  0.2873  -0.6318
6.259e+09  0.7506  -0.3415  0.02621  0.00853  -0.004969  0.02053  0.02832  -0.6748
6.26e+09  0.5281  -0.5439  -0.02466  0.005994  0.0004921  -0.00521  -0.1917  -0.6849
6.261e+09  0.332  -0.7569  -0.008399  0.01939  -0.01767  -0.0006444  -0.4208  -0.5286
6.262e+09  0.04954  -0.782  0.02905  -0.009653  -0.04007  0.03065  -0.6318  -0.3418
6.264e+09  -0.2257  -0.7646  0.02427  0.0007946  0.004289  -0.06171  -0.7326  -0.1193
6.265e+09  -0.4627  -0.6818  0.009494  0.006311  -0.007347  0.02608  -0.695  0.1459
6.266e+09  -0.6539  -0.4956  -0.01838  0.01267  0.01519  -0.01296  -0.6071  0.4226
6.268e+09  -0.7904  -0.1469  0.01671  -0.02373  -0.023  -0.04963  -0.4119  0.5594
6.269e+09  -0.7604  0.1373  0.02628  -0.01969  -0.01386  -0.03409  -0.1983  0.7057
6.27e+09  -0.7587  0.3302  0.03207  -0.02656  0.001619  -0.02305  0.07308  0.7601
6.271e+09  -0.5318  0.5702  -0.03168  -0.01725  -0.0007993  0.04389  0.3496  0.6397
6.272e+09  -0.2678  0.7245  -0.008492  -0.02317  0.01914  0.02082  0.5418  0.5359
6.274e+09  -0.03843  0.805  -0.004254  -0.01008  0.001341  0.03603  0.6781  0.3077
6.275e+09  0.2569  0.7965  -0.01559  0.001272  -0.02234  0.05105  0.7651  0.05716
6.276e+09  0.4263  0.6166  -0.02045  0.003939  0.007166  -0.04173  0.728  -0.2514
6.278e+09  0.7012  0.4475  -0.01585  0.01709  -0.01082  0.03737  0.5835  -0.4494
6.279e+09  0.777  0.2089  -0.005633  -0.006542  0.03741  0.001523  0.4275  -0.6305
6.28e+09  0.7972  -0.08552  -0.0143  -0.022  -0.00972  0.0293  0.1375  -0.7203
6.281e+09  0.7309  -0.305  0.01522  0.009196  -0.01074  -0.01937  -0.1116  -0.7542
6.282e+09  0.5517  -0.5909  -0.0117  -0.004154  0.0002859  0.01261  -0.3804  -0.6537
6.284e+09  0.343  -0.7277  0.01406  -0.01488  0.008321  -0.007167  -0.5767  -0.5161
6.285e+09  0.05334  -0.808  0.01354  -0.02665  0.02388  -0.0139  -0.7327  -0.2979
6.286e+09  -0.2399  -0.769  0.01011  -0.007809  -0.03313  -0.01724  -0.7638  -0.02948
6.288e+09  -0.5134  -0.6127  -0.008643  -0.0426  0.01684  -0.003476  -0.7764  0.2359
6.289e+09  -0.6951  -0.4203  -0.009506  -0.01258  -0.04684  0.0005008  -0.6239  0.4944
6.29e+09  -0.7652  -0.1982  0.006845  -0.01  0.008991  -0.03056  -0.417  0.6766
6.291e+09  -0.7855  0.08573  -0.01348  -0.02139  -0.005377  0.007812  -0.1708  0.7934
6.292e+09  -0.7029  0.3907  -0.03585  0.02471  0.02464  0.01204  0.1156  0.815
6.294e+09  -0.5307  0.6559  0.0193  0.009799  -0.01587  -0.006106  0.4083  0.7017
6.295e+09  -0.2688  0.7423  0.001302  0.01533  0.01673  -0.007126  0.6016  0.5251
6.296e+09  -0.006253  0.7955  -0.00962  -0.004986  0.03769  -0.02488  0.7231  0.248
6.298e+09  0.321  0.7714  0.008087  -0.005475  0.01728  -0.02083  0.8058  0.01928
6.299e+09  0.5631  0.5764  0.009031  -0.02448  0.04648  -0.02653  0.7564  -0.2696
6.3e+09  0.7397  0.4004  -0.006938  -0.01972  -0.02921  -0.03087  0.6337  -0.5403
6.301e+09  0.8144  0.2066  0.0003201  -0.01635  -0.008801  0.03085  0.4201  -0.7041
6.302e+09  0.7935  -0.1438  -0.01763  0.0145  -0.01422  -0.023  0.1804  -0.8154
6.304e+09  0.6632  -0.4088  0.005244  -0.01344  0.004387  0.03055  -0.1511  -0.8179
6.305e+09  0.4982  -0.6382  -0.01775  -0.004354  -0.02001  -0.05669  -0.4083  -0.7615
6.306e+09  0.2965  -0.7577  -0.01061  0.001887  -0.008668  0.02664  -0.6671  -0.5621
6.308e+09  -0.06603  -0.8086  0.03995  -0.005337  0.005083  0.06563  -0.7873  -0.2861
6.309e+09  -0.3251  -0.7667  -0.01722  -0.002693  -0.008067  0.04523  -0.8329  -0.02062
6.31e+09  -0.5409  -0.6149  0.0402  0.01462  -0.01605  -0.0105  -0.7722  0.2829
6.311e+09  -0.736  -0.382  0.01257  0.01449  0.01499  0.02908  -0.7166  0.5076
6.312e+09  -0.7769  -0.08928  0.002711  -0.02505  0.01573  -0.01184  -0.4206  0.7461
6.314e+09  -0.8149  0.1726  0.02462  0.02749  -0.05122  0.01898  -0.1594  0.8482
6.315e+09  -0.6869  0.4794  0.002704  0.03237  -0.01499  -0.009093  0.1398  0.8219
6.316e+09  -0.4888  0.6319  0.003028  -0.02221  0.02463  0.0253  0.4235  0.7765
6.318e+09  -0.2135  0.7396  0.002995  0.006819  0.03311  -0.02334  0.6352  0.5424
6.319e+09  0.06338  0.8066  0.0324  0.03208  -0.02983  0.02856  0.8462  0.3409
6.32e+09  0.3173  0.7781  0.00617  -0.004421  0.04217  0.04258  0.9027  0.04275
6.321e+09  0.5788  0.5694  -0.01333  -0.003152  0.005437  0.005236  0.8297  -0.316
6.322e+09  0.7121  0.3147  -0.01781  -0.007006  -0.001938  0.02407  0.6556  -0.5882
6.324e+09  0.8445  0.04605  0.01552  -0.004666  -0.02609  -0.05268  0.5039  -0.7636
6.325e+09  0.7787  -0.1967  -0.03214  -0.02147  0.01846  -0.01781  0.1367  -0.8865
6.326e+09  0.6875  -0.5044  -0.02083  0.005064  0.004655  0.04265  -0.1708  -0.9028
6.328e+09  0.4427  -0.6958  0.02719  0.01566  -0.01661  0.01726  -0.4362  -0.806
6.329e+09  0.1217  -0.8465  0.01812  -0.01665  -0.02057  0.03889  -0.6576  -0.6131
6.33e+09  -0.1444  -0.7915  0.02121  0.007943  -0.01923  -0.04032  -0.8523  -0.3464
6.331e+09  -0.3563  -0.717  0.001594  0.006731  -0.0179  -0.02449  -0.9015  -0.03579
6.332e+09  -0.6401  -0.6203  -0.009301  0.01711  0.01398  0.006538  -0.8544  0.2908
6.334e+09  -0.7765  -0.2777  -0.003687  -0.003778  -0.04021  -0.05048  -0.7344  0.5781
6.335e+09  -0.8107  -0.02442  0.005202  0.001411  0.02919  0.02081  -0.5089  0.7183
6.336e+09  -0.792  0.2526  -0.01349  -0.02423  0.01913  -0.01328  -0.2078  0.9164
6.338e+09  -0.6649  0.4965  0.004664  0.02045  0.007424  -0.00206  0.1249  0.9143
6.339e+09  -0.453  0.7395  0.04405  -0.03216  -0.008438  0.0276  0.4228  0.8272
6.34e+09  -0.1189  0.7865  0.03619  -0.03974  0.04245  0.03048  0.6469  0.6377
6.341e+09  0.1668  0.8588  0.02035  -0.008417  -0.0201  0.03999  0.8448  0.3773
6.342e+09  0.4261  0.7373  -0.01512  -0.009799  -0.001605  -0.01581  0.9146  0.06123
6.344e+09  0.7078  0.5011  0.01118  0.00103  0.05495  -0.02154  0.9295  -0.2564
6.345e+09  0.8207  0.2578  0.005755  -0.0193  0.02553  0.03583  0.7371  -0.5298
6.346e+09  0.8285  -0.07363  0.06158  0.001466  -0.001072  -0.002419  0.5097  -0.7613
6.348e+09  0.7566  -0.3463  -0.008163  -0.003175  0.008103  0.00997  0.2392  -0.9121
6.349e+09  0.5996  -0.621  -0.004134  0.02961  0.01074  -0.01565  -0.09548  -0.9228
6.35e+09  0.4035  -0.7992  0.00714  0.0002597  -0.03377  0.009138  -0.3965  -0.8165
6.351e+09  0.09014  -0.8467  0.01301  -0.03224  -0.02332  0.003258  -0.6581  -0.6432
6.352e+09  -0.2069  -0.8244  -0.006092  0.008004  -0.05533  0.01042  -0.8909  -0.3899
6.354e+09  -0.4548  -0.7056  0.008959  -0.01472  0.01472  0.0144  -0.915  -0.04471
6.355e+09  -0.6918  -0.5149  0.0107  0.00246  -0.01425  -0.01313  -0.8868  0.2562
6.356e+09  -0.852  -0.201  0.008082  0.01008  -0.003849  0.01982  -0.7884  0.5675
6.358e+09  -0.8836  0.09061  -0.01328  0.01759  -0.02436  0.01836  -0.4901  0.7555
6.359e+09  -0.7355  0.4218  0.005432  -0.001606  -0.0005225  -0.003618  -0.1915  0.9589
6.36e+09  -0.5896  0.6634  -0.01548  0.01555  -0.005968  -0.008526  0.1248  0.9216
6.361e+09  -0.2989  0.8079  -0.00187  0.02689  0.02103  -0.02073  0.4039  0.8491
6.362e+09  -0.06457  0.8452  0.02188  0.001129  0.0001828  0.01263  0.7033  0.6632
6.364e+09  0.2432  0.811  0.008534  0.01667  0.03601  -0.02753  0.8538  0.3858
6.365e+09  0.5522  0.6716  -0.0007366  -0.02276  0.002391  -0.00255  0.9362  0.08456
6.366e+09  0.7198  0.4331  0.009155  0.01915  -0.004338  -0.009233  0.9203  -0.2554
6.368e+09  0.863  0.1503  0.003114  -0.02142  -0.007929  0.03608  0.7567  -0.5379
6.369e+09  0.8293  -0.1651  0.02371  -0.04063  -0.02094  0.02243  0.5178  -0.7606
6.37e+09  0.7678  -0.4412  0.01013  0.005273  -0.03123  0.005769  0.2678  -0.8776
6.371e+09  0.5676  -0.6569  -0.01879  0.03194  0.04459  0.02318  -0.109  -0.9508
6.372e+09  0.3121  -0.8316  -0.005384  0.008169  -0.003154  0.006756  -0.4066  -0.864
6.374e+09  -0.04101  -0.8382  0.001175  -0.03475  0.04285  0.02742  -0.6777  -0.6838
6.375e+09  -0.3443  -0.7656  -0.01412  -0.00145  -0.00769  -0.02323  -0.8457  -0.4309
6.376e+09  -0.5917  -0.6545  -0.02739  -0.02045  -0.03474  -0.02864  -0.9629  -0.1231
6.378e+09  -0.7793  -0.3841  -0.03928  -0.005709  -0.02069  -0.02483  -0.9363  0.1997
6.379e+09  -0.8839  -0.09827  0.02819  0.02118  -0.007704  -0.009843  -0.789  0.5009
6.38e+09  -0.8283  0.1914  -0.0188  -0.01924  -0.02096  -0.006387  -0.512  0.7265
6.381e+09  -0.7546  0.4237  0.01958  0.008888  -0.0263  -0.02184  -0.2635  0.9132
6.382e+09  -0.493  0.6726  0.01848  0.005218  -0.005218  -0.02678  0.1039  0.9355
6.384e+09  -0.189  0.8437  0.009003  -0.007203  -0.0595  -0.00541  0.344  0.82
6.385e+09  0.0766  0.8755  0.01212  0.008074  -0.006765  -0.00596  0.6465  0.6904
6.386e+09  0.3466  0.8143  -0.03843  -0.01697  -0.03697  -0.002212  0.8242  0.4479
6.388e+09  0.6081  0.5562  -0.01175  -0.06164  -0.02153  0.005492  0.9696  0.08881
6.389e+09  0.7608  0.3623  -0.02037  0.004477  -0.0231  0.01185  0.9119  -0.2041
6.39e+09  0.9164  0.0636  0.004107  -0.01044  -0.01826  0.003673  0.7826  -0.4874
6.391e+09  0.8436  -0.2489  -0.03117  -0.08212  0.0177  -0.01382  0.5973  -0.7028
6.392e+09  0.7034  -0.4996  -0.01936  -0.02075  -0.01417  0.04015  0.2791  -0.8722
6.394e+09  0.5054  -0.729  0.02064  -0.003712  -0.03923  0.01257  -0.0419  -0.9147
6.395e+09  0.1684  -0.8713  -0.03442  -0.001084  0.04904  0.05813  -0.3668  -0.8121
6.396e+09  -0.08076  -0.8331  -0.003875  -0.002615  0.008978  0.0005875  -0.6107  -0.7178
6.398e+09  -0.3849  -0.7705  -0.02136  0.01674  -0.02337  -0.04969  -0.8269  -0.4244
6.399e+09  -0.6179  -0.6066  -0.04926  0.0224  -0.003011  -0.01964  -0.9146  -0.1355
6.4e+09  -0.7814  -0.346  0.01086  0.01447  -0.01725  -0.026  -0.8904  0.2119
6.401e+09  -0.8507  -0.05936  0.03927  -0.0177  0.02011  0.0166  -0.7763  0.4668
6.402e+09  -0.8237  0.2493  0.01932  0.01225  -0.02769  0.007897  -0.6169  0.7668
6.404e+09  -0.6876  0.4913  0.0136  -0.03851  -0.04444  0.0007073  -0.313  0.9113
6.405e+09  -0.4948  0.6925  -0.01959  -0.01216  0.06674  -0.0185  0.005579  0.9499
6.406e+09  -0.1811  0.8412  0.03982  0.03003  0.003807  0.01464  0.3447  0.8454
6.408e+09  0.07906  0.8693  0.007349  0.0121  -0.03243  -0.03673  0.5454  0.7127
6.409e+09  0.4044  0.7442  -0.0213  -0.03065  -0.03131  0.001429  0.7576  0.4693
6.41e+09  0.593  0.6059  -0.01938  -0.0002515  -0.008506  -0.008221  0.8894  0.1953
6.411e+09  0.7733  0.3491  -0.01053  0.006107  -0.0224  0.02684  0.9008  -0.1427
6.412e+09  0.8454  -0.02156  0.00676  0.01698  0.02212  -0.03124  0.8101  -0.3908
6.414e+09  0.8177  -0.2665  -0.02051  0.03468  0.01643  -0.02862  0.5924  -0.667
6.415e+09  0.6545  -0.5357  -0.02661  0.002006  -0.04841  -0.03027  0.2918  -0.8239
6.416e+09  0.5011  -0.7011  0.01984  -0.00764  0.01106  -0.01346  0.08552  -0.8982
6.418e+09  0.2076  -0.8446  0.07568  -0.05135  0.003607  -0.02366  -0.2693  -0.8595
6.419e+09  -0.1005  -0.8482  0.02194  -0.006217  0.01949  0.02656  -0.5391  -0.6851
6.42e+09  -0.3969  -0.6921  0.07416  0.01104  0.001109  -0.02231  -0.7382  -0.448
6.421e+09  -0.618  -0.6016  0.008627  -0.03848  0.01647  0.05677  -0.8353  -0.1969
6.422e+09  -0.7618  -0.2913  0.03406  -0.0203  -0.04912  0.01177  -0.8818  0.1281
6.424e+09  -0.8567  -0.0338  0.003912  0.003814  -0.06033  0.0205  -0.7914  0.4233
6.425e+09  -0.7558  0.2718  -0.01955  -0.006778  -0.02316  -0.01561  -0.6421  0.6243
6.426e+09  -0.6355  0.5536  -0.02205  0.004833  0.0155  0.003209  -0.3359  0.7905
6.428e+09  -0.4888  0.7672  -0.02708  -0.02316  0.04456  0.02552  -0.08301  0.8534
6.429e+09  -0.1371  0.8372  -0.005545  -0.006687  0.01422  0.009217  0.2206  0.7941
6.43e+09  0.1385  0.8257  -0.03725  -0.01443  -0.0174  0.05431  0.5337  0.7246
6.431e+09  0.406  0.7665  0.01477  -0.02854  0.006674  -0.02321  0.7151  0.5042
6.432e+09  0.6084  0.5409  0.01666  -0.004385  -0.04924  -0.02675  0.872  0.1981
6.434e+09  0.8507  0.2946  -0.02759  -0.0001505  -0.02573  -0.03368  0.8947  -0.06404
6.435e+09  0.8291  0.007122  0.01541  -0.02669  -0.04681  -0.005966  0.7812  -0.3739
6.436e+09  0.7437  -0.2796  0.02301  0.008124  0.006138  0.01106  0.6135  -0.6234
6.438e+09  0.6355  -0.561  -0.01879  0.02307  -0.0006668  0.01117  0.3585  -0.7674
6.439e+09  0.4778  -0.7137  -0.01573  0.0371  -0.005632  0.02155  0.09997  -0.8693
6.44e+09  0.1331  -0.8213  0.03047  0.02371  0.02695  0.01746  -0.2059  -0.7899
6.441e+09  -0.1311  -0.8778  0.03905  -0.01072  0.06614  -0.01383  -0.4976  -0.7331
6.442e+09  -0.4179  -0.7641  -0.0126  0.02083  -0.005049  0.04474  -0.6888  -0.5045
6.444e+09  -0.6397  -0.5341  -0.006849  -0.02652  -0.01058  -0.01813  -0.8137  -0.2079
6.445e+09  -0.8147  -0.3105  0.005635  0.005991  -0.005751  -0.02027  -0.831  0.07633
6.446e+09  -0.8711  0.01182  -0.03191  0.01527  -0.008752  -0.008428  -0.7957  0.3769
6.448e+09  -0.8293  0.3082  0.02498  -0.04622  -0.03591  0.01038  -0.5847  0.6006
6.449e+09  -0.6238  0.5723  -0.03112  -0.0507  -0.04466  -0.0383  -0.3574  0.7623
6.45e+09  -0.4071  0.7543  0.006451  -0.0187  0.02445  0.01538  -0.08087  0.7737
6.451e+09  -0.1956  0.8149  -0.01531  0.01893  -0.004962  0.01712  0.1892  0.7637
6.452e+09  0.1872  0.8252  0.01863  -0.001272  -0.03179  0.04165  0.483  0.7266
6.454e+09  0.4738  0.7297  0.02525  0.02302  0.02451  0.002036  0.6832  0.4657
6.455e+09  0.6859  0.5098  0.009548  0.04451  0.007898  -0.05053  0.7841  0.2185
6.456e+09  0.8708  0.3201  -0.01663  -0.04128  -0.03866  0.006626  0.8113  -0.04127
6.458e+09  0.8658  0.04183  -0.01178  -0.00256  0.01235  0.02084  0.7114  -0.3477
6.459e+09  0.8168  -0.3359  7.617e-05  -0.01481  -0.004352  -0.01325  0.589  -0.5874
6.46e+09  0.6601  -0.5323  -0.01368  -0.009798  -0.003587  0.0164  0.3553  -0.6988
6.461e+09  0.4119  -0.7974  -0.006359  0.0008585  -0.01376  0.03005  0.0548  -0.7904
6.462e+09  0.1296  -0.8327  0.01533  -0.02168  -0.03227  -0.01141  -0.2245  -0.7744
6.464e+09  -0.1584  -0.868  0.01376  -0.003492  0.01734  -0.003948  -0.4808  -0.6252
6.465e+09  -0.4533  -0.7298  0.01001  -0.009537  -0.001919  0.0278  -0.6216  -0.4672
6.466e+09  -0.6955  -0.4975  -0.01449  -0.01554  -0.01671  0.0001887  -0.775  -0.1811
6.468e+09  -0.8037  -0.2688  -0.01671  -0.005486  -0.008185  0.03103  -0.8187  0.05383
6.469e+09  -0.8591  0.01478  -0.004404  -0.002698  -0.02949  0.007621  -0.7091  0.398
6.47e+09  -0.8068  0.3431  0.006525  0.04494  -0.03922  -0.00931  -0.5593  0.5137
6.471e+09  -0.639  0.5814  0.0232  0.01352  -0.02898  0.05328  -0.3701  0.7049
6.472e+09  -0.4034  0.8026  0.02902  0.01298  0.01317  0.006565  -0.06624  0.802
6.474e+09  -0.1257  0.8599  0.04578  0.01761  -0.02816  0.006776  0.2336  0.7467
6.475e+09  0.1839  0.8513  0.006269  -0.002565  0.005129  0.007234  0.4403  0.6626
6.476e+09  0.505  0.7851  0.02489  0.006778  0.01008  0.06492  0.6336  0.4897
6.478e+09  0.7367  0.5751  0.03715  -0.05297  0.02878  -0.03  0.8132  0.1806
6.479e+09  0.9065  0.2721  -0.01828  -0.001527  0.0006643  -0.03058  0.7636  -0.1038
6.48e+09  0.8837  -0.09629  0.03532  0.02592  -0.01334  0.04055  0.6932  -0.3125
6.481e+09  0.8602  -0.3836  0.04831  -0.02501  -0.0397  0.04322  0.5433  -0.5362
6.482e+09  0.657  -0.6431  0.002457  0.002407  -0.02408  -0.02518  0.3711  -0.7214
6.484e+09  0.3501  -0.8238  -0.01002  -0.01901  -0.007435  0.02651  0.06611  -0.736
6.485e+09  0.1398  -0.8955  0.04828  0.005122  -0.05788  0.03076  -0.2103  -0.7196
6.486e+09  -0.2033  -0.9284  -0.02667  0.03224  0.006084  -0.03123  -0.4743  -0.6521
6.488e+09  -1.076  -1.123  0.002352  -0.03887  -0.5219  -0.5588  -0.6372  -0.4739
6.489e+09  -0.7176  -0.566  0.01713  -0.03022  0.01177  -0.01595  -0.7504  -0.1739
6.49e+09  -0.8706  -0.2808  0.001927  0.01863  0.01677  0.03579  -0.7962  0.06071
6.491e+09  -0.9314  0.05792  -0.01509  0.00606  2.903e-05  -0.02154  -0.6824  0.3085
6.492e+09  -0.7753  0.4064  -0.0232  0.02128  -0.03492  -0.02341  -0.5027  0.5456
6.494e+09  -0.7439  0.6956  0.01067  0.02324  -0.02537  0.1364  -0.2969  0.7225
6.495e+09  -0.3874  0.8021  0.02614  -0.02684  0.04738  0.005184  -0.01331  0.7844
6.496e+09  -0.1135  0.9016  0.03404  0.0001484  0.01144  0.0434  0.2631  0.7326
6.498e+09  0.196  0.85  0.002484  -0.01402  0.005758  -0.0168  0.4741  0.5784
6.499e+09  0.5713  0.7287  -0.003045  0.02232  -0.01482  0.0449  0.6736  0.4145
6.5e+09  0.7406  0.5151  0.01814  -0.007121  -0.0151  -0.01475  0.7292  0.1707
6.501e+09  0.9093  0.1939  -0.02823  0.01624  0.001504  -0.04775  0.7313  -0.07362
6.502e+09  0.916  -0.09623  0.02092  -0.02986  0.01516  -0.001109  0.6782  -0.3752
6.504e+09  0.7736  -0.358  0.001883  0.009752  0.01946  0.0288  0.4706  -0.5479
6.505e+09  0.6237  -0.6324  -0.004715  -0.05638  0.03661  0.01902  0.2957  -0.6438
6.506e+09  0.3288  -0.8142  0.0113  -0.007389  -0.0115  -0.02419  -0.008127  -0.7653
6.508e+09  0.02635  -0.9202  -0.01311  0.01383  -0.03356  -0.02502  -0.318  -0.7009
6.509e+09  -0.2977  -0.8746  -0.01349  0.01178  -0.02862  -0.001681  -0.5185  -0.5623
6.51e+09  -0.546  -0.6875  0.02461  0.02042  -0.0007101  -0.01914  -0.6516  -0.4057
6.511e+09  -0.7903  -0.4987  -0.01628  -0.02176  -0.01754  -0.04557  -0.7324  -0.1294
6.512e+09  -0.9167  -0.1923  0.01858  -0.009129  0.03936  0.01172  -0.7112  0.1288
6.514e+09  -0.9043  0.1449  0.003757  -0.01193  0.01017  0.03999  -0.6427  0.3824
6.515e+09  -0.8326  0.429  -0.02742  0.0321  0.02502  -0.01028  -0.5005  0.5935
6.516e+09  -0.6176  0.7083  0.0179  0.01333  -0.004694  0.03313  -0.2514  0.7108
6.518e+09  -0.3073  0.8839  0.006423  -0.04029  -0.02028  -0.02798  0.001612  0.7743
6.519e+09  -0.03825  0.9072  0.01693  0.01761  -0.005182  0.01094  0.2953  0.7216
6.52e+09  0.3373  0.9183  -0.03644  -0.03119  -0.03961  0.03703  0.4762  0.5882
6.521e+09  0.5771  0.7015  0.001678  6.091e-05  0.01483  -0.02005  0.6167  0.337
6.522e+09  0.817  0.4481  -0.02147  0.01654  -0.008056  0.007759  0.7023  0.09702
6.524e+09  0.914  0.1469  -0.0173  0.01151  -0.02198  0.02704  0.7686  -0.1507
6.525e+09  0.9415  -0.199  -0.01011  -0.007338  0.02684  0.007926  0.62  -0.4192
6.526e+09  0.8022  -0.477  0.007793  0.003308  -0.01487  -0.02869  0.4339  -0.566
6.528e+09  0.5794  -0.797  -0.01394  -0.0198  0.04641  0.00468  0.1908  -0.6842
6.529e+09  0.2447  -0.8991  -0.003993  -0.01249  -0.02702  -0.03308  -0.0792  -0.7045
6.53e+09  -0.02104  -0.9134  0.01869  0.01629  0.01173  0.008658  -0.285  -0.6014
6.531e+09  -0.4115  -0.8673  -0.03045  0.02109  0.03454  0.01537  -0.4968  -0.4943
6.532e+09  -0.6635  -0.6342  -0.01293  0.03155  0.007231  0.02921  -0.5927  -0.2502
6.534e+09  -0.8333  -0.3612  0.01852  0.02549  -0.04261  -0.03278  -0.6468  -0.06682
6.535e+09  -0.9328  -0.1031  -0.005718  -0.02846  0.02896  0.00158  -0.597  0.08763
6.536e+09  -0.8707  0.2738  -0.03553  -0.01579  -0.008135  -0.0101  -0.5605  0.2925
6.538e+09  -0.7359  0.5771  -0.01381  -0.007474  -0.007385  -0.04603  -0.4478  0.458
6.539e+09  -0.5259  0.7342  0.01889  -0.026  -0.01845  -0.01371  -0.2522  0.6164
6.54e+09  -0.2251  0.9494  -0.004915  0.006229  -0.01104  0.04831  -0.06154  0.7046
6.541e+09  0.08532  0.9021  0.005412  -0.008523  -0.04433  0.03334  0.2016  0.6893
6.542e+09  0.4689  0.8368  0.009854  -0.006464  -0.003994  0.01069  0.385  0.5815
6.544e+09  0.7414  0.6578  0.001804  0.01004  -0.01625  0.00985  0.5991  0.3713
6.545e+09  0.8518  0.3487  0.02605  0.005168  -0.03988  -0.02996  0.6729  0.1534
6.546e+09  0.9342  0.02814  0.01519  0.03124  -0.04953  0.01583  0.7185  -0.06939
6.548e+09  0.8999  -0.3029  0.003123  0.0005304  0.0005945  0.01663  0.6834  -0.3619
6.549e+09  0.7633  -0.6037  -0.0002771  -0.02551  0.05865  0.0247  0.5148  -0.515
6.55e+09  0.4031  -0.7983  0.01422  0.002778  0.0201  -0.01579  0.2758  -0.6279
