# Hz S RI R 50
6.25e+09  0.01459  0.9476  -0.01043  0.03383  -0.05921  0.06283  0.1764  0.4472
6.251e+09  0.3751  0.8802  0.0111  0.002026  -0.01068  0.0269  0.3625  0.382
6.252e+09  0.5992  0.6415  -0.01631  -0.009396  0.01435  0.01124  0.5361  0.2842
6.254e+09  0.865  0.4737  0.003023  0.006468  0.06718  0.02416  0.5831  0.04724
6.255e+09  0.9114  0.1357  -0.007326  -0.02023  0.01081  -0.04227  0.5833  -0.2057
6.256e+09  0.937  -0.1908  -0.03834  0.005174  0.00539  0.02004  0.4794  -0.4757
6.258e+09  0.7452  -0.4988  -0.01314  0.01547  -0.02569  -0.04883  0.2774  -0.5601
6.259e+09  0.4987  -0.7021  0.01148  0.01415  0.001026  0.0426  0.04322  -0.6602
6.26e+09  0.213  -0.885  -0.03633  -0.02013  -0.04719  0.01001  -0.1942  -0.6495
6.261e+09  -0.05565  -0.881  0.004287  -0.03061  0.02829  -0.0358  -0.4385  -0.5452
6.262e+09  -0.4018  -0.7602  0.005487  0.002735  -0.02775  0.01455  -0.5853  -0.3392
6.264e+09  -0.6094  -0.6473  0.02  -0.01645  -0.02469  -0.009775  -0.7214  -0.1229
6.265e+09  -0.858  -0.3839  -0.03108  0.01688  0.01092  -0.02365  -0.7015  0.1602
6.266e+09  -0.8916  -0.07376  -0.03692  -0.00374  -0.003021  -0.03136  -0.576  0.3754
6.268e+09  -0.8751  0.2322  0.01701  0.006226  0.06839  -0.01091  -0.4325  0.5947
6.269e+09  -0.7253  0.5357  0.01188  0.0214  -0.06849  0.01675  -0.1934  0.7163
6.27e+09  -0.5236  0.7871  0.004202  -0.006795  -0.02107  -0.01254  0.06719  0.7154
6.271e+09  -0.2097  0.8521  -0.001655  0.007619  0.01441  0.01664  0.3152  0.6665
6.272e+09  0.05384  0.889  0.01305  0.04402  -0.02086  0.0228  0.5404  0.5107
6.274e+09  0.4464  0.8341  0.01891  0.006627  -0.005333  0.001476  0.6532  0.3124
6.275e+09  0.6468  0.638  0.01861  0.01752  0.01094  -0.000117  0.7819  0.03487
6.276e+09  0.8447  0.3621  0.01607  0.006411  -0.01375  -0.0007248  0.7476  -0.2444
6.278e+09  0.9548  0.06456  0.001264  0.004881  -0.01336  -0.002499  0.5925  -0.4372
6.279e+09  0.9121  -0.3021  -0.001404  0.002826  0.008013  0.01419  0.407  -0.6559
6.28e+09  0.7144  -0.5563  0.02156  -0.02826  -0.01205  -0.04719  0.1827  -0.7639
6.281e+09  0.5072  -0.7588  0.02448  -0.002629  0.006665  0.0005034  -0.07214  -0.7668
6.282e+09  0.2027  -0.9082  -0.006875  -0.04848  -0.02543  -0.007728  -0.3524  -0.6947
6.284e+09  -0.09331  -0.9168  -0.02069  0.02507  -0.01924  -0.0158  -0.6026  -0.5186
6.285e+09  -0.4585  -0.8247  -0.008884  -0.001199  0.01743  -0.01429  -0.7237  -0.3129
6.286e+09  -0.7068  -0.6253  -0.009115  0.0178  0.01952  0.006999  -0.8125  -0.03377
6.288e+09  -0.8424  -0.3478  -0.01621  0.01146  -0.01552  -0.01641  -0.7735  0.2676
6.289e+09  -0.9348  0.03373  -0.004676  0.007884  0.006192  0.04015  -0.6288  0.4817
6.29e+09  -0.8751  0.3188  0.0263  -0.005333  -0.07728  -0.01754  -0.3791  0.7032
6.291e+09  -0.7263  0.5621  -0.01735  -0.009127  -0.005405  0.01705  -0.1789  0.789
6.292e+09  -0.477  0.7969  -0.01791  -0.02593  -0.0236  -0.009043  0.118  0.8298
6.294e+09  -0.1389  0.9055  0.01119  0.007846  -0.01922  -0.06553  0.4248  0.7239
6.295e+09  0.1812  0.8917  -0.001965  0.01509  -0.01032  -0.02022  0.6118  0.5336
6.296e+09  0.5151  0.7941  0.00412  -0.012  -0.01318  0.0347  0.7545  0.3157
6.298e+09  0.7561  0.6202  0.009678  -0.008061  0.01879  0.0199  0.8292  0.02408
6.299e+09  0.9212  0.3385  0.0002012  -0.01951  0.009546  -0.02569  0.7628  -0.2815
6.3e+09  0.96  -0.04417  0.006625  -0.02078  0.006145  -0.00714  0.639  -0.5248
6.301e+09  0.8499  -0.3252  -0.01362  -0.005457  -0.02091  -0.02909  0.4246  -0.7018
6.302e+09  0.7204  -0.6693  -0.01509  0.0178  -0.0119  0.01321  0.1501  -0.8436
6.304e+09  0.4585  -0.8312  -0.01206  0.0144  0.01427  0.0349  -0.1436  -0.8492
6.305e+09  0.116  -0.9155  -0.0006813  0.00116  -0.01537  0.02021  -0.4218  -0.7555
6.306e+09  -0.2442  -0.9676  0.002851  0.01191  0.0162  0.02658  -0.6586  -0.5776
6.308e+09  -0.5079  -0.7888  0.03716  -0.04734  0.01848  0.02357  -0.8011  -0.3132
6.309e+09  -0.7751  -0.5771  0.02218  0.00509  0.03948  -0.01851  -0.8548  -0.0334
6.31e+09  -0.9427  -0.2731  0.01464  0.009192  -0.02107  -0.02417  -0.8173  0.3036
6.311e+09  -0.9222  0.1019  -0.01041  0.000741  -0.02586  0.01066  -0.6732  0.5538
6.312e+09  -0.8698  0.4051  -0.009004  -0.01112  0.02776  0.0008242  -0.4296  0.7735
6.314e+09  -0.7476  0.6671  -0.01013  -0.04407  -0.02038  0.01702  -0.1325  0.8595
6.315e+09  -0.3856  0.8882  0.0539  -0.03585  -0.008096  0.01614  0.137  0.8227
6.316e+09  -0.0198  1.014  0.006816  -0.007899  0.00198  -0.037  0.4545  0.7212
6.318e+09  0.2835  0.937  -0.0004894  -0.00592  0.02184  -0.03898  0.662  0.5681
6.319e+09  0.6052  0.7601  -0.0146  -0.01065  -0.005524  0.01225  0.8081  0.2987
6.32e+09  0.85  0.5623  0.01571  0.003051  -0.01219  -0.01515  0.8641  0.005362
6.321e+09  1.059  0.2241  -0.009546  -0.0115  -0.0105  -0.007512  0.8715  -0.29
6.322e+09  0.9945  -0.1331  0.0202  0.004406  -0.001808  -0.005777  0.6805  -0.5688
6.324e+09  0.8652  -0.4686  0.01254  0.003364  0.02692  -0.04331  0.466  -0.7828
6.325e+09  0.6205  -0.7951  0.00207  0.03728  0.0258  -0.03845  0.1951  -0.8596
6.326e+09  0.3102  -0.9647  0.0103  -0.00421  0.03099  0.003143  -0.151  -0.873
6.328e+09  -0.009529  -1.033  0.01277  0.0088  -0.01032  0.05099  -0.4573  -0.7481
6.329e+09  -0.3349  -1.017  -0.001499  -0.005534  -0.02201  -0.04473  -0.6823  -0.6135
6.33e+09  -0.6826  -0.7875  0.01148  -0.02166  0.03502  -0.03585  -0.8435  -0.2985
6.331e+09  -0.9525  -0.5143  -0.008038  -0.01409  -0.004613  0.02361  -0.9178  -0.05273
6.332e+09  -1.096  -0.1444  -0.00871  -0.001187  0.02277  -0.01573  -0.8055  0.3263
6.334e+09  -1.049  0.2256  0.0182  0.02728  -0.001417  -0.03795  -0.7041  0.5943
6.335e+09  -0.9285  0.6262  0.00256  -0.003214  -0.01044  -0.02854  -0.4949  0.7596
6.336e+09  -0.6191  0.8811  -0.007116  0.002632  -0.02423  0.02545  -0.1752  0.8637
6.338e+09  -0.2436  1.047  -0.02676  0.0203  0.007484  0.01361  0.111  0.9059
6.339e+09  0.1072  1.117  0.01696  -0.003624  -0.02745  0.02302  0.388  0.8086
6.34e+09  0.447  0.9404  -0.02317  -0.0102  -0.03723  -0.01539  0.7016  0.5823
6.341e+09  0.8392  0.7839  -0.01352  0.01731  0.02452  -0.01347  0.8514  0.3317
6.342e+09  1.045  0.4556  0.009006  -0.001819  -0.01436  -0.01578  0.9393  0.05522
6.344e+09  1.157  0.06256  -0.01277  -0.02619  0.03564  -0.03546  0.9214  -0.2977
6.345e+09  1.061  -0.3473  -0.02629  0.04056  0.02016  0.05047  0.7384  -0.5713
6.346e+09  0.9046  -0.7081  0.02839  -0.02655  0.01471  -0.008221  0.4845  -0.7891
6.348e+09  0.5761  -0.9505  0.00496  0.01328  -0.01967  -0.06101  0.2148  -0.9287
6.349e+09  0.1822  -1.154  -0.01433  -0.006256  -0.009435  0.01634  -0.1254  -0.9085
6.35e+09  -0.2084  -1.139  -0.0222  -0.02472  -0.008214  0.001527  -0.4566  -0.8066
6.351e+09  -0.5755  -0.9788  -0.0179  -0.01562  0.01804  0.01763  -0.6826  -0.6409
6.352e+09  -0.9108  -0.7216  -0.03166  0.001928  0.01554  0.01168  -0.8534  -0.3367
6.354e+09  -1.128  -0.3386  0.005549  0.001354  0.0007724  -0.008906  -0.9295  -0.05091
6.355e+09  -1.164  0.08512  0.02178  0.00879  0.007556  -0.0219  -0.8892  0.2703
6.356e+09  -1.068  0.4736  0.009991  -0.01389  -0.003638  0.008468  -0.7663  0.5718
6.358e+09  -0.8877  0.8203  0.007624  -0.004957  -0.01832  -0.009343  -0.5275  0.7615
6.359e+09  -0.458  1.131  -0.004679  0.03899  0.0153  0.02231  -0.2361  0.912
6.36e+09  -0.1296  1.202  0.01405  0.01069  -0.04603  -0.02924  0.09929  0.9205
6.361e+09  0.3383  1.201  0.02713  -0.05976  0.03818  0.04281  0.3844  0.8346
6.362e+09  0.7307  0.9709  -0.01332  0.03165  -0.02537  -0.03133  0.6752  0.6678
6.364e+09  1.02  0.6239  -0.001262  0.01088  -0.01244  0.01653  0.8737  0.3974
6.365e+09  1.193  0.2854  0.01724  0.007112  0.03627  -0.005098  0.9731  0.0268
6.366e+09  1.161  -0.203  0.003247  -0.02412  0.01668  0.00312  0.921  -0.23
6.368e+09  1.062  -0.6066  0.0477  -0.01443  0.009426  0.003908  0.7498  -0.5686
6.369e+09  0.7713  -0.9327  0.00048  -0.03136  0.001081  0.02972  0.5526  -0.7758
6.37e+09  0.3318  -1.153  -0.01984  0.001549  -0.02247  0.04384  0.3053  -0.8953
6.371e+09  -0.02981  -1.21  0.02019  0.02026  0.006374  0.02959  -0.07054  -0.9474
6.372e+09  -0.4817  -1.074  -0.01103  0.0001678  0.01158  -0.02112  -0.3582  -0.8228
6.374e+09  -0.8492  -0.9252  -0.02611  0.02142  0.04713  -0.03801  -0.6643  -0.66
6.375e+09  -1.067  -0.5192  -0.007269  0.006013  0.003152  -0.01437  -0.8477  -0.4044
6.376e+09  -1.211  -0.1276  -0.01675  -0.004516  0.01436  -0.03305  -0.9318  -0.07714
6.378e+09  -1.156  0.2831  0.006197  -0.01041  -0.007826  -0.03513  -0.9366  0.2008
6.379e+09  -1.021  0.681  -0.008414  0.02138  0.01941  -0.05199  -0.7567  0.5486
6.38e+09  -0.6281  0.9997  -0.0384  0.01248  -0.005967  0.05092  -0.5646  0.7348
6.381e+09  -0.2567  1.212  0.06248  0.002807  -0.03018  -0.001145  -0.2647  0.9219
6.382e+09  0.1524  1.154  -6.838e-05  -0.01781  0.009597  -0.02436  0.04897  0.9304
6.384e+09  0.506  1.029  -0.05634  0.00351  -0.01225  0.005792  0.3749  0.8287
6.385e+09  0.907  0.7659  0.002888  0.02603  0.002926  -0.0251  0.6444  0.7171
6.386e+09  1.159  0.4412  0.006095  0.01081  -0.01268  -0.01334  0.8328  0.4184
6.388e+09  1.189  0.00571  0.05388  0.0473  -0.03744  0.01239  0.9057  0.1683
6.389e+09  1.151  -0.3811  0.007465  -0.03662  0.006175  -0.02441  0.8819  -0.2506
6.39e+09  0.9073  -0.7955  -0.01625  0.007711  -0.03029  0.02011  0.7836  -0.4787
6.391e+09  0.6143  -1.025  0.003305  0.01829  -0.01299  -0.01174  0.558  -0.7039
6.392e+09  0.2227  -1.205  0.03077  0.03226  -0.008959  0.02456  0.2899  -0.8834
6.394e+09  -0.223  -1.224  -0.0181  1.507e-05  0.008388  -0.03512  -0.04228  -0.8817
6.395e+09  -0.6322  -1.027  0.03458  0.01975  -0.01199  0.0008821  -0.3277  -0.8215
6.396e+09  -0.9004  -0.7691  0.01458  0.01979  -0.01458  0.00954  -0.536  -0.6379
6.398e+09  -1.157  -0.3358  0.009494  -0.02463  -7.789e-05  -9.019e-05  -0.7866  -0.449
6.399e+09  -1.132  0.06409  0.032  -0.03366  -0.03371  0.00397  -0.9561  -0.1384
6.4e+09  -1.086  0.4772  0.03193  -0.008213  0.0004355  -0.02756  -0.8854  0.1603
6.401e+09  -0.8763  0.7373  0.008869  -0.0161  0.06074  -0.004321  -0.803  0.4881
6.402e+09  -0.5412  1.073  -0.05461  0.007174  -0.02873  0.02032  -0.5758  0.7034
6.404e+09  -0.1429  1.147  -0.04105  0.01474  0.01009  -0.02792  -0.3322  0.8492
6.405e+09  0.2604  1.081  0.005825  0.02597  0.01574  0.006934  0.01256  0.9024
6.406e+09  0.6949  0.9412  0.00802  -0.0425  0.01018  0.01423  0.319  0.8349
6.408e+09  0.9386  0.6723  -0.02769  -0.05392  0.02628  -0.02955  0.5643  0.6865
6.409e+09  1.104  0.3021  -0.02074  -0.006547  0.01366  -0.009502  0.8036  0.4664
6.41e+09  1.108  -0.1299  0.02542  0.01853  0.01886  0.02068  0.8443  0.2089
6.411e+09  1.04  -0.4801  -0.02689  -0.03083  0.03067  0.01201  0.852  -0.1742
6.412e+09  0.806  -0.7926  0.04645  0.00779  -0.05101  -0.01644  0.8056  -0.4439
6.414e+09  0.4957  -1.069  0.01563  0.01084  0.02025  0.05809  0.6127  -0.6536
6.415e+09  0.03693  -1.172  -0.02035  -0.02971  0.02097  -0.005841  0.3412  -0.856
6.416e+09  -0.3063  -1.129  0.01038  -0.001478  -0.005332  0.0189  0.01819  -0.878
6.418e+09  -0.6858  -0.9098  0.009524  -0.0009542  0.05239  0.03188  -0.2569  -0.8851
6.419e+09  -0.9548  -0.6411  -0.009799  -0.02563  0.03051  0.04095  -0.5474  -0.6924
6.42e+09  -1.171  -0.2472  0.0269  0.03037  0.03952  0.01314  -0.7355  -0.4623
6.421e+09  -1.195  0.1596  -0.01128  0.01565  0.01195  -0.008587  -0.8632  -0.2106
6.422e+09  -1  0.5343  0.02834  0.03928  -0.03677  -0.01705  -0.8606  0.1037
6.424e+09  -0.7568  0.8855  0.01328  7.299e-05  -0.003444  0.0258  -0.7956  0.4144
6.425e+09  -0.414  1.073  0.0199  -0.03601  0.04047  -0.009986  -0.6389  0.6383
6.426e+09  -0.0561  1.149  0.03731  0.02238  -0.05843  -0.02618  -0.3386  0.759
6.428e+09  0.3475  1.113  0.006558  0.02203  -0.02788  0.006734  -0.03658  0.8353
6.429e+09  0.6985  0.8815  0.01961  0.007953  0.04133  0.005834  0.2319  0.8578
6.43e+09  1.023  0.5983  0.004603  0.004777  0.002718  -0.00418  0.4712  0.7259
6.431e+09  1.174  0.2235  0.03702  -0.04587  -0.02879  -0.04631  0.7204  0.4655
6.432e+09  1.18  -0.2264  -0.03426  0.0263  -0.02621  0.006923  0.8085  0.1985
6.434e+09  0.9882  -0.6416  -0.02011  -0.02502  0.005201  0.01084  0.8407  -0.1198
6.435e+09  0.7678  -0.9699  0.005919  0.01559  -0.02525  -0.03444  0.7555  -0.394
6.436e+09  0.3853  -1.11  -0.03051  0.03082  0.01129  0.00128  0.5924  -0.6041
6.438e+09  -0.07999  -1.202  0.01194  0.02017  -0.01985  0.04208  0.3001  -0.7797
6.439e+09  -0.4348  -1.121  -0.01544  0.007632  -0.03878  0.01432  0.07585  -0.9037
6.44e+09  -0.8475  -0.8602  -0.006069  0.01735  0.0007049  -0.04576  -0.2515  -0.8303
6.441e+09  -1.064  -0.6291  0.01114  0.001593  -0.02369  -0.003584  -0.5103  -0.6491
6.442e+09  -1.23  -0.1449  -0.003758  0.008688  -0.0001997  0.003001  -0.6904  -0.4613
6.444e+09  -1.18  0.3581  0.0111  0.04715  0.05979  0.005026  -0.8274  -0.2158
6.445e+09  -1.061  0.7624  0.003724  -0.03131  -0.004674  0.002186  -0.8503  0.05318
6.446e+09  -0.7084  0.9947  0.047  -0.02539  -0.01046  -0.04426  -0.7346  0.3804
6.448e+09  -0.3111  1.228  -0.01184  -0.04729  0.03249  -0.006325  -0.6183  0.5582
6.449e+09  0.1629  1.247  0.01519  -0.01041  -0.01187  -0.044  -0.3849  0.75
6.45e+09  0.572  1.117  0.02622  -0.006123  -0.01437  0.02763  -0.07609  0.8254
6.451e+09  0.913  0.8841  -0.03332  0.06046  -0.003343  0.01293  0.2337  0.8622
6.452e+09  1.192  0.4742  0.001933  -0.0305  -0.0126  -0.001078  0.4913  0.671
6.454e+09  1.27  0.04826  -0.002943  -0.005525  -0.06863  -0.02159  0.6659  0.474
6.455e+09  1.236  -0.4313  0.04885  0.06774  -0.02724  0.01676  0.7776  0.1897
6.456e+09  0.9628  -0.7804  -0.0008243  0.01505  0.05252  0.01018  0.8189  -0.08195
6.458e+09  0.7194  -1.107  0.01762  -0.01594  -0.01259  0.003448  0.7179  -0.3194
6.459e+09  0.2355  -1.284  0.01055  0.01604  0.01769  -0.008795  0.6022  -0.5745
6.46e+09  -0.2115  -1.252  0.002619  0.0185  0.05177  0.03614  0.3579  -0.7355
6.461e+09  -0.7144  -1.131  0.01732  0.02454  0.03041  -0.08108  0.1019  -0.8013
6.462e+09  -1.075  -0.7581  0.04759  -0.002094  -0.05389  0.02377  -0.2199  -0.7447
6.464e+09  -1.265  -0.4113  -0.02107  0.05343  0.01762  -0.02391  -0.4692  -0.6677
6.465e+09  -1.408  0.115  -0.01331  0.01553  0.004731  -0.0326  -0.6821  -0.418
6.466e+09  -1.254  0.6002  0.04669  0.01644  0.004872  0.01707  -0.7682  -0.2089
6.468e+09  -0.933  0.9422  0.01501  -0.006751  -0.004082  -0.03108  -0.7738  0.09518
6.469e+09  -0.5679  1.263  -0.002342  0.01083  -0.01667  -0.04439  -0.7112  0.334
6.47e+09  -0.1223  1.391  0.02102  0.007235  -0.01738  0.03893  -0.5815  0.5746
6.471e+09  0.3499  1.337  -0.003449  -0.01572  0.03288  0.0274  -0.3317  0.6895
6.472e+09  0.901  1.143  -0.01958  0.01775  -0.01428  -0.0109  -0.06468  0.8427
6.474e+09  1.309  0.8016  -0.03458  -0.01153  0.00401  0.01913  0.1998  0.8018
6.475e+09  1.442  0.273  -0.0127  -0.002712  0.0472  -0.05934  0.4088  0.6806
6.476e+09  1.404  -0.2911  -0.00314  -0.006664  0.02279  0.01685  0.646  0.4426
6.478e+09  1.206  -0.8098  0.006102  -0.001525  0.03547  0.002944  0.7638  0.2236
6.479e+09  0.8853  -1.136  -0.009167  0.02061  -0.03493  -0.0337  0.7768  -0.06021
6.48e+09  0.383  -1.403  0.01093  -0.009822  0.001131  -0.01269  0.7196  -0.3272
6.481e+09  -0.1655  -1.482  0.0004126  0.01128  0.01994  -0.02226  0.5365  -0.5592
6.482e+09  -0.7072  -1.316  -0.005595  0.04579  0.05825  0.04342  0.3295  -0.6931
6.484e+09  -1.161  -1.001  -0.003869  -0.0001571  0.01847  0.02237  0.08502  -0.7527
6.485e+09  -1.444  -0.541  -0.03627  0.04546  0.004939  -0.03943  -0.2233  -0.7291
6.486e+09  -1.539  0.06183  -0.0495  -0.01259  0.02044  0.03962  -0.4987  -0.607
6.488e+09  -1.842  0.04601  0.02303  -0.003204  -0.5808  0.3486  -0.6624  -0.4168
6.489e+09  -1.114  0.9869  -4.79e-06  -0.01356  -0.07284  0.02062  -0.7792  -0.2003
6.49e+09  -0.6353  1.375  0.01591  0.00985  0.01618  -0.0437  -0.7892  0.09263
6.491e+09  -0.06036  1.524  0.001333  0.01649  0.04662  0.01779  -0.7061  0.3041
6.492e+09  0.4571  1.428  0.0174  -0.0148  -0.06185  0.07929  -0.4985  0.5182
6.494e+09  0.9759  1.3  0.004897  -0.01111  -0.05001  -0.1196  -0.3305  0.6974
6.495e+09  1.301  0.7501  -0.01966  0.007398  0.06074  0.04725  -0.01337  0.7916
6.496e+09  1.515  0.2024  0.006826  0.00694  -0.06199  -0.03477  0.2551  0.7265
6.498e+09  1.446  -0.3601  0.006845  -0.006196  -0.03371  0.06262  0.4382  0.5829
6.499e+09  1.279  -0.8786  0.03003  0.0509  0.015  -0.03175  0.6407  0.3913
6.5e+09  0.4321  -2.303  -0.008326  -0.01132  0.01114  -0.02444  0.7273  0.1847
6.501e+09  0.28  -1.481  -8.622e-05  -0.01763  0.01026  -0.00648  0.8005  -0.08724
6.502e+09  -0.2234  -1.547  -0.01895  0.02639  -0.007208  -0.02043  0.6727  -0.3541
6.504e+09  -0.8046  -1.253  0.0008723  -0.003177  0.003839  -0.01444  0.4901  -0.5902
6.505e+09  -1.213  -0.9582  -0.008155  0.02011  -0.04615  -0.001832  0.2602  -0.7086
6.506e+09  -1.431  -0.3864  -0.007258  0.00846  0.0607  0.02218  -0.006458  -0.7563
6.508e+09  -1.469  0.1679  -0.007954  -0.008564  -0.07268  -0.01692  -0.225  -0.7315
6.509e+09  -1.272  0.6918  0.005729  -0.01486  -0.02789  0.003561  -0.4776  -0.5581
6.51e+09  -0.9648  1.092  0.02796  0.01081  0.01479  0.0274  -0.6664  -0.3785
6.511e+09  -0.4742  1.344  -0.005262  -0.004374  0.03653  0.05803  -0.7168  -0.1929
6.512e+09  0.0479  1.387  -0.007194  0.003193  -0.002266  -0.01279  -0.7449  0.1281
6.514e+09  0.5375  1.365  0.02468  -0.0007487  -0.000266  0.0585  -0.6335  0.3732
6.515e+09  0.9647  0.9834  -0.02425  0.01573  0.00884  0.02244  -0.4507  0.5441
6.516e+09  1.276  0.6273  0.002385  0.004493  -0.004782  -0.07334  -0.2253  0.697
6.518e+09  1.379  0.02899  -0.001209  -0.02127  0.03265  -0.01649  0.02108  0.7496
6.519e+09  1.366  -0.4587  0.01587  -0.01623  -0.04937  -0.007947  0.2688  0.7539
6.52e+09  1.086  -0.8674  0.003557  -0.02196  -0.03722  -0.01535  0.503  0.5459
6.521e+09  0.6603  -1.149  0.001731  -0.01767  0.03588  0.04994  0.6687  0.3313
6.522e+09  0.1432  -1.306  0.02343  0.02215  -0.03453  0.01335  0.7039  0.07343
6.524e+09  -0.3063  -1.305  -0.008297  -0.04908  -0.01233  0.02434  0.729  -0.1606
6.525e+09  -0.6982  -1.053  0.005082  -0.01509  -0.007346  -0.02999  0.6281  -0.4025
6.526e+09  -1.018  -0.6824  0.01532  0.02354  -0.01804  0.05249  0.4126  -0.5591
6.528e+09  -1.211  -0.2764  -0.007711  0.01972  0.007618  0.02034  0.1836  -0.6668
6.529e+09  -1.249  0.136  -0.01211  -0.00605  -0.07809  0.00615  -0.07411  -0.6851
6.53e+09  -1.105  0.5438  0.01209  -0.0004905  0.001318  -0.05049  -0.3061  -0.624
6.531e+09  -0.7849  0.9579  -0.01129  0.02781  0.01883  0.01697  -0.4545  -0.4962
6.532e+09  -0.4175  1.165  -0.03094  -0.01797  -0.01006  0.01682  -0.6179  -0.282
6.534e+09  0.01917  1.287  0.008376  0.001472  0.03635  -0.02645  -0.6623  -0.07273
6.535e+09  0.4608  1.133  -0.006319  0.01351  0.0221  0.002258  -0.6278  0.09657
6.536e+09  0.8217  0.8496  -0.002331  -0.0186  -0.06122  -0.0006408  -0.5507  0.3127
6.538e+09  1.014  0.4506  -0.006824  0.01457  0.007699  0.005337  -0.4614  0.4517
6.539e+09  1.165  0.1043  0.002159  0.004533  0.03264  -0.02777  -0.2886  0.6404
6.54e+09  1.105  -0.3199  -0.01115  0.00362  -0.02847  -0.01613  -0.06845  0.6924
6.541e+09  0.886  -0.6867  -0.03282  0.02064  0.005258  0.01212  0.1633  0.6859
6.542e+09  0.5917  -0.9736  0.005184  0.01289  0.06059  0.01558  0.4161  0.5737
6.544e+09  0.2268  -1.093  -0.006944  0.01615  0.03848  -0.0152  0.5741  0.4264
6.545e+09  -0.1851  -1.04  0.001395  -0.03843  -0.02668  0.03387  0.726  0.1825
6.546e+09  -0.5188  -0.9094  -0.002637  -0.004374  -0.02426  0.02317  0.7551  -0.07761
6.548e+09  -0.8685  -0.7071  0.01024  -0.03163  -0.002493  0.02861  0.6444  -0.3663
6.549e+09  -1.068  -0.3279  0.02524  0.007469  0.005622  -0.05442  0.5073  -0.5166
6.55e+09  -1.074  0.05989  0.01761  -0.01158  -0.001257  -0.03729  0.3066  -0.6847
6.551e+09  -0.959  0.4883  -0.01428  0.009565  -0.01186  0.005852  -0.02086  -0.7346
6.552e+09  -0.7982  0.7679  0.01851  0.001044  -0.001395  0.02731  -0.2306  -0.7269
