# Hz S RI R 50
6.25e+09  -0.3705  0.75  -0.02058  0.02779  -0.0122  -0.05422  0.1488  0.4682
6.251e+09  -0.1033  0.8936  0.002369  0.02891  -0.03065  0.01126  0.3835  0.363
6.252e+09  0.2057  0.8191  -0.03743  -0.001001  -0.01024  0.008992  0.5027  0.2307
6.254e+09  0.4338  0.7506  -0.0283  0.03259  0.04273  0.04841  0.6026  0.03573
6.255e+09  0.642  0.4907  -0.001932  -0.008808  -0.04248  0.04209  0.5846  -0.2363
6.256e+09  0.7618  0.2284  0.00836  0.03573  0.0337  -0.009422  0.4671  -0.4358
6.258e+09  0.8162  -0.08449  -0.003633  0.02849  -0.02331  -0.01208  0.3033  -0.6073
6.259e+09  0.6972  -0.3518  -0.02592  -0.01622  -0.04269  -0.00394  0.0528  -0.6991
6.26e+09  0.5868  -0.5721  -0.0009202  -0.008276  0.001865  0.02648  -0.1807  -0.6404
6.261e+09  0.358  -0.7394  0.004534  0.01443  -0.02166  -0.01785  -0.4388  -0.5465
6.262e+09  0.0357  -0.7782  -0.007612  0.03191  0.008792  0.02561  -0.62  -0.3168
6.264e+09  -0.1403  -0.8308  0.01499  -0.01712  -0.04505  0.005724  -0.7082  -0.08848
6.265e+09  -0.4716  -0.6692  -0.00174  -0.02719  0.01676  -0.05015  -0.7064  0.136
6.266e+09  -0.6727  -0.4782  -0.00902  0.001725  -0.03037  -0.009137  -0.5891  0.3818
6.268e+09  -0.7917  -0.2499  -0.003806  -0.01928  -0.008941  0.01973  -0.4358  0.6021
6.269e+09  -0.7287  0.09821  0.02959  0.0009173  -0.03492  0.006416  -0.2279  0.7026
6.27e+09  -0.7102  0.305  -0.0122  -0.007823  0.01368  -0.006298  0.02658  0.7411
6.271e+09  -0.5488  0.6172  -0.04296  0.02629  -0.01115  0.01278  0.3239  0.6785
6.272e+09  -0.3885  0.7238  0.04089  -0.01664  0.01911  0.0182  0.541  0.5151
6.274e+09  -0.0508  0.809  -0.05088  -0.02167  -0.03633  -0.003463  0.6789  0.3149
6.275e+09  0.2089  0.7536  0.01127  -0.002151  -0.005722  0.01025  0.7862  0.0562
6.276e+09  0.4487  0.673  0.01815  0.0111  0.01334  -0.0178  0.7477  -0.1905
6.278e+09  0.6437  0.4546  0.00277  0.01951  0.05158  0.0035  0.6199  -0.4898
6.279e+09  0.7747  0.1436  -0.009873  -0.01686  -0.00776  -0.009206  0.4115  -0.6865
6.28e+09  0.7545  -0.07436  0.02231  0.004466  -0.02542  -0.0244  0.1759  -0.7813
6.281e+09  0.723  -0.2958  0.001323  0.003293  0.03912  0.03468  -0.1169  -0.7612
6.282e+09  0.5533  -0.6043  -0.005949  -0.01658  0.02799  -0.0189  -0.3699  -0.6958
6.284e+09  0.3077  -0.7516  -0.02591  -0.0165  -0.0234  -0.05102  -0.5872  -0.5401
6.285e+09  0.00828  -0.8073  -0.02926  0.009992  0.02541  -0.008184  -0.7147  -0.2992
6.286e+09  -0.1932  -0.6803  -0.008526  -0.009761  0.007067  -0.02798  -0.79  -0.0183
6.288e+09  -0.5007  -0.6252  -0.00676  0.009263  0.04749  0.06629  -0.7527  0.2664
6.289e+09  -0.7215  -0.4583  0.03268  -0.01609  -0.03897  -0.03912  -0.6261  0.5103
6.29e+09  -0.7835  -0.1228  -0.005819  -0.03488  -0.04144  -0.002134  -0.4506  0.7007
6.291e+09  -0.7635  0.1182  -0.02271  0.02135  0.03982  0.01717  -0.1601  0.7711
6.292e+09  -0.7374  0.4053  -0.004865  -0.002026  0.07127  -0.02725  0.1376  0.816
6.294e+09  -0.5599  0.5902  -0.004996  -0.0125  0.007101  0.03078  0.4212  0.6929
6.295e+09  -0.2691  0.7349  0.02759  -0.004143  0.001366  -0.03287  0.6377  0.5681
6.296e+09  0.00863  0.8141  -0.01099  -0.008706  0.01302  -0.01137  0.7689  0.2867
6.298e+09  0.3203  0.7358  -0.01607  0.009713  0.00458  -0.02709  0.8337  0.01899
6.299e+09  0.5277  0.6485  0.01722  0.004365  -0.01522  0.009526  0.7874  -0.2588
6.3e+09  0.6667  0.3688  -0.03956  -0.01191  -0.01598  0.02291  0.6619  -0.5289
6.301e+09  0.7929  0.1412  -0.001719  -0.0222  0.02353  0.003149  0.4007  -0.7194
6.302e+09  0.7661  -0.1337  -0.02298  -0.01493  -0.04133  -0.01113  0.169  -0.829
6.304e+09  0.7544  -0.4507  0.00789  0.002744  -0.008512  -0.02177  -0.132  -0.8205
6.305e+09  0.524  -0.6723  0.01928  0.01775  0.002923  0.004352  -0.43  -0.7377
6.306e+09  0.2536  -0.7534  -0.002337  -0.007953  -0.03381  0.01033  -0.6754  -0.5422
6.308e+09  -0.003836  -0.8068  0.02158  0.02039  0.04253  -0.01491  -0.782  -0.2939
6.309e+09  -0.292  -0.71  0.01015  -0.007528  -0.008928  -0.03157  -0.8362  -0.004294
6.31e+09  -0.5108  -0.5996  0.02802  -0.009951  0.02645  0.001569  -0.8172  0.3051
6.311e+09  -0.7263  -0.3741  -0.01101  -0.02718  0.03524  0.009928  -0.6684  0.5304
6.312e+09  -0.7381  -0.09259  0.04227  -0.0152  0.02007  0.01703  -0.4436  0.7587
6.314e+09  -0.7896  0.187  -0.02357  0.005961  -0.05335  -0.0008474  -0.1523  0.8419
6.315e+09  -0.6394  0.4557  -0.003367  0.003124  -0.03421  -0.05319  0.1396  0.8346
6.316e+09  -0.4773  0.6697  -0.007057  -0.01176  0.01448  -0.0299  0.4061  0.7578
6.318e+09  -0.2091  0.8065  0.001971  0.02891  0.03474  0.005082  0.641  0.5839
6.319e+09  0.02655  0.8422  -0.01075  0.01125  0.02218  -0.04363  0.8506  0.3021
6.32e+09  0.2891  0.7567  0.0176  -0.01137  -0.02865  0.02707  0.8628  0.007207
6.321e+09  0.5846  0.569  -0.02629  -0.007548  0.005432  -0.02394  0.8603  -0.2875
6.322e+09  0.7284  0.3637  -0.002563  0.003912  0.006695  -0.03083  0.6784  -0.5617
6.324e+09  0.8508  0.09884  -0.02482  0.01065  -0.02204  0.01763  0.4576  -0.7567
6.325e+09  0.8173  -0.2011  -0.01377  0.03985  0.02394  0.007292  0.178  -0.8997
6.326e+09  0.6768  -0.462  0.004479  -0.01291  0.03618  0.009749  -0.1109  -0.8805
6.328e+09  0.4555  -0.6466  -0.02883  -0.01423  0.01917  0.03303  -0.4361  -0.7945
6.329e+09  0.2003  -0.8109  0.007781  -0.01869  -0.005365  0.04057  -0.6656  -0.5794
6.33e+09  -0.1299  -0.7884  -0.04401  -0.03878  -0.004461  -0.001417  -0.8474  -0.35
6.331e+09  -0.3884  -0.7027  -0.01905  -0.004478  0.0003707  0.02673  -0.8967  -0.0291
6.332e+09  -0.5511  -0.5965  0.009453  0.03611  -0.005099  -0.0142  -0.8478  0.2982
6.334e+09  -0.7491  -0.3146  -0.0002282  -0.01408  0.01923  0.03476  -0.7188  0.5626
6.335e+09  -0.8227  -0.03778  0.02068  0.01426  0.02004  -0.001994  -0.5087  0.7918
6.336e+09  -0.7554  0.289  -0.01467  0.005956  0.006635  -0.006282  -0.1853  0.92
6.338e+09  -0.5928  0.5065  -0.01099  0.01192  0.03788  0.007829  0.1267  0.8993
6.339e+09  -0.4143  0.7325  -0.003132  0.004118  0.05366  0.03131  0.4417  0.8191
6.34e+09  -0.1827  0.8812  -0.02813  0.0151  -0.02694  -0.04567  0.6677  0.6282
6.341e+09  0.1603  0.8363  0.01358  -0.004288  0.02778  -0.02828  0.8302  0.4034
6.342e+09  0.4105  0.7039  -0.009396  -0.005574  0.01398  0.04535  0.9223  0.04391
6.344e+09  0.6358  0.4981  0.006827  -0.02227  -0.007615  -0.007235  0.8641  -0.32
6.345e+09  0.8894  0.248  -0.005931  -0.004827  -0.05679  0.001362  0.7115  -0.5681
6.346e+09  0.8698  -0.03521  0.01712  0.01092  0.01665  -0.03122  0.4562  -0.7643
6.348e+09  0.7939  -0.2936  0.01946  -0.01501  0.02555  0.03664  0.2197  -0.94
6.349e+09  0.6401  -0.6213  -0.02251  -0.003153  0.00865  -0.001777  -0.09439  -0.9325
6.35e+09  0.377  -0.8087  0.00551  0.01027  -0.03244  0.008093  -0.4125  -0.8273
6.351e+09  0.05006  -0.8528  -0.03343  0.04163  -0.01683  0.02121  -0.6985  -0.6366
6.352e+09  -0.239  -0.8146  -0.000305  0.01715  -0.03129  -0.00372  -0.8829  -0.3984
6.354e+09  -0.4657  -0.6913  0.02618  -0.005618  0.04631  -0.06082  -0.951  -0.07673
6.355e+09  -0.7224  -0.4537  -0.01752  0.0005793  -0.05607  0.01688  -0.9086  0.2612
6.356e+09  -0.8561  -0.2624  -0.01318  0.001271  -0.01317  0.01409  -0.7538  0.5241
6.358e+09  -0.8134  0.0766  0.01842  0.02733  -0.04681  -0.03805  -0.517  0.792
6.359e+09  -0.7829  0.3622  0.02733  -0.01341  0.009645  0.03733  -0.2281  0.9126
6.36e+09  -0.5872  0.6255  0.02675  0.008042  -0.02964  0.007267  0.09844  0.9732
6.361e+09  -0.3393  0.7737  -0.02652  0.05746  0.01901  0.004594  0.3624  0.8817
6.362e+09  -0.0445  0.8948  0.0314  0.02899  0.01672  0.009065  0.6816  0.6898
6.364e+09  0.2621  0.8599  -0.0005572  0.03622  0.007048  0.0194  0.8431  0.3848
6.365e+09  0.5454  0.6853  0.001883  0.02511  0.01693  0.00455  0.9528  0.07128
6.366e+09  0.7205  0.4378  -0.03371  0.005194  -0.01555  -0.02432  0.9026  -0.2431
6.368e+09  0.8243  0.1623  0.00297  0.02099  -0.01641  -0.02332  0.7386  -0.521
6.369e+09  0.8397  -0.1104  -0.01055  -0.01055  0.01692  0.001898  0.5625  -0.7815
6.37e+09  0.7814  -0.453  -0.01221  0.02832  -0.03461  -0.01832  0.2264  -0.923
6.371e+09  0.5658  -0.6134  -0.02087  0.02231  -0.01538  -0.007627  -0.06328  -0.9808
6.372e+09  0.2788  -0.8349  0.01181  0.005756  0.03495  -0.02351  -0.3759  -0.8655
6.374e+09  -0.02786  -0.8914  0.013  -0.02201  -0.01178  -0.02504  -0.682  -0.7056
6.375e+09  -0.2897  -0.757  0.03395  0.02242  0.03796  0.03478  -0.8638  -0.4177
6.376e+09  -0.5544  -0.6565  -0.01539  -0.04076  0.01375  -0.05361  -0.94  -0.08406
6.378e+09  -0.7695  -0.4041  -0.01959  0.01587  -0.01433  0.0154  -0.9033  0.2423
6.379e+09  -0.863  -0.1305  0.007142  -0.02657  -0.0006606  0.02541  -0.7705  0.5543
6.38e+09  -0.8343  0.1866  0.02527  0.02372  -0.03498  0.0258  -0.5497  0.7554
6.381e+09  -0.7686  0.4665  -0.03404  0.007744  0.01888  0.02996  -0.2573  0.8871
6.382e+09  -0.5218  0.7392  0.01012  0.01764  0.009927  -0.01275  0.08193  0.9008
6.384e+09  -0.3032  0.7909  -0.001792  -0.005831  -0.0101  0.01253  0.3637  0.8692
6.385e+09  0.05213  0.8396  -0.008907  0.05025  -0.02385  0.008502  0.6246  0.6854
6.386e+09  0.3285  0.8082  -0.008669  -0.03552  -0.05304  -0.007875  0.83  0.4433
6.388e+09  0.5999  0.6252  -0.00425  0.02263  0.01795  -0.01907  0.9004  0.1133
6.389e+09  0.7416  0.3583  0.03884  -0.04797  0.01274  0.01132  0.9074  -0.2001
6.39e+09  0.8457  0.09484  0.02678  0.004028  0.01274  -0.05021  0.7713  -0.5081
6.391e+09  0.848  -0.2032  -0.00899  -0.03006  -0.01663  -0.02362  0.555  -0.7336
6.392e+09  0.6936  -0.4581  -0.02721  -0.00435  -0.01884  8.432e-05  0.2784  -0.898
6.394e+09  0.5104  -0.7436  -0.02027  0.009471  -0.009354  -0.01975  -0.006648  -0.9074
6.395e+09  0.2049  -0.811  0.006967  -0.0362  0.01024  0.006044  -0.3111  -0.846
6.396e+09  -0.05984  -0.8669  -0.01081  0.04578  -0.00793  -0.01522  -0.614  -0.6731
6.398e+09  -0.3738  -0.7411  -0.02404  -0.01511  -0.008167  0.0019  -0.8086  -0.4636
6.399e+09  -0.615  -0.5887  0.02364  -0.02796  0.008865  -0.0308  -0.9055  -0.1139
6.4e+09  -0.7261  -0.3678  0.03183  0.008554  -0.02287  0.06114  -0.93  0.1196
6.401e+09  -0.8221  -0.06119  0.0433  0.06302  0.02066  -0.02603  -0.8086  0.4569
6.402e+09  -0.8503  0.25  0.02164  -0.007434  -0.006342  0.006578  -0.5757  0.7051
6.404e+09  -0.6874  0.4941  -0.04347  -0.0457  0.003316  -0.006783  -0.2976  0.8607
6.405e+09  -0.5285  0.6833  0.0303  0.02362  0.01733  -0.009101  -0.01755  0.8958
6.406e+09  -0.1899  0.8252  -0.02075  0.03035  0.02569  0.01179  0.3419  0.8617
6.408e+09  0.107  0.8277  0.0007247  -0.005716  0.04133  0.01218  0.5692  0.7004
6.409e+09  0.3537  0.729  0.002401  -0.0002445  0.0529  0.02902  0.7759  0.4534
6.41e+09  0.6246  0.5544  0.01363  -0.02234  0.00285  0.04996  0.9253  0.1824
6.411e+09  0.8193  0.3537  0.0165  0.009332  -0.03857  -0.02946  0.9639  -0.1208
6.412e+09  0.8339  0.03807  0.05605  -0.007783  -0.04645  0.007734  0.7826  -0.4571
6.414e+09  0.8107  -0.2295  -0.0303  0.01589  0.01153  0.02174  0.6611  -0.6591
6.415e+09  0.6908  -0.5049  -0.006571  0.02594  -0.007514  0.002383  0.3024  -0.8602
6.416e+09  0.4766  -0.7093  -0.001651  0.005991  -0.007739  -0.005797  0.0206  -0.8982
6.418e+09  0.1584  -0.834  0.006851  0.05233  0.001842  -0.01773  -0.3022  -0.8113
6.419e+09  -0.1441  -0.8579  0.007119  0.002958  -0.03872  0.0334  -0.6089  -0.7114
6.42e+09  -0.4105  -0.7879  0.02755  -0.002026  -0.0348  0.001386  -0.7863  -0.5108
6.421e+09  -0.6485  -0.5963  0.003669  -0.0009948  0.02328  0.02381  -0.8344  -0.2068
6.422e+09  -0.7834  -0.3101  0.004165  -0.02534  0.03644  0.02547  -0.8331  0.1312
6.424e+09  -0.867  -0.03226  -0.03482  0.05452  -0.03658  -0.01966  -0.7597  0.4043
6.425e+09  -0.7656  0.2603  0.008692  -0.02543  -0.02387  -0.002483  -0.606  0.65
6.426e+09  -0.6924  0.532  -0.02798  0.002098  -0.01283  0.01428  -0.3579  0.7763
6.428e+09  -0.4389  0.7292  -0.0026  0.008059  0.0005284  -0.0007745  -0.05387  0.893
6.429e+09  -0.1583  0.8351  -0.01461  0.05686  -0.0158  -0.007864  0.2637  0.7896
6.43e+09  0.1217  0.818  -0.0004169  -0.004653  -0.02892  0.0112  0.4935  0.7019
6.431e+09  0.3898  0.7586  -0.02108  -0.018  -0.03141  0.0002382  0.7525  0.4856
6.432e+09  0.6564  0.5081  0.008422  0.01733  0.001188  0.02443  0.8226  0.2603
6.434e+09  0.7874  0.2847  0.01812  -0.009087  -0.01209  -0.0419  0.8388  -0.108
6.435e+09  0.8547  0.02972  0.02845  -0.03564  -0.008332  -0.02997  0.7993  -0.3839
6.436e+09  0.7943  -0.2923  0.008288  0.000843  -0.03741  -0.04192  0.5661  -0.609
6.438e+09  0.7228  -0.5992  0.001231  -0.00616  0.02179  -0.04623  0.3739  -0.7727
6.439e+09  0.468  -0.7146  -0.02377  -0.0261  0.05662  0.05216  0.08411  -0.8428
6.44e+09  0.1707  -0.8739  -0.02318  -0.09333  0.01793  0.009477  -0.2412  -0.8022
6.441e+09  -0.1077  -0.8334  -0.008284  -0.03613  0.02738  0.01473  -0.4955  -0.6478
6.442e+09  -0.3773  -0.7264  0.003502  0.03998  0.003769  0.0348  -0.73  -0.4897
6.444e+09  -0.6567  -0.5914  -0.02058  0.003351  0.04309  -0.003019  -0.767  -0.218
6.445e+09  -0.8464  -0.3074  0.01783  -0.01981  0.009677  0.01223  -0.8433  0.04415
6.446e+09  -0.8299  9.641e-05  -0.04116  0.01897  -0.0138  0.004601  -0.8062  0.3536
6.448e+09  -0.8401  0.274  0.0005595  0.005674  -0.02802  -0.01734  -0.5739  0.6553
6.449e+09  -0.6181  0.5806  0.0002919  0.01351  -0.03912  -0.04031  -0.3424  0.7579
6.45e+09  -0.4533  0.7069  0.04814  0.01432  -0.01412  -0.0003581  -0.04952  0.7913
6.451e+09  -0.1915  0.8177  -0.01505  -0.003308  -0.004942  -0.01956  0.1775  0.7965
6.452e+09  0.1846  0.8679  -0.009382  0.02997  -0.001307  0.01482  0.4603  0.6757
6.454e+09  0.437  0.7731  -0.01056  -0.01302  0.01713  0.01032  0.6933  0.4569
6.455e+09  0.6508  0.5644  0.006136  0.02053  0.02361  0.03767  0.7972  0.2077
6.456e+09  0.7675  0.2816  -0.04227  -0.0145  0.03102  0.01852  0.8068  -0.04016
6.458e+09  0.8999  0.0334  -0.01308  0.0113  -0.03399  0.04708  0.7768  -0.3467
6.459e+09  0.8478  -0.2877  -0.08021  1.934e-05  -0.03728  0.04958  0.6106  -0.6029
6.46e+09  0.6684  -0.6099  -0.01235  -0.04894  -0.02185  -0.01488  0.3509  -0.7686
6.461e+09  0.4343  -0.7479  0.01143  0.02521  -0.03089  -0.01382  0.04635  -0.779
6.462e+09  0.1149  -0.8371  -0.01404  0.006984  -0.002834  0.01357  -0.1986  -0.7899
6.464e+09  -0.09036  -0.8821  0.04064  0.01562  -0.01061  -0.01647  -0.5008  -0.6622
6.465e+09  -0.4572  -0.7596  -0.04541  -0.03641  -0.04668  -0.002133  -0.6923  -0.4166
6.466e+09  -0.6969  -0.5924  -0.02522  -0.01117  -0.06623  -0.04993  -0.7777  -0.218
6.468e+09  -0.8437  -0.2903  0.02589  -0.03611  0.01355  0.01443  -0.8118  0.1163
6.469e+09  -0.8159  -0.04185  -0.005408  0.01247  0.02172  -0.004887  -0.7315  0.3715
6.47e+09  -0.8104  0.2563  -0.0254  0.0249  0.01104  0.006556  -0.5505  0.5682
6.471e+09  -0.6779  0.5942  0.03285  -0.01118  0.007131  0.05571  -0.3017  0.6917
6.472e+09  -0.4349  0.7695  -0.00817  -0.01275  -0.05874  0.006725  -0.0642  0.7854
6.474e+09  -0.1565  0.8561  -0.01679  0.003641  0.001161  -0.01642  0.2283  0.805
6.475e+09  0.1776  0.8355  -0.004667  -0.006847  -0.00162  0.05651  0.4832  0.6596
6.476e+09  0.4218  0.7438  -0.01028  0.002713  -0.0008755  0.02803  0.616  0.4811
6.478e+09  0.6738  0.5444  -0.02564  0.009795  0.01966  -0.03923  0.7551  0.2061
6.479e+09  0.836  0.2851  -0.00611  0.01205  0.009174  0.01112  0.751  -0.1261
6.48e+09  0.9032  -0.03358  0.03464  -0.04218  -0.02112  -0.02818  0.6946  -0.3094
6.481e+09  0.845  -0.3064  -0.02597  0.009366  0.02648  0.03381  0.5296  -0.5656
6.482e+09  0.6278  -0.5502  0.01809  -0.01059  -0.0228  0.005658  0.3157  -0.6533
6.484e+09  0.4327  -0.7812  -0.03468  0.01969  0.03267  0.0254  0.02316  -0.7933
6.485e+09  0.1174  -0.8491  0.0003958  0.02812  -0.04729  -0.001617  -0.2029  -0.7514
6.486e+09  -0.1869  -0.9047  0.04411  -0.001775  0.02766  0.009554  -0.449  -0.6463
6.488e+09  0.2046  -0.5579  0.02528  -0.01252  0.5377  -0.411  -0.6534  -0.4239
6.489e+09  -0.6818  -0.5602  0.02003  -0.003808  0.0281  0.01208  -0.6999  -0.2395
6.49e+09  -0.8665  -0.2831  0.002643  0.002633  0.01583  -0.07214  -0.7864  0.07338
6.491e+09  -0.8703  0.09527  5.706e-06  -0.009191  0.02241  0.03298  -0.6843  0.362
6.492e+09  -0.8538  0.3717  -0.009075  -0.04508  -0.006072  -0.02175  -0.5023  0.5226
6.494e+09  -0.7443  0.6252  0.01463  -0.01578  0.04324  -0.1003  -0.3147  0.6734
6.495e+09  -0.3852  0.7975  0.01342  0.00821  -0.003206  -0.001377  -0.04527  0.7492
6.496e+09  -0.1102  0.9254  0.009785  -0.01873  -0.006143  0.03502  0.193  0.7309
6.498e+09  0.2524  0.8967  0.02635  0.01836  0.04181  0.03357  0.461  0.5923
6.499e+09  0.4948  0.7814  0.011  0.009744  -0.05122  0.0245  0.6714  0.3896
6.5e+09  0.7666  0.5814  0.005778  0.003394  0.04829  -0.01371  0.7496  0.1767
6.501e+09  0.8795  0.2134  -0.009208  0.03458  -0.00479  -0.03743  0.7392  -0.08297
6.502e+09  0.9447  -0.08697  0.01772  0.03689  0.006288  -0.0186  0.6608  -0.3743
6.504e+09  0.8447  -0.3953  0.01666  0.02221  -0.05159  -0.01966  0.49  -0.563
6.505e+09  0.67  -0.6572  -0.02017  -0.007358  -0.0007708  -0.01404  0.2953  -0.7458
6.506e+09  0.3934  -0.7808  -0.01517  -0.0292  0.01486  0.0003074  0.009797  -0.8135
6.508e+09  0.04479  -0.8896  0.00964  0.001485  -0.02462  0.0149  -0.272  -0.7074
6.509e+09  -0.2547  -0.9282  -0.04924  -0.04191  -0.01404  -0.01398  -0.4945  -0.5635
6.51e+09  -0.5528  -0.685  0.01836  0.01245  -0.004186  -0.03472  -0.6529  -0.3694
6.511e+09  -0.7658  -0.4892  0.006878  0.03597  0.05429  0.0482  -0.7296  -0.1833
6.512e+09  -0.8439  -0.1967  0.02234  0.03695  -0.02937  0.01778  -0.756  0.1565
6.514e+09  -0.8528  0.1462  -0.006124  0.0335  0.004522  -0.04514  -0.6384  0.3753
6.515e+09  -0.8572  0.4336  -0.01737  0.00224  -0.01222  0.005939  -0.4937  0.5996
6.516e+09  -0.5998  0.6284  -0.001665  0.0548  -0.03455  0.01352  -0.2685  0.7147
6.518e+09  -0.3199  0.864  0.007714  0.006834  0.001752  0.01334  -0.02946  0.7085
6.519e+09  0.01202  0.9363  -0.01949  0.02312  0.03216  0.03018  0.2618  0.6677
6.52e+09  0.3182  0.8671  -0.0121  0.01798  -0.003385  -0.04507  0.4589  0.5139
6.521e+09  0.5937  0.726  -0.02056  0.01804  0.01274  -0.0152  0.6671  0.3508
6.522e+09  0.7981  0.4289  -0.03104  0.01823  0.02731  -0.008004  0.7312  0.1076
6.524e+09  0.9184  0.171  0.01182  0.01084  -0.06052  -0.006886  0.7223  -0.188
6.525e+09  0.8828  -0.2803  -0.02015  -0.03341  0.02785  0.02039  0.6328  -0.4167
6.526e+09  0.8303  -0.4865  -0.02467  -0.009664  0.04645  -0.008369  0.4126  -0.5969
6.528e+09  0.6013  -0.7236  0.02393  0.011  -0.01877  0.008003  0.1996  -0.6906
6.529e+09  0.2874  -0.8905  -0.003207  0.004808  0.0006488  -0.02171  -0.07669  -0.6737
6.53e+09  -0.00283  -0.9306  0.01761  0.006937  -0.04856  -0.08161  -0.288  -0.649
6.531e+09  -0.3547  -0.8867  -0.01688  0.01408  -0.03356  0.03427  -0.4444  -0.4718
6.532e+09  -0.6871  -0.6932  -0.01803  -0.01845  -0.02264  -0.01268  -0.5715  -0.2885
6.534e+09  -0.8626  -0.4128  -0.004683  -0.002985  -0.03314  -0.02766  -0.6454  -0.09084
6.535e+09  -0.9517  -0.09023  0.009561  -0.03753  -0.03002  -0.02395  -0.6497  0.1034
6.536e+09  -0.9148  0.2022  0.0138  0.03304  -0.006153  -0.06224  -0.5505  0.3302
6.538e+09  -0.7692  0.5318  0.01799  0.004891  0.0128  4.988e-05  -0.4443  0.4571
6.539e+09  -0.5165  0.7926  -0.03168  0.02649  0.0461  0.01053  -0.2534  0.5856
6.54e+09  -0.2725  0.9056  -0.007267  -0.02114  0.02978  0.02172  -0.04346  0.672
6.541e+09  0.1402  0.9396  -0.01033  -0.03506  0.01603  -0.0341  0.1765  0.6836
6.542e+09  0.4247  0.8199  -0.007639  -0.05215  -0.03028  0.01523  0.4165  0.5282
6.544e+09  0.7153  0.6323  -0.0145  -0.007565  -0.02179  0.02246  0.6251  0.4158
6.545e+09  0.8584  0.3657  -0.01083  -0.01696  -0.01869  -0.01074  0.6733  0.1638
6.546e+09  0.9319  0.04975  -0.02342  -0.001511  0.034  -0.01713  0.7062  -0.09838
6.548e+09  0.8839  -0.2647  -0.002055  -0.0001378  -0.03424  0.04258  0.6503  -0.3238
6.549e+09  0.7202  -0.5412  -0.008602  -0.007964  0.0129  0.008752  0.5001  -0.5048
6.55e+09  0.4759  -0.789  0.02138  0.0009161  0.03279  0.02579  0.3195  -0.6877
