# Hz S RI R 50
6.25e+09  -0.5742  0.5545  -0.006922  0.01587  -0.0424  -0.005267  0.1685  0.4706
6.251e+09  -0.4132  0.785  -0.01023  -0.04217  0.01858  -0.09897  0.3614  0.426
6.252e+09  -0.1731  0.817  -0.02073  0.0004005  -0.04295  0.0335  0.5142  0.2356
6.254e+09  0.1901  0.7979  0.01346  -0.02179  0.004457  0.02226  0.6522  0.04824
6.255e+09  0.4295  0.7236  -0.02991  0.005685  -0.002143  -0.008513  0.5955  -0.2255
6.256e+09  0.62  0.5053  -0.02452  -0.0009734  0.01831  0.007412  0.4759  -0.4474
6.258e+09  0.8136  0.2367  0.0138  -0.02716  0.007843  -0.02409  0.2811  -0.617
6.259e+09  0.7696  -0.05297  -0.02389  -0.007097  -0.021  -0.0313  0.01808  -0.6743
6.26e+09  0.7506  -0.3097  0.01094  0.0002771  0.06542  0.03916  -0.2207  -0.6695
6.261e+09  0.639  -0.575  0.01719  -0.005648  0.02136  -0.03944  -0.4542  -0.5366
6.262e+09  0.3964  -0.709  -0.007222  -0.02027  -0.002661  -0.005864  -0.6212  -0.3235
6.264e+09  0.1941  -0.808  0.01812  0.002671  -0.0464  0.01724  -0.7112  -0.1461
6.265e+09  -0.1366  -0.7785  0.01769  -0.02616  0.06275  0.02269  -0.7186  0.1738
6.266e+09  -0.4594  -0.6513  -0.00112  -0.007372  -0.0009516  0.01539  -0.6208  0.3552
6.268e+09  -0.6114  -0.4908  -0.01631  -0.01599  -0.03453  -0.02021  -0.4287  0.5824
6.269e+09  -0.758  -0.2749  0.03713  -0.01514  -0.01355  0.006567  -0.2088  0.7353
6.27e+09  -0.7801  0.03117  -0.0147  -0.01403  -0.02829  0.03933  0.07411  0.7199
6.271e+09  -0.7117  0.285  -0.01393  0.02196  0.01586  0.03505  0.3182  0.6653
6.272e+09  -0.6142  0.5313  -0.005957  0.0004116  -0.005446  -0.0449  0.5371  0.5357
6.274e+09  -0.2976  0.7254  0.01666  -0.00513  0.004949  0.01102  0.6804  0.3302
6.275e+09  -0.05214  0.8154  0.02948  0.008697  0.007008  -0.01033  0.771  0.04821
6.276e+09  0.1774  0.7884  0.01398  0.0176  -0.01442  0.005529  0.7325  -0.2257
6.278e+09  0.4602  0.6595  0.01955  -0.001726  -0.009008  -0.01677  0.6067  -0.4737
6.279e+09  0.6215  0.496  0.01129  -0.01937  0.0003864  0.006159  0.403  -0.6324
6.28e+09  0.7335  0.2573  0.01074  -0.01015  -0.004339  -0.03166  0.1875  -0.7331
6.281e+09  0.7873  -0.05955  -0.0005219  -0.01885  0.001688  0.02855  -0.08479  -0.7737
6.282e+09  0.7027  -0.3206  0.01631  0.01401  -0.01874  -0.02435  -0.3521  -0.7238
6.284e+09  0.5866  -0.5193  0.01514  0.008645  -0.03561  0.0103  -0.5849  -0.5578
6.285e+09  0.3737  -0.7187  -0.01447  0.009034  0.03809  -0.03694  -0.7293  -0.2724
6.286e+09  0.08994  -0.7862  -0.008803  0.005206  0.01935  -0.006037  -0.7859  -0.04588
6.288e+09  -0.1783  -0.8475  0.03414  0.02375  -0.01302  -0.04151  -0.7501  0.2255
6.289e+09  -0.4501  -0.6586  0.01947  -0.01526  -0.06838  0.03169  -0.6005  0.5306
6.29e+09  -0.6318  -0.4653  -0.01408  0.01775  0.05558  0.02784  -0.4087  0.6885
6.291e+09  -0.7461  -0.2222  -0.004411  0.01324  0.001605  0.03126  -0.137  0.8238
6.292e+09  -0.7415  0.06645  0.01498  0.01983  0.03265  -0.002702  0.1364  0.8013
6.294e+09  -0.664  0.4127  -0.007712  -0.01443  -0.03097  0.01154  0.3812  0.7194
6.295e+09  -0.5837  0.5522  -0.003849  0.006784  0.003026  -0.006749  0.6105  0.5189
6.296e+09  -0.3166  0.7168  -0.03104  -0.002509  -0.03081  0.01121  0.7522  0.3
6.298e+09  -0.01062  0.7728  -0.0229  -0.03192  -0.008607  -0.02209  0.8067  0.04138
6.299e+09  0.1642  0.76  -0.03615  0.01716  -0.001434  0.05223  0.7597  -0.2728
6.3e+09  0.4944  0.6173  -0.04162  -0.008922  -0.0004443  -0.002659  0.6319  -0.55
6.301e+09  0.6736  0.4396  0.0003034  -0.03166  0.03857  -0.01838  0.4259  -0.7012
6.302e+09  0.7979  0.1827  0.01413  0.01357  -0.006738  -0.003188  0.1576  -0.8438
6.304e+09  0.7732  -0.1321  -0.01806  0.01947  0.01575  -0.01386  -0.1747  -0.8324
6.305e+09  0.7261  -0.3874  0.0182  0.02288  -0.0299  -0.03048  -0.4073  -0.7325
6.306e+09  0.5475  -0.5873  0.02725  0.003269  -0.0312  -0.01962  -0.6308  -0.5633
6.308e+09  0.3491  -0.7276  0.005973  -0.007289  0.0006387  -0.03961  -0.8144  -0.3068
6.309e+09  0.01376  -0.825  -0.023  -0.005023  -0.02193  0.03864  -0.8545  0.007414
6.31e+09  -0.2488  -0.785  -0.003522  -0.009163  -0.02296  0.006918  -0.794  0.299
6.311e+09  -0.516  -0.6013  0.01707  -0.009271  0.009205  0.001969  -0.6756  0.5182
6.312e+09  -0.7015  -0.4153  0.01154  -0.01218  -0.04048  0.006812  -0.4243  0.7136
6.314e+09  -0.7886  -0.2032  0.02537  -0.002705  0.03074  0.03153  -0.1819  0.823
6.315e+09  -0.811  0.1403  -0.02307  0.02529  0.03228  -0.04457  0.1222  0.8852
6.316e+09  -0.7168  0.3987  0.009956  -0.007483  -0.001794  -0.004755  0.4564  0.7671
6.318e+09  -0.5594  0.619  -0.03489  -0.00865  -0.01103  0.05057  0.6631  0.5692
6.319e+09  -0.3109  0.7256  0.01441  -0.002364  0.007095  0.01325  0.8227  0.331
6.32e+09  0.01413  0.8374  0.01512  0.01519  -0.03557  -0.02176  0.8862  0.04345
6.321e+09  0.2292  0.7838  -0.0152  0.007516  0.01914  -0.004465  0.8612  -0.2872
6.322e+09  0.5745  0.5764  0.01287  -0.001904  0.01769  -0.007827  0.6812  -0.5387
6.324e+09  0.7257  0.3834  -0.009861  0.03465  -0.0006564  0.01143  0.4806  -0.7639
6.325e+09  0.7795  0.1115  0.01749  0.03207  0.0213  0.002026  0.1533  -0.8891
6.326e+09  0.8005  -0.1947  -0.01522  0.02102  0.01418  -0.05043  -0.1265  -0.9067
6.328e+09  0.6513  -0.4136  0.0293  -0.02007  -0.02849  -0.002102  -0.4238  -0.772
6.329e+09  0.5179  -0.6777  0.002147  0.005956  0.004628  0.0008581  -0.6663  -0.605
6.33e+09  0.2272  -0.788  -0.01191  0.002388  0.02029  -0.00309  -0.85  -0.3225
6.331e+09  -0.06243  -0.791  0.01622  -0.004542  0.02418  -0.02335  -0.9068  -0.03026
6.332e+09  -0.3328  -0.732  -0.00333  0.023  0.000388  -0.0003806  -0.846  0.2892
6.334e+09  -0.5815  -0.6218  -0.01083  -0.01193  -0.03356  0.03905  -0.6998  0.5675
6.335e+09  -0.7313  -0.4018  0.03151  -0.01702  0.01775  -0.0534  -0.4958  0.749
6.336e+09  -0.8433  -0.05989  0.03496  -0.002237  0.006515  0.01352  -0.2039  0.8579
6.338e+09  -0.8457  0.235  -0.009296  0.02785  -0.01604  0.005778  0.1145  0.8988
6.339e+09  -0.6569  0.5194  0.002389  -0.006163  -0.02958  -0.006433  0.442  0.8354
6.34e+09  -0.4717  0.6974  0.02764  -0.0008275  -0.03463  -0.008885  0.6676  0.618
6.341e+09  -0.2014  0.8068  0.03229  0.007583  0.0007642  0.02055  0.8635  0.358
6.342e+09  0.09279  0.8637  -0.003115  0.02692  0.001517  0.02976  0.9255  0.03208
6.344e+09  0.3862  0.7292  -0.01336  0.003011  0.02224  -0.001047  0.8865  -0.2354
6.345e+09  0.6237  0.5785  0.00331  0.02882  -0.01435  -0.02634  0.7447  -0.5842
6.346e+09  0.7626  0.2998  0.01239  0.008162  -0.03338  0.04659  0.502  -0.7754
6.348e+09  0.8319  0.01103  -0.0009687  -0.01773  -0.01279  0.01312  0.221  -0.8939
6.349e+09  0.8197  -0.2868  -0.006758  -0.04147  0.02731  -0.02177  -0.1186  -0.9371
6.35e+09  0.596  -0.5434  0.01391  0.01563  0.004297  -0.01391  -0.4045  -0.8431
6.351e+09  0.4303  -0.7491  -0.002115  -0.00826  -0.0125  0.05586  -0.6763  -0.6402
6.352e+09  0.1388  -0.8236  0.01458  -0.03161  0.01393  -0.004733  -0.8362  -0.3572
6.354e+09  -0.1812  -0.8378  -0.01247  -0.04991  -0.001198  -0.02805  -0.9618  -0.07165
6.355e+09  -0.4665  -0.7135  0.01942  -0.005654  0.0007642  -0.005566  -0.9131  0.2498
6.356e+09  -0.6236  -0.5282  0.01836  -0.02093  0.02332  0.003355  -0.7726  0.5739
6.358e+09  -0.8451  -0.2994  -0.0241  -0.01015  -0.03204  -0.01245  -0.5112  0.757
6.359e+09  -0.891  0.0426  0.0161  -0.008736  0.005661  -0.007525  -0.2449  0.9292
6.36e+09  -0.7993  0.3451  0.03207  -0.008024  -0.01068  -0.02578  0.1009  0.9472
6.361e+09  -0.5867  0.584  0.01439  0.01221  -0.02553  -0.03845  0.4406  0.8858
6.362e+09  -0.3444  0.765  0.02709  0.02321  -0.0202  0.02514  0.6623  0.6647
6.364e+09  -0.1071  0.8349  0.01778  -0.04219  -0.003137  0.003523  0.8679  0.4111
6.365e+09  0.2393  0.816  -0.04806  0.00325  -0.01862  0.01909  0.9269  0.06357
6.366e+09  0.4385  0.6838  0.01122  0.02852  0.0185  7.818e-05  0.9182  -0.2418
6.368e+09  0.7017  0.4939  0.003385  -0.02813  -0.02402  0.0185  0.7567  -0.5603
6.369e+09  0.7841  0.2014  0.01432  -0.01932  0.0271  -0.003346  0.5429  -0.7701
6.37e+09  0.8376  -0.08698  -0.007133  0.009983  0.005051  0.0173  0.2532  -0.9202
6.371e+09  0.7479  -0.4276  0.002466  -0.004479  -0.02875  0.00323  -0.01827  -0.9648
6.372e+09  0.6204  -0.6715  -0.0412  -0.0006164  -0.01851  -0.02322  -0.3892  -0.8704
6.374e+09  0.33  -0.7379  0.01904  0.03697  0.02888  0.01296  -0.6347  -0.6945
6.375e+09  0.03551  -0.8633  -0.01011  -0.02214  -0.005076  -0.0193  -0.9056  -0.4256
6.376e+09  -0.2601  -0.7761  -0.04648  0.03606  -0.0164  -0.001015  -0.9369  -0.1108
6.378e+09  -0.4937  -0.6716  0.02473  -0.01468  0.02292  -0.05428  -0.9544  0.2503
6.379e+09  -0.7307  -0.4193  0.02051  -0.03331  -0.01892  0.01221  -0.7542  0.5633
6.38e+09  -0.8686  -0.1544  -0.01649  -0.01325  0.01634  0.02154  -0.5679  0.7235
6.381e+09  -0.878  0.1202  0.01532  0.02199  0.003974  -0.0519  -0.2674  0.8851
6.382e+09  -0.7255  0.4401  0.0496  0.01833  0.04952  0.03327  0.07132  0.9454
6.384e+09  -0.5535  0.6722  0.06554  0.04224  -0.02299  -0.01667  0.3891  0.8304
6.385e+09  -0.3089  0.811  0.03503  0.03185  -0.02173  0.02651  0.6552  0.6904
6.386e+09  0.008912  0.8509  -0.009605  0.01611  0.02655  0.03073  0.8507  0.4087
6.388e+09  0.3152  0.8159  0.04945  -0.06428  0.01486  0.01228  0.892  0.08883
6.389e+09  0.571  0.6414  0.05411  -0.02542  -0.004028  0.008413  0.875  -0.2016
6.39e+09  0.8049  0.3833  -0.03568  0.03338  0.02475  0.01738  0.7798  -0.5263
6.391e+09  0.8671  0.09842  0.01895  -0.02318  0.009726  -0.02786  0.602  -0.7294
6.392e+09  0.851  -0.1526  0.0447  -0.01357  0.01142  -0.0111  0.3075  -0.8692
6.394e+09  0.7649  -0.4459  0.00372  -0.03074  -0.002192  -0.01333  -0.02645  -0.9231
6.395e+09  0.4337  -0.7013  0.01123  0.004426  -0.001229  -0.009514  -0.365  -0.8213
6.396e+09  0.2452  -0.8678  -0.01229  0.04948  -0.01894  -0.01768  -0.5945  -0.6708
6.398e+09  -0.05363  -0.8878  0.05841  0.02746  -0.06233  -0.01988  -0.8325  -0.4121
6.399e+09  -0.3372  -0.7788  0.007855  0.01134  0.03221  -0.02747  -0.9243  -0.09469
6.4e+09  -0.5864  -0.6088  -0.006188  -0.001639  -0.009924  -0.04438  -0.8575  0.1486
6.401e+09  -0.7339  -0.3823  -0.04659  -0.02851  -0.04529  -0.0225  -0.7556  0.4551
6.402e+09  -0.8605  -0.0865  -0.02074  0.0008507  0.03062  -0.007326  -0.5645  0.6938
6.404e+09  -0.8414  0.2133  -0.01811  0.006714  -0.0002905  0.03106  -0.2963  0.8588
6.405e+09  -0.6662  0.5192  -0.003588  0.01434  -0.009414  0.01453  0.0417  0.9057
6.406e+09  -0.4678  0.6485  0.03762  -0.01476  0.01751  -0.0008787  0.3032  0.8695
6.408e+09  -0.1894  0.8191  -0.02546  -0.003093  -0.0361  -0.01037  0.5907  0.7267
6.409e+09  0.05872  0.8728  -0.006808  -0.005113  0.01513  0.002295  0.7414  0.4421
6.41e+09  0.371  0.7101  0.02088  -0.00608  -0.02918  -0.03961  0.854  0.1921
6.411e+09  0.6325  0.6197  -0.00594  0.02698  -0.02512  -0.02346  0.8585  -0.1251
6.412e+09  0.7744  0.3229  -0.008358  8.066e-05  -0.04095  0.01799  0.8059  -0.4058
6.414e+09  0.8767  0.03004  0.01572  -0.03903  -0.02056  -0.002279  0.6281  -0.6974
6.415e+09  0.8361  -0.2519  0.0396  0.02138  -0.03558  0.03586  0.314  -0.8089
6.416e+09  0.7097  -0.5113  0.004668  0.03174  -0.01049  -0.01178  0.05695  -0.8785
6.418e+09  0.4298  -0.7103  0.02373  0.02089  -0.0211  0.04414  -0.2467  -0.8519
6.419e+09  0.1487  -0.7799  0.04636  -0.0327  0.007642  0.03169  -0.5044  -0.6761
6.42e+09  -0.1261  -0.8472  -0.009056  -0.005535  -0.03949  0.01396  -0.7103  -0.4405
6.421e+09  -0.4298  -0.7194  -0.03277  0.04722  0.01939  -0.04656  -0.8875  -0.2016
6.422e+09  -0.6573  -0.5823  0.02816  -0.01225  -0.0128  -0.05277  -0.898  0.1223
6.424e+09  -0.7629  -0.3122  0.02164  -0.0122  0.005417  -0.02451  -0.8176  0.3838
6.425e+09  -0.8256  0.0001696  -0.03742  -0.01979  -0.007577  -0.06992  -0.6162  0.6656
6.426e+09  -0.8239  0.2706  -0.01324  -0.007599  -0.01987  -0.04371  -0.3556  0.7755
6.428e+09  -0.6757  0.5507  0.02381  0.001317  0.03651  -0.01422  -0.06027  0.8387
6.429e+09  -0.5106  0.7013  -0.03291  -0.008125  0.04775  -0.00216  0.2719  0.854
6.43e+09  -0.1822  0.773  0.01465  0.01594  0.0349  -0.02628  0.4899  0.7097
6.431e+09  0.1684  0.8543  0.01281  -0.01493  -0.002822  0.003661  0.747  0.5101
6.432e+09  0.4301  0.7233  -0.008557  -0.01194  -0.002564  -0.002217  0.8462  0.1785
6.434e+09  0.6707  0.4766  0.001458  -0.02106  0.02141  -0.005082  0.8513  -0.1177
6.435e+09  0.806  0.3136  -0.003641  0.03172  -0.02103  -0.02517  0.8051  -0.3795
6.436e+09  0.9107  0.01612  0.002777  0.00198  -0.03143  0.03893  0.6153  -0.6101
6.438e+09  0.7965  -0.2744  -0.02008  -0.0265  -0.01957  -0.0601  0.3718  -0.8102
6.439e+09  0.6719  -0.5296  0.01092  -0.02072  -0.0459  -0.03218  0.103  -0.8633
6.44e+09  0.431  -0.6957  0.0003454  -0.03698  0.004084  0.004342  -0.2112  -0.8225
6.441e+09  0.1688  -0.7734  -0.04689  0.01109  -0.03937  -0.003305  -0.5051  -0.7208
6.442e+09  -0.1658  -0.8388  -0.00771  0.05931  -0.0001095  0.007194  -0.7343  -0.5089
6.444e+09  -0.3846  -0.6952  0.01362  0.03278  -0.009761  -0.009296  -0.8072  -0.2137
6.445e+09  -0.6336  -0.5537  0.0289  -0.02447  -0.03434  -0.03665  -0.8513  0.09039
6.446e+09  -0.7485  -0.2962  -0.01765  0.01393  -0.01823  -0.01222  -0.7616  0.3583
6.448e+09  -0.8449  0.01724  0.0355  -0.04117  0.01023  -0.006109  -0.5686  0.6065
6.449e+09  -0.7857  0.2497  -0.04204  -0.02737  -0.02089  -0.003671  -0.3588  0.7693
6.45e+09  -0.6427  0.5573  0.001841  -0.02616  0.01705  0.006286  -0.06041  0.8397
6.451e+09  -0.472  0.7408  -0.005222  -0.008459  0.01807  -0.03098  0.2358  0.8053
6.452e+09  -0.13  0.793  -0.003734  -0.008502  -0.02356  0.02094  0.5003  0.6902
6.454e+09  0.1245  0.8064  -0.0003354  0.01994  -0.02377  0.01662  0.7311  0.4635
6.455e+09  0.4666  0.6967  -0.01242  -0.0004394  -0.0499  -0.007364  0.8058  0.2071
6.456e+09  0.6799  0.5188  0.05425  0.007574  -0.0008726  -0.0002546  0.7887  -0.06591
6.458e+09  0.7699  0.2287  0.0346  0.002785  0.05746  -0.02434  0.7445  -0.3454
6.459e+09  0.8453  -0.02674  0.005942  0.02262  0.01457  0.02146  0.6152  -0.6151
6.46e+09  0.7501  -0.2708  -0.01949  0.03133  0.02047  -0.01039  0.3774  -0.7488
6.461e+09  0.6654  -0.5269  0.0001231  0.003957  -0.02468  -0.04208  0.06748  -0.814
6.462e+09  0.4184  -0.7399  -0.0297  0.01612  0.01669  0.03003  -0.1905  -0.7576
6.464e+09  0.1547  -0.811  0.03985  -0.01725  0.01847  0.02507  -0.486  -0.6893
6.465e+09  -0.1893  -0.8557  -0.01621  -0.0071  0.01751  -0.02583  -0.6079  -0.4534
6.466e+09  -0.4213  -0.7311  -0.01496  0.01379  -0.05662  0.02267  -0.7772  -0.218
6.468e+09  -0.6545  -0.5209  -0.02403  0.02048  -0.02137  0.03204  -0.7997  0.09255
6.469e+09  -0.724  -0.2298  -0.002894  -0.003707  -0.02084  0.03183  -0.728  0.3122
6.47e+09  -0.8668  0.0007241  -0.006538  0.005452  -0.01545  -0.003413  -0.6112  0.5422
6.471e+09  -0.7988  0.3556  0.03776  0.02453  0.008336  -0.003506  -0.3269  0.7101
6.472e+09  -0.5883  0.5878  0.002905  0.02157  0.02055  -0.006206  -0.07308  0.797
6.474e+09  -0.4306  0.7023  0.04538  0.0331  0.0237  -0.02333  0.1913  0.7582
6.475e+09  -0.111  0.8432  0.002808  0.02178  0.04518  -0.01516  0.4629  0.6382
6.476e+09  0.1667  0.8784  0.0181  -0.02765  0.006081  0.05181  0.6907  0.4633
6.478e+09  0.4785  0.7248  -0.02701  -0.002221  0.00544  -0.04831  0.7391  0.2158
6.479e+09  0.7049  0.4814  0.03586  -0.05316  0.01977  0.03546  0.7569  -0.07927
6.48e+09  0.8173  0.2631  0.005568  -0.03562  0.06594  -0.01792  0.685  -0.3322
6.481e+09  0.8477  -0.0468  -0.01844  0.03185  -0.02172  -0.02046  0.5299  -0.5809
6.482e+09  0.7537  -0.3083  -0.03127  0.01593  -0.01208  -0.01863  0.31  -0.6987
6.484e+09  0.6468  -0.5882  0.0206  -0.06308  0.01947  -0.01456  0.09246  -0.7592
6.485e+09  0.3864  -0.7566  -0.00384  -2.94e-06  -0.01903  -0.02397  -0.2118  -0.7284
6.486e+09  0.113  -0.9013  -0.02303  -0.00022  -0.01203  0.005255  -0.4498  -0.6058
6.488e+09  -0.7275  -0.3039  -0.03996  -0.0157  0.5458  0.4563  -0.6276  -0.3926
6.489e+09  -0.4583  -0.6868  -0.02506  -0.01437  0.03162  -0.004195  -0.7425  -0.198
6.49e+09  -0.6591  -0.5018  -0.008316  0.01232  -0.07379  0.02951  -0.8022  0.07148
6.491e+09  -0.8333  -0.2588  0.03632  0.001508  0.008653  0.002616  -0.6905  0.341
6.492e+09  -0.89  0.02038  -0.007044  -0.004666  -0.01113  0.004622  -0.5338  0.5637
6.494e+09  -0.7406  0.2078  0.0368  0.007054  -0.05703  0.06391  -0.3178  0.6923
6.495e+09  -0.6641  0.6459  -0.02233  -0.02371  -0.02909  -0.002294  -0.04282  0.7424
6.496e+09  -0.4204  0.7881  0.01003  -0.02105  0.02198  -0.01871  0.2446  0.7246
6.498e+09  -0.09328  0.7985  -0.0001378  -0.04106  -0.04024  0.008864  0.4343  0.5907
6.499e+09  0.2324  0.8496  -0.0011  0.01187  -0.01974  0.008701  0.6443  0.4219
6.5e+09  0.4792  0.7004  -0.02511  -0.006908  0.0002019  -0.01557  0.7275  0.1413
6.501e+09  0.6949  0.5609  0.008975  -0.01097  -0.04185  -0.001115  0.7609  -0.1011
6.502e+09  0.8379  0.2312  -0.02252  -0.007437  0.03703  -0.0127  0.6851  -0.3805
6.504e+09  0.926  -0.009125  0.01857  0.001199  0.02256  0.01873  0.4538  -0.5502
6.505e+09  0.8169  -0.3343  -0.02492  0.006459  0.006054  -0.009551  0.286  -0.7381
6.506e+09  0.6687  -0.6111  -0.007565  0.01045  0.01264  0.02086  0.009361  -0.7561
6.508e+09  0.3897  -0.7798  -0.01039  -0.01682  0.01302  -0.01799  -0.2129  -0.6926
6.509e+09  0.1316  -0.909  0.0135  0.02656  -0.00284  -0.009596  -0.5124  -0.5868
6.51e+09  -0.1941  -0.8757  -0.006604  0.001916  -0.0008888  0.00887  -0.6325  -0.3661
6.511e+09  -0.5264  -0.7424  -0.03194  -0.005199  0.03782  -0.02729  -0.7319  -0.1427
6.512e+09  -0.7212  -0.5173  -0.01706  -0.01587  -0.02681  -0.03363  -0.7396  0.1234
6.514e+09  -0.8278  -0.2525  -0.01316  -0.0002764  -0.002399  -0.04195  -0.6395  0.3729
6.515e+09  -0.9239  0.0892  0.04566  0.0155  -0.0158  0.02882  -0.4902  0.5995
6.516e+09  -0.8451  0.4012  0.03634  0.01155  -0.03315  -0.02574  -0.2386  0.6677
6.518e+09  -0.6302  0.6918  -0.0265  0.008893  0.01029  0.03151  0.001275  0.7138
6.519e+09  -0.4271  0.8121  -0.0192  0.02643  -0.08253  0.01801  0.246  0.6795
6.52e+09  -0.08977  0.9217  -0.01272  0.01124  -0.002169  0.005302  0.4861  0.5757
6.521e+09  0.2455  0.9105  0.01278  0.004108  -0.03498  0.006752  0.6592  0.338
6.522e+09  0.6084  0.757  -0.01029  -0.002343  0.0233  0.01986  0.7304  0.1471
6.524e+09  0.7662  0.5149  0.00104  0.02161  0.02975  0.03815  0.6985  -0.1735
6.525e+09  0.902  0.1761  -0.006575  -0.008858  -0.02308  0.009858  0.5932  -0.3986
6.526e+09  0.8911  -0.1335  0.007586  -0.004367  -0.01269  -0.01954  0.4255  -0.5993
6.528e+09  0.7972  -0.4065  0.0008664  0.005544  0.02984  -0.0127  0.1732  -0.686
6.529e+09  0.6253  -0.6981  -0.01057  -0.02609  0.04469  -0.01059  -0.06802  -0.6872
6.53e+09  0.347  -0.8708  -0.03044  -0.02065  0.01179  0.01532  -0.2764  -0.6218
6.531e+09  0.03161  -0.9419  0.02383  -0.009515  -0.01853  -0.004638  -0.4317  -0.4355
6.532e+09  -0.3452  -0.9013  0.01747  -0.02216  0.001889  -0.0134  -0.587  -0.2675
6.534e+09  -0.5447  -0.7395  -0.007642  -0.0145  -0.04054  -0.01249  -0.6437  -0.08527
6.535e+09  -0.8525  -0.442  -0.002918  -0.005595  -0.004968  -0.01809  -0.6067  0.1554
6.536e+09  -0.9065  -0.1294  -0.008759  -0.00131  -0.005431  -0.03433  -0.5725  0.3126
6.538e+09  -0.9497  0.1766  0.02414  -0.02238  -0.02419  0.06173  -0.4593  0.4745
6.539e+09  -0.8221  0.4458  -0.00769  0.007479  -0.03018  -0.01103  -0.2706  0.604
6.54e+09  -0.5527  0.7567  -0.03582  -0.002791  0.04432  0.02052  -0.05775  0.6827
6.541e+09  -0.3183  0.8843  0.001725  -0.00979  -0.01934  -0.009006  0.1638  0.6155
6.542e+09  0.03233  0.9555  0.03988  -0.01602  0.01284  0.006033  0.4012  0.5769
6.544e+09  0.3542  0.8598  0.006656  -0.005069  0.02317  0.008098  0.6136  0.4205
6.545e+09  0.605  0.6864  -0.04401  0.03166  0.006762  -0.006228  0.678  0.1532
6.546e+09  0.8229  0.455  0.003997  -0.01154  0.03832  -0.0125  0.7009  -0.08524
6.548e+09  0.9295  0.02961  -0.01883  0.01059  0.006799  -0.005532  0.6481  -0.3375
6.549e+09  0.8134  -0.2393  -0.008488  0.03249  -0.0429  0.02116  0.4823  -0.5403
6.55e+09  0.7404  -0.5541  -0.01834  -0.02022  -0.01201  0.002607  0.2785  -0.6931
