# Hz S RI R 50
6.25e+09  -0.2842  0.7625  -0.003163  -0.02261  0.008458  -0.0125  0.1684  0.4945
6.251e+09  -0.02779  0.8211  0.01552  -0.007976  0.04479  0.03344  0.3554  0.4133
6.252e+09  0.2405  0.8542  -0.01198  -0.01865  0.00192  0.01659  0.5194  0.2263
6.254e+09  0.4925  0.7178  -0.02514  -0.0141  0.01255  -0.01678  0.5706  0.01705
6.255e+09  0.6844  0.4469  0.0153  0.02085  -0.02978  0.007775  0.6103  -0.2195
6.256e+09  0.7717  0.2086  0.004388  0.02228  0.03908  0.01613  0.4805  -0.4253
6.258e+09  0.8311  -0.1329  0.02234  -0.01038  -0.07244  0.006205  0.292  -0.6
6.259e+09  0.7378  -0.3621  -0.007556  0.00448  0.01644  0.02945  0.0602  -0.668
6.26e+09  0.5742  -0.5774  0.01404  0.005124  0.03455  -0.00146  -0.2194  -0.6477
6.261e+09  0.3418  -0.7212  0.007439  0.03964  0.02654  0.002149  -0.4485  -0.5563
6.262e+09  0.05974  -0.843  -0.01883  -0.03233  0.01383  0.0009052  -0.619  -0.3766
6.264e+09  -0.2661  -0.771  0.01079  -0.00412  -0.05033  -0.02977  -0.7212  -0.1006
6.265e+09  -0.4458  -0.6641  0.01944  -0.01073  0.03981  0.005925  -0.6956  0.1416
6.266e+09  -0.6817  -0.4506  -0.01489  -0.027  0.01064  0.01161  -0.5735  0.4117
6.268e+09  -0.7675  -0.1969  -0.0009255  0.01145  0.01965  0.004843  -0.4135  0.5936
6.269e+09  -0.7789  0.09886  0.003231  -0.03959  0.01538  0.04453  -0.2239  0.6993
6.27e+09  -0.739  0.3971  0.01158  -0.01686  0.005463  -0.0143  0.07942  0.7466
6.271e+09  -0.5591  0.6442  0.0286  -0.02052  -0.04588  0.005343  0.3081  0.6883
6.272e+09  -0.2953  0.7189  -0.003623  -0.003625  0.01198  0.01919  0.5266  0.504
6.274e+09  -0.08518  0.8256  -0.004537  -0.005225  0.005218  0.02226  0.6839  0.3182
6.275e+09  0.3024  0.7895  0.005429  -0.03501  0.0191  0.0331  0.7414  0.04472
6.276e+09  0.5311  0.5727  -0.03653  0.006455  0.0012  0.0198  0.7481  -0.2162
6.278e+09  0.7029  0.4414  0.001855  0.005142  -0.01906  -0.00915  0.5893  -0.4624
6.279e+09  0.77  0.1317  -0.01578  2.713e-05  0.01005  -0.04388  0.4485  -0.6495
6.28e+09  0.8359  -0.08591  -0.00494  0.01933  0.02029  0.01664  0.1868  -0.7655
6.281e+09  0.736  -0.3886  0.002722  0.006476  0.01877  0.001608  -0.1158  -0.7959
6.282e+09  0.5779  -0.5857  0.008629  -0.009183  -0.0324  -0.002421  -0.3972  -0.6841
6.284e+09  0.2303  -0.713  0.03802  0.03616  -0.005815  -0.03371  -0.5873  -0.5195
6.285e+09  -0.05781  -0.783  -0.0007299  -0.02526  0.0374  -8.799e-06  -0.7267  -0.3115
6.286e+09  -0.2961  -0.7517  0.02518  0.01959  0.008398  0.08151  -0.7803  -0.01995
6.288e+09  -0.5267  -0.5972  -0.0005969  -0.001292  0.02652  -0.02116  -0.7489  0.2565
6.289e+09  -0.601  -0.3847  0.03318  0.0315  0.02454  0.01237  -0.6078  0.4802
6.29e+09  -0.7966  -0.2071  -0.01256  0.02132  0.03037  0.01229  -0.4101  0.6998
6.291e+09  -0.8357  0.1679  -0.004644  0.006321  0.007468  -0.03312  -0.1387  0.8181
6.292e+09  -0.6795  0.4479  0.006062  0.003597  0.06676  -0.01598  0.1322  0.798
6.294e+09  -0.5588  0.5857  0.01278  0.002759  -0.03334  0.002391  0.4186  0.7051
6.295e+09  -0.2711  0.807  -0.01053  -0.05237  -0.04232  -0.01134  0.6144  0.542
6.296e+09  -0.008159  0.7651  -0.02141  0.006537  -0.03195  -0.02012  0.7755  0.3023
6.298e+09  0.3064  0.7884  0.01416  -0.003996  -0.005799  -0.01504  0.8136  -0.001351
6.299e+09  0.4919  0.5872  0.0295  -0.01227  0.004339  0.01919  0.7914  -0.2509
6.3e+09  0.6868  0.3799  -0.004918  0.003185  0.01024  0.01975  0.6294  -0.5108
6.301e+09  0.8185  0.08889  0.01019  0.02673  0.02362  -0.008646  0.4455  -0.7472
6.302e+09  0.8119  -0.1872  0.01087  0.02004  -0.01161  0.02775  0.1484  -0.8289
6.304e+09  0.6915  -0.4212  -0.01351  0.003857  0.002348  0.008436  -0.1367  -0.8427
6.305e+09  0.4844  -0.6828  0.01313  0.003429  -0.00739  -0.009713  -0.4038  -0.7559
6.306e+09  0.2435  -0.8266  0.03908  -0.007745  0.04148  -0.0352  -0.6101  -0.5759
6.308e+09  -0.0409  -0.8894  1.322e-05  0.02048  0.007552  0.02905  -0.7926  -0.3176
6.309e+09  -0.2996  -0.7431  -0.01163  -0.0251  -0.02042  0.05959  -0.8852  -0.04242
6.31e+09  -0.6094  -0.5381  -0.004947  0.002829  0.008994  -0.01807  -0.851  0.2848
6.311e+09  -0.7678  -0.3692  0.01283  -0.01229  -0.02295  0.02471  -0.6537  0.5424
6.312e+09  -0.8071  -0.06266  0.0001026  -0.008837  0.005627  -0.01991  -0.4418  0.7403
6.314e+09  -0.7909  0.1986  0.02486  0.005908  -0.002523  -0.02205  -0.1971  0.8478
6.315e+09  -0.649  0.4645  0.01049  -0.03337  0.02528  0.02444  0.1308  0.8563
6.316e+09  -0.4448  0.7149  0.004976  0.01523  -0.05208  0.04192  0.4113  0.7523
6.318e+09  -0.1788  0.7883  0.01047  -0.0007564  -0.03565  -0.04163  0.6244  0.5683
6.319e+09  0.09875  0.8058  0.006764  0.01499  -0.01339  -0.01172  0.7945  0.3215
6.32e+09  0.3488  0.7527  -0.03029  -0.003727  -0.01726  0.01532  0.8781  0.004224
6.321e+09  0.658  0.5611  -0.003933  0.01797  -0.02319  -0.0013  0.8481  -0.3025
6.322e+09  0.7274  0.3265  -0.008571  0.002661  -0.05289  0.006606  0.6765  -0.5684
6.324e+09  0.8155  0.08058  -0.02449  0.01406  0.003381  -0.006786  0.4573  -0.7775
6.325e+09  0.7989  -0.287  -0.01647  -0.0001809  -0.004529  0.02817  0.1484  -0.88
6.326e+09  0.6326  -0.5496  0.006491  -0.02872  -0.009501  0.0105  -0.1348  -0.9006
6.328e+09  0.4455  -0.6912  0.02719  0.0136  0.01455  -0.01911  -0.4488  -0.7878
6.329e+09  0.181  -0.8042  -0.02055  0.002314  -0.02711  0.02235  -0.6678  -0.5931
6.33e+09  -0.1632  -0.8211  -0.02878  -0.01353  0.02705  0.0423  -0.8388  -0.3494
6.331e+09  -0.406  -0.7469  0.02604  0.0212  -0.0257  0.02839  -0.9201  0.01275
6.332e+09  -0.6134  -0.5449  -0.001521  0.009883  0.01308  0.006563  -0.895  0.3009
6.334e+09  -0.8113  -0.2723  -0.05854  0.01134  0.02388  0.02315  -0.7179  0.5457
6.335e+09  -0.8397  -0.02986  0.006044  0.00364  -0.001841  0.01559  -0.4658  0.7515
6.336e+09  -0.7086  0.353  -0.0165  0.02062  0.02633  0.00293  -0.1719  0.8994
6.338e+09  -0.6278  0.5149  0.02054  0.01674  -0.02026  -0.009832  0.1243  0.9376
6.339e+09  -0.4234  0.7082  0.015  -0.0323  0.005714  -0.02381  0.4343  0.8288
6.34e+09  -0.1184  0.8446  0.005316  -0.01118  0.01525  -0.006009  0.69  0.6215
6.341e+09  0.2026  0.8444  -0.02238  0.02034  -0.001302  0.04702  0.8241  0.3424
6.342e+09  0.4816  0.6954  0.007081  -0.01213  0.01382  0.004192  0.9661  0.06621
6.344e+09  0.6722  0.4843  -0.002873  0.02873  0.01501  0.006998  0.8772  -0.2375
6.345e+09  0.8406  0.2208  -0.001117  0.006727  -0.02627  0.03865  0.7714  -0.5403
6.346e+09  0.8495  -0.0934  -0.007896  -0.02257  0.003098  0.003098  0.5305  -0.7883
6.348e+09  0.7702  -0.3625  -0.005589  0.02914  -0.01127  0.02287  0.2  -0.911
6.349e+09  0.6111  -0.6059  -0.007484  -0.0125  0.02652  0.04345  -0.1065  -0.9328
6.35e+09  0.3783  -0.7746  0.01101  -0.006455  0.004793  -0.03947  -0.3939  -0.8314
6.351e+09  0.06628  -0.8816  -0.01738  -0.01791  -0.0182  0.006342  -0.684  -0.6377
6.352e+09  -0.2084  -0.8491  0.01959  -0.04226  -0.04898  -0.009092  -0.8622  -0.3543
6.354e+09  -0.5238  -0.6505  0.005137  0.01496  0.02679  -0.006247  -0.9445  -0.04824
6.355e+09  -0.7435  -0.4657  0.02665  -0.002998  0.0162  0.02572  -0.8958  0.2643
6.356e+09  -0.87  -0.2178  0.02764  -0.001835  -0.0007105  0.02818  -0.734  0.5438
6.358e+09  -0.8696  0.08072  -0.01058  0.03541  -0.02324  0.04137  -0.5402  0.78
6.359e+09  -0.7726  0.4037  0.0117  0.03321  -0.001997  -0.01104  -0.2297  0.9043
6.36e+09  -0.5918  0.6505  -0.00872  -0.01404  -0.01596  0.03468  0.09138  0.9316
6.361e+09  -0.2964  0.7801  -0.008585  0.02575  0.003969  0.04144  0.4051  0.8553
6.362e+09  -0.006804  0.864  0.005324  0.01438  -0.05057  0.03431  0.7071  0.6758
6.364e+09  0.343  0.8077  -0.02128  0.03925  -0.02304  0.04779  0.8426  0.3749
6.365e+09  0.5319  0.6866  0.002989  0.01857  0.03172  -0.004316  0.9115  0.08397
6.366e+09  0.763  0.4171  -0.006366  0.001989  -0.03555  -0.01879  0.9324  -0.2534
6.368e+09  0.835  0.1301  -0.0307  -0.0009688  -0.02466  -0.05275  0.7617  -0.5418
6.369e+09  0.8669  -0.1523  0.02787  -0.01291  -0.005168  0.03117  0.5293  -0.7966
6.37e+09  0.7523  -0.4675  -0.003626  -0.02177  -0.03567  0.004453  0.243  -0.9126
6.371e+09  0.5591  -0.7165  -0.02887  0.0116  0.03048  0.009254  -0.09334  -0.9233
6.372e+09  0.2764  -0.834  -0.01947  -0.005923  -0.007924  0.01404  -0.4192  -0.8503
6.374e+09  -0.0641  -0.8324  0.007026  -0.01094  0.002842  0.01779  -0.6215  -0.6846
6.375e+09  -0.3218  -0.8137  -0.01132  -0.01109  0.01645  0.007166  -0.8246  -0.405
6.376e+09  -0.5941  -0.6266  -0.005732  -0.0181  0.0211  -0.04635  -0.9416  -0.1019
6.378e+09  -0.7747  -0.4209  -0.01364  0.01964  -0.005925  -0.01493  -0.8926  0.2199
6.379e+09  -0.835  -0.07535  -0.004096  0.0388  -0.005186  0.02822  -0.7889  0.5267
6.38e+09  -0.8584  0.1621  0.02646  0.02359  0.0321  -0.003943  -0.5406  0.7448
6.381e+09  -0.7217  0.4868  -0.03064  -0.01633  -0.01248  0.02399  -0.2527  0.9391
6.382e+09  -0.4503  0.6914  0.01372  -0.001371  0.03545  0.02325  0.06528  0.9741
6.384e+09  -0.1968  0.8312  0.01367  -0.001722  0.03857  0.04468  0.3721  0.814
6.385e+09  0.07965  0.8559  0.03549  -0.02645  -0.0142  0.004185  0.6678  0.6945
6.386e+09  0.3579  0.7331  0.03815  0.05592  -0.02462  0.01699  0.8275  0.4028
6.388e+09  0.5885  0.5867  -0.04129  0.01638  -0.06886  0.001036  0.9386  0.1313
6.389e+09  0.7992  0.3515  -0.009264  0.01138  -0.01428  0.01493  0.8848  -0.2085
6.39e+09  0.8622  0.02814  0.0287  0.003335  -0.01644  -0.02285  0.804  -0.5081
6.391e+09  0.8574  -0.276  0.02852  -0.005101  -0.02203  -0.05297  0.587  -0.731
6.392e+09  0.6865  -0.5086  0.01404  0.01399  0.008397  -0.02723  0.287  -0.8463
6.394e+09  0.4984  -0.7337  0.00392  0.03393  -0.005021  0.001925  -0.04  -0.9176
6.395e+09  0.1935  -0.8271  -0.0118  -0.04497  -0.04116  -0.03755  -0.3326  -0.8794
6.396e+09  -0.1013  -0.8977  -0.00445  0.002847  -0.01014  0.02633  -0.5921  -0.6661
6.398e+09  -0.413  -0.7368  -0.005331  0.0122  -0.01554  0.005479  -0.7791  -0.4392
6.399e+09  -0.6422  -0.6111  -0.006804  0.02025  0.02482  -0.03213  -0.9116  -0.0991
6.4e+09  -0.8411  -0.4068  -0.04262  0.04111  0.009944  0.007262  -0.9298  0.1462
6.401e+09  -0.8576  -0.0255  -0.004078  -0.007826  -0.02673  0.01039  -0.8385  0.4709
6.402e+09  -0.8272  0.2385  0.01085  -0.01453  -0.006019  -0.02004  -0.5759  0.7672
6.404e+09  -0.672  0.5758  -0.01008  -0.02108  0.0241  -0.03906  -0.3155  0.8723
6.405e+09  -0.468  0.7646  0.01229  -0.03924  0.01955  0.02896  -0.01873  0.9044
6.406e+09  -0.1529  0.8108  -0.005216  -0.02434  -0.03548  -0.01412  0.318  0.9356
6.408e+09  0.1037  0.8802  0.01208  -0.009616  -0.04912  -0.02246  0.5722  0.7453
6.409e+09  0.4376  0.7559  -0.003054  -0.04765  -0.008099  0.04226  0.805  0.4019
6.41e+09  0.6613  0.5585  0.01115  0.00272  0.007703  -0.003013  0.8719  0.1694
6.411e+09  0.8007  0.3446  -0.02843  0.02122  0.02289  -0.002919  0.864  -0.1179
6.412e+09  0.8304  -0.05325  -0.05879  0.002115  0.02977  -0.02874  0.8394  -0.4756
6.414e+09  0.82  -0.2713  0.0208  0.01026  0.00266  0.0392  0.6035  -0.6528
6.415e+09  0.6344  -0.5227  0.03591  0.02375  0.02704  -0.07976  0.3464  -0.865
6.416e+09  0.404  -0.7572  0.01185  -0.006929  -0.01475  0.04528  0.02433  -0.9217
6.418e+09  0.1394  -0.8345  -0.001929  0.0004864  -0.03529  0.02639  -0.2827  -0.8984
6.419e+09  -0.156  -0.8294  -0.01306  0.01335  -0.03051  -0.02444  -0.5308  -0.7144
6.42e+09  -0.3949  -0.7487  -0.004808  -0.03724  -0.05738  -0.04098  -0.733  -0.4839
6.421e+09  -0.6525  -0.522  0.002729  0.002753  0.008455  0.02825  -0.8608  -0.1459
6.422e+09  -0.7884  -0.3061  0.04055  -0.02214  -0.006611  -0.01435  -0.9096  0.04663
6.424e+09  -0.796  0.007885  0.0004266  -0.008781  -0.02677  -0.04279  -0.783  0.4275
6.425e+09  -0.7621  0.3224  0.01804  -0.04263  -0.01718  0.04606  -0.6035  0.6275
6.426e+09  -0.6491  0.5659  0.06206  0.02829  0.0009533  -0.01283  -0.3511  0.795
6.428e+09  -0.3809  0.7224  0.02184  -0.01452  0.02955  0.01406  -0.07856  0.8895
6.429e+09  -0.1383  0.8117  0.009581  -0.04311  -0.01688  0.005371  0.2688  0.8238
6.43e+09  0.1503  0.8167  0.01741  -0.0005209  -0.002351  -0.01353  0.517  0.6776
6.431e+09  0.4632  0.7232  0.001833  -0.004367  -0.04295  0.03849  0.6771  0.5236
6.432e+09  0.6674  0.5415  -0.01276  0.02135  0.0152  -0.02696  0.8681  0.1691
6.434e+09  0.831  0.2931  -0.01915  0.02987  0.01739  -0.02831  0.8444  -0.092
6.435e+09  0.8072  -0.01644  0.009203  -0.007593  -0.04641  -0.01632  0.7507  -0.3971
6.436e+09  0.7739  -0.2897  0.03074  -0.004983  0.003531  0.01824  0.6069  -0.6038
6.438e+09  0.6406  -0.6031  -0.01976  -0.01773  -0.003219  -0.008111  0.3813  -0.7682
6.439e+09  0.3952  -0.732  -0.006611  -0.01897  0.02121  -0.02128  0.06873  -0.9135
6.44e+09  0.08632  -0.8283  -0.01019  -0.04685  0.004165  -0.01698  -0.214  -0.8409
6.441e+09  -0.1644  -0.8689  0.006916  -0.01324  -0.002194  0.00443  -0.5349  -0.7485
6.442e+09  -0.3781  -0.7503  0.03267  -0.003632  -0.002174  0.02523  -0.7306  -0.4859
6.444e+09  -0.6692  -0.5539  -0.04764  0.005508  0.03064  -0.02232  -0.8039  -0.2163
6.445e+09  -0.8182  -0.2559  -0.001309  0.008436  0.00161  -0.01132  -0.8316  0.07974
6.446e+09  -0.8417  0.01463  -0.003928  0.03881  -0.002573  -0.0202  -0.7703  0.3869
6.448e+09  -0.77  0.3612  -0.01839  0.0388  -0.009392  0.02523  -0.5793  0.6136
6.449e+09  -0.6677  0.5378  0.02254  -0.00825  -0.04084  -0.007508  -0.3494  0.7512
6.45e+09  -0.401  0.7919  0.03371  -0.02386  -0.01563  0.01121  -0.04585  0.7969
6.451e+09  -0.1022  0.9017  -0.004585  -0.01646  -0.01975  -0.0133  0.2405  0.8025
6.452e+09  0.1851  0.7938  0.006845  -0.006964  -0.01071  0.01751  0.4741  0.6914
6.454e+09  0.473  0.7438  -0.04537  0.005036  -0.05765  0.04404  0.729  0.5046
6.455e+09  0.6733  0.545  -0.01332  0.03772  0.003297  -0.02613  0.79  0.193
6.456e+09  0.7858  0.2577  0.04801  -0.00802  -0.02256  0.01304  0.7974  -0.06683
6.458e+09  0.9228  -0.06349  0.009752  0.01015  -0.0008505  0.01574  0.7375  -0.3277
6.459e+09  0.833  -0.3272  0.003749  0.04238  -0.04811  0.0334  0.6094  -0.5463
6.46e+09  0.6423  -0.6285  0.02163  -0.01112  -0.03349  0.01425  0.4031  -0.7531
6.461e+09  0.4024  -0.7759  -0.04109  -0.01364  0.01071  -0.02312  0.07075  -0.815
6.462e+09  0.1306  -0.8789  0.007268  -0.002776  -0.02034  -0.02602  -0.2243  -0.8204
6.464e+09  -0.181  -0.8404  -0.01589  0.0254  -0.05074  0.0381  -0.4505  -0.6606
6.465e+09  -0.4439  -0.7193  0.008334  0.02703  0.03016  0.03899  -0.6253  -0.4581
6.466e+09  -0.7031  -0.5013  0.02794  0.004174  -0.001831  0.0318  -0.7508  -0.2019
6.468e+09  -0.8105  -0.245  -0.01185  0.01443  -0.01867  -0.007113  -0.7901  0.03424
6.469e+09  -0.8925  0.08756  0.01149  0.02453  -0.02189  -0.01061  -0.7252  0.3711
6.47e+09  -0.7803  0.3613  0.02862  -0.03192  0.0004904  0.04156  -0.5764  0.5316
6.471e+09  -0.5988  0.5958  0.02196  0.002779  0.01339  0.01156  -0.3609  0.7543
6.472e+09  -0.3964  0.7466  -0.01626  0.02575  0.02749  0.02459  -0.08939  0.7924
6.474e+09  -0.0987  0.8805  -0.002039  -0.008667  0.01371  -0.04154  0.2237  0.7509
6.475e+09  0.2386  0.8677  0.004371  0.04535  0.001395  -0.03239  0.4527  0.6143
6.476e+09  0.514  0.7545  0.0271  0.002307  -0.004998  -0.00958  0.5886  0.4438
6.478e+09  0.7182  0.502  0.002726  0.0459  0.01621  0.0426  0.7235  0.1923
6.479e+09  0.8412  0.2576  -0.02723  -0.01511  -0.03065  -0.01583  0.7742  -0.09664
6.48e+09  0.8768  -0.0845  0.03759  0.01971  -0.01465  -0.001708  0.6715  -0.3095
6.481e+09  0.8007  -0.3691  -0.005478  0.0341  -0.01632  0.0186  0.5547  -0.5696
6.482e+09  0.6683  -0.6711  0.01868  -0.01532  -0.03307  0.03348  0.2991  -0.6924
6.484e+09  0.3933  -0.8379  0.01652  -0.002206  -0.002142  0.05288  0.0957  -0.7565
6.485e+09  0.001726  -0.8674  -0.05008  0.009265  -0.005811  -0.04224  -0.2278  -0.7367
6.486e+09  -0.2115  -0.8612  0.008811  0.02025  0.06513  -0.006495  -0.4978  -0.646
6.488e+09  -1.018  -0.1741  -0.01526  -0.00145  -0.1766  -0.7016  -0.6153  -0.4142
6.489e+09  -0.7392  -0.5214  0.01784  0.02238  0.01051  -0.0369  -0.7452  -0.1688
6.49e+09  -0.8427  -0.2728  0.002609  -0.04386  0.01084  -0.0337  -0.7133  0.07001
6.491e+09  -0.913  0.1126  0.02132  -0.01938  0.0457  -0.01633  -0.6998  0.3336
6.492e+09  -0.7999  0.3798  -0.03425  0.001076  0.03445  0.01056  -0.5018  0.5305
6.494e+09  -0.5178  0.5934  -0.006834  0.02737  0.05616  0.07289  -0.2968  0.7007
6.495e+09  -0.3942  0.8069  -0.01893  0.01415  0.008794  -0.05741  -0.03489  0.8017
6.496e+09  -0.08238  0.8552  -0.03934  0.02713  -0.007651  0.002828  0.2079  0.7024
6.498e+09  0.2795  0.8626  0.01549  0.007565  -0.04395  -0.03457  0.429  0.6035
6.499e+09  0.5643  0.6934  -0.01519  -0.02311  0.04461  0.01025  0.6619  0.3985
6.5e+09  0.7565  0.535  -0.03699  0.01072  -0.01033  -0.05506  0.7509  0.1312
6.501e+09  0.9251  0.206  0.008158  0.04151  0.006151  0.01239  0.7591  -0.1053
6.502e+09  0.8959  -0.1035  0.02242  -0.005383  0.03942  0.01438  0.6314  -0.3282
6.504e+09  0.8102  -0.4219  0.04336  0.02132  0.0577  -0.02659  0.4806  -0.5724
6.505e+09  0.5556  -0.7267  -0.0332  0.0102  0.001986  0.02588  0.2893  -0.677
6.506e+09  0.3656  -0.8955  -0.01931  0.007815  -0.02672  0.03896  0.01185  -0.742
6.508e+09  0.03611  -0.8924  0.007767  -0.01097  0.01207  -0.01693  -0.2267  -0.6895
6.509e+09  -0.323  -0.8892  0.01744  -0.03684  0.02846  -0.02829  -0.4563  -0.5915
6.51e+09  -0.5543  -0.7366  -0.002815  -0.01758  0.03289  0.0475  -0.62  -0.4096
6.511e+09  -0.778  -0.462  0.01196  0.006927  -0.03573  -0.01805  -0.7411  -0.1283
6.512e+09  -0.9117  -0.1739  -0.03281  -0.00239  0.04049  0.01783  -0.743  0.1165
6.514e+09  -0.921  0.1369  -0.01809  -0.01101  -0.03625  0.007571  -0.6498  0.3843
6.515e+09  -0.7744  0.4738  -0.007178  0.02731  -0.01656  0.03221  -0.492  0.5672
6.516e+09  -0.5785  0.7324  -0.02767  0.006544  0.02395  0.02972  -0.2194  0.7292
6.518e+09  -0.3315  0.8664  0.004082  0.02098  -0.02136  -0.00455  0.03131  0.773
6.519e+09  0.03859  0.9373  0.008886  0.03896  -0.002497  0.009552  0.2867  0.7342
6.52e+09  0.3625  0.8629  -1.489e-05  -0.02558  -0.01746  -0.01099  0.4718  0.5804
6.521e+09  0.62  0.69  0.0101  -0.02302  0.01336  0.02331  0.6079  0.3523
6.522e+09  0.8492  0.4325  0.0127  0.01183  -0.04362  -0.03189  0.7517  0.1031
6.524e+09  0.9636  0.1131  0.01859  0.003138  0.01372  0.0006262  0.7234  -0.1555
6.525e+09  0.8823  -0.2219  0.03305  -0.02171  -0.009004  0.001581  0.6372  -0.396
6.526e+09  0.791  -0.5589  0.04368  0.02322  0.06186  0.0143  0.4513  -0.5764
6.528e+09  0.5416  -0.728  -0.01802  -0.03179  0.02131  -0.02604  0.2177  -0.7181
6.529e+09  0.2839  -0.8743  0.02146  -0.003003  -0.0138  0.02202  -0.08302  -0.7153
6.53e+09  -0.05989  -0.9301  0.008193  -0.002172  0.01151  -0.001664  -0.3115  -0.6482
6.531e+09  -0.4389  -0.8093  0.01013  0.01445  -0.03174  -0.02597  -0.4746  -0.4848
6.532e+09  -0.6214  -0.7031  -0.001994  -0.01452  0.03119  -0.0164  -0.6037  -0.3006
6.534e+09  -0.8787  -0.3727  0.02288  -0.03036  0.02665  -0.02081  -0.6167  -0.09399
6.535e+09  -0.943  -0.01472  -0.031  -0.01717  -0.04083  0.03022  -0.6267  0.1284
6.536e+09  -0.9314  0.2859  -0.01239  0.01138  0.005215  0.04334  -0.5688  0.3243
6.538e+09  -0.7287  0.5732  -0.01532  0.0022  0.0006359  0.008816  -0.4465  0.4431
6.539e+09  -0.4699  0.7847  -0.01935  0.0323  0.0006384  -0.002282  -0.2611  0.5768
6.54e+09  -0.215  0.9613  -0.01829  0.02551  0.002558  0.04546  -0.07551  0.6806
6.541e+09  0.1401  0.9238  0.01104  -0.01884  -0.02366  0.02571  0.1856  0.6693
6.542e+09  0.4965  0.7926  0.004047  0.03177  0.02896  -0.03936  0.3923  0.547
6.544e+09  0.6601  0.5883  0.01249  0.001919  -0.0288  -0.06992  0.6017  0.3915
6.545e+09  0.8872  0.342  0.01121  -0.02257  -0.004088  0.03411  0.7143  0.188
6.546e+09  0.9369  -0.02305  0.02782  0.00107  -0.01053  -0.03776  0.715  -0.07838
6.548e+09  0.8789  -0.3368  0.009072  -0.03483  0.008359  -0.003378  0.652  -0.3215
6.549e+09  0.6638  -0.6351  -0.01722  -0.008282  0.04776  0.01321  0.4733  -0.5478
6.55e+09  0.3575  -0.782  -0.02062  -0.01804  -0.013  -0.00976  0.2827  -0.6808
6.551e+09  0.1081  -0.9288  0.01751  -0.01437  -0.03775  0.02428  0.02641  -0.7364
