# Hz S RI R 50
6.25e+09  -0.6256  0.5664  0.01554  -0.003432  -0.04547  0.001353  0.1519  0.4818
6.251e+09  -0.3906  0.7015  -0.01837  0.01643  -0.02951  0.02833  0.3241  0.4118
6.252e+09  -0.0872  0.794  0.005737  0.01251  0.01567  0.001391  0.5217  0.2297
6.254e+09  0.2073  0.8339  0.008861  0.02693  0.03377  0.005703  0.6221  -0.02571
6.255e+09  0.4027  0.6893  0.01104  0.002826  0.001455  0.03698  0.5978  -0.2489
6.256e+09  0.6534  0.5122  0.02866  -0.01897  -0.02947  -0.04548  0.4795  -0.4419
6.258e+09  0.7465  0.2769  0.02511  0.0105  0.003394  0.003903  0.3168  -0.5776
6.259e+09  0.7419  -0.006379  0.00797  0.007619  -0.01792  0.03488  0.005491  -0.688
6.26e+09  0.7708  -0.3161  0.02331  -0.00393  -0.05665  0.002029  -0.2095  -0.6875
6.261e+09  0.645  -0.5119  -0.01917  0.01992  0.01265  0.006846  -0.4525  -0.551
6.262e+09  0.3992  -0.7104  -0.01949  0.01472  0.009911  0.001534  -0.5884  -0.3537
6.264e+09  0.1085  -0.8009  0.003924  0.005648  -0.01586  0.02273  -0.6935  -0.122
6.265e+09  -0.1627  -0.7848  0.02789  0.006308  0.005935  0.01359  -0.7304  0.1594
6.266e+09  -0.3833  -0.6691  -0.02791  0.02395  -0.05064  -0.02296  -0.5976  0.3868
6.268e+09  -0.5696  -0.5319  -0.001478  -0.02039  0.001268  -0.006115  -0.4289  0.5868
6.269e+09  -0.7147  -0.2685  0.01313  -0.008529  0.01036  -0.000812  -0.2209  0.7043
6.27e+09  -0.8165  0.005814  0.01836  -0.02809  0.01774  -0.03101  0.07452  0.7134
6.271e+09  -0.7493  0.3021  0.003988  -0.03312  0.01271  -0.004401  0.3199  0.669
6.272e+09  -0.5483  0.5424  0.008278  -0.0115  0.000867  -0.008478  0.5455  0.5309
6.274e+09  -0.3817  0.7015  0.03492  0.009877  -0.04576  -0.03187  0.6881  0.3053
6.275e+09  -0.09814  0.781  0.01874  0.01326  0.02932  0.0004764  0.7788  0.06319
6.276e+09  0.1702  0.7711  -0.0004025  0.002818  -0.02647  0.008029  0.7295  -0.2299
6.278e+09  0.3784  0.6823  0.004274  0.02866  0.09912  -0.0164  0.6036  -0.4662
6.279e+09  0.6242  0.466  0.04832  0.003671  -0.03088  -0.07146  0.4112  -0.6374
6.28e+09  0.7612  0.2645  0.004422  -0.01298  -0.02621  -0.01191  0.1368  -0.7227
6.281e+09  0.8096  -0.05354  0.02472  0.01565  -0.04462  0.02855  -0.09925  -0.7568
6.282e+09  0.6774  -0.2903  -0.00175  0.03381  -0.02237  -0.002914  -0.3812  -0.6828
6.284e+09  0.6513  -0.5564  -0.005194  -0.02179  -0.07488  0.03452  -0.5839  -0.5022
6.285e+09  0.3659  -0.6584  -0.01657  0.0137  -0.01495  0.04067  -0.7362  -0.2823
6.286e+09  0.1165  -0.7865  0.001384  -0.01557  0.00654  -0.02801  -0.8005  0.00231
6.288e+09  -0.1691  -0.79  -0.04414  0.04923  0.01091  -0.02634  -0.7707  0.2399
6.289e+09  -0.4476  -0.7114  -0.008239  -0.002779  0.05394  -0.007354  -0.6368  0.5168
6.29e+09  -0.6458  -0.4312  0.01362  -0.007411  0.01175  0.005315  -0.4421  0.7052
6.291e+09  -0.7567  -0.2097  0.0028  -0.00437  0.05716  -0.03552  -0.159  0.7913
6.292e+09  -0.806  0.02624  -0.02112  -0.01795  -0.01158  -0.01931  0.1096  0.7946
6.294e+09  -0.7545  0.3007  0.0101  0.0275  0.003984  0.02729  0.4006  0.7112
6.295e+09  -0.5792  0.5656  0.008867  0.03197  0.003762  -0.03279  0.6248  0.5179
6.296e+09  -0.355  0.7106  -0.03777  0.02325  -0.009664  -0.05021  0.7271  0.3111
6.298e+09  -0.01471  0.8255  -0.006867  0.01853  -0.03506  0.03803  0.819  -0.007771
6.299e+09  0.2208  0.8041  0.03034  0.03392  -0.01223  -0.01111  0.8075  -0.295
6.3e+09  0.4238  0.6572  -0.009237  0.00686  0.0358  0.001923  0.6384  -0.5187
6.301e+09  0.6963  0.4592  0.003194  0.02325  -0.003889  -0.0293  0.4215  -0.7105
6.302e+09  0.7568  0.2082  0.01635  -0.008789  -0.005665  0.02556  0.1488  -0.8013
6.304e+09  0.7675  -0.06537  0.01752  0.01029  -0.0089  0.0236  -0.1426  -0.8428
6.305e+09  0.7144  -0.3249  -0.02148  -0.008884  -0.01496  0.01329  -0.4081  -0.7336
6.306e+09  0.5759  -0.5844  0.001884  0.003341  -0.008218  -0.03355  -0.6393  -0.5361
6.308e+09  0.317  -0.7443  -0.005155  0.01976  -0.05576  -0.007934  -0.8077  -0.3207
6.309e+09  0.06352  -0.8233  0.006759  0.009464  -0.01171  -0.003818  -0.8354  0.01087
6.31e+09  -0.2395  -0.7559  0.001959  0.01795  -0.008026  -0.005115  -0.8034  0.2923
6.311e+09  -0.4719  -0.6966  0.0192  -0.02337  -0.01592  0.03608  -0.6787  0.5405
6.312e+09  -0.6669  -0.4331  0.02971  0.006232  -0.0382  -0.05302  -0.4241  0.7456
6.314e+09  -0.7847  -0.1705  -0.01677  0.01382  -0.006735  -0.01112  -0.1435  0.8517
6.315e+09  -0.7924  0.09289  0.03176  0.01821  -0.005518  -0.01255  0.1415  0.8387
6.316e+09  -0.6745  0.3373  0.0012  0.02597  0.01244  -0.06142  0.4397  0.7372
6.318e+09  -0.5456  0.5956  0.01705  -0.01469  0.009983  -0.02351  0.6926  0.551
6.319e+09  -0.2832  0.7688  -0.02269  -0.01024  0.02455  -0.01126  0.8394  0.3173
6.32e+09  -0.02098  0.8326  0.008531  0.01059  0.007609  -0.0561  0.8696  0.0305
6.321e+09  0.2415  0.7379  -0.0205  -0.009016  0.009654  0.03962  0.8003  -0.3055
6.322e+09  0.5288  0.6188  0.001344  -0.00582  0.001051  0.002654  0.6782  -0.5656
6.324e+09  0.7236  0.3843  -0.03657  0.001492  0.002761  0.01723  0.5048  -0.7594
6.325e+09  0.7946  0.1875  -0.01975  -0.03734  -0.02628  -0.03647  0.1569  -0.901
6.326e+09  0.8158  -0.1493  -0.01069  -0.007345  -0.02016  0.006178  -0.1204  -0.8819
6.328e+09  0.7242  -0.4162  -0.02013  -0.03773  0.01038  0.0145  -0.4168  -0.7968
6.329e+09  0.5412  -0.6377  -0.0005742  -0.01401  0.0007148  -0.03944  -0.6468  -0.6235
6.33e+09  0.2365  -0.7839  0.005952  0.01204  0.03892  0.0009085  -0.8389  -0.325
6.331e+09  -0.03439  -0.7818  -0.01944  -0.009042  -0.0473  0.0372  -0.8831  -0.03101
6.332e+09  -0.3108  -0.7496  0.01852  0.0002035  -0.02611  -0.02237  -0.8612  0.2678
6.334e+09  -0.5472  -0.6008  0.01422  -0.001014  0.008646  0.01833  -0.7244  0.5825
6.335e+09  -0.7292  -0.3375  -0.0005895  -0.001643  0.001163  -0.05031  -0.492  0.7762
6.336e+09  -0.8499  -0.03721  -0.01603  -0.01317  0.07889  -0.02562  -0.2164  0.8854
6.338e+09  -0.8398  0.1823  -0.00519  -0.004387  -0.002025  -0.02395  0.1222  0.897
6.339e+09  -0.669  0.4567  0.007154  0.009082  0.002941  0.0006233  0.4276  0.7929
6.34e+09  -0.4874  0.7078  0.02262  0.01453  -0.01196  -0.02404  0.6559  0.5957
6.341e+09  -0.2621  0.8589  -0.02513  0.01117  0.0008041  0.02314  0.8434  0.3455
6.342e+09  0.09074  0.8475  0.02866  0.01465  0.02564  -0.04811  0.9661  0.05518
6.344e+09  0.367  0.7505  -0.002678  -0.02848  -0.002225  -0.01099  0.8927  -0.2445
6.345e+09  0.6452  0.5254  0.02903  -0.01735  -0.0363  0.01207  0.7411  -0.5894
6.346e+09  0.7613  0.3134  -0.006073  -0.005524  0.006239  0.01065  0.4991  -0.7871
6.348e+09  0.8254  0.005203  0.02622  0.00737  0.003696  -0.02145  0.1879  -0.8813
6.349e+09  0.7997  -0.2598  -0.0001849  0.01439  -0.04064  0.01468  -0.1397  -0.9519
6.35e+09  0.6533  -0.5083  -0.0146  0.00293  0.007867  0.0006267  -0.4289  -0.8291
6.351e+09  0.4603  -0.7109  -0.02561  0.01554  -0.03379  0.004775  -0.6966  -0.655
6.352e+09  0.1651  -0.8516  0.0199  0.005526  -0.02073  -0.01199  -0.8669  -0.3566
6.354e+09  -0.1453  -0.8131  0.02605  -0.00182  -0.008841  0.03355  -0.9212  -0.05493
6.355e+09  -0.4748  -0.7734  -0.01228  -0.01518  -0.02472  -0.04515  -0.8578  0.277
6.356e+09  -0.6985  -0.5075  0.009061  -0.01039  -0.0312  0.04847  -0.756  0.5582
6.358e+09  -0.7945  -0.2189  0.02015  0.004645  -0.00159  0.004214  -0.5524  0.7882
6.359e+09  -0.8666  0.06573  -0.009328  -0.003985  0.02695  0.009536  -0.2686  0.912
6.36e+09  -0.8445  0.3253  -0.009113  -0.006434  0.04202  -0.0131  0.08815  0.9629
6.361e+09  -0.632  0.5929  0.0145  -0.0246  0.01904  -0.02274  0.429  0.8635
6.362e+09  -0.4459  0.7765  0.007145  0.00914  -0.02119  -0.01909  0.6781  0.6663
6.364e+09  -0.1058  0.8433  -0.04461  -0.01637  -0.04861  0.01918  0.8494  0.365
6.365e+09  0.1413  0.8303  0.01015  -0.01151  0.05446  -0.02796  0.9392  0.05915
6.366e+09  0.4721  0.6895  -0.03685  -0.006623  0.04097  -0.02345  0.9387  -0.2568
6.368e+09  0.6994  0.4706  -0.01484  9.046e-05  0.01567  0.003764  0.7867  -0.5501
6.369e+09  0.7835  0.2635  0.008009  0.00158  -0.009761  -0.009235  0.5229  -0.7773
6.37e+09  0.851  -0.09535  0.02155  -0.01059  0.01805  0.01616  0.258  -0.9529
6.371e+09  0.7957  -0.3901  -0.002958  -0.01916  0.0002566  -0.004437  -0.1027  -0.9537
6.372e+09  0.562  -0.5901  0.001464  0.02421  0.01052  -0.05181  -0.3902  -0.8705
6.374e+09  0.354  -0.7773  -0.001083  -8.237e-05  0.002444  0.02741  -0.6645  -0.6645
6.375e+09  0.005563  -0.8964  -0.01131  -0.007524  -0.01046  -0.03284  -0.8853  -0.4516
6.376e+09  -0.2251  -0.8823  0.02618  0.002416  0.08151  -0.0003517  -0.9058  -0.1157
6.378e+09  -0.5341  -0.6567  0.01905  -0.01309  0.01599  0.008021  -0.908  0.2014
6.379e+09  -0.7308  -0.4288  -0.005778  -0.005987  0.008171  -0.0194  -0.7891  0.5277
6.38e+09  -0.8165  -0.1508  0.01618  -0.02845  0.05396  0.008492  -0.5496  0.7706
6.381e+09  -0.8892  0.1624  -0.02077  0.01904  -0.03625  -0.009176  -0.2949  0.9264
6.382e+09  -0.7387  0.4307  0.02387  -0.00671  -0.01304  -0.002342  0.04323  0.9433
6.384e+09  -0.5697  0.6498  0.03357  -0.0006  0.03804  0.003069  0.303  0.8503
6.385e+09  -0.2744  0.787  0.00612  0.001671  0.02408  0.007269  0.6308  0.6699
6.386e+09  0.01471  0.8798  0.03994  -0.04136  0.003129  -0.008443  0.8582  0.4442
6.388e+09  0.3367  0.8281  -0.02162  0.04297  0.008179  0.02843  0.8992  0.1317
6.389e+09  0.5869  0.6042  0.001693  0.01071  0.01505  0.04603  0.8622  -0.227
6.39e+09  0.7294  0.412  -0.005767  -0.007945  -0.03897  -0.02191  0.7879  -0.5424
6.391e+09  0.875  0.1559  -0.04029  -0.01662  0.03715  0.0176  0.5727  -0.7287
6.392e+09  0.846  -0.1781  -0.02854  0.02281  -0.000649  -0.03853  0.2937  -0.8812
6.394e+09  0.7423  -0.4379  -0.005307  0.01516  0.0547  0.01372  -0.006001  -0.9111
6.395e+09  0.5215  -0.6864  -0.0131  -0.04317  -0.05936  -0.009551  -0.3761  -0.8487
6.396e+09  0.2506  -0.8534  0.01172  0.01298  0.008957  -0.02117  -0.5805  -0.7
6.398e+09  -0.04221  -0.8585  0.02188  0.015  0.004113  0.01816  -0.8048  -0.439
6.399e+09  -0.3717  -0.8099  0.04331  0.03328  -0.0113  -0.02823  -0.919  -0.1068
6.4e+09  -0.5722  -0.6313  0.01308  -0.002818  0.03059  0.03136  -0.9264  0.2033
6.401e+09  -0.7441  -0.3532  0.001748  0.01572  -0.01374  0.01446  -0.7617  0.4896
6.402e+09  -0.8053  -0.07727  -0.01607  0.04943  0.001555  -0.01229  -0.5594  0.7947
6.404e+09  -0.8306  0.21  0.0163  0.00261  0.03519  0.06106  -0.3147  0.8739
6.405e+09  -0.732  0.4558  -0.004591  0.006149  -0.009032  0.003609  -0.004958  0.9184
6.406e+09  -0.4892  0.6644  -0.03169  -0.01885  -0.009961  0.01564  0.3284  0.8561
6.408e+09  -0.2298  0.807  0.02933  0.04612  0.01659  -0.03563  0.5692  0.6851
6.409e+09  0.07977  0.7948  0.03891  0.02898  -0.02226  -0.006352  0.7789  0.4908
6.41e+09  0.3866  0.7655  0.03857  0.02184  0.006302  -0.0056  0.8704  0.1386
6.411e+09  0.6179  0.5751  -0.009085  -0.0177  -0.01385  0.02511  0.8556  -0.138
6.412e+09  0.7745  0.3381  0.01507  0.05212  -0.01298  0.01578  0.7552  -0.4039
6.414e+09  0.8736  0.114  -0.005455  -0.00422  -0.006637  -0.02269  0.5647  -0.6298
6.415e+09  0.8175  -0.2303  -0.007531  -0.01815  -0.03569  0.02583  0.31  -0.8192
6.416e+09  0.7048  -0.4991  -0.0108  -0.03102  0.005083  -0.001854  -0.03131  -0.8969
6.418e+09  0.4915  -0.7271  0.0004316  0.009581  0.01072  0.03796  -0.2589  -0.8117
6.419e+09  0.2269  -0.8737  -0.03468  -0.02688  0.006364  -0.01042  -0.514  -0.7115
6.42e+09  -0.07184  -0.8237  -0.05731  0.000737  0.04106  0.01354  -0.7226  -0.5285
6.421e+09  -0.4401  -0.7577  0.0007571  0.02234  0.008472  -0.01969  -0.9111  -0.1821
6.422e+09  -0.6515  -0.5092  0.03882  -0.02775  -0.006775  0.0002292  -0.8873  0.08464
6.424e+09  -0.7827  -0.3463  -0.02596  0.001809  0.0137  0.02011  -0.8063  0.4387
6.425e+09  -0.8489  -0.04161  0.01923  0.03436  0.01941  -0.02906  -0.5564  0.6807
6.426e+09  -0.8302  0.2581  -0.001478  0.0002107  -0.03605  0.02298  -0.3259  0.812
6.428e+09  -0.6261  0.5377  -0.0473  0.007884  0.02566  -0.03869  -0.05381  0.8898
6.429e+09  -0.385  0.7353  0.001829  0.02305  0.03292  -0.02016  0.2441  0.8376
6.43e+09  -0.2192  0.8047  0.00827  0.0316  -0.04225  0.02704  0.4839  0.7115
6.431e+09  0.09912  0.8206  -0.00581  -0.01241  -0.04226  -0.02022  0.733  0.4693
6.432e+09  0.3962  0.7216  0.0145  -0.03754  0.018  0.0006975  0.8124  0.188
6.434e+09  0.6123  0.5293  0.01169  -0.03306  0.02017  0.01122  0.8523  -0.1145
6.435e+09  0.8221  0.3313  0.01175  0.03415  -0.01925  0.02656  0.7711  -0.3634
6.436e+09  0.8475  0.005068  -0.004467  -0.007102  -0.03796  0.01411  0.622  -0.6283
6.438e+09  0.819  -0.3107  -0.00467  -0.01482  -0.01936  -0.01391  0.3721  -0.7944
6.439e+09  0.6947  -0.529  0.004162  -0.04075  0.01496  0.008449  0.07998  -0.8429
6.44e+09  0.4415  -0.7319  -0.0008151  0.001413  -0.0301  0.01295  -0.2374  -0.8014
6.441e+09  0.1664  -0.815  0.006478  -0.02419  -0.05563  -0.01262  -0.4467  -0.7231
6.442e+09  -0.1357  -0.8386  -0.05087  -0.01944  0.02365  0.007365  -0.7043  -0.4942
6.444e+09  -0.3923  -0.7465  0.05003  0.03508  -0.0207  -0.05291  -0.7538  -0.2649
6.445e+09  -0.6045  -0.5079  -0.001619  -0.04589  0.009044  0.0004797  -0.8638  0.09209
6.446e+09  -0.7724  -0.2829  0.02915  0.04342  0.00732  0.001806  -0.699  0.3421
6.448e+09  -0.8432  -0.008237  0.003845  0.004016  -0.04194  0.03827  -0.5805  0.5736
6.449e+09  -0.7715  0.2445  0.006596  -0.02086  0.005054  0.00625  -0.36  0.8186
6.45e+09  -0.6195  0.5022  0.002606  0.005805  -0.01163  0.001382  -0.08838  0.8255
6.451e+09  -0.4077  0.7213  0.02044  -0.002504  -0.005742  -0.02299  0.2018  0.8251
6.452e+09  -0.1109  0.8493  -0.02346  0.02931  0.005643  -0.02584  0.5129  0.6696
6.454e+09  0.1073  0.8509  0.002053  -0.03325  -0.02728  0.04069  0.6453  0.4619
6.455e+09  0.385  0.7582  -0.01034  -0.01656  -0.006059  -0.03186  0.7831  0.2195
6.456e+09  0.6364  0.5364  -0.007805  0.02467  -0.03173  -0.01007  0.8552  -0.05678
6.458e+09  0.778  0.2997  0.005733  -0.06532  -0.005298  0.02035  0.7589  -0.2959
6.459e+09  0.845  0.007995  0.01651  -0.02473  -0.006287  0.02575  0.5892  -0.5737
6.46e+09  0.8076  -0.25  -0.03858  -0.02784  0.02442  -0.003799  0.3486  -0.7174
6.461e+09  0.6925  -0.581  -0.00163  -0.0006637  0.008015  0.05006  0.06249  -0.8335
6.462e+09  0.3744  -0.7052  0.03625  -0.01141  -0.01068  -0.003492  -0.2189  -0.7788
6.464e+09  0.2099  -0.8487  -0.03271  -0.03436  -0.0183  0.006321  -0.4571  -0.6619
6.465e+09  -0.1873  -0.8139  -0.05626  -0.01017  -0.02723  0.03276  -0.6531  -0.408
6.466e+09  -0.4425  -0.7376  0.003571  0.02211  -0.02277  -0.04468  -0.8212  -0.1955
6.468e+09  -0.6405  -0.5217  0.04073  -0.03048  -0.01976  0.01478  -0.8027  0.09485
6.469e+09  -0.8136  -0.3121  0.01161  0.0378  -0.01726  0.01209  -0.7662  0.3052
6.47e+09  -0.8246  0.0143  0.01253  -0.04401  0.02367  -0.01189  -0.5916  0.5692
6.471e+09  -0.8016  0.2886  0.03806  0.01064  0.001989  -0.02446  -0.3386  0.7392
6.472e+09  -0.6581  0.5414  -0.04018  -0.0004047  -0.041  0.02625  -0.0854  0.8042
6.474e+09  -0.3944  0.735  -0.003637  0.005697  0.0112  -0.001914  0.2212  0.7018
6.475e+09  -0.1167  0.8474  -0.01516  0.01405  -0.01905  0.00575  0.4371  0.6314
6.476e+09  0.1649  0.8536  -0.04657  0.02234  -0.006869  0.007605  0.6817  0.4447
6.478e+09  0.4321  0.6997  0.02613  -0.006863  -0.05601  0.05192  0.7779  0.1934
6.479e+09  0.6517  0.5254  0.04557  0.03541  -0.0009972  0.04544  0.7913  -0.09028
6.48e+09  0.8345  0.2962  -0.03964  -0.004969  0.005243  0.00845  0.7743  -0.3703
6.481e+09  0.8276  -0.0189  0.02232  0.0397  -0.008624  0.06537  0.527  -0.5327
6.482e+09  0.7803  -0.3539  0.000799  -0.007986  -0.01381  -0.01419  0.3587  -0.7059
6.484e+09  0.6062  -0.5761  -0.0269  0.0007492  -0.01027  0.0114  0.05851  -0.7433
6.485e+09  0.4325  -0.7201  0.02774  -0.003813  -0.006956  -0.01926  -0.1604  -0.7382
6.486e+09  0.1424  -0.8213  0.01079  -0.02513  -0.008121  -0.02349  -0.4548  -0.6594
6.488e+09  -0.9297  -0.9102  -0.006646  -0.04076  0.08957  -0.7161  -0.6019  -0.444
6.489e+09  -0.4304  -0.7196  -0.02687  0.006771  -0.004917  0.01184  -0.7131  -0.1911
6.49e+09  -0.6634  -0.4849  -0.0186  -0.01204  0.01674  0.0356  -0.7619  0.04812
6.491e+09  -0.8271  -0.2555  -0.008385  0.03626  0.01483  -0.0515  -0.6709  0.3379
6.492e+09  -0.848  0.06732  0.01954  0.009747  -0.02521  0.004117  -0.5188  0.5559
6.494e+09  -0.8909  0.3157  0.01411  -0.03403  0.1125  -0.03743  -0.3129  0.7154
6.495e+09  -0.6364  0.5836  0.0055  -0.0127  -0.002119  0.01103  -0.04436  0.7644
6.496e+09  -0.4369  0.7893  -0.00966  0.00792  0.03785  -0.01509  0.2324  0.7067
6.498e+09  -0.1273  0.8515  0.01739  0.01781  0.00796  0.01823  0.4609  0.6073
6.499e+09  0.1752  0.7989  -0.0007536  0.006883  -0.03089  0.01983  0.6469  0.42
6.5e+09  0.5002  0.7287  -0.00167  0.004776  0.00978  0.01665  0.7759  0.1578
6.501e+09  0.7499  0.5407  -0.008  -0.01924  -0.007119  0.06095  0.7905  -0.1257
6.502e+09  0.8935  0.2585  0.003023  0.01261  0.01794  0.002127  0.6815  -0.3516
6.504e+09  0.9047  -0.07026  0.01135  0.04393  0.03525  -0.01735  0.4958  -0.5667
6.505e+09  0.8559  -0.3587  -0.01121  0.031  -0.0642  -0.01954  0.3021  -0.6922
6.506e+09  0.6224  -0.5693  0.06453  -0.03878  0.04282  0.008717  0.03019  -0.77
6.508e+09  0.4272  -0.8073  -0.004458  0.02233  0.02247  -0.008625  -0.2625  -0.7328
6.509e+09  0.07181  -0.9296  0.007713  -0.01762  0.02804  0.01503  -0.4716  -0.6043
6.51e+09  -0.1967  -0.8595  -0.00828  -0.01582  -0.01244  0.002727  -0.6298  -0.3559
6.511e+09  -0.5149  -0.7191  0.01024  0.005452  0.01417  -0.001545  -0.751  -0.1864
6.512e+09  -0.7062  -0.5285  -0.02507  0.03218  0.0271  -0.0271  -0.7753  0.1394
6.514e+09  -0.8757  -0.2628  0.009362  0.03226  -0.02829  -0.01412  -0.6461  0.3811
6.515e+09  -0.9214  0.06556  -0.02397  0.01465  -0.04344  0.07525  -0.4917  0.5945
6.516e+09  -0.78  0.3968  -0.02372  0.01216  0.0303  -0.01762  -0.2623  0.7395
6.518e+09  -0.5916  0.6853  -0.00273  -3.846e-05  -0.04963  -0.003709  0.008786  0.7688
6.519e+09  -0.3902  0.823  0.022  0.01769  -0.03156  0.02266  0.3026  0.7147
6.52e+09  -0.07555  0.9297  -0.01038  -0.001272  0.008789  0.03893  0.4819  0.5658
6.521e+09  0.2605  0.9052  0.0194  -0.01616  0.01016  -0.05719  0.6652  0.3224
6.522e+09  0.5596  0.7238  -0.03517  0.03032  -0.0388  -0.02512  0.7081  0.09877
6.524e+09  0.7444  0.5097  -0.01262  -0.01117  0.006401  0.02473  0.6779  -0.1637
6.525e+09  0.8986  0.1908  0.01196  -0.02086  0.02453  0.03643  0.5947  -0.3805
6.526e+09  0.942  -0.1139  -0.01421  -0.008973  0.04759  -0.01605  0.4107  -0.5911
6.528e+09  0.8302  -0.4306  0.004156  0.04913  -0.057  -0.03136  0.1557  -0.6796
6.529e+09  0.5847  -0.74  0.01263  -0.006029  -0.01088  0.003824  -0.02654  -0.6853
6.53e+09  0.382  -0.8587  -0.02337  0.01141  0.04016  -0.008782  -0.275  -0.6319
6.531e+09  0.02235  -0.9357  0.02112  0.02158  0.04117  -0.02281  -0.4964  -0.4521
6.532e+09  -0.3198  -0.8382  0.01841  0.0128  -0.008374  -0.04702  -0.5907  -0.2764
6.534e+09  -0.5626  -0.7266  -0.01188  -0.000906  -0.05184  -0.0232  -0.6022  -0.09109
6.535e+09  -0.7832  -0.4751  0.02009  -0.01403  0.005652  -0.008974  -0.6485  0.1089
6.536e+09  -0.8978  -0.1408  -0.03879  0.006649  0.03877  0.002558  -0.5835  0.2951
6.538e+09  -0.9252  0.2054  0.0161  0.009246  0.03864  0.01014  -0.4272  0.475
6.539e+09  -0.7982  0.4658  0.01665  -0.008728  0.01708  -0.02462  -0.3081  0.5966
6.54e+09  -0.5796  0.761  0.002109  -0.003624  -0.03294  0.01903  -0.04573  0.7055
6.541e+09  -0.2923  0.8809  -0.02084  0.03701  0.05646  0.01884  0.1775  0.6688
6.542e+09  0.04496  0.9789  -0.03155  -0.02544  -0.05054  0.03253  0.3971  0.57
6.544e+09  0.3639  0.8371  -0.01035  -0.01027  -0.02749  -0.02114  0.5707  0.3847
6.545e+09  0.6178  0.7131  -0.01569  -0.02943  -0.04301  0.0292  0.7044  0.1686
6.546e+09  0.8198  0.4042  -0.0101  -0.0141  -0.03107  -0.04068  0.7265  -0.03921
6.548e+09  1  0.1152  -0.009152  -0.01043  0.004405  -0.01056  0.6476  -0.362
6.549e+09  0.8871  -0.2492  0.0117  -0.02209  -0.00216  -0.03604  0.5074  -0.5412
6.55e+09  0.7244  -0.5636  -0.00604  0.02236  -0.01269  0.01124  0.2856  -0.6589
