# Hz S RI R 50
6.25e+09  -0.6484  0.4805  0.02539  0.009053  -0.03736  0.00446  0.1537  0.5
6.251e+09  -0.4225  0.6933  0.004719  -0.009432  0.003902  0.004207  0.3669  0.4175
6.252e+09  -0.2593  0.7901  -0.01317  -0.008357  -0.000166  -0.03287  0.5352  0.2532
6.254e+09  0.1167  0.8216  -0.004753  0.02336  -0.01546  0.02533  0.5987  -0.01909
6.255e+09  0.3962  0.7712  0.02281  -0.00676  0.01121  0.02898  0.6074  -0.1925
6.256e+09  0.5864  0.5627  -0.02275  0.02157  0.01054  0.03665  0.4722  -0.4516
6.258e+09  0.7058  0.3073  -0.01454  0.0212  0.01053  -0.05824  0.326  -0.6203
6.259e+09  0.813  0.03315  -0.008  0.001784  0.03208  0.04463  0.06143  -0.6577
6.26e+09  0.7889  -0.1799  0.009812  -0.004686  0.04642  -0.04225  -0.1977  -0.6385
6.261e+09  0.6902  -0.468  0.001264  0.005473  -0.01973  0.0236  -0.4121  -0.5088
6.262e+09  0.4464  -0.6924  -0.01616  3.758e-05  0.02156  0.01915  -0.6122  -0.3584
6.264e+09  0.2043  -0.7754  0.004907  0.01298  0.01698  -0.04343  -0.6796  -0.1085
6.265e+09  -0.04343  -0.7836  -0.03991  0.02605  0.0182  0.06679  -0.691  0.1299
6.266e+09  -0.3738  -0.7401  0.008154  -0.005882  -0.01546  -0.01443  -0.6344  0.3538
6.268e+09  -0.6365  -0.5546  -0.02001  -0.02039  0.01781  -0.01286  -0.4358  0.5785
6.269e+09  -0.7233  -0.292  0.01362  0.02747  0.001902  -3.793e-05  -0.2231  0.7236
6.27e+09  -0.7984  -0.07346  -0.01627  -0.007395  -0.02748  -0.01738  0.04529  0.7611
6.271e+09  -0.8042  0.2233  0.01001  -0.002543  -0.001959  -0.01179  0.2877  0.6779
6.272e+09  -0.6543  0.5231  -0.01817  0.01382  0.006671  -0.02121  0.5518  0.4988
6.274e+09  -0.4527  0.7127  0.007098  -0.006318  -0.006257  0.005461  0.6868  0.2934
6.275e+09  -0.244  0.7579  0.006924  -0.003167  -0.02318  -0.02362  0.7411  0.05015
6.276e+09  0.08437  0.7271  -0.01027  0.01415  0.006904  -0.03263  0.701  -0.2356
6.278e+09  0.3853  0.739  -0.01578  -0.02075  -0.02946  0.00599  0.5914  -0.44
6.279e+09  0.5521  0.5227  0.02142  -0.003777  0.03004  0.0269  0.4471  -0.6449
6.28e+09  0.7812  0.2738  0.0304  0.01385  0.005569  -0.03549  0.1782  -0.7672
6.281e+09  0.7942  0.03377  -0.01137  -0.0184  0.04036  0.03117  -0.09698  -0.7804
6.282e+09  0.7921  -0.2481  -0.0126  0.009608  0.01166  -0.02313  -0.3438  -0.7196
6.284e+09  0.6687  -0.5265  0.009327  0.01555  0.03307  -0.02954  -0.5558  -0.4988
6.285e+09  0.3768  -0.6556  0.001262  -0.01553  0.01063  -0.04651  -0.7335  -0.3001
6.286e+09  0.1717  -0.7866  0.01643  0.02844  -0.02734  -0.02407  -0.7726  -0.02737
6.288e+09  -0.1561  -0.7473  -0.01556  0.03449  -0.03489  -0.05089  -0.7786  0.2494
6.289e+09  -0.4158  -0.6488  0.0007845  -0.01302  -0.03164  0.01764  -0.624  0.5083
6.29e+09  -0.5586  -0.5729  0.02507  -0.001446  0.02232  0.008074  -0.4039  0.687
6.291e+09  -0.7312  -0.2598  -0.01538  0.003358  0.02154  -0.04127  -0.1485  0.791
6.292e+09  -0.8011  -0.002218  0.0248  -0.0009751  -0.009114  -0.03075  0.09067  0.7808
6.294e+09  -0.7935  0.2665  0.02824  -0.01557  0.001241  -0.008379  0.3897  0.7017
6.295e+09  -0.6056  0.488  -0.009625  -0.006273  0.02951  -0.01782  0.6146  0.5389
6.296e+09  -0.3764  0.7162  -0.02597  0.01934  0.01326  -0.02822  0.7567  0.3101
6.298e+09  -0.1638  0.8076  0.0292  -0.00888  -0.006947  0.01181  0.8228  0.01118
6.299e+09  0.1026  0.7711  0.01576  0.001371  0.05688  0.02396  0.7847  -0.276
6.3e+09  0.399  0.6916  -0.0009501  -0.005824  -0.006273  -0.05147  0.6444  -0.5173
6.301e+09  0.6232  0.5184  -0.0001732  0.02784  0.02696  0.01348  0.4427  -0.7364
6.302e+09  0.7507  0.2949  0.004192  0.02779  0.02546  0.004565  0.1346  -0.8163
6.304e+09  0.8132  0.03668  -0.02392  0.001912  -0.03269  -0.02232  -0.1443  -0.8679
6.305e+09  0.7308  -0.301  0.01106  0.01443  -0.02356  0.02876  -0.413  -0.7572
6.306e+09  0.6288  -0.5487  0.002694  -0.002824  -0.01108  -0.0004696  -0.6192  -0.5269
6.308e+09  0.4287  -0.7338  -0.01122  0.006061  0.001151  -0.02047  -0.8295  -0.3227
6.309e+09  0.1581  -0.8492  -0.006468  -0.001864  0.004719  -0.02641  -0.8648  -0.0323
6.31e+09  -0.1385  -0.7751  0.02241  0.02287  0.003316  0.04704  -0.8195  0.2951
6.311e+09  -0.454  -0.702  0.02201  -0.008501  -0.02148  -0.02893  -0.6702  0.5466
6.312e+09  -0.6166  -0.4886  -0.002552  -0.008156  -0.004662  0.0313  -0.4582  0.7337
6.314e+09  -0.7455  -0.2153  -0.003223  -0.008661  0.01297  0.072  -0.1755  0.8606
6.315e+09  -0.7886  0.04274  -0.003899  -0.01442  -0.006817  -0.01296  0.1497  0.882
6.316e+09  -0.7324  0.3393  -0.002971  0.004183  0.01351  0.04545  0.4296  0.7579
6.318e+09  -0.5957  0.5957  -0.01784  0.01158  -0.002266  -0.02636  0.7023  0.5558
6.319e+09  -0.3744  0.7015  0.01855  0.003148  -0.006566  0.04214  0.8194  0.3098
6.32e+09  -0.04549  0.8044  -0.001884  -0.008354  -0.00553  -0.0157  0.8895  -0.006447
6.321e+09  0.2452  0.7612  -0.01856  0.004122  -0.02289  -0.009011  0.8737  -0.2782
6.322e+09  0.4579  0.6733  0.00127  -0.01703  -0.02547  0.02636  0.7265  -0.5437
6.324e+09  0.676  0.429  -0.007614  -0.02813  -0.005374  0.02871  0.4739  -0.7815
6.325e+09  0.7663  0.171  -0.02951  -0.01015  0.003714  0.003075  0.1572  -0.8786
6.326e+09  0.81  -0.03314  -0.003405  0.03335  0.005464  -0.01085  -0.156  -0.8763
6.328e+09  0.7532  -0.3684  -0.01217  -0.0177  -0.0006648  0.03886  -0.4579  -0.8004
6.329e+09  0.5877  -0.5675  -0.002669  0.02969  0.02389  0.03097  -0.6698  -0.579
6.33e+09  0.3556  -0.7554  -0.01011  0.0006066  0.01367  -0.002584  -0.8459  -0.3076
6.331e+09  0.005889  -0.7868  0.02258  0.04567  0.04175  -0.03723  -0.9176  -0.03357
6.332e+09  -0.2404  -0.7438  0.0005638  0.007985  -0.02018  0.007229  -0.8707  0.2592
6.334e+09  -0.4593  -0.6734  -0.01293  0.02063  -0.0003741  0.009044  -0.6996  0.5564
6.335e+09  -0.7166  -0.502  -0.004647  0.0158  -0.01394  -0.005472  -0.4994  0.7632
6.336e+09  -0.8166  -0.178  0.02412  -0.008417  0.02573  0.00938  -0.2392  0.895
6.338e+09  -0.8555  0.1125  -0.009569  0.001536  -0.0006334  0.006206  0.0715  0.9314
6.339e+09  -0.7274  0.4299  -0.02704  0.03311  0.001154  0.01619  0.4051  0.8491
6.34e+09  -0.5347  0.6513  0.02629  -0.01292  -0.009306  -0.04448  0.6904  0.6051
6.341e+09  -0.2862  0.7679  0.03717  0.005478  -0.025  0.02826  0.8496  0.3434
6.342e+09  0.05929  0.8628  -0.01713  -0.03565  -0.003249  -0.04207  0.9125  0.09945
6.344e+09  0.2962  0.7679  -0.04417  -0.02487  -0.02765  -0.02849  0.8873  -0.2901
6.345e+09  0.6143  0.6258  -0.008547  0.01672  0.04328  -0.053  0.8001  -0.5609
6.346e+09  0.7451  0.4106  -0.01931  0.01718  -0.0111  0.03808  0.5458  -0.7864
6.348e+09  0.8369  0.07187  -0.03482  -0.005479  -0.01178  -0.005666  0.2263  -0.9242
6.349e+09  0.8321  -0.1688  0.0005721  -0.007543  -0.008924  -0.03585  -0.1428  -0.868
6.35e+09  0.6901  -0.4293  0.002127  0.01094  0.007171  -0.02715  -0.4122  -0.8153
6.351e+09  0.4821  -0.6845  0.01386  -0.04177  0.01881  0.03861  -0.6732  -0.6286
6.352e+09  0.2533  -0.8066  -0.03456  -0.01855  -0.02779  0.04046  -0.8261  -0.33
6.354e+09  -0.07813  -0.8592  -0.006067  -0.01678  0.003791  -0.02345  -0.9458  -0.07002
6.355e+09  -0.3949  -0.7806  -0.004565  0.01608  -0.0009078  0.06319  -0.9118  0.2693
6.356e+09  -0.6528  -0.5664  -0.02742  0.004996  0.003309  -0.007727  -0.7594  0.5249
6.358e+09  -0.7942  -0.3568  -0.01227  0.001582  0.01324  -0.02106  -0.5286  0.7727
6.359e+09  -0.8616  -0.05448  -0.04403  0.006575  0.01825  0.0008581  -0.2109  0.9108
6.36e+09  -0.848  0.2185  -0.008549  -0.02205  -0.004323  -0.01255  0.08767  0.9414
6.361e+09  -0.6716  0.5057  0.01587  0.001995  -0.03817  -0.0132  0.3705  0.8341
6.362e+09  -0.479  0.7274  0.005903  -0.06006  -0.005914  -0.00859  0.7015  0.6495
6.364e+09  -0.1826  0.8332  -0.02265  0.006573  -0.03415  0.02061  0.8693  0.4129
6.365e+09  0.1305  0.8211  0.02533  -0.02875  0.005417  -0.008358  0.9505  0.08135
6.366e+09  0.4098  0.6907  -0.01038  0.0558  -0.01181  -0.02273  0.9093  -0.2181
6.368e+09  0.6215  0.5539  0.003189  -0.003022  -0.005424  -0.002797  0.7918  -0.5399
6.369e+09  0.8334  0.2448  0.00648  -0.002438  -0.01883  -0.01173  0.5182  -0.7637
6.37e+09  0.8419  0.02109  -0.0011  -0.0443  -0.01523  0.07052  0.2509  -0.9188
6.371e+09  0.7719  -0.3143  -0.0026  0.01558  -0.01377  -0.0158  -0.05556  -0.9582
6.372e+09  0.6266  -0.5974  0.01545  0.0003642  0.003859  -0.03753  -0.3785  -0.8592
6.374e+09  0.4024  -0.7154  0.002889  -0.0025  -0.02783  0.03685  -0.6948  -0.715
6.375e+09  0.1265  -0.8515  -0.001108  -0.01097  -0.0008025  -0.05621  -0.8489  -0.3823
6.376e+09  -0.1695  -0.8707  0.002841  0.0364  -0.006229  -0.006445  -0.9421  -0.07498
6.378e+09  -0.4995  -0.6945  0.001944  -0.02089  0.001391  -0.007499  -0.9281  0.2052
6.379e+09  -0.6848  -0.4816  0.008622  -0.008203  0.03135  0.03391  -0.7938  0.5166
6.38e+09  -0.8703  -0.2268  -0.01661  -0.0001108  -0.02413  0.01636  -0.5622  0.7456
6.381e+09  -0.8489  0.06494  -0.005581  0.02371  0.001044  -0.01076  -0.2858  0.8752
6.382e+09  -0.7493  0.3806  -0.04133  0.0002718  0.003096  -0.02239  0.05739  0.9221
6.384e+09  -0.62  0.6091  0.02083  0.01059  0.03691  -0.006621  0.3676  0.8722
6.385e+09  -0.3349  0.7891  -0.001311  -0.0227  -0.02065  -0.04938  0.6388  0.6375
6.386e+09  -0.108  0.8777  -0.01968  0.02455  0.009801  -0.02769  0.8113  0.3799
6.388e+09  0.2391  0.8544  -0.02903  0.01134  -0.02631  -0.02245  0.9597  0.1369
6.389e+09  0.5301  0.7097  0.01534  -0.01096  0.003334  0.01098  0.848  -0.2023
6.39e+09  0.7247  0.5051  0.02383  0.007379  -0.01118  0.02145  0.768  -0.5013
6.391e+09  0.8098  0.2214  -0.04121  0.01234  -0.01343  0.0116  0.5449  -0.6935
6.392e+09  0.8971  -0.113  0.002689  0.01847  -0.0402  0.003908  0.2769  -0.8649
6.394e+09  0.7082  -0.3902  -0.05168  -0.03121  0.01447  0.0239  0.005621  -0.9174
6.395e+09  0.5502  -0.6654  0.01986  -4.681e-05  -0.01087  -0.02465  -0.3316  -0.8645
6.396e+09  0.3419  -0.776  -0.04239  0.01505  -0.003611  -0.0112  -0.6118  -0.6921
6.398e+09  0.008973  -0.8897  -0.02407  0.05318  0.008669  -0.0003759  -0.7835  -0.4834
6.399e+09  -0.2619  -0.7811  -7.474e-05  -0.001848  -0.007452  0.01803  -0.8926  -0.1453
6.4e+09  -0.5316  -0.7055  -0.003185  0.02489  0.006627  0.03433  -0.9327  0.1877
6.401e+09  -0.7248  -0.4243  0.01838  -0.05866  0.01439  0.06002  -0.8155  0.4729
6.402e+09  -0.8531  -0.1753  -0.01119  -0.00307  -0.0275  -0.02369  -0.5867  0.7279
6.404e+09  -0.8383  0.1258  0.003645  -0.05766  -0.003393  0.03235  -0.3471  0.8946
6.405e+09  -0.7472  0.4437  -0.02619  0.02903  -0.01056  0.01601  -0.008099  0.8849
6.406e+09  -0.6115  0.6221  -0.02143  -0.03391  -0.01067  0.03051  0.2879  0.8617
6.408e+09  -0.2531  0.7929  -0.007754  0.00095  -0.007215  -0.03899  0.6054  0.6801
6.409e+09  0.03941  0.8324  0.0293  -0.00905  0.009361  -0.004921  0.8092  0.4828
6.41e+09  0.2747  0.786  -0.002705  -0.05629  -0.0002255  0.01691  0.8925  0.1921
6.411e+09  0.5199  0.6088  -0.02462  -0.006299  0.0003934  -0.04344  0.9169  -0.1322
6.412e+09  0.7598  0.4213  0.01277  0.02636  0.03249  0.02167  0.7941  -0.4259
6.414e+09  0.8481  0.1229  0.008053  0.03096  0.02542  -0.02846  0.5638  -0.675
6.415e+09  0.8783  -0.2063  0.004457  -0.01274  0.03282  0.03274  0.3448  -0.869
6.416e+09  0.7155  -0.4342  -0.008529  -0.008424  0.000872  -0.0192  0.02483  -0.9024
6.418e+09  0.5377  -0.6691  0.001482  0.03689  0.006503  -0.01378  -0.2332  -0.8338
6.419e+09  0.2575  -0.8102  -0.003926  -0.02264  -0.04428  0.03848  -0.5096  -0.7057
6.42e+09  -0.02393  -0.8426  0.03655  -0.006293  0.005993  -0.04863  -0.7435  -0.4806
6.421e+09  -0.3585  -0.7358  -0.03934  -0.003914  0.01781  0.04021  -0.8492  -0.2443
6.422e+09  -0.6099  -0.6064  0.007416  0.008757  -0.02746  -0.003619  -0.9086  0.0915
6.424e+09  -0.7477  -0.3406  -0.001249  0.006819  -0.002179  -0.003001  -0.8067  0.4344
6.425e+09  -0.7381  -0.07995  0.04055  0.01638  -0.008405  0.02402  -0.6192  0.673
6.426e+09  -0.8226  0.2369  0.01604  0.05833  0.00876  -0.02064  -0.3368  0.7958
6.428e+09  -0.7279  0.4825  -0.04133  -0.00054  -0.02612  -0.01019  -0.03926  0.8473
6.429e+09  -0.4801  0.6898  -0.01744  -0.008981  0.01436  -0.04652  0.2428  0.8137
6.43e+09  -0.26  0.7955  0.00605  -0.009734  -0.008305  0.02933  0.536  0.6723
6.431e+09  0.04018  0.8059  0.01932  0.02841  -0.003504  0.03923  0.7306  0.4931
6.432e+09  0.3813  0.7667  -0.007903  0.01003  -0.01878  0.0369  0.8503  0.1885
6.434e+09  0.5825  0.609  0.01738  -0.0001709  -0.0176  0.00718  0.8461  -0.0891
6.435e+09  0.8037  0.3261  -0.005956  0.01233  0.01156  0.007135  0.7822  -0.4006
6.436e+09  0.8676  0.06234  -0.031  -0.0326  0.02862  0.006997  0.6076  -0.6365
6.438e+09  0.8581  -0.2126  0.01255  -0.03285  0.007965  0.01829  0.352  -0.7794
6.439e+09  0.6805  -0.4557  -0.009118  0.0213  -0.02734  -0.06886  0.08011  -0.8499
6.44e+09  0.4832  -0.6781  -0.01099  -0.01062  0.01205  -0.01221  -0.2186  -0.814
6.441e+09  0.1802  -0.8425  0.03308  -0.003061  -0.07882  0.001422  -0.524  -0.672
6.442e+09  -0.09092  -0.8396  0.01508  0.0063  -0.01195  -0.0001951  -0.6993  -0.4576
6.444e+09  -0.358  -0.7702  0.01732  -0.02029  0.0264  0.01791  -0.8186  -0.2231
6.445e+09  -0.6153  -0.6244  0.004753  -0.007358  -0.01011  -0.03738  -0.8266  0.04475
6.446e+09  -0.8247  -0.3219  0.03707  -0.01096  0.01313  0.03519  -0.753  0.37
6.448e+09  -0.854  -0.0109  0.04397  0.02951  -0.001273  0.02321  -0.6152  0.6163
6.449e+09  -0.8113  0.2544  0.004004  0.01375  -0.05001  0.01244  -0.387  0.7093
6.45e+09  -0.7181  0.5151  0.01882  0.002064  -0.014  -0.005909  -0.08494  0.8173
6.451e+09  -0.4732  0.6963  -0.04917  0.04707  0.03904  0.02531  0.1674  0.7975
6.452e+09  -0.2032  0.7868  -0.03113  0.003435  0.007054  0.00537  0.4916  0.6649
6.454e+09  0.1007  0.8415  -0.004198  0.02543  -0.00761  0.0475  0.6802  0.4892
6.455e+09  0.3819  0.7789  -0.02152  -0.04367  -0.06918  -0.009201  0.8129  0.2281
6.456e+09  0.6127  0.5572  -0.002148  0.01028  0.0184  -0.05257  0.8462  -0.1014
6.458e+09  0.7863  0.3352  0.004154  0.002788  -0.008863  -0.01659  0.7155  -0.3633
6.459e+09  0.7819  0.06124  -0.003641  0.01723  0.01464  -0.01366  0.5961  -0.5939
6.46e+09  0.8118  -0.3203  -0.01395  0.02371  0.02304  0.004856  0.3287  -0.7311
6.461e+09  0.6826  -0.4652  0.00448  0.01888  0.04025  0.002305  0.04618  -0.8247
6.462e+09  0.4442  -0.6832  -0.0452  0.01378  0.05276  -0.05456  -0.2514  -0.8536
6.464e+09  0.2014  -0.8022  0.007373  0.02091  -0.01663  0.003403  -0.4826  -0.6817
6.465e+09  -0.1216  -0.9018  0.03058  -0.01614  -0.02977  -0.005545  -0.6558  -0.4749
6.466e+09  -0.3891  -0.7856  -0.01455  0.004801  0.01236  0.01256  -0.7981  -0.2081
6.468e+09  -0.6312  -0.5893  -0.03931  -0.04453  0.002436  0.02068  -0.7966  0.05205
6.469e+09  -0.7898  -0.3212  0.01034  -0.03448  0.03745  0.05564  -0.7206  0.3502
6.47e+09  -0.8851  -0.03449  0.003772  0.02  -0.01575  -0.04432  -0.5633  0.5471
6.471e+09  -0.8151  0.2359  -0.01889  -0.009273  0.01323  0.05167  -0.3185  0.703
6.472e+09  -0.6974  0.5424  0.01873  -0.04286  0.01233  0.02094  -0.04669  0.7778
6.474e+09  -0.4582  0.736  0.01121  -0.0007433  -0.02758  0.0269  0.2311  0.7453
6.475e+09  -0.1768  0.8485  -0.001849  0.004578  -0.01629  0.02364  0.4504  0.6481
6.476e+09  0.1074  0.8265  0.04182  -0.007149  0.004376  0.02245  0.6158  0.4211
6.478e+09  0.3991  0.7534  0.02715  0.003886  -0.02026  0.04169  0.7415  0.153
6.479e+09  0.641  0.5984  0.03458  0.003435  -0.03255  0.04601  0.7813  -0.05687
6.48e+09  0.8198  0.2717  0.02549  -0.004611  0.005242  -0.03322  0.7466  -0.2933
6.481e+09  0.8272  -0.007432  0.02056  -0.05924  0.04769  -0.06687  0.5728  -0.5451
6.482e+09  0.8763  -0.2831  0.03291  0.01036  0.01684  0.01186  0.3477  -0.7219
6.484e+09  0.6608  -0.5275  0.01005  -0.02662  0.02715  -0.06006  0.08586  -0.7961
6.485e+09  0.4304  -0.7349  0.006265  -0.04209  0.00881  0.0393  -0.1883  -0.6936
6.486e+09  0.1777  -0.8002  -0.01198  0.01464  0.02225  0.0004494  -0.4493  -0.5937
6.488e+09  -0.6968  -1.317  -0.001869  0.003892  0.3315  -0.6434  -0.6203  -0.414
6.489e+09  -0.395  -0.7857  0.02272  0.007903  -0.0009463  0.03826  -0.7232  -0.1757
6.49e+09  -0.6185  -0.5808  -0.01688  -0.01902  0.02367  0.002185  -0.7526  0.07001
6.491e+09  -0.8196  -0.3228  0.03561  0.02318  0.04099  0.009829  -0.6599  0.3721
6.492e+09  -0.8913  -0.03604  -0.01821  -0.01764  -0.0137  0.00908  -0.5559  0.5514
6.494e+09  -0.878  0.3421  0.02381  -0.007583  0.1628  0.003851  -0.2837  0.7016
6.495e+09  -0.6882  0.5515  -0.02948  0.0004252  0.02526  0.05663  -0.08219  0.783
6.496e+09  -0.4506  0.7414  -0.01287  0.00201  -0.007005  0.01077  0.1842  0.7744
6.498e+09  -0.1988  0.8209  -0.0262  -0.006597  -0.008997  0.00268  0.4614  0.5965
6.499e+09  0.1919  0.8997  -0.04489  0.01493  0.01145  0.01756  0.6698  0.4086
6.5e+09  0.3997  0.763  0.008559  0.02495  0.01252  0.03497  0.7452  0.1657
6.501e+09  0.6538  0.5264  -0.06655  0.04028  -0.03378  -0.005763  0.7313  -0.09729
6.502e+09  0.7681  0.3092  0.02425  0.01907  0.03081  0.006366  0.6727  -0.3512
6.504e+09  0.9001  -0.009514  -0.04697  0.01202  -0.04681  0.0009677  0.4586  -0.5859
6.505e+09  0.8922  -0.2483  -0.02684  -0.003216  -0.007635  0.01374  0.2742  -0.7218
6.506e+09  0.6481  -0.5872  -0.0178  0.03055  0.0159  -0.04741  0.01426  -0.7596
6.508e+09  0.4444  -0.6908  -0.005053  -0.003825  0.07149  0.03998  -0.2287  -0.7104
6.509e+09  0.1762  -0.8854  0.008556  -0.04126  0.01559  0.04794  -0.4513  -0.6132
6.51e+09  -0.1709  -0.9152  -0.01274  -0.006837  0.01691  -0.003732  -0.6309  -0.3696
6.511e+09  -0.4458  -0.7581  0.02446  -0.03027  -0.03373  0.02177  -0.8031  -0.1092
6.512e+09  -0.6675  -0.5976  -0.04357  0.04047  -0.0001867  0.01622  -0.7361  0.08631
6.514e+09  -0.8181  -0.2548  0.007878  0.02264  0.0004022  -0.04358  -0.6432  0.3733
6.515e+09  -0.8992  -0.01857  -0.02931  -0.01334  -0.01209  0.01853  -0.4912  0.5659
6.516e+09  -0.7953  0.3171  -0.02061  -0.01471  0.009705  -0.04531  -0.2342  0.6869
6.518e+09  -0.6749  0.624  0.02244  -0.006343  -0.004725  0.04122  0.02087  0.7475
6.519e+09  -0.4611  0.8048  -0.02158  -0.00607  0.03423  -0.0213  0.2867  0.6791
6.52e+09  -0.1315  0.8875  -0.01221  -0.01159  -0.02105  0.006747  0.4927  0.544
6.521e+09  0.2394  0.8778  -0.01509  -0.01659  -0.0008279  -0.09174  0.679  0.3428
6.522e+09  0.4699  0.7467  0.01768  -0.004466  -0.01254  -0.05702  0.7587  0.07467
6.524e+09  0.7204  0.5152  0.005781  0.02158  0.003995  -0.02357  0.7172  -0.144
6.525e+09  0.8517  0.2803  -0.01438  -0.006216  0.004496  -0.01796  0.6144  -0.3543
6.526e+09  0.862  -0.05803  -0.01393  0.001235  -0.04073  -0.02145  0.422  -0.5896
6.528e+09  0.8406  -0.4209  0.05077  -0.01432  0.01003  0.003469  0.1694  -0.7144
6.529e+09  0.6809  -0.6909  -0.01981  -0.02017  -0.01376  0.05944  -0.03014  -0.7393
6.53e+09  0.4143  -0.8707  -0.002751  -0.01285  -0.01844  0.008419  -0.2551  -0.6318
6.531e+09  0.07633  -0.9151  0.003833  0.03431  0.00174  0.02682  -0.4838  -0.4561
6.532e+09  -0.277  -0.8896  0.002662  0.007478  0.005243  0.01366  -0.5733  -0.2903
6.534e+09  -0.5159  -0.7716  -0.008739  -0.001615  -0.07065  -0.03429  -0.6304  -0.08226
6.535e+09  -0.7602  -0.5135  0.003431  0.03571  0.003156  -0.009792  -0.6285  0.1044
6.536e+09  -0.9343  -0.2106  -0.03156  -0.009109  0.0282  0.04738  -0.5505  0.3205
6.538e+09  -0.874  0.07936  -0.02533  -0.01499  -0.000309  0.006387  -0.4556  0.484
6.539e+09  -0.8304  0.4074  -0.008902  0.003189  -0.004834  -0.001316  -0.2838  0.6095
6.54e+09  -0.6261  0.6597  0.03592  -0.004104  0.01529  -0.02347  -0.02024  0.7014
6.541e+09  -0.3864  0.8615  0.06151  0.02185  -0.02634  0.005156  0.1738  0.6438
6.542e+09  0.005185  0.9974  0.01816  0.00127  -0.00134  -0.00202  0.3929  0.5855
6.544e+09  0.2797  0.8673  0.03459  0.03053  0.005695  0.01461  0.608  0.4057
6.545e+09  0.5821  0.7112  0.02443  -0.04172  -0.01758  -0.007978  0.6975  0.145
6.546e+09  0.8488  0.4726  0.001768  -0.009128  -0.01579  0.01444  0.7478  -0.07028
6.548e+09  0.9798  0.148  -0.03705  -0.01622  0.02096  -0.002083  0.6444  -0.3106
6.549e+09  0.9714  -0.1617  -0.01659  -0.03678  -0.02349  -0.04237  0.5093  -0.5208
