# Hz S RI R 50
6.25e+09  -0.3513  0.7517  0.01322  0.004118  -0.03041  0.002095  0.18  0.5221
6.251e+09  -0.04639  0.8591  -0.01315  0.005406  -0.009173  -0.0244  0.3468  0.4165
6.252e+09  0.1623  0.8183  -0.008824  -0.01187  0.007312  0.0207  0.5366  0.2445
6.254e+09  0.5016  0.6551  -0.03389  -0.004824  -0.005073  0.03556  0.6315  -0.005864
6.255e+09  0.6582  0.4889  -0.02143  0.009025  0.01912  -0.04054  0.5707  -0.2237
6.256e+09  0.8382  0.2253  0.03006  -0.02926  -0.00533  0.0267  0.5048  -0.431
6.258e+09  0.8167  -0.07549  0.02453  -0.03994  0.004799  -0.02793  0.2608  -0.5759
6.259e+09  0.7531  -0.2989  0.03284  0.03196  0.02075  -0.01228  0.02872  -0.6987
6.26e+09  0.5429  -0.5953  0.004898  0.006812  -0.04187  -0.00317  -0.2489  -0.6379
6.261e+09  0.2971  -0.7055  0.009956  -0.0123  -0.03519  0.0008877  -0.4326  -0.5341
6.262e+09  0.05592  -0.8432  -0.01263  -0.006846  0.002728  0.008455  -0.6132  -0.3595
6.264e+09  -0.2513  -0.7646  0.002234  -0.0003063  0.03007  -0.002949  -0.6997  -0.1174
6.265e+09  -0.4596  -0.612  0.03036  0.0007165  -0.00234  0.00152  -0.696  0.1402
6.266e+09  -0.6497  -0.469  -0.01364  -0.02531  0.03427  0.01741  -0.5871  0.4236
6.268e+09  -0.7838  -0.1998  -0.0403  -0.007278  0.004865  0.02307  -0.4452  0.612
6.269e+09  -0.7932  0.05878  -0.01902  0.01839  0.01492  0.002171  -0.2262  0.7032
6.27e+09  -0.6695  0.3487  -0.005005  0.01689  0.01988  -0.06971  0.03581  0.7237
6.271e+09  -0.6201  0.6139  0.01905  0.0004818  -0.02626  0.005209  0.3185  0.6725
6.272e+09  -0.3194  0.716  -0.01176  -0.0377  0.03511  0.03916  0.5558  0.5131
6.274e+09  -0.04043  0.8171  -0.000125  -0.006682  0.03029  0.03614  0.6883  0.2861
6.275e+09  0.1736  0.7862  0.03099  -0.01132  -0.04009  -0.001228  0.7551  0.0403
6.276e+09  0.4806  0.6643  0.005561  -0.01693  -0.04234  -0.02769  0.7607  -0.228
6.278e+09  0.7315  0.4486  -0.003314  0.01332  -0.01951  -0.02758  0.5823  -0.4478
6.279e+09  0.7266  0.1423  0.0002219  -0.01663  0.03014  -0.01576  0.4102  -0.6549
6.28e+09  0.8587  -0.1039  -0.02265  0.009247  -0.03454  -0.01564  0.1467  -0.7405
6.281e+09  0.686  -0.3611  0.001833  0.01124  -0.01172  -0.04521  -0.1269  -0.7728
6.282e+09  0.5509  -0.6143  0.00219  0.01892  -0.03153  -0.05472  -0.3706  -0.6667
6.284e+09  0.3167  -0.7314  0.01407  0.009072  -0.03255  0.0007857  -0.5657  -0.5364
6.285e+09  0.04105  -0.7986  -0.007714  0.004661  -0.02935  0.02284  -0.7686  -0.299
6.286e+09  -0.233  -0.7837  -0.005758  0.0103  0.02965  0.03196  -0.7867  0.0007758
6.288e+09  -0.4936  -0.6019  -0.002892  8.241e-05  0.04199  0.0217  -0.774  0.2402
6.289e+09  -0.7098  -0.3714  0.0103  0.003915  0.00587  -0.01448  -0.5986  0.4851
6.29e+09  -0.762  -0.1559  0.0004413  0.01995  -0.01678  -0.01746  -0.4008  0.7051
6.291e+09  -0.8089  0.1174  0.005889  0.0006153  -0.0003718  -0.02794  -0.1929  0.7831
6.292e+09  -0.7019  0.3821  -0.03194  0.0129  0.02482  -0.01252  0.09269  0.7837
6.294e+09  -0.5372  0.5954  0.02658  -0.00577  0.02377  0.02816  0.3655  0.708
6.295e+09  -0.2856  0.7457  0.01063  -0.009087  0.03703  -0.0506  0.6249  0.5171
6.296e+09  0.0001258  0.8563  0.00969  -0.01566  0.02473  0.006782  0.7797  0.2688
6.298e+09  0.1988  0.7577  -0.002288  0.01943  -0.02157  0.01207  0.8145  0.008753
6.299e+09  0.5323  0.6302  0.004249  -0.02692  -0.009436  0.05681  0.7921  -0.2737
6.3e+09  0.7161  0.3314  0.007023  0.006033  0.05899  0.01229  0.6609  -0.5188
6.301e+09  0.814  0.09094  0.002487  0.006182  -0.03079  0.02768  0.4411  -0.7197
6.302e+09  0.8192  -0.1373  -0.003116  -0.03055  -0.03211  -0.04586  0.172  -0.8263
6.304e+09  0.7043  -0.4357  0.01275  0.01153  0.02937  -0.008083  -0.1198  -0.8301
6.305e+09  0.4641  -0.6181  0.005303  0.01014  -0.00925  0.03463  -0.4332  -0.7254
6.306e+09  0.2227  -0.818  0.0079  -0.002782  -0.00848  -0.01344  -0.6312  -0.5425
6.308e+09  -0.03897  -0.7967  0.02156  -0.006794  0.0179  0.0181  -0.7873  -0.2975
6.309e+09  -0.2919  -0.7456  -0.0032  -0.007185  -0.02535  -0.003597  -0.8675  0.01155
6.31e+09  -0.5669  -0.5411  0.02774  0.02162  -0.07511  0.001326  -0.8248  0.2744
6.311e+09  -0.7366  -0.3411  -0.02045  -0.0236  0.0184  0.04335  -0.6673  0.5541
6.312e+09  -0.8206  -0.09744  0.005619  4.059e-05  -0.01229  -0.04023  -0.4407  0.7426
6.314e+09  -0.7999  0.2086  0.01687  0.0002439  0.0004274  0.01057  -0.1727  0.8579
6.315e+09  -0.6814  0.4405  -0.02075  -0.004485  0.01718  0.01241  0.1608  0.8803
6.316e+09  -0.4945  0.6477  -0.02256  -0.003108  0.0532  -0.0139  0.4779  0.7755
6.318e+09  -0.2024  0.7858  -0.01528  -0.01022  -0.007065  0.01567  0.6684  0.6084
6.319e+09  0.09138  0.8507  0.02115  0.0172  -0.01341  0.05565  0.8388  0.3026
6.32e+09  0.371  0.7384  0.01995  -0.01283  -0.02275  -0.001399  0.8893  0.03017
6.321e+09  0.5948  0.5373  -0.009779  0.01147  0.0691  0.08181  0.8374  -0.2766
6.322e+09  0.7721  0.2895  -0.01274  0.01162  -0.01167  0.04567  0.6671  -0.5467
6.324e+09  0.8378  0.0522  -0.03515  -0.008716  0.03216  0.01546  0.4616  -0.829
6.325e+09  0.7998  -0.2341  -0.009899  -0.03295  -0.05743  -0.0387  0.1567  -0.879
6.326e+09  0.6683  -0.4787  0.01948  -0.004472  0.03243  -0.002738  -0.1103  -0.8781
6.328e+09  0.4634  -0.7242  -0.01891  -0.0396  -0.008799  0.016  -0.4794  -0.8027
6.329e+09  0.157  -0.8335  -0.01592  0.001713  -0.009835  0.005892  -0.6809  -0.6279
6.33e+09  -0.1269  -0.8021  0.008642  -0.002895  -0.016  -0.02272  -0.8304  -0.3453
6.331e+09  -0.3888  -0.7623  -0.01655  0.007582  -0.02637  -0.0229  -0.907  -0.008205
6.332e+09  -0.6318  -0.606  0.02293  -0.01584  0.01319  -0.01516  -0.8783  0.3026
6.334e+09  -0.7947  -0.3232  0.01854  -0.007375  0.02576  0.002184  -0.7228  0.549
6.335e+09  -0.893  0.009272  0.01981  -0.03974  -0.0003062  0.02768  -0.4957  0.768
6.336e+09  -0.7975  0.2607  -0.03211  0.004046  0.02946  -0.03077  -0.2322  0.8856
6.338e+09  -0.6508  0.5324  0.004169  -0.02573  0.08797  0.02096  0.1284  0.8866
6.339e+09  -0.4212  0.7223  -0.02436  -0.01148  -0.004  0.02245  0.4171  0.8296
6.34e+09  -0.1074  0.8465  0.005857  0.007557  -0.02768  -0.06134  0.6548  0.6652
6.341e+09  0.1068  0.8756  0.01391  0.0104  0.0471  0.05352  0.8644  0.3618
6.342e+09  0.464  0.6968  0.01557  0.02917  -0.00569  -0.01046  0.9301  0.03493
6.344e+09  0.6711  0.5414  0.008655  -0.03374  -0.02917  0.0009646  0.9078  -0.253
6.345e+09  0.8087  0.2439  0.007911  0.01193  0.01164  -0.01832  0.7444  -0.5675
6.346e+09  0.8249  -0.07243  0.005747  0.03157  0.0192  0.0002849  0.4844  -0.7794
6.348e+09  0.7906  -0.351  0.01591  0.01124  -0.0277  0.02625  0.2204  -0.9175
6.349e+09  0.6711  -0.5817  -0.03015  -0.01543  -0.03324  0.03356  -0.1083  -0.8984
6.35e+09  0.3541  -0.744  0.009025  -0.001499  0.03312  0.0237  -0.4059  -0.851
6.351e+09  0.1009  -0.8352  -0.008387  -0.0001924  0.02371  0.01178  -0.6981  -0.6657
6.352e+09  -0.1963  -0.8217  0.02977  0.02011  -0.04441  0.04432  -0.8768  -0.3466
6.354e+09  -0.4745  -0.7129  -0.006551  -0.01224  -0.02909  -0.03218  -0.926  -0.05782
6.355e+09  -0.6995  -0.4692  0.04932  0.02033  -0.02938  0.03919  -0.8898  0.2341
6.356e+09  -0.8234  -0.2  -0.02904  -0.01793  0.04205  0.006981  -0.7269  0.5622
6.358e+09  -0.8588  0.05881  -0.01884  0.02254  0.003695  0.05662  -0.566  0.7506
6.359e+09  -0.8002  0.4033  0.02071  -0.01312  -0.003028  -0.002999  -0.261  0.9139
6.36e+09  -0.5591  0.6728  0.013  0.006407  0.02065  -0.0008907  0.09812  0.9176
6.361e+09  -0.3243  0.7988  0.002429  0.01208  -0.03143  -0.01205  0.4381  0.8488
6.362e+09  -0.02282  0.91  -0.007523  0.03018  -0.007384  0.0356  0.685  0.6951
6.364e+09  0.2623  0.8273  -0.01293  -0.03626  -0.05454  -0.01439  0.8551  0.365
6.365e+09  0.56  0.6652  -0.041  -0.006031  0.00984  -0.0098  0.9648  0.09704
6.366e+09  0.7268  0.437  -0.01247  -0.04365  0.03169  -0.02357  0.9404  -0.2748
6.368e+09  0.8874  0.1731  0.011  0.02324  0.001021  -0.05553  0.7427  -0.5213
6.369e+09  0.8532  -0.132  -0.01539  0.02638  0.02317  0.03827  0.5193  -0.7741
6.37e+09  0.7852  -0.4185  0.006338  0.006248  0.04005  -0.01025  0.2615  -0.9167
6.371e+09  0.5384  -0.6785  0.02981  -0.01542  0.01331  0.02231  -0.06908  -0.9747
6.372e+09  0.2596  -0.8075  -0.05342  -0.03392  -0.01406  0.02074  -0.3992  -0.8962
6.374e+09  -0.01043  -0.8634  0.008953  -0.02313  -0.01771  -0.001996  -0.6583  -0.661
6.375e+09  -0.3084  -0.8004  0.01026  -0.006874  0.02412  0.03824  -0.888  -0.4035
6.376e+09  -0.5379  -0.6341  0.02918  0.01952  0.01467  -0.01954  -0.9477  -0.0935
6.378e+09  -0.7293  -0.4182  -0.01729  -0.0009  -0.01725  0.03238  -0.8898  0.2445
6.379e+09  -0.8585  -0.09785  0.009404  0.01278  -0.04516  -0.04181  -0.7618  0.5448
6.38e+09  -0.8553  0.161  -0.002346  0.02806  0.02713  0.01175  -0.545  0.7808
6.381e+09  -0.7096  0.4953  -0.009036  -0.02415  0.05617  0.04306  -0.2965  0.9039
6.382e+09  -0.5175  0.6963  -0.01872  0.03863  0.01388  0.003974  0.06895  0.9617
6.384e+09  -0.2125  0.8429  0.01748  -0.006601  -0.01178  0.03819  0.41  0.8614
6.385e+09  0.0633  0.8364  0.01692  -0.00641  -0.03641  -0.04609  0.6497  0.6898
6.386e+09  0.3468  0.7935  0.01829  -0.06457  0.009913  -0.01367  0.8535  0.4303
6.388e+09  0.619  0.6153  -0.01079  0.01421  0.01429  -0.0224  0.9357  0.1242
6.389e+09  0.7607  0.3704  0.007884  -0.03523  0.02687  -0.0135  0.938  -0.2189
6.39e+09  0.8563  0.0905  0.001059  0.009095  -0.006569  -0.03776  0.812  -0.4723
6.391e+09  0.8279  -0.1864  -0.03091  0.02806  0.01209  0.01668  0.5498  -0.7467
6.392e+09  0.6838  -0.5064  0.01088  0.02647  -0.02565  0.01942  0.2966  -0.8608
6.394e+09  0.5038  -0.661  0.023  0.04493  -0.002224  -0.03534  -0.0595  -0.9088
6.395e+09  0.2068  -0.7776  -0.01876  -0.01316  -0.05269  -0.01339  -0.3726  -0.8597
6.396e+09  -0.09344  -0.8326  -0.01286  0.01313  0.0302  0.009758  -0.5973  -0.6333
6.398e+09  -0.4043  -0.8236  0.003563  -0.01251  -0.01908  -0.02507  -0.8196  -0.4281
6.399e+09  -0.6258  -0.6359  -0.009445  -0.0162  -0.02291  -0.008221  -0.9148  -0.1313
6.4e+09  -0.797  -0.3541  0.01866  -0.01398  0.00969  -0.04338  -0.8446  0.1758
6.401e+09  -0.8292  -0.08998  0.003846  -0.03029  -0.01614  -0.03237  -0.8038  0.4834
6.402e+09  -0.799  0.247  0.02334  0.04088  -0.03676  0.001779  -0.604  0.7193
6.404e+09  -0.6751  0.5009  0.06007  0.01068  -0.005686  -0.02483  -0.3371  0.8688
6.405e+09  -0.4516  0.7084  -0.01101  0.0147  0.004153  -3.776e-05  -0.01013  0.9138
6.406e+09  -0.2098  0.8186  -0.03434  0.006446  0.01261  -0.01858  0.304  0.8241
6.408e+09  0.1396  0.8359  0.0157  0.009481  -0.008016  -0.01845  0.5848  0.7203
6.409e+09  0.3863  0.7541  0.02019  -0.02123  0.01928  0.014  0.795  0.49
6.41e+09  0.6542  0.5906  0.0127  -0.04503  -0.006933  0.02649  0.9259  0.1881
6.411e+09  0.7265  0.3157  0.02912  -0.0007083  0.006306  0.03092  0.8598  -0.1847
6.412e+09  0.8248  0.04491  0.006314  -0.003473  -0.0285  0.00702  0.7921  -0.4574
6.414e+09  0.8362  -0.2381  -0.01245  -0.05905  0.03626  0.02319  0.6244  -0.6704
6.415e+09  0.7154  -0.5608  0.0513  -0.004953  0.01846  -0.03467  0.3314  -0.7925
6.416e+09  0.4397  -0.7503  -0.004638  0.03814  -0.02255  0.01004  0.05179  -0.9067
6.418e+09  0.198  -0.8441  0.006272  0.01071  0.03203  0.01598  -0.2341  -0.8499
6.419e+09  -0.0958  -0.8295  -0.01449  -0.04096  -0.03681  -0.01643  -0.5045  -0.7188
6.42e+09  -0.3901  -0.7488  0.003395  -0.01394  0.009774  -0.02074  -0.7813  -0.5036
6.421e+09  -0.6504  -0.5853  -0.002553  -0.02163  -0.02336  -0.007934  -0.9097  -0.2052
6.422e+09  -0.8058  -0.315  -0.0573  -0.02632  0.01029  0.001412  -0.8619  0.1368
6.424e+09  -0.8296  -0.0446  -0.008301  0.0004912  -0.02127  0.007584  -0.8138  0.3955
6.425e+09  -0.8048  0.2737  0.02557  -0.01495  -0.06674  0.002396  -0.5722  0.6774
6.426e+09  -0.6495  0.5324  0.0211  -0.009384  -0.01871  0.05923  -0.3454  0.8469
6.428e+09  -0.449  0.7472  0.01096  0.03831  -0.001365  -0.01552  -0.0396  0.8808
6.429e+09  -0.1538  0.8501  0.03009  0.0162  -0.001745  0.04225  0.2333  0.8233
6.43e+09  0.1393  0.851  -0.04168  0.001988  -0.0115  0.001324  0.5501  0.6871
6.431e+09  0.3964  0.7224  -0.01219  0.04392  -0.01674  -0.0162  0.7076  0.5161
6.432e+09  0.6018  0.513  0.03605  0.03228  -0.01283  0.03036  0.8268  0.2191
6.434e+09  0.723  0.3368  0.01312  0.03703  0.002123  -0.0289  0.8417  -0.1347
6.435e+09  0.8623  -0.03001  0.007307  -0.02668  0.01661  -0.004589  0.7877  -0.3355
6.436e+09  0.8268  -0.3328  0.01141  0.02354  0.01074  0.009113  0.5817  -0.6163
6.438e+09  0.6237  -0.5287  0.01543  0.04392  0.05074  -0.03096  0.3505  -0.7465
6.439e+09  0.4643  -0.7031  -0.02406  0.006276  -0.0176  0.001093  0.009734  -0.85
6.44e+09  0.09191  -0.8387  -0.001286  0.0354  -0.02479  -0.06066  -0.1794  -0.8022
6.441e+09  -0.1332  -0.8501  0.01478  0.02108  0.011  -0.01915  -0.4957  -0.7184
6.442e+09  -0.4063  -0.7608  0.01929  -0.01779  -0.04971  -0.05572  -0.713  -0.4757
6.444e+09  -0.6505  -0.5624  0.001342  0.008091  -0.004848  -0.02636  -0.8344  -0.2036
6.445e+09  -0.8343  -0.2355  -0.02382  -0.03621  -0.02284  0.01506  -0.836  0.1251
6.446e+09  -0.9002  -0.01892  -0.007927  -0.02141  0.03419  0.006416  -0.7481  0.3467
6.448e+09  -0.7711  0.3141  0.04216  -0.01077  0.02875  -0.003649  -0.5732  0.5584
6.449e+09  -0.6201  0.5679  -0.01332  -0.001902  -0.005414  0.02112  -0.3663  0.8162
6.45e+09  -0.4625  0.7852  -0.02097  -0.001245  -0.02762  -0.0107  -0.1038  0.8427
6.451e+09  -0.1433  0.8428  0.03506  0.0151  0.01933  0.003712  0.2415  0.7931
6.452e+09  0.1194  0.8541  -0.0383  0.01211  -0.03996  -0.03429  0.4592  0.6598
6.454e+09  0.4207  0.7339  -0.02727  -0.009502  0.01903  0.03269  0.6619  0.467
6.455e+09  0.6338  0.547  0.01588  0.002553  -0.02676  -0.02095  0.7929  0.2136
6.456e+09  0.8405  0.279  -0.05654  0.02041  -0.01937  0.04511  0.8153  -0.1083
6.458e+09  0.8589  -0.0184  -0.01066  -0.001935  -0.01424  0.02956  0.7428  -0.3493
6.459e+09  0.8425  -0.3033  0.02618  0.02748  -0.03431  -0.02395  0.5988  -0.5716
6.46e+09  0.6997  -0.5885  -0.007407  -0.002147  -0.01998  0.01587  0.3362  -0.7844
6.461e+09  0.4342  -0.7547  -0.011  -0.02462  -0.00248  0.01287  0.1133  -0.7739
6.462e+09  0.07983  -0.8126  0.000953  -0.06283  0.02969  0.03473  -0.1943  -0.7848
6.464e+09  -0.1799  -0.8775  -0.01807  0.02467  0.006113  -0.0294  -0.425  -0.6384
6.465e+09  -0.4306  -0.786  -0.001597  0.007414  0.04578  -0.009462  -0.6439  -0.4835
6.466e+09  -0.7258  -0.5034  -0.004325  -0.01428  -0.001856  0.03506  -0.7778  -0.2205
6.468e+09  -0.7798  -0.2546  -0.00208  0.01787  0.05224  -0.03218  -0.8082  0.06701
6.469e+09  -0.8733  -0.002844  -0.02053  -0.001842  0.02584  -0.007659  -0.7417  0.3023
6.47e+09  -0.826  0.3082  -0.02501  -0.02396  0.003926  0.0137  -0.5238  0.5747
6.471e+09  -0.6648  0.6201  -0.01374  -0.01517  -0.001333  -0.03173  -0.3124  0.7007
6.472e+09  -0.4242  0.7164  0.03812  0.009836  -0.01224  0.000949  -0.03003  0.7834
6.474e+09  -0.1327  0.9258  -0.02187  0.01763  0.02234  0.008735  0.2326  0.7434
6.475e+09  0.2411  0.8834  -0.0154  0.02929  0.005633  -0.01528  0.425  0.6499
6.476e+09  0.4995  0.7225  -0.01061  0.03534  0.007893  -0.002401  0.6566  0.4676
6.478e+09  0.7336  0.524  0.00829  0.02044  0.00751  -0.02466  0.8046  0.1644
6.479e+09  0.9081  0.2798  0.01572  -0.001717  -0.003764  -0.01091  0.7752  -0.0874
6.48e+09  0.8763  -0.05735  0.02296  -0.007506  0.02135  -0.06308  0.6978  -0.3866
6.481e+09  0.8005  -0.3575  -0.01572  -0.01761  0.003386  0.01136  0.558  -0.5603
6.482e+09  0.6662  -0.6232  0.01101  -0.01269  0.01822  -0.01732  0.3127  -0.7119
6.484e+09  0.3542  -0.7882  0.01883  -0.01374  0.02781  -0.004668  0.06249  -0.7856
6.485e+09  0.0988  -0.8646  -0.009245  0.00761  -0.02275  0.02476  -0.2374  -0.7188
6.486e+09  -0.2077  -0.8351  -0.0007774  0.04745  -0.009343  0.005058  -0.4754  -0.6165
6.488e+09  -0.34  -1.454  0.0252  0.001632  0.3387  -0.681  -0.6356  -0.3866
6.489e+09  -0.7107  -0.5257  0.0006185  0.03331  0.01264  0.01695  -0.7848  -0.1635
6.49e+09  -0.8488  -0.1999  0.008438  0.005597  0.0175  -0.01818  -0.7567  0.05739
6.491e+09  -0.8991  0.1266  0.00126  0.01977  -0.002304  0.046  -0.7088  0.3448
6.492e+09  -0.8015  0.3603  -0.03774  -0.02213  -0.009463  0.005458  -0.5078  0.5515
6.494e+09  -0.4729  0.6299  0.009205  -0.003601  0.06713  -0.05172  -0.3307  0.6678
6.495e+09  -0.4053  0.7934  0.02329  -0.01434  -0.008949  0.006721  -0.0457  0.786
6.496e+09  -0.04817  0.9273  -0.02136  -0.02322  0.02643  0.0104  0.2152  0.7311
6.498e+09  0.2247  0.859  -0.00582  0.01229  -0.01047  -0.0358  0.4616  0.5931
6.499e+09  0.5301  0.7466  0.02142  -0.009448  -0.008739  0.03544  0.6507  0.4249
6.5e+09  0.7446  0.4861  -0.03345  -0.0039  0.06844  -0.03363  0.7531  0.1377
6.501e+09  0.9343  0.1682  0.02221  -0.01054  -0.01323  0.04058  0.7804  -0.07914
6.502e+09  0.8847  -0.09816  -0.01024  -0.02748  0.008149  -0.0158  0.6809  -0.3503
6.504e+09  0.8735  -0.3968  0.006184  -0.03397  -0.01755  -0.03466  0.512  -0.5656
6.505e+09  0.6037  -0.6943  -0.02267  0.00298  -0.01996  0.0004678  0.2799  -0.6957
6.506e+09  0.3311  -0.8412  0.01334  0.02316  0.02693  0.016  0.03593  -0.7685
6.508e+09  0.08118  -0.9727  -0.02233  -0.02469  0.01258  -0.006258  -0.2213  -0.6906
6.509e+09  -0.3251  -0.8891  0.01717  -0.02303  -0.004331  -0.0251  -0.463  -0.585
6.51e+09  -0.5646  -0.7601  -0.03063  0.03496  -0.05194  -0.02199  -0.6596  -0.3917
6.511e+09  -0.7948  -0.4671  0.004854  -0.01382  -0.02565  -0.01113  -0.7675  -0.1255
6.512e+09  -0.961  -0.1652  0.008886  -0.005731  -0.03061  0.03628  -0.7211  0.1501
6.514e+09  -0.925  0.1361  0.01233  0.03793  -0.04235  -0.05429  -0.6365  0.3007
6.515e+09  -0.7885  0.3973  -0.004165  0.01357  -0.03075  0.003305  -0.4517  0.5226
6.516e+09  -0.6374  0.7337  -0.01293  -0.02372  0.03175  -0.008512  -0.2748  0.7186
6.518e+09  -0.3412  0.8459  -0.01907  0.03816  -0.003399  -0.01503  0.01114  0.7813
6.519e+09  -0.002813  0.9656  -0.0129  -0.02714  -0.009092  0.03325  0.2325  0.7157
6.52e+09  0.3302  0.9003  0.0137  0.01708  0.009917  -0.002397  0.5173  0.5611
6.521e+09  0.6102  0.7018  -0.01681  0.01477  0.03476  0.04708  0.6472  0.3313
6.522e+09  0.8105  0.4457  -0.001798  0.0316  0.05825  -0.0391  0.7379  0.1018
6.524e+09  0.8998  0.2054  -0.001602  0.001326  -0.006806  -0.01125  0.6844  -0.1293
6.525e+09  0.9425  -0.1459  -0.01048  -0.00828  0.01851  -0.0354  0.6093  -0.4114
6.526e+09  0.7404  -0.553  -0.003866  0.008382  -0.02827  0.007199  0.4615  -0.5982
6.528e+09  0.6381  -0.7404  0.005151  0.02392  -0.007149  -0.04728  0.2285  -0.6666
6.529e+09  0.2888  -0.9081  -0.02412  -0.0006306  0.03734  0.05149  -0.01568  -0.6975
6.53e+09  -0.06811  -0.9494  -0.01285  -0.02492  -0.02579  -0.03258  -0.2573  -0.6146
6.531e+09  -0.376  -0.9067  -0.01041  0.001818  0.00531  -0.002599  -0.4736  -0.4796
6.532e+09  -0.6081  -0.6355  0.007766  0.01738  -0.02501  -0.009012  -0.555  -0.3444
6.534e+09  -0.8583  -0.3735  -0.01148  0.02155  0.03454  -0.01402  -0.6216  -0.08156
6.535e+09  -0.8988  -0.1176  5.162e-05  0.0376  0.004166  0.06413  -0.6161  0.1021
6.536e+09  -0.9351  0.2456  -0.0104  0.004  -0.007046  0.03292  -0.6023  0.2944
6.538e+09  -0.8254  0.5956  0.02991  0.0277  -0.006048  -0.04083  -0.4421  0.4555
6.539e+09  -0.5602  0.7919  -0.02945  0.002215  0.01771  -0.01966  -0.2846  0.5816
6.54e+09  -0.2211  0.9117  0.005422  -0.01159  0.05021  -0.01117  -0.07257  0.7172
6.541e+09  0.09764  0.9417  0.00173  0.01286  -0.007786  -0.003091  0.1774  0.6589
6.542e+09  0.4561  0.8402  0.03366  -0.007494  -0.001401  0.02233  0.4004  0.5982
6.544e+09  0.7033  0.6036  -0.0002176  0.005089  -0.04777  -0.02953  0.6125  0.3977
6.545e+09  0.8955  0.3208  -0.04092  -0.033  0.001035  -0.003414  0.6796  0.1603
6.546e+09  0.946  0.01173  0.004408  -0.01214  0.06692  0.04968  0.7589  -0.1013
6.548e+09  0.8948  -0.2769  -0.02733  -0.01578  -0.007195  -0.02565  0.6404  -0.3141
6.549e+09  0.7058  -0.6146  0.011  0.01536  0.0305  0.02559  0.4999  -0.5623
6.55e+09  0.4344  -0.864  0.0127  -0.02535  -0.02861  0.08151  0.2771  -0.707
6.551e+09  0.1661  -0.8461  -0.0008123  0.02637  -0.07024  -0.04032  -0.01317  -0.7321
