# Hz S RI R 50
6.25e+09  -0.8211  0.1032  0.005398  -0.01871  -0.02729  0.03141  0.1685  0.4691
6.251e+09  -0.7773  0.3662  -0.0102  -0.0227  -0.001461  0.02544  0.3766  0.3734
6.252e+09  -0.5408  0.582  0.009186  -0.01745  0.006272  0.06968  0.5565  0.2252
6.254e+09  -0.2996  0.7643  -0.01205  -0.004539  -0.0219  -0.06616  0.6255  -0.0426
6.255e+09  -0.01388  0.7886  0.004977  0.005353  0.0387  0.02684  0.5716  -0.2353
6.256e+09  0.2378  0.7807  -0.008933  -0.04178  -0.002661  0.04402  0.4618  -0.434
6.258e+09  0.4527  0.5837  -0.01105  0.01791  0.01981  0.01484  0.279  -0.5948
6.259e+09  0.6811  0.4245  -0.002875  -0.004544  -0.007078  0.04039  0.05949  -0.6659
6.26e+09  0.7888  0.1679  -0.006239  -0.002011  0.04074  0.03069  -0.1751  -0.6492
6.261e+09  0.7677  -0.1211  -0.02045  0.01908  0.008046  0.02185  -0.4817  -0.5417
6.262e+09  0.6935  -0.3965  0.01081  0.01378  -0.03886  0.0006514  -0.6233  -0.358
6.264e+09  0.5704  -0.6315  0.01872  -0.01218  -0.02547  0.0462  -0.7098  -0.1455
6.265e+09  0.2891  -0.7293  -0.013  -0.002955  -0.006474  0.02247  -0.6923  0.1508
6.266e+09  0.01235  -0.7871  0.02284  -0.01219  -0.05198  0.006727  -0.6422  0.3666
6.268e+09  -0.2363  -0.73  -0.007947  -0.01071  0.013  -0.0008028  -0.4742  0.5705
6.269e+09  -0.5084  -0.6292  -0.001815  -0.01224  0.002178  -0.03931  -0.1962  0.7136
6.27e+09  -0.7225  -0.356  0.002546  -0.004304  -0.001348  -0.03745  0.06272  0.7381
6.271e+09  -0.759  -0.1562  0.00528  -0.01015  0.03502  -0.0356  0.355  0.66
6.272e+09  -0.7805  0.183  -0.002944  -0.02199  -0.0128  -0.0002881  0.5254  0.5064
6.274e+09  -0.6838  0.3575  0.03057  -0.02185  -0.001013  -0.01625  0.6756  0.2931
6.275e+09  -0.5256  0.632  -0.006651  0.006804  -0.0406  -0.01153  0.7671  0.0438
6.276e+09  -0.2754  0.7285  -0.03137  0.006151  -0.02551  -0.02193  0.7383  -0.1934
6.278e+09  0.036  0.839  0.01424  -0.01392  -0.01857  0.03484  0.5753  -0.4584
6.279e+09  0.2791  0.7506  0.01121  -0.01119  0.006123  0.01242  0.472  -0.6288
6.28e+09  0.5257  0.6356  -0.002988  -0.004761  -0.03011  -0.03728  0.1482  -0.7725
6.281e+09  0.6687  0.4366  0.01248  0.04126  -0.008451  0.0451  -0.1069  -0.7592
6.282e+09  0.7537  0.1521  0.01659  -0.01523  0.02773  -0.04979  -0.3516  -0.6942
6.284e+09  0.8173  -0.1472  -0.01662  0.00013  -0.004301  -0.005053  -0.5557  -0.52
6.285e+09  0.6806  -0.4413  -0.0104  -0.02244  0.01299  0.01903  -0.7303  -0.2964
6.286e+09  0.4657  -0.6055  0.02048  -0.00437  0.0006043  0.03967  -0.8047  -0.03004
6.288e+09  0.2831  -0.736  -0.0383  0.04104  -0.02421  -0.02048  -0.7531  0.2364
6.289e+09  -0.009867  -0.7908  0.006138  -0.005874  0.01163  -0.02891  -0.6442  0.5008
6.29e+09  -0.2953  -0.7368  0.007034  -0.001212  -0.01639  0.01596  -0.4031  0.6714
6.291e+09  -0.5259  -0.5668  -0.003296  -0.01834  0.00429  -0.04679  -0.1743  0.8045
6.292e+09  -0.7346  -0.3624  0.01253  0.01266  0.03147  0.05191  0.1306  0.7931
6.294e+09  -0.7712  -0.1487  0.004399  0.01584  -0.01241  -0.02232  0.3848  0.7121
6.295e+09  -0.7516  0.1625  0.00482  0.01292  0.01636  -0.04171  0.6429  0.5256
6.296e+09  -0.6618  0.4086  -0.0106  -0.01578  -0.06874  -0.0444  0.7685  0.3029
6.298e+09  -0.4826  0.6861  -0.01918  -0.01378  -0.06922  0.0039  0.8469  0.05459
6.299e+09  -0.2325  0.7609  0.01396  -0.01789  -0.0284  -0.04031  0.7594  -0.2369
6.3e+09  0.02529  0.8061  -0.01443  0.03118  -0.02079  0.01303  0.6331  -0.5252
6.301e+09  0.3213  0.7219  -0.02155  0.01533  -0.02227  0.01028  0.4298  -0.7242
6.302e+09  0.5192  0.568  -0.0002597  -0.006009  0.005012  -0.01457  0.1597  -0.8406
6.304e+09  0.7519  0.2928  -0.009594  0.02215  -0.01669  0.03427  -0.1381  -0.8276
6.305e+09  0.8352  0.1076  0.001182  0.00574  -0.0527  -0.0253  -0.3944  -0.7247
6.306e+09  0.762  -0.1911  -0.008689  0.01077  -0.006257  0.03827  -0.6579  -0.5465
6.308e+09  0.6573  -0.4035  -0.009099  0.003599  -0.03249  0.05167  -0.7967  -0.2861
6.309e+09  0.4946  -0.6574  -0.0007609  -0.02855  -0.00428  -0.006954  -0.8795  0.01016
6.31e+09  0.2641  -0.7671  0.01774  -0.004326  -0.01792  0.00725  -0.8253  0.2649
6.311e+09  -0.08642  -0.7977  0.01573  -0.008092  0.03614  0.03335  -0.6769  0.5716
6.312e+09  -0.3592  -0.6814  -0.02166  -0.03921  -0.02058  0.009549  -0.4326  0.7378
6.314e+09  -0.5531  -0.5139  -0.005213  0.03671  0.03739  0.04269  -0.1716  0.8882
6.315e+09  -0.7587  -0.3081  0.0003892  -0.004259  -0.01219  -0.03351  0.1543  0.8311
6.316e+09  -0.828  -0.0824  -0.03134  -0.02545  -0.01764  -0.03204  0.4321  0.7909
6.318e+09  -0.7677  0.1949  -0.02705  -0.002035  0.04641  0.008378  0.6437  0.584
6.319e+09  -0.6032  0.485  0.01544  0.005465  -0.05577  -0.03235  0.8408  0.3127
6.32e+09  -0.4541  0.6794  -0.02975  0.005501  0.00309  -0.0065  0.8511  0.01138
6.321e+09  -0.2006  0.8204  -0.02627  0.01892  0.006603  0.02101  0.8303  -0.2748
6.322e+09  0.1108  0.8113  0.009966  -0.008006  -0.02731  -0.04257  0.6799  -0.5192
6.324e+09  0.4453  0.686  0.002153  0.001159  0.005928  -0.02643  0.4573  -0.7624
6.325e+09  0.6385  0.5554  0.01647  0.005462  0.003058  -0.04176  0.1504  -0.8703
6.326e+09  0.7874  0.3344  -0.005159  -0.007015  -0.002456  0.01038  -0.1784  -0.896
6.328e+09  0.8162  0.05613  0.01314  -0.01273  0.01264  -0.01737  -0.4047  -0.7692
6.329e+09  0.7453  -0.2833  0.00967  0.01949  -0.0142  -0.03623  -0.6875  -0.5787
6.33e+09  0.6076  -0.5248  0.03575  -0.05669  0.02149  0.04139  -0.8799  -0.3382
6.331e+09  0.3908  -0.7277  -0.001515  -0.02002  -0.008047  -0.00551  -0.9017  -0.03806
6.332e+09  0.1192  -0.836  -0.009654  -0.0111  -0.006622  0.02872  -0.8507  0.2723
6.334e+09  -0.1054  -0.786  0.04131  -0.01967  0.03309  0.02735  -0.7409  0.5557
6.335e+09  -0.4066  -0.6931  -0.01638  -0.03122  0.02887  -0.02849  -0.486  0.7676
6.336e+09  -0.7092  -0.5116  0.01218  -0.02611  -0.002609  -0.009575  -0.1371  0.9002
6.338e+09  -0.7507  -0.2294  -0.01353  -0.0004233  0.003763  -0.02769  0.1459  0.9261
6.339e+09  -0.8298  0.01793  0.01848  -0.02363  0.03848  0.02896  0.4003  0.814
6.34e+09  -0.8406  0.3553  0.01336  0.007824  -0.002878  0.008119  0.6598  0.616
6.341e+09  -0.6026  0.5998  -0.02107  -0.01167  -0.01881  0.03782  0.826  0.3614
6.342e+09  -0.3616  0.7661  0.01999  -0.02017  -0.02206  -0.001272  0.9396  0.05902
6.344e+09  -0.1068  0.7935  0.008836  -0.006662  -0.01196  -0.03298  0.8961  -0.2575
6.345e+09  0.2731  0.7973  -0.02353  0.002928  0.01995  0.03782  0.7498  -0.55
6.346e+09  0.5807  0.6777  0.01078  0.001477  0.03527  0.002348  0.4995  -0.7438
6.348e+09  0.7427  0.4717  -0.01888  -0.02253  0.001189  0.01933  0.1886  -0.9035
6.349e+09  0.8528  0.2064  -0.008493  0.01404  0.01927  0.02189  -0.07082  -0.9204
6.35e+09  0.8568  -0.1249  0.001725  0.03925  -0.01535  0.03175  -0.4081  -0.8387
6.351e+09  0.6991  -0.4107  0.005294  0.02203  -0.001397  0.02896  -0.6807  -0.6347
6.352e+09  0.536  -0.6088  0.01788  -0.005448  -0.05304  0.02187  -0.9181  -0.4036
6.354e+09  0.2902  -0.8261  3.599e-05  0.006594  -0.02076  -0.0179  -0.9553  -0.08463
6.355e+09  0.008964  -0.8628  -0.02062  0.00895  0.02234  0.02035  -0.9016  0.2223
6.356e+09  -0.2751  -0.7798  -0.008425  -0.0103  -0.02907  0.0357  -0.76  0.5789
6.358e+09  -0.5597  -0.582  -0.03727  0.006209  -0.003358  0.01558  -0.5415  0.8031
6.359e+09  -0.7719  -0.375  0.01789  0.04239  -0.0209  -0.004666  -0.2083  0.9355
6.36e+09  -0.8689  -0.1109  0.01823  -0.005149  -0.03689  -0.03445  0.07813  0.9135
6.361e+09  -0.8419  0.1977  0.03425  -0.02975  0.01666  -0.02533  0.4395  0.8486
6.362e+09  -0.6781  0.4751  -0.007372  0.008551  0.001089  0.01268  0.6659  0.6831
6.364e+09  -0.5024  0.7114  -0.0249  0.03108  0.0242  -0.00791  0.839  0.3629
6.365e+09  -0.2058  0.8386  0.02027  0.0518  0.001135  0.041  0.9527  0.1354
6.366e+09  0.0465  0.8346  -0.003388  -0.00171  0.03272  -0.04932  0.9157  -0.1973
6.368e+09  0.3205  0.742  -0.004845  0.03117  0.01537  -0.006272  0.7619  -0.562
6.369e+09  0.5853  0.6324  0.01202  0.0381  -0.007862  -0.03869  0.575  -0.7896
6.37e+09  0.806  0.3404  -0.03819  0.01628  0.04029  -0.03869  0.2502  -0.904
6.371e+09  0.8536  0.05137  -0.006752  0.04387  -0.01157  -0.02988  -0.1118  -0.92
6.372e+09  0.8125  -0.2823  0.02191  -0.02868  0.00191  -0.03766  -0.3996  -0.8402
6.374e+09  0.6885  -0.5547  -0.02993  -0.001891  -0.06033  0.03983  -0.6749  -0.6658
6.375e+09  0.4264  -0.6763  0.007172  0.00866  -0.002962  -0.01998  -0.8394  -0.3844
6.376e+09  0.1823  -0.8674  0.03355  -0.000789  -0.00381  -0.004521  -0.9478  -0.09565
6.378e+09  -0.1299  -0.8772  0.02005  -0.03916  0.046  0.03579  -0.9127  0.2016
6.379e+09  -0.4068  -0.7331  0.01234  0.01328  0.03594  -0.02142  -0.774  0.4892
6.38e+09  -0.6396  -0.5358  0.01721  0.006739  0.01988  -0.01561  -0.5435  0.7854
6.381e+09  -0.7689  -0.2732  0.006526  0.006403  0.01191  0.0358  -0.2418  0.9084
6.382e+09  -0.8419  -0.01204  0.01799  0.01132  0.001904  0.03033  0.04354  0.9407
6.384e+09  -0.7964  0.3518  0.03413  0.01848  -0.03202  0.01641  0.3606  0.8919
6.385e+09  -0.6318  0.5823  -0.0233  -0.03672  -0.01315  0.02503  0.6293  0.7144
6.386e+09  -0.3676  0.7983  0.04723  0.01298  0.04232  0.02375  0.7959  0.4107
6.388e+09  -0.09767  0.8404  -0.01627  -0.006295  0.01419  0.02136  0.9005  0.1175
6.389e+09  0.2349  0.8032  -0.006229  0.003097  0.007005  -0.03636  0.9054  -0.1878
6.39e+09  0.4463  0.702  0.0245  0.003628  0.03478  0.04066  0.7554  -0.5415
6.391e+09  0.7175  0.5213  0.04685  -0.003969  -0.002057  0.04167  0.5709  -0.7241
6.392e+09  0.8013  0.2246  -0.0233  -0.0155  0.01245  -0.01512  0.2831  -0.8912
6.394e+09  0.8744  -0.1037  0.02266  -0.01703  -0.01322  -0.02831  -0.04202  -0.9483
6.395e+09  0.7776  -0.365  -0.02821  -0.02441  -0.02224  -0.06224  -0.333  -0.8583
6.396e+09  0.5712  -0.6376  0.002616  0.001835  0.02678  -0.01388  -0.5971  -0.6753
6.398e+09  0.2922  -0.8223  -0.02345  0.01684  0.01429  0.00533  -0.7744  -0.4633
6.399e+09  0.06063  -0.8396  0.03187  -0.01551  0.03671  0.0416  -0.9198  -0.1875
6.4e+09  -0.2819  -0.8055  0.01525  0.03178  -0.01479  -0.01993  -0.9111  0.1648
6.401e+09  -0.6045  -0.6568  -0.03102  0.01063  0.009984  0.02382  -0.7438  0.4617
6.402e+09  -0.7097  -0.431  0.02549  0.007088  -0.03771  -0.0137  -0.567  0.6714
6.404e+09  -0.862  -0.1534  -0.04114  0.01412  0.03884  0.02391  -0.3233  0.8676
6.405e+09  -0.8273  0.1624  -0.001035  0.06911  -0.006944  0.02521  0.0315  0.9223
6.406e+09  -0.7315  0.4471  0.009246  0.01992  -0.007335  -0.01679  0.3171  0.8697
6.408e+09  -0.6045  0.6563  -0.008547  -0.001058  0.003322  0.01254  0.5521  0.7545
6.409e+09  -0.2786  0.7901  -0.02217  -0.03407  -0.009802  -0.03472  0.7941  0.4528
6.41e+09  0.008438  0.8133  -0.02346  -0.01504  0.01382  0.03606  0.8973  0.1407
6.411e+09  0.3135  0.7929  -0.01834  -0.033  0.001407  -0.005657  0.9134  -0.1851
6.412e+09  0.5618  0.6292  -0.004185  -0.009734  -0.02054  0.01994  0.8034  -0.4836
6.414e+09  0.7778  0.3778  0.001991  -0.02055  -0.007084  0.008734  0.6158  -0.6233
6.415e+09  0.8372  0.09724  0.01045  0.02068  0.003848  0.0005269  0.336  -0.8061
6.416e+09  0.8128  -0.2092  0.01698  0.01546  -0.01701  -0.01439  0.06901  -0.9209
6.418e+09  0.731  -0.4593  0.006707  0.02048  -0.03839  0.004968  -0.2502  -0.8557
6.419e+09  0.4904  -0.6925  0.02759  0.04901  0.01598  0.001456  -0.5177  -0.6995
6.42e+09  0.1855  -0.839  0.04563  0.0183  0.01976  -0.004021  -0.7688  -0.48
6.421e+09  -0.06486  -0.8227  0.03116  0.03157  -0.01526  0.0291  -0.8098  -0.2119
6.422e+09  -0.3773  -0.7909  0.001186  -0.00468  0.01581  0.02114  -0.8821  0.1095
6.424e+09  -0.6281  -0.5608  -0.03417  -0.01408  -0.01831  0.02143  -0.8099  0.3628
6.425e+09  -0.7912  -0.3557  0.01931  -0.01656  0.02458  -0.02774  -0.6118  0.6259
6.426e+09  -0.8315  -0.06769  0.007575  0.01115  -0.003268  0.01729  -0.3377  0.7683
6.428e+09  -0.7542  0.216  -0.03225  0.01787  0.02712  -0.0157  -0.05787  0.8504
6.429e+09  -0.6589  0.5086  -0.0005565  0.0204  -0.02249  0.03916  0.2266  0.8941
6.43e+09  -0.4254  0.6824  0.01062  0.03951  0.0163  0.003765  0.53  0.7037
6.431e+09  -0.1835  0.8214  -0.04394  -0.03198  -0.000581  0.03047  0.7018  0.4817
6.432e+09  0.1216  0.8529  3.334e-05  -0.006023  0.04924  -0.01516  0.8321  0.2164
6.434e+09  0.4019  0.7649  0.02247  -0.005697  0.03243  -0.0172  0.8353  -0.07293
6.435e+09  0.6247  0.5667  -0.02267  0.04981  0.002961  0.04525  0.7545  -0.3855
6.436e+09  0.7665  0.3174  -0.03455  -0.01741  -0.00302  -0.0426  0.6253  -0.6439
6.438e+09  0.7818  -0.0103  -0.01304  0.02228  0.01953  -0.0053  0.3512  -0.7767
6.439e+09  0.7883  -0.2348  -0.04882  -0.06994  0.007071  0.02745  0.03678  -0.864
6.44e+09  0.6607  -0.5173  0.04807  -0.02035  -0.01714  0.03674  -0.1977  -0.842
6.441e+09  0.4148  -0.7169  0.01176  -0.01846  -0.02618  0.05125  -0.5137  -0.7011
6.442e+09  0.1664  -0.8518  -0.007651  -0.003934  -0.01862  0.003803  -0.7426  -0.4515
6.444e+09  -0.1697  -0.7814  -0.02353  -0.006011  0.03319  -0.009187  -0.8181  -0.1751
6.445e+09  -0.4251  -0.7361  -0.002073  0.03682  -0.009845  0.0006286  -0.8278  0.1024
6.446e+09  -0.6562  -0.5652  0.03625  -0.02574  -0.007232  0.008578  -0.831  0.3884
6.448e+09  -0.7326  -0.3089  -0.04832  -0.01065  0.007306  -0.009977  -0.6011  0.6149
6.449e+09  -0.8648  -0.02334  0.03221  0.03815  0.01418  0.03618  -0.3459  0.7535
6.45e+09  -0.8011  0.2666  -0.01927  0.01838  -0.0415  0.01164  -0.05108  0.8125
6.451e+09  -0.6585  0.5397  -0.02973  -0.0166  -0.004912  -0.00402  0.2067  0.822
6.452e+09  -0.34  0.7537  0.01882  -0.005281  0.02824  -0.004844  0.4967  0.6637
6.454e+09  -0.178  0.8266  0.005552  -0.004551  0.006061  -0.02726  0.6698  0.4776
6.455e+09  0.1322  0.7935  -0.01753  0.02647  -0.01299  0.0005251  0.8039  0.2044
6.456e+09  0.4479  0.712  -0.02224  -0.03156  0.006903  0.001666  0.7916  -0.04066
6.458e+09  0.6894  0.5711  -0.04163  -0.006324  0.0009156  -0.004501  0.6808  -0.3247
6.459e+09  0.8133  0.2635  0.04529  0.02014  0.006678  0.05435  0.6067  -0.5968
6.46e+09  0.8346  -0.03468  -0.007312  -0.02034  -0.05604  -0.02042  0.377  -0.7274
6.461e+09  0.7587  -0.3105  -0.03138  -0.01471  0.01204  0.03147  0.007798  -0.7977
6.462e+09  0.6049  -0.5089  0.03435  -0.01131  -0.001486  -0.004844  -0.212  -0.7815
6.464e+09  0.3992  -0.7043  0.01723  -0.01617  0.01335  0.0405  -0.4608  -0.6433
6.465e+09  0.114  -0.8341  -0.02871  0.01201  0.01238  -0.01991  -0.6682  -0.4504
6.466e+09  -0.1646  -0.8367  0.01306  -0.01607  -0.03173  0.001261  -0.7615  -0.1944
6.468e+09  -0.4408  -0.7703  0.002761  0.003686  0.01435  0.0308  -0.7807  0.08646
6.469e+09  -0.7186  -0.4744  0.006484  0.00877  0.005557  -0.03685  -0.72  0.3517
6.47e+09  -0.8228  -0.2678  0.006803  0.005272  -0.02234  0.0007474  -0.5486  0.525
6.471e+09  -0.8985  0.08668  -0.013  0.001403  0.01532  -0.006808  -0.3723  0.7338
6.472e+09  -0.7821  0.3175  0.007499  0.03962  -0.02929  0.02453  -0.04557  0.7624
6.474e+09  -0.6562  0.5314  0.01233  0.007935  0.005734  0.006719  0.2197  0.7376
6.475e+09  -0.3984  0.7488  -0.02405  -0.02917  0.01061  -0.005412  0.4733  0.6593
6.476e+09  -0.1347  0.8449  0.06025  -0.0316  0.08567  0.03083  0.635  0.4204
6.478e+09  0.201  0.7875  0.04351  -0.01747  -0.01802  0.04691  0.7338  0.165
6.479e+09  0.4529  0.7145  -0.01178  0.01705  -0.02297  -0.03821  0.7471  -0.08957
6.48e+09  0.6715  0.4798  0.02568  -0.01966  -0.01725  -0.02232  0.6613  -0.352
6.481e+09  0.8396  0.2549  0.05105  -0.01922  -0.03157  0.03195  0.6054  -0.5485
6.482e+09  0.8615  -0.02457  0.04972  0.01186  0.06159  -0.0179  0.3058  -0.704
6.484e+09  0.7999  -0.3276  0.02588  0.03464  0.01242  -0.02095  0.03308  -0.7707
6.485e+09  0.6434  -0.6095  -0.02966  -0.04011  -0.03425  -0.01276  -0.1853  -0.72
6.486e+09  0.3302  -0.7563  -0.02683  0.0165  -0.0618  0.06564  -0.447  -0.6197
6.488e+09  -0.3883  -0.2819  -0.03124  0.02179  -0.474  -0.5399  -0.6044  -0.4833
6.489e+09  -0.1105  -0.8453  -0.01251  -0.008263  -0.0347  0.01462  -0.7454  -0.1814
6.49e+09  -0.4548  -0.7152  -0.01191  -0.03117  -0.003441  0.02254  -0.7195  0.1141
6.491e+09  -0.6517  -0.4805  0.01971  0.02033  -0.006881  -0.01689  -0.6766  0.3547
6.492e+09  -0.7889  -0.2138  0.00331  -0.02795  -0.007353  -0.04869  -0.5164  0.5451
6.494e+09  -0.8667  -0.04123  -0.03094  -0.02379  -0.02496  0.09906  -0.2851  0.6692
6.495e+09  -0.8064  0.3839  -0.0138  0.03765  -0.03179  -0.03783  -0.01372  0.7763
6.496e+09  -0.571  0.5871  -0.009835  -0.03253  -0.02295  -0.002734  0.2518  0.7438
6.498e+09  -0.3614  0.7314  0.01642  -0.03266  -0.008549  -0.0198  0.4667  0.6603
6.499e+09  -0.09679  0.908  0.002536  0.006689  -0.04148  0.001097  0.6323  0.4221
6.5e+09  0.3513  0.7359  -0.01889  0.01339  0.003904  -0.0001027  0.7228  0.136
6.501e+09  0.5117  0.6743  -0.004212  -0.03135  -0.003417  0.0228  0.7177  -0.119
6.502e+09  0.6807  0.4495  -0.02195  -0.005625  -0.03894  -0.01689  0.6753  -0.3739
6.504e+09  0.8589  0.1969  1.218e-05  -0.01025  0.008798  -0.03913  0.521  -0.5417
6.505e+09  0.8954  -0.09259  0.0107  0.02751  -0.009444  0.006417  0.2832  -0.733
6.506e+09  0.761  -0.4015  0.02715  -0.002498  0.02578  0.04275  0.03121  -0.7157
6.508e+09  0.5943  -0.5952  -0.01204  0.0008797  0.01783  -0.01628  -0.2556  -0.6858
6.509e+09  0.3889  -0.7566  -0.01559  0.02704  0.06087  -0.004295  -0.4656  -0.5565
6.51e+09  0.01478  -0.8392  0.004891  0.02108  -0.02048  0.04283  -0.6872  -0.3672
6.511e+09  -0.2392  -0.8282  0.005181  0.01676  0.01376  0.01688  -0.7394  -0.1507
6.512e+09  -0.5198  -0.6705  -0.00258  -0.01601  -0.02428  -0.01834  -0.7468  0.106
6.514e+09  -0.7817  -0.4924  0.0256  0.01853  0.01159  0.03394  -0.6399  0.3908
6.515e+09  -0.9053  -0.2084  -0.00179  -0.008272  0.03029  0.04561  -0.4712  0.5709
6.516e+09  -0.8655  0.1085  0.004665  0.03055  0.01226  -0.01209  -0.2368  0.6899
6.518e+09  -0.807  0.4205  -0.005154  0.03653  0.05068  0.02017  0.04738  0.7498
6.519e+09  -0.5733  0.6377  0.002759  -0.00214  -0.003759  -0.02095  0.3036  0.7092
6.52e+09  -0.3136  0.8491  0.005009  0.04972  0.00464  0.008748  0.4802  0.551
6.521e+09  -0.02231  0.9363  0.005744  0.0122  -0.04295  -0.07517  0.6355  0.3739
6.522e+09  0.2904  0.8462  0.01541  0.001773  0.002001  0.04162  0.7101  0.07698
6.524e+09  0.5842  0.7284  -0.0264  0.007159  0.01768  0.012  0.7352  -0.1271
6.525e+09  0.7603  0.4071  0.005998  0.04288  0.03716  -0.01449  0.6005  -0.4208
6.526e+09  0.9098  0.1814  -0.01465  0.01676  -0.0245  0.0177  0.409  -0.5868
6.528e+09  0.899  -0.1109  -0.008986  0.0495  -0.0248  -0.04499  0.234  -0.7259
6.529e+09  0.7545  -0.4775  -0.01361  0.005611  -0.005104  -0.007719  -0.04342  -0.6918
6.53e+09  0.5398  -0.7328  -0.003393  0.03977  0.004633  0.007534  -0.2674  -0.6306
6.531e+09  0.3185  -0.8456  -0.0536  0.003876  0.0003058  0.02252  -0.4892  -0.519
6.532e+09  0.003351  -0.88  0.02213  -0.01539  -0.02706  -0.03425  -0.5662  -0.2747
6.534e+09  -0.3712  -0.8243  -0.01293  -0.01081  -0.03656  -0.02666  -0.6529  -0.09932
6.535e+09  -0.6001  -0.6879  0.01101  -0.01153  -0.02761  0.005804  -0.6368  0.1292
6.536e+09  -0.8045  -0.4103  0.01254  -0.04119  0.01513  -0.03455  -0.5793  0.2743
6.538e+09  -0.9088  -0.1333  0.02631  0.0001383  -0.001549  0.02533  -0.4682  0.4736
6.539e+09  -0.8917  0.1454  0.0211  0.02366  0.027  0.02238  -0.2798  0.6014
6.54e+09  -0.8265  0.5334  0.004593  0.00204  0.01912  0.009575  -0.05868  0.7227
6.541e+09  -0.5713  0.7387  -0.0002829  0.009756  0.007789  0.0006696  0.2014  0.6588
6.542e+09  -0.3  0.8789  -0.008803  0.01479  -0.005326  0.0376  0.4213  0.5427
6.544e+09  0.1104  0.915  0.00342  0.02079  -0.01806  0.01134  0.6143  0.4042
6.545e+09  0.3839  0.8856  0.006983  -0.01677  0.03356  -0.004699  0.6888  0.1641
6.546e+09  0.6837  0.7186  -0.01093  -0.007624  -0.0547  -0.01054  0.7223  -0.08753
6.548e+09  0.8493  0.4228  0.005304  0.01332  -0.01538  0.02999  0.6529  -0.3141
6.549e+09  0.9487  0.07201  -0.005046  0.01466  0.06033  0.01535  0.5406  -0.5398
6.55e+09  0.8823  -0.2637  0.006002  0.008239  -0.04315  -0.02237  0.3131  -0.6745
6.551e+09  0.7676  -0.528  0.002651  -0.01732  0.02618  -0.01595  0.05062  -0.7508
