# Hz S RI R 50
6.25e+09  -0.6402  0.563  0.007749  0.02251  0.01147  -0.001394  0.1408  0.4185
6.251e+09  -0.4013  0.7238  0.008306  -0.02049  0.0129  0.03394  0.3548  0.4409
6.252e+09  -0.1166  0.8465  0.00605  0.0288  -0.03866  -0.0174  0.5299  0.2732
6.254e+09  0.08728  0.8212  -0.0299  -0.008648  0.05262  0.01646  0.6109  -0.002262
6.255e+09  0.4281  0.7043  -0.007084  0.005373  0.01456  -0.01021  0.5927  -0.2496
6.256e+09  0.6117  0.4862  0.01017  0.04382  -0.02033  -0.0005222  0.4563  -0.4464
6.258e+09  0.7729  0.251  0.04604  -0.005042  -0.02866  -0.0163  0.2497  -0.6039
6.259e+09  0.8183  -0.02407  0.009199  0.01584  0.05055  -0.001738  0.02936  -0.6873
6.26e+09  0.7602  -0.2823  -0.02828  0.00455  0.01794  -0.003968  -0.2083  -0.6619
6.261e+09  0.6109  -0.5094  -0.009371  0.02835  0.01933  -0.049  -0.5071  -0.5504
6.262e+09  0.4329  -0.7629  0.02872  -0.02849  0.005807  0.01345  -0.5966  -0.3433
6.264e+09  0.09109  -0.7508  0.01172  -0.009748  -0.01311  -0.02458  -0.672  -0.1455
6.265e+09  -0.1325  -0.7943  0.009035  0.04125  -0.03257  0.02748  -0.7048  0.1876
6.266e+09  -0.4694  -0.6771  -0.00947  -0.01672  -0.01837  0.01187  -0.6096  0.3693
6.268e+09  -0.6499  -0.5052  0.002107  0.00987  -0.01781  -0.01901  -0.4443  0.6038
6.269e+09  -0.7657  -0.2411  0.01315  -0.02452  -0.01376  0.03271  -0.2177  0.7436
6.27e+09  -0.8163  0.04484  -0.03327  0.008239  0.008937  -0.001596  0.04152  0.7539
6.271e+09  -0.7541  0.2881  -0.01502  -0.01075  -0.0211  -0.01603  0.3238  0.6355
6.272e+09  -0.6417  0.5651  0.008511  -0.03156  0.04606  0.01181  0.531  0.4949
6.274e+09  -0.3434  0.6722  -0.005864  -0.0159  0.03902  -0.009105  0.6943  0.2945
6.275e+09  -0.1136  0.8046  -0.0298  0.007699  -0.01837  -0.0212  0.7442  0.03129
6.276e+09  0.1947  0.7424  -0.01159  -0.008098  0.01206  0.01895  0.7109  -0.2075
6.278e+09  0.4594  0.6808  0.01412  -0.03018  0.00699  -0.009282  0.6422  -0.4744
6.279e+09  0.5796  0.5092  0.00524  -0.03  0.04063  0.02398  0.4168  -0.6716
6.28e+09  0.7219  0.2644  -0.004648  -0.01583  -0.0006729  0.004312  0.1713  -0.796
6.281e+09  0.817  -0.02924  -0.01298  0.004336  0.01219  -0.005561  -0.08382  -0.7603
6.282e+09  0.7236  -0.2545  -0.007468  -0.02186  0.01216  0.01899  -0.3728  -0.6985
6.284e+09  0.676  -0.561  -0.0102  -0.02437  -0.008591  0.04297  -0.6037  -0.5203
6.285e+09  0.4296  -0.7139  0.007854  0.01648  0.00447  -0.0007317  -0.6965  -0.292
6.286e+09  0.1656  -0.8194  0.01271  -0.01324  -0.02371  -0.005  -0.78  -0.02323
6.288e+09  -0.188  -0.8341  0.02027  0.0192  0.01601  -0.004231  -0.7242  0.2588
6.289e+09  -0.4626  -0.6814  0.00142  -0.00561  0.02984  0.008476  -0.6286  0.4954
6.29e+09  -0.6576  -0.4669  0.01736  0.009944  0.01513  0.02679  -0.419  0.6941
6.291e+09  -0.7176  -0.2025  -0.006294  -0.005096  0.002257  0.02252  -0.1091  0.747
6.292e+09  -0.8083  0.0576  0.01382  -0.001299  0.03597  -0.02847  0.1477  0.7613
6.294e+09  -0.7438  0.3578  0.02262  -0.02682  -0.0197  0.002456  0.3863  0.7124
6.295e+09  -0.5491  0.5762  -0.05002  0.006863  -0.0197  0.01048  0.5899  0.5287
6.296e+09  -0.3223  0.7325  -0.005192  -0.01544  0.0516  0.008844  0.7412  0.3044
6.298e+09  -0.09904  0.7838  -0.01242  0.01554  -0.03643  0.009473  0.8395  0.01224
6.299e+09  0.1578  0.7599  0.01278  0.003142  -0.00645  -0.007635  0.7687  -0.2889
6.3e+09  0.4705  0.664  -0.01902  -0.01856  -0.01902  -0.005139  0.6508  -0.5256
6.301e+09  0.6666  0.4757  -0.0143  0.01045  0.03433  -0.03569  0.4224  -0.6847
6.302e+09  0.7479  0.2404  -0.02641  0.003325  0.03434  0.02773  0.1652  -0.8331
6.304e+09  0.7774  -0.08826  0.003638  -0.008269  0.003725  -0.03029  -0.1468  -0.8147
6.305e+09  0.7014  -0.2963  -0.00747  0.02174  0.01321  -0.001248  -0.3939  -0.7147
6.306e+09  0.4825  -0.5823  -0.0006545  0.02916  0.05036  0.003644  -0.6542  -0.5442
6.308e+09  0.3509  -0.7084  0.01694  -0.02994  -0.006889  -0.007757  -0.8051  -0.3008
6.309e+09  0.07748  -0.7634  0.01161  0.006458  -0.003793  -0.01578  -0.8659  -0.00364
6.31e+09  -0.2356  -0.7741  0.03104  -0.02369  0.01253  -0.02906  -0.8359  0.2483
6.311e+09  -0.473  -0.6318  0.01734  0.02422  -0.004597  0.01064  -0.7014  0.5229
6.312e+09  -0.7327  -0.4241  0.01752  0.02462  -0.03359  0.0002019  -0.4738  0.7451
6.314e+09  -0.7766  -0.187  0.001138  -0.04032  0.01291  0.03479  -0.167  0.8498
6.315e+09  -0.7954  0.07978  0.008487  0.007419  -0.01303  -0.009305  0.1004  0.8594
6.316e+09  -0.6653  0.3814  0.01707  0.01557  0.02952  -0.009706  0.4492  0.7478
6.318e+09  -0.5382  0.5695  -0.01429  -0.03165  0.009887  -0.01149  0.6758  0.5795
6.319e+09  -0.3053  0.8016  0.01287  0.00801  -0.0205  0.0187  0.821  0.2996
6.32e+09  -0.03792  0.8013  -0.01998  0.008061  0.02567  0.03153  0.8966  0.02925
6.321e+09  0.278  0.7797  0.00906  -0.01266  -0.007052  -0.006082  0.8597  -0.2589
6.322e+09  0.4788  0.6641  0.003964  -0.008861  -0.03251  0.01837  0.7004  -0.5611
6.324e+09  0.6894  0.412  -0.001782  0.01587  -0.01557  -0.00896  0.4368  -0.7686
6.325e+09  0.8277  0.1035  -0.02446  0.002718  0.0009611  0.009012  0.1908  -0.8742
6.326e+09  0.7966  -0.1263  -0.01454  0.006164  -0.01571  -0.02428  -0.159  -0.8731
6.328e+09  0.6838  -0.3998  0.03082  -0.0247  0.02013  0.001556  -0.4208  -0.7945
6.329e+09  0.5211  -0.6388  0.02298  0.0137  -0.0128  0.01829  -0.7118  -0.5932
6.33e+09  0.2472  -0.744  0.04111  0.01747  0.03503  -0.003368  -0.8398  -0.3557
6.331e+09  -0.0144  -0.8158  -0.0149  -0.0004785  -0.004442  0.008388  -0.9133  -0.02644
6.332e+09  -0.329  -0.7641  0.04433  -0.02655  -0.009752  -0.01841  -0.8304  0.2775
6.334e+09  -0.6205  -0.6137  0.00354  0.003768  -0.0288  -0.01595  -0.7451  0.5878
6.335e+09  -0.6575  -0.4026  -0.01151  0.01133  0.001452  -0.001362  -0.5034  0.7457
6.336e+09  -0.8388  -0.04536  0.004462  -0.01437  0.01176  0.001185  -0.1887  0.8554
6.338e+09  -0.798  0.2538  0.001198  0.02641  0.01458  0.001969  0.1387  0.9341
6.339e+09  -0.6718  0.478  0.002008  0.0399  -0.03766  0.002456  0.4411  0.8224
6.34e+09  -0.4782  0.7095  0.003753  -0.0117  0.0118  0.03023  0.6781  0.6239
6.341e+09  -0.2287  0.8435  -0.01285  -0.02295  0.003849  -0.003439  0.8691  0.3716
6.342e+09  0.0001516  0.8338  0.004765  -0.01923  -0.0211  -0.0356  0.9186  0.04756
6.344e+09  0.37  0.7306  -0.0231  -0.009903  -0.009896  0.03992  0.8698  -0.2875
6.345e+09  0.6191  0.5777  -0.02407  0.004161  0.04483  -0.01478  0.774  -0.5458
6.346e+09  0.8052  0.3483  -0.00936  0.03968  -0.02414  -0.06058  0.521  -0.7951
6.348e+09  0.8258  0.02878  -0.01015  0.01047  0.005732  -0.003023  0.1965  -0.8805
6.349e+09  0.836  -0.275  -0.02037  -0.03214  0.02714  -0.005265  -0.06713  -0.9649
6.35e+09  0.6191  -0.5139  0.004131  -0.04065  0.06251  0.02077  -0.4285  -0.8323
6.351e+09  0.4263  -0.7471  0.01483  0.03098  -0.02061  -0.001048  -0.6769  -0.6487
6.352e+09  0.186  -0.7995  -0.05853  0.01444  -0.01623  0.05975  -0.8411  -0.3991
6.354e+09  -0.1722  -0.8622  0.01157  0.007978  0.03971  -0.0002912  -0.9278  -0.05525
6.355e+09  -0.4085  -0.7739  -0.04337  -0.02237  -0.05078  0.03025  -0.8825  0.2599
6.356e+09  -0.643  -0.5425  0.0127  -0.00156  0.01112  0.01101  -0.7633  0.5399
6.358e+09  -0.8174  -0.286  -0.01523  0.0167  -0.01058  -0.02263  -0.5144  0.7451
6.359e+09  -0.8682  0.00213  -0.01578  0.01165  0.007207  0.02722  -0.2063  0.903
6.36e+09  -0.8234  0.3281  -0.00992  0.011  0.04721  -0.03683  0.09716  0.9657
6.361e+09  -0.6725  0.538  0.02944  0.003155  0.05712  -0.02863  0.4347  0.8173
6.362e+09  -0.3808  0.7129  -0.02228  0.00179  -0.0002733  0.003248  0.69  0.7007
6.364e+09  -0.0682  0.8762  0.01197  -0.01408  0.02838  0.01238  0.8631  0.3924
6.365e+09  0.2199  0.8535  0.002611  0.03017  0.02019  0.04482  0.9447  0.08399
6.366e+09  0.4568  0.7585  -0.0007046  -0.007572  -0.01269  0.02962  0.922  -0.2556
6.368e+09  0.7107  0.5024  0.006188  -0.00216  0.0003234  -0.05528  0.7782  -0.5277
6.369e+09  0.7696  0.2195  0.009631  0.04704  -0.003229  0.03283  0.5663  -0.7869
6.37e+09  0.8315  -0.05058  -0.001484  -0.002644  0.02757  -0.02619  0.2634  -0.9152
6.371e+09  0.765  -0.3875  0.01426  0.006181  -0.009897  -0.0128  -0.04154  -0.9578
6.372e+09  0.6119  -0.6146  -0.02463  0.001524  -0.02247  0.01884  -0.4007  -0.8708
6.374e+09  0.3147  -0.8078  0.04911  -0.02656  0.01755  -0.03776  -0.6731  -0.6975
6.375e+09  0.01789  -0.8357  -0.009297  -0.003463  0.003546  -0.01764  -0.7914  -0.4038
6.376e+09  -0.2719  -0.8267  -0.008222  0.004961  -8.207e-05  0.01283  -0.9294  -0.06699
6.378e+09  -0.5186  -0.682  -0.001389  0.008396  0.01189  0.00102  -0.8801  0.2216
6.379e+09  -0.7324  -0.4554  0.02406  0.03489  0.0105  -0.00685  -0.7588  0.5304
6.38e+09  -0.832  -0.1791  -0.009479  0.01354  0.002804  -0.003449  -0.5564  0.7465
6.381e+09  -0.8765  0.08662  0.006224  0.00808  0.02794  -0.01501  -0.2592  0.8942
6.382e+09  -0.7379  0.4262  0.004306  0.01995  0.006116  -0.01121  0.1037  0.9155
6.384e+09  -0.535  0.6679  -0.002155  -0.000452  -0.03079  0.05119  0.3851  0.8712
6.385e+09  -0.3081  0.8477  -0.007823  -0.02418  -0.02367  -0.01578  0.6302  0.7053
6.386e+09  -0.009996  0.8288  0.02216  0.006833  0.03845  0.01591  0.8288  0.4377
6.388e+09  0.2795  0.796  -0.006775  -0.01604  0.005687  -0.01243  0.9102  0.1537
6.389e+09  0.5553  0.6828  -0.01661  0.01671  -0.03805  -0.05791  0.9035  -0.1677
6.39e+09  0.7573  0.441  0.007349  0.03308  0.005329  0.02524  0.7668  -0.4933
6.391e+09  0.8683  0.1379  0.0372  -0.04576  0.01229  0.0004929  0.5773  -0.8016
6.392e+09  0.8402  -0.1462  0.005463  0.009475  0.02371  0.01882  0.3138  -0.8943
6.394e+09  0.7362  -0.4579  -0.01043  -0.05724  -0.03481  0.00218  0.01976  -0.9467
6.395e+09  0.5097  -0.6917  0.01313  -0.001836  0.0004301  -0.01765  -0.3253  -0.8639
6.396e+09  0.2889  -0.8341  -0.02097  0.01378  0.01709  0.002551  -0.6295  -0.7173
6.398e+09  -0.05874  -0.8704  -0.03086  -0.007124  -0.004794  -0.005133  -0.822  -0.4364
6.399e+09  -0.3254  -0.7736  0.0184  -0.03085  -0.05522  -0.009955  -0.8476  -0.1491
6.4e+09  -0.5954  -0.6517  0.004813  -0.01823  -0.004554  -0.03096  -0.8937  0.1596
6.401e+09  -0.7426  -0.3978  0.004395  -0.02405  0.01795  -0.004703  -0.8171  0.4882
6.402e+09  -0.8534  -0.1017  -0.01  0.04471  0.02038  0.01531  -0.6138  0.7301
6.404e+09  -0.8145  0.2061  0.003427  -0.04029  -0.006248  -0.003439  -0.3066  0.8828
6.405e+09  -0.7106  0.4918  0.01254  0.003534  0.003335  0.01997  0.002417  0.9014
6.406e+09  -0.4914  0.6548  -0.01306  0.01459  -0.03238  0.02088  0.2854  0.9037
6.408e+09  -0.252  0.8117  -0.02822  -0.04899  0.01498  -0.007915  0.5516  0.6835
6.409e+09  0.0506  0.8599  -0.01493  0.03825  0.02994  0.0218  0.8327  0.4603
6.41e+09  0.3509  0.7563  0.007778  -0.005252  0.007037  0.01493  0.8984  0.1932
6.411e+09  0.6202  0.5714  -0.03844  -0.02176  -0.00222  0.03829  0.9194  -0.1388
6.412e+09  0.7723  0.3968  -0.01993  0.04393  0.01359  -0.01827  0.8142  -0.4513
6.414e+09  0.8719  0.08944  0.0181  0.01959  0.01276  -0.02399  0.5905  -0.6689
6.415e+09  0.7822  -0.2094  0.03982  0.005791  -0.01257  0.0206  0.2875  -0.8319
6.416e+09  0.6749  -0.5042  -0.02007  -0.02805  -0.01501  -0.009475  0.01811  -0.9068
6.418e+09  0.4836  -0.7492  0.004055  0.01924  0.008995  0.05689  -0.2772  -0.8516
6.419e+09  0.2661  -0.8115  -0.009425  -0.009937  -0.01963  -0.01926  -0.5154  -0.7305
6.42e+09  -0.04048  -0.8128  -0.04477  0.009838  -0.01274  0.003398  -0.7714  -0.4954
6.421e+09  -0.3705  -0.7932  -0.02972  0.02408  -0.01341  -0.0007434  -0.8373  -0.1865
6.422e+09  -0.6148  -0.6004  0.004696  -0.01563  0.0352  0.001701  -0.9005  0.1346
6.424e+09  -0.7727  -0.334  -0.03011  -0.05211  -0.003193  0.04903  -0.7776  0.4141
6.425e+09  -0.8685  -0.02896  -0.008829  0.021  0.02995  -0.01286  -0.5846  0.6331
6.426e+09  -0.8  0.2662  -0.01736  -0.02592  -0.008811  -0.02172  -0.3595  0.7224
6.428e+09  -0.6606  0.4962  -0.009704  0.0153  0.004187  -0.05389  -0.00801  0.8804
6.429e+09  -0.4918  0.7065  -0.0001343  0.02088  0.00533  -0.002601  0.2962  0.8373
6.43e+09  -0.2121  0.8384  -0.004491  0.0181  0.01539  0.004992  0.4956  0.7127
6.431e+09  0.1348  0.83  0.01561  -0.02236  0.03714  0.04997  0.7265  0.4561
6.432e+09  0.3592  0.7773  0.005885  -0.00106  -0.04248  0.02713  0.8542  0.2366
6.434e+09  0.5998  0.5365  -0.01165  0.01485  0.01521  0.05952  0.9066  -0.116
6.435e+09  0.7688  0.3187  -0.01885  -0.02009  0.02559  0.001902  0.7805  -0.3806
6.436e+09  0.8009  -0.04767  -0.01091  0.0185  0.01691  0.01181  0.576  -0.6233
6.438e+09  0.8214  -0.2556  -0.03086  0.0161  0.03131  -0.01747  0.3511  -0.7776
6.439e+09  0.6732  -0.5412  0.008428  0.00499  0.0007112  -0.04204  0.0762  -0.8383
6.44e+09  0.4458  -0.6842  -0.00665  0.006277  -0.01637  -0.02096  -0.211  -0.8173
6.441e+09  0.1937  -0.8265  0.01696  0.003802  -0.006753  0.002473  -0.4897  -0.6815
6.442e+09  -0.09738  -0.8627  0.03034  -0.0106  -0.01573  -0.02579  -0.7075  -0.4865
6.444e+09  -0.3756  -0.7838  0.03387  -0.03747  0.05296  0.0004475  -0.8192  -0.1916
6.445e+09  -0.6929  -0.537  -0.03871  -0.01293  0.08162  0.004235  -0.8089  0.07123
6.446e+09  -0.8209  -0.2855  -0.03999  0.01569  -0.02378  -0.05479  -0.7185  0.3222
6.448e+09  -0.8332  -0.04321  -0.0134  -0.01907  0.01739  0.0005767  -0.5615  0.6664
6.449e+09  -0.75  0.305  0.02004  0.02196  0.01389  -0.02785  -0.3301  0.763
6.45e+09  -0.6596  0.5686  0.01581  -0.02014  0.04259  0.002072  -0.09725  0.8105
6.451e+09  -0.4296  0.7899  0.02843  0.05444  0.01993  -0.03341  0.2067  0.7828
6.452e+09  -0.1626  0.7508  -0.02837  -0.01959  0.04431  0.03573  0.4924  0.6995
6.454e+09  0.1446  0.8588  -0.07525  0.02525  -0.02919  0.01859  0.6745  0.4608
6.455e+09  0.456  0.6748  0.05818  -0.00613  -0.02983  -0.01256  0.7971  0.2473
6.456e+09  0.5727  0.56  -0.01185  -0.02171  -0.02009  0.04308  0.7924  -0.04112
6.458e+09  0.7586  0.3198  -0.02659  -0.02199  -0.03263  0.004604  0.7262  -0.3295
6.459e+09  0.8397  0.01416  0.000183  0.001489  -0.009747  0.005385  0.5791  -0.5831
6.46e+09  0.7708  -0.2736  0.01616  -0.04095  0.003967  0.008365  0.3731  -0.7624
6.461e+09  0.713  -0.5122  0.03163  -0.005152  0.03373  -0.04678  0.07477  -0.8006
6.462e+09  0.4189  -0.7173  0.0009582  0.02146  0.005164  -0.006784  -0.1678  -0.7863
6.464e+09  0.1379  -0.8447  0.01925  0.002151  0.02225  -0.02836  -0.4051  -0.6814
6.465e+09  -0.1559  -0.8621  -0.02351  0.02678  -0.03181  -0.03147  -0.7114  -0.4781
6.466e+09  -0.4083  -0.7304  -0.006034  -0.02274  0.0005522  -0.01989  -0.736  -0.2148
6.468e+09  -0.6632  -0.5136  -0.04531  -0.0238  0.001951  -0.006505  -0.8218  0.07951
6.469e+09  -0.775  -0.2731  -0.0494  0.0439  -0.00372  -0.02712  -0.7416  0.3522
6.47e+09  -0.8089  -0.03499  0.01389  -0.04282  -0.009627  0.02051  -0.5189  0.5685
6.471e+09  -0.7579  0.2966  0.002694  -0.01919  -0.01703  -0.003524  -0.3423  0.6807
6.472e+09  -0.6468  0.5094  -0.02656  -0.02208  0.01002  0.02107  -0.09993  0.7659
6.474e+09  -0.4191  0.7391  -0.03675  0.02731  0.008767  -0.05941  0.1924  0.7897
6.475e+09  -0.1414  0.874  -0.009272  0.0417  0.0009446  -0.0287  0.471  0.5937
6.476e+09  0.1886  0.8465  -0.007854  0.0247  0.01412  -0.0496  0.6488  0.4248
6.478e+09  0.4699  0.7116  0.03225  -0.03271  -0.03758  -0.02427  0.7323  0.1924
6.479e+09  0.6943  0.5287  -0.005899  0.01831  0.01109  -0.01245  0.7602  -0.06798
6.48e+09  0.8047  0.2318  -0.004507  0.004781  0.01056  0.02172  0.6922  -0.342
6.481e+09  0.875  -0.004396  0.05154  -0.02651  0.0246  0.04331  0.5673  -0.5795
6.482e+09  0.8121  -0.3549  0.01377  0.003849  0.04503  -0.0003287  0.2764  -0.6748
6.484e+09  0.6589  -0.5589  0.02016  0.02102  0.04743  0.007962  0.07535  -0.7654
6.485e+09  0.4154  -0.7852  -0.006909  -0.002956  0.01287  -0.001713  -0.2364  -0.714
6.486e+09  0.08353  -0.8413  -0.01445  0.007825  -0.007608  -0.001632  -0.4537  -0.5852
6.488e+09  -0.2845  -0.1284  -0.01382  0.02745  -0.4747  0.5432  -0.6175  -0.4128
6.489e+09  -0.468  -0.7402  0.01263  0.005156  -0.005949  0.009046  -0.7571  -0.1456
6.49e+09  -0.6963  -0.5275  -0.005935  0.005358  0.04281  0.008322  -0.7216  0.1251
6.491e+09  -0.8133  -0.2853  0.004084  -0.0139  -0.03297  -0.03579  -0.7124  0.3334
6.492e+09  -0.8353  -0.001579  0.04221  0.00755  -0.01762  0.009734  -0.5138  0.542
6.494e+09  -0.6998  0.3605  0.003259  0.0002706  0.1208  -0.1168  -0.3105  0.6999
6.495e+09  -0.6281  0.59  -0.01316  0.002502  -0.01632  -0.01685  -0.04643  0.769
6.496e+09  -0.4652  0.7419  0.000289  -0.009046  0.006638  0.04141  0.221  0.7172
6.498e+09  -0.07564  0.8924  -0.007071  0.04769  0.03718  0.06908  0.4769  0.6146
6.499e+09  0.1605  0.8689  0.03711  0.01226  0.007092  -0.02538  0.6577  0.4134
6.5e+09  0.4512  0.7553  0.013  0.01757  -0.01262  0.02526  0.7297  0.1715
6.501e+09  0.6976  0.5438  -0.03109  0.0206  0.00968  0.0197  0.7588  -0.1031
6.502e+09  0.8319  0.2486  -0.01944  -0.01631  0.01986  0.0367  0.6794  -0.392
6.504e+09  0.8967  -0.05553  -0.009965  0.03922  -0.01001  0.009544  0.4756  -0.5517
6.505e+09  0.8194  -0.3733  0.03904  -0.006752  0.05425  -0.02893  0.2763  -0.7021
6.506e+09  0.6602  -0.665  0.01038  -0.01838  0.01767  -0.05458  0.00585  -0.7544
6.508e+09  0.3771  -0.7934  0.004017  0.01078  -0.01581  -0.008173  -0.2363  -0.7438
6.509e+09  0.08968  -0.8524  -0.00782  0.02389  -0.02018  -0.004847  -0.4911  -0.609
6.51e+09  -0.1765  -0.8354  -0.01221  0.001849  -0.02309  0.0001698  -0.677  -0.4017
6.511e+09  -0.495  -0.7346  -0.008727  0.03124  0.002769  0.01963  -0.7268  -0.1543
6.512e+09  -0.6982  -0.5439  0.01381  -0.008527  0.04919  0.001629  -0.7309  0.12
6.514e+09  -0.8549  -0.2784  -0.01976  -0.02735  0.0455  0.00139  -0.6263  0.3804
6.515e+09  -0.9283  0.08666  0.0007068  0.0108  0.007509  -0.01333  -0.5218  0.5776
6.516e+09  -0.8789  0.3633  0.0146  -0.01122  -0.01366  -0.03977  -0.2348  0.6886
6.518e+09  -0.6236  0.5848  -0.01875  -0.01479  0.00224  0.0001411  -0.01569  0.7679
6.519e+09  -0.3206  0.8369  -0.01967  0.03471  -0.05028  -0.004187  0.2331  0.642
6.52e+09  -0.06948  0.9194  0.006566  0.02966  0.02261  -0.02979  0.4641  0.5492
6.521e+09  0.2418  0.8614  0.03223  0.04183  0.009011  -0.02633  0.6554  0.3681
6.522e+09  0.548  0.7071  -0.01778  -0.02547  0.01104  0.01931  0.7286  0.1099
6.524e+09  0.7383  0.4491  -0.007018  -0.0004339  -0.009109  -0.002747  0.7015  -0.1678
6.525e+09  0.9368  0.2402  -0.02273  0.02022  -0.004563  0.0112  0.5909  -0.3941
6.526e+09  0.8657  -0.1736  -0.02634  0.005576  -0.01977  -0.01036  0.4164  -0.5858
6.528e+09  0.8372  -0.4323  -0.0126  -0.006073  -0.0381  0.0002876  0.1966  -0.6698
6.529e+09  0.6177  -0.6471  0.01632  -0.01028  0.05012  0.01583  -0.03675  -0.7187
6.53e+09  0.3311  -0.8824  0.02605  0.01683  -0.03519  0.04454  -0.297  -0.6541
6.531e+09  0.01791  -0.9109  -0.005222  0.004158  0.00761  0.008543  -0.4953  -0.4889
6.532e+09  -0.2757  -0.8796  0.02224  0.01314  -0.008346  0.04265  -0.6065  -0.2748
6.534e+09  -0.5701  -0.7522  0.001099  0.04664  0.01263  0.008974  -0.6334  -0.06658
6.535e+09  -0.8144  -0.4894  0.01213  0.004644  0.0028  -0.04689  -0.6352  0.09542
6.536e+09  -0.9635  -0.1613  0.01261  0.003928  -0.008076  0.02421  -0.6097  0.2896
6.538e+09  -0.9234  0.1665  0.000945  -0.006243  -0.01457  -0.001252  -0.4485  0.4662
6.539e+09  -0.8228  0.492  -0.01673  -0.01014  -0.0105  -0.04168  -0.2559  0.6398
6.54e+09  -0.5855  0.6851  -0.01699  0.004548  0.02506  0.04335  -0.0829  0.6761
6.541e+09  -0.2763  0.8732  0.01095  -0.01178  0.01438  0.01811  0.1952  0.6286
6.542e+09  0.009688  0.9302  -0.01667  0.015  -0.006583  0.008576  0.4206  0.5919
6.544e+09  0.3102  0.8686  -0.006889  0.001968  0.015  -0.01913  0.5944  0.398
6.545e+09  0.6715  0.6908  0.02331  -0.04261  -0.01044  -0.03977  0.686  0.1423
6.546e+09  0.891  0.4567  0.01522  0.01472  -0.002297  -0.04287  0.7418  -0.09012
6.548e+09  0.9946  0.1261  0.02247  -0.02068  0.008175  -0.06027  0.669  -0.3339
6.549e+09  0.8598  -0.2617  0.02861  0.007808  0.01768  -0.00291  0.5168  -0.5468
6.55e+09  0.8002  -0.5649  0.0004487  0.05151  0.003572  0.008565  0.2363  -0.7011
