# Hz S RI R 50
6.25e+09  -0.6433  0.5163  -0.009449  0.0003117  0.01305  -0.01416  0.1513  0.4874
6.251e+09  -0.3743  0.6687  0.007673  -0.05572  0.003233  -0.02799  0.4016  0.4197
6.252e+09  -0.2023  0.8029  -0.03546  0.02572  -0.009189  0.01661  0.506  0.2534
6.254e+09  0.1574  0.8342  0.03421  -0.002676  -0.006806  -0.04941  0.6149  0.01241
6.255e+09  0.4767  0.7312  0.01041  -0.005583  -0.01971  0.02049  0.5632  -0.1816
6.256e+09  0.5923  0.5451  0.0003055  0.02567  -0.01452  -0.03608  0.4679  -0.4487
6.258e+09  0.7919  0.3176  -0.03383  -0.003157  -0.009053  0.006415  0.2803  -0.5789
6.259e+09  0.8264  0.05157  0.02809  -0.00953  0.04339  -0.07909  0.05208  -0.6957
6.26e+09  0.728  -0.2517  -0.008766  -0.0171  0.04451  -0.04127  -0.221  -0.6338
6.261e+09  0.6332  -0.4913  -0.01926  0.0007081  -0.00207  0.0583  -0.4215  -0.5312
6.262e+09  0.3984  -0.7438  0.002611  0.02691  -0.02664  0.03396  -0.5588  -0.3273
6.264e+09  0.1804  -0.7501  0.006195  0.006136  0.02581  -0.03646  -0.6874  -0.118
6.265e+09  -0.1489  -0.7877  0.008039  -0.007539  0.04428  0.05675  -0.7148  0.1526
6.266e+09  -0.4486  -0.7071  0.004979  -0.01768  0.02221  -0.00542  -0.6082  0.4274
6.268e+09  -0.6145  -0.5485  0.02187  0.001781  -0.02928  -0.0622  -0.4283  0.6039
6.269e+09  -0.7907  -0.3414  0.01256  0.009875  -0.0378  -0.03769  -0.1923  0.6955
6.27e+09  -0.803  -0.01232  0.02078  0.0006375  -0.08468  -0.007924  0.1005  0.7294
6.271e+09  -0.7873  0.2852  -0.01679  -0.05605  -0.004796  0.05847  0.324  0.6801
6.272e+09  -0.6235  0.4933  0.0005629  -0.02136  0.04202  -0.006766  0.5411  0.5337
6.274e+09  -0.3849  0.69  -0.03252  0.001904  -0.03483  0.02346  0.6857  0.3052
6.275e+09  -0.1245  0.7518  0.02014  -0.01221  0.04258  0.03048  0.765  0.05276
6.276e+09  0.1253  0.8006  0.003887  0.002739  -0.005187  -0.004859  0.7525  -0.2132
6.278e+09  0.3689  0.6777  -0.01109  -0.01162  0.004882  2.528e-05  0.5804  -0.4513
6.279e+09  0.6326  0.5077  0.0003168  -0.01012  0.03654  0.01497  0.3762  -0.6475
6.28e+09  0.7128  0.2907  -0.01736  -0.008523  0.05377  -0.002348  0.2065  -0.7619
6.281e+09  0.8058  -0.000619  -0.0234  -0.0112  -0.03061  -0.04247  -0.1163  -0.7803
6.282e+09  0.7411  -0.2708  -0.02853  -0.01336  0.04357  -0.01658  -0.3423  -0.6892
6.284e+09  0.554  -0.5019  0.02529  0.004759  0.03893  -0.04136  -0.5573  -0.4999
6.285e+09  0.3675  -0.7288  0.0006932  0.01253  -0.002277  0.02169  -0.744  -0.3121
6.286e+09  0.06348  -0.7923  0.0185  0.02373  -0.003294  0.03179  -0.8173  -0.007717
6.288e+09  -0.1284  -0.8043  0.02504  -0.01022  0.03279  0.00122  -0.7381  0.2759
6.289e+09  -0.4273  -0.6539  -0.01768  0.01003  -0.04524  0.03794  -0.6426  0.5004
6.29e+09  -0.6011  -0.5064  -0.005899  -0.001519  0.01526  -0.0271  -0.4283  0.7004
6.291e+09  -0.7762  -0.2372  -0.01807  0.02613  0.02992  -0.03472  -0.1354  0.7893
6.292e+09  -0.7676  0.06015  0.004641  -0.03003  -0.009475  -0.0244  0.09606  0.8154
6.294e+09  -0.7328  0.3089  -0.002723  -0.02288  -0.01542  0.009727  0.3974  0.7162
6.295e+09  -0.5882  0.525  -0.01772  0.03053  -0.03946  -0.02212  0.6415  0.4977
6.296e+09  -0.3843  0.7315  0.01493  0.004922  -0.004592  -0.002964  0.7638  0.2851
6.298e+09  -0.1242  0.8076  0.015  0.02948  -0.02797  0.03462  0.8044  0.02095
6.299e+09  0.1899  0.8322  0.01938  0.03232  0.02943  -0.002353  0.7863  -0.2618
6.3e+09  0.4357  0.6565  -0.03038  0.00611  0.0285  -0.02558  0.6346  -0.5374
6.301e+09  0.6535  0.4635  0.02254  0.02048  -0.008646  0.005475  0.4326  -0.7434
6.302e+09  0.7987  0.2517  -0.02836  -0.01874  0.03855  -0.03449  0.1717  -0.8126
6.304e+09  0.778  -0.0321  -0.006299  0.004642  -0.02262  0.01921  -0.1298  -0.8561
6.305e+09  0.7257  -0.3555  0.01524  -0.02375  -0.04918  -0.0009148  -0.3877  -0.6884
6.306e+09  0.5798  -0.53  -0.01193  0.002722  0.005256  0.06281  -0.6229  -0.5548
6.308e+09  0.3605  -0.7136  -0.007095  0.002345  -0.0319  -0.06174  -0.7576  -0.3233
6.309e+09  0.0698  -0.826  -0.02047  0.009902  -0.02264  -0.0309  -0.8412  -0.02944
6.31e+09  -0.1818  -0.7942  0.02301  0.001979  -0.007854  0.004664  -0.8053  0.2957
6.311e+09  -0.4609  -0.6831  -0.02857  -0.008011  0.003139  -0.002772  -0.6493  0.5778
6.312e+09  -0.6895  -0.49  -0.02549  -0.001959  0.03183  -0.03326  -0.4421  0.7253
6.314e+09  -0.8085  -0.1936  -0.01239  0.02049  0.001776  -0.01919  -0.1885  0.8252
6.315e+09  -0.7829  0.1087  -0.001265  -0.02826  -0.01909  -0.001845  0.1255  0.8868
6.316e+09  -0.7488  0.3294  0.01877  0.02125  0.007804  0.01888  0.4266  0.769
6.318e+09  -0.6122  0.6108  -0.0001146  0.005457  -0.05012  0.008164  0.654  0.5748
6.319e+09  -0.3488  0.7157  -0.02405  -0.008624  -0.01954  -0.001924  0.8361  0.3072
6.32e+09  -0.02782  0.8572  -0.001388  0.02891  -0.004204  0.04592  0.8817  0.02876
6.321e+09  0.2125  0.7586  -0.02858  0.0246  0.007073  0.01158  0.8075  -0.2934
6.322e+09  0.5228  0.6344  0.003928  -0.03178  -0.0532  -0.0007721  0.7296  -0.5486
6.324e+09  0.6865  0.4263  -0.009859  -0.003089  0.01375  0.0205  0.4696  -0.8102
6.325e+09  0.8275  0.1826  -0.05038  0.02434  0.04247  -0.02334  0.2024  -0.8858
6.326e+09  0.7691  -0.1955  0.002877  0.04088  -0.03155  0.009601  -0.174  -0.8965
6.328e+09  0.7427  -0.3759  -0.01543  -0.006884  -0.02843  0.00862  -0.4175  -0.7878
6.329e+09  0.5147  -0.6523  -0.01488  -0.02312  -0.008395  -0.002336  -0.6659  -0.6082
6.33e+09  0.3362  -0.7925  0.01482  0.001112  0.01833  0.006615  -0.8738  -0.3441
6.331e+09  -0.01077  -0.8277  -0.0005438  -0.0249  0.01504  -0.006208  -0.8933  -0.02982
6.332e+09  -0.3088  -0.7504  0.002604  0.007591  0.01128  0.01575  -0.8463  0.2649
6.334e+09  -0.5678  -0.6295  0.005169  -0.009324  -0.02161  0.01904  -0.6928  0.5738
6.335e+09  -0.7041  -0.3706  -0.008319  -0.03048  0.01334  0.008016  -0.5088  0.7659
6.336e+09  -0.8284  -0.1782  -0.001479  0.01175  -0.03254  -0.005814  -0.2111  0.864
6.338e+09  -0.813  0.1858  -0.001004  -0.02174  0.003663  0.008239  0.1237  0.8999
6.339e+09  -0.7556  0.4656  0.0228  -0.008599  -0.01097  0.006629  0.4524  0.792
6.34e+09  -0.5313  0.6472  -0.007415  0.006538  -0.004065  0.003378  0.6653  0.6473
6.341e+09  -0.2996  0.8003  0.001685  0.009679  -0.04874  0.01191  0.8196  0.3527
6.342e+09  0.04343  0.849  -0.005462  0.03431  -0.03443  0.01394  0.9349  0.05975
6.344e+09  0.3317  0.7562  -0.02749  -0.004443  -0.03103  0.01733  0.8789  -0.2613
6.345e+09  0.5703  0.5961  -0.02306  -0.003245  -0.0002039  0.02865  0.7025  -0.5711
6.346e+09  0.7795  0.3524  -0.000811  -0.0145  -0.006067  0.009893  0.5456  -0.8021
6.348e+09  0.8817  0.08072  0.01485  0.01897  0.02842  0.02692  0.1967  -0.9274
6.349e+09  0.7962  -0.2146  0.01293  0.01332  -0.008974  0.003855  -0.09715  -0.9158
6.35e+09  0.6669  -0.4983  0.005196  0.02253  -0.008562  -0.002365  -0.4232  -0.8363
6.351e+09  0.516  -0.7614  -0.01544  0.01166  0.01188  0.01356  -0.6487  -0.6099
6.352e+09  0.1798  -0.8424  -0.02562  0.0004166  -0.02907  0.01566  -0.8662  -0.4009
6.354e+09  -0.08971  -0.8293  -0.01469  0.01053  0.02466  0.04211  -0.9119  -0.06801
6.355e+09  -0.3404  -0.754  0.01935  -0.006159  0.005965  -0.01409  -0.8979  0.2522
6.356e+09  -0.6278  -0.5738  0.03083  -0.0006005  0.01387  0.02684  -0.7748  0.5626
6.358e+09  -0.7807  -0.2905  0.004273  0.02018  0.008874  0.005839  -0.5335  0.7664
6.359e+09  -0.8486  -0.02616  0.02366  0.02314  0.006178  0.01573  -0.2466  0.9324
6.36e+09  -0.7899  0.2804  0.01407  0.006001  0.0275  -0.01247  0.07453  0.9418
6.361e+09  -0.6173  0.5262  0.009606  -0.04417  0.02043  0.0249  0.4216  0.8512
6.362e+09  -0.3885  0.7391  0.0001776  -0.0382  0.02274  -0.02547  0.6855  0.6857
6.364e+09  -0.1112  0.8023  0.0053  -0.01222  -0.003595  0.0002987  0.8734  0.4107
6.365e+09  0.1756  0.857  -0.02966  0.001652  0.007896  -0.008489  0.9946  0.1165
6.366e+09  0.5211  0.7969  -0.01993  0.01846  -0.004702  0.004757  0.9167  -0.2539
6.368e+09  0.6848  0.5054  0.01696  -0.007603  0.03314  0.02249  0.763  -0.5354
6.369e+09  0.7984  0.2553  -0.02522  -0.01702  -0.003641  -0.009813  0.5465  -0.7692
6.37e+09  0.8203  -0.04333  0.08019  0.0173  0.02084  0.003194  0.2477  -0.913
6.371e+09  0.805  -0.3318  -0.005282  0.01306  -0.03575  0.05808  -0.07334  -0.9489
6.372e+09  0.6263  -0.5903  0.008698  0.01535  -0.01409  -0.01006  -0.3989  -0.819
6.374e+09  0.3824  -0.7682  -0.01535  -0.007559  -0.02709  0.04509  -0.6733  -0.6735
6.375e+09  0.05719  -0.8496  0.01012  -0.02886  -0.003049  0.005971  -0.8324  -0.3807
6.376e+09  -0.1777  -0.8197  -0.01369  -0.007249  0.01827  0.003107  -0.9371  -0.08547
6.378e+09  -0.5183  -0.6897  -0.004896  0.01019  -0.0006418  -0.01161  -0.876  0.2251
6.379e+09  -0.7241  -0.4553  -0.004146  0.002289  -0.009192  0.01176  -0.7896  0.5212
6.38e+09  -0.7765  -0.1964  0.001008  0.00582  -0.0232  0.02766  -0.5379  0.7735
6.381e+09  -0.8324  0.1221  0.03954  -0.007407  -0.0004055  -0.03164  -0.2581  0.881
6.382e+09  -0.8107  0.4234  -0.0376  -0.02072  0.0369  0.03505  0.05388  0.9287
6.384e+09  -0.5869  0.6734  0.002272  0.004972  -0.02029  -0.0335  0.3806  0.8533
6.385e+09  -0.3861  0.7682  0.01728  -0.004304  0.0292  0.01627  0.5809  0.6457
6.386e+09  -0.02199  0.8614  -0.03507  0.01907  0.007863  -0.01031  0.84  0.4117
6.388e+09  0.2881  0.7748  -0.02259  -0.03661  0.0111  0.023  0.9516  0.1063
6.389e+09  0.5549  0.6877  -0.005111  0.01417  -0.01636  -0.03343  0.8734  -0.2162
6.39e+09  0.7118  0.4461  -0.01585  -0.01386  0.03007  -0.02287  0.77  -0.5289
6.391e+09  0.8483  0.159  -0.03185  0.01461  0.00648  -0.005326  0.5863  -0.7442
6.392e+09  0.8369  -0.1331  -0.004984  -0.05138  0.0081  -0.04802  0.2714  -0.8531
6.394e+09  0.7258  -0.4477  -0.02648  -0.00394  0.005211  -0.005529  -0.06711  -0.9132
6.395e+09  0.575  -0.6823  -0.03545  0.05723  -0.01082  -0.00576  -0.3629  -0.8481
6.396e+09  0.2861  -0.8401  0.00946  0.007006  0.05028  -0.004837  -0.599  -0.6831
6.398e+09  -0.02872  -0.8618  -0.01203  0.0273  0.03  -0.04222  -0.8212  -0.4679
6.399e+09  -0.3015  -0.8088  -0.04184  -0.03516  -0.03286  0.03612  -0.9283  -0.1225
6.4e+09  -0.5763  -0.6754  -0.0163  -0.004432  0.007436  -0.01274  -0.8814  0.1752
6.401e+09  -0.7753  -0.3681  0.02423  0.07268  -0.03363  -0.02348  -0.7612  0.4698
6.402e+09  -0.8516  -0.07958  -0.04682  0.04228  0.06052  -0.01008  -0.5971  0.719
6.404e+09  -0.8227  0.1509  -0.03923  -0.03131  -0.01742  -0.01833  -0.2933  0.8465
6.405e+09  -0.7179  0.488  0.02986  -0.0261  -0.01935  -0.007235  0.002954  0.8985
6.406e+09  -0.5339  0.6485  0.01444  -0.02643  -0.06549  0.02368  0.3188  0.8512
6.408e+09  -0.2313  0.805  0.0002155  0.04747  0.0005015  -0.01172  0.5557  0.7162
6.409e+09  -0.02043  0.8197  -0.001875  0.007161  0.02923  0.003139  0.7508  0.4234
6.41e+09  0.335  0.7913  -0.03914  0.02768  0.0227  -0.01235  0.8879  0.1582
6.411e+09  0.5425  0.6236  0.01414  -0.012  0.01372  0.0289  0.9095  -0.116
6.412e+09  0.8008  0.3974  0.04136  -0.0006573  -0.007931  0.03967  0.7899  -0.4181
6.414e+09  0.8457  0.04894  0.03146  -0.01353  -0.02791  -0.05997  0.5752  -0.6854
6.415e+09  0.7493  -0.2354  -0.003869  0.01546  -0.01516  -0.009291  0.2825  -0.8186
6.416e+09  0.6866  -0.4745  0.007733  -0.01679  -0.01974  0.007672  0.008354  -0.9165
6.418e+09  0.5208  -0.721  -0.04134  0.0005737  0.01339  -0.03115  -0.3099  -0.7952
6.419e+09  0.2003  -0.8528  0.01728  -0.0149  0.008349  -0.002981  -0.5311  -0.7027
6.42e+09  -0.09703  -0.8402  -0.01745  -0.02131  0.005858  -0.0147  -0.7561  -0.4868
6.421e+09  -0.3319  -0.7783  -0.007116  0.02013  0.0007258  0.009903  -0.8813  -0.2258
6.422e+09  -0.5779  -0.5755  0.002274  -0.02704  -0.01183  -0.01164  -0.8583  0.1427
6.424e+09  -0.7902  -0.3613  -0.06382  0.001394  0.001867  -0.007063  -0.7622  0.3892
6.425e+09  -0.8738  -0.03557  0.01742  -0.03146  -0.02041  0.0105  -0.6174  0.6364
6.426e+09  -0.7892  0.2074  0.0009055  0.03319  0.01029  -0.01303  -0.3273  0.7784
6.428e+09  -0.666  0.5151  -0.02147  -0.03228  -0.02652  -0.006452  -0.03068  0.8656
6.429e+09  -0.4933  0.6683  0.02651  0.01224  0.017  -0.009225  0.239  0.8666
6.43e+09  -0.23  0.7954  0.0007282  -0.005559  -0.007962  0.01386  0.5435  0.7034
6.431e+09  0.1086  0.7848  0.008189  0.01846  0.02284  0.001594  0.7223  0.4555
6.432e+09  0.3567  0.7995  -0.04387  0.06167  0.04453  0.02952  0.8131  0.1811
6.434e+09  0.6153  0.548  0.0101  0.003286  -0.02717  -0.04638  0.84  -0.123
6.435e+09  0.7625  0.3213  -0.02914  0.01297  -0.02614  -0.0227  0.7254  -0.3661
6.436e+09  0.8489  0.01926  -0.01036  -0.002515  0.004266  -0.00707  0.5866  -0.6274
6.438e+09  0.8018  -0.2367  -0.04537  -0.02263  0.01849  -0.0318  0.3383  -0.7666
6.439e+09  0.6579  -0.5141  0.01066  0.02332  -0.04205  -0.04187  0.07454  -0.8542
6.44e+09  0.4328  -0.7665  0.01752  0.0224  -0.03065  0.02042  -0.2489  -0.7767
6.441e+09  0.172  -0.8342  0.008676  0.01791  -0.01048  -0.003949  -0.491  -0.7119
6.442e+09  -0.1342  -0.8464  -0.01704  0.004921  0.003389  -0.01096  -0.674  -0.4547
6.444e+09  -0.3881  -0.6826  0.01776  -0.01418  -0.02977  -0.01178  -0.8118  -0.2317
6.445e+09  -0.5906  -0.555  0.01024  0.01218  0.003087  0.01419  -0.8738  0.1003
6.446e+09  -0.8068  -0.2994  -0.01363  0.0165  0.005719  -0.01656  -0.7698  0.3512
6.448e+09  -0.8413  -0.03922  0.03044  -0.02166  0.04656  -0.03685  -0.5824  0.5459
6.449e+09  -0.8292  0.2723  -0.01081  -0.0007429  -0.01071  -0.01972  -0.3719  0.7328
6.45e+09  -0.6636  0.5172  -0.01988  0.00637  -0.01828  0.03664  -0.1095  0.846
6.451e+09  -0.4331  0.6847  -0.007037  0.004383  0.04826  0.0149  0.235  0.7958
6.452e+09  -0.1753  0.8333  -0.01062  -0.05854  0.02151  0.02002  0.482  0.691
6.454e+09  0.08316  0.7752  -0.02763  -0.03128  0.02908  0.01484  0.7284  0.4687
6.455e+09  0.382  0.7116  0.01963  -0.03532  0.03648  0.01561  0.8099  0.1949
6.456e+09  0.6589  0.5935  0.03773  0.001269  0.01723  0.02027  0.7983  -0.079
6.458e+09  0.8047  0.2414  0.009657  0.005249  -0.05122  -0.006176  0.7639  -0.3209
6.459e+09  0.8934  0.01472  0.01398  0.02963  0.004091  0.01409  0.5914  -0.5671
6.46e+09  0.8141  -0.3064  0.01506  -0.003837  -0.02595  0.03757  0.3203  -0.7297
6.461e+09  0.656  -0.5089  -0.02746  -0.03514  -0.01608  -0.01329  0.06175  -0.814
6.462e+09  0.4037  -0.7041  -0.03808  -0.01821  -0.02951  0.01155  -0.2347  -0.7754
6.464e+09  0.2062  -0.8315  -0.01005  -0.02733  0.02841  -0.001791  -0.4921  -0.6605
6.465e+09  -0.06148  -0.8155  0.01483  -0.02381  0.002413  0.0459  -0.6159  -0.4331
6.466e+09  -0.4064  -0.7735  0.01303  0.009782  -0.01061  -0.02085  -0.7901  -0.1761
6.468e+09  -0.6329  -0.5448  -0.03387  -0.009075  -0.01358  0.002871  -0.7883  0.04464
6.469e+09  -0.8027  -0.2626  0.003596  -0.004705  0.000567  -0.004958  -0.6755  0.3564
6.47e+09  -0.8038  0.0395  -0.00977  -0.04586  0.003584  0.03122  -0.5644  0.5726
6.471e+09  -0.7925  0.2728  -0.05106  0.04733  0.015  0.0295  -0.3715  0.7045
6.472e+09  -0.673  0.5766  -0.0395  -0.02783  -0.02344  0.02866  -0.07117  0.754
6.474e+09  -0.4742  0.7309  -0.04885  -0.03782  -0.005115  0.005612  0.2323  0.7642
6.475e+09  -0.1419  0.8684  0.01661  -0.003266  0.01991  0.01494  0.4575  0.655
6.476e+09  0.09138  0.8483  0.03806  -0.0008615  -0.03014  0.0112  0.647  0.4169
6.478e+09  0.4285  0.7291  -0.01641  -0.01112  0.003683  -0.004292  0.7682  0.19
6.479e+09  0.6696  0.4824  0.02649  -0.03615  0.02852  -0.005386  0.75  -0.07087
6.48e+09  0.7796  0.3286  -0.01995  0.005609  0.00836  -0.006936  0.6552  -0.3408
6.481e+09  0.8604  -0.02319  -0.007117  -0.03928  -0.0109  -0.02749  0.5474  -0.5834
6.482e+09  0.7735  -0.2557  0.003323  0.01066  0.01693  -0.04117  0.3102  -0.6825
6.484e+09  0.6469  -0.5547  -0.001349  -0.05259  0.01856  0.03653  0.04674  -0.7623
6.485e+09  0.4271  -0.7226  -0.01834  -0.04519  0.002577  -0.03529  -0.2018  -0.7259
6.486e+09  0.134  -0.8318  0.01402  -0.05771  -0.02509  -0.01299  -0.4519  -0.6012
6.488e+09  -0.2614  -0.1237  -0.01359  0.01208  -0.7221  -0.001371  -0.6799  -0.3922
6.489e+09  -0.394  -0.7401  -0.01834  -0.009278  0.005518  -0.0152  -0.7812  -0.181
6.49e+09  -0.6788  -0.5506  0.005863  0.05488  0.0209  -0.0287  -0.778  0.0845
6.491e+09  -0.7942  -0.2885  -0.02734  0.01892  0.009  -0.004927  -0.7058  0.3581
6.492e+09  -0.8377  -0.03955  0.006333  -0.004224  -0.0252  0.03856  -0.5245  0.5458
6.494e+09  -0.6766  0.3159  0.01035  -0.01285  -0.124  -0.03749  -0.2755  0.7131
6.495e+09  -0.6842  0.5378  -0.01757  0.03163  0.03253  -0.005905  -0.03276  0.7682
6.496e+09  -0.3916  0.7554  -0.0189  -0.003695  0.01613  -0.03698  0.2336  0.7127
6.498e+09  -0.1375  0.8412  -0.003774  -0.01132  0.04575  0.03379  0.4677  0.6016
6.499e+09  0.1203  0.8931  0.03216  0.01093  -0.008103  0.01612  0.6307  0.4127
6.5e+09  0.4127  0.7887  0.06419  -0.007116  0.01225  0.00825  0.7299  0.174
6.501e+09  0.6881  0.4998  0.02922  0.004519  -0.03778  -0.03082  0.7367  -0.09465
6.502e+09  0.822  0.2618  -0.0009307  0.005956  0.01351  -0.02288  0.6804  -0.3698
6.504e+09  0.8803  -0.00464  -0.03285  0.007957  -0.01014  0.04185  0.4988  -0.6091
6.505e+09  0.8303  -0.316  -0.01864  0.00291  -0.01488  -0.007231  0.3167  -0.7316
6.506e+09  0.5979  -0.5846  0.004827  -0.01068  0.02443  0.009254  0.0395  -0.7226
6.508e+09  0.403  -0.7758  0.01602  0.01897  -0.00281  0.05232  -0.2815  -0.7532
6.509e+09  0.1379  -0.906  0.06357  0.0009147  0.009734  -0.0186  -0.5175  -0.5914
6.51e+09  -0.2087  -0.8897  -0.01171  0.009938  0.0003531  -0.01408  -0.6602  -0.395
6.511e+09  -0.4842  -0.7657  0.01949  0.02982  0.0007697  0.04875  -0.7329  -0.1236
6.512e+09  -0.7051  -0.5356  0.01267  0.001039  -0.02707  0.02119  -0.7759  0.15
6.514e+09  -0.8284  -0.2405  -0.01426  -0.01369  0.002014  -0.01318  -0.6087  0.3665
6.515e+09  -0.9384  0.05086  -0.007935  -0.002786  -0.02836  0.0111  -0.4707  0.5551
6.516e+09  -0.8423  0.3723  0.005364  -0.01968  -0.03467  0.006233  -0.2499  0.6977
6.518e+09  -0.5904  0.6123  0.008818  -0.005414  -0.0534  -0.02183  -0.02541  0.7811
6.519e+09  -0.4075  0.8014  0.007273  0.02605  -0.00476  0.02559  0.2602  0.6801
6.52e+09  -0.0807  0.9026  0.01016  -0.006294  -0.09638  0.008217  0.5155  0.5698
6.521e+09  0.2532  0.8881  -0.001063  -0.0556  -0.0111  0.05857  0.6027  0.3381
6.522e+09  0.4572  0.7661  0.01649  -0.0135  0.0009771  -0.004171  0.7297  0.1129
6.524e+09  0.7555  0.5172  -0.006471  0.02144  -0.0276  0.01393  0.7206  -0.1502
6.525e+09  0.9217  0.2302  -0.01427  0.01365  -0.01321  0.01312  0.5845  -0.3959
6.526e+09  0.912  -0.08349  -0.03087  0.006018  -0.05198  -0.0111  0.4333  -0.6003
6.528e+09  0.7971  -0.3995  -0.04634  -0.01543  -0.03048  -0.002615  0.1968  -0.6539
6.529e+09  0.6572  -0.6926  -0.01225  0.02552  -0.0139  0.006034  -0.0519  -0.6896
6.53e+09  0.4195  -0.8355  0.007193  0.01546  -0.02337  -0.05496  -0.3082  -0.603
6.531e+09  0.02988  -0.9129  -0.03595  0.01346  -0.05038  -0.01763  -0.467  -0.503
6.532e+09  -0.29  -0.9051  0.011  -0.01486  -0.01098  -0.05421  -0.5739  -0.2679
6.534e+09  -0.5615  -0.7348  0.02493  -0.02134  0.02208  -0.03568  -0.6775  -0.06929
6.535e+09  -0.8182  -0.4326  0.01825  -0.01317  -0.02195  0.003203  -0.6444  0.1411
6.536e+09  -0.8934  -0.1946  0.00434  -1.882e-05  0.02479  0.008707  -0.5953  0.3
6.538e+09  -0.9269  0.1592  -0.02835  -0.01323  -0.002883  -0.002261  -0.4411  0.451
6.539e+09  -0.8462  0.4279  -0.04185  -0.005312  0.04793  0.01737  -0.2895  0.6046
6.54e+09  -0.5803  0.7231  0.0007898  0.03234  -0.03426  -0.005061  -0.06342  0.6805
6.541e+09  -0.2869  0.9028  -0.008727  -0.02071  -0.02331  -0.007155  0.1728  0.6611
6.542e+09  0.02003  0.9391  0.01885  -0.001765  -0.04497  0.025  0.41  0.589
6.544e+09  0.331  0.8513  -0.01849  0.006373  -0.02737  0.006187  0.5667  0.4153
6.545e+09  0.6539  0.7273  -0.008937  -0.04193  0.0278  0.01621  0.702  0.2052
6.546e+09  0.8361  0.4465  0.007667  0.001655  0.06734  0.02133  0.7058  -0.06894
6.548e+09  0.9293  0.09823  0.008758  -0.005035  -0.008725  0.00462  0.6778  -0.2922
6.549e+09  0.9295  -0.1929  0.02044  0.003474  0.0286  -0.01944  0.5281  -0.5719
6.55e+09  0.7736  -0.4759  -0.009189  -0.0152  0.02949  -0.05352  0.2751  -0.6524
