# Hz S RI R 50
6.25e+09  -0.8213  -0.2591  -0.002389  0.01097  -0.01484  -0.007636  0.1764  0.4912
6.251e+09  -0.8118  0.05961  -0.0331  -0.0138  0.01175  0.06173  0.4084  0.4367
6.252e+09  -0.7731  0.3187  -0.0147  -0.02342  -0.01375  -0.006701  0.5349  0.2547
6.254e+09  -0.5945  0.5448  0.007964  0.01117  0.03228  0.03253  0.5893  0.01253
6.255e+09  -0.3413  0.7062  -0.003333  0.02562  0.04447  -0.004661  0.6099  -0.1972
6.256e+09  -0.09964  0.8062  -0.00177  -0.01723  -0.02406  0.01903  0.4735  -0.4615
6.258e+09  0.1729  0.7533  -0.006764  -0.007851  0.003146  0.02197  0.2655  -0.5854
6.259e+09  0.4733  0.7361  -0.005906  0.04254  0.02522  0.03533  0.02136  -0.7131
6.26e+09  0.6594  0.4643  0.00978  0.02764  0.04849  -0.009938  -0.2007  -0.651
6.261e+09  0.8309  0.2022  0.0123  -0.01015  -0.01722  0.04239  -0.4478  -0.5469
6.262e+09  0.8209  -0.03742  0.01589  0.01352  -0.001472  -0.04732  -0.5829  -0.3576
6.264e+09  0.7869  -0.2719  0.01324  0.000913  -0.03353  -0.01196  -0.6796  -0.08847
6.265e+09  0.5959  -0.6554  0.005167  -0.008907  0.02714  -0.007307  -0.7196  0.1601
6.266e+09  0.3034  -0.7295  -0.0002244  -0.02427  -0.0008848  0.002769  -0.6032  0.3997
6.268e+09  0.01392  -0.7841  -0.009907  0.02495  0.01316  -0.06419  -0.4665  0.5746
6.269e+09  -0.2126  -0.7875  0.008638  0.01482  -0.02598  -0.02333  -0.205  0.7124
6.27e+09  -0.4952  -0.6876  0.002292  0.001082  -0.007801  0.0719  0.038  0.7429
6.271e+09  -0.6737  -0.4728  -0.01933  -0.001508  0.01255  -0.008061  0.3284  0.6747
6.272e+09  -0.7688  -0.2153  -0.01074  0.01436  -0.01411  0.03257  0.547  0.512
6.274e+09  -0.7982  0.09995  -0.01238  -0.02926  -0.02529  -0.01173  0.6798  0.2823
6.275e+09  -0.7514  0.352  -0.007144  0.006826  0.03424  0.01447  0.762  0.007809
6.276e+09  -0.5595  0.5814  0.003749  0.04843  -0.04005  -0.001206  0.7564  -0.2252
6.278e+09  -0.3397  0.7408  0.00364  0.05296  -0.02301  -0.01455  0.5913  -0.4432
6.279e+09  -0.02239  0.7786  0.02104  0.002845  -0.02086  -0.07041  0.4255  -0.6404
6.28e+09  0.2061  0.7805  -0.02664  0.0136  -0.03793  0.02527  0.155  -0.7717
6.281e+09  0.502  0.7203  -0.0009856  -0.003731  0.01295  -0.03775  -0.1183  -0.8045
6.282e+09  0.6949  0.4097  -0.007753  -0.005149  -0.007779  -0.01141  -0.3724  -0.6849
6.284e+09  0.8374  0.1648  0.01503  0.01303  0.005481  -0.05548  -0.5837  -0.5057
6.285e+09  0.8281  -0.1332  -0.01345  -0.005154  0.0119  0.02388  -0.755  -0.2973
6.286e+09  0.7478  -0.4096  0.01253  0.01007  0.03035  0.01106  -0.7969  -0.01864
6.288e+09  0.525  -0.5557  0.02408  0.01925  0.02934  0.01506  -0.7442  0.239
6.289e+09  0.3163  -0.7613  0.001849  -0.01864  -0.008424  0.02095  -0.6317  0.5003
6.29e+09  0.04487  -0.8058  -0.006219  0.01812  -0.01015  -0.0008646  -0.3989  0.6884
6.291e+09  -0.2618  -0.7797  0.0251  0.01805  0.02203  0.002327  -0.1464  0.7717
6.292e+09  -0.4889  -0.6307  -0.01789  -0.003648  -0.03769  0.03596  0.1447  0.8217
6.294e+09  -0.6938  -0.4559  0.008534  -0.004186  -0.05349  -0.01817  0.3998  0.7191
6.295e+09  -0.7903  -0.1651  -0.01282  -0.02836  -0.02976  0.02927  0.6344  0.5139
6.296e+09  -0.8171  0.1819  -0.001852  -0.002663  0.04321  0.008264  0.7811  0.3092
6.298e+09  -0.743  0.4357  -0.0157  0.02648  -0.04423  -0.02202  0.8231  0.01138
6.299e+09  -0.4886  0.6368  -0.003022  -0.005746  0.001471  0.02297  0.7811  -0.2698
6.3e+09  -0.2222  0.8031  0.009742  -0.02437  0.0189  0.00313  0.6329  -0.5507
6.301e+09  0.01691  0.8012  0.005257  0.02267  -0.00623  -0.02297  0.4254  -0.7454
6.302e+09  0.3073  0.7586  0.01557  0.01346  -0.02476  0.03045  0.1594  -0.7996
6.304e+09  0.5215  0.5689  -8.399e-05  -0.02376  -0.02245  -0.006025  -0.1099  -0.8244
6.305e+09  0.7202  0.3596  0.02655  -0.002067  0.0291  0.003638  -0.4239  -0.728
6.306e+09  0.8478  0.09897  0.02111  -0.006773  -0.02895  -0.03351  -0.6653  -0.5746
6.308e+09  0.8131  -0.1703  0.003219  0.001508  0.001063  0.04446  -0.764  -0.3003
6.309e+09  0.6701  -0.5131  0.01631  -0.01821  0.009393  0.01077  -0.8444  -0.01373
6.31e+09  0.4496  -0.6027  0.006511  0.02069  -0.01877  0.01208  -0.7848  0.2831
6.311e+09  0.193  -0.773  0.0138  0.004155  0.004603  0.02625  -0.6776  0.5338
6.312e+09  -0.07065  -0.7528  -0.01113  -0.0009637  -0.01923  0.01192  -0.4501  0.7419
6.314e+09  -0.3416  -0.7386  0.02941  -0.01968  0.007484  -0.002158  -0.1744  0.8487
6.315e+09  -0.5459  -0.5507  0.0007646  -0.006285  -0.02329  0.06956  0.1714  0.8342
6.316e+09  -0.7571  -0.3169  0.007375  -0.005115  -0.02288  0.003583  0.4062  0.8068
6.318e+09  -0.8132  -0.0582  0.007624  0.01658  0.02145  0.015  0.6651  0.5569
6.319e+09  -0.8074  0.2318  -0.02242  0.03028  -0.01115  -0.01606  0.788  0.3196
6.32e+09  -0.6605  0.5062  -0.004697  -0.01104  0.01217  0.004347  0.872  0.003282
6.321e+09  -0.4218  0.6841  -0.02912  -0.02937  -0.01399  0.03367  0.8187  -0.3029
6.322e+09  -0.1646  0.7729  -0.01034  -0.02454  -0.001842  -0.01013  0.7083  -0.551
6.324e+09  0.07263  0.7987  0.007793  0.01593  -0.01093  0.01143  0.448  -0.7606
6.325e+09  0.3989  0.7178  -0.002697  0.01291  -0.005838  -0.001011  0.1624  -0.9159
6.326e+09  0.6215  0.5855  -0.0012  -0.0008598  -0.04459  0.01958  -0.1346  -0.9256
6.328e+09  0.7824  0.2963  0.007828  -0.005982  0.02011  -0.004998  -0.4383  -0.8038
6.329e+09  0.8392  0.01424  0.01133  0.0344  0.004481  -0.02116  -0.7171  -0.6165
6.33e+09  0.7491  -0.2332  -0.000712  0.01591  0.02201  -0.02474  -0.8776  -0.306
6.331e+09  0.6318  -0.5353  -0.01855  0.01527  0.02356  -0.03759  -0.895  -0.0298
6.332e+09  0.3945  -0.708  0.0142  0.01741  -0.01292  0.02849  -0.8462  0.2987
6.334e+09  0.106  -0.8242  -0.008768  0.006834  0.02121  0.0007024  -0.6932  0.5602
6.335e+09  -0.1568  -0.7788  0.0003683  -0.006261  -0.01473  0.04026  -0.536  0.7691
6.336e+09  -0.4958  -0.7058  -0.006264  -0.006437  -0.01163  -0.01113  -0.1889  0.8661
6.338e+09  -0.7167  -0.5197  -0.003915  0.0172  0.03234  0.03858  0.105  0.91
6.339e+09  -0.8329  -0.19  0.0098  -0.04738  -0.0009543  -0.02453  0.4559  0.8119
6.34e+09  -0.8052  0.04626  -0.008065  0.0001538  -0.01353  0.0168  0.6522  0.6207
6.341e+09  -0.7713  0.3781  0.01251  0.01719  -0.003835  0.03416  0.8465  0.3563
6.342e+09  -0.5773  0.61  -0.003433  -0.001728  -0.01809  -0.06131  0.9166  0.02995
6.344e+09  -0.2959  0.7762  0.02125  0.01595  -0.01793  -0.01773  0.8281  -0.2715
6.345e+09  -0.06609  0.8124  0.03121  -0.007837  0.04333  0.003198  0.7033  -0.564
6.346e+09  0.2743  0.7502  -0.008725  0.01853  0.03136  -0.04483  0.5183  -0.754
6.348e+09  0.4888  0.6744  0.01446  0.01045  -0.0008235  0.01547  0.2134  -0.8933
6.349e+09  0.6887  0.3589  -0.02677  -0.003004  0.04735  -0.00469  -0.1162  -0.9275
6.35e+09  0.7748  0.117  0.004829  0.007995  0.006826  0.001995  -0.4292  -0.8152
6.351e+09  0.8129  -0.1161  -0.04665  0.001452  0.02331  0.006625  -0.6645  -0.6283
6.352e+09  0.7574  -0.4406  0.01592  0.009722  0.008211  -0.01779  -0.8392  -0.3907
6.354e+09  0.5765  -0.6982  -0.003822  -0.003799  0.008987  -0.01514  -0.9304  -0.0692
6.355e+09  0.27  -0.8179  -0.01317  -0.04359  -0.008533  -0.01094  -0.8826  0.2579
6.356e+09  -0.03707  -0.815  0.0126  -0.006506  -0.01488  0.01467  -0.7781  0.5484
6.358e+09  -0.3423  -0.7462  -0.01803  -0.0123  -0.06016  0.006668  -0.5315  0.8023
6.359e+09  -0.5572  -0.5849  -0.01395  0.009319  -0.001694  -0.05674  -0.2217  0.9103
6.36e+09  -0.762  -0.4057  0.01357  0.001493  0.04561  -0.04142  0.1534  0.925
6.361e+09  -0.8574  -0.1181  0.002836  0.004811  0.01626  0.0239  0.4012  0.8563
6.362e+09  -0.7911  0.186  -0.009991  0.01317  -0.01716  0.01299  0.6591  0.6561
6.364e+09  -0.709  0.5078  0.01269  -0.01191  -0.01224  0.03598  0.9003  0.3794
6.365e+09  -0.4789  0.6942  0.001266  -0.02825  0.04464  -0.01068  0.9185  0.1181
6.366e+09  -0.1771  0.8308  0.02832  -0.004415  -0.01479  0.01277  0.8906  -0.2395
6.368e+09  0.118  0.86  0.009164  0.01082  -0.005984  0.05094  0.8087  -0.5657
6.369e+09  0.4001  0.7377  0.01497  0.02614  0.01017  0.03087  0.5587  -0.7648
6.37e+09  0.6464  0.576  0.03888  0.005584  0.02027  -0.005726  0.2497  -0.9136
6.371e+09  0.8094  0.2996  0.02703  -0.02268  0.004396  -0.0186  -0.08291  -0.9857
6.372e+09  0.8893  0.0001386  -0.02875  0.04241  -0.007217  -0.0156  -0.4044  -0.8733
6.374e+09  0.8416  -0.2835  0.02698  -0.004758  0.01149  0.004211  -0.6652  -0.6812
6.375e+09  0.6447  -0.545  -0.03894  -0.01643  -0.01295  0.08076  -0.8498  -0.3875
6.376e+09  0.4199  -0.7794  0.02826  0.01573  -0.02674  0.02273  -0.9345  -0.07527
6.378e+09  0.1005  -0.8794  0.02312  0.01796  -0.00523  -0.03003  -0.8847  0.2298
6.379e+09  -0.1641  -0.8748  0.01633  0.01571  0.008512  0.04826  -0.7683  0.5279
6.38e+09  -0.4857  -0.7121  0.01965  -0.002961  -0.02154  -0.006407  -0.5649  0.7734
6.381e+09  -0.7195  -0.5074  0.01791  0.01915  -0.02163  -0.005141  -0.2396  0.8898
6.382e+09  -0.8777  -0.2159  0.04146  -0.04332  -0.03517  -0.01433  0.04066  0.9468
6.384e+09  -0.8743  0.07828  0.003877  0.01964  -0.04803  0.03076  0.3796  0.8774
6.385e+09  -0.7617  0.3428  0.01439  -0.008222  0.00249  0.01466  0.6205  0.6718
6.386e+09  -0.5522  0.6613  0.01714  0.02441  -0.01893  0.00515  0.8805  0.4396
6.388e+09  -0.3372  0.7743  0.01438  0.01871  0.03413  0.01073  0.8819  0.1209
6.389e+09  -0.02638  0.8711  -0.01579  0.01063  -0.008113  -0.02757  0.9194  -0.2045
6.39e+09  0.2733  0.7704  0.0558  0.01117  -0.02994  0.02201  0.8001  -0.4671
6.391e+09  0.5666  0.7056  -0.008341  -0.01188  -0.03726  -0.0009833  0.5793  -0.7661
6.392e+09  0.7544  0.4495  0.01654  -0.01052  0.01961  -0.03573  0.2905  -0.8114
6.394e+09  0.8844  0.1212  -0.001661  0.009177  0.003626  -0.02244  -0.06219  -0.9056
6.395e+09  0.8836  -0.1686  -0.003769  0.02292  -0.01663  -0.02626  -0.3199  -0.886
6.396e+09  0.6917  -0.4705  0.01982  0.0304  -0.02564  -0.01186  -0.5804  -0.7112
6.398e+09  0.5192  -0.7085  -0.01891  -0.01445  -0.01196  -0.03804  -0.8694  -0.4876
6.399e+09  0.2198  -0.8741  -0.02045  0.01075  0.01835  -0.04129  -0.879  -0.1148
6.4e+09  -0.05101  -0.8787  0.009151  -0.01505  -0.001908  0.004245  -0.9275  0.1947
6.401e+09  -0.365  -0.7975  -0.01027  0.005618  0.007124  0.03806  -0.822  0.4127
6.402e+09  -0.5724  -0.6023  -0.02297  0.00366  0.01551  0.003038  -0.5766  0.7266
6.404e+09  -0.8344  -0.3802  0.004231  -0.001129  -0.003871  -0.02228  -0.2467  0.8986
6.405e+09  -0.8417  -0.1084  0.01899  -0.01109  -0.0575  0.02921  -0.03316  0.8768
6.406e+09  -0.8218  0.2379  -0.01503  0.03225  0.02204  0.04942  0.2695  0.8579
6.408e+09  -0.6984  0.5256  0.03365  0.01622  0.01698  -0.01396  0.6356  0.7122
6.409e+09  -0.4973  0.7613  -0.002313  -0.01899  0.04761  0.01011  0.7315  0.492
6.41e+09  -0.178  0.8539  0.006495  -0.03618  0.02372  0.02174  0.8602  0.2458
6.411e+09  0.08908  0.8241  -0.03323  0.01479  -0.02198  -0.01376  0.8883  -0.1428
6.412e+09  0.403  0.7498  0.02069  0.02074  0.004535  0.009071  0.7685  -0.3961
6.414e+09  0.6679  0.6024  0.02279  0.02393  -0.04318  0.02654  0.5546  -0.6999
6.415e+09  0.7969  0.2559  -0.005351  0.007345  0.04126  -0.001049  0.3091  -0.8388
6.416e+09  0.8909  0.00547  0.008446  0.02981  0.0016  0.008378  0.03049  -0.871
6.418e+09  0.8378  -0.2769  0.02894  -0.02272  0.006428  -0.007562  -0.2644  -0.8616
6.419e+09  0.6675  -0.5408  -0.03051  0.006826  0.0728  0.02091  -0.5292  -0.7101
6.42e+09  0.4086  -0.7307  0.02254  -0.0134  0.03411  -0.01207  -0.7234  -0.4927
6.421e+09  0.108  -0.8754  0.0009033  0.03377  -0.008134  0.06639  -0.8985  -0.1957
6.422e+09  -0.166  -0.8748  0.04029  -0.01971  0.05391  -0.02296  -0.9359  0.1192
6.424e+09  -0.4347  -0.7077  0.0233  0.01159  -0.04552  0.01263  -0.7626  0.4189
6.425e+09  -0.6791  -0.5345  0.009001  0.01798  -0.02683  -0.05042  -0.5738  0.6277
6.426e+09  -0.7864  -0.2314  0.01677  0.003931  -0.0258  -0.04362  -0.3871  0.789
6.428e+09  -0.8653  0.08451  0.01109  0.0393  -0.02148  0.003232  -0.02455  0.8773
6.429e+09  -0.7652  0.3367  0.03869  0.01389  -0.01643  0.02979  0.2511  0.8423
6.43e+09  -0.6156  0.6011  -0.003699  0.01135  0.01411  0.02382  0.5001  0.6838
6.431e+09  -0.368  0.7751  0.009318  -0.05845  0.01565  -0.05529  0.7288  0.5213
6.432e+09  -0.1052  0.8408  0.01022  -0.02097  -0.008133  -0.001016  0.8526  0.2294
6.434e+09  0.2128  0.8431  0.007395  -0.03259  -0.005989  0.01894  0.8899  -0.0909
6.435e+09  0.4765  0.6232  -0.02752  -0.02159  0.02354  -0.01766  0.7413  -0.366
6.436e+09  0.7221  0.4973  -0.03752  -0.01326  0.006399  -0.06202  0.5831  -0.6372
6.438e+09  0.8494  0.1868  0.02411  0.005216  0.007369  -0.001036  0.4257  -0.7429
6.439e+09  0.832  -0.08439  0.01081  -0.01659  0.006697  -0.04318  0.06574  -0.8437
6.44e+09  0.771  -0.4242  0.002604  -0.003214  -0.01625  0.008337  -0.2176  -0.8251
6.441e+09  0.6141  -0.6501  0.02901  0.01488  0.02159  0.009556  -0.4922  -0.6935
6.442e+09  0.2639  -0.8043  -0.009183  0.0229  0.01352  -0.0311  -0.6809  -0.4691
6.444e+09  0.003479  -0.8617  -0.01149  0.02983  0.00746  -0.00909  -0.7806  -0.2069
6.445e+09  -0.3074  -0.8572  0.01984  0.002577  -0.04029  0.001601  -0.8406  0.09087
6.446e+09  -0.5329  -0.6958  0.00573  0.02518  -0.003864  -0.02047  -0.7746  0.3881
6.448e+09  -0.7163  -0.4537  0.03782  0.008411  -0.006957  0.02028  -0.5768  0.5931
6.449e+09  -0.8557  -0.1732  -0.05123  0.01035  -0.009298  0.02091  -0.3272  0.7713
6.45e+09  -0.854  0.1427  -0.01999  0.01968  -0.008146  -0.02444  -0.08859  0.8905
6.451e+09  -0.7392  0.4195  -0.02175  0.00619  -0.02701  -0.01893  0.2077  0.8244
6.452e+09  -0.5281  0.6445  -0.04731  -0.02611  0.01848  -0.02339  0.5079  0.6957
6.454e+09  -0.3285  0.8417  0.01927  -0.004786  0.002847  -0.03216  0.6886  0.4522
6.455e+09  0.04684  0.8161  -0.04083  -0.002601  0.002125  -0.01228  0.7965  0.1661
6.456e+09  0.3148  0.7916  -0.003884  -0.01836  0.03179  -0.02148  0.822  -0.06775
6.458e+09  0.4876  0.6327  0.01192  0.02808  -0.0211  -0.01716  0.7514  -0.3486
6.459e+09  0.7671  0.3746  -0.01136  -0.0183  -0.02121  -0.04015  0.5899  -0.5684
6.46e+09  0.7709  0.1082  -0.01515  -0.03062  0.02708  -0.04698  0.3606  -0.6962
6.461e+09  0.8206  -0.194  -0.0606  0.004942  0.01741  0.01237  0.05857  -0.7913
6.462e+09  0.7039  -0.3876  -0.007404  0.00882  0.01476  0.001963  -0.2324  -0.7564
6.464e+09  0.5292  -0.6871  0.00712  0.03184  0.03399  -0.008945  -0.4846  -0.664
6.465e+09  0.2949  -0.7575  0.01519  -0.007448  0.0004721  -0.02827  -0.6681  -0.4702
6.466e+09  -0.03737  -0.8491  0.02353  0.001826  0.007179  -0.007558  -0.8074  -0.2011
6.468e+09  -0.3169  -0.7672  -0.0183  -0.0006105  -0.006949  0.04294  -0.801  0.07212
6.469e+09  -0.5414  -0.629  -0.02635  0.004176  0.0004299  0.01467  -0.7321  0.3237
6.47e+09  -0.7674  -0.3789  -0.0131  0.003626  -0.04067  -0.0165  -0.5348  0.5401
6.471e+09  -0.8301  -0.1351  -0.01256  -0.006674  0.04315  -0.0299  -0.3342  0.7386
6.472e+09  -0.7985  0.2104  -0.01207  -0.01819  -0.007622  0.03653  -0.06108  0.742
6.474e+09  -0.7273  0.4651  -0.01354  0.003085  -0.01439  -0.01554  0.194  0.7658
6.475e+09  -0.5111  0.6813  -0.05039  -0.003153  -0.0121  0.009546  0.442  0.6469
6.476e+09  -0.2799  0.743  0.03614  0.001257  0.01195  0.008952  0.6408  0.4691
6.478e+09  0.03339  0.8137  0.003069  0.02159  -0.01554  -0.02146  0.7755  0.1974
6.479e+09  0.3706  0.7826  0.009566  -0.003584  -0.06181  0.01167  0.7332  -0.1062
6.48e+09  0.5893  0.5733  0.002605  0.03284  0.06628  0.01479  0.7032  -0.3119
6.481e+09  0.7053  0.3432  0.003868  -0.03991  0.02823  -0.0226  0.563  -0.5721
6.482e+09  0.8001  0.1056  0.003166  -0.00656  0.004509  -0.02122  0.3472  -0.6975
6.484e+09  0.8256  -0.2658  -0.02277  0.0005974  0.006115  0.0257  0.05594  -0.7887
6.485e+09  0.7155  -0.4988  -0.01396  0.01837  -0.002291  -0.03161  -0.1798  -0.7166
6.486e+09  0.4447  -0.662  -0.005783  0.02122  0.03068  -0.02017  -0.4593  -0.6262
6.488e+09  -0.4148  -1.124  -0.03328  -0.02919  -0.5179  0.5039  -0.6736  -0.4064
6.489e+09  -0.07546  -0.8668  0.01187  0.02513  -0.02011  0.02021  -0.7293  -0.2264
6.49e+09  -0.3795  -0.7644  0.000445  0.001046  -0.04055  0.0375  -0.7304  0.1138
6.491e+09  -0.5906  -0.5995  -0.04363  0.001805  -0.03995  0.02002  -0.6691  0.3116
6.492e+09  -0.7644  -0.3125  -0.03341  0.0117  -0.0381  -0.0247  -0.5196  0.5082
6.494e+09  -0.9508  -0.06218  -0.02961  -0.05841  0.03501  -0.07793  -0.3129  0.7289
6.495e+09  -0.7978  0.276  0.007618  0.01141  -0.04608  -0.03423  -0.06019  0.7355
6.496e+09  -0.6494  0.4969  -0.03317  -0.003725  0.009054  0.03049  0.2264  0.7433
6.498e+09  -0.4777  0.6604  0.01878  0.02237  0.04329  -0.009691  0.4738  0.6518
6.499e+09  -0.2204  0.8052  0.01566  -0.01711  -0.03552  -0.02804  0.6288  0.4297
6.5e+09  0.1139  0.9841  0.0287  -0.01658  -0.01889  0.01583  0.7353  0.1862
6.501e+09  0.3852  0.7635  0.003376  0.04618  0.005942  0.01394  0.7741  -0.07811
6.502e+09  0.5776  0.565  -0.04201  0.004831  0.06713  -0.01461  0.6749  -0.3846
6.504e+09  0.7913  0.3353  -0.00111  -0.02994  -0.004467  0.002954  0.5329  -0.5549
6.505e+09  0.8606  0.04403  -0.03043  -0.00485  0.038  -0.009708  0.2989  -0.7169
6.506e+09  0.7771  -0.2295  0.008832  -0.005335  0.01839  -0.008536  0.04662  -0.7538
6.508e+09  0.6795  -0.5551  0.006018  0.02158  0.01747  0.01863  -0.2729  -0.7168
6.509e+09  0.4145  -0.6801  0.03591  -0.01935  -0.02361  0.04586  -0.4518  -0.5783
6.51e+09  0.2011  -0.8629  -0.000106  0.02133  -0.02505  -0.01931  -0.5925  -0.3753
6.511e+09  -0.1081  -0.8513  -0.03405  -0.04825  0.01177  0.04003  -0.7185  -0.173
6.512e+09  -0.4016  -0.7965  0.002797  -0.02196  0.008132  -0.04432  -0.747  0.1338
6.514e+09  -0.6414  -0.6061  -0.007417  -0.002526  0.03225  0.03389  -0.6383  0.3738
6.515e+09  -0.7799  -0.3345  0.007398  0.006285  -0.005723  -0.0399  -0.5233  0.5969
6.516e+09  -0.889  -0.02821  -0.01059  0.01588  0.02881  0.0008644  -0.2234  0.7321
6.518e+09  -0.818  0.2505  0.01552  0.005319  0.01991  -0.002506  -0.02769  0.7335
6.519e+09  -0.6812  0.5662  0.01461  0.02769  0.02751  -0.02861  0.2531  0.6988
6.52e+09  -0.464  0.7489  0.01551  0.008132  -0.001156  -0.01428  0.4896  0.5307
6.521e+09  -0.1105  0.8946  0.02884  -0.006651  -0.02953  -0.01474  0.6335  0.3673
6.522e+09  0.204  0.8925  -0.008463  0.01093  0.01193  -0.02851  0.713  0.0944
6.524e+09  0.4253  0.8038  0.005186  0.04255  0.005237  -0.03105  0.6845  -0.1625
6.525e+09  0.6942  0.6403  0.002639  -0.00937  -0.001582  -0.0108  0.6535  -0.4055
6.526e+09  0.8306  0.3372  -0.01225  -0.009414  -0.003575  0.006267  0.4341  -0.5907
6.528e+09  0.9197  0.05137  -0.001818  0.008332  -0.05098  0.04382  0.2299  -0.6507
6.529e+09  0.8412  -0.345  0.009882  -0.0234  -0.007908  -0.006503  -0.04913  -0.6981
6.53e+09  0.7167  -0.6084  -0.01322  0.02325  -0.01148  -0.009374  -0.2919  -0.6168
6.531e+09  0.4196  -0.8173  0.01787  -0.01157  -0.05165  -0.001483  -0.4702  -0.4715
6.532e+09  0.1622  -0.9073  -0.002882  -0.007848  0.06258  -0.02786  -0.5848  -0.3038
6.534e+09  -0.2263  -0.8512  0.005234  -0.01861  -0.02154  -0.01805  -0.6407  -0.07883
6.535e+09  -0.5349  -0.8478  0.002312  -0.002629  0.02384  0.00675  -0.5941  0.1263
6.536e+09  -0.7212  -0.5543  0.02098  -0.002478  -0.02791  -0.001257  -0.5625  0.2863
6.538e+09  -0.921  -0.2238  -0.007044  0.0005101  0.02644  0.03684  -0.4457  0.4401
6.539e+09  -0.9069  0.04745  0.01306  0.02894  0.03386  -0.01792  -0.3011  0.6025
6.54e+09  -0.9016  0.3693  -0.001312  0.004875  0.01971  0.01884  -0.06919  0.682
6.541e+09  -0.6562  0.694  0.02235  -0.0004503  0.009131  -0.02722  0.1957  0.6632
6.542e+09  -0.3997  0.7851  0.007088  -0.003757  0.0292  0.02722  0.4207  0.5646
6.544e+09  -0.0165  0.9394  0.01777  -0.03984  0.0178  -0.0004121  0.5665  0.4107
6.545e+09  0.2541  0.9073  0.01907  -0.005498  0.003575  0.02622  0.697  0.1535
6.546e+09  0.5886  0.7657  -0.01982  -0.01465  0.01725  -0.03108  0.7106  -0.06343
6.548e+09  0.7934  0.4941  -0.002851  -0.0513  0.03495  -0.02916  0.6672  -0.3361
6.549e+09  0.9491  0.2504  0.02187  0.01155  0.0613  -0.01911  0.5259  -0.5526
6.55e+09  0.9532  -0.08381  0.0251  -0.007352  -0.03453  -0.02893  0.2854  -0.6941
