# Hz S RI R 50
6.25e+09  -0.6253  0.4817  0.0007313  0.03749  -0.007677  -0.07858  0.1567  0.4485
6.251e+09  -0.433  0.688  -0.01766  -0.01583  0.1047  0.05291  0.3562  0.3948
6.252e+09  -0.1658  0.8075  0.009978  0.01182  -0.03728  -0.02703  0.5116  0.2269
6.254e+09  0.1297  0.7941  0.01701  -0.02029  0.04266  -0.04035  0.6323  0.02153
6.255e+09  0.4064  0.7462  0.011  0.005603  0.02753  -0.04751  0.5908  -0.2031
6.256e+09  0.5974  0.5519  0.0114  0.00791  0.02502  0.03341  0.4935  -0.4214
6.258e+09  0.7787  0.3001  0.01333  0.0242  -0.01681  -0.02932  0.258  -0.621
6.259e+09  0.7977  0.005944  0.01176  0.02032  0.01372  -0.05099  0.07679  -0.665
6.26e+09  0.7919  -0.2298  0.0063  -0.029  0.01804  -0.01965  -0.181  -0.6561
6.261e+09  0.62  -0.4365  -0.01553  0.009151  0.006766  -0.01163  -0.4369  -0.5414
6.262e+09  0.4495  -0.6665  -0.03138  0.008734  0.05552  0.05777  -0.6142  -0.3303
6.264e+09  0.1364  -0.7729  0.02186  0.00238  0.01412  -0.001831  -0.7042  -0.0971
6.265e+09  -0.1292  -0.8361  0.01491  0.009033  0.06669  -0.04532  -0.7073  0.1485
6.266e+09  -0.3484  -0.7185  -0.01383  0.005222  -0.01523  -0.01624  -0.6149  0.4081
6.268e+09  -0.5646  -0.5292  -0.009492  0.001329  -0.01144  -0.03634  -0.4331  0.572
6.269e+09  -0.7746  -0.2484  -0.005485  -0.008451  -0.01574  -0.02351  -0.2132  0.7187
6.27e+09  -0.796  0.02646  -0.03127  -0.02172  0.03852  0.01081  0.04878  0.7442
6.271e+09  -0.6844  0.2339  0.02268  -0.004979  0.01073  0.02002  0.3362  0.6676
6.272e+09  -0.7058  0.5387  0.01923  0.007949  -0.03268  0.004324  0.5478  0.5131
6.274e+09  -0.4285  0.6851  0.01567  -0.0118  -0.002735  0.02298  0.6791  0.3218
6.275e+09  -0.1908  0.7965  0.0007018  0.004872  -0.005163  0.0003262  0.7528  0.03331
6.276e+09  0.1063  0.841  0.0307  -0.01395  0.001413  0.005941  0.7056  -0.2356
6.278e+09  0.3742  0.7129  0.03118  -0.01259  0.007265  0.06756  0.5848  -0.4295
6.279e+09  0.55  0.5084  -0.0005533  0.0008863  -0.05245  0.02487  0.3927  -0.6359
6.28e+09  0.78  0.3541  -0.03624  0.04529  -0.03001  -0.02762  0.18  -0.7525
6.281e+09  0.795  0.03278  0.02318  -0.002955  -0.02173  0.03495  -0.1199  -0.7715
6.282e+09  0.7345  -0.2366  -0.007665  -0.009043  0.01778  0.01354  -0.3681  -0.677
6.284e+09  0.6726  -0.5011  0.0003613  -0.007791  0.01675  0.04448  -0.562  -0.5204
6.285e+09  0.4095  -0.7307  0.008564  0.0163  0.02514  0.03099  -0.733  -0.311
6.286e+09  0.1693  -0.8  -0.01312  0.004694  -0.02951  -0.0005047  -0.779  -0.000847
6.288e+09  -0.1663  -0.8013  0.01755  -0.02046  0.01132  0.0108  -0.7541  0.2605
6.289e+09  -0.4094  -0.6919  -0.0005947  -0.006464  0.03913  0.01808  -0.6312  0.4856
6.29e+09  -0.5684  -0.504  -0.0238  -0.02271  -0.006032  0.03497  -0.4028  0.6779
6.291e+09  -0.8044  -0.2914  0.0007884  0.01339  -0.0157  -0.01887  -0.1625  0.7777
6.292e+09  -0.7531  0.01972  -0.008176  -0.0009137  -0.01079  0.02739  0.1496  0.806
6.294e+09  -0.7545  0.2848  -0.0114  -0.01494  0.003808  0.02255  0.4187  0.7299
6.295e+09  -0.6142  0.5375  -0.002936  -0.01901  -0.0243  0.002504  0.6279  0.5549
6.296e+09  -0.4171  0.7361  -0.01608  0.02955  0.02403  -0.06172  0.7931  0.2976
6.298e+09  -0.1519  0.8261  0.005201  -0.00496  -0.05281  -0.01702  0.809  -0.002149
6.299e+09  0.1467  0.7473  0.0105  0.002193  -0.01512  0.02325  0.776  -0.2573
6.3e+09  0.3772  0.6702  0.01609  -0.01649  -0.07253  0.01048  0.6718  -0.5149
6.301e+09  0.6207  0.4005  0.02512  0.02089  -0.03728  0.006285  0.4294  -0.7095
6.302e+09  0.7742  0.2595  0.03414  0.01235  -0.02071  -0.0228  0.1586  -0.8094
6.304e+09  0.802  -0.0005259  0.001372  0.01682  -0.02158  -0.05359  -0.141  -0.8259
6.305e+09  0.7647  -0.3167  0.02177  -0.0007069  -0.03641  -0.004416  -0.4217  -0.7377
6.306e+09  0.6114  -0.5574  0.01323  0.003499  0.04329  0.02847  -0.6305  -0.5431
6.308e+09  0.3708  -0.7211  -0.02547  -0.01142  -0.01654  6.959e-05  -0.7941  -0.3089
6.309e+09  0.1132  -0.8132  0.04208  -0.002043  -0.03397  0.05662  -0.8735  0.01624
6.31e+09  -0.1943  -0.7656  -0.01083  -0.005375  0.02076  -0.02275  -0.8171  0.2828
6.311e+09  -0.4601  -0.7262  -0.02198  0.01765  0.03762  0.005049  -0.6527  0.5222
6.312e+09  -0.6327  -0.4851  0.01918  0.03159  0.05182  0.0161  -0.4446  0.7575
6.314e+09  -0.7811  -0.2261  -0.004401  -0.00208  -0.02207  0.01895  -0.1447  0.8447
6.315e+09  -0.8101  0.09776  -0.004404  -0.005651  0.06087  0.05443  0.1433  0.8574
6.316e+09  -0.7335  0.3709  -0.01791  -0.006019  -0.05435  0.01701  0.4078  0.7589
6.318e+09  -0.5742  0.5889  -0.01123  -0.01428  0.003606  -0.0009534  0.6599  0.6002
6.319e+09  -0.3706  0.7029  0.0174  -0.009675  -0.03644  0.002577  0.8074  0.3145
6.32e+09  -0.07019  0.8001  -0.009551  0.01679  -0.03392  -0.005116  0.8998  0.03549
6.321e+09  0.1751  0.7625  -0.002706  0.009075  -0.02401  -0.06018  0.829  -0.2746
6.322e+09  0.4695  0.6702  0.03222  -0.01048  0.02183  -0.00933  0.6829  -0.5876
6.324e+09  0.6557  0.3974  0.008765  0.01302  -0.02745  -0.008228  0.4525  -0.7858
6.325e+09  0.7827  0.2015  -0.0134  0.003055  -0.009823  0.02124  0.175  -0.8799
6.326e+09  0.8411  -0.1016  0.008636  -0.02022  0.01707  0.007251  -0.1511  -0.9095
6.328e+09  0.7141  -0.3649  0.02913  -0.003655  0.01414  0.03637  -0.431  -0.7576
6.329e+09  0.5979  -0.6026  0.01111  -0.0183  0.01893  0.006772  -0.6279  -0.6133
6.33e+09  0.273  -0.7631  -0.0281  -0.002686  0.03891  0.02516  -0.8592  -0.3264
6.331e+09  0.0331  -0.8315  0.01703  -0.00457  0.05019  -0.01926  -0.918  -0.04451
6.332e+09  -0.2825  -0.7938  -0.006947  0.01611  -0.01119  -0.02722  -0.8528  0.2492
6.334e+09  -0.4981  -0.6483  0.006791  -0.01198  0.0132  -0.02092  -0.734  0.5234
6.335e+09  -0.7172  -0.4584  0.04181  -0.004956  -0.0538  0.0609  -0.5016  0.746
6.336e+09  -0.7885  -0.1113  -0.01625  0.01248  0.03017  -0.003103  -0.1803  0.8992
6.338e+09  -0.8261  0.1701  0.009892  0.04548  -0.00185  -0.0006839  0.1204  0.8745
6.339e+09  -0.7025  0.469  0.01602  0.03034  0.004458  -0.046  0.4342  0.8177
6.34e+09  -0.4926  0.6186  0.01042  0.005821  0.01825  -0.01576  0.658  0.6144
6.341e+09  -0.2695  0.8106  0.01546  -0.02547  -0.01858  -0.003207  0.8661  0.3508
6.342e+09  -0.04824  0.8274  -0.003821  0.002847  -0.04835  0.04148  0.9167  0.004338
6.344e+09  0.3171  0.8228  0.008736  0.0005465  -0.01112  0.04795  0.9416  -0.2558
6.345e+09  0.5727  0.6148  0.0198  -0.02231  0.00327  -0.06386  0.7525  -0.5998
6.346e+09  0.7736  0.3863  -0.02942  -0.02363  -0.01608  -0.003831  0.5189  -0.8332
6.348e+09  0.7908  0.09887  -0.01551  -0.006394  -0.01304  -0.01485  0.227  -0.9086
6.349e+09  0.8542  -0.2026  0.01384  -0.02463  -0.02922  -0.03606  -0.08364  -0.907
6.35e+09  0.6704  -0.4449  -0.01598  -0.02733  -0.01392  -0.05027  -0.4249  -0.8379
6.351e+09  0.4982  -0.6903  -0.007675  0.008996  -0.02151  0.03576  -0.6705  -0.6181
6.352e+09  0.2105  -0.8358  0.01997  -0.002544  0.0153  0.006574  -0.8467  -0.3841
6.354e+09  -0.1013  -0.84  -0.01046  0.0005979  -0.01407  0.00206  -0.9564  -0.06404
6.355e+09  -0.4008  -0.7716  -0.002196  0.003709  0.02252  0.02912  -0.9036  0.3102
6.356e+09  -0.5836  -0.5553  0.01637  0.01339  -0.005441  -0.03892  -0.7734  0.5474
6.358e+09  -0.8157  -0.3722  0.008101  0.04908  -0.03051  0.005614  -0.5532  0.7659
6.359e+09  -0.8569  -0.01477  0.001709  -0.01383  -0.04132  0.001495  -0.2487  0.9301
6.36e+09  -0.8221  0.2771  0.01639  -0.005975  0.007426  0.04832  0.1155  0.8974
6.361e+09  -0.6358  0.5456  0.002562  0.01034  0.002775  -0.007374  0.3692  0.8633
6.362e+09  -0.4505  0.7121  0.01594  0.01094  0.0203  -0.02538  0.6711  0.7033
6.364e+09  -0.2211  0.8197  -0.01786  0.02069  -0.03366  -0.01383  0.873  0.422
6.365e+09  0.1387  0.8299  -0.019  -0.01279  0.05169  -0.03223  0.9579  0.1089
6.366e+09  0.4136  0.7502  -0.007719  0.02464  -0.0274  0.02668  0.8873  -0.2109
6.368e+09  0.6684  0.5202  -0.0232  0.01299  -0.02524  0.04395  0.7947  -0.5212
6.369e+09  0.8253  0.2634  -0.02658  0.02802  -0.004704  0.01741  0.4927  -0.7751
6.37e+09  0.8803  -0.01639  0.0233  0.007493  -0.03301  0.01271  0.2261  -0.9223
6.371e+09  0.7912  -0.3464  -0.01229  0.01017  0.04337  -0.02124  -0.1144  -0.9335
6.372e+09  0.5691  -0.6068  0.01978  0.03968  0.05366  -0.03696  -0.401  -0.8212
6.374e+09  0.392  -0.7992  0.02722  -0.002489  -0.03654  -0.0002635  -0.6673  -0.6937
6.375e+09  0.0978  -0.8417  -0.01878  0.007276  -0.02587  -0.00406  -0.8386  -0.3951
6.376e+09  -0.1985  -0.8245  -0.02696  0.01389  -0.006574  -0.001195  -0.9236  -0.05316
6.378e+09  -0.4698  -0.6823  0.0007077  -0.01742  0.01443  -0.0272  -0.9131  0.2527
6.379e+09  -0.708  -0.4648  0.04027  0.01599  0.03712  -0.02949  -0.7942  0.5395
6.38e+09  -0.8549  -0.2224  -0.01514  -0.019  0.02328  -0.005212  -0.5665  0.7775
6.381e+09  -0.8501  0.1039  0.036  -0.007089  0.0109  0.01767  -0.244  0.8613
6.382e+09  -0.7451  0.3667  -0.01773  -0.006698  -0.01071  -0.01066  0.05828  0.8958
6.384e+09  -0.5908  0.6623  -0.02491  -0.01067  -0.01342  0.01661  0.3692  0.8393
6.385e+09  -0.3436  0.8254  0.03724  -0.0229  -0.01996  -0.01171  0.6705  0.6899
6.386e+09  -0.04827  0.8661  0.005895  -0.01414  0.01175  -0.0143  0.7865  0.4241
6.388e+09  0.3003  0.8351  0.03854  0.01565  -0.01519  -0.02085  0.9604  0.1127
6.389e+09  0.4911  0.6818  0.02997  -0.0275  -0.009768  -0.00424  0.9076  -0.1684
6.39e+09  0.7418  0.4252  0.004948  0.01858  0.03616  -0.007918  0.7933  -0.4928
6.391e+09  0.799  0.1419  -0.0005678  -0.00717  0.01965  -0.04666  0.5509  -0.7437
6.392e+09  0.8654  -0.1008  -0.03198  -0.04177  -0.01448  -0.0256  0.3099  -0.8309
6.394e+09  0.7492  -0.4477  0.03716  -0.005674  -0.0191  0.006493  -0.02111  -0.9296
6.395e+09  0.5391  -0.6896  0.009775  -0.01171  0.03016  0.01883  -0.3202  -0.8154
6.396e+09  0.2774  -0.825  -0.03446  -0.01651  0.03031  0.001679  -0.5665  -0.7043
6.398e+09  0.01723  -0.8383  -0.006103  0.01461  -0.05468  -0.04586  -0.8434  -0.3984
6.399e+09  -0.3211  -0.8138  -0.002072  0.008178  -0.009061  0.01461  -0.9022  -0.1191
6.4e+09  -0.5387  -0.6869  0.001299  -0.0402  0.01387  0.0106  -0.919  0.1727
6.401e+09  -0.7605  -0.3857  0.004055  -0.01434  -0.0545  0.02519  -0.7989  0.4528
6.402e+09  -0.8172  -0.1359  -0.001266  0.00987  -0.0251  -0.03685  -0.568  0.7166
6.404e+09  -0.8198  0.1746  0.04246  0.004831  -0.0383  -0.02624  -0.3268  0.8387
6.405e+09  -0.6989  0.4511  -0.01531  0.01833  -0.03618  0.01146  0.0124  0.8807
6.406e+09  -0.6221  0.6602  -0.001363  -0.01393  0.02195  -0.01955  0.2897  0.8632
6.408e+09  -0.2565  0.7894  0.03408  0.005474  -0.03528  -0.03017  0.6058  0.6901
6.409e+09  0.006842  0.9005  -0.01166  0.008774  -0.0329  0.000489  0.7652  0.4325
6.41e+09  0.265  0.8056  -0.01477  -0.003713  -0.003659  0.01423  0.9207  0.1584
6.411e+09  0.5877  0.5977  -0.02425  0.02738  0.004882  -0.03211  0.9061  -0.1713
6.412e+09  0.7664  0.3766  0.01483  0.002902  0.01997  -0.02283  0.7776  -0.4311
6.414e+09  0.8708  0.1348  -0.04425  0.005869  0.0267  -0.005932  0.5963  -0.6661
6.415e+09  0.8473  -0.1802  -0.03744  -0.01936  -0.02221  -0.03734  0.343  -0.8579
6.416e+09  0.7258  -0.4234  -0.01246  0.01903  -0.00223  0.02102  0.06463  -0.8783
6.418e+09  0.4759  -0.6943  -0.03543  -0.007848  -0.005097  0.02301  -0.2462  -0.8395
6.419e+09  0.2245  -0.8446  -0.0263  0.003012  -0.03523  0.0221  -0.5288  -0.6857
6.42e+09  -0.03736  -0.843  -0.007625  0.007806  -0.0349  0.05467  -0.7629  -0.4778
6.421e+09  -0.3256  -0.7556  0.03802  0.0255  -0.006517  -0.01513  -0.9113  -0.1851
6.422e+09  -0.6304  -0.5933  0.03221  -0.01759  0.02759  0.01562  -0.8832  0.117
6.424e+09  -0.8042  -0.3645  -0.02837  0.01097  -0.0003369  0.03224  -0.7959  0.4223
6.425e+09  -0.8306  -0.08436  0.05452  0.002922  -0.002217  -0.01744  -0.6306  0.6345
6.426e+09  -0.8116  0.2177  0.01717  0.01275  0.02244  0.02872  -0.3095  0.8103
6.428e+09  -0.6978  0.5311  0.01091  -0.01448  -0.02595  -0.02634  -0.04099  0.8676
6.429e+09  -0.4459  0.7164  -0.01452  -0.01439  -0.02095  -0.02409  0.2156  0.8459
6.43e+09  -0.2123  0.8501  -0.01735  0.005659  0.01768  0.06057  0.5261  0.6646
6.431e+09  0.1159  0.8859  -0.04305  -0.006206  0.00353  -0.0226  0.7461  0.4327
6.432e+09  0.3611  0.7689  -0.01899  0.0003206  -0.007101  -0.0187  0.8241  0.1924
6.434e+09  0.6022  0.5938  -0.01084  0.03804  0.04196  -0.0133  0.8642  -0.06111
6.435e+09  0.7797  0.3633  0.01356  -0.02221  0.002988  -0.01488  0.7911  -0.358
6.436e+09  0.8741  0.1163  -0.005565  0.01439  0.02135  -0.01699  0.5163  -0.5939
6.438e+09  0.7997  -0.2367  -0.02782  0.02985  0.0006977  0.03882  0.3763  -0.7421
6.439e+09  0.6117  -0.4519  -0.02947  -0.03583  -0.001831  0.01708  0.05855  -0.8253
6.44e+09  0.4774  -0.7026  0.006812  -0.0121  0.001302  0.02619  -0.2284  -0.7922
6.441e+09  0.172  -0.8131  -0.008371  -0.03623  0.03396  0.04504  -0.473  -0.6895
6.442e+09  -0.1097  -0.7883  0.04097  -0.03342  -0.02308  0.007199  -0.7049  -0.4436
6.444e+09  -0.3209  -0.7793  0.02567  0.0126  0.01766  -0.05248  -0.8155  -0.2217
6.445e+09  -0.646  -0.6063  0.004402  -0.01266  0.01079  0.03161  -0.8653  0.07061
6.446e+09  -0.7743  -0.3471  0.005431  -0.008931  -0.03585  0.04789  -0.7608  0.3809
6.448e+09  -0.8747  -0.03177  0.004794  -0.02175  -0.02868  0.01181  -0.5698  0.5792
6.449e+09  -0.7403  0.2163  -0.02252  0.03309  -0.003269  -0.008847  -0.3217  0.7469
6.45e+09  -0.6629  0.5137  -0.008178  0.03098  0.01622  0.008116  -0.04313  0.8156
6.451e+09  -0.5051  0.6964  0.01417  0.008689  0.0458  -0.003768  0.2344  0.8113
6.452e+09  -0.2049  0.8305  0.01099  -0.06389  -0.05832  0.01266  0.4584  0.7142
6.454e+09  0.1235  0.8361  0.003556  0.03554  -0.0286  0.007933  0.7177  0.4925
6.455e+09  0.4141  0.7369  0.008945  0.01452  0.03452  -0.03873  0.7767  0.2316
6.456e+09  0.615  0.5961  0.01032  0.0007002  -0.003077  -0.01975  0.7785  -0.07906
6.458e+09  0.7897  0.3072  -0.02918  -0.01986  0.009881  0.0004927  0.7256  -0.3577
6.459e+09  0.8268  0.05128  0.03309  -0.008416  -0.01703  0.006591  0.5542  -0.5781
6.46e+09  0.797  -0.2525  -0.01703  -0.01563  -0.01487  0.01391  0.3471  -0.7427
6.461e+09  0.6789  -0.5372  0.01719  0.02303  -0.01325  0.03678  0.07479  -0.7897
6.462e+09  0.4768  -0.7311  -0.01873  0.007377  -0.0006514  -0.01462  -0.2746  -0.7889
6.464e+09  0.1606  -0.8033  0.0002834  0.014  0.02107  -0.008007  -0.4327  -0.627
6.465e+09  -0.1698  -0.8652  0.01202  -0.02286  -0.05612  0.004278  -0.6728  -0.4986
6.466e+09  -0.415  -0.7971  -0.01524  -0.007539  -0.0105  0.017  -0.7733  -0.2109
6.468e+09  -0.6129  -0.5838  -0.01531  0.02368  -0.0387  -0.0225  -0.8026  0.09156
6.469e+09  -0.8017  -0.3243  0.02344  0.005653  0.03235  0.03787  -0.6795  0.3478
6.47e+09  -0.8833  -0.0238  -0.007157  0.01487  -0.03662  -0.04747  -0.5705  0.5519
6.471e+09  -0.8089  0.253  0.01412  -0.004832  0.01996  0.01834  -0.3178  0.7514
6.472e+09  -0.6737  0.5534  -0.02768  -0.02809  -0.02063  0.001056  -0.07887  0.7694
6.474e+09  -0.4933  0.7618  -0.03504  0.04299  0.0155  0.006286  0.2284  0.7381
6.475e+09  -0.1355  0.8907  -0.004389  -0.01493  -0.004679  0.02901  0.4719  0.644
6.476e+09  0.1521  0.8703  -0.009645  -0.01749  -0.03268  0.001033  0.7086  0.4473
6.478e+09  0.424  0.7099  0.0007077  0.01398  -0.03558  -0.02459  0.7475  0.1975
6.479e+09  0.6332  0.5246  0.004413  -0.003887  0.001836  0.05052  0.8084  -0.08309
6.48e+09  0.777  0.296  0.02927  -0.004775  0.02018  0.008116  0.7181  -0.3167
6.481e+09  0.8721  -0.0137  0.01049  0.0442  -0.01036  0.005099  0.5573  -0.5816
6.482e+09  0.8163  -0.258  -0.03025  -0.006661  -0.014  -0.0114  0.2937  -0.717
6.484e+09  0.6734  -0.5745  -0.02243  -0.01917  0.03035  0.01227  0.04598  -0.7578
6.485e+09  0.4656  -0.7596  0.01534  0.02208  -0.01422  -0.01972  -0.2029  -0.7608
6.486e+09  0.116  -0.863  -0.009899  0.0201  0.007589  -0.01501  -0.435  -0.6207
6.488e+09  -0.2514  -1.567  0.01835  -0.03576  0.04523  -0.7134  -0.6552  -0.4387
6.489e+09  -0.419  -0.7487  0.02817  -0.02983  0.00207  -0.005838  -0.7535  -0.1656
6.49e+09  -0.6524  -0.5888  0.01486  0.0062  -0.03908  0.01284  -0.753  0.1027
6.491e+09  -0.7853  -0.3264  -0.01414  -0.04059  -0.03087  -0.03198  -0.7016  0.328
6.492e+09  -0.9015  0.01225  0.02635  0.0129  0.05178  -0.03755  -0.5393  0.5327
6.494e+09  -0.7697  0.372  0.04604  0.01361  0.1049  0.02226  -0.3088  0.6747
6.495e+09  -0.657  0.614  -0.01465  0.01258  0.05361  0.04739  -0.04339  0.7692
6.496e+09  -0.4238  0.7209  0.03112  -0.02127  0.0215  0.04287  0.2245  0.7269
6.498e+09  -0.1696  0.8232  -0.04033  -0.02549  0.004332  -0.004225  0.4433  0.6336
6.499e+09  0.1521  0.8549  -0.02434  -0.01647  -0.00839  0.02279  0.6366  0.4184
6.5e+09  0.4801  0.7647  -0.001452  -0.04195  -0.06935  0.02954  0.7034  0.1599
6.501e+09  0.6508  0.5792  -0.03411  0.06652  0.05318  0.01686  0.7858  -0.1515
6.502e+09  0.8243  0.2934  0.01407  -0.004064  0.03267  -0.02012  0.6613  -0.3183
6.504e+09  0.899  -0.01298  0.003852  -0.009294  -0.03188  0.03279  0.5066  -0.6002
6.505e+09  0.8359  -0.3004  -0.003082  0.02824  0.006946  0.005942  0.2627  -0.7438
6.506e+09  0.6964  -0.6386  0.05947  0.03458  0.031  0.0191  -0.0007557  -0.7706
6.508e+09  0.4217  -0.785  0.01526  0.01544  0.01585  -0.05701  -0.2432  -0.7315
6.509e+09  0.1394  -0.8777  -0.02829  0.01494  -0.006442  -0.003577  -0.5003  -0.5651
6.51e+09  -0.2102  -0.8448  0.002842  -0.01312  0.05005  -0.04553  -0.6793  -0.3534
6.511e+09  -0.469  -0.7666  0.02873  -0.02396  0.05069  0.03651  -0.7486  -0.1282
6.512e+09  -0.6927  -0.5843  -0.008634  -0.0207  -0.01684  0.06831  -0.7497  0.1332
6.514e+09  -0.8385  -0.3194  0.01076  0.03096  0.04661  0.02443  -0.6396  0.3842
6.515e+09  -0.9167  0.05777  -0.001425  0.003974  -0.004435  -0.01632  -0.4702  0.6175
6.516e+09  -0.8986  0.3974  0.00529  0.01691  -0.004376  0.01218  -0.2265  0.7085
6.518e+09  -0.7035  0.5506  -0.004089  0.01039  0.03375  -0.03226  0.00798  0.7523
6.519e+09  -0.4601  0.8187  0.001677  0.03259  -0.02164  -0.03696  0.2839  0.6732
6.52e+09  -0.1264  0.9322  -0.01639  -0.006902  -0.02248  0.004417  0.4687  0.5153
6.521e+09  0.2567  0.896  -0.03103  0.011  0.01752  0.01812  0.628  0.2901
6.522e+09  0.5502  0.7202  0.02143  0.009301  -0.009961  0.008546  0.7237  0.09655
6.524e+09  0.784  0.5466  0.03039  -0.01633  0.01267  0.03146  0.6942  -0.1399
6.525e+09  0.8643  0.2456  0.01387  0.01089  -0.01865  -0.03155  0.6188  -0.3928
6.526e+09  0.9662  -0.08151  0.01295  -0.05509  0.01526  0.01817  0.4433  -0.5613
6.528e+09  0.85  -0.398  -0.009097  -0.01613  0.01784  0.002018  0.2108  -0.678
6.529e+09  0.6123  -0.6319  0.005406  -0.02159  -0.002133  -0.03377  -0.0177  -0.7285
6.53e+09  0.3158  -0.7881  -0.006045  0.01152  -0.0002785  0.007138  -0.2869  -0.6334
6.531e+09  0.04388  -0.927  -0.0237  -0.004835  0.03316  -0.01136  -0.4698  -0.515
6.532e+09  -0.2197  -0.8692  -0.000497  0.01517  -0.02542  -0.01959  -0.5898  -0.3276
6.534e+09  -0.5709  -0.7158  0.01032  0.0004936  0.03729  -0.0003167  -0.6508  -0.0692
6.535e+09  -0.7993  -0.5307  0.00796  -0.02402  0.01119  -0.00507  -0.5928  0.09513
6.536e+09  -0.8786  -0.1657  -0.01106  -0.01399  0.03351  -0.01734  -0.5981  0.2986
6.538e+09  -0.9012  0.1295  -0.04353  -0.0144  -0.02187  0.03574  -0.4474  0.4631
6.539e+09  -0.8195  0.4131  -0.02611  -0.005149  0.0004536  0.0171  -0.2946  0.5688
6.54e+09  -0.6082  0.6842  -0.004987  -0.01623  -0.0103  -0.03686  -0.05312  0.6463
6.541e+09  -0.3457  0.9192  -0.007871  -0.007505  -0.01186  0.01747  0.1944  0.6538
6.542e+09  -0.0161  0.942  -0.01584  -0.02464  -0.02392  0.01532  0.4143  0.5762
6.544e+09  0.3354  0.8577  -0.01639  0.02601  0.04887  0.02534  0.5908  0.3997
6.545e+09  0.6104  0.767  0.03221  0.04426  0.01721  0.004021  0.6644  0.1705
6.546e+09  0.8381  0.4115  -0.02385  0.005864  -0.02164  -0.0109  0.7138  -0.08604
6.548e+09  0.8865  0.1573  -0.01916  0.04753  -0.01895  0.01668  0.645  -0.3475
6.549e+09  0.8996  -0.2193  0.005396  0.01101  -0.03908  0.01338  0.519  -0.5198
6.55e+09  0.7657  -0.5015  -0.006597  -0.02108  0.005998  -0.01684  0.2863  -0.6879
6.551e+09  0.5736  -0.7449  0.004041  -0.02165  -0.04838  0.02834  0.03576  -0.7407
