# Hz S RI R 50
6.25e+09  -0.3025  0.6981  0.01764  0.01558  -0.01285  -0.0014  0.1655  0.476
6.251e+09  -0.07824  0.8481  -0.004169  -0.006272  0.05385  -0.004907  0.4066  0.4069
6.252e+09  0.1913  0.83  -0.006796  -0.02373  -0.001142  0.02994  0.524  0.2642
6.254e+09  0.4953  0.6912  -0.02655  0.002414  0.02175  0.008683  0.57  0.01711
6.255e+09  0.6987  0.4455  -0.02408  -0.01322  0.004913  -0.02614  0.5509  -0.2499
6.256e+09  0.7887  0.1432  -0.006968  0.02828  0.01884  -0.006492  0.4979  -0.443
6.258e+09  0.787  -0.1116  -0.02127  0.004878  0.05115  -0.0525  0.2792  -0.6116
6.259e+09  0.7566  -0.3608  0.007981  0.004443  0.009232  -0.03832  0.03269  -0.66
6.26e+09  0.5338  -0.6142  -0.02432  -0.003568  -0.009189  0.01521  -0.2116  -0.635
6.261e+09  0.3158  -0.7191  0.01674  0.01841  0.01767  0.02592  -0.44  -0.5314
6.262e+09  0.02301  -0.8081  0.01648  -0.02927  0.009505  -0.004003  -0.5996  -0.3663
6.264e+09  -0.2809  -0.7709  -0.02057  0.01193  -0.04449  0.0463  -0.7437  -0.1087
6.265e+09  -0.4983  -0.6157  0.005439  -0.01681  -0.009999  0.006333  -0.7008  0.1624
6.266e+09  -0.6967  -0.431  -0.05191  0.03292  -0.004576  -0.0158  -0.5883  0.4092
6.268e+09  -0.8108  -0.1667  -0.02979  -0.007144  -0.01354  0.044  -0.4424  0.6029
6.269e+09  -0.8068  0.09202  0.01294  -0.03172  -0.03498  -0.03494  -0.211  0.7208
6.27e+09  -0.6654  0.4147  0.008649  -0.01912  -0.06411  0.003939  0.08495  0.7651
6.271e+09  -0.5422  0.6291  -0.01914  0.007284  -0.008471  -0.03705  0.3089  0.6687
6.272e+09  -0.2708  0.7122  0.01658  -0.01347  -0.03872  -0.01891  0.5398  0.52
6.274e+09  -0.03754  0.8222  0.042  -0.01516  0.02011  -0.02105  0.696  0.277
6.275e+09  0.2408  0.7848  0.01175  -0.01889  -0.01605  0.01091  0.7386  0.05804
6.276e+09  0.5354  0.649  0.00368  -0.009075  -0.02301  -0.001702  0.742  -0.2293
6.278e+09  0.6677  0.4492  -0.01115  0.003175  0.04059  0.04042  0.6094  -0.4453
6.279e+09  0.8388  0.1939  0.03329  -0.0006055  0.03079  0.04062  0.4195  -0.6485
6.28e+09  0.8347  -0.1879  0.02851  -0.009638  -0.006396  0.02122  0.166  -0.7509
6.281e+09  0.6893  -0.3739  -0.001902  -0.0278  -0.003679  0.03579  -0.1272  -0.7722
6.282e+09  0.4813  -0.6175  0.05048  0.0201  0.01165  -0.02722  -0.3483  -0.6791
6.284e+09  0.2864  -0.7749  0.02801  -0.005372  -0.009173  -0.02244  -0.5773  -0.5055
6.285e+09  0.009915  -0.7916  0.002386  0.01468  0.02323  -0.0003471  -0.7396  -0.2858
6.286e+09  -0.3214  -0.7476  0.001563  0.02471  0.006042  0.002883  -0.7756  -0.006332
6.288e+09  -0.4863  -0.5965  0.01821  0.0105  0.001719  0.001723  -0.7514  0.2544
6.289e+09  -0.7598  -0.3519  -0.009144  0.02384  0.009106  0.01201  -0.6591  0.4919
6.29e+09  -0.7791  -0.1442  -0.01168  0.006109  -0.01161  -0.01028  -0.4221  0.6824
6.291e+09  -0.8534  0.1639  0.03173  0.0006136  -0.02091  -0.004458  -0.1727  0.7787
6.292e+09  -0.6987  0.3913  -0.02384  0.02229  0.007599  -0.07932  0.103  0.8014
6.294e+09  -0.5112  0.6173  0.009588  0.01883  0.02639  -0.001117  0.3415  0.7303
6.295e+09  -0.264  0.7671  0.03093  -0.01315  -0.0002008  0.003986  0.6048  0.5752
6.296e+09  0.03968  0.8263  -0.03363  0.02579  -0.02313  0.0245  0.7514  0.2851
6.298e+09  0.2917  0.7068  -0.005868  -0.006305  0.0005535  -0.02405  0.8329  0.01939
6.299e+09  0.5523  0.5837  -0.007877  -0.006744  0.02085  -0.003316  0.7893  -0.2972
6.3e+09  0.7148  0.3992  0.02771  -0.007496  0.031  -0.012  0.6244  -0.5363
6.301e+09  0.8418  0.1045  0.00848  0.004767  -0.007358  0.05555  0.4323  -0.7339
6.302e+09  0.8319  -0.1853  0.00696  -0.02365  0.08326  -0.01793  0.1393  -0.805
6.304e+09  0.6766  -0.4741  -0.002513  -0.01954  0.02366  0.01006  -0.1366  -0.8197
6.305e+09  0.4978  -0.6432  0.04202  -0.01463  0.03313  -0.02328  -0.4053  -0.7543
6.306e+09  0.1837  -0.7622  0.00782  -0.003141  -0.006937  -0.02049  -0.6507  -0.5805
6.308e+09  -0.1141  -0.7988  0.01213  -0.01224  0.006415  0.01207  -0.825  -0.3052
6.309e+09  -0.346  -0.7268  0.00248  0.008888  0.009574  -0.02284  -0.8572  0.008385
6.31e+09  -0.5287  -0.5736  0.002284  0.007529  -0.02076  0.004179  -0.8153  0.2827
6.311e+09  -0.7284  -0.3517  0.006858  -0.002118  -0.03089  -0.01759  -0.6851  0.5207
6.312e+09  -0.7991  -0.03129  0.02512  -0.005089  0.04144  0.05884  -0.4244  0.7298
6.314e+09  -0.8446  0.2167  0.02327  0.01267  -0.03026  -0.02325  -0.1862  0.8461
6.315e+09  -0.6269  0.4535  0.01876  -0.04443  0.03501  0.006313  0.1316  0.8617
6.316e+09  -0.4006  0.7289  0.01423  -0.02065  0.004523  -0.01807  0.4175  0.7584
6.318e+09  -0.1656  0.7712  0.001739  -0.002401  0.0355  -0.04102  0.6733  0.5638
6.319e+09  0.12  0.8182  -0.002922  -0.009715  0.03683  -0.05475  0.8083  0.3193
6.32e+09  0.3567  0.7562  -0.02181  0.01892  -0.02076  -0.001668  0.8751  0.01431
6.321e+09  0.5796  0.555  -0.006269  -0.013  -0.003213  -0.002606  0.8422  -0.3046
6.322e+09  0.7549  0.3009  0.01885  -0.01198  -0.01078  0.01101  0.6873  -0.5736
6.324e+09  0.7811  0.01422  0.003422  0.002969  -0.008426  0.0006972  0.4696  -0.7874
6.325e+09  0.7756  -0.3011  -0.01178  0.007499  -0.001115  -0.006797  0.156  -0.8537
6.326e+09  0.6176  -0.4923  -0.001432  0.01097  -0.0336  -0.01087  -0.1281  -0.8835
6.328e+09  0.4247  -0.6893  0.01166  -0.01527  -0.02194  0.01732  -0.4173  -0.7578
6.329e+09  0.1369  -0.7888  -0.009145  -0.0157  0.03643  0.0117  -0.6804  -0.6095
6.33e+09  -0.1599  -0.811  -0.009219  0.03732  -0.01154  -0.02115  -0.8523  -0.3433
6.331e+09  -0.3829  -0.7339  0.02962  -0.04731  0.01237  0.02627  -0.9049  -0.02289
6.332e+09  -0.6529  -0.517  -0.008576  0.01751  0.02408  -0.01202  -0.8457  0.2972
6.334e+09  -0.7511  -0.2773  0.03805  0.01042  0.02141  0.03247  -0.722  0.5566
6.335e+09  -0.8607  0.01953  -0.009347  -0.02636  -0.04209  -0.0372  -0.4669  0.7874
6.336e+09  -0.85  0.352  0.00988  -0.005264  0.01245  -0.02567  -0.2108  0.8586
6.338e+09  -0.5973  0.5809  0.02753  0.03505  -0.02194  -0.000413  0.1232  0.9042
6.339e+09  -0.3711  0.6953  -0.02006  -0.007959  -0.00451  -0.02576  0.4512  0.8154
6.34e+09  -0.04477  0.8122  -0.01834  -0.04959  0.01269  -0.05294  0.7036  0.6436
6.341e+09  0.1961  0.8232  -0.01098  0.0004904  0.006128  0.01542  0.8561  0.3542
6.342e+09  0.4823  0.7286  -0.007193  -0.04717  -0.02315  0.02478  0.9586  0.04273
6.344e+09  0.6899  0.5068  -0.025  -0.004738  -0.01782  0.04232  0.8745  -0.2799
6.345e+09  0.8111  0.2333  0.02613  -0.02783  -0.03857  0.004811  0.7556  -0.5578
6.346e+09  0.8213  -0.09711  0.01414  -0.02423  0.002303  0.01649  0.5408  -0.7729
6.348e+09  0.7531  -0.3731  -0.01152  0.0163  -0.01331  0.02752  0.2263  -0.899
6.349e+09  0.6096  -0.6349  0.02206  -0.03555  0.002276  0.002103  -0.0798  -0.9186
6.35e+09  0.3902  -0.7925  -0.01405  0.0257  0.03658  0.02284  -0.4172  -0.8446
6.351e+09  0.04929  -0.8319  -0.002783  -0.05588  0.03177  0.02352  -0.6727  -0.6513
6.352e+09  -0.243  -0.804  0.05101  -0.02519  -0.003444  -0.001629  -0.867  -0.3638
6.354e+09  -0.5185  -0.658  0.01898  0.0295  0.004326  -0.03929  -0.9418  -0.07137
6.355e+09  -0.7073  -0.4259  0.003671  0.0005178  -0.001337  -0.01433  -0.9112  0.2694
6.356e+09  -0.8287  -0.1754  -0.004664  0.01415  -0.005075  -0.001718  -0.7655  0.5601
6.358e+09  -0.8192  0.1513  0.001009  0.01649  -0.007466  0.01377  -0.5726  0.7859
6.359e+09  -0.692  0.4353  0.01285  -0.007732  0.02999  -0.00793  -0.239  0.92
6.36e+09  -0.5221  0.691  0.001789  0.0255  -0.05899  0.00822  0.1026  0.9462
6.361e+09  -0.3117  0.7692  -0.01475  -0.003316  0.045  0.01738  0.3925  0.8726
6.362e+09  -0.02762  0.8284  -0.008785  -0.0008087  0.02004  -0.02096  0.6658  0.6633
6.364e+09  0.3495  0.8051  -0.0002182  0.03241  -0.01247  -0.01826  0.8745  0.3971
6.365e+09  0.5034  0.6791  -0.0003426  -0.01804  -0.03733  0.04601  0.9264  0.07818
6.366e+09  0.7046  0.3588  0.007029  0.02187  -0.008294  -0.07596  0.9151  -0.2246
6.368e+09  0.8081  0.1284  -0.003272  0.0128  -0.03219  -0.04041  0.7757  -0.5447
6.369e+09  0.8193  -0.1692  -0.007495  -0.02668  -0.003946  0.01683  0.5516  -0.7965
6.37e+09  0.7371  -0.4637  0.0009549  -0.01287  -0.01799  0.00518  0.2057  -0.9249
6.371e+09  0.5226  -0.7035  -0.005947  0.01576  0.009239  -0.008388  -0.06326  -0.9433
6.372e+09  0.2363  -0.8154  0.02099  0.02924  -0.03775  0.01321  -0.4223  -0.8745
6.374e+09  -0.005973  -0.831  0.03187  0.008335  -0.03453  -0.04507  -0.6602  -0.6678
6.375e+09  -0.3293  -0.7257  -0.03981  -0.0256  0.01307  0.05865  -0.8604  -0.4409
6.376e+09  -0.6105  -0.6054  0.05769  0.01988  -0.01023  0.02613  -0.965  -0.0894
6.378e+09  -0.7851  -0.351  -0.03277  -0.01275  -0.02329  -0.007947  -0.9404  0.2451
6.379e+09  -0.8347  -0.0651  -0.01223  -0.0363  0.004975  -0.01395  -0.7734  0.5061
6.38e+09  -0.805  0.2774  0.02334  0.009901  0.03832  -0.04326  -0.5719  0.7229
6.381e+09  -0.6672  0.5052  0.04213  0.03486  0.01774  -0.0003757  -0.2602  0.8927
6.382e+09  -0.4672  0.7643  0.00884  -0.001804  0.01197  0.01391  0.0529  0.924
6.384e+09  -0.245  0.8348  0.009868  -0.01377  0.02455  -0.02958  0.3614  0.8694
6.385e+09  0.0874  0.8623  -0.01633  -0.009064  -0.02066  -0.004451  0.6006  0.6628
6.386e+09  0.4207  0.7885  0.02545  -0.02299  0.02529  0.004654  0.829  0.444
6.388e+09  0.601  0.5885  0.002641  -0.007735  -0.007043  0.007139  0.9334  0.09916
6.389e+09  0.8284  0.3491  -0.04473  0.03446  -0.003962  -0.009108  0.9262  -0.2208
6.39e+09  0.9154  0.05567  -0.01196  -0.01002  0.01884  0.06677  0.7899  -0.5123
6.391e+09  0.7861  -0.2269  -0.009317  -0.006773  -0.01816  -0.00492  0.552  -0.7052
6.392e+09  0.6627  -0.4504  -0.0359  0.005089  0.0006555  -0.03483  0.301  -0.8567
6.394e+09  0.4666  -0.697  -0.01551  0.004608  -0.0108  0.0215  -0.05065  -0.8951
6.395e+09  0.1984  -0.8302  0.04753  -0.03385  0.02085  -0.01019  -0.4039  -0.8577
6.396e+09  -0.162  -0.8541  0.02108  -0.01905  0.04244  0.003934  -0.6387  -0.7163
6.398e+09  -0.4172  -0.7462  -0.006151  0.01723  0.007075  0.0316  -0.8126  -0.4155
6.399e+09  -0.6466  -0.5821  0.01915  -0.02394  0.0198  -0.02113  -0.8799  -0.1451
6.4e+09  -0.8071  -0.2656  -0.009584  0.02469  -0.03371  0.004306  -0.8873  0.1695
6.401e+09  -0.8896  -0.02167  0.0572  -0.000965  0.06988  0.000714  -0.7784  0.4757
6.402e+09  -0.7905  0.2266  0.01328  0.009453  0.02493  -0.02521  -0.6197  0.6908
6.404e+09  -0.6461  0.5376  -0.005041  0.01501  0.02691  -0.00015  -0.3164  0.8162
6.405e+09  -0.4498  0.7176  -0.03573  0.02761  0.02673  -0.03831  -0.03166  0.8682
6.406e+09  -0.1554  0.833  -0.02089  0.01037  0.01343  0.002178  0.3497  0.8895
6.408e+09  0.138  0.8279  0.007822  0.001511  0.007157  0.03581  0.5755  0.7096
6.409e+09  0.347  0.7472  0.005896  -0.01511  -0.0136  -0.01651  0.7684  0.4538
6.41e+09  0.6533  0.5166  -0.02022  0.005684  -0.0126  0.02161  0.895  0.1398
6.411e+09  0.8213  0.2865  -0.01372  0.02973  0.05394  -0.01727  0.9234  -0.1122
6.412e+09  0.8501  -0.01059  0.03491  -0.03398  -0.01015  -0.0529  0.8138  -0.4423
6.414e+09  0.8431  -0.2824  -0.02303  0.0311  -0.05876  0.0129  0.6105  -0.6762
6.415e+09  0.6527  -0.568  0.03598  -0.02451  -0.02368  -0.008979  0.3776  -0.8488
6.416e+09  0.3854  -0.7202  0.006014  0.007559  -0.01044  0.02351  0.07312  -0.9264
6.418e+09  0.09535  -0.8205  -0.02395  -0.03924  0.04338  -0.007861  -0.3208  -0.8484
6.419e+09  -0.1558  -0.8189  0.06768  0.01808  -0.02613  -0.007186  -0.5564  -0.7118
6.42e+09  -0.4425  -0.7763  -0.01012  -0.008979  0.02124  0.04454  -0.7896  -0.4266
6.421e+09  -0.6575  -0.5062  0.02813  -0.03133  -0.03329  -0.00258  -0.8518  -0.2009
6.422e+09  -0.8355  -0.2689  0.0376  0.01407  -0.03183  0.01744  -0.8829  0.08859
6.424e+09  -0.8409  -0.05673  -0.03597  0.04202  0.00853  0.02026  -0.7945  0.3803
6.425e+09  -0.779  0.2543  0.003242  -0.02942  -0.03889  -0.01989  -0.6398  0.596
6.426e+09  -0.6273  0.557  -0.0359  0.02206  -0.005314  0.007949  -0.3326  0.8085
6.428e+09  -0.4454  0.8012  0.007768  0.02614  0.03754  0.03866  -0.07074  0.8585
6.429e+09  -0.05011  0.8693  -0.01056  0.01322  0.0179  0.03025  0.237  0.8291
6.43e+09  0.1834  0.8369  0.02867  -0.05078  0.03923  9.267e-06  0.5057  0.6998
6.431e+09  0.4639  0.7343  0.00744  -0.01476  -0.007373  -0.0007988  0.7584  0.4576
6.432e+09  0.6444  0.5332  0.02732  0.03435  -0.0006134  0.009097  0.8293  0.2155
6.434e+09  0.8504  0.2889  -0.004608  0.03788  -0.007744  0.01152  0.824  -0.06358
6.435e+09  0.8851  -0.04374  -0.007985  -0.0007067  0.00387  0.02004  0.7803  -0.3836
6.436e+09  0.7525  -0.3345  -0.01186  -0.01503  0.04626  0.01008  0.6121  -0.6583
6.438e+09  0.6509  -0.6017  0.01961  -0.004544  -0.03092  0.01708  0.3436  -0.7827
6.439e+09  0.414  -0.7552  0.009727  0.02195  0.005592  -0.003363  0.07553  -0.8866
6.44e+09  0.09291  -0.8144  -0.03435  -0.007044  0.01313  0.05468  -0.2316  -0.7608
6.441e+09  -0.1737  -0.8794  -0.05497  -0.008228  -0.036  0.08221  -0.5374  -0.731
6.442e+09  -0.4954  -0.7328  0.002101  -0.02625  -0.006896  0.01205  -0.696  -0.4638
6.444e+09  -0.6895  -0.502  -0.0005595  -0.002058  0.00477  -0.02408  -0.8382  -0.2323
6.445e+09  -0.8419  -0.2571  -0.001083  -0.007022  0.02972  0.03731  -0.8105  0.0735
6.446e+09  -0.8457  0.06945  0.02264  -0.0285  -0.0112  -0.02506  -0.807  0.3097
6.448e+09  -0.8032  0.3464  0.01994  0.0008995  0.03024  0.02026  -0.6118  0.5735
6.449e+09  -0.6302  0.5751  -0.0676  0.04005  -0.02972  0.04074  -0.3309  0.7759
6.45e+09  -0.3826  0.7812  0.03041  -0.01637  -0.01746  -0.00895  -0.06068  0.7716
6.451e+09  -0.0774  0.8479  -0.01789  0.0188  0.03133  0.01041  0.1967  0.802
6.452e+09  0.2361  0.8201  -0.004452  0.02607  -0.005567  -0.06923  0.4773  0.7141
6.454e+09  0.4581  0.696  -0.004  -0.01179  -0.02272  -0.02591  0.6819  0.4145
6.455e+09  0.6789  0.4785  0.001047  0.01388  -0.03702  -0.06634  0.7887  0.1707
6.456e+09  0.8304  0.2513  0.04337  0.02194  0.02342  0.05674  0.8372  -0.05186
6.458e+09  0.8855  -0.003789  -0.01682  0.04859  0.004465  -0.02665  0.7126  -0.3507
6.459e+09  0.7473  -0.2911  0.02808  0.0002876  0.02204  -0.01033  0.5973  -0.571
6.46e+09  0.5973  -0.6014  0.01129  0.0006181  -0.04155  -0.04268  0.3354  -0.7389
6.461e+09  0.4314  -0.7597  0.04801  0.05066  -0.05047  0.003848  0.05818  -0.8144
6.462e+09  0.08361  -0.8554  -0.02299  0.0118  0.04682  -0.007713  -0.197  -0.7834
6.464e+09  -0.2374  -0.8361  0.007861  -0.007414  -0.03841  -0.02976  -0.471  -0.6687
6.465e+09  -0.4454  -0.7442  -0.004499  0.0315  0.02197  0.07145  -0.6894  -0.458
6.466e+09  -0.7069  -0.4821  -0.02662  0.009276  0.00731  0.006689  -0.7995  -0.1957
6.468e+09  -0.8158  -0.2239  -0.002098  0.02004  0.03081  0.04279  -0.8028  0.04804
6.469e+09  -0.8448  0.04593  -0.03211  -0.03991  -0.01754  -0.04012  -0.7506  0.2901
6.47e+09  -0.8329  0.3536  -0.004225  -0.03555  -0.01011  7.244e-05  -0.5935  0.5689
6.471e+09  -0.639  0.6043  -0.02227  0.01305  -0.01898  -0.007162  -0.3616  0.7386
6.472e+09  -0.3817  0.8053  0.0005756  -0.01  0.03106  -0.03044  -0.08341  0.8096
6.474e+09  -0.06083  0.8379  -0.01982  -0.0002914  0.02835  -0.02947  0.1956  0.7588
6.475e+09  0.2234  0.8151  -0.01251  0.006201  0.04489  0.00681  0.4342  0.6677
6.476e+09  0.5575  0.7309  0.003646  -0.01818  0.003723  0.0329  0.648  0.4382
6.478e+09  0.7367  0.4826  -0.006506  0.05669  -0.01011  -0.02917  0.7735  0.1961
6.479e+09  0.8318  0.2031  -0.03089  0.05034  0.006693  -0.01473  0.7651  -0.07325
6.48e+09  0.8959  -0.1054  0.01978  0.007448  0.003066  0.00221  0.6807  -0.3366
6.481e+09  0.8074  -0.3821  -0.02375  -0.02526  -0.04471  -0.02625  0.556  -0.5716
6.482e+09  0.6181  -0.631  0.00824  -0.00694  0.05681  -0.00587  0.3274  -0.7593
6.484e+09  0.3803  -0.7475  0.01329  0.0264  0.01884  0.003179  0.03618  -0.7668
6.485e+09  0.03945  -0.8737  -0.006089  0.03244  -0.0144  -0.009647  -0.1981  -0.7783
6.486e+09  -0.2424  -0.8776  -0.01894  0.0007575  0.01466  -0.0645  -0.4423  -0.6285
6.488e+09  0.1089  -0.4536  -0.02068  0.0384  -0.5741  0.4019  -0.637  -0.4642
6.489e+09  -0.7135  -0.4435  -0.01906  -0.01142  0.01164  -0.02467  -0.7684  -0.1969
6.49e+09  -0.8744  -0.248  0.009669  0.01608  -0.02826  -0.03886  -0.7468  0.09127
6.491e+09  -0.8439  0.1387  0.02041  0.0002819  -0.03898  0.01089  -0.7073  0.35
6.492e+09  -0.7719  0.3609  0.0004984  0.02685  -0.0001341  0.01091  -0.5291  0.5343
6.494e+09  -0.7291  0.6973  -0.008712  -0.04455  0.01948  -0.1169  -0.2992  0.6811
6.495e+09  -0.3256  0.8614  0.03409  0.0003133  -0.009603  -0.02265  -0.04681  0.7519
6.496e+09  -0.03937  0.9035  -0.0284  -0.03165  0.0003557  -0.01831  0.2431  0.7079
6.498e+09  0.2879  0.8879  -0.02283  0.01785  -0.003599  -0.01594  0.4383  0.6103
6.499e+09  0.5384  0.7195  -0.01542  -0.02362  0.02075  -0.03481  0.6281  0.4453
6.5e+09  0.7614  0.4721  -0.01256  0.0171  -0.002274  0.01616  0.7338  0.1363
6.501e+09  0.8773  0.1905  -0.008864  -0.005851  0.01409  0.0296  0.7709  -0.1305
6.502e+09  0.8939  -0.1678  -0.02664  0.008221  0.02141  0.006202  0.6663  -0.3657
6.504e+09  0.8033  -0.4007  0.005982  0.009036  -0.003361  -0.0234  0.5095  -0.5551
6.505e+09  0.5588  -0.7158  -0.03734  -0.03113  0.02197  -0.009183  0.261  -0.7341
6.506e+09  0.3229  -0.8434  0.01102  -0.001226  -0.03417  -0.06974  0.001149  -0.7401
6.508e+09  -0.01189  -0.8974  0.001601  -0.003227  0.05413  0.04132  -0.2538  -0.6857
6.509e+09  -0.3142  -0.8483  -0.02354  0.03767  0.02653  0.01191  -0.4814  -0.5649
6.51e+09  -0.611  -0.7004  0.03867  0.01203  -0.007968  -0.03587  -0.6566  -0.3913
6.511e+09  -0.8006  -0.474  -0.02958  0.03114  0.04736  0.0008318  -0.7503  -0.1347
6.512e+09  -0.9431  -0.1626  -0.04916  0.0003247  -0.03353  -0.01846  -0.7325  0.1472
6.514e+09  -0.9041  0.187  0.01633  -0.003983  0.0005079  0.06676  -0.6614  0.3725
6.515e+09  -0.755  0.4711  0.01787  0.003479  0.01885  0.01374  -0.4564  0.5636
6.516e+09  -0.5558  0.7042  -0.03197  0.03216  -0.04188  -0.01575  -0.2639  0.6829
6.518e+09  -0.28  0.8526  0.005211  -0.006214  0.02584  0.03968  0.03611  0.7606
6.519e+09  -0.02702  0.8751  -0.01218  -0.004574  0.04067  -0.01336  0.2321  0.7353
6.52e+09  0.4015  0.8752  0.001572  0.01761  -0.06345  -0.01511  0.4672  0.571
6.521e+09  0.7236  0.6807  -0.002732  0.0009328  0.03514  -0.05246  0.6585  0.3414
6.522e+09  0.8658  0.3769  -0.005361  0.001795  0.004385  -0.03329  0.7171  0.106
6.524e+09  0.9212  0.06526  -0.001519  0.0007538  -0.002544  0.01856  0.688  -0.1499
6.525e+09  0.8993  -0.2623  0.00615  -0.01063  -0.02407  -0.01066  0.5979  -0.4085
6.526e+09  0.755  -0.5712  0.01719  -0.02859  -0.03267  0.0237  0.3778  -0.5963
6.528e+09  0.5684  -0.7961  0.01356  0.002897  0.006442  0.01846  0.2188  -0.6741
6.529e+09  0.2283  -0.9122  0.01283  -0.009824  0.003496  -0.003528  -0.02158  -0.6907
6.53e+09  -0.1053  -0.9521  0.03366  0.0126  -0.00975  -0.04172  -0.2783  -0.6083
6.531e+09  -0.3973  -0.8323  -0.002506  -0.007897  -0.03091  0.02906  -0.46  -0.4756
6.532e+09  -0.719  -0.6503  -0.01207  -0.01139  0.03825  -0.01683  -0.5886  -0.281
6.534e+09  -0.8703  -0.3196  -0.007208  0.03864  0.01417  0.01787  -0.6019  -0.09479
6.535e+09  -0.9393  -0.01947  0.00942  -0.002743  0.004254  0.0003667  -0.6201  0.1117
6.536e+09  -0.8845  0.3503  -0.01543  -0.01276  -0.01059  -0.01009  -0.5564  0.2824
6.538e+09  -0.6787  0.6105  -0.03979  -0.03674  -0.04809  0.04866  -0.4536  0.4711
6.539e+09  -0.4597  0.8221  0.02538  -0.01835  0.01401  0.0005836  -0.2775  0.5949
6.54e+09  -0.2011  0.9258  0.05397  0.01134  0.02171  0.01812  -0.0295  0.7126
6.541e+09  0.1253  0.8999  -0.01415  -0.01522  0.05731  -0.02611  0.2221  0.6785
6.542e+09  0.4914  0.8227  -0.005643  -0.006336  0.01103  0.03835  0.3953  0.571
6.544e+09  0.689  0.5445  0.04241  -0.01901  -0.04604  -0.006176  0.6151  0.4074
6.545e+09  0.8844  0.3032  0.0058  0.0344  -0.05068  -0.006595  0.7005  0.1328
6.546e+09  0.9306  -0.05632  -0.02658  -0.01241  0.03795  0.03918  0.729  -0.08048
6.548e+09  0.8689  -0.3942  0.005185  0.008348  0.005448  0.0078  0.622  -0.3748
6.549e+09  0.6738  -0.6395  0.02709  -0.02759  0.008707  -0.007497  0.5115  -0.511
6.55e+09  0.398  -0.7915  -0.01466  -0.02702  -0.01824  -0.02432  0.32  -0.6741
