# Hz S RI R 50
6.25e+09  -0.6619  0.4774  0.03412  0.05206  0.02293  -0.01618  0.1665  0.479
6.251e+09  -0.4216  0.7309  -0.01277  -0.009301  -0.004122  0.02109  0.3899  0.4136
6.252e+09  -0.2438  0.7988  -0.02138  -0.01265  -0.01401  -0.006106  0.5235  0.2165
6.254e+09  0.04232  0.8301  -0.0006398  0.01034  -0.003765  -0.01107  0.591  0.01022
6.255e+09  0.3411  0.7519  0.02118  -0.03879  0.05778  0.0251  0.6057  -0.2557
6.256e+09  0.5593  0.5862  0.02557  0.01597  0.009851  0.01978  0.4425  -0.4385
6.258e+09  0.7279  0.3211  0.01088  0.004705  -0.003305  0.009581  0.2814  -0.6116
6.259e+09  0.7751  0.03904  -0.006152  -0.01722  -0.02382  0.04261  0.04377  -0.6783
6.26e+09  0.7146  -0.2113  0.01588  -0.002478  0.01497  0.08365  -0.2133  -0.6112
6.261e+09  0.5885  -0.5273  -0.02823  0.01741  -0.007061  0.04011  -0.4384  -0.5475
6.262e+09  0.4317  -0.664  -0.005593  -0.009182  0.0186  -0.01851  -0.5988  -0.3465
6.264e+09  0.1827  -0.7637  -0.004535  0.003657  0.008289  0.02975  -0.6983  -0.09948
6.265e+09  -0.08491  -0.7856  0.009751  -0.03703  -0.03873  0.01742  -0.6718  0.1165
6.266e+09  -0.3706  -0.7474  -0.005608  0.02077  0.02221  0.0103  -0.5965  0.4075
6.268e+09  -0.5873  -0.5518  -0.001958  -0.04686  -0.05533  -0.006848  -0.4271  0.5622
6.269e+09  -0.7431  -0.349  0.003086  -0.0192  0.08248  -0.01958  -0.2056  0.6934
6.27e+09  -0.7795  -0.06064  -0.01513  0.05418  0.01711  -0.01954  0.05161  0.7314
6.271e+09  -0.8004  0.2149  -0.00727  0.01031  -0.05638  0.007037  0.3205  0.6781
6.272e+09  -0.6334  0.505  -0.006316  -0.01619  0.03966  -0.04609  0.535  0.5221
6.274e+09  -0.4068  0.6635  0.008105  -0.02129  0.0104  -0.0284  0.7104  0.3087
6.275e+09  -0.2123  0.7032  0.005751  -0.01302  -0.01637  -0.01518  0.7772  0.04999
6.276e+09  0.1544  0.7929  -0.0188  0.001245  0.034  0.00926  0.7364  -0.2335
6.278e+09  0.4302  0.6694  0.01937  -0.03485  -0.02694  0.0315  0.6114  -0.4463
6.279e+09  0.5477  0.5737  0.002141  -0.001464  0.02308  0.07619  0.408  -0.6576
6.28e+09  0.7372  0.2992  0.01257  0.0007861  -0.02294  0.00186  0.1867  -0.7388
6.281e+09  0.81  0.06237  -0.01856  0.007812  -0.01116  0.02474  -0.1198  -0.7581
6.282e+09  0.7813  -0.2244  0.009533  0.03033  -0.01783  0.01415  -0.3526  -0.6946
6.284e+09  0.6116  -0.5656  -0.001077  -0.02056  0.0002427  -0.03278  -0.5884  -0.5607
6.285e+09  0.3974  -0.7059  -0.008026  -0.03572  -0.03075  -0.028  -0.7639  -0.304
6.286e+09  0.1757  -0.8309  0.01987  0.005849  -0.001571  -0.02114  -0.7711  -0.005615
6.288e+09  -0.1023  -0.8039  -0.003791  0.01154  -0.004726  0.02708  -0.7654  0.2571
6.289e+09  -0.4002  -0.6929  0.04933  1.829e-05  0.007453  0.05369  -0.6128  0.4852
6.29e+09  -0.6454  -0.5188  0.01043  -0.02001  -0.02344  -0.01277  -0.4242  0.68
6.291e+09  -0.7346  -0.2595  0.005555  0.03315  -0.003708  -0.001775  -0.1264  0.8046
6.292e+09  -0.7342  0.006831  -0.02267  -0.004407  0.008786  -0.001669  0.1183  0.8343
6.294e+09  -0.7366  0.2352  0.0277  -0.009128  0.01664  0.02596  0.4135  0.7233
6.295e+09  -0.6125  0.5186  0.005248  -0.007481  -0.02373  -0.02834  0.6176  0.5105
6.296e+09  -0.3646  0.6777  -0.007207  0.02647  0.01988  -0.01361  0.7562  0.2984
6.298e+09  -0.1181  0.7546  -0.01934  -0.02174  0.007923  0.04552  0.8357  0.01872
6.299e+09  0.1716  0.7673  0.005376  0.01298  0.05425  -0.02673  0.7847  -0.2889
6.3e+09  0.4143  0.6872  0.008758  0.01679  0.02828  0.01625  0.6671  -0.5289
6.301e+09  0.6354  0.5142  -0.0006192  -0.03352  -0.03227  0.01415  0.4179  -0.7106
6.302e+09  0.7841  0.24  0.002197  0.01141  0.0026  0.01551  0.1608  -0.8244
6.304e+09  0.7852  -0.01829  0.01079  0.01324  0.01762  -0.009866  -0.1468  -0.8179
6.305e+09  0.7359  -0.2968  -0.001059  -0.01975  0.008325  0.01269  -0.4214  -0.7546
6.306e+09  0.5732  -0.5675  0.01183  0.04422  0.001943  -0.01366  -0.6313  -0.5337
6.308e+09  0.4186  -0.7146  -0.005674  -0.0001615  -0.0261  -0.04628  -0.8051  -0.2898
6.309e+09  0.1033  -0.7923  -0.01702  -0.04719  -0.01153  -0.0453  -0.8474  -0.04004
6.31e+09  -0.1927  -0.781  0.007168  0.008558  -0.05877  0.003365  -0.8009  0.2665
6.311e+09  -0.4387  -0.6981  -0.01868  0.0118  0.0008729  0.004516  -0.6778  0.5391
6.312e+09  -0.71  -0.518  0.01247  0.000967  0.02845  0.02433  -0.4343  0.7328
6.314e+09  -0.7744  -0.2176  -0.007114  -0.0133  -0.02979  0.0327  -0.1477  0.8792
6.315e+09  -0.7934  0.03791  -0.003942  0.002501  -0.004998  0.01419  0.1547  0.9082
6.316e+09  -0.6976  0.3265  0.001919  0.01699  -0.02215  -0.009631  0.4304  0.7778
6.318e+09  -0.6045  0.5952  0.01208  -0.02095  -0.005237  0.02645  0.6634  0.572
6.319e+09  -0.3223  0.7036  -0.007607  -0.01366  -0.01152  -0.01064  0.7985  0.2976
6.32e+09  -0.02039  0.8471  -0.02778  0.02462  -0.01472  -0.01116  0.8524  0.004721
6.321e+09  0.2158  0.8196  0.00281  -0.01249  0.01697  0.004507  0.7985  -0.2957
6.322e+09  0.4699  0.6826  -0.001761  -0.02114  -0.03507  -0.01036  0.694  -0.525
6.324e+09  0.6817  0.5124  0.04501  -0.01242  -0.05442  0.01183  0.4603  -0.7398
6.325e+09  0.7359  0.1987  -0.02113  -0.009791  -0.000196  -0.01718  0.171  -0.8287
6.326e+09  0.8078  -0.09646  0.007615  0.002829  -0.03765  0.005368  -0.133  -0.8779
6.328e+09  0.7773  -0.3813  0.006925  -0.006718  0.03203  -0.002747  -0.4523  -0.7942
6.329e+09  0.5425  -0.5779  0.01152  0.01728  -0.02533  -0.004116  -0.6968  -0.5865
6.33e+09  0.3261  -0.7325  -0.005382  -0.02362  -0.01308  0.02051  -0.8408  -0.3348
6.331e+09  0.01049  -0.8379  0.003971  0.02991  -0.01514  -0.04262  -0.8969  -0.06648
6.332e+09  -0.2788  -0.763  -0.04257  0.0008818  -0.03567  -0.006901  -0.8974  0.2594
6.334e+09  -0.5193  -0.6552  0.0003702  0.01043  0.05471  -0.02963  -0.7001  0.5674
6.335e+09  -0.7061  -0.4242  0.003674  0.01758  0.02349  -0.02979  -0.4321  0.7839
6.336e+09  -0.7867  -0.1451  -0.0222  0.01654  0.03895  0.02913  -0.1634  0.8683
6.338e+09  -0.8059  0.1753  -0.001556  0.0243  -0.0002796  0.05277  0.1163  0.9204
6.339e+09  -0.724  0.376  0.01061  0.02516  -0.01259  0.01059  0.426  0.801
6.34e+09  -0.5045  0.6135  0.01825  -0.01896  0.04291  -0.001179  0.671  0.627
6.341e+09  -0.2814  0.7958  -0.01419  -0.008553  0.003503  0.01227  0.872  0.3617
6.342e+09  0.02814  0.8199  -0.04052  0.04157  -0.03081  -0.04312  0.9222  0.0168
6.344e+09  0.274  0.7892  0.0009086  -0.000875  -0.03413  -0.0269  0.9007  -0.242
6.345e+09  0.5849  0.5987  -0.00907  -6.335e-05  0.01665  -0.003143  0.6998  -0.5765
6.346e+09  0.7234  0.3593  0.007389  -0.002585  0.0374  -0.007748  0.5052  -0.7753
6.348e+09  0.8482  0.1416  -0.01507  -0.0158  0.01854  -0.02282  0.195  -0.8967
6.349e+09  0.7847  -0.2144  -0.005707  -0.04344  0.01283  -0.01245  -0.09598  -0.9301
6.35e+09  0.7044  -0.4408  0.02972  0.007767  0.004619  -0.001766  -0.3912  -0.8434
6.351e+09  0.4927  -0.6886  -0.01019  -0.0171  0.03719  0.003202  -0.7137  -0.6644
6.352e+09  0.2952  -0.8079  0.02236  -0.01826  0.008513  -0.00629  -0.8576  -0.4152
6.354e+09  -0.05442  -0.8228  0.03141  0.01883  -0.02431  -0.002436  -0.9298  -0.07582
6.355e+09  -0.365  -0.7422  0.04065  -0.02907  0.01229  0.01677  -0.9096  0.2442
6.356e+09  -0.6416  -0.5517  -0.03833  -0.02022  0.0633  -0.01449  -0.755  0.5718
6.358e+09  -0.8026  -0.3105  -0.00487  0.03181  -0.02604  -0.01818  -0.4803  0.7572
6.359e+09  -0.8494  -0.01485  0.04743  0.005418  0.01743  0.04001  -0.2301  0.9048
6.36e+09  -0.788  0.2448  -0.000739  -0.01256  0.02  -0.03682  0.08661  0.9596
6.361e+09  -0.6827  0.5468  -0.05306  -0.01747  -0.02183  0.003532  0.4007  0.8487
6.362e+09  -0.3757  0.7388  -0.00083  -0.02781  0.01166  -0.01989  0.6914  0.6419
6.364e+09  -0.1717  0.8147  -0.003189  -0.02482  0.01565  -0.01271  0.8637  0.3815
6.365e+09  0.1343  0.781  0.01033  -0.004375  -0.01376  0.005048  0.9521  0.05933
6.366e+09  0.4172  0.7544  -0.03071  0.02771  -0.05303  -0.04478  0.9258  -0.2239
6.368e+09  0.6623  0.5544  -0.01577  -0.007431  -0.0254  0.007957  0.8  -0.5514
6.369e+09  0.8078  0.3287  0.02662  -0.0071  0.02299  0.02814  0.5414  -0.7767
6.37e+09  0.834  -0.03758  0.0143  0.002274  -0.002777  0.008672  0.2906  -0.8903
6.371e+09  0.7908  -0.2769  0.001513  0.0266  0.04232  0.0003737  -0.07261  -0.9822
6.372e+09  0.6082  -0.5778  0.02814  0.003679  0.01253  -0.0222  -0.3786  -0.8255
6.374e+09  0.4066  -0.7638  0.009226  0.009349  -0.02344  -0.01421  -0.6678  -0.6701
6.375e+09  0.07972  -0.855  0.001067  -0.02259  -0.01512  0.04789  -0.847  -0.4118
6.376e+09  -0.2096  -0.8291  -0.03879  0.005486  -0.003255  0.02796  -0.9426  -0.09525
6.378e+09  -0.46  -0.6802  -0.01156  0.02717  -0.004401  0.00619  -0.9205  0.1952
6.379e+09  -0.7047  -0.5095  -0.005176  0.04337  0.02251  -0.01299  -0.7666  0.5216
6.38e+09  -0.8673  -0.207  -0.03009  0.01565  0.00365  -0.02623  -0.5628  0.7345
6.381e+09  -0.8638  0.0966  -0.0006025  -0.02887  0.02846  0.03999  -0.2659  0.8821
6.382e+09  -0.8038  0.3274  -0.0124  0.0005626  -0.01414  -0.0001573  0.08864  0.9221
6.384e+09  -0.657  0.5925  0.01033  0.01906  -0.009527  -0.0116  0.3983  0.8627
6.385e+09  -0.3409  0.777  0.04378  0.009685  0.008428  0.01184  0.6352  0.6867
6.386e+09  -0.02366  0.8636  -0.01098  0.006556  0.0378  0.005083  0.8227  0.4263
6.388e+09  0.2534  0.8433  0.02194  -0.007152  0.03483  0.01688  0.9423  0.176
6.389e+09  0.537  0.6944  -0.004778  0.03138  -0.03252  -0.03424  0.9291  -0.1851
6.39e+09  0.6944  0.4501  0.0007907  -0.006701  0.02172  -0.01569  0.7927  -0.534
6.391e+09  0.8606  0.1742  0.004045  0.02345  -0.04283  -0.02531  0.5484  -0.7353
6.392e+09  0.8624  -0.1225  0.01606  -0.0274  0.00236  -0.009665  0.2863  -0.8948
6.394e+09  0.7574  -0.3718  -0.02795  0.01012  -0.01573  0.03137  -0.004095  -0.9231
6.395e+09  0.6043  -0.5978  -0.0335  0.003919  -0.04087  0.04465  -0.3652  -0.8386
6.396e+09  0.2975  -0.8194  -0.02047  -0.002218  0.02502  -0.04174  -0.5714  -0.6864
6.398e+09  0.0439  -0.8505  0.01646  -0.007407  -0.0334  -0.001052  -0.7959  -0.4379
6.399e+09  -0.2758  -0.8101  -0.0602  0.0326  0.05305  -0.01832  -0.9039  -0.1531
6.4e+09  -0.5508  -0.6595  -0.05374  0.003181  0.004675  0.005797  -0.8884  0.2003
6.401e+09  -0.7686  -0.4269  0.01102  0.02804  -0.006244  0.01128  -0.7752  0.4858
6.402e+09  -0.8707  -0.1006  0.009127  0.003577  0.004278  -0.02034  -0.638  0.6892
6.404e+09  -0.86  0.1583  0.04198  0.007929  0.03789  -0.02719  -0.3047  0.8721
6.405e+09  -0.7763  0.4435  -0.006363  0.001031  0.02785  -0.005809  -0.02403  0.9555
6.406e+09  -0.5361  0.6751  0.006303  -0.009973  -8.271e-05  0.006857  0.3242  0.8625
6.408e+09  -0.2694  0.8319  -0.02441  -0.01701  0.008644  0.009336  0.5701  0.7362
6.409e+09  -0.006254  0.8412  -0.01736  -0.03105  -0.03176  0.03514  0.7715  0.486
6.41e+09  0.3328  0.7993  -0.0288  0.0205  0.01836  0.008486  0.8873  0.1956
6.411e+09  0.5942  0.63  0.03712  0.009414  -0.02583  -0.002119  0.9531  -0.1627
6.412e+09  0.7198  0.3909  0.01267  -0.02674  0.03099  0.004009  0.8057  -0.4123
6.414e+09  0.8348  0.09441  0.01126  0.008652  -0.003446  -0.00692  0.5903  -0.6711
6.415e+09  0.8083  -0.2081  -0.0471  0.0176  0.006205  -0.02095  0.3242  -0.7884
6.416e+09  0.705  -0.4453  -0.01209  -0.00473  -0.06129  0.003654  0.05835  -0.8256
6.418e+09  0.4802  -0.6781  -0.003439  -0.009834  0.0259  -0.01406  -0.2773  -0.8475
6.419e+09  0.2504  -0.8198  0.01501  -0.00154  0.006982  -0.002312  -0.506  -0.6951
6.42e+09  -0.09376  -0.824  -0.0644  -0.009664  0.007868  0.009918  -0.7618  -0.4894
6.421e+09  -0.3533  -0.7624  -0.00379  0.001568  -0.01952  0.009413  -0.8696  -0.2114
6.422e+09  -0.6002  -0.5575  -0.02067  -0.05022  0.01883  -0.02192  -0.8869  0.1285
6.424e+09  -0.7973  -0.3969  0.01715  -0.008139  0.008285  -0.02278  -0.786  0.4177
6.425e+09  -0.829  -0.1215  -0.02348  -0.01959  0.04524  0.01594  -0.5943  0.6424
6.426e+09  -0.8226  0.1623  -0.006775  0.01644  -0.009312  -0.005459  -0.3131  0.8395
6.428e+09  -0.703  0.5438  -0.00881  0.008452  0.01504  0.01841  -0.07134  0.8864
6.429e+09  -0.445  0.6661  0.0005261  -0.01142  -0.008749  -0.005092  0.2544  0.8284
6.43e+09  -0.1903  0.8646  -0.05286  0.01616  0.006164  0.02388  0.5224  0.6702
6.431e+09  0.05977  0.8619  0.0382  -0.0005076  -0.03956  0.008778  0.7274  0.4544
6.432e+09  0.3755  0.7431  -0.01134  0.008501  0.03757  -0.02645  0.8124  0.217
6.434e+09  0.5984  0.5681  -0.01345  0.02993  0.008074  -0.0208  0.903  -0.1173
6.435e+09  0.7896  0.3005  0.005213  0.01066  -0.004463  0.03936  0.7664  -0.3876
6.436e+09  0.8098  0.04017  -0.02895  -0.01934  -0.004556  0.002065  0.6091  -0.6102
6.438e+09  0.7717  -0.2594  -0.01087  0.0236  0.01451  0.02638  0.3662  -0.7991
6.439e+09  0.6897  -0.4695  0.008329  -0.03853  -0.04362  -0.01712  0.03574  -0.8495
6.44e+09  0.4782  -0.6981  -0.00677  -0.01939  0.0228  0.04861  -0.2642  -0.8535
6.441e+09  0.158  -0.8081  0.003561  0.03074  -0.0193  -0.00513  -0.4926  -0.7393
6.442e+09  -0.09791  -0.8819  0.03657  -0.01718  0.004632  0.00335  -0.7173  -0.4979
6.444e+09  -0.3533  -0.7236  0.001399  0.03721  0.03747  0.006094  -0.8178  -0.1983
6.445e+09  -0.5971  -0.6152  0.05599  -0.01345  0.02737  -0.01604  -0.8229  0.08122
6.446e+09  -0.7453  -0.3445  -0.002378  -0.04013  -0.007224  0.0002346  -0.7483  0.3564
6.448e+09  -0.9007  -0.0401  0.05311  0.0002161  0.006113  -0.04545  -0.5829  0.5746
6.449e+09  -0.8025  0.2741  -0.04723  -0.03821  0.04  0.004702  -0.3492  0.729
6.45e+09  -0.6799  0.5096  0.001311  -0.01735  0.02925  0.02288  -0.04447  0.8328
6.451e+09  -0.4449  0.6629  -0.02485  -0.02578  0.03861  0.002158  0.2167  0.8057
6.452e+09  -0.2062  0.8075  -0.006236  0.06006  0.008241  0.005772  0.4806  0.6609
6.454e+09  0.09783  0.8426  0.03162  0.007269  0.005436  -0.01423  0.6658  0.4672
6.455e+09  0.3941  0.7657  0.004348  -0.01002  -0.009863  0.02982  0.7884  0.198
6.456e+09  0.6045  0.5532  0.01547  -0.003197  0.00667  0.03261  0.8125  -0.07133
6.458e+09  0.7973  0.3292  0.0004109  -0.02546  0.007491  -0.01563  0.7409  -0.3055
6.459e+09  0.8498  0.0848  0.002604  0.006661  -0.06816  0.01727  0.5963  -0.6154
6.46e+09  0.8356  -0.2344  0.004058  -0.005577  -0.007313  0.04254  0.3572  -0.7599
6.461e+09  0.5842  -0.4488  -0.008855  -0.003034  0.0206  -0.008383  0.08859  -0.797
6.462e+09  0.4891  -0.7198  -0.008325  9.644e-05  -0.00372  0.02053  -0.2458  -0.822
6.464e+09  0.232  -0.8252  -0.003019  -0.003508  -0.005911  -0.02853  -0.4822  -0.6408
6.465e+09  -0.1185  -0.8133  0.003897  0.00232  -0.06707  -0.01968  -0.6305  -0.4796
6.466e+09  -0.3751  -0.7895  -0.006373  -0.007124  -0.01438  -0.007573  -0.7767  -0.207
6.468e+09  -0.6238  -0.5614  0.008742  -0.005928  -0.04038  0.006839  -0.8264  0.05558
6.469e+09  -0.7828  -0.3074  0.03852  0.02612  0.03392  -0.01312  -0.7676  0.3662
6.47e+09  -0.8462  -0.03217  -0.03957  -0.008257  -0.01035  -0.01649  -0.5593  0.5928
6.471e+09  -0.7927  0.2687  0.03831  0.004667  0.03641  0.02383  -0.3294  0.706
6.472e+09  -0.6919  0.5262  0.01256  -0.009034  -0.06291  -0.001719  -0.08694  0.8152
6.474e+09  -0.4368  0.6816  -0.03385  -0.01588  0.01894  -0.02587  0.2094  0.7843
6.475e+09  -0.2242  0.8499  0.02851  0.0236  0.02014  0.01875  0.4528  0.6634
6.476e+09  0.1366  0.856  0.01697  -0.004855  -0.03744  -0.04063  0.6799  0.4719
6.478e+09  0.4615  0.7704  -0.005223  0.0311  0.001956  0.00893  0.7498  0.1966
6.479e+09  0.6795  0.557  0.005173  -0.006739  0.0228  -0.01782  0.7502  -0.04598
6.48e+09  0.7945  0.3137  -0.01399  0.004307  -0.003751  -0.003135  0.6687  -0.3121
6.481e+09  0.8384  -0.02927  -0.005994  0.02544  0.004622  -0.03563  0.5501  -0.5383
6.482e+09  0.7851  -0.2492  0.006055  0.006684  0.04237  -0.008307  0.3277  -0.7058
6.484e+09  0.7056  -0.4943  -0.01931  0.01763  0.007298  -0.006536  0.03471  -0.7588
6.485e+09  0.4638  -0.7744  0.0009104  -0.003086  -0.02195  -0.002282  -0.2073  -0.7742
6.486e+09  0.1954  -0.7977  -0.01946  0.008029  0.00432  -0.02431  -0.4381  -0.6284
6.488e+09  -0.8381  -0.6895  -0.03687  0.03866  0.1674  -0.7334  -0.6426  -0.4572
6.489e+09  -0.4313  -0.7457  -0.01871  0.002061  0.001428  0.001146  -0.7559  -0.1609
6.49e+09  -0.6746  -0.5714  0.006075  -0.001661  0.01731  0.0107  -0.7197  0.0666
6.491e+09  -0.8723  -0.2921  0.02328  0.02216  -0.002782  0.03074  -0.6965  0.3294
6.492e+09  -0.8426  -0.08397  -0.005824  -0.04795  0.002273  -0.03687  -0.4897  0.5735
6.494e+09  -0.8737  0.2297  0.01005  0.02811  0.06754  0.042  -0.3505  0.6909
6.495e+09  -0.571  0.5727  0.01511  -0.003131  0.03386  -0.02679  -0.0185  0.7729
6.496e+09  -0.4557  0.7536  0.002118  -0.02588  -0.01596  0.02824  0.1778  0.7615
6.498e+09  -0.1525  0.855  -0.003516  -0.02715  0.00518  -0.02777  0.4455  0.5887
6.499e+09  0.1576  0.8519  -0.02908  -0.005495  0.01909  -0.03368  0.6568  0.4044
6.5e+09  0.4136  0.7723  0.01396  -0.01634  -0.03912  0.04096  0.7395  0.1809
6.501e+09  0.652  0.525  -0.03651  0.03309  0.03106  -0.02165  0.7507  -0.05314
6.502e+09  0.8388  0.3201  -0.004196  -0.0003801  0.003445  -0.00843  0.6851  -0.3638
6.504e+09  0.8673  0.02862  0.01036  -0.01648  0.02139  0.003253  0.4643  -0.5187
6.505e+09  0.8347  -0.3119  -0.0218  -0.006791  0.03375  -0.02644  0.247  -0.6825
6.506e+09  0.6139  -0.5566  0.04675  0.02604  0.01335  0.02174  -0.01536  -0.7373
6.508e+09  0.4478  -0.787  -0.03327  -0.006082  -0.009499  -0.04861  -0.2399  -0.7159
6.509e+09  0.1192  -0.9314  -0.007299  0.02191  0.002584  0.00268  -0.4377  -0.5849
6.51e+09  -0.1651  -0.8665  -0.01095  0.05484  -0.0383  0.02994  -0.6344  -0.4354
6.511e+09  -0.464  -0.7874  -0.02706  -0.02455  0.0162  -0.0168  -0.7397  -0.1581
6.512e+09  -0.6603  -0.5746  -0.01672  0.02834  0.01917  -0.002728  -0.7543  0.1215
6.514e+09  -0.8951  -0.3146  0.02939  0.01046  -0.05726  0.02492  -0.6689  0.3868
6.515e+09  -0.8342  -0.01889  0.005461  -0.002552  0.01296  0.01096  -0.4888  0.5809
6.516e+09  -0.8298  0.3022  -0.01771  -0.02452  0.02552  0.0563  -0.2595  0.6837
6.518e+09  -0.6072  0.5993  0.0002922  -0.01844  0.03145  -0.04987  0.02834  0.7398
6.519e+09  -0.3879  0.8087  -0.04177  0.01272  -0.01041  0.05586  0.2892  0.7261
6.52e+09  -0.1473  0.9345  0.02128  -0.02283  -0.05471  0.01615  0.5173  0.5519
6.521e+09  0.1843  0.87  -0.005772  -0.03544  -0.01067  -0.05906  0.6784  0.3168
6.522e+09  0.492  0.7956  0.02752  -0.01901  0.00593  -0.01795  0.7237  0.1024
6.524e+09  0.7062  0.5352  0.0214  0.01916  0.02496  0.01113  0.7288  -0.2209
6.525e+09  0.8848  0.2222  -0.0395  0.005305  0.04943  0.02129  0.5878  -0.3829
6.526e+09  0.9239  -0.06624  0.003509  0.02225  -0.04118  0.002123  0.4238  -0.5511
6.528e+09  0.8048  -0.3358  -0.003402  0.02906  0.03384  0.05437  0.217  -0.6683
6.529e+09  0.6017  -0.6289  -0.006514  0.02519  0.04513  0.0004275  -0.06178  -0.7003
6.53e+09  0.3761  -0.8078  0.002024  0.006895  -0.02347  -0.03226  -0.2693  -0.6268
6.531e+09  0.05038  -0.9824  -0.01389  0.00791  0.009418  -0.00215  -0.4657  -0.4727
6.532e+09  -0.2814  -0.9232  -0.01581  0.004385  0.002977  -0.04032  -0.5927  -0.26
6.534e+09  -0.5411  -0.7555  -0.01121  -0.0096  0.03214  -0.0294  -0.6448  -0.09343
6.535e+09  -0.7615  -0.547  -0.001145  -0.00378  -0.03498  -0.0522  -0.6127  0.07215
6.536e+09  -0.8761  -0.2185  0.01777  0.01446  -0.03794  0.01828  -0.5532  0.2967
6.538e+09  -0.9107  0.1245  0.0004538  -0.0243  0.01439  0.01955  -0.4624  0.4768
6.539e+09  -0.7937  0.4363  0.008661  0.0006995  0.05352  0.01982  -0.3146  0.6268
6.54e+09  -0.6556  0.6789  -0.003069  0.006276  -0.02589  0.04914  -0.06341  0.7156
6.541e+09  -0.3596  0.8544  0.02013  -0.001386  -0.006836  0.03197  0.184  0.6618
6.542e+09  -0.04802  0.9228  -0.05856  -0.011  -0.007123  -0.04083  0.428  0.5707
6.544e+09  0.2804  0.9263  -0.01268  0.004293  -0.0007386  0.006528  0.5767  0.4121
6.545e+09  0.5896  0.7486  -0.002461  -0.02423  0.06414  0.04448  0.6999  0.1525
6.546e+09  0.8458  0.4589  -0.005376  0.003299  -0.03777  -0.01248  0.7833  -0.07892
6.548e+09  0.9403  0.1431  -0.01158  0.003767  -0.01181  0.03019  0.6656  -0.3243
6.549e+09  0.9486  -0.1631  -0.03122  -0.01008  0.04702  -0.04953  0.473  -0.5212
6.55e+09  0.8361  -0.4944  -0.01404  -0.00872  0.04392  0.01443  0.3009  -0.6845
