# Hz S RI R 50
6.25e+09  -0.3054  0.7909  0.008813  -0.004977  0.03602  -0.02954  0.1452  0.4869
6.251e+09  -0.01535  0.8427  0.007651  -0.01161  0.01627  0.05573  0.3535  0.3792
6.252e+09  0.2848  0.7879  -0.02646  0.001481  0.01236  -0.01357  0.5081  0.2185
6.254e+09  0.5734  0.6351  0.008234  0.01533  -0.02068  -0.03488  0.6448  0.0149
6.255e+09  0.7434  0.4105  -0.01727  -0.012  0.03352  -0.02501  0.5748  -0.2261
6.256e+09  0.8763  0.09422  -0.03981  -0.003679  0.02644  0.009535  0.4733  -0.456
6.258e+09  0.8577  -0.1559  -0.002613  0.02663  0.02643  0.0001783  0.2845  -0.6225
6.259e+09  0.6746  -0.4257  -0.03258  -0.01697  -0.0002746  -0.01778  0.04508  -0.6595
6.26e+09  0.5026  -0.6658  0.02546  0.01459  -0.03695  0.01323  -0.1986  -0.651
6.261e+09  0.2841  -0.7508  0.0145  -0.0299  -0.008238  0.01538  -0.4498  -0.5519
6.262e+09  -0.07523  -0.813  -0.02026  0.007121  0.02386  -0.009226  -0.6142  -0.3431
6.264e+09  -0.3175  -0.7379  -0.007678  -0.01971  -0.01555  0.007851  -0.6606  -0.09892
6.265e+09  -0.6149  -0.6092  0.009308  0.006298  0.003944  0.02857  -0.6736  0.1498
6.266e+09  -0.7125  -0.3672  -0.005655  0.01123  0.01943  0.0008698  -0.631  0.3695
6.268e+09  -0.7884  -0.09972  -0.01747  0.03019  -0.02801  0.0005272  -0.447  0.5968
6.269e+09  -0.7799  0.2008  0.0185  -0.01147  0.001804  0.0134  -0.2078  0.7108
6.27e+09  -0.6853  0.4549  -0.03104  -0.016  -0.03056  -0.008671  0.05417  0.7408
6.271e+09  -0.5331  0.6508  0.01934  0.002626  0.003989  0.02334  0.3229  0.693
6.272e+09  -0.2638  0.8074  -0.005425  0.04216  -0.02302  -0.02463  0.5382  0.5082
6.274e+09  0.01715  0.8264  0.01788  -0.03115  0.08356  -0.01661  0.659  0.315
6.275e+09  0.3265  0.7677  -0.01521  -0.01765  -0.0258  0.04092  0.7418  0.04533
6.276e+09  0.5444  0.5503  0.02381  -0.01336  -0.02451  0.0269  0.7188  -0.2201
6.278e+09  0.676  0.3851  0.01175  -0.01913  -0.01215  -0.04683  0.595  -0.4593
6.279e+09  0.8323  0.1549  -0.01504  -0.0232  0.007693  0.04707  0.4086  -0.6461
6.28e+09  0.7439  -0.1468  -0.0124  -0.01149  -0.005931  -0.03876  0.1732  -0.8028
6.281e+09  0.673  -0.4515  -0.01759  0.02435  0.007419  -0.05266  -0.102  -0.7586
6.282e+09  0.4893  -0.6403  0.01389  0.01067  0.007965  0.01405  -0.3544  -0.7201
6.284e+09  0.2599  -0.7937  0.02007  -0.004039  -0.01153  -0.04601  -0.5579  -0.5418
6.285e+09  -0.02214  -0.8077  0.02854  0.005576  -0.01888  -0.05273  -0.7178  -0.3005
6.286e+09  -0.3047  -0.796  -0.005203  0.03928  0.02526  -0.06223  -0.772  -0.01715
6.288e+09  -0.5264  -0.5559  0.0168  0.011  0.004496  -0.02643  -0.7598  0.2525
6.289e+09  -0.742  -0.3299  0.003919  0.01208  -0.04048  0.0283  -0.639  0.5176
6.29e+09  -0.8343  -0.0431  0.02886  -0.02858  -0.009065  0.04226  -0.4132  0.6897
6.291e+09  -0.8056  0.1426  0.02843  0.007838  0.007361  -0.005868  -0.1617  0.7961
6.292e+09  -0.6701  0.486  -0.008046  -0.01185  -0.03401  -0.002303  0.1253  0.79
6.294e+09  -0.4654  0.6969  -0.001787  0.0006537  -0.008976  0.01265  0.4087  0.6938
6.295e+09  -0.2716  0.7862  0.002744  0.007609  -0.02918  0.01209  0.6011  0.5719
6.296e+09  0.07224  0.7601  5.7e-05  -0.01815  -0.03461  0.003333  0.7699  0.2838
6.298e+09  0.3623  0.6879  -0.001723  0.002697  -0.02766  -0.02169  0.8324  -0.003838
6.299e+09  0.5888  0.5308  0.01005  0.001962  0.02668  -0.02402  0.7653  -0.2778
6.3e+09  0.7087  0.281  0.02661  -0.02096  0.03392  0.01261  0.6453  -0.5187
6.301e+09  0.7899  0.0304  -0.01225  -0.03356  -0.02032  -0.007394  0.4158  -0.7414
6.302e+09  0.7676  -0.2166  -0.0112  0.02394  -0.00606  -0.05142  0.1889  -0.8109
6.304e+09  0.6148  -0.4746  0.01415  0.01948  0.01549  -0.01727  -0.1296  -0.8574
6.305e+09  0.4504  -0.6825  -0.04257  -0.01686  0.01593  -0.0138  -0.4172  -0.7441
6.306e+09  0.1928  -0.7697  0.01118  -0.009539  0.02793  0.04539  -0.6573  -0.5274
6.308e+09  -0.09238  -0.7838  0.03998  0.001453  0.01415  0.00731  -0.7945  -0.2709
6.309e+09  -0.3754  -0.6909  0.01944  -0.001956  0.02202  0.03265  -0.8532  -0.005146
6.31e+09  -0.6422  -0.5426  -0.02866  -0.005574  -0.003704  -0.03521  -0.8271  0.2772
6.311e+09  -0.7516  -0.2482  -0.03359  0.01563  0.001807  -0.03701  -0.6956  0.519
6.312e+09  -0.8144  0.003591  0.03845  0.003725  -0.01833  -0.003493  -0.403  0.7557
6.314e+09  -0.7433  0.2282  0.03563  0.007114  -0.03196  -0.002021  -0.1565  0.8401
6.315e+09  -0.5936  0.5608  -0.02874  -0.03488  -0.01279  0.01932  0.1486  0.8424
6.316e+09  -0.4181  0.7305  -0.008753  0.02097  -0.02309  0.01194  0.405  0.7338
6.318e+09  -0.1252  0.8445  0.01608  0.01362  0.01061  -0.02578  0.6915  0.589
6.319e+09  0.1334  0.7793  -0.0174  -0.02562  0.02331  0.003354  0.8196  0.3286
6.32e+09  0.4386  0.7294  0.01398  0.00742  -0.02426  -0.00861  0.878  0.01009
6.321e+09  0.6324  0.5339  0.01946  0.01515  -0.003203  0.02273  0.8246  -0.2922
6.322e+09  0.7516  0.2587  -0.03714  -0.007579  -0.01134  -0.01784  0.692  -0.5734
6.324e+09  0.8265  -0.0132  -0.01427  -4.581e-05  0.008446  -0.05876  0.4735  -0.7581
6.325e+09  0.7158  -0.3131  -0.02335  0.02662  -0.01999  -0.006067  0.1943  -0.8548
6.326e+09  0.6262  -0.5959  -0.002057  -0.03429  0.02644  -0.01636  -0.1434  -0.8834
6.328e+09  0.3475  -0.7138  -0.005012  0.01146  0.01822  0.004863  -0.4365  -0.8033
6.329e+09  0.05604  -0.8389  -0.01767  0.0007431  -0.0362  0.02095  -0.713  -0.5915
6.33e+09  -0.2321  -0.8053  -0.001122  -0.0005245  0.04418  -0.01731  -0.8203  -0.3043
6.331e+09  -0.4406  -0.7478  -0.009359  0.005221  -0.0132  -0.00614  -0.9067  -0.05503
6.332e+09  -0.6933  -0.4652  -0.002484  -0.006416  -0.003354  0.01818  -0.8548  0.2652
6.334e+09  -0.7922  -0.2301  -0.005952  0.005423  0.003155  -0.01333  -0.7534  0.5517
6.335e+09  -0.8711  0.1062  -0.00459  -0.0007617  -0.01067  0.009621  -0.4523  0.7812
6.336e+09  -0.7901  0.3784  -0.01104  0.02596  -0.02194  -0.004148  -0.1853  0.9168
6.338e+09  -0.6155  0.6296  0.006247  0.01965  -0.01189  0.008757  0.1021  0.9089
6.339e+09  -0.3207  0.7915  0.02644  0.01665  0.02656  0.0001789  0.4017  0.8379
6.34e+09  -0.01533  0.8233  -0.01117  0.04833  0.008735  0.0306  0.6628  0.6149
6.341e+09  0.2622  0.7916  -0.01584  -0.02628  -0.03338  0.01023  0.858  0.3718
6.342e+09  0.5043  0.6378  -0.01452  0.02831  -0.02777  -0.009871  0.9332  0.06465
6.344e+09  0.7315  0.4356  -0.01238  -0.0008205  -0.003314  -0.03116  0.8762  -0.2649
6.345e+09  0.8606  0.1723  -0.004394  0.00786  0.03604  -0.04896  0.7527  -0.5653
6.346e+09  0.8379  -0.1468  0.04569  0.01308  -0.02101  -0.0376  0.5285  -0.7805
6.348e+09  0.8264  -0.3945  0.004413  0.009033  0.01041  0.007294  0.2428  -0.8555
6.349e+09  0.5095  -0.6774  0.005434  0.01842  -0.0559  -0.007974  -0.0946  -0.9315
6.35e+09  0.2683  -0.857  -0.001333  0.01063  0.01193  0.03401  -0.3878  -0.8106
6.351e+09  -0.04679  -0.8789  -0.02038  0.005823  -0.03562  0.01099  -0.6727  -0.6308
6.352e+09  -0.2879  -0.8026  0.01469  0.0161  -0.01633  -0.02727  -0.8365  -0.371
6.354e+09  -0.5407  -0.6655  0.008229  0.01142  0.03488  -0.006067  -0.9294  -0.09068
6.355e+09  -0.7635  -0.3595  -0.04288  0.02538  -0.02493  -0.02353  -0.9173  0.2889
6.356e+09  -0.8287  -0.08143  0.02227  0.03077  -0.02485  0.02248  -0.8208  0.5415
6.358e+09  -0.8164  0.1946  0.03395  0.002256  -0.004513  0.04012  -0.5041  0.7459
6.359e+09  -0.7169  0.4657  0.004725  -0.005713  -0.004778  -0.0201  -0.2214  0.9158
6.36e+09  -0.5329  0.6858  -0.004947  0.01564  0.07799  -0.01459  0.05566  0.9768
6.361e+09  -0.2519  0.8395  -0.01857  -0.02939  0.003055  -0.005336  0.4102  0.868
6.362e+09  0.04398  0.9023  0.02166  -0.002878  -0.02171  -0.01059  0.6549  0.6441
6.364e+09  0.3861  0.7578  -0.01366  -0.03746  -0.005787  0.002491  0.857  0.3589
6.365e+09  0.6653  0.633  -0.0133  -0.01983  -2.274e-05  -0.02108  0.9217  0.07554
6.366e+09  0.7682  0.3857  -0.02816  -0.0002592  -0.04265  0.01004  0.9235  -0.2745
6.368e+09  0.8565  0.05833  0.01058  -0.02664  -0.003066  0.01829  0.7516  -0.4925
6.369e+09  0.8299  -0.1967  0.01571  0.01884  0.04502  0.01523  0.5332  -0.7951
6.37e+09  0.6754  -0.5079  -0.01669  0.02471  0.01537  0.008887  0.2482  -0.8807
6.371e+09  0.4639  -0.7597  -0.03562  0.02688  0.01183  -0.04108  -0.106  -0.9592
6.372e+09  0.1821  -0.8187  0.00454  -0.02586  -0.02727  -0.03555  -0.4106  -0.8563
6.374e+09  -0.1449  -0.8414  0.01698  0.00377  0.05338  -0.003163  -0.6353  -0.665
6.375e+09  -0.3691  -0.7314  -0.007301  -0.008995  -0.0002095  -0.0121  -0.8199  -0.4433
6.376e+09  -0.6166  -0.5838  0.03193  -0.02086  -0.04215  -0.01189  -0.9552  -0.06909
6.378e+09  -0.8149  -0.3378  0.01655  -0.05018  0.03892  -0.00662  -0.9175  0.2315
6.379e+09  -0.9194  -0.002279  -0.008579  0.02771  -0.006061  0.03507  -0.7675  0.5461
6.38e+09  -0.784  0.3342  -0.009277  -0.00323  -0.01569  0.01144  -0.5406  0.7747
6.381e+09  -0.6582  0.5214  -0.0213  -0.04768  0.005068  0.03657  -0.2513  0.8872
6.382e+09  -0.4556  0.7231  0.008933  0.01732  -0.02041  -0.006227  0.03644  0.9222
6.384e+09  -0.1321  0.8181  -0.008796  0.01925  -0.003158  -0.002565  0.3738  0.8451
6.385e+09  0.08591  0.8928  0.01802  -0.02339  0.01489  -0.01391  0.6322  0.6711
6.386e+09  0.4285  0.7569  0.01745  0.009768  -0.004567  0.02027  0.8213  0.4159
6.388e+09  0.6659  0.5387  -0.02384  -0.005012  0.01118  -0.01873  0.9476  0.1234
6.389e+09  0.7974  0.2803  0.02952  0.02366  0.007193  -0.005419  0.9083  -0.2284
6.39e+09  0.8763  0.009736  -0.00215  0.02537  -0.02576  -0.03394  0.8003  -0.4666
6.391e+09  0.8053  -0.2935  0.02715  -0.007688  -0.02421  0.02643  0.5494  -0.7234
6.392e+09  0.6231  -0.5605  -0.003784  -0.006183  0.003831  0.05321  0.2714  -0.8561
6.394e+09  0.4388  -0.7729  0.03648  -0.0377  0.04753  -0.03475  -0.03411  -0.9098
6.395e+09  0.1331  -0.8498  -0.02152  -0.05968  -0.02123  0.03298  -0.3459  -0.8288
6.396e+09  -0.2026  -0.8393  -0.01245  0.007151  -0.02715  0.01437  -0.5904  -0.67
6.398e+09  -0.4726  -0.7065  -0.01975  0.02769  0.005783  0.04619  -0.7898  -0.4554
6.399e+09  -0.7297  -0.5046  -0.03878  -0.004702  -0.02053  0.02485  -0.9199  -0.1871
6.4e+09  -0.8332  -0.2663  0.01621  0.001064  0.001416  0.008119  -0.8956  0.1707
6.401e+09  -0.8206  0.02912  -0.02858  0.001782  -0.01149  0.0005652  -0.7836  0.4836
6.402e+09  -0.8205  0.3601  0.02633  -0.03149  0.007628  -0.01266  -0.5725  0.6947
6.404e+09  -0.6858  0.5837  0.01936  0.02193  -0.02448  0.01287  -0.3039  0.8638
6.405e+09  -0.3816  0.7679  -0.01876  -0.01507  0.009999  -0.03525  -0.03178  0.9373
6.406e+09  -0.1124  0.8702  0.01856  0.008396  -0.02328  -0.03756  0.3378  0.8505
6.408e+09  0.2024  0.8037  -0.009281  0.0204  0.05301  0.07943  0.5867  0.6937
6.409e+09  0.4907  0.702  0.00772  -0.03148  0.03573  0.03072  0.7954  0.4928
6.41e+09  0.6501  0.4934  0.01938  -0.006791  0.002517  0.03581  0.8599  0.1899
6.411e+09  0.8197  0.2269  -0.00961  0.01777  0.02168  0.02793  0.9327  -0.1471
6.412e+09  0.8496  -0.0283  0.01379  -0.003817  0.03353  0.03172  0.7642  -0.4198
6.414e+09  0.8158  -0.3235  0.01477  0.005849  -0.01696  0.01193  0.598  -0.6626
6.415e+09  0.6123  -0.5295  0.03526  -0.0271  -0.02331  -0.00854  0.3384  -0.8058
6.416e+09  0.3667  -0.7659  -0.004994  0.008345  -0.01114  0.00196  0.04188  -0.8594
6.418e+09  0.0964  -0.8346  -0.0209  0.02532  0.0004559  0.01416  -0.3099  -0.8583
6.419e+09  -0.2436  -0.8231  0.04021  -0.03626  0.006379  0.01097  -0.5304  -0.7009
6.42e+09  -0.4542  -0.7372  -0.03718  0.02741  -0.0357  -0.01452  -0.7552  -0.4973
6.421e+09  -0.7246  -0.4672  -0.02401  -0.002421  0.04653  -0.009472  -0.8685  -0.1801
6.422e+09  -0.8209  -0.1719  -0.01813  0.01647  0.02196  0.007736  -0.8625  0.1376
6.424e+09  -0.8424  0.08733  -0.02634  0.04696  0.01477  0.00661  -0.7377  0.3604
6.425e+09  -0.7771  0.3633  0.02285  0.006579  0.03351  0.002738  -0.5846  0.619
6.426e+09  -0.604  0.6308  -0.01023  -0.0004852  0.0332  -0.0275  -0.3366  0.7836
6.428e+09  -0.3871  0.7249  -0.01882  -0.03467  0.002875  -0.01249  -0.03774  0.8582
6.429e+09  -0.1139  0.7967  0.02494  -0.003052  -0.03222  -0.001412  0.2298  0.8616
6.43e+09  0.2632  0.8731  -0.01423  -0.03931  0.008171  -0.02418  0.5292  0.7189
6.431e+09  0.4893  0.7367  -0.03707  -0.0617  0.0102  0.02051  0.724  0.4959
6.432e+09  0.7427  0.4863  0.06049  -0.02149  -0.03534  0.002913  0.8366  0.2129
6.434e+09  0.8921  0.2133  0.03252  -0.03363  0.02355  0.02962  0.8565  -0.08924
6.435e+09  0.8909  -0.03942  -0.019  0.0009619  -0.002808  0.07436  0.7685  -0.3802
6.436e+09  0.8159  -0.3619  -0.05114  -0.0002766  -0.03915  0.007943  0.6282  -0.6231
6.438e+09  0.5927  -0.6412  0.01211  0.01011  -0.01276  0.00429  0.3808  -0.7936
6.439e+09  0.3299  -0.79  -0.03441  -0.0002025  -0.04057  0.0199  0.06413  -0.8566
6.44e+09  0.06409  -0.8587  -0.04897  0.02993  0.03256  0.003008  -0.2414  -0.8705
6.441e+09  -0.2721  -0.8274  0.002558  0.001969  -0.01876  0.00937  -0.5377  -0.7074
6.442e+09  -0.5041  -0.6646  0.004521  -0.06956  0.00483  0.02491  -0.6585  -0.4752
6.444e+09  -0.7429  -0.4611  -0.04432  -0.02894  -0.01282  -0.02129  -0.8414  -0.2022
6.445e+09  -0.8433  -0.2554  -0.02354  -0.02578  -0.01523  0.001501  -0.8459  0.06831
6.446e+09  -0.8214  0.1052  0.04639  0.01178  0.01502  0.03645  -0.7655  0.3849
6.448e+09  -0.8076  0.3634  -0.018  -0.0525  -0.003713  -0.001123  -0.588  0.6041
6.449e+09  -0.6101  0.629  -0.01299  0.02579  -0.00122  0.02471  -0.3282  0.7485
6.45e+09  -0.3673  0.8103  0.003547  -0.001885  -0.01634  0.06802  -0.05088  0.8231
6.451e+09  -0.02215  0.8691  0.004028  0.01141  -0.009708  -0.01802  0.2171  0.8141
6.452e+09  0.2649  0.832  -0.008156  0.0303  0.03012  -0.01441  0.4884  0.6974
6.454e+09  0.4853  0.6699  0.02851  0.001863  -0.006727  0.007716  0.6589  0.4549
6.455e+09  0.7697  0.4293  0.0357  -0.02636  -0.06147  -0.0001454  0.8034  0.2429
6.456e+09  0.8505  0.2029  -0.01327  0.01317  0.02509  -0.01744  0.8044  -0.07331
6.458e+09  0.8657  -0.1273  -0.01949  0.01368  -0.003425  0.001633  0.7638  -0.4185
6.459e+09  0.7109  -0.4024  0.04196  0.01714  0.004367  0.01272  0.5788  -0.6252
6.46e+09  0.5744  -0.5836  -0.04516  -0.01152  -0.03538  -0.03996  0.351  -0.7629
6.461e+09  0.3363  -0.8043  -0.005849  0.02357  0.062  -0.001847  0.098  -0.7899
6.462e+09  0.02347  -0.9149  -0.005755  -0.01036  0.00539  0.003846  -0.2117  -0.7296
6.464e+09  -0.3012  -0.8169  -0.0008191  0.04202  -0.01448  -0.02637  -0.4636  -0.6602
6.465e+09  -0.5329  -0.63  -0.008475  0.02281  -0.0283  -0.0125  -0.7513  -0.4841
6.466e+09  -0.7543  -0.4586  0.01344  0.0319  -0.0169  -0.03564  -0.8029  -0.1787
6.468e+09  -0.8716  -0.2238  0.006277  0.02353  -0.02281  0.003183  -0.7497  0.07454
6.469e+09  -0.862  0.09706  0.02123  0.01163  -0.01824  0.002909  -0.7134  0.2979
6.47e+09  -0.7843  0.4456  -0.03952  0.00223  0.01857  0.04005  -0.5581  0.5807
6.471e+09  -0.61  0.6892  -0.03096  -0.01937  0.01607  -0.002159  -0.3426  0.7288
6.472e+09  -0.3269  0.8452  0.02353  0.01184  -0.01099  0.006343  -0.05834  0.7923
6.474e+09  -0.01492  0.908  -0.007406  0.001035  -0.0553  0.02125  0.2153  0.7712
6.475e+09  0.2997  0.8187  0.02266  -0.03025  -0.03879  -0.008893  0.4329  0.6352
6.476e+09  0.5248  0.7129  -0.01217  0.03654  -0.01466  -0.01021  0.6328  0.4397
6.478e+09  0.819  0.3899  -0.01165  -0.008259  0.0106  -0.00747  0.7672  0.1817
6.479e+09  0.8708  0.1318  -0.04583  0.00145  -0.05798  -0.02659  0.7633  -0.05318
6.48e+09  0.8895  -0.1699  0.0004975  0.007338  -0.05681  0.04456  0.7098  -0.29
6.481e+09  0.773  -0.4691  -0.0115  -0.02268  0.05789  0.03388  0.5293  -0.5242
6.482e+09  0.5726  -0.7086  0.01385  0.01324  -0.02582  0.006491  0.2841  -0.7216
6.484e+09  0.3391  -0.8529  0.02345  0.01648  0.02271  -0.03675  0.02356  -0.7641
6.485e+09  -0.008887  -0.929  -0.00849  -0.007615  0.001406  -0.06288  -0.2238  -0.742
6.486e+09  -0.3077  -0.7996  -5.491e-05  0.00664  -0.02887  0.04046  -0.4827  -0.6121
6.488e+09  -0.2374  -0.05468  -0.008894  0.03911  -0.7216  0.05616  -0.6925  -0.4842
6.489e+09  -0.791  -0.4439  -0.00215  0.01535  0.03012  0.001483  -0.7559  -0.1966
6.49e+09  -0.9161  -0.137  -0.009438  -0.02046  -0.007682  0.02687  -0.7702  0.09248
6.491e+09  -0.9579  0.1608  0.03329  -0.01566  -0.02593  0.01764  -0.669  0.3567
6.492e+09  -0.7561  0.4747  0.0153  0.005172  0.03058  -0.006554  -0.5086  0.5279
6.494e+09  -0.5403  0.8494  0.01438  -0.03205  -0.03768  -0.04781  -0.2972  0.7011
6.495e+09  -0.3034  0.8749  0.005439  0.0122  0.0004954  -0.01146  -0.05818  0.7719
6.496e+09  0.04341  0.895  -0.01825  0.007129  -0.001272  0.03063  0.2322  0.7416
6.498e+09  0.3365  0.8538  -0.005065  0.01324  0.04417  -0.002033  0.4514  0.6161
6.499e+09  0.6393  0.674  -0.006681  0.04263  0.03113  -0.02038  0.6286  0.4079
6.5e+09  0.8118  0.4534  -0.0001824  0.02871  0.04312  -0.03153  0.7591  0.1852
6.501e+09  0.8559  0.1426  -0.001937  -0.04176  0.01846  0.01285  0.7835  -0.1113
6.502e+09  0.9472  -0.2236  -0.02632  0.009361  -0.01015  -0.008473  0.6287  -0.3796
6.504e+09  0.7615  -0.5408  0.02424  0.0242  -0.007882  0.009899  0.5139  -0.5848
6.505e+09  0.4959  -0.7138  0.01371  -2.079e-05  -0.006686  -0.01618  0.2547  -0.6962
6.506e+09  0.2548  -0.8983  -0.01802  0.0222  -0.005789  -0.03423  0.03017  -0.7729
6.508e+09  -0.05561  -0.932  -0.0295  -0.03502  -0.03183  -0.0735  -0.2358  -0.6804
6.509e+09  -0.3926  -0.8306  0.03566  0.001909  0.03081  -0.008885  -0.4692  -0.6038
6.51e+09  -0.6699  -0.6486  0.0466  -0.000543  -0.008014  0.000119  -0.627  -0.3995
6.511e+09  -0.8695  -0.3808  -0.01734  0.04255  -0.06392  0.0234  -0.7245  -0.1506
6.512e+09  -0.9509  -0.03168  0.04044  -0.03449  -0.04775  -0.05182  -0.7439  0.1459
6.514e+09  -0.885  0.3054  0.02557  -0.005442  -0.002237  0.007597  -0.6832  0.347
6.515e+09  -0.7207  0.5924  -0.001336  0.01797  -0.04156  0.01885  -0.4957  0.5929
6.516e+09  -0.5075  0.7611  -0.02195  -0.02225  0.04837  -0.0252  -0.2762  0.7191
6.518e+09  -0.1695  0.8951  -0.003842  -0.008013  0.05841  -0.03197  0.03309  0.7482
6.519e+09  0.155  0.9068  0.01836  -0.02086  -0.04958  -0.0006393  0.2514  0.7116
6.52e+09  0.4395  0.843  0.02769  0.002274  0.001014  -0.001189  0.4971  0.5437
6.521e+09  0.7021  0.5344  0.02154  -0.01213  -0.03052  -0.004197  0.6491  0.3505
6.522e+09  0.8895  0.3295  0.01941  -0.01995  -0.0003657  -0.02334  0.7286  0.1073
6.524e+09  0.9525  0.03174  0.02933  0.01382  0.02848  -0.01181  0.7265  -0.1597
6.525e+09  0.9163  -0.3191  0.003646  0.02558  -0.01536  0.00664  0.5825  -0.4017
6.526e+09  0.6679  -0.6051  0.0004357  0.01183  0.04357  -0.001785  0.4315  -0.5807
6.528e+09  0.4786  -0.8119  0.01224  0.003713  -0.007689  0.02625  0.1814  -0.6847
6.529e+09  0.07854  -0.9355  -0.008077  0.009913  -0.02435  -0.009647  -0.02389  -0.6939
6.53e+09  -0.1908  -0.9402  0.01301  -0.02245  0.05505  -0.003505  -0.2797  -0.6457
6.531e+09  -0.4859  -0.8181  0.02013  -0.03011  0.002204  -0.004073  -0.4674  -0.4587
6.532e+09  -0.7389  -0.5914  0.02171  0.01238  0.002412  -0.01102  -0.5869  -0.3217
6.534e+09  -0.8886  -0.2383  -0.0004946  0.006741  0.07146  0.004019  -0.615  -0.06523
6.535e+09  -0.939  0.02908  0.003046  0.02813  -0.01305  0.004795  -0.6212  0.1246
6.536e+09  -0.8352  0.3924  -0.003569  0.002685  0.0247  -0.04395  -0.5295  0.2986
6.538e+09  -0.6729  0.6739  0.003594  0.002527  0.05879  0.0009887  -0.4623  0.5018
6.539e+09  -0.37  0.8846  -0.04808  -0.007839  0.004247  0.0003675  -0.2593  0.617
6.54e+09  -0.1212  0.945  0.01619  0.02311  0.01501  -0.02953  -0.0526  0.6602
6.541e+09  0.2546  0.907  -0.02588  -0.01027  0.02807  0.03708  0.1866  0.6604
6.542e+09  0.5259  0.7092  0.007198  -0.0317  0.02119  -0.02519  0.4237  0.5737
6.544e+09  0.7911  0.5053  0.04338  -0.01632  0.006159  0.01505  0.5587  0.3903
6.545e+09  0.8601  0.1774  0.02085  0.01995  -0.07105  -0.01701  0.6838  0.1985
6.546e+09  0.9254  -0.1359  0.006803  -0.007734  -0.02179  -0.02838  0.7249  -0.09769
6.548e+09  0.7844  -0.4046  0.01802  0.02913  -0.002653  -0.05088  0.6611  -0.3164
6.549e+09  0.6324  -0.6405  0.009542  -0.01503  0.02922  -0.002587  0.4804  -0.5021
6.55e+09  0.2987  -0.9154  -0.01777  -0.002444  -0.06344  0.02998  0.2648  -0.7182
