# Hz S RI R 50
6.25e+09  -0.3716  0.748  -0.009953  -0.03881  0.0217  -0.02217  0.1623  0.4937
6.251e+09  -0.1038  0.8265  0.008518  0.03058  0.004582  0.04216  0.347  0.4011
6.252e+09  0.1719  0.7572  -0.004836  -0.01064  0.04141  -0.008587  0.5389  0.2597
6.254e+09  0.458  0.7096  -0.01257  0.04276  0.04021  -0.01242  0.6089  0.04386
6.255e+09  0.6392  0.4132  -0.01718  -0.004112  0.07009  0.01955  0.6012  -0.1975
6.256e+09  0.8148  0.2378  -0.02103  0.0006586  0.04112  -0.03871  0.485  -0.4238
6.258e+09  0.8226  -0.00599  -0.01836  0.001785  -0.009345  0.03085  0.2745  -0.5919
6.259e+09  0.7353  -0.3045  0.03558  0.006255  0.02368  -0.0267  0.06184  -0.6876
6.26e+09  0.6345  -0.5755  0.01294  0.02015  0.008277  -0.01372  -0.2252  -0.6578
6.261e+09  0.3686  -0.7065  0.001783  0.03245  -0.02583  -0.01471  -0.4241  -0.5636
6.262e+09  0.07083  -0.8299  0.026  0.02457  -0.07231  0.03241  -0.6145  -0.3675
6.264e+09  -0.2338  -0.7781  0.01891  0.01061  0.07607  0.001754  -0.7095  -0.07268
6.265e+09  -0.453  -0.6343  0.002737  0.02194  0.01688  0.03541  -0.7034  0.1654
6.266e+09  -0.602  -0.4963  -0.01713  -0.02319  -0.002933  0.03509  -0.5676  0.4146
6.268e+09  -0.778  -0.2378  -0.005524  0.01843  -0.0278  -0.006226  -0.4351  0.6187
6.269e+09  -0.7966  0.09355  0.02026  -0.02965  -0.03696  0.02708  -0.2098  0.7076
6.27e+09  -0.7413  0.337  -0.001627  -0.001496  0.02502  -0.04706  0.1091  0.7274
6.271e+09  -0.5592  0.5293  -0.01535  0.01179  0.001633  -0.01875  0.3494  0.6603
6.272e+09  -0.3345  0.7928  0.02622  -0.01198  -0.02015  0.02323  0.5504  0.5074
6.274e+09  -0.03326  0.8809  -0.02064  0.00211  -0.01531  -0.008735  0.6759  0.2884
6.275e+09  0.2449  0.7573  0.03387  0.02278  0.003621  -0.04942  0.757  0.04899
6.276e+09  0.4521  0.6507  0.01066  0.005447  -0.01198  0.03015  0.7122  -0.2013
6.278e+09  0.6829  0.4594  0.02025  -0.002106  -0.0255  0.03268  0.5947  -0.4521
6.279e+09  0.7562  0.1773  -0.005382  -0.01446  -0.028  -0.02695  0.436  -0.6511
6.28e+09  0.7661  -0.05968  0.00349  -0.003779  0.02212  -0.0211  0.1727  -0.7414
6.281e+09  0.6977  -0.3629  -0.006501  0.00336  -0.03333  0.03005  -0.09389  -0.7688
6.282e+09  0.5861  -0.6321  -0.004924  0.01445  0.02621  -0.07051  -0.378  -0.6923
6.284e+09  0.3611  -0.6824  0.03414  0.007651  -0.001581  0.04877  -0.6072  -0.5307
6.285e+09  0.0192  -0.8362  -0.0001748  0.01911  0.03147  -0.02491  -0.7026  -0.2939
6.286e+09  -0.2601  -0.758  -0.004573  0.003164  0.003439  -0.02513  -0.8036  0.01387
6.288e+09  -0.4735  -0.6658  -0.03526  0.02743  0.03027  0.01734  -0.7551  0.2364
6.289e+09  -0.706  -0.4199  -0.01048  -0.02457  0.02147  0.03886  -0.628  0.4843
6.29e+09  -0.7799  -0.1611  0.0005996  -0.02623  -0.02805  -0.004859  -0.4298  0.6712
6.291e+09  -0.7985  0.07569  0.001986  0.0009762  -0.01472  0.01329  -0.1671  0.7657
6.292e+09  -0.7111  0.3442  0.0001197  -0.01059  -0.02223  0.008755  0.08442  0.8285
6.294e+09  -0.5687  0.6268  0.008815  -0.00555  0.04999  -0.03284  0.4086  0.7187
6.295e+09  -0.2935  0.752  -0.02726  0.003633  -0.0432  0.003433  0.613  0.4808
6.296e+09  -0.002413  0.7976  -0.01027  -0.01067  0.01184  -0.04988  0.7589  0.2817
6.298e+09  0.251  0.7256  0.001779  -0.01435  -0.02368  0.02501  0.756  0.02445
6.299e+09  0.4675  0.6172  0.03134  0.004109  0.02951  0.0365  0.7534  -0.2753
6.3e+09  0.6865  0.4464  0.008765  -0.02141  -0.04448  0.03878  0.6504  -0.5303
6.301e+09  0.8236  0.1416  -0.009321  0.005693  0.01906  0.005198  0.4023  -0.7184
6.302e+09  0.7317  -0.1469  0.02466  0.00774  -0.03403  0.0311  0.1521  -0.8693
6.304e+09  0.6801  -0.424  0.01454  -0.008106  -0.007455  0.01696  -0.1383  -0.8309
6.305e+09  0.5512  -0.6964  0.01022  -0.008684  -0.01051  0.009192  -0.4141  -0.7383
6.306e+09  0.2174  -0.7363  0.0008898  0.01406  -0.01044  0.006454  -0.6146  -0.5212
6.308e+09  -0.03227  -0.8244  0.002896  0.01659  0.01248  -0.03076  -0.8377  -0.2802
6.309e+09  -0.2849  -0.7352  -0.00938  -0.009238  -0.005526  0.02413  -0.8298  0.001038
6.31e+09  -0.5695  -0.5442  -0.00864  -0.04296  -0.01623  -0.03021  -0.8348  0.2968
6.311e+09  -0.7244  -0.412  -0.006411  0.01489  0.02688  0.004827  -0.6713  0.5436
6.312e+09  -0.8218  -0.05016  0.01272  -0.002157  -0.06977  -0.03385  -0.452  0.765
6.314e+09  -0.7324  0.172  0.01512  -0.001665  -0.02487  0.001281  -0.1404  0.8444
6.315e+09  -0.6912  0.4721  0.01394  0.003198  0.02519  0.00612  0.1394  0.8517
6.316e+09  -0.4625  0.63  -0.01214  0.006149  -0.03154  -0.04208  0.4009  0.7607
6.318e+09  -0.2379  0.8032  -0.02665  -0.008691  -0.01788  -0.04118  0.693  0.561
6.319e+09  0.01581  0.8278  0.02057  -0.02415  -0.01987  -0.00285  0.8414  0.327
6.32e+09  0.302  0.7551  0.01248  -0.0004524  0.008034  0.02431  0.8576  0.004676
6.321e+09  0.5381  0.5777  -0.02209  -0.05409  -0.0005007  -0.01765  0.8391  -0.2624
6.322e+09  0.7444  0.3599  0.01165  -0.02955  0.01617  -0.02428  0.6535  -0.5496
6.324e+09  0.8003  0.04489  0.01273  -0.02274  -0.01463  0.004584  0.4992  -0.7593
6.325e+09  0.7561  -0.2139  -0.007118  0.00613  -0.01921  -0.02463  0.1826  -0.8741
6.326e+09  0.6601  -0.4697  0.004691  0.02687  -0.04299  0.03336  -0.1317  -0.906
6.328e+09  0.4284  -0.6674  -0.03408  -0.02446  0.02789  0.0103  -0.4183  -0.783
6.329e+09  0.1715  -0.7627  0.02507  0.03222  0.04437  -0.03263  -0.6615  -0.6119
6.33e+09  -0.07772  -0.8067  0.002087  -0.0356  0.04646  0.05651  -0.8448  -0.3189
6.331e+09  -0.4473  -0.7305  -0.0175  -0.006092  -0.004548  -0.01966  -0.9017  -0.01887
6.332e+09  -0.5648  -0.5389  -0.01425  0.01142  0.008667  0.01817  -0.8708  0.2898
6.334e+09  -0.7736  -0.3443  0.03637  -0.01673  -0.02125  0.01507  -0.7377  0.5663
6.335e+09  -0.8576  0.0002448  0.03527  0.01112  0.04725  -0.02498  -0.4917  0.7712
6.336e+09  -0.7864  0.2669  0.04611  -0.006082  -0.03693  0.001249  -0.1961  0.8971
6.338e+09  -0.6708  0.5502  -0.02026  0.004941  -0.03746  0.005483  0.1176  0.9166
6.339e+09  -0.4291  0.7093  -0.01125  0.006414  0.00645  -0.04518  0.4177  0.8207
6.34e+09  -0.1275  0.8634  -0.02668  0.008581  -0.01844  -0.01745  0.6785  0.618
6.341e+09  0.1417  0.8452  0.04254  -0.01257  -0.0122  0.02227  0.8517  0.3469
6.342e+09  0.4202  0.6891  0.004529  0.01178  0.02354  -0.01404  0.9524  0.04735
6.344e+09  0.6685  0.5051  0.002281  0.04343  0.03515  -0.02641  0.8819  -0.2638
6.345e+09  0.8312  0.3127  0.004409  -0.00397  0.003539  0.02538  0.7513  -0.5794
6.346e+09  0.8703  -0.0296  0.04429  0.02662  0.003733  -0.02977  0.4885  -0.764
6.348e+09  0.7706  -0.3566  -0.01743  -0.002724  0.01844  0.03962  0.2049  -0.8989
6.349e+09  0.6103  -0.5753  -0.002523  -0.03777  -0.0272  -0.01341  -0.1164  -0.933
6.35e+09  0.3945  -0.7499  -0.006265  7.711e-05  -0.02893  0.01644  -0.4148  -0.8139
6.351e+09  0.09585  -0.8248  -0.02402  -0.0004738  0.004899  0.003203  -0.6683  -0.6349
6.352e+09  -0.1874  -0.8176  0.02187  -0.001139  -0.01552  0.003343  -0.86  -0.3773
6.354e+09  -0.4824  -0.7097  -0.01594  0.01369  -0.02167  -0.0174  -0.9175  -0.06997
6.355e+09  -0.7216  -0.4891  0.03491  -0.002147  -0.03227  0.001538  -0.9118  0.273
6.356e+09  -0.863  -0.2679  -0.004022  -0.02564  0.0208  -0.001323  -0.7674  0.558
6.358e+09  -0.8665  0.03934  2.881e-05  0.04328  -0.009874  0.0009379  -0.5218  0.7937
6.359e+09  -0.7867  0.3568  0.01332  0.00391  0.005833  -0.04875  -0.2393  0.9309
6.36e+09  -0.6115  0.6093  0.006086  0.02028  0.01784  -0.0238  0.08951  0.9467
6.361e+09  -0.3146  0.7869  -0.00351  0.007168  -0.04188  -0.05126  0.4048  0.8304
6.362e+09  -0.04629  0.8373  0.01283  -0.01219  -0.01174  0.02761  0.6808  0.6776
6.364e+09  0.2241  0.8174  0.006361  0.01297  -0.03876  0.001129  0.8619  0.4011
6.365e+09  0.563  0.6777  0.008395  0.01172  -0.05323  0.04701  0.9609  0.1131
6.366e+09  0.745  0.473  0.02051  -0.02008  -0.003633  0.03694  0.9135  -0.2144
6.368e+09  0.8617  0.2177  0.03581  0.01134  -0.01319  -0.0235  0.7601  -0.6002
6.369e+09  0.8787  -0.1273  0.005282  -0.01768  -0.044  -0.0263  0.5896  -0.8366
6.37e+09  0.738  -0.4215  -0.008863  0.008627  0.0004955  0.03933  0.2519  -0.9041
6.371e+09  0.5812  -0.6554  0.02975  -0.02997  0.02275  0.001785  -0.04726  -0.9028
6.372e+09  0.3135  -0.8147  0.00923  0.006322  -0.005012  -0.003531  -0.3726  -0.8766
6.374e+09  0.03551  -0.8686  -0.007429  -0.009541  -0.04515  0.0199  -0.7067  -0.654
6.375e+09  -0.2929  -0.7463  -0.009457  -0.02364  -0.005791  0.04474  -0.8368  -0.4013
6.376e+09  -0.5396  -0.65  -0.002006  0.01838  0.02291  -0.00209  -0.9233  -0.1408
6.378e+09  -0.7544  -0.4088  -0.01413  -0.05156  -0.0161  0.02678  -0.905  0.1908
6.379e+09  -0.8734  -0.1542  -0.04508  0.02829  -0.0386  0.0194  -0.8239  0.497
6.38e+09  -0.8302  0.1386  -0.02234  0.02386  0.03179  -0.05469  -0.5933  0.7811
6.381e+09  -0.6957  0.4304  -0.02088  0.02333  0.03707  -0.04479  -0.279  0.8884
6.382e+09  -0.5083  0.6866  -0.003265  0.01984  -0.02151  0.01056  0.09464  0.9122
6.384e+09  -0.2536  0.8566  0.01153  0.0103  0.0099  0.03716  0.3557  0.8195
6.385e+09  0.0615  0.8589  0.006507  0.0107  -0.008492  -0.0003243  0.6626  0.7107
6.386e+09  0.3609  0.8063  0.01639  0.02063  0.0003361  -0.03223  0.8705  0.4191
6.388e+09  0.6141  0.6385  -0.01764  0.0009318  -0.003317  0.01639  0.9153  0.1115
6.389e+09  0.7885  0.3787  -0.0255  0.03846  -0.003404  -0.00969  0.9116  -0.2119
6.39e+09  0.8761  0.1271  0.01903  -0.002798  0.0001105  0.0366  0.8164  -0.5388
6.391e+09  0.8744  -0.1899  -0.02679  -0.01713  -0.0002174  0.01136  0.5591  -0.7163
6.392e+09  0.7251  -0.4902  -0.004878  -0.03014  0.01463  0.01806  0.2945  -0.8963
6.394e+09  0.5266  -0.6688  -0.002869  0.0007711  -0.01885  0.03128  0.008869  -0.9262
6.395e+09  0.2287  -0.821  0.016  0.00798  0.01912  -0.009  -0.33  -0.8608
6.396e+09  -0.08052  -0.8848  -0.007378  -0.0204  0.0247  0.0271  -0.5984  -0.7098
6.398e+09  -0.3502  -0.7737  0.01346  -0.03888  0.005645  -0.001075  -0.7973  -0.4346
6.399e+09  -0.6227  -0.6029  -0.02482  0.01633  0.02194  -0.02277  -0.9183  -0.1563
6.4e+09  -0.7819  -0.3923  0.01568  0.01822  -0.001142  0.02266  -0.9341  0.1751
6.401e+09  -0.8784  -0.06551  -0.004574  -0.01437  0.01473  0.01515  -0.8128  0.4587
6.402e+09  -0.8075  0.2117  0.01312  -0.02425  -0.02076  -0.01302  -0.5965  0.7049
6.404e+09  -0.7001  0.5541  -0.03787  -0.00659  -0.002919  -0.004896  -0.3298  0.8688
6.405e+09  -0.5137  0.659  0.0122  -0.0005915  0.04576  -0.03053  -0.008308  0.923
6.406e+09  -0.2467  0.8192  -0.04343  -0.001776  -0.02747  0.01069  0.2903  0.87
6.408e+09  0.04486  0.8726  0.01411  -0.01507  -0.00473  -0.04685  0.5915  0.6533
6.409e+09  0.368  0.7165  -0.04729  -0.004754  0.01381  -0.0533  0.7895  0.4817
6.41e+09  0.6459  0.579  0.0331  -0.01992  0.02083  -0.03202  0.9034  0.1378
6.411e+09  0.7767  0.3314  -0.02363  0.02867  0.01308  -0.01852  0.8799  -0.144
6.412e+09  0.8542  0.05816  0.03135  -0.05222  0.01361  -0.0207  0.7883  -0.4318
6.414e+09  0.8364  -0.2872  0.03123  -0.04239  -0.01201  0.02264  0.5984  -0.7105
6.415e+09  0.6848  -0.5221  0.0384  0.0008873  -0.02823  -0.006704  0.323  -0.8374
6.416e+09  0.4199  -0.7651  0.02791  0.0214  -0.02379  -0.03891  0.03564  -0.905
6.418e+09  0.201  -0.789  -0.00925  0.0005145  -0.01414  0.00345  -0.2603  -0.8494
6.419e+09  -0.1262  -0.8797  -0.02936  0.008284  -0.02208  -0.01632  -0.5519  -0.7153
6.42e+09  -0.3853  -0.8029  0.0003311  -0.0104  0.006892  -0.009624  -0.7501  -0.5247
6.421e+09  -0.6249  -0.5556  -0.02878  0.01778  -0.0142  0.02656  -0.8608  -0.2145
6.422e+09  -0.7419  -0.353  -0.03701  0.005789  -0.01775  0.011  -0.874  0.1065
6.424e+09  -0.849  -0.02698  0.003242  0.02843  -0.009774  -0.02084  -0.7951  0.3998
6.425e+09  -0.7886  0.2919  0.03179  -0.0003871  -0.00873  0.02267  -0.5788  0.6507
6.426e+09  -0.6806  0.5416  0.04512  -0.006268  -0.003429  -0.06194  -0.3315  0.8066
6.428e+09  -0.4424  0.7168  -0.00384  0.003308  0.02173  -0.01067  -0.06874  0.8543
6.429e+09  -0.1704  0.8545  -0.03101  -0.02389  -0.002273  0.05255  0.2199  0.8518
6.43e+09  0.1225  0.8307  -0.01793  0.02835  0.03502  -0.0142  0.5491  0.7017
6.431e+09  0.3837  0.7885  0.00126  -0.03558  0.0262  0.003002  0.7154  0.4978
6.432e+09  0.6184  0.6164  -0.01229  0.01994  -0.04078  0.02627  0.866  0.2063
6.434e+09  0.7794  0.3253  0.02312  -0.0006633  -0.002623  -0.06527  0.8119  -0.07215
6.435e+09  0.8643  0.00362  0.05793  0.02996  -0.005968  0.02147  0.7808  -0.3849
6.436e+09  0.8311  -0.2878  0.002944  0.00202  0.002114  -0.00773  0.5748  -0.6472
6.438e+09  0.6483  -0.5117  0.01957  -0.005663  -0.0005017  0.01138  0.3445  -0.7816
6.439e+09  0.4772  -0.7319  -0.01622  0.02077  -0.04293  -0.05104  0.07115  -0.851
6.44e+09  0.2097  -0.8828  -0.01993  -0.06545  -0.001189  -0.036  -0.2007  -0.8342
6.441e+09  -0.1541  -0.8089  0.04536  -0.05521  -0.04014  -0.06201  -0.4475  -0.6732
6.442e+09  -0.4134  -0.7744  0.02532  -0.04905  -0.0366  -0.03609  -0.6768  -0.4521
6.444e+09  -0.6423  -0.5054  -0.03605  0.02011  0.01069  -0.06217  -0.8595  -0.2124
6.445e+09  -0.8129  -0.3158  0.0227  0.01113  0.00157  0.01433  -0.8291  0.02172
6.446e+09  -0.7904  -0.009364  0.04317  0.03756  0.02569  -0.03977  -0.77  0.329
6.448e+09  -0.8196  0.3258  0.04237  -0.04319  -0.005975  0.004851  -0.5784  0.5812
6.449e+09  -0.721  0.5158  0.02261  -0.04106  -0.005026  0.02787  -0.3604  0.7563
6.45e+09  -0.4255  0.7466  0.01592  -0.02157  -0.01011  -0.04953  -0.07675  0.8551
6.451e+09  -0.1152  0.8533  0.01422  0.001665  0.003492  -0.004619  0.2136  0.7814
6.452e+09  0.1521  0.8487  0.08192  -0.02054  0.03441  0.01542  0.5011  0.6797
6.454e+09  0.4294  0.7567  -0.03053  -0.02288  0.0472  0.01719  0.6922  0.4718
6.455e+09  0.6929  0.5195  0.03119  0.01178  -0.03377  0.008809  0.7899  0.2143
6.456e+09  0.8228  0.2809  -0.003097  0.03838  0.05585  0.001842  0.8301  -0.05363
6.458e+09  0.8295  -0.02989  -0.02939  0.02395  -0.003187  0.01503  0.7106  -0.342
6.459e+09  0.7942  -0.3303  0.001878  0.04487  -0.01505  -0.06482  0.5731  -0.596
6.46e+09  0.6854  -0.551  0.02489  -0.001001  0.04231  -0.02481  0.3537  -0.76
6.461e+09  0.4639  -0.7363  -0.0354  0.01091  -0.02419  -0.01785  0.01243  -0.8017
6.462e+09  0.1692  -0.8691  -0.008379  -0.006254  -0.01778  -0.042  -0.2254  -0.7837
6.464e+09  -0.1549  -0.8332  0.009652  0.02691  -0.06821  -0.005884  -0.4664  -0.6546
6.465e+09  -0.422  -0.76  0.01741  0.0005837  0.02196  0.004925  -0.6781  -0.4585
6.466e+09  -0.6389  -0.559  0.02081  0.004611  0.008906  0.006671  -0.7477  -0.23
6.468e+09  -0.8169  -0.2638  0.03712  -0.019  0.03984  0.02577  -0.7538  0.06373
6.469e+09  -0.8631  0.008945  0.0425  0.0321  -0.01752  -0.01736  -0.7064  0.3249
6.47e+09  -0.8319  0.3113  -0.01696  -0.03001  -0.001306  -0.004634  -0.5911  0.5301
6.471e+09  -0.6787  0.5815  0.009474  0.001123  0.05294  0.05394  -0.3452  0.7407
6.472e+09  -0.3982  0.7555  -0.006416  0.006996  -0.00703  -0.03685  -0.04256  0.7906
6.474e+09  -0.1704  0.8583  0.006859  0.01657  0.04684  0.0113  0.1845  0.7753
6.475e+09  0.217  0.84  0.01188  0.01511  0.02631  0.03551  0.4427  0.6346
6.476e+09  0.4724  0.7835  0.001302  -0.009767  -0.03499  0.006146  0.6399  0.4641
6.478e+09  0.6973  0.5627  0.04665  -0.005853  0.008376  0.0494  0.7589  0.1513
6.479e+09  0.8867  0.27  -0.03429  -0.01175  0.02702  0.02524  0.7901  -0.06804
6.48e+09  0.8884  -0.02028  0.03566  0.01358  0.0251  0.02216  0.7161  -0.3502
6.481e+09  0.8773  -0.3541  -0.01842  -0.006908  -0.02064  -0.04229  0.5762  -0.5403
6.482e+09  0.6945  -0.6195  0.01351  -0.04226  -0.05399  -0.0005718  0.347  -0.7332
6.484e+09  0.3674  -0.8351  0.01869  -0.0116  -0.01493  0.04201  0.06511  -0.7587
6.485e+09  0.1005  -0.8491  0.02136  0.01657  -0.006842  -0.02553  -0.1888  -0.757
6.486e+09  -0.1886  -0.8671  -0.009866  0.01648  -0.02932  0.01459  -0.4749  -0.601
6.488e+09  0.1903  -1.07  0.01529  -0.004171  0.6258  -0.3996  -0.6896  -0.4301
6.489e+09  -0.7185  -0.5505  -0.01771  -0.01155  -0.04405  0.01176  -0.7538  -0.1604
6.49e+09  -0.8755  -0.2163  0.01191  0.009446  0.04686  0.01899  -0.7283  0.08966
6.491e+09  -0.9344  0.06876  -0.0004483  0.01535  -0.01166  -0.0213  -0.6537  0.3375
6.492e+09  -0.8399  0.3096  -0.01193  0.00283  0.006799  -0.01141  -0.562  0.5645
6.494e+09  -0.7077  0.4656  0.02184  0.009773  0.01494  -0.1686  -0.3417  0.7022
6.495e+09  -0.4  0.785  -0.02155  -0.009225  0.01256  -0.005039  -0.04752  0.793
6.496e+09  -0.04831  0.8474  0.03313  -0.00519  -0.02653  0.01004  0.2089  0.7285
6.498e+09  0.2313  0.8566  0.0216  -0.008185  0.01474  -0.02471  0.5016  0.5844
6.499e+09  0.5219  0.7954  -0.03877  -0.004667  0.04399  0.01055  0.6341  0.4106
6.5e+09  0.7799  0.5174  -0.01956  0.01977  -0.02812  -0.02131  0.7695  0.1752
6.501e+09  0.846  0.2754  0.01898  -0.02145  0.02614  -0.06846  0.7672  -0.09952
6.502e+09  0.9202  -0.07338  0.004846  0.006298  -0.001917  -0.01717  0.6595  -0.3534
6.504e+09  0.8926  -0.3938  -0.02453  -0.02055  -0.04001  -0.01841  0.4864  -0.5611
6.505e+09  0.5869  -0.6521  0.006739  -0.01481  -0.02853  -0.004891  0.3207  -0.7363
6.506e+09  0.3628  -0.8341  0.01252  -0.0283  0.02239  -0.01635  0.06946  -0.7324
6.508e+09  0.02589  -0.9438  -0.02587  0.008028  -0.01074  0.03111  -0.22  -0.7196
6.509e+09  -0.2366  -0.8707  0.02942  -0.008916  0.007238  0.01302  -0.4529  -0.6118
6.51e+09  -0.5146  -0.7667  -0.03787  0.01164  0.005049  -0.009385  -0.6554  -0.4074
6.511e+09  -0.7891  -0.4968  0.008411  -0.01752  -0.05531  -0.03302  -0.7433  -0.1413
6.512e+09  -0.8983  -0.224  -0.01564  0.02096  0.01898  0.02574  -0.7538  0.1238
6.514e+09  -0.9601  0.07222  0.02789  0.01627  -0.005314  -0.02807  -0.6151  0.3537
6.515e+09  -0.8048  0.4373  -0.01359  0.04147  0.0005448  -0.02346  -0.4769  0.5855
6.516e+09  -0.6481  0.6894  0.02478  -0.01685  -0.05245  0.02987  -0.2019  0.7252
6.518e+09  -0.3683  0.8623  -0.03311  0.0006933  -0.01147  -0.00421  0.03089  0.7516
6.519e+09  -0.06049  0.9615  0.02259  0.05162  0.01131  -0.01406  0.2492  0.7106
6.52e+09  0.2992  0.8999  0.02039  -0.0008663  0.01515  -0.06531  0.4923  0.5884
6.521e+09  0.5948  0.7189  0.008605  0.01451  -0.01485  -0.02211  0.6252  0.3173
6.522e+09  0.775  0.4976  0.02491  0.05614  -0.02539  0.03359  0.7233  0.1036
6.524e+09  0.9286  0.1575  0.01955  0.0103  -0.02307  0.03748  0.7403  -0.1771
6.525e+09  0.8864  -0.1818  0.01914  0.03124  -0.01382  0.0409  0.6217  -0.3669
6.526e+09  0.8111  -0.4269  -0.00207  0.006974  0.007421  0.02032  0.4303  -0.5728
6.528e+09  0.5784  -0.7415  0.009296  0.03503  0.0211  0.005964  0.2016  -0.6895
6.529e+09  0.2771  -0.8134  -0.02468  0.01788  -0.02595  0.02279  -0.04084  -0.6667
6.53e+09  -0.02161  -0.9384  -0.0004628  -0.005202  0.04591  -0.01351  -0.2581  -0.6071
6.531e+09  -0.3575  -0.9417  0.0381  0.01951  0.006651  -0.02069  -0.4722  -0.4904
6.532e+09  -0.6089  -0.71  0.02562  2.551e-05  0.01474  -0.05406  -0.5928  -0.2939
6.534e+09  -0.8636  -0.3856  -0.002083  0.05552  -0.00882  0.01197  -0.6179  -0.095
6.535e+09  -0.901  -0.1297  -0.03353  0.01366  0.01156  -0.02333  -0.6112  0.109
6.536e+09  -0.8794  0.2112  0.05074  -0.003337  0.004193  0.02933  -0.5724  0.2978
6.538e+09  -0.8007  0.5316  -0.01855  -0.009054  0.007178  -0.01015  -0.4394  0.479
6.539e+09  -0.561  0.7798  -0.02289  -0.003938  0.01966  0.01003  -0.2894  0.6051
6.54e+09  -0.2818  0.921  -0.00521  -0.01895  0.01954  0.0127  -0.09273  0.6819
6.541e+09  0.1167  0.9565  -0.02588  -0.009213  0.02565  0.02737  0.1702  0.672
6.542e+09  0.436  0.8242  -0.0284  0.001602  -0.04322  0.01573  0.4016  0.5583
6.544e+09  0.6568  0.6589  -0.008734  0.02403  -0.0307  -0.03065  0.5741  0.3911
6.545e+09  0.8622  0.3363  0.01066  -0.004855  -0.01874  -0.008319  0.699  0.1649
6.546e+09  0.9432  0.03234  -0.01143  -0.01256  0.008698  -0.006839  0.7315  -0.1111
6.548e+09  0.8859  -0.2834  -0.005936  0.016  0.03578  0.000217  0.623  -0.3635
6.549e+09  0.732  -0.5623  0.005849  0.01214  -0.01313  -0.02267  0.5096  -0.5432
6.55e+09  0.512  -0.7584  -0.004297  -0.03007  -0.02888  0.01271  0.2969  -0.6703
6.551e+09  0.1657  -0.8207  -0.01015  -0.01539  -0.003575  0.02577  0.01818  -0.7587
