# Hz S RI R 50
6.25e+09  -0.2661  0.7718  0.01367  0.03725  -0.0294  -0.008775  0.1628  0.4782
6.251e+09  -0.05425  0.8312  0.02827  0.02499  -0.007125  0.02992  0.3824  0.4134
6.252e+09  0.2931  0.777  -0.00848  0.01458  0.01466  0.03626  0.5438  0.233
6.254e+09  0.5329  0.639  -0.007152  0.01099  -0.04969  0.02092  0.6052  0.02187
6.255e+09  0.6644  0.4145  -0.002075  -8.68e-05  0.04081  0.03812  0.6266  -0.2163
6.256e+09  0.8236  0.09125  -0.002512  0.04358  0.02213  0.04115  0.4733  -0.4593
6.258e+09  0.7838  -0.1301  -0.02726  0.01734  -0.01542  -0.02286  0.2979  -0.6114
6.259e+09  0.7324  -0.4106  -0.009695  -0.002538  0.02504  0.03848  0.06451  -0.6743
6.26e+09  0.4997  -0.6179  -0.0321  -0.004693  0.03735  0.03521  -0.2019  -0.6311
6.261e+09  0.281  -0.7851  -0.01657  0.005804  -0.04318  -0.03402  -0.4387  -0.5281
6.262e+09  -0.01571  -0.8081  0.00897  -0.00429  0.0001284  -0.008239  -0.6365  -0.3691
6.264e+09  -0.2698  -0.779  -0.004038  0.00821  0.02666  -0.05641  -0.6638  -0.09078
6.265e+09  -0.526  -0.6049  0.008342  -0.01366  0.01376  0.001987  -0.6922  0.1847
6.266e+09  -0.6947  -0.3988  0.03331  0.003923  0.03146  -0.01337  -0.5851  0.3923
6.268e+09  -0.8574  -0.1671  -0.002848  0.0324  0.02891  0.03764  -0.4537  0.5939
6.269e+09  -0.8541  0.1693  0.01036  0.01797  0.01606  -0.02149  -0.194  0.6986
6.27e+09  -0.6775  0.4496  -0.007102  0.009174  0.005613  -0.02786  0.0517  0.7671
6.271e+09  -0.5315  0.6008  -0.01751  -0.03335  -0.06045  -0.03951  0.3279  0.6983
6.272e+09  -0.2506  0.7893  -0.00667  0.02245  -0.03428  0.007619  0.5259  0.5045
6.274e+09  0.02977  0.8222  0.005708  0.02461  0.02217  -0.0413  0.6513  0.2653
6.275e+09  0.361  0.7541  -0.007511  -0.01056  -0.01405  -0.0266  0.784  0.05892
6.276e+09  0.4954  0.6144  -0.01751  0.02762  0.01381  -0.02933  0.7218  -0.2129
6.278e+09  0.6894  0.3899  -0.003085  -0.02678  0.01831  0.01453  0.6434  -0.477
6.279e+09  0.8004  0.1052  -0.001972  -0.009886  -0.03741  -0.03372  0.4124  -0.6609
6.28e+09  0.7923  -0.1376  0.01638  -0.01686  -0.0038  0.04231  0.1705  -0.7423
6.281e+09  0.6802  -0.4516  0.0008905  0.006324  -0.007242  0.04538  -0.1106  -0.7565
6.282e+09  0.5182  -0.6239  0.02162  -0.007537  0.04588  0.04452  -0.4121  -0.6522
6.284e+09  0.2729  -0.7603  0.01283  -0.0006037  0.04579  -0.007149  -0.578  -0.5341
6.285e+09  -0.07273  -0.8257  -0.0131  -0.02103  0.009799  0.01579  -0.7425  -0.278
6.286e+09  -0.3552  -0.7631  0.005576  -0.01093  -0.01007  -0.007364  -0.8377  -0.02414
6.288e+09  -0.5513  -0.6057  -0.005741  0.03137  0.01519  0.0373  -0.7513  0.2268
6.289e+09  -0.7003  -0.4  0.04274  -0.01679  0.02391  0.01281  -0.6452  0.5013
6.29e+09  -0.7627  -0.1104  0.007593  -0.02471  -0.03079  -0.05838  -0.4234  0.6982
6.291e+09  -0.7857  0.1618  -0.02777  0.002812  -0.05334  -0.02363  -0.1414  0.7772
6.292e+09  -0.687  0.4441  0.01503  0.002028  0.0247  -0.007527  0.09936  0.8269
6.294e+09  -0.468  0.6743  -0.002269  -0.02125  -0.009192  -0.02565  0.3796  0.7038
6.295e+09  -0.208  0.7693  0.001935  0.02989  -0.01365  0.006145  0.6216  0.5089
6.296e+09  0.08876  0.8081  0.02279  -0.006531  0.01829  0.005789  0.7676  0.2817
6.298e+09  0.3489  0.7058  -0.03894  0.001919  0.01004  0.02271  0.8446  -0.01005
6.299e+09  0.5624  0.5306  -0.01208  -0.0218  0.03741  -0.01553  0.7861  -0.2264
6.3e+09  0.77  0.3642  0.005951  0.0295  0.06275  -0.01456  0.6178  -0.5386
6.301e+09  0.7995  0.02366  -0.003806  -0.03443  -0.0159  0.02056  0.4415  -0.7223
6.302e+09  0.788  -0.2309  0.004189  0.02803  -0.008652  0.003992  0.1574  -0.8046
6.304e+09  0.602  -0.5085  0.02043  -0.002475  0.03353  -0.005464  -0.1147  -0.8242
6.305e+09  0.4277  -0.6339  -0.001809  0.02378  -0.02192  0.0242  -0.401  -0.7269
6.306e+09  0.2194  -0.8075  0.007959  -0.01625  -0.02143  -0.01914  -0.6682  -0.5622
6.308e+09  -0.109  -0.8254  -0.007455  -0.009736  0.03984  0.01122  -0.8166  -0.2877
6.309e+09  -0.4414  -0.7089  -0.01308  -0.004204  0.03171  -0.004767  -0.865  -0.02228
6.31e+09  -0.5807  -0.522  -0.007177  0.02293  -0.009253  -0.03208  -0.7997  0.2699
6.311e+09  -0.7383  -0.2469  -0.01275  0.00297  -0.01365  0.02446  -0.6535  0.5261
6.312e+09  -0.8591  -0.004182  0.02433  -0.02291  -0.02134  0.03607  -0.4576  0.7213
6.314e+09  -0.7705  0.2873  0.01298  -0.03014  0.02232  -0.02254  -0.1959  0.8497
6.315e+09  -0.6193  0.5193  0.001775  0.001785  0.02548  0.00751  0.1606  0.839
6.316e+09  -0.4047  0.717  -0.0101  0.006604  -0.001873  0.02021  0.4566  0.7902
6.318e+09  -0.1328  0.8135  -0.01043  0.007477  0.007194  -0.01095  0.6641  0.5797
6.319e+09  0.1058  0.7931  0.02219  0.007566  -0.01799  0.00619  0.83  0.3186
6.32e+09  0.4746  0.7489  -0.002318  0.01534  -0.0224  -0.005406  0.9139  -0.0002605
6.321e+09  0.6469  0.5656  -0.013  -0.001855  0.0005451  0.06505  0.8299  -0.2659
6.322e+09  0.8055  0.2586  -0.001069  -0.03102  -0.009589  -0.001365  0.6849  -0.5528
6.324e+09  0.8168  -0.01364  -0.0159  0.005867  -0.00578  0.02574  0.4598  -0.7488
6.325e+09  0.7224  -0.2817  -0.02341  0.004426  0.01007  0.05043  0.166  -0.8652
6.326e+09  0.6174  -0.5533  0.00242  0.001899  -0.0007506  0.04189  -0.1325  -0.8976
6.328e+09  0.3837  -0.7034  -0.009803  -0.0004366  0.01122  0.002361  -0.4328  -0.7841
6.329e+09  0.09468  -0.8528  -0.01999  -0.01208  0.01476  -0.06868  -0.6699  -0.6434
6.33e+09  -0.1362  -0.7671  -0.02782  0.02566  -0.03518  0.001964  -0.8337  -0.3673
6.331e+09  -0.4371  -0.6909  -0.02055  0.01443  -0.05418  -0.03197  -0.8952  -0.03153
6.332e+09  -0.6689  -0.5215  -0.01021  0.03903  0.0309  0.03377  -0.8598  0.2557
6.334e+09  -0.8084  -0.2207  0.02063  0.0324  0.006952  -0.01502  -0.722  0.5464
6.335e+09  -0.8652  0.09839  0.0441  0.01463  -0.02729  0.004589  -0.4847  0.7192
6.336e+09  -0.7721  0.34  0.02295  -0.004603  0.01202  0.00328  -0.1873  0.8981
6.338e+09  -0.5917  0.57  -0.007601  0.009787  -0.06167  0.05022  0.1236  0.9201
6.339e+09  -0.3619  0.7826  0.006802  0.004346  -0.01104  -0.0427  0.4046  0.8147
6.34e+09  -0.05131  0.8649  -0.02892  0.000396  -0.03764  0.01614  0.6611  0.6088
6.341e+09  0.2718  0.8667  0.02825  -0.02692  -0.01254  0.0003785  0.8653  0.3535
6.342e+09  0.5053  0.6759  -0.01293  -0.01695  -0.008684  -0.04583  0.9112  0.05936
6.344e+09  0.7709  0.487  -0.003366  0.0008786  -0.05263  0.0005209  0.9071  -0.2735
6.345e+09  0.825  0.1556  -0.01973  0.01264  -0.01886  -0.02188  0.7536  -0.592
6.346e+09  0.8392  -0.1568  0.002407  0.03378  -0.002614  -0.01463  0.5017  -0.76
6.348e+09  0.7516  -0.4033  0.01546  0.008218  0.05307  0.007385  0.2021  -0.9113
6.349e+09  0.5373  -0.6579  -0.03204  -0.0358  0.01972  -0.009745  -0.1178  -0.9084
6.35e+09  0.3242  -0.7969  -0.02616  0.0009261  -0.01343  -0.03192  -0.4421  -0.8426
6.351e+09  -0.01072  -0.8171  0.00953  -0.01687  0.01619  0.0243  -0.7104  -0.6307
6.352e+09  -0.3018  -0.768  0.0007559  -0.014  -0.02278  0.037  -0.8636  -0.4106
6.354e+09  -0.5587  -0.6605  0.02793  0.01136  0.05267  0.02878  -0.9739  -0.07734
6.355e+09  -0.75  -0.4211  -0.001119  -0.03004  -0.0004256  0.07104  -0.8759  0.2304
6.356e+09  -0.8924  -0.1635  -0.01477  -0.002144  0.01465  0.02514  -0.7892  0.5562
6.358e+09  -0.8944  0.2016  -0.02135  0.004326  0.003684  -0.03047  -0.4841  0.759
6.359e+09  -0.7417  0.4367  0.05085  0.03366  0.000667  -0.0003751  -0.2069  0.9339
6.36e+09  -0.4777  0.7267  -0.03356  0.01416  0.01011  -0.01831  0.1048  0.9469
6.361e+09  -0.2419  0.8414  -0.003929  -0.01547  0.002616  0.02887  0.4345  0.8003
6.362e+09  0.06419  0.8545  -0.03078  -0.008364  -0.02842  -0.03078  0.6862  0.6653
6.364e+09  0.4109  0.8108  0.01191  0.03236  -0.009434  0.02365  0.823  0.413
6.365e+09  0.5745  0.6341  -0.002651  -0.005801  -0.008333  -0.003363  0.9426  0.05004
6.366e+09  0.741  0.3816  0.02407  -0.01116  0.001424  0.01889  0.8965  -0.2556
6.368e+09  0.8837  0.08901  -0.01648  0.008301  0.01639  -0.009674  0.764  -0.5666
6.369e+09  0.8635  -0.2374  -0.02111  0.02204  0.007849  0.03691  0.5234  -0.7818
6.37e+09  0.6936  -0.4942  -0.01133  -0.01427  -0.06602  -0.004038  0.24  -0.9354
6.371e+09  0.4626  -0.7189  0.001634  -0.01059  -0.03271  -0.001265  -0.07043  -0.8914
6.372e+09  0.1802  -0.8742  -0.01206  0.02789  0.02975  -0.02468  -0.3996  -0.858
6.374e+09  -0.1488  -0.8146  -0.04243  0.02116  -0.02299  -0.02165  -0.6597  -0.6781
6.375e+09  -0.3475  -0.7774  0.01153  -0.03405  0.008349  0.0257  -0.8405  -0.4069
6.376e+09  -0.6467  -0.5901  -0.02302  -0.02188  -0.01449  0.0008252  -0.928  -0.1117
6.378e+09  -0.7937  -0.3212  0.02431  -0.02137  0.02235  0.03359  -0.9399  0.2032
6.379e+09  -0.8293  -0.05045  0.03019  0.01645  -0.02464  0.02111  -0.7902  0.5379
6.38e+09  -0.8057  0.3006  -0.0004901  -0.02105  -0.03839  0.01373  -0.557  0.762
6.381e+09  -0.6694  0.5097  -0.009448  -0.006468  0.03411  0.03392  -0.2831  0.9133
6.382e+09  -0.4726  0.7049  -0.02605  0.005417  -0.01099  -0.02762  0.05532  0.96
6.384e+09  -0.1571  0.8547  0.0007665  0.007907  -0.02298  0.02999  0.4171  0.8495
6.385e+09  0.1673  0.8915  0.006353  0.01165  0.01303  -0.009032  0.6313  0.6919
6.386e+09  0.4312  0.7736  -0.02394  -0.02065  -0.003044  -0.0127  0.8368  0.4141
6.388e+09  0.6231  0.5244  0.05082  0.02889  -0.004861  -0.004115  0.9453  0.07554
6.389e+09  0.7722  0.3263  0.009671  0.007759  0.01583  -0.01038  0.9108  -0.2355
6.39e+09  0.8927  0.007271  0.04909  -0.01351  0.03505  -0.009563  0.7549  -0.4908
6.391e+09  0.817  -0.3445  -0.03566  -0.009349  -0.01954  0.001575  0.5531  -0.7006
6.392e+09  0.6842  -0.5517  -0.03648  -0.01429  0.02424  0.007767  0.305  -0.8841
6.394e+09  0.4587  -0.8221  -0.008484  -0.01333  0.02426  -0.005419  -0.042  -0.9388
6.395e+09  0.1719  -0.825  0.02759  -0.00541  -0.007145  0.01141  -0.3402  -0.8617
6.396e+09  -0.2036  -0.8242  0.01531  -1.92e-05  -0.01152  -0.007838  -0.6591  -0.7152
6.398e+09  -0.4107  -0.7562  -0.008684  0.03689  0.01509  0.02652  -0.7652  -0.4396
6.399e+09  -0.6606  -0.499  0.0008652  -0.002793  0.03214  0.03814  -0.8909  -0.1689
6.4e+09  -0.8328  -0.2582  0.04166  0.02671  0.02022  -0.03477  -0.9149  0.1717
6.401e+09  -0.8442  -0.00483  0.01347  -0.03708  -0.03928  0.02565  -0.8297  0.4327
6.402e+09  -0.8224  0.2944  -0.002013  -0.01263  -0.01732  -0.04684  -0.6055  0.7162
6.404e+09  -0.6772  0.5146  0.007252  -0.02242  0.03304  -0.02419  -0.29  0.8954
6.405e+09  -0.379  0.7209  -0.00549  -0.01647  0.0281  -0.01543  -0.02052  0.9242
6.406e+09  -0.1389  0.8185  0.01005  -0.01213  0.03247  -0.03233  0.297  0.8669
6.408e+09  0.2002  0.8098  -0.02228  -0.03121  -0.002456  -0.0269  0.5789  0.7179
6.409e+09  0.4983  0.7073  -0.01664  0.01082  0.01909  0.01856  0.7724  0.459
6.41e+09  0.6746  0.5596  -0.02316  -0.03234  0.02417  0.03481  0.9175  0.1904
6.411e+09  0.8141  0.2306  -0.03969  0.03009  -0.03071  0.0344  0.9404  -0.1322
6.412e+09  0.8267  -0.02064  0.001804  -0.01439  -0.02984  0.02958  0.7772  -0.4067
6.414e+09  0.7907  -0.3551  -0.0003682  0.01322  0.02255  -0.005783  0.6309  -0.6171
6.415e+09  0.656  -0.5769  -0.01887  0.01078  0.007054  -0.03392  0.3149  -0.8385
6.416e+09  0.3816  -0.7366  0.003747  -0.04153  0.03042  -0.01324  0.0457  -0.8869
6.418e+09  0.06366  -0.8523  0.004612  0.0006251  0.001884  0.01543  -0.231  -0.8604
6.419e+09  -0.1755  -0.8137  -0.01103  0.04521  -0.01875  -0.02615  -0.5728  -0.697
6.42e+09  -0.4607  -0.7354  0.0001044  0.01077  -0.04168  -0.02085  -0.7265  -0.4522
6.421e+09  -0.6935  -0.5704  -0.06249  0.03215  0.02156  0.02872  -0.8256  -0.1958
6.422e+09  -0.811  -0.2412  0.01445  0.01003  0.06161  0.006118  -0.8474  0.1179
6.424e+09  -0.8463  0.0228  0.01516  -0.0243  0.01803  -0.004639  -0.7832  0.3971
6.425e+09  -0.788  0.3524  -0.01477  0.01963  -0.00468  -0.004879  -0.6107  0.6099
6.426e+09  -0.6242  0.573  0.05368  -0.01585  0.05909  0.01867  -0.3597  0.8456
6.428e+09  -0.3543  0.7472  -0.05391  0.00439  -0.006489  0.01114  -0.05274  0.8308
6.429e+09  -0.09267  0.8631  -0.0003297  0.03295  0.03525  0.02988  0.2795  0.8071
6.43e+09  0.1815  0.8335  -0.03038  -0.007105  -0.05429  0.01577  0.5378  0.7506
6.431e+09  0.4458  0.695  0.01975  0.02257  0.002726  0.006797  0.7065  0.513
6.432e+09  0.7126  0.492  0.01764  -0.03458  -0.007881  -0.03524  0.867  0.265
6.434e+09  0.8651  0.2366  0.01827  0.003116  0.01494  -0.004491  0.8093  -0.1042
6.435e+09  0.8327  -0.08991  -0.02725  0.05016  -0.0296  -0.03607  0.755  -0.3581
6.436e+09  0.7867  -0.3529  0.04448  -0.01641  0.02623  0.00808  0.5824  -0.6278
6.438e+09  0.6103  -0.6045  0.01787  -0.01377  0.01276  0.003196  0.3058  -0.8073
6.439e+09  0.4187  -0.8202  -0.02446  0.008593  -0.001255  0.03571  0.05992  -0.8204
6.44e+09  0.09656  -0.8815  -0.0001291  0.01374  0.007647  -0.02765  -0.2451  -0.8443
6.441e+09  -0.2335  -0.8443  0.03427  0.01977  0.006059  -0.01658  -0.4686  -0.6661
6.442e+09  -0.501  -0.6961  -0.01001  0.007344  -0.02982  -0.04502  -0.7207  -0.4333
6.444e+09  -0.7333  -0.5395  -0.0002044  -0.04361  0.008461  0.01463  -0.8271  -0.2079
6.445e+09  -0.8055  -0.2018  0.02272  0.04104  0.0007128  0.0001498  -0.8824  0.07883
6.446e+09  -0.8403  0.0914  -0.02097  -0.02142  -0.04189  -0.05077  -0.715  0.3345
6.448e+09  -0.7463  0.393  0.03526  -0.01328  -0.01104  -0.003509  -0.6425  0.5785
6.449e+09  -0.5922  0.6266  -0.02412  -0.003202  0.003085  -0.004138  -0.3466  0.7601
6.45e+09  -0.3802  0.8064  -0.0007358  0.03962  0.01775  -0.005827  -0.04178  0.8452
6.451e+09  -0.05159  0.8652  -0.03666  -0.02956  0.00989  0.009927  0.1835  0.8023
6.452e+09  0.2254  0.8018  0.04135  -0.01691  -0.02677  -0.0007857  0.4727  0.6838
6.454e+09  0.5458  0.6816  0.005008  -0.01205  0.07612  -0.01391  0.6972  0.4745
6.455e+09  0.7334  0.4721  0.02193  0.008676  0.005255  -0.03424  0.7434  0.1999
6.456e+09  0.8276  0.184  0.04539  0.01935  0.02152  0.01569  0.8218  -0.05985
6.458e+09  0.8347  -0.07458  -0.02028  -0.009409  -0.001036  0.006693  0.7489  -0.336
6.459e+09  0.8108  -0.3557  -0.02127  -0.01335  -0.00946  0.03544  0.5675  -0.5361
6.46e+09  0.5847  -0.6088  0.03817  0.03274  0.02798  0.008586  0.3415  -0.7519
6.461e+09  0.3355  -0.7434  -0.002568  -0.001917  -0.003456  0.009709  0.08363  -0.8414
6.462e+09  0.02234  -0.8699  -0.02283  0.01206  0.02343  -0.000323  -0.1974  -0.8205
6.464e+09  -0.2521  -0.842  -0.01211  0.007386  -0.02812  0.02003  -0.4624  -0.6531
6.465e+09  -0.5373  -0.7562  -0.03894  0.02009  0.03828  -0.02177  -0.6573  -0.4594
6.466e+09  -0.7277  -0.4764  -0.02647  0.03129  -0.01154  0.02223  -0.8215  -0.1805
6.468e+09  -0.8385  -0.1643  -0.01024  0.01476  -0.00516  0.01487  -0.8008  0.06182
6.469e+09  -0.8652  0.1294  -0.002975  0.005257  0.07358  0.04009  -0.728  0.295
6.47e+09  -0.7883  0.3852  -0.01577  -0.00111  -0.002547  -0.03229  -0.587  0.5625
6.471e+09  -0.5673  0.614  0.003315  0.02645  -0.01307  -0.0005703  -0.3564  0.6996
6.472e+09  -0.302  0.8259  0.005733  -0.005041  0.01256  0.01519  -0.08701  0.8049
6.474e+09  -0.04774  0.8993  -0.008883  0.000402  0.02458  -0.005358  0.2286  0.7302
6.475e+09  0.2868  0.8524  0.004011  -0.02215  0.02378  0.01505  0.4705  0.6542
6.476e+09  0.5834  0.7054  -0.009609  0.003056  0.004502  0.01579  0.642  0.4248
6.478e+09  0.7835  0.4451  0.00191  0.03758  -0.004092  0.006704  0.7911  0.1788
6.479e+09  0.8516  0.1651  -0.02478  0.03304  -0.02191  0.02064  0.7972  -0.05875
6.48e+09  0.8954  -0.09629  -0.03244  0.01741  -0.01514  -0.01985  0.7301  -0.3567
6.481e+09  0.7656  -0.4017  0.002373  0.02347  0.05705  0.04984  0.5605  -0.5561
6.482e+09  0.5893  -0.6322  -0.01765  -0.01715  0.01074  -0.006362  0.336  -0.7223
6.484e+09  0.3728  -0.8782  0.006664  0.02387  -0.01839  -0.02411  0.0959  -0.7728
6.485e+09  0.06079  -0.8951  0.02682  0.02394  0.06165  -0.003575  -0.2664  -0.7188
6.486e+09  -0.3426  -0.8279  0.009421  -0.04535  0.03036  -0.01848  -0.4495  -0.6359
6.488e+09  -0.5791  -1.444  -0.007701  0.02644  -0.01512  -0.7418  -0.657  -0.4067
6.489e+09  -0.82  -0.5007  -0.02245  0.001897  0.001251  -0.01368  -0.7666  -0.1676
6.49e+09  -0.8978  -0.1594  -0.01794  0.01468  0.006815  -0.02099  -0.7869  0.06112
6.491e+09  -0.886  0.104  0.004778  0.02612  -0.03526  0.004156  -0.7062  0.3203
6.492e+09  -0.7581  0.4633  -0.01563  -0.02382  0.04678  0.002476  -0.515  0.5738
6.494e+09  -0.4647  0.7627  0.01623  0.002533  0.08856  0.05481  -0.319  0.7145
6.495e+09  -0.3135  0.8574  -0.01283  0.002795  -0.02468  -0.03635  -0.03826  0.7422
6.496e+09  -0.01911  0.9158  -0.0134  0.00313  0.01045  -0.03547  0.1997  0.7435
6.498e+09  0.3082  0.8616  -0.01564  0.01458  0.007683  0.03801  0.4865  0.6421
6.499e+09  0.62  0.7302  -0.01225  0.01594  0.04212  -0.02552  0.6497  0.4
6.5e+09  0.8029  0.3811  -0.007762  0.004974  -0.01749  0.001469  0.7308  0.1619
6.501e+09  0.8514  0.1176  0.01807  -0.02154  0.01631  -0.02514  0.7246  -0.1082
6.502e+09  0.8978  -0.2  0.01081  -0.01729  0.007606  -0.02488  0.6607  -0.3509
6.504e+09  0.7785  -0.4969  -0.005048  -0.01742  0.004534  -0.02704  0.5345  -0.5398
6.505e+09  0.5894  -0.7146  0.03801  0.02722  0.03719  0.005995  0.2981  -0.7193
6.506e+09  0.2611  -0.839  -0.01096  -0.01219  0.01874  0.03308  0.01232  -0.7129
6.508e+09  -0.02083  -0.931  0.0146  0.01524  -0.005484  -0.02753  -0.2436  -0.683
6.509e+09  -0.3742  -0.8354  0.006095  -0.02649  -0.007508  -0.03061  -0.4604  -0.5485
6.51e+09  -0.6281  -0.6512  0.01497  -0.0187  -0.001859  -0.004181  -0.6465  -0.4064
6.511e+09  -0.8045  -0.4495  -0.03334  0.008961  0.003942  0.004254  -0.7049  -0.1303
6.512e+09  -0.9091  -0.06558  0.03759  -0.04001  -0.03062  -0.03919  -0.7335  0.1107
6.514e+09  -0.9242  0.2007  0.006951  -0.02907  0.007157  0.01663  -0.6388  0.3702
6.515e+09  -0.7936  0.4972  -0.03331  0.0215  0.001292  0.04273  -0.5203  0.5412
6.516e+09  -0.5494  0.7904  0.02835  -0.02827  -0.001203  0.03939  -0.2472  0.6857
6.518e+09  -0.2277  0.8858  -0.02595  -0.008052  0.01718  -0.02622  0.001351  0.7434
6.519e+09  0.09265  0.9446  0.01839  -0.02692  0.02996  -0.002253  0.2436  0.7019
6.52e+09  0.3877  0.8408  0.0175  -0.004448  -0.01612  0.008601  0.4879  0.5397
6.521e+09  0.7081  0.6232  0.03492  0.00395  0.04172  0.02001  0.6552  0.3297
6.522e+09  0.8859  0.3371  0.02649  0.03155  -0.008626  -0.004676  0.6955  0.1046
6.524e+09  0.8951  0.02112  0.005559  0.02153  -0.03345  -0.02895  0.7289  -0.148
6.525e+09  0.8974  -0.2509  0.003657  -0.0094  -0.04887  -0.03206  0.6091  -0.3829
6.526e+09  0.7698  -0.6074  0.004114  -0.001326  0.04454  0.06712  0.3966  -0.5827
6.528e+09  0.4487  -0.7906  -0.009995  0.02217  -0.02198  0.002214  0.1894  -0.707
6.529e+09  0.175  -0.933  -0.04908  -0.006704  0.05898  0.03011  -0.02382  -0.6656
6.53e+09  -0.1415  -0.9208  0.0002015  0.005055  0.02994  -0.0146  -0.2831  -0.6406
6.531e+09  -0.495  -0.7774  0.01263  -0.01731  -0.008206  -0.01407  -0.4396  -0.4591
6.532e+09  -0.7202  -0.5832  0.009152  0.02028  -0.0825  0.0164  -0.5676  -0.3017
6.534e+09  -0.8652  -0.3262  0.006749  0.001874  -0.01707  0.0283  -0.633  -0.1039
6.535e+09  -0.9526  0.001783  -0.02612  -0.03847  -0.01318  0.02424  -0.6361  0.1075
6.536e+09  -0.895  0.3632  -0.0491  -0.02256  0.03142  -0.005824  -0.5483  0.2824
6.538e+09  -0.6596  0.617  -0.0334  0.02906  0.009752  -0.00367  -0.4351  0.452
6.539e+09  -0.467  0.8286  -0.004019  0.0005109  -0.02764  -0.0115  -0.2496  0.6056
6.54e+09  -0.1408  0.9622  -0.01742  -0.02525  0.004027  -0.00187  -0.0503  0.7008
6.541e+09  0.2771  0.8541  0.02199  0.01118  -0.009549  0.004125  0.1916  0.6433
6.542e+09  0.5528  0.7509  0.01319  0.01672  0.02643  -0.007384  0.4162  0.5435
6.544e+09  0.7456  0.5878  -0.01741  -0.005922  0.03144  0.01524  0.6165  0.4147
6.545e+09  0.9228  0.1923  -0.001953  0.0009265  -0.00318  -0.03009  0.7011  0.1876
6.546e+09  0.9489  -0.1074  -0.0006967  -0.02169  -0.03415  -0.0542  0.7478  -0.07006
6.548e+09  0.8712  -0.4391  -0.01437  -0.01068  -0.04849  0.03003  0.6931  -0.3197
6.549e+09  0.6222  -0.7224  0.004261  -0.0064  -0.01548  -0.0007668  0.4951  -0.5269
6.55e+09  0.3161  -0.8421  0.001007  0.01283  -0.03165  0.02096  0.3405  -0.6515
