# Hz S RI R 50
6.25e+09  -0.8223  -0.02889  0.01336  -0.01333  0.01453  -0.006141  0.1492  0.4816
6.251e+09  -0.7427  0.2683  -0.01443  0.01798  -0.05727  -0.01698  0.3611  0.4052
6.252e+09  -0.6442  0.5052  -0.03851  0.006323  -0.004986  0.02182  0.5256  0.1998
6.254e+09  -0.4587  0.6425  0.01834  0.005714  -0.01573  -0.02731  0.5994  0.03916
6.255e+09  -0.1499  0.8  0.0162  0.01404  0.05891  -0.07342  0.563  -0.2036
6.256e+09  0.1187  0.7603  0.003456  0.001109  -0.03811  -0.0218  0.4568  -0.4037
6.258e+09  0.3937  0.6972  0.009177  -0.009397  0.01245  -0.001266  0.2495  -0.5994
6.259e+09  0.6409  0.4948  -0.006204  -0.009674  -0.06767  0.05424  0.02056  -0.6662
6.26e+09  0.7858  0.311  -0.03067  0.02914  0.0506  0.03111  -0.2349  -0.612
6.261e+09  0.7545  0.01774  0.02412  0.01613  0.03749  -0.01826  -0.4535  -0.5532
6.262e+09  0.8067  -0.3176  0.01022  -0.006883  0.05832  0.0009857  -0.605  -0.3559
6.264e+09  0.6043  -0.4852  0.03106  0.01921  0.02556  -0.08105  -0.7047  -0.09714
6.265e+09  0.467  -0.7037  0.01747  0.02325  0.02584  0.007893  -0.6994  0.1463
6.266e+09  0.1764  -0.797  0.01396  -0.02245  0.0159  -0.04878  -0.6066  0.3873
6.268e+09  -0.1559  -0.785  0.007941  -0.04676  0.02803  -0.02334  -0.429  0.5803
6.269e+09  -0.4277  -0.7221  -0.01136  0.002323  0.01139  0.05096  -0.1873  0.705
6.27e+09  -0.6026  -0.5197  0.0007307  -0.00547  -0.002522  -0.05867  0.06569  0.7318
6.271e+09  -0.7693  -0.2685  -0.01637  0.004172  -0.0003835  -0.04808  0.3357  0.6794
6.272e+09  -0.8415  -0.005181  9.894e-05  0.02375  0.01791  -0.06578  0.5273  0.5153
6.274e+09  -0.7402  0.3617  0.01367  -0.03414  -0.04878  0.003035  0.6804  0.2863
6.275e+09  -0.6011  0.557  0.01277  0.005162  -0.04147  0.01514  0.7423  0.05277
6.276e+09  -0.3434  0.6654  0.009765  0.008552  0.02575  -0.0263  0.7611  -0.1944
6.278e+09  -0.1142  0.7645  0.0249  -0.002285  -0.0252  -0.03619  0.6403  -0.455
6.279e+09  0.184  0.7968  -0.000445  0.02707  -0.01677  -0.01406  0.4271  -0.6591
6.28e+09  0.4126  0.6721  -0.01167  0.00204  -0.06134  -0.01655  0.1689  -0.7706
6.281e+09  0.6463  0.4444  -0.01237  -0.0113  -0.03522  0.02607  -0.08937  -0.7811
6.282e+09  0.7446  0.3228  -0.02514  0.008748  0.047  0.01159  -0.3797  -0.6916
6.284e+09  0.7824  -0.02333  -0.02855  0.01597  0.03317  -0.001276  -0.5744  -0.4798
6.285e+09  0.7194  -0.3485  -0.03251  -0.006795  -0.045  -0.01911  -0.7316  -0.267
6.286e+09  0.5947  -0.5796  -0.01665  -0.004826  -0.01016  -0.06131  -0.7876  -0.03143
6.288e+09  0.3662  -0.6785  0.02192  0.03877  0.008903  -0.000152  -0.7442  0.2617
6.289e+09  0.1003  -0.8209  0.01147  -0.00584  0.03823  0.02168  -0.6214  0.5014
6.29e+09  -0.143  -0.7884  0.03993  0.004846  0.02939  0.03032  -0.4322  0.6748
6.291e+09  -0.4745  -0.6116  -0.0143  0.02206  0.002134  0.01609  -0.1684  0.7975
6.292e+09  -0.6666  -0.4738  0.00802  -0.002647  -0.003654  -0.01575  0.1127  0.7586
6.294e+09  -0.7707  -0.231  0.009091  -0.0206  0.01077  0.02115  0.3963  0.7228
6.295e+09  -0.8008  0.03835  -0.01631  -0.02452  -0.0118  0.01314  0.5847  0.5291
6.296e+09  -0.7264  0.3317  0.003589  -0.011  0.03802  -0.0405  0.7509  0.2971
6.298e+09  -0.5543  0.6169  -0.01904  -0.024  -0.004416  0.009582  0.8245  0.006571
6.299e+09  -0.3134  0.7972  -0.001085  0.004393  0.02032  -0.008783  0.7715  -0.2925
6.3e+09  -0.03668  0.7892  0.02615  0.01049  -0.03047  -0.02486  0.6602  -0.5506
6.301e+09  0.2448  0.7586  0.00295  -0.00746  0.03156  0.0002412  0.4265  -0.7086
6.302e+09  0.4982  0.6677  0.002407  0.0004172  -0.02795  0.03297  0.1626  -0.8145
6.304e+09  0.6965  0.4437  0.01395  0.006586  0.003758  -0.03541  -0.1489  -0.8259
6.305e+09  0.752  0.1695  0.04068  -0.02827  -0.01221  0.04598  -0.4119  -0.7554
6.306e+09  0.8041  -0.1041  0.0003946  -0.001175  0.01077  -0.03612  -0.6353  -0.5592
6.308e+09  0.7247  -0.3908  -0.02945  -0.01463  -0.01975  -0.01079  -0.814  -0.2981
6.309e+09  0.5268  -0.6112  0.0196  -0.023  -0.007258  -0.01364  -0.8523  -0.005416
6.31e+09  0.3042  -0.717  -0.0116  -0.01134  -0.0004289  -0.01792  -0.8189  0.2981
6.311e+09  0.02536  -0.842  0.01357  -0.01951  0.01123  0.0098  -0.6679  0.5812
6.312e+09  -0.2509  -0.8025  0.006829  -0.001391  0.02855  -0.03903  -0.4496  0.7454
6.314e+09  -0.5351  -0.6159  -0.01227  0.007847  -0.01542  -0.03075  -0.1706  0.8813
6.315e+09  -0.7069  -0.4299  0.01178  0.01903  -0.007935  0.001081  0.1586  0.8249
6.316e+09  -0.7941  -0.1645  0.0166  -0.01052  -0.0204  0.01284  0.4154  0.755
6.318e+09  -0.8452  0.109  -0.03115  -0.03076  0.0005964  0.01392  0.6646  0.5471
6.319e+09  -0.6685  0.4023  -0.007483  -0.02287  -0.002014  -0.01518  0.8081  0.3509
6.32e+09  -0.5505  0.6219  0.03414  -0.009918  -0.03806  0.008179  0.8734  -0.0003841
6.321e+09  -0.2534  0.763  -0.009442  -0.02936  0.02673  -0.04123  0.8361  -0.2842
6.322e+09  0.01107  0.8368  0.03391  -0.001773  0.0258  0.04255  0.6918  -0.5484
6.324e+09  0.3011  0.7336  0.008306  0.0003017  -0.01563  0.009403  0.4838  -0.7187
6.325e+09  0.5869  0.6386  0.005899  -0.0162  -0.02975  -0.00574  0.1922  -0.8842
6.326e+09  0.7361  0.4065  -0.01099  0.01023  -0.02934  0.01396  -0.137  -0.8902
6.328e+09  0.8078  0.1128  -0.01678  0.01098  0.007657  -0.03245  -0.4273  -0.8021
6.329e+09  0.799  -0.2016  -0.01034  0.04038  0.02058  -0.0195  -0.6632  -0.6001
6.33e+09  0.661  -0.4216  0.006199  0.005981  0.007949  -0.002007  -0.8352  -0.3364
6.331e+09  0.5019  -0.6755  -0.007983  -0.01574  -0.01562  0.01647  -0.9091  -0.03804
6.332e+09  0.2445  -0.776  -0.02415  -0.009186  0.002052  -0.02491  -0.8691  0.2776
6.334e+09  -0.1154  -0.8378  0.02683  -0.004411  0.001108  -0.02122  -0.7118  0.5398
6.335e+09  -0.3187  -0.7408  0.02533  -0.0302  0.05106  0.007044  -0.4879  0.7442
6.336e+09  -0.6503  -0.5535  0.01645  -0.01124  0.01298  -0.0002563  -0.2066  0.919
6.338e+09  -0.713  -0.3497  0.03267  0.002105  -0.002932  -0.01797  0.1074  0.9261
6.339e+09  -0.8217  -0.02746  0.01932  0.02412  -0.04513  -0.01781  0.4203  0.8013
6.34e+09  -0.7792  0.2409  0.01889  -0.01715  -0.002234  0.01704  0.6577  0.6171
6.341e+09  -0.6418  0.5176  -0.01489  0.003504  -0.02083  0.03178  0.8502  0.3604
6.342e+09  -0.4171  0.692  -0.001318  0.02391  -0.02102  -0.03241  0.9395  0.04203
6.344e+09  -0.1622  0.8397  0.01787  0.01888  -0.0434  -0.003634  0.8659  -0.2559
6.345e+09  0.1445  0.799  0.007947  -0.01528  0.02042  0.02743  0.7441  -0.55
6.346e+09  0.3946  0.7161  -0.0218  -0.02824  -0.03441  -0.001172  0.4735  -0.7617
6.348e+09  0.6339  0.5555  0.01368  -0.000522  0.04138  -0.04597  0.1971  -0.9128
6.349e+09  0.8169  0.2749  -0.02539  -0.03047  -0.002992  -0.01885  -0.09999  -0.9389
6.35e+09  0.8657  -0.001046  0.03896  0.01134  0.03359  -0.0348  -0.3775  -0.838
6.351e+09  0.7928  -0.2863  -0.02287  -0.01265  0.01548  0.02394  -0.6799  -0.6228
6.352e+09  0.6234  -0.5673  0.008823  0.01157  0.06208  -0.005445  -0.8417  -0.3706
6.354e+09  0.3468  -0.7683  0.005477  0.008774  -0.009267  -0.004353  -0.9294  -0.08368
6.355e+09  0.0687  -0.8476  -0.01334  0.02625  -0.0242  0.0265  -0.8983  0.2696
6.356e+09  -0.2141  -0.8133  -0.01644  -0.03974  -0.02425  0.02213  -0.7508  0.5148
6.358e+09  -0.4593  -0.7141  0.03541  -0.01616  -0.001068  -0.03213  -0.5198  0.8035
6.359e+09  -0.6997  -0.455  -0.01672  0.01353  0.02834  -0.0596  -0.2072  0.9292
6.36e+09  -0.7949  -0.2277  0.00518  0.01491  0.004747  -0.003509  0.1326  0.9565
6.361e+09  -0.8297  0.09427  -0.01234  0.05012  0.02321  0.02341  0.4348  0.88
6.362e+09  -0.7578  0.361  0.004264  -0.02944  0.0119  -0.007445  0.6641  0.6463
6.364e+09  -0.6194  0.603  -0.03567  -0.02431  -0.0261  -0.01543  0.8748  0.4075
6.365e+09  -0.2829  0.752  -0.02313  -0.02413  0.02669  0.01045  0.9363  0.07426
6.366e+09  -0.01973  0.8247  0.008687  0.02647  -0.01334  -0.0156  0.9161  -0.2447
6.368e+09  0.2736  0.7556  -0.03738  -0.04139  0.0305  0.004338  0.7738  -0.5011
6.369e+09  0.5944  0.6975  -0.02918  -0.01433  -0.0385  0.008057  0.5644  -0.7551
6.37e+09  0.7402  0.452  -0.03152  -0.01481  0.02259  0.02515  0.2316  -0.9445
6.371e+09  0.8241  0.1336  0.015  -0.04663  -0.06593  0.02086  -0.07408  -0.9437
6.372e+09  0.8234  -0.1817  0.02531  -0.007359  0.03633  -0.01619  -0.3789  -0.8266
6.374e+09  0.7116  -0.4598  0.04166  -0.01252  -0.04163  0.02237  -0.6473  -0.6922
6.375e+09  0.5059  -0.7032  -0.01055  0.02867  0.0115  0.02518  -0.8439  -0.436
6.376e+09  0.2698  -0.8675  0.01309  0.03773  0.02145  0.01321  -0.932  -0.124
6.378e+09  -0.07098  -0.8739  0.02417  0.005946  -0.02374  0.02237  -0.9024  0.2089
6.379e+09  -0.3629  -0.7657  0.04612  0.0229  -0.009486  0.02516  -0.79  0.5318
6.38e+09  -0.6262  -0.5985  -0.002186  0.01048  0.03762  0.04565  -0.5573  0.7493
6.381e+09  -0.7475  -0.3367  0.02492  0.01782  0.01176  -0.05869  -0.2834  0.9036
6.382e+09  -0.8167  -0.05347  0.005558  -0.0004719  -0.006652  0.02114  0.07843  0.9492
6.384e+09  -0.7786  0.2771  -0.05625  -0.01057  -0.01366  0.04425  0.355  0.8305
6.385e+09  -0.6696  0.5508  -0.01372  -0.0002555  0.006788  -0.02704  0.6095  0.6877
6.386e+09  -0.4474  0.6849  -0.04255  -0.02538  0.01055  0.01039  0.8555  0.4419
6.388e+09  -0.1308  0.8147  0.02161  -0.003759  0.001391  -0.0784  0.9592  0.1765
6.389e+09  0.143  0.8147  0.005486  0.006918  0.02456  -0.003107  0.9072  -0.2562
6.39e+09  0.442  0.7869  -0.01085  0.0133  0.00736  -0.01497  0.7835  -0.5014
6.391e+09  0.6375  0.5712  -0.003663  0.03171  0.01429  -0.03052  0.5286  -0.7496
6.392e+09  0.7937  0.316  0.03233  0.01894  -0.01257  -0.005284  0.242  -0.8753
6.394e+09  0.8158  -0.02908  -0.003684  0.01942  -0.007531  -0.007417  -0.04933  -0.9111
6.395e+09  0.7958  -0.3003  -0.02163  0.02835  -0.01563  -0.003615  -0.3553  -0.8275
6.396e+09  0.6527  -0.5345  0.01407  -0.01551  0.01246  0.03621  -0.6203  -0.6748
6.398e+09  0.4102  -0.7371  0.03691  0.05869  0.01874  -0.007371  -0.7802  -0.4127
6.399e+09  0.07269  -0.8958  -0.01571  -0.0549  0.03815  0.01481  -0.894  -0.1621
6.4e+09  -0.2419  -0.8653  -0.005195  0.03709  0.01782  -0.04275  -0.9366  0.1698
6.401e+09  -0.4631  -0.7391  -0.001817  -0.01454  0.04493  0.01261  -0.7779  0.466
6.402e+09  -0.7225  -0.503  0.01514  0.01574  -0.007128  -0.05644  -0.5764  0.6577
6.404e+09  -0.823  -0.237  0.01698  0.01468  -0.04754  -0.01888  -0.3323  0.8586
6.405e+09  -0.849  0.06945  -0.0139  -0.004392  0.05215  -0.01672  -0.003779  0.8833
6.406e+09  -0.7949  0.3791  0.01189  0.01377  -0.002607  0.02585  0.311  0.8505
6.408e+09  -0.592  0.5942  0.01807  0.006683  -0.01941  0.01912  0.5501  0.6919
6.409e+09  -0.3585  0.7894  -0.008685  -0.01854  0.02041  -0.005313  0.7855  0.4454
6.41e+09  -0.05623  0.859  -0.02963  -0.0004404  0.006631  -0.03163  0.8923  0.1365
6.411e+09  0.2261  0.8321  -0.03049  -0.003794  -0.05762  -0.01973  0.9355  -0.1636
6.412e+09  0.5534  0.6882  0.01871  -0.03193  0.01705  -0.04648  0.7922  -0.4145
6.414e+09  0.7126  0.4729  0.03405  -0.005136  -0.02733  -0.00679  0.5945  -0.7163
6.415e+09  0.8431  0.2106  -0.02081  -0.02332  -0.01447  -0.02656  0.3055  -0.848
6.416e+09  0.8178  -0.1163  -0.007673  -0.01316  -0.008039  0.0007429  0.05028  -0.8834
6.418e+09  0.7187  -0.3916  0.06498  -0.01763  -0.02034  -0.02282  -0.2586  -0.8516
6.419e+09  0.5472  -0.6294  -0.003574  0.01951  0.0002848  -0.02061  -0.5869  -0.7129
6.42e+09  0.3102  -0.7939  -0.04658  0.007189  0.03421  -0.0394  -0.7673  -0.4626
6.421e+09  -0.01935  -0.8035  -0.01053  -0.04065  0.002053  -0.03632  -0.8971  -0.1768
6.422e+09  -0.3005  -0.787  -0.007174  0.01682  0.003466  -0.03338  -0.8857  0.09835
6.424e+09  -0.5286  -0.6408  -0.006796  0.02338  -0.008157  -0.02891  -0.8181  0.4201
6.425e+09  -0.7611  -0.3844  0.01507  0.02789  -0.04675  0.02991  -0.6168  0.6482
6.426e+09  -0.8608  -0.1601  -0.04912  -0.003039  0.00526  0.008941  -0.3281  0.7841
6.428e+09  -0.8171  0.1725  -0.02193  0.008645  -0.0444  -0.03052  -0.08033  0.8416
6.429e+09  -0.7079  0.4508  0.008978  -0.01701  -0.03325  -0.001119  0.2555  0.8246
6.43e+09  -0.5202  0.6539  -0.04013  0.01255  -0.02693  -0.01292  0.4758  0.6895
6.431e+09  -0.2562  0.8106  0.008787  -0.03245  0.06092  -0.01922  0.6825  0.4943
6.432e+09  0.08802  0.8761  0.03995  -0.0005039  0.04264  0.004746  0.8776  0.2201
6.434e+09  0.3601  0.7809  0.005009  -0.008304  -0.02395  -0.00428  0.8702  -0.08185
6.435e+09  0.5745  0.6538  0.02186  -0.02269  0.04477  -0.021  0.8024  -0.4017
6.436e+09  0.7933  0.3452  0.004692  -0.03568  0.03898  0.0128  0.5893  -0.5908
6.438e+09  0.8503  0.03797  -0.001036  0.01818  -0.006648  0.02657  0.3579  -0.7836
6.439e+09  0.7845  -0.2407  -0.01915  0.06566  0.01364  -0.02779  0.1271  -0.8768
6.44e+09  0.6426  -0.4649  -0.02003  -0.01397  0.01983  -0.02271  -0.1848  -0.7789
6.441e+09  0.4226  -0.6258  -0.05182  0.0122  -0.04386  -0.002419  -0.5132  -0.699
6.442e+09  0.239  -0.8082  -0.02393  -0.05606  0.01675  0.01482  -0.7086  -0.4753
6.444e+09  -0.08651  -0.8574  0.03469  0.008738  -0.0476  -0.00359  -0.8174  -0.1969
6.445e+09  -0.3462  -0.7723  0.02395  0.002015  0.04301  -0.04725  -0.8688  0.08291
6.446e+09  -0.5825  -0.5589  0.02269  -0.01311  0.01682  -0.01368  -0.7087  0.4024
6.448e+09  -0.8004  -0.3458  0.001343  -0.01671  0.008792  0.0181  -0.5522  0.6202
6.449e+09  -0.8825  -0.06802  -0.03238  -0.02367  -0.04909  -0.0224  -0.332  0.7568
6.45e+09  -0.7713  0.2967  0.04509  -0.003792  -0.03689  -0.02488  -0.06479  0.8519
6.451e+09  -0.6755  0.535  0.01105  0.006122  -0.003735  0.03274  0.1957  0.8322
6.452e+09  -0.497  0.7155  -0.005788  0.03596  -0.002103  0.03974  0.5013  0.6837
6.454e+09  -0.2193  0.8098  -0.02643  0.02066  0.02723  0.01103  0.7226  0.479
6.455e+09  0.08234  0.8218  -0.0136  -0.02564  -0.007033  -0.0226  0.816  0.2029
6.456e+09  0.3966  0.7469  0.004336  0.01388  0.02692  0.02667  0.7809  -0.0603
6.458e+09  0.6326  0.5519  0.02302  0.01224  -0.009751  -0.04684  0.7231  -0.3655
6.459e+09  0.7766  0.3437  0.03182  -0.05182  0.01642  -0.02035  0.577  -0.5407
6.46e+09  0.8404  0.06099  0.0062  -0.06092  0.01665  -0.01721  0.3327  -0.7553
6.461e+09  0.7301  -0.279  -0.0004803  0.05553  -0.01117  -0.01532  0.08765  -0.8202
6.462e+09  0.611  -0.5126  -0.01862  0.005991  0.002205  0.006172  -0.2097  -0.7711
6.464e+09  0.4563  -0.6819  -0.02158  -0.0221  0.009793  -0.02407  -0.4562  -0.6279
6.465e+09  0.1603  -0.8092  0.01898  -0.001022  0.008844  0.001634  -0.6688  -0.4808
6.466e+09  -0.09581  -0.7757  -0.0222  -0.0135  0.01449  -0.03621  -0.767  -0.1945
6.468e+09  -0.3491  -0.7313  -0.03945  -0.02502  -0.005145  0.01653  -0.764  0.1047
6.469e+09  -0.6518  -0.5494  -0.007722  -0.02089  0.03168  -0.03223  -0.747  0.3118
6.47e+09  -0.8057  -0.3154  -0.007412  -0.01673  0.007753  0.01991  -0.5834  0.5214
6.471e+09  -0.8709  -0.06791  -0.001732  -0.003383  -0.06146  0.00782  -0.3211  0.7078
6.472e+09  -0.7582  0.2841  -0.06056  0.001972  0.02508  0.005903  -0.05132  0.789
6.474e+09  -0.6522  0.5342  0.002005  -0.0201  0.03537  0.06536  0.2408  0.694
6.475e+09  -0.4745  0.7157  -0.006597  0.0213  -0.03088  -0.06718  0.4505  0.6407
6.476e+09  -0.1577  0.8048  0.01767  -0.05762  0.04744  -0.04185  0.5798  0.4474
6.478e+09  0.1275  0.8321  -0.01335  -0.0003964  0.002027  0.0005186  0.768  0.2203
6.479e+09  0.4038  0.7437  0.02311  0.01971  0.02462  0.04773  0.7546  -0.05713
6.48e+09  0.6068  0.5109  -0.0123  -0.0285  -0.001822  -0.01222  0.6734  -0.3314
6.481e+09  0.7916  0.2984  -0.02119  -0.04603  0.01785  0.02617  0.5443  -0.5533
6.482e+09  0.8602  -0.0002578  -0.03067  -0.02478  -0.007194  -0.02213  0.3081  -0.6786
6.484e+09  0.8089  -0.2632  -0.0007965  0.001329  -0.02159  0.01493  0.04514  -0.7447
6.485e+09  0.6619  -0.5665  0.01972  0.007049  0.004939  0.02591  -0.1533  -0.7415
6.486e+09  0.4072  -0.7059  0.03606  -0.01569  -0.003653  0.01068  -0.4144  -0.6098
6.488e+09  0.8578  -0.9353  0.02881  0.02248  0.4443  0.5849  -0.6414  -0.4293
6.489e+09  -0.1504  -0.8317  0.01047  -0.02051  -0.02934  -0.04049  -0.7452  -0.1856
6.49e+09  -0.4171  -0.7692  -0.02125  0.002598  0.03795  -0.02687  -0.754  0.06844
6.491e+09  -0.6757  -0.5593  -0.0159  -0.001128  -0.02681  -0.005117  -0.7076  0.3364
6.492e+09  -0.7933  -0.2771  0.02175  -0.02243  -0.03383  0.03235  -0.5087  0.6168
6.494e+09  -0.9555  -0.0295  0.04937  0.05845  0.05388  0.1187  -0.3426  0.6962
6.495e+09  -0.772  0.3159  0.01646  -0.007239  -0.04178  0.004845  -0.05195  0.7668
6.496e+09  -0.627  0.5988  0.03049  0.00904  0.02608  0.009721  0.2158  0.7337
6.498e+09  -0.383  0.6731  0.01216  -0.008928  -0.0008627  -0.01017  0.4723  0.6348
6.499e+09  -0.1268  0.8482  0.009882  0.004859  0.03317  -0.03382  0.6613  0.405
6.5e+09  0.1335  0.9788  -0.002185  -0.01854  -0.009544  0.0517  0.7188  0.1732
6.501e+09  0.4632  0.7208  0.006977  0.009849  0.02402  -0.02365  0.7364  -0.1031
6.502e+09  0.7036  0.5568  0.01067  0.011  -0.00137  -0.04666  0.6472  -0.3454
6.504e+09  0.8187  0.2482  -0.01076  0.01672  -0.003327  -0.001254  0.5012  -0.5539
6.505e+09  0.8336  0.01069  0.003287  0.01042  -0.02689  0.01847  0.2924  -0.7254
6.506e+09  0.8062  -0.3206  -0.000356  -0.023  -0.008817  -0.001037  0.03421  -0.7548
6.508e+09  0.6199  -0.6167  -0.002139  -0.03376  0.006958  -0.006819  -0.2302  -0.7173
6.509e+09  0.3773  -0.7761  -0.007002  0.03275  0.04323  -0.03519  -0.4505  -0.5808
6.51e+09  0.1463  -0.8543  -0.02225  0.04859  0.02314  0.04343  -0.6355  -0.3651
6.511e+09  -0.2713  -0.8804  -0.002175  -0.01579  0.01019  0.08272  -0.7153  -0.1428
6.512e+09  -0.4808  -0.6864  0.03188  0.03225  -0.02425  9.79e-05  -0.719  0.1197
6.514e+09  -0.6489  -0.5575  0.002244  0.004466  -0.003504  0.001042  -0.6872  0.3883
6.515e+09  -0.8705  -0.2616  -0.01442  0.06337  0.0338  0.01235  -0.4705  0.5932
6.516e+09  -0.8499  0.04364  -0.03783  0.01689  0.01034  -0.04259  -0.2502  0.6793
6.518e+09  -0.8329  0.3813  -0.002764  -0.01724  -0.01196  -0.006719  0.02959  0.7409
6.519e+09  -0.62  0.6124  -0.02908  -0.03751  0.03838  -0.008929  0.254  0.6877
6.52e+09  -0.4295  0.8063  0.04083  0.003178  -0.02727  -0.002239  0.4967  0.5446
6.521e+09  -0.06047  0.8782  -0.006716  -0.02348  0.0009599  -0.02735  0.6518  0.3272
6.522e+09  0.2078  0.8599  -0.03407  -0.02693  0.02563  0.005565  0.7164  0.08067
6.524e+09  0.4895  0.7744  0.01925  0.02072  0.03194  -0.005272  0.7359  -0.1464
6.525e+09  0.6638  0.5043  -0.0236  0.03255  -0.03885  0.01805  0.6286  -0.3883
6.526e+09  0.9093  0.2614  -0.00404  -0.003546  -0.0209  0.05746  0.4299  -0.57
6.528e+09  0.9066  -0.1086  0.004982  0.006657  0.0586  0.02774  0.189  -0.6703
6.529e+09  0.7955  -0.3688  -0.04204  0.004135  -0.02182  0.007435  -0.05707  -0.716
6.53e+09  0.6405  -0.667  -0.0006906  -0.03785  0.02854  -0.02313  -0.2676  -0.6525
6.531e+09  0.3562  -0.8734  -0.01464  -0.01301  0.002316  0.02396  -0.4256  -0.5056
6.532e+09  0.04525  -0.9543  0.001278  0.02757  -0.004376  0.001565  -0.5691  -0.3024
6.534e+09  -0.2644  -0.844  -0.005339  0.01298  -0.006299  -0.003291  -0.6243  -0.09341
6.535e+09  -0.6289  -0.7351  -0.002377  -0.02263  -0.02368  -0.05433  -0.6173  0.107
6.536e+09  -0.8115  -0.5029  -0.003941  0.004723  -0.01557  -0.0466  -0.5768  0.262
6.538e+09  -0.9143  -0.2151  0.006649  0.04102  -0.02952  -0.005131  -0.4663  0.4803
6.539e+09  -0.8953  0.1339  -0.004736  0.008757  0.0001359  -0.01806  -0.2587  0.624
6.54e+09  -0.8164  0.4519  -0.01172  0.03192  0.02108  0.03634  -0.07635  0.6679
6.541e+09  -0.5977  0.722  -0.02133  0.001974  0.01125  0.01412  0.1605  0.6521
6.542e+09  -0.32  0.8841  -0.01221  -0.006076  0.002392  0.02946  0.3945  0.5762
6.544e+09  -0.006738  0.93  0.01725  -0.01398  -0.0162  0.04733  0.5873  0.3976
6.545e+09  0.3301  0.8427  -0.002613  0.02364  -0.007828  -0.03273  0.6754  0.1428
6.546e+09  0.6365  0.6956  -0.02162  -0.008571  0.01844  -0.002112  0.7199  -0.06361
6.548e+09  0.7751  0.415  0.04616  0.004426  -0.05764  0.03378  0.6485  -0.3067
6.549e+09  0.9462  0.1391  -0.005267  0.02816  0.02789  -0.04854  0.4939  -0.5155
6.55e+09  0.9205  -0.1929  -0.004285  0.01211  0.01621  0.02367  0.2773  -0.6834
