# Hz S RI R 50
6.25e+09  -0.3453  0.7383  0.0202  -0.001313  -0.01791  -0.0003789  0.1569  0.4619
6.251e+09  -0.03569  0.8222  -0.01245  -0.02744  -0.01672  -0.03975  0.3542  0.3936
6.252e+09  0.2581  0.8093  -0.03356  -0.0008762  -0.02203  -0.04786  0.5327  0.2432
6.254e+09  0.5085  0.6499  0.0196  -0.0258  0.03319  0.05733  0.6255  -0.01184
6.255e+09  0.7253  0.4902  -0.0009484  -0.02277  -0.01536  -0.01075  0.5719  -0.193
6.256e+09  0.8466  0.1499  0.008086  0.02684  -0.001993  0.01031  0.455  -0.4379
6.258e+09  0.8146  -0.1143  -0.007609  -0.009728  0.001954  0.01108  0.3078  -0.5782
6.259e+09  0.6917  -0.4154  -0.003146  0.003474  0.02223  0.01697  0.02003  -0.6944
6.26e+09  0.5312  -0.5713  -0.004629  0.006169  0.01676  0.03268  -0.1853  -0.6588
6.261e+09  0.3886  -0.769  -0.02794  0.005125  0.009639  0.06244  -0.4559  -0.518
6.262e+09  0.05978  -0.7858  -0.0006634  -0.004599  0.01127  -0.002343  -0.6314  -0.359
6.264e+09  -0.2502  -0.7342  -0.005866  -0.001303  0.04709  -0.04115  -0.7019  -0.1326
6.265e+09  -0.4858  -0.6096  -0.02199  -0.01215  0.04379  0.05155  -0.6924  0.1559
6.266e+09  -0.675  -0.4589  -0.01038  0.01146  0.02377  0.009026  -0.5988  0.3949
6.268e+09  -0.7684  -0.1552  0.002076  -0.02124  -0.007755  -8.796e-05  -0.4382  0.5848
6.269e+09  -0.8534  0.09682  0.002325  0.007426  0.005846  0.04903  -0.2249  0.7029
6.27e+09  -0.6833  0.3727  0.02363  0.0001344  -0.01118  0.01557  0.02723  0.736
6.271e+09  -0.5537  0.606  -0.005378  -0.0007195  0.02152  -0.05574  0.3204  0.6508
6.272e+09  -0.4007  0.6988  0.02096  -0.00521  0.0008205  -0.05743  0.5396  0.5172
6.274e+09  -0.0371  0.8125  -0.02523  -0.009753  -0.000183  0.001881  0.6751  0.3197
6.275e+09  0.2189  0.7058  -0.03707  -0.00896  -0.05486  -0.01322  0.7411  0.04848
6.276e+09  0.4918  0.5888  0.003388  -0.02784  -0.01134  -0.02209  0.7387  -0.2318
6.278e+09  0.6628  0.4009  -0.01525  0.02362  0.07697  -0.01187  0.594  -0.4624
6.279e+09  0.7882  0.142  0.02633  -0.0205  -0.03253  0.03549  0.3861  -0.673
6.28e+09  0.779  -0.09754  0.003918  0.02175  0.01449  -0.05472  0.1994  -0.7442
6.281e+09  0.7155  -0.3676  0.01854  0.01849  0.01099  0.03624  -0.1108  -0.7624
6.282e+09  0.5315  -0.6083  -0.0005519  -0.007668  -0.02345  -0.004176  -0.3489  -0.6962
6.284e+09  0.3027  -0.7307  -0.02045  -0.01591  0.008584  -0.02191  -0.5853  -0.4964
6.285e+09  0.01747  -0.8081  -0.01666  -0.01443  0.04461  0.02303  -0.7285  -0.3118
6.286e+09  -0.2728  -0.7542  0.01369  -0.00919  -0.02182  -0.02977  -0.8146  -0.01458
6.288e+09  -0.5788  -0.6202  -0.0073  -0.004438  0.03623  0.03131  -0.7383  0.249
6.289e+09  -0.678  -0.3911  -0.009628  -0.02852  -0.001168  -0.003091  -0.6127  0.513
6.29e+09  -0.7744  -0.17  0.01651  -0.0007948  -0.01692  -0.009023  -0.3987  0.6809
6.291e+09  -0.7688  0.1602  -0.02544  0.01257  -0.02144  0.0253  -0.1489  0.7701
6.292e+09  -0.7005  0.437  0.01156  0.01174  0.000529  -0.01235  0.1515  0.8099
6.294e+09  -0.5447  0.5667  -0.02968  -0.007037  0.02169  0.00499  0.4077  0.7222
6.295e+09  -0.2973  0.7545  -0.00243  -0.005983  0.01651  -0.05827  0.6037  0.5255
6.296e+09  0.04626  0.8129  -0.000376  0.006382  0.005918  0.02734  0.726  0.2918
6.298e+09  0.304  0.7358  -0.01705  0.0063  0.006758  0.009761  0.8417  -0.01385
6.299e+09  0.5368  0.623  0.02677  0.01108  -0.05648  0.02638  0.7886  -0.2652
6.3e+09  0.7313  0.4385  0.03137  -0.03663  0.04079  0.02961  0.6385  -0.5096
6.301e+09  0.851  0.1364  0.01087  -0.008898  -0.009515  0.009287  0.4443  -0.7165
6.302e+09  0.7755  -0.2171  -0.02064  -0.02097  -0.05525  -0.009966  0.1578  -0.832
6.304e+09  0.687  -0.3992  0.01117  -0.02263  0.008117  0.05443  -0.09972  -0.8578
6.305e+09  0.4761  -0.598  0.007848  0.01106  0.07268  0.0208  -0.4015  -0.7408
6.306e+09  0.1915  -0.8089  -0.01705  -0.01484  -0.03372  0.01451  -0.645  -0.5599
6.308e+09  -0.03336  -0.8485  0.01182  -0.02455  0.03042  0.01415  -0.8079  -0.3031
6.309e+09  -0.3297  -0.7332  -0.001191  0.01118  -0.003187  -0.01906  -0.8801  -0.001247
6.31e+09  -0.5328  -0.581  -0.02432  0.002028  0.0414  -0.02821  -0.8384  0.2673
6.311e+09  -0.7059  -0.3371  -0.002067  0.003416  -0.06209  0.01318  -0.6558  0.54
6.312e+09  -0.8097  -0.09298  -0.007432  -0.01534  -0.02491  0.02231  -0.4359  0.7848
6.314e+09  -0.7778  0.2518  0.01979  -0.02883  -0.03077  0.02133  -0.1474  0.8724
6.315e+09  -0.6536  0.4371  0.01609  -0.008711  -0.0473  0.002584  0.1557  0.8512
6.316e+09  -0.4498  0.6559  -0.003137  -0.0231  -0.02908  0.04005  0.4171  0.7517
6.318e+09  -0.1854  0.8361  0.03339  0.02068  0.01542  0.03848  0.6586  0.5804
6.319e+09  0.09405  0.809  0.0006243  -0.02562  -0.01014  -0.002542  0.8242  0.3153
6.32e+09  0.3253  0.7207  0.01317  -0.002886  -0.001993  0.02308  0.863  0.0006728
6.321e+09  0.5674  0.5742  -0.001218  0.005813  -0.03735  -0.01668  0.8616  -0.2788
6.322e+09  0.749  0.3092  -0.003025  -0.03174  -0.01343  -0.006645  0.6622  -0.5108
6.324e+09  0.8341  0.05764  -0.01617  -0.01217  -0.02368  -0.03585  0.4749  -0.7376
6.325e+09  0.7521  -0.2152  0.002305  -0.004606  -0.05386  -0.01202  0.1691  -0.8933
6.326e+09  0.6179  -0.5027  0.01891  0.007957  -0.02695  0.01127  -0.1522  -0.8669
6.328e+09  0.4239  -0.7125  -0.02107  -0.01642  -0.01714  -0.005857  -0.4498  -0.7925
6.329e+09  0.1245  -0.7291  -0.008197  0.03255  -0.03041  0.0218  -0.6892  -0.6109
6.33e+09  -0.1582  -0.826  0.01165  0.02093  0.01238  -0.007412  -0.8269  -0.3255
6.331e+09  -0.4189  -0.7349  0.008752  0.006912  -0.001283  -0.0292  -0.9225  -0.04072
6.332e+09  -0.6247  -0.5464  0.007378  -0.05519  -0.001573  0.002794  -0.8833  0.2706
6.334e+09  -0.8063  -0.2792  -0.002563  -0.02417  -0.02483  -0.01096  -0.6951  0.5693
6.335e+09  -0.8472  0.02899  0.008833  0.01987  0.01589  -0.007525  -0.4579  0.7848
6.336e+09  -0.7712  0.3067  -0.008251  0.001425  0.001755  0.02182  -0.2167  0.9022
6.338e+09  -0.658  0.5762  0.01763  0.002779  0.0398  0.03116  0.1621  0.8767
6.339e+09  -0.4396  0.7694  -0.00862  -0.007089  0.000967  -0.02528  0.4104  0.8299
6.34e+09  -0.126  0.7575  0.02618  -0.006554  0.001168  0.04393  0.6785  0.6204
6.341e+09  0.168  0.8216  0.03217  -0.04033  0.001756  0.01131  0.8588  0.3454
6.342e+09  0.4608  0.7021  0.01483  0.001067  -0.01486  -0.03808  0.9107  0.06153
6.344e+09  0.6863  0.5089  -0.01201  -0.006716  0.01659  -0.007094  0.8871  -0.2502
6.345e+09  0.8444  0.2675  0.02741  0.05592  0.07043  0.01881  0.7213  -0.5434
6.346e+09  0.8171  -0.04326  0.01311  -0.0006507  -0.01105  -0.007714  0.4785  -0.7533
6.348e+09  0.7645  -0.3699  0.0119  -0.03268  -0.009882  0.02996  0.2463  -0.8933
6.349e+09  0.6206  -0.5957  -0.001293  0.01765  0.05992  0.01071  -0.1039  -0.9315
6.35e+09  0.3357  -0.7858  -0.02139  0.005651  -0.005498  -0.04933  -0.4055  -0.8273
6.351e+09  0.06201  -0.8753  -0.02494  0.02751  0.0324  -0.03076  -0.6634  -0.6409
6.352e+09  -0.2991  -0.8347  0.02582  0.02406  0.007684  0.01268  -0.8682  -0.3656
6.354e+09  -0.5482  -0.7055  0.01607  -0.01836  -0.0209  -0.01147  -0.9131  -0.05541
6.355e+09  -0.6965  -0.458  -0.02908  -0.0005248  -0.02823  -0.01782  -0.9067  0.2205
6.356e+09  -0.8205  -0.1735  -0.01384  0.02789  0.02485  -0.02055  -0.7567  0.5789
6.358e+09  -0.865  0.1369  -0.005613  -0.02976  -0.05652  0.01154  -0.5051  0.7998
6.359e+09  -0.7718  0.3923  -0.01697  -0.0153  0.003895  0.01119  -0.2105  0.8925
6.36e+09  -0.5869  0.6135  -0.003959  0.007377  0.0629  0.01442  0.09774  0.925
6.361e+09  -0.2766  0.7997  -0.03254  0.02927  -0.01944  0.01459  0.3763  0.8262
6.362e+09  -0.009148  0.828  -0.02153  -0.02335  0.01875  0.002733  0.6438  0.6394
6.364e+09  0.3078  0.8326  -0.01153  0.002073  0.01752  -0.06507  0.8558  0.4119
6.365e+09  0.5657  0.6329  0.02008  -0.01814  0.03371  -0.01898  0.9013  0.07305
6.366e+09  0.7956  0.456  -0.0588  -0.01976  -0.0544  0.0226  0.9133  -0.2304
6.368e+09  0.8767  0.1356  0.005365  0.004751  -0.008659  -0.03521  0.7631  -0.5038
6.369e+09  0.8643  -0.2124  -0.04556  0.02402  -0.0136  0.02246  0.5654  -0.7709
6.37e+09  0.7291  -0.49  0.01832  0.01202  0.01114  0.003891  0.2518  -0.8356
6.371e+09  0.5448  -0.716  -0.0104  0.04369  0.0151  -0.05514  -0.05278  -0.9269
6.372e+09  0.3063  -0.8422  0.01486  0.01744  -0.004893  -0.001053  -0.3962  -0.8449
6.374e+09  -0.03872  -0.8945  -0.009154  0.006172  0.01346  -0.0294  -0.6989  -0.6644
6.375e+09  -0.3289  -0.7715  -0.02795  0.008085  0.01744  -0.0009456  -0.8339  -0.4298
6.376e+09  -0.5847  -0.6611  0.01652  -0.01325  -0.006466  0.05467  -0.9212  -0.09038
6.378e+09  -0.7666  -0.3955  -0.03586  -0.002337  0.007282  0.006248  -0.9158  0.2292
6.379e+09  -0.8329  -0.08855  0.01963  -0.007179  0.008264  0.02385  -0.8293  0.5147
6.38e+09  -0.8604  0.2405  0.01284  -0.01546  0.01845  -0.003748  -0.5486  0.763
6.381e+09  -0.6866  0.4036  -0.01817  0.009394  -0.03949  0.009951  -0.2604  0.9115
6.382e+09  -0.4586  0.706  0.00722  -0.02081  0.011  -0.02094  0.03479  0.9253
6.384e+09  -0.2214  0.8116  0.02285  0.004158  0.04029  -0.01765  0.392  0.8838
6.385e+09  0.1025  0.858  -0.01715  -0.002389  -0.01116  -0.00713  0.6651  0.6291
6.386e+09  0.4404  0.7984  -0.01521  0.02827  0.02165  -0.0009956  0.8185  0.4224
6.388e+09  0.5917  0.6061  -0.04615  0.002221  -0.01557  -0.01442  0.8925  0.1422
6.389e+09  0.7653  0.3621  0.01172  0.006763  0.03343  0.01858  0.9064  -0.1771
6.39e+09  0.8296  0.03088  -0.006272  0.02491  -0.01748  0.00647  0.7791  -0.5272
6.391e+09  0.8469  -0.2168  -0.02274  -0.03684  -0.006455  -0.03324  0.5455  -0.7615
6.392e+09  0.6571  -0.5666  -0.001283  0.04014  -0.00558  -0.05465  0.3144  -0.8891
6.394e+09  0.4419  -0.6985  0.004975  -0.01628  -0.02382  -0.01008  -0.005842  -0.9547
6.395e+09  0.1851  -0.8281  -0.01738  -0.02599  0.003448  -0.01566  -0.306  -0.8494
6.396e+09  -0.132  -0.8313  -0.009746  -0.02688  -0.03609  -0.01467  -0.6297  -0.657
6.398e+09  -0.3874  -0.7843  -0.01216  0.005389  0.03617  -0.02649  -0.8035  -0.4319
6.399e+09  -0.6648  -0.5983  -0.01654  -0.01246  0.07215  -0.01745  -0.8797  -0.111
6.4e+09  -0.8095  -0.3402  -0.01217  -0.03479  0.02367  -0.0283  -0.8725  0.1878
6.401e+09  -0.8283  -0.03079  0.0307  -0.008723  -0.007691  0.05471  -0.7931  0.4342
6.402e+09  -0.7742  0.2196  -0.03749  -0.02351  -0.007958  -0.02029  -0.5862  0.7124
6.404e+09  -0.6908  0.468  0.06204  -0.003352  0.009008  0.003285  -0.2559  0.8893
6.405e+09  -0.4703  0.7397  -0.002099  -0.008155  0.009633  -0.0179  0.03049  0.958
6.406e+09  -0.1413  0.8239  -0.01585  -0.005613  0.0192  -0.01716  0.3182  0.8606
6.408e+09  0.1172  0.8301  0.001739  -0.0217  -0.006779  0.001232  0.589  0.6858
6.409e+09  0.4066  0.7699  -0.03893  -0.0155  0.03281  -0.03792  0.7897  0.4738
6.41e+09  0.642  0.5658  -0.008015  0.01394  -0.02442  -0.02537  0.8947  0.1799
6.411e+09  0.8058  0.284  -0.01769  -0.008087  -0.02931  0.05011  0.9171  -0.1393
6.412e+09  0.8738  0.02451  0.008296  -0.06912  0.04494  -0.03086  0.7817  -0.4254
6.414e+09  0.7581  -0.3174  0.0277  -0.04494  0.0163  -0.00243  0.6224  -0.6615
6.415e+09  0.6625  -0.5264  0.02423  -0.01802  -0.03571  -0.04214  0.3184  -0.8509
6.416e+09  0.4163  -0.722  0.06036  0.0235  0.005094  5.709e-05  0.07172  -0.8835
6.418e+09  0.1066  -0.8539  -0.008746  0.001505  -0.001024  0.01827  -0.3017  -0.8613
6.419e+09  -0.1499  -0.8522  0.03659  0.02499  0.001563  0.05513  -0.4919  -0.7278
6.42e+09  -0.4016  -0.7066  0.001391  0.01029  0.0405  -0.01814  -0.8021  -0.4296
6.421e+09  -0.6831  -0.5664  0.01224  -0.04122  -0.01403  0.01456  -0.8909  -0.2278
6.422e+09  -0.7717  -0.2721  -0.02929  0.04392  -0.02386  -0.01881  -0.8726  0.08282
6.424e+09  -0.903  -4.492e-05  -0.01364  0.01289  -0.01465  0.004942  -0.7992  0.4004
6.425e+09  -0.8238  0.3154  0.01038  0.01307  -0.01085  -0.02514  -0.5971  0.6254
6.426e+09  -0.674  0.5501  -0.02007  -0.02697  0.008912  0.01341  -0.3464  0.8549
6.428e+09  -0.4367  0.7373  0.01722  0.01457  -0.01178  -0.03276  -0.04178  0.8939
6.429e+09  -0.1852  0.8122  0.02869  0.0128  -0.006389  -0.01552  0.2526  0.8618
6.43e+09  0.1391  0.882  0.04964  0.0004296  -0.02539  0.008988  0.5106  0.708
6.431e+09  0.3782  0.7113  -0.004841  0.02572  0.01119  0.03448  0.7203  0.4838
6.432e+09  0.6462  0.5741  -0.02212  0.008404  0.004445  -0.03319  0.854  0.1886
6.434e+09  0.7979  0.2463  -0.005799  0.01749  -0.02292  0.0204  0.85  -0.1012
6.435e+09  0.8782  -0.06728  0.01077  0.01378  0.02203  -0.002542  0.777  -0.3929
6.436e+09  0.8161  -0.3423  0.0191  -0.006206  -0.03591  -0.02338  0.5842  -0.5891
6.438e+09  0.6225  -0.5942  0.03614  0.02861  -0.003071  0.04553  0.3438  -0.7455
6.439e+09  0.4478  -0.7397  0.04376  -0.011  -0.02517  -0.03197  0.05575  -0.8661
6.44e+09  0.1745  -0.8296  0.08119  -0.001164  -0.009703  0.02135  -0.214  -0.8315
6.441e+09  -0.1293  -0.8531  -0.01205  -0.01484  0.008871  -0.04283  -0.5125  -0.6818
6.442e+09  -0.4203  -0.7404  -0.005535  0.02057  -0.007226  -0.002902  -0.6968  -0.4226
6.444e+09  -0.6839  -0.5217  0.0302  -0.01105  -0.002559  0.0143  -0.8331  -0.1895
6.445e+09  -0.7804  -0.2333  0.06893  0.02505  0.005629  -0.02697  -0.8338  0.06671
6.446e+09  -0.871  -0.01298  0.002002  -0.0164  -0.004019  -0.007312  -0.7761  0.3843
6.448e+09  -0.767  0.284  -0.01333  0.001324  -0.002699  -0.01667  -0.6199  0.6245
6.449e+09  -0.6688  0.5883  0.004505  0.02457  0.02489  -0.0307  -0.3396  0.7503
6.45e+09  -0.4305  0.7566  -0.02226  0.01111  -0.02754  -0.0317  -0.03524  0.8422
6.451e+09  -0.1023  0.8316  -0.003732  0.008455  0.04725  0.02956  0.2159  0.8085
6.452e+09  0.1852  0.8294  -0.0285  0.0002454  -0.005693  0.02009  0.4293  0.7172
6.454e+09  0.4506  0.7238  -0.0229  0.01422  -0.01657  -0.006647  0.6656  0.515
6.455e+09  0.647  0.4826  0.005703  -0.04175  0.00749  -0.01027  0.8172  0.2155
6.456e+09  0.8353  0.2844  0.005923  -0.04271  0.001178  -0.02131  0.8491  -0.1467
6.458e+09  0.7999  -0.03279  -0.02434  -0.0001371  0.01662  -0.003253  0.7172  -0.3399
6.459e+09  0.832  -0.3574  -0.01118  0.01528  0.005396  3.811e-05  0.5377  -0.5816
6.46e+09  0.6364  -0.5699  -0.0277  -0.01983  -0.03337  0.002682  0.3431  -0.7262
6.461e+09  0.413  -0.7788  0.0315  0.026  -0.02452  -0.01637  0.07613  -0.7838
6.462e+09  0.06007  -0.9001  -0.02343  0.01863  -0.0001497  -0.01844  -0.2129  -0.8045
6.464e+09  -0.2066  -0.8132  -0.00454  0.03329  -0.006082  -0.003822  -0.4879  -0.6427
6.465e+09  -0.4599  -0.7351  0.02189  -0.05719  -0.04223  -0.01354  -0.6398  -0.4675
6.466e+09  -0.6686  -0.4763  -0.02453  -0.00908  0.01475  -0.009857  -0.7341  -0.1639
6.468e+09  -0.842  -0.2284  -0.01545  -0.03508  -0.01432  0.03027  -0.8486  0.05087
6.469e+09  -0.8861  0.03744  0.04529  0.03417  -0.007909  0.03484  -0.7262  0.3329
6.47e+09  -0.7973  0.3561  -0.02437  0.04973  -0.04002  -0.01455  -0.5479  0.5514
6.471e+09  -0.6222  0.601  -0.03795  0.02604  -0.01085  0.004435  -0.3664  0.7234
6.472e+09  -0.354  0.8334  -0.01237  0.05095  0.03598  0.04705  -0.0499  0.8182
6.474e+09  -0.1234  0.8908  -0.003001  -0.01271  -0.01544  -0.005638  0.2525  0.7388
6.475e+09  0.2045  0.8743  0.02378  -0.03155  0.01532  0.03499  0.4864  0.6617
6.476e+09  0.5122  0.7545  0.0005305  -0.02005  -0.01631  -0.02049  0.6324  0.4493
6.478e+09  0.7242  0.5454  -0.02606  -0.01746  -0.03326  0.0425  0.7585  0.2046
6.479e+09  0.8378  0.2409  -0.01443  -0.002964  -0.01566  -0.0324  0.8025  -0.0802
6.48e+09  0.9016  -0.0823  0.0407  -0.00979  0.01176  -0.04441  0.7292  -0.3102
6.481e+09  0.8175  -0.384  -0.02487  -0.01324  -0.01209  0.03464  0.5424  -0.5562
6.482e+09  0.6516  -0.634  -0.02669  -0.007564  0.03181  0.02979  0.3133  -0.6843
6.484e+09  0.3683  -0.7882  0.04735  0.009653  -0.01326  0.01003  0.054  -0.7605
6.485e+09  0.05169  -0.8887  0.00297  0.03021  0.02108  -0.008735  -0.2308  -0.6822
6.486e+09  -0.2453  -0.849  -0.02376  0.04136  0.04  -0.02042  -0.4899  -0.6446
6.488e+09  -0.7013  -1.465  0.01258  0.04371  -0.5373  -0.5523  -0.6445  -0.4464
6.489e+09  -0.7071  -0.4868  0.01843  0.0001879  -0.008264  -0.03484  -0.7558  -0.1693
6.49e+09  -0.8481  -0.2148  0.03055  -0.007646  0.0272  0.004748  -0.7642  0.1188
6.491e+09  -0.8852  0.09412  0.01355  0.001954  -0.02335  -0.0117  -0.6895  0.3157
6.492e+09  -0.8498  0.3921  0.04541  -0.0005488  -0.01771  -0.00504  -0.5257  0.5762
6.494e+09  -0.5804  0.747  0.008089  -0.00268  -0.05843  0.02935  -0.3335  0.7446
6.495e+09  -0.3455  0.8405  0.008427  0.03061  0.001336  -0.006829  -0.02128  0.7881
6.496e+09  -0.01548  0.9057  -0.00577  0.03154  0.02613  0.02382  0.2313  0.7414
6.498e+09  0.2475  0.8911  0.01673  0.03518  -0.02809  0.0117  0.4667  0.5798
6.499e+09  0.5479  0.6813  -0.0006369  0.05985  -0.03001  0.02928  0.6421  0.4274
6.5e+09  0.7893  0.4667  0.03098  0.03248  0.0134  0.06022  0.6917  0.1389
6.501e+09  0.8555  0.1552  0.007557  -0.03819  -0.01411  -0.02474  0.7577  -0.1073
6.502e+09  0.8774  -0.07343  -0.0166  -0.0128  0.01882  -0.05029  0.6752  -0.3673
6.504e+09  0.8572  -0.3872  -0.01615  0.006227  -0.006017  -0.02183  0.5035  -0.5842
6.505e+09  0.6012  -0.6705  0.01645  -0.03949  -0.01876  -0.03466  0.2726  -0.7222
6.506e+09  0.3659  -0.8928  -0.009186  0.02791  -0.02184  -0.008247  0.01282  -0.7559
6.508e+09  0.009448  -0.8999  0.005104  0.00364  -0.004353  -0.03202  -0.2299  -0.7307
6.509e+09  -0.3405  -0.9055  -0.04101  0.03692  -0.04097  -0.03745  -0.4263  -0.5826
6.51e+09  -0.5305  -0.7314  0.00392  -0.000566  -0.01265  -0.04462  -0.6398  -0.3643
6.511e+09  -0.8096  -0.5019  0.02194  0.02734  0.01158  0.01514  -0.7186  -0.1456
6.512e+09  -0.9312  -0.1531  -0.003266  -0.001012  -0.02886  -0.001671  -0.7499  0.1348
6.514e+09  -0.9215  0.1816  -0.04008  -0.001494  0.03986  0.023  -0.6255  0.3495
6.515e+09  -0.8394  0.49  -0.003829  0.006673  0.02634  0.001097  -0.4577  0.5634
6.516e+09  -0.59  0.7602  -0.01941  0.01212  0.009844  -0.01189  -0.2432  0.7228
6.518e+09  -0.3189  0.9247  0.0191  0.02703  0.00103  -0.03604  0.01532  0.766
6.519e+09  0.001871  0.9011  0.009684  -0.003662  -0.006985  0.01464  0.2468  0.7301
6.52e+09  0.3433  0.8989  -0.03782  -0.009918  0.003776  -0.004353  0.4857  0.5531
6.521e+09  0.6457  0.6791  -0.01461  -0.01367  0.009901  -0.03469  0.6367  0.3535
6.522e+09  0.812  0.4327  0.004488  0.03171  -0.02023  0.005005  0.7033  0.04483
6.524e+09  0.9423  0.1369  0.016  -0.02697  0.03448  0.04547  0.6887  -0.159
6.525e+09  0.8719  -0.2193  0.001054  -0.001662  0.0224  0.02761  0.6033  -0.4284
6.526e+09  0.7564  -0.5415  -0.01948  0.01896  0.02181  -0.03844  0.4112  -0.5362
6.528e+09  0.5911  -0.7107  0.03854  0.0009686  0.006566  -0.005735  0.221  -0.6822
6.529e+09  0.2403  -0.9139  0.01425  0.01247  0.0001132  -0.007459  -0.02891  -0.6975
6.53e+09  -0.1112  -0.9726  -0.02548  -0.048  -0.02415  -0.02888  -0.292  -0.6143
6.531e+09  -0.4005  -0.8672  0.01462  0.01964  -0.03841  -0.02246  -0.4803  -0.4972
6.532e+09  -0.7217  -0.6817  0.03795  0.009469  -0.01979  -0.01193  -0.5679  -0.2955
6.534e+09  -0.8936  -0.3678  0.001221  0.001607  -0.007529  0.02802  -0.6309  -0.07705
6.535e+09  -0.9686  -0.07915  0.005123  0.01992  0.02438  -0.007112  -0.6092  0.1367
6.536e+09  -0.9087  0.288  0.002395  0.03011  0.04743  -0.0001835  -0.5784  0.2798
6.538e+09  -0.763  0.5688  0.006063  -0.02196  -0.01235  -0.02165  -0.4002  0.5089
6.539e+09  -0.5061  0.7731  -0.01002  0.01447  -0.05624  -0.06488  -0.2859  0.6004
6.54e+09  -0.19  0.8876  -0.01034  0.01054  -0.04784  -0.01758  -0.06236  0.6918
6.541e+09  0.1403  0.965  -0.002542  -0.02857  0.01646  -0.004619  0.1752  0.6643
6.542e+09  0.4496  0.7733  5.136e-05  0.02324  -0.01349  0.005741  0.3999  0.5446
6.544e+09  0.7534  0.5738  -0.01177  0.01044  -0.02911  0.05784  0.5947  0.397
6.545e+09  0.8788  0.2828  -0.03235  0.006557  0.03353  0.007047  0.7088  0.1685
6.546e+09  0.9124  0.001129  0.00471  -0.01946  -0.03396  -0.02472  0.6888  -0.09379
6.548e+09  0.8221  -0.3737  -0.009599  -0.01155  -0.02952  0.01179  0.6352  -0.3415
6.549e+09  0.7554  -0.6764  -0.01025  0.01439  -0.008205  0.004422  0.5024  -0.5484
6.55e+09  0.4022  -0.7995  0.03421  0.00645  -0.03427  -0.009055  0.3004  -0.6914
