# Hz S RI R 50
6.25e+09  -0.1145  0.7798  0.006024  -0.03041  -0.00798  -0.02364  0.1571  0.4942
6.251e+09  0.1911  0.8747  -0.03217  0.01794  -0.01815  -0.02195  0.335  0.4205
6.252e+09  0.4092  0.7289  -0.0229  -0.02016  -0.03121  -0.05004  0.4994  0.2389
6.254e+09  0.6921  0.5344  -0.001376  0.01289  -0.03653  -0.01633  0.625  -0.003767
6.255e+09  0.8412  0.2685  0.007457  0.03384  -0.001401  0.01421  0.5808  -0.2393
6.256e+09  0.8652  -0.0416  0.023  5.215e-05  0.07376  0.04323  0.4793  -0.439
6.258e+09  0.7902  -0.2599  -0.00828  -0.04042  0.03824  -0.007589  0.2868  -0.5859
6.259e+09  0.6337  -0.5012  -0.0007854  0.01272  0.03988  -0.01301  0.03665  -0.6905
6.26e+09  0.424  -0.7912  0.01857  0.03383  0.007149  -0.001109  -0.2233  -0.6697
6.261e+09  0.08161  -0.8729  -0.0004975  -0.005645  0.0008766  -0.02155  -0.4637  -0.5335
6.262e+09  -0.2444  -0.8287  -0.009351  -0.000242  -0.01447  0.007649  -0.6206  -0.3353
6.264e+09  -0.4988  -0.6549  0.02934  -0.003331  -0.03033  0.01339  -0.7236  -0.08961
6.265e+09  -0.6245  -0.5612  0.0103  -0.00236  0.05061  0.06281  -0.7106  0.1604
6.266e+09  -0.7932  -0.2364  -0.003135  0.002426  0.04285  -0.03061  -0.6056  0.4032
6.268e+09  -0.856  0.04372  -0.02946  -0.01553  0.006978  -0.0742  -0.4265  0.5886
6.269e+09  -0.7543  0.3807  0.007255  -0.006333  0.03976  0.1106  -0.2144  0.7427
6.27e+09  -0.6352  0.5819  -0.008745  -0.03951  -0.05916  0.06346  0.05432  0.7298
6.271e+09  -0.3787  0.7292  -0.007856  -0.04093  -0.02638  0.028  0.3131  0.661
6.272e+09  -0.1434  0.8353  0.04558  0.01084  0.001607  0.02823  0.5416  0.5193
6.274e+09  0.1829  0.8425  -0.009764  -0.004733  0.0283  -0.02692  0.6816  0.3211
6.275e+09  0.4408  0.6599  0.007724  0.01039  -0.01615  0.01137  0.7322  0.04705
6.276e+09  0.6345  0.4928  -0.03519  0.001983  -2.578e-05  0.0008835  0.7221  -0.235
6.278e+09  0.8547  0.2357  0.003487  -0.02267  -0.01464  -0.03074  0.5857  -0.444
6.279e+09  0.8306  -0.06465  -0.004744  -0.01073  0.04043  -0.00382  0.413  -0.6631
6.28e+09  0.729  -0.3442  -0.002753  -0.003359  -0.02153  0.01065  0.2045  -0.7331
6.281e+09  0.5655  -0.5957  0.01704  0.01187  -0.03086  -0.00566  -0.08302  -0.7856
6.282e+09  0.3896  -0.7445  0.01742  0.0112  0.01756  -0.03654  -0.3675  -0.6613
6.284e+09  0.114  -0.8507  -0.01448  0.01891  0.005707  0.07262  -0.5846  -0.5506
6.285e+09  -0.2395  -0.8334  -0.01247  0.005391  0.01553  0.01707  -0.7383  -0.2811
6.286e+09  -0.416  -0.7104  0.005128  0.01398  0.03024  0.02535  -0.7504  -0.02584
6.288e+09  -0.7423  -0.4819  0.02092  0.004841  -0.02177  0.004397  -0.739  0.2545
6.289e+09  -0.8356  -0.2217  0.006131  -0.004079  -0.004115  -0.02855  -0.6415  0.5059
6.29e+09  -0.8834  0.1367  0.01014  -0.02232  -0.0155  0.001539  -0.4395  0.695
6.291e+09  -0.7213  0.3717  0.0145  0.03073  0.01449  -0.01794  -0.1678  0.8137
6.292e+09  -0.592  0.6247  -0.001477  0.004086  -0.04049  -0.008937  0.1308  0.7814
6.294e+09  -0.3356  0.7087  -0.00177  -0.02535  0.007246  -0.01899  0.4059  0.7108
6.295e+09  -0.03438  0.8509  0.005816  -0.02759  -0.02014  0.01965  0.6093  0.561
6.296e+09  0.2269  0.7385  0.002726  0.01935  -0.03865  -0.001357  0.7564  0.3181
6.298e+09  0.4582  0.6893  -0.005813  -0.004454  -0.01244  0.02592  0.8343  0.001248
6.299e+09  0.7404  0.4166  -0.003018  0.001719  -0.03948  0.007567  0.7902  -0.2844
6.3e+09  0.8241  0.1085  0.01238  0.0003284  -0.02381  0.03299  0.633  -0.5157
6.301e+09  0.8076  -0.1331  -0.00947  0.03263  0.01158  -0.02825  0.43  -0.7124
6.302e+09  0.7324  -0.3954  0.01442  0.03386  -0.06029  0.0333  0.1852  -0.8249
6.304e+09  0.5645  -0.6337  -0.0206  0.002008  0.05394  -0.01568  -0.1392  -0.8379
6.305e+09  0.3056  -0.8139  -0.007627  -0.008833  0.04702  0.007378  -0.4229  -0.7537
6.306e+09  -0.0003301  -0.8771  0.009411  0.02406  0.02914  -0.002869  -0.6216  -0.5501
6.308e+09  -0.3013  -0.8118  0.01609  0.01498  -0.0296  0.01912  -0.8202  -0.3072
6.309e+09  -0.5552  -0.6372  -0.003482  0.03407  0.02091  0.0118  -0.837  -0.0177
6.31e+09  -0.7562  -0.4176  0.006292  0.01196  0.01573  0.03659  -0.8255  0.3051
6.311e+09  -0.8175  -0.1378  -0.02593  0.01111  -0.01227  0.01199  -0.6749  0.5667
6.312e+09  -0.789  0.2092  -0.01852  0.002402  0.001733  0.01088  -0.4393  0.7444
6.314e+09  -0.7375  0.4685  -0.01443  0.009364  0.01694  -0.02828  -0.1643  0.8359
6.315e+09  -0.5173  0.6962  -0.01368  -0.01698  0.04772  0.04053  0.1599  0.8641
6.316e+09  -0.2527  0.8177  -0.01731  0.0004434  -0.02813  0.02227  0.4132  0.7522
6.318e+09  0.05386  0.8383  -0.02904  -0.01894  0.01234  -0.02323  0.6512  0.5584
6.319e+09  0.3776  0.7898  0.007166  -0.01123  -0.02917  -0.05202  0.8203  0.3304
6.32e+09  0.5734  0.5716  -0.0111  -0.01145  0.03912  -0.01113  0.8808  -0.04709
6.321e+09  0.7883  0.375  -0.008304  0.00344  0.01924  0.02585  0.8372  -0.3182
6.322e+09  0.8435  0.05838  0.002766  0.0142  -0.008374  -0.007341  0.7069  -0.5573
6.324e+09  0.8486  -0.2089  -0.01466  0.001055  -0.002635  0.04048  0.487  -0.778
6.325e+09  0.6875  -0.5053  0.009945  0.01134  -0.04682  -0.04402  0.1512  -0.8652
6.326e+09  0.5094  -0.6976  -0.01236  -0.01255  0.01633  0.02624  -0.1426  -0.8946
6.328e+09  0.2089  -0.8595  0.009261  0.01716  -0.02536  0.003094  -0.403  -0.7741
6.329e+09  -0.09669  -0.8577  -0.02063  -0.006149  -0.008135  0.05175  -0.668  -0.6147
6.33e+09  -0.4009  -0.7534  -0.0172  0.02347  -0.02554  0.015  -0.8169  -0.3367
6.331e+09  -0.6425  -0.5462  -0.02119  0.01173  0.02339  0.01157  -0.9029  -0.009141
6.332e+09  -0.8268  -0.2475  0.01895  0.0307  -0.001303  -0.00743  -0.8527  0.29
6.334e+09  -0.8708  -0.007013  -0.007531  -0.01709  0.03432  -0.001284  -0.7004  0.5353
6.335e+09  -0.8111  0.2682  0.002604  -0.01328  0.06783  -0.03904  -0.4878  0.7574
6.336e+09  -0.6752  0.5473  -0.01188  -0.02164  0.00908  -0.002242  -0.2085  0.8684
6.338e+09  -0.4327  0.7268  0.0207  -0.0007015  -0.01287  0.008779  0.1478  0.9079
6.339e+09  -0.1197  0.8862  0.01039  -0.009134  -0.000164  -0.0582  0.409  0.7839
6.34e+09  0.1622  0.8653  -0.003038  0.006188  0.01647  -0.01343  0.6649  0.6439
6.341e+09  0.4232  0.7403  0.0001827  -0.003791  -0.01736  -0.03742  0.8555  0.3516
6.342e+09  0.6542  0.5503  -0.003062  0.01351  -0.005138  -0.009173  0.9163  0.01808
6.344e+09  0.8134  0.2924  -0.01503  -0.03016  0.04508  0.0203  0.8423  -0.2835
6.345e+09  0.872  -0.07294  -0.01784  0.02121  -0.006249  -0.002721  0.7784  -0.5611
6.346e+09  0.8041  -0.325  0.01849  -0.01173  -0.02558  0.008041  0.5145  -0.788
6.348e+09  0.6415  -0.6432  -0.007174  -0.012  -0.01406  -0.008342  0.2359  -0.8722
6.349e+09  0.3834  -0.7954  -0.01762  0.001381  -0.03616  -0.01506  -0.1053  -0.9151
6.35e+09  0.05246  -0.912  -0.008273  0.0105  -0.006791  0.00303  -0.4106  -0.8548
6.351e+09  -0.1976  -0.8195  0.007201  -0.0158  -0.01351  0.04166  -0.697  -0.6437
6.352e+09  -0.4726  -0.7543  -0.01014  -0.007418  0.01979  0.002281  -0.8751  -0.3577
6.354e+09  -0.6946  -0.5056  0.007963  -0.01591  -0.0195  -0.02618  -0.9221  -0.04307
6.355e+09  -0.8382  -0.1959  0.02096  0.0117  -0.03903  -0.004178  -0.9261  0.259
6.356e+09  -0.8957  0.1065  -0.02667  0.02435  -0.01977  -0.01181  -0.7687  0.5533
6.358e+09  -0.774  0.3786  0.05589  0.003757  0.0201  0.007924  -0.5227  0.7933
6.359e+09  -0.5818  0.6672  0.02128  -0.01055  0.01875  -0.02095  -0.2238  0.9284
6.36e+09  -0.3276  0.8169  0.009516  0.04206  -0.03072  -0.008929  0.0823  0.9134
6.361e+09  -0.03659  0.8419  -0.001559  0.008207  0.01214  0.03553  0.4291  0.8618
6.362e+09  0.2405  0.8484  0.009654  0.0004875  -0.02873  0.02844  0.6594  0.7017
6.364e+09  0.5573  0.693  -0.001929  -0.02472  0.01292  0.03703  0.8371  0.4042
6.365e+09  0.7484  0.4654  0.01951  -0.01185  -0.01116  0.001176  0.9597  0.09331
6.366e+09  0.8719  0.1188  0.01692  0.01834  -0.001302  -0.0286  0.911  -0.2544
6.368e+09  0.869  -0.1778  0.01525  -0.04049  0.02108  0.03755  0.7739  -0.5408
6.369e+09  0.7393  -0.4328  -0.01233  -0.01084  0.006401  -0.01957  0.5187  -0.7911
6.37e+09  0.5201  -0.7039  0.01621  -0.04353  -0.00799  -0.001949  0.276  -0.8881
6.371e+09  0.3045  -0.8649  -0.02633  0.002571  0.005875  -0.0533  -0.07322  -0.9573
6.372e+09  -0.008756  -0.9039  -0.002119  -0.02148  -0.02904  -0.02425  -0.4079  -0.8414
6.374e+09  -0.3285  -0.7943  -0.001032  -0.02696  0.02139  0.01115  -0.6651  -0.6954
6.375e+09  -0.5979  -0.6183  0.005773  -0.001804  0.0206  -0.02081  -0.8545  -0.3978
6.376e+09  -0.7636  -0.4698  -0.02366  0.05463  -0.04106  -0.002077  -0.9341  -0.1439
6.378e+09  -0.8354  -0.1186  0.04605  -0.004699  -0.02804  0.0147  -0.8903  0.2423
6.379e+09  -0.8346  0.1916  -0.004307  -0.008339  -0.01382  0.0329  -0.7787  0.5501
6.38e+09  -0.7326  0.4689  -0.01593  -0.01406  0.05268  -0.04931  -0.552  0.7394
6.381e+09  -0.5541  0.6679  0.0006211  -0.004561  -0.02093  -0.01723  -0.2718  0.8689
6.382e+09  -0.3004  0.8334  -0.02247  0.0174  -0.01364  -0.04328  0.05682  0.9288
6.384e+09  0.03519  0.8516  -0.007283  -0.02615  0.0075  0.01443  0.3908  0.8689
6.385e+09  0.3334  0.8054  0.001907  0.03695  0.06861  -0.04912  0.6461  0.699
6.386e+09  0.614  0.6273  0.003729  -0.02245  -0.04177  -0.02593  0.8338  0.4395
6.388e+09  0.8259  0.4096  -0.00686  -0.05134  0.01067  -0.0236  0.9151  0.07819
6.389e+09  0.8745  0.1018  0.03579  0.0008278  0.01647  0.06751  0.9069  -0.1557
6.39e+09  0.8639  -0.2288  -0.02603  0.01097  0.002724  0.01158  0.7832  -0.5019
6.391e+09  0.6823  -0.4932  0.0381  -0.008902  -0.002241  0.0112  0.548  -0.7335
6.392e+09  0.5427  -0.7298  -0.004152  0.0211  -0.04153  0.03148  0.264  -0.8995
6.394e+09  0.2522  -0.8434  0.03241  0.005505  0.02897  0.008853  -0.03112  -0.9134
6.395e+09  -0.06634  -0.8933  -0.01785  0.008634  0.01756  0.02288  -0.3498  -0.8721
6.396e+09  -0.337  -0.8288  -0.0933  0.004275  0.03973  0.02039  -0.6195  -0.6674
6.398e+09  -0.6233  -0.6397  0.002666  0.01336  0.0338  0.03717  -0.7554  -0.4167
6.399e+09  -0.781  -0.3651  -0.01341  -0.02039  0.03438  -0.001859  -0.9117  -0.1715
6.4e+09  -0.9121  -0.06085  -0.02019  -0.008253  0.001211  -0.005829  -0.8962  0.1233
6.401e+09  -0.8153  0.1969  0.002343  0.01983  -0.008161  0.03302  -0.7975  0.4565
6.402e+09  -0.7397  0.504  -0.005725  0.03968  -0.02258  -0.009575  -0.5756  0.7145
6.404e+09  -0.4942  0.6801  -0.008715  -0.01714  -0.02706  0.01666  -0.308  0.9037
6.405e+09  -0.2445  0.8486  0.02596  -0.008591  0.0538  -0.03297  0.01332  0.8946
6.406e+09  0.04444  0.8632  0.001912  0.03363  -0.02442  -0.002297  0.2978  0.8755
6.408e+09  0.3604  0.8007  0.01066  -0.001486  -0.01733  0.002465  0.5892  0.7332
6.409e+09  0.6131  0.5802  0.008294  -0.01195  -0.0216  -0.007105  0.8091  0.4554
6.41e+09  0.7749  0.3304  0.0586  0.007134  -0.009821  0.01932  0.8802  0.1932
6.411e+09  0.9424  0.06459  0.02513  0.003457  0.00463  -0.01996  0.9402  -0.1315
6.412e+09  0.8205  -0.2924  0.00327  0.03378  -0.004528  -0.01241  0.7722  -0.3796
6.414e+09  0.6571  -0.5184  0.0006378  -0.01826  0.02619  -0.00662  0.6113  -0.6492
6.415e+09  0.4964  -0.7087  0.008436  0.005847  -0.03708  0.0007043  0.3449  -0.8152
6.416e+09  0.1742  -0.8357  0.01968  -0.005039  -0.02849  -0.02177  -0.01396  -0.9041
6.418e+09  -0.08468  -0.8533  0.00432  -0.009332  -0.02616  0.005734  -0.3006  -0.8619
6.419e+09  -0.3838  -0.7402  0.03956  0.008091  -0.04088  0.00274  -0.5433  -0.7124
6.42e+09  -0.6507  -0.5696  0.03031  -0.017  0.006946  0.01341  -0.7396  -0.4721
6.421e+09  -0.8312  -0.3329  -0.01391  0.002707  -0.007718  0.008722  -0.8926  -0.1981
6.422e+09  -0.8763  0.002448  0.0329  0.01564  0.01135  0.01787  -0.8724  0.1254
6.424e+09  -0.8716  0.2244  -0.0355  0.003657  -0.02042  -0.02785  -0.7816  0.3945
6.425e+09  -0.7002  0.51  -0.02096  0.002587  0.04429  0.01618  -0.5839  0.6528
6.426e+09  -0.4732  0.7393  -0.04363  -0.0218  0.06949  0.01363  -0.354  0.8166
6.428e+09  -0.1292  0.7999  0.04694  0.02101  -0.008547  0.00309  -0.06526  0.8815
6.429e+09  0.1323  0.8619  0.03689  0.01779  -0.05155  0.02426  0.2695  0.8233
6.43e+09  0.409  0.7898  0.04845  0.04166  0.04698  0.01569  0.5396  0.6848
6.431e+09  0.629  0.5792  -0.004366  -0.01414  0.02259  -0.005781  0.7304  0.5066
6.432e+09  0.8462  0.335  -0.01488  -0.002367  -0.01772  0.02039  0.8029  0.2326
6.434e+09  0.8814  0.008679  -0.03204  0.04635  0.01554  0.03327  0.9118  -0.06878
6.435e+09  0.8456  -0.2667  0.004778  0.02836  -0.03189  -0.05853  0.7699  -0.3879
6.436e+09  0.7274  -0.5254  -0.04099  0.006174  0.02643  -0.004892  0.587  -0.6083
6.438e+09  0.432  -0.7673  0.001132  -0.0152  -0.02844  0.02295  0.3619  -0.7924
6.439e+09  0.1296  -0.8722  -0.0005874  0.004844  0.01757  0.06217  0.09135  -0.8261
6.44e+09  -0.1373  -0.9038  -0.03588  0.01263  0.02778  0.01938  -0.2108  -0.8227
6.441e+09  -0.4132  -0.7808  -0.02552  -0.02273  0.005461  0.0182  -0.4917  -0.707
6.442e+09  -0.6629  -0.5221  0.02052  0.02589  -0.03737  0.05237  -0.6699  -0.4307
6.444e+09  -0.8303  -0.2793  -0.0376  -0.01127  -0.007281  0.05896  -0.7808  -0.225
6.445e+09  -0.9293  -0.02443  -0.03257  0.01336  0.04236  -0.01544  -0.8499  0.11
6.446e+09  -0.8083  0.2947  0.05434  0.03273  -0.008766  -0.006743  -0.7791  0.3659
6.448e+09  -0.6676  0.5843  -0.01978  -0.01745  0.03434  0.004481  -0.5946  0.5771
6.449e+09  -0.4881  0.8  -0.0005492  0.01226  -0.02236  -0.01441  -0.3574  0.736
6.45e+09  -0.1556  0.8775  -0.00504  -0.02043  -0.03351  0.01749  -0.04399  0.8595
6.451e+09  0.1423  0.8992  0.01349  0.03591  -0.01738  -0.03596  0.2466  0.8072
6.452e+09  0.4841  0.779  0.03368  0.009469  0.01351  -0.009989  0.5175  0.6393
6.454e+09  0.7385  0.6276  -0.0397  -0.01677  -0.007536  0.001266  0.6668  0.4672
6.455e+09  0.8807  0.2998  -0.005133  0.01477  0.04651  0.01392  0.77  0.1373
6.456e+09  0.9014  -0.03732  -0.03806  0.03239  -0.005348  -0.02633  0.8573  -0.05367
6.458e+09  0.7994  -0.3127  0.006391  -0.03593  -0.001105  0.0058  0.6991  -0.3875
6.459e+09  0.6549  -0.5263  0.0005747  0.03692  -0.03447  0.006894  0.5748  -0.5541
6.46e+09  0.4738  -0.8065  0.009186  -0.003476  -0.01071  -0.003474  0.3  -0.7805
6.461e+09  0.1331  -0.8844  -0.03663  0.004448  -0.01012  0.004214  0.07143  -0.779
6.462e+09  -0.226  -0.8867  -0.02585  0.03157  0.06713  0.04602  -0.1848  -0.8015
6.464e+09  -0.4045  -0.7758  -0.007775  0.0009475  -0.01771  0.02592  -0.459  -0.6195
6.465e+09  -0.6772  -0.5024  0.01342  -0.01302  0.006097  0.002793  -0.6685  -0.4459
6.466e+09  -0.8188  -0.2921  0.04163  -0.008615  -0.04126  0.03171  -0.7297  -0.2163
6.468e+09  -0.8806  0.02406  0.04046  0.02398  0.00399  -0.04284  -0.8396  0.06914
6.469e+09  -0.8501  0.3415  0.01545  -0.00974  -0.007341  0.02652  -0.7157  0.3197
6.47e+09  -0.6182  0.6885  0.004711  -0.05308  -0.076  -0.009152  -0.5347  0.6081
6.471e+09  -0.4007  0.8269  -0.00314  0.001036  -0.003998  0.02367  -0.3209  0.7328
6.472e+09  -0.07188  0.878  0.001725  0.02968  0.02631  0.06147  -0.08513  0.7805
6.474e+09  0.2238  0.8941  0.04016  -0.0002549  0.03904  -0.02046  0.2583  0.7678
6.475e+09  0.5413  0.7471  0.009935  -0.03493  -0.02343  -0.01829  0.4723  0.6558
6.476e+09  0.7579  0.5418  -0.00489  -0.05374  -0.009249  -0.02738  0.6539  0.4438
6.478e+09  0.9324  0.2476  -0.009502  -0.02818  -0.03619  0.02169  0.7424  0.223
6.479e+09  0.9088  -0.08458  0.002771  0.0009379  0.000159  0.00229  0.8049  -0.1013
6.48e+09  0.8541  -0.4137  0.005875  -0.01314  0.03932  -0.08747  0.7104  -0.333
6.481e+09  0.6234  -0.6834  0.01042  0.003823  0.03369  -0.04536  0.5457  -0.5293
6.482e+09  0.3725  -0.8796  0.001025  -0.02429  -0.03496  -0.02643  0.3175  -0.72
6.484e+09  0.02082  -0.9441  0.002182  -0.0211  -0.03633  0.01088  0.09497  -0.7671
6.485e+09  -0.2474  -0.861  0.02404  0.0125  -0.008328  -0.03294  -0.1991  -0.7604
6.486e+09  -0.5859  -0.7359  -0.02876  0.002711  0.01627  0.009344  -0.4172  -0.6408
6.488e+09  -0.3706  -1.085  0.05787  0.009837  0.7119  -0.2199  -0.6058  -0.4309
6.489e+09  -0.8872  -0.1794  -0.02449  -0.008543  0.01205  -0.01657  -0.7777  -0.1882
6.49e+09  -0.8753  0.1509  0.004417  -0.007144  -0.002343  0.007272  -0.7676  0.07106
6.491e+09  -0.8308  0.4052  0.02906  0.007331  0.04805  0.02124  -0.6684  0.3072
6.492e+09  -0.5724  0.7074  0.01366  -0.03145  -0.009902  0.003724  -0.5361  0.5405
6.494e+09  -0.2652  0.8048  -0.00793  0.008899  -0.06392  -0.09219  -0.2905  0.6939
6.495e+09  0.01979  0.9091  0.03757  -0.02003  -0.004231  -0.02946  -0.05241  0.7839
6.496e+09  0.3519  0.8847  0.01627  0.02834  0.002129  0.01908  0.2502  0.7633
6.498e+09  0.5968  0.6653  -0.01326  -0.005179  -0.03178  0.004974  0.4417  0.6101
6.499e+09  0.8139  0.4125  0.03896  -0.009693  -0.007837  -0.01445  0.6496  0.4278
6.5e+09  1.077  0.1339  -0.0177  0.001782  -0.01487  0.005378  0.7272  0.1226
6.501e+09  0.9395  -0.2007  -0.0003359  -0.01064  0.02511  -0.003498  0.7425  -0.1061
6.502e+09  0.8314  -0.5095  -0.01822  -0.01269  -0.0308  -0.03337  0.6801  -0.3393
6.504e+09  0.5819  -0.7218  -0.0002843  0.01653  0.01102  0.02606  0.5163  -0.5569
6.505e+09  0.2148  -0.9046  -0.0163  -0.02472  -0.0109  -0.02676  0.2507  -0.7
6.506e+09  -0.04144  -0.9563  -0.02643  -0.003971  0.02607  -0.01012  0.001776  -0.7498
6.508e+09  -0.3969  -0.8614  0.01158  -0.003046  -0.01277  -0.003962  -0.2415  -0.713
6.509e+09  -0.6636  -0.7164  0.03552  -0.02292  -0.05847  -0.001141  -0.4788  -0.6396
6.51e+09  -0.8915  -0.4097  -0.0001053  -0.002399  -0.009557  0.04882  -0.6611  -0.3714
6.511e+09  -0.9004  -0.07201  -0.01549  0.03028  -0.008335  0.04916  -0.7159  -0.09306
6.512e+09  -0.9229  0.2536  -0.02977  0.0008054  -0.01302  -0.01222  -0.7389  0.1041
6.514e+09  -0.7495  0.5218  -0.0006952  -0.005458  0.0325  -0.04706  -0.6704  0.3875
6.515e+09  -0.4866  0.8619  0.02091  0.03682  -0.01932  0.008841  -0.4485  0.5797
6.516e+09  -0.1981  0.9264  -0.001466  -0.04779  0.04914  0.005326  -0.245  0.6899
6.518e+09  0.1152  0.9153  0.006507  -0.002523  -0.03242  0.04244  -0.00233  0.7448
6.519e+09  0.4515  0.8604  -0.007904  0.003638  0.01275  -0.00457  0.2276  0.7315
6.52e+09  0.7022  0.5755  0.00286  0.002506  0.007954  0.01851  0.5056  0.5247
6.521e+09  0.8905  0.3226  -0.01283  -0.01152  0.03413  0.02402  0.6029  0.3626
6.522e+09  0.9225  -0.03798  0.004947  0.004753  0.02542  0.03183  0.7396  0.1122
6.524e+09  0.868  -0.3455  -0.03259  -0.0164  0.02059  -0.0224  0.7287  -0.1679
6.525e+09  0.7243  -0.6361  0.001404  -0.01902  0.06068  -0.008417  0.6478  -0.387
6.526e+09  0.4433  -0.8613  -0.01743  0.01576  -0.0191  0.00515  0.3986  -0.541
6.528e+09  0.155  -0.9507  -0.00429  -0.005294  0.002683  0.02734  0.2063  -0.7072
6.529e+09  -0.2663  -0.9435  -0.01219  0.03298  0.04418  -0.03053  -0.08383  -0.6993
6.53e+09  -0.5328  -0.7742  -0.0298  0.008983  -0.004929  -0.002928  -0.2713  -0.6496
6.531e+09  -0.7442  -0.539  0.002188  -0.02722  0.02086  -0.01581  -0.4769  -0.5206
6.532e+09  -0.9252  -0.2187  0.003553  -0.00383  0.01362  0.0285  -0.5904  -0.297
6.534e+09  -0.9562  0.1307  0.01516  0.02362  -0.04725  0.02914  -0.5962  -0.07436
6.535e+09  -0.8454  0.374  -0.02033  0.02714  0.03484  0.0209  -0.6505  0.09759
6.536e+09  -0.6087  0.6405  0.01432  0.02164  -0.02172  0.01755  -0.5791  0.357
6.538e+09  -0.3313  0.8511  0.004315  0.009486  0.02012  0.0073  -0.4292  0.4946
6.539e+09  -0.01827  0.9571  -0.0005497  -0.0332  -0.009876  -0.009241  -0.2788  0.6032
6.54e+09  0.2618  0.9272  -0.0222  -0.007384  0.0514  -0.01002  -0.0525  0.6941
6.541e+09  0.6211  0.7002  0.008376  0.01995  -0.01598  -0.02157  0.1877  0.6705
6.542e+09  0.7673  0.4134  -0.03483  0.007722  0.004811  -0.01214  0.4026  0.5945
6.544e+09  0.8779  0.1273  -0.0006412  -0.006892  0.004189  0.008443  0.6037  0.3812
6.545e+09  0.9199  -0.1783  -0.02631  -0.009455  -0.01271  -0.03888  0.6983  0.1749
6.546e+09  0.7769  -0.469  -0.007508  0.03424  -0.009106  0.02199  0.7008  -0.1008
6.548e+09  0.5397  -0.7804  0.008241  -0.007224  -0.01256  0.01381  0.6441  -0.3234
6.549e+09  0.2491  -0.9059  0.01624  0.001787  0.006508  0.007631  0.4938  -0.5185
6.55e+09  -0.08817  -0.9035  0.02227  -0.01848  0.01433  0.02684  0.3006  -0.6993
