# Hz S RI R 50
6.25e+09  -0.3524  0.7832  -0.01696  -0.03855  -0.02665  0.02631  0.1504  0.4929
6.251e+09  -0.06215  0.8242  -0.007717  0.01262  -0.004164  -0.004616  0.373  0.4157
6.252e+09  0.1916  0.7301  0.01825  -0.0005969  0.01561  -0.02495  0.5363  0.2219
6.254e+09  0.4865  0.6981  -0.02852  -0.04463  -0.04409  -0.03875  0.5993  0.01432
6.255e+09  0.6532  0.4831  0.003394  -0.008367  0.04988  0.00802  0.59  -0.208
6.256e+09  0.8177  0.2365  0.0406  -0.01755  -0.03009  -0.01138  0.4685  -0.4402
6.258e+09  0.841  -0.05464  0.01296  0.005095  -0.01102  0.03993  0.2965  -0.5906
6.259e+09  0.7624  -0.3048  0.01426  -0.00988  0.02863  -0.009326  0.06755  -0.6609
6.26e+09  0.5815  -0.5868  0.01411  0.01465  -0.04353  0.006993  -0.2008  -0.624
6.261e+09  0.3712  -0.736  0.02493  0.02518  0.02129  -0.02991  -0.4459  -0.532
6.262e+09  0.05158  -0.8194  0.008915  -0.02732  -0.02927  0.0003034  -0.631  -0.3389
6.264e+09  -0.2438  -0.7633  0.02073  -0.02086  0.04097  0.001325  -0.7217  -0.1212
6.265e+09  -0.4019  -0.6556  0.0002194  -0.04252  0.04138  -0.0301  -0.6927  0.1663
6.266e+09  -0.6749  -0.4688  -0.01809  0.008707  -0.03242  0.0729  -0.6276  0.3741
6.268e+09  -0.7882  -0.148  -0.01518  -0.01166  0.002273  -0.03144  -0.4514  0.5616
6.269e+09  -0.8167  0.1174  0.03041  -0.01706  -0.01432  0.01208  -0.1831  0.6948
6.27e+09  -0.7829  0.3621  0.0009416  0.02821  -0.002919  0.02625  0.05276  0.7259
6.271e+09  -0.5513  0.5758  0.01107  -0.04482  -0.05529  -0.0438  0.3419  0.7039
6.272e+09  -0.3223  0.6433  0.006662  -0.01966  0.019  -0.003331  0.5256  0.523
6.274e+09  -0.07648  0.8113  0.005632  -0.01794  -0.04604  -0.02033  0.6748  0.3261
6.275e+09  0.2503  0.7948  0.007485  -0.00304  0.01483  0.06559  0.7417  0.05141
6.276e+09  0.4459  0.6594  0.02897  -0.0004021  0.007744  3.734e-05  0.7457  -0.2225
6.278e+09  0.7038  0.431  0.006955  0.000268  0.03223  0.02589  0.6229  -0.4547
6.279e+09  0.7653  0.2147  -0.01266  -0.015  0.01707  0.01724  0.4126  -0.6562
6.28e+09  0.8248  -0.1111  0.02814  0.01061  -0.02397  -0.02904  0.1862  -0.7171
6.281e+09  0.7324  -0.4015  0.01954  -0.00324  0.01108  -0.01889  -0.1228  -0.8028
6.282e+09  0.5787  -0.6022  -0.008081  -0.002472  -0.01462  0.07952  -0.4005  -0.7247
6.284e+09  0.3248  -0.7496  -0.003559  -0.01479  0.0313  0.00162  -0.5644  -0.5246
6.285e+09  0.03254  -0.7712  -0.006118  0.01152  -0.0006847  -0.001644  -0.7349  -0.28
6.286e+09  -0.3103  -0.8095  -0.01635  -0.008754  -0.03393  0.03687  -0.7748  -0.004419
6.288e+09  -0.463  -0.6474  -0.03575  -0.002625  -0.001642  0.03376  -0.7414  0.2098
6.289e+09  -0.6459  -0.3876  -0.01272  0.02471  0.01034  0.003191  -0.6095  0.5104
6.29e+09  -0.78  -0.2005  0.0201  0.01303  -0.04292  -0.02031  -0.413  0.6783
6.291e+09  -0.7683  0.07682  0.01305  -0.01513  0.003574  -0.01449  -0.182  0.7995
6.292e+09  -0.6619  0.3669  -0.003506  0.01102  -0.01509  -0.05607  0.1139  0.8093
6.294e+09  -0.5792  0.5615  -0.00594  0.02401  0.03804  0.02887  0.3952  0.6932
6.295e+09  -0.3002  0.7456  -0.0235  0.02048  -0.04337  0.01962  0.6314  0.529
6.296e+09  -0.03154  0.8233  -0.003618  0.004168  0.05588  0.009974  0.786  0.3292
6.298e+09  0.282  0.7418  -0.004063  0.01498  0.003531  -0.00432  0.8311  0.00457
6.299e+09  0.5527  0.6062  -0.01294  -0.003468  -0.02104  0.01473  0.7839  -0.2857
6.3e+09  0.7446  0.403  0.0245  0.002634  -0.01384  -0.01209  0.6284  -0.5491
6.301e+09  0.8127  0.1241  0.002305  0.01228  -0.04532  -0.02007  0.4494  -0.7229
6.302e+09  0.7837  -0.1542  0.02115  -0.008905  -0.03362  0.0229  0.2012  -0.8279
6.304e+09  0.6662  -0.4296  -0.02955  -0.001078  -0.01413  -0.04004  -0.1341  -0.8164
6.305e+09  0.5358  -0.6341  -0.02528  0.00179  0.01668  -0.01606  -0.4092  -0.7466
6.306e+09  0.253  -0.7484  -0.01174  -0.02035  0.01187  -0.01079  -0.6563  -0.5637
6.308e+09  -0.017  -0.8553  0.009652  0.02735  -0.02166  -0.0003737  -0.7784  -0.2705
6.309e+09  -0.2749  -0.8012  -0.008602  0.009134  -0.025  0.02833  -0.8419  -0.0299
6.31e+09  -0.574  -0.5657  -0.006315  -0.00407  -0.007607  -0.001917  -0.8075  0.3061
6.311e+09  -0.7017  -0.3741  -0.005426  0.00425  0.03328  -0.04751  -0.6859  0.5401
6.312e+09  -0.8508  -0.1339  0.007082  0.01272  -0.034  0.02748  -0.4493  0.7556
6.314e+09  -0.8021  0.179  -0.01917  0.01176  0.01825  -0.004032  -0.1839  0.8321
6.315e+09  -0.6597  0.4202  -0.00246  -0.00625  0.03906  -0.01844  0.1548  0.8719
6.316e+09  -0.4611  0.6342  0.02006  0.0005139  -0.03412  -0.02088  0.4026  0.7671
6.318e+09  -0.2158  0.772  -0.004257  0.007286  0.01512  0.01751  0.6747  0.5508
6.319e+09  0.08583  0.8294  0.01241  0.00791  -0.02711  0.01473  0.8085  0.3405
6.32e+09  0.3812  0.7523  -0.001102  0.00446  0.01693  0.04721  0.8552  0.03082
6.321e+09  0.5896  0.596  -0.001173  0.009891  -0.01505  0.03013  0.8568  -0.2681
6.322e+09  0.7392  0.3459  -0.00159  0.01322  -0.0006768  -0.02794  0.6904  -0.5835
6.324e+09  0.7918  0.09005  0.00125  -0.02836  0.05677  -0.01456  0.4527  -0.7879
6.325e+09  0.7494  -0.2434  0.002168  -0.02281  0.01253  0.03979  0.1875  -0.8795
6.326e+09  0.6724  -0.4783  0.01584  0.01923  -0.01998  -0.001256  -0.128  -0.8912
6.328e+09  0.4614  -0.6973  -0.01105  -0.02059  -0.00828  -0.01489  -0.4391  -0.7931
6.329e+09  0.19  -0.7901  0.03154  -0.007028  -0.03047  0.05624  -0.6978  -0.6087
6.33e+09  -0.1078  -0.8726  -0.01401  0.007484  0.004908  0.001346  -0.8506  -0.3345
6.331e+09  -0.3857  -0.7668  0.01588  0.005376  0.034  0.04241  -0.9003  -0.04582
6.332e+09  -0.6029  -0.551  -0.04538  0.009142  -0.01019  -0.03032  -0.8903  0.2522
6.334e+09  -0.7517  -0.2773  -0.01966  -0.0009728  0.03567  0.01815  -0.7288  0.5746
6.335e+09  -0.8662  -0.002194  0.03908  -0.02083  0.006924  0.02863  -0.4776  0.798
6.336e+09  -0.7423  0.2556  -0.002733  0.02395  0.02246  0.04854  -0.1885  0.8747
6.338e+09  -0.6586  0.5718  -0.007591  -0.004465  -0.04173  -0.008721  0.114  0.8775
6.339e+09  -0.4097  0.7176  -0.02938  -0.03802  -0.02775  -0.02465  0.453  0.8199
6.34e+09  -0.1356  0.8382  -0.01275  -0.01946  -0.02058  -0.001112  0.6917  0.5973
6.341e+09  0.1509  0.8019  -0.01006  -0.003271  0.01407  0.008661  0.8347  0.3546
6.342e+09  0.4729  0.7428  0.006412  0.03217  -0.02833  0.002851  0.9353  0.0466
6.344e+09  0.6901  0.4958  -0.01395  -0.01306  -0.04025  -0.0421  0.9149  -0.2503
6.345e+09  0.8175  0.2772  0.002432  -0.008237  0.01902  -0.05634  0.738  -0.5902
6.346e+09  0.8394  -0.03807  0.03271  -0.01665  -0.04924  -0.01415  0.5184  -0.7677
6.348e+09  0.7363  -0.3028  0.02155  0.03352  -0.01984  -0.01815  0.2134  -0.878
6.349e+09  0.661  -0.5547  0.02799  0.003989  -0.0003746  0.07511  -0.09245  -0.9543
6.35e+09  0.3584  -0.7578  0.03617  0.008833  0.03279  0.005895  -0.4217  -0.8459
6.351e+09  0.1169  -0.9029  -0.0135  0.004589  0.01038  -0.01448  -0.7025  -0.6439
6.352e+09  -0.1904  -0.8696  -0.01618  0.02292  0.01653  -0.01143  -0.8457  -0.3761
6.354e+09  -0.5284  -0.6834  0.0051  0.02574  -0.03873  -0.02843  -0.92  -0.04206
6.355e+09  -0.7269  -0.4881  -0.0361  -0.0079  0.01221  0.02964  -0.9096  0.2401
6.356e+09  -0.8334  -0.2079  0.0142  0.03549  0.01646  0.006574  -0.7389  0.5316
6.358e+09  -0.8386  0.1043  0.005555  0.01411  -0.01673  0.01469  -0.5537  0.7685
6.359e+09  -0.7588  0.4096  0.03359  -0.02931  0.0291  -0.01167  -0.2113  0.9522
6.36e+09  -0.5957  0.5969  -0.0004294  -0.01409  0.05076  -0.0001647  0.08649  0.9282
6.361e+09  -0.3281  0.7708  -0.01811  0.02359  0.0202  0.03051  0.3871  0.9017
6.362e+09  -0.01472  0.8597  -0.002063  0.02078  -0.02017  -0.0008632  0.6752  0.6606
6.364e+09  0.2456  0.8047  0.000659  -0.001966  0.05222  0.003658  0.8523  0.3868
6.365e+09  0.5723  0.6746  0.001077  0.03932  -0.01136  0.03523  0.9784  0.06436
6.366e+09  0.7495  0.4176  0.004461  0.04022  -0.009249  0.0156  0.9453  -0.2769
6.368e+09  0.8398  0.1685  0.03051  0.01231  0.01254  0.001579  0.7909  -0.5403
6.369e+09  0.8306  -0.1162  0.006279  -0.036  -0.008845  -0.003879  0.5447  -0.7692
6.37e+09  0.7251  -0.3796  0.003643  0.004809  -0.0006972  -0.01419  0.2826  -0.9209
6.371e+09  0.5467  -0.6666  -0.05665  0.001375  0.01084  -0.008423  -0.06064  -0.9368
6.372e+09  0.2953  -0.8334  -0.04993  0.005925  0.02414  -0.00239  -0.3978  -0.8685
6.374e+09  0.01543  -0.865  -0.005589  0.01183  0.03062  0.02336  -0.6698  -0.683
6.375e+09  -0.2989  -0.7832  -0.00834  0.02011  -0.02072  0.03261  -0.8793  -0.4346
6.376e+09  -0.5966  -0.658  -0.002087  0.01175  -0.01189  0.01629  -0.9467  -0.08542
6.378e+09  -0.7176  -0.4262  0.04615  -0.002191  0.0352  0.002727  -0.8894  0.2731
6.379e+09  -0.8358  -0.1222  0.01064  0.03596  0.003575  -0.06266  -0.7743  0.5114
6.38e+09  -0.8205  0.1549  0.01248  0.0311  -0.00646  -0.0205  -0.5866  0.7306
6.381e+09  -0.7385  0.4469  0.001633  0.02558  0.02042  -0.002418  -0.2964  0.8861
6.382e+09  -0.5518  0.7016  -0.02364  0.02437  -0.06776  -0.004721  0.07302  0.924
6.384e+09  -0.2616  0.8344  -0.02652  -0.02645  0.01517  -0.01589  0.3691  0.8567
6.385e+09  0.0851  0.9006  -0.0117  0.0114  -0.008456  0.06135  0.6896  0.6971
6.386e+09  0.3615  0.7671  0.003108  0.02583  -0.0237  0.02098  0.8421  0.4353
6.388e+09  0.5851  0.6345  -0.01776  -0.01419  0.04399  -0.0005317  0.917  0.1546
6.389e+09  0.7714  0.3959  0.02924  0.02341  -0.02688  0.03646  0.898  -0.2049
6.39e+09  0.8559  0.1182  0.02778  0.003941  -0.0164  0.02544  0.7854  -0.4665
6.391e+09  0.8145  -0.2308  -0.005173  0.02724  0.008021  0.03279  0.5464  -0.7403
6.392e+09  0.741  -0.5022  -0.01374  0.03263  0.05693  0.01667  0.263  -0.8899
6.394e+09  0.5179  -0.7187  -0.01793  0.02039  0.04068  0.03956  -0.02294  -0.9034
6.395e+09  0.1998  -0.8553  -0.002038  0.0008025  -0.01121  -0.01824  -0.3398  -0.8409
6.396e+09  -0.0485  -0.8188  0.01427  0.03901  0.01472  0.005641  -0.5851  -0.6885
6.398e+09  -0.379  -0.8054  -0.0004837  0.03804  0.03761  0.01289  -0.8109  -0.4116
6.399e+09  -0.6186  -0.5831  -0.008996  -0.00218  -0.07797  0.0399  -0.8679  -0.1281
6.4e+09  -0.758  -0.4108  -0.04327  0.01033  -0.04119  0.0306  -0.8428  0.1709
6.401e+09  -0.8188  -0.06638  0.04782  0.004444  -0.02716  -0.005483  -0.7749  0.4409
6.402e+09  -0.7642  0.2201  -0.01915  -0.03408  0.003575  -0.03091  -0.5718  0.6947
6.404e+09  -0.6959  0.4701  0.04268  -0.0109  -0.007151  -0.01206  -0.3078  0.8655
6.405e+09  -0.4769  0.7293  -0.03491  0.005339  -0.03292  -0.03137  -0.01008  0.8982
6.406e+09  -0.1982  0.7865  -0.01258  -0.0119  -0.006532  -0.009144  0.3239  0.8376
6.408e+09  0.08932  0.8644  -0.00271  -0.0002204  0.04053  0.004974  0.5598  0.7241
6.409e+09  0.4108  0.7739  -0.01589  0.03181  0.0106  -0.03414  0.7569  0.4831
6.41e+09  0.6034  0.6529  -0.001697  -0.004101  -0.01132  -0.04298  0.8818  0.1474
6.411e+09  0.8003  0.3181  0.0144  0.0453  0.0033  -0.04433  0.9056  -0.1251
6.412e+09  0.8643  0.04303  0.003636  0.03709  0.01976  -0.01096  0.7623  -0.4262
6.414e+09  0.7755  -0.2284  0.008101  -0.002684  -0.003678  -0.01244  0.6388  -0.6816
6.415e+09  0.7139  -0.4884  -0.03964  0.05026  -0.003492  0.003786  0.3435  -0.8473
6.416e+09  0.5154  -0.7121  -0.005782  0.02132  0.01139  -0.04705  0.005112  -0.8932
6.418e+09  0.247  -0.8449  0.015  0.01219  0.008493  0.001947  -0.255  -0.8343
6.419e+09  -0.1083  -0.8011  -0.01439  0.01247  -0.02612  0.01473  -0.5571  -0.6774
6.42e+09  -0.4112  -0.7708  -0.01241  -0.01392  0.01658  0.02538  -0.7288  -0.4707
6.421e+09  -0.6294  -0.5409  0.000814  -0.01288  -0.005341  0.008208  -0.8584  -0.1815
6.422e+09  -0.7644  -0.2963  -0.0074  0.0231  0.002611  -0.0664  -0.8447  0.07894
6.424e+09  -0.8783  -0.02766  0.03291  0.01625  0.00136  -0.01314  -0.8024  0.4205
6.425e+09  -0.7942  0.2747  0.03215  0.003996  -0.01073  0.02399  -0.6211  0.6256
6.426e+09  -0.6558  0.5035  -0.00919  0.0006353  -0.01622  0.02023  -0.3173  0.8543
6.428e+09  -0.465  0.7514  0.01214  0.01172  -0.03134  -0.03023  -0.0536  0.8329
6.429e+09  -0.1527  0.866  0.03487  -0.03249  -0.04163  0.001161  0.2508  0.8641
6.43e+09  0.1685  0.8363  -0.006579  0.007796  -0.01732  -0.04097  0.511  0.7456
6.431e+09  0.4014  0.8046  -0.002478  0.006158  0.001132  0.01474  0.7185  0.4822
6.432e+09  0.6644  0.5595  -0.04931  -0.02052  0.008982  -0.0126  0.8439  0.1959
6.434e+09  0.7912  0.3181  -0.003967  -0.02428  0.009868  -0.0123  0.8576  -0.1183
6.435e+09  0.8115  -0.00527  0.006592  0.03183  -0.01403  -0.03303  0.7987  -0.3995
6.436e+09  0.76  -0.2691  -0.02584  -0.05311  -0.003213  0.03576  0.5863  -0.5907
6.438e+09  0.6518  -0.522  0.0367  -0.01321  -0.0006113  -0.03636  0.3329  -0.7883
6.439e+09  0.4414  -0.7398  0.01519  0.03118  -0.008099  -0.02139  0.06045  -0.8567
6.44e+09  0.1407  -0.8202  -0.01936  -0.01044  -0.03239  0.02244  -0.1834  -0.8556
6.441e+09  -0.1531  -0.8784  0.04486  0.004156  -0.05225  -0.01346  -0.503  -0.6911
6.442e+09  -0.4111  -0.7829  -0.01667  -0.02487  -0.04267  -0.04949  -0.6752  -0.5224
6.444e+09  -0.638  -0.5429  0.0007237  -0.03891  -0.04172  -0.07089  -0.8681  -0.235
6.445e+09  -0.8192  -0.2883  0.04721  0.009152  -0.004073  0.03616  -0.8111  0.08372
6.446e+09  -0.8764  0.01221  -0.01744  -0.00654  -0.01027  -0.05487  -0.7407  0.3406
6.448e+09  -0.8147  0.2999  -0.004679  -0.02353  0.006688  -0.007292  -0.5882  0.6157
6.449e+09  -0.6639  0.5707  0.01264  -0.00718  0.02724  -0.02  -0.3435  0.7283
6.45e+09  -0.4303  0.7555  -0.009113  -0.02037  0.02296  0.008707  -0.07145  0.8224
6.451e+09  -0.162  0.8091  0.003219  -0.03432  -0.01511  0.02444  0.2157  0.802
6.452e+09  0.2161  0.8244  -0.002536  0.05359  0.02569  0.02116  0.4571  0.6902
6.454e+09  0.4448  0.7628  -0.01457  -0.01364  -0.04148  -0.01226  0.7447  0.4797
6.455e+09  0.6747  0.5579  0.01413  0.03134  0.002847  0.005073  0.7457  0.2583
6.456e+09  0.7651  0.2824  0.0129  0.01806  -0.002625  -0.03699  0.8679  -0.0748
6.458e+09  0.8177  -0.05962  -0.01766  -0.03803  -0.04589  0.009589  0.7716  -0.3177
6.459e+09  0.7786  -0.2574  0.01423  0.009093  0.04364  0.01324  0.5989  -0.5746
6.46e+09  0.6321  -0.5533  -0.01607  -0.04126  -0.01457  0.004864  0.3489  -0.7287
6.461e+09  0.3428  -0.7437  -0.0224  -0.02033  -0.001936  -0.0362  0.07489  -0.8033
6.462e+09  0.1626  -0.8449  -0.06996  -0.01004  0.00679  -0.01904  -0.2294  -0.7946
6.464e+09  -0.1663  -0.8504  0.03261  -0.005113  -0.02564  -0.03489  -0.4838  -0.6453
6.465e+09  -0.4345  -0.6938  -0.02812  0.008446  0.003688  -0.00516  -0.6649  -0.4342
6.466e+09  -0.6983  -0.5339  0.01602  -0.03358  -0.002889  0.01252  -0.759  -0.1907
6.468e+09  -0.7757  -0.3435  0.00126  0.01737  0.009368  0.002541  -0.7346  0.08383
6.469e+09  -0.873  0.001615  0.02848  0.01579  -0.006464  -0.009494  -0.7271  0.3709
6.47e+09  -0.8154  0.3206  -0.02342  0.0006537  -0.04604  0.005815  -0.5625  0.5174
6.471e+09  -0.6291  0.603  -0.007079  0.08677  -0.01021  0.009242  -0.3439  0.7076
6.472e+09  -0.4057  0.748  0.01301  -0.01979  0.0103  0.04772  -0.06087  0.7799
6.474e+09  -0.121  0.8715  0.006181  0.02674  0.01567  0.03016  0.2122  0.7373
6.475e+09  0.1642  0.8362  0.01193  0.03938  -0.003445  -0.001517  0.4983  0.6565
6.476e+09  0.4406  0.7605  0.01281  0.02937  -0.007476  0.01518  0.6371  0.4348
6.478e+09  0.6959  0.545  -0.01104  -0.0001752  0.04757  -0.000186  0.7423  0.1835
6.479e+09  0.8258  0.3171  -0.02764  0.005045  0.02469  0.004666  0.798  -0.107
6.48e+09  0.8905  -0.05134  0.01116  -0.0005687  0.02747  0.01335  0.7332  -0.3221
6.481e+09  0.8249  -0.3368  0.04483  0.01424  -0.01652  -0.03049  0.5226  -0.5626
6.482e+09  0.6318  -0.5842  0.05824  0.01995  0.002737  -0.02841  0.3311  -0.7013
6.484e+09  0.4129  -0.7404  -0.008855  -0.0297  -0.03867  0.0363  0.06647  -0.7865
6.485e+09  0.1133  -0.9138  0.003818  0.0002306  0.03072  0.005703  -0.2695  -0.7254
6.486e+09  -0.1802  -0.86  0.001604  0.002125  -0.01436  0.02148  -0.4403  -0.6618
6.488e+09  -0.9982  -1.265  0.02138  -0.03332  0.3923  0.6523  -0.6379  -0.406
6.489e+09  -0.7035  -0.5264  0.02313  -0.01144  -0.02097  0.008736  -0.7531  -0.1789
6.49e+09  -0.8935  -0.2462  -0.02258  -0.00934  0.02097  -0.03766  -0.7559  0.08305
6.491e+09  -0.8683  0.05489  0.007056  -0.05143  -0.01189  0.009682  -0.6982  0.3348
6.492e+09  -0.8208  0.3372  -0.02157  -0.01943  -0.04511  0.005089  -0.5112  0.5259
6.494e+09  -0.6777  0.6788  0.002709  0.01464  -0.06407  0.05921  -0.2813  0.708
6.495e+09  -0.3668  0.795  -0.004225  0.03052  0.02846  0.008541  -0.017  0.7704
6.496e+09  -0.07568  0.9181  0.02286  0.02322  0.04661  0.01754  0.2375  0.7296
6.498e+09  0.232  0.8782  0.01645  -0.008008  -0.00962  0.02187  0.4556  0.6466
6.499e+09  0.5048  0.7394  0.009944  0.01594  -0.006405  -0.01553  0.6489  0.4473
6.5e+09  0.7404  0.5714  -0.02224  0.0152  0.01301  0.006995  0.7666  0.1779
6.501e+09  0.9103  0.2296  0.01841  -0.02944  0.002042  -0.03463  0.735  -0.1043
6.502e+09  0.8844  -0.08794  -0.01123  0.009521  -0.005045  -0.01242  0.6841  -0.3242
6.504e+09  0.8284  -0.4223  0.01247  -0.0089  -2.809e-05  0.03816  0.52  -0.557
6.505e+09  0.6242  -0.6564  -0.03574  0.02177  0.001961  -0.01423  0.2835  -0.7002
6.506e+09  0.3286  -0.8707  -0.00351  0.01238  -0.01416  0.02658  0.01753  -0.7598
6.508e+09  0.0298  -0.9296  0.05011  -0.03235  -0.03563  0.03631  -0.2268  -0.6913
6.509e+09  -0.2635  -0.8928  -0.006933  0.04453  -0.0252  -0.0166  -0.4876  -0.5634
6.51e+09  -0.5754  -0.7348  0.009453  -0.006085  0.008573  -0.01007  -0.6314  -0.3654
6.511e+09  -0.7639  -0.491  -0.04629  0.01676  -0.05878  -0.004244  -0.7743  -0.1514
6.512e+09  -0.9432  -0.1959  -0.00497  0.008147  -0.0168  0.02221  -0.7433  0.1366
6.514e+09  -0.8779  0.1214  0.02994  -0.01575  0.02518  -0.01093  -0.6608  0.358
6.515e+09  -0.8056  0.4088  0.003123  0.01506  0.009628  -0.004902  -0.4872  0.5502
6.516e+09  -0.662  0.6573  0.007375  0.01387  -0.02951  0.001353  -0.2637  0.7211
6.518e+09  -0.3626  0.8458  -0.06061  0.004321  -0.02858  0.002343  0.0349  0.7265
6.519e+09  -0.001508  0.978  -0.03473  0.04726  -0.01108  -0.03803  0.2874  0.6919
6.52e+09  0.2967  0.8749  0.01173  -0.04471  -0.064  -0.03919  0.5385  0.573
6.521e+09  0.5684  0.7154  -0.008991  0.007567  -0.01255  0.01067  0.6464  0.3631
6.522e+09  0.845  0.4792  -0.007386  0.002383  -0.07329  -0.01512  0.7058  0.1305
6.524e+09  0.9232  0.1421  0.02433  -0.007312  -0.06379  -0.007203  0.7326  -0.1539
6.525e+09  0.9162  -0.1868  0.01114  0.02259  -0.03049  0.01765  0.5777  -0.3852
6.526e+09  0.7781  -0.5102  0.02585  -0.002597  0.02474  0.02285  0.4417  -0.5963
6.528e+09  0.5645  -0.7461  0.008825  -0.05245  0.03287  -0.01174  0.1807  -0.6584
6.529e+09  0.3186  -0.8846  -0.004983  -0.01148  -0.004749  0.005635  -0.08023  -0.7077
6.53e+09  -0.07795  -0.9158  -0.006301  0.004805  0.006536  0.00505  -0.2973  -0.659
6.531e+09  -0.343  -0.8604  0.01463  0.01233  -0.02939  -0.02768  -0.4316  -0.5217
6.532e+09  -0.6825  -0.7312  -0.009932  -0.006556  0.01917  -0.02089  -0.6075  -0.2342
6.534e+09  -0.8272  -0.4361  -0.005696  -0.01581  0.01408  0.03363  -0.6054  -0.09091
6.535e+09  -0.9233  -0.1149  -0.00556  0.009361  -0.03141  0.04959  -0.6364  0.1417
6.536e+09  -0.8841  0.2549  0.003434  0.01146  0.01475  0.01013  -0.5939  0.2991
6.538e+09  -0.799  0.5431  -0.0151  0.01482  -0.0172  0.02499  -0.4507  0.4467
6.539e+09  -0.5042  0.7689  -0.0172  -0.01743  0.01586  -0.006602  -0.2566  0.6109
6.54e+09  -0.2081  0.9071  0.005143  -0.06193  0.0006486  0.02636  -0.06606  0.7167
6.541e+09  0.09382  0.9348  0.004934  -0.0314  0.01513  -0.005504  0.209  0.6785
6.542e+09  0.4244  0.7803  0.01762  -0.002697  -0.009655  -0.01923  0.4167  0.5564
6.544e+09  0.6919  0.6416  -0.01067  -0.0451  0.05059  -0.01935  0.5913  0.3758
6.545e+09  0.8618  0.3777  0.005584  0.009243  0.04447  -0.01633  0.6889  0.1569
6.546e+09  0.8919  0.0003302  0.001346  -0.0184  0.0125  -0.02571  0.7015  -0.09905
6.548e+09  0.8894  -0.3342  0.002075  0.005121  -0.007564  -0.05941  0.6492  -0.3318
6.549e+09  0.682  -0.573  -0.02001  0.03875  -0.006254  -0.004252  0.501  -0.5379
6.55e+09  0.5056  -0.8266  -0.001703  -0.01638  -0.02708  0.01137  0.258  -0.6636
