# Hz S RI R 50
6.25e+09  -0.6188  0.544  -0.004851  -0.01319  -0.01121  -0.0101  0.1751  0.4857
6.251e+09  -0.4513  0.7069  -0.006998  -0.0413  0.006512  0.004385  0.3863  0.4236
6.252e+09  -0.1743  0.7953  -0.006912  0.005303  0.02967  0.005684  0.54  0.2568
6.254e+09  0.1201  0.792  0.0366  0.01691  0.02339  0.003172  0.5903  0.006112
6.255e+09  0.3892  0.7217  -0.02133  -0.004193  0.01375  -0.01893  0.5728  -0.2113
6.256e+09  0.5842  0.5149  0.05471  0.02263  0.06711  -0.04534  0.4922  -0.4527
6.258e+09  0.7872  0.3282  -0.005101  0.01149  -0.01948  -0.07694  0.2885  -0.608
6.259e+09  0.8166  0.06442  0.01105  -0.01291  0.03879  0.065  0.02741  -0.6777
6.26e+09  0.7124  -0.2125  0.003666  0.007144  0.007256  -0.01315  -0.2284  -0.6007
6.261e+09  0.6059  -0.4649  -0.01295  0.01875  -0.0422  0.01371  -0.4331  -0.539
6.262e+09  0.4338  -0.6714  0.02927  -0.007112  -0.0154  -0.004723  -0.6479  -0.343
6.264e+09  0.1411  -0.8025  0.01267  0.006496  0.003204  -0.01682  -0.6801  -0.1074
6.265e+09  -0.128  -0.8126  -0.00389  0.02709  -0.01566  0.01165  -0.7107  0.1418
6.266e+09  -0.4368  -0.7473  0.0005577  0.00922  -0.02743  -0.005453  -0.5968  0.3913
6.268e+09  -0.6309  -0.5403  -0.02766  -0.01623  0.02442  0.01495  -0.4532  0.5886
6.269e+09  -0.7326  -0.2915  -0.01041  0.00841  -0.02718  0.02945  -0.2067  0.7018
6.27e+09  -0.8797  0.00645  -0.0148  0.002315  0.02244  0.03273  0.03176  0.733
6.271e+09  -0.792  0.2342  -0.001277  -0.01081  0.007214  0.02817  0.3437  0.645
6.272e+09  -0.6426  0.5117  -0.0004823  0.0009647  0.005501  0.01463  0.5366  0.4912
6.274e+09  -0.4096  0.6988  0.001851  0.0008778  -0.01835  -0.003875  0.703  0.2845
6.275e+09  -0.1633  0.8214  0.01049  -0.0153  0.01979  -0.05873  0.7813  0.01137
6.276e+09  0.07551  0.7823  -0.001841  -0.007265  0.005654  -0.01035  0.6982  -0.2054
6.278e+09  0.4149  0.7048  -0.02552  0.02956  0.03029  0.04203  0.5903  -0.4232
6.279e+09  0.6116  0.4451  0.0138  0.00915  0.01495  0.02934  0.4264  -0.6586
6.28e+09  0.7545  0.3396  0.01545  -0.002263  -0.008675  -0.0114  0.1761  -0.7553
6.281e+09  0.8315  -0.02146  0.02157  0.004183  0.0247  -0.01437  -0.09856  -0.7842
6.282e+09  0.7622  -0.2478  0.003277  0.01471  0.001338  -0.01551  -0.3772  -0.7046
6.284e+09  0.6294  -0.5094  -0.008957  -0.004046  -0.02849  -0.01437  -0.5701  -0.5724
6.285e+09  0.4139  -0.6956  0.02453  0.009953  -0.01335  -0.01409  -0.727  -0.3013
6.286e+09  0.1387  -0.753  0.03188  0.0354  0.04721  -0.01414  -0.8069  -0.009284
6.288e+09  -0.1509  -0.8212  -0.02334  0.0187  0.02438  0.01036  -0.7627  0.2503
6.289e+09  -0.4045  -0.6611  -0.0006078  -0.009002  -0.0157  0.04785  -0.5913  0.4898
6.29e+09  -0.5546  -0.4706  0.004931  -0.01174  0.002624  -0.01104  -0.4132  0.6911
6.291e+09  -0.7625  -0.2253  -0.01392  -0.001788  0.00482  -0.0003347  -0.1519  0.779
6.292e+09  -0.773  0.04104  0.03619  -0.03402  -0.02476  0.07142  0.09549  0.7929
6.294e+09  -0.7483  0.2719  -0.04533  0.02537  0.02728  0.003329  0.4206  0.7241
6.295e+09  -0.5777  0.5397  0.002072  -0.01208  0.008176  0.01934  0.592  0.5502
6.296e+09  -0.3827  0.7039  -0.00609  -0.005176  0.04073  0.007769  0.789  0.2934
6.298e+09  -0.1149  0.7669  -0.01151  -0.001485  -0.01627  0.02386  0.814  -0.0001748
6.299e+09  0.1873  0.7854  0.02554  -0.02138  -0.03315  0.01016  0.7855  -0.2548
6.3e+09  0.4418  0.696  -0.03936  0.02222  0.008008  0.04108  0.6557  -0.5359
6.301e+09  0.6594  0.4526  -0.04044  -0.01196  -0.0006827  -0.006813  0.4136  -0.7081
6.302e+09  0.7706  0.2313  0.03957  0.02414  0.001583  -0.003304  0.1675  -0.8359
6.304e+09  0.7815  -0.06576  0.005359  -0.00052  -0.008461  0.01638  -0.1406  -0.8251
6.305e+09  0.7726  -0.2942  0.01277  0.01542  -0.0526  0.03742  -0.3868  -0.7332
6.306e+09  0.6036  -0.6007  0.03256  0.002914  -0.01003  0.009529  -0.6539  -0.541
6.308e+09  0.3696  -0.7102  0.01253  0.01789  0.03988  0.01725  -0.7859  -0.2775
6.309e+09  0.1171  -0.7792  0.02208  -0.001004  -0.01732  0.005048  -0.8513  -0.03639
6.31e+09  -0.1811  -0.7723  0.003877  0.007014  0.03519  -0.02935  -0.7803  0.3081
6.311e+09  -0.4916  -0.6938  -0.01304  -0.0009885  0.0313  0.02339  -0.6452  0.5378
6.312e+09  -0.6555  -0.4759  0.01785  -0.01109  -0.03131  0.04174  -0.4207  0.7524
6.314e+09  -0.7837  -0.1841  -0.001743  0.007127  -0.01277  -0.01538  -0.1606  0.8738
6.315e+09  -0.7784  0.1163  -0.0007338  0.003283  0.04784  -0.02318  0.1042  0.8519
6.316e+09  -0.7191  0.3588  -0.006014  0.01524  0.03794  -0.0515  0.3941  0.7753
6.318e+09  -0.5313  0.5672  -0.009002  -0.009843  -0.02839  0.004808  0.6462  0.5732
6.319e+09  -0.3062  0.7819  0.02046  -0.003915  -0.03885  -0.02871  0.7793  0.3197
6.32e+09  -0.07136  0.7879  -0.003619  0.01708  -0.01164  -0.02206  0.8992  -0.03513
6.321e+09  0.1885  0.7765  -0.0009349  -0.01195  -0.06596  0.0142  0.824  -0.2858
6.322e+09  0.5245  0.6191  -0.01624  -0.007494  0.009074  0.01343  0.6683  -0.5583
6.324e+09  0.6625  0.4714  -0.02687  -0.001736  0.02513  -0.0001288  0.4912  -0.7768
6.325e+09  0.7938  0.2037  0.04711  -0.01609  -0.006393  -0.03295  0.2068  -0.8648
6.326e+09  0.8126  -0.1024  0.01579  0.01611  0.03122  0.02364  -0.1425  -0.8727
6.328e+09  0.7103  -0.4093  0.006408  -0.006189  0.002389  0.0154  -0.4583  -0.7528
6.329e+09  0.5406  -0.6077  -0.002063  -0.0132  -0.01726  -0.02841  -0.6379  -0.5833
6.33e+09  0.3079  -0.7653  0.03245  0.00277  0.02711  -0.04253  -0.8529  -0.3424
6.331e+09  -0.003879  -0.8234  -0.005421  -0.02245  -0.02321  0.01998  -0.9142  -0.02657
6.332e+09  -0.2832  -0.803  -0.01879  0.00666  -0.02528  0.007958  -0.827  0.2822
6.334e+09  -0.5606  -0.6333  -0.008821  -0.01392  0.04077  0.01138  -0.7224  0.5667
6.335e+09  -0.7352  -0.3942  0.01382  0.01181  -0.0201  -0.02739  -0.4915  0.7345
6.336e+09  -0.8305  -0.1108  0.00917  0.01235  -0.02335  -0.005594  -0.2402  0.8584
6.338e+09  -0.794  0.1928  -0.006363  -0.004135  -0.002396  -0.04459  0.09353  0.9405
6.339e+09  -0.7117  0.4757  0.008991  -0.01468  -0.03215  0.02197  0.421  0.8361
6.34e+09  -0.5428  0.6971  -0.02922  -0.02719  0.03368  0.01201  0.675  0.6312
6.341e+09  -0.1913  0.8047  0.003911  -0.01995  -0.02146  0.05146  0.8548  0.3699
6.342e+09  -0.02087  0.8571  -0.0258  0.001187  0.04219  0.005555  0.9314  0.04405
6.344e+09  0.3543  0.7881  -0.007837  0.01437  0.04074  -0.02191  0.8635  -0.2647
6.345e+09  0.6061  0.5708  -0.005344  0.002089  0.04  0.04474  0.7401  -0.5775
6.346e+09  0.7782  0.3882  0.02101  0.003622  -0.006769  0.02444  0.4939  -0.7476
6.348e+09  0.8655  0.05316  0.003236  -0.01773  0.004343  -0.01016  0.2137  -0.8979
6.349e+09  0.8079  -0.2169  0.01795  -0.02797  0.06604  0.001824  -0.06007  -0.9029
6.35e+09  0.7161  -0.4542  -0.02289  -0.003537  0.01092  -0.01087  -0.4202  -0.8488
6.351e+09  0.4553  -0.7246  -0.006417  -0.0248  0.00495  -0.02666  -0.6794  -0.6488
6.352e+09  0.132  -0.8162  0.01914  0.0233  -0.009056  0.02223  -0.8759  -0.4032
6.354e+09  -0.09488  -0.866  -0.01542  0.02802  0.011  0.02352  -0.935  -0.01837
6.355e+09  -0.4306  -0.7399  -0.0125  -0.01509  -0.05163  -0.02319  -0.8757  0.2401
6.356e+09  -0.6553  -0.5119  0.01933  -0.03527  -0.01261  0.01565  -0.7543  0.5613
6.358e+09  -0.8412  -0.2725  0.01312  -0.02382  0.02384  0.01791  -0.491  0.8006
6.359e+09  -0.8379  -0.01935  -0.00174  -0.02219  0.008082  0.01546  -0.2554  0.9479
6.36e+09  -0.8205  0.2935  0.004011  0.005604  0.004549  0.01253  0.09552  0.9436
6.361e+09  -0.6796  0.5705  -0.0182  -0.007439  0.01718  -0.04589  0.403  0.8241
6.362e+09  -0.42  0.7615  0.0257  -0.02669  0.02455  -0.01466  0.6578  0.6398
6.364e+09  -0.1873  0.8427  0.01713  -0.01186  0.006655  0.008908  0.8363  0.4032
6.365e+09  0.1514  0.8626  0.006911  0.01708  -0.01841  0.01062  0.9456  0.06373
6.366e+09  0.4864  0.7559  0.02975  0.004591  -0.002441  0.00494  0.9107  -0.2448
6.368e+09  0.6773  0.5125  0.03481  0.01945  0.02005  0.03141  0.7572  -0.556
6.369e+09  0.7936  0.2665  0.01739  -0.008228  0.01944  0.03503  0.5925  -0.7993
6.37e+09  0.8585  -0.03951  0.01719  -0.009349  0.004961  0.02246  0.2643  -0.9049
6.371e+09  0.807  -0.3542  -0.01877  0.008308  -0.002356  0.02006  -0.08311  -0.9366
6.372e+09  0.5868  -0.5932  0.01819  0.006612  -0.01064  0.006305  -0.4116  -0.8401
6.374e+09  0.3685  -0.7369  0.0551  0.004334  0.02509  0.02156  -0.6258  -0.6856
6.375e+09  0.04021  -0.885  -0.01759  -0.03494  -0.0342  -0.00451  -0.8418  -0.403
6.376e+09  -0.1918  -0.8353  0.01025  -0.01102  -0.008528  -0.01166  -0.9522  -0.09764
6.378e+09  -0.5093  -0.7097  -0.01675  0.01008  -0.02594  -0.02391  -0.916  0.2346
6.379e+09  -0.7211  -0.5307  -0.02366  0.001483  -0.0149  0.02455  -0.7802  0.5472
6.38e+09  -0.8289  -0.1794  0.01121  -0.02666  0.02863  0.03813  -0.5411  0.752
6.381e+09  -0.8644  0.1274  0.001133  -0.0119  0.009343  0.006127  -0.297  0.9074
6.382e+09  -0.7526  0.3784  -0.01262  -0.03347  0.02217  -0.03487  0.05123  0.962
6.384e+09  -0.5818  0.6571  -0.04814  -0.01503  0.02717  0.02938  0.3564  0.8766
6.385e+09  -0.3011  0.7774  0.01913  -0.02744  0.02172  0.01526  0.6224  0.6943
6.386e+09  0.01259  0.8476  0.02771  -0.04719  0.05536  -0.02864  0.8037  0.3855
6.388e+09  0.2809  0.8476  -0.006755  0.005494  -0.0002749  -0.01896  0.9356  0.1352
6.389e+09  0.5087  0.6724  0.01517  0.005061  0.002722  -0.0061  0.8869  -0.2081
6.39e+09  0.7395  0.4578  -0.009672  0.01825  -0.02032  -0.001907  0.7778  -0.5275
6.391e+09  0.8692  0.1605  -0.004906  0.01893  -0.02131  0.03666  0.5662  -0.7374
6.392e+09  0.8442  -0.1574  0.02928  0.02185  0.0007704  0.005863  0.3024  -0.9067
6.394e+09  0.7101  -0.4564  0.001274  -0.01758  -0.01075  -0.03487  -0.02645  -0.9171
6.395e+09  0.5413  -0.6756  -0.01697  0.004259  -0.01592  -0.007723  -0.3857  -0.8371
6.396e+09  0.3407  -0.8354  0.001498  -0.02571  -0.04079  0.005065  -0.6404  -0.7011
6.398e+09  -0.06624  -0.8832  -0.01985  -0.01363  -0.02995  -0.05819  -0.8261  -0.3951
6.399e+09  -0.3095  -0.7868  0.002654  -0.002569  -0.001885  0.01961  -0.9054  -0.144
6.4e+09  -0.5636  -0.6018  -0.02663  -0.01684  0.01327  -0.0144  -0.8533  0.1417
6.401e+09  -0.7445  -0.3689  -0.01973  -0.0115  0.01406  -0.04693  -0.8256  0.4836
6.402e+09  -0.8162  -0.08693  -0.02614  0.004349  0.01578  0.03232  -0.5893  0.7065
6.404e+09  -0.8063  0.2578  -0.01206  -0.02159  -0.03168  0.01606  -0.283  0.8723
6.405e+09  -0.7041  0.4376  0.01684  0.01414  0.02061  -0.01759  0.002334  0.9491
6.406e+09  -0.4775  0.6159  0.007222  -0.06856  0.01572  -0.04748  0.2759  0.8886
6.408e+09  -0.2829  0.7566  -0.02508  -0.02502  0.01062  -0.02182  0.6205  0.691
6.409e+09  0.07301  0.8302  -0.006552  -0.004963  -0.01913  0.005865  0.8006  0.4407
6.41e+09  0.3245  0.8328  0.01497  0.01682  0.02577  0.0004776  0.8715  0.203
6.411e+09  0.6024  0.6373  0.05201  0.03525  -0.01874  -0.02407  0.8817  -0.1522
6.412e+09  0.73  0.4177  0.02456  -0.06034  0.02199  0.03372  0.7851  -0.4606
6.414e+09  0.8072  0.1121  -0.03389  0.005404  0.03774  0.01259  0.5843  -0.6943
6.415e+09  0.8572  -0.2311  0.004195  0.004646  -0.0515  0.009276  0.3003  -0.8496
6.416e+09  0.6543  -0.4815  0.01758  -0.04397  0.01857  0.02329  0.005572  -0.924
6.418e+09  0.4894  -0.7125  -0.02388  0.06219  -0.01056  0.02015  -0.2555  -0.8041
6.419e+09  0.191  -0.8102  -0.001837  0.02491  0.02547  -0.01198  -0.5779  -0.7138
6.42e+09  -0.08807  -0.8244  0.055  -0.001321  -0.01312  0.01464  -0.7438  -0.4652
6.421e+09  -0.353  -0.7414  0.002909  0.01533  0.03241  0.02862  -0.8178  -0.2203
6.422e+09  -0.633  -0.6298  0.03537  0.02695  0.01874  -0.01292  -0.8906  0.09796
6.424e+09  -0.7913  -0.3876  0.01433  -0.02409  -0.02508  -0.00905  -0.8057  0.4155
6.425e+09  -0.8611  -0.05255  0.00132  0.0144  -0.0198  -0.02725  -0.6473  0.6265
6.426e+09  -0.8371  0.198  -0.03512  0.007187  -0.01313  0.004085  -0.3794  0.8221
6.428e+09  -0.6897  0.5411  -0.0003755  -0.0544  -0.001087  0.02004  -0.07945  0.8349
6.429e+09  -0.4921  0.7431  -0.009145  -0.00269  0.04407  -0.003831  0.2347  0.8101
6.43e+09  -0.2176  0.7812  -0.03249  -0.0233  -0.02277  0.009571  0.4692  0.6933
6.431e+09  0.07839  0.8031  0.03185  -0.0002534  0.01345  -0.02424  0.746  0.4943
6.432e+09  0.3639  0.8042  0.005097  -0.0287  -0.0289  0.0111  0.8425  0.1999
6.434e+09  0.6273  0.5999  0.01171  -0.005027  0.04193  0.006616  0.8975  -0.08957
6.435e+09  0.7444  0.3878  0.002114  0.02669  -0.01327  0.02434  0.7804  -0.3691
6.436e+09  0.8638  0.018  0.06962  -0.03717  0.01965  -0.0004701  0.5738  -0.6112
6.438e+09  0.7789  -0.1437  -0.07134  -0.03152  0.01024  -0.003408  0.3073  -0.7759
6.439e+09  0.6901  -0.5057  -0.01945  -0.04876  0.04185  -0.008955  0.1067  -0.8338
6.44e+09  0.4982  -0.6812  0.02089  0.01754  -0.01823  0.03529  -0.2356  -0.84
6.441e+09  0.1669  -0.7798  0.01591  -0.007299  -0.02023  0.01093  -0.4954  -0.689
6.442e+09  -0.1166  -0.8258  -0.005375  -0.02847  0.01972  -0.03674  -0.7135  -0.4853
6.444e+09  -0.3954  -0.7314  -0.01673  0.01917  -0.005202  0.03198  -0.7719  -0.235
6.445e+09  -0.6316  -0.5472  0.02838  -0.03879  -0.04939  -0.05582  -0.8801  0.08474
6.446e+09  -0.7869  -0.3314  -0.0004943  -0.01025  0.02709  0.003194  -0.7539  0.3678
6.448e+09  -0.8728  -0.03391  -0.01357  0.01774  -0.05638  0.01183  -0.6011  0.6422
6.449e+09  -0.7726  0.2674  0.0204  0.006442  0.003601  0.007849  -0.3674  0.7538
6.45e+09  -0.6519  0.4997  0.01909  -0.04251  0.01213  -0.03259  -0.08886  0.7993
6.451e+09  -0.451  0.689  -0.009383  -0.0375  -0.02083  0.007297  0.1981  0.814
6.452e+09  -0.1565  0.8254  -0.04671  0.0501  -0.03042  -0.001376  0.5432  0.6824
6.454e+09  0.08855  0.8504  0.001365  0.02424  0.01067  -0.007767  0.642  0.4874
6.455e+09  0.3815  0.7284  -0.03184  -0.03377  -0.002885  -0.01324  0.7636  0.2202
6.456e+09  0.636  0.5581  0.0419  -0.01868  -0.04093  -0.0182  0.8053  -0.06896
6.458e+09  0.7835  0.3471  0.009634  0.00351  -0.04924  0.02799  0.7066  -0.3892
6.459e+09  0.8751  0.05558  -0.01698  0.00179  -0.009425  -6.601e-05  0.5864  -0.5769
6.46e+09  0.8301  -0.2566  0.0004123  0.02932  -0.01138  0.042  0.3624  -0.7772
6.461e+09  0.637  -0.4762  0.006496  0.02982  0.01357  0.007994  0.1219  -0.8177
6.462e+09  0.4719  -0.693  0.02133  0.04769  0.06597  0.01659  -0.1763  -0.8022
6.464e+09  0.2113  -0.8354  -0.0009771  -0.02823  0.003147  -0.03399  -0.4669  -0.6482
6.465e+09  -0.1521  -0.7799  0.01896  0.0208  -0.03426  0.0394  -0.6658  -0.491
6.466e+09  -0.4143  -0.7528  0.02537  -0.01759  0.01204  -0.05581  -0.7772  -0.2045
6.468e+09  -0.6315  -0.5812  -0.008545  0.01592  -0.0021  -0.02908  -0.7727  0.04901
6.469e+09  -0.7204  -0.2797  -0.007053  0.0267  0.01188  0.02795  -0.7493  0.3414
6.47e+09  -0.8745  -0.03633  -0.0003329  0.0135  0.01738  0.02728  -0.5542  0.569
6.471e+09  -0.7464  0.2689  0.01254  0.02821  0.01667  -0.03567  -0.3354  0.7194
6.472e+09  -0.6571  0.5434  -0.01394  -0.04257  -0.01086  0.02131  -0.01212  0.8272
6.474e+09  -0.4196  0.6444  0.02486  -0.01115  0.009056  0.01489  0.1992  0.76
6.475e+09  -0.1575  0.853  -0.02698  0.01296  0.04237  -0.01322  0.4639  0.6326
6.476e+09  0.1824  0.8344  0.02279  0.01774  -0.01044  0.03999  0.6362  0.4206
6.478e+09  0.3983  0.7832  -0.003959  0.0184  -0.05755  0.02535  0.7565  0.2176
6.479e+09  0.6264  0.5569  -0.02291  -0.04252  -0.0134  0.0553  0.7262  -0.09938
6.48e+09  0.7845  0.2948  0.01029  0.005013  0.02323  -0.03735  0.7123  -0.3468
6.481e+09  0.8912  0.04582  0.01864  0.01792  0.004105  0.0108  0.5329  -0.5557
6.482e+09  0.7943  -0.3153  -0.0404  -0.005304  0.03659  0.0002523  0.3605  -0.7159
6.484e+09  0.5865  -0.5667  0.02588  0.005239  0.01932  -0.02751  0.07127  -0.7181
6.485e+09  0.4441  -0.7418  -0.01515  -0.002572  0.004096  -0.02515  -0.2007  -0.695
6.486e+09  0.1917  -0.8688  -0.01236  -0.02414  -0.01746  -0.013  -0.4432  -0.6361
6.488e+09  0.5153  -1.14  0.02365  -0.01787  0.03126  0.7094  -0.6498  -0.4365
6.489e+09  -0.4382  -0.7794  0.02312  -0.02206  -0.002529  -0.01238  -0.7838  -0.1964
6.49e+09  -0.7142  -0.5223  -0.008037  0.007103  0.02951  0.02919  -0.763  0.07237
6.491e+09  -0.8401  -0.3389  0.04226  0.02999  0.006608  -0.026  -0.7235  0.2899
6.492e+09  -0.7953  0.003598  -0.05259  0.04176  -0.004874  -0.03247  -0.5383  0.5306
6.494e+09  -0.8242  0.1998  0.0164  -0.01937  0.116  -0.01956  -0.2959  0.7484
6.495e+09  -0.7069  0.5919  0.009241  -0.008577  0.01392  -0.001038  -0.01274  0.7566
6.496e+09  -0.426  0.778  0.07398  0.01449  0.002287  0.04279  0.205  0.6931
6.498e+09  -0.1175  0.843  -0.03407  -0.01967  -0.005099  0.01313  0.4978  0.5891
6.499e+09  0.1915  0.8762  0.02612  -0.01121  -0.01896  0.004932  0.653  0.4054
6.5e+09  0.4605  0.722  -0.002773  0.0031  -0.02566  -0.03676  0.7623  0.1882
6.501e+09  0.6932  0.5854  -0.003568  0.004822  -0.01193  0.03059  0.742  -0.1256
6.502e+09  0.8374  0.3104  0.01457  -0.04925  -0.03166  0.007921  0.6868  -0.3938
6.504e+09  0.8705  0.01144  -0.02754  0.02281  0.008805  0.03955  0.5083  -0.5808
6.505e+09  0.8354  -0.3092  -0.02861  0.0001644  0.02464  0.04572  0.2878  -0.7067
6.506e+09  0.6514  -0.5241  0.03556  0.02363  0.03988  0.01335  0.01667  -0.7671
6.508e+09  0.3809  -0.8002  -0.000645  -0.01347  -0.02591  0.04633  -0.218  -0.7242
6.509e+09  0.1257  -0.8689  0.02872  0.003613  -0.01926  0.01222  -0.4611  -0.6081
6.51e+09  -0.1374  -0.8687  -0.0116  -0.01656  -0.003601  -0.001962  -0.6627  -0.3943
6.511e+09  -0.4952  -0.723  -0.03631  -0.01417  0.02835  0.01457  -0.7087  -0.1424
6.512e+09  -0.7038  -0.5392  -0.01378  0.009824  -0.04028  -0.006971  -0.7463  0.1455
6.514e+09  -0.8487  -0.2766  -0.01318  0.005158  -0.03026  0.008019  -0.6443  0.4045
6.515e+09  -0.9336  0.05749  -0.0082  0.03836  -0.002742  0.03165  -0.4614  0.5948
6.516e+09  -0.8283  0.3439  -0.003524  0.0119  0.004972  -0.05262  -0.2476  0.7064
6.518e+09  -0.6956  0.6675  0.01086  -0.01302  -0.006466  0.0009104  0.01477  0.7623
6.519e+09  -0.4117  0.8505  0.00696  0.001344  0.02601  0.02014  0.2563  0.6856
6.52e+09  -0.0805  0.8847  0.01823  0.0003851  -0.01498  0.01315  0.5456  0.5147
6.521e+09  0.2392  0.9029  -0.007175  -0.0101  -0.01305  0.03128  0.6649  0.3564
6.522e+09  0.5184  0.7419  0.01744  0.04523  0.0366  -0.00915  0.7603  0.1187
6.524e+09  0.7563  0.5215  -0.02914  -0.01997  -0.01981  -0.008776  0.6903  -0.1263
6.525e+09  0.8872  0.1852  -0.01613  0.0135  0.00676  -0.04633  0.6292  -0.3742
6.526e+09  0.8842  -0.09811  0.004586  -0.006568  0.02193  -0.02366  0.4231  -0.557
6.528e+09  0.8228  -0.4409  -0.02519  0.0162  0.01207  0.008833  0.1733  -0.6793
6.529e+09  0.6491  -0.7108  0.03231  -0.006437  -0.01535  -0.01086  -0.08134  -0.7089
6.53e+09  0.3241  -0.8277  -0.01074  -0.007259  -0.01099  -0.01865  -0.3169  -0.6202
6.531e+09  0.07901  -0.9013  0.005798  -0.006733  0.01161  -0.01154  -0.4995  -0.4743
6.532e+09  -0.2913  -0.8373  0.004581  -0.005916  0.0004152  -0.0316  -0.5887  -0.3008
6.534e+09  -0.5433  -0.7955  -0.01893  0.008353  0.01001  0.03488  -0.6461  -0.08371
6.535e+09  -0.8454  -0.4343  -0.0201  0.001114  -0.02783  -0.03304  -0.6028  0.1352
6.536e+09  -0.9064  -0.1987  0.002567  0.009989  -0.02423  -0.02674  -0.5515  0.2926
6.538e+09  -0.9191  0.1739  -0.006096  0.01465  0.0253  0.004123  -0.4321  0.5004
6.539e+09  -0.8295  0.4742  0.00182  -0.001497  0.01135  -0.01051  -0.2802  0.596
6.54e+09  -0.5709  0.7191  -0.0172  -0.008536  0.002231  -0.00332  -0.08639  0.662
6.541e+09  -0.2965  0.8755  0.009462  0.008983  -0.03245  -0.0316  0.1546  0.7042
6.542e+09  -0.006958  0.997  0.01828  0.01545  -0.0106  0.02005  0.4149  0.5611
6.544e+09  0.3437  0.9089  -0.00943  -0.003749  0.04622  0.03407  0.5657  0.4065
6.545e+09  0.6296  0.7035  0.02568  0.004886  -0.01231  0.0443  0.6754  0.1563
6.546e+09  0.8568  0.4347  -0.0205  -0.01089  0.02306  -0.01499  0.7509  -0.07579
6.548e+09  0.9048  0.1094  -0.0001273  0.01879  -0.01574  -0.02953  0.6427  -0.3084
6.549e+09  0.9054  -0.1779  0.004627  -0.00174  -0.003636  -0.00314  0.4979  -0.5206
6.55e+09  0.7199  -0.5389  -0.04887  -0.009712  -0.006943  0.01692  0.2885  -0.6795
