# Hz S RI R 50
6.25e+09  -0.266  0.8147  -0.004436  0.01851  -0.016  0.02397  0.1873  0.5145
6.251e+09  -0.008448  0.7812  -0.01217  0.01873  0.02439  0.005053  0.3335  0.3959
6.252e+09  0.3271  0.7836  -0.002158  0.003995  0.04088  -0.001923  0.5181  0.2233
6.254e+09  0.5158  0.5995  -0.03233  -0.0115  0.02373  0.01216  0.601  -0.02141
6.255e+09  0.7294  0.4141  0.00889  0.02894  -0.001978  -0.03963  0.5483  -0.2204
6.256e+09  0.7889  0.1403  0.0115  -0.00757  0.06094  0.01765  0.4737  -0.4303
6.258e+09  0.7918  -0.1862  -0.003365  0.03028  -0.02185  -0.02117  0.2733  -0.612
6.259e+09  0.6916  -0.3889  0.01808  0.01636  0.02088  0.04531  0.02078  -0.6656
6.26e+09  0.4998  -0.614  0.01275  0.002676  -0.02056  -0.01675  -0.1838  -0.637
6.261e+09  0.3214  -0.7596  -0.0007446  -0.007624  0.02361  -0.01105  -0.4658  -0.5661
6.262e+09  0.03822  -0.793  -0.03944  -0.02792  -0.04514  -0.01092  -0.5938  -0.3859
6.264e+09  -0.2893  -0.792  0.03657  -0.01173  0.05015  -0.01143  -0.7462  -0.133
6.265e+09  -0.516  -0.5575  0.001394  0.04465  -0.007581  0.0465  -0.7005  0.1354
6.266e+09  -0.7021  -0.3832  0.04697  -0.01381  0.02545  0.0005536  -0.6122  0.3742
6.268e+09  -0.8063  -0.1111  -0.009973  0.005824  0.02131  0.05576  -0.4315  0.5788
6.269e+09  -0.812  0.1851  -0.0116  -0.01931  -0.006249  -0.09136  -0.1751  0.6991
6.27e+09  -0.6696  0.4497  -0.01904  -0.0004585  0.04668  0.01815  0.06146  0.7413
6.271e+09  -0.5139  0.6564  -0.02523  -0.01422  -0.07486  -0.06429  0.3005  0.7083
6.272e+09  -0.235  0.8098  0.000574  0.01715  0.0006866  0.004828  0.538  0.5431
6.274e+09  0.1083  0.751  -0.003058  0.01992  -0.008491  0.01567  0.6646  0.3149
6.275e+09  0.2989  0.7824  0.0006961  -0.02036  0.005534  -0.001732  0.7292  0.0523
6.276e+09  0.5172  0.6152  0.03067  0.01176  -0.01023  0.03961  0.7192  -0.2228
6.278e+09  0.6923  0.3214  0.01723  0.009627  0.01004  -0.02031  0.6373  -0.5097
6.279e+09  0.7892  0.1297  0.0065  0.01268  0.004401  0.03086  0.4208  -0.6624
6.28e+09  0.7662  -0.16  0.01613  0.006013  -0.0007139  0.05199  0.1547  -0.8025
6.281e+09  0.7245  -0.4611  -0.01979  -0.01146  -0.01766  -0.03263  -0.09197  -0.7634
6.282e+09  0.4826  -0.6526  0.02819  0.004237  0.03119  -0.01378  -0.3663  -0.6721
6.284e+09  0.2497  -0.7116  0.01655  -0.01515  0.0526  0.01898  -0.5808  -0.5074
6.285e+09  -0.09614  -0.8114  -0.007042  0.02952  0.002927  0.02676  -0.7348  -0.2929
6.286e+09  -0.2872  -0.7753  0.0008259  0.002131  0.0374  -0.01025  -0.8152  -0.01667
6.288e+09  -0.5756  -0.57  -0.007069  0.02339  -0.01291  0.05758  -0.7654  0.2448
6.289e+09  -0.7711  -0.3419  0.02101  0.02463  -0.05376  0.03931  -0.6419  0.5019
6.29e+09  -0.8384  -0.06321  -0.005873  -0.01115  0.008362  -0.06024  -0.43  0.6621
6.291e+09  -0.8177  0.2047  0.01261  -0.008418  0.01088  0.03192  -0.1445  0.777
6.292e+09  -0.6613  0.4595  -0.005481  0.004046  -0.02089  0.01791  0.1473  0.7998
6.294e+09  -0.4634  0.6552  -0.02202  0.01823  0.02686  -0.03087  0.3875  0.7244
6.295e+09  -0.1961  0.7533  -0.04518  -0.007632  -0.01626  -0.0249  0.6222  0.5596
6.296e+09  0.1175  0.8012  0.01491  0.00624  0.007359  0.004948  0.7466  0.3048
6.298e+09  0.3525  0.7432  0.03394  -0.01209  -0.02227  -0.01018  0.8476  0.00681
6.299e+09  0.6088  0.5493  -0.003219  0.02126  0.005794  -0.004668  0.7798  -0.2607
6.3e+09  0.7547  0.3103  0.005612  0.01332  0.02755  0.01771  0.6451  -0.5519
6.301e+09  0.7908  0.07205  -0.009577  -0.007129  -0.00462  0.05373  0.4194  -0.7029
6.302e+09  0.7173  -0.2674  -0.006227  -0.009104  -0.01579  -0.04218  0.1521  -0.8467
6.304e+09  0.6343  -0.4991  0.001846  -0.0344  0.002467  -0.0387  -0.09965  -0.8142
6.305e+09  0.456  -0.6743  0.005926  0.0138  0.03178  0.03339  -0.4229  -0.722
6.306e+09  0.2024  -0.7947  -0.01251  -0.004694  -0.01048  0.03831  -0.6397  -0.5596
6.308e+09  -0.1298  -0.8119  -0.03869  0.01668  -0.0191  0.03074  -0.7938  -0.3085
6.309e+09  -0.3719  -0.6854  -0.02265  0.02468  -0.01105  -0.01403  -0.8489  -0.02998
6.31e+09  -0.6498  -0.5276  -0.006579  0.005303  -0.0276  0.0031  -0.8135  0.2966
6.311e+09  -0.7903  -0.2614  -0.06834  0.02337  -0.005599  0.01577  -0.6797  0.5868
6.312e+09  -0.7965  -0.001924  -0.004261  0.01385  -0.002361  -0.009959  -0.4256  0.7485
6.314e+09  -0.7846  0.2981  -0.0008917  -0.03328  -0.02772  0.0184  -0.1521  0.8543
6.315e+09  -0.6148  0.5359  0.01502  0.02155  0.001896  -0.01519  0.137  0.8817
6.316e+09  -0.4103  0.7493  -0.003502  0.01149  0.009559  -0.01619  0.4276  0.7716
6.318e+09  -0.1138  0.7995  -0.007974  -0.002152  -0.01132  0.01741  0.6362  0.5565
6.319e+09  0.1792  0.8597  0.01842  0.01946  -0.0003056  0.0271  0.8088  0.3189
6.32e+09  0.4096  0.7349  -0.0352  -0.02477  -0.03156  0.008578  0.9034  0.004535
6.321e+09  0.6495  0.5266  0.03037  0.0143  -0.0108  0.01195  0.8255  -0.2737
6.322e+09  0.8042  0.2794  -0.0003634  0.005793  0.01017  0.0239  0.685  -0.5629
6.324e+09  0.7898  -0.05802  0.007851  0.01667  -0.0008423  0.0277  0.4458  -0.7593
6.325e+09  0.6817  -0.3162  -0.01391  0.008398  -0.02917  0.004881  0.1544  -0.8889
6.326e+09  0.595  -0.5774  0.009377  -0.01122  0.003482  -0.03134  -0.1201  -0.8915
6.328e+09  0.3755  -0.787  -0.005147  0.004252  0.02354  0.009917  -0.4685  -0.8007
6.329e+09  0.08607  -0.8423  0.002609  -0.01411  0.002421  0.0294  -0.7031  -0.5794
6.33e+09  -0.2002  -0.8092  -0.00507  -0.0004618  0.03452  -0.08264  -0.8482  -0.3316
6.331e+09  -0.5159  -0.6894  0.01353  -0.006314  0.03043  -0.006075  -0.8981  -0.01176
6.332e+09  -0.706  -0.4654  -0.01808  -0.01719  0.04847  0.003051  -0.86  0.3076
6.334e+09  -0.8511  -0.1588  -0.005619  0.02182  0.004323  -0.0004218  -0.7719  0.5712
6.335e+09  -0.8015  0.07463  -0.01883  -0.002816  -0.0139  -0.01124  -0.4683  0.7414
6.336e+09  -0.7504  0.3688  0.03414  0.02044  0.0218  -0.0237  -0.2028  0.9199
6.338e+09  -0.5983  0.6199  -0.02658  0.004259  0.003428  -0.01664  0.08367  0.9027
6.339e+09  -0.2746  0.7811  -0.009221  0.002827  0.03929  -0.03175  0.4192  0.8169
6.34e+09  -0.03454  0.8307  0.002114  0.007559  0.03047  -0.0002011  0.6572  0.6238
6.341e+09  0.2594  0.8259  0.008487  -0.01179  0.008677  0.006424  0.8661  0.3638
6.342e+09  0.5106  0.6675  0.03355  0.0272  0.00923  0.007958  0.9395  0.0624
6.344e+09  0.7567  0.4531  0.01181  -0.001612  -0.002325  -0.05566  0.8416  -0.2516
6.345e+09  0.8391  0.1389  -0.01218  -0.01024  0.02028  0.01046  0.7303  -0.5576
6.346e+09  0.7957  -0.1787  -0.007774  0.01002  0.01671  -0.02252  0.497  -0.8229
6.348e+09  0.7669  -0.4159  -0.003747  -0.04679  0.01931  -0.01076  0.2027  -0.914
6.349e+09  0.5704  -0.6575  0.02046  -0.008948  0.003145  0.0172  -0.1051  -0.9326
6.35e+09  0.2773  -0.8119  -0.02022  -0.02097  0.05246  -0.006168  -0.3992  -0.83
6.351e+09  -0.06122  -0.9105  -0.02106  -0.002723  0.04077  -0.02695  -0.6814  -0.6393
6.352e+09  -0.2925  -0.8102  0.007036  0.01075  0.02449  -0.02418  -0.8642  -0.3772
6.354e+09  -0.5406  -0.6663  -0.001893  -0.03257  0.05071  -0.01179  -0.9404  -0.06704
6.355e+09  -0.7579  -0.4213  -0.04657  0.01489  0.06489  0.03227  -0.92  0.2581
6.356e+09  -0.8116  -0.08509  -0.0377  0.0002865  0.006062  0.004514  -0.7666  0.5582
6.358e+09  -0.8266  0.1857  -0.0143  -0.02913  -0.01503  -0.04394  -0.5504  0.7694
6.359e+09  -0.7283  0.4888  0.02669  -0.001476  0.0223  0.02563  -0.2406  0.8992
6.36e+09  -0.4794  0.7279  0.008389  -0.01141  -0.002602  0.02604  0.1071  0.9029
6.361e+09  -0.2218  0.8524  -0.007288  0.024  0.04183  -0.02618  0.413  0.8624
6.362e+09  0.07417  0.8801  -0.05041  -0.006435  0.007129  0.01278  0.6544  0.68
6.364e+09  0.4066  0.7717  -0.004497  0.01586  -0.004446  0.01786  0.8502  0.4127
6.365e+09  0.6087  0.597  0.004674  -0.003662  -0.02518  -0.0275  0.9384  0.09448
6.366e+09  0.8047  0.3818  0.004331  0.01553  0.02873  0.02076  0.9075  -0.2409
6.368e+09  0.8363  0.06593  0.02127  -0.05056  -0.01325  0.02272  0.8125  -0.5267
6.369e+09  0.8566  -0.2509  -0.007371  0.01714  -0.005662  0.006224  0.555  -0.7823
6.37e+09  0.6395  -0.5112  0.0445  -0.01193  -0.005456  0.02612  0.2443  -0.9117
6.371e+09  0.4731  -0.702  0.007364  -0.01223  -0.007309  0.007299  -0.04895  -0.9222
6.372e+09  0.1798  -0.8371  0.01799  0.005619  -0.02111  0.03278  -0.3934  -0.8709
6.374e+09  -0.09279  -0.8783  -0.04317  -0.03269  -0.0149  -0.003434  -0.6544  -0.7181
6.375e+09  -0.3935  -0.739  0.0006204  -0.01022  0.01255  0.0178  -0.8488  -0.3969
6.376e+09  -0.6436  -0.5212  0.01698  -0.01261  -0.0156  -0.03485  -0.9589  -0.06944
6.378e+09  -0.7738  -0.2911  -0.02426  -0.03281  -0.03219  0.001516  -0.8997  0.2439
6.379e+09  -0.84  -0.02789  0.004231  0.004687  -0.006932  0.003561  -0.7474  0.5698
6.38e+09  -0.8441  0.2694  -0.007654  -0.01558  -0.003025  0.0009527  -0.5617  0.7921
6.381e+09  -0.6314  0.532  -0.02175  -0.02794  0.01893  -0.0138  -0.261  0.8618
6.382e+09  -0.4587  0.7359  -0.04437  -0.05631  -0.01776  -0.03829  0.0548  0.9198
6.384e+09  -0.1413  0.792  -0.03614  -0.00655  0.009651  -0.03114  0.374  0.8328
6.385e+09  0.1351  0.8747  -0.02062  0.05315  0.009539  0.01648  0.6393  0.7059
6.386e+09  0.4518  0.7459  0.01013  -0.02022  0.01901  -0.02253  0.8287  0.4673
6.388e+09  0.6335  0.5072  -0.04326  0.02794  0.02295  -0.009202  0.9013  0.1397
6.389e+09  0.8065  0.3144  -0.01687  -0.0002  -5.412e-05  0.02173  0.9093  -0.2169
6.39e+09  0.912  0.008354  -0.02075  -0.008201  -0.002374  -0.01909  0.7505  -0.5364
6.391e+09  0.862  -0.2929  0.004524  -0.02182  -0.01944  0.004868  0.5864  -0.7022
6.392e+09  0.6578  -0.5749  0.06066  0.0413  0.006813  -0.003015  0.2846  -0.9038
6.394e+09  0.4282  -0.7935  -0.01559  0.003759  0.01871  -0.02946  -0.04903  -0.9152
6.395e+09  0.1134  -0.8927  0.04663  0.01848  0.03426  0.008432  -0.3413  -0.8232
6.396e+09  -0.1756  -0.8011  0.01287  -0.02303  -0.0095  -0.03594  -0.5881  -0.6877
6.398e+09  -0.4676  -0.7008  -0.01394  -0.004819  -0.004645  -0.02803  -0.7962  -0.414
6.399e+09  -0.6652  -0.554  -0.01091  0.01124  0.01801  -0.05725  -0.9176  -0.1118
6.4e+09  -0.8518  -0.2416  -0.03813  -0.03033  0.02796  0.009659  -0.8751  0.1643
6.401e+09  -0.8488  0.06159  0.02499  0.02621  0.01406  0.02361  -0.7687  0.4571
6.402e+09  -0.7713  0.3054  -0.01649  -0.01974  0.005861  0.02307  -0.5854  0.7393
6.404e+09  -0.6151  0.5763  0.03788  -0.01952  -0.02316  0.0644  -0.3126  0.8761
6.405e+09  -0.3769  0.7452  -0.01768  -0.03633  0.009789  0.03822  -0.04544  0.8974
6.406e+09  -0.1444  0.8423  -0.0148  -0.0645  0.009444  -0.03441  0.3077  0.8464
6.408e+09  0.2595  0.8159  0.01704  -0.01871  -0.005371  0.02002  0.5595  0.7016
6.409e+09  0.4862  0.7256  0.0003199  -0.0152  -0.0104  0.02645  0.7454  0.4565
6.41e+09  0.7141  0.4771  0.008658  0.03808  0.06726  0.02735  0.9043  0.1908
6.411e+09  0.8469  0.2218  -0.001676  0.007201  -0.007444  -0.009474  0.9126  -0.1289
6.412e+09  0.8478  -0.04691  -0.0235  0.006691  0.03887  0.03406  0.8323  -0.4586
6.414e+09  0.7378  -0.3205  -0.05502  0.008493  -0.002305  0.00161  0.5544  -0.6715
6.415e+09  0.6007  -0.5473  -0.04108  -0.006683  -0.009525  0.02284  0.3054  -0.778
6.416e+09  0.3722  -0.7729  -0.01776  -0.008706  0.02388  0.01158  0.0493  -0.89
6.418e+09  0.09168  -0.8345  -0.02165  0.01755  0.006218  0.02669  -0.2674  -0.8529
6.419e+09  -0.1847  -0.7992  0.003198  0.009485  0.03525  0.005773  -0.5343  -0.7336
6.42e+09  -0.5035  -0.7123  0.004275  -0.001005  -0.02658  -0.02825  -0.7212  -0.4942
6.421e+09  -0.7244  -0.4634  0.02378  -0.02702  -0.02441  -0.04321  -0.8478  -0.181
6.422e+09  -0.8219  -0.2384  -0.02133  0.02848  0.03585  -0.03102  -0.8564  0.1027
6.424e+09  -0.8293  0.02898  -0.05055  -0.006785  -0.07371  -0.002261  -0.7722  0.4233
6.425e+09  -0.759  0.3628  0.003758  0.01987  0.009293  -0.03135  -0.571  0.5915
6.426e+09  -0.6241  0.6015  -0.006259  -0.02655  0.03939  -0.002989  -0.3312  0.7712
6.428e+09  -0.3876  0.8167  -0.01319  -0.01395  -0.03045  0.0008671  -0.08171  0.8633
6.429e+09  -0.06735  0.8823  -0.0224  0.01156  0.01433  -0.05817  0.2358  0.8717
6.43e+09  0.2276  0.8271  -0.02234  0.001048  -0.02123  0.01014  0.5698  0.7146
6.431e+09  0.5045  0.7039  0.0337  0.04143  -0.01594  0.05434  0.7122  0.4775
6.432e+09  0.692  0.5011  -0.0462  0.004922  0.01387  -0.003559  0.8698  0.2384
6.434e+09  0.8009  0.2346  -0.04876  0.04954  0.01009  0.006701  0.8775  -0.1063
6.435e+09  0.892  -0.08045  0.01818  0.05639  0.04977  0.01331  0.8212  -0.3788
6.436e+09  0.7562  -0.3607  0.01039  0.0161  -0.01433  0.02567  0.6006  -0.5979
6.438e+09  0.5791  -0.6028  -0.0003665  -0.02017  0.06687  -0.006525  0.3932  -0.7738
6.439e+09  0.3097  -0.7499  0.02673  0.01703  -0.01954  -0.02734  0.0746  -0.8806
6.44e+09  0.08752  -0.8428  -0.05244  0.0001366  0.05576  -0.03086  -0.2117  -0.782
6.441e+09  -0.2242  -0.823  -0.02085  0.01873  0.04177  -0.0003659  -0.5018  -0.6854
6.442e+09  -0.5312  -0.6511  -0.01896  0.01186  0.003661  -0.001659  -0.6879  -0.4659
6.444e+09  -0.7126  -0.4466  0.05968  0.04653  -0.00937  -0.04779  -0.8038  -0.2242
6.445e+09  -0.8634  -0.1875  -0.03581  0.0138  -0.008385  -0.05905  -0.837  0.05282
6.446e+09  -0.8505  0.1144  -0.001379  0.02456  0.02069  0.00669  -0.745  0.361
6.448e+09  -0.7447  0.3736  0.03441  0.005054  0.003768  0.009118  -0.6193  0.622
6.449e+09  -0.5769  0.6274  0.000275  -0.033  0.02623  -0.03785  -0.4055  0.758
6.45e+09  -0.2949  0.7473  -0.00928  0.004593  0.02505  0.04766  -0.06037  0.8203
6.451e+09  -0.03934  0.8526  0.02004  -0.03185  -0.03363  0.01283  0.2334  0.7801
6.452e+09  0.253  0.8268  0.06254  0.01072  0.06368  0.002828  0.4698  0.6009
6.454e+09  0.5373  0.6973  -0.0008379  -0.01688  -0.04349  0.008937  0.6754  0.4543
6.455e+09  0.7208  0.4749  0.007233  -0.0001093  0.01739  -0.01576  0.824  0.2764
6.456e+09  0.8873  0.1973  -0.02759  0.02547  -0.01154  0.008376  0.8007  -0.07375
6.458e+09  0.8868  -0.1086  -0.01676  0.02218  0.01277  -0.01435  0.7532  -0.3251
6.459e+09  0.7917  -0.4199  0.05457  -0.02369  0.0104  0.0621  0.5732  -0.5979
6.46e+09  0.5643  -0.5893  0.01711  0.04767  0.0371  -0.03368  0.3554  -0.7603
6.461e+09  0.2664  -0.8106  0.01211  0.04221  0.003026  -0.005171  0.04419  -0.8454
6.462e+09  -0.004542  -0.8675  0.00299  0.054  -0.01773  -0.002777  -0.2159  -0.8129
6.464e+09  -0.2486  -0.8058  0.01688  0.01934  0.01977  -0.01985  -0.46  -0.6176
6.465e+09  -0.5776  -0.7086  -0.01434  0.02857  -0.02391  -0.04975  -0.6495  -0.4929
6.466e+09  -0.7571  -0.4349  0.007451  -0.0233  0.00225  -0.00821  -0.7331  -0.248
6.468e+09  -0.8482  -0.2084  -0.003782  0.003224  -0.02654  -0.003921  -0.7795  0.02741
6.469e+09  -0.847  0.1167  0.01557  0.02533  -0.03  0.05482  -0.7633  0.3728
6.47e+09  -0.8046  0.4303  -0.01386  -0.003903  0.02277  0.01701  -0.5624  0.5619
6.471e+09  -0.5583  0.664  0.0139  0.02848  0.04432  -0.03851  -0.316  0.7198
6.472e+09  -0.3386  0.7595  -0.02499  -0.004843  -0.04836  0.01497  -0.03211  0.7843
6.474e+09  0.002837  0.8759  0.01258  -0.02005  0.04504  0.007188  0.1913  0.7729
6.475e+09  0.354  0.8441  -0.009787  -0.002534  -0.02877  0.03185  0.4819  0.6238
6.476e+09  0.5799  0.6602  -0.0266  0.005439  0.03623  -0.02837  0.6532  0.4398
6.478e+09  0.7595  0.4414  0.009228  -0.0001181  0.01057  0.02925  0.7209  0.2091
6.479e+09  0.8858  0.09972  0.03004  0.0117  0.01487  0.007704  0.7582  -0.0938
6.48e+09  0.8702  -0.1565  0.02118  -0.06266  -0.02472  0.01309  0.7163  -0.3557
6.481e+09  0.7997  -0.4799  -0.0209  0.0152  -0.02213  -0.02172  0.5363  -0.5305
6.482e+09  0.5553  -0.7518  -0.002294  0.0327  0.01217  0.01755  0.3295  -0.6936
6.484e+09  0.2813  -0.8325  0.001262  0.01826  -0.01178  -0.004245  0.08513  -0.7499
6.485e+09  -0.05788  -0.9153  0.01742  -0.0007667  -0.005029  -0.04096  -0.1971  -0.7294
6.486e+09  -0.3214  -0.8653  -0.01938  0.01762  -0.008475  -0.04982  -0.451  -0.619
6.488e+09  -1.351  -0.7029  -0.03441  -0.02693  -0.383  -0.6246  -0.6216  -0.4482
6.489e+09  -0.8081  -0.4522  -0.03053  -0.01694  0.02533  0.04626  -0.7748  -0.2092
6.49e+09  -0.9021  -0.1123  0.0198  -0.02274  0.04057  -0.0314  -0.7629  0.07936
6.491e+09  -0.8594  0.1583  -0.05084  -0.01364  0.02134  0.05326  -0.6778  0.3209
6.492e+09  -0.8207  0.4579  -0.009993  0.02614  -0.008478  0.03761  -0.5175  0.5537
6.494e+09  -0.6295  0.6271  0.02483  0.0113  -0.007559  0.1063  -0.3375  0.705
6.495e+09  -0.2986  0.8647  -0.01031  0.01562  -0.01951  -0.006858  -0.05203  0.7968
6.496e+09  0.01342  0.864  0.0105  0.006648  0.0055  -0.0153  0.2156  0.7484
6.498e+09  0.2887  0.8557  -0.005601  0.0302  0.02803  -0.001459  0.4993  0.6462
6.499e+09  0.6081  0.6968  -0.001714  0.01354  0.01483  0.02314  0.6137  0.4119
6.5e+09  0.8339  0.424  -0.01132  -0.0343  -0.01678  0.002228  0.7421  0.1651
6.501e+09  0.8729  0.1316  -0.01339  -0.01983  0.04395  0.01014  0.7489  -0.1049
6.502e+09  0.8418  -0.2093  -0.03858  0.01446  0.02357  -0.08712  0.6801  -0.3474
6.504e+09  0.7919  -0.4828  0.007381  -0.0232  -0.02146  -0.02069  0.4945  -0.6
6.505e+09  0.5171  -0.755  0.0136  -0.02783  -0.02116  -0.01391  0.2648  -0.7065
6.506e+09  0.2302  -0.8707  0.02299  -0.007226  0.005127  0.005086  0.02398  -0.7409
6.508e+09  -0.1182  -0.9561  -0.02729  0.0154  -0.03109  0.01239  -0.2617  -0.7172
6.509e+09  -0.4514  -0.8545  -0.02185  -0.01701  -0.02006  -0.006176  -0.4786  -0.5782
6.51e+09  -0.612  -0.6979  -0.03964  0.007439  -0.02833  0.02563  -0.6854  -0.3746
6.511e+09  -0.8992  -0.4187  0.04566  0.007696  -0.01862  0.03833  -0.7426  -0.1258
6.512e+09  -0.9358  -0.08254  0.05377  0.002491  -0.02383  0.05833  -0.7251  0.1502
6.514e+09  -0.9329  0.2519  -0.0121  0.005452  -0.03184  -0.031  -0.6747  0.3661
6.515e+09  -0.7329  0.509  0.03164  0.02204  -0.03363  0.05439  -0.4987  0.5919
6.516e+09  -0.5286  0.8267  0.006993  0.006151  0.008399  0.0238  -0.2587  0.6629
6.518e+09  -0.1681  0.9287  -0.017  0.03566  -0.03657  0.01283  0.03728  0.734
6.519e+09  0.1557  0.919  -0.02247  -0.005086  -0.01146  -0.05358  0.2577  0.7228
6.52e+09  0.4818  0.8602  0.02409  -0.0003344  0.04888  0.002161  0.5243  0.5793
6.521e+09  0.6782  0.588  0.04028  -0.02486  0.01277  -0.03155  0.642  0.3351
6.522e+09  0.8538  0.3505  0.02635  0.04287  -0.01264  0.01016  0.7222  0.09291
6.524e+09  0.9046  -0.01529  -0.007677  -0.007209  -0.04096  0.01411  0.7711  -0.1584
6.525e+09  0.9213  -0.3277  0.001104  -0.001036  -0.03429  0.009901  0.616  -0.3903
6.526e+09  0.685  -0.6013  -0.006665  -0.0101  0.01531  0.02249  0.4316  -0.5939
6.528e+09  0.4193  -0.8271  0.00428  0.01056  -0.01423  -0.01843  0.2477  -0.7122
6.529e+09  0.1061  -0.9332  0.01853  -0.01309  -0.01399  -0.00571  -0.05654  -0.6642
6.53e+09  -0.2069  -0.9132  -0.02139  0.0006606  0.01099  -0.02858  -0.2728  -0.6152
6.531e+09  -0.4582  -0.8307  0.01715  -0.006093  -0.01953  -0.00488  -0.4687  -0.4838
6.532e+09  -0.7752  -0.5818  -0.009754  -0.0178  0.01863  0.02461  -0.5996  -0.2919
6.534e+09  -0.9326  -0.2531  0.02352  -0.02779  -0.03146  -0.006253  -0.6416  -0.1036
6.535e+09  -0.9515  0.0823  0.007428  0.003218  -0.01909  0.02643  -0.6149  0.1141
6.536e+09  -0.8658  0.4064  0.006934  -0.006752  0.03366  -0.01031  -0.549  0.3064
6.538e+09  -0.6427  0.7029  -0.02714  -0.008436  0.005616  0.02344  -0.4238  0.4696
6.539e+09  -0.3966  0.8278  -0.03056  0.004703  0.05262  -0.02737  -0.2943  0.6426
6.54e+09  -0.04048  0.9485  0.02483  0.01674  0.03215  -0.01453  -0.03298  0.6593
6.541e+09  0.2637  0.8849  -0.009754  0.01692  0.004283  0.02572  0.1897  0.6842
6.542e+09  0.5787  0.7173  -0.0115  -0.02755  0.02398  -0.01298  0.4054  0.5826
6.544e+09  0.7687  0.5235  0.002546  0.0003904  -0.007143  -0.003452  0.5995  0.3939
6.545e+09  0.866  0.2068  0.02274  -0.003775  0.03736  0.01284  0.7085  0.161
6.546e+09  0.8316  -0.1819  0.03026  0.04917  -0.003673  -0.07871  0.6687  -0.08882
6.548e+09  0.8164  -0.418  -0.02093  0.002975  -0.02847  0.02453  0.6514  -0.3258
6.549e+09  0.6007  -0.7325  0.01632  0.02273  -0.004485  -0.005908  0.4696  -0.5181
6.55e+09  0.2693  -0.8181  -0.01936  -0.0006191  -0.06859  0.03108  0.2676  -0.6707
