# Hz S RI R 50
6.25e+09  -0.2753  0.8087  -0.03453  -0.02158  0.06235  0.01596  0.1551  0.4706
6.251e+09  -0.00318  0.8279  -0.0122  0.02434  0.02452  -0.02865  0.3359  0.3881
6.252e+09  0.2991  0.7894  -0.0147  -0.00617  -0.002675  0.0316  0.5428  0.2638
6.254e+09  0.5737  0.6346  0.000765  -0.02174  -0.03701  -0.02368  0.5778  0.02124
6.255e+09  0.7188  0.3871  0.01437  -0.02969  0.03389  -0.01814  0.6245  -0.1974
6.256e+09  0.8493  0.1314  0.03791  0.01048  -0.08616  -0.06601  0.4726  -0.4315
6.258e+09  0.8347  -0.183  -0.00514  -0.00879  0.002527  -0.01111  0.2577  -0.582
6.259e+09  0.664  -0.4535  0.009357  0.04174  -0.03067  -0.1013  0.08953  -0.6853
6.26e+09  0.4856  -0.7012  -0.003469  -0.02173  -0.0388  -0.05372  -0.186  -0.647
6.261e+09  0.2104  -0.7877  0.0168  0.01743  0.007616  0.005027  -0.4332  -0.5356
6.262e+09  -0.01992  -0.8549  0.02903  -0.01082  -0.01428  -0.06921  -0.6279  -0.3256
6.264e+09  -0.3158  -0.7548  0.01425  0.003555  0.05231  -0.02203  -0.7217  -0.09062
6.265e+09  -0.5472  -0.6309  -0.01247  0.003832  -0.004502  0.01326  -0.6553  0.1722
6.266e+09  -0.7114  -0.3942  0.0251  0.003002  -0.03274  -0.05153  -0.5835  0.3728
6.268e+09  -0.765  -0.09327  -0.007512  -0.008675  -0.02521  -0.04458  -0.4276  0.5956
6.269e+09  -0.7616  0.213  -0.00939  0.004973  -0.04111  -0.02499  -0.201  0.7085
6.27e+09  -0.6656  0.4634  0.008401  -0.02165  0.01257  0.05415  0.05168  0.7451
6.271e+09  -0.4871  0.6904  -0.02163  -0.022  -0.009044  -0.01158  0.3405  0.6659
6.272e+09  -0.2366  0.7892  0.008953  -0.02066  -0.0008193  0.03093  0.5377  0.5464
6.274e+09  0.07122  0.806  -0.007308  0.01377  -0.01097  -0.02107  0.6905  0.3168
6.275e+09  0.3196  0.7728  0.001347  0.01629  -0.02616  0.004969  0.7762  0.03737
6.276e+09  0.5646  0.563  -0.003447  0.03231  -0.04554  0.01739  0.7344  -0.2769
6.278e+09  0.728  0.3822  0.00586  0.01814  0.0007166  0.04353  0.6682  -0.4754
6.279e+09  0.7816  0.1451  0.0284  -0.001571  -0.04666  -0.01994  0.4089  -0.6404
6.28e+09  0.773  -0.2101  0.01098  0.007623  0.009264  0.02338  0.1514  -0.7693
6.281e+09  0.6711  -0.448  0.004237  -0.008781  0.07121  -0.03259  -0.1143  -0.7692
6.282e+09  0.4307  -0.6851  0.004569  -0.006325  -0.003237  0.03307  -0.3737  -0.6852
6.284e+09  0.2014  -0.8289  0.00914  0.03288  -0.00389  -0.05038  -0.6164  -0.5259
6.285e+09  -0.08687  -0.8274  -0.006028  0.01693  -0.001147  -0.02607  -0.7371  -0.284
6.286e+09  -0.3548  -0.7047  0.01289  0.01115  0.03146  -0.03214  -0.7957  -0.03033
6.288e+09  -0.568  -0.5811  -0.01623  0.01528  -0.02351  0.04539  -0.7594  0.2486
6.289e+09  -0.7049  -0.2358  -0.003376  0.003541  -0.03705  0.01597  -0.6136  0.4946
6.29e+09  -0.7961  -0.08315  -0.0117  -0.01491  0.00345  0.009143  -0.3558  0.7125
6.291e+09  -0.765  0.2031  -0.004222  0.004938  -0.007733  -0.01391  -0.1374  0.8125
6.292e+09  -0.5919  0.4728  0.01342  0.005845  0.03041  -0.01026  0.1054  0.7747
6.294e+09  -0.4424  0.7119  0.01074  -0.006823  -0.01611  0.006789  0.4224  0.6652
6.295e+09  -0.1328  0.7862  0.008117  -0.02011  -0.01485  -0.03756  0.5995  0.5495
6.296e+09  0.1107  0.7614  -0.01397  -0.01817  0.01275  0.0003013  0.7813  0.2869
6.298e+09  0.3776  0.6919  -0.00958  0.02299  0.04635  0.01711  0.8506  -0.01016
6.299e+09  0.5826  0.5008  0.02274  0.007657  -0.03277  0.05813  0.7573  -0.247
6.3e+09  0.7902  0.2849  0.006616  0.01101  0.01922  0.005933  0.6456  -0.5412
6.301e+09  0.8332  0.0137  -0.0001716  0.009402  -0.0161  -0.007212  0.4273  -0.7283
6.302e+09  0.7144  -0.335  -0.006201  -0.009989  0.02794  -0.01564  0.1625  -0.8218
6.304e+09  0.6255  -0.5456  -0.006079  0.002652  -0.04019  -0.01735  -0.1369  -0.8115
6.305e+09  0.3857  -0.6977  0.02184  0.004834  -0.006468  0.006366  -0.4002  -0.7349
6.306e+09  0.1392  -0.8093  0.002902  0.01463  -0.02149  -0.0141  -0.6075  -0.551
6.308e+09  -0.1759  -0.785  -0.01472  0.002631  -0.03235  -0.002472  -0.7767  -0.2974
6.309e+09  -0.3535  -0.7457  -0.005791  -0.01021  -0.02213  -0.02159  -0.8658  -0.03703
6.31e+09  -0.6232  -0.5181  0.004754  0.0007235  -0.01074  0.01086  -0.7915  0.2822
6.311e+09  -0.7395  -0.28  -0.03086  0.007658  0.0272  -0.01362  -0.6877  0.5313
6.312e+09  -0.7868  0.05637  0.03101  -0.04478  0.03878  0.009202  -0.4288  0.7238
6.314e+09  -0.7628  0.2924  0.01151  0.006341  -0.01671  -0.0009037  -0.1815  0.8343
6.315e+09  -0.6641  0.6078  0.01085  0.003751  -0.01296  -0.03453  0.1355  0.8332
6.316e+09  -0.375  0.7424  -0.003385  -0.008496  -0.002363  0.03852  0.4196  0.7626
6.318e+09  -0.1453  0.8396  -0.006578  -0.001274  -0.02425  -0.01122  0.6705  0.5813
6.319e+09  0.1505  0.8115  0.01679  -0.01924  -0.01522  0.00862  0.8283  0.3095
6.32e+09  0.4819  0.6549  -0.01384  0.02821  -0.01426  0.01535  0.8822  -0.01153
6.321e+09  0.6626  0.5046  -0.02376  -0.00309  -0.01613  -0.01214  0.8565  -0.2684
6.322e+09  0.7922  0.2454  0.012  0.004867  -0.06394  0.02571  0.6883  -0.5729
6.324e+09  0.8484  -0.04676  0.02157  -0.0003233  -0.006403  0.01237  0.4593  -0.7514
6.325e+09  0.7449  -0.4127  -0.001928  -0.03418  -0.004887  0.0316  0.1863  -0.9044
6.326e+09  0.5986  -0.5874  -0.001206  0.02976  0.009201  0.05209  -0.1261  -0.8637
6.328e+09  0.3408  -0.7517  0.01417  0.03439  0.02997  -0.02604  -0.4  -0.7956
6.329e+09  0.03847  -0.8633  -0.02658  -0.00852  0.04698  -0.003714  -0.6873  -0.5793
6.33e+09  -0.2265  -0.8133  0.01644  0.01669  0.003071  0.007763  -0.865  -0.3401
6.331e+09  -0.5143  -0.6941  0.009849  0.05325  0.04508  -0.006844  -0.8947  0.003461
6.332e+09  -0.6684  -0.4932  -0.012  0.01091  0.03134  0.01297  -0.8459  0.3065
6.334e+09  -0.8197  -0.1651  -0.001495  -0.00905  -0.004704  0.01185  -0.6772  0.5797
6.335e+09  -0.8513  0.08394  0.01773  0.01493  0.02158  -0.06234  -0.4792  0.7886
6.336e+09  -0.7671  0.4189  0.02194  0.0334  -0.04469  0.02242  -0.1869  0.8949
6.338e+09  -0.5285  0.6325  0.005433  -0.0232  -0.007155  -0.002281  0.1374  0.9088
6.339e+09  -0.3226  0.7601  -0.00609  -0.02032  -7.453e-05  -0.0348  0.4456  0.7911
6.34e+09  0.05098  0.8792  0.02209  -0.002548  -0.01577  -0.004032  0.6662  0.6436
6.341e+09  0.2751  0.7694  0.0329  0.01283  0.02338  -0.00112  0.8915  0.3206
6.342e+09  0.5304  0.6358  0.02507  0.01875  0.04257  0.04567  0.9377  0.05123
6.344e+09  0.8096  0.3775  0.005928  0.01633  0.008141  0.0005825  0.886  -0.2701
6.345e+09  0.8327  0.1341  -0.002292  0.002076  0.006844  -0.01189  0.7568  -0.5353
6.346e+09  0.8105  -0.1666  0.04324  -0.01687  -0.02532  0.004891  0.4934  -0.7727
6.348e+09  0.7385  -0.4513  -0.0287  -0.008549  -0.00761  0.02557  0.198  -0.9085
6.349e+09  0.5224  -0.7081  0.01936  -0.01127  -0.01523  0.007954  -0.1034  -0.9585
6.35e+09  0.2195  -0.8339  0.02241  -0.04492  0.00564  -0.003887  -0.4518  -0.8295
6.351e+09  -0.01241  -0.8827  0.01802  -0.0002215  -0.002768  -0.01425  -0.7062  -0.6419
6.352e+09  -0.3619  -0.7246  -0.02166  0.005851  0.02318  -0.01039  -0.846  -0.3722
6.354e+09  -0.6228  -0.5895  0.0139  0.003506  0.0334  -0.03836  -0.9176  -0.06468
6.355e+09  -0.7849  -0.3644  0.004093  -0.04007  -0.02978  -0.004779  -0.9298  0.2478
6.356e+09  -0.8204  -0.0937  0.000369  0.01628  0.01825  -0.03504  -0.7279  0.5346
6.358e+09  -0.8059  0.2218  -0.01868  0.02097  0.002048  0.005435  -0.5309  0.7723
6.359e+09  -0.7047  0.5389  -0.01695  0.005752  -0.01467  -0.02249  -0.2243  0.8844
6.36e+09  -0.4899  0.7081  0.02561  0.01241  -0.003248  0.04416  0.0993  0.964
6.361e+09  -0.2336  0.8158  0.008323  -0.0129  -0.0122  0.06357  0.3682  0.8409
6.362e+09  0.1458  0.8607  -0.008806  -0.02737  -0.02622  0.07289  0.6677  0.6221
6.364e+09  0.3706  0.7845  0.02136  0.02633  -0.01985  -0.0207  0.838  0.379
6.365e+09  0.6467  0.5905  0.006568  -0.01938  -0.02979  0.01948  0.932  0.06074
6.366e+09  0.8256  0.3467  7.131e-05  -0.001255  0.02943  0.006259  0.8994  -0.2053
6.368e+09  0.8899  0.02017  -0.03988  0.018  -0.05202  0.01149  0.7574  -0.5545
6.369e+09  0.8303  -0.2798  0.01113  0.02357  -0.008654  0.01708  0.5313  -0.7608
6.37e+09  0.6648  -0.5724  0.001112  0.01108  0.0258  0.01809  0.2372  -0.9229
6.371e+09  0.4643  -0.6783  -0.01245  -0.02151  0.001807  -0.008511  -0.06203  -0.9576
6.372e+09  0.1564  -0.8192  -0.002779  0.01795  -0.02947  -0.02815  -0.43  -0.8614
6.374e+09  -0.1527  -0.8545  -0.006367  0.04444  -0.0226  -0.006553  -0.6687  -0.7044
6.375e+09  -0.4508  -0.7459  0.003341  -0.01071  -0.02554  0.02579  -0.8093  -0.4102
6.376e+09  -0.6828  -0.5711  0.02559  0.02402  -0.05179  -0.008603  -0.9407  -0.06374
6.378e+09  -0.8031  -0.2799  0.02408  -0.01533  -0.0009833  0.023  -0.9403  0.2075
6.379e+09  -0.8704  0.01704  -0.00385  -8.657e-05  -0.006522  -0.02422  -0.8112  0.5688
6.38e+09  -0.8621  0.2958  -0.003089  0.008366  0.01559  0.004756  -0.5309  0.773
6.381e+09  -0.7053  0.5868  0.02647  0.0002121  -0.03142  0.0007533  -0.2762  0.8992
6.382e+09  -0.3928  0.7673  -0.04352  -0.01992  0.02324  0.02446  0.06832  0.9075
6.384e+09  -0.125  0.866  0.01801  -0.02495  -0.02056  0.006897  0.3764  0.8832
6.385e+09  0.1943  0.8237  0.02495  -0.01075  -0.02826  0.02728  0.6541  0.6852
6.386e+09  0.4587  0.7187  -0.003684  -0.02182  -0.002683  -0.002488  0.812  0.4344
6.388e+09  0.6869  0.5243  -0.01935  -0.01771  0.01643  0.0004891  0.946  0.09247
6.389e+09  0.8087  0.2855  0.02084  0.001233  -0.01285  -0.01027  0.9355  -0.209
6.39e+09  0.8722  -0.07069  0.02937  -0.005087  0.03685  0.0002653  0.8005  -0.5084
6.391e+09  0.7991  -0.3305  0.01416  0.001774  -0.00471  0.0156  0.591  -0.7341
6.392e+09  0.651  -0.5583  -0.0132  0.01484  0.04553  0.04824  0.2919  -0.9182
6.394e+09  0.3975  -0.822  -0.01741  0.01697  0.001742  -0.002719  -0.02996  -0.9404
6.395e+09  0.07836  -0.8228  -0.02516  -0.00187  -0.0417  -0.03184  -0.2832  -0.8863
6.396e+09  -0.1907  -0.8649  0.02864  0.02208  0.02121  -0.01338  -0.567  -0.6888
6.398e+09  -0.4717  -0.6979  0.02312  -0.01971  0.02814  -0.04329  -0.7927  -0.4001
6.399e+09  -0.6782  -0.5055  -0.04905  -0.02023  0.06679  0.006625  -0.8821  -0.1847
6.4e+09  -0.8189  -0.2187  -0.009296  -0.01699  0.01661  -0.01376  -0.8838  0.141
6.401e+09  -0.8439  0.05433  0.02282  0.01176  0.01449  0.02713  -0.7854  0.4476
6.402e+09  -0.8072  0.3745  -0.008828  0.007613  -0.04942  0.03299  -0.5703  0.6985
6.404e+09  -0.5994  0.6641  -0.02133  -0.02239  -0.02239  -0.04682  -0.3284  0.8953
6.405e+09  -0.3664  0.7338  -0.02293  -0.04023  -0.03089  0.01175  -0.02179  0.8964
6.406e+09  -0.06432  0.8741  -0.04055  -0.01513  0.02546  -0.0193  0.337  0.8484
6.408e+09  0.2116  0.835  0.01293  0.04464  0.003759  -0.0076  0.6149  0.7026
6.409e+09  0.4816  0.6709  -0.0137  -0.01466  0.01915  0.03782  0.7706  0.435
6.41e+09  0.711  0.468  0.008245  -7.875e-05  -0.01072  -0.01773  0.9111  0.1817
6.411e+09  0.8642  0.2127  -0.04515  -0.03193  0.03026  -0.02207  0.8933  -0.118
6.412e+09  0.8511  -0.1082  -0.0127  -0.01855  -0.0347  0.01572  0.7844  -0.4124
6.414e+09  0.7577  -0.3775  -0.02276  0.007578  -0.0005764  -0.01272  0.5973  -0.6521
6.415e+09  0.6084  -0.6277  0.01863  -0.03088  -0.007952  0.01459  0.3313  -0.8255
6.416e+09  0.3232  -0.7781  0.01416  0.01468  0.02348  0.0403  0.03927  -0.8675
6.418e+09  0.06749  -0.8796  -0.005981  0.01343  0.0211  -0.02336  -0.2897  -0.8446
6.419e+09  -0.1905  -0.795  -0.02006  0.02357  0.01581  0.04271  -0.559  -0.7064
6.42e+09  -0.4633  -0.6945  -0.008722  0.01128  -0.01871  0.03834  -0.7518  -0.4937
6.421e+09  -0.7502  -0.508  0.05181  0.02293  -0.05043  0.02468  -0.8668  -0.2098
6.422e+09  -0.8477  -0.1777  -0.02299  0.01154  -0.0006825  0.01479  -0.8076  0.1317
6.424e+09  -0.8446  0.1246  -0.009038  0.006146  0.02084  0.02116  -0.8123  0.4211
6.425e+09  -0.8088  0.353  0.03922  0.006708  0.003953  0.01283  -0.5795  0.6248
6.426e+09  -0.5864  0.6126  -0.04278  0.03578  0.008585  0.04928  -0.345  0.803
6.428e+09  -0.3303  0.7888  0.003881  -0.00618  0.0252  0.02081  -0.04909  0.8015
6.429e+09  0.003665  0.8457  -0.008122  -0.03075  -0.01355  0.03557  0.2649  0.8168
6.43e+09  0.243  0.847  -0.007919  -0.0239  0.0271  0.02856  0.4953  0.6939
6.431e+09  0.5295  0.6577  0.0346  0.0269  0.02516  -0.01754  0.7268  0.5011
6.432e+09  0.6974  0.4793  -0.02056  0.03886  -0.0201  -0.02301  0.8561  0.2115
6.434e+09  0.7927  0.1808  0.0257  0.01119  0.01933  -0.03277  0.8322  -0.1201
6.435e+09  0.9426  -0.1062  -0.03885  0.0111  -0.002581  -0.01127  0.7692  -0.4078
6.436e+09  0.7757  -0.4142  -0.02256  -0.01235  0.05314  -0.007178  0.5865  -0.6368
6.438e+09  0.5542  -0.6328  -0.01273  0.009955  -0.009594  0.0161  0.3707  -0.7705
6.439e+09  0.3728  -0.7846  0.01041  0.03061  -0.009642  -0.03347  0.1253  -0.8861
6.44e+09  0.01101  -0.8302  -0.03718  0.007511  -0.01843  -0.04625  -0.2351  -0.8195
6.441e+09  -0.3161  -0.7982  0.02032  -0.05708  0.04665  0.009252  -0.5414  -0.7026
6.442e+09  -0.5563  -0.6041  -0.002189  0.004048  -0.01643  0.03526  -0.728  -0.4411
6.444e+09  -0.802  -0.4477  -0.009243  0.006261  -0.0001625  0.0125  -0.8127  -0.2291
6.445e+09  -0.8586  -0.1864  -0.03243  -0.0284  0.02745  0.004706  -0.8566  0.04053
6.446e+09  -0.878  0.106  -0.02904  -0.06655  0.03048  -0.02912  -0.7857  0.3483
6.448e+09  -0.723  0.4201  -0.007746  -0.004552  -0.01893  0.01928  -0.565  0.588
6.449e+09  -0.5805  0.6815  0.01978  0.0129  0.01542  0.02288  -0.3753  0.7548
6.45e+09  -0.3124  0.7778  0.01111  -0.0226  -0.008803  -0.02337  -0.06279  0.8021
6.451e+09  -0.03311  0.8977  -0.0071  0.01264  -0.03858  1.198e-05  0.2281  0.7777
6.452e+09  0.2554  0.8332  0.0001498  -0.01139  -0.006758  -0.001167  0.4948  0.655
6.454e+09  0.5816  0.6743  0.005355  -0.001147  0.007499  0.01258  0.6878  0.4701
6.455e+09  0.7394  0.5095  0.008254  -0.006534  0.04225  0.03028  0.8708  0.2644
6.456e+09  0.8799  0.1612  -0.002506  0.04592  0.01199  0.03981  0.8424  -0.09962
6.458e+09  0.8144  -0.1599  -0.01068  0.03405  0.0699  0.005539  0.7049  -0.3628
6.459e+09  0.7624  -0.379  -0.02266  -0.005426  0.03465  -0.03916  0.5917  -0.5464
6.46e+09  0.5638  -0.6559  -0.05338  -0.01401  -0.02593  0.04303  0.3522  -0.7695
6.461e+09  0.305  -0.8515  0.003717  0.02742  -0.003255  0.008436  0.05172  -0.7988
6.462e+09  -0.02273  -0.8917  0.04599  0.0004702  -0.04243  -9.346e-05  -0.22  -0.7754
6.464e+09  -0.2833  -0.8266  0.05048  0.01934  -0.01333  -0.03748  -0.4782  -0.6876
6.465e+09  -0.5437  -0.6596  -0.009091  -0.01571  0.0265  -0.003348  -0.6519  -0.457
6.466e+09  -0.7767  -0.4212  -0.03013  0.01572  -0.02529  -0.03434  -0.8181  -0.2175
6.468e+09  -0.8632  -0.1412  0.01361  -0.001991  -0.003073  0.05007  -0.8268  0.1151
6.469e+09  -0.8398  0.1768  0.009131  0.02515  0.01904  0.02844  -0.7076  0.3673
6.47e+09  -0.71  0.4588  0.05022  -0.03379  0.03354  -0.03401  -0.5276  0.5327
6.471e+09  -0.5388  0.6914  0.009001  0.01326  0.008024  -0.008531  -0.3827  0.7352
6.472e+09  -0.2936  0.8518  0.02239  -0.02645  0.008766  0.00639  -0.1003  0.7535
6.474e+09  0.03191  0.8645  -6.177e-05  -0.002256  0.04106  -0.03659  0.2058  0.7557
6.475e+09  0.3668  0.8249  0.008067  0.005343  0.02977  -0.01837  0.4085  0.6761
6.476e+09  0.5703  0.6973  -0.01538  0.05079  -0.005591  0.04584  0.6842  0.4589
6.478e+09  0.8143  0.4056  0.04591  0.009995  -0.0401  -0.008401  0.7487  0.1942
6.479e+09  0.8532  0.1381  0.0514  -0.03443  0.02078  0.01473  0.814  -0.04286
6.48e+09  0.8324  -0.2004  0.003631  -0.008613  0.0008497  -0.01724  0.694  -0.3467
6.481e+09  0.7263  -0.4855  -0.032  0.000764  -0.03093  -0.03489  0.5502  -0.5407
6.482e+09  0.535  -0.7888  -0.02211  0.0313  -0.006877  -0.02725  0.3266  -0.7011
6.484e+09  0.27  -0.8721  0.02271  -0.0007363  0.00114  0.02034  0.02871  -0.7542
6.485e+09  -0.008821  -0.8783  0.009378  -0.0006638  0.01249  0.001559  -0.168  -0.7833
6.486e+09  -0.3915  -0.8383  0.03541  0.03181  0.04467  -0.007526  -0.4784  -0.6332
6.488e+09  0.1049  -0.4062  0.01752  0.04039  0.5713  0.4312  -0.6472  -0.4006
6.489e+09  -0.7977  -0.373  0.001159  -0.01442  0.01611  -0.05447  -0.7228  -0.2079
6.49e+09  -0.9192  -0.08582  -0.01298  0.00808  0.0266  -0.0232  -0.7615  0.05226
6.491e+09  -0.8868  0.2598  -0.02918  0.02825  0.01943  0.003346  -0.6739  0.3239
6.492e+09  -0.7517  0.5333  0.02124  0.02449  -0.02776  -0.04347  -0.5529  0.5724
6.494e+09  -0.5916  0.737  0.02379  0.04653  -0.1404  0.09003  -0.2509  0.6654
6.495e+09  -0.2172  0.8812  -0.01151  0.004581  -0.01569  -0.05118  -0.02384  0.7443
6.496e+09  0.1183  0.9027  0.01121  -0.0005935  -0.006642  -0.01304  0.2281  0.7473
6.498e+09  0.385  0.8366  0.008345  -0.01083  -0.007805  0.02152  0.488  0.6004
6.499e+09  0.6759  0.6553  0.002721  -0.01189  0.04183  0.01779  0.6471  0.3736
6.5e+09  0.8865  0.3188  0.0176  0.02675  -0.03888  -0.004767  0.7346  0.1438
6.501e+09  0.9307  0.04882  -0.01538  0.02297  -0.02663  -0.01785  0.7605  -0.1106
6.502e+09  0.8502  -0.2852  0.009165  -0.02236  -0.03581  -0.003834  0.6959  -0.373
6.504e+09  0.7146  -0.6094  0.02489  -0.01746  0.03683  0.03949  0.5089  -0.5648
6.505e+09  0.4369  -0.8049  0.01659  0.01214  -0.0004862  0.01645  0.2826  -0.7242
6.506e+09  0.1609  -0.8597  -0.006733  0.02884  -0.01427  0.05085  0.06704  -0.767
6.508e+09  -0.1247  -0.9219  -0.02691  6.893e-05  0.03663  0.005001  -0.2153  -0.7539
6.509e+09  -0.4408  -0.8552  0.008603  0.0185  -0.02657  -0.01382  -0.4595  -0.5976
6.51e+09  -0.7025  -0.5483  0.006322  0.03905  0.01259  -0.04562  -0.619  -0.4189
6.511e+09  -0.887  -0.3554  0.01909  0.01895  0.02979  0.01981  -0.7574  -0.14
6.512e+09  -0.9556  -0.01225  -0.01869  0.01919  0.04913  -0.01136  -0.7421  0.114
6.514e+09  -0.8466  0.3029  -0.02738  -0.0186  0.01853  -0.04662  -0.6332  0.3812
6.515e+09  -0.7244  0.6157  -0.012  -0.004718  -0.005449  -0.02334  -0.4873  0.5757
6.516e+09  -0.4746  0.8191  0.01155  -0.005966  0.03699  0.001087  -0.2433  0.6473
6.518e+09  -0.1424  0.9144  0.02319  0.01613  -0.01228  -0.0202  0.04239  0.7432
6.519e+09  0.2034  0.9693  -0.01809  0.01085  -0.005564  0.0007116  0.2762  0.6824
6.52e+09  0.5035  0.8143  -0.01157  -0.005873  0.01163  -0.005399  0.5233  0.5783
6.521e+09  0.6921  0.5754  0.004527  -0.005107  -0.01265  -0.05419  0.6185  0.3258
6.522e+09  0.9343  0.2538  -0.042  -0.03166  0.006303  0.0004056  0.753  0.1375
6.524e+09  0.9104  -0.05903  -0.02575  -0.02037  0.0003576  0.02761  0.7224  -0.1873
6.525e+09  0.8936  -0.3736  0.007825  0.0009498  -0.02633  0.00572  0.6336  -0.4223
6.526e+09  0.6363  -0.6384  -0.008833  0.005696  0.00149  -0.04268  0.4118  -0.5939
6.528e+09  0.3587  -0.859  -0.006422  0.01147  0.06015  0.01514  0.2146  -0.6862
6.529e+09  0.09631  -0.9552  -0.002249  -0.002475  0.05136  -0.01375  -0.05113  -0.6814
6.53e+09  -0.298  -0.9609  -0.03583  0.00798  -0.02173  -0.03228  -0.2912  -0.6017
6.531e+09  -0.4827  -0.779  -0.009078  -0.003145  0.0005161  0.02089  -0.4732  -0.4275
6.532e+09  -0.8031  -0.4781  0.002699  -0.04734  0.04915  -0.02643  -0.595  -0.2737
6.534e+09  -0.9143  -0.2097  -0.02575  -0.0003391  0.01664  0.002966  -0.6296  -0.07028
6.535e+09  -0.9184  0.1947  0.01654  0.02185  -0.09766  0.002263  -0.6575  0.13
6.536e+09  -0.8211  0.3817  0.009161  -0.02995  0.01706  0.007808  -0.5464  0.2816
6.538e+09  -0.6314  0.6405  0.006572  0.01422  0.04485  -0.01484  -0.455  0.4571
6.539e+09  -0.3313  0.8211  0.008104  0.02538  -0.007345  0.01529  -0.2524  0.6357
6.54e+09  0.00765  0.9452  -0.01234  -0.0131  0.01894  0.05304  -0.06011  0.6822
6.541e+09  0.3135  0.8614  -0.004001  0.01019  -0.02845  -0.03116  0.2105  0.6618
6.542e+09  0.6184  0.6905  0.02272  0.0117  0.02799  0.005942  0.3992  0.5804
6.544e+09  0.8229  0.4391  0.01819  -0.01091  -0.01661  -0.01325  0.5837  0.3667
6.545e+09  0.9631  0.1212  0.004811  -0.004248  -0.00863  0.01039  0.6935  0.1639
6.546e+09  0.8335  -0.2381  -0.01698  0.007461  -0.02512  0.0153  0.7325  -0.06616
6.548e+09  0.7831  -0.5149  0.0006643  -0.01521  -0.02178  -0.03496  0.6675  -0.3058
6.549e+09  0.5387  -0.7128  0.008948  -0.008433  0.0522  -0.005714  0.5451  -0.5508
6.55e+09  0.2549  -0.9343  -0.02749  -0.03212  -0.03009  0.01068  0.2496  -0.6459
