# Hz S RI R 50
6.25e+09  -0.3162  0.7413  -0.02153  -0.002155  -0.03275  -0.01034  0.1578  0.4985
6.251e+09  -0.08233  0.7989  0.01852  -0.01477  0.01671  -0.02404  0.3644  0.4015
6.252e+09  0.255  0.8258  0.001036  0.03273  -0.006712  -0.02488  0.5141  0.2547
6.254e+09  0.4907  0.6695  -0.01673  0.001736  -0.03854  0.006746  0.6204  0.04034
6.255e+09  0.6545  0.423  -0.02375  -0.007783  0.02118  0.002846  0.6211  -0.2278
6.256e+09  0.758  0.248  0.0008505  0.007583  0.01393  -0.02319  0.5004  -0.4399
6.258e+09  0.7665  -0.1192  0.0365  -0.02193  -0.007357  0.01916  0.2584  -0.6004
6.259e+09  0.7439  -0.3653  -0.009049  0.01436  -0.058  -0.01023  0.04553  -0.7054
6.26e+09  0.6223  -0.5436  0.01692  0.007475  0.0146  0.02738  -0.1935  -0.6813
6.261e+09  0.3218  -0.7358  0.02661  0.04596  0.004421  0.007615  -0.4271  -0.5294
6.262e+09  0.009992  -0.7643  0.005449  0.006824  0.024  0.04298  -0.5985  -0.3494
6.264e+09  -0.155  -0.772  0.01359  -0.03427  0.03138  0.002808  -0.7088  -0.1027
6.265e+09  -0.4973  -0.6189  0.01256  -0.003674  -0.03005  -0.02357  -0.6892  0.1435
6.266e+09  -0.6969  -0.5111  0.01766  0.005104  -0.008276  0.006082  -0.6412  0.4383
6.268e+09  -0.7706  -0.1676  0.001083  -0.03884  0.01855  0.02365  -0.4305  0.6214
6.269e+09  -0.8598  0.09332  0.01348  -0.0009425  -0.02661  -0.01675  -0.1721  0.7324
6.27e+09  -0.7776  0.3743  0.001353  -0.005834  -0.01202  -0.009631  0.07218  0.7436
6.271e+09  -0.569  0.5517  0.0007039  0.006495  0.02275  -0.01252  0.3286  0.6844
6.272e+09  -0.2766  0.699  -0.002227  0.004994  -0.04228  0.0008725  0.5233  0.5306
6.274e+09  -0.06292  0.8533  -0.0005042  0.006463  0.01891  -0.01471  0.7077  0.3048
6.275e+09  0.186  0.7503  -0.01119  0.009868  0.04341  -0.02899  0.7561  0.0278
6.276e+09  0.4699  0.6334  -0.005199  -0.007981  0.01594  0.00433  0.732  -0.2073
6.278e+09  0.6639  0.4145  -0.01853  0.004441  -0.0415  0.05677  0.6395  -0.4649
6.279e+09  0.7882  0.2127  0.01357  0.01702  0.01837  0.04529  0.4099  -0.6355
6.28e+09  0.7889  -0.08938  -0.01041  -0.02602  0.005897  0.03361  0.1911  -0.7493
6.281e+09  0.7227  -0.3661  -0.005939  0.001764  -0.05593  -0.02105  -0.1113  -0.7549
6.282e+09  0.5562  -0.5601  0.01474  0.01461  -0.01501  0.01128  -0.385  -0.6976
6.284e+09  0.2919  -0.7567  -0.01112  0.02351  0.02309  0.0281  -0.6121  -0.5224
6.285e+09  0.02926  -0.7883  -0.01434  0.01619  -0.01727  -0.004258  -0.6995  -0.3209
6.286e+09  -0.2583  -0.7621  -0.002629  -0.001226  0.01464  -0.007638  -0.8086  -0.04501
6.288e+09  -0.5047  -0.669  -0.01939  -0.004184  -0.005266  -0.01539  -0.7312  0.2326
6.289e+09  -0.6324  -0.4424  0.0004024  0.008286  -0.01344  -0.01456  -0.6466  0.5423
6.29e+09  -0.8054  -0.1466  -0.003938  -0.007989  -0.01674  0.01144  -0.4228  0.6613
6.291e+09  -0.7256  0.1439  0.005539  -0.02062  -0.01113  0.01672  -0.1376  0.7839
6.292e+09  -0.7273  0.3861  -0.005829  0.0009886  -0.01052  -0.01029  0.1566  0.7839
6.294e+09  -0.5405  0.6509  0.01546  0.01221  -0.01296  -0.006909  0.3645  0.7143
6.295e+09  -0.3395  0.7445  0.01885  0.008277  -0.0554  0.005297  0.5849  0.534
6.296e+09  0.002891  0.7401  -0.0243  0.004391  0.02363  0.07181  0.7758  0.3108
6.298e+09  0.2677  0.7582  0.03855  0.01094  0.03124  0.05408  0.8146  0.03827
6.299e+09  0.5239  0.5838  0.01576  0.02909  -0.0181  -0.02817  0.7737  -0.2713
6.3e+09  0.7171  0.3856  -0.00336  0.008526  -0.001264  0.01291  0.6581  -0.5144
6.301e+09  0.7619  0.1683  0.01907  0.003811  -0.03652  -0.006604  0.4415  -0.7259
6.302e+09  0.7821  -0.1972  -0.0162  0.02637  0.01496  0.01834  0.1783  -0.8223
6.304e+09  0.7206  -0.4568  -0.03397  0.01129  0.04182  -0.0005326  -0.1485  -0.8198
6.305e+09  0.5272  -0.6614  -0.01124  0.005663  0.01231  0.02055  -0.4226  -0.722
6.306e+09  0.2874  -0.7384  0.0142  -0.0123  -0.00412  0.02604  -0.6249  -0.5701
6.308e+09  -0.03431  -0.8001  0.0152  -0.008697  -0.001441  0.01924  -0.8197  -0.3029
6.309e+09  -0.2785  -0.7467  -0.01746  0.00625  0.02472  0.005518  -0.8708  -0.006022
6.31e+09  -0.5299  -0.6106  -0.01146  0.00582  -0.01136  -0.005203  -0.8015  0.2559
6.311e+09  -0.725  -0.3739  0.03184  0.02341  -0.004836  0.003167  -0.6736  0.5623
6.312e+09  -0.8014  -0.1383  0.01348  0.002531  0.03361  0.01659  -0.4204  0.7538
6.314e+09  -0.7723  0.1658  -0.01643  -0.004662  0.03395  0.009858  -0.1631  0.8699
6.315e+09  -0.7031  0.48  -0.00629  0.0266  0.01596  -0.02929  0.1872  0.8456
6.316e+09  -0.4359  0.6652  0.03391  0.03081  0.01589  0.02792  0.4285  0.7493
6.318e+09  -0.2189  0.7795  0.01883  -0.01736  0.08236  -0.02716  0.6587  0.576
6.319e+09  0.04599  0.7686  0.004093  0.01271  -0.008561  -0.04343  0.806  0.3266
6.32e+09  0.3502  0.7801  -0.01529  0.01374  -0.01605  -0.02737  0.8809  0.04627
6.321e+09  0.5577  0.5758  0.02329  0.003044  0.03822  0.02338  0.8598  -0.3189
6.322e+09  0.7509  0.298  -0.001135  0.001861  0.01779  0.02393  0.7156  -0.5696
6.324e+09  0.8084  0.05304  -0.01894  0.007259  -0.01507  -0.01472  0.4597  -0.7993
6.325e+09  0.7836  -0.2277  0.03293  -0.005115  0.00527  -0.0348  0.1449  -0.8555
6.326e+09  0.7069  -0.5026  -0.02533  0.01727  0.02771  -0.005419  -0.1467  -0.8765
6.328e+09  0.4631  -0.6651  0.006148  -0.01158  -0.02605  0.02218  -0.425  -0.7807
6.329e+09  0.1893  -0.8309  0.04299  0.02686  -0.0126  -0.05063  -0.6864  -0.5702
6.33e+09  -0.1145  -0.8353  -0.0073  0.02649  0.0179  0.01967  -0.8467  -0.3054
6.331e+09  -0.353  -0.7259  0.01462  -0.0275  0.001813  -0.05611  -0.9065  -0.03013
6.332e+09  -0.5924  -0.5979  0.0108  -0.003027  -0.02916  -0.01717  -0.8664  0.2951
6.334e+09  -0.7615  -0.269  -0.0197  0.01654  0.02268  -0.006239  -0.7073  0.5587
6.335e+09  -0.8424  -0.005461  0.016  0.0108  0.002459  0.02476  -0.4851  0.802
6.336e+09  -0.7958  0.2949  -0.002425  0.03029  -0.02955  0.04156  -0.1847  0.8793
6.338e+09  -0.6481  0.5086  -0.00841  0.005604  0.02788  -0.01631  0.137  0.9513
6.339e+09  -0.4339  0.7209  -0.01261  -0.0208  -0.003261  -0.03412  0.4137  0.8036
6.34e+09  -0.133  0.8666  -0.004647  0.01723  0.05583  -0.03185  0.6537  0.6488
6.341e+09  0.1566  0.8357  0.01399  0.006213  0.009322  -0.009612  0.8368  0.336
6.342e+09  0.4446  0.7077  -0.0198  -0.007136  0.01894  -0.03477  0.9346  0.02497
6.344e+09  0.6658  0.4962  -0.007681  -0.0215  0.03848  0.01445  0.9089  -0.262
6.345e+09  0.8155  0.2771  0.02526  0.008444  -0.02094  0.02324  0.7105  -0.5463
6.346e+09  0.8647  0.002357  0.02037  -0.02094  -0.005649  0.06598  0.4992  -0.7915
6.348e+09  0.7814  -0.3499  -0.01067  0.0198  0.05144  0.003619  0.2021  -0.9052
6.349e+09  0.621  -0.5857  0.0154  0.01619  0.003592  -0.0181  -0.1224  -0.8996
6.35e+09  0.3693  -0.8036  0.02739  -0.006414  0.01283  0.004436  -0.3912  -0.8324
6.351e+09  0.06187  -0.8015  0.004707  -0.01983  -0.002976  0.01677  -0.6854  -0.6435
6.352e+09  -0.1786  -0.8493  0.01224  -0.004424  -0.02179  -0.01589  -0.8768  -0.372
6.354e+09  -0.5031  -0.7372  0.03299  -0.01534  -0.007103  0.01767  -0.9431  -0.04863
6.355e+09  -0.6924  -0.4901  -0.01355  0.02554  0.0009754  0.0043  -0.8885  0.2692
6.356e+09  -0.8516  -0.2347  0.01402  0.01862  -0.0233  -0.02248  -0.7778  0.5815
6.358e+09  -0.8596  0.04524  -0.005267  -0.002588  0.003766  0.007813  -0.5027  0.775
6.359e+09  -0.7348  0.3634  0.02572  -0.004909  -0.01519  0.02821  -0.1985  0.9213
6.36e+09  -0.5867  0.6181  -0.025  -0.01324  0.00556  -0.003065  0.09873  0.9381
6.361e+09  -0.3035  0.7559  -0.01439  0.01638  0.04404  -0.01578  0.4336  0.8669
6.362e+09  -0.002757  0.8569  0.01097  0.002079  0.04227  0.01037  0.6348  0.6672
6.364e+09  0.2698  0.8128  -0.004238  -0.02718  0.004885  -0.02256  0.8887  0.4032
6.365e+09  0.542  0.7048  -0.01767  0.004821  0.02382  -0.006222  0.9482  0.06286
6.366e+09  0.7677  0.4162  -0.008877  -0.04375  -0.01555  0.001933  0.9089  -0.2585
6.368e+09  0.8369  0.1339  -0.02384  -0.01986  0.04411  -0.02559  0.8217  -0.5368
6.369e+09  0.8099  -0.1234  -0.002803  0.01978  0.006814  0.007514  0.5205  -0.7354
6.37e+09  0.7256  -0.4381  0.001674  0.02057  0.01094  -0.02849  0.2816  -0.8955
6.371e+09  0.5823  -0.7292  -0.007446  0.01335  0.02089  0.03726  -0.08799  -0.9686
6.372e+09  0.2748  -0.7961  -0.02258  -0.03242  -0.02526  0.02804  -0.3978  -0.8563
6.374e+09  -0.001815  -0.9068  0.0122  0.005628  0.002421  0.01332  -0.6905  -0.6408
6.375e+09  -0.3467  -0.7755  0.0161  8.159e-05  0.05635  0.006919  -0.859  -0.4211
6.376e+09  -0.5323  -0.6783  -0.01262  -0.003691  0.03088  -0.03793  -0.8975  -0.082
6.378e+09  -0.7691  -0.3891  -0.01104  0.008039  0.00867  0.01854  -0.9159  0.2147
6.379e+09  -0.8338  -0.1325  -0.01136  0.01195  0.05041  0.02484  -0.7863  0.5182
6.38e+09  -0.8154  0.1593  0.03838  -0.00265  0.02222  -0.00275  -0.5418  0.7522
6.381e+09  -0.7479  0.4617  0.02264  -0.00478  -0.03636  0.0206  -0.3035  0.8891
6.382e+09  -0.5404  0.6639  -0.006772  -0.01992  0.002473  0.004367  0.06822  0.9485
6.384e+09  -0.2507  0.8221  -0.007734  -0.004129  0.01871  -0.02333  0.3626  0.8669
6.385e+09  0.05965  0.8348  -0.001803  0.007184  0.02689  0.003164  0.6222  0.686
6.386e+09  0.361  0.8098  0.004527  0.01244  0.02949  -0.01795  0.8409  0.4402
6.388e+09  0.6163  0.6146  -0.005088  0.003287  0.04175  -0.02146  0.9003  0.1627
6.389e+09  0.7837  0.3724  -0.0514  0.01431  -0.06944  -0.02076  0.897  -0.2308
6.39e+09  0.8451  0.0531  0.01182  -0.002841  -0.03741  0.02535  0.7873  -0.506
6.391e+09  0.7996  -0.2048  0.0561  -0.004345  -0.01961  0.006133  0.604  -0.7417
6.392e+09  0.7229  -0.4929  -0.03385  -0.004532  0.02777  -0.001451  0.2845  -0.8421
6.394e+09  0.4944  -0.7558  -0.01241  0.005762  0.02519  0.07286  -0.04698  -0.9436
6.395e+09  0.1832  -0.8047  0.001691  -0.006009  0.01038  -0.02065  -0.3196  -0.8247
6.396e+09  -0.1135  -0.8554  -0.0281  0.007272  0.01092  0.004473  -0.5611  -0.685
6.398e+09  -0.4034  -0.7955  0.001756  -0.0103  0.005692  -0.0293  -0.7764  -0.4345
6.399e+09  -0.6244  -0.6019  -0.03161  0.01616  -0.02751  -0.03156  -0.8773  -0.1861
6.4e+09  -0.8338  -0.3941  -0.0187  0.00393  -0.0471  0.004523  -0.8853  0.1878
6.401e+09  -0.8658  -0.07965  0.04749  0.02153  -0.003967  0.02279  -0.7846  0.4573
6.402e+09  -0.8653  0.2594  -0.03526  0.01154  -6.436e-05  -0.0089  -0.57  0.6969
6.404e+09  -0.6764  0.5272  -0.00323  -0.004977  0.01471  0.03139  -0.3394  0.833
6.405e+09  -0.4738  0.682  -0.04461  0.0231  -0.0297  0.009075  0.01118  0.9548
6.406e+09  -0.1997  0.881  0.04325  0.01183  0.04823  0.06264  0.3317  0.8662
6.408e+09  0.09811  0.8585  -0.04536  0.006184  0.003456  0.001009  0.566  0.6965
6.409e+09  0.3935  0.8011  0.01919  -0.02304  0.009273  0.02461  0.7184  0.409
6.41e+09  0.6424  0.5479  0.03675  -0.04243  0.0553  -0.05979  0.8879  0.1419
6.411e+09  0.7859  0.3422  0.01446  -0.03169  0.01402  -0.006633  0.9058  -0.1775
6.412e+09  0.8405  0.04623  0.02423  -0.02328  0.05983  0.0212  0.8303  -0.4367
6.414e+09  0.8112  -0.2582  -0.001959  -0.003475  0.04495  -0.0377  0.568  -0.6311
6.415e+09  0.6333  -0.531  -0.0579  -0.01908  -0.03414  -0.001732  0.3395  -0.8134
6.416e+09  0.5005  -0.7326  0.0598  -0.007728  -0.0132  0.002893  0.04771  -0.878
6.418e+09  0.155  -0.8153  -0.01557  -0.01253  0.03404  -0.01077  -0.2621  -0.8986
6.419e+09  -0.09466  -0.8686  0.001295  -0.01465  -0.03854  0.005742  -0.5121  -0.7455
6.42e+09  -0.4164  -0.7782  -0.003258  0.03329  -0.01822  0.01384  -0.7566  -0.4376
6.421e+09  -0.6701  -0.5523  -0.0213  0.007458  0.003823  0.002859  -0.9122  -0.1679
6.422e+09  -0.7559  -0.2948  -0.007533  0.00745  0.008957  0.03023  -0.9267  0.1249
6.424e+09  -0.8593  -0.02493  0.01461  -0.007292  -0.05139  0.008813  -0.751  0.3899
6.425e+09  -0.8089  0.2748  -0.03298  0.03005  -0.04083  0.04212  -0.6105  0.6629
6.426e+09  -0.6904  0.5019  0.02772  -0.005288  0.03176  -0.04559  -0.3571  0.7824
6.428e+09  -0.4912  0.728  -0.05531  0.007154  -0.002179  -0.005914  -0.04027  0.8775
6.429e+09  -0.1629  0.8254  0.01791  -0.01267  -0.02298  -0.01617  0.2882  0.7968
6.43e+09  0.1401  0.8845  -0.03832  -0.002437  -0.0273  -0.02452  0.5469  0.6913
6.431e+09  0.4165  0.7254  0.008195  -0.04497  0.01866  0.02843  0.751  0.4369
6.432e+09  0.6264  0.5498  -0.002777  0.00226  0.04387  0.0271  0.8678  0.2255
6.434e+09  0.7854  0.3047  0.01496  -0.002227  -0.01948  -0.03776  0.8367  -0.03493
6.435e+09  0.8739  -0.002395  -0.00972  -0.01792  -0.002944  -0.038  0.7439  -0.382
6.436e+09  0.8452  -0.2667  0.01663  0.0002871  0.0132  -0.003565  0.6068  -0.5816
6.438e+09  0.6668  -0.5613  -0.01994  0.01337  -0.02276  0.003667  0.3556  -0.8204
6.439e+09  0.4592  -0.741  0.03375  0.02781  0.01887  0.002766  0.05586  -0.8526
6.44e+09  0.1584  -0.8204  0.03997  -0.01111  -0.003875  -0.001086  -0.2288  -0.8422
6.441e+09  -0.1357  -0.8626  0.04777  -0.01898  -0.009446  0.003071  -0.4662  -0.6732
6.442e+09  -0.4207  -0.7555  -0.01686  -0.03955  0.03102  -0.0126  -0.6829  -0.5058
6.444e+09  -0.6694  -0.5724  -0.01088  -0.0213  -0.02214  -0.02535  -0.7983  -0.2501
6.445e+09  -0.8555  -0.3078  0.007875  -0.03028  0.04152  -0.02907  -0.8078  0.08033
6.446e+09  -0.8542  0.02985  -0.02338  -0.013  0.02575  0.01556  -0.7898  0.3746
6.448e+09  -0.7883  0.2875  0.03201  0.00328  0.03216  -0.02534  -0.6106  0.6137
6.449e+09  -0.6828  0.5751  0.006947  -0.02537  0.05425  0.01863  -0.3768  0.7628
6.45e+09  -0.4202  0.7599  -0.009588  -0.02413  -0.01419  -0.0414  -0.05967  0.8077
6.451e+09  -0.1221  0.8549  -0.006292  -0.02421  -0.01017  0.01217  0.2582  0.8018
6.452e+09  0.1121  0.8349  -0.008137  0.01101  -0.05531  -0.04464  0.5215  0.6813
6.454e+09  0.4158  0.7541  -0.01786  -0.00694  0.03666  0.003747  0.6513  0.4562
6.455e+09  0.7131  0.6026  -0.02363  -0.01402  0.01696  0.03338  0.8037  0.2067
6.456e+09  0.7899  0.2824  -0.006583  0.04163  0.02531  -0.01539  0.8295  -0.05281
6.458e+09  0.8216  -0.0496  0.01076  -0.01579  0.005729  0.004579  0.7116  -0.3533
6.459e+09  0.8029  -0.2949  0.02888  -0.01304  -0.02353  -0.03306  0.6153  -0.5639
6.46e+09  0.637  -0.5738  -0.004727  -0.001713  0.02106  -0.0371  0.3347  -0.7611
6.461e+09  0.4243  -0.7383  -0.01534  -0.02023  -0.00113  0.03002  0.05608  -0.8012
6.462e+09  0.1516  -0.8815  0.003967  -0.00137  -0.005496  -0.006376  -0.1829  -0.7918
6.464e+09  -0.1265  -0.8506  0.01132  0.01459  0.01587  0.006823  -0.4532  -0.6544
6.465e+09  -0.428  -0.7388  0.03364  -0.0158  0.009438  0.01  -0.711  -0.4548
6.466e+09  -0.6441  -0.5567  0.01399  0.0006963  0.03358  0.01462  -0.7469  -0.2252
6.468e+09  -0.7985  -0.2786  0.02431  -0.00324  0.009691  -0.01165  -0.7835  0.1076
6.469e+09  -0.8667  0.01647  0.0145  -0.04226  0.006543  -0.01388  -0.7431  0.3555
6.47e+09  -0.8029  0.326  -0.02091  -0.01804  0.006594  -0.03592  -0.5639  0.5545
6.471e+09  -0.6496  0.6045  -0.04415  -0.008351  -0.003235  0.01323  -0.339  0.731
6.472e+09  -0.3753  0.7474  0.002988  0.01259  0.03453  0.01203  -0.05176  0.7946
6.474e+09  -0.1398  0.8823  0.05189  0.007135  0.01507  -0.02322  0.2435  0.7325
6.475e+09  0.1127  0.8482  -0.01576  -0.02449  -0.01997  0.001737  0.5008  0.6606
6.476e+09  0.4761  0.72  -0.002457  0.01456  -0.01562  -0.02804  0.6444  0.4605
6.478e+09  0.6879  0.4934  -0.05826  0.0126  -0.004375  0.01003  0.7735  0.1916
6.479e+09  0.8194  0.2857  0.00712  0.006052  0.004299  -0.02277  0.7991  -0.06368
6.48e+09  0.8738  -0.02071  -0.02942  -0.008951  0.01283  0.003083  0.7152  -0.3161
6.481e+09  0.8085  -0.3432  -0.003622  0.02441  0.04319  -0.02607  0.5301  -0.5693
6.482e+09  0.6002  -0.5957  0.01154  -0.007152  0.03788  -0.003594  0.3162  -0.6991
6.484e+09  0.4105  -0.7568  -0.004536  0.00738  -0.03164  -0.03406  0.04214  -0.7703
6.485e+09  0.08483  -0.9304  0.04012  0.00316  -0.01411  -0.03866  -0.193  -0.7209
6.486e+09  -0.2169  -0.8569  -0.01542  0.0002681  -0.0203  -0.03039  -0.446  -0.6136
6.488e+09  -1.218  -0.9153  0.004753  0.009259  0.2731  0.6724  -0.616  -0.4071
6.489e+09  -0.693  -0.5332  0.02255  -0.01239  -0.02472  0.06845  -0.778  -0.172
6.49e+09  -0.8051  -0.2374  -0.01329  -0.001165  0.08841  -0.01233  -0.7686  0.06141
6.491e+09  -0.9185  0.08619  -0.00219  0.000316  0.01851  -0.03626  -0.6754  0.3323
6.492e+09  -0.8353  0.3648  0.004142  -0.03225  0.001853  -0.01853  -0.5219  0.571
6.494e+09  -0.7433  0.639  -0.01208  -0.009105  0.04981  0.06073  -0.3006  0.6469
6.495e+09  -0.3574  0.8448  0.04116  -0.04517  -0.002116  -0.00222  -0.03562  0.7548
6.496e+09  -0.1074  0.9201  0.02494  -0.0001585  0.01548  0.02675  0.2061  0.737
6.498e+09  0.2268  0.9472  -0.002409  0.02743  0.04778  -0.02544  0.5009  0.5795
6.499e+09  0.4709  0.7473  -0.02249  -0.02351  -0.005195  -0.05957  0.6051  0.4162
6.5e+09  0.7363  0.5039  -0.004822  -0.01158  0.04032  0.05133  0.7337  0.1747
6.501e+09  0.8607  0.2546  0.0009553  0.01909  -0.006274  0.04972  0.7662  -0.1385
6.502e+09  0.9224  -0.04043  -0.01173  0.008028  0.03146  0.019  0.6744  -0.377
6.504e+09  0.8092  -0.3908  0.01543  -0.02211  -0.002301  -0.04186  0.468  -0.5814
6.505e+09  0.6266  -0.6497  0.008277  -0.0153  0.01931  0.003923  0.2871  -0.7101
6.506e+09  0.3834  -0.8745  -0.03398  -0.02706  0.04129  0.0233  0.04517  -0.7405
6.508e+09  0.02722  -0.8732  0.01446  0.04881  -0.02568  0.02036  -0.2537  -0.7041
6.509e+09  -0.2346  -0.9222  0.01782  0.006893  -0.02804  -0.003521  -0.5042  -0.5782
6.51e+09  -0.5529  -0.7435  -0.008058  0.006128  0.01545  0.02582  -0.6702  -0.3577
6.511e+09  -0.8139  -0.547  -0.02667  0.031  0.01438  -0.009475  -0.7721  -0.1292
6.512e+09  -0.8542  -0.2083  -0.02159  0.006991  0.01341  6.637e-05  -0.7128  0.1396
6.514e+09  -0.9997  0.123  -0.02687  -0.02687  -0.05399  -0.003982  -0.6598  0.3267
6.515e+09  -0.7954  0.4453  0.002957  0.01642  0.002246  0.03529  -0.4536  0.5756
6.516e+09  -0.6389  0.7095  0.01624  0.02967  -0.02295  -0.02207  -0.2116  0.722
6.518e+09  -0.2899  0.8512  0.007491  -0.06078  0.006853  -0.0141  0.01252  0.7453
6.519e+09  -0.04599  0.9639  -0.003187  0.006696  -0.06031  -0.06576  0.2954  0.6533
6.52e+09  0.3087  0.9006  -0.03507  0.001914  -0.01669  -0.02144  0.4772  0.5603
6.521e+09  0.5953  0.7763  -0.0136  -0.04557  0.003332  0.03516  0.6414  0.3066
6.522e+09  0.7819  0.4348  0.01293  -0.01715  -0.00175  -0.01709  0.742  0.101
6.524e+09  0.9472  0.1411  0.007453  -0.01317  -0.007014  -0.003744  0.7146  -0.1475
6.525e+09  0.8841  -0.2056  -0.0161  0.003697  0.003639  0.003362  0.5979  -0.4183
6.526e+09  0.7926  -0.4845  -0.01099  0.02743  0.004951  0.08154  0.452  -0.6107
6.528e+09  0.5885  -0.7493  -0.02037  0.003321  -0.006048  -0.02367  0.1903  -0.6803
6.529e+09  0.3057  -0.8855  -0.01841  0.02219  -0.03894  0.03085  -0.04396  -0.7127
6.53e+09  -0.03641  -0.9495  0.005394  0.02608  -0.0198  0.01222  -0.2925  -0.6288
6.531e+09  -0.3715  -0.8755  -0.02708  0.002763  -0.04062  -0.007424  -0.4496  -0.4846
6.532e+09  -0.6269  -0.7449  -0.009322  -0.05116  0.01204  0.03266  -0.5966  -0.2826
6.534e+09  -0.8463  -0.4126  -0.003664  0.00152  0.02013  -0.04365  -0.6331  -0.09797
6.535e+09  -0.9409  -0.1126  0.01742  -0.007579  -0.005408  -0.0009324  -0.6306  0.1508
6.536e+09  -0.9233  0.2408  -0.03165  -0.01914  -0.002831  -0.01403  -0.6022  0.3032
6.538e+09  -0.7428  0.5936  0.005532  -0.001045  0.03436  0.02856  -0.4299  0.4812
6.539e+09  -0.546  0.8028  0.04813  -0.0342  -0.004399  0.01536  -0.2494  0.6178
6.54e+09  -0.2277  0.9124  -0.004533  0.007269  0.02675  0.02766  -0.05067  0.6685
6.541e+09  0.129  0.9344  -0.0346  -0.03523  -0.01864  -0.001885  0.1937  0.6725
6.542e+09  0.4916  0.8401  0.038  -0.006076  0.02119  -0.0161  0.4318  0.5636
6.544e+09  0.6838  0.6415  0.0189  -0.008869  -0.02568  0.02458  0.5593  0.3777
6.545e+09  0.8663  0.3461  0.02331  0.01159  0.0233  0.00254  0.7007  0.1922
6.546e+09  0.901  0.04852  0.003753  -0.01785  0.02755  -0.03105  0.7163  -0.09059
6.548e+09  0.8358  -0.3198  -0.0001728  0.009443  -0.02127  0.01614  0.6163  -0.3153
6.549e+09  0.7092  -0.6058  -0.005287  0.007567  -0.0231  0.01643  0.4892  -0.5148
6.55e+09  0.4585  -0.7852  -0.01779  0.007972  0.03192  -0.001469  0.3044  -0.7057
