# Hz S RI R 50
6.25e+09  -0.5738  0.5556  0.02606  -0.00124  0.03578  -0.01995  0.1558  0.4388
6.251e+09  -0.3233  0.773  -0.0326  -0.02864  0.07175  -0.001559  0.3434  0.4018
6.252e+09  -0.05949  0.8209  -0.005378  0.001515  -0.05747  0.04313  0.5366  0.2293
6.254e+09  0.196  0.8412  0.0189  0.006425  -0.04064  0.01042  0.6184  0.02686
6.255e+09  0.501  0.6582  -0.04396  0.01647  -0.02036  -0.01576  0.5989  -0.2031
6.256e+09  0.6569  0.4249  -0.03037  -0.02529  -0.01201  0.01563  0.4712  -0.4499
6.258e+09  0.8107  0.2011  -0.005465  -0.0246  0.04855  0.01612  0.3012  -0.6183
6.259e+09  0.8234  -0.0835  -0.007849  0.01232  0.06385  0.02096  0.02257  -0.6841
6.26e+09  0.7295  -0.3518  0.002316  -0.006468  -0.03025  -0.00353  -0.2116  -0.6619
6.261e+09  0.5283  -0.642  0.03318  0.008353  -0.01552  -0.02356  -0.4739  -0.5251
6.262e+09  0.3046  -0.7473  0.03763  -0.01957  0.0432  0.01541  -0.6174  -0.3251
6.264e+09  0.127  -0.81  -0.01623  -0.006977  0.01195  -0.006591  -0.7318  -0.09306
6.265e+09  -0.2308  -0.7856  0.01869  -0.01554  0.004581  0.006138  -0.7003  0.1626
6.266e+09  -0.4394  -0.6993  0.0002102  -0.02388  8.182e-06  0.05123  -0.6289  0.4201
6.268e+09  -0.6214  -0.4403  0.01728  -0.01125  -0.08031  -0.01506  -0.4267  0.6263
6.269e+09  -0.7952  -0.1731  -0.001977  -0.01706  0.03558  -0.02854  -0.2015  0.7095
6.27e+09  -0.7826  0.09588  -0.02065  0.02359  0.04024  0.01098  0.05921  0.7233
6.271e+09  -0.6745  0.3858  0.009424  -0.001279  -0.03035  -0.007426  0.3157  0.692
6.272e+09  -0.5515  0.6044  -0.01664  0.01628  0.02135  0.02303  0.5335  0.5017
6.274e+09  -0.2938  0.7653  0.01301  0.03227  0.02229  0.02503  0.7144  0.3222
6.275e+09  0.01284  0.7688  0.01817  0.01233  0.02077  0.01838  0.7671  0.0499
6.276e+09  0.186  0.7978  -0.006868  -0.004021  0.000992  0.03614  0.7301  -0.2242
6.278e+09  0.5043  0.6559  0.00785  -0.01234  -0.01859  0.02546  0.5847  -0.4518
6.279e+09  0.6273  0.4309  0.02789  -0.02038  0.02934  0.02478  0.3961  -0.7015
6.28e+09  0.7502  0.1243  0.004716  0.0001606  -0.001539  0.01053  0.1664  -0.7684
6.281e+09  0.862  -0.09067  0.02307  0.006581  -0.01542  0.007798  -0.07885  -0.7558
6.282e+09  0.7243  -0.3811  0.01869  -0.02743  0.04965  0.03742  -0.3758  -0.7047
6.284e+09  0.5421  -0.5841  -0.00762  -0.0327  0.01694  -0.02559  -0.5628  -0.5148
6.285e+09  0.3264  -0.6746  0.002351  0.002255  -0.01706  -0.006768  -0.7395  -0.292
6.286e+09  0.02597  -0.782  -0.006551  -0.01625  0.001474  -0.006382  -0.7944  -0.02664
6.288e+09  -0.225  -0.7519  -0.009649  0.002122  -0.006841  -0.01556  -0.7658  0.2581
6.289e+09  -0.5114  -0.6113  -0.002128  0.001119  -0.01527  -0.01515  -0.6398  0.5063
6.29e+09  -0.6625  -0.384  0.02144  0.01939  -0.03788  -0.05502  -0.3871  0.6804
6.291e+09  -0.7766  -0.1871  -0.0001839  0.011  -0.00709  0.0486  -0.1654  0.7867
6.292e+09  -0.8151  0.1428  -0.01833  0.005112  -0.00872  -0.02227  0.1118  0.8049
6.294e+09  -0.6289  0.409  -0.0118  0.004708  -0.0186  0.02779  0.3916  0.6945
6.295e+09  -0.5208  0.6121  0.01613  -0.01794  -0.02597  -0.004291  0.6028  0.5735
6.296e+09  -0.2761  0.7459  0.01531  0.001894  0.01458  0.01118  0.7478  0.3138
6.298e+09  -0.01553  0.7931  -0.0006438  -0.001424  0.02865  0.04567  0.8091  0.009446
6.299e+09  0.2677  0.8247  -0.006704  -0.01554  -0.03394  -0.01258  0.7651  -0.2858
6.3e+09  0.5495  0.6311  -0.04017  -0.005182  0.001222  0.006436  0.6501  -0.5303
6.301e+09  0.7176  0.4013  0.008797  -0.02074  -0.02084  -0.02556  0.4346  -0.7237
6.302e+09  0.7882  0.1279  0.009257  0.01541  -0.02342  0.02079  0.1266  -0.8334
6.304e+09  0.8066  -0.1327  0.01064  -0.02948  -0.02829  -0.01667  -0.1567  -0.8524
6.305e+09  0.7305  -0.3627  0.01409  0.0328  0.04719  0.02646  -0.4176  -0.7497
6.306e+09  0.4417  -0.6045  0.00149  -0.007266  -0.03939  0.05944  -0.622  -0.5527
6.308e+09  0.2507  -0.7702  0.001464  0.02358  -0.00272  0.001725  -0.8152  -0.2914
6.309e+09  -0.03445  -0.7853  0.01973  -0.01541  0.004488  0.02957  -0.8559  -0.008248
6.31e+09  -0.3295  -0.746  0.003502  0.02043  -0.05671  0.004474  -0.8173  0.2828
6.311e+09  -0.4895  -0.6612  0.01714  -0.02638  0.08832  -0.05333  -0.6743  0.5471
6.312e+09  -0.7039  -0.3898  -0.03588  -0.005493  -0.007648  -0.01929  -0.4294  0.7426
6.314e+09  -0.8144  -0.08957  -0.04221  0.01833  0.02972  0.04983  -0.1851  0.8584
6.315e+09  -0.7363  0.1513  0.006837  0.007157  0.02598  0.02303  0.1437  0.8411
6.316e+09  -0.6531  0.4268  0.01418  0.01021  0.01789  -0.01746  0.4257  0.7537
6.318e+09  -0.5069  0.6298  0.02336  0.01038  -0.0444  -0.02102  0.6651  0.5855
6.319e+09  -0.209  0.747  -0.01718  -0.004934  0.02028  -0.03672  0.8256  0.2808
6.32e+09  0.05447  0.8247  0.00239  -0.01551  -0.006821  -0.02468  0.9018  0.02322
6.321e+09  0.3744  0.7306  0.02124  0.03717  0.04219  -0.05346  0.8402  -0.2879
6.322e+09  0.5542  0.5869  -0.008923  -0.01047  0.04327  -0.01304  0.7064  -0.5264
6.324e+09  0.7302  0.391  0.03018  0.01309  -0.03711  0.01427  0.4935  -0.778
6.325e+09  0.8112  0.07904  -0.01195  -0.03254  0.02237  -0.003035  0.189  -0.8809
6.326e+09  0.7671  -0.2061  0.009694  0.01307  0.04342  -0.03868  -0.1419  -0.8972
6.328e+09  0.6775  -0.484  -0.01602  -0.02205  -0.009272  -0.003318  -0.4419  -0.7837
6.329e+09  0.4538  -0.6529  0.00941  -0.006176  -0.001787  -0.003473  -0.6863  -0.5789
6.33e+09  0.1501  -0.8138  0.007763  -0.01312  0.0436  0.006223  -0.854  -0.3206
6.331e+09  -0.1006  -0.8411  0.01413  0.009823  0.03463  -0.0122  -0.9107  -0.02894
6.332e+09  -0.403  -0.7525  0.006776  0.02023  -0.02101  0.03774  -0.8537  0.2948
6.334e+09  -0.6102  -0.5677  0.006863  -0.03368  0.002567  -0.003799  -0.7009  0.5764
6.335e+09  -0.8284  -0.2903  0.01154  0.001914  0.008414  -0.06547  -0.4707  0.7419
6.336e+09  -0.8197  -0.01571  -0.008081  0.02266  -0.00753  -0.007286  -0.1937  0.8928
6.338e+09  -0.7268  0.2148  0.02985  0.01106  -0.03248  0.01109  0.1478  0.9422
6.339e+09  -0.6371  0.5036  -0.007437  0.02355  0.01642  -0.04184  0.4131  0.813
6.34e+09  -0.3935  0.756  -0.05277  0.002262  0.003572  0.03105  0.6893  0.6084
6.341e+09  -0.1375  0.8329  0.006466  0.005598  -0.01003  -0.05508  0.8669  0.3509
6.342e+09  0.1764  0.8169  0.02198  -0.03449  0.0166  0.03495  0.9385  0.05736
6.344e+09  0.4431  0.7373  -0.0254  0.0227  -0.01782  0.0363  0.89  -0.2635
6.345e+09  0.6617  0.5017  0.05726  0.01868  -0.03466  -0.04319  0.7346  -0.5467
6.346e+09  0.7441  0.2626  0.01368  -0.005495  -0.04111  -0.03595  0.5194  -0.7911
6.348e+09  0.8556  -0.05434  0.02247  -0.03337  -0.0114  0.04009  0.2238  -0.9131
6.349e+09  0.7555  -0.3325  -0.02038  -0.02541  -0.03119  0.005441  -0.1278  -0.9553
6.35e+09  0.6229  -0.5777  0.01292  0.02644  0.02949  0.002109  -0.4145  -0.8233
6.351e+09  0.3455  -0.7671  0.006108  0.001531  0.04064  -0.05033  -0.7036  -0.64
6.352e+09  0.08155  -0.8526  -0.006592  -0.01132  0.01839  0.03378  -0.8674  -0.383
6.354e+09  -0.235  -0.8243  0.01451  -0.002941  -0.01123  0.01504  -0.9826  -0.05564
6.355e+09  -0.4829  -0.7017  -0.01425  -0.05369  0.009106  0.01822  -0.9019  0.2766
6.356e+09  -0.6726  -0.4767  0.01267  -0.01323  0.01263  0.02596  -0.7606  0.5324
6.358e+09  -0.8235  -0.2079  -0.01093  -0.02948  -0.006211  0.03  -0.5395  0.8085
6.359e+09  -0.8534  0.1292  0.01358  -0.009648  0.02632  0.0328  -0.2631  0.9242
6.36e+09  -0.748  0.3494  -0.0225  0.02361  0.01918  -0.02686  0.09433  0.9538
6.361e+09  -0.6175  0.5888  0.003789  -0.004073  -0.03456  -0.0123  0.4376  0.8122
6.362e+09  -0.3123  0.8077  0.00654  0.002207  0.00644  0.03076  0.67  0.6798
6.364e+09  0.01228  0.7816  0.03367  0.03142  -0.03991  0.02311  0.8566  0.3756
6.365e+09  0.3228  0.7942  -0.008667  0.01815  -0.01125  0.02844  0.9656  0.06493
6.366e+09  0.5363  0.6362  -0.06412  -0.03364  -0.0128  0.009496  0.9072  -0.2569
6.368e+09  0.6988  0.4241  0.02016  0.02293  -0.001135  0.00914  0.7991  -0.517
6.369e+09  0.8218  0.163  0.03955  0.01304  0.02123  -0.04832  0.549  -0.7387
6.37e+09  0.8455  -0.1567  0.01348  -0.01375  -0.003527  0.01972  0.2519  -0.9289
6.371e+09  0.7374  -0.4296  0.0005643  -0.0173  0.02266  0.01026  -0.0562  -0.9015
6.372e+09  0.5222  -0.6381  0.00118  0.01656  -0.0425  -0.003147  -0.3663  -0.8254
6.374e+09  0.246  -0.8245  -0.03929  0.01673  0.01389  -0.01361  -0.6424  -0.6405
6.375e+09  -0.05654  -0.8342  -0.003792  0.001596  -0.04737  -0.01116  -0.8563  -0.408
6.376e+09  -0.2904  -0.8048  0.02974  0.0105  0.01452  0.03219  -0.9184  -0.1149
6.378e+09  -0.5803  -0.6271  -0.02752  -0.0009526  0.00559  0.002186  -0.9145  0.2352
6.379e+09  -0.7738  -0.3973  -0.02596  0.05213  0.004673  -0.008263  -0.7458  0.5119
6.38e+09  -0.8275  -0.1142  0.04828  -0.003843  0.04219  0.0372  -0.5138  0.7481
6.381e+09  -0.827  0.2012  0.009094  -0.03087  0.006672  0.03882  -0.2714  0.9002
6.382e+09  -0.6808  0.475  0.01979  -0.008202  0.003107  -0.009824  0.05631  0.9353
6.384e+09  -0.5064  0.6786  -0.02989  0.001959  -0.01001  -0.003357  0.3882  0.8523
6.385e+09  -0.2409  0.8124  -0.01811  -0.02652  0.007191  -0.009489  0.6342  0.6821
6.386e+09  0.07955  0.8729  -0.005058  -0.008309  -0.04121  0.004482  0.8802  0.4157
6.388e+09  0.3847  0.8125  -0.006409  -0.01773  -0.01412  0.001495  0.9369  0.1434
6.389e+09  0.6163  0.6369  0.0134  -0.02098  0.02233  -0.008912  0.9223  -0.2479
6.39e+09  0.742  0.3492  0.03138  -0.005311  0.04468  0.03402  0.8005  -0.484
6.391e+09  0.8316  0.07228  0.008599  -0.02071  -0.0005102  0.009129  0.5761  -0.7102
6.392e+09  0.8465  -0.2648  -0.05183  -0.01391  -0.01177  -0.04923  0.2682  -0.8884
6.394e+09  0.6858  -0.487  -0.02832  -0.0103  -0.0363  0.0006705  -0.06627  -0.939
6.395e+09  0.4734  -0.7482  -0.01578  6.623e-05  -0.01301  0.04053  -0.3584  -0.8866
6.396e+09  0.1427  -0.8462  0.01791  -0.05844  0.04958  0.03046  -0.6044  -0.6974
6.398e+09  -0.1047  -0.8168  0.0174  0.001311  -0.03742  -0.01351  -0.8219  -0.4918
6.399e+09  -0.3817  -0.7852  0.03579  0.02457  0.03941  -0.003209  -0.9163  -0.1679
6.4e+09  -0.6465  -0.6007  0.02793  0.01188  0.002384  0.02917  -0.9179  0.2113
6.401e+09  -0.8003  -0.3924  0.01625  -0.03088  0.02803  0.02927  -0.7802  0.4668
6.402e+09  -0.8881  -0.0391  0.00684  -0.02565  -0.005677  -0.004423  -0.5949  0.7446
6.404e+09  -0.8353  0.2554  0.01114  0.02647  -0.02923  -0.03363  -0.3275  0.8555
6.405e+09  -0.7117  0.512  -0.0007434  -0.02932  0.01891  -0.004079  0.003113  0.9059
6.406e+09  -0.4373  0.7463  -0.03682  -0.01704  0.02568  -0.02738  0.2931  0.8743
6.408e+09  -0.1721  0.8144  0.03769  0.003017  0.0306  -0.01688  0.5912  0.6793
6.409e+09  0.1496  0.8501  -0.007815  0.009557  -0.04024  0.03459  0.7646  0.4319
6.41e+09  0.3871  0.7269  0.003222  -0.0672  0.01037  -0.006648  0.8942  0.1725
6.411e+09  0.6536  0.5209  -0.03964  0.03679  -0.04309  0.01798  0.8581  -0.1258
6.412e+09  0.7854  0.2982  -0.01606  0.001765  -0.007567  0.04025  0.8325  -0.4308
6.414e+09  0.8462  0.007627  0.04578  -0.01165  -0.01945  -0.02173  0.604  -0.663
6.415e+09  0.8105  -0.2694  0.03428  0.0004291  0.03733  0.01393  0.3137  -0.8219
6.416e+09  0.6447  -0.5819  -0.03157  0.02311  -0.02022  -0.01747  0.03117  -0.9023
6.418e+09  0.4322  -0.7214  0.01681  -0.03024  0.05353  0.005639  -0.2824  -0.8487
6.419e+09  0.1547  -0.7939  0.0005369  0.03894  -0.0196  -0.0393  -0.5391  -0.6935
6.42e+09  -0.1823  -0.7883  -0.02308  -0.01886  8.446e-05  -0.06148  -0.7715  -0.4904
6.421e+09  -0.4308  -0.7184  0.03215  -0.01662  -0.03374  0.001512  -0.8495  -0.2117
6.422e+09  -0.6338  -0.5267  0.009891  -0.01469  0.006562  0.03066  -0.9078  0.07866
6.424e+09  -0.8241  -0.3004  0.001782  -0.01068  0.045  0.004428  -0.8094  0.3729
6.425e+09  -0.8663  0.01639  0.01494  0.01408  0.001886  0.004905  -0.5985  0.6671
6.426e+09  -0.7834  0.3305  0.005607  -0.03136  0.01513  0.002809  -0.3223  0.7805
6.428e+09  -0.5826  0.6226  -0.01133  0.00393  0.02709  -0.01197  -0.04544  0.8732
6.429e+09  -0.4323  0.7201  -0.008646  -0.000979  -0.04152  0.06158  0.2615  0.8571
6.43e+09  -0.1334  0.8494  0.01543  0.007737  0.003306  -0.003091  0.4981  0.6755
6.431e+09  0.1852  0.8541  -0.04535  0.01781  -0.03815  0.04479  0.7046  0.444
6.432e+09  0.4718  0.7314  -0.03693  -0.01692  0.02222  0.007956  0.8313  0.2147
6.434e+09  0.648  0.5209  0.03124  0.01773  -0.003326  -0.008817  0.8388  -0.06596
6.435e+09  0.806  0.2383  -0.03589  0.01249  -0.07784  -0.04889  0.7826  -0.3704
6.436e+09  0.86  -0.02614  0.005072  -0.003005  0.03637  -0.01188  0.5539  -0.6236
6.438e+09  0.7888  -0.3081  0.001692  -0.03023  0.01266  0.02099  0.3902  -0.8214
6.439e+09  0.6604  -0.5735  -0.003664  0.02892  0.01403  -0.0202  0.06489  -0.8816
6.44e+09  0.3571  -0.7783  -0.01951  -0.01276  0.05482  -0.007522  -0.2385  -0.7825
6.441e+09  0.1202  -0.8569  -0.01539  0.021  -0.009788  0.008126  -0.5402  -0.6613
6.442e+09  -0.2093  -0.8584  0.006249  -0.0177  0.02653  0.01973  -0.6954  -0.5167
6.444e+09  -0.45  -0.6906  0.003372  -0.005464  -0.03759  -0.01031  -0.8253  -0.2268
6.445e+09  -0.705  -0.4677  -0.0692  -0.01515  0.008221  -0.01058  -0.8478  0.09884
6.446e+09  -0.8274  -0.2203  0.005183  0.08802  -0.02337  0.007191  -0.7577  0.3135
6.448e+09  -0.8791  0.06444  0.01426  0.01418  -0.03459  -0.02186  -0.579  0.5851
6.449e+09  -0.8176  0.3614  -0.04352  0.02797  0.03735  -0.03323  -0.3628  0.7204
6.45e+09  -0.6239  0.5843  -0.03167  -0.001461  -0.01696  0.001117  -0.08489  0.8823
6.451e+09  -0.42  0.7466  -0.01586  -0.02036  0.008687  -0.01529  0.202  0.8352
6.452e+09  -0.1257  0.8474  -0.007725  -0.005499  -0.01494  -0.01736  0.4573  0.6784
6.454e+09  0.1949  0.8442  0.001321  0.01208  -0.02005  -0.008021  0.6661  0.4802
6.455e+09  0.4733  0.6686  0.0277  -0.01643  0.007284  -0.04057  0.7937  0.2006
6.456e+09  0.7018  0.5426  0.001181  0.003506  0.02622  -0.00271  0.8426  -0.06194
6.458e+09  0.8478  0.2718  0.03444  -0.04192  -0.03049  -0.005955  0.7152  -0.3707
6.459e+09  0.8046  -0.04166  0.02002  -0.00985  0.003711  0.01313  0.5584  -0.5703
6.46e+09  0.73  -0.3282  0.01804  0.0279  0.001225  -0.05453  0.3424  -0.738
6.461e+09  0.5941  -0.6259  0.01549  -0.02446  -0.03503  0.04106  0.02286  -0.7801
6.462e+09  0.3759  -0.7463  0.03069  -0.004732  -0.02219  0.02635  -0.203  -0.7664
6.464e+09  0.07234  -0.8446  0.006366  0.06392  0.00969  0.03691  -0.482  -0.6559
6.465e+09  -0.1905  -0.7861  -0.01228  -0.03466  -0.01082  -0.00841  -0.6474  -0.4694
6.466e+09  -0.4585  -0.7239  -0.003105  0.03612  0.003924  0.03061  -0.7607  -0.2327
6.468e+09  -0.6507  -0.5221  0.004892  -0.01367  -0.0005668  -0.01474  -0.7731  0.07486
6.469e+09  -0.8183  -0.2456  0.01482  0.0225  0.01993  0.007274  -0.7256  0.3428
6.47e+09  -0.7981  0.01622  0.0337  -0.001699  0.02784  -0.0005112  -0.5025  0.5623
6.471e+09  -0.7537  0.3692  0.02074  -0.03419  0.04749  0.01064  -0.2899  0.7629
6.472e+09  -0.6036  0.6048  0.01743  0.009776  -0.004355  0.04189  -0.09561  0.8225
6.474e+09  -0.34  0.8036  -0.06659  0.002451  0.04393  -0.01438  0.2443  0.7779
6.475e+09  -0.1084  0.8258  -0.009092  0.009536  0.002578  0.03057  0.5037  0.6053
6.476e+09  0.2441  0.8075  -0.03929  -0.01537  0.03902  -0.01339  0.6222  0.4841
6.478e+09  0.4952  0.737  0.0101  -0.0004448  -0.02086  -0.02581  0.7644  0.1303
6.479e+09  0.7246  0.4533  -0.01873  -0.0357  -0.01395  0.01268  0.7387  -0.06311
6.48e+09  0.8468  0.2156  0.001278  0.008691  -0.04987  0.01516  0.7383  -0.3106
6.481e+09  0.8484  -0.08781  0.01892  -0.01169  -0.01223  -0.001828  0.5895  -0.5346
6.482e+09  0.7908  -0.3831  -0.006475  -0.007273  0.04083  -0.01588  0.2996  -0.7279
6.484e+09  0.6092  -0.6382  -0.01649  0.03121  -0.01056  0.03423  0.06965  -0.7761
6.485e+09  0.348  -0.8088  -0.001781  -0.008306  0.01005  0.02576  -0.1855  -0.7278
6.486e+09  0.02387  -0.8779  0.02425  0.01462  -0.0372  -0.008959  -0.4538  -0.6382
6.488e+09  0.4796  -0.6843  0.02621  0.01336  -0.2766  0.614  -0.6285  -0.4423
6.489e+09  -0.4847  -0.7006  0.02984  0.01021  0.007534  -0.008322  -0.7252  -0.1921
6.49e+09  -0.6924  -0.4763  -0.03585  0.02229  0.01393  0.01724  -0.7919  0.103
6.491e+09  -0.88  -0.2401  -0.007377  -0.01421  -0.00952  0.001296  -0.6674  0.3234
6.492e+09  -0.9065  0.1141  0.01942  0.02993  0.003714  0.03261  -0.5389  0.5338
6.494e+09  -0.9101  0.4195  0.01869  -0.007279  0.09783  -0.05577  -0.2911  0.7108
6.495e+09  -0.5593  0.6117  0.004321  -0.04419  -0.06793  -0.009769  -0.04662  0.7719
6.496e+09  -0.3521  0.7575  -0.01583  0.02468  0.02565  0.00308  0.2299  0.7461
6.498e+09  -0.0456  0.8494  0.04762  -0.002804  0.008858  0.02962  0.4586  0.6021
6.499e+09  0.2406  0.8528  0.001304  0.01493  -0.05297  -0.001346  0.6566  0.443
6.5e+09  0.5524  0.715  -0.05821  0.05267  -0.005139  0.01272  0.7286  0.1651
6.501e+09  0.7179  0.5139  0.01215  0.02385  -0.02351  -0.008162  0.7383  -0.1155
6.502e+09  0.8434  0.1774  0.01506  0.009012  0.01755  -0.03837  0.6598  -0.3958
6.504e+09  0.9142  -0.1289  -0.01315  0.001327  -0.006873  -0.07285  0.5196  -0.5691
6.505e+09  0.7678  -0.3948  -0.02241  0.01509  0.03453  -0.02649  0.2751  -0.7022
6.506e+09  0.6214  -0.6503  -0.001922  0.01022  0.01198  0.02091  -0.00757  -0.7565
6.508e+09  0.3446  -0.8587  -0.008611  0.003625  -0.02688  -0.03398  -0.2405  -0.7362
6.509e+09  0.04283  -0.9299  -0.03447  -0.01061  -0.03713  0.003657  -0.496  -0.5819
6.51e+09  -0.2546  -0.844  0.02387  -0.0086  -0.009457  -0.02393  -0.6496  -0.4034
6.511e+09  -0.5563  -0.6448  -0.002323  -0.007829  -0.0235  0.005742  -0.7259  -0.1248
6.512e+09  -0.8082  -0.4772  0.01016  -0.00718  -0.05858  0.002107  -0.7507  0.09988
6.514e+09  -0.8405  -0.1686  0.002858  0.006719  -0.03027  -0.05252  -0.6123  0.3806
6.515e+09  -0.8769  0.1783  -0.03732  0.00894  -0.02964  -0.006184  -0.4713  0.5502
6.516e+09  -0.7962  0.4379  0.0164  0.02405  0.01643  0.01769  -0.2409  0.7065
6.518e+09  -0.5837  0.7443  0.01996  0.02224  0.03136  0.02394  0.02307  0.7417
6.519e+09  -0.3277  0.8766  0.0006743  0.004685  -0.0122  -0.02102  0.2522  0.7081
6.52e+09  -0.0238  0.92  0.02672  0.01752  0.01951  -0.01595  0.4908  0.5332
6.521e+09  0.2959  0.8981  0.0051  -0.003316  -0.01467  0.05336  0.666  0.341
6.522e+09  0.5469  0.7011  0.02748  0.05376  0.02398  -0.01871  0.7491  0.09002
6.524e+09  0.8117  0.4795  0.05208  -0.01468  0.04298  -0.00867  0.7147  -0.1219
6.525e+09  0.8713  0.1155  0.03044  0.03866  0.03985  0.00507  0.6104  -0.3845
6.526e+09  0.9179  -0.1239  0.01012  -0.01292  0.02361  0.008221  0.4536  -0.538
6.528e+09  0.7335  -0.5014  -0.007598  -0.002402  0.01479  0.03293  0.2171  -0.7247
6.529e+09  0.5879  -0.6823  0.03491  -0.02444  0.05301  0.002345  -0.06541  -0.7087
6.53e+09  0.3117  -0.9118  -0.03515  0.002467  -0.01696  0.01303  -0.2732  -0.6266
6.531e+09  -0.05002  -0.9615  0.002775  -0.01268  -0.007395  0.002531  -0.4871  -0.4663
6.532e+09  -0.3301  -0.8363  -1.493e-05  0.01187  -0.03208  -0.01371  -0.5949  -0.2719
6.534e+09  -0.6511  -0.6814  -0.004851  0.01197  0.01508  -0.00463  -0.6299  -0.08298
6.535e+09  -0.8657  -0.4127  -0.00526  0.01933  0.009597  0.007407  -0.6201  0.1144
6.536e+09  -0.9491  -0.1244  0.03529  -0.003178  -0.04576  0.03381  -0.567  0.284
6.538e+09  -0.8712  0.2621  0.03108  0.003265  0.02632  -0.005798  -0.4784  0.4682
6.539e+09  -0.7938  0.5005  -0.01347  0.007582  0.004  0.007913  -0.2667  0.6365
6.54e+09  -0.5435  0.7667  0.02301  -0.009957  0.04117  0.009912  -0.06586  0.6821
6.541e+09  -0.2667  0.8904  -0.008825  0.01443  0.007963  -0.004412  0.1592  0.6544
6.542e+09  0.08057  0.9862  -0.01842  -0.03152  0.03199  0.006805  0.3936  0.5965
6.544e+09  0.4921  0.8845  -0.02078  -0.004118  0.007238  -0.01549  0.5635  0.3963
6.545e+09  0.6374  0.6727  -6.741e-05  -0.009538  0.01997  -0.0009104  0.7343  0.1636
6.546e+09  0.8486  0.309  -0.003838  0.000519  0.02302  -0.01045  0.6987  -0.09491
6.548e+09  0.9362  0.01386  0.03218  0.004384  0.01576  0.01635  0.6206  -0.3524
6.549e+09  0.8934  -0.3214  -0.03009  -0.01725  -0.002946  -0.0382  0.5038  -0.5117
6.55e+09  0.7324  -0.6502  0.01254  -0.005189  0.001108  -0.004339  0.2711  -0.6734
