# Hz S RI R 50
6.25e+09  -0.1649  0.8452  0.03286  -0.01774  -0.02058  0.03206  0.1905  0.4651
6.251e+09  0.1328  0.8388  -0.006483  0.00633  0.01425  0.05657  0.3542  0.4176
6.252e+09  0.3153  0.7645  0.01344  -0.02504  0.01186  -0.01074  0.4938  0.2644
6.254e+09  0.6283  0.5834  0.001997  0.01703  -0.04741  0.00358  0.6014  0.02189
6.255e+09  0.8277  0.3062  -0.005802  0.00645  0.009236  -0.04414  0.5663  -0.2245
6.256e+09  0.7981  0.00662  0.01381  -0.003945  -0.06211  -0.04094  0.4799  -0.4281
6.258e+09  0.776  -0.2683  0.009957  0.01294  -0.0286  0.04037  0.2891  -0.5775
6.259e+09  0.6422  -0.5418  -0.01061  -0.01292  0.02029  -0.02812  0.03658  -0.6788
6.26e+09  0.4023  -0.6692  0.01873  0.01258  -0.04934  0.0263  -0.1757  -0.644
6.261e+09  0.1567  -0.7817  0.001302  0.008819  -0.01072  0.01245  -0.4593  -0.5663
6.262e+09  -0.0773  -0.813  -0.000688  0.03255  -0.02908  -0.02118  -0.6125  -0.3743
6.264e+09  -0.4264  -0.7862  -0.001701  0.04485  -0.01291  0.01621  -0.7157  -0.08942
6.265e+09  -0.6696  -0.5149  0.01888  -0.002443  0.02089  0.04828  -0.7114  0.158
6.266e+09  -0.7645  -0.2789  0.01241  0.01441  0.002481  -0.01362  -0.6043  0.3749
6.268e+09  -0.7993  -0.01906  0.007468  0.008801  0.02585  0.06587  -0.3824  0.5792
6.269e+09  -0.757  0.2303  -0.0008427  0.02696  0.01189  -0.01864  -0.1674  0.6913
6.27e+09  -0.6377  0.4872  -0.01964  -0.03699  0.03478  -0.0115  0.03734  0.7496
6.271e+09  -0.4167  0.7253  -0.01534  -0.007578  0.006422  0.03781  0.3236  0.6633
6.272e+09  -0.1287  0.8577  0.01547  0.008215  -0.01921  0.03843  0.5355  0.5255
6.274e+09  0.1304  0.8206  -0.007711  0.02117  0.008406  0.03911  0.7226  0.3072
6.275e+09  0.4269  0.7047  -0.0129  0.003851  -0.07664  0.03282  0.7395  0.05432
6.276e+09  0.6249  0.5627  0.01533  0.007139  -0.01147  0.02159  0.7302  -0.2172
6.278e+09  0.7627  0.2507  -0.01258  -0.0008618  0.04969  0.04386  0.6159  -0.4462
6.279e+09  0.85  0.04473  -0.001394  0.00891  -0.00634  0.001434  0.3787  -0.6547
6.28e+09  0.813  -0.2908  0.008276  0.06145  0.01114  -0.04373  0.1756  -0.718
6.281e+09  0.5449  -0.5433  -0.01004  -0.008713  -0.008024  -0.00858  -0.1011  -0.759
6.282e+09  0.3743  -0.7127  0.01454  -0.0166  -0.06535  -0.07812  -0.3815  -0.6765
6.284e+09  0.1076  -0.8093  0.02302  0.01151  -0.04527  0.005542  -0.5731  -0.5102
6.285e+09  -0.1674  -0.7776  0.002606  0.008936  -0.0295  -0.008759  -0.7415  -0.2744
6.286e+09  -0.4348  -0.6836  0.00849  0.01934  -0.04454  0.003564  -0.7492  -0.03939
6.288e+09  -0.6871  -0.4986  0.009555  0.017  0.003018  0.02952  -0.7606  0.2322
6.289e+09  -0.7888  -0.2542  0.01907  0.01927  0.00776  -0.02097  -0.6211  0.468
6.29e+09  -0.8407  0.04104  -0.03332  0.004851  -0.00557  -0.01389  -0.4019  0.6876
6.291e+09  -0.7697  0.3273  0.0006103  -0.0005898  0.02175  0.03067  -0.1658  0.7867
6.292e+09  -0.5642  0.5966  0.01589  -0.01509  0.03358  -0.02938  0.1279  0.7861
6.294e+09  -0.3595  0.7196  -0.007046  0.01124  -0.004898  0.01374  0.405  0.6878
6.295e+09  -0.1065  0.7952  0.01619  0.01148  -0.02112  -0.03947  0.6496  0.518
6.296e+09  0.2017  0.7616  -0.01682  0.006291  0.02746  -0.0214  0.7542  0.2989
6.298e+09  0.4681  0.7242  0.0106  -0.001584  -0.03759  0.02247  0.828  0.03829
6.299e+09  0.6543  0.4743  -0.007646  -0.01466  -0.02614  0.009564  0.7964  -0.288
6.3e+09  0.7909  0.2062  0.01868  0.009841  0.01829  0.03626  0.6305  -0.5188
6.301e+09  0.8206  -0.08249  0.017  0.01485  0.005769  0.01863  0.4202  -0.7263
6.302e+09  0.7643  -0.4061  0.01223  -0.02295  -0.02305  0.051  0.122  -0.8257
6.304e+09  0.5665  -0.5852  0.0007625  -0.02279  0.001811  0.03029  -0.1706  -0.8395
6.305e+09  0.3415  -0.7548  0.01593  -0.01287  0.003981  0.0235  -0.3893  -0.7436
6.306e+09  -0.03309  -0.8398  -0.009148  -0.0009251  0.00296  0.02447  -0.67  -0.5088
6.308e+09  -0.2858  -0.7756  0.003937  -0.01737  -0.02915  0.001092  -0.7983  -0.2713
6.309e+09  -0.4796  -0.7119  0.01348  -0.0161  0.0342  0.001203  -0.8701  -0.01261
6.31e+09  -0.7012  -0.4459  -0.001167  -0.003249  0.008261  -0.02667  -0.8012  0.2874
6.311e+09  -0.8022  -0.1335  0.01259  -0.02325  -0.03044  0.02398  -0.6486  0.5333
6.312e+09  -0.8191  0.1282  -0.003775  -0.005514  -0.02051  -0.04869  -0.4437  0.7365
6.314e+09  -0.6999  0.41  0.04268  -0.03749  -0.0163  0.03284  -0.1755  0.8532
6.315e+09  -0.5189  0.6466  0.01045  -0.0004266  0.05997  0.02181  0.1242  0.866
6.316e+09  -0.2799  0.7422  0.005956  -0.01246  0.009379  0.01413  0.435  0.7446
6.318e+09  0.01187  0.8412  0.0224  -0.02546  -0.04195  0.03173  0.6626  0.5637
6.319e+09  0.2922  0.7914  0.008348  -0.01053  0.0181  0.07148  0.8184  0.3301
6.32e+09  0.58  0.6531  0.0139  -0.006204  0.04689  -0.00471  0.8567  0.02226
6.321e+09  0.7112  0.4002  -0.0176  -0.005513  -0.009291  0.004545  0.8473  -0.2874
6.322e+09  0.8366  0.1392  -0.01091  -0.003152  0.006985  -0.02457  0.6935  -0.5687
6.324e+09  0.8221  -0.2229  0.03286  -0.001333  0.005465  0.03057  0.4915  -0.7537
6.325e+09  0.7337  -0.4766  -0.002675  -0.007394  -0.008753  0.01939  0.179  -0.8636
6.326e+09  0.4928  -0.6674  -0.01044  -0.03454  0.03493  -0.01244  -0.1482  -0.8665
6.328e+09  0.2537  -0.8155  -0.02504  0.03129  -0.02695  0.007219  -0.4249  -0.7981
6.329e+09  -0.03319  -0.8035  0.004346  -0.005386  0.04137  0.03018  -0.6733  -0.5782
6.33e+09  -0.3446  -0.7936  0.002673  -0.01408  0.04021  -0.01152  -0.8653  -0.3257
6.331e+09  -0.6324  -0.6555  -0.02069  -0.02857  0.004103  0.02153  -0.8907  -0.03379
6.332e+09  -0.7823  -0.4221  0.0004216  -0.02341  -0.002527  0.00414  -0.9063  0.273
6.334e+09  -0.8572  -0.03427  -0.01185  -7.406e-05  -0.005064  0.01447  -0.7346  0.553
6.335e+09  -0.8231  0.2075  0.04638  0.002575  0.02925  -0.006377  -0.495  0.7468
6.336e+09  -0.7277  0.5176  0.02851  -0.03039  -0.0286  0.009385  -0.2006  0.8722
6.338e+09  -0.4577  0.6699  0.0004619  -0.01747  0.02547  -0.01961  0.1548  0.9324
6.339e+09  -0.1548  0.8197  0.01682  -0.005694  -0.02176  -0.008443  0.3987  0.8012
6.34e+09  0.1434  0.8456  0.004909  -0.01141  -0.0263  -0.06097  0.6874  0.6164
6.341e+09  0.4042  0.7767  0.02536  -0.005908  -0.005734  -0.04949  0.8621  0.3691
6.342e+09  0.6593  0.567  -0.01159  0.02123  -0.02947  -0.01968  0.8983  0.04484
6.344e+09  0.8157  0.3532  -0.01025  -0.006421  -0.03449  0.04131  0.9138  -0.2557
6.345e+09  0.867  0.02098  0.02253  0.01165  0.02819  0.02704  0.7574  -0.5663
6.346e+09  0.8209  -0.2508  -0.01757  -0.0172  -0.01564  0.04665  0.4952  -0.7496
6.348e+09  0.6718  -0.6122  -0.01105  -0.01748  -0.009673  0.02683  0.1872  -0.9456
6.349e+09  0.5029  -0.735  -0.01968  -0.0001834  0.01574  -0.03918  -0.06788  -0.9264
6.35e+09  0.1345  -0.8294  -0.007245  -0.01472  0.01169  -0.02014  -0.428  -0.8561
6.351e+09  -0.2119  -0.8454  0.009197  -0.02022  -0.01548  -0.0534  -0.6611  -0.6275
6.352e+09  -0.4662  -0.729  -0.01638  -0.005357  -0.01159  -0.01289  -0.8739  -0.3832
6.354e+09  -0.6865  -0.4825  -0.002858  -0.009937  -0.03462  0.03293  -0.9112  -0.08148
6.355e+09  -0.819  -0.2624  -0.003737  -0.002053  -0.01183  -0.01702  -0.8626  0.2631
6.356e+09  -0.8506  0.04051  0.0007794  -0.01421  -0.006705  0.02169  -0.767  0.5826
6.358e+09  -0.7724  0.3623  0.02719  -0.00312  0.04636  0.007554  -0.5278  0.816
6.359e+09  -0.6215  0.5832  -0.01517  0.02273  0.0002826  -0.01388  -0.2337  0.9079
6.36e+09  -0.3727  0.7968  0.007663  -0.03066  0.03738  -0.0509  0.09601  0.9141
6.361e+09  -0.1131  0.8523  -0.03581  0.003435  -0.03889  0.02157  0.4218  0.8684
6.362e+09  0.2283  0.8562  -0.06463  0.03031  -0.00431  0.007007  0.711  0.6568
6.364e+09  0.5008  0.7171  -0.04384  0.03984  0.02474  -0.02975  0.8572  0.387
6.365e+09  0.7205  0.5003  -0.002659  0.03601  0.001493  0.03349  0.9453  0.07995
6.366e+09  0.8053  0.2472  -0.01497  -0.02527  -0.001914  0.03189  0.9445  -0.2434
6.368e+09  0.8387  -0.08702  0.01861  0.01082  0.02109  0.01499  0.7723  -0.5426
6.369e+09  0.7466  -0.4073  -0.001153  -0.02333  0.001554  0.007998  0.5498  -0.7839
6.37e+09  0.5807  -0.659  -0.002881  0.02531  0.0273  -0.03431  0.2695  -0.9489
6.371e+09  0.3511  -0.7796  0.002499  -0.0197  -0.008609  0.008227  -0.07889  -0.9383
6.372e+09  0.06909  -0.8703  0.01555  -0.009774  -0.01856  -0.03164  -0.3975  -0.8406
6.374e+09  -0.2785  -0.8361  0.01261  -0.01007  0.0181  -0.01832  -0.6767  -0.6664
6.375e+09  -0.4872  -0.6964  -0.01394  -0.005356  -0.02968  0.04781  -0.8956  -0.3562
6.376e+09  -0.7126  -0.4684  0.03484  -0.02607  0.004911  -0.01068  -0.9358  -0.1207
6.378e+09  -0.8881  -0.1739  -0.03504  -0.004937  0.0005275  -0.002669  -0.9296  0.2154
6.379e+09  -0.8723  0.1323  -0.008998  -0.003644  0.004787  0.04329  -0.7935  0.5083
6.38e+09  -0.777  0.4022  0.02207  -0.003699  0.01766  0.00767  -0.5523  0.7478
6.381e+09  -0.5516  0.6928  0.002589  0.03064  -0.02899  -0.01212  -0.2761  0.8967
6.382e+09  -0.3136  0.8496  0.001753  0.001414  0.01722  -0.01546  0.04172  0.9555
6.384e+09  0.004721  0.8693  -0.02311  -0.02223  -0.007063  0.02545  0.3564  0.8824
6.385e+09  0.2703  0.8495  0.001949  -0.002896  -0.02792  0.02198  0.6434  0.6884
6.386e+09  0.5432  0.6781  0.01096  0.02511  -0.004511  -0.01537  0.8421  0.4239
6.388e+09  0.7399  0.4246  -0.001699  0.005618  0.03502  -0.02028  0.9258  0.1632
6.389e+09  0.8825  0.1013  -0.02711  -0.004895  -0.0281  -0.002837  0.9336  -0.1792
6.39e+09  0.8616  -0.1362  -0.0004883  -0.01247  0.02645  0.004061  0.7785  -0.517
6.391e+09  0.7369  -0.404  0.0322  -0.01253  0.03351  -0.04774  0.557  -0.7245
6.392e+09  0.5746  -0.6056  -0.007968  0.01767  0.02123  -0.008456  0.3056  -0.8756
6.394e+09  0.2732  -0.7925  0.006906  -0.01565  0.002479  0.02013  0.001909  -0.9769
6.395e+09  0.03895  -0.8628  -0.01521  -0.004549  0.007332  0.01628  -0.326  -0.8591
6.396e+09  -0.3263  -0.8005  -0.01054  -0.004078  0.0121  -0.01002  -0.6292  -0.6604
6.398e+09  -0.6049  -0.6686  0.0287  0.04002  0.02764  -0.001375  -0.7966  -0.4834
6.399e+09  -0.723  -0.4214  -0.0497  -0.03105  -0.016  0.01113  -0.8939  -0.1449
6.4e+09  -0.8525  -0.1027  0.02816  0.01767  -0.02817  -0.02895  -0.8918  0.1543
6.401e+09  -0.8431  0.18  0.02273  0.01022  -0.01186  0.003267  -0.7853  0.4532
6.402e+09  -0.7539  0.4671  0.03388  -0.001268  -0.05118  -0.0545  -0.5956  0.7295
6.404e+09  -0.5116  0.6654  0.002088  0.01224  0.05498  -0.001191  -0.352  0.9066
6.405e+09  -0.2618  0.8317  0.01048  0.0005472  -0.001185  0.004248  -0.006021  0.8681
6.406e+09  0.06369  0.8636  0.008937  0.051  -0.02556  -0.02466  0.2975  0.8519
6.408e+09  0.3159  0.8192  -0.005856  0.007931  -0.007922  0.03209  0.5243  0.7034
6.409e+09  0.5829  0.651  0.01184  -0.01336  0.02871  -0.0001896  0.8073  0.4775
6.41e+09  0.7687  0.4037  -0.00697  -0.00745  -0.02424  0.02305  0.8959  0.1486
6.411e+09  0.8711  0.1181  -0.001766  -0.01313  -0.002928  0.01561  0.9003  -0.1375
6.412e+09  0.8643  -0.1251  0.0109  0.02703  -0.00859  0.01411  0.7569  -0.4186
6.414e+09  0.6938  -0.4847  0.01815  0.01889  0.02013  -0.006533  0.6455  -0.6543
6.415e+09  0.5187  -0.6917  0.009531  0.0346  0.01854  0.01897  0.3412  -0.8479
6.416e+09  0.2423  -0.8351  0.007371  -0.0286  -0.02909  0.02173  0.06741  -0.8788
6.418e+09  -0.07641  -0.8654  -0.001853  -0.01164  -0.0189  -0.03963  -0.2951  -0.8381
6.419e+09  -0.3677  -0.7601  0.01112  0.003556  -0.002298  0.01951  -0.5675  -0.6845
6.42e+09  -0.6111  -0.6246  -0.00584  0.02763  0.009806  0.008614  -0.7579  -0.4611
6.421e+09  -0.8027  -0.3704  -0.0002027  -0.02056  -0.004099  -0.005095  -0.896  -0.2089
6.422e+09  -0.9103  -0.05733  -0.03722  -0.0201  -0.005165  0.001346  -0.8468  0.1286
6.424e+09  -0.8412  0.1854  0.02589  -0.02829  -0.01603  0.002735  -0.8082  0.3811
6.425e+09  -0.7686  0.4755  -0.02055  0.002596  -0.02951  0.05007  -0.5994  0.64
6.426e+09  -0.5275  0.7251  0.002082  0.009778  0.01024  0.06197  -0.3297  0.8187
6.428e+09  -0.2601  0.8122  -0.01915  0.01324  -0.005314  0.03819  -0.07302  0.9018
6.429e+09  0.07803  0.8926  0.02826  0.01895  -0.04007  -0.004563  0.265  0.8218
6.43e+09  0.3601  0.7501  0.008356  -0.02114  -0.05219  0.01881  0.5064  0.7211
6.431e+09  0.5974  0.5788  0.009092  0.02704  -0.04222  0.06009  0.6462  0.5078
6.432e+09  0.7821  0.3734  0.002427  -0.04469  -0.005367  0.01174  0.8261  0.2393
6.434e+09  0.889  0.07877  0.03666  -0.01055  -0.01245  -0.007126  0.8537  -0.09294
6.435e+09  0.8198  -0.1817  0.0176  -0.04216  -0.02369  0.02401  0.7629  -0.3684
6.436e+09  0.7185  -0.4911  -0.009123  0.03548  0.004398  -0.04583  0.5733  -0.6211
6.438e+09  0.4941  -0.6792  -0.02216  -0.02183  -0.008777  0.03708  0.3724  -0.8189
6.439e+09  0.2156  -0.8678  -0.0187  -0.02688  -0.001233  0.01778  0.07629  -0.8205
6.44e+09  -0.07007  -0.8716  -0.01269  0.04236  0.04406  -0.07609  -0.2548  -0.7943
6.441e+09  -0.3219  -0.7751  0.01148  -0.03802  0.003917  -0.01003  -0.4811  -0.6852
6.442e+09  -0.5939  -0.6312  0.02272  0.01312  -0.03155  -0.02562  -0.6688  -0.4671
6.444e+09  -0.8032  -0.3584  0.02122  -0.02791  0.01679  -0.003466  -0.8241  -0.2225
6.445e+09  -0.8479  -0.04  -0.002868  0.04788  -0.02006  -0.02674  -0.8231  0.03861
6.446e+09  -0.8209  0.2113  0.01101  0.03265  0.003547  0.04701  -0.7398  0.335
6.448e+09  -0.7316  0.5188  -0.02643  0.00915  0.005843  0.01467  -0.5693  0.5185
6.449e+09  -0.5298  0.7699  0.009989  -0.01251  -0.02061  0.02362  -0.3516  0.8143
6.45e+09  -0.1817  0.9012  0.0144  -0.02947  0.005218  0.0327  -0.02286  0.8059
6.451e+09  0.09395  0.899  -0.02321  0.02829  0.01826  -0.0008701  0.1831  0.8668
6.452e+09  0.3943  0.8483  -0.02031  0.01301  -0.003085  -0.005768  0.4117  0.6508
6.454e+09  0.6729  0.5834  -0.04268  -0.02502  -0.003588  0.006072  0.702  0.415
6.455e+09  0.7895  0.3927  0.0154  0.01743  -0.02438  -0.01933  0.8415  0.2393
6.456e+09  0.8483  0.08225  -0.02997  0.001111  -0.0008669  -0.008074  0.7984  -0.07103
6.458e+09  0.847  -0.3148  -0.04735  0.03032  0.02025  0.01922  0.7427  -0.3236
6.459e+09  0.6622  -0.5427  -0.01495  -0.0115  0.01677  0.008774  0.5645  -0.6018
6.46e+09  0.4168  -0.7301  -0.0156  -0.001003  0.03431  0.03128  0.3502  -0.7376
6.461e+09  0.1765  -0.8921  -0.04163  -0.03436  -0.006087  -0.04047  0.06524  -0.7789
6.462e+09  -0.07424  -0.9453  -0.02887  0.02424  0.04393  -0.01907  -0.2274  -0.7574
6.464e+09  -0.435  -0.7405  0.006451  0.01698  -0.01652  -0.002677  -0.4572  -0.6543
6.465e+09  -0.7264  -0.5492  0.01107  -0.01067  0.02846  0.03366  -0.6439  -0.3997
6.466e+09  -0.8699  -0.3631  -0.0366  -0.04704  -0.01887  0.034  -0.7698  -0.2264
6.468e+09  -0.8648  -0.01643  0.04968  0.02927  0.001106  -0.02502  -0.8298  0.0487
6.469e+09  -0.8643  0.2935  0.00694  0.04752  -0.06264  -0.01914  -0.7867  0.3427
6.47e+09  -0.7273  0.6118  -0.0009344  0.02442  0.02538  0.01052  -0.5312  0.5742
6.471e+09  -0.4772  0.7833  0.008699  -0.0004407  -0.04038  -0.0447  -0.331  0.7009
6.472e+09  -0.1548  0.8875  -0.0337  0.003243  0.0101  -0.04648  -0.05468  0.8683
6.474e+09  0.1078  0.8894  0.05046  0.009957  0.05469  -0.005451  0.2012  0.7534
6.475e+09  0.4461  0.7636  -0.00844  -0.0236  -0.01377  0.001545  0.4978  0.6608
6.476e+09  0.6903  0.5956  0.04465  0.002303  0.06485  -0.008113  0.6449  0.4093
6.478e+09  0.8723  0.2942  -0.02496  -0.005255  -0.04355  0.01254  0.7349  0.2014
6.479e+09  0.9563  -0.02252  0.02069  -0.005351  0.01765  0.02285  0.7422  -0.04545
6.48e+09  0.8563  -0.3726  0.006765  -0.02475  -0.002578  0.02368  0.7041  -0.312
6.481e+09  0.6518  -0.5535  -0.01454  -0.01803  0.04068  -0.01472  0.5832  -0.5761
6.482e+09  0.4573  -0.7984  -0.02272  -0.01914  0.02968  0.02927  0.3244  -0.7539
6.484e+09  0.1162  -0.8735  -0.007078  0.03835  0.02588  0.03831  0.05814  -0.7751
6.485e+09  -0.1951  -0.8902  -0.02894  0.01556  0.01727  0.00563  -0.2014  -0.7286
6.486e+09  -0.5021  -0.7337  -0.04298  0.01679  0.02979  -0.001683  -0.4673  -0.5742
6.488e+09  -1.195  0.01237  -0.01293  0.004702  -0.7438  -0.07973  -0.6822  -0.4408
6.489e+09  -0.8852  -0.2675  0.03665  0.03328  -0.0175  -0.05881  -0.7574  -0.1906
6.49e+09  -0.9338  0.1159  0.01351  0.007133  0.02808  -0.02691  -0.7909  0.08857
6.491e+09  -0.8453  0.4079  -0.04587  -0.01926  -0.01568  -0.01857  -0.6921  0.3584
6.492e+09  -0.6365  0.6509  0.03685  0.006111  -0.02263  0.01543  -0.5178  0.5365
6.494e+09  -0.3262  0.7819  0.03127  0.01096  -0.09088  -0.04121  -0.2737  0.7058
6.495e+09  -0.08798  0.9777  -0.005741  -0.00195  0.01621  -0.03635  -0.07467  0.7398
6.496e+09  0.3127  0.8743  0.01761  -0.0008571  -0.04385  -0.008202  0.2468  0.7429
6.498e+09  0.5579  0.734  0.03219  0.001987  0.007588  -0.03739  0.4518  0.6004
6.499e+09  0.7019  0.4993  0.03137  -0.01625  0.01386  -0.001365  0.6167  0.4342
6.5e+09  0.7522  0.1602  0.026  -0.01649  0.03137  0.0003416  0.7448  0.1819
6.501e+09  0.9453  -0.1339  0.03793  -0.01336  0.031  0.03589  0.7667  -0.08935
6.502e+09  0.8159  -0.4728  0.02536  0.03048  -0.01483  -0.007461  0.6273  -0.3914
6.504e+09  0.5721  -0.6502  0.02182  0.03036  0.0338  0.037  0.4997  -0.5381
6.505e+09  0.3325  -0.8692  0.008215  -0.00813  -0.03334  0.02903  0.2661  -0.7464
6.506e+09  0.01306  -0.9279  -0.004737  -0.002531  -0.007806  0.03255  0.01225  -0.7676
6.508e+09  -0.2701  -0.8832  -0.01489  0.00571  -0.05441  0.06248  -0.2433  -0.7238
6.509e+09  -0.5619  -0.73  0.0268  -0.007064  0.02137  -0.003464  -0.4787  -0.59
6.51e+09  -0.8041  -0.4537  0.02848  0.05363  -0.04232  -0.01478  -0.6485  -0.3831
6.511e+09  -0.9049  -0.1473  -0.008956  -0.01119  0.0236  0.02846  -0.7743  -0.1203
6.512e+09  -0.9217  0.1186  -0.001654  0.01673  -0.00573  0.004313  -0.7046  0.1366
6.514e+09  -0.7626  0.4736  -0.03356  -0.01793  0.006  -0.01154  -0.6942  0.3573
6.515e+09  -0.6271  0.7712  0.0116  -0.03438  0.02491  0.008146  -0.4839  0.5864
6.516e+09  -0.2798  0.9256  -0.0373  0.02936  -0.02071  -0.000504  -0.2601  0.6957
6.518e+09  0.05838  0.9652  0.01517  -0.0193  -0.02257  -0.03054  0.01312  0.7393
6.519e+09  0.3644  0.8626  0.03091  0.009013  -0.0191  0.01741  0.2692  0.6792
6.52e+09  0.6123  0.6956  -0.0152  -0.02198  -0.01331  0.003344  0.482  0.557
6.521e+09  0.8631  0.4515  -0.006249  0.02205  -0.02339  -0.02399  0.6655  0.3611
6.522e+09  0.995  0.1501  -0.00449  0.006167  -0.0467  0.02083  0.7264  0.1378
6.524e+09  0.9237  -0.2316  0.02668  0.02163  -0.02007  0.003348  0.7084  -0.1659
6.525e+09  0.7385  -0.5596  -0.01177  -0.008223  -0.001776  0.007645  0.5844  -0.3966
6.526e+09  0.5363  -0.7559  0.02038  0.007071  0.006636  0.0109  0.4165  -0.5728
6.528e+09  0.2459  -0.9148  -1.798e-05  0.03107  0.006814  -0.005423  0.2136  -0.6864
6.529e+09  -0.12  -0.9175  -0.007395  -0.007676  0.03307  0.005471  -0.02667  -0.728
6.53e+09  -0.4568  -0.8044  0.04323  -0.004775  0.0009328  -0.03937  -0.284  -0.6169
6.531e+09  -0.6832  -0.6312  0.01252  0.03934  -0.02014  0.00502  -0.4951  -0.4552
6.532e+09  -0.8395  -0.299  -0.008618  0.02657  0.02895  0.008254  -0.5735  -0.3096
6.534e+09  -0.9164  -0.05513  -0.006588  -0.0007  -0.02146  0.009556  -0.6262  -0.07289
6.535e+09  -0.9084  0.3406  0.01122  0.0125  0.001909  0.01797  -0.6368  0.08053
6.536e+09  -0.7177  0.5884  0.01183  0.01134  0.006126  -0.05693  -0.5983  0.3118
6.538e+09  -0.4719  0.8431  0.0132  -0.004165  -0.07657  0.01194  -0.4472  0.4806
6.539e+09  -0.1086  0.8805  0.01255  0.002915  -0.005963  -0.02107  -0.2587  0.5885
6.54e+09  0.1892  0.9125  0.005624  0.03531  -0.06658  -0.02342  -0.06121  0.6483
6.541e+09  0.5247  0.741  -0.02302  0.02303  -0.04025  0.005881  0.1963  0.64
6.542e+09  0.7468  0.5565  -0.01477  0.03985  -0.05013  -0.02128  0.4121  0.5701
6.544e+09  0.8767  0.2957  -0.03203  -0.01055  0.03296  -0.04114  0.5699  0.4189
6.545e+09  0.8715  -0.05132  0.01441  -0.02665  -0.0468  -0.005675  0.6934  0.1481
6.546e+09  0.8487  -0.3973  -0.03859  -0.0002864  0.01405  0.02975  0.7102  -0.0897
6.548e+09  0.5997  -0.6006  -0.005633  0.02954  0.009365  -0.01964  0.663  -0.2995
6.549e+09  0.3993  -0.8295  0.02751  0.005586  -0.0257  0.04941  0.4711  -0.543
6.55e+09  0.04553  -0.9071  -0.01845  0.02221  0.02788  0.03196  0.2683  -0.6509
