# Hz S RI R 50
6.25e+09  -0.132  0.8467  0.004181  -0.006528  -0.01084  -0.03804  0.1822  0.4733
6.251e+09  0.1691  0.8628  0.002417  -0.02423  -0.03418  -0.0144  0.3436  0.4171
6.252e+09  0.5018  0.747  0.002616  0.02663  0.00384  -0.002573  0.5326  0.2076
6.254e+09  0.6658  0.5197  0.02522  -0.002948  0.01563  0.01091  0.6108  0.0184
6.255e+09  0.8387  0.2681  0.01455  0.004921  0.01329  -0.01942  0.6098  -0.2254
6.256e+09  0.8611  -0.03918  0.006117  -0.005212  -0.04218  -0.01243  0.4767  -0.4541
6.258e+09  0.8245  -0.3381  0.004525  -0.00307  0.008149  -0.02031  0.2764  -0.609
6.259e+09  0.6387  -0.6083  -2.47e-05  0.02074  -0.02135  0.02269  0.008907  -0.6675
6.26e+09  0.3642  -0.7765  -0.002396  -0.0247  0.007417  0.02195  -0.183  -0.6634
6.261e+09  0.07082  -0.8601  0.03173  0.02775  -0.002207  -0.04294  -0.4583  -0.5367
6.262e+09  -0.2255  -0.8783  0.0006973  0.003864  -0.03206  -0.0553  -0.5807  -0.3881
6.264e+09  -0.5032  -0.6911  -0.009607  0.0327  0.0217  -0.0326  -0.7109  -0.1303
6.265e+09  -0.7413  -0.4947  0.01256  -0.009718  0.01139  -0.04068  -0.7089  0.1573
6.266e+09  -0.8163  -0.2307  0.004742  -0.009199  0.03866  0.01322  -0.6008  0.3876
6.268e+09  -0.8611  0.1177  -0.03174  0.01996  0.03629  0.04198  -0.4447  0.5901
6.269e+09  -0.7388  0.3395  -0.01153  0.0113  -0.01741  -0.005032  -0.2036  0.7248
6.27e+09  -0.5931  0.6397  -0.01817  0.03741  -0.03653  -0.03467  0.06721  0.7275
6.271e+09  -0.3842  0.8057  0.02125  -0.003406  -0.07815  -0.006148  0.3161  0.6398
6.272e+09  -0.1086  0.8238  0.01737  -0.02601  0.06395  0.01208  0.5666  0.5172
6.274e+09  0.3013  0.7542  0.001026  -0.01767  0.02769  -0.008886  0.6942  0.3145
6.275e+09  0.4706  0.689  -0.001987  -0.01458  0.0129  -0.02775  0.7751  0.02412
6.276e+09  0.7066  0.4658  0.01166  -0.004709  0.05519  0.004999  0.7159  -0.2423
6.278e+09  0.84  0.2318  -0.005733  0.02488  0.02056  -0.0007807  0.5969  -0.4864
6.279e+09  0.8365  -0.1177  0.01294  -0.009876  -0.002758  0.01694  0.4304  -0.6633
6.28e+09  0.7869  -0.3997  0.01346  0.01019  0.01806  0.02139  0.2106  -0.77
6.281e+09  0.598  -0.6324  -0.007549  -0.01206  -0.02097  -0.03232  -0.1197  -0.7335
6.282e+09  0.3927  -0.7859  0.009611  -0.008659  0.0128  0.01525  -0.3859  -0.6723
6.284e+09  0.03366  -0.9137  -0.009415  -0.009262  -0.02317  -0.01337  -0.5721  -0.5349
6.285e+09  -0.2739  -0.8505  -0.03273  0.01565  -0.03331  -0.006142  -0.7354  -0.2853
6.286e+09  -0.5241  -0.7075  0.006273  -0.01115  0.02011  0.0112  -0.783  -0.0006489
6.288e+09  -0.7485  -0.4474  -0.01934  0.0224  -0.02428  -0.02623  -0.7539  0.2544
6.289e+09  -0.8744  -0.1231  -0.02376  -0.004187  0.02365  0.04437  -0.6301  0.4915
6.29e+09  -0.8509  0.1576  0.004713  -0.01912  0.02407  -0.06097  -0.3906  0.6911
6.291e+09  -0.7567  0.402  -0.03285  -0.01392  0.007571  0.05513  -0.1546  0.7988
6.292e+09  -0.5902  0.6934  0.02083  0.007084  0.01079  -0.04817  0.1532  0.7712
6.294e+09  -0.2429  0.8057  -0.0313  0.004156  -0.002972  -0.04343  0.3977  0.7457
6.295e+09  0.00124  0.8417  0.003406  0.01677  0.008401  -0.03485  0.6071  0.5171
6.296e+09  0.3054  0.8429  -0.01291  -0.01544  0.009989  0.03892  0.7828  0.2937
6.298e+09  0.6122  0.6629  -0.0387  0.007871  0.01441  0.04977  0.8581  -0.01762
6.299e+09  0.7628  0.3909  0.002252  -0.01107  -0.02852  0.02423  0.7938  -0.2826
6.3e+09  0.8564  0.1484  0.008131  -0.01961  0.01012  -0.02326  0.6388  -0.5188
6.301e+09  0.8342  -0.2013  0.01471  -0.03114  -0.01195  -0.03819  0.4441  -0.7237
6.302e+09  0.7286  -0.4968  -0.008897  -0.0004461  -0.03023  0.03061  0.1671  -0.8266
6.304e+09  0.5317  -0.6878  -0.02128  0.01491  0.01068  -0.04243  -0.1456  -0.8532
6.305e+09  0.2194  -0.8939  -0.01704  0.007544  -0.01841  0.03958  -0.4206  -0.7613
6.306e+09  -0.0794  -0.8857  -0.001572  0.008778  -0.0006493  0.0407  -0.6474  -0.5739
6.308e+09  -0.3614  -0.794  -4.59e-05  -0.0388  0.02399  -0.01753  -0.7969  -0.32
6.309e+09  -0.6662  -0.6282  -0.0001956  0.006199  -0.01092  0.02374  -0.8424  -0.00535
6.31e+09  -0.7983  -0.3924  0.01493  0.002562  0.03282  0.001002  -0.8318  0.2577
6.311e+09  -0.8647  -0.05618  -0.02001  -0.01532  0.03241  -0.04637  -0.692  0.5276
6.312e+09  -0.8362  0.2536  0.02507  0.02591  -0.01763  0.008763  -0.4489  0.7299
6.314e+09  -0.7103  0.5465  0.0159  -0.008154  0.02289  -0.009239  -0.1705  0.8595
6.315e+09  -0.4639  0.7071  -4.16e-05  0.02271  -0.01774  0.01763  0.1677  0.8489
6.316e+09  -0.1928  0.8617  0.02745  -0.01563  0.0352  -0.03389  0.4116  0.7391
6.318e+09  0.1231  0.8733  -0.02397  0.02761  -0.00234  -0.04144  0.6369  0.5573
6.319e+09  0.448  0.7581  0.007515  -0.001935  -0.009464  0.01762  0.8404  0.3264
6.32e+09  0.6745  0.5661  -0.01298  0.003128  0.01461  -0.03373  0.8768  0.02846
6.321e+09  0.8278  0.3114  -0.000707  -0.02808  0.00131  0.01568  0.8554  -0.265
6.322e+09  0.9035  0.01421  -0.006488  -0.01599  0.01053  0.01441  0.7212  -0.5571
6.324e+09  0.8565  -0.3177  -0.01305  -0.001456  -0.01305  -0.03777  0.4371  -0.7608
6.325e+09  0.6472  -0.577  -0.01381  -0.0008651  -0.008263  -0.0005997  0.175  -0.8561
6.326e+09  0.4162  -0.7848  -0.01702  0.002295  -0.00517  0.0008182  -0.1513  -0.8844
6.328e+09  0.1362  -0.8768  -0.02218  -0.001005  -0.02592  -0.008664  -0.4289  -0.7871
6.329e+09  -0.2201  -0.8518  -0.001217  -0.01524  -0.01343  6.295e-05  -0.6574  -0.5636
6.33e+09  -0.4714  -0.7874  -0.008734  0.007687  0.02203  0.03443  -0.8474  -0.3066
6.331e+09  -0.7187  -0.505  0.009821  0.008061  0.02259  0.01935  -0.8899  -0.01724
6.332e+09  -0.8818  -0.2819  0.01306  -0.007266  -0.01688  0.00696  -0.8487  0.2973
6.334e+09  -0.8654  0.05017  -0.006055  -0.0002876  -0.06349  0.02183  -0.7098  0.5499
6.335e+09  -0.8487  0.374  0.009716  -0.02238  -0.00499  -0.01579  -0.5094  0.78
6.336e+09  -0.6623  0.6514  -0.02007  0.0001086  -0.01117  -0.03035  -0.1939  0.8755
6.338e+09  -0.3548  0.8441  -0.02541  0.02555  0.01392  0.01486  0.1077  0.8978
6.339e+09  -0.0618  0.8617  0.009038  -0.0261  0.01383  0.01127  0.4049  0.812
6.34e+09  0.2704  0.882  0.01929  -0.009954  -0.0273  -0.02419  0.6583  0.6586
6.341e+09  0.5876  0.7283  0.004499  0.01542  -0.009575  0.01858  0.8724  0.3264
6.342e+09  0.7764  0.4684  -0.009019  0.0001983  -0.02121  0.0262  0.9346  0.06391
6.344e+09  0.8986  0.1796  0.008433  0.01486  -0.04055  0.004343  0.909  -0.294
6.345e+09  0.9077  -0.08094  -0.01479  -0.001405  0.001659  -0.02048  0.7404  -0.5669
6.346e+09  0.7268  -0.4367  -0.006449  0.001861  -0.02359  0.03984  0.5145  -0.7591
6.348e+09  0.6088  -0.7275  -0.01709  -0.02494  0.007127  -0.01635  0.2255  -0.8785
6.349e+09  0.2832  -0.8324  0.01587  -0.003317  -0.03951  -0.01474  -0.08034  -0.9299
6.35e+09  0.01103  -0.8941  0.03396  0.01574  0.002542  0.03854  -0.4098  -0.8267
6.351e+09  -0.3118  -0.8972  -0.003604  0.01449  0.01031  -0.04342  -0.6599  -0.644
6.352e+09  -0.575  -0.6864  0.008775  -0.001815  -0.006515  0.009471  -0.8537  -0.424
6.354e+09  -0.805  -0.4085  0.02221  0.001567  0.02008  -0.04637  -0.9176  -0.08021
6.355e+09  -0.9034  -0.1235  -0.01618  0.0006353  -0.01845  -0.02346  -0.8645  0.2739
6.356e+09  -0.8572  0.1941  0.006316  0.03596  -0.01307  0.02392  -0.782  0.5579
6.358e+09  -0.746  0.4885  0.002588  0.0413  0.003724  -0.02131  -0.5696  0.7756
6.359e+09  -0.5251  0.7518  -0.006847  -0.01593  -0.05998  0.003737  -0.2566  0.9234
6.36e+09  -0.2939  0.8622  0.01598  0.01751  0.04551  0.02971  0.09074  0.9353
6.361e+09  0.06454  0.9166  0.0285  0.003657  -0.007284  -0.02236  0.4278  0.8307
6.362e+09  0.3705  0.8228  0.03506  -0.01564  -0.00909  0.03603  0.684  0.698
6.364e+09  0.6026  0.6646  -0.02182  0.03091  0.03403  0.008867  0.8522  0.3632
6.365e+09  0.775  0.3875  -0.003  -0.01841  -0.03858  -0.01165  0.9328  0.08258
6.366e+09  0.9035  0.09181  0.006685  -0.005315  0.03519  0.008198  0.9225  -0.2672
6.368e+09  0.8858  -0.2473  0.001376  0.02398  0.01841  0.0237  0.7508  -0.5577
6.369e+09  0.7526  -0.5327  -0.0273  -0.002808  0.0009349  0.006905  0.5427  -0.7464
6.37e+09  0.4796  -0.7234  0.003584  -0.006004  -0.0162  0.03362  0.3138  -0.9385
6.371e+09  0.1882  -0.8657  0.009706  -0.005654  0.03875  0.03415  -0.06816  -0.9048
6.372e+09  -0.07361  -0.9547  -0.03232  0.02135  0.007401  0.01325  -0.4203  -0.8603
6.374e+09  -0.3497  -0.7991  0.006103  -0.02672  -0.004891  0.03483  -0.6657  -0.6735
6.375e+09  -0.6853  -0.6738  0.03589  0.02122  -0.006907  0.004113  -0.8421  -0.4291
6.376e+09  -0.7939  -0.3339  -0.02427  0.0462  0.02739  0.002866  -0.9448  -0.05503
6.378e+09  -0.9425  -0.02629  0.02056  -0.02323  -0.01536  0.05886  -0.925  0.1869
6.379e+09  -0.832  0.2529  0.01613  0.02483  0.01312  0.003456  -0.7912  0.4969
6.38e+09  -0.6769  0.5067  -0.02931  0.001317  0.003882  -0.007598  -0.5774  0.7565
6.381e+09  -0.4111  0.7775  -0.03093  6.22e-05  0.002875  -0.03766  -0.27  0.9142
6.382e+09  -0.2064  0.91  0.05137  -0.02342  0.0308  -0.006721  0.08556  0.9131
6.384e+09  0.1195  0.8326  0.002732  0.0002714  -0.001782  -0.01215  0.3683  0.8531
6.385e+09  0.442  0.7651  -0.01696  0.004622  0.04549  0.01613  0.6432  0.6958
6.386e+09  0.7229  0.6053  0.004791  0.01647  0.07299  -0.01871  0.8394  0.4274
6.388e+09  0.8234  0.3096  0.03058  0.006873  -0.0121  0.02592  0.9342  0.102
6.389e+09  0.8758  0.007129  -0.05146  0.001645  0.002839  -0.01831  0.9093  -0.1511
6.39e+09  0.8624  -0.2972  -0.01105  0.002627  0.02917  -0.003557  0.8206  -0.5212
6.391e+09  0.6807  -0.5714  0.004033  -0.001477  0.03796  -0.003027  0.6377  -0.7252
6.392e+09  0.4291  -0.7523  0.01348  -0.0007735  0.01368  -0.002311  0.3136  -0.843
6.394e+09  0.1243  -0.9198  0.03326  -0.03288  0.02854  0.05523  -0.04787  -0.9126
6.395e+09  -0.1577  -0.8828  -0.05177  0.01667  -0.005406  -0.015  -0.3414  -0.8395
6.396e+09  -0.4828  -0.7582  0.02158  -0.03411  -0.007192  -0.008488  -0.6239  -0.6514
6.398e+09  -0.7073  -0.5721  -0.004969  -0.002744  -0.03655  -0.0117  -0.7444  -0.4486
6.399e+09  -0.8451  -0.2995  -0.03485  -0.005018  0.02142  -0.02261  -0.8873  -0.1552
6.4e+09  -0.9114  -0.002219  -0.01471  -0.03399  0.001005  0.01146  -0.9113  0.1808
6.401e+09  -0.7995  0.3531  -0.01058  -0.02015  0.01806  -0.02029  -0.794  0.5184
6.402e+09  -0.7064  0.6023  0.02146  0.02312  0.01935  -0.04527  -0.594  0.72
6.404e+09  -0.4298  0.8019  -0.01139  0.02417  0.005741  0.01139  -0.3346  0.8668
6.405e+09  -0.1292  0.8389  -0.01514  0.009387  -0.06102  0.04149  -0.04165  0.9209
6.406e+09  0.2095  0.8882  -0.02975  -0.02188  0.0009389  -0.04248  0.3024  0.8836
6.408e+09  0.4866  0.772  0.02019  -0.04203  0.02036  0.01044  0.5875  0.7148
6.409e+09  0.7278  0.6143  0.008297  0.002671  -0.03185  -0.01539  0.7828  0.4879
6.41e+09  0.8361  0.2746  0.004585  0.06693  -0.02062  0.007116  0.8784  0.1949
6.411e+09  0.8628  -0.03937  0.02212  0.02988  -0.02363  0.002654  0.8823  -0.1258
6.412e+09  0.8235  -0.3722  0.002024  0.007209  0.05436  -0.03355  0.7638  -0.4369
6.414e+09  0.6616  -0.5676  0.03309  -0.05032  0.01045  0.05087  0.605  -0.654
6.415e+09  0.3889  -0.7647  -0.01502  0.02754  -0.02244  0.0279  0.3722  -0.8915
6.416e+09  0.1077  -0.8656  -0.02443  -0.02187  0.01908  0.0103  0.01522  -0.863
6.418e+09  -0.1987  -0.883  0.007426  -0.004582  -0.01633  -0.0249  -0.2892  -0.8341
6.419e+09  -0.4759  -0.7099  -0.003847  -0.01363  -0.0008202  -0.001635  -0.5048  -0.6869
6.42e+09  -0.671  -0.5494  0.01611  0.01178  0.01786  0.01754  -0.751  -0.4475
6.421e+09  -0.8604  -0.2387  -0.0197  0.019  0.01015  0.03048  -0.8635  -0.2016
6.422e+09  -0.8742  0.09603  0.0271  -0.0221  -0.03693  0.02458  -0.8771  0.08929
6.424e+09  -0.8052  0.3487  -0.01361  0.01824  -0.04233  -0.001757  -0.8177  0.3624
6.425e+09  -0.6334  0.6132  0.004931  -0.01394  -0.01451  -0.02298  -0.6476  0.6414
6.426e+09  -0.429  0.8125  0.003427  -0.008907  -0.05435  0.04606  -0.3964  0.7977
6.428e+09  -0.09804  0.8989  0.0103  0.0236  -0.04941  -0.00851  -0.07413  0.8784
6.429e+09  0.294  0.8907  -0.0249  -0.00777  0.01331  -0.03055  0.2407  0.8328
6.43e+09  0.512  0.8162  -0.004036  0.015  -0.02547  0.01  0.5222  0.6706
6.431e+09  0.7658  0.4621  0.006316  0.0352  0.01356  0.02163  0.7027  0.4753
6.432e+09  0.8835  0.2203  0.0001435  0.003232  -0.002834  -0.02251  0.8064  0.2015
6.434e+09  0.8647  -0.09295  0.06208  0.001498  -0.003787  -0.007175  0.8775  -0.05001
6.435e+09  0.8299  -0.3861  0.01545  0.008392  0.02291  -0.04599  0.7863  -0.3586
6.436e+09  0.6269  -0.6336  0.0006119  0.02934  0.007394  0.009904  0.5995  -0.6249
6.438e+09  0.3441  -0.8481  -0.01127  -0.002236  0.02444  -0.01589  0.3594  -0.7897
6.439e+09  0.0747  -0.8665  0.01479  0.02792  0.0109  0.03032  0.05232  -0.8407
6.44e+09  -0.2416  -0.9006  0.009953  -0.0008993  0.03103  0.0409  -0.2352  -0.8199
6.441e+09  -0.5542  -0.7629  0.009307  0.01652  -0.01803  0.0251  -0.4944  -0.6728
6.442e+09  -0.7761  -0.5234  0.03119  0.003341  0.006036  -0.01616  -0.6677  -0.4676
6.444e+09  -0.9295  -0.239  0.01522  -0.004722  -0.01773  -0.05473  -0.8437  -0.1866
6.445e+09  -0.916  0.08301  0.03486  0.009963  0.04976  0.01355  -0.8533  0.09183
6.446e+09  -0.8438  0.4168  0.02298  0.0165  0.0248  -0.02155  -0.7515  0.3658
6.448e+09  -0.5994  0.6623  0.02187  0.02243  -0.01815  0.003625  -0.5755  0.6118
6.449e+09  -0.38  0.7756  -0.02149  0.00269  -0.00888  -0.009594  -0.3515  0.7522
6.45e+09  -0.02452  0.9478  -0.002542  -0.03604  0.02229  0.01229  -0.04688  0.8435
6.451e+09  0.283  0.8774  0.03342  0.01998  0.016  -0.004652  0.278  0.8736
6.452e+09  0.559  0.713  -0.01753  -0.002844  -0.02886  -0.02112  0.4951  0.6314
6.454e+09  0.8196  0.5086  -0.004097  -0.01859  -0.002993  -0.03346  0.6779  0.5051
6.455e+09  0.9142  0.123  -0.02357  -0.0005471  0.003549  -0.03644  0.798  0.2169
6.456e+09  0.9384  -0.1113  -0.005981  -0.01274  -0.01068  0.03783  0.8467  -0.1152
6.458e+09  0.7667  -0.4154  -0.00995  0.03158  0.02242  0.01421  0.681  -0.3576
6.459e+09  0.5604  -0.7188  -0.04962  -0.0227  0.01641  -0.03067  0.5245  -0.5659
6.46e+09  0.3176  -0.8481  0.04005  -0.001028  -0.01759  0.01629  0.3191  -0.7959
6.461e+09  -0.00109  -0.926  -0.008745  0.009358  -0.01522  0.01407  0.0797  -0.8069
6.462e+09  -0.269  -0.8657  -0.001092  -0.0327  0.02251  -0.02895  -0.2042  -0.7597
6.464e+09  -0.6129  -0.6845  -0.0076  0.02592  -0.05406  0.01409  -0.4382  -0.6042
6.465e+09  -0.8009  -0.4728  -0.0202  -0.01115  -0.004836  0.006752  -0.6764  -0.4802
6.466e+09  -0.9098  -0.1496  -0.01501  0.000836  0.01179  0.01656  -0.8266  -0.2189
6.468e+09  -0.8743  0.2466  0.009967  0.03765  -0.02595  0.04346  -0.8103  0.05577
6.469e+09  -0.8257  0.4801  -0.0173  0.0003906  0.005624  0.03178  -0.7729  0.3522
6.47e+09  -0.6081  0.7399  -0.02484  0.01886  0.007756  0.03725  -0.5746  0.5964
6.471e+09  -0.264  0.908  0.03526  -0.008215  -0.001741  0.02655  -0.315  0.7454
6.472e+09  0.05165  0.9015  -0.01845  0.01594  0.0147  0.01298  -0.04103  0.7859
6.474e+09  0.3725  0.8583  -0.008272  0.03669  -0.0005031  0.01013  0.2074  0.8315
6.475e+09  0.6132  0.6999  -0.01025  0.01143  -0.01338  -0.01179  0.4414  0.5967
6.476e+09  0.8619  0.4497  0.00935  -0.02302  0.02943  0.02938  0.5953  0.4742
6.478e+09  0.9527  0.06299  0.002669  0.03049  -0.026  -0.0003682  0.7657  0.1804
6.479e+09  0.903  -0.2241  -0.01064  -0.002836  0.03112  -0.04182  0.7897  -0.03726
6.48e+09  0.8261  -0.5413  0.004364  -0.00243  -0.004975  0.02787  0.6748  -0.3209
6.481e+09  0.4729  -0.8616  0.01636  -0.04325  0.02758  -0.03975  0.4908  -0.5949
6.482e+09  0.1831  -0.9239  -0.005559  -0.003538  0.01476  0.06056  0.3196  -0.7126
6.484e+09  -0.1217  -0.9122  -0.009727  0.004445  -0.01244  0.02304  0.06276  -0.7633
6.485e+09  -0.4595  -0.9012  0.009119  0.01856  0.003318  -0.009364  -0.1869  -0.7631
6.486e+09  -0.6745  -0.6512  -0.008626  0.01409  -0.04711  -0.02057  -0.4637  -0.6353
6.488e+09  -0.1727  -0.5972  0.03069  0.01525  -0.2164  0.7509  -0.6324  -0.4047
6.489e+09  -0.9956  -0.06616  -0.009497  0.006738  -0.02249  -0.02464  -0.7864  -0.2023
6.49e+09  -0.9291  0.3139  -0.00312  -0.04347  0.01965  -0.03475  -0.7646  0.09662
6.491e+09  -0.7842  0.621  0.009589  0.01831  -0.04171  0.01327  -0.6539  0.2958
6.492e+09  -0.4869  0.8427  0.003436  0.05626  0.005666  0.03167  -0.5413  0.5572
6.494e+09  -0.2277  0.8582  0.001546  0.03976  0.1434  -0.0185  -0.3185  0.7085
6.495e+09  0.1699  0.9164  0.005633  0.005581  -0.01908  -0.0009632  -0.0359  0.7486
6.496e+09  0.4772  0.8174  0.005706  -0.005638  -0.01999  -0.04753  0.2386  0.7557
6.498e+09  0.7412  0.6365  -0.003405  -0.001332  0.03577  -0.01401  0.4428  0.6052
6.499e+09  0.8988  0.2905  -0.008965  -0.01926  0.05122  -0.007062  0.6728  0.4203
6.5e+09  0.7608  0.1669  0.009292  -0.05699  0.02801  -0.0157  0.7402  0.1469
6.501e+09  0.8496  -0.366  0.005772  -0.03422  0.01733  -0.005916  0.7818  -0.07427
6.502e+09  0.7156  -0.6639  0.03009  -0.00607  0.04302  -0.003705  0.6999  -0.3519
6.504e+09  0.4978  -0.8585  -0.04632  -0.01366  0.02457  0.03921  0.4888  -0.562
6.505e+09  0.104  -0.9732  -0.004609  -0.01186  -0.0528  -0.02138  0.2662  -0.7133
6.506e+09  -0.2379  -0.963  0.004608  -0.01897  0.03711  -0.003452  0.0141  -0.7375
6.508e+09  -0.5558  -0.8088  -0.04528  0.03192  -0.008865  -0.02099  -0.2543  -0.7264
6.509e+09  -0.8035  -0.5094  -0.007089  0.008269  0.03102  -0.04894  -0.4755  -0.6312
6.51e+09  -0.9963  -0.2629  0.01175  0.01179  0.02195  0.02626  -0.6505  -0.3844
6.511e+09  -0.927  0.1812  0.02159  0.03029  -0.03927  0.02725  -0.754  -0.1283
6.512e+09  -0.8556  0.4381  -0.0129  -0.00897  0.04911  0.0184  -0.76  0.11
6.514e+09  -0.701  0.7295  -0.009373  -0.02936  -0.04068  0.04486  -0.6164  0.3757
6.515e+09  -0.3944  0.8767  0.006642  -0.01731  -0.01327  0.06449  -0.4936  0.5532
6.516e+09  -0.006431  0.9629  -0.04346  0.02458  0.0179  0.03308  -0.2438  0.6783
6.518e+09  0.3298  0.857  0.02062  -0.01738  -0.03791  -0.01137  0.02371  0.7763
6.519e+09  0.5826  0.6942  0.01633  -0.01115  -0.01855  0.02013  0.3028  0.7
6.52e+09  0.87  0.4151  -0.008033  0.01577  0.003321  1.598e-05  0.4793  0.5405
6.521e+09  0.9338  0.06708  0.003137  -0.001008  -0.02524  0.05627  0.6586  0.3639
6.522e+09  0.9542  -0.2088  -0.03535  0.0313  -0.06144  -0.009627  0.7037  0.1095
6.524e+09  0.7953  -0.5407  0.0002492  0.03149  0.01428  -0.001472  0.7088  -0.1584
6.525e+09  0.5925  -0.7902  -0.01229  0.01225  -0.005122  0.007772  0.5942  -0.4324
6.526e+09  0.2348  -0.9684  0.01337  0.007199  0.0574  0.01987  0.4224  -0.5836
6.528e+09  -0.1174  -0.9547  -0.01666  0.02025  0.008688  -0.006554  0.2144  -0.6908
6.529e+09  -0.4013  -0.8911  0.03171  -0.01358  -0.02545  0.01912  -0.09654  -0.6663
6.53e+09  -0.6936  -0.6218  0.03411  -0.02715  0.008261  0.049  -0.2946  -0.6203
6.531e+09  -0.8712  -0.3845  0.01888  -0.004424  0.04871  0.03657  -0.4691  -0.5007
6.532e+09  -0.9695  -0.03276  0.006077  0.0004644  0.02777  -0.02735  -0.5933  -0.2725
6.534e+09  -0.8954  0.3098  -0.01258  -0.01126  0.03521  0.001432  -0.6426  -0.08352
6.535e+09  -0.7257  0.5699  0.001846  0.01206  0.03094  -0.01692  -0.6281  0.1282
6.536e+09  -0.4711  0.7775  -0.004202  -0.002998  -0.01541  -0.009849  -0.5752  0.2874
6.538e+09  -0.134  0.9157  0.001401  -0.01395  -0.04311  0.01001  -0.44  0.4644
6.539e+09  0.2024  0.8697  -0.001834  -0.02376  0.008057  0.02385  -0.2648  0.5925
6.54e+09  0.4838  0.8418  0.02801  0.0007779  -0.01146  -0.04341  -0.05983  0.6865
6.541e+09  0.7434  0.5577  -0.009919  -0.009792  -0.04448  0.01976  0.1556  0.6708
6.542e+09  0.9276  0.2795  0.007727  0.003049  -0.01124  0.01996  0.4112  0.5854
6.544e+09  0.9289  -0.0328  0.005104  -0.02061  0.02101  -0.0353  0.5429  0.4291
6.545e+09  0.8144  -0.3513  -0.02319  0.01309  0.01932  0.0173  0.6964  0.1922
6.546e+09  0.6398  -0.5928  -0.006598  -0.002333  0.0179  0.01093  0.7191  -0.05018
6.548e+09  0.3899  -0.8485  0.005464  -0.043  -0.001976  -0.02193  0.6841  -0.3106
6.549e+09  0.05316  -0.8803  -0.007197  -0.02323  0.006672  -0.0572  0.4767  -0.5533
6.55e+09  -0.2853  -0.8583  0.004868  0.01264  0.05421  -0.01248  0.2772  -0.7109
