# Hz S RI R 50
6.25e+09  -0.3288  0.7745  -0.02711  -0.005458  -0.03603  0.01542  0.1562  0.4734
6.251e+09  -0.0544  0.8239  -0.009743  0.005838  0.0413  0.0212  0.3374  0.4184
6.252e+09  0.241  0.8478  0.01303  -0.006345  -0.002664  0.0546  0.5202  0.206
6.254e+09  0.4924  0.6836  0.008889  0.009054  -0.01092  0.0435  0.6196  0.0005735
6.255e+09  0.6975  0.481  -0.01133  0.01875  0.05064  0.00825  0.5753  -0.2193
6.256e+09  0.7748  0.1704  -0.01631  -0.004863  -0.01595  -0.01669  0.4771  -0.4482
6.258e+09  0.7918  -0.0923  0.01469  -0.01493  -0.006692  -0.02677  0.2601  -0.633
6.259e+09  0.7359  -0.3629  0.003537  -0.03283  -0.01013  0.01086  0.02993  -0.663
6.26e+09  0.5443  -0.5506  -0.0331  -0.009677  0.03517  0.02464  -0.2411  -0.6434
6.261e+09  0.3333  -0.7235  0.01129  0.004969  0.02236  -0.0579  -0.4159  -0.5152
6.262e+09  0.08747  -0.7918  0.01708  0.02326  0.03916  -0.03794  -0.6203  -0.3596
6.264e+09  -0.2297  -0.8029  0.01483  -0.006839  0.001667  0.04863  -0.7081  -0.09872
6.265e+09  -0.4093  -0.6296  0.00871  0.02325  -0.0207  0.01953  -0.7034  0.1525
6.266e+09  -0.6912  -0.4846  -0.03418  -0.01267  0.05624  0.0152  -0.596  0.3765
6.268e+09  -0.7754  -0.2021  0.0044  0.004097  0.02061  0.01986  -0.4491  0.5962
6.269e+09  -0.8263  0.1082  -0.01072  0.0004282  0.01142  0.05885  -0.2161  0.7161
6.27e+09  -0.7435  0.3143  0.006463  -0.002459  -0.04647  0.006768  0.07305  0.7531
6.271e+09  -0.5892  0.6028  0.013  -0.03085  0.01254  0.08828  0.3311  0.6685
6.272e+09  -0.3221  0.7538  -0.01673  -0.00197  0.02147  -0.01131  0.5327  0.5412
6.274e+09  -0.07441  0.829  -0.005383  -0.01543  0.02601  0.01623  0.6518  0.3251
6.275e+09  0.288  0.772  0.009428  -0.004534  -0.003585  -0.01134  0.7423  0.08973
6.276e+09  0.48  0.6301  0.005293  -0.004454  0.00313  -0.002578  0.706  -0.2198
6.278e+09  0.7005  0.4876  -0.005434  0.004523  0.01163  -0.0005535  0.5873  -0.4684
6.279e+09  0.7874  0.1292  -0.006388  0.02233  -0.007411  -0.01507  0.3614  -0.6403
6.28e+09  0.8533  -0.1335  0.008375  0.04841  0.028  0.006994  0.1397  -0.7809
6.281e+09  0.722  -0.369  0.02234  0.02454  -0.01873  -0.01783  -0.138  -0.7983
6.282e+09  0.5864  -0.5625  0.002966  -0.01276  -0.0271  0.004299  -0.3928  -0.6794
6.284e+09  0.2924  -0.7633  -0.01798  0.004537  -0.03188  0.04299  -0.6051  -0.5152
6.285e+09  0.02064  -0.7803  -0.009073  -0.01096  0.0812  -0.001319  -0.7222  -0.2943
6.286e+09  -0.2452  -0.7597  0.02664  0.02367  -0.02534  0.02438  -0.8213  -0.0174
6.288e+09  -0.4475  -0.6112  -0.01403  -0.02399  -0.03791  -0.08181  -0.7646  0.2428
6.289e+09  -0.6627  -0.4713  -0.002386  0.0011  -0.003174  0.003603  -0.6075  0.5221
6.29e+09  -0.7221  -0.1534  0.01574  -0.01969  -0.01537  -0.05203  -0.411  0.6678
6.291e+09  -0.7747  0.1719  -0.004829  -0.001055  -0.008415  -0.01906  -0.1542  0.8056
6.292e+09  -0.7354  0.3922  0.0008034  -0.03124  -0.04291  -0.03243  0.1064  0.7962
6.294e+09  -0.5325  0.66  0.01039  0.01101  0.03372  -0.01461  0.4101  0.6767
6.295e+09  -0.264  0.7442  0.0183  0.0202  -0.03252  -0.003323  0.6104  0.5526
6.296e+09  0.02057  0.8049  -0.01642  -0.001234  -0.01144  -0.04079  0.7769  0.3175
6.298e+09  0.2367  0.7699  0.015  -0.007007  -0.04248  0.0119  0.822  0.01508
6.299e+09  0.4883  0.5724  -0.01976  -0.00259  -0.02508  -0.02055  0.7666  -0.2765
6.3e+09  0.7581  0.4738  -0.01483  -0.04372  0.02458  -0.01215  0.608  -0.5287
6.301e+09  0.859  0.1662  -0.01883  0.004826  0.01596  0.02661  0.4115  -0.7144
6.302e+09  0.7782  -0.1554  0.008137  -0.01539  0.02689  -0.00348  0.1005  -0.8186
6.304e+09  0.7068  -0.4408  -0.003513  -0.003685  -0.02406  0.007937  -0.1406  -0.8121
6.305e+09  0.5177  -0.6476  -0.00832  0.01026  -0.01311  -0.004456  -0.4157  -0.7471
6.306e+09  0.2823  -0.8056  0.001825  0.03885  -0.01552  -0.01419  -0.6536  -0.558
6.308e+09  -0.05865  -0.7713  0.01135  0.01473  0.01011  0.08233  -0.7936  -0.2749
6.309e+09  -0.3197  -0.7605  0.01443  -0.004657  0.03626  -0.05112  -0.8426  -0.04407
6.31e+09  -0.5316  -0.6178  0.007565  0.001221  0.009702  -0.02321  -0.79  0.2779
6.311e+09  -0.7289  -0.3443  0.01911  -0.01282  -0.01069  0.06052  -0.6808  0.5232
6.312e+09  -0.7997  -0.1314  -0.01219  0.008093  0.0283  -0.008474  -0.4328  0.7504
6.314e+09  -0.7579  0.1438  0.003306  0.006959  0.04474  0.001109  -0.1559  0.8746
6.315e+09  -0.6659  0.4444  -0.01191  0.02401  0.003182  -0.05627  0.1515  0.8505
6.316e+09  -0.5015  0.6594  -0.02022  -0.00514  -0.04415  -0.01413  0.3885  0.7341
6.318e+09  -0.1711  0.8262  0.0237  0.02112  0.01196  -0.01028  0.65  0.5735
6.319e+09  0.02872  0.7885  0.01144  -0.03848  0.0148  -0.07199  0.8232  0.3447
6.32e+09  0.2808  0.7549  0.00934  0.001037  0.02186  -0.01307  0.8572  0.03057
6.321e+09  0.5677  0.6112  0.005155  -0.005806  0.02  0.01163  0.8378  -0.289
6.322e+09  0.7216  0.3502  -0.0009549  -0.02897  -0.03816  -0.04069  0.6742  -0.5293
6.324e+09  0.7654  0.05661  -0.003646  0.009352  -0.008787  -0.0009441  0.4479  -0.7649
6.325e+09  0.8263  -0.2944  -0.01275  -0.02578  -0.03726  0.01753  0.1767  -0.8981
6.326e+09  0.6936  -0.4861  0.01913  0.01433  0.04361  -0.0123  -0.1224  -0.891
6.328e+09  0.4461  -0.6824  -0.005014  -0.02777  0.01818  0.003398  -0.4262  -0.7729
6.329e+09  0.1819  -0.8099  -0.02446  -0.01287  0.0307  -0.02283  -0.6533  -0.6141
6.33e+09  -0.08046  -0.8167  0.02416  0.03351  -0.0009551  0.01837  -0.8446  -0.3291
6.331e+09  -0.3976  -0.7679  0.006626  0.009276  -0.02041  0.001031  -0.9104  -0.0546
6.332e+09  -0.6204  -0.5661  0.005349  0.01372  -0.02213  -0.0263  -0.8507  0.3077
6.334e+09  -0.7737  -0.2952  0.02073  0.005633  -0.0385  -0.008384  -0.7063  0.5782
6.335e+09  -0.8513  -0.003784  -0.01693  -0.01658  0.04716  -0.03275  -0.4799  0.765
6.336e+09  -0.7895  0.2916  0.01165  0.01314  -0.0009282  0.01115  -0.1921  0.8809
6.338e+09  -0.5735  0.5506  0.001716  -0.01546  -0.007472  0.001716  0.09523  0.9448
6.339e+09  -0.4212  0.7321  0.01645  0.03949  -0.007901  -0.03571  0.4171  0.8096
6.34e+09  -0.1271  0.8657  0.02318  -0.01063  0.05577  -0.009686  0.6402  0.5996
6.341e+09  0.1624  0.8331  0.04222  -0.01736  0.003369  -0.01773  0.881  0.347
6.342e+09  0.43  0.7471  -0.006208  0.01889  0.01129  -0.04839  0.9275  0.03975
6.344e+09  0.6534  0.5153  -0.009768  -0.005588  -0.01305  0.03977  0.8863  -0.2974
6.345e+09  0.8104  0.2258  -0.01238  -0.01178  -0.0275  -0.06136  0.7063  -0.5642
6.346e+09  0.8654  -0.0415  -0.009471  -0.0002831  0.02266  -0.03027  0.5201  -0.7289
6.348e+09  0.7875  -0.3509  0.0007438  -0.02054  0.0233  0.0118  0.249  -0.8874
6.349e+09  0.6482  -0.6168  -0.002386  -0.01003  0.01956  0.04785  -0.1037  -0.9388
6.35e+09  0.4104  -0.7231  -0.01177  -0.01457  -0.02879  0.03911  -0.4517  -0.8384
6.351e+09  0.08681  -0.8599  0.0195  0.009369  -0.01754  0.03659  -0.6851  -0.656
6.352e+09  -0.2594  -0.8803  -0.05248  -0.0008397  -0.01841  -0.03579  -0.8622  -0.3553
6.354e+09  -0.535  -0.7148  -0.01136  -0.02312  0.0181  0.004562  -0.9047  -0.06494
6.355e+09  -0.7042  -0.4618  -0.01934  -0.01022  -0.03285  -0.01023  -0.8985  0.2714
6.356e+09  -0.8462  -0.175  -0.03416  0.00399  0.008991  -0.0197  -0.7846  0.5153
6.358e+09  -0.8332  0.08532  0.01593  -0.05062  -0.01294  -0.02043  -0.5568  0.7663
6.359e+09  -0.7624  0.3301  -0.00894  0.01414  -0.006691  0.002665  -0.2086  0.8895
6.36e+09  -0.5461  0.6726  -0.01088  0.03017  0.007482  -0.01258  0.04161  0.9267
6.361e+09  -0.3924  0.7883  0.02276  0.005135  0.03687  0.01759  0.4218  0.8782
6.362e+09  0.0002071  0.9077  0.001298  -0.03981  -0.007603  0.03158  0.689  0.678
6.364e+09  0.2331  0.8093  -0.001921  0.0305  0.04822  -0.02037  0.828  0.3757
6.365e+09  0.5737  0.6828  -0.01064  -0.01534  0.03277  0.0666  0.9289  0.1017
6.366e+09  0.7011  0.4612  0.006743  -0.001762  -0.00526  -0.06983  0.9096  -0.2287
6.368e+09  0.8304  0.1523  -0.03095  0.01125  0.005009  -0.0008864  0.7635  -0.5292
6.369e+09  0.8346  -0.1497  -0.02362  0.006572  0.003761  0.005223  0.508  -0.7774
6.37e+09  0.7445  -0.4755  -0.001325  -0.01157  -0.006582  -0.03979  0.2383  -0.9297
6.371e+09  0.5664  -0.6558  0.04427  0.01002  -0.02904  -0.02978  -0.05458  -0.9457
6.372e+09  0.2704  -0.8191  -0.04541  0.002191  0.01527  -0.02964  -0.4  -0.8625
6.374e+09  -0.04706  -0.8833  0.01089  -0.01337  -0.007544  -0.009048  -0.6909  -0.6491
6.375e+09  -0.2789  -0.8133  -0.01552  0.008594  0.04295  -0.02773  -0.8381  -0.3749
6.376e+09  -0.5832  -0.6054  -0.007762  0.02339  -0.04412  -0.003837  -0.9427  -0.08932
6.378e+09  -0.7296  -0.3568  0.01577  -0.001728  0.01065  -0.04968  -0.8911  0.2043
6.379e+09  -0.8502  -0.1811  0.01934  0.01617  -0.04968  0.002218  -0.765  0.5052
6.38e+09  -0.8583  0.1785  0.02143  -0.002148  -0.01302  -0.008395  -0.5667  0.8081
6.381e+09  -0.7624  0.4636  -0.02342  0.001048  -0.001816  0.01454  -0.2861  0.9062
6.382e+09  -0.5225  0.6698  -0.01729  0.01623  -0.0209  -0.008216  0.07159  0.9297
6.384e+09  -0.2542  0.8399  0.01369  0.01457  0.03657  0.03748  0.4018  0.8608
6.385e+09  0.05217  0.8903  0.0444  -0.01576  0.05156  -0.05016  0.6676  0.709
6.386e+09  0.3076  0.7753  0.03088  -0.0336  -0.005229  0.006807  0.797  0.394
6.388e+09  0.557  0.6115  0.03417  -0.01658  0.04875  0.03306  0.8862  0.1216
6.389e+09  0.7702  0.3232  0.03969  0.006237  -0.01964  0.01083  0.9082  -0.2078
6.39e+09  0.8634  0.09273  0.02514  -0.04102  -0.01662  0.007556  0.7622  -0.5348
6.391e+09  0.8725  -0.2244  0.02494  0.03765  -0.0477  0.03233  0.5361  -0.7267
6.392e+09  0.6724  -0.437  0.05374  0.01256  -9.624e-05  0.004335  0.3347  -0.9243
6.394e+09  0.5146  -0.7014  0.02999  0.006979  0.02786  -0.004042  -0.05698  -0.9086
6.395e+09  0.2035  -0.8178  -0.0243  0.01085  0.03116  -0.038  -0.311  -0.8694
6.396e+09  -0.08203  -0.8697  0.00509  -0.01447  0.01216  0.05152  -0.5815  -0.6936
6.398e+09  -0.3975  -0.7894  0.03407  -0.01152  0.00397  -0.0468  -0.8212  -0.455
6.399e+09  -0.5993  -0.603  0.0001463  0.006814  0.008385  0.01787  -0.8947  -0.1217
6.4e+09  -0.8261  -0.3472  0.04096  0.0315  -0.018  0.0167  -0.8411  0.2084
6.401e+09  -0.8573  -0.02356  0.01928  0.04258  0.02662  -0.02876  -0.8083  0.452
6.402e+09  -0.8229  0.2713  -0.004514  0.03013  -0.03154  0.02182  -0.5669  0.7048
6.404e+09  -0.7055  0.5271  0.004222  0.01783  -0.07055  -0.02669  -0.3203  0.8579
6.405e+09  -0.4374  0.7401  -0.004506  -0.006971  -0.02015  -0.01796  0.02224  0.9326
6.406e+09  -0.1948  0.8352  -0.04992  0.02496  -0.001426  0.04613  0.295  0.8857
6.408e+09  0.06881  0.8469  0.03804  0.04005  -0.00666  0.02379  0.587  0.7046
6.409e+09  0.3915  0.7984  -0.002153  -0.00274  0.03341  -0.01116  0.7868  0.435
6.41e+09  0.6025  0.5501  -0.008343  -0.01116  0.03347  -0.02501  0.907  0.1832
6.411e+09  0.7741  0.309  0.02653  0.00468  0.009975  0.004839  0.9515  -0.1452
6.412e+09  0.8346  0.1032  -0.0318  0.0152  -0.02106  -0.000947  0.7425  -0.3972
6.414e+09  0.8205  -0.2487  -0.008664  0.01863  -0.009335  -0.03268  0.5831  -0.6782
6.415e+09  0.677  -0.4938  -0.01901  0.001991  -0.01383  -0.01608  0.327  -0.8488
6.416e+09  0.4314  -0.6899  0.007318  0.002735  0.0298  0.008837  0.0163  -0.8831
6.418e+09  0.1457  -0.8451  -0.02292  -0.00292  0.04883  -0.04349  -0.2772  -0.7933
6.419e+09  -0.132  -0.8428  0.02883  0.009034  0.01249  -0.04094  -0.5571  -0.6639
6.42e+09  -0.397  -0.7406  0.0006917  -0.001238  -0.005281  0.002552  -0.7554  -0.4516
6.421e+09  -0.6497  -0.5942  0.04099  -0.002043  -0.01413  0.01481  -0.8421  -0.1806
6.422e+09  -0.775  -0.36  -0.0189  0.001434  -0.02891  0.009406  -0.8858  0.1236
6.424e+09  -0.8456  -0.01309  -0.007253  0.01637  -0.002574  0.05296  -0.7558  0.4107
6.425e+09  -0.8324  0.2564  -0.05075  -0.003365  0.06695  0.002377  -0.5979  0.657
6.426e+09  -0.6875  0.5795  0.01325  0.03983  -0.0004566  -0.01184  -0.3863  0.8379
6.428e+09  -0.4157  0.718  -0.02278  0.002318  -0.009241  0.001085  -0.04174  0.8368
6.429e+09  -0.1318  0.852  -0.02878  -0.009845  0.02461  0.01842  0.2569  0.8652
6.43e+09  0.09818  0.7937  -0.03171  0.0279  -0.03886  0.004632  0.5155  0.7359
6.431e+09  0.391  0.7459  0.01306  -0.03796  -0.01262  0.007255  0.7375  0.5009
6.432e+09  0.6939  0.561  0.01278  0.02238  -0.0365  0.03271  0.8327  0.2218
6.434e+09  0.7685  0.3285  0.002485  0.0007124  0.01913  0.004947  0.8558  -0.08689
6.435e+09  0.8557  -0.004627  -0.03092  4.623e-05  -0.006965  -0.004008  0.7402  -0.3669
6.436e+09  0.7826  -0.2783  0.02642  0.02648  0.007518  -0.005613  0.5915  -0.6126
6.438e+09  0.7195  -0.5264  0.00953  0.001175  0.01372  -0.03854  0.3257  -0.7732
6.439e+09  0.4218  -0.7356  0.03416  0.03915  0.04555  -0.003416  0.05635  -0.8321
6.44e+09  0.1237  -0.773  0.01021  -0.005249  0.02876  -0.02891  -0.24  -0.8007
6.441e+09  -0.1448  -0.8479  -0.01215  0.001102  0.04741  -0.03254  -0.5076  -0.7016
6.442e+09  -0.3781  -0.7599  0.0184  0.04685  -0.02206  -0.03225  -0.7373  -0.4991
6.444e+09  -0.6594  -0.5981  0.0008874  0.001799  -0.006969  0.04584  -0.8585  -0.1898
6.445e+09  -0.8056  -0.3213  -0.004975  0.002245  -0.06804  0.004406  -0.9158  0.07891
6.446e+09  -0.8506  -0.02435  -0.01631  0.008517  0.00721  0.01569  -0.7463  0.3345
6.448e+09  -0.8109  0.324  -0.02451  0.02241  -0.004355  0.02594  -0.622  0.6186
6.449e+09  -0.623  0.5589  -0.002245  -0.02094  0.0008348  0.006999  -0.3932  0.7765
6.45e+09  -0.396  0.7812  -0.03489  0.01864  0.04364  -0.01746  -0.08731  0.8172
6.451e+09  -0.1138  0.8176  -0.01201  -0.008176  -0.03165  -0.001648  0.2322  0.7569
6.452e+09  0.1487  0.9014  -0.01653  0.02483  0.03419  -0.0003135  0.4753  0.6526
6.454e+09  0.433  0.7323  -0.03918  0.0253  0.003087  -0.02562  0.6986  0.4849
6.455e+09  0.7168  0.5494  -0.009301  0.03925  0.01825  0.01133  0.8226  0.153
6.456e+09  0.8588  0.2857  -0.0203  0.02973  -0.001286  -0.04299  0.8294  -0.06276
6.458e+09  0.8722  -0.0119  0.02941  0.02551  -0.0157  0.005786  0.76  -0.3163
6.459e+09  0.7802  -0.3001  0.005577  0.02204  -0.04443  -0.02029  0.5926  -0.5494
6.46e+09  0.6382  -0.5653  -0.0008793  -0.03013  -0.01267  -0.04562  0.3147  -0.745
6.461e+09  0.4146  -0.7353  -0.01866  4.63e-05  0.005083  -0.007736  0.06305  -0.7539
6.462e+09  0.1689  -0.8685  0.003504  0.03726  -0.0287  -0.01093  -0.2025  -0.8008
6.464e+09  -0.1146  -0.8873  -0.04132  0.01873  -0.02232  0.01921  -0.4798  -0.6908
6.465e+09  -0.4564  -0.7162  0.03198  0.003459  -0.0001739  -0.007261  -0.6904  -0.4877
6.466e+09  -0.7006  -0.5747  0.00765  0.0685  0.02021  -0.03407  -0.762  -0.2224
6.468e+09  -0.8126  -0.2399  0.01827  -0.02658  -0.008809  -0.03556  -0.7928  0.02868
6.469e+09  -0.8787  0.01361  -0.01098  0.002797  -0.03836  0.0223  -0.7304  0.3197
6.47e+09  -0.7979  0.3186  -0.002738  -0.003523  -0.06079  0.006608  -0.5538  0.5258
6.471e+09  -0.6295  0.5767  0.01754  -0.01372  0.01195  -0.01846  -0.3513  0.7183
6.472e+09  -0.3754  0.7953  -0.02195  0.01401  -0.01007  0.05722  -0.08908  0.7677
6.474e+09  -0.1499  0.8544  -0.006418  -0.04816  0.01495  -0.00218  0.2283  0.7938
6.475e+09  0.1351  0.8886  0.01121  -0.008367  -0.02285  -0.002637  0.5179  0.6283
6.476e+09  0.4429  0.7243  -0.0828  0.01874  -0.004867  -0.0365  0.6344  0.4549
6.478e+09  0.6861  0.5776  -0.01738  -0.001396  -0.02047  0.009314  0.7247  0.1956
6.479e+09  0.8432  0.2342  0.01154  0.00762  -0.04562  -0.002711  0.7941  -0.04236
6.48e+09  0.8729  -0.001284  0.01979  -0.03296  0.01195  0.0177  0.7036  -0.3043
6.481e+09  0.7934  -0.3224  -0.001409  -0.02503  -0.009938  -0.02897  0.5676  -0.5276
6.482e+09  0.7022  -0.6024  -0.03831  0.01524  -0.0441  -0.04148  0.339  -0.6756
6.484e+09  0.4236  -0.7573  0.02  -0.001654  0.008381  -0.008576  0.0742  -0.7888
6.485e+09  0.1017  -0.9198  -0.001228  -0.02324  -0.00373  0.01871  -0.1925  -0.7553
6.486e+09  -0.1756  -0.8937  -0.01365  0.01697  0.01034  -0.05638  -0.4855  -0.5949
6.488e+09  0.2641  -0.6375  0.002595  -0.01902  0.4418  -0.6033  -0.6311  -0.4456
6.489e+09  -0.6981  -0.5355  0.02348  0.001772  0.05037  0.002631  -0.7344  -0.1636
6.49e+09  -0.8364  -0.2863  -0.009526  -0.01453  -0.01049  -0.01864  -0.7554  0.09346
6.491e+09  -0.9042  0.02649  -3.994e-05  0.01194  0.002767  0.007943  -0.6619  0.3209
6.492e+09  -0.7971  0.3586  -0.03198  -0.009448  -0.03128  -0.00123  -0.5452  0.5575
6.494e+09  -0.7494  0.5842  -0.01458  0.0006781  0.08289  -0.02191  -0.2639  0.7195
6.495e+09  -0.4073  0.795  0.01069  0.03044  0.04064  0.04169  -0.05604  0.7742
6.496e+09  -0.09702  0.8646  -0.002502  -0.01022  0.03413  -0.004771  0.2136  0.7326
6.498e+09  0.1937  0.8675  0.03475  0.005678  0.05054  0.02315  0.4604  0.5894
6.499e+09  0.543  0.7486  0.007234  0.02848  -0.02754  -0.06461  0.6294  0.4004
6.5e+09  0.7766  0.5192  -0.03387  0.04445  0.002824  -0.04263  0.7571  0.1455
6.501e+09  0.8894  0.2396  0.00671  -0.03607  -0.04186  -0.001109  0.7644  -0.131
6.502e+09  0.9216  -0.05995  -0.01036  0.01223  0.004667  -0.01642  0.6736  -0.3811
6.504e+09  0.8473  -0.3714  -0.02838  -0.02209  0.002832  0.01158  0.5475  -0.5822
6.505e+09  0.631  -0.6584  -0.04255  0.01286  -0.02886  -0.01288  0.2895  -0.6704
6.506e+09  0.3918  -0.8604  -0.01224  0.01781  0.009017  0.0514  0.02334  -0.7873
6.508e+09  0.1187  -0.9457  0.0241  0.006416  0.006272  0.001076  -0.2601  -0.7124
6.509e+09  -0.2723  -0.8842  -0.01272  0.004889  -0.02947  -0.01636  -0.4858  -0.5731
6.51e+09  -0.6008  -0.7387  -0.04754  -0.01506  0.00128  -0.02289  -0.6415  -0.4025
6.511e+09  -0.7872  -0.5026  -0.02491  -0.02265  -0.007711  0.02992  -0.7549  -0.128
6.512e+09  -0.9074  -0.2158  -0.0008106  -0.007917  -0.0637  -0.005563  -0.7129  0.0917
6.514e+09  -0.8987  0.1335  0.01672  0.001896  0.005365  -0.03345  -0.6588  0.3528
6.515e+09  -0.8328  0.4804  0.01198  0.01336  0.004546  0.05441  -0.4746  0.5571
6.516e+09  -0.5986  0.7225  0.01564  0.01587  0.04782  0.01832  -0.2347  0.6916
6.518e+09  -0.3075  0.8543  -0.01117  0.02046  -0.01199  0.04394  -0.02686  0.7118
6.519e+09  -0.00216  0.924  0.01624  -0.0147  0.04379  0.004094  0.2656  0.663
6.52e+09  0.3098  0.8665  0.01207  -0.0009468  0.02287  -0.009715  0.4733  0.5931
6.521e+09  0.6262  0.7069  0.02435  0.01168  -0.01516  0.05915  0.6498  0.3823
6.522e+09  0.8001  0.4442  -0.004129  -0.007382  0.006033  -0.04162  0.7494  0.07348
6.524e+09  0.9187  0.208  -0.007308  -0.00949  -0.01814  -0.005715  0.6981  -0.1831
6.525e+09  0.9209  -0.1743  0.0231  -0.007945  0.01199  -0.01474  0.5985  -0.3866
6.526e+09  0.8112  -0.4946  0.004695  0.04042  -0.001748  -0.02536  0.3554  -0.5644
6.528e+09  0.6152  -0.7306  0.002038  -0.006219  0.005791  0.007973  0.2397  -0.6895
6.529e+09  0.2908  -0.8637  -0.02921  -0.01653  0.03404  -0.005608  -0.03787  -0.6987
6.53e+09  -0.03977  -0.9141  -0.04131  -9.242e-05  0.006936  0.01244  -0.2863  -0.6006
6.531e+09  -0.4192  -0.8699  -0.009358  -0.02608  -0.03358  -0.01191  -0.4435  -0.4755
6.532e+09  -0.7143  -0.6669  0.01948  0.03521  -0.0339  0.05507  -0.6026  -0.284
6.534e+09  -0.8171  -0.3804  -0.01872  0.0001118  0.007678  0.004125  -0.6406  -0.1057
6.535e+09  -0.921  -0.1223  -0.02059  -0.003636  0.02496  -0.03677  -0.6385  0.1014
6.536e+09  -0.9418  0.1903  0.03003  0.002685  -0.01861  0.0254  -0.542  0.2666
6.538e+09  -0.7864  0.5379  -0.01829  -0.02565  -0.02952  0.02371  -0.4171  0.496
6.539e+09  -0.56  0.8016  -0.01934  -0.0081  -0.012  -0.03443  -0.2717  0.6116
6.54e+09  -0.2311  0.9077  0.01154  0.00498  -0.01199  -0.01379  -0.04237  0.6327
6.541e+09  0.1202  0.9321  -0.01496  -0.0008469  0.004601  -0.05019  0.1925  0.6779
6.542e+09  0.392  0.829  0.003804  -0.00757  0.01374  0.02083  0.3858  0.5787
6.544e+09  0.631  0.6206  -0.03484  -0.0149  -0.0617  0.008426  0.5956  0.4033
6.545e+09  0.8874  0.3099  -0.03026  -0.01843  -0.02915  -0.01385  0.6981  0.1892
6.546e+09  0.9957  0.04759  -0.01102  -0.008405  -0.03946  -0.01527  0.7263  -0.07871
6.548e+09  0.8487  -0.2721  -0.0162  -0.005763  0.04358  -0.0056  0.6545  -0.3161
6.549e+09  0.742  -0.581  0.004085  0.03455  -0.04513  -0.004003  0.5053  -0.5294
6.55e+09  0.4883  -0.7779  -0.01749  -0.01532  0.05867  0.01147  0.3287  -0.6024
