# Hz S RI R 50
6.25e+09  -0.3104  0.7368  -0.03582  0.004381  0.03359  -0.0234  0.1581  0.4854
6.251e+09  -0.03465  0.8603  0.02689  -0.004594  -0.02766  0.02491  0.3723  0.4049
6.252e+09  0.2479  0.7903  -0.003745  -0.01461  0.01561  0.04187  0.5239  0.2359
6.254e+09  0.5025  0.6781  -0.01446  -0.006883  0.0523  -0.006073  0.5938  0.006972
6.255e+09  0.7129  0.4229  0.03162  0.004201  -0.002946  0.0162  0.5842  -0.2362
6.256e+09  0.8127  0.1733  0.03637  -0.0133  -0.02138  -0.03373  0.4675  -0.4442
6.258e+09  0.7639  -0.08349  0.01779  -0.007553  -0.01062  -0.00543  0.2732  -0.5951
6.259e+09  0.7237  -0.4362  -0.0016  0.01514  0.007008  0.02001  0.01975  -0.6736
6.26e+09  0.5035  -0.6106  0.01579  -0.009985  -0.03145  0.006713  -0.2181  -0.6191
6.261e+09  0.2812  -0.7394  -0.003499  -0.003712  0.01663  0.01505  -0.4333  -0.5333
6.262e+09  0.08636  -0.8428  0.02124  0.02263  -0.04733  0.03779  -0.6419  -0.359
6.264e+09  -0.222  -0.8009  -0.007966  0.01347  0.02897  -0.03607  -0.7115  -0.09385
6.265e+09  -0.4777  -0.6424  0.03187  -0.02786  -0.007026  0.005973  -0.6788  0.171
6.266e+09  -0.6866  -0.4324  0.003578  0.01426  -0.006494  -0.0147  -0.6292  0.3912
6.268e+09  -0.7981  -0.1768  -0.04115  0.005291  -0.02996  -0.0004009  -0.446  0.5867
6.269e+09  -0.7569  0.1785  -0.01456  -0.0155  0.0296  -0.01397  -0.1782  0.694
6.27e+09  -0.742  0.3833  -0.001764  0.01641  -0.02259  0.02426  0.06718  0.7391
6.271e+09  -0.4813  0.5946  -0.003887  0.02362  -0.03474  -0.006405  0.3062  0.6617
6.272e+09  -0.3033  0.7495  -0.01873  0.02778  0.001322  -0.00894  0.5565  0.5273
6.274e+09  -0.01603  0.8181  0.02737  0.007297  0.0005096  -0.01211  0.6715  0.3327
6.275e+09  0.3185  0.763  0.01563  0.01785  0.01401  0.05055  0.7353  0.07842
6.276e+09  0.4977  0.6075  -0.00426  0.00176  -0.00814  0.01035  0.749  -0.2242
6.278e+09  0.6562  0.3988  0.008201  -0.01888  -0.01113  -0.07159  0.6204  -0.456
6.279e+09  0.7901  0.1426  -0.009516  -0.002566  -0.03859  -0.0352  0.4008  -0.6658
6.28e+09  0.8242  -0.1545  -0.004788  0.02906  -0.005004  -0.0446  0.1434  -0.7382
6.281e+09  0.6952  -0.3612  -0.005224  0.002944  -0.01837  -0.02899  -0.1347  -0.7816
6.282e+09  0.4928  -0.6028  -0.0004894  0.01841  -0.006607  0.003333  -0.3846  -0.7052
6.284e+09  0.2448  -0.7198  -0.007007  0.01276  0.03494  0.03617  -0.5704  -0.5551
6.285e+09  -0.03327  -0.8188  0.00201  0.01183  0.00305  0.02415  -0.7238  -0.294
6.286e+09  -0.2606  -0.7202  0.00595  0.01478  0.01361  -0.0518  -0.7648  -0.0295
6.288e+09  -0.551  -0.6382  0.03011  0.007587  0.05055  -0.01126  -0.7657  0.2385
6.289e+09  -0.6973  -0.4464  0.006267  -0.03426  0.02158  0.04348  -0.6059  0.4986
6.29e+09  -0.8122  -0.08325  -0.004787  -0.01455  -0.02469  0.01321  -0.4131  0.687
6.291e+09  -0.7622  0.1453  0.005043  0.01116  -0.01885  0.03859  -0.1667  0.7749
6.292e+09  -0.7058  0.4604  -0.0354  -0.008738  0.03298  0.02254  0.168  0.8073
6.294e+09  -0.4749  0.6367  0.01177  -0.03073  0.01167  -0.02683  0.4065  0.7069
6.295e+09  -0.24  0.7661  0.001956  -0.0188  0.00242  -0.05736  0.6231  0.5195
6.296e+09  0.05731  0.8223  0.04141  0.01379  -0.003786  0.008635  0.7464  0.2733
6.298e+09  0.3077  0.7258  -0.01147  -0.0137  0.05518  -0.01402  0.8273  -0.006655
6.299e+09  0.5872  0.5663  -0.03023  -0.01502  -0.05035  0.02358  0.7649  -0.2389
6.3e+09  0.7871  0.3763  0.02469  -0.005793  0.02979  -0.02149  0.6691  -0.5184
6.301e+09  0.8405  0.08851  -0.006457  -0.03561  -0.02556  -0.02801  0.4483  -0.7361
6.302e+09  0.8029  -0.2106  0.004543  0.008992  -0.01826  0.01292  0.1949  -0.8228
6.304e+09  0.6943  -0.445  -0.003663  0.022  -0.05713  -0.03042  -0.1272  -0.8407
6.305e+09  0.4974  -0.6314  0.02497  0.001591  -0.06028  0.01495  -0.4102  -0.7157
6.306e+09  0.1816  -0.8491  0.01848  -0.04128  -0.01639  0.01499  -0.641  -0.5512
6.308e+09  -0.03945  -0.7586  0.0132  -0.01651  0.01603  0.03099  -0.7973  -0.2923
6.309e+09  -0.3514  -0.6735  -0.005569  -0.0002647  -0.01245  0.04755  -0.8515  -0.009554
6.31e+09  -0.6112  -0.5817  -0.0008964  -0.01048  0.02197  0.04062  -0.764  0.3219
6.311e+09  -0.738  -0.3551  0.04008  -0.01339  0.002056  -0.02044  -0.6539  0.5354
6.312e+09  -0.7868  -0.03404  0.01708  -0.003852  0.06891  0.01249  -0.4546  0.7636
6.314e+09  -0.793  0.2194  -0.0001732  0.003251  0.008556  -0.05253  -0.1495  0.8381
6.315e+09  -0.5726  0.4869  -0.02692  0.00968  0.04211  0.01183  0.1353  0.8601
6.316e+09  -0.4127  0.7211  -0.02179  -0.01678  0.02497  -0.07957  0.3883  0.755
6.318e+09  -0.18  0.8073  0.007128  0.008394  0.007977  -0.002589  0.6451  0.5692
6.319e+09  0.1132  0.8481  -0.0009887  0.006248  -0.0002257  -0.04883  0.7756  0.3219
6.32e+09  0.3796  0.7273  -0.0004084  0.008286  0.02845  -0.04133  0.8887  0.005982
6.321e+09  0.671  0.5304  -0.03093  0.01159  -0.01189  0.03746  0.84  -0.3045
6.322e+09  0.724  0.283  0.02133  -0.00105  -0.02872  0.03405  0.6979  -0.5684
6.324e+09  0.7826  0.06092  0.03323  -0.001059  -0.02614  -0.01481  0.4429  -0.7646
6.325e+09  0.7991  -0.2792  -0.02062  0.001248  0.04282  0.01555  0.1578  -0.8606
6.326e+09  0.5892  -0.5578  -0.02201  -0.01133  0.03605  -0.02052  -0.1135  -0.8795
6.328e+09  0.4296  -0.7491  -0.01028  0.008981  0.01248  -0.07765  -0.4517  -0.7724
6.329e+09  0.172  -0.8482  -0.01774  -0.003579  0.01995  -0.008876  -0.6992  -0.6038
6.33e+09  -0.1764  -0.8004  -0.008287  0.000572  -0.02997  -0.002272  -0.8662  -0.3445
6.331e+09  -0.4758  -0.6899  -0.002317  -0.001558  0.03647  -0.00465  -0.9334  -0.003031
6.332e+09  -0.6471  -0.4705  -0.0355  -0.01179  -0.006469  -0.005782  -0.8739  0.2501
6.334e+09  -0.824  -0.2191  0.02453  0.01015  0.02463  -0.01385  -0.6922  0.5604
6.335e+09  -0.8191  0.01414  -0.01056  -0.02128  -0.01846  0.003803  -0.5147  0.7732
6.336e+09  -0.7469  0.3334  -0.01115  -0.01104  0.005096  -0.04511  -0.1666  0.8866
6.338e+09  -0.5698  0.5607  -0.005263  -0.001544  0.01218  -0.003133  0.1277  0.9032
6.339e+09  -0.3475  0.787  -0.00577  -0.02349  -0.01472  0.02078  0.4158  0.8269
6.34e+09  -0.09711  0.8255  -0.009476  -0.009348  -0.01929  0.02447  0.6295  0.6127
6.341e+09  0.2272  0.8458  -0.01604  -0.05633  -0.03641  -0.002746  0.8437  0.3628
6.342e+09  0.4886  0.6753  0.004748  0.0114  -0.007448  -0.06446  0.8818  0.03191
6.344e+09  0.6794  0.4689  0.02978  0.0122  -0.014  0.0186  0.8929  -0.3025
6.345e+09  0.804  0.2266  0.01774  0.0004887  0.01551  0.03498  0.7435  -0.5845
6.346e+09  0.8275  -0.15  0.008875  -0.03485  -0.02337  0.04087  0.5175  -0.7807
6.348e+09  0.7473  -0.4085  -0.02977  -0.009138  -0.0476  -0.06235  0.2255  -0.8882
6.349e+09  0.5532  -0.5968  0.02085  0.01271  0.02349  -0.05869  -0.1084  -0.9152
6.35e+09  0.3422  -0.7894  -0.00347  0.007685  0.04948  -0.01201  -0.4441  -0.8215
6.351e+09  -0.02102  -0.8585  -0.003595  -0.009382  -0.02258  -0.02635  -0.64  -0.6573
6.352e+09  -0.2791  -0.8467  -0.01945  0.03105  -0.005769  -0.01714  -0.8411  -0.4122
6.354e+09  -0.5706  -0.6469  0.03765  0.02098  -0.02318  -0.0001828  -0.9374  -0.07356
6.355e+09  -0.7502  -0.4688  0.006536  -0.01254  0.01107  0.007613  -0.9023  0.258
6.356e+09  -0.8463  -0.1945  -0.005843  0.019  -0.02909  0.003629  -0.7357  0.5178
6.358e+09  -0.8245  0.1586  -0.003073  0.00896  0.01235  -0.002332  -0.5654  0.7981
6.359e+09  -0.7408  0.4664  -0.03247  -0.00916  -0.01091  0.005396  -0.2156  0.9542
6.36e+09  -0.5597  0.6939  -0.01742  -0.002783  0.02479  -0.03412  0.07764  0.9646
6.361e+09  -0.3145  0.8329  0.005244  0.0128  0.02888  -0.02501  0.3741  0.8101
6.362e+09  0.01028  0.8309  -0.0221  -0.007488  0.02596  0.01798  0.6796  0.6769
6.364e+09  0.3297  0.7699  -0.03793  -0.01484  -0.02996  0.01298  0.8382  0.4232
6.365e+09  0.5924  0.5928  0.002337  -0.01925  -0.02912  -0.0566  0.939  0.09726
6.366e+09  0.7745  0.3653  -0.03035  0.0003868  -0.01856  -0.04842  0.8973  -0.2508
6.368e+09  0.8729  0.1151  0.02168  -0.01959  0.002886  -0.01384  0.7465  -0.5253
6.369e+09  0.8394  -0.1568  0.01357  0.01884  -0.01942  -0.007977  0.555  -0.816
6.37e+09  0.7192  -0.4724  0.04928  0.01419  -0.02273  0.01055  0.2545  -0.8961
6.371e+09  0.4754  -0.7006  -0.02081  0.01313  0.06225  -0.0348  -0.04932  -0.9351
6.372e+09  0.2282  -0.8352  0.002143  -0.01347  0.02486  -0.01813  -0.4424  -0.848
6.374e+09  -0.09406  -0.8397  0.006085  -0.01332  -0.04027  -0.002089  -0.6994  -0.6971
6.375e+09  -0.3731  -0.8287  -0.009677  -0.03397  -0.006882  0.0002486  -0.8359  -0.417
6.376e+09  -0.582  -0.6016  0.01984  -0.03076  -0.03048  -0.03124  -0.9503  -0.07977
6.378e+09  -0.8036  -0.3536  -0.005982  0.003331  -0.02406  0.006962  -0.9222  0.2381
6.379e+09  -0.8713  -0.07925  -0.01379  0.01748  -0.0226  -0.002695  -0.7875  0.5498
6.38e+09  -0.8569  0.2382  -0.00579  -0.02773  0.0117  0.007311  -0.5255  0.7474
6.381e+09  -0.7269  0.5196  -0.04901  -0.02301  -0.009192  0.0008271  -0.292  0.9267
6.382e+09  -0.4131  0.7162  0.007456  0.0101  -0.02501  0.01983  0.06699  0.9342
6.384e+09  -0.2221  0.8145  0.02127  0.0188  -0.0003287  -0.006132  0.3491  0.8871
6.385e+09  0.1317  0.8988  -0.0269  0.008062  -0.0152  0.01935  0.6471  0.6932
6.386e+09  0.3884  0.774  -0.02219  0.02343  -0.01694  -0.01355  0.8369  0.4094
6.388e+09  0.6464  0.6062  -0.02183  0.007811  0.01296  -0.0447  0.8945  0.1092
6.389e+09  0.7607  0.3381  -0.04991  0.02841  0.01512  0.04246  0.9488  -0.1675
6.39e+09  0.8924  0.03442  -0.008871  -0.004289  0.004994  -0.01283  0.7979  -0.5199
6.391e+09  0.8658  -0.2403  -0.02286  0.00436  -0.0004527  0.01111  0.5483  -0.7367
6.392e+09  0.6495  -0.519  0.003644  -0.02124  0.002145  -0.02928  0.2639  -0.8985
6.394e+09  0.4896  -0.7374  0.007244  -0.02062  0.001626  0.02382  -0.04694  -0.907
6.395e+09  0.2031  -0.8433  0.01258  0.02007  0.005585  0.03432  -0.3586  -0.8779
6.396e+09  -0.1894  -0.8719  -0.003011  2.01e-05  -0.001253  -0.005587  -0.5626  -0.6824
6.398e+09  -0.4099  -0.7169  -0.002142  -0.006308  0.03607  0.0131  -0.75  -0.4776
6.399e+09  -0.6565  -0.5874  -0.0246  -0.03852  0.02473  0.03299  -0.8959  -0.1572
6.4e+09  -0.8263  -0.3213  -0.01559  -0.009539  0.01454  0.02288  -0.8968  0.1835
6.401e+09  -0.8486  -0.002575  -0.02492  -0.01878  0.03604  -0.02619  -0.8175  0.4583
6.402e+09  -0.7736  0.2868  -0.02361  0.01793  -0.01599  0.004297  -0.6023  0.7433
6.404e+09  -0.6278  0.5748  0.0475  -0.006163  -0.025  0.05236  -0.3353  0.8944
6.405e+09  -0.433  0.7413  0.02794  0.02839  -0.0162  -0.02812  0.02912  0.9166
6.406e+09  -0.1759  0.8145  0.007853  0.01604  0.0518  -0.002108  0.3149  0.8331
6.408e+09  0.1422  0.8074  -0.01256  -0.01831  0.01899  -0.003905  0.545  0.7323
6.409e+09  0.4539  0.7285  0.006166  -0.008603  -0.01757  -0.02824  0.7984  0.4592
6.41e+09  0.6793  0.5245  0.002021  0.002556  -0.02107  -0.0236  0.8864  0.1757
6.411e+09  0.8428  0.3293  0.002632  0.05344  0.03419  -0.02062  0.8705  -0.1964
6.412e+09  0.8735  0.03372  -0.006466  0.01896  -0.01155  -0.03951  0.8042  -0.4889
6.414e+09  0.7883  -0.3172  -0.01948  -0.04924  -0.03563  0.01166  0.5936  -0.6443
6.415e+09  0.6571  -0.5945  0.0167  -0.02372  0.02824  -0.01373  0.3045  -0.8172
6.416e+09  0.3854  -0.7587  -0.03342  -0.02842  -0.05433  -0.006957  0.0765  -0.8634
6.418e+09  0.1578  -0.8092  0.006691  0.01681  0.002163  3.431e-05  -0.2934  -0.8076
6.419e+09  -0.1508  -0.8629  0.09387  -0.02757  0.02186  -0.02037  -0.5619  -0.7018
6.42e+09  -0.3998  -0.7499  -0.009664  -0.001594  -0.009569  -0.01606  -0.7356  -0.4752
6.421e+09  -0.657  -0.4808  -0.009378  -0.02319  -0.01747  -0.03072  -0.8675  -0.1736
6.422e+09  -0.8372  -0.2932  0.0391  -0.004494  -0.0592  -0.006818  -0.8653  0.07277
6.424e+09  -0.8623  0.05811  -0.01709  -0.002273  0.02398  -0.03778  -0.768  0.4183
6.425e+09  -0.7665  0.3302  -0.001736  0.07343  -0.009541  -0.02788  -0.6016  0.6387
6.426e+09  -0.6614  0.5607  0.008809  0.03183  -0.007035  0.01287  -0.3106  0.7917
6.428e+09  -0.3732  0.8218  0.02417  -0.04509  0.0332  -0.0287  -0.0344  0.8611
6.429e+09  -0.1154  0.8315  0.02388  0.0118  -0.003296  0.04213  0.22  0.8221
6.43e+09  0.1684  0.8353  -0.006073  0.02647  -0.0226  0.04177  0.4679  0.6951
6.431e+09  0.4716  0.7125  0.005763  -0.02845  0.004617  -0.04941  0.7221  0.4817
6.432e+09  0.6466  0.5113  -0.02283  0.00579  -0.01772  -0.00796  0.8248  0.2382
6.434e+09  0.8873  0.2667  -0.01882  0.00913  0.04899  -0.006502  0.8373  -0.1145
6.435e+09  0.8733  -0.05046  -0.03331  -0.005843  -0.009654  -0.01188  0.8082  -0.3869
6.436e+09  0.7537  -0.298  -0.02229  -0.01523  -0.001641  -0.01606  0.6113  -0.5662
6.438e+09  0.6557  -0.6166  0.03208  0.03106  -0.02193  -0.01941  0.3629  -0.8512
6.439e+09  0.3926  -0.7046  -0.01352  -0.02048  0.008567  -0.02555  0.05287  -0.8888
6.44e+09  0.05932  -0.8989  -0.01569  0.00191  -0.0249  -0.02433  -0.3044  -0.7989
6.441e+09  -0.1791  -0.8602  0.02502  -0.01223  0.02437  0.02052  -0.4689  -0.7058
6.442e+09  -0.5017  -0.7425  -0.02045  -0.02434  -0.02587  0.01048  -0.6873  -0.4881
6.444e+09  -0.6429  -0.5232  0.002468  0.04604  0.03004  -0.02562  -0.7843  -0.2345
6.445e+09  -0.8287  -0.2405  0.007165  0.00404  -0.02221  0.0004261  -0.8495  0.1012
6.446e+09  -0.8434  0.06551  -0.02094  -0.02086  0.01912  -0.02393  -0.753  0.3816
6.448e+09  -0.7787  0.3462  -0.001246  0.02251  0.004097  -0.03734  -0.6048  0.6354
6.449e+09  -0.6275  0.618  0.01605  -0.00849  0.006275  -0.002212  -0.3237  0.758
6.45e+09  -0.3941  0.7143  -0.01319  -0.01308  -0.03253  0.003722  -0.1299  0.7858
6.451e+09  -0.03999  0.8094  0.02457  0.01812  0.02945  -0.06428  0.2669  0.8069
6.452e+09  0.1884  0.7882  0.03616  0.05935  -0.01548  0.001341  0.4908  0.6586
6.454e+09  0.4561  0.6874  -0.02468  0.02441  -0.00367  0.004364  0.6546  0.5084
6.455e+09  0.707  0.526  -0.02442  0.01142  -0.02242  0.0088  0.797  0.1917
6.456e+09  0.8245  0.235  0.0306  0.005789  -0.008594  -0.02926  0.8286  -0.07083
6.458e+09  0.8712  -0.1074  -0.009404  0.003213  -0.009308  -0.01476  0.7489  -0.345
6.459e+09  0.8075  -0.3432  -0.04642  -0.0129  0.01039  0.00595  0.6194  -0.5991
6.46e+09  0.6316  -0.6267  0.01442  0.04395  -0.0232  0.01213  0.3754  -0.7806
6.461e+09  0.3711  -0.7843  0.00633  0.01646  0.006913  -0.002235  0.09062  -0.7825
6.462e+09  0.08729  -0.8905  0.01464  0.03898  0.003432  0.03984  -0.2401  -0.7684
6.464e+09  -0.2497  -0.8077  0.03016  0.05131  -0.06075  0.03911  -0.4741  -0.6572
6.465e+09  -0.505  -0.773  0.008609  -0.003132  0.01963  0.01378  -0.6623  -0.4454
6.466e+09  -0.7161  -0.5251  0.02932  -0.02635  0.02415  -0.04551  -0.7916  -0.1826
6.468e+09  -0.8527  -0.2186  0.0364  -0.02287  0.02856  0.01956  -0.7927  0.05765
6.469e+09  -0.8869  0.04475  0.005757  0.02884  -0.03917  0.01353  -0.7426  0.362
6.47e+09  -0.833  0.3534  -0.01109  0.003553  -0.009454  0.04084  -0.5421  0.5425
6.471e+09  -0.6172  0.6031  0.02258  0.007307  0.007049  0.002429  -0.3516  0.7556
6.472e+09  -0.407  0.7734  0.007701  -0.02325  -0.02531  -0.02328  -0.04126  0.7937
6.474e+09  -0.09684  0.8855  -0.007532  0.01215  -0.01049  -0.02637  0.2326  0.7834
6.475e+09  0.245  0.7968  -0.009705  0.03412  0.00658  0.006406  0.5063  0.6413
6.476e+09  0.5017  0.7697  -0.005365  -0.01319  -0.01238  -0.02581  0.6083  0.4418
6.478e+09  0.7251  0.4517  -0.003672  -0.01246  -0.0154  0.01019  0.7131  0.1851
6.479e+09  0.8672  0.1916  -0.007103  -0.02064  0.01931  0.003809  0.7954  -0.05104
6.48e+09  0.8807  -0.1367  -0.002936  0.05109  0.02698  -0.01076  0.7405  -0.3464
6.481e+09  0.8295  -0.3665  -0.002042  -0.005768  -0.0364  0.02576  0.5352  -0.5914
6.482e+09  0.6138  -0.6567  0.007683  0.02688  0.02127  0.001715  0.302  -0.7049
6.484e+09  0.3245  -0.8508  0.008058  -0.008319  0.02201  -0.02352  0.06412  -0.7748
6.485e+09  -0.00609  -0.8909  -0.03455  -0.003004  0.0616  -0.02221  -0.2013  -0.7261
6.486e+09  -0.292  -0.8415  0.0139  -0.01305  -0.06255  0.0009133  -0.4823  -0.643
6.488e+09  0.0009693  -0.2063  -0.006189  0.03565  0.6778  -0.3174  -0.6327  -0.4703
6.489e+09  -0.7637  -0.5217  0.01074  -0.02927  0.005993  0.02625  -0.7376  -0.168
6.49e+09  -0.8989  -0.2133  0.0125  -0.003274  0.0418  0.01876  -0.7596  0.1024
6.491e+09  -0.9219  0.1387  0.02503  0.0003703  -0.03059  0.02108  -0.7388  0.3343
6.492e+09  -0.8379  0.376  0.03086  -0.07118  -0.001307  -0.03818  -0.4562  0.5608
6.494e+09  -0.655  0.714  0.02834  -0.00542  -0.02511  -0.1366  -0.3021  0.713
6.495e+09  -0.2852  0.8141  0.02495  -0.003031  0.007081  -0.01935  -0.03165  0.7868
6.496e+09  -0.02347  0.894  0.008663  -0.02245  -0.02624  -0.02481  0.2223  0.7198
6.498e+09  0.2983  0.8435  0.004048  -0.02427  -0.01973  0.01419  0.4116  0.6048
6.499e+09  0.5864  0.7115  0.01495  -0.01407  -0.01688  -0.01002  0.6176  0.3676
6.5e+09  0.7633  0.4801  -0.02009  -0.04774  -0.02058  -0.02342  0.7169  0.1756
6.501e+09  0.9215  0.1508  0.01068  0.03139  0.00746  0.008664  0.7514  -0.121
6.502e+09  0.9064  -0.1272  0.01297  0.02844  -0.007293  0.058  0.6498  -0.3538
6.504e+09  0.7584  -0.462  0.02173  0.01018  0.004278  0.004997  0.4821  -0.6132
6.505e+09  0.5918  -0.6765  -0.01088  0.0173  -0.006239  0.05636  0.2679  -0.6893
6.506e+09  0.291  -0.8494  -0.03155  -0.01028  0.03113  -0.03779  0.009686  -0.7444
6.508e+09  -0.05529  -0.97  0.004564  -0.03531  -0.01338  0.003925  -0.231  -0.6881
6.509e+09  -0.367  -0.8564  -0.02461  -0.02011  0.02553  0.0004591  -0.4558  -0.6078
6.51e+09  -0.596  -0.6906  0.01296  0.01325  -0.03122  0.04849  -0.6444  -0.3744
6.511e+09  -0.834  -0.4373  0.02265  0.02521  0.0197  0.016  -0.7295  -0.132
6.512e+09  -0.878  -0.1255  -0.0382  0.03041  -0.03446  -0.008351  -0.7461  0.1309
6.514e+09  -0.9037  0.1444  -0.008739  0.001179  -0.01435  -0.04607  -0.6457  0.3744
6.515e+09  -0.77  0.5049  0.04322  0.04994  -0.001644  0.009017  -0.4778  0.5755
6.516e+09  -0.5341  0.7427  0.02404  0.02878  -0.006621  -0.03501  -0.2375  0.7248
6.518e+09  -0.2455  0.9294  -0.008031  0.001301  -0.027  -0.02006  -0.004648  0.7834
6.519e+09  0.04537  0.9518  -0.01113  -0.0005241  -0.004024  0.005396  0.2731  0.7078
6.52e+09  0.3854  0.8618  0.02336  0.05444  0.02417  0.01001  0.4982  0.5553
6.521e+09  0.6225  0.6213  0.03463  -0.01903  0.01098  -0.006876  0.6381  0.3591
6.522e+09  0.8503  0.3999  -0.01098  0.002133  0.007918  0.02333  0.763  0.15
6.524e+09  0.9456  0.1098  0.03173  -0.0005901  0.06  0.02715  0.7124  -0.1664
6.525e+09  0.9232  -0.2667  -0.008888  -0.01172  -0.02191  -0.04353  0.6326  -0.4029
6.526e+09  0.7759  -0.5309  -0.006364  -0.01302  -0.005501  0.01267  0.4209  -0.5802
6.528e+09  0.4875  -0.8089  0.0452  -0.02798  -0.007942  -0.02995  0.2068  -0.6575
6.529e+09  0.2328  -0.8711  0.01048  0.01883  0.01989  -0.004914  -0.05035  -0.701
6.53e+09  -0.08626  -0.8755  -0.0001949  0.008431  0.04296  -0.02886  -0.3004  -0.6306
6.531e+09  -0.4885  -0.8725  0.01409  0.007209  -0.03652  -0.05193  -0.4509  -0.4918
6.532e+09  -0.716  -0.6412  0.01678  0.01268  0.006215  -0.03189  -0.5818  -0.2968
6.534e+09  -0.8588  -0.3264  -0.01489  -0.004752  0.02957  0.003994  -0.6363  -0.08298
6.535e+09  -0.9506  -0.01421  -0.01317  0.01244  0.0381  0.02474  -0.6264  0.1263
6.536e+09  -0.8492  0.2908  -0.03032  -0.02687  0.01258  0.02566  -0.5589  0.271
6.538e+09  -0.7094  0.632  -0.0249  0.01186  -0.01909  -0.05016  -0.4525  0.4768
6.539e+09  -0.4716  0.8332  -0.005333  -0.008164  -0.02899  -0.01888  -0.2772  0.5706
6.54e+09  -0.1238  0.9158  0.002131  -0.04689  -0.01204  0.01402  -0.07001  0.6855
6.541e+09  0.2158  0.9015  0.01755  0.01432  -0.06059  0.03425  0.2035  0.6668
6.542e+09  0.5264  0.739  0.01227  -0.009624  0.04591  -0.005279  0.4061  0.6082
6.544e+09  0.7205  0.5297  0.03174  0.02875  0.008731  0.02902  0.5829  0.4155
6.545e+09  0.9222  0.2687  0.02718  0.01003  -0.01833  0.004643  0.7033  0.1887
6.546e+09  0.9931  -0.06335  -0.003203  0.02008  -0.03899  0.06697  0.7232  -0.08869
6.548e+09  0.8638  -0.3257  -0.01531  0.05181  0.02985  0.008227  0.6461  -0.3255
6.549e+09  0.6355  -0.6264  0.03663  -0.006574  -0.07091  0.009165  0.4741  -0.5627
6.55e+09  0.3908  -0.8227  0.004472  0.01561  -0.002831  0.009831  0.2816  -0.6584
