# Hz S RI R 50
6.25e+09  -0.7626  0.294  0.0185  -0.02767  0.003583  -0.00509  0.1875  0.4579
6.251e+09  -0.5705  0.5403  0.0155  0.007668  0.004205  -0.01063  0.3961  0.407
6.252e+09  -0.3613  0.7313  -0.02794  0.01546  -0.01587  0.02899  0.4982  0.2551
6.254e+09  -0.07316  0.796  -0.02626  0.007424  0.02184  -0.005271  0.6092  0.02826
6.255e+09  0.1983  0.785  0.008688  0.003525  -0.01799  0.03042  0.5854  -0.2281
6.256e+09  0.4151  0.6511  3.78e-05  -0.005005  0.06128  -0.004399  0.4802  -0.4178
6.258e+09  0.6196  0.497  -0.03385  -0.0004378  -0.0198  0.03374  0.277  -0.6168
6.259e+09  0.7747  0.1955  0.0212  0.003124  0.03653  0.004815  0.04287  -0.6633
6.26e+09  0.8369  -0.06154  -0.01538  -0.03161  -0.00211  -0.00754  -0.2316  -0.6499
6.261e+09  0.7905  -0.3306  -0.01239  -0.0454  0.006515  -0.001231  -0.4773  -0.4906
6.262e+09  0.605  -0.5668  0.03613  -0.006389  0.006905  -0.006804  -0.6119  -0.3705
6.264e+09  0.3269  -0.7425  -0.008546  -0.01459  0.03117  -0.003516  -0.7281  -0.1037
6.265e+09  0.03721  -0.7753  -0.01909  0.02069  -0.002317  -0.01179  -0.6914  0.1504
6.266e+09  -0.165  -0.7502  -0.03886  -0.009798  -0.005791  0.01655  -0.6441  0.3907
6.268e+09  -0.4813  -0.6731  -0.01499  -0.005519  -0.001472  0.03616  -0.4192  0.5675
6.269e+09  -0.6401  -0.4337  0.01284  0.004965  -0.0003187  0.001812  -0.2057  0.6729
6.27e+09  -0.8194  -0.2736  -0.02178  -0.01768  -0.04492  -0.03797  0.07885  0.7226
6.271e+09  -0.8263  0.0919  0.006608  -0.003575  0.07609  0.09038  0.307  0.6792
6.272e+09  -0.7059  0.3802  -0.0115  -0.02269  -0.02038  -0.007827  0.5454  0.5437
6.274e+09  -0.5313  0.5381  0.01324  0.01444  -0.01472  0.03465  0.6926  0.296
6.275e+09  -0.3222  0.7509  0.03471  -0.02429  -0.04944  0.01028  0.7603  0.04526
6.276e+09  -0.07158  0.8545  -0.00577  -0.003764  0.001445  0.0275  0.7071  -0.2257
6.278e+09  0.2221  0.8032  0.01942  0.0062  -0.02364  0.007716  0.5766  -0.4873
6.279e+09  0.4848  0.6778  -0.02145  -0.01453  -0.007902  7.374e-06  0.4306  -0.6258
6.28e+09  0.6761  0.4382  0.008203  0.02571  0.03098  0.03244  0.1787  -0.7201
6.281e+09  0.7858  0.1794  0.02979  0.01354  -0.01876  0.006886  -0.08003  -0.7809
6.282e+09  0.7379  -0.0444  0.002527  0.006322  -0.01461  0.005028  -0.372  -0.6766
6.284e+09  0.7704  -0.3739  -0.02122  0.006969  0.03321  -0.02761  -0.5802  -0.5198
6.285e+09  0.5508  -0.5775  0.006685  -0.01586  0.01696  -0.008637  -0.7457  -0.2932
6.286e+09  0.3098  -0.7253  0.0312  -0.005246  0.03408  -0.03003  -0.8104  -0.04133
6.288e+09  0.03645  -0.8314  0.02942  0.01304  0.01184  -0.01336  -0.7349  0.2517
6.289e+09  -0.2432  -0.8028  -0.01966  0.007498  0.04024  0.01225  -0.605  0.5141
6.29e+09  -0.4459  -0.6135  0.007232  -0.01735  0.008971  0.06655  -0.4086  0.7169
6.291e+09  -0.6762  -0.4657  0.01296  -0.01248  -0.0258  0.01416  -0.1354  0.7848
6.292e+09  -0.7836  -0.1959  -0.004112  -0.02554  0.01331  -0.01124  0.09583  0.7806
6.294e+09  -0.7655  0.1073  0.01438  -0.01184  0.02775  -0.0109  0.4019  0.703
6.295e+09  -0.7275  0.3427  0.001736  -0.00412  -0.001733  -0.007328  0.609  0.5072
6.296e+09  -0.5908  0.5721  -0.01855  0.001283  0.0086  -0.004468  0.7831  0.2883
6.298e+09  -0.3257  0.7514  -0.008934  -0.02273  0.003401  -0.03421  0.8067  0.01923
6.299e+09  -0.02464  0.7719  -0.02302  -0.002081  -0.009693  0.02744  0.7607  -0.2501
6.3e+09  0.2808  0.6926  -0.01349  -0.01612  0.01505  0.02616  0.6631  -0.5302
6.301e+09  0.4977  0.6352  0.02414  0.01948  0.009589  -0.01775  0.405  -0.6984
6.302e+09  0.6583  0.4327  0.0134  0.007666  4.31e-05  0.02405  0.1599  -0.8229
6.304e+09  0.7679  0.169  0.005458  0.001259  0.02003  0.02057  -0.1296  -0.8395
6.305e+09  0.8312  -0.1153  0.006591  -0.01504  0.01299  -0.004911  -0.4084  -0.7209
6.306e+09  0.7478  -0.3804  0.001727  0.003097  -0.03789  0.009486  -0.6544  -0.5444
6.308e+09  0.5226  -0.5844  -0.006017  -0.003753  0.0399  0.02383  -0.7927  -0.3014
6.309e+09  0.2754  -0.7925  -0.00407  -0.03784  0.03993  0.001413  -0.8757  -0.02643
6.31e+09  -0.01095  -0.7792  0.03114  0.03191  -0.04729  0.01987  -0.8206  0.3114
6.311e+09  -0.2834  -0.7299  0.007332  -0.03348  0.007369  0.01146  -0.6494  0.5588
6.312e+09  -0.5557  -0.5956  0.03003  -0.01231  -0.0613  -0.0207  -0.4395  0.7302
6.314e+09  -0.7124  -0.4167  -0.005095  0.005595  -0.06385  0.006566  -0.155  0.8638
6.315e+09  -0.8116  -0.0815  0.00409  0.00786  0.03085  0.009069  0.1124  0.8907
6.316e+09  -0.7964  0.1372  -0.006513  -0.01782  -0.01055  -0.02268  0.4232  0.7696
6.318e+09  -0.7051  0.4299  0.0005339  0.04226  0.005536  -0.04463  0.6472  0.5475
6.319e+09  -0.4968  0.6815  0.0308  0.0171  0.01389  0.05245  0.8014  0.3144
6.32e+09  -0.3067  0.8149  0.0187  -0.01484  -0.03017  -0.0144  0.887  -0.005162
6.321e+09  0.004636  0.8156  0.01403  0.007224  0.02412  0.04675  0.8333  -0.2993
6.322e+09  0.3294  0.7576  0.02448  0.01358  -0.0117  -0.02866  0.7022  -0.5715
6.324e+09  0.5763  0.5937  0.01608  0.009456  0.01025  0.01417  0.4968  -0.7355
6.325e+09  0.7357  0.3987  0.002058  0.01863  0.02488  0.00924  0.1622  -0.85
6.326e+09  0.8125  0.05988  0.008276  0.04029  0.04202  0.02498  -0.1358  -0.8788
6.328e+09  0.761  -0.21  -0.01035  -0.00362  0.016  -0.03607  -0.4239  -0.8435
6.329e+09  0.6741  -0.4709  0.002807  0.03805  0.01393  0.01681  -0.6737  -0.5885
6.33e+09  0.4869  -0.6905  -0.03961  0.01421  0.009054  -0.0005677  -0.8329  -0.3015
6.331e+09  0.1975  -0.8204  0.005509  0.005036  -0.03189  -0.01398  -0.925  -0.06869
6.332e+09  -0.09745  -0.7859  0.002114  -0.008182  0.006147  0.03777  -0.8745  0.2752
6.334e+09  -0.3924  -0.7537  -0.02221  -0.007161  -0.004399  0.01867  -0.757  0.5783
6.335e+09  -0.6167  -0.5896  0.02795  0.006688  -0.05235  0.001555  -0.5069  0.7537
6.336e+09  -0.7862  -0.3575  0.01578  0.01497  0.03212  -0.003642  -0.1995  0.8796
6.338e+09  -0.8367  0.00679  -0.001655  0.01226  -0.007165  0.006854  0.08598  0.9394
6.339e+09  -0.7876  0.2606  0.00368  0.01957  0.02095  -0.01081  0.422  0.7971
6.34e+09  -0.6361  0.5596  -0.01799  -0.003228  -0.002656  -0.01028  0.6724  0.6214
6.341e+09  -0.4527  0.6997  0.034  0.00241  0.01758  -0.01899  0.8699  0.3489
6.342e+09  -0.144  0.839  0.004861  -0.01871  -0.01077  0.0456  0.9277  0.04357
6.344e+09  0.1301  0.7948  -0.01103  0.02065  -0.009847  0.0167  0.9012  -0.257
6.345e+09  0.456  0.7333  0.02069  0.008498  0.03106  -4.759e-05  0.7087  -0.5418
6.346e+09  0.6432  0.5265  0.02039  0.02343  0.005445  -0.000414  0.5053  -0.7756
6.348e+09  0.8083  0.3035  0.02142  -0.003292  0.009216  0.01735  0.1951  -0.9385
6.349e+09  0.7865  -0.03496  -0.00804  -0.008936  0.008747  0.02178  -0.1087  -0.9417
6.35e+09  0.7966  -0.3019  0.01504  -0.001765  0.000794  -0.001752  -0.3975  -0.8432
6.351e+09  0.626  -0.6033  -0.01398  0.01928  0.006341  0.03987  -0.6635  -0.6506
6.352e+09  0.3705  -0.7461  0.01667  3.258e-05  0.01188  -0.04591  -0.8582  -0.3914
6.354e+09  0.04101  -0.8075  0.0003505  0.01556  -0.004033  0.01058  -0.9716  -0.06362
6.355e+09  -0.1997  -0.8368  -0.01603  -0.03194  -0.03342  -0.002466  -0.9154  0.2692
6.356e+09  -0.5339  -0.6737  -0.001086  0.05002  -0.01511  -0.02259  -0.7559  0.5802
6.358e+09  -0.677  -0.4981  0.0006808  0.02616  0.02214  -0.009736  -0.542  0.7686
6.359e+09  -0.8381  -0.1722  -0.01838  -0.03453  0.02343  0.01234  -0.2441  0.8647
6.36e+09  -0.859  0.07346  -0.00119  0.01818  0.008574  -0.03517  0.09906  0.9352
6.361e+09  -0.7742  0.4187  0.01125  0.01715  -0.01589  -0.003539  0.3978  0.8475
6.362e+09  -0.6106  0.6199  0.02143  -0.03505  0.009434  -0.03667  0.6799  0.6367
6.364e+09  -0.3085  0.7734  0.03163  0.02215  0.008984  0.01919  0.8522  0.4007
6.365e+09  -0.009894  0.8371  0.01176  -0.008935  0.007537  0.002735  0.9587  0.07507
6.366e+09  0.2736  0.7918  -0.008348  -0.003353  0.02125  0.01382  0.9031  -0.2301
6.368e+09  0.5363  0.6997  0.00674  0.04364  0.0006353  0.001762  0.7811  -0.5435
6.369e+09  0.743  0.4351  -0.02319  0.004768  0.001387  -0.03124  0.5772  -0.757
6.37e+09  0.8379  0.1145  0.006912  0.01853  -0.02093  0.01778  0.2639  -0.921
6.371e+09  0.7913  -0.1245  0.04593  0.02876  -0.0245  -0.01393  -0.09155  -0.9509
6.372e+09  0.7525  -0.4044  -0.01421  0.03963  0.02242  -0.01572  -0.4208  -0.8499
6.374e+09  0.5719  -0.6861  0.009522  -0.02241  -0.03875  -0.04407  -0.6728  -0.6536
6.375e+09  0.2707  -0.7893  -0.02045  -0.0003067  0.009221  -0.01076  -0.8311  -0.3787
6.376e+09  -0.05853  -0.8632  -0.004751  -0.01474  0.008654  0.02602  -0.9744  -0.08466
6.378e+09  -0.3402  -0.8038  0.03041  0.03053  0.00788  -0.01558  -0.9167  0.2612
6.379e+09  -0.6006  -0.5977  -0.02593  -0.009118  0.0001773  -0.0128  -0.7677  0.5255
6.38e+09  -0.8079  -0.3938  -0.01719  0.05242  0.01413  -0.007258  -0.5714  0.7577
6.381e+09  -0.8461  -0.09593  0.02643  -0.01872  -0.05547  -0.01622  -0.2855  0.863
6.382e+09  -0.8114  0.1812  0.008717  -0.02674  0.01148  0.0002652  0.0542  0.9445
6.384e+09  -0.7107  0.4709  0.003924  0.02362  -0.0407  -0.006886  0.376  0.8658
6.385e+09  -0.5259  0.7561  0.009565  -0.01263  -0.001056  0.01752  0.6286  0.6856
6.386e+09  -0.1597  0.823  -0.002948  0.0008775  -0.06903  -0.02234  0.8292  0.4672
6.388e+09  0.1035  0.842  0.02552  0.004059  0.04618  -0.02613  0.9439  0.1247
6.389e+09  0.3959  0.7377  -0.008902  -0.03921  0.02722  0.002869  0.9475  -0.2055
6.39e+09  0.6062  0.5892  -0.02722  0.03221  0.02177  -0.004161  0.7605  -0.4911
6.391e+09  0.8575  0.3139  0.0157  0.01756  0.04018  -0.01624  0.5652  -0.7144
6.392e+09  0.8597  0.02682  0.01458  -0.01376  0.01912  0.02638  0.2748  -0.8784
6.394e+09  0.8315  -0.2164  -0.02451  -0.0009315  -0.03521  0.01949  -0.02218  -0.9161
6.395e+09  0.6413  -0.5192  0.04471  -0.00568  -0.04011  0.01035  -0.3188  -0.8448
6.396e+09  0.4569  -0.7158  0.02998  -0.01853  0.1017  0.03204  -0.6331  -0.6914
6.398e+09  0.1728  -0.8763  0.0143  0.02415  0.0182  0.03096  -0.7955  -0.4413
6.399e+09  -0.1447  -0.8601  -0.008438  -0.01312  -0.0264  0.003607  -0.9498  -0.1525
6.4e+09  -0.3756  -0.7463  0.03817  -0.04923  -0.009947  0.02354  -0.8805  0.1902
6.401e+09  -0.6892  -0.5645  0.01659  0.02821  -0.009333  0.01087  -0.811  0.5024
6.402e+09  -0.7797  -0.2761  0.00286  0.03872  0.01595  0.01763  -0.5776  0.7321
6.404e+09  -0.8676  0.05403  -0.007019  0.02997  -0.0269  -0.001669  -0.2961  0.8804
6.405e+09  -0.8384  0.2881  -0.01799  0.02469  0.03112  0.04882  0.00344  0.9164
6.406e+09  -0.6536  0.5295  -0.04539  -0.02768  -0.01064  -0.01627  0.2503  0.8464
6.408e+09  -0.4012  0.7921  0.007999  0.003981  -0.04753  0.02769  0.5646  0.7007
6.409e+09  -0.1562  0.8683  -0.02474  -0.02468  -0.0101  -0.02016  0.7889  0.4639
6.41e+09  0.1813  0.8241  0.005347  0.03171  0.0005305  0.005756  0.9001  0.1625
6.411e+09  0.4993  0.7184  -0.01721  0.08628  -0.02314  -0.01659  0.9141  -0.1006
6.412e+09  0.6766  0.5418  0.03873  0.004798  0.007292  -0.008466  0.8233  -0.4165
6.414e+09  0.8085  0.2154  0.009779  0.0142  -0.05313  0.01595  0.6211  -0.7322
6.415e+09  0.8643  -0.02751  -0.04147  0.0007852  -0.03018  -0.02058  0.3319  -0.8271
6.416e+09  0.8005  -0.3692  -0.001351  -0.05803  0.001565  0.0192  0.07742  -0.8902
6.418e+09  0.6006  -0.5459  -0.01242  -0.01414  0.007775  -0.01486  -0.3217  -0.8244
6.419e+09  0.3392  -0.7534  -0.04885  -0.005493  0.02609  0.01252  -0.5771  -0.741
6.42e+09  0.09373  -0.7798  -0.00912  0.04625  -0.00628  0.007305  -0.7062  -0.4574
6.421e+09  -0.2234  -0.7985  -0.02039  -0.002455  -0.03337  -0.02736  -0.8516  -0.194
6.422e+09  -0.4632  -0.6372  -0.00136  -0.03146  -0.04445  0.04431  -0.8531  0.1309
6.424e+09  -0.7301  -0.5254  0.004276  -0.005871  0.01771  -0.01649  -0.8006  0.4301
6.425e+09  -0.7994  -0.165  -0.01054  0.0134  -0.04116  -0.04272  -0.5579  0.6191
6.426e+09  -0.8202  0.0946  0.03704  0.01455  -0.05981  -0.02933  -0.3354  0.8125
6.428e+09  -0.7378  0.3675  0.03252  -0.0168  0.03207  -0.02231  -0.03668  0.8493
6.429e+09  -0.601  0.614  0.01426  0.04289  0.0298  0.01831  0.2583  0.8541
6.43e+09  -0.314  0.7498  -0.00911  0.009513  -0.01152  -0.03952  0.5118  0.6937
6.431e+09  -0.04866  0.808  -0.01446  0.02419  0.01126  -0.03297  0.7246  0.4656
6.432e+09  0.24  0.7852  -0.003445  -0.04567  0.01926  0.02489  0.8508  0.2226
6.434e+09  0.5246  0.6342  -0.0529  0.03116  0.007422  -0.0152  0.9153  -0.1011
6.435e+09  0.7041  0.4563  -0.02059  0.002894  0.004453  -0.02805  0.7466  -0.3847
6.436e+09  0.813  0.1867  -0.005951  0.006266  -0.03176  0.04085  0.5816  -0.6121
6.438e+09  0.8437  -0.09405  0.02768  -0.003321  -0.06369  -0.02002  0.3923  -0.8039
6.439e+09  0.7736  -0.3799  0.0246  0.003029  0.001015  -0.06855  0.03765  -0.8394
6.44e+09  0.5642  -0.6977  0.008354  0.02757  -0.009897  0.006844  -0.2209  -0.8366
6.441e+09  0.2932  -0.7906  0.01453  -0.008043  -0.01583  0.07525  -0.4793  -0.6803
6.442e+09  0.0422  -0.8429  0.004917  -0.03259  0.01998  -0.02445  -0.7051  -0.4603
6.444e+09  -0.2724  -0.7314  -0.02792  0.02367  -0.01864  0.02471  -0.7776  -0.2171
6.445e+09  -0.5067  -0.6824  -0.02668  -0.01172  0.01167  -0.02761  -0.8068  0.09952
6.446e+09  -0.6877  -0.439  0.02008  0.005393  0.01079  -0.001892  -0.7649  0.3706
6.448e+09  -0.8353  -0.156  0.01801  -0.001673  -0.01617  -0.005236  -0.6334  0.5569
6.449e+09  -0.847  0.1115  0.008685  0.07105  -0.0492  -0.007021  -0.32  0.7452
6.45e+09  -0.7433  0.4583  -0.02744  -0.007355  0.02887  0.02929  0.0135  0.8385
6.451e+09  -0.5868  0.6747  -0.03935  0.01547  -0.05378  -0.0003969  0.2178  0.7895
6.452e+09  -0.2685  0.7655  -0.005436  -0.01235  -0.02813  0.008926  0.4794  0.6513
6.454e+09  0.002029  0.8858  0.0101  -0.02681  -0.03868  0.01199  0.712  0.4649
6.455e+09  0.2725  0.7416  0.003748  0.003721  -0.02267  0.01687  0.7619  0.2552
6.456e+09  0.5428  0.63  -0.009673  0.003003  0.03497  0.03831  0.8096  -0.122
6.458e+09  0.7549  0.4381  -0.006123  0.003428  0.02143  0.02341  0.7627  -0.3453
6.459e+09  0.8792  0.1359  -0.01395  -8.405e-05  0.007711  -0.01861  0.5728  -0.5948
6.46e+09  0.8271  -0.1451  0.03929  -0.01932  0.02682  -0.007998  0.2968  -0.7631
6.461e+09  0.7206  -0.4466  -0.005859  -0.00548  -0.004062  0.05229  0.06727  -0.7843
6.462e+09  0.547  -0.6454  0.03103  -0.02297  0.01678  -0.01414  -0.1864  -0.7555
6.464e+09  0.2944  -0.7454  0.007178  0.009257  0.01075  -0.05792  -0.4602  -0.6882
6.465e+09  -0.005219  -0.8608  -0.01841  -0.03143  -0.01764  0.01795  -0.6844  -0.4612
6.466e+09  -0.3048  -0.7716  -0.01226  -0.01267  0.004036  0.04609  -0.759  -0.2325
6.468e+09  -0.5436  -0.6447  0.0008414  -0.000419  -0.02758  -0.01821  -0.7486  0.08909
6.469e+09  -0.7418  -0.4414  -0.01909  -0.005158  -0.04262  0.002476  -0.7221  0.3143
6.47e+09  -0.8261  -0.1142  -0.01785  0.009137  0.02424  0.003058  -0.6044  0.5699
6.471e+09  -0.7991  0.1421  -0.005835  0.0004196  -0.005466  -0.01931  -0.3182  0.7324
6.472e+09  -0.7333  0.4416  -0.009066  0.02204  0.01101  0.03141  -0.06908  0.7911
6.474e+09  -0.4998  0.6301  0.01979  0.003846  -0.04639  0.0184  0.1943  0.7709
6.475e+09  -0.2721  0.8122  0.0108  0.03042  -0.02942  -0.03932  0.4278  0.6326
6.476e+09  -0.04273  0.8377  -0.01493  -0.0161  0.01108  0.01614  0.6651  0.463
6.478e+09  0.3389  0.7869  -0.01649  -0.002988  -0.07047  -0.01624  0.7443  0.1848
6.479e+09  0.555  0.597  0.01028  0.009068  -0.02181  0.03839  0.7861  -0.05104
6.48e+09  0.7321  0.3704  0.01121  0.01514  -0.0208  0.04133  0.7075  -0.3379
6.481e+09  0.8263  0.1312  0.002188  0.008295  0.01853  -0.022  0.5191  -0.5741
6.482e+09  0.8734  -0.196  -0.02282  -0.00832  -0.004481  0.02609  0.343  -0.7019
6.484e+09  0.7272  -0.4222  -0.02842  0.01022  -0.01795  0.01916  0.0407  -0.7757
6.485e+09  0.4739  -0.6693  -0.01716  0.004063  0.004582  -0.006851  -0.1985  -0.7268
6.486e+09  0.2584  -0.7542  -0.01107  -0.02927  0.007359  0.008459  -0.427  -0.6378
6.488e+09  -0.02182  -1.534  0.007042  0.00439  -0.6708  0.3753  -0.6768  -0.4344
6.489e+09  -0.3013  -0.7628  -0.01556  0.02624  -0.01445  -0.008396  -0.7591  -0.1925
6.49e+09  -0.5822  -0.6376  -0.02429  -0.01038  -0.01266  -0.02765  -0.8032  0.05823
6.491e+09  -0.7998  -0.3887  0.007354  0.01178  -0.0228  0.01629  -0.6819  0.324
6.492e+09  -0.8362  -0.131  -0.01179  -0.02236  0.001296  -0.03164  -0.4901  0.5716
6.494e+09  -0.7108  0.1941  -0.02738  -0.005634  0.00946  -0.1525  -0.3224  0.7253
6.495e+09  -0.7202  0.4793  0.01935  -0.02827  -0.001551  -0.03034  0.008484  0.8113
6.496e+09  -0.5274  0.6805  0.01551  0.02317  -0.01876  -0.007295  0.2485  0.6889
6.498e+09  -0.244  0.8603  -0.01002  -0.0179  -0.004927  -0.02098  0.4457  0.6129
6.499e+09  0.06381  0.8161  0.001561  -0.02053  -0.03372  0.01592  0.6565  0.4621
6.5e+09  0.4569  0.739  -0.01767  -0.02016  0.01552  0.04207  0.7206  0.1745
6.501e+09  0.546  0.6591  0.01773  -0.0182  0.04037  -0.005621  0.7262  -0.1225
6.502e+09  0.7968  0.4241  -0.02583  -0.005422  -0.05102  -0.01243  0.6779  -0.3496
6.504e+09  0.8641  0.1337  -0.02098  -0.0306  0.0349  -0.01318  0.4903  -0.5734
6.505e+09  0.8346  -0.2013  0.01306  0.01225  0.0444  -0.002735  0.2735  -0.7168
6.506e+09  0.719  -0.4508  -0.000345  0.0176  -0.003938  -0.0168  0.01116  -0.7331
6.508e+09  0.5257  -0.6738  0.03764  0.02542  -0.03686  -0.0008398  -0.2481  -0.6825
6.509e+09  0.2578  -0.8535  0.01534  0.01942  -0.01288  -0.02217  -0.4863  -0.5734
6.51e+09  -0.03612  -0.8934  -0.006625  -0.02781  -0.008804  0.008924  -0.6495  -0.3858
6.511e+09  -0.3309  -0.7927  -0.001865  -0.03595  0.03555  0.008829  -0.7435  -0.1843
6.512e+09  -0.6475  -0.6625  -0.002024  -0.02048  0.002382  -0.02309  -0.7482  0.1233
6.514e+09  -0.8332  -0.4  -0.0118  -0.003717  0.02662  -0.03277  -0.6026  0.3875
6.515e+09  -0.8962  -0.07343  -0.02035  0.004972  -0.04772  -0.00949  -0.4647  0.547
6.516e+09  -0.8332  0.2332  0.03555  -0.01422  0.04536  0.04025  -0.2157  0.7145
6.518e+09  -0.7098  0.4689  0.03254  -0.01352  -0.02622  0.03167  0.03892  0.7515
6.519e+09  -0.5003  0.7624  -0.007627  -0.03857  0.002952  -0.01975  0.2542  0.6515
6.52e+09  -0.2298  0.9159  0.02356  0.01627  -0.03823  0.02893  0.5141  0.5429
6.521e+09  0.0791  0.9172  0.0005908  0.008731  0.01659  -0.02072  0.6374  0.3129
6.522e+09  0.3712  0.8481  0.01391  -0.00921  0.006701  -0.009196  0.7045  0.1043
6.524e+09  0.6539  0.6469  -0.03024  -0.04146  0.02747  -0.03501  0.7124  -0.1734
6.525e+09  0.8758  0.3532  -7.083e-05  -0.004295  -0.04811  -0.0457  0.5885  -0.3513
6.526e+09  0.8981  0.01464  -0.004662  0.01808  -0.01446  -0.00536  0.4438  -0.6062
6.528e+09  0.8364  -0.3044  -0.01419  0.007841  -0.03681  -0.04854  0.1919  -0.694
6.529e+09  0.7228  -0.5569  -0.03251  -0.02624  -0.02428  0.07317  -0.05411  -0.663
6.53e+09  0.4705  -0.7856  0.02156  0.01564  0.004779  -0.02915  -0.2784  -0.6571
6.531e+09  0.1975  -0.9092  0.04652  0.005097  -0.05185  -0.01146  -0.4911  -0.5252
6.532e+09  -0.1988  -0.9423  0.0167  -0.008245  -0.0451  -0.04129  -0.603  -0.3262
6.534e+09  -0.4348  -0.8485  0.03527  -0.002409  0.02517  0.002809  -0.6261  -0.0974
6.535e+09  -0.695  -0.5982  -0.01393  -0.006687  0.002003  1.697e-05  -0.6117  0.1178
6.536e+09  -0.8767  -0.3063  0.02877  0.01062  0.02568  -0.04296  -0.5652  0.33
6.538e+09  -0.9203  0.009924  -0.02181  0.01699  -0.02791  0.009795  -0.4425  0.4585
6.539e+09  -0.927  0.3503  -0.00216  -0.005267  0.01915  -0.03898  -0.2781  0.6203
6.54e+09  -0.7174  0.6015  0.006486  -0.02028  0.01272  0.04902  -0.04049  0.7236
6.541e+09  -0.4366  0.863  -0.01801  0.006584  0.02659  0.0156  0.2155  0.6507
6.542e+09  -0.1183  0.851  0.04876  -0.0007375  -0.0007627  -0.01703  0.4311  0.5887
6.544e+09  0.2239  0.9542  0.008687  0.02266  -0.0009259  -0.008903  0.5618  0.4
6.545e+09  0.4961  0.793  -0.003632  0.01359  -0.01449  -0.03311  0.7244  0.1564
6.546e+09  0.7805  0.5497  0.01232  -0.001892  -0.02649  -0.001064  0.7152  -0.0873
6.548e+09  0.9564  0.2851  0.005137  0.0013  0.009186  0.004593  0.6552  -0.3186
6.549e+09  0.9358  -0.03543  0.006415  -0.01095  -0.03981  -0.01907  0.5175  -0.5568
6.55e+09  0.8543  -0.3943  0.005374  0.01127  -0.02171  0.02712  0.2716  -0.6797
