# Hz S RI R 50
6.25e+09  -0.587  0.5656  -0.02296  -0.01895  0.004391  0.02716  0.1546  0.4888
6.251e+09  -0.3763  0.7533  -0.01311  0.005513  -0.0475  0.09314  0.3393  0.3934
6.252e+09  -0.06711  0.7987  0.004054  -0.01785  -0.001146  0.001888  0.5045  0.2517
6.254e+09  0.2337  0.8209  -0.001976  0.0006931  -0.009026  -0.009102  0.6278  -0.013
6.255e+09  0.436  0.6861  0.01495  -0.02566  0.01333  0.01137  0.5791  -0.2682
6.256e+09  0.6809  0.4824  -0.03661  -0.003975  0.03952  -0.02757  0.4673  -0.4269
6.258e+09  0.7602  0.2386  0.01429  -0.02631  -0.02633  0.02355  0.2615  -0.6053
6.259e+09  0.8125  -0.06558  -0.01522  0.02578  -0.01265  -0.01864  -0.008155  -0.6995
6.26e+09  0.7957  -0.3073  -0.02152  -0.009684  -0.05507  0.03166  -0.2544  -0.7036
6.261e+09  0.5924  -0.5408  -0.01846  0.009774  0.02391  0.03045  -0.461  -0.543
6.262e+09  0.3674  -0.7328  0.002968  0.009211  0.0676  0.0439  -0.6008  -0.3499
6.264e+09  0.121  -0.8169  -0.01669  -0.004547  0.0683  0.01194  -0.7187  -0.1386
6.265e+09  -0.173  -0.7644  -0.01337  0.003069  -0.001011  -0.01832  -0.6808  0.1789
6.266e+09  -0.4864  -0.6768  -0.01392  -0.005785  -0.02241  0.02874  -0.62  0.4055
6.268e+09  -0.6133  -0.4743  -0.02744  -0.004195  0.007031  -0.009783  -0.459  0.5732
6.269e+09  -0.8047  -0.2096  -0.002738  0.004806  0.02874  0.009449  -0.1885  0.702
6.27e+09  -0.7787  0.01327  -0.02558  -0.01716  -0.08013  0.02243  0.06307  0.7063
6.271e+09  -0.7508  0.3527  -0.02317  0.003087  -0.03168  0.02773  0.34  0.6735
6.272e+09  -0.5658  0.514  -0.009719  -0.0162  0.02107  0.05586  0.5424  0.5349
6.274e+09  -0.3802  0.7337  -0.0117  -0.009626  0.02355  -0.0252  0.6725  0.3125
6.275e+09  -0.1134  0.8761  -0.002535  0.01195  -0.03688  0.03677  0.7357  0.03031
6.276e+09  0.2081  0.7538  0.009253  0.024  -0.01846  0.009673  0.7183  -0.2275
6.278e+09  0.4132  0.6139  -0.01104  -0.007146  0.0008346  0.05711  0.5906  -0.4475
6.279e+09  0.6692  0.4095  -0.01002  -0.009891  -0.009447  -0.004574  0.3923  -0.6733
6.28e+09  0.8362  0.1813  -0.02571  -0.03685  0.01196  -0.003456  0.1925  -0.7797
6.281e+09  0.7725  -0.07109  -0.01099  0.01008  0.02036  0.01265  -0.1113  -0.718
6.282e+09  0.7453  -0.2757  0.02113  -0.02249  -0.005781  -0.02392  -0.3476  -0.6962
6.284e+09  0.5378  -0.5195  0.0425  -0.01315  0.02641  0.0174  -0.5921  -0.5094
6.285e+09  0.3467  -0.6733  0.01537  -0.03907  -0.001856  -0.007942  -0.7143  -0.2792
6.286e+09  0.01087  -0.8003  0.009341  0.01558  0.0122  0.007247  -0.7932  -0.03552
6.288e+09  -0.2127  -0.7773  -0.01422  -0.00301  -0.02297  -0.01712  -0.7718  0.2805
6.289e+09  -0.5006  -0.668  -0.02469  -0.01336  -0.04751  0.0279  -0.6177  0.5259
6.29e+09  -0.64  -0.4768  -0.02484  -0.02381  -0.01968  -0.03265  -0.4347  0.6739
6.291e+09  -0.7811  -0.2005  -0.001329  0.003597  -0.05916  -0.03446  -0.1544  0.7792
6.292e+09  -0.7983  0.08574  0.04006  -0.003566  -0.03551  -0.007563  0.1211  0.7954
6.294e+09  -0.6998  0.3704  0.008258  -0.007419  0.003556  -0.03658  0.3664  0.6953
6.295e+09  -0.5441  0.5676  0.009494  -0.02432  -0.01097  0.0003329  0.6461  0.5101
6.296e+09  -0.3678  0.7246  -0.01411  -0.002055  -0.006174  0.03864  0.7688  0.2851
6.298e+09  -0.06194  0.7726  -0.006706  -0.004252  0.02355  0.07768  0.7964  0.01489
6.299e+09  0.2074  0.8273  -0.02624  -0.01007  -0.01867  0.03723  0.7465  -0.2963
6.3e+09  0.5098  0.6365  -0.009954  -0.01205  0.04918  0.03938  0.6336  -0.5261
6.301e+09  0.6828  0.4427  -0.00949  0.04143  0.01371  -0.002738  0.4468  -0.7231
6.302e+09  0.7795  0.1316  -0.01306  -0.02151  0.01279  0.004478  0.1355  -0.8293
6.304e+09  0.781  -0.111  -0.006675  0.004419  0.02032  0.01411  -0.1439  -0.8514
6.305e+09  0.6826  -0.3669  0.01145  0.0001655  0.01483  0.04977  -0.4022  -0.7436
6.306e+09  0.5323  -0.6141  -0.00034  0.01396  0.0006162  0.005435  -0.6259  -0.5398
6.308e+09  0.3093  -0.7312  -0.01615  -0.02133  -0.03484  -0.01131  -0.8072  -0.3359
6.309e+09  0.02198  -0.8176  0.009183  -0.0007283  0.0031  -0.0325  -0.8417  -0.05818
6.31e+09  -0.251  -0.7003  -0.0008235  -0.009146  -0.04962  0.02383  -0.7981  0.3329
6.311e+09  -0.5157  -0.6063  0.001227  0.01628  -0.004898  -0.05001  -0.6539  0.5221
6.312e+09  -0.7037  -0.3453  -0.01032  0.01452  0.02086  -0.03735  -0.4504  0.7563
6.314e+09  -0.7738  -0.1376  0.01329  -0.02856  0.005546  0.04987  -0.1398  0.854
6.315e+09  -0.7691  0.1494  -0.02913  -0.00355  0.0098  0.03709  0.1312  0.8613
6.316e+09  -0.7198  0.4006  0.001874  -0.002515  0.02008  -4.377e-05  0.4211  0.7661
6.318e+09  -0.5392  0.638  -0.0008547  0.01855  0.02653  -0.02444  0.6391  0.5208
6.319e+09  -0.2253  0.7601  -0.003486  -0.02593  0.01785  -0.002808  0.822  0.3345
6.32e+09  -0.02013  0.8144  0.001105  0.009902  -0.04576  -0.03326  0.8792  -0.0205
6.321e+09  0.2962  0.7481  -0.01821  -0.01237  0.0672  0.0107  0.83  -0.2701
6.322e+09  0.536  0.5925  0.02999  0.01792  0.02911  -0.002224  0.6775  -0.5465
6.324e+09  0.6921  0.4173  0.03573  -0.01496  -0.02068  -0.05309  0.4651  -0.7596
6.325e+09  0.788  0.1004  -0.001265  0.01867  -0.00435  0.008646  0.1718  -0.8639
6.326e+09  0.7869  -0.2058  0.01365  0.01169  0.05858  -0.002101  -0.1443  -0.8668
6.328e+09  0.6496  -0.5018  0.01557  0.01369  -0.03127  -0.05845  -0.4153  -0.8006
6.329e+09  0.4872  -0.6822  -0.006276  0.0126  -0.02721  -0.02085  -0.664  -0.6021
6.33e+09  0.2836  -0.7977  -0.03948  0.01743  -0.006687  -0.02103  -0.819  -0.3046
6.331e+09  -0.03261  -0.8518  -0.009153  -0.005615  -0.04066  -0.01013  -0.8985  -0.04613
6.332e+09  -0.3954  -0.7423  -0.01701  0.0006334  -0.03099  -0.03562  -0.8497  0.2876
6.334e+09  -0.6127  -0.5454  -0.02024  0.007793  0.01114  0.01586  -0.6821  0.5657
6.335e+09  -0.7805  -0.3464  -0.02056  -0.01317  0.001429  0.03409  -0.4924  0.7748
6.336e+09  -0.8409  -0.06445  -0.03752  0.006207  0.009456  0.02024  -0.2017  0.845
6.338e+09  -0.8002  0.2499  0.00889  -0.008531  -0.0421  0.01106  0.09976  0.9225
6.339e+09  -0.6501  0.5506  -0.02117  -0.0145  0.04304  0.02518  0.428  0.8407
6.34e+09  -0.4287  0.7356  -0.004299  -0.02601  -0.01178  0.03074  0.6907  0.6332
6.341e+09  -0.1997  0.8227  -0.004982  -0.006678  0.005738  -0.0254  0.8192  0.3598
6.342e+09  0.08758  0.8362  0.02307  0.001787  0.008443  0.00788  0.9355  0.04727
6.344e+09  0.4097  0.7438  0.01207  -0.02906  0.06154  -0.00881  0.8547  -0.2715
6.345e+09  0.6386  0.6221  0.0004384  0.01524  -0.01763  -0.01843  0.7199  -0.5477
6.346e+09  0.8097  0.3034  0.04191  -0.026  0.04484  0.008044  0.4867  -0.7498
6.348e+09  0.8115  -0.0125  -0.005941  0.0002061  -0.03224  -0.05368  0.1883  -0.9259
6.349e+09  0.7837  -0.3232  -0.005889  -0.00234  0.01735  0.03172  -0.1097  -0.9326
6.35e+09  0.6612  -0.5718  0.0152  -0.0002101  0.03083  -0.0005206  -0.4475  -0.8659
6.351e+09  0.3943  -0.7875  -0.01115  -0.04225  0.01464  0.01426  -0.6713  -0.6392
6.352e+09  0.1373  -0.8187  0.01002  0.01107  0.03959  -0.005446  -0.8496  -0.3508
6.354e+09  -0.1781  -0.8688  -0.03084  -0.03353  0.006031  -0.01883  -0.9393  -0.08178
6.355e+09  -0.4086  -0.7199  -0.01302  0.01866  0.01078  0.02612  -0.8892  0.2355
6.356e+09  -0.7226  -0.4929  -0.027  0.004301  -0.02213  -0.02209  -0.7638  0.5667
6.358e+09  -0.829  -0.2589  0.01661  0.001537  -0.003573  0.0338  -0.5455  0.7742
6.359e+09  -0.8315  0.009011  0.008036  -0.03468  0.015  0.04437  -0.2618  0.8569
6.36e+09  -0.7283  0.3455  0.04497  0.02827  0.01269  0.01772  0.05742  0.9589
6.361e+09  -0.6269  0.6007  -0.001896  -0.04489  0.04842  0.01652  0.4303  0.8379
6.362e+09  -0.3455  0.7653  0.02672  -0.002531  0.02446  -0.01988  0.7011  0.6622
6.364e+09  -0.0557  0.8892  0.01651  -0.0001473  -0.006357  0.01242  0.8408  0.3821
6.365e+09  0.2369  0.8055  0.01113  -0.03026  -0.02766  0.02821  0.9384  0.09956
6.366e+09  0.4995  0.7386  -0.02073  0.01133  0.04475  0.01077  0.8942  -0.2352
6.368e+09  0.6865  0.4654  0.02874  0.03949  -0.04543  0.04507  0.7746  -0.5452
6.369e+09  0.8011  0.2228  0.0006733  0.001512  0.0283  0.004158  0.5468  -0.7389
6.37e+09  0.8656  -0.107  -0.005774  -0.03965  -0.0626  -0.00716  0.2537  -0.881
6.371e+09  0.7142  -0.3791  0.005752  0.02641  0.01665  -0.02334  -0.05219  -0.9557
6.372e+09  0.525  -0.6011  -0.004607  -0.003901  -0.03734  0.003738  -0.4052  -0.8265
6.374e+09  0.3322  -0.7737  0.01262  -0.0462  0.006761  0.02473  -0.6748  -0.6685
6.375e+09  0.02243  -0.8404  -0.006771  -0.003378  -0.01095  0.02745  -0.8605  -0.4019
6.376e+09  -0.3136  -0.8407  -0.004106  -0.0137  0.02042  0.01318  -0.9102  -0.09711
6.378e+09  -0.5036  -0.6471  -0.005302  0.04366  0.01184  0.01833  -0.9356  0.206
6.379e+09  -0.7754  -0.3805  -0.001609  -0.01146  -0.01673  0.002075  -0.7821  0.4928
6.38e+09  -0.849  -0.2119  -0.004624  -0.01231  -0.003131  -0.01619  -0.5538  0.7445
6.381e+09  -0.8481  0.1443  -0.000117  -0.03317  -0.02426  0.01674  -0.2408  0.9047
6.382e+09  -0.7115  0.4819  0.04554  0.00939  -0.02987  -0.01325  0.04957  0.9103
6.384e+09  -0.552  0.6307  -0.003715  0.01107  0.02379  0.07189  0.3677  0.8309
6.385e+09  -0.2914  0.8518  -0.0004956  0.01661  -0.02862  0.0239  0.6314  0.6915
6.386e+09  0.03137  0.8772  -0.01976  0.004591  0.05585  0.02458  0.8284  0.4108
6.388e+09  0.3915  0.7886  -0.01712  0.007256  -0.01164  -0.01618  0.9351  0.07738
6.389e+09  0.5942  0.6139  -0.01246  0.02869  -0.01769  0.01768  0.9275  -0.1727
6.39e+09  0.7209  0.3858  0.01451  -0.02245  -0.008148  -0.03376  0.7734  -0.487
6.391e+09  0.8375  0.08961  0.00436  0.006217  0.023  -0.02136  0.5497  -0.7244
6.392e+09  0.8372  -0.1875  -0.02684  -0.04719  -0.001035  0.03335  0.2493  -0.8503
6.394e+09  0.7317  -0.4945  0.03435  0.01078  -0.002863  0.01295  -0.07091  -0.903
6.395e+09  0.5064  -0.6785  -0.01606  0.02381  -0.004344  0.03858  -0.2755  -0.868
6.396e+09  0.248  -0.8602  -0.036  0.001521  -0.0009114  0.02202  -0.5968  -0.7142
6.398e+09  -0.03918  -0.8922  0.01021  -0.03742  -0.02742  -0.0284  -0.7662  -0.4196
6.399e+09  -0.3369  -0.8042  0.03354  -0.006676  0.006512  -0.02861  -0.8932  -0.1228
6.4e+09  -0.614  -0.6314  -0.01704  0.002053  -0.05372  -0.00329  -0.8877  0.1531
6.401e+09  -0.783  -0.3968  -0.0344  -0.01278  -0.0132  0.01907  -0.8262  0.4303
6.402e+09  -0.8368  -0.06356  0.01359  -0.02141  0.03151  -0.003077  -0.5641  0.6937
6.404e+09  -0.7939  0.2363  0.003627  0.003821  0.0002578  0.01944  -0.3509  0.8624
6.405e+09  -0.6604  0.5028  0.00519  0.04256  -0.003613  0.04645  -0.013  0.8804
6.406e+09  -0.4567  0.6946  0.04727  -0.02603  0.04144  0.001168  0.2972  0.8216
6.408e+09  -0.184  0.8481  0.01478  0.003074  0.01073  0.04081  0.547  0.7103
6.409e+09  0.08233  0.8303  0.01  0.007031  -0.03925  0.02239  0.7508  0.4726
6.41e+09  0.4024  0.7429  0.02844  0.04335  -0.01836  0.000875  0.9151  0.1903
6.411e+09  0.5731  0.5793  0.01573  -0.01892  0.007675  0.02003  0.8693  -0.1529
6.412e+09  0.7492  0.3075  0.05086  -0.0005137  -0.02248  0.01636  0.8523  -0.3873
6.414e+09  0.8601  0.02454  -0.02075  0.02517  0.0209  0.00705  0.575  -0.6994
6.415e+09  0.83  -0.2671  -0.006445  0.005141  0.01032  0.01416  0.3551  -0.8379
6.416e+09  0.6416  -0.5039  -0.02288  -0.02664  -0.00428  0.007764  0.01608  -0.9037
6.418e+09  0.4059  -0.7191  0.02695  0.006474  -0.02618  -0.02522  -0.2589  -0.8505
6.419e+09  0.2208  -0.8344  0.01644  -0.006689  -0.01906  0.0306  -0.5572  -0.7102
6.42e+09  -0.1256  -0.8248  0.05363  -0.03017  -0.009893  0.02849  -0.7192  -0.4842
6.421e+09  -0.4249  -0.7333  -0.029  0.004842  0.007818  -0.02169  -0.8791  -0.1708
6.422e+09  -0.6216  -0.5529  0.003787  -0.006554  -0.04265  0.0266  -0.8787  0.1215
6.424e+09  -0.7538  -0.3129  0.01828  -0.02094  0.0342  -0.02138  -0.7902  0.4553
6.425e+09  -0.8501  0.04894  -0.02223  0.004565  -0.001949  -0.0182  -0.5903  0.6231
6.426e+09  -0.829  0.2349  -0.01477  0.05078  -0.02319  -0.01587  -0.3768  0.7665
6.428e+09  -0.6723  0.5631  -0.01052  -0.01654  -0.02114  0.03503  -0.09109  0.8977
6.429e+09  -0.4456  0.7232  -0.01605  0.02935  0.01183  -0.003258  0.2382  0.7849
6.43e+09  -0.1376  0.8376  -0.0002531  0.02551  0.0498  -0.04267  0.504  0.7273
6.431e+09  0.1595  0.8273  0.005945  -0.004623  0.02769  -0.007634  0.7155  0.4882
6.432e+09  0.4348  0.7356  -0.01531  -0.02129  0.02758  0.007716  0.8549  0.2024
6.434e+09  0.6521  0.5524  0.005334  -0.03483  -0.006667  0.006347  0.8496  -0.06431
6.435e+09  0.8208  0.2533  0.004998  -0.0007513  -0.0143  0.02256  0.7524  -0.4506
6.436e+09  0.8322  -0.02379  0.01873  0.004223  0.03854  -0.01374  0.6247  -0.5693
6.438e+09  0.8014  -0.3445  -0.01602  0.04077  -0.01435  0.03586  0.3477  -0.7767
6.439e+09  0.6298  -0.5164  -0.06061  0.03655  0.03651  0.02569  0.05937  -0.8167
6.44e+09  0.4601  -0.7329  -0.0132  0.02611  -0.0505  -0.01894  -0.2353  -0.812
6.441e+09  0.1709  -0.8362  0.007051  -0.02231  -0.03894  0.01904  -0.4853  -0.7277
6.442e+09  -0.202  -0.8158  0.007145  -0.01503  -0.01342  -0.01355  -0.7232  -0.4713
6.444e+09  -0.4192  -0.7339  -0.01526  0.02661  -0.001476  -0.02067  -0.8019  -0.2269
6.445e+09  -0.6652  -0.5193  -0.001677  0.0292  0.0007251  0.04899  -0.8437  0.05422
6.446e+09  -0.8479  -0.2703  -0.01036  0.03109  -0.01637  -0.0128  -0.7629  0.3656
6.448e+09  -0.8531  0.03953  -0.02739  -0.01143  -0.01398  -0.02623  -0.5957  0.5925
6.449e+09  -0.7626  0.281  0.02951  0.02191  -0.01177  0.02199  -0.3745  0.7699
6.45e+09  -0.6031  0.529  0.002859  -0.01279  -0.04427  -0.01399  -0.04145  0.8328
6.451e+09  -0.43  0.7536  0.02797  -0.002186  0.02163  -0.02467  0.1949  0.8364
6.452e+09  -0.09893  0.8147  0.02273  -0.0185  0.04095  -0.004749  0.4648  0.683
6.454e+09  0.1913  0.8296  -0.008467  -0.00904  -0.01421  0.02726  0.7156  0.4821
6.455e+09  0.4926  0.7003  0.02183  -0.02833  -0.01285  -0.04626  0.7918  0.2188
6.456e+09  0.6435  0.5355  -0.007244  -0.02025  0.01196  -0.007474  0.8168  -0.07562
6.458e+09  0.769  0.2665  0.01901  -0.03905  -0.005055  -0.06262  0.7378  -0.3388
6.459e+09  0.8639  -0.008231  0.03461  0.04858  0.007543  -0.05906  0.5936  -0.5246
6.46e+09  0.7297  -0.2934  -0.00954  -0.03497  -0.0109  0.05834  0.3325  -0.7694
6.461e+09  0.6422  -0.5821  0.01222  -0.01532  0.04086  -0.01813  0.05941  -0.7345
6.462e+09  0.4217  -0.7364  -0.09572  -0.04407  0.01569  0.03811  -0.211  -0.7925
6.464e+09  0.1164  -0.8783  -0.02952  0.006284  -0.001337  -0.08459  -0.4813  -0.7051
6.465e+09  -0.1667  -0.8334  0.0115  0.0169  0.003163  0.02263  -0.6223  -0.441
6.466e+09  -0.4554  -0.7387  0.0304  -0.001486  0.0105  -0.002348  -0.75  -0.1974
6.468e+09  -0.688  -0.5071  -0.001411  -0.0003599  -0.009316  0.01973  -0.7909  0.08771
6.469e+09  -0.8203  -0.2986  0.02447  -0.002226  0.02401  -0.04206  -0.7066  0.3586
6.47e+09  -0.8426  0.08159  -0.002317  0.02272  -0.005482  0.01802  -0.5555  0.5592
6.471e+09  -0.7774  0.316  0.01941  -0.009196  -0.008027  0.00439  -0.2872  0.6996
6.472e+09  -0.6569  0.523  0.04216  -0.01462  0.01652  -0.005135  -0.05912  0.8112
6.474e+09  -0.4671  0.7383  -0.004792  -0.03208  -0.03794  -0.02566  0.1973  0.7465
6.475e+09  -0.09018  0.8207  0.02678  -0.01624  0.09687  0.0234  0.4652  0.6485
6.476e+09  0.2314  0.7993  -0.0006868  -0.0007327  -0.01416  -0.03802  0.6522  0.4805
6.478e+09  0.3987  0.6772  -0.007961  -0.01608  -0.001595  -0.001803  0.7661  0.2064
6.479e+09  0.662  0.4979  -0.02991  -0.001782  0.004971  0.002182  0.7664  -0.09842
6.48e+09  0.7563  0.248  -0.01025  -0.01235  -0.02235  -0.02897  0.7343  -0.3636
6.481e+09  0.8455  -0.05426  0.0005838  -0.02495  -0.02101  -0.001534  0.5238  -0.574
6.482e+09  0.8008  -0.3127  0.01033  -0.00824  0.04187  0.06297  0.3575  -0.7142
6.484e+09  0.6134  -0.6267  0.05685  0.011  -0.008978  0.03265  0.02467  -0.7906
6.485e+09  0.4122  -0.8062  0.04656  -0.01991  0.01883  -0.0008448  -0.2254  -0.7499
6.486e+09  0.09898  -0.8451  0.01216  -0.01576  0.05206  -0.00364  -0.4463  -0.6475
6.488e+09  -0.8411  -0.5637  0.00258  0.01314  -0.2215  -0.6654  -0.6153  -0.4037
6.489e+09  -0.4715  -0.7093  -0.02354  -0.005554  -0.0128  -0.001642  -0.7212  -0.1349
6.49e+09  -0.7403  -0.5836  -0.04508  0.01801  -0.0509  -0.01043  -0.7472  0.05819
6.491e+09  -0.8262  -0.2904  -0.03231  -0.004918  -0.00459  0.01308  -0.701  0.3478
6.492e+09  -0.9008  0.08298  0.005592  0.02135  0.01473  0.06312  -0.5569  0.5672
6.494e+09  -0.8385  0.2486  0.01802  -0.02763  0.04513  0.05879  -0.3311  0.6846
6.495e+09  -0.6862  0.6075  0.008111  -0.007241  0.01355  -0.004476  -0.04531  0.7898
6.496e+09  -0.3946  0.7754  0.03268  0.01858  -0.006876  0.003742  0.1963  0.7476
6.498e+09  -0.0737  0.8172  -0.03089  0.006588  -0.02924  -0.01787  0.4502  0.6197
6.499e+09  0.2142  0.8667  -0.001993  0.04074  0.01907  0.00942  0.6731  0.4049
6.5e+09  0.492  0.677  0.02868  -0.04241  0.0388  -0.02581  0.7108  0.1526
6.501e+09  0.7395  0.4997  0.01797  0.01789  0.03854  -0.004119  0.7446  -0.07213
6.502e+09  0.8213  0.1871  0.01338  0.02669  0.02044  0.01677  0.7241  -0.3395
6.504e+09  0.8491  -0.08703  0.0003065  -0.008715  0.004794  0.02455  0.5156  -0.5735
6.505e+09  0.826  -0.3194  -0.00207  -0.01943  0.01476  0.008204  0.3062  -0.6998
6.506e+09  0.6445  -0.6946  0.01887  -0.03253  -0.04081  -0.04441  0.04842  -0.7772
6.508e+09  0.3895  -0.7955  0.02022  -0.02757  0.01474  -0.04457  -0.2333  -0.7477
6.509e+09  0.1047  -0.9199  0.03825  -0.01625  -0.02135  0.004531  -0.4262  -0.6073
6.51e+09  -0.1914  -0.8149  -0.02287  -0.0001992  0.05749  -0.03834  -0.6258  -0.348
6.511e+09  -0.5303  -0.6981  0.009876  -0.0203  -0.05861  -0.01942  -0.7179  -0.1383
6.512e+09  -0.7224  -0.5418  -0.02026  -0.02662  0.01832  -0.01543  -0.7409  0.1267
6.514e+09  -0.8911  -0.2113  -0.01419  0.02044  0.004286  -0.00939  -0.6286  0.3811
6.515e+09  -0.9416  0.1597  0.004128  -0.01549  -0.02325  -0.01583  -0.5135  0.5357
6.516e+09  -0.8086  0.3954  0.004955  0.02101  -0.03176  -0.03649  -0.2269  0.6945
6.518e+09  -0.6291  0.655  0.005015  -0.005517  0.002945  -0.03197  0.02033  0.7119
6.519e+09  -0.3658  0.7743  0.01636  0.02658  -0.005742  0.02325  0.2458  0.7226
6.52e+09  0.0007264  0.9144  0.009642  -0.01712  -0.01571  0.005371  0.5121  0.5341
6.521e+09  0.2705  0.8805  -0.051  0.0002508  0.002889  0.01776  0.6383  0.3371
6.522e+09  0.5539  0.701  -0.01052  -0.06311  -0.006897  -0.003976  0.7273  0.09838
6.524e+09  0.7996  0.5379  0.01297  -0.0309  0.03788  -0.005063  0.7403  -0.1695
6.525e+09  0.9265  0.2187  -0.02327  -0.007939  0.007503  0.05074  0.6537  -0.3465
6.526e+09  0.8757  -0.1173  0.02031  -0.01093  -0.02507  -0.008594  0.3916  -0.6037
6.528e+09  0.8196  -0.4232  -0.03215  0.02157  0.01427  0.01233  0.2121  -0.6845
6.529e+09  0.5712  -0.7104  -0.01011  0.01034  -0.00132  0.02963  -0.03571  -0.724
6.53e+09  0.3222  -0.876  -0.02189  -0.00553  0.03093  -0.008255  -0.289  -0.649
6.531e+09  0.03766  -0.9027  -0.03968  0.03692  -0.02609  -0.08207  -0.4565  -0.4811
6.532e+09  -0.295  -0.8388  -0.004207  -0.008949  0.03261  -0.004783  -0.6055  -0.2814
6.534e+09  -0.6347  -0.7149  0.01582  0.01179  -0.04102  -0.005133  -0.6238  -0.1045
6.535e+09  -0.805  -0.4503  0.03371  0.007208  0.0009429  0.004495  -0.6198  0.08961
6.536e+09  -0.9599  -0.1033  0.003853  -0.03785  0.05247  0.0216  -0.578  0.3204
6.538e+09  -0.9229  0.1646  0.0214  0.007872  -0.004483  0.05085  -0.4353  0.5084
6.539e+09  -0.8354  0.4757  -0.006197  -0.01415  -0.001989  -0.0508  -0.2682  0.5937
6.54e+09  -0.5801  0.7939  0.0205  0.00987  0.02179  0.02548  -0.04601  0.6786
6.541e+09  -0.3053  0.9319  0.02109  0.004063  -0.03852  -0.004083  0.1809  0.6632
6.542e+09  0.1318  0.9145  0.005389  0.005829  -0.04714  -0.004175  0.3942  0.5407
6.544e+09  0.3909  0.8485  0.03169  -0.008231  -0.02987  0.01774  0.5954  0.3963
6.545e+09  0.6424  0.7151  0.002085  0.02021  0.03056  -0.01124  0.7008  0.1778
6.546e+09  0.8629  0.3945  -0.01683  0.02036  0.0006347  -0.003549  0.6857  -0.06674
6.548e+09  0.9155  0.06176  0.003027  0.03578  0.007555  -0.005558  0.6405  -0.3488
6.549e+09  0.8763  -0.2778  -0.0494  -0.03039  0.007874  0.009277  0.5099  -0.5175
6.55e+09  0.7338  -0.5452  -0.01194  0.003802  -0.02325  -0.002946  0.2782  -0.6876
