# Hz S RI R 50
6.25e+09  -0.3254  0.779  0.01836  0.02193  0.03432  -0.03019  0.1294  0.4924
6.251e+09  -0.07516  0.8307  -0.01873  0.02128  -0.002635  -0.01548  0.3618  0.3919
6.252e+09  0.2217  0.7859  0.006354  0.004468  0.005815  -0.02884  0.5195  0.2248
6.254e+09  0.4574  0.6887  0.0254  0.004174  -0.01471  0.009582  0.6271  0.008821
6.255e+09  0.6666  0.4628  0.03201  0.0086  -0.02469  -0.02414  0.5824  -0.2276
6.256e+09  0.7672  0.2002  -0.008549  0.02655  -0.07524  -0.02465  0.4777  -0.4565
6.258e+09  0.846  -0.09617  -0.001958  0.01375  0.05978  -0.00973  0.291  -0.5906
6.259e+09  0.741  -0.4154  0.01232  0.01539  0.0134  -0.008471  0.03166  -0.6752
6.26e+09  0.5718  -0.5406  -0.00632  0.004407  -0.006975  -0.04351  -0.2209  -0.6594
6.261e+09  0.2784  -0.734  0.009582  0.02563  0.01197  0.01881  -0.4794  -0.5204
6.262e+09  0.0306  -0.7783  0.0224  -0.02615  0.03494  0.01541  -0.5605  -0.3488
6.264e+09  -0.2025  -0.8034  0.01424  -0.02068  0.02058  -0.03426  -0.7023  -0.1094
6.265e+09  -0.4848  -0.6677  -0.008908  0.01464  -0.01723  -0.04009  -0.7118  0.1205
6.266e+09  -0.7053  -0.451  0.002268  -0.01208  -0.00633  -0.01325  -0.6152  0.4107
6.268e+09  -0.7421  -0.2067  0.006138  0.02259  0.007858  0.01942  -0.4399  0.566
6.269e+09  -0.8188  0.09601  0.01168  0.05168  0.02113  -0.05892  -0.2157  0.7014
6.27e+09  -0.6913  0.3518  -0.03359  -0.003777  -0.03013  -0.007381  0.03932  0.725
6.271e+09  -0.6227  0.5667  0.006419  -0.002751  -0.01067  -0.008269  0.2993  0.6767
6.272e+09  -0.3571  0.715  0.02153  0.02566  0.02115  -0.02429  0.5225  0.5342
6.274e+09  -0.05788  0.8352  -0.01277  -0.02575  0.02281  0.04111  0.7073  0.3356
6.275e+09  0.2231  0.7028  -0.01964  0.01443  0.008542  -0.01953  0.7642  0.06836
6.276e+09  0.4385  0.6446  0.008169  -0.008368  -0.06093  0.04922  0.7301  -0.2051
6.278e+09  0.6728  0.4788  0.02076  0.0372  0.01451  -0.008606  0.6418  -0.4748
6.279e+09  0.7659  0.1854  -0.00658  -0.01321  0.06035  0.006256  0.4013  -0.6057
6.28e+09  0.8008  -0.1467  -0.006765  -0.02375  -0.04765  0.005641  0.1756  -0.7773
6.281e+09  0.723  -0.3501  -0.01339  0.009002  -0.02703  0.04481  -0.1377  -0.7695
6.282e+09  0.5673  -0.6311  0.02745  -0.00479  -0.02854  0.04249  -0.3771  -0.6704
6.284e+09  0.292  -0.77  -0.01803  0.02376  -0.01876  -0.02222  -0.5644  -0.5241
6.285e+09  0.017  -0.7949  0.02314  -0.00543  -0.02354  -0.02947  -0.7342  -0.3015
6.286e+09  -0.2055  -0.7927  -0.0006669  -0.00594  0.003604  -0.006031  -0.7838  -0.001961
6.288e+09  -0.4849  -0.6298  0.02405  0.006612  -0.01354  -0.0125  -0.7481  0.2589
6.289e+09  -0.6662  -0.3646  0.02917  0.02344  0.01991  -0.01193  -0.6229  0.4948
6.29e+09  -0.7767  -0.1799  -0.02442  0.02608  0.008526  0.01588  -0.4205  0.6924
6.291e+09  -0.8153  0.1234  -0.01331  0.02073  0.02905  -0.008748  -0.1342  0.779
6.292e+09  -0.6859  0.4187  -0.02783  -0.003188  -0.01446  0.03167  0.09486  0.8009
6.294e+09  -0.5057  0.6713  0.01964  -0.01374  4.335e-05  0.002906  0.3759  0.6843
6.295e+09  -0.2579  0.7607  0.001948  -0.006354  -0.02979  -0.02984  0.6303  0.5415
6.296e+09  -0.02776  0.8062  -0.007982  -0.0008375  0.01528  0.04166  0.7713  0.2942
6.298e+09  0.2778  0.7825  -0.01572  0.01543  -0.003452  0.05663  0.8401  0.02041
6.299e+09  0.5239  0.663  -0.01153  0.03612  0.04264  -0.04353  0.7786  -0.3129
6.3e+09  0.7189  0.397  0.001141  -0.003122  0.06552  -0.02843  0.665  -0.5169
6.301e+09  0.7574  0.2087  0.03487  0.008343  -0.002664  -0.02737  0.3988  -0.6961
6.302e+09  0.7946  -0.16  -0.02042  -0.01157  0.0142  -0.02431  0.1975  -0.8128
6.304e+09  0.6817  -0.4106  0.03947  -0.01464  0.02103  0.00827  -0.1673  -0.8301
6.305e+09  0.4347  -0.5786  0.009069  0.01138  -0.002046  0.04362  -0.419  -0.7184
6.306e+09  0.2224  -0.8133  0.02327  0.01111  0.00127  -0.00568  -0.6097  -0.581
6.308e+09  -0.01867  -0.8389  -0.004784  0.03154  -0.004695  0.02432  -0.8004  -0.3414
6.309e+09  -0.3405  -0.7687  0.002508  -0.009209  0.02108  0.02085  -0.8556  -0.0005043
6.31e+09  -0.5315  -0.6259  0.01651  -0.003769  -0.001346  0.01379  -0.813  0.2735
6.311e+09  -0.6986  -0.3566  -0.009733  -0.008378  0.01221  0.02032  -0.6707  0.5465
6.312e+09  -0.7684  -0.1171  0.01169  0.0387  -0.0004678  0.001694  -0.4626  0.743
6.314e+09  -0.7573  0.2028  0.02105  0.004859  0.0005861  -0.01959  -0.194  0.8561
6.315e+09  -0.719  0.4866  -0.01427  0.01311  0.02456  0.02997  0.1415  0.8553
6.316e+09  -0.5076  0.68  0.000724  -0.02865  -0.01063  0.0335  0.4425  0.7659
6.318e+09  -0.2744  0.8148  -0.01714  0.01581  -0.03724  -0.009817  0.6678  0.5832
6.319e+09  0.06203  0.843  -0.01634  0.01085  -5.714e-05  -0.007269  0.8327  0.3117
6.32e+09  0.3196  0.738  -0.001405  0.01778  0.03631  0.03675  0.8916  0.03656
6.321e+09  0.5659  0.5394  0.00608  0.02652  -0.01111  -0.01568  0.8393  -0.2869
6.322e+09  0.7485  0.3303  0.02221  -0.02337  -0.01879  -0.03878  0.674  -0.5853
6.324e+09  0.7984  0.04138  -0.0266  -0.01049  0.05139  0.02141  0.4228  -0.7452
6.325e+09  0.7752  -0.227  -0.03994  0.001394  -0.04341  -0.03158  0.1846  -0.8944
6.326e+09  0.6965  -0.4477  0.03324  0.02807  0.008426  0.0382  -0.09541  -0.8917
6.328e+09  0.4264  -0.6799  0.007572  -0.01188  0.02169  -0.01055  -0.3878  -0.7948
6.329e+09  0.1346  -0.8012  0.01324  0.02103  -0.008566  0.001634  -0.669  -0.5791
6.33e+09  -0.09873  -0.7896  -0.01882  -0.002198  -0.05737  -0.0112  -0.8385  -0.315
6.331e+09  -0.366  -0.801  -0.01463  0.0001889  -0.01459  -0.00156  -0.9236  0.003188
6.332e+09  -0.629  -0.595  0.004622  0.0008282  0.01138  -0.03912  -0.8364  0.2895
6.334e+09  -0.7781  -0.3327  -0.01507  -0.03592  -0.04318  0.01456  -0.7239  0.5936
6.335e+09  -0.8733  -0.06056  -0.0009869  0.03048  0.007801  -0.02367  -0.4958  0.8041
6.336e+09  -0.83  0.3024  0.003761  -0.005041  -0.02563  0.01847  -0.2077  0.8725
6.338e+09  -0.5973  0.5145  0.0528  0.002899  0.004933  -0.007285  0.1233  0.9149
6.339e+09  -0.4297  0.6789  0.01418  -0.0335  0.05556  0.03573  0.428  0.7828
6.34e+09  -0.1585  0.7732  0.003272  0.00113  0.02641  -0.005626  0.7055  0.6238
6.341e+09  0.2365  0.8156  -0.002519  0.004471  -0.01733  0.0401  0.8367  0.3761
6.342e+09  0.4442  0.6936  -0.01746  0.01173  -0.03336  0.01543  0.8944  0.05517
6.344e+09  0.6389  0.5261  0.006689  -0.000309  0.01049  0.01283  0.8977  -0.3006
6.345e+09  0.8397  0.274  0.007046  0.03562  -0.03662  0.04538  0.7264  -0.5509
6.346e+09  0.8254  -0.03687  -0.0261  0.01298  -0.0149  0.03704  0.5216  -0.7369
6.348e+09  0.761  -0.3277  -0.001974  -0.001233  0.01982  -0.01596  0.2341  -0.9083
6.349e+09  0.5777  -0.5822  0.08352  -0.0179  -0.01045  -0.0329  -0.08119  -0.8885
6.35e+09  0.3387  -0.7753  0.02384  -0.001935  0.01233  -0.01867  -0.4154  -0.8573
6.351e+09  0.0422  -0.8866  -0.00397  0.01939  -0.01652  0.04638  -0.6775  -0.6704
6.352e+09  -0.2325  -0.7857  0.04215  -0.02324  -0.01323  0.01489  -0.8541  -0.362
6.354e+09  -0.5286  -0.7566  -0.01261  -0.02411  -0.006931  0.02704  -0.9222  -0.05807
6.355e+09  -0.7558  -0.4638  0.000527  0.0009528  -0.01251  0.001192  -0.8888  0.278
6.356e+09  -0.8387  -0.1537  -0.02317  0.002751  0.004044  -0.02666  -0.7098  0.5777
6.358e+09  -0.8957  0.06512  -0.004965  -0.02396  -0.02446  0.02627  -0.5064  0.7951
6.359e+09  -0.7209  0.379  -0.03646  0.01008  0.006797  -0.02596  -0.1813  0.8811
6.36e+09  -0.5508  0.6342  0.02177  0.02263  0.03326  0.0335  0.06847  0.9296
6.361e+09  -0.3302  0.8201  0.01134  0.03827  0.02003  -0.02727  0.3989  0.8347
6.362e+09  -0.04146  0.8421  -0.01406  -0.01827  0.02459  0.009819  0.63  0.6696
6.364e+09  0.2546  0.8524  -0.001411  -0.02478  -0.02779  -0.05473  0.8382  0.4062
6.365e+09  0.5291  0.7168  0.03054  0.01058  -0.01602  -0.03023  0.956  0.08549
6.366e+09  0.7584  0.4268  -0.03046  0.01762  -0.05893  0.02525  0.88  -0.2968
6.368e+09  0.8699  0.1329  -0.01025  0.02223  -0.01868  0.01192  0.7791  -0.5281
6.369e+09  0.8305  -0.1381  -0.02452  0.02954  0.005272  0.03281  0.5453  -0.7711
6.37e+09  0.7335  -0.4213  -0.002024  0.02401  -0.05503  0.0002852  0.2615  -0.9192
6.371e+09  0.5421  -0.6882  0.007913  -0.005065  0.03245  -0.02015  -0.09814  -0.9702
6.372e+09  0.2708  -0.8041  -0.0006033  -0.02117  -0.03286  -0.03882  -0.3773  -0.8253
6.374e+09  0.002071  -0.8302  0.04263  0.02489  -0.02042  -0.01286  -0.6501  -0.6934
6.375e+09  -0.3461  -0.8019  -0.004512  -0.01806  -0.006543  -0.03595  -0.8323  -0.4157
6.376e+09  -0.5552  -0.6491  -0.01767  -0.0009089  0.01866  0.04782  -0.9271  -0.06603
6.378e+09  -0.7554  -0.349  -0.002316  0.001742  -0.02054  -0.01999  -0.8878  0.228
6.379e+09  -0.8526  -0.1164  -0.03686  -0.05577  0.005485  0.0004401  -0.7936  0.5415
6.38e+09  -0.8634  0.1783  -0.007301  0.01298  0.03468  0.001475  -0.5825  0.7482
6.381e+09  -0.7599  0.4585  0.01307  0.01679  0.003273  0.03826  -0.2834  0.9181
6.382e+09  -0.5475  0.6795  0.004052  -0.005907  -0.002946  0.02529  0.05485  0.8965
6.384e+09  -0.2076  0.8029  0.001385  -0.03167  0.02864  0.009044  0.3758  0.8204
6.385e+09  0.0369  0.8619  -0.01481  0.01417  0.01209  -0.002607  0.6744  0.683
6.386e+09  0.3554  0.7777  0.03639  0.02375  0.04635  -0.00427  0.8277  0.4027
6.388e+09  0.5946  0.6271  0.05619  0.008569  -0.02889  0.02179  0.9242  0.1188
6.389e+09  0.7653  0.3497  -0.03367  -0.004817  -0.009638  -0.02961  0.9164  -0.1598
6.39e+09  0.88  0.07801  0.002704  0.02509  -0.01421  -0.01183  0.8278  -0.5348
6.391e+09  0.8439  -0.2158  -0.03349  0.00546  -0.0236  0.03152  0.5678  -0.7245
6.392e+09  0.7169  -0.506  0.01797  0.01479  0.02215  -0.001458  0.297  -0.8748
6.394e+09  0.4872  -0.6969  0.007055  0.02347  -0.01432  -0.0009562  -0.05912  -0.9034
6.395e+09  0.2466  -0.8189  0.007825  -0.01577  0.07159  0.01124  -0.322  -0.8539
6.396e+09  -0.08201  -0.9004  0.05415  0.009249  -0.01991  -0.03468  -0.594  -0.6853
6.398e+09  -0.3592  -0.7695  -0.0189  0.01063  -0.04613  0.02789  -0.8089  -0.4244
6.399e+09  -0.6193  -0.6083  0.03476  0.0188  0.05065  -0.01555  -0.907  -0.1321
6.4e+09  -0.8058  -0.3666  0.04994  -0.0269  0.006772  0.02013  -0.8945  0.145
6.401e+09  -0.8315  -0.02345  1.947e-05  -0.05072  0.05063  0.007608  -0.7775  0.4848
6.402e+09  -0.8164  0.269  0.02751  0.003726  0.01972  0.02608  -0.5784  0.6921
6.404e+09  -0.6856  0.5253  -0.01041  0.0004096  -0.01124  0.002102  -0.3582  0.8428
6.405e+09  -0.5128  0.6814  -0.0102  0.01449  0.01204  -0.004212  -0.02047  0.8395
6.406e+09  -0.1965  0.823  -0.01479  -0.002965  0.02126  0.01287  0.32  0.8495
6.408e+09  0.09861  0.8782  -0.002295  -0.02092  -0.01018  -0.003824  0.5772  0.7121
6.409e+09  0.356  0.7495  0.01877  -0.0179  -0.02123  -0.0071  0.776  0.4634
6.41e+09  0.6393  0.563  0.01569  0.01042  -0.005898  0.009002  0.8398  0.1952
6.411e+09  0.8041  0.3414  0.02039  0.0188  -0.001507  -0.02156  0.8796  -0.1316
6.412e+09  0.8418  0.01295  0.0004126  -0.01171  -0.01407  -0.02413  0.7467  -0.4769
6.414e+09  0.791  -0.2423  0.0297  0.02085  0.01636  -0.004181  0.6254  -0.6345
6.415e+09  0.666  -0.5348  0.01179  0.03153  -0.02973  -0.005956  0.326  -0.8091
6.416e+09  0.4529  -0.7581  0.03313  -0.02308  -0.0003862  -0.05425  0.06857  -0.8795
6.418e+09  0.189  -0.8199  0.04376  0.0158  -0.02856  -0.001243  -0.2699  -0.8313
6.419e+09  -0.117  -0.8128  0.00048  -0.07719  -0.005315  -0.01698  -0.5595  -0.6707
6.42e+09  -0.392  -0.7925  -0.01352  0.009387  0.01869  0.0287  -0.73  -0.4602
6.421e+09  -0.6399  -0.5323  0.003436  -0.01684  -0.008034  -0.03577  -0.9077  -0.196
6.422e+09  -0.7545  -0.3117  -0.01878  -0.0008729  -0.004227  -0.005262  -0.9021  0.1175
6.424e+09  -0.8808  -0.003767  0.02896  0.01399  0.03556  -0.01601  -0.7828  0.3879
6.425e+09  -0.7912  0.3092  0.04214  -0.007168  0.006904  -0.009274  -0.5824  0.6534
6.426e+09  -0.6651  0.551  0.008538  0.0452  -0.0015  -0.03536  -0.3165  0.8133
6.428e+09  -0.4065  0.7399  0.03498  -0.01052  -0.009937  -0.02289  -0.03944  0.7997
6.429e+09  -0.1473  0.854  -0.01569  -0.03437  0.04355  -0.005663  0.2506  0.8163
6.43e+09  0.1379  0.8386  0.01237  0.04524  0.01924  0.01765  0.5286  0.6954
6.431e+09  0.4233  0.7483  -0.0003145  0.008439  -0.003761  0.007175  0.7065  0.4734
6.432e+09  0.6608  0.5587  0.009243  -0.02956  0.009073  0.03934  0.7913  0.1888
6.434e+09  0.7658  0.2901  -0.01632  -0.01286  0.04256  0.03935  0.8713  -0.1163
6.435e+09  0.8438  0.01353  -0.02759  0.03513  0.0255  0.02344  0.7497  -0.3513
6.436e+09  0.8027  -0.3165  -0.002474  0.0188  0.01618  0.04358  0.5798  -0.6242
6.438e+09  0.6688  -0.5401  -0.04182  -0.01128  0.0396  0.01631  0.3462  -0.795
6.439e+09  0.3936  -0.7094  0.00966  0.01938  -0.01189  0.05308  0.08082  -0.882
6.44e+09  0.1735  -0.7916  0.00971  -0.01746  0.01124  0.005325  -0.2416  -0.8223
6.441e+09  -0.1192  -0.8666  0.006425  0.02873  0.01086  -0.02666  -0.4608  -0.6856
6.442e+09  -0.4265  -0.7023  -0.03109  -0.04482  0.06259  -0.01791  -0.72  -0.5126
6.444e+09  -0.7009  -0.5119  -0.05752  -0.07043  -0.01838  0.01244  -0.8243  -0.2009
6.445e+09  -0.8218  -0.2947  0.0118  0.05789  -0.001301  -0.01099  -0.8798  0.1489
6.446e+09  -0.8731  -0.002803  -0.02628  -0.02384  0.0129  -0.04098  -0.7826  0.3567
6.448e+09  -0.8245  0.311  -0.02547  0.00799  -0.01723  -0.05622  -0.5868  0.5616
6.449e+09  -0.6434  0.5328  -0.03108  -0.003461  -0.03701  -0.02002  -0.3336  0.7418
6.45e+09  -0.4555  0.8005  0.001176  0.0468  0.02332  0.001467  -0.09919  0.8394
6.451e+09  -0.1182  0.9065  -0.005639  -0.02185  -0.01421  -0.01776  0.2529  0.8052
6.452e+09  0.1397  0.8322  -0.04973  0.02639  -0.005715  -0.003467  0.4464  0.6614
6.454e+09  0.4332  0.6926  0.002226  -0.04445  -0.002312  0.01722  0.6888  0.4587
6.455e+09  0.6651  0.5878  0.01724  0.0001817  -0.007343  -0.01462  0.7644  0.2194
6.456e+09  0.8327  0.2896  -0.02487  0.01539  -0.04893  0.0358  0.8447  -0.02659
6.458e+09  0.8816  -0.001745  0.05608  -0.01656  -0.006775  -0.01047  0.722  -0.3313
6.459e+09  0.8187  -0.305  -0.03085  -0.005696  -0.02825  -0.04887  0.5719  -0.6112
6.46e+09  0.681  -0.58  -0.05716  -0.01605  0.01966  0.05176  0.3212  -0.7243
6.461e+09  0.3816  -0.7613  -0.02853  0.02283  -0.0001023  -0.003854  0.06484  -0.7893
6.462e+09  0.114  -0.8512  -0.04718  0.001902  -0.005952  -0.02426  -0.238  -0.7867
6.464e+09  -0.1837  -0.8294  -0.01111  0.004061  0.01367  0.006971  -0.5045  -0.7133
6.465e+09  -0.4418  -0.7556  0.0138  -0.03494  -0.01832  -0.008321  -0.631  -0.4965
6.466e+09  -0.7107  -0.5559  0.005778  0.002514  -0.03174  -0.002332  -0.8094  -0.1749
6.468e+09  -0.8058  -0.272  -0.03007  0.009448  -0.02207  0.03206  -0.8049  0.07197
6.469e+09  -0.8441  0.01264  -0.005739  -0.01436  0.005342  -0.02241  -0.6664  0.3341
6.47e+09  -0.8348  0.3408  0.01028  -0.04141  0.008322  -0.01559  -0.5326  0.5416
6.471e+09  -0.6541  0.568  -0.01925  0.02201  0.0399  0.02959  -0.324  0.6892
6.472e+09  -0.3807  0.7956  0.03617  0.008752  0.04765  0.01337  -0.02449  0.7953
6.474e+09  -0.1405  0.9034  -0.01425  -0.01559  0.01787  0.02393  0.1843  0.7545
6.475e+09  0.2007  0.8472  0.0007933  -0.00771  -0.01395  0.04285  0.4435  0.6375
6.476e+09  0.4787  0.7014  0.02341  0.02807  0.04001  0.01368  0.6773  0.4527
6.478e+09  0.7228  0.5116  -0.0008229  -0.008605  0.01596  0.01384  0.7594  0.1961
6.479e+09  0.8616  0.2689  -0.01177  -0.005952  0.04091  -0.02108  0.7752  -0.09363
6.48e+09  0.8717  -0.04531  -0.01326  0.02147  -0.04966  0.003141  0.7377  -0.3155
6.481e+09  0.8189  -0.3667  0.03639  0.01168  0.003843  0.002497  0.576  -0.5485
6.482e+09  0.6634  -0.6289  0.02128  0.03696  0.05033  -0.04517  0.3666  -0.685
6.484e+09  0.3674  -0.804  0.04791  -0.02524  0.06734  -0.04758  0.02703  -0.7233
6.485e+09  0.08564  -0.9504  0.05418  -0.05195  0.04564  -0.01471  -0.2149  -0.7673
6.486e+09  -0.2483  -0.8408  0.0206  0.004641  0.0641  0.0721  -0.4596  -0.6313
6.488e+09  0.1136  -0.3618  -0.02167  0.008012  0.5566  -0.4223  -0.6417  -0.4474
6.489e+09  -0.7471  -0.5432  -0.02073  0.003311  -0.01294  -0.001511  -0.7751  -0.1744
6.49e+09  -0.8483  -0.2814  0.003171  -0.02735  0.01262  -0.04059  -0.7709  0.08684
6.491e+09  -0.9035  0.06189  -0.01536  -0.008926  -0.006685  0.04196  -0.7071  0.3435
6.492e+09  -0.833  0.3969  -0.007069  0.01276  0.006079  0.03982  -0.5311  0.5463
6.494e+09  -0.7594  0.6803  -0.02668  -0.002806  0.03151  -0.1203  -0.2894  0.708
6.495e+09  -0.4115  0.782  0.02279  0.02321  -0.02217  0.008663  -0.03985  0.7581
6.496e+09  -0.02725  0.8641  -0.01338  -0.005094  0.004129  -0.04442  0.1866  0.7515
6.498e+09  0.2339  0.8905  0.008326  0.01929  -0.03048  0.03372  0.473  0.5936
6.499e+09  0.5172  0.6812  0.01404  0.0446  -0.03485  -0.03663  0.6714  0.4758
6.5e+09  0.7099  0.5194  0.0009802  0.01464  0.01989  -0.02982  0.786  0.1622
6.501e+09  0.8511  0.2485  -0.01546  0.01749  0.02535  0.01991  0.7358  -0.09581
6.502e+09  0.8886  -0.02969  -0.002416  0.00905  0.02998  0.02534  0.695  -0.3556
6.504e+09  0.7924  -0.3607  -0.008649  -0.01722  -0.00244  -0.01033  0.5307  -0.5511
6.505e+09  0.6095  -0.6618  0.01401  0.01208  0.01826  0.01179  0.2875  -0.7328
6.506e+09  0.3977  -0.8747  0.02817  0.01739  -0.02523  0.03347  0.0265  -0.7742
6.508e+09  0.07113  -0.9476  -0.0145  0.04014  0.04601  0.0009155  -0.2084  -0.6927
6.509e+09  -0.2955  -0.8482  -0.01861  0.01594  -0.02749  -0.009973  -0.4606  -0.5641
6.51e+09  -0.5525  -0.7081  0.008487  0.03336  -0.03381  -0.01821  -0.6096  -0.4341
6.511e+09  -0.7942  -0.4824  -0.006939  0.006418  0.0009275  -0.03463  -0.7095  -0.1287
6.512e+09  -0.8891  -0.178  0.004065  0.0009871  0.01233  -0.00738  -0.7541  0.1237
6.514e+09  -0.8773  0.1086  0.009666  -0.02179  0.01948  -0.03007  -0.6584  0.4088
6.515e+09  -0.756  0.4774  -0.007463  0.006036  -0.0007339  0.01323  -0.4715  0.5373
6.516e+09  -0.6098  0.6977  -0.01778  0.001363  0.01222  0.08755  -0.2643  0.7259
6.518e+09  -0.356  0.8589  -0.003779  0.01705  0.02592  -0.01291  -0.002003  0.7604
6.519e+09  0.0005136  0.9195  -0.0172  0.001376  0.003264  -0.002919  0.3021  0.6574
6.52e+09  0.3486  0.8958  -0.04666  0.02466  -0.02685  -0.0153  0.4603  0.5541
6.521e+09  0.6294  0.727  0.02764  0.04505  -0.02674  0.00362  0.6747  0.348
6.522e+09  0.8512  0.4691  -0.004019  -0.01026  -0.03511  0.02753  0.6729  0.09916
6.524e+09  0.9158  0.123  0.03279  0.01207  0.02085  -0.0286  0.7105  -0.1828
6.525e+09  0.9093  -0.2071  0.02147  -0.01123  -0.004258  0.01206  0.6324  -0.3683
6.526e+09  0.7428  -0.5254  -0.04222  0.02508  0.03091  -0.009108  0.4255  -0.5808
6.528e+09  0.6037  -0.7463  0.01899  -0.009629  -0.003631  0.03809  0.2286  -0.6841
6.529e+09  0.2619  -0.8539  -0.004808  -0.02105  -0.007315  0.02814  -0.05612  -0.6845
6.53e+09  -0.06091  -0.935  -0.0172  -0.0174  0.01039  -0.01511  -0.3074  -0.6411
6.531e+09  -0.3669  -0.8893  0.01676  -0.005464  0.03978  -0.02543  -0.4447  -0.4728
6.532e+09  -0.6368  -0.6807  -0.001828  -0.003308  -0.02052  0.01153  -0.5777  -0.2727
6.534e+09  -0.8518  -0.3701  0.02199  -0.001102  0.01371  0.01857  -0.6581  -0.09108
6.535e+09  -0.949  -0.1291  -0.03191  0.02208  0.03083  0.008955  -0.6348  0.09388
6.536e+09  -0.9492  0.2751  -0.004724  9.33e-05  0.02249  0.01535  -0.579  0.3202
6.538e+09  -0.7386  0.5184  0.01112  0.02186  0.03354  0.009672  -0.427  0.4467
6.539e+09  -0.4623  0.7661  -0.02388  0.01533  0.02268  -0.01161  -0.27  0.6252
6.54e+09  -0.2092  0.9394  -0.02837  -0.01055  -0.03258  0.01921  -0.05422  0.6806
6.541e+09  0.0963  0.8952  0.01595  0.01965  0.01084  -0.009017  0.1978  0.656
6.542e+09  0.4555  0.8864  0.001295  0.03523  0.01387  0.01817  0.3967  0.5627
6.544e+09  0.7352  0.6291  0.02277  -0.01648  0.001348  0.03762  0.6063  0.4075
6.545e+09  0.8949  0.3729  0.006044  0.01465  -0.009094  -0.02299  0.7392  0.192
6.546e+09  0.9427  0.04228  -0.04779  0.02288  -0.01119  0.007248  0.7278  -0.05681
6.548e+09  0.8812  -0.3326  -0.03246  -0.01729  -0.03538  -0.009125  0.6639  -0.3126
6.549e+09  0.7641  -0.5571  0.008353  -0.04694  -0.03212  -0.03644  0.5244  -0.5272
6.55e+09  0.4251  -0.8136  -0.01698  0.004144  -0.05223  0.001553  0.3188  -0.7012
