# Hz S RI R 50
6.25e+09  0.7592  -0.6096  -0.005387  0.02718  0.01085  -0.028  0.1558  0.4937
6.251e+09  0.518  -0.8735  -0.02128  0.00216  -0.01131  0.05515  0.345  0.3983
6.252e+09  0.1563  -0.9469  0.00142  0.005076  -0.02409  -0.0108  0.4953  0.2683
6.254e+09  -0.1588  -0.988  0.01468  -0.00131  0.04296  -0.002057  0.5785  0.03412
6.255e+09  -0.4654  -0.8959  0.03251  -0.01519  -0.06678  -0.04773  0.5925  -0.2217
6.256e+09  -0.7532  -0.6162  0.01895  0.03945  0.03144  0.07819  0.4811  -0.4906
6.258e+09  -0.9395  -0.3143  -0.01093  -0.01356  0.0235  0.01816  0.3025  -0.6265
6.259e+09  -0.983  0.0706  -0.003901  -0.02339  -0.01354  -0.02329  0.052  -0.6963
6.26e+09  -0.9389  0.386  -0.02448  0.03186  -0.01971  -0.04033  -0.2661  -0.6245
6.261e+09  -0.7322  0.7606  0.02401  0.04507  -0.0129  -0.04073  -0.4364  -0.5398
6.262e+09  -0.3787  0.8703  -0.01585  0.01444  -0.001266  0.01106  -0.6171  -0.3688
6.264e+09  -0.02406  0.9955  0.009077  -0.007999  0.01853  0.01528  -0.6958  -0.1065
6.265e+09  0.2734  0.8789  0.0422  0.02968  -0.01402  0.02676  -0.6924  0.1366
6.266e+09  0.6042  0.7303  0.00719  0.01728  -0.02098  -0.05428  -0.6106  0.4018
6.268e+09  0.7971  0.536  -0.002212  0.01113  0.006048  -0.03009  -0.4192  0.5937
6.269e+09  0.9065  0.1985  -0.0297  -0.00378  -0.01915  0.00144  -0.2183  0.7425
6.27e+09  0.895  -0.1763  0.03429  -0.005159  -0.06894  -0.04969  0.04012  0.7393
6.271e+09  0.8102  -0.4189  0.01093  -0.01891  -0.000906  0.02653  0.3231  0.7022
6.272e+09  0.5793  -0.7551  -0.01429  -0.01316  -0.006953  0.006509  0.5164  0.5183
6.274e+09  0.3041  -0.9618  -0.02322  0.00428  0.03841  0.04445  0.6969  0.3006
6.275e+09  -0.06893  -0.9099  -0.03673  0.0006664  0.04178  0.003537  0.744  0.05022
6.276e+09  -0.4053  -0.8514  -0.02653  -0.007427  -0.04015  -0.03019  0.7455  -0.2369
6.278e+09  -0.7259  -0.6929  -0.01957  -0.01458  -0.005236  -0.02693  0.6076  -0.4377
6.279e+09  -0.8449  -0.4157  -2.851e-05  0.01305  0.0323  -0.01074  0.4342  -0.6513
6.28e+09  -0.9645  -0.03182  0.01091  -0.004869  0.0156  -0.02669  0.1823  -0.767
6.281e+09  -0.9208  0.2593  0.0003495  0.001003  0.04387  -0.05335  -0.114  -0.807
6.282e+09  -0.7164  0.581  -0.01792  -0.01751  0.0005308  -0.02445  -0.357  -0.7015
6.284e+09  -0.5376  0.8349  -0.003038  -0.006887  0.004715  0.06414  -0.6008  -0.5263
6.285e+09  -0.1846  0.9169  -0.04256  0.009996  0.07115  0.002203  -0.7054  -0.3084
6.286e+09  0.1793  0.9381  0.005083  -0.01194  0.0111  -0.04003  -0.7801  -0.04276
6.288e+09  0.5002  0.8443  -0.00772  -0.009439  0.01853  0.01045  -0.7447  0.246
6.289e+09  0.7144  0.5437  0.001476  -0.00622  0.04518  0.0184  -0.6001  0.4856
6.29e+09  0.8897  0.3027  -0.001761  0.01306  -0.04804  0.02113  -0.4108  0.6872
6.291e+09  0.9713  -0.04768  0.02281  -0.007787  -0.02948  -0.04296  -0.1456  0.7714
6.292e+09  0.8481  -0.3703  -0.007635  -0.001116  0.000662  -0.01755  0.1258  0.8024
6.294e+09  0.692  -0.7174  -0.005895  -0.004112  -0.0254  -0.02832  0.419  0.7221
6.295e+09  0.3962  -0.8704  0.02476  -0.01491  0.03367  0.001586  0.6063  0.5265
6.296e+09  0.01788  -0.9438  0.001753  -0.002419  0.001102  -0.007682  0.7657  0.2718
6.298e+09  -0.2569  -0.9112  0.007752  0.0405  -0.0316  -0.02083  0.828  -0.003351
6.299e+09  -0.5688  -0.7914  0.007498  0.01776  -0.01336  0.02896  0.7669  -0.2701
6.3e+09  -0.8063  -0.5286  0.005422  1.426e-06  0.03598  -0.003934  0.6269  -0.5468
6.301e+09  -0.9503  -0.1739  0.0006107  0.003144  0.03091  0.0002008  0.4172  -0.7068
6.302e+09  -0.9709  0.1759  0.00788  0.02041  -0.008439  0.02781  0.1917  -0.8322
6.304e+09  -0.8014  0.4518  -0.03585  -0.009923  -0.02336  0.001325  -0.1328  -0.8321
6.305e+09  -0.6128  0.7783  0.03392  0.002029  0.03821  -0.01772  -0.4292  -0.7339
6.306e+09  -0.2714  0.9341  0.01596  0.03676  -0.009931  -0.02358  -0.6662  -0.5434
6.308e+09  0.03255  1.011  0.00663  -0.005  0.02453  -0.01091  -0.8135  -0.3056
6.309e+09  0.4186  0.8896  -0.009843  0.03079  0.002467  -0.01284  -0.8356  -0.01226
6.31e+09  0.693  0.7449  -0.01885  0.03252  0.007939  -0.01845  -0.8365  0.2918
6.311e+09  0.8648  0.4316  -0.004451  0.02977  -0.03136  0.03279  -0.6674  0.5371
6.312e+09  0.9949  0.1039  -0.01791  0.003487  -0.008118  0.04635  -0.462  0.7401
6.314e+09  0.9202  -0.2696  0.0004036  -0.001211  0.009239  -0.002475  -0.153  0.8124
6.315e+09  0.8185  -0.5371  0.002976  -0.01807  -0.01677  0.04884  0.1531  0.8676
6.316e+09  0.5305  -0.8176  0.03966  -0.01441  -0.00357  -0.02704  0.4328  0.7576
6.318e+09  0.1675  -0.9296  0.01582  -0.009636  -0.02739  -0.05302  0.6982  0.5415
6.319e+09  -0.06836  -0.9433  -0.04534  -0.0374  0.02741  0.03874  0.802  0.3085
6.32e+09  -0.4559  -0.8665  0.03939  0.01688  -0.01995  -0.001801  0.8675  0.000359
6.321e+09  -0.7067  -0.6036  0.02507  -0.04628  0.01236  0.004123  0.8574  -0.291
6.322e+09  -0.9098  -0.4002  0.003675  -0.003768  -0.009822  -0.05591  0.6878  -0.5612
6.324e+09  -0.9323  -0.02823  -6.569e-05  -0.002023  -0.02617  0.04625  0.4476  -0.7953
6.325e+09  -0.9326  0.3295  0.01839  -0.02332  0.01595  0.004802  0.1469  -0.8431
6.326e+09  -0.6932  0.6291  -0.004369  -0.00329  -0.04243  -0.01517  -0.147  -0.9008
6.328e+09  -0.4421  0.8466  0.007246  0.03228  -0.01358  0.02538  -0.4535  -0.8077
6.329e+09  -0.1186  0.9461  -0.03297  -0.02506  -0.03001  -0.05671  -0.6904  -0.613
6.33e+09  0.2148  0.9447  0.02045  0.02491  0.0177  0.01042  -0.8573  -0.3322
6.331e+09  0.584  0.859  -0.04454  0.01145  0.01277  0.04959  -0.9247  -0.007606
6.332e+09  0.7894  0.6323  0.00617  0.01041  0.02353  -0.038  -0.8547  0.2513
6.334e+09  0.9508  0.2184  -0.005162  -0.003422  -0.01913  -0.007246  -0.7421  0.5534
6.335e+09  0.9914  -0.1243  -0.008023  0.02416  0.02774  -0.0228  -0.4752  0.8129
6.336e+09  0.9157  -0.4079  0.009214  0.01581  0.02349  -0.006556  -0.2069  0.8972
6.338e+09  0.7016  -0.7191  0.003695  -0.01946  -0.04186  0.007844  0.1342  0.9244
6.339e+09  0.3778  -0.892  -0.001205  -0.02272  -0.004067  -0.005235  0.4332  0.8516
6.34e+09  0.03652  -1.032  -0.003521  0.001156  -0.0311  -0.01657  0.7118  0.6279
6.341e+09  -0.3231  -0.9966  0.007535  0.0004972  -0.009745  -0.0393  0.8647  0.3436
6.342e+09  -0.6661  -0.802  -0.01429  -0.0003031  0.003636  0.01753  0.9436  0.07483
6.344e+09  -0.8949  -0.4992  -0.01453  -0.00441  0.01227  0.02883  0.8859  -0.2196
6.345e+09  -1.012  -0.137  0.005942  0.001711  -0.01239  -0.0363  0.7427  -0.5527
6.346e+09  -0.9833  0.2133  0.01987  -0.0495  -0.01795  -0.01857  0.4651  -0.8186
6.348e+09  -0.8588  0.5455  -0.003995  0.0008276  -0.01258  -0.01217  0.1837  -0.9246
6.349e+09  -0.5914  0.7859  0.01749  0.004576  0.001239  0.01253  -0.09606  -0.9323
6.35e+09  -0.3081  0.9994  -0.001565  0.003588  -0.001524  -0.08689  -0.4031  -0.824
6.351e+09  0.07693  1.024  -0.008644  0.01086  -0.02275  0.04224  -0.6733  -0.6457
6.352e+09  0.4177  0.9667  0.0248  0.02109  -0.0007655  0.00697  -0.8738  -0.3858
6.354e+09  0.7543  0.7405  -0.01496  -0.008404  -0.02197  0.002146  -0.948  -0.08995
6.355e+09  0.9398  0.4167  -0.02961  0.01908  0.0229  0.01094  -0.9265  0.2653
6.356e+09  1.053  0.1058  0.02686  -0.007039  0.004478  -0.02376  -0.7784  0.529
6.358e+09  0.9616  -0.3291  -0.01295  0.0288  -0.02767  -0.01539  -0.5431  0.825
6.359e+09  0.8133  -0.6134  -0.01919  0.01652  0.04991  0.01863  -0.2161  0.8874
6.36e+09  0.5696  -0.889  0.006172  0.01367  0.01065  0.005801  0.0863  0.9035
6.361e+09  0.1675  -1.045  0.03116  0.007871  -0.003821  -0.05745  0.3875  0.8225
6.362e+09  -0.1994  -1.067  -0.0005833  -0.02791  -0.00388  0.01483  0.682  0.636
6.364e+09  -0.4943  -0.9456  -0.02157  0.002633  0.03533  0.03673  0.8568  0.4155
6.365e+09  -0.8583  -0.6638  -0.01772  0.02425  -0.04391  0.0009019  0.9583  0.05496
6.366e+09  -1.004  -0.2742  0.02973  0.03394  -0.006862  0.001262  0.8883  -0.197
6.368e+09  -1.041  0.08534  0.03324  -0.00156  0.01493  -0.05363  0.7736  -0.5242
6.369e+09  -0.9671  0.4456  -0.006959  -0.01955  -0.02301  0.02618  0.5414  -0.7874
6.37e+09  -0.7365  0.7108  0.003649  0.01282  0.01181  -0.003971  0.2454  -0.9205
6.371e+09  -0.4325  1.029  0.02376  0.0251  -0.02359  -0.01603  -0.08826  -0.9358
6.372e+09  -0.01501  1.125  0.02068  -0.02631  -0.01275  -0.02093  -0.38  -0.8572
6.374e+09  0.3631  1.068  -0.01005  0.01767  0.003227  -0.02421  -0.6824  -0.6773
6.375e+09  0.7344  0.8661  -0.05032  0.01967  0.02376  0.04102  -0.8606  -0.3998
6.376e+09  0.9298  0.5977  0.001572  -0.005722  0.005452  0.01045  -0.9339  -0.05389
6.378e+09  1.117  0.1883  -0.00544  -0.01015  0.0007668  -0.01522  -0.9334  0.2294
6.379e+09  1.036  -0.2419  0.007219  0.001297  -0.0304  -0.04871  -0.8055  0.5617
6.38e+09  0.9617  -0.5867  0.01649  0.01196  -0.05459  -0.06568  -0.5361  0.7833
6.381e+09  0.6397  -0.9285  -0.001602  0.007166  0.008403  0.001917  -0.2678  0.9473
6.382e+09  0.3314  -1.087  -0.04849  0.002161  0.04506  0.05666  0.06143  0.9122
6.384e+09  -0.1322  -1.134  0.001673  -0.0501  -0.008965  0.006755  0.3446  0.8648
6.385e+09  -0.5089  -0.9781  -0.01235  -0.01797  0.008457  0.01181  0.6305  0.6969
6.386e+09  -0.8715  -0.7321  0.026  -0.02917  -0.02081  -0.02213  0.8397  0.4486
6.388e+09  -1.046  -0.4272  0.007356  -0.05726  -0.01087  0.0163  0.9236  0.1711
6.389e+09  -1.167  0.03416  -0.01931  0.01121  0.009627  0.05475  0.9113  -0.1678
6.39e+09  -1.056  0.4334  -0.005647  0.006003  0.01604  0.004544  0.8082  -0.4522
6.391e+09  -0.8682  0.7828  0.03258  0.04197  -0.02967  0.009375  0.5822  -0.7272
6.392e+09  -0.497  1.031  0.02498  0.001042  0.01984  -0.03035  0.2839  -0.8572
6.394e+09  -0.09374  1.176  -0.009006  -0.01984  -0.04538  0.01331  -0.01366  -0.9511
6.395e+09  0.2761  1.16  0.02786  -0.03012  0.05587  0.0314  -0.3215  -0.8901
6.396e+09  0.7179  0.9213  -0.02274  0.02482  -0.01719  0.0178  -0.6034  -0.6641
6.398e+09  1.011  0.6236  -0.02452  -0.04466  0.002386  0.00317  -0.8496  -0.4218
6.399e+09  1.146  0.1613  -0.02313  -0.009406  -0.02234  0.01907  -0.8438  -0.0647
6.4e+09  1.232  -0.1977  0.02142  0.00162  0.006785  -0.04176  -0.9396  0.1566
6.401e+09  1.006  -0.6369  0.02212  -0.01265  -0.03293  0.02901  -0.7871  0.4573
6.402e+09  0.7261  -0.9436  -0.005835  -0.002463  0.01398  0.00185  -0.5941  0.7244
6.404e+09  0.3431  -1.171  0.006906  -0.01019  0.02112  -0.007708  -0.3037  0.8366
6.405e+09  -0.1437  -1.153  0.006902  -0.007732  -0.0114  -0.0109  -0.02643  0.9224
6.406e+09  -0.4848  -1.068  0.01195  -0.013  0.02108  0.003792  0.2973  0.8704
6.408e+09  -0.922  -0.8387  -0.02585  0.02524  -0.02389  0.04596  0.5954  0.7309
6.409e+09  -1.149  -0.4615  -0.01501  -0.01693  0.02698  0.05005  0.7857  0.4692
6.41e+09  -1.247  -0.002724  -0.00303  -2.965e-05  -0.03713  -0.01524  0.9259  0.1773
6.411e+09  -1.113  0.3948  0.03533  -0.01218  0.02253  0.04261  0.8805  -0.1139
6.412e+09  -0.8623  0.7803  -0.0009251  0.03883  0.02508  -0.01996  0.808  -0.4281
6.414e+09  -0.5261  1.099  0.029  -0.0022  -0.02032  -0.002012  0.6027  -0.6807
6.415e+09  -0.08312  1.217  -0.03183  -0.01562  0.01651  0.01184  0.3012  -0.8266
6.416e+09  0.393  1.181  -0.02631  -0.009773  -0.05799  -0.0009604  0.01228  -0.8841
6.418e+09  0.7946  0.9532  0.01617  0.02363  0.02335  0.01509  -0.2658  -0.8558
6.419e+09  1.03  0.627  -0.019  -0.02278  -0.0687  -0.005864  -0.5553  -0.6982
6.42e+09  1.195  0.1583  -0.0134  -0.009484  -0.02043  -0.01958  -0.7609  -0.4757
6.421e+09  1.188  -0.2547  0.01232  -0.02715  0.03359  -0.00602  -0.8305  -0.2125
6.422e+09  1.021  -0.6752  0.04688  0.02186  0.01943  -0.004548  -0.8783  0.08366
6.424e+09  0.6772  -0.9947  -0.01084  -0.01209  0.07989  0.0119  -0.7677  0.4407
6.425e+09  0.3506  -1.188  0.02446  -0.01735  0.009433  -0.00428  -0.5913  0.6328
6.426e+09  -0.1259  -1.168  -0.01489  -0.002322  0.03734  -0.02217  -0.3492  0.8266
6.428e+09  -0.6417  -1.108  0.03329  -0.02172  0.0007426  -0.02053  -0.03954  0.9096
6.429e+09  -0.8516  -0.7829  -0.01211  -0.02594  -0.00485  0.02773  0.2316  0.7639
6.43e+09  -1.138  -0.389  0.05276  0.01405  -0.01025  0.02459  0.4973  0.7236
6.431e+09  -1.18  0.0454  0.01825  -0.03084  0.02505  -0.03688  0.7489  0.4797
6.432e+09  -1.054  0.4879  0.006755  -0.001687  0.005557  0.01358  0.8406  0.2437
6.434e+09  -0.8475  0.8548  -0.007112  0.01742  -0.004862  -0.0202  0.8485  -0.1321
6.435e+09  -0.4991  1.104  0.02485  0.03748  0.02905  -0.006817  0.8054  -0.3557
6.436e+09  -0.0497  1.216  -0.0268  0.01096  0.008217  0.01544  0.5905  -0.5814
6.438e+09  0.354  1.103  -0.01359  -0.002008  0.01254  0.01042  0.3696  -0.7944
6.439e+09  0.7365  0.9012  0.0004586  -0.01601  -0.01728  0.07584  0.05635  -0.8923
6.44e+09  0.9424  0.5299  0.01932  0.009528  0.05316  -0.007167  -0.2211  -0.8403
6.441e+09  1.169  0.1889  0.02595  -0.005889  0.02427  0.04787  -0.5235  -0.6814
6.442e+09  1.125  -0.2329  -0.0605  0.0002774  -0.01938  -0.004257  -0.6983  -0.4848
6.444e+09  0.9295  -0.6466  -0.007041  -0.02306  -0.01117  0.03481  -0.7847  -0.2289
6.445e+09  0.6667  -0.8913  0.01191  -0.04234  0.002447  -0.04161  -0.8335  0.05087
6.446e+09  0.2918  -1.08  -0.03567  -0.01311  -0.005795  -0.003413  -0.7575  0.3667
6.448e+09  -0.09802  -1.108  -0.01122  0.007  -0.02253  0.002647  -0.6174  0.6113
6.449e+09  -0.4327  -1.031  0.03214  -0.0004498  -0.03516  0.001664  -0.3706  0.7805
6.45e+09  -0.8254  -0.759  -0.0001937  -0.04263  0.002767  -0.01907  -0.07142  0.8301
6.451e+09  -1.005  -0.4328  -0.03275  -0.009914  -0.038  -0.006813  0.2332  0.7989
6.452e+09  -1.067  -0.02118  0.02407  0.003527  -0.04466  -0.02828  0.4702  0.7001
6.454e+09  -1.006  0.3329  0.004956  0.00558  -0.0395  0.02762  0.698  0.4289
6.455e+09  -0.8359  0.693  -0.01412  -0.01418  -0.05008  -0.006213  0.7729  0.2015
6.456e+09  -0.4979  0.9398  0.01499  0.0005575  -0.02475  -0.04091  0.8084  -0.04288
6.458e+09  -0.09409  1.028  0.007475  0.04508  -0.005991  -0.01592  0.7371  -0.362
6.459e+09  0.2563  1.004  0.00436  0.009151  0.01995  0.01805  0.5627  -0.5687
6.46e+09  0.5882  0.8594  -0.001397  0.003905  -0.04696  0.006489  0.3698  -0.7273
6.461e+09  0.804  0.5946  0.0181  -0.05653  0.04998  -0.02247  0.06494  -0.8309
6.462e+09  0.9993  0.2797  0.005056  -0.02423  -0.01152  -0.009795  -0.1876  -0.7383
6.464e+09  0.9886  -0.07648  0.01871  -0.02227  0.004512  -0.01918  -0.4553  -0.6547
6.465e+09  0.9095  -0.4331  0.01316  0.01751  -0.0469  -0.008297  -0.6513  -0.4201
6.466e+09  0.6681  -0.756  0.0289  -0.006481  -0.02364  0.04818  -0.7758  -0.2081
6.468e+09  0.3902  -0.9329  0.01676  0.01115  0.0213  0.01016  -0.8252  0.0738
6.469e+09  0.05891  -0.9672  -0.008078  -0.03243  -0.01069  -0.005724  -0.7291  0.3573
6.47e+09  -0.3424  -0.9606  -0.009735  0.02995  -0.009329  0.03334  -0.5818  0.6019
6.471e+09  -0.6874  -0.8112  0.02544  -0.00313  -0.03216  0.00381  -0.2787  0.7294
6.472e+09  -0.8928  -0.5241  -0.02066  0.01904  0.04369  -0.01076  -0.09116  0.8085
6.474e+09  -0.9807  -0.1751  0.00907  -0.04604  -0.003249  0.0158  0.1904  0.7644
6.475e+09  -0.9895  0.2126  0.01792  0.01965  -0.01864  0.004174  0.4839  0.6555
6.476e+09  -0.8966  0.4553  0.03  -0.02024  -0.02688  0.02758  0.6799  0.428
6.478e+09  -0.627  0.8236  -0.007076  0.01484  0.06067  -0.02919  0.7557  0.2169
6.479e+09  -0.2971  0.902  0.03014  0.005028  0.01467  -0.05691  0.7751  -0.06097
6.48e+09  0.04702  0.9933  0.001103  -0.01302  -0.02371  0.04692  0.6607  -0.297
6.481e+09  0.4096  0.9565  -0.005759  -0.006328  -0.005685  0.01363  0.555  -0.5053
6.482e+09  0.666  0.7345  -0.005944  0.04384  0.04091  -0.02737  0.3597  -0.7094
6.484e+09  0.8197  0.4845  0.002588  0.02468  -0.01831  0.005364  0.05878  -0.7447
6.485e+09  0.9811  0.1072  0.0126  -0.01689  -0.01507  -0.01676  -0.2093  -0.7338
6.486e+09  0.9611  -0.18  0.003905  0.003834  0.02492  0.0449  -0.4517  -0.5589
6.488e+09  0.4432  -1.173  0.00516  -0.02675  0.7015  -0.2757  -0.6155  -0.4422
6.489e+09  0.5936  -0.7826  0.01649  0.002211  0.02781  0.07398  -0.7668  -0.1383
6.49e+09  0.286  -0.9275  0.04239  -0.04933  -0.00397  -0.001585  -0.7769  0.002673
6.491e+09  -0.03523  -0.9562  0.0002592  -0.01461  0.01406  -0.03038  -0.6602  0.3243
6.492e+09  -0.394  -0.905  -0.01119  -0.02407  0.01718  0.01712  -0.5711  0.5443
6.494e+09  -0.7288  -0.59  4.415e-05  -0.001657  0.01211  -0.07562  -0.2942  0.6988
6.495e+09  -0.9111  -0.4233  0.01196  -0.005204  0.005626  -0.01956  -0.0284  0.7766
6.496e+09  -0.9942  -0.01421  -0.003476  0.01182  0.01714  -0.02457  0.2109  0.75
6.498e+09  -0.932  0.2426  -0.0371  0.007989  0.009576  0.01708  0.4745  0.6382
6.499e+09  -0.7741  0.5689  -0.02018  -0.01996  0.02582  0.02704  0.6587  0.4166
6.5e+09  -0.8754  0.2892  -0.02066  -0.009314  0.002244  0.04463  0.7844  0.1306
6.501e+09  -0.208  0.9363  0.0217  0.01129  -0.02336  -0.03357  0.7328  -0.1035
6.502e+09  0.1195  0.9876  0.00579  -0.02435  -0.001479  0.03569  0.6826  -0.3646
6.504e+09  0.4086  0.8961  0.02513  -0.01181  -0.01444  -0.02567  0.5035  -0.549
6.505e+09  0.7158  0.6815  0.01131  -0.02132  -0.0181  0.06603  0.2959  -0.711
6.506e+09  0.8953  0.3488  0.0008738  -0.02623  -0.03069  -0.05711  -0.002348  -0.7516
6.508e+09  0.9928  -0.001466  0.02005  -0.004768  -0.02255  -0.001429  -0.2679  -0.751
6.509e+09  0.9374  -0.3097  -0.02192  0.001923  -0.0168  -0.01982  -0.486  -0.5859
6.51e+09  0.7763  -0.6  0.01339  0.007949  0.01803  0.01612  -0.6703  -0.3945
6.511e+09  0.5301  -0.8333  0.03972  -0.01828  0.002065  0.007558  -0.7638  -0.1593
6.512e+09  0.2176  -0.9424  -0.0419  0.002696  -0.01847  -0.0002971  -0.7337  0.1673
6.514e+09  -0.1893  -0.9805  0.03419  -0.006215  -0.03979  -0.03672  -0.6587  0.3771
6.515e+09  -0.4582  -0.8319  0.01899  -0.003162  0.01185  -0.02749  -0.4787  0.5813
6.516e+09  -0.7494  -0.648  0.01015  0.008425  -0.02876  0.0007694  -0.2276  0.743
6.518e+09  -0.9443  -0.3689  -0.04247  -0.02366  -0.01306  0.04525  0.03644  0.7586
6.519e+09  -1.044  -0.0009565  -0.00869  0.02273  0.003336  -2.126e-05  0.2592  0.6855
6.52e+09  -0.9456  0.3272  -0.02424  -0.004946  -0.03599  -0.05987  0.4846  0.5464
6.521e+09  -0.8172  0.6391  -0.01776  -0.02987  -0.03196  0.003004  0.6481  0.3407
6.522e+09  -0.509  0.8898  -0.01719  -0.0171  0.01147  -0.01815  0.7164  0.1248
6.524e+09  -0.1431  1.053  0.003108  0.02716  -0.03982  0.02311  0.7289  -0.1876
6.525e+09  0.2117  1.024  0.007742  0.01992  0.001994  -0.02533  0.5996  -0.4021
6.526e+09  0.5706  0.8674  0.01515  -0.0008214  -0.00836  -0.04876  0.4292  -0.5815
6.528e+09  0.8295  0.6051  0.002919  -0.01425  -0.001803  0.02319  0.1988  -0.6714
6.529e+09  0.9484  0.3122  0.03631  0.04408  0.03899  -0.0392  -0.02877  -0.694
6.53e+09  1.045  -0.05276  -0.03117  0.01182  0.01328  0.002766  -0.3223  -0.617
6.531e+09  0.9694  -0.3811  -0.01377  -0.0126  -0.0127  -0.01209  -0.4724  -0.4639
6.532e+09  0.7731  -0.7486  0.007062  0.001414  0.04173  0.01509  -0.6056  -0.2853
6.534e+09  0.5239  -0.9414  -0.01126  -0.001895  -0.04035  -0.01078  -0.6635  -0.08163
6.535e+09  0.1181  -1.064  0.001861  0.03911  -0.04279  -0.007579  -0.6328  0.1205
6.536e+09  -0.2406  -1.025  -0.0169  0.01127  0.02031  -0.02543  -0.5427  0.324
6.538e+09  -0.6057  -0.8141  -0.01674  -0.0242  0.04518  -0.02062  -0.4811  0.4639
6.539e+09  -0.951  -0.6262  -0.03405  -0.00426  -0.03417  -0.04278  -0.2788  0.617
6.54e+09  -1.066  -0.3045  0.008285  -0.003295  0.05295  -0.02033  -0.037  0.6668
6.541e+09  -1.153  0.1794  -0.01784  -0.006343  0.02602  0.002933  0.1492  0.6366
6.542e+09  -0.948  0.4983  -0.003599  0.01033  -0.004578  -0.006995  0.4129  0.5394
6.544e+09  -0.7379  0.8303  0.003876  -0.0253  -0.03772  -0.04888  0.5918  0.4207
6.545e+09  -0.379  1.072  0.01269  0.01058  0.04489  0.02305  0.7015  0.1681
6.546e+09  -0.08882  1.151  -0.03513  -0.009366  -0.01473  -0.0319  0.7351  -0.06198
6.548e+09  0.383  1.082  0.003627  0.04002  0.02145  0.01339  0.6574  -0.3376
6.549e+09  0.7551  0.873  -0.01826  -0.006855  -3.665e-06  0.02547  0.5001  -0.5315
6.55e+09  1.008  0.5514  0.004128  -0.01694  0.01982  -0.0248  0.3246  -0.6748
6.551e+09  1.072  0.2104  -0.006786  -0.01111  0.001361  -0.02914  0.04779  -0.7342
