# Hz S RI R 50
6.25e+09  -0.3464  0.7157  -0.001972  -0.01557  0.000928  -0.025  0.1352  0.4635
6.251e+09  -0.1362  0.8798  0.003821  -0.01271  -0.01873  -0.02082  0.3478  0.4047
6.252e+09  0.2176  0.763  -0.001486  -0.005272  0.03062  0.01211  0.504  0.2273
6.254e+09  0.4803  0.691  0.004325  0.01064  0.01326  -0.004519  0.618  -0.00884
6.255e+09  0.689  0.508  -0.004182  -0.00451  -0.01787  -0.003271  0.6129  -0.2402
6.256e+09  0.8259  0.186  -0.01936  -0.02336  -0.04567  -0.01005  0.4614  -0.4682
6.258e+09  0.7886  -0.05775  -0.0317  0.0128  0.0001589  -0.01419  0.2983  -0.5883
6.259e+09  0.7223  -0.3501  0.00661  0.02024  -0.05833  -0.03996  0.07195  -0.6587
6.26e+09  0.528  -0.5718  0.00717  -0.01401  -0.046  -0.01658  -0.186  -0.6516
6.261e+09  0.3595  -0.7733  0.01062  -0.01568  -0.04709  0.03886  -0.4334  -0.5562
6.262e+09  0.06569  -0.8399  0.0111  0.008493  -0.01597  0.04891  -0.6166  -0.3468
6.264e+09  -0.2183  -0.813  0.008898  -0.02054  -0.0183  0.05617  -0.6782  -0.1322
6.265e+09  -0.4992  -0.6464  0.01287  -0.03693  -0.03414  -0.01829  -0.726  0.1384
6.266e+09  -0.6653  -0.4776  0.03917  -0.001796  -0.02857  0.01753  -0.635  0.3885
6.268e+09  -0.8159  -0.2173  -0.007426  0.0151  0.03398  0.01779  -0.43  0.6261
6.269e+09  -0.8439  0.1092  0.006388  0.01676  -0.01387  -0.02031  -0.2092  0.7552
6.27e+09  -0.7285  0.4  0.002646  0.01154  0.0007299  0.07447  0.06478  0.7298
6.271e+09  -0.5751  0.5477  -0.03654  0.004861  -0.06321  -0.01393  0.3247  0.6429
6.272e+09  -0.3194  0.7775  -0.006948  0.0259  0.001275  0.03606  0.5387  0.5242
6.274e+09  -0.1103  0.7884  0.02199  -0.00758  0.02513  -0.02253  0.7027  0.3571
6.275e+09  0.2554  0.7894  0.01924  -0.02709  -0.007204  0.0394  0.7562  0.03929
6.276e+09  0.4501  0.6538  0.0132  -0.01265  -0.05142  0.006759  0.7559  -0.2138
6.278e+09  0.6905  0.4641  -0.006891  0.01704  0.01835  0.009225  0.6235  -0.4868
6.279e+09  0.8201  0.1503  -0.01426  -0.008912  0.03298  0.01684  0.4092  -0.6392
6.28e+09  0.7829  -0.09369  -0.007868  -0.003275  0.04065  -0.07301  0.1418  -0.7671
6.281e+09  0.724  -0.3187  0.008762  -0.008447  0.02336  0.01315  -0.09269  -0.7718
6.282e+09  0.5929  -0.6212  0.01672  -0.01203  0.02386  -0.01861  -0.3734  -0.7028
6.284e+09  0.3039  -0.705  0.01773  -0.0002703  0.01008  0.01679  -0.5537  -0.5096
6.285e+09  0.01029  -0.8112  -0.01927  -0.006626  -0.06539  -0.01139  -0.7156  -0.2869
6.286e+09  -0.2118  -0.7826  -0.01375  0.02272  0.04815  -0.01402  -0.7735  -0.01477
6.288e+09  -0.4832  -0.6596  0.01612  -0.003513  0.01785  0.004281  -0.7394  0.2436
6.289e+09  -0.6905  -0.4501  0.02062  -0.02419  -0.0041  -0.009378  -0.6241  0.4911
6.29e+09  -0.7762  -0.1023  0.0165  -0.01039  -0.04736  0.02855  -0.4188  0.6696
6.291e+09  -0.8161  0.08929  0.02115  -0.02626  -0.01929  0.002056  -0.1834  0.7959
6.292e+09  -0.6891  0.382  0.02925  0.02333  -0.002212  0.01569  0.1148  0.7802
6.294e+09  -0.541  0.6103  0.009575  0.02579  -0.01161  -0.005413  0.3788  0.7028
6.295e+09  -0.3114  0.753  0.01524  0.002992  0.009192  0.02207  0.5928  0.5517
6.296e+09  -0.00376  0.7739  0.02167  0.002397  0.002397  -0.06992  0.7861  0.3045
6.298e+09  0.2718  0.804  0.002087  0.02853  0.02244  -0.03656  0.8679  0.003685
6.299e+09  0.4869  0.6787  0.009559  -0.03605  0.01178  0.05561  0.7484  -0.2799
6.3e+09  0.6959  0.3971  0.005079  -0.02657  0.02142  -0.01416  0.6605  -0.5434
6.301e+09  0.8623  0.1366  -0.007739  -0.00389  -0.0007269  0.03417  0.4244  -0.72
6.302e+09  0.7697  -0.07102  -0.001696  -0.003912  -0.03227  0.001414  0.1649  -0.8514
6.304e+09  0.7242  -0.368  0.02045  -0.01634  -0.01846  -0.02078  -0.1099  -0.8259
6.305e+09  0.5075  -0.6347  -0.008388  0.0136  -0.02122  -0.0319  -0.3922  -0.7336
6.306e+09  0.2304  -0.7989  -0.007301  -0.04347  0.0282  0.08546  -0.6544  -0.5541
6.308e+09  -0.03805  -0.766  0.03091  0.03986  0.01959  -0.009419  -0.8  -0.2994
6.309e+09  -0.2807  -0.7254  0.01126  -0.005514  0.002422  -0.008435  -0.8815  -0.003246
6.31e+09  -0.515  -0.5721  0.02235  -0.02519  -0.005102  0.04383  -0.8293  0.2998
6.311e+09  -0.7185  -0.4072  0.00466  0.02028  -0.05469  -0.007947  -0.6692  0.565
6.312e+09  -0.811  -0.1638  0.002569  -0.04842  0.009823  -0.009619  -0.4618  0.7531
6.314e+09  -0.767  0.1757  -0.03416  0.01227  -0.004307  0.02847  -0.1722  0.8575
6.315e+09  -0.6513  0.4662  -0.01267  -0.01773  0.008614  0.06811  0.1329  0.8743
6.316e+09  -0.4721  0.6638  0.02213  0.02686  -0.0506  0.02549  0.4321  0.7528
6.318e+09  -0.2903  0.793  -0.02167  0.01036  -0.009489  0.03669  0.6186  0.5762
6.319e+09  0.1031  0.7961  -0.01687  0.003411  -0.04161  -0.02651  0.7938  0.2867
6.32e+09  0.2986  0.748  -0.04164  -0.01254  0.003296  0.004103  0.926  -0.01687
6.321e+09  0.6254  0.6037  0.01031  0.01222  0.02369  7.335e-05  0.8318  -0.3011
6.322e+09  0.7639  0.3686  -0.01952  -0.03561  0.064  0.06564  0.6922  -0.564
6.324e+09  0.8249  0.04011  0.006297  0.003085  -0.000606  0.04627  0.4798  -0.7818
6.325e+09  0.8252  -0.2295  0.007785  -0.05314  0.005149  -0.01742  0.1933  -0.8671
6.326e+09  0.6824  -0.5541  -0.0418  -0.007527  -0.006266  -0.00853  -0.1216  -0.8772
6.328e+09  0.4696  -0.6281  -0.001845  -0.04109  0.001244  -0.005325  -0.4419  -0.7917
6.329e+09  0.2481  -0.8278  -0.002467  0.007731  -0.01168  -0.002465  -0.6705  -0.6376
6.33e+09  -0.08082  -0.8107  -0.006713  0.01982  0.0418  0.0335  -0.8429  -0.3221
6.331e+09  -0.3775  -0.6966  0.004639  -0.01411  0.009072  -0.03991  -0.9127  -0.02583
6.332e+09  -0.6099  -0.519  -0.018  -0.01237  -0.0159  0.003598  -0.9086  0.3024
6.334e+09  -0.8083  -0.3157  -0.0231  -0.01218  0.01392  0.0297  -0.7188  0.5531
6.335e+09  -0.8073  0.004253  0.01469  -0.03181  0.03529  0.004866  -0.4857  0.7977
6.336e+09  -0.7839  0.2715  0.01562  0.02283  -0.0005964  -0.02307  -0.2099  0.8946
6.338e+09  -0.6494  0.5516  -0.01686  -0.003306  0.03633  0.05023  0.1288  0.9202
6.339e+09  -0.4064  0.7063  -0.01849  -0.006277  0.01415  -0.01767  0.4341  0.8151
6.34e+09  -0.1119  0.8544  -0.001548  -0.01091  0.01949  -0.00499  0.6784  0.6322
6.341e+09  0.1402  0.8317  0.01056  0.006121  -0.007151  0.08054  0.8473  0.3592
6.342e+09  0.418  0.7116  -0.01542  0.03098  -0.004392  -0.002748  0.9159  0.06353
6.344e+09  0.6558  0.4895  -0.01112  0.04279  -0.03531  0.0008794  0.8892  -0.2751
6.345e+09  0.8235  0.3005  -0.004689  -0.02125  -0.006836  -0.0173  0.7281  -0.5414
6.346e+09  0.8645  -0.01008  -0.004496  -0.02728  -0.01599  0.004366  0.5032  -0.7756
6.348e+09  0.7737  -0.3263  -0.04344  -0.02325  0.02083  0.008081  0.2316  -0.9019
6.349e+09  0.6152  -0.5551  -0.02771  0.01339  0.01832  0.01019  -0.1284  -0.921
6.35e+09  0.4189  -0.7598  -0.01553  -0.006174  0.02406  -0.02759  -0.4637  -0.8533
6.351e+09  0.1197  -0.8349  0.01063  0.001919  -0.01626  0.02664  -0.7021  -0.6551
6.352e+09  -0.1974  -0.8725  0.01066  -0.00926  0.01885  0.01169  -0.8491  -0.3921
6.354e+09  -0.5104  -0.7251  0.01207  -0.02386  0.01385  0.02935  -0.9121  -0.08438
6.355e+09  -0.6445  -0.5203  -0.01914  -0.02506  0.03585  -0.01343  -0.9082  0.2333
6.356e+09  -0.8544  -0.2207  0.02141  0.00451  -0.04525  0.01266  -0.756  0.5609
6.358e+09  -0.8171  0.1335  0.006913  -0.005676  0.0309  -0.02061  -0.5126  0.7845
6.359e+09  -0.7628  0.3582  -0.00981  0.01105  0.004763  0.03683  -0.1837  0.9219
6.36e+09  -0.5866  0.6206  0.003143  -0.01177  -0.02309  0.00528  0.07394  0.9303
6.361e+09  -0.3535  0.8041  -0.02582  -0.008179  0.04185  0.00132  0.4338  0.8491
6.362e+09  -0.08196  0.8593  -0.002978  0.01501  -0.02038  0.005675  0.6813  0.6458
6.364e+09  0.2591  0.8583  0.03561  0.03387  -0.02665  0.005796  0.8402  0.388
6.365e+09  0.5107  0.717  0.004614  0.02413  -0.00754  0.03115  0.9482  0.08076
6.366e+09  0.6994  0.4806  0.03456  -0.002465  -0.001313  0.04427  0.9131  -0.2708
6.368e+09  0.8928  0.1629  0.001714  -0.0375  -0.01564  0.04294  0.7241  -0.5474
6.369e+09  0.8344  -0.138  -0.001641  -0.002866  0.02174  0.002777  0.5723  -0.7952
6.37e+09  0.7339  -0.4215  0.0295  0.02842  -0.01531  -0.01454  0.2358  -0.918
6.371e+09  0.5359  -0.673  0.01001  0.01396  0.02959  0.002026  -0.06587  -0.9738
6.372e+09  0.3048  -0.8475  0.0004877  -0.00825  -0.02582  -0.02334  -0.4301  -0.8606
6.374e+09  -0.01173  -0.8434  0.01386  -0.02216  0.04205  -0.004599  -0.6383  -0.6726
6.375e+09  -0.3084  -0.8308  0.01461  0.004568  -0.03028  -0.000183  -0.8619  -0.4092
6.376e+09  -0.5273  -0.6704  -0.01487  -0.01908  -0.04816  0.05071  -0.9408  -0.123
6.378e+09  -0.7498  -0.4293  0.007313  0.003906  -0.05267  0.01115  -0.9063  0.2174
6.379e+09  -0.8458  -0.1131  0.01537  0.001545  -0.01847  0.002853  -0.7775  0.5053
6.38e+09  -0.8242  0.1931  -0.02307  -0.02395  -0.04537  -0.001396  -0.5603  0.7657
6.381e+09  -0.7478  0.4905  0.0009895  0.006891  -0.01735  -0.009682  -0.279  0.9143
6.382e+09  -0.5095  0.7321  0.0241  -0.01561  -0.009542  0.03193  0.04629  0.9167
6.384e+09  -0.2786  0.8302  0.03283  -0.06559  -0.02543  0.01776  0.3631  0.8221
6.385e+09  0.04006  0.845  -0.01251  0.01949  -0.01978  -0.01401  0.6512  0.6794
6.386e+09  0.3475  0.8333  -0.01263  0.005428  -0.007395  0.04317  0.8524  0.4576
6.388e+09  0.5746  0.5983  -0.001657  -0.004238  -0.003478  0.007685  0.9016  0.1256
6.389e+09  0.7622  0.3902  -0.003428  0.01255  0.02466  0.001139  0.8972  -0.2022
6.39e+09  0.8625  0.1358  -0.01312  0.001165  0.06788  -0.0001037  0.7805  -0.5119
6.391e+09  0.8838  -0.2358  -0.007799  -0.001275  0.01832  0.03158  0.5799  -0.7459
6.392e+09  0.7129  -0.4898  -0.04947  0.01825  -0.01825  -0.006016  0.2584  -0.8888
6.394e+09  0.478  -0.6903  0.009407  -0.005622  -0.01588  -0.009313  -0.01404  -0.8976
6.395e+09  0.2155  -0.8455  -0.01632  -0.008552  -0.03382  -0.03989  -0.3286  -0.8987
6.396e+09  -0.05831  -0.8255  0.002557  -0.02849  0.008283  0.02903  -0.6189  -0.6905
6.398e+09  -0.352  -0.7682  0.01734  0.01264  0.01313  -0.03864  -0.7966  -0.4472
6.399e+09  -0.6273  -0.5817  0.03511  -0.003722  -0.0335  0.02003  -0.8939  -0.1249
6.4e+09  -0.8012  -0.3849  0.03491  -0.01198  0.01209  -0.01633  -0.9258  0.1792
6.401e+09  -0.8396  -0.06724  0.01621  0.0326  0.03177  0.05353  -0.7741  0.4737
6.402e+09  -0.8328  0.2411  -0.02704  -0.003533  0.0002361  -0.02187  -0.5711  0.7478
6.404e+09  -0.6458  0.5625  0.02094  0.01507  0.01119  -0.01957  -0.29  0.8422
6.405e+09  -0.4975  0.6678  -0.01282  0.01741  0.05373  -0.0362  0.004851  0.9562
6.406e+09  -0.1345  0.8598  0.008833  0.01536  -0.01246  0.01727  0.3388  0.8791
6.408e+09  0.09055  0.8318  0.03837  -0.02967  -0.02186  -0.004843  0.5512  0.7058
6.409e+09  0.3953  0.8073  -0.03105  0.001189  0.005538  0.01706  0.8043  0.4313
6.41e+09  0.6097  0.5785  0.011  0.009222  -0.03104  -0.003877  0.8661  0.1786
6.411e+09  0.8033  0.3027  -0.0077  -0.05843  0.02055  0.00286  0.9171  -0.1159
6.412e+09  0.8686  0.02003  -0.0136  -0.03506  0.00189  0.007356  0.7496  -0.4589
6.414e+09  0.8285  -0.2687  -0.01304  0.02714  -0.00276  -0.005866  0.604  -0.6547
6.415e+09  0.6515  -0.4926  0.01183  -0.02171  -0.03653  0.03939  0.3091  -0.8049
6.416e+09  0.4834  -0.697  0.01467  0.0001665  0.004162  -0.02231  0.04606  -0.9289
6.418e+09  0.2167  -0.8383  -0.03609  -0.04357  0.02041  -0.01998  -0.2367  -0.8862
6.419e+09  -0.1461  -0.896  0.01472  0.04532  -0.03122  -0.03455  -0.5361  -0.7282
6.42e+09  -0.3866  -0.728  0.01508  -0.01678  -0.01836  -0.02036  -0.7677  -0.4508
6.421e+09  -0.5992  -0.5548  -0.00648  0.009604  -0.04272  -0.03334  -0.8633  -0.2023
6.422e+09  -0.8112  -0.3117  0.005312  -0.00764  0.03635  -0.004373  -0.8366  0.182
6.424e+09  -0.8033  -0.01441  -0.01929  0.01119  0.02397  0.01027  -0.7614  0.4356
6.425e+09  -0.7944  0.2225  -0.0191  -0.0566  0.01052  -0.007481  -0.6012  0.66
6.426e+09  -0.7038  0.5264  -0.01043  0.00745  0.03657  -0.03467  -0.3926  0.8265
6.428e+09  -0.4404  0.7234  -0.01721  0.001169  -0.01574  -0.01042  -0.03398  0.8451
6.429e+09  -0.1313  0.8272  -0.01044  -0.01322  0.02579  -0.01519  0.2625  0.8125
6.43e+09  0.07317  0.8529  0.02792  0.0295  -0.0157  -0.0037  0.4913  0.7188
6.431e+09  0.3764  0.7241  0.04004  0.01188  -0.03566  -0.0003737  0.7141  0.4459
6.432e+09  0.6645  0.5787  0.03928  0.019  -0.04226  0.001827  0.8427  0.1942
6.434e+09  0.7664  0.3275  -0.01487  -0.03215  -0.0457  -0.01705  0.8463  -0.07726
6.435e+09  0.8644  -0.01268  -0.004811  0.03195  -0.005651  -0.02722  0.7547  -0.3653
6.436e+09  0.8109  -0.3013  0.007057  0.04678  0.0285  0.0006023  0.627  -0.634
6.438e+09  0.6598  -0.5489  -0.03242  -0.005044  -0.005045  0.01842  0.3515  -0.8162
6.439e+09  0.3835  -0.7419  -0.0044  -0.03108  0.01522  -0.02384  0.09201  -0.8655
6.44e+09  0.1325  -0.8916  -0.004225  0.03879  0.007142  -0.04188  -0.2379  -0.8307
6.441e+09  -0.1798  -0.8391  -0.01008  -0.01823  0.0336  0.003957  -0.496  -0.746
6.442e+09  -0.4616  -0.7586  0.01303  -0.02888  0.009612  -0.02252  -0.6969  -0.4825
6.444e+09  -0.6852  -0.6095  -0.006273  -0.01146  -0.02127  -0.02521  -0.8276  -0.242
6.445e+09  -0.7886  -0.3263  -0.02858  -0.03172  0.01264  0.03206  -0.7907  0.06218
6.446e+09  -0.8587  -0.03052  0.007544  0.02728  -0.01865  -0.002945  -0.7943  0.3369
6.448e+09  -0.8155  0.271  0.01654  0.007562  -0.03096  -0.006734  -0.643  0.6201
6.449e+09  -0.6985  0.5169  0.02089  -0.03657  0.02363  -0.03779  -0.3026  0.7611
6.45e+09  -0.4789  0.7516  0.04099  0.004588  -0.00515  -0.004628  -0.04532  0.8262
6.451e+09  -0.1042  0.7756  0.01046  -0.0002038  0.01309  -0.002863  0.1709  0.7969
6.452e+09  0.1374  0.8406  -0.007774  0.003491  0.01238  0.01674  0.4924  0.7074
6.454e+09  0.4081  0.7344  0.02028  0.00668  -0.003645  0.05895  0.6637  0.5
6.455e+09  0.6893  0.5604  0.02949  0.008685  0.009292  0.01247  0.8146  0.2097
6.456e+09  0.7871  0.3153  -0.0004752  -0.02876  -0.005424  0.0688  0.849  -0.05251
6.458e+09  0.8514  0.01817  -0.01864  -0.01349  -0.05067  -0.001439  0.7429  -0.3653
6.459e+09  0.8126  -0.3002  -0.002595  -0.02262  0.02645  0.005064  0.5744  -0.5946
6.46e+09  0.6179  -0.5631  -0.009857  0.0144  -0.0227  0.02389  0.3079  -0.6997
6.461e+09  0.4419  -0.7479  0.001636  -0.0196  -0.01461  -0.03187  0.06905  -0.8121
6.462e+09  0.1901  -0.8903  -0.0005401  -0.01311  -0.01633  -0.02713  -0.1882  -0.7705
6.464e+09  -0.1436  -0.8296  -0.02537  0.07023  0.02395  0.0171  -0.498  -0.6128
6.465e+09  -0.4075  -0.8048  -0.01048  -0.00623  -0.007937  0.01637  -0.6433  -0.4539
6.466e+09  -0.6767  -0.5805  0.01326  -0.006275  -0.01292  -0.02483  -0.8006  -0.2001
6.468e+09  -0.8447  -0.2914  0.02265  -0.002068  0.02045  0.03085  -0.8045  0.01174
6.469e+09  -0.8601  0.04558  0.005201  -0.02023  0.03991  0.005029  -0.6905  0.3398
6.47e+09  -0.7844  0.3086  0.007257  -0.003307  -0.02112  0.04011  -0.5343  0.5699
6.471e+09  -0.7211  0.5434  -0.01171  -0.01561  -0.03189  -0.001427  -0.3125  0.7132
6.472e+09  -0.455  0.777  0.005482  -0.07146  -0.008564  0.02331  -0.05085  0.7975
6.474e+09  -0.1277  0.8595  -0.004303  -0.01387  -0.05204  -0.004172  0.195  0.7738
6.475e+09  0.1756  0.8689  -0.03518  -0.004463  0.0206  0.009963  0.4573  0.6164
6.476e+09  0.5065  0.7871  -0.02281  -0.05195  -0.02795  0.03676  0.6829  0.456
6.478e+09  0.6965  0.5766  -0.02677  0.02015  0.02277  0.04515  0.7719  0.2162
6.479e+09  0.7911  0.2272  0.02608  0.0004047  0.03027  -0.01646  0.7968  -0.1031
6.48e+09  0.8524  -0.01867  -0.0203  -0.03188  -0.0001787  -0.04769  0.6913  -0.3516
6.481e+09  0.8081  -0.3534  -0.04768  0.006413  0.04598  -0.01014  0.5463  -0.5791
6.482e+09  0.6746  -0.6057  0.001671  -0.01166  -0.02135  0.0277  0.3209  -0.7007
6.484e+09  0.3892  -0.8079  0.01213  0.0516  0.02009  -0.006104  0.02621  -0.7645
6.485e+09  0.07164  -0.9036  0.05556  -0.003512  0.01834  0.05855  -0.2156  -0.7293
6.486e+09  -0.1542  -0.8648  0.0163  0.0265  0.02114  -0.05479  -0.4153  -0.6467
6.488e+09  0.1518  -0.3841  0.04871  0.04782  0.6111  -0.4062  -0.6263  -0.4149
6.489e+09  -0.7112  -0.5178  0.01572  0.001031  0.04159  -0.00528  -0.7616  -0.1892
6.49e+09  -0.8789  -0.2759  -0.007601  -0.03402  0.003625  -0.04826  -0.7788  0.07401
6.491e+09  -0.888  0.05971  0.0176  0.03021  -0.0002868  0.04267  -0.7015  0.3571
6.492e+09  -0.7858  0.3375  -2.141e-05  0.001745  -0.0004046  -0.04421  -0.5291  0.5704
6.494e+09  -0.7753  0.7451  -0.03674  -0.03546  0.002515  -0.1109  -0.2655  0.7247
6.495e+09  -0.3966  0.7449  -0.008402  -0.05276  -0.03526  0.009962  -0.05268  0.7843
6.496e+09  -0.1334  0.8011  -0.02372  0.05476  -0.022  -0.02457  0.2085  0.7118
6.498e+09  0.2479  0.9108  -0.02435  0.02109  0.02294  -0.004195  0.4442  0.6505
6.499e+09  0.4906  0.7823  0.008488  -0.005588  -0.0248  -0.06205  0.6391  0.412
6.5e+09  0.7578  0.5877  -0.007858  0.0221  0.002649  0.007465  0.791  0.1546
6.501e+09  0.8664  0.2515  -0.01497  -0.02622  0.001411  -0.02172  0.7523  -0.04535
6.502e+09  0.8895  -0.1115  0.01537  -0.01218  0.02015  -0.01706  0.6928  -0.3538
6.504e+09  0.8103  -0.3661  -0.03621  0.03568  -0.008747  0.03134  0.4894  -0.5572
6.505e+09  0.6593  -0.6495  -0.006937  -0.02882  0.03613  -0.004856  0.2996  -0.7087
6.506e+09  0.3556  -0.854  0.03041  0.008652  -0.04697  0.002908  0.04069  -0.7651
6.508e+09  0.06783  -0.9366  -0.004295  0.01211  0.002035  -0.009751  -0.2395  -0.7154
6.509e+09  -0.3162  -0.8523  0.02274  -0.02156  -0.0005755  -0.02788  -0.4935  -0.5903
6.51e+09  -0.5888  -0.7579  -0.005331  0.01358  0.01465  0.03562  -0.6245  -0.393
6.511e+09  -0.7819  -0.4835  0.00777  -0.009063  0.003615  -0.03742  -0.7418  -0.1464
6.512e+09  -0.9123  -0.2284  0.01567  0.003735  -0.002805  -0.05636  -0.7613  0.105
6.514e+09  -0.8937  0.1458  -0.00209  -0.02347  -0.03193  -0.002833  -0.6064  0.3956
6.515e+09  -0.8263  0.4018  0.01065  -0.00586  -0.02227  0.04164  -0.4597  0.5535
6.516e+09  -0.5786  0.6948  -0.01302  0.0007718  0.0281  -0.05608  -0.2482  0.7303
6.518e+09  -0.331  0.8858  0.00665  -0.02294  0.00471  0.009511  0.02625  0.7208
6.519e+09  -0.0403  0.9547  0.02338  -0.03594  -0.02265  -0.0551  0.2806  0.7358
6.52e+09  0.3347  0.8933  -0.008655  0.006532  -0.04495  -0.0008252  0.4734  0.5738
6.521e+09  0.6078  0.7438  -0.001438  0.03608  0.007218  -0.03212  0.6559  0.3518
6.522e+09  0.8106  0.5215  -0.009259  0.0087  -0.009035  -0.03962  0.7262  0.1042
6.524e+09  0.9628  0.1606  0.01789  -0.004033  0.03665  -0.02212  0.6817  -0.1549
6.525e+09  0.9025  -0.2041  0.00179  0.04421  -0.02628  -0.001378  0.6483  -0.4083
6.526e+09  0.8138  -0.4712  -0.009169  0.02044  -0.0002296  -0.02813  0.404  -0.566
6.528e+09  0.6002  -0.7489  -0.005168  -0.001728  0.01941  -0.01747  0.1867  -0.6915
6.529e+09  0.3423  -0.9286  0.007208  -0.004879  0.02489  0.01876  -0.06836  -0.7562
6.53e+09  -0.01791  -0.9137  0.02152  0.01002  0.02236  -0.008782  -0.301  -0.6162
6.531e+09  -0.331  -0.8305  0.01604  -0.004446  0.03912  0.005128  -0.5265  -0.5037
6.532e+09  -0.672  -0.6787  -0.02086  0.000413  -0.01595  -0.02741  -0.5574  -0.2616
6.534e+09  -0.8496  -0.407  -0.006096  0.01378  -0.03852  -0.01579  -0.6767  -0.09372
6.535e+09  -0.9323  -0.1286  0.01628  0.03241  0.000534  0.0309  -0.6274  0.1117
6.536e+09  -0.9022  0.2108  0.03348  0.01559  -0.01851  -0.0001815  -0.5785  0.3142
6.538e+09  -0.7478  0.5661  -0.003995  0.04367  0.03931  -0.0009037  -0.4507  0.4826
6.539e+09  -0.5384  0.8034  -0.01055  0.0003938  -0.05142  -0.02425  -0.3044  0.6249
6.54e+09  -0.2188  0.9261  -0.01012  -0.00136  0.04973  0.006269  -0.05879  0.6625
6.541e+09  0.06744  0.9597  -0.004993  0.005794  -0.03025  -0.04068  0.1714  0.7058
6.542e+09  0.4144  0.8492  0.001546  0.01314  0.02085  -0.01737  0.4157  0.5404
6.544e+09  0.7229  0.6536  0.007897  0.01299  0.0289  0.05194  0.6256  0.401
6.545e+09  0.8741  0.367  0.0155  0.00489  -0.004417  0.00315  0.6797  0.1955
6.546e+09  0.9512  0.05656  0.002942  0.02822  0.01917  0.001827  0.7039  -0.07423
6.548e+09  0.9087  -0.2717  -0.004466  -0.003966  0.06448  0.03521  0.6739  -0.3659
6.549e+09  0.7477  -0.613  0.004355  -0.008295  -0.009442  -0.00858  0.5054  -0.5091
6.55e+09  0.5004  -0.7798  -0.009635  0.006219  -0.02098  -0.02578  0.247  -0.6811
