# Hz S RI R 50
6.25e+09  -0.4046  0.7301  0.01707  -0.00125  -0.03011  0.03771  0.1216  0.5016
6.251e+09  -0.06519  0.8718  0.00454  0.006022  -0.02112  0.09848  0.3418  0.41
6.252e+09  0.1832  0.7536  -0.005899  0.02257  -0.02805  -0.001928  0.5357  0.2324
6.254e+09  0.4763  0.6805  -0.03007  0.02461  -0.04005  -0.05287  0.6253  0.04055
6.255e+09  0.74  0.5182  -0.02017  0.003209  -0.0429  -0.0279  0.5517  -0.2233
6.256e+09  0.8547  0.26  -0.04136  0.02355  -0.02787  -0.02397  0.4659  -0.4612
6.258e+09  0.8288  -0.05668  -0.02128  0.03157  0.01751  0.01289  0.2775  -0.6088
6.259e+09  0.7161  -0.3882  -0.007374  0.002562  0.03379  -0.01498  0.02887  -0.6892
6.26e+09  0.5391  -0.6028  0.01489  -0.03477  -0.01461  -0.06019  -0.2087  -0.649
6.261e+09  0.287  -0.7273  -0.02816  0.004622  0.02616  0.01534  -0.4524  -0.5493
6.262e+09  0.02677  -0.8293  0.02029  -0.002976  0.02564  -0.01766  -0.6221  -0.3254
6.264e+09  -0.1653  -0.812  -0.004457  -0.006897  -0.01364  -0.01943  -0.6979  -0.1339
6.265e+09  -0.4788  -0.6493  0.01071  -0.02324  -0.01293  -0.004462  -0.7268  0.1264
6.266e+09  -0.6656  -0.4684  0.01162  -0.002658  -0.0257  -0.005972  -0.6108  0.3994
6.268e+09  -0.836  -0.1712  -0.02318  0.01161  0.02112  0.005674  -0.4157  0.5855
6.269e+09  -0.7659  0.06282  0.01566  0.00421  -0.03312  0.04115  -0.1986  0.7176
6.27e+09  -0.7083  0.3609  -0.00893  0.00034  -0.01762  -0.0001668  0.04202  0.7369
6.271e+09  -0.5343  0.5485  -0.01015  -0.02487  0.01348  0.0053  0.2947  0.6953
6.272e+09  -0.2941  0.7705  -0.01546  -0.01579  0.05121  -0.008096  0.5245  0.5308
6.274e+09  -0.035  0.7657  -0.01423  -0.008656  0.04057  0.005068  0.7101  0.3193
6.275e+09  0.2497  0.7793  -0.01162  0.0126  0.006819  0.01829  0.7469  0.03049
6.276e+09  0.4298  0.6546  0.008661  0.01123  0.03411  0.05092  0.7212  -0.2358
6.278e+09  0.7062  0.4068  -0.01011  0.03863  0.00295  0.01536  0.616  -0.4537
6.279e+09  0.8066  0.1501  -0.02983  -0.0181  -0.01246  0.01698  0.3986  -0.6819
6.28e+09  0.7601  -0.06647  -0.01404  -0.0248  0.04225  -0.02584  0.1917  -0.7271
6.281e+09  0.6901  -0.4273  -0.007572  -0.01031  -0.04355  0.04602  -0.1478  -0.7402
6.282e+09  0.5399  -0.5354  -0.005513  0.007633  -0.03758  0.005778  -0.3493  -0.6954
6.284e+09  0.3279  -0.7123  0.009462  -0.01368  0.02397  -0.02624  -0.6109  -0.5372
6.285e+09  0.03599  -0.8186  -0.0135  0.01177  -0.008542  0.06792  -0.7522  -0.2988
6.286e+09  -0.2649  -0.7585  0.04059  0.01199  -0.03958  -0.01024  -0.8271  -0.04187
6.288e+09  -0.4796  -0.604  0.01828  0.01745  0.04712  -0.04073  -0.7595  0.2611
6.289e+09  -0.6548  -0.4124  0.02548  -0.005491  0.02682  -0.01083  -0.6445  0.5145
6.29e+09  -0.824  -0.2043  -0.01013  -0.02262  0.02213  -0.05892  -0.3949  0.6762
6.291e+09  -0.8323  0.1591  -0.006263  -0.009361  -0.03216  0.06895  -0.1585  0.8019
6.292e+09  -0.7425  0.4007  0.0132  -0.00445  0.0004387  -0.03413  0.07249  0.8089
6.294e+09  -0.5197  0.6284  0.00181  0.01193  -0.03296  -0.02293  0.3963  0.7012
6.295e+09  -0.2109  0.7759  -0.02563  0.003337  -0.01779  -0.02591  0.6275  0.51
6.296e+09  0.02732  0.7799  -0.02778  0.0006416  -0.01099  -0.0283  0.7677  0.3094
6.298e+09  0.2869  0.7523  0.009472  -0.002832  -0.02371  0.00143  0.83  -0.02464
6.299e+09  0.4762  0.6149  0.02565  0.04579  0.01923  0.01046  0.7775  -0.2938
6.3e+09  0.7533  0.3757  -0.006348  -0.008338  0.03905  0.06377  0.6404  -0.5225
6.301e+09  0.8336  0.1263  -0.006976  -0.02499  -0.01103  -0.01215  0.4165  -0.7038
6.302e+09  0.7963  -0.145  -0.02666  0.006881  0.02557  0.03083  0.1846  -0.8342
6.304e+09  0.7214  -0.4655  -0.007993  -0.03996  0.03009  0.02237  -0.1547  -0.799
6.305e+09  0.5171  -0.6551  0.003761  0.005801  0.06981  0.01114  -0.3858  -0.7246
6.306e+09  0.1998  -0.7605  -0.009993  0.02811  -0.02084  0.003708  -0.621  -0.5911
6.308e+09  -0.07671  -0.7606  0.008203  0.02337  -0.006576  0.02953  -0.787  -0.3135
6.309e+09  -0.2642  -0.7354  -0.005647  0.002294  -0.01729  0.003434  -0.8702  0.007508
6.31e+09  -0.5591  -0.6031  0.04657  -0.02  0.006237  -0.05622  -0.8063  0.291
6.311e+09  -0.6696  -0.3098  0.003623  0.01263  0.03101  0.004265  -0.6831  0.5662
6.312e+09  -0.7991  -0.1371  -0.01923  0.02372  -0.06123  -0.0007918  -0.4337  0.753
6.314e+09  -0.7759  0.2197  0.01285  0.02543  -0.0291  -0.02042  -0.1547  0.8477
6.315e+09  -0.6629  0.4794  0.02767  0.02212  -0.01069  -0.0007935  0.1475  0.8938
6.316e+09  -0.4252  0.6528  -0.006352  -0.005468  -0.002626  -0.009517  0.4148  0.7603
6.318e+09  -0.1862  0.7838  -0.03003  -0.0454  -0.01301  -0.0284  0.6636  0.5525
6.319e+09  0.05801  0.8081  -0.03139  -0.01767  -0.01318  -0.01401  0.8053  0.2985
6.32e+09  0.311  0.7433  0.0122  0.005856  0.0249  0.02741  0.924  0.006014
6.321e+09  0.5727  0.5554  -0.03371  0.03543  -0.03435  0.04284  0.8173  -0.2698
6.322e+09  0.7426  0.2785  -0.01664  0.009587  -0.002997  0.01786  0.6994  -0.5845
6.324e+09  0.8418  0.04349  -0.02516  0.02143  0.0004819  -0.007988  0.4903  -0.753
6.325e+09  0.8199  -0.2116  0.002112  -0.03421  0.01676  -0.04236  0.1598  -0.8673
6.326e+09  0.6351  -0.5104  0.001374  -0.0245  0.03025  -0.03784  -0.1397  -0.8911
6.328e+09  0.4066  -0.7042  0.02114  0.00548  0.02405  0.009621  -0.4142  -0.8167
6.329e+09  0.1651  -0.851  0.01711  0.002426  -0.008008  0.01807  -0.6752  -0.5889
6.33e+09  -0.1099  -0.8063  -0.02335  0.01301  -0.01312  -0.0003907  -0.8332  -0.3139
6.331e+09  -0.4346  -0.7431  0.03237  -0.009018  0.02467  0.02143  -0.8826  0.009425
6.332e+09  -0.6258  -0.596  0.001668  -0.008343  -0.02351  0.003921  -0.8672  0.3192
6.334e+09  -0.8062  -0.288  0.02583  -0.01128  -0.02095  -0.01921  -0.7322  0.5801
6.335e+09  -0.8157  0.01972  -0.00719  -0.02673  -0.05102  -0.02047  -0.4587  0.7793
6.336e+09  -0.7463  0.2875  -0.01063  -0.01463  0.01784  -0.01139  -0.1692  0.8947
6.338e+09  -0.6396  0.582  0.003229  0.03335  -0.004083  -0.001702  0.1552  0.9219
6.339e+09  -0.4016  0.7778  -0.003501  -0.03681  -0.02824  -0.009927  0.4153  0.8259
6.34e+09  -0.08323  0.8365  -0.00084  -0.02005  -0.01367  -0.003784  0.6806  0.6217
6.341e+09  0.2042  0.8437  -0.01508  -0.01232  0.0001625  0.01998  0.8506  0.3515
6.342e+09  0.4532  0.7403  0.02424  0.008775  -0.0124  -0.005928  0.9072  0.02683
6.344e+09  0.6958  0.5164  -0.005219  0.02425  0.006479  -0.02917  0.893  -0.2876
6.345e+09  0.8255  0.2866  0.01301  0.005572  0.03709  0.002569  0.7462  -0.5578
6.346e+09  0.8459  0.01565  0.03891  -0.006928  0.0026  0.01645  0.556  -0.7651
6.348e+09  0.7618  -0.4084  0.03003  -0.03188  3.774e-05  -0.01089  0.1814  -0.9184
6.349e+09  0.577  -0.5596  0.01576  -0.008107  0.01354  -0.006516  -0.1255  -0.9468
6.35e+09  0.3419  -0.7394  0.003217  -0.02043  0.009147  -0.007794  -0.3785  -0.8288
6.351e+09  0.117  -0.8566  0.0273  0.0182  -0.01106  0.02436  -0.6934  -0.6514
6.352e+09  -0.2403  -0.8255  0.01987  0.007917  0.04219  0.01723  -0.8521  -0.3713
6.354e+09  -0.5485  -0.6392  -0.008714  -0.009302  -0.01644  -0.004882  -0.94  -0.05397
6.355e+09  -0.7159  -0.4807  0.003784  -0.001273  -0.04136  -0.008054  -0.9248  0.2313
6.356e+09  -0.8499  -0.1818  -0.01252  0.004353  -0.05567  0.02128  -0.7663  0.5538
6.358e+09  -0.8788  0.1171  -0.01856  -0.01037  0.02761  0.04885  -0.5339  0.7941
6.359e+09  -0.7736  0.4309  -0.01757  0.02171  -0.03358  0.004826  -0.2408  0.9429
6.36e+09  -0.5939  0.6874  -0.0001624  -0.0009306  0.01571  0.02272  0.103  0.9572
6.361e+09  -0.3458  0.7916  -0.04334  0.0001316  -0.04272  0.03846  0.419  0.8801
6.362e+09  0.0003627  0.8914  0.02811  -0.005848  -0.01079  0.03317  0.677  0.6676
6.364e+09  0.3224  0.8111  -0.0133  -0.02108  0.007383  -0.02712  0.8551  0.3743
6.365e+09  0.5434  0.6486  0.01822  0.004067  0.001283  0.0006195  0.9283  0.08924
6.366e+09  0.8105  0.4211  0.01187  0.001142  -0.01001  -0.0198  0.9248  -0.2463
6.368e+09  0.8164  0.112  -0.01447  -0.01832  0.001098  -0.004979  0.7808  -0.5611
6.369e+09  0.86  -0.1474  0.01086  0.001386  0.01204  0.02918  0.5522  -0.801
6.37e+09  0.7421  -0.4134  -0.03072  -0.008059  -0.006294  -0.00718  0.2424  -0.9141
6.371e+09  0.5538  -0.6446  -0.02486  0.0382  -0.003982  -0.003761  -0.08273  -0.9496
6.372e+09  0.3068  -0.8042  -0.007958  0.00666  -0.01452  -0.009252  -0.3987  -0.8819
6.374e+09  -0.0756  -0.8622  -0.01042  -0.01168  0.01537  0.03257  -0.6516  -0.6791
6.375e+09  -0.3314  -0.7887  -0.01605  0.003326  -0.03822  0.02255  -0.8784  -0.4019
6.376e+09  -0.5787  -0.6245  -0.01112  0.005554  -0.02175  -0.01024  -0.9627  -0.09663
6.378e+09  -0.8078  -0.4127  0.008604  -0.001645  0.007779  -0.02155  -0.8797  0.22
6.379e+09  -0.8682  -0.1141  -0.03892  -0.006742  -0.017  0.03528  -0.7984  0.5603
6.38e+09  -0.8302  0.1731  0.02616  -0.004599  -0.01893  -0.0131  -0.5935  0.7336
6.381e+09  -0.7756  0.4547  0.005596  -0.01188  -0.01504  -0.0001105  -0.239  0.9277
6.382e+09  -0.5296  0.6783  -0.01872  -0.004739  0.005923  -0.01475  0.07367  0.9139
6.384e+09  -0.2595  0.8417  0.0186  -0.01604  -0.04022  0.002748  0.3635  0.8671
6.385e+09  0.06584  0.8683  -0.005148  0.01765  0.01056  -0.0003444  0.6726  0.6625
6.386e+09  0.3702  0.8189  -0.04404  -0.007084  0.03352  0.001246  0.8454  0.393
6.388e+09  0.5795  0.5926  0.0198  0.02764  -0.01831  0.02474  0.9308  0.1389
6.389e+09  0.7603  0.3485  0.01903  -0.007372  -0.01987  -0.008084  0.9114  -0.198
6.39e+09  0.8542  0.06515  0.03165  -0.001848  0.005117  0.002492  0.7689  -0.5299
6.391e+09  0.8564  -0.1812  0.01309  0.02912  0.005112  0.04423  0.5618  -0.7096
6.392e+09  0.6951  -0.4781  0.007598  0.05534  -0.00262  -0.05626  0.2932  -0.8905
6.394e+09  0.4659  -0.7268  -0.06657  -0.004506  0.01727  2.801e-05  -0.02212  -0.9382
6.395e+09  0.1983  -0.8462  0.04152  -0.02431  0.000537  -0.005889  -0.3153  -0.861
6.396e+09  -0.1201  -0.8654  -0.02414  -0.008822  0.01283  0.005488  -0.5955  -0.6991
6.398e+09  -0.3812  -0.7575  -0.000338  0.01935  -0.01945  -0.0162  -0.7829  -0.3758
6.399e+09  -0.6648  -0.5981  -0.01664  0.01434  -0.002181  -0.02672  -0.9545  -0.1536
6.4e+09  -0.7761  -0.3266  -0.003328  0.006232  0.01828  0.01958  -0.9037  0.209
6.401e+09  -0.8467  -0.01633  0.02301  0.01839  0.01349  0.01729  -0.7547  0.4982
6.402e+09  -0.8254  0.2454  0.007255  0.02399  0.03109  -0.0203  -0.5811  0.6686
6.404e+09  -0.6919  0.5469  0.00569  -0.01985  0.02658  0.01251  -0.3259  0.8445
6.405e+09  -0.4707  0.698  -0.01682  0.006632  0.02346  -0.0206  -0.02456  0.9201
6.406e+09  -0.1261  0.8005  -0.02935  -0.01578  0.01983  -0.02578  0.2833  0.8321
6.408e+09  0.1477  0.8338  0.02163  0.02837  0.01519  0.02405  0.5522  0.6946
6.409e+09  0.4342  0.789  -0.06448  -0.004303  -0.03612  -0.02297  0.7844  0.4401
6.41e+09  0.6736  0.5783  -0.009515  0.02554  -0.07142  -0.004951  0.9169  0.182
6.411e+09  0.7966  0.3394  0.02649  -0.01281  0.004967  0.00522  0.8531  -0.1022
6.412e+09  0.8453  0.0369  0.008002  -0.005336  0.002933  -0.02435  0.8052  -0.4715
6.414e+09  0.8054  -0.2485  0.01394  0.01477  0.006558  -0.05249  0.5929  -0.6765
6.415e+09  0.7005  -0.5175  -0.01657  -0.008257  -0.008326  0.05082  0.3082  -0.872
6.416e+09  0.4361  -0.7373  0.01687  0.007027  -0.007506  -0.04318  0.01605  -0.9196
6.418e+09  0.1495  -0.8361  -0.01399  -0.03211  -0.01606  -0.01296  -0.3162  -0.8501
6.419e+09  -0.1136  -0.828  0.02091  0.02763  -0.0006053  -0.008883  -0.5442  -0.6607
6.42e+09  -0.3962  -0.7563  0.002377  0.03013  -0.03284  0.009444  -0.7398  -0.4715
6.421e+09  -0.6169  -0.5401  -0.01051  0.005093  0.01418  0.02923  -0.8666  -0.2066
6.422e+09  -0.8121  -0.3068  -0.003647  -0.009855  0.009678  -0.01275  -0.8412  0.09809
6.424e+09  -0.822  -0.0339  0.007912  0.01105  0.0137  0.005089  -0.761  0.3964
6.425e+09  -0.7712  0.2631  0.06778  0.003314  0.04218  0.03043  -0.6141  0.6497
6.426e+09  -0.6402  0.5261  -0.01039  0.005759  -0.008816  -0.004328  -0.365  0.8083
6.428e+09  -0.4091  0.7742  -0.001262  0.009881  -0.00975  -0.02426  -0.07009  0.8628
6.429e+09  -0.1608  0.8405  0.009615  -0.009386  -0.003084  -0.006933  0.2057  0.8448
6.43e+09  0.1344  0.8278  0.03433  0.005768  -0.02181  0.003585  0.5302  0.684
6.431e+09  0.473  0.7609  0.001374  -0.02476  0.04799  -0.04649  0.6648  0.5008
6.432e+09  0.6293  0.5455  0.03591  0.0139  0.0188  -0.01878  0.8352  0.237
6.434e+09  0.7566  0.3254  0.02685  0.05455  0.04682  0.03052  0.8798  -0.09183
6.435e+09  0.8126  -0.02482  0.01463  -0.02152  0.02306  -0.0118  0.7953  -0.3296
6.436e+09  0.8358  -0.2866  0.04033  -0.01575  0.02703  0.01423  0.6095  -0.5801
6.438e+09  0.691  -0.5695  -0.01572  -0.03304  0.0238  0.01068  0.3536  -0.7504
6.439e+09  0.4272  -0.7727  0.01885  0.0294  0.03246  -0.03462  0.07489  -0.8322
6.44e+09  0.08913  -0.8294  0.01745  0.02807  -0.0002015  -0.002635  -0.2325  -0.7999
6.441e+09  -0.1418  -0.8688  -0.003274  0.007626  0.02507  0.008058  -0.5237  -0.6386
6.442e+09  -0.4717  -0.7182  0.01001  -0.02952  -0.07527  0.001546  -0.7494  -0.4841
6.444e+09  -0.6501  -0.5526  -0.05818  0.001997  -0.02207  0.02276  -0.7986  -0.2199
6.445e+09  -0.8161  -0.2925  -0.002541  0.01271  0.02263  0.005987  -0.8823  0.1038
6.446e+09  -0.8964  0.04082  0.01805  -0.003307  0.01998  -0.0173  -0.7816  0.3391
6.448e+09  -0.7613  0.3156  0.003676  0.005029  -0.009397  -0.0241  -0.5787  0.6185
6.449e+09  -0.6469  0.6054  0.03565  -0.01873  0.0635  -0.004533  -0.3815  0.7309
6.45e+09  -0.4065  0.7222  0.008534  0.004766  -0.03958  -0.01761  -0.1084  0.8322
6.451e+09  -0.1272  0.8755  -0.01797  0.02318  0.008815  -0.05434  0.2172  0.7778
6.452e+09  0.1392  0.8207  -0.03285  -0.02302  -0.01905  -0.01594  0.4679  0.6485
6.454e+09  0.475  0.723  0.01657  -0.02215  0.02218  -0.06161  0.674  0.4634
6.455e+09  0.6551  0.5644  -0.008198  -0.01701  0.0002858  0.01789  0.8031  0.1828
6.456e+09  0.8577  0.2469  0.0006514  0.0003039  -0.04101  -0.03475  0.8303  -0.0608
6.458e+09  0.8551  -0.04043  0.01025  0.002805  -0.02784  0.02849  0.7436  -0.3547
6.459e+09  0.8044  -0.3175  -0.009574  -0.01265  -0.00843  0.001345  0.6023  -0.5744
6.46e+09  0.6924  -0.5874  -0.01982  -0.02024  -0.03212  0.01102  0.301  -0.7458
6.461e+09  0.4154  -0.8246  0.03548  -0.01168  -0.01143  -0.006543  0.06215  -0.779
6.462e+09  0.09984  -0.8419  0.02407  0.003701  0.01786  0.02599  -0.1896  -0.7568
6.464e+09  -0.1472  -0.8573  -0.01477  -0.02797  0.008546  -0.004621  -0.4738  -0.7086
6.465e+09  -0.4772  -0.7327  0.01639  -0.01459  -0.0121  0.02929  -0.6809  -0.4574
6.466e+09  -0.7185  -0.5234  -0.0225  0.02152  0.04247  -0.00155  -0.7832  -0.2279
6.468e+09  -0.8333  -0.2614  0.0112  0.03537  0.001585  -0.01466  -0.8007  0.03704
6.469e+09  -0.8556  0.007868  -0.005864  -0.006509  0.02544  -0.01651  -0.6745  0.3546
6.47e+09  -0.8266  0.3207  0.0205  0.004129  -0.01758  0.003634  -0.5453  0.5416
6.471e+09  -0.6517  0.5985  0.003922  -0.01962  -0.0517  0.006632  -0.3895  0.7407
6.472e+09  -0.3911  0.7614  -0.03271  0.01832  0.02677  0.03515  -0.07397  0.7899
6.474e+09  -0.1631  0.8566  0.01829  -0.02049  0.02086  -0.01365  0.1787  0.791
6.475e+09  0.148  0.8952  0.02301  0.01921  -0.0288  -0.01395  0.4728  0.6509
6.476e+09  0.5103  0.6744  0.005697  0.01808  0.001975  -0.02219  0.6012  0.4601
6.478e+09  0.6836  0.5344  0.007263  0.02619  -0.03181  0.01715  0.729  0.2423
6.479e+09  0.8296  0.2921  0.04514  0.05461  -0.02709  -0.0179  0.7699  -0.09392
6.48e+09  0.8748  -0.01752  0.02101  0.01365  -0.0114  -0.01105  0.658  -0.3742
6.481e+09  0.7863  -0.3475  -0.008608  0.01045  -0.03088  0.0153  0.5375  -0.5673
6.482e+09  0.6577  -0.5919  -0.03827  0.05518  0.01222  -0.05237  0.2914  -0.7204
6.484e+09  0.3495  -0.8195  0.03137  -0.02099  0.007048  -0.001381  0.02582  -0.777
6.485e+09  0.07753  -0.8791  -0.01802  0.007449  -0.0344  0.009437  -0.2068  -0.7573
6.486e+09  -0.1841  -0.8188  0.0003777  0.04193  -0.01162  0.06702  -0.4202  -0.6804
6.488e+09  -0.2408  0.001398  -0.0109  0.005452  0.2331  0.6798  -0.6349  -0.4524
6.489e+09  -0.707  -0.5057  -0.002321  0.03926  0.04254  -0.02049  -0.7312  -0.1718
6.49e+09  -0.8539  -0.197  0.03443  -0.01183  -0.03618  -0.01406  -0.803  0.05081
6.491e+09  -0.897  0.08133  0.03422  -0.02183  0.03095  -0.0008014  -0.7085  0.3303
6.492e+09  -0.7922  0.413  0.01633  0.00893  -0.03222  0.0273  -0.5278  0.5336
6.494e+09  -0.6007  0.7361  -0.03303  -0.008599  0.04364  0.08736  -0.3269  0.6939
6.495e+09  -0.3715  0.851  -0.01911  0.02802  -0.03265  0.03255  -0.05628  0.7685
6.496e+09  -0.08467  0.9042  0.007406  -0.00964  0.004554  0.003892  0.2667  0.7712
6.498e+09  0.2598  0.8651  0.02781  -0.02567  0.04654  0.02454  0.4498  0.6416
6.499e+09  0.559  0.7363  -0.01957  0.002376  -0.00337  0.005962  0.6319  0.3839
6.5e+09  0.7395  0.4497  0.03755  0.01038  -0.04968  0.04229  0.792  0.1377
6.501e+09  0.8319  0.2191  -0.008044  0.02378  0.005233  0.01116  0.7624  -0.1364
6.502e+09  0.9063  -0.09328  0.0349  -0.01341  -0.01635  0.001512  0.6412  -0.3815
6.504e+09  0.7888  -0.434  0.003458  -0.06552  -0.04668  0.006629  0.5224  -0.5834
6.505e+09  0.6457  -0.6798  -0.007204  0.04412  0.04836  0.01254  0.2541  -0.669
6.506e+09  0.3638  -0.8682  -0.02212  0.003  -0.04923  0.02358  0.02827  -0.7692
6.508e+09  0.02842  -0.8964  0.01516  -0.03176  -0.0213  0.008124  -0.2502  -0.7463
6.509e+09  -0.2893  -0.9017  -0.01632  0.02793  -0.04394  0.01626  -0.484  -0.6052
6.51e+09  -0.5938  -0.7074  0.008824  -0.02492  -0.04612  0.01821  -0.6218  -0.388
6.511e+09  -0.7839  -0.4713  0.002958  -0.01225  0.01358  -0.01984  -0.7143  -0.1339
6.512e+09  -0.9378  -0.1532  0.008307  0.009769  0.02468  -0.01109  -0.7164  0.1293
6.514e+09  -0.8561  0.1145  0.02727  -0.01767  -0.02434  -0.02507  -0.6307  0.3597
6.515e+09  -0.8078  0.4576  0.01319  -0.005464  0.02631  -0.008634  -0.4669  0.5722
6.516e+09  -0.6075  0.7407  0.00471  0.01378  0.0274  0.002262  -0.2587  0.6747
6.518e+09  -0.2875  0.9188  0.01923  -0.0181  -0.05193  -0.007894  0.03368  0.7872
6.519e+09  0.05201  0.9075  -0.006844  -0.02633  0.05355  -0.004254  0.29  0.6762
6.52e+09  0.3434  0.9359  0.02822  0.009625  0.04579  0.003194  0.5033  0.5867
6.521e+09  0.6177  0.7107  -0.001238  0.009515  0.03591  0.008757  0.6305  0.3417
6.522e+09  0.8742  0.4547  0.05298  -0.003676  -0.01021  -0.0395  0.7264  0.07808
6.524e+09  0.9703  0.1806  0.01073  -0.03069  0.02253  0.007504  0.6952  -0.1312
6.525e+09  0.9109  -0.2201  0.01671  0.02225  0.04182  -0.002654  0.5867  -0.4002
6.526e+09  0.8001  -0.5135  0.03026  0.0009477  0.003164  0.01045  0.4348  -0.5747
6.528e+09  0.5834  -0.7454  0.007589  -0.02397  0.03055  -0.0005021  0.1718  -0.6739
6.529e+09  0.2476  -0.9275  -0.01654  -0.0138  0.02157  0.01533  -0.05321  -0.6789
6.53e+09  -0.05512  -0.8994  -0.01256  -0.03136  0.02289  0.03116  -0.3005  -0.5961
6.531e+09  -0.3713  -0.909  0.02363  0.02052  -0.06914  0.008056  -0.4739  -0.4984
6.532e+09  -0.6805  -0.6728  0.02798  -0.01622  0.0006009  -0.04077  -0.5895  -0.2498
6.534e+09  -0.8567  -0.3873  0.0007079  0.008453  0.009385  -0.009679  -0.6584  -0.09569
6.535e+09  -0.9493  -0.105  0.00759  0.02202  -0.03391  0.02032  -0.6183  0.08837
6.536e+09  -0.9369  0.2356  0.01938  0.007128  0.005383  -0.03795  -0.5239  0.3026
6.538e+09  -0.7618  0.55  -0.02897  0.01168  0.02636  0.01235  -0.4654  0.4771
6.539e+09  -0.4976  0.7972  -0.02302  0.003218  0.05059  -0.02502  -0.2604  0.6229
6.54e+09  -0.2179  0.9118  0.01834  0.005044  -0.008809  0.004613  -0.03791  0.6859
6.541e+09  0.1148  0.8977  0.004271  -0.0107  -0.0232  0.005698  0.1686  0.6762
6.542e+09  0.4984  0.9088  -0.007926  -0.01594  -0.03841  -0.0349  0.4389  0.5557
6.544e+09  0.7109  0.615  -0.003726  -0.03195  -0.006221  0.008478  0.6001  0.4031
6.545e+09  0.8332  0.2649  0.006542  -0.00983  0.002471  -0.02159  0.7067  0.1842
6.546e+09  0.9064  -0.0827  -0.002966  -0.009234  -0.02109  -0.08285  0.7125  -0.09657
6.548e+09  0.8649  -0.3588  -0.00615  0.0181  -0.04868  -0.01428  0.6569  -0.343
6.549e+09  0.7305  -0.6845  0.002287  -0.009677  0.0117  0.004618  0.4951  -0.5025
6.55e+09  0.4441  -0.833  -0.006942  -0.0332  0.04369  0.008913  0.3233  -0.6639
