# Hz S RI R 50
6.25e+09  -0.6462  0.5502  0.04231  -0.002498  -0.01714  0.01675  0.1797  0.4774
6.251e+09  -0.4195  0.7429  0.02462  -0.009049  0.01737  -0.03268  0.3656  0.408
6.252e+09  -0.09679  0.8195  -0.009363  0.002934  0.01547  0.01988  0.5124  0.2417
6.254e+09  0.1773  0.8173  -0.02277  0.00611  -0.05091  -0.01368  0.6373  0.01204
6.255e+09  0.4373  0.755  0.01813  -0.00673  0.03308  -0.0502  0.6044  -0.2448
6.256e+09  0.6203  0.5  0.01974  0.001759  -0.002298  -0.006797  0.4741  -0.4403
6.258e+09  0.7757  0.2642  -0.01261  -0.03444  0.08013  -0.02032  0.2792  -0.6063
6.259e+09  0.7913  0.004959  -0.02275  0.00473  -0.00599  0.005327  0.04453  -0.6734
6.26e+09  0.754  -0.3238  0.01279  -0.002142  0.002409  0.01087  -0.1892  -0.6382
6.261e+09  0.6086  -0.4993  -0.01204  -0.001898  0.04147  -0.002276  -0.4531  -0.5538
6.262e+09  0.3555  -0.7381  0.0207  0.03958  -0.05309  -0.07691  -0.6109  -0.3475
6.264e+09  0.07649  -0.8025  0.01852  -0.03816  -0.01241  -0.006223  -0.7403  -0.1147
6.265e+09  -0.1418  -0.7897  -0.01119  -0.02481  -0.02302  0.008087  -0.6868  0.1281
6.266e+09  -0.4352  -0.6424  0.0008438  -0.0008636  0.02195  0.0006206  -0.6204  0.3931
6.268e+09  -0.6122  -0.4732  -0.03493  0.002416  0.02475  0.02178  -0.4387  0.6093
6.269e+09  -0.777  -0.2377  0.001646  -0.02058  0.01201  -0.03835  -0.1898  0.7206
6.27e+09  -0.8341  0.08611  -0.01133  0.01603  -0.05251  0.03433  0.05207  0.7142
6.271e+09  -0.7473  0.3074  0.01258  -0.01569  0.0347  -0.02966  0.3186  0.6784
6.272e+09  -0.5881  0.5083  -0.01216  -0.02215  0.0001911  0.009203  0.5172  0.5309
6.274e+09  -0.3508  0.7418  -0.001818  -0.007852  -0.0185  -0.008033  0.6762  0.3257
6.275e+09  -0.1058  0.8106  0.02808  0.002613  -0.04919  0.01671  0.7515  0.03127
6.276e+09  0.1505  0.7793  -0.02173  0.004395  0.02263  0.01494  0.7159  -0.2113
6.278e+09  0.4569  0.7086  0.008892  -0.001459  0.0196  -0.00805  0.6173  -0.4549
6.279e+09  0.642  0.4712  -0.01242  -0.03252  -0.02005  0.03005  0.386  -0.6454
6.28e+09  0.7885  0.2035  -0.003578  -0.0146  -0.04897  0.02718  0.154  -0.7392
6.281e+09  0.8106  -0.01288  -0.008013  0.01035  0.02193  0.02639  -0.07898  -0.7618
6.282e+09  0.7915  -0.3618  -0.006055  -0.01628  0.04345  0.00652  -0.3714  -0.7104
6.284e+09  0.6159  -0.5881  0.01287  -0.03247  -0.01037  -0.0289  -0.5961  -0.5094
6.285e+09  0.378  -0.7056  -0.00773  -0.0002292  -0.001765  -0.03657  -0.7374  -0.2805
6.286e+09  0.08713  -0.7934  0.003975  -0.006768  -0.02577  -0.0251  -0.7742  -0.04214
6.288e+09  -0.1964  -0.7843  -0.02644  -0.009999  -0.03379  -0.03036  -0.7282  0.2606
6.289e+09  -0.439  -0.6748  0.01019  0.001032  -0.008213  -0.02358  -0.6268  0.5049
6.29e+09  -0.63  -0.4502  -0.01641  0.01469  0.005036  -0.01902  -0.3689  0.6727
6.291e+09  -0.7912  -0.1976  0.006065  0.01666  0.0408  0.00731  -0.1646  0.7971
6.292e+09  -0.7703  0.05708  -0.01369  -0.01338  -0.03196  -0.03987  0.1329  0.8173
6.294e+09  -0.7677  0.3002  0.01156  -0.02688  0.0532  0.03744  0.406  0.7123
6.295e+09  -0.5491  0.5503  -7.812e-05  -0.04857  0.03546  0.02112  0.612  0.5418
6.296e+09  -0.3472  0.7264  0.006891  -0.01697  0.01556  0.04371  0.7883  0.2986
6.298e+09  -0.07256  0.775  -0.04353  -0.000178  0.03603  -0.0127  0.8276  0.01376
6.299e+09  0.2173  0.7805  -0.008669  -0.005662  -0.01338  -0.005017  0.7999  -0.2807
6.3e+09  0.4615  0.6632  -0.00887  0.007396  -0.00995  -0.06367  0.6306  -0.5366
6.301e+09  0.6592  0.4087  -0.01065  -0.001766  0.03523  -0.001863  0.4196  -0.7135
6.302e+09  0.7659  0.2512  0.02181  0.01624  0.003154  -0.004421  0.1674  -0.8138
6.304e+09  0.7695  -0.1043  -0.005518  0.005149  -0.0255  0.009408  -0.1459  -0.8389
6.305e+09  0.7157  -0.3746  -0.02303  -0.02099  0.003096  0.009281  -0.4174  -0.7106
6.306e+09  0.5669  -0.5869  -0.01276  0.001821  -0.02081  0.003651  -0.6586  -0.5379
6.308e+09  0.3177  -0.8118  -0.001684  0.03694  0.043  -0.02629  -0.7937  -0.2704
6.309e+09  0.0526  -0.7906  0.03628  0.01662  -0.02272  -0.01163  -0.8631  -0.03282
6.31e+09  -0.2593  -0.7611  0.003429  -0.005212  0.0079  0.04491  -0.8219  0.266
6.311e+09  -0.4977  -0.6342  0.01  -0.007871  -0.05171  0.0006581  -0.6363  0.5796
6.312e+09  -0.7314  -0.4185  0.004996  0.01057  0.002277  -0.02693  -0.4668  0.7486
6.314e+09  -0.7902  -0.185  -0.01025  -0.01188  -0.03589  -0.02111  -0.146  0.8838
6.315e+09  -0.7842  0.09967  -0.0363  0.005021  -0.04053  0.00628  0.1584  0.8505
6.316e+09  -0.6895  0.385  0.001506  -0.008224  0.02711  -0.02602  0.4285  0.7626
6.318e+09  -0.4763  0.6497  0.002415  -0.0005014  -0.01682  0.02583  0.6752  0.5691
6.319e+09  -0.2927  0.7182  0.005987  -0.01605  0.006592  -0.03044  0.8532  0.3241
6.32e+09  -0.01689  0.8365  0.007484  -0.005495  -0.005801  0.02103  0.8727  -0.01418
6.321e+09  0.3058  0.7293  -0.004018  0.003829  0.03197  -0.04255  0.8397  -0.2945
6.322e+09  0.5509  0.5907  0.0269  0.01281  0.01869  0.02344  0.6823  -0.5102
6.324e+09  0.7242  0.4275  -0.001656  -0.004072  -0.002533  -0.01452  0.4729  -0.7657
6.325e+09  0.8219  0.09547  -0.0002984  0.04701  0.004248  0.01959  0.1555  -0.8768
6.326e+09  0.7838  -0.1128  0.02286  0.004683  -0.03903  -0.004982  -0.1312  -0.8972
6.328e+09  0.716  -0.447  -0.01562  0.01581  -0.06287  0.01435  -0.4426  -0.785
6.329e+09  0.5078  -0.5998  -0.02423  0.0364  0.007959  0.03787  -0.7024  -0.6143
6.33e+09  0.2423  -0.7989  0.0128  0.01614  -0.007977  0.04715  -0.8458  -0.3241
6.331e+09  -0.09559  -0.8485  -0.01265  -0.009723  -0.00318  0.008256  -0.8792  -0.03572
6.332e+09  -0.3498  -0.7091  0.006474  0.01064  0.0169  0.04602  -0.865  0.2605
6.334e+09  -0.5463  -0.5801  -0.03005  -0.008901  -0.06057  -0.01057  -0.7379  0.5775
6.335e+09  -0.7263  -0.3736  -0.008338  -0.01246  1.271e-05  0.0314  -0.5101  0.7588
6.336e+09  -0.8522  -0.07824  0.01272  0.00736  0.003563  -0.03161  -0.2029  0.8717
6.338e+09  -0.7696  0.2015  0.009204  -0.06525  -0.01364  -0.0009369  0.1096  0.945
6.339e+09  -0.6579  0.4689  0.005687  0.02651  -0.005396  0.0236  0.4121  0.8179
6.34e+09  -0.4699  0.7229  0.0354  -0.02437  0.02566  -0.01001  0.6557  0.6281
6.341e+09  -0.2292  0.8238  -0.04097  -0.01466  -0.002305  -0.01191  0.8697  0.3251
6.342e+09  0.1254  0.824  -0.01822  -0.01158  0.03162  0.02077  0.9163  0.0374
6.344e+09  0.3779  0.7393  -0.006584  -0.008997  -0.01526  -0.002772  0.8973  -0.283
6.345e+09  0.6504  0.5362  0.001007  -0.01108  -0.01192  -0.03864  0.7914  -0.5839
6.346e+09  0.8275  0.3387  0.00693  0.003202  -0.007701  0.00909  0.4945  -0.7598
6.348e+09  0.8602  0.01229  -0.006333  -0.02052  0.03994  -0.0005777  0.2175  -0.895
6.349e+09  0.7951  -0.2311  0.01975  0.02213  -0.0242  0.008302  -0.104  -0.9515
6.35e+09  0.6317  -0.5443  -0.01647  0.03344  -0.008466  -0.007086  -0.3825  -0.826
6.351e+09  0.3986  -0.7387  0.02124  0.03755  0.02031  -0.0262  -0.694  -0.639
6.352e+09  0.1666  -0.8275  -0.007718  0.008376  -0.01477  -0.05141  -0.8501  -0.3749
6.354e+09  -0.1234  -0.818  -0.003512  0.01639  -0.03365  -0.005243  -0.9772  -0.02777
6.355e+09  -0.4197  -0.7223  -0.01791  0.0162  -0.01099  -0.02375  -0.9317  0.2605
6.356e+09  -0.6792  -0.5257  0.005702  -0.006749  0.008042  0.008674  -0.789  0.5381
6.358e+09  -0.7799  -0.2801  0.006143  -0.03369  -0.05331  0.02134  -0.5044  0.7777
6.359e+09  -0.8396  0.02829  -0.01224  -0.01129  0.000218  0.007119  -0.2287  0.8883
6.36e+09  -0.7271  0.2958  -0.02609  0.00864  -0.004398  0.01944  0.07399  0.9112
6.361e+09  -0.6079  0.5751  -0.00298  -0.02144  -0.003488  0.02303  0.4098  0.8516
6.362e+09  -0.3972  0.8014  0.005629  -0.006191  -0.008605  -0.04131  0.6785  0.6479
6.364e+09  -0.09754  0.8334  -0.002062  0.01326  0.006475  0.02856  0.8513  0.3678
6.365e+09  0.2276  0.7997  0.01523  -0.02557  -0.04352  -0.00201  0.9771  0.08082
6.366e+09  0.4811  0.6939  -0.0008935  0.02852  -0.002662  -0.002948  0.9114  -0.2331
6.368e+09  0.7026  0.4425  0.03939  -0.007879  0.01065  -0.02005  0.7775  -0.5295
6.369e+09  0.8055  0.2031  -0.01347  -0.02491  -0.005515  0.02683  0.5208  -0.8052
6.37e+09  0.8576  -0.02919  -0.03551  0.02183  -0.04333  0.03361  0.2416  -0.9299
6.371e+09  0.7779  -0.3775  0.01959  -0.002471  -0.004996  -0.01611  -0.06424  -0.9332
6.372e+09  0.5926  -0.6296  0.005339  -0.007227  0.04211  0.007509  -0.3545  -0.8567
6.374e+09  0.3308  -0.7877  -0.00752  -0.004864  0.01853  -0.03317  -0.6559  -0.6515
6.375e+09  0.05343  -0.8578  -0.0118  -0.008341  0.03958  -0.002149  -0.8806  -0.4514
6.376e+09  -0.244  -0.8519  -0.002801  0.002162  -0.02427  -0.03863  -0.93  -0.07942
6.378e+09  -0.5233  -0.6874  0.02891  0.02482  -0.02682  -0.02494  -0.9099  0.242
6.379e+09  -0.7722  -0.4774  0.0003782  -0.002605  -0.03074  0.02343  -0.7714  0.5228
6.38e+09  -0.854  -0.17  -0.01026  -0.01434  0.004447  0.01312  -0.5519  0.7278
6.381e+09  -0.8325  0.1443  -0.03465  -0.02151  -0.05567  0.005278  -0.2948  0.9171
6.382e+09  -0.7582  0.4031  0.003397  -0.01347  -0.01205  -0.01327  0.02816  0.9684
6.384e+09  -0.5587  0.6648  -0.003932  0.00444  -0.01205  0.01689  0.3739  0.8343
6.385e+09  -0.3287  0.7904  -0.003652  0.02786  0.001953  0.006269  0.6459  0.6749
6.386e+09  0.01232  0.8596  -0.01053  0.01625  -0.03899  0.01564  0.8161  0.3816
6.388e+09  0.2783  0.7853  0.007514  -0.005153  0.01807  -0.04941  0.8961  0.1034
6.389e+09  0.5607  0.6274  -0.03763  0.0006583  -0.02298  -0.03485  0.919  -0.2219
6.39e+09  0.7376  0.4079  0.0144  -0.01331  0.02573  -0.006624  0.7622  -0.5053
6.391e+09  0.8469  0.0906  0.01991  0.0173  0.009811  -0.005082  0.6041  -0.7412
6.392e+09  0.8388  -0.163  0.02575  -0.0252  -0.04407  -0.006519  0.2742  -0.8934
6.394e+09  0.7499  -0.445  0.03483  -0.007775  -0.02808  -0.01663  -0.04827  -0.8989
6.395e+09  0.4777  -0.7222  0.02317  -0.0008623  0.05396  0.02736  -0.334  -0.8641
6.396e+09  0.2608  -0.8248  -0.01569  0.001307  -0.03285  0.02662  -0.5537  -0.7019
6.398e+09  -0.02877  -0.8643  -0.00677  0.0008609  0.037  0.009342  -0.8422  -0.4245
6.399e+09  -0.3543  -0.7823  -0.01477  -0.009227  -0.02027  0.009638  -0.8938  -0.1265
6.4e+09  -0.6097  -0.6317  -0.03189  -0.05168  0.0004558  0.01244  -0.8689  0.1942
6.401e+09  -0.7738  -0.3648  0.01314  0.003589  -0.03737  0.01798  -0.7975  0.5005
6.402e+09  -0.8449  -0.1213  0.01714  0.01572  0.01738  -0.006635  -0.5466  0.7392
6.404e+09  -0.8054  0.1878  -0.01101  -0.0287  0.01703  0.02036  -0.3492  0.8152
6.405e+09  -0.6968  0.5238  -0.02434  -0.01002  -0.02169  -0.03089  0.02452  0.8856
6.406e+09  -0.4823  0.667  -0.0218  -0.01633  0.004004  0.02011  0.2848  0.853
6.408e+09  -0.1713  0.8449  -0.02165  -0.05559  -0.03397  0.0385  0.5941  0.6542
6.409e+09  0.04798  0.8721  -0.0007485  0.01413  0.0002999  0.008414  0.7969  0.4202
6.41e+09  0.3877  0.7367  0.02013  0.01586  -0.0226  0.0145  0.9019  0.1644
6.411e+09  0.6058  0.5996  0.02635  0.002605  0.001619  -0.005912  0.8894  -0.151
6.412e+09  0.7731  0.325  -0.04525  -0.0178  0.01578  -0.01999  0.7945  -0.4286
6.414e+09  0.8358  0.09467  -0.000516  -0.02839  -0.002035  0.008705  0.5713  -0.6439
6.415e+09  0.877  -0.2724  -0.03986  -0.01803  -0.005761  -0.01472  0.3332  -0.8211
6.416e+09  0.6633  -0.5578  0.03952  -0.02926  0.01504  0.03843  0.01464  -0.8816
6.418e+09  0.519  -0.6974  0.02302  0.0005117  0.006959  0.02917  -0.2731  -0.8647
6.419e+09  0.1799  -0.8114  0.01647  -0.005748  0.0005084  -0.01491  -0.551  -0.7414
6.42e+09  -0.108  -0.8192  -0.01979  -0.02388  -0.002013  0.0042  -0.7743  -0.4529
6.421e+09  -0.4057  -0.7505  0.03789  0.01077  0.02482  -0.0191  -0.8681  -0.2088
6.422e+09  -0.6257  -0.5519  0.003643  -0.002292  -0.02185  0.006879  -0.8598  0.1174
6.424e+09  -0.7574  -0.3388  -0.04953  -0.002571  -0.004142  -0.00317  -0.8019  0.4089
6.425e+09  -0.8233  -0.04519  -0.01153  0.005369  -0.0259  -0.05352  -0.6293  0.6406
6.426e+09  -0.8104  0.2271  -0.0335  -0.0286  -0.00477  0.003358  -0.315  0.8007
6.428e+09  -0.6475  0.5241  0.01575  0.02252  0.00356  0.0002393  0.006162  0.9099
6.429e+09  -0.4614  0.7262  -0.02208  -0.01301  0.001732  0.005805  0.2574  0.8561
6.43e+09  -0.1603  0.8729  0.005358  0.02106  -0.01061  0.0127  0.5088  0.7157
6.431e+09  0.124  0.8447  -0.01099  0.009657  0.02845  -0.009084  0.709  0.5714
6.432e+09  0.3635  0.7609  0.009352  0.004019  -0.02944  -0.02225  0.8433  0.2387
6.434e+09  0.562  0.5349  0.02615  0.03288  -0.02165  0.04696  0.8267  -0.08825
6.435e+09  0.7998  0.2604  0.02873  -0.02228  0.01068  0.01309  0.8043  -0.3512
6.436e+09  0.8351  0.006116  -0.0238  -0.008887  -0.04765  0.01261  0.5985  -0.6205
6.438e+09  0.868  -0.2775  -0.03876  -0.00574  0.01225  0.02374  0.3744  -0.7749
6.439e+09  0.6383  -0.4459  -0.02369  0.01025  -0.0206  0.03571  0.09902  -0.8355
6.44e+09  0.4009  -0.7485  -0.002889  -0.03474  0.01262  -0.02035  -0.2201  -0.7887
6.441e+09  0.158  -0.8032  -0.0002768  0.005179  0.0133  -0.02861  -0.4777  -0.7001
6.442e+09  -0.1478  -0.8177  0.03254  0.004476  -0.05327  -0.05116  -0.6824  -0.4543
6.444e+09  -0.438  -0.7352  -0.0491  0.002077  -0.01046  0.03634  -0.8689  -0.2114
6.445e+09  -0.613  -0.5648  -0.008612  0.008664  0.008145  0.01649  -0.8577  0.04764
6.446e+09  -0.8225  -0.2759  0.04633  -0.04687  0.000616  -0.02163  -0.7679  0.3442
6.448e+09  -0.8526  -0.005839  -0.02185  -0.01877  0.03251  0.05939  -0.5652  0.5654
6.449e+09  -0.7574  0.2742  -0.02536  0.05198  -0.01894  -0.004383  -0.3612  0.7773
6.45e+09  -0.6373  0.5472  -0.07165  -0.00656  0.01257  0.01743  -0.06929  0.8758
6.451e+09  -0.3862  0.7249  -0.03092  -0.0218  -0.0376  -0.009967  0.2513  0.8057
6.452e+09  -0.1317  0.8183  0.001122  0.01447  -0.0381  -0.003429  0.4838  0.6578
6.454e+09  0.1801  0.8008  -0.02613  -0.007528  -0.04264  -0.02523  0.6968  0.4677
6.455e+09  0.4475  0.7823  -0.02399  -0.002928  -0.005288  -0.03332  0.8131  0.1932
6.456e+09  0.6739  0.5049  0.007211  0.005394  -0.0321  -0.004609  0.7837  -0.1215
6.458e+09  0.7689  0.2705  -0.02844  0.01168  0.01613  -0.03837  0.7676  -0.3643
6.459e+09  0.8291  -0.01368  -0.02196  -0.00378  -0.01413  0.00322  0.5402  -0.6114
6.46e+09  0.7921  -0.2985  -0.008837  0.01285  -0.01288  -0.01313  0.3755  -0.7088
6.461e+09  0.6312  -0.5355  0.01039  -0.004408  0.03987  -0.01361  0.06703  -0.7765
6.462e+09  0.411  -0.6815  0.02101  -0.02369  0.008347  0.03585  -0.2218  -0.8007
6.464e+09  0.1451  -0.89  0.008815  0.06485  -0.01296  -0.01008  -0.4524  -0.637
6.465e+09  -0.1785  -0.8208  -0.01334  -0.02219  -0.00951  0.002718  -0.6344  -0.4877
6.466e+09  -0.4508  -0.751  0.05052  0.02242  -0.05271  -0.06807  -0.772  -0.1934
6.468e+09  -0.6545  -0.565  0.02041  0.01175  0.0424  -0.04673  -0.7951  0.07776
6.469e+09  -0.7828  -0.2911  -0.02523  -0.05235  -0.00283  -0.02366  -0.7249  0.3428
6.47e+09  -0.809  0.06962  -0.02002  -0.01228  -0.009301  -0.02429  -0.5884  0.5474
6.471e+09  -0.8051  0.364  0.01048  -0.03824  0.003075  0.01589  -0.3491  0.7356
6.472e+09  -0.6545  0.5571  0.0005562  -0.05334  0.02652  0.003044  -0.105  0.7919
6.474e+09  -0.4374  0.7253  -0.04723  0.006801  -0.02219  0.007103  0.1813  0.7586
6.475e+09  -0.1354  0.8604  0.005866  0.01666  0.04675  -0.02299  0.4271  0.6357
6.476e+09  0.1881  0.7956  0.01968  -0.008638  0.0008495  -0.01529  0.6314  0.4489
6.478e+09  0.4651  0.7413  -0.004917  -0.05068  0.006874  -0.02098  0.7581  0.2097
6.479e+09  0.6586  0.4942  -0.0107  -0.05819  -0.01901  -0.03905  0.7218  -0.08242
6.48e+09  0.8217  0.1974  0.01008  0.02868  0.01749  0.03803  0.7327  -0.3278
6.481e+09  0.8586  -0.02016  0.0517  0.006654  0.000796  0.0509  0.5559  -0.5352
6.482e+09  0.7582  -0.3244  0.01465  0.006321  5.22e-05  0.03536  0.3473  -0.7732
6.484e+09  0.6793  -0.5892  -0.03916  0.002573  -0.02861  0.03711  0.0756  -0.8183
6.485e+09  0.3925  -0.7758  0.01297  -0.01571  -0.01344  0.02603  -0.1988  -0.7351
6.486e+09  0.119  -0.9049  0.02773  -0.02282  0.02272  0.009293  -0.4506  -0.611
6.488e+09  0.2843  -0.2892  -0.01182  0.02711  -0.4005  0.5731  -0.6404  -0.4354
6.489e+09  -0.4652  -0.7388  -0.04884  -0.07096  0.01022  0.002474  -0.7131  -0.1803
6.49e+09  -0.679  -0.5799  0.01894  -0.001443  0.0378  -0.02545  -0.7951  0.06589
6.491e+09  -0.8088  -0.2448  -0.02327  -0.01806  -0.04458  0.02589  -0.7073  0.3278
6.492e+09  -0.9156  0.01732  -0.009564  0.03729  -0.01529  0.01034  -0.554  0.5209
6.494e+09  -0.8253  0.4058  0.004504  0.04506  0.1088  0.0003257  -0.2878  0.6585
6.495e+09  -0.6285  0.5786  0.02888  -0.01798  -0.01478  -0.01497  -0.03418  0.7939
6.496e+09  -0.3251  0.7502  -0.02751  0.03133  0.02684  0.01831  0.2244  0.7235
6.498e+09  -0.1056  0.8418  -0.01179  -0.01669  0.05522  0.00851  0.4918  0.5896
6.499e+09  0.2229  0.8709  0.001433  0.03463  0.003804  0.005141  0.6398  0.4184
6.5e+09  0.4812  0.7174  -0.01103  -0.003986  -0.0364  -0.02616  0.7547  0.1677
6.501e+09  0.7101  0.4622  -0.03961  -0.02286  -0.0298  -0.04491  0.7664  -0.1019
6.502e+09  0.8715  0.2332  0.01349  -0.01143  -0.02509  0.006818  0.6716  -0.3723
6.504e+09  0.8587  -0.08409  -0.01138  0.003382  -0.0264  0.0405  0.4754  -0.5626
6.505e+09  0.8148  -0.3833  0.02  0.006403  0.009441  0.04653  0.2794  -0.7201
6.506e+09  0.6393  -0.6007  0.02126  7.284e-05  0.02834  -0.04404  0.04325  -0.7869
6.508e+09  0.3879  -0.7848  0.005472  0.02386  -0.01374  0.04083  -0.2121  -0.7104
6.509e+09  0.1017  -0.8814  0.01241  -0.00908  -0.008882  0.02392  -0.4586  -0.5784
6.51e+09  -0.224  -0.9309  0.02959  -0.02755  0.03963  -0.02714  -0.6595  -0.3622
6.511e+09  -0.5273  -0.6975  -0.02266  -0.01054  0.02614  -0.03713  -0.6988  -0.1236
6.512e+09  -0.6958  -0.4845  0.01713  0.000717  -0.05033  -0.01055  -0.7251  0.1236
6.514e+09  -0.9087  -0.1932  -0.007971  0.02036  0.007903  -0.02194  -0.6368  0.3683
6.515e+09  -0.9336  0.1363  0.03831  0.01413  -0.05086  -0.007994  -0.452  0.5949
6.516e+09  -0.8061  0.3605  0.02884  -0.01437  -0.002369  -0.0822  -0.2224  0.7053
6.518e+09  -0.6352  0.5998  -0.02209  -0.007171  0.001414  -0.01693  -0.01033  0.7349
6.519e+09  -0.3685  0.8373  0.007622  0.002919  -0.01326  -0.003138  0.2643  0.6953
6.52e+09  -0.07083  0.8849  0.01119  0.01192  -0.02878  -0.002278  0.4894  0.5546
6.521e+09  0.2516  0.861  -0.003612  0.005165  -0.01341  0.05028  0.6958  0.3584
6.522e+09  0.5402  0.7054  -0.03666  -5.498e-05  -0.00419  -0.01394  0.6893  0.1164
6.524e+09  0.7815  0.5219  0.003929  0.03728  0.004971  -0.03252  0.6989  -0.1581
6.525e+09  0.8958  0.1997  -0.004153  -0.02065  -0.01417  -0.01743  0.6178  -0.4016
6.526e+09  0.8748  -0.1375  0.009024  0.01085  0.006442  -0.03239  0.445  -0.5807
6.528e+09  0.8141  -0.3943  0.01235  0.01143  0.00854  0.01708  0.2021  -0.7134
6.529e+09  0.6679  -0.7295  0.05359  -0.004819  -0.02956  0.03301  -0.06294  -0.6721
6.53e+09  0.3013  -0.909  0.001821  0.006635  -0.02195  0.01382  -0.3013  -0.6202
6.531e+09  0.0573  -0.9438  -0.003524  0.002586  0.01897  0.003986  -0.487  -0.4813
6.532e+09  -0.3339  -0.875  0.01046  -0.01206  -0.008521  -0.03695  -0.6362  -0.291
6.534e+09  -0.5508  -0.792  -0.01024  0.0004241  0.02999  -0.003224  -0.6296  -0.08524
6.535e+09  -0.8201  -0.4829  0.01045  -0.01319  -0.0102  0.04791  -0.6148  0.1007
6.536e+09  -0.8752  -0.1336  0.01581  0.02644  -0.007072  0.02085  -0.5896  0.2886
6.538e+09  -0.9407  0.1787  0.00935  0.03404  0.04133  0.00462  -0.4362  0.4838
6.539e+09  -0.8412  0.536  -0.01125  -0.006366  0.04355  0.01438  -0.2663  0.5755
6.54e+09  -0.5926  0.7051  0.009264  0.01933  0.04898  -0.00381  -0.05252  0.6867
6.541e+09  -0.313  0.872  -0.01025  0.02474  -0.01187  -0.0175  0.1669  0.6777
6.542e+09  0.04643  0.9429  -0.03386  0.01146  -0.01145  -0.04947  0.4099  0.5822
6.544e+09  0.3754  0.8979  0.03266  0.04493  -0.03927  0.007494  0.5818  0.4068
6.545e+09  0.6528  0.7354  0.01223  -0.02704  -0.008176  0.00446  0.7186  0.1627
6.546e+09  0.8148  0.3795  0.02847  -0.01791  -0.0005058  0.01017  0.7257  -0.06056
6.548e+09  0.9462  0.07108  -0.008926  0.002264  -0.01128  0.05368  0.6318  -0.3623
6.549e+09  0.8854  -0.1908  0.004578  -0.004609  0.006178  0.007244  0.4522  -0.5123
6.55e+09  0.7512  -0.5538  -0.004444  -0.0386  -0.04763  0.02046  0.2658  -0.6716
