# Hz S RI R 50
6.25e+09  -0.06114  0.9017  -0.006644  -0.006044  -0.02609  0.001203  0.1787  0.4923
6.251e+09  0.248  0.8614  -0.0178  0.001498  0.05598  -0.04061  0.3444  0.4093
6.252e+09  0.5044  0.7347  0.002271  -0.005491  0.007117  -0.04458  0.5036  0.2402
6.254e+09  0.7269  0.5476  0.009125  -0.0443  0.007109  -0.007698  0.5672  0.02408
6.255e+09  0.8004  0.2186  -0.01832  -0.01164  0.04396  0.02273  0.5779  -0.2062
6.256e+09  0.8888  -0.1194  -0.0002383  0.01387  -0.02259  -0.04234  0.4546  -0.4543
6.258e+09  0.8578  -0.3673  0.02328  0.02798  -0.07586  0.01121  0.2843  -0.5904
6.259e+09  0.6625  -0.6342  -0.001095  0.02271  -0.0001248  -0.04632  0.02561  -0.6819
6.26e+09  0.3702  -0.7401  0.0242  -0.03959  0.0543  -0.01284  -0.2132  -0.6162
6.261e+09  0.1052  -0.8734  0.007888  0.03638  0.006039  0.05841  -0.4254  -0.5717
6.262e+09  -0.2529  -0.8494  -0.001846  -0.01157  0.002436  0.01308  -0.5765  -0.3501
6.264e+09  -0.5307  -0.7408  -0.01105  0.01275  -0.02052  -0.05376  -0.6942  -0.1105
6.265e+09  -0.6611  -0.4651  0.03606  0.03003  0.02504  -0.01892  -0.661  0.1835
6.266e+09  -0.7776  -0.2544  -0.004064  -0.0106  -0.0008173  -0.04996  -0.6089  0.4173
6.268e+09  -0.8465  0.1072  -0.02491  -0.02727  -0.03577  -0.004203  -0.4489  0.6268
6.269e+09  -0.7679  0.3882  -0.004398  -0.01507  -0.03117  -0.04023  -0.2246  0.708
6.27e+09  -0.6106  0.6134  0.01526  0.01833  -0.01498  0.0341  0.05141  0.7127
6.271e+09  -0.3855  0.7731  -0.02117  -0.003255  -0.002043  -0.04741  0.3139  0.6844
6.272e+09  -0.007341  0.8543  0.005204  0.007548  -0.01305  0.01464  0.5608  0.5148
6.274e+09  0.2735  0.8451  -0.0005342  0.01055  -0.01382  -0.03074  0.7131  0.2989
6.275e+09  0.4591  0.6786  -0.01937  -0.002725  0.004772  -0.03753  0.75  0.06318
6.276e+09  0.7568  0.4754  -0.002367  0.0006358  -0.04847  -0.008958  0.7445  -0.1988
6.278e+09  0.8582  0.2069  0.01509  -0.00701  0.0135  -0.03274  0.6042  -0.4741
6.279e+09  0.8791  -0.1248  -0.01694  0.009415  -0.03813  -0.08232  0.403  -0.6619
6.28e+09  0.8058  -0.4047  -0.01549  -0.007591  -0.02725  0.01975  0.1677  -0.7605
6.281e+09  0.5157  -0.6786  0.01089  0.02158  0.01889  0.01408  -0.08411  -0.778
6.282e+09  0.3187  -0.7863  0.003527  0.006422  -0.03576  -0.02303  -0.3402  -0.6896
6.284e+09  0.03926  -0.8522  -0.007511  -0.007647  -0.021  -0.0108  -0.5834  -0.5121
6.285e+09  -0.2694  -0.7937  -0.002489  0.004206  -0.02313  -0.001435  -0.7307  -0.28
6.286e+09  -0.6023  -0.6476  0.02244  0.02158  -0.02918  -0.03154  -0.7753  -0.02331
6.288e+09  -0.7304  -0.4201  -0.04412  0.009127  0.02117  0.006302  -0.7767  0.2554
6.289e+09  -0.8801  -0.1556  -0.0197  -0.009998  -0.01468  0.02324  -0.6175  0.4968
6.29e+09  -0.859  0.2165  0.004961  -0.004197  0.002053  0.01675  -0.4301  0.6803
6.291e+09  -0.7775  0.4378  0.02921  -0.05852  0.02839  -0.06956  -0.1446  0.7882
6.292e+09  -0.5409  0.6954  0.01777  0.02048  -0.0666  -0.0482  0.1255  0.8039
6.294e+09  -0.2341  0.8547  -0.004268  -0.03066  0.01264  -0.01016  0.4208  0.7066
6.295e+09  0.07498  0.8981  0.02638  0.02302  -0.04435  0.001098  0.6105  0.5227
6.296e+09  0.3637  0.8045  0.0211  0.007865  0.0046  0.01614  0.7501  0.2805
6.298e+09  0.5911  0.6478  0.008807  0.014  0.06221  0.05702  0.8534  0.03095
6.299e+09  0.7615  0.3645  -0.002608  0.008884  0.02131  0.01094  0.7716  -0.2696
6.3e+09  0.8591  0.0924  0.0006759  -0.007936  -0.06748  0.00279  0.6177  -0.5404
6.301e+09  0.8267  -0.2407  -0.01286  -0.02116  0.008607  -0.02717  0.434  -0.7053
6.302e+09  0.6801  -0.5044  0.004331  0.005133  -0.0005794  0.0005043  0.1505  -0.8312
6.304e+09  0.4472  -0.734  -0.01244  0.01057  0.007279  0.01991  -0.1576  -0.8401
6.305e+09  0.2249  -0.8365  -0.0158  0.001611  0.003462  -0.008446  -0.4131  -0.7175
6.306e+09  -0.0688  -0.8561  0.03143  0.02987  -0.04026  -0.02849  -0.6587  -0.5626
6.308e+09  -0.4303  -0.7621  -0.008349  -0.02787  0.02696  -0.02466  -0.7984  -0.3119
6.309e+09  -0.6778  -0.6127  0.008548  -0.00708  0.01636  -0.02527  -0.8446  -0.01812
6.31e+09  -0.8248  -0.3732  0.005356  -0.0265  0.002381  -0.01643  -0.8136  0.2576
6.311e+09  -0.8632  0.03514  -0.01126  0.02272  -0.0209  -0.03106  -0.6572  0.5735
6.312e+09  -0.8185  0.3113  -0.0004542  -0.008339  -0.01423  -0.03426  -0.429  0.7946
6.314e+09  -0.7112  0.5512  0.001608  0.005346  0.00823  0.007131  -0.1506  0.8465
6.315e+09  -0.4161  0.78  -0.01482  -0.0009827  -0.003288  -0.04616  0.1076  0.8723
6.316e+09  -0.1389  0.8619  0.01658  0.007908  -0.03247  0.02196  0.4468  0.7637
6.318e+09  0.114  0.8974  0.00828  0.01038  0.04637  -0.04848  0.6768  0.5857
6.319e+09  0.4347  0.7641  -0.01334  -0.01006  0.06029  -0.01215  0.8479  0.311
6.32e+09  0.701  0.5828  -0.003723  -0.000863  -0.04016  -0.005877  0.888  -0.005555
6.321e+09  0.8282  0.2949  -0.009655  0.01056  0.02875  -0.01843  0.8404  -0.3134
6.322e+09  0.8829  -0.07746  -0.02935  -0.02071  0.01931  -0.02566  0.7135  -0.5472
6.324e+09  0.8248  -0.2968  0.01433  -0.01226  0.009402  -0.01949  0.467  -0.7621
6.325e+09  0.6574  -0.6013  0.01278  0.02708  -0.03709  0.01972  0.1482  -0.8622
6.326e+09  0.4389  -0.8276  -0.0249  -0.01611  -0.0197  0.007824  -0.1636  -0.8833
6.328e+09  0.09759  -0.9096  0.01341  0.0002394  0.02516  0.00119  -0.4202  -0.8241
6.329e+09  -0.2123  -0.8802  -0.00209  0.01261  0.01836  0.01306  -0.7256  -0.6011
6.33e+09  -0.5629  -0.713  -0.001122  0.01666  0.03607  -0.005127  -0.8478  -0.3724
6.331e+09  -0.7399  -0.5516  -0.006493  0.02891  -0.0466  -0.02347  -0.8908  -0.03841
6.332e+09  -0.868  -0.2342  0.003569  0.004355  -0.03124  0.008912  -0.8851  0.2727
6.334e+09  -0.8853  0.1045  0.03651  0.006069  -0.02731  0.02057  -0.7263  0.5982
6.335e+09  -0.8266  0.3549  0.0325  0.003961  -0.02932  0.012  -0.4594  0.7569
6.336e+09  -0.6036  0.6703  0.003689  0.006259  0.01389  -0.06621  -0.1605  0.8935
6.338e+09  -0.3551  0.9021  0.00913  0.0004571  0.002668  0.02984  0.1269  0.9159
6.339e+09  -0.05774  0.9345  0.02315  -0.01811  -0.00469  -7.918e-05  0.4172  0.8544
6.34e+09  0.3328  0.8523  -0.001063  0.01638  0.03549  -0.02819  0.6609  0.6022
6.341e+09  0.6264  0.6737  -0.02332  -0.009439  0.01729  0.02443  0.8586  0.3712
6.342e+09  0.7431  0.4501  0.01782  -0.01618  -0.01848  -0.004913  0.9228  0.021
6.344e+09  0.9083  0.1147  0.01047  -0.001035  0.01565  0.02394  0.9309  -0.2688
6.345e+09  0.9229  -0.1388  0.01561  -0.0239  -0.008182  0.06025  0.7649  -0.5414
6.346e+09  0.8126  -0.4658  0.02497  0.01209  0.01687  0.002803  0.4936  -0.8137
6.348e+09  0.5713  -0.6922  0.01483  0.01286  -0.01223  0.006102  0.2085  -0.8919
6.349e+09  0.3066  -0.8285  -0.003982  -0.02158  -0.04458  0.00427  -0.08723  -0.926
6.35e+09  -0.012  -0.8703  0.006428  0.004144  0.02056  -0.01755  -0.4297  -0.8088
6.351e+09  -0.3332  -0.8463  -0.007547  0.0159  0.005214  0.03269  -0.6952  -0.6478
6.352e+09  -0.6238  -0.6362  -0.004749  -0.0223  -0.03728  -0.007929  -0.8712  -0.3897
6.354e+09  -0.8051  -0.4351  -0.02272  -0.02305  0.0002002  -0.005292  -0.9486  -0.06116
6.355e+09  -0.9329  -0.08573  0.001762  0.02876  0.03083  -0.00931  -0.9158  0.2564
6.356e+09  -0.7987  0.1899  -0.03451  0.01056  -0.009241  0.02471  -0.722  0.5665
6.358e+09  -0.7076  0.5166  0.001096  -0.016  -0.003115  0.03951  -0.5416  0.7768
6.359e+09  -0.5695  0.7298  -0.004125  0.001125  0.02644  -0.01268  -0.2378  0.9223
6.36e+09  -0.2186  0.8791  -0.04363  0.001643  0.01575  -0.008179  0.09951  0.92
6.361e+09  0.07726  0.9054  -0.004047  0.002002  -0.006013  -0.0246  0.3815  0.8737
6.362e+09  0.369  0.8311  0.009742  0.004299  -0.002045  0.01709  0.7084  0.6705
6.364e+09  0.6609  0.6442  -0.01606  -0.002821  0.003735  -0.02705  0.8308  0.3884
6.365e+09  0.8189  0.3553  -0.002794  0.003648  0.006405  0.0009773  0.9301  0.04906
6.366e+09  0.937  0.05084  -0.004287  0.01055  0.02532  0.02348  0.923  -0.2142
6.368e+09  0.8504  -0.2648  -0.01866  -0.01749  0.0183  0.04058  0.7853  -0.5087
6.369e+09  0.7632  -0.5481  0.01048  0.008588  -0.02114  -0.02297  0.5053  -0.7366
6.37e+09  0.5208  -0.7416  -0.02031  0.01648  0.03644  0.011  0.2548  -0.9292
6.371e+09  0.2026  -0.8603  0.01144  -0.007186  0.02428  -0.004917  -0.07222  -0.9571
6.372e+09  -0.1033  -0.8888  -0.03218  0.02933  0.04386  0.03783  -0.3599  -0.8574
6.374e+09  -0.4273  -0.8357  -0.008647  -0.04339  0.002175  0.0128  -0.6989  -0.6816
6.375e+09  -0.6851  -0.614  0.01392  0.04971  -0.03521  -0.01277  -0.8407  -0.4238
6.376e+09  -0.8367  -0.3083  -0.00337  0.0285  -0.01037  -0.03122  -0.9532  -0.07108
6.378e+09  -0.9192  -0.0616  -0.008578  -0.01112  -0.03344  -0.02192  -0.9046  0.2683
6.379e+09  -0.8539  0.3293  -0.02496  -0.01011  0.01709  0.007832  -0.7888  0.5622
6.38e+09  -0.7134  0.5655  0.02576  0.0009457  0.01198  -0.01892  -0.5521  0.7536
6.381e+09  -0.4715  0.7713  -0.009444  0.01419  0.0138  -0.02243  -0.2754  0.9151
6.382e+09  -0.1326  0.8844  0.02108  0.02776  0.01405  0.01509  0.08688  0.9374
6.384e+09  0.1684  0.9102  0.0135  0.03451  0.009776  0.01174  0.4108  0.8731
6.385e+09  0.4566  0.8135  0.01261  -0.03659  -0.04728  0.001356  0.6161  0.6796
6.386e+09  0.7078  0.5549  0.002711  -0.0336  0.04686  -0.005699  0.8355  0.4264
6.388e+09  0.9017  0.2626  -0.03424  0.01615  -0.01237  -0.01547  0.9426  0.1455
6.389e+09  0.9104  -0.03877  -0.04604  0.01358  -0.006941  -0.05125  0.8857  -0.2026
6.39e+09  0.8501  -0.3243  0.02585  -0.01059  -0.03035  0.03241  0.7973  -0.4977
6.391e+09  0.7336  -0.5855  0.03529  0.02869  -0.02828  0.01391  0.5453  -0.7284
6.392e+09  0.402  -0.7929  0.002894  -0.001118  0.03652  0.02855  0.2829  -0.8415
6.394e+09  0.1163  -0.8753  -0.02455  -0.01083  -0.05441  -0.007801  -0.05084  -0.9038
6.395e+09  -0.2067  -0.8318  0.02632  0.03246  -0.01981  0.04097  -0.3349  -0.8645
6.396e+09  -0.4589  -0.7578  -0.04885  -0.05603  0.02144  -0.001255  -0.5996  -0.6581
6.398e+09  -0.7271  -0.5859  -0.04997  0.01296  -0.01068  -0.01917  -0.7809  -0.4754
6.399e+09  -0.868  -0.2844  0.01179  0.00649  0.007493  -0.01497  -0.9279  -0.1142
6.4e+09  -0.9147  0.02922  -0.003141  0.000665  -0.001266  -0.014  -0.9059  0.1444
6.401e+09  -0.8375  0.3306  -0.002721  0.01659  0.03181  0.03968  -0.7688  0.4969
6.402e+09  -0.6043  0.593  0.004783  -0.002991  0.01314  -0.06235  -0.5939  0.7168
6.404e+09  -0.392  0.8045  -0.02354  -0.0764  0.01659  -0.0006296  -0.3151  0.9217
6.405e+09  -0.1183  0.8606  0.01477  0.01553  0.0118  -0.03916  -0.05382  0.8825
6.406e+09  0.2394  0.834  0.02314  0.04061  -0.03602  0.01043  0.3225  0.8512
6.408e+09  0.4953  0.7094  0.009886  0.02035  -0.002129  0.002822  0.5811  0.6668
6.409e+09  0.6793  0.4791  -0.01854  0.016  -0.001163  -0.007496  0.7776  0.4427
6.41e+09  0.8353  0.2918  -0.007663  -0.03  0.04293  0.008701  0.9061  0.1602
6.411e+09  0.893  -0.04149  0.003543  0.0002739  -0.0128  0.01614  0.9027  -0.2026
6.412e+09  0.8222  -0.3591  -0.008841  -0.006633  0.02651  0.01443  0.7146  -0.5159
6.414e+09  0.625  -0.6465  -0.02107  -0.02222  -0.009411  0.04941  0.5595  -0.6728
6.415e+09  0.3883  -0.7832  -0.02254  0.01546  -0.007994  0.001804  0.3109  -0.8384
6.416e+09  0.0712  -0.896  -0.0546  -0.03979  0.03365  0.005338  -0.01434  -0.8567
6.418e+09  -0.2128  -0.9007  -0.008879  0.03886  -0.01352  -0.0181  -0.352  -0.8282
6.419e+09  -0.4891  -0.7368  -0.03285  0.009702  0.006323  0.02784  -0.5372  -0.7334
6.42e+09  -0.731  -0.5027  0.02925  0.009857  -0.04136  -0.02377  -0.7826  -0.4678
6.421e+09  -0.893  -0.2003  -0.003498  0.01686  -0.03645  0.009876  -0.8559  -0.2259
6.422e+09  -0.8908  0.13  0.02808  0.004897  -0.01314  -0.0283  -0.9134  0.1092
6.424e+09  -0.7722  0.4089  -0.005793  -0.02028  -0.03858  0.01307  -0.7814  0.374
6.425e+09  -0.6197  0.6369  0.01658  0.003159  -0.03903  -0.01945  -0.6003  0.636
6.426e+09  -0.3692  0.846  -0.0171  0.0342  0.02693  -0.0168  -0.3358  0.7675
6.428e+09  -0.07515  0.9099  0.00783  -0.001614  0.002266  0.01275  -0.06488  0.8547
6.429e+09  0.2308  0.8745  0.01646  -0.04144  0.05143  -0.01507  0.2415  0.8333
6.43e+09  0.5047  0.698  0.005924  -0.02264  -0.01728  -0.04971  0.4756  0.7415
6.431e+09  0.8152  0.491  0.01513  -0.05519  0.05783  -0.03736  0.7153  0.5067
6.432e+09  0.8693  0.1812  0.02639  0.004222  0.04004  0.04688  0.8528  0.1904
6.434e+09  0.8641  -0.09481  0.01595  0.03936  -0.01842  0.002698  0.8443  -0.05683
6.435e+09  0.8109  -0.3824  0.01671  0.02105  -0.02758  0.0001658  0.7837  -0.4054
6.436e+09  0.6052  -0.6509  0.001789  -0.03179  -0.01446  0.0349  0.5983  -0.6223
6.438e+09  0.3322  -0.8711  0.02203  0.024  0.01909  0.02964  0.375  -0.8176
6.439e+09  0.05255  -0.9293  -0.02039  -0.006331  0.01795  0.02013  0.06383  -0.8463
6.44e+09  -0.3063  -0.8926  0.02041  0.01624  0.006073  0.0869  -0.2039  -0.8234
6.441e+09  -0.5668  -0.7068  0.02196  -0.002805  0.009377  0.01922  -0.5104  -0.6829
6.442e+09  -0.7217  -0.5156  0.04398  0.01246  0.03337  0.01509  -0.6861  -0.4809
6.444e+09  -0.8759  -0.1938  -0.02185  0.02029  -0.02016  0.01229  -0.835  -0.1876
6.445e+09  -0.8812  0.1212  -0.01919  -0.02363  0.03541  0.009029  -0.8991  0.09758
6.446e+09  -0.8204  0.3992  -0.01641  0.01829  -0.02569  -0.01153  -0.7451  0.4239
6.448e+09  -0.6272  0.6579  0.005482  -0.02886  0.02007  0.01946  -0.5962  0.5604
6.449e+09  -0.2871  0.8777  0.03379  -0.004297  -0.04681  0.05074  -0.3278  0.7259
6.45e+09  -0.05934  0.9324  0.02477  -0.02048  -0.01647  0.0068  -0.07858  0.8437
6.451e+09  0.3543  0.9192  -0.02755  0.02981  0.01374  -0.01435  0.216  0.7892
6.452e+09  0.5557  0.6956  -0.02124  0.0341  0.03515  0.01028  0.447  0.6894
6.454e+09  0.8107  0.4744  -0.04346  -0.02706  0.03919  0.008805  0.6775  0.4684
6.455e+09  0.9193  0.1564  -0.008828  0.03772  -0.01841  -0.003619  0.767  0.1983
6.456e+09  0.9194  -0.1549  -0.01094  -0.02249  -0.004293  0.01603  0.7798  -0.09875
6.458e+09  0.8081  -0.444  0.007276  -0.03061  0.004194  -0.02536  0.7164  -0.3546
6.459e+09  0.5971  -0.7301  -0.005855  -0.00343  0.05956  0.03129  0.6102  -0.5458
6.46e+09  0.3313  -0.8907  0.0178  0.02787  0.01182  0.03069  0.3301  -0.7386
6.461e+09  0.01721  -0.8893  0.007135  -0.01903  -0.003725  -0.007917  0.01645  -0.7869
6.462e+09  -0.3334  -0.8438  0.01288  -0.001898  -0.01514  -0.03004  -0.2304  -0.764
6.464e+09  -0.6197  -0.6988  0.005453  -0.041  0.02931  -0.0193  -0.4602  -0.642
6.465e+09  -0.779  -0.4382  -0.02763  0.03853  -0.03611  0.01079  -0.6299  -0.4491
6.466e+09  -0.9363  -0.1076  0.03555  0.01938  0.009118  -0.01453  -0.7937  -0.2205
6.468e+09  -0.9141  0.1908  -0.002796  -0.006096  -0.001031  -0.0003392  -0.805  0.09734
6.469e+09  -0.7854  0.5348  0.04128  0.036  -0.06728  -0.009073  -0.723  0.3359
6.47e+09  -0.58  0.7447  0.02307  0.04609  0.004086  -0.001492  -0.5063  0.5567
6.471e+09  -0.2321  0.9528  -0.005566  0.005165  -0.03855  0.01921  -0.329  0.7199
6.472e+09  0.08861  0.9705  -0.05286  -0.001383  -0.00747  -0.002075  -0.02715  0.7683
6.474e+09  0.3984  0.8276  0.0265  0.004644  -0.05183  -0.058  0.1961  0.7827
6.475e+09  0.6473  0.6993  -0.0003184  -0.04629  -0.01599  0.01796  0.4627  0.6637
6.476e+09  0.8594  0.3961  0.01084  0.05961  -0.0487  0.02437  0.6395  0.4587
6.478e+09  0.9918  0.05223  0.0006002  0.01298  0.03397  0.007904  0.7577  0.1872
6.479e+09  0.9305  -0.2451  -0.004682  0.03902  0.03404  0.01803  0.8383  -0.08831
6.48e+09  0.7787  -0.5617  -0.02984  0.0184  -0.001258  -0.01606  0.6864  -0.3875
6.481e+09  0.5291  -0.7689  -0.01511  -0.02001  0.02476  -0.009737  0.5414  -0.5779
6.482e+09  0.1596  -0.953  0.009188  0.01741  0.05207  -0.01887  0.2733  -0.7278
6.484e+09  -0.1885  -0.9506  0.02207  -0.04105  0.03027  0.02416  0.0366  -0.8023
6.485e+09  -0.4862  -0.7929  0.03905  -0.03895  -0.0581  -0.005131  -0.2272  -0.7406
6.486e+09  -0.716  -0.6159  0.0281  -0.02632  -0.01739  -0.01713  -0.4106  -0.6498
6.488e+09  -0.8439  -1.085  0.004192  -0.01839  -0.643  0.2608  -0.6723  -0.4325
6.489e+09  -0.966  -0.01358  0.04545  -0.02128  -0.003614  -0.02613  -0.7882  -0.1762
6.49e+09  -0.8907  0.3691  -0.02381  -0.01353  -0.01184  0.03908  -0.7771  0.07596
6.491e+09  -0.7562  0.6749  0.006575  -0.0005325  0.05035  0.03514  -0.6924  0.3103
6.492e+09  -0.4889  0.8539  -0.01609  0.02287  0.04198  -0.02486  -0.5179  0.5579
6.494e+09  0.02327  0.968  0.009107  0.01199  -0.04444  -0.07794  -0.2743  0.7087
6.495e+09  0.2178  0.9371  -0.04501  -0.0249  -0.03587  0.0005421  -0.06226  0.7626
6.496e+09  0.5472  0.8349  0.01238  -0.0428  -0.00819  -0.007586  0.2401  0.7044
6.498e+09  0.7928  0.586  -0.02529  0.0106  -0.005216  -0.005089  0.4528  0.6426
6.499e+09  0.944  0.2354  0.00347  0.01108  0.04319  0.0113  0.6338  0.3791
6.5e+09  0.7244  -0.2197  -0.00835  -0.04478  -0.0586  0.01308  0.7075  0.1638
6.501e+09  0.8763  -0.4421  -0.0004774  -0.008901  0.02475  -0.05721  0.7436  -0.1188
6.502e+09  0.6435  -0.6946  -0.004043  -0.04295  0.009078  -0.05668  0.6599  -0.367
6.504e+09  0.4105  -0.8741  0.01024  0.01167  -0.01059  0.01777  0.5134  -0.5555
6.505e+09  0.02523  -0.952  -0.001144  -0.007358  -0.008128  -0.02062  0.2808  -0.7227
6.506e+09  -0.2981  -0.9369  -0.0126  0.005384  -0.04691  -0.002977  0.0243  -0.7507
6.508e+09  -0.5574  -0.7808  -0.03106  -0.009889  0.05832  0.01648  -0.2491  -0.711
6.509e+09  -0.7964  -0.5239  0.01747  0.0009289  0.002348  0.02583  -0.5019  -0.584
6.51e+09  -0.9452  -0.1952  0.02252  -0.01538  0.0051  0.05049  -0.6453  -0.3962
6.511e+09  -0.9548  0.1632  -0.003881  0.03293  0.006857  0.05529  -0.754  -0.168
6.512e+09  -0.7912  0.5094  -0.01086  0.022  0.02331  0.003961  -0.7436  0.09549
6.514e+09  -0.5636  0.73  -0.02009  -0.02814  0.02352  -0.03806  -0.6503  0.3995
6.515e+09  -0.334  0.9413  -0.01938  0.004615  -0.007362  -0.01122  -0.4989  0.551
6.516e+09  0.03112  0.9871  -0.01172  -0.01679  0.01317  -0.06768  -0.2605  0.6827
6.518e+09  0.4166  0.8807  0.04655  -0.01015  0.02329  -0.04011  0.01698  0.7408
6.519e+09  0.7006  0.7404  -0.003452  0.005643  0.000998  0.001792  0.2566  0.671
6.52e+09  0.8657  0.4197  -0.0329  -3.365e-06  0.006025  0.05202  0.4678  0.5241
6.521e+09  0.9758  0.04766  0.01934  0.03079  -0.06339  -0.01266  0.6662  0.3411
6.522e+09  0.9314  -0.2549  0.03653  -0.003438  -0.01271  0.007453  0.6736  0.09963
6.524e+09  0.7732  -0.5357  -0.001661  -0.006052  0.00369  -0.000364  0.701  -0.1435
6.525e+09  0.4797  -0.7403  0.01163  -0.01883  -0.03996  0.03004  0.6161  -0.4371
6.526e+09  0.2107  -0.9241  -0.004937  0.007179  -0.006175  0.03211  0.437  -0.5925
6.528e+09  -0.1403  -0.9556  -0.0115  -0.01339  -0.002995  -0.01935  0.1761  -0.713
6.529e+09  -0.4767  -0.8495  -0.006555  -0.01066  0.02696  -0.007347  -0.09298  -0.7329
6.53e+09  -0.7744  -0.6121  -0.01568  -0.006049  -0.03834  0.006619  -0.2451  -0.6423
6.531e+09  -0.9188  -0.3516  -0.01109  -0.009384  -0.02178  -0.009896  -0.479  -0.4652
6.532e+09  -0.9509  0.02281  -0.00858  0.002868  -0.00236  -0.01489  -0.5941  -0.2709
6.534e+09  -0.8284  0.3278  0.01078  0.002841  -0.002222  0.04264  -0.6436  -0.08561
6.535e+09  -0.7216  0.6183  -0.01104  -0.009459  0.02143  -0.006443  -0.6266  0.1232
6.536e+09  -0.4427  0.8519  0.03007  0.02708  0.0005871  0.04123  -0.5547  0.2806
6.538e+09  -0.1501  0.9754  0.01229  -0.01825  -0.02189  -0.01398  -0.4486  0.4484
6.539e+09  0.2239  0.8543  0.000805  0.008194  -0.0006233  0.01991  -0.2757  0.631
6.54e+09  0.5368  0.7386  -0.02465  -0.005127  0.01704  -0.01406  -0.03965  0.7035
6.541e+09  0.7927  0.4893  -0.03306  -0.007051  0.00132  -0.01423  0.1916  0.6552
6.542e+09  0.8517  0.2467  -0.04512  0.0162  0.01615  -0.05677  0.4214  0.5823
6.544e+09  0.9089  -0.1034  -0.023  0.005977  0.04181  0.02041  0.5729  0.4247
6.545e+09  0.7556  -0.4389  -0.01043  -0.03452  0.01104  0.003057  0.7354  0.1553
6.546e+09  0.5987  -0.6739  -0.02397  0.01057  -0.02905  -0.05629  0.7399  -0.1025
6.548e+09  0.3421  -0.825  0.01596  0.01093  0.02116  0.0465  0.6388  -0.3004
6.549e+09  -0.01348  -0.8246  0.01753  -0.006262  -0.04339  -0.0008666  0.4714  -0.5415
6.55e+09  -0.268  -0.8166  0.01198  0.01458  0.01844  -0.02916  0.2628  -0.6835
