# Hz S RI R 50
6.25e+09  -0.3932  0.7815  0.006706  -0.03048  0.006016  0.01826  0.1405  0.4765
6.251e+09  -0.07007  0.8691  -0.00695  0.02134  -0.0204  0.04062  0.3719  0.3912
6.252e+09  0.2168  0.8356  -0.01607  0.004805  -0.05799  -0.02321  0.5403  0.2363
6.254e+09  0.4773  0.6757  -0.007192  -0.003036  -0.03455  -0.0287  0.6104  0.01024
6.255e+09  0.7234  0.4763  -0.003151  -0.01586  -0.02245  -0.01109  0.5764  -0.2271
6.256e+09  0.8435  0.2008  0.008401  -0.006763  0.01554  -0.002684  0.464  -0.4255
6.258e+09  0.7834  -0.1121  -0.03309  0.02101  0.006285  -0.009931  0.308  -0.5949
6.259e+09  0.751  -0.3734  0.01293  0.02258  0.03094  -0.02996  0.06108  -0.6648
6.26e+09  0.6227  -0.5864  0.008775  0.001212  -0.01406  0.005788  -0.2428  -0.6409
6.261e+09  0.2588  -0.7629  0.03606  -0.004712  0.01091  -0.05301  -0.4187  -0.5224
6.262e+09  0.0286  -0.778  -0.009529  -0.03082  0.01104  0.01302  -0.6239  -0.3129
6.264e+09  -0.2377  -0.7723  -0.01344  0.01102  -0.009217  -0.04938  -0.7036  -0.1316
6.265e+09  -0.541  -0.6476  0.03805  0.02323  0.05583  -0.01622  -0.7053  0.1526
6.266e+09  -0.7115  -0.3953  -0.02492  0.01082  -0.06796  0.05536  -0.6183  0.4039
6.268e+09  -0.7741  -0.1647  -0.0002478  0.02273  0.01019  0.01955  -0.4244  0.5546
6.269e+09  -0.8465  0.03482  0.00739  0.01153  0.01993  -0.04142  -0.1656  0.7416
6.27e+09  -0.7276  0.3879  0.001205  0.0007164  -0.001857  0.02743  0.06132  0.7523
6.271e+09  -0.5602  0.58  -0.02147  -0.008575  -0.04724  -0.04892  0.3181  0.6752
6.272e+09  -0.3213  0.7272  -0.01849  0.008329  0.03087  0.02746  0.5512  0.5237
6.274e+09  -0.003955  0.8128  0.01499  -0.001086  -0.007883  0.02645  0.6876  0.2875
6.275e+09  0.1649  0.7768  -0.004973  0.02152  0.0458  0.02576  0.7416  0.01624
6.276e+09  0.4833  0.6592  -0.01692  0.01632  -0.05592  0.05549  0.7203  -0.2035
6.278e+09  0.6825  0.406  0.008857  0.007644  -0.009633  0.002657  0.627  -0.4727
6.279e+09  0.8299  0.1558  0.01326  -0.002081  0.002971  -0.01258  0.4014  -0.6646
6.28e+09  0.7678  -0.1256  0.005996  -0.02184  -0.009717  -0.001867  0.1802  -0.7771
6.281e+09  0.6915  -0.3777  -0.001719  -0.01832  0.05678  0.02425  -0.1084  -0.7404
6.282e+09  0.4995  -0.5883  0.02037  0.007095  0.02237  0.08123  -0.3693  -0.6917
6.284e+09  0.3283  -0.7804  0.03473  0.01354  0.03626  -0.01758  -0.6021  -0.5097
6.285e+09  0.05416  -0.7451  -0.001102  0.01515  -0.01592  0.0002909  -0.7288  -0.2721
6.286e+09  -0.2801  -0.7932  0.02565  -0.007896  -0.03747  -0.00359  -0.7951  -0.004388
6.288e+09  -0.4895  -0.597  0.01738  -0.02874  -0.01975  -0.03937  -0.7817  0.2601
6.289e+09  -0.6888  -0.4472  -0.00518  -0.005764  -0.04259  0.0005695  -0.6194  0.5249
6.29e+09  -0.8133  -0.1708  0.007434  -0.02068  0.03475  -0.014  -0.3981  0.6787
6.291e+09  -0.8016  0.1483  -0.01728  -0.04045  0.01661  -0.0302  -0.1501  0.7856
6.292e+09  -0.6713  0.4004  -0.01001  -0.0082  -0.01462  -0.03915  0.1237  0.8186
6.294e+09  -0.5555  0.594  -0.008238  0.02935  0.02878  0.004448  0.3781  0.7168
6.295e+09  -0.308  0.765  0.0262  -0.01587  0.01424  -0.01402  0.6199  0.5428
6.296e+09  0.01197  0.8088  0.03003  0.0154  0.009648  -0.003114  0.7867  0.3164
6.298e+09  0.3246  0.729  -0.01775  -0.002653  0.003803  0.03261  0.8194  5.124e-05
6.299e+09  0.5455  0.6286  0.006038  0.02789  -0.05067  -0.008496  0.7716  -0.278
6.3e+09  0.7222  0.4105  -0.01469  -0.005817  -0.04031  0.01395  0.672  -0.5053
6.301e+09  0.8062  0.09042  -0.007473  0.006539  0.03591  -0.002705  0.4379  -0.7087
6.302e+09  0.7864  -0.1417  -0.006583  -0.03126  0.06443  0.0009899  0.16  -0.8266
6.304e+09  0.6826  -0.4091  -0.006765  0.002229  0.01854  -0.009887  -0.1325  -0.8016
6.305e+09  0.4301  -0.6657  0.023  -0.02173  -0.02855  0.06387  -0.3981  -0.7098
6.306e+09  0.2171  -0.7234  -0.0005032  -0.009952  -0.05117  -0.02362  -0.6594  -0.538
6.308e+09  -0.01337  -0.8023  0.01393  -0.02403  -0.02281  -0.03183  -0.7742  -0.2912
6.309e+09  -0.3046  -0.7386  -0.02437  -0.004999  0.1056  -0.02147  -0.8117  -0.006235
6.31e+09  -0.5449  -0.5816  0.01189  0.02906  0.0113  -0.03265  -0.7997  0.286
6.311e+09  -0.7206  -0.371  0.01507  -0.006884  0.002379  0.03866  -0.679  0.5211
6.312e+09  -0.8096  -0.1378  0.02033  0.005741  0.01549  -0.01961  -0.4575  0.7253
6.314e+09  -0.7675  0.2173  -0.01499  0.005697  0.008195  0.06275  -0.1523  0.8286
6.315e+09  -0.6722  0.4967  -0.001678  -0.01358  -0.003617  0.02166  0.158  0.862
6.316e+09  -0.4426  0.6537  -0.02889  0.005134  -0.01104  -0.03124  0.4265  0.7656
6.318e+09  -0.1444  0.7848  0.01034  -0.008471  0.05913  -0.005571  0.6759  0.5857
6.319e+09  0.07522  0.7538  0.003115  -0.02272  0.03468  0.01788  0.8209  0.3195
6.32e+09  0.3724  0.7169  -0.02719  0.0145  -0.06297  -0.04364  0.901  -0.01805
6.321e+09  0.623  0.5383  -0.01736  0.01502  -0.07083  0.03664  0.8462  -0.2693
6.322e+09  0.7667  0.3506  -0.001114  -0.01059  0.01074  0.03722  0.6604  -0.5846
6.324e+09  0.8111  0.0592  -0.0065  0.007743  0.009428  -0.03678  0.4446  -0.7682
6.325e+09  0.8277  -0.2296  0.04717  -0.0009708  -0.004449  0.05608  0.144  -0.877
6.326e+09  0.7018  -0.4346  -0.004329  -0.007722  0.0159  0.01292  -0.1306  -0.8846
6.328e+09  0.4283  -0.7212  0.03938  -0.005265  -0.0004411  -0.02582  -0.4481  -0.7782
6.329e+09  0.2318  -0.8089  -0.004675  -0.02612  0.006677  -0.02292  -0.6548  -0.6185
6.33e+09  -0.1554  -0.8283  -0.01316  -0.01306  -0.04818  0.03044  -0.8548  -0.3259
6.331e+09  -0.4216  -0.7393  -0.02135  0.01698  -0.04839  0.03111  -0.9029  -0.02247
6.332e+09  -0.6774  -0.5481  0.00411  -0.01456  0.02266  -0.006508  -0.8602  0.278
6.334e+09  -0.7405  -0.2986  -0.01212  -0.005821  0.04674  -0.04033  -0.7267  0.5699
6.335e+09  -0.7844  0.06767  -0.00426  0.01225  -0.04992  -0.02153  -0.4731  0.8086
6.336e+09  -0.7903  0.2916  -0.008149  -0.01034  -0.02008  -0.0001496  -0.1778  0.9009
6.338e+09  -0.6563  0.5481  -0.02303  -0.02107  -0.03673  0.009815  0.1319  0.9182
6.339e+09  -0.4045  0.756  -0.007074  0.003549  -0.02386  -0.02007  0.4402  0.8169
6.34e+09  -0.1425  0.8421  0.0318  -0.01634  0.0227  -0.01692  0.6848  0.6271
6.341e+09  0.1827  0.8398  0.0163  0.02984  0.004246  -0.01133  0.8251  0.3808
6.342e+09  0.4498  0.7007  0.02028  0.01787  0.006384  0.01697  0.9075  0.0358
6.344e+09  0.6923  0.5124  0.006288  0.001424  0.004147  -0.0002402  0.8976  -0.2814
6.345e+09  0.8104  0.237  -0.03049  -0.001949  -0.0336  -0.01474  0.7653  -0.5557
6.346e+09  0.861  -0.07772  0.002103  0.009027  -0.01072  -0.01406  0.533  -0.7841
6.348e+09  0.7693  -0.347  0.02205  0.009699  -0.001339  0.02313  0.2284  -0.9147
6.349e+09  0.618  -0.5869  -0.02303  0.03032  0.0143  -0.02609  -0.09924  -0.9188
6.35e+09  0.3398  -0.7975  0.02136  -0.002957  -0.01722  0.01306  -0.4315  -0.8513
6.351e+09  0.06478  -0.8566  -0.03502  -0.01858  -0.04123  -0.003956  -0.669  -0.6653
6.352e+09  -0.2274  -0.8113  -0.03461  -0.007233  0.01299  -0.02701  -0.8517  -0.3586
6.354e+09  -0.4721  -0.717  0.0136  -0.01323  0.01491  -0.0259  -0.9173  -0.04951
6.355e+09  -0.749  -0.5275  -0.006081  0.04296  -0.02786  -0.01256  -0.9126  0.2519
6.356e+09  -0.886  -0.2209  -0.002452  -0.01594  -0.003617  0.008035  -0.7739  0.5541
6.358e+09  -0.7958  0.07332  -0.0298  -0.01861  0.004595  -0.04192  -0.5543  0.7645
6.359e+09  -0.7411  0.4126  0.01632  0.001065  -0.02849  0.0008376  -0.2497  0.9634
6.36e+09  -0.5923  0.6196  -0.03978  0.01351  -0.02323  -0.007182  0.1022  0.969
6.361e+09  -0.3289  0.8314  0.01625  0.02568  0.002509  -0.01812  0.3744  0.8589
6.362e+09  -0.0342  0.8856  -0.01925  -0.02005  -0.001602  -0.007122  0.7249  0.6502
6.364e+09  0.2911  0.7796  0.03366  -0.02337  0.02548  -0.00051  0.8505  0.3615
6.365e+09  0.5443  0.6181  -0.02427  -0.005673  -0.01864  0.03404  0.9454  0.06452
6.366e+09  0.7093  0.4251  0.03463  0.004332  0.02801  0.02842  0.9105  -0.2121
6.368e+09  0.8804  0.1647  0.01623  0.02768  0.03997  0.01158  0.7898  -0.5561
6.369e+09  0.8361  -0.1712  0.01902  -0.00258  -0.05194  0.02992  0.5342  -0.7351
6.37e+09  0.7451  -0.481  -0.001545  -0.03599  0.05259  0.004756  0.246  -0.8294
6.371e+09  0.4776  -0.6504  -0.001104  0.02871  -0.06102  -0.0252  -0.03225  -0.8906
6.372e+09  0.2781  -0.7996  0.05097  -0.002583  -0.001617  -0.02853  -0.3935  -0.836
6.374e+09  -0.01683  -0.8327  0.001859  0.01329  0.01148  -0.001987  -0.6536  -0.6566
6.375e+09  -0.33  -0.7823  -0.02073  0.02801  0.02632  -0.03195  -0.8544  -0.4174
6.376e+09  -0.6394  -0.6183  -0.01308  0.03778  -0.03312  0.01803  -0.9294  -0.08417
6.378e+09  -0.7425  -0.3981  0.001957  0.03403  -0.02108  0.002846  -0.9277  0.2117
6.379e+09  -0.836  -0.1187  0.01278  -0.02029  -0.001738  0.00246  -0.7769  0.4906
6.38e+09  -0.784  0.2187  0.002636  -0.01901  0.04207  -0.005597  -0.6044  0.7178
6.381e+09  -0.6913  0.4668  0.01626  0.03134  0.02997  -0.02175  -0.2686  0.9011
6.382e+09  -0.4933  0.7222  0.04365  0.01842  -0.01316  0.02857  0.1021  0.9291
6.384e+09  -0.2549  0.8  -0.04783  -0.01239  0.004339  0.0189  0.3794  0.8592
6.385e+09  0.1014  0.8778  0.03899  0.02453  0.03128  -0.01652  0.6688  0.6826
6.386e+09  0.2998  0.7731  -0.004182  0.006911  0.02723  0.01373  0.8299  0.3933
6.388e+09  0.5835  0.632  0.01801  0.008236  0.03153  -0.003319  0.9019  0.127
6.389e+09  0.7657  0.3349  0.0172  -0.01056  -0.03724  -0.002897  0.9356  -0.1835
6.39e+09  0.8453  0.06235  -0.008918  0.0008949  -0.005277  -0.03076  0.7942  -0.5092
6.391e+09  0.8116  -0.2401  -0.01813  -0.06367  0.02479  0.009463  0.5813  -0.7233
6.392e+09  0.6932  -0.482  -0.02005  -0.02157  0.06601  0.01591  0.2744  -0.8867
6.394e+09  0.5157  -0.7139  -0.02628  0.05538  0.01813  0.0558  -0.03208  -0.9452
6.395e+09  0.2006  -0.896  0.004787  -0.03134  -0.009101  -0.06564  -0.3154  -0.8321
6.396e+09  -0.1069  -0.8305  -0.02095  -0.01523  -0.004621  -0.02817  -0.6316  -0.6751
6.398e+09  -0.3847  -0.7587  -0.03351  -0.03088  0.01888  -0.01801  -0.7453  -0.4097
6.399e+09  -0.622  -0.5973  0.04672  0.01374  -0.08057  -0.03163  -0.9126  -0.1568
6.4e+09  -0.8168  -0.3331  -0.02039  -0.04155  -0.0225  0.05588  -0.9117  0.158
6.401e+09  -0.8284  -0.04974  0.03147  0.01031  0.001493  -0.0286  -0.8083  0.4685
6.402e+09  -0.7984  0.2274  -0.004766  -0.0005644  -0.02351  -0.01049  -0.5827  0.6901
6.404e+09  -0.6861  0.52  -0.01106  0.00151  -0.02999  0.01774  -0.2973  0.8665
6.405e+09  -0.4734  0.743  -0.01403  0.02169  0.01003  -0.000375  0.007606  0.9262
6.406e+09  -0.19  0.8528  0.01358  -0.02662  -0.01453  0.02316  0.3219  0.8034
6.408e+09  0.1171  0.8058  0.00498  -0.004537  -0.02644  -0.0119  0.5845  0.6732
6.409e+09  0.3769  0.8061  0.02683  -0.009049  -0.03198  -0.005663  0.7913  0.4634
6.41e+09  0.6819  0.5251  -0.02399  -0.05307  -0.02156  0.04434  0.9114  0.1776
6.411e+09  0.7947  0.3494  -0.04049  -0.01468  -0.02982  0.007619  0.856  -0.1459
6.412e+09  0.864  0.03026  0.000956  -0.02254  0.02651  -0.0115  0.8001  -0.4708
6.414e+09  0.8126  -0.2761  -0.04206  -0.028  -0.03079  -0.01921  0.5672  -0.7058
6.415e+09  0.6571  -0.5376  -0.03585  -0.04226  8.43e-06  0.0488  0.3289  -0.8272
6.416e+09  0.4324  -0.6917  0.04166  -0.0318  -0.01235  0.02027  0.01946  -0.9243
6.418e+09  0.1454  -0.8668  -0.004982  -0.01857  0.0306  0.02431  -0.2418  -0.9064
6.419e+09  -0.152  -0.8401  0.00969  0.02822  -0.03362  0.01272  -0.5142  -0.6819
6.42e+09  -0.4319  -0.752  -0.009234  0.02034  0.06942  -0.001103  -0.7794  -0.4522
6.421e+09  -0.6332  -0.5318  0.0105  0.02849  0.02634  0.00679  -0.8643  -0.2022
6.422e+09  -0.7627  -0.3299  0.03508  0.009448  0.01699  -0.01801  -0.892  0.152
6.424e+09  -0.8362  0.04074  -0.0418  -0.005195  0.06894  0.03219  -0.7718  0.4056
6.425e+09  -0.8413  0.2577  0.02733  -0.0004167  -0.0224  0.01141  -0.6228  0.6411
6.426e+09  -0.6803  0.5246  0.02488  0.01197  -0.01264  -0.004952  -0.3168  0.7824
6.428e+09  -0.3393  0.6986  0.005408  0.0002935  -0.01984  0.02649  -0.08949  0.8692
6.429e+09  -0.1504  0.8402  -0.01725  0.01337  -0.0232  -0.02164  0.262  0.8427
6.43e+09  0.1022  0.8427  0.03603  -0.04623  -0.004567  0.025  0.4957  0.7303
6.431e+09  0.4061  0.7496  -0.009907  0.001252  0.05294  -0.02741  0.7208  0.4648
6.432e+09  0.6484  0.5249  0.007192  -0.04921  -0.0177  -0.03708  0.8463  0.2255
6.434e+09  0.8033  0.2837  0.01146  -0.02198  0.02643  0.01232  0.861  -0.04833
6.435e+09  0.839  -0.0364  -0.03276  0.03747  -0.001088  -0.008938  0.7405  -0.382
6.436e+09  0.8435  -0.2905  -0.001856  -0.009696  -0.005164  0.04451  0.5679  -0.636
6.438e+09  0.6781  -0.5401  -0.01206  0.03811  0.01857  -0.06113  0.3162  -0.7595
6.439e+09  0.4501  -0.7262  -0.03204  -0.02133  -0.0202  -0.01522  0.01136  -0.8487
6.44e+09  0.1882  -0.8809  0.00308  -0.03093  0.02255  -0.05956  -0.2158  -0.8417
6.441e+09  -0.1642  -0.8798  0.02536  -0.02613  0.01901  -0.03368  -0.512  -0.6986
6.442e+09  -0.3999  -0.7853  0.0132  -0.02581  -0.01939  0.01854  -0.6846  -0.4269
6.444e+09  -0.7331  -0.5585  -0.01822  -0.004486  0.01322  -0.02409  -0.8005  -0.2086
6.445e+09  -0.813  -0.2907  0.01192  -0.0793  -0.002179  0.02327  -0.8447  0.04967
6.446e+09  -0.8549  0.01819  -0.01781  -0.03103  0.02647  0.05747  -0.7605  0.3593
6.448e+09  -0.7956  0.3251  -0.0004113  -0.03479  0.03283  -0.03738  -0.5993  0.6329
6.449e+09  -0.6549  0.5744  0.002558  -0.002615  0.02204  -0.008666  -0.354  0.7086
6.45e+09  -0.4514  0.7911  -0.000712  -0.002099  -0.02059  -0.02286  -0.0726  0.8089
6.451e+09  -0.1482  0.8537  0.0004824  -0.04139  0.0131  -0.03204  0.1771  0.8379
6.452e+09  0.1635  0.8497  -0.006026  -0.05403  -0.03814  0.01162  0.4524  0.6476
6.454e+09  0.4629  0.7399  -0.0008343  -0.02303  0.01477  0.04063  0.693  0.5091
6.455e+09  0.6864  0.5406  0.009064  -0.01525  0.07609  0.0049  0.8486  0.2294
6.456e+09  0.8408  0.2838  0.04714  0.01064  -0.0267  -0.02392  0.7753  -0.08221
6.458e+09  0.8536  -0.06261  -0.009085  0.02202  0.02123  -0.00296  0.7505  -0.3385
6.459e+09  0.7776  -0.3213  0.01825  -0.01266  0.06842  0.02428  0.5878  -0.5995
6.46e+09  0.6004  -0.5854  0.008352  0.01523  -0.007631  0.02612  0.356  -0.7398
6.461e+09  0.4064  -0.7852  -0.01969  -0.02956  -0.04157  -0.02182  0.08864  -0.7813
6.462e+09  0.1608  -0.8661  -0.005051  0.002034  -0.02652  -0.0002181  -0.1806  -0.8174
6.464e+09  -0.1745  -0.8557  0.01071  -0.0211  0.03852  0.008108  -0.4373  -0.648
6.465e+09  -0.4636  -0.7784  -0.01561  0.001286  -0.02114  -0.02777  -0.6736  -0.4582
6.466e+09  -0.7078  -0.5427  0.02405  0.007265  -0.008139  -0.01562  -0.8013  -0.2082
6.468e+09  -0.8224  -0.2311  -0.04254  -0.005106  0.01886  0.03234  -0.7813  0.07828
6.469e+09  -0.8576  0.01013  -0.03266  -0.00455  -0.008881  0.04609  -0.7362  0.355
6.47e+09  -0.7825  0.3358  -0.03936  -0.03069  0.05697  0.02642  -0.5441  0.5783
6.471e+09  -0.6798  0.6064  -0.04462  -0.0236  -0.01956  0.008729  -0.3165  0.6881
6.472e+09  -0.4368  0.7185  0.002001  0.03587  0.000414  -0.0288  -0.082  0.8161
6.474e+09  -0.1362  0.8757  -0.02937  -0.009624  -0.007787  -0.01345  0.2087  0.7662
6.475e+09  0.2296  0.8827  -0.02078  0.03021  -0.002774  0.0002584  0.4933  0.646
6.476e+09  0.4473  0.7546  -0.02548  0.005064  -0.04308  -0.01766  0.6312  0.3989
6.478e+09  0.7133  0.5246  -0.0201  -0.02394  0.004983  0.02508  0.7662  0.1684
6.479e+09  0.7913  0.1927  0.02029  0.07107  0.0562  0.02852  0.7898  -0.07682
6.48e+09  0.8987  -0.04841  0.02305  -0.01516  0.03078  0.02864  0.7205  -0.3334
6.481e+09  0.8223  -0.3378  -0.02895  0.03647  0.03829  0.02493  0.5071  -0.5731
6.482e+09  0.666  -0.5865  -0.01298  0.02776  0.05381  -0.006711  0.265  -0.7655
6.484e+09  0.3869  -0.7715  0.02502  0.0008169  0.005067  -0.04955  0.05751  -0.7513
6.485e+09  0.1032  -0.9015  0.0243  -0.009326  -0.00484  0.01683  -0.2255  -0.7234
6.486e+09  -0.2304  -0.8709  -0.01548  -0.02942  -0.02625  0.02081  -0.4668  -0.6731
6.488e+09  0.2186  -0.504  0.01446  -0.002229  0.08101  -0.6644  -0.592  -0.4703
6.489e+09  -0.7281  -0.5156  -0.01287  0.002254  -0.01108  -0.02032  -0.732  -0.1514
6.49e+09  -0.8968  -0.2724  -0.01602  -0.01005  -0.002472  -0.007113  -0.7529  0.07125
6.491e+09  -0.8943  0.09398  0.009016  0.03793  -0.02116  0.03107  -0.6954  0.3735
6.492e+09  -0.8013  0.3876  0.005057  0.01957  -0.0341  -0.01836  -0.5327  0.5612
6.494e+09  -0.6963  0.7127  -0.02365  0.002889  0.12  0.0467  -0.2675  0.7102
6.495e+09  -0.3553  0.8342  -0.02341  -0.01823  0.02294  -0.001443  -0.07124  0.7957
6.496e+09  -0.07137  0.8747  -0.02115  0.009323  0.01976  -0.003591  0.2457  0.7248
6.498e+09  0.2678  0.9187  -0.02836  -0.02969  0.009691  -0.006888  0.4474  0.5774
6.499e+09  0.5229  0.6955  -0.006118  -0.01299  0.002425  -0.01083  0.6625  0.4194
6.5e+09  0.7849  0.4512  -0.00953  0.01575  -0.01399  0.01954  0.7158  0.1683
6.501e+09  0.9076  0.2997  -0.006425  0.002937  0.03484  -0.003555  0.7738  -0.1108
6.502e+09  0.8787  -0.1159  -0.03638  -0.005346  0.02133  -0.03301  0.666  -0.3399
6.504e+09  0.8651  -0.3543  0.03502  0.004849  0.01373  -0.0287  0.5085  -0.5269
6.505e+09  0.6669  -0.669  -0.002862  -0.0002465  -0.01728  -0.01706  0.2982  -0.7003
6.506e+09  0.3842  -0.8319  0.03128  0.02018  0.02878  0.02302  0.0146  -0.7936
6.508e+09  0.03576  -0.9096  0.0122  -0.01845  -0.008896  -0.00285  -0.2386  -0.7004
6.509e+09  -0.2328  -0.8297  -0.001475  -0.01207  -0.02825  0.0127  -0.4771  -0.571
6.51e+09  -0.6112  -0.7062  0.04191  0.0001251  -0.03863  0.02709  -0.6849  -0.3617
6.511e+09  -0.778  -0.4901  -0.01184  -0.006018  0.04763  0.007788  -0.7615  -0.1632
6.512e+09  -0.8837  -0.1703  -0.01524  0.03527  0.01326  -0.0233  -0.7411  0.1046
6.514e+09  -0.9051  0.1749  0.005612  0.01395  0.01637  0.001272  -0.6725  0.3464
6.515e+09  -0.8162  0.4217  0.02086  -0.01714  -0.01654  0.01259  -0.5009  0.5753
6.516e+09  -0.5681  0.6944  0.005004  -0.01456  0.0005265  0.03303  -0.2499  0.6801
6.518e+09  -0.329  0.8856  -0.009846  0.01291  0.01269  -2.265e-05  0.008224  0.7223
6.519e+09  0.04139  0.9503  0.006305  0.01128  0.06185  0.02126  0.2951  0.7137
6.52e+09  0.3454  0.8602  -0.05632  0.03343  0.01246  -0.01761  0.5121  0.5695
6.521e+09  0.6337  0.7517  0.002592  0.01922  -0.03398  -0.00602  0.6166  0.3974
6.522e+09  0.8738  0.4327  -0.02887  0.00218  0.007852  0.02363  0.7403  0.1003
6.524e+09  0.9111  0.0951  0.005962  0.0005659  -0.02472  0.02829  0.7346  -0.1704
6.525e+09  0.9484  -0.2286  -0.0445  0.006755  0.04948  0.01505  0.6073  -0.4199
6.526e+09  0.8154  -0.524  -0.01989  -0.02401  0.01994  -0.02363  0.4527  -0.5605
6.528e+09  0.573  -0.7961  0.02568  0.009044  0.05229  0.006888  0.1655  -0.6675
6.529e+09  0.2296  -0.9263  -0.02241  -0.03208  0.002963  -0.03806  -0.06874  -0.6897
6.53e+09  -0.1122  -0.919  0.02057  -0.002714  -0.02275  -0.01348  -0.3053  -0.6214
6.531e+09  -0.365  -0.8599  -0.02566  -0.02342  0.04584  -0.01652  -0.4748  -0.4635
6.532e+09  -0.6861  -0.6824  0.02935  0.01486  0.03181  0.01398  -0.5891  -0.2868
6.534e+09  -0.9392  -0.3715  0.008047  -0.01075  -0.0007753  0.02804  -0.6109  -0.09712
6.535e+09  -0.9981  -0.07898  0.01523  0.03351  -0.01365  0.0102  -0.6558  0.1173
6.536e+09  -0.8717  0.2423  -0.02837  0.008668  0.001176  -0.03462  -0.561  0.2803
6.538e+09  -0.7926  0.6109  0.04571  0.01262  -0.01177  -0.01845  -0.442  0.439
6.539e+09  -0.5268  0.8461  -0.009662  0.03458  -0.0317  -0.0256  -0.2479  0.6317
6.54e+09  -0.1642  0.8971  -0.05592  0.005036  0.00324  0.02552  -0.055  0.7057
6.541e+09  0.1418  0.9159  0.0005543  -0.05111  -0.01594  -0.04065  0.1479  0.646
6.542e+09  0.4597  0.8551  -0.004916  -0.00128  0.02562  -0.01424  0.3913  0.5873
6.544e+09  0.7324  0.5829  0.01819  -0.002577  0.002967  0.04069  0.5531  0.3851
6.545e+09  0.8637  0.3416  0.03891  -0.01276  0.003234  -0.03563  0.6784  0.1659
6.546e+09  0.9794  -0.03334  -0.03132  -0.02521  0.04955  -0.01964  0.706  -0.06158
6.548e+09  0.8832  -0.3598  0.004146  0.02085  -0.01204  -0.02704  0.6529  -0.3344
6.549e+09  0.6872  -0.6194  0.0187  -0.006351  0.006423  0.02237  0.49  -0.5285
6.55e+09  0.405  -0.794  0.02426  0.008427  0.07505  0.02243  0.2602  -0.6794
