# Hz S RI R 50
6.25e+09  -0.3395  0.7733  0.02653  -0.02085  -0.02551  -0.01688  0.1342  0.4819
6.251e+09  -0.0485  0.8112  -0.03599  -0.0003955  0.004533  0.001475  0.3593  0.3897
6.252e+09  0.2176  0.7733  -0.02745  -0.008906  0.01385  -0.06132  0.4982  0.2227
6.254e+09  0.482  0.6742  0.002531  -0.02525  0.0003502  -0.04413  0.5886  -0.01393
6.255e+09  0.7044  0.4587  0.004128  -0.0004641  -0.00116  0.01012  0.5898  -0.1847
6.256e+09  0.8233  0.1993  -0.02617  0.01701  0.03022  0.02451  0.4837  -0.4359
6.258e+09  0.8433  -0.1063  -0.01893  0.02082  0.0262  0.01045  0.305  -0.5584
6.259e+09  0.7479  -0.3366  0.02081  0.006946  0.008524  -0.04904  0.06999  -0.6722
6.26e+09  0.5835  -0.5822  -0.01075  -0.009694  -0.02462  -0.03143  -0.2111  -0.6799
6.261e+09  0.399  -0.7005  0.007693  -0.007397  0.005014  -0.02501  -0.4416  -0.5526
6.262e+09  0.0887  -0.791  0.01241  0.03453  -0.003202  -0.01331  -0.6172  -0.3514
6.264e+09  -0.2266  -0.796  0.00194  0.02401  0.01951  0.0159  -0.7036  -0.1256
6.265e+09  -0.4611  -0.6602  0.01761  -0.01533  0.07375  0.03064  -0.7256  0.1559
6.266e+09  -0.7602  -0.4186  0.03233  0.03916  -0.05846  0.03843  -0.5874  0.3778
6.268e+09  -0.8262  -0.1628  0.01117  0.0121  -0.03216  -0.02806  -0.4524  0.5944
6.269e+09  -0.8271  0.1159  0.01818  -0.02938  0.01659  0.01987  -0.2296  0.7312
6.27e+09  -0.727  0.3735  -0.03432  -0.02583  -0.0003679  -0.02173  0.05768  0.7086
6.271e+09  -0.5296  0.6367  -0.0009508  -0.02589  0.02447  -0.02097  0.302  0.6629
6.272e+09  -0.2788  0.7477  -0.01165  -0.01514  -0.006849  0.01137  0.5334  0.52
6.274e+09  -0.0001438  0.8211  -0.03191  0.01787  -0.01111  -0.01127  0.6721  0.2876
6.275e+09  0.2893  0.7617  0.002256  0.01948  -0.006322  0.0248  0.7673  0.04316
6.276e+09  0.5059  0.6321  -0.006544  -0.001308  -0.01472  0.009633  0.7246  -0.2411
6.278e+09  0.6804  0.4334  0.006356  -0.01399  0.007842  0.04217  0.6311  -0.4448
6.279e+09  0.7949  0.1874  0.03805  0.01562  -0.005963  0.02308  0.4185  -0.6332
6.28e+09  0.7375  -0.1147  -0.01066  -0.01823  -0.008638  -0.0099  0.1565  -0.7716
6.281e+09  0.7138  -0.4088  -0.00649  0.01418  -0.03279  0.01028  -0.09322  -0.7642
6.282e+09  0.4916  -0.5567  0.01144  0.01226  -0.0057  -0.05788  -0.3758  -0.6682
6.284e+09  0.2874  -0.7462  0.01428  -0.000875  -0.01637  -0.007588  -0.6052  -0.502
6.285e+09  0.002573  -0.851  -0.009603  0.01459  -0.03638  0.001484  -0.7417  -0.2859
6.286e+09  -0.2518  -0.8102  0.03378  -0.007878  0.05455  -0.01287  -0.814  -0.01596
6.288e+09  -0.5081  -0.6359  0.02491  -0.03306  0.0256  0.0426  -0.7659  0.2461
6.289e+09  -0.6974  -0.4155  0.02299  0.01161  -0.01874  0.03989  -0.636  0.5044
6.29e+09  -0.7708  -0.1183  0.004846  0.006969  0.01318  0.02363  -0.418  0.6823
6.291e+09  -0.8023  0.1243  0.01124  0.02497  0.01196  -0.01349  -0.1719  0.7934
6.292e+09  -0.6674  0.4028  0.006071  -0.02345  0.02529  -0.02992  0.1217  0.7929
6.294e+09  -0.5228  0.6374  0.009058  -0.01555  0.01864  -0.04742  0.3837  0.6873
6.295e+09  -0.2649  0.7694  -0.0146  0.0143  -0.03937  0.00219  0.6065  0.5463
6.296e+09  0.005696  0.86  -0.009818  0.02618  0.0139  -0.04444  0.7818  0.2812
6.298e+09  0.321  0.7273  -0.01084  -0.01293  0.00271  0.001989  0.7963  0.01927
6.299e+09  0.5611  0.6304  -0.0001082  0.01113  -0.02022  0.02041  0.7893  -0.3013
6.3e+09  0.7314  0.3955  -0.02336  0.004527  -0.06161  0.02188  0.6159  -0.5398
6.301e+09  0.7998  0.1002  -0.01675  0.01958  -0.01384  0.02346  0.4114  -0.7311
6.302e+09  0.8371  -0.1126  0.01163  -0.01462  0.03791  0.03247  0.1393  -0.8328
6.304e+09  0.6775  -0.4095  -0.03218  -0.005271  -0.01011  0.02651  -0.1155  -0.8643
6.305e+09  0.4629  -0.6741  0.003242  -0.02647  0.03783  -0.01134  -0.4225  -0.7381
6.306e+09  0.2452  -0.747  -0.01481  -0.004423  -0.03092  0.0311  -0.6429  -0.5661
6.308e+09  -0.03188  -0.8395  -0.03181  0.01082  -0.01491  0.03463  -0.7935  -0.3054
6.309e+09  -0.3477  -0.7692  0.003277  -0.01694  0.04525  -0.02538  -0.8471  0.01307
6.31e+09  -0.5614  -0.5529  -0.0003435  -0.01066  -0.02767  -0.002246  -0.8011  0.2826
6.311e+09  -0.6902  -0.3438  -0.03293  -0.007416  -0.01088  0.01668  -0.6542  0.5815
6.312e+09  -0.7557  -0.0428  0.03069  0.02621  0.005069  0.01883  -0.4314  0.7259
6.314e+09  -0.8099  0.216  0.002544  -0.02456  -0.01444  -0.01108  -0.1788  0.8766
6.315e+09  -0.6643  0.4117  -0.007744  0.02098  -0.0164  0.03539  0.1388  0.8584
6.316e+09  -0.4541  0.6619  -0.02363  0.01436  -0.02545  -0.009091  0.428  0.7423
6.318e+09  -0.2118  0.8157  0.02309  -0.01491  -0.01347  -0.03235  0.6563  0.5614
6.319e+09  0.1115  0.8226  0.03119  0.01191  -0.02244  0.01918  0.8665  0.3287
6.32e+09  0.3267  0.7053  0.004894  0.01029  -0.007544  -0.03032  0.88  0.02606
6.321e+09  0.5852  0.5584  0.0008541  -0.004607  -0.06498  0.02684  0.8087  -0.268
6.322e+09  0.7455  0.307  0.04101  0.008147  -0.03257  -0.002448  0.7001  -0.5587
6.324e+09  0.8678  0.09236  0.008381  -0.0253  -0.05524  0.03613  0.4619  -0.7659
6.325e+09  0.8419  -0.2089  8.35e-05  -0.01166  -0.01809  -0.00913  0.1609  -0.917
6.326e+09  0.6637  -0.5548  -0.00211  0.00672  0.02023  -0.0447  -0.1437  -0.8884
6.328e+09  0.4704  -0.6671  0.0005523  -0.01734  0.008135  -0.01132  -0.3961  -0.7951
6.329e+09  0.1467  -0.7967  0.02232  -0.02784  0.04151  0.01524  -0.6832  -0.6205
6.33e+09  -0.06361  -0.819  -0.0268  -0.01097  -0.02605  0.01607  -0.8409  -0.3364
6.331e+09  -0.4001  -0.7203  -6.785e-05  0.008257  -0.001556  -0.008685  -0.8872  -0.01207
6.332e+09  -0.6539  -0.5855  0.03484  -0.01431  0.002236  0.02324  -0.8687  0.3006
6.334e+09  -0.8326  -0.3144  -0.005916  0.01136  -0.0311  -0.07378  -0.7099  0.5707
6.335e+09  -0.8468  0.01767  -0.01654  -0.01011  -0.02227  0.03065  -0.4952  0.7977
6.336e+09  -0.7845  0.3088  0.01927  0.01705  -0.002903  0.004969  -0.1739  0.9109
6.338e+09  -0.5915  0.5395  -0.03968  -0.01004  0.01537  -0.01856  0.1047  0.9193
6.339e+09  -0.3571  0.7308  0.01879  -0.005892  -0.03749  0.01078  0.4503  0.8463
6.34e+09  -0.1006  0.8414  -0.01071  -0.00987  -0.00799  0.01403  0.6887  0.614
6.341e+09  0.1573  0.8148  -0.02745  0.03448  -0.02226  0.03024  0.8298  0.3395
6.342e+09  0.454  0.7101  0.02782  -0.01377  0.03517  0.03514  0.9128  0.02169
6.344e+09  0.6834  0.4938  -0.0001938  -0.01853  -0.001543  0.01968  0.8796  -0.2627
6.345e+09  0.7796  0.2642  -0.003366  0.02127  -0.008207  0.002445  0.7265  -0.5677
6.346e+09  0.804  -0.08387  0.0114  0.001426  0.02917  -0.007809  0.5331  -0.8177
6.348e+09  0.7891  -0.3339  -0.007504  0.0275  -0.003539  -0.02138  0.2004  -0.9197
6.349e+09  0.5844  -0.5784  0.006145  0.01014  0.001858  -0.01801  -0.08636  -0.9481
6.35e+09  0.3815  -0.7365  0.01925  -0.01098  0.01701  0.01802  -0.4199  -0.8234
6.351e+09  0.04239  -0.8924  0.02016  -0.0375  -0.005915  -0.03491  -0.6921  -0.6716
6.352e+09  -0.2335  -0.7968  -0.01371  -0.0009276  0.01192  0.0196  -0.8705  -0.3974
6.354e+09  -0.491  -0.6572  0.05386  0.01025  0.004117  -0.02281  -0.9368  -0.04027
6.355e+09  -0.7568  -0.4701  -0.006034  0.02218  0.02461  -0.01288  -0.8943  0.2332
6.356e+09  -0.863  -0.1814  0.01468  -0.01675  -0.019  -0.02493  -0.7952  0.5439
6.358e+09  -0.8741  0.0987  0.008812  0.01461  -0.02373  -0.02216  -0.4992  0.8165
6.359e+09  -0.7348  0.3987  -0.007688  0.02865  0.01384  -0.0137  -0.2249  0.894
6.36e+09  -0.5526  0.6295  -0.02584  0.008334  -0.02452  -0.01166  0.06002  0.8944
6.361e+09  -0.2995  0.8181  -0.01334  -0.009047  -0.03697  -0.002382  0.4098  0.8527
6.362e+09  -0.04847  0.8745  -0.0189  -0.01359  0.002104  0.03045  0.6628  0.6452
6.364e+09  0.2971  0.7603  -0.01991  -0.003377  0.007213  -0.0002147  0.8428  0.3884
6.365e+09  0.6095  0.667  -0.005779  -0.02117  -0.03967  0.0453  0.9684  0.08844
6.366e+09  0.7627  0.4458  -0.009585  0.02228  -0.0116  -0.02303  0.9012  -0.2462
6.368e+09  0.8116  0.1683  -0.00924  0.007659  0.01002  -0.02999  0.7499  -0.574
6.369e+09  0.8188  -0.1738  -0.008346  -0.04657  0.03865  0.01796  0.5418  -0.7497
6.37e+09  0.7177  -0.4388  -0.01682  0.001954  -0.0004817  -0.01165  0.2544  -0.9197
6.371e+09  0.5441  -0.6754  -0.004106  0.007778  -0.006561  -0.01104  -0.07403  -0.9092
6.372e+09  0.3  -0.8283  -0.01514  0.02057  -0.03037  0.03502  -0.3519  -0.8381
6.374e+09  -0.03107  -0.8449  -0.00358  0.02279  -0.03752  0.001176  -0.6919  -0.6696
6.375e+09  -0.3548  -0.7992  -0.01588  0.00618  0.05832  -0.03329  -0.867  -0.4314
6.376e+09  -0.5721  -0.6606  -0.01476  -0.02002  0.04204  0.02541  -0.9159  -0.09929
6.378e+09  -0.7297  -0.3918  0.00838  0.0427  -0.02295  0.0205  -0.9079  0.2669
6.379e+09  -0.829  -0.07445  0.02649  -0.05538  -0.04518  -0.02803  -0.7929  0.5145
6.38e+09  -0.8733  0.21  -0.005391  -0.002433  0.006559  -0.0523  -0.5821  0.7563
6.381e+09  -0.6666  0.4511  0.01227  -0.01734  0.01177  0.02038  -0.2542  0.8783
6.382e+09  -0.5332  0.7495  -0.02396  -0.005361  0.02111  -0.002384  0.08594  0.9403
6.384e+09  -0.2718  0.8003  -0.01127  -0.0009587  0.008835  0.02119  0.3636  0.8213
6.385e+09  0.0814  0.8748  -0.007529  0.02636  -0.007122  0.03488  0.6954  0.6824
6.386e+09  0.3481  0.7991  -0.007595  0.03684  -0.04457  -0.01073  0.8273  0.4548
6.388e+09  0.6129  0.6372  0.007916  0.007675  -0.03389  -0.008009  0.9432  0.1729
6.389e+09  0.7583  0.3664  0.00504  -0.01004  0.01805  0.04917  0.9526  -0.2115
6.39e+09  0.8517  0.07368  -0.005064  -0.007247  -0.01688  0.001151  0.8388  -0.5118
6.391e+09  0.8571  -0.2433  -0.01153  0.02035  -0.009044  -0.04411  0.5678  -0.7555
6.392e+09  0.6914  -0.5326  -0.008838  0.05247  -0.00894  0.0454  0.3085  -0.9149
6.394e+09  0.4768  -0.7326  -0.02677  -0.02168  0.02058  -0.03263  -0.03851  -0.9572
6.395e+09  0.216  -0.8392  0.02201  -0.001015  0.03309  -0.01006  -0.3244  -0.8666
6.396e+09  -0.1099  -0.881  0.01254  0.01391  -0.006295  -0.009079  -0.5834  -0.688
6.398e+09  -0.3854  -0.8003  0.004214  0.01732  -0.005341  -0.0387  -0.7896  -0.4274
6.399e+09  -0.6591  -0.6132  0.02658  -0.01925  0.04698  0.0001219  -0.9273  -0.1148
6.4e+09  -0.8357  -0.3312  0.01698  0.002532  0.008417  -0.0161  -0.8802  0.1689
6.401e+09  -0.8549  -0.05816  0.04342  0.03924  0.0363  -0.01299  -0.747  0.5384
6.402e+09  -0.838  0.2805  0.02662  -0.05148  -0.01869  -0.009364  -0.5718  0.713
6.404e+09  -0.6592  0.5202  -0.04521  -0.04549  -0.01786  -0.01545  -0.3149  0.8561
6.405e+09  -0.4332  0.7306  0.02319  0.01882  -0.001207  0.01505  0.06415  0.9622
6.406e+09  -0.162  0.8572  -0.01538  -0.007862  -0.008387  0.01625  0.337  0.8853
6.408e+09  0.1241  0.8542  -0.0683  -0.004132  -0.01068  0.02293  0.569  0.7232
6.409e+09  0.3758  0.7813  -0.04974  0.01063  -0.02077  -0.01526  0.7756  0.4146
6.41e+09  0.6016  0.568  0.01656  0.004828  0.008696  -0.04836  0.8705  0.1913
6.411e+09  0.8278  0.2859  -0.02561  0.01311  0.01374  -0.01666  0.8866  -0.1435
6.412e+09  0.8229  0.05057  0.0559  -0.02395  0.0186  -0.01203  0.7917  -0.4265
6.414e+09  0.7905  -0.2903  -0.07841  -0.03186  0.007126  0.02574  0.5984  -0.6681
6.415e+09  0.6996  -0.5703  -0.00796  -0.01554  0.02884  0.03331  0.3182  -0.825
6.416e+09  0.42  -0.7305  0.01258  0.02588  -0.003926  -0.02314  0.07987  -0.9046
6.418e+09  0.1835  -0.8646  -0.005954  -0.0693  -0.0132  0.00362  -0.266  -0.8914
6.419e+09  -0.1076  -0.832  0.008806  0.004824  0.000447  0.02999  -0.5091  -0.7159
6.42e+09  -0.4521  -0.7672  0.005518  0.07216  0.01556  -0.05056  -0.7577  -0.5061
6.421e+09  -0.6495  -0.5744  -0.03934  -0.05115  -0.05247  0.006782  -0.8995  -0.1615
6.422e+09  -0.8069  -0.3318  0.03749  -0.02033  0.0111  -0.04532  -0.8809  0.1017
6.424e+09  -0.8242  -0.0001838  0.01907  -0.003121  0.01388  0.01606  -0.7815  0.4364
6.425e+09  -0.802  0.3364  -0.05748  -0.01028  -0.01751  -0.01493  -0.5428  0.6626
6.426e+09  -0.6753  0.5346  0.001383  0.02815  0.007546  0.007911  -0.3587  0.8928
6.428e+09  -0.4143  0.7352  0.02636  0.002487  -0.01372  0.0004156  -0.09075  0.8907
6.429e+09  -0.1758  0.8419  -0.008632  -0.02282  0.05528  0.01826  0.2484  0.7635
6.43e+09  0.1641  0.8832  -0.01505  -0.02331  -0.02434  -0.03419  0.5217  0.7044
6.431e+09  0.4681  0.7394  -0.02836  0.01812  -0.008045  0.05007  0.7136  0.4795
6.432e+09  0.6859  0.5126  -0.03727  -0.01188  -0.03173  0.04751  0.8064  0.1949
6.434e+09  0.8353  0.2536  0.01692  0.001087  -0.01894  0.02405  0.8572  -0.07989
6.435e+09  0.8462  -0.05031  -0.01712  0.00777  -0.009969  0.01814  0.7874  -0.3343
6.436e+09  0.7884  -0.3397  0.06575  0.002555  0.02759  -0.02054  0.6303  -0.5969
6.438e+09  0.6914  -0.5548  -0.001221  -0.0331  0.02285  -0.02493  0.3748  -0.7511
6.439e+09  0.4118  -0.7328  -0.03746  -0.02654  -0.02847  -0.008309  0.1396  -0.8418
6.44e+09  0.153  -0.8933  -0.01363  -0.03497  -0.001816  -0.02486  -0.2263  -0.837
6.441e+09  -0.1691  -0.7804  -0.02917  -0.005  0.01355  0.01191  -0.4828  -0.6543
6.442e+09  -0.4251  -0.7451  -0.000349  0.02728  -0.01943  0.003482  -0.6996  -0.474
6.444e+09  -0.6541  -0.5504  0.002589  0.03497  -0.004696  -0.004163  -0.8284  -0.2018
6.445e+09  -0.8078  -0.2798  -0.007071  -0.001183  -0.05748  0.06703  -0.8378  0.06101
6.446e+09  -0.8826  -0.004034  -0.01061  0.007395  0.04113  -0.01459  -0.7051  0.3273
6.448e+09  -0.7703  0.3295  0.01171  0.01875  -0.01159  0.03858  -0.5958  0.5838
6.449e+09  -0.655  0.5809  -0.004313  -0.03729  0.02928  0.02452  -0.3205  0.7684
6.45e+09  -0.4257  0.7509  0.06499  -0.0115  0.01514  0.02978  -0.03904  0.8485
6.451e+09  -0.1943  0.8583  -0.01521  0.01357  0.02595  -0.05758  0.2481  0.7902
6.452e+09  0.164  0.8222  0.008011  0.01307  -0.01138  0.006916  0.4652  0.6853
6.454e+09  0.4616  0.7235  0.0132  -0.03177  -0.003348  0.02894  0.7023  0.4635
6.455e+09  0.6813  0.5178  0.03725  -0.01728  0.04375  0.01351  0.7938  0.2099
6.456e+09  0.8093  0.3101  -0.0209  -0.01311  -0.005526  -0.02091  0.8333  -0.02524
6.458e+09  0.9023  -0.08055  0.00839  -0.003908  0.03337  -0.007843  0.7635  -0.3437
6.459e+09  0.8678  -0.278  0.02954  -0.03119  -0.008499  0.02596  0.5563  -0.5788
6.46e+09  0.6269  -0.5925  -0.002557  -0.007237  -0.03154  -0.01196  0.3422  -0.7311
6.461e+09  0.4563  -0.7504  0.004955  0.03105  -0.009431  -0.01167  0.05675  -0.7805
6.462e+09  0.0904  -0.8414  -0.04797  0.01775  0.003177  -0.0484  -0.2434  -0.7848
6.464e+09  -0.1909  -0.8742  0.01587  0.02717  0.01496  -0.0008972  -0.456  -0.704
6.465e+09  -0.4587  -0.7641  -0.01218  0.02511  -0.01941  0.04809  -0.6549  -0.4493
6.466e+09  -0.6809  -0.5482  -0.004451  0.009918  0.02849  0.01752  -0.769  -0.2141
6.468e+09  -0.8209  -0.2642  0.03102  0.02736  0.0355  0.007466  -0.8052  0.07814
6.469e+09  -0.8795  0.0502  0.008084  0.01823  -0.02031  -0.02265  -0.7054  0.3763
6.47e+09  -0.7808  0.3361  -0.03657  0.07098  0.006418  -0.06027  -0.5713  0.6022
6.471e+09  -0.6369  0.6008  0.009875  -0.0346  -0.0228  0.03673  -0.3378  0.7362
6.472e+09  -0.3456  0.7721  0.008014  0.01075  -0.01202  -0.04829  -0.05118  0.8036
6.474e+09  -0.1445  0.8794  -0.002232  -0.001822  0.01108  0.05308  0.2387  0.7684
6.475e+09  0.2214  0.865  -0.01264  -0.02265  0.003299  0.01996  0.4796  0.6194
6.476e+09  0.5315  0.7634  -0.02878  0.01255  -0.009076  -0.02686  0.6277  0.4243
6.478e+09  0.7311  0.5649  0.006681  0.06166  -0.006244  -0.03119  0.7323  0.1827
6.479e+09  0.839  0.2408  -0.002412  -0.04246  -0.01253  0.004599  0.7704  -0.07511
6.48e+09  0.8814  -0.1016  0.0135  0.01189  0.03924  0.01236  0.7219  -0.3475
6.481e+09  0.8134  -0.3356  -0.02554  -0.01278  0.02448  -0.009807  0.5817  -0.5618
6.482e+09  0.6256  -0.6153  -0.006077  0.01909  0.02798  -0.03257  0.3293  -0.7063
6.484e+09  0.4116  -0.7867  0.01729  -0.009727  -0.03763  0.03943  0.0717  -0.7518
6.485e+09  0.07787  -0.9102  0.05742  -0.02563  -0.0593  -0.01589  -0.2231  -0.76
6.486e+09  -0.2076  -0.8287  0.002308  -0.0235  0.01314  -0.005522  -0.4937  -0.663
6.488e+09  -0.4298  -0.009599  -0.01945  -0.01988  -0.6043  0.4978  -0.667  -0.4646
6.489e+09  -0.7017  -0.5335  0.01846  0.0206  0.01397  0.02913  -0.742  -0.1718
6.49e+09  -0.8616  -0.2436  0.01357  -0.004869  0.06017  0.02593  -0.7607  0.08928
6.491e+09  -0.8898  0.08016  0.01774  -0.01246  0.03505  0.01284  -0.6845  0.342
6.492e+09  -0.8473  0.4035  0.008137  -0.03584  -0.01425  -0.006959  -0.5597  0.5065
6.494e+09  -0.5573  0.6967  0.01814  0.02521  0.08538  -0.1127  -0.3212  0.712
6.495e+09  -0.3752  0.8462  -0.03348  0.04673  0.001436  0.01261  -0.04134  0.7473
6.496e+09  -0.01732  0.9044  0.004868  0.02881  0.01825  0.01584  0.2034  0.7007
6.498e+09  0.2589  0.8648  -0.03388  -0.008877  0.0752  0.04632  0.4498  0.5943
6.499e+09  0.5387  0.746  0.02176  -0.03311  -0.01224  0.03319  0.6436  0.3946
6.5e+09  0.7572  0.4823  -0.03091  -0.04861  0.001816  0.001529  0.772  0.1659
6.501e+09  0.9016  0.2563  0.0215  0.05296  0.003686  -0.03925  0.7752  -0.1227
6.502e+09  0.9268  -0.1074  -0.02931  0.000613  0.02526  -0.001558  0.72  -0.356
6.504e+09  0.8328  -0.3783  0.004531  0.02069  0.003305  0.03277  0.4969  -0.5668
6.505e+09  0.6019  -0.7103  -0.01107  0.01258  0.01178  0.005931  0.254  -0.6887
6.506e+09  0.3161  -0.8661  -0.03207  -0.0188  0.01444  0.01608  0.02297  -0.759
6.508e+09  -0.001144  -0.9887  0.001321  -0.04059  -0.006415  -0.004462  -0.2495  -0.7143
6.509e+09  -0.2536  -0.8378  -0.01894  -0.01554  0.01052  -0.00979  -0.4902  -0.5806
6.51e+09  -0.5526  -0.711  -0.02748  0.005203  0.01066  0.01144  -0.6835  -0.3949
6.511e+09  -0.7996  -0.4556  0.003148  -0.009625  -0.04334  0.02774  -0.7416  -0.1408
6.512e+09  -0.9103  -0.1762  0.02868  -0.02287  -0.005106  -0.0195  -0.715  0.1112
6.514e+09  -0.8934  0.1508  -0.008261  -0.008831  0.006666  -0.008669  -0.656  0.3301
6.515e+09  -0.7712  0.4647  -0.01636  0.03671  0.05318  0.001625  -0.4601  0.5502
6.516e+09  -0.6282  0.7258  0.003639  -0.004306  0.003692  0.01344  -0.2571  0.7067
6.518e+09  -0.3281  0.9345  0.009852  -0.01663  -0.03495  0.01534  0.02033  0.7333
6.519e+09  -0.03035  0.9651  -0.01079  -0.02104  -0.02568  -0.01795  0.2675  0.7313
6.52e+09  0.327  0.9111  -0.01825  -0.0212  0.00568  0.02159  0.4905  0.5236
6.521e+09  0.6257  0.7026  0.02157  0.00291  0.03141  0.01778  0.6331  0.3326
6.522e+09  0.7848  0.4239  -0.0272  -0.03483  0.01422  0.0003617  0.729  0.09767
6.524e+09  0.9103  0.07622  0.01248  0.02843  0.008875  -0.01667  0.6713  -0.1701
6.525e+09  0.8932  -0.1858  -0.02093  -0.03775  0.009275  0.01453  0.6223  -0.399
6.526e+09  0.7805  -0.5026  -0.003429  0.02473  0.05283  -0.008995  0.4108  -0.5879
6.528e+09  0.5873  -0.7778  0.00311  0.03469  -0.02775  -0.02099  0.1824  -0.645
6.529e+09  0.2287  -0.934  0.01512  -0.01532  -0.002519  -0.01823  -0.03509  -0.6998
6.53e+09  -0.06791  -0.9467  0.006749  0.003939  0.008742  0.02755  -0.2716  -0.6472
6.531e+09  -0.4229  -0.8849  0.004553  0.003633  0.007197  0.01367  -0.4784  -0.4523
6.532e+09  -0.7281  -0.6632  -0.00437  0.02439  0.01719  0.01316  -0.5827  -0.3122
6.534e+09  -0.8256  -0.4188  0.02431  -0.02773  -0.01619  -0.01809  -0.5945  -0.1094
6.535e+09  -0.9008  -0.04029  -8.557e-05  -0.02711  0.01487  0.002475  -0.6198  0.1259
6.536e+09  -0.8953  0.2559  0.01924  0.02908  -0.003026  0.02562  -0.5496  0.312
6.538e+09  -0.7577  0.5218  -0.002091  0.004251  0.004649  -0.01892  -0.4316  0.4661
6.539e+09  -0.478  0.7989  -0.01086  0.001188  -0.02623  0.01636  -0.2578  0.5969
6.54e+09  -0.194  0.9217  0.008688  0.02466  0.01817  -0.005457  -0.07354  0.7138
6.541e+09  0.2076  0.926  0.03567  -0.008208  -0.01675  -0.02297  0.2158  0.6356
6.542e+09  0.439  0.8197  0.001213  -0.00422  0.0268  -0.01108  0.3928  0.56
6.544e+09  0.7152  0.5562  -0.006903  0.02944  0.02995  0.01205  0.6124  0.4135
6.545e+09  0.8823  0.3336  0.005787  0.006684  0.02261  -0.02871  0.7071  0.1697
6.546e+09  0.9267  0.02026  -0.01634  0.001905  -0.04957  0.03716  0.7382  -0.07149
6.548e+09  0.8944  -0.2589  0.004278  -0.02039  0.0006568  -0.02802  0.6795  -0.3271
6.549e+09  0.6379  -0.638  0.004516  -0.008815  0.02207  -0.02454  0.5064  -0.5296
6.55e+09  0.441  -0.7801  0.009492  0.0213  0.007507  -0.0004744  0.3103  -0.6837
