# Hz S RI R 50
6.25e+09  -0.3161  0.726  -0.02455  0.03413  0.01514  0.01389  0.1692  0.4999
6.251e+09  -0.08042  0.7637  -0.0002784  -0.01238  -0.05557  0.007982  0.3806  0.3993
6.252e+09  0.226  0.7706  -0.02473  -0.006243  -0.016  -0.01623  0.5272  0.218
6.254e+09  0.5022  0.6728  -0.0443  -0.04225  0.01451  -0.009276  0.5982  0.0237
6.255e+09  0.6536  0.4605  -0.009486  -0.009272  -0.006478  -0.01466  0.6069  -0.2309
6.256e+09  0.7876  0.2013  0.01754  0.02637  0.003194  -0.005952  0.4641  -0.449
6.258e+09  0.8186  -0.05225  0.01329  0.02466  -0.0207  -0.02176  0.2678  -0.5944
6.259e+09  0.714  -0.3609  0.01511  0.005958  0.0193  0.008055  0.04917  -0.6722
6.26e+09  0.5747  -0.5702  0.006758  -0.02587  -0.03337  -0.02898  -0.2157  -0.6577
6.261e+09  0.3301  -0.7105  0.006455  0.01079  -0.005812  0.03777  -0.434  -0.5223
6.262e+09  0.05772  -0.8063  -0.008792  0.01703  -0.02639  0.009471  -0.6101  -0.3609
6.264e+09  -0.231  -0.7761  -0.01287  -0.0142  -0.03729  0.01294  -0.7108  -0.1164
6.265e+09  -0.462  -0.6248  -0.01886  -0.014  -0.02879  -0.01925  -0.7012  0.1511
6.266e+09  -0.6595  -0.3966  0.02629  0.01108  0.01762  0.02964  -0.6183  0.3755
6.268e+09  -0.7343  -0.1741  -0.002515  -0.02531  0.003862  -0.03967  -0.4252  0.6186
6.269e+09  -0.8126  0.105  -0.01656  0.01834  -0.0125  -0.005203  -0.2243  0.7034
6.27e+09  -0.7279  0.3644  0.007728  -0.00571  0.0354  0.01238  0.1008  0.7233
6.271e+09  -0.517  0.5608  -0.006702  -0.01251  0.01059  0.02508  0.3112  0.6752
6.272e+09  -0.3125  0.7589  0.009294  0.009839  0.005006  -0.002223  0.5519  0.4906
6.274e+09  -0.04488  0.8318  -0.01162  0.02427  0.01883  -0.008262  0.6948  0.3025
6.275e+09  0.2016  0.7419  -0.006781  -0.01886  0.03417  0.006109  0.7508  0.04281
6.276e+09  0.4441  0.6916  -0.005572  0.02172  0.04193  -0.006471  0.7257  -0.2225
6.278e+09  0.6417  0.5134  -0.01523  0.01577  -0.02251  0.0298  0.5975  -0.4789
6.279e+09  0.8316  0.1777  0.009751  -0.009415  0.003875  -0.00304  0.4203  -0.655
6.28e+09  0.7318  -0.08468  -0.03947  -0.007852  0.004801  0.03054  0.1775  -0.7524
6.281e+09  0.7069  -0.3853  0.001852  -0.05371  0.0262  0.01307  -0.08357  -0.7946
6.282e+09  0.5016  -0.5416  0.005339  -0.02084  -0.03168  -0.01047  -0.3837  -0.7106
6.284e+09  0.3295  -0.7416  -0.01066  0.01462  0.03905  -0.03161  -0.5888  -0.5439
6.285e+09  0.005084  -0.7761  0.0296  0.009012  0.02938  0.07015  -0.7292  -0.2714
6.286e+09  -0.2673  -0.7398  -0.001306  0.0236  -0.01254  -0.02163  -0.8031  -0.02866
6.288e+09  -0.5564  -0.635  0.01817  -0.003074  0.01175  -0.05231  -0.7439  0.2561
6.289e+09  -0.6935  -0.3975  0.006573  -0.01418  0.02207  -0.01216  -0.6315  0.5188
6.29e+09  -0.7891  -0.2108  0.02662  -0.001146  0.02585  -0.03326  -0.4185  0.6689
6.291e+09  -0.8343  0.1495  0.01461  -0.02232  0.006282  0.03732  -0.1658  0.7799
6.292e+09  -0.689  0.3657  -0.002707  -0.01546  -0.01853  0.02672  0.1126  0.8285
6.294e+09  -0.5007  0.6349  0.002892  0.001664  -0.02921  -0.0321  0.3826  0.7118
6.295e+09  -0.2565  0.7076  0.02945  -0.02207  0.006224  0.0102  0.5971  0.5445
6.296e+09  -0.03432  0.8223  -0.01346  0.003883  -0.01507  -0.004927  0.7587  0.3048
6.298e+09  0.2939  0.7836  -0.01171  -0.003265  -0.02495  -0.03199  0.8121  0.03778
6.299e+09  0.5868  0.6024  -0.02079  0.00681  0.06517  0.004979  0.7856  -0.2566
6.3e+09  0.6884  0.3754  -0.03562  0.02857  -0.01799  -0.01676  0.64  -0.5184
6.301e+09  0.8178  0.06698  -0.009907  0.0003581  0.009709  -0.04198  0.4229  -0.7039
6.302e+09  0.8219  -0.1735  0.008882  0.01223  0.03222  -0.03115  0.1254  -0.8183
6.304e+09  0.6615  -0.4436  -0.01574  -0.008035  -0.01558  0.03146  -0.106  -0.8305
6.305e+09  0.4609  -0.6814  -0.005313  0.006827  0.002402  0.03032  -0.4225  -0.7461
6.306e+09  0.2549  -0.7671  0.001507  0.004321  0.03227  0.003751  -0.6206  -0.5299
6.308e+09  -0.008382  -0.8311  0.01621  0.04002  0.005495  0.0339  -0.7959  -0.3056
6.309e+09  -0.282  -0.7046  0.007334  -0.007685  -0.003521  0.0007933  -0.8506  -0.0294
6.31e+09  -0.5741  -0.5759  0.0007282  0.01581  -0.01765  -0.01746  -0.8106  0.2757
6.311e+09  -0.711  -0.3477  0.02071  -0.02605  0.006835  0.005574  -0.6625  0.5532
6.312e+09  -0.7993  -0.09452  -0.0137  -0.006799  -0.01964  -0.04789  -0.444  0.7445
6.314e+09  -0.8454  0.2108  -0.02042  0.01418  -0.036  -0.02917  -0.1379  0.8359
6.315e+09  -0.6817  0.4902  -0.006324  0.01959  0.04974  0.0005541  0.1487  0.8676
6.316e+09  -0.4579  0.6772  -0.007084  0.003604  0.01285  0.006821  0.4229  0.7647
6.318e+09  -0.2428  0.7585  0.01697  -0.006765  0.01709  0.02026  0.6455  0.6025
6.319e+09  0.06881  0.8223  -0.004937  -0.055  0.01615  -0.02243  0.7904  0.2972
6.32e+09  0.37  0.76  0.007933  -0.01582  -0.01008  -0.00653  0.8761  0.008986
6.321e+09  0.5856  0.5765  -0.01068  -0.01485  -0.005883  -0.05667  0.8363  -0.3039
6.322e+09  0.7462  0.3466  0.02067  -0.01643  0.02348  -0.01273  0.7134  -0.5684
6.324e+09  0.8398  0.03279  -0.008265  0.0058  0.02269  0.02115  0.4507  -0.7527
6.325e+09  0.7365  -0.298  0.01435  -0.00243  0.01184  0.02308  0.1552  -0.8775
6.326e+09  0.6737  -0.522  0.04084  0.01099  0.04493  0.02281  -0.1417  -0.8777
6.328e+09  0.4236  -0.7242  -0.01883  -0.009356  0.02186  -0.01276  -0.4372  -0.7734
6.329e+09  0.1398  -0.8413  -0.001579  -0.02634  0.01485  0.02601  -0.6956  -0.6082
6.33e+09  -0.1275  -0.8315  0.01949  0.0004212  0.04712  0.05366  -0.8589  -0.3438
6.331e+09  -0.4107  -0.7649  -0.01616  0.01179  -0.01169  0.01847  -0.8924  -0.04198
6.332e+09  -0.6176  -0.541  0.005043  0.02335  0.03425  0.01857  -0.8625  0.284
6.334e+09  -0.7887  -0.2516  0.01501  -0.00525  0.02597  0.003649  -0.7221  0.5884
6.335e+09  -0.8291  -0.04217  -0.002967  -0.01223  0.02859  0.01914  -0.5032  0.7552
6.336e+09  -0.7997  0.299  -0.03177  -0.04906  0.0347  0.008048  -0.2012  0.9162
6.338e+09  -0.6148  0.5373  0.01466  0.00215  -0.01814  0.004934  0.1158  0.9097
6.339e+09  -0.4132  0.7184  -0.03177  -0.01452  0.01218  0.00809  0.3817  0.8163
6.34e+09  -0.1101  0.8498  -0.002131  -0.01267  -0.01166  0.008797  0.7066  0.6191
6.341e+09  0.2025  0.7942  0.02178  -0.012  -0.01449  0.01802  0.8741  0.3546
6.342e+09  0.447  0.6776  -0.003546  0.02357  -0.007507  -0.01786  0.9275  0.02642
6.344e+09  0.7186  0.5671  0.0006359  -0.01538  -0.0102  0.01831  0.8783  -0.2946
6.345e+09  0.7665  0.2359  -0.01256  0.007026  0.04936  0.00184  0.7278  -0.5479
6.346e+09  0.8481  -0.08778  -0.01237  -0.01656  0.00421  -0.04089  0.5555  -0.7512
6.348e+09  0.8037  -0.3396  0.01262  0.0236  -0.001307  0.04044  0.1765  -0.9387
6.349e+09  0.604  -0.583  -0.02709  0.002606  0.04571  -0.009565  -0.1144  -0.9511
6.35e+09  0.353  -0.7771  -0.02136  -0.03938  -0.01557  -0.003138  -0.3946  -0.8382
6.351e+09  0.06967  -0.818  0.01291  -0.02464  0.04701  0.005861  -0.6937  -0.6316
6.352e+09  -0.1952  -0.8395  -0.02873  -0.006756  -0.003369  -0.01371  -0.8785  -0.3703
6.354e+09  -0.5119  -0.6744  -0.01734  0.002992  -0.01997  -0.03681  -0.9442  -0.0834
6.355e+09  -0.7  -0.4993  0.03008  -0.004619  -0.005903  -0.04602  -0.8694  0.2328
6.356e+09  -0.8593  -0.2181  -0.03243  0.009051  -0.01145  -0.00377  -0.7746  0.5406
6.358e+09  -0.8345  0.1245  -0.02652  -0.004309  0.01404  0.001926  -0.4887  0.7843
6.359e+09  -0.7488  0.4191  0.03926  0.01649  0.002234  0.03131  -0.2408  0.9066
6.36e+09  -0.5637  0.6223  0.0007709  -0.01442  -0.01821  0.006716  0.09351  0.958
6.361e+09  -0.3321  0.8697  -0.005666  0.02893  -0.01161  -0.01245  0.4189  0.8342
6.362e+09  -0.06523  0.8786  0.03553  -0.01854  0.004625  0.007113  0.6521  0.6446
6.364e+09  0.2612  0.8157  0.03214  0.008091  0.03815  0.009547  0.8393  0.3687
6.365e+09  0.6134  0.6362  -0.01269  0.0346  0.0124  0.02078  0.94  0.0772
6.366e+09  0.7565  0.4365  0.009031  0.004595  -0.01744  -0.004271  0.8704  -0.2358
6.368e+09  0.8365  0.1398  -0.01454  0.009931  -0.02719  0.04524  0.7982  -0.5574
6.369e+09  0.8329  -0.1435  0.03221  0.02382  0.01955  -0.08158  0.5746  -0.7299
6.37e+09  0.7443  -0.408  -0.006998  -0.01334  0.005897  -0.05952  0.276  -0.932
6.371e+09  0.5717  -0.6939  -0.02008  0.02359  0.02845  0.004568  -0.06928  -0.9422
6.372e+09  0.298  -0.7948  -0.01149  -0.001609  0.01862  0.02498  -0.3893  -0.8069
6.374e+09  -0.03942  -0.8778  -0.04472  -0.04171  0.02974  -0.02039  -0.6933  -0.6965
6.375e+09  -0.3323  -0.7898  0.005621  -0.01281  -0.00513  0.02943  -0.8435  -0.3963
6.376e+09  -0.6145  -0.6083  -0.004329  0.03385  0.0207  0.03161  -0.944  -0.09138
6.378e+09  -0.7315  -0.4154  0.01084  -0.0145  0.008294  0.004045  -0.9002  0.2585
6.379e+09  -0.8166  -0.02115  0.0217  0.02103  0.0002334  0.008768  -0.8259  0.5237
6.38e+09  -0.8012  0.1791  0.01824  0.05567  0.01585  0.01545  -0.5845  0.777
6.381e+09  -0.7036  0.4516  0.03475  0.007671  -0.01807  0.01747  -0.2636  0.8602
6.382e+09  -0.5331  0.6881  -0.06912  -0.001773  0.01531  -0.01463  0.0492  0.9406
6.384e+09  -0.237  0.8471  0.001676  -0.009461  -0.006028  0.0458  0.3845  0.8566
6.385e+09  0.08171  0.9045  -0.001615  -0.02233  -0.02775  -0.01127  0.5954  0.6981
6.386e+09  0.397  0.8214  -0.005751  0.005645  0.001332  0.02388  0.848  0.4298
6.388e+09  0.6028  0.6268  0.02015  -0.002562  -0.002879  0.02852  0.9661  0.1133
6.389e+09  0.7761  0.3414  -0.00454  0.02877  -0.0435  0.03389  0.8888  -0.1764
6.39e+09  0.8748  0.07605  -0.001491  -0.01023  0.01497  0.001596  0.7545  -0.4742
6.391e+09  0.8271  -0.226  -0.02962  0.006411  -0.006291  0.01261  0.5501  -0.7543
6.392e+09  0.6798  -0.4855  -0.0124  0.01967  0.004771  0.01263  0.3378  -0.8902
6.394e+09  0.5292  -0.6599  -0.00831  0.009046  0.02108  0.02335  -0.01059  -0.9285
6.395e+09  0.1961  -0.8191  0.006051  0.01363  -0.02854  0.02525  -0.3369  -0.873
6.396e+09  -0.08207  -0.8761  -0.008231  -0.003374  -0.006361  0.00308  -0.6229  -0.6643
6.398e+09  -0.3913  -0.7911  -0.01302  -0.002233  -0.01049  -0.0223  -0.8003  -0.4364
6.399e+09  -0.6201  -0.5812  0.01806  -0.03476  0.009198  0.001742  -0.9147  -0.119
6.4e+09  -0.7852  -0.3815  0.03317  -0.02192  -0.02402  -0.007456  -0.9217  0.1641
6.401e+09  -0.855  -0.006885  -0.06336  -0.02602  0.001254  0.00704  -0.8091  0.4906
6.402e+09  -0.85  0.2649  0.003464  0.01197  -0.03281  -0.02634  -0.5756  0.6787
6.404e+09  -0.668  0.5125  -0.01205  -0.01298  -0.02216  0.03142  -0.3416  0.8656
6.405e+09  -0.4707  0.725  0.02099  0.01944  -0.001885  0.03793  0.03447  0.9059
6.406e+09  -0.2068  0.8166  0.005523  0.0107  -0.006095  -0.01864  0.3124  0.8367
6.408e+09  0.07125  0.8193  -0.02211  0.01393  -0.03871  -0.02336  0.5765  0.7245
6.409e+09  0.3682  0.7349  -0.02143  0.01836  0.002091  -0.02931  0.8205  0.4891
6.41e+09  0.6175  0.5706  -0.0417  -0.003789  0.001263  0.01107  0.8779  0.1689
6.411e+09  0.7693  0.3163  -0.01572  -0.01229  -0.02901  0.02862  0.8892  -0.1196
6.412e+09  0.8872  0.07826  0.01726  -0.009733  0.0282  0.05007  0.7734  -0.4102
6.414e+09  0.7919  -0.2808  0.0229  0.02843  0.01808  0.008134  0.5388  -0.6986
6.415e+09  0.6272  -0.5536  0.009212  0.05047  0.00896  -0.00482  0.3594  -0.8277
6.416e+09  0.4564  -0.705  0.01089  -0.00619  0.009161  0.02581  0.02118  -0.868
6.418e+09  0.1621  -0.8563  -0.06742  0.04157  -0.01298  0.009952  -0.2295  -0.8494
6.419e+09  -0.1373  -0.8685  0.02175  0.00437  -0.04226  -0.00189  -0.5653  -0.7032
6.42e+09  -0.4283  -0.751  -0.002981  0.03259  -0.009575  -0.00282  -0.7683  -0.5026
6.421e+09  -0.6109  -0.5874  0.002497  -0.007549  -0.01793  -0.007424  -0.8439  -0.15
6.422e+09  -0.7887  -0.3325  -0.0428  0.005279  -0.004194  0.04325  -0.8627  0.1633
6.424e+09  -0.8357  0.003685  -0.01824  0.002036  -0.01867  -0.02055  -0.7434  0.4102
6.425e+09  -0.7666  0.2592  0.01298  -0.004444  0.02194  -0.03564  -0.6162  0.5989
6.426e+09  -0.6281  0.4931  -0.01359  0.02204  -0.03603  -0.01008  -0.3778  0.7564
6.428e+09  -0.4141  0.7289  0.01578  0.05721  -0.02054  0.02048  -0.03229  0.865
6.429e+09  -0.1719  0.8358  0.05873  -0.001821  0.011  -0.04984  0.2609  0.7847
6.43e+09  0.166  0.8246  0.01376  -0.001267  0.02763  -0.00923  0.5069  0.6806
6.431e+09  0.4492  0.6963  0.02235  -0.01698  -0.02977  0.02225  0.7448  0.4821
6.432e+09  0.6272  0.5774  0.04243  -0.01522  0.01975  -0.005627  0.889  0.236
6.434e+09  0.7949  0.3028  -0.01965  -0.04638  -0.003884  -0.03945  0.8679  -0.1146
6.435e+09  0.8089  -0.004911  0.02724  -0.001539  0.01081  0.02161  0.762  -0.3748
6.436e+09  0.8536  -0.3198  0.01371  -0.0009734  -0.03485  -0.002059  0.596  -0.626
6.438e+09  0.6275  -0.5531  -0.002351  0.02068  0.009717  0.005146  0.3375  -0.775
6.439e+09  0.4314  -0.7615  0.02111  0.00296  0.01977  0.04067  0.05728  -0.8253
6.44e+09  0.1528  -0.8272  0.006947  -0.01313  -0.01296  -0.009142  -0.2195  -0.8854
6.441e+09  -0.1821  -0.8563  -0.03351  0.008652  -0.04714  -0.03853  -0.4619  -0.6567
6.442e+09  -0.4105  -0.7407  0.03001  0.02708  -0.05476  0.02626  -0.7043  -0.5058
6.444e+09  -0.6731  -0.5741  0.00989  -0.01424  0.0164  0.0004594  -0.8016  -0.2241
6.445e+09  -0.8256  -0.3187  0.005506  -0.01735  -0.01024  -0.0124  -0.8331  0.06762
6.446e+09  -0.862  -0.01724  0.005071  0.008417  0.04628  0.01629  -0.7782  0.3155
6.448e+09  -0.8002  0.3143  -0.01675  -0.03236  0.002312  0.03534  -0.5741  0.5736
6.449e+09  -0.6307  0.5892  0.06003  0.006471  -0.04755  0.00429  -0.3711  0.7965
6.45e+09  -0.3945  0.7512  0.03898  0.04612  0.09104  0.01481  -0.07762  0.8278
6.451e+09  -0.1422  0.8304  0.02016  -0.01271  0.04098  -0.01398  0.1721  0.8272
6.452e+09  0.1764  0.8276  0.0266  0.004818  -0.000307  -0.02229  0.4807  0.6942
6.454e+09  0.4456  0.7179  0.03573  0.05128  -0.01888  -0.0281  0.6495  0.4628
6.455e+09  0.7243  0.5467  0.006021  -0.0006329  -0.01712  -0.003479  0.761  0.2115
6.456e+09  0.8286  0.2782  0.003668  0.006115  0.01805  0.02174  0.8271  -0.07033
6.458e+09  0.8754  0.01948  -0.01662  0.006876  0.03517  0.008132  0.7305  -0.3346
6.459e+09  0.8271  -0.3056  0.03899  -0.005412  -0.02365  -0.05953  0.5877  -0.5646
6.46e+09  0.6673  -0.5931  -0.03226  -0.005037  0.001629  -0.06098  0.3438  -0.7304
6.461e+09  0.3998  -0.7942  -0.005827  -0.004658  -0.0002272  0.007241  0.06816  -0.811
6.462e+09  0.1062  -0.8498  0.008004  0.03095  0.0007191  -0.006809  -0.2127  -0.8081
6.464e+09  -0.1803  -0.8729  -0.00691  -0.02595  -0.0279  -0.04204  -0.4658  -0.6682
6.465e+09  -0.5037  -0.7203  0.03454  -0.03749  -0.01468  0.05776  -0.6455  -0.4263
6.466e+09  -0.6878  -0.5125  -0.01257  0.01602  -0.02171  0.02303  -0.7552  -0.2111
6.468e+09  -0.8211  -0.239  -0.02162  -0.0267  0.03141  0.01866  -0.7894  0.08247
6.469e+09  -0.8837  -0.008892  0.02011  0.03279  0.01651  -0.05813  -0.7183  0.3522
6.47e+09  -0.8046  0.368  0.01958  0.02428  -0.01722  0.0178  -0.5832  0.5775
6.471e+09  -0.6328  0.6002  -0.0007952  0.01886  -0.007261  -0.05553  -0.3131  0.7185
6.472e+09  -0.3638  0.7978  -0.0089  -0.01256  0.02266  -0.0272  -0.05942  0.79
6.474e+09  -0.08262  0.8312  0.0232  -0.009227  0.02599  0.04175  0.2038  0.7437
6.475e+09  0.1339  0.8966  0.03433  -0.02424  -0.01935  0.01701  0.4662  0.6751
6.476e+09  0.4863  0.7438  0.006779  -0.0365  0.009964  0.01266  0.6478  0.434
6.478e+09  0.6632  0.4916  -0.01534  0.04266  0.02774  0.01679  0.7702  0.2348
6.479e+09  0.904  0.253  0.003251  -0.00982  0.002482  -0.05235  0.735  -0.09357
6.48e+09  0.8804  -0.02619  -0.01512  0.01942  -0.02182  0.001241  0.7071  -0.3165
6.481e+09  0.8224  -0.3271  0.02158  0.007179  -0.002101  -0.01971  0.556  -0.5468
6.482e+09  0.661  -0.6042  0.04792  0.04106  -0.01923  -0.04955  0.3163  -0.7221
6.484e+09  0.4714  -0.8021  -0.0001034  -0.007725  0.0188  -0.002045  0.0292  -0.7524
6.485e+09  0.0588  -0.8643  0.03876  -0.008946  -0.01174  0.01012  -0.2316  -0.7522
6.486e+09  -0.1807  -0.8728  0.001035  0.01148  0.01534  0.00149  -0.4485  -0.6673
6.488e+09  -1.175  -0.3159  0.00566  0.003129  0.6625  -0.3008  -0.6557  -0.4306
6.489e+09  -0.7312  -0.512  0.02273  -7.136e-05  -0.006574  0.01854  -0.7406  -0.2154
6.49e+09  -0.8502  -0.211  -0.0129  -0.01457  -0.04955  -0.01822  -0.7381  0.07996
6.491e+09  -0.901  0.08428  -0.03092  0.04038  -0.03223  0.05859  -0.6595  0.3175
6.492e+09  -0.8251  0.4024  0.03885  -0.007489  -0.008834  -0.0004941  -0.5175  0.5084
6.494e+09  -0.6242  0.5085  0.004776  -0.02438  0.0002293  -0.05764  -0.2628  0.6867
6.495e+09  -0.399  0.8208  0.0009707  -0.0132  0.01141  -0.01701  -0.05392  0.7622
6.496e+09  -0.114  0.8649  0.01676  0.002242  -0.01233  -0.01408  0.2547  0.7885
6.498e+09  0.2721  0.8807  -0.01859  0.007908  -0.02132  -0.01377  0.4617  0.6254
6.499e+09  0.5295  0.709  -0.009272  -0.01923  0.006425  0.0404  0.6499  0.4134
6.5e+09  0.7949  0.5016  0.02472  -0.01052  0.03384  0.03593  0.7318  0.1555
6.501e+09  0.9026  0.2044  -0.01852  -0.002311  -0.02104  -0.079  0.7555  -0.09123
6.502e+09  0.8731  -0.05615  0.01232  0.009675  -0.03547  0.03923  0.6931  -0.3434
6.504e+09  0.7808  -0.3956  0.01507  -0.01064  0.0007044  0.02764  0.5086  -0.5929
6.505e+09  0.6429  -0.6641  -0.01761  0.02422  0.04106  -0.04562  0.2763  -0.6805
6.506e+09  0.3246  -0.823  0.03107  0.03228  -0.01238  0.05617  0.01286  -0.7586
6.508e+09  0.03659  -0.9392  0.01718  0.00353  0.007316  0.0363  -0.23  -0.7076
6.509e+09  -0.2378  -0.8747  0.01917  -0.01067  -0.02293  0.034  -0.4957  -0.5796
6.51e+09  -0.5466  -0.7411  0.002457  -0.03863  -0.02253  -0.04364  -0.6528  -0.439
6.511e+09  -0.7505  -0.4611  -0.02348  -0.003641  -0.04301  0.01377  -0.7296  -0.1394
6.512e+09  -0.8709  -0.1531  0.004416  -0.01098  -0.02144  0.02562  -0.7108  0.1368
6.514e+09  -0.8994  0.08128  -0.01302  -0.02163  0.02324  -0.01945  -0.6262  0.3954
6.515e+09  -0.8259  0.4735  -0.02676  -0.01968  0.006734  0.01111  -0.4822  0.5883
6.516e+09  -0.5968  0.7246  0.01388  -0.00181  -0.05284  -0.02657  -0.2531  0.7266
6.518e+09  -0.3004  0.8117  0.02226  0.05001  0.008811  0.03115  0.004015  0.7321
6.519e+09  0.02007  0.937  0.02772  0.01978  0.02167  0.02681  0.2911  0.6898
6.52e+09  0.3259  0.9065  -0.02988  0.02102  -0.01318  -0.02317  0.4966  0.5431
6.521e+09  0.6344  0.6947  -0.02465  0.03761  -0.02185  -0.006156  0.6579  0.3262
6.522e+09  0.8018  0.4618  0.01156  -0.01994  -0.0001362  -0.02786  0.7488  0.1333
6.524e+09  0.9184  0.09732  0.005061  0.006275  -0.005745  -0.02327  0.7115  -0.1547
6.525e+09  0.8581  -0.2062  0.009916  0.002944  -0.009671  -0.01591  0.6396  -0.3838
6.526e+09  0.7779  -0.4833  -0.009642  -0.0454  -0.01207  0.01377  0.3966  -0.5686
6.528e+09  0.5744  -0.7317  0.01654  -0.01115  -0.04469  -0.01137  0.1637  -0.6725
6.529e+09  0.2672  -0.8842  0.05797  0.01665  0.01004  0.01363  -0.03998  -0.6882
6.53e+09  -0.0728  -0.9262  -0.007908  0.02943  -0.001538  0.005901  -0.2767  -0.603
6.531e+09  -0.4062  -0.8385  -0.02105  0.01361  0.03316  0.01281  -0.4854  -0.4621
6.532e+09  -0.6433  -0.701  0.01305  -0.01498  0.02054  -0.002455  -0.5745  -0.3139
6.534e+09  -0.8941  -0.4181  -0.004482  -0.01471  0.01129  0.02754  -0.6117  -0.1051
6.535e+09  -0.9319  -0.1037  0.004936  0.002849  0.006944  -0.01178  -0.6402  0.09719
6.536e+09  -0.8806  0.2711  -0.003535  -0.003593  -0.02386  -0.01967  -0.5527  0.3266
6.538e+09  -0.7316  0.5401  0.002922  0.01129  -0.02901  -0.0304  -0.4191  0.4774
6.539e+09  -0.4965  0.7796  -0.001227  -0.007862  -0.03735  -0.02559  -0.3017  0.6189
6.54e+09  -0.2454  0.9526  -0.004843  -0.03412  -0.001775  -0.05851  -0.05168  0.6687
6.541e+09  0.1196  0.9141  -0.006638  -0.02445  -0.009852  0.007204  0.1859  0.6669
6.542e+09  0.4241  0.8189  0.01913  -0.008304  0.04177  -0.01447  0.3996  0.5705
6.544e+09  0.7211  0.6271  0.0002866  -0.007103  -0.004298  -0.03904  0.6133  0.3916
6.545e+09  0.8339  0.3697  -0.02546  -0.01747  0.01134  0.04766  0.6846  0.21
6.546e+09  0.9293  0.07703  0.009368  0.008486  -0.005957  0.0328  0.7272  -0.05856
6.548e+09  0.8467  -0.3137  0.01022  0.0187  0.04376  -0.04825  0.6615  -0.3396
6.549e+09  0.6797  -0.6133  -0.002531  -0.02253  0.02599  -0.02331  0.4957  -0.5294
6.55e+09  0.4254  -0.8504  0.02105  -0.008976  0.01776  -0.01731  0.2974  -0.6879
