# Hz S RI R 50
6.25e+09  -0.6848  0.4198  0.0316  -0.03735  -0.05688  -0.01579  0.1556  0.4727
6.251e+09  -0.5035  0.6867  0.003714  0.001672  0.04264  0.006825  0.3887  0.4609
6.252e+09  -0.2827  0.7973  -0.01037  -0.01769  -0.007121  0.05437  0.5115  0.2667
6.254e+09  -0.05843  0.8397  -0.01588  0.002846  -0.03741  0.01829  0.5902  0.01152
6.255e+09  0.2727  0.8168  0.005136  -0.00941  0.006737  0.01764  0.5829  -0.2205
6.256e+09  0.4928  0.581  0.00745  -0.005497  0.03041  -0.03202  0.4707  -0.4294
6.258e+09  0.6938  0.4168  0.004864  0.0005862  -0.01451  0.006881  0.3144  -0.5862
6.259e+09  0.7749  0.1551  0.01034  0.02421  0.01103  0.004183  0.04846  -0.655
6.26e+09  0.8044  -0.1456  -0.003546  -0.01284  -0.03301  -0.0274  -0.2266  -0.6559
6.261e+09  0.6683  -0.4108  0.007635  0.00189  -0.05054  -0.01647  -0.459  -0.5394
6.262e+09  0.5407  -0.62  0.01469  -0.02553  -0.0072  0.03403  -0.6091  -0.3503
6.264e+09  0.3066  -0.7217  -0.0009111  0.01933  0.01431  -0.02872  -0.6976  -0.1156
6.265e+09  -0.03322  -0.7489  0.001446  0.001049  0.01226  -0.04082  -0.7108  0.1437
6.266e+09  -0.289  -0.7867  -0.01379  0.02447  0.02384  -0.001933  -0.6117  0.3685
6.268e+09  -0.5778  -0.5945  -0.005138  -0.01076  0.01642  0.01741  -0.4107  0.58
6.269e+09  -0.6925  -0.3471  0.01319  0.03776  -0.02082  0.02036  -0.1569  0.717
6.27e+09  -0.8098  -0.15  -0.03172  -0.001411  0.03222  -0.0225  0.06972  0.715
6.271e+09  -0.8104  0.195  0.02859  0.02174  0.005859  -0.02186  0.3491  0.6712
6.272e+09  -0.6902  0.3955  0.00562  0.00459  -0.007942  -0.05407  0.5415  0.5383
6.274e+09  -0.4755  0.6132  0.007692  0.006884  -0.004886  -0.02536  0.6898  0.2906
6.275e+09  -0.2557  0.7474  -0.005506  -0.005641  0.03302  0.05695  0.7571  0.06732
6.276e+09  0.0457  0.7984  -0.01721  -0.02094  -0.008966  0.02568  0.7339  -0.2192
6.278e+09  0.2939  0.6977  0.02094  -0.01271  -0.04561  0.03701  0.6322  -0.4332
6.279e+09  0.58  0.6071  0.005505  -0.01318  -0.02149  0.04765  0.4116  -0.6517
6.28e+09  0.669  0.3724  -0.02186  0.01781  0.03691  0.002242  0.1589  -0.7587
6.281e+09  0.8343  0.07816  0.009734  -0.001135  0.03394  -0.04341  -0.08023  -0.7592
6.282e+09  0.8359  -0.1725  0.0194  -0.01583  0.01438  -0.01849  -0.3892  -0.6787
6.284e+09  0.6875  -0.3993  -0.002562  -0.04126  -0.02147  -0.02109  -0.6066  -0.5093
6.285e+09  0.4842  -0.6335  -0.01409  -0.01936  0.05604  -0.01734  -0.716  -0.2681
6.286e+09  0.2364  -0.7655  0.003831  0.007283  0.0258  -0.004129  -0.7749  -0.008195
6.288e+09  -0.05282  -0.7791  0.002228  0.009294  0.02915  0.02598  -0.7522  0.2793
6.289e+09  -0.3311  -0.6848  0.002829  -0.01058  -0.0143  0.03375  -0.6237  0.4981
6.29e+09  -0.5247  -0.5848  -0.005573  -0.008361  0.04228  -0.0001548  -0.3964  0.6889
6.291e+09  -0.692  -0.3476  0.01266  0.009505  0.05938  0.04332  -0.1609  0.7882
6.292e+09  -0.7874  -0.09732  -0.01645  -0.003004  -0.01463  0.02195  0.1347  0.782
6.294e+09  -0.7413  0.2077  -0.02065  -0.01889  0.0284  0.03024  0.3802  0.7173
6.295e+09  -0.6834  0.434  0.009177  0.004985  -0.01144  0.00471  0.6311  0.5169
6.296e+09  -0.4915  0.6334  -0.03185  0.001999  -0.01287  0.02349  0.7718  0.2849
6.298e+09  -0.2381  0.7634  0.006405  0.04043  0.03543  0.02277  0.807  -0.003722
6.299e+09  0.1205  0.7633  0.001188  0.02219  -0.03793  0.001714  0.7662  -0.2555
6.3e+09  0.3227  0.7423  0.004491  0.007602  -0.004752  0.04772  0.6542  -0.5095
6.301e+09  0.5978  0.6037  0.000585  -0.003211  0.004243  0.03286  0.4027  -0.702
6.302e+09  0.7218  0.3281  0.009191  -0.01104  0.009686  -0.04065  0.1591  -0.7994
6.304e+09  0.8362  0.03227  0.003521  0.0069  -0.02336  0.01307  -0.1023  -0.8064
6.305e+09  0.7063  -0.2259  -0.007362  -0.001672  0.05912  0.02058  -0.4326  -0.6998
6.306e+09  0.6966  -0.465  0.02571  0.003693  -0.02433  0.0006829  -0.6313  -0.5836
6.308e+09  0.3942  -0.6396  0.0003049  0.001117  0.007453  -0.02947  -0.8217  -0.3192
6.309e+09  0.2007  -0.8189  0.01182  -0.009692  0.0002851  -0.0248  -0.8312  0.001898
6.31e+09  -0.06402  -0.7815  -0.00377  -0.002645  -0.008214  0.002052  -0.8263  0.2964
6.311e+09  -0.4  -0.6858  -0.0268  -0.002907  0.007743  -0.04066  -0.6589  0.5929
6.312e+09  -0.5785  -0.5406  0.02159  -0.01534  -0.01567  0.01636  -0.4533  0.7534
6.314e+09  -0.7655  -0.3207  0.002646  0.02793  0.00772  0.006627  -0.1724  0.8735
6.315e+09  -0.8118  -0.01296  0.01635  -0.001614  0.003075  -0.01856  0.1043  0.8506
6.316e+09  -0.7972  0.2236  0.01989  0.03776  0.03708  -0.04644  0.4201  0.788
6.318e+09  -0.5969  0.5341  -0.01315  -0.02658  -0.05257  0.01736  0.6757  0.6004
6.319e+09  -0.4623  0.6613  0.00534  -0.0101  -0.02177  -0.02155  0.7994  0.308
6.32e+09  -0.1632  0.8288  0.02332  0.00229  0.00668  -0.0155  0.8655  0.03831
6.321e+09  0.1341  0.7712  0.005626  0.01892  -0.007189  0.01268  0.8398  -0.282
6.322e+09  0.4046  0.6897  0.003431  0.007807  -0.03519  0.02139  0.7043  -0.555
6.324e+09  0.6146  0.5452  -0.01027  -0.0124  -0.007987  0.006006  0.4518  -0.7642
6.325e+09  0.7879  0.3175  -0.01076  -0.01015  0.0009888  0.01897  0.1726  -0.8559
6.326e+09  0.7845  -0.02384  0.001348  0.007235  0.008285  0.02294  -0.1297  -0.8537
6.328e+09  0.7775  -0.2486  0.03128  -0.01486  -0.007381  -0.001574  -0.4469  -0.776
6.329e+09  0.6384  -0.5269  -0.01616  0.001591  0.01692  0.0437  -0.6756  -0.5698
6.33e+09  0.4005  -0.7094  -0.03524  0.007172  -0.06775  -0.02414  -0.8578  -0.314
6.331e+09  0.07764  -0.8295  0.002474  -0.0005302  0.02508  0.04551  -0.8634  -0.03317
6.332e+09  -0.2033  -0.7572  0.00462  0.003606  -0.004203  -0.0432  -0.8737  0.2585
6.334e+09  -0.4358  -0.6531  0.01334  0.03351  -0.01278  0.04191  -0.7347  0.5626
6.335e+09  -0.6416  -0.4717  0.004015  0.01612  -0.008216  0.01641  -0.4913  0.7807
6.336e+09  -0.7457  -0.2856  0.003216  -0.02327  -0.02728  -0.01055  -0.2064  0.8806
6.338e+09  -0.8069  0.06383  0.0009594  0.03326  -0.04079  0.03917  0.1162  0.9511
6.339e+09  -0.7795  0.3277  0.004238  -0.01054  -0.0355  0.04712  0.4146  0.82
6.34e+09  -0.5979  0.5842  0.006708  -0.008881  0.008713  -0.03865  0.647  0.6304
6.341e+09  -0.3454  0.7572  -0.004998  0.01087  -0.0006291  -0.01019  0.8473  0.3511
6.342e+09  -0.04739  0.8115  0.005173  -0.01501  -0.01148  -0.0004199  0.9269  0.05026
6.344e+09  0.2535  0.8238  -0.02013  -0.009734  0.02366  0.01841  0.8582  -0.2652
6.345e+09  0.5399  0.7161  0.02742  -0.02808  -0.01216  -0.05232  0.763  -0.5539
6.346e+09  0.759  0.4839  0.02105  0.03322  -0.01195  -0.02797  0.4874  -0.794
6.348e+09  0.7939  0.1826  -0.0127  0.009171  0.02163  -0.03119  0.2506  -0.8994
6.349e+09  0.8321  -0.1195  0.004315  -0.02556  0.02818  -0.03404  -0.1151  -0.8968
6.35e+09  0.7036  -0.4438  -0.02033  -0.01324  0.03379  -0.02668  -0.4091  -0.8565
6.351e+09  0.5378  -0.633  0.01473  -0.009793  0.005446  0.02663  -0.6696  -0.6442
6.352e+09  0.3094  -0.7821  0.004698  0.02897  0.009235  0.01441  -0.8291  -0.3939
6.354e+09  -0.03601  -0.8353  0.008809  0.02738  -0.03017  -0.0452  -0.9458  -0.05225
6.355e+09  -0.2973  -0.7754  0.01773  -0.05443  0.02059  0.0324  -0.9349  0.2348
6.356e+09  -0.5644  -0.6817  0.0257  0.03995  0.02321  -0.03152  -0.7617  0.5179
6.358e+09  -0.7415  -0.407  -0.01437  0.008979  0.03906  -0.01226  -0.5218  0.7607
6.359e+09  -0.8286  -0.1077  0.0242  0.02486  -0.0115  0.04354  -0.2182  0.9292
6.36e+09  -0.808  0.181  0.03866  -0.01269  0.001775  0.01391  0.1059  0.9695
6.361e+09  -0.7159  0.4447  0.00312  0.0002427  0.009464  0.03301  0.446  0.831
6.362e+09  -0.4835  0.6414  -0.01379  0.001217  -0.04779  0.006572  0.6848  0.6733
6.364e+09  -0.2376  0.7842  0.001086  0.01407  0.00943  -0.001058  0.8677  0.3972
6.365e+09  0.07827  0.8487  0.02888  0.04085  0.01057  0.02209  0.9514  0.08769
6.366e+09  0.3248  0.7936  -0.03015  -0.01767  0.03979  0.01564  0.8987  -0.2885
6.368e+09  0.5958  0.6318  0.01626  -0.01952  -0.002989  0.01765  0.7505  -0.5452
6.369e+09  0.7811  0.3558  0.01452  -0.00871  -0.04335  -0.03655  0.5079  -0.74
6.37e+09  0.8347  0.07774  0.06381  -0.0106  -0.02825  0.0289  0.2834  -0.9357
6.371e+09  0.8253  -0.2492  -0.02483  -0.0222  0.005206  -0.01053  -0.07562  -0.9339
6.372e+09  0.7347  -0.471  -0.0145  -0.01027  -0.006712  0.02711  -0.3321  -0.8575
6.374e+09  0.4623  -0.7297  0.0003708  -0.01249  -0.007034  0.04551  -0.688  -0.6816
6.375e+09  0.1897  -0.82  -0.008395  -0.0012  0.00135  -0.01109  -0.8233  -0.413
6.376e+09  -0.1038  -0.8284  0.03241  -0.01377  0.01131  -0.007468  -0.95  -0.1
6.378e+09  -0.4233  -0.7735  -0.01882  0.009401  0.004782  0.004172  -0.9306  0.2118
6.379e+09  -0.6899  -0.5487  -0.00178  0.02345  -0.01111  -0.0428  -0.7622  0.5397
6.38e+09  -0.7882  -0.2889  0.02051  0.02033  0.008143  -0.007513  -0.5793  0.7509
6.381e+09  -0.8672  0.002033  -0.003873  0.006183  -0.02955  0.05307  -0.2382  0.9345
6.382e+09  -0.797  0.3579  -0.03614  0.04618  0.04919  -0.001858  0.07894  0.9514
6.384e+09  -0.6415  0.5886  0.02526  0.007248  -0.007875  0.02526  0.3483  0.8439
6.385e+09  -0.4151  0.7302  -0.03268  -0.009977  0.03029  -0.0163  0.611  0.6582
6.386e+09  -0.1585  0.841  -0.02875  0.009229  -0.01146  0.02251  0.8231  0.4368
6.388e+09  0.1372  0.8252  -0.01375  -0.00855  0.03693  0.04624  0.8786  0.09827
6.389e+09  0.4899  0.7008  0.05654  -0.02003  -0.02553  -0.038  0.9341  -0.2021
6.39e+09  0.6608  0.5328  0.03531  0.01709  0.007449  -0.005542  0.7663  -0.4891
6.391e+09  0.8651  0.2379  0.0193  0.02983  0.03059  -0.04118  0.5455  -0.7037
6.392e+09  0.8828  -0.02959  0.001443  0.0101  0.02578  0.03697  0.2699  -0.8981
6.394e+09  0.7602  -0.331  -0.01451  0.01622  0.0102  0.007235  -0.05935  -0.8963
6.395e+09  0.6215  -0.6059  0.01249  0.004979  0.03544  0.02974  -0.3313  -0.8608
6.396e+09  0.3996  -0.7652  0.03667  -0.005914  -0.0124  0.05014  -0.5946  -0.676
6.398e+09  0.1147  -0.8887  0.01964  -0.006934  0.04094  0.02187  -0.8286  -0.4542
6.399e+09  -0.1876  -0.8341  -0.008209  0.01522  0.05199  0.02154  -0.9041  -0.186
6.4e+09  -0.5169  -0.7013  0.03015  -0.0004683  0.01417  0.007412  -0.8741  0.1904
6.401e+09  -0.7052  -0.465  -0.0003439  0.02027  -0.03565  -0.04012  -0.8024  0.4292
6.402e+09  -0.7979  -0.2388  0.0282  -0.02405  0.0368  -0.01176  -0.581  0.6873
6.404e+09  -0.8468  0.0885  -0.01564  0.02861  -0.004677  -0.01048  -0.3438  0.9181
6.405e+09  -0.7498  0.3795  0.04028  -0.006415  -0.01559  -0.007918  0.03371  0.8977
6.406e+09  -0.5232  0.6015  -0.006779  5.736e-05  -0.02451  -0.05086  0.288  0.8613
6.408e+09  -0.3499  0.7766  -0.02013  -0.01819  0.01754  -0.03232  0.5843  0.7315
6.409e+09  -0.04156  0.9116  0.02881  0.01742  -0.04318  -0.01445  0.7748  0.481
6.41e+09  0.247  0.8256  -0.001603  0.005187  -0.01104  -0.02214  0.8842  0.1842
6.411e+09  0.4833  0.6714  0.02477  0.01207  -0.01206  0.02141  0.8817  -0.1222
6.412e+09  0.6905  0.4508  -0.02717  -0.008763  0.01241  0.05731  0.8045  -0.4658
6.414e+09  0.8182  0.1802  -0.04034  -0.001928  0.02112  0.03054  0.6015  -0.6424
6.415e+09  0.8413  -0.1136  -0.0343  -0.03563  0.02461  0.01693  0.2863  -0.8363
6.416e+09  0.7784  -0.3761  0.02424  -0.005856  -0.01652  0.01958  0.04893  -0.8936
6.418e+09  0.5699  -0.6056  -0.006375  0.007212  -0.01833  0.01118  -0.2933  -0.8535
6.419e+09  0.2891  -0.7986  -0.03838  -0.01619  -0.004573  0.01055  -0.5152  -0.6981
6.42e+09  0.03049  -0.8222  0.007041  -0.03166  0.01369  -0.008036  -0.7761  -0.4707
6.421e+09  -0.2956  -0.7974  0.0131  0.03617  -0.02165  0.01364  -0.8921  -0.1891
6.422e+09  -0.5278  -0.681  0.03748  -0.03436  0.03327  -0.03531  -0.8526  0.1365
6.424e+09  -0.7169  -0.4569  -0.01185  0.01597  0.01502  0.009216  -0.8238  0.4358
6.425e+09  -0.8268  -0.1393  0.01327  -0.03505  0.008931  0.03184  -0.6063  0.6291
6.426e+09  -0.795  0.2035  -0.02089  0.03225  0.004394  -0.03968  -0.3159  0.8001
6.428e+09  -0.718  0.4478  -0.01501  0.01972  0.01691  -0.02  -0.05811  0.8792
6.429e+09  -0.5013  0.7185  0.02257  0.03215  -0.004144  -0.01403  0.2536  0.8468
6.43e+09  -0.2572  0.835  0.02633  -0.01238  0.002321  0.04174  0.5206  0.7197
6.431e+09  0.05975  0.8404  -0.01471  0.01856  0.04314  -0.04689  0.6964  0.4674
6.432e+09  0.296  0.8453  -0.03355  0.03413  -0.00729  0.05071  0.8414  0.2256
6.434e+09  0.552  0.5975  -0.06407  -0.01356  -0.02348  -0.02287  0.8374  -0.07551
6.435e+09  0.7222  0.3711  -0.008366  0.01578  0.03133  -0.008069  0.7872  -0.415
6.436e+09  0.8317  0.1117  0.01553  -0.02581  -0.01097  0.0292  0.6092  -0.6567
6.438e+09  0.8329  -0.1754  -0.01384  -0.01259  -0.01804  0.01225  0.3675  -0.7847
6.439e+09  0.7003  -0.4402  -0.01733  0.01765  0.03842  -0.01288  0.09371  -0.8799
6.44e+09  0.498  -0.6457  0.02477  -0.001902  0.04173  0.01936  -0.219  -0.8267
6.441e+09  0.2996  -0.8038  0.01478  -0.007527  0.01096  -0.01342  -0.4967  -0.6738
6.442e+09  -0.02752  -0.7997  -0.0475  -0.0391  0.01509  0.04089  -0.7175  -0.5038
6.444e+09  -0.323  -0.7783  0.01817  -0.02028  -0.02153  0.03091  -0.8377  -0.2386
6.445e+09  -0.5761  -0.575  -0.0178  0.04239  0.03609  0.01245  -0.8633  0.09781
6.446e+09  -0.7377  -0.3947  0.01622  -0.02696  -0.008451  0.01081  -0.7282  0.3341
6.448e+09  -0.8761  -0.1362  0.03854  -0.03429  0.006405  0.02601  -0.6059  0.5657
6.449e+09  -0.8054  0.1981  -0.01652  0.01087  0.08933  0.005207  -0.3787  0.7808
6.45e+09  -0.6931  0.5084  -0.006401  -0.04473  -0.002955  0.001206  -0.08479  0.8204
6.451e+09  -0.4839  0.6845  0.02695  -0.08596  7.268e-05  0.02629  0.1751  0.8081
6.452e+09  -0.2079  0.8241  0.04128  -0.03616  0.02227  0.05356  0.4841  0.6956
6.454e+09  0.05057  0.8083  0.01734  -0.006431  -0.007287  -0.02747  0.6384  0.4878
6.455e+09  0.3202  0.827  0.03328  0.03207  -0.005077  0.008496  0.7853  0.2206
6.456e+09  0.5896  0.5778  -0.04326  -0.03907  -0.005929  0.02631  0.8351  -0.03567
6.458e+09  0.7655  0.3627  0.001065  0.0107  0.005726  -0.004886  0.7454  -0.3519
6.459e+09  0.8655  0.1109  0.04572  0.001278  -0.008562  -0.01595  0.5356  -0.6097
6.46e+09  0.7825  -0.1782  -0.006569  0.04291  -0.005308  -0.02332  0.3374  -0.7828
6.461e+09  0.7322  -0.4077  -0.01937  0.01563  -0.01252  -0.03211  0.08755  -0.8031
6.462e+09  0.513  -0.7216  -0.01114  0.01323  -0.03371  -0.007602  -0.2043  -0.7806
6.464e+09  0.2406  -0.7923  0.04573  -0.01517  0.0424  0.003779  -0.456  -0.6518
6.465e+09  -0.1217  -0.8825  -0.03526  -0.009326  -0.01581  0.005519  -0.6366  -0.4868
6.466e+09  -0.3119  -0.7418  -0.0147  -0.004222  0.001658  -0.05039  -0.7547  -0.1943
6.468e+09  -0.5963  -0.6218  0.05189  -0.02378  -0.03233  0.01634  -0.8036  0.07049
6.469e+09  -0.7739  -0.3793  0.03565  -0.03574  0.02539  0.003319  -0.711  0.3611
6.47e+09  -0.8486  -0.1267  0.03316  0.0378  -0.02358  0.01707  -0.5448  0.5553
6.471e+09  -0.8151  0.1884  0.04375  -0.01106  -0.01751  0.03276  -0.329  0.7095
6.472e+09  -0.6878  0.4554  0.03154  -0.003965  0.06327  0.04302  -0.07153  0.8392
6.474e+09  -0.5181  0.6812  0.009741  0.002858  0.001218  -0.0002458  0.1905  0.7549
6.475e+09  -0.2353  0.8113  0.03051  0.02423  -0.01752  -0.0006439  0.451  0.5933
6.476e+09  0.05607  0.8576  0.02844  0.01849  -0.03243  0.01171  0.6609  0.4426
6.478e+09  0.3777  0.7573  0.0275  -0.05083  -0.01008  0.002605  0.763  0.2029
6.479e+09  0.5885  0.5585  0.004721  0.01248  -0.01452  -0.01205  0.7772  -0.0415
6.48e+09  0.7294  0.3756  -0.01441  0.01732  -0.006495  0.01186  0.6965  -0.3331
6.481e+09  0.8278  0.1027  -0.01314  -0.02997  0.01698  -0.02241  0.5561  -0.5706
6.482e+09  0.8295  -0.2354  -0.01331  0.05018  0.02981  0.04164  0.3043  -0.7024
6.484e+09  0.6852  -0.4677  0.03963  0.0272  -0.008336  -0.02766  0.06426  -0.7905
6.485e+09  0.4902  -0.7431  0.003105  -0.02696  0.02453  -0.017  -0.1972  -0.7504
6.486e+09  0.203  -0.8087  -0.01153  -0.02316  0.0004415  -0.04008  -0.4886  -0.6262
6.488e+09  -0.7424  -1.189  0.02678  -0.01871  -0.576  0.3731  -0.6853  -0.4318
6.489e+09  -0.3622  -0.7514  0.01081  0.01318  -0.007761  0.0006801  -0.7561  -0.1837
6.49e+09  -0.5949  -0.5588  0.03133  0.02265  -0.03304  -0.03574  -0.7779  0.05639
6.491e+09  -0.7689  -0.4027  0.01226  -0.01524  -0.02495  -4.97e-05  -0.6868  0.3402
6.492e+09  -0.8109  -0.09242  0.01145  -0.005308  0.003143  -0.01905  -0.5212  0.578
6.494e+09  -0.9436  0.2917  -0.007806  0.06323  -0.01126  -0.08997  -0.3486  0.7188
6.495e+09  -0.6936  0.4707  0.02125  0.004068  0.005825  0.03761  -0.06378  0.7854
6.496e+09  -0.4882  0.7502  -0.01742  0.009417  -0.0009053  -0.03508  0.1945  0.7168
6.498e+09  -0.2365  0.8397  -0.02379  0.03898  -0.01034  0.01343  0.4799  0.5823
6.499e+09  0.05151  0.866  -0.02492  -0.03283  -0.03095  -0.02488  0.6344  0.39
6.5e+09  0.3905  0.8347  0.04784  0.05229  0.01011  0.01383  0.7094  0.143
6.501e+09  0.665  0.6237  -0.00643  0.04458  -0.003318  -0.02277  0.7603  -0.1026
6.502e+09  0.7904  0.405  -0.02251  0.02213  -0.03136  -0.02773  0.6549  -0.35
6.504e+09  0.8638  0.02706  -0.0105  -0.01542  0.00419  0.008634  0.4612  -0.5936
6.505e+09  0.8449  -0.2219  0.01386  0.0117  0.04822  -0.03129  0.2783  -0.7223
6.506e+09  0.7577  -0.561  0.01461  0.004937  -0.009496  0.03121  0.03149  -0.7384
6.508e+09  0.4464  -0.7492  -0.04123  0.02431  -0.0004422  0.004695  -0.2445  -0.7244
6.509e+09  0.1691  -0.8529  0.007477  0.007784  0.01824  0.008745  -0.4708  -0.5671
6.51e+09  -0.05796  -0.8482  -0.03349  0.01633  0.07663  -0.005821  -0.6754  -0.4162
6.511e+09  -0.3582  -0.7694  0.01217  -0.01632  -0.01217  -0.07078  -0.7273  -0.1449
6.512e+09  -0.633  -0.602  0.0341  0.01944  -0.01664  -0.01331  -0.751  0.1122
6.514e+09  -0.7927  -0.3487  0.01771  0.003747  0.04105  -0.0146  -0.6401  0.3509
6.515e+09  -0.8823  -0.06431  0.001099  -0.0197  -0.01686  -0.02643  -0.4537  0.5803
6.516e+09  -0.8181  0.2701  0.001408  -0.004236  -0.003348  0.03169  -0.2483  0.7011
6.518e+09  -0.7236  0.5368  0.009847  0.03147  -0.02199  -0.01168  0.01649  0.71
6.519e+09  -0.4061  0.7584  -0.01053  -0.008583  0.01326  0.04962  0.272  0.6874
6.52e+09  -0.1726  0.8595  0.0486  -0.02865  0.01747  0.02072  0.5109  0.5136
6.521e+09  0.1523  0.9258  -0.02717  -0.02817  0.02922  -0.006947  0.6663  0.3594
6.522e+09  0.4307  0.8071  0.004344  0.01627  -0.03061  -0.03736  0.713  0.088
6.524e+09  0.725  0.5674  0.003237  0.02013  0.04449  -0.01899  0.7101  -0.16
6.525e+09  0.8924  0.3706  0.01057  0.005815  -0.009863  0.02945  0.6065  -0.4035
6.526e+09  0.9507  -0.01063  0.01817  0.01175  -0.02783  -0.008094  0.3965  -0.5919
6.528e+09  0.8818  -0.3116  -0.01532  0.007435  0.01903  0.001898  0.1827  -0.662
6.529e+09  0.7553  -0.5896  -0.0002424  0.01613  0.006559  -0.01086  -0.03862  -0.6533
6.53e+09  0.4776  -0.7713  -0.003217  -0.02946  0.002455  0.06025  -0.2635  -0.6442
6.531e+09  0.1674  -0.8949  0.007702  -0.001753  0.0411  0.004776  -0.4606  -0.5226
6.532e+09  -0.1963  -0.9103  -0.0257  0.01592  -0.007576  0.01086  -0.6076  -0.286
6.534e+09  -0.4762  -0.785  -0.00536  -0.001646  -0.0357  0.01902  -0.6281  -0.09015
6.535e+09  -0.7315  -0.5573  -0.0003504  -0.02187  0.03869  0.01736  -0.6483  0.1091
6.536e+09  -0.9186  -0.3018  -0.008956  0.01409  0.0006903  -0.006015  -0.5662  0.3324
6.538e+09  -0.9328  0.04576  0.01033  0.01188  0.02916  0.02981  -0.4569  0.5079
6.539e+09  -0.816  0.4201  0.01697  -0.03632  -0.01612  0.01675  -0.2575  0.6002
6.54e+09  -0.6623  0.6642  -0.02414  -0.007006  0.0142  -0.02045  -0.03526  0.6692
6.541e+09  -0.3409  0.8877  -0.01398  0.003228  0.005412  0.04291  0.2023  0.6705
6.542e+09  -0.06877  0.9019  -0.002564  -0.01598  -4.434e-05  -0.01843  0.4114  0.6026
6.544e+09  0.2511  0.9012  0.001113  -0.008493  -0.02051  0.01531  0.5923  0.3895
6.545e+09  0.5153  0.7411  0.01241  -0.006572  -0.0004057  0.03975  0.6835  0.1358
6.546e+09  0.871  0.4649  0.01061  -0.007342  0.0132  -0.02883  0.7263  -0.1111
6.548e+09  0.8559  0.2528  0.01257  0.004132  -0.02461  -0.008794  0.6471  -0.3005
6.549e+09  0.9703  -0.1461  -0.03276  0.004365  0.006512  0.03714  0.5191  -0.5249
6.55e+09  0.7995  -0.3817  0.01037  -0.009337  -0.008657  -0.01086  0.3035  -0.6979
6.551e+09  0.6172  -0.6928  -0.01005  -0.01832  0.01656  0.0005046  0.01627  -0.7486
