# Hz S RI R 50
6.25e+09  -0.7809  0.2594  -0.0006616  0.01454  -0.04975  -0.004658  0.1574  0.4957
6.251e+09  -0.6171  0.5155  0.008857  -0.01901  -0.01365  -0.008288  0.3516  0.4028
6.252e+09  -0.3922  0.7456  -0.0291  0.008826  0.04306  0.0218  0.5297  0.2362
6.254e+09  -0.1535  0.7484  0.01582  -0.002607  0.01545  -0.005919  0.6102  0.01357
6.255e+09  0.1449  0.8162  -0.006739  -0.02026  0.05713  0.03416  0.5679  -0.2282
6.256e+09  0.3859  0.7184  0.0131  0.01818  0.01077  0.0506  0.5167  -0.4604
6.258e+09  0.6265  0.518  0.00915  -0.000527  -0.024  -0.04138  0.2884  -0.5974
6.259e+09  0.782  0.2942  -0.02006  0.01614  -0.01436  0.01486  0.04032  -0.6856
6.26e+09  0.8222  0.01933  -0.01211  0.002664  0.0403  0.01393  -0.2186  -0.6387
6.261e+09  0.7137  -0.2784  -0.004037  -0.02213  -0.01175  0.003333  -0.437  -0.5343
6.262e+09  0.6049  -0.5504  -0.01918  0.00119  0.03859  0.02399  -0.6209  -0.3448
6.264e+09  0.4518  -0.6736  0.01193  0.02067  0.03907  -0.01964  -0.7188  -0.1133
6.265e+09  0.1297  -0.8103  -0.0001688  -0.02187  -0.02405  -0.01387  -0.6974  0.1651
6.266e+09  -0.1439  -0.8477  -0.02453  0.02658  -0.02301  -0.01376  -0.6054  0.3899
6.268e+09  -0.4266  -0.6847  -0.01983  0.00957  -0.04514  -0.06105  -0.4342  0.5872
6.269e+09  -0.5619  -0.543  -0.004043  -0.00876  -0.02643  -0.03175  -0.1834  0.7188
6.27e+09  -0.7835  -0.236  -0.03185  -0.000412  -0.05928  0.0165  0.07133  0.7049
6.271e+09  -0.7875  -0.03828  -0.01056  0.002805  0.005481  0.02282  0.3183  0.6697
6.272e+09  -0.7068  0.2127  0.01401  -0.004169  0.001967  -0.0004123  0.5471  0.5292
6.274e+09  -0.6418  0.5185  0.00178  0.01277  0.0233  0.0369  0.7028  0.3005
6.275e+09  -0.3925  0.6812  0.003799  -0.003335  0.05875  -0.006531  0.7754  0.06369
6.276e+09  -0.1159  0.7807  0.01738  -0.0101  -0.1028  -0.04848  0.7119  -0.2373
6.278e+09  0.149  0.7387  -0.02582  -0.025  -0.02021  0.04386  0.5887  -0.4745
6.279e+09  0.3785  0.6844  0.005397  3.66e-05  -0.021  0.07978  0.4237  -0.6489
6.28e+09  0.592  0.5328  0.0009  0.01914  -0.0182  0.009542  0.1913  -0.7719
6.281e+09  0.7466  0.2646  -0.0209  -0.003673  -0.03815  0.006633  -0.07228  -0.7755
6.282e+09  0.819  0.00911  0.005994  0.01421  -0.04862  0.03236  -0.3666  -0.6629
6.284e+09  0.7407  -0.2743  -0.02274  0.01926  -0.06984  -0.01058  -0.5699  -0.4958
6.285e+09  0.5426  -0.5124  0.007131  0.02193  -0.005615  0.01967  -0.7178  -0.3422
6.286e+09  0.3442  -0.7058  -0.006683  0.03554  0.008747  0.04327  -0.791  -0.009663
6.288e+09  0.1418  -0.8164  0.0233  -0.01761  -0.03871  -0.03617  -0.7327  0.274
6.289e+09  -0.1234  -0.8265  0.007426  -0.01981  -0.02053  -0.05731  -0.6074  0.5095
6.29e+09  -0.4069  -0.6717  0.0124  -0.004524  -0.009436  -0.02024  -0.4308  0.6895
6.291e+09  -0.6041  -0.4882  0.005557  0.008271  0.004889  0.03746  -0.1772  0.8039
6.292e+09  -0.7505  -0.186  -0.004563  0.01998  -0.03199  -0.01734  0.1485  0.7939
6.294e+09  -0.8104  0.05709  -0.04018  0.001709  0.009747  0.02565  0.3877  0.7158
6.295e+09  -0.7416  0.3519  -0.00243  -0.01601  -0.03051  0.0284  0.6155  0.5433
6.296e+09  -0.5657  0.5851  0.05006  -0.01148  -0.01231  0.02015  0.8015  0.2925
6.298e+09  -0.371  0.7417  -0.02277  -0.004035  -0.02493  0.03383  0.8422  0.007395
6.299e+09  -0.04703  0.8553  0.01161  -0.003447  -0.03695  0.0541  0.7815  -0.2851
6.3e+09  0.215  0.8225  -0.008024  -0.005695  -0.043  0.00922  0.6695  -0.5166
6.301e+09  0.3972  0.6611  0.01357  0.005746  0.02038  -0.01603  0.4485  -0.7127
6.302e+09  0.6338  0.4864  -0.0071  -0.007685  0.00358  0.0485  0.1621  -0.8376
6.304e+09  0.7739  0.1956  -0.005531  -0.01138  -0.01528  0.002872  -0.1145  -0.8626
6.305e+09  0.8245  -0.05148  -0.01614  -0.01862  0.0269  -0.01521  -0.4264  -0.7592
6.306e+09  0.704  -0.3268  0.02989  0.001957  -0.0365  0.02787  -0.6561  -0.5524
6.308e+09  0.6166  -0.5667  -0.01481  -0.03065  -0.008551  0.02269  -0.7748  -0.2914
6.309e+09  0.3488  -0.7153  -0.007339  0.02584  -0.02745  0.02464  -0.8533  0.004147
6.31e+09  0.06514  -0.8327  -0.01661  0.02147  -0.006546  -0.02151  -0.7479  0.2683
6.311e+09  -0.2488  -0.7892  0.01895  -0.001791  0.004474  -0.0001357  -0.6739  0.5206
6.312e+09  -0.5082  -0.636  -0.01478  0.002772  -0.06022  0.03768  -0.4392  0.7366
6.314e+09  -0.7265  -0.4095  0.0009579  0.0007635  -0.01834  0.001565  -0.1384  0.8574
6.315e+09  -0.804  -0.1974  0.02543  -0.002967  0.0429  0.04611  0.1125  0.8685
6.316e+09  -0.792  0.1457  0.002811  -0.005137  0.03477  -0.03969  0.4545  0.7476
6.318e+09  -0.7539  0.3923  0.01919  -0.007543  0.006256  -0.03977  0.6721  0.5662
6.319e+09  -0.5439  0.6058  -0.01989  0.01557  -0.01243  0.003818  0.7908  0.3063
6.32e+09  -0.3314  0.7387  -0.009358  0.02775  -0.0283  0.02517  0.9144  0.01881
6.321e+09  -0.000132  0.874  0.01801  -0.01644  -0.003207  0.002661  0.8311  -0.3075
6.322e+09  0.3017  0.7723  0.01307  -0.0376  -0.0149  0.0008665  0.6902  -0.559
6.324e+09  0.5041  0.6148  -0.02411  -0.004907  0.02129  -0.00859  0.4761  -0.7757
6.325e+09  0.708  0.391  0.003194  0.004397  -0.02863  -0.006737  0.1717  -0.8503
6.326e+09  0.8116  0.1507  -0.001524  0.01415  -0.0003356  0.04531  -0.1434  -0.8696
6.328e+09  0.8256  -0.09562  0.007512  -0.008443  0.03604  0.05573  -0.4018  -0.8057
6.329e+09  0.682  -0.4362  -0.05996  0.006426  -0.02067  -0.0002893  -0.6665  -0.5957
6.33e+09  0.505  -0.6651  0.01856  -0.006574  0.005046  0.008337  -0.8253  -0.317
6.331e+09  0.2876  -0.7904  0.01982  0.00493  0.06148  -0.03718  -0.8921  -0.01287
6.332e+09  -0.005747  -0.8115  0.006113  0.004113  0.00678  -0.02733  -0.861  0.2655
6.334e+09  -0.2802  -0.7708  -0.00248  -0.03416  0.004967  -0.01949  -0.7003  0.5725
6.335e+09  -0.5489  -0.6239  0.02983  -0.01536  -0.03109  -0.0008686  -0.4911  0.7755
6.336e+09  -0.7516  -0.4054  0.01703  -0.006835  0.01015  0.02924  -0.1958  0.8698
6.338e+09  -0.8414  -0.1168  -0.01763  -0.0299  -0.03043  -0.02255  0.1074  0.8787
6.339e+09  -0.7923  0.191  -0.003345  -0.01107  0.04365  -0.01989  0.4304  0.7974
6.34e+09  -0.7221  0.4881  -0.01125  0.00404  -0.009395  0.02308  0.6988  0.6488
6.341e+09  -0.4814  0.7229  0.01788  -0.006942  0.007508  -0.04538  0.8643  0.3624
6.342e+09  -0.1877  0.7637  0.02119  0.01178  -0.04176  -0.02871  0.9328  0.01918
6.344e+09  0.1361  0.8496  -0.005316  -0.01584  -0.01061  0.03352  0.8377  -0.269
6.345e+09  0.3484  0.7507  0.01121  -0.01918  0.01202  -0.01505  0.7538  -0.5741
6.346e+09  0.6437  0.5904  0.02136  -0.04211  0.02099  -0.03992  0.5223  -0.7495
6.348e+09  0.7805  0.3161  -0.00927  -0.01583  -0.00211  -0.04087  0.199  -0.9104
6.349e+09  0.7993  0.03583  -0.005881  -0.0248  0.01314  0.02484  -0.1056  -0.9437
6.35e+09  0.7941  -0.2556  0.0132  0.04603  -0.01061  0.01644  -0.4402  -0.8179
6.351e+09  0.6554  -0.5192  0.04157  0.009452  -0.01275  0.004304  -0.6582  -0.6527
6.352e+09  0.4168  -0.7074  0.04975  -0.02289  0.0267  -0.01524  -0.8303  -0.4198
6.354e+09  0.1665  -0.8168  -0.007994  0.005007  -0.03328  -0.01292  -0.9171  -0.01124
6.355e+09  -0.1688  -0.7656  -0.01251  -0.0319  -0.0208  0.03897  -0.8786  0.3007
6.356e+09  -0.4399  -0.7079  -0.009377  0.04293  -0.02413  0.002494  -0.8141  0.5378
6.358e+09  -0.6706  -0.5109  -0.01113  -0.00922  -0.007339  -0.0008067  -0.5381  0.7843
6.359e+09  -0.8038  -0.2562  -0.0002696  0.009547  0.01674  0.003762  -0.2554  0.9055
6.36e+09  -0.8488  0.01601  -0.03784  -0.01591  0.07699  0.008162  0.08951  0.9475
6.361e+09  -0.79  0.3318  -0.00358  0.01953  -0.03522  0.02391  0.3873  0.8276
6.362e+09  -0.6074  0.5615  0.03204  -0.0009953  -0.02406  0.01752  0.7058  0.653
6.364e+09  -0.3909  0.7683  -0.01062  0.02832  -0.01399  -0.03042  0.8476  0.3714
6.365e+09  -0.1154  0.8442  -0.003682  -0.01855  0.04937  -0.04591  0.9365  0.09897
6.366e+09  0.2503  0.8122  -0.008566  -0.0387  0.03655  -0.007291  0.9121  -0.2327
6.368e+09  0.5534  0.6349  -0.006194  -0.02447  0.001635  -0.008822  0.7566  -0.5444
6.369e+09  0.6906  0.4799  0.005359  0.03086  -0.009891  0.0143  0.5756  -0.7591
6.37e+09  0.8566  0.2062  0.002509  0.01582  0.02875  0.01764  0.2391  -0.9372
6.371e+09  0.8785  -0.1287  0.01671  0.007809  -0.005085  0.02126  -0.06711  -0.9673
6.372e+09  0.7734  -0.3791  -0.003042  0.02105  -0.03853  -0.04555  -0.3774  -0.8189
6.374e+09  0.5664  -0.6399  0.001781  0.0287  0.0171  -0.01105  -0.6273  -0.6585
6.375e+09  0.3219  -0.7885  0.003875  -0.02085  0.03179  -0.013  -0.8498  -0.4212
6.376e+09  -0.001236  -0.8611  0.00543  -0.008167  0.009373  0.03682  -0.9693  -0.04101
6.378e+09  -0.258  -0.808  -0.01016  0.01796  -0.001637  -0.006269  -0.9465  0.2707
6.379e+09  -0.5433  -0.6108  0.02872  -0.01206  -0.06133  0.0232  -0.798  0.5745
6.38e+09  -0.7328  -0.4398  -0.01573  -0.00852  -0.02001  0.02572  -0.5496  0.7626
6.381e+09  -0.8867  -0.1208  -0.02576  0.001429  -0.005008  0.00144  -0.2632  0.9226
6.382e+09  -0.8606  0.2069  -0.003678  -0.02203  -0.03014  0.006559  0.05067  0.9597
6.384e+09  -0.7251  0.4608  -0.002484  -0.02766  0.01362  0.02297  0.3778  0.8757
6.385e+09  -0.5617  0.666  -0.02814  -0.01191  -0.02913  -0.005478  0.6441  0.6974
6.386e+09  -0.2664  0.8355  -0.0295  -0.02665  0.0164  0.001375  0.8601  0.4221
6.388e+09  0.04619  0.8963  -0.001343  0.02866  -0.01627  -0.01711  0.9415  0.07633
6.389e+09  0.337  0.7949  0.01424  -0.04291  0.02153  0.003111  0.8917  -0.1707
6.39e+09  0.6261  0.6133  0.003386  0.03021  0.03359  0.03366  0.8262  -0.4669
6.391e+09  0.8015  0.3706  0.03384  0.007001  0.04135  0.0174  0.5606  -0.7501
6.392e+09  0.8468  0.04367  -0.01142  0.003384  -0.02408  -0.01746  0.2712  -0.8879
6.394e+09  0.826  -0.2614  -0.006587  -0.0003685  -0.007981  -0.02307  -0.002761  -0.902
6.395e+09  0.7559  -0.5213  -0.009616  -0.01839  -0.02916  -0.07491  -0.3325  -0.8422
6.396e+09  0.4963  -0.7264  -0.01457  0.0181  -0.01708  0.001888  -0.6176  -0.6945
6.398e+09  0.2232  -0.8297  0.01804  -0.02361  0.03841  0.04966  -0.7859  -0.4779
6.399e+09  -0.02843  -0.8316  0.02364  -0.03659  -0.04592  0.01801  -0.9134  -0.1431
6.4e+09  -0.3959  -0.7601  0.0144  -0.008806  0.009005  -0.06749  -0.9014  0.2075
6.401e+09  -0.6237  -0.5706  -0.01168  0.03673  -0.01347  0.0345  -0.8123  0.4601
6.402e+09  -0.8192  -0.2799  -0.0002213  -0.05344  -0.0004332  -0.02071  -0.6078  0.7217
6.404e+09  -0.8151  -0.03187  -0.0005957  0.01183  0.004665  -0.01122  -0.3119  0.9002
6.405e+09  -0.8159  0.2868  0.02138  -0.01601  -0.00877  -0.001222  0.02781  0.9627
6.406e+09  -0.6461  0.5169  0.0006391  -0.02434  0.02213  0.01647  0.3225  0.828
6.408e+09  -0.4257  0.7473  0.008267  -0.03671  0.003743  -0.01419  0.6077  0.7181
6.409e+09  -0.2101  0.8206  0.02001  -0.02835  0.0177  0.01617  0.7945  0.4653
6.41e+09  0.1717  0.8406  -0.008593  -0.03233  -0.03045  -0.01965  0.8984  0.1696
6.411e+09  0.3973  0.789  -0.01306  -0.008432  0.0005636  0.05129  0.9142  -0.1415
6.412e+09  0.648  0.5833  0.009331  0.01776  0.006079  -0.02858  0.8027  -0.4399
6.414e+09  0.8061  0.2708  -0.05067  -0.009192  0.0013  0.02196  0.5497  -0.6622
6.415e+09  0.8472  -0.0207  0.01796  -0.01032  0.00956  0.00374  0.2902  -0.8685
6.416e+09  0.7587  -0.3184  -0.02186  0.0319  0.02115  0.06195  0.01437  -0.8845
6.418e+09  0.6244  -0.5745  0.0407  -0.002957  0.001463  -0.002563  -0.2409  -0.8469
6.419e+09  0.4435  -0.7454  -0.02716  -0.03167  0.03141  -0.03623  -0.5193  -0.6689
6.42e+09  0.1676  -0.8491  0.0221  -0.01267  -0.0294  0.02022  -0.7166  -0.5154
6.421e+09  -0.1322  -0.8459  0.03689  0.002704  -0.008664  0.03426  -0.8702  -0.1993
6.422e+09  -0.4443  -0.6944  -0.01666  0.00477  0.04062  0.009679  -0.9051  0.1481
6.424e+09  -0.641  -0.4943  -0.003917  -0.04882  -0.02327  -0.03122  -0.7878  0.4072
6.425e+09  -0.7903  -0.1967  -0.004891  0.03207  0.03009  -0.03631  -0.6014  0.6575
6.426e+09  -0.8836  0.06281  -0.02379  0.005087  -0.03395  -0.001599  -0.3356  0.7971
6.428e+09  -0.7816  0.3534  0.005603  -0.008153  0.03338  -0.03011  -0.07086  0.8556
6.429e+09  -0.6241  0.5455  0.01164  -0.03305  0.02732  -0.005401  0.2529  0.8663
6.43e+09  -0.3865  0.7427  0.01196  0.002956  0.009557  0.04632  0.4805  0.7371
6.431e+09  -0.1393  0.8359  0.01845  0.00609  0.0347  0.003179  0.7108  0.425
6.432e+09  0.197  0.8231  -0.0028  0.03878  0.002842  0.001837  0.8111  0.2445
6.434e+09  0.4339  0.6801  -0.009979  -0.007169  -0.007932  -0.01921  0.8395  -0.09479
6.435e+09  0.7034  0.5069  -0.03414  -0.01423  0.02308  0.03323  0.7798  -0.3483
6.436e+09  0.7852  0.2477  0.03503  0.005709  -0.02484  0.005428  0.6076  -0.6023
6.438e+09  0.8413  -0.06431  0.0427  -0.02141  -0.007387  0.0108  0.3502  -0.7729
6.439e+09  0.7658  -0.3547  -0.00745  0.03246  0.002171  0.01021  0.08368  -0.8569
6.44e+09  0.5616  -0.6052  -0.01164  -0.01758  -0.01323  0.02894  -0.2232  -0.8489
6.441e+09  0.3409  -0.7499  -0.01062  -0.005614  0.02838  -0.0326  -0.4995  -0.6973
6.442e+09  0.02426  -0.7868  -0.01908  -0.006163  -0.05531  0.04441  -0.6571  -0.4892
6.444e+09  -0.2284  -0.8119  -0.009727  0.004698  0.02445  -0.008061  -0.798  -0.2058
6.445e+09  -0.5063  -0.7012  -0.02064  0.002385  -0.01558  0.009617  -0.8576  0.046
6.446e+09  -0.6695  -0.4598  0.04303  -0.02432  -0.001747  -0.00291  -0.7589  0.3765
6.448e+09  -0.8036  -0.1878  -0.002794  0.03442  0.001707  0.05838  -0.5451  0.5795
6.449e+09  -0.8642  0.07752  -0.03639  -0.008199  0.05385  -0.02192  -0.3582  0.7352
6.45e+09  -0.7136  0.3852  -8.793e-05  0.06645  -0.003342  -0.009906  -0.1233  0.8169
6.451e+09  -0.5942  0.6281  0.03492  -0.03826  -0.0195  0.0001273  0.2034  0.8176
6.452e+09  -0.3453  0.8014  -0.01976  0.01485  0.01839  -0.0103  0.4649  0.6638
6.454e+09  -0.1185  0.8629  0.03682  0.002756  -0.0223  -0.02201  0.6632  0.4598
6.455e+09  0.254  0.7974  0.016  0.02992  0.01588  -0.03007  0.7866  0.1676
6.456e+09  0.515  0.6432  0.03986  0.005942  -0.01862  -0.0282  0.7985  -0.08958
6.458e+09  0.7219  0.4471  -0.006891  -0.009416  0.03924  -0.001981  0.7122  -0.3341
6.459e+09  0.8152  0.1694  0.01076  -0.01408  -0.01992  -0.04585  0.5801  -0.5598
6.46e+09  0.8688  -0.1042  -0.01666  0.006399  0.02448  0.01789  0.3349  -0.7297
6.461e+09  0.7961  -0.4147  -0.0139  -0.01567  0.0119  0.01824  0.03437  -0.7889
6.462e+09  0.5336  -0.6622  -0.004866  -0.01349  -0.02125  0.02355  -0.1976  -0.7614
6.464e+09  0.3208  -0.7969  -0.01395  -0.0147  -0.06552  -0.008869  -0.4352  -0.6571
6.465e+09  0.001953  -0.8226  0.009429  -0.004058  -0.006602  0.02022  -0.6677  -0.5005
6.466e+09  -0.2797  -0.7728  -0.01463  -0.006757  -0.04996  0.02718  -0.7331  -0.2041
6.468e+09  -0.4987  -0.6651  -0.038  -0.03398  -0.01783  -0.03393  -0.8023  0.02605
6.469e+09  -0.6742  -0.4397  0.01039  -0.01131  0.02448  0.01398  -0.7077  0.3562
6.47e+09  -0.8244  -0.1532  0.01417  -0.01201  0.04246  0.01398  -0.5503  0.5628
6.471e+09  -0.8314  0.1208  -0.001915  0.02189  -0.05168  0.009485  -0.3534  0.7113
6.472e+09  -0.6932  0.4466  0.0223  0.02618  -0.03585  -0.07468  -0.06811  0.7925
6.474e+09  -0.5808  0.6505  -0.007897  -0.03556  0.02085  0.02859  0.2344  0.753
6.475e+09  -0.3303  0.7812  -0.02428  -0.02526  -0.03323  -0.001089  0.486  0.6489
6.476e+09  0.01958  0.8287  -0.02382  0.00955  -0.01161  -0.009824  0.642  0.454
6.478e+09  0.2984  0.8073  0.02341  -0.005527  0.04709  0.005345  0.7786  0.1784
6.479e+09  0.5467  0.6572  -0.01479  0.02896  0.01563  -0.01086  0.8039  -0.07631
6.48e+09  0.7249  0.4384  0.03735  0.04538  -0.000473  -0.01151  0.7095  -0.3123
6.481e+09  0.8208  0.2162  0.01047  0.01663  -0.01105  -0.01067  0.5832  -0.584
6.482e+09  0.8547  -0.1682  0.01001  -0.01195  -0.01739  -0.008137  0.3495  -0.7248
6.484e+09  0.7239  -0.41  0.02416  0.008222  -0.01095  -0.02273  0.08287  -0.7564
6.485e+09  0.5587  -0.6619  0.01371  -0.00734  0.02233  -0.06091  -0.2321  -0.7534
6.486e+09  0.322  -0.805  0.01629  -0.0369  0.03913  -0.003395  -0.4842  -0.6098
6.488e+09  0.1263  -0.1286  -0.05609  0.01339  -0.1431  0.7243  -0.6719  -0.4183
6.489e+09  -0.262  -0.7381  0.0363  -0.04057  -0.03856  0.0367  -0.7645  -0.2051
6.49e+09  -0.5671  -0.6686  -0.01203  -0.01255  0.005606  0.008738  -0.7613  0.07958
6.491e+09  -0.7045  -0.4572  0.02044  0.01177  -0.02241  -0.007871  -0.6808  0.3128
6.492e+09  -0.8707  -0.1567  -0.01409  -0.01421  0.02259  -0.001186  -0.526  0.5826
6.494e+09  -0.6747  0.2149  0.0109  0.003793  0.08661  0.06397  -0.289  0.748
6.495e+09  -0.7141  0.4483  -0.003423  0.005995  0.006271  0.02495  -0.09299  0.7717
6.496e+09  -0.5851  0.7025  -0.003  0.01866  -0.03858  -0.0723  0.1926  0.7266
6.498e+09  -0.3425  0.8245  0.01639  0.02183  -0.0001386  -0.0174  0.4203  0.6212
6.499e+09  -0.00589  0.874  0.01296  -0.009209  0.002551  -0.01624  0.632  0.3989
6.5e+09  0.2119  0.7679  0.02064  0.02019  0.02751  0.01039  0.7108  0.1258
6.501e+09  0.55  0.6643  -0.01444  -0.007557  -0.01172  -0.03679  0.7132  -0.1332
6.502e+09  0.7246  0.4091  0.0257  0.01897  -0.04326  0.02736  0.6752  -0.3278
6.504e+09  0.8822  0.118  0.01883  0.005345  0.004598  0.0422  0.5419  -0.5386
6.505e+09  0.8255  -0.1473  -0.01722  0.03037  0.03397  -0.02234  0.294  -0.7282
6.506e+09  0.7168  -0.4329  0.005314  -0.0113  0.02118  -0.01934  0.01467  -0.7954
6.508e+09  0.5172  -0.6981  0.0467  -0.01272  0.02506  -0.0592  -0.2588  -0.7055
6.509e+09  0.3073  -0.8139  0.001143  0.01167  -0.02563  -0.01252  -0.4854  -0.5673
6.51e+09  -0.02753  -0.861  -0.004792  0.01908  0.02518  0.04095  -0.6335  -0.3882
6.511e+09  -0.3502  -0.7991  -0.01592  0.01767  -0.0007226  -0.016  -0.7491  -0.153
6.512e+09  -0.6282  -0.6625  0.01291  -0.03328  0.009735  0.01776  -0.7133  0.1175
6.514e+09  -0.8176  -0.4226  0.02125  0.01106  0.07916  0.01765  -0.6464  0.384
6.515e+09  -0.854  -0.08246  0.05022  -0.01723  0.0004871  -0.003245  -0.4887  0.5621
6.516e+09  -0.8479  0.2188  -0.02704  -0.0009129  0.007939  0.05243  -0.2417  0.6909
6.518e+09  -0.7481  0.5002  0.02725  0.02495  -0.0142  -0.007783  0.01703  0.7456
6.519e+09  -0.542  0.7025  -0.02263  -0.02507  -0.01728  -0.012  0.2569  0.721
6.52e+09  -0.2666  0.8691  0.02559  -0.01307  -0.02038  0.009024  0.4664  0.5162
6.521e+09  0.06365  0.9183  0.0008008  0.00138  0.02152  0.02112  0.6752  0.3441
6.522e+09  0.3676  0.8403  0.002332  -0.0008241  0.009196  0.006043  0.71  0.1195
6.524e+09  0.6344  0.6822  0.005357  0.02904  0.008428  -0.02694  0.7188  -0.1444
6.525e+09  0.8606  0.3909  -0.006764  -0.01414  0.006257  -0.006771  0.6025  -0.3649
6.526e+09  0.9077  0.1063  0.01197  0.000219  0.04687  -0.003196  0.426  -0.5693
6.528e+09  0.8919  -0.247  -0.004601  -0.03738  0.03382  -0.00236  0.2081  -0.6783
6.529e+09  0.7569  -0.4904  0.01682  0.01163  0.004876  0.03951  -0.06509  -0.7241
6.53e+09  0.5065  -0.8159  -0.04659  0.006309  -0.04286  0.0059  -0.2783  -0.6367
6.531e+09  0.187  -0.8936  -0.006644  -0.02139  -0.02031  -0.02102  -0.4811  -0.5004
6.532e+09  -0.1414  -0.941  0.008537  -0.01286  0.06389  -0.03956  -0.5934  -0.288
6.534e+09  -0.4447  -0.7948  -0.009285  0.01886  0.01912  0.03785  -0.6316  -0.0965
6.535e+09  -0.6814  -0.5973  -0.006879  0.0003657  -0.02739  0.03154  -0.6122  0.07267
6.536e+09  -0.8558  -0.3842  -0.01717  0.005703  -0.008893  0.01357  -0.5745  0.2839
6.538e+09  -0.9295  -0.01759  -0.01024  0.03161  -0.02101  -0.01743  -0.433  0.5031
6.539e+09  -0.9133  0.2975  -0.006716  0.0007579  0.02077  0.03076  -0.2649  0.6403
6.54e+09  -0.71  0.629  -0.008594  -0.01714  0.06795  -0.04162  -0.04985  0.678
6.541e+09  -0.4528  0.8272  -0.0285  0.005149  0.007525  0.007389  0.1443  0.6803
6.542e+09  -0.1857  0.8999  0.002936  -0.01293  0.01454  -0.002948  0.4266  0.5812
6.544e+09  0.139  0.9102  0.007006  -0.02589  -0.0001543  -0.03066  0.5738  0.3947
6.545e+09  0.4735  0.8121  -0.04123  -0.001515  -0.01194  -0.01158  0.6908  0.1775
6.546e+09  0.7342  0.5985  -0.01794  -0.009864  -0.003241  0.0315  0.7292  -0.1078
6.548e+09  0.8515  0.318  0.00668  0.0203  0.002034  -0.001406  0.6449  -0.3374
6.549e+09  0.9668  -0.0809  0.007706  -0.00459  0.05748  -0.02796  0.514  -0.5485
6.55e+09  0.8366  -0.3687  -0.002665  0.004222  -0.03083  -0.01538  0.2915  -0.6553
