# Hz S RI R 50
6.25e+09  -0.7883  -0.3641  -0.01176  -0.01823  0.02505  0.01323  0.165  0.459
6.251e+09  -0.8293  -0.07025  -0.001457  0.01034  0.0003641  0.03159  0.3607  0.4299
6.252e+09  -0.762  0.1896  -0.0199  -0.002257  -0.04123  -0.01829  0.5104  0.2087
6.254e+09  -0.6489  0.5027  0.03279  -0.02507  -0.01076  -0.006898  0.6106  0.01636
6.255e+09  -0.4195  0.6954  -0.02196  -0.03141  -0.01124  0.03894  0.605  -0.2118
6.256e+09  -0.1823  0.7779  0.01328  -0.0117  0.05775  0.02243  0.4559  -0.4413
6.258e+09  0.1262  0.7821  -0.04407  -0.003109  -0.009209  0.008655  0.2803  -0.6132
6.259e+09  0.3973  0.7519  0.01829  -0.00542  0.03958  0.04744  0.03494  -0.6499
6.26e+09  0.5997  0.5872  -0.02239  -0.0101  -0.0281  0.02671  -0.1903  -0.6391
6.261e+09  0.7729  0.3063  0.01647  0.0005332  -0.03876  0.01309  -0.4098  -0.5252
6.262e+09  0.8196  0.0196  -0.01291  0.00106  0.02963  -0.05517  -0.6291  -0.3545
6.264e+09  0.7759  -0.2473  0.006679  0.02256  0.04616  -0.06922  -0.7282  -0.1425
6.265e+09  0.6078  -0.5171  -0.01019  0.0004239  -0.01172  -0.03771  -0.6748  0.1641
6.266e+09  0.4851  -0.6945  0.01164  0.006399  0.01252  0.06195  -0.6213  0.4079
6.268e+09  0.1729  -0.8491  -0.01374  -0.002086  0.03629  -0.03886  -0.4483  0.5628
6.269e+09  -0.1436  -0.809  0.001912  0.008536  -0.009424  -0.0272  -0.1704  0.7113
6.27e+09  -0.4216  -0.6551  -0.002324  -0.0003506  0.01762  0.02177  0.05787  0.727
6.271e+09  -0.6648  -0.5625  -0.0158  -0.02494  0.002092  0.003504  0.3036  0.6966
6.272e+09  -0.8014  -0.2685  0.009032  0.01753  0.01788  0.03126  0.5309  0.5129
6.274e+09  -0.8544  0.001848  0.01315  -0.02888  -0.01291  0.01195  0.6718  0.3082
6.275e+09  -0.7872  0.2843  0.006747  0.007141  0.01971  0.006456  0.724  0.08122
6.276e+09  -0.6426  0.5005  0.02411  0.01412  -0.005872  -0.004552  0.7375  -0.2254
6.278e+09  -0.3554  0.7463  -0.00407  0.006474  0.01027  0.02378  0.6078  -0.4617
6.279e+09  -0.1268  0.8074  -0.002209  -0.01932  0.003316  -0.01406  0.4555  -0.6568
6.28e+09  0.1435  0.8583  -0.0007298  0.02132  -0.005024  0.02242  0.1648  -0.7273
6.281e+09  0.4529  0.678  -0.002423  0.03191  0.01308  0.009346  -0.09583  -0.7603
6.282e+09  0.639  0.4659  -0.02115  -0.01829  -0.008156  -0.06932  -0.3799  -0.6825
6.284e+09  0.8132  0.2347  -0.01584  -0.0122  0.04257  0.02245  -0.5773  -0.5063
6.285e+09  0.7826  -0.04185  -0.02632  -0.01362  -0.05729  -0.0004283  -0.7081  -0.263
6.286e+09  0.7417  -0.3168  -0.03157  0.02931  -0.02659  -0.06227  -0.7839  -0.02688
6.288e+09  0.5633  -0.6058  0.02498  0.004787  -0.01993  0.01621  -0.7832  0.2513
6.289e+09  0.361  -0.724  -0.009896  0.04136  0.0252  0.0282  -0.6182  0.4949
6.29e+09  0.09012  -0.7703  0.02687  0.04057  -0.05294  0.004547  -0.4585  0.6863
6.291e+09  -0.234  -0.7814  -0.02982  0.01272  0.02132  -0.002746  -0.1424  0.8315
6.292e+09  -0.4729  -0.6426  0.03134  0.03082  -0.01549  -0.02697  0.09285  0.8024
6.294e+09  -0.6844  -0.4397  0.003981  -0.03001  0.01806  -0.01707  0.4191  0.7277
6.295e+09  -0.8034  -0.191  -0.004564  0.004336  0.01386  0.03132  0.5941  0.5488
6.296e+09  -0.8468  0.09956  0.01638  -0.01392  -0.007445  0.04295  0.7551  0.2525
6.298e+09  -0.7243  0.419  -0.003165  0.01517  -0.0207  -0.02938  0.8045  0.009265
6.299e+09  -0.5428  0.6104  -0.01399  -0.01715  0.008444  -0.009017  0.7759  -0.2573
6.3e+09  -0.3231  0.7684  -0.02395  -0.00566  0.03424  -0.001325  0.6388  -0.4951
6.301e+09  -0.005568  0.8162  -0.002198  0.0003424  0.004581  -0.07059  0.4082  -0.7393
6.302e+09  0.1905  0.8152  -0.0007786  0.006027  0.02871  -0.02547  0.1741  -0.8152
6.304e+09  0.5328  0.6539  -0.001128  0.004435  -0.03518  0.004646  -0.1219  -0.8205
6.305e+09  0.6779  0.4554  -0.01805  -0.01726  -0.03041  0.02085  -0.4011  -0.7474
6.306e+09  0.766  0.1921  -0.005883  -0.003284  -0.01417  0.04881  -0.6638  -0.5585
6.308e+09  0.7776  -0.113  0.01659  -0.03663  -0.01153  0.0252  -0.7815  -0.3196
6.309e+09  0.7378  -0.4087  0.02405  -0.005918  -0.03714  -0.009235  -0.825  -0.02656
6.31e+09  0.5341  -0.6487  -0.01118  -0.02162  0.009548  0.0292  -0.8155  0.3013
6.311e+09  0.2576  -0.7312  -0.008416  -0.006762  -0.04344  0.03998  -0.6525  0.5569
6.312e+09  -0.01404  -0.8387  0.01185  0.0219  -0.01685  -0.004988  -0.4506  0.7487
6.314e+09  -0.2798  -0.7586  0.02586  0.04385  0.04598  -0.05103  -0.1812  0.83
6.315e+09  -0.5461  -0.6304  -0.01528  0.01441  0.005104  -0.02638  0.1537  0.9031
6.316e+09  -0.7143  -0.3497  -0.002268  0.008764  -0.0363  -0.04609  0.4111  0.7229
6.318e+09  -0.8092  -0.1502  0.01341  -0.02921  -0.02275  -0.03773  0.6696  0.5712
6.319e+09  -0.8215  0.1966  0.01313  -0.0006617  -0.01938  0.001993  0.8359  0.3519
6.32e+09  -0.6759  0.4139  0.04339  0.007736  0.02861  -0.01149  0.8813  -0.01648
6.321e+09  -0.4981  0.6552  -0.008375  -0.008323  -0.04432  0.02018  0.8364  -0.289
6.322e+09  -0.2227  0.7948  0.01871  0.008948  0.02202  0.0002487  0.6896  -0.5664
6.324e+09  0.06188  0.8584  -0.005923  -0.007663  -0.01423  0.01974  0.4804  -0.781
6.325e+09  0.3719  0.7643  -0.009572  0.01316  -0.02168  -0.003587  0.1902  -0.8904
6.326e+09  0.6129  0.5855  0.02159  0.002225  0.004962  0.05309  -0.1372  -0.8786
6.328e+09  0.7648  0.329  -0.02727  -0.004846  0.04035  -0.0269  -0.4339  -0.7954
6.329e+09  0.8357  0.07769  -0.005243  0.01421  0.00556  -0.001658  -0.7065  -0.59
6.33e+09  0.7945  -0.2197  -0.02577  -0.01017  -0.01288  0.01236  -0.8522  -0.3108
6.331e+09  0.6586  -0.5187  -0.01519  0.02274  0.04807  -0.02348  -0.9202  -0.03531
6.332e+09  0.5355  -0.7678  0.000912  -0.01411  -0.002179  0.0434  -0.8511  0.2863
6.334e+09  0.1801  -0.8014  -0.005704  -0.01074  -0.008297  -0.008357  -0.7077  0.5621
6.335e+09  -0.1268  -0.8411  -0.01451  -0.03213  -0.02678  -0.01468  -0.5138  0.7358
6.336e+09  -0.3313  -0.7196  -0.001771  -0.0009118  -0.0319  0.01502  -0.1877  0.9081
6.338e+09  -0.6275  -0.5188  -0.0008093  0.02216  -0.03755  0.02809  0.1173  0.9407
6.339e+09  -0.8197  -0.2873  -0.001743  0.002327  -0.004138  -0.05929  0.426  0.8581
6.34e+09  -0.8515  -0.001323  -0.00316  -0.02536  0.02256  0.0218  0.65  0.6208
6.341e+09  -0.7943  0.2686  0.006732  -0.0272  -0.0361  -0.001384  0.8722  0.3299
6.342e+09  -0.6449  0.5511  0.01191  0.03486  0.008713  -0.01627  0.9259  0.07346
6.344e+09  -0.4073  0.7752  -0.01557  -0.005682  0.02922  -0.004293  0.895  -0.2733
6.345e+09  -0.1239  0.8815  0.02622  0.003363  -0.002841  0.0009208  0.7585  -0.5576
6.346e+09  0.1915  0.838  -0.02673  -0.04457  0.0421  -0.05402  0.5089  -0.7802
6.348e+09  0.4792  0.7296  -0.005301  0.01001  -0.02345  -0.007887  0.2462  -0.9009
6.349e+09  0.6834  0.482  -0.02595  -0.001199  -0.01978  -0.01941  -0.1307  -0.8995
6.35e+09  0.8056  0.2637  -0.001067  -0.0129  0.001719  -0.01319  -0.4323  -0.8147
6.351e+09  0.8964  -0.09384  0.02225  0.02026  0.005472  -0.005512  -0.6846  -0.6693
6.352e+09  0.7891  -0.3897  -0.005479  0.009336  0.02473  0.01163  -0.8339  -0.3653
6.354e+09  0.5849  -0.5918  0.04233  0.01785  -0.01483  0.00842  -0.9391  -0.06959
6.355e+09  0.3607  -0.7936  -0.04543  -0.04213  0.01822  0.0301  -0.8902  0.2719
6.356e+09  0.05851  -0.8146  -0.008704  0.01592  -0.05104  -0.02171  -0.7209  0.5612
6.358e+09  -0.2689  -0.8431  -0.001657  -0.01869  0.01847  -0.02131  -0.4992  0.8145
6.359e+09  -0.5487  -0.6598  0.0086  0.01625  -0.01519  -0.02143  -0.2586  0.9181
6.36e+09  -0.7408  -0.4318  0.01934  -0.004568  0.01031  -0.0003742  0.09977  0.945
6.361e+09  -0.8524  -0.1692  -0.03131  0.02632  -0.00938  -0.009225  0.3634  0.8305
6.362e+09  -0.831  0.1822  -0.01766  0.02282  0.002997  -0.02548  0.67  0.6738
6.364e+09  -0.7124  0.4561  0.02629  0.03138  0.02798  -0.03066  0.832  0.4025
6.365e+09  -0.5579  0.6833  -0.001247  0.002281  0.04309  0.01715  0.9634  0.08808
6.366e+09  -0.3032  0.845  -0.02863  -0.02654  0.01262  0.007924  0.919  -0.2292
6.368e+09  0.03636  0.8792  0.01361  -0.009222  0.004062  0.002411  0.7649  -0.5418
6.369e+09  0.3691  0.7767  0.004682  -0.007531  -0.03294  -0.008648  0.5562  -0.7485
6.37e+09  0.618  0.6163  0.01442  -0.01575  -0.02232  0.02061  0.2246  -0.9134
6.371e+09  0.8052  0.3529  -0.009399  -0.006045  -0.004494  0.009979  -0.1154  -0.9751
6.372e+09  0.8855  0.02411  0.01697  0.002375  0.03187  0.0289  -0.3446  -0.8858
6.374e+09  0.8393  -0.2842  0.04383  -0.01738  0.03744  0.00652  -0.6846  -0.7275
6.375e+09  0.6725  -0.5073  0.006764  -0.02104  0.025  -0.03427  -0.8751  -0.4483
6.376e+09  0.4285  -0.7544  -0.02791  0.007326  -0.01378  0.02597  -0.9209  -0.08572
6.378e+09  0.1852  -0.859  0.05167  0.04577  0.02014  -0.002407  -0.885  0.2319
6.379e+09  -0.1762  -0.8408  0.00097  0.009766  0.02226  0.02682  -0.7785  0.5115
6.38e+09  -0.4555  -0.7694  -0.03578  0.008712  -0.004164  -0.01524  -0.52  0.7482
6.381e+09  -0.6722  -0.5622  0.0129  -0.01215  -0.01366  0.004186  -0.2958  0.9204
6.382e+09  -0.8223  -0.3019  -0.002929  -0.02045  0.01781  0.02864  0.06126  0.957
6.384e+09  -0.844  0.01786  -0.01406  -0.03366  0.001014  0.05021  0.3843  0.8488
6.385e+09  -0.784  0.3579  0.008951  -0.03294  -0.006554  0.05307  0.6479  0.6952
6.386e+09  -0.6615  0.5994  0.006756  -0.01031  -0.001239  0.02942  0.8648  0.434
6.388e+09  -0.3852  0.7727  0.002031  0.01102  -0.01478  0.004551  0.9792  0.1335
6.389e+09  -0.07251  0.9359  0.001278  0.02691  -0.01918  -0.006908  0.9017  -0.22
6.39e+09  0.2349  0.8402  0.01594  0.0008321  -0.001309  0.03981  0.8324  -0.4843
6.391e+09  0.4953  0.7388  -0.001877  0.0009612  -0.02946  0.03731  0.5609  -0.7274
6.392e+09  0.721  0.4366  0.01391  -0.0006075  0.03052  -0.02444  0.2503  -0.8441
6.394e+09  0.8761  0.1732  0.02964  0.007398  -0.007433  -0.01052  -0.02229  -0.9325
6.395e+09  0.8943  -0.1312  -0.03267  -0.04004  -0.003379  -0.04024  -0.3625  -0.8557
6.396e+09  0.8084  -0.394  -0.01522  -0.02982  -0.02615  -0.008449  -0.6023  -0.6547
6.398e+09  0.5389  -0.6671  -0.004245  0.009208  -0.0174  0.01019  -0.8142  -0.4346
6.399e+09  0.2564  -0.8264  -0.003469  -0.03163  0.01819  0.01219  -0.8629  -0.1534
6.4e+09  -0.008507  -0.8408  -0.03266  -0.01282  -0.02769  -0.02324  -0.8926  0.1702
6.401e+09  -0.3063  -0.7932  -0.03684  -0.01083  -0.008631  -0.03485  -0.8238  0.4484
6.402e+09  -0.552  -0.6972  0.02678  0.01192  0.00334  0.02819  -0.5727  0.7234
6.404e+09  -0.7546  -0.3891  0.02963  0.01637  0.02398  -6.877e-05  -0.343  0.8965
6.405e+09  -0.8984  -0.1128  -0.001907  0.006444  -0.02414  4.275e-05  -0.01481  0.932
6.406e+09  -0.9101  0.2035  -0.02947  0.007334  0.04131  0.0155  0.2826  0.9169
6.408e+09  -0.7355  0.4333  0.01356  0.02173  0.02396  -0.008585  0.6362  0.6995
6.409e+09  -0.5081  0.7415  0.03944  -0.004038  0.01264  0.01231  0.7905  0.4379
6.41e+09  -0.2137  0.8944  -0.04978  -0.01359  0.03544  -0.01061  0.9495  0.1858
6.411e+09  0.0543  0.8735  0.01749  -0.04007  0.01059  0.01615  0.9248  -0.1284
6.412e+09  0.373  0.7892  0.003207  0.01815  0.004471  -0.02906  0.827  -0.4319
6.414e+09  0.5923  0.5716  0.02792  0.03846  0.03141  0.007097  0.5854  -0.6727
6.415e+09  0.8217  0.3582  -0.01537  -0.005934  -0.02153  -0.01829  0.2921  -0.8507
6.416e+09  0.8945  0.07173  -0.04584  -0.01555  0.009005  0.04238  0.02913  -0.9328
6.418e+09  0.8594  -0.2616  0.02051  -0.03094  -0.05022  0.02331  -0.2737  -0.8429
6.419e+09  0.7027  -0.5825  0.04109  -0.008397  -0.01935  0.004991  -0.5219  -0.6764
6.42e+09  0.4192  -0.7365  0.05771  -0.008989  0.03443  0.0135  -0.7642  -0.5187
6.421e+09  0.1426  -0.7935  -0.047  -0.02238  -0.01812  0.02413  -0.8759  -0.2099
6.422e+09  -0.1548  -0.8684  0.02822  -0.009291  -0.02076  0.02039  -0.8636  0.1313
6.424e+09  -0.435  -0.7755  0.002026  0.01352  0.01015  0.02068  -0.7827  0.3932
6.425e+09  -0.6973  -0.5389  -0.002024  0.01888  0.04196  -0.06702  -0.5946  0.5851
6.426e+09  -0.8162  -0.3016  0.01933  -0.02956  -0.01968  -0.001414  -0.344  0.8088
6.428e+09  -0.8521  0.0423  0.04892  -0.01233  -0.02591  -0.04616  -0.03159  0.859
6.429e+09  -0.781  0.2788  -0.01879  0.02842  -0.01452  0.0008133  0.2432  0.8775
6.43e+09  -0.658  0.6308  -0.02072  -0.05281  0.01874  -0.039  0.4926  0.6867
6.431e+09  -0.4038  0.7498  0.01048  0.004542  -0.02531  0.02137  0.7166  0.5107
6.432e+09  -0.09216  0.8531  0.05181  0.05824  -0.02274  0.03139  0.8494  0.1869
6.434e+09  0.2313  0.8948  -0.01939  0.04263  -0.005419  -0.006585  0.8745  -0.08524
6.435e+09  0.4463  0.7385  -0.008031  0.008663  -0.0364  0.008309  0.7764  -0.4005
6.436e+09  0.632  0.5118  -0.0178  0.02064  0.003457  -0.002055  0.6026  -0.5609
6.438e+09  0.8292  0.1728  -0.02556  0.03574  -0.04326  -0.0457  0.3437  -0.7464
6.439e+09  0.8852  -0.07198  -0.009838  0.01087  -0.01529  -0.02075  0.06019  -0.896
6.44e+09  0.7604  -0.3713  0.007499  -0.04516  0.03017  -0.009265  -0.2629  -0.7991
6.441e+09  0.6081  -0.5862  -0.03478  0.02199  -0.01194  0.01359  -0.5094  -0.6706
6.442e+09  0.373  -0.8481  0.08448  0.0426  -0.02664  -0.006572  -0.6598  -0.4292
6.444e+09  0.09308  -0.8555  -0.00384  -0.009109  -0.03356  0.02205  -0.8437  -0.2188
6.445e+09  -0.2287  -0.7623  -0.01684  -0.01534  -0.02937  -0.04478  -0.8683  0.1125
6.446e+09  -0.5012  -0.6117  0.02552  0.004116  0.01249  0.01105  -0.7448  0.3394
6.448e+09  -0.6996  -0.4545  -0.009352  0.0106  0.006853  -0.02941  -0.5827  0.6055
6.449e+09  -0.7899  -0.1473  -0.001126  0.01346  -0.02949  -0.01533  -0.3584  0.7818
6.45e+09  -0.8252  0.06196  0.05264  -0.01047  -0.01656  -0.03345  -0.07309  0.8535
6.451e+09  -0.7256  0.4094  0.009756  0.06267  0.00473  0.003572  0.189  0.7884
6.452e+09  -0.597  0.6025  0.02816  0.006241  -0.02535  0.02819  0.4838  0.6681
6.454e+09  -0.3149  0.7937  -0.0343  0.01614  -0.004317  0.01119  0.6938  0.4659
6.455e+09  -0.001422  0.8815  -0.02081  -0.1208  -0.03611  -0.02669  0.7827  0.2043
6.456e+09  0.2465  0.7825  0.03439  0.01166  0.03079  0.02014  0.7782  -0.07528
6.458e+09  0.5216  0.6227  0.0001998  0.01824  -0.03157  0.01554  0.7669  -0.3498
6.459e+09  0.7091  0.4716  0.03289  -0.02898  0.008431  -0.02442  0.5442  -0.5365
6.46e+09  0.8184  0.1781  0.04877  -0.007906  0.05254  -0.01819  0.3776  -0.7622
6.461e+09  0.8642  -0.09748  -0.01662  -0.03393  -0.07629  0.03426  0.04248  -0.7984
6.462e+09  0.7804  -0.4157  -0.004613  -0.05266  -0.006305  -0.01103  -0.222  -0.8081
6.464e+09  0.5995  -0.6401  -0.0605  -0.01661  0.01055  0.03035  -0.5059  -0.6293
6.465e+09  0.2939  -0.801  -0.0116  0.04316  0.0126  -0.03453  -0.6824  -0.4514
6.466e+09  -0.00113  -0.827  -0.02179  0.02417  -0.004982  0.01326  -0.767  -0.2178
6.468e+09  -0.2865  -0.8055  0.002212  -0.01854  -0.008428  -0.03604  -0.8309  0.05435
6.469e+09  -0.5211  -0.6874  0.008144  0.01492  -0.06503  -0.005807  -0.6958  0.3708
6.47e+09  -0.7496  -0.4338  0.01237  0.0003554  0.0647  -0.03065  -0.5943  0.5347
6.471e+09  -0.8542  -0.1595  0.01601  -0.002578  -0.002743  0.04852  -0.3217  0.7004
6.472e+09  -0.8429  0.1854  -0.02764  -0.00401  -0.01086  0.009914  -0.05817  0.796
6.474e+09  -0.6934  0.4013  0.003177  -0.008096  0.002085  0.002928  0.2156  0.7962
6.475e+09  -0.5084  0.6894  0.03956  -0.009548  -0.02146  0.00817  0.4138  0.6611
6.476e+09  -0.3483  0.8036  0.0004253  0.0112  -0.02221  -0.044  0.6549  0.4358
6.478e+09  0.05518  0.8248  0.02601  0.04282  0.01605  0.02156  0.7797  0.199
6.479e+09  0.349  0.7842  -0.0007738  -0.00327  0.03479  -0.038  0.8478  -0.03186
6.48e+09  0.5555  0.6455  0.02823  0.0502  0.01777  -0.01731  0.6708  -0.2758
6.481e+09  0.6945  0.4011  -0.02306  -0.009849  -0.009603  0.04842  0.5064  -0.5731
6.482e+09  0.8464  0.1458  -0.028  -0.01127  0.001537  -0.03779  0.3222  -0.7131
6.484e+09  0.792  -0.1831  0.01906  -0.03924  0.02789  0.01162  0.05326  -0.8161
6.485e+09  0.6938  -0.4614  -0.005609  0.03016  0.004298  -0.01443  -0.2245  -0.7559
6.486e+09  0.4913  -0.67  0.002333  0.005176  0.003974  0.02181  -0.4346  -0.6364
6.488e+09  0.1858  -0.0288  -0.0348  0.002255  0.3779  -0.6262  -0.6394  -0.4332
6.489e+09  -0.02933  -0.8294  -0.02764  0.04139  0.006963  -0.02286  -0.7326  -0.1871
6.49e+09  -0.3269  -0.7598  -0.01561  0.002119  0.04717  -0.07898  -0.7888  0.1033
6.491e+09  -0.642  -0.636  -0.0268  -0.0131  0.06034  -0.004667  -0.6862  0.3857
6.492e+09  -0.7672  -0.36  0.02483  -0.02292  0.01256  -0.02181  -0.528  0.5306
6.494e+09  -0.7075  -0.1376  0.03784  -0.00364  0.1138  -0.1306  -0.3015  0.7105
6.495e+09  -0.8092  0.1813  0.01777  -0.03351  0.06408  0.05729  -0.07571  0.7834
6.496e+09  -0.7162  0.4521  0.01844  -0.002096  -0.00493  0.03043  0.2172  0.7373
6.498e+09  -0.4866  0.6773  0.02108  -0.03652  0.01896  0.01577  0.477  0.5929
6.499e+09  -0.2409  0.786  -0.01187  -0.01253  0.01775  -0.0212  0.6295  0.4279
6.5e+09  -0.1123  0.7811  0.01277  -0.009399  0.02595  0.03062  0.7235  0.1805
6.501e+09  0.2665  0.7647  -0.01203  0.04776  0.06454  0.03296  0.76  -0.1047
6.502e+09  0.5223  0.5776  0.003732  -0.02971  -0.01106  0.01509  0.7159  -0.3318
6.504e+09  0.7973  0.3629  -0.03146  0.004092  0.03204  0.06181  0.506  -0.5689
6.505e+09  0.8057  0.1366  0.0008464  -0.02101  0.06498  0.0154  0.2919  -0.6842
6.506e+09  0.8608  -0.1653  0.007502  -0.01124  0.007017  0.01465  0.06995  -0.7113
6.508e+09  0.7228  -0.5169  0.01592  -0.02943  -0.04893  -0.0127  -0.2501  -0.717
6.509e+09  0.5226  -0.704  0.007571  0.01783  0.01005  0.00637  -0.4982  -0.6043
6.51e+09  0.2463  -0.8521  0.02465  0.01207  -0.001548  -0.04679  -0.6539  -0.3734
6.511e+09  -0.05775  -0.8358  0.02943  -0.009935  0.0173  -0.00683  -0.7502  -0.1511
6.512e+09  -0.3857  -0.7496  0.01591  0.0001417  0.009854  0.01089  -0.7371  0.104
6.514e+09  -0.6354  -0.6342  0.00599  0.001646  -0.02868  0.03853  -0.6421  0.3805
6.515e+09  -0.8769  -0.3321  0.03062  0.002231  -0.02588  -0.03337  -0.4937  0.5905
6.516e+09  -0.8377  -0.01723  0.008827  -0.003757  -0.04267  0.01493  -0.2543  0.7156
6.518e+09  -0.8351  0.2702  -0.008628  -0.01521  -0.02754  -0.01123  0.01811  0.7587
6.519e+09  -0.7561  0.5455  0.03141  -0.001761  -0.0001945  0.006936  0.2589  0.6559
6.52e+09  -0.511  0.7706  -0.006258  0.003009  0.0217  0.002861  0.4902  0.5085
6.521e+09  -0.1861  0.8517  -0.007524  -0.02066  -0.03102  -0.02665  0.6541  0.3406
6.522e+09  0.0889  0.8957  0.02084  0.02066  -0.01283  0.008065  0.6767  0.1089
6.524e+09  0.4058  0.7996  -0.01302  0.002301  0.003265  -0.01945  0.7208  -0.166
6.525e+09  0.6565  0.5731  0.003401  0.04293  -0.007046  0.03604  0.6149  -0.395
6.526e+09  0.8241  0.3767  0.008708  -0.00343  0.03867  0.01408  0.4134  -0.5841
6.528e+09  0.865  0.03986  -0.01814  -0.03263  -0.0236  -0.03642  0.1877  -0.6755
6.529e+09  0.8854  -0.2787  0.02333  0.002831  -0.06242  -0.009189  -0.01922  -0.7212
6.53e+09  0.6609  -0.6122  -0.02902  0.03672  -0.00323  -0.01123  -0.2556  -0.6134
6.531e+09  0.4767  -0.7844  -0.003645  0.02128  -0.00224  -0.01532  -0.4779  -0.4808
6.532e+09  0.1699  -0.9024  -0.00454  -0.003523  -0.002625  -0.004439  -0.5716  -0.3152
6.534e+09  -0.1702  -0.9091  0.02055  0.0007061  0.02997  0.04734  -0.6465  -0.1075
6.535e+09  -0.4746  -0.7799  0.01015  0.003609  -0.0429  -0.006489  -0.6474  0.1056
6.536e+09  -0.7338  -0.564  -0.007756  0.01055  -0.001021  -0.05234  -0.5427  0.2831
6.538e+09  -0.9367  -0.2909  -0.01886  0.02568  0.00914  -0.05145  -0.4529  0.4833
6.539e+09  -0.8884  0.1125  0.005879  0.01288  -0.01034  0.03864  -0.2778  0.5913
6.54e+09  -0.84  0.3576  -0.008364  -0.008729  -0.04883  -0.02175  -0.06732  0.6906
6.541e+09  -0.6494  0.6414  0.00657  -0.01843  0.03207  0.01307  0.1927  0.6659
6.542e+09  -0.4613  0.8332  0.009434  0.005714  0.01884  0.00727  0.3842  0.614
6.544e+09  -0.1269  0.9145  -0.04324  0.01788  0.02797  -0.0009407  0.5814  0.3946
6.545e+09  0.2776  0.9749  0.02985  0.01856  -0.01426  0.009047  0.6985  0.1695
6.546e+09  0.5056  0.7457  -0.02619  -0.01488  -0.006792  -0.0008631  0.7037  -0.06088
6.548e+09  0.7756  0.5442  0.01991  -0.006991  -0.02099  0.004395  0.6964  -0.3324
6.549e+09  0.8818  0.2666  -0.0128  -0.007344  0.03663  0.02207  0.4952  -0.5332
6.55e+09  0.9701  -0.1131  0.03094  -0.001522  -0.001528  0.02634  0.295  -0.6588
