# Hz S RI R 50
6.25e+09  -0.7188  0.3278  -0.02242  0.02902  -0.02691  -0.007863  0.1603  0.5093
6.251e+09  -0.626  0.5035  -0.003451  0.002529  0.03723  0.01797  0.3547  0.3967
6.252e+09  -0.3863  0.6661  0.03162  0.0006962  0.02881  0.04621  0.5331  0.2221
6.254e+09  -0.1433  0.7994  -0.03635  0.001697  -0.001106  0.05769  0.5915  0.01698
6.255e+09  0.1731  0.798  0.0007179  0.01719  0.01873  -0.005269  0.5654  -0.2034
6.256e+09  0.365  0.6382  -0.01238  -0.009874  0.00261  -0.002378  0.5165  -0.4271
6.258e+09  0.6538  0.4981  0.01641  -0.002456  -0.03367  0.03519  0.2622  -0.5985
6.259e+09  0.7279  0.2978  0.001292  0.006039  0.06294  -0.04192  0.01787  -0.6336
6.26e+09  0.7645  -0.02785  0.02266  -0.007015  -0.01945  0.04173  -0.188  -0.6802
6.261e+09  0.7382  -0.284  -0.002663  -0.01712  -0.005354  -0.08497  -0.4462  -0.5216
6.262e+09  0.5786  -0.5247  -0.004188  0.02581  0.00631  0.01141  -0.5822  -0.3477
6.264e+09  0.3876  -0.7013  0.01633  0.009994  -0.01706  -0.01039  -0.7045  -0.1086
6.265e+09  0.1443  -0.7391  -0.001727  -0.02037  -0.03774  0.0101  -0.7334  0.1522
6.266e+09  -0.1705  -0.7799  0.0142  -0.02408  -0.008851  0.005384  -0.6169  0.3873
6.268e+09  -0.4199  -0.6837  0.02235  0.01771  0.03294  0.01911  -0.4343  0.5465
6.269e+09  -0.6211  -0.5234  0.01083  -0.003783  -0.007984  -0.05112  -0.1933  0.7417
6.27e+09  -0.7554  -0.2383  -0.04049  -0.01305  -0.03735  0.04312  0.04083  0.7612
6.271e+09  -0.7921  0.03661  -0.04673  -0.02244  0.007793  -0.0277  0.3375  0.682
6.272e+09  -0.7807  0.3247  -0.03364  0.01167  -0.02852  -0.05964  0.5611  0.5257
6.274e+09  -0.5584  0.5292  -0.00666  -0.02023  -0.04983  0.03786  0.6887  0.3003
6.275e+09  -0.3487  0.7383  0.01761  -0.001623  0.0227  0.03296  0.7528  0.04031
6.276e+09  -0.05819  0.8066  0.004067  0.01282  0.01355  0.01075  0.7431  -0.2333
6.278e+09  0.1502  0.7951  0.02488  -0.002867  0.02322  -0.02334  0.5853  -0.4654
6.279e+09  0.4204  0.6679  0.002664  -0.02674  -0.02541  -0.02776  0.4368  -0.6264
6.28e+09  0.6384  0.4976  0.0243  0.02056  -0.0157  0.02584  0.1455  -0.7744
6.281e+09  0.7955  0.2546  0.006108  -0.007584  0.01878  -0.01689  -0.08733  -0.7912
6.282e+09  0.7999  -0.03973  -0.01597  -0.01092  -0.0445  0.04492  -0.3842  -0.6815
6.284e+09  0.7847  -0.3154  0.01144  -0.0002986  -0.02051  0.009633  -0.5882  -0.5595
6.285e+09  0.5885  -0.5151  -0.02973  0.01884  -0.02532  -0.006683  -0.739  -0.2813
6.286e+09  0.3635  -0.7189  -0.03721  0.0146  -0.006935  0.01504  -0.7983  0.006526
6.288e+09  0.1115  -0.808  -0.003944  0.02625  0.03508  -0.01665  -0.7458  0.2709
6.289e+09  -0.1929  -0.7694  0.02052  0.01043  -0.01786  -0.02915  -0.6108  0.4878
6.29e+09  -0.4311  -0.7  -0.01895  -0.0139  0.008499  -0.0575  -0.4077  0.7204
6.291e+09  -0.5982  -0.4667  -0.002275  0.01233  0.04431  0.03755  -0.1538  0.7791
6.292e+09  -0.7511  -0.2576  0.005927  -0.0277  0.001246  0.01655  0.1279  0.8208
6.294e+09  -0.8088  0.06702  0.001286  0.01174  -0.0132  0.01952  0.4181  0.7272
6.295e+09  -0.7234  0.3396  0.01168  0.02472  -0.03061  -0.06241  0.6032  0.5261
6.296e+09  -0.5829  0.514  -0.01868  0.01303  -0.03896  0.03319  0.7447  0.2775
6.298e+09  -0.3472  0.6604  0.0154  0.01624  0.0006143  -0.03975  0.8434  0.02485
6.299e+09  -0.09184  0.774  0.001358  -0.01889  0.03106  0.02566  0.7775  -0.2626
6.3e+09  0.1977  0.7879  0.0009337  0.02237  -0.01959  -0.01577  0.677  -0.5402
6.301e+09  0.4722  0.6261  -0.01004  0.01622  0.0242  0.02335  0.4295  -0.7307
6.302e+09  0.6833  0.4752  -0.01843  -0.002168  -0.02977  -0.002513  0.1561  -0.8203
6.304e+09  0.7772  0.2032  0.004814  -0.02168  0.0401  -0.01265  -0.1384  -0.8502
6.305e+09  0.8372  -0.05782  -0.002524  0.01125  0.006595  0.02929  -0.4146  -0.7332
6.306e+09  0.7061  -0.3457  -0.005261  0.001436  -0.003005  -0.02029  -0.6256  -0.5198
6.308e+09  0.5191  -0.5868  -0.01993  0.01424  0.05256  0.02395  -0.7954  -0.2903
6.309e+09  0.2542  -0.765  0.0237  0.02091  0.005468  0.03496  -0.826  -0.008956
6.31e+09  0.05448  -0.7945  0.0185  -0.01597  -0.03321  0.02689  -0.8192  0.2798
6.311e+09  -0.2219  -0.7499  0.01395  0.01106  0.01908  0.008768  -0.7011  0.5572
6.312e+09  -0.4918  -0.6836  0.004006  0.004759  -0.006074  -0.02845  -0.4292  0.7165
6.314e+09  -0.7115  -0.4455  0.005808  0.01824  0.003304  0.003522  -0.1546  0.8375
6.315e+09  -0.8176  -0.1606  0.00192  0.01646  -0.03927  -0.01087  0.136  0.8792
6.316e+09  -0.7782  0.1879  -0.009929  -0.007441  0.00347  0.02515  0.3991  0.7579
6.318e+09  -0.7368  0.4067  0.004797  -0.006708  0.009445  -0.05731  0.6392  0.585
6.319e+09  -0.5552  0.5507  -0.00425  0.01975  0.01008  0.0286  0.8321  0.3629
6.32e+09  -0.2835  0.7553  0.0164  -0.01515  0.02049  -0.01995  0.8376  0.00418
6.321e+09  0.01675  0.8394  0.01474  0.0136  -0.02478  0.03593  0.842  -0.2842
6.322e+09  0.2558  0.7567  0.03205  -0.04699  0.004336  -0.04184  0.688  -0.5963
6.324e+09  0.5331  0.6179  -0.008799  -0.01932  0.01635  0.02921  0.4496  -0.7769
6.325e+09  0.6956  0.3943  -0.02894  0.01445  -0.0156  -0.00409  0.1687  -0.9069
6.326e+09  0.8008  0.1777  -0.009013  -0.00276  0.04823  0.03768  -0.1338  -0.9013
6.328e+09  0.7714  -0.1354  0.01996  -0.02053  -0.01322  -0.003105  -0.4305  -0.7809
6.329e+09  0.6788  -0.4101  0.03189  0.0189  0.03746  -0.03539  -0.68  -0.5895
6.33e+09  0.5078  -0.6701  -0.03697  -0.005203  0.01655  -0.0007345  -0.8198  -0.3308
6.331e+09  0.2614  -0.809  -0.002692  0.02308  -0.003802  -0.0218  -0.9062  0.008849
6.332e+09  -0.05152  -0.8246  -0.02359  0.01111  0.007793  -0.003575  -0.8612  0.2707
6.334e+09  -0.3442  -0.7056  0.01118  0.007744  -0.02453  -0.01905  -0.742  0.5785
6.335e+09  -0.5649  -0.5659  -0.01182  0.01003  0.04171  0.01521  -0.52  0.7697
6.336e+09  -0.7638  -0.3292  0.02021  0.001802  -0.02688  -0.001084  -0.1977  0.9014
6.338e+09  -0.7945  -0.06101  0.02247  -0.008541  -0.06569  -0.0135  0.1111  0.9569
6.339e+09  -0.7863  0.2063  -0.001465  -0.02944  0.01041  0.01667  0.4337  0.8278
6.34e+09  -0.7424  0.5341  0.0008927  -0.002923  0.01424  -0.01788  0.686  0.6381
6.341e+09  -0.5193  0.6957  0.01263  0.02309  0.01588  0.03168  0.8535  0.3435
6.342e+09  -0.1681  0.8462  0.01094  -0.02622  -0.01274  -0.01871  0.8998  0.03424
6.344e+09  0.1003  0.8144  0.00145  -0.005815  -0.002022  -0.03136  0.8917  -0.2921
6.345e+09  0.3281  0.7509  -0.03078  -0.03844  0.004367  0.008765  0.7288  -0.5513
6.346e+09  0.6328  0.5276  -0.01026  0.0177  0.01707  0.03529  0.5475  -0.7944
6.348e+09  0.7668  0.3211  -0.01813  -0.01397  0.01899  0.01913  0.2433  -0.8958
6.349e+09  0.8168  0.0177  -0.03038  0.02567  -0.0265  0.03884  -0.1068  -0.9569
6.35e+09  0.7615  -0.2728  -0.03501  -0.01372  -0.03173  -0.003522  -0.4543  -0.8197
6.351e+09  0.6216  -0.5364  0.001885  0.0008847  -0.01384  0.02779  -0.6611  -0.653
6.352e+09  0.432  -0.7374  -0.0005894  -0.01507  -0.0001291  -0.044  -0.857  -0.364
6.354e+09  0.1059  -0.8004  0.01697  -0.054  0.02312  0.0008643  -0.9321  -0.06649
6.355e+09  -0.1734  -0.8342  -0.01875  -0.02105  -0.003434  -0.03449  -0.9107  0.2446
6.356e+09  -0.4414  -0.6881  0.01171  -0.004733  -0.04139  0.03139  -0.7905  0.5569
6.358e+09  -0.6295  -0.4873  -0.001651  0.002379  0.0487  0.02207  -0.5223  0.7932
6.359e+09  -0.8298  -0.2327  -0.02476  -0.01272  0.05042  0.03115  -0.2032  0.8923
6.36e+09  -0.8192  0.06267  0.02739  0.01099  0.007472  -0.02025  0.0921  0.9343
6.361e+09  -0.7933  0.3851  0.01079  -0.005135  -0.01069  -0.01992  0.4395  0.8826
6.362e+09  -0.6346  0.5503  0.00966  -0.01283  0.02505  -0.003285  0.6474  0.6398
6.364e+09  -0.3692  0.7775  0.01109  -0.007729  -0.03329  0.006398  0.8591  0.3835
6.365e+09  -0.04948  0.7979  -0.0235  0.004267  0.01525  -0.02129  0.9507  0.07967
6.366e+09  0.2478  0.8593  -0.03116  -0.03517  0.008559  0.002058  0.9117  -0.25
6.368e+09  0.4885  0.708  0.02747  -0.002463  0.004235  0.02437  0.8129  -0.5437
6.369e+09  0.66  0.4739  -0.01095  -0.02668  -0.01338  -0.006128  0.5371  -0.7432
6.37e+09  0.8534  0.1697  0.003731  0.004739  0.03748  -0.04621  0.2542  -0.9085
6.371e+09  0.8732  -0.1384  -0.002532  0.02705  0.0495  0.0003918  -0.07753  -0.9468
6.372e+09  0.7411  -0.4354  0.01647  -0.01096  0.02302  -0.05188  -0.4281  -0.8751
6.374e+09  0.5501  -0.6551  0.02482  0.01714  -0.006417  -0.005399  -0.6979  -0.6766
6.375e+09  0.2645  -0.7859  0.009951  0.004186  0.01787  0.003469  -0.8352  -0.441
6.376e+09  0.02259  -0.8478  0.001425  -0.0264  0.005035  0.0234  -0.9123  -0.1105
6.378e+09  -0.3354  -0.7612  -0.03363  0.007036  0.01229  -0.007968  -0.952  0.2274
6.379e+09  -0.5549  -0.6385  -0.01998  -0.01985  0.02479  -0.008313  -0.7768  0.5308
6.38e+09  -0.7513  -0.4108  0.005206  0.006967  0.01962  -0.04284  -0.5305  0.7862
6.381e+09  -0.8571  -0.09823  -0.0001259  0.01198  0.0105  0.009453  -0.258  0.9045
6.382e+09  -0.839  0.1616  -0.0275  -0.0009563  -0.01333  0.04184  0.022  0.9011
6.384e+09  -0.7409  0.4584  0.03526  -0.008559  -0.008297  -0.03138  0.3664  0.831
6.385e+09  -0.5015  0.6712  -0.004538  0.0136  0.003506  -0.04988  0.6796  0.7105
6.386e+09  -0.2628  0.7736  -0.03191  -0.0003445  0.007627  0.0007148  0.8354  0.43
6.388e+09  0.08254  0.834  0.003849  -0.008949  0.04753  -0.003094  0.9446  0.1574
6.389e+09  0.3477  0.7776  0.02241  -0.0612  0.02799  -0.02667  0.9191  -0.2415
6.39e+09  0.6076  0.6262  0.03057  -0.02617  -0.03145  -0.0003318  0.7643  -0.4844
6.391e+09  0.779  0.3751  -0.02375  -0.02727  -0.005294  0.05568  0.5811  -0.7192
6.392e+09  0.8768  0.08411  -0.03455  -0.002054  -0.01096  -0.02277  0.2687  -0.8593
6.394e+09  0.8079  -0.2666  0.03895  -0.025  0.03545  -0.04027  -0.01802  -0.9755
6.395e+09  0.6655  -0.5371  0.005705  0.03019  0.04939  -0.003437  -0.3232  -0.8675
6.396e+09  0.496  -0.7137  0.00471  -0.004434  0.01575  0.0226  -0.6405  -0.6651
6.398e+09  0.1957  -0.8292  -0.009228  -0.02372  0.01522  0.03132  -0.8572  -0.4181
6.399e+09  -0.09199  -0.8278  0.001918  0.01667  0.003123  -0.01977  -0.9063  -0.1383
6.4e+09  -0.345  -0.7202  -0.005746  0.006624  -0.005232  -0.02186  -0.8594  0.1086
6.401e+09  -0.6218  -0.5419  0.006574  -0.02714  -0.001067  0.04235  -0.7961  0.4875
6.402e+09  -0.7936  -0.3325  -0.05642  0.006176  -0.001949  -0.04637  -0.5947  0.6772
6.404e+09  -0.8494  -0.01943  -0.002318  0.02072  0.04651  -0.05659  -0.315  0.8787
6.405e+09  -0.8039  0.275  0.05414  0.01175  -0.015  0.03196  0.0494  0.9245
6.406e+09  -0.7035  0.5227  0.00281  -0.03068  0.01798  0.005382  0.3024  0.8707
6.408e+09  -0.4329  0.7186  -0.01151  -0.02272  0.02785  0.02618  0.567  0.6887
6.409e+09  -0.1676  0.8319  0.04208  -0.05075  0.01372  0.01477  0.7778  0.446
6.41e+09  0.1626  0.8267  -0.03019  -0.02019  0.04514  -0.02393  0.9138  0.1648
6.411e+09  0.3931  0.726  0.004475  0.03022  -0.03125  0.01653  0.8887  -0.07749
6.412e+09  0.6509  0.4903  -0.0005741  0.02435  -0.01534  -0.006145  0.7885  -0.4547
6.414e+09  0.7965  0.2792  0.001717  0.002182  0.01974  -0.0007373  0.6298  -0.6806
6.415e+09  0.8482  -0.01344  -0.0164  0.008137  -0.01166  -0.01371  0.3586  -0.8558
6.416e+09  0.7873  -0.3146  -3.22e-05  -0.02404  -0.02104  -0.009426  0.0558  -0.866
6.418e+09  0.6766  -0.5562  -0.01959  0.01882  -0.01144  -0.04376  -0.2814  -0.8243
6.419e+09  0.3527  -0.7836  0.01739  -0.001932  0.04295  0.02078  -0.5386  -0.7005
6.42e+09  0.08466  -0.8945  -0.0179  -0.008824  -0.03098  -0.01109  -0.7585  -0.4747
6.421e+09  -0.237  -0.8524  0.04125  -0.01878  0.004627  -0.03794  -0.8771  -0.2247
6.422e+09  -0.4942  -0.6474  0.03321  0.01748  0.01766  -0.01662  -0.8636  0.1405
6.424e+09  -0.6952  -0.4881  -0.002385  -0.01402  -0.005912  0.01582  -0.8004  0.3759
6.425e+09  -0.8595  -0.2482  0.00256  -0.002097  0.009646  -0.01478  -0.6262  0.6252
6.426e+09  -0.844  0.103  0.006008  0.02328  0.04956  0.03987  -0.2879  0.8025
6.428e+09  -0.7814  0.354  -0.02207  -0.03735  0.05252  0.002596  -0.02582  0.8475
6.429e+09  -0.615  0.5924  0.007314  -0.02956  -0.0007551  -0.004241  0.2844  0.8
6.43e+09  -0.3453  0.8019  -0.0372  0.003549  -0.01416  -0.02358  0.527  0.7023
6.431e+09  -0.09895  0.8251  -0.003912  -0.003236  0.006878  0.02569  0.7367  0.498
6.432e+09  0.223  0.7849  -0.006178  -0.03378  -0.03356  -0.02111  0.8428  0.2062
6.434e+09  0.4632  0.6962  0.00329  0.007008  -0.02647  -0.04697  0.8448  -0.07594
6.435e+09  0.7064  0.4174  0.004461  0.01479  -0.02013  0.01958  0.75  -0.3784
6.436e+09  0.8391  0.2359  0.01978  -0.01241  0.00253  -0.03694  0.6095  -0.5816
6.438e+09  0.7972  -0.04956  0.0005032  0.0289  0.0005645  -0.04027  0.3397  -0.7723
6.439e+09  0.718  -0.3643  0.02431  -0.009215  -0.001252  -0.02979  0.07717  -0.8703
6.44e+09  0.5881  -0.5879  0.01396  0.02531  -0.007226  0.009606  -0.1809  -0.8806
6.441e+09  0.3627  -0.7731  -0.001595  0.01036  -0.04093  0.05127  -0.5112  -0.7327
6.442e+09  0.06554  -0.8229  0.004023  0.02987  0.06169  0.004993  -0.7023  -0.4992
6.444e+09  -0.2327  -0.8494  -0.02185  -0.03632  -0.001594  -0.009995  -0.7973  -0.2393
6.445e+09  -0.4903  -0.7065  -0.03816  -0.02946  -0.01354  -0.01913  -0.8196  0.1024
6.446e+09  -0.6688  -0.4345  -0.01428  0.01032  0.004869  -0.004035  -0.7409  0.3444
6.448e+09  -0.7693  -0.2052  0.001026  0.0149  0.02068  0.02372  -0.6203  0.5744
6.449e+09  -0.8261  0.1157  0.01464  0.02377  -0.01498  0.02291  -0.3612  0.6875
6.45e+09  -0.7162  0.3898  0.01569  0.01229  -0.02586  -0.03778  -0.1041  0.8016
6.451e+09  -0.5699  0.6259  -0.004374  -0.02968  -0.01034  0.003104  0.2599  0.823
6.452e+09  -0.3243  0.7876  0.05418  -0.002941  0.006393  -0.001257  0.4842  0.6707
6.454e+09  0.004197  0.8395  0.01169  -0.00276  0.009587  -0.06302  0.6804  0.4647
6.455e+09  0.2688  0.8194  0.02446  -0.02259  0.02944  -0.0158  0.7977  0.2351
6.456e+09  0.4955  0.6871  -0.01734  -0.03939  0.03388  0.04372  0.8273  -0.05727
6.458e+09  0.7454  0.4353  -0.01791  0.0009543  0.03163  -0.01405  0.7289  -0.3657
6.459e+09  0.8027  0.165  0.05469  -0.01526  0.03447  0.02828  0.5444  -0.5812
6.46e+09  0.868  -0.12  -0.008872  -0.0173  -0.05527  0.02701  0.3589  -0.7388
6.461e+09  0.7055  -0.3813  -0.04449  0.006764  0.02665  0.02821  0.07568  -0.7955
6.462e+09  0.5482  -0.6437  -0.005214  0.01475  -0.02965  0.04225  -0.2259  -0.8198
6.464e+09  0.3139  -0.7656  -0.02614  -0.04591  -0.0001481  0.00305  -0.4439  -0.6236
6.465e+09  0.06212  -0.8651  0.02912  0.01703  0.03027  0.01662  -0.6655  -0.4668
6.466e+09  -0.2759  -0.7616  -0.03729  -0.01246  0.04285  -0.01039  -0.7561  -0.1917
6.468e+09  -0.5085  -0.6196  0.02301  -0.03228  0.03772  0.004707  -0.7672  0.09869
6.469e+09  -0.7262  -0.4111  -0.03744  0.01373  0.002126  -0.008133  -0.7331  0.3308
6.47e+09  -0.8518  -0.1485  0.01264  -0.002557  -0.001488  -0.03449  -0.609  0.5644
6.471e+09  -0.8276  0.1521  -0.0009957  -0.0318  -0.03191  0.03861  -0.3142  0.7169
6.472e+09  -0.776  0.3945  0.009065  -0.006614  0.02684  0.07992  -0.05323  0.7433
6.474e+09  -0.5238  0.6929  0.01667  0.01916  0.01575  0.03191  0.1932  0.7559
6.475e+09  -0.3021  0.77  -0.00417  -0.02353  -0.02333  0.003045  0.49  0.6353
6.476e+09  -0.009597  0.8334  0.03209  0.01691  0.02672  -0.01644  0.6332  0.4345
6.478e+09  0.2923  0.7728  -0.02451  0.02134  0.02917  -0.008317  0.7293  0.1975
6.479e+09  0.5486  0.617  0.004825  0.01219  -0.00194  -0.01365  0.7968  -0.09734
6.48e+09  0.724  0.4701  0.03179  -0.01246  -0.0419  0.05391  0.7085  -0.341
6.481e+09  0.8388  0.1633  0.006346  -0.01332  0.000814  0.07007  0.516  -0.5419
6.482e+09  0.8345  -0.1027  0.001814  -0.02282  0.003196  -0.01007  0.3027  -0.6965
6.484e+09  0.7314  -0.4143  0.03943  0.02138  0.009371  -0.003353  0.004111  -0.7899
6.485e+09  0.5655  -0.6563  -0.002963  0.0107  -0.01683  -0.009755  -0.1969  -0.7642
6.486e+09  0.2762  -0.8509  0.008779  -0.01038  0.0272  -0.1166  -0.5016  -0.6357
6.488e+09  -0.6927  -1.199  0.02555  -0.004726  -0.4661  0.5823  -0.6131  -0.4531
6.489e+09  -0.3125  -0.7947  0.03504  0.0386  -0.01786  -0.01174  -0.7463  -0.1772
6.49e+09  -0.5714  -0.6472  -0.0104  0.01293  -0.006957  -0.03522  -0.7886  0.07367
6.491e+09  -0.7526  -0.3942  -0.01129  0.01306  -0.01066  -0.009123  -0.6933  0.3426
6.492e+09  -0.8612  -0.1629  -0.05953  0.01239  0.01008  -0.0541  -0.5504  0.5442
6.494e+09  -0.9317  0.1748  -0.03465  -0.0168  0.07619  -0.08815  -0.3142  0.6835
6.495e+09  -0.7711  0.4693  -0.007244  0.008391  0.002449  0.01412  -0.02463  0.7558
6.496e+09  -0.5367  0.6728  -0.02136  0.003352  -0.02445  -0.01412  0.2464  0.7437
6.498e+09  -0.2757  0.8235  -0.01888  -0.003618  0.009625  0.04035  0.44  0.6041
6.499e+09  -0.002189  0.8307  -0.001677  0.02789  0.03053  0.02485  0.6622  0.443
6.5e+09  0.3124  0.7504  -0.01027  0.05455  0.05755  0.02377  0.7411  0.1959
6.501e+09  0.5917  0.6461  -0.01799  -0.0125  -0.008319  0.03277  0.7514  -0.09612
6.502e+09  0.7482  0.4306  -0.02264  0.00562  -0.006225  0.01422  0.6686  -0.3348
6.504e+09  0.8598  0.1506  0.004846  -0.02076  -0.003479  -0.01668  0.5526  -0.5978
6.505e+09  0.8669  -0.2247  -0.01009  0.0002081  -0.001121  -0.04295  0.3286  -0.7242
6.506e+09  0.7607  -0.4239  0.00171  0.02444  0.06906  -0.001323  0.04744  -0.745
6.508e+09  0.5738  -0.661  -0.04824  -0.009097  0.01464  -0.02703  -0.2343  -0.7267
6.509e+09  0.2607  -0.8005  0.03863  -0.004346  -0.01615  -0.005593  -0.4555  -0.5665
6.51e+09  -0.05837  -0.897  -0.01146  0.0194  0.00997  0.04903  -0.6258  -0.3906
6.511e+09  -0.2874  -0.8197  0.001445  -0.007365  -0.01699  -0.01583  -0.7314  -0.1314
6.512e+09  -0.571  -0.638  -0.01681  0.01199  0.02085  -0.00655  -0.7491  0.1458
6.514e+09  -0.7639  -0.48  -0.02568  -0.007699  -0.03283  -0.02844  -0.6524  0.3712
6.515e+09  -0.8706  -0.06498  -0.01587  -0.01123  -0.005858  -0.01425  -0.4695  0.6096
6.516e+09  -0.8895  0.1388  -0.004598  0.01385  0.01105  0.006116  -0.2639  0.7185
6.518e+09  -0.7751  0.4197  -0.003307  -0.01336  0.00516  -0.003412  -0.005902  0.7221
6.519e+09  -0.4512  0.7215  0.02912  0.02662  -0.009909  0.008929  0.2811  0.6792
6.52e+09  -0.2221  0.8175  0.001967  -0.0009697  0.00123  0.01298  0.4859  0.5604
6.521e+09  0.0861  0.9161  0.03698  -0.05494  -0.002739  0.01305  0.6848  0.3504
6.522e+09  0.3904  0.7999  -0.01533  0.05178  0.01728  0.01649  0.7273  0.1089
6.524e+09  0.6634  0.6443  0.01534  0.002502  0.02672  -0.01469  0.7172  -0.1883
6.525e+09  0.8539  0.3555  -0.001163  -0.005837  -0.01945  -0.02277  0.621  -0.346
6.526e+09  0.9124  0.08024  -0.03007  -0.0007248  0.03024  0.04421  0.4328  -0.5649
6.528e+09  0.877  -0.2211  -0.002358  -0.003782  0.01801  0.06626  0.2036  -0.6417
6.529e+09  0.6906  -0.5153  0.009668  -0.01422  0.02886  -0.002576  -0.04308  -0.6922
6.53e+09  0.4876  -0.7832  0.005056  0.01212  -0.004155  -0.06107  -0.2797  -0.6294
6.531e+09  0.2371  -0.8874  -0.02803  -0.001773  -0.02503  0.02858  -0.4693  -0.4643
6.532e+09  -0.08424  -0.8644  -0.005913  0.006042  0.01647  -0.01036  -0.5834  -0.3004
6.534e+09  -0.3794  -0.7815  -0.01004  0.0186  0.03969  -0.01903  -0.6285  -0.1058
6.535e+09  -0.6581  -0.5903  -0.009695  0.02587  -0.01679  0.04578  -0.6028  0.08332
6.536e+09  -0.8424  -0.3099  0.02147  -0.01628  0.03148  0.006068  -0.6037  0.2858
6.538e+09  -0.9197  -0.03675  -0.00352  -0.005817  -0.005575  -0.002979  -0.4384  0.5012
6.539e+09  -0.862  0.3212  0.02738  -0.005727  -0.008635  0.002821  -0.2547  0.6032
6.54e+09  -0.7544  0.5577  0.02507  0.01961  0.006474  0.02609  -0.02911  0.7209
6.541e+09  -0.4458  0.7881  0.0162  0.03318  -0.04238  -0.01371  0.1937  0.6833
6.542e+09  -0.164  0.9331  -0.001793  0.01886  0.0405  -0.03367  0.4206  0.6067
6.544e+09  0.1504  0.9367  -0.003957  -0.0123  0.02626  -0.06434  0.6239  0.4065
6.545e+09  0.4929  0.8242  0.01432  0.02559  0.01926  0.01282  0.6828  0.1718
6.546e+09  0.7515  0.6377  -0.01305  -0.01933  0.02787  -0.04336  0.7214  -0.1038
6.548e+09  0.8753  0.3143  0.02235  -0.02522  0.006774  0.03288  0.6623  -0.3025
6.549e+09  0.9127  -0.01657  0.008944  0.001017  -0.009669  -0.006008  0.479  -0.5283
6.55e+09  0.8744  -0.3713  -0.004285  0.0002616  -0.04063  0.02015  0.2662  -0.6975
