# Hz S RI R 50
6.25e+09  0.8675  0.4547  -0.009196  -0.01367  0.01003  -0.0557  0.1398  0.4789
6.251e+09  0.9628  0.1874  -0.01799  -0.01933  -0.007233  0.006223  0.371  0.3984
6.252e+09  0.9725  -0.1785  0.00709  0.01318  -0.0003112  0.004148  0.5199  0.2704
6.254e+09  0.8327  -0.5132  0.02189  0.01827  0.0119  -0.01961  0.5793  -0.001162
6.255e+09  0.6078  -0.7936  -0.01398  -0.002071  -0.0002165  0.0285  0.575  -0.2319
6.256e+09  0.2783  -0.991  -0.006139  -0.03036  0.04518  0.01503  0.4752  -0.4178
6.258e+09  -0.01663  -0.9719  -0.002567  -0.001677  0.0338  -0.01047  0.2602  -0.5821
6.259e+09  -0.4219  -0.9059  -0.01559  0.02721  -0.03732  -0.01862  0.07812  -0.6568
6.26e+09  -0.6677  -0.7034  -0.01535  -0.03962  0.02318  0.05031  -0.1902  -0.6629
6.261e+09  -0.85  -0.4471  -0.006052  -0.01295  0.02587  -0.02135  -0.4127  -0.5815
6.262e+09  -0.9569  -0.05958  -0.006547  0.0008121  -0.008477  -0.03084  -0.6083  -0.3253
6.264e+09  -0.8954  0.2632  0.003882  -0.004743  0.02221  0.00913  -0.7261  -0.1178
6.265e+09  -0.7126  0.5714  -0.02355  -0.02423  -0.01627  -0.01669  -0.69  0.1509
6.266e+09  -0.5609  0.8053  -0.00864  -0.01954  -0.01502  0.01425  -0.5826  0.3991
6.268e+09  -0.2031  1.013  -0.03495  0.004687  0.00861  0.04871  -0.4192  0.5774
6.269e+09  0.1492  1.003  0.003028  0.002598  0.02392  0.005319  -0.1878  0.7368
6.27e+09  0.5089  0.8506  -0.003319  0.01893  -0.01402  0.02846  0.04062  0.695
6.271e+09  0.7383  0.6615  -0.01113  -0.001758  0.04269  -0.06364  0.2884  0.6774
6.272e+09  0.9669  0.324  0.02739  -0.02113  0.01825  0.05617  0.5407  0.5334
6.274e+09  0.9991  0.01708  -0.0193  -0.0005093  -0.04092  0.03145  0.696  0.2974
6.275e+09  0.8764  -0.3421  -0.03134  -0.001507  0.01735  -0.02304  0.772  0.03774
6.276e+09  0.7392  -0.6276  -0.005884  -0.004245  -0.01459  -0.03653  0.7201  -0.2438
6.278e+09  0.4373  -0.9041  0.002186  0.003157  -0.006114  -0.0507  0.6017  -0.4585
6.279e+09  0.1033  -0.9462  0.02659  -0.03755  -0.01572  -0.01231  0.4339  -0.6598
6.28e+09  -0.2319  -0.9423  -0.009576  -0.01274  -0.06499  0.0265  0.1449  -0.7377
6.281e+09  -0.5726  -0.8117  -0.009358  0.005299  -0.01742  0.01407  -0.08369  -0.7463
6.282e+09  -0.8463  -0.4938  -0.002564  0.004284  -0.02449  0.05297  -0.3713  -0.696
6.284e+09  -0.9298  -0.1916  0.02594  0.002344  0.01329  -0.02472  -0.5951  -0.5092
6.285e+09  -0.9769  0.1248  0.002253  0.002129  0.01594  0.003111  -0.7294  -0.2978
6.286e+09  -0.8653  0.4769  -0.003823  0.01088  0.02221  0.005924  -0.7968  -0.002207
6.288e+09  -0.6229  0.7162  0.007377  -0.005771  -0.005311  0.01805  -0.7495  0.2464
6.289e+09  -0.332  0.9261  0.04671  0.006381  -0.02216  0.004481  -0.6061  0.4781
6.29e+09  0.004131  1.001  0.004159  -0.003866  -0.0003005  0.009894  -0.4206  0.6625
6.291e+09  0.3736  0.9192  0.03386  -0.01344  -0.02133  -0.001119  -0.1568  0.7842
6.292e+09  0.6585  0.7517  0.003005  0.01702  0.02974  0.0086  0.1362  0.7943
6.294e+09  0.8775  0.4489  -0.01266  -0.02797  0.01371  0.01407  0.4048  0.7061
6.295e+09  0.9465  0.09676  -0.009734  -0.001666  0.02802  -0.001371  0.6042  0.539
6.296e+09  1.01  -0.1676  0.009049  -0.007016  -0.002304  0.01915  0.7931  0.2839
6.298e+09  0.8328  -0.5717  0.005194  0.009606  -0.06613  -0.01045  0.8406  0.01039
6.299e+09  0.5981  -0.8106  0.01118  0.02254  -0.0313  -0.02465  0.7609  -0.2956
6.3e+09  0.2584  -0.9721  -0.002081  0.02196  0.008507  0.005964  0.6393  -0.5156
6.301e+09  -0.07821  -0.9864  -0.01857  -0.01399  -0.03281  -0.02513  0.415  -0.7435
6.302e+09  -0.4762  -0.8799  -0.02956  -0.02596  -0.01737  0.007613  0.1503  -0.815
6.304e+09  -0.7433  -0.6933  0.00705  0.002374  -0.001976  0.003295  -0.1362  -0.8067
6.305e+09  -0.8947  -0.3812  -0.02851  -0.0241  0.0182  0.009891  -0.4099  -0.7398
6.306e+09  -1.046  -0.04964  -0.01236  0.01706  0.007457  -0.008887  -0.6235  -0.5462
6.308e+09  -0.9402  0.3001  -0.02051  -0.02188  -0.02059  -0.004445  -0.8055  -0.309
6.309e+09  -0.7872  0.6482  -0.0187  0.005857  -0.01322  -0.01362  -0.8549  -0.01402
6.31e+09  -0.5179  0.841  0.01478  -0.004613  -0.004306  -0.03  -0.8104  0.2524
6.311e+09  -0.2186  0.9789  -0.004524  -0.003819  -0.03311  0.003345  -0.6882  0.5263
6.312e+09  0.1405  1.016  -0.009482  -0.02015  -0.008196  -0.008217  -0.4561  0.7359
6.314e+09  0.5182  0.8697  0.01782  0.007633  0.02094  -0.04002  -0.1547  0.8796
6.315e+09  0.7779  0.6122  -0.007882  0.003958  0.01426  0.03983  0.1156  0.8594
6.316e+09  0.959  0.3262  0.03246  -0.02099  -0.02063  0.001698  0.4236  0.7217
6.318e+09  1.031  -0.0582  0.04488  0.04331  0.02612  -0.06471  0.6543  0.5581
6.319e+09  0.9379  -0.3693  -0.0034  0.002643  0.06787  0.03476  0.8253  0.316
6.32e+09  0.7773  -0.7181  -0.0009937  0.01051  0.05569  0.02627  0.9061  -0.004795
6.321e+09  0.4951  -0.9142  -0.01316  -0.01657  0.008803  -0.02988  0.8063  -0.2599
6.322e+09  0.1546  -1.037  0.007488  0.0247  0.001865  0.01208  0.6923  -0.559
6.324e+09  -0.2126  -1.045  -0.03002  -0.01718  0.005564  0.04855  0.4378  -0.7552
6.325e+09  -0.5956  -0.9354  0.01872  0.008613  0.01149  0.03263  0.1786  -0.8671
6.326e+09  -0.8864  -0.6463  0.003259  -0.01643  0.04688  -0.03854  -0.1177  -0.8682
6.328e+09  -1.026  -0.2474  -0.002719  0.009991  0.0393  0.009234  -0.445  -0.781
6.329e+09  -1.023  0.1395  -0.04724  0.003243  -0.00969  0.02823  -0.6644  -0.6361
6.33e+09  -0.9601  0.4582  -0.005719  0.01616  0.05582  0.002228  -0.8187  -0.3522
6.331e+09  -0.6953  0.8229  -0.005938  0.04014  -0.005408  0.01054  -0.8897  -0.02622
6.332e+09  -0.3711  0.9883  0.0001547  0.01181  -0.01927  -0.04186  -0.8562  0.2643
6.334e+09  -0.0431  1.042  0.006202  0.01238  0.01882  0.0006329  -0.7244  0.5703
6.335e+09  0.3585  1.02  -0.006858  0.02088  0.02638  0.01992  -0.4992  0.8104
6.336e+09  0.7099  0.833  0.0075  -0.01223  0.008517  0.02577  -0.1771  0.9359
6.338e+09  0.9399  0.517  0.01216  -0.02297  0.001354  0.002012  0.1318  0.8906
6.339e+09  1.036  0.1884  -0.008821  0.005279  0.05855  0.004119  0.4302  0.811
6.34e+09  1.033  -0.1889  0.01115  -0.00495  -0.02528  -0.03894  0.6568  0.6355
6.341e+09  0.9396  -0.588  -0.01157  0.008323  0.006936  0.02026  0.8368  0.3481
6.342e+09  0.6898  -0.8392  0.008881  -0.02016  0.02564  -0.01344  0.9225  0.02715
6.344e+09  0.322  -1.042  -0.0007375  0.009131  -0.008749  0.0151  0.8594  -0.2688
6.345e+09  -0.013  -1.11  0.007631  -0.03265  -0.01699  -0.02261  0.7495  -0.5674
6.346e+09  -0.464  -1.012  0.009777  0.04414  0.007989  0.003708  0.5023  -0.7647
6.348e+09  -0.7544  -0.8189  -0.01168  0.01144  -0.01003  0.01209  0.2314  -0.9289
6.349e+09  -1.034  -0.4926  -0.04394  0.006316  0.02132  0.01496  -0.1475  -0.9545
6.35e+09  -1.129  -0.09854  -0.0005896  -0.02875  -0.01423  -0.03198  -0.41  -0.8269
6.351e+09  -1.151  0.2894  0.01655  -0.007406  -0.01328  0.0152  -0.6669  -0.6485
6.352e+09  -0.9236  0.6476  -0.007199  -0.0155  -0.01954  0.04584  -0.8227  -0.3844
6.354e+09  -0.6422  0.9474  0.008922  -0.005043  0.02208  0.01192  -0.915  -0.07586
6.355e+09  -0.2681  1.119  0.002485  0.01445  0.09422  0.03667  -0.9341  0.2696
6.356e+09  0.101  1.131  -0.001362  0.006775  0.0218  -0.008368  -0.7352  0.5986
6.358e+09  0.5293  1.008  0.02327  0.01373  -0.02685  0.05996  -0.5261  0.7581
6.359e+09  0.8695  0.7987  -0.03352  -0.0147  -0.01868  -0.01675  -0.2356  0.9015
6.36e+09  1.112  0.4483  0.03685  0.02747  0.04962  0.00299  0.09796  0.9124
6.361e+09  1.148  0.03412  0.008732  -0.01145  0.002231  0.0384  0.4168  0.8298
6.362e+09  1.16  -0.4078  0.005667  -0.008112  0.01362  -0.0001987  0.6893  0.6231
6.364e+09  0.9313  -0.7526  0.02775  0.01105  -0.007813  0.005534  0.8513  0.3726
6.365e+09  0.621  -1.047  0.01506  -0.0172  -0.02292  0.00133  0.9645  0.0833
6.366e+09  0.1864  -1.155  -0.009133  0.03219  0.006386  0.02103  0.9101  -0.2333
6.368e+09  -0.2432  -1.237  0.0101  -0.004235  -0.04242  0.02805  0.7687  -0.5365
6.369e+09  -0.6291  -1.051  -0.005231  -0.01512  -0.005683  -0.03945  0.527  -0.7905
6.37e+09  -0.9556  -0.8169  0.03481  0.01874  -0.03803  -0.03146  0.2622  -0.928
6.371e+09  -1.14  -0.3669  0.01392  -0.031  -0.04725  0.01204  -0.05765  -0.9727
6.372e+09  -1.269  0.06471  0.03817  0.0003446  0.05721  0.008619  -0.4483  -0.8674
6.374e+09  -1.169  0.5135  -0.0129  0.02143  0.007699  0.0219  -0.6525  -0.7024
6.375e+09  -0.9126  0.8596  -0.004005  0.002788  -0.0206  -0.02384  -0.8699  -0.3959
6.376e+09  -0.533  1.139  0.008574  -0.009506  0.03138  -0.006635  -0.9454  -0.1237
6.378e+09  -0.1347  1.366  -0.04315  -0.02798  -0.01934  0.002813  -0.9129  0.2339
6.379e+09  0.3189  1.305  0.01125  -0.0251  0.0512  0.01004  -0.8064  0.4852
6.38e+09  0.796  1.031  0.003603  0.00518  0.02641  -0.005922  -0.5694  0.7144
6.381e+09  1.159  0.7503  0.006348  0.02525  0.00375  0.02218  -0.2246  0.904
6.382e+09  1.365  0.3221  0.001648  0.03969  -0.008465  0.04595  0.05632  0.9499
6.384e+09  1.304  -0.1981  -0.009098  0.005425  -0.02027  -0.003487  0.3489  0.8495
6.385e+09  1.204  -0.6368  -0.00309  0.03158  0.02909  -0.003946  0.6257  0.6742
6.386e+09  0.936  -1.032  -0.01553  0.02581  -0.03247  -0.00481  0.849  0.3867
6.388e+09  0.56  -1.365  -0.03713  -0.008379  -0.04355  0.0001418  0.9702  0.1306
6.389e+09  -0.02064  -1.428  0.03171  0.003658  -0.07979  0.03735  0.9212  -0.2017
6.39e+09  -0.5398  -1.364  0.01155  -0.01007  0.02123  -0.03398  0.7632  -0.494
6.391e+09  -0.9871  -1.072  -0.005986  -0.001814  -0.002281  -0.03409  0.5683  -0.7267
6.392e+09  -1.357  -0.7175  0.03325  0.01919  0.04358  -0.004636  0.292  -0.8666
6.394e+09  -1.486  -0.2149  0.02339  0.006835  0.01372  -0.02247  -0.03694  -0.9434
6.395e+09  -1.422  0.3144  0.01082  -0.03564  0.02709  -0.01762  -0.3546  -0.8556
6.396e+09  -1.273  0.8237  -0.03956  -0.01134  -0.00202  0.008687  -0.6104  -0.7081
6.398e+09  -0.972  1.258  -0.03092  0.0114  -0.01533  0.005794  -0.8051  -0.4708
6.399e+09  -0.4878  1.501  -0.0188  -0.002664  -0.0384  -0.01789  -0.9049  -0.1555
6.4e+09  0.117  1.617  -0.01042  -0.01579  -0.01863  -0.03634  -0.8997  0.1532
6.401e+09  0.7157  1.451  0.01174  0.02602  0.02235  0.02316  -0.8093  0.496
6.402e+09  1.239  1.079  -0.007351  -0.02695  -0.02533  0.04552  -0.5946  0.7434
6.404e+09  1.566  0.5558  0.005792  0.01871  0.05931  0.001559  -0.3477  0.8642
6.405e+09  1.694  -0.02464  0.03263  -0.003098  0.006204  0.01714  0.004811  0.8797
6.406e+09  1.661  -0.6004  0.005056  -0.01206  0.003508  0.04243  0.2692  0.8747
6.408e+09  1.342  -1.129  -0.02669  0.008682  -0.009495  0.05224  0.5827  0.7055
6.409e+09  0.8241  -1.594  -0.01056  0.03086  0.008651  -0.007192  0.7869  0.5032
6.41e+09  0.199  -1.84  -0.02349  -0.008439  0.01054  0.04024  0.8874  0.2201
6.411e+09  -0.5372  -1.803  0.01504  -0.006613  -0.0251  -0.003759  0.9307  -0.138
6.412e+09  -1.092  -1.514  0.02835  0.005092  -0.01264  0.07798  0.7725  -0.4437
6.414e+09  -1.628  -1.014  0.01611  -0.02733  -0.01252  0.02581  0.6003  -0.6868
6.415e+09  -1.952  -0.4072  -0.01595  -0.02312  -0.004526  -0.0243  0.3323  -0.8586
6.416e+09  -1.923  0.331  -0.01292  -0.005538  0.0008361  0.02804  0.02117  -0.8994
6.418e+09  -1.657  1.126  0.005247  -0.003565  0.02899  0.01219  -0.2729  -0.8564
6.419e+09  -1.23  1.661  -0.004373  0.04789  -0.04464  0.006713  -0.5662  -0.7286
6.42e+09  -0.5483  2.067  -0.004693  -0.0138  -0.009054  0.006264  -0.6956  -0.4746
6.421e+09  0.286  2.107  -0.006616  -0.03143  0.02219  -0.009077  -0.8301  -0.2081
6.422e+09  1.065  1.908  0.01065  -0.03186  -0.01328  -0.01007  -0.917  0.1101
6.424e+09  1.634  1.374  0.02076  0.003979  -0.0239  -6.571e-05  -0.7783  0.4399
6.425e+09  2.108  0.6422  -0.001211  0.0225  -0.04207  0.0002719  -0.5916  0.629
6.426e+09  2.287  -0.1283  -0.04918  -0.0133  -0.0464  -0.06286  -0.3173  0.8418
6.428e+09  2.004  -0.9377  0.0294  0.03696  0.01126  0.005252  -0.06362  0.911
6.429e+09  1.493  -1.724  -0.01615  0.02411  0.06644  -0.001817  0.2517  0.8377
6.43e+09  0.8069  -2.169  0.009175  0.0472  -0.03628  -0.002346  0.5554  0.7178
6.431e+09  -0.04555  -2.298  0.01279  0.005398  0.07814  0.0191  0.7262  0.5034
6.432e+09  -0.9876  -2.209  0.008876  0.03616  -0.005132  0.008388  0.8729  0.2112
6.434e+09  -1.793  -1.619  -0.002359  0.008055  0.01144  0.0764  0.8452  -0.08535
6.435e+09  -2.347  -0.9314  -0.001743  -0.01414  0.01048  -0.007206  0.8217  -0.3667
6.436e+09  -2.503  0.02396  -0.01462  0.02059  -0.0571  -0.01271  0.6232  -0.6042
6.438e+09  -2.199  1.071  0.001769  0.03595  0.003841  0.009152  0.3395  -0.8041
6.439e+09  -1.707  1.796  0.05128  -0.0005747  0.004167  -0.02471  0.02613  -0.8394
6.44e+09  -0.9221  2.36  0.02128  0.02704  0.01147  -0.06435  -0.2292  -0.8232
6.441e+09  -0.009474  2.466  0.01724  -0.06059  -0.01079  0.0005049  -0.4651  -0.6886
6.442e+09  1.002  2.266  -0.03681  -0.02454  0.03405  0.01796  -0.7138  -0.4768
6.444e+09  1.772  1.755  -0.04161  0.005823  0.02245  0.02778  -0.7861  -0.2432
6.445e+09  2.262  0.918  -0.09133  -0.03722  -0.02602  0.02859  -0.8715  0.09908
6.446e+09  2.401  -0.02104  0.02016  -0.004736  0.03345  0.01507  -0.7968  0.3743
6.448e+09  2.27  -0.8672  -0.01215  -0.0251  0.009377  0.00986  -0.5276  0.6402
6.449e+09  1.722  -1.662  0.05627  -0.01682  -0.02297  -0.0342  -0.3695  0.7564
6.45e+09  1.05  -2.206  -0.01412  -0.00615  -0.01809  0.03108  -0.0476  0.8359
6.451e+09  0.101  -2.422  -0.01745  0.03044  -0.04814  -0.02156  0.2065  0.7939
6.452e+09  -0.8046  -2.255  -0.01441  0.04807  -0.02605  0.00842  0.4823  0.6697
6.454e+09  -1.598  -1.721  0.005218  -0.0432  -0.04099  0.008935  0.6767  0.4662
6.455e+09  -2.109  -1.082  -0.02434  -0.001806  0.01034  0.01392  0.7714  0.2159
6.456e+09  -2.252  -0.1632  0.007666  0.03497  -0.01648  -0.04627  0.8195  -0.0575
6.458e+09  -2.209  0.6576  0.007139  0.01245  0.003491  -0.009182  0.7299  -0.3794
6.459e+09  -1.75  1.414  0.001632  -0.007218  0.000121  -0.05768  0.6309  -0.5201
6.46e+09  -1.079  1.967  -0.009507  -0.0258  0.003219  0.02827  0.3718  -0.7209
6.461e+09  -0.3343  2.178  0.05175  -0.01194  -0.03384  0.006565  0.06858  -0.8247
6.462e+09  0.5101  2.121  0.03459  0.02249  -0.01391  0.01891  -0.1886  -0.7573
6.464e+09  1.271  1.82  -0.01195  -0.02637  0.05681  0.01868  -0.4707  -0.6039
6.465e+09  1.792  1.191  -0.02874  -0.005968  0.01953  0.02919  -0.6368  -0.4461
6.466e+09  2.099  0.4329  -0.01135  0.05099  -0.04105  0.07264  -0.7868  -0.2571
6.468e+09  2.078  -0.3288  -0.003073  0.01236  0.006386  -0.02628  -0.7933  0.08403
6.469e+09  1.787  -1.016  -0.003255  0.01932  0.003945  -0.00367  -0.6861  0.3597
6.47e+09  1.289  -1.617  0.07724  0.01379  -0.01044  0.007773  -0.535  0.5754
6.471e+09  0.6438  -1.904  -0.03209  -0.03475  -0.06987  0.03833  -0.2619  0.7228
6.472e+09  -0.1587  -1.981  -0.0298  0.01137  -0.01611  -0.002841  -0.08855  0.7965
6.474e+09  -0.8037  -1.794  0.0002116  -0.002845  -0.02017  -0.0519  0.1952  0.7752
6.475e+09  -1.389  -1.348  -0.02572  0.01449  0.02919  0.02909  0.4324  0.6162
6.476e+09  -1.79  -0.7292  0.02604  0.02601  0.01947  -0.06545  0.5925  0.4529
6.478e+09  -1.909  -0.1112  0.01198  0.03127  -0.003267  0.06417  0.7762  0.1723
6.479e+09  -1.819  0.641  0.00218  0.04021  -0.03528  -0.02958  0.7337  -0.08729
6.48e+09  -1.427  1.205  0.01597  0.02908  0.02511  -0.00576  0.6957  -0.334
6.481e+09  -0.9276  1.582  -0.01232  0.01067  -0.01219  -0.008565  0.5406  -0.5938
6.482e+09  -0.2604  1.868  0.03194  0.02093  -0.005476  -0.01687  0.3411  -0.7001
6.484e+09  0.4424  1.789  -0.03988  0.02164  0.03749  -0.02546  0.05901  -0.7587
6.485e+09  1.037  1.534  -0.004255  0.01873  0.04768  -0.01282  -0.2425  -0.737
6.486e+09  1.522  1.036  0.04189  -0.01518  -0.003656  0.03834  -0.4338  -0.6475
6.488e+09  1.793  1.15  -0.003734  0.01411  0.213  0.7404  -0.6212  -0.4015
6.489e+09  1.829  -0.2197  -0.002161  0.02577  -0.0276  -0.01812  -0.7204  -0.1706
6.49e+09  1.539  -0.7729  0.03918  0.02062  -0.03838  0.034  -0.7486  0.07264
6.491e+09  1.207  -1.251  0.01582  0.03787  -0.0211  0.02943  -0.6861  0.3008
6.492e+09  0.6843  -1.672  0.0123  -0.02461  -0.01191  -0.01132  -0.5276  0.5266
6.494e+09  0.1677  -1.701  0.04651  0.009853  0.02528  0.03472  -0.3294  0.7285
6.495e+09  -0.5832  -1.653  0.02454  -0.02079  0.05023  -0.01583  -0.03897  0.7421
6.496e+09  -1.089  -1.344  0.02184  -0.01698  -0.03109  0.01627  0.199  0.7527
6.498e+09  -1.564  -0.8931  0.006762  -0.05907  0.03029  -0.01083  0.4663  0.6205
6.499e+09  -1.707  -0.2787  0.04014  -0.002239  0.03618  -0.007508  0.6112  0.4235
6.5e+09  -0.3304  1.003  -0.03028  0.03013  -0.02627  0.03663  0.754  0.18
6.501e+09  -1.562  0.9062  0.01314  0.02333  -0.02848  0.01729  0.7858  -0.07449
6.502e+09  -1.053  1.367  -0.03292  -0.02198  -0.04593  0.02094  0.6805  -0.3632
6.504e+09  -0.5608  1.635  0.02871  -0.002577  0.005406  0.003502  0.485  -0.5539
6.505e+09  0.1291  1.727  0.001459  0.002262  0.02991  0.01922  0.3021  -0.7422
6.506e+09  0.6788  1.633  0.002471  0.02299  0.01259  -0.03577  0.02738  -0.7829
6.508e+09  1.227  1.284  -0.01727  -0.002555  -0.01325  0.03392  -0.1901  -0.6976
6.509e+09  1.59  0.7219  0.02908  -0.01521  0.00201  0.01102  -0.4762  -0.5876
6.51e+09  1.743  0.1173  0.01387  -0.01275  -0.01401  -0.00516  -0.6692  -0.3674
6.511e+09  1.758  -0.5125  -0.01313  -0.01092  0.008007  0.03224  -0.748  -0.133
6.512e+09  1.418  -1.037  -0.01049  0.00517  -0.006597  0.02011  -0.7465  0.1248
6.514e+09  1.001  -1.501  0.0002883  0.002209  0.02911  -0.08079  -0.686  0.3711
6.515e+09  0.3891  -1.804  0.003546  -0.05024  -0.0505  -0.02296  -0.4631  0.5499
6.516e+09  -0.2804  -1.82  0.03049  0.04234  0.03591  -0.01169  -0.2273  0.7252
6.518e+09  -0.9618  -1.59  0.01561  0.0008726  -0.07454  0.02399  0.00697  0.7441
6.519e+09  -1.421  -1.183  -0.02575  -0.008394  -0.03461  0.005741  0.2744  0.6961
6.52e+09  -1.732  -0.5804  0.007437  0.04069  0.001195  -0.04813  0.5236  0.5632
6.521e+09  -1.844  0.08283  -0.04791  -0.01644  0.04117  0.01965  0.6726  0.3552
6.522e+09  -1.748  0.738  0.006473  0.003672  -0.04663  -0.02163  0.7202  0.1012
6.524e+09  -1.456  1.267  0.0003476  0.01199  0.008158  0.01018  0.7029  -0.1364
6.525e+09  -0.8733  1.728  -0.01985  0.03069  0.02902  0.02196  0.5966  -0.35
6.526e+09  -0.1818  1.914  -0.04882  0.0129  0.0199  0.009041  0.4289  -0.5354
6.528e+09  0.5328  1.838  -0.02814  0.04054  0.02708  0.03192  0.1689  -0.6558
6.529e+09  1.19  1.57  -0.003868  0.04127  0.02413  -0.03024  -0.06302  -0.6936
6.53e+09  1.69  1.123  0.002481  0.0116  0.0393  0.03759  -0.2881  -0.6221
6.531e+09  1.969  0.3703  -0.01425  0.03199  -0.03575  0.009727  -0.4374  -0.4608
6.532e+09  2.047  -0.3193  0.02323  -0.021  0.03843  0.01701  -0.5964  -0.3061
6.534e+09  1.825  -1.047  0.01551  -0.007965  0.07122  -0.02592  -0.6301  -0.09247
6.535e+09  1.338  -1.628  0.01223  -0.01177  -0.06471  0.0002601  -0.5805  0.1156
6.536e+09  0.6774  -1.999  0.003591  -0.03111  0.002184  0.01008  -0.5587  0.2904
6.538e+09  -0.04272  -2.143  0.00389  -0.01164  0.004047  -0.03744  -0.4578  0.4697
6.539e+09  -0.9495  -1.964  -0.02037  0.007801  -0.03785  -0.002205  -0.2746  0.6151
6.54e+09  -1.545  -1.552  -0.01735  0.02  -0.01519  -0.006966  -0.05628  0.6709
6.541e+09  -2.078  -0.9004  -0.02603  0.003546  0.0221  0.02961  0.1445  0.6684
6.542e+09  -2.265  -0.05763  0.02782  0.02062  0.05174  -0.01747  0.3941  0.5407
6.544e+09  -2.118  0.762  -0.01997  0.003563  0.02387  -0.06008  0.6096  0.3799
6.545e+09  -1.678  1.504  0.0101  -0.05291  -0.01053  0.005954  0.6897  0.1844
6.546e+09  -1.111  2.059  0.04982  0.01852  0.009497  0.05976  0.7033  -0.08318
6.548e+09  -0.2234  2.374  -0.0004544  0.01289  0.04773  -0.006421  0.654  -0.2875
6.549e+09  0.6757  2.253  0.005372  0.02348  -0.01418  -0.04938  0.4984  -0.5334
6.55e+09  1.439  1.863  -0.02274  0.03853  -0.01061  -0.01751  0.3106  -0.7139
6.551e+09  2.06  1.211  -0.02542  -0.0005758  -0.02406  -0.02053  0.03656  -0.7286
6.552e+09  2.364  0.3571  0.02874  0.04378  -0.05411  0.01104  -0.2115  -0.7173
6.554e+09  2.323  -0.5475  0.01038  0.008765  -0.0553  0.0377  -0.4385  -0.5849
