# Hz S RI R 50
6.25e+09  -0.3149  0.7578  -0.0103  0.007244  -0.01886  0.008558  0.1507  0.506
6.251e+09  -0.0112  0.8117  0.004077  -0.02997  0.0248  0.01014  0.3682  0.3941
6.252e+09  0.3065  0.7425  0.000738  0.02257  0.02524  0.01985  0.486  0.2607
6.254e+09  0.5609  0.5718  -0.001091  0.01388  -0.01466  0.0486  0.5906  0.03817
6.255e+09  0.6916  0.313  0.002683  -0.004947  0.01517  0.04889  0.5664  -0.2653
6.256e+09  0.9068  0.09936  0.00663  -0.005375  0.004969  0.00428  0.4724  -0.4642
6.258e+09  0.8176  -0.252  0.02982  0.008489  -6.729e-05  -0.01586  0.2744  -0.6069
6.259e+09  0.6648  -0.4284  -0.01164  -0.007715  0.0464  -0.004451  0.05041  -0.6864
6.26e+09  0.5045  -0.6591  0.001384  0.02292  -0.02345  -0.01077  -0.2109  -0.6664
6.261e+09  0.2295  -0.7723  0.02843  0.01352  -0.02677  -0.006986  -0.404  -0.5237
6.262e+09  -0.1223  -0.8199  0.01097  0.02154  -0.04489  0.03369  -0.6038  -0.3237
6.264e+09  -0.3271  -0.7613  0.01581  0.03952  -0.01238  -0.0059  -0.6827  -0.08819
6.265e+09  -0.5732  -0.5744  0.0004059  0.01363  -0.01991  0.03735  -0.6814  0.1322
6.266e+09  -0.753  -0.3686  0.01906  0.01345  0.03073  0.01084  -0.5689  0.4022
6.268e+09  -0.801  -0.08049  -0.02549  -0.009314  0.02556  0.03083  -0.4536  0.6071
6.269e+09  -0.7927  0.1755  0.01108  0.002363  0.03199  -0.06296  -0.2071  0.6914
6.27e+09  -0.6401  0.4263  -0.003755  0.008241  0.03985  -0.0171  0.0656  0.7317
6.271e+09  -0.474  0.6279  0.01186  0.01578  -0.03759  0.04328  0.3271  0.6468
6.272e+09  -0.2527  0.822  0.01525  0.03364  -0.00458  -0.06763  0.5429  0.5294
6.274e+09  0.07101  0.8439  -0.01492  -0.01263  0.006061  0.0006097  0.6893  0.3173
6.275e+09  0.3018  0.7534  -0.006929  0.007914  -0.0005006  0.007437  0.7694  0.05016
6.276e+09  0.5923  0.5524  0.04726  0.02472  -0.007258  0.02925  0.7455  -0.2204
6.278e+09  0.6889  0.3102  -0.01271  0.01377  -0.02271  -0.01437  0.6027  -0.454
6.279e+09  0.7868  0.05182  0.02059  0.0005583  -0.05255  -0.01396  0.4387  -0.6259
6.28e+09  0.7726  -0.2001  0.00452  -0.01434  9.187e-05  -0.008509  0.1433  -0.751
6.281e+09  0.6856  -0.4805  -0.01092  0.01299  -0.03863  0.01941  -0.1253  -0.7488
6.282e+09  0.4807  -0.664  0.04804  -0.02799  0.03757  -0.003151  -0.3332  -0.6873
6.284e+09  0.2266  -0.8041  0.01439  0.0198  0.01037  -0.02524  -0.6074  -0.543
6.285e+09  -0.09453  -0.7891  0.0002881  -0.0009499  -0.009227  -0.00786  -0.7741  -0.3141
6.286e+09  -0.3605  -0.7182  0.003448  -0.002988  0.02119  -0.02154  -0.7901  -0.003836
6.288e+09  -0.5841  -0.5506  -0.002619  -0.01962  -0.02243  0.02719  -0.7218  0.2601
6.289e+09  -0.7697  -0.3658  -0.02153  0.02238  0.0006497  -0.01391  -0.6498  0.5179
6.29e+09  -0.8636  -0.03668  0.02403  -0.007505  -0.04798  0.01331  -0.4469  0.6871
6.291e+09  -0.7903  0.1954  0.004135  -0.008021  0.004693  0.005206  -0.1459  0.8122
6.292e+09  -0.687  0.5487  -0.0006707  0.02112  -0.006808  -0.009651  0.1196  0.7789
6.294e+09  -0.4315  0.6884  -0.004851  -0.002217  -0.007132  0.04876  0.4131  0.6897
6.295e+09  -0.2023  0.7605  0.001104  -0.01973  0.0334  -0.0337  0.6321  0.5424
6.296e+09  0.1188  0.796  -0.01129  -0.007319  0.01441  0.04063  0.7524  0.2611
6.298e+09  0.3997  0.7086  0.02646  -0.002795  0.01304  -0.01918  0.8225  0.004035
6.299e+09  0.6282  0.5759  -0.007745  -0.01267  0.01096  -0.001938  0.7456  -0.2806
6.3e+09  0.7491  0.2581  -0.008147  0.004135  0.02159  0.03437  0.6344  -0.5636
6.301e+09  0.7807  -0.004866  0.01863  0.01608  0.01779  0.04581  0.4347  -0.7195
6.302e+09  0.7884  -0.2807  -0.004807  -0.01526  -0.01351  -0.01552  0.1621  -0.8343
6.304e+09  0.6018  -0.5212  0.009982  -0.01335  -0.03777  0.03379  -0.1281  -0.8504
6.305e+09  0.4557  -0.6877  -0.02338  0.004501  0.0158  -0.01501  -0.3994  -0.7328
6.306e+09  0.1462  -0.8122  0.003574  0.000994  -0.02468  -0.03736  -0.6284  -0.5321
6.308e+09  -0.1607  -0.7658  0.02359  0.01326  -0.003251  0.03678  -0.795  -0.2997
6.309e+09  -0.3514  -0.7457  0.01901  -0.04244  0.02394  -0.005688  -0.8478  0.01628
6.31e+09  -0.6071  -0.5075  -0.01821  -0.02214  0.0309  0.009095  -0.793  0.2949
6.311e+09  -0.7711  -0.277  0.0342  0.02724  -0.06789  -0.03727  -0.6583  0.554
6.312e+09  -0.8321  0.02276  -0.0246  0.008133  0.0536  0.04634  -0.4642  0.742
6.314e+09  -0.7562  0.2738  0.007162  -0.004804  0.01129  0.002805  -0.1602  0.8621
6.315e+09  -0.616  0.5518  0.03913  -0.02255  -0.02724  -0.01024  0.166  0.8679
6.316e+09  -0.3998  0.73  -0.002894  -0.001018  -0.002866  0.004881  0.4232  0.7716
6.318e+09  -0.1062  0.8248  0.01275  -0.006751  0.005479  -0.02703  0.6311  0.5571
6.319e+09  0.1417  0.8191  0.004092  -0.009827  0.002239  0.07654  0.8218  0.3426
6.32e+09  0.4326  0.654  0.003454  0.02611  0.003649  -0.002787  0.8857  0.03761
6.321e+09  0.6652  0.5007  -0.00878  0.009543  -0.002563  -0.01943  0.8624  -0.2877
6.322e+09  0.7763  0.2567  -0.01482  -0.03359  -0.01683  -0.005902  0.6603  -0.5729
6.324e+09  0.8541  -0.05957  0.01079  0.003326  0.002017  -0.01422  0.4482  -0.7729
6.325e+09  0.7531  -0.313  0.02336  -0.001441  -0.006653  0.009676  0.1781  -0.898
6.326e+09  0.6051  -0.6009  0.02038  -0.01387  0.03888  0.06835  -0.1537  -0.8747
6.328e+09  0.3158  -0.7542  -0.01975  0.001619  0.06346  0.0126  -0.4448  -0.7872
6.329e+09  0.04126  -0.8727  -0.007632  -0.01222  -0.005811  -0.001082  -0.6926  -0.6225
6.33e+09  -0.229  -0.7877  -0.02468  -0.03545  -0.03263  0.008839  -0.8309  -0.3319
6.331e+09  -0.5165  -0.6934  -0.0137  0.03638  -0.03379  -0.007196  -0.9116  -0.02556
6.332e+09  -0.6584  -0.4038  0.03665  -0.009622  -0.0009874  -0.03208  -0.8334  0.292
6.334e+09  -0.8609  -0.1978  0.005152  -0.03894  -0.06297  0.04888  -0.7213  0.545
6.335e+09  -0.841  0.1403  -0.02039  0.01624  -0.02715  0.02843  -0.49  0.7459
6.336e+09  -0.7265  0.4098  -0.01147  0.002635  -0.01471  -0.009456  -0.1868  0.8776
6.338e+09  -0.5405  0.6438  -0.008665  0.0009472  -0.001726  0.02066  0.1353  0.897
6.339e+09  -0.2876  0.7948  0.01478  -0.01597  -0.01268  -0.02124  0.4371  0.8131
6.34e+09  -0.02136  0.8739  -0.005213  -0.02918  0.009338  -0.01677  0.6742  0.6289
6.341e+09  0.283  0.7879  -0.004801  -0.02971  -0.02155  -0.02664  0.8541  0.3584
6.342e+09  0.539  0.69  0.01583  0.000845  -0.01727  -0.02015  0.948  0.05451
6.344e+09  0.7241  0.426  0.005581  -0.03798  -0.02892  -0.01587  0.8815  -0.2771
6.345e+09  0.839  0.1568  -0.02207  0.0326  -0.02163  0.009742  0.7335  -0.5417
6.346e+09  0.8349  -0.1685  -0.005889  -0.002361  -0.008405  -0.01511  0.4947  -0.7637
6.348e+09  0.71  -0.4186  -0.0008542  -0.01371  0.02042  -0.000113  0.2238  -0.8973
6.349e+09  0.5496  -0.6671  -0.01932  -0.004969  -0.05353  -0.009051  -0.07975  -0.912
6.35e+09  0.289  -0.8106  -0.02501  0.01098  0.01039  0.006781  -0.4376  -0.8332
6.351e+09  -0.04883  -0.8752  0.003145  -0.01152  0.008252  0.02166  -0.6583  -0.5955
6.352e+09  -0.3239  -0.7699  -0.0109  -0.03752  -0.01587  0.02671  -0.8344  -0.3675
6.354e+09  -0.5959  -0.6501  -0.02787  -0.01888  -0.009965  -0.004036  -0.9441  -0.04667
6.355e+09  -0.7852  -0.3644  -0.006579  0.01197  0.02871  0.02979  -0.9083  0.2408
6.356e+09  -0.8577  -0.09951  0.007738  0.03561  -0.01361  -0.009439  -0.7355  0.5668
6.358e+09  -0.889  0.2325  -0.04989  0.01127  -0.04726  0.0124  -0.5825  0.7885
6.359e+09  -0.7226  0.4609  0.00896  -0.02034  0.03852  -0.01654  -0.2401  0.9056
6.36e+09  -0.508  0.6676  0.0486  -0.0003063  0.01548  -0.009384  0.09819  0.9572
6.361e+09  -0.2096  0.8293  0.02282  0.02013  0.02669  -0.002149  0.4233  0.8426
6.362e+09  0.08713  0.8749  0.006674  0.001819  -0.002981  -5.158e-05  0.6294  0.6531
6.364e+09  0.3981  0.7899  -0.01375  0.006289  -0.0432  -0.001105  0.8631  0.3474
6.365e+09  0.6818  0.5844  -0.008375  -0.01438  -0.01222  0.01726  0.9592  0.07483
6.366e+09  0.8237  0.3346  0.003168  -0.009738  0.02204  -0.03685  0.8966  -0.2523
6.368e+09  0.8579  -0.0175  -0.03211  -0.008882  -0.01085  -0.007919  0.7722  -0.5122
6.369e+09  0.8215  -0.2466  -0.01497  0.03948  -0.02861  -0.007924  0.5431  -0.7891
6.37e+09  0.6882  -0.534  0.01128  0.02061  0.007055  -0.005999  0.2333  -0.9062
6.371e+09  0.3808  -0.7273  -0.00286  0.004931  -0.006647  -0.009851  -0.08343  -1
6.372e+09  0.1643  -0.8613  -0.00916  0.01775  -0.002584  -0.02767  -0.3746  -0.8312
6.374e+09  -0.1393  -0.8225  0.0009314  -0.01099  0.0008094  -0.006934  -0.6723  -0.6758
6.375e+09  -0.4214  -0.7511  -0.03512  -0.007173  -0.01113  0.02236  -0.8943  -0.3998
6.376e+09  -0.7124  -0.5491  -0.01988  -0.003969  0.04141  0.001775  -0.9466  -0.05158
6.378e+09  -0.7746  -0.3335  -0.003872  -0.0053  0.03956  0.02613  -0.8826  0.2498
6.379e+09  -0.8535  0.01744  -0.007197  0.02321  -0.02366  -0.02209  -0.7755  0.4735
6.38e+09  -0.8078  0.3313  0.02756  0.01245  0.01124  -0.005378  -0.5668  0.7751
6.381e+09  -0.6542  0.5761  0.03896  0.01539  -0.02045  0.01811  -0.2447  0.9018
6.382e+09  -0.39  0.7329  0.02527  0.00623  0.03516  0.009345  0.01002  0.9541
6.384e+09  -0.117  0.8787  -0.05719  0.01887  0.02344  0.02348  0.3706  0.8152
6.385e+09  0.1549  0.8302  0.01978  0.005441  -0.03017  0.05303  0.6373  0.6883
6.386e+09  0.463  0.8015  0.01848  -0.004724  -0.01494  -0.0112  0.8231  0.447
6.388e+09  0.6663  0.5566  0.01233  0.0452  0.009776  0.02511  0.9567  0.1069
6.389e+09  0.8037  0.2926  -0.01282  0.01187  -0.03022  -0.01016  0.91  -0.1999
6.39e+09  0.8712  -0.0409  0.02634  -0.03185  -0.02861  7.595e-05  0.82  -0.499
6.391e+09  0.7999  -0.3639  0.02674  0.00665  0.02457  0.002436  0.5848  -0.7506
6.392e+09  0.5949  -0.5729  -0.003638  -0.01058  -0.007601  -0.02891  0.2951  -0.8706
6.394e+09  0.3841  -0.7711  0.008174  -0.01478  -0.01482  -0.03379  -0.02158  -0.9181
6.395e+09  0.07625  -0.7995  -0.02412  0.005844  0.04923  -0.009825  -0.3582  -0.8533
6.396e+09  -0.1995  -0.8474  -0.02591  0.004606  -0.01086  0.003069  -0.5747  -0.7267
6.398e+09  -0.4804  -0.7186  -0.02682  -0.001456  -0.0356  0.006051  -0.7496  -0.4476
6.399e+09  -0.6642  -0.5213  -0.00728  -0.04794  -0.01548  -0.01642  -0.9184  -0.1363
6.4e+09  -0.8166  -0.1814  0.03753  -0.002207  -0.01491  0.01394  -0.9208  0.1543
6.401e+09  -0.8376  0.1021  0.0173  -0.01798  -0.001672  0.01475  -0.7809  0.4645
6.402e+09  -0.7523  0.328  -0.006033  0.01515  -0.006367  0.04283  -0.5568  0.6726
6.404e+09  -0.6093  0.5543  -0.008703  0.02301  0.02977  0.0002435  -0.2847  0.8258
6.405e+09  -0.3715  0.7452  0.04576  -0.03429  0.02522  -0.01384  -0.005839  0.8966
6.406e+09  -0.04959  0.8117  -0.01528  -0.001095  0.04527  -0.04631  0.2931  0.8617
6.408e+09  0.2273  0.8494  0.01549  0.02203  0.02226  0.01429  0.613  0.7034
6.409e+09  0.5278  0.6871  -0.03687  -0.01321  -0.04656  0.04054  0.7886  0.4606
6.41e+09  0.677  0.4826  -0.02274  -0.02009  -0.01862  -0.02306  0.9087  0.1568
6.411e+09  0.813  0.2319  -0.008778  -0.003546  -0.0136  0.00704  0.8909  -0.1795
6.412e+09  0.8543  -0.0868  0.01944  -0.0217  -0.05171  0.05602  0.8138  -0.4352
6.414e+09  0.7345  -0.3114  -0.04298  -0.01574  0.04073  0.02534  0.6171  -0.7295
6.415e+09  0.6137  -0.6322  0.003849  -0.002789  0.03054  -0.006222  0.3414  -0.8265
6.416e+09  0.4044  -0.7999  -0.06397  -0.001985  -0.03892  -0.01606  0.0411  -0.8934
6.418e+09  0.06266  -0.8625  0.002742  -0.03364  0.04405  -0.00414  -0.2546  -0.8751
6.419e+09  -0.2522  -0.8421  -0.01756  0.003224  -0.04445  0.01123  -0.5474  -0.7106
6.42e+09  -0.4992  -0.675  0.002834  0.02512  0.01695  -0.004793  -0.7306  -0.4783
6.421e+09  -0.7145  -0.4795  -0.0337  -0.001345  -0.004552  0.02564  -0.8499  -0.219
6.422e+09  -0.8363  -0.2293  -0.0341  0.01149  0.04167  -0.001102  -0.8729  0.09076
6.424e+09  -0.8521  0.1043  0.01113  0.02388  0.03666  -0.03173  -0.7899  0.3612
6.425e+09  -0.7389  0.3925  0.008274  -0.02853  0.009544  -0.032  -0.5279  0.6066
6.426e+09  -0.5495  0.605  -0.01831  -0.03562  0.0003918  -0.03084  -0.3496  0.824
6.428e+09  -0.3398  0.7916  0.01314  0.001041  0.04614  0.01345  -0.03768  0.8547
6.429e+09  -0.02885  0.8932  -0.003225  -0.0004195  -0.04733  0.04201  0.2804  0.8289
6.43e+09  0.2467  0.8222  0.02055  0.001492  0.00321  -0.0334  0.5098  0.7391
6.431e+09  0.5587  0.6786  -0.03911  -0.03405  -0.01478  0.01505  0.759  0.5007
6.432e+09  0.6784  0.4226  0.01631  0.002511  0.0322  0.01491  0.8012  0.2345
6.434e+09  0.8455  0.2005  0.00898  0.01111  0.01747  0.02968  0.8838  -0.09249
6.435e+09  0.8996  -0.1327  0.02096  0.002148  0.003805  -0.0212  0.7869  -0.3469
6.436e+09  0.7472  -0.3675  0.00604  -0.0136  -0.01617  0.02729  0.6355  -0.6584
6.438e+09  0.624  -0.6667  0.002242  0.03404  -0.00673  0.02788  0.3288  -0.7498
6.439e+09  0.3247  -0.7651  -0.06618  0.01626  0.01738  0.009176  0.08346  -0.9037
6.44e+09  0.05857  -0.8524  0.005233  -0.04435  0.04965  -0.02982  -0.2565  -0.8255
6.441e+09  -0.2308  -0.8366  0.01101  0.01579  0.04417  -0.02646  -0.4637  -0.7075
6.442e+09  -0.5676  -0.6507  0.03797  -0.03311  -0.006496  -0.03024  -0.6942  -0.4713
6.444e+09  -0.7874  -0.488  -0.01885  -0.02971  0.01715  0.04417  -0.7948  -0.1878
6.445e+09  -0.8474  -0.1348  -0.00366  0.01727  -0.00309  0.005723  -0.8357  0.08499
6.446e+09  -0.8544  0.1474  -0.0008722  0.01348  0.0307  0.001278  -0.7632  0.4148
6.448e+09  -0.7336  0.4376  0.00556  0.00156  -0.02343  -0.01968  -0.5762  0.6405
6.449e+09  -0.5883  0.6944  -0.01055  -0.0006918  -0.00858  0.0521  -0.3219  0.7302
6.45e+09  -0.294  0.8116  -0.003209  -0.02869  0.01143  -0.03657  -0.08062  0.832
6.451e+09  -0.01954  0.8574  -0.01098  -0.03631  -0.01063  0.004762  0.2318  0.832
6.452e+09  0.2651  0.8714  0.04874  -0.01755  0.02292  0.02003  0.4833  0.6855
6.454e+09  0.5784  0.6719  -0.0156  0.05964  -0.02205  -0.04518  0.6358  0.4821
6.455e+09  0.773  0.4552  -0.01647  0.02042  -0.009119  -0.03179  0.8173  0.2114
6.456e+09  0.8693  0.1615  0.01608  0.01345  0.02058  0.034  0.8143  -0.03411
6.458e+09  0.8701  -0.09399  0.03292  -0.04259  -0.0167  -0.03392  0.7384  -0.3614
6.459e+09  0.7295  -0.3808  0.01556  -0.00783  0.05446  -0.01455  0.5415  -0.5787
6.46e+09  0.5777  -0.6409  -0.007695  -0.01668  0.004414  0.007166  0.3783  -0.742
6.461e+09  0.3243  -0.8349  0.004038  -0.009608  -0.003976  -0.04105  0.08749  -0.8134
6.462e+09  -0.01919  -0.877  -0.04237  -0.02348  0.03159  0.01429  -0.1991  -0.7557
6.464e+09  -0.2935  -0.8558  -0.002361  0.0178  0.006343  0.03321  -0.4784  -0.6462
6.465e+09  -0.5614  -0.6458  -0.02987  -0.00176  -0.03022  0.03517  -0.7181  -0.4956
6.466e+09  -0.7286  -0.4496  -0.02598  -0.02259  0.02604  0.01898  -0.7843  -0.1936
6.468e+09  -0.8975  -0.1525  -0.02388  -0.05099  -0.00544  0.01081  -0.8252  0.06248
6.469e+09  -0.8496  0.1862  0.003257  -0.03243  0.01656  -0.03006  -0.7158  0.2939
6.47e+09  -0.7667  0.5186  0.04087  0.03973  -0.03576  0.01897  -0.5583  0.5843
6.471e+09  -0.601  0.6702  -0.008172  0.006688  -0.01399  -0.02316  -0.3223  0.7205
6.472e+09  -0.2877  0.902  0.008939  0.04605  0.0387  0.01825  -0.0739  0.7491
6.474e+09  -0.00185  0.8662  -0.02747  0.03943  -0.008649  0.02378  0.1925  0.7158
6.475e+09  0.3669  0.849  0.03512  -0.04585  -0.007411  -0.009381  0.4537  0.6497
6.476e+09  0.554  0.699  -0.03511  0.009245  -0.003167  -0.04209  0.5997  0.4443
6.478e+09  0.7618  0.4256  0.02581  0.001537  0.03132  -0.03724  0.768  0.2022
6.479e+09  0.8986  0.1351  -0.01614  -0.042  -0.0157  -0.01324  0.7614  -0.07227
6.48e+09  0.8622  -0.1782  0.001513  -0.005837  -0.02919  0.007252  0.7375  -0.3434
6.481e+09  0.7793  -0.5024  -0.002926  0.01432  0.01022  -0.02729  0.5641  -0.5204
6.482e+09  0.5669  -0.7231  0.03137  0.004592  -0.01053  -0.02048  0.3471  -0.7091
6.484e+09  0.3182  -0.8682  0.0187  -0.0237  0.02159  -0.03122  0.05571  -0.7757
6.485e+09  -0.05458  -0.8691  -0.001504  -0.002754  0.04163  0.004386  -0.1936  -0.7463
6.486e+09  -0.325  -0.9106  0.06706  0.005131  -0.01448  -0.01245  -0.462  -0.594
6.488e+09  -0.08111  -1.174  0.0655  0.0115  0.4408  0.5788  -0.6679  -0.416
6.489e+09  -0.8387  -0.3689  -0.001655  -0.01078  0.001552  -0.04328  -0.742  -0.1793
6.49e+09  -0.8768  -0.1034  -0.003565  0.02616  -0.006794  -0.04939  -0.8011  0.01781
6.491e+09  -0.8964  0.2102  -0.02432  -0.009392  0.007513  0.03229  -0.6728  0.3269
6.492e+09  -0.7614  0.5151  0.01259  0.01991  0.03256  0.01758  -0.5132  0.5427
6.494e+09  -0.4368  0.6231  0.03511  -0.02464  -0.003629  0.1085  -0.2688  0.6973
6.495e+09  -0.2205  0.8842  -0.004682  0.02526  0.01639  0.03825  -0.05574  0.7631
6.496e+09  0.09524  0.9261  0.03695  0.02403  -0.01247  0.08012  0.2005  0.7105
6.498e+09  0.3265  0.8685  -0.003009  0.009913  -0.01282  0.02047  0.4297  0.6148
6.499e+09  0.665  0.6156  -0.01586  -0.01449  0.03497  -0.03363  0.6331  0.4165
6.5e+09  0.8747  0.4133  -0.03383  0.006377  0.03543  0.005185  0.7441  0.1519
6.501e+09  0.8603  0.09314  0.05177  0.03851  0.01628  0.05  0.7269  -0.06231
6.502e+09  0.8975  -0.2792  0.003819  0.01931  -0.01565  -0.0279  0.6704  -0.3071
6.504e+09  0.7616  -0.4904  -0.04631  -0.01812  -0.01657  0.04352  0.5217  -0.5651
6.505e+09  0.4846  -0.8029  -0.007029  -0.03262  0.02487  0.02989  0.2669  -0.7013
6.506e+09  0.2352  -0.8737  0.0001537  0.007855  -0.008715  -0.02945  -0.02346  -0.7653
6.508e+09  -0.05408  -0.9091  0.02821  0.023  -0.04377  -0.04362  -0.2547  -0.7296
6.509e+09  -0.433  -0.8421  0.01729  0.008483  0.00853  0.008571  -0.4758  -0.5734
6.51e+09  -0.7165  -0.6466  -0.0133  -0.01054  0.008061  -0.03919  -0.6666  -0.3793
6.511e+09  -0.8098  -0.3578  -0.05722  -0.003668  0.01063  -0.02986  -0.7284  -0.1035
6.512e+09  -0.9206  -0.004565  -0.00353  0.008741  -0.02226  0.009797  -0.7437  0.1151
6.514e+09  -0.8723  0.3586  -0.01991  -0.05568  0.05934  0.01692  -0.6555  0.3776
6.515e+09  -0.703  0.5421  -0.01122  0.02004  0.05373  -0.005549  -0.5065  0.582
6.516e+09  -0.4374  0.8227  -0.00942  -0.01241  0.04954  0.03364  -0.2375  0.6945
6.518e+09  -0.138  0.9366  -0.02627  -0.0405  0.001878  0.01038  0.01329  0.7327
6.519e+09  0.1674  0.9846  -0.008955  0.01547  -0.003624  -0.003444  0.2788  0.6742
6.52e+09  0.5007  0.7652  -0.003897  0.02179  0.009891  -0.03954  0.4646  0.5627
6.521e+09  0.7355  0.546  0.01464  0.02033  -0.0109  -0.02053  0.624  0.3655
6.522e+09  0.9293  0.2926  -0.0004619  0.003554  -0.004514  0.01568  0.7154  0.1214
6.524e+09  0.9339  0.03373  0.006038  -0.007232  0.02427  0.002912  0.7048  -0.1488
6.525e+09  0.8669  -0.3682  0.003302  0.006849  0.03875  -0.003783  0.6266  -0.406
6.526e+09  0.6671  -0.6336  -0.02836  -0.03554  -0.03376  0.01278  0.4366  -0.5784
6.528e+09  0.4259  -0.8329  -0.009721  0.01563  0.02837  0.00302  0.2179  -0.6679
6.529e+09  0.04483  -0.9373  -0.01704  -0.04978  0.02023  0.03135  -0.07081  -0.6894
6.53e+09  -0.3059  -0.9146  -0.02725  -0.0158  -0.02458  0.01094  -0.3074  -0.5987
6.531e+09  -0.5748  -0.7704  0.004994  0.01203  -0.07703  0.02811  -0.4755  -0.4936
6.532e+09  -0.8294  -0.5112  0.02052  -0.003464  -0.006039  0.02683  -0.604  -0.3003
6.534e+09  -0.9018  -0.2274  -0.00356  -0.02256  -0.04234  -0.002491  -0.5959  -0.1072
6.535e+09  -0.9123  0.09806  -0.01382  0.04029  -0.02024  -0.007293  -0.6404  0.07619
6.536e+09  -0.807  0.404  -0.04212  0.008758  0.02075  0.03878  -0.5397  0.3286
6.538e+09  -0.6153  0.7068  -0.01391  0.04597  -0.01984  0.01494  -0.4242  0.4426
6.539e+09  -0.3207  0.8849  -0.01399  0.001626  -0.002824  0.00783  -0.2694  0.5838
6.54e+09  -0.01758  0.9297  -0.003817  0.004489  0.02998  -0.03916  -0.06169  0.694
6.541e+09  0.2923  0.8597  -0.01208  0.009891  -0.003388  -0.03352  0.1691  0.6503
6.542e+09  0.6143  0.7693  -0.01426  0.005314  -0.03342  -0.04707  0.4217  0.5624
6.544e+09  0.8293  0.4578  0.02715  0.000403  -0.01149  0.01634  0.5742  0.3909
6.545e+09  0.9225  0.1742  0.02913  0.004319  0.04781  -0.01224  0.6899  0.1298
6.546e+09  0.93  -0.153  -0.04125  -0.006655  0.03178  -0.009773  0.7014  -0.07427
6.548e+09  0.7613  -0.544  0.02498  0.02788  -0.01461  -0.002352  0.659  -0.343
6.549e+09  0.5531  -0.6834  -0.02603  -0.01523  0.01254  0.03664  0.5145  -0.5407
6.55e+09  0.2851  -0.8611  0.002403  -0.01527  -0.01996  0.004473  0.297  -0.6956
