# Hz S RI R 50
6.25e+09  -0.3367  0.714  0.01503  0.009773  -0.04186  -0.08031  0.1536  0.4787
6.251e+09  -0.09191  0.835  -0.02363  0.01352  0.0224  0.03098  0.3951  0.4073
6.252e+09  0.2308  0.8217  -0.0293  0.02916  0.004135  -0.01353  0.5292  0.26
6.254e+09  0.4715  0.6572  -0.01161  0.013  -0.06468  0.007049  0.6281  0.02433
6.255e+09  0.6637  0.4617  -0.001064  0.02295  -0.01695  0.03964  0.568  -0.2274
6.256e+09  0.8226  0.182  -0.01502  0.01925  -0.01351  -0.04082  0.4634  -0.4484
6.258e+09  0.8104  -0.06558  -0.0175  0.01136  0.01689  0.03918  0.2828  -0.6065
6.259e+09  0.7474  -0.3784  0.05603  0.0004782  -0.06113  0.01734  0.04186  -0.6936
6.26e+09  0.5804  -0.5844  0.01717  -0.02116  0.01866  0.03805  -0.2268  -0.6357
6.261e+09  0.3354  -0.7345  0.01777  -0.03225  0.03393  0.0432  -0.4502  -0.5484
6.262e+09  0.06618  -0.773  -0.01779  0.01593  -0.0384  -0.007535  -0.6407  -0.3333
6.264e+09  -0.2783  -0.7627  0.01542  0.01931  -0.03438  0.03496  -0.7305  -0.1071
6.265e+09  -0.4901  -0.6788  -0.009324  0.001025  0.006537  0.0007284  -0.6762  0.1419
6.266e+09  -0.6981  -0.4623  0.01224  0.007956  0.02852  0.0269  -0.5906  0.4096
6.268e+09  -0.8002  -0.1989  0.0005611  0.002076  0.002625  -0.03296  -0.438  0.5987
6.269e+09  -0.7728  0.08736  -0.02803  0.002524  0.01796  0.01695  -0.2074  0.7099
6.27e+09  -0.6905  0.377  -0.01384  0.006314  0.05375  -0.01929  0.07362  0.7355
6.271e+09  -0.58  0.562  -0.01766  0.01766  -0.007707  -0.03559  0.2985  0.68
6.272e+09  -0.3191  0.7179  0.01421  -0.02257  -0.07554  -0.0043  0.5637  0.5405
6.274e+09  -0.04828  0.7711  -0.01576  -0.02458  0.009919  -0.01327  0.6861  0.3193
6.275e+09  0.2429  0.7745  -0.009758  0.0005846  0.0378  0.02833  0.7502  0.06584
6.276e+09  0.4706  0.6701  0.006739  -0.004178  0.02499  0.01307  0.7408  -0.2228
6.278e+09  0.6675  0.3999  0.007809  -0.01855  0.0226  0.002286  0.6307  -0.4915
6.279e+09  0.8162  0.1439  0.006595  0.003622  0.0009622  0.05222  0.4244  -0.6579
6.28e+09  0.7874  -0.09971  -0.004106  -0.003574  -0.009253  0.01426  0.1731  -0.7469
6.281e+09  0.7095  -0.3295  0.01599  -0.003923  0.03874  -0.0425  -0.1583  -0.7658
6.282e+09  0.5661  -0.6246  0.01954  0.001811  -0.05766  0.001523  -0.3771  -0.7097
6.284e+09  0.2776  -0.7452  -0.01109  -0.01328  0.0004049  -0.008506  -0.6039  -0.5274
6.285e+09  0.01846  -0.7637  0.002251  0.01098  -0.01545  -0.003402  -0.737  -0.2895
6.286e+09  -0.2344  -0.7114  -0.003789  0.01217  -0.009555  -0.04354  -0.7848  -0.04467
6.288e+09  -0.4745  -0.6235  0.007544  0.00253  0.006899  -0.07753  -0.7359  0.2508
6.289e+09  -0.6726  -0.4029  -0.005383  0.006832  -0.02093  0.02588  -0.617  0.4959
6.29e+09  -0.7871  -0.1695  -0.006409  -0.01212  0.04582  -0.04039  -0.3858  0.6914
6.291e+09  -0.8065  0.09544  0.03326  -0.001855  -0.007173  0.04986  -0.1527  0.763
6.292e+09  -0.7174  0.3636  -0.02447  -0.0003871  -0.01994  -0.02125  0.1076  0.8253
6.294e+09  -0.5543  0.6482  -0.0002814  0.02748  -0.002985  0.0577  0.3884  0.7258
6.295e+09  -0.2645  0.798  -0.00262  0.008005  -0.04198  -0.01144  0.5826  0.5312
6.296e+09  0.007865  0.8024  -0.01365  0.02723  -0.02452  -0.02526  0.7758  0.3103
6.298e+09  0.3179  0.7062  -0.03963  -0.001698  0.02928  -0.03259  0.8276  -0.006097
6.299e+09  0.5255  0.5858  -0.002498  0.02351  -0.01359  0.007062  0.7933  -0.3018
6.3e+09  0.7097  0.38  -0.01285  -0.01222  0.006815  -0.01571  0.6527  -0.5255
6.301e+09  0.8061  0.08946  0.01741  -0.009495  -0.003904  -0.01849  0.4212  -0.7106
6.302e+09  0.7887  -0.1732  -0.01184  0.008497  -0.03469  -0.02448  0.137  -0.8323
6.304e+09  0.6948  -0.4091  0.009815  0.01719  0.03025  -0.05319  -0.1188  -0.8315
6.305e+09  0.4836  -0.65  0.009201  -0.01573  0.02048  0.004462  -0.4163  -0.7212
6.306e+09  0.2322  -0.7402  -0.04703  0.01571  0.005053  0.02141  -0.6441  -0.579
6.308e+09  -0.0722  -0.8069  0.0005082  0.01673  -0.03915  0.02671  -0.7864  -0.2745
6.309e+09  -0.3246  -0.7432  0.01692  -0.009246  -0.02263  -0.01921  -0.8142  -0.02968
6.31e+09  -0.5458  -0.5784  0.01714  -0.01746  -0.007289  -0.002142  -0.8008  0.2817
6.311e+09  -0.7364  -0.3785  0.01353  0.01651  -0.02819  -0.04075  -0.6849  0.5434
6.312e+09  -0.7839  -0.1244  -0.01755  -0.004535  0.005579  0.02153  -0.4558  0.6929
6.314e+09  -0.7649  0.1971  0.01559  -0.02258  0.00823  0.0507  -0.1589  0.8651
6.315e+09  -0.647  0.5022  -0.009746  0.01402  -0.05069  -0.01925  0.141  0.8685
6.316e+09  -0.4837  0.6622  0.05829  0.006019  -0.05842  0.01527  0.4225  0.7322
6.318e+09  -0.1592  0.7605  -0.008633  0.00738  -0.003431  -0.04851  0.6688  0.5437
6.319e+09  0.1217  0.8052  0.01223  0.01223  0.01338  -0.027  0.8166  0.3506
6.32e+09  0.3632  0.7495  0.01197  0.007197  0.03058  0.0133  0.8727  -0.01023
6.321e+09  0.5867  0.5939  0.01277  0.02852  -0.01836  -0.01324  0.8383  -0.3022
6.322e+09  0.7616  0.3325  -0.01099  0.01895  0.02752  -0.01742  0.6811  -0.5515
6.324e+09  0.8496  0.07156  0.002196  0.006202  -0.005327  0.02986  0.4708  -0.7643
6.325e+09  0.8236  -0.2201  0.01492  0.003239  0.04463  -0.02529  0.1884  -0.8622
6.326e+09  0.6961  -0.4799  0.01812  -0.01309  0.02502  0.01534  -0.1232  -0.8707
6.328e+09  0.4447  -0.6809  0.03072  -0.00967  -0.02895  0.009146  -0.4143  -0.7993
6.329e+09  0.1447  -0.7586  -0.01477  -0.003242  -0.01634  0.01148  -0.6551  -0.5778
6.33e+09  -0.1035  -0.7733  -0.000446  -0.01918  -0.0138  0.01383  -0.8704  -0.3103
6.331e+09  -0.4141  -0.6825  -0.01545  -0.001773  -0.02233  -0.02388  -0.9218  -0.01476
6.332e+09  -0.6594  -0.5357  -0.01048  -0.0267  -0.004503  -0.05004  -0.8448  0.3246
6.334e+09  -0.798  -0.3156  -0.01764  0.01826  -0.002197  0.0131  -0.7112  0.5576
6.335e+09  -0.8591  -0.01225  0.003707  -0.03825  -0.0227  -0.01274  -0.484  0.7895
6.336e+09  -0.8168  0.2668  -0.03397  -0.008544  -0.01052  -0.01535  -0.1816  0.9007
6.338e+09  -0.6578  0.5688  0.03579  0.0182  0.005213  0.005429  0.1011  0.9023
6.339e+09  -0.4248  0.7434  -0.0507  -0.005924  0.03703  -0.02468  0.4509  0.8099
6.34e+09  -0.143  0.8626  -0.0001007  0.02001  -0.01497  0.04018  0.6774  0.6007
6.341e+09  0.1438  0.8349  -0.04226  -0.002174  -0.04944  0.03716  0.8464  0.3253
6.342e+09  0.4416  0.7456  -0.0144  0.007586  0.03542  -0.03692  0.9018  0.03067
6.344e+09  0.6673  0.4989  0.01037  0.05287  0.03028  0.01227  0.8891  -0.2944
6.345e+09  0.8018  0.2396  -0.0167  -0.01472  -0.02479  -0.01447  0.6985  -0.572
6.346e+09  0.9259  -0.02936  -0.02079  -0.008624  0.02374  -0.029  0.4906  -0.8069
6.348e+09  0.8252  -0.3151  0.004282  0.01657  0.02867  0.01007  0.2052  -0.9112
6.349e+09  0.6376  -0.6071  -0.005465  -0.02504  -0.03632  -0.03427  -0.08079  -0.9628
6.35e+09  0.4188  -0.7718  0.028  -0.01076  0.04172  -0.03637  -0.4031  -0.825
6.351e+09  0.05548  -0.8554  0.001308  0.01767  0.04437  0.01122  -0.6878  -0.6239
6.352e+09  -0.2262  -0.8496  0.018  -0.02231  0.01692  0.01667  -0.8511  -0.3715
6.354e+09  -0.4981  -0.7081  -0.01004  0.007813  0.03243  -0.01889  -0.9561  -0.04052
6.355e+09  -0.7124  -0.4697  0.0253  0.0167  -0.0004679  0.04961  -0.9215  0.2596
6.356e+09  -0.8464  -0.2226  -0.01994  -0.006785  0.002107  0.02731  -0.7355  0.5227
6.358e+09  -0.8725  0.08417  0.0271  0.003825  -0.01892  -0.01967  -0.5114  0.79
6.359e+09  -0.7175  0.3877  -0.008409  -0.01403  0.001943  -0.04639  -0.2639  0.9324
6.36e+09  -0.5779  0.6305  0.007133  -0.02556  0.07818  0.03127  0.09968  0.9581
6.361e+09  -0.2966  0.8372  0.03209  0.006143  0.02255  -0.01297  0.4264  0.817
6.362e+09  0.002063  0.8762  0.005674  0.02183  0.00896  -0.01992  0.6636  0.6605
6.364e+09  0.2943  0.8117  0.007728  -0.02234  -0.005477  0.0004236  0.8462  0.3736
6.365e+09  0.5288  0.6704  -0.02362  -0.03786  -0.005849  0.01645  0.9214  0.1072
6.366e+09  0.7242  0.4335  -0.01301  0.01386  0.005739  -0.0512  0.9439  -0.2387
6.368e+09  0.8378  0.1295  0.0001678  -0.01046  0.01634  0.04566  0.7644  -0.5418
6.369e+09  0.8507  -0.174  -0.02498  0.01045  -0.003784  0.05088  0.5082  -0.7555
6.37e+09  0.7702  -0.425  0.001131  0.01461  0.03969  -0.01211  0.2204  -0.9126
6.371e+09  0.5235  -0.7023  -0.003002  -0.02434  -0.01605  0.02586  -0.06614  -0.9745
6.372e+09  0.2367  -0.7697  -0.0109  -0.00102  -0.02325  0.009846  -0.3609  -0.8586
6.374e+09  -0.004497  -0.8778  0.006502  -0.006383  0.004875  -0.0009743  -0.6434  -0.6794
6.375e+09  -0.2885  -0.7967  0.008482  0.02768  0.01823  0.01085  -0.8635  -0.4442
6.376e+09  -0.5929  -0.6511  -0.006126  0.004721  7.018e-05  -0.02733  -0.9194  -0.06992
6.378e+09  -0.7778  -0.4314  -0.05981  -6.861e-05  -0.02692  -0.01543  -0.883  0.2368
6.379e+09  -0.8425  -0.06573  -0.01166  0.01358  0.03744  -0.02322  -0.7846  0.5041
6.38e+09  -0.7974  0.1635  -0.008413  0.005216  -0.01644  0.026  -0.5393  0.7119
6.381e+09  -0.7342  0.4612  -0.01585  -0.01498  0.04569  -0.04457  -0.2394  0.8919
6.382e+09  -0.539  0.7011  -0.0001581  -0.05817  -0.02612  -0.02396  0.09169  0.9648
6.384e+09  -0.2171  0.8763  -0.0006859  -0.001601  -0.02746  -0.01673  0.3672  0.8301
6.385e+09  0.1065  0.8445  -0.02695  -0.03079  0.0001454  0.04985  0.6542  0.6699
6.386e+09  0.3104  0.7846  -0.01048  0.009318  0.009733  -0.0213  0.8345  0.4032
6.388e+09  0.6565  0.6258  0.01488  0.018  0.05009  0.006779  0.9145  0.08363
6.389e+09  0.7787  0.3314  0.01551  0.009821  0.006293  -0.009591  0.9035  -0.1832
6.39e+09  0.8937  0.1  0.02799  -0.03204  0.01484  0.01798  0.8129  -0.4815
6.391e+09  0.8372  -0.215  -0.001284  0.008082  0.01736  -0.002636  0.5629  -0.7175
6.392e+09  0.6714  -0.5263  -0.01151  0.01417  -0.006527  0.01479  0.3005  -0.8627
6.394e+09  0.4427  -0.7228  -0.002826  0.02115  0.01314  -0.001683  -0.0506  -0.9354
6.395e+09  0.2111  -0.8212  0.01148  -0.004916  0.01264  -0.03235  -0.3441  -0.8688
6.396e+09  -0.09131  -0.8301  -0.0252  0.00355  -0.05095  0.01181  -0.6056  -0.7092
6.398e+09  -0.385  -0.8035  -0.002645  -0.03122  0.008569  0.0007559  -0.8026  -0.4621
6.399e+09  -0.6028  -0.5941  0.001117  -0.01622  0.02433  0.02588  -0.8942  -0.1136
6.4e+09  -0.8043  -0.3516  0.0316  -0.02193  0.01204  -0.01172  -0.8443  0.1741
6.401e+09  -0.8609  -0.05167  -0.01481  0.01615  0.01068  -0.0364  -0.7763  0.475
6.402e+09  -0.7835  0.2307  -0.01308  -0.02639  0.00565  -0.001394  -0.5693  0.6639
6.404e+09  -0.7076  0.4952  -0.04176  0.02505  0.02299  0.07331  -0.3509  0.8526
6.405e+09  -0.5081  0.6997  -0.02959  -0.01906  0.01095  -0.01143  -0.04145  0.8689
6.406e+09  -0.1878  0.8167  -0.02348  -0.01427  0.008656  -0.018  0.293  0.8605
6.408e+09  0.08795  0.8041  -0.02051  -0.0001235  0.01901  -0.004134  0.5873  0.6889
6.409e+09  0.3805  0.7695  -0.04109  -0.0264  0.0124  -0.01025  0.794  0.4335
6.41e+09  0.6462  0.5275  -0.06099  -0.02257  0.02054  0.02872  0.8592  0.1488
6.411e+09  0.7576  0.3626  -0.008119  -0.06635  -0.01202  0.009031  0.877  -0.122
6.412e+09  0.8787  0.02423  -0.01659  0.005182  0.01857  -0.0221  0.8331  -0.4478
6.414e+09  0.7881  -0.2714  -0.01053  -0.003499  0.02658  -0.0004057  0.6008  -0.6929
6.415e+09  0.6585  -0.5534  -0.006372  -0.01595  -0.03137  0.01255  0.3526  -0.8812
6.416e+09  0.4429  -0.6912  0.04013  0.01909  -0.001549  0.0007716  0.03686  -0.9281
6.418e+09  0.2021  -0.8339  0.02946  -0.03248  0.01903  0.01644  -0.2725  -0.8555
6.419e+09  -0.08095  -0.8064  -0.01401  0.02719  0.017  0.0003456  -0.5708  -0.698
6.42e+09  -0.3639  -0.7405  0.001896  -0.01812  0.02822  0.00183  -0.7205  -0.4185
6.421e+09  -0.6283  -0.5593  0.0339  -0.04568  -0.03914  0.01841  -0.8374  -0.1686
6.422e+09  -0.7995  -0.3137  0.008142  -0.0168  -0.02533  0.02418  -0.8482  0.07839
6.424e+09  -0.824  0.0001291  -0.02916  -0.01749  0.03335  -0.005709  -0.7864  0.3806
6.425e+09  -0.8203  0.2379  0.0169  -0.0322  -0.0218  0.04496  -0.5743  0.6698
6.426e+09  -0.6891  0.5456  -0.03932  0.04167  -0.03576  -0.01125  -0.3794  0.7801
6.428e+09  -0.4184  0.7101  -0.0001541  -0.03048  0.04114  0.02644  -0.05987  0.8667
6.429e+09  -0.1439  0.8141  0.009289  0.04236  0.02224  0.01132  0.2449  0.7973
6.43e+09  0.128  0.7964  -0.02347  0.01069  0.03317  -0.005039  0.5036  0.7072
6.431e+09  0.4194  0.711  -0.01352  0.005487  -0.01325  -0.03477  0.7555  0.4971
6.432e+09  0.6317  0.5689  -0.0445  -0.0267  -0.007987  0.02499  0.8394  0.2143
6.434e+09  0.8209  0.2734  -0.02481  -0.004138  -0.05669  -0.01342  0.8141  -0.09871
6.435e+09  0.8555  0.02111  -0.01797  0.01372  -0.01909  0.004095  0.7954  -0.336
6.436e+09  0.8464  -0.3064  0.01323  -0.01091  -0.02988  -0.03938  0.5668  -0.6377
6.438e+09  0.6626  -0.57  -0.0005296  0.02562  0.0003638  0.009133  0.344  -0.7947
6.439e+09  0.4332  -0.7287  0.01314  -0.02794  0.00364  0.01283  0.1075  -0.8757
6.44e+09  0.1586  -0.8382  -0.004792  -0.002691  -0.02274  0.004884  -0.2002  -0.8444
6.441e+09  -0.185  -0.8472  -0.03289  0.003209  0.02311  0.03383  -0.4818  -0.6807
6.442e+09  -0.4194  -0.722  -0.03239  -0.03595  -0.001212  0.01587  -0.6893  -0.4745
6.444e+09  -0.7093  -0.5302  -0.006646  0.04594  0.005441  0.002781  -0.7905  -0.2206
6.445e+09  -0.8466  -0.2863  0.02016  0.01174  0.02664  0.01137  -0.8297  0.04747
6.446e+09  -0.8671  -0.01917  -0.0203  -0.0353  0.06627  0.007713  -0.7303  0.3761
6.448e+09  -0.806  0.3386  -0.01013  -0.0214  -0.01918  -0.01831  -0.59  0.5589
6.449e+09  -0.6701  0.5274  0.05187  0.02077  -0.008187  -0.01888  -0.3249  0.7651
6.45e+09  -0.4692  0.6724  -0.02642  0.0002398  -0.05357  -0.04048  -0.07262  0.857
6.451e+09  -0.11  0.8553  0.03706  0.0008625  0.0143  -0.01929  0.1656  0.8044
6.452e+09  0.1153  0.8472  0.01421  0.008711  -0.04378  -0.01861  0.4671  0.6472
6.454e+09  0.463  0.7394  -0.01693  0.02057  -0.01713  -0.01459  0.6812  0.4603
6.455e+09  0.6613  0.5831  -0.03097  -0.007769  -0.01411  -0.03855  0.7812  0.1888
6.456e+09  0.8193  0.2968  -0.009351  0.01932  -0.0483  0.005531  0.864  -0.0952
6.458e+09  0.8705  -0.02422  0.0001167  0.01677  0.02012  0.01866  0.7444  -0.3621
6.459e+09  0.8472  -0.3349  0.02161  -0.04036  -0.01832  8.936e-05  0.6149  -0.5463
6.46e+09  0.6656  -0.5729  0.00319  -0.01581  -0.01182  -0.02821  0.2972  -0.7575
6.461e+09  0.4182  -0.7584  0.02595  0.006821  -0.01016  0.01025  0.03925  -0.8201
6.462e+09  0.1227  -0.8506  0.007133  0.04205  0.01326  -0.01244  -0.1846  -0.7548
6.464e+09  -0.2134  -0.8855  0.03542  -0.02441  0.02664  -0.0561  -0.4715  -0.646
6.465e+09  -0.409  -0.7731  0.02857  -0.00542  -0.03174  0.007399  -0.6458  -0.5032
6.466e+09  -0.683  -0.5618  0.0006817  -0.02711  -0.02917  0.03001  -0.7374  -0.2078
6.468e+09  -0.8428  -0.2691  -0.0304  -0.01809  0.00343  0.01233  -0.8329  0.06557
6.469e+09  -0.8841  0.07597  -0.01819  0.01437  -0.02815  -0.02799  -0.7274  0.3129
6.47e+09  -0.8288  0.3383  0.02059  0.02002  0.00986  0.0398  -0.5604  0.5664
6.471e+09  -0.684  0.5865  0.02882  0.005971  -0.003858  -0.03281  -0.3131  0.7338
6.472e+09  -0.41  0.7723  -0.01236  0.02303  0.01989  0.01625  -0.08774  0.7495
6.474e+09  -0.1444  0.9083  -0.01312  -0.03224  -0.02926  0.005858  0.1834  0.7478
6.475e+09  0.2399  0.8688  -0.04572  -0.03084  0.08805  0.003645  0.4817  0.6166
6.476e+09  0.4606  0.7609  -0.03412  -0.008005  0.02478  -0.003154  0.5971  0.4423
6.478e+09  0.7065  0.525  0.01124  -0.01577  -0.00374  -0.001397  0.751  0.1714
6.479e+09  0.8316  0.2664  -0.007634  0.0007541  -0.003055  0.009833  0.7979  -0.06803
6.48e+09  0.9038  -0.0441  0.03295  -0.02296  -0.00617  -0.001408  0.7348  -0.3544
6.481e+09  0.8426  -0.333  -0.008549  0.003899  -0.0006734  -0.008412  0.5436  -0.5466
6.482e+09  0.6414  -0.6255  -0.01719  -0.01524  0.02545  0.007176  0.3393  -0.6761
6.484e+09  0.342  -0.7837  0.0445  0.004147  -0.02523  0.0183  0.0533  -0.7568
6.485e+09  0.1203  -0.918  0.02547  0.007963  -0.005197  -0.02673  -0.2251  -0.7176
6.486e+09  -0.251  -0.8872  -0.0455  -0.01087  0.01155  -0.01072  -0.4307  -0.6145
6.488e+09  -0.4611  -1.454  0.007253  -0.01979  0.6036  0.3708  -0.6244  -0.4421
6.489e+09  -0.6777  -0.5464  -0.002545  0.0011  0.009073  0.01674  -0.8073  -0.1785
6.49e+09  -0.8328  -0.2179  0.04139  0.02369  -0.008471  0.009862  -0.7488  0.05278
6.491e+09  -0.8936  0.09163  -0.01696  -0.01372  0.002849  0.01328  -0.6626  0.3146
6.492e+09  -0.8163  0.3251  0.009485  -0.001729  0.03963  -0.01456  -0.5127  0.5475
6.494e+09  -0.5827  0.6174  -0.01006  -0.01812  -0.0769  0.02246  -0.3213  0.6867
6.495e+09  -0.352  0.8266  0.01328  0.007384  -0.0001185  0.04255  -0.04993  0.7441
6.496e+09  -0.1255  0.9126  0.003455  0.02253  -0.006905  -0.03055  0.1974  0.7389
6.498e+09  0.1951  0.8802  -0.01979  -0.002228  0.006391  0.008138  0.4866  0.611
6.499e+09  0.4925  0.6839  -0.01337  -0.004877  -0.003499  0.004405  0.6274  0.3979
6.5e+09  0.7502  0.5411  0.001498  0.009886  0.028  0.04259  0.7305  0.1428
6.501e+09  0.8727  0.1884  0.02006  -0.004875  -0.04977  -0.05671  0.7482  -0.1175
6.502e+09  0.972  -0.1103  0.01293  0.01012  -0.002141  -0.03149  0.6292  -0.3644
6.504e+09  0.8249  -0.4463  0.006809  0.005147  -0.01896  -0.03348  0.5159  -0.5768
6.505e+09  0.6157  -0.6959  -0.01559  0.02075  0.03238  -0.02586  0.2488  -0.7193
6.506e+09  0.3507  -0.8761  0.03395  0.01522  -0.03413  -0.01269  0.02213  -0.7796
6.508e+09  0.05828  -0.9647  -0.01274  0.03183  0.04267  -0.02658  -0.255  -0.7264
6.509e+09  -0.2832  -0.9021  -0.0007069  -0.009389  -0.03515  0.01846  -0.4716  -0.6156
6.51e+09  -0.5921  -0.6704  0.003939  -0.01044  0.01158  -0.004307  -0.6289  -0.3982
6.511e+09  -0.8138  -0.4573  0.03018  -0.02482  -0.01184  -0.004466  -0.7498  -0.14
6.512e+09  -0.908  -0.1586  -0.03262  0.008634  0.004504  0.004926  -0.7855  0.1375
6.514e+09  -0.9445  0.1151  0.05628  -0.03071  -0.008681  -0.01292  -0.6352  0.3605
6.515e+09  -0.8029  0.4542  0.02401  -0.01415  -0.008143  0.008907  -0.4288  0.5585
6.516e+09  -0.5857  0.7056  -0.05174  -0.004702  -0.01293  -0.0315  -0.2574  0.723
6.518e+09  -0.3358  0.8881  -0.002461  -0.0121  0.0348  -0.02631  -0.03189  0.7326
6.519e+09  0.03939  0.9398  -0.02193  -0.04906  -0.0006923  -0.02566  0.2784  0.6879
6.52e+09  0.3503  0.8315  -0.01277  -0.002367  0.007994  -0.004216  0.503  0.586
6.521e+09  0.6327  0.6776  0.01211  -0.02012  -0.03852  -0.004067  0.6801  0.3502
6.522e+09  0.8488  0.4227  -0.009543  -0.03724  -0.02477  0.001227  0.7036  0.07703
6.524e+09  0.9463  0.1009  -0.007338  0.02603  -0.003266  -0.04383  0.738  -0.1711
6.525e+09  0.9412  -0.2139  -0.02857  0.006441  -0.02046  0.02111  0.6353  -0.3886
6.526e+09  0.7767  -0.47  -0.04581  0.007813  0.03947  -0.002599  0.3904  -0.5792
6.528e+09  0.6171  -0.7557  0.01143  -0.02461  -0.01613  -0.007361  0.2267  -0.7078
6.529e+09  0.2786  -0.909  0.02678  -0.0189  0.001844  -0.006538  -0.06568  -0.6835
6.53e+09  -0.1148  -0.9672  -0.03013  -0.003085  0.01947  0.04545  -0.2745  -0.6465
6.531e+09  -0.3745  -0.779  -0.001444  -0.03439  -0.02921  0.007484  -0.4757  -0.4837
6.532e+09  -0.6574  -0.6999  0.004906  0.01523  -0.03068  0.00806  -0.5759  -0.3086
6.534e+09  -0.8447  -0.341  -0.00477  -0.005592  0.01133  -0.009553  -0.6104  -0.09751
6.535e+09  -0.9391  -0.0933  0.01034  0.04796  0.03082  -0.005688  -0.6239  0.1294
6.536e+09  -0.8972  0.2362  -0.03271  -0.000386  -0.006963  -0.01288  -0.5578  0.3099
6.538e+09  -0.7631  0.5209  -0.007135  -0.01827  0.0286  0.02273  -0.4569  0.4823
6.539e+09  -0.5099  0.7808  0.01552  0.003986  -0.02701  0.007974  -0.2828  0.5893
6.54e+09  -0.1803  0.9672  -0.01212  -0.01174  0.004528  -0.03519  -0.05858  0.6989
6.541e+09  0.1121  0.9492  -0.001076  0.0005654  -0.00973  -0.04039  0.1646  0.6591
6.542e+09  0.4601  0.818  0.03209  0.02029  0.01187  -0.00454  0.4182  0.5867
6.544e+09  0.7307  0.6235  -0.006177  -0.002861  -0.0318  0.01526  0.5839  0.3681
6.545e+09  0.8595  0.3313  0.002272  -0.01002  -0.02611  -0.01763  0.718  0.173
6.546e+09  0.9334  0.00291  -0.007887  0.04676  0.02959  -0.02185  0.7134  -0.07274
6.548e+09  0.8701  -0.3242  0.01043  0.03028  -0.008658  -0.007234  0.6648  -0.2953
6.549e+09  0.7523  -0.6139  -0.01271  0.01484  -0.006841  0.003173  0.5161  -0.5448
6.55e+09  0.4304  -0.7744  0.007846  0.01048  -0.009227  0.006578  0.297  -0.6684
