# Hz S RI R 50
6.25e+09  -0.6351  0.5296  -0.00266  0.009859  -0.05346  0.02508  0.1594  0.4759
6.251e+09  -0.4006  0.7046  -0.0216  0.002902  -0.01739  0.01097  0.3719  0.4215
6.252e+09  -0.1752  0.8273  -0.003204  -0.005363  0.0281  0.02104  0.5037  0.2418
6.254e+09  0.1136  0.856  -0.0337  0.03162  -0.01601  0.01164  0.6125  0.01813
6.255e+09  0.4192  0.7318  -0.002846  0.001206  -0.0453  0.04181  0.5969  -0.2038
6.256e+09  0.6143  0.5256  -0.0261  -0.003152  0.03757  -0.03416  0.466  -0.4214
6.258e+09  0.7375  0.3047  -0.01335  0.003075  -0.006408  0.006297  0.2928  -0.6235
6.259e+09  0.7934  0.04324  -0.007027  -0.009131  0.04656  0.01953  0.05624  -0.6593
6.26e+09  0.7537  -0.2509  -0.003263  -0.01302  0.07119  0.02401  -0.2261  -0.6743
6.261e+09  0.6078  -0.494  0.03962  0.006352  0.01677  0.004307  -0.4285  -0.5219
6.262e+09  0.4054  -0.705  -0.02477  0.0005849  0.04046  0.02088  -0.6029  -0.3368
6.264e+09  0.1546  -0.7601  0.03723  -0.004459  0.03615  0.007626  -0.7126  -0.1322
6.265e+09  -0.1597  -0.799  -0.008946  -0.02306  0.002137  0.0375  -0.7279  0.1626
6.266e+09  -0.3839  -0.6689  -0.009451  -0.03917  -0.002816  0.0136  -0.6202  0.3849
6.268e+09  -0.6195  -0.5937  -0.03629  -0.008662  -0.02279  -0.04087  -0.4492  0.6029
6.269e+09  -0.7691  -0.2821  0.02888  -0.002299  0.009292  -0.008825  -0.1735  0.6798
6.27e+09  -0.7848  -0.002471  -0.00538  0.01466  -0.02935  -0.01845  0.04952  0.7355
6.271e+09  -0.7386  0.227  0.02822  -0.0001069  0.004392  0.006562  0.3268  0.6771
6.272e+09  -0.6647  0.509  0.03146  0.005839  0.01475  0.0002983  0.516  0.5204
6.274e+09  -0.4051  0.6487  -0.005081  0.02245  -0.03151  0.04301  0.7043  0.3
6.275e+09  -0.1688  0.7975  -0.01969  -0.004244  0.03172  0.06149  0.768  0.04211
6.276e+09  0.1158  0.8124  -0.04874  -0.005061  -0.02386  0.03142  0.7504  -0.2271
6.278e+09  0.4041  0.7141  -0.01955  -0.01108  0.02663  -0.06131  0.6264  -0.4428
6.279e+09  0.5569  0.4779  -0.02092  -0.007011  -0.00274  -0.01824  0.4301  -0.6585
6.28e+09  0.6957  0.3124  -0.00517  -0.01462  0.01748  0.02739  0.1717  -0.7346
6.281e+09  0.7853  0.0249  -0.02666  0.042  -0.02216  -0.02606  -0.1213  -0.794
6.282e+09  0.7375  -0.2533  0.01454  0.01444  0.06259  -0.02968  -0.3683  -0.7337
6.284e+09  0.6477  -0.4475  -0.007165  -0.03306  0.05826  0.01732  -0.5672  -0.5471
6.285e+09  0.4453  -0.6926  -0.03022  -0.02406  0.06588  -0.06218  -0.759  -0.3
6.286e+09  0.1498  -0.8095  0.01753  0.02062  -0.01074  0.005394  -0.7634  -0.02272
6.288e+09  -0.1212  -0.722  0.01484  -0.003009  -0.006798  -0.03761  -0.7585  0.2447
6.289e+09  -0.3612  -0.6767  0.01887  0.003372  0.005619  -0.0102  -0.633  0.5019
6.29e+09  -0.6777  -0.5565  0.02118  0.00605  0.008482  0.0004303  -0.3833  0.7076
6.291e+09  -0.7339  -0.2515  -0.01019  0.02292  0.04289  -0.001882  -0.1857  0.7677
6.292e+09  -0.7934  -0.04992  0.006466  -0.02078  0.01247  -0.01243  0.1141  0.8052
6.294e+09  -0.7689  0.3287  0.01773  -0.009123  0.02705  0.01386  0.3828  0.7008
6.295e+09  -0.586  0.4822  0.01309  -0.001109  0.007928  -0.01536  0.6099  0.5297
6.296e+09  -0.3911  0.6765  -0.009389  -0.01171  -0.02665  0.03735  0.769  0.3005
6.298e+09  -0.07729  0.7914  0.003155  0.02111  0.02608  -0.01935  0.8194  0.02223
6.299e+09  0.1938  0.8225  0.01158  -0.01795  -0.02488  0.03261  0.7873  -0.2483
6.3e+09  0.4326  0.6943  0.004998  0.02056  -0.01113  -0.005008  0.6586  -0.5274
6.301e+09  0.6734  0.491  0.01133  0.009702  -0.03031  -0.07015  0.4416  -0.7175
6.302e+09  0.7899  0.256  0.02338  0.002102  0.06232  -0.04402  0.1719  -0.8176
6.304e+09  0.7756  0.005564  -0.005484  -0.01183  6.874e-05  0.03893  -0.1411  -0.8427
6.305e+09  0.7392  -0.3104  0.001364  -0.008659  -0.001224  -0.01858  -0.3731  -0.7375
6.306e+09  0.6293  -0.5585  -0.007095  -0.01146  -0.01685  -0.01517  -0.6627  -0.552
6.308e+09  0.3242  -0.7078  0.01877  0.0178  0.009495  0.02324  -0.8027  -0.2838
6.309e+09  0.07534  -0.8396  -0.01296  0.01018  -0.008553  0.04208  -0.8516  -0.008801
6.31e+09  -0.2196  -0.8004  -0.01722  -0.005325  -0.009898  0.03322  -0.8233  0.2992
6.311e+09  -0.4604  -0.6543  -0.002152  -0.003821  -0.0142  0.002419  -0.6818  0.5766
6.312e+09  -0.6588  -0.4564  -0.02769  -0.0222  0.0307  0.009606  -0.4268  0.7195
6.314e+09  -0.7627  -0.2129  -0.004484  0.02824  0.01043  0.04863  -0.1458  0.8342
6.315e+09  -0.8342  0.04447  0.0001196  -0.01378  0.03395  -0.0004671  0.1532  0.8809
6.316e+09  -0.7333  0.3877  -0.001503  0.0046  -0.02799  0.0005211  0.4384  0.7375
6.318e+09  -0.5591  0.5773  -0.01377  -0.02853  -0.06429  0.03896  0.6621  0.543
6.319e+09  -0.3503  0.7523  -0.03326  0.00157  0.01302  0.01301  0.8203  0.3095
6.32e+09  -0.06288  0.8417  -0.005512  0.006875  -0.003902  0.008884  0.914  -0.005616
6.321e+09  0.2377  0.8205  -0.01802  0.0003583  0.02075  -0.02105  0.8013  -0.2936
6.322e+09  0.4921  0.6294  0.01278  0.01224  0.01785  -0.01143  0.7  -0.5673
6.324e+09  0.6886  0.431  0.01837  -0.02301  0.02798  0.03202  0.4525  -0.7735
6.325e+09  0.7954  0.2169  -0.002675  -0.02335  0.02793  0.01379  0.1967  -0.8658
6.326e+09  0.7844  -0.09185  0.01113  0.007972  0.0309  0.02899  -0.1526  -0.8671
6.328e+09  0.7171  -0.4003  0.006589  -0.01659  -0.01929  0.02263  -0.4173  -0.7911
6.329e+09  0.5513  -0.621  0.007006  0.002999  0.01102  -0.02175  -0.6955  -0.578
6.33e+09  0.302  -0.7274  -0.00447  -0.01282  -0.0242  0.04951  -0.8071  -0.3493
6.331e+09  -0.04692  -0.82  -0.002067  -0.04016  -0.01377  -0.01347  -0.9006  -0.04201
6.332e+09  -0.2604  -0.7562  0.002386  -0.02464  -0.01929  0.04102  -0.8391  0.2787
6.334e+09  -0.5705  -0.627  0.005307  0.001499  0.001605  0.04023  -0.7193  0.5735
6.335e+09  -0.7516  -0.4381  0.004402  -0.01159  -0.01146  0.08059  -0.4932  0.7784
6.336e+09  -0.8461  -0.1292  0.01407  0.03392  -0.05775  0.006781  -0.1916  0.9198
6.338e+09  -0.824  0.1886  0.003378  -0.008629  -0.003004  0.02342  0.09404  0.9083
6.339e+09  -0.7236  0.3948  0.02685  0.02065  -0.03288  0.05398  0.4385  0.8243
6.34e+09  -0.5053  0.6453  -0.02355  0.004779  0.02341  0.01299  0.697  0.6203
6.341e+09  -0.2784  0.7529  -0.024  0.0266  0.0007145  0.03271  0.8493  0.3356
6.342e+09  0.05711  0.8332  0.007368  0.004462  -0.00372  -0.002351  0.9337  0.06346
6.344e+09  0.3355  0.7638  -0.0006428  -0.0007294  0.009898  0.06129  0.8762  -0.2211
6.345e+09  0.5697  0.5895  0.04069  -0.03101  -0.0325  0.01608  0.7289  -0.5445
6.346e+09  0.7061  0.3516  -0.000892  0.006394  -0.005059  0.02958  0.5055  -0.7925
6.348e+09  0.806  0.08547  0.02257  -0.01095  -0.001348  0.0001093  0.2141  -0.917
6.349e+09  0.8218  -0.232  -0.01011  -0.01439  -0.03619  0.007223  -0.0678  -0.9272
6.35e+09  0.6579  -0.489  0.03814  -0.03246  0.02977  0.005603  -0.4562  -0.8149
6.351e+09  0.5084  -0.6403  0.01387  -0.02419  0.007312  -0.02902  -0.6858  -0.6495
6.352e+09  0.249  -0.8155  -0.0006999  0.003878  -0.05205  0.0338  -0.8826  -0.3563
6.354e+09  -0.09043  -0.8867  -0.01622  -0.02226  -0.02471  0.01103  -0.9347  -0.05684
6.355e+09  -0.3281  -0.7468  -0.02207  -0.02662  0.01229  0.03919  -0.9249  0.2684
6.356e+09  -0.6212  -0.5468  -0.001038  -0.004388  0.01542  0.004038  -0.7701  0.5328
6.358e+09  -0.8318  -0.308  -0.01483  -0.01338  0.0001372  0.02365  -0.513  0.7991
6.359e+09  -0.8559  -0.01188  0.05143  -0.01029  -0.0508  -0.00902  -0.2514  0.8862
6.36e+09  -0.8057  0.2647  -0.01348  -0.01293  0.01534  -0.0116  0.08397  0.9463
6.361e+09  -0.6553  0.5181  0.004957  -0.01867  0.003712  0.004875  0.4155  0.8519
6.362e+09  -0.4071  0.7263  -0.02372  -0.01684  0.01455  0.03207  0.6556  0.6578
6.364e+09  -0.1089  0.8277  0.01775  0.02986  0.01161  -0.01598  0.8517  0.3943
6.365e+09  0.1421  0.834  0.004158  0.02848  -0.01105  0.00867  0.961  0.08305
6.366e+09  0.4055  0.7353  0.02797  -0.01251  0.05678  0.00553  0.9583  -0.2429
6.368e+09  0.688  0.5681  -0.006113  0.02348  -0.0004902  -0.02702  0.756  -0.5366
6.369e+09  0.7918  0.274  -0.002736  -0.03291  -0.001847  -0.02024  0.5128  -0.7728
6.37e+09  0.797  -0.04455  -0.027  -0.008202  -0.0251  -0.01619  0.2537  -0.9238
6.371e+09  0.8026  -0.3213  0.02143  -0.01573  -0.01597  0.03073  -0.09432  -0.9612
6.372e+09  0.6455  -0.5676  0.00204  0.001657  -0.0274  0.008282  -0.3692  -0.8868
6.374e+09  0.3854  -0.6939  -0.006276  0.03104  -0.01005  0.04464  -0.6477  -0.6493
6.375e+09  0.1033  -0.8161  -0.002637  0.04359  -0.007917  0.03777  -0.8641  -0.4012
6.376e+09  -0.2432  -0.8559  -0.04866  -0.00846  -0.01513  -0.0166  -0.8896  -0.06718
6.378e+09  -0.4941  -0.7053  0.02223  0.04276  -0.003034  0.004776  -0.8927  0.2012
6.379e+09  -0.6741  -0.4956  0.02321  -0.006157  -0.008554  0.03588  -0.8095  0.5286
6.38e+09  -0.8465  -0.1692  -0.01642  0.01985  0.003216  -0.0296  -0.549  0.7541
6.381e+09  -0.8531  0.06924  -0.01712  0.008565  -0.00486  0.03232  -0.2753  0.9155
6.382e+09  -0.7622  0.3835  -0.0236  -0.007055  0.02499  -0.01278  0.06832  0.8983
6.384e+09  -0.6033  0.6057  0.01379  0.02782  0.04137  -0.004423  0.3741  0.9015
6.385e+09  -0.3498  0.7927  -0.008444  -0.0639  -0.02087  0.02507  0.6373  0.6966
6.386e+09  -0.05601  0.8391  0.008494  -0.0007729  0.01617  -0.04814  0.8464  0.43
6.388e+09  0.2333  0.8005  0.01251  -0.005325  -0.02437  -0.01755  0.9359  0.1212
6.389e+09  0.5187  0.6933  -0.01202  0.01661  -0.0129  0.01944  0.8948  -0.2035
6.39e+09  0.7034  0.4413  0.04095  0.01425  0.007931  -0.03292  0.7631  -0.5244
6.391e+09  0.8494  0.146  -0.012  0.01484  -0.04713  -0.04333  0.5922  -0.7406
6.392e+09  0.8393  -0.1538  0.0257  0.03814  -0.009945  -0.01131  0.2791  -0.9172
6.394e+09  0.7293  -0.4216  0.02015  0.02999  0.008336  0.04098  -0.05686  -0.9133
6.395e+09  0.5314  -0.6948  0.01682  -0.006959  -0.03314  -0.01044  -0.3653  -0.859
6.396e+09  0.3434  -0.8538  0.0104  -0.03458  0.01426  -0.02713  -0.631  -0.6859
6.398e+09  -0.03298  -0.8964  0.01195  0.007831  -0.01945  0.02958  -0.8253  -0.4444
6.399e+09  -0.2996  -0.8287  0.03535  0.01799  -0.01678  0.01007  -0.9072  -0.1121
6.4e+09  -0.5669  -0.6174  0.04347  -0.01756  0.006406  0.01619  -0.8384  0.1584
6.401e+09  -0.7406  -0.4175  0.0003682  -0.02029  0.003225  0.02454  -0.7852  0.4783
6.402e+09  -0.8046  -0.08675  0.01262  0.01597  -0.0245  -0.01433  -0.5959  0.7132
6.404e+09  -0.8511  0.2093  0.005584  -0.02101  0.003334  -0.0209  -0.3343  0.8474
6.405e+09  -0.7109  0.4107  0.04645  -0.02067  -0.01673  0.0145  -0.01691  0.9072
6.406e+09  -0.5274  0.6525  0.01161  -0.008938  0.01929  -0.01757  0.3075  0.8984
6.408e+09  -0.2825  0.8257  -0.02473  0.04733  -0.01617  0.04996  0.5967  0.7102
6.409e+09  0.03712  0.8507  0.008768  -0.02337  0.01415  -0.002525  0.779  0.5173
6.41e+09  0.3361  0.7978  -0.03536  0.01854  -0.003257  -0.03951  0.8907  0.1769
6.411e+09  0.5832  0.6098  -0.007052  0.009146  -0.04332  -0.009629  0.9085  -0.1599
6.412e+09  0.7687  0.3614  0.02877  0.04039  -0.04096  0.01027  0.7553  -0.4186
6.414e+09  0.8417  0.0605  -0.02005  -0.004164  -0.03419  0.02437  0.5879  -0.6575
6.415e+09  0.8563  -0.2384  0.03074  -0.035  -0.007923  0.01663  0.2997  -0.8204
6.416e+09  0.7081  -0.4801  -0.02546  0.02292  0.003841  -0.003698  -0.008749  -0.855
6.418e+09  0.529  -0.6939  0.004249  0.0101  -0.01848  0.04508  -0.2759  -0.875
6.419e+09  0.2714  -0.8194  -0.02418  0.004462  -0.03409  0.04077  -0.5561  -0.6856
6.42e+09  -0.03474  -0.8115  -0.004814  0.03526  0.001799  0.009598  -0.7728  -0.4977
6.421e+09  -0.3672  -0.7758  0.02486  0.008432  0.005741  -0.0355  -0.9019  -0.1902
6.422e+09  -0.6062  -0.5869  0.0281  0.03082  0.0003046  0.02114  -0.8966  0.147
6.424e+09  -0.7167  -0.3732  -0.003893  -0.03028  -0.02028  -0.0009137  -0.7678  0.4024
6.425e+09  -0.8214  -0.01891  0.03766  0.02674  0.02994  0.02055  -0.6012  0.6316
6.426e+09  -0.8293  0.1993  0.04985  -0.01537  0.009646  -0.01763  -0.2748  0.8093
6.428e+09  -0.6962  0.4719  0.01079  -0.004219  0.01292  0.05135  -0.07986  0.8857
6.429e+09  -0.5227  0.6836  0.003402  -0.03662  0.0393  0.01089  0.2142  0.8016
6.43e+09  -0.1853  0.8314  -0.001932  -0.02201  0.05105  0.005021  0.5096  0.6516
6.431e+09  0.07965  0.8536  -0.04158  0.007237  -0.006363  0.01754  0.7183  0.4627
6.432e+09  0.3723  0.7682  -0.01691  0.02591  0.01323  0.01531  0.8171  0.1849
6.434e+09  0.6049  0.585  0.02121  -0.0002184  -0.02042  -0.02558  0.8342  -0.07674
6.435e+09  0.7555  0.3215  -0.001803  0.02524  0.007613  -0.03561  0.8103  -0.3533
6.436e+09  0.8441  0.1163  0.02867  0.0133  -0.03199  0.009417  0.6037  -0.5746
6.438e+09  0.8064  -0.2165  -0.02693  0.007283  0.04055  0.03182  0.4013  -0.7507
6.439e+09  0.6942  -0.4726  -0.0184  -0.004784  0.0009867  -0.01632  0.07177  -0.8208
6.44e+09  0.4924  -0.686  0.02442  0.01465  -0.01629  0.0146  -0.2475  -0.7817
6.441e+09  0.1594  -0.7949  0.01164  -0.03329  0.009286  -0.008986  -0.4912  -0.6637
6.442e+09  -0.09321  -0.8251  0.0201  -0.009086  -0.008183  -0.04435  -0.6855  -0.4819
6.444e+09  -0.4308  -0.774  -0.006499  0.01772  0.06067  0.005983  -0.8236  -0.1643
6.445e+09  -0.6126  -0.608  -0.03603  -0.02096  -0.00651  -0.02654  -0.8345  0.1163
6.446e+09  -0.7728  -0.301  -0.03071  -0.03055  0.01277  -0.0002552  -0.7908  0.3343
6.448e+09  -0.8259  -0.02682  0.02756  0.02717  0.009861  -0.01254  -0.591  0.6441
6.449e+09  -0.8177  0.2756  -0.04741  0.02332  0.01271  -0.03029  -0.3577  0.7526
6.45e+09  -0.6444  0.5479  0.02279  0.03488  -0.04869  9.018e-05  -0.05174  0.8533
6.451e+09  -0.4362  0.6812  -0.0008726  -0.01852  0.0004826  0.04314  0.2227  0.826
6.452e+09  -0.1419  0.823  -0.03002  0.02302  0.01455  -0.08663  0.51  0.6817
6.454e+09  0.09571  0.8072  -0.01909  -0.04248  -0.02122  -0.01204  0.658  0.4448
6.455e+09  0.4502  0.7038  0.005331  -0.02911  -0.01476  0.02097  0.7946  0.2274
6.456e+09  0.6678  0.5348  -0.02863  -0.0201  -0.0006721  0.005904  0.8451  -0.08698
6.458e+09  0.7576  0.3308  0.01389  0.02796  -0.001378  -0.04531  0.7235  -0.3275
6.459e+09  0.8098  0.01566  -0.0006124  -0.05083  0.01177  -0.005639  0.5487  -0.567
6.46e+09  0.7965  -0.2848  -0.019  0.02226  -0.0138  -0.01948  0.3168  -0.7807
6.461e+09  0.6509  -0.5207  -0.06141  -0.01452  -0.04319  0.02243  0.07562  -0.7942
6.462e+09  0.4537  -0.7256  -0.008326  -0.001118  0.005315  0.02371  -0.2318  -0.8169
6.464e+09  0.1941  -0.8409  0.006817  -0.03749  -0.02565  -0.01053  -0.4724  -0.6332
6.465e+09  -0.08656  -0.789  0.02498  0.007846  0.007968  -0.04097  -0.69  -0.4642
6.466e+09  -0.3891  -0.7468  -0.01524  0.02171  -0.001407  0.0224  -0.7876  -0.2017
6.468e+09  -0.5549  -0.5665  0.02359  0.04833  -0.007615  0.01336  -0.787  0.0498
6.469e+09  -0.827  -0.3217  -0.001911  -0.006772  0.002857  -0.02577  -0.6849  0.3385
6.47e+09  -0.8291  -0.02358  0.01816  -0.01231  0.01583  0.003355  -0.5644  0.5506
6.471e+09  -0.7981  0.2481  -0.04891  0.006119  0.01479  0.03341  -0.3183  0.7213
6.472e+09  -0.6533  0.5339  -0.006189  0.0117  0.05362  -0.04209  -0.04949  0.8099
6.474e+09  -0.4426  0.7402  0.01862  0.03658  -0.00155  -0.02902  0.1823  0.7609
6.475e+09  -0.1542  0.8184  -0.006517  0.007773  -0.004416  -0.03336  0.4697  0.676
6.476e+09  0.1322  0.8034  0.01498  -0.01044  -0.00903  -0.05675  0.6586  0.4476
6.478e+09  0.42  0.7694  0.01629  0.02135  0.02607  0.007023  0.7928  0.1637
6.479e+09  0.6393  0.5713  -0.003911  -0.03869  0.0526  -0.01518  0.7899  -0.08071
6.48e+09  0.8122  0.3699  0.04009  0.009131  0.0268  -0.02543  0.7391  -0.3197
6.481e+09  0.8434  0.004262  -0.0229  0.0238  -0.01021  -0.002103  0.5143  -0.5716
6.482e+09  0.8045  -0.3321  0.04156  -0.00943  -0.01725  0.01101  0.2935  -0.7012
6.484e+09  0.6201  -0.499  -0.01462  -0.05134  0.02202  -0.01653  0.06392  -0.8004
6.485e+09  0.436  -0.757  -0.007154  -0.01282  0.006303  -0.02146  -0.2131  -0.7219
6.486e+09  0.1491  -0.8456  0.003206  -0.008179  0.007756  -0.01448  -0.4739  -0.6275
6.488e+09  0.03105  -1.545  0.008695  0.01225  -0.4476  -0.5969  -0.6461  -0.4788
6.489e+09  -0.4302  -0.7576  -0.02886  -0.01899  0.006633  0.01492  -0.7739  -0.1875
6.49e+09  -0.6665  -0.5521  -0.005138  -0.03375  0.01517  0.01806  -0.7502  0.1365
6.491e+09  -0.8317  -0.2607  0.02219  0.02397  -0.04978  0.001317  -0.692  0.3427
6.492e+09  -0.7961  -0.002557  -0.006077  -0.01006  -0.00757  0.03338  -0.5364  0.5695
6.494e+09  -0.6755  0.2794  0.04523  0.02391  0.008962  0.1284  -0.3186  0.6921
6.495e+09  -0.6811  0.5475  -0.01207  -0.003317  0.03833  0.03441  -0.00725  0.7484
6.496e+09  -0.457  0.798  0.0113  -0.02936  -0.007036  0.02929  0.2411  0.7178
6.498e+09  -0.1288  0.8489  -0.00953  -0.01577  0.0008456  -0.0575  0.4658  0.6094
6.499e+09  0.2116  0.8595  0.001133  0.05183  0.008913  0.02994  0.6547  0.4282
6.5e+09  0.4028  0.7692  -0.04747  0.01925  0.02731  0.04776  0.7186  0.1797
6.501e+09  0.6715  0.5542  -0.03251  0.03901  -0.03704  -0.03273  0.7413  -0.1172
6.502e+09  0.8489  0.2751  0.009471  -0.01802  0.02619  0.01585  0.6791  -0.3607
6.504e+09  0.9035  -0.01634  -0.01609  -0.01273  0.02659  0.009743  0.4988  -0.5285
6.505e+09  0.8227  -0.2365  -0.02559  -0.009048  -0.004819  -0.05186  0.3219  -0.6959
6.506e+09  0.6377  -0.6107  -0.002245  -0.01862  0.02609  -0.03087  0.01679  -0.752
6.508e+09  0.4197  -0.6928  -0.005817  0.01027  0.05058  -0.007097  -0.2488  -0.7114
6.509e+09  0.1599  -0.9059  0.01994  0.0291  -0.0603  0.01137  -0.4715  -0.6053
6.51e+09  -0.1891  -0.8748  0.006698  0.02469  0.01551  -0.0146  -0.6587  -0.3985
6.511e+09  -0.4611  -0.7738  0.01168  -0.02157  0.02277  -0.02532  -0.7598  -0.1384
6.512e+09  -0.705  -0.5648  -0.01189  -0.005502  -0.005476  -0.02091  -0.7375  0.1223
6.514e+09  -0.821  -0.2573  0.02993  -0.004759  -0.03893  0.03323  -0.6303  0.3159
6.515e+09  -0.8894  0.05698  -0.00408  -0.006301  -0.02254  -0.03931  -0.5205  0.5967
6.516e+09  -0.8065  0.3085  0.04121  -0.01337  0.007291  -0.03187  -0.2354  0.687
6.518e+09  -0.7129  0.5808  -0.04204  0.0219  0.02759  0.03993  0.007879  0.7568
6.519e+09  -0.3609  0.8032  -0.001394  -0.005399  0.02246  -0.02189  0.2483  0.6642
6.52e+09  -0.1278  0.9265  -0.02426  -0.01298  0.04812  0.004748  0.5032  0.5529
6.521e+09  0.2631  0.8595  -0.01301  -0.03295  -0.01694  -0.005236  0.6202  0.3434
6.522e+09  0.4987  0.7318  0.00188  0.0162  0.04037  -0.008708  0.7676  0.08767
6.524e+09  0.7349  0.5629  0.0157  0.00436  0.02457  -0.03974  0.7166  -0.151
6.525e+09  0.8221  0.224  -0.001697  0.005735  0.02744  -0.004882  0.5995  -0.3907
6.526e+09  0.9673  -0.1194  0.02373  0.04361  0.01979  -0.05881  0.4287  -0.5728
6.528e+09  0.8117  -0.3985  -0.01079  0.01832  -0.0009801  -0.04276  0.1793  -0.7109
6.529e+09  0.6353  -0.674  0.001827  -0.01039  -0.03353  0.03048  -0.01381  -0.6762
6.53e+09  0.3302  -0.824  0.006447  0.03756  0.02156  0.02165  -0.2563  -0.6267
6.531e+09  0.06562  -0.8971  -0.01371  0.002143  -0.02841  -0.07068  -0.4655  -0.5076
6.532e+09  -0.3062  -0.8993  0.04235  3.447e-05  -0.01594  0.008999  -0.6018  -0.3182
6.534e+09  -0.5282  -0.7431  -0.008184  -0.006829  -0.05329  0.07264  -0.6187  -0.1019
6.535e+09  -0.8213  -0.4908  0.05896  0.02512  -0.006893  -0.0298  -0.6358  0.1072
6.536e+09  -0.8792  -0.2412  -0.03852  -0.02023  -0.05425  0.03986  -0.5402  0.2598
6.538e+09  -0.948  0.1734  0.01206  -0.0153  0.001089  -0.001009  -0.442  0.4996
6.539e+09  -0.8437  0.4533  -0.0004096  -0.002342  -0.00648  0.007547  -0.2664  0.6316
6.54e+09  -0.6287  0.7639  -0.01019  0.008576  -0.03262  0.02675  -0.04671  0.6987
6.541e+09  -0.3232  0.9051  0.01879  -0.002195  0.005095  -0.009613  0.181  0.6709
6.542e+09  0.02362  0.9533  -0.01264  0.02477  -0.03205  -0.02594  0.4145  0.5818
6.544e+09  0.279  0.8807  -0.0151  -0.00831  0.01466  0.03477  0.5679  0.3943
6.545e+09  0.6205  0.7308  0.02001  0.002976  0.00452  0.01645  0.6554  0.1421
6.546e+09  0.8033  0.4942  -0.02236  -0.03146  -0.02275  -0.03198  0.7193  -0.07146
6.548e+09  0.9156  0.1063  0.02806  0.02251  -0.02359  -0.04948  0.6722  -0.3423
6.549e+09  0.9415  -0.234  -0.01491  0.03175  -0.02528  -0.01023  0.5162  -0.5209
6.55e+09  0.7877  -0.4694  -0.02106  0.008716  0.01442  -0.02638  0.286  -0.6711
