# Hz S RI R 50
6.25e+09  0.3254  0.9108  -0.004241  -0.01621  -0.0121  -0.01242  0.1491  0.4875
6.251e+09  0.5455  0.7728  -0.03498  0.02085  0.03783  -0.01774  0.3841  0.4327
6.252e+09  0.7411  0.5527  0.01074  -0.003441  0.02676  0.02771  0.5388  0.2139
6.254e+09  0.872  0.2542  -0.02029  0.002216  -0.06066  -0.04638  0.6338  0.007222
6.255e+09  0.9656  -0.05417  -0.02494  -0.01061  0.006669  -0.008754  0.552  -0.208
6.256e+09  0.8302  -0.3682  -0.005601  0.01131  -0.02578  0.01218  0.4624  -0.4443
6.258e+09  0.7154  -0.7221  0.0006207  0.02021  0.07096  0.01811  0.306  -0.5957
6.259e+09  0.3844  -0.8449  -0.003918  -0.01968  0.002809  0.04179  0.04541  -0.6865
6.26e+09  0.03118  -0.9739  -0.01399  -0.02471  -0.01686  0.01814  -0.1917  -0.6458
6.261e+09  -0.2454  -0.8235  0.00788  0.01511  0.04601  -0.0123  -0.4714  -0.5424
6.262e+09  -0.4932  -0.7637  0.02171  0.0339  -0.02354  -0.137  -0.5959  -0.3799
6.264e+09  -0.7295  -0.5401  0.01029  0.0212  -0.009651  -0.07716  -0.6855  -0.1242
6.265e+09  -0.8958  -0.2546  -0.02463  -0.03335  -0.0316  0.006367  -0.7257  0.1849
6.266e+09  -0.8921  0.1501  -0.0267  -0.001253  -0.0097  -0.03205  -0.5821  0.3743
6.268e+09  -0.7512  0.4207  -0.03136  -0.01408  0.05475  0.01277  -0.4496  0.6118
6.269e+09  -0.5699  0.6603  -0.01999  0.02105  0.03021  -0.0382  -0.188  0.7111
6.27e+09  -0.3741  0.8399  -0.01402  0.009819  -0.01458  0.002095  0.08192  0.7364
6.271e+09  -0.03591  0.9175  -0.002423  0.03532  0.01465  -0.02317  0.3381  0.6767
6.272e+09  0.2969  0.9139  -0.005266  -0.02032  -0.02295  0.06629  0.5632  0.503
6.274e+09  0.6237  0.7251  -0.03052  0.001728  -0.04572  0.05399  0.7008  0.2908
6.275e+09  0.7798  0.4991  -0.002612  -0.0116  0.0117  0.02738  0.7538  0.06354
6.276e+09  0.9623  0.1759  -0.01788  0.002721  0.07125  0.02605  0.7289  -0.2441
6.278e+09  0.8969  -0.1426  0.04183  -0.002274  -0.01137  -0.05003  0.6249  -0.446
6.279e+09  0.8156  -0.433  0.01295  -0.006935  0.04342  0.03166  0.4063  -0.604
6.28e+09  0.5548  -0.6879  0.0003296  0.03244  -0.01574  0.04212  0.1648  -0.7397
6.281e+09  0.2459  -0.8741  0.0003436  0.009227  -0.04215  -0.0083  -0.1042  -0.7569
6.282e+09  0.0006  -0.9389  -0.001459  -0.01648  -0.01493  0.0173  -0.3844  -0.704
6.284e+09  -0.345  -0.8673  0.0165  -0.0006062  -0.001912  -0.01268  -0.6046  -0.5145
6.285e+09  -0.5581  -0.6952  0.01189  0.01983  0.02474  0.04305  -0.7578  -0.3028
6.286e+09  -0.8212  -0.4557  -0.01269  0.01933  -0.001136  0.01878  -0.7766  0.01283
6.288e+09  -0.9349  -0.1205  0.01125  -0.01631  0.007252  0.05116  -0.7713  0.2344
6.289e+09  -0.9178  0.1943  0.01544  -0.01475  0.07013  0.02273  -0.635  0.4678
6.29e+09  -0.7608  0.5128  0.02069  -0.01975  -0.0413  0.02413  -0.4383  0.6948
6.291e+09  -0.5555  0.7671  -0.02045  0.02  -0.02099  0.002971  -0.1569  0.8136
6.292e+09  -0.2376  0.8711  0.01632  0.00644  0.006754  -0.05409  0.1357  0.7921
6.294e+09  0.09638  0.978  -0.02558  -0.001254  0.02762  0.04153  0.4153  0.7101
6.295e+09  0.398  0.8253  0.001301  0.04761  -0.05343  -0.01959  0.6291  0.511
6.296e+09  0.6578  0.6418  0.02075  0.026  0.01507  -0.002362  0.7798  0.3023
6.298e+09  0.8835  0.3796  -0.01506  0.01265  0.0279  0.03171  0.8576  -0.007493
6.299e+09  0.9331  0.1014  -0.003823  0.008714  -0.04326  -0.05102  0.7804  -0.277
6.3e+09  0.8749  -0.2434  -0.00783  0.0208  0.02887  0.03026  0.6437  -0.5338
6.301e+09  0.8131  -0.5803  0.03  -0.01191  0.02433  0.00737  0.4391  -0.7538
6.302e+09  0.57  -0.7501  -0.01491  0.007412  0.01276  -0.04586  0.149  -0.8226
6.304e+09  0.2683  -0.8748  -0.02462  0.01509  0.008602  0.03917  -0.1328  -0.8364
6.305e+09  -0.09009  -0.9312  0.0002118  0.0194  4.955e-05  -0.01627  -0.4058  -0.7514
6.306e+09  -0.3872  -0.852  0.005335  0.008939  0.01363  -0.00614  -0.6627  -0.5399
6.308e+09  -0.7276  -0.6385  0.004738  0.01833  -0.000772  -0.027  -0.8168  -0.2764
6.309e+09  -0.9084  -0.3851  -0.007365  0.006895  0.001006  -0.01665  -0.8272  0.02194
6.31e+09  -0.9774  -0.0231  0.01519  0.002747  -0.02899  0.05384  -0.785  0.241
6.311e+09  -0.9432  0.3344  0.01263  -0.0223  0.01219  0.02577  -0.6855  0.5498
6.312e+09  -0.7673  0.6468  0.04116  0.005664  -0.02846  -0.04288  -0.4506  0.7399
6.314e+09  -0.5003  0.8294  0.02338  -0.004331  -0.01822  0.002391  -0.1746  0.8485
6.315e+09  -0.1883  0.8984  0.01136  -0.007124  -0.02273  -0.04348  0.1477  0.8463
6.316e+09  0.1515  0.9879  -0.02083  -0.01403  0.02654  -0.0305  0.4372  0.784
6.318e+09  0.5321  0.8919  -0.01432  -0.02587  0.01301  -0.01734  0.6715  0.5604
6.319e+09  0.7572  0.6629  0.00375  -0.03158  -0.0003572  -0.03434  0.8278  0.3118
6.32e+09  0.9334  0.3228  -0.005355  -0.01706  -0.03892  -0.03246  0.8665  0.004938
6.321e+09  1.038  -0.03698  0.01004  0.0002788  0.03414  0.025  0.8284  -0.2627
6.322e+09  0.9336  -0.4099  0.007042  0.006043  0.02891  0.02551  0.6578  -0.5535
6.324e+09  0.7585  -0.6776  -0.02682  0.01516  -0.001834  -0.03909  0.4508  -0.7631
6.325e+09  0.4867  -0.8908  0.007318  -0.01052  0.05406  0.01997  0.2137  -0.8867
6.326e+09  0.1366  -1.002  -0.006923  -0.02641  -0.04803  -0.0005621  -0.1301  -0.8757
6.328e+09  -0.2453  -1.058  0.01939  0.02378  0.02694  -0.02634  -0.4624  -0.7747
6.329e+09  -0.5489  -0.8271  0.007277  0.02609  0.01859  0.01117  -0.672  -0.6321
6.33e+09  -0.8494  -0.6192  0.004181  0.00668  -0.01996  -0.03029  -0.8233  -0.3377
6.331e+09  -1.047  -0.2912  -0.02548  -0.008626  0.01733  -0.01493  -0.9085  -0.03089
6.332e+09  -1.057  0.07097  0.008851  -0.00323  -0.005879  0.001049  -0.8505  0.2635
6.334e+09  -0.961  0.4018  -0.01518  -0.01104  -0.004241  0.01305  -0.6816  0.5715
6.335e+09  -0.7636  0.7114  -0.01312  0.0001495  0.004444  -0.02022  -0.4612  0.7962
6.336e+09  -0.4398  0.9721  -0.02514  0.04891  7.182e-05  0.01471  -0.2187  0.9067
6.338e+09  -0.1224  1.066  0.01009  0.01244  0.03264  -0.002188  0.1388  0.9003
6.339e+09  0.2968  1.048  0.0143  0.007506  0.002658  -0.03165  0.419  0.7991
6.34e+09  0.6743  0.8532  0.06207  0.00444  0.02416  0.02013  0.6927  0.6546
6.341e+09  0.8892  0.5822  -0.003727  -0.02208  -0.00861  -0.04566  0.8288  0.3447
6.342e+09  1.061  0.2587  -0.02793  -0.01646  -0.03049  0.03172  0.9209  0.07692
6.344e+09  1.111  -0.1649  0.008036  0.005401  0.0832  0.03166  0.8743  -0.2692
6.345e+09  0.9192  -0.5321  -0.0386  0.02622  -0.008758  0.01618  0.7359  -0.5608
6.346e+09  0.7189  -0.8176  -0.009538  0.007789  0.02319  -0.008121  0.4987  -0.7756
6.348e+09  0.4135  -1.066  -0.02757  -0.0007003  -0.02029  0.04877  0.189  -0.9016
6.349e+09  -0.005772  -1.117  -0.01951  -0.01091  -0.005039  0.02508  -0.1198  -0.9391
6.35e+09  -0.3659  -1.112  0.01123  -0.00397  -0.04547  0.004374  -0.3979  -0.8502
6.351e+09  -0.7053  -0.8808  0.01973  0.03845  0.009247  0.01895  -0.6833  -0.6294
6.352e+09  -0.9914  -0.5792  -0.005854  -0.01777  0.01291  -0.01031  -0.8736  -0.3928
6.354e+09  -1.095  -0.1676  0.0003135  -0.01246  -0.05752  -0.01456  -0.8968  -0.06805
6.355e+09  -1.132  0.2097  0.03104  -0.01722  0.02382  0.009676  -0.9404  0.2692
6.356e+09  -1.002  0.5694  -0.01425  0.01157  0.05347  -0.007357  -0.7693  0.566
6.358e+09  -0.7537  0.9121  0.02454  0.01889  -0.04096  -0.02514  -0.5292  0.7761
6.359e+09  -0.366  1.144  0.001901  0.02269  0.009637  -0.0002888  -0.2089  0.8914
6.36e+09  0.06852  1.187  0.01933  -0.01733  0.009468  -0.03849  0.1041  0.963
6.361e+09  0.4702  1.085  -0.02263  0.02383  -0.003314  -0.0006186  0.415  0.8739
6.362e+09  0.8384  0.9242  0.011  -0.006238  -0.004246  0.003537  0.698  0.6851
6.364e+09  1.075  0.5188  0.02326  0.007702  0.004222  -0.02042  0.8773  0.4284
6.365e+09  1.216  0.1256  0.009303  -0.007051  0.02657  -0.0528  0.9182  0.08135
6.366e+09  1.184  -0.3387  -0.00304  0.01535  -0.005697  -0.0001902  0.9019  -0.2289
6.368e+09  1.008  -0.6918  -0.03128  -0.01022  0.02876  0.02747  0.7922  -0.5313
6.369e+09  0.7119  -0.9981  0.008794  -0.01417  0.02363  0.04078  0.4951  -0.7521
6.37e+09  0.3106  -1.238  0.0006274  -0.0215  -0.03031  -0.006236  0.2716  -0.9314
6.371e+09  -0.108  -1.228  -0.006655  -0.004566  0.004508  -0.006613  -0.08157  -0.9567
6.372e+09  -0.5502  -1.151  -0.01987  0.024  -0.03953  0.01604  -0.4001  -0.8481
6.374e+09  -0.9223  -0.8683  0.005707  -0.007214  0.009335  -0.01216  -0.6632  -0.668
6.375e+09  -1.185  -0.5108  -0.008161  0.027  -0.03927  0.01749  -0.8483  -0.4483
6.376e+09  -1.291  -0.1078  -0.01301  0.009916  0.001959  -0.04975  -0.9443  -0.09915
6.378e+09  -1.295  0.4397  0.01673  0.009963  0.01907  0.008882  -0.879  0.2056
6.379e+09  -0.9942  0.8332  0.002981  -0.008311  -0.02929  -0.02785  -0.8019  0.5152
6.38e+09  -0.739  1.15  0.01813  -0.009139  -0.02868  0.03655  -0.5579  0.7443
6.381e+09  -0.2814  1.306  -0.0003668  -1.108e-05  -0.01112  0.06573  -0.2459  0.8809
6.382e+09  0.2435  1.344  -0.01007  0.001005  0.02341  0.04909  0.0594  0.952
6.384e+09  0.6284  1.236  -0.006034  0.01496  0.004474  0.0156  0.3693  0.8676
6.385e+09  1.03  0.8917  0.02135  -0.02156  0.03977  0.05026  0.6595  0.6423
6.386e+09  1.375  0.5395  -0.007527  0.04115  -0.01816  0.02395  0.8193  0.3652
6.388e+09  1.405  0.006043  0.003067  -0.005657  0.05959  -0.004215  0.9265  0.1089
6.389e+09  1.316  -0.4646  0.02988  0.02126  0.02726  -0.01373  0.878  -0.2247
6.39e+09  1.071  -0.9449  0.00543  0.03393  -0.003619  -0.004135  0.7988  -0.4818
6.391e+09  0.6647  -1.24  0.0297  0.002255  0.04167  -0.06087  0.5427  -0.7141
6.392e+09  0.2149  -1.355  -0.0279  0.01368  -0.01475  -0.009232  0.2328  -0.8592
6.394e+09  -0.3202  -1.423  -0.03843  0.0009214  0.018  -0.005017  0.01378  -0.9292
6.395e+09  -0.7854  -1.2  -0.03569  0.04203  0.0536  -0.06417  -0.3301  -0.8418
6.396e+09  -1.192  -0.8631  0.00626  -0.01517  0.01277  0.03414  -0.6017  -0.6786
6.398e+09  -1.457  -0.4201  -0.01224  -0.01825  0.002147  0.0004424  -0.8196  -0.4566
6.399e+09  -1.53  0.0875  0.02516  0.01705  0.007141  0.03867  -0.9265  -0.1291
6.4e+09  -1.369  0.5963  -0.0066  -0.006095  -0.02388  -0.01495  -0.9158  0.1606
6.401e+09  -1.081  1.028  0.03227  0.009484  -0.02007  -0.02755  -0.7899  0.4601
6.402e+09  -0.6398  1.41  0.01562  0.003895  -0.02041  -0.01922  -0.5877  0.7
6.404e+09  -0.04417  1.501  0.05113  0.00235  -0.01432  0.01861  -0.346  0.8721
6.405e+09  0.51  1.465  -0.049  0.02739  0.01503  0.03409  -0.01026  0.9142
6.406e+09  0.9482  1.178  0.0006838  -0.0248  0.01981  0.007657  0.3419  0.8725
6.408e+09  1.312  0.8268  0.01712  -0.0332  -0.05963  -0.03085  0.5426  0.6954
6.409e+09  1.543  0.3292  0.0146  0.002824  -0.01656  0.01061  0.8151  0.4297
6.41e+09  1.567  -0.2558  -0.0138  -0.01625  0.027  0.04712  0.9003  0.1683
6.411e+09  1.428  -0.7851  0.02246  0.01566  -0.01621  0.0402  0.9057  -0.1471
6.412e+09  1.03  -1.201  -0.01235  0.01379  -0.0009186  -0.0272  0.7828  -0.4205
6.414e+09  0.5327  -1.497  -0.0267  0.008486  0.04216  -0.03577  0.5627  -0.6705
6.415e+09  0.01992  -1.663  0.02646  0.02595  0.04108  0.0172  0.3334  -0.8287
6.416e+09  -0.5092  -1.535  0.006969  -0.02305  -0.008695  -0.01216  0.03208  -0.9192
6.418e+09  -1.077  -1.253  -0.003084  0.01475  -0.01178  0.01084  -0.268  -0.8388
6.419e+09  -1.518  -0.8117  -0.01353  0.01738  -0.03426  0.0004528  -0.5811  -0.7267
6.42e+09  -1.734  -0.2043  -0.01469  0.005326  0.007928  1.616e-06  -0.723  -0.5292
6.421e+09  -1.672  0.3234  0.03651  0.01754  -0.0271  0.009202  -0.895  -0.1617
6.422e+09  -1.499  0.9984  0.01126  0.02759  0.001692  0.03055  -0.8664  0.08176
6.424e+09  -1.05  1.418  0.02224  0.009836  0.05657  -0.006165  -0.7792  0.4289
6.425e+09  -0.513  1.717  0.01328  -0.004156  -0.0379  -3.55e-05  -0.5482  0.634
6.426e+09  0.1049  1.789  0.0296  0.009047  -0.05649  0.01978  -0.3879  0.8165
6.428e+09  0.7907  1.667  -0.02442  -0.009235  -0.01986  -0.01277  -0.02368  0.8704
6.429e+09  1.36  1.316  0.03118  -0.03701  0.04185  0.0008802  0.276  0.8639
6.43e+09  1.758  0.815  -0.03864  -0.02881  0.03724  0.02371  0.4987  0.7603
6.431e+09  1.926  0.1037  0.02  -0.03263  0.0202  0.01073  0.7086  0.463
6.432e+09  1.837  -0.4957  -0.00298  -0.01746  -0.02383  0.007449  0.8448  0.2266
6.434e+09  1.514  -1.184  0.02018  0.01475  -0.05358  0.02019  0.85  -0.09768
6.435e+09  1.071  -1.714  -0.002306  0.008822  0.02048  0.02808  0.7487  -0.3662
6.436e+09  0.4304  -1.954  0.03056  -0.01969  -0.02232  0.001703  0.5997  -0.6389
6.438e+09  -0.3541  -1.892  -0.04518  -0.005638  -0.0163  0.01415  0.3761  -0.7743
6.439e+09  -1.033  -1.749  0.01773  -0.01119  0.0205  -0.02648  0.0376  -0.8357
6.44e+09  -1.588  -1.329  -0.001724  0.02647  0.006001  -0.04575  -0.2722  -0.804
6.441e+09  -1.961  -0.6395  0.01073  0.03477  0.008917  -0.01707  -0.46  -0.6847
6.442e+09  -2.082  0.06821  -0.008577  0.004618  0.0619  0.04449  -0.6937  -0.4787
6.444e+09  -1.948  0.811  0.03355  -0.02512  -0.01632  -0.03164  -0.7927  -0.2375
6.445e+09  -1.615  1.518  -0.003664  0.003286  0.02952  0.01435  -0.8694  0.0905
6.446e+09  -0.9252  1.983  -0.04615  -0.01195  -0.03849  0.03682  -0.7337  0.3777
6.448e+09  -0.1517  2.269  -0.02155  -0.03193  0.07807  0.01696  -0.5994  0.6039
6.449e+09  0.5634  2.167  0.02363  -0.03331  -0.02803  0.05582  -0.3322  0.7373
6.45e+09  1.402  1.858  -0.03172  0.02987  0.01932  0.005379  -0.07262  0.8724
6.451e+09  2  1.363  -0.03133  -0.005847  0.01152  -0.0006363  0.2403  0.7893
6.452e+09  2.398  0.525  -0.004807  0.0417  -0.02186  -0.1139  0.4841  0.635
6.454e+09  2.425  -0.3097  -0.01173  0.02756  -0.02919  0.01235  0.6712  0.4797
6.455e+09  2.2  -1.232  -0.05069  -0.02983  -0.01173  -0.01472  0.7811  0.2384
6.456e+09  1.73  -1.926  0.01556  0.02886  0.0137  0.07248  0.8665  -0.08787
6.458e+09  0.8814  -2.495  0.01915  0.0007719  0.0584  -0.01468  0.7105  -0.3315
6.459e+09  -0.1053  -2.622  0.01632  -0.01456  0.02596  -0.0236  0.557  -0.5806
6.46e+09  -0.9822  -2.53  -0.02182  0.02007  -0.02671  -0.03163  0.3348  -0.7213
6.461e+09  -1.902  -1.979  -0.01877  -0.0122  0.01563  0.04243  0.07761  -0.8025
6.462e+09  -2.608  -1.292  -0.02538  -0.01913  0.001237  -0.05816  -0.2253  -0.7658
6.464e+09  -2.962  -0.2812  -0.01157  -0.01059  -0.02157  -0.01976  -0.455  -0.6516
6.465e+09  -2.882  0.729  0.003789  -0.01379  0.001783  0.01717  -0.6884  -0.4229
6.466e+09  -2.523  1.798  -0.0002172  0.0204  0.007707  0.03123  -0.8004  -0.1958
6.468e+09  -1.765  2.706  -0.03255  0.002466  0.1217  -0.04918  -0.7825  0.08689
6.469e+09  -0.7158  3.16  0.01057  -0.0003301  0.04021  -0.03615  -0.7198  0.3378
6.47e+09  0.5676  3.398  -0.03692  0.05831  -0.08464  0.0432  -0.5569  0.5532
6.471e+09  1.794  3.017  -0.002504  -0.02949  -0.04951  -0.008898  -0.3328  0.7083
6.472e+09  2.875  2.302  0.01257  0.02058  0.05566  -0.01692  -0.06151  0.7946
6.474e+09  3.608  1.114  0.01873  -0.009815  0.08512  0.05848  0.1708  0.7618
6.475e+09  3.906  -0.275  -0.01747  -0.02105  0.006028  -0.02491  0.4306  0.6083
6.476e+09  3.715  -1.763  0.008611  -0.03554  0.06787  0.01261  0.6362  0.4582
6.478e+09  2.887  -3.076  0.004949  -0.007143  0.01537  0.1525  0.7665  0.1419
6.479e+09  1.585  -4.096  -0.002103  0.01801  -0.1131  -0.04429  0.7577  -0.08276
6.48e+09  -0.04601  -4.489  0.01047  -0.007249  0.06047  0.1253  0.6939  -0.3293
6.481e+09  -1.911  -4.491  -0.04775  0.007846  0.1129  -0.009521  0.5876  -0.5563
6.482e+09  -3.549  -3.652  -0.01783  -0.02265  -0.02317  0.08989  0.3311  -0.723
6.484e+09  -4.819  -2.205  -0.02795  -0.008884  -0.09101  8.881e-05  0.05579  -0.771
6.485e+09  -5.642  -0.1426  0.02632  -0.004058  0.01499  0.03486  -0.2193  -0.7319
6.486e+09  -5.467  2.069  0.03223  0.02224  0.01872  0.04621  -0.4762  -0.642
6.488e+09  -5.067  4.622  -0.02067  -0.04654  0.037  0.7526  -0.6515  -0.3909
6.489e+09  -2.57  6.063  0.008139  0.04492  -0.2085  -0.01445  -0.7329  -0.1849
6.49e+09  0.06647  6.965  0.02448  0.006049  0.1442  0.02652  -0.7625  0.1499
6.491e+09  3.058  6.648  -0.01732  -0.009975  -0.01929  0.01214  -0.7209  0.342
6.492e+09  5.937  4.771  0.002729  0.02503  -0.03028  -0.0395  -0.5316  0.5687
6.494e+09  7.741  2.184  -0.02235  -0.02346  -0.004026  0.09455  -0.3091  0.6813
6.495e+09  8.392  -1.612  0.03074  0.02185  -0.06908  -0.0294  -0.01845  0.7793
6.496e+09  7.16  -5.326  0.01408  -0.03556  -0.04668  0.04397  0.2439  0.735
6.498e+09  4.121  -8.29  0.001112  -0.01658  0.06759  0.1184  0.4883  0.569
6.499e+09  -0.1088  -9.569  0.000481  -0.03524  0.03782  -0.05059  0.6202  0.416
6.5e+09  -9.706  -1.434  0.05488  0.002713  0.1161  0.09024  0.7353  0.1565
6.501e+09  -7.629  -5.487  0.015  -0.002947  -0.1238  0.08562  0.7927  -0.1117
6.502e+09  -9.158  -1.478  -0.002963  -0.01602  -0.04031  -0.008047  0.6898  -0.3546
6.504e+09  -8.453  2.66  0.03788  -0.01659  -0.01234  0.1141  0.4982  -0.5483
6.505e+09  -6.145  5.925  -0.02579  -0.008739  0.1159  -0.069  0.2806  -0.7046
6.506e+09  -2.863  7.503  0.004932  0.0179  -0.05999  0.0534  0.02645  -0.7164
6.508e+09  0.4346  7.544  0.009658  -0.05138  0.0194  -0.02488  -0.2181  -0.7208
6.509e+09  3.378  6.33  0.008705  -0.007512  0.007438  0.04962  -0.4496  -0.547
6.51e+09  5.22  4.252  -0.02294  0.008542  0.05822  0.01274  -0.6339  -0.3965
6.511e+09  6.127  1.604  0.009817  -0.01764  0.02838  -0.06685  -0.7287  -0.1855
6.512e+09  5.896  -0.7696  0.04793  -0.01385  0.05647  0.02617  -0.726  0.1383
6.514e+09  4.916  -2.836  -0.02519  -0.008936  0.02061  -0.01756  -0.6332  0.3509
6.515e+09  3.311  -4.19  -0.02487  -0.0133  -0.04136  0.04098  -0.4414  0.6223
6.516e+09  1.322  -4.87  0.006328  -0.007044  0.02586  0.04586  -0.2712  0.6912
6.518e+09  -0.5732  -4.773  0.04429  -0.008789  0.02773  -0.03643  -0.01395  0.7104
6.519e+09  -2.204  -3.987  0.02493  0.006349  -0.06781  0.1048  0.2765  0.7106
6.52e+09  -3.432  -2.773  -0.02107  0.006105  0.01983  -0.01279  0.4943  0.5048
6.521e+09  -3.915  -1.271  -0.03318  0.04032  0.003375  -0.08297  0.6139  0.3667
6.522e+09  -4.016  0.2788  -0.04725  -0.002719  0.0184  0.05973  0.7352  0.1045
6.524e+09  -3.505  1.635  -0.01286  0.04174  -0.05858  -0.01306  0.6929  -0.1514
6.525e+09  -2.493  2.667  -0.03125  0.01367  -0.0281  -0.01203  0.5981  -0.4094
6.526e+09  -1.255  3.258  -0.004126  0.007809  -0.02521  -0.008018  0.458  -0.5973
6.528e+09  -0.02755  3.399  -0.003588  0.0493  0.08295  -0.005895  0.2162  -0.6721
6.529e+09  1.104  3.091  -0.009937  -0.003937  0.02824  -0.001985  -0.05812  -0.6842
6.53e+09  2.063  2.385  -0.03743  0.02219  0.03085  -0.01081  -0.3195  -0.6054
6.531e+09  2.702  1.479  0.01494  0.04419  0.0289  -0.00537  -0.4507  -0.4759
6.532e+09  2.947  0.4508  0.03984  -0.04172  -0.04516  -0.1009  -0.5809  -0.2835
6.534e+09  2.774  -0.7415  0.00389  -0.007684  0.06028  -0.06988  -0.6131  -0.08616
6.535e+09  2.264  -1.612  -0.05087  -0.04068  0.04725  -0.002756  -0.6212  0.1069
6.536e+09  1.471  -2.336  0.0316  0.01203  -0.05252  0.01344  -0.5637  0.3292
6.538e+09  0.6134  -2.615  0.00595  -0.02067  -0.02977  -0.0371  -0.4557  0.5071
6.539e+09  -0.3188  -2.608  0.004816  -0.03487  0.01194  0.0288  -0.2346  0.6499
6.54e+09  -1.189  -2.247  -0.02146  0.03102  -0.05545  0.03709  -0.04977  0.7021
6.541e+09  -1.854  -1.601  -0.001263  0.02052  -0.0002747  -0.03127  0.2023  0.6602
6.542e+09  -2.249  -0.8673  -3.881e-05  -0.02039  0.01048  0.03246  0.4169  0.5669
6.544e+09  -2.432  -0.0136  0.02284  0.007099  0.0004649  0.02647  0.6025  0.4346
6.545e+09  -2.153  0.7735  0.007457  -0.001622  0.05642  -0.02469  0.72  0.1581
6.546e+09  -1.662  1.435  0.006357  0.008584  0.008053  0.06783  0.6811  -0.08146
6.548e+09  -0.9876  1.942  0.0363  -0.004849  -0.009465  -0.0005116  0.6417  -0.3349
6.549e+09  -0.3196  2.221  0.00919  -0.00307  0.01104  -0.03613  0.4716  -0.5206
6.55e+09  0.531  2.07  0.02865  -0.01571  0.04082  0.02313  0.3093  -0.6646
6.551e+09  1.128  1.723  -0.01617  0.0009409  0.0144  -0.03902  0.02389  -0.7143
6.552e+09  1.689  1.197  0.001864  0.01211  -0.04149  -0.008026  -0.2246  -0.7203
6.554e+09  1.955  0.4841  -0.01525  -0.01008  -0.03095  0.003717  -0.4612  -0.5725
6.555e+09  1.984  -0.2239  -0.02894  0.002496  -0.08798  -0.002761  -0.6363  -0.3782
