# Hz S RI R 50
6.25e+09  -0.1542  0.8801  -0.01633  -0.01323  0.02168  -0.01741  0.1125  0.4901
6.251e+09  0.1155  0.8503  0.005134  0.008288  -0.04739  0.03292  0.3546  0.3966
6.252e+09  0.285  0.7656  -0.0149  -0.001864  0.02348  -0.02576  0.5171  0.2275
6.254e+09  0.5935  0.5341  -0.006674  -0.01092  0.004676  0.03125  0.6126  0.009781
6.255e+09  0.7872  0.3152  0.005357  0.0484  -0.008323  -0.01466  0.611  -0.228
6.256e+09  0.8645  -0.007965  -0.009083  -0.01149  -0.002661  0.0341  0.4992  -0.4515
6.258e+09  0.8001  -0.2647  0.007448  -0.02168  -0.006988  -0.003997  0.2884  -0.6069
6.259e+09  0.6928  -0.5196  0.0148  0.007155  0.03653  0.009333  0.03188  -0.6849
6.26e+09  0.4437  -0.717  -0.02462  0.008529  -0.01729  0.005884  -0.2238  -0.6548
6.261e+09  0.197  -0.8766  0.01586  -0.01066  0.01341  0.03952  -0.4345  -0.532
6.262e+09  -0.1839  -0.7976  -0.005943  0.03322  -0.01712  -0.01102  -0.6455  -0.3267
6.264e+09  -0.4753  -0.7481  0.001312  0.0169  0.03433  0.002846  -0.6985  -0.0952
6.265e+09  -0.6471  -0.5523  -0.02688  -0.002511  0.0211  0.004169  -0.6887  0.1911
6.266e+09  -0.7572  -0.2853  0.005082  0.0009327  -0.01399  -0.009787  -0.5922  0.3896
6.268e+09  -0.8166  -0.03087  -0.01789  -0.01744  -0.02917  0.005278  -0.4508  0.6021
6.269e+09  -0.7836  0.2673  -0.02245  -0.004289  -0.008218  0.04242  -0.2006  0.6722
6.27e+09  -0.644  0.5899  0.004412  0.02187  -0.02336  -0.00788  0.07577  0.7333
6.271e+09  -0.4274  0.7534  0.02736  -0.003391  -0.03707  -0.01045  0.315  0.6854
6.272e+09  -0.1364  0.8184  0.01612  0.006693  -0.03544  -0.01951  0.5412  0.5316
6.274e+09  0.196  0.8351  0.009513  -0.0199  -0.03202  0.009321  0.6768  0.3302
6.275e+09  0.3799  0.698  0.01578  -0.03098  -0.01271  -0.045  0.7307  0.01016
6.276e+09  0.619  0.52  0.002759  0.007485  -0.0113  0.05505  0.7477  -0.2006
6.278e+09  0.7594  0.2493  0.002264  -0.01085  -0.008807  0.01285  0.5849  -0.495
6.279e+09  0.8013  -0.06416  0.03025  0.008172  0.02037  0.002402  0.3982  -0.5943
6.28e+09  0.7595  -0.2921  0.01767  -0.0001773  0.05126  0.02565  0.1124  -0.7574
6.281e+09  0.6447  -0.5505  0.0008288  0.008562  0.05834  -0.003966  -0.0846  -0.7735
6.282e+09  0.3703  -0.7562  -0.02087  -0.0003343  0.06243  -0.03249  -0.4017  -0.6702
6.284e+09  0.1098  -0.8313  0.02025  7.178e-05  -0.005477  -0.0403  -0.5656  -0.5184
6.285e+09  -0.1715  -0.8088  -0.01797  -0.01308  -0.0364  -0.04191  -0.7451  -0.3005
6.286e+09  -0.4466  -0.6779  -0.02142  0.01683  0.0102  0.01796  -0.8068  -0.02764
6.288e+09  -0.6649  -0.4353  0.01493  -0.001979  0.05071  -0.005544  -0.7848  0.2765
6.289e+09  -0.8071  -0.1704  -0.01095  0.009089  0.02331  0.01539  -0.5821  0.5026
6.29e+09  -0.851  0.051  -0.001706  -0.009475  0.03619  0.00939  -0.3927  0.6824
6.291e+09  -0.7436  0.3463  0.0003555  0.02664  -0.02833  -0.0313  -0.1212  0.8099
6.292e+09  -0.5546  0.5603  -0.01548  -0.009196  0.00633  0.04662  0.1136  0.8123
6.294e+09  -0.3228  0.7466  0.007231  0.02175  0.04731  -0.01101  0.3751  0.7394
6.295e+09  -0.06024  0.8342  0.01283  0.02918  0.02258  0.02924  0.5807  0.5453
6.296e+09  0.2537  0.7714  0.04115  -0.01029  -0.0163  -0.03531  0.7445  0.2956
6.298e+09  0.4627  0.6375  -0.01189  -0.01022  -0.02539  0.01911  0.8515  -0.02117
6.299e+09  0.7524  0.393  -0.04241  0.02456  -0.0185  0.007996  0.7815  -0.2801
6.3e+09  0.7944  0.174  -0.04021  0.006554  -0.04364  0.0316  0.6207  -0.5299
6.301e+09  0.7967  -0.08206  -0.0008253  0.002389  0.0491  0.02396  0.4469  -0.6913
6.302e+09  0.7701  -0.3637  0.005023  0.01437  -0.000618  -0.02639  0.1855  -0.8115
6.304e+09  0.5655  -0.6005  -0.0138  0.01215  -0.0306  -0.01779  -0.1252  -0.8315
6.305e+09  0.3009  -0.7483  -0.006455  0.02061  -0.009382  0.03231  -0.3727  -0.696
6.306e+09  0.02912  -0.8628  0.01989  -0.0143  0.0184  -0.04646  -0.6269  -0.5923
6.308e+09  -0.2428  -0.7878  0.0001975  -0.008715  -0.01692  -0.02201  -0.7914  -0.3196
6.309e+09  -0.5528  -0.6362  -0.02531  -0.024  -0.05284  -0.03643  -0.8743  -0.006011
6.31e+09  -0.7521  -0.4555  0.009239  -0.01276  -0.01665  0.006771  -0.8339  0.2993
6.311e+09  -0.8067  -0.1381  0.03239  0.005699  -0.004991  -0.01356  -0.68  0.5347
6.312e+09  -0.872  0.1609  -0.003822  0.005907  -0.01844  -0.01229  -0.4454  0.7711
6.314e+09  -0.7584  0.4213  -0.0123  -0.01732  0.01111  0.03838  -0.1382  0.8946
6.315e+09  -0.509  0.6656  -0.0398  -0.03252  0.003604  -0.02931  0.141  0.8589
6.316e+09  -0.2508  0.8236  -0.01306  -0.03795  -0.0103  0.003519  0.4015  0.7651
6.318e+09  -0.05019  0.901  0.01036  0.02194  -0.01647  0.02596  0.6357  0.5891
6.319e+09  0.2964  0.7955  0.00192  0.0268  -0.0218  -0.02035  0.8126  0.3228
6.32e+09  0.5699  0.5823  0.01497  0.001212  -0.03298  0.003834  0.8898  0.009996
6.321e+09  0.7937  0.3621  0.01724  0.004986  -0.02325  -0.0192  0.8343  -0.2966
6.322e+09  0.7784  0.1178  0.00912  0.01964  0.01556  -0.01682  0.6815  -0.5751
6.324e+09  0.7646  -0.1835  0.02259  -0.02235  0.02307  0.04905  0.472  -0.7523
6.325e+09  0.7514  -0.4444  -0.0005431  0.01081  0.01488  0.003155  0.185  -0.8958
6.326e+09  0.5106  -0.7087  0.02561  -0.01199  0.01288  -0.03898  -0.1191  -0.8781
6.328e+09  0.188  -0.8021  0.006277  -0.01476  -0.002413  0.02988  -0.4272  -0.7791
6.329e+09  -0.03764  -0.8644  -0.01697  -0.006325  -0.007323  0.002868  -0.6812  -0.5938
6.33e+09  -0.3543  -0.7343  -0.006965  0.004285  0.04238  0.004476  -0.8564  -0.2915
6.331e+09  -0.5732  -0.5977  0.01557  -0.02359  0.0121  -0.001642  -0.8994  -0.02492
6.332e+09  -0.7787  -0.3501  0.01098  0.0007753  -0.002629  0.01422  -0.8653  0.3094
6.334e+09  -0.8667  -0.08621  -0.001964  -0.03751  0.03998  -0.0005997  -0.7094  0.5496
6.335e+09  -0.8104  0.2631  0.02088  -0.01821  0.005741  0.01842  -0.5025  0.8039
6.336e+09  -0.6856  0.4726  0.02007  -0.01576  0.01127  -0.004725  -0.2162  0.8845
6.338e+09  -0.4401  0.7164  0.01152  0.02067  -0.005091  -0.02348  0.1423  0.8952
6.339e+09  -0.1906  0.8377  0.0468  0.002921  0.01929  -0.02771  0.4383  0.7504
6.34e+09  0.1451  0.8777  -0.006287  0.002713  0.001713  0.003181  0.6465  0.6149
6.341e+09  0.4102  0.7629  0.01213  0.01722  -0.005843  0.02086  0.8565  0.3479
6.342e+09  0.6306  0.6243  0.004834  0.013  -0.01218  0.01555  0.8813  0.0344
6.344e+09  0.8092  0.294  -0.002106  0.03708  0.0007767  0.06946  0.8268  -0.2783
6.345e+09  0.8576  -0.01932  -0.003023  0.02134  -0.002497  -0.0134  0.6722  -0.5456
6.346e+09  0.7841  -0.348  -0.003585  0.01393  0.009958  -0.02347  0.485  -0.8002
6.348e+09  0.6708  -0.5603  -0.003722  0.001217  0.01385  0.005161  0.2047  -0.903
6.349e+09  0.3933  -0.7431  0.0325  0.01835  -0.01522  -0.005882  -0.09377  -0.9272
6.35e+09  0.141  -0.8614  0.01745  -0.02915  -0.02588  0.00777  -0.4125  -0.8567
6.351e+09  -0.1969  -0.8418  0.003386  -0.004682  -0.02815  -0.02106  -0.6591  -0.649
6.352e+09  -0.4985  -0.7625  0.03114  -0.008031  -0.01544  0.03265  -0.8445  -0.3438
6.354e+09  -0.6789  -0.5038  0.003928  -0.00852  0.03646  0.002066  -0.9574  -0.07189
6.355e+09  -0.7929  -0.2477  -0.01065  -0.01112  -0.01969  0.007195  -0.913  0.255
6.356e+09  -0.838  0.02647  0.04102  0.01806  -0.03414  0.009863  -0.7525  0.5595
6.358e+09  -0.8267  0.3089  -0.009479  -0.007751  0.01399  0.00871  -0.4948  0.7689
6.359e+09  -0.6239  0.6138  0.002369  -0.002982  0.007208  -0.02759  -0.2404  0.9057
6.36e+09  -0.3729  0.7281  0.01779  0.03058  0.01263  0.02275  0.1056  0.9302
6.361e+09  -0.08435  0.8431  0.0121  -0.008226  -0.02612  0.007461  0.4199  0.8395
6.362e+09  0.2392  0.8315  -0.0167  -0.01234  -0.01062  0.01429  0.6522  0.6657
6.364e+09  0.496  0.6977  -0.04159  -0.0008831  -0.01459  0.02292  0.8314  0.3775
6.365e+09  0.7128  0.4323  0.03809  -0.007651  0.0115  0.01823  0.9476  0.1007
6.366e+09  0.851  0.2674  0.03785  -0.04447  -0.0284  -0.02472  0.8942  -0.2134
6.368e+09  0.8609  -0.1046  -0.007896  0.01628  -0.01117  -0.01411  0.7746  -0.5277
6.369e+09  0.7431  -0.376  0.006866  0.005854  0.0211  0.01056  0.5247  -0.786
6.37e+09  0.592  -0.6419  0.00443  -0.04677  0.01089  0.0008306  0.2358  -0.9341
6.371e+09  0.3128  -0.8063  -0.009716  -0.0004577  0.02184  0.02965  -0.04261  -0.9581
6.372e+09  0.05871  -0.888  -0.04383  0.01383  0.012  -0.03217  -0.3771  -0.8913
6.374e+09  -0.2495  -0.8427  0.0275  0.006912  -0.005125  -0.04841  -0.6664  -0.6874
6.375e+09  -0.5315  -0.6469  0.002066  0.01326  -0.01069  0.02064  -0.8414  -0.382
6.376e+09  -0.7325  -0.4319  -0.03159  -0.002375  -0.01449  0.02971  -0.8961  -0.09051
6.378e+09  -0.8741  -0.1499  -0.01834  0.04328  -0.001198  0.02002  -0.8929  0.217
6.379e+09  -0.8753  0.1277  -0.003113  0.004307  -0.00759  -0.01224  -0.7813  0.5281
6.38e+09  -0.7421  0.3969  -0.004657  0.0009197  -0.02259  0.00248  -0.6141  0.7694
6.381e+09  -0.5444  0.6289  -0.01109  -0.007935  0.0108  0.03726  -0.2452  0.8821
6.382e+09  -0.2901  0.8248  -0.01878  -0.00866  0.01706  -0.003  0.03478  0.9366
6.384e+09  -0.003596  0.8766  -0.05167  -0.007109  0.03792  0.02845  0.3897  0.8392
6.385e+09  0.2514  0.7914  -0.02337  -0.00263  -0.02477  0.01583  0.6464  0.7051
6.386e+09  0.5458  0.6606  -0.01512  0.01808  0.027  -0.03526  0.8544  0.4378
6.388e+09  0.7702  0.4606  0.01404  -0.01462  -0.007476  -0.03638  0.9184  0.1296
6.389e+09  0.8868  0.1733  0.02987  0.01165  -0.02179  -0.0008702  0.9459  -0.2147
6.39e+09  0.8156  -0.1775  -0.01933  -0.02227  -0.01069  0.003336  0.7765  -0.4549
6.391e+09  0.7634  -0.4624  0.03601  -0.07688  0.06009  0.004714  0.5556  -0.7353
6.392e+09  0.5352  -0.6613  -0.01746  0.02442  -0.04856  0.02687  0.2592  -0.8654
6.394e+09  0.2634  -0.8172  0.01542  -0.01266  -0.002397  -0.04459  -0.03214  -0.9407
6.395e+09  -0.03225  -0.9187  -0.05395  -0.01435  0.008691  0.03739  -0.3574  -0.8598
6.396e+09  -0.2914  -0.8085  0.02145  -0.0254  -0.03012  0.0691  -0.5935  -0.6865
6.398e+09  -0.5615  -0.6801  0.004633  -0.002171  -0.02741  -0.02754  -0.7977  -0.4492
6.399e+09  -0.8135  -0.3913  -0.03766  -0.04287  -0.03223  -0.003043  -0.9352  -0.1625
6.4e+09  -0.8778  -0.08091  0.01098  0.0009367  0.00415  -0.008741  -0.8943  0.1842
6.401e+09  -0.8351  0.2165  0.02218  -0.02134  0.02582  0.01923  -0.7932  0.4851
6.402e+09  -0.7122  0.4762  -0.00829  -0.00797  -0.02866  -0.02425  -0.5854  0.704
6.404e+09  -0.4888  0.6536  -0.03072  -0.01774  0.03926  0.02835  -0.3069  0.9096
6.405e+09  -0.2737  0.8078  0.02481  -0.01299  0.009992  0.00636  -0.03452  0.9435
6.406e+09  0.02953  0.8479  -0.04299  0.007567  -0.00861  0.0003014  0.3031  0.8191
6.408e+09  0.3179  0.7388  0.01692  0.03251  0.02979  -0.02723  0.564  0.7547
6.409e+09  0.6011  0.6326  -0.008807  0.003774  0.03556  0.01355  0.7639  0.471
6.41e+09  0.7956  0.3728  0.04187  -0.03857  -0.03457  0.003433  0.9035  0.1797
6.411e+09  0.8613  0.1272  -0.0231  -0.002287  -0.02526  -0.01167  0.9441  -0.1194
6.412e+09  0.8446  -0.2432  0.04815  -0.00821  0.00646  -0.02673  0.7197  -0.4564
6.414e+09  0.7193  -0.4681  0.02434  -0.007071  -0.01082  0.03435  0.6056  -0.6489
6.415e+09  0.5032  -0.6928  0.01703  -0.03332  0.006968  0.03663  0.3221  -0.8339
6.416e+09  0.2097  -0.826  -0.05071  -0.04234  -0.003244  -0.006757  0.04641  -0.8827
6.418e+09  -0.06793  -0.8873  0.04008  -0.003081  -0.02544  0.02652  -0.2903  -0.8408
6.419e+09  -0.3505  -0.8081  -0.009679  -0.00872  -0.03261  -0.03056  -0.5323  -0.7178
6.42e+09  -0.5782  -0.5821  -0.02593  -0.03043  -0.002417  -0.02968  -0.7419  -0.4836
6.421e+09  -0.7372  -0.3674  0.02744  -0.00545  0.01822  0.0143  -0.8661  -0.197
6.422e+09  -0.8331  -0.08431  -0.0039  -0.02404  -0.01023  -0.004613  -0.8163  0.1284
6.424e+09  -0.8926  0.2865  -0.002959  -0.003705  -0.01529  0.006721  -0.7617  0.4449
6.425e+09  -0.7016  0.4953  -0.04029  0.017  0.02422  0.004752  -0.5837  0.6351
6.426e+09  -0.504  0.7381  0.008542  0.01915  -0.01015  0.0002592  -0.3309  0.817
6.428e+09  -0.2472  0.8353  -0.02797  0.002002  -0.00516  0.005648  -0.06698  0.8428
6.429e+09  0.06599  0.9007  0.03462  0.009913  -0.03755  0.02043  0.2567  0.8428
6.43e+09  0.3909  0.788  -0.01882  -0.0397  0.03426  -0.001899  0.4286  0.7042
6.431e+09  0.6598  0.5655  -0.02007  0.02147  -0.01081  0.002105  0.7781  0.4729
6.432e+09  0.8128  0.3787  -0.007225  0.02263  -0.01129  0.00687  0.8128  0.2094
6.434e+09  0.8665  0.08585  -0.04636  -0.0101  0.05014  0.009924  0.8402  -0.06698
6.435e+09  0.8375  -0.2414  0.0009333  0.01678  0.05022  -0.05166  0.7914  -0.332
6.436e+09  0.6686  -0.5497  0.002856  -0.05547  -0.002243  0.006785  0.6395  -0.6281
6.438e+09  0.4868  -0.7792  -0.03017  -0.02985  -0.03399  -0.07631  0.3325  -0.7885
6.439e+09  0.2144  -0.9064  0.01938  0.009662  0.01435  0.05092  0.0585  -0.8466
6.44e+09  -0.1018  -0.8772  0.03812  0.0176  0.01279  -0.02846  -0.1888  -0.823
6.441e+09  -0.4222  -0.8121  0.03491  0.02573  -0.01296  -0.02499  -0.513  -0.6301
6.442e+09  -0.6698  -0.5825  0.0001984  -0.005925  -0.02905  0.01623  -0.6974  -0.4984
6.444e+09  -0.7876  -0.3091  0.03915  -0.01988  -0.05018  0.01112  -0.7913  -0.2626
6.445e+09  -0.8626  -0.04334  -0.01496  -0.01816  0.003093  0.03981  -0.8103  0.05937
6.446e+09  -0.8543  0.2587  -0.0548  -0.0001285  0.0005237  -0.03609  -0.77  0.3581
6.448e+09  -0.6958  0.5445  -0.0385  0.01668  0.02096  -0.02683  -0.5923  0.5824
6.449e+09  -0.4864  0.7476  -0.009702  0.00357  -0.001068  -0.008023  -0.3504  0.7619
6.45e+09  -0.1808  0.8927  0.02158  0.0229  0.02277  -0.02803  -0.08032  0.844
6.451e+09  0.1192  0.85  8.737e-07  -0.01331  0.0184  0.001668  0.234  0.8149
6.452e+09  0.4543  0.8022  0.009342  -0.02895  -0.007934  -0.003191  0.475  0.6647
6.454e+09  0.6319  0.5744  -0.01293  -0.04315  -0.01847  0.01903  0.637  0.4922
6.455e+09  0.8282  0.2872  -0.004943  0.03531  0.02974  0.01775  0.7658  0.1817
6.456e+09  0.8737  0.01867  0.04266  -0.006742  -0.0464  -0.0326  0.8047  -0.09904
6.458e+09  0.8708  -0.306  -0.01564  0.004748  -0.004083  -0.002519  0.7721  -0.3403
6.459e+09  0.7214  -0.5825  -0.002399  0.06514  0.006093  -0.004595  0.6159  -0.5915
6.46e+09  0.4602  -0.7722  -0.001682  0.02165  0.02708  -0.04699  0.3168  -0.7305
6.461e+09  0.1576  -0.8864  -0.03171  -0.007366  -0.02003  -0.01178  0.08851  -0.8225
6.462e+09  -0.1897  -0.8838  -0.00493  0.01762  0.03738  -0.0349  -0.2388  -0.738
6.464e+09  -0.4213  -0.7992  0.006375  0.009843  -0.01557  -0.02662  -0.4373  -0.6215
6.465e+09  -0.7002  -0.5788  0.02136  0.0481  -0.0225  -0.0125  -0.679  -0.477
6.466e+09  -0.8438  -0.3365  0.02577  -0.02074  -0.0004166  -0.04275  -0.787  -0.1987
6.468e+09  -0.877  0.009169  0.03685  -0.008876  -0.01159  0.02991  -0.7751  0.08754
6.469e+09  -0.8712  0.3288  -0.02989  0.004582  -0.02162  -0.01531  -0.712  0.3611
6.47e+09  -0.6665  0.5564  -0.0007004  0.008373  0.02441  0.01507  -0.5282  0.5668
6.471e+09  -0.423  0.7695  0.004913  0.007078  -0.0261  0.02242  -0.3533  0.707
6.472e+09  -0.1431  0.9114  -0.03146  -0.02573  0.01396  -0.03428  -0.1097  0.7926
6.474e+09  0.1376  0.916  0.00777  0.01078  -0.02327  -0.07835  0.2691  0.7573
6.475e+09  0.4852  0.8161  0.006706  0.007218  0.01927  -0.002271  0.464  0.6348
6.476e+09  0.7081  0.5065  -0.02749  0.01931  -0.02083  0.02441  0.7126  0.4228
6.478e+09  0.8501  0.2727  -0.00693  0.03434  -0.02074  -0.03889  0.7595  0.2152
6.479e+09  0.9478  -0.03413  -0.007529  -0.01181  0.02162  -0.01532  0.8252  -0.08943
6.48e+09  0.8583  -0.3548  -0.01936  0.02192  -0.005101  -0.01712  0.7105  -0.3686
6.481e+09  0.6932  -0.6357  0.005166  0.001294  -0.03769  0.009182  0.5013  -0.5681
6.482e+09  0.393  -0.8331  -0.0005804  0.02355  -0.05481  -0.01983  0.3365  -0.6916
6.484e+09  0.1071  -0.8835  0.0007615  0.008822  -0.0145  -0.002932  0.0498  -0.8111
6.485e+09  -0.2039  -0.9238  0.009746  -0.007111  -0.03691  0.03724  -0.1805  -0.7324
6.486e+09  -0.5259  -0.762  0.003056  0.01332  0.0003808  -0.003894  -0.4577  -0.6119
6.488e+09  -0.6726  0.2106  0.02725  0.02316  0.7292  0.06184  -0.6339  -0.3901
6.489e+09  -0.9105  -0.2761  0.01832  0.01242  0.03516  -0.01169  -0.7231  -0.1902
6.49e+09  -0.9064  0.0442  0.03159  -0.01746  0.03142  -0.01579  -0.7816  0.09298
6.491e+09  -0.8255  0.4089  -0.02304  0.02741  0.01295  -0.007283  -0.6933  0.3197
6.492e+09  -0.6327  0.6558  -0.03409  -0.0443  0.007728  0.01897  -0.5242  0.5671
6.494e+09  -0.2823  0.9194  -0.01601  -0.0142  -0.09424  -0.06928  -0.2795  0.7077
6.495e+09  -0.1082  0.911  -0.000418  0.01338  -0.01206  -0.02726  -0.05629  0.7804
6.496e+09  0.2973  0.9098  -0.02416  0.0003326  0.007734  0.01998  0.1705  0.7676
6.498e+09  0.5208  0.7491  0.02332  -0.001059  0.0492  0.01405  0.4482  0.6039
6.499e+09  0.7549  0.5255  -0.0004193  0.03266  0.009151  0.000323  0.6518  0.3745
6.5e+09  1  0.2495  0.009919  -0.001036  0.03484  0.04252  0.741  0.1638
6.501e+09  0.9036  -0.1591  0.01824  -0.006365  -0.006171  0.05023  0.7493  -0.09573
6.502e+09  0.8026  -0.4117  -0.02363  0.00737  0.00942  -0.01294  0.6627  -0.3617
6.504e+09  0.6338  -0.6992  -0.01249  0.03709  -0.02742  -0.0172  0.4697  -0.5415
6.505e+09  0.2976  -0.8804  0.006132  0.01015  0.01769  -0.005198  0.2693  -0.7154
6.506e+09  -0.01302  -0.9602  0.00815  -0.02586  -1.137e-05  0.02338  0.04267  -0.7775
6.508e+09  -0.2863  -0.8372  -0.0284  0.03498  -0.002176  -0.04197  -0.2311  -0.7171
6.509e+09  -0.5914  -0.7459  0.009752  0.01752  0.02577  0.02759  -0.4494  -0.5617
6.51e+09  -0.8586  -0.459  -0.006756  -0.02621  0.03184  -0.01193  -0.6684  -0.3884
6.511e+09  -0.8751  -0.1223  0.007453  -0.01779  0.01307  -0.02609  -0.7589  -0.1106
6.512e+09  -0.9384  0.2245  -0.006406  0.04055  0.01047  0.008902  -0.7468  0.1281
6.514e+09  -0.7573  0.4997  0.01121  0.002284  0.02617  0.04455  -0.6485  0.3694
6.515e+09  -0.5465  0.755  -0.02414  -0.05629  0.005784  0.05104  -0.486  0.5403
6.516e+09  -0.2749  0.9031  -0.02027  0.01894  0.04  0.027  -0.2258  0.7098
6.518e+09  0.02539  0.9322  0.004073  -0.01529  0.0112  -0.03156  0.02261  0.7425
6.519e+09  0.3723  0.8307  0.001925  0.00205  0.04001  0.01337  0.2494  0.6764
6.52e+09  0.6864  0.6546  -0.01607  0.0051  0.002359  0.02985  0.5064  0.5674
6.521e+09  0.8354  0.4162  -0.01243  0.008418  0.007636  0.007079  0.6788  0.3338
6.522e+09  0.9343  0.08634  -0.05906  -0.02434  0.04937  0.05109  0.7127  0.08245
6.524e+09  0.9322  -0.2377  -0.01788  0.001118  0.001132  0.00371  0.7249  -0.1728
6.525e+09  0.7417  -0.5678  -0.03056  0.01824  0.02211  0.0418  0.6272  -0.3939
6.526e+09  0.545  -0.7389  0.03458  -0.03953  -0.04148  -0.0534  0.4448  -0.5655
6.528e+09  0.1982  -0.9605  0.0185  0.04653  -4.523e-05  0.004395  0.2001  -0.6701
6.529e+09  -0.1372  -0.9018  0.02225  0.01297  -0.001787  -0.02627  -0.01431  -0.726
6.53e+09  -0.4378  -0.7893  0.0111  -0.01932  -0.01084  0.05387  -0.253  -0.6195
6.531e+09  -0.7092  -0.6214  -0.02244  0.008731  -0.004682  -0.008173  -0.4804  -0.4962
6.532e+09  -0.8846  -0.2993  0.01149  -0.007726  0.03362  -0.01202  -0.6036  -0.2999
6.534e+09  -0.955  0.05301  0.01671  -0.003912  -0.004805  -0.006239  -0.6262  -0.09399
6.535e+09  -0.8336  0.3115  0.0192  0.001387  0.07215  0.003333  -0.5898  0.1212
6.536e+09  -0.6903  0.6056  0.01326  -0.02859  -0.001607  -0.02428  -0.5776  0.302
6.538e+09  -0.4045  0.8398  0.0142  -0.0213  0.04873  0.04854  -0.4376  0.4496
6.539e+09  -0.0556  0.8571  0.01346  -0.01585  -0.004383  0.06068  -0.2944  0.5654
6.54e+09  0.1935  0.8738  -0.007058  -0.01035  -0.05459  0.02054  -0.05241  0.6607
6.541e+09  0.4693  0.7376  -0.002263  -0.007078  0.01754  0.02806  0.1478  0.6259
6.542e+09  0.7441  0.4984  -0.009194  -0.01201  0.01078  0.003551  0.4281  0.5728
6.544e+09  0.8684  0.2308  -0.01895  0.01062  -0.0307  -0.0004491  0.5781  0.4018
6.545e+09  0.9485  -0.1207  -0.001396  -0.02109  0.01816  0.009711  0.6812  0.1638
6.546e+09  0.8231  -0.4135  0.001795  0.01235  -0.03431  0.08254  0.7137  -0.0678
6.548e+09  0.5879  -0.6843  -0.01134  0.0329  0.04654  0.01136  0.6638  -0.3181
6.549e+09  0.3653  -0.8117  -0.009768  0.008075  0.008036  -0.03593  0.4818  -0.5642
6.55e+09  0.02726  -0.8592  -0.03234  0.02682  -0.03872  -0.03447  0.2753  -0.6737
