# Hz S RI R 50
6.25e+09  -0.2841  0.8396  0.02327  -0.006253  0.02103  0.03059  0.1506  0.4685
6.251e+09  0.01283  0.8555  0.009003  0.001426  0.02267  0.00997  0.3555  0.4253
6.252e+09  0.2814  0.7555  -0.02669  0.02209  0.04814  0.001823  0.5328  0.2651
6.254e+09  0.5655  0.648  0.003837  -0.01987  0.01803  -0.07863  0.6007  0.003394
6.255e+09  0.7222  0.4274  -0.006721  0.02102  0.02245  -0.03652  0.5924  -0.2374
6.256e+09  0.7645  0.1066  0.01511  0.01653  0.00527  -0.00341  0.4956  -0.4697
6.258e+09  0.7883  -0.1162  0.01745  -0.003929  0.02355  0.03696  0.268  -0.5812
6.259e+09  0.7234  -0.354  -0.03634  -0.01585  -0.02172  0.04093  0.01479  -0.6768
6.26e+09  0.5568  -0.6445  0.001212  -0.01559  -0.06307  -0.0385  -0.2012  -0.637
6.261e+09  0.3032  -0.7975  0.001791  0.006962  0.04614  0.02643  -0.4175  -0.5295
6.262e+09  0.01805  -0.8329  0.01804  0.02687  0.06358  0.02276  -0.6249  -0.3381
6.264e+09  -0.2677  -0.754  -0.004547  0.0004942  0.01218  -0.07727  -0.6963  -0.09427
6.265e+09  -0.5458  -0.6466  -0.01026  0.007076  -0.01677  -0.01448  -0.7468  0.1589
6.266e+09  -0.7074  -0.3674  0.02356  -0.02148  0.04408  0.01479  -0.6054  0.3584
6.268e+09  -0.7664  -0.145  0.0339  0.01228  0.01659  -0.01914  -0.4128  0.5676
6.269e+09  -0.8175  0.1507  -0.03201  0.01624  -0.02897  -0.02395  -0.157  0.7204
6.27e+09  -0.6988  0.4251  0.02031  -0.0406  0.009229  -0.01773  0.08358  0.7399
6.271e+09  -0.4612  0.6318  -0.02139  -0.02311  -0.006072  -0.00143  0.3133  0.6816
6.272e+09  -0.242  0.7588  -0.03635  0.01208  0.03406  -0.01103  0.5045  0.5623
6.274e+09  0.03148  0.8124  0.01346  -0.02635  -0.02853  0.02024  0.7198  0.2762
6.275e+09  0.2873  0.7519  -0.006605  -0.01146  -0.01418  -0.03178  0.7372  0.04943
6.276e+09  0.5213  0.614  0.03427  0.004832  -0.01868  -0.03849  0.7084  -0.2098
6.278e+09  0.7054  0.4242  -0.01369  -0.0202  -0.002865  -0.02045  0.605  -0.433
6.279e+09  0.7874  0.1291  -0.01448  -0.0003659  -0.002318  0.02081  0.4407  -0.6611
6.28e+09  0.8431  -0.1357  0.01127  0.009484  -0.01387  -0.002419  0.1518  -0.7199
6.281e+09  0.724  -0.4358  -0.02158  0.01294  -0.03214  -0.01337  -0.1029  -0.7809
6.282e+09  0.4735  -0.62  0.001732  0.004264  -0.03894  -0.002988  -0.371  -0.6923
6.284e+09  0.2178  -0.7697  0.002812  -0.008493  -0.007506  -0.01476  -0.5634  -0.5296
6.285e+09  -0.05005  -0.819  0.0004444  -0.02168  0.02139  0.03789  -0.6976  -0.2828
6.286e+09  -0.3309  -0.7593  -0.007372  0.002845  -0.0275  -0.02501  -0.7775  -0.02094
6.288e+09  -0.5433  -0.6064  -0.009094  -0.02969  0.01149  0.02506  -0.7534  0.2311
6.289e+09  -0.7436  -0.3613  -0.03221  -0.00727  -0.01099  -0.009926  -0.6092  0.519
6.29e+09  -0.86  -0.05643  -0.01062  -0.02111  -0.0161  -0.03237  -0.4188  0.6845
6.291e+09  -0.7505  0.1851  -0.01039  -0.009894  -0.02107  -0.03749  -0.1812  0.807
6.292e+09  -0.6887  0.4476  0.0287  0.002468  0.01182  0.006191  0.1252  0.8355
6.294e+09  -0.5122  0.6308  -0.01671  -0.01538  0.004682  -0.002703  0.4237  0.7008
6.295e+09  -0.2259  0.7455  0.004083  -0.004705  0.01059  0.03054  0.6303  0.5222
6.296e+09  0.06076  0.8093  0.0268  -0.04793  -0.0317  -0.03731  0.7482  0.3105
6.298e+09  0.3525  0.7673  0.01384  -0.009883  -0.01575  0.02562  0.8584  0.03547
6.299e+09  0.5682  0.645  -0.03742  -0.02492  -0.0225  -0.006641  0.7774  -0.2811
6.3e+09  0.7595  0.3138  0.01986  0.002843  -0.02302  0.007023  0.6331  -0.5211
6.301e+09  0.7807  0.06747  0.009094  0.02361  -0.008051  -0.01461  0.4267  -0.7058
6.302e+09  0.7635  -0.2012  -0.02727  -0.01065  0.005056  -0.02465  0.1801  -0.8175
6.304e+09  0.6854  -0.4656  0.01105  -0.03468  0.05208  -0.05884  -0.1414  -0.8584
6.305e+09  0.4519  -0.6593  -0.01855  -0.02236  0.01229  0.02448  -0.4179  -0.7378
6.306e+09  0.1886  -0.7952  -0.03953  0.0002795  0.03368  0.04265  -0.659  -0.5293
6.308e+09  -0.08094  -0.8072  -0.001787  0.01571  0.03072  0.05965  -0.8133  -0.3225
6.309e+09  -0.3968  -0.7501  0.009022  -0.01063  -0.003339  -0.02692  -0.8853  -0.00212
6.31e+09  -0.5814  -0.5356  -0.007336  -0.01236  0.009015  -0.0153  -0.8288  0.283
6.311e+09  -0.7513  -0.286  0.005793  0.008529  -0.04309  0.008538  -0.6652  0.552
6.312e+09  -0.773  -0.05977  0.007928  0.0191  0.02193  -0.01488  -0.4564  0.7452
6.314e+09  -0.8041  0.2539  0.05408  0.003097  -0.0252  -0.01345  -0.1803  0.8498
6.315e+09  -0.6562  0.5048  0.02236  -0.03193  0.006512  -0.04557  0.1151  0.8889
6.316e+09  -0.4378  0.6728  0.03764  -0.00853  0.01788  0.03615  0.4422  0.7616
6.318e+09  -0.1832  0.7584  -0.01369  -0.01679  -0.01691  -0.01787  0.6491  0.5769
6.319e+09  0.1726  0.8606  -0.02522  -0.02417  -0.03335  0.01224  0.8168  0.333
6.32e+09  0.4015  0.6815  -0.016  0.0087  0.003148  0.004291  0.9019  0.03428
6.321e+09  0.6372  0.5222  0.003068  0.01453  0.01906  -0.0202  0.8134  -0.2809
6.322e+09  0.7861  0.2997  -0.008877  -0.001403  0.01811  0.02935  0.6823  -0.5693
6.324e+09  0.8095  -0.002215  0.007701  0.02112  -0.0112  -0.02958  0.4702  -0.7795
6.325e+09  0.7716  -0.2733  -0.05056  -0.002996  -0.0379  0.0277  0.1808  -0.8832
6.326e+09  0.6439  -0.5703  0.01139  -0.007432  0.006658  0.01683  -0.1238  -0.8904
6.328e+09  0.3372  -0.7757  -0.003537  -0.01639  -0.01441  0.001198  -0.4537  -0.7716
6.329e+09  0.1069  -0.7999  0.001634  0.007481  -0.02295  0.03078  -0.6628  -0.6005
6.33e+09  -0.1343  -0.8217  -0.0458  0.002851  -0.002983  -0.03464  -0.8237  -0.3652
6.331e+09  -0.4679  -0.7167  0.02337  0.009717  0.004991  0.04538  -0.9399  -0.0434
6.332e+09  -0.7031  -0.4718  -0.02336  -0.009974  0.01972  -0.02351  -0.8576  0.2692
6.334e+09  -0.774  -0.2276  0.006127  0.0323  -0.07778  0.02569  -0.7213  0.5543
6.335e+09  -0.8605  0.08693  -0.01834  0.01019  -0.01241  0.06511  -0.5122  0.7554
6.336e+09  -0.7994  0.3456  -0.002421  0.03046  0.02338  -0.01915  -0.1901  0.9012
6.338e+09  -0.5519  0.6052  -0.009477  -0.0236  -0.005025  -0.001328  0.118  0.8891
6.339e+09  -0.371  0.7903  -0.01147  -0.006414  0.004008  0.007569  0.4374  0.8431
6.34e+09  -0.05317  0.8672  0.03947  0.01601  0.001982  -0.004286  0.672  0.6171
6.341e+09  0.2347  0.8496  -0.001351  0.02688  -0.04167  -0.03099  0.8631  0.3169
6.342e+09  0.5162  0.7152  0.01222  -0.01426  0.001958  -0.006052  0.9526  0.05297
6.344e+09  0.7295  0.436  0.003833  0.007222  -0.02663  -0.01467  0.8688  -0.2131
6.345e+09  0.7929  0.1642  0.01791  0.003234  -0.01474  0.01053  0.73  -0.5682
6.346e+09  0.857  -0.1604  0.03311  0.009893  0.02872  -0.0076  0.5334  -0.8134
6.348e+09  0.73  -0.3952  0.01484  -0.007967  -0.02806  -0.01534  0.2055  -0.9047
6.349e+09  0.5828  -0.6246  0.01055  0.02954  0.02083  -0.008981  -0.04325  -0.8929
6.35e+09  0.2894  -0.8262  0.006998  -0.0173  0.04471  0.001108  -0.4313  -0.8462
6.351e+09  0.01692  -0.8368  0.002152  -0.007105  -0.01562  -0.01242  -0.6611  -0.6165
6.352e+09  -0.2244  -0.7774  -0.03084  -0.0007743  -0.01301  -0.01456  -0.8849  -0.356
6.354e+09  -0.5805  -0.6623  0.01592  -0.01038  0.01566  0.008978  -0.9471  -0.04371
6.355e+09  -0.7383  -0.4196  -0.03963  0.004442  -0.02101  -0.01168  -0.8943  0.2613
6.356e+09  -0.8084  -0.07035  -0.01474  -0.0237  0.0227  -0.04741  -0.7711  0.5632
6.358e+09  -0.8754  0.186  -0.0106  -0.005753  -0.02036  0.001779  -0.4828  0.7506
6.359e+09  -0.6938  0.4459  0.03037  -0.006517  0.03297  -0.01692  -0.2517  0.9054
6.36e+09  -0.5352  0.6863  -0.03087  0.01106  -0.03949  -0.02195  0.0955  0.9485
6.361e+09  -0.2551  0.8246  0.02331  0.006718  0.01897  -0.0386  0.4084  0.8506
6.362e+09  0.0111  0.8646  0.01558  -0.02834  0.0227  0.03921  0.6535  0.6707
6.364e+09  0.3443  0.7679  0.04699  0.01765  0.01458  -0.004582  0.8567  0.3902
6.365e+09  0.6593  0.6358  0.02371  -0.01416  -0.04335  0.02599  0.9391  0.08491
6.366e+09  0.7845  0.3882  0.002045  -0.005999  -0.02642  -0.002373  0.9097  -0.2597
6.368e+09  0.8531  0.08789  -0.009083  0.009134  -0.004225  0.04  0.7601  -0.5694
6.369e+09  0.8159  -0.2562  0.01178  0.01125  0.002377  0.06151  0.5302  -0.7885
6.37e+09  0.7009  -0.5211  -0.009748  0.004078  -0.001225  -0.002556  0.2316  -0.9241
6.371e+09  0.4698  -0.7124  0.06463  0.002724  -0.009874  0.01585  -0.09157  -0.9528
6.372e+09  0.2227  -0.8499  0.002356  -0.02063  -0.01171  0.009618  -0.439  -0.8622
6.374e+09  -0.04371  -0.8231  0.02239  -0.0005534  -0.01375  -0.01124  -0.6259  -0.6823
6.375e+09  -0.417  -0.7995  -0.008145  0.02787  0.03345  0.01786  -0.8693  -0.3995
6.376e+09  -0.6503  -0.6027  -0.001533  -0.01365  -0.01855  -0.007751  -0.9382  -0.04504
6.378e+09  -0.8013  -0.3734  0.002998  0.01487  0.04368  -0.06262  -0.9418  0.2111
6.379e+09  -0.8378  -0.06705  -0.02262  0.004758  0.02762  0.0112  -0.7871  0.5325
6.38e+09  -0.8279  0.2618  -0.001413  -0.04994  0.01024  -0.01725  -0.574  0.7496
6.381e+09  -0.6628  0.5151  -0.001596  0.03013  -0.005723  -0.02331  -0.2731  0.9103
6.382e+09  -0.4412  0.7042  -0.03086  0.0217  0.03431  0.02641  0.03569  0.9081
6.384e+09  -0.2039  0.8349  0.01846  -0.0256  -0.01404  -0.00352  0.3714  0.8668
6.385e+09  0.1123  0.8259  -0.003121  0.01057  -0.006591  -0.03972  0.628  0.6625
6.386e+09  0.3861  0.7334  -0.008612  0.008215  -0.01221  -0.007033  0.853  0.4279
6.388e+09  0.6347  0.5399  -0.01788  -0.02561  -0.0286  0.03531  0.8874  0.1255
6.389e+09  0.8485  0.3464  0.00574  0.01774  -0.03971  -0.05067  0.905  -0.1867
6.39e+09  0.8692  -0.04444  -0.007752  0.02788  -0.0005501  0.0262  0.8042  -0.5329
6.391e+09  0.8475  -0.3261  0.04078  0.02301  -0.01873  0.007406  0.5932  -0.7429
6.392e+09  0.6725  -0.5443  0.04642  -0.03913  -0.01487  0.01248  0.3089  -0.8562
6.394e+09  0.4492  -0.7257  -0.0251  -0.00875  0.02513  -0.04669  -0.03539  -0.9614
6.395e+09  0.1525  -0.8714  -0.01263  -0.0235  -0.00722  -0.01472  -0.3333  -0.8529
6.396e+09  -0.1578  -0.8709  0.002252  -0.0321  0.006431  0.04562  -0.605  -0.7003
6.398e+09  -0.443  -0.7305  -0.02035  -0.03434  -0.01862  0.009317  -0.8246  -0.4546
6.399e+09  -0.6407  -0.5338  -0.01456  -0.008818  -0.01948  -0.01029  -0.9051  -0.1563
6.4e+09  -0.8158  -0.2778  0.01152  0.01465  9.596e-06  0.07151  -0.9152  0.1404
6.401e+09  -0.7943  -0.03389  0.02043  0.001401  -0.0237  0.02402  -0.7951  0.4839
6.402e+09  -0.8214  0.2762  0.01584  -0.0114  0.003319  -0.0005264  -0.5726  0.7089
6.404e+09  -0.6318  0.5293  0.002597  -0.001431  0.01591  0.005745  -0.3203  0.853
6.405e+09  -0.4381  0.7212  -0.01793  -0.05189  -0.02498  -0.011  0.002299  0.9418
6.406e+09  -0.1005  0.8049  0.04742  -0.0005647  -0.01799  0.02831  0.3395  0.8749
6.408e+09  0.2236  0.8349  0.06715  -0.03675  0.02993  0.002262  0.5852  0.6665
6.409e+09  0.473  0.7333  0.009351  0.01192  0.03202  -0.04514  0.8052  0.4804
6.41e+09  0.6902  0.4781  1.604e-05  -0.03941  0.01977  0.03902  0.9364  0.1438
6.411e+09  0.8118  0.2749  -0.01606  0.05261  -0.006686  -0.0545  0.8988  -0.1342
6.412e+09  0.8301  0.005261  -0.04018  -0.009971  0.01654  -0.02438  0.7521  -0.4149
6.414e+09  0.7351  -0.3391  -0.003917  0.01459  0.01454  0.01657  0.6322  -0.6875
6.415e+09  0.6699  -0.5331  -0.01436  -0.04685  -0.008329  -0.0126  0.3172  -0.8247
6.416e+09  0.4388  -0.7989  -0.007334  -0.01781  -0.03527  0.01358  0.03599  -0.8674
6.418e+09  0.09555  -0.7584  0.007176  0.02543  -0.03674  -0.0003623  -0.2999  -0.8992
6.419e+09  -0.1772  -0.8271  -0.02955  0.01226  0.0242  0.03759  -0.5256  -0.7441
6.42e+09  -0.4449  -0.7359  0.02457  -0.0127  0.01605  -0.005947  -0.7419  -0.4626
6.421e+09  -0.6524  -0.5204  -0.01672  0.02729  -0.0257  0.01252  -0.8797  -0.1832
6.422e+09  -0.7907  -0.2493  -0.0104  0.001667  -0.007619  0.006403  -0.9205  0.1207
6.424e+09  -0.8602  0.03722  -0.009699  -0.02058  0.02164  0.01172  -0.8083  0.4086
6.425e+09  -0.8564  0.3257  0.02342  -0.01173  -0.01959  -0.02206  -0.5947  0.6205
6.426e+09  -0.6085  0.5436  0.02339  -0.02207  -0.006094  0.0144  -0.3712  0.7941
6.428e+09  -0.3375  0.7677  -0.02361  -0.01558  -0.03566  0.04113  -0.05018  0.8982
6.429e+09  -0.1311  0.883  0.0186  -0.03567  -0.03346  0.02196  0.2789  0.8601
6.43e+09  0.1698  0.8361  0.03893  0.01631  0.005997  0.01629  0.543  0.7281
6.431e+09  0.4418  0.7424  -0.0009865  0.00368  0.03592  -0.01263  0.6818  0.472
6.432e+09  0.6744  0.5115  -0.03567  0.003326  -0.01138  -0.03934  0.7976  0.2115
6.434e+09  0.7911  0.2624  -0.03223  0.02726  0.01506  -0.0113  0.8818  -0.06259
6.435e+09  0.807  0.003203  0.002511  -0.006733  0.00275  -0.01495  0.814  -0.4158
6.436e+09  0.8013  -0.3702  0.01096  0.006962  0.024  -0.03787  0.5628  -0.5712
6.438e+09  0.6465  -0.616  0.01942  0.02192  -0.02245  -0.01881  0.3071  -0.7963
6.439e+09  0.3669  -0.7563  0.007862  0.02338  -0.02117  0.0353  0.05959  -0.8211
6.44e+09  0.108  -0.8802  0.005263  0.01782  -0.004676  0.01279  -0.2008  -0.8197
6.441e+09  -0.2237  -0.8371  0.02942  0.01468  0.002536  -0.007504  -0.5459  -0.7
6.442e+09  -0.4612  -0.6798  0.01364  -0.01456  -0.03185  0.08773  -0.7393  -0.4492
6.444e+09  -0.7012  -0.4991  0.002683  -0.002847  0.02404  -0.06317  -0.8115  -0.2462
6.445e+09  -0.8246  -0.1912  0.01338  -0.02101  -0.01281  -0.005366  -0.8414  0.06846
6.446e+09  -0.8615  0.1224  0.008875  0.001103  0.008164  0.03332  -0.805  0.2988
6.448e+09  -0.7842  0.3699  -0.007425  0.02538  -0.02685  0.02036  -0.5907  0.6191
6.449e+09  -0.6088  0.5975  -0.005285  0.0324  0.02606  0.06307  -0.3122  0.7659
6.45e+09  -0.3215  0.7628  0.02278  -0.02247  0.0154  0.01714  0.01474  0.8232
6.451e+09  -0.135  0.8642  -0.02023  -0.002991  0.001855  -0.0536  0.1636  0.836
6.452e+09  0.2714  0.8337  0.01641  0.009224  0.01791  0.01577  0.5041  0.7012
6.454e+09  0.5289  0.7277  -0.008831  0.002593  0.04085  -0.006709  0.6763  0.4993
6.455e+09  0.7415  0.488  -0.0168  0.0001259  0.004008  0.03553  0.8003  0.1786
6.456e+09  0.835  0.2279  -0.002957  -0.02196  -0.02321  0.01632  0.8525  -0.06822
6.458e+09  0.8129  -0.07955  0.03345  -0.01983  -0.0009365  0.01793  0.7158  -0.342
6.459e+09  0.7871  -0.3687  -0.002685  0.005317  0.004778  0.01605  0.5599  -0.5428
6.46e+09  0.6474  -0.6619  -0.003184  -0.003367  -0.00967  0.03003  0.344  -0.7665
6.461e+09  0.3376  -0.7978  0.003741  0.02962  0.01502  0.008774  0.07107  -0.834
6.462e+09  0.01176  -0.8613  -0.004456  0.04383  0.001175  -0.009688  -0.2478  -0.7518
6.464e+09  -0.2432  -0.8243  0.02346  -0.007557  -0.01151  -0.02381  -0.4399  -0.6616
6.465e+09  -0.5291  -0.7352  0.005207  -0.02181  0.01325  0.001304  -0.6515  -0.4434
6.466e+09  -0.7415  -0.4561  -0.02173  0.002049  0.006056  -0.009474  -0.7962  -0.2241
6.468e+09  -0.8729  -0.1961  -0.01531  0.01335  0.0006472  -0.04604  -0.7654  0.05268
6.469e+09  -0.9051  0.05433  -0.0124  -0.02263  -0.01654  0.002125  -0.7818  0.3563
6.47e+09  -0.7928  0.3826  -0.005972  -0.002297  -0.03548  0.01726  -0.5464  0.5469
6.471e+09  -0.6077  0.6427  -0.0145  0.00328  -0.01856  0.03196  -0.2917  0.7251
6.472e+09  -0.3774  0.7654  -0.02788  0.00683  0.01427  -0.005529  -0.09681  0.7524
6.474e+09  -0.03111  0.8933  -0.03148  0.01978  0.02869  -0.04261  0.2224  0.7476
6.475e+09  0.2332  0.8741  0.01415  -0.01237  -0.03464  -0.04045  0.4373  0.6189
6.476e+09  0.599  0.6952  0.004329  0.02576  -0.01657  -0.0008452  0.656  0.4423
6.478e+09  0.728  0.4421  -0.02462  0.01587  -0.02005  0.001013  0.7598  0.1579
6.479e+09  0.8614  0.1326  -0.05223  -0.04254  0.006735  -0.05663  0.7506  -0.08209
6.48e+09  0.8746  -0.1559  0.01879  -0.01057  -0.02918  -0.01005  0.7113  -0.3523
6.481e+09  0.79  -0.4001  -0.01428  0.02222  -0.02831  -0.006823  0.5027  -0.5647
6.482e+09  0.6041  -0.6667  0.006187  0.01367  0.01675  -0.00695  0.3082  -0.7036
6.484e+09  0.3692  -0.7737  0.06631  -0.0298  0.007806  0.05335  0.07205  -0.7862
6.485e+09  0.02742  -0.8546  0.03612  0.03681  0.005427  0.00599  -0.2  -0.7551
6.486e+09  -0.296  -0.8952  -0.005084  -0.0198  0.007071  -0.0195  -0.4542  -0.6133
6.488e+09  -0.1179  -1.261  0.00879  -0.0214  0.5277  0.4697  -0.6595  -0.4484
6.489e+09  -0.7617  -0.4628  0.0028  0.003307  -0.05114  0.005652  -0.7652  -0.1866
6.49e+09  -0.9061  -0.1753  0.02401  0.00447  0.009828  -0.03525  -0.7872  0.1028
6.491e+09  -0.8856  0.1204  -0.04064  0.0224  0.02012  -0.03313  -0.6871  0.3492
6.492e+09  -0.7865  0.4289  0.01567  -0.001699  -0.03671  0.03258  -0.5178  0.5562
6.494e+09  -0.494  0.624  0.004778  0.02748  -0.09998  0.1475  -0.2778  0.7152
6.495e+09  -0.313  0.8169  -0.02616  0.01722  0.008433  0.00568  0.007669  0.7749
6.496e+09  -0.02804  0.9427  -0.01944  -0.03254  -0.006298  -0.01109  0.2457  0.6938
6.498e+09  0.3131  0.8493  0.01018  0.01045  -3.177e-05  -0.01118  0.4602  0.6224
6.499e+09  0.6347  0.6885  -0.03126  0.0101  0.005873  -0.03045  0.6267  0.3953
6.5e+09  0.7759  0.3951  -0.0203  0.01334  0.03071  0.04212  0.7161  0.1673
6.501e+09  0.8883  0.1324  -0.04834  0.006291  -0.005462  -0.03092  0.7564  -0.09097
6.502e+09  0.8863  -0.1481  -0.001434  0.03567  -0.04731  -0.006322  0.6741  -0.3271
6.504e+09  0.7548  -0.4643  0.02364  -0.01296  -0.008158  0.02631  0.4721  -0.5438
6.505e+09  0.5157  -0.7232  -0.01579  0.02083  -0.004021  -0.03182  0.2935  -0.72
6.506e+09  0.2139  -0.9234  0.01281  0.01892  -0.0384  0.002474  0.008269  -0.7833
6.508e+09  -0.03652  -0.9006  -0.0287  -0.02587  -0.0413  -0.03971  -0.2204  -0.7441
6.509e+09  -0.3149  -0.8416  0.01765  -0.02932  0.04095  -0.006959  -0.4727  -0.5697
6.51e+09  -0.5749  -0.6201  -0.03546  -0.003297  0.04457  0.02196  -0.6713  -0.3676
6.511e+09  -0.8555  -0.3841  0.02543  0.007822  -0.003098  0.0294  -0.7399  -0.126
6.512e+09  -0.9254  -0.1479  -0.01742  -0.02431  -0.01206  -0.0387  -0.7318  0.1173
6.514e+09  -0.9236  0.2362  0.02417  -0.002268  0.03333  -0.007838  -0.6308  0.3798
6.515e+09  -0.7702  0.5133  0.01847  -0.03611  0.003549  -0.02406  -0.473  0.5576
6.516e+09  -0.5334  0.7687  -0.002091  -0.0321  8.808e-05  -0.04707  -0.2742  0.7473
6.518e+09  -0.2635  0.8704  -0.01707  0.02084  0.0228  -0.01139  0.003986  0.7207
6.519e+09  0.03698  0.9371  0.01515  0.03075  -0.03477  0.008323  0.3335  0.6623
6.52e+09  0.3668  0.7957  0.01969  0.001538  0.0004122  0.0393  0.4919  0.5614
6.521e+09  0.6937  0.6319  -0.01084  -0.006854  -0.05197  0.05433  0.6541  0.3661
6.522e+09  0.8567  0.3679  -0.008736  0.01931  -0.003932  -0.08062  0.7313  0.1089
6.524e+09  0.9614  0.02173  -0.01713  0.05079  -0.0243  -0.06903  0.6951  -0.1765
6.525e+09  0.8937  -0.2419  0.02354  0.0002608  -0.01482  -7.084e-05  0.579  -0.3936
6.526e+09  0.7554  -0.602  0.0479  -0.005603  0.02606  0.06021  0.4067  -0.6102
6.528e+09  0.4327  -0.7673  0.02363  -0.005288  -0.002092  -0.02758  0.1834  -0.6792
6.529e+09  0.2217  -0.8832  0.01739  0.027  -0.01994  -0.04142  -0.0427  -0.7167
6.53e+09  -0.1378  -0.9046  -0.02137  -0.03701  -0.02824  -0.01846  -0.2922  -0.6357
6.531e+09  -0.4961  -0.8074  -0.01879  -0.0238  0.002237  -0.0003137  -0.4885  -0.4978
6.532e+09  -0.7303  -0.5755  -0.01054  0.01513  0.002353  0.01654  -0.5823  -0.2548
6.534e+09  -0.9046  -0.2862  -0.002324  0.02023  0.07026  0.00551  -0.567  -0.05813
6.535e+09  -0.9526  0.04485  0.02265  0.01117  -0.001599  -0.02373  -0.61  0.1111
6.536e+09  -0.8579  0.3743  0.000226  0.02066  0.001212  -0.009639  -0.5647  0.3073
6.538e+09  -0.6871  0.6503  -0.01712  -0.006208  -0.006907  -0.0001589  -0.4685  0.478
6.539e+09  -0.4022  0.8122  -0.004817  -0.005483  0.001916  0.03624  -0.2845  0.5979
6.54e+09  -0.1348  0.9003  -0.002709  2.9e-06  0.008772  0.05714  -0.08655  0.6791
6.541e+09  0.2171  0.9398  -0.02982  0.008166  0.0191  -0.02628  0.1838  0.638
6.542e+09  0.595  0.7249  -0.002727  0.04549  -0.01275  -0.02939  0.3788  0.566
6.544e+09  0.7698  0.5283  -0.0205  0.006397  0.0211  -0.001554  0.6135  0.3722
6.545e+09  0.9107  0.2526  0.0206  0.007773  -0.01584  -0.01065  0.6975  0.1782
6.546e+09  0.9058  -0.07835  -0.006206  -0.03255  0.004594  -0.001803  0.7224  -0.1038
6.548e+09  0.8536  -0.3931  0.006052  -0.002676  0.02888  0.02857  0.6657  -0.3398
6.549e+09  0.6192  -0.6618  0.01411  0.01485  -0.02785  0.05828  0.5017  -0.5538
6.55e+09  0.4092  -0.8468  0.002927  -0.008717  0.05619  -0.03478  0.3085  -0.6763
