# Hz S RI R 50
6.25e+09  -0.3554  0.7217  -0.005605  -0.0296  0.01738  -0.05174  0.153  0.4572
6.251e+09  -0.0658  0.8219  -0.02154  0.007769  0.00872  -0.04243  0.3629  0.4234
6.252e+09  0.2118  0.8266  0.0254  0.00555  -0.05862  0.002512  0.5345  0.2559
6.254e+09  0.4659  0.715  -0.02994  -0.002453  0.03595  -0.0107  0.6093  0.00409
6.255e+09  0.7104  0.4773  -0.01277  -0.002081  0.01768  -0.005422  0.5635  -0.2177
6.256e+09  0.7961  0.2141  -0.03373  0.01199  -0.004492  0.02006  0.4512  -0.461
6.258e+09  0.7792  -0.02888  -0.0252  0.04322  0.05721  -0.00662  0.2794  -0.6356
6.259e+09  0.699  -0.4099  0.0273  -0.01739  0.0001059  0.01121  0.009098  -0.7195
6.26e+09  0.5683  -0.5981  -0.01439  -0.005107  -0.0038  -0.009731  -0.2244  -0.6776
6.261e+09  0.3702  -0.746  0.02174  0.001068  0.0183  -0.03491  -0.429  -0.5242
6.262e+09  0.07624  -0.8406  0.005924  0.03245  0.01031  -0.049  -0.6219  -0.3652
6.264e+09  -0.1766  -0.7586  -0.01417  -0.0103  -0.009176  0.016  -0.6799  -0.1036
6.265e+09  -0.4689  -0.6346  0.05218  -0.02948  0.01181  -0.02325  -0.7366  0.1259
6.266e+09  -0.6521  -0.4442  0.009341  -0.01202  0.03419  0.0568  -0.6153  0.3938
6.268e+09  -0.825  -0.2048  0.04535  -0.03952  0.02517  0.02417  -0.4189  0.6167
6.269e+09  -0.7881  0.07736  -0.004928  -0.0194  0.0278  0.01614  -0.2305  0.7096
6.27e+09  -0.7507  0.3571  0.01471  -0.0168  -0.002987  -0.02795  0.05637  0.7207
6.271e+09  -0.5645  0.5838  -0.02784  -0.0004023  0.01066  -0.02419  0.3177  0.6959
6.272e+09  -0.3494  0.7161  -0.0121  -0.01825  -0.02506  0.021  0.5163  0.5274
6.274e+09  -0.07487  0.8344  -0.003069  0.0134  0.02069  -0.02504  0.7169  0.2913
6.275e+09  0.2405  0.8024  0.005687  0.008619  -0.01025  -0.03458  0.7046  0.04253
6.276e+09  0.4371  0.6901  0.01094  -0.02468  -0.00127  0.01522  0.7195  -0.2143
6.278e+09  0.6489  0.468  0.008652  -0.0229  0.02182  -0.002346  0.6023  -0.4409
6.279e+09  0.7611  0.2195  0.003057  0.007261  0.01526  -0.04721  0.4463  -0.6506
6.28e+09  0.7767  -0.08057  -0.01969  -0.001307  0.003075  -0.01663  0.1605  -0.766
6.281e+09  0.6973  -0.3498  0.01856  0.01042  -0.01358  0.04868  -0.1506  -0.8033
6.282e+09  0.5288  -0.5749  0.0129  7.864e-05  0.02021  -0.03983  -0.3896  -0.709
6.284e+09  0.3025  -0.7527  -0.01075  -0.01221  -0.01696  -0.02179  -0.5773  -0.5213
6.285e+09  0.06619  -0.7825  0.003695  -0.05733  -0.01199  -0.03029  -0.7337  -0.2835
6.286e+09  -0.2702  -0.7986  -0.003374  0.004494  0.01216  0.01624  -0.7744  -0.01247
6.288e+09  -0.4963  -0.629  -0.03112  -0.006515  0.006165  -0.002984  -0.7438  0.2119
6.289e+09  -0.7016  -0.4131  0.01346  0.005887  0.03108  -0.01362  -0.6327  0.4902
6.29e+09  -0.7914  -0.1437  0.01175  -0.009431  0.003124  0.003728  -0.437  0.6861
6.291e+09  -0.781  0.1308  -0.0006013  -0.005386  0.001931  -0.009777  -0.1574  0.7989
6.292e+09  -0.6443  0.4152  0.01139  -0.02596  0.02478  -0.00829  0.1075  0.8005
6.294e+09  -0.4802  0.6282  -0.02245  0.001124  -0.05799  -0.05511  0.4314  0.7037
6.295e+09  -0.2394  0.7537  0.03611  0.003121  0.03539  0.0003705  0.6333  0.4981
6.296e+09  -0.01188  0.8275  -0.004716  -0.02019  0.02716  0.03642  0.7651  0.2798
6.298e+09  0.2754  0.7743  0.000185  -0.01821  -0.007616  -0.01061  0.854  0.008027
6.299e+09  0.5347  0.609  -0.009886  -0.02836  -0.04653  0.01616  0.7711  -0.2853
6.3e+09  0.6672  0.4114  -0.005834  -0.003107  0.04366  -0.02679  0.6082  -0.5302
6.301e+09  0.7998  0.1156  0.01494  -0.00842  0.01609  -0.001429  0.4176  -0.7142
6.302e+09  0.8297  -0.1526  -0.01171  0.02797  -0.06035  -0.007022  0.1687  -0.8162
6.304e+09  0.7322  -0.4157  -0.01339  0.0197  -0.02122  -0.03108  -0.1436  -0.8526
6.305e+09  0.5064  -0.6432  0.03622  -0.006405  -0.001787  -0.01276  -0.4306  -0.7514
6.306e+09  0.2709  -0.7969  -0.0005714  -0.02655  -0.02409  -0.007113  -0.672  -0.5484
6.308e+09  -0.02559  -0.801  -0.02755  0.02128  -0.05953  0.01396  -0.8146  -0.3148
6.309e+09  -0.3135  -0.7302  0.01101  0.01083  -0.004733  -0.05662  -0.8383  0.008332
6.31e+09  -0.5484  -0.5995  -0.01769  0.0005228  -0.02473  0.01077  -0.859  0.2796
6.311e+09  -0.7201  -0.3981  -0.04828  -0.007044  -0.0712  -0.02591  -0.7067  0.5849
6.312e+09  -0.8043  -0.1093  -0.01672  0.008011  -0.0001502  -0.002348  -0.4483  0.7345
6.314e+09  -0.7897  0.2208  -0.0078  -0.007049  0.02103  -0.03067  -0.148  0.8272
6.315e+09  -0.7769  0.4839  -0.03317  0.003662  -0.03861  -0.05513  0.1662  0.86
6.316e+09  -0.4755  0.6765  -0.01512  0.01047  -0.05807  -0.01095  0.4102  0.7777
6.318e+09  -0.2308  0.7985  0.01093  0.0005238  0.02538  0.01164  0.6605  0.5692
6.319e+09  0.05452  0.8309  -0.02758  0.0092  -0.04226  -0.04135  0.8312  0.2991
6.32e+09  0.3961  0.7223  -0.02799  -0.001204  -0.01885  0.04329  0.8935  -0.02026
6.321e+09  0.5681  0.5978  0.01078  0.005534  -0.03686  -0.01394  0.8465  -0.2793
6.322e+09  0.7455  0.3276  -0.005981  -0.008682  0.008169  -0.02941  0.6936  -0.5652
6.324e+09  0.7783  0.03442  0.01004  0.01406  0.01349  -0.0298  0.5015  -0.7718
6.325e+09  0.7884  -0.2397  0.0033  -0.003483  -0.01023  -0.04567  0.2075  -0.89
6.326e+09  0.6581  -0.4912  0.05875  -0.01172  -0.02755  0.01233  -0.1328  -0.8545
6.328e+09  0.4473  -0.6878  0.01679  0.004679  -0.02323  0.05543  -0.4059  -0.7813
6.329e+09  0.2518  -0.8174  0.003678  -0.005814  -0.01174  0.01155  -0.7156  -0.5952
6.33e+09  -0.1213  -0.8164  -0.01159  -0.04197  0.0209  -0.04276  -0.8078  -0.3322
6.331e+09  -0.4604  -0.7227  -0.02792  -0.01723  -0.01238  -0.002818  -0.8968  -0.02776
6.332e+09  -0.6306  -0.5629  -0.01181  0.005374  -0.03816  0.02333  -0.8359  0.2959
6.334e+09  -0.7866  -0.2613  0.003192  0.009441  0.031  0.02906  -0.7247  0.5508
6.335e+09  -0.8557  0.04869  0.02075  -0.02902  0.003885  0.0111  -0.49  0.732
6.336e+09  -0.7796  0.2739  0.01349  0.01286  -0.02409  -0.02436  -0.2057  0.8911
6.338e+09  -0.6386  0.5699  0.003019  -0.008558  0.026  -0.0006429  0.1348  0.8793
6.339e+09  -0.3815  0.7411  -0.01338  -0.007852  -0.01506  -0.04585  0.4034  0.8492
6.34e+09  -0.1371  0.8853  -0.01512  -0.0002411  0.01585  0.0224  0.6578  0.6375
6.341e+09  0.2057  0.8632  0.002684  -0.01368  -0.006559  -0.02958  0.8505  0.325
6.342e+09  0.4759  0.6903  0.01144  0.02473  -0.01437  0.003445  0.9258  0.07288
6.344e+09  0.7047  0.5175  -0.01165  -0.01943  0.005701  -0.01455  0.9038  -0.2728
6.345e+09  0.8658  0.212  -0.02115  -0.01256  0.01415  0.04938  0.7517  -0.5763
6.346e+09  0.8851  -0.0169  -0.01437  -0.005633  -0.03112  0.0207  0.5055  -0.7774
6.348e+09  0.7844  -0.3285  0.01729  0.01945  -0.04558  -0.005146  0.2248  -0.9359
6.349e+09  0.623  -0.5849  0.00968  -0.02038  0.05563  0.01105  -0.05939  -0.9015
6.35e+09  0.4057  -0.7755  0.008771  -0.0121  -0.0123  0.009126  -0.4335  -0.8211
6.351e+09  0.08264  -0.8247  0.02951  -0.008448  -0.009459  0.02173  -0.6884  -0.6149
6.352e+09  -0.2352  -0.8355  -0.03743  -0.00244  0.0269  -0.005986  -0.8874  -0.4077
6.354e+09  -0.4816  -0.6549  -0.01804  -1.094e-05  0.01564  0.009813  -0.962  -0.02395
6.355e+09  -0.7312  -0.4628  0.03286  -0.01492  -0.04153  -0.009686  -0.9164  0.245
6.356e+09  -0.8591  -0.1802  -0.01274  0.01153  0.02824  -0.01066  -0.7447  0.5599
6.358e+09  -0.8803  0.08071  -0.02122  0.02368  -0.02988  0.00598  -0.521  0.7834
6.359e+09  -0.7557  0.3685  -0.003745  0.02499  -0.03165  -0.01537  -0.2878  0.9269
6.36e+09  -0.579  0.6279  -0.04092  -0.02333  0.003284  0.01369  0.1279  0.9388
6.361e+09  -0.336  0.8024  -0.0629  -0.01373  0.02232  -0.0309  0.4052  0.8686
6.362e+09  -0.02832  0.875  0.01874  0.006024  0.008254  0.03299  0.6533  0.6598
6.364e+09  0.2254  0.8017  0.04714  -0.03262  -0.01656  -0.02161  0.861  0.4102
6.365e+09  0.5563  0.6818  -0.006608  0.01745  -0.002818  -0.0359  0.9467  0.07994
6.366e+09  0.7498  0.4078  0.007389  -0.01011  0.01918  0.01551  0.9517  -0.2342
6.368e+09  0.8027  0.1568  0.01717  0.0368  -0.01129  -0.02035  0.7829  -0.4969
6.369e+09  0.8026  -0.149  0.0007924  -0.004375  -0.04172  -0.02322  0.5385  -0.7699
6.37e+09  0.7437  -0.3988  -0.0293  -0.03371  -0.01752  -0.004984  0.2543  -0.9455
6.371e+09  0.5382  -0.645  -0.03767  -0.03369  -0.008138  0.03137  -0.08746  -0.9308
6.372e+09  0.3025  -0.8142  -0.04423  -0.007448  0.02175  -0.03295  -0.4214  -0.8464
6.374e+09  -0.009311  -0.8731  -0.01839  0.005026  0.001722  0.006968  -0.614  -0.6904
6.375e+09  -0.3379  -0.7859  -0.03223  0.03312  0.03491  -0.06514  -0.8425  -0.4622
6.376e+09  -0.5524  -0.6334  -0.02552  -0.01533  0.01781  0.01678  -0.9506  -0.1137
6.378e+09  -0.7844  -0.4177  0.004216  -0.03328  0.00278  0.02288  -0.9185  0.2408
6.379e+09  -0.8564  -0.07757  0.01647  0.02034  -0.00956  -0.03825  -0.77  0.5206
6.38e+09  -0.8128  0.2189  -0.03747  -0.01262  -0.007496  -0.02811  -0.5857  0.7379
6.381e+09  -0.7162  0.4603  -0.02041  0.04102  -0.03146  -0.01892  -0.2912  0.8803
6.382e+09  -0.534  0.6948  -0.006009  0.03293  -0.0003747  -0.02832  0.04872  0.9576
6.384e+09  -0.2605  0.8348  0.00666  0.003493  0.02808  0.009864  0.3517  0.8831
6.385e+09  0.03752  0.8893  0.02281  0.001115  0.01071  -0.02178  0.6176  0.6772
6.386e+09  0.3109  0.7673  -0.01611  0.01375  0.006058  -0.003079  0.8269  0.3947
6.388e+09  0.561  0.6383  0.02496  0.01017  -0.002695  0.004791  0.9562  0.1213
6.389e+09  0.7832  0.3741  0.02922  -0.05414  0.06344  -0.06543  0.9067  -0.1932
6.39e+09  0.8617  0.04387  -0.01539  -0.002197  -0.03191  0.02887  0.7918  -0.5136
6.391e+09  0.7948  -0.2503  0.00548  -0.004703  -0.008514  0.01125  0.5697  -0.7407
6.392e+09  0.6646  -0.476  0.03594  -0.0004014  0.01073  -0.0322  0.2933  -0.8904
6.394e+09  0.5619  -0.739  -0.009453  0.01493  0.00984  -0.01356  -0.02208  -0.8865
6.395e+09  0.1892  -0.8182  -0.01591  -0.002445  -0.01069  0.0176  -0.3523  -0.8424
6.396e+09  -0.08274  -0.8625  -0.001486  0.01884  -0.009392  0.01549  -0.5879  -0.6686
6.398e+09  -0.4065  -0.7808  -0.006684  -0.005202  -0.02986  -0.00913  -0.8225  -0.4548
6.399e+09  -0.6301  -0.5804  -7.293e-05  0.02998  -0.0008606  0.0237  -0.9129  -0.09376
6.4e+09  -0.8106  -0.3313  -0.003719  0.03863  -0.03176  -0.02575  -0.8968  0.1339
6.401e+09  -0.856  -0.07235  -0.009701  0.007059  0.004108  0.007775  -0.7646  0.4812
6.402e+09  -0.8421  0.2266  0.01387  -0.01301  0.004848  0.01404  -0.6439  0.6962
6.404e+09  -0.7122  0.4321  -0.02001  -0.001458  0.03036  0.03167  -0.3306  0.8581
6.405e+09  -0.4545  0.7158  0.01661  -0.042  -0.01087  0.01664  0.03845  0.8954
6.406e+09  -0.2025  0.8518  0.0001451  0.01313  -0.02397  -0.0446  0.2942  0.8877
6.408e+09  0.09561  0.8622  0.04513  -0.04471  0.004807  0.01169  0.587  0.6832
6.409e+09  0.3838  0.7232  0.00403  0.002736  0.04067  0.01604  0.7802  0.4438
6.41e+09  0.6146  0.5714  -0.04474  0.02974  -0.01292  -0.01676  0.834  0.151
6.411e+09  0.7599  0.3279  -0.02513  -0.04038  0.003061  -0.0376  0.8748  -0.1864
6.412e+09  0.8245  0.06029  0.03811  -0.01502  0.01794  -0.001847  0.7412  -0.4504
6.414e+09  0.7844  -0.2521  0.008862  0.003174  0.02624  0.02434  0.5915  -0.6604
6.415e+09  0.7071  -0.4727  0.06726  0.003533  -0.007126  -0.02413  0.2831  -0.868
6.416e+09  0.4798  -0.6859  0.01622  0.03692  0.01658  -0.02065  0.01266  -0.8821
6.418e+09  0.2104  -0.8508  0.02438  -0.02069  -0.03043  0.008136  -0.2902  -0.8621
6.419e+09  -0.1227  -0.8336  -0.02645  0.01627  0.04326  0.02923  -0.5455  -0.6963
6.42e+09  -0.4037  -0.7683  0.00863  0.03897  -0.02146  -0.01478  -0.7504  -0.4679
6.421e+09  -0.6227  -0.5663  -0.01064  0.03345  -0.01014  0.0206  -0.873  -0.1907
6.422e+09  -0.8171  -0.28  0.04418  -0.02395  0.01789  -0.03443  -0.8908  0.1151
6.424e+09  -0.8136  -0.008118  -0.003452  0.01234  -0.02077  0.01892  -0.7239  0.3923
6.425e+09  -0.7652  0.2713  0.05933  -0.01257  0.00476  -0.06383  -0.5925  0.7211
6.426e+09  -0.7008  0.5858  0.03208  -0.01119  -0.002117  -0.00542  -0.3219  0.8503
6.428e+09  -0.478  0.7448  -0.004796  -0.003092  -0.003012  -0.02541  -0.04406  0.9089
6.429e+09  -0.1734  0.852  0.004523  0.005923  -0.005231  -0.02027  0.242  0.8563
6.43e+09  0.1353  0.8103  0.001226  -0.002658  -0.04272  0.01842  0.5264  0.712
6.431e+09  0.3661  0.8036  -0.0313  0.002513  -0.009189  -0.005372  0.7082  0.4574
6.432e+09  0.6571  0.5712  0.02279  0.05299  0.03066  -0.01309  0.8294  0.1842
6.434e+09  0.7558  0.2518  0.01486  -0.02954  -0.03449  -0.002517  0.8496  -0.08626
6.435e+09  0.8299  0.0005919  -0.0006009  -0.003392  -0.007455  -0.007351  0.7437  -0.3492
6.436e+09  0.7961  -0.3057  0.009342  -0.01011  -0.0009554  -0.01307  0.6098  -0.5864
6.438e+09  0.6494  -0.5701  0.0181  0.01973  0.001486  0.01437  0.352  -0.7804
6.439e+09  0.3796  -0.7677  -0.00352  0.01986  -0.01283  0.05448  0.08626  -0.8649
6.44e+09  0.1255  -0.8548  -0.02015  0.06109  -0.0302  -0.005406  -0.2001  -0.8436
6.441e+09  -0.1114  -0.8675  -0.01831  0.01247  -0.01307  0.04282  -0.5334  -0.7067
6.442e+09  -0.452  -0.7633  -0.005294  0.009266  0.01944  -0.04323  -0.6656  -0.4503
6.444e+09  -0.6291  -0.5226  0.02294  0.003352  0.03199  0.02188  -0.8265  -0.1687
6.445e+09  -0.8012  -0.2816  -0.006788  0.01681  -0.04168  0.02278  -0.815  0.1053
6.446e+09  -0.8687  0.03132  0.03321  0.03099  -0.02838  0.009302  -0.7333  0.4161
6.448e+09  -0.82  0.276  0.0402  -0.006113  -0.03675  0.008868  -0.5723  0.5846
6.449e+09  -0.6543  0.5846  -0.006079  0.01319  -0.05112  0.0008801  -0.2964  0.7876
6.45e+09  -0.4227  0.7345  0.01802  0.003411  -0.03798  -0.02437  -0.08303  0.8742
6.451e+09  -0.123  0.86  0.02392  0.02388  -0.04989  0.006151  0.1734  0.8011
6.452e+09  0.1905  0.8723  -0.008186  -0.02517  -0.007019  0.008752  0.4851  0.6663
6.454e+09  0.4658  0.7261  -0.001795  0.01132  -0.01791  -0.01883  0.671  0.4681
6.455e+09  0.6715  0.5737  -0.03399  -0.001001  0.02357  0.003882  0.8176  0.1706
6.456e+09  0.784  0.2759  0.01195  0.00471  0.01987  0.001657  0.8186  -0.08958
6.458e+09  0.8389  0.003057  -0.007205  -0.008089  -0.007311  0.01739  0.7867  -0.3252
6.459e+09  0.8248  -0.3037  0.0196  0.01544  -0.00924  0.01197  0.5811  -0.6279
6.46e+09  0.6193  -0.5646  -0.04275  0.01673  0.03562  0.02608  0.3467  -0.7177
6.461e+09  0.3938  -0.7755  0.02535  0.009912  -0.006781  -0.002267  0.07186  -0.8121
6.462e+09  0.1218  -0.8716  -0.005491  -0.001723  -0.02782  -0.03527  -0.2013  -0.7549
6.464e+09  -0.1455  -0.8592  0.0245  0.02934  0.003516  0.00528  -0.4612  -0.6808
6.465e+09  -0.4829  -0.7606  0.04781  -0.05076  -0.03047  0.00111  -0.6794  -0.4475
6.466e+09  -0.6878  -0.5134  -0.02319  0.01804  -0.002489  -0.0001256  -0.7932  -0.2344
6.468e+09  -0.8236  -0.2781  -0.02332  -0.004798  0.023  0.01604  -0.7737  0.07874
6.469e+09  -0.8964  0.01626  0.02151  0.01476  -0.09359  0.03637  -0.7468  0.3086
6.47e+09  -0.8186  0.3375  -0.003537  0.04383  -0.03147  0.0108  -0.5849  0.5769
6.471e+09  -0.7034  0.6251  -0.006477  0.01205  -0.04619  0.04971  -0.3406  0.7206
6.472e+09  -0.4239  0.7878  -0.02921  -0.02471  -0.04947  0.00364  -0.05721  0.7777
6.474e+09  -0.1186  0.8821  0.01104  -0.01381  -0.0108  0.07041  0.2174  0.7767
6.475e+09  0.1995  0.88  0.01316  -0.02954  -0.02305  0.007697  0.4603  0.6473
6.476e+09  0.4458  0.7225  -0.01578  -0.005436  0.008693  -0.003249  0.6611  0.462
6.478e+09  0.746  0.4973  -0.004872  0.0304  -0.0189  0.03707  0.7483  0.2306
6.479e+09  0.842  0.2515  -0.01916  -0.05891  0.01079  0.001624  0.7775  -0.08655
6.48e+09  0.9081  -0.0553  0.001449  -0.01016  -0.007564  0.01462  0.7322  -0.322
6.481e+09  0.7671  -0.3238  -0.02336  -0.003336  -0.01534  0.01564  0.5653  -0.5257
6.482e+09  0.6458  -0.6151  -0.04987  -0.003188  0.003253  0.01813  0.2946  -0.7164
6.484e+09  0.4129  -0.781  0.01729  -0.001971  0.002461  -0.02108  0.06298  -0.7292
6.485e+09  0.1173  -0.8859  0.009741  0.005305  0.04294  0.06805  -0.1892  -0.7546
6.486e+09  -0.1726  -0.8476  0.01899  -0.02409  -0.003684  0.04258  -0.4705  -0.6193
6.488e+09  -0.8002  -1.47  -0.01048  0.02864  0.009693  -0.7089  -0.6326  -0.4345
6.489e+09  -0.6863  -0.5068  0.002024  0.02131  -0.004004  -0.01317  -0.7647  -0.1735
6.49e+09  -0.8308  -0.2837  0.00371  -0.0385  -0.0155  -0.01838  -0.7674  0.08155
6.491e+09  -0.9015  0.03529  -0.000725  0.01508  -0.02839  0.02959  -0.657  0.3606
6.492e+09  -0.8084  0.3617  0.02035  -0.001322  -0.03414  -0.01819  -0.5216  0.5736
6.494e+09  -0.6153  0.7663  -0.01027  -0.01314  0.08474  0.06802  -0.309  0.701
6.495e+09  -0.3964  0.7909  -0.01017  0.07005  -0.03317  -0.007555  -0.04264  0.7463
6.496e+09  -0.08725  0.8243  -0.04898  0.01736  -0.005387  0.02045  0.2076  0.7329
6.498e+09  0.2335  0.8804  -0.03954  -0.02641  -0.03057  -0.01908  0.4678  0.6277
6.499e+09  0.5007  0.7584  -0.009626  -0.002639  0.05934  0.02301  0.6499  0.4444
6.5e+09  0.7278  0.5239  0.01123  -0.01149  -0.01616  0.01242  0.7377  0.1655
6.501e+09  0.8881  0.1896  -0.03297  0.03404  -0.003867  0.03068  0.7613  -0.08128
6.502e+09  0.8926  -0.0716  -0.04559  0.03276  0.009148  0.009765  0.6674  -0.3633
6.504e+09  0.8335  -0.3703  -0.002427  0.01309  -0.009667  -0.01782  0.5013  -0.5453
6.505e+09  0.5982  -0.6831  0.02576  -0.007689  0.02766  -0.006302  0.2805  -0.7162
6.506e+09  0.4126  -0.8541  -0.01466  -0.02447  -0.001697  0.01632  -0.005857  -0.7374
6.508e+09  0.04336  -0.8867  0.006587  0.005571  0.01473  -0.02291  -0.2571  -0.6755
6.509e+09  -0.3057  -0.8975  -0.02441  0.001202  -0.009373  -0.001386  -0.46  -0.5857
6.51e+09  -0.5675  -0.7372  -0.009791  -0.0165  0.005924  0.006213  -0.6267  -0.3988
6.511e+09  -0.7313  -0.5379  0.002623  -0.02323  -0.009529  0.01261  -0.7859  -0.1481
6.512e+09  -0.8798  -0.2023  -0.02113  0.0001165  -0.0138  0.01537  -0.7436  0.1042
6.514e+09  -0.9199  0.1122  -0.005537  -0.01472  0.02603  0.03372  -0.6518  0.367
6.515e+09  -0.7789  0.4462  -0.02327  -0.03257  0.05617  -0.005343  -0.4719  0.5899
6.516e+09  -0.6164  0.6792  -0.0007595  0.002673  -0.007024  -0.002191  -0.2144  0.7312
6.518e+09  -0.3104  0.8681  0.00225  0.0007164  0.00135  -0.009635  -0.008641  0.7541
6.519e+09  -0.0007918  0.9406  -0.003159  0.01181  -0.03521  -0.0164  0.2892  0.6817
6.52e+09  0.3417  0.898  0.01497  -0.005519  -0.007082  0.02669  0.4727  0.5634
6.521e+09  0.668  0.6923  0.02588  -0.02873  -0.06685  -0.02925  0.6952  0.3238
6.522e+09  0.8051  0.4535  0.0102  -0.01063  0.05811  0.04934  0.7572  0.0955
6.524e+09  0.981  0.1414  -0.01677  0.009237  -0.008425  -0.03389  0.7049  -0.1678
6.525e+09  0.9456  -0.1491  0.001134  0.004212  0.00835  -0.0686  0.6159  -0.3747
6.526e+09  0.8572  -0.4958  -0.000764  0.008953  0.02688  0.0128  0.4284  -0.5745
6.528e+09  0.5713  -0.7281  0.002718  -0.004434  0.003802  -0.005767  0.1561  -0.7043
6.529e+09  0.2824  -0.9404  -0.0008743  0.01191  -0.001687  0.01271  -0.04901  -0.7077
6.53e+09  -0.103  -0.9203  0.006484  0.01319  -0.04031  0.03462  -0.2739  -0.6176
6.531e+09  -0.3676  -0.8853  -0.006437  -0.02267  -0.06221  -0.006047  -0.4621  -0.4825
6.532e+09  -0.694  -0.659  -0.0132  0.03602  -0.04527  -0.009479  -0.5489  -0.2707
6.534e+09  -0.8616  -0.4551  -0.005445  -0.007509  0.0521  -0.007995  -0.653  -0.1035
6.535e+09  -0.9269  -0.03852  -0.02807  -0.01929  0.0622  -0.005822  -0.6208  0.122
6.536e+09  -0.9364  0.2558  0.005531  0.008468  -0.01915  -0.01577  -0.5776  0.2937
6.538e+09  -0.7748  0.4929  0.01368  -0.02006  -0.04916  -0.02151  -0.4787  0.458
6.539e+09  -0.5014  0.784  0.004963  -0.01898  0.02817  0.0306  -0.316  0.6238
6.54e+09  -0.1878  0.9613  -0.008017  -0.01931  0.0139  0.01609  -0.0573  0.6553
6.541e+09  0.1295  0.9232  0.03354  -0.01545  -0.005981  -0.01443  0.1771  0.6702
6.542e+09  0.4537  0.8328  0.03163  -0.02646  -0.02132  -0.006407  0.4146  0.5681
6.544e+09  0.7211  0.5903  -0.01145  -0.001533  0.02672  0.0386  0.6202  0.421
6.545e+09  0.8645  0.3534  -0.008284  -0.01061  0.0007419  0.01433  0.6978  0.1575
6.546e+09  0.9367  -0.009007  0.02899  0.01843  0.03869  -0.01446  0.7342  -0.09707
6.548e+09  0.9568  -0.2975  0.004068  0.01374  -0.0115  -0.01033  0.6292  -0.3164
6.549e+09  0.6995  -0.6017  -0.05313  -0.01557  -0.005524  -0.02102  0.5108  -0.5257
