# Hz S RI R 50
6.25e+09  -0.6649  0.4541  -0.01735  -0.017  -0.01315  -0.03267  0.1638  0.5011
6.251e+09  -0.5167  0.6543  0.02083  0.008627  0.03712  0.04568  0.3369  0.4229
6.252e+09  -0.2461  0.8093  -0.008931  0.007855  -0.009  -0.05042  0.5346  0.2475
6.254e+09  0.06288  0.8244  0.03328  -0.0115  -0.01764  -0.0412  0.625  -0.003156
6.255e+09  0.3312  0.725  0.007858  0.005644  0.05729  0.07  0.5442  -0.2638
6.256e+09  0.5819  0.6102  -0.003746  -0.006437  0.005731  -0.02053  0.4893  -0.4491
6.258e+09  0.6985  0.3357  0.00838  0.008023  0.03609  0.04285  0.3096  -0.6097
6.259e+09  0.8348  0.1027  0.02328  0.05417  -0.01107  -0.02615  0.03799  -0.6657
6.26e+09  0.7812  -0.2185  0.006543  -0.02251  0.04451  0.003577  -0.1681  -0.6636
6.261e+09  0.6635  -0.4736  0.02351  0.01549  -0.007927  -0.0405  -0.4169  -0.5078
6.262e+09  0.5045  -0.6662  -0.03906  -0.04335  -0.03181  -0.008769  -0.5838  -0.364
6.264e+09  0.2046  -0.6487  0.01332  0.02217  0.01453  -0.01099  -0.7286  -0.08368
6.265e+09  -0.03987  -0.7973  0.003435  -0.01786  -0.01217  -0.0005479  -0.7046  0.1454
6.266e+09  -0.3603  -0.7681  -0.02056  0.005543  0.04571  -0.02872  -0.5951  0.3977
6.268e+09  -0.5591  -0.5838  0.01868  0.01372  0.02234  -0.04008  -0.4209  0.5833
6.269e+09  -0.7106  -0.342  -0.002179  -0.03049  -0.005947  0.001238  -0.208  0.7313
6.27e+09  -0.78  -0.07457  -0.01824  0.01865  -0.01324  -0.007171  0.08038  0.7583
6.271e+09  -0.7426  0.1936  -0.00703  -0.01389  0.0319  0.05595  0.3138  0.6887
6.272e+09  -0.6028  0.4355  -0.0005688  0.005158  -0.01828  -0.02928  0.5172  0.5084
6.274e+09  -0.5108  0.6892  0.01506  -0.01112  -0.05433  0.01524  0.6819  0.3019
6.275e+09  -0.2409  0.8047  -0.01126  -0.02087  -0.0244  0.003783  0.7445  0.06192
6.276e+09  0.1279  0.7441  -0.004811  -0.02336  -0.002513  0.06217  0.69  -0.2244
6.278e+09  0.3391  0.7342  0.005866  -0.007899  -0.05286  -0.05387  0.6072  -0.4592
6.279e+09  0.5516  0.5382  0.002458  0.02706  0.00289  -0.008226  0.4025  -0.6479
6.28e+09  0.7225  0.3565  -0.001317  -0.01558  -0.009221  0.01675  0.1586  -0.7502
6.281e+09  0.7784  0.05004  -0.01587  -0.02766  -0.04312  0.01227  -0.1053  -0.7714
6.282e+09  0.7662  -0.2608  -0.01601  0.002591  0.006826  0.0001835  -0.3523  -0.7007
6.284e+09  0.6505  -0.4572  0.02522  -0.0004542  0.03689  -0.002477  -0.6015  -0.4911
6.285e+09  0.4635  -0.6725  0.00814  0.03813  -0.06934  0.02059  -0.7613  -0.2909
6.286e+09  0.1808  -0.7279  -0.01453  0.008162  0.005162  0.0003005  -0.7731  -0.03194
6.288e+09  -0.08552  -0.7949  0.0102  0.0202  -0.03975  0.01965  -0.7445  0.2538
6.289e+09  -0.3587  -0.7166  -0.0287  -0.01937  -0.07252  -0.004896  -0.6291  0.4634
6.29e+09  -0.6326  -0.5506  0.002449  -0.003585  0.01094  0.01371  -0.4265  0.692
6.291e+09  -0.7384  -0.2897  -0.02508  -0.001151  0.04373  -0.04851  -0.1764  0.8027
6.292e+09  -0.802  -0.05711  -0.006126  -0.0002374  0.01765  -0.01996  0.1309  0.8075
6.294e+09  -0.7495  0.204  -0.0001015  -0.01224  0.03315  0.01538  0.4056  0.7213
6.295e+09  -0.666  0.5078  -0.0167  -0.007005  -0.02551  0.02044  0.6224  0.5241
6.296e+09  -0.4295  0.678  -0.01587  0.0307  0.002553  -0.05688  0.7523  0.281
6.298e+09  -0.1538  0.743  -0.004233  0.0104  0.001917  -0.02486  0.829  -0.003093
6.299e+09  0.1627  0.7646  -0.02021  -0.007149  -0.006443  0.01008  0.763  -0.2564
6.3e+09  0.3831  0.6893  -0.02958  0.0144  0.0004891  -0.01122  0.648  -0.4985
6.301e+09  0.6489  0.5342  0.003047  -0.002973  0.01688  0.008614  0.405  -0.727
6.302e+09  0.7266  0.2799  0.01606  0.0113  -0.01707  0.001225  0.1628  -0.8178
6.304e+09  0.8323  0.03357  0.03188  0.03213  0.007359  0.0302  -0.1551  -0.8226
6.305e+09  0.786  -0.2465  0.001661  -0.001874  -0.04611  0.02084  -0.4405  -0.7514
6.306e+09  0.6115  -0.5062  0.008019  -0.02691  -8.488e-05  0.03652  -0.6497  -0.5635
6.308e+09  0.408  -0.6477  0.02174  -0.005981  -0.01425  0.01108  -0.778  -0.3093
6.309e+09  0.1354  -0.7922  -0.03447  0.008389  0.001594  0.08337  -0.877  -0.01364
6.31e+09  -0.1095  -0.8114  -0.01909  -0.01864  -0.01044  -0.008251  -0.7882  0.2622
6.311e+09  -0.3772  -0.6948  -0.006688  0.001348  -0.02587  -0.006254  -0.6371  0.533
6.312e+09  -0.6415  -0.477  -0.04047  0.01878  0.01811  -0.01015  -0.4425  0.738
6.314e+09  -0.6918  -0.251  0.006148  0.008116  -0.001425  0.02353  -0.1569  0.8585
6.315e+09  -0.7875  0.02246  -0.01402  -0.00569  -0.01355  -0.0003847  0.1478  0.8844
6.316e+09  -0.7525  0.2866  -0.01083  -0.004915  0.02065  0.02575  0.4232  0.7401
6.318e+09  -0.6437  0.5167  -0.01961  -0.01089  0.07755  -0.03829  0.6548  0.5824
6.319e+09  -0.3943  0.7503  0.02365  0.02822  0.008097  0.01586  0.8388  0.3396
6.32e+09  -0.1365  0.8099  -0.01021  -0.004502  -0.01286  -0.02378  0.8953  0.04009
6.321e+09  0.1262  0.7974  -0.01841  -0.01619  0.03089  -0.05821  0.8505  -0.2468
6.322e+09  0.389  0.7098  -0.01496  -0.0238  0.02725  -0.007518  0.6941  -0.5659
6.324e+09  0.6405  0.5086  -0.02259  0.0001414  0.01696  0.003077  0.4487  -0.7656
6.325e+09  0.778  0.2211  -0.00573  0.01392  0.01694  0.004201  0.1779  -0.8621
6.326e+09  0.8644  0.001865  0.002383  -0.007338  0.02938  0.01595  -0.1401  -0.93
6.328e+09  0.7269  -0.3447  -0.007149  0.02078  -0.007476  -0.03333  -0.4077  -0.8056
6.329e+09  0.5992  -0.556  0.0007477  -0.003591  -0.006188  0.00433  -0.6641  -0.6105
6.33e+09  0.3604  -0.7368  0.009298  -0.007656  0.01612  0.02856  -0.8418  -0.3495
6.331e+09  0.02096  -0.8281  -0.002851  0.006238  -0.04426  0.0276  -0.8725  -0.002435
6.332e+09  -0.2252  -0.7718  0.003807  0.01173  -0.01842  -0.01745  -0.8462  0.2862
6.334e+09  -0.5179  -0.6498  -0.009486  0.04402  0.03008  -0.01469  -0.6821  0.5244
6.335e+09  -0.6955  -0.4917  0.003931  0.01995  -0.001258  -0.02361  -0.4791  0.7842
6.336e+09  -0.8044  -0.1793  0.006461  0.02052  -0.00821  -0.03766  -0.2382  0.9201
6.338e+09  -0.8327  0.1063  0.009141  -0.003113  0.007573  -0.001077  0.1229  0.907
6.339e+09  -0.7431  0.4124  -0.01398  0.01016  -0.02381  -0.008733  0.4115  0.8384
6.34e+09  -0.5136  0.6154  -0.002038  0.02329  -0.05251  -0.01254  0.6849  0.5975
6.341e+09  -0.3021  0.7689  -0.003774  0.02042  -0.003328  -0.01301  0.8556  0.3471
6.342e+09  -0.002295  0.8234  0.003463  0.01839  0.01486  0.01595  0.9019  0.04948
6.344e+09  0.2898  0.7761  -0.000976  0.001149  -0.03039  0.03135  0.8753  -0.2959
6.345e+09  0.5286  0.5967  0.01072  -0.003128  0.04854  0.04703  0.7532  -0.5417
6.346e+09  0.7429  0.41  0.0222  -0.01305  -0.0306  -0.0189  0.4986  -0.8076
6.348e+09  0.8447  0.1141  -0.02049  0.007986  -0.01149  -0.03735  0.2144  -0.8839
6.349e+09  0.7798  -0.1685  0.009796  -0.02424  0.01528  -0.01978  -0.08574  -0.9479
6.35e+09  0.711  -0.4406  0.002586  -0.005192  -0.02031  -0.004499  -0.4255  -0.8153
6.351e+09  0.5349  -0.6772  -0.004186  0.009665  0.02953  0.01481  -0.6611  -0.6671
6.352e+09  0.2285  -0.767  -0.01352  -0.01083  -0.01567  0.01695  -0.8586  -0.3911
6.354e+09  -0.03624  -0.8549  0.02758  0.006904  0.006651  -0.02995  -0.9209  -0.06028
6.355e+09  -0.2982  -0.7755  0.01323  -0.02317  -0.001557  -0.00843  -0.9258  0.2782
6.356e+09  -0.5938  -0.5885  -0.01178  -0.00732  0.001502  -0.06028  -0.742  0.5548
6.358e+09  -0.7361  -0.412  -0.01406  0.03115  0.01338  0.006827  -0.5279  0.7774
6.359e+09  -0.7952  -0.0545  -0.01314  -0.01282  -0.0108  -0.01434  -0.2461  0.9121
6.36e+09  -0.8069  0.2297  -0.02604  0.05132  0.007204  -0.02816  0.06626  0.9306
6.361e+09  -0.6988  0.4881  0.01544  -0.01391  0.01238  0.01477  0.4128  0.8151
6.362e+09  -0.4441  0.7024  -0.0287  -0.01561  0.001426  0.01536  0.6727  0.7016
6.364e+09  -0.1882  0.8036  0.01819  0.003946  0.01278  -0.03856  0.8431  0.3979
6.365e+09  0.08301  0.8324  0.01311  -0.01593  0.005628  0.01397  0.9434  0.07526
6.366e+09  0.4154  0.7985  -0.02036  0.01539  0.009085  0.02634  0.8984  -0.2502
6.368e+09  0.628  0.5804  0.0365  -0.0002107  -0.009269  -0.009625  0.8038  -0.6007
6.369e+09  0.8057  0.3488  0.01602  -0.03181  -0.01243  -0.00258  0.517  -0.7801
6.37e+09  0.8541  -0.05401  0.00147  0.0313  0.009678  0.005991  0.247  -0.9192
6.371e+09  0.796  -0.2597  -0.002104  -0.02612  -0.007639  -0.01123  -0.07299  -0.9289
6.372e+09  0.6358  -0.5603  -0.03729  0.01558  -0.0168  0.01557  -0.3874  -0.8463
6.374e+09  0.4386  -0.7688  -0.007023  0.00963  -0.00195  0.02307  -0.6219  -0.6897
6.375e+09  0.1174  -0.8776  -0.001908  -0.01361  0.01985  -0.02358  -0.8892  -0.4438
6.376e+09  -0.1932  -0.8501  0.01224  -0.03103  -0.02987  -0.002712  -0.9401  -0.08499
6.378e+09  -0.4676  -0.7064  0.02272  0.02309  0.0155  0.000753  -0.912  0.1713
6.379e+09  -0.6984  -0.5215  0.006178  -0.02023  0.007325  0.002484  -0.7705  0.4822
6.38e+09  -0.7999  -0.2667  -0.008817  0.009509  -0.0145  -0.002842  -0.5427  0.7912
6.381e+09  -0.8452  0.06321  -0.004516  0.01338  -0.01621  -0.008679  -0.2815  0.9258
6.382e+09  -0.7965  0.323  0.02057  0.02728  -0.01478  0.06257  0.04456  0.9469
6.384e+09  -0.6007  0.5609  -0.007945  0.002688  0.04854  -0.01402  0.3372  0.8347
6.385e+09  -0.3892  0.7927  -0.00211  -0.0004257  0.03319  0.01863  0.6347  0.6829
6.386e+09  -0.06802  0.8495  0.01177  0.05595  -0.01543  0.01704  0.8519  0.4289
6.388e+09  0.2066  0.8579  -0.01901  -0.03279  -0.0103  -0.02024  0.9199  0.1418
6.389e+09  0.4503  0.6917  0.003786  -0.01111  0.01851  0.03224  0.8735  -0.1879
6.39e+09  0.6808  0.5338  0.02171  -0.02268  0.01827  0.002259  0.7742  -0.4926
6.391e+09  0.8018  0.243  -0.001635  -0.01676  0.01326  -0.03143  0.5254  -0.7621
6.392e+09  0.8385  -0.09968  0.01848  -0.02385  -0.02142  -0.00253  0.2874  -0.8823
6.394e+09  0.7765  -0.3744  -0.01026  0.01745  0.01504  0.003713  -0.01053  -0.9419
6.395e+09  0.6034  -0.645  0.02237  -0.01426  -0.007756  -0.02473  -0.3297  -0.8284
6.396e+09  0.3039  -0.8058  0.0334  0.01081  0.02791  -0.01786  -0.6271  -0.677
6.398e+09  0.03117  -0.8621  -0.01926  0.01891  0.001922  0.007541  -0.7983  -0.449
6.399e+09  -0.2858  -0.8194  -0.01586  0.02872  -0.002203  -0.03572  -0.9096  -0.1688
6.4e+09  -0.4998  -0.6614  0.01684  0.006885  -0.03917  -0.005489  -0.9014  0.167
6.401e+09  -0.69  -0.4304  0.0008664  -0.01676  0.02941  -0.003886  -0.7921  0.508
6.402e+09  -0.8339  -0.1598  -0.04244  0.06875  -0.0341  0.02908  -0.5915  0.6751
6.404e+09  -0.8633  0.1453  0.006379  -0.01115  0.008422  -0.0281  -0.3424  0.8423
6.405e+09  -0.7348  0.4024  -0.01961  -0.01498  0.009584  0.04414  -0.01561  0.8995
6.406e+09  -0.5214  0.6417  0.02178  -0.03115  0.02721  -0.00644  0.2893  0.9264
6.408e+09  -0.2814  0.7744  0.03782  0.008911  -0.01011  -0.007499  0.5779  0.6952
6.409e+09  0.0114  0.8553  -0.007507  0.0031  0.009332  -0.001678  0.7476  0.436
6.41e+09  0.2447  0.7671  0.03219  -0.03068  0.05278  0.01046  0.8887  0.1711
6.411e+09  0.5579  0.6836  -0.03453  -0.01269  0.01176  0.01391  0.9236  -0.1297
6.412e+09  0.7557  0.4275  9.729e-05  -0.005096  8.103e-05  9.048e-05  0.7935  -0.4353
6.414e+09  0.8154  0.1294  -0.01808  0.00302  -0.02829  -0.01529  0.5966  -0.6951
6.415e+09  0.799  -0.1612  -0.00293  -0.01233  -0.04516  -0.02111  0.3454  -0.8034
6.416e+09  0.7377  -0.4397  -0.009449  -0.03358  -0.004483  0.02812  0.0385  -0.8444
6.418e+09  0.517  -0.6292  -0.007341  -0.01364  0.00117  0.008642  -0.2637  -0.8111
6.419e+09  0.2591  -0.8203  -0.01401  -0.01154  -0.001935  -0.01048  -0.5143  -0.7141
6.42e+09  -0.002087  -0.8548  -0.01908  -0.009514  -0.05831  0.01269  -0.7522  -0.4438
6.421e+09  -0.3308  -0.8352  0.02283  -0.02757  0.0003312  -0.01439  -0.8687  -0.1687
6.422e+09  -0.5696  -0.6518  0.04499  0.004552  -0.01928  -0.02313  -0.8703  0.09728
6.424e+09  -0.7544  -0.3867  -0.03336  0.06815  0.005385  0.05117  -0.7539  0.4219
6.425e+09  -0.8028  -0.1111  0.01202  -0.03658  0.02811  -0.0006225  -0.6132  0.6541
6.426e+09  -0.8548  0.204  0.003532  0.02172  0.04041  0.01152  -0.3608  0.8304
6.428e+09  -0.7069  0.4464  -0.01581  0.04486  -0.03172  0.01762  -0.04053  0.849
6.429e+09  -0.513  0.6359  0.05747  -0.0006281  0.03433  0.01031  0.2736  0.8507
6.43e+09  -0.2624  0.7974  0.03018  0.01135  0.009391  0.01894  0.5185  0.6911
6.431e+09  0.06784  0.8429  0.005141  0.03663  -0.009359  -0.01418  0.7164  0.4647
6.432e+09  0.327  0.7819  -0.04165  0.0341  -0.06289  -0.004534  0.8516  0.193
6.434e+09  0.5817  0.5995  0.02024  -0.01549  -0.02817  0.03531  0.847  -0.1006
6.435e+09  0.7613  0.3511  0.0126  -0.01351  -0.06213  -0.06154  0.7712  -0.4194
6.436e+09  0.8237  0.08546  0.02846  -0.02366  0.01968  0.003359  0.5406  -0.6153
6.438e+09  0.8497  -0.1931  0.02159  -0.02111  0.00728  -0.0143  0.3998  -0.7952
6.439e+09  0.6876  -0.505  -0.02222  0.01261  0.02123  -0.01836  0.05362  -0.8535
6.44e+09  0.5005  -0.728  0.06038  -0.01706  0.006509  0.02231  -0.2475  -0.8431
6.441e+09  0.1999  -0.8046  -0.02249  -0.01292  0.005655  -0.003293  -0.4791  -0.6785
6.442e+09  -0.0619  -0.8395  0.01381  0.01524  0.01499  0.01759  -0.6885  -0.4701
6.444e+09  -0.3657  -0.7604  -0.03799  0.04309  -0.01689  -0.002626  -0.8187  -0.2421
6.445e+09  -0.6253  -0.6872  -0.02702  -0.04879  0.001408  -0.01922  -0.861  0.05881
6.446e+09  -0.7616  -0.3903  0.01531  -0.007078  -0.008339  -0.04039  -0.833  0.3773
6.448e+09  -0.8163  -0.05343  -0.002324  -0.002958  -0.022  0.03302  -0.6186  0.6168
6.449e+09  -0.8286  0.1951  0.001458  0.01566  0.009211  0.00506  -0.3388  0.7706
6.45e+09  -0.7052  0.4988  -0.002551  0.00118  -0.03999  -0.02044  -0.06278  0.8211
6.451e+09  -0.4834  0.6685  -0.00953  -0.03244  -0.01531  0.01142  0.2319  0.8128
6.452e+09  -0.2144  0.7924  -0.002562  -0.01542  0.01718  0.03006  0.4527  0.6767
6.454e+09  0.07222  0.8788  -0.006611  0.02923  -0.007718  0.01381  0.6401  0.4479
6.455e+09  0.3543  0.7579  -0.007335  -0.02291  -0.01575  0.005194  0.8056  0.2448
6.456e+09  0.6083  0.5618  0.02453  -0.01303  0.002014  -0.01843  0.8025  -0.04819
6.458e+09  0.8092  0.361  0.02691  0.03829  -0.02489  -0.00548  0.7832  -0.3095
6.459e+09  0.8223  0.09801  0.02593  0.04741  -0.0466  0.005558  0.571  -0.5802
6.46e+09  0.7848  -0.2434  -0.03395  -0.05287  0.02655  0.02474  0.3317  -0.7217
6.461e+09  0.6694  -0.4811  0.009731  0.04809  -0.01373  -0.02575  0.06474  -0.8453
6.462e+09  0.4744  -0.6854  -0.01826  0.007149  0.03113  -0.03609  -0.2368  -0.7998
6.464e+09  0.2034  -0.809  -0.01172  0.03564  0.0002784  0.01475  -0.4841  -0.6547
6.465e+09  -0.07277  -0.8175  0.00308  -0.01299  0.07011  -0.003268  -0.6701  -0.4759
6.466e+09  -0.4064  -0.753  0.003219  0.03242  -0.002649  0.05048  -0.7842  -0.2256
6.468e+09  -0.6222  -0.5741  -0.04276  0.03517  0.06744  0.01076  -0.7915  0.04305
6.469e+09  -0.7926  -0.3765  0.03756  -0.02534  -0.002288  -0.005991  -0.7368  0.3742
6.47e+09  -0.8628  -0.0641  -0.03703  0.001151  -0.04072  0.03038  -0.5634  0.594
6.471e+09  -0.7897  0.2603  0.02454  0.0007936  0.03651  0.007078  -0.2949  0.7468
6.472e+09  -0.6948  0.4536  -0.02082  0.02145  -0.04215  -0.005676  -0.04439  0.7925
6.474e+09  -0.4571  0.6714  -0.0001555  -0.01827  0.05385  0.01615  0.2305  0.7904
6.475e+09  -0.2221  0.8438  0.03291  -0.0477  -0.01165  0.02943  0.4643  0.6332
6.476e+09  0.09162  0.8445  -0.008256  0.04944  -0.02296  -0.006942  0.6345  0.451
6.478e+09  0.3622  0.8022  -0.02483  -0.03151  0.01846  -0.004318  0.7967  0.2012
6.479e+09  0.6153  0.6487  -0.02204  0.01078  -0.03831  -0.04094  0.7913  -0.1116
6.48e+09  0.784  0.3443  0.02475  0.007681  0.02262  -0.03612  0.7049  -0.3325
6.481e+09  0.85  -0.005112  -0.02497  -0.01544  -0.01644  -0.02387  0.5386  -0.5631
6.482e+09  0.8379  -0.2205  -0.01981  0.01615  0.01545  0.03338  0.3377  -0.7247
6.484e+09  0.6708  -0.5088  -0.01375  0.02842  -0.0003802  -0.03322  0.06565  -0.7566
6.485e+09  0.4329  -0.7494  0.0137  0.02784  -0.01682  -0.03695  -0.194  -0.7607
6.486e+09  0.181  -0.8366  0.04502  0.01096  0.03537  -0.04586  -0.445  -0.6239
6.488e+09  -0.09322  -0.109  -0.00465  -0.02183  0.7105  0.0609  -0.6491  -0.4286
6.489e+09  -0.4312  -0.7456  0.01837  -0.02144  0.01306  -0.05801  -0.7455  -0.1909
6.49e+09  -0.6317  -0.6016  0.009341  0.00273  -0.03773  -0.003124  -0.7781  0.06489
6.491e+09  -0.8068  -0.3366  0.01478  -0.03304  -0.02659  0.002486  -0.716  0.2984
6.492e+09  -0.869  0.0004265  0.02806  -0.01106  -0.01302  -0.008557  -0.5528  0.5749
6.494e+09  -0.7238  0.2957  -0.006425  -0.02081  -0.07958  -0.05165  -0.277  0.6815
6.495e+09  -0.6579  0.5536  0.01404  0.01133  -0.0007909  -0.01009  -0.03409  0.7243
6.496e+09  -0.4451  0.7012  0.0152  0.03287  0.02814  0.02364  0.2375  0.7142
6.498e+09  -0.2385  0.8682  -0.01401  0.02333  -0.01422  -0.02003  0.4639  0.6302
6.499e+09  0.1133  0.8613  -0.01273  0.01526  0.001111  0.003292  0.6296  0.3573
6.5e+09  0.3935  0.7785  0.01383  0.06889  0.03787  -0.02983  0.7663  0.1769
6.501e+09  0.6473  0.5586  0.02009  -0.03668  0.01287  0.03227  0.7656  -0.08181
6.502e+09  0.8505  0.3599  0.01309  0.004262  0.01599  0.05393  0.7004  -0.3874
6.504e+09  0.8938  0.04496  -0.03117  0.01042  -0.01711  -0.01921  0.5429  -0.5186
6.505e+09  0.8347  -0.2337  0.02468  -0.03857  -0.001358  0.005301  0.3115  -0.6977
6.506e+09  0.7076  -0.5337  -0.0001082  0.02702  0.04157  -0.03526  0.02408  -0.7592
6.508e+09  0.4435  -0.7964  0.00266  0.03616  0.003918  0.01884  -0.2772  -0.7121
6.509e+09  0.1551  -0.8543  -0.007968  -0.01091  0.0006171  -0.01404  -0.4744  -0.6102
6.51e+09  -0.1272  -0.9645  0.00393  0.01147  0.003002  -0.0383  -0.638  -0.3687
6.511e+09  -0.4588  -0.7652  0.0004562  -0.005016  -0.02894  0.04132  -0.7456  -0.1218
6.512e+09  -0.6968  -0.5776  0.03178  0.006106  0.01617  -0.0281  -0.7771  0.1314
6.514e+09  -0.7985  -0.2725  -0.001712  -0.001153  0.009256  -0.007517  -0.6535  0.3603
6.515e+09  -0.8776  0.01553  -0.008732  0.006472  0.006612  0.007363  -0.4538  0.5639
6.516e+09  -0.8879  0.3028  -0.006946  -0.02343  0.00257  -0.03077  -0.2361  0.7027
6.518e+09  -0.7008  0.5523  -0.01054  -0.02215  0.005406  0.02366  -0.006278  0.7594
6.519e+09  -0.4477  0.7819  -0.00279  0.03662  0.006043  0.02228  0.2475  0.6782
6.52e+09  -0.1495  0.9142  -0.0289  -0.03313  0.008722  -0.02804  0.5199  0.5245
6.521e+09  0.2191  0.9152  0.002268  -0.01685  0.04888  0.007672  0.656  0.3678
6.522e+09  0.5055  0.7946  0.02054  -0.02176  -0.0118  6.948e-05  0.7356  0.1001
6.524e+09  0.7079  0.5361  0.01994  0.01425  -0.006899  -0.001079  0.7348  -0.2111
6.525e+09  0.8693  0.3163  -0.0088  -0.01932  -0.002377  0.005342  0.5682  -0.4153
6.526e+09  0.9356  0.02728  0.01172  0.02386  -0.03544  -0.07037  0.43  -0.5503
6.528e+09  0.8658  -0.3781  0.01987  0.01805  -0.02926  0.05991  0.1926  -0.6724
6.529e+09  0.7008  -0.6216  -0.0142  -0.01695  -0.008782  0.02655  -0.01905  -0.6922
6.53e+09  0.3907  -0.878  -0.01045  0.01055  0.01306  0.01006  -0.304  -0.6153
6.531e+09  0.05278  -0.8773  0.0302  0.001717  -0.02276  0.02248  -0.476  -0.4923
6.532e+09  -0.1981  -0.8867  -0.0009791  0.001054  0.0456  0.01922  -0.5673  -0.3131
6.534e+09  -0.5116  -0.7332  0.02053  -0.008684  -0.01951  0.02433  -0.6566  -0.07385
6.535e+09  -0.7685  -0.5836  0.003793  0.0229  0.02719  0.04638  -0.5703  0.1218
6.536e+09  -0.8603  -0.2144  -0.02034  0.002221  0.01471  0.0264  -0.5506  0.2946
6.538e+09  -0.9517  0.08419  -0.004583  0.01314  -0.04793  -0.01141  -0.4324  0.4599
6.539e+09  -0.9054  0.4417  0.01292  -0.00835  0.0278  0.02932  -0.2952  0.6466
6.54e+09  -0.6205  0.6282  0.02214  0.02313  0.01855  -0.03416  -0.03179  0.6782
6.541e+09  -0.3418  0.883  -0.02208  -0.02998  -0.017  0.009636  0.188  0.6506
6.542e+09  -0.06821  0.9413  0.02099  -0.006833  -0.01055  -0.03079  0.3957  0.5432
6.544e+09  0.285  0.874  -0.008784  0.002883  -0.0296  0.0007798  0.6164  0.4292
6.545e+09  0.5609  0.7195  0.02476  -0.04285  0.02318  -0.004102  0.709  0.1684
6.546e+09  0.874  0.448  0.01219  -0.02043  0.005082  0.002542  0.7068  -0.05803
6.548e+09  0.9201  0.1871  0.01483  -0.02262  0.003059  0.006048  0.634  -0.3015
6.549e+09  0.9317  -0.08749  0.001676  -0.0005267  0.02231  0.0142  0.4567  -0.5381
6.55e+09  0.7869  -0.4758  0.002885  0.002659  0.004515  -0.0425  0.2946  -0.6583
