# Hz S RI R 50
6.25e+09  0.2223  0.96  0.02076  0.004542  -0.03218  0.01137  0.1593  0.4824
6.251e+09  0.5106  0.787  -0.03065  -0.0007631  0.005832  0.01872  0.3463  0.4264
6.252e+09  0.7304  0.5595  -0.02702  -0.005686  0.06716  0.01157  0.5321  0.2428
6.254e+09  0.9133  0.2435  0.01984  0.009184  0.0621  0.03043  0.5799  0.0265
6.255e+09  0.9836  -0.0002792  0.01409  -0.02637  0.0059  -0.0212  0.5746  -0.2155
6.256e+09  0.8981  -0.3444  0.01202  -0.002415  -0.008246  0.02372  0.4438  -0.417
6.258e+09  0.6497  -0.5886  -0.002134  0.004996  0.05893  0.0006481  0.2657  -0.6159
6.259e+09  0.3727  -0.8044  -0.004692  0.01828  0.01049  0.02551  0.04865  -0.6816
6.26e+09  0.08487  -0.9313  -0.01323  -0.003146  -0.004219  -0.0319  -0.2017  -0.6347
6.261e+09  -0.199  -0.9042  -0.03757  -0.03671  0.04092  -0.01852  -0.4657  -0.5416
6.262e+09  -0.5041  -0.7545  0.00185  -0.01205  -0.005932  0.009375  -0.5965  -0.3382
6.264e+09  -0.7187  -0.5293  -0.01119  -0.02971  -0.00827  0.01743  -0.7256  -0.1396
6.265e+09  -0.8889  -0.2671  0.02484  -0.006634  0.006037  0.05705  -0.6812  0.1243
6.266e+09  -0.8747  0.0601  -0.0184  -0.006806  -0.02878  0.004902  -0.617  0.4094
6.268e+09  -0.8091  0.374  0.0293  0.01859  0.02751  -0.02724  -0.4671  0.5939
6.269e+09  -0.6351  0.6755  0.007039  -0.007473  0.02239  0.003184  -0.1757  0.7003
6.27e+09  -0.3569  0.7861  -0.008768  -0.005488  0.0005801  0.01091  0.04944  0.7639
6.271e+09  -0.06497  0.8426  -0.006042  -0.009359  -0.02569  0.05189  0.3178  0.6988
6.272e+09  0.2317  0.9133  0.01712  -0.006292  -0.04717  0.001678  0.5206  0.4948
6.274e+09  0.5656  0.6896  -0.01191  0.008004  0.007733  -0.0003484  0.6643  0.2799
6.275e+09  0.7658  0.5001  -0.01627  0.006312  0.002594  -0.005388  0.7589  0.03631
6.276e+09  0.9068  0.2005  0.01683  -0.01369  0.01861  0.04851  0.7359  -0.2378
6.278e+09  0.8931  -0.0941  0.01967  -0.01666  0.01233  0.005049  0.6274  -0.4692
6.279e+09  0.8158  -0.3953  -0.03222  0.01318  0.0003491  -0.02779  0.4309  -0.6484
6.28e+09  0.6561  -0.6484  -0.03311  -0.02454  0.0282  0.05911  0.1448  -0.7503
6.281e+09  0.4103  -0.8539  -0.01123  -0.003651  -0.03383  0.01021  -0.09621  -0.7706
6.282e+09  0.02621  -0.9166  -0.002873  -0.0205  -0.04204  0.01462  -0.3633  -0.6771
6.284e+09  -0.2615  -0.8773  0.02636  0.03021  -0.01496  -0.01811  -0.5802  -0.5237
6.285e+09  -0.555  -0.7145  0.004726  -0.01276  -0.02478  -0.04736  -0.7126  -0.3213
6.286e+09  -0.8145  -0.4931  0.008499  0.01386  0.008741  0.002557  -0.8112  -0.01158
6.288e+09  -0.937  -0.1378  0.004974  0.01918  -0.0156  -0.006655  -0.7772  0.2307
6.289e+09  -0.9019  0.1424  -0.04423  -0.004351  0.004366  0.02677  -0.6191  0.481
6.29e+09  -0.7934  0.4281  -0.0008524  -0.01865  -0.04012  0.01787  -0.4019  0.6808
6.291e+09  -0.5732  0.7126  -0.01072  0.008039  0.01054  0.03033  -0.1423  0.7729
6.292e+09  -0.289  0.8972  0.006778  -0.005155  0.02976  -0.02715  0.152  0.8127
6.294e+09  0.01578  0.9349  0.02377  0.01376  0.03808  0.01045  0.3706  0.6841
6.295e+09  0.3237  0.8733  -0.04091  -0.03854  -0.03317  -0.01692  0.6093  0.5408
6.296e+09  0.606  0.6615  0.03802  0.02661  0.03317  -0.03391  0.7759  0.2844
6.298e+09  0.871  0.428  -0.005582  0.01568  -0.01008  -0.02856  0.8057  0.03509
6.299e+09  0.9165  0.1262  0.01248  -0.008747  -0.03799  0.01614  0.7778  -0.288
6.3e+09  0.8629  -0.1712  0.003999  0.003478  -0.0378  0.03479  0.6553  -0.5274
6.301e+09  0.7766  -0.4828  -0.003116  0.003084  0.01985  -0.003378  0.4326  -0.7065
6.302e+09  0.5349  -0.742  0.02016  -0.0009869  -0.03591  0.01698  0.1786  -0.8426
6.304e+09  0.2783  -0.9039  -0.004297  -0.003896  0.02129  -0.03678  -0.1581  -0.7957
6.305e+09  -0.07579  -0.9685  -0.009348  0.01249  -0.01185  0.01777  -0.4289  -0.7098
6.306e+09  -0.3643  -0.8774  0.0125  -0.004021  0.007246  -0.01346  -0.6156  -0.5425
6.308e+09  -0.6848  -0.6695  -0.02895  -0.004655  0.04208  -0.0145  -0.805  -0.3014
6.309e+09  -0.8125  -0.4037  -0.01221  0.005875  -0.02335  -0.02764  -0.8924  -0.02818
6.31e+09  -0.9493  -0.07574  -0.009761  -0.001516  0.02971  0.005476  -0.7821  0.2926
6.311e+09  -0.9146  0.2945  0.01914  -0.004279  -0.05568  -0.05389  -0.6651  0.5653
6.312e+09  -0.7455  0.5615  0.01873  -0.007511  -0.0196  -0.01892  -0.4384  0.7471
6.314e+09  -0.5541  0.7933  0.02114  0.009331  -0.01767  -0.01933  -0.1522  0.8603
6.315e+09  -0.2245  1.021  -0.01655  0.005079  -0.008805  -0.04143  0.1243  0.8681
6.316e+09  0.08016  0.9751  -0.01156  -0.015  0.008851  -0.02069  0.4064  0.7359
6.318e+09  0.4407  0.8452  0.0118  -0.03093  0.04082  -0.02154  0.6628  0.5926
6.319e+09  0.7094  0.7005  -0.01937  0.05224  -0.04151  -0.006067  0.8448  0.2865
6.32e+09  0.8999  0.3236  0.02252  -0.002324  0.04181  -0.01846  0.8983  0.02768
6.321e+09  0.9856  0.06339  -0.02183  0.00642  -0.005655  0.0173  0.8622  -0.276
6.322e+09  0.8846  -0.342  -0.02174  0.00691  0.001428  -0.003077  0.6962  -0.5418
6.324e+09  0.7659  -0.6415  0.0006293  -0.0006537  -0.04423  0.02473  0.4845  -0.7545
6.325e+09  0.5214  -0.8709  0.002528  -0.002074  -0.03966  -0.0004416  0.1719  -0.8728
6.326e+09  0.2217  -1.029  -0.008641  -0.02106  0.008607  0.01114  -0.1373  -0.8976
6.328e+09  -0.1649  -1.012  -0.03985  -0.00841  0.0325  0.002032  -0.4192  -0.775
6.329e+09  -0.4914  -0.8551  0.004911  0.02414  0.003881  0.03354  -0.6747  -0.5601
6.33e+09  -0.7677  -0.6468  -0.002527  -0.01239  -0.03431  0.01717  -0.8234  -0.3172
6.331e+09  -0.9591  -0.3134  0.01  0.01589  -0.01588  0.01779  -0.9101  -0.0008908
6.332e+09  -1.064  0.1025  0.01048  0.02967  -0.01687  -0.009192  -0.8507  0.271
6.334e+09  -0.9575  0.3681  -0.0107  0.003378  -0.02044  -0.0437  -0.7432  0.6012
6.335e+09  -0.8203  0.7443  0.007339  -0.01809  0.04488  -0.0358  -0.4695  0.7743
6.336e+09  -0.5394  0.9699  0.001234  0.008836  -0.02556  0.02959  -0.1688  0.8896
6.338e+09  -0.1207  1.04  -0.001574  -0.04591  -0.05469  0.003167  0.1244  0.9325
6.339e+09  0.2721  1.071  -0.009612  -0.01892  -0.0346  0.01265  0.4429  0.8103
6.34e+09  0.616  0.9224  -0.01542  0.006827  -0.01824  0.00422  0.6489  0.6547
6.341e+09  0.8369  0.6261  -0.006435  -0.02188  -0.01475  0.02998  0.8599  0.3125
6.342e+09  1.087  0.3038  -0.01698  0.03653  -0.002351  0.007352  0.9251  0.04088
6.344e+09  1.073  -0.1054  0.02252  -0.02055  -0.01792  0.01574  0.8821  -0.279
6.345e+09  1.018  -0.4637  0.004677  0.02348  0.01221  -0.01942  0.7235  -0.5621
6.346e+09  0.8009  -0.8215  -0.01174  -0.01514  -0.03807  0.03955  0.5176  -0.7818
6.348e+09  0.4514  -1.009  0.02043  -0.00836  -0.01674  0.006794  0.1863  -0.8988
6.349e+09  0.0701  -1.148  -0.006565  -0.01207  -0.007372  -0.004767  -0.1513  -0.8901
6.35e+09  -0.3278  -1.115  0.01183  0.02464  -0.01821  0.01514  -0.3987  -0.8164
6.351e+09  -0.706  -0.9077  -0.03677  0.03651  -0.01988  -0.01085  -0.6938  -0.6973
6.352e+09  -0.9544  -0.63  -0.01737  0.003976  0.01344  -0.04264  -0.8264  -0.4015
6.354e+09  -1.124  -0.3064  0.0003487  0.02653  -0.0101  0.003213  -0.9656  -0.06726
6.355e+09  -1.115  0.2028  0.01016  0.02669  0.04117  0.02063  -0.8896  0.2492
6.356e+09  -1.021  0.5295  -0.03179  0.0523  0.004111  0.004756  -0.7718  0.5502
6.358e+09  -0.7775  0.8797  0.001035  -0.002314  -0.01488  -0.009907  -0.5026  0.7603
6.359e+09  -0.3937  1.064  0.009052  0.01234  0.007516  -0.008979  -0.1963  0.9172
6.36e+09  -0.04664  1.201  0.0175  -0.01631  -0.004827  -0.002793  0.1123  0.9351
6.361e+09  0.3978  1.087  -0.0589  -0.01287  0.04433  0.01766  0.4468  0.8525
6.362e+09  0.7193  0.9147  0.01407  0.007641  0.00508  -0.03043  0.6509  0.6909
6.364e+09  1.067  0.5956  0.05067  0.01621  0.01697  -0.04534  0.8685  0.3877
6.365e+09  1.189  0.2252  0.001415  0.0007219  -0.0235  -0.02599  0.9105  0.06625
6.366e+09  1.246  -0.2098  -0.0008686  0.01158  0.03246  0.0161  0.9378  -0.2121
6.368e+09  1.027  -0.6322  0.01349  0.004717  -0.02101  -0.04922  0.7678  -0.5197
6.369e+09  0.7224  -0.9829  0.02212  0.02627  -0.0004819  0.06717  0.5721  -0.7619
6.37e+09  0.3983  -1.157  0.01474  -0.01654  -0.01017  0.01226  0.2615  -0.9143
6.371e+09  -0.0736  -1.282  -0.03276  -0.006655  0.007822  0.01411  -0.06677  -0.9306
6.372e+09  -0.503  -1.169  -0.01444  -0.07318  -0.06057  0.02617  -0.387  -0.8808
6.374e+09  -0.8792  -0.9251  -0.03329  -0.01219  0.01086  -0.009334  -0.669  -0.6987
6.375e+09  -1.171  -0.5521  -0.0319  -0.006794  -0.002115  -0.01427  -0.8391  -0.3939
6.376e+09  -1.279  -0.1821  0.01781  -0.02954  0.03203  0.00287  -0.9849  -0.09053
6.378e+09  -1.258  0.3464  -0.006079  -0.03287  -0.004205  -0.007406  -0.9237  0.1967
6.379e+09  -1.059  0.7  -0.02697  -0.008604  0.02139  0.006214  -0.7871  0.5378
6.38e+09  -0.7427  1.133  -0.02094  -0.03391  0.005814  -0.01526  -0.601  0.7619
6.381e+09  -0.3068  1.313  -0.001948  -0.01514  -0.009508  0.02013  -0.2767  0.9258
6.382e+09  0.135  1.302  0.01124  0.01166  -0.005316  0.01341  0.05168  0.9106
6.384e+09  0.6297  1.181  0.004907  0.01602  -0.006119  0.01822  0.3327  0.8652
6.385e+09  0.9956  0.9019  0.003319  0.002944  -0.03932  -0.005531  0.6243  0.672
6.386e+09  1.276  0.5147  -0.03599  0.0361  0.02642  -0.01851  0.8027  0.4332
6.388e+09  1.337  0.04434  -0.0003193  0.008581  0.05578  0.009397  0.9265  0.08005
6.389e+09  1.303  -0.4712  -0.003364  0.003819  0.01267  0.03505  0.9068  -0.2174
6.39e+09  1.113  -0.9199  -0.0085  0.001291  0.0001443  -0.03272  0.7444  -0.509
6.391e+09  0.6993  -1.182  -0.02579  0.01785  -0.02592  0.003384  0.5607  -0.6841
6.392e+09  0.266  -1.458  0.01508  -0.00413  -0.007054  0.01088  0.2983  -0.8752
6.394e+09  -0.2861  -1.467  0.004362  -0.01193  0.04971  -0.009128  -0.05023  -0.9344
6.395e+09  -0.6947  -1.23  0.02175  -0.01543  0.003774  -0.00516  -0.3744  -0.8504
6.396e+09  -1.165  -0.8596  -0.0001438  -0.009891  0.01577  -0.05941  -0.5953  -0.6884
6.398e+09  -1.389  -0.4348  0.004511  0.008044  -0.02053  0.008928  -0.8282  -0.4663
6.399e+09  -1.431  0.04745  0.01933  -0.03314  -0.005807  0.01646  -0.8779  -0.1802
6.4e+09  -1.36  0.6073  0.005994  0.02003  0.002262  0.004677  -0.8551  0.1744
6.401e+09  -1.068  0.9981  -0.01934  -0.001295  0.04457  0.02713  -0.7812  0.4859
6.402e+09  -0.6516  1.337  -0.01777  0.0127  -0.02088  -0.007711  -0.6053  0.6956
6.404e+09  -0.1811  1.521  -0.01684  -0.04096  0.005495  0.02952  -0.2956  0.8497
6.405e+09  0.3935  1.437  -0.03019  0.02146  0.01122  0.01539  0.02174  0.9353
6.406e+09  0.8476  1.209  -0.02667  0.02879  -0.02692  -0.03269  0.285  0.8497
6.408e+09  1.237  0.7655  -0.006138  0.02272  0.02814  -0.04337  0.5853  0.7119
6.409e+09  1.472  0.3371  -0.02799  0.01547  0.003546  -0.01895  0.7744  0.4449
6.41e+09  1.556  -0.1993  -0.01233  0.007994  0.002573  -0.007606  0.9282  0.2155
6.411e+09  1.39  -0.7596  -0.01134  -0.001701  -0.01528  -0.01014  0.8771  -0.1126
6.412e+09  0.9924  -1.157  0.02513  -0.0446  -0.07856  -0.02245  0.8228  -0.4298
6.414e+09  0.576  -1.492  -0.003538  0.002912  -0.0327  0.03086  0.6363  -0.6573
6.415e+09  0.04945  -1.58  0.01988  -0.04571  0.02646  0.01089  0.3238  -0.8268
6.416e+09  -0.5358  -1.497  0.02421  0.01582  -0.03784  -0.03328  -0.01467  -0.8839
6.418e+09  -0.9914  -1.193  -0.01383  -0.02593  0.03128  0.008703  -0.2596  -0.833
6.419e+09  -1.364  -0.7778  -0.04163  0.001897  -0.003437  -0.03616  -0.5518  -0.7241
6.42e+09  -1.64  -0.2579  0.02293  -0.01978  -0.03674  -0.00227  -0.7263  -0.4928
6.421e+09  -1.575  0.3485  0.0141  -0.008199  0.00108  0.003848  -0.8939  -0.1849
6.422e+09  -1.379  0.8622  0.03189  0.04437  -0.01146  -0.01641  -0.8768  0.08908
6.424e+09  -1.01  1.351  -0.005621  0.02016  -0.03923  -0.02103  -0.8178  0.3894
6.425e+09  -0.5071  1.601  -0.0003544  -0.00743  -0.03819  -0.009517  -0.5648  0.6188
6.426e+09  0.1458  1.67  0.007299  0.01458  -0.02426  0.003486  -0.3468  0.8179
6.428e+09  0.7122  1.568  0.001201  -0.01544  -0.05486  -0.006593  -0.07075  0.8723
6.429e+09  1.198  1.212  -0.0186  0.008266  0.006529  0.04426  0.2665  0.8326
6.43e+09  1.581  0.7233  0.009816  0.03991  0.06677  -0.005561  0.5061  0.685
6.431e+09  1.76  0.05396  -0.02542  -0.0133  0.002898  -0.01151  0.7009  0.481
6.432e+09  1.667  -0.4924  -0.03611  0.02747  0.0005122  0.06534  0.8481  0.24
6.434e+09  1.458  -1.074  -0.04221  0.02091  -0.00869  -0.03592  0.8429  -0.08141
6.435e+09  1.015  -1.557  -0.03997  3.414e-05  0.02105  -0.0711  0.7529  -0.349
6.436e+09  0.3956  -1.793  -0.01711  0.03878  -0.02602  -0.07129  0.5969  -0.6167
6.438e+09  -0.2843  -1.799  -0.003364  -0.008434  -0.05196  0.02566  0.3369  -0.776
6.439e+09  -0.865  -1.643  0.001561  -0.01889  -0.02593  -0.01196  0.06939  -0.8347
6.44e+09  -1.487  -1.216  -0.004844  -0.002613  -0.03622  0.03572  -0.2476  -0.8503
6.441e+09  -1.802  -0.6424  0.01229  0.0001972  -0.01669  -0.0387  -0.5152  -0.7114
6.442e+09  -1.877  0.1192  0.009261  0.005204  0.03526  0.02793  -0.7077  -0.4919
6.444e+09  -1.8  0.7061  -0.005644  -0.0137  -0.01309  -0.02943  -0.7684  -0.2172
6.445e+09  -1.415  1.39  0.0209  0.008777  0.03279  0.04436  -0.8416  0.0728
6.446e+09  -0.9827  1.793  -0.05747  -0.02181  -0.0803  -0.04999  -0.7934  0.3501
6.448e+09  -0.2721  2.07  0.03074  -0.04497  -0.06379  0.01791  -0.5595  0.6037
6.449e+09  0.4871  2.063  0.009624  0.03572  0.02472  0.009225  -0.351  0.7388
6.45e+09  1.193  1.782  -0.01882  -0.007526  0.0003822  0.01978  -0.08273  0.843
6.451e+09  1.767  1.223  -0.01363  -0.007569  0.03899  0.03356  0.1904  0.8015
6.452e+09  2.108  0.5363  -0.001525  0.02606  0.02419  0.02287  0.4457  0.6401
6.454e+09  2.235  -0.2119  -0.01727  -0.006702  -0.009875  -0.0467  0.6691  0.4794
6.455e+09  2.07  -1.093  -0.009699  -0.03353  0.02203  -0.01096  0.7794  0.2463
6.456e+09  1.469  -1.752  -0.02037  0.005304  0.05889  0.007243  0.788  -0.1059
6.458e+09  0.7941  -2.176  -0.02788  0.01349  -0.08281  0.02285  0.756  -0.3615
6.459e+09  0.006188  -2.331  -0.02322  -0.003927  0.0371  -0.01593  0.5562  -0.6106
6.46e+09  -0.833  -2.307  -0.02206  0.00266  -0.02043  0.01848  0.3418  -0.7729
6.461e+09  -1.611  -1.81  0.008593  -0.01727  0.01193  -0.06413  0.1101  -0.8087
6.462e+09  -2.298  -1.192  -0.03845  -0.001575  0.03614  0.03268  -0.1945  -0.8236
6.464e+09  -2.636  -0.2698  0.004472  0.008182  0.03448  -0.02626  -0.4628  -0.6699
6.465e+09  -2.585  0.6225  0.003673  -0.01368  0.07786  -0.05369  -0.6901  -0.5055
6.466e+09  -2.265  1.586  -0.02086  -0.03652  0.005732  0.01741  -0.765  -0.2333
6.468e+09  -1.506  2.18  -0.002665  -0.02257  0.009303  -0.06759  -0.7833  0.03595
6.469e+09  -0.6669  2.861  0.01974  -0.01907  -0.08135  -0.09459  -0.7327  0.3459
6.47e+09  0.3934  3.013  -0.01722  -0.02162  -0.003686  0.05353  -0.5686  0.6017
6.471e+09  1.438  2.716  0.02172  -0.01308  0.05267  -0.03962  -0.3232  0.7565
6.472e+09  2.389  2.089  -0.02525  0.04708  -0.02432  0.04749  -0.06294  0.8218
6.474e+09  3.08  0.9443  -0.01279  -0.01725  0.09108  0.002188  0.1718  0.759
6.475e+09  3.297  -0.1773  0.02691  -0.01062  0.0406  -0.03537  0.4872  0.5891
6.476e+09  3.2  -1.397  0.0084  -0.01175  -0.002811  -0.04913  0.646  0.4588
6.478e+09  2.59  -2.582  -0.04755  0.01531  -0.01449  -0.08864  0.7871  0.1872
6.479e+09  1.411  -3.382  0.01974  -0.002416  0.03459  -0.02095  0.7662  -0.05186
6.48e+09  0.06014  -3.843  0.003005  -0.0309  -0.05269  -0.003454  0.6886  -0.3404
6.481e+09  -1.503  -3.651  -0.003725  -0.01427  -0.02561  -0.09812  0.5568  -0.5675
6.482e+09  -2.85  -2.972  -0.008824  -0.02583  0.008494  -0.04751  0.3448  -0.7004
6.484e+09  -3.973  -1.712  0.01799  -0.01127  -0.01034  0.00937  0.02527  -0.7963
6.485e+09  -4.504  -0.1126  -0.01987  0.02519  -0.1161  -0.006563  -0.2186  -0.7377
6.486e+09  -4.372  1.622  -0.03838  0.004111  -0.07096  -0.02464  -0.5258  -0.6214
6.488e+09  -4.094  2.874  0.0193  0.0002464  -0.6783  -0.01645  -0.6606  -0.4339
6.489e+09  -2.003  4.628  -0.00236  -0.009992  -0.003498  0.0115  -0.7694  -0.189
6.49e+09  -0.03327  5.188  0.03879  0.006096  0.1238  -0.0166  -0.7819  0.07778
6.491e+09  2.236  4.883  -0.01874  -0.005481  -0.02981  -0.1101  -0.6865  0.3576
6.492e+09  4.269  3.829  -0.01007  0.002972  -0.01042  0.05774  -0.5268  0.5607
6.494e+09  5.577  1.91  -0.003221  -0.005663  -0.003797  -0.09032  -0.2751  0.7139
6.495e+09  6.026  -0.7115  0.01884  -0.02646  0.04383  -0.01101  -0.03034  0.7413
6.496e+09  5.389  -3.321  -0.04561  0.03339  0.02583  -0.01648  0.2119  0.7029
6.498e+09  3.517  -5.312  -0.005694  -0.05739  0.03079  -0.009455  0.4367  0.6048
6.499e+09  0.8106  -6.385  -0.03767  -0.009977  0.04049  -0.04956  0.5779  0.439
6.5e+09  -0.1138  -0.3447  0.01324  0.008244  0.02123  0.04746  0.7238  0.1907
6.501e+09  -4.373  -4.687  -0.01934  0.01953  -0.02843  -0.01036  0.7011  -0.09631
6.502e+09  -5.91  -2.368  0.03918  0.03546  0.03076  0.03022  0.6503  -0.3281
6.504e+09  -6.08  0.2942  0.002753  0.02097  0.08027  0.02761  0.5007  -0.5727
6.505e+09  -5.267  2.78  0.00231  -0.009279  0.08313  0.04571  0.2853  -0.7069
6.506e+09  -3.453  4.595  0.01362  0.007064  -0.07184  0.06092  -0.0004288  -0.7391
6.508e+09  -1.298  5.39  -0.01234  -0.009418  -0.01363  -0.03337  -0.2583  -0.6658
6.509e+09  0.966  5.192  -0.0007268  0.007684  0.08485  -0.0169  -0.4464  -0.5697
6.51e+09  2.68  4.169  0.01168  0.02376  0.04445  0.02513  -0.6184  -0.3804
6.511e+09  4.079  2.674  0.001198  0.05127  0.03341  -0.05051  -0.7404  -0.1346
6.512e+09  4.503  0.8238  -0.0008173  0.02522  0.01804  -0.02369  -0.7199  0.117
6.514e+09  4.319  -0.9392  -0.02254  -0.0484  0.004286  -0.01975  -0.6664  0.376
6.515e+09  3.558  -2.439  0.047  0.01549  0.00672  0.007456  -0.4611  0.5582
6.516e+09  2.192  -3.448  -0.01738  -0.005117  -0.02954  -0.003439  -0.2478  0.7226
6.518e+09  0.6907  -3.825  -0.01075  -0.007558  0.04635  -0.06585  0.004955  0.743
6.519e+09  -0.6928  -3.64  -0.003401  -0.004422  0.003067  0.01599  0.2562  0.7064
6.52e+09  -1.977  -2.991  -0.02894  -0.009438  -0.02563  -0.004528  0.4964  0.5699
6.521e+09  -2.86  -2.002  -0.02238  0.0125  0.0189  0.0312  0.6596  0.3314
6.522e+09  -3.228  -0.7921  0.009273  0.02537  -0.001166  -0.003147  0.7407  0.1033
6.524e+09  -3.22  0.4379  -0.01365  0.009777  -0.005034  -0.02648  0.6977  -0.1576
6.525e+09  -2.666  1.564  -0.02225  0.02552  -0.02033  -0.009462  0.6519  -0.3405
6.526e+09  -1.828  2.297  -0.01985  -0.01351  -0.0568  0.02673  0.4046  -0.5738
6.528e+09  -0.9024  2.755  -0.003119  -0.007836  -0.03317  0.02654  0.1974  -0.6682
6.529e+09  0.1588  2.752  -0.02374  -1.011e-05  0.01261  -0.03332  -0.03141  -0.7077
6.53e+09  1.136  2.51  0.02375  0.007479  -0.003705  -0.02614  -0.2817  -0.6545
6.531e+09  1.882  1.914  0.02357  -0.02364  0.077  0.08205  -0.4585  -0.4677
6.532e+09  2.344  0.9889  -0.02036  -0.002446  0.01465  -0.06196  -0.5977  -0.2981
6.534e+09  2.523  0.1429  0.003393  -0.02077  0.009406  -0.05435  -0.6456  -0.0895
6.535e+09  2.302  -0.8129  0.01232  0.005335  0.01113  -0.1237  -0.5908  0.1283
6.536e+09  1.799  -1.505  -0.00261  -0.007054  0.01837  0.01829  -0.5806  0.2637
6.538e+09  1.129  -2.012  -0.02873  -0.02253  0.01573  0.01541  -0.4595  0.4923
6.539e+09  0.3537  -2.184  -0.005338  0.01017  0.01054  0.02017  -0.2884  0.637
6.54e+09  -0.4563  -2.18  0.004535  -0.007953  -0.01611  0.01026  -0.007148  0.7063
6.541e+09  -1.173  -1.813  0.007964  -0.01255  0.008947  -0.01809  0.1503  0.6558
6.542e+09  -1.738  -1.262  -0.008371  0.03992  0.04184  -0.02164  0.4253  0.5813
6.544e+09  -2.019  -0.5841  -0.001571  0.006485  0.06024  0.03096  0.5847  0.4018
6.545e+09  -1.973  0.1742  0.01307  0.02155  0.04516  -0.08639  0.7063  0.1465
6.546e+09  -1.829  0.8313  -0.003505  0.03738  -0.02539  0.02979  0.685  -0.09328
6.548e+09  -1.386  1.456  -0.004606  0.02925  -0.04146  -0.02159  0.6233  -0.2898
6.549e+09  -0.753  1.821  0.006957  -0.0009618  -0.01488  -0.02597  0.4977  -0.5293
6.55e+09  -0.05521  1.898  0.007194  0.01296  0.007714  0.002643  0.2874  -0.6784
6.551e+09  0.637  1.756  0.003047  0.005031  -0.003805  0.01477  0.01745  -0.7478
6.552e+09  1.217  1.459  -0.01925  0.006975  0.004421  0.03401  -0.206  -0.717
