# Hz S RI R 50
6.25e+09  -0.3684  0.7327  0.02686  0.01853  0.0371  0.05111  0.1482  0.4815
6.251e+09  -0.06885  0.8318  0.01747  0.01305  0.00305  -0.03386  0.3769  0.4133
6.252e+09  0.2337  0.7927  0.01078  -0.02808  0.004613  0.04372  0.518  0.2273
6.254e+09  0.4825  0.6797  -0.004305  0.002198  -0.02852  0.08459  0.5985  0.009323
6.255e+09  0.6982  0.5326  -0.004125  -0.01057  0.01657  0.0009422  0.6026  -0.2396
6.256e+09  0.7589  0.2179  -0.02762  -0.008475  -0.01278  0.05456  0.478  -0.4263
6.258e+09  0.8399  -0.09754  -0.03433  0.03904  0.01709  -0.04202  0.2691  -0.6004
6.259e+09  0.7267  -0.3482  -0.006785  0.02451  -0.01054  0.0395  0.07772  -0.6691
6.26e+09  0.5769  -0.6034  0.02006  0.02116  -0.02671  -0.0268  -0.1977  -0.6321
6.261e+09  0.2763  -0.7526  0.01289  0.01168  0.01651  -0.007527  -0.4308  -0.5168
6.262e+09  0.0525  -0.7759  -0.01886  0.009173  -0.04003  -0.01308  -0.6099  -0.3226
6.264e+09  -0.1971  -0.8027  -0.02152  -0.01166  0.01494  0.01959  -0.6727  -0.08337
6.265e+09  -0.446  -0.6219  -0.001776  -0.008541  -0.03492  -0.01745  -0.7376  0.1253
6.266e+09  -0.6851  -0.392  -0.009721  0.0183  0.009876  -0.02814  -0.5976  0.4044
6.268e+09  -0.7993  -0.1336  -0.007962  -0.02346  -0.002405  0.01263  -0.4319  0.6192
6.269e+09  -0.8428  0.06245  -0.01111  0.02305  0.03966  0.03196  -0.1911  0.6768
6.27e+09  -0.673  0.3571  0.01204  0.03204  -0.03403  -0.006997  0.08052  0.7412
6.271e+09  -0.5394  0.582  0.006988  -0.008308  -0.04328  0.02587  0.3148  0.6759
6.272e+09  -0.3245  0.7239  0.01214  -0.00454  -0.02244  -0.02266  0.554  0.4884
6.274e+09  0.02875  0.7909  -0.008578  -0.01155  -0.06805  2.993e-05  0.6847  0.3143
6.275e+09  0.2194  0.7531  -0.02066  -0.005584  -0.03666  -0.0195  0.7365  0.04935
6.276e+09  0.4838  0.6637  -0.004068  -0.01292  -0.02718  -0.02733  0.6756  -0.2398
6.278e+09  0.7154  0.4042  0.02917  -0.01922  0.02837  -8.458e-05  0.6419  -0.4352
6.279e+09  0.8272  0.1927  -0.01407  -0.01097  0.006521  0.0175  0.407  -0.638
6.28e+09  0.8  -0.1203  -0.004737  0.003847  -0.01633  -0.05  0.147  -0.7825
6.281e+09  0.6979  -0.3346  -0.01273  -0.005664  0.03359  0.02526  -0.1232  -0.7598
6.282e+09  0.4879  -0.6369  -0.0154  0.03482  -0.008538  -0.02417  -0.3725  -0.6819
6.284e+09  0.2956  -0.7485  -0.01332  0.02306  0.0303  0.04326  -0.6066  -0.506
6.285e+09  0.04216  -0.8506  -0.008403  0.02923  -0.02137  -0.008155  -0.7402  -0.323
6.286e+09  -0.2464  -0.8285  0.01687  0.01403  -0.002571  -0.02852  -0.7595  -0.02083
6.288e+09  -0.4946  -0.6444  0.001306  -0.01413  -0.02771  -0.01121  -0.7532  0.2273
6.289e+09  -0.7142  -0.4165  0.02049  -0.0006457  -0.01769  0.003379  -0.6526  0.4916
6.29e+09  -0.8153  -0.1933  0.001373  0.009451  -0.001863  -0.04295  -0.4274  0.6965
6.291e+09  -0.8605  0.1883  0.009723  -0.00101  -0.05355  -0.03499  -0.1643  0.7801
6.292e+09  -0.6836  0.3982  -0.01309  0.001602  -0.02565  0.01469  0.1272  0.7932
6.294e+09  -0.4831  0.6288  0.02186  -0.02901  0.07317  -0.03283  0.367  0.726
6.295e+09  -0.2477  0.7477  0.008452  -0.01863  0.002951  0.01111  0.5989  0.5316
6.296e+09  0.01167  0.7908  -0.02226  0.00475  0.0491  0.02183  0.7724  0.2611
6.298e+09  0.2866  0.7461  0.01191  -0.02616  0.04384  -0.001011  0.7972  -0.0001894
6.299e+09  0.499  0.6677  -0.02495  -0.01294  0.02901  0.01836  0.8018  -0.271
6.3e+09  0.7181  0.411  -0.0007768  -0.00464  0.0107  -0.06504  0.6253  -0.4923
6.301e+09  0.8001  0.1221  -0.0153  -0.004904  0.04074  -0.03094  0.4584  -0.7029
6.302e+09  0.7685  -0.1644  -0.03383  0.007713  0.008772  0.07996  0.1479  -0.7891
6.304e+09  0.7188  -0.4395  0.01397  -0.01142  -0.02014  0.06737  -0.1337  -0.7983
6.305e+09  0.4785  -0.6466  -0.0207  -0.01528  -0.01513  0.00341  -0.4166  -0.7746
6.306e+09  0.2103  -0.7628  -0.01401  0.005008  0.01535  0.02249  -0.6048  -0.5671
6.308e+09  -0.05163  -0.8116  -0.01949  -0.0477  0.008499  -0.04059  -0.8202  -0.3175
6.309e+09  -0.2824  -0.7472  0.02021  -0.001406  0.02932  0.01828  -0.8616  -0.009607
6.31e+09  -0.5698  -0.6293  0.001832  -0.02258  -0.01551  -0.03506  -0.8205  0.3019
6.311e+09  -0.7326  -0.3722  -0.01222  -0.01224  -0.001826  -0.05201  -0.6564  0.5294
6.312e+09  -0.8312  -0.1408  0.002978  0.01241  -0.02124  -0.03111  -0.4491  0.743
6.314e+09  -0.7743  0.2037  0.01283  -0.00219  -0.0008992  -0.01577  -0.1713  0.8036
6.315e+09  -0.6232  0.4202  0.03307  0.01528  -0.03754  0.03068  0.1348  0.8374
6.316e+09  -0.4241  0.6493  0.01243  -0.01761  0.03124  0.06181  0.4236  0.7523
6.318e+09  -0.1855  0.7546  0.001508  -0.009105  0.002237  -0.008205  0.6584  0.5788
6.319e+09  0.1255  0.8561  -0.01239  0.01324  -0.04921  0.005144  0.837  0.311
6.32e+09  0.3645  0.7446  -0.01345  -0.02258  0.0189  -0.001059  0.8749  0.01882
6.321e+09  0.5609  0.524  0.004791  0.002347  -0.02878  0.02551  0.8283  -0.2985
6.322e+09  0.7749  0.3251  -0.00493  -0.01226  0.01092  0.006059  0.6804  -0.5634
6.324e+09  0.8338  0.008629  0.02192  -0.009539  0.0524  -0.01335  0.4427  -0.7487
6.325e+09  0.7925  -0.2815  0.02837  -0.02163  0.03471  -0.01148  0.1492  -0.8654
6.326e+09  0.6842  -0.5594  0.0004466  0.02534  -0.001988  0.004599  -0.1491  -0.902
6.328e+09  0.4636  -0.6967  -0.01455  -0.004749  0.01023  -0.03707  -0.406  -0.8152
6.329e+09  0.1605  -0.8036  0.008373  0.03444  -0.01816  -0.01316  -0.6797  -0.6429
6.33e+09  -0.08986  -0.7835  0.01105  -0.0222  0.0263  -0.001652  -0.8224  -0.3185
6.331e+09  -0.4684  -0.7021  -0.005881  -0.03715  -0.07655  0.01451  -0.8925  -0.02459
6.332e+09  -0.6083  -0.6089  -0.01366  -0.005524  -0.03393  0.001197  -0.8635  0.298
6.334e+09  -0.7909  -0.2283  -0.03304  0.01206  0.0112  0.01966  -0.6884  0.5747
6.335e+09  -0.8854  0.005531  0.00767  -0.03761  -0.008404  0.05223  -0.4836  0.7715
6.336e+09  -0.8261  0.3219  -0.01964  0.01828  0.008852  0.01202  -0.22  0.8988
6.338e+09  -0.6369  0.5928  0.005508  -0.00982  -0.03314  0.01435  0.136  0.9012
6.339e+09  -0.384  0.7604  0.009254  0.005349  0.04194  -0.02448  0.4106  0.8174
6.34e+09  -0.1484  0.8986  0.004511  0.0126  -0.002434  -0.05815  0.7144  0.5856
6.341e+09  0.2194  0.8029  0.03822  0.0396  -0.004485  -0.002651  0.845  0.3824
6.342e+09  0.4526  0.6972  -0.01365  -0.009185  0.04319  0.004023  0.9237  0.0291
6.344e+09  0.6331  0.5223  -0.03408  -0.0006232  0.009307  -0.02561  0.8425  -0.2573
6.345e+09  0.8214  0.2987  0.02179  0.02626  0.009319  -0.04951  0.7288  -0.5819
6.346e+09  0.8325  -0.0544  0.0265  -0.01576  -0.004507  0.001548  0.5135  -0.7502
6.348e+09  0.7823  -0.3003  0.02718  -0.008429  0.02993  -0.01316  0.1892  -0.892
6.349e+09  0.5953  -0.5796  -0.001468  0.02326  0.01118  0.06363  -0.1203  -0.9163
6.35e+09  0.3646  -0.7376  -0.007325  0.0009326  0.00587  0.02904  -0.4054  -0.8442
6.351e+09  0.1028  -0.8497  -0.001884  0.02391  0.006946  0.03891  -0.7053  -0.653
6.352e+09  -0.2036  -0.8457  -0.01115  -0.01412  -0.004009  -0.01224  -0.8569  -0.396
6.354e+09  -0.527  -0.7031  -0.02637  -0.0217  -0.02511  -0.0372  -0.9356  -0.05559
6.355e+09  -0.675  -0.5019  0.02227  -0.0118  -0.004468  -0.0262  -0.9102  0.2506
6.356e+09  -0.8716  -0.2161  -0.02111  -0.008739  0.01946  -0.04514  -0.7453  0.5639
6.358e+09  -0.8869  0.1376  0.009144  -0.0001015  -0.02733  0.001509  -0.4992  0.7537
6.359e+09  -0.7363  0.4248  0.02083  -0.025  0.01293  -0.02359  -0.2447  0.9148
6.36e+09  -0.6102  0.6175  -0.00592  0.00666  -0.05247  0.0244  0.09464  0.9617
6.361e+09  -0.3195  0.8061  0.01002  -0.003604  -0.008114  0.01977  0.4217  0.8558
6.362e+09  -0.0318  0.8638  0.02559  0.01952  -0.02743  0.01875  0.6774  0.6881
6.364e+09  0.2524  0.7621  -0.03691  -0.02854  0.02  -0.03678  0.839  0.373
6.365e+09  0.577  0.6763  -0.03225  0.02458  0.01544  -0.0107  0.9599  0.08662
6.366e+09  0.7568  0.4623  0.05122  0.02986  -0.002918  -0.02277  0.9256  -0.3015
6.368e+09  0.7974  0.1688  -0.0002058  0.001536  -0.003897  0.03075  0.7376  -0.5264
6.369e+09  0.8655  -0.1679  -0.01916  0.02235  0.01119  -0.04324  0.4902  -0.749
6.37e+09  0.7228  -0.4267  0.01484  0.04877  0.04628  -0.009997  0.2852  -0.9498
6.371e+09  0.5059  -0.6428  0.03062  0.01614  0.03034  0.02668  -0.07812  -0.932
6.372e+09  0.2469  -0.8518  -0.01035  -0.01812  -0.006654  0.01975  -0.4027  -0.8348
6.374e+09  -0.08601  -0.8576  0.003824  0.02943  -0.02006  -0.01388  -0.6906  -0.6889
6.375e+09  -0.304  -0.8297  0.02295  0.01235  0.004818  -0.04385  -0.8622  -0.4283
6.376e+09  -0.5842  -0.6501  0.01981  -0.01247  -0.01289  -0.0197  -0.9376  -0.08209
6.378e+09  -0.7788  -0.3753  0.04153  0.009436  -0.003371  -0.00901  -0.9251  0.2179
6.379e+09  -0.8538  -0.09757  0.03927  -0.02249  0.03375  -0.02321  -0.7794  0.5546
6.38e+09  -0.8185  0.2358  -0.02078  0.01826  0.00633  -0.01735  -0.5881  0.7732
6.381e+09  -0.7263  0.4851  -0.0394  -0.005662  0.04948  -0.02321  -0.2293  0.9077
6.382e+09  -0.5  0.7274  -0.05893  0.01551  -0.04552  -0.02984  0.07107  0.9543
6.384e+09  -0.2703  0.8267  0.006963  0.03868  0.002478  0.02285  0.3566  0.8458
6.385e+09  0.05963  0.8823  0.007682  0.0007387  -0.03115  -0.01094  0.6307  0.6785
6.386e+09  0.3561  0.7984  0.003138  -0.01078  0.008116  0.01559  0.8292  0.4194
6.388e+09  0.6375  0.6101  -0.002959  -0.004335  -0.0318  -0.01886  0.924  0.09817
6.389e+09  0.7962  0.4029  -0.03296  -0.02188  -0.01913  0.03802  0.9587  -0.1779
6.39e+09  0.854  0.09087  -0.001151  -0.009591  -0.01659  0.0209  0.8111  -0.5112
6.391e+09  0.8272  -0.2397  -0.01941  -0.02523  0.0192  -0.000431  0.5242  -0.7529
6.392e+09  0.7288  -0.5195  0.01235  -0.01036  -0.002124  0.0002749  0.2937  -0.8492
6.394e+09  0.4983  -0.6904  -0.002979  0.001028  -0.02566  0.02565  -0.004101  -0.9229
6.395e+09  0.2105  -0.8585  -0.0358  0.00323  0.016  0.01236  -0.3636  -0.888
6.396e+09  -0.1042  -0.8908  -0.003444  -0.01954  -0.02466  -0.01286  -0.5875  -0.6947
6.398e+09  -0.3865  -0.7682  -0.03475  0.02377  0.01173  0.013  -0.7447  -0.4521
6.399e+09  -0.6115  -0.5901  0.01316  0.02928  0.001114  0.001468  -0.892  -0.1245
6.4e+09  -0.7678  -0.329  -0.04267  -0.0118  -0.007129  -0.01504  -0.8944  0.1974
6.401e+09  -0.8589  -0.02737  0.00589  -0.007102  0.00996  0.01769  -0.8043  0.4752
6.402e+09  -0.7874  0.2789  -0.01463  -0.0003813  -0.002602  -0.01475  -0.5595  0.6802
6.404e+09  -0.6609  0.5513  -0.01149  -0.01803  0.05438  -0.001869  -0.3496  0.8805
6.405e+09  -0.3996  0.7219  0.03049  -0.004197  -0.00791  0.03751  -0.03033  0.9359
6.406e+09  -0.1589  0.7761  -0.05116  -0.00169  -0.02442  0.01548  0.2903  0.8759
6.408e+09  0.1236  0.8791  -0.0003109  -0.003378  -0.01172  0.02716  0.5799  0.6957
6.409e+09  0.4026  0.7285  -0.005067  -0.04081  -0.001364  0.04237  0.7827  0.4859
6.41e+09  0.6443  0.5593  -0.01535  0.004175  -0.01822  -0.02722  0.8826  0.1848
6.411e+09  0.7702  0.3457  0.01042  0.03256  0.01444  -0.04105  0.8858  -0.1028
6.412e+09  0.8434  0.00938  -0.01234  -0.0001191  -0.03648  0.03007  0.7847  -0.4514
6.414e+09  0.796  -0.2219  0.0162  0.05826  0.06639  -0.04657  0.6052  -0.7015
6.415e+09  0.6707  -0.5291  -0.04344  -0.01125  -0.01645  0.01033  0.3193  -0.8473
6.416e+09  0.4232  -0.7291  -0.001875  0.008071  0.02989  0.009321  0.02154  -0.9537
6.418e+09  0.09413  -0.806  0.03403  0.006877  0.03622  -0.01057  -0.2487  -0.848
6.419e+09  -0.06958  -0.8719  0.01619  0.05454  0.05237  -0.00485  -0.5267  -0.7006
6.42e+09  -0.4432  -0.7429  -0.03353  0.01511  -0.01993  0.0061  -0.717  -0.4946
6.421e+09  -0.7009  -0.5997  0.02151  -0.01583  0.01475  0.001702  -0.8691  -0.1897
6.422e+09  -0.827  -0.2892  -0.03756  0.02288  0.02106  -0.01773  -0.9013  0.08753
6.424e+09  -0.8543  -0.04767  0.01528  -0.002207  -0.02364  -0.01161  -0.8061  0.4385
6.425e+09  -0.8163  0.28  -0.0211  0.01743  0.02654  -0.04039  -0.5962  0.6224
6.426e+09  -0.6431  0.5677  0.03601  -0.003584  0.0001908  -0.02312  -0.3066  0.8195
6.428e+09  -0.438  0.7362  0.02339  0.00436  -0.02275  -0.006117  -0.04587  0.8615
6.429e+09  -0.1558  0.8682  0.001033  -0.01117  0.02592  0.04944  0.2453  0.8312
6.43e+09  0.2368  0.8459  -0.002682  -0.01618  -0.0006287  -0.007857  0.5338  0.7369
6.431e+09  0.3688  0.7436  -0.004812  0.007023  0.04521  -0.004607  0.734  0.4838
6.432e+09  0.6692  0.5296  -0.02439  0.01198  0.02153  0.01288  0.8263  0.2055
6.434e+09  0.8154  0.2864  -0.01809  -0.00237  0.01619  -0.01817  0.8543  -0.07625
6.435e+09  0.8432  -0.04391  0.02562  0.00935  0.002461  -0.007208  0.7689  -0.3898
6.436e+09  0.7895  -0.3492  0.05027  -0.008112  -0.02125  -0.002191  0.6219  -0.6459
6.438e+09  0.6662  -0.5481  -0.03093  -0.01297  -0.01475  0.006529  0.3383  -0.7537
6.439e+09  0.4314  -0.7597  -0.02206  -0.01185  0.0312  0.03323  0.08325  -0.9033
6.44e+09  0.1371  -0.8376  0.02124  0.003505  0.01833  0.02775  -0.21  -0.7879
6.441e+09  -0.1758  -0.8411  -0.006519  0.006913  0.01323  -0.01656  -0.4936  -0.6918
6.442e+09  -0.4781  -0.742  0.02117  0.04979  0.009289  0.04087  -0.6884  -0.4771
6.444e+09  -0.6846  -0.5146  0.03546  -0.008618  -0.02443  -0.04397  -0.8192  -0.2348
6.445e+09  -0.7802  -0.3048  0.008082  -0.01928  0.009663  0.01655  -0.858  0.04778
6.446e+09  -0.8356  -0.04009  -0.03632  0.005562  0.02929  -0.01511  -0.6997  0.3425
6.448e+09  -0.8024  0.3203  0.01008  -0.002973  -0.0442  -0.004471  -0.616  0.5939
6.449e+09  -0.6714  0.5573  0.005909  -0.01574  -0.02896  0.03  -0.3645  0.798
6.45e+09  -0.4181  0.766  -0.003002  0.02772  0.04227  0.08138  -0.05173  0.8101
6.451e+09  -0.1484  0.8807  -0.02835  0.00336  0.04381  -0.06434  0.1809  0.8133
6.452e+09  0.1802  0.8166  -0.01719  -0.01527  -0.01794  0.01561  0.4931  0.6892
6.454e+09  0.4567  0.6952  -0.008354  -0.01804  0.005098  -0.002402  0.6931  0.5174
6.455e+09  0.7026  0.5643  0.007601  0.03098  -0.01231  -0.04093  0.815  0.2428
6.456e+09  0.8237  0.2556  0.0008068  0.007763  -0.03561  -0.0207  0.8251  -0.06581
6.458e+09  0.8491  -0.07171  0.03268  -0.02655  -0.007941  -0.02646  0.7757  -0.3559
6.459e+09  0.8009  -0.3123  0.03154  0.01009  0.00825  -0.0368  0.5946  -0.6067
6.46e+09  0.6374  -0.5871  -0.004407  -0.001064  -0.0008496  0.0333  0.3725  -0.7457
6.461e+09  0.3713  -0.7594  0.003157  0.005208  0.01527  0.01907  0.03597  -0.821
6.462e+09  0.1261  -0.8115  0.03912  -0.01254  -0.001557  0.01492  -0.204  -0.7876
6.464e+09  -0.1631  -0.9344  -0.01011  -0.02893  -0.01406  -0.04312  -0.4779  -0.6465
6.465e+09  -0.4413  -0.6825  0.02283  0.06403  0.03152  -0.01001  -0.6769  -0.445
6.466e+09  -0.6959  -0.5267  0.04195  0.02778  -0.002725  -0.03667  -0.7714  -0.2192
6.468e+09  -0.8157  -0.2286  0.006436  0.008137  0.0001596  0.01536  -0.7637  0.06439
6.469e+09  -0.891  0.0157  0.00754  -0.008148  -0.004848  -0.003774  -0.6966  0.3534
6.47e+09  -0.7915  0.3568  0.0808  0.01182  -0.0001858  -0.02461  -0.6102  0.5432
6.471e+09  -0.6856  0.6292  0.02667  -0.0378  0.003528  0.0112  -0.3332  0.7204
6.472e+09  -0.4147  0.7641  -0.01185  0.005833  0.05223  0.003512  -0.1069  0.7793
6.474e+09  -0.07151  0.879  -0.0189  -0.003822  0.007998  -0.02302  0.2338  0.7892
6.475e+09  0.1826  0.8898  0.04093  -0.01775  0.01611  0.01619  0.4812  0.6328
6.476e+09  0.4623  0.7315  -0.001836  -0.006473  0.002569  -0.04239  0.6895  0.4542
6.478e+09  0.7256  0.5415  0.01529  0.02196  -0.005093  -0.05424  0.7903  0.1781
6.479e+09  0.8691  0.1912  -0.005798  0.03152  -0.006316  0.005302  0.7809  -0.08361
6.48e+09  0.9166  -0.06059  -0.03045  -0.01815  0.009199  -0.006768  0.7126  -0.3519
6.481e+09  0.8237  -0.3528  0.01361  0.03693  0.0252  0.0259  0.5513  -0.5844
6.482e+09  0.6222  -0.5864  0.006919  0.01941  -0.03972  0.00978  0.3273  -0.7615
6.484e+09  0.386  -0.7546  -0.008845  -0.02482  0.03021  0.03838  0.04406  -0.7342
6.485e+09  0.09126  -0.8838  -0.03211  0.007306  -0.03945  -0.01273  -0.1824  -0.7387
6.486e+09  -0.2262  -0.8429  0.009619  -0.005378  0.006586  0.004429  -0.4551  -0.6101
6.488e+09  -0.2807  -0.04963  0.0077  0.02647  0.5301  -0.5037  -0.6048  -0.4335
6.489e+09  -0.7493  -0.5293  -0.03665  -0.005658  0.02461  -0.01069  -0.7904  -0.2028
6.49e+09  -0.8718  -0.2154  -0.008352  -0.04502  0.05636  0.009747  -0.7652  0.07967
6.491e+09  -0.8874  0.07331  -0.01864  -0.01484  0.02135  -0.009355  -0.6761  0.3062
6.492e+09  -0.773  0.378  0.00763  0.01945  -0.04347  0.02009  -0.5292  0.5227
6.494e+09  -0.5886  0.7713  0.0108  -0.02158  0.05591  -0.09715  -0.3243  0.7449
6.495e+09  -0.383  0.8074  -0.01268  -0.02935  0.02847  0.02401  -0.03578  0.7757
6.496e+09  -0.08636  0.8281  -0.01712  0.003578  -0.0001045  -0.02794  0.188  0.7376
6.498e+09  0.2824  0.8309  -0.008411  0.002909  0.05088  -0.01993  0.4524  0.5906
6.499e+09  0.5544  0.6972  -0.02134  -0.01386  0.01038  -0.01378  0.6626  0.4037
6.5e+09  0.7591  0.4805  -0.005351  0.002939  -0.02022  0.01569  0.7544  0.1398
6.501e+09  0.8809  0.1634  0.01417  -0.008661  0.03434  0.05262  0.7251  -0.08743
6.502e+09  0.9372  -0.142  0.01735  -0.005635  0.004567  -0.001739  0.6737  -0.363
6.504e+09  0.8312  -0.391  0.00221  -0.0095  -0.00487  -0.01073  0.5368  -0.5802
6.505e+09  0.6255  -0.6682  0.01808  -0.003773  -0.03028  0.004053  0.277  -0.7246
6.506e+09  0.3254  -0.8664  -0.04822  0.02167  -0.02762  0.000642  0.008581  -0.7834
6.508e+09  0.03131  -0.9297  0.05058  -0.007983  -0.03214  0.005083  -0.2416  -0.7
6.509e+09  -0.2833  -0.8927  -0.02615  0.0007965  -0.02279  0.02983  -0.4804  -0.562
6.51e+09  -0.572  -0.6848  -0.01321  -0.03775  -0.06458  0.0322  -0.6613  -0.3786
6.511e+09  -0.8103  -0.4847  0.03989  -0.00726  0.009274  0.03412  -0.7568  -0.1262
6.512e+09  -0.8772  -0.1579  0.01685  -0.02307  -0.03466  -0.02406  -0.7427  0.1132
6.514e+09  -0.9004  0.1495  -0.01493  0.01325  0.03626  0.04488  -0.6666  0.3889
6.515e+09  -0.7962  0.4709  -0.03197  0.008686  -0.05495  0.006304  -0.5134  0.5919
6.516e+09  -0.5904  0.7117  -0.02747  -0.01337  0.00608  -0.002008  -0.2343  0.6899
6.518e+09  -0.2901  0.8717  -0.01268  -0.01086  0.01978  0.03956  0.01646  0.7449
6.519e+09  -0.0234  0.9301  0.02367  0.01434  -0.007858  0.02109  0.281  0.6769
6.52e+09  0.3608  0.9212  0.005107  0.01827  0.03932  -0.003361  0.469  0.5279
6.521e+09  0.586  0.7165  -0.008093  -0.01449  0.01551  0.01714  0.6462  0.3805
6.522e+09  0.8378  0.4594  0.004093  -0.01103  0.02271  0.005295  0.713  0.08461
6.524e+09  0.9366  0.1549  -0.01344  -0.03152  0.001798  0.002903  0.7156  -0.1471
6.525e+09  0.928  -0.1991  0.0003983  0.009768  -0.01592  -0.006538  0.604  -0.4143
6.526e+09  0.7554  -0.5235  0.01303  -0.009151  0.02912  0.03161  0.4278  -0.5868
6.528e+09  0.5777  -0.7713  -0.02502  0.0138  -0.01184  0.0167  0.2015  -0.651
6.529e+09  0.2599  -0.9676  -0.003676  -0.007139  -0.01519  0.01425  -0.06582  -0.6916
6.53e+09  -0.04142  -0.9165  0.0007323  0.03162  -0.002903  0.04206  -0.2635  -0.5935
6.531e+09  -0.3943  -0.8656  0.01324  0.01039  -0.002396  0.01575  -0.4349  -0.484
6.532e+09  -0.7306  -0.6471  -0.01744  -0.004141  0.009748  0.0353  -0.5548  -0.2888
6.534e+09  -0.8376  -0.3781  0.01341  0.006098  0.01695  0.001324  -0.6493  -0.09251
6.535e+09  -0.9451  -0.05731  0.01307  -0.0191  -0.02263  0.03235  -0.6341  0.08252
6.536e+09  -0.8814  0.2831  -0.01492  -0.04117  -0.04106  -0.01093  -0.5673  0.2672
6.538e+09  -0.7598  0.55  -0.006599  0.01618  -0.01495  0.04683  -0.4319  0.4558
6.539e+09  -0.4744  0.7663  -0.03759  0.02907  0.001086  0.02997  -0.2818  0.6018
6.54e+09  -0.2255  0.9361  0.02429  0.01231  -0.02171  0.01599  -0.06619  0.6819
6.541e+09  0.1428  0.9276  0.03282  0.002724  -0.01293  -0.01635  0.1728  0.6699
6.542e+09  0.4127  0.8467  0.009598  -0.02664  -0.07342  0.04248  0.4144  0.5932
6.544e+09  0.7256  0.5892  -0.02809  -0.001109  -0.03309  -0.04091  0.5812  0.3845
6.545e+09  0.9169  0.3036  0.04434  0.01085  0.01974  0.01763  0.7231  0.1517
6.546e+09  0.9445  -0.01909  0.006111  0.003551  0.04506  0.01072  0.7369  -0.06412
6.548e+09  0.8119  -0.3399  -0.0104  0.01713  -0.05939  0.004977  0.668  -0.3362
6.549e+09  0.7486  -0.6276  -0.03797  -0.01163  0.005435  0.007785  0.5134  -0.5155
6.55e+09  0.4264  -0.7757  0.01828  0.001568  -0.04702  -0.04911  0.2925  -0.7244
