# Hz S RI R 50
6.25e+09  -0.2841  0.7423  -0.006824  0.02555  -0.06764  0.04672  0.1342  0.4802
6.251e+09  -0.02013  0.8363  0.004111  0.01722  0.008976  -0.03662  0.3387  0.4209
6.252e+09  0.2329  0.8722  0.02061  0.01081  0.03812  -0.04106  0.5381  0.2637
6.254e+09  0.5482  0.6737  0.01546  -0.02926  0.0121  -0.05933  0.5878  0.02459
6.255e+09  0.679  0.4013  0.01775  -0.02601  0.02309  0.009401  0.5967  -0.2275
6.256e+09  0.7933  0.1077  -0.01792  0.01448  0.008778  0.02072  0.4674  -0.4344
6.258e+09  0.7917  -0.1469  -0.03235  -0.0195  -0.01209  -0.009102  0.2678  -0.589
6.259e+09  0.7154  -0.4489  0.0102  0.02033  0.02708  0.02146  0.07044  -0.659
6.26e+09  0.5095  -0.6732  0.0005649  0.002036  -0.05125  0.04992  -0.2112  -0.6607
6.261e+09  0.2885  -0.7903  -0.01889  -0.000567  -0.01889  0.014  -0.4764  -0.568
6.262e+09  0.02745  -0.8073  -0.04303  0.01907  0.01758  0.008105  -0.6466  -0.3489
6.264e+09  -0.2707  -0.7938  -0.03196  0.001292  0.02473  0.01412  -0.6878  -0.1124
6.265e+09  -0.5309  -0.6737  0.01674  0.01099  -0.01328  0.01018  -0.6899  0.1464
6.266e+09  -0.7474  -0.3573  -0.01886  -0.02465  0.009043  0.001867  -0.5922  0.3567
6.268e+09  -0.8358  -0.1655  0.0091  -0.01471  -0.02651  -0.000675  -0.4181  0.5828
6.269e+09  -0.7854  0.1537  -0.02496  -0.003648  0.02195  0.06457  -0.214  0.712
6.27e+09  -0.7199  0.3495  0.01613  -0.01887  0.03611  0.04549  0.05538  0.751
6.271e+09  -0.4779  0.6038  0.02587  -0.003992  -0.02224  0.03602  0.3176  0.6855
6.272e+09  -0.2982  0.7196  -0.02175  -0.01793  0.01117  0.03165  0.5455  0.5135
6.274e+09  0.01307  0.8642  -0.003648  0.01082  0.03523  0.0374  0.7092  0.3176
6.275e+09  0.2403  0.7758  0.008458  0.006059  0.006038  -0.01872  0.7149  0.03773
6.276e+09  0.5348  0.6031  0.008558  -0.004257  -0.02518  0.04392  0.741  -0.2092
6.278e+09  0.7093  0.3642  0.008362  -0.00374  0.007737  -0.005406  0.612  -0.4628
6.279e+09  0.875  0.1101  0.02204  0.0184  0.0007531  0.03585  0.3692  -0.6486
6.28e+09  0.7693  -0.1454  0.01801  0.003971  0.000879  -0.01279  0.1918  -0.7718
6.281e+09  0.6234  -0.3808  0.01125  0.01815  0.001556  0.05161  -0.114  -0.7396
6.282e+09  0.4627  -0.6441  -0.02241  -0.002699  -0.03004  -0.03109  -0.3678  -0.7293
6.284e+09  0.2646  -0.7457  -0.001009  -0.009556  -0.02294  -0.006196  -0.5484  -0.5159
6.285e+09  -0.02427  -0.7281  0.007793  -0.007847  0.04175  0.0332  -0.7274  -0.2981
6.286e+09  -0.3466  -0.6779  0.0151  -0.01592  -0.04146  0.0004322  -0.8335  -0.03604
6.288e+09  -0.5766  -0.6161  0.03389  -0.005306  -0.03943  0.005004  -0.7246  0.2595
6.289e+09  -0.6968  -0.3329  0.02562  -0.01538  0.02529  -0.003353  -0.617  0.4681
6.29e+09  -0.7811  -0.1296  -0.001154  0.02239  -0.04722  0.02708  -0.4165  0.6804
6.291e+09  -0.7528  0.1847  0.003237  0.0145  0.00462  0.003807  -0.1696  0.7829
6.292e+09  -0.6804  0.437  0.001659  -0.03153  -0.02363  0.02422  0.1281  0.7445
6.294e+09  -0.4525  0.6556  0.03068  0.006209  -0.07246  0.02089  0.3869  0.7109
6.295e+09  -0.2213  0.7738  0.01141  0.01225  -0.02732  0.004521  0.6698  0.5531
6.296e+09  0.06805  0.8138  -0.0133  0.004247  0.008759  -0.01713  0.7371  0.2863
6.298e+09  0.2849  0.7986  0.005051  0.002867  -0.08492  0.01485  0.8404  0.008908
6.299e+09  0.5334  0.6335  -0.0008249  0.006671  0.02028  -0.02099  0.7646  -0.2992
6.3e+09  0.704  0.3281  -0.004919  -0.008062  0.001635  -0.03919  0.6396  -0.5183
6.301e+09  0.8256  0.01223  -0.003523  -0.002476  -0.006186  -0.0552  0.395  -0.7292
6.302e+09  0.8385  -0.2799  0.006708  -0.004555  0.005774  0.0002917  0.1467  -0.8206
6.304e+09  0.634  -0.4709  -0.01322  0.007858  -0.006591  0.02796  -0.1204  -0.8398
6.305e+09  0.4529  -0.6543  0.0152  0.00634  0.007578  0.002669  -0.4095  -0.7587
6.306e+09  0.1777  -0.7673  0.005291  -0.004512  0.02798  0.01182  -0.6681  -0.5839
6.308e+09  -0.08774  -0.7864  -0.03863  -0.02104  0.01254  -0.04411  -0.7775  -0.3157
6.309e+09  -0.388  -0.7679  -0.01217  -0.01597  -0.01674  -0.001866  -0.8512  -0.0188
6.31e+09  -0.5983  -0.5272  -0.00175  0.0001141  -0.0231  0.04606  -0.8082  0.2988
6.311e+09  -0.7819  -0.2925  -0.00285  -0.02403  0.03022  0.002118  -0.6601  0.5386
6.312e+09  -0.8141  -0.05677  -0.003669  0.02356  0.01037  0.03005  -0.4425  0.7685
6.314e+09  -0.7421  0.2235  -0.003668  0.0179  -0.002208  -0.0244  -0.1539  0.8554
6.315e+09  -0.6573  0.457  0.006822  -0.0026  -0.003253  0.01621  0.1637  0.8839
6.316e+09  -0.4306  0.6952  -0.02504  0.00628  0.03245  0.04192  0.4322  0.7714
6.318e+09  -0.1546  0.8264  0.008591  -0.01081  -0.002575  -0.001312  0.6348  0.5792
6.319e+09  0.1396  0.7833  -0.0005077  0.01099  -0.05948  -0.01987  0.8135  0.2924
6.32e+09  0.4263  0.6918  -0.01545  -0.01447  0.05364  0.005823  0.8756  -0.02578
6.321e+09  0.6094  0.5124  -0.01507  0.01686  -0.01009  0.008697  0.8659  -0.2915
6.322e+09  0.7574  0.2684  0.01117  -0.004335  0.002822  0.05825  0.6664  -0.5686
6.324e+09  0.7949  -0.01485  -0.01335  -0.001969  -0.02155  0.02214  0.4694  -0.7784
6.325e+09  0.8014  -0.2576  0.007405  0.01117  -0.008622  0.01173  0.198  -0.8838
6.326e+09  0.6095  -0.5307  -0.005459  -0.01131  0.0005163  -0.01826  -0.1234  -0.8971
6.328e+09  0.4067  -0.7201  -0.002533  0.02857  0.04621  0.07803  -0.4271  -0.8079
6.329e+09  0.06827  -0.7962  -0.02592  -0.01331  -0.005544  0.03489  -0.6716  -0.61
6.33e+09  -0.1501  -0.7999  -0.02787  -0.006166  0.01122  -0.006801  -0.8406  -0.3126
6.331e+09  -0.4619  -0.6825  0.02878  0.002873  -0.02045  0.03713  -0.9205  -0.01351
6.332e+09  -0.6629  -0.4881  0.0404  -0.005282  -0.01998  0.0212  -0.8436  0.2775
6.334e+09  -0.7626  -0.2241  -0.001603  -0.005816  0.01789  0.004994  -0.7244  0.5325
6.335e+09  -0.8457  0.0006472  0.005673  0.001915  0.0111  -0.0493  -0.4952  0.7922
6.336e+09  -0.7775  0.3464  -0.01589  0.0011  0.01688  0.04156  -0.2136  0.9011
6.338e+09  -0.5304  0.611  -0.02683  0.01813  -0.03779  0.03075  0.1294  0.9139
6.339e+09  -0.3907  0.7773  -0.01493  -0.0168  0.0374  -0.04338  0.4302  0.7767
6.34e+09  -0.07138  0.8119  -0.003479  -0.02059  0.01103  -0.02934  0.6832  0.6067
6.341e+09  0.2195  0.8348  -0.01292  0.04295  0.008223  0.01182  0.8346  0.3323
6.342e+09  0.5257  0.6821  0.01385  -0.006541  0.01984  -0.02823  0.9206  0.06955
6.344e+09  0.6719  0.4369  -0.009215  0.009318  -0.02009  -0.004004  0.8739  -0.2528
6.345e+09  0.8  0.2037  -0.00852  0.01467  -0.006835  -0.007546  0.7406  -0.5783
6.346e+09  0.8651  -0.1423  0.01605  -0.0147  -0.01211  -0.03153  0.5434  -0.7706
6.348e+09  0.7661  -0.4216  -0.02273  -0.03866  -0.01146  0.001322  0.2004  -0.9381
6.349e+09  0.579  -0.6282  -0.0005859  0.03232  0.007419  -0.001753  -0.1266  -0.9228
6.35e+09  0.2923  -0.8305  -0.02031  -0.009803  -0.01141  -0.01302  -0.3895  -0.8426
6.351e+09  0.01861  -0.8687  0.01244  -0.02848  0.05803  -0.004766  -0.6701  -0.6501
6.352e+09  -0.3084  -0.792  0.0006481  0.00951  -0.01167  0.01874  -0.7982  -0.3465
6.354e+09  -0.5407  -0.6462  0.01377  -0.01275  -0.008208  0.005411  -0.9821  -0.07296
6.355e+09  -0.7354  -0.4377  -0.01686  -0.02683  -0.002462  0.006505  -0.8795  0.2892
6.356e+09  -0.8086  -0.1504  0.0356  0.01721  -0.01706  0.006163  -0.779  0.5463
6.358e+09  -0.8496  0.1229  -0.006435  -0.02271  0.02298  0.03107  -0.539  0.7724
6.359e+09  -0.7529  0.4189  -0.01869  -0.004867  -0.004519  -0.006683  -0.1828  0.9128
6.36e+09  -0.4952  0.6705  0.0452  0.04266  0.02451  0.006965  0.1184  0.9648
6.361e+09  -0.2611  0.8527  -0.02417  -0.01234  -0.01989  -0.01629  0.3967  0.8214
6.362e+09  0.0391  0.8666  0.01  0.03044  -0.02152  0.01064  0.6525  0.6425
6.364e+09  0.3009  0.7641  0.006125  -0.003728  0.0479  0.004655  0.8724  0.3741
6.365e+09  0.6  0.6302  0.01082  -0.01688  -0.02639  -0.07065  0.955  0.09511
6.366e+09  0.7574  0.4024  -0.01771  0.007278  -0.003866  0.0397  0.9143  -0.2187
6.368e+09  0.8848  0.1045  -0.005276  -0.001688  0.01446  -0.0161  0.7609  -0.5137
6.369e+09  0.844  -0.2338  -0.0173  -0.01611  -0.01675  -0.0004082  0.5482  -0.7721
6.37e+09  0.7126  -0.4725  -0.01533  -0.01109  0.06433  0.02601  0.2506  -0.882
6.371e+09  0.5134  -0.6629  -0.02773  -0.01133  0.01086  0.005025  -0.07039  -0.9235
6.372e+09  0.191  -0.8468  -0.04667  0.005068  -0.007824  -0.0001151  -0.395  -0.8348
6.374e+09  -0.07526  -0.8575  -0.01979  -0.03531  0.03942  0.02482  -0.646  -0.7076
6.375e+09  -0.365  -0.8167  -0.00677  -0.01128  -0.02268  -0.01611  -0.8663  -0.4247
6.376e+09  -0.6239  -0.5759  -0.02497  0.01018  0.01565  -0.05324  -0.9137  -0.1074
6.378e+09  -0.7845  -0.3211  0.001192  0.01917  0.01719  0.001756  -0.9439  0.2159
6.379e+09  -0.8424  -0.0373  -0.008784  -0.0266  -0.00919  0.02396  -0.7941  0.5398
6.38e+09  -0.8175  0.2752  -0.01638  -0.01241  -0.02758  -0.03652  -0.5523  0.8128
6.381e+09  -0.7097  0.4922  -0.007826  -0.01838  0.03027  0.03435  -0.2547  0.9484
6.382e+09  -0.4276  0.7055  0.008263  0.003065  -0.001198  -0.02177  0.02963  0.9362
6.384e+09  -0.1717  0.8786  0.01828  -0.009038  0.01285  0.006169  0.3865  0.869
6.385e+09  0.1558  0.8811  0.02285  0.04078  -0.02332  -0.03571  0.6477  0.6675
6.386e+09  0.3536  0.7943  -0.01606  -0.01019  0.000119  -0.01712  0.8253  0.4697
6.388e+09  0.6425  0.5324  0.02703  0.04008  -0.03106  -0.009523  0.9261  0.1115
6.389e+09  0.8047  0.2912  0.02568  -0.003576  0.00825  -0.004502  0.9257  -0.2224
6.39e+09  0.8277  0.00638  0.0235  -0.01863  0.01615  -0.007612  0.7844  -0.4667
6.391e+09  0.8096  -0.2895  -0.01081  0.00536  -0.01405  0.004478  0.5929  -0.732
6.392e+09  0.7031  -0.5426  0.01889  -0.02827  0.04128  0.02197  0.3073  -0.8566
6.394e+09  0.4387  -0.7285  -0.001704  0.01807  -0.02146  -0.006818  -0.00555  -0.9146
6.395e+09  0.1336  -0.8711  -0.004034  0.006238  0.0002365  -0.009133  -0.3441  -0.8699
6.396e+09  -0.1225  -0.82  0.02427  0.004651  -0.002309  0.005588  -0.6582  -0.6799
6.398e+09  -0.4428  -0.7525  0.04704  -0.005635  0.0307  -0.03608  -0.797  -0.4456
6.399e+09  -0.6604  -0.5665  0.02277  -0.004443  -0.02306  0.01337  -0.8744  -0.1492
6.4e+09  -0.8387  -0.317  -0.01612  0.008282  -0.01482  0.01266  -0.9051  0.1598
6.401e+09  -0.8553  0.05052  0.01729  0.01578  -0.006455  0.005078  -0.8027  0.4361
6.402e+09  -0.8662  0.3065  -0.01198  -0.008507  -0.004007  0.06369  -0.6162  0.7056
6.404e+09  -0.6927  0.5101  0.009407  -0.01938  0.001046  0.02448  -0.3032  0.8849
6.405e+09  -0.4165  0.7656  -0.001287  -0.01771  0.006739  0.00631  0.002271  0.8945
6.406e+09  -0.1244  0.8379  -0.008512  -0.003465  0.0203  -0.02254  0.3355  0.8783
6.408e+09  0.1625  0.8436  0.02994  -0.0235  0.03721  0.02703  0.5602  0.7092
6.409e+09  0.4871  0.7002  -0.001978  0.0145  -0.01752  0.04202  0.7999  0.4819
6.41e+09  0.6858  0.5771  0.03329  -0.01319  0.01647  0.02158  0.8662  0.1623
6.411e+09  0.8213  0.2846  0.01351  0.0227  0.02067  -0.009089  0.9418  -0.1729
6.412e+09  0.863  0.007118  0.02589  -0.03015  -0.1003  -0.01363  0.7952  -0.4254
6.414e+09  0.7817  -0.3411  0.005939  0.03517  -0.04663  0.03043  0.5885  -0.6831
6.415e+09  0.6703  -0.575  0.04703  -0.002806  -0.003135  0.02757  0.3632  -0.8113
6.416e+09  0.3792  -0.6862  0.00357  0.04655  -0.003861  -0.009848  0.006312  -0.8793
6.418e+09  0.1189  -0.8724  0.01882  -0.0277  -0.01293  -0.05447  -0.2646  -0.8826
6.419e+09  -0.1673  -0.8054  -0.04909  -0.02711  0.02948  -0.003971  -0.5018  -0.6958
6.42e+09  -0.5062  -0.6934  0.002155  -0.02931  0.01841  0.0259  -0.756  -0.4517
6.421e+09  -0.6891  -0.4976  -0.01187  -0.01413  -0.02933  0.01105  -0.873  -0.1876
6.422e+09  -0.7578  -0.2396  0.012  0.05221  -0.03177  -0.007626  -0.8701  0.1075
6.424e+09  -0.8599  0.03625  -0.00909  0.009603  0.02624  0.02921  -0.7516  0.383
6.425e+09  -0.7854  0.3359  0.01294  -0.03657  -0.0196  0.02216  -0.5752  0.6522
6.426e+09  -0.6354  0.5645  -0.0303  -0.03602  0.003482  -0.01308  -0.3864  0.7547
6.428e+09  -0.3755  0.7434  -0.01348  -0.01015  0.0008766  -0.02432  -0.04543  0.8645
6.429e+09  -0.1323  0.8879  0.03842  -0.008639  -0.0482  -0.05281  0.2479  0.8291
6.43e+09  0.2428  0.854  0.05503  -0.008008  0.02872  0.04625  0.5409  0.7396
6.431e+09  0.4641  0.7387  -0.01749  0.01205  0.02026  0.0004315  0.7395  0.434
6.432e+09  0.7244  0.513  0.02608  0.03878  -0.0004832  0.02948  0.863  0.1934
6.434e+09  0.8274  0.2878  0.02137  -0.008495  0.007945  0.03591  0.885  -0.1105
6.435e+09  0.7836  -0.0707  0.03211  0.01737  0.03713  0.036  0.79  -0.3392
6.436e+09  0.7849  -0.3839  -0.008917  0.02829  0.03964  0.01047  0.6193  -0.5782
6.438e+09  0.6008  -0.6192  0.03541  0.0202  -0.01643  -0.02282  0.3444  -0.7526
6.439e+09  0.4195  -0.7286  -0.005651  0.01337  -0.002891  0.04155  0.06943  -0.8468
6.44e+09  0.09016  -0.8573  -0.05406  0.003085  0.004796  -0.01042  -0.2089  -0.8318
6.441e+09  -0.2021  -0.8706  -0.01448  -0.008651  -0.01224  -0.003824  -0.465  -0.6594
6.442e+09  -0.4867  -0.7011  -0.04376  0.005105  0.01013  0.02134  -0.6859  -0.507
6.444e+09  -0.744  -0.4865  -0.01414  -0.01435  0.05452  0.006438  -0.7668  -0.2104
6.445e+09  -0.839  -0.2237  0.04857  0.008131  -0.01789  0.003467  -0.8388  0.07511
6.446e+09  -0.8875  0.07272  0.01794  0.02671  -0.01181  -0.03627  -0.7404  0.4028
6.448e+09  -0.8174  0.3726  -0.02016  -0.00606  0.01528  -0.02935  -0.5873  0.5393
6.449e+09  -0.6154  0.6168  -0.005687  -0.03267  -0.0339  -0.006801  -0.3051  0.7566
6.45e+09  -0.3139  0.8035  0.03064  0.04668  0.008003  -0.0167  -0.05796  0.828
6.451e+09  -0.05996  0.787  0.01696  -0.004436  -0.03461  0.02028  0.1894  0.8091
6.452e+09  0.2205  0.854  0.03416  -0.03527  0.002932  -0.03228  0.4772  0.7014
6.454e+09  0.494  0.6618  0.02359  0.04974  0.01617  0.003087  0.6885  0.4908
6.455e+09  0.6896  0.5226  0.02703  -0.0252  0.0313  0.01  0.7655  0.2566
6.456e+09  0.845  0.2  0.02054  -0.01954  -0.03566  0.01912  0.8004  -0.07785
6.458e+09  0.8558  -0.116  -0.005988  -0.05145  0.01645  -0.007116  0.7684  -0.345
6.459e+09  0.8272  -0.3775  -0.01764  0.01078  0.001711  -0.02674  0.5578  -0.5601
6.46e+09  0.5804  -0.6266  0.02273  -0.0437  -0.01393  -0.002602  0.3298  -0.693
6.461e+09  0.3569  -0.7851  0.02008  0.01402  0.09021  -0.03441  0.04244  -0.8022
6.462e+09  0.08427  -0.8823  0.008676  -0.007666  -0.02283  0.01784  -0.2156  -0.7476
6.464e+09  -0.2119  -0.8727  -0.008945  0.01536  -0.0006956  0.001175  -0.4596  -0.6547
6.465e+09  -0.491  -0.747  0.01188  0.0249  0.02095  0.08996  -0.6528  -0.4706
6.466e+09  -0.7158  -0.4526  0.05066  -0.01689  0.01161  -0.0188  -0.7677  -0.2157
6.468e+09  -0.8565  -0.2042  0.001608  0.01632  0.06194  0.005963  -0.8305  0.0587
6.469e+09  -0.8693  0.1009  -0.01321  0.009192  0.02903  -0.003189  -0.7437  0.34
6.47e+09  -0.7869  0.3738  0.0005606  -0.007072  0.007981  -0.00994  -0.5447  0.5701
6.471e+09  -0.643  0.6527  -0.0144  0.02182  -0.04854  -0.02243  -0.316  0.7473
6.472e+09  -0.2995  0.8416  -0.02618  0.02458  0.03312  -0.02746  -0.06966  0.7977
6.474e+09  -0.07865  0.9297  0.00318  -0.03376  -0.01213  -0.04694  0.2209  0.7764
6.475e+09  0.2329  0.8378  -0.0044  0.01687  -0.03148  -0.01299  0.4597  0.6486
6.476e+09  0.5898  0.6972  0.009377  0.05958  0.000871  0.02644  0.6155  0.4285
6.478e+09  0.721  0.4473  0.02385  0.01077  0.01386  0.002713  0.7541  0.2345
6.479e+09  0.8813  0.1756  0.0005352  -0.02536  0.001027  -0.01073  0.7267  -0.08547
6.48e+09  0.87  -0.1729  0.001803  0.05957  -0.004423  0.01801  0.7228  -0.2994
6.481e+09  0.8091  -0.387  -0.04605  -0.01359  -0.03082  -0.014  0.555  -0.6139
6.482e+09  0.5888  -0.6485  0.004589  -0.003942  0.03101  0.005367  0.3027  -0.7441
6.484e+09  0.3681  -0.8362  0.01499  0.003774  0.002404  -0.0214  0.04285  -0.7589
6.485e+09  -0.03251  -0.8442  -0.01479  0.01371  -0.03996  -0.01134  -0.2094  -0.7904
6.486e+09  -0.3203  -0.8802  0.02414  0.0332  -0.01992  0.004682  -0.4387  -0.6634
6.488e+09  -0.6395  0.01903  -0.004411  0.01271  -0.7218  -0.08742  -0.652  -0.4353
6.489e+09  -0.7637  -0.4481  0.04361  -0.03634  -0.01364  0.004894  -0.7269  -0.1719
6.49e+09  -0.8863  -0.1788  0.003072  -0.01278  -0.02426  -0.02105  -0.819  0.09754
6.491e+09  -0.9592  0.1101  -0.02791  0.000775  0.02  -0.01546  -0.6753  0.3413
6.492e+09  -0.7618  0.4398  -0.02512  0.01017  -0.05294  -0.02968  -0.5113  0.575
6.494e+09  -0.4854  0.686  0.01756  -0.003907  -0.1213  -0.03115  -0.324  0.6962
6.495e+09  -0.3402  0.8657  -0.03053  -0.04673  0.02017  0.01946  -0.04458  0.7584
6.496e+09  0.03702  0.8881  0.01315  0.02064  0.009549  0.01473  0.2702  0.7452
6.498e+09  0.3042  0.8522  -0.001274  0.02821  -0.02364  -0.007153  0.4705  0.6272
6.499e+09  0.5802  0.7026  -0.001025  -0.01003  0.006815  0.02264  0.6116  0.414
6.5e+09  0.7846  0.4242  0.00884  0.009901  -0.01137  -0.02955  0.7467  0.1685
6.501e+09  0.8878  0.1407  -0.01908  -0.02537  -0.01416  -5.865e-05  0.7461  -0.1192
6.502e+09  0.8834  -0.205  -0.007353  -0.02014  -0.02299  0.01564  0.701  -0.3451
6.504e+09  0.7894  -0.4489  0.009539  -0.003318  -0.01032  -0.000767  0.5008  -0.5598
6.505e+09  0.5421  -0.7149  -0.001496  -0.0158  -0.02337  0.002606  0.3044  -0.6594
6.506e+09  0.3086  -0.8893  0.004276  -0.004757  -0.0005817  0.006274  -0.002155  -0.7848
6.508e+09  -0.07837  -0.9705  0.0161  0.02978  -0.01798  0.02217  -0.2303  -0.7136
6.509e+09  -0.3005  -0.8482  -0.02138  -0.0319  -0.009487  0.001263  -0.4827  -0.5748
6.51e+09  -0.632  -0.7051  0.01689  -0.003363  -0.01  -0.02531  -0.683  -0.3817
6.511e+09  -0.8364  -0.4087  -0.06777  0.02624  0.004192  -0.03667  -0.7641  -0.1282
6.512e+09  -0.9458  -0.07233  -0.001684  0.02171  0.03204  -0.05235  -0.7207  0.1274
6.514e+09  -0.9  0.2101  -0.004011  -0.00692  -0.02795  -0.01942  -0.6441  0.39
6.515e+09  -0.7578  0.5149  -0.003073  0.02126  -0.06365  -0.009435  -0.4923  0.6179
6.516e+09  -0.5618  0.7632  -0.01333  -0.01134  -0.005209  -0.06488  -0.1908  0.7015
6.518e+09  -0.2326  0.8903  0.0005736  0.003363  -0.007634  -0.0142  0.007461  0.7656
6.519e+09  0.09901  1.008  -0.03457  -0.007438  0.003952  0.005258  0.2817  0.7109
6.52e+09  0.4116  0.8548  -0.001873  0.005533  0.01136  -0.03314  0.4907  0.552
6.521e+09  0.6462  0.622  0.03019  -0.01437  0.02765  0.0004774  0.6266  0.3677
6.522e+09  0.8904  0.3561  0.02826  0.01923  0.002187  0.02736  0.752  0.09358
6.524e+09  0.9465  0.103  -0.0088  0.002356  -0.0213  0.00971  0.7513  -0.1625
6.525e+09  0.9311  -0.3139  0.04826  0.02259  0.01348  0.0448  0.6054  -0.4084
6.526e+09  0.7421  -0.6339  0.0188  0.0391  -0.01439  0.05011  0.4387  -0.5677
6.528e+09  0.5059  -0.8164  -0.02175  0.01019  0.04126  0.008426  0.213  -0.6369
6.529e+09  0.1793  -0.912  -0.03189  -0.03112  -0.04825  0.06004  -0.05762  -0.6936
6.53e+09  -0.1404  -0.9175  0.0243  -0.01768  0.01483  0.01754  -0.308  -0.6216
6.531e+09  -0.4935  -0.7899  -0.008011  0.01214  0.02612  -0.0145  -0.4612  -0.4854
6.532e+09  -0.7107  -0.6072  0.01297  0.05238  0.004418  0.008633  -0.6049  -0.2839
6.534e+09  -0.8727  -0.3093  -0.04686  -0.0184  -0.001197  0.007223  -0.6166  -0.1161
6.535e+09  -0.9296  -0.0261  0.01003  -0.01447  -0.01158  0.03764  -0.6353  0.1106
6.536e+09  -0.8822  0.367  0.002048  -0.03956  0.02374  0.01753  -0.5484  0.3225
6.538e+09  -0.7153  0.6246  -0.01082  -0.0146  0.01706  0.01062  -0.4251  0.4413
6.539e+09  -0.4297  0.8486  -0.02083  0.04102  -0.01419  -0.0008719  -0.2334  0.6041
6.54e+09  -0.09071  0.963  0.001427  0.005388  -0.02809  0.0279  -0.06487  0.653
6.541e+09  0.1829  0.9608  -0.005933  -0.0006126  -0.02232  0.0316  0.1555  0.6983
6.542e+09  0.5298  0.7836  0.03655  -0.02402  0.005369  0.006432  0.406  0.5525
6.544e+09  0.7514  0.5413  -0.01312  0.01629  0.05269  0.01719  0.5887  0.4178
6.545e+09  0.8984  0.207  -0.03765  0.004389  0.02903  0.03632  0.7084  0.1791
6.546e+09  0.9091  -0.136  -0.01489  0.01453  0.01636  -0.01714  0.7072  -0.06582
6.548e+09  0.8491  -0.4317  0.002046  0.0141  -0.02091  -0.01471  0.66  -0.2948
6.549e+09  0.6345  -0.6999  -0.009246  -0.01423  0.005485  0.01072  0.4902  -0.556
6.55e+09  0.3891  -0.8728  -0.001913  0.02348  0.02202  0.02577  0.2644  -0.6634
6.551e+09  0.02479  -0.8967  0.02904  0.01425  -0.01955  0.005305  0.04301  -0.7386
