# Hz S RI R 50
6.25e+09  0.816  0.5746  0.003036  0.01481  -0.003494  -0.08194  0.1357  0.5022
6.251e+09  0.9412  0.2827  0.01811  0.0007651  -0.05484  0.02288  0.3972  0.4035
6.252e+09  0.9738  -0.03868  -0.0001136  0.006541  -0.004577  0.04021  0.5335  0.2273
6.254e+09  0.8824  -0.4243  -0.00956  0.01438  0.01154  0.01606  0.6219  -0.002315
6.255e+09  0.697  -0.6928  0.02859  0.003309  -0.009461  -0.001976  0.5771  -0.2095
6.256e+09  0.4446  -0.9713  0.01417  -0.01379  -0.01359  0.03412  0.4968  -0.4094
6.258e+09  0.1093  -0.9396  0.01473  0.01694  -0.008917  -0.05248  0.2904  -0.6057
6.259e+09  -0.2467  -0.9118  0.009096  -0.003614  0.03423  -0.01423  0.04782  -0.6404
6.26e+09  -0.5526  -0.8025  -0.00633  -0.02943  0.0568  -0.03651  -0.2301  -0.6609
6.261e+09  -0.8179  -0.5053  -0.008974  0.01782  -0.03119  -0.02724  -0.4464  -0.5463
6.262e+09  -0.9467  -0.2177  0.01821  -0.01788  0.04818  0.04609  -0.6335  -0.3731
6.264e+09  -0.9223  0.2036  0.01431  0.03123  -0.01241  0.03199  -0.735  -0.1069
6.265e+09  -0.8461  0.518  -0.0094  -0.03041  0.002896  0.04146  -0.7004  0.1407
6.266e+09  -0.5937  0.724  -0.004781  -0.005103  -0.03548  0.04836  -0.6419  0.3924
6.268e+09  -0.3461  0.9358  -0.001828  0.002396  0.02758  -0.008317  -0.4203  0.594
6.269e+09  -0.01259  0.9217  0.03357  -0.01287  0.04905  0.0007063  -0.2161  0.7252
6.27e+09  0.379  0.8992  0.02733  0.01647  -0.008358  -0.01074  0.05232  0.7432
6.271e+09  0.6777  0.6696  0.01034  0.006558  -0.03356  0.04997  0.357  0.6953
6.272e+09  0.8777  0.4718  -0.00419  -0.001846  -0.004013  -0.03184  0.5362  0.4998
6.274e+09  0.9554  0.1759  0.003079  0.03703  0.006197  0.01341  0.7046  0.3051
6.275e+09  0.9251  -0.2209  -0.001435  0.02717  0.05816  0.001432  0.7531  0.03854
6.276e+09  0.7543  -0.5049  -0.0004342  0.01704  0.01317  0.009307  0.7009  -0.2306
6.278e+09  0.5587  -0.7658  -0.001389  0.03053  0.02753  0.003691  0.6093  -0.4615
6.279e+09  0.2405  -0.9288  -0.001059  0.01541  -0.002078  0.05832  0.4188  -0.6539
6.28e+09  -0.1367  -1.008  0.01979  0.03943  -0.02021  0.02303  0.1453  -0.7657
6.281e+09  -0.4072  -0.7921  -0.007073  0.002219  0.02206  0.03979  -0.09519  -0.7872
6.282e+09  -0.7581  -0.6576  0.03061  0.02831  0.03923  0.02308  -0.3781  -0.6626
6.284e+09  -0.8472  -0.4042  -0.01217  0.01541  0.03413  0.02986  -0.5621  -0.5059
6.285e+09  -0.9997  -0.04324  -0.02596  -0.005052  0.07103  0.005471  -0.7306  -0.3197
6.286e+09  -0.8891  0.343  -0.001113  0.02648  0.02384  0.04143  -0.7908  -0.02691
6.288e+09  -0.7307  0.5827  0.01084  -0.008383  0.02472  -0.0006697  -0.7455  0.2693
6.289e+09  -0.5176  0.8269  0.01646  0.03922  -0.08128  0.008892  -0.6132  0.51
6.29e+09  -0.1556  0.9288  -3.911e-05  0.01162  -0.02368  0.0307  -0.4371  0.6785
6.291e+09  0.2109  0.9347  0.02928  -0.02486  -0.006163  -0.03691  -0.1336  0.7952
6.292e+09  0.4813  0.8359  0.03204  0.006851  -0.007771  0.03124  0.1049  0.7968
6.294e+09  0.7863  0.5893  0.003464  0.002286  0.007137  0.02478  0.3942  0.712
6.295e+09  0.9111  0.2925  0.008833  -0.006804  -0.01187  0.003964  0.6366  0.5538
6.296e+09  0.981  -0.0917  -8.207e-05  0.02647  -0.02461  -0.01089  0.7688  0.2828
6.298e+09  0.9022  -0.4255  0.01243  0.01663  -0.01954  0.05289  0.8484  0.01427
6.299e+09  0.7834  -0.7136  0.01144  -0.006493  0.04043  -0.01273  0.7952  -0.2998
6.3e+09  0.4154  -0.849  0.0146  0.0123  -0.01323  0.01442  0.6673  -0.5277
6.301e+09  0.05379  -1.009  0.009015  -0.02977  0.004546  -0.03388  0.43  -0.74
6.302e+09  -0.2659  -0.9835  0.01216  0.05336  -0.02574  0.01655  0.1555  -0.8099
6.304e+09  -0.6191  -0.813  -0.03156  0.01556  -0.02179  0.02952  -0.1379  -0.7735
6.305e+09  -0.8921  -0.5429  0.01011  0.008724  -0.02349  -0.001376  -0.3864  -0.7377
6.306e+09  -0.9693  -0.1303  -0.001205  0.01753  -0.02505  0.01203  -0.6504  -0.5434
6.308e+09  -0.9794  0.1656  -0.00584  0.01581  0.023  0.0108  -0.8187  -0.3195
6.309e+09  -0.8721  0.4908  -0.003402  0.01228  -0.02621  -0.02089  -0.8736  -0.008066
6.31e+09  -0.6529  0.7166  0.0274  0.01008  0.008048  -0.02425  -0.8002  0.2509
6.311e+09  -0.37  0.9959  0.0003091  0.01267  0.02403  0.01625  -0.6676  0.5423
6.312e+09  -0.0124  1.032  0.002264  0.006272  -0.01256  0.001964  -0.4307  0.7236
6.314e+09  0.3927  0.9616  -0.02469  0.005498  -0.02899  0.02665  -0.1556  0.8794
6.315e+09  0.6908  0.7406  0.007785  -0.01502  0.04027  -0.01089  0.1538  0.8462
6.316e+09  0.8954  0.4626  0.009769  0.02014  -0.02055  -0.01194  0.4126  0.763
6.318e+09  0.9712  0.1507  0.02451  0.02708  0.01682  -0.01811  0.6437  0.5294
6.319e+09  0.9679  -0.2145  0.007097  0.001538  0.01765  -0.008859  0.8022  0.3269
6.32e+09  0.8765  -0.5729  0.03792  -0.005401  0.009212  0.02905  0.868  0.02039
6.321e+09  0.5668  -0.8394  -0.02898  0.01484  0.03161  0.006574  0.8535  -0.2603
6.322e+09  0.2883  -0.9763  -0.00763  -0.01737  0.02097  -0.04526  0.6885  -0.5776
6.324e+09  -0.1241  -1.035  0.02623  0.01981  -0.00391  0.01361  0.4518  -0.7783
6.325e+09  -0.4741  -0.9305  0.01722  -0.0175  0.01677  0.01254  0.1971  -0.8691
6.326e+09  -0.7601  -0.787  -0.004452  0.02672  0.02397  -0.0008089  -0.1427  -0.8989
6.328e+09  -0.937  -0.4018  0.001934  0.02862  0.02781  0.004117  -0.4361  -0.776
6.329e+09  -1.034  -0.08005  -0.009585  -0.01745  0.01769  0.03302  -0.6676  -0.5823
6.33e+09  -1.025  0.3292  -0.01752  -0.004554  -0.01617  -0.0314  -0.8388  -0.3105
6.331e+09  -0.8529  0.6642  -0.004782  -0.001553  -0.003928  -0.014  -0.8972  -0.03096
6.332e+09  -0.5915  0.8687  0.01186  0.01432  -0.05129  0.0476  -0.8812  0.2701
6.334e+09  -0.2093  1.068  -0.01726  0.01959  -0.005758  -0.04179  -0.7205  0.5412
6.335e+09  0.1303  1.057  0.0187  0.005092  0.01981  0.04779  -0.4655  0.7761
6.336e+09  0.5273  0.9324  0.02017  -0.01927  0.001009  0.01185  -0.1965  0.9055
6.338e+09  0.8466  0.6592  0.01443  0.02128  0.011  0.02396  0.1287  0.9226
6.339e+09  1.053  0.3491  -0.0106  0.006416  0.03183  0.01073  0.3895  0.8321
6.34e+09  1.092  0.007149  0.02241  0.02707  0.02527  0.0297  0.6799  0.6478
6.341e+09  1.013  -0.4364  -0.009622  -0.006007  0.02157  -0.04207  0.8574  0.3705
6.342e+09  0.8285  -0.7258  -0.01628  0.007509  -0.01363  0.008406  0.9378  0.07152
6.344e+09  0.5127  -0.9869  0.01276  -0.02993  -0.03062  -0.03187  0.8994  -0.2701
6.345e+09  0.1536  -1.146  -0.006481  -0.04981  -0.01578  -0.01175  0.7292  -0.5688
6.346e+09  -0.2437  -1.1  -0.001508  0.01486  -0.02255  -0.029  0.5043  -0.7679
6.348e+09  -0.5987  -0.9199  0.02113  -0.01092  -0.05316  -0.002038  0.222  -0.9096
6.349e+09  -0.9512  -0.6  -0.02372  -0.01798  -0.008068  0.01924  -0.08189  -0.9338
6.35e+09  -1.092  -0.2764  -0.007612  0.02117  -0.01495  -0.01607  -0.4313  -0.8264
6.351e+09  -1.111  0.118  -0.007686  -0.009419  -0.001173  0.0108  -0.641  -0.6333
6.352e+09  -1.016  0.5071  0.02465  0.02324  -0.0208  -0.02022  -0.8635  -0.399
6.354e+09  -0.8137  0.8466  -0.02745  -0.005847  -0.04076  0.05621  -0.9314  -0.04364
6.355e+09  -0.4658  1.075  -0.02276  0.05782  -0.0106  0.006062  -0.8871  0.2653
6.356e+09  -0.1099  1.135  -0.02859  -0.02353  0.02875  0.02649  -0.7585  0.5941
6.358e+09  0.3592  1.116  -0.03459  0.002348  0.01589  -0.01787  -0.5299  0.8154
6.359e+09  0.7326  0.9332  -0.00999  -0.005824  -0.0376  0.05583  -0.2772  0.8888
6.36e+09  1.015  0.5805  0.05461  -0.02635  0.01475  0.03654  0.1141  0.9346
6.361e+09  1.182  0.2374  0.01949  -0.009571  0.02793  0.0002966  0.3895  0.867
6.362e+09  1.165  -0.1868  -0.02431  -0.02415  0.009338  0.02253  0.6491  0.6737
6.364e+09  1.066  -0.6354  -0.03186  -0.05069  0.02868  0.05595  0.8629  0.3808
6.365e+09  0.7868  -0.8982  0.001031  -0.02491  0.005461  -0.01914  0.9496  0.04181
6.366e+09  0.3522  -1.125  -0.01562  -0.007492  0.02641  -0.01715  0.9172  -0.2708
6.368e+09  0.003306  -1.189  -0.01874  -0.0368  0.03316  0.001804  0.7653  -0.5446
6.369e+09  -0.4784  -1.133  0.004041  0.02086  0.0169  0.01834  0.5392  -0.7673
6.37e+09  -0.7711  -0.9275  0.01226  -0.01959  0.03713  0.002188  0.2378  -0.9074
6.371e+09  -1.152  -0.6219  0.01728  0.01064  -0.06856  -0.03822  -0.1316  -0.9118
6.372e+09  -1.24  -0.1835  0.02795  0.006408  -0.02099  -0.004463  -0.3958  -0.8381
6.374e+09  -1.199  0.3391  0.0008104  0.01175  0.02029  0.02382  -0.676  -0.7025
6.375e+09  -1.067  0.7037  -0.03758  -0.004428  0.02406  0.04304  -0.8785  -0.4022
6.376e+09  -0.7753  1.028  -0.01774  -0.0001267  0.003195  -0.006211  -0.9257  -0.09965
6.378e+09  -0.3393  1.234  -0.01683  -0.01562  -0.01805  -0.01426  -0.8852  0.2506
6.379e+09  0.09611  1.332  -0.01933  0.01309  0.03227  -0.01692  -0.7949  0.494
6.38e+09  0.558  1.18  -0.01227  -0.02263  0.01922  0.002193  -0.5212  0.7566
6.381e+09  0.9689  0.9301  0.01037  -0.01585  0.0344  -0.05001  -0.26  0.8748
6.382e+09  1.2  0.4777  0.004367  0.02523  -0.005066  -0.02895  0.06559  0.9037
6.384e+09  1.333  0.06379  0.01785  -0.01035  -0.0319  0.003662  0.3684  0.8212
6.385e+09  1.337  -0.383  -0.02644  -0.01331  -0.03467  0.01177  0.6121  0.6834
6.386e+09  1.102  -0.8678  -0.02474  -0.007607  0.004926  0.02684  0.8087  0.4197
6.388e+09  0.7139  -1.146  0.06094  0.0001484  0.01012  0.01489  0.9088  0.1037
6.389e+09  0.3013  -1.362  -0.01727  0.02171  0.04908  -0.02074  0.9321  -0.2564
6.39e+09  -0.18  -1.382  -0.004643  -0.02283  0.002531  -0.03079  0.8075  -0.507
6.391e+09  -0.7377  -1.234  0.005294  -0.05663  0.0005478  0.01023  0.598  -0.6931
6.392e+09  -1.087  -0.9825  -0.02074  -0.0435  0.007524  0.006722  0.2819  -0.8804
6.394e+09  -1.395  -0.4846  0.01339  -0.02366  0.03329  -0.03522  -0.04009  -0.9322
6.395e+09  -1.495  0.01729  0.01597  -0.002057  0.0156  0.008858  -0.3294  -0.8918
6.396e+09  -1.405  0.5617  0.01039  -0.05456  0.01075  0.0138  -0.5857  -0.691
6.398e+09  -1.168  1.029  -0.009671  0.04311  0.01664  0.003855  -0.793  -0.4536
6.399e+09  -0.7559  1.371  -0.007696  0.01201  0.05529  -0.04514  -0.868  -0.1485
6.4e+09  -0.163  1.54  0.01947  0.01034  -0.08196  -0.02182  -0.8954  0.176
6.401e+09  0.4271  1.51  0.006295  -0.01429  -0.02716  0.003912  -0.8169  0.4783
6.402e+09  0.9263  1.375  -0.04441  -0.01129  -0.00563  0.001065  -0.5977  0.724
6.404e+09  1.351  0.9621  -0.005816  0.03544  -0.0287  -0.02476  -0.2864  0.8622
6.405e+09  1.664  0.4407  0.00407  0.03295  0.03351  -0.02151  0.02825  0.915
6.406e+09  1.652  -0.1832  -0.001215  -0.03556  -0.01924  -0.007034  0.268  0.8804
6.408e+09  1.544  -0.7712  0.03121  0.02653  -0.03007  -0.001308  0.5761  0.7289
6.409e+09  1.096  -1.316  0.0206  -0.00467  0.02823  -0.01848  0.7961  0.4127
6.41e+09  0.5531  -1.718  0.007363  0.02109  -0.0004479  0.01369  0.8283  0.1647
6.411e+09  -0.05342  -1.763  0.04522  -0.0504  -0.04877  0.04683  0.92  -0.1599
6.412e+09  -0.6978  -1.763  0.01504  -0.01408  0.02306  0.01979  0.8012  -0.4164
6.414e+09  -1.311  -1.396  -0.00574  -0.03857  0.02978  -0.002311  0.6479  -0.687
6.415e+09  -1.771  -0.8043  -0.05113  0.01799  -0.01755  -0.02569  0.3246  -0.806
6.416e+09  -2.028  -0.1522  -0.002747  -0.005831  0.02967  0.01034  0.03007  -0.9494
6.418e+09  -1.885  0.5623  -0.01378  0.02928  0.0055  0.01673  -0.2691  -0.8423
6.419e+09  -1.651  1.265  -0.01693  0.01099  -0.01758  -0.01816  -0.5892  -0.695
6.42e+09  -1.039  1.786  -0.02464  -0.04014  -0.01061  0.07132  -0.7737  -0.4654
6.421e+09  -0.3087  2.095  -0.0004391  -0.00307  -0.08069  0.03531  -0.8582  -0.2025
6.422e+09  0.4604  2.127  0.02428  0.008532  0.001372  0.05565  -0.872  0.07534
6.424e+09  1.221  1.848  0.05258  0.03401  0.002214  0.005659  -0.7666  0.4324
6.425e+09  1.879  1.279  -0.01241  0.01546  0.04833  -0.003032  -0.6053  0.6236
6.426e+09  2.297  0.4833  0.0006021  0.01005  0.02609  -0.06805  -0.3355  0.8047
6.428e+09  2.353  -0.3669  -0.05207  -0.02404  -0.01914  -0.02062  -0.03821  0.8489
6.429e+09  2.039  -1.256  0.004262  -0.009326  -0.02917  0.04787  0.2583  0.8506
6.43e+09  1.482  -1.918  -0.0189  -0.03344  -0.05656  -0.07242  0.5066  0.7307
6.431e+09  0.6258  -2.403  -0.00207  -0.006171  -0.05029  0.001243  0.7426  0.5118
6.432e+09  -0.2923  -2.503  -0.02697  -0.03225  0.04504  -0.035  0.8348  0.2154
6.434e+09  -1.26  -2.207  -0.0001066  -0.01548  -0.0136  -0.001799  0.8589  -0.08904
6.435e+09  -2.069  -1.624  0.01292  0.01041  0.006258  -0.05362  0.7767  -0.3372
6.436e+09  -2.508  -0.7425  0.01767  -0.03337  -0.04574  -0.01758  0.5793  -0.6285
6.438e+09  -2.653  0.2425  -0.002566  0.01071  -0.02618  0.003811  0.3821  -0.8149
6.439e+09  -2.286  1.278  0.03002  0.04162  0.01765  0.02765  0.06847  -0.8588
6.44e+09  -1.75  2.046  0.01336  -0.03237  -0.02999  0.04148  -0.1719  -0.8177
6.441e+09  -0.8569  2.595  -0.02872  0.005196  0.04468  -0.0006443  -0.4916  -0.6785
6.442e+09  0.2067  2.719  0.0139  -0.04984  0.01469  0.03938  -0.6772  -0.4764
6.444e+09  1.253  2.491  0.005951  0.01266  0.06759  0.02905  -0.8082  -0.2412
6.445e+09  2.108  1.778  0.003098  -0.009103  0.0432  0.03109  -0.8162  0.1071
6.446e+09  2.649  0.8551  0.01975  -0.05521  0.02894  -0.008132  -0.7634  0.3905
6.448e+09  2.749  -0.1862  -0.01237  -0.01957  -0.03025  -0.03571  -0.6005  0.6274
6.449e+09  2.48  -1.275  0.01069  0.02657  -0.03212  -0.005938  -0.3591  0.7553
6.45e+09  1.877  -2.125  0.05065  -0.01654  0.005948  0.006956  -0.09284  0.8299
6.451e+09  0.975  -2.702  -0.003811  -0.009272  -0.1101  -0.006194  0.2567  0.8142
6.452e+09  -0.1765  -2.772  0.00465  0.01167  -0.01735  0.07113  0.5079  0.6651
6.454e+09  -1.224  -2.463  0.009972  -0.004631  0.05032  0.06339  0.6872  0.4907
6.455e+09  -2.05  -1.809  0.03726  -0.04502  -0.06419  -0.001999  0.8195  0.2466
6.456e+09  -2.595  -0.9064  -0.06616  -0.002559  0.02944  0.02323  0.8174  -0.1082
6.458e+09  -2.765  0.05423  0.00293  -0.04402  -0.02272  -0.004413  0.7184  -0.3526
6.459e+09  -2.411  1.061  -0.0007076  0.01193  0.002971  -0.01962  0.584  -0.5748
6.46e+09  -1.816  1.947  -0.01351  0.0284  -0.04507  0.05433  0.3192  -0.7138
6.461e+09  -0.9606  2.452  -0.04691  -0.0519  0.007684  0.01092  0.08923  -0.825
6.462e+09  0.02376  2.656  0.02143  0.03564  -0.00965  0.06727  -0.1678  -0.7751
6.464e+09  0.9644  2.41  -0.01947  -0.01599  0.04038  0.01719  -0.4926  -0.6939
6.465e+09  1.757  1.848  -0.01263  -0.003148  0.003885  0.0294  -0.6902  -0.4744
6.466e+09  2.231  1.062  0.006872  0.002272  -0.04714  0.004061  -0.7723  -0.1836
6.468e+09  2.527  0.1618  0.02171  -0.008007  0.03254  0.004992  -0.8199  0.07555
6.469e+09  2.384  -0.8158  -0.007231  0.01963  0.0288  0.003592  -0.7172  0.3472
6.47e+09  1.892  -1.555  -0.004062  -0.008837  0.004722  0.02442  -0.57  0.5738
6.471e+09  1.186  -2.105  0.03658  0.02204  -0.02016  -0.03752  -0.3737  0.7323
6.472e+09  0.3822  -2.335  0.0513  -0.0192  -0.09879  -0.03229  -0.05496  0.7626
6.474e+09  -0.6024  -2.356  0.06195  -0.01531  0.001316  -0.04301  0.2509  0.7123
6.475e+09  -1.383  -1.981  -0.001821  -0.02329  0.03168  -0.02963  0.3969  0.6278
6.476e+09  -1.942  -1.302  0.003391  0.0475  0.0008918  0.05164  0.6318  0.4483
6.478e+09  -2.303  -0.5665  0.02039  0.02314  0.02724  -0.04133  0.7395  0.1935
6.479e+09  -2.301  0.3101  0.01177  0.01495  0.01969  -0.03428  0.785  -0.08578
6.48e+09  -1.949  1.147  0.005784  0.007821  -0.02409  0.02651  0.7434  -0.314
6.481e+09  -1.447  1.744  0.01626  -0.01965  -0.02029  0.02869  0.5257  -0.5416
6.482e+09  -0.6952  2.103  0.004416  -0.003089  -0.0279  0.03177  0.2748  -0.7079
6.484e+09  0.1392  2.231  0.008519  0.0005522  -0.009175  0.04382  0.07919  -0.7249
6.485e+09  0.9122  1.988  -0.02214  -0.03652  -0.04323  -0.04195  -0.1811  -0.7584
6.486e+09  1.519  1.528  0.03366  -0.00251  0.01472  -0.03603  -0.3987  -0.6106
6.488e+09  1.704  1.597  0.01421  0.03024  -0.6508  0.3649  -0.6337  -0.4484
6.489e+09  2.153  0.1527  -0.02637  0.01131  -0.01438  -0.01888  -0.7464  -0.1893
6.49e+09  2.096  -0.6278  -0.004446  -0.04312  -0.006657  -0.03798  -0.7597  0.06078
6.491e+09  1.636  -1.377  0.03788  0.007032  0.02591  -0.01329  -0.7125  0.3196
6.492e+09  1.151  -1.794  -0.008956  0.04438  0.04984  -0.008279  -0.5378  0.5516
6.494e+09  0.4657  -2.06  0.01806  -0.0171  0.03355  -0.0984  -0.3015  0.6383
6.495e+09  -0.3798  -2.052  0.01187  -0.006201  -0.0711  -0.01415  -0.0241  0.8001
6.496e+09  -1.107  -1.804  -0.02312  -0.00346  0.004288  -0.01834  0.2634  0.7185
6.498e+09  -1.73  -1.273  0.008043  0.006723  0.01533  0.00507  0.4736  0.6163
6.499e+09  -2.003  -0.5862  -0.03233  -0.01003  -0.01733  0.04213  0.6568  0.4262
6.5e+09  -0.1962  0.2742  0.02163  0.008813  -0.007141  0.08395  0.7526  0.1484
6.501e+09  -1.866  0.8952  -0.03047  0.02323  0.005085  -0.003692  0.7895  -0.0615
6.502e+09  -1.484  1.484  -0.01758  0.003727  0.03787  -0.01291  0.6305  -0.3858
6.504e+09  -0.8724  1.968  -0.03666  -0.02694  0.005626  0.04382  0.5235  -0.575
6.505e+09  -0.07928  2.064  -0.02558  -0.02096  -0.004024  -0.0001822  0.295  -0.6762
6.506e+09  0.7054  2.012  0.002354  -0.0006772  -0.02829  0.03682  -0.01385  -0.8011
6.508e+09  1.282  1.66  -0.01782  -0.05475  0.03043  -0.03049  -0.2319  -0.698
6.509e+09  1.833  1.11  -0.04561  0.01  0.01072  0.07148  -0.4633  -0.5655
6.51e+09  2.092  0.4623  0.03976  0.02413  0.04458  0.02055  -0.6426  -0.3841
6.511e+09  2.064  -0.3873  0.05078  -0.02192  -0.02334  0.02967  -0.7408  -0.13
6.512e+09  1.721  -1.143  -0.01188  -0.02352  -0.008262  0.04746  -0.7207  0.1539
6.514e+09  1.272  -1.694  -0.02871  0.002606  0.01486  -0.009662  -0.7103  0.3712
6.515e+09  0.6403  -2.03  0.003966  0.0001002  -0.009121  0.001067  -0.4889  0.5772
6.516e+09  -0.0909  -2.186  -0.0012  -0.01529  -0.01257  -0.01419  -0.2543  0.7036
6.518e+09  -0.9271  -2.021  0.009375  0.03593  -0.002127  -0.0747  0.03145  0.7145
6.519e+09  -1.603  -1.572  0.02818  -0.01875  -0.01324  -0.03845  0.2859  0.6738
6.52e+09  -2.064  -0.8677  0.0006569  -0.01912  0.008568  -0.005335  0.5086  0.5554
6.521e+09  -2.258  -0.1127  0.02465  -0.01104  -0.004795  0.05634  0.6607  0.3678
6.522e+09  -2.118  0.7205  -0.04334  -0.01356  0.004129  0.04338  0.7133  0.1372
6.524e+09  -1.789  1.433  -0.01053  0.0153  0.0545  0.04166  0.6892  -0.1508
6.525e+09  -1.121  2.023  -0.004319  0.007066  0.03551  0.05575  0.6024  -0.3784
6.526e+09  -0.343  2.336  0.008367  0.01011  -0.01132  0.01439  0.427  -0.6244
6.528e+09  0.5177  2.368  -0.01207  -0.008557  -0.01622  -0.05041  0.1695  -0.6844
6.529e+09  1.334  1.95  0.005337  0.02641  0.07117  -0.005046  -0.08387  -0.7139
6.53e+09  1.998  1.341  0.01162  0.0104  -0.005913  -0.04982  -0.2384  -0.6142
6.531e+09  2.343  0.5517  0.02355  0.01569  0.02036  -0.0305  -0.4745  -0.4734
6.532e+09  2.445  -0.3068  -0.01604  0.003734  0.03607  -0.04881  -0.573  -0.3136
6.534e+09  2.16  -1.224  -0.01793  -0.02418  -0.009893  -0.003483  -0.6162  -0.05676
6.535e+09  1.494  -1.889  -0.01145  0.02824  0.007871  0.007487  -0.6287  0.1267
6.536e+09  0.8187  -2.409  0.004917  0.001784  -0.0064  -0.0183  -0.5531  0.3185
6.538e+09  -0.1147  -2.618  0.0005367  0.00885  0.007962  -0.04071  -0.4679  0.4378
6.539e+09  -1.076  -2.383  -0.006965  -0.0105  -0.04123  0.0307  -0.3014  0.6026
6.54e+09  -1.897  -1.808  0.009648  0.03952  -0.00905  0.08624  -0.06542  0.678
6.541e+09  -2.43  -1.02  0.01649  0.0205  -0.03919  -0.01662  0.1724  0.6709
6.542e+09  -2.601  -0.02038  0.05041  0.00171  0.01104  -0.01591  0.3849  0.5542
6.544e+09  -2.525  1.006  0.008205  -0.0005437  0.05621  0.01169  0.5798  0.3962
6.545e+09  -1.959  1.848  -0.004562  -0.02316  0.03604  0.0472  0.6704  0.1649
6.546e+09  -1.17  2.425  0.02742  0.01216  0.001498  0.08792  0.7156  -0.08889
6.548e+09  -0.09339  2.682  0.005405  0.02413  0.02938  -0.03896  0.6446  -0.3256
6.549e+09  0.8479  2.541  -0.008542  -0.007024  -0.03431  0.03043  0.4713  -0.5406
6.55e+09  1.796  2.087  -0.006648  -0.01589  0.003801  -0.01416  0.3172  -0.662
6.551e+09  2.421  1.262  -0.01738  0.006272  -0.00922  -0.01862  -0.00604  -0.6997
6.552e+09  2.696  0.2225  -0.02769  0.0007488  -0.07157  -0.08226  -0.2283  -0.7049
6.554e+09  2.584  -0.7799  0.007896  0.01285  -0.07978  0.01564  -0.4596  -0.5827
