# Hz S RI R 50
6.25e+09  0.01477  0.9121  -0.001429  0.001617  0.00543  0.01811  0.1512  0.4854
6.251e+09  0.3592  0.8603  0.01494  0.01733  0.008603  -0.02127  0.3941  0.4078
6.252e+09  0.5951  0.716  -0.008407  0.01987  0.01638  -0.01013  0.4991  0.2459
6.254e+09  0.7648  0.4884  -0.01628  0.03103  -0.01919  0.007945  0.6093  0.0206
6.255e+09  0.9219  0.1459  0.009738  -0.01939  0.0009763  0.01313  0.5951  -0.2357
6.256e+09  0.8626  -0.2239  -0.003355  -0.007096  0.003351  -0.01512  0.4541  -0.42
6.258e+09  0.7826  -0.4983  0.01335  -0.01748  -0.06098  -0.03162  0.2993  -0.5598
6.259e+09  0.5651  -0.729  -0.02716  0.002802  0.002333  -0.007719  0.04391  -0.6767
6.26e+09  0.2608  -0.8653  0.001139  -0.04853  0.04742  0.0001711  -0.2108  -0.6692
6.261e+09  -0.05307  -0.9094  -0.00877  2.261e-06  -0.09305  -0.01189  -0.4194  -0.549
6.262e+09  -0.3432  -0.8167  0.01044  0.01488  -0.03748  0.0001917  -0.6218  -0.3502
6.264e+09  -0.605  -0.6744  -0.01159  0.0007579  0.02194  -0.00964  -0.7127  -0.1288
6.265e+09  -0.8534  -0.4128  0.007831  0.007231  -0.01566  -0.05285  -0.6882  0.1293
6.266e+09  -0.9678  -0.1027  -0.01201  0.04106  -0.02728  0.03975  -0.6163  0.3726
6.268e+09  -0.892  0.1941  -0.006444  -0.0009943  0.04904  -0.06633  -0.416  0.5782
6.269e+09  -0.7241  0.4829  -0.02045  0.002824  -0.02157  0.0173  -0.2172  0.723
6.27e+09  -0.503  0.7365  0.009708  0.01897  -0.008314  -0.01088  0.06979  0.7248
6.271e+09  -0.2718  0.8924  -0.005188  -0.007772  -0.0306  0.005596  0.319  0.6622
6.272e+09  0.05835  0.85  -0.01956  -0.004982  -0.008983  0.03724  0.5549  0.5297
6.274e+09  0.3865  0.8361  -0.002036  0.01698  -0.04282  0.03164  0.69  0.2841
6.275e+09  0.6406  0.6292  -0.01646  0.007178  0.03704  0.03481  0.7667  0.02246
6.276e+09  0.7747  0.397  0.01251  0.001594  0.01319  -0.03962  0.7839  -0.2076
6.278e+09  0.9241  0.01707  -0.02577  -0.0001854  0.04266  0.01649  0.5922  -0.4778
6.279e+09  0.9543  -0.1828  -0.03122  -0.01417  0.01641  0.01667  0.4046  -0.665
6.28e+09  0.783  -0.5329  0.005089  0.009747  -0.06862  -0.02956  0.1841  -0.7495
6.281e+09  0.5403  -0.7041  -0.01367  0.01358  0.02553  0.01203  -0.1403  -0.7772
6.282e+09  0.228  -0.9071  -0.01313  -0.004713  -0.007645  0.04497  -0.367  -0.672
6.284e+09  -0.09916  -0.9024  0.002304  0.01721  0.01448  0.05508  -0.5692  -0.5238
6.285e+09  -0.3613  -0.8152  -0.02534  -0.001194  -0.003502  0.007611  -0.7182  -0.2834
6.286e+09  -0.701  -0.6233  0.02904  -0.001126  -0.01201  -0.02498  -0.7817  -0.03667
6.288e+09  -0.8277  -0.383  0.02584  0.02696  -0.01019  0.01616  -0.7468  0.2254
6.289e+09  -0.9386  -0.01546  -0.014  -0.01989  0.007987  0.001045  -0.6342  0.5089
6.29e+09  -0.8452  0.2146  -0.005602  -0.01764  -0.02206  -0.007315  -0.4123  0.6896
6.291e+09  -0.6888  0.6049  0.01859  -0.01119  0.002939  0.01898  -0.1345  0.8216
6.292e+09  -0.4563  0.8352  -0.03302  -0.03493  -0.01875  -0.01761  0.1421  0.7906
6.294e+09  -0.2099  0.8579  0.007923  -0.01506  -0.009411  -0.01388  0.3462  0.7127
6.295e+09  0.1825  0.9037  0.01048  -0.01287  0.02006  -0.01132  0.6463  0.5693
6.296e+09  0.4795  0.7956  -0.01917  -0.03293  0.02101  0.005204  0.774  0.2935
6.298e+09  0.7397  0.641  -0.02072  -0.01877  -0.002106  -0.008298  0.8463  -0.02042
6.299e+09  0.8733  0.2641  0.008066  0.003129  -0.05251  0.02361  0.7837  -0.2251
6.3e+09  0.9149  0.02069  -0.02338  0.003475  0.0106  0.04305  0.6216  -0.4994
6.301e+09  0.8511  -0.3409  0.01151  -0.01688  -0.005656  0.008496  0.433  -0.7421
6.302e+09  0.7459  -0.6356  0.005384  0.01772  -0.01106  -0.01178  0.1485  -0.819
6.304e+09  0.4743  -0.8485  0.004154  0.01171  0.01667  0.04819  -0.1711  -0.7958
6.305e+09  0.1323  -0.9469  -0.00697  0.03043  0.007701  0.02832  -0.4316  -0.7305
6.306e+09  -0.212  -0.9136  0.00182  0.01404  -0.03443  -0.02998  -0.613  -0.547
6.308e+09  -0.5483  -0.756  -0.01502  -0.01867  0.00403  -0.04764  -0.7811  -0.3172
6.309e+09  -0.7356  -0.6068  -0.008766  0.01373  -0.02517  0.02158  -0.8374  0.0146
6.31e+09  -0.9415  -0.26  -0.01433  0.007316  -0.01495  -0.01284  -0.8131  0.3162
6.311e+09  -0.9672  0.05684  -0.03654  -0.0004732  0.0004339  0.0004994  -0.6516  0.5637
6.312e+09  -0.9159  0.4126  0.01145  -0.01432  0.0004053  0.001723  -0.4618  0.7264
6.314e+09  -0.6728  0.6877  -0.02335  0.004616  0.0131  -0.02375  -0.1445  0.8911
6.315e+09  -0.401  0.8814  0.007552  0.009794  0.04111  0.03343  0.1431  0.8136
6.316e+09  -0.06152  0.9597  0.005298  0.02293  -0.009288  0.02536  0.4191  0.7938
6.318e+09  0.2468  0.9403  -0.0242  0.001274  -0.02037  -0.02906  0.6707  0.5591
6.319e+09  0.5806  0.8226  -0.003179  0.01161  -0.04478  0.03199  0.8464  0.3384
6.32e+09  0.8228  0.5096  0.0211  -0.004759  0.01631  -0.03633  0.8682  -0.01244
6.321e+09  0.9763  0.2284  0.003656  -0.01794  -0.01167  0.01208  0.81  -0.2964
6.322e+09  0.9662  -0.1514  -0.01048  0.01375  0.03335  -0.001281  0.7013  -0.5528
6.324e+09  0.9169  -0.4887  -0.01068  0.02701  -0.004163  -0.001076  0.485  -0.712
6.325e+09  0.6434  -0.7618  -0.01011  -0.03784  -0.04804  0.0167  0.1768  -0.8871
6.326e+09  0.3626  -0.9666  0.007547  -0.02622  0.0478  0.004929  -0.1285  -0.8695
6.328e+09  0.04088  -1.048  -0.02558  0.03251  -0.04582  -0.04274  -0.4339  -0.7831
6.329e+09  -0.3563  -1.009  -0.01033  0.009564  -0.002876  0.002846  -0.6701  -0.5963
6.33e+09  -0.719  -0.8009  0.01079  -0.02221  -0.0285  -0.01149  -0.8509  -0.3194
6.331e+09  -0.8793  -0.5199  -0.03633  -0.008437  0.02271  -0.01413  -0.9164  -0.07056
6.332e+09  -1.029  -0.1916  0.01357  0.007029  -0.03095  0.03292  -0.8776  0.2867
6.334e+09  -1.068  0.2031  0.01496  -0.02277  -0.003599  0.03817  -0.7124  0.5584
6.335e+09  -0.9223  0.5198  0.01329  -0.01234  0.007561  -0.008914  -0.5016  0.7671
6.336e+09  -0.6621  0.8603  -0.0104  -0.006352  -0.01547  0.00524  -0.1986  0.9038
6.338e+09  -0.3241  1.059  0.005392  0.01998  0.01534  -0.00361  0.1208  0.933
6.339e+09  0.1272  1.1  0.004816  -0.05334  -0.01641  -0.06002  0.4193  0.7988
6.34e+09  0.4182  0.9704  -0.002605  -0.01684  -0.006812  0.03814  0.7048  0.6293
6.341e+09  0.8228  0.8215  0.02348  0.01739  0.000167  0.02154  0.8853  0.3765
6.342e+09  0.9996  0.4529  -0.02424  -0.009904  -0.01915  -0.01654  0.9324  0.04194
6.344e+09  1.11  0.08411  0.02969  0.003765  -0.0005085  0.009706  0.8701  -0.2504
6.345e+09  1.045  -0.2773  -0.02547  -0.03849  0.05091  -0.05316  0.7638  -0.568
6.346e+09  0.8586  -0.6662  0.005761  -0.002093  -0.03212  0.003411  0.4699  -0.7799
6.348e+09  0.6214  -0.9355  0.02442  0.02335  -0.01898  0.01943  0.1963  -0.9164
6.349e+09  0.2306  -1.104  0.03256  -0.01208  -0.02391  -0.002228  -0.09485  -0.9421
6.35e+09  -0.1598  -1.106  0.002285  0.01731  0.006094  0.009849  -0.4259  -0.7984
6.351e+09  -0.5998  -0.9888  0.02428  -0.01135  0.02022  0.03774  -0.6502  -0.6245
6.352e+09  -0.8681  -0.7348  0.003118  -0.006088  0.004587  0.0129  -0.8325  -0.4051
6.354e+09  -1.101  -0.3161  -0.02928  -0.003138  0.03809  0.00203  -0.9335  -0.06866
6.355e+09  -1.177  0.007115  -0.05869  0.008173  -0.04233  0.0391  -0.8948  0.24
6.356e+09  -1.037  0.4502  0.04081  0.00339  -0.08128  0.03689  -0.7373  0.5102
6.358e+09  -0.8226  0.7962  -0.02238  0.01579  0.01041  0.009103  -0.5293  0.7793
6.359e+09  -0.4847  1.066  0.004267  -0.02851  0.01121  -0.00761  -0.2219  0.9307
6.36e+09  -0.0729  1.152  0.02489  0.0139  -0.04081  0.03571  0.0842  0.9578
6.361e+09  0.3329  1.126  -0.03503  0.02007  0.02446  -0.01089  0.4023  0.8791
6.362e+09  0.7182  0.8667  -0.0272  0.005548  0.02816  -0.02067  0.6822  0.6575
6.364e+09  0.9699  0.5972  0.03343  0.03774  0.03553  0.02907  0.8389  0.3955
6.365e+09  1.144  0.2028  -0.005432  -0.01236  -0.01317  -0.01433  0.9111  0.1093
6.366e+09  1.13  -0.197  0.008102  0.007605  -0.008066  -0.004405  0.929  -0.2531
6.368e+09  1.018  -0.5299  -0.00448  0.00859  0.02562  0.02769  0.7755  -0.5347
6.369e+09  0.7546  -0.8076  -0.03717  0.00481  0.009432  0.01349  0.5182  -0.776
6.37e+09  0.3823  -1.05  0.00221  0.02062  -0.00709  -0.009787  0.2774  -0.9183
6.371e+09  -0.036  -1.157  0.00996  0.01854  -0.01087  -0.01285  -0.02474  -0.986
6.372e+09  -0.446  -1.049  0.02945  0.04026  0.03074  0.0173  -0.3638  -0.8844
6.374e+09  -0.7798  -0.838  0.01284  0.01833  0.008887  -0.04705  -0.6742  -0.6864
6.375e+09  -0.9983  -0.5579  -0.003954  0.02117  0.0269  -0.02635  -0.8682  -0.362
6.376e+09  -1.169  -0.08572  -0.01032  0.0377  -0.02296  -0.02746  -0.957  -0.1381
6.378e+09  -1.096  0.2494  0.007175  0.02244  -0.007382  -0.006345  -0.866  0.1776
6.379e+09  -0.9294  0.6829  -0.03408  -0.01412  0.004663  0.01433  -0.7543  0.5224
6.38e+09  -0.679  0.9256  -0.01039  -0.004036  -0.004054  -0.01418  -0.5575  0.7401
6.381e+09  -0.2847  1.166  -0.001906  -0.02375  -0.02258  0.02614  -0.2467  0.8573
6.382e+09  0.09544  1.133  0.01265  0.03671  0.003348  0.0196  0.07388  0.9288
6.384e+09  0.5095  1.05  0.004996  0.03462  0.00347  -0.006048  0.3621  0.8446
6.385e+09  0.8466  0.7748  0.01584  -0.01071  -0.01892  -0.01059  0.6724  0.7257
6.386e+09  1.072  0.4326  0.04371  -0.02093  0.01242  -0.03291  0.8232  0.4462
6.388e+09  1.12  -0.003563  -0.02572  0.02236  0.01393  -0.009853  0.9502  0.1143
6.389e+09  1.032  -0.3373  -0.01454  0.009806  0.003271  -0.02367  0.8712  -0.1743
6.39e+09  0.9141  -0.7048  0.04024  0.0723  -0.009704  0.03484  0.7659  -0.4494
6.391e+09  0.5683  -0.9366  -0.01393  0.006642  0.02438  0.03002  0.606  -0.7308
6.392e+09  0.258  -1.112  0.03101  0.02383  0.004498  -0.03103  0.2482  -0.912
6.394e+09  -0.1847  -1.108  0.01574  -0.004059  0.02365  -0.009642  -0.0535  -0.9313
6.395e+09  -0.5179  -0.984  0.02408  0.02579  0.008608  -0.007218  -0.351  -0.8408
6.396e+09  -0.8491  -0.7078  -0.001514  0.0278  -0.0004224  -0.008515  -0.592  -0.6786
6.398e+09  -1.031  -0.3683  -0.01646  -0.03439  0.01205  0.006265  -0.7978  -0.485
6.399e+09  -1.134  0.01178  -0.003384  0.01228  0.05947  -0.06254  -0.9066  -0.1241
6.4e+09  -1.033  0.352  -0.007221  0.0001393  -0.04933  0.0119  -0.8787  0.1779
6.401e+09  -0.8154  0.6637  -0.02267  0.03978  0.05878  -0.04974  -0.7833  0.4456
6.402e+09  -0.4657  0.9507  0.01346  0.04506  -0.02509  0.01571  -0.5532  0.7448
6.404e+09  -0.2038  1.05  0.02475  0.02045  0.06306  0.01194  -0.349  0.8358
6.405e+09  0.2259  1.085  -0.01517  -0.03927  -0.04762  -0.01075  0.04228  0.8926
6.406e+09  0.5962  0.9143  0.01966  -0.03996  -0.02828  0.03119  0.3344  0.8476
6.408e+09  0.8541  0.6359  -0.01872  -0.01371  -0.01006  0.004582  0.6174  0.7035
6.409e+09  1.039  0.3502  0.01495  0.003443  -0.02479  -0.009878  0.7834  0.4585
6.41e+09  1.084  -0.02518  -0.02158  0.01886  0.02928  -0.004892  0.8651  0.1605
6.411e+09  0.9319  -0.4593  -0.009905  0.0344  0.009698  -0.03643  0.8774  -0.1679
6.412e+09  0.8182  -0.7376  0.06425  0.008166  0.01705  -0.02203  0.8152  -0.4478
6.414e+09  0.5463  -1.054  0.0007325  0.005058  0.05493  -0.01176  0.5756  -0.6947
6.415e+09  0.09842  -1.102  -0.01438  -0.01062  -0.04829  0.01402  0.3391  -0.8001
6.416e+09  -0.317  -1.085  0.006169  -0.01759  0.05086  0.03173  0.008445  -0.8757
6.418e+09  -0.608  -0.9458  0.0372  0.01306  -0.007956  -0.01117  -0.2552  -0.8477
6.419e+09  -0.9039  -0.6751  -0.0131  -0.007404  -0.03932  0.006691  -0.5706  -0.6964
6.42e+09  -1.045  -0.3027  -0.006327  -0.02058  0.001614  0.03383  -0.74  -0.4889
6.421e+09  -1.127  0.1324  -0.01711  -0.02426  0.001812  0.004131  -0.8762  -0.2222
6.422e+09  -1.045  0.4102  0.02371  0.03523  -0.04139  0.01229  -0.8637  0.1323
6.424e+09  -0.7665  0.8008  -0.0007568  0.02805  -0.01166  -0.008291  -0.7722  0.4076
6.425e+09  -0.5317  1.001  0.005574  0.0008175  -0.008531  0.02765  -0.6031  0.5965
6.426e+09  -0.1393  1.121  0.02378  0.001218  0.01549  0.01697  -0.3109  0.7817
6.428e+09  0.3178  1.092  0.005179  -0.02813  -0.02337  -0.04106  -0.02365  0.849
6.429e+09  0.663  0.9211  0.06021  0.03171  0.05195  0.005008  0.2082  0.8153
6.43e+09  0.9047  0.5943  0.04983  0.05235  -0.01407  0.01377  0.5167  0.733
6.431e+09  1.085  0.3166  0.03187  -0.01706  0.01821  -0.06295  0.7009  0.4985
6.432e+09  1.083  -0.1544  -0.0143  -0.03628  -0.03305  -0.009978  0.8676  0.1943
6.434e+09  0.9915  -0.517  -0.003404  0.02315  -0.0137  0.04282  0.7877  -0.08961
6.435e+09  0.7544  -0.8649  -0.02366  -0.002889  -0.05146  -0.005036  0.7536  -0.3934
6.436e+09  0.4363  -1.042  0.01741  0.007669  0.0003002  -0.02702  0.5977  -0.6586
6.438e+09  0.03397  -1.143  0.03572  0.003954  -0.01938  0.02855  0.3834  -0.7417
6.439e+09  -0.3682  -1.083  -0.01019  0.02719  -0.05981  -0.004752  0.05855  -0.8685
6.44e+09  -0.7113  -0.9073  0.01338  -0.006501  0.04603  -0.02614  -0.2094  -0.8601
6.441e+09  -0.9591  -0.5419  0.06155  0.06012  -0.05732  -0.0193  -0.5471  -0.6707
6.442e+09  -1.095  -0.1797  -0.01983  -0.003601  0.02995  0.009432  -0.6978  -0.4734
6.444e+09  -1.12  0.167  0.01356  0.008467  -0.008028  -0.01968  -0.7988  -0.2358
6.445e+09  -0.9555  0.5913  -0.01793  -0.03343  0.02514  -0.03175  -0.8581  0.08917
6.446e+09  -0.7135  0.9189  0.03657  -0.02314  -0.05791  0.03239  -0.7715  0.3744
6.448e+09  -0.417  1.103  -0.006022  -0.007154  0.04395  -0.002531  -0.5865  0.5703
6.449e+09  0.03876  1.134  -0.03649  0.003524  0.0188  -0.01953  -0.3668  0.7647
6.45e+09  0.4471  1.107  0.01087  0.04794  -0.0195  0.003246  -0.01506  0.8014
6.451e+09  0.8157  0.84  0.0109  0.006744  0.03225  -0.02475  0.2366  0.8435
6.452e+09  1.047  0.508  -0.05767  -0.007477  0.02721  0.01493  0.476  0.7082
6.454e+09  1.125  0.1382  0.04502  -0.01402  0.03129  0.001219  0.657  0.4621
6.455e+09  1.205  -0.3293  -0.002873  0.01759  -0.01251  0.02051  0.787  0.1951
6.456e+09  0.9651  -0.7264  0.01631  -0.01443  0.0262  0.03123  0.7958  -0.07269
6.458e+09  0.721  -0.989  0.03184  -0.002087  -0.05397  -0.02793  0.698  -0.3576
6.459e+09  0.299  -1.216  -0.007121  0.02572  -0.03232  0.01796  0.5861  -0.5996
6.46e+09  -0.159  -1.195  0.005777  0.01221  0.04766  0.04782  0.3487  -0.7462
6.461e+09  -0.5718  -1.108  -0.03652  -0.01117  -0.009249  0.008895  0.08712  -0.842
6.462e+09  -0.9364  -0.7959  0.009009  -0.03268  -0.04186  -0.02504  -0.2321  -0.7704
6.464e+09  -1.213  -0.4689  -0.007582  -0.02619  -0.03418  -0.02852  -0.5019  -0.6882
6.465e+09  -1.236  -0.03577  -0.01434  -0.01827  0.011  -0.008285  -0.6156  -0.4775
6.466e+09  -1.211  0.3869  -0.01372  -0.002508  0.009356  0.03867  -0.8119  -0.2023
6.468e+09  -0.9228  0.8534  0.03981  -0.04105  -0.02961  0.01918  -0.7974  0.08765
6.469e+09  -0.6206  1.117  -0.001785  0.02745  -0.02287  -0.006261  -0.7178  0.3698
6.47e+09  -0.165  1.292  -0.02126  0.01948  0.01467  0.03583  -0.5791  0.5435
6.471e+09  0.3109  1.242  -0.0061  0.005825  -0.01672  0.0006516  -0.3458  0.6912
6.472e+09  0.7376  1.038  -0.006887  -0.009888  0.04069  -0.02507  -0.08033  0.8072
6.474e+09  1.101  0.7991  -0.02244  0.04039  0.02296  -0.07305  0.1919  0.7688
6.475e+09  1.282  0.37  0.0225  -0.004058  0.06177  -0.0006412  0.4269  0.6156
6.476e+09  1.325  -0.1644  -0.02207  0.01503  -0.0355  -0.02745  0.6563  0.4257
6.478e+09  1.239  -0.6108  0.03499  0.03042  -0.03897  0.02284  0.7797  0.1683
6.479e+09  0.8971  -1.01  0.01256  0.02055  0.0179  -0.0113  0.8224  -0.08162
6.48e+09  0.503  -1.262  0.01565  -0.03954  -0.01067  -0.04916  0.725  -0.3298
6.481e+09  -0.01847  -1.341  0.007652  0.03518  -0.008465  -0.006474  0.5425  -0.5147
6.482e+09  -0.5248  -1.244  0.01418  -0.006274  0.003575  -0.03014  0.3187  -0.6841
6.484e+09  -0.8714  -1.022  0.03079  0.0005645  -0.0004562  -0.04393  0.02313  -0.7858
6.485e+09  -1.183  -0.6111  -0.01449  -0.04668  0.04091  0.01855  -0.1993  -0.7234
6.486e+09  -1.355  -0.1721  0.01817  0.01387  -0.03722  -0.004196  -0.4988  -0.6362
6.488e+09  -1.235  1.122  0.02118  0.007624  0.722  0.2435  -0.6399  -0.4178
6.489e+09  -1.032  0.8729  -0.0161  -0.03349  -0.02251  -0.05159  -0.7931  -0.218
6.49e+09  -0.7186  1.185  0.02476  0.002985  -0.04855  -0.03332  -0.7247  0.09875
6.491e+09  -0.2287  1.347  0.0139  0.009227  -0.02777  -0.02846  -0.6631  0.3118
6.492e+09  0.2464  1.389  0.004605  0.0313  -0.01835  -0.0004941  -0.5161  0.5262
6.494e+09  0.8291  1.258  0.01745  -0.005861  -0.1081  -0.03015  -0.3065  0.6916
6.495e+09  1.103  0.7646  0.003691  -0.0268  0.007434  -0.007551  0.001085  0.7299
6.496e+09  1.327  0.3577  -0.01832  -0.0165  0.04117  -0.01955  0.2304  0.7488
6.498e+09  1.384  -0.1104  -0.02022  -0.006292  -0.04585  -0.0002148  0.4596  0.602
6.499e+09  1.171  -0.6001  0.01805  -0.009186  0.006284  -0.01314  0.6517  0.4047
6.5e+09  1.574  -0.3727  0.02435  0.02316  -0.001116  -0.05279  0.7992  0.1554
6.501e+09  0.4024  -1.303  0.02891  0.003624  0.002001  -0.02298  0.7491  -0.1344
6.502e+09  -0.05809  -1.312  0.01945  -0.01044  0.0006925  -0.006566  0.6576  -0.3331
6.504e+09  -0.547  -1.286  -0.01865  0.007841  0.01731  0.03718  0.4832  -0.6071
6.505e+09  -0.9718  -0.9426  -0.004512  -0.02156  0.0005625  -0.0156  0.2689  -0.7294
6.506e+09  -1.215  -0.5605  -0.0394  -0.01899  -0.01171  -0.06619  0.01428  -0.768
6.508e+09  -1.346  -0.07291  -0.004539  0.03147  -0.008892  0.01405  -0.212  -0.7145
6.509e+09  -1.257  0.3786  -0.008967  0.002025  -0.0249  -0.03048  -0.4626  -0.5659
6.51e+09  -1.052  0.8816  -0.003997  -0.03214  0.02293  0.03224  -0.6392  -0.3735
6.511e+09  -0.6321  1.099  0.006207  -0.02356  0.02081  0.01102  -0.7697  -0.1586
6.512e+09  -0.2444  1.285  -0.008082  -0.01503  0.02421  0.0001611  -0.722  0.1269
6.514e+09  0.2867  1.267  -0.02838  0.01554  -0.008788  0.0331  -0.6364  0.3951
6.515e+09  0.6546  1.072  0.01208  -0.02543  0.009358  -0.005922  -0.4661  0.6153
6.516e+09  1.047  0.7068  -0.01115  -0.03459  0.005365  -0.06106  -0.26  0.6955
6.518e+09  1.209  0.3386  0.004388  0.0008356  -0.04709  0.01861  0.001112  0.7644
6.519e+09  1.239  -0.1515  -0.006977  0.01937  0.0003829  0.006359  0.2868  0.6481
6.52e+09  1.082  -0.6039  0.01651  0.02352  -0.01281  0.01804  0.5015  0.602
6.521e+09  0.8191  -0.9374  0.01878  -0.006748  0.03267  0.03947  0.6305  0.319
6.522e+09  0.401  -1.16  0.01572  -0.02273  -0.03108  0.03767  0.7407  0.09845
6.524e+09  -0.03117  -1.234  -0.0112  0.02694  0.008243  0.01113  0.7324  -0.1442
6.525e+09  -0.5283  -1.106  0.007976  -0.04422  0.02133  -0.01559  0.6195  -0.4191
6.526e+09  -0.8424  -0.8  0.01994  -0.01276  0.03849  0.02618  0.3912  -0.5973
6.528e+09  -1.091  -0.5369  0.02439  0.003272  0.02714  0.001889  0.1707  -0.7079
6.529e+09  -1.155  -0.08662  -0.02489  -0.02311  0.009594  0.03592  -0.02366  -0.687
6.53e+09  -1.134  0.3203  -0.01173  0.01855  0.03009  -0.03309  -0.2804  -0.6768
6.531e+09  -0.9383  0.7313  0.01015  -0.01876  0.003168  -0.007476  -0.4887  -0.4889
6.532e+09  -0.6388  0.9849  0.01436  -0.01537  -0.01386  -0.02404  -0.5966  -0.2642
6.534e+09  -0.2598  1.114  0.001476  0.002967  -0.01317  -0.01161  -0.607  -0.06538
6.535e+09  0.197  1.044  -0.00582  0.02314  0.000624  -0.01604  -0.6459  0.11
6.536e+09  0.5887  0.9761  0.006462  -0.02558  -0.008696  0.0009197  -0.5902  0.3423
6.538e+09  0.879  0.6797  0.01125  0.02961  -0.02893  -0.03191  -0.443  0.4549
6.539e+09  1.032  0.2755  -0.0348  0.005608  -0.04316  -0.05185  -0.2667  0.602
6.54e+09  1.11  -0.09232  0.00092  0.01413  -0.02604  0.01792  -0.0554  0.7055
6.541e+09  0.9568  -0.4585  -0.02891  -0.03698  -0.005104  -0.02406  0.1818  0.7028
6.542e+09  0.7559  -0.7706  -0.01235  -0.001508  -0.007223  0.04852  0.4117  0.5742
6.544e+09  0.4017  -0.9527  0.008118  0.001489  -0.04582  -0.01764  0.5943  0.4191
6.545e+09  0.0118  -1.087  -0.02097  -0.02864  0.01557  -0.004673  0.6808  0.1607
6.546e+09  -0.3285  -0.9742  -0.003803  -0.02319  -0.0126  0.04083  0.7149  -0.05591
6.548e+09  -0.6352  -0.8142  0.00795  0.01732  0.05858  -0.02696  0.6429  -0.3248
6.549e+09  -0.9014  -0.5133  -0.02297  -0.01318  -0.01813  -0.0001857  0.5054  -0.5294
6.55e+09  -1.032  -0.1813  -0.009977  -0.02789  0.02465  0.002769  0.3111  -0.6867
6.551e+09  -0.9871  0.2341  0.01434  -0.01113  -0.005862  0.01105  0.05492  -0.7158
6.552e+09  -0.8801  0.5013  -0.01552  -0.03615  -0.04124  0.05617  -0.2525  -0.7136
