# Hz S RI R 50
6.25e+09  -0.6795  0.4426  0.004719  0.0008219  -0.003635  -0.01982  0.1555  0.4843
6.251e+09  -0.4777  0.6543  0.02163  -0.02182  -0.03779  0.02215  0.3424  0.4253
6.252e+09  -0.2616  0.8003  0.02495  -0.0217  -0.03465  0.0008454  0.521  0.2591
6.254e+09  0.09876  0.7544  -0.01286  0.01719  0.03703  0.0134  0.6126  0.04072
6.255e+09  0.2804  0.7353  0.02291  0.0008249  0.05  -0.02229  0.5964  -0.2152
6.256e+09  0.6022  0.5633  -0.007001  -0.01  -0.03045  -0.03995  0.4803  -0.4377
6.258e+09  0.7511  0.3793  -0.00106  0.03508  0.02493  0.03066  0.2577  -0.5992
6.259e+09  0.8264  0.07233  0.007718  -0.01989  -0.04114  0.01681  0.03846  -0.67
6.26e+09  0.7769  -0.2428  0.0167  0.02303  0.02101  0.008782  -0.2548  -0.6509
6.261e+09  0.6522  -0.4768  -0.0008691  0.01704  -0.02057  0.01204  -0.4506  -0.5173
6.262e+09  0.4216  -0.6492  -0.00709  0.01121  -0.0447  0.04478  -0.5995  -0.3748
6.264e+09  0.1913  -0.7568  0.01051  0.01076  0.01858  -0.01454  -0.6889  -0.1019
6.265e+09  -0.03518  -0.7899  0.01503  0.004869  0.003719  -0.03873  -0.696  0.1517
6.266e+09  -0.3629  -0.6999  -0.01072  -0.004826  0.03915  -0.01913  -0.6065  0.375
6.268e+09  -0.5683  -0.6211  -0.007172  0.01695  0.02142  0.0001585  -0.4399  0.5624
6.269e+09  -0.7038  -0.355  -0.01164  -0.01382  0.0215  -0.0842  -0.1756  0.7
6.27e+09  -0.7441  -0.08962  -0.03053  -0.005966  0.0491  -0.004845  0.0459  0.7385
6.271e+09  -0.7866  0.222  0.01308  -0.03478  0.04915  -0.01087  0.2965  0.6916
6.272e+09  -0.5947  0.4626  0.04144  0.00236  0.06659  -0.01383  0.5286  0.4927
6.274e+09  -0.4734  0.6602  0.000335  0.006255  -0.03945  0.008963  0.7369  0.3216
6.275e+09  -0.2133  0.7432  -0.001615  0.0007852  -0.03072  0.03774  0.7377  0.04346
6.276e+09  0.1198  0.7909  -0.01484  -0.01824  0.03998  0.03202  0.7242  -0.2298
6.278e+09  0.3064  0.7319  0.008463  -0.01357  0.005709  -0.02889  0.6216  -0.4615
6.279e+09  0.619  0.533  -0.02867  0.009153  -0.002104  -0.05561  0.4184  -0.6102
6.28e+09  0.7421  0.3081  0.01581  -0.001148  0.002188  0.004281  0.1529  -0.7329
6.281e+09  0.7951  0.0273  0.004706  0.001603  -0.006656  -0.000613  -0.1122  -0.7754
6.282e+09  0.746  -0.1982  -0.01316  -0.005792  -0.01504  0.01584  -0.3683  -0.6936
6.284e+09  0.6538  -0.4857  -0.01521  0.01859  0.008226  0.01583  -0.5743  -0.52
6.285e+09  0.4336  -0.6565  -0.004347  -0.01816  -0.04006  -0.01627  -0.7685  -0.3009
6.286e+09  0.1457  -0.802  -0.005474  0.01414  -0.02378  0.008829  -0.8  0.003066
6.288e+09  -0.07005  -0.7688  -0.001278  -0.01732  0.03346  0.01796  -0.722  0.2328
6.289e+09  -0.3321  -0.7167  -0.02218  -0.02279  0.02524  0.0009537  -0.5984  0.4944
6.29e+09  -0.6035  -0.5312  -0.01232  -0.002583  -0.01444  0.045  -0.4068  0.6691
6.291e+09  -0.6728  -0.3189  -0.0008883  -0.001852  0.04766  -0.001305  -0.1336  0.79
6.292e+09  -0.8001  -0.03155  -0.02704  -0.01582  0.01999  -0.04696  0.1237  0.7834
6.294e+09  -0.7921  0.2115  -0.008793  -0.01079  -0.02013  -0.01609  0.3873  0.7252
6.295e+09  -0.6227  0.5229  -0.01039  -0.02684  0.02937  -0.02153  0.6075  0.5488
6.296e+09  -0.4501  0.6615  0.003067  0.01126  -0.01993  -0.01312  0.7655  0.2519
6.298e+09  -0.1652  0.7546  0.009874  -0.008537  0.0236  -0.009612  0.8077  0.01117
6.299e+09  0.1423  0.7985  -0.01599  0.02144  -0.03397  -0.03906  0.7941  -0.2896
6.3e+09  0.3999  0.7164  0.0227  0.007998  0.01434  0.009331  0.6522  -0.517
6.301e+09  0.5921  0.5548  -0.0598  -0.01324  0.04273  0.005541  0.4311  -0.6983
6.302e+09  0.7657  0.3034  -0.01394  0.01545  -0.03819  -0.009513  0.1647  -0.8418
6.304e+09  0.8071  0.00756  0.007144  -0.007997  -0.06785  -0.009451  -0.1345  -0.8535
6.305e+09  0.784  -0.2189  0.01297  -0.01273  0.0007185  0.04389  -0.4133  -0.7553
6.306e+09  0.628  -0.5377  0.01313  -0.0005567  -0.03926  0.005497  -0.6225  -0.5576
6.308e+09  0.445  -0.6912  0.02878  -0.008762  -0.02101  -0.01303  -0.8181  -0.2874
6.309e+09  0.148  -0.7889  0.01618  0.005173  -0.009972  -0.00266  -0.8415  0.01115
6.31e+09  -0.1934  -0.8407  -0.02082  0.0321  -0.02801  0.009629  -0.7838  0.2897
6.311e+09  -0.4064  -0.6749  -0.02202  -0.02463  -0.00838  -0.01446  -0.6946  0.5517
6.312e+09  -0.6253  -0.4937  -0.007045  -0.03611  -0.0142  -0.01882  -0.3937  0.7445
6.314e+09  -0.7792  -0.2629  0.01032  -0.003778  -0.02587  0.003618  -0.1523  0.8516
6.315e+09  -0.8077  0.02589  0.001838  0.005813  0.01575  0.03973  0.1361  0.8854
6.316e+09  -0.7489  0.3126  -0.008803  0.009341  0.07501  0.01827  0.4192  0.7814
6.318e+09  -0.5872  0.5569  0.00358  -0.0008448  -0.01333  0.003869  0.6845  0.5751
6.319e+09  -0.3221  0.7334  0.0168  0.01713  -0.01746  -0.013  0.8332  0.3132
6.32e+09  -0.09689  0.809  0.05167  -0.02225  0.002449  0.05433  0.8272  0.01976
6.321e+09  0.1817  0.7848  0.02666  -0.02541  0.004418  0.05407  0.8508  -0.3268
6.322e+09  0.4466  0.625  0.01753  -0.01316  -0.04241  0.04075  0.6759  -0.5436
6.324e+09  0.6371  0.516  -0.009018  -0.007575  0.01259  0.02175  0.4574  -0.7688
6.325e+09  0.7714  0.2347  -0.01942  -0.009907  0.01679  -0.01878  0.1994  -0.9146
6.326e+09  0.8478  -0.08579  0.00518  -0.01929  0.01929  -0.005999  -0.1313  -0.8799
6.328e+09  0.7294  -0.3647  0.01787  -0.0255  0.002335  -0.007606  -0.4162  -0.7915
6.329e+09  0.5426  -0.5711  -0.004986  0.01356  -0.02528  -0.01173  -0.6832  -0.5813
6.33e+09  0.3207  -0.7502  0.03603  0.02224  -0.01387  0.04068  -0.8209  -0.3252
6.331e+09  0.05756  -0.8423  -0.03406  -0.009146  0.03888  0.01586  -0.8962  -0.01473
6.332e+09  -0.2725  -0.7913  -0.01844  -0.009823  -0.02206  -0.01325  -0.8474  0.2501
6.334e+09  -0.474  -0.6672  0.01464  -0.01286  -0.04405  -0.01839  -0.7425  0.5637
6.335e+09  -0.7326  -0.4161  0.005691  0.01703  0.04324  -0.02337  -0.4774  0.747
6.336e+09  -0.8278  -0.2057  0.01221  -0.002597  -0.01737  0.02442  -0.2076  0.8805
6.338e+09  -0.7992  0.09997  -0.007386  0.007621  -0.06311  0.02671  0.115  0.9064
6.339e+09  -0.7464  0.3745  0.0054  0.02391  -0.00402  -0.006185  0.4294  0.815
6.34e+09  -0.5577  0.649  -0.02708  -0.002134  0.001922  0.006457  0.6649  0.6147
6.341e+09  -0.2917  0.7803  -0.01027  0.03004  0.04035  0.01205  0.855  0.3709
6.342e+09  -0.01858  0.8337  0.006218  -0.01415  -0.002374  0.01803  0.9147  0.09016
6.344e+09  0.305  0.8089  -0.004594  -0.02754  0.0007446  0.008936  0.8942  -0.2836
6.345e+09  0.5403  0.6172  0.003616  -0.02324  -0.007697  -0.0131  0.7767  -0.5627
6.346e+09  0.7597  0.3608  -0.01531  -0.01174  0.004518  0.03011  0.5423  -0.8082
6.348e+09  0.8657  0.1245  -0.03853  0.01727  0.04285  0.02434  0.2042  -0.9222
6.349e+09  0.8171  -0.1705  -0.03118  -0.01625  -0.0276  0.03132  -0.0998  -0.9283
6.35e+09  0.7221  -0.4692  0.005005  0.0004012  -0.03487  0.009772  -0.4079  -0.8315
6.351e+09  0.4953  -0.6552  0.01376  0.01242  -0.01042  0.04562  -0.6657  -0.6352
6.352e+09  0.2543  -0.8399  -0.008104  -0.01749  -0.004126  0.006762  -0.8574  -0.3825
6.354e+09  -0.07689  -0.8266  -0.01424  0.01815  -0.01745  -0.04317  -0.9401  -0.1034
6.355e+09  -0.3269  -0.7605  -0.01061  0.01023  0.01904  0.03525  -0.9338  0.2575
6.356e+09  -0.6013  -0.6167  0.003437  -0.01947  -0.01559  0.004447  -0.7653  0.5631
6.358e+09  -0.7594  -0.3485  -0.008904  -0.03454  -0.05669  0.01508  -0.5621  0.7676
6.359e+09  -0.8404  -0.08919  -0.02098  -0.02501  -0.002311  0.004791  -0.2183  0.9292
6.36e+09  -0.8036  0.235  0.01309  0.03164  -0.03524  -0.00711  0.1182  0.9287
6.361e+09  -0.6507  0.4759  -0.00421  -0.005923  -0.0338  0.02206  0.3896  0.8193
6.362e+09  -0.4532  0.7022  0.004866  0.0221  -0.01239  1.518e-05  0.6985  0.6713
6.364e+09  -0.2292  0.8423  0.002913  0.001448  0.0001436  0.0107  0.8625  0.3858
6.365e+09  0.1575  0.8762  -0.01483  -0.0071  0.008527  -0.04962  1.006  0.05953
6.366e+09  0.3948  0.768  0.02059  -0.01686  -0.007277  -0.01965  0.9315  -0.2341
6.368e+09  0.6313  0.6073  0.02742  -0.03186  -0.003928  -0.0253  0.7982  -0.529
6.369e+09  0.8165  0.277  -0.008233  -0.02372  0.01822  -0.01765  0.5534  -0.7693
6.37e+09  0.8792  0.008526  0.01978  -0.07283  -0.0566  0.02239  0.2587  -0.9324
6.371e+09  0.7923  -0.314  -0.0154  -0.00297  -0.01591  -0.009924  -0.06387  -0.9143
6.372e+09  0.6606  -0.5657  0.01604  0.01242  -0.04924  0.02807  -0.3917  -0.881
6.374e+09  0.3873  -0.7474  -0.003272  -0.008739  0.004135  -0.009266  -0.6482  -0.6771
6.375e+09  0.1393  -0.8322  -0.004326  0.004993  0.03535  0.01857  -0.8386  -0.3987
6.376e+09  -0.1931  -0.8359  -0.007811  -0.02725  -0.02743  0.01736  -0.9106  -0.08477
6.378e+09  -0.4395  -0.7057  -0.04589  0.01478  -0.03038  0.004095  -0.8894  0.2324
6.379e+09  -0.6858  -0.5211  -0.009838  0.007218  -0.02354  0.03665  -0.795  0.516
6.38e+09  -0.8159  -0.199  -0.005861  -0.03808  0.007063  -0.0717  -0.603  0.7549
6.381e+09  -0.8551  0.04473  0.02817  -0.006453  -0.03206  -0.01053  -0.3009  0.8874
6.382e+09  -0.774  0.3337  -0.04406  -0.004781  0.0277  -0.00366  0.01346  0.9325
6.384e+09  -0.6276  0.5512  -0.006114  0.02128  -0.009211  -0.0004681  0.3523  0.847
6.385e+09  -0.3621  0.8077  -0.02709  0.04145  -0.008752  0.01438  0.6393  0.6582
6.386e+09  -0.09507  0.8457  0.02869  -0.01959  -0.02597  0.01468  0.8387  0.4684
6.388e+09  0.2134  0.8498  0.003645  -0.04205  0.005528  -0.03094  0.9231  0.1111
6.389e+09  0.4649  0.7301  -0.0177  0.04282  0.002531  0.02546  0.9007  -0.1933
6.39e+09  0.6991  0.4697  -0.003199  0.02272  0.002981  0.0324  0.8061  -0.5029
6.391e+09  0.8353  0.2119  0.0178  0.003713  -0.01862  0.02482  0.5471  -0.7221
6.392e+09  0.8628  -0.08661  -0.032  0.01726  -0.0008474  -0.008594  0.2898  -0.8428
6.394e+09  0.7523  -0.432  0.06003  -0.02013  -0.003684  -0.02481  -0.04514  -0.9527
6.395e+09  0.5802  -0.5964  0.001835  0.02236  0.02473  -0.02866  -0.3605  -0.8482
6.396e+09  0.3323  -0.8057  0.01224  0.03173  -0.02222  0.02182  -0.6217  -0.7257
6.398e+09  0.02829  -0.8043  0.02972  0.0125  0.00198  -0.0179  -0.7946  -0.4467
6.399e+09  -0.2525  -0.7865  -0.007934  0.03661  -0.0136  0.0125  -0.8766  -0.1237
6.4e+09  -0.5271  -0.6649  -0.03421  0.007142  0.007807  -0.0012  -0.895  0.1271
6.401e+09  -0.7623  -0.4036  0.006111  -0.01152  0.01145  -0.00266  -0.7822  0.4462
6.402e+09  -0.8108  -0.1263  0.006079  0.005898  -0.02606  0.0299  -0.5597  0.7164
6.404e+09  -0.8233  0.1518  0.02411  -0.02989  -0.02224  0.02101  -0.2997  0.8684
6.405e+09  -0.7313  0.3438  -0.008977  -0.01926  0.02241  -0.00389  -0.04291  0.9953
6.406e+09  -0.5419  0.6393  -0.03709  -0.01564  0.0006163  0.03646  0.3422  0.8643
6.408e+09  -0.2785  0.7867  -0.005442  -0.01829  0.02726  -0.02184  0.5625  0.7338
6.409e+09  0.000521  0.8544  -0.0235  -0.005603  -0.03514  -0.04925  0.7925  0.4362
6.41e+09  0.3006  0.7743  -0.0301  0.01692  0.05647  -0.002332  0.8974  0.228
6.411e+09  0.5683  0.6701  -0.02439  -0.04355  0.02967  -0.02325  0.9037  -0.1551
6.412e+09  0.7549  0.3965  0.02325  -0.02118  0.02642  -0.028  0.7358  -0.4225
6.414e+09  0.8264  0.1403  -0.00257  0.003805  0.01056  -0.03093  0.5904  -0.6895
6.415e+09  0.8243  -0.1622  -0.04144  0.0001201  0.005952  0.0005799  0.3548  -0.8011
6.416e+09  0.656  -0.4215  -0.02198  -0.01098  -0.0167  -0.02124  0.02091  -0.8968
6.418e+09  0.5041  -0.6367  0.008453  -0.003579  0.05659  0.03758  -0.2847  -0.8334
6.419e+09  0.2746  -0.7971  -0.008661  0.0242  0.02211  -0.03245  -0.5137  -0.7334
6.42e+09  -0.02356  -0.8391  0.03399  -0.01751  0.03987  -0.02539  -0.7329  -0.5419
6.421e+09  -0.3221  -0.7886  -0.03688  0.004541  0.00584  -0.0013  -0.8822  -0.2055
6.422e+09  -0.6004  -0.694  0.01723  0.01598  0.003255  -0.01392  -0.8698  0.1151
6.424e+09  -0.7632  -0.3765  0.016  -0.03015  0.00209  -0.03528  -0.7514  0.4468
6.425e+09  -0.8306  -0.1259  0.06629  0.009849  -0.01598  0.01277  -0.5892  0.655
6.426e+09  -0.7752  0.1653  0.04888  -0.07891  -0.006062  0.01804  -0.3413  0.7895
6.428e+09  -0.707  0.463  0.03101  0.01349  -0.02445  -0.01949  -0.01708  0.8662
6.429e+09  -0.4674  0.6684  -0.01526  0.0185  0.06129  0.01896  0.2683  0.8443
6.43e+09  -0.2751  0.8093  -0.004259  0.006467  0.01742  -0.03369  0.5161  0.7029
6.431e+09  0.08536  0.7999  0.008437  0.02533  0.02424  0.01403  0.6858  0.439
6.432e+09  0.2817  0.7443  0.01585  0.003935  0.008905  0.02402  0.8304  0.2395
6.434e+09  0.5742  0.6408  -0.0285  0.02148  0.01078  -0.01422  0.8793  -0.1146
6.435e+09  0.7169  0.3674  0.004332  -0.01794  -0.03265  -0.002574  0.8064  -0.3865
6.436e+09  0.8022  0.05975  0.04673  -0.01181  0.002819  0.03587  0.6283  -0.6537
6.438e+09  0.8036  -0.1737  0.00235  -0.02176  -0.01245  0.02491  0.3589  -0.764
6.439e+09  0.6879  -0.4948  -0.01411  -0.01557  -0.04834  -0.006915  0.06669  -0.8449
6.44e+09  0.4728  -0.6785  0.02544  -0.02579  -0.004637  -0.0262  -0.2568  -0.8205
6.441e+09  0.2567  -0.7724  0.005841  0.02251  -0.02173  0.02868  -0.4737  -0.7174
6.442e+09  -0.07159  -0.8597  -0.007156  0.006179  -0.02197  0.004323  -0.6939  -0.5476
6.444e+09  -0.3375  -0.7811  -0.009758  -0.04415  0.01596  0.003558  -0.8193  -0.2247
6.445e+09  -0.6298  -0.6085  -0.04236  0.00341  -4.448e-05  0.002183  -0.8694  0.1049
6.446e+09  -0.743  -0.358  0.03509  0.04199  -0.0001891  0.00505  -0.7459  0.3393
6.448e+09  -0.8473  -0.0427  0.001582  0.01307  -0.001654  0.03239  -0.5853  0.603
6.449e+09  -0.8345  0.2383  0.02837  -0.04743  -0.008446  0.002345  -0.3314  0.7587
6.45e+09  -0.6865  0.4673  -0.02689  0.05574  0.03086  0.01402  -0.03252  0.8221
6.451e+09  -0.468  0.6451  -0.01142  -0.00478  -0.0339  0.01905  0.2386  0.8208
6.452e+09  -0.2418  0.8268  0.03315  -0.02462  0.09334  0.01128  0.4786  0.7105
6.454e+09  0.1165  0.7936  0.02341  -0.01386  -0.01293  -0.008013  0.6623  0.508
6.455e+09  0.3912  0.7697  0.04565  -0.01131  -0.004254  0.03853  0.7814  0.1926
6.456e+09  0.5855  0.5683  0.0147  -0.001443  0.06119  -0.0122  0.8375  -0.06465
6.458e+09  0.7744  0.3346  -0.0109  -0.0001586  -0.0117  0.01692  0.7208  -0.3346
6.459e+09  0.8689  0.06638  -0.04484  -0.03724  -0.004072  -0.00708  0.5333  -0.5842
6.46e+09  0.769  -0.2145  0.05324  -0.01927  -0.005098  0.0005619  0.3727  -0.6983
6.461e+09  0.6576  -0.5106  0.03009  -0.02312  0.001569  0.004474  0.07906  -0.7997
6.462e+09  0.4828  -0.6963  0.00613  0.003022  -0.005025  -0.007969  -0.2028  -0.7997
6.464e+09  0.1691  -0.8224  -0.03086  -0.00346  0.02855  0.00575  -0.4762  -0.6363
6.465e+09  -0.08143  -0.8643  0.007491  0.01222  -0.02009  0.02527  -0.6496  -0.488
6.466e+09  -0.4038  -0.7577  -0.01396  -0.01075  -0.04597  0.0108  -0.7723  -0.1987
6.468e+09  -0.6159  -0.5452  0.04138  -0.02014  0.02707  -0.03254  -0.8216  0.07435
6.469e+09  -0.8367  -0.3711  0.001263  0.02683  -0.004069  0.01043  -0.738  0.3669
6.47e+09  -0.8494  -0.05778  -0.02809  -0.005863  -0.01712  -0.02707  -0.5443  0.5951
6.471e+09  -0.7956  0.2821  0.002422  -0.003474  0.001047  0.04813  -0.2918  0.7627
6.472e+09  -0.6704  0.4924  -0.001904  -0.007794  -0.01626  -0.01333  -0.05598  0.7998
6.474e+09  -0.4414  0.7141  0.01871  -0.02621  -0.002087  -0.003633  0.1865  0.7654
6.475e+09  -0.1948  0.8362  0.05375  -0.002677  0.01306  0.01394  0.4595  0.6392
6.476e+09  0.07246  0.8493  -0.04382  -0.004569  0.01941  -0.01168  0.6547  0.4553
6.478e+09  0.4085  0.7235  0.01822  0.0168  -0.01563  -0.005624  0.7509  0.2188
6.479e+09  0.6441  0.5568  -0.003663  0.01026  -0.08077  0.09309  0.8264  -0.102
6.48e+09  0.7147  0.3566  -0.009955  0.03974  0.02984  -0.01055  0.7369  -0.3338
6.481e+09  0.8691  0.02529  0.01786  -0.0262  -0.02152  0.0473  0.5242  -0.5603
6.482e+09  0.7939  -0.2298  -0.02785  -0.01251  -0.03027  0.0119  0.2953  -0.668
6.484e+09  0.6682  -0.5292  0.02797  -0.009166  0.03192  -0.005585  0.09665  -0.7902
6.485e+09  0.4638  -0.7297  0.03441  0.03276  -0.02645  0.02693  -0.2125  -0.7833
6.486e+09  0.2323  -0.8505  0.0178  -0.007621  -0.04747  0.01733  -0.4627  -0.645
6.488e+09  -0.1185  -0.1189  0.00366  0.01901  0.5537  -0.4671  -0.6658  -0.439
6.489e+09  -0.426  -0.7463  -0.01445  -0.01127  0.0075  -0.01752  -0.7629  -0.1833
6.49e+09  -0.6417  -0.6126  0.02796  -0.00313  -0.02509  -0.02284  -0.7492  0.1069
6.491e+09  -0.8219  -0.3336  -0.01536  0.002677  0.04371  -0.05594  -0.7094  0.3311
6.492e+09  -0.8197  -0.03317  -0.01012  0.005263  0.004658  0.01356  -0.5448  0.5842
6.494e+09  -0.7044  0.3208  0.01085  -0.02659  0.03613  -0.1394  -0.3226  0.6502
6.495e+09  -0.6731  0.598  0.03462  0.0001884  0.01235  -0.02834  -0.04879  0.7596
6.496e+09  -0.4484  0.7359  0.0106  0.02089  0.02054  -0.04041  0.2006  0.7315
6.498e+09  -0.1903  0.8785  -0.02814  0.01472  0.04935  -0.00571  0.4331  0.5879
6.499e+09  0.1385  0.872  -0.005407  -0.008622  -0.0004426  0.01621  0.6325  0.4202
6.5e+09  0.4345  0.7684  0.01532  0.01044  -0.03795  -0.00351  0.7301  0.1969
6.501e+09  0.636  0.597  -0.003013  0.03348  0.007805  -0.02592  0.7658  -0.1267
6.502e+09  0.828  0.3067  0.04005  -0.01344  0.01929  -0.03305  0.694  -0.3936
6.504e+09  0.8864  0.01273  0.0496  0.01971  -0.01798  0.001645  0.5157  -0.5661
6.505e+09  0.8683  -0.3222  -0.05258  -0.01178  -0.02433  -0.0009535  0.3013  -0.6995
6.506e+09  0.6622  -0.5537  0.02102  0.0242  -0.02815  0.04157  0.01015  -0.7246
6.508e+09  0.4453  -0.7793  -0.03567  0.01684  0.04576  0.01281  -0.2296  -0.7213
6.509e+09  0.1695  -0.8867  -0.05557  -0.02714  0.03963  -0.01624  -0.4904  -0.588
6.51e+09  -0.1312  -0.8447  0.0139  0.02366  0.01475  0.001664  -0.663  -0.3748
6.511e+09  -0.4597  -0.8066  -2.901e-05  -0.01675  0.06786  0.01513  -0.7649  -0.1286
6.512e+09  -0.6947  -0.6181  -0.009232  0.01214  -0.03164  -0.01566  -0.7551  0.1492
6.514e+09  -0.8025  -0.3045  -0.002281  0.03697  -0.008386  0.01458  -0.6439  0.4096
6.515e+09  -0.8663  0.01221  0.003233  0.01571  0.02441  0.0208  -0.4576  0.5375
6.516e+09  -0.8159  0.3413  -0.01065  -0.0333  0.01479  -0.009811  -0.2602  0.7294
6.518e+09  -0.6667  0.5381  0.002983  0.009534  -0.01468  0.01705  -0.01814  0.7491
6.519e+09  -0.3802  0.7856  -0.01574  -0.02938  -0.00999  -0.01242  0.2603  0.6997
6.52e+09  -0.1698  0.9316  0.00171  0.008014  0.02515  0.02112  0.477  0.5405
6.521e+09  0.1872  0.9051  0.001984  0.01833  0.02881  0.07236  0.6598  0.3953
6.522e+09  0.5267  0.7873  0.03667  0.008851  -0.05282  0.0427  0.7205  0.1234
6.524e+09  0.7442  0.5545  -0.01806  0.04852  -0.01535  0.02373  0.7187  -0.1641
6.525e+09  0.8555  0.3162  -0.03156  0.02741  -0.003221  0.01886  0.5968  -0.3896
6.526e+09  0.9188  -0.04595  -0.009685  0.01451  0.005423  -0.05074  0.4057  -0.5626
6.528e+09  0.8543  -0.3985  0.01365  -0.02925  -0.01528  0.06669  0.1764  -0.6483
6.529e+09  0.679  -0.615  -0.005151  0.01953  -0.03198  0.0489  -0.0173  -0.6784
6.53e+09  0.4133  -0.8057  -0.005365  -0.0225  -0.005267  -0.03799  -0.2982  -0.6257
6.531e+09  0.1039  -0.8485  0.0007436  -0.004796  -0.003014  0.02081  -0.466  -0.5092
6.532e+09  -0.2684  -0.8907  0.02651  0.006223  0.03305  -0.04915  -0.5647  -0.3095
6.534e+09  -0.5348  -0.7623  -0.004094  -0.03341  -0.06676  0.00671  -0.6476  -0.1115
6.535e+09  -0.7472  -0.5147  -0.0163  -0.01056  0.01017  0.02004  -0.6337  0.08802
6.536e+09  -0.9193  -0.1987  0.01366  0.05047  -0.003749  0.01534  -0.5791  0.2958
6.538e+09  -0.9279  0.1468  -0.01181  0.00121  -0.005403  -0.01463  -0.4616  0.4918
6.539e+09  -0.8456  0.4453  -0.02292  -0.004842  0.009034  0.001391  -0.2908  0.6138
6.54e+09  -0.6174  0.693  0.01073  0.004314  -0.002638  -0.01488  -0.01942  0.6796
6.541e+09  -0.3969  0.8691  -0.01521  -0.01089  0.03473  -0.03053  0.1919  0.6566
6.542e+09  -0.002249  0.9336  0.005845  0.001266  -0.00136  0.05066  0.4197  0.6019
6.544e+09  0.3017  0.9497  0.007244  -0.007873  -0.04753  -0.00547  0.5832  0.4363
6.545e+09  0.5703  0.7321  -0.001983  0.03933  -0.01032  -0.05291  0.6961  0.172
6.546e+09  0.7814  0.4974  0.001279  0.003017  -0.008439  0.002998  0.7368  -0.07164
6.548e+09  0.9072  0.1991  0.02375  -0.02929  0.01887  -0.04254  0.6392  -0.347
6.549e+09  0.9667  -0.1877  -0.02707  0.02466  -0.03914  -0.04598  0.5004  -0.5558
6.55e+09  0.8165  -0.4983  -0.01963  0.03755  0.02057  -0.02475  0.3325  -0.6582
