# Hz S RI R 50
6.25e+09  -0.3785  0.7454  -0.009772  -0.008783  -0.004822  0.02008  0.1508  0.4578
6.251e+09  -0.115  0.8403  0.01295  0.0228  -0.02582  0.0456  0.3695  0.4399
6.252e+09  0.1856  0.7922  0.01494  0.001436  0.03028  0.001904  0.5393  0.234
6.254e+09  0.425  0.6871  0.02194  -0.004595  0.0306  -0.04519  0.6118  -0.006253
6.255e+09  0.676  0.5421  -0.02418  0.02182  0.04334  0.06306  0.5394  -0.2329
6.256e+09  0.8133  0.2028  0.00312  0.02136  -0.01504  -0.005104  0.5031  -0.4395
6.258e+09  0.8183  -0.03337  -0.007071  0.01488  -0.01129  0.01589  0.2818  -0.577
6.259e+09  0.7347  -0.3168  -0.002485  0.01457  0.008414  0.001743  0.02371  -0.6869
6.26e+09  0.5988  -0.5874  -0.01182  -0.009051  0.02192  -0.02289  -0.208  -0.6613
6.261e+09  0.3195  -0.7634  -0.005694  0.02523  0.01955  -0.007568  -0.451  -0.538
6.262e+09  0.07288  -0.8331  0.01401  0.008922  0.02502  0.0469  -0.6287  -0.2956
6.264e+09  -0.1866  -0.8121  -0.008547  -0.001699  0.007186  -0.009719  -0.7022  -0.1043
6.265e+09  -0.475  -0.6951  -0.01062  -0.01872  -0.02555  0.008581  -0.7019  0.1619
6.266e+09  -0.7011  -0.4429  0.0323  0.007078  -0.009496  0.0505  -0.5719  0.4465
6.268e+09  -0.8045  -0.2318  0.01988  0.02288  -0.03387  -0.02451  -0.4363  0.6187
6.269e+09  -0.8554  0.1221  0.02234  -0.03868  0.0425  -0.04746  -0.227  0.681
6.27e+09  -0.7174  0.3505  0.001746  -0.002841  0.009535  -0.02174  0.05368  0.7215
6.271e+09  -0.5458  0.5889  -0.008718  0.001659  -0.05338  0.02505  0.3479  0.7051
6.272e+09  -0.3004  0.7789  -0.02047  -0.01768  -0.001606  -0.01113  0.5373  0.5307
6.274e+09  -0.03117  0.8009  0.01304  0.01958  -0.02583  -0.01291  0.673  0.297
6.275e+09  0.2024  0.7977  0.02416  0.04361  0.04056  0.006424  0.7687  0.04708
6.276e+09  0.4183  0.6442  0.0247  0.0149  -0.02157  -0.001903  0.7372  -0.2176
6.278e+09  0.6748  0.4008  0.02677  0.00519  0.02839  0.02305  0.6264  -0.4546
6.279e+09  0.8149  0.1518  0.009354  -0.004711  0.02094  -0.02598  0.4002  -0.6423
6.28e+09  0.7622  -0.165  0.005379  0.008959  0.01413  -0.001604  0.1836  -0.7408
6.281e+09  0.7319  -0.4007  -0.008255  0.003139  -0.01884  -0.007805  -0.0988  -0.7817
6.282e+09  0.5208  -0.6  0.01413  -0.0001085  -0.05694  -0.0186  -0.3676  -0.6956
6.284e+09  0.3288  -0.7238  -0.02046  0.004737  0.02342  0.02526  -0.5788  -0.5241
6.285e+09  0.05146  -0.8006  0.0008125  0.03197  0.01283  0.002341  -0.716  -0.2892
6.286e+09  -0.272  -0.7668  -0.0112  -0.03685  0.004967  0.01102  -0.7584  -0.02943
6.288e+09  -0.4802  -0.6148  0.01885  -0.03698  0.006062  -0.02676  -0.7554  0.2371
6.289e+09  -0.653  -0.4205  0.02406  0.009813  -0.01697  -0.01223  -0.5946  0.4953
6.29e+09  -0.75  -0.1092  -0.02598  0.006974  -0.01254  -0.01368  -0.4345  0.6862
6.291e+09  -0.8286  0.1254  0.008719  0.03641  0.007802  -0.001944  -0.1577  0.7916
6.292e+09  -0.679  0.3706  -0.00557  -0.001947  -0.007033  0.05069  0.1011  0.8282
6.294e+09  -0.5585  0.617  0.00138  -0.038  0.02293  -0.05886  0.374  0.7227
6.295e+09  -0.3078  0.7743  -0.00491  0.01914  -0.03596  -0.01214  0.6332  0.526
6.296e+09  0.03719  0.8259  0.0007485  0.0007167  0.04554  0.04417  0.7971  0.2683
6.298e+09  0.3185  0.792  0.02436  0.02215  -0.037  -0.03945  0.832  -0.0001556
6.299e+09  0.5137  0.6239  0.02986  0.0115  -0.01985  0.02255  0.7721  -0.2603
6.3e+09  0.6411  0.4081  -0.02911  0.002352  -0.01641  0.06303  0.6572  -0.4992
6.301e+09  0.7871  0.1237  -0.01341  0.0531  -0.03342  0.05892  0.4181  -0.7163
6.302e+09  0.7873  -0.1273  0.01156  -0.02639  0.02168  0.03879  0.1647  -0.8349
6.304e+09  0.6871  -0.4042  0.01259  -0.0009781  -0.01243  0.008682  -0.1243  -0.8161
6.305e+09  0.5129  -0.6471  0.0007712  0.02861  0.02769  -0.01904  -0.3897  -0.7207
6.306e+09  0.276  -0.7995  -0.009719  0.00881  0.002589  0.01673  -0.64  -0.5487
6.308e+09  -0.03791  -0.8072  0.02331  -0.004371  0.03841  -0.001549  -0.8296  -0.3247
6.309e+09  -0.2565  -0.727  0.01212  0.02168  -0.02784  -0.05148  -0.8349  -0.003651
6.31e+09  -0.5454  -0.5964  -0.01398  0.04582  -0.06318  0.02912  -0.8144  0.2762
6.311e+09  -0.68  -0.3586  0.004206  -0.02129  -0.01677  -0.0002973  -0.6795  0.5486
6.312e+09  -0.7926  -0.122  0.01091  0.01349  0.03725  -0.006912  -0.4453  0.7183
6.314e+09  -0.8455  0.1478  0.00459  -0.003478  0.04216  0.01087  -0.1692  0.845
6.315e+09  -0.6724  0.4104  0.002445  0.0199  0.03465  -0.009299  0.1682  0.8565
6.316e+09  -0.4818  0.6845  0.01204  0.01877  0.006055  -0.01513  0.4366  0.7695
6.318e+09  -0.2484  0.7488  0.0009386  -0.0156  0.01537  -0.008539  0.6844  0.5853
6.319e+09  0.0266  0.8593  0.01193  -0.002466  -0.009839  0.0373  0.8199  0.3224
6.32e+09  0.357  0.7294  0.03435  0.005415  0.06546  0.01875  0.8726  0.009643
6.321e+09  0.5597  0.6039  -0.006875  -0.02352  0.03416  0.04068  0.8401  -0.2942
6.322e+09  0.792  0.3575  -0.005735  -0.005585  -0.01711  0.0009202  0.6828  -0.5271
6.324e+09  0.8085  0.1109  0.01067  0.01356  0.01652  -0.06667  0.485  -0.7716
6.325e+09  0.7956  -0.2109  0.005068  -0.004783  0.01279  -0.009561  0.1722  -0.8843
6.326e+09  0.6353  -0.5055  0.002387  -0.03781  -0.03044  -0.008842  -0.1598  -0.8417
6.328e+09  0.4714  -0.6859  -0.0058  0.03113  -0.00583  0.02114  -0.4498  -0.7889
6.329e+09  0.2369  -0.8396  -0.02363  0.008614  0.02887  0.0218  -0.702  -0.6107
6.33e+09  -0.1082  -0.7927  -0.01251  0.008166  0.02054  -0.05261  -0.813  -0.3357
6.331e+09  -0.3844  -0.689  -0.004343  0.01272  0.0104  0.006224  -0.9061  -0.01304
6.332e+09  -0.553  -0.5346  -0.01191  -0.008381  -0.05703  -0.01625  -0.8689  0.302
6.334e+09  -0.7633  -0.3327  0.0004331  -0.01053  -0.007562  0.02883  -0.7171  0.5516
6.335e+09  -0.8519  0.002656  0.008083  0.006756  0.0503  -0.03571  -0.4748  0.7633
6.336e+09  -0.806  0.2694  0.006898  0.03166  -0.02593  0.01178  -0.1853  0.8714
6.338e+09  -0.6314  0.5356  0.01462  0.03121  -0.01483  -0.004198  0.1236  0.8767
6.339e+09  -0.3969  0.7239  -0.02492  0.009956  -0.03001  0.02548  0.4276  0.8065
6.34e+09  -0.1091  0.8368  -0.00943  -0.0356  -0.01012  0.03324  0.6911  0.6338
6.341e+09  0.138  0.8  -0.02144  0.003348  0.03578  -0.0267  0.8915  0.336
6.342e+09  0.4264  0.7408  -0.03377  -0.008622  -0.0715  0.01988  0.8961  0.07129
6.344e+09  0.6273  0.5457  -0.03998  -0.01617  -0.007821  0.04999  0.8945  -0.2451
6.345e+09  0.8248  0.291  0.00908  0.002323  0.01484  0.0374  0.7091  -0.5366
6.346e+09  0.8627  -0.05528  -0.02097  -0.001041  -0.01661  -0.007329  0.5049  -0.7717
6.348e+09  0.8128  -0.3254  -0.01353  0.04225  0.01724  -0.01267  0.2296  -0.9338
6.349e+09  0.5994  -0.5708  -0.03025  -0.005999  0.002449  0.0454  -0.1156  -0.9391
6.35e+09  0.4276  -0.7589  -0.01277  0.02347  0.05663  -0.01411  -0.4254  -0.8193
6.351e+09  0.07745  -0.784  0.02661  0.002556  0.007541  0.003161  -0.6828  -0.6378
6.352e+09  -0.1957  -0.8459  0.004206  -0.02372  0.02507  0.004616  -0.8765  -0.3849
6.354e+09  -0.4845  -0.7429  -0.01996  -0.02708  -0.01701  -0.003079  -0.9471  -0.07397
6.355e+09  -0.7259  -0.4837  0.003383  -0.002626  -0.006702  -0.01035  -0.8966  0.2764
6.356e+09  -0.8293  -0.2136  0.04023  -0.008648  0.008192  -0.03487  -0.7544  0.5536
6.358e+09  -0.8352  0.05842  -0.006232  -0.01407  0.001145  -0.05275  -0.5308  0.7913
6.359e+09  -0.7974  0.3874  -0.02018  -0.003284  -0.05438  -0.008981  -0.2623  0.8844
6.36e+09  -0.5647  0.5726  0.0274  -0.02803  -0.02396  0.02424  0.09682  0.9342
6.361e+09  -0.3353  0.7812  -0.008969  -0.01513  -0.008895  0.01241  0.4365  0.8622
6.362e+09  -0.0623  0.8688  0.01914  -0.009522  -0.01229  -0.02004  0.6516  0.6661
6.364e+09  0.2997  0.8204  0.03927  -0.01725  -0.0418  0.03846  0.8454  0.4242
6.365e+09  0.5097  0.7106  0.0295  0.009127  -0.02822  0.002054  0.9388  0.09832
6.366e+09  0.719  0.4322  -0.001989  0.01831  -0.01506  -0.03543  0.9526  -0.2422
6.368e+09  0.8172  0.1683  0.01089  -0.02497  0.02572  -0.03067  0.7798  -0.5353
6.369e+09  0.8313  -0.1392  -0.02379  -0.03222  -0.04566  -0.04027  0.5344  -0.7678
6.37e+09  0.7344  -0.4408  0.008398  0.0105  0.02223  0.02719  0.2121  -0.9233
6.371e+09  0.5692  -0.6833  0.0221  0.007561  0.01297  -0.01132  -0.09003  -0.9435
6.372e+09  0.3183  -0.7862  -0.007808  -0.02839  0.01531  0.009229  -0.383  -0.8478
6.374e+09  0.02096  -0.8593  0.02068  -0.01394  0.02193  -0.0008512  -0.6456  -0.6524
6.375e+09  -0.2946  -0.8421  -0.00951  0.01763  -0.001818  -0.007186  -0.8361  -0.4005
6.376e+09  -0.5748  -0.646  0.007602  0.04189  -0.008092  0.02605  -0.9551  -0.06342
6.378e+09  -0.7751  -0.4016  0.003686  -0.02751  -0.008213  0.02112  -0.9174  0.2225
6.379e+09  -0.8488  -0.1324  -0.02727  0.01146  0.01874  0.001143  -0.8076  0.5465
6.38e+09  -0.8492  0.178  0.02473  0.008356  0.007001  -0.01041  -0.5513  0.7501
6.381e+09  -0.7161  0.4524  -0.004211  0.01372  0.001002  -0.01493  -0.2989  0.9123
6.382e+09  -0.5288  0.6913  -0.02793  -0.0006993  -0.02715  0.02655  0.04988  0.9275
6.384e+09  -0.2692  0.8061  0.01677  -0.01524  0.00608  -0.001674  0.3457  0.8867
6.385e+09  0.01837  0.87  -0.04486  -0.01005  -0.0005701  0.004963  0.6528  0.6721
6.386e+09  0.3254  0.8065  0.02982  0.002621  -0.03455  0.004848  0.7988  0.4343
6.388e+09  0.593  0.6457  -0.03176  -0.00577  -0.02533  -0.01878  0.9462  0.115
6.389e+09  0.7702  0.3725  0.01405  0.0007477  0.005604  -0.02339  0.9051  -0.2036
6.39e+09  0.8586  0.1223  0.05855  0.01578  -0.01259  -0.0111  0.7651  -0.5194
6.391e+09  0.8268  -0.1938  -0.001539  -0.008186  -0.01645  -0.01038  0.5621  -0.7368
6.392e+09  0.7299  -0.4909  0.01592  0.008666  0.002712  -0.009811  0.264  -0.8824
6.394e+09  0.485  -0.6964  0.0206  -0.00102  -0.03645  0.03216  0.005037  -0.9489
6.395e+09  0.1949  -0.8691  -0.04833  -0.007998  0.02035  0.03936  -0.3208  -0.8485
6.396e+09  -0.07285  -0.8758  0.02961  -0.01845  -0.01192  -0.0008754  -0.6055  -0.6902
6.398e+09  -0.4072  -0.7845  -0.01594  -0.01219  0.0494  0.002937  -0.8109  -0.447
6.399e+09  -0.597  -0.6174  -0.01032  -0.0268  0.01882  -0.02406  -0.8889  -0.1438
6.4e+09  -0.7791  -0.3457  0.003167  0.04607  -0.007446  0.01721  -0.8982  0.1526
6.401e+09  -0.8642  -0.04059  0.01029  0.009055  -0.06042  -0.02927  -0.7979  0.4919
6.402e+09  -0.8102  0.2048  0.01073  0.01018  -0.004229  -0.04182  -0.5696  0.6784
6.404e+09  -0.646  0.4602  0.01331  -0.01119  -0.02558  0.003373  -0.3279  0.8884
6.405e+09  -0.4905  0.7241  0.01985  -0.008833  -0.04258  0.0233  -0.01388  0.9389
6.406e+09  -0.1933  0.8829  0.0265  0.06053  -0.01201  0.04891  0.3149  0.8381
6.408e+09  0.1128  0.8732  0.002997  0.0495  0.01758  -0.02873  0.619  0.7405
6.409e+09  0.4309  0.7461  0.00865  0.01647  0.002467  0.0267  0.793  0.4415
6.41e+09  0.6179  0.5216  0.02775  -0.03499  -0.05429  -0.0006062  0.9189  0.1765
6.411e+09  0.7659  0.3391  0.001748  -0.03096  -0.02553  0.02769  0.874  -0.1439
6.412e+09  0.852  0.007904  -0.01509  0.02785  -0.009187  -0.02388  0.7678  -0.4069
6.414e+09  0.7754  -0.2392  0.006943  0.01604  -0.004395  -0.004545  0.5848  -0.6891
6.415e+09  0.68  -0.4728  -0.02311  0.03993  -0.02391  -0.01051  0.3232  -0.82
6.416e+09  0.4478  -0.6903  0.007201  -0.004073  0.002646  -0.04001  -0.009754  -0.872
6.418e+09  0.1975  -0.7811  -0.03197  0.0194  0.0108  0.008708  -0.3095  -0.8684
6.419e+09  -0.1003  -0.8659  -0.01793  0.0003036  0.03774  0.02258  -0.5632  -0.7084
6.42e+09  -0.3971  -0.7252  -0.009838  0.0249  0.03415  -0.001286  -0.7428  -0.4401
6.421e+09  -0.6569  -0.5744  0.01236  0.02202  -0.009737  -0.02956  -0.8919  -0.1354
6.422e+09  -0.8051  -0.3463  0.01346  -0.0166  0.01774  0.01585  -0.8796  0.119
6.424e+09  -0.7963  -0.03504  0.005139  0.05157  -0.06142  -0.0004075  -0.7807  0.438
6.425e+09  -0.7994  0.2731  -0.01747  0.01537  0.03347  0.001904  -0.6342  0.6131
6.426e+09  -0.6635  0.5418  -0.002402  -0.0182  0.01604  0.01583  -0.333  0.7555
6.428e+09  -0.4176  0.7294  0.0006455  -0.03059  -0.001654  0.005882  -0.007617  0.8388
6.429e+09  -0.1463  0.8258  0.002075  -0.001879  0.01482  0.02457  0.2596  0.8722
6.43e+09  0.1173  0.8494  0.02257  0.03255  0.001713  -0.04951  0.5053  0.7046
6.431e+09  0.4345  0.7134  0.0008345  0.02244  -0.002715  0.008772  0.726  0.4464
6.432e+09  0.675  0.5636  -0.005688  -0.03104  0.00325  0.0003215  0.8246  0.1655
6.434e+09  0.7778  0.3152  0.009356  0.0009823  0.02054  -0.01904  0.8193  -0.06201
6.435e+09  0.8986  0.04471  -0.01456  -0.001825  0.04418  0.006484  0.8091  -0.3439
6.436e+09  0.8508  -0.278  -0.006539  -0.005743  -0.002905  0.05459  0.5857  -0.6186
6.438e+09  0.6211  -0.5385  -0.01449  0.06638  -0.01571  0.008712  0.3628  -0.828
6.439e+09  0.428  -0.6391  -0.003728  0.005583  0.008273  0.05033  0.1035  -0.8799
6.44e+09  0.1572  -0.8059  -0.02748  -0.01966  0.02687  -0.02011  -0.2031  -0.831
6.441e+09  -0.1216  -0.8474  -0.001084  0.05558  -0.003279  0.05595  -0.4744  -0.6962
6.442e+09  -0.4461  -0.7942  -0.003313  0.0003425  -0.0194  0.001946  -0.7002  -0.4309
6.444e+09  -0.6084  -0.5441  -0.005231  0.03542  0.01976  -0.01087  -0.8614  -0.2366
6.445e+09  -0.7754  -0.2932  0.02626  -0.03286  -0.0004688  0.0228  -0.8698  0.1163
6.446e+09  -0.8443  -0.001136  0.01153  0.01408  0.05395  -0.03687  -0.7457  0.3091
6.448e+09  -0.7861  0.2683  -4.84e-05  -0.02289  -9.254e-06  0.007515  -0.5869  0.6206
6.449e+09  -0.6494  0.5006  0.0252  -0.02186  -0.001675  0.03685  -0.355  0.7323
6.45e+09  -0.4095  0.7457  0.005314  -0.00324  0.05563  -0.01504  -0.02505  0.8469
6.451e+09  -0.1439  0.8469  0.004965  0.008609  0.004103  0.006591  0.1772  0.772
6.452e+09  0.1427  0.8133  0.04269  0.0116  0.01427  0.05722  0.4622  0.6392
6.454e+09  0.4269  0.7333  0.06418  -0.009095  -0.04794  -0.0392  0.664  0.5083
6.455e+09  0.6412  0.5659  -0.01825  -0.009059  -0.0134  -0.05086  0.8038  0.1849
6.456e+09  0.8186  0.2805  0.02842  -0.02999  -0.003151  0.00727  0.8271  -0.09055
6.458e+09  0.8482  0.01885  -0.0285  -0.02663  0.08056  0.03582  0.725  -0.3562
6.459e+09  0.7556  -0.2952  0.03651  -0.04269  0.0361  -0.01838  0.5783  -0.6211
6.46e+09  0.6512  -0.5622  -0.02851  -0.003281  0.04354  -0.009316  0.3429  -0.7583
6.461e+09  0.4531  -0.7892  0.02501  0.04265  0.02155  -0.01667  0.0521  -0.7995
6.462e+09  0.1307  -0.8372  0.001135  -0.007812  0.03765  -0.0167  -0.2547  -0.7634
6.464e+09  -0.1424  -0.8485  -0.03042  0.01873  -0.01842  0.02057  -0.4573  -0.6973
6.465e+09  -0.4545  -0.7396  -0.01523  0.01625  -0.0187  -0.009735  -0.6858  -0.4231
6.466e+09  -0.7132  -0.5561  0.01061  -0.03086  -0.009412  0.04037  -0.7672  -0.1883
6.468e+09  -0.8057  -0.313  0.006509  0.02094  0.02903  -0.01976  -0.807  0.004731
6.469e+09  -0.8612  0.05799  0.01785  0.007411  0.001791  0.008967  -0.7264  0.3421
6.47e+09  -0.8045  0.3118  -0.01218  -0.03612  -0.03335  -0.005201  -0.5592  0.569
6.471e+09  -0.6734  0.5531  -0.006665  0.03765  0.001116  0.01056  -0.3408  0.7379
6.472e+09  -0.454  0.7797  -0.008779  0.005036  0.06438  -0.06354  -0.06942  0.7889
6.474e+09  -0.1441  0.849  0.02296  0.003832  -0.06754  -0.03215  0.2229  0.7281
6.475e+09  0.1741  0.8673  -0.02353  -0.01436  -0.01387  -0.003283  0.4656  0.6401
6.476e+09  0.4457  0.7496  -0.006818  -0.01749  0.0186  0.06755  0.6603  0.4483
6.478e+09  0.6972  0.576  0.01858  0.02049  -0.05992  0.01448  0.7713  0.2148
6.479e+09  0.8289  0.2905  -0.004654  -0.006414  0.01834  -0.002064  0.7642  -0.07331
6.48e+09  0.8873  -0.01983  0.0001017  0.01262  0.02406  0.002097  0.7165  -0.3308
6.481e+09  0.8113  -0.3467  0.01724  -0.00728  0.0281  0.01498  0.5343  -0.5476
6.482e+09  0.6392  -0.6498  -0.00427  0.01552  -0.002971  0.03464  0.3116  -0.7229
6.484e+09  0.4034  -0.7653  0.0156  -0.01788  0.001433  0.003968  0.06834  -0.7594
6.485e+09  0.1567  -0.8846  0.005335  -0.002446  -0.01194  0.0111  -0.2592  -0.7191
6.486e+09  -0.1638  -0.8757  -0.01888  -0.006773  0.004553  -0.008234  -0.4685  -0.6182
6.488e+09  -1.136  -0.5774  -0.01532  0.0456  0.0108  -0.791  -0.6307  -0.4193
6.489e+09  -0.7148  -0.5651  0.001406  -0.02064  -0.008  0.0293  -0.7707  -0.2156
6.49e+09  -0.8441  -0.2513  0.001605  0.02902  -0.02398  -0.003573  -0.7792  0.0868
6.491e+09  -0.8908  0.07805  0.03364  0.003233  0.03553  0.002544  -0.6904  0.3218
6.492e+09  -0.834  0.3471  0.0296  0.01045  0.004056  0.01834  -0.5251  0.5345
6.494e+09  -0.7242  0.5133  -0.02868  -0.004062  0.1431  0.04164  -0.2975  0.708
6.495e+09  -0.3844  0.7909  0.01331  0.04648  -0.02714  0.05667  -0.06782  0.7145
6.496e+09  -0.06874  0.8668  -0.004709  -0.01581  0.02737  -0.01498  0.2156  0.7341
6.498e+09  0.2404  0.894  0.04074  0.002575  -0.05692  0.008701  0.4336  0.5957
6.499e+09  0.4353  0.7307  0.006318  0.01559  0.0545  -0.02371  0.6334  0.3894
6.5e+09  0.7532  0.5479  0.02831  0.01866  -0.04294  -0.028  0.7396  0.1598
6.501e+09  0.8969  0.2313  -0.0243  0.001997  0.009863  -0.01876  0.744  -0.1399
6.502e+09  0.9496  -0.06679  -0.002436  -0.02456  0.0435  -0.02596  0.6525  -0.3439
6.504e+09  0.8478  -0.3801  0.0001756  0.03402  -0.02898  0.02172  0.5032  -0.5554
6.505e+09  0.7254  -0.6318  -0.003759  -0.01731  -0.002478  -0.03177  0.2462  -0.6971
6.506e+09  0.3617  -0.817  0.00338  -0.005153  -0.005962  0.01364  0.00952  -0.7204
6.508e+09  0.09005  -0.9462  0.02247  -0.0259  0.0102  0.04558  -0.2557  -0.7234
6.509e+09  -0.2769  -0.8776  -0.01601  0.01257  -0.000291  -0.0466  -0.4698  -0.5946
6.51e+09  -0.5801  -0.7457  -0.0004437  -0.03686  -0.001722  -0.01793  -0.6696  -0.3813
6.511e+09  -0.736  -0.4741  0.01939  0.01466  -0.05192  -0.01235  -0.7394  -0.1339
6.512e+09  -0.9049  -0.2448  -0.002718  -0.01967  -0.007823  0.004982  -0.7049  0.1184
6.514e+09  -0.8806  0.07756  0.001788  -0.02317  0.01809  -0.007605  -0.6196  0.4211
6.515e+09  -0.811  0.4368  -0.01235  0.01092  0.05708  -0.0484  -0.4535  0.5967
6.516e+09  -0.6266  0.6474  -0.00709  -0.02284  -0.03979  -0.009904  -0.2558  0.707
6.518e+09  -0.3193  0.8751  -0.01381  0.04372  -0.003967  0.007795  0.00707  0.7618
6.519e+09  -0.07877  0.9357  -0.03658  -0.03366  0.01015  0.02441  0.2605  0.677
6.52e+09  0.3356  0.8717  0.04032  -0.003614  0.03312  -0.02166  0.5096  0.5816
6.521e+09  0.5867  0.7527  0.02076  -0.01941  0.0443  -0.02864  0.6516  0.3628
6.522e+09  0.8457  0.4899  0.0003913  0.02206  0.04094  0.01094  0.7892  0.1054
6.524e+09  0.9013  0.1767  0.0165  -0.02125  -0.0178  -0.02959  0.7496  -0.1607
6.525e+09  0.9037  -0.2288  0.0107  0.003225  0.05265  0.03042  0.5796  -0.4395
6.526e+09  0.8486  -0.4927  0.02162  -0.05497  -0.03181  -0.02622  0.426  -0.5681
6.528e+09  0.5409  -0.7162  0.0155  -0.005867  -0.04297  -0.01564  0.1847  -0.7038
6.529e+09  0.3334  -0.9387  0.01448  -0.05133  0.01025  0.009982  -0.0336  -0.7466
6.53e+09  -0.05719  -0.8876  0.001453  0.004824  -0.01443  -0.0133  -0.2883  -0.6107
6.531e+09  -0.3505  -0.8416  -0.005521  -0.04606  -0.01671  -0.004678  -0.4585  -0.5036
6.532e+09  -0.5945  -0.7417  0.02606  0.01124  -0.01351  0.01277  -0.5596  -0.2896
6.534e+09  -0.824  -0.4492  0.0011  0.007544  -0.0005417  0.03834  -0.6239  -0.09208
6.535e+09  -0.9275  -0.1085  -0.003323  0.0003342  -0.03607  0.007906  -0.5715  0.08957
6.536e+09  -0.8964  0.2698  -0.01509  -0.007421  -0.01723  0.0133  -0.5518  0.2538
6.538e+09  -0.7909  0.4916  -0.03151  -0.008788  0.0579  -0.03293  -0.4348  0.441
6.539e+09  -0.493  0.7464  0.01806  0.01682  -0.05673  -0.02037  -0.2557  0.6136
6.54e+09  -0.2923  0.9088  -0.0259  -0.0206  -0.06601  -0.02353  -0.03145  0.6822
6.541e+09  0.09348  0.9446  -0.01037  -0.01849  -0.02119  0.009209  0.1579  0.6823
6.542e+09  0.4563  0.86  0.02062  0.00637  0.01839  0.007461  0.3974  0.5581
6.544e+09  0.7015  0.6156  0.01431  -0.001901  0.03131  -0.04484  0.6156  0.3978
6.545e+09  0.8566  0.3877  0.005047  0.02743  0.01999  -0.02399  0.7111  0.1919
6.546e+09  0.9011  0.06985  -0.007367  0.005637  -0.03123  -0.01539  0.7318  -0.07434
6.548e+09  0.8898  -0.2813  -0.003812  -0.002856  -0.04001  0.01357  0.6801  -0.3231
6.549e+09  0.7518  -0.5541  -0.02963  0.04069  -0.01735  -0.06339  0.5283  -0.537
6.55e+09  0.4816  -0.8451  0.02984  0.006563  -0.003996  -0.0001059  0.2887  -0.6647
