# Hz S RI R 50
6.25e+09  -0.02217  0.9178  -0.02713  0.01326  -0.003217  -5.652e-05  0.1764  0.4551
6.251e+09  0.2594  0.8623  0.0152  -0.01665  -0.0002673  0.02158  0.3431  0.421
6.252e+09  0.5949  0.7276  -0.005705  0.009483  0.02293  0.05034  0.5367  0.2009
6.254e+09  0.7559  0.5329  -0.01611  0.01542  0.02402  -0.008542  0.6589  0.04513
6.255e+09  0.9077  0.2485  0.007354  0.01472  -0.01279  0.04355  0.5715  -0.2407
6.256e+09  0.8914  -0.1672  0.01658  0.03333  0.01553  0.04078  0.4522  -0.4502
6.258e+09  0.7943  -0.4311  -0.0144  -0.01412  -0.03037  -0.06244  0.2565  -0.5655
6.259e+09  0.6143  -0.6945  -0.008062  -0.01109  0.007499  -0.00815  0.05275  -0.6872
6.26e+09  0.3356  -0.8213  0.01322  0.007097  0.004044  0.04277  -0.1885  -0.6681
6.261e+09  0.02893  -0.8964  0.0206  0.008022  0.009118  -0.02708  -0.4187  -0.5246
6.262e+09  -0.3227  -0.8422  0.007883  -0.01386  -0.01106  0.0569  -0.6091  -0.3676
6.264e+09  -0.5742  -0.6876  -0.02491  0.006704  0.008755  0.03122  -0.6666  -0.1322
6.265e+09  -0.7814  -0.458  -0.0004074  0.01863  -0.01609  0.02739  -0.7102  0.1412
6.266e+09  -0.8657  -0.1966  -0.005394  -0.01556  0.01403  0.006757  -0.6004  0.3821
6.268e+09  -0.8673  0.1452  0.03936  -0.02676  -0.08229  -0.04643  -0.3905  0.5988
6.269e+09  -0.7479  0.4644  0.02359  0.0113  0.01417  -0.03429  -0.2112  0.6973
6.27e+09  -0.5873  0.6895  0.02987  0.03026  -0.0152  0.003465  0.05929  0.7427
6.271e+09  -0.2825  0.8692  0.01737  0.002379  0.08004  -0.06158  0.3248  0.6832
6.272e+09  0.0007063  0.8736  0.03006  0.0004456  0.02214  0.03987  0.5728  0.5247
6.274e+09  0.3559  0.8369  0.00393  0.001974  0.08288  -0.01792  0.7037  0.2973
6.275e+09  0.5944  0.6714  0.01346  -0.0175  -0.03807  -0.05115  0.7408  0.06058
6.276e+09  0.7852  0.4188  -0.002663  -0.02834  -0.008887  0.01372  0.7448  -0.2402
6.278e+09  0.8873  0.08932  -0.01143  -0.01101  0.02273  0.0257  0.6182  -0.4424
6.279e+09  0.898  -0.2377  0.01921  0.006453  -0.002439  0.05855  0.4359  -0.6515
6.28e+09  0.7935  -0.5095  0.008652  0.0198  -0.01097  -0.03004  0.1563  -0.769
6.281e+09  0.5614  -0.7513  0.04493  0.01428  -0.01717  -0.03347  -0.1077  -0.7957
6.282e+09  0.2561  -0.8572  0.008303  -0.01044  -0.01078  -0.03246  -0.3378  -0.6756
6.284e+09  -0.05949  -0.8769  -0.03257  -0.005573  -0.02607  0.02083  -0.5494  -0.5328
6.285e+09  -0.3335  -0.794  0.00437  0.01325  -0.03219  0.01969  -0.733  -0.2972
6.286e+09  -0.6494  -0.6286  -0.01558  -0.0168  0.002139  0.03385  -0.793  -0.02165
6.288e+09  -0.8658  -0.4096  -0.007199  -0.008746  -0.002786  0.001636  -0.7667  0.2365
6.289e+09  -0.9359  -0.09647  -0.01613  -0.01728  0.02337  0.02441  -0.6014  0.4916
6.29e+09  -0.9286  0.2222  -0.01648  -0.009674  -0.01386  0.06139  -0.4083  0.6933
6.291e+09  -0.7605  0.5284  0.02297  0.0006348  -0.009499  0.03109  -0.131  0.7868
6.292e+09  -0.5022  0.7096  -0.01389  -0.01936  -0.006371  -0.009491  0.1259  0.7896
6.294e+09  -0.2066  0.9073  0.009555  -0.005933  0.009  -0.007153  0.4217  0.715
6.295e+09  0.1067  0.8976  0.03141  0.005334  0.004534  -0.009917  0.6021  0.5422
6.296e+09  0.3887  0.8276  0.02128  -0.01385  0.0197  -0.01335  0.7432  0.2995
6.298e+09  0.7464  0.6513  0.03015  0.0125  -0.02159  -0.04706  0.8338  0.03757
6.299e+09  0.8418  0.3393  0.009981  -0.00543  0.006213  0.02507  0.7818  -0.2339
6.3e+09  0.9169  0.05087  -0.002102  -0.005824  0.008155  0.02056  0.6623  -0.5622
6.301e+09  0.8689  -0.2822  -0.001726  0.02894  -0.02197  0.002489  0.4309  -0.7399
6.302e+09  0.7325  -0.568  0.0198  -0.01708  0.0578  -0.01346  0.1349  -0.8398
6.304e+09  0.4199  -0.8524  0.01357  -0.01661  -0.03099  -0.01788  -0.1342  -0.8301
6.305e+09  0.1413  -0.9408  -0.008651  -0.02366  0.01584  0.04562  -0.4483  -0.7052
6.306e+09  -0.1564  -0.9348  0.02445  -0.001791  0.01792  -0.03899  -0.6544  -0.5648
6.308e+09  -0.5047  -0.8377  0.003584  -0.0156  -0.03158  0.01828  -0.7768  -0.3023
6.309e+09  -0.708  -0.6449  -0.01033  0.00719  0.05028  0.01799  -0.8681  -0.02901
6.31e+09  -0.906  -0.2912  -0.01876  -0.005094  -0.03452  0.007908  -0.8218  0.297
6.311e+09  -0.9269  0.0548  0.01688  -0.02531  -0.04994  0.02345  -0.687  0.573
6.312e+09  -0.9183  0.3416  -0.004911  0.008717  0.02571  -0.0001134  -0.4397  0.7456
6.314e+09  -0.6976  0.6472  0.02179  0.01058  -0.008122  -0.04465  -0.1734  0.8224
6.315e+09  -0.3848  0.8461  -0.01081  -0.0284  -0.02028  0.02423  0.1415  0.8796
6.316e+09  -0.09018  0.926  -0.01617  0.007812  0.002556  -0.01919  0.4034  0.7508
6.318e+09  0.2005  0.9293  -0.01644  -0.006565  -0.02632  -0.001756  0.6786  0.5779
6.319e+09  0.5476  0.829  -0.004844  -0.02093  -0.0119  -0.04466  0.7914  0.3289
6.32e+09  0.7859  0.5715  -0.02629  0.01637  -0.03825  -0.0007584  0.8696  0.04818
6.321e+09  0.9468  0.2651  -0.01446  0.02489  0.002866  -0.03346  0.8352  -0.2874
6.322e+09  0.9903  -0.08978  0.00442  -0.03338  -0.06723  -0.001556  0.6692  -0.5321
6.324e+09  0.8831  -0.4383  0.009038  -0.01671  0.03759  -0.04433  0.4698  -0.7681
6.325e+09  0.6739  -0.7515  -0.01562  0.01829  -0.02133  0.02508  0.1619  -0.8503
6.326e+09  0.3788  -0.9579  -0.002814  -0.03347  0.007793  0.002812  -0.1276  -0.8976
6.328e+09  0.04882  -0.9849  -0.007653  -0.03302  0.004151  0.06079  -0.4415  -0.8017
6.329e+09  -0.3092  -0.9939  -0.002643  -0.02225  -0.02473  -0.01829  -0.69  -0.5983
6.33e+09  -0.6448  -0.7677  0.01554  -0.005825  0.01999  -0.003046  -0.825  -0.291
6.331e+09  -0.8738  -0.4925  0.005742  0.01291  -0.03021  0.00358  -0.9003  -0.03616
6.332e+09  -1.052  -0.1693  -0.007478  0.01065  0.05736  -0.03153  -0.8428  0.2552
6.334e+09  -0.9909  0.2399  -0.02034  0.01161  0.04209  0.05812  -0.6917  0.5623
6.335e+09  -0.9126  0.5491  0.007201  -0.02064  -0.01413  -0.02606  -0.5084  0.7389
6.336e+09  -0.6731  0.7936  0.003126  -0.0002793  0.03731  0.03608  -0.208  0.9327
6.338e+09  -0.3311  0.9849  0.03687  0.0115  0.007403  -0.03425  0.1255  0.9067
6.339e+09  0.06657  1.038  -0.002032  0.003859  -0.03661  -0.007877  0.4704  0.8243
6.34e+09  0.434  0.9626  0.01133  0.01565  -0.02111  -0.02722  0.6942  0.6311
6.341e+09  0.7275  0.7394  -0.01945  0.02171  -0.01509  0.005857  0.8375  0.3568
6.342e+09  0.9361  0.4007  -0.02157  0.02006  0.004643  -0.006962  0.9113  0.03951
6.344e+09  1.046  0.0792  -0.006587  -0.01708  0.01174  -0.0003329  0.8991  -0.2675
6.345e+09  0.9791  -0.2518  -0.02419  -0.000444  -0.04077  -0.02126  0.7648  -0.5797
6.346e+09  0.8044  -0.5748  0.02358  0.001728  0.02904  0.0116  0.5048  -0.7599
6.348e+09  0.5306  -0.9098  0.008399  -0.02195  0.02305  0.01649  0.1529  -0.9416
6.349e+09  0.182  -1.042  0.01074  0.005398  -0.004757  0.03818  -0.07615  -0.9352
6.35e+09  -0.2069  -1.031  0.0126  -0.01795  -0.002293  -0.04137  -0.4058  -0.8325
6.351e+09  -0.5113  -0.9238  -0.0191  -0.01999  -0.03833  0.007778  -0.6855  -0.6759
6.352e+09  -0.8197  -0.633  0.01718  -0.0254  0.01112  -0.03567  -0.8668  -0.3658
6.354e+09  -0.9997  -0.3018  -0.009307  0.02022  -0.01261  0.01352  -0.9275  -0.02597
6.355e+09  -1.056  0.07141  0.01917  0.03359  -0.00605  0.03013  -0.8998  0.2807
6.356e+09  -0.9715  0.3887  0.04321  0.02579  -0.0375  -0.03269  -0.763  0.5343
6.358e+09  -0.7996  0.7039  0.0007055  -0.03127  0.01993  0.06227  -0.5212  0.7981
6.359e+09  -0.4459  0.9276  0.01167  0.00728  -0.01672  -0.02847  -0.2447  0.9288
6.36e+09  -0.1114  1.056  0.01548  0.00225  0.02455  0.007204  0.08015  0.9511
6.361e+09  0.2592  0.9524  -0.008182  0.01158  0.008261  -0.02974  0.3893  0.8277
6.362e+09  0.5802  0.8422  -0.01567  0.04158  0.009639  -0.03059  0.6607  0.6585
6.364e+09  0.8995  0.6179  -0.0004683  0.003274  0.01348  -0.02405  0.8715  0.3965
6.365e+09  0.9855  0.2489  0.04077  0.001924  0.01411  -0.01284  0.95  0.08173
6.366e+09  1.02  -0.09218  0.005935  -0.02023  0.01107  -0.02733  0.8978  -0.263
6.368e+09  0.9385  -0.4444  -0.01343  0.009588  -0.05167  0.02515  0.8015  -0.5537
6.369e+09  0.6602  -0.7665  0.01571  -0.001059  0.02928  -0.01591  0.505  -0.7655
6.37e+09  0.378  -0.991  0.02572  -0.01469  0.01006  -0.04184  0.2356  -0.8792
6.371e+09  0.0159  -1.033  0.008582  -0.01433  0.002824  0.003759  -0.0594  -0.9493
6.372e+09  -0.3187  -0.9745  -0.005172  0.01961  0.02164  0.02286  -0.357  -0.8788
6.374e+09  -0.6173  -0.8019  0.04061  0.01751  0.002619  -0.01961  -0.6824  -0.6372
6.375e+09  -0.8246  -0.4775  0.01914  0.00417  -0.03092  0.01942  -0.8707  -0.4295
6.376e+09  -0.9955  -0.1469  0.01797  -0.0523  -0.02233  -0.04945  -0.9622  -0.0735
6.378e+09  -0.9942  0.1706  -0.02515  -0.01244  -0.01989  0.00458  -0.8967  0.2038
6.379e+09  -0.8861  0.4974  -0.0108  -0.008742  0.05616  0.01321  -0.8112  0.5378
6.38e+09  -0.5945  0.7867  0.005342  7.46e-05  -0.006208  -0.000406  -0.5345  0.751
6.381e+09  -0.3382  0.9327  -0.00745  0.02752  0.01671  -0.02191  -0.2513  0.9145
6.382e+09  0.01213  0.993  0.03718  0.004043  -0.02808  0.00415  0.07056  0.9566
6.384e+09  0.3262  0.9248  0.03593  -0.03243  0.00763  -0.01291  0.3399  0.8494
6.385e+09  0.6284  0.7442  -0.02824  0.004849  0.03845  -0.01001  0.6388  0.6526
6.386e+09  0.8471  0.4629  0.03931  -0.02074  0.004918  0.002235  0.838  0.4167
6.388e+09  0.9732  0.1888  0.03137  0.002838  0.04407  -0.004994  0.9059  0.1448
6.389e+09  0.9858  -0.219  -0.03413  0.004423  0.05123  -0.0006191  0.8609  -0.2
6.39e+09  0.8321  -0.5443  -0.0006039  0.02511  0.01986  0.01282  0.7529  -0.5137
6.391e+09  0.6084  -0.8137  0.0183  0.002162  0.02648  0.0179  0.5442  -0.7017
6.392e+09  0.3241  -0.923  -0.03354  -0.02101  -0.0279  0.009489  0.2869  -0.9118
6.394e+09  -0.05017  -0.9743  -0.00422  -0.01373  0.004569  0.005463  -0.01575  -0.8983
6.395e+09  -0.3938  -0.9231  0.0006622  0.01474  0.03617  -0.0186  -0.3824  -0.8426
6.396e+09  -0.665  -0.7075  0.01846  0.01996  -0.01537  -0.001443  -0.6164  -0.6905
6.398e+09  -0.888  -0.4448  -0.0001146  0.04017  0.01232  0.003849  -0.8282  -0.4176
6.399e+09  -0.9818  -0.1291  0.0009636  0.04076  0.01511  -0.03803  -0.9369  -0.1279
6.4e+09  -0.9527  0.2244  -0.02021  -0.004943  -0.06579  -0.05698  -0.8832  0.1459
6.401e+09  -0.8248  0.5371  -0.00861  0.02453  0.007808  -0.03499  -0.816  0.438
6.402e+09  -0.5968  0.7884  0.01985  -0.04477  -0.02871  0.02841  -0.6162  0.6995
6.404e+09  -0.2206  0.8998  -0.002487  -0.02322  -0.003306  0.01835  -0.2965  0.8647
6.405e+09  0.06751  0.944  -0.00781  -0.02659  -0.001754  -0.002327  -0.008269  0.9366
6.406e+09  0.3704  0.8594  -0.02956  0.0229  0.02559  0.0147  0.2722  0.8554
6.408e+09  0.6533  0.7251  0.007466  0.02188  -0.05786  -0.03275  0.5965  0.7076
6.409e+09  0.9009  0.4141  -0.0001001  0.01548  0.01259  0.002248  0.7752  0.4607
6.41e+09  0.9537  0.09232  0.02128  -0.001173  -0.0147  0.004821  0.8515  0.2091
6.411e+09  0.9431  -0.2416  0.02946  0.02821  0.006402  -0.03742  0.8539  -0.1504
6.412e+09  0.7701  -0.5075  0.01704  0.001926  0.01263  0.01101  0.7733  -0.3645
6.414e+09  0.5511  -0.8342  0.01781  -0.03536  -0.003564  -0.006012  0.6158  -0.6835
6.415e+09  0.2695  -0.9357  0.01551  -0.002395  -0.02274  -0.03709  0.3043  -0.8425
6.416e+09  -0.1009  -0.9278  -0.01073  0.007415  0.0255  -0.04597  0.04162  -0.9592
6.418e+09  -0.4502  -0.8939  0.002315  -0.04121  0.03814  0.0146  -0.2873  -0.8587
6.419e+09  -0.6761  -0.7625  0.04009  -0.01771  -0.01573  -0.054  -0.5311  -0.749
6.42e+09  -0.8881  -0.365  -0.01305  -0.04928  -0.02001  -0.03005  -0.7308  -0.4749
6.421e+09  -0.9742  -0.05244  0.05148  -0.004135  -0.03964  -0.02506  -0.8513  -0.2175
6.422e+09  -0.9255  0.3017  0.03516  0.01975  0.03325  -0.05683  -0.8835  0.1516
6.424e+09  -0.7608  0.6075  0.03307  0.02933  0.02166  -0.04958  -0.7511  0.3869
6.425e+09  -0.4983  0.8735  0.01116  0.02309  0.01817  -0.01852  -0.629  0.6783
6.426e+09  -0.214  0.9424  0.01008  0.007099  0.03824  -0.01683  -0.3424  0.7978
6.428e+09  0.1099  1.031  -0.007734  0.02027  -0.006597  -0.01744  -0.07205  0.8496
6.429e+09  0.4488  0.8894  -0.008354  -0.03397  -0.03524  -0.0531  0.2304  0.8213
6.43e+09  0.7627  0.6786  0.01069  -0.003463  -0.03966  0.001429  0.5068  0.7397
6.431e+09  0.9155  0.3807  -0.007037  0.01414  -0.03259  0.006452  0.7426  0.4781
6.432e+09  0.98  0.02112  0.00934  0.003979  -0.009025  -0.01613  0.8706  0.2144
6.434e+09  0.9217  -0.3416  0.0225  0.05531  0.00508  0.01266  0.9051  -0.06543
6.435e+09  0.7658  -0.6097  -0.006784  -0.02608  0.02336  -0.02454  0.7863  -0.373
6.436e+09  0.5287  -0.8222  -0.008124  0.03178  0.009242  0.03123  0.5709  -0.6242
6.438e+09  0.1746  -1.008  0.01818  -0.01442  0.06275  0.01352  0.3453  -0.7827
6.439e+09  -0.1535  -0.965  -0.004805  -0.01729  0.02923  -0.04333  0.1164  -0.8539
6.44e+09  -0.5168  -0.8884  -0.02716  -0.0214  0.05399  -0.01784  -0.2033  -0.8029
6.441e+09  -0.7183  -0.6338  -0.02248  -0.0212  -0.01058  -0.01535  -0.4751  -0.7187
6.442e+09  -0.9977  -0.2838  -0.005874  0.004979  -0.02653  -0.03235  -0.6544  -0.4688
6.444e+09  -1  0.01237  -0.01129  0.00695  0.01333  0.03431  -0.8303  -0.1943
6.445e+09  -0.9512  0.3051  0.01434  -0.02506  -0.009511  0.005079  -0.826  0.09955
6.446e+09  -0.7844  0.68  -0.01284  -0.04411  -0.009559  -0.0105  -0.7844  0.3646
6.448e+09  -0.4726  0.925  0.008703  -0.01117  0.007586  -0.00459  -0.608  0.6144
6.449e+09  -0.1278  0.9736  -0.02565  -0.008579  0.03271  -0.005549  -0.3457  0.7153
6.45e+09  0.2167  1.002  -0.0535  0.02637  0.02831  -0.02416  -0.05747  0.8578
6.451e+09  0.6302  0.8472  -0.03089  0.01055  0.009347  0.00173  0.2034  0.8329
6.452e+09  0.79  0.6018  -0.001952  -0.009806  0.002233  0.02918  0.5014  0.6334
6.454e+09  1.028  0.2886  -0.007092  -0.0179  0.02817  -0.003063  0.7149  0.4789
6.455e+09  1.05  -0.05461  0.01109  -0.03684  -0.02425  0.03443  0.82  0.2171
6.456e+09  1.002  -0.4312  -0.03247  -0.02818  0.01999  0.007368  0.8064  -0.105
6.458e+09  0.688  -0.7124  0.000632  0.01415  -0.01257  0.07341  0.7686  -0.3298
6.459e+09  0.473  -1.009  -0.01657  0.03347  0.009906  -0.007644  0.5601  -0.5794
6.46e+09  0.04089  -1.038  0.008818  0.002181  0.0186  0.03911  0.3307  -0.774
6.461e+09  -0.311  -1.031  -0.01747  0.02621  -0.04711  -0.01032  0.06817  -0.8169
6.462e+09  -0.6306  -0.8461  -0.03304  0.0189  0.006082  -0.00521  -0.1965  -0.8037
6.464e+09  -0.9375  -0.5169  -0.01676  -0.01872  -0.0106  -0.05142  -0.5152  -0.6374
6.465e+09  -1.038  -0.2429  -0.03927  0.004838  -0.008863  -0.02123  -0.6657  -0.4473
6.466e+09  -1.077  0.1616  0.0008532  0.02421  -0.02421  -0.01622  -0.7556  -0.2308
6.468e+09  -0.9418  0.511  -0.008784  0.002185  -0.01589  -0.007826  -0.8259  0.02346
6.469e+09  -0.6765  0.8228  -0.007568  0.01092  -0.0212  -0.0246  -0.7341  0.344
6.47e+09  -0.3823  1.049  -0.009285  -0.03612  -0.03238  -0.04718  -0.5552  0.5177
6.471e+09  0.02404  1.056  -0.02005  0.0337  0.02986  0.0498  -0.3025  0.7293
6.472e+09  0.3551  1.055  -0.02112  -0.01631  -0.04999  0.02759  -0.08631  0.7854
6.474e+09  0.7431  0.829  0.02992  -0.01441  -0.004949  0.01257  0.2083  0.7942
6.475e+09  0.9785  0.5549  0.01437  0.01492  -0.006334  -0.005439  0.4767  0.6308
6.476e+09  1.101  0.1723  0.0189  0.0006109  0.03117  0.04008  0.6443  0.429
6.478e+09  1.048  -0.2431  0.02681  0.02704  -0.02809  0.00517  0.7622  0.2185
6.479e+09  0.8817  -0.5856  0.01163  -0.02053  0.007443  -0.02007  0.7906  -0.04058
6.48e+09  0.6625  -0.8914  -0.04124  0.01847  0.02454  0.02492  0.684  -0.314
6.481e+09  0.2336  -1.049  0.008822  0.01578  0.02794  0.01222  0.5238  -0.6081
6.482e+09  -0.1453  -1.152  -0.009627  -0.03706  -0.01466  -0.037  0.334  -0.7056
6.484e+09  -0.5402  -0.9722  -0.0193  0.00345  0.03333  0.01194  0.0256  -0.7699
6.485e+09  -0.8172  -0.7619  -0.05572  -0.009063  -0.03229  -0.01089  -0.2023  -0.7344
6.486e+09  -1.076  -0.4071  0.001665  0.0319  0.05887  -0.02396  -0.4591  -0.6007
6.488e+09  -1.778  0.1592  -0.02243  -0.01783  -0.2181  -0.7227  -0.6432  -0.4296
6.489e+09  -1.044  0.3494  0.0006626  -0.001826  -0.02659  0.004176  -0.7314  -0.2231
6.49e+09  -0.821  0.6745  -0.01908  0.03314  -0.01116  0.004668  -0.7819  0.06921
6.491e+09  -0.5313  1.014  -0.03413  -0.00864  0.0336  -0.03533  -0.6718  0.3548
6.492e+09  -0.1586  1.082  0.008699  -0.01228  -0.01968  0.04083  -0.4953  0.5315
6.494e+09  0.2134  1.042  -0.001135  -0.01739  0.05597  0.09152  -0.2967  0.6451
6.495e+09  0.6451  0.9776  -0.01034  0.006091  0.05155  0.02153  -0.08112  0.7532
6.496e+09  0.8933  0.5808  -0.0222  0.001396  0.0125  -0.05867  0.2383  0.7381
6.498e+09  1.07  0.2707  0.006191  0.02124  5.168e-05  0.01157  0.4666  0.6076
6.499e+09  1.107  -0.09058  -0.01018  0.02545  0.0435  0.05534  0.6581  0.3775
6.5e+09  1.364  -0.8955  -0.02055  -0.009765  -0.007086  -0.01662  0.747  0.1849
6.501e+09  0.7504  -0.8331  -0.02117  0.01469  0.04836  -0.02563  0.7575  -0.08241
6.502e+09  0.4202  -1.046  0.01397  0.01574  0.01093  -0.004129  0.7186  -0.3349
6.504e+09  -0.0007187  -1.029  -0.03922  0.008447  0.01383  0.01036  0.4796  -0.5297
6.505e+09  -0.3908  -1.049  0.01634  -0.01696  0.02364  0.01789  0.2849  -0.6915
6.506e+09  -0.7546  -0.8601  0.005037  0.03644  0.02385  0.0004808  0.02379  -0.7441
6.508e+09  -0.9442  -0.4979  0.01819  0.01468  -0.01453  0.003827  -0.2269  -0.7106
6.509e+09  -1.083  -0.167  0.01614  0.01427  0.002901  -0.04587  -0.462  -0.585
6.51e+09  -1.033  0.2539  -0.01828  0.01929  -0.01426  0.00208  -0.6651  -0.3844
6.511e+09  -0.9193  0.6324  -0.02403  0.02899  0.02207  -0.03121  -0.7592  -0.1015
6.512e+09  -0.6257  0.8889  -0.003286  0.005597  3.058e-05  -0.0418  -0.7637  0.0937
6.514e+09  -0.2222  1.02  -0.02074  0.002984  -0.04369  -0.02235  -0.623  0.3286
6.515e+09  0.1218  1.06  0.04912  -0.009076  0.0413  -0.01022  -0.4814  0.5861
6.516e+09  0.5439  0.9621  0.009022  0.004404  -0.02083  0.02543  -0.2238  0.7055
6.518e+09  0.7805  0.7092  0.004451  0.01536  0.0229  0.03349  0.01429  0.7162
6.519e+09  1.027  0.315  -0.02378  0.004679  0.04139  0.01274  0.2691  0.7247
6.52e+09  1.094  -0.04392  -0.00935  0.02176  0.004992  0.02904  0.4948  0.5285
6.521e+09  0.9633  -0.3821  0.006769  -0.02212  -0.03436  0.0271  0.6711  0.3041
6.522e+09  0.77  -0.7244  0.03594  0.02105  0.02404  -0.04555  0.7402  0.123
6.524e+09  0.4692  -0.9376  -0.006034  -0.00474  0.03383  0.02805  0.7291  -0.1726
6.525e+09  0.1017  -1.033  0.003634  0.00426  0.04604  -0.01411  0.6274  -0.3984
6.526e+09  -0.3013  -1.003  -0.03015  0.01855  -0.01938  0.01679  0.4205  -0.5605
6.528e+09  -0.5868  -0.8399  -0.01381  0.01952  0.01455  0.01778  0.2014  -0.7019
6.529e+09  -0.8669  -0.5481  0.008186  0.009656  -0.01987  -0.0005329  -0.04796  -0.7387
6.53e+09  -1.072  -0.1882  0.002481  -0.001261  -0.005285  -0.01596  -0.2706  -0.618
6.531e+09  -0.9887  0.1815  0.001  0.00142  -0.05435  0.02955  -0.4716  -0.4986
6.532e+09  -0.8542  0.4882  -0.002346  0.004639  0.009312  0.02515  -0.5831  -0.3017
6.534e+09  -0.5792  0.8204  -0.006352  0.009076  0.02956  0.01506  -0.6038  -0.06448
6.535e+09  -0.2937  0.9753  0.01579  0.01573  0.0352  -0.03943  -0.6244  0.1061
6.536e+09  0.05609  1.002  -0.01015  -0.02413  0.02788  0.06294  -0.5482  0.2873
6.538e+09  0.3871  0.8434  0.01528  0.008758  -0.01531  -0.04615  -0.4701  0.4732
6.539e+09  0.692  0.6721  -0.01377  -0.0001957  0.02486  0.008952  -0.264  0.6429
6.54e+09  0.8929  0.3757  -0.01582  0.008459  -0.01461  0.02513  -0.0797  0.6558
6.541e+09  0.9526  0.04897  -0.001211  -0.01442  0.03497  -0.01256  0.2148  0.6817
6.542e+09  0.9802  -0.2869  0.006951  0.004823  0.003746  -0.04085  0.4044  0.557
6.544e+09  0.7299  -0.5926  -0.01574  -0.02823  -0.004729  -0.002548  0.5649  0.4278
6.545e+09  0.4681  -0.8303  -0.003043  0.02155  0.02227  -0.01591  0.6838  0.1471
6.546e+09  0.2204  -0.8945  0.05034  -0.03168  0.006048  -0.01259  0.7603  -0.09786
6.548e+09  -0.1662  -0.9158  -0.01171  -0.01535  0.01885  0.023  0.664  -0.3486
6.549e+09  -0.4819  -0.7864  -0.01085  0.009815  0.05924  -0.04714  0.5016  -0.5059
6.55e+09  -0.7036  -0.5861  0.003568  0.02209  0.01507  -0.03134  0.2626  -0.6945
6.551e+09  -0.8984  -0.2148  0.04422  0.03506  0.01679  0.03055  0.02803  -0.7407
