# Hz S RI R 50
6.25e+09  -0.1529  0.8889  0.02465  -0.02762  0.06958  0.01004  0.1397  0.4919
6.251e+09  0.1274  0.8055  -0.001842  -0.02619  0.02178  0.01632  0.382  0.408
6.252e+09  0.4058  0.7046  0.01113  -0.01994  -0.02246  0.02177  0.5008  0.2413
6.254e+09  0.6067  0.5681  0.03359  -0.00676  0.04038  0.0231  0.5977  0.003884
6.255e+09  0.8262  0.2899  -0.009237  0.004739  0.007404  0.03839  0.577  -0.2108
6.256e+09  0.8402  0.0003606  0.004597  -0.003841  -0.02524  0.03213  0.485  -0.4665
6.258e+09  0.7617  -0.222  -0.01771  0.002797  0.03907  -0.03986  0.3043  -0.6067
6.259e+09  0.6451  -0.5504  0.01352  -0.007642  -0.02826  0.00744  0.07709  -0.6453
6.26e+09  0.3927  -0.7834  0.008406  -0.01721  -0.04452  -0.01294  -0.2231  -0.6508
6.261e+09  0.1688  -0.8393  0.0146  -0.003366  -0.001326  0.02789  -0.4146  -0.5594
6.262e+09  -0.1448  -0.8109  0.02084  -0.0004061  0.04008  0.009946  -0.6115  -0.3537
6.264e+09  -0.457  -0.7324  0.002568  0.0118  -0.01201  -0.009597  -0.7182  -0.1351
6.265e+09  -0.6731  -0.5657  -0.01713  0.01119  0.008548  -0.03192  -0.7143  0.1536
6.266e+09  -0.7754  -0.287  -0.03813  0.02895  -0.02256  0.02026  -0.5817  0.4054
6.268e+09  -0.8148  0.06335  -0.01183  0.02932  -0.07892  -0.0008009  -0.409  0.5574
6.269e+09  -0.743  0.3136  0.02965  -0.02167  0.02404  0.008192  -0.2091  0.7192
6.27e+09  -0.6341  0.603  0.0003926  -0.01797  -0.001674  0.07363  0.07501  0.7202
6.271e+09  -0.4218  0.7386  0.01087  -0.01405  0.02545  0.03749  0.3119  0.6495
6.272e+09  -0.1334  0.8052  0.01306  -0.01746  -0.02834  0.01203  0.536  0.5002
6.274e+09  0.1665  0.8166  0.01278  0.01499  0.01578  0.04338  0.6869  0.3203
6.275e+09  0.4076  0.667  -0.007337  0.04121  0.01935  -0.01817  0.7459  0.0404
6.276e+09  0.7109  0.4858  -0.01305  -0.01036  -0.03036  0.02575  0.71  -0.2372
6.278e+09  0.7934  0.2629  -0.01036  -0.008134  -0.02589  0.01241  0.5921  -0.4442
6.279e+09  0.829  -0.07403  -0.03163  0.0008216  -0.02106  -0.01231  0.4134  -0.6589
6.28e+09  0.7855  -0.3171  0.02118  -0.02536  0.009862  -0.01381  0.1824  -0.7307
6.281e+09  0.5759  -0.5682  -0.0002077  -0.02102  -0.03366  0.06724  -0.09208  -0.7649
6.282e+09  0.3364  -0.7826  -0.02281  0.001433  0.04707  0.02512  -0.3823  -0.655
6.284e+09  0.08446  -0.8413  0.002192  0.02554  0.02218  0.01452  -0.5773  -0.4792
6.285e+09  -0.1676  -0.8586  0.008221  0.01816  -0.02781  -0.03885  -0.7256  -0.253
6.286e+09  -0.4946  -0.6695  0.009778  -0.01076  0.03576  0.009822  -0.7414  0.01707
6.288e+09  -0.6719  -0.4262  0.006329  0.005239  0.01673  0.03597  -0.7664  0.2365
6.289e+09  -0.757  -0.2309  -0.007318  0.01158  0.03598  -0.006076  -0.6263  0.509
6.29e+09  -0.8628  0.1214  -0.008135  -0.01573  0.02551  -0.06773  -0.4401  0.7083
6.291e+09  -0.7183  0.3774  0.00573  0.04227  -0.002443  0.04363  -0.1795  0.7995
6.292e+09  -0.5664  0.6259  -0.01565  0.0005581  -0.01289  0.03981  0.1256  0.7994
6.294e+09  -0.3616  0.7487  -0.01137  -0.005827  -0.01865  -0.02178  0.3627  0.7195
6.295e+09  -0.06291  0.8643  0.02107  -0.008647  0.02663  -0.01549  0.6144  0.5087
6.296e+09  0.2652  0.7196  -0.001867  -0.0128  -0.05718  0.01966  0.7467  0.3047
6.298e+09  0.5742  0.6718  0.01048  0.006327  0.004328  0.01066  0.8194  0.007902
6.299e+09  0.6841  0.4419  0.01462  0.01159  0.03477  -0.01483  0.7858  -0.2661
6.3e+09  0.827  0.1767  -0.03208  -0.00301  0.0148  0.0131  0.6377  -0.5436
6.301e+09  0.8352  -0.1082  0.00743  0.0004084  0.01501  -0.01071  0.4348  -0.7213
6.302e+09  0.7171  -0.4529  0.03093  0.01171  0.0009164  -0.007957  0.136  -0.8501
6.304e+09  0.5115  -0.6103  -0.02129  0.002991  -0.03052  -0.02293  -0.1738  -0.8596
6.305e+09  0.2965  -0.7693  -0.02911  -0.014  -0.01557  -0.04609  -0.3982  -0.7554
6.306e+09  -0.01845  -0.8678  0.01729  0.002184  0.02554  0.0008624  -0.6369  -0.5488
6.308e+09  -0.2831  -0.8481  -0.01127  0.004404  -0.002499  0.02156  -0.8029  -0.3009
6.309e+09  -0.5445  -0.6533  -0.004085  -0.004108  -0.04742  0.01238  -0.8748  -0.01376
6.31e+09  -0.7244  -0.4269  0.02368  0.01275  -0.0271  -0.01413  -0.798  0.2924
6.311e+09  -0.7544  -0.1006  0.01248  -0.01037  0.01364  0.01136  -0.6713  0.5447
6.312e+09  -0.8551  0.1802  -0.02592  -0.00726  0.001612  -0.002402  -0.4335  0.7076
6.314e+09  -0.7211  0.4672  0.01776  -0.001198  -0.01053  -0.03183  -0.1606  0.8763
6.315e+09  -0.5187  0.6867  -0.001518  0.03639  -0.03301  0.02862  0.1431  0.8417
6.316e+09  -0.3069  0.818  -0.0004301  -0.008778  0.009549  0.003078  0.4244  0.7569
6.318e+09  0.05068  0.8552  -0.01573  -0.004492  -0.006851  -0.01556  0.674  0.5572
6.319e+09  0.3286  0.8143  0.01587  -0.004996  -0.005596  0.0356  0.843  0.3171
6.32e+09  0.5461  0.6208  -0.0009424  0.002463  0.03924  0.04034  0.8906  -0.01593
6.321e+09  0.8478  0.347  0.005701  -0.0004735  0.0164  0.01893  0.8143  -0.2725
6.322e+09  0.8338  0.1236  0.01301  -0.005953  0.04724  -0.01198  0.6978  -0.5585
6.324e+09  0.8249  -0.188  0.03738  0.0134  0.02434  -0.001313  0.4868  -0.766
6.325e+09  0.7311  -0.4987  0.01091  -0.01737  -0.01947  0.01394  0.1691  -0.8795
6.326e+09  0.473  -0.6996  0.009272  0.02438  0.02326  0.01642  -0.1258  -0.8681
6.328e+09  0.2644  -0.7806  0.02496  -0.007581  0.004323  0.04533  -0.4181  -0.7904
6.329e+09  -0.08057  -0.8457  0.007307  -0.02253  0.06155  -0.01208  -0.683  -0.5953
6.33e+09  -0.3997  -0.7973  0.0218  -0.006016  -0.0106  -0.03792  -0.8273  -0.3342
6.331e+09  -0.606  -0.5949  -0.01084  0.006319  -0.03037  -0.002755  -0.9258  -0.0279
6.332e+09  -0.8187  -0.3271  -0.00593  -0.02489  -0.02691  0.003229  -0.8627  0.2907
6.334e+09  -0.8545  -0.01945  -0.02086  -0.005206  -0.005693  0.008109  -0.7156  0.5667
6.335e+09  -0.8263  0.2769  -0.009069  0.01799  -0.01414  -0.0287  -0.5033  0.7423
6.336e+09  -0.714  0.5712  0.01172  -0.0348  -0.008571  -0.002653  -0.1699  0.9045
6.338e+09  -0.4723  0.7475  0.01049  -0.0003677  0.009417  0.0116  0.1237  0.9077
6.339e+09  -0.167  0.8923  -0.02793  -0.001044  0.007698  -0.01516  0.4331  0.8524
6.34e+09  0.1681  0.8534  0.01386  0.03955  -0.02908  -0.02188  0.6752  0.6369
6.341e+09  0.417  0.72  -0.001073  0.02366  -0.04064  0.03361  0.8506  0.3875
6.342e+09  0.6756  0.5415  -0.01529  -0.005412  -0.01708  0.00946  0.9218  0.05592
6.344e+09  0.7444  0.2723  0.01973  0.01302  -0.01515  0.05536  0.907  -0.2824
6.345e+09  0.903  -0.01894  0.02243  0.01281  -0.01474  -0.01729  0.7338  -0.5503
6.346e+09  0.7842  -0.2832  -0.0312  -0.009643  -0.03377  0.02296  0.5031  -0.7809
6.348e+09  0.6823  -0.5473  -0.01343  0.0149  0.05427  0.003293  0.25  -0.9192
6.349e+09  0.449  -0.7659  -0.02408  0.01553  -0.02113  -0.008723  -0.09443  -0.9201
6.35e+09  0.1313  -0.869  0.01376  -0.01779  -0.002479  -0.03145  -0.4206  -0.8581
6.351e+09  -0.2032  -0.8454  0.02908  -0.009478  0.01163  -8.152e-05  -0.6593  -0.6361
6.352e+09  -0.5102  -0.7477  0.004281  -0.0188  -0.02123  0.01212  -0.852  -0.3946
6.354e+09  -0.6978  -0.5001  -0.00829  0.05198  0.003933  0.00718  -0.9052  -0.07974
6.355e+09  -0.87  -0.242  -0.01735  -0.01037  -0.02661  0.05258  -0.9286  0.2841
6.356e+09  -0.8923  0.1204  -0.002297  0.04038  0.0212  0.002332  -0.7637  0.5668
6.358e+09  -0.7956  0.3792  0.00308  -0.03824  0.01911  0.007475  -0.5327  0.7931
6.359e+09  -0.6222  0.5868  0.02598  -0.04339  0.01741  0.02566  -0.2553  0.9105
6.36e+09  -0.3651  0.8139  -0.005581  0.02492  -0.04817  0.006246  0.08913  0.9093
6.361e+09  -0.0493  0.8729  0.02002  0.01448  -0.003573  -0.02224  0.4564  0.8701
6.362e+09  0.2183  0.8315  0.004976  -0.003768  -0.01912  -0.02412  0.6999  0.6354
6.364e+09  0.5505  0.6632  0.04799  0.02405  -0.07136  -0.001735  0.829  0.419
6.365e+09  0.7336  0.4567  0.02775  -0.0173  -0.03314  -0.02129  0.9106  0.08165
6.366e+09  0.8332  0.1627  -0.01733  0.02046  -0.04669  0.02481  0.955  -0.232
6.368e+09  0.8711  -0.1035  -0.01454  0.01529  -0.03094  0.0101  0.827  -0.5356
6.369e+09  0.767  -0.4018  -0.02325  0.0158  -0.01773  -0.02916  0.547  -0.7998
6.37e+09  0.5643  -0.6535  -0.004906  0.01173  0.02125  0.01765  0.2765  -0.9115
6.371e+09  0.3665  -0.8586  0.01124  -0.04033  -0.0009142  0.01428  -0.09726  -0.9404
6.372e+09  0.01028  -0.9059  0.0137  -0.005192  -0.02438  -0.05749  -0.4264  -0.864
6.374e+09  -0.35  -0.7994  -0.05117  0.02135  0.008144  -0.01374  -0.6632  -0.6784
6.375e+09  -0.6066  -0.6778  0.04136  0.02749  -0.05001  -0.03958  -0.8297  -0.4375
6.376e+09  -0.7823  -0.4115  0.001962  0.005254  0.02518  0.01211  -0.9759  -0.1197
6.378e+09  -0.8804  -0.1699  -0.03138  0.01005  -0.005935  0.0478  -0.9462  0.2528
6.379e+09  -0.8343  0.1521  -0.04341  0.004254  0.04039  0.02206  -0.7677  0.5267
6.38e+09  -0.7518  0.461  -0.002074  0.01079  0.0314  -0.005163  -0.5405  0.8055
6.381e+09  -0.5829  0.6716  -0.006773  -0.02391  -0.01159  -0.01248  -0.2609  0.8993
6.382e+09  -0.2547  0.8419  -0.01781  0.02873  0.005678  -0.03238  0.1145  0.9259
6.384e+09  0.01045  0.8475  0.002383  0.01411  -0.0503  -0.002848  0.3847  0.8657
6.385e+09  0.3224  0.811  0.02918  -0.02307  -0.02128  -0.01338  0.6352  0.6562
6.386e+09  0.5524  0.6466  0.03727  0.02491  -0.02196  -0.009584  0.8297  0.3776
6.388e+09  0.7885  0.4184  0.002161  -0.006076  -0.005947  -0.01745  0.9238  0.1392
6.389e+09  0.8937  0.1463  -0.0165  -0.001888  0.003955  0.01089  0.9001  -0.2254
6.39e+09  0.8264  -0.2124  0.03421  -0.001589  -0.02562  0.009332  0.7784  -0.5276
6.391e+09  0.7449  -0.4556  0.001528  0.01251  0.0253  -0.0223  0.5587  -0.7261
6.392e+09  0.5327  -0.6973  0.01641  0.02787  -0.04052  -0.01693  0.2743  -0.9042
6.394e+09  0.2336  -0.8837  0.006488  -0.01168  0.004278  0.008406  -0.01101  -0.9074
6.395e+09  -0.06092  -0.9131  -0.02182  0.01193  0.004798  0.02906  -0.3245  -0.8608
6.396e+09  -0.3188  -0.7921  -0.04408  -0.005172  -0.008102  -0.01143  -0.5961  -0.6919
6.398e+09  -0.5865  -0.652  -0.006074  -0.02471  -0.02966  0.007547  -0.8069  -0.4289
6.399e+09  -0.7865  -0.3907  0.01235  -0.02517  -0.008702  0.009854  -0.9289  -0.161
6.4e+09  -0.8386  -0.1158  0.005283  0.02263  0.01769  -0.009297  -0.8902  0.1604
6.401e+09  -0.7996  0.1804  0.02823  0.01513  0.03619  -0.04641  -0.8211  0.4339
6.402e+09  -0.7261  0.5041  0.008345  0.01445  0.01392  0.02196  -0.5948  0.6435
6.404e+09  -0.51  0.7115  0.03582  -0.007779  0.01751  -0.003562  -0.2893  0.8644
6.405e+09  -0.2123  0.8577  -0.0157  0.02983  0.007553  0.02796  0.005241  0.9164
6.406e+09  0.02305  0.822  -0.02574  -0.01024  0.02688  0.01899  0.3182  0.8517
6.408e+09  0.3495  0.7749  0.05571  -0.009953  -0.04568  0.03802  0.5609  0.7078
6.409e+09  0.5975  0.6104  -0.0003551  -0.03888  0.009387  0.01259  0.7858  0.4833
6.41e+09  0.785  0.3525  0.02203  -0.008883  0.01417  -0.02448  0.8889  0.1607
6.411e+09  0.858  0.1162  -0.01434  0.01882  0.002004  -0.02273  0.9157  -0.1467
6.412e+09  0.8354  -0.2539  0.04914  0.01693  0.03463  0.02018  0.8309  -0.4186
6.414e+09  0.7171  -0.4752  0.004171  0.01372  -0.03962  -0.0275  0.5955  -0.6837
6.415e+09  0.4975  -0.7237  -0.003963  -0.001005  0.008043  -0.02593  0.3511  -0.8365
6.416e+09  0.246  -0.8741  0.01767  0.03254  0.01518  0.0254  0.09142  -0.9155
6.418e+09  -0.04431  -0.8812  0.02338  -0.01603  0.04887  -0.02  -0.2159  -0.8357
6.419e+09  -0.3481  -0.8002  -0.03994  -0.03957  0.02305  0.01736  -0.5614  -0.6709
6.42e+09  -0.6298  -0.6252  -0.02145  -0.02942  -0.00369  -0.02049  -0.7624  -0.4486
6.421e+09  -0.8345  -0.3085  -0.00328  -0.01219  -0.01007  -0.0007488  -0.8547  -0.2286
6.422e+09  -0.9039  -0.03567  0.07262  0.06256  -0.04346  0.03475  -0.8771  0.09753
6.424e+09  -0.8409  0.1967  2.117e-05  -0.002053  -0.00492  -0.006935  -0.7775  0.3771
6.425e+09  -0.7039  0.5123  0.01634  0.03823  0.06424  0.01285  -0.5893  0.6326
6.426e+09  -0.5052  0.7145  -0.01939  0.02869  -0.01718  -0.02575  -0.3507  0.7905
6.428e+09  -0.1954  0.8546  -0.01359  0.02839  0.02656  0.05579  -0.06095  0.8618
6.429e+09  0.0878  0.9031  0.0421  0.002305  -0.04511  -0.009194  0.2715  0.8197
6.43e+09  0.3862  0.7806  0.004402  0.009178  -0.06045  -0.03908  0.5054  0.7286
6.431e+09  0.6506  0.5978  -0.04144  -0.0156  -0.04163  0.04307  0.687  0.4366
6.432e+09  0.826  0.3243  -0.01297  -0.04025  0.02447  -0.06849  0.7863  0.2175
6.434e+09  0.8215  -0.0142  0.03578  0.01751  -0.009226  -0.004521  0.8729  -0.1051
6.435e+09  0.8564  -0.3056  -0.0246  0.01169  -0.02565  -0.009914  0.7685  -0.3741
6.436e+09  0.6557  -0.4865  -0.02559  0.0314  -0.00337  -0.02404  0.5903  -0.615
6.438e+09  0.4736  -0.7218  -0.0473  -0.009658  0.01765  0.01566  0.3563  -0.7931
6.439e+09  0.144  -0.834  -0.004681  -0.06262  0.051  -0.0037  0.07932  -0.875
6.44e+09  -0.1377  -0.8884  0.03214  -0.06089  0.03091  0.004301  -0.2391  -0.8065
6.441e+09  -0.4006  -0.7628  -0.01933  -0.003178  -0.03335  0.01682  -0.4954  -0.7022
6.442e+09  -0.6421  -0.5872  0.03354  -0.03074  0.0135  0.01364  -0.7063  -0.48
6.444e+09  -0.8039  -0.3132  -0.0318  -0.04462  -0.01471  0.01766  -0.863  -0.183
6.445e+09  -0.874  0.009881  -0.008116  -0.01328  0.006113  0.01267  -0.8245  0.09971
6.446e+09  -0.8739  0.2722  0.02488  -0.008328  0.03787  -0.0128  -0.72  0.3663
6.448e+09  -0.6485  0.5674  0.002587  0.001641  0.01469  0.006771  -0.5631  0.6289
6.449e+09  -0.4118  0.7658  0.0195  0.02388  -0.02245  0.02823  -0.3574  0.7498
6.45e+09  -0.1314  0.8905  -0.03464  -0.0004799  0.06871  0.02871  -0.09325  0.8405
6.451e+09  0.1451  0.8456  0.01583  0.008246  -0.01194  -0.005268  0.1831  0.8006
6.452e+09  0.4476  0.7427  -0.001221  -0.00659  0.01711  0.003603  0.4902  0.6811
6.454e+09  0.7152  0.5572  0.009593  -0.01302  0.02999  0.02769  0.6434  0.4707
6.455e+09  0.7794  0.3105  -0.04427  -0.00567  0.02724  0.02006  0.7828  0.1959
6.456e+09  0.902  0.01911  -0.007841  0.02498  -0.02356  0.02199  0.8382  -0.04743
6.458e+09  0.8485  -0.291  0.0287  0.007123  0.0232  -0.01883  0.745  -0.3564
6.459e+09  0.7129  -0.5826  0.01049  -0.003955  -0.02662  -0.02233  0.5983  -0.626
6.46e+09  0.4389  -0.7552  -0.04317  -0.03145  -0.002667  0.005519  0.3414  -0.7731
6.461e+09  0.1433  -0.9141  0.04422  0.01491  0.0001574  -0.003892  0.08812  -0.8
6.462e+09  -0.1503  -0.9052  -0.04102  0.03672  0.004383  0.008998  -0.2418  -0.7511
6.464e+09  -0.4647  -0.7674  -0.004395  0.01253  -0.02206  0.01949  -0.4611  -0.672
6.465e+09  -0.6664  -0.5278  -0.01644  -0.0006946  0.06741  0.009892  -0.649  -0.4648
6.466e+09  -0.8321  -0.2835  -0.001846  -0.03579  0.03595  -0.002977  -0.7731  -0.1772
6.468e+09  -0.8984  -0.003549  0.02774  -0.01449  -0.02122  0.01865  -0.8058  0.07189
6.469e+09  -0.8371  0.3544  0.01698  -0.03149  -0.02781  0.007266  -0.765  0.3506
6.47e+09  -0.6486  0.584  -0.006353  -0.03704  -0.004571  0.001804  -0.5599  0.5689
6.471e+09  -0.4286  0.859  0.01448  0.0233  -0.01307  0.01054  -0.312  0.7199
6.472e+09  -0.1024  0.913  -0.002703  0.007787  -0.01184  0.02478  -0.06116  0.7742
6.474e+09  0.2105  0.8653  0.01075  0.003722  -0.02284  0.004748  0.1697  0.7541
6.475e+09  0.5039  0.7722  0.0008433  -0.02841  0.01257  0.01459  0.4575  0.6471
6.476e+09  0.726  0.557  0.01394  0.006218  -0.009942  0.01113  0.6485  0.4413
6.478e+09  0.8873  0.2211  0.02728  0.04754  -0.04204  -0.02319  0.7903  0.1669
6.479e+09  0.9652  -0.04253  -0.01607  0.01036  -0.01563  0.0113  0.795  -0.05996
6.48e+09  0.8371  -0.4153  0.02544  -0.009657  -0.02138  0.003564  0.6927  -0.3457
6.481e+09  0.5684  -0.6104  -0.01405  0.06892  0.01079  -0.02586  0.5473  -0.5514
6.482e+09  0.3487  -0.8175  0.02023  -0.00359  0.008295  0.02716  0.3119  -0.7158
6.484e+09  0.02603  -0.9582  -0.03093  -0.007625  -0.006628  0.05172  0.04438  -0.7959
6.485e+09  -0.2938  -0.889  -0.004116  0.0242  0.01674  0.02392  -0.1976  -0.7902
6.486e+09  -0.6192  -0.7448  -0.01679  0.001497  0.01682  0.002733  -0.4548  -0.6377
6.488e+09  -0.2141  -0.9881  0.00936  0.03316  0.6102  0.269  -0.6409  -0.3798
6.489e+09  -0.9041  -0.2158  -0.003053  -0.02449  0.02578  0.00359  -0.7598  -0.21
6.49e+09  -0.894  0.09722  -0.01753  0.001115  0.01832  0.003279  -0.7805  0.07363
6.491e+09  -0.8599  0.4331  0.00432  0.003349  0.01607  0.04004  -0.6882  0.3544
6.492e+09  -0.6132  0.7027  -0.01652  0.02594  -0.0543  -0.02139  -0.5481  0.54
6.494e+09  -0.3587  0.7725  0.04003  0.01786  -0.09625  0.07111  -0.297  0.6961
6.495e+09  -0.05492  0.8978  -0.02021  -0.005217  0.02565  -0.01833  -0.03471  0.7453
6.496e+09  0.3439  0.8881  -0.01594  0.02378  -0.01401  0.03232  0.2152  0.6971
6.498e+09  0.5558  0.7385  0.01228  0.04091  -0.03266  -0.02337  0.4668  0.5997
6.499e+09  0.7941  0.4802  0.01002  -0.0128  0.01761  -0.01559  0.6341  0.4095
6.5e+09  1.104  0.1576  -0.003667  0.02909  -0.009676  -0.03444  0.7143  0.1516
6.501e+09  0.9044  -0.1791  -0.003719  -0.01403  -0.01582  -0.04071  0.7763  -0.1324
6.502e+09  0.8133  -0.4645  0.03469  0.02117  -0.02824  -0.04766  0.6479  -0.3732
6.504e+09  0.5232  -0.7487  0.03433  0.002685  -0.009085  -0.01279  0.4847  -0.544
6.505e+09  0.3202  -0.8761  -0.03574  0.015  -0.0207  -0.01199  0.2424  -0.7098
6.506e+09  -0.05682  -0.9348  0.02765  0.003661  -0.0007658  0.02658  0.0369  -0.749
6.508e+09  -0.3618  -0.8926  -0.02201  0.01021  0.0106  -0.02343  -0.2474  -0.7498
6.509e+09  -0.643  -0.6565  0.04817  -0.008808  -0.04539  -0.01285  -0.493  -0.5675
6.51e+09  -0.8451  -0.4056  0.01893  0.007179  0.007499  -0.04927  -0.6578  -0.3997
6.511e+09  -0.9547  -0.1003  -0.007636  -0.01563  -0.03016  -0.02148  -0.773  -0.1037
6.512e+09  -0.9737  0.1992  0.01861  0.03963  0.008873  -0.01691  -0.7473  0.1384
6.514e+09  -0.7646  0.487  0.01352  -0.01109  0.01805  0.001867  -0.6718  0.3629
6.515e+09  -0.5199  0.7917  0.02095  0.0009601  0.02267  -0.01948  -0.4936  0.5799
6.516e+09  -0.2331  0.9107  0.03849  -0.02479  -0.01184  -0.0309  -0.2478  0.7196
6.518e+09  0.1286  0.9186  -0.01104  0.01681  0.02945  0.05745  0.01413  0.7049
6.519e+09  0.4398  0.8118  0.008279  -0.05513  -0.0364  -0.01277  0.2523  0.6682
6.52e+09  0.732  0.6578  0.006104  -0.01311  0.02856  0.004209  0.5173  0.5812
6.521e+09  0.8443  0.3413  0.0001436  0.01205  0.05041  0.03016  0.6403  0.3214
6.522e+09  0.9378  0.06926  -0.008571  0.03191  -0.05108  -0.02415  0.723  0.1077
6.524e+09  0.9013  -0.3047  -0.02176  0.01397  0.026  -0.02823  0.7246  -0.1201
6.525e+09  0.6664  -0.5919  0.008108  -0.01388  0.001503  0.01077  0.6469  -0.389
6.526e+09  0.4058  -0.8086  0.007688  -0.002373  -0.01376  -0.03846  0.446  -0.578
6.528e+09  0.1249  -0.936  -0.005708  0.01465  0.00874  -0.002847  0.1685  -0.7059
6.529e+09  -0.2214  -0.9364  0.04266  0.002085  -0.02224  -0.009068  -0.01144  -0.705
6.53e+09  -0.4497  -0.8191  0.01423  0.007541  -0.004577  0.01509  -0.3045  -0.6266
6.531e+09  -0.7188  -0.589  -0.002329  -0.009327  0.005388  -0.02712  -0.4706  -0.4749
6.532e+09  -0.8915  -0.2384  -0.03099  -0.03249  -0.02743  -0.0336  -0.5452  -0.3115
6.534e+09  -0.9457  0.09228  0.006284  -0.02337  -0.01568  -0.02224  -0.6476  -0.09879
6.535e+09  -0.792  0.3683  0.006586  0.02218  0.06037  -0.03124  -0.6142  0.1101
6.536e+09  -0.6701  0.6486  0.01068  0.03687  -0.02527  0.03742  -0.5677  0.3008
6.538e+09  -0.3628  0.8573  0.03343  -0.04442  -0.01133  -0.01876  -0.4499  0.4824
6.539e+09  -0.02312  0.9343  0.00551  -0.01107  0.02486  0.02572  -0.2769  0.5933
6.54e+09  0.2352  0.8717  -0.02369  -0.001818  0.04108  -0.00456  -0.08807  0.6875
6.541e+09  0.5574  0.7682  -0.01298  0.01144  -0.01437  0.0231  0.1994  0.6731
6.542e+09  0.772  0.5301  0.001776  0.007753  0.01791  -0.003691  0.4137  0.573
6.544e+09  0.8971  0.2471  0.01883  -0.0002992  -0.01547  0.00459  0.6001  0.4468
6.545e+09  0.8813  -0.1803  -0.00845  0.005055  0.03155  -0.01185  0.6946  0.1801
6.546e+09  0.7705  -0.4617  -0.005227  -0.009987  -0.002372  -0.03517  0.707  -0.06127
6.548e+09  0.5947  -0.7045  0.00262  0.004203  0.005957  -0.01714  0.6516  -0.3524
6.549e+09  0.3161  -0.8264  -0.04145  -0.01512  0.06268  0.004412  0.4713  -0.5242
6.55e+09  -0.07955  -0.8916  0.00633  0.02441  -0.03722  0.02431  0.2681  -0.7034
6.551e+09  -0.359  -0.8466  0.01609  0.005797  0.01338  -0.01301  0.02255  -0.7064
