# Hz S RI R 50
6.25e+09  -0.3295  0.7559  -0.01489  -0.02008  -0.014  0.001416  0.2035  0.472
6.251e+09  -0.007229  0.8538  -0.02212  -0.04553  -0.003789  -0.01928  0.3658  0.3951
6.252e+09  0.241  0.8378  -0.003523  0.002689  -0.03726  -0.02106  0.5101  0.2276
6.254e+09  0.4654  0.6293  -0.02622  -0.02454  0.003458  -0.04632  0.6017  -0.001266
6.255e+09  0.7143  0.4561  0.01582  0.007955  -0.00406  0.003886  0.5745  -0.2083
6.256e+09  0.7556  0.2196  -0.0005109  -0.01412  -0.03341  -0.03201  0.5002  -0.4651
6.258e+09  0.7779  -0.08862  0.0004396  -0.003327  0.01773  -0.01141  0.2908  -0.6124
6.259e+09  0.7345  -0.3456  -0.0208  0.008555  0.008081  0.02459  0.01877  -0.7054
6.26e+09  0.5693  -0.5785  -0.01251  0.007475  0.04602  -0.05814  -0.1644  -0.6668
6.261e+09  0.3332  -0.7415  0.01615  0.01079  -0.005593  0.0003603  -0.4293  -0.5314
6.262e+09  -0.01861  -0.8149  0.01118  -0.0029  0.02261  -0.003376  -0.6215  -0.3209
6.264e+09  -0.2665  -0.733  -0.003343  -0.02474  0.01581  -0.003418  -0.6945  -0.1083
6.265e+09  -0.4811  -0.6153  0.003766  0.01981  -0.004922  -0.01067  -0.6884  0.1581
6.266e+09  -0.66  -0.4801  0.01701  0.02025  5.005e-05  0.00311  -0.6299  0.3847
6.268e+09  -0.7779  -0.1853  0.002476  -0.03028  -0.003373  0.03578  -0.4211  0.5818
6.269e+09  -0.7946  0.06451  0.02833  -0.03046  0.04861  -0.004411  -0.1889  0.7063
6.27e+09  -0.7276  0.4519  -0.02895  0.04566  -0.0105  0.01431  0.07582  0.7555
6.271e+09  -0.5745  0.655  0.01668  0.005396  -0.05589  -0.002492  0.2878  0.6538
6.272e+09  -0.2837  0.7087  0.01065  -0.02436  -0.07213  -0.000388  0.5318  0.5201
6.274e+09  0.02658  0.8572  -0.01903  -0.01129  0.03869  0.0008097  0.6955  0.2995
6.275e+09  0.2746  0.7527  0.00159  -0.05602  -0.01987  -0.01135  0.7462  0.05695
6.276e+09  0.4952  0.6072  0.009112  0.02332  -0.0232  -0.03182  0.7487  -0.2137
6.278e+09  0.6709  0.4392  0.03795  0.01465  -0.02586  -0.04537  0.5939  -0.4232
6.279e+09  0.8458  0.09101  0.01677  -0.009865  -0.0006099  0.01643  0.4151  -0.6336
6.28e+09  0.8283  -0.1557  0.007261  0.001257  0.004779  0.04947  0.1513  -0.7569
6.281e+09  0.6701  -0.3978  -0.006407  0.02461  0.01623  -0.01696  -0.1188  -0.751
6.282e+09  0.5536  -0.5942  0.01204  0.002969  -0.01203  -0.003893  -0.3696  -0.671
6.284e+09  0.2616  -0.779  0.009745  0.01042  0.0232  0.04983  -0.6011  -0.5187
6.285e+09  -0.01042  -0.7728  -0.009293  0.03375  0.006469  0.0063  -0.7499  -0.2927
6.286e+09  -0.2807  -0.7406  -0.0004693  0.02013  0.04142  0.02359  -0.8026  -0.01896
6.288e+09  -0.5113  -0.5843  0.002476  -0.009178  -0.009561  -0.01633  -0.7718  0.2611
6.289e+09  -0.698  -0.3908  -0.003898  0.003755  0.04792  0.00856  -0.627  0.49
6.29e+09  -0.7497  -0.1609  -0.02076  0.01908  0.02098  -0.04855  -0.4154  0.6807
6.291e+09  -0.758  0.1584  0.00589  -0.004913  0.05757  0.003841  -0.138  0.8287
6.292e+09  -0.6365  0.3867  0.01548  0.01908  -0.01213  0.03334  0.1045  0.7862
6.294e+09  -0.4809  0.6457  -0.01277  0.02016  -0.01453  -0.012  0.3855  0.7525
6.295e+09  -0.2108  0.7562  0.02172  -0.003302  -0.03285  0.003623  0.618  0.5244
6.296e+09  0.04041  0.8102  0.02089  0.006639  -0.005389  -0.0293  0.7682  0.3201
6.298e+09  0.3412  0.7515  -0.01399  -0.0005301  -0.004867  -0.007566  0.854  0.003132
6.299e+09  0.5251  0.5731  0.02354  -0.003763  0.01846  -0.02446  0.7701  -0.2612
6.3e+09  0.7078  0.4239  0.01956  -0.01819  -0.03567  0.007998  0.6157  -0.5202
6.301e+09  0.7935  0.06176  0.003822  -0.02375  0.03381  0.03329  0.4133  -0.7128
6.302e+09  0.7388  -0.1987  0.006325  -0.04807  -0.01823  -0.02757  0.1723  -0.8309
6.304e+09  0.6993  -0.4447  -0.04059  0.007624  -0.02534  0.02631  -0.1389  -0.8256
6.305e+09  0.4555  -0.6376  0.01073  -0.02785  0.03951  -0.01358  -0.4302  -0.718
6.306e+09  0.246  -0.75  0.0188  -0.01066  -0.003896  -0.00177  -0.6277  -0.5342
6.308e+09  -0.08099  -0.824  0.003843  -0.01167  -0.03835  -0.001192  -0.7825  -0.272
6.309e+09  -0.3782  -0.6949  -0.003435  -0.006559  0.033  0.000303  -0.8312  -0.01406
6.31e+09  -0.5453  -0.5219  0.003785  -0.02092  0.0204  0.01686  -0.8332  0.2951
6.311e+09  -0.783  -0.3326  0.04172  -0.01028  -0.05148  0.02835  -0.6533  0.5441
6.312e+09  -0.8397  -0.04141  0.01328  -0.03226  0.04282  0.01386  -0.4409  0.7401
6.314e+09  -0.8018  0.2101  0.02717  -0.003895  0.002287  -0.01769  -0.1706  0.8559
6.315e+09  -0.6657  0.4604  -0.01168  -0.004491  -0.005278  0.0007911  0.1547  0.8448
6.316e+09  -0.4883  0.635  0.001698  -0.0217  -0.03669  0.01969  0.4176  0.7611
6.318e+09  -0.2244  0.7742  0.001785  -0.002119  0.002358  0.04067  0.6678  0.5881
6.319e+09  0.09891  0.8288  0.006325  0.03155  -0.01605  -0.005398  0.825  0.3449
6.32e+09  0.3753  0.7216  0.01959  0.002288  -0.01679  -0.06711  0.8486  0.01904
6.321e+09  0.5943  0.5838  0.02647  -0.01621  -0.01166  -0.01805  0.8535  -0.2984
6.322e+09  0.7272  0.3147  0.00218  -0.00438  -0.01085  0.02125  0.7032  -0.5968
6.324e+09  0.7773  -0.04401  -0.003122  -0.04261  0.01706  0.02953  0.4345  -0.7682
6.325e+09  0.7897  -0.2643  -0.01029  -0.0129  -0.03008  -0.004236  0.1805  -0.8602
6.326e+09  0.6778  -0.5337  -0.005828  -0.01779  -0.01156  -0.02236  -0.1279  -0.8816
6.328e+09  0.4162  -0.7878  -0.019  -0.007272  -0.01564  0.008348  -0.3819  -0.797
6.329e+09  0.158  -0.8123  0.008141  -0.02647  -0.002059  -0.01554  -0.6742  -0.6066
6.33e+09  -0.159  -0.8139  0.008129  -0.01338  0.02148  -0.007204  -0.8388  -0.3072
6.331e+09  -0.4437  -0.7219  -0.01291  -0.01099  -0.006036  -0.008632  -0.9056  -0.01063
6.332e+09  -0.6583  -0.5023  -0.007073  0.01823  -0.01749  -0.01305  -0.8218  0.287
6.334e+09  -0.8204  -0.2157  -0.06599  0.01062  -0.01845  0.005788  -0.7282  0.5463
6.335e+09  -0.8356  0.06991  0.007432  0.01034  -0.00228  -0.006205  -0.5086  0.7632
6.336e+09  -0.7746  0.3236  0.008239  -0.01273  0.01798  -0.02529  -0.1771  0.9005
6.338e+09  -0.5942  0.5721  -0.001532  0.0209  -0.02717  0.01743  0.1206  0.9242
6.339e+09  -0.4307  0.7124  -0.01401  0.003119  0.012  0.02843  0.4434  0.8272
6.34e+09  -0.09221  0.8145  0.002794  0.01421  0.02333  0.01233  0.6953  0.632
6.341e+09  0.1678  0.8498  1.958e-05  0.003086  0.01419  0.01411  0.835  0.3503
6.342e+09  0.482  0.6736  1.826e-05  0.01393  0.05527  -0.009069  0.9462  0.04245
6.344e+09  0.7195  0.5265  -0.0138  0.00963  0.01553  -0.02444  0.8821  -0.2896
6.345e+09  0.79  0.2464  -0.06147  -0.03474  -0.02799  0.02533  0.7326  -0.5764
6.346e+09  0.8295  -0.09298  -0.01392  0.016  0.008161  0.01922  0.4803  -0.7708
6.348e+09  0.7359  -0.3937  -0.01771  -0.01107  -0.03759  -0.02932  0.2497  -0.8933
6.349e+09  0.6552  -0.6329  -0.02143  0.01952  0.001666  -0.03475  -0.09688  -0.9586
6.35e+09  0.3241  -0.7494  -0.03315  -0.02496  0.03617  -0.03373  -0.3947  -0.8617
6.351e+09  0.01917  -0.8534  -0.01907  -0.01312  0.04149  -0.03524  -0.7014  -0.6324
6.352e+09  -0.2788  -0.8435  -0.01919  -0.0005587  0.004387  -0.03778  -0.8259  -0.3438
6.354e+09  -0.5442  -0.6645  -0.04817  0.006157  0.03297  0.02271  -0.9516  -0.01756
6.355e+09  -0.7379  -0.4567  -0.03202  0.02454  0.002666  -0.03911  -0.9048  0.2863
6.356e+09  -0.8283  -0.1971  0.006649  -0.006296  -0.01247  -0.002409  -0.7657  0.5523
6.358e+09  -0.8184  0.1249  -0.008427  -0.02537  0.02687  -0.02116  -0.5555  0.7784
6.359e+09  -0.7345  0.3596  0.01576  0.02697  0.002129  -0.004431  -0.2409  0.9186
6.36e+09  -0.5084  0.651  -0.008789  0.003502  -0.01832  -0.02792  0.09974  0.9761
6.361e+09  -0.2939  0.776  -0.0164  0.01489  0.01104  0.04479  0.4069  0.8331
6.362e+09  0.02017  0.8489  0.02947  -0.04868  0.004087  0.03789  0.6679  0.6431
6.364e+09  0.2978  0.7866  -0.04257  0.001937  -0.002951  -0.05074  0.862  0.4124
6.365e+09  0.5926  0.6346  0.04206  -0.006877  -0.008761  -0.01191  0.9291  0.05386
6.366e+09  0.732  0.3757  0.03182  0.003656  -0.004454  0.01776  0.9283  -0.2724
6.368e+09  0.8189  0.1308  -0.01948  0.009742  0.0258  -0.01828  0.7775  -0.5426
6.369e+09  0.8676  -0.2089  0.02386  -0.01302  -0.01466  0.02245  0.5209  -0.8024
6.37e+09  0.698  -0.4664  0.005348  -0.001059  -0.003803  -0.01353  0.2343  -0.9466
6.371e+09  0.5504  -0.7096  0.03084  -0.01869  0.01369  0.001214  -0.05108  -0.9728
6.372e+09  0.2867  -0.8135  0.0241  -0.006959  -0.02689  0.02832  -0.3864  -0.8444
6.374e+09  -0.04457  -0.8806  0.01572  -0.03198  -0.01151  -0.007149  -0.6659  -0.6662
6.375e+09  -0.3573  -0.7928  0.0331  0.0046  -0.01908  -0.01646  -0.8958  -0.4004
6.376e+09  -0.6622  -0.581  -0.01156  -0.03038  -0.009185  0.003973  -0.9409  -0.1442
6.378e+09  -0.775  -0.405  0.008594  0.006496  -0.03444  0.002506  -0.9177  0.2007
6.379e+09  -0.8412  -0.08118  -0.006337  0.002008  -0.02128  0.003708  -0.7904  0.5005
6.38e+09  -0.844  0.2481  -0.008192  0.03922  -0.0125  -0.004439  -0.5606  0.7049
6.381e+09  -0.6905  0.5171  -0.04199  0.02527  -0.01531  -0.009207  -0.2865  0.905
6.382e+09  -0.4904  0.6968  0.0005145  0.01778  -0.03746  -0.01382  0.08672  0.9357
6.384e+09  -0.2296  0.8221  0.005187  -0.005462  0.03141  0.0258  0.3673  0.8485
6.385e+09  0.08227  0.8633  -0.04568  -0.001867  0.03387  -8.024e-06  0.6247  0.6947
6.386e+09  0.4003  0.7622  -0.01939  0.0437  -0.03017  0.04215  0.8098  0.4323
6.388e+09  0.5871  0.6114  0.01309  0.02877  -0.04417  0.02197  0.9039  0.1429
6.389e+09  0.7762  0.3747  -0.03347  0.02337  -0.05181  0.03828  0.8892  -0.2317
6.39e+09  0.8724  0.04786  0.02803  0.02028  0.01715  0.02709  0.7708  -0.4855
6.391e+09  0.8304  -0.2571  0.02242  0.03066  0.009953  -0.02023  0.5869  -0.7312
6.392e+09  0.6942  -0.482  -0.06818  -0.02257  -0.03598  0.01418  0.2821  -0.8532
6.394e+09  0.473  -0.7103  0.02272  -0.01316  0.02764  -0.01489  -0.04181  -0.8987
6.395e+09  0.2137  -0.8185  -0.03523  -0.002115  -0.03653  0.01344  -0.3741  -0.8189
6.396e+09  -0.1774  -0.839  0.02375  -0.00347  -0.01612  -0.0408  -0.5995  -0.677
6.398e+09  -0.3874  -0.7308  0.008247  -0.004836  -0.009791  0.02066  -0.7993  -0.471
6.399e+09  -0.692  -0.5738  0.04133  0.01011  -0.03838  -0.01949  -0.9365  -0.1471
6.4e+09  -0.8037  -0.3135  0.06686  0.01453  0.01387  0.03062  -0.8897  0.1312
6.401e+09  -0.831  -0.005666  0.00676  0.04166  0.03026  -0.0167  -0.7938  0.4511
6.402e+09  -0.8073  0.2203  0.02866  0.006514  0.01984  -0.01138  -0.5978  0.7551
6.404e+09  -0.6443  0.5113  0.000353  -0.0006405  0.02435  0.002446  -0.2884  0.8909
6.405e+09  -0.4384  0.7118  -0.02395  0.006122  -0.001587  -0.03764  0.02659  0.9085
6.406e+09  -0.1633  0.8274  0.01298  -0.03877  -0.004263  0.03355  0.2778  0.8383
6.408e+09  0.1604  0.8617  0.01663  -0.02149  0.02222  -0.01568  0.5816  0.6639
6.409e+09  0.3817  0.7483  -0.006252  0.05402  0.01464  0.03639  0.7548  0.4861
6.41e+09  0.5495  0.555  -0.004079  -0.02714  -0.02541  0.005658  0.8683  0.1431
6.411e+09  0.8077  0.2877  -0.006777  0.01231  -0.005637  -0.03226  0.8887  -0.1339
6.412e+09  0.8981  0.0192  -0.04076  0.01234  0.02221  0.0003576  0.7586  -0.4928
6.414e+09  0.8109  -0.2987  0.01769  -0.02166  -0.01419  0.01316  0.5935  -0.6878
6.415e+09  0.6526  -0.5566  0.02373  0.03705  -0.009967  -0.001846  0.3267  -0.8534
6.416e+09  0.4195  -0.7655  0.02834  0.02231  -0.003279  0.004251  -0.009001  -0.8372
6.418e+09  0.1671  -0.8617  -0.0139  -0.01549  0.04693  -0.0388  -0.2539  -0.817
6.419e+09  -0.1637  -0.836  0.017  0.02551  -0.04882  0.005559  -0.5961  -0.7189
6.42e+09  -0.4665  -0.7402  0.007402  -0.001231  0.009138  -0.003634  -0.7656  -0.5007
6.421e+09  -0.6704  -0.565  -0.0143  -0.02479  -0.02214  0.01933  -0.8397  -0.1693
6.422e+09  -0.7932  -0.3164  0.02487  -0.0216  0.01187  0.01068  -0.8503  0.08362
6.424e+09  -0.8386  0.02852  0.04616  -0.0004018  0.006284  -0.0153  -0.7798  0.3268
6.425e+09  -0.7982  0.2884  0.002937  -0.02701  0.0422  0.02327  -0.5913  0.622
6.426e+09  -0.6665  0.6103  0.0152  -0.04132  0.002494  -0.03531  -0.3569  0.8065
6.428e+09  -0.4115  0.7262  -0.001784  0.02731  -0.006166  0.005823  -0.01465  0.893
6.429e+09  -0.1266  0.8377  0.01409  -0.009429  0.004393  -0.002388  0.2253  0.8533
6.43e+09  0.2109  0.8035  0.007127  0.008525  -0.007919  0.01209  0.5048  0.6743
6.431e+09  0.4935  0.7305  -0.04586  0.02181  0.001136  0.01076  0.695  0.4952
6.432e+09  0.651  0.5659  0.009137  -0.009059  -0.06732  0.007733  0.8489  0.2013
6.434e+09  0.8321  0.2596  -0.02277  -0.0522  -0.02008  0.006638  0.8595  -0.1106
6.435e+09  0.8451  0.02151  0.01771  -0.03933  0.003873  0.01264  0.7544  -0.4004
6.436e+09  0.7871  -0.3397  -1.599e-05  0.01796  0.02132  0.01459  0.6312  -0.6247
6.438e+09  0.6681  -0.5772  0.02713  0.004851  -0.008284  0.0262  0.3767  -0.7574
6.439e+09  0.4109  -0.7842  -0.005413  -0.01115  0.0338  -0.02502  0.03152  -0.8899
6.44e+09  0.0952  -0.8646  0.01816  -0.006207  -0.02035  0.005474  -0.2044  -0.7811
6.441e+09  -0.177  -0.8404  0.01781  -0.03827  -0.03024  -0.04573  -0.4869  -0.6735
6.442e+09  -0.3842  -0.7265  -0.01024  0.03852  -0.01499  0.0275  -0.7178  -0.4658
6.444e+09  -0.7217  -0.5037  -0.01158  -0.008827  -0.01187  -0.04059  -0.8104  -0.244
6.445e+09  -0.8563  -0.2423  -0.02162  0.05544  -0.01276  -0.02108  -0.8107  0.07078
6.446e+09  -0.8737  -0.003544  0.02399  -0.03887  -0.01321  0.007979  -0.7731  0.3406
6.448e+09  -0.8148  0.3587  -0.03167  0.04917  0.01618  0.0008536  -0.6194  0.5895
6.449e+09  -0.6527  0.5888  -0.00672  0.01474  -0.01248  -0.04115  -0.3146  0.7844
6.45e+09  -0.397  0.7387  -0.01181  -0.009013  0.04645  0.009677  -0.06404  0.8264
6.451e+09  -0.09861  0.7914  0.04875  0.02607  0.01956  0.02613  0.2098  0.7975
6.452e+09  0.1957  0.8469  -0.01934  0.003246  0.007536  0.002149  0.4789  0.6778
6.454e+09  0.5326  0.7488  -0.03441  0.005286  -0.04435  -0.01156  0.6761  0.4667
6.455e+09  0.7011  0.4907  0.03896  -0.009017  -0.02165  -0.05857  0.7954  0.2002
6.456e+09  0.8466  0.2326  -0.008917  -0.007816  0.01566  0.01166  0.832  -0.1202
6.458e+09  0.851  -0.007518  0.007334  0.008553  0.01081  0.0308  0.797  -0.3482
6.459e+09  0.849  -0.3056  -0.01225  -0.0001053  -0.03286  0.04079  0.6173  -0.5628
6.46e+09  0.639  -0.5722  -0.01776  -0.01645  -0.01691  0.02649  0.383  -0.7444
6.461e+09  0.3939  -0.7622  0.03281  -0.01577  -0.02509  -0.01476  0.09387  -0.8502
6.462e+09  0.08904  -0.8695  0.01913  -0.004126  -0.01858  0.03289  -0.1884  -0.7443
6.464e+09  -0.1878  -0.7923  0.001066  -0.004149  -0.03744  -0.02642  -0.4654  -0.593
6.465e+09  -0.5373  -0.6857  -0.006685  0.006338  0.09369  -0.002141  -0.6679  -0.4657
6.466e+09  -0.6849  -0.5313  -0.0003532  -0.02169  0.03036  0.006547  -0.7687  -0.2241
6.468e+09  -0.8478  -0.2382  0.014  -0.01384  -0.03435  -0.03922  -0.8183  0.06189
6.469e+09  -0.8721  0.09239  -0.02323  -0.02484  -0.054  -0.01357  -0.7448  0.3354
6.47e+09  -0.8356  0.3798  -0.006579  -0.01572  -0.002925  0.004021  -0.5531  0.5794
6.471e+09  -0.609  0.6012  0.01823  0.03499  -0.009212  -0.006432  -0.3219  0.7352
6.472e+09  -0.3574  0.7835  -0.04355  -0.01235  -0.01722  -0.04292  -0.01967  0.771
6.474e+09  -0.1092  0.9101  0.0009934  0.006533  0.008942  -0.01053  0.2175  0.7747
6.475e+09  0.1767  0.8497  -0.01024  -0.06477  0.01593  -0.02605  0.4305  0.6709
6.476e+09  0.5318  0.6981  0.003916  -0.01997  0.02271  -0.008078  0.6232  0.4531
6.478e+09  0.7253  0.4254  0.04526  -0.01513  -0.02935  0.02456  0.7442  0.2149
6.479e+09  0.8841  0.1892  0.004626  -0.02723  0.07205  -0.00718  0.7662  -0.07209
6.48e+09  0.8882  -0.13  0.001281  0.0005181  0.01182  -0.01514  0.7031  -0.3287
6.481e+09  0.8284  -0.4076  -0.02236  -0.002497  -0.002802  -0.04551  0.5288  -0.5496
6.482e+09  0.6484  -0.6547  -0.05054  -0.02502  -0.05012  -0.007219  0.3349  -0.6992
6.484e+09  0.3287  -0.7704  0.02344  0.01935  0.03264  0.01353  0.02926  -0.7412
6.485e+09  0.08726  -0.8797  0.007883  -0.02194  0.01344  0.008503  -0.2448  -0.807
6.486e+09  -0.2746  -0.8258  0.01134  0.003079  0.03172  0.01939  -0.4336  -0.6093
6.488e+09  -1.2  -0.9819  0.01122  -0.03137  -0.5219  0.5112  -0.6184  -0.4717
6.489e+09  -0.7487  -0.4599  0.008476  0.01115  0.0114  0.005204  -0.76  -0.1962
6.49e+09  -0.8384  -0.217  0.01362  -0.06302  0.01995  0.07055  -0.7852  0.08791
6.491e+09  -0.881  0.1065  0.0352  0.04419  -0.01417  -0.01016  -0.707  0.364
6.492e+09  -0.8105  0.3833  0.03717  0.01577  0.06538  -0.003345  -0.5117  0.5754
6.494e+09  -0.748  0.7131  0.04895  -0.008072  -0.0137  -0.1572  -0.3159  0.7251
6.495e+09  -0.3237  0.8834  -0.00432  -0.01374  -0.006835  0.009516  -0.04388  0.7636
6.496e+09  -0.0591  0.9149  -0.01413  -0.006339  -0.008932  0.03479  0.2386  0.7314
6.498e+09  0.2837  0.8491  -0.02022  0.008528  -0.009911  -0.04434  0.4685  0.605
6.499e+09  0.5895  0.7207  0.04291  0.008906  -0.04795  0.009903  0.6233  0.4387
6.5e+09  0.797  0.4488  0.03232  -0.03249  -0.01669  0.02264  0.7573  0.1583
6.501e+09  0.8963  0.1887  0.01622  -0.002708  0.03456  0.0006029  0.7795  -0.1335
6.502e+09  0.9023  -0.103  -0.009678  0.04711  -0.06118  0.02  0.6682  -0.3729
6.504e+09  0.7761  -0.4212  -0.008664  0.009433  -0.001207  0.04215  0.5379  -0.5747
6.505e+09  0.6282  -0.6537  -0.002245  0.02861  -0.01711  -0.0359  0.2563  -0.7085
6.506e+09  0.3471  -0.8594  0.0016  0.03168  0.04084  -0.02767  0.02739  -0.7623
6.508e+09  0.03659  -0.9417  0.01611  0.02388  0.04797  -0.0008864  -0.2616  -0.7543
6.509e+09  -0.2965  -0.8514  -0.01338  -0.001679  -0.01411  -0.03649  -0.4402  -0.5973
6.51e+09  -0.6521  -0.6736  -0.06768  0.01882  0.03777  -0.0019  -0.6253  -0.3675
6.511e+09  -0.7812  -0.4468  0.02428  -0.02177  0.03971  -0.02127  -0.7337  -0.1217
6.512e+09  -0.873  -0.1428  -0.009176  0.01373  -0.001648  -0.005377  -0.7261  0.1604
6.514e+09  -0.9644  0.1804  -0.01455  0.01048  -0.04644  0.03392  -0.6303  0.3796
6.515e+09  -0.758  0.4974  -0.03655  -0.01786  -0.02984  0.003651  -0.5141  0.5935
6.516e+09  -0.6127  0.7511  0.005214  0.00441  -0.01686  -0.04447  -0.2442  0.6914
6.518e+09  -0.2991  0.871  -0.009149  -0.03141  -0.0175  -0.01521  0.02626  0.7266
6.519e+09  0.06787  0.9595  0.01934  0.02187  -0.02586  0.03591  0.2486  0.7161
6.52e+09  0.3309  0.8371  0.01445  0.003273  -0.04494  -0.05871  0.4911  0.5081
6.521e+09  0.621  0.6553  0.005719  0.02952  0.0217  0.02044  0.638  0.3937
6.522e+09  0.8307  0.4595  -0.01648  0.03059  0.01174  -0.00801  0.7424  0.09383
6.524e+09  0.8815  0.1109  0.001939  0.03097  0.02076  -0.003622  0.7101  -0.1456
6.525e+09  0.8823  -0.2391  -0.008051  -0.02295  -0.03148  0.05008  0.6002  -0.3946
6.526e+09  0.7494  -0.5413  0.005833  -0.00844  -0.01544  -0.005431  0.4116  -0.5721
6.528e+09  0.585  -0.74  -0.02536  -0.02592  -0.002374  -0.009499  0.1763  -0.7028
6.529e+09  0.2694  -0.9452  0.007008  0.0266  0.0515  0.01909  -0.08052  -0.7044
6.53e+09  -0.118  -0.9321  0.001796  0.02047  0.01906  -0.01554  -0.2822  -0.6174
6.531e+09  -0.4791  -0.8928  -0.02038  0.02185  0.02049  -0.03755  -0.4874  -0.4646
6.532e+09  -0.6965  -0.631  -0.01565  -0.03364  0.03776  0.04507  -0.6104  -0.3284
6.534e+09  -0.8454  -0.3107  0.01019  -0.02503  -0.01863  -0.02742  -0.6123  -0.1133
6.535e+09  -0.9439  -0.03387  -0.0005328  0.02152  -0.01443  0.01072  -0.6227  0.1164
6.536e+09  -0.8815  0.2728  0.01188  -0.0156  0.03909  0.01473  -0.5639  0.2593
6.538e+09  -0.7062  0.5672  -0.0153  0.002804  0.01135  0.04694  -0.4162  0.4798
6.539e+09  -0.4891  0.8053  0.009996  0.01194  -0.008926  -0.03671  -0.2883  0.6368
6.54e+09  -0.178  0.8946  0.01329  0.001199  0.009989  -0.08121  -0.08003  0.6866
6.541e+09  0.1048  0.9268  -0.007931  -0.0034  -0.008188  -0.01603  0.1764  0.688
6.542e+09  0.5312  0.8276  -0.03109  -0.002856  -0.05042  -0.0252  0.413  0.5919
6.544e+09  0.7305  0.5681  0.02851  -0.02648  0.03908  -0.01286  0.5933  0.3914
6.545e+09  0.9142  0.2743  -0.0002603  -0.02337  0.02343  0.02303  0.7106  0.15
6.546e+09  0.9844  -0.01353  -0.007422  -0.001439  0.01442  -0.02515  0.7285  -0.07212
6.548e+09  0.8484  -0.3873  0.01723  -0.04577  -0.05184  -0.03962  0.6592  -0.3343
6.549e+09  0.652  -0.6302  -0.004712  -0.01434  -0.01594  -0.07622  0.4737  -0.5118
6.55e+09  0.4267  -0.7926  -0.006666  -0.002152  0.01739  -0.03305  0.3227  -0.67
