# Hz S RI R 50
6.25e+09  -0.3594  0.7188  -0.01501  -0.03491  -0.001261  0.01154  0.143  0.4796
6.251e+09  -0.09113  0.8371  -0.01688  -0.01164  0.01652  -0.00923  0.3686  0.3767
6.252e+09  0.2086  0.7505  0.008022  -0.03102  0.0589  0.002541  0.4957  0.2453
6.254e+09  0.4828  0.6617  0.002831  0.005289  0.02512  -0.001351  0.5914  0.04674
6.255e+09  0.6807  0.5315  -0.006057  -0.006322  -0.005981  0.03573  0.5866  -0.2189
6.256e+09  0.7961  0.2247  -0.001157  -0.000554  -0.002081  -0.01538  0.4667  -0.4619
6.258e+09  0.8133  -0.0669  0.02033  0.01472  0.001468  0.02286  0.2693  -0.5926
6.259e+09  0.763  -0.3067  0.01258  -0.001629  0.01175  0.01473  0.03122  -0.6901
6.26e+09  0.5972  -0.596  -0.004866  0.008905  0.00766  -0.002702  -0.2284  -0.655
6.261e+09  0.3936  -0.6676  0.004381  0.006255  -0.002749  -0.01835  -0.4439  -0.5614
6.262e+09  0.09255  -0.7904  0.008824  -0.007748  -0.03162  -0.03888  -0.6108  -0.3472
6.264e+09  -0.2053  -0.7971  0.003365  0.01341  -0.01205  -0.04969  -0.6895  -0.1089
6.265e+09  -0.501  -0.6691  0.02299  -0.006328  -0.03454  0.009205  -0.7073  0.1486
6.266e+09  -0.703  -0.5258  0.007819  -0.01191  -0.01662  0.02098  -0.607  0.3804
6.268e+09  -0.7929  -0.2017  0.005847  -0.02191  -0.01945  -0.01339  -0.4669  0.5888
6.269e+09  -0.7884  0.06178  -0.01654  0.03248  -0.06248  0.001011  -0.1933  0.7202
6.27e+09  -0.7159  0.3803  -0.009435  0.002075  0.06536  -0.00344  0.04441  0.7461
6.271e+09  -0.5958  0.591  0.01069  -0.02316  0.0009513  0.009882  0.2991  0.6822
6.272e+09  -0.3686  0.7098  0.01509  0.004613  0.0382  -0.03793  0.5154  0.5039
6.274e+09  -0.09652  0.7989  0.002455  -0.007798  -0.02271  0.04119  0.7123  0.328
6.275e+09  0.2344  0.7801  0.001727  0.01519  0.01256  0.02271  0.7575  0.02827
6.276e+09  0.4768  0.6678  0.03066  0.02198  -0.04429  -0.006599  0.7072  -0.2498
6.278e+09  0.7076  0.4731  -0.004587  -0.0001459  0.02682  -0.007005  0.6112  -0.4816
6.279e+09  0.7681  0.1746  0.02385  0.007088  -0.0132  -0.01097  0.4114  -0.6402
6.28e+09  0.7684  -0.03459  0.001206  -0.005787  0.02985  0.008629  0.1872  -0.7726
6.281e+09  0.7385  -0.3416  0.002935  -0.01329  -0.05084  0.001655  -0.09279  -0.7724
6.282e+09  0.5603  -0.5708  -0.01102  -0.03572  -0.0118  0.01707  -0.3733  -0.6594
6.284e+09  0.3445  -0.7393  -0.01711  -0.03186  0.01152  -0.001588  -0.5758  -0.5392
6.285e+09  0.03997  -0.8211  0.0006269  -0.007202  0.02152  -0.02112  -0.7193  -0.262
6.286e+09  -0.2311  -0.7545  -0.02439  -0.00721  0.1158  -0.0595  -0.8108  0.02575
6.288e+09  -0.4817  -0.6569  0.02158  -0.01511  -0.03466  0.008801  -0.7593  0.2415
6.289e+09  -0.6948  -0.4472  -0.0008293  -0.03645  -0.0499  -0.02851  -0.618  0.5215
6.29e+09  -0.7918  -0.1802  0.02517  0.001001  0.007703  -0.01949  -0.4072  0.6793
6.291e+09  -0.786  0.1158  0.02141  0.003192  -0.03099  -0.003057  -0.182  0.8195
6.292e+09  -0.7365  0.4162  0.01289  -0.01683  -0.008781  -0.03309  0.1173  0.8115
6.294e+09  -0.5408  0.5882  0.005154  0.01579  0.03062  0.05972  0.4079  0.7278
6.295e+09  -0.3452  0.749  -0.01762  -0.01548  0.06834  -0.006198  0.6184  0.5237
6.296e+09  0.007784  0.8314  0.0279  -0.02034  0.02904  -0.02571  0.7606  0.2943
6.298e+09  0.2725  0.7386  -0.0004673  0.0155  -0.00529  -0.0459  0.831  0.03925
6.299e+09  0.5288  0.5996  -0.003703  -0.007602  -0.04756  0.01132  0.7592  -0.2781
6.3e+09  0.6718  0.4083  -0.03162  0.02779  -0.003727  -0.008889  0.6252  -0.5243
6.301e+09  0.801  0.1242  -0.004423  0.02017  -0.0184  -0.0583  0.4301  -0.6937
6.302e+09  0.8004  -0.1664  0.01351  -0.01555  0.02411  -0.0304  0.1699  -0.7913
6.304e+09  0.7265  -0.4399  0.005354  0.01632  0.009674  0.002965  -0.1253  -0.8454
6.305e+09  0.4948  -0.6192  0.0129  -0.01859  -0.03347  0.01556  -0.4227  -0.7272
6.306e+09  0.2677  -0.7548  -0.002146  0.01961  0.06076  0.008462  -0.6595  -0.5363
6.308e+09  -0.01543  -0.8195  -0.00405  0.01025  -0.03249  -0.04479  -0.7953  -0.3101
6.309e+09  -0.3156  -0.7347  0.0002482  0.004522  -0.05228  0.04561  -0.832  -0.003275
6.31e+09  -0.5377  -0.5886  0.0006297  -0.01044  0.01316  0.01919  -0.8207  0.2758
6.311e+09  -0.7646  -0.3781  -0.01077  0.005921  -0.0393  0.03588  -0.6798  0.554
6.312e+09  -0.7629  -0.07911  0.02192  0.008288  -0.03399  -0.0005536  -0.4475  0.7534
6.314e+09  -0.8177  0.1341  0.0225  -0.02164  0.003176  0.03074  -0.1636  0.8829
6.315e+09  -0.7096  0.4732  -0.005744  -0.001277  -0.004203  -0.008104  0.1255  0.8736
6.316e+09  -0.4458  0.6443  -0.01325  -0.01505  0.02395  0.02301  0.4111  0.7759
6.318e+09  -0.206  0.8059  -0.004335  0.01427  0.03192  0.02359  0.6651  0.5776
6.319e+09  0.04392  0.8412  -0.002619  -0.02118  -0.01525  -0.02866  0.843  0.3055
6.32e+09  0.2993  0.7538  -0.01518  -0.01063  0.01555  -0.006873  0.874  0.02908
6.321e+09  0.6326  0.5867  0.007284  -0.02145  0.004214  0.048  0.8639  -0.2959
6.322e+09  0.7794  0.4091  0.03209  0.0207  -0.002449  -0.01373  0.6876  -0.5591
6.324e+09  0.8225  0.07062  0.02083  -0.03054  -0.01391  -0.01372  0.4393  -0.739
6.325e+09  0.7981  -0.2131  0.01485  -0.01604  -0.03243  -0.01205  0.1582  -0.8811
6.326e+09  0.6304  -0.4449  -0.01857  -0.003215  -0.002189  0.005312  -0.1302  -0.883
6.328e+09  0.488  -0.7021  0.0018  0.0197  -0.006092  0.008516  -0.4441  -0.7597
6.329e+09  0.2004  -0.8674  0.00478  -0.001403  0.01241  0.007453  -0.6653  -0.5794
6.33e+09  -0.1321  -0.7982  -0.01905  -0.004448  0.006333  -0.01735  -0.8542  -0.3612
6.331e+09  -0.3778  -0.7591  0.01669  0.02051  -0.02717  -0.03344  -0.9373  -0.01479
6.332e+09  -0.6097  -0.5386  -0.01106  0.007039  -0.01733  -0.01865  -0.8309  0.302
6.334e+09  -0.7902  -0.3459  -0.03668  -0.01171  6.511e-05  0.004305  -0.7354  0.564
6.335e+09  -0.8293  -0.01759  -0.01203  0.005397  -0.001836  -0.02275  -0.4887  0.7549
6.336e+09  -0.8048  0.2549  0.01932  -0.01603  0.02614  -0.01535  -0.1971  0.8921
6.338e+09  -0.647  0.4939  -0.03626  -0.02747  -0.04147  -0.003983  0.1304  0.8947
6.339e+09  -0.4163  0.6692  -0.01194  -0.02118  -0.03206  0.02434  0.4139  0.8158
6.34e+09  -0.2019  0.8285  0.004206  -0.007144  0.006196  0.0572  0.6868  0.6207
6.341e+09  0.1589  0.8246  0.003519  -0.01234  -0.004562  0.01305  0.8419  0.3558
6.342e+09  0.478  0.6949  0.02756  -0.006218  0.05421  0.0005518  0.8849  0.01549
6.344e+09  0.675  0.5045  0.01537  -0.009817  -0.05701  0.03121  0.8859  -0.3062
6.345e+09  0.8141  0.2751  0.007581  0.0308  0.01992  0.01853  0.7587  -0.54
6.346e+09  0.85  -0.01214  -0.007372  -0.00812  -0.02855  0.06115  0.5365  -0.8009
6.348e+09  0.7789  -0.3102  0.01306  -0.001109  -0.007212  -0.003894  0.2148  -0.8867
6.349e+09  0.6152  -0.5992  -0.01976  -0.001875  -0.00589  0.01532  -0.1223  -0.9362
6.35e+09  0.4152  -0.7767  -0.002498  -0.05329  0.02298  -0.007308  -0.3842  -0.8722
6.351e+09  0.07847  -0.8654  0.01279  -0.01374  -0.02048  0.04187  -0.6739  -0.6284
6.352e+09  -0.2576  -0.8271  0.005386  0.003648  0.02043  0.003028  -0.8501  -0.3412
6.354e+09  -0.4881  -0.7228  0.002507  -0.004481  0.001386  -0.01511  -0.9608  -0.05286
6.355e+09  -0.7006  -0.4834  0.0007996  -0.0006514  0.001777  0.02519  -0.9284  0.2836
6.356e+09  -0.8344  -0.2542  -0.0006629  0.02953  -0.05348  -0.01426  -0.7386  0.5666
6.358e+09  -0.8431  0.08832  0.02975  -0.005178  0.02673  -0.06445  -0.5376  0.794
6.359e+09  -0.7604  0.4082  0.03007  -0.00528  -0.04041  0.004409  -0.2125  0.9433
6.36e+09  -0.5809  0.5968  -0.01088  0.0005029  -0.05933  0.02015  0.1133  0.9252
6.361e+09  -0.3192  0.7727  0.006266  0.008014  -0.02472  0.04901  0.399  0.8748
6.362e+09  -0.0409  0.8598  -0.02867  -0.002258  -0.002063  -0.01145  0.6464  0.6708
6.364e+09  0.2676  0.7913  -0.02289  -0.04831  -0.05798  -0.001655  0.8525  0.4195
6.365e+09  0.4955  0.6582  0.05835  -0.05669  0.03066  -0.01885  0.9484  0.1002
6.366e+09  0.7244  0.4209  -0.04097  0.002099  -0.001054  -0.03449  0.9291  -0.253
6.368e+09  0.8532  0.1503  0.0009449  0.02029  0.0007977  0.06588  0.7569  -0.5642
6.369e+09  0.8635  -0.1294  0.03778  -0.01452  0.01822  0.04319  0.5811  -0.7924
6.37e+09  0.7628  -0.3907  0.01077  -0.03971  -0.01965  0.02801  0.251  -0.9292
6.371e+09  0.5507  -0.6736  -0.00194  0.01863  0.004157  -0.03798  -0.05132  -0.8999
6.372e+09  0.2987  -0.7754  0.008969  -0.001837  0.01157  -0.002113  -0.4105  -0.8699
6.374e+09  0.01816  -0.8825  0.04413  -0.001045  -0.01652  -0.02933  -0.6449  -0.7235
6.375e+09  -0.3295  -0.8027  0.003264  0.03112  0.04088  -0.06053  -0.8752  -0.4151
6.376e+09  -0.5756  -0.6456  0.0004275  -0.008475  -0.005608  -0.02676  -0.9111  -0.07489
6.378e+09  -0.7749  -0.4163  0.01749  0.01621  -0.001777  -0.04502  -0.9626  0.2048
6.379e+09  -0.8394  -0.1079  -0.03358  -0.001111  -0.002152  -0.01522  -0.7361  0.4809
6.38e+09  -0.8518  0.1615  -0.03464  0.04478  0.01557  0.02452  -0.5228  0.7531
6.381e+09  -0.7472  0.4858  0.005707  -0.007346  0.01614  -0.03403  -0.2481  0.9472
6.382e+09  -0.5488  0.7145  -0.0116  -0.0001796  -0.01428  -0.01011  0.06785  0.9026
6.384e+09  -0.2497  0.7805  -0.03082  -0.008676  0.02219  0.01643  0.4372  0.8824
6.385e+09  0.01166  0.8724  -0.0003293  -0.02233  -0.01595  0.002584  0.6113  0.6845
6.386e+09  0.3679  0.8163  -0.006957  0.02879  0.01219  -0.002388  0.8094  0.4118
6.388e+09  0.6021  0.6359  -0.01478  0.02372  -0.004649  -0.03566  0.9436  0.1262
6.389e+09  0.7946  0.3924  0.01457  0.03662  0.02082  -0.01272  0.9274  -0.1808
6.39e+09  0.8639  0.09639  0.0001808  0.01544  0.02739  0.037  0.7894  -0.5237
6.391e+09  0.8724  -0.2019  0.004779  0.02257  0.03111  -0.01167  0.5825  -0.7676
6.392e+09  0.7317  -0.4566  -0.03685  0.00122  0.01831  -0.003841  0.3094  -0.8733
6.394e+09  0.5013  -0.7304  -0.02265  0.02859  0.0005102  0.02707  -0.01947  -0.9055
6.395e+09  0.2312  -0.8271  0.0006414  -0.04872  0.006694  0.02536  -0.3364  -0.8743
6.396e+09  -0.08402  -0.8439  -0.003488  0.003828  -0.003871  -0.0115  -0.5869  -0.6812
6.398e+09  -0.3744  -0.8122  0.04542  0.004163  0.003883  -0.01297  -0.794  -0.496
6.399e+09  -0.5977  -0.6475  0.005569  -0.01411  0.01238  0.009967  -0.917  -0.08412
6.4e+09  -0.7839  -0.3935  -0.02776  0.04715  0.01986  0.05474  -0.8784  0.1595
6.401e+09  -0.8435  -0.03933  -0.02593  0.05969  -0.0184  -0.004344  -0.7539  0.4612
6.402e+09  -0.7997  0.2335  -0.03706  0.0233  0.004126  0.04069  -0.602  0.7224
6.404e+09  -0.7082  0.5473  0.01906  -0.0388  -0.03059  -0.0008043  -0.3426  0.8633
6.405e+09  -0.5057  0.6951  0.04206  -0.01121  -0.04331  0.003083  -0.03763  0.9618
6.406e+09  -0.2205  0.8402  0.0256  -0.007544  -0.0148  -0.008913  0.3068  0.8805
6.408e+09  0.07784  0.8152  -0.01877  0.00599  -0.05608  -0.004835  0.5573  0.6643
6.409e+09  0.3151  0.7688  0.01513  -0.0122  0.01863  -0.02103  0.8014  0.4629
6.41e+09  0.6285  0.5619  -0.0312  -0.03072  0.01816  0.0184  0.9016  0.1509
6.411e+09  0.7955  0.3417  -0.03164  0.007996  0.02515  0.01331  0.8789  -0.1499
6.412e+09  0.8669  0.07607  -0.000613  0.005838  -0.01627  -0.02289  0.7929  -0.4037
6.414e+09  0.7973  -0.2234  -0.01268  0.0145  -0.009618  0.01418  0.6097  -0.6863
6.415e+09  0.6572  -0.5194  0.04414  -0.02118  0.02827  0.0158  0.3197  -0.8744
6.416e+09  0.4675  -0.7385  -0.02715  -0.03542  0.02339  0.00381  0.06675  -0.9266
6.418e+09  0.1877  -0.8129  -0.007419  -0.03565  0.008719  0.02061  -0.2751  -0.8671
6.419e+09  -0.09604  -0.9066  3.526e-05  -0.04734  0.01927  -0.009089  -0.5502  -0.7274
6.42e+09  -0.3728  -0.7596  -0.0002387  0.01014  -0.007911  -0.02409  -0.7507  -0.4414
6.421e+09  -0.6509  -0.5956  0.0006524  0.01148  -0.01277  0.03531  -0.8734  -0.1919
6.422e+09  -0.7637  -0.2741  0.03242  -0.007104  -0.07781  0.03215  -0.8657  0.1299
6.424e+09  -0.8474  -0.01781  -0.03171  -0.001307  -0.01075  -0.008272  -0.7696  0.4231
6.425e+09  -0.8027  0.2538  -0.01252  0.03651  -0.01744  0.008113  -0.5866  0.6406
6.426e+09  -0.6613  0.5372  -0.008322  0.02698  0.08444  -0.02545  -0.3533  0.8553
6.428e+09  -0.4283  0.7576  0.02239  -0.009857  0.01543  0.04651  -0.05616  0.8724
6.429e+09  -0.1722  0.8377  0.003558  -0.03035  0.01334  -0.02079  0.291  0.8122
6.43e+09  0.1129  0.8837  -0.007862  -0.004488  -0.0002034  0.05123  0.5443  0.7011
6.431e+09  0.4296  0.724  -0.01758  0.04706  0.02572  0.006975  0.7564  0.4911
6.432e+09  0.6807  0.5673  0.01758  -0.04001  -0.004349  0.01389  0.7963  0.2443
6.434e+09  0.7751  0.2833  -0.006067  -0.01602  0.03126  0.03469  0.8736  -0.05022
6.435e+09  0.8628  0.04554  0.02934  -0.01525  0.03637  -0.01809  0.7561  -0.3721
6.436e+09  0.7863  -0.291  0.02957  0.03331  -0.0204  -0.05219  0.6214  -0.6016
6.438e+09  0.6559  -0.5322  -0.00432  -0.01251  0.03938  0.001416  0.3144  -0.7912
6.439e+09  0.4585  -0.7271  0.00787  0.01157  -0.01002  -0.04488  0.112  -0.8594
6.44e+09  0.1305  -0.8347  -0.003456  -0.01239  0.01856  -0.02989  -0.2577  -0.8045
6.441e+09  -0.1116  -0.8185  -0.01594  0.01322  -0.0005301  0.04032  -0.4881  -0.694
6.442e+09  -0.3806  -0.7357  0.04991  -0.007865  0.004518  -0.028  -0.6934  -0.4537
6.444e+09  -0.6252  -0.577  0.02544  -0.02685  0.02243  -0.04103  -0.7604  -0.1963
6.445e+09  -0.7871  -0.2873  0.0253  0.01787  0.006559  -0.04454  -0.8462  0.06745
6.446e+09  -0.87  0.004477  -0.02124  0.005004  0.005023  0.07257  -0.7005  0.3509
6.448e+09  -0.8261  0.2473  0.0263  -0.01571  -0.03188  -0.01773  -0.603  0.5655
6.449e+09  -0.6161  0.574  0.01066  -0.02081  -0.01044  -0.008167  -0.3305  0.7444
6.45e+09  -0.4431  0.7549  -0.0237  -0.01303  0.04004  0.02282  -0.108  0.8529
6.451e+09  -0.1497  0.8286  0.01324  -0.007631  0.02681  0.04581  0.1795  0.8097
6.452e+09  0.1144  0.8307  -0.003435  0.02388  0.03265  -0.04179  0.486  0.6689
6.454e+09  0.4284  0.765  0.006526  -0.04653  0.01981  0.001532  0.6713  0.4741
6.455e+09  0.6669  0.5678  0.002819  -0.03764  -0.01038  0.02517  0.8065  0.2
6.456e+09  0.7884  0.34  0.001762  0.02942  0.01112  -0.006345  0.797  -0.08973
6.458e+09  0.8406  -0.0253  0.02685  -0.0006449  0.05684  -0.0417  0.7122  -0.3248
6.459e+09  0.7954  -0.287  0.03825  -0.02171  0.0284  -0.05691  0.56  -0.5914
6.46e+09  0.6562  -0.581  -0.02258  0.02079  0.05325  0.05304  0.3194  -0.7543
6.461e+09  0.4339  -0.7426  -0.001307  0.01344  -0.007976  -0.05679  0.04181  -0.8351
6.462e+09  0.1314  -0.8522  -0.02267  -0.02132  0.008251  0.01675  -0.2235  -0.775
6.464e+09  -0.1505  -0.8548  0.01939  -0.01156  -0.02012  0.04116  -0.4738  -0.7035
6.465e+09  -0.4553  -0.7797  0.02226  0.03004  -0.04306  -0.005143  -0.7027  -0.4498
6.466e+09  -0.66  -0.5567  -0.02217  0.00282  0.001529  -0.01407  -0.7486  -0.1791
6.468e+09  -0.8266  -0.3193  -0.005805  0.01206  -0.04964  0.0306  -0.812  0.09177
6.469e+09  -0.8778  0.04586  -0.007825  0.03768  -0.01004  0.0243  -0.7089  0.3633
6.47e+09  -0.7903  0.3386  0.003049  -0.01647  0.04328  -0.02973  -0.5339  0.5678
6.471e+09  -0.6278  0.5687  0.01534  0.04207  -0.02714  0.02982  -0.3789  0.7553
6.472e+09  -0.4338  0.7932  0.02597  0.01425  -0.01495  0.04005  -0.1018  0.779
6.474e+09  -0.125  0.856  -0.006887  0.03193  0.003547  0.03335  0.1945  0.7806
6.475e+09  0.2313  0.8314  0.01056  -0.01756  0.05274  0.02538  0.4602  0.6653
6.476e+09  0.4841  0.745  -0.02698  -0.03059  0.007012  -0.003501  0.6363  0.415
6.478e+09  0.699  0.4982  0.03599  0.01352  -0.01323  -0.04632  0.7916  0.2002
6.479e+09  0.8342  0.278  -0.0005133  -0.01311  -0.03607  0.01035  0.7593  -0.05679
6.48e+09  0.9075  -0.006903  0.0252  0.01433  0.005067  -0.03694  0.706  -0.3749
6.481e+09  0.7898  -0.3761  -0.03703  -0.01122  -0.03562  0.01042  0.5621  -0.5412
6.482e+09  0.6974  -0.5837  -0.007521  0.01019  -0.06497  -0.01318  0.3431  -0.7147
6.484e+09  0.4434  -0.7965  -0.005041  -0.009161  -0.01047  -0.04933  0.07953  -0.7896
6.485e+09  0.1297  -0.8816  -0.01496  0.02555  0.03662  -0.03335  -0.229  -0.7368
6.486e+09  -0.2488  -0.8784  -0.02031  0.003012  -0.01403  -0.006385  -0.4667  -0.6062
6.488e+09  -1.202  -0.8612  0.0005861  -0.02344  0.5405  -0.4585  -0.6095  -0.3881
6.489e+09  -0.6881  -0.479  -0.008534  -0.01976  0.02299  -0.03342  -0.7065  -0.2042
6.49e+09  -0.8475  -0.2973  -0.03077  0.009759  0.007114  0.009046  -0.7978  0.05681
6.491e+09  -0.9131  0.03536  0.02296  -0.03648  -0.01791  0.01089  -0.696  0.3491
6.492e+09  -0.8377  0.3701  0.01815  0.03207  -0.008615  -0.01278  -0.5518  0.5186
6.494e+09  -0.7947  0.6114  0.03825  0.02593  0.07115  -0.07511  -0.2877  0.6586
6.495e+09  -0.3664  0.7495  -0.03312  -0.005018  0.04256  -0.02454  -0.09057  0.7617
6.496e+09  -0.1041  0.8817  -0.0558  0.0001696  -0.01454  -0.01232  0.2174  0.7688
6.498e+09  0.2266  0.8352  -0.00685  0.01839  0.001416  0.002602  0.466  0.6198
6.499e+09  0.5024  0.7968  0.01609  0.01631  0.007832  -0.01251  0.6136  0.395
6.5e+09  0.706  0.5284  -0.04446  0.0264  -0.05208  0.03479  0.7121  0.1755
6.501e+09  0.8859  0.216  0.05222  0.01613  0.005569  -0.08583  0.7773  -0.07685
6.502e+09  0.8868  -0.07638  0.03208  0.001191  0.04745  -0.04188  0.6457  -0.3859
6.504e+09  0.8467  -0.3994  0.007996  -0.004597  -0.0388  0.008921  0.5087  -0.5497
6.505e+09  0.6476  -0.6199  -0.004906  -0.009268  -0.01204  -0.01903  0.3263  -0.7221
6.506e+09  0.322  -0.8211  0.02273  -0.01919  0.01545  0.001624  0.01041  -0.7432
6.508e+09  0.1101  -0.8903  -0.02557  -0.002361  0.01807  0.05759  -0.2678  -0.6831
6.509e+09  -0.2364  -0.8874  -0.01726  -0.02761  0.009705  0.007231  -0.4892  -0.6035
6.51e+09  -0.505  -0.7464  -0.01047  0.03309  -0.01457  0.03762  -0.6044  -0.3827
6.511e+09  -0.7457  -0.5319  0.002546  0.01831  -0.05205  -0.01249  -0.7412  -0.1247
6.512e+09  -0.9004  -0.2186  0.03252  0.006799  0.01068  0.0278  -0.7162  0.1845
6.514e+09  -0.8982  0.04698  0.05896  0.03392  0.02662  -0.01394  -0.6585  0.3587
6.515e+09  -0.7678  0.4353  -0.009833  -0.009822  0.01262  -0.0128  -0.4578  0.55
6.516e+09  -0.5903  0.6907  0.02118  0.01038  -0.004301  0.03854  -0.2686  0.6989
6.518e+09  -0.3923  0.8595  0.009161  0.02512  -0.05773  -0.01757  0.01119  0.7452
6.519e+09  -0.03123  0.939  -0.01683  0.01773  -0.02322  -0.04003  0.2801  0.6888
6.52e+09  0.2544  0.8769  0.04164  0.02366  -0.02521  -0.03398  0.4941  0.5703
6.521e+09  0.5671  0.7411  0.01459  0.002865  -0.01562  0.00455  0.65  0.3573
6.522e+09  0.7876  0.5047  -0.0302  0.01248  -0.01201  -0.04472  0.7197  0.1393
6.524e+09  0.9761  0.1778  0.008672  -0.009631  0.03917  0.02209  0.7113  -0.1529
6.525e+09  0.8692  -0.1619  -0.01585  0.04839  0.02216  0.01678  0.5957  -0.4142
6.526e+09  0.7975  -0.4581  0.01384  0.004455  -0.0001942  -0.001188  0.3833  -0.5328
6.528e+09  0.5548  -0.7415  0.01288  0.00315  -0.01535  0.003493  0.1842  -0.6882
6.529e+09  0.2849  -0.879  -0.0005125  -0.05049  0.05677  -0.001951  -0.02979  -0.6976
6.53e+09  0.004653  -0.939  0.002297  -0.001815  0.01126  -0.01977  -0.3192  -0.6189
6.531e+09  -0.3793  -0.9062  0.008819  0.0177  0.04879  -0.01184  -0.4707  -0.4647
6.532e+09  -0.5873  -0.6922  0.02371  0.01698  0.008158  -0.01266  -0.5541  -0.3176
6.534e+09  -0.8557  -0.449  0.001598  -0.01924  -0.0173  0.04319  -0.5972  -0.1108
6.535e+09  -0.9681  -0.1089  -0.01554  -0.03455  0.02405  -0.04963  -0.6354  0.1177
6.536e+09  -0.9558  0.1975  0.00114  0.02197  0.03687  0.01996  -0.5544  0.2955
6.538e+09  -0.8005  0.5963  0.02036  0.01184  0.004827  -0.008177  -0.4637  0.4521
6.539e+09  -0.5342  0.7546  0.03088  -0.02706  -0.008069  -0.02014  -0.3015  0.6084
6.54e+09  -0.2427  0.955  -0.0201  -0.01847  0.03076  0.03265  -0.07167  0.7078
6.541e+09  0.06241  0.9568  -0.01804  -0.004384  0.0409  -0.007328  0.2042  0.685
6.542e+09  0.4378  0.8263  0.03281  -0.01825  0.04056  -0.01013  0.4164  0.5633
6.544e+09  0.6979  0.6398  -0.01101  -0.01611  -0.03029  -0.06218  0.588  0.4131
6.545e+09  0.8867  0.343  0.01673  -0.02661  0.015  -0.02942  0.6507  0.1267
6.546e+09  0.9642  0.01342  -0.03408  -0.01876  -0.005842  0.02771  0.7206  -0.05337
6.548e+09  0.8587  -0.2811  0.01082  0.01104  0.02532  0.0482  0.6591  -0.3174
6.549e+09  0.7175  -0.5947  -0.008205  0.01039  -0.01321  -0.01278  0.47  -0.5078
6.55e+09  0.4989  -0.7965  0.006797  -0.006875  -0.02483  -0.03659  0.2937  -0.6859
