# Hz S RI R 50
6.25e+09  -0.2025  0.8462  -0.01502  -0.01774  0.03553  -0.01047  0.1594  0.5068
6.251e+09  0.03885  0.8755  0.004491  -0.01936  0.0287  -0.03341  0.3715  0.4005
6.252e+09  0.3629  0.7498  0.0144  -0.03895  -0.05474  0.0338  0.524  0.2262
6.254e+09  0.6015  0.6218  0.01488  0.01077  0.02251  0.03395  0.6048  0.04351
6.255e+09  0.7814  0.3976  -0.02586  0.02971  -0.07182  0.005372  0.5656  -0.2672
6.256e+09  0.7856  0.09623  -0.01415  0.01019  0.03918  0.01311  0.4785  -0.4461
6.258e+09  0.8475  -0.1787  -0.03716  0.01106  -0.006763  0.007448  0.2643  -0.5961
6.259e+09  0.7262  -0.4753  0.01669  -0.005756  -0.02699  -0.06268  0.05568  -0.6663
6.26e+09  0.4351  -0.6647  0.0005434  0.005031  0.0222  0.02142  -0.1847  -0.612
6.261e+09  0.2323  -0.7668  -0.01189  0.008529  -0.007351  -0.002804  -0.419  -0.5177
6.262e+09  0.0008598  -0.8175  -0.03014  0.02467  0.03108  -0.04594  -0.6469  -0.3512
6.264e+09  -0.3168  -0.79  0.01503  -0.01744  -0.0139  -0.006797  -0.6968  -0.09702
6.265e+09  -0.5766  -0.6503  -0.02666  -0.02394  0.001459  -0.005823  -0.7294  0.1605
6.266e+09  -0.7244  -0.4236  -0.02172  -0.002871  -0.0427  -0.0512  -0.5669  0.4185
6.268e+09  -0.8218  -0.07044  0.01759  0.03291  0.001832  0.02501  -0.4301  0.5672
6.269e+09  -0.8119  0.161  0.02646  -0.004303  0.01507  0.001366  -0.1788  0.703
6.27e+09  -0.7129  0.4747  -0.01602  0.05196  -0.001863  -0.04133  0.07671  0.7372
6.271e+09  -0.4395  0.6117  0.00656  -0.003235  0.01823  0.02911  0.3261  0.6704
6.272e+09  -0.1604  0.7421  0.001818  -0.005073  -0.01392  -0.006942  0.5314  0.5269
6.274e+09  0.06609  0.7948  0.03436  -0.02061  -0.0294  -0.002429  0.6829  0.323
6.275e+09  0.3495  0.711  0.0008332  -0.03842  -0.01874  0.07002  0.7485  0.06314
6.276e+09  0.6215  0.6086  0.03497  0.001134  0.02948  0.03683  0.7391  -0.2109
6.278e+09  0.6635  0.3735  -0.0003611  -0.02165  -0.04671  -0.05133  0.5977  -0.4705
6.279e+09  0.8116  0.05251  -0.02068  -0.01186  -0.01159  -0.03377  0.4209  -0.6567
6.28e+09  0.8165  -0.2159  0.001359  0.003702  0.06797  0.05984  0.1711  -0.7522
6.281e+09  0.7311  -0.438  -0.01309  -0.02154  -0.01058  -0.04618  -0.09192  -0.7321
6.282e+09  0.4662  -0.6493  0.03304  0.01666  0.02772  0.004787  -0.3854  -0.6812
6.284e+09  0.1669  -0.7972  0.01076  0.04026  -0.01931  0.02314  -0.5527  -0.4702
6.285e+09  -0.08035  -0.7871  -0.01067  -0.0461  0.001194  0.02536  -0.7352  -0.3141
6.286e+09  -0.3992  -0.6991  -0.01268  -0.01753  0.03631  -0.02847  -0.8025  -0.01602
6.288e+09  -0.596  -0.5708  -0.0103  0.001203  0.005121  0.01292  -0.7655  0.2591
6.289e+09  -0.7743  -0.2638  0.00682  0.01542  -0.06772  0.001281  -0.6136  0.4785
6.29e+09  -0.7764  -0.01988  0.01791  0.02048  0.01768  -0.0105  -0.3904  0.6914
6.291e+09  -0.7485  0.2395  -0.01684  -0.0008938  0.004856  -0.07165  -0.1426  0.7801
6.292e+09  -0.6075  0.5168  0.03779  0.009961  -0.002245  -0.01124  0.1218  0.7987
6.294e+09  -0.379  0.7076  0.007137  -0.004891  -0.02211  -0.02799  0.3911  0.7171
6.295e+09  -0.1432  0.8062  -0.01229  0.01806  0.003093  0.01305  0.6221  0.5114
6.296e+09  0.07935  0.7944  -0.006054  0.01716  -0.03011  0.03499  0.746  0.2513
6.298e+09  0.376  0.7593  0.01834  0.00335  -0.03463  0.002352  0.8369  0.02427
6.299e+09  0.6602  0.5427  0.03493  -0.001844  -0.02972  0.04177  0.7767  -0.2663
6.3e+09  0.7492  0.2962  0.004699  -0.00421  -0.01654  -0.001426  0.6555  -0.5397
6.301e+09  0.8397  0.02118  -0.001817  -0.01607  0.02739  -0.06307  0.4042  -0.712
6.302e+09  0.7016  -0.2559  -0.001364  0.01466  0.02981  -0.02116  0.183  -0.8031
6.304e+09  0.6426  -0.5349  -0.01284  -0.004479  0.02127  0.002824  -0.1365  -0.8104
6.305e+09  0.3883  -0.7341  -0.02621  -0.03155  0.00747  0.004729  -0.39  -0.7101
6.306e+09  0.08628  -0.8336  -0.0103  0.01256  0.01314  0.07136  -0.6357  -0.5798
6.308e+09  -0.1267  -0.8194  -0.01521  0.007315  0.02282  -0.004339  -0.8061  -0.3267
6.309e+09  -0.4007  -0.7408  0.004934  -0.001602  0.03057  0.04844  -0.8693  0.004492
6.31e+09  -0.6667  -0.4935  0.005176  -0.0061  0.02508  -0.05448  -0.8101  0.2934
6.311e+09  -0.8223  -0.2484  0.01756  -0.05903  -0.03535  -0.01693  -0.6684  0.5237
6.312e+09  -0.8359  0.02672  0.01839  0.003145  0.01985  -0.01999  -0.4308  0.7364
6.314e+09  -0.7554  0.3337  -0.0148  0.004823  -0.01029  0.03483  -0.1764  0.8607
6.315e+09  -0.6528  0.5704  -0.02767  0.006465  0.01799  0.04295  0.1527  0.8486
6.316e+09  -0.3868  0.73  -0.01056  0.0478  0.009347  0.01772  0.4057  0.7836
6.318e+09  -0.05354  0.8801  -0.002914  0.0006991  -0.01093  0.008015  0.6667  0.5871
6.319e+09  0.205  0.8293  0.01031  -0.008968  0.01423  -0.008163  0.8202  0.302
6.32e+09  0.414  0.6713  0.00681  0.02814  -0.01685  0.01914  0.8859  0.01345
6.321e+09  0.7051  0.4812  -0.01927  -0.007109  -0.01554  -0.002145  0.8364  -0.2831
6.322e+09  0.7903  0.1703  -0.003248  -0.01489  0.001775  0.01634  0.6923  -0.5572
6.324e+09  0.8462  -0.03527  0.0049  -0.01413  -0.01893  -0.005474  0.4685  -0.7905
6.325e+09  0.7651  -0.3269  0.01122  -0.01142  -3.821e-06  -0.01184  0.2009  -0.8558
6.326e+09  0.5723  -0.5612  -0.0149  0.02401  -0.0242  0.0009275  -0.144  -0.9202
6.328e+09  0.3327  -0.7367  0.005397  0.00879  -0.0224  -0.0269  -0.3945  -0.8027
6.329e+09  0.05104  -0.8814  -0.0322  -0.0141  -0.005978  0.02463  -0.6537  -0.598
6.33e+09  -0.2231  -0.7884  0.02079  0.007365  0.05519  -0.01688  -0.835  -0.3426
6.331e+09  -0.5193  -0.6168  0.02162  0.02374  0.02144  0.01951  -0.9063  -0.04714
6.332e+09  -0.6864  -0.4579  -0.01148  0.02019  0.01112  0.01966  -0.8662  0.2537
6.334e+09  -0.8389  -0.1284  -0.00345  -0.006206  0.01696  -0.04853  -0.7156  0.5537
6.335e+09  -0.8336  0.1072  0.03357  0.007275  -0.03231  -0.03351  -0.4807  0.7564
6.336e+09  -0.7074  0.4087  -0.006802  0.01518  0.02399  0.02608  -0.1937  0.8777
6.338e+09  -0.5261  0.658  -0.004411  0.0001321  -0.02966  -0.008527  0.1334  0.9286
6.339e+09  -0.2767  0.8198  -0.005227  -0.01028  -0.04141  -0.02087  0.4117  0.8306
6.34e+09  -0.004047  0.8762  0.007016  -0.0283  -0.03751  0.04334  0.6943  0.6148
6.341e+09  0.3277  0.7992  -0.003233  0.003096  -0.00978  0.02702  0.8407  0.344
6.342e+09  0.5515  0.6318  0.001564  0.03678  -0.00519  -0.02723  0.9295  0.05485
6.344e+09  0.7685  0.4507  0.004865  -0.01659  -0.02411  -0.005022  0.8804  -0.2405
6.345e+09  0.8332  0.136  -0.02761  0.02503  0.007618  0.0152  0.7684  -0.5725
6.346e+09  0.8384  -0.1697  0.03153  0.006069  0.01988  0.00787  0.5066  -0.7881
6.348e+09  0.7389  -0.4272  0.01405  -0.02846  0.01047  -0.005517  0.2156  -0.9087
6.349e+09  0.5414  -0.6836  0.02348  0.03104  -0.03525  -0.01075  -0.1057  -0.9255
6.35e+09  0.2878  -0.7998  -0.02032  -0.00671  -0.005279  0.02829  -0.441  -0.8609
6.351e+09  -0.05412  -0.8745  -0.009338  0.004355  -0.01993  0.03289  -0.6885  -0.679
6.352e+09  -0.3232  -0.8127  0.002627  -0.0002985  0.05382  -0.01323  -0.8502  -0.3792
6.354e+09  -0.5461  -0.663  -0.02072  0.03162  -0.0178  0.04567  -0.9241  -0.08873
6.355e+09  -0.786  -0.3324  -0.01962  -0.01188  0.01977  -0.04605  -0.9238  0.2153
6.356e+09  -0.8605  -0.0638  -0.02914  0.01351  -0.0007868  -0.0005927  -0.7699  0.5569
6.358e+09  -0.8211  0.2442  -0.05761  -0.03785  -0.03427  -0.01978  -0.5258  0.7816
6.359e+09  -0.7443  0.5228  -0.01679  0.01082  0.02911  -0.02918  -0.2104  0.9171
6.36e+09  -0.4947  0.7456  0.04132  0.01323  -0.004079  0.01535  0.09723  0.9381
6.361e+09  -0.1623  0.804  -0.04665  -0.01487  0.002643  0.01243  0.4165  0.8771
6.362e+09  0.1032  0.8112  0.01709  -0.01531  0.02637  0.01135  0.7014  0.6734
6.364e+09  0.3552  0.766  -0.0003062  -0.003891  0.02331  -0.001989  0.856  0.3932
6.365e+09  0.6498  0.5857  -0.008449  -0.02127  0.01443  -0.04055  0.8953  0.08746
6.366e+09  0.8293  0.2921  -0.01867  0.01421  -0.04621  0.01418  0.8999  -0.2317
6.368e+09  0.8288  -0.003866  0.003787  -0.001099  0.0002579  0.01103  0.7749  -0.558
6.369e+09  0.8071  -0.2984  -0.03071  0.002654  -0.0505  0.009761  0.5385  -0.8082
6.37e+09  0.6501  -0.5912  -0.02364  -0.01831  0.006832  -0.04248  0.2731  -0.9087
6.371e+09  0.4468  -0.7454  -0.001357  -0.01421  0.0257  -0.02416  -0.07803  -0.9521
6.372e+09  0.1277  -0.8768  -0.01674  0.00235  -0.0124  0.01215  -0.4061  -0.8433
6.374e+09  -0.1364  -0.8449  0.01973  -0.0001647  -0.03425  0.0532  -0.7062  -0.6723
6.375e+09  -0.4692  -0.7399  0.001391  -0.009731  0.01442  -0.005969  -0.8476  -0.3896
6.376e+09  -0.6747  -0.5274  0.02185  -0.000484  -0.019  -0.004955  -0.9255  -0.1088
6.378e+09  -0.8288  -0.3215  0.02155  0.002051  0.03229  -0.01648  -0.9061  0.2257
6.379e+09  -0.8816  0.03061  -0.04182  -0.01002  0.02038  -0.002875  -0.8058  0.5131
6.38e+09  -0.7675  0.2942  0.008029  0.0006534  0.007089  -0.02543  -0.5395  0.7523
6.381e+09  -0.6293  0.5498  0.005972  -0.05192  0.01396  -0.0123  -0.2392  0.9622
6.382e+09  -0.3676  0.7588  -0.01932  -0.01796  0.0008338  -0.01471  0.04605  0.972
6.384e+09  -0.09911  0.8103  0.03862  -0.0105  0.01248  0.01938  0.3813  0.8485
6.385e+09  0.1671  0.842  -0.02343  -0.002551  -0.01911  0.02275  0.6566  0.677
6.386e+09  0.4975  0.7223  0.03567  -0.03906  0.03255  -0.05233  0.8517  0.4317
6.388e+09  0.6703  0.5148  0.01983  -0.01743  0.05556  -0.01551  0.898  0.1134
6.389e+09  0.7925  0.2775  -0.001307  -0.01181  -0.01758  -0.01647  0.9189  -0.2438
6.39e+09  0.8415  -0.03822  -0.002241  -0.008402  0.01846  0.03121  0.7643  -0.5084
6.391e+09  0.731  -0.3396  -0.03686  -0.0001574  -0.003764  -0.01809  0.5754  -0.6992
6.392e+09  0.5747  -0.5868  0.01288  -0.03044  -0.01402  -0.006853  0.2661  -0.8811
6.394e+09  0.3751  -0.7641  -0.05095  0.001966  -0.01901  0.02072  0.006648  -0.9325
6.395e+09  0.08676  -0.876  0.01236  -0.007132  -0.008748  -0.004378  -0.355  -0.8697
6.396e+09  -0.2094  -0.836  -0.01378  -0.03139  0.001665  -0.005683  -0.5959  -0.7192
6.398e+09  -0.485  -0.6874  -0.00968  -0.001838  0.007252  -0.05401  -0.7867  -0.4366
6.399e+09  -0.726  -0.5111  -0.007773  0.003141  0.01697  -0.00117  -0.8901  -0.1198
6.4e+09  -0.8142  -0.2168  -0.004534  -0.03031  0.0007204  -0.006773  -0.8949  0.1655
6.401e+09  -0.899  0.07654  -0.00993  -0.029  -0.007146  0.02637  -0.7967  0.453
6.402e+09  -0.7806  0.336  0.01608  0.01779  -0.02126  0.03987  -0.6001  0.7169
6.404e+09  -0.5574  0.5909  0.02088  0.00161  0.02443  0.0205  -0.3371  0.7897
6.405e+09  -0.3702  0.7801  0.02029  -0.007221  0.006927  -0.001299  -0.02306  0.9115
6.406e+09  -0.04919  0.8041  0.01558  0.02375  0.009521  0.002718  0.3552  0.8753
6.408e+09  0.2823  0.8172  -0.01673  -0.03122  0.03336  0.008179  0.5687  0.723
6.409e+09  0.4009  0.6754  0.002198  0.003105  -0.01738  0.03562  0.8097  0.463
6.41e+09  0.6979  0.4569  -0.008906  -0.01187  0.001094  -0.05364  0.8987  0.1622
6.411e+09  0.8466  0.2189  -0.01341  -0.01098  0.02722  0.06435  0.8667  -0.163
6.412e+09  0.81  -0.06525  0.01876  0.02131  0.01732  -0.03927  0.7947  -0.4612
6.414e+09  0.7912  -0.3402  0.01116  -0.02156  0.0544  -0.00193  0.6392  -0.6555
6.415e+09  0.6127  -0.6219  0.01386  0.005756  0.02981  0.05658  0.3688  -0.8208
6.416e+09  0.3791  -0.7068  0.0004073  0.03046  -0.05852  0.004701  0.02944  -0.8649
6.418e+09  0.09154  -0.8529  -0.03083  -0.008191  -0.0006631  -0.003298  -0.2755  -0.8447
6.419e+09  -0.275  -0.7923  -0.02599  -0.003794  -0.0112  0.02825  -0.5579  -0.7378
6.42e+09  -0.5939  -0.6711  -0.008129  0.02926  -0.00122  -0.01514  -0.7631  -0.4681
6.421e+09  -0.7246  -0.4595  -0.05258  -0.00704  0.01721  -0.04872  -0.8309  -0.2042
6.422e+09  -0.8132  -0.1658  0.008278  -0.006088  -0.02899  -0.06268  -0.8559  0.1152
6.424e+09  -0.8588  0.1062  -0.00614  -0.02702  -0.0403  0.02012  -0.8098  0.4408
6.425e+09  -0.7953  0.4096  0.007935  0.02111  -0.0281  0.008733  -0.6063  0.6505
6.426e+09  -0.5512  0.6416  0.01873  0.01301  -0.01037  -0.002192  -0.3675  0.8334
6.428e+09  -0.336  0.7718  -0.0171  0.02547  0.003795  0.008118  -0.0481  0.8939
6.429e+09  -0.02908  0.9001  0.0184  -0.0308  -0.01524  -0.03157  0.2571  0.8357
6.43e+09  0.2824  0.8096  0.02133  -0.0145  -0.03678  -0.0054  0.5713  0.7015
6.431e+09  0.5297  0.6537  0.01848  0.02658  0.01602  0.01574  0.7007  0.499
6.432e+09  0.6942  0.4116  -0.03126  -0.01208  0.0254  0.00815  0.8583  0.2108
6.434e+09  0.8939  0.1638  0.02827  -0.006847  -0.01248  0.002022  0.865  -0.07973
6.435e+09  0.8589  -0.1037  -0.01719  0.0146  -0.0169  -0.02482  0.7965  -0.3751
6.436e+09  0.7909  -0.4269  -0.03324  0.04887  -0.01483  0.05661  0.5952  -0.5971
6.438e+09  0.6054  -0.6517  0.007429  0.000713  -0.004344  -0.03622  0.401  -0.7741
6.439e+09  0.3383  -0.8386  -0.0238  -0.01595  0.01707  0.01939  0.1029  -0.867
6.44e+09  0.02368  -0.9138  -0.01388  0.0189  0.03379  0.03365  -0.2442  -0.814
6.441e+09  -0.2518  -0.8001  -0.02807  0.06711  -0.009336  -0.04386  -0.5048  -0.6691
6.442e+09  -0.5397  -0.6521  0.004351  -0.003302  0.004114  0.01576  -0.712  -0.4545
6.444e+09  -0.74  -0.4573  0.03301  0.0003747  -0.004483  -0.05985  -0.793  -0.1937
6.445e+09  -0.8007  -0.1511  0.006144  0.01632  0.06069  0.001295  -0.8034  0.09577
6.446e+09  -0.8769  0.1444  0.04299  0.01329  -0.02166  0.0186  -0.7563  0.3719
6.448e+09  -0.7691  0.4372  -0.0602  -0.0006128  -0.005364  -0.012  -0.518  0.5776
6.449e+09  -0.5695  0.6648  0.01535  -0.02358  0.02717  0.03344  -0.3633  0.7676
6.45e+09  -0.3378  0.8106  -0.0006744  -0.06702  0.03564  -0.001791  -0.0696  0.8254
6.451e+09  -0.01336  0.8617  -0.03381  -0.04367  0.02531  0.02243  0.1908  0.738
6.452e+09  0.2953  0.8181  0.01248  0.03255  -0.01869  -0.01473  0.4612  0.7232
6.454e+09  0.5622  0.6404  -0.01326  -0.01737  -0.007706  -0.01555  0.6271  0.4456
6.455e+09  0.7787  0.3996  -0.011  -0.02158  -0.005479  0.007713  0.7902  0.2008
6.456e+09  0.8405  0.1155  -0.03741  0.02195  0.008512  -0.001444  0.7832  -0.04084
6.458e+09  0.8564  -0.188  0.01368  -0.02765  -0.003087  0.03784  0.7311  -0.3206
6.459e+09  0.7634  -0.3829  0.01064  0.02153  0.02811  0.01421  0.6248  -0.6003
6.46e+09  0.5933  -0.6715  -0.02704  -0.02647  0.02969  -0.001994  0.3392  -0.7056
6.461e+09  0.2942  -0.8356  0.01795  -0.01919  -0.01037  0.04787  0.0562  -0.8007
6.462e+09  -0.01412  -0.8773  -0.02284  0.0007664  0.03436  0.006849  -0.2011  -0.7841
6.464e+09  -0.3041  -0.8276  0.008783  -0.01827  -0.02678  0.02999  -0.4963  -0.6624
6.465e+09  -0.6021  -0.6704  0.01403  0.02484  0.02769  -0.000409  -0.6745  -0.4419
6.466e+09  -0.7696  -0.4382  -0.00327  0.03726  0.006974  0.01141  -0.8177  -0.1754
6.468e+09  -0.8501  -0.1418  -0.02309  0.009228  0.006712  -0.01673  -0.8161  0.1214
6.469e+09  -0.876  0.2511  -0.005899  0.03708  -0.006482  0.0103  -0.7392  0.3271
6.47e+09  -0.8059  0.4477  -0.01678  0.001195  0.03856  -0.00135  -0.5298  0.5698
6.471e+09  -0.5745  0.7104  0.02538  -0.01918  -0.05437  -0.01542  -0.3182  0.7184
6.472e+09  -0.3259  0.8403  0.05442  -0.03372  -0.01011  -0.003476  -0.03802  0.7975
6.474e+09  0.03406  0.8964  0.007874  0.04437  -0.0262  -0.03372  0.1716  0.7351
6.475e+09  0.3106  0.8349  -0.0319  0.01271  -0.03575  -0.03243  0.4734  0.6432
6.476e+09  0.601  0.6727  -0.0314  0.01419  0.01031  0.05108  0.6905  0.4438
6.478e+09  0.7675  0.4158  0.01275  0.0003338  -0.007671  0.01328  0.8243  0.214
6.479e+09  0.8875  0.1351  -0.009416  -0.0002626  0.03159  -0.008484  0.7699  -0.06864
6.48e+09  0.8906  -0.1737  -0.03577  -0.01917  -0.03706  0.04012  0.6511  -0.3351
6.481e+09  0.7782  -0.4552  0.04817  -0.05297  -0.02756  -0.003495  0.5108  -0.5562
6.482e+09  0.5616  -0.7214  -0.03051  -0.04063  -0.03507  0.02694  0.3514  -0.7004
6.484e+09  0.1985  -0.8706  0.008864  0.02413  0.005129  -0.03297  0.05616  -0.7626
6.485e+09  -0.1126  -0.9315  0.002654  -0.01589  0.03637  -0.07127  -0.1942  -0.7119
6.486e+09  -0.3969  -0.811  -0.0261  0.003719  0.002174  0.004147  -0.4639  -0.6182
6.488e+09  -0.583  -1.383  0.007418  -0.009312  -0.6939  0.2106  -0.6156  -0.4218
6.489e+09  -0.8864  -0.3645  0.0121  0.02721  0.01582  -0.002158  -0.7544  -0.1885
6.49e+09  -0.9101  -0.111  -0.01666  0.02145  0.01839  -0.02855  -0.7802  0.1158
6.491e+09  -0.8645  0.2232  0.02615  0.01542  -0.01538  -0.0359  -0.7077  0.3143
6.492e+09  -0.7892  0.5736  0.0001343  0.002407  -0.002797  -0.003424  -0.5311  0.5946
6.494e+09  -0.3788  0.7558  -0.0591  -0.03549  -0.07648  -0.06624  -0.321  0.7239
6.495e+09  -0.2029  0.8956  0.003415  0.001656  0.009046  0.01342  -0.0784  0.7946
6.496e+09  0.1109  0.9669  0.00531  -0.01265  -0.05307  0.00785  0.2145  0.7534
6.498e+09  0.3624  0.8197  -0.02121  0.01144  -0.05054  0.03764  0.4536  0.5949
6.499e+09  0.6979  0.604  -0.02448  0.002587  -0.03245  -0.01431  0.6369  0.3604
6.5e+09  0.8726  0.3975  -0.04077  -0.007881  -0.05776  0.02639  0.7434  0.1403
6.501e+09  0.8894  0.05508  -0.04927  0.02733  -0.01774  -0.03287  0.7186  -0.09587
6.502e+09  0.8565  -0.2835  0.004846  0.01559  -0.02535  -0.01191  0.666  -0.3742
6.504e+09  0.7562  -0.5782  0.001283  -0.02586  0.00908  0.02658  0.4879  -0.5463
6.505e+09  0.5127  -0.7747  -0.02501  0.06154  0.04663  0.002493  0.3092  -0.7213
6.506e+09  0.2301  -0.9098  -0.03735  0.006875  -0.04209  0.003637  0.04174  -0.7752
6.508e+09  -0.1734  -0.8842  -0.005763  0.01569  -0.03666  -0.0371  -0.2462  -0.6956
6.509e+09  -0.4262  -0.8715  0.002465  -0.003882  0.02154  0.005576  -0.4719  -0.5666
6.51e+09  -0.6997  -0.5352  0.02645  0.005649  -0.02926  0.003134  -0.6289  -0.3814
6.511e+09  -0.9026  -0.3151  0.0002135  0.03714  0.008224  -0.01338  -0.7127  -0.1453
6.512e+09  -0.9138  -0.003127  -0.0276  -0.02226  -0.004328  -0.01628  -0.7585  0.1073
6.514e+09  -0.7931  0.3326  0.008319  0.01058  -0.01594  -0.03023  -0.6769  0.3586
6.515e+09  -0.774  0.6127  -0.04114  -0.004969  0.0171  0.01814  -0.4637  0.5634
6.516e+09  -0.425  0.8188  0.02395  0.0009856  0.00998  0.03305  -0.2327  0.6978
6.518e+09  -0.1398  0.9401  -0.03672  0.001646  0.02278  0.0005933  -0.01016  0.741
6.519e+09  0.2242  0.8984  0.02774  -0.01275  -0.03416  -0.01776  0.3128  0.7196
6.52e+09  0.5112  0.8042  0.005746  -0.003025  -0.03305  0.02223  0.4979  0.5024
6.521e+09  0.7946  0.5719  -0.009387  0.01182  0.007884  -0.0208  0.6406  0.3583
6.522e+09  0.8878  0.25  -0.006622  0.01682  0.02332  -0.02001  0.7401  0.09912
6.524e+09  0.9628  -0.04805  0.01032  0.007278  0.0396  -0.02845  0.7282  -0.1415
6.525e+09  0.8392  -0.4062  0.02452  -0.009678  0.01129  -0.05886  0.584  -0.3916
6.526e+09  0.6803  -0.6487  -0.03046  0.009714  0.04995  0.02898  0.4471  -0.5728
6.528e+09  0.3889  -0.8622  -0.01448  0.02554  0.02011  -0.009112  0.224  -0.7072
6.529e+09  0.08541  -0.9345  0.02772  0.02306  0.02543  -0.002877  -0.08677  -0.6829
6.53e+09  -0.3511  -0.8884  -0.0105  0.01562  -0.05346  0.004161  -0.2926  -0.6381
6.531e+09  -0.5909  -0.735  0.02024  0.003153  0.02192  0.018  -0.5134  -0.4689
6.532e+09  -0.8244  -0.4801  0.0161  0.02088  -0.002734  -0.004922  -0.5912  -0.2579
6.534e+09  -0.8958  -0.2242  0.04662  0.0002587  0.04008  0.01097  -0.6337  -0.09073
6.535e+09  -0.8983  0.1343  -0.01276  -0.003835  0.008143  0.02159  -0.6303  0.09668
6.536e+09  -0.7819  0.4442  0.03609  -0.0004012  0.03496  -0.002533  -0.5526  0.2893
6.538e+09  -0.5973  0.7578  0.006356  0.03467  -0.001787  -0.02103  -0.4391  0.4558
6.539e+09  -0.3054  0.8593  0.02425  -0.03375  0.02612  0.008095  -0.3002  0.595
6.54e+09  -0.001364  0.9192  -0.02114  0.008967  0.03534  -0.03198  -0.071  0.6753
6.541e+09  0.3524  0.8731  -0.004293  -0.008139  -0.02787  -0.07015  0.2078  0.6768
6.542e+09  0.5873  0.7247  -0.012  0.0191  0.005239  -0.05771  0.3767  0.5862
6.544e+09  0.7987  0.4487  -0.01584  0.001311  -0.06866  -0.007441  0.5507  0.4069
6.545e+09  0.9153  0.118  0.01484  -0.007582  -0.00304  -0.04195  0.6774  0.1747
6.546e+09  0.8821  -0.2209  0.0228  -0.01122  -0.03881  -0.01191  0.7342  -0.08689
6.548e+09  0.761  -0.469  0.05189  -0.03444  -0.02226  -0.05202  0.6534  -0.3468
6.549e+09  0.5216  -0.7107  0.02491  0.02999  -0.02811  -0.005229  0.5203  -0.5364
6.55e+09  0.2531  -0.8746  0.008437  0.0006508  -0.03841  -0.01524  0.2927  -0.6959
