# Hz S RI R 50
6.25e+09  -0.3415  0.7597  0.005681  0.008855  0.03766  0.03507  0.1624  0.4963
6.251e+09  -0.07772  0.8513  -0.003188  -0.01299  -0.01165  0.02518  0.3466  0.4147
6.252e+09  0.2331  0.8377  -0.02363  -0.01239  0.02051  0.03411  0.5457  0.2428
6.254e+09  0.4493  0.6502  0.004412  -0.018  -0.01165  0.02221  0.596  0.02787
6.255e+09  0.656  0.4554  -0.004959  -0.01429  0.05112  -2.567e-05  0.5632  -0.2642
6.256e+09  0.827  0.1864  -0.01189  -0.006714  -0.01551  -0.05172  0.5138  -0.4315
6.258e+09  0.7983  -0.02145  0.02252  -0.00856  0.001638  -0.01251  0.2737  -0.595
6.259e+09  0.7567  -0.3561  -0.01404  0.006214  -0.05068  -0.03935  0.05178  -0.6752
6.26e+09  0.582  -0.5235  0.038  0.01176  -0.01643  0.0198  -0.23  -0.6239
6.261e+09  0.3644  -0.7553  -0.002952  0.02595  0.03084  0.03832  -0.4239  -0.5592
6.262e+09  0.1006  -0.8207  -0.02169  0.002842  0.009677  0.0005183  -0.6157  -0.3342
6.264e+09  -0.2371  -0.8311  0.03162  -0.02664  0.01805  0.01908  -0.6878  -0.05969
6.265e+09  -0.4697  -0.616  0.01883  -0.008258  -0.01438  -0.05148  -0.7189  0.1357
6.266e+09  -0.6468  -0.4711  -0.004306  0.005984  -0.0154  -0.0314  -0.623  0.4221
6.268e+09  -0.7643  -0.1748  0.001419  -0.04935  -0.04069  0.0206  -0.4154  0.5658
6.269e+09  -0.7908  -0.001077  -0.001589  -0.008816  0.03341  -0.01774  -0.2084  0.6807
6.27e+09  -0.7429  0.3319  -0.0289  -0.006682  -0.04374  -0.01872  0.1006  0.7508
6.271e+09  -0.5924  0.6183  -0.0102  -0.02311  0.02667  -0.008862  0.3326  0.6575
6.272e+09  -0.333  0.7261  -0.009521  0.006209  0.06649  -0.03116  0.5445  0.5439
6.274e+09  -0.07353  0.8273  -0.01763  0.01236  -0.01084  -0.0208  0.6949  0.2941
6.275e+09  0.1974  0.7845  -0.004732  0.009968  0.02307  -0.01199  0.7584  0.04462
6.276e+09  0.4677  0.6906  -0.01328  -0.01088  0.02096  -0.02299  0.7342  -0.2488
6.278e+09  0.6623  0.4479  0.00621  -0.02079  0.02189  0.01559  0.6316  -0.4584
6.279e+09  0.81  0.2199  -0.01001  0.01771  0.07003  -0.05839  0.4243  -0.6718
6.28e+09  0.7894  -0.1141  0.002248  -0.004516  -0.02363  -0.005137  0.1808  -0.741
6.281e+09  0.7117  -0.4239  -0.006492  0.00221  0.01513  -6.549e-05  -0.12  -0.7618
6.282e+09  0.5001  -0.5423  -0.01737  -0.007655  0.02207  0.0255  -0.3656  -0.7137
6.284e+09  0.2544  -0.7467  0.02077  0.0008951  0.04502  0.01728  -0.5698  -0.5438
6.285e+09  0.03193  -0.8326  0.005854  -0.02003  -0.04215  -0.04638  -0.7365  -0.2986
6.286e+09  -0.228  -0.765  -0.02448  0.007136  0.03602  0.01288  -0.8014  -0.01588
6.288e+09  -0.4406  -0.6671  -0.0182  0.00464  -0.0251  -0.006433  -0.7446  0.2471
6.289e+09  -0.7073  -0.4786  -0.009623  -0.003672  0.01586  0.01441  -0.6399  0.4637
6.29e+09  -0.8168  -0.1575  0.009725  -0.02557  -0.03633  -0.0528  -0.4334  0.6852
6.291e+09  -0.7829  0.09852  0.006272  0.006861  -0.04104  -0.01211  -0.1599  0.7629
6.292e+09  -0.6908  0.3499  -0.003635  0.01646  0.05761  -0.01846  0.115  0.7763
6.294e+09  -0.532  0.595  -0.02593  -0.007188  0.001181  -0.03649  0.4128  0.7328
6.295e+09  -0.3032  0.75  -0.01959  -0.03477  0.01436  -0.03117  0.6283  0.5479
6.296e+09  -0.02749  0.8302  -0.005171  0.01796  -0.0009609  0.0007736  0.807  0.2942
6.298e+09  0.294  0.7739  -0.0125  0.02261  -0.0254  0.007197  0.8003  0.04282
6.299e+09  0.4734  0.5902  -0.01528  0.01684  0.005853  0.05571  0.8046  -0.2903
6.3e+09  0.698  0.3964  0.03508  0.002025  -0.0008713  0.001615  0.6405  -0.5346
6.301e+09  0.7931  0.114  -0.008874  -0.005376  0.008779  0.01971  0.4084  -0.7109
6.302e+09  0.7834  -0.1706  0.01206  -0.01965  -0.006159  0.01948  0.1684  -0.8012
6.304e+09  0.6884  -0.4319  -0.01772  -0.0005578  0.03479  0.007706  -0.1242  -0.8611
6.305e+09  0.5402  -0.6352  0.01348  0.002461  0.0131  0.007979  -0.4273  -0.7334
6.306e+09  0.2483  -0.7308  -0.01826  -0.01026  -0.00655  -0.06547  -0.659  -0.554
6.308e+09  0.004728  -0.8178  -0.003163  0.007779  -0.01167  0.03662  -0.8102  -0.284
6.309e+09  -0.3236  -0.7284  -0.01442  0.003584  0.002556  0.003955  -0.8804  0.004921
6.31e+09  -0.5405  -0.6045  -0.006798  -0.03689  0.007145  0.01034  -0.7888  0.2704
6.311e+09  -0.7213  -0.3626  0.02785  -0.008112  -0.03884  -0.002563  -0.634  0.5473
6.312e+09  -0.8088  -0.115  0.01116  0.009564  0.0232  -0.00387  -0.4422  0.7386
6.314e+09  -0.7709  0.172  -0.007952  0.001102  -0.02579  -0.05147  -0.1524  0.8514
6.315e+09  -0.6625  0.4409  0.002933  -0.01274  -0.02269  -0.005286  0.1383  0.8679
6.316e+09  -0.4761  0.6644  -0.01707  0.02726  -0.005896  0.01656  0.4185  0.7497
6.318e+09  -0.2319  0.7726  -0.01591  0.03106  -0.03136  0.03826  0.6613  0.5736
6.319e+09  0.07222  0.807  -0.01503  -0.004691  -0.01034  0.05047  0.8241  0.3124
6.32e+09  0.3227  0.7701  0.01355  0.02556  -0.04611  -0.0004818  0.8855  0.007508
6.321e+09  0.5943  0.5709  -0.01913  -0.02445  0.0133  -0.003169  0.8672  -0.289
6.322e+09  0.7425  0.3692  0.02232  0.006937  -0.0186  0.01082  0.6891  -0.5422
6.324e+09  0.8629  0.07488  0.009201  0.006304  0.0007944  0.009741  0.4788  -0.7785
6.325e+09  0.8206  -0.1897  -0.004621  -0.0005227  -0.0285  -0.01105  0.1674  -0.8762
6.326e+09  0.6933  -0.4906  -0.02603  0.05323  0.01666  -0.005523  -0.1812  -0.8612
6.328e+09  0.4425  -0.6991  0.006233  0.03722  -0.004158  -0.02201  -0.4153  -0.8057
6.329e+09  0.1774  -0.8354  0.01279  0.02363  0.008751  0.0005353  -0.7091  -0.6194
6.33e+09  -0.05054  -0.8398  0.01543  0.001329  -0.01825  0.01997  -0.8377  -0.3256
6.331e+09  -0.3496  -0.7683  -0.02857  -0.001075  -0.004122  0.03641  -0.9046  -0.01781
6.332e+09  -0.5994  -0.573  -0.02481  -0.01231  -0.0002337  0.04301  -0.8689  0.2706
6.334e+09  -0.7932  -0.33  0.0001748  -0.002571  0.001402  -0.01996  -0.6844  0.5655
6.335e+09  -0.8214  0.001397  0.005152  0.0008631  -0.04684  -0.02825  -0.477  0.7973
6.336e+09  -0.8152  0.2573  0.03488  0.02511  0.02589  -0.01744  -0.1872  0.8587
6.338e+09  -0.6566  0.5945  8.603e-05  0.0002482  0.01987  -0.02461  0.142  0.9002
6.339e+09  -0.4568  0.7381  0.01344  0.02472  0.02802  -0.004565  0.4307  0.8072
6.34e+09  -0.1366  0.8211  0.02707  -0.02348  -0.01545  -0.006014  0.6752  0.5837
6.341e+09  0.1192  0.8524  -0.01837  -0.01284  -0.008101  -0.02764  0.8276  0.3468
6.342e+09  0.447  0.7029  -0.02052  0.00582  -0.05024  0.0181  0.904  0.05636
6.344e+09  0.6584  0.5481  0.02489  -0.02766  0.004497  0.008052  0.9135  -0.2739
6.345e+09  0.7675  0.3178  0.02024  -0.01506  0.03998  0.004663  0.752  -0.566
6.346e+09  0.8258  -0.007782  -0.01591  -0.002049  0.001496  0.05744  0.52  -0.7907
6.348e+09  0.7665  -0.3619  -0.005272  0.0003241  0.009009  0.03706  0.1841  -0.8715
6.349e+09  0.6002  -0.5728  -0.009735  -0.009222  -0.002405  0.006422  -0.1051  -0.9475
6.35e+09  0.4018  -0.7708  -0.01416  0.007497  0.02676  -0.02213  -0.3785  -0.8398
6.351e+09  0.1154  -0.836  0.01197  -0.0001664  -0.006875  0.03729  -0.697  -0.6579
6.352e+09  -0.2159  -0.8285  -0.003825  0.01703  -0.01775  0.006606  -0.8591  -0.3432
6.354e+09  -0.4839  -0.708  0.04879  -0.03293  0.02483  0.02668  -0.9202  -0.06783
6.355e+09  -0.6726  -0.471  -0.01804  -0.02126  0.02671  -0.03459  -0.9046  0.2487
6.356e+09  -0.7974  -0.199  0.003894  -0.02149  -0.02093  0.07543  -0.7267  0.5612
6.358e+09  -0.881  0.1005  -0.03065  -0.01076  -0.009179  -0.01129  -0.5383  0.811
6.359e+09  -0.7853  0.3521  0.0111  0.003606  -0.02016  -0.002548  -0.2356  0.8896
6.36e+09  -0.588  0.6992  -0.01884  -0.01151  -0.03831  0.01534  0.06554  0.9413
6.361e+09  -0.3504  0.7897  -0.01314  0.01428  -0.02829  -0.06013  0.4264  0.8798
6.362e+09  -0.03634  0.8381  -0.01307  0.01945  0.02104  0.01398  0.6717  0.6569
6.364e+09  0.3025  0.8263  0.01561  -0.03544  0.01041  -0.003327  0.866  0.3898
6.365e+09  0.5407  0.6348  -0.005074  -0.003827  0.002916  0.01539  0.9362  0.09577
6.366e+09  0.7473  0.4777  -0.03601  0.005254  -0.01531  -0.03487  0.924  -0.2293
6.368e+09  0.8633  0.1686  -0.001307  -0.002974  -0.0251  0.005216  0.7735  -0.5322
6.369e+09  0.8401  -0.1467  0.04352  0.01351  -0.01136  0.008454  0.5672  -0.7698
6.37e+09  0.7374  -0.4488  -0.008552  -0.001842  0.01262  0.04629  0.25  -0.9265
6.371e+09  0.5763  -0.6504  -0.0003303  0.01164  -0.01051  -0.02617  -0.03408  -0.9327
6.372e+09  0.3218  -0.8234  -0.03789  -0.01239  0.03939  0.01395  -0.4036  -0.8539
6.374e+09  -0.01084  -0.8425  0.02967  0.02893  0.02989  -0.001089  -0.6627  -0.6674
6.375e+09  -0.3095  -0.7586  -0.0259  -0.01097  -0.02704  -0.01132  -0.8584  -0.4004
6.376e+09  -0.5649  -0.631  -0.005709  0.0007202  -0.02083  -0.03291  -0.9393  -0.1163
6.378e+09  -0.7558  -0.466  -0.01254  -0.05383  -0.05391  0.001926  -0.9272  0.225
6.379e+09  -0.8734  -0.1813  -0.002571  -0.04119  0.03209  0.0007019  -0.7854  0.4819
6.38e+09  -0.8712  0.1859  -0.003367  -0.01562  -0.02851  0.03336  -0.5707  0.7412
6.381e+09  -0.7205  0.4488  0.02266  -0.02409  -0.02528  0.0391  -0.2524  0.8888
6.382e+09  -0.552  0.691  -0.01652  0.005888  -0.02923  0.04538  0.06382  0.9423
6.384e+09  -0.2854  0.7649  -0.01061  0.01122  0.01716  0.01232  0.408  0.8283
6.385e+09  0.02896  0.8612  -0.009063  0.02898  0.0163  -0.03902  0.6411  0.6866
6.386e+09  0.3237  0.8226  -0.007798  -0.005368  0.006834  -0.001972  0.8344  0.4289
6.388e+09  0.5898  0.5901  -0.01816  0.03218  0.01956  0.02965  0.9035  0.1008
6.389e+09  0.7785  0.3466  0.002157  0.005524  -0.01664  -0.008925  0.9242  -0.1868
6.39e+09  0.8236  0.0994  -0.01949  -0.01313  -0.0315  0.01445  0.7551  -0.4898
6.391e+09  0.8345  -0.1961  0.001508  -0.004644  -0.005194  -0.01849  0.5398  -0.7298
6.392e+09  0.7267  -0.493  -0.01578  -0.01933  0.02656  -0.03137  0.2447  -0.9227
6.394e+09  0.5149  -0.7327  0.04864  -0.00735  -0.01024  -0.0339  -0.03648  -0.9202
6.395e+09  0.2154  -0.8497  -0.006256  -0.008931  0.03043  0.02426  -0.3733  -0.8122
6.396e+09  -0.07433  -0.9028  -0.002453  -0.02976  0.06793  0.02645  -0.6256  -0.6755
6.398e+09  -0.359  -0.7791  0.008649  0.01299  -0.01458  -0.004619  -0.7976  -0.4617
6.399e+09  -0.5724  -0.6281  -0.03499  -0.03864  -0.01199  1.315e-05  -0.9018  -0.1272
6.4e+09  -0.8241  -0.3764  0.01525  0.01237  0.02287  -0.0203  -0.8818  0.1849
6.401e+09  -0.8565  -0.1023  -0.01396  0.00404  -0.007946  -0.001657  -0.805  0.4445
6.402e+09  -0.8304  0.2009  -0.001689  -0.02477  -0.009627  0.001068  -0.5672  0.6946
6.404e+09  -0.6526  0.5045  -0.05912  -0.02521  -0.007052  0.004418  -0.3269  0.8447
6.405e+09  -0.4374  0.7294  0.01809  -0.01045  -0.001942  0.01091  0.0416  0.9015
6.406e+09  -0.1775  0.8036  -0.012  -0.01295  0.02639  0.01237  0.2711  0.8673
6.408e+09  0.0833  0.8302  -0.03888  0.0094  0.01025  -0.03975  0.5619  0.6891
6.409e+09  0.3535  0.7494  0.02903  0.00281  0.001008  0.03699  0.7632  0.4544
6.41e+09  0.5871  0.5598  -0.006081  -0.04314  0.01364  0.03202  0.8973  0.1674
6.411e+09  0.7978  0.3261  -5.539e-05  0.02915  -0.01039  -0.03415  0.8875  -0.1093
6.412e+09  0.8612  0.0492  -0.003413  -0.04639  -0.01621  -0.01114  0.7959  -0.4546
6.414e+09  0.8289  -0.2631  0.009697  0.04796  0.01942  -0.03177  0.6321  -0.6645
6.415e+09  0.6416  -0.4899  0.0264  -0.00985  -0.02316  0.01461  0.3417  -0.8338
6.416e+09  0.4721  -0.7382  -0.03544  0.01493  0.03991  -0.02424  0.0612  -0.8743
6.418e+09  0.1985  -0.872  -0.01721  0.0007983  -0.01952  0.06363  -0.2735  -0.8385
6.419e+09  -0.08626  -0.8034  -0.03792  -0.03291  0.02345  0.001411  -0.5446  -0.6994
6.42e+09  -0.3838  -0.8132  0.01871  0.007634  -0.007684  0.04754  -0.715  -0.4465
6.421e+09  -0.625  -0.6044  -0.01531  -0.02922  0.01066  0.0004845  -0.8533  -0.2003
6.422e+09  -0.762  -0.2952  -0.01127  -0.009839  0.006149  0.003097  -0.8451  0.09609
6.424e+09  -0.8494  0.01707  -0.01414  0.014  0.0266  0.004866  -0.7962  0.3766
6.425e+09  -0.7748  0.2387  -0.02657  0.02243  -0.01873  -0.02946  -0.5714  0.667
6.426e+09  -0.6207  0.5258  0.01414  0.0227  -0.03694  0.02418  -0.3301  0.8175
6.428e+09  -0.4645  0.734  0.02126  0.01785  0.007363  -0.02168  -0.01331  0.8677
6.429e+09  -0.164  0.8136  0.0005182  0.04144  -0.03526  0.04255  0.2535  0.8465
6.43e+09  0.1602  0.8655  0.0002231  -0.02976  0.0008234  0.003154  0.5403  0.6942
6.431e+09  0.4298  0.7165  0.02897  0.002793  -0.02387  0.03442  0.7227  0.4923
6.432e+09  0.6471  0.5687  -0.0278  0.02294  -0.00659  0.006373  0.7946  0.2186
6.434e+09  0.733  0.3075  0.004812  -0.01156  0.0125  0.004334  0.8987  -0.1087
6.435e+09  0.8794  0.01393  -0.02677  -0.004718  -0.05851  0.03472  0.7907  -0.3697
6.436e+09  0.8425  -0.2823  -0.02407  0.00517  0.01764  0.0271  0.5601  -0.5869
6.438e+09  0.6476  -0.5794  0.0111  -0.01079  -0.0403  0.04334  0.3331  -0.7483
6.439e+09  0.472  -0.7254  0.001185  -0.02517  -0.03156  0.00734  0.02331  -0.8566
6.44e+09  0.1673  -0.8631  0.02662  -0.001417  0.03425  0.01785  -0.2514  -0.779
6.441e+09  -0.1061  -0.886  -0.0249  0.008484  -0.02351  -0.01527  -0.5034  -0.7101
6.442e+09  -0.3869  -0.7462  0.01876  0.04199  -0.02189  -0.004514  -0.7125  -0.4595
6.444e+09  -0.6038  -0.5701  0.0105  -0.0432  0.009784  -0.02349  -0.8257  -0.1909
6.445e+09  -0.7834  -0.3045  -0.007497  -0.02303  0.01389  -0.018  -0.7939  0.1031
6.446e+09  -0.8854  0.01709  0.0244  0.02026  -0.01908  -0.04124  -0.7944  0.3801
6.448e+09  -0.8105  0.2521  -0.02769  0.006028  0.01533  0.002089  -0.5697  0.6183
6.449e+09  -0.6632  0.5569  -0.01735  -0.01721  0.01974  0.03924  -0.3664  0.7468
6.45e+09  -0.3769  0.7349  0.00975  0.04349  -0.02465  -0.009036  -0.09782  0.7961
6.451e+09  -0.1652  0.831  -0.01361  0.01322  -0.0004506  -0.02873  0.2082  0.7855
6.452e+09  0.1229  0.8262  0.02913  0.01336  0.02209  -0.03863  0.4755  0.6772
6.454e+09  0.4304  0.7621  -0.03491  0.003885  0.04636  0.01559  0.6528  0.5035
6.455e+09  0.6475  0.6158  -0.005885  0.03028  0.02022  0.03465  0.8394  0.2033
6.456e+09  0.7773  0.294  -0.02061  -0.0174  0.01565  -0.001565  0.7859  -0.04815
6.458e+09  0.86  0.002254  -0.008729  -0.008203  0.01167  -0.02798  0.7155  -0.3889
6.459e+09  0.8246  -0.2742  0.01848  -0.01042  -0.01979  -0.00793  0.5736  -0.5532
6.46e+09  0.6554  -0.5953  0.06265  -0.01462  0.00816  0.0425  0.2913  -0.7612
6.461e+09  0.4404  -0.7465  -0.08174  -0.01537  0.009019  0.01202  0.04686  -0.8027
6.462e+09  0.2039  -0.7945  -0.01068  0.02163  0.01445  0.02215  -0.1892  -0.8311
6.464e+09  -0.2166  -0.842  0.02052  -0.009316  -0.03875  0.004397  -0.4707  -0.6565
6.465e+09  -0.4431  -0.7477  -0.01673  -0.04705  0.009283  0.005235  -0.6858  -0.4825
6.466e+09  -0.707  -0.5913  0.01002  -0.0003488  -0.01131  -0.001824  -0.8005  -0.188
6.468e+09  -0.8405  -0.2697  0.01651  0.01289  0.01535  -0.001171  -0.7772  0.07973
6.469e+09  -0.8533  -0.01905  0.01383  -0.01734  0.0174  0.03413  -0.7288  0.3258
6.47e+09  -0.7739  0.3569  -0.00866  0.04517  -0.04021  0.004798  -0.5855  0.5944
6.471e+09  -0.6374  0.5476  -0.03654  -0.01945  0.01573  -0.006764  -0.336  0.752
6.472e+09  -0.4386  0.7661  -0.0297  -0.009779  0.02479  0.002803  -0.08617  0.8041
6.474e+09  -0.1163  0.8802  -0.0008079  -0.01543  0.04071  0.02787  0.2307  0.7574
6.475e+09  0.1539  0.8657  -0.006387  -0.02122  -0.008824  0.00165  0.4479  0.6695
6.476e+09  0.5043  0.7286  -0.03306  0.002765  0.05821  0.00356  0.6768  0.4338
6.478e+09  0.6865  0.564  -0.01271  0.02216  0.008631  -0.02126  0.7703  0.2082
6.479e+09  0.8767  0.291  0.01743  -0.008719  0.01023  -0.0186  0.7704  -0.03916
6.48e+09  0.874  -0.07516  -0.0186  0.01113  0.006591  -0.02119  0.7102  -0.3177
6.481e+09  0.8028  -0.3337  0.02181  -0.0098  -0.005012  0.005674  0.566  -0.527
6.482e+09  0.6546  -0.5664  0.002143  -0.0239  0.04986  0.03392  0.3207  -0.724
6.484e+09  0.3872  -0.7808  -0.03189  0.01662  -0.005906  0.04678  0.06819  -0.7747
6.485e+09  0.1487  -0.8403  0.001274  -0.006001  -0.01651  0.06907  -0.2108  -0.7356
6.486e+09  -0.2055  -0.8637  0.03958  0.00569  0.02702  0.0253  -0.4838  -0.6012
6.488e+09  -0.01872  -0.1642  -0.01754  0.009216  -0.6887  -0.1463  -0.6783  -0.4702
6.489e+09  -0.7103  -0.541  -0.002032  -0.02038  0.0312  -0.04025  -0.7407  -0.2096
6.49e+09  -0.8747  -0.2869  -0.001387  -0.01894  0.02692  -0.02691  -0.7683  0.08104
6.491e+09  -0.8516  0.01158  0.02007  0.03644  -0.0204  0.006434  -0.6859  0.3224
6.492e+09  -0.7748  0.3493  0.02426  0.01066  -0.01244  0.03945  -0.5528  0.5514
6.494e+09  -0.652  0.7493  0.01679  -0.03184  -0.1379  0.0486  -0.3059  0.7055
6.495e+09  -0.4082  0.7529  0.05936  0.02939  -0.01299  0.008856  -0.02137  0.7656
6.496e+09  -0.1008  0.9202  0.02631  0.002479  0.04324  0.02427  0.2137  0.7275
6.498e+09  0.1969  0.8327  -0.005914  0.02184  0.01072  0.01078  0.4739  0.5832
6.499e+09  0.5242  0.7333  0.01881  0.03135  -0.01258  -0.009226  0.618  0.4044
6.5e+09  0.7044  0.4799  0.003922  -0.02028  0.02067  0.0009424  0.7292  0.1665
6.501e+09  0.8709  0.2151  -0.006789  0.0002167  -0.02511  -0.03209  0.7242  -0.1041
6.502e+09  0.9265  -0.1136  -0.0112  -0.001377  0.0251  0.0203  0.6993  -0.3692
6.504e+09  0.8217  -0.3698  0.0006784  -0.01203  0.01119  -0.0102  0.5113  -0.5744
6.505e+09  0.69  -0.6116  -0.008407  0.01236  -0.01262  -0.04836  0.3219  -0.6696
6.506e+09  0.3723  -0.8391  0.0577  -0.02118  -0.05522  0.01364  0.0007724  -0.7812
6.508e+09  0.0247  -0.906  0.01565  -0.01876  0.0161  0.02422  -0.2387  -0.7042
6.509e+09  -0.2424  -0.8789  0.03704  0.01674  0.01667  0.001597  -0.4803  -0.6196
6.51e+09  -0.5664  -0.7544  -0.0005998  -0.0009719  -0.009752  -0.0323  -0.6458  -0.3748
6.511e+09  -0.7342  -0.4556  -0.02677  -0.0006923  -0.001825  0.0559  -0.7384  -0.1355
6.512e+09  -0.896  -0.2194  -0.01457  -0.02428  0.008369  0.03453  -0.7687  0.1163
6.514e+09  -0.8804  0.1613  0.03194  -0.03393  -0.003029  -0.02838  -0.6462  0.3605
6.515e+09  -0.779  0.4249  0.001193  -0.0218  -0.04976  0.004354  -0.5097  0.5996
6.516e+09  -0.6476  0.6747  0.005035  -0.02176  -0.01277  0.007894  -0.2341  0.7022
6.518e+09  -0.3138  0.8514  -0.01035  -0.02905  -0.01431  0.01026  -0.008973  0.7418
6.519e+09  -0.007115  0.909  0.01169  0.003723  -0.0143  0.02298  0.2732  0.6885
6.52e+09  0.256  0.9182  0.01396  -0.0006484  0.009171  -0.002298  0.4806  0.5507
6.521e+09  0.6011  0.7314  -0.01236  0.01742  -0.004667  -0.0441  0.6119  0.3512
6.522e+09  0.8124  0.4955  0.026  0.01937  -0.006984  0.02414  0.7466  0.09229
6.524e+09  0.933  0.125  -0.004422  0.005891  -0.007671  -0.0749  0.6887  -0.1507
6.525e+09  0.8902  -0.1821  0.009286  0.01043  0.03902  0.009598  0.6007  -0.3908
6.526e+09  0.7621  -0.5246  -0.003557  0.002034  0.02951  -0.02084  0.4293  -0.5789
6.528e+09  0.6225  -0.7182  -0.0001714  0.02933  -0.008915  -0.01079  0.2074  -0.6776
6.529e+09  0.3499  -0.9165  -0.008198  -0.007335  -0.0131  -0.01668  -0.06026  -0.6496
6.53e+09  -0.03555  -0.9627  0.02878  0.007161  0.01101  -0.006628  -0.2652  -0.6116
6.531e+09  -0.3634  -0.9274  0.01046  0.008848  0.01801  -0.04401  -0.4704  -0.4698
6.532e+09  -0.6312  -0.6615  0.001311  0.004153  0.003548  -0.0507  -0.6019  -0.2856
6.534e+09  -0.8437  -0.3896  0.004738  0.024  0.01292  -0.01748  -0.6079  -0.06049
6.535e+09  -0.9911  -0.1265  0.002817  -0.03013  0.01862  0.03055  -0.6309  0.1155
6.536e+09  -0.8776  0.2198  -0.00842  0.005007  -0.01746  0.009718  -0.542  0.3042
6.538e+09  -0.7718  0.5118  -0.01549  0.01489  0.02881  -0.01463  -0.4327  0.459
6.539e+09  -0.5083  0.7881  -0.03149  -0.0202  -0.01094  -0.008801  -0.2803  0.6006
6.54e+09  -0.2407  0.9234  0.03429  0.01607  -0.03565  0.006585  -0.05073  0.6791
6.541e+09  0.05007  0.9065  0.007565  -0.004146  0.04788  0.04466  0.1678  0.6624
6.542e+09  0.4301  0.8205  0.03063  0.002779  0.03456  0.02083  0.4201  0.5712
6.544e+09  0.6836  0.6029  0.001707  0.0245  0.005779  -0.02681  0.6194  0.3859
6.545e+09  0.8902  0.3771  0.0009891  0.02387  0.02233  0.01584  0.7154  0.2052
6.546e+09  0.9087  0.02725  0.01495  0.04398  -0.05994  0.01786  0.7263  -0.0853
6.548e+09  0.8554  -0.3272  -0.0008829  -0.008742  0.04277  -0.002689  0.6432  -0.306
6.549e+09  0.7325  -0.5983  0.02154  0.01954  0.01916  -0.01293  0.5145  -0.5321
6.55e+09  0.4885  -0.8165  -0.01053  0.007977  0.0243  0.02548  0.2688  -0.6687
