# Hz S RI R 50
6.25e+09  -0.6386  0.5657  0.03325  -0.00176  -0.02728  -0.00838  0.1387  0.4755
6.251e+09  -0.3901  0.7599  0.01471  -0.0369  -0.02666  -0.02418  0.3685  0.4261
6.252e+09  -0.1146  0.834  -0.009227  0.02672  -0.00409  0.008608  0.4929  0.228
6.254e+09  0.1596  0.7294  -0.009653  -0.0002677  0.02336  0.04849  0.5938  0.02746
6.255e+09  0.4683  0.666  -0.003481  0.00527  -0.01542  0.008265  0.5884  -0.2424
6.256e+09  0.6886  0.4741  0.01402  0.02196  -0.01239  -0.01102  0.4913  -0.4386
6.258e+09  0.725  0.1943  -0.01139  -0.006927  0.01623  0.02482  0.295  -0.6024
6.259e+09  0.8155  -0.04745  0.009311  0.006455  -0.075  -0.009706  0.007646  -0.64
6.26e+09  0.71  -0.3251  -0.0179  -0.005949  -0.02086  -0.0186  -0.2261  -0.6215
6.261e+09  0.5536  -0.5776  -0.005217  0.02801  0.01566  0.01234  -0.4425  -0.5388
6.262e+09  0.3063  -0.738  0.002967  -0.0186  0.02862  0.002878  -0.6319  -0.3385
6.264e+09  0.09617  -0.7429  0.03249  -0.02107  0.02442  -0.02248  -0.699  -0.1002
6.265e+09  -0.2045  -0.7731  -0.0009741  0.008695  -0.06754  0.03406  -0.696  0.1905
6.266e+09  -0.4516  -0.6586  -0.00565  0.01208  -0.0332  -0.004629  -0.5935  0.3928
6.268e+09  -0.6469  -0.4388  -0.01337  0.001848  -0.04604  -0.01153  -0.4507  0.5839
6.269e+09  -0.6937  -0.2018  -0.0122  -0.005401  0.0159  -0.003423  -0.1557  0.7065
6.27e+09  -0.7972  0.02852  0.03123  0.005237  -0.03973  0.0008712  0.06585  0.7264
6.271e+09  -0.7407  0.3366  0.01074  -0.007098  0.02855  -0.04729  0.2825  0.6874
6.272e+09  -0.5718  0.5215  0.01103  0.0144  -0.04521  -0.06397  0.5105  0.5515
6.274e+09  -0.3799  0.6944  -0.002988  -0.008464  -0.01567  0.003278  0.6716  0.2946
6.275e+09  -0.09972  0.8219  -0.02906  0.005656  -0.01508  -0.03638  0.7438  0.06183
6.276e+09  0.1903  0.7894  0.02089  0.01957  0.04184  -0.02521  0.7222  -0.2167
6.278e+09  0.4852  0.663  0.004874  0.02664  0.00271  -0.02065  0.5979  -0.4368
6.279e+09  0.6298  0.4612  -0.01093  0.006049  -0.01698  -0.0256  0.4498  -0.6635
6.28e+09  0.8151  0.2515  0.01131  -0.003162  0.05031  0.02579  0.1838  -0.7476
6.281e+09  0.7566  -0.06196  0.002877  0.0144  0.004561  -0.005871  -0.1087  -0.7934
6.282e+09  0.7596  -0.3569  -9.385e-05  -0.005108  -0.002924  -0.005439  -0.37  -0.6736
6.284e+09  0.6057  -0.5676  0.01425  0.005359  0.002228  0.02833  -0.5844  -0.5149
6.285e+09  0.3131  -0.7438  0.006517  0.01093  -0.03557  -0.002424  -0.7391  -0.2727
6.286e+09  0.1123  -0.7911  0.001132  0.01225  0.002365  0.02412  -0.7953  -0.005409
6.288e+09  -0.2021  -0.7691  -0.00594  0.0003049  -0.02552  0.002575  -0.7329  0.2796
6.289e+09  -0.4384  -0.6591  -0.002796  -0.01449  0.03859  0.01071  -0.6328  0.5063
6.29e+09  -0.6434  -0.419  0.001698  -0.02802  -0.0001177  0.04235  -0.3978  0.6809
6.291e+09  -0.7471  -0.2095  0.002978  0.006999  -0.04746  -0.02065  -0.1441  0.7797
6.292e+09  -0.7665  0.06899  0.007411  0.007753  0.001869  0.01429  0.1232  0.8046
6.294e+09  -0.6622  0.3264  0.002471  -0.005935  -0.007466  -0.01156  0.3754  0.709
6.295e+09  -0.569  0.5404  -0.001153  -0.003672  0.05902  0.01504  0.6473  0.5465
6.296e+09  -0.3157  0.6953  -0.005803  -0.0007165  -0.002967  -0.03461  0.7375  0.2979
6.298e+09  -0.04176  0.8009  -0.02705  0.002543  -0.00593  0.02362  0.8223  -0.004305
6.299e+09  0.1996  0.748  0.002487  0.002666  0.005419  0.02688  0.7836  -0.2734
6.3e+09  0.444  0.6328  0.04234  -0.01287  0.003433  -0.01307  0.6298  -0.5192
6.301e+09  0.6646  0.4611  0.008849  -0.02829  -0.03053  -0.00905  0.4808  -0.7121
6.302e+09  0.8167  0.1237  0.01712  -0.002743  -0.0206  -0.02886  0.1331  -0.871
6.304e+09  0.8187  -0.1349  -0.001162  0.01187  0.02353  -0.01891  -0.1598  -0.8557
6.305e+09  0.7334  -0.3977  -0.01066  0.02391  -0.03783  -0.007549  -0.3959  -0.7456
6.306e+09  0.5813  -0.6245  -0.01288  0.00496  0.01732  -0.0293  -0.6149  -0.5462
6.308e+09  0.2856  -0.7461  0.0006775  -0.0281  0.03304  -0.02777  -0.8251  -0.308
6.309e+09  0.00813  -0.8316  0.0155  -0.02219  0.0202  0.02359  -0.8435  0.008288
6.31e+09  -0.2988  -0.7438  0.0009133  0.01713  0.03821  -0.00152  -0.7909  0.3137
6.311e+09  -0.4985  -0.6208  0.01663  -0.00469  0.0006211  0.002593  -0.6762  0.5577
6.312e+09  -0.7101  -0.432  -0.03071  0.01111  -0.03107  -0.01134  -0.4391  0.7583
6.314e+09  -0.8114  -0.1144  -0.003547  0.03505  -0.009107  0.01822  -0.1386  0.837
6.315e+09  -0.8621  0.1285  0.002828  -0.00856  0.02323  -0.04783  0.1462  0.8613
6.316e+09  -0.727  0.4506  0.01211  0.006961  -0.02598  -0.01651  0.4217  0.7763
6.318e+09  -0.5017  0.5938  -0.01734  0.007293  0.04401  -0.02337  0.6713  0.5753
6.319e+09  -0.2506  0.7455  -0.0231  -0.004851  0.005097  0.02304  0.8478  0.3195
6.32e+09  0.04293  0.8405  -0.01112  0.01379  0.004305  -0.006503  0.8961  0.03416
6.321e+09  0.2851  0.7722  -0.02897  -0.03359  0.00553  0.00303  0.8767  -0.2855
6.322e+09  0.5748  0.6079  -0.007246  0.0008629  0.01593  0.02923  0.7144  -0.5848
6.324e+09  0.7199  0.3895  -0.02129  -0.00765  -0.005309  0.01831  0.4789  -0.7549
6.325e+09  0.8367  0.07623  0.01392  0.000499  0.004695  0.04428  0.1602  -0.8773
6.326e+09  0.8122  -0.1942  0.01189  -0.01159  -0.005439  0.02217  -0.1289  -0.8537
6.328e+09  0.7072  -0.4792  -0.007292  -0.009124  -0.006353  -0.003127  -0.4355  -0.7506
6.329e+09  0.4696  -0.7141  0.02939  -0.0343  0.0135  0.0194  -0.6659  -0.6036
6.33e+09  0.2861  -0.8188  -0.01524  0.009065  0.0157  0.01897  -0.8602  -0.3232
6.331e+09  -0.1062  -0.8462  -0.003521  0.002615  0.02317  -0.05058  -0.9081  -0.02623
6.332e+09  -0.397  -0.7561  0.02491  0.009891  -0.003537  -0.0186  -0.8592  0.2805
6.334e+09  -0.6238  -0.5679  0.01526  -0.01555  -0.03253  -0.004405  -0.7225  0.5779
6.335e+09  -0.7812  -0.3596  0.007965  -0.03625  0.03393  -0.02234  -0.532  0.8093
6.336e+09  -0.7975  -0.09091  -0.009269  0.007811  0.02847  -0.001078  -0.1994  0.874
6.338e+09  -0.8058  0.2221  0.01716  0.026  0.03531  -0.004549  0.1311  0.9156
6.339e+09  -0.6473  0.5098  0.01919  -0.02704  0.03222  0.01531  0.4301  0.7836
6.34e+09  -0.4984  0.7014  0.009787  -0.01729  0.001466  0.01103  0.6536  0.6678
6.341e+09  -0.1841  0.7709  0.04365  0.00102  0.02019  0.03941  0.8513  0.3734
6.342e+09  0.1416  0.8117  0.005046  0.02137  -0.03742  -0.006608  0.9235  -0.007426
6.344e+09  0.4071  0.7224  0.001582  0.01235  0.03162  0.02195  0.8666  -0.2737
6.345e+09  0.6167  0.5605  -0.003044  0.0217  0.01675  0.01044  0.7367  -0.5427
6.346e+09  0.7719  0.308  -0.009795  -0.01216  0.01805  0.004112  0.4845  -0.7778
6.348e+09  0.8071  -0.001148  0.003431  0.003898  -0.002465  0.03791  0.1847  -0.9066
6.349e+09  0.7525  -0.2953  0.02243  -0.01716  0.007124  -0.01349  -0.1176  -0.9346
6.35e+09  0.6971  -0.5604  0.01618  0.02456  -0.001801  0.01013  -0.3921  -0.8436
6.351e+09  0.3976  -0.7094  0.03587  0.0007775  0.01364  -0.01096  -0.6958  -0.6613
6.352e+09  0.1279  -0.842  -0.01586  0.0249  0.03194  0.05726  -0.8818  -0.3873
6.354e+09  -0.1593  -0.8178  -0.008931  0.0005885  0.02577  -0.02714  -0.9317  -0.04402
6.355e+09  -0.4879  -0.703  -0.01148  0.01479  -0.05513  0.006612  -0.9157  0.2791
6.356e+09  -0.6294  -0.5142  -0.008989  0.009955  0.003025  -0.03767  -0.7836  0.5731
6.358e+09  -0.8183  -0.2221  -0.001479  0.008839  -0.03769  -0.01475  -0.5625  0.7435
6.359e+09  -0.8181  0.07183  0.03315  -0.006566  -0.04038  0.07874  -0.2474  0.9311
6.36e+09  -0.7722  0.3574  -0.002412  -0.00952  -0.03138  -0.02597  0.08033  0.9493
6.361e+09  -0.6032  0.5911  -0.0124  -0.006704  0.0246  0.02861  0.4205  0.8874
6.362e+09  -0.3616  0.7094  -0.00859  0.01939  0.03275  -0.01791  0.6762  0.6156
6.364e+09  -0.03658  0.861  -0.03059  0.02124  0.02589  0.00338  0.8436  0.4142
6.365e+09  0.2437  0.8155  -0.0326  0.02109  0.0332  -0.02492  0.9489  0.08447
6.366e+09  0.4867  0.6878  -0.02924  0.008961  -0.009346  -0.009205  0.9261  -0.2911
6.368e+09  0.7409  0.4828  -0.01601  0.001554  0.0003242  0.01618  0.7128  -0.5605
6.369e+09  0.847  0.2158  0.0195  -0.03053  -0.003559  -0.01729  0.537  -0.7698
6.37e+09  0.8733  -0.1649  -0.0055  0.02174  -0.02101  0.0018  0.2614  -0.928
6.371e+09  0.7604  -0.464  -0.02373  -0.001187  0.01435  -0.009109  -0.04973  -0.9287
6.372e+09  0.5771  -0.664  -0.01891  -0.02052  0.01071  -0.02446  -0.4071  -0.8511
6.374e+09  0.3522  -0.8102  0.01473  0.01026  0.04571  0.02111  -0.6874  -0.6757
6.375e+09  -0.005736  -0.8733  -0.03963  -0.0168  -0.02452  -0.006092  -0.8648  -0.4546
6.376e+09  -0.3003  -0.7777  0.005395  0.008377  -0.02398  -0.01278  -0.9283  -0.08493
6.378e+09  -0.5648  -0.6239  -0.007877  0.03931  -0.001233  0.03126  -0.9338  0.2321
6.379e+09  -0.7475  -0.4318  -0.0009396  -0.006288  -0.01082  -0.03021  -0.7578  0.5248
6.38e+09  -0.8139  -0.1796  -0.02223  -0.06307  -0.01097  -0.01967  -0.5406  0.7298
6.381e+09  -0.8194  0.157  0.02004  -0.01438  -0.01913  -0.009445  -0.3011  0.9247
6.382e+09  -0.7205  0.4362  0.001447  -2.544e-05  -0.01656  0.005482  0.05893  0.8902
6.384e+09  -0.5759  0.6912  0.02116  -0.005384  0.02705  -0.004934  0.3665  0.8636
6.385e+09  -0.2324  0.8539  0.04386  0.02878  -0.02649  0.008655  0.6396  0.693
6.386e+09  0.0469  0.8734  0.01134  0.03057  0.01413  -0.01659  0.7779  0.4179
6.388e+09  0.3417  0.8103  0.007738  0.01333  -0.007458  -0.01093  0.9079  0.1237
6.389e+09  0.5995  0.6478  -0.02497  0.01441  -0.0009088  0.005687  0.8402  -0.1907
6.39e+09  0.7444  0.3713  0.003067  -0.01658  0.001454  -0.01018  0.7529  -0.4695
6.391e+09  0.8518  0.08029  0.01345  0.001959  0.02588  0.02773  0.6083  -0.7287
6.392e+09  0.8319  -0.2101  -0.003698  0.001969  -0.01666  0.02711  0.2777  -0.8725
6.394e+09  0.699  -0.5079  0.02125  -0.004808  0.02345  0.005452  -0.05618  -0.9239
6.395e+09  0.4936  -0.6872  -0.00133  0.008953  -0.009588  -0.03562  -0.3748  -0.863
6.396e+09  0.2201  -0.8249  0.001719  -0.01049  -0.03032  -0.02318  -0.6188  -0.6763
6.398e+09  -0.07808  -0.8139  -0.02764  -0.02884  0.02445  -0.01904  -0.8191  -0.4834
6.399e+09  -0.3787  -0.7913  0.005038  0.02025  -0.04885  0.006324  -0.8915  -0.1502
6.4e+09  -0.5962  -0.578  -0.007595  0.01428  0.03663  -0.02086  -0.8714  0.1699
6.401e+09  -0.8003  -0.3098  0.007103  0.0134  -0.05005  -0.007164  -0.7754  0.4705
6.402e+09  -0.8553  -0.1049  -0.0225  0.004837  -0.01044  0.01561  -0.6139  0.7188
6.404e+09  -0.8366  0.1758  0.001335  0.06948  0.02335  0.009386  -0.2964  0.9099
6.405e+09  -0.6585  0.521  0.007841  -0.01984  0.06024  -0.01448  0.01731  0.9081
6.406e+09  -0.4799  0.6907  0.04716  -0.00977  -0.0006081  0.04113  0.271  0.8616
6.408e+09  -0.2236  0.8317  -0.02393  0.008571  -0.03707  -0.04829  0.5575  0.7063
6.409e+09  0.09338  0.8724  -0.008639  -0.04548  0.01668  0.02742  0.7943  0.466
6.41e+09  0.3705  0.7435  -0.05665  0.01119  -0.009421  -0.02121  0.8958  0.1776
6.411e+09  0.5997  0.5833  -0.01308  0.06165  -0.03148  -0.002821  0.8836  -0.1844
6.412e+09  0.7628  0.3028  0.01555  -0.04597  -0.000618  0.03266  0.7588  -0.4157
6.414e+09  0.8413  0.1111  0.03816  0.002714  0.01092  -0.01306  0.6435  -0.7025
6.415e+09  0.7998  -0.2609  -0.01777  0.05683  0.01241  -0.02929  0.3252  -0.807
6.416e+09  0.6926  -0.5222  -0.0567  -0.008672  0.002013  -0.04623  0.01532  -0.9291
6.418e+09  0.4463  -0.7082  -0.005031  0.04534  -0.02903  0.02319  -0.2572  -0.84
6.419e+09  0.2029  -0.8402  0.02665  -0.02387  -0.03013  0.02703  -0.5191  -0.6957
6.42e+09  -0.1502  -0.8324  -0.019  0.006426  -0.03914  0.00213  -0.7239  -0.4901
6.421e+09  -0.3938  -0.7144  0.009835  0.02816  -0.02428  0.05472  -0.8953  -0.2348
6.422e+09  -0.6279  -0.5219  -0.02464  -0.01544  0.002089  0.006578  -0.9099  0.1273
6.424e+09  -0.798  -0.2915  -0.03132  -0.04492  0.03015  -0.03162  -0.8069  0.4063
6.425e+09  -0.8078  -0.00472  -0.02474  0.006496  0.006751  0.01383  -0.5899  0.5702
6.426e+09  -0.8038  0.2794  0.03559  0.006101  -0.0251  0.01168  -0.3602  0.8066
6.428e+09  -0.6119  0.535  0.02067  0.03068  -0.0019  0.02808  -0.04251  0.8695
6.429e+09  -0.4472  0.7308  -0.02017  -0.004452  -0.004014  0.01209  0.2364  0.7909
6.43e+09  -0.1696  0.8341  -0.04644  -0.03723  0.02245  -0.0235  0.4795  0.7043
6.431e+09  0.1868  0.8263  -0.02268  -0.006508  0.03484  -0.003726  0.6931  0.4429
6.432e+09  0.4369  0.736  -0.03299  0.03004  0.02127  -0.01013  0.8036  0.1883
6.434e+09  0.6903  0.5014  0.0484  0.01164  -0.01499  -0.005667  0.8509  -0.08918
6.435e+09  0.776  0.2532  -0.0295  -0.01149  0.007484  -0.03044  0.7805  -0.4023
6.436e+09  0.8237  -0.0601  0.01018  0.01373  0.02111  -0.06493  0.6439  -0.615
6.438e+09  0.8297  -0.3103  0.004004  -0.03764  -0.02194  0.01769  0.3635  -0.8074
6.439e+09  0.6359  -0.5942  0.006012  0.0348  -0.008578  -0.007452  0.08438  -0.84
6.44e+09  0.4413  -0.7559  -0.05191  0.008129  0.009314  -0.03173  -0.2247  -0.7945
6.441e+09  0.1729  -0.81  -0.01617  0.006161  -0.004862  0.01622  -0.5151  -0.6806
6.442e+09  -0.1578  -0.8613  0.01766  -0.01991  0.01894  -0.02615  -0.6582  -0.5094
6.444e+09  -0.4012  -0.7103  -0.01247  0.01553  0.04625  0.03084  -0.8328  -0.1662
6.445e+09  -0.6863  -0.5623  -0.05363  0.01813  0.01926  -0.01861  -0.7957  0.09718
6.446e+09  -0.8476  -0.2695  -0.05756  -0.006695  -0.01785  0.001928  -0.7669  0.376
6.448e+09  -0.8278  -0.04309  0.008994  -0.0212  -0.0009064  -0.0005117  -0.5771  0.5893
6.449e+09  -0.8337  0.3145  0.009682  0.01187  -0.02187  0.0001282  -0.3942  0.7751
6.45e+09  -0.6193  0.5821  0.03114  0.02069  0.007186  0.00789  -0.07048  0.8035
6.451e+09  -0.4229  0.7363  5.336e-05  0.01373  -0.03202  -0.002638  0.2001  0.8076
6.452e+09  -0.1646  0.8755  -0.04977  -0.02415  0.03734  0.001657  0.4322  0.6576
6.454e+09  0.2053  0.8229  -0.00695  0.0005748  0.005846  -0.02783  0.6432  0.516
6.455e+09  0.4745  0.722  -0.0239  0.02907  0.01801  0.0405  0.8051  0.2506
6.456e+09  0.6585  0.5442  0.006125  0.003023  0.02083  -0.00156  0.8227  -0.08705
6.458e+09  0.807  0.299  -0.005414  -0.02292  0.007762  -0.001795  0.7252  -0.3536
6.459e+09  0.8722  -0.05471  -0.005223  -0.01354  -0.03394  0.003275  0.6035  -0.5403
6.46e+09  0.7889  -0.2888  -0.04203  -0.03739  0.06088  -0.0313  0.3341  -0.7163
6.461e+09  0.648  -0.5242  0.009593  0.007435  0.001147  0.01814  0.04225  -0.8144
6.462e+09  0.3407  -0.7552  -0.000487  0.0233  -0.03782  0.04952  -0.1965  -0.7981
6.464e+09  0.09834  -0.8516  0.009893  -0.02571  -0.01258  0.04652  -0.4747  -0.6488
6.465e+09  -0.1341  -0.8829  0.02893  0.02963  0.00622  -0.01956  -0.6017  -0.4703
6.466e+09  -0.4629  -0.6568  0.02113  -0.007973  -0.0491  -0.03584  -0.7843  -0.2106
6.468e+09  -0.71  -0.5335  -0.01207  0.001775  -0.005531  0.005223  -0.8099  0.07356
6.469e+09  -0.7937  -0.2842  -0.03041  0.01366  0.009976  0.001462  -0.7041  0.3603
6.47e+09  -0.8426  0.02209  0.01103  -0.01494  0.02756  -0.02178  -0.5802  0.6023
6.471e+09  -0.8184  0.2883  -0.01152  -0.01334  -0.03679  0.008253  -0.2682  0.7313
6.472e+09  -0.5894  0.5907  0.01356  0.003038  -0.002553  -0.004723  -0.05031  0.7462
6.474e+09  -0.4111  0.7805  0.02443  0.002218  -0.01993  0.08054  0.209  0.7552
6.475e+09  -0.1626  0.8327  0.002581  -0.01718  -0.007875  -0.002536  0.4301  0.6278
6.476e+09  0.1895  0.7974  0.01567  0.02924  -0.01809  -0.01671  0.6289  0.4406
6.478e+09  0.4699  0.702  0.01127  0.04833  0.01794  0.03976  0.7755  0.218
6.479e+09  0.6649  0.5112  -0.01384  0.02858  -0.01039  0.004051  0.7939  -0.09101
6.48e+09  0.7821  0.2228  0.03668  -0.009081  0.01703  0.003207  0.7463  -0.3104
6.481e+09  0.8575  -0.02916  -0.003191  -0.0005795  -0.02114  -0.02464  0.5939  -0.5466
6.482e+09  0.7874  -0.328  -0.02862  -0.009602  0.02343  -0.01903  0.3248  -0.6981
6.484e+09  0.6574  -0.5716  0.03169  0.004398  0.02589  -0.01315  0.1139  -0.7692
6.485e+09  0.4174  -0.7647  0.01513  -0.04071  0.04755  0.02184  -0.1957  -0.7618
6.486e+09  0.1075  -0.8468  0.001224  -0.01827  0.01351  0.002052  -0.4651  -0.6333
6.488e+09  -0.8919  -1.088  0.01355  -0.01223  -0.6904  0.2602  -0.676  -0.4455
6.489e+09  -0.4803  -0.6866  0.04045  0.0161  0.02522  0.04816  -0.7724  -0.2022
6.49e+09  -0.7144  -0.497  -0.006043  0.002717  0.01323  0.03325  -0.7651  0.0732
6.491e+09  -0.8045  -0.2537  0.03297  -0.01012  -0.01836  0.02766  -0.6762  0.3367
6.492e+09  -0.9024  0.09285  0.006105  -0.009926  -0.01116  -0.02774  -0.5661  0.5867
6.494e+09  -0.865  0.4033  0.003951  -0.01862  -0.04733  -0.0687  -0.2762  0.6756
6.495e+09  -0.6432  0.5905  0.02837  0.01068  0.0313  -0.01228  -0.06897  0.7638
6.496e+09  -0.3832  0.8183  -0.02959  -0.01881  -0.01902  -0.0201  0.2167  0.7411
6.498e+09  -0.1219  0.8428  0.005432  -0.02069  0.02059  -0.007026  0.466  0.6127
6.499e+09  0.2385  0.8993  -0.008178  0.03684  -0.06177  0.0175  0.6297  0.4226
6.5e+09  0.4943  0.7167  0.02827  0.001936  0.05628  -0.02029  0.7389  0.1193
6.501e+09  0.7533  0.4768  0.03252  -0.0193  0.0433  -0.05425  0.6781  -0.1073
6.502e+09  0.8234  0.2474  -0.03133  0.02437  0.0326  0.02458  0.6793  -0.3557
6.504e+09  0.8643  -0.08974  0.004443  -0.01938  -0.01187  0.0268  0.5083  -0.5586
6.505e+09  0.8119  -0.3676  -0.01039  -0.01672  -0.01594  -0.02624  0.2802  -0.7072
6.506e+09  0.6148  -0.6239  -0.03478  -0.01679  -0.0408  -0.01173  0.02679  -0.7225
6.508e+09  0.4095  -0.7485  -0.02903  0.01416  -0.02556  -0.01566  -0.2283  -0.7183
6.509e+09  0.04708  -0.9  0.04733  -0.003318  0.01464  0.01481  -0.4883  -0.5975
6.51e+09  -0.2164  -0.8859  -0.03535  0.02008  0.03376  0.00981  -0.624  -0.3736
6.511e+09  -0.5437  -0.7212  -0.02582  0.000656  0.01352  0.03381  -0.7746  -0.1333
6.512e+09  -0.7572  -0.4835  0.02031  -0.007702  -0.005168  0.001214  -0.7408  0.1088
6.514e+09  -0.8893  -0.2368  -0.01003  0.004575  -0.0002738  -0.007017  -0.6851  0.3976
6.515e+09  -0.8884  0.1243  0.04293  -0.001053  0.0009854  0.05099  -0.4643  0.5856
6.516e+09  -0.8026  0.4401  0.016  0.003106  0.0001896  0.03083  -0.2576  0.7018
6.518e+09  -0.6002  0.6244  0.01775  0.01114  -0.0276  -0.009059  0.03516  0.7673
6.519e+09  -0.3472  0.9073  0.03634  0.02112  0.009963  0.0443  0.3011  0.682
6.52e+09  -0.0984  0.896  -0.02938  -0.02956  0.01226  0.0006585  0.4874  0.5623
6.521e+09  0.2474  0.8807  0.006049  0.01343  -0.04632  0.01541  0.6528  0.3332
6.522e+09  0.5732  0.7517  0.03526  0.01228  0.02306  -0.02491  0.74  0.1015
6.524e+09  0.7655  0.4432  0.01481  0.01285  -0.009142  0.01278  0.7032  -0.1294
6.525e+09  0.8655  0.1763  0.01272  0.008794  0.04726  -0.006962  0.6267  -0.4022
6.526e+09  0.8983  -0.1881  0.001119  0.003101  -0.0231  -0.01515  0.4222  -0.5698
6.528e+09  0.8551  -0.4532  0.002671  0.001906  -0.04589  0.01075  0.1817  -0.6709
6.529e+09  0.6105  -0.734  -0.006654  -0.01524  -0.03048  -0.02253  -0.0332  -0.7139
6.53e+09  0.3069  -0.8432  -0.01932  0.02319  0.007337  0.02295  -0.2875  -0.63
6.531e+09  0.007459  -0.9297  -0.02304  0.005958  -7.102e-05  -0.02333  -0.4557  -0.4797
6.532e+09  -0.3416  -0.8677  0.003601  0.01005  0.02874  0.007512  -0.5843  -0.3124
6.534e+09  -0.5787  -0.7155  0.02609  0.003913  -0.04922  0.02621  -0.6399  -0.06634
6.535e+09  -0.8161  -0.4802  -0.001127  -0.005124  -0.06405  0.01093  -0.6172  0.1016
6.536e+09  -0.953  -0.1265  -0.0006685  0.02831  0.01365  -0.02067  -0.5477  0.2973
6.538e+09  -0.9276  0.2106  0.01891  0.01864  -0.008654  0.02933  -0.4717  0.4873
6.539e+09  -0.8076  0.4513  -0.01974  0.01268  0.03399  -0.01821  -0.2835  0.5863
6.54e+09  -0.573  0.7096  0.003248  0.02152  0.01785  0.01344  -0.06802  0.6727
6.541e+09  -0.283  0.9193  0.01116  0.005163  -0.008826  -0.02887  0.1938  0.6505
6.542e+09  0.09252  0.9477  -0.02107  -0.01623  0.01162  -0.03153  0.407  0.5783
6.544e+09  0.3475  0.8882  0.003944  0.03769  0.01207  0.04622  0.5772  0.3711
6.545e+09  0.6557  0.7094  -6.827e-05  0.01474  -0.007824  -0.01795  0.6905  0.1825
6.546e+09  0.883  0.3882  -0.01806  -0.02478  -0.01526  0.01609  0.7155  -0.0624
6.548e+09  0.913  0.1159  -0.02456  -0.01118  -0.03917  -0.01966  0.6725  -0.271
6.549e+09  0.9564  -0.2776  -0.01936  -0.02329  0.05433  -0.02095  0.4947  -0.5113
6.55e+09  0.7561  -0.6007  -0.02986  0.01945  -0.001412  -0.003036  0.2894  -0.7077
