# Hz S RI R 50
6.25e+09  -0.3521  0.6899  0.02757  0.009938  0.0516  0.0007073  0.1573  0.4536
6.251e+09  -0.1224  0.83  -0.004472  0.02316  0.03633  0.01554  0.352  0.3957
6.252e+09  0.2013  0.8067  -0.01152  -0.02031  -0.022  -0.01123  0.5226  0.2066
6.254e+09  0.4267  0.6477  0.00525  0.0002423  -0.03101  -0.08658  0.6033  0.02491
6.255e+09  0.7137  0.455  0.01008  0.01256  0.01012  0.02125  0.599  -0.2299
6.256e+09  0.7689  0.2234  -0.03376  0.005467  0.0292  -0.0005094  0.4581  -0.4283
6.258e+09  0.8029  -0.07371  -0.01919  -0.03586  -0.006747  0.01427  0.2814  -0.5736
6.259e+09  0.7411  -0.3792  0.03573  0.008987  -0.09176  -0.05535  0.0686  -0.681
6.26e+09  0.5386  -0.6081  0.003264  0.02243  0.04281  0.02163  -0.2005  -0.6475
6.261e+09  0.3857  -0.7126  -0.04422  0.0514  0.02591  0.01542  -0.4613  -0.5496
6.262e+09  0.05042  -0.8161  -0.01572  0.03181  -0.01889  -0.0197  -0.6061  -0.3581
6.264e+09  -0.2047  -0.7853  -0.01544  0.006869  -0.008111  0.02952  -0.7049  -0.1073
6.265e+09  -0.483  -0.6342  0.006617  0.01631  0.02018  0.03115  -0.6954  0.1463
6.266e+09  -0.6701  -0.4683  -0.02158  0.00314  0.02421  0.01278  -0.6174  0.4309
6.268e+09  -0.7807  -0.2528  -0.001931  -0.00114  -0.01081  0.0253  -0.4484  0.5907
6.269e+09  -0.7871  0.05502  0.008287  0.01773  -0.005662  0.02566  -0.1837  0.7409
6.27e+09  -0.7132  0.3662  0.003802  0.04254  0.05956  0.03009  0.06377  0.6996
6.271e+09  -0.5859  0.5661  -0.003887  -0.02903  0.03483  -0.03622  0.3285  0.6539
6.272e+09  -0.3551  0.7272  0.004657  -0.01688  -0.03633  -0.0128  0.5372  0.5229
6.274e+09  -0.04291  0.7801  0.006969  -0.006111  0.02031  0.03192  0.6934  0.2962
6.275e+09  0.2101  0.7804  -0.002485  0.02297  -0.01198  -0.02376  0.7684  0.02534
6.276e+09  0.4646  0.6305  0.02233  -0.008921  0.003287  0.01446  0.7193  -0.2049
6.278e+09  0.6934  0.4752  -0.003299  0.02858  0.03142  0.002003  0.6189  -0.4706
6.279e+09  0.7824  0.1809  -0.02576  0.005967  -0.03576  -0.007231  0.4167  -0.6391
6.28e+09  0.8306  -0.1063  0.01835  -0.01229  -0.005544  -0.01135  0.1409  -0.7729
6.281e+09  0.7184  -0.329  0.01946  -0.02336  0.003561  -0.01976  -0.08388  -0.7584
6.282e+09  0.5374  -0.5743  0.01886  -0.0003197  0.003301  -0.01705  -0.3541  -0.6822
6.284e+09  0.3296  -0.7743  -0.01581  0.02449  0.009488  0.005679  -0.5712  -0.5286
6.285e+09  -0.0005454  -0.7998  -0.01021  0.01013  0.005802  0.0641  -0.7367  -0.2898
6.286e+09  -0.2109  -0.7759  0.02501  0.01968  -0.03882  -0.02812  -0.7915  -0.009239
6.288e+09  -0.4858  -0.6197  0.006826  0.01372  -0.001662  -0.0119  -0.7192  0.2558
6.289e+09  -0.6904  -0.4346  0.03438  0.006136  -0.02381  -0.004072  -0.6169  0.5279
6.29e+09  -0.7488  -0.1651  0.01673  -0.003423  0.02892  -0.03235  -0.3957  0.6949
6.291e+09  -0.788  0.09614  -0.0003261  -0.001731  0.03511  0.0618  -0.1472  0.7978
6.292e+09  -0.6843  0.3291  0.02903  0.01817  0.03291  0.03312  0.1301  0.784
6.294e+09  -0.5225  0.5338  0.01291  -0.005728  0.02855  -0.0001282  0.3994  0.6936
6.295e+09  -0.2889  0.7996  0.0104  0.05775  -0.01705  0.01887  0.632  0.5338
6.296e+09  0.01222  0.8001  0.01542  -0.01396  -0.05913  -0.01532  0.7607  0.3123
6.298e+09  0.2786  0.773  -0.0131  0.006177  0.01732  0.05553  0.8417  0.02818
6.299e+09  0.5561  0.6554  -0.007632  -0.008217  -0.02173  0.003901  0.7823  -0.2775
6.3e+09  0.7444  0.4003  0.0013  0.01624  -0.001939  -0.03251  0.6705  -0.4868
6.301e+09  0.7779  0.131  -0.01801  -0.01855  0.02317  -0.0151  0.4246  -0.7092
6.302e+09  0.8401  -0.1485  -0.02731  0.008014  -0.04273  0.0121  0.1755  -0.8097
6.304e+09  0.6844  -0.459  -0.001379  0.02061  0.01974  -0.004113  -0.1206  -0.85
6.305e+09  0.4795  -0.6179  -0.01963  0.01359  0.004566  0.01465  -0.3809  -0.735
6.306e+09  0.2824  -0.7745  -0.01265  0.003278  -0.04125  -0.01269  -0.659  -0.508
6.308e+09  -0.02784  -0.8199  -0.01187  0.008138  -0.02445  -0.01453  -0.8401  -0.3081
6.309e+09  -0.2831  -0.7638  -0.01933  0.01507  0.03183  0.04684  -0.8643  0.0114
6.31e+09  -0.5109  -0.6297  0.02506  0.02436  -0.01947  -0.009907  -0.8383  0.2675
6.311e+09  -0.7167  -0.3837  0.0115  0.003083  -0.03297  -0.0185  -0.6764  0.5604
6.312e+09  -0.7881  -0.1048  -0.02048  -0.02168  0.02038  0.0008607  -0.4296  0.7567
6.314e+09  -0.766  0.1691  0.03813  -0.003566  -0.02671  -0.02739  -0.1388  0.8219
6.315e+09  -0.6361  0.416  0.01685  -0.001884  -0.009197  -0.02199  0.1208  0.8569
6.316e+09  -0.4333  0.6849  -0.004572  -0.003992  -0.008815  -0.02976  0.4094  0.7635
6.318e+09  -0.2535  0.8093  -0.00385  -0.005927  -0.008974  0.04774  0.6311  0.57
6.319e+09  0.04138  0.8388  0.02213  0.01257  0.0193  0.003231  0.8484  0.3173
6.32e+09  0.3436  0.7902  0.0058  0.02259  -0.01621  -0.02578  0.9015  0.002742
6.321e+09  0.5652  0.5759  -0.03294  -0.02873  -0.0506  -0.02359  0.8448  -0.2788
6.322e+09  0.7143  0.3531  0.01959  0.007764  0.03067  -0.03638  0.7032  -0.5781
6.324e+09  0.8309  0.02775  0.03034  0.009366  0.01902  -0.01725  0.4519  -0.8012
6.325e+09  0.7925  -0.24  0.005481  -0.02026  -0.002346  0.03208  0.1642  -0.8726
6.326e+09  0.6695  -0.4359  0.01102  0.01491  -0.02546  0.02423  -0.1413  -0.8734
6.328e+09  0.4663  -0.6739  -0.01224  0.01034  0.009411  -0.03804  -0.4312  -0.7992
6.329e+09  0.1731  -0.8201  -0.02899  -0.02117  0.002685  0.002583  -0.6915  -0.5808
6.33e+09  -0.09663  -0.8431  0.0176  -0.008496  0.01637  0.01726  -0.8261  -0.3402
6.331e+09  -0.3546  -0.7513  -0.01603  -0.003297  0.02432  -0.0316  -0.9017  -0.0154
6.332e+09  -0.6296  -0.5633  -0.01686  0.009846  -0.03377  0.01203  -0.8646  0.237
6.334e+09  -0.7735  -0.3166  0.003866  0.0004046  0.0273  0.00955  -0.7099  0.6023
6.335e+09  -0.8291  -0.03996  -0.001866  -0.02926  -0.0128  0.02268  -0.4818  0.7801
6.336e+09  -0.8217  0.2817  -0.02225  -0.01427  0.03248  -0.01207  -0.2003  0.8978
6.338e+09  -0.6581  0.5287  -0.0236  0.004223  0.02281  0.01346  0.1453  0.9
6.339e+09  -0.3852  0.7614  0.03253  0.007988  -0.02412  0.01729  0.4222  0.8548
6.34e+09  -0.09213  0.845  0.005242  -0.01223  0.02628  0.01957  0.6394  0.6132
6.341e+09  0.1842  0.8421  0.01378  0.01332  -0.02149  0.02248  0.832  0.3521
6.342e+09  0.4242  0.7468  -0.009516  0.02355  0.005745  0.04314  0.9568  0.02206
6.344e+09  0.6577  0.5382  0.01976  -0.02888  0.0128  0.01351  0.8835  -0.2605
6.345e+09  0.8319  0.203  0.02035  -0.006356  0.04519  0.0321  0.7328  -0.5617
6.346e+09  0.8543  -0.05193  0.01064  0.018  0.05733  0.0354  0.4817  -0.7817
6.348e+09  0.8342  -0.3435  0.02493  0.01039  -0.02513  -0.006786  0.1754  -0.9081
6.349e+09  0.6256  -0.5915  0.003945  -0.03783  0.006301  -0.008091  -0.09851  -0.9238
6.35e+09  0.3841  -0.7284  0.001199  0.01303  0.002174  -0.02098  -0.427  -0.8451
6.351e+09  0.1025  -0.8525  0.03069  0.0121  0.0001289  0.0183  -0.6547  -0.638
6.352e+09  -0.1881  -0.8562  -0.008507  0.02806  0.01406  0.02314  -0.8981  -0.3868
6.354e+09  -0.4614  -0.708  0.007266  0.01589  0.02  -0.0005833  -0.9114  -0.1052
6.355e+09  -0.7003  -0.4605  -0.01832  0.0159  0.03583  0.01101  -0.8649  0.2718
6.356e+09  -0.8505  -0.2177  -0.01276  -0.02249  -0.01105  -0.02675  -0.7135  0.5317
6.358e+09  -0.7868  0.1276  0.02466  0.0001588  0.009356  0.01035  -0.5328  0.7673
6.359e+09  -0.7464  0.4642  -0.01879  0.005341  -0.004995  -0.03374  -0.2318  0.8938
6.36e+09  -0.5809  0.546  0.005403  -0.00258  -0.01863  -0.007081  0.08377  0.9615
6.361e+09  -0.3345  0.7626  -0.03427  0.0006904  -0.01784  0.03155  0.4209  0.85
6.362e+09  -0.02904  0.857  0.006779  -0.007653  0.04718  0.004044  0.6593  0.6324
6.364e+09  0.2422  0.8015  0.007172  0.04089  -0.03296  -0.04879  0.8237  0.4308
6.365e+09  0.5209  0.6824  0.006903  -0.005584  -0.01397  0.006528  0.9507  0.08785
6.366e+09  0.7374  0.4265  -0.01698  0.01882  0.02085  0.01089  0.8772  -0.2462
6.368e+09  0.835  0.1947  0.02591  0.01477  -0.03139  0.0173  0.7644  -0.5697
6.369e+09  0.8342  -0.1546  -0.01994  0.007785  0.04188  -0.004336  0.5369  -0.7277
6.37e+09  0.7538  -0.443  -0.02525  -0.03198  -0.04854  0.004661  0.2645  -0.9163
6.371e+09  0.5679  -0.681  -0.07211  -0.02145  0.0324  0.05079  -0.05442  -0.9691
6.372e+09  0.3083  -0.8476  0.01501  -0.01671  -0.01099  0.04325  -0.4334  -0.828
6.374e+09  -0.01775  -0.8412  -0.007852  -0.0346  -0.01162  0.02024  -0.6668  -0.6442
6.375e+09  -0.3042  -0.8058  0.01746  -0.005447  -3.473e-05  -0.003706  -0.873  -0.3881
6.376e+09  -0.5712  -0.6906  -0.009076  -0.008561  -0.01598  -0.0226  -0.9203  -0.09478
6.378e+09  -0.7612  -0.3761  -0.0006536  0.02061  -0.02835  0.001963  -0.8939  0.2116
6.379e+09  -0.8582  -0.09718  0.0375  -0.004827  -0.001871  0.005648  -0.7616  0.5475
6.38e+09  -0.8892  0.1901  0.03158  -0.01162  -0.009836  0.05184  -0.5639  0.7445
6.381e+09  -0.7427  0.4537  0.0102  0.02096  -0.004908  0.04584  -0.2606  0.8984
6.382e+09  -0.5364  0.6649  -0.0183  -0.002873  -0.007969  0.02746  0.04149  0.9665
6.384e+09  -0.2528  0.79  0.03365  0.002264  -0.06214  -0.006155  0.3926  0.8504
6.385e+09  0.04364  0.8268  -0.03089  0.01486  0.0109  -0.02259  0.6332  0.679
6.386e+09  0.3701  0.7931  -0.01255  0.00679  -0.05597  0.008736  0.851  0.4191
6.388e+09  0.6294  0.6385  1.866e-05  0.02281  -0.008636  -0.009559  0.895  0.112
6.389e+09  0.7276  0.3728  -0.03646  -0.0448  -0.01658  0.01925  0.906  -0.2016
6.39e+09  0.8291  0.09134  0.02185  0.0002515  -0.006251  -0.03997  0.7834  -0.5021
6.391e+09  0.8563  -0.2126  0.024  -0.03537  -0.002318  -0.008603  0.5535  -0.7229
6.392e+09  0.7175  -0.5135  -0.04906  0.007116  -0.01214  -0.02936  0.2691  -0.9186
6.394e+09  0.505  -0.7095  -0.05323  -0.01131  0.01265  0.05059  -0.05618  -0.8504
6.395e+09  0.215  -0.8255  -0.02556  -0.003104  0.05818  0.06273  -0.3324  -0.8544
6.396e+09  -0.05051  -0.9115  -0.01081  -0.007796  0.009219  0.02725  -0.584  -0.7117
6.398e+09  -0.4186  -0.7466  0.002322  -0.01847  0.02269  0.02901  -0.8149  -0.4426
6.399e+09  -0.5888  -0.5866  0.005218  -0.03137  0.0001801  0.0006833  -0.8773  -0.1501
6.4e+09  -0.7533  -0.3533  -0.02013  0.005632  0.009746  0.001233  -0.9189  0.1981
6.401e+09  -0.8221  -0.08175  -0.03669  0.02814  0.01747  0.002426  -0.8059  0.4611
6.402e+09  -0.7991  0.2189  0.03331  -0.02344  0.01083  -0.03035  -0.5997  0.7228
6.404e+09  -0.676  0.5149  0.03004  0.003939  0.01584  0.006907  -0.2759  0.8849
6.405e+09  -0.4761  0.7257  0.01044  -0.01213  0.02774  0.03033  0.006385  0.9306
6.406e+09  -0.2302  0.8338  0.008408  -0.02788  -0.01643  0.008937  0.2907  0.8474
6.408e+09  0.06253  0.8446  -0.02206  -0.003565  -0.03761  -0.05563  0.6084  0.7192
6.409e+09  0.3766  0.7435  0.007217  0.0112  0.01704  -0.01333  0.8098  0.4777
6.41e+09  0.6016  0.5501  0.007868  -0.0275  0.01443  0.00283  0.8835  0.184
6.411e+09  0.7706  0.3329  -0.01346  -0.03068  0.03792  -0.01376  0.863  -0.1644
6.412e+09  0.8624  0.08513  -0.04982  -0.01293  0.00486  0.05539  0.7806  -0.4335
6.414e+09  0.8618  -0.2627  -0.02538  -0.01242  0.00249  0.01127  0.5824  -0.7198
6.415e+09  0.6551  -0.5207  0.0006214  0.01409  0.03051  -0.005998  0.351  -0.8377
6.416e+09  0.4826  -0.7054  0.04873  0.01046  0.01618  -0.01943  0.006247  -0.9015
6.418e+09  0.2375  -0.8549  0.01094  -0.04418  0.04558  0.02763  -0.2603  -0.817
6.419e+09  -0.04796  -0.8602  -0.05798  0.0643  -0.002643  0.00939  -0.5597  -0.7215
6.42e+09  -0.3572  -0.7206  -0.052  0.02447  -0.04975  -0.001741  -0.7762  -0.4891
6.421e+09  -0.6462  -0.5586  0.02182  0.01371  -0.03151  -0.006463  -0.8566  -0.2056
6.422e+09  -0.8246  -0.3039  -0.002594  0.0147  -0.02854  -0.04509  -0.8545  0.1228
6.424e+09  -0.8532  -0.03627  0.005117  0.03507  -0.002983  -0.02099  -0.7768  0.3922
6.425e+09  -0.8099  0.2339  0.02115  0.06482  -0.03076  -0.03409  -0.567  0.607
6.426e+09  -0.661  0.5402  -0.02463  0.03491  -0.02668  -0.009875  -0.3108  0.8005
6.428e+09  -0.4802  0.731  -0.0004324  -0.02491  -0.006839  -0.03534  -0.0756  0.8857
6.429e+09  -0.1701  0.8228  -0.03528  -0.02463  -0.03757  -0.02324  0.2454  0.8596
6.43e+09  0.1202  0.8959  0.04315  0.00111  -0.02276  0.01358  0.5227  0.72
6.431e+09  0.4143  0.7422  -0.02555  0.01023  -0.02782  0.01872  0.7069  0.4744
6.432e+09  0.6488  0.5541  -0.03306  -0.004478  -0.01407  0.03671  0.8486  0.2057
6.434e+09  0.821  0.3067  -0.009666  -0.01404  -0.007758  -0.01006  0.8897  -0.09181
6.435e+09  0.8898  0.02479  0.02053  -0.04949  -0.002052  -0.02615  0.7699  -0.3835
6.436e+09  0.8059  -0.2888  -0.02332  -0.03155  0.01803  0.002127  0.5234  -0.6277
6.438e+09  0.6483  -0.5116  0.01417  -0.01558  -0.05886  0.02205  0.3793  -0.7817
6.439e+09  0.4278  -0.7154  0.01416  0.02996  0.01745  -0.01973  0.05719  -0.8787
6.44e+09  0.2018  -0.8109  -0.006889  -0.04195  -0.05217  -0.04096  -0.2469  -0.8438
6.441e+09  -0.1024  -0.8545  0.01917  -0.005776  0.02723  -0.04685  -0.5033  -0.6629
6.442e+09  -0.4235  -0.7461  0.02678  0.006601  0.0204  -0.01874  -0.6486  -0.4901
6.444e+09  -0.6426  -0.6284  0.02636  0.01135  -0.01202  0.0169  -0.8165  -0.2173
6.445e+09  -0.8169  -0.2844  0.02583  0.01633  -0.04347  -0.0356  -0.8728  0.07235
6.446e+09  -0.8669  -0.008226  0.02575  0.01965  0.03981  -0.008929  -0.7449  0.3699
6.448e+09  -0.8594  0.2351  0.01888  0.04079  0.03888  0.006246  -0.5991  0.5919
6.449e+09  -0.6279  0.514  -0.003491  -0.01595  0.06774  -0.05826  -0.3895  0.8018
6.45e+09  -0.4337  0.714  0.01082  -0.03249  -0.02475  0.01713  -0.08543  0.8137
6.451e+09  -0.1538  0.8292  -0.01452  -0.01478  -0.02169  -0.01299  0.1801  0.8232
6.452e+09  0.1388  0.8747  -0.02516  -0.01446  0.01098  0.05336  0.4905  0.6691
6.454e+09  0.4059  0.712  -0.05133  0.01991  0.006993  0.02038  0.6987  0.4599
6.455e+09  0.6773  0.5972  -0.007705  0.02221  0.02456  0.01286  0.7842  0.2061
6.456e+09  0.7624  0.2985  0.02038  0.02378  0.006134  0.05128  0.7796  -0.03794
6.458e+09  0.8715  -0.02381  0.01802  0.01759  0.04322  0.0097  0.7783  -0.3603
6.459e+09  0.7636  -0.3424  0.02412  0.004248  0.01111  -0.002065  0.6348  -0.5848
6.46e+09  0.6481  -0.5449  -0.02662  -0.03807  -0.03581  -0.02545  0.3019  -0.7144
6.461e+09  0.3887  -0.7447  0.003004  -0.01857  0.01146  0.01567  0.1053  -0.7731
6.462e+09  0.1467  -0.8422  -0.001608  -0.01559  -0.02092  0.01957  -0.2405  -0.7457
6.464e+09  -0.1245  -0.8381  0.01181  0.00548  0.02773  0.0002628  -0.457  -0.6473
6.465e+09  -0.3736  -0.7835  -0.03079  0.01779  -0.01017  0.02372  -0.6825  -0.5033
6.466e+09  -0.6589  -0.5571  -0.04343  0.007655  -0.03985  -0.02065  -0.7897  -0.2426
6.468e+09  -0.8459  -0.2697  0.004051  -0.03947  0.01967  0.0763  -0.7672  0.08442
6.469e+09  -0.9046  0.05609  -0.007113  -0.003336  -0.0139  -0.002672  -0.7381  0.3319
6.47e+09  -0.8195  0.2806  -0.01684  -0.01305  -0.04227  0.06214  -0.6056  0.5695
6.471e+09  -0.7076  0.5958  0.03203  0.03636  0.01601  0.04201  -0.314  0.7013
6.472e+09  -0.4016  0.794  0.006014  0.01407  -0.02665  0.01319  -0.04071  0.7911
6.474e+09  -0.08566  0.9013  -0.02535  0.01841  -0.008501  -0.005407  0.1706  0.7882
6.475e+09  0.1807  0.878  0.031  -0.04525  -0.01072  -0.02625  0.47  0.6717
6.476e+09  0.4995  0.7007  0.0248  -0.01146  -0.0286  0.016  0.6358  0.4592
6.478e+09  0.7045  0.5469  0.001993  0.003797  0.01154  0.01963  0.7981  0.2243
6.479e+09  0.8293  0.2668  -0.006523  0.01168  -0.005018  0.02079  0.8018  -0.07982
6.48e+09  0.9138  0.01921  0.05759  -0.01756  -0.05157  -0.02122  0.7374  -0.3205
6.481e+09  0.8183  -0.3695  -0.02342  -0.03994  0.03591  0.005014  0.5376  -0.5934
6.482e+09  0.666  -0.6034  0.01325  -0.02405  0.003401  -0.02497  0.3328  -0.7159
6.484e+09  0.392  -0.7265  -0.007462  -0.0004554  0.01556  0.02684  0.06292  -0.8012
6.485e+09  0.05281  -0.8913  0.01136  -0.02762  -0.004123  -0.04871  -0.2262  -0.7419
6.486e+09  -0.1743  -0.9253  0.02553  0.02665  0.005474  -0.01371  -0.4261  -0.5982
6.488e+09  -0.7188  -1.434  -0.03615  -0.01498  0.5774  0.5591  -0.6229  -0.4165
6.489e+09  -0.7082  -0.5047  0.0003131  0.01906  0.006283  0.0224  -0.7404  -0.181
6.49e+09  -0.8239  -0.2423  0.001311  0.0546  0.008671  0.03033  -0.7436  0.1016
6.491e+09  -0.8451  0.006887  -0.006967  -0.01331  -0.02223  0.04098  -0.664  0.3226
6.492e+09  -0.8499  0.4024  -0.003329  -0.01431  0.018  -0.01868  -0.5332  0.5559
6.494e+09  -0.5662  0.7026  0.03518  -0.01377  -0.04467  0.06791  -0.2783  0.7116
6.495e+09  -0.4326  0.7973  -0.01921  -0.00399  -0.009995  -0.03523  -0.01544  0.7361
6.496e+09  -0.1175  0.8982  -0.02967  -0.01214  0.003315  -0.02089  0.2278  0.7445
6.498e+09  0.2088  0.9192  0.02672  0.008356  -0.04901  0.003234  0.4479  0.6208
6.499e+09  0.5427  0.7622  0.01838  -0.004926  0.02552  1.343e-05  0.6563  0.41
6.5e+09  0.7421  0.5247  0.01995  0.005102  0.008365  0.03412  0.7348  0.1802
6.501e+09  0.8684  0.2473  0.0009047  -0.01861  0.04783  0.05919  0.7867  -0.09048
6.502e+09  0.8965  -0.08506  -0.0004104  0.01191  -0.07202  -0.02944  0.6712  -0.3649
6.504e+09  0.8911  -0.4433  -0.02628  0.01926  0.03734  0.0155  0.5107  -0.6219
6.505e+09  0.6427  -0.7026  0.0006721  0.005574  -0.01032  0.03661  0.305  -0.7021
6.506e+09  0.3541  -0.8202  0.01726  0.005406  0.01842  -0.06066  0.03336  -0.771
6.508e+09  0.05062  -0.9069  0.03561  0.00543  -0.01752  0.02051  -0.2472  -0.7375
6.509e+09  -0.2403  -0.8601  0.0153  -0.01435  -0.00802  0.02221  -0.4938  -0.5671
6.51e+09  -0.5858  -0.7153  0.02483  0.01173  0.0009001  0.01048  -0.6269  -0.4277
6.511e+09  -0.7721  -0.5119  0.02728  -0.002116  0.006621  -0.01952  -0.7376  -0.1635
6.512e+09  -0.8927  -0.1804  -0.00613  -0.03838  0.009545  -0.03938  -0.76  0.153
6.514e+09  -0.9163  0.1286  0.01442  -0.02349  0.04859  0.02914  -0.6576  0.3507
6.515e+09  -0.847  0.413  -0.02054  0.02412  -0.0513  0.007095  -0.471  0.5672
6.516e+09  -0.6248  0.7178  0.0156  -0.01795  0.002088  0.01655  -0.2347  0.7128
6.518e+09  -0.3441  0.873  -0.005144  -0.02909  -0.0347  0.00845  0.0173  0.7794
6.519e+09  -0.004716  0.9404  -0.01282  0.0206  -0.02085  0.01472  0.2532  0.6954
6.52e+09  0.2879  0.9053  0.004675  0.005412  0.03715  0.04184  0.5181  0.5712
6.521e+09  0.5786  0.7662  0.02008  -0.004045  -0.02214  -0.01558  0.6624  0.3669
6.522e+09  0.8557  0.4485  -0.011  0.005297  -0.01417  -0.03504  0.6695  0.09587
6.524e+09  0.9329  0.1517  0.01885  0.01262  -0.02796  0.007501  0.7093  -0.1304
6.525e+09  0.8859  -0.2092  0.01711  0.02271  -0.01832  -0.02517  0.6086  -0.4156
6.526e+09  0.7866  -0.4844  0.03182  0.01034  0.01645  -0.02651  0.4218  -0.5641
6.528e+09  0.5641  -0.7537  0.02367  0.0003387  -0.006733  0.03279  0.21  -0.6482
6.529e+09  0.3478  -0.9404  -0.006941  -0.03757  -0.04832  0.05768  -0.03322  -0.6798
6.53e+09  -0.05587  -0.9081  -0.01875  0.002793  -0.02203  0.0175  -0.2844  -0.6609
6.531e+09  -0.3849  -0.8332  0.004403  -0.01149  0.05359  0.02484  -0.4476  -0.4951
6.532e+09  -0.6708  -0.6487  -0.02615  0.002793  -0.007526  -0.02684  -0.5924  -0.285
6.534e+09  -0.8526  -0.3554  -0.04519  0.03545  0.03742  0.02666  -0.6313  -0.1056
6.535e+09  -0.9137  -0.09388  -0.001197  -0.03939  -0.01765  0.009201  -0.6078  0.126
6.536e+09  -0.9018  0.286  0.009265  -0.007618  0.04755  0.01759  -0.599  0.2899
6.538e+09  -0.7545  0.5213  0.00558  0.02935  -0.03727  -0.04027  -0.4701  0.4896
6.539e+09  -0.5333  0.8093  -0.01667  0.004327  -0.0206  -0.03482  -0.2861  0.6079
6.54e+09  -0.214  0.943  -0.01139  -0.009542  0.02945  0.0553  -0.04988  0.6757
6.541e+09  0.1163  0.9255  -0.00921  0.02313  -0.01428  0.000776  0.191  0.6699
6.542e+09  0.4208  0.8446  -0.0283  0.004496  -0.01037  0.01359  0.4144  0.539
6.544e+09  0.6931  0.657  0.02682  0.007451  0.03725  0.02365  0.5707  0.4011
6.545e+09  0.8152  0.3889  0.02451  0.03173  -0.01456  0.00868  0.6903  0.1963
6.546e+09  0.9324  0.03718  -0.00474  -0.001977  0.003051  0.03505  0.7131  -0.04637
6.548e+09  0.9076  -0.2895  0.02292  0.02091  -0.04613  -0.04863  0.6036  -0.325
6.549e+09  0.7465  -0.5698  0.06264  0.009225  0.01003  0.04231  0.4943  -0.5289
6.55e+09  0.4517  -0.7863  0.0002062  0.006279  0.05466  -0.007  0.2753  -0.6591
6.551e+09  0.1177  -0.8945  -0.001793  0.0006341  -0.004706  0.05507  0.04044  -0.7199
