# Hz S RI R 50
6.25e+09  -0.3335  0.7931  -0.0335  -0.01626  -0.01762  0.002603  0.1671  0.4783
6.251e+09  -0.04085  0.8496  -0.01228  -0.004627  -0.00903  -0.0184  0.3505  0.387
6.252e+09  0.2831  0.7573  -0.009605  0.002061  -0.02712  0.01081  0.5175  0.2677
6.254e+09  0.5101  0.6552  0.0164  0.005098  -0.01916  -0.01705  0.5947  0.0533
6.255e+09  0.6945  0.4343  0.004033  -0.007969  -0.03012  -0.003133  0.5851  -0.2196
6.256e+09  0.8322  0.2017  0.004128  0.0008621  -0.02274  0.0267  0.4645  -0.4795
6.258e+09  0.8009  -0.1302  -0.01848  0.01835  0.01627  -0.04304  0.2846  -0.5829
6.259e+09  0.7163  -0.3642  -0.01169  -0.003643  0.04297  0.01296  0.05386  -0.6839
6.26e+09  0.5507  -0.5761  0.01038  -0.01306  0.05632  0.02261  -0.1945  -0.6459
6.261e+09  0.2912  -0.7947  0.01431  -0.001148  -0.008254  -0.02342  -0.4541  -0.4941
6.262e+09  0.09474  -0.8165  -0.004699  0.01629  0.004762  -0.001868  -0.6006  -0.3665
6.264e+09  -0.2379  -0.7569  0.0156  -0.01388  0.04905  0.006927  -0.7122  -0.09459
6.265e+09  -0.5343  -0.649  0.01475  -0.01956  -0.01635  0.008571  -0.6856  0.1501
6.266e+09  -0.6842  -0.4315  -0.02563  -0.004014  0.01495  0.02102  -0.5901  0.3936
6.268e+09  -0.7963  -0.1757  -0.003666  -0.003039  0.001904  -0.01188  -0.3956  0.5956
6.269e+09  -0.8117  0.1615  0.01108  0.02616  0.01969  -0.007715  -0.2004  0.7116
6.27e+09  -0.7062  0.4269  -0.023  0.01116  0.01906  -0.0316  0.08695  0.7473
6.271e+09  -0.5279  0.621  0.02365  -0.002634  0.03466  -0.005262  0.2966  0.661
6.272e+09  -0.3191  0.7302  0.01441  -0.007754  0.009706  0.006469  0.5195  0.5513
6.274e+09  0.01472  0.8229  0.02601  0.01092  -0.01015  -0.01955  0.7224  0.3045
6.275e+09  0.223  0.75  -0.0208  0.006691  0.01172  0.03577  0.7993  0.05807
6.276e+09  0.5481  0.5862  -0.01157  -0.006373  0.03881  0.02497  0.7469  -0.233
6.278e+09  0.7008  0.3875  0.003586  -0.02307  -0.05307  0.02148  0.6108  -0.4672
6.279e+09  0.8458  0.1703  -0.01263  0.02836  -0.01274  0.01274  0.4229  -0.6486
6.28e+09  0.7967  -0.1223  0.03038  0.01534  -0.004076  -0.01119  0.1584  -0.758
6.281e+09  0.6971  -0.4025  -0.005216  0.004843  0.05431  -0.01362  -0.09406  -0.7649
6.282e+09  0.5289  -0.6534  -0.005011  -0.03823  0.007946  -0.006094  -0.3994  -0.7052
6.284e+09  0.2939  -0.6919  -0.001554  0.004973  -0.0175  0.01908  -0.5703  -0.5324
6.285e+09  -0.01156  -0.7892  0.003399  -0.003638  0.02999  0.001072  -0.7627  -0.2999
6.286e+09  -0.2315  -0.7229  -0.004286  0.009742  -0.01064  0.01378  -0.7967  -0.04553
6.288e+09  -0.5542  -0.6089  0.006602  -0.008502  0.00532  -0.03475  -0.7426  0.2562
6.289e+09  -0.7088  -0.3811  0.008215  0.01541  0.02482  0.01108  -0.6184  0.5177
6.29e+09  -0.8094  -0.09199  -0.02346  0.04032  0.02676  0.04457  -0.4385  0.6701
6.291e+09  -0.7554  0.1576  0.01129  0.039  0.004858  -0.02096  -0.165  0.797
6.292e+09  -0.7334  0.4687  -0.01612  -0.02083  -0.02143  0.01914  0.1544  0.7852
6.294e+09  -0.4387  0.6516  -0.02085  -0.00698  -0.01208  0.002925  0.3946  0.7128
6.295e+09  -0.2537  0.777  0.02412  -0.02837  -0.008261  -0.00564  0.6001  0.5325
6.296e+09  -0.003056  0.8363  0.01772  0.04571  0.01684  -0.02528  0.7777  0.2911
6.298e+09  0.3174  0.7375  -0.02327  -0.001753  0.007481  0.04943  0.8184  0.0574
6.299e+09  0.5029  0.6055  -0.04259  0.00915  -0.01497  -0.01311  0.7989  -0.3048
6.3e+09  0.7081  0.3376  0.01395  0.003051  -0.0215  -0.03231  0.6345  -0.5455
6.301e+09  0.7851  0.1112  -0.006576  -0.02263  0.01061  0.01373  0.4348  -0.712
6.302e+09  0.7693  -0.1663  0.007707  0.01251  0.0001496  0.005402  0.1563  -0.8229
6.304e+09  0.6736  -0.4408  -0.01147  -0.01278  -0.02394  0.02734  -0.1583  -0.8314
6.305e+09  0.4504  -0.6632  -0.01108  0.01196  -0.02169  -0.02902  -0.3899  -0.7277
6.306e+09  0.2294  -0.7243  0.006126  0.03073  0.009126  0.06517  -0.6253  -0.5409
6.308e+09  -0.04997  -0.7741  -0.001391  0.007326  0.005052  -0.0008205  -0.797  -0.3059
6.309e+09  -0.3302  -0.7095  -0.006307  0.001786  0.0483  0.01575  -0.8393  0.01764
6.31e+09  -0.5445  -0.5364  -0.02122  -0.02169  0.0127  0.01077  -0.8322  0.2988
6.311e+09  -0.7011  -0.356  4.697e-05  0.008987  -0.01152  0.001116  -0.673  0.5362
6.312e+09  -0.8083  -0.075  -0.0349  -0.005546  -0.02723  -0.001579  -0.4576  0.7765
6.314e+09  -0.7601  0.2103  0.01573  0.01128  0.01482  0.0003808  -0.1696  0.8692
6.315e+09  -0.7082  0.4477  -0.02568  0.005437  -0.03063  0.009899  0.1338  0.9105
6.316e+09  -0.4577  0.6717  -0.001404  -0.01032  -0.02483  0.007492  0.4306  0.8281
6.318e+09  -0.1611  0.7615  0.02229  0.002542  0.0153  -0.0227  0.6677  0.553
6.319e+09  0.09749  0.8046  -0.003991  0.01363  -0.004577  0.05385  0.8528  0.3258
6.32e+09  0.3357  0.745  0.01257  -0.00417  0.03243  -0.004011  0.8799  0.004441
6.321e+09  0.6111  0.5416  -0.02054  0.003423  0.01116  0.005306  0.8193  -0.2452
6.322e+09  0.7689  0.31  -0.002104  0.003931  0.011  0.03499  0.6906  -0.5365
6.324e+09  0.7991  -0.01622  0.01136  0.02853  -0.03715  0.01483  0.4456  -0.7879
6.325e+09  0.8125  -0.3033  -0.001129  -0.0311  0.0181  -0.02677  0.1807  -0.8843
6.326e+09  0.6356  -0.5273  0.03006  -0.00157  0.01185  -0.02289  -0.1204  -0.8807
6.328e+09  0.3955  -0.6922  0.02135  -0.0002881  -0.047  0.01963  -0.3925  -0.7913
6.329e+09  0.1395  -0.7808  -0.03495  0.003434  -0.01616  0.04272  -0.6874  -0.6026
6.33e+09  -0.1421  -0.8065  -0.02023  0.007741  0.01656  -0.01363  -0.8586  -0.3195
6.331e+09  -0.3551  -0.692  0.0312  0.007099  -0.05493  0.01642  -0.8993  -0.03903
6.332e+09  -0.6178  -0.4997  -0.001215  0.00314  -0.02436  -0.01542  -0.8431  0.284
6.334e+09  -0.7973  -0.2856  -0.00996  -0.005806  0.0223  0.003802  -0.6965  0.5344
6.335e+09  -0.8217  0.03835  -0.009309  -0.01506  -0.01786  0.0152  -0.4864  0.7674
6.336e+09  -0.7794  0.3062  -0.02686  0.006118  -0.01698  -0.002183  -0.207  0.8919
6.338e+09  -0.6364  0.5759  -0.01786  -0.01166  0.02733  0.03507  0.1039  0.9057
6.339e+09  -0.4013  0.7573  0.005645  -0.01328  0.02702  0.01437  0.4475  0.8134
6.34e+09  -0.08324  0.8768  0.01251  -0.002223  -0.0009122  0.02703  0.7042  0.6447
6.341e+09  0.2206  0.8019  0.009737  0.00603  -0.01949  -0.006009  0.8142  0.3705
6.342e+09  0.4703  0.72  0.03051  0.01232  0.0006495  0.006808  0.923  0.03895
6.344e+09  0.6867  0.4703  0.008071  -0.01787  -0.0279  0.02068  0.8986  -0.2504
6.345e+09  0.7983  0.1948  -0.003953  -0.01222  -0.002619  -0.03255  0.7498  -0.5804
6.346e+09  0.8395  -0.04572  0.007289  0.01432  -0.03291  0.0004097  0.5228  -0.7554
6.348e+09  0.7684  -0.3376  0.002348  0.004945  0.05406  0.0397  0.2001  -0.9237
6.349e+09  0.5571  -0.6597  -0.003628  0.00935  0.009626  -0.06184  -0.1258  -0.9259
6.35e+09  0.3653  -0.8093  -0.001374  0.04039  -0.004314  -0.01829  -0.4153  -0.8408
6.351e+09  0.02191  -0.8355  0.006088  -0.02086  0.04462  0.02653  -0.6776  -0.665
6.352e+09  -0.2378  -0.7906  0.01261  -0.02531  -0.01462  -0.01696  -0.8588  -0.3826
6.354e+09  -0.5248  -0.6652  0.001676  0.005583  0.03075  0.005329  -0.9843  -0.08039
6.355e+09  -0.7225  -0.4454  -0.02288  -0.0459  -0.01817  0.01947  -0.923  0.2455
6.356e+09  -0.8847  -0.1868  0.03792  -0.0125  -0.03748  -0.01227  -0.7364  0.5325
6.358e+09  -0.8857  0.1435  0.0251  -0.01318  -0.03185  0.03253  -0.5457  0.8337
6.359e+09  -0.726  0.4138  0.03686  -0.009658  0.0246  -0.02889  -0.1695  0.8886
6.36e+09  -0.5552  0.6512  -0.01455  0.03307  -0.008434  0.003735  0.1141  0.9302
6.361e+09  -0.3054  0.7882  0.03245  0.002384  0.02592  0.03814  0.4379  0.8676
6.362e+09  0.05328  0.8239  0.00581  -0.0289  0.02964  -0.02015  0.6841  0.6587
6.364e+09  0.3406  0.7582  -0.02194  -0.02588  0.01159  -0.002513  0.8708  0.4082
6.365e+09  0.5928  0.6257  0.01374  -0.004268  -0.02066  -0.029  0.948  0.09249
6.366e+09  0.7546  0.389  0.01231  0.03259  0.003075  0.01622  0.8982  -0.2405
6.368e+09  0.8381  0.1391  0.01064  0.01759  -0.03531  0.0352  0.7849  -0.4814
6.369e+09  0.7948  -0.1781  -0.008612  -0.02331  0.0106  0.008135  0.5756  -0.7709
6.37e+09  0.7129  -0.4615  -0.01465  0.0247  -0.009803  -0.008135  0.288  -0.9416
6.371e+09  0.5533  -0.7092  -0.00824  0.007156  0.005201  0.01712  -0.05822  -0.9201
6.372e+09  0.2396  -0.8596  0.02027  -0.006746  0.03013  -0.05012  -0.4312  -0.8299
6.374e+09  -0.05804  -0.8542  0.02244  0.01919  -0.04101  -0.009919  -0.6707  -0.7045
6.375e+09  -0.3439  -0.7876  -0.02426  -0.02327  -0.01509  -0.006379  -0.8601  -0.4079
6.376e+09  -0.6399  -0.6138  0.02949  -0.01498  -0.03092  -0.007476  -0.9227  -0.114
6.378e+09  -0.7614  -0.3609  0.02588  -0.02732  0.01326  0.008261  -0.8798  0.1927
6.379e+09  -0.891  -0.1413  0.02842  -0.004117  -0.007708  -0.009525  -0.8021  0.5436
6.38e+09  -0.8356  0.2371  0.03254  0.005589  -0.001665  -0.01885  -0.5355  0.7599
6.381e+09  -0.7191  0.4819  0.004697  0.005271  -0.05808  0.01733  -0.2544  0.9022
6.382e+09  -0.5265  0.7091  -0.004934  0.002231  -0.0352  0.01782  0.05763  0.9202
6.384e+09  -0.2017  0.8356  0.009526  -0.009828  -0.02463  0.01087  0.3761  0.8767
6.385e+09  0.102  0.8741  0.02352  -0.01716  0.01303  0.01841  0.6522  0.6922
6.386e+09  0.3852  0.7874  -0.01181  0.006071  0.0533  0.00676  0.8773  0.399
6.388e+09  0.6048  0.5816  -0.03193  0.03692  0.04386  0.01919  0.9757  0.134
6.389e+09  0.8172  0.3529  0.02215  0.005578  -0.03329  -0.02494  0.914  -0.2039
6.39e+09  0.8379  0.09082  0.01668  -0.02609  -0.005097  0.02855  0.7993  -0.492
6.391e+09  0.8573  -0.2839  -0.01144  0.0004551  -0.004339  -0.004375  0.5534  -0.7454
6.392e+09  0.6794  -0.5368  0.01998  0.008075  0.002973  0.04332  0.311  -0.8607
6.394e+09  0.4312  -0.7404  -0.003937  -0.01025  -0.008002  0.03266  -0.03389  -0.9298
6.395e+09  0.2011  -0.8337  0.00817  0.01007  -0.002539  -0.02541  -0.3071  -0.8932
6.396e+09  -0.09775  -0.877  -0.004392  0.0007925  0.0007445  -0.02621  -0.6199  -0.6701
6.398e+09  -0.4188  -0.7685  0.01334  -4.215e-05  -0.008681  -0.002007  -0.8203  -0.4498
6.399e+09  -0.686  -0.5815  -0.01041  0.018  -0.01875  -0.002848  -0.9063  -0.1495
6.4e+09  -0.8413  -0.3486  -0.005799  0.01592  -0.01084  -0.001471  -0.86  0.1579
6.401e+09  -0.8661  0.0001088  -0.01761  0.01907  0.004465  0.01045  -0.7875  0.5252
6.402e+09  -0.7855  0.2788  0.02927  -0.0176  -0.01283  -0.0135  -0.5869  0.7199
6.404e+09  -0.6289  0.5594  -0.02615  -0.02964  0.02367  0.02345  -0.339  0.8677
6.405e+09  -0.4582  0.7171  0.01497  0.04255  -0.02197  0.001265  0.0003477  0.9256
6.406e+09  -0.1613  0.83  0.001023  -0.03576  -0.006558  0.01636  0.3149  0.8905
6.408e+09  0.1784  0.8357  0.01182  -0.01788  -0.03105  0.01166  0.5974  0.697
6.409e+09  0.3981  0.7487  0.008626  0.03163  0.01887  0.01985  0.7967  0.4655
6.41e+09  0.645  0.5742  0.03344  -0.01027  0.03121  -0.02026  0.8864  0.1365
6.411e+09  0.7989  0.2689  -0.007273  -0.006891  -0.0518  -0.02766  0.9382  -0.1195
6.412e+09  0.8719  0.002355  -0.007594  0.02392  0.008432  0.006739  0.847  -0.4263
6.414e+09  0.7571  -0.3053  0.00387  0.007342  0.01502  -0.02813  0.6181  -0.6667
6.415e+09  0.6802  -0.5506  -0.04576  -0.02627  0.009691  -0.04307  0.3141  -0.8329
6.416e+09  0.4336  -0.734  -0.02078  -0.008923  0.04173  -0.01296  -0.0003489  -0.8586
6.418e+09  0.2231  -0.8333  -0.03425  -0.0408  0.01234  0.05359  -0.3006  -0.8458
6.419e+09  -0.1351  -0.8659  -0.006704  -0.001557  -0.04701  -0.05874  -0.5417  -0.7262
6.42e+09  -0.3873  -0.7667  -0.01026  0.01839  -0.0132  -0.05635  -0.7789  -0.4952
6.421e+09  -0.6705  -0.5467  -0.008795  -0.04514  -0.02968  -0.01164  -0.8793  -0.1488
6.422e+09  -0.7586  -0.2895  -0.004441  -0.04264  -0.04603  0.003914  -0.8809  0.1218
6.424e+09  -0.8658  -0.03203  -0.01159  0.02841  0.0005732  0.01691  -0.806  0.3939
6.425e+09  -0.8148  0.2903  -0.02228  0.02267  -0.009188  0.01918  -0.5734  0.6155
6.426e+09  -0.667  0.5452  -0.001231  0.05506  -0.02423  0.01244  -0.3963  0.8178
6.428e+09  -0.3832  0.74  0.04115  0.04089  -0.02841  -0.004649  -0.03993  0.8701
6.429e+09  -0.1157  0.8327  -0.02048  0.01627  -0.001364  0.00879  0.2512  0.8612
6.43e+09  0.1902  0.8563  -0.002614  0.01725  0.05057  0.007592  0.4955  0.7347
6.431e+09  0.4504  0.7579  0.00115  -0.008806  -0.01263  0.01621  0.7194  0.4679
6.432e+09  0.6678  0.5216  0.02041  -0.05711  -0.01285  -0.01998  0.8362  0.2311
6.434e+09  0.8331  0.2346  -0.03332  -0.01366  -0.003253  -0.05313  0.8374  -0.06515
6.435e+09  0.8213  -0.03464  -0.01603  -0.02422  -0.03689  0.01404  0.7726  -0.4124
6.436e+09  0.7944  -0.3147  -0.02542  -0.02629  0.02056  0.007865  0.5847  -0.6057
6.438e+09  0.673  -0.6  -0.007028  -0.03931  -0.001525  0.0398  0.331  -0.7591
6.439e+09  0.3637  -0.8005  -0.03927  0.01797  -0.02714  -0.002554  0.1048  -0.853
6.44e+09  0.1024  -0.8852  0.02337  -0.02331  -0.008568  -0.005965  -0.2176  -0.8614
6.441e+09  -0.1398  -0.8589  0.01666  0.02393  0.01242  -0.02509  -0.4843  -0.7434
6.442e+09  -0.4505  -0.698  -0.01978  -0.008902  0.03237  0.03019  -0.6878  -0.4808
6.444e+09  -0.7172  -0.554  -0.008334  -0.03677  -0.008255  -0.00558  -0.7695  -0.2381
6.445e+09  -0.8324  -0.2509  0.03345  0.02781  0.006689  0.002297  -0.8251  0.05948
6.446e+09  -0.8802  0.0562  -0.01476  -0.005697  -0.009773  -0.002541  -0.7467  0.4062
6.448e+09  -0.8147  0.3487  0.005265  -0.03563  0.01043  0.04443  -0.5561  0.5911
6.449e+09  -0.6207  0.5452  -0.07252  -0.05105  -0.00702  -0.003528  -0.3519  0.7886
6.45e+09  -0.4126  0.7819  0.005703  0.02665  0.004437  0.002896  -0.0821  0.7823
6.451e+09  -0.04923  0.8313  0.04624  -0.01553  0.01835  -0.01594  0.1931  0.8033
6.452e+09  0.1858  0.8047  -0.01751  -0.03761  0.03534  -0.00967  0.5082  0.6703
6.454e+09  0.4586  0.7  -0.02309  -0.03177  0.02641  0.03243  0.6769  0.5098
6.455e+09  0.7158  0.526  0.03953  -0.008136  0.05483  -0.004741  0.7841  0.2217
6.456e+09  0.8281  0.1976  -0.04928  0.01172  0.03581  -0.02292  0.8109  -0.1009
6.458e+09  0.8544  -0.1112  -0.00922  -0.0195  0.01841  0.005021  0.7724  -0.3564
6.459e+09  0.8064  -0.3774  -0.005452  0.02772  -0.04388  -0.0007173  0.5815  -0.5782
6.46e+09  0.6143  -0.6  -0.01491  0.008926  -0.02147  -0.003379  0.3448  -0.7055
6.461e+09  0.3571  -0.7818  0.008843  0.01712  0.02264  0.003517  0.09907  -0.8574
6.462e+09  0.1131  -0.8841  0.003149  0.03086  -0.02117  -0.01451  -0.1976  -0.8121
6.464e+09  -0.1974  -0.8652  0.01448  -0.017  0.0119  0.003183  -0.5007  -0.6553
6.465e+09  -0.4438  -0.7073  0.01595  0.003857  0.001801  0.03197  -0.6621  -0.5002
6.466e+09  -0.7136  -0.5374  -0.003992  -0.01596  0.04024  -0.01007  -0.7875  -0.1828
6.468e+09  -0.8351  -0.2208  -0.05507  0.02107  -0.03959  0.0006531  -0.8688  0.08339
6.469e+09  -0.9038  0.08349  0.002145  0.0147  0.02072  0.0006912  -0.7231  0.3148
6.47e+09  -0.8034  0.3919  -0.01025  -0.002084  -0.03524  -0.02881  -0.5317  0.5681
6.471e+09  -0.654  0.62  -0.01434  -0.01593  0.01665  -0.0339  -0.3113  0.7209
6.472e+09  -0.3807  0.7752  0.01056  -0.05287  0.004114  -0.0249  -0.06678  0.7406
6.474e+09  -0.03339  0.8839  0.01841  0.01588  0.009911  -0.008512  0.2584  0.7632
6.475e+09  0.2301  0.8304  0.01168  0.001254  -0.02622  0.01454  0.4535  0.6551
6.476e+09  0.5417  0.7461  0.01514  0.009161  -0.002089  -0.04002  0.6101  0.4446
6.478e+09  0.7564  0.4853  -0.01258  0.01971  -0.04116  0.03288  0.7419  0.2074
6.479e+09  0.8359  0.2245  0.03554  0.03348  -0.001512  0.0004216  0.7667  -0.04302
6.48e+09  0.8568  -0.07908  0.03163  0.0168  -0.05541  0.0005952  0.6922  -0.3288
6.481e+09  0.8245  -0.395  -0.01311  0.001723  0.01622  0.02833  0.5571  -0.5585
6.482e+09  0.6117  -0.6199  -0.0184  0.01465  0.02396  -0.02146  0.3767  -0.7156
6.484e+09  0.4166  -0.7905  0.01456  -0.04169  -0.0191  0.05057  0.06366  -0.7528
6.485e+09  -0.003981  -0.8888  0.03183  -0.01111  -0.02694  -0.01905  -0.1563  -0.7185
6.486e+09  -0.2605  -0.8895  -0.02219  -0.01042  0.003223  0.01809  -0.4494  -0.6228
6.488e+09  -0.893  -0.09461  -0.01123  0.004588  -0.6048  0.3496  -0.6309  -0.4696
6.489e+09  -0.7573  -0.5281  -0.001459  0.02844  -0.007198  0.002527  -0.7493  -0.2389
6.49e+09  -0.883  -0.1736  0.01991  -0.00863  0.01365  -0.00996  -0.7904  0.09773
6.491e+09  -0.9013  0.1264  0.04955  -0.0171  -0.03779  -0.002332  -0.7034  0.3651
6.492e+09  -0.7866  0.4116  0.01264  0.01966  -9.197e-05  -0.01007  -0.5397  0.5462
6.494e+09  -0.4859  0.6071  -0.02615  0.01974  0.003101  -0.1336  -0.2882  0.7181
6.495e+09  -0.2783  0.8411  -0.006946  -0.02389  0.04177  -0.03483  -0.06575  0.7426
6.496e+09  0.0218  0.9376  -0.0139  -0.005537  0.002113  -0.008951  0.2017  0.7255
6.498e+09  0.2773  0.8126  0.003873  -0.02361  0.01918  0.006466  0.4125  0.592
6.499e+09  0.5395  0.7279  -0.03691  -0.007355  0.01748  -0.02538  0.6309  0.4181
6.5e+09  0.7171  0.4259  -0.03247  0.0117  -0.01727  0.01099  0.7609  0.1773
6.501e+09  0.8666  0.1306  -0.0001907  0.0104  -0.007172  -0.02157  0.7452  -0.1466
6.502e+09  0.9113  -0.1658  0.008004  -0.007751  0.01453  0.02157  0.6506  -0.3074
6.504e+09  0.8031  -0.4779  0.03089  -0.03373  0.03564  -0.03864  0.525  -0.58
6.505e+09  0.5819  -0.6793  0.02934  -0.001767  -0.0048  -0.007191  0.2389  -0.7219
6.506e+09  0.279  -0.8993  0.02471  -0.02933  -0.02208  0.03509  0.002022  -0.7601
6.508e+09  0.01437  -0.9117  -0.01649  0.01763  -0.04471  -0.04131  -0.2308  -0.7003
6.509e+09  -0.3328  -0.8264  -0.01115  -0.02387  -0.02189  -0.004133  -0.4316  -0.5499
6.51e+09  -0.6286  -0.689  0.008397  -0.009683  -0.005594  0.02916  -0.6532  -0.384
6.511e+09  -0.8453  -0.5111  -0.008542  0.01186  0.0422  -0.0405  -0.7276  -0.1326
6.512e+09  -0.8982  -0.1354  -0.01489  0.01325  -0.01545  -0.03132  -0.7751  0.1388
6.514e+09  -0.886  0.2008  -0.0357  0.002913  0.001492  0.03674  -0.6147  0.4124
6.515e+09  -0.7797  0.5128  0.009172  0.01206  -0.02882  -0.01702  -0.4718  0.5671
6.516e+09  -0.5576  0.7581  0.01859  -0.01041  0.02444  0.02089  -0.2311  0.7106
6.518e+09  -0.2608  0.8462  0.01327  0.01414  -0.01857  0.0152  0.005404  0.7425
6.519e+09  0.06773  0.9017  0.02202  0.027  0.003595  -0.03422  0.2648  0.7097
6.52e+09  0.3496  0.7947  0.01831  0.04256  -0.002749  -0.0202  0.5059  0.5903
6.521e+09  0.6282  0.672  -0.00544  -0.009456  -0.01984  0.03154  0.6336  0.3528
6.522e+09  0.8137  0.3721  -2.668e-05  -0.003687  -0.02808  -0.04526  0.7281  0.07927
6.524e+09  0.9255  0.05232  0.008849  -0.02804  -0.05804  0.02361  0.6847  -0.1611
6.525e+09  0.9204  -0.257  -0.02632  -0.009681  -0.04007  0.01921  0.617  -0.3993
6.526e+09  0.7337  -0.6125  -0.05909  -0.04251  0.01133  -0.007892  0.4129  -0.5983
6.528e+09  0.5345  -0.8054  0.02641  0.007347  0.03409  0.004732  0.2014  -0.7036
6.529e+09  0.2346  -0.9681  -0.00875  -0.01695  -0.005569  -0.001578  -0.06958  -0.7214
6.53e+09  -0.07933  -0.9745  -0.01126  0.0194  0.04246  -0.04002  -0.2756  -0.6272
6.531e+09  -0.4738  -0.7882  -0.0009633  -0.008011  0.006548  0.0121  -0.4855  -0.4735
6.532e+09  -0.7024  -0.6178  0.007197  0.002762  0.01111  0.005767  -0.64  -0.3034
6.534e+09  -0.8603  -0.3178  0.01915  -0.02637  0.02663  0.05574  -0.5884  -0.08022
6.535e+09  -0.9273  0.004081  0.03055  8.803e-05  -0.01185  -0.06587  -0.6147  0.1279
6.536e+09  -0.8889  0.3468  -0.01546  0.0135  0.01528  0.03772  -0.5626  0.3236
6.538e+09  -0.7007  0.5455  -0.03338  -0.01732  -0.008981  -0.022  -0.4224  0.4879
6.539e+09  -0.4245  0.8343  -0.003262  -0.01455  0.0238  0.03835  -0.2618  0.6042
6.54e+09  -0.1623  0.931  -0.01619  0.03716  0.02793  0.01572  -0.04039  0.6817
6.541e+09  0.1392  0.9113  -0.021  -0.02084  -0.01281  0.01415  0.1881  0.6441
6.542e+09  0.4852  0.8545  -0.02086  -0.0116  -0.01277  -0.01404  0.4086  0.5711
6.544e+09  0.7158  0.579  -0.008624  0.006901  0.005544  0.002001  0.6039  0.3855
6.545e+09  0.9211  0.3024  0.003678  -0.04085  -0.03235  0.01129  0.6852  0.1854
6.546e+09  0.9044  -0.05814  0.03999  0.01776  -0.01178  0.002412  0.7656  -0.07069
6.548e+09  0.8598  -0.3128  -0.001342  -0.003446  0.01487  -0.03108  0.6691  -0.3207
6.549e+09  0.6683  -0.5882  -0.03644  -0.005412  0.01138  -0.04525  0.5061  -0.5266
6.55e+09  0.3995  -0.7407  -0.01684  0.01284  -0.007227  0.0625  0.3295  -0.711
