# Hz S RI R 50
6.25e+09  -0.6943  0.3639  -0.002857  0.009347  0.01726  0.002898  0.2081  0.4561
6.251e+09  -0.5257  0.5715  -0.01277  -0.02108  0.0309  0.05651  0.4008  0.3908
6.252e+09  -0.3161  0.7593  -0.01241  0.02153  0.001411  0.03503  0.5  0.1952
6.254e+09  -0.01973  0.8185  0.007796  0.01005  0.005053  -0.0208  0.6004  -0.01803
6.255e+09  0.3509  0.7443  0.008343  0.02617  -0.007639  -0.03106  0.5701  -0.2152
6.256e+09  0.4654  0.6637  -0.01288  -0.01838  -0.02548  0.0125  0.4587  -0.4703
6.258e+09  0.6883  0.3999  -0.01146  -0.01875  0.03514  -0.008177  0.2949  -0.611
6.259e+09  0.7439  0.1729  0.01176  0.02387  0.01073  -0.0294  0.01599  -0.7014
6.26e+09  0.792  -0.09579  0.01228  -0.0006998  0.0374  -0.04675  -0.2163  -0.6576
6.261e+09  0.6975  -0.3568  0.01246  -0.005916  -0.02493  -0.008046  -0.4318  -0.5487
6.262e+09  0.5065  -0.6568  -0.006807  -0.003567  -0.01349  0.02878  -0.6343  -0.3455
6.264e+09  0.2903  -0.7363  -0.002077  0.005393  0.02551  -0.005125  -0.6992  -0.08712
6.265e+09  0.04135  -0.7872  -0.02436  -0.01461  0.03089  0.03348  -0.6932  0.1404
6.266e+09  -0.2713  -0.7401  0.002023  0.02441  0.004277  0.01432  -0.5741  0.3967
6.268e+09  -0.4841  -0.5796  -0.01161  0.02202  -0.04438  -0.008306  -0.4258  0.5771
6.269e+09  -0.637  -0.4163  -0.02499  9.753e-06  0.03134  0.001422  -0.2093  0.7064
6.27e+09  -0.7893  -0.1623  0.02009  -0.005278  -0.07562  -0.003881  0.03043  0.7329
6.271e+09  -0.7947  0.1209  -0.0007378  0.02425  0.04225  0.02894  0.3226  0.662
6.272e+09  -0.7227  0.3343  -0.04187  -0.0008847  0.009166  -0.003299  0.5112  0.497
6.274e+09  -0.5324  0.5876  0.006502  -0.02176  -0.0396  -0.00639  0.6932  0.2706
6.275e+09  -0.3319  0.7514  -0.004821  -0.001361  -0.02473  -0.0184  0.7608  0.06437
6.276e+09  -0.01815  0.7532  0.01116  0.0377  -0.01337  -0.007409  0.7166  -0.2359
6.278e+09  0.2696  0.7431  0.003699  0.00356  -0.03556  -0.04755  0.6229  -0.4428
6.279e+09  0.4889  0.6291  -0.004887  -0.006981  0.0002192  -0.009181  0.381  -0.653
6.28e+09  0.6969  0.4295  0.02816  0.007709  0.03022  -0.01842  0.151  -0.7579
6.281e+09  0.7908  0.1094  -0.008146  -0.009536  0.04598  -0.01507  -0.1009  -0.7703
6.282e+09  0.7954  -0.1171  -0.006966  0.02693  0.03643  -0.03294  -0.364  -0.6797
6.284e+09  0.6814  -0.3972  0.01457  -0.009647  -0.05096  -0.01368  -0.5872  -0.5012
6.285e+09  0.5114  -0.6629  0.01637  0.003772  -0.02588  -0.01911  -0.729  -0.3179
6.286e+09  0.254  -0.7352  -0.02782  -0.01531  -0.002103  0.03848  -0.7911  -0.00726
6.288e+09  0.05464  -0.7812  0.02059  -0.01376  0.0102  -0.01609  -0.7174  0.2273
6.289e+09  -0.3485  -0.7449  0.007737  0.001472  -0.02345  -0.01091  -0.6106  0.5026
6.29e+09  -0.4779  -0.6048  0.01114  0.002607  -0.03486  0.03425  -0.4172  0.6726
6.291e+09  -0.652  -0.3783  -0.01459  -0.00877  0.05126  -0.06669  -0.1497  0.8087
6.292e+09  -0.8043  -0.1704  0.006636  0.02015  0.05065  0.00216  0.1217  0.755
6.294e+09  -0.7667  0.173  0.007839  0.001778  0.05205  -0.01908  0.422  0.6772
6.295e+09  -0.7187  0.4167  -0.01357  -0.01375  -0.03049  -0.008551  0.6347  0.5401
6.296e+09  -0.4907  0.6437  -0.01134  0.02294  -0.0311  -0.02574  0.7935  0.2948
6.298e+09  -0.2726  0.8153  0.004611  -0.009679  -0.03344  0.01133  0.8479  0.01144
6.299e+09  0.06694  0.8285  -0.01194  0.03232  -0.01943  -0.02831  0.7912  -0.2629
6.3e+09  0.2983  0.7278  0.01213  -0.005765  -0.002028  -0.04481  0.6406  -0.5122
6.301e+09  0.5059  0.6413  -0.0001802  -0.01183  0.01876  0.01347  0.4362  -0.729
6.302e+09  0.7223  0.3921  -0.002554  0.0008465  -0.02261  -0.005721  0.1496  -0.8074
6.304e+09  0.8375  0.1158  0.01031  0.003701  0.01773  -0.02793  -0.09856  -0.8329
6.305e+09  0.7975  -0.1667  0.001922  -0.01631  0.01821  0.026  -0.4009  -0.7402
6.306e+09  0.6666  -0.443  -0.003657  -0.02017  0.01873  0.007695  -0.6469  -0.5548
6.308e+09  0.5304  -0.6839  0.00474  0.01007  0.006493  0.004518  -0.8172  -0.3253
6.309e+09  0.2001  -0.7508  0.04428  0.02302  0.02241  0.01911  -0.8887  0.01735
6.31e+09  -0.08787  -0.8422  0.008584  -0.01383  -0.02539  -0.05003  -0.8136  0.3073
6.311e+09  -0.3528  -0.6975  -0.007285  0.004019  0.02468  -0.04192  -0.6935  0.5265
6.312e+09  -0.5877  -0.5676  -0.004367  0.01549  -0.02381  0.014  -0.4268  0.75
6.314e+09  -0.74  -0.3531  -0.01395  0.031  0.01607  0.0479  -0.1578  0.8479
6.315e+09  -0.7983  -0.04093  -0.01584  0.02088  -0.02008  0.008579  0.1042  0.8784
6.316e+09  -0.7394  0.236  0.02091  -0.001142  -0.06316  0.03187  0.4243  0.7727
6.318e+09  -0.6247  0.4171  -0.003339  -0.007559  -0.03615  0.0467  0.6544  0.5708
6.319e+09  -0.4637  0.692  -0.0003229  0.0163  -0.00267  -0.01614  0.7942  0.3165
6.32e+09  -0.1894  0.8139  0.003317  0.01012  -0.00169  0.01536  0.876  0.03698
6.321e+09  0.08703  0.7727  0.0003054  0.0019  -0.02124  0.002819  0.8379  -0.2849
6.322e+09  0.3433  0.714  0.001956  -0.02208  0.001339  0.03043  0.6977  -0.5438
6.324e+09  0.6178  0.5468  0.01402  0.008154  0.01839  0.03291  0.4622  -0.7725
6.325e+09  0.734  0.2817  0.02854  0.00996  -0.04577  0.01755  0.2039  -0.8896
6.326e+09  0.8484  0.03865  0.009841  0.01058  0.0644  0.02144  -0.1461  -0.8643
6.328e+09  0.7612  -0.2503  -0.02194  -0.009711  -0.02437  0.01213  -0.4234  -0.7816
6.329e+09  0.6477  -0.5166  0.005734  0.02098  0.01793  0.01736  -0.6482  -0.5844
6.33e+09  0.3585  -0.6841  0.004941  0.006354  -0.04313  0.03604  -0.8374  -0.3322
6.331e+09  0.1211  -0.7725  -0.02805  -0.004783  0.06367  0.0168  -0.9079  -0.03998
6.332e+09  -0.1363  -0.7906  0.02151  0.00846  0.06332  0.0005331  -0.8647  0.3003
6.334e+09  -0.4111  -0.7441  -0.01124  0.006066  -0.01254  -0.05046  -0.7396  0.5831
6.335e+09  -0.6028  -0.5845  0.0009043  -0.01433  -0.0007043  0.002539  -0.4973  0.7839
6.336e+09  -0.7795  -0.2517  -0.001002  0.01098  -0.009703  0.01233  -0.1861  0.9042
6.338e+09  -0.8117  0.07956  0.01267  -0.003214  0.01263  0.005935  0.1683  0.9214
6.339e+09  -0.7804  0.3361  0.01928  -0.02344  -0.01842  -0.002514  0.406  0.7892
6.34e+09  -0.5968  0.569  -0.0176  0.03008  0.001417  -0.01839  0.6822  0.6126
6.341e+09  -0.4088  0.7544  -0.02345  -0.01421  0.02373  0.01532  0.8599  0.3484
6.342e+09  -0.07726  0.85  0.0182  0.01659  -0.003707  0.07329  0.9129  0.04978
6.344e+09  0.2058  0.8176  -0.04155  -0.01248  -0.02371  0.02229  0.887  -0.2604
6.345e+09  0.4227  0.7148  0.01036  0.002594  -0.01838  -0.04072  0.7577  -0.5474
6.346e+09  0.6882  0.4855  -0.01196  0.01262  0.01508  -0.002972  0.531  -0.7849
6.348e+09  0.8291  0.2212  -0.01911  0.00888  0.04644  0.04137  0.2185  -0.8818
6.349e+09  0.8389  -0.1053  0.004034  0.01963  0.03033  -0.04667  -0.09757  -0.9228
6.35e+09  0.7765  -0.3451  -0.01425  0.039  -0.0254  0.03564  -0.4261  -0.8448
6.351e+09  0.5983  -0.6328  0.004316  0.03567  0.03785  0.006832  -0.7031  -0.6534
6.352e+09  0.3011  -0.7833  0.04926  0.009039  0.03289  0.02342  -0.8367  -0.3764
6.354e+09  0.06802  -0.8088  0.02815  0.02077  -0.0137  0.04034  -0.9771  -0.06499
6.355e+09  -0.2857  -0.782  0.01408  -0.04382  0.0002907  -0.0114  -0.8948  0.2697
6.356e+09  -0.5333  -0.6774  0.004412  0.02214  -0.01875  0.007188  -0.7717  0.57
6.358e+09  -0.7382  -0.4465  0.003016  0.0226  -0.001487  -0.03184  -0.5465  0.7509
6.359e+09  -0.844  -0.1409  -0.02876  -0.006737  0.01899  -0.002536  -0.23  0.8723
6.36e+09  -0.82  0.1174  0.02813  -0.01441  0.02666  -0.03101  0.1381  0.907
6.361e+09  -0.7474  0.4378  -0.001164  -0.02633  0.01098  -0.00639  0.3649  0.8346
6.362e+09  -0.5321  0.6564  -0.003256  0.0002464  0.0002577  0.04139  0.6897  0.6248
6.364e+09  -0.2699  0.8203  -0.0002762  0.007546  -0.02841  -0.02251  0.8284  0.3888
6.365e+09  0.01679  0.8576  0.03499  0.006156  0.04168  0.01453  0.9462  0.08703
6.366e+09  0.3358  0.7716  -0.006764  -0.03582  -0.01587  -0.01463  0.8659  -0.2187
6.368e+09  0.6111  0.6492  -0.007653  0.02073  0.005018  -0.001245  0.7621  -0.537
6.369e+09  0.7301  0.4148  -0.005021  0.02341  -0.003519  0.01151  0.5671  -0.7602
6.37e+09  0.8937  0.08888  -0.03862  -0.006391  -0.005609  0.005334  0.2424  -0.8769
6.371e+09  0.8202  -0.2172  0.01602  0.0104  0.001656  -0.01363  -0.05586  -0.9304
6.372e+09  0.6723  -0.4785  0.01585  0.004382  0.01515  0.03052  -0.4046  -0.8409
6.374e+09  0.4925  -0.7042  -0.0003378  -0.002062  -0.02752  -0.02541  -0.6767  -0.6771
6.375e+09  0.1597  -0.883  1.566e-05  -0.02473  -0.01392  0.004866  -0.8516  -0.399
6.376e+09  -0.1151  -0.8353  -0.01156  -0.01102  0.03744  0.03001  -0.9596  -0.09338
6.378e+09  -0.3349  -0.7489  -0.02755  0.01455  -0.02602  0.00126  -0.9072  0.2611
6.379e+09  -0.6331  -0.5988  -0.02338  0.03534  -0.01618  0.001027  -0.7756  0.5013
6.38e+09  -0.8179  -0.3004  -0.009718  0.02318  -0.01916  0.005516  -0.5337  0.7366
6.381e+09  -0.8637  -0.08698  -0.01451  0.01631  -0.03971  0.02329  -0.2869  0.8673
6.382e+09  -0.8099  0.2757  -0.01962  0.0283  -0.0213  0.005616  0.05106  0.9177
6.384e+09  -0.694  0.5843  -0.003245  -0.002176  0.02516  0.01356  0.3459  0.8742
6.385e+09  -0.4589  0.7649  0.0001668  0.03642  0.03209  0.03555  0.6497  0.7162
6.386e+09  -0.1717  0.8386  0.02204  0.0112  0.01365  -0.02546  0.8263  0.4325
6.388e+09  0.2051  0.8614  -0.004444  0.0022  0.04079  0.01789  0.9219  0.1135
6.389e+09  0.371  0.777  0.02015  -0.01965  -0.03456  -0.01725  0.9216  -0.2237
6.39e+09  0.6907  0.5228  0.01149  0.01452  -0.004979  0.02657  0.8059  -0.4877
6.391e+09  0.7773  0.2587  0.003234  0.03819  -0.03899  -0.02803  0.5982  -0.7278
6.392e+09  0.8429  -0.01836  0.00476  0.001108  0.007451  0.0135  0.2479  -0.8735
6.394e+09  0.787  -0.2912  -0.0299  -0.02484  0.02299  0.01076  -0.04729  -0.9011
6.395e+09  0.6462  -0.5578  0.009411  0.001727  0.04398  0.01428  -0.3644  -0.8462
6.396e+09  0.4155  -0.7462  -0.004124  0.001874  0.006688  -0.009825  -0.5844  -0.73
6.398e+09  0.08513  -0.7996  7.559e-05  -0.04654  -0.0177  -0.03845  -0.7716  -0.4591
6.399e+09  -0.1964  -0.8436  0.02264  -0.01397  -0.01286  0.05156  -0.9516  -0.1389
6.4e+09  -0.4479  -0.7741  -0.02919  -0.02187  -0.02531  0.04655  -0.8723  0.1416
6.401e+09  -0.7042  -0.4907  0.01054  0.007899  -0.0118  0.02801  -0.7949  0.4732
6.402e+09  -0.8314  -0.2514  -0.04846  0.03223  0.008474  0.008186  -0.5728  0.7506
6.404e+09  -0.7828  0.06909  0.02231  -0.03375  -0.02379  -0.04861  -0.281  0.8619
6.405e+09  -0.8285  0.341  -0.01178  0.009745  0.006313  -0.03553  0.004434  0.9186
6.406e+09  -0.6504  0.5658  -0.01813  -0.01019  -0.03547  -0.0009177  0.2823  0.8394
6.408e+09  -0.3308  0.7387  0.009192  0.006202  -0.04423  0.017  0.5091  0.7123
6.409e+09  -0.0599  0.8518  0.01789  -0.001846  -0.03127  -0.0375  0.7873  0.4628
6.41e+09  0.2725  0.7975  0.0279  -0.01183  0.0161  -0.03883  0.9006  0.196
6.411e+09  0.4532  0.7226  0.006974  -0.01231  -0.02155  -0.009644  0.8628  -0.1669
6.412e+09  0.707  0.5391  -0.02215  0.01101  0.01609  -0.01183  0.8161  -0.3937
6.414e+09  0.8492  0.1659  -0.03242  0.03007  0.04482  0.02718  0.5846  -0.6939
6.415e+09  0.8234  -0.08495  0.01423  -0.003739  0.0396  -0.02205  0.3716  -0.8192
6.416e+09  0.6888  -0.336  -0.02099  -0.04172  -0.02086  0.01132  0.008791  -0.9212
6.418e+09  0.6041  -0.5835  0.03325  -0.06358  0.01401  0.02097  -0.2839  -0.8503
6.419e+09  0.2989  -0.8029  -0.01701  -0.02791  0.01937  -0.02712  -0.5456  -0.7108
6.42e+09  0.05184  -0.8368  0.02605  -0.05122  0.01704  0.06474  -0.7517  -0.4605
6.421e+09  -0.2906  -0.7945  -0.002744  0.02195  -0.04383  0.01597  -0.8546  -0.2011
6.422e+09  -0.5315  -0.658  -0.02662  0.03379  -0.004589  -0.01408  -0.8207  0.1477
6.424e+09  -0.7072  -0.4331  0.03546  0.02567  0.009438  -0.0006136  -0.7463  0.4046
6.425e+09  -0.8313  -0.1788  0.006853  0.008336  0.03071  0.002987  -0.6271  0.6279
6.426e+09  -0.796  0.1318  -0.005736  0.05415  -0.02905  -0.02206  -0.3042  0.7798
6.428e+09  -0.7458  0.3934  -0.01064  -0.003741  -0.04723  0.03015  -0.05135  0.8777
6.429e+09  -0.5756  0.7065  -0.06205  0.01098  0.007062  0.00748  0.2653  0.8423
6.43e+09  -0.3169  0.7409  -0.02728  -0.008871  0.009523  -0.04172  0.5568  0.6774
6.431e+09  -0.01879  0.8508  -0.006948  -0.02276  -0.05054  0.01858  0.7065  0.4629
6.432e+09  0.2616  0.8118  -0.01195  -0.01936  0.02369  0.02507  0.8377  0.2269
6.434e+09  0.5691  0.6616  0.0156  -0.03173  0.01889  -0.03212  0.8768  -0.06771
6.435e+09  0.6608  0.42  -0.009516  -0.002131  -0.04634  -0.03892  0.7983  -0.3962
6.436e+09  0.8288  0.1297  -0.008294  0.02268  0.03337  -0.03816  0.5873  -0.6417
6.438e+09  0.8557  -0.1546  0.01721  -0.04221  0.01407  0.01604  0.3244  -0.8066
6.439e+09  0.7484  -0.3725  0.02029  0.0362  0.01193  -0.01854  0.04138  -0.8409
6.44e+09  0.5208  -0.6176  -0.008998  -0.0171  -0.00801  0.02637  -0.2339  -0.7749
6.441e+09  0.2966  -0.8101  -0.01662  0.01336  -0.02313  -0.0009091  -0.5328  -0.6899
6.442e+09  0.01219  -0.8639  -0.00882  -0.01228  0.01044  -0.002034  -0.6857  -0.4596
6.444e+09  -0.3088  -0.8119  -0.0403  0.02104  -0.05273  0.005071  -0.8288  -0.2013
6.445e+09  -0.5613  -0.6364  -0.007607  0.007881  0.01686  0.02431  -0.8199  0.1238
6.446e+09  -0.702  -0.427  0.04201  0.03012  -0.043  -0.04465  -0.7578  0.3724
6.448e+09  -0.8434  -0.1691  0.006894  0.04143  0.01577  0.02343  -0.6691  0.5433
6.449e+09  -0.7933  0.1647  -0.04285  -0.01734  -0.008374  -0.007854  -0.382  0.805
6.45e+09  -0.6937  0.4126  0.01624  0.01194  -0.01447  -0.0003052  -0.04516  0.8369
6.451e+09  -0.5046  0.6532  -0.04077  -0.02105  0.0004593  -0.01227  0.1977  0.8231
6.452e+09  -0.2861  0.7608  0.03228  -0.06782  -0.02908  0.005452  0.4357  0.6387
6.454e+09  0.00262  0.8778  -0.02748  0.01942  0.02787  0.06722  0.6327  0.4634
6.455e+09  0.3405  0.7932  -0.009445  0.02825  0.009702  0.04879  0.7962  0.2362
6.456e+09  0.548  0.6052  -0.004965  -0.02161  0.0124  0.05612  0.8621  -0.07686
6.458e+09  0.724  0.3698  0.03133  -0.01242  -0.05207  -0.01161  0.7538  -0.3585
6.459e+09  0.8498  0.08735  -0.04776  0.01239  0.002652  0.0257  0.573  -0.5366
6.46e+09  0.792  -0.1534  0.03872  0.03317  0.015  -0.01159  0.3367  -0.7104
6.461e+09  0.7265  -0.4113  -0.008193  -0.01759  0.02145  0.003515  0.05069  -0.8049
6.462e+09  0.4803  -0.609  -0.04455  0.01846  0.02113  -0.01711  -0.2656  -0.8096
6.464e+09  0.3135  -0.8197  0.05662  0.009624  -0.07042  0.06863  -0.4289  -0.6849
6.465e+09  -0.004909  -0.8566  0.01037  -0.03214  0.02095  0.007021  -0.6854  -0.4315
6.466e+09  -0.3266  -0.7692  0.003974  -0.003096  -0.01413  -0.01907  -0.7702  -0.2176
6.468e+09  -0.5042  -0.579  0.01257  0.02794  -0.01287  0.009478  -0.8046  0.09192
6.469e+09  -0.7144  -0.3926  0.007141  -0.005764  -0.01364  -0.007039  -0.7251  0.3907
6.47e+09  -0.8594  -0.08631  0.001195  0.01168  0.03175  0.01294  -0.5805  0.5294
6.471e+09  -0.7874  0.2325  0.02803  -0.01705  0.04545  0.007379  -0.3482  0.753
6.472e+09  -0.7198  0.4454  0.02542  -0.009181  0.03173  -0.03383  -0.05852  0.7531
6.474e+09  -0.4568  0.665  0.03451  0.02062  -0.03054  0.008744  0.191  0.7614
6.475e+09  -0.2699  0.7772  -0.0288  0.02534  -0.03492  -0.008324  0.4813  0.7229
6.476e+09  0.02883  0.851  -0.01987  -0.0001562  0.002822  -0.009674  0.6311  0.4529
6.478e+09  0.3351  0.7415  0.04649  0.003899  -0.02185  0.0618  0.7485  0.1821
6.479e+09  0.5969  0.6025  0.01456  -0.01237  -0.0176  0.005726  0.7763  -0.07142
6.48e+09  0.7558  0.3913  0.005138  0.01708  -0.0183  -0.03397  0.6889  -0.3226
6.481e+09  0.8495  0.1352  -0.01442  0.01114  -0.02097  0.02535  0.5143  -0.5209
6.482e+09  0.8596  -0.1758  -0.05245  0.02175  -2.902e-05  -0.05178  0.2802  -0.7529
6.484e+09  0.697  -0.4376  -0.001513  0.02523  -0.005481  -0.007507  0.0662  -0.7724
6.485e+09  0.5397  -0.6599  -0.0337  0.03043  -0.00381  -0.03782  -0.2237  -0.7598
6.486e+09  0.2327  -0.8141  0.01004  -0.04873  -0.01912  -0.01132  -0.4441  -0.6494
6.488e+09  0.4226  -0.2812  -0.04882  0.03516  0.678  -0.0236  -0.6554  -0.4248
6.489e+09  -0.3549  -0.7776  0.03264  0.007587  -0.01007  0.001933  -0.7782  -0.2063
6.49e+09  -0.5583  -0.6353  -0.01808  -0.0255  0.03695  -0.05091  -0.8016  0.1437
6.491e+09  -0.7724  -0.3349  0.0196  -0.03485  -0.05111  0.002769  -0.7167  0.3112
6.492e+09  -0.832  -0.08052  -0.001795  -0.008493  -0.01841  0.03579  -0.5167  0.5428
6.494e+09  -0.8193  0.3407  0.0354  0.006408  -0.0948  -0.02517  -0.327  0.6838
6.495e+09  -0.653  0.5061  -0.008519  -0.02277  0.03023  0.008927  -0.03551  0.7604
6.496e+09  -0.5034  0.7145  -0.003862  0.02516  -0.007643  0.04767  0.2232  0.728
6.498e+09  -0.22  0.7972  0.03281  0.003704  -0.01212  -0.02461  0.4633  0.5964
6.499e+09  0.0796  0.8972  0.003516  0.02337  -0.02308  -0.04619  0.6524  0.4016
6.5e+09  0.3028  0.707  -0.004217  -0.02613  0.01559  0.004098  0.7092  0.1719
6.501e+09  0.6115  0.658  0.03069  -0.04249  -0.03696  -0.002169  0.7811  -0.08998
6.502e+09  0.7537  0.3669  0.01103  0.02123  0.02709  0.02724  0.6537  -0.3599
6.504e+09  0.8059  0.05596  -0.00909  -0.003849  0.03641  -0.01226  0.5398  -0.5502
6.505e+09  0.8278  -0.2224  -0.003837  -0.03724  0.03075  0.006439  0.2676  -0.701
6.506e+09  0.7413  -0.4779  -0.0201  0.001362  -0.01627  0.03665  0.03321  -0.7625
6.508e+09  0.4639  -0.7183  0.01459  0.009419  0.00238  -0.003515  -0.2271  -0.7519
6.509e+09  0.2233  -0.8683  0.005915  -0.003325  0.02795  -0.006687  -0.4608  -0.5968
6.51e+09  -0.06449  -0.8971  -0.02882  0.004374  0.006002  0.005588  -0.6368  -0.3855
6.511e+09  -0.4051  -0.7775  0.01816  -0.02398  -0.02998  0.01059  -0.7141  -0.1226
6.512e+09  -0.6001  -0.5909  0.02785  0.01505  0.04259  0.03531  -0.7441  0.1211
6.514e+09  -0.7989  -0.3643  -0.004342  0.009238  0.004875  0.00829  -0.6728  0.3651
6.515e+09  -0.8938  -0.09398  0.01567  0.05105  -0.0344  -0.01192  -0.4763  0.5709
6.516e+09  -0.8771  0.2871  -0.02886  -0.01903  -0.01512  0.01639  -0.2318  0.6904
6.518e+09  -0.7365  0.5601  -0.01285  -0.02491  -0.04308  -0.003576  0.02791  0.76
6.519e+09  -0.5132  0.7753  -0.01041  -0.001493  -0.01777  -0.009063  0.2584  0.7178
6.52e+09  -0.2157  0.8813  0.02411  -0.01115  -0.003735  -0.007115  0.4909  0.5452
6.521e+09  0.1194  0.8633  -0.03669  0.03342  -0.01642  -0.02624  0.6275  0.3246
6.522e+09  0.3986  0.7977  -0.007447  -0.0005857  0.03256  -0.03463  0.7037  0.1048
6.524e+09  0.7284  0.634  -0.01749  -0.004596  0.01907  0.02478  0.6901  -0.1556
6.525e+09  0.8191  0.3225  -0.002011  0.01511  -0.008413  -0.004933  0.5957  -0.358
6.526e+09  0.9221  0.01513  -0.008735  -0.01415  0.02573  -0.009285  0.4489  -0.6049
6.528e+09  0.8428  -0.3335  -0.003388  -0.002681  0.02593  0.03467  0.1952  -0.6652
6.529e+09  0.7052  -0.5868  -0.02474  -0.02783  0.005202  -0.05366  -0.08855  -0.679
6.53e+09  0.426  -0.7587  -0.01278  -0.02439  0.008989  -0.01069  -0.3073  -0.6405
6.531e+09  0.1469  -0.9092  0.0114  -0.008535  -0.06412  -0.04911  -0.4792  -0.479
6.532e+09  -0.1518  -0.884  -0.0197  0.02448  -0.004926  -0.03002  -0.5854  -0.2738
6.534e+09  -0.4673  -0.7871  0.02824  0.009092  -0.02005  -0.002269  -0.6598  -0.1107
6.535e+09  -0.7118  -0.5847  0.02327  0.0008051  0.04494  0.01031  -0.6173  0.08083
6.536e+09  -0.8914  -0.302  -0.01272  0.03812  0.01528  -0.01346  -0.5812  0.2859
6.538e+09  -0.9677  0.05265  -0.02259  -0.01022  0.04726  -0.02659  -0.4407  0.4467
6.539e+09  -0.8218  0.3652  -0.02423  -0.0226  0.0118  0.005663  -0.2547  0.6181
6.54e+09  -0.7369  0.6398  0.01224  0.02545  -0.003798  -0.01716  -0.04971  0.6488
6.541e+09  -0.3303  0.8393  -0.01627  0.002124  0.02837  0.01155  0.2279  0.6609
6.542e+09  -0.1166  0.9481  0.01509  -0.01531  -0.006546  -0.0474  0.4037  0.5672
6.544e+09  0.2904  0.9078  -0.01109  -0.000884  -0.003635  0.01339  0.6351  0.394
6.545e+09  0.531  0.7727  -0.009181  0.02407  0.04645  -0.01719  0.7145  0.1852
6.546e+09  0.7788  0.5107  0.004715  -0.03922  0.01568  0.04307  0.7226  -0.1086
6.548e+09  0.9036  0.2368  -0.03283  0.02231  0.007226  -0.00102  0.6593  -0.3363
6.549e+09  0.9741  -0.102  -0.0187  -0.01941  0.009831  0.006308  0.5103  -0.5478
6.55e+09  0.821  -0.4988  -0.008464  -0.00217  -0.04332  -0.0229  0.3014  -0.6935
