# Hz S RI R 50
6.25e+09  -0.7518  0.3578  0.008397  -0.02438  0.02035  -0.000356  0.1718  0.5208
6.251e+09  -0.5613  0.6341  -0.01943  0.02692  -0.02906  0.07361  0.3617  0.3911
6.252e+09  -0.3222  0.7657  -0.003686  0.02072  -0.02086  -0.02742  0.49  0.2607
6.254e+09  -0.01988  0.7973  -0.008401  0.01306  0.04912  -0.001916  0.5988  0.03901
6.255e+09  0.2325  0.7723  -0.002001  -0.0003344  -0.01206  -0.002333  0.5714  -0.227
6.256e+09  0.5058  0.5974  0.02357  0.03355  -0.003636  0.01586  0.4806  -0.4323
6.258e+09  0.6983  0.4226  -0.01037  -0.01363  0.002679  -0.03769  0.2861  -0.6121
6.259e+09  0.837  0.1363  0.002212  -0.002516  0.02393  -0.0562  0.06238  -0.6929
6.26e+09  0.778  -0.05832  -0.0353  0.01986  -0.03904  -0.01363  -0.214  -0.6217
6.261e+09  0.7552  -0.3546  0.02362  0.005276  0.03875  -0.05464  -0.4597  -0.5207
6.262e+09  0.547  -0.5443  0.00615  0.005731  0.0469  0.04572  -0.637  -0.3613
6.264e+09  0.3527  -0.6945  -0.006523  0.005112  0.05109  -0.02555  -0.7076  -0.1295
6.265e+09  0.02346  -0.8374  0.002763  -0.00994  0.02105  0.01241  -0.7142  0.1773
6.266e+09  -0.2088  -0.7406  0.006537  -0.0326  -0.008661  -0.04097  -0.5939  0.4285
6.268e+09  -0.4756  -0.5978  -0.009103  0.009791  -0.007899  0.01396  -0.4022  0.5779
6.269e+09  -0.6517  -0.4584  -0.02689  0.005027  -0.01238  -0.006477  -0.2248  0.6806
6.27e+09  -0.7878  -0.174  -0.0133  0.01084  0.04468  0.01033  0.06414  0.7742
6.271e+09  -0.785  0.1266  -0.01886  -0.001114  0.00129  0.01836  0.2932  0.6448
6.272e+09  -0.6624  0.3681  -0.01485  -0.002294  0.02489  -0.0142  0.4947  0.5034
6.274e+09  -0.4944  0.5778  -0.004442  -0.007234  0.01284  0.07242  0.6897  0.2835
6.275e+09  -0.3263  0.7954  -0.02413  -0.02184  0.04445  -0.0435  0.7495  0.02942
6.276e+09  -0.006782  0.7774  -0.002731  -0.01815  -0.03302  0.03808  0.7315  -0.2146
6.278e+09  0.2659  0.7763  -0.01541  0.02233  0.02863  0.01878  0.6085  -0.4339
6.279e+09  0.4379  0.6123  -0.007841  -0.02307  -0.01471  0.001609  0.4253  -0.6526
6.28e+09  0.6528  0.4511  0.007785  -0.001606  0.04911  0.01296  0.184  -0.7562
6.281e+09  0.7865  0.09358  -0.01408  -0.01952  -0.01503  0.02197  -0.1058  -0.74
6.282e+09  0.8311  -0.1004  0.006433  -0.008062  -0.06586  0.03619  -0.3866  -0.6968
6.284e+09  0.6737  -0.3719  0.01737  -0.02204  0.01489  0.008711  -0.5873  -0.529
6.285e+09  0.5528  -0.6137  -0.001201  -0.002675  0.01275  0.05397  -0.7129  -0.2751
6.286e+09  0.3024  -0.7118  0.01158  -0.0009331  -0.002976  0.007343  -0.798  -0.0213
6.288e+09  -0.0423  -0.8148  0.03534  0.01306  0.02277  -0.008657  -0.7405  0.2479
6.289e+09  -0.3129  -0.762  0.01874  0.001329  0.04356  -0.022  -0.646  0.4963
6.29e+09  -0.4847  -0.6066  0.0003705  -0.03445  0.004766  0.02373  -0.4207  0.6982
6.291e+09  -0.7235  -0.3887  0.02696  0.01316  0.05175  -0.04479  -0.1607  0.7844
6.292e+09  -0.7458  -0.1393  -0.0254  -0.00909  0.02708  -0.01773  0.112  0.7577
6.294e+09  -0.8092  0.1499  0.02427  0.01184  0.02404  0.02568  0.3856  0.6978
6.295e+09  -0.6827  0.4311  0.002854  0.002006  -0.02347  -0.04885  0.6175  0.5069
6.296e+09  -0.4749  0.5869  -0.02338  0.002793  -0.009077  -0.01088  0.7867  0.2752
6.298e+09  -0.2692  0.7548  -0.001438  0.003091  0.01229  -0.02307  0.8322  0.02449
6.299e+09  0.05808  0.7892  0.0004823  -0.01698  0.01889  -0.0271  0.7807  -0.2885
6.3e+09  0.2945  0.7648  0.004119  0.01929  0.02997  -0.02186  0.6601  -0.5369
6.301e+09  0.5798  0.6274  -0.01506  -0.01036  0.02851  0.004063  0.4033  -0.7108
6.302e+09  0.7238  0.3513  -0.007496  -0.00315  -0.03621  -0.03141  0.1735  -0.8243
6.304e+09  0.7252  0.0868  -0.006663  -0.002302  -0.004187  0.004873  -0.1352  -0.8017
6.305e+09  0.785  -0.2278  0.02464  0.0184  -0.02971  -0.007604  -0.4032  -0.7344
6.306e+09  0.6659  -0.4104  0.01404  -0.005929  0.001974  -0.0008469  -0.665  -0.5459
6.308e+09  0.4588  -0.6417  -0.01348  -0.03541  -0.06627  -0.0002316  -0.8012  -0.3171
6.309e+09  0.3272  -0.7467  0.01561  -0.006092  0.03647  -0.004525  -0.8894  0.006898
6.31e+09  -0.0543  -0.8229  -0.0009833  -0.01143  -0.01077  -0.04144  -0.7987  0.2697
6.311e+09  -0.3088  -0.7233  -0.002272  0.01835  -0.01845  -0.04084  -0.6687  0.5566
6.312e+09  -0.528  -0.5761  -0.01848  0.009637  0.006837  -0.01061  -0.4596  0.7419
6.314e+09  -0.7232  -0.3149  -0.01983  0.03536  0.04861  -0.01291  -0.1624  0.8483
6.315e+09  -0.7718  -0.0758  0.03232  0.01963  -0.0431  -0.0005206  0.1094  0.8948
6.316e+09  -0.7584  0.2272  -0.02623  -0.03585  0.01057  -0.003442  0.4224  0.7515
6.318e+09  -0.6614  0.3944  -0.01007  0.002408  -0.007548  0.03391  0.6726  0.5642
6.319e+09  -0.4212  0.6634  -0.00809  0.004982  0.02894  0.01876  0.8504  0.3297
6.32e+09  -0.2281  0.7728  -0.001969  -0.007162  0.01001  0.007522  0.8891  0.003518
6.321e+09  0.09663  0.82  -0.01223  0.008495  -0.005904  -0.0588  0.8446  -0.2771
6.322e+09  0.3178  0.6962  0.01409  0.01318  0.02736  0.03266  0.6969  -0.5757
6.324e+09  0.6279  0.5539  -0.01645  0.0004738  -0.01334  0.0347  0.4503  -0.7753
6.325e+09  0.6834  0.3579  0.0262  0.02049  0.003266  -0.006265  0.2047  -0.8604
6.326e+09  0.8372  0.04976  0.004379  -0.03706  0.02219  0.02087  -0.1128  -0.8744
6.328e+09  0.8014  -0.2485  -0.02296  -0.0005196  -0.00502  0.02673  -0.4192  -0.7838
6.329e+09  0.676  -0.5023  0.04004  -0.001648  -0.01515  0.009632  -0.6958  -0.638
6.33e+09  0.4203  -0.6661  0.001193  -0.0004402  -0.03423  0.01866  -0.8329  -0.3143
6.331e+09  0.1509  -0.789  0.005953  -0.02393  0.01566  0.003644  -0.8796  -0.004646
6.332e+09  -0.1272  -0.8067  0.01989  -0.0112  0.0153  0.01996  -0.8659  0.2386
6.334e+09  -0.4042  -0.6902  -0.01302  -0.0163  -0.0128  -0.02485  -0.7375  0.5473
6.335e+09  -0.6288  -0.5598  -0.01651  -0.01406  0.0148  -0.006848  -0.4961  0.774
6.336e+09  -0.7084  -0.2756  0.01192  0.002818  0.0007592  -0.01248  -0.1903  0.8827
6.338e+09  -0.8073  -0.003567  -0.002862  0.03304  -0.0171  -0.007409  0.1575  0.8995
6.339e+09  -0.7811  0.3074  -0.01662  0.02114  -0.05591  -0.05696  0.4209  0.8158
6.34e+09  -0.6279  0.5771  -0.01154  -0.01548  -0.01204  0.003976  0.6351  0.6245
6.341e+09  -0.386  0.7189  0.006139  0.01739  0.02517  -0.001204  0.8323  0.355
6.342e+09  -0.1265  0.8511  -0.02532  0.004708  -0.0519  0.0009871  0.9275  0.06955
6.344e+09  0.2258  0.8051  -0.0139  -0.01005  -0.006175  0.01063  0.902  -0.2607
6.345e+09  0.469  0.7434  -0.01705  -0.0003114  -0.009357  0.01836  0.7455  -0.592
6.346e+09  0.7175  0.5183  0.0155  0.01641  5.41e-05  0.003259  0.5  -0.8103
6.348e+09  0.8362  0.2441  0.006917  0.01779  -0.008646  0.03395  0.221  -0.9267
6.349e+09  0.8454  -0.08928  0.01652  0.009058  -0.008129  0.01551  -0.09062  -0.9156
6.35e+09  0.7629  -0.3682  0.01657  -0.01508  -0.01211  0.01259  -0.4186  -0.8548
6.351e+09  0.5791  -0.6058  0.005939  -0.03031  -0.02158  0.01607  -0.6471  -0.6325
6.352e+09  0.3323  -0.7997  0.02515  -0.01615  -0.009281  0.04276  -0.8554  -0.3737
6.354e+09  0.03634  -0.8275  0.007598  -0.01986  -0.02494  0.008959  -0.9417  -0.03118
6.355e+09  -0.21  -0.8236  -0.01722  0.0101  0.03069  0.009919  -0.9069  0.252
6.356e+09  -0.5457  -0.6743  -0.0203  -0.01443  0.0353  0.03197  -0.7693  0.5457
6.358e+09  -0.7181  -0.4481  -0.003479  -0.03619  -0.03673  0.003992  -0.5447  0.7854
6.359e+09  -0.8587  -0.2051  0.006601  0.02182  -0.0234  0.0001093  -0.2063  0.9226
6.36e+09  -0.8603  0.1388  -0.01683  0.0009016  -0.03002  0.009674  0.121  0.9502
6.361e+09  -0.7366  0.4476  0.008563  -0.02964  0.00929  0.0142  0.3996  0.849
6.362e+09  -0.5207  0.6659  0.002071  -0.002796  0.01585  -0.002445  0.657  0.656
6.364e+09  -0.3199  0.8539  -0.0105  -0.002469  -0.01239  -0.01943  0.8744  0.3999
6.365e+09  0.01758  0.8395  0.02181  0.01243  -0.001584  -0.02106  0.9349  0.06349
6.366e+09  0.2983  0.7648  0.01228  -0.0007543  -0.01342  0.03431  0.9406  -0.2535
6.368e+09  0.5344  0.6281  0.04549  0.009026  0.01595  -0.01005  0.7839  -0.5798
6.369e+09  0.7539  0.4195  0.02643  -0.002973  -0.008629  -0.01717  0.5442  -0.7841
6.37e+09  0.8346  0.1387  -0.0006209  -0.0009935  0.007789  -0.01928  0.2547  -0.851
6.371e+09  0.8209  -0.1924  0.0363  0.004908  0.003719  0.04119  -0.09659  -0.9287
6.372e+09  0.707  -0.4817  0.03647  -0.02507  -0.01386  -0.01861  -0.4355  -0.8669
6.374e+09  0.5501  -0.69  0.003737  0.03635  0.01775  -0.01016  -0.6261  -0.7078
6.375e+09  0.2324  -0.8538  -0.02468  0.03203  -0.01507  -0.007781  -0.8623  -0.3978
6.376e+09  -0.06007  -0.8331  -0.01452  -0.00332  -0.0592  -0.01673  -0.9226  -0.08799
6.378e+09  -0.3917  -0.8023  -0.003721  -0.002562  -0.01235  -0.01357  -0.9599  0.1849
6.379e+09  -0.6643  -0.6574  0.02004  -0.007631  0.001972  0.03077  -0.7371  0.5027
6.38e+09  -0.7953  -0.3131  0.01833  0.02296  -0.02137  0.021  -0.5742  0.7641
6.381e+09  -0.8535  -0.01918  0.006895  0.009054  -0.02542  0.006311  -0.2873  0.9042
6.382e+09  -0.8161  0.2708  0.01908  -0.001142  -0.01843  0.0175  0.0588  0.9336
6.384e+09  -0.7105  0.5192  -0.003675  0.01332  -0.04973  0.0005031  0.3638  0.9141
6.385e+09  -0.437  0.7219  -0.005028  0.01081  -0.01531  0.005089  0.6529  0.6859
6.386e+09  -0.1854  0.8252  0.01626  0.001346  0.001077  -0.0633  0.7957  0.4272
6.388e+09  0.1033  0.9088  -0.01778  -0.006354  0.05104  0.01783  0.9344  0.07937
6.389e+09  0.3625  0.7552  -0.01572  0.007887  0.005117  -0.01683  0.9364  -0.1838
6.39e+09  0.6562  0.557  0.03724  0.02902  0.01631  -0.04131  0.8094  -0.5077
6.391e+09  0.8124  0.3099  -0.00586  -0.02556  0.01757  0.02931  0.5644  -0.7098
6.392e+09  0.8527  0.02848  -0.007434  -0.02119  -0.01504  0.0009201  0.2632  -0.8587
6.394e+09  0.7666  -0.3059  -0.002171  0.004907  0.02343  0.01077  -0.07174  -0.9103
6.395e+09  0.6495  -0.5169  -0.03612  0.02807  0.00167  0.03677  -0.3419  -0.8249
6.396e+09  0.4315  -0.7365  0.02066  -0.04244  0.07375  -0.03386  -0.6197  -0.6449
6.398e+09  0.1342  -0.851  -0.01871  0.001466  -0.008024  0.007976  -0.8168  -0.4603
6.399e+09  -0.1735  -0.8257  -0.01992  0.03834  -0.01345  -0.003555  -0.9417  -0.09788
6.4e+09  -0.4897  -0.7773  -0.008333  0.02285  0.009802  0.01785  -0.9357  0.153
6.401e+09  -0.7179  -0.5313  0.02259  0.02716  0.01195  -0.02401  -0.8454  0.4269
6.402e+09  -0.7996  -0.2529  -0.02483  0.01027  -0.02085  0.02551  -0.5718  0.6891
6.404e+09  -0.84  0.03291  0.01473  -0.05242  0.03666  -0.001117  -0.294  0.9309
6.405e+09  -0.818  0.3245  -0.02205  -0.001802  0.03462  0.03245  -0.006327  0.8978
6.406e+09  -0.6152  0.5731  0.02472  -0.01005  0.03028  -0.03466  0.2856  0.8331
6.408e+09  -0.3784  0.747  0.002867  0.04236  -0.03046  -0.0119  0.5896  0.6984
6.409e+09  -0.05516  0.8402  -0.01844  -0.06181  0.002435  0.01448  0.7554  0.4889
6.41e+09  0.2078  0.7828  -0.05817  -0.01957  0.04441  -0.01148  0.8782  0.1738
6.411e+09  0.4791  0.7079  0.04522  0.03748  0.005112  -0.02217  0.8983  -0.1462
6.412e+09  0.7394  0.5001  0.003202  -0.05255  0.001886  0.01033  0.8214  -0.4672
6.414e+09  0.8087  0.1817  0.01634  -0.01638  0.008238  0.02688  0.6251  -0.7082
6.415e+09  0.8632  -0.09054  -0.008527  -0.01509  -0.004783  -0.009405  0.3259  -0.8641
6.416e+09  0.7688  -0.3729  -0.01696  -0.002064  0.02926  0.06239  0.068  -0.9128
6.418e+09  0.5837  -0.6081  -0.01539  -0.01696  -0.02489  0.0186  -0.2755  -0.826
6.419e+09  0.3532  -0.7724  -0.02824  -0.00166  0.0229  0.0127  -0.5634  -0.7235
6.42e+09  0.05689  -0.8455  -0.03006  -0.0157  -0.01496  -0.0161  -0.7678  -0.4568
6.421e+09  -0.2881  -0.7621  -0.02248  0.02771  0.003498  -0.02355  -0.8626  -0.2114
6.422e+09  -0.4977  -0.6884  -0.02327  0.03806  0.02955  -0.01247  -0.9069  0.05861
6.424e+09  -0.6749  -0.4348  0.00752  -0.007423  -0.03668  -0.02474  -0.7897  0.3766
6.425e+09  -0.7888  -0.2076  -0.01508  -0.01755  0.05864  0.02442  -0.6287  0.6338
6.426e+09  -0.8834  0.0962  0.006068  -0.03347  0.02681  -0.003018  -0.3766  0.7881
6.428e+09  -0.7718  0.3864  -0.02394  0.02553  -0.006704  0.02198  -0.0149  0.8713
6.429e+09  -0.5307  0.6147  0.01476  0.01674  0.06921  0.02849  0.2619  0.8689
6.43e+09  -0.3268  0.8217  0.01658  0.0507  -0.0001058  0.01632  0.5167  0.6858
6.431e+09  -0.04283  0.8399  0.04044  -0.03352  0.03553  0.01788  0.7539  0.5039
6.432e+09  0.2751  0.8073  -0.008742  0.02063  0.05176  0.03999  0.7851  0.1997
6.434e+09  0.5526  0.6622  -0.03825  -0.02685  0.002761  0.006973  0.8211  -0.08677
6.435e+09  0.6725  0.388  -0.02519  -0.02327  0.002454  -0.04107  0.7765  -0.3535
6.436e+09  0.8429  0.2318  -0.008922  0.007499  -0.0478  0.00814  0.6076  -0.5894
6.438e+09  0.8414  -0.1555  -0.01222  0.01435  0.04104  -0.006894  0.3052  -0.7887
6.439e+09  0.7317  -0.4099  0.004397  0.04509  0.0203  0.05376  0.08608  -0.8863
6.44e+09  0.5478  -0.6383  0.02066  -0.01935  0.04009  -0.004484  -0.273  -0.8992
6.441e+09  0.2791  -0.7828  0.007666  -0.009804  0.01473  -0.06052  -0.4509  -0.6638
6.442e+09  -0.03701  -0.825  0.04376  -0.02728  0.02012  0.02561  -0.6746  -0.4562
6.444e+09  -0.3203  -0.8184  0.01095  0.01169  0.0002354  -0.001566  -0.7957  -0.2232
6.445e+09  -0.5216  -0.6199  0.002787  0.0242  -0.0389  0.005123  -0.8919  0.05018
6.446e+09  -0.7628  -0.3888  0.01136  0.02764  0.02291  -0.01151  -0.7673  0.3498
6.448e+09  -0.8374  -0.1372  -0.01034  0.03104  -0.0002489  -0.004757  -0.6163  0.5791
6.449e+09  -0.793  0.2033  0.002404  0.01087  0.0004831  0.01702  -0.3682  0.7779
6.45e+09  -0.7322  0.4025  -0.0556  0.005753  0.005557  0.01731  -0.059  0.8551
6.451e+09  -0.5657  0.6622  0.01778  0.01703  0.03079  0.001894  0.2301  0.8179
6.452e+09  -0.2864  0.8224  -0.01166  -0.01426  -0.01276  0.04609  0.4779  0.7003
6.454e+09  0.01923  0.8259  0.02768  -0.01151  0.0261  -0.03084  0.6718  0.5091
6.455e+09  0.3164  0.7678  0.005588  -0.03595  -0.03216  0.02968  0.7892  0.1735
6.456e+09  0.5674  0.6042  -0.03495  -0.00137  0.01144  -0.001832  0.8149  -0.08736
6.458e+09  0.7196  0.4112  -0.02151  -0.02582  -0.03406  0.01902  0.7452  -0.3804
6.459e+09  0.8524  0.1735  0.0008276  0.01097  0.00187  0.01489  0.5744  -0.531
6.46e+09  0.8358  -0.16  0.0127  -0.0158  -0.008827  0.003706  0.3172  -0.7618
6.461e+09  0.7319  -0.4562  0.03738  -0.02126  -0.03217  0.002858  0.04283  -0.7863
6.462e+09  0.5621  -0.6786  0.02611  -0.02607  0.02055  0.05236  -0.2471  -0.7834
6.464e+09  0.2806  -0.7964  -0.02266  0.003022  -0.01903  0.05727  -0.4319  -0.6448
6.465e+09  -0.02398  -0.8389  -0.02085  0.01941  0.009856  -0.0106  -0.7024  -0.4501
6.466e+09  -0.3096  -0.7794  0.0309  -0.04563  -0.02917  0.05518  -0.7455  -0.1741
6.468e+09  -0.565  -0.6404  0.001755  0.01656  -0.01942  0.06404  -0.7633  0.07008
6.469e+09  -0.7496  -0.3623  -0.01934  0.001654  -0.005108  0.03882  -0.7343  0.3349
6.47e+09  -0.8815  -0.1584  0.02552  0.03896  0.01181  -0.0108  -0.5779  0.5832
6.471e+09  -0.8279  0.179  0.005597  0.01088  0.002274  -0.03257  -0.3334  0.7638
6.472e+09  -0.6656  0.4426  -0.006845  0.01331  0.0322  0.03629  -0.04518  0.7619
6.474e+09  -0.4505  0.6614  -0.01941  0.01236  0.0481  -0.02575  0.2036  0.7606
6.475e+09  -0.2209  0.7692  -0.05218  -0.01967  0.005129  0.04882  0.4301  0.5829
6.476e+09  0.03094  0.8587  -0.0217  -0.003195  0.04898  -0.0301  0.659  0.454
6.478e+09  0.3261  0.776  -0.001182  -0.04051  -0.02741  -0.02265  0.7465  0.218
6.479e+09  0.6059  0.6142  -0.01033  -0.05043  -0.05261  0.0288  0.774  -0.05739
6.48e+09  0.7845  0.3391  0.04324  0.01273  0.02717  -0.01651  0.6894  -0.3223
6.481e+09  0.8028  0.1087  0.01104  0.005396  0.0134  -0.02652  0.5565  -0.5614
6.482e+09  0.8361  -0.1265  -0.002442  -0.006976  0.0197  -0.01667  0.2831  -0.6947
6.484e+09  0.6555  -0.473  0.01147  0.01555  -0.02002  0.0111  0.05637  -0.789
6.485e+09  0.5263  -0.6702  0.04124  -0.0006807  0.03858  -0.01044  -0.18  -0.7276
6.486e+09  0.2555  -0.7572  0.00942  0.02521  0.02767  -0.0244  -0.4682  -0.6455
6.488e+09  0.2769  -1.504  0.002592  -0.00373  0.1433  -0.7582  -0.6366  -0.445
6.489e+09  -0.3064  -0.811  0.01433  0.01818  0.01274  0.01477  -0.7959  -0.2072
6.49e+09  -0.5972  -0.6493  -0.01426  -0.007466  0.02688  -0.02778  -0.7773  0.09365
6.491e+09  -0.7732  -0.3585  -0.02682  0.03949  -0.005731  0.03891  -0.6654  0.3424
6.492e+09  -0.8147  -0.1119  -0.02953  0.02847  0.01239  -0.01888  -0.5345  0.5728
6.494e+09  -0.7315  0.1476  0.05085  -0.0199  0.1514  0.02315  -0.3116  0.7193
6.495e+09  -0.7074  0.4723  -0.02426  -0.00316  -0.01776  -0.01582  -0.05785  0.7497
6.496e+09  -0.4802  0.6981  -0.01639  0.01198  -0.01404  -0.01299  0.2367  0.7067
6.498e+09  -0.2573  0.8967  -0.01881  -0.004238  -0.02479  -0.03162  0.4728  0.6164
6.499e+09  0.02865  0.8776  0.000524  -0.03022  -0.03339  0.03469  0.6192  0.3813
6.5e+09  0.4003  0.7899  0.03253  -0.02477  -0.02688  -0.03008  0.7379  0.1531
6.501e+09  0.6442  0.5727  0.007953  -0.007145  -0.01351  0.01332  0.7906  -0.1069
6.502e+09  0.7391  0.3467  0.01015  -0.05386  0.01528  -0.008045  0.6716  -0.3781
6.504e+09  0.8581  0.08736  -0.009442  0.03797  0.008582  -0.03028  0.496  -0.5533
6.505e+09  0.8248  -0.224  -0.01434  0.01945  -0.01048  -0.04476  0.2678  -0.753
6.506e+09  0.69  -0.4896  0.007354  0.02454  0.02213  -0.01647  0.09706  -0.7545
6.508e+09  0.523  -0.7579  -0.02339  -0.02493  -0.01226  0.01621  -0.2721  -0.7325
6.509e+09  0.2149  -0.8734  0.01792  0.01456  -0.01066  -0.03364  -0.4552  -0.5931
6.51e+09  -0.08183  -0.855  -0.002025  0.006611  -0.01904  -0.02091  -0.656  -0.3766
6.511e+09  -0.308  -0.7612  -0.04654  0.01852  -0.005468  -0.02141  -0.7448  -0.1431
6.512e+09  -0.6247  -0.6225  -0.005259  -0.006513  0.03374  0.07121  -0.7678  0.152
6.514e+09  -0.7773  -0.3861  0.009435  0.02576  -0.009947  -0.01459  -0.6623  0.3549
6.515e+09  -0.8722  -0.06525  0.04516  0.002657  -0.005247  -0.0005242  -0.4783  0.5695
6.516e+09  -0.8597  0.2774  -0.0001723  0.02651  -0.004418  -0.01222  -0.2769  0.7095
6.518e+09  -0.7441  0.5828  0.01834  0.00779  -0.02969  0.03132  0.01546  0.751
6.519e+09  -0.5042  0.7311  -0.04015  0.01182  -0.008739  -0.03583  0.2615  0.6969
6.52e+09  -0.1887  0.9126  -0.002495  0.01803  -0.06364  0.01435  0.485  0.537
6.521e+09  0.1163  0.8871  0.05746  -0.01854  0.009514  -0.0244  0.6614  0.3387
6.522e+09  0.4486  0.7494  -0.03862  0.004214  0.003604  -0.01185  0.754  0.115
6.524e+09  0.7072  0.5988  0.003119  -0.001478  0.02232  -0.002518  0.6946  -0.2007
6.525e+09  0.8367  0.3412  0.001674  -0.0168  0.0153  0.002887  0.6097  -0.3964
6.526e+09  0.9049  0.004726  -0.008742  0.01415  0.004867  -0.005628  0.4292  -0.5294
6.528e+09  0.8816  -0.3246  0.0371  0.01589  0.009384  0.008286  0.2006  -0.6647
6.529e+09  0.7387  -0.5682  -0.02909  0.01037  -0.02444  0.04182  -0.08266  -0.6931
6.53e+09  0.4793  -0.7885  0.01175  -0.02105  -0.01854  0.02316  -0.269  -0.6087
6.531e+09  0.1665  -0.8929  0.02097  0.01264  -0.02563  -0.007353  -0.4475  -0.4494
6.532e+09  -0.122  -0.9273  0.01419  0.01244  -0.002357  0.009479  -0.5811  -0.2913
6.534e+09  -0.4255  -0.7816  0.03329  0.01329  -0.01511  -0.004837  -0.6086  -0.1044
6.535e+09  -0.7374  -0.5711  0.006158  0.02138  0.01099  -0.005717  -0.5814  0.09844
6.536e+09  -0.9071  -0.3491  -0.01259  0.03789  -0.0003935  0.01493  -0.5706  0.298
6.538e+09  -0.9311  -0.01852  0.009644  0.003322  -0.02993  -0.01083  -0.4539  0.4635
6.539e+09  -0.8109  0.354  0.02842  -0.003722  0.04775  -0.009013  -0.2753  0.6006
6.54e+09  -0.6772  0.6206  -0.02796  0.01917  0.02846  -0.01981  -0.07996  0.6736
6.541e+09  -0.4121  0.8081  -0.02958  0.01876  0.01537  -0.03865  0.1738  0.6463
6.542e+09  -0.0692  0.9282  -0.008949  0.01232  -0.06437  -0.00625  0.4138  0.5572
6.544e+09  0.1693  0.9332  -0.04082  -0.00827  0.05763  0.003741  0.6023  0.359
6.545e+09  0.5666  0.7729  -0.003058  -0.0274  0.001905  -0.01473  0.713  0.1654
6.546e+09  0.7756  0.4965  0.0123  0.01747  0.06071  -0.03044  0.7041  -0.07563
6.548e+09  0.8933  0.2335  0.03424  -0.002539  -0.01898  0.01288  0.6512  -0.3502
6.549e+09  0.9606  -0.07769  0.004548  -0.01669  0.0004921  0.04795  0.4916  -0.5093
6.55e+09  0.8707  -0.4086  -0.008169  -0.0128  0.02327  0.00341  0.2769  -0.6882
