# Hz S RI R 50
6.25e+09  -0.5802  0.6421  -0.01035  -0.001417  -0.03693  0.01185  0.1641  0.4746
6.251e+09  -0.3769  0.7595  0.004102  -0.01385  -0.01066  -0.03741  0.368  0.4119
6.252e+09  -0.05325  0.8143  -0.01173  -0.002163  -0.01029  0.0711  0.512  0.2716
6.254e+09  0.2274  0.791  -0.03468  -0.0003533  -0.02175  0.04287  0.6063  -0.001641
6.255e+09  0.468  0.6957  0.0007749  -0.03051  0.0266  0.0426  0.5974  -0.228
6.256e+09  0.63  0.4755  -0.009275  -0.02702  0.02745  0.03959  0.4944  -0.4692
6.258e+09  0.7648  0.1732  -0.02305  -0.01623  0.02037  0.04889  0.2871  -0.6217
6.259e+09  0.7779  -0.1119  0.008553  0.005931  -0.02402  -0.008073  0.04469  -0.6595
6.26e+09  0.7147  -0.3301  0.009695  0.01461  0.06147  0.005532  -0.2266  -0.6404
6.261e+09  0.5347  -0.5713  0.01021  0.01251  0.001358  0.023  -0.4193  -0.5529
6.262e+09  0.3455  -0.7216  -0.02686  0.01067  -0.04273  0.01815  -0.6365  -0.3195
6.264e+09  0.02134  -0.8101  0.01409  -0.007872  0.004375  0.01464  -0.6895  -0.1278
6.265e+09  -0.1807  -0.8209  -0.006431  -0.01808  0.00417  0.03389  -0.6943  0.1337
6.266e+09  -0.4639  -0.6715  -0.03208  -0.008046  -0.0676  -0.03915  -0.6599  0.3829
6.268e+09  -0.6345  -0.4632  0.002468  0.01541  0.08578  -0.01156  -0.4127  0.5822
6.269e+09  -0.6947  -0.172  0.0216  -0.003968  -0.02801  0.01237  -0.1628  0.7427
6.27e+09  -0.8017  0.04904  0.01943  0.02569  -0.03472  -0.01036  0.034  0.7559
6.271e+09  -0.7427  0.3094  -0.006723  0.01451  0.02144  0.001066  0.3336  0.6722
6.272e+09  -0.5697  0.5723  -0.006925  0.01998  -0.03264  -0.03864  0.5264  0.5207
6.274e+09  -0.328  0.7383  -0.01489  -0.00396  0.04585  0.006035  0.6882  0.2785
6.275e+09  -0.108  0.7875  -0.01275  0.0329  -0.01526  -0.01876  0.7736  0.03385
6.276e+09  0.2061  0.7827  0.0281  -0.0109  0.02448  -0.003596  0.7358  -0.2058
6.278e+09  0.4533  0.5917  0.008044  0.005923  0.02035  -0.01791  0.6278  -0.4879
6.279e+09  0.6621  0.4648  -0.02124  -0.01148  -0.01011  0.02106  0.4515  -0.6192
6.28e+09  0.7594  0.1735  -0.01351  0.01019  -0.01839  -0.006084  0.1306  -0.7692
6.281e+09  0.804  -0.1284  0.009442  0.003691  -0.04909  -0.02079  -0.08673  -0.7572
6.282e+09  0.6916  -0.3272  0.02695  0.02711  0.001355  -0.01974  -0.3506  -0.6776
6.284e+09  0.5817  -0.577  -0.006116  -0.03296  0.03101  -0.01706  -0.6006  -0.5255
6.285e+09  0.316  -0.7552  -0.00207  0.006957  0.0006587  -0.03243  -0.7495  -0.3045
6.286e+09  0.05081  -0.8191  0.002689  0.02742  -0.03886  -0.02822  -0.8084  0.009446
6.288e+09  -0.234  -0.7795  -0.01259  0.01553  0.04121  0.05577  -0.7537  0.2527
6.289e+09  -0.4804  -0.599  0.005277  0.00597  -0.03998  0.02189  -0.6181  0.5145
6.29e+09  -0.7379  -0.3861  -0.02012  -0.01279  0.01243  0.03464  -0.4164  0.6658
6.291e+09  -0.7838  -0.1743  -0.03382  -0.005026  0.00625  -0.007783  -0.1314  0.774
6.292e+09  -0.7685  0.06213  -0.01021  -0.02621  -0.03858  -0.04456  0.1241  0.8288
6.294e+09  -0.6896  0.3602  -0.007394  -0.01568  0.0525  0.01124  0.3543  0.6826
6.295e+09  -0.5585  0.608  0.01664  -0.01666  -0.02136  -0.08268  0.6199  0.5207
6.296e+09  -0.2617  0.7199  -0.02214  -0.004135  0.01684  -0.05611  0.7651  0.3319
6.298e+09  -0.001672  0.8034  0.0122  -0.0003486  0.02526  -0.005669  0.813  6.48e-05
6.299e+09  0.2725  0.8231  -0.01905  -0.003486  -0.000194  -0.008175  0.7501  -0.2652
6.3e+09  0.4547  0.6169  0.0004776  0.001104  -0.02759  -0.01058  0.638  -0.5445
6.301e+09  0.7095  0.426  -0.006801  0.007836  0.04401  -0.03104  0.4305  -0.6951
6.302e+09  0.7621  0.1573  0.007651  -0.0001078  0.01497  -0.01726  0.1485  -0.8269
6.304e+09  0.8069  -0.1157  -0.005475  0.01645  0.01475  0.01568  -0.148  -0.838
6.305e+09  0.6915  -0.4118  -0.03124  -0.01344  -0.0008672  -0.02932  -0.4526  -0.7105
6.306e+09  0.5559  -0.6435  -0.02338  -0.005662  -0.01154  0.02688  -0.6494  -0.5578
6.308e+09  0.283  -0.79  -0.0128  -0.0165  -0.004007  0.01775  -0.7777  -0.2852
6.309e+09  -0.01017  -0.7915  -0.0021  -0.01464  0.01148  0.001657  -0.8556  -0.02247
6.31e+09  -0.3259  -0.7543  -0.0174  -0.01056  0.004091  0.05496  -0.8117  0.3116
6.311e+09  -0.5099  -0.6301  -0.0116  0.01495  -0.01271  0.02016  -0.6749  0.5359
6.312e+09  -0.7625  -0.3853  -0.006529  0.008185  0.02177  0.002941  -0.4679  0.7356
6.314e+09  -0.7719  -0.1678  -0.01564  -0.02018  0.01768  0.02654  -0.1556  0.8794
6.315e+09  -0.8032  0.1574  -0.03593  -0.02727  -0.02223  -0.03084  0.1607  0.8342
6.316e+09  -0.6738  0.397  -0.009619  -0.01094  0.03091  -0.004479  0.4185  0.7657
6.318e+09  -0.4992  0.6589  -0.008266  0.00293  -0.03535  0.02048  0.6751  0.5724
6.319e+09  -0.1787  0.7351  0.01187  -0.005341  0.03826  0.006054  0.8227  0.3137
6.32e+09  0.03935  0.8287  -0.00855  -0.01485  0.006346  0.02056  0.8997  0.01471
6.321e+09  0.3266  0.7893  -0.02074  -0.01441  -0.04329  0.009534  0.8185  -0.2706
6.322e+09  0.5543  0.5926  -0.01557  -0.01137  -0.005511  0.03204  0.6886  -0.5488
6.324e+09  0.6808  0.3509  -0.008279  0.02798  0.04409  -0.004653  0.4789  -0.7286
6.325e+09  0.8081  0.1042  0.0005322  0.01442  -0.03059  0.005092  0.1662  -0.9108
6.326e+09  0.7875  -0.2735  -0.02019  0.01147  0.004929  -0.01007  -0.15  -0.8633
6.328e+09  0.6663  -0.4742  0.01146  0.04399  0.002557  -0.03145  -0.4047  -0.7894
6.329e+09  0.4765  -0.6998  0.0224  0.004362  0.002007  -0.008442  -0.6769  -0.5862
6.33e+09  0.2163  -0.7795  -0.001877  -0.03056  0.02151  -0.00711  -0.8397  -0.3422
6.331e+09  -0.07156  -0.858  -0.01283  0.02401  0.04025  -0.0171  -0.8688  -0.02308
6.332e+09  -0.3868  -0.7513  -0.0004134  0.0008579  -0.01719  -0.03179  -0.8735  0.3031
6.334e+09  -0.5812  -0.5951  0.01427  -0.01713  0.0009384  -4.451e-05  -0.7106  0.5394
6.335e+09  -0.7982  -0.3736  -0.01497  0.01747  -0.03108  -0.02061  -0.479  0.7942
6.336e+09  -0.8083  -0.04271  0.01351  -0.01621  -0.04126  -0.02159  -0.1745  0.8816
6.338e+09  -0.7897  0.2217  -0.01474  -0.03505  -0.0009722  -0.0202  0.162  0.8973
6.339e+09  -0.6198  0.5283  -0.01771  -0.01317  0.01779  0.01876  0.4194  0.8227
6.34e+09  -0.4155  0.7579  -0.02102  -0.008414  0.04811  0.01928  0.6456  0.6155
6.341e+09  -0.1796  0.7965  0.002408  -0.03059  -0.04302  -0.0171  0.8443  0.3702
6.342e+09  0.1273  0.8677  -0.01954  -0.0007922  0.01271  0.02614  0.9042  0.07044
6.344e+09  0.3836  0.7428  -0.001308  0.006015  0.03348  0.04638  0.8592  -0.2699
6.345e+09  0.6818  0.5537  -0.001127  0.0005162  0.003914  -0.005927  0.7406  -0.5972
6.346e+09  0.8352  0.2302  -0.01519  0.009484  -0.02933  0.008835  0.5114  -0.7783
6.348e+09  0.8629  -0.03144  0.001424  -0.05473  -0.03205  0.002658  0.2146  -0.8552
6.349e+09  0.7919  -0.2991  -0.008551  0.03952  -0.001758  0.05783  -0.1215  -0.9029
6.35e+09  0.5915  -0.5651  -0.001677  -0.03142  -0.01424  0.0004169  -0.4143  -0.8215
6.351e+09  0.3391  -0.7949  0.00432  -0.008988  0.01921  -0.04401  -0.723  -0.616
6.352e+09  0.08702  -0.8231  0.04947  0.0207  -0.04433  -0.02179  -0.8872  -0.3507
6.354e+09  -0.2068  -0.7945  0.00718  0.009567  -0.01316  0.0136  -0.9716  -0.07963
6.355e+09  -0.4486  -0.7097  -0.00555  0.009621  -0.01093  -0.05484  -0.9062  0.2866
6.356e+09  -0.6737  -0.4538  0.01898  0.02231  -0.0212  -0.02269  -0.7813  0.5627
6.358e+09  -0.8316  -0.2173  -0.02061  0.01355  0.000223  -0.0001025  -0.52  0.7809
6.359e+09  -0.8578  0.1287  -0.02577  0.007471  0.003004  -0.02588  -0.2658  0.9184
6.36e+09  -0.7651  0.3466  0.005696  0.01067  -0.02382  -0.0376  0.09427  0.9453
6.361e+09  -0.5989  0.633  0.02871  -0.007068  -0.01071  -0.01864  0.4355  0.8566
6.362e+09  -0.3541  0.8066  0.01915  0.01455  -0.01769  -0.01952  0.6552  0.6585
6.364e+09  -0.03038  0.8857  0.02917  -0.005757  -0.05677  0.01568  0.8677  0.3768
6.365e+09  0.2438  0.8177  0.02175  -0.01032  0.05255  0.03233  0.9121  0.04346
6.366e+09  0.5378  0.6474  0.05109  -0.02331  -0.01053  0.0109  0.9302  -0.2507
6.368e+09  0.6857  0.4422  0.006134  -0.001903  0.008364  0.01165  0.8148  -0.5627
6.369e+09  0.8602  0.1765  0.02389  -0.01643  0.01314  -0.0083  0.5351  -0.8065
6.37e+09  0.8085  -0.1392  -0.01486  -0.01635  0.02618  -0.02206  0.3173  -0.9207
6.371e+09  0.7328  -0.4514  -0.02571  -0.01797  -0.009461  0.01187  -0.05993  -0.8945
6.372e+09  0.5779  -0.639  -0.004774  0.02524  -0.006941  0.01674  -0.372  -0.8334
6.374e+09  0.2863  -0.84  -0.02368  0.04302  0.02437  -0.01026  -0.6271  -0.6711
6.375e+09  -0.06444  -0.8414  -0.007674  -0.004621  0.02749  0.003451  -0.8529  -0.3901
6.376e+09  -0.2666  -0.8178  -0.004168  0.007149  0.01293  0.03483  -0.9566  -0.1237
6.378e+09  -0.5238  -0.6468  0.01262  -0.01055  0.05307  0.03006  -0.9274  0.2586
6.379e+09  -0.7619  -0.4609  -0.04308  0.04268  -0.02561  -0.05374  -0.7587  0.5212
6.38e+09  -0.8589  -0.1283  0.01319  0.02295  -0.01611  -0.03101  -0.521  0.7688
6.381e+09  -0.8325  0.1545  0.01173  -0.04687  0.008513  0.01084  -0.2687  0.8784
6.382e+09  -0.7254  0.4231  0.03567  -0.01001  -0.001862  -0.03668  0.06343  0.9614
6.384e+09  -0.4849  0.7007  -0.01663  -0.02679  0.03361  -0.03943  0.3474  0.9062
6.385e+09  -0.2806  0.8013  -0.02331  -0.04386  0.06034  0.02154  0.6287  0.659
6.386e+09  0.07155  0.8713  0.005553  -0.004139  0.006604  -0.001842  0.8611  0.4047
6.388e+09  0.3446  0.8022  0.001636  0.03189  -0.0898  0.02258  0.9832  0.1067
6.389e+09  0.5945  0.6436  0.02283  -0.02455  -0.009982  -0.002054  0.9205  -0.2218
6.39e+09  0.7574  0.4064  -0.00458  0.02873  -0.002445  0.01261  0.7754  -0.4677
6.391e+09  0.8378  0.1032  -0.009153  -0.001218  -0.01965  0.06193  0.5792  -0.7416
6.392e+09  0.8645  -0.1687  -0.01054  -0.02159  -0.01383  -0.03353  0.303  -0.8914
6.394e+09  0.6692  -0.4604  -0.005027  0.03633  -0.04128  -0.009772  -0.06364  -0.9383
6.395e+09  0.4838  -0.7386  -0.005537  -0.00274  -0.003606  -0.03369  -0.3364  -0.8362
6.396e+09  0.1903  -0.8311  -0.005806  -0.03256  0.02272  -0.01544  -0.5629  -0.6348
6.398e+09  -0.113  -0.8058  0.006688  0.006599  0.02037  -0.01436  -0.7977  -0.4464
6.399e+09  -0.4039  -0.7683  -0.01302  0.0008645  -0.004705  0.08133  -0.9067  -0.1095
6.4e+09  -0.6542  -0.5561  0.02873  0.0236  -0.01424  -0.03702  -0.9049  0.1489
6.401e+09  -0.7527  -0.3165  -0.005074  -0.04373  -0.04886  -0.01568  -0.7737  0.4693
6.402e+09  -0.8502  -0.03896  0.04336  -0.02346  -0.03122  0.02457  -0.59  0.6833
6.404e+09  -0.8083  0.2546  0.0157  0.0219  -0.008898  -0.05517  -0.311  0.8624
6.405e+09  -0.6342  0.5083  -0.01287  0.04428  0.007705  -0.01771  0.009989  0.9386
6.406e+09  -0.4092  0.725  -0.06257  -0.02379  0.002338  0.01936  0.2894  0.8643
6.408e+09  -0.1774  0.827  0.005735  -0.01971  0.02454  -0.04776  0.5884  0.7053
6.409e+09  0.1268  0.8454  -0.003408  -0.007821  0.01728  0.001022  0.8405  0.4837
6.41e+09  0.3851  0.7371  -0.00617  -0.01141  -0.00586  -0.02841  0.9114  0.1573
6.411e+09  0.6399  0.5394  0.02166  -0.0104  0.02879  0.002797  0.9165  -0.1315
6.412e+09  0.8171  0.2913  -0.05231  -0.002432  -0.001728  -0.01352  0.777  -0.4388
6.414e+09  0.8336  -0.002996  -0.04098  -0.01039  0.04507  -0.01542  0.5839  -0.6428
6.415e+09  0.79  -0.2453  -0.03638  0.01131  0.02893  -0.01843  0.3483  -0.8335
6.416e+09  0.688  -0.518  0.01322  0.01265  0.00595  -0.01868  0.001479  -0.8411
6.418e+09  0.4418  -0.7255  -0.02854  -0.02163  0.02011  0.001506  -0.328  -0.8534
6.419e+09  0.1481  -0.8197  -0.02034  -0.03753  -0.008124  -0.004068  -0.5633  -0.7201
6.42e+09  -0.1106  -0.8262  -0.005353  0.01175  -0.03095  0.01255  -0.7612  -0.4703
6.421e+09  -0.3852  -0.7509  -0.03789  -0.0005167  0.01174  -0.01283  -0.8185  -0.2174
6.422e+09  -0.656  -0.5457  -0.01329  -0.0174  -0.002526  0.06419  -0.8897  0.1471
6.424e+09  -0.8142  -0.2682  0.01922  0.014  -0.02927  -0.05562  -0.7381  0.409
6.425e+09  -0.8812  0.02021  -0.0004733  -0.009496  -0.004759  -0.02473  -0.6223  0.6576
6.426e+09  -0.8043  0.3029  -0.02478  -0.0145  0.0303  0.01155  -0.3016  0.7978
6.428e+09  -0.5973  0.5382  -0.01674  0.01582  -0.03943  -0.04706  -0.03011  0.8582
6.429e+09  -0.4198  0.7191  -0.003912  0.04735  -0.003626  -0.01474  0.2247  0.8313
6.43e+09  -0.08751  0.8144  -0.03687  -0.009577  0.001259  0.05392  0.5131  0.6974
6.431e+09  0.1154  0.8139  -0.01609  0.0134  0.02422  0.05089  0.6953  0.4955
6.432e+09  0.4505  0.7053  0.02791  -0.08347  0.02757  0.00061  0.8562  0.1735
6.434e+09  0.674  0.5232  0.00226  0.01562  -0.004964  0.03192  0.8742  -0.1072
6.435e+09  0.799  0.2761  -0.009515  -0.004373  0.01195  0.0005083  0.768  -0.3492
6.436e+09  0.8446  -0.02547  0.04177  0.04649  0.007638  0.0296  0.637  -0.6433
6.438e+09  0.7627  -0.3197  0.01471  -0.00546  0.01646  -0.01114  0.3332  -0.8095
6.439e+09  0.6488  -0.6018  -0.01223  0.02345  0.04087  -0.05086  0.0881  -0.8703
6.44e+09  0.3937  -0.7493  0.008493  0.007218  0.0008183  0.01181  -0.2238  -0.8104
6.441e+09  0.1445  -0.8281  -0.03559  0.006496  -0.02251  -0.00531  -0.5174  -0.6485
6.442e+09  -0.1913  -0.8279  0.0253  0.03158  0.0495  -0.01196  -0.6509  -0.4728
6.444e+09  -0.4821  -0.705  -0.01584  -0.002164  0.02428  -0.01497  -0.8157  -0.2376
6.445e+09  -0.6646  -0.5104  0.01476  -0.06877  0.03783  -0.03205  -0.8319  0.07826
6.446e+09  -0.8375  -0.2527  -0.009241  -0.02337  -0.03195  -0.02011  -0.7603  0.3507
6.448e+09  -0.8322  0.03942  -0.05835  0.0117  -0.04229  -0.005407  -0.5835  0.6069
6.449e+09  -0.7501  0.3432  -0.02096  0.006895  0.04582  0.02187  -0.4019  0.7882
6.45e+09  -0.5767  0.5854  -0.02155  0.0224  0.005435  -0.03907  -0.08765  0.7896
6.451e+09  -0.3778  0.7129  -0.000886  0.005635  0.02846  0.006963  0.231  0.829
6.452e+09  -0.06735  0.8395  0.006356  -0.01112  -0.008365  -0.0005116  0.4904  0.6603
6.454e+09  0.179  0.8787  0.003858  0.02531  -0.01816  0.004153  0.725  0.4156
6.455e+09  0.4996  0.7239  0.03021  -0.009198  0.01618  -0.003106  0.8122  0.2033
6.456e+09  0.6672  0.4887  0.02319  -0.007231  -0.02721  0.07028  0.8162  -0.05972
6.458e+09  0.8386  0.2668  0.01568  -0.0112  -0.01964  0.01694  0.731  -0.367
6.459e+09  0.8172  -0.08506  -0.01496  -0.03299  -0.02582  -0.02437  0.5866  -0.6083
6.46e+09  0.7322  -0.3328  -0.0271  -0.02341  -0.02289  0.007291  0.3581  -0.7387
6.461e+09  0.611  -0.6041  0.02748  0.01327  -0.0161  -0.03541  0.0895  -0.7764
6.462e+09  0.3517  -0.7299  -0.00705  0.01961  0.0159  0.03118  -0.2526  -0.7648
6.464e+09  0.1147  -0.8242  0.02872  0.01932  0.0006358  -0.008321  -0.4731  -0.6858
6.465e+09  -0.2094  -0.7926  -0.02027  0.02687  0.004923  -0.04294  -0.6665  -0.4094
6.466e+09  -0.4824  -0.7066  -0.01602  -0.01527  0.009532  -0.04174  -0.797  -0.2259
6.468e+09  -0.6643  -0.5398  -0.006088  -0.02412  0.03398  0.02336  -0.7841  0.07647
6.469e+09  -0.8172  -0.2519  0.0003096  -0.02891  0.01244  -0.004532  -0.7215  0.3295
6.47e+09  -0.8308  0.1047  0.009565  0.004703  0.0261  -0.002325  -0.5577  0.5608
6.471e+09  -0.7689  0.3933  -0.02725  0.001739  0.004648  0.01272  -0.2958  0.7454
6.472e+09  -0.6811  0.5918  0.007313  -0.01785  0.006001  -0.01511  -0.07951  0.8009
6.474e+09  -0.3624  0.7394  -0.07597  -0.03802  -0.04265  0.00711  0.2437  0.7636
6.475e+09  -0.107  0.8075  0.00343  0.01121  0.01108  0.002265  0.434  0.6699
6.476e+09  0.1949  0.7998  -0.004697  0.0007818  0.01913  0.04317  0.6109  0.4718
6.478e+09  0.4823  0.6956  0.05585  0.06284  0.01596  -0.002042  0.7562  0.1587
6.479e+09  0.7341  0.5045  -0.01695  -0.01815  -0.01184  0.01503  0.802  -0.062
6.48e+09  0.8566  0.2287  0.01752  0.004026  -0.03214  0.01556  0.6709  -0.3521
6.481e+09  0.8128  -0.05747  -0.01574  0.0135  0.003993  -0.02024  0.5098  -0.5459
6.482e+09  0.7637  -0.3598  -0.04  0.01244  -0.03956  -0.01848  0.339  -0.7163
6.484e+09  0.5662  -0.5368  0.007721  0.02256  0.006669  -0.0301  0.07357  -0.7815
6.485e+09  0.3649  -0.746  0.006418  0.00189  -0.01987  0.03569  -0.2241  -0.7721
6.486e+09  0.04219  -0.8771  0.01447  -0.01918  0.02291  -0.01651  -0.4553  -0.6491
6.488e+09  0.3301  -1.239  0.0276  0.008683  -0.3624  -0.6558  -0.6683  -0.4525
6.489e+09  -0.4709  -0.6787  -0.03579  0.01503  0.02578  -0.02785  -0.7553  -0.1884
6.49e+09  -0.6748  -0.4679  0.0001657  0.03025  0.008549  0.01952  -0.7774  0.1134
6.491e+09  -0.8312  -0.2012  -0.01518  -9.367e-05  0.0683  0.01037  -0.6354  0.3325
6.492e+09  -0.8726  0.07859  -0.01517  -0.01558  0.05102  -0.03211  -0.5322  0.547
6.494e+09  -0.7572  0.2709  -0.006228  -0.02149  0.01511  0.1247  -0.302  0.7416
6.495e+09  -0.5911  0.5952  -0.00496  -0.02042  0.01238  0.03243  -0.07515  0.7685
6.496e+09  -0.3502  0.7812  -0.002336  -0.002213  -0.02119  0.03028  0.2398  0.7234
6.498e+09  -0.1176  0.8984  -0.01019  -0.01595  -0.0002611  -0.00844  0.4609  0.6272
6.499e+09  0.2336  0.8775  0.01455  -0.008629  -0.03947  0.04694  0.6758  0.4353
6.5e+09  0.5016  0.7989  0.007021  0.004505  -0.01731  -0.03393  0.7773  0.1663
6.501e+09  0.7321  0.4782  0.02182  0.00583  -0.034  0.02962  0.7331  -0.1023
6.502e+09  0.7753  0.195  -0.0083  0.009363  -0.01398  0.01883  0.6964  -0.3636
6.504e+09  0.8493  -0.08268  0.02052  0.005146  -0.01519  0.009188  0.512  -0.5478
6.505e+09  0.8104  -0.3324  0.04337  0.02629  -0.01083  0.01557  0.2663  -0.7163
6.506e+09  0.567  -0.6227  0.003388  0.001897  0.05093  -0.02694  0.02886  -0.7562
6.508e+09  0.3424  -0.8064  -0.02546  0.002639  -0.0223  0.01493  -0.2533  -0.7255
6.509e+09  0.02914  -0.9276  0.00647  0.02655  -0.008692  0.01665  -0.4765  -0.6072
6.51e+09  -0.268  -0.9122  -0.01627  -0.008916  0.04268  0.01531  -0.6559  -0.41
6.511e+09  -0.4937  -0.6913  0.02404  -0.03177  0.02801  0.01834  -0.7485  -0.1153
6.512e+09  -0.7353  -0.4907  -0.01436  0.0108  -0.0259  -0.011  -0.7499  0.1684
6.514e+09  -0.849  -0.1738  0.003875  -0.01761  -0.00443  0.01959  -0.6207  0.3498
6.515e+09  -0.9115  0.1147  -0.001666  -0.008892  0.002119  -0.01241  -0.4941  0.5478
6.516e+09  -0.7859  0.4181  -0.0232  -0.02449  0.004224  -0.06295  -0.2477  0.6937
6.518e+09  -0.6314  0.7024  -0.01996  -0.01093  -0.004426  -0.03253  -0.03065  0.7326
6.519e+09  -0.3388  0.8201  -0.02345  -0.05143  0.00101  -0.005773  0.2716  0.6815
6.52e+09  -0.06361  0.9272  -0.01589  -0.01725  0.007399  0.03253  0.4768  0.5595
6.521e+09  0.3196  0.9503  -0.04152  -0.0006335  0.02807  -0.04435  0.6419  0.3192
6.522e+09  0.6057  0.7187  0.0004084  0.03495  -0.0431  -0.00885  0.7445  0.1079
6.524e+09  0.7745  0.4707  -0.007467  0.04159  -0.03667  -0.005564  0.6999  -0.1065
6.525e+09  0.9303  0.1346  -0.01319  0.02564  0.005827  0.01662  0.6094  -0.402
6.526e+09  0.9  -0.1573  0.02069  0.02041  -0.02463  0.01449  0.4141  -0.5742
6.528e+09  0.7942  -0.4905  -0.006182  0.02772  -0.04485  0.05927  0.1986  -0.6768
6.529e+09  0.6718  -0.7163  0.009132  -0.004303  0.0248  -0.01426  -0.05334  -0.7165
6.53e+09  0.2939  -0.8982  0.01105  0.03543  -0.03185  0.01727  -0.2757  -0.6601
6.531e+09  -0.0409  -0.9823  -0.02511  -0.004732  -0.01729  0.02789  -0.4995  -0.4658
6.532e+09  -0.3868  -0.8506  -0.002732  0.006084  -0.001324  0.02112  -0.5636  -0.287
6.534e+09  -0.6264  -0.7052  -0.001397  -0.001254  -0.03272  -0.007131  -0.6464  -0.09596
6.535e+09  -0.8583  -0.3934  0.02607  0.003376  0.02295  -0.007088  -0.6593  0.09966
6.536e+09  -0.8978  -0.08881  0.0006911  -0.03778  0.02902  -0.03362  -0.562  0.2852
6.538e+09  -0.9153  0.2478  0.03538  0.0005691  -0.003137  -0.001159  -0.4673  0.4679
6.539e+09  -0.7774  0.5171  0.01951  0.0007794  -0.004384  -0.04534  -0.2741  0.5892
6.54e+09  -0.5447  0.7714  -0.02418  0.007965  0.02661  0.01756  -0.06227  0.6446
6.541e+09  -0.2235  0.9147  -0.005634  0.003871  0.0008495  0.01761  0.174  0.6695
6.542e+09  0.08172  0.9465  0.03563  0.01907  0.002913  0.02048  0.4274  0.5498
6.544e+09  0.3641  0.8764  0.0193  -0.009817  0.01025  0.02978  0.558  0.3564
6.545e+09  0.6749  0.6386  0.009702  -0.006806  -0.01436  -0.03785  0.6764  0.1936
6.546e+09  0.884  0.3981  -0.004538  -0.02265  0.01983  -0.0373  0.7085  -0.06449
6.548e+09  0.9933  0.1017  0.002696  0.03252  0.02299  -0.005846  0.6605  -0.352
6.549e+09  0.9164  -0.3048  0.01778  -0.001731  0.0118  0.03318  0.4686  -0.5576
6.55e+09  0.7515  -0.5401  -0.02572  -0.005993  0.0352  -0.02781  0.3223  -0.6711
