# Hz S RI R 50
6.25e+09  0.6538  0.6939  0.001675  0.009745  -0.03557  0.02992  0.1526  0.4815
6.251e+09  0.876  0.5092  0.01029  0.03162  0.01398  0.06507  0.3627  0.3852
6.252e+09  0.9648  0.1594  0.04294  -0.007111  0.03015  -0.01883  0.5238  0.2053
6.254e+09  0.9775  -0.1578  -0.003314  -0.001962  0.02227  0.02042  0.5906  0.005647
6.255e+09  0.8373  -0.4787  -0.003523  0.02731  0.02639  0.01304  0.5682  -0.2026
6.256e+09  0.6409  -0.7106  -0.007152  -0.008457  0.02345  0.01947  0.454  -0.4446
6.258e+09  0.2776  -0.8922  -0.000922  -0.01259  0.002625  -0.0227  0.3023  -0.5609
6.259e+09  -0.05036  -0.9304  0.004671  -0.01978  -0.04168  -0.009329  0.05168  -0.6477
6.26e+09  -0.4038  -0.8468  -0.001551  -0.01454  0.01501  0.04364  -0.2118  -0.6496
6.261e+09  -0.7063  -0.6557  -0.02925  -0.01065  0.01563  -0.02469  -0.4252  -0.5577
6.262e+09  -0.826  -0.4015  -0.008813  0.01449  0.03665  0.03296  -0.566  -0.3127
6.264e+09  -0.9635  -0.09709  0.009202  -0.01274  0.009097  0.02754  -0.6852  -0.1133
6.265e+09  -0.9432  0.2448  -0.002584  -0.02498  0.02102  -0.007299  -0.7034  0.1578
6.266e+09  -0.7335  0.515  -0.01763  0.004967  0.01481  -0.04483  -0.6269  0.3882
6.268e+09  -0.5255  0.8039  0.02969  0.000631  -0.03815  -0.02617  -0.4258  0.5959
6.269e+09  -0.251  0.8828  -0.01855  -0.0009209  0.01492  -0.009905  -0.1933  0.7444
6.27e+09  0.08646  0.9644  0.01899  -0.01175  0.01007  -0.01612  0.08025  0.7296
6.271e+09  0.4029  0.8712  0.02086  0.01644  0.02337  0.03294  0.3416  0.6619
6.272e+09  0.6919  0.6678  0.002978  0.01858  0.03623  0.008813  0.5154  0.5415
6.274e+09  0.9138  0.3097  0.006616  0.005598  -0.04695  -0.07662  0.6853  0.3093
6.275e+09  0.9578  0.01658  -0.00016  0.008665  -0.0004861  -0.01148  0.7393  0.06976
6.276e+09  0.8875  -0.2767  0.03614  -0.03639  0.004516  -0.009582  0.728  -0.2496
6.278e+09  0.7268  -0.6338  0.009303  -0.003998  0.003165  0.02567  0.5962  -0.4887
6.279e+09  0.4978  -0.8329  -0.02796  0.008814  0.02514  -0.01119  0.4089  -0.6763
6.28e+09  0.07658  -0.9308  -0.0019  -0.01995  0.007122  0.01757  0.183  -0.7496
6.281e+09  -0.1479  -0.9482  -0.001982  0.01207  -0.06821  0.06127  -0.1013  -0.8026
6.282e+09  -0.4935  -0.8034  -0.00455  -0.005923  -0.001819  -0.02673  -0.3529  -0.6838
6.284e+09  -0.7555  -0.5837  0.02857  0.0002651  -0.005873  -0.01483  -0.5969  -0.5155
6.285e+09  -0.8979  -0.3238  -0.003645  -0.005679  -0.003044  -0.03377  -0.7404  -0.3153
6.286e+09  -0.9647  0.02238  -0.01784  -0.03625  0.01372  -0.003249  -0.801  -0.01611
6.288e+09  -0.8713  0.406  0.003149  -0.002442  -0.004338  -0.001589  -0.7377  0.2663
6.289e+09  -0.6323  0.6599  -0.03499  0.002547  0.01298  0.05601  -0.6339  0.4982
6.29e+09  -0.4286  0.8132  -0.007552  0.03445  0.029  0.02331  -0.4122  0.6812
6.291e+09  -0.09108  0.9547  -0.01657  -0.007642  -0.04081  -0.03548  -0.1658  0.7966
6.292e+09  0.2164  0.9127  -0.003801  0.001211  0.02752  -0.007469  0.1421  0.7883
6.294e+09  0.4545  0.7544  0.01894  -0.01837  0.004092  0.004032  0.4275  0.7092
6.295e+09  0.7813  0.5098  -0.001185  0.01564  0.06402  -0.01175  0.6538  0.5203
6.296e+09  0.9569  0.1822  -0.004693  0.009426  -0.04869  -0.01765  0.7912  0.281
6.298e+09  0.9681  -0.1511  0.00436  -0.02364  0.002887  -0.02406  0.8346  -0.01014
6.299e+09  0.8241  -0.4588  -0.0006735  0.01045  -0.01375  -0.05106  0.7607  -0.271
6.3e+09  0.6017  -0.7242  -0.01224  -0.01358  -0.02168  -0.07756  0.6372  -0.5408
6.301e+09  0.3811  -0.9549  0.003677  -0.001029  0.02768  -0.009757  0.407  -0.7168
6.302e+09  0.0556  -0.965  -0.05121  -0.001475  0.006939  -0.01329  0.1601  -0.8372
6.304e+09  -0.3499  -0.9043  0.005234  -0.006324  -0.005196  -0.008129  -0.1797  -0.8152
6.305e+09  -0.6486  -0.7307  0.01033  -0.00991  -0.02073  0.003343  -0.4451  -0.7552
6.306e+09  -0.8675  -0.5255  -0.002455  -0.01974  -0.009987  0.003104  -0.6583  -0.5349
6.308e+09  -1.011  -0.2113  -0.01505  0.005614  0.03574  0.02712  -0.8104  -0.2621
6.309e+09  -0.9649  0.1955  0.01138  0.01235  -0.03548  0.0483  -0.8678  0.003411
6.31e+09  -0.8699  0.523  -0.0006835  -0.0005224  -0.02866  0.003178  -0.8035  0.2781
6.311e+09  -0.6662  0.8131  -0.03716  -0.01735  0.04689  -0.007686  -0.6358  0.5351
6.312e+09  -0.3228  0.9464  0.009257  0.001586  -0.03342  -0.007551  -0.4504  0.7543
6.314e+09  0.09529  0.97  0.02133  -0.01361  0.002548  -0.006524  -0.1386  0.8489
6.315e+09  0.3932  0.9259  0.04537  0.005377  -0.0116  -0.01205  0.1377  0.8673
6.316e+09  0.7012  0.7151  -0.008081  0.00363  0.03562  -0.0006633  0.42  0.7377
6.318e+09  0.8627  0.4591  0.03208  -0.001705  0.01741  -0.00664  0.6672  0.5856
6.319e+09  0.9831  0.1141  0.02256  -0.008392  0.04103  0.0249  0.8478  0.3102
6.32e+09  1.02  -0.223  -0.009633  0.009799  -0.02552  0.004424  0.8746  0.005468
6.321e+09  0.8144  -0.5903  0.01308  0.004397  -0.03815  -0.0179  0.8402  -0.2772
6.322e+09  0.5632  -0.8715  0.02031  -0.004055  -0.04978  -0.01859  0.7256  -0.5539
6.324e+09  0.2634  -1.037  0.01052  0.01207  0.002639  0.04292  0.4593  -0.7498
6.325e+09  -0.07669  -1.045  -0.05524  -0.01403  -0.006401  0.01487  0.1988  -0.8685
6.326e+09  -0.5223  -0.925  -0.01138  0.02975  -0.05104  -0.01043  -0.1563  -0.854
6.328e+09  -0.7613  -0.7477  -0.03027  -0.003941  -0.02113  0.02652  -0.4438  -0.7609
6.329e+09  -0.929  -0.3932  -0.01496  -0.002268  -0.01203  0.004134  -0.6219  -0.6096
6.33e+09  -1.051  -0.03086  0.01328  0.01061  0.001284  0.0132  -0.843  -0.3359
6.331e+09  -1.041  0.3393  -0.02241  0.003039  -0.02248  -5.68e-05  -0.8772  -0.02832
6.332e+09  -0.8234  0.6161  -0.009987  -0.03431  0.01811  0.05314  -0.8531  0.3028
6.334e+09  -0.5702  0.9258  -0.03526  -0.02562  -0.004642  -0.01008  -0.724  0.5583
6.335e+09  -0.2227  1.032  -0.01201  -0.05201  -0.03004  -0.004575  -0.4636  0.7643
6.336e+09  0.1882  1.073  -0.008638  -0.01664  -0.01772  -0.03084  -0.2216  0.8593
6.338e+09  0.5606  0.864  0.005879  0.03542  0.003389  -0.02501  0.08977  0.9248
6.339e+09  0.823  0.6936  0.005606  0.000773  -0.0177  -0.009348  0.4098  0.8258
6.34e+09  1.053  0.3497  0.01466  0.00134  -0.02017  0.007828  0.658  0.615
6.341e+09  1.093  -0.07794  0.01174  0.04387  0.02414  0.02152  0.88  0.3406
6.342e+09  0.9841  -0.4281  -0.004416  0.002274  -0.02174  -0.02783  0.9087  0.02361
6.344e+09  0.8066  -0.7185  0.001142  -0.03901  0.002502  0.03569  0.8927  -0.2884
6.345e+09  0.4889  -1.045  0.00925  -0.02178  -0.05206  -0.06813  0.7548  -0.5448
6.346e+09  0.1308  -1.099  0.02038  -0.02676  -0.004773  0.03006  0.5311  -0.7566
6.348e+09  -0.2681  -1.103  -0.002479  0.02434  0.006217  -0.02664  0.2055  -0.8849
6.349e+09  -0.6048  -0.9034  0.02135  -0.01317  0.01195  0.02888  -0.1283  -0.922
6.35e+09  -0.9407  -0.6267  -0.00873  0.02923  -0.01186  0.004126  -0.4132  -0.8588
6.351e+09  -1.083  -0.3061  0.01255  -0.01253  -0.02658  0.006128  -0.6925  -0.6825
6.352e+09  -1.127  0.07928  -0.01602  0.0411  0.0272  -0.0004228  -0.8311  -0.4209
6.354e+09  -1.019  0.4743  0.009756  -0.0137  0.0001549  -0.02201  -0.9326  -0.05775
6.355e+09  -0.8229  0.8294  0.0143  0.03847  -0.0297  -0.01772  -0.901  0.3169
6.356e+09  -0.4756  1.049  -0.00671  -0.002461  -0.004692  -0.02904  -0.7343  0.5733
6.358e+09  -0.07506  1.156  0.009356  -0.01037  -0.01693  0.0001973  -0.517  0.7705
6.359e+09  0.3403  1.119  -0.0281  -0.02253  -0.01505  -0.03015  -0.2515  0.9018
6.36e+09  0.7505  0.9076  0.01852  0.01385  0.04498  0.00737  0.1074  0.9409
6.361e+09  1.005  0.626  -0.005354  0.01422  0.008461  0.003971  0.4023  0.8486
6.362e+09  1.175  0.2695  0.0003352  0.02608  -0.00991  0.01172  0.6923  0.669
6.364e+09  1.117  -0.1939  0.01983  -0.002843  0.003398  -0.02111  0.8553  0.427
6.365e+09  1.022  -0.578  0.01966  -0.02699  -0.008089  0.03893  0.9357  0.09996
6.366e+09  0.8053  -0.8819  -0.003864  -0.005681  -0.02776  0.04785  0.9234  -0.2406
6.368e+09  0.4036  -1.12  -0.008911  0.005138  -0.0138  -0.01225  0.819  -0.5127
6.369e+09  0.007905  -1.228  0.01438  0.03419  -0.008045  0.0131  0.5281  -0.7677
6.37e+09  -0.402  -1.143  -0.01451  0.02268  0.07121  0.02717  0.2707  -0.8782
6.371e+09  -0.8119  -0.9308  0.03638  -0.002917  -0.01235  -0.008042  -0.08708  -0.9421
6.372e+09  -1.106  -0.5792  -0.03476  -0.01782  0.01878  -0.009548  -0.414  -0.8613
6.374e+09  -1.238  -0.1423  -0.01612  0.01924  -0.006643  -0.01842  -0.6795  -0.6795
6.375e+09  -1.276  0.2697  -0.002894  -0.02622  0.01323  -0.007582  -0.8704  -0.3821
6.376e+09  -1.121  0.664  0.01623  0.005964  0.01232  0.02561  -0.9673  -0.1387
6.378e+09  -0.8202  1.058  0.001381  -0.006437  0.01068  0.03344  -0.9062  0.2295
6.379e+09  -0.3997  1.223  0.02399  0.009361  0.06282  0.004979  -0.7763  0.5277
6.38e+09  0.03403  1.267  0.02393  -0.01376  0.01068  0.01445  -0.5482  0.7615
6.381e+09  0.5039  1.187  -0.003503  -0.006295  -0.007991  0.02739  -0.2504  0.9123
6.382e+09  0.956  0.9785  0.002986  -0.05848  -0.02178  0.01336  0.09122  0.9243
6.384e+09  1.209  0.5504  0.02386  0.02127  -0.01195  -0.0004298  0.4113  0.8732
6.385e+09  1.379  0.1253  0.02919  0.008411  0.01151  0.0445  0.6398  0.6854
6.386e+09  1.349  -0.3883  -0.008998  0.003831  0.01794  -0.004669  0.8596  0.413
6.388e+09  1.099  -0.7576  -0.04766  0.02394  0.04677  0.03127  0.9597  0.1214
6.389e+09  0.7902  -1.182  0.02032  -0.0001108  0.05661  0.00249  0.9403  -0.2279
6.39e+09  0.3286  -1.31  0.02093  -0.02011  -0.01422  -0.001991  0.8154  -0.5014
6.391e+09  -0.163  -1.397  -0.01876  -0.01907  -0.0145  0.0009737  0.5835  -0.744
6.392e+09  -0.6037  -1.316  -0.04478  0.03987  0.05223  0.03079  0.2942  -0.9065
6.394e+09  -1.029  -1.005  0.005014  -0.03486  -0.01039  -0.01617  -0.0117  -0.8901
6.395e+09  -1.335  -0.5771  0.017  -0.01362  0.001371  -0.02239  -0.3417  -0.9072
6.396e+09  -1.515  -0.1399  0.03788  0.005272  -0.02003  0.02901  -0.5914  -0.6964
6.398e+09  -1.463  0.3935  -0.01074  0.03754  0.02682  0.06137  -0.8327  -0.4734
6.399e+09  -1.276  0.9236  -0.01118  0.04927  -0.01886  -0.009113  -0.8772  -0.1295
6.4e+09  -0.8394  1.307  -0.02745  -0.01166  0.0172  0.02303  -0.8845  0.1876
6.401e+09  -0.2935  1.497  0.02494  -0.01826  -0.0006167  -0.02974  -0.8234  0.5009
6.402e+09  0.2437  1.565  -0.03579  0.008047  0.03864  -0.01145  -0.6022  0.7037
6.404e+09  0.8068  1.425  0.01655  -0.02562  0.01769  0.03475  -0.3034  0.8445
6.405e+09  1.235  1.061  0.008347  0.007335  0.01714  -0.04993  0.01356  0.9183
6.406e+09  1.587  0.633  -0.03468  -0.02675  -0.06733  0.01488  0.3412  0.874
6.408e+09  1.699  -0.02337  -0.02086  0.01247  0.06827  0.01035  0.5979  0.6802
6.409e+09  1.546  -0.6566  -0.03333  0.02862  -0.001792  -0.03108  0.793  0.4773
6.41e+09  1.293  -1.108  -0.01028  -0.007503  -0.01384  -0.04005  0.8603  0.1845
6.411e+09  0.7816  -1.592  0.02421  -0.009698  0.0149  0.0114  0.892  -0.1231
6.412e+09  0.2134  -1.811  0.003212  -0.02116  0.002507  -0.03932  0.8223  -0.4169
6.414e+09  -0.4265  -1.766  0.004015  -9.348e-05  0.007182  0.01333  0.6109  -0.6774
6.415e+09  -1.094  -1.571  0.002262  0.02485  -0.03225  0.0203  0.3307  -0.8453
6.416e+09  -1.584  -1.126  0.0181  -0.01914  -0.01485  -0.009768  0.07927  -0.8658
6.418e+09  -1.871  -0.4505  -0.02576  0.02292  0.04428  -0.01772  -0.2853  -0.8945
6.419e+09  -1.904  0.2305  -0.004885  0.03042  -0.05775  -0.02383  -0.5494  -0.7477
6.42e+09  -1.838  0.9754  -3.858e-05  0.05075  -0.02215  0.01974  -0.7895  -0.5005
6.421e+09  -1.425  1.554  0.02791  0.02565  0.008328  -0.01242  -0.869  -0.1654
6.422e+09  -0.7697  1.99  0.009313  0.009161  0.06213  0.01327  -0.8896  0.07672
6.424e+09  0.005994  2.091  -0.02935  -0.01454  -0.02521  -0.002917  -0.7692  0.3933
6.425e+09  0.8649  2.08  0.007149  0.02455  0.01931  0.05012  -0.6303  0.6346
6.426e+09  1.503  1.647  -0.006556  0.006535  -0.05655  0.03881  -0.3575  0.7919
6.428e+09  2.043  1.009  0.05085  -0.01841  -0.005167  0.03135  -0.003238  0.8932
6.429e+09  2.313  0.2381  0.01738  0.02341  0.03212  -0.02992  0.2472  0.8484
6.43e+09  2.308  -0.7003  0.03603  -0.02025  -0.04272  0.04822  0.5455  0.661
6.431e+09  1.931  -1.487  -0.004762  0.008458  -0.05063  -0.009333  0.7396  0.4774
6.432e+09  1.39  -2.121  -0.03651  -0.04547  -0.02407  0.01019  0.8218  0.2088
6.434e+09  0.4379  -2.488  0.004518  -0.02245  -0.009273  0.04358  0.8443  -0.07106
6.435e+09  -0.4341  -2.65  0.004425  -0.04568  0.01495  0.06882  0.7664  -0.4146
6.436e+09  -1.466  -2.252  0.03809  -0.02028  0.009489  -0.0697  0.5996  -0.6092
6.438e+09  -2.227  -1.545  -0.02352  0.01337  0.03682  -0.03251  0.3829  -0.75
6.439e+09  -2.695  -0.5983  0.05337  0.02596  -0.07589  -0.01936  0.0643  -0.834
6.44e+09  -2.805  0.4153  -0.01743  0.01301  -0.07653  0.00665  -0.2152  -0.8072
6.441e+09  -2.59  1.376  -0.02893  0.03045  0.03645  -0.06025  -0.4954  -0.7153
6.442e+09  -1.858  2.27  -0.01797  0.02765  0.05559  -0.002305  -0.7493  -0.4912
6.444e+09  -0.9087  2.882  -0.004332  0.02103  0.000957  -0.04484  -0.8265  -0.1962
6.445e+09  0.2758  3.123  -0.01834  0.01604  0.0665  0.03033  -0.8985  0.04686
6.446e+09  1.345  2.802  0.01327  0.02257  -0.02768  0.0239  -0.7642  0.3715
6.448e+09  2.419  2.095  -0.03398  -0.01708  0.006367  0.06596  -0.6305  0.6186
6.449e+09  3.162  1.099  -0.005053  -0.0325  -0.03168  -0.06913  -0.316  0.7438
6.45e+09  3.357  -0.1823  0.04711  0.02251  -0.02136  0.01326  -0.03516  0.8172
6.451e+09  3.094  -1.423  0.03047  -0.005452  0.08056  -0.05559  0.24  0.8008
6.452e+09  2.375  -2.502  -0.04115  0.00704  -0.03521  -0.03202  0.4796  0.707
6.454e+09  1.26  -3.284  -0.01128  0.003557  -0.001311  0.05536  0.691  0.4934
6.455e+09  -0.07223  -3.522  -6.204e-05  0.03977  0.01486  0.01088  0.7899  0.2241
6.456e+09  -1.504  -3.363  0.03884  0.04995  0.05241  -0.001387  0.8027  -0.07413
6.458e+09  -2.684  -2.517  0.003708  -0.0202  -0.07078  0.03488  0.741  -0.3537
6.459e+09  -3.522  -1.364  0.0272  0.04164  -0.07961  -0.03072  0.5804  -0.561
6.46e+09  -3.72  0.1202  -0.003288  -0.01816  -0.03305  -0.03477  0.374  -0.7111
6.461e+09  -3.497  1.46  0.01183  0.02598  0.04206  0.01944  0.05042  -0.8315
6.462e+09  -2.66  2.742  0.03313  -0.01335  0.01824  -0.02466  -0.2279  -0.8376
6.464e+09  -1.534  3.628  0.003388  0.01461  -0.03846  0.08301  -0.5122  -0.6574
6.465e+09  -0.007997  3.947  0.000506  0.02627  -0.1279  0.02976  -0.6276  -0.4492
6.466e+09  1.583  3.533  0.0121  -0.0156  -0.02365  0.05085  -0.763  -0.2015
6.468e+09  2.765  2.768  -0.0356  -0.02407  -0.005252  0.02713  -0.7981  0.1323
6.469e+09  3.696  1.531  -0.01463  -0.002514  0.01052  -0.08224  -0.7533  0.3191
6.47e+09  3.944  -0.1078  -0.02041  0.008888  0.09712  -0.01832  -0.5393  0.5632
6.471e+09  3.635  -1.446  0.005453  -0.026  0.006798  0.01691  -0.3531  0.6814
6.472e+09  2.889  -2.742  0.03775  0.06422  0.006487  -0.0145  -0.02948  0.8446
6.474e+09  1.594  -3.583  0.02611  0.004389  -0.02222  0.03532  0.2146  0.7217
6.475e+09  0.09723  -4.007  -0.0003164  -0.02476  -0.01322  0.08001  0.4645  0.6555
6.476e+09  -1.35  -3.764  0.00241  -0.04355  0.007739  0.02275  0.6358  0.4072
6.478e+09  -2.643  -2.908  -0.03016  0.02478  0.00262  0.01616  0.7395  0.179
6.479e+09  -3.559  -1.634  0.0112  -0.0283  -0.04254  -0.02238  0.7834  -0.1214
6.48e+09  -3.988  -0.2045  -0.008963  0.01249  0.002195  0.007838  0.7168  -0.3323
6.481e+09  -3.846  1.297  -0.01725  -0.01422  -0.0285  -0.07169  0.5377  -0.5388
6.482e+09  -2.938  2.493  -0.01275  0.03132  -0.005738  0.01423  0.3103  -0.7146
6.484e+09  -1.777  3.462  0.01077  0.01232  0.07508  0.0325  0.07955  -0.7511
6.485e+09  -0.2731  3.813  0.003077  0.01382  -0.06693  0.05029  -0.1924  -0.7346
6.486e+09  1.158  3.688  0.03732  0.007875  0.02408  -0.004391  -0.4521  -0.6122
6.488e+09  2.089  2.298  0.03317  -0.0141  0.7161  -0.09061  -0.6421  -0.4139
6.489e+09  3.332  1.931  -0.001012  0.005568  0.04755  0.08134  -0.7776  -0.1641
6.49e+09  3.814  0.578  0.001479  -0.02982  0.0839  -0.0382  -0.739  0.1119
6.491e+09  3.695  -0.8973  -0.02848  0.05506  0.0005749  -0.02913  -0.6505  0.3039
6.492e+09  3.058  -2.221  0.01868  0.01402  -0.02357  0.04104  -0.5581  0.5556
6.494e+09  2.059  -2.973  0.01143  0.002363  -0.08084  -0.04896  -0.311  0.6995
6.495e+09  0.7742  -3.677  0.02922  -0.04712  -0.0283  0.03601  0.002157  0.7575
6.496e+09  -0.7078  -3.637  0.02104  -0.0168  0.03227  -0.05956  0.1907  0.7335
6.498e+09  -1.964  -3.113  0.02168  -0.04569  -0.04721  0.02181  0.4682  0.6673
6.499e+09  -3.042  -2.204  -0.02186  -0.01081  -0.03502  0.009902  0.6145  0.432
6.5e+09  -1.568  1.875  -0.01845  -0.02423  0.1185  -0.078  0.7234  0.1864
6.501e+09  -3.793  0.3797  -0.03292  9.463e-05  -0.006566  -0.01693  0.7519  -0.1201
6.502e+09  -3.317  1.8  -0.0541  0.05473  -0.02855  -0.03807  0.6608  -0.3532
6.504e+09  -2.472  2.734  0.01436  0.0435  -0.02211  -0.03996  0.5446  -0.5261
6.505e+09  -1.253  3.57  -0.03656  -0.05075  0.01169  -0.008856  0.304  -0.7244
6.506e+09  0.1882  3.771  -0.001445  0.005372  -0.04429  -0.05324  -0.001971  -0.7402
6.508e+09  1.5  3.474  -0.02978  0.02008  -0.07673  0.02986  -0.2565  -0.7011
6.509e+09  2.717  2.615  0.01757  0.02756  -0.03154  0.002639  -0.5066  -0.5897
6.51e+09  3.385  1.394  -0.01496  -0.001831  0.06831  -0.03681  -0.6557  -0.3473
6.511e+09  3.82  0.07453  0.006829  -0.02461  0.007331  0.07417  -0.7335  -0.05755
6.512e+09  3.44  -1.427  -0.01552  0.01413  0.005347  -0.01787  -0.7534  0.1173
6.514e+09  2.872  -2.526  0.006706  0.0301  0.001455  -0.01725  -0.6882  0.3754
6.515e+09  1.673  -3.47  -0.05043  -0.01255  0.01736  0.1124  -0.4731  0.5488
6.516e+09  0.3095  -3.841  -0.01895  0.0003814  0.01164  0.005875  -0.2641  0.7331
6.518e+09  -1.257  -3.636  -0.007835  -0.008267  0.09176  0.0195  0.0159  0.7808
6.519e+09  -2.489  -2.965  0.00449  -0.006262  -0.07211  0.04165  0.2731  0.6811
6.52e+09  -3.367  -1.829  0.01674  -0.004472  -0.07875  -0.1545  0.4696  0.5522
6.521e+09  -3.805  -0.4367  0.01874  0.01326  -0.01137  0.02732  0.6339  0.3323
6.522e+09  -3.766  1.022  0.007033  0.02654  0.01502  -0.04825  0.7143  0.1008
6.524e+09  -3.157  2.336  -0.01421  0.004294  0.06144  4.888e-05  0.6939  -0.1793
6.525e+09  -1.966  3.258  0.03746  0.007348  0.03787  -0.01111  0.59  -0.4149
6.526e+09  -0.6734  3.839  -0.03421  -0.02124  0.003493  -0.0102  0.4444  -0.5628
6.528e+09  0.8983  3.803  0.01945  -0.04137  0.04151  -0.03167  0.1995  -0.6644
6.529e+09  2.229  3.203  0.02987  -0.004922  0.004587  -0.02043  -0.07724  -0.6809
6.53e+09  3.167  2.086  0.02016  0.01959  0.05339  -0.03436  -0.3124  -0.6146
6.531e+09  3.711  0.7277  0.02499  0.03545  -0.05442  -0.025  -0.4562  -0.5104
6.532e+09  3.778  -0.7823  0.0166  0.01758  -0.03528  -0.003214  -0.5844  -0.2891
6.534e+09  3.157  -2.045  -0.0244  -0.01811  -0.08591  -0.04084  -0.6161  -0.1087
6.535e+09  2.106  -3.132  -0.04786  -0.004877  -0.01889  0.009986  -0.6233  0.1254
6.536e+09  0.8382  -3.719  0.001136  0.006493  0.06322  0.01538  -0.5265  0.2941
6.538e+09  -0.6365  -3.676  -0.00589  -0.005703  -0.01745  0.01236  -0.4174  0.4748
6.539e+09  -2.007  -3.189  -0.01522  0.002596  0.01805  -0.02819  -0.2885  0.6102
6.54e+09  -2.985  -2.18  -0.03996  -0.01591  0.0185  -0.001204  -0.08338  0.6565
6.541e+09  -3.641  -0.8298  0.01241  0.03852  -0.003461  0.03932  0.1806  0.6865
6.542e+09  -3.612  0.5846  -0.01616  0.01326  -0.05371  -0.04637  0.4072  0.5974
6.544e+09  -3.032  1.863  0.003534  -0.01389  0.0159  0.005881  0.5604  0.4127
6.545e+09  -2.045  2.844  -0.001766  -0.02497  -0.05336  0.02071  0.6995  0.1681
6.546e+09  -0.9082  3.298  -0.001235  -0.02002  -0.08455  -0.06318  0.6805  -0.07873
6.548e+09  0.319  3.375  0.04723  -0.02622  -0.02256  -0.1026  0.6461  -0.3305
6.549e+09  1.633  2.902  0.001389  0.006634  0.0162  -0.04647  0.4948  -0.5217
6.55e+09  2.539  2.044  0.0007206  -0.01497  -0.03353  -0.002922  0.3289  -0.6692
6.551e+09  3.043  0.9267  -0.01733  -0.014  -0.000855  0.05531  0.03523  -0.7086
6.552e+09  3.116  -0.2421  0.01022  -0.04764  -0.01812  0.004565  -0.219  -0.7294
6.554e+09  2.749  -1.357  -0.008618  0.0002857  -0.04132  -0.04641  -0.4537  -0.5627
