# Hz S RI R 50
6.25e+09  -0.5307  -0.6373  -0.01033  0.01929  0.01257  -0.03424  0.1486  0.4819
6.251e+09  -0.7115  -0.4603  0.03704  -0.02171  -0.02128  -0.001405  0.3234  0.4104
6.252e+09  -0.8768  -0.1205  -0.03164  -0.01042  -0.0403  0.01751  0.566  0.2791
6.254e+09  -0.8402  0.1994  0.000583  -0.007022  -0.06384  0.01722  0.6232  0.002731
6.255e+09  -0.6907  0.4728  0.02189  -0.02353  -0.02304  0.01348  0.5995  -0.2166
6.256e+09  -0.4998  0.6425  -0.001899  0.001932  0.07212  0.02731  0.4935  -0.4405
6.258e+09  -0.1494  0.8107  -0.01123  -0.02691  0.03345  -0.0335  0.289  -0.5984
6.259e+09  0.1515  0.8189  0.03212  -0.01135  -0.003544  0.0106  0.03875  -0.6752
6.26e+09  0.3814  0.7134  0.0304  0.03936  0.01434  -0.04597  -0.2064  -0.6705
6.261e+09  0.6381  0.6058  -0.001739  0.0117  0.04847  -0.01938  -0.475  -0.5145
6.262e+09  0.8154  0.3335  -0.01344  0.004197  0.05651  -0.02552  -0.5976  -0.3293
6.264e+09  0.8933  0.1054  0.02014  -0.0003668  0.01728  -2.513e-06  -0.725  -0.1022
6.265e+09  0.8185  -0.2292  -0.01181  -0.01471  -0.02496  -0.04635  -0.6708  0.1487
6.266e+09  0.6155  -0.5337  -0.006021  0.01843  -0.0356  0.004521  -0.6106  0.4316
6.268e+09  0.4969  -0.7313  -0.02765  -0.01993  -0.01063  -0.004616  -0.4443  0.5644
6.269e+09  0.1517  -0.8004  0.005118  0.002504  0.0346  -0.0125  -0.2049  0.7012
6.27e+09  -0.122  -0.8012  -0.00206  -0.01284  -0.04423  0.02206  0.04081  0.7562
6.271e+09  -0.4077  -0.7268  -0.04261  -0.02747  -0.03463  0.02471  0.3083  0.6789
6.272e+09  -0.6062  -0.5313  -0.02519  -0.004372  0.04659  0.02822  0.5696  0.4994
6.274e+09  -0.7537  -0.3049  -0.01615  -0.01014  0.002766  -0.009855  0.6943  0.2942
6.275e+09  -0.8984  -0.04274  0.008141  0.01912  -0.04253  0.005371  0.748  0.04542
6.276e+09  -0.8315  0.281  0.02967  -0.01287  -0.006428  8.269e-06  0.7247  -0.2236
6.278e+09  -0.6613  0.5225  0.0125  0.01115  0.0273  0.03435  0.6189  -0.4573
6.279e+09  -0.4388  0.7462  0.00689  -0.004539  0.004628  0.02674  0.418  -0.6341
6.28e+09  -0.06975  0.8112  -0.00451  0.01219  0.04185  0.03291  0.1963  -0.7643
6.281e+09  0.2349  0.8259  0.02065  0.02941  -0.05409  0.002213  -0.1135  -0.7745
6.282e+09  0.4827  0.7858  0.009245  -0.004662  -0.05652  -0.01245  -0.3798  -0.6889
6.284e+09  0.6894  0.5158  0.005511  -0.005439  0.008909  0.05002  -0.5978  -0.4956
6.285e+09  0.8009  0.2543  -0.002383  0.02447  -0.04671  -0.001239  -0.7219  -0.2892
6.286e+09  0.9  -0.06563  0.02127  0.002547  -0.00603  -0.001578  -0.8279  -0.006493
6.288e+09  0.7804  -0.3317  -0.004699  -0.01212  -0.001108  -0.01232  -0.7907  0.2688
6.289e+09  0.6196  -0.582  -0.01635  0.01128  0.01987  -0.01615  -0.6163  0.5005
6.29e+09  0.3494  -0.779  -0.0115  -0.01786  0.009357  0.01459  -0.4168  0.666
6.291e+09  0.07433  -0.8419  -0.001934  0.01352  -0.004934  0.05227  -0.1328  0.8143
6.292e+09  -0.1611  -0.828  -0.007732  -0.001038  -0.04656  -0.01816  0.1103  0.7943
6.294e+09  -0.5545  -0.6992  0.002889  -0.001856  -0.0008957  0.03992  0.406  0.7375
6.295e+09  -0.7151  -0.4777  -0.03316  -0.006286  -0.0168  0.005643  0.615  0.5163
6.296e+09  -0.8344  -0.1728  -0.02924  -0.01953  0.02218  0.001146  0.7874  0.3103
6.298e+09  -0.8416  0.1272  0.02898  -0.007457  0.01555  -0.01915  0.7955  -0.003558
6.299e+09  -0.7478  0.3792  0.01838  -0.04522  -0.0436  0.06225  0.7762  -0.2816
6.3e+09  -0.6256  0.5851  -0.01612  -0.03046  0.02732  -0.00302  0.6468  -0.5208
6.301e+09  -0.3287  0.7834  0.003421  0.02739  0.02327  0.004969  0.414  -0.7383
6.302e+09  -0.03821  0.8349  -0.02076  0.01249  -0.008045  -0.006368  0.1485  -0.8247
6.304e+09  0.2883  0.7729  -0.009695  0.01193  0.01363  -0.01653  -0.1214  -0.8251
6.305e+09  0.5564  0.7026  -0.01534  0.01304  0.0112  0.008325  -0.4369  -0.75
6.306e+09  0.7554  0.4995  0.006264  -0.01103  0.01945  -0.006573  -0.6721  -0.5473
6.308e+09  0.7918  0.1548  -0.01782  0.02085  -0.001308  0.01514  -0.7708  -0.2891
6.309e+09  0.8103  -0.1682  0.00486  0.0009041  -0.005984  -0.06414  -0.8387  -0.02648
6.31e+09  0.667  -0.439  0.01467  0.002456  -0.02112  0.02602  -0.7915  0.2773
6.311e+09  0.5536  -0.6767  0.01471  0.000546  0.004885  0.01384  -0.666  0.5557
6.312e+09  0.2719  -0.7666  -0.01211  -0.01069  -0.00261  -0.007275  -0.4381  0.7693
6.314e+09  -0.03281  -0.8506  -0.004212  -0.0258  0.03523  -0.01367  -0.118  0.8701
6.315e+09  -0.309  -0.8189  0.01378  -0.001034  -0.05162  -0.002386  0.1405  0.8233
6.316e+09  -0.57  -0.6082  0.01262  -0.01391  0.03598  0.01823  0.4286  0.7525
6.318e+09  -0.7575  -0.3423  -0.01336  -0.006455  0.01461  0.01217  0.6794  0.5824
6.319e+09  -0.8588  -0.08453  0.02283  -0.006969  0.01852  -0.01047  0.8062  0.3015
6.32e+09  -0.856  0.1889  -0.02508  -0.005218  -0.02448  0.007936  0.864  0.02834
6.321e+09  -0.7053  0.4586  0.03029  0.03314  -0.001195  -0.007848  0.8524  -0.2891
6.322e+09  -0.5518  0.668  -0.01081  -0.02229  -0.02869  0.01301  0.6782  -0.5609
6.324e+09  -0.2532  0.8032  0.01712  -0.02628  -0.01464  0.03057  0.4521  -0.7547
6.325e+09  0.07698  0.8622  0.01054  0.02526  0.03278  0.02248  0.1579  -0.871
6.326e+09  0.3645  0.7978  0.02129  -0.01066  -0.01221  0.0201  -0.1218  -0.8612
6.328e+09  0.6415  0.5588  0.009753  -0.01898  -0.01374  -0.03587  -0.3979  -0.7793
6.329e+09  0.8096  0.3931  -0.02913  -0.004907  -0.01161  -0.03906  -0.6769  -0.5869
6.33e+09  0.8571  0.07902  0.003293  -0.01929  -0.05787  -0.003497  -0.8353  -0.3467
6.331e+09  0.7797  -0.2927  0.002945  -0.03611  -0.005817  0.02154  -0.8943  -0.02156
6.332e+09  0.6408  -0.5458  0.02319  -0.002689  0.02851  -0.0371  -0.8574  0.2887
6.334e+09  0.4317  -0.7098  0.01086  -0.01597  0.04282  -0.0004703  -0.7419  0.5463
6.335e+09  0.09702  -0.8488  0.007686  0.01616  0.002281  0.005731  -0.5025  0.7619
6.336e+09  -0.1613  -0.8708  -0.01781  -0.03043  0.03259  -0.0065  -0.1943  0.8992
6.338e+09  -0.471  -0.7709  -0.01594  0.0002426  -0.02349  0.03683  0.1442  0.9425
6.339e+09  -0.6645  -0.5433  0.01941  0.008783  0.02336  0.01313  0.4441  0.812
6.34e+09  -0.8314  -0.2475  0.02455  -0.01008  0.005994  -0.003654  0.68  0.6471
6.341e+09  -0.8618  0.04637  -0.05936  0.03072  -0.01781  0.0478  0.8398  0.3308
6.342e+09  -0.7713  0.3292  -0.01104  -0.02207  0.0329  0.02929  0.9236  0.06486
6.344e+09  -0.6376  0.6127  0.02725  -0.0023  0.05123  -0.009063  0.8712  -0.2985
6.345e+09  -0.4133  0.7791  0.02383  -0.02408  0.04237  0.03687  0.7097  -0.5662
6.346e+09  -0.06973  0.8663  -0.01913  -0.004095  -0.01915  0.01069  0.4808  -0.7851
6.348e+09  0.2205  0.8752  0.01562  0.01881  -0.02179  0.01549  0.208  -0.9632
6.349e+09  0.4947  0.6812  0.02597  -0.03344  0.02408  0.01409  -0.09608  -0.9364
6.35e+09  0.7532  0.4494  -0.007683  -0.01116  -0.01876  -0.01062  -0.45  -0.8643
6.351e+09  0.861  0.1983  0.01825  0.01372  -0.04359  -0.00192  -0.6283  -0.6135
6.352e+09  0.8533  -0.09809  0.01087  -0.003389  -0.007583  -0.01429  -0.8557  -0.3842
6.354e+09  0.8192  -0.3963  -0.04746  0.004497  0.009597  0.009466  -0.9302  -0.05865
6.355e+09  0.5795  -0.6923  0.006278  -0.03771  -0.03129  -0.01615  -0.904  0.2425
6.356e+09  0.2971  -0.8825  -0.01256  0.029  -0.007455  0.002185  -0.813  0.5235
6.358e+09  -0.01704  -0.9085  -0.02297  -0.004588  -0.02242  -0.0004334  -0.5126  0.7908
6.359e+09  -0.3191  -0.7886  -0.00817  -0.007629  0.003724  0.01076  -0.293  0.8627
6.36e+09  -0.602  -0.6392  -0.006317  -0.009458  0.05106  0.0118  0.1172  0.9596
6.361e+09  -0.7666  -0.4449  0.02228  0.01137  0.005265  0.04023  0.4315  0.8394
6.362e+09  -0.9006  -0.113  0.01564  -0.05645  0.001232  -0.04689  0.6553  0.6746
6.364e+09  -0.8768  0.233  -0.02952  -0.05807  0.001464  0.01614  0.8696  0.3795
6.365e+09  -0.7411  0.5005  -0.02897  0.01036  0.02069  -0.03554  0.9383  0.07346
6.366e+09  -0.4932  0.7619  0.01739  -0.04129  -0.0007312  -0.02859  0.9104  -0.276
6.368e+09  -0.2633  0.8206  -0.02487  0.02395  -0.003576  -0.01255  0.759  -0.5273
6.369e+09  0.1169  0.9113  -0.03664  0.045  -0.01412  0.0253  0.51  -0.7875
6.37e+09  0.4261  0.7692  0.0462  0.03844  0.01251  0.008934  0.2311  -0.8975
6.371e+09  0.6686  0.5773  -0.007331  -0.01293  0.01607  -0.01836  -0.1255  -0.9861
6.372e+09  0.8721  0.3564  0.006817  0.02612  -0.03131  -0.04483  -0.3969  -0.8647
6.374e+09  0.8655  0.01163  0.04239  0.01476  -0.01631  -0.01596  -0.6397  -0.6796
6.375e+09  0.8333  -0.263  0.009335  0.05329  0.005906  -0.003022  -0.8768  -0.4224
6.376e+09  0.6631  -0.5648  -0.00122  -0.01122  -0.05115  -0.006111  -0.965  -0.1063
6.378e+09  0.4382  -0.7717  -0.02332  -0.0218  0.00513  -0.01207  -0.9333  0.2442
6.379e+09  0.1243  -0.9063  0.002831  0.006279  0.02768  0.02295  -0.7914  0.5019
6.38e+09  -0.2347  -0.8358  0.0001844  0.01603  -0.03433  0.0007705  -0.5606  0.7441
6.381e+09  -0.5285  -0.7635  -0.006922  -0.02654  -0.0003954  0.02866  -0.2579  0.8923
6.382e+09  -0.7559  -0.4719  -0.02131  0.05119  -0.06435  -0.01284  0.06544  0.9176
6.384e+09  -0.9094  -0.1376  0.007223  -0.01709  -0.01232  0.04204  0.4154  0.8586
6.385e+09  -0.8843  0.08938  0.001213  -0.01371  0.02548  0.003555  0.6096  0.6774
6.386e+09  -0.8136  0.4416  0.009923  -0.00064  0.05674  0.01595  0.8516  0.4344
6.388e+09  -0.6014  0.7037  -0.01015  -0.006281  -0.02063  -0.02757  0.9062  0.1112
6.389e+09  -0.3367  0.8409  0.003739  -0.01745  -0.02247  0.01693  0.9102  -0.2057
6.39e+09  0.05808  0.8885  -0.001202  0.04288  -0.02683  0.02002  0.7806  -0.4826
6.391e+09  0.2917  0.8786  -0.01737  0.002282  -0.02773  0.0005364  0.5686  -0.7494
6.392e+09  0.5291  0.705  0.0265  0.009751  -0.003722  -0.02638  0.2471  -0.8498
6.394e+09  0.7666  0.4267  0.004109  0.01446  -0.009511  0.01316  -0.06194  -0.9346
6.395e+09  0.9195  0.1266  0.003651  0.06044  0.0003945  -0.0264  -0.3238  -0.8145
6.396e+09  0.9182  -0.2142  0.02279  -0.03529  0.0003316  0.01257  -0.5907  -0.6924
6.398e+09  0.732  -0.5138  -0.002157  0.002576  0.05957  -0.001116  -0.823  -0.439
6.399e+09  0.5664  -0.776  -0.009436  -0.06034  0.03216  -0.001405  -0.8884  -0.1295
6.4e+09  0.2429  -0.8656  0.006289  -0.0275  -0.03205  -0.003712  -0.8879  0.1619
6.401e+09  -0.08389  -0.8833  0.02721  0.02064  -0.01658  0.06315  -0.7882  0.4759
6.402e+09  -0.4087  -0.8052  -0.05726  -0.03316  0.03014  0.03139  -0.534  0.7451
6.404e+09  -0.6656  -0.5828  0.00822  -0.009776  0.01887  0.001091  -0.2949  0.8642
6.405e+09  -0.8564  -0.2738  -0.02318  -0.005666  -3.408e-05  -0.006922  -0.02938  0.8875
6.406e+09  -0.8841  -0.02484  0.06073  -0.002052  0.005392  0.01432  0.3161  0.8691
6.408e+09  -0.8901  0.3232  0.08866  0.02362  -0.002449  -0.03055  0.5444  0.7192
6.409e+09  -0.6942  0.5825  -0.008672  0.04278  0.01324  0.04524  0.7378  0.4724
6.41e+09  -0.4667  0.8114  0.03263  0.05972  -0.03379  0.01992  0.9091  0.1659
6.411e+09  -0.1744  0.9048  0.01229  -0.02195  0.0079  0.04836  0.9053  -0.1499
6.412e+09  0.1602  0.8918  0.0007041  -0.03892  0.03712  -0.006513  0.7865  -0.4308
6.414e+09  0.4612  0.7666  0.03448  0.001792  0.0008288  0.003293  0.6276  -0.6762
6.415e+09  0.7134  0.576  -0.01549  -0.02712  -0.01379  0.0007693  0.3103  -0.8324
6.416e+09  0.8963  0.269  0.03518  0.07052  -0.01397  0.02142  0.01122  -0.8962
6.418e+09  0.8988  -0.07967  -0.02603  -0.01033  0.01793  0.06584  -0.2593  -0.895
6.419e+09  0.8074  -0.3948  -0.0136  0.005222  0.02774  0.02883  -0.5855  -0.7563
6.42e+09  0.6399  -0.621  0.01219  -0.03341  0.005176  -0.02577  -0.7203  -0.5002
6.421e+09  0.3452  -0.8807  0.004411  0.01266  -0.01335  0.014  -0.8589  -0.1835
6.422e+09  0.05444  -0.8991  0.01779  -0.01428  -0.03013  -0.01541  -0.8487  0.09833
6.424e+09  -0.2326  -0.8726  0.02984  -0.02143  -0.0009319  -0.01598  -0.7937  0.4267
6.425e+09  -0.5692  -0.747  0.02296  -0.02855  -0.01101  0.02692  -0.605  0.5978
6.426e+09  -0.745  -0.465  -0.01564  -0.03173  0.01727  0.01459  -0.3387  0.7968
6.428e+09  -0.8927  -0.1831  0.0005934  -0.01639  0.01756  0.04704  -0.03103  0.8951
6.429e+09  -0.9153  0.1842  -0.0008923  0.04006  -0.03073  -0.0008686  0.2219  0.8493
6.43e+09  -0.7928  0.4271  -0.05437  0.002616  -0.004471  0.008107  0.484  0.6717
6.431e+09  -0.5724  0.6891  0.0123  -0.03655  -0.01393  0.0297  0.7274  0.4781
6.432e+09  -0.2959  0.843  -0.02413  0.02875  -0.0413  -0.02965  0.8764  0.2187
6.434e+09  0.05526  0.9527  0.0341  -0.005288  -0.0235  -0.05848  0.8625  -0.09991
6.435e+09  0.3504  0.834  -0.01527  -0.03131  0.02037  -0.00317  0.799  -0.3776
6.436e+09  0.6086  0.6689  0.007126  -0.05768  -0.0267  0.002037  0.5677  -0.5979
6.438e+09  0.799  0.4353  -0.04516  -0.03487  0.002031  -0.03466  0.3689  -0.8142
6.439e+09  0.874  0.06544  0.03226  0.004671  -0.01275  0.03881  0.04074  -0.8361
6.44e+09  0.8878  -0.2706  0.01746  -0.02665  0.04167  -0.01627  -0.2259  -0.7928
6.441e+09  0.6927  -0.5317  0.03372  -0.004704  -0.01038  -0.04626  -0.4662  -0.6492
6.442e+09  0.4908  -0.701  0.01106  -0.0009848  0.0648  0.01144  -0.7275  -0.4606
6.444e+09  0.2481  -0.8651  0.008661  -0.02591  -0.01558  0.005699  -0.8287  -0.2128
6.445e+09  -0.108  -0.9009  -0.01326  0.01062  0.01614  0.001796  -0.8446  0.08361
6.446e+09  -0.4607  -0.8267  -0.02395  -0.01025  0.001408  0.005988  -0.7715  0.3481
6.448e+09  -0.7022  -0.6133  -0.01882  -0.0002063  -0.02618  -0.00917  -0.5908  0.566
6.449e+09  -0.8331  -0.3413  -0.003355  0.04375  0.01043  0.006235  -0.3175  0.7923
6.45e+09  -0.8495  -0.05256  0.03504  0.05125  -0.01576  0.01944  -0.06219  0.7927
6.451e+09  -0.8081  0.2806  0.02684  -0.01389  0.01001  0.03307  0.2077  0.7704
6.452e+09  -0.6867  0.5255  0.01275  0.04789  0.05523  -0.02684  0.446  0.6175
6.454e+09  -0.3869  0.6744  0.0008419  -0.06063  0.01713  0.06569  0.6452  0.5238
6.455e+09  -0.1785  0.8352  0.009679  -0.003506  0.003818  0.01267  0.7972  0.1849
6.456e+09  0.1456  0.8871  0.007902  0.004184  0.003904  0.005333  0.8537  -0.09768
6.458e+09  0.414  0.7326  0.04758  -0.006278  -0.004545  -0.02685  0.7225  -0.3314
6.459e+09  0.6516  0.5774  0.0006329  -0.02633  0.07449  0.05895  0.5894  -0.5312
6.46e+09  0.788  0.2488  0.02111  -0.02394  -0.005208  -0.01693  0.321  -0.7127
6.461e+09  0.8614  -0.002663  0.01005  -0.01947  -0.004773  -0.01457  0.08218  -0.7616
6.462e+09  0.8349  -0.3152  -0.0005659  0.03292  0.02336  0.02291  -0.2096  -0.7856
6.464e+09  0.6183  -0.5249  -0.0008029  -0.00984  0.01695  0.0206  -0.5104  -0.6855
6.465e+09  0.4666  -0.7612  -0.03217  -0.0145  -0.02997  0.03804  -0.6694  -0.4999
6.466e+09  0.1403  -0.8628  0.02227  -0.003686  0.01155  0.01872  -0.7786  -0.1826
6.468e+09  -0.1736  -0.8522  0.01402  0.002299  -0.01118  0.005413  -0.849  0.07805
6.469e+09  -0.4103  -0.6976  -0.0027  0.007019  0.006964  -0.02274  -0.7295  0.3568
6.47e+09  -0.6775  -0.5176  0.03473  0.05055  0.006331  -0.02822  -0.5673  0.556
6.471e+09  -0.7955  -0.2579  0.01547  0.01877  -0.01077  0.01809  -0.2916  0.7329
6.472e+09  -0.846  0.02645  0.004922  0.001693  -0.02762  0.01538  -0.07641  0.7722
6.474e+09  -0.7918  0.3504  0.01926  0.02189  0.01955  0.02018  0.206  0.7777
6.475e+09  -0.6004  0.6029  0.00688  -0.0238  0.01439  -0.06735  0.4326  0.5969
6.476e+09  -0.4133  0.7625  0.02434  0.004174  -0.01126  0.01754  0.6791  0.4386
6.478e+09  -0.1025  0.8535  0.002478  0.01789  -0.00806  -0.03929  0.75  0.195
6.479e+09  0.242  0.8337  -0.01472  0.002678  0.03274  0.02172  0.7955  -0.0334
6.48e+09  0.4646  0.6956  -0.01512  -0.006672  -0.008506  -0.02799  0.7265  -0.3067
6.481e+09  0.6837  0.5269  0.02301  -0.01574  0.009099  -0.003625  0.5506  -0.5131
6.482e+09  0.8292  0.1888  0.005003  0.04907  -0.05482  0.03636  0.3308  -0.716
6.484e+09  0.8639  -0.07875  -0.01148  -0.006422  0.04293  0.02092  0.08385  -0.7465
6.485e+09  0.7717  -0.356  -0.0162  -0.006535  0.02999  -0.01401  -0.2569  -0.7385
6.486e+09  0.5844  -0.6019  -0.01953  0.003792  -0.0345  0.01995  -0.4599  -0.6521
6.488e+09  0.4764  -1.484  0.05732  -0.005104  -0.7053  -0.3039  -0.6163  -0.417
6.489e+09  0.08554  -0.8379  -0.01303  0.02191  0.01547  0.01484  -0.7301  -0.2206
6.49e+09  -0.2228  -0.8518  0.00542  -0.0142  -0.07409  -0.06243  -0.7788  0.08127
6.491e+09  -0.5113  -0.6829  -0.004366  -0.02531  -0.0114  -0.02233  -0.7025  0.3454
6.492e+09  -0.698  -0.4574  -0.001643  -0.02983  -0.03513  0.02901  -0.5451  0.5486
6.494e+09  -0.7448  -0.1663  0.02883  -0.05221  -0.07444  0.0227  -0.3163  0.6836
6.495e+09  -0.8047  0.05119  0.03895  -0.02552  -0.01433  0.01402  -0.02134  0.7332
6.496e+09  -0.7418  0.3819  -0.01184  0.006043  0.01229  0.0292  0.2439  0.7366
6.498e+09  -0.5985  0.6145  0.03902  0.01285  -3.897e-05  0.03871  0.4891  0.5639
6.499e+09  -0.3384  0.8093  -0.01209  -0.04357  0.02771  -0.001405  0.6318  0.4475
6.5e+09  0.2457  0.9047  0.01119  -0.02947  -0.04246  -0.03113  0.7359  0.1122
6.501e+09  0.2574  0.8072  0.01754  -0.0234  -0.02651  0.004776  0.7379  -0.1142
6.502e+09  0.5313  0.7198  -0.0156  0.01211  0.04061  0.01123  0.683  -0.3845
6.504e+09  0.7372  0.5013  0.01748  -0.005597  -0.01892  0.06153  0.5108  -0.5465
6.505e+09  0.8039  0.1969  0.01958  0.05066  0.03222  -0.02267  0.2815  -0.7396
6.506e+09  0.8444  -0.0759  -0.02357  0.002694  -0.01504  0.01146  -0.0006083  -0.7799
6.508e+09  0.7714  -0.4256  -0.03081  0.05129  0.034  0.03008  -0.2538  -0.7305
6.509e+09  0.5633  -0.6463  -0.01851  0.003937  -0.0167  -0.05151  -0.4451  -0.5778
6.51e+09  0.3595  -0.8129  0.0005068  0.005071  -0.005376  -0.0255  -0.6623  -0.3963
6.511e+09  0.05271  -0.8864  -0.04818  -0.0006498  0.002382  0.003654  -0.7485  -0.1411
6.512e+09  -0.2574  -0.8627  -0.06232  -0.01651  0.02239  -0.02248  -0.765  0.118
6.514e+09  -0.6086  -0.7167  0.03376  -0.01373  0.004374  0.02244  -0.6783  0.3622
6.515e+09  -0.775  -0.4313  0.006446  -0.006541  -0.01493  -0.07288  -0.4655  0.577
6.516e+09  -0.851  -0.163  0.02208  -0.003791  -0.003143  -0.04109  -0.2711  0.679
6.518e+09  -0.8698  0.1398  0.02082  -0.006903  0.009148  0.009191  -0.004108  0.6931
6.519e+09  -0.8426  0.4588  0.03401  0.03477  -0.05471  -0.01205  0.2557  0.6886
6.52e+09  -0.6071  0.7404  -0.009798  -0.003647  0.003786  -0.01689  0.5299  0.5563
6.521e+09  -0.332  0.877  0.01719  0.03109  -0.03484  0.03742  0.6554  0.3713
6.522e+09  -0.02055  0.9435  -0.02288  -0.03414  -0.01124  -0.0008501  0.7087  0.08
6.524e+09  0.3003  0.8767  0.007845  0.03018  0.009033  -0.02907  0.7146  -0.172
6.525e+09  0.5808  0.6756  -0.008514  -0.004115  -0.01756  0.02759  0.5994  -0.3998
6.526e+09  0.8343  0.4452  0.01964  -0.0009976  -0.01387  -0.006494  0.4298  -0.5554
6.528e+09  0.945  0.151  0.004722  0.01247  0.02561  -0.01668  0.2228  -0.6637
6.529e+09  0.8724  -0.156  0.00442  0.002441  -0.004518  0.05053  -0.06123  -0.6892
6.53e+09  0.7953  -0.5035  -0.05045  -0.01424  -0.05657  0.01293  -0.2612  -0.6532
6.531e+09  0.5811  -0.6605  -0.01555  0.01769  -0.02773  -0.008221  -0.455  -0.4699
6.532e+09  0.2956  -0.8772  -0.03641  0.03796  -0.007765  -0.04985  -0.5987  -0.2639
6.534e+09  -0.05889  -0.9676  -0.0383  0.01737  0.01163  0.0135  -0.6582  -0.07781
6.535e+09  -0.344  -0.8612  -0.04575  0.03144  0.04021  -0.04  -0.5915  0.1124
6.536e+09  -0.6324  -0.6476  0.01338  -0.03525  -0.02067  -0.006382  -0.5552  0.2823
6.538e+09  -0.8466  -0.4464  -0.0006768  0.001721  -0.0009461  0.04573  -0.4934  0.4769
6.539e+09  -0.8714  -0.1007  0.01449  -0.01031  0.02097  0.01671  -0.2589  0.5953
6.54e+09  -0.9671  0.2471  0.03233  -0.01512  0.009658  -0.03744  -0.03696  0.6799
6.541e+09  -0.8239  0.563  -0.02062  0.01395  -0.02777  0.03461  0.208  0.6677
6.542e+09  -0.547  0.8053  0.00128  0.00661  0.01618  -0.01506  0.4144  0.5903
6.544e+09  -0.2061  0.9453  -0.0272  0.01188  0.004837  -0.06338  0.6247  0.4291
6.545e+09  0.1041  0.9713  -0.01897  0.01354  0.03706  -0.004525  0.6939  0.1488
6.546e+09  0.4383  0.8407  0.01622  -0.008329  0.03082  -0.03652  0.6993  -0.06977
6.548e+09  0.7057  0.6838  0.01593  -0.0291  0.002099  -0.02295  0.669  -0.3504
6.549e+09  0.8628  0.4017  -0.01676  0.002081  0.006698  -0.007996  0.5066  -0.4932
6.55e+09  0.9614  -0.0008405  -0.02659  -0.007304  0.03165  0.01792  0.2901  -0.6931
