# Hz S RI R 50
6.25e+09  -0.5854  0.5599  0.00454  -0.03177  0.0162  0.05715  0.1559  0.4823
6.251e+09  -0.3232  0.7347  0.01058  0.01123  -0.02763  -0.02368  0.3879  0.39
6.252e+09  -0.09771  0.8555  -0.0002435  -0.009425  0.02036  -0.044  0.5585  0.2537
6.254e+09  0.1758  0.8165  0.001887  -0.01987  0.00338  0.04896  0.5959  0.04952
6.255e+09  0.3681  0.6872  0.01931  -0.01953  0.04192  0.01003  0.5938  -0.251
6.256e+09  0.6912  0.4707  0.009556  -0.01053  -0.04273  -0.01169  0.471  -0.4233
6.258e+09  0.7722  0.2407  0.007054  0.02241  0.04855  -0.03033  0.2419  -0.601
6.259e+09  0.7837  -0.0322  -0.008312  0.02909  -0.03222  -0.01758  0.01235  -0.6668
6.26e+09  0.6896  -0.3568  -0.005441  0.003006  0.03321  -0.02198  -0.2016  -0.6379
6.261e+09  0.64  -0.5552  -0.0279  -0.02333  -0.03082  0.01558  -0.4315  -0.5476
6.262e+09  0.4248  -0.7308  -0.01552  0.02569  0.02138  -0.005668  -0.6124  -0.3726
6.264e+09  0.08966  -0.8074  -0.01093  -0.01638  0.02466  0.01302  -0.6865  -0.1074
6.265e+09  -0.1747  -0.7888  -0.0204  -0.001893  0.01629  0.02672  -0.7249  0.1561
6.266e+09  -0.4175  -0.6399  -0.009107  -0.02451  -0.01668  -0.001854  -0.609  0.4176
6.268e+09  -0.6631  -0.4863  0.0361  -0.0108  -0.03376  0.06144  -0.436  0.5704
6.269e+09  -0.7842  -0.1863  0.02182  0.02153  0.02625  -0.01534  -0.239  0.696
6.27e+09  -0.8628  0.06046  0.0004963  0.01044  0.0011  -0.01968  0.08286  0.7462
6.271e+09  -0.7387  0.2655  0.006708  -0.001671  -0.06869  0.01201  0.3466  0.6834
6.272e+09  -0.6085  0.486  0.00285  -0.009941  -0.01538  -0.01529  0.5341  0.5137
6.274e+09  -0.3662  0.7143  -0.0007467  0.01804  -0.02574  0.03271  0.7012  0.3103
6.275e+09  -0.09816  0.7805  0.02007  -0.007086  -0.01019  0.05188  0.7709  0.05416
6.276e+09  0.2087  0.7595  -0.02086  -0.02355  -0.05344  -0.01881  0.7485  -0.2216
6.278e+09  0.4424  0.6077  -0.008337  -0.02305  0.03847  -0.01084  0.6079  -0.4365
6.279e+09  0.6234  0.4461  -0.001005  -0.005251  -0.04231  0.01906  0.4243  -0.6338
6.28e+09  0.7741  0.2261  0.007848  -0.03911  0.03561  0.008199  0.1762  -0.7371
6.281e+09  0.763  -0.05535  0.004595  -0.01142  0.002002  0.0393  -0.08645  -0.7726
6.282e+09  0.7141  -0.3137  0.02491  0.01502  -0.01135  0.006783  -0.3831  -0.6966
6.284e+09  0.5669  -0.5695  -0.02748  -4.009e-05  0.01418  0.003833  -0.5819  -0.529
6.285e+09  0.3165  -0.7114  -0.01737  -0.004189  -0.004685  -1.913e-05  -0.7187  -0.3087
6.286e+09  0.1186  -0.7838  0.02101  -0.006063  0.02085  0.03644  -0.7976  -0.001031
6.288e+09  -0.2249  -0.7604  -0.007544  0.004648  0.04191  -0.04035  -0.7681  0.26
6.289e+09  -0.4625  -0.6417  0.008881  -0.03346  -0.003431  0.04529  -0.5961  0.5137
6.29e+09  -0.6835  -0.4967  -0.005391  -0.006893  0.01745  -0.02392  -0.4118  0.6695
6.291e+09  -0.7623  -0.1563  -0.02145  -0.004759  -0.006461  -0.0466  -0.145  0.7908
6.292e+09  -0.8101  0.09799  0.02877  0.02224  0.01806  0.04665  0.1146  0.8035
6.294e+09  -0.7523  0.3469  0.02208  -0.003987  -0.009142  0.03835  0.4198  0.7034
6.295e+09  -0.5947  0.5561  0.01889  -0.003285  0.01023  -0.02007  0.6261  0.5241
6.296e+09  -0.3244  0.7402  0.02163  -0.0189  -0.04849  0.08949  0.7606  0.2731
6.298e+09  -0.1205  0.7988  0.01178  0.01552  0.04736  0.008531  0.832  -0.003977
6.299e+09  0.1945  0.7869  0.01105  0.02833  -0.02052  -0.011  0.7673  -0.3038
6.3e+09  0.4534  0.6141  -0.005698  0.0152  0.03196  0.006231  0.652  -0.5164
6.301e+09  0.6685  0.4142  -0.03526  0.02083  0.01503  -0.009273  0.4304  -0.7291
6.302e+09  0.7873  0.1952  -0.001783  0.01849  0.0472  -0.0006425  0.1574  -0.8236
6.304e+09  0.7833  -0.1105  -0.006114  0.006829  0.00537  0.03849  -0.1302  -0.8126
6.305e+09  0.7005  -0.33  0.01727  0.00486  -0.01029  0.03728  -0.403  -0.7534
6.306e+09  0.5513  -0.5892  0.003753  0.01501  -0.007584  0.006956  -0.6318  -0.5715
6.308e+09  0.3171  -0.7627  -0.01285  -0.0188  -0.03568  -0.01739  -0.8397  -0.3077
6.309e+09  0.04734  -0.7792  -0.04749  -0.005471  -0.01252  0.01688  -0.869  0.000715
6.31e+09  -0.2667  -0.7354  0.03641  0.008144  -0.03548  -0.008585  -0.8175  0.2918
6.311e+09  -0.5305  -0.6306  -0.007775  0.01078  -0.001184  0.0301  -0.6379  0.5248
6.312e+09  -0.6885  -0.4053  0.02818  -0.00966  -0.01374  0.03096  -0.4397  0.7436
6.314e+09  -0.7907  -0.1717  0.005005  -0.01022  0.01581  -0.04358  -0.1544  0.8773
6.315e+09  -0.8301  0.1244  -0.009962  0.01908  -0.0356  0.01461  0.1608  0.8649
6.316e+09  -0.6798  0.4238  -0.002767  0.0186  -0.01964  0.06981  0.4392  0.7563
6.318e+09  -0.523  0.6085  0.01028  0.00411  0.014  -0.02121  0.6876  0.5641
6.319e+09  -0.2226  0.7951  -0.0002696  -0.01141  0.02134  0.03857  0.8572  0.2855
6.32e+09  0.04429  0.835  -0.01094  0.01732  -0.03401  0.0002048  0.8746  -0.001923
6.321e+09  0.2404  0.7563  0.00468  -0.01837  -0.04733  0.03634  0.8237  -0.298
6.322e+09  0.5312  0.6479  -0.01492  0.009193  -0.004792  0.01906  0.6891  -0.5619
6.324e+09  0.7591  0.4076  -0.05355  -0.006891  0.003237  0.01534  0.4455  -0.7444
6.325e+09  0.8577  0.1314  0.0109  0.008723  -0.05035  -0.01851  0.1624  -0.9019
6.326e+09  0.8087  -0.1728  0.001795  0.003868  -0.006577  0.01237  -0.1445  -0.8909
6.328e+09  0.6777  -0.4382  0.002902  -0.0006245  0.02581  -0.04488  -0.4761  -0.7882
6.329e+09  0.4556  -0.674  -0.002931  0.004782  -0.004964  -0.003732  -0.6867  -0.6008
6.33e+09  0.2344  -0.8131  -0.02135  0.01403  -0.01076  -0.01303  -0.8513  -0.3165
6.331e+09  -0.02315  -0.8514  -0.009362  -0.02145  0.005251  0.05063  -0.9058  -0.008662
6.332e+09  -0.3432  -0.7519  0.01684  0.00896  0.02742  -0.01472  -0.876  0.2655
6.334e+09  -0.5463  -0.597  0.01423  0.001532  -0.007647  0.04364  -0.711  0.5383
6.335e+09  -0.7633  -0.3333  -0.01686  -0.02512  0.02539  0.04539  -0.4838  0.7527
6.336e+09  -0.8631  -0.06684  -0.01491  0.00551  0.02118  -0.002356  -0.2165  0.8967
6.338e+09  -0.8135  0.2278  0.01346  -0.01364  0.04264  -0.02362  0.08729  0.9297
6.339e+09  -0.6929  0.4879  0.01428  -0.009475  0.0201  0.0006024  0.4121  0.8179
6.34e+09  -0.4472  0.6864  0.02871  0.02129  -0.03167  0.009769  0.6901  0.6254
6.341e+09  -0.199  0.8099  0.01798  0.005189  0.02701  -0.04235  0.8474  0.3798
6.342e+09  0.1122  0.8533  -0.01135  0.01082  0.03421  0.008715  0.8958  0.06829
6.344e+09  0.4185  0.7197  -0.00284  0.003196  0.01363  0.03562  0.8754  -0.2848
6.345e+09  0.6151  0.52  -0.009059  -0.007103  -0.03504  -0.01964  0.7351  -0.5639
6.346e+09  0.8271  0.3014  -0.009102  -0.01954  -0.01209  -0.013  0.498  -0.7846
6.348e+09  0.8428  -0.03678  -0.01972  -0.03436  -0.01161  0.04218  0.2053  -0.9328
6.349e+09  0.7786  -0.3016  -0.0007733  -0.01784  -0.01468  0.03319  -0.09699  -0.9614
6.35e+09  0.6667  -0.5814  -0.009962  0.007474  -0.01409  0.03747  -0.4368  -0.8093
6.351e+09  0.4259  -0.6911  0.03122  0.006791  0.001485  -0.00812  -0.6448  -0.6639
6.352e+09  0.151  -0.8242  0.01734  0.01502  0.03591  0.03508  -0.7997  -0.3695
6.354e+09  -0.1903  -0.8308  0.001171  -0.002392  -0.05825  -0.01952  -0.9694  -0.07221
6.355e+09  -0.4316  -0.75  0.009634  -0.03595  0.006568  0.01249  -0.8739  0.2389
6.356e+09  -0.6936  -0.4975  -0.02688  -0.003482  -0.02276  0.004704  -0.7259  0.5775
6.358e+09  -0.8293  -0.2763  -0.03411  0.02503  -0.02345  0.0343  -0.5299  0.7663
6.359e+09  -0.8615  0.04987  0.007016  0.003323  -0.00393  0.02918  -0.2172  0.9353
6.36e+09  -0.7464  0.3344  0.02049  0.001212  -0.0197  0.07238  0.07678  0.957
6.361e+09  -0.6117  0.5357  -0.01015  0.02192  0.01376  0.005142  0.4331  0.8274
6.362e+09  -0.3891  0.7448  -0.006988  -0.0004783  0.01333  0.04472  0.6555  0.6548
6.364e+09  -0.08948  0.8487  -0.02052  -0.01247  -0.02918  0.02638  0.8493  0.395
6.365e+09  0.2123  0.8415  -0.0211  0.01069  0.02858  -0.001785  0.9802  0.07093
6.366e+09  0.5418  0.6782  0.01455  -0.02672  -0.02312  -0.01552  0.9275  -0.1973
6.368e+09  0.7156  0.4579  0.01888  -0.01562  0.05806  0.003516  0.7798  -0.5432
6.369e+09  0.8036  0.2395  -0.001813  0.001219  0.001183  0.02737  0.5505  -0.7765
6.37e+09  0.841  -0.067  -0.01592  0.02689  -0.0114  -0.02907  0.2343  -0.9114
6.371e+09  0.7982  -0.4429  -0.01135  0.06465  -0.03239  -0.02827  -0.0528  -0.9061
6.372e+09  0.5389  -0.62  0.02337  -0.01032  -0.01105  0.02636  -0.3971  -0.8505
6.374e+09  0.354  -0.7938  0.01937  0.02773  0.02828  0.01584  -0.6259  -0.7061
6.375e+09  0.02993  -0.8264  0.00307  -0.009833  0.01266  -0.0175  -0.8416  -0.4012
6.376e+09  -0.2453  -0.7942  -0.001937  0.004862  -0.001457  -0.03489  -0.9379  -0.08743
6.378e+09  -0.525  -0.6316  0.04041  0.0342  0.005619  -0.000148  -0.9216  0.223
6.379e+09  -0.7367  -0.4307  -0.01624  0.005117  -0.007796  -0.02476  -0.817  0.5085
6.38e+09  -0.8761  -0.1581  -0.01155  -0.003631  0.029  -0.002732  -0.5428  0.7674
6.381e+09  -0.8546  0.1659  -0.03996  0.02894  -0.02577  -0.01476  -0.2335  0.8675
6.382e+09  -0.7344  0.4244  0.01526  -0.03714  -0.01208  -0.0173  0.07559  0.986
6.384e+09  -0.5359  0.6692  0.005881  0.02262  0.02781  0.0008006  0.3697  0.8515
6.385e+09  -0.2697  0.8326  0.007071  0.008773  -0.04183  -0.01341  0.6249  0.6574
6.386e+09  0.04985  0.8422  0.02617  0.007923  -0.004607  0.02852  0.8763  0.4199
6.388e+09  0.278  0.753  0.01836  -0.01965  -0.02405  -0.02273  0.9326  0.1593
6.389e+09  0.5703  0.6423  -0.001909  0.01516  0.03137  0.00211  0.9403  -0.1917
6.39e+09  0.7414  0.4183  0.007773  -0.04261  -0.02558  -0.007811  0.7658  -0.4508
6.391e+09  0.8261  0.0624  0.01458  -0.01508  -0.02977  0.0305  0.5606  -0.7386
6.392e+09  0.8452  -0.1725  -0.01295  0.03117  -0.01945  -0.0005908  0.3246  -0.8746
6.394e+09  0.7263  -0.471  -0.004551  0.002576  -0.01565  -0.03103  -0.05726  -0.9218
6.395e+09  0.5076  -0.6321  0.002422  -0.008494  -0.03071  0.004281  -0.3128  -0.8769
6.396e+09  0.2551  -0.7763  -0.005384  0.01909  -0.01634  -0.01406  -0.6127  -0.6796
6.398e+09  -0.04294  -0.8504  0.0214  0.03681  -0.002795  -0.01106  -0.8382  -0.4611
6.399e+09  -0.4107  -0.7615  -0.01211  -0.01667  -0.02036  0.03209  -0.8624  -0.149
6.4e+09  -0.5945  -0.5985  -0.01364  0.0006813  -0.005595  -0.007742  -0.9043  0.1634
6.401e+09  -0.8096  -0.3413  -0.0301  0.01007  -0.004185  0.004728  -0.8038  0.4549
6.402e+09  -0.9058  -0.08575  0.007716  -0.02858  -0.03278  0.04646  -0.6325  0.7226
6.404e+09  -0.7964  0.2215  0.02301  0.005366  0.01544  0.01381  -0.3346  0.8734
6.405e+09  -0.7242  0.5052  0.01228  0.04542  0.01006  -0.03916  -0.03106  0.8964
6.406e+09  -0.4808  0.7242  -0.03883  -0.03006  -0.0147  0.02579  0.3537  0.8784
6.408e+09  -0.2519  0.8567  -0.01483  0.001856  -0.006657  0.01389  0.5884  0.7092
6.409e+09  0.0725  0.8654  -0.006865  0.01586  8.719e-05  -0.04683  0.8172  0.4901
6.41e+09  0.3912  0.7742  0.00944  -0.02595  -0.01567  0.02252  0.9008  0.1614
6.411e+09  0.6378  0.5389  -0.01365  -0.008358  -0.01448  0.002505  0.8702  -0.1281
6.412e+09  0.7844  0.2915  0.01492  -0.0149  -0.0007992  -0.007508  0.822  -0.4144
6.414e+09  0.8735  0.0185  0.003126  -0.01281  0.02223  -0.04931  0.5964  -0.6761
6.415e+09  0.8119  -0.2468  0.0321  0.01004  0.04186  -0.03252  0.3242  -0.8291
6.416e+09  0.6698  -0.5188  0.02282  -0.02442  0.03696  0.03178  0.05479  -0.8933
6.418e+09  0.444  -0.6954  -0.04377  -0.0282  -0.004088  -0.01173  -0.2705  -0.8391
6.419e+09  0.2181  -0.8039  0.04004  0.01722  -0.01532  -0.01952  -0.4957  -0.712
6.42e+09  -0.1448  -0.8104  -0.002117  0.04742  0.06851  -0.004021  -0.7493  -0.4851
6.421e+09  -0.4115  -0.7545  0.007814  -0.0223  -0.03789  -0.04077  -0.8663  -0.2063
6.422e+09  -0.6429  -0.5343  -0.01506  -0.01381  -0.04655  0.01363  -0.86  0.1035
6.424e+09  -0.7353  -0.3526  -0.03572  -0.03655  0.002486  -0.0003386  -0.793  0.3653
6.425e+09  -0.7954  -0.05005  0.01185  0.008098  -0.006715  0.02148  -0.587  0.6828
6.426e+09  -0.8341  0.2917  -0.02293  -0.01394  -0.01367  -0.03437  -0.3323  0.8332
6.428e+09  -0.6796  0.542  -0.0113  -0.005909  -0.01491  0.0006108  -0.06651  0.8748
6.429e+09  -0.4202  0.6954  0.05944  -0.0007171  -0.02886  -0.02178  0.3073  0.8485
6.43e+09  -0.159  0.7945  0.03867  -0.009373  0.04611  0.01091  0.5251  0.7154
6.431e+09  0.1322  0.8122  -0.03352  -0.02377  -0.03965  0.02752  0.696  0.4531
6.432e+09  0.4062  0.6928  -0.001431  -0.006561  -0.02847  0.03592  0.8338  0.2417
6.434e+09  0.6231  0.5413  0.007514  0.004145  -0.02592  0.03411  0.8576  -0.07718
6.435e+09  0.7856  0.2903  0.005337  0.04136  0.008608  0.0271  0.8015  -0.366
6.436e+09  0.835  0.01238  0.01443  0.05162  -0.02615  -0.003129  0.5787  -0.5997
6.438e+09  0.7992  -0.2149  -0.01035  -0.01208  0.003144  -0.02374  0.3504  -0.7299
6.439e+09  0.6555  -0.5627  -0.009984  0.04097  -0.01005  -0.01063  0.07066  -0.8645
6.44e+09  0.4088  -0.7622  0.003155  0.01008  -0.006241  -0.007268  -0.2415  -0.7944
6.441e+09  0.1492  -0.8379  0.005935  -0.01907  -0.062  -0.01635  -0.5279  -0.6976
6.442e+09  -0.2208  -0.8442  0.001886  0.03753  0.01874  0.02688  -0.6866  -0.4541
6.444e+09  -0.4351  -0.7407  -0.003446  -0.0106  0.06201  0.01058  -0.8035  -0.2182
6.445e+09  -0.66  -0.5224  -0.005454  -0.01322  0.05044  0.01053  -0.8702  0.08096
6.446e+09  -0.7585  -0.3073  0.01749  -0.00273  0.01594  0.002228  -0.8044  0.3546
6.448e+09  -0.8186  0.007117  0.006448  0.01614  -0.007473  0.04558  -0.5646  0.6257
6.449e+09  -0.801  0.2833  -0.01893  -0.01767  0.0378  0.01755  -0.3294  0.7757
6.45e+09  -0.6553  0.5038  -0.02247  -0.004387  -0.08617  0.01063  -0.06627  0.856
6.451e+09  -0.3975  0.7183  0.007106  0.03155  -0.0005543  0.03378  0.2036  0.8515
6.452e+09  -0.09609  0.8325  0.01065  -0.01112  0.004648  -0.009945  0.4755  0.654
6.454e+09  0.1569  0.8141  -0.04659  -0.0101  -0.007516  -0.001308  0.597  0.4194
6.455e+09  0.4629  0.7611  -0.003683  0.005275  0.03754  -0.01994  0.7734  0.1938
6.456e+09  0.669  0.5313  -0.04983  0.01206  -0.002818  -0.04379  0.8415  -0.05779
6.458e+09  0.7671  0.2666  -0.02867  0.03414  -0.01222  -0.0213  0.7607  -0.3598
6.459e+09  0.8615  0.005243  0.009499  0.005658  -0.001879  0.006335  0.5833  -0.6189
6.46e+09  0.7987  -0.3298  -0.002272  -0.0002091  0.02524  0.04117  0.3435  -0.7131
6.461e+09  0.6325  -0.5794  0.004725  0.00463  0.006068  -0.003928  0.06585  -0.7395
6.462e+09  0.4479  -0.7182  -0.01208  0.07126  0.01245  0.01039  -0.1764  -0.776
6.464e+09  0.1459  -0.7665  -0.01086  0.003053  0.04131  -0.003955  -0.4374  -0.6639
6.465e+09  -0.1848  -0.8296  0.04471  -0.01787  -0.05091  -0.008072  -0.679  -0.5081
6.466e+09  -0.4725  -0.7296  -0.0002477  0.01322  0.03875  -0.04226  -0.7624  -0.1929
6.468e+09  -0.6477  -0.4958  0.02933  0.01676  -0.02834  0.00263  -0.7599  0.06235
6.469e+09  -0.7909  -0.2462  -0.007545  -0.03346  0.01766  0.008838  -0.717  0.3097
6.47e+09  -0.8101  0.02256  0.01403  -0.02238  0.01864  0.009061  -0.5883  0.5938
6.471e+09  -0.7854  0.3732  -0.036  -0.02964  0.009163  0.03306  -0.3049  0.6977
6.472e+09  -0.621  0.5227  -0.01013  0.0308  -0.02482  0.04153  -0.06793  0.745
6.474e+09  -0.3415  0.679  0.008248  0.04584  -0.01164  -0.0378  0.2167  0.7856
6.475e+09  -0.1332  0.8594  0.05087  0.006494  -0.01597  -0.02742  0.4468  0.65
6.476e+09  0.1835  0.7895  -0.04507  0.0003986  -0.02006  0.008973  0.6297  0.4933
6.478e+09  0.448  0.7269  0.008894  0.009665  0.04527  0.01668  0.7464  0.2313
6.479e+09  0.6524  0.5729  -0.02047  -0.01165  0.0315  -0.03167  0.7746  -0.06766
6.48e+09  0.7712  0.2498  -0.01748  -0.02678  0.04197  -0.05294  0.7111  -0.3145
6.481e+09  0.8277  0.01989  0.003696  0.004678  -0.02658  -0.02243  0.544  -0.5355
6.482e+09  0.7964  -0.3241  -0.03763  0.0007623  0.02232  -0.07032  0.333  -0.6857
6.484e+09  0.6513  -0.5786  0.03545  -0.0006837  -0.01723  0.02983  0.06443  -0.7399
6.485e+09  0.3864  -0.7594  -0.03658  0.009992  0.03002  -0.02269  -0.2332  -0.7323
6.486e+09  0.1069  -0.8658  -0.00408  -0.003018  -0.02268  -0.00474  -0.4315  -0.6447
6.488e+09  -0.08183  -0.09925  -0.01436  -0.01364  -0.6193  -0.3895  -0.597  -0.4353
6.489e+09  -0.5029  -0.6954  0.01816  -0.03486  0.05021  -0.02067  -0.745  -0.1702
6.49e+09  -0.6668  -0.5645  0.009387  0.04726  0.004699  -0.06722  -0.8076  0.1109
6.491e+09  -0.8834  -0.23  0.007068  -0.01966  -0.0003167  -0.02259  -0.6665  0.3159
6.492e+09  -0.8442  0.02471  0.01699  0.007616  0.007316  -0.01321  -0.5366  0.5555
6.494e+09  -0.7141  0.423  -0.02074  0.011  -0.01415  0.06356  -0.3262  0.7411
6.495e+09  -0.6632  0.5983  -0.02086  -0.03363  0.01722  -0.02988  -0.02847  0.7826
6.496e+09  -0.3768  0.7735  -0.04452  0.01842  -0.01395  0.006952  0.2057  0.7178
6.498e+09  -0.1144  0.8595  0.02548  0.01045  -0.05716  0.002973  0.4789  0.6153
6.499e+09  0.1579  0.8882  0.008029  0.005235  -0.008031  0.02749  0.6315  0.4407
6.5e+09  0.4471  0.749  -0.0402  -0.02197  0.02246  -0.01375  0.7319  0.1925
6.501e+09  0.7019  0.4855  0.02602  0.02791  -0.01748  0.004927  0.7264  -0.1047
6.502e+09  0.8341  0.2638  -0.004567  0.01755  -0.007832  0.04539  0.6949  -0.3607
6.504e+09  0.8916  -0.05191  -0.002578  -0.002044  0.0269  0.01866  0.5345  -0.567
6.505e+09  0.7569  -0.3643  0.04668  0.02567  -0.05558  0.009763  0.2852  -0.715
6.506e+09  0.6266  -0.5874  -0.0667  0.01145  -0.003496  0.0176  0.0251  -0.7323
6.508e+09  0.4225  -0.7526  0.007826  -0.0236  0.03358  -0.0009808  -0.241  -0.73
6.509e+09  0.09764  -0.919  -0.002358  0.005847  0.02827  0.06855  -0.4638  -0.5582
6.51e+09  -0.2294  -0.8382  0.004254  0.001547  -0.008486  -0.006312  -0.6071  -0.3682
6.511e+09  -0.4928  -0.7054  -0.01997  -0.03023  0.001082  0.006581  -0.7858  -0.1453
6.512e+09  -0.7261  -0.4679  0.01664  0.0265  0.01417  0.02088  -0.7441  0.1451
6.514e+09  -0.8618  -0.2144  0.04902  0.006698  0.002577  0.05671  -0.6577  0.3618
6.515e+09  -0.9178  0.07287  -0.05617  0.03515  -0.004251  0.02868  -0.4576  0.594
6.516e+09  -0.8243  0.4059  0.01177  -0.002976  -0.004254  -0.03622  -0.2458  0.6993
6.518e+09  -0.6182  0.6887  -0.02871  0.01878  0.01344  0.03919  -0.006172  0.7672
6.519e+09  -0.3052  0.8521  0.01072  0.01068  0.0002056  0.0123  0.2719  0.6905
6.52e+09  -0.08559  0.8966  0.04153  -0.03542  -0.02487  0.04236  0.4848  0.5437
6.521e+09  0.2434  0.8881  -0.007929  0.000202  0.02119  0.03824  0.6229  0.3235
6.522e+09  0.5426  0.7208  -0.000159  -0.01785  0.04359  -0.02551  0.7516  0.1088
6.524e+09  0.7904  0.5022  0.006523  -0.002326  -0.00167  0.008653  0.7033  -0.1597
6.525e+09  0.9318  0.1669  0.02174  -0.01344  -0.04458  0.03363  0.6325  -0.3902
6.526e+09  0.8925  -0.1172  0.003461  0.0214  0.02585  0.03679  0.4199  -0.5856
6.528e+09  0.8255  -0.4171  0.01802  -0.0164  -0.03529  -0.01886  0.1993  -0.6615
6.529e+09  0.5933  -0.7128  -0.002326  -0.0015  0.01352  0.01263  -0.06403  -0.6817
6.53e+09  0.2852  -0.8214  0.009835  0.008605  0.0131  -0.03271  -0.2922  -0.6179
6.531e+09  0.01965  -0.8743  -0.02063  -0.01002  0.005859  -0.03386  -0.4608  -0.4784
6.532e+09  -0.2758  -0.8818  -0.003239  0.009091  -0.04333  0.01161  -0.5791  -0.2702
6.534e+09  -0.644  -0.6826  0.02165  -0.02087  0.004292  0.00333  -0.6721  -0.06688
6.535e+09  -0.7648  -0.4907  0.01142  0.01721  -0.01261  0.003484  -0.6272  0.1267
6.536e+09  -0.9108  -0.1752  0.02773  -0.01949  -0.07383  0.01087  -0.5688  0.3086
6.538e+09  -0.8789  0.2093  0.01558  0.006272  0.04748  -0.004303  -0.4082  0.5017
6.539e+09  -0.7711  0.4865  -0.02688  -0.05092  0.02034  -0.02765  -0.2713  0.628
6.54e+09  -0.5932  0.7227  0.001075  0.02697  -0.01493  -0.04066  -0.09252  0.672
6.541e+09  -0.3122  0.8837  -0.01588  -0.00254  0.001985  0.0007542  0.2152  0.7065
6.542e+09  0.1095  0.94  0.01675  0.01227  0.0177  0.001204  0.4408  0.5832
6.544e+09  0.3413  0.9182  -0.01958  -0.03192  0.01723  -0.02062  0.6193  0.4244
6.545e+09  0.6609  0.6307  0.02058  0.01913  -0.01935  -0.01016  0.7223  0.1614
6.546e+09  0.806  0.375  -0.00535  0.03275  -0.02658  -0.06458  0.6961  -0.02865
6.548e+09  0.9446  0.07428  -0.0003073  0.01471  0.0655  -0.01087  0.6446  -0.3309
6.549e+09  0.8693  -0.2064  -0.02668  0.01194  0.03093  0.01718  0.5206  -0.5463
6.55e+09  0.7316  -0.5482  0.03077  0.03672  -0.003554  -0.01815  0.2609  -0.6767
