# Hz S RI R 50
6.25e+09  -0.6161  0.5332  0.00235  -0.01084  0.007658  0.007032  0.1566  0.4824
6.251e+09  -0.3705  0.7443  -0.007528  -0.01643  -0.01593  0.05587  0.3841  0.4095
6.252e+09  -0.1059  0.795  -0.001079  -0.009603  0.01926  0.06603  0.546  0.2668
6.254e+09  0.1943  0.7647  -0.02681  -0.02034  0.03698  0.01389  0.6186  0.01732
6.255e+09  0.3759  0.7095  -0.01461  0.01959  0.03685  -0.005243  0.6005  -0.1832
6.256e+09  0.6893  0.4992  -0.0194  0.02112  0.05098  0.001803  0.4244  -0.4373
6.258e+09  0.7915  0.2345  0.06795  0.02493  0.04851  -0.01171  0.3002  -0.5943
6.259e+09  0.7907  -0.02391  0.01159  0.005976  0.05166  -0.0309  0.03732  -0.6704
6.26e+09  0.7192  -0.2592  -0.01732  -0.01473  -0.001913  0.007233  -0.2266  -0.6814
6.261e+09  0.5566  -0.5411  -0.02139  0.03103  -0.04088  0.03362  -0.4099  -0.5422
6.262e+09  0.4278  -0.6939  -0.01682  -0.009914  -0.05004  0.008806  -0.6329  -0.3336
6.264e+09  0.09371  -0.7999  0.02598  -0.00843  0.002447  -0.03976  -0.7284  -0.1142
6.265e+09  -0.1489  -0.7538  -0.01313  -0.01001  -0.02519  -0.00293  -0.6749  0.1759
6.266e+09  -0.4813  -0.6428  -0.009417  0.00963  0.01947  -0.003228  -0.6345  0.4152
6.268e+09  -0.634  -0.4823  0.03656  0.01132  0.04305  0.01185  -0.4662  0.6253
6.269e+09  -0.7756  -0.2514  0.006937  -0.00717  -0.006895  -0.02558  -0.2219  0.7401
6.27e+09  -0.7893  0.1068  0.006233  -0.01499  -0.01119  0.01953  0.04678  0.7186
6.271e+09  -0.7703  0.2747  0.003549  -0.01837  -0.002111  0.02185  0.3207  0.7116
6.272e+09  -0.5992  0.5185  0.02942  0.0144  -0.01316  0.07655  0.5402  0.5285
6.274e+09  -0.2715  0.6749  0.004508  -0.002899  0.03585  0.01628  0.6855  0.2808
6.275e+09  -0.08317  0.8129  0.05169  -0.01932  0.003218  0.02062  0.7599  -0.008975
6.276e+09  0.1884  0.7557  0.01666  0.01082  0.006711  -0.03545  0.6941  -0.2313
6.278e+09  0.4514  0.6679  -0.01892  0.00162  0.05585  0.01463  0.5943  -0.4542
6.279e+09  0.612  0.4792  -0.01298  0.03154  0.01846  0.02484  0.4358  -0.6666
6.28e+09  0.789  0.2227  -0.004484  0.003801  -0.01804  -0.01671  0.1472  -0.7714
6.281e+09  0.7806  -0.1013  -0.0117  0.01143  0.01125  -0.01995  -0.108  -0.7565
6.282e+09  0.7431  -0.3814  0.003705  -0.03645  -0.03471  -0.02297  -0.3805  -0.7185
6.284e+09  0.5831  -0.5995  -0.01509  -0.01765  0.07416  -0.0102  -0.5817  -0.5158
6.285e+09  0.3391  -0.7037  -0.01422  -0.02014  -0.01049  -0.01895  -0.7212  -0.2623
6.286e+09  0.1097  -0.7982  0.01417  0.03364  0.003377  0.01852  -0.7638  -0.02794
6.288e+09  -0.2012  -0.7629  0.006107  -0.01218  -0.05742  0.03112  -0.7753  0.2196
6.289e+09  -0.4246  -0.7444  0.009046  0.007395  -0.02335  0.04478  -0.6201  0.4683
6.29e+09  -0.673  -0.4769  0.01097  0.01085  0.002348  0.04306  -0.4207  0.6851
6.291e+09  -0.7799  -0.2082  -0.003416  -0.01179  0.004283  0.001395  -0.1522  0.806
6.292e+09  -0.8274  0.07079  -0.021  -0.03505  0.03709  0.004293  0.1631  0.8054
6.294e+09  -0.7213  0.3005  -0.01801  -0.00901  0.02647  -0.03554  0.3752  0.7266
6.295e+09  -0.584  0.5609  -0.02125  -0.006598  -0.05145  0.08121  0.6275  0.5076
6.296e+09  -0.3874  0.7183  0.01932  -0.03256  -0.002015  0.01674  0.7392  0.2658
6.298e+09  -0.02486  0.7571  -0.01036  -0.01471  0.02375  -0.04827  0.8163  0.03199
6.299e+09  0.1983  0.7859  0.02505  -0.03499  -0.006149  0.03054  0.7695  -0.2412
6.3e+09  0.4824  0.6251  -0.02406  0.02577  0.001768  -0.006265  0.6387  -0.5169
6.301e+09  0.6489  0.4069  -0.03441  0.004723  0.01699  -0.003531  0.4371  -0.7392
6.302e+09  0.8121  0.1977  -0.02133  -0.0149  -0.04182  -0.00212  0.1826  -0.8293
6.304e+09  0.7513  -0.1163  0.007536  0.002402  0.01166  -0.04728  -0.1124  -0.8326
6.305e+09  0.7437  -0.3374  -0.01684  0.02166  0.02699  -0.03595  -0.4437  -0.7347
6.306e+09  0.5268  -0.5687  0.02285  0.01217  0.0005294  -0.02554  -0.6497  -0.5717
6.308e+09  0.3447  -0.741  -0.01893  -0.003578  0.0479  0.01182  -0.7889  -0.3066
6.309e+09  0.05231  -0.7951  0.002682  -0.007078  0.001504  0.03089  -0.8836  -0.02255
6.31e+09  -0.2262  -0.8016  -0.007805  0.02458  0.0353  -0.01028  -0.8028  0.2744
6.311e+09  -0.5289  -0.6189  0.008965  0.008013  -0.01137  0.02508  -0.6689  0.5355
6.312e+09  -0.7158  -0.4366  -0.007316  -0.03286  -0.05512  -0.0397  -0.4621  0.731
6.314e+09  -0.776  -0.1764  0.04004  -0.007419  0.04096  0.04254  -0.1553  0.8965
6.315e+09  -0.7931  0.1531  0.007725  -0.01064  -0.03083  -0.0004539  0.1461  0.8867
6.316e+09  -0.706  0.3878  0.03745  -0.001571  -0.006295  -0.006131  0.4351  0.7593
6.318e+09  -0.5654  0.6045  0.01583  -0.015  0.02196  0.009088  0.6649  0.5871
6.319e+09  -0.2838  0.7609  0.0331  0.01426  -0.001619  -0.01972  0.8104  0.2812
6.32e+09  0.02964  0.8434  0.0491  -0.03472  -0.03367  -0.04199  0.8962  0.01204
6.321e+09  0.3237  0.7321  -0.00289  -0.01805  -0.01599  -0.02848  0.8398  -0.2676
6.322e+09  0.5255  0.5876  0.02326  -0.02338  -0.0277  0.03293  0.7145  -0.5344
6.324e+09  0.7453  0.361  -0.01591  0.007864  -0.02497  0.015  0.4386  -0.763
6.325e+09  0.8428  0.1276  -0.002797  -0.003046  -0.005877  0.0638  0.185  -0.8761
6.326e+09  0.7915  -0.1546  0.005716  -0.03045  -0.04468  0.0143  -0.1385  -0.8398
6.328e+09  0.6795  -0.4357  -0.01304  -0.01104  0.0006221  0.005548  -0.4173  -0.8158
6.329e+09  0.4914  -0.6335  0.008155  -0.01386  0.05679  0.01853  -0.6741  -0.5742
6.33e+09  0.2309  -0.734  0.01245  0.007438  -0.03738  0.04622  -0.8174  -0.3796
6.331e+09  -0.08095  -0.853  -0.02242  0.0128  0.01347  -0.003732  -0.9162  -0.03268
6.332e+09  -0.336  -0.7405  -0.02638  0.01443  0.003451  -0.01049  -0.8487  0.2557
6.334e+09  -0.5728  -0.5586  -0.008737  -0.02406  -0.01261  0.0676  -0.7089  0.5491
6.335e+09  -0.7341  -0.2955  -0.005261  -0.006034  0.06087  -0.0339  -0.4814  0.7846
6.336e+09  -0.7763  -0.05516  -0.002682  -0.008497  0.002045  -0.016  -0.2057  0.9203
6.338e+09  -0.7855  0.2231  0.005744  0.02384  0.01325  -0.03899  0.1621  0.9229
6.339e+09  -0.6898  0.4392  -0.03059  0.003054  0.03356  0.00542  0.4645  0.8187
6.34e+09  -0.474  0.7315  2.324e-05  -0.02165  -0.008323  -0.005571  0.6578  0.615
6.341e+09  -0.1657  0.825  -0.03062  0.01303  -0.02253  -0.002448  0.866  0.3622
6.342e+09  0.1533  0.8263  0.0009578  0.01682  -0.03722  -0.0294  0.9229  0.01481
6.344e+09  0.4185  0.7319  0.0224  -0.005262  -0.03279  0.0115  0.8609  -0.3017
6.345e+09  0.6294  0.5375  -0.0004134  -0.01574  0.04221  -0.001508  0.7233  -0.5576
6.346e+09  0.784  0.2939  -0.003331  -0.01966  -0.006099  -0.01168  0.4869  -0.7936
6.348e+09  0.8478  0.03218  -0.01236  0.001415  0.02428  -0.01444  0.2305  -0.9048
6.349e+09  0.7931  -0.2632  -0.02025  0.02102  0.03302  0.03559  -0.09847  -0.9323
6.35e+09  0.6024  -0.5279  0.0007302  0.008418  -0.01738  -0.01588  -0.4233  -0.8234
6.351e+09  0.3953  -0.7415  -0.02717  0.009991  0.008323  0.05285  -0.7064  -0.661
6.352e+09  0.189  -0.8291  0.02967  -0.02882  0.008458  0.004225  -0.8577  -0.381
6.354e+09  -0.1372  -0.8428  -0.002175  0.003746  -0.01379  -0.03518  -0.922  -0.07903
6.355e+09  -0.4859  -0.7381  0.005171  0.02275  -0.01156  -0.00885  -0.9309  0.2698
6.356e+09  -0.6913  -0.5094  0.02168  -0.007478  -0.02154  -0.01253  -0.7906  0.5161
6.358e+09  -0.806  -0.2694  -0.03132  0.0002878  -0.02868  -0.04461  -0.5368  0.7729
6.359e+09  -0.855  0.04195  0.01385  -0.001471  8.44e-05  0.009378  -0.2148  0.923
6.36e+09  -0.7938  0.3792  0.009146  -0.01137  -0.04128  -0.04725  0.07165  0.9353
6.361e+09  -0.6144  0.5486  -0.0002749  -0.03203  -0.01248  0.01177  0.4396  0.8733
6.362e+09  -0.3493  0.7425  0.02872  0.02551  -0.01303  -0.006921  0.6916  0.6442
6.364e+09  -0.04475  0.8301  -0.002978  0.01829  -0.0004258  -0.0005061  0.8519  0.4198
6.365e+09  0.2356  0.8016  -0.04849  0.03028  0.05182  0.009149  0.9969  0.07706
6.366e+09  0.5257  0.6873  -0.01631  -0.008965  0.01494  0.02095  0.8971  -0.2591
6.368e+09  0.7168  0.4822  -0.01628  -0.01646  0.0122  -0.01497  0.7625  -0.5497
6.369e+09  0.8439  0.1906  -0.02709  -0.004424  -0.01791  -0.02573  0.5046  -0.758
6.37e+09  0.8269  -0.09602  0.001723  0.01623  -0.01756  -0.009065  0.2536  -0.8974
6.371e+09  0.7407  -0.418  -0.02205  -0.003604  -0.006788  0.0378  -0.06008  -0.9057
6.372e+09  0.5612  -0.6509  -0.008426  0.006652  -0.008929  -0.005413  -0.411  -0.8601
6.374e+09  0.3248  -0.8191  0.0004038  0.03491  -0.008606  0.01475  -0.677  -0.6502
6.375e+09  -0.03365  -0.8603  0.01341  0.005021  -0.00685  -0.0221  -0.831  -0.4019
6.376e+09  -0.2433  -0.805  -0.006357  -0.06693  0.000726  -0.02579  -0.8884  -0.1209
6.378e+09  -0.5404  -0.7501  0.01576  -0.01379  0.0007568  0.02236  -0.9148  0.2245
6.379e+09  -0.7426  -0.4037  -0.01811  -0.01357  -0.0134  -0.04043  -0.7683  0.5389
6.38e+09  -0.8319  -0.1289  -0.01179  0.003669  0.003303  -0.01825  -0.5176  0.7526
6.381e+09  -0.8258  0.1701  0.01917  -0.03715  -0.005008  -0.01845  -0.2396  0.883
6.382e+09  -0.7574  0.4544  -0.007776  -0.01253  -0.02593  0.02871  0.08554  0.9284
6.384e+09  -0.5054  0.6386  -0.002582  -0.03537  0.01279  -0.005688  0.4262  0.8629
6.385e+09  -0.288  0.8101  0.01036  0.01804  0.009035  0.01693  0.6724  0.6527
6.386e+09  -0.001008  0.8821  0.03049  0.04045  -0.03948  -0.01349  0.8172  0.4588
6.388e+09  0.317  0.7903  0.006451  0.04575  -0.01272  -0.06292  0.9158  0.1138
6.389e+09  0.5875  0.6608  0.02689  0.0035  0.002474  0.03257  0.9319  -0.1983
6.39e+09  0.7555  0.3795  0.01212  0.009928  0.04418  -0.009465  0.7541  -0.526
6.391e+09  0.8113  0.1211  0.006193  0.008636  -0.01403  0.009392  0.6028  -0.6881
6.392e+09  0.8273  -0.158  -0.008332  -0.02234  0.009963  -0.008784  0.2607  -0.8594
6.394e+09  0.8035  -0.4714  0.01649  0.004017  -0.05303  -0.02475  -0.03957  -0.9557
6.395e+09  0.5146  -0.7161  -0.01659  -0.02402  0.00824  -0.0256  -0.2968  -0.825
6.396e+09  0.1882  -0.8078  -0.01993  -0.002388  -0.04827  -0.007292  -0.6367  -0.6758
6.398e+09  -0.0398  -0.8478  -0.01635  -0.006575  -0.01472  -0.03421  -0.7808  -0.402
6.399e+09  -0.3358  -0.7982  -0.002084  -0.01163  0.02559  -0.003467  -0.9109  -0.1334
6.4e+09  -0.6103  -0.6136  0.02206  0.03445  0.03261  -0.04926  -0.8704  0.1992
6.401e+09  -0.7719  -0.3734  -0.002743  0.02014  0.008764  0.005002  -0.8125  0.504
6.402e+09  -0.7806  -0.07787  0.01458  0.007893  0.003716  0.02507  -0.6377  0.7068
6.404e+09  -0.821  0.2061  -0.02995  -0.03102  -0.04949  -0.02883  -0.3118  0.8605
6.405e+09  -0.6897  0.4966  -0.004296  -0.02674  -0.01274  -0.03014  0.04173  0.9078
6.406e+09  -0.489  0.7153  -0.006816  0.03963  -0.007196  -0.03607  0.3567  0.8546
6.408e+09  -0.1998  0.8177  -0.001391  0.04119  -0.01493  0.002706  0.6123  0.7228
6.409e+09  0.07612  0.8393  -0.02235  -0.04285  0.02844  -0.006362  0.7883  0.4709
6.41e+09  0.3517  0.8351  0.04091  0.03585  0.01751  -0.01623  0.9105  0.1813
6.411e+09  0.5949  0.5735  -0.04398  -0.0008735  0.008195  0.02348  0.8831  -0.1292
6.412e+09  0.7781  0.2987  0.03611  -0.01219  -0.04728  -0.02945  0.824  -0.4145
6.414e+09  0.8328  0.02959  0.02016  -0.01369  0.0212  0.001956  0.597  -0.6763
6.415e+09  0.8388  -0.2918  -0.0248  -0.03205  -0.006649  -0.01859  0.3024  -0.8451
6.416e+09  0.6739  -0.5443  -0.0384  0.03275  -0.023  0.01059  0.02343  -0.9162
6.418e+09  0.4223  -0.7164  0.003022  0.02986  -0.006934  -0.0236  -0.3134  -0.8405
6.419e+09  0.1821  -0.8205  0.02071  -0.02008  0.01962  -0.00621  -0.5603  -0.7102
6.42e+09  -0.1372  -0.8623  0.03393  0.0146  0.004889  0.01981  -0.7491  -0.449
6.421e+09  -0.3791  -0.7353  0.05896  0.004382  0.01109  -0.02053  -0.8608  -0.1866
6.422e+09  -0.6494  -0.5897  -0.001261  0.03106  0.01368  0.02765  -0.948  0.07349
6.424e+09  -0.8225  -0.2948  0.02895  0.002137  -0.01527  0.008613  -0.7974  0.3797
6.425e+09  -0.8602  0.007418  -0.007623  0.01369  0.01881  -0.01663  -0.6322  0.6628
6.426e+09  -0.7633  0.2434  -0.008393  -0.006418  -0.0115  0.03918  -0.3358  0.8226
6.428e+09  -0.6739  0.5174  0.009875  -0.0153  0.03063  -0.03456  -0.05739  0.8416
6.429e+09  -0.448  0.7375  0.009527  0.009615  -0.005838  0.01028  0.2574  0.8212
6.43e+09  -0.1889  0.8131  -0.03306  -0.01218  -0.01332  -0.002832  0.4909  0.7148
6.431e+09  0.1697  0.8226  -0.02542  -0.02432  -0.006847  0.003613  0.7322  0.5227
6.432e+09  0.4238  0.7625  -0.02345  -0.05356  0.01744  -0.004045  0.8679  0.2114
6.434e+09  0.6347  0.5096  0.02073  0.01752  -0.01431  -0.03115  0.8746  -0.09581
6.435e+09  0.788  0.243  -0.03187  -0.03468  0.06498  -0.02122  0.7333  -0.3217
6.436e+09  0.847  -0.01779  -0.009105  -0.03513  0.05574  0.03719  0.5718  -0.6127
6.438e+09  0.8121  -0.3062  -0.01795  0.03179  -0.04824  -0.01771  0.3769  -0.7778
6.439e+09  0.6423  -0.5076  0.01417  0.03299  -0.02642  0.02819  0.09639  -0.8857
6.44e+09  0.4595  -0.7704  0.002261  0.01606  0.008536  -0.02429  -0.2464  -0.8283
6.441e+09  0.1286  -0.8349  0.0004468  0.005689  0.000797  0.03417  -0.4673  -0.6703
6.442e+09  -0.1585  -0.8336  -0.02437  0.05955  -0.000411  0.05903  -0.6912  -0.4619
6.444e+09  -0.4211  -0.7551  0.008557  0.01064  -0.002153  0.0005419  -0.7639  -0.2224
6.445e+09  -0.6622  -0.5958  0.0134  0.03246  0.04328  -0.008237  -0.8755  0.06367
6.446e+09  -0.8014  -0.2654  0.02249  0.004535  -0.01513  0.03318  -0.7794  0.3366
6.448e+09  -0.8624  0.01868  -0.006947  -0.02022  0.03296  -0.05265  -0.5874  0.5753
6.449e+09  -0.8053  0.2797  -0.001012  0.01339  -0.009744  -0.02036  -0.327  0.7877
6.45e+09  -0.6168  0.546  0.08258  0.0307  0.04341  0.01854  -0.08423  0.8432
6.451e+09  -0.4161  0.7633  0.01931  0.01214  -0.02225  -0.03638  0.195  0.7696
6.452e+09  -0.1268  0.8524  0.01655  0.04703  0.03029  -0.01659  0.474  0.6383
6.454e+09  0.1977  0.881  0.01186  0.01364  -0.03489  0.005242  0.7212  0.4828
6.455e+09  0.4562  0.7206  -0.03588  -0.009832  -0.001595  0.003324  0.8042  0.2568
6.456e+09  0.6774  0.5521  0.01144  -0.03186  0.02394  -0.009049  0.8168  -0.05104
6.458e+09  0.7757  0.256  -0.02191  0.04067  -0.02995  0.01892  0.7269  -0.347
6.459e+09  0.8673  0.002345  -0.01124  -0.02929  0.05261  0.006658  0.5676  -0.5503
6.46e+09  0.7837  -0.2904  -0.0074  0.003563  0.0374  -0.01101  0.3414  -0.7014
6.461e+09  0.6175  -0.588  0.03705  -0.04952  0.008084  -0.01108  0.0311  -0.7798
6.462e+09  0.4943  -0.7568  0.007064  -0.02175  -0.003133  0.03497  -0.2068  -0.7763
6.464e+09  0.09785  -0.8581  -0.00644  -0.01363  0.01449  -0.00903  -0.4551  -0.6519
6.465e+09  -0.1367  -0.8107  -0.02063  0.01098  0.007422  0.009307  -0.7028  -0.4663
6.466e+09  -0.4264  -0.735  0.006315  0.03591  -0.01885  -0.01751  -0.7947  -0.1947
6.468e+09  -0.6815  -0.5489  0.05332  -0.02277  -0.001169  0.03122  -0.7704  0.04965
6.469e+09  -0.7822  -0.2868  -0.003914  0.0153  -0.01726  -0.02569  -0.7214  0.3628
6.47e+09  -0.8569  0.06593  -0.003938  -0.05117  -0.0005331  -0.02056  -0.5596  0.5634
6.471e+09  -0.789  0.2922  0.003583  -0.01997  0.02372  -0.02733  -0.3521  0.7272
6.472e+09  -0.6222  0.597  0.00123  0.01419  0.005417  0.04124  -0.07061  0.7781
6.474e+09  -0.4075  0.7677  -0.0128  -0.01501  -0.002138  -0.0426  0.2242  0.7702
6.475e+09  -0.08988  0.8405  -0.02211  -0.02674  0.00445  0.002205  0.4426  0.6387
6.476e+09  0.1999  0.8911  0.01486  0.03777  0.007908  0.02817  0.7033  0.4987
6.478e+09  0.4494  0.7392  -0.008868  -0.01347  -0.002557  0.0057  0.7683  0.2054
6.479e+09  0.7055  0.4902  0.01724  -0.05888  -0.0035  -0.03769  0.8129  -0.06381
6.48e+09  0.8639  0.2655  -0.0113  -0.006143  0.06583  -0.04053  0.6945  -0.3554
6.481e+09  0.8633  -0.0393  -0.01173  0.0136  0.02004  -0.0169  0.5438  -0.5617
6.482e+09  0.7935  -0.3681  0.01428  0.009962  0.002237  0.02063  0.2879  -0.7033
6.484e+09  0.6046  -0.5273  -0.02599  0.00499  0.02309  0.01238  0.05569  -0.7632
6.485e+09  0.3819  -0.7912  0.002796  -0.01991  -0.002312  0.02537  -0.1997  -0.7239
6.486e+09  0.09676  -0.8436  -0.03955  -0.006889  -0.009213  -0.03081  -0.4599  -0.625
6.488e+09  -0.8627  -1.081  0.004061  -0.002903  0.4942  -0.5835  -0.6079  -0.4377
6.489e+09  -0.4661  -0.6578  -0.007738  -0.02035  0.03567  0.01678  -0.7702  -0.1736
6.49e+09  -0.7583  -0.5381  0.0315  0.02439  -0.000498  -0.005635  -0.7502  0.1072
6.491e+09  -0.8535  -0.2353  -0.01884  -0.02952  -0.07191  -0.02388  -0.6677  0.3295
6.492e+09  -0.8435  0.06432  -0.02005  -0.009829  0.03749  0.02114  -0.5294  0.5576
6.494e+09  -0.8852  0.345  0.00835  -0.02584  0.07208  -0.02809  -0.3299  0.7193
6.495e+09  -0.5923  0.5847  -0.01374  -0.04186  0.005281  0.06254  -0.04463  0.7372
6.496e+09  -0.4582  0.7613  0.03671  0.002795  0.02449  0.02988  0.2173  0.7237
6.498e+09  -0.101  0.8562  0.01558  -0.0181  0.0183  0.002745  0.4481  0.5782
6.499e+09  0.1898  0.8323  -0.0005711  0.0211  -0.008571  0.001935  0.6166  0.4151
6.5e+09  0.4779  0.7635  0.0431  0.04758  0.06068  0.006867  0.7536  0.1783
6.501e+09  0.6979  0.4863  -0.001926  -0.01873  0.02907  -0.01449  0.7787  -0.1505
6.502e+09  0.8364  0.2504  0.02476  0.03168  -0.03951  -0.02486  0.6704  -0.3612
6.504e+09  0.9282  -0.07336  -0.002501  0.01046  0.01848  -0.005024  0.5007  -0.5504
6.505e+09  0.7604  -0.3532  0.002896  0.008109  -0.001619  -0.04133  0.272  -0.7028
6.506e+09  0.6582  -0.5949  -0.002568  -0.01561  0.02158  -0.0003779  0.03252  -0.7667
6.508e+09  0.3532  -0.8299  -0.0231  0.01548  0.0005233  -0.0267  -0.2716  -0.7471
6.509e+09  0.08028  -0.8611  -0.003991  0.009366  0.02224  0.001377  -0.5117  -0.5552
6.51e+09  -0.2444  -0.8283  -0.01591  -0.03238  0.04579  0.01761  -0.6569  -0.4053
6.511e+09  -0.5239  -0.7376  0.02843  0.02129  -0.03023  -0.04928  -0.7145  -0.1386
6.512e+09  -0.763  -0.506  0.01598  -0.01163  -0.01623  -0.07352  -0.7354  0.1105
6.514e+09  -0.8235  -0.1676  -0.005444  0.01841  -0.01225  -0.01424  -0.672  0.3579
6.515e+09  -0.8945  0.1183  0.03424  -0.0114  0.01183  0.00722  -0.4794  0.5682
6.516e+09  -0.8161  0.4059  0.001514  0.02376  0.003033  0.002165  -0.2532  0.7063
6.518e+09  -0.6423  0.6094  -0.004783  0.005884  -0.02259  0.008585  -0.003523  0.7916
6.519e+09  -0.3645  0.8211  -0.0129  -0.01198  0.01971  0.02745  0.2674  0.6923
6.52e+09  -0.01611  0.9294  -0.008392  0.0006166  0.009669  -0.01857  0.4817  0.5575
6.521e+09  0.2636  0.8667  0.01619  -0.04128  -0.003868  0.0318  0.6388  0.3542
6.522e+09  0.5311  0.7236  0.008253  0.02974  0.01832  0.0008657  0.7201  0.1077
6.524e+09  0.8046  0.495  -0.005623  -0.00551  -0.004782  0.02428  0.7012  -0.1774
6.525e+09  0.9164  0.2128  -0.02023  -0.03147  0.05516  0.01898  0.597  -0.39
6.526e+09  0.8999  -0.1286  -0.01653  -0.01058  -0.01392  0.01053  0.4552  -0.5942
6.528e+09  0.8201  -0.4422  -0.01758  -0.01915  0.01126  -0.009177  0.2171  -0.6954
6.529e+09  0.5739  -0.6859  0.0193  -0.03965  -0.01455  0.04545  -0.05776  -0.7036
6.53e+09  0.3206  -0.8755  0.004833  -0.009218  0.01568  -0.01484  -0.2967  -0.6325
6.531e+09  0.02592  -0.9404  0.005939  -0.00656  0.01241  0.0238  -0.4906  -0.4843
6.532e+09  -0.3437  -0.8745  0.01358  -0.005548  -0.007315  -0.0266  -0.5643  -0.3072
6.534e+09  -0.62  -0.7581  0.008235  0.03878  0.04774  -0.02575  -0.627  -0.09479
6.535e+09  -0.8065  -0.484  -0.02563  -0.02008  0.03011  -0.001295  -0.6463  0.09965
6.536e+09  -0.9691  -0.1448  0.01983  0.009797  -0.01214  -0.01364  -0.5467  0.2864
6.538e+09  -0.9052  0.2318  -0.003052  0.0225  0.007333  -0.0002248  -0.4231  0.4631
6.539e+09  -0.7524  0.4795  -5.348e-05  -0.008457  0.01567  -0.02726  -0.264  0.6019
6.54e+09  -0.5803  0.7503  0.005992  -0.006001  -0.06717  0.03658  -0.04882  0.6873
6.541e+09  -0.3027  0.9166  0.009796  -0.03161  -0.02012  -0.01607  0.2055  0.6597
6.542e+09  0.07439  0.9364  0.01655  -0.02616  0.0112  0.01236  0.4382  0.5753
6.544e+09  0.3828  0.8358  0.01756  -0.007766  -0.02742  -0.01551  0.5927  0.4199
6.545e+09  0.6068  0.6716  -0.02189  -0.01345  0.03623  0.03468  0.7257  0.1598
6.546e+09  0.844  0.4165  0.02815  0.02777  -0.02918  0.02795  0.7294  -0.08924
6.548e+09  0.9582  0.09349  -0.007937  -0.001666  -0.01351  -0.03103  0.6611  -0.3246
6.549e+09  0.9511  -0.2345  -0.02367  0.0296  0.0005704  -0.02165  0.515  -0.5483
6.55e+09  0.7476  -0.5423  -0.02026  -0.004546  -0.01445  0.03546  0.251  -0.6558
