# Hz S RI R 50
6.25e+09  -0.4052  0.7689  -0.01451  -0.004688  -0.009002  0.005781  0.1607  0.4673
6.251e+09  -0.07031  0.8177  0.01078  -0.02352  0.0363  0.002541  0.3693  0.3832
6.252e+09  0.2282  0.7894  -0.03129  0.03084  0.01356  0.05283  0.5287  0.2275
6.254e+09  0.4245  0.7146  -0.004529  -0.004897  -0.02809  -0.009287  0.5938  0.04528
6.255e+09  0.6464  0.474  0.008402  -0.007818  -0.01125  -0.00676  0.5715  -0.2266
6.256e+09  0.7998  0.2727  0.01462  0.006146  0.009844  0.02681  0.4815  -0.4551
6.258e+09  0.7299  -0.1109  0.003238  0.02431  -0.02053  -0.002516  0.2839  -0.6032
6.259e+09  0.761  -0.3677  0.01949  0.032  -0.01873  -0.004354  0.04802  -0.6576
6.26e+09  0.5911  -0.5933  -0.01583  -0.00249  -0.02075  -0.003601  -0.1931  -0.6345
6.261e+09  0.3339  -0.8067  -0.002636  -0.0004309  0.0161  0.002507  -0.4683  -0.5271
6.262e+09  0.05109  -0.7954  0.03783  -0.007764  0.01173  -0.009418  -0.5972  -0.3389
6.264e+09  -0.2348  -0.7927  -0.01166  -0.02196  -0.04948  0.01243  -0.6708  -0.1247
6.265e+09  -0.4929  -0.6393  0.01881  -0.02414  -0.05606  -0.04251  -0.7181  0.1545
6.266e+09  -0.6649  -0.4299  0.005574  -0.005312  -0.02848  0.01155  -0.5907  0.4052
6.268e+09  -0.7543  -0.1942  0.0004571  0.001651  -0.02372  0.03229  -0.4488  0.5861
6.269e+09  -0.7625  0.1194  0.01054  -0.002073  0.02074  0.002166  -0.1583  0.7286
6.27e+09  -0.7409  0.3683  -0.01378  0.0375  0.01614  0.003305  0.08559  0.7412
6.271e+09  -0.4758  0.5577  -0.001084  -0.002129  0.02895  0.008476  0.3506  0.6808
6.272e+09  -0.315  0.7511  -0.005996  -0.02  -0.003964  0.01104  0.5217  0.5406
6.274e+09  -0.1082  0.8105  0.005541  0.03982  0.008613  0.01488  0.6967  0.2929
6.275e+09  0.2161  0.7543  -0.04285  -0.01755  -0.004562  0.01238  0.722  0.0593
6.276e+09  0.4394  0.6136  -0.02403  0.01773  -0.02701  0.003663  0.7539  -0.2163
6.278e+09  0.6628  0.3841  0.03802  -0.004933  -0.001722  0.03262  0.6245  -0.4257
6.279e+09  0.8319  0.1886  -0.008107  0.02463  0.01264  -0.001295  0.4253  -0.5895
6.28e+09  0.8137  -0.04786  0.004672  0.009922  0.05375  -0.02176  0.156  -0.7275
6.281e+09  0.7116  -0.3651  -0.007396  -0.02723  0.02603  0.003493  -0.1281  -0.7732
6.282e+09  0.575  -0.5503  -0.006532  0.003557  0.03163  -0.04537  -0.3626  -0.6777
6.284e+09  0.3069  -0.8141  -0.0111  -0.01456  -0.01381  -0.01101  -0.5946  -0.5052
6.285e+09  0.01323  -0.7649  -0.02256  -0.00121  -0.03357  0.03736  -0.78  -0.2724
6.286e+09  -0.2278  -0.7686  0.009491  -0.007236  0.03945  -0.005913  -0.7563  -0.03203
6.288e+09  -0.5431  -0.6307  -0.004275  -5.55e-06  -0.005961  -0.02958  -0.7299  0.2363
6.289e+09  -0.7021  -0.4411  -0.008142  0.0086  0.0006274  0.03584  -0.6248  0.4609
6.29e+09  -0.7955  -0.1266  0.03434  -0.008617  0.009456  0.02477  -0.4121  0.7036
6.291e+09  -0.7806  0.07604  0.01582  0.0257  -0.003263  0.006044  -0.1232  0.8014
6.292e+09  -0.7171  0.3549  -0.004229  -0.01626  -0.01673  -0.005591  0.1466  0.8129
6.294e+09  -0.5691  0.6255  0.0004658  -0.0388  -0.04048  -0.001297  0.3998  0.6973
6.295e+09  -0.2875  0.7209  0.01719  -0.0001777  0.03284  -0.01542  0.6244  0.5472
6.296e+09  -0.04366  0.8356  -0.001395  0.01448  0.0271  -0.001863  0.7354  0.2985
6.298e+09  0.2703  0.7535  -0.02916  0.01976  -0.00788  -0.02047  0.8288  0.03305
6.299e+09  0.4721  0.6305  0.01657  0.006308  0.0352  0.031  0.7963  -0.2711
6.3e+09  0.6983  0.3985  0.006045  0.009789  -0.007667  -0.01813  0.6403  -0.5171
6.301e+09  0.762  0.1011  -0.01602  0.01454  0.02107  -0.01591  0.4465  -0.7066
6.302e+09  0.7939  -0.1583  -0.000372  -0.008134  -0.04104  0.04928  0.1706  -0.8218
6.304e+09  0.6495  -0.4558  -0.008739  0.01164  0.0005941  -0.02686  -0.1396  -0.8181
6.305e+09  0.4739  -0.5888  -0.02014  -0.02467  -0.0004303  0.01343  -0.4295  -0.7695
6.306e+09  0.2488  -0.7741  -0.008531  -0.009967  -0.0194  0.001855  -0.6558  -0.5562
6.308e+09  0.005717  -0.8581  -0.004786  0.02069  0.02331  -0.02759  -0.8253  -0.2813
6.309e+09  -0.2673  -0.7449  0.003263  -0.02107  -0.01029  -0.03566  -0.8454  0.01421
6.31e+09  -0.5719  -0.6025  -0.004379  0.01086  0.01867  -0.004729  -0.8219  0.2886
6.311e+09  -0.7139  -0.3807  -0.02437  -0.01343  -0.004194  0.03498  -0.6877  0.5559
6.312e+09  -0.8337  -0.1348  -0.01445  0.01056  -0.01593  -0.0008429  -0.4274  0.7012
6.314e+09  -0.7763  0.1909  0.01465  -0.0005903  -0.03105  0.02111  -0.1377  0.836
6.315e+09  -0.6336  0.4042  0.007035  0.001148  0.02489  -0.008994  0.1116  0.8913
6.316e+09  -0.5225  0.6398  -0.007144  -0.00263  0.00265  -0.007951  0.4099  0.7517
6.318e+09  -0.2148  0.7706  -0.02996  0.007305  -0.02671  0.006183  0.6901  0.5477
6.319e+09  0.07061  0.8023  0.03293  -0.01516  -0.01942  -0.0331  0.827  0.3139
6.32e+09  0.324  0.7085  0.02442  -0.007018  -0.001359  0.02215  0.8786  -0.01059
6.321e+09  0.5508  0.5812  0.01005  0.01251  -0.01963  0.04736  0.8252  -0.2937
6.322e+09  0.7561  0.3328  -0.01909  -0.002928  -0.02839  0.008435  0.6997  -0.547
6.324e+09  0.858  0.05256  -0.035  -0.001558  0.04482  0.02636  0.4395  -0.7846
6.325e+09  0.7815  -0.1926  0.03469  0.02635  0.007428  0.001327  0.1474  -0.884
6.326e+09  0.6814  -0.4995  -0.01381  -0.004438  -0.0004817  -0.004727  -0.1302  -0.8992
6.328e+09  0.4477  -0.6882  0.01633  -0.007205  -0.03119  0.02111  -0.435  -0.7832
6.329e+09  0.1932  -0.8178  -0.008877  -0.01859  -0.02489  0.01377  -0.6467  -0.6042
6.33e+09  -0.09932  -0.815  -0.01861  -0.03911  0.0007568  0.0174  -0.866  -0.3375
6.331e+09  -0.4035  -0.7562  -0.001027  -0.01749  -0.01466  -0.0111  -0.922  -0.02953
6.332e+09  -0.627  -0.5255  0.02158  0.02984  -0.008575  0.00353  -0.8454  0.2967
6.334e+09  -0.8323  -0.3627  0.008957  0.04593  0.02001  -0.02043  -0.7315  0.5294
6.335e+09  -0.808  -0.053  0.01405  -0.01058  0.01488  0.0001363  -0.4895  0.7639
6.336e+09  -0.8149  0.2569  0.02009  -0.004852  -0.04864  0.01232  -0.1974  0.8896
6.338e+09  -0.6393  0.4986  0.02696  -0.02669  0.04462  0.001907  0.1406  0.9127
6.339e+09  -0.4268  0.7347  0.01804  0.00727  -0.03975  0.009278  0.4058  0.7862
6.34e+09  -0.1294  0.8119  0.01355  -0.04478  0.04964  -0.03221  0.6611  0.6135
6.341e+09  0.09752  0.8469  -0.01173  0.01512  -0.001042  0.01488  0.8345  0.3658
6.342e+09  0.4614  0.7362  0.007534  -0.02991  0.002552  -0.01187  0.8875  0.04647
6.344e+09  0.6419  0.5859  0.005713  0.01732  -0.005314  -0.005893  0.9139  -0.2868
6.345e+09  0.8005  0.2956  -0.02596  -0.02254  0.02466  0.05232  0.7686  -0.5138
6.346e+09  0.8619  -0.002543  0.02645  0.03196  0.02303  0.02077  0.4923  -0.7668
6.348e+09  0.7748  -0.3658  -0.008588  -0.02174  0.04833  0.007412  0.1945  -0.8766
6.349e+09  0.6081  -0.5743  -0.02583  -0.03933  0.001086  0.01917  -0.08602  -0.9195
6.35e+09  0.3679  -0.7975  0.009781  -0.03571  -0.01129  -0.0002329  -0.4036  -0.8492
6.351e+09  0.07476  -0.8571  0.02689  0.003205  0.04035  0.02024  -0.6823  -0.6285
6.352e+09  -0.2537  -0.8231  -0.03284  -0.0003372  -0.007978  -0.01117  -0.8562  -0.384
6.354e+09  -0.4982  -0.6892  0.003162  0.008669  -0.01185  0.01744  -0.9303  -0.0872
6.355e+09  -0.7263  -0.4817  0.02245  0.0024  0.02226  -0.06062  -0.8956  0.2625
6.356e+09  -0.8033  -0.2381  -0.0005315  0.009628  -0.02059  0.002478  -0.7484  0.5711
6.358e+09  -0.8211  0.07415  0.007577  0.02325  0.007871  0.0544  -0.5236  0.802
6.359e+09  -0.7652  0.4147  -0.04153  -0.01428  -0.02741  0.03801  -0.2129  0.9337
6.36e+09  -0.6139  0.6327  -0.003284  -0.003504  0.03748  -0.03284  0.08721  0.96
6.361e+09  -0.3398  0.807  -0.001987  -0.0005691  0.05096  -0.01101  0.4221  0.8538
6.362e+09  -0.04072  0.8842  0.02978  0.002864  -0.03876  -0.01436  0.6636  0.6606
6.364e+09  0.2662  0.8309  -0.002015  -0.02954  -0.01092  0.05492  0.8385  0.4248
6.365e+09  0.5515  0.6495  0.005641  0.0009783  0.006083  -0.01216  0.9291  0.1082
6.366e+09  0.7941  0.4098  0.007039  -0.01098  -0.06693  0.03512  0.9092  -0.2867
6.368e+09  0.8557  0.1823  -0.01495  0.01852  0.002603  0.01805  0.7791  -0.5508
6.369e+09  0.8402  -0.1688  -0.02998  0.0327  0.01796  0.01676  0.5313  -0.7984
6.37e+09  0.7262  -0.4477  -0.01716  0.005275  0.02862  -0.01607  0.2102  -0.8972
6.371e+09  0.5597  -0.6916  0.01367  -0.02559  0.03565  0.004889  -0.06317  -0.9418
6.372e+09  0.2972  -0.7995  0.01655  -0.009611  0.04294  0.01233  -0.3767  -0.8471
6.374e+09  -0.004649  -0.8605  0.0313  0.02281  0.02674  -0.02013  -0.6679  -0.6346
6.375e+09  -0.2994  -0.8083  0.03662  0.004862  -0.0007463  -0.02914  -0.8552  -0.4358
6.376e+09  -0.5572  -0.6292  -0.0185  -0.01383  -0.04502  -0.00365  -0.9526  -0.08188
6.378e+09  -0.7668  -0.4342  -0.02325  0.02529  -0.005058  -0.03262  -0.867  0.2341
6.379e+09  -0.8545  -0.1609  0.02565  0.001419  0.02933  0.02062  -0.802  0.5612
6.38e+09  -0.8459  0.2005  0.04287  0.03097  -0.02986  0.01918  -0.5495  0.7674
6.381e+09  -0.7531  0.4573  0.0289  -0.03224  0.02033  0.0253  -0.2749  0.9265
6.382e+09  -0.5219  0.6988  0.0428  0.05234  -0.03992  -0.007347  0.03152  0.8835
6.384e+09  -0.2625  0.8244  -0.0006786  -0.008961  0.01971  -0.03285  0.3956  0.8825
6.385e+09  0.02399  0.8697  0.005593  0.02379  -0.01741  -0.03948  0.6325  0.6534
6.386e+09  0.3651  0.7792  -0.02486  0.002792  -0.008461  0.01668  0.8184  0.41
6.388e+09  0.6101  0.6668  0.01758  0.01605  0.02255  -0.02334  0.9163  0.1556
6.389e+09  0.8251  0.3889  0.003187  0.02018  0.008291  -0.00789  0.8866  -0.2104
6.39e+09  0.8773  0.09278  0.04211  0.01955  -0.003887  0.001131  0.7788  -0.4944
6.391e+09  0.8399  -0.2329  0.02144  0.008654  0.02648  0.04017  0.5796  -0.7031
6.392e+09  0.7322  -0.4554  -0.01848  0.01799  -0.00981  0.02549  0.2801  -0.8712
6.394e+09  0.5082  -0.645  -0.02506  -0.00714  -0.01584  0.01944  0.01333  -0.9333
6.395e+09  0.1792  -0.8752  -0.03008  -0.02086  -0.02648  -0.02194  -0.3215  -0.8227
6.396e+09  -0.08305  -0.8223  0.006831  -0.01216  -0.0244  -0.02406  -0.5979  -0.6915
6.398e+09  -0.3733  -0.7727  -0.01363  -0.00935  0.0101  -0.06262  -0.7864  -0.4381
6.399e+09  -0.657  -0.6221  0.01245  0.01432  -0.002412  0.01584  -0.8946  -0.18
6.4e+09  -0.7572  -0.3699  0.02725  0.04042  -0.003853  -0.003376  -0.8932  0.1236
6.401e+09  -0.8508  -0.06655  -0.01234  0.00323  0.01963  -0.001605  -0.8086  0.4443
6.402e+09  -0.7993  0.231  -0.02545  -0.008065  -0.02252  0.0181  -0.5487  0.7207
6.404e+09  -0.6642  0.4606  -0.001656  -0.001036  0.0126  -0.01018  -0.3017  0.8773
6.405e+09  -0.4527  0.7336  0.02501  -0.02033  0.03559  0.04804  -0.01037  0.9419
6.406e+09  -0.1885  0.8514  0.009784  0.07659  0.005075  -0.05216  0.2977  0.8855
6.408e+09  0.09944  0.8694  0.02078  0.01353  0.001545  0.03399  0.576  0.698
6.409e+09  0.3587  0.7549  0.009763  0.008507  -0.00983  -0.031  0.7697  0.4849
6.41e+09  0.6198  0.5739  -0.01698  0.01868  0.002034  -0.02004  0.9216  0.1549
6.411e+09  0.8019  0.3388  -0.03145  0.00998  0.01412  -0.02301  0.9064  -0.1236
6.412e+09  0.857  0.03533  0.01879  0.005735  0.02188  0.0301  0.7843  -0.436
6.414e+09  0.8311  -0.2499  0.01063  -0.01032  -0.005016  0.00358  0.6348  -0.6338
6.415e+09  0.6484  -0.5323  -0.01501  -0.03031  0.03158  0.01025  0.3219  -0.8318
6.416e+09  0.4502  -0.7375  0.01077  -0.02583  0.009864  0.0285  0.01631  -0.8809
6.418e+09  0.2113  -0.8784  -0.03609  0.02463  0.03619  -0.006702  -0.2838  -0.8309
6.419e+09  -0.1157  -0.8741  0.006464  -0.01309  0.01346  -0.0006331  -0.5638  -0.7139
6.42e+09  -0.3755  -0.7673  -0.08672  -0.007239  0.002942  -0.01669  -0.742  -0.4563
6.421e+09  -0.6695  -0.5667  -0.01871  -0.003913  0.01029  0.006935  -0.8804  -0.2041
6.422e+09  -0.8142  -0.2983  -0.01595  -0.002037  -0.02745  -0.009239  -0.8819  0.1375
6.424e+09  -0.8831  0.009517  0.01554  -0.002851  0.03723  0.02286  -0.7562  0.388
6.425e+09  -0.7883  0.2778  0.01587  0.03125  0.02209  0.01706  -0.6301  0.6537
6.426e+09  -0.662  0.5446  -0.03783  -0.03515  -0.0202  0.01517  -0.3706  0.8088
6.428e+09  -0.4897  0.7362  0.01591  0.01951  -0.005647  0.0354  -0.0886  0.8785
6.429e+09  -0.1774  0.7714  0.01591  0.02357  0.05815  0.02581  0.2246  0.8869
6.43e+09  0.1106  0.9054  0.01074  0.04843  -0.006048  -0.009929  0.5034  0.7574
6.431e+09  0.4309  0.7307  0.0002715  -0.02243  0.04426  -0.009677  0.7041  0.4705
6.432e+09  0.6101  0.535  0.02291  -0.02338  0.02085  -0.01501  0.8282  0.1975
6.434e+09  0.7269  0.2944  -0.03826  -0.006855  -0.01666  0.005067  0.8723  -0.07295
6.435e+09  0.8398  0.003572  0.02138  -0.02219  0.06369  -0.01187  0.7765  -0.3678
6.436e+09  0.818  -0.2601  -0.04509  -0.03322  0.01642  -0.04096  0.5939  -0.6081
6.438e+09  0.6898  -0.5598  -0.01726  0.01274  -0.0006757  -0.0438  0.3431  -0.7906
6.439e+09  0.4366  -0.7635  0.02503  0.03789  0.004144  0.03021  0.0999  -0.8666
6.44e+09  0.1666  -0.8194  -0.03318  -0.04019  -0.02574  -0.01992  -0.2505  -0.8525
6.441e+09  -0.1333  -0.8479  -0.04805  -0.03361  -0.02325  -0.02903  -0.5464  -0.7614
6.442e+09  -0.4013  -0.7465  0.01934  -0.009603  0.0203  0.03586  -0.6733  -0.4426
6.444e+09  -0.6584  -0.5952  0.01146  0.006381  0.02379  -0.05664  -0.8127  -0.2039
6.445e+09  -0.8168  -0.2807  0.01019  -0.04914  -0.001018  0.01512  -0.8218  0.09265
6.446e+09  -0.8771  -0.05104  -0.003619  0.03364  0.00125  0.0108  -0.7507  0.3569
6.448e+09  -0.7849  0.3402  -0.0003816  0.0222  -0.003917  -0.02628  -0.5795  0.6027
6.449e+09  -0.6714  0.5184  -0.01491  -0.00147  0.03935  -0.02655  -0.3444  0.7425
6.45e+09  -0.4129  0.7517  0.02254  -0.003011  -0.01845  0.02792  -0.06168  0.8116
6.451e+09  -0.1821  0.8492  0.004309  0.04421  -0.0263  0.002461  0.2085  0.8019
6.452e+09  0.1496  0.8061  0.0316  -0.006695  0.01406  -0.0185  0.4572  0.6713
6.454e+09  0.4143  0.8062  0.001421  -0.0537  -0.03183  0.06309  0.6457  0.4797
6.455e+09  0.6634  0.5411  -0.01135  -0.01838  -0.009021  0.0276  0.7646  0.2745
6.456e+09  0.8203  0.3194  -0.01118  -0.007666  0.006178  -0.01521  0.7896  -0.1142
6.458e+09  0.8665  0.02372  -0.03401  0.002374  0.01691  0.02479  0.7466  -0.314
6.459e+09  0.8277  -0.3041  -0.01128  0.02026  -0.005407  0.004658  0.6144  -0.6151
6.46e+09  0.6678  -0.5992  -0.001589  -0.04316  0.05418  0.04049  0.3027  -0.776
6.461e+09  0.3954  -0.7067  -0.02898  -0.009381  0.02432  0.03308  0.1074  -0.8424
6.462e+09  0.16  -0.8335  0.03544  0.005045  0.02486  -0.02067  -0.2369  -0.7672
6.464e+09  -0.1077  -0.8753  0.02503  0.002021  -0.03671  -0.004004  -0.4496  -0.7312
6.465e+09  -0.4873  -0.7777  0.03118  -0.005349  0.008267  0.008777  -0.6293  -0.437
6.466e+09  -0.6591  -0.526  0.02358  0.05225  0.00925  0.007291  -0.8071  -0.1656
6.468e+09  -0.7882  -0.268  -0.04347  -0.01328  -0.01564  0.01655  -0.8105  0.07149
6.469e+09  -0.8858  0.01243  0.01572  0.01812  -0.005497  -0.01541  -0.7338  0.3781
6.47e+09  -0.8371  0.3023  0.04754  -0.008342  0.003066  -0.02976  -0.5382  0.5832
6.471e+09  -0.6296  0.5805  0.01109  0.01984  -0.04191  0.006507  -0.3285  0.695
6.472e+09  -0.483  0.7423  0.001989  -0.02351  0.03904  0.01407  -0.06348  0.7945
6.474e+09  -0.1375  0.8748  0.02963  -0.0275  0.0127  -0.01694  0.2238  0.7169
6.475e+09  0.1931  0.8437  0.01963  0.02613  -0.0509  -0.01498  0.4511  0.6624
6.476e+09  0.4391  0.7647  -0.03122  -0.04776  0.005008  -0.02558  0.6758  0.4128
6.478e+09  0.7159  0.5774  -0.005973  0.0111  0.03802  -0.03992  0.7709  0.1851
6.479e+09  0.7966  0.2664  0.004045  0.01573  0.004071  0.004357  0.7506  -0.0849
6.48e+09  0.8549  -0.06027  -0.004519  0.01845  -0.01278  0.000721  0.7021  -0.3281
6.481e+09  0.8416  -0.3636  -0.03417  -0.05659  -0.01799  -0.01435  0.5283  -0.5863
6.482e+09  0.6171  -0.657  -0.03073  -0.02984  0.03301  -0.02706  0.2994  -0.6892
6.484e+09  0.3932  -0.7852  -0.01593  -0.002863  -0.01269  -0.02183  0.08964  -0.7355
6.485e+09  0.1079  -0.834  -0.02793  -0.02296  -0.002989  -0.009284  -0.2282  -0.7533
6.486e+09  -0.2038  -0.8306  0.05417  0.06905  0.0118  -0.02306  -0.4281  -0.6087
6.488e+09  -0.1376  -0.0808  -0.03001  0.02355  -0.4628  0.5725  -0.6486  -0.4325
6.489e+09  -0.7321  -0.5422  -0.01011  0.05806  -0.01126  -0.03047  -0.7434  -0.1448
6.49e+09  -0.8835  -0.2742  -0.0246  -0.03719  -0.004948  -0.01554  -0.7627  0.1034
6.491e+09  -0.8922  0.04792  0.03147  -0.01255  0.06114  0.004318  -0.6828  0.3535
6.492e+09  -0.8356  0.3516  -0.02272  0.01472  -0.04375  0.04052  -0.561  0.5729
6.494e+09  -0.6325  0.7519  -0.001078  -0.04574  0.1077  -0.02264  -0.3517  0.723
6.495e+09  -0.363  0.8328  -0.05449  0.003299  0.02385  -0.009022  -0.01172  0.7696
6.496e+09  -0.09717  0.8997  0.006508  0.003845  0.00829  0.03391  0.1827  0.7911
6.498e+09  0.1891  0.9238  0.0386  0.04059  -0.02398  0.01446  0.471  0.6151
6.499e+09  0.5109  0.8078  0.01248  0.005977  -0.006843  0.03232  0.6472  0.3947
6.5e+09  0.6835  0.5063  -0.0009647  0.02313  0.007345  0.003169  0.7507  0.1742
6.501e+09  0.8412  0.2695  -0.003092  0.002109  -0.02475  0.03081  0.755  -0.04811
6.502e+09  0.9011  -0.06198  -0.03029  0.001281  0.01666  -0.01181  0.6705  -0.3435
6.504e+09  0.844  -0.4374  -0.0234  -0.0216  -0.02022  0.02905  0.5051  -0.5564
6.505e+09  0.6614  -0.626  0.002391  -0.00447  -0.01735  -0.00914  0.2791  -0.6823
6.506e+09  0.364  -0.8365  0.0009863  0.02824  -0.02153  -0.04121  0.0287  -0.7509
6.508e+09  0.06889  -0.931  -0.005615  -4.478e-05  0.02237  -0.02615  -0.2381  -0.7348
6.509e+09  -0.2357  -0.8936  -0.01753  0.02699  -0.03267  -0.03108  -0.4798  -0.5622
6.51e+09  -0.5107  -0.786  -0.005551  -0.007946  -0.007683  -0.006106  -0.6383  -0.3872
6.511e+09  -0.7745  -0.4998  0.03313  -0.02069  -0.001854  -0.005647  -0.7382  -0.1502
6.512e+09  -0.8699  -0.1745  -0.04155  -0.02871  0.009354  0.005195  -0.739  0.1234
6.514e+09  -0.9386  0.1375  0.003459  0.02087  0.04701  0.09318  -0.6475  0.3645
6.515e+09  -0.7832  0.4124  -0.0008582  -0.02662  -0.01467  0.01151  -0.4684  0.5829
6.516e+09  -0.6235  0.6664  -0.0003073  0.03783  -0.004698  -0.03922  -0.2239  0.7295
6.518e+09  -0.3498  0.8803  -0.007927  -0.004208  0.006043  -0.04832  0.01921  0.774
6.519e+09  0.02132  0.9887  -0.004151  -0.008097  0.01442  0.01256  0.2119  0.6533
6.52e+09  0.3202  0.8507  -0.003101  -0.0001258  0.003643  -0.008126  0.4964  0.5969
6.521e+09  0.6305  0.7553  0.01605  0.04982  -0.0347  -0.04206  0.621  0.3603
6.522e+09  0.8493  0.4499  0.002855  -0.003448  -0.02992  -0.03098  0.7475  0.1174
6.524e+09  0.9537  0.1729  -0.008691  -0.004982  -0.03355  0.01079  0.6713  -0.1401
6.525e+09  0.9256  -0.2017  -0.02586  -0.01986  -0.02967  0.0313  0.5932  -0.3971
6.526e+09  0.8198  -0.5187  0.002657  0.01117  0.004244  0.0118  0.4262  -0.5834
6.528e+09  0.5661  -0.7407  0.002395  0.04086  0.02054  -0.006913  0.1865  -0.6953
6.529e+09  0.2374  -0.8813  -0.02579  0.01681  0.02632  -0.07358  -0.06139  -0.7152
6.53e+09  -0.03067  -0.9632  0.0411  0.03558  -0.01432  -0.07403  -0.2481  -0.6434
6.531e+09  -0.3399  -0.8646  0.005534  0.004994  0.005235  0.002776  -0.459  -0.4605
6.532e+09  -0.6789  -0.7006  -0.0124  0.0186  -0.01255  0.0554  -0.6048  -0.2951
6.534e+09  -0.8428  -0.4101  -0.005891  0.03546  0.02742  -0.006734  -0.6389  -0.1232
6.535e+09  -0.9664  -0.07119  0.002127  -0.03483  -0.05177  0.03813  -0.6104  0.08785
6.536e+09  -0.935  0.2487  0.004057  -0.01944  -0.04642  -0.05989  -0.5487  0.3134
6.538e+09  -0.7329  0.5447  -0.01454  0.01739  0.001805  -0.03652  -0.4312  0.4683
6.539e+09  -0.5691  0.7493  0.007785  -0.006248  -0.02456  0.01307  -0.2528  0.5989
6.54e+09  -0.2287  0.9195  -0.02985  -0.001618  0.009549  0.01136  -0.06985  0.6521
6.541e+09  0.1311  0.9406  -0.005149  0.01973  0.00896  0.01959  0.2095  0.6531
6.542e+09  0.4378  0.8777  -0.0001727  0.007145  0.00388  0.01296  0.4209  0.5578
6.544e+09  0.7336  0.6707  -0.03235  0.02864  -0.01025  -0.005329  0.6161  0.3849
6.545e+09  0.8452  0.4032  0.05135  0.01378  0.04431  0.02019  0.7033  0.2093
6.546e+09  0.9833  -0.01782  -0.01022  0.002705  0.02067  0.04553  0.6997  -0.08226
6.548e+09  0.9008  -0.3301  0.01253  -0.03242  0.03305  -0.01139  0.6672  -0.3199
6.549e+09  0.7365  -0.5637  -0.02972  0.01441  0.05655  -0.02444  0.4813  -0.5263
