# Hz S RI R 50
6.25e+09  0.587  0.8383  0.003401  -0.03347  -0.03915  -0.01977  0.153  0.4888
6.251e+09  0.7366  0.5943  -0.0139  0.02611  -0.02942  -0.0008676  0.358  0.4156
6.252e+09  0.9478  0.2575  -0.01753  0.005527  0.01934  -0.01854  0.5254  0.2539
6.254e+09  0.9602  -0.06051  -0.03338  -0.02684  -0.007915  0.005571  0.5928  0.0308
6.255e+09  0.7813  -0.418  -0.01998  0.0007868  -0.01086  -0.03289  0.586  -0.2316
6.256e+09  0.6375  -0.6867  0.0002847  -0.004464  -0.01113  0.03472  0.4749  -0.4733
6.258e+09  0.3671  -0.8903  0.009721  -0.00371  -0.03172  0.01911  0.2894  -0.6015
6.259e+09  0.06712  -0.9275  0.03564  -0.007053  -0.01051  -0.0241  0.03607  -0.6836
6.26e+09  -0.2508  -0.9102  0.005656  0.01044  -0.02472  0.02238  -0.2249  -0.6529
6.261e+09  -0.5748  -0.742  0.0035  -0.02636  0.01702  0.01096  -0.4154  -0.5146
6.262e+09  -0.7948  -0.4578  0.04699  -0.03124  -0.02541  0.05627  -0.6139  -0.3329
6.264e+09  -0.9425  -0.1907  0.01161  -0.01965  -0.02391  0.01954  -0.7005  -0.1165
6.265e+09  -0.9317  0.1055  -0.01537  0.008472  -0.04158  -0.002979  -0.7158  0.1543
6.266e+09  -0.8054  0.5053  -0.009618  -0.01653  0.0499  0.007177  -0.6023  0.402
6.268e+09  -0.592  0.7658  0.01381  0.01688  -0.01413  0.04143  -0.4176  0.628
6.269e+09  -0.2867  0.8972  0.008327  0.01449  0.02595  0.03902  -0.2106  0.7337
6.27e+09  -0.01201  0.881  -0.007034  -0.004969  0.02983  0.006682  0.0232  0.7411
6.271e+09  0.3252  0.8328  -0.02028  -0.002907  -0.007063  0.04509  0.3276  0.657
6.272e+09  0.6669  0.7039  0.004573  0.02327  0.0391  -0.03688  0.5589  0.5296
6.274e+09  0.805  0.3982  0.0126  -0.01433  -0.006141  -0.0489  0.6831  0.3238
6.275e+09  0.9007  0.1373  0.01819  0.002449  0.00515  -0.02497  0.7402  0.05552
6.276e+09  0.8704  -0.2021  0.01877  -0.01174  0.006766  -0.04205  0.7283  -0.2384
6.278e+09  0.7982  -0.4758  0.01298  0.0005868  -0.01199  -0.00902  0.5839  -0.4756
6.279e+09  0.5575  -0.7591  -0.0178  -0.006937  -0.01241  -0.007798  0.4115  -0.653
6.28e+09  0.2281  -0.883  0.01788  -0.006235  0.006588  -0.03037  0.1629  -0.7805
6.281e+09  -0.06594  -0.9548  -0.004406  -0.01287  -0.02037  -0.0157  -0.1255  -0.7677
6.282e+09  -0.378  -0.9069  0.002373  -0.004626  0.01682  -0.01863  -0.3956  -0.6846
6.284e+09  -0.7021  -0.6392  0.02633  -0.02206  -0.05205  0.05145  -0.5735  -0.5178
6.285e+09  -0.8615  -0.3801  -0.04514  -0.007029  -0.005044  -0.001668  -0.695  -0.2888
6.286e+09  -0.9813  -0.007818  0.02264  -0.01472  -0.01787  0.0145  -0.7693  -0.006682
6.288e+09  -0.911  0.2648  -0.002121  0.006356  -0.02815  -0.03955  -0.7856  0.246
6.289e+09  -0.7032  0.6295  0.00424  -0.01121  0.01039  -0.006327  -0.6371  0.5165
6.29e+09  -0.5028  0.8135  0.01374  0.01953  0.02429  -0.007522  -0.3998  0.6855
6.291e+09  -0.1986  0.9593  0.01533  -0.02883  0.01212  -0.01441  -0.1573  0.7915
6.292e+09  0.1796  0.9357  -0.01629  -0.02822  -0.002365  0.02112  0.1177  0.7942
6.294e+09  0.4526  0.7871  0.01492  -0.01938  -0.02215  -0.00328  0.4228  0.7193
6.295e+09  0.7496  0.6307  0.008304  -0.012  -0.02193  -0.006065  0.6055  0.5075
6.296e+09  0.9185  0.3667  -0.004655  -0.01428  -0.009552  -0.01954  0.8131  0.2836
6.298e+09  0.9722  0.05698  -0.003592  0.003687  -0.006549  0.002728  0.8503  0.0415
6.299e+09  0.8808  -0.3499  -0.003185  -0.007105  -0.01034  0.03056  0.7823  -0.3011
6.3e+09  0.6476  -0.6706  0.003214  0.01916  0.02898  0.01522  0.6235  -0.5503
6.301e+09  0.5047  -0.8599  -0.0009336  0.009053  -0.02123  -0.06002  0.4137  -0.718
6.302e+09  0.1008  -0.9631  -0.004011  0.01487  0.04507  -0.01077  0.1436  -0.7959
6.304e+09  -0.2662  -0.9087  0.01149  -0.002531  -0.001061  0.01817  -0.1011  -0.824
6.305e+09  -0.5356  -0.7715  0.01786  0.004015  0.05447  -0.001591  -0.4213  -0.7049
6.306e+09  -0.7722  -0.5525  0.01728  0.0358  -0.03022  -0.03872  -0.6242  -0.5554
6.308e+09  -0.9171  -0.2151  -0.002667  0.02687  -0.01889  0.01987  -0.7974  -0.2954
6.309e+09  -0.9924  0.01848  -0.0008392  0.01765  -0.01622  0.01624  -0.8632  0.02158
6.31e+09  -0.8775  0.4426  0.0135  -0.01032  0.04396  -0.003714  -0.7919  0.2802
6.311e+09  -0.6905  0.7054  0.000614  0.02519  0.02427  -0.02468  -0.6948  0.529
6.312e+09  -0.4286  0.9105  0.01081  0.03112  -0.009829  -0.01947  -0.4416  0.7511
6.314e+09  -0.05773  0.9675  0.001031  0.003392  0.00175  0.06376  -0.174  0.8378
6.315e+09  0.3493  0.9254  -0.0147  9.773e-05  -0.06751  -0.01023  0.1128  0.8544
6.316e+09  0.6187  0.7594  0.008572  0.001838  -0.02045  -0.02661  0.4236  0.7612
6.318e+09  0.8344  0.5315  -0.01074  0.04214  0.01957  0.002245  0.6436  0.559
6.319e+09  1.044  0.2255  -0.005056  0.0121  0.003562  -0.03437  0.8097  0.3083
6.32e+09  0.9497  -0.1187  0.005543  -0.003875  -0.005027  0.005065  0.8614  0.0204
6.321e+09  0.9014  -0.4718  0.02086  -0.02116  -0.04205  -0.01812  0.8362  -0.2839
6.322e+09  0.6525  -0.8002  -0.02541  -0.005417  -0.0196  0.009779  0.7153  -0.5743
6.324e+09  0.3991  -0.9979  0.00734  0.006932  0.01632  -0.002973  0.4457  -0.767
6.325e+09  -0.06369  -1.024  6.913e-05  -0.008436  -0.02902  -0.006092  0.1499  -0.8675
6.326e+09  -0.3556  -0.9327  -0.008882  -0.001151  -0.01549  0.006981  -0.1209  -0.8759
6.328e+09  -0.6802  -0.7623  0.001464  -0.009432  -0.01112  -0.04204  -0.3775  -0.7935
6.329e+09  -0.8908  -0.5038  -0.01666  0.01417  0.03259  0.009202  -0.6863  -0.6381
6.33e+09  -0.9687  -0.1209  0.01914  0.03327  0.00572  -0.02319  -0.8498  -0.3163
6.331e+09  -0.9614  0.2542  0.02175  -0.02551  -0.02344  -0.01254  -0.922  -0.004825
6.332e+09  -0.8433  0.5684  -0.0266  -0.01572  -0.01066  -0.003836  -0.8602  0.2949
6.334e+09  -0.625  0.8443  0.02529  -0.0002155  0.0213  -0.01763  -0.7228  0.5501
6.335e+09  -0.2894  0.992  -0.01561  -0.01635  -0.01542  0.01683  -0.4703  0.7692
6.336e+09  0.0742  1.034  -0.03471  -0.01486  0.05746  -0.027  -0.1827  0.856
6.338e+09  0.4759  0.9564  -0.002993  0.02352  0.02516  -0.03015  0.1042  0.8869
6.339e+09  0.7761  0.7674  -0.01813  -0.02939  0.007196  0.02137  0.4617  0.8273
6.34e+09  1.003  0.4612  0.0178  -0.006007  0.02515  -0.003351  0.7066  0.6375
6.341e+09  1.029  0.07644  -0.02414  0.01625  0.06179  0.06919  0.8392  0.3557
6.342e+09  1.051  -0.3056  -0.0243  -0.01421  -0.003274  -0.03061  0.9224  0.06432
6.344e+09  0.8285  -0.6399  0.04128  -0.01473  -0.0001097  -0.009773  0.8593  -0.2285
6.345e+09  0.5861  -0.9384  -0.002785  -0.00871  -0.01754  -0.007178  0.7314  -0.5741
6.346e+09  0.2552  -1.033  0.007338  0.02524  0.01177  -0.03633  0.4578  -0.7555
6.348e+09  -0.07544  -1.081  -0.01786  0.008534  0.01977  0.005515  0.2336  -0.9047
6.349e+09  -0.4571  -0.9997  0.0115  -0.01776  -0.02647  0.03643  -0.06851  -0.9404
6.35e+09  -0.8612  -0.7502  0.00039  -0.005019  0.01114  0.01417  -0.4126  -0.8235
6.351e+09  -1.077  -0.4025  0.05573  0.004287  -0.02827  -0.007932  -0.6845  -0.6392
6.352e+09  -1.106  -0.01062  -0.00872  0.03419  -0.01107  -0.01015  -0.8239  -0.3784
6.354e+09  -1.049  0.3895  0.009767  -0.02888  -0.01244  0.01419  -0.9831  -0.09591
6.355e+09  -0.8777  0.7364  -0.02107  0.0371  -0.01951  0.02634  -0.9167  0.2426
6.356e+09  -0.5683  1.011  0.01777  0.01047  0.03431  -0.02493  -0.7597  0.5278
6.358e+09  -0.1784  1.063  0.006445  0.02001  0.01699  0.02717  -0.5525  0.7619
6.359e+09  0.2331  1.147  -0.04872  0.03169  -0.0402  0.01377  -0.169  0.8563
6.36e+09  0.5547  0.9826  0.006014  -0.008745  0.006994  0.06288  0.1041  0.9201
6.361e+09  0.9407  0.706  0.03391  -0.002129  0.03083  -0.01414  0.3969  0.8298
6.362e+09  1.121  0.3576  -0.005212  0.02996  0.02298  0.007018  0.6891  0.6467
6.364e+09  1.153  -0.04534  -0.01961  -0.01447  0.02962  -0.004984  0.8509  0.3902
6.365e+09  1.068  -0.4332  -0.008437  0.06019  0.02622  -0.01086  0.9247  0.09903
6.366e+09  0.8504  -0.821  -0.001023  0.002668  -0.01229  0.007434  0.8789  -0.2308
6.368e+09  0.5908  -1.03  0.02712  -0.0003222  0.02524  -0.01486  0.8434  -0.5144
6.369e+09  0.1375  -1.173  -0.01376  0.003477  -0.004479  -0.005888  0.534  -0.7478
6.37e+09  -0.3096  -1.181  -0.0217  -0.006324  -0.0239  0.05402  0.2491  -0.9607
6.371e+09  -0.6726  -1.012  0.01714  -0.02409  0.006287  0.01552  -0.09471  -0.9709
6.372e+09  -0.9989  -0.7223  -0.006344  0.02144  -0.02432  0.0002496  -0.3868  -0.8674
6.374e+09  -1.178  -0.3307  -0.01057  0.001692  0.02529  -0.01718  -0.6311  -0.6772
6.375e+09  -1.245  0.06678  -0.009198  -0.01451  -0.0566  -0.01241  -0.8439  -0.389
6.376e+09  -1.125  0.5685  0.01485  0.003859  0.03917  0.03008  -0.9651  -0.09033
6.378e+09  -0.8886  0.857  -0.0238  0.02772  0.03655  -0.01471  -0.9123  0.2535
6.379e+09  -0.5065  1.137  -0.009646  -0.001937  0.03228  -0.0134  -0.7869  0.5357
6.38e+09  -0.103  1.296  -0.005399  -0.01075  0.004613  0.01854  -0.5457  0.7641
6.381e+09  0.3495  1.228  0.02618  -0.0127  -0.007361  0.02582  -0.3007  0.9174
6.382e+09  0.7426  1.035  0.03322  -0.03889  -0.02011  -0.003996  0.07335  0.9629
6.384e+09  1.103  0.6925  -0.00735  -0.009572  -0.02191  -0.009136  0.3783  0.8858
6.385e+09  1.318  0.2861  0.01536  -0.02455  0.01415  -0.007996  0.6217  0.6802
6.386e+09  1.366  -0.2245  0.03161  -0.006126  0.006647  -0.03809  0.8489  0.4341
6.388e+09  1.202  -0.6782  0.004855  0.01576  0.005568  0.02146  0.8956  0.1233
6.389e+09  0.8856  -1.021  0.03557  0.002688  0.03152  -0.005892  0.892  -0.1806
6.39e+09  0.4884  -1.231  -0.02999  0.002225  -0.05785  -0.003619  0.8022  -0.4964
6.391e+09  0.0572  -1.384  0.008754  -0.02544  -0.003799  -0.009805  0.5699  -0.7636
6.392e+09  -0.4536  -1.341  -0.0203  -0.004917  0.04395  -0.01193  0.3137  -0.8453
6.394e+09  -0.8597  -1.04  0.02124  -0.006734  -0.01457  0.03167  0.002187  -0.9718
6.395e+09  -1.241  -0.7498  0.07951  0.002653  0.03552  0.004932  -0.3531  -0.8495
6.396e+09  -1.406  -0.2732  -0.0317  -0.001932  -0.01429  0.03496  -0.6072  -0.661
6.398e+09  -1.518  0.2053  -0.01656  0.01978  -0.05262  -0.003432  -0.8278  -0.4519
6.399e+09  -1.298  0.7178  -0.02135  -0.05619  0.03735  -0.01185  -0.9093  -0.1267
6.4e+09  -0.9707  1.153  0.02652  0.01877  -0.01764  -0.002403  -0.9339  0.177
6.401e+09  -0.5298  1.498  -0.005824  -0.001553  0.005497  -0.01168  -0.7637  0.5102
6.402e+09  0.03651  1.501  0.02757  -0.0371  -0.0007747  0.004613  -0.5867  0.6749
6.404e+09  0.5526  1.492  -0.001451  0.008257  0.02301  -0.03913  -0.3072  0.8744
6.405e+09  1.035  1.154  -0.00417  0.02824  0.03558  -0.03259  -0.02017  0.918
6.406e+09  1.41  0.7206  0.01585  0.0008462  0.002531  0.03846  0.3233  0.8733
6.408e+09  1.55  0.2426  -0.01308  0.0602  -0.01827  -0.007164  0.5842  0.6938
6.409e+09  1.587  -0.3548  -0.01342  -0.01354  0.01363  -0.01366  0.8272  0.4344
6.41e+09  1.42  -0.9547  0.03808  -0.003459  0.0283  -0.00786  0.8694  0.1766
6.411e+09  0.9747  -1.399  0.0183  0.007232  0.00422  0.0444  0.8655  -0.1882
6.412e+09  0.398  -1.673  -0.04162  -0.002225  -0.01032  0.003618  0.7955  -0.4443
6.414e+09  -0.1865  -1.702  0.01578  -0.03617  0.003484  0.01121  0.5909  -0.6365
6.415e+09  -0.8045  -1.551  -0.01855  0.003319  0.03968  0.02542  0.3366  -0.8377
6.416e+09  -1.33  -1.267  0.05664  -0.03709  0.02008  0.02193  0.0446  -0.929
6.418e+09  -1.753  -0.7006  -0.01386  0.02901  -0.00793  0.1018  -0.2847  -0.858
6.419e+09  -1.883  -0.009251  -0.01477  0.03146  0.04288  -0.02406  -0.5182  -0.7565
6.42e+09  -1.818  0.6673  -0.02134  0.002574  -0.00488  -0.05779  -0.7389  -0.4811
6.421e+09  -1.513  1.188  0.00247  0.00728  0.05604  0.002715  -0.8139  -0.1867
6.422e+09  -0.9498  1.756  0.04268  -0.009387  -0.001141  -0.04784  -0.8198  0.08264
6.424e+09  -0.252  2.03  -0.03438  -0.02209  -0.03808  -0.05395  -0.8  0.3745
6.425e+09  0.525  2.025  -0.0319  0.004965  0.02539  0.006927  -0.5868  0.6674
6.426e+09  1.205  1.742  -0.002938  -0.0003016  -0.005307  0.01088  -0.3082  0.8119
6.428e+09  1.85  1.255  -0.01938  -0.02349  0.00682  -0.02057  -0.09162  0.8633
6.429e+09  2.146  0.561  0.009012  0.03088  0.1157  -0.001911  0.2409  0.7585
6.43e+09  2.31  -0.2906  0.0009671  0.007061  0.001911  -0.0224  0.5075  0.6594
6.431e+09  2.038  -1.084  0.01854  0.01757  -0.05096  0.0363  0.6922  0.4689
6.432e+09  1.534  -1.751  -0.01887  0.02074  -0.0007147  0.01831  0.8364  0.2253
6.434e+09  0.7675  -2.218  -0.04293  -0.003031  0.07802  -0.00519  0.8416  -0.08649
6.435e+09  -0.07224  -2.516  0.008235  0.01068  -0.04773  -0.06386  0.7989  -0.3706
6.436e+09  -1.029  -2.361  -0.01031  -0.0165  0.01417  0.004341  0.5831  -0.5978
6.438e+09  -1.809  -1.812  0.005699  -0.008525  -0.001047  -0.0321  0.3414  -0.7874
6.439e+09  -2.359  -1.171  -0.03087  0.01453  -0.00613  0.05464  0.05306  -0.8652
6.44e+09  -2.68  -0.2377  0.01659  -0.03629  0.007523  0.07725  -0.2364  -0.8214
6.441e+09  -2.631  0.8455  -0.005115  0.01061  -0.009812  0.02321  -0.4755  -0.7298
6.442e+09  -2.136  1.711  0.02008  -0.01498  -0.006397  0.08004  -0.6403  -0.4736
6.444e+09  -1.378  2.51  -0.01554  0.004074  -0.005214  0.006489  -0.7978  -0.1703
6.445e+09  -0.435  2.937  -0.02661  -0.002959  -0.03891  0.05673  -0.8243  0.07282
6.446e+09  0.6963  2.983  0.001477  -0.03287  0.00523  0.08953  -0.729  0.3363
6.448e+09  1.713  2.542  0.009282  -0.02064  0.08055  0.0021  -0.6232  0.5985
6.449e+09  2.669  1.804  -0.01576  -0.05634  0.04441  -0.007439  -0.327  0.7361
6.45e+09  3.112  0.6746  -0.01055  -0.0009661  -9.16e-05  -0.0175  -0.08752  0.7914
6.451e+09  3.327  -0.5439  0.002687  0.01716  -0.1057  0.00278  0.2082  0.8338
6.452e+09  2.888  -1.773  -0.002636  0.01641  -0.006937  0.02928  0.5012  0.7006
6.454e+09  2.075  -2.761  0.0001605  -0.02208  0.03963  0.05171  0.7034  0.4394
6.455e+09  0.8497  -3.385  0.02135  -0.0198  -0.03557  0.1136  0.8027  0.2121
6.456e+09  -0.49  -3.619  0.003765  0.01837  0.08677  0.02866  0.8645  -0.07509
6.458e+09  -1.793  -3.201  0.03022  0.008359  -0.02944  -0.009827  0.7389  -0.399
6.459e+09  -2.946  -2.355  -0.03695  0.0005351  -0.04847  -0.06371  0.5944  -0.606
6.46e+09  -3.659  -1.029  0.03649  -0.004274  -0.09576  0.01428  0.34  -0.7135
6.461e+09  -3.953  0.4292  0.002198  0.01306  0.01146  0.05299  0.01914  -0.8252
6.462e+09  -3.542  1.853  0.01271  -0.02537  -0.05977  -0.01827  -0.2328  -0.7864
6.464e+09  -2.616  3.085  -0.003209  0.02222  0.002644  -0.005004  -0.4406  -0.6731
6.465e+09  -1.225  3.898  0.01976  0.03303  0.04216  -0.01128  -0.6831  -0.431
6.466e+09  0.2922  4.11  0.02996  -0.0044  0.02492  0.07925  -0.7892  -0.1899
6.468e+09  1.926  3.683  0.0147  0.01081  -0.07226  0.0088  -0.8068  0.06135
6.469e+09  3.283  2.722  0.004358  -0.001566  0.007395  0.07756  -0.6952  0.3042
6.47e+09  4.185  1.437  0.002812  -0.008484  0.0344  -0.08778  -0.5498  0.5829
6.471e+09  4.415  -0.294  -0.01204  -0.005085  -0.02695  -0.06139  -0.3048  0.7089
6.472e+09  4.016  -2.037  -0.01051  0.0196  -0.05176  0.0147  -0.05832  0.7844
6.474e+09  3.014  -3.426  0.02761  -0.03248  0.0008812  -0.002167  0.21  0.7766
6.475e+09  1.423  -4.425  -0.005396  -0.02594  -0.1077  -0.03962  0.4382  0.6484
6.476e+09  -0.3229  -4.553  0.002929  0.0499  0.02639  0.0003365  0.6781  0.4279
6.478e+09  -2.096  -4.169  0.003313  0.02873  0.05805  0.06161  0.8184  0.2188
6.479e+09  -3.56  -3.039  0.03137  0.00171  0.1016  0.004638  0.8299  -0.05436
6.48e+09  -4.501  -1.518  -0.008593  0.03182  -0.0856  0.06178  0.7329  -0.3009
6.481e+09  -4.724  0.4049  -0.02021  0.02062  0.01985  -0.02973  0.5897  -0.5667
6.482e+09  -4.046  2.153  0.00712  -0.01486  0.008818  0.02212  0.3259  -0.7338
6.484e+09  -3.09  3.627  0.01083  0.09238  -0.04095  -0.03278  0.05739  -0.7439
6.485e+09  -1.47  4.57  0.01027  0.02354  -0.04466  -0.02321  -0.2085  -0.7167
6.486e+09  0.3858  4.775  -0.0309  -0.03099  0.06175  0.02443  -0.4574  -0.6199
6.488e+09  2.041  4.983  -0.001654  0.01538  -0.6643  0.3304  -0.6529  -0.4514
6.489e+09  3.514  3.088  0.004338  0.006769  0.04584  -0.006596  -0.734  -0.1647
6.49e+09  4.594  1.512  0.03016  -0.0069  0.04466  -0.02431  -0.7457  0.06957
6.491e+09  4.71  -0.2557  -0.01242  0.006173  0.04807  -0.004856  -0.6536  0.3507
6.492e+09  4.284  -2.073  -0.01548  -0.002138  -0.06589  -0.04905  -0.5239  0.591
6.494e+09  3.334  -3.472  0.01696  0.002032  -0.04625  -0.1646  -0.2973  0.7073
6.495e+09  1.72  -4.513  -0.03315  0.01533  0.0007282  0.01894  -0.03081  0.7295
6.496e+09  -0.1386  -4.724  -0.05309  -0.005336  0.04867  0.02303  0.2222  0.7253
6.498e+09  -1.976  -4.372  -0.008944  0.0142  0.02952  -0.02241  0.4867  0.6282
6.499e+09  -3.437  -3.243  -0.02339  -0.01932  -0.005145  0.04117  0.6517  0.4137
6.5e+09  -0.1507  -0.8917  0.03026  -0.001174  -0.04138  -0.04047  0.7559  0.1527
6.501e+09  -4.869  0.1294  -0.02913  0.02856  -0.07158  0.04224  0.7782  -0.07402
6.502e+09  -4.406  1.925  -0.04832  0.01123  -0.07572  0.009213  0.6443  -0.368
6.504e+09  -3.332  3.331  0.02715  0.01275  0.03878  0.015  0.5434  -0.5754
6.505e+09  -1.75  4.516  0.02875  0.02267  0.02137  0.05538  0.2665  -0.7379
6.506e+09  -0.01774  4.778  -0.00469  -0.02762  -0.01834  -0.08429  -0.006287  -0.824
6.508e+09  1.815  4.349  0.01718  0.03102  0.01582  -0.02673  -0.2763  -0.725
6.509e+09  3.354  3.504  0.01286  0.05047  -0.08221  -0.001281  -0.4488  -0.5782
6.51e+09  4.304  1.863  0.01358  0.0006627  2.627e-06  0.02169  -0.6372  -0.3999
6.511e+09  4.694  0.08286  -0.01585  -0.01144  0.02561  -0.0002736  -0.7476  -0.1109
6.512e+09  4.352  -1.643  -0.02359  0.004642  0.003299  -0.004387  -0.7484  0.1357
6.514e+09  3.394  -3.176  0.02119  0.01459  0.05212  0.02166  -0.6144  0.3728
6.515e+09  1.976  -4.295  0.002906  -0.01435  0.04555  0.05169  -0.4762  0.5785
6.516e+09  0.1641  -4.705  -0.01092  0.01154  0.0006452  0.02127  -0.2386  0.6963
6.518e+09  -1.522  -4.311  -0.01083  0.002926  0.0106  -0.02254  -0.03187  0.7358
6.519e+09  -3.004  -3.474  -0.02827  0.01602  0.04703  -0.08505  0.2536  0.6664
6.52e+09  -4.169  -1.981  0.01364  -0.03946  -0.02628  -0.01483  0.5193  0.57
6.521e+09  -4.562  -0.1612  -0.001228  0.003293  0.004742  0.002257  0.6414  0.3437
6.522e+09  -4.278  1.527  -0.0315  0.02509  0.03365  -0.02116  0.7289  0.1146
6.524e+09  -3.361  3.016  0.01964  -0.03916  -0.03125  0.02353  0.7367  -0.1808
6.525e+09  -1.916  3.975  0.003701  -0.005697  0.02838  -0.07279  0.6071  -0.3807
6.526e+09  -0.2635  4.379  0.008151  -0.01565  0.02787  0.003394  0.4244  -0.5661
6.528e+09  1.399  4.142  -0.05286  0.02037  0.02308  -0.007337  0.2004  -0.6925
6.529e+09  2.821  3.208  -0.005106  -0.02022  0.06348  -0.008827  -0.09335  -0.7037
6.53e+09  3.796  1.91  -0.007286  -0.006482  0.0002993  -0.072  -0.265  -0.637
6.531e+09  4.137  0.3768  0.0156  -0.0139  -0.003427  0.05  -0.4678  -0.4725
6.532e+09  3.926  -1.272  -0.003132  -0.04099  -0.006252  0.007509  -0.5801  -0.2991
6.534e+09  3.062  -2.608  -0.01453  0.00574  0.01407  0.03012  -0.6298  -0.08001
6.535e+09  1.94  -3.506  -0.04239  -0.01551  0.001548  0.01636  -0.6676  0.1449
6.536e+09  0.4509  -3.944  -0.003579  -0.01552  -0.04253  0.03059  -0.5777  0.3292
6.538e+09  -1.098  -3.692  -0.00877  -0.02689  -0.03415  -0.004811  -0.4472  0.4769
6.539e+09  -2.347  -2.946  0.001951  0.04119  -0.04976  -0.07666  -0.2642  0.5961
6.54e+09  -3.333  -1.904  0.02402  0.002169  0.03525  -0.03094  -0.05685  0.7084
6.541e+09  -3.658  -0.5174  0.01608  -0.001565  -0.01306  -0.03278  0.1749  0.656
6.542e+09  -3.463  0.8458  0.02418  0.01923  0.03741  0.02197  0.4437  0.5744
6.544e+09  -2.836  2.033  0.01515  0.02463  0.06887  0.04922  0.6312  0.3677
6.545e+09  -1.792  2.915  0.006449  -0.004333  -0.01346  0.04687  0.6946  0.1815
6.546e+09  -0.6388  3.336  -0.007637  -4.979e-06  -0.0203  -0.01054  0.7454  -0.1107
6.548e+09  0.6835  3.255  -0.02011  -0.009326  -0.007989  0.02685  0.6886  -0.3139
6.549e+09  1.713  2.72  0.01277  0.02241  -0.02572  0.02593  0.503  -0.5169
6.55e+09  2.591  1.925  0.00756  0.009448  0.0191  0.02712  0.2675  -0.6579
6.551e+09  2.999  0.7449  -0.02478  -0.004554  -0.03124  -0.02049  0.05673  -0.7506
6.552e+09  2.972  -0.3371  -0.003703  0.005713  -0.02489  -0.09035  -0.2079  -0.705
6.554e+09  2.537  -1.405  0.03356  0.009062  0.03638  0.04451  -0.4608  -0.5967
