# Hz S RI R 50
6.25e+09  -0.4255  0.7762  -0.005378  0.01795  -0.04264  0.01665  0.1565  0.4871
6.251e+09  -0.1423  0.8032  -0.01192  0.01782  -0.03496  -0.04108  0.3527  0.4248
6.252e+09  0.2072  0.8222  -0.003877  0.00496  -0.01084  0.01696  0.5046  0.2244
6.254e+09  0.4724  0.686  -0.005773  0.03562  -0.0079  -0.007388  0.5872  0.03693
6.255e+09  0.6586  0.4586  -0.02001  -0.004119  -0.04929  -0.0358  0.5798  -0.181
6.256e+09  0.8464  0.2025  0.01398  0.002988  0.01649  0.03068  0.4608  -0.4414
6.258e+09  0.8102  -0.06342  0.0002053  -0.001513  0.006064  -0.01337  0.2663  -0.5978
6.259e+09  0.7534  -0.3691  0.00638  -0.001259  -0.01152  -0.02904  0.03766  -0.6647
6.26e+09  0.5257  -0.5432  0.02315  -0.00574  0.02196  -0.01201  -0.2101  -0.6428
6.261e+09  0.3844  -0.7687  0.002221  0.004499  0.01193  -0.005816  -0.4548  -0.5313
6.262e+09  0.09635  -0.7634  0.01805  0.04764  0.02502  -0.03809  -0.628  -0.3889
6.264e+09  -0.2335  -0.771  -0.02251  0.002417  0.006562  -0.02815  -0.7602  -0.08422
6.265e+09  -0.4074  -0.6283  0.02268  0.02864  -0.0359  -0.01545  -0.6971  0.1652
6.266e+09  -0.6281  -0.4541  -0.03321  0.06655  -0.0122  0.0007769  -0.6239  0.3916
6.268e+09  -0.7735  -0.2265  -0.02078  0.02245  0.02081  0.02824  -0.4187  0.6
6.269e+09  -0.8046  0.07008  -0.01329  -0.004044  0.04195  -0.0257  -0.1934  0.7068
6.27e+09  -0.7254  0.3591  -0.003939  -0.0198  -0.002141  -0.02101  0.07994  0.747
6.271e+09  -0.5811  0.5936  -0.01571  0.007195  -0.002482  -0.02023  0.304  0.6782
6.272e+09  -0.3455  0.7636  -0.02074  -0.03504  -0.008711  -0.02215  0.5365  0.534
6.274e+09  -0.05432  0.8636  0.006717  0.004587  -0.005403  -0.01367  0.6811  0.3021
6.275e+09  0.1986  0.8089  -0.005235  0.01435  -0.01997  -0.01578  0.7618  0.06969
6.276e+09  0.5076  0.6728  -0.0002439  -0.009637  0.01476  0.01044  0.7287  -0.2157
6.278e+09  0.6504  0.4415  0.0232  0.02831  0.01995  0.008198  0.6343  -0.4502
6.279e+09  0.8301  0.1832  -0.008247  0.0148  -0.00872  -0.05103  0.4098  -0.6585
6.28e+09  0.8014  -0.1241  -0.03118  0.001998  -0.01286  0.02558  0.1594  -0.751
6.281e+09  0.7282  -0.3315  0.001711  -0.01092  0.02768  -0.01076  -0.1084  -0.77
6.282e+09  0.5359  -0.5934  -0.01553  -0.02736  0.0458  -0.05264  -0.3367  -0.7266
6.284e+09  0.3259  -0.7606  0.008524  -0.01912  -0.04629  -0.04608  -0.583  -0.5232
6.285e+09  0.09524  -0.8193  0.007957  -0.003789  -0.01259  0.03718  -0.7253  -0.2916
6.286e+09  -0.2496  -0.8039  0.009736  -0.03612  0.0113  0.02749  -0.7751  -0.03682
6.288e+09  -0.5289  -0.6675  -0.01108  0.0218  -0.03394  0.004248  -0.7635  0.244
6.289e+09  -0.6603  -0.4665  -0.03315  0.02371  -0.01329  -0.007464  -0.6341  0.5134
6.29e+09  -0.8137  -0.1535  0.0009455  0.009358  -0.00916  0.01889  -0.4164  0.6591
6.291e+09  -0.8434  0.08758  0.01095  -0.006648  -0.03445  -0.04817  -0.1632  0.8182
6.292e+09  -0.6961  0.3777  0.0006891  -0.02123  0.01255  -0.01565  0.1072  0.8088
6.294e+09  -0.4866  0.633  0.02957  -0.02356  0.01771  -0.01523  0.3474  0.6982
6.295e+09  -0.2627  0.6873  -0.01844  -0.01332  -0.01029  -0.03207  0.6093  0.5401
6.296e+09  0.0006827  0.839  0.001508  -0.02565  -0.0185  -0.01357  0.7802  0.2884
6.298e+09  0.2798  0.7309  -0.01538  -0.01682  0.007951  -0.01041  0.8438  0.01278
6.299e+09  0.4762  0.627  -0.0003445  0.007051  0.01157  -0.03757  0.7765  -0.2729
6.3e+09  0.7269  0.3835  -0.02951  0.0008545  -0.01596  0.03123  0.6252  -0.5085
6.301e+09  0.8168  0.193  -0.02487  -0.008877  0.01647  0.00743  0.4175  -0.7189
6.302e+09  0.7382  -0.1524  0.02665  0.02089  0.004935  0.001309  0.1202  -0.8378
6.304e+09  0.7064  -0.4271  0.005568  -0.04741  -0.01022  -0.005639  -0.1259  -0.8094
6.305e+09  0.5072  -0.6321  0.00327  0.01177  0.01557  -0.01582  -0.4088  -0.7373
6.306e+09  0.2883  -0.7718  -0.01147  0.02092  -0.007582  -0.009647  -0.643  -0.5431
6.308e+09  -0.01163  -0.7774  0.01501  0.000797  0.01143  -0.01488  -0.8028  -0.2776
6.309e+09  -0.2423  -0.823  -0.002125  -0.01956  -0.000273  0.009974  -0.8733  -0.002189
6.31e+09  -0.4997  -0.5959  -0.002212  0.01031  -0.01226  0.0125  -0.8201  0.2784
6.311e+09  -0.74  -0.4037  -0.002035  -0.01865  -0.006008  0.02909  -0.6722  0.5577
6.312e+09  -0.7786  -0.1359  -0.01718  0.02122  -0.01743  -0.009382  -0.464  0.7601
6.314e+09  -0.7564  0.1938  0.005854  0.004329  -0.04037  -0.02364  -0.1604  0.845
6.315e+09  -0.7054  0.465  0.001478  0.007078  -0.02774  -0.0508  0.1546  0.86
6.316e+09  -0.4581  0.6157  -0.0006056  0.007402  0.01772  -0.03599  0.4258  0.7572
6.318e+09  -0.1996  0.7841  0.001995  0.008919  -0.03941  0.02928  0.6897  0.5696
6.319e+09  0.06524  0.8508  -0.01418  0.02678  -0.01957  -0.02523  0.7913  0.3184
6.32e+09  0.3537  0.7622  -0.02091  -0.006599  -0.002863  -0.04739  0.8846  0.006625
6.321e+09  0.534  0.5411  0.0171  0.01114  -0.0246  0.003065  0.8506  -0.297
6.322e+09  0.7735  0.3908  -0.01562  -0.02863  0.02265  -0.05033  0.6685  -0.5769
6.324e+09  0.8618  0.0661  -0.005075  -0.01484  -0.028  -0.03956  0.453  -0.7527
6.325e+09  0.7865  -0.1844  0.03255  0.01236  0.02303  -0.03105  0.1845  -0.8876
6.326e+09  0.6725  -0.4687  0.004943  0.03552  -0.05348  -0.04141  -0.1518  -0.8993
6.328e+09  0.4582  -0.6693  -0.01454  0.00119  0.002648  0.006291  -0.4229  -0.78
6.329e+09  0.2023  -0.7896  -0.002714  -0.002518  -0.01415  0.03841  -0.7075  -0.5922
6.33e+09  -0.09742  -0.8366  -0.0003106  -0.02143  -0.02441  0.0154  -0.8364  -0.3401
6.331e+09  -0.3711  -0.782  0.03399  -0.01076  -0.05732  0.02611  -0.9146  -0.01653
6.332e+09  -0.6278  -0.5133  -0.02181  -0.0129  0.0008212  0.01243  -0.8874  0.2576
6.334e+09  -0.737  -0.2645  -0.01871  0.006505  -0.02381  -0.02532  -0.7267  0.5688
6.335e+09  -0.8218  -0.0531  0.006765  -0.004439  0.01203  0.03538  -0.4787  0.7748
6.336e+09  -0.8139  0.2607  -0.008327  0.005814  0.006637  -0.007364  -0.2221  0.91
6.338e+09  -0.6212  0.5245  -0.02726  0.0436  -0.02302  0.0078  0.09969  0.9117
6.339e+09  -0.4528  0.7337  0.0495  -0.005525  0.0007407  0.005607  0.4275  0.8416
6.34e+09  -0.1191  0.8253  -0.004214  -0.02  -0.0258  0.04686  0.6989  0.609
6.341e+09  0.1823  0.8518  -0.02817  -0.03131  -0.01237  0.007165  0.8306  0.3462
6.342e+09  0.4621  0.7287  0.03697  0.007294  0.0051  0.01113  0.9249  0.02491
6.344e+09  0.6397  0.5174  -0.04111  0.01627  -0.02149  0.02544  0.88  -0.2625
6.345e+09  0.8355  0.2595  0.008328  -0.0001079  -0.0172  -0.04272  0.7511  -0.5582
6.346e+09  0.8659  -0.02237  0.007443  0.01752  0.004728  0.01696  0.4637  -0.7943
6.348e+09  0.8102  -0.3613  0.007295  0.008624  -0.006749  0.02074  0.2248  -0.9199
6.349e+09  0.609  -0.5674  -0.01701  0.03633  0.01702  0.001939  -0.1059  -0.9105
6.35e+09  0.3503  -0.7541  -0.02191  0.03197  -0.006895  0.0461  -0.4217  -0.8731
6.351e+09  0.08632  -0.8791  0.005533  0.02635  0.007557  -0.01652  -0.6593  -0.6557
6.352e+09  -0.2415  -0.8145  -0.0244  -0.00899  -0.0143  -0.01788  -0.877  -0.3947
6.354e+09  -0.4858  -0.6882  -0.00468  0.02826  -0.05549  -0.02006  -0.9676  -0.03804
6.355e+09  -0.6942  -0.506  0.04591  -0.002059  -0.03811  0.03839  -0.8953  0.2815
6.356e+09  -0.7985  -0.2469  0.002479  0.02859  0.0198  -0.007325  -0.7761  0.596
6.358e+09  -0.8552  0.1046  0.003519  0.01305  -0.01185  -0.01914  -0.5431  0.749
6.359e+09  -0.796  0.3647  0.0134  -0.06424  0.001038  -0.002208  -0.2371  0.8915
6.36e+09  -0.6198  0.6435  0.04481  -0.03034  -0.008857  0.01796  0.101  0.9241
6.361e+09  -0.3568  0.7849  -0.0041  -0.01358  -0.008932  0.01837  0.3668  0.8685
6.362e+09  -0.05399  0.8558  0.01147  -0.02538  0.03093  0.01667  0.6788  0.6673
6.364e+09  0.2376  0.8614  -0.02346  0.01815  -0.008259  -0.0569  0.8584  0.3942
6.365e+09  0.511  0.6686  -0.01241  -0.01232  0.004618  -0.02349  0.9687  0.05352
6.366e+09  0.7496  0.4895  -0.005336  0.02607  0.03512  0.02684  0.9118  -0.252
6.368e+09  0.872  0.185  0.01834  -0.03133  0.0001263  -0.01853  0.7623  -0.5271
6.369e+09  0.8845  -0.1354  -0.01329  0.02124  -0.01549  0.0007501  0.5521  -0.7719
6.37e+09  0.7463  -0.4206  0.02277  -0.01827  -0.02965  -0.02453  0.2357  -0.9239
6.371e+09  0.5914  -0.6574  -0.024  -0.02865  -0.01324  -0.01262  -0.09443  -0.9235
6.372e+09  0.2782  -0.7848  0.002164  -0.009014  0.01401  0.013  -0.4049  -0.8846
6.374e+09  -0.008001  -0.8452  -0.02315  -0.03544  0.03733  0.03826  -0.6718  -0.6634
6.375e+09  -0.3016  -0.8432  -0.02505  -0.02213  -0.02396  0.04881  -0.8382  -0.4093
6.376e+09  -0.5656  -0.6448  6.28e-05  0.03436  -0.01153  -0.044  -0.9058  -0.09538
6.378e+09  -0.7168  -0.4418  -0.0125  -0.02193  -0.02434  -0.003447  -0.9129  0.2426
6.379e+09  -0.8673  -0.1637  -0.01739  -0.008496  -0.02503  0.02481  -0.7775  0.5369
6.38e+09  -0.8543  0.1813  0.00179  0.03177  0.01781  0.005986  -0.5366  0.7875
6.381e+09  -0.7268  0.4579  -0.04165  0.005187  0.01989  0.02671  -0.2956  0.8938
6.382e+09  -0.5137  0.6554  0.001225  -0.01998  -0.0144  0.04783  0.04332  0.921
6.384e+09  -0.2405  0.8201  0.01827  0.03904  -0.007878  -0.002394  0.36  0.8627
6.385e+09  -0.02169  0.868  -0.01899  0.002445  0.006049  0.05358  0.6176  0.6868
6.386e+09  0.3433  0.7819  0.01699  -0.07266  0.04036  0.005524  0.8129  0.4039
6.388e+09  0.624  0.6082  0.009638  -0.02547  0.003483  -0.03134  0.9233  0.03965
6.389e+09  0.769  0.4387  -0.02208  -0.0008224  0.005914  -4.06e-06  0.9156  -0.2053
6.39e+09  0.826  0.1235  0.02036  -0.02297  -0.005299  -0.02844  0.7626  -0.5153
6.391e+09  0.8262  -0.1782  0.02247  0.003782  0.03157  -0.04334  0.5712  -0.7428
6.392e+09  0.6815  -0.4655  0.02144  0.007288  0.001023  -0.0009682  0.2846  -0.9097
6.394e+09  0.5328  -0.6957  -0.01244  -0.01534  -0.0413  -0.03295  -0.0492  -0.9234
6.395e+09  0.223  -0.8786  -0.01884  -0.01216  0.009513  0.0101  -0.3658  -0.8515
6.396e+09  -0.04492  -0.8793  0.01779  -0.003524  0.00121  0.008061  -0.593  -0.6579
6.398e+09  -0.3675  -0.8392  -0.008517  0.01599  -0.04572  0.006089  -0.7793  -0.4076
6.399e+09  -0.5919  -0.6778  0.008149  0.02772  -0.001292  0.03333  -0.9133  -0.1055
6.4e+09  -0.7788  -0.3776  0.02105  -0.016  -0.003874  0.01368  -0.9083  0.1221
6.401e+09  -0.8761  -0.06174  0.002992  0.007209  0.04228  -0.01997  -0.7965  0.4452
6.402e+09  -0.8171  0.2624  0.01317  0.03499  -0.02108  0.01569  -0.6117  0.7469
6.404e+09  -0.6891  0.4614  0.02608  0.01445  -0.02026  0.04111  -0.3454  0.8764
6.405e+09  -0.4922  0.6702  0.01911  0.0003904  0.006109  -0.04368  0.004737  0.9477
6.406e+09  -0.1822  0.8425  -0.05188  -0.0116  0.02751  -0.001315  0.2816  0.8495
6.408e+09  0.07366  0.8249  0.0136  0.02191  0.01446  0.02991  0.5823  0.7006
6.409e+09  0.3617  0.7416  -0.01679  0.05081  -0.002884  -0.006634  0.7845  0.4521
6.41e+09  0.6148  0.5584  -0.04521  0.05153  0.001122  0.01686  0.876  0.1524
6.411e+09  0.7502  0.3279  -0.007305  0.05072  -0.002354  -0.007984  0.9143  -0.1041
6.412e+09  0.8745  0.02099  -0.03803  0.003686  0.02862  -0.009337  0.7993  -0.4399
6.414e+09  0.8084  -0.1976  -0.01683  0.009435  -0.00395  0.01832  0.5958  -0.6614
6.415e+09  0.6909  -0.5085  -0.05654  0.0783  0.006239  -0.0303  0.3306  -0.8104
6.416e+09  0.43  -0.6809  -0.04225  -0.02105  -0.01013  0.01392  0.06647  -0.8999
6.418e+09  0.1492  -0.8163  -0.02274  -0.04472  0.003874  0.007171  -0.2693  -0.8928
6.419e+09  -0.08186  -0.8624  0.02172  0.02965  0.04328  0.02239  -0.5316  -0.6661
6.42e+09  -0.3608  -0.7377  -0.002597  0.01027  -0.004445  0.02518  -0.7175  -0.436
6.421e+09  -0.6102  -0.6021  -0.01454  -0.009753  -0.03047  -0.05431  -0.8794  -0.2285
6.422e+09  -0.7677  -0.3706  0.0269  -0.03222  0.009345  -0.01852  -0.9134  0.08163
6.424e+09  -0.8761  -0.006316  -0.006278  -0.0533  -0.02895  -0.009665  -0.7757  0.4063
6.425e+09  -0.839  0.2943  -0.02128  -0.005206  0.01745  -0.009766  -0.6288  0.5976
6.426e+09  -0.6925  0.5158  0.01999  -0.002105  0.01875  -0.02182  -0.3281  0.8273
6.428e+09  -0.4258  0.7538  0.03361  0.007391  -0.00129  -0.009221  -0.08178  0.8982
6.429e+09  -0.1817  0.8606  -0.002435  0.01832  0.01163  0.04052  0.1749  0.8386
6.43e+09  0.1381  0.8611  -0.01721  -0.009949  0.01823  0.04524  0.5056  0.6656
6.431e+09  0.4406  0.7527  0.02658  0.004847  -0.0005337  -0.02162  0.7122  0.5298
6.432e+09  0.6315  0.5485  0.01173  0.01122  -0.0466  -0.01708  0.8273  0.2261
6.434e+09  0.7806  0.2387  0.01242  -0.021  -0.04808  -0.003922  0.8396  -0.08635
6.435e+09  0.8575  -0.00272  0.01111  -0.004959  -0.02112  0.02505  0.802  -0.3868
6.436e+09  0.8012  -0.281  -0.02236  0.03666  0.03355  -0.03752  0.6044  -0.6021
6.438e+09  0.6358  -0.5406  0.002552  0.03583  -0.01071  0.007193  0.3721  -0.7606
6.439e+09  0.4239  -0.6997  0.00835  0.003513  -0.009834  -0.03829  0.04526  -0.814
6.44e+09  0.1933  -0.8294  -0.0297  -0.007177  0.03113  0.007015  -0.1543  -0.8013
6.441e+09  -0.09741  -0.8463  0.02202  0.02041  0.02211  0.008757  -0.4785  -0.6545
6.442e+09  -0.3952  -0.7833  0.05457  0.00925  0.003891  0.00884  -0.7014  -0.4706
6.444e+09  -0.641  -0.574  0.02839  0.005733  -0.0123  -0.00967  -0.8125  -0.2186
6.445e+09  -0.8068  -0.301  -0.004348  -0.01807  0.01309  0.007862  -0.8566  0.05104
6.446e+09  -0.8402  0.00265  -0.007758  -0.04373  0.005429  -0.02782  -0.788  0.3602
6.448e+09  -0.7642  0.2575  -0.007234  0.02979  -0.003931  -0.005369  -0.6011  0.6232
6.449e+09  -0.6853  0.5059  -0.01651  0.007965  -0.04361  0.03398  -0.3795  0.7652
6.45e+09  -0.3569  0.743  -0.0255  -0.03494  0.003221  -0.0362  -0.05129  0.8123
6.451e+09  -0.1678  0.8979  -0.02525  -0.00628  -0.03069  -0.02469  0.2168  0.781
6.452e+09  0.1694  0.8633  -0.01233  0.0564  0.04143  -0.01231  0.5233  0.6817
6.454e+09  0.4046  0.7195  -0.05024  0.04425  -0.002021  -0.01845  0.6325  0.4637
6.455e+09  0.6965  0.571  -0.01485  -0.02456  -0.006144  0.01164  0.7835  0.1721
6.456e+09  0.7836  0.2818  0.007687  0.009495  0.00485  -0.0187  0.8349  -0.0574
6.458e+09  0.8058  0.03501  0.07608  -0.02244  -0.02412  0.04905  0.7707  -0.3783
6.459e+09  0.7909  -0.2776  -0.02806  -0.01576  0.02538  -0.04732  0.5835  -0.5994
6.46e+09  0.6905  -0.5675  0.01641  0.01545  0.01249  -0.02665  0.3359  -0.7832
6.461e+09  0.3625  -0.7442  -0.02516  -0.02076  0.001271  0.01383  0.06807  -0.7605
6.462e+09  0.1275  -0.925  -0.02946  0.02093  -0.001091  0.02288  -0.2275  -0.7869
6.464e+09  -0.1659  -0.8789  0.03461  -0.01343  0.008003  -0.01578  -0.4543  -0.6369
6.465e+09  -0.4273  -0.754  -0.01917  0.01715  -0.01998  0.008464  -0.6579  -0.4645
6.466e+09  -0.6339  -0.5842  -0.06516  0.04739  0.01118  0.03085  -0.7692  -0.2074
6.468e+09  -0.7918  -0.2728  0.002999  0.03491  0.006528  -0.02831  -0.781  0.0947
6.469e+09  -0.8746  -0.0058  -0.01697  -0.04096  0.06916  -0.0004307  -0.7414  0.3438
6.47e+09  -0.7705  0.356  0.007772  0.003657  -0.01578  -0.02512  -0.5632  0.556
6.471e+09  -0.6235  0.5814  0.001  0.007901  -0.01109  -0.04903  -0.3382  0.6884
6.472e+09  -0.3771  0.8148  0.001674  -0.02614  0.02434  -0.04381  -0.08189  0.7771
6.474e+09  -0.143  0.8587  0.01785  -0.03922  0.0006119  0.03515  0.1891  0.7798
6.475e+09  0.1736  0.891  0.006781  0.03021  0.03847  -0.01782  0.4356  0.6565
6.476e+09  0.473  0.746  0.02161  -0.002786  0.01687  0.01202  0.6555  0.443
6.478e+09  0.6644  0.5775  0.03164  -0.01556  0.004503  -0.004807  0.7504  0.212
6.479e+09  0.8563  0.3159  -0.01163  -0.004388  0.01668  -0.01884  0.7686  -0.07128
6.48e+09  0.8554  0.00591  0.0009381  -0.01383  0.02544  0.0142  0.6946  -0.3591
6.481e+09  0.8023  -0.3139  -0.05596  0.02702  0.007315  0.01816  0.5534  -0.5747
6.482e+09  0.672  -0.6094  -0.01366  0.01649  0.00896  -0.04092  0.3334  -0.6992
6.484e+09  0.3821  -0.8029  0.03843  0.02843  -0.003805  -0.01225  0.04604  -0.7615
6.485e+09  0.09593  -0.8999  0.01211  -0.03814  -0.03505  -0.003324  -0.2028  -0.7479
6.486e+09  -0.1767  -0.8612  -0.0002964  0.01638  -0.03347  0.01093  -0.4632  -0.6511
6.488e+09  -0.9487  -1.268  0.005334  -0.02479  0.3572  0.6462  -0.6334  -0.4148
6.489e+09  -0.6804  -0.5518  0.01478  -0.02293  0.01989  -0.003272  -0.748  -0.1418
6.49e+09  -0.8074  -0.2565  -0.03073  -0.007675  0.06667  -0.0417  -0.7691  0.09594
6.491e+09  -0.8812  0.03472  -0.0003274  -0.007899  0.02318  0.03002  -0.6846  0.3254
6.492e+09  -0.8293  0.3612  0.02002  0.003657  -0.09318  -0.008289  -0.5395  0.5668
6.494e+09  -0.6716  0.6739  -0.01805  0.01567  -0.03545  0.08399  -0.3107  0.6938
6.495e+09  -0.3727  0.7851  -0.01195  0.01494  0.01775  -0.03979  -0.03303  0.7642
6.496e+09  -0.07304  0.9211  0.02316  0.00964  0.04906  0.02621  0.1801  0.7807
6.498e+09  0.2003  0.8709  0.05958  -0.004826  -0.03506  0.01582  0.4856  0.6378
6.499e+09  0.4974  0.7621  0.01433  0.02629  -0.003232  0.03234  0.6364  0.3912
6.5e+09  0.7541  0.5298  0.008926  -0.02376  0.02224  -0.04859  0.7542  0.1817
6.501e+09  0.9092  0.2455  0.01456  -0.006971  0.04075  0.00481  0.777  -0.1039
6.502e+09  0.9386  -0.0407  0.02654  0.004283  -0.02461  -0.01775  0.6495  -0.3495
6.504e+09  0.8022  -0.384  0.01475  -0.001142  -0.01118  0.03102  0.514  -0.5705
6.505e+09  0.6535  -0.6058  -0.01394  -0.007169  0.001996  -0.007955  0.2829  -0.6989
6.506e+09  0.3553  -0.8127  -0.01941  0.0289  -0.03399  0.04346  -0.001833  -0.7547
6.508e+09  0.04333  -0.9023  0.005754  0.008948  0.03487  0.02034  -0.2335  -0.6663
6.509e+09  -0.2121  -0.9444  0.001072  0.04003  -0.00815  -0.007814  -0.4699  -0.5646
6.51e+09  -0.5246  -0.7158  0.01492  -0.0331  -0.003915  -0.03062  -0.668  -0.4089
6.511e+09  -0.7825  -0.495  -0.0306  -0.0364  0.05223  0.02209  -0.7742  -0.1572
6.512e+09  -0.9133  -0.2153  -0.02005  0.001349  -0.03021  0.006713  -0.757  0.09569
6.514e+09  -0.9488  0.07454  0.01288  0.01377  0.03201  0.05149  -0.6401  0.3941
6.515e+09  -0.8393  0.4075  0.01402  0.02353  -0.03005  -0.01404  -0.4787  0.5569
6.516e+09  -0.6231  0.7248  0.005349  0.007584  0.01755  -0.02321  -0.219  0.7175
6.518e+09  -0.2966  0.868  0.01826  0.02184  0.003466  0.0214  0.02142  0.768
6.519e+09  -0.02382  0.9179  0.02094  -0.00667  0.01653  -0.007466  0.2573  0.7022
6.52e+09  0.3126  0.8483  0.007113  -0.01446  0.03279  -0.002387  0.4914  0.5305
6.521e+09  0.5904  0.7194  -0.0008055  -0.004567  0.0009157  0.03991  0.6617  0.3683
6.522e+09  0.8083  0.5033  -0.02003  -0.02057  -0.005086  0.02363  0.715  0.0956
6.524e+09  0.9294  0.2046  0.02294  -0.009523  0.07157  -0.0147  0.7299  -0.1567
6.525e+09  0.9245  -0.1674  0.04339  0.03558  0.005027  0.003304  0.6191  -0.3911
6.526e+09  0.7634  -0.5205  -0.008661  0.004002  0.02751  0.005588  0.4103  -0.578
6.528e+09  0.593  -0.7614  0.03374  -0.02258  0.01683  0.03215  0.2068  -0.6479
6.529e+09  0.2799  -0.9041  0.03002  0.03891  -0.03188  -0.02156  -0.06912  -0.7094
6.53e+09  -0.04685  -0.9267  -0.002506  0.005583  -0.02257  -0.01792  -0.2766  -0.5915
6.531e+09  -0.3745  -0.8654  0.007419  -0.05212  0.003095  0.02599  -0.4847  -0.4806
6.532e+09  -0.6166  -0.6634  -0.0001959  -0.008716  -0.04886  -0.01845  -0.599  -0.2902
6.534e+09  -0.809  -0.4655  -0.02007  -0.02469  0.005932  0.01451  -0.6264  -0.0575
6.535e+09  -0.9326  -0.0681  0.01243  0.01076  0.04277  -0.00254  -0.6014  0.1042
6.536e+09  -0.9488  0.2243  0.02814  0.006303  0.04002  -0.01312  -0.597  0.3062
6.538e+09  -0.766  0.6106  0.0002201  0.02314  0.0305  0.03867  -0.4541  0.4666
6.539e+09  -0.555  0.7975  0.001402  -0.02588  -0.03155  0.03889  -0.3147  0.6122
6.54e+09  -0.2013  0.9435  0.00606  0.04688  -0.02416  0.01453  -0.03773  0.7018
6.541e+09  0.102  0.9151  -0.0125  -0.01265  0.01327  -0.04454  0.1891  0.6532
6.542e+09  0.4435  0.8219  -0.02387  -0.003258  0.01707  0.007793  0.4195  0.5719
6.544e+09  0.6493  0.6435  0.03027  -0.02114  0.02774  0.01173  0.5845  0.3807
6.545e+09  0.8817  0.3359  0.01263  -0.004534  -0.01258  -0.02187  0.6645  0.1773
6.546e+09  0.9771  0.09265  0.03863  0.04837  0.03458  -0.01118  0.7165  -0.09434
6.548e+09  0.8813  -0.2982  0.01326  -0.005106  -0.007558  0.02425  0.691  -0.2993
6.549e+09  0.7104  -0.5659  -0.006532  0.0008583  0.03233  -0.03434  0.5099  -0.5257
6.55e+09  0.4436  -0.7673  -0.01685  0.01621  0.03886  -0.008781  0.2904  -0.6827
