# Hz S RI R 50
6.25e+09  -0.804  -0.08827  -0.0366  0.01737  -0.03837  -0.01895  0.1469  0.4766
6.251e+09  -0.8377  0.2326  -0.03231  0.01982  0.03411  -0.01074  0.3681  0.4406
6.252e+09  -0.6882  0.4067  -0.008986  -0.03582  -0.03188  -0.007197  0.5429  0.2581
6.254e+09  -0.4565  0.6496  -0.02635  -0.03266  -0.01517  -0.03273  0.6078  0.0211
6.255e+09  -0.2149  0.7537  -0.0129  0.01476  -0.005579  0.001002  0.582  -0.2175
6.256e+09  0.0792  0.8139  0.008632  0.01305  0.006371  0.001949  0.4488  -0.4036
6.258e+09  0.3249  0.7267  0.009774  -0.003172  -0.01909  0.03919  0.2593  -0.5905
6.259e+09  0.5749  0.6037  -0.00551  -0.02209  -0.007404  -0.01139  0.03968  -0.6461
6.26e+09  0.7244  0.3477  -0.008763  0.006409  -0.02904  -0.06388  -0.2013  -0.657
6.261e+09  0.7865  0.1154  0.01977  0.02227  0.02273  -0.02406  -0.4586  -0.5424
6.262e+09  0.7982  -0.1984  0.02615  0.008523  -0.07693  -0.0205  -0.6082  -0.3806
6.264e+09  0.6423  -0.4468  -0.01648  -0.01963  -0.0016  -0.02121  -0.7145  -0.08639
6.265e+09  0.502  -0.6866  -0.001014  -0.005289  0.009836  -0.05175  -0.7106  0.1587
6.266e+09  0.2017  -0.7551  -0.008744  -0.01558  -0.01543  0.03969  -0.6006  0.3641
6.268e+09  -0.115  -0.8034  -0.02856  0.02673  0.006498  -0.02321  -0.4568  0.6183
6.269e+09  -0.3729  -0.6789  0.0002998  -0.000729  0.02254  -0.0008754  -0.1938  0.7222
6.27e+09  -0.578  -0.5906  0.02216  -0.02362  -0.01716  0.01489  0.05486  0.7205
6.271e+09  -0.7303  -0.3818  -0.02359  0.0002777  0.01451  -0.02012  0.297  0.6947
6.272e+09  -0.7841  -0.07395  -0.03413  -0.00538  -0.00894  0.05031  0.538  0.5229
6.274e+09  -0.8011  0.207  -0.0006684  0.009567  0.02041  -0.0002636  0.7191  0.323
6.275e+09  -0.6611  0.475  0.02359  0.009076  0.03633  0.04541  0.768  0.05297
6.276e+09  -0.4592  0.7201  0.02664  -0.000856  -0.01833  0.01075  0.7335  -0.2092
6.278e+09  -0.2078  0.8444  -0.008123  0.01848  0.009011  -0.03089  0.6005  -0.4696
6.279e+09  0.08151  0.7999  -0.005054  -0.01318  -0.00569  -0.008019  0.4137  -0.6235
6.28e+09  0.3259  0.7008  -0.004068  0.01072  -0.04244  -0.008166  0.1343  -0.7547
6.281e+09  0.5891  0.5514  -0.009864  -0.00274  -0.01373  -0.02986  -0.1132  -0.7239
6.282e+09  0.7713  0.3077  0.01325  0.03001  -0.02656  -0.005452  -0.3729  -0.688
6.284e+09  0.8457  0.0663  -0.01341  -0.01332  0.0288  0.002072  -0.5665  -0.4935
6.285e+09  0.7807  -0.2234  -0.02063  0.007284  0.0009701  -0.02982  -0.7437  -0.2775
6.286e+09  0.6233  -0.4884  -0.003854  0.01143  0.004474  -0.003359  -0.7818  -0.02257
6.288e+09  0.4311  -0.7009  0.0201  0.01957  -0.004505  -0.06271  -0.7491  0.2744
6.289e+09  0.2061  -0.8164  0.009661  -0.01741  0.01597  -0.01527  -0.6353  0.5099
6.29e+09  -0.1395  -0.8428  0.005084  -0.03645  0.06425  -0.04733  -0.4218  0.6959
6.291e+09  -0.3904  -0.7062  -0.02218  0.002969  0.02255  -0.01749  -0.1567  0.7972
6.292e+09  -0.5936  -0.501  0.01501  0.009734  -0.02043  -0.02126  0.112  0.7691
6.294e+09  -0.7034  -0.2981  -0.009282  0.01705  0.004932  -0.006687  0.3922  0.7085
6.295e+09  -0.7667  -0.03586  0.01473  -0.02431  -0.03013  0.01151  0.6268  0.5452
6.296e+09  -0.7244  0.2904  -0.002396  0.01022  0.006188  0.006847  0.795  0.2513
6.298e+09  -0.6532  0.5349  -0.005278  -0.02127  0.002057  0.0002547  0.8343  0.003946
6.299e+09  -0.4078  0.7579  0.008454  -0.008044  0.02066  -0.01794  0.7778  -0.2779
6.3e+09  -0.1843  0.8118  0.007115  0.02276  -0.03914  -0.01109  0.6358  -0.5002
6.301e+09  0.1684  0.786  0.02437  -0.02645  0.01071  0.02609  0.405  -0.7223
6.302e+09  0.4202  0.6904  -0.01569  0.009899  0.02622  -0.008772  0.1278  -0.7958
6.304e+09  0.5745  0.5189  0.0007374  0.001442  -0.01421  -0.01805  -0.1653  -0.797
6.305e+09  0.8222  0.2807  0.01025  -0.01927  0.02886  -0.01904  -0.4143  -0.7405
6.306e+09  0.8363  -0.03001  0.03676  0.008532  -0.04425  -0.004345  -0.6636  -0.591
6.308e+09  0.7815  -0.3055  0.01562  0.005333  0.009994  -0.01127  -0.7878  -0.3268
6.309e+09  0.5856  -0.5422  -0.01168  0.03953  -0.01779  -0.02452  -0.8568  -0.01943
6.31e+09  0.3428  -0.7052  -0.007564  0.008102  -0.001544  0.02479  -0.8051  0.2785
6.311e+09  0.09768  -0.7934  0.01358  -0.02179  -0.009267  -0.02853  -0.6889  0.5263
6.312e+09  -0.1856  -0.7853  -0.008846  -0.01359  -0.01838  -0.01235  -0.4387  0.748
6.314e+09  -0.4776  -0.6819  0.02582  0.03062  0.01019  -0.003555  -0.1581  0.8476
6.315e+09  -0.6811  -0.4783  0.02694  0.009932  -0.02079  0.008498  0.1217  0.8933
6.316e+09  -0.7646  -0.2093  0.01773  0.001894  -0.01385  0.03913  0.4166  0.7978
6.318e+09  -0.7596  0.0623  0.03536  0.006631  -0.01517  -0.04189  0.6859  0.6149
6.319e+09  -0.7679  0.2996  0.01874  -0.02902  0.02125  -0.009669  0.8189  0.3311
6.32e+09  -0.59  0.5587  0.001277  -0.01656  -0.01453  0.0009545  0.89  -0.00363
6.321e+09  -0.3356  0.7254  -0.01692  0.02362  0.005511  -0.01222  0.8233  -0.2879
6.322e+09  -0.1128  0.8337  -0.01602  0.01587  -0.02207  0.05031  0.7009  -0.5708
6.324e+09  0.2308  0.7875  -0.02928  0.0009765  0.01762  -0.009889  0.4524  -0.7731
6.325e+09  0.4955  0.6524  -0.006198  -0.02465  -0.00337  -0.03428  0.1915  -0.8587
6.326e+09  0.7156  0.462  -0.01031  0.0002074  0.02335  -0.006718  -0.1688  -0.884
6.328e+09  0.8116  0.2026  0.01205  0.01933  -0.02741  0.03893  -0.4335  -0.7783
6.329e+09  0.84  -0.1501  -0.009068  0.03253  0.02443  -0.04624  -0.6389  -0.6035
6.33e+09  0.7182  -0.3962  0.002953  -0.0007521  -0.007359  0.04213  -0.8156  -0.343
6.331e+09  0.5034  -0.6692  0.03216  -0.02453  -0.008272  0.007941  -0.9234  -0.03854
6.332e+09  0.2936  -0.7811  -0.02051  -0.01737  0.001022  -0.0068  -0.8418  0.2867
6.334e+09  0.004691  -0.8452  -0.00301  0.0004811  -0.01644  0.01582  -0.7031  0.5494
6.335e+09  -0.3459  -0.8236  0.01255  0.01358  -0.01553  0.02585  -0.4732  0.7911
6.336e+09  -0.5247  -0.6047  0.03036  -0.009193  0.008253  0.021  -0.1829  0.9149
6.338e+09  -0.7399  -0.3529  -0.0005144  0.03491  0.04436  -0.009382  0.1197  0.8758
6.339e+09  -0.865  -0.1214  -0.02741  -0.002095  0.009936  -0.05183  0.4276  0.7865
6.34e+09  -0.8246  0.1991  -0.03599  0.01077  -0.006792  -0.03195  0.6778  0.602
6.341e+09  -0.7208  0.5026  0.002187  -0.01057  0.01748  -0.01044  0.8129  0.353
6.342e+09  -0.5123  0.7574  -0.02357  0.0277  -0.01922  0.0101  0.8812  0.05567
6.344e+09  -0.2208  0.8046  -0.02842  -0.02575  -0.01003  0.01959  0.8765  -0.2914
6.345e+09  0.05166  0.8154  0.06827  0.01748  0.002382  -0.01238  0.7518  -0.5414
6.346e+09  0.3648  0.7917  0.005588  0.0121  0.01741  0.004408  0.522  -0.8093
6.348e+09  0.6052  0.6099  0.04077  0.01891  -0.01976  -0.02414  0.2221  -0.8836
6.349e+09  0.7793  0.3279  0.00238  -0.006909  0.0281  0.0407  -0.1389  -0.9399
6.35e+09  0.8486  0.02241  -0.004495  -0.03184  -0.03222  -0.03896  -0.4366  -0.8278
6.351e+09  0.8325  -0.1984  0.01251  -0.02294  0.05554  -0.02456  -0.6658  -0.6702
6.352e+09  0.6457  -0.5481  0.0176  -0.00297  -0.01123  0.02858  -0.8688  -0.4032
6.354e+09  0.4281  -0.6975  0.006612  -0.01392  0.02449  0.01105  -0.9119  -0.06699
6.355e+09  0.1742  -0.8298  -0.0146  -0.004013  0.007257  0.01052  -0.9115  0.2889
6.356e+09  -0.1516  -0.8572  -0.002563  0.01085  0.001518  -0.01994  -0.7273  0.5473
6.358e+09  -0.4653  -0.7543  -0.002566  0.0001185  0.006676  -0.02672  -0.5733  0.7491
6.359e+09  -0.6343  -0.5301  -0.03212  -0.03846  0.01801  -0.01695  -0.2329  0.89
6.36e+09  -0.8181  -0.2805  0.01308  -0.000537  0.01662  0.02045  0.08983  0.9722
6.361e+09  -0.8053  0.06349  -0.008008  0.02369  -0.0005744  0.002656  0.4124  0.8338
6.362e+09  -0.7896  0.3001  0.002458  -0.03251  0.02822  0.0139  0.6701  0.645
6.364e+09  -0.654  0.5935  -0.03497  -0.005473  0.006617  -0.008353  0.8347  0.3961
6.365e+09  -0.3691  0.7917  -0.003522  -0.003999  -0.005404  0.01682  0.9183  0.0467
6.366e+09  -0.112  0.8639  0.01017  -0.02146  0.005725  0.02852  0.9125  -0.2414
6.368e+09  0.2301  0.7726  0.002982  0.007077  0.0007656  -0.002204  0.7733  -0.548
6.369e+09  0.5241  0.6668  -0.0388  -0.03082  -0.01369  0.01062  0.5552  -0.7863
6.37e+09  0.7524  0.4841  0.01977  -0.0169  -0.02371  -0.02292  0.2548  -0.9413
6.371e+09  0.8592  0.1829  0.001995  0.04111  -0.01296  0.03336  -0.07748  -0.9213
6.372e+09  0.8531  -0.1265  -0.00483  -0.02115  -0.001007  0.02036  -0.3862  -0.8753
6.374e+09  0.7638  -0.3846  0.02426  -0.001476  -0.002229  -0.03105  -0.6426  -0.6601
6.375e+09  0.6097  -0.6389  -0.02187  -0.02439  0.02821  0.0151  -0.8755  -0.4034
6.376e+09  0.2556  -0.8129  0.01588  0.01619  0.01171  0.02125  -0.944  -0.1034
6.378e+09  -0.008397  -0.8599  -0.04405  0.01287  -0.01248  0.006357  -0.8628  0.222
6.379e+09  -0.3215  -0.8278  0.011  -0.04457  0.006338  -0.03112  -0.8165  0.4965
6.38e+09  -0.5913  -0.6446  0.03545  0.01626  -0.01595  -0.04379  -0.5615  0.7673
6.381e+09  -0.7685  -0.3865  -0.02798  -0.004311  -0.01704  0.0193  -0.2259  0.9031
6.382e+09  -0.8395  -0.1253  -0.04518  -0.000437  -0.007506  -0.01483  0.05397  0.9231
6.384e+09  -0.831  0.2187  0.0177  -0.005678  -0.02752  0.0278  0.3152  0.8439
6.385e+09  -0.7056  0.4583  -0.01003  0.04169  0.03345  0.008433  0.6405  0.6429
6.386e+09  -0.5097  0.7505  -0.0396  0.06267  0.02594  -0.06024  0.8362  0.4149
6.388e+09  -0.2504  0.8411  -0.01673  -0.05984  -0.01276  0.008096  0.9145  0.1366
6.389e+09  0.06504  0.86  -0.007311  0.004892  0.01571  -0.01121  0.8953  -0.2096
6.39e+09  0.3654  0.7924  -0.03273  -0.0272  -0.04315  -0.009581  0.7976  -0.4842
6.391e+09  0.5931  0.5733  -0.01856  0.0005819  -0.01009  -0.003638  0.6277  -0.7705
6.392e+09  0.8142  0.3323  0.03449  0.00813  -0.02969  0.004284  0.2624  -0.86
6.394e+09  0.8749  0.05175  0.04476  -0.03286  -0.0007023  0.003453  -0.06018  -0.9094
6.395e+09  0.8334  -0.2215  0.006655  0.01349  0.008848  0.02117  -0.3575  -0.8533
6.396e+09  0.7297  -0.498  0.02357  0.00436  0.02439  -0.03527  -0.6458  -0.6685
6.398e+09  0.4208  -0.724  -0.007014  -0.01649  -0.0344  0.003407  -0.8075  -0.4174
6.399e+09  0.1555  -0.875  0.004621  -0.001798  -0.02767  -0.02387  -0.9368  -0.1317
6.4e+09  -0.1735  -0.8599  -0.02294  -0.002628  -0.03784  0.008157  -0.8973  0.1457
6.401e+09  -0.487  -0.736  -0.003177  -0.02463  0.009703  -0.0166  -0.8219  0.4478
6.402e+09  -0.6745  -0.5792  -0.01156  -0.03286  -0.02795  0.004166  -0.5887  0.7224
6.404e+09  -0.8164  -0.2341  -0.02769  0.02771  -0.04486  -0.008569  -0.3395  0.8586
6.405e+09  -0.8712  -0.004056  -0.0006596  -0.05455  -0.02919  -0.01021  0.04766  0.8831
6.406e+09  -0.7862  0.3042  -0.01423  0.008326  -0.006165  0.007098  0.3307  0.846
6.408e+09  -0.6164  0.5577  -0.03175  -0.01468  -0.0006724  -0.004655  0.5644  0.7359
6.409e+09  -0.4231  0.7865  0.02953  0.01445  0.02064  0.01741  0.7762  0.4881
6.41e+09  -0.09681  0.8548  0.009789  -0.01557  -0.03795  -0.05882  0.9159  0.2106
6.411e+09  0.1948  0.8763  -0.002007  0.01761  -0.04433  0.03168  0.8622  -0.1774
6.412e+09  0.4662  0.7186  -0.01922  -0.01084  0.01022  0.01475  0.8005  -0.4342
6.414e+09  0.6519  0.5094  -0.006072  0.01749  -0.02381  -0.04861  0.6129  -0.6916
6.415e+09  0.8559  0.2366  -0.01332  0.01116  0.01049  -0.00238  0.3348  -0.8141
6.416e+09  0.8401  -0.02612  0.02919  -0.02749  -0.0187  -0.03671  0.07019  -0.8585
6.418e+09  0.8067  -0.3665  0.02097  -0.02429  -0.02288  -0.01914  -0.3138  -0.8977
6.419e+09  0.6264  -0.6482  0.006153  -0.008089  -0.01559  0.0006328  -0.5751  -0.7217
6.42e+09  0.3285  -0.7777  0.02539  0.006255  0.04632  -0.01725  -0.7507  -0.4776
6.421e+09  0.06561  -0.8371  -0.02641  0.05201  0.02645  0.03839  -0.8692  -0.2064
6.422e+09  -0.2389  -0.782  -0.03197  -0.0227  0.01492  0.04178  -0.8771  0.08647
6.424e+09  -0.4944  -0.6756  0.001885  -0.03471  -0.01942  -0.01439  -0.8072  0.3796
6.425e+09  -0.7504  -0.4433  -0.01475  0.0173  0.00984  -0.005552  -0.6084  0.6923
6.426e+09  -0.8085  -0.1563  0.04056  -0.04147  0.02932  -0.04067  -0.3154  0.7715
6.428e+09  -0.8863  0.1619  0.02745  0.003945  -0.0001816  0.01069  -0.04693  0.9199
6.429e+09  -0.7611  0.4251  0.004669  -0.01937  -0.005401  0.02063  0.2346  0.8208
6.43e+09  -0.5279  0.6122  0.004416  -0.0115  -0.03873  -0.02008  0.4534  0.7144
6.431e+09  -0.2899  0.7814  0.03619  -0.006296  -0.00299  0.02236  0.6815  0.4787
6.432e+09  -0.0006274  0.8278  0.03713  0.03732  0.01416  0.02424  0.833  0.2364
6.434e+09  0.3262  0.7908  -0.01716  -0.008256  -0.01036  0.003713  0.8755  -0.03887
6.435e+09  0.5089  0.6517  0.009233  -0.01546  0.01832  -0.01936  0.7497  -0.3534
6.436e+09  0.7512  0.4308  -0.008896  -0.01067  -0.01747  -0.01366  0.5902  -0.65
6.438e+09  0.8399  0.1227  -0.02255  0.04689  0.005778  0.02413  0.3791  -0.7553
6.439e+09  0.85  -0.1602  -0.00961  -0.05573  -0.003236  0.01325  0.07048  -0.8549
6.44e+09  0.7318  -0.4466  0.04533  0.01476  -0.01318  -0.00528  -0.2314  -0.8106
6.441e+09  0.5025  -0.6998  -0.01798  -0.04785  0.01157  -0.05316  -0.5072  -0.6899
6.442e+09  0.2442  -0.8158  0.004501  -0.01074  -0.01154  0.05086  -0.7452  -0.4457
6.444e+09  -0.01398  -0.8292  -0.01968  -0.05776  -0.006229  -0.003937  -0.8421  -0.1837
6.445e+09  -0.3345  -0.7743  -0.02343  -0.02129  -0.008593  -0.04234  -0.8354  0.06985
6.446e+09  -0.5898  -0.6349  0.0396  -0.0332  0.006623  0.02685  -0.7831  0.3086
6.448e+09  -0.7363  -0.3158  0.03078  0.01548  0.001304  0.02969  -0.6109  0.6454
6.449e+09  -0.7907  -0.06485  0.03484  -0.01965  -0.03324  -0.008873  -0.3606  0.7729
6.45e+09  -0.7885  0.1843  -0.04013  -0.01946  -0.0293  -0.01829  -0.09305  0.8582
6.451e+09  -0.7194  0.4656  -0.0213  0.01104  0.02006  0.0479  0.2068  0.7939
6.452e+09  -0.5004  0.6885  -0.03554  -0.004188  0.003418  0.005648  0.483  0.6757
6.454e+09  -0.248  0.8226  -0.001874  0.01645  0.004168  0.05021  0.6752  0.4227
6.455e+09  0.08271  0.8123  -0.01232  0.03469  -0.007156  0.001766  0.8029  0.2341
6.456e+09  0.3765  0.7689  0.03829  -0.01191  0.01826  -0.02599  0.8152  -0.1108
6.458e+09  0.6184  0.651  0.01872  -0.002311  -0.01492  -0.02554  0.7105  -0.3503
6.459e+09  0.7377  0.3821  0.001011  0.01747  -0.06002  -0.01993  0.55  -0.577
6.46e+09  0.821  0.06135  -0.02968  0.006972  0.00843  0.0198  0.3419  -0.7628
6.461e+09  0.8281  -0.2105  0.003711  -0.02349  -0.006857  -0.01169  0.08769  -0.7599
6.462e+09  0.6825  -0.4946  0.001799  -0.03266  0.009485  -0.02247  -0.1944  -0.7536
6.464e+09  0.4527  -0.6685  -0.001535  -0.04236  -8.713e-05  -0.01123  -0.4699  -0.6634
6.465e+09  0.216  -0.8381  0.04049  -0.0002335  0.008652  0.02877  -0.6371  -0.4851
6.466e+09  -0.04544  -0.8172  -0.02539  -0.008966  -0.01635  -0.02056  -0.7672  -0.2244
6.468e+09  -0.3518  -0.7494  0.003572  -0.03304  0.00962  0.04864  -0.7911  0.06965
6.469e+09  -0.603  -0.5726  0.03386  0.01666  -0.04359  -0.04479  -0.7656  0.3558
6.47e+09  -0.7819  -0.3116  0.005856  -0.04452  -0.01738  -0.01992  -0.516  0.5554
6.471e+09  -0.858  -0.02412  -0.03672  -0.01056  -0.0266  0.03179  -0.3584  0.7001
6.472e+09  -0.8186  0.2202  0.06189  -0.0002619  0.02224  -0.001558  -0.05531  0.7909
6.474e+09  -0.6385  0.4755  0.005687  0.0004589  -0.0311  -0.04233  0.2377  0.7572
6.475e+09  -0.4371  0.6888  -0.04102  0.03497  -0.01698  -0.01662  0.4574  0.6675
6.476e+09  -0.1741  0.8223  -0.01188  0.03881  -0.01579  -0.02153  0.6548  0.4668
6.478e+09  0.0767  0.8608  0.01289  -0.04138  0.00621  -0.02045  0.7733  0.2187
6.479e+09  0.3904  0.7786  -0.01208  0.009335  -0.01687  0.04266  0.8076  -0.0305
6.48e+09  0.6238  0.6233  0.01145  0.01801  0.01846  -0.02679  0.694  -0.3569
6.481e+09  0.8057  0.2897  -0.0006908  0.02297  0.03083  0.08355  0.5609  -0.5533
6.482e+09  0.8534  -0.003749  -0.001018  -0.01224  -0.04375  -0.02356  0.3317  -0.6628
6.484e+09  0.858  -0.2571  -0.02748  0.04291  -0.008739  0.0191  0.04324  -0.7887
6.485e+09  0.6811  -0.5595  0.02964  -0.0127  -0.006594  -0.006727  -0.1844  -0.7355
6.486e+09  0.4633  -0.7332  -0.006346  -0.03348  -0.01454  0.01603  -0.4337  -0.6407
6.488e+09  0.8521  -0.616  0.00319  -0.02214  0.6871  -0.1422  -0.6098  -0.3885
6.489e+09  -0.1189  -0.867  -0.005049  0.01612  -0.04711  -0.0007231  -0.7361  -0.1815
6.49e+09  -0.3761  -0.7939  0.03985  -0.02643  -0.0412  -0.02703  -0.772  0.06623
6.491e+09  -0.6552  -0.5979  0.009953  0.0274  -0.01844  0.01551  -0.6846  0.2875
6.492e+09  -0.7642  -0.3306  0.01544  0.02449  0.04023  -0.004923  -0.501  0.5535
6.494e+09  -0.948  0.01772  -0.01064  0.03253  -0.08325  -0.09297  -0.3108  0.7177
6.495e+09  -0.7609  0.2774  -0.03309  0.007759  -0.008984  0.007101  -0.04081  0.7723
6.496e+09  -0.6189  0.568  0.008381  0.009283  0.007217  0.00669  0.2722  0.7459
6.498e+09  -0.4304  0.746  0.03593  -0.00635  0.01335  -0.01081  0.452  0.6137
6.499e+09  -0.1305  0.8357  -0.01066  -0.0007369  -0.01043  -0.01084  0.645  0.429
6.5e+09  0.1619  1.033  -0.01329  0.01285  0.003213  0.02311  0.7483  0.1917
6.501e+09  0.3944  0.7712  -0.03319  0.02676  -0.02084  0.01673  0.7698  -0.05597
6.502e+09  0.7153  0.5605  -0.006951  -0.01004  -0.0114  -0.03157  0.6771  -0.3387
6.504e+09  0.8377  0.3058  -0.02759  0.008992  -0.02614  0.01217  0.557  -0.5699
6.505e+09  0.9032  0.01256  -0.01891  0.01061  -0.0331  0.0224  0.2367  -0.7067
6.506e+09  0.7736  -0.2624  -0.05831  0.0114  0.03369  0.01725  0.004224  -0.7635
6.508e+09  0.667  -0.5649  0.01361  -0.0002984  -0.04971  -0.01433  -0.2566  -0.7198
6.509e+09  0.4092  -0.7527  -0.01419  0.01988  0.03065  0.004034  -0.486  -0.5671
6.51e+09  0.1319  -0.8694  0.01858  0.005584  -0.02362  -0.01967  -0.6403  -0.3664
6.511e+09  -0.1692  -0.859  0.002003  0.008937  0.03929  -0.006781  -0.7667  -0.1075
6.512e+09  -0.4146  -0.704  -0.000415  -0.01359  -0.02496  -0.005819  -0.7517  0.177
6.514e+09  -0.6919  -0.5661  0.01511  -0.01879  -0.02522  0.007577  -0.6904  0.365
6.515e+09  -0.8092  -0.281  0.003178  0.0008271  0.002896  -0.008246  -0.452  0.5906
6.516e+09  -0.9253  0.01869  -0.02679  0.009811  0.002004  -0.03875  -0.2432  0.7059
6.518e+09  -0.811  0.3374  0.02455  -0.00399  -0.03956  -0.002945  -0.006842  0.706
6.519e+09  -0.6673  0.5921  0.0243  0.01117  -0.01331  -0.01975  0.2154  0.691
6.52e+09  -0.4452  0.8077  -0.02947  -0.0159  -0.01444  -0.03872  0.4742  0.5687
6.521e+09  -0.1066  0.8855  0.0282  0.002184  0.06546  -0.06634  0.6362  0.3555
6.522e+09  0.222  0.8773  0.009691  0.0165  0.01434  0.003361  0.7404  0.07611
6.524e+09  0.4737  0.7832  0.002492  0.03752  0.0299  -0.01864  0.7322  -0.1695
6.525e+09  0.7072  0.5206  -0.02106  -0.02629  0.03491  0.03103  0.5869  -0.3855
6.526e+09  0.8708  0.2898  -0.003417  -0.009361  -0.05922  -0.01437  0.3964  -0.5834
6.528e+09  0.9081  -0.08528  -0.009318  0.01052  0.00457  -0.01355  0.1907  -0.6767
6.529e+09  0.8384  -0.3562  0.0004299  -0.02498  -0.04944  -0.03398  -0.04323  -0.6946
6.53e+09  0.711  -0.6419  -0.02847  0.0123  -0.02378  0.04148  -0.2712  -0.6057
6.531e+09  0.3695  -0.8234  -0.0181  -0.0334  0.01195  0.01263  -0.4542  -0.4453
6.532e+09  0.06165  -0.9287  0.003981  -0.04588  -0.03135  -0.02238  -0.5919  -0.2892
6.534e+09  -0.2652  -0.9156  0.01741  0.007316  0.02856  0.05715  -0.6446  -0.06226
6.535e+09  -0.529  -0.7308  -0.02216  -0.00953  0.06504  0.01811  -0.6095  0.1375
6.536e+09  -0.7628  -0.5071  0.026  0.01892  -0.01143  -0.01388  -0.5554  0.2844
6.538e+09  -0.9215  -0.2534  -0.0166  0.005729  0.01497  0.03738  -0.4395  0.4768
6.539e+09  -0.8834  0.09049  0.02428  -0.009346  0.01038  0.02613  -0.331  0.6129
6.54e+09  -0.8329  0.4197  0.02584  -0.003784  0.07438  0.00652  -0.04089  0.696
6.541e+09  -0.6441  0.6968  -0.002748  -0.009306  0.003822  0.01275  0.1965  0.6634
6.542e+09  -0.3734  0.8447  0.006848  0.03668  -0.0193  -0.04319  0.4392  0.5641
6.544e+09  -0.007528  0.9785  -0.002151  -0.01231  0.001126  -0.04177  0.5754  0.4345
6.545e+09  0.3039  0.8806  -0.01103  -0.02594  0.00317  0.04621  0.6728  0.1436
6.546e+09  0.5781  0.7519  0.01817  -0.03414  -0.05277  0.01244  0.7256  -0.09568
6.548e+09  0.8025  0.4593  -0.02996  -0.009295  0.02292  -0.006874  0.6445  -0.3159
6.549e+09  0.8932  0.1856  -0.01706  -0.00634  -0.003135  0.009946  0.4831  -0.548
