# Hz S RI R 50
6.25e+09  -0.7897  0.04961  -0.003969  0.01533  0.004674  -0.02482  0.1616  0.4868
6.251e+09  -0.7552  0.3375  -0.01108  0.003202  -0.02297  0.01175  0.338  0.4121
6.252e+09  -0.5663  0.5809  0.003426  0.01646  0.01253  -0.01709  0.5364  0.2314
6.254e+09  -0.4025  0.7753  -0.002652  0.01446  -0.01  -0.03604  0.5812  0.02557
6.255e+09  -0.05582  0.7888  -0.02721  -0.005932  0.03631  -0.03581  0.5895  -0.2534
6.256e+09  0.2291  0.7992  0.003109  -0.02061  -0.004217  0.01278  0.4498  -0.4069
6.258e+09  0.4389  0.6944  0.01349  -0.004017  -0.04559  -0.01315  0.2745  -0.613
6.259e+09  0.6879  0.4283  -0.003722  -0.007659  -0.005654  -0.01711  0.04872  -0.6513
6.26e+09  0.7866  0.2693  -0.02087  -0.003752  -0.005473  0.06729  -0.1827  -0.6395
6.261e+09  0.757  -0.0754  0.0227  -0.01297  0.02756  0.0237  -0.4532  -0.5473
6.262e+09  0.7716  -0.3273  -0.003994  -0.01111  -0.05158  -0.07342  -0.6375  -0.3699
6.264e+09  0.5616  -0.5737  0.04947  0.00818  0.03455  -0.05588  -0.7002  -0.1154
6.265e+09  0.3496  -0.7674  -0.02311  -0.004123  -0.0517  0.008241  -0.6443  0.1245
6.266e+09  0.04015  -0.8194  0.0341  0.003453  -0.001132  -0.00404  -0.5959  0.3985
6.268e+09  -0.2155  -0.7521  0.007087  0.001765  0.02945  0.005766  -0.416  0.5771
6.269e+09  -0.4734  -0.6736  -0.005149  -0.007866  -0.03165  0.06053  -0.2341  0.7161
6.27e+09  -0.6432  -0.4066  0.01322  -0.03478  -0.03983  0.03797  0.1083  0.7066
6.271e+09  -0.7692  -0.1298  0.003598  0.03336  -0.01627  -0.02332  0.3391  0.6874
6.272e+09  -0.7539  0.1251  -0.01969  -0.003843  -0.00298  -0.03225  0.5493  0.5214
6.274e+09  -0.7007  0.3796  0.01249  0.009658  -0.03419  0.02838  0.6916  0.3231
6.275e+09  -0.5301  0.6011  -0.002658  0.04533  0.06532  -0.02627  0.7635  0.04034
6.276e+09  -0.2921  0.753  -0.006948  -0.002575  0.01799  0.005473  0.7148  -0.234
6.278e+09  0.01402  0.8077  -0.01075  0.01481  -0.03777  0.02403  0.6091  -0.4799
6.279e+09  0.2772  0.6987  -0.05843  -0.01619  0.007397  0.02614  0.4042  -0.6362
6.28e+09  0.5201  0.6893  0.0005892  0.01277  -0.02023  -0.07603  0.1727  -0.77
6.281e+09  0.6871  0.4008  0.005169  -0.00358  -0.03458  -0.03043  -0.08624  -0.7851
6.282e+09  0.8179  0.1684  -0.01849  0.002334  0.009827  -0.03682  -0.3698  -0.6845
6.284e+09  0.8093  -0.09997  0.003868  0.01452  -0.04311  -0.02796  -0.58  -0.5572
6.285e+09  0.716  -0.3919  -0.0103  -0.005253  0.002479  -0.004717  -0.7311  -0.282
6.286e+09  0.5567  -0.5763  -0.01918  -0.01161  0.01914  0.008644  -0.7874  -0.01777
6.288e+09  0.2848  -0.7957  0.001524  0.008956  0.02492  0.02861  -0.7527  0.2537
6.289e+09  0.02759  -0.779  -0.02365  0.00237  0.007232  -0.009662  -0.6098  0.5123
6.29e+09  -0.2562  -0.7758  0.0105  0.03185  -0.05435  0.001248  -0.39  0.6683
6.291e+09  -0.4649  -0.6082  -0.0001219  0.008954  0.05013  -0.00797  -0.1533  0.7675
6.292e+09  -0.684  -0.3862  -0.01385  -0.02696  0.03557  -0.04346  0.1277  0.7941
6.294e+09  -0.8343  -0.09878  0.01236  -0.01196  -0.006584  0.0009971  0.3923  0.7087
6.295e+09  -0.7873  0.1437  0.01973  0.001691  0.03624  0.03731  0.652  0.5541
6.296e+09  -0.6789  0.3882  -0.02151  0.01198  -0.02833  -0.002194  0.7274  0.303
6.298e+09  -0.5287  0.5756  8.511e-05  0.01065  0.03168  0.01896  0.8245  0.01729
6.299e+09  -0.2871  0.7353  -0.03467  0.003375  0.03497  -0.009491  0.7613  -0.2439
6.3e+09  0.05616  0.794  -0.001476  0.003035  0.02123  -0.01739  0.6314  -0.4947
6.301e+09  0.2638  0.7892  -0.001917  -0.01048  0.007216  0.03901  0.4224  -0.7213
6.302e+09  0.5491  0.6345  -0.002255  0.03308  -0.01109  0.002858  0.163  -0.8384
6.304e+09  0.7136  0.3388  -0.008891  0.03758  0.008295  -0.04536  -0.1619  -0.8367
6.305e+09  0.8427  0.1135  0.01359  0.006989  0.05424  -0.004993  -0.4101  -0.7403
6.306e+09  0.7986  -0.1299  0.01676  -0.00474  0.0541  0.01255  -0.6235  -0.5517
6.308e+09  0.6628  -0.4152  -0.001688  -0.007895  -0.008491  0.008454  -0.8021  -0.2886
6.309e+09  0.497  -0.6438  -0.01398  -0.005033  -0.02288  0.009959  -0.8641  -0.002628
6.31e+09  0.2063  -0.7951  -0.0219  -0.0107  0.0008487  -0.01017  -0.8053  0.262
6.311e+09  -0.02576  -0.8257  -0.03197  0.02175  0.005158  0.02198  -0.687  0.5845
6.312e+09  -0.3266  -0.7405  -0.02995  0.003002  -0.007704  -0.02297  -0.439  0.7439
6.314e+09  -0.5328  -0.5434  0.00848  -0.0193  0.01435  0.0225  -0.1654  0.8491
6.315e+09  -0.7032  -0.3621  -0.01785  0.001821  0.00922  -0.004732  0.1409  0.8426
6.316e+09  -0.7839  -0.07644  0.01102  -0.03372  -5.035e-05  -0.02648  0.442  0.7559
6.318e+09  -0.8447  0.1916  0.01072  -0.009827  -0.05682  -0.005445  0.68  0.6118
6.319e+09  -0.6367  0.4662  -0.03916  -0.004746  0.005385  0.02168  0.8388  0.3391
6.32e+09  -0.457  0.6478  -0.003707  0.003182  0.03761  -0.01406  0.8903  0.02269
6.321e+09  -0.1711  0.82  0.02007  0.002336  -0.03543  -0.01545  0.8056  -0.3109
6.322e+09  0.07555  0.8359  0.0009587  0.007483  0.01874  0.001307  0.7145  -0.5754
6.324e+09  0.2846  0.746  -0.02312  -0.00222  -0.02625  0.03096  0.4237  -0.773
6.325e+09  0.6184  0.5844  -0.002572  0.01188  -0.04515  0.01816  0.1974  -0.8496
6.326e+09  0.7609  0.3066  0.02208  0.003611  0.02981  -0.02141  -0.1156  -0.8848
6.328e+09  0.8583  0.04494  -0.01853  -0.01084  -0.04771  -0.02966  -0.4442  -0.7883
6.329e+09  0.7517  -0.2674  0.01732  -0.001148  0.04286  -0.01757  -0.6795  -0.6185
6.33e+09  0.5764  -0.4985  -0.005083  0.01993  0.01181  -0.02634  -0.8446  -0.3584
6.331e+09  0.4507  -0.7455  0.03548  0.02099  -0.004703  -0.009579  -0.8921  -0.02045
6.332e+09  0.1486  -0.7887  0.01318  0.01654  -0.002516  0.01007  -0.8672  0.3022
6.334e+09  -0.1193  -0.819  -0.01979  0.003924  0.008791  0.03275  -0.7086  0.5858
6.335e+09  -0.4188  -0.7707  0.03375  0.01182  -0.03216  -0.0173  -0.5206  0.7549
6.336e+09  -0.656  -0.5334  -0.0006345  0.01892  -0.0027  0.02128  -0.1751  0.8796
6.338e+09  -0.7917  -0.3076  -0.01913  -0.03199  -0.03946  -0.04462  0.1425  0.8583
6.339e+09  -0.8288  -0.03356  0.01291  0.03492  -0.006039  0.01861  0.4302  0.8394
6.34e+09  -0.774  0.3792  -0.003435  0.005953  -0.05052  0.01017  0.6738  0.6118
6.341e+09  -0.623  0.5792  0.02426  0.001344  0.0107  -0.006623  0.8336  0.3741
6.342e+09  -0.3384  0.6993  -0.007271  -0.003239  0.009576  0.009296  0.9046  0.02748
6.344e+09  -0.0953  0.8854  -0.01264  -0.001239  -0.02645  0.01148  0.9103  -0.2559
6.345e+09  0.1933  0.8276  -0.000118  -0.02582  0.02145  0.02842  0.7497  -0.5547
6.346e+09  0.4617  0.6771  0.002352  -0.005013  0.0105  -0.004701  0.5221  -0.7732
6.348e+09  0.7118  0.4731  -0.02267  0.01427  -0.02646  -0.004005  0.1929  -0.883
6.349e+09  0.8194  0.1915  -0.006455  -0.01916  0.02625  -0.005978  -0.1191  -0.9191
6.35e+09  0.7861  -0.1455  0.0566  0.002579  -0.002401  0.004267  -0.3955  -0.7781
6.351e+09  0.7386  -0.3438  0.008468  -0.02788  0.009658  0.02918  -0.7182  -0.6327
6.352e+09  0.5507  -0.652  -0.008454  -0.0116  -0.02332  0.02025  -0.8294  -0.369
6.354e+09  0.2789  -0.7713  0.007533  -0.01835  -0.009037  -0.007732  -0.9388  -0.06064
6.355e+09  0.01972  -0.8136  0.01852  -0.02051  0.02917  0.02254  -0.8962  0.2319
6.356e+09  -0.2807  -0.7982  -0.01042  0.02378  -0.01806  0.06068  -0.7509  0.5604
6.358e+09  -0.5346  -0.6709  -0.02065  0.007651  -0.02053  -0.01941  -0.5499  0.7626
6.359e+09  -0.7025  -0.435  0.005091  0.02713  0.0006328  -0.02611  -0.2397  0.8967
6.36e+09  -0.8598  -0.1316  0.02759  0.0001484  -0.02953  -0.001635  0.09674  0.9534
6.361e+09  -0.8521  0.1682  -0.0009439  0.01778  -0.01296  0.02353  0.3663  0.8343
6.362e+09  -0.7064  0.4357  0.01899  -0.01923  0.01375  -0.0262  0.6595  0.6673
6.364e+09  -0.533  0.6486  -0.006894  0.006591  0.02348  -0.0236  0.842  0.3525
6.365e+09  -0.2912  0.7963  -0.02242  -0.01777  -0.0119  -0.007977  0.947  0.05742
6.366e+09  0.03717  0.8325  -0.01078  0.01084  0.01469  -0.004983  0.916  -0.2671
6.368e+09  0.3475  0.7942  0.02327  -0.004586  0.01219  -0.01472  0.7733  -0.5469
6.369e+09  0.6075  0.6184  -0.004846  0.01298  0.03298  -0.02095  0.5426  -0.8089
6.37e+09  0.7968  0.395  0.003835  0.0245  0.003257  0.01238  0.2266  -0.8987
6.371e+09  0.8478  0.03871  -0.02107  0.003702  0.009375  0.0347  -0.09598  -0.9251
6.372e+09  0.8334  -0.2327  0.003839  0.03388  0.02729  -0.01824  -0.3815  -0.8466
6.374e+09  0.6849  -0.5114  -0.06  0.002564  -0.02242  0.05893  -0.642  -0.7038
6.375e+09  0.474  -0.74  0.0142  -0.005466  0.02733  -0.003705  -0.8176  -0.4245
6.376e+09  0.1666  -0.84  -0.02247  -0.004476  0.05868  0.004684  -0.9245  -0.06666
6.378e+09  -0.1482  -0.8863  0.01518  -0.01293  0.03526  -0.004398  -0.9077  0.2393
6.379e+09  -0.4478  -0.7671  0.01294  -0.01371  0.01074  4.06e-05  -0.738  0.5482
6.38e+09  -0.6251  -0.5857  2.842e-05  -0.01523  0.01703  -0.0395  -0.5566  0.7195
6.381e+09  -0.8248  -0.328  -0.01914  0.00822  -0.005915  0.008926  -0.2459  0.9493
6.382e+09  -0.8662  0.06917  0.02392  -0.002513  -0.01554  -0.01204  0.08915  0.9403
6.384e+09  -0.7626  0.2987  -0.001707  -0.04761  -0.008085  0.004976  0.3523  0.8921
6.385e+09  -0.6193  0.5706  0.03637  -0.001694  -0.008013  -0.01406  0.6337  0.6771
6.386e+09  -0.4387  0.766  -0.01011  0.01963  -0.04693  -0.03034  0.8325  0.407
6.388e+09  -0.1048  0.8502  -0.001094  -0.001208  -0.01529  -0.008151  0.8838  0.1454
6.389e+09  0.2204  0.8442  0.0007235  0.01379  -0.01967  -0.0279  0.9331  -0.2059
6.39e+09  0.4958  0.7165  0.03592  -0.03438  0.007194  -0.02842  0.7817  -0.4954
6.391e+09  0.7088  0.462  -0.008847  0.0114  0.01133  -0.02945  0.5464  -0.746
6.392e+09  0.8337  0.253  -0.003725  -0.009994  -0.03424  -0.02077  0.2612  -0.8572
6.394e+09  0.8874  -0.1381  -0.03051  -0.01052  -0.005554  0.03867  -0.01083  -0.8779
6.395e+09  0.7866  -0.4067  -0.03128  0.04694  -0.03925  0.0115  -0.3319  -0.832
6.396e+09  0.6488  -0.6296  0.0149  -0.0513  0.02874  -0.04504  -0.5965  -0.752
6.398e+09  0.338  -0.8005  0.02301  0.0071  0.01177  0.02993  -0.8012  -0.4242
6.399e+09  0.02243  -0.8826  -0.01857  -0.03732  -0.0001636  -0.02493  -0.9235  -0.1543
6.4e+09  -0.3048  -0.8215  0.0176  0.008503  -0.03715  0.04529  -0.8805  0.1866
6.401e+09  -0.5301  -0.6927  -0.01433  -0.008753  0.006487  0.0009139  -0.7911  0.4746
6.402e+09  -0.7565  -0.4585  0.01396  -0.01634  0.01396  -0.02164  -0.596  0.7049
6.404e+09  -0.8419  -0.1624  -0.01774  -0.05875  0.001468  0.02445  -0.2904  0.8794
6.405e+09  -0.875  0.1182  0.01349  -0.02303  -0.07174  -0.004528  -0.01281  0.9105
6.406e+09  -0.7656  0.4416  0.07959  -0.01659  -0.003046  0.007785  0.2922  0.8541
6.408e+09  -0.5716  0.6933  -0.01744  -0.004531  0.01554  -0.02271  0.5587  0.6823
6.409e+09  -0.2915  0.7891  0.02565  0.008032  -0.05077  -0.001743  0.7798  0.4642
6.41e+09  0.0378  0.8835  0.01026  0.02877  0.007361  -0.02096  0.8428  0.1696
6.411e+09  0.2874  0.8019  0.0278  -0.01001  -0.003863  0.001881  0.8846  -0.1753
6.412e+09  0.5543  0.6317  -0.05666  -0.007317  0.01077  -0.008393  0.8379  -0.4087
6.414e+09  0.7244  0.404  -0.0221  -0.007863  0.009712  0.03378  0.6082  -0.6527
6.415e+09  0.868  0.1087  0.03838  -0.005984  0.03339  -0.005528  0.3463  -0.8396
6.416e+09  0.8676  -0.1563  -0.01346  0.01141  0.02629  0.005335  0.02751  -0.8762
6.418e+09  0.7061  -0.4534  -0.009683  -0.009357  0.01975  0.0245  -0.2523  -0.8054
6.419e+09  0.5458  -0.6969  -0.01478  -0.05448  -0.01177  0.0197  -0.5062  -0.7214
6.42e+09  0.2292  -0.784  -0.01583  0.01368  -0.001659  -0.0112  -0.7267  -0.4451
6.421e+09  -0.07395  -0.8846  -0.02491  0.01418  0.02569  0.01454  -0.8653  -0.2031
6.422e+09  -0.3643  -0.7828  0.01931  0.004257  0.008099  -0.0208  -0.8879  0.1352
6.424e+09  -0.5509  -0.5646  0.003633  0.01089  0.02329  0.007305  -0.7847  0.3408
6.425e+09  -0.7453  -0.3218  -0.001992  0.02503  -0.02143  -0.0218  -0.6464  0.6605
6.426e+09  -0.8615  -0.08348  0.007482  -0.03289  0.02021  0.00361  -0.3438  0.8172
6.428e+09  -0.8213  0.2594  -0.01429  -0.007498  -0.01768  -0.01057  -0.02251  0.8663
6.429e+09  -0.7071  0.5091  -0.003269  -0.003485  0.04755  0.02077  0.2598  0.824
6.43e+09  -0.4744  0.6964  0.003277  0.01627  -0.005766  -0.009096  0.4762  0.6272
6.431e+09  -0.232  0.825  -0.009134  0.008951  -0.01068  0.03046  0.7713  0.5049
6.432e+09  0.0892  0.814  -0.003991  0.03182  0.04703  -0.01909  0.8459  0.2195
6.434e+09  0.3476  0.7998  0.0255  0.04664  -0.004323  -0.03716  0.8398  -0.1238
6.435e+09  0.6058  0.5549  0.02275  0.01089  0.01447  -0.02877  0.7611  -0.3925
6.436e+09  0.7413  0.3167  -0.005165  0.01075  0.031  -0.03208  0.5745  -0.672
6.438e+09  0.8632  0.02425  -0.02783  0.01064  0.01793  -0.01981  0.355  -0.7974
6.439e+09  0.8149  -0.2564  -0.01233  0.008354  -0.004804  -0.03197  0.02571  -0.8323
6.44e+09  0.6567  -0.5479  0.02063  -0.01516  -0.0208  -0.02551  -0.2684  -0.8372
6.441e+09  0.417  -0.7418  0.01373  0.01442  0.05164  0.01463  -0.5559  -0.7217
6.442e+09  0.1721  -0.8561  0.009613  -0.03247  0.01256  0.02361  -0.6861  -0.4818
6.444e+09  -0.09757  -0.8063  -0.0008077  0.03261  -0.02654  -0.00359  -0.8546  -0.2328
6.445e+09  -0.388  -0.7524  -0.06476  -0.01914  -0.008549  0.01281  -0.8566  0.0805
6.446e+09  -0.6057  -0.5236  0.05108  -0.005327  -0.001014  -0.006113  -0.7648  0.3697
6.448e+09  -0.8323  -0.3185  -0.02057  0.0216  -0.03002  -0.03919  -0.6271  0.5803
6.449e+09  -0.8129  0.03585  0.02499  0.02796  0.02148  0.01939  -0.3702  0.7623
6.45e+09  -0.8159  0.2641  0.02222  0.01992  0.03138  0.0129  -0.06863  0.8261
6.451e+09  -0.6478  0.5427  -0.0002705  -0.01678  -0.0003583  0.03483  0.2287  0.8045
6.452e+09  -0.4129  0.6978  -0.01371  0.002674  0.01428  -0.02223  0.4605  0.7028
6.454e+09  -0.1703  0.7936  0.02288  -0.07387  -0.003869  -0.03658  0.6606  0.4345
6.455e+09  0.1589  0.8172  -0.04105  -0.01397  0.04406  -0.001363  0.8267  0.1998
6.456e+09  0.4284  0.7034  -0.05604  0.007777  -0.04572  -0.03497  0.8075  -0.05894
6.458e+09  0.6317  0.5626  0.02393  0.003349  0.03918  0.04736  0.7929  -0.3346
6.459e+09  0.7872  0.2264  -0.02151  0.001502  0.05943  0.0008022  0.5623  -0.5643
6.46e+09  0.8933  0.001911  -0.03544  0.02877  -0.0163  0.008783  0.3305  -0.708
6.461e+09  0.7899  -0.2677  -0.04202  -0.06679  0.02614  -0.03173  0.079  -0.7831
6.462e+09  0.6074  -0.543  0.01294  0.005938  9.435e-05  0.01725  -0.2061  -0.8009
6.464e+09  0.4267  -0.7134  0.006216  -0.02472  -0.01491  0.006878  -0.4644  -0.6382
6.465e+09  0.1431  -0.8015  0.02403  -0.04756  -0.01297  0.01362  -0.6661  -0.4649
6.466e+09  -0.1601  -0.8229  -0.01179  -0.01183  -0.01617  0.03061  -0.7581  -0.2075
6.468e+09  -0.4703  -0.7403  -0.03508  0.009371  0.008644  -0.04671  -0.8243  0.06969
6.469e+09  -0.6544  -0.5189  -0.02786  -0.02251  -0.008481  -0.009753  -0.7419  0.3387
6.47e+09  -0.7454  -0.3125  -0.009785  0.006277  -0.002871  -0.004123  -0.5875  0.5589
6.471e+09  -0.8892  0.04571  -0.004116  -0.01361  -0.0231  -0.02843  -0.351  0.721
6.472e+09  -0.8128  0.3159  0.004327  0.02142  -0.003237  -0.01549  -0.07699  0.7807
6.474e+09  -0.6333  0.5093  -0.002246  0.02628  -0.02219  -0.01068  0.2125  0.7342
6.475e+09  -0.3825  0.7647  -0.04275  -0.01465  -0.01775  -0.02216  0.4383  0.681
6.476e+09  -0.1115  0.8391  0.0002744  -0.02527  0.04856  0.04332  0.6684  0.457
6.478e+09  0.1665  0.8356  -0.01155  0.01994  0.01183  0.02709  0.761  0.1692
6.479e+09  0.4451  0.7042  0.0203  0.007313  0.003956  -0.01517  0.7935  -0.1028
6.48e+09  0.6561  0.5433  -0.001037  0.02139  -0.01132  -0.0281  0.6611  -0.3649
6.481e+09  0.748  0.239  -0.0004632  -0.02565  -0.01093  0.01423  0.5392  -0.5712
6.482e+09  0.8416  -0.02257  -0.02687  -0.001463  0.0315  -0.01076  0.316  -0.7296
6.484e+09  0.7711  -0.2965  0.04852  0.007818  -0.02378  0.007306  0.08769  -0.7723
6.485e+09  0.6477  -0.5736  0.0246  0.007883  -0.02284  0.004425  -0.1895  -0.7386
6.486e+09  0.381  -0.7765  0.02902  0.003983  0.005499  0.009577  -0.4752  -0.6353
6.488e+09  0.2749  -0.1015  -0.02658  0.02934  0.5231  -0.4715  -0.6345  -0.4266
6.489e+09  -0.1599  -0.8092  0.002792  0.01733  0.01947  0.04736  -0.7337  -0.2174
6.49e+09  -0.4429  -0.7317  -0.01052  -0.04222  -0.0212  -0.03245  -0.7933  0.08296
6.491e+09  -0.7105  -0.5284  0.02747  -0.006297  0.03488  0.004667  -0.7033  0.3731
6.492e+09  -0.7589  -0.1881  -0.01693  -0.01759  0.04028  -0.04664  -0.5362  0.5708
6.494e+09  -0.7992  0.1445  -0.007657  -0.007984  0.06612  -0.08497  -0.3371  0.6847
6.495e+09  -0.814  0.3605  -0.009188  -0.01887  0.02553  -0.02723  -0.02435  0.7669
6.496e+09  -0.6303  0.5363  -0.01633  -0.01109  0.05052  0.00125  0.2514  0.7497
6.498e+09  -0.3726  0.7861  -0.0114  0.04207  -0.03362  -0.01543  0.4447  0.6203
6.499e+09  -0.1206  0.8628  -0.02935  0.01326  -0.007559  0.02622  0.6573  0.4061
6.5e+09  0.09742  0.7977  -0.01045  -0.01506  0.02665  0.0253  0.7434  0.1517
6.501e+09  0.4779  0.7029  2.554e-05  -0.006034  0.03479  -0.002174  0.7365  -0.09716
6.502e+09  0.6939  0.5016  0.03213  -0.001968  0.01759  0.03758  0.68  -0.3627
6.504e+09  0.8088  0.2446  0.003849  0.01961  0.02669  0.03907  0.5071  -0.5324
6.505e+09  0.8469  -0.05289  -0.01509  -0.006006  -0.03389  -0.01257  0.297  -0.7053
6.506e+09  0.8232  -0.296  -0.004511  0.01864  0.006835  -0.02206  0.01108  -0.7385
6.508e+09  0.6955  -0.6139  -0.004919  0.008008  0.0254  -0.04752  -0.2212  -0.6982
6.509e+09  0.4271  -0.7793  0.01172  0.0003107  -0.005334  -0.04507  -0.52  -0.5444
6.51e+09  0.02981  -0.8837  0.03719  0.00231  0.02446  0.0289  -0.6378  -0.3398
6.511e+09  -0.2641  -0.855  0.005555  0.0162  0.043  0.02121  -0.7414  -0.1357
6.512e+09  -0.496  -0.7053  0.001672  -0.01721  -0.007478  0.01272  -0.7202  0.1326
6.514e+09  -0.6861  -0.5154  -0.01507  -0.01449  0.01374  -0.05216  -0.6515  0.3598
6.515e+09  -0.8672  -0.2589  0.0144  0.01529  0.02129  -0.0265  -0.4599  0.5883
6.516e+09  -0.8586  0.08837  -0.02601  0.02876  0.01117  -0.006674  -0.2453  0.6984
6.518e+09  -0.8078  0.4126  0.002381  0.01475  0.01856  0.02104  -0.005894  0.7638
6.519e+09  -0.608  0.6739  0.03295  0.01538  -0.00179  -0.02585  0.2676  0.7126
6.52e+09  -0.3291  0.7977  0.002722  -0.02127  -0.01784  -0.008204  0.4982  0.5182
6.521e+09  -0.0836  0.8765  0.03095  0.007829  0.006781  0.005698  0.6331  0.3639
6.522e+09  0.2416  0.8138  0.01862  -0.004893  -0.03483  -0.0007124  0.7201  0.06013
6.524e+09  0.5693  0.6793  0.009824  -0.0009918  -0.02721  -0.05435  0.7068  -0.1806
6.525e+09  0.7475  0.5109  0.01541  -0.05165  -0.0005975  -0.02534  0.6029  -0.4276
6.526e+09  0.8874  0.1867  -0.01316  0.03213  -0.009685  -0.03857  0.4401  -0.6123
6.528e+09  0.8756  -0.1839  0.04  0.01474  0.03237  -0.02174  0.1915  -0.7003
6.529e+09  0.795  -0.4419  0.02164  0.02853  -0.004094  0.005505  -0.03901  -0.6977
6.53e+09  0.5751  -0.6861  -0.004821  -0.01332  0.05113  -0.02492  -0.2973  -0.6548
6.531e+09  0.3493  -0.8585  0.03631  -0.02163  -0.04854  0.004712  -0.4836  -0.4762
6.532e+09  0.07551  -0.9457  -0.007483  -0.01201  0.01077  0.003067  -0.5957  -0.276
6.534e+09  -0.2798  -0.8722  -0.0352  0.03405  -0.0789  -0.007683  -0.6188  -0.06662
6.535e+09  -0.5579  -0.7295  0.009003  0.001108  0.07251  -0.01467  -0.6205  0.1245
6.536e+09  -0.8243  -0.4401  -0.003864  -0.01538  0.0915  -0.02583  -0.5804  0.2755
6.538e+09  -0.897  -0.1357  -0.01755  0.05195  0.01328  0.05321  -0.4355  0.4778
6.539e+09  -0.991  0.1982  0.04828  0.0086  -0.001799  0.006391  -0.2678  0.6131
6.54e+09  -0.7578  0.4951  -0.02903  -6.982e-05  0.0004303  -0.05191  -0.04572  0.7015
6.541e+09  -0.5725  0.7644  0.0006415  0.003456  -0.01431  0.01601  0.1919  0.6833
6.542e+09  -0.2962  0.902  0.01231  0.02061  0.02345  0.00636  0.4103  0.5554
6.544e+09  0.04377  0.8996  -0.03896  -0.02442  -0.00047  -0.01955  0.5683  0.4133
6.545e+09  0.3516  0.8253  -0.0237  -0.002013  0.03358  0.003786  0.6459  0.1693
6.546e+09  0.6855  0.6424  0.008723  0.002451  0.009131  0.01964  0.6743  -0.09679
6.548e+09  0.8226  0.4194  -0.001133  0.01872  0.03929  -0.004735  0.6747  -0.3006
6.549e+09  0.8839  0.0473  -0.03022  0.002192  -0.01332  -0.05013  0.4621  -0.5284
6.55e+09  0.9122  -0.2467  -0.00341  0.02832  -0.004497  0.01969  0.3034  -0.642
