# Hz S RI R 50
6.25e+09  -0.0262  0.9319  -0.01608  0.02373  -0.03005  0.07932  0.1731  0.4608
6.251e+09  0.3485  0.8392  -0.02696  0.0251  0.04811  0.01672  0.372  0.4139
6.252e+09  0.6185  0.7142  0.002062  0.009206  0.002192  0.01742  0.5287  0.2364
6.254e+09  0.7804  0.4451  -0.00568  -0.003005  0.0004019  -0.003019  0.634  0.04942
6.255e+09  0.9511  0.2  0.007585  -0.04179  -0.01953  -0.007238  0.5798  -0.1716
6.256e+09  0.8871  -0.1523  -0.02654  0.05185  -0.01703  -0.03454  0.4696  -0.4469
6.258e+09  0.7515  -0.4319  -0.02383  -0.003837  0.009406  -0.06486  0.2801  -0.6059
6.259e+09  0.5767  -0.6691  -0.002933  -0.03946  -0.01645  0.06082  0.02518  -0.6776
6.26e+09  0.2956  -0.8518  -0.01187  -0.005717  0.03619  -0.0462  -0.2176  -0.6466
6.261e+09  -0.004037  -0.9017  0.01616  -0.007129  -0.02651  0.04921  -0.445  -0.5804
6.262e+09  -0.3236  -0.8174  0.01326  -0.03149  -0.002983  0.04243  -0.6015  -0.3577
6.264e+09  -0.6614  -0.653  -0.02693  0.01894  -0.009677  0.008447  -0.7047  -0.1134
6.265e+09  -0.8587  -0.4171  -0.04433  0.01184  0.0129  0.005813  -0.7  0.1391
6.266e+09  -0.8911  -0.1437  0.01124  0.009656  -0.06598  0.01382  -0.606  0.3755
6.268e+09  -0.9008  0.1872  -0.005732  0.003604  0.006426  0.01134  -0.4299  0.5619
6.269e+09  -0.8077  0.4932  -0.009229  0.03313  0.001982  -0.01838  -0.1708  0.7295
6.27e+09  -0.5941  0.748  0.01837  0.01604  -0.03232  -0.01016  0.06979  0.7555
6.271e+09  -0.219  0.8715  -0.008209  -0.03904  0.01082  -0.03019  0.3014  0.6793
6.272e+09  0.0421  0.8977  -0.02182  -0.03685  0.003174  -0.03102  0.5441  0.4883
6.274e+09  0.3387  0.8276  -0.001329  -0.0005676  0.009517  -0.022  0.6662  0.2996
6.275e+09  0.6205  0.6379  0.01472  -0.02032  0.05567  -0.008436  0.7768  0.06845
6.276e+09  0.7962  0.3923  -0.0282  -0.01071  0.02641  0.04116  0.722  -0.2018
6.278e+09  0.8728  0.1591  -0.02177  0.004977  0.03436  -0.008962  0.6163  -0.4315
6.279e+09  0.9026  -0.2107  -0.0151  -0.01412  0.03631  -0.02939  0.4181  -0.6118
6.28e+09  0.7638  -0.4955  0.01163  0.01353  -0.01551  0.006486  0.1769  -0.748
6.281e+09  0.4839  -0.7834  -0.01199  0.0154  0.01345  0.04414  -0.1269  -0.764
6.282e+09  0.2478  -0.8856  -0.006469  0.002558  -0.01112  0.004477  -0.3895  -0.7084
6.284e+09  -0.02274  -0.9204  -0.001509  0.01167  -0.004018  -0.03273  -0.6024  -0.5048
6.285e+09  -0.3833  -0.8352  0.01556  0.011  0.05149  0.01245  -0.7869  -0.3004
6.286e+09  -0.6501  -0.6172  -0.007304  0.01253  0.02091  -0.001542  -0.7719  -0.02279
6.288e+09  -0.8484  -0.3969  0.01808  0.00455  0.0002981  -0.04674  -0.7526  0.2209
6.289e+09  -0.9075  -0.064  -0.004718  -0.02067  0.02827  -0.01715  -0.609  0.5057
6.29e+09  -0.8614  0.2615  0.001544  0.02614  -0.02119  -0.008108  -0.393  0.7029
6.291e+09  -0.7212  0.5528  -0.003858  0.003364  0.01656  0.03396  -0.1095  0.8179
6.292e+09  -0.5135  0.8027  0.01153  0.02998  0.05002  0.02388  0.1277  0.8113
6.294e+09  -0.189  0.887  0.0008315  -0.006612  -0.01636  -0.004325  0.3858  0.7193
6.295e+09  0.0719  0.9257  0.01381  0.009741  0.0441  0.02097  0.6111  0.5434
6.296e+09  0.4499  0.8417  0.01367  0.02618  0.01361  -0.02312  0.7827  0.3306
6.298e+09  0.6764  0.555  -0.01918  -0.001506  -0.01234  -0.006972  0.8578  0.02057
6.299e+09  0.8826  0.354  -0.01185  0.002537  -0.02003  0.02176  0.8304  -0.304
6.3e+09  0.9309  0.05518  -0.00357  0.0279  0.05344  0.01126  0.653  -0.5308
6.301e+09  0.908  -0.3012  -0.005429  0.01372  -0.02584  0.05127  0.4193  -0.6958
6.302e+09  0.711  -0.6146  -0.01533  0.006134  0.02637  0.01713  0.1445  -0.8167
6.304e+09  0.4847  -0.8363  0.02871  -0.002658  0.01433  0.02104  -0.1193  -0.8513
6.305e+09  0.1621  -0.9341  -0.01551  -0.004469  -0.0005461  -0.02265  -0.4146  -0.7359
6.306e+09  -0.1879  -0.9711  0.004187  -0.01387  0.04612  0.02639  -0.6298  -0.5232
6.308e+09  -0.4853  -0.7952  0.006631  -0.03448  0.01576  -0.01325  -0.79  -0.2972
6.309e+09  -0.733  -0.5685  0.005976  -0.0003605  0.01688  -0.03333  -0.868  0.01115
6.31e+09  -0.9334  -0.2805  0.01118  -0.01885  0.0323  -0.008024  -0.8263  0.3015
6.311e+09  -0.9726  0.009883  0.004067  0.01559  0.03412  0.0003937  -0.6876  0.5504
6.312e+09  -0.9169  0.3716  -0.002156  -0.01604  0.01359  -0.0229  -0.4349  0.7147
6.314e+09  -0.6947  0.6686  0.01379  -0.006929  0.04518  -0.004028  -0.1292  0.8635
6.315e+09  -0.4034  0.876  0.01623  0.009755  0.03862  -0.02521  0.1644  0.8737
6.316e+09  -0.09463  0.9954  -0.01628  -0.006871  -0.01691  0.002651  0.4363  0.8105
6.318e+09  0.1956  1.003  0.02245  0.004622  0.0406  -0.03979  0.6684  0.5861
6.319e+09  0.5996  0.8131  -0.007045  0.002651  0.02416  -0.00533  0.8097  0.3367
6.32e+09  0.8324  0.5743  -0.01179  -0.007511  0.01416  -0.003441  0.8568  0.0301
6.321e+09  0.9995  0.2585  0.008181  0.02939  0.03131  -0.01733  0.8309  -0.2741
6.322e+09  0.9563  -0.07031  0.01044  0.02196  -0.008341  -0.03769  0.7124  -0.5516
6.324e+09  0.8711  -0.4821  -0.01007  0.009006  -0.01612  0.0438  0.4434  -0.8063
6.325e+09  0.6443  -0.7771  0.01445  0.006385  0.01499  -0.03681  0.1654  -0.848
6.326e+09  0.4001  -0.9153  -0.000288  -0.005516  0.03429  -0.0108  -0.1373  -0.8945
6.328e+09  0.01224  -1.031  -0.0266  -0.02743  -0.02537  -0.02198  -0.4029  -0.7588
6.329e+09  -0.3814  -0.9377  0.004123  0.001446  -0.005846  -0.03563  -0.6654  -0.6333
6.33e+09  -0.6568  -0.8603  -0.01276  0.006372  0.05975  0.02069  -0.81  -0.3516
6.331e+09  -0.9185  -0.4629  -0.01007  -0.008139  -0.02224  -0.01822  -0.8869  -0.03718
6.332e+09  -1.034  -0.1675  -0.008946  0.01791  0.01907  -0.02523  -0.8471  0.2385
6.334e+09  -0.9888  0.2158  0.01429  0.01252  0.00618  -0.04049  -0.7467  0.5819
6.335e+09  -0.9037  0.5431  0.01582  -0.01099  -0.004769  -0.04281  -0.5194  0.7626
6.336e+09  -0.6312  0.8479  0.02318  0.02282  0.001168  0.01862  -0.1721  0.9029
6.338e+09  -0.2656  1.013  0.03537  -0.02481  -0.001009  -0.02825  0.1149  0.9131
6.339e+09  0.1011  1.049  0.02392  0.01165  -0.01267  -0.03989  0.4361  0.7914
6.34e+09  0.4266  0.9916  -0.02652  0.02335  0.04931  0.02279  0.7017  0.5898
6.341e+09  0.7702  0.7578  0.01994  0.03235  -0.05649  -0.006647  0.8639  0.3635
6.342e+09  0.9904  0.4085  -0.00236  -0.03346  -0.02547  0.03976  0.9412  0.07257
6.344e+09  1.098  0.02937  -0.01677  0.002085  0.02774  -0.00824  0.8942  -0.2713
6.345e+09  1.022  -0.2999  0.02224  0.01938  -0.01139  0.01517  0.7715  -0.5773
6.346e+09  0.8678  -0.6348  0.004362  -0.00825  -0.03778  -0.03017  0.5081  -0.8017
6.348e+09  0.5563  -0.9135  -0.03008  -0.007198  -0.01216  -0.01778  0.2248  -0.9102
6.349e+09  0.1863  -1.049  0.004067  -0.006674  0.03274  0.03267  -0.1004  -0.8904
6.35e+09  -0.1666  -1.09  -0.04504  -0.01785  -0.04292  0.01379  -0.4515  -0.8718
6.351e+09  -0.5406  -0.8878  0.01778  -0.004396  0.0159  0.04592  -0.6979  -0.6537
6.352e+09  -0.8732  -0.6896  -0.003252  0.02611  0.01716  -0.02742  -0.8953  -0.3739
6.354e+09  -1.038  -0.29  0.0172  -2.947e-05  0.01116  0.01419  -0.9446  -0.03625
6.355e+09  -1.045  0.004001  -0.03285  0.0186  0.007197  -0.0008628  -0.9232  0.2777
6.356e+09  -1.012  0.476  0.00136  -0.01926  -0.005611  0.001337  -0.6856  0.5351
6.358e+09  -0.7711  0.7571  -0.01732  0.01415  -0.008111  0.01203  -0.5241  0.7608
6.359e+09  -0.5056  0.9393  0.005018  -0.04108  0.01838  0.009122  -0.2215  0.9352
6.36e+09  -0.1229  1.015  -0.005048  -0.02636  0.03906  -0.01111  0.1005  0.9636
6.361e+09  0.2644  0.9978  -0.02752  0.02747  -0.008577  -0.03325  0.4453  0.8398
6.362e+09  0.6522  0.8782  -0.0108  -0.00476  0.003578  0.0065  0.6871  0.657
6.364e+09  0.8842  0.5523  -0.006851  0.01913  0.05403  -0.009358  0.8635  0.3487
6.365e+09  1.092  0.2451  0.01878  -0.001963  -0.02885  0.009102  0.9302  0.06787
6.366e+09  1.035  -0.1162  0.001005  -0.01145  0.01108  0.04806  0.864  -0.2147
6.368e+09  0.9476  -0.4648  -0.01014  -0.02931  0.008371  0.02544  0.7712  -0.5513
6.369e+09  0.7307  -0.8116  -0.004268  -0.02298  -0.05297  0.02328  0.5295  -0.7868
6.37e+09  0.3496  -0.9964  -0.0255  -0.01148  0.008386  -0.007648  0.2291  -0.8983
6.371e+09  0.02187  -1.032  0.02009  0.0004846  0.02134  -0.001574  -0.06352  -0.9032
6.372e+09  -0.3384  -0.9619  0.03127  -0.01098  0.04666  0.008356  -0.3776  -0.8501
6.374e+09  -0.6669  -0.792  0.01543  0.003218  0.03971  -0.009412  -0.6798  -0.6695
6.375e+09  -0.908  -0.5305  0.005554  0.04441  0.006957  0.01981  -0.8433  -0.4365
6.376e+09  -1.013  -0.15  0.0009552  0.06274  0.01635  0.009089  -0.9567  -0.1268
6.378e+09  -0.993  0.2162  0.02314  -0.001157  0.01736  0.01803  -0.9208  0.2423
6.379e+09  -0.9132  0.586  0.03212  -0.0158  -0.01498  -0.07279  -0.7817  0.5281
6.38e+09  -0.631  0.842  0.02098  0.04868  -0.02881  -0.0006672  -0.5219  0.743
6.381e+09  -0.3026  0.9822  -0.02676  -0.01578  -0.006636  -0.02488  -0.2652  0.8996
6.382e+09  0.0511  1.045  -0.001447  -0.01906  0.04633  -0.02396  0.05312  0.9212
6.384e+09  0.4161  0.8963  -0.01026  0.006372  -0.02948  -0.01302  0.3866  0.8706
6.385e+09  0.6881  0.7564  0.002925  -0.001002  0.04287  0.01536  0.6333  0.6685
6.386e+09  0.9235  0.4559  0.04302  -0.008379  -0.03847  -0.05589  0.8623  0.4029
6.388e+09  1.007  0.09982  0.007451  0.003862  0.008113  0.05003  0.9242  0.13
6.389e+09  1.03  -0.2167  0.03213  0.02701  0.01679  0.0008919  0.917  -0.2017
6.39e+09  0.8462  -0.5562  0.01631  -0.01598  0.03146  0.01219  0.7825  -0.4983
6.391e+09  0.6033  -0.82  0.002965  -0.02475  0.009306  -0.02258  0.5963  -0.793
6.392e+09  0.2402  -0.9976  0.01172  0.005881  0.01113  -0.04555  0.2743  -0.8896
6.394e+09  -0.08147  -0.9682  0.02146  0.01736  0.01214  0.01086  -0.09427  -0.9173
6.395e+09  -0.4201  -0.9121  0.002243  0.018  0.01623  -0.0072  -0.3551  -0.8448
6.396e+09  -0.733  -0.781  0.03473  0.03806  -0.01008  0.01334  -0.6243  -0.6625
6.398e+09  -0.9008  -0.4092  -0.02629  -0.007826  0.02307  0.009594  -0.7811  -0.4491
6.399e+09  -1.039  -0.1168  0.0216  -0.01019  -0.008535  0.03399  -0.9198  -0.1388
6.4e+09  -1.015  0.3117  0.002802  0.02665  0.03027  -0.01865  -0.893  0.1954
6.401e+09  -0.8395  0.5954  -0.01115  0.002172  -0.03652  -0.007885  -0.7891  0.4762
6.402e+09  -0.5676  0.7912  -0.02693  -0.009205  -0.03008  -0.0309  -0.5881  0.6638
6.404e+09  -0.2204  1.009  0.02544  0.01065  -0.0142  0.01251  -0.308  0.8747
6.405e+09  0.1444  0.9787  -0.0003797  -0.00343  -0.002266  0.004311  0.01499  0.9177
6.406e+09  0.4416  0.915  0.01453  -0.009426  -0.02705  -0.02291  0.3524  0.8725
6.408e+09  0.6807  0.6941  0.03404  0.0473  -0.03538  0.004126  0.575  0.6434
6.409e+09  0.9049  0.3726  0.04678  0.01432  -0.01055  0.01817  0.7091  0.5242
6.41e+09  0.9906  0.06167  -0.01639  0.02672  -0.01351  -0.01066  0.9021  0.1505
6.411e+09  0.9507  -0.3018  0.03216  -0.01883  -0.04092  -0.00162  0.932  -0.1561
6.412e+09  0.7867  -0.6143  -0.0284  -0.02028  -0.01784  -0.01308  0.7727  -0.4175
6.414e+09  0.4961  -0.8857  0.01333  0.0259  0.009064  -0.01016  0.6018  -0.67
6.415e+09  0.1915  -0.974  0.02327  -0.003622  0.04192  0.0299  0.3218  -0.8357
6.416e+09  -0.2045  -0.9685  -0.02746  0.02989  0.001215  0.006241  0.03082  -0.9312
6.418e+09  -0.4498  -0.8788  -0.013  -0.01064  -0.01103  0.02863  -0.3039  -0.8788
6.419e+09  -0.7062  -0.6825  0.005894  0.02994  -0.03227  -0.003981  -0.5357  -0.6994
6.42e+09  -0.9694  -0.3766  -0.009249  0.0001266  -0.05211  -0.01127  -0.7611  -0.5013
6.421e+09  -0.9755  0.0007822  -0.0261  0.002946  0.03447  -0.02278  -0.8707  -0.2006
6.422e+09  -0.891  0.3565  -0.0269  -0.01944  0.002498  -0.00916  -0.8839  0.08846
6.424e+09  -0.772  0.6514  0.05155  -0.003791  -0.00991  -0.01559  -0.7741  0.4335
6.425e+09  -0.473  0.8697  -0.02135  -0.006218  0.002949  0.02395  -0.5471  0.5946
6.426e+09  -0.1655  1.01  -0.0001006  -0.02696  -0.02838  0.0117  -0.3679  0.7882
6.428e+09  0.1789  0.9831  0.004984  0.00944  0.01755  0.02439  -0.02185  0.9276
6.429e+09  0.5238  0.8789  0.01638  -0.06223  0.0006998  0.02737  0.2365  0.8876
6.43e+09  0.8011  0.6211  -0.05159  0.005549  -0.00142  0.04181  0.5339  0.7268
6.431e+09  0.9103  0.299  0.02177  0.03799  0.03197  0.04367  0.7195  0.4761
6.432e+09  1.071  -0.04564  -0.04636  -0.02842  0.03526  -0.01335  0.8348  0.2217
6.434e+09  0.9299  -0.3551  0.01064  -0.009754  0.02127  0.009095  0.839  -0.06509
6.435e+09  0.789  -0.6893  0.009573  0.0009449  0.008117  0.009938  0.8169  -0.3762
6.436e+09  0.5397  -0.9392  0.0002093  -0.009132  0.02248  0.03486  0.5772  -0.6201
6.438e+09  0.1323  -1.044  0.003092  -0.003852  -0.0251  -0.01719  0.3365  -0.7906
6.439e+09  -0.2071  -0.9958  0.03915  0.03432  0.04358  -0.03282  0.04685  -0.8873
6.44e+09  -0.52  -0.8265  -0.0001281  0.02949  -0.009647  0.02072  -0.1967  -0.8473
6.441e+09  -0.8437  -0.6559  0.002104  -0.008513  -0.0488  0.0253  -0.5146  -0.6446
6.442e+09  -0.9808  -0.2704  -0.02171  0.01007  -0.03682  -0.0004544  -0.7146  -0.4729
6.444e+09  -1.017  0.08652  -0.02686  -0.01251  0.03149  -0.01173  -0.8421  -0.227
6.445e+09  -0.9522  0.4067  0.0237  0.02452  0.03561  -0.02844  -0.8481  0.1047
6.446e+09  -0.7508  0.7962  0.01999  0.02375  0.007175  -0.01982  -0.7956  0.3679
6.448e+09  -0.4404  0.9442  -0.02655  0.01111  0.01992  0.01113  -0.573  0.663
6.449e+09  -0.1032  1.055  -0.009271  0.007944  0.03524  -0.01182  -0.3461  0.7385
6.45e+09  0.285  0.9697  -0.02541  -0.003141  0.03174  0.0009603  -0.07107  0.8648
6.451e+09  0.6881  0.8285  0.01791  -0.03128  -0.007104  0.01156  0.2045  0.8228
6.452e+09  0.8744  0.5957  0.01337  0.01138  0.01478  0.00938  0.4661  0.6329
6.454e+09  1.066  0.276  -0.02192  0.01375  -0.0509  -0.01503  0.6766  0.4289
6.455e+09  1.064  -0.1479  0.01599  0.02322  -0.03504  -0.008794  0.7831  0.2281
6.456e+09  0.9296  -0.5449  0.04367  -0.0233  0.002714  0.01359  0.8327  -0.09473
6.458e+09  0.6513  -0.7659  -0.012  -0.02494  0.06616  0.004297  0.7051  -0.3724
6.459e+09  0.3358  -1.031  -0.047  0.00836  -0.0463  0.03105  0.5582  -0.5617
6.46e+09  -0.01405  -1.087  -0.02907  0.02285  0.001084  -0.0004917  0.3178  -0.7289
6.461e+09  -0.3529  -1.007  0.008159  0.02016  0.04767  -0.03099  0.04999  -0.8569
6.462e+09  -0.6796  -0.845  0.01102  -0.02725  3.853e-05  0.02666  -0.1892  -0.7581
6.464e+09  -0.9157  -0.5434  -0.04659  -0.02358  0.003781  0.02849  -0.4644  -0.6338
6.465e+09  -1.109  -0.1447  0.04623  0.01505  -0.01364  -0.00733  -0.641  -0.4496
6.466e+09  -1.107  0.2359  -0.0109  0.003544  -0.008555  0.01103  -0.8107  -0.1997
6.468e+09  -0.8917  0.6097  0.008678  -0.01521  -0.01833  -0.01341  -0.7983  0.04333
6.469e+09  -0.6929  0.8733  -0.006342  -0.01931  -0.009862  -0.006081  -0.7453  0.347
6.47e+09  -0.2793  1.112  0.02984  0.01467  0.01774  -0.01901  -0.5652  0.5734
6.471e+09  0.08589  1.088  -0.007341  -0.0114  0.05516  -0.01709  -0.3093  0.7305
6.472e+09  0.4783  1.001  -0.02838  -0.005074  -0.02114  -0.0149  -0.0718  0.7905
6.474e+09  0.8352  0.8011  0.04178  0.02495  0.002258  0.012  0.1992  0.7317
6.475e+09  1.035  0.4669  -0.0009382  -0.01481  0.04323  0.01233  0.4473  0.6527
6.476e+09  1.138  0.05706  -0.005471  -0.02669  -0.004749  -0.008956  0.6738  0.3779
6.478e+09  1.055  -0.3547  -0.05248  -0.03392  0.01461  0.03909  0.7919  0.2324
6.479e+09  0.8725  -0.7519  -0.0002973  -0.03206  -0.01466  -0.0333  0.7601  -0.103
6.48e+09  0.5763  -0.9917  -0.02373  0.001819  -0.00892  -0.006081  0.6698  -0.3395
6.481e+09  0.2622  -1.146  0.02245  -0.006871  0.02861  0.03301  0.5498  -0.5761
6.482e+09  -0.2314  -1.156  0.01632  -0.07082  0.01529  -0.002973  0.3114  -0.6976
6.484e+09  -0.6744  -0.9298  0.01845  0.02751  0.004789  0.01899  0.03345  -0.7635
6.485e+09  -0.9093  -0.6954  -0.01099  0.01488  -0.03744  -0.00658  -0.211  -0.7547
6.486e+09  -1.099  -0.3581  0.02376  0.01845  0.009265  -0.01532  -0.4239  -0.6215
6.488e+09  -1.166  0.8305  -0.009094  -0.01031  -0.09497  -0.6801  -0.5706  -0.4394
6.489e+09  -1.084  0.4871  0.05287  -0.01603  -0.01145  -0.02511  -0.6969  -0.2012
6.49e+09  -0.767  0.8122  -0.03053  0.00898  -0.01734  -0.04703  -0.7412  0.09847
6.491e+09  -0.4191  1.148  0.02175  0.03791  -0.04172  -0.002737  -0.6855  0.3327
6.492e+09  -0.07679  1.161  0.01256  0.01548  0.01703  -0.03507  -0.5138  0.5259
6.494e+09  0.4829  1.118  0.0126  -0.02129  0.07052  0.08843  -0.3014  0.6612
6.495e+09  0.7776  0.9434  -0.02243  4.956e-05  -0.02576  0.009871  -0.01205  0.7186
6.496e+09  1.052  0.5713  -0.01044  0.01429  -0.01005  0.003285  0.2335  0.7013
6.498e+09  1.102  0.1435  0.02829  0.01968  0.03671  0.03766  0.4557  0.6174
6.499e+09  1.101  -0.2931  0.02418  0.0007717  0.01729  -0.02012  0.6574  0.4372
6.5e+09  0.4454  -0.9855  0.008911  -0.03342  0.07069  -0.03595  0.7362  0.1827
6.501e+09  0.6627  -0.9527  0.0002105  0.01824  -0.01315  -0.003385  0.7749  -0.08806
6.502e+09  0.2863  -1.098  -0.01724  0.03588  -0.004549  0.01783  0.6797  -0.3421
6.504e+09  -0.08708  -1.182  -0.005644  -0.008741  0.01431  -0.005142  0.4898  -0.564
6.505e+09  -0.5312  -1.039  -0.0116  -0.01997  0.04472  0.0512  0.2795  -0.7305
6.506e+09  -0.8138  -0.7228  0.0072  -0.01195  -0.0002722  0.04657  0.02634  -0.7456
6.508e+09  -1.049  -0.4099  0.0291  -0.005538  0.05214  0.04099  -0.2433  -0.7264
6.509e+09  -1.149  -0.04261  -0.01801  -0.01674  0.01643  0.04657  -0.5053  -0.5932
6.51e+09  -1.069  0.4645  -0.02681  -0.01569  0.05061  -0.02929  -0.6532  -0.365
6.511e+09  -0.9004  0.7623  0.0166  0.03444  -0.003526  -0.003476  -0.7338  -0.1302
6.512e+09  -0.4569  0.9592  0.0004745  0.02609  -0.006951  -0.006886  -0.7455  0.1504
6.514e+09  -0.1545  1.079  -0.02272  -0.04593  -0.004596  -0.04486  -0.6304  0.3817
6.515e+09  0.3031  1.057  0.01215  0.03016  -0.005833  -0.02408  -0.4958  0.5466
6.516e+09  0.5861  0.9029  -0.01862  0.0163  -0.01226  -0.01707  -0.2494  0.6814
6.518e+09  0.9742  0.5811  -0.008238  0.007861  0.03416  0.01235  0.04029  0.7371
6.519e+09  1.093  0.1905  0.02897  -0.01291  -0.02081  -0.001541  0.2939  0.7259
6.52e+09  1.078  -0.153  -0.04756  -0.01288  -0.00139  -0.007573  0.4847  0.5718
6.521e+09  0.9151  -0.577  0.0002715  -0.01389  -0.02417  -0.02812  0.6569  0.3271
6.522e+09  0.6913  -0.8675  0.03045  -0.02124  -0.02054  -0.006445  0.7455  0.07678
6.524e+09  0.3062  -1.043  -0.02649  -0.008528  -0.04579  -0.05783  0.7356  -0.1688
6.525e+09  -0.08194  -1.048  0.002235  0.008257  0.009334  -0.0426  0.6331  -0.3855
6.526e+09  -0.4191  -1.026  0.03728  0.004643  -0.006642  0.007352  0.4628  -0.5845
6.528e+09  -0.7589  -0.7557  0.008687  0.002831  -0.09648  0.01185  0.2115  -0.7055
6.529e+09  -0.9531  -0.4368  0.001469  0.01369  -0.02031  0.01731  -0.0606  -0.6819
6.53e+09  -0.9976  -0.03192  0.01891  -0.006948  -0.01882  -0.008373  -0.2733  -0.6172
6.531e+09  -1.032  0.3133  -0.01967  -0.009308  -0.008118  -0.02052  -0.4747  -0.4787
6.532e+09  -0.7957  0.626  0.01366  0.01713  -0.01848  -0.02996  -0.5634  -0.2597
6.534e+09  -0.5411  0.8753  0.01019  -0.01642  0.008978  0.04317  -0.6333  -0.1143
6.535e+09  -0.1607  0.9822  -0.007549  -0.01  -0.009957  -0.02729  -0.6001  0.1291
6.536e+09  0.1853  0.9942  -0.002785  0.02946  -0.01808  -0.02917  -0.5671  0.27
6.538e+09  0.5849  0.8748  -0.03276  -0.02872  0.003323  -0.03797  -0.4487  0.456
6.539e+09  0.7844  0.5676  0.05554  -0.0166  -0.02003  -0.03067  -0.2646  0.6121
6.54e+09  0.9723  0.3512  -0.03557  -0.01369  0.01091  0.004936  -0.04507  0.7005
6.541e+09  1.019  -0.05392  -0.02145  -0.004707  -0.0111  0.006645  0.164  0.6653
6.542e+09  0.9152  -0.3967  0.008179  -0.007025  -0.04469  0.02666  0.4146  0.5677
6.544e+09  0.6702  -0.692  -0.02437  0.01187  -0.01252  0.05938  0.5866  0.3988
6.545e+09  0.4432  -0.8823  0.02658  -0.002685  0.0006601  -0.02136  0.698  0.1458
6.546e+09  0.05066  -0.9493  0.02962  0.02226  0.04196  0.05411  0.7032  -0.06375
6.548e+09  -0.3006  -0.9281  0.02193  -0.00512  0.007965  0.0273  0.6086  -0.3825
6.549e+09  -0.5902  -0.7643  0.007219  0.03742  0.0644  -0.04066  0.487  -0.532
6.55e+09  -0.784  -0.5463  -0.02418  -0.003915  0.000725  0.02097  0.2779  -0.6839
6.551e+09  -0.9596  -0.191  0.01101  0.005756  -0.07434  0.01108  0.03484  -0.7509
