# Hz S RI R 50
6.25e+09  -0.3385  0.7652  -0.02407  0.01436  0.008123  -0.01463  0.1654  0.4765
6.251e+09  0.009324  0.8406  0.003792  0.01007  0.001857  0.05476  0.3452  0.4089
6.252e+09  0.2813  0.8025  -0.001633  0.004956  0.05457  -0.003898  0.5609  0.2031
6.254e+09  0.5086  0.6748  0.03278  0.01535  -0.008239  0.001014  0.6116  0.01853
6.255e+09  0.7156  0.5098  0.01261  0.01693  -0.05357  0.001297  0.5952  -0.2474
6.256e+09  0.8109  0.18  -0.008086  0.01305  0.04791  0.02174  0.4909  -0.4456
6.258e+09  0.758  -0.06845  -0.01055  0.0333  -0.003408  0.04986  0.3259  -0.611
6.259e+09  0.7324  -0.4421  -0.001973  0.01043  0.01231  -0.06091  0.08011  -0.6702
6.26e+09  0.5737  -0.6537  0.01086  -0.01359  0.02304  -0.03909  -0.2121  -0.6975
6.261e+09  0.2984  -0.7274  -0.002823  0.003509  0.01456  0.0438  -0.4208  -0.5452
6.262e+09  0.002211  -0.8134  -0.01021  -0.01098  -0.02128  -0.05313  -0.5971  -0.3326
6.264e+09  -0.2629  -0.7878  0.001101  -0.004725  0.01522  0.01496  -0.7229  -0.1308
6.265e+09  -0.5486  -0.6313  -0.01767  -0.02427  0.04086  -0.003554  -0.7004  0.1353
6.266e+09  -0.6735  -0.4338  -0.01383  -0.004568  0.02596  -0.06212  -0.5845  0.3757
6.268e+09  -0.7906  -0.2163  -0.00901  0.00162  -0.05698  0.04093  -0.4314  0.5981
6.269e+09  -0.8012  0.1352  -0.01796  -0.01087  -0.01658  -0.01153  -0.2212  0.714
6.27e+09  -0.6912  0.3825  -0.02056  0.007161  -0.01455  -0.02654  0.03953  0.7656
6.271e+09  -0.5132  0.623  0.01213  0.008895  0.0009223  -0.03479  0.308  0.6766
6.272e+09  -0.271  0.7281  -0.001568  0.02859  -0.01498  0.02036  0.5363  0.5139
6.274e+09  0.02498  0.8841  0.005384  0.01653  -0.0053  0.01929  0.6656  0.3099
6.275e+09  0.264  0.8483  -0.006223  0.007579  0.0307  0.01621  0.7527  0.04923
6.276e+09  0.5365  0.5484  0.005794  -0.0009513  -0.002027  0.004325  0.7258  -0.1883
6.278e+09  0.7095  0.3888  -0.009075  0.001396  0.04445  -0.01323  0.6079  -0.4507
6.279e+09  0.7579  0.1945  0.03349  -0.005284  0.02748  0.01059  0.4346  -0.6414
6.28e+09  0.8074  -0.1385  0.006594  -0.008298  0.08653  -0.06096  0.17  -0.7785
6.281e+09  0.7142  -0.4228  0.007804  -0.00758  -0.004163  0.02964  -0.1034  -0.7882
6.282e+09  0.5036  -0.6005  0.01536  -0.01282  -0.03872  -0.02602  -0.3819  -0.6784
6.284e+09  0.2718  -0.7685  0.005798  0.01608  0.0214  0.03922  -0.5725  -0.4644
6.285e+09  -0.04763  -0.8225  0.01791  0.02676  -0.04352  -0.01935  -0.7217  -0.3003
6.286e+09  -0.3432  -0.6971  0.02079  0.03078  0.0151  0.02562  -0.795  -0.0246
6.288e+09  -0.5104  -0.6279  -0.005223  -0.004591  -0.005831  -0.005611  -0.7635  0.231
6.289e+09  -0.775  -0.4051  0.01942  0.01347  0.01  -0.0444  -0.6386  0.4692
6.29e+09  -0.8069  -0.13  -0.009258  0.002357  0.00779  0.004946  -0.415  0.6808
6.291e+09  -0.8049  0.1749  0.02093  0.01299  -0.0252  0.03402  -0.1449  0.806
6.292e+09  -0.6867  0.4004  -0.01118  -0.01062  -0.01742  0.01804  0.1263  0.7666
6.294e+09  -0.504  0.6746  0.01283  -0.02239  -0.03472  -0.001066  0.4121  0.7106
6.295e+09  -0.2887  0.7907  0.04264  0.01649  -0.02442  0.02501  0.6315  0.5583
6.296e+09  0.03444  0.8181  -0.007428  -0.0233  0.007024  -0.004049  0.7526  0.2536
6.298e+09  0.3308  0.6721  0.01538  -0.009963  0.02205  0.01527  0.8184  -0.01176
6.299e+09  0.556  0.5641  0.001686  -0.004217  -0.01144  -0.0118  0.8215  -0.2673
6.3e+09  0.7154  0.3524  0.02063  0.009197  0.003741  0.01071  0.6558  -0.5312
6.301e+09  0.844  0.1068  -0.00294  0.007212  0.03422  -0.0286  0.4346  -0.7195
6.302e+09  0.7755  -0.1828  0.008114  0.00935  0.001459  0.01521  0.1145  -0.8096
6.304e+09  0.6842  -0.4844  0.0234  0.002413  0.001805  -0.03111  -0.1456  -0.8322
6.305e+09  0.4362  -0.6571  -0.01751  -0.02589  -0.001788  -0.002092  -0.4173  -0.7467
6.306e+09  0.1961  -0.7888  -0.01332  0.008885  0.01331  0.02412  -0.6497  -0.5471
6.308e+09  -0.1126  -0.8261  0.005149  0.001318  -0.0362  0.03585  -0.8189  -0.3151
6.309e+09  -0.327  -0.6944  -0.008404  0.003441  -0.01356  0.009058  -0.8579  0.002502
6.31e+09  -0.5397  -0.558  -0.00325  0.04282  -0.01479  -0.007922  -0.8096  0.2758
6.311e+09  -0.7333  -0.334  -0.0138  0.01912  0.01147  -0.003685  -0.6524  0.5089
6.312e+09  -0.8175  -0.01646  0.002111  0.03078  0.01005  0.006977  -0.4193  0.7764
6.314e+09  -0.7421  0.2546  -0.02356  -0.02228  0.03162  -0.01067  -0.147  0.8492
6.315e+09  -0.6566  0.4733  0.002956  0.02248  0.01137  0.01125  0.1362  0.8762
6.316e+09  -0.4256  0.6899  -0.03553  -0.007425  5.603e-05  -0.03049  0.4302  0.7699
6.318e+09  -0.1506  0.7892  0.008682  0.03318  -0.006833  0.02747  0.6183  0.5859
6.319e+09  0.1259  0.83  0.00869  0.01347  -0.03337  0.02395  0.8481  0.3026
6.32e+09  0.4014  0.673  -0.0184  0.03122  0.01621  -0.01125  0.8729  0.01761
6.321e+09  0.5701  0.5519  -0.01986  0.0005762  -0.01055  0.002835  0.8513  -0.2606
6.322e+09  0.7427  0.3167  -0.005184  0.01713  -0.06163  0.04098  0.7119  -0.5488
6.324e+09  0.7952  -0.0119  -0.01648  0.002326  0.006393  -0.03037  0.4724  -0.7426
6.325e+09  0.7288  -0.2835  -0.0007339  -0.001076  0.04705  0.03271  0.1546  -0.8993
6.326e+09  0.629  -0.5073  -0.01244  0.015  -0.02865  -0.01112  -0.123  -0.9281
6.328e+09  0.4677  -0.7404  -0.0006614  0.007798  -0.01568  0.005861  -0.4236  -0.7831
6.329e+09  0.1064  -0.8252  0.02666  0.02232  -0.01038  0.03966  -0.7055  -0.5761
6.33e+09  -0.1782  -0.8207  -0.03013  -0.01021  0.02432  -0.0133  -0.861  -0.3519
6.331e+09  -0.4115  -0.7186  -0.0008213  -0.01038  -0.003964  0.0006095  -0.8539  -0.009861
6.332e+09  -0.6686  -0.5537  -0.02501  0.00907  -0.01485  -0.005763  -0.8696  0.2499
6.334e+09  -0.7704  -0.2147  0.007894  -0.007016  -0.0172  -0.003871  -0.7117  0.5663
6.335e+09  -0.8527  0.06833  0.01172  0.03809  0.02069  0.03149  -0.4723  0.7882
6.336e+09  -0.7856  0.3375  -0.0237  0.00428  -0.01888  -0.000241  -0.2289  0.9058
6.338e+09  -0.5717  0.5582  0.01667  0.006116  0.02988  -0.001966  0.09163  0.9345
6.339e+09  -0.3474  0.7756  0.005191  0.004606  0.00407  -0.03694  0.4275  0.8188
6.34e+09  -0.06893  0.8172  0.02521  -0.01386  0.03977  -0.02145  0.6567  0.6337
6.341e+09  0.2351  0.8733  -0.02221  0.007853  -0.01208  -0.005681  0.8586  0.3389
6.342e+09  0.4831  0.674  0.02169  -0.0148  0.005681  0.0216  0.9318  0.08017
6.344e+09  0.6792  0.4777  0.04324  -0.0195  -0.01474  -0.001668  0.8934  -0.2826
6.345e+09  0.8111  0.1796  -0.0006599  0.003729  -0.04619  -0.02575  0.7462  -0.5718
6.346e+09  0.8496  -0.1168  -0.009714  0.03081  0.05599  -0.02132  0.5214  -0.772
6.348e+09  0.7546  -0.358  0.0003596  0.01678  0.009772  -0.03386  0.1994  -0.8913
6.349e+09  0.6082  -0.6422  0.03059  -0.008018  0.03346  -0.0021  -0.08384  -0.8889
6.35e+09  0.3358  -0.7854  -0.003387  -0.003688  -0.008347  0.04346  -0.4458  -0.8782
6.351e+09  0.05864  -0.832  -0.005756  0.006081  0.005746  0.02037  -0.665  -0.6499
6.352e+09  -0.2878  -0.8196  -0.008459  -0.01524  -0.04162  0.0529  -0.8642  -0.3697
6.354e+09  -0.5179  -0.6135  0.01267  -0.03785  0.05179  -0.005124  -0.9498  -0.07722
6.355e+09  -0.7223  -0.4575  0.01004  -0.01248  0.005119  -0.02563  -0.9212  0.2785
6.356e+09  -0.8301  -0.1412  -0.02892  0.004837  -0.00125  0.008544  -0.7619  0.5626
6.358e+09  -0.857  0.186  -0.03224  0.004173  0.02237  -0.02463  -0.5401  0.7669
6.359e+09  -0.7409  0.4152  0.003236  0.01093  0.007912  0.002066  -0.2236  0.9161
6.36e+09  -0.5219  0.6331  -0.0007058  -0.001639  -0.008959  0.003212  0.08193  0.9493
6.361e+09  -0.296  0.8111  -0.01006  0.002836  -0.008605  0.01315  0.416  0.8669
6.362e+09  -0.004751  0.8646  0.03013  -0.008876  0.0007698  -0.03364  0.6702  0.6634
6.364e+09  0.3174  0.8037  0.02263  -0.01191  0.03436  0.03663  0.897  0.3692
6.365e+09  0.5544  0.6484  -0.01224  0.04643  0.002629  -0.002844  0.9565  0.07664
6.366e+09  0.7458  0.3486  -0.02885  0.01789  -0.05234  -0.06977  0.9086  -0.2394
6.368e+09  0.8511  0.1014  -0.01054  0.01801  -0.01982  0.02668  0.7688  -0.5299
6.369e+09  0.779  -0.2009  0.007725  0.0002573  -0.01609  0.00201  0.5519  -0.783
6.37e+09  0.7817  -0.521  0.006981  0.023  0.03823  -0.02642  0.2666  -0.902
6.371e+09  0.4874  -0.6432  -0.005974  -0.05107  -0.03557  -0.01383  -0.06145  -0.9479
6.372e+09  0.2211  -0.8384  -0.005391  -0.0265  0.03853  -0.007144  -0.4516  -0.865
6.374e+09  -0.05771  -0.8134  -0.021  0.001166  -0.008721  -0.05027  -0.6435  -0.6544
6.375e+09  -0.3725  -0.7868  0.01107  0.004666  0.003402  0.05286  -0.8588  -0.3691
6.376e+09  -0.5855  -0.5919  -7.947e-07  0.01313  0.03382  0.001741  -0.9338  -0.0896
6.378e+09  -0.8131  -0.3412  -0.02285  0.03376  -0.002811  0.04505  -0.9342  0.2442
6.379e+09  -0.8614  -0.1034  0.01011  -0.02689  -0.005531  -0.001091  -0.7955  0.4962
6.38e+09  -0.8317  0.261  0.0004533  -0.003513  0.02989  0.01846  -0.5608  0.7612
6.381e+09  -0.6501  0.5378  0.05368  0.0368  0.02889  -0.007506  -0.2676  0.9075
6.382e+09  -0.4618  0.7154  0.04591  0.009496  -0.03037  0.04109  0.07194  0.9593
6.384e+09  -0.1923  0.8263  -0.008514  0.008408  -0.04744  0.04147  0.355  0.8706
6.385e+09  0.1053  0.8621  0.003811  -0.03439  -0.0004425  0.02219  0.6288  0.6942
6.386e+09  0.4108  0.7965  -0.0006201  0.003574  -0.03498  -0.006662  0.8055  0.4139
6.388e+09  0.6225  0.5761  0.006261  -0.01938  -0.009965  -0.03773  0.9545  0.1242
6.389e+09  0.7924  0.3104  -0.006736  0.03476  -0.02293  0.04635  0.9109  -0.1928
6.39e+09  0.8613  0.0113  -0.03524  0.009394  -0.02153  -0.004659  0.7461  -0.5533
6.391e+09  0.8446  -0.2781  0.00936  -0.02931  -0.01514  0.005186  0.5587  -0.7233
6.392e+09  0.693  -0.5359  0.0112  0.02  -0.01695  -0.06511  0.2778  -0.8614
6.394e+09  0.4702  -0.7408  0.01065  0.008296  -0.02336  0.02264  -0.02311  -0.8802
6.395e+09  0.1636  -0.8606  -0.02761  -0.01484  0.01798  -0.02474  -0.3264  -0.8507
6.396e+09  -0.1096  -0.8555  0.00822  0.02447  -0.02626  -0.00953  -0.5865  -0.658
6.398e+09  -0.4212  -0.7409  -0.01845  -0.003259  -0.003562  0.01218  -0.8367  -0.4975
6.399e+09  -0.6561  -0.5742  -0.01844  0.001316  0.0005464  -0.02689  -0.9333  -0.1811
6.4e+09  -0.824  -0.2692  0.003722  0.03137  0.01697  -0.04369  -0.9071  0.1967
6.401e+09  -0.8779  -0.05536  -0.001801  0.02811  -0.03927  0.01123  -0.7806  0.4356
6.402e+09  -0.8543  0.3017  -0.04426  -0.01551  -0.006031  0.06084  -0.5717  0.7134
6.404e+09  -0.6386  0.5881  0.04767  0.0003895  -0.04219  0.01805  -0.2965  0.8194
6.405e+09  -0.4226  0.7191  -0.01447  -0.01558  -0.00951  0.04893  0.006686  0.8945
6.406e+09  -0.1344  0.8183  0.03106  0.02258  -0.04081  -0.0229  0.3054  0.8874
6.408e+09  0.2045  0.8306  0.005616  0.03699  0.0003504  0.02391  0.5681  0.6891
6.409e+09  0.4497  0.7286  0.005449  -0.01714  0.03091  0.031  0.7414  0.4582
6.41e+09  0.6496  0.5417  0.03566  -0.0212  0.01338  -0.01557  0.8895  0.1548
6.411e+09  0.8371  0.2563  0.03824  0.0378  0.01018  -0.01221  0.8595  -0.1349
6.412e+09  0.8759  -0.01386  0.0239  0.004346  0.02586  0.05989  0.7866  -0.4181
6.414e+09  0.7886  -0.2823  -0.01612  0.003673  0.001508  0.01801  0.6309  -0.6605
6.415e+09  0.6842  -0.5746  -0.004491  0.03126  0.01008  0.05363  0.3358  -0.8381
6.416e+09  0.3966  -0.6774  -0.0274  0.009886  -0.0255  -0.02436  0.06681  -0.8712
6.418e+09  0.1398  -0.863  0.005886  0.01763  -0.0124  0.007239  -0.2732  -0.8517
6.419e+09  -0.1396  -0.8462  0.04557  -0.03419  0.03155  0.02279  -0.4883  -0.7161
6.42e+09  -0.4557  -0.7057  -0.02189  -1e-05  0.02975  -0.009332  -0.7396  -0.4967
6.421e+09  -0.7084  -0.5489  -0.005713  -0.007707  0.02547  0.01983  -0.8558  -0.1734
6.422e+09  -0.8076  -0.2546  -0.00152  0.01773  0.04864  -0.02503  -0.8451  0.1021
6.424e+09  -0.8737  0.01156  -0.02487  -0.009863  -0.0302  -0.03452  -0.8151  0.3709
6.425e+09  -0.83  0.2782  0.02734  0.01383  -0.004445  0.01892  -0.5625  0.6339
6.426e+09  -0.5731  0.6117  -0.04932  -0.0149  0.02609  0.02155  -0.3383  0.8327
6.428e+09  -0.4078  0.8047  0.05647  0.0151  0.03298  -0.006328  -0.01038  0.8904
6.429e+09  -0.1036  0.8546  -0.0006492  0.005067  0.04686  0.01758  0.2685  0.8565
6.43e+09  0.1849  0.8755  0.004441  0.01913  0.01056  -0.008375  0.5092  0.7289
6.431e+09  0.4549  0.721  0.03585  -0.007933  0.02865  0.03069  0.7104  0.4695
6.432e+09  0.6149  0.5592  -0.001181  -0.009025  0.007563  -0.02675  0.8628  0.2289
6.434e+09  0.8195  0.2365  0.001819  -0.05567  0.025  0.01509  0.869  -0.07493
6.435e+09  0.8852  -0.0384  -0.009128  0.02378  0.02585  0.02788  0.7821  -0.3625
6.436e+09  0.8135  -0.3357  -0.01768  -0.02838  0.02127  -0.03024  0.6041  -0.6337
6.438e+09  0.6226  -0.5681  -0.00894  0.04116  0.009783  0.01015  0.3616  -0.8005
6.439e+09  0.4082  -0.772  -0.02307  -0.01187  0.03092  0.04569  0.0742  -0.8548
6.44e+09  0.0825  -0.8213  0.005038  0.05242  0.06224  -0.02167  -0.2101  -0.8398
6.441e+09  -0.2039  -0.903  -0.05434  0.01344  0.01649  0.005479  -0.5163  -0.6608
6.442e+09  -0.4996  -0.7553  0.01661  -0.04237  -0.04915  0.005615  -0.7104  -0.4729
6.444e+09  -0.7103  -0.457  -0.01823  0.02035  -0.03903  0.04602  -0.8401  -0.1852
6.445e+09  -0.833  -0.2339  0.03582  0.03378  -0.02197  -0.004327  -0.8415  0.09368
6.446e+09  -0.8717  0.01091  0.04023  -0.00759  -0.002933  -0.02842  -0.7582  0.3379
6.448e+09  -0.7762  0.3213  0.02113  -0.01859  -0.007917  0.01083  -0.5697  0.5901
6.449e+09  -0.6128  0.5445  0.00832  -0.003077  0.02838  0.004961  -0.3857  0.7457
6.45e+09  -0.3919  0.7568  0.01678  0.00102  -0.005961  -0.04468  -0.07661  0.8109
6.451e+09  -0.08239  0.8299  0.03172  -0.03486  -0.02256  -0.03688  0.1544  0.8031
6.452e+09  0.2096  0.8409  -0.03419  -0.01735  -0.0154  -0.000888  0.4938  0.6717
6.454e+09  0.4968  0.7197  0.0199  -0.01699  -0.00135  -0.01248  0.7162  0.4709
6.455e+09  0.7181  0.4695  -0.005436  -0.00676  0.009623  0.0241  0.7689  0.235
6.456e+09  0.8058  0.2203  -0.007877  -0.0007873  0.01066  0.01545  0.8151  -0.1095
6.458e+09  0.8896  -0.04015  0.02649  -0.02329  0.04211  0.02312  0.7653  -0.3566
6.459e+09  0.8024  -0.3617  -0.06042  0.03648  -0.01448  -0.02317  0.5824  -0.5426
6.46e+09  0.6031  -0.618  -0.001123  0.01416  -0.01403  -0.06748  0.3414  -0.7725
6.461e+09  0.4114  -0.8144  0.005556  -0.01222  0.05421  0.01491  0.04898  -0.8381
6.462e+09  0.07487  -0.8525  0.02598  0.06369  0.02518  0.03474  -0.199  -0.7794
6.464e+09  -0.2  -0.8268  0.02051  0.02231  -0.007401  0.003207  -0.4547  -0.6921
6.465e+09  -0.4859  -0.7158  0.0377  0.0001922  0.0136  -0.002275  -0.6646  -0.4773
6.466e+09  -0.7439  -0.5038  0.01975  0.01426  -0.008775  0.02153  -0.7907  -0.2286
6.468e+09  -0.8397  -0.1721  -0.0423  -0.004095  -0.02218  -0.03343  -0.7399  0.05219
6.469e+09  -0.8729  0.06387  -0.0004106  -0.005907  -0.02457  -0.02762  -0.7176  0.3489
6.47e+09  -0.8016  0.3965  -0.02137  -0.02445  -0.005043  -0.0405  -0.551  0.5794
6.471e+09  -0.6517  0.6609  0.0299  0.03527  0.05753  0.007409  -0.339  0.7024
6.472e+09  -0.381  0.8327  0.01263  0.02251  0.02804  -0.03542  -0.05802  0.811
6.474e+09  -0.09289  0.8451  -0.01828  -0.0159  -0.01885  0.01085  0.1995  0.7589
6.475e+09  0.2801  0.8608  -0.02145  -0.02036  0.02387  0.01299  0.4369  0.6471
6.476e+09  0.5373  0.7  -0.003657  0.02319  0.01538  0.01924  0.6173  0.4427
6.478e+09  0.7508  0.5237  -0.01169  0.03414  0.02251  0.02964  0.7864  0.2368
6.479e+09  0.8808  0.2107  0.04774  -0.01805  -0.002472  -0.006843  0.8154  -0.09289
6.48e+09  0.8871  -0.1226  -0.03329  0.03998  0.009427  0.009744  0.6902  -0.3326
6.481e+09  0.7792  -0.3654  0.0004783  0.02587  -0.01095  -0.002242  0.5032  -0.563
6.482e+09  0.6177  -0.7059  -0.03582  -0.02584  0.0004326  0.0106  0.3085  -0.7555
6.484e+09  0.3559  -0.8142  -0.02276  0.01793  -0.03285  -0.004362  0.07107  -0.7432
6.485e+09  0.04973  -0.8738  -0.02974  0.02151  -0.01329  -0.04034  -0.2213  -0.7462
6.486e+09  -0.2723  -0.8382  -0.03479  0.02625  -0.07495  0.01002  -0.4538  -0.6364
6.488e+09  0.04492  -0.2075  -0.04738  0.03202  0.5534  -0.4141  -0.6453  -0.4353
6.489e+09  -0.7015  -0.4864  -0.006107  -0.02394  0.0432  0.02267  -0.741  -0.1525
6.49e+09  -0.9005  -0.1306  0.006357  -0.03374  0.0007811  -0.009895  -0.775  0.075
6.491e+09  -0.88  0.1381  0.006911  0.0098  0.007209  -0.001128  -0.7059  0.3839
6.492e+09  -0.7465  0.393  -0.003692  0.001845  0.005412  -0.01143  -0.5635  0.5756
6.494e+09  -0.6447  0.7517  0.03137  -0.01809  0.009214  -0.09941  -0.2866  0.6903
6.495e+09  -0.3232  0.8197  0.007075  -0.02283  0.02547  -0.04977  -0.05432  0.777
6.496e+09  -0.0159  0.8982  -0.01349  0.0225  -0.02665  -0.02784  0.238  0.6917
6.498e+09  0.291  0.8212  0.01053  0.02301  -0.03978  0.006326  0.4469  0.5954
6.499e+09  0.5703  0.6881  -0.0115  -0.03361  -0.0317  0.01536  0.6657  0.3832
6.5e+09  0.7893  0.4565  -0.01573  -0.009552  0.003289  -0.007801  0.7445  0.183
6.501e+09  0.9293  0.164  -0.03154  0.0318  0.03638  -0.06652  0.7653  -0.08732
6.502e+09  0.903  -0.1457  0.002833  0.006485  -0.03306  -0.00621  0.6682  -0.3541
6.504e+09  0.7992  -0.467  -0.007455  0.02405  0.04509  0.01138  0.5222  -0.5273
6.505e+09  0.5296  -0.7092  0.01515  -0.009131  -0.03304  -0.01999  0.2508  -0.7315
6.506e+09  0.3018  -0.8578  -0.0006533  -0.006394  -0.0239  -0.001476  0.01258  -0.7772
6.508e+09  -0.01428  -0.9353  0.006287  0.0107  -0.01616  0.00344  -0.23  -0.6945
6.509e+09  -0.3231  -0.8321  0.02832  -0.01017  0.01626  0.05319  -0.5061  -0.5974
6.51e+09  -0.6154  -0.6637  -0.001578  0.02688  -0.007288  0.03354  -0.6682  -0.4042
6.511e+09  -0.8317  -0.4471  0.005231  0.0001613  -0.002509  0.02878  -0.7638  -0.138
6.512e+09  -0.9084  -0.1002  -0.006787  0.01945  -0.02257  0.02176  -0.7507  0.1423
6.514e+09  -0.9226  0.1833  -0.02028  0.01157  -0.01405  -0.003962  -0.6185  0.3358
6.515e+09  -0.7737  0.5474  -0.005793  0.00272  0.02349  0.05059  -0.4433  0.5776
6.516e+09  -0.5918  0.7503  0.003318  0.00089  0.03474  0.05612  -0.2471  0.7134
6.518e+09  -0.2563  0.9039  0.01382  0.02003  -0.04389  0.01258  -0.005571  0.7462
6.519e+09  -0.02026  0.9393  -0.009144  -0.03541  -0.01073  -0.002911  0.288  0.6914
6.52e+09  0.3802  0.8546  -0.02071  0.01236  0.04214  -0.02109  0.4957  0.5531
6.521e+09  0.6577  0.6593  -0.03968  0.0001098  -0.005103  0.04345  0.6728  0.348
6.522e+09  0.8807  0.3605  0.004198  -0.0009717  -0.001395  -0.01095  0.727  0.1029
6.524e+09  0.8881  0.03878  0.01533  -0.02185  -0.01862  -0.001012  0.7018  -0.1722
6.525e+09  0.8941  -0.2301  0.002148  -0.02724  0.01324  -0.03474  0.6084  -0.3457
6.526e+09  0.7736  -0.5234  0.01286  0.005801  0.0007018  0.01341  0.4293  -0.5969
6.528e+09  0.5054  -0.8013  0.004313  -0.007787  0.02056  -0.01103  0.225  -0.6886
6.529e+09  0.256  -0.9227  -0.01443  0.005767  0.001076  -0.01524  -0.05801  -0.6958
6.53e+09  -0.1247  -0.9069  -0.001156  0.002613  0.03924  -0.0324  -0.2663  -0.6175
6.531e+09  -0.4499  -0.84  0.02418  0.02603  0.06289  0.03512  -0.4782  -0.4638
6.532e+09  -0.6845  -0.6422  -0.002447  -0.03467  0.02003  0.01718  -0.5957  -0.2883
6.534e+09  -0.9024  -0.3514  -0.0005486  -0.01056  -0.01556  0.01272  -0.6183  -0.08891
6.535e+09  -0.9432  0.05673  -0.018  -0.002046  0.04504  0.02626  -0.6051  0.125
6.536e+09  -0.8811  0.2879  -0.01473  -0.003261  0.01267  0.02797  -0.5674  0.2885
6.538e+09  -0.7136  0.5772  -0.003506  0.00466  0.011  0.003023  -0.4258  0.4863
6.539e+09  -0.496  0.8035  -0.005756  0.002028  -0.01788  -0.03031  -0.2612  0.6091
6.54e+09  -0.07525  0.9594  -0.036  -0.006243  0.05744  -0.03757  -0.07264  0.7041
6.541e+09  0.1426  0.9057  -0.003967  -0.02984  0.006816  -0.02404  0.1742  0.6921
6.542e+09  0.4891  0.7871  -0.008473  0.007616  -0.01315  -0.007098  0.4238  0.5461
6.544e+09  0.6843  0.5197  0.01277  0.03855  -0.001188  0.01048  0.5964  0.3961
6.545e+09  0.9033  0.247  0.005829  0.01393  -0.002531  -0.003034  0.7085  0.1585
6.546e+09  0.9517  -0.08432  -0.01273  0.04439  -0.04827  -0.01611  0.7286  -0.0833
6.548e+09  0.8481  -0.3565  -0.009388  -0.01711  -0.02551  -0.05909  0.6507  -0.307
6.549e+09  0.6163  -0.6656  -0.001972  -0.01704  0.03572  -0.02497  0.517  -0.5279
6.55e+09  0.417  -0.8153  -0.001202  0.01825  -0.02962  0.01133  0.2653  -0.669
