# Hz S RI R 50
6.25e+09  -0.7111  0.3173  -0.01523  0.005726  -0.04216  0.07102  0.1413  0.499
6.251e+09  -0.5995  0.5529  -0.02076  0.005575  -0.04564  -0.02197  0.3509  0.3971
6.252e+09  -0.3287  0.7338  0.05545  0.004091  0.02408  -0.03202  0.5344  0.2113
6.254e+09  -0.08  0.7593  -0.02377  -0.009907  0.04401  -0.01403  0.6166  0.01146
6.255e+09  0.2224  0.7939  -0.003437  0.01019  -0.02092  0.0712  0.5696  -0.2096
6.256e+09  0.4021  0.7398  -0.02644  0.02021  0.0208  -0.03269  0.4735  -0.4854
6.258e+09  0.6587  0.4623  0.005256  -0.002054  0.01781  -0.03162  0.2703  -0.6007
6.259e+09  0.7789  0.218  -0.01554  -0.01478  -0.02912  0.03883  0.0325  -0.6906
6.26e+09  0.7765  -0.135  0.00424  0.0005255  -0.000549  0.001732  -0.2438  -0.681
6.261e+09  0.6837  -0.3301  0.02258  -0.004471  0.008851  0.005474  -0.4373  -0.5366
6.262e+09  0.5384  -0.5886  0.04993  -0.004809  -0.02687  0.02665  -0.617  -0.3548
6.264e+09  0.3187  -0.7286  0.003579  0.0443  0.04398  -0.04503  -0.7243  -0.0956
6.265e+09  0.07897  -0.7914  -0.01232  -0.0133  -0.009239  0.03882  -0.7085  0.1316
6.266e+09  -0.2715  -0.7654  0.0295  -0.006626  -0.01046  -0.02291  -0.6309  0.3872
6.268e+09  -0.4808  -0.7017  -0.00553  -0.001101  -0.03185  0.00118  -0.4312  0.593
6.269e+09  -0.6468  -0.4509  0.007214  -0.02067  -0.03741  -0.01831  -0.1914  0.7055
6.27e+09  -0.7905  -0.2005  -0.0188  0.01474  -0.01897  0.005463  0.06228  0.7098
6.271e+09  -0.7808  0.09043  -0.009337  -0.03025  0.01785  0.003459  0.3269  0.664
6.272e+09  -0.6973  0.3338  0.01776  0.02388  0.02701  0.02209  0.5304  0.4899
6.274e+09  -0.5947  0.5546  -0.001738  -0.006693  0.01736  -0.03189  0.6666  0.3143
6.275e+09  -0.3374  0.6972  -0.01397  -0.02004  0.003932  -0.002879  0.7568  0.06087
6.276e+09  -0.09123  0.8168  0.002935  -0.01421  -0.01868  -0.03099  0.753  -0.2243
6.278e+09  0.269  0.737  0.03724  0.007033  0.03519  -0.03036  0.6156  -0.4542
6.279e+09  0.4744  0.678  -0.01975  0.01567  0.01444  0.01553  0.4494  -0.6461
6.28e+09  0.6674  0.4965  -0.002304  -0.003606  -0.005303  0.02133  0.1718  -0.7678
6.281e+09  0.7593  0.2019  -0.009565  0.01555  -0.02006  -0.03604  -0.09077  -0.7678
6.282e+09  0.7846  -0.08444  -0.01299  0.02504  0.01225  -0.05075  -0.3735  -0.7239
6.284e+09  0.7036  -0.37  0.01307  0.000159  -0.01209  -0.01022  -0.5903  -0.5347
6.285e+09  0.5625  -0.6079  0.0008279  -0.0007376  -0.05532  0.01933  -0.7641  -0.2616
6.286e+09  0.3788  -0.7092  0.008098  0.03961  -0.018  -0.03491  -0.807  -0.01297
6.288e+09  0.04095  -0.7862  0.000437  -0.01703  -0.009133  -0.04413  -0.7357  0.2511
6.289e+09  -0.2592  -0.79  -0.03204  0.004801  -0.0009158  0.01279  -0.6425  0.5165
6.29e+09  -0.5026  -0.6498  0.0008779  -0.006915  0.02029  -0.04839  -0.4176  0.6635
6.291e+09  -0.6506  -0.3867  0.0117  0.03043  0.009583  -0.0161  -0.1242  0.7608
6.292e+09  -0.7541  -0.1581  -0.03185  0.001287  0.02876  -0.008825  0.1557  0.7973
6.294e+09  -0.7518  0.1054  0.02047  -0.004185  -0.03055  0.006744  0.4063  0.7098
6.295e+09  -0.6699  0.397  0.002939  -0.03411  0.05342  0.002394  0.6241  0.5422
6.296e+09  -0.5145  0.6407  0.005238  -0.004661  -0.02271  -0.0006749  0.7831  0.2854
6.298e+09  -0.3315  0.7287  0.007958  -0.01653  0.007409  0.02781  0.8264  0.02218
6.299e+09  -0.01999  0.7862  0.009943  -0.01214  -0.05318  0.007301  0.78  -0.3037
6.3e+09  0.2568  0.7316  -0.006695  0.03921  -0.04436  0.03782  0.6509  -0.5061
6.301e+09  0.5669  0.5725  -0.001141  -0.01746  -0.003006  -0.02258  0.4224  -0.7173
6.302e+09  0.712  0.423  0.02366  0.008349  -0.01439  -0.01866  0.1569  -0.8392
6.304e+09  0.7934  0.1637  0.01133  0.02096  -0.0006375  0.04179  -0.1644  -0.8243
6.305e+09  0.8307  -0.1302  -0.01335  0.01205  0.01835  -0.02386  -0.4004  -0.7369
6.306e+09  0.7328  -0.4143  0.009118  0.02806  -0.02078  -0.005686  -0.6475  -0.5698
6.308e+09  0.5356  -0.5638  -0.02661  -0.01028  0.06612  -0.002013  -0.7942  -0.2695
6.309e+09  0.2981  -0.7414  -0.02043  -0.04752  -0.001718  -0.002955  -0.8714  0.003237
6.31e+09  0.008638  -0.7946  -0.001307  0.02593  -0.03407  -0.01245  -0.8289  0.2824
6.311e+09  -0.3676  -0.7754  -0.004277  -0.01876  -0.02249  0.028  -0.6665  0.5593
6.312e+09  -0.4958  -0.614  0.01929  -0.06351  -0.04765  -0.003397  -0.415  0.726
6.314e+09  -0.6836  -0.3724  -0.01769  -0.01605  -0.006047  -0.004138  -0.1878  0.8689
6.315e+09  -0.8065  -0.1059  0.02083  -0.0015  -0.005329  0.007462  0.1327  0.852
6.316e+09  -0.8136  0.1596  -0.009828  0.03655  -0.03829  0.06913  0.4052  0.747
6.318e+09  -0.6894  0.4157  -0.001975  -0.004209  -0.008706  0.0004029  0.6728  0.5844
6.319e+09  -0.4552  0.6834  0.03022  -0.004726  0.05491  -0.02327  0.8442  0.2988
6.32e+09  -0.2503  0.7717  -0.005966  -0.02328  -0.005213  -0.009953  0.889  0.005711
6.321e+09  0.08642  0.8034  -0.02589  -0.01712  -0.01302  0.02342  0.7895  -0.2912
6.322e+09  0.3304  0.7699  -0.009343  -0.005417  0.01462  -0.004422  0.7035  -0.5544
6.324e+09  0.5694  0.6067  0.0004231  0.02724  0.0117  -0.06824  0.4686  -0.7366
6.325e+09  0.7581  0.3098  -0.003128  0.01012  0.01394  -0.01699  0.1721  -0.8459
6.326e+09  0.7939  0.07465  0.005272  0.02538  0.003002  -0.003095  -0.1272  -0.8494
6.328e+09  0.785  -0.1673  0.02077  -0.01576  -0.02522  0.006651  -0.4447  -0.7745
6.329e+09  0.6484  -0.4582  0.02223  -0.01794  -0.009884  0.02867  -0.6844  -0.5682
6.33e+09  0.4304  -0.6864  -0.0175  0.01714  -0.01266  -0.007588  -0.8845  -0.3264
6.331e+09  0.2234  -0.7838  -0.001547  0.004704  0.02021  0.02258  -0.8797  -0.0268
6.332e+09  -0.09711  -0.8375  0.002088  -0.000107  -0.01751  0.02097  -0.8642  0.3101
6.334e+09  -0.3795  -0.7206  -0.003877  0.00298  0.02773  -0.002564  -0.7113  0.5259
6.335e+09  -0.5889  -0.6211  0.008372  -0.001603  -0.01697  0.03766  -0.4677  0.7449
6.336e+09  -0.7482  -0.3309  0.02187  0.01369  0.01453  -0.0494  -0.1928  0.8881
6.338e+09  -0.8133  -0.02566  -0.004955  0.001058  0.001446  -0.0516  0.1156  0.8772
6.339e+09  -0.7676  0.2903  0.007817  0.03632  0.05058  0.002608  0.4394  0.783
6.34e+09  -0.6115  0.5414  -0.007863  -0.03943  0.01377  -0.05847  0.6726  0.6332
6.341e+09  -0.4307  0.7213  -0.01006  0.005186  0.01608  0.02382  0.8402  0.3722
6.342e+09  -0.1598  0.8272  -0.01715  -0.01429  0.01689  -0.005192  0.9371  0.04692
6.344e+09  0.1107  0.7795  -0.008684  -0.01743  -0.01355  0.0498  0.8696  -0.257
6.345e+09  0.4743  0.7265  -0.009676  0.004953  0.02497  -0.01368  0.7063  -0.5635
6.346e+09  0.6539  0.4896  -0.02427  -0.009596  0.02057  0.04021  0.4846  -0.7836
6.348e+09  0.7677  0.2589  -0.004154  0.001657  0.02544  -0.02526  0.2209  -0.9226
6.349e+09  0.8683  -0.02388  0.002929  -0.0159  -0.06495  -0.03473  -0.1173  -0.9117
6.35e+09  0.7544  -0.3178  0.01225  0.01812  -0.01569  -0.03666  -0.3777  -0.8479
6.351e+09  0.5874  -0.5928  -0.03518  0.00506  0.01447  -0.04367  -0.658  -0.6133
6.352e+09  0.3546  -0.7279  0.03032  0.001217  0.05041  0.03303  -0.8786  -0.3786
6.354e+09  0.03707  -0.8969  -0.008474  -0.01909  -0.01153  -0.009049  -0.8622  -0.07825
6.355e+09  -0.2325  -0.8258  0.007817  -0.004702  -0.05688  0.008276  -0.9197  0.2764
6.356e+09  -0.5115  -0.7188  -0.003447  -0.0007402  0.05753  0.004294  -0.7644  0.5597
6.358e+09  -0.6772  -0.4527  -0.006113  0.0277  -0.03385  -0.0009198  -0.5041  0.776
6.359e+09  -0.7932  -0.1947  -0.03914  -0.02358  -0.01071  -0.004009  -0.2738  0.9124
6.36e+09  -0.8595  0.1098  0.0187  -0.004015  -0.02271  -0.02923  0.1116  0.9534
6.361e+09  -0.7354  0.3987  -0.007762  0.01743  0.002428  -0.02082  0.4204  0.8333
6.362e+09  -0.5807  0.6579  -0.01806  -0.01078  0.008479  0.02606  0.6583  0.6998
6.364e+09  -0.3256  0.7604  0.02663  -0.06125  -0.003254  0.04875  0.8483  0.3799
6.365e+09  -0.009203  0.8663  -0.01303  0.02342  -0.05435  0.01055  0.9016  0.08192
6.366e+09  0.3147  0.7757  -0.03432  -0.005551  0.003274  0.006124  0.8857  -0.2413
6.368e+09  0.5657  0.6972  -0.01639  -0.03588  -0.03322  0.04239  0.7397  -0.5523
6.369e+09  0.7623  0.4637  -0.01179  -0.01872  0.03325  0.004574  0.5366  -0.7779
6.37e+09  0.82  0.1255  -0.004407  0.01885  -0.03214  -0.03412  0.2221  -0.9181
6.371e+09  0.8286  -0.1585  -0.01025  0.01891  0.002832  -0.008844  -0.1181  -0.9391
6.372e+09  0.7327  -0.4427  -0.01559  0.004752  -0.003432  -0.03384  -0.4062  -0.8597
6.374e+09  0.5191  -0.6541  -0.0104  -0.03503  -0.004332  0.005343  -0.6603  -0.6699
6.375e+09  0.2496  -0.7925  0.02676  -0.005509  0.01045  0.0173  -0.8216  -0.4538
6.376e+09  -0.07254  -0.8641  0.01706  -0.03272  0.00346  -0.0209  -0.9186  -0.07967
6.378e+09  -0.3741  -0.8075  -0.02141  6.66e-05  0.03345  0.01823  -0.913  0.2404
6.379e+09  -0.5803  -0.6557  -0.0328  -0.02316  -0.06043  -0.04044  -0.784  0.5493
6.38e+09  -0.7519  -0.3824  0.004923  -0.03468  0.01879  -0.007019  -0.5338  0.7494
6.381e+09  -0.8663  -0.09378  -0.004452  -0.00378  0.008961  0.001166  -0.3084  0.9213
6.382e+09  -0.7976  0.2422  0.01113  0.009149  0.0267  -0.001231  0.07193  0.9431
6.384e+09  -0.6705  0.4651  -0.0189  -0.01849  -0.01472  0.04981  0.4023  0.8697
6.385e+09  -0.4761  0.732  -0.02165  -0.03265  -0.0002036  -0.01067  0.6473  0.7001
6.386e+09  -0.1345  0.8355  -1.237e-06  -0.01656  0.03932  0.02582  0.8761  0.4167
6.388e+09  0.1152  0.8435  0.03439  0.0217  -0.03873  0.002419  0.9414  0.09881
6.389e+09  0.4112  0.7865  0.006951  -0.01053  -0.02516  -0.0245  0.9222  -0.1982
6.39e+09  0.6414  0.6211  0.01161  0.01153  -0.01452  -0.01492  0.7763  -0.4921
6.391e+09  0.7761  0.3324  -0.008636  -0.007252  -0.01045  0.03002  0.5608  -0.7247
6.392e+09  0.8753  0.01339  0.01356  -0.01336  -0.007731  0.01337  0.2879  -0.8664
6.394e+09  0.7981  -0.2771  0.001281  0.009128  0.02472  0.02267  -0.01303  -0.9357
6.395e+09  0.6188  -0.5362  -0.00545  0.01635  -0.0007152  -0.007276  -0.3432  -0.8882
6.396e+09  0.3997  -0.6776  0.01656  -0.003458  -0.02308  -0.02176  -0.5856  -0.6719
6.398e+09  0.1239  -0.8305  -0.002576  -0.02954  0.0048  -0.02256  -0.7947  -0.4777
6.399e+09  -0.1552  -0.8241  -0.02433  0.02039  0.03393  0.01349  -0.8578  -0.1816
6.4e+09  -0.4694  -0.6829  -0.01549  0.03139  -0.01224  -0.001621  -0.872  0.1473
6.401e+09  -0.6832  -0.5444  0.03049  -0.004758  0.02593  0.04144  -0.8343  0.5114
6.402e+09  -0.7906  -0.2608  0.01957  -0.01411  0.01606  -0.002135  -0.5616  0.6862
6.404e+09  -0.8309  -0.02632  -0.05467  0.00846  -0.01661  -0.01591  -0.3402  0.8507
6.405e+09  -0.7833  0.2782  0.05486  0.004399  -0.007056  -0.0305  -0.02072  0.9335
6.406e+09  -0.6355  0.6215  0.01375  0.04258  -0.01498  0.02423  0.2827  0.875
6.408e+09  -0.3987  0.77  0.0535  -0.00511  0.01428  -0.01967  0.6012  0.7046
6.409e+09  -0.1197  0.8157  0.03812  -0.02751  0.003893  -0.009453  0.7886  0.449
6.41e+09  0.1888  0.861  0.003776  -0.004243  0.05283  -0.01895  0.8731  0.1816
6.411e+09  0.4623  0.7393  -0.01769  -0.02653  0.005352  0.03323  0.9228  -0.1515
6.412e+09  0.6492  0.492  -0.006343  -0.01628  -0.008241  -0.009652  0.7747  -0.3972
6.414e+09  0.8077  0.2008  -0.001476  0.004135  -0.004442  0.01542  0.5947  -0.6591
6.415e+09  0.834  -0.0197  -0.03951  0.01369  -0.00933  -0.02247  0.3491  -0.8647
6.416e+09  0.7559  -0.3087  -0.008126  0.06314  -0.02375  0.01037  0.03865  -0.8981
6.418e+09  0.5693  -0.5705  0.04422  0.002594  -0.006888  0.03953  -0.289  -0.8037
6.419e+09  0.3626  -0.7933  -0.03634  -0.02152  0.03585  -0.025  -0.5597  -0.6774
6.42e+09  0.08401  -0.8298  -0.008903  0.02174  0.005076  0.005481  -0.7543  -0.4829
6.421e+09  -0.2205  -0.8375  0.02557  0.01336  0.0004843  -0.04253  -0.8948  -0.1854
6.422e+09  -0.5272  -0.7182  -0.02725  -0.01357  0.04484  -0.008529  -0.8367  0.1309
6.424e+09  -0.674  -0.4696  -0.001872  -0.004181  -0.006439  -0.004954  -0.7689  0.382
6.425e+09  -0.8259  -0.2256  -0.007438  0.01348  -0.02661  -0.01481  -0.5875  0.6183
6.426e+09  -0.827  0.1052  0.03269  0.007825  0.01495  0.00123  -0.3157  0.8307
6.428e+09  -0.7208  0.3711  0.01975  0.02753  -0.0007694  0.04681  -0.04621  0.8537
6.429e+09  -0.5775  0.6144  -0.01737  -0.001011  0.03861  -0.004431  0.2322  0.9139
6.43e+09  -0.3207  0.7819  0.01895  0.009176  -0.06802  -0.01383  0.4591  0.7418
6.431e+09  -0.02456  0.8059  0.03416  0.002479  0.02141  0.01665  0.7243  0.5422
6.432e+09  0.2226  0.7801  0.005818  -0.03304  0.02399  0.02862  0.8157  0.2073
6.434e+09  0.5163  0.6685  -0.04229  0.001299  0.003502  0.02009  0.8578  -0.1102
6.435e+09  0.6985  0.4106  0.002512  -0.01702  -0.02295  0.01948  0.8298  -0.4196
6.436e+09  0.8896  0.1242  -0.01635  0.01574  -0.00222  0.01823  0.6019  -0.629
6.438e+09  0.8007  -0.1348  0.00594  -0.01783  -0.02306  -0.02823  0.4056  -0.8211
6.439e+09  0.7695  -0.4523  -0.009166  -0.02971  -0.01453  0.02162  0.04479  -0.8765
6.44e+09  0.5329  -0.6693  -0.00796  0.008025  0.01723  0.0618  -0.2377  -0.8111
6.441e+09  0.3415  -0.7933  0.03409  -0.006461  0.0086  0.01438  -0.4265  -0.67
6.442e+09  0.02738  -0.828  -0.03229  -0.01136  0.03784  -0.03678  -0.684  -0.4646
6.444e+09  -0.2992  -0.8043  -0.01231  0.01268  0.01144  0.02257  -0.8384  -0.1908
6.445e+09  -0.5547  -0.5992  -0.03218  -0.008739  -0.01591  0.009425  -0.8645  0.09349
6.446e+09  -0.733  -0.3912  0.02757  -0.009077  -0.01547  0.02057  -0.7771  0.3946
6.448e+09  -0.8735  -0.1925  0.02285  -0.02614  0.0108  -0.02561  -0.5577  0.6477
6.449e+09  -0.8153  0.1185  0.03743  0.0007018  -0.01109  0.02038  -0.3545  0.7971
6.45e+09  -0.7734  0.3288  -0.008999  0.02533  -0.03729  -0.01205  -0.0576  0.8269
6.451e+09  -0.4922  0.607  -0.003424  0.00917  0.0139  -0.004723  0.1835  0.767
6.452e+09  -0.2523  0.7732  0.0305  0.021  0.04115  -0.01992  0.4834  0.649
6.454e+09  0.01635  0.8527  -0.02428  0.01897  -0.04259  0.04388  0.6402  0.4304
6.455e+09  0.2526  0.7979  -0.05112  -0.006739  0.005803  -0.02081  0.7878  0.1879
6.456e+09  0.5339  0.608  0.02363  -0.009464  -0.009728  -0.0275  0.7964  -0.05452
6.458e+09  0.7404  0.4484  -0.001288  -0.001895  0.01492  -0.01995  0.7374  -0.3669
6.459e+09  0.7691  0.1575  0.01609  -0.01718  -0.03799  -0.02852  0.6307  -0.5368
6.46e+09  0.8523  -0.1308  -0.02347  0.02805  -0.05693  -0.03538  0.3683  -0.7404
6.461e+09  0.7694  -0.4257  -0.03132  -0.03931  -0.002044  0.01064  0.07429  -0.8087
6.462e+09  0.5749  -0.6613  0.04648  -0.049  0.001402  -0.002551  -0.215  -0.7808
6.464e+09  0.2347  -0.7656  -0.05344  0.004464  0.02072  0.0164  -0.4747  -0.6331
6.465e+09  0.03016  -0.8263  -0.02693  -0.02341  0.00266  0.03587  -0.6696  -0.4298
6.466e+09  -0.3398  -0.79  -0.03122  0.04221  0.05063  0.007572  -0.7961  -0.1955
6.468e+09  -0.56  -0.6734  0.01676  -0.01508  0.007566  0.02796  -0.7767  0.1237
6.469e+09  -0.7465  -0.4262  -0.00668  -0.01309  0.02519  0.03233  -0.6862  0.39
6.47e+09  -0.8512  -0.1296  -0.02069  -0.04595  0.03629  0.004572  -0.5336  0.6135
6.471e+09  -0.8418  0.1564  -0.01655  0.0195  0.01457  0.03135  -0.3712  0.7284
6.472e+09  -0.7359  0.4271  0.02298  0.0002994  -0.0004194  -0.03592  -0.1004  0.7942
6.474e+09  -0.5489  0.6237  -0.008364  -0.04136  -0.01064  -0.02198  0.2341  0.77
6.475e+09  -0.2603  0.7626  0.0157  0.002762  0.01243  -0.01425  0.478  0.6425
6.476e+09  0.02735  0.8312  0.02513  0.03847  0.02256  -0.01529  0.6284  0.4545
6.478e+09  0.3511  0.7703  -0.008242  -0.009579  -0.004618  -0.01859  0.7584  0.21
6.479e+09  0.5366  0.5869  0.03511  0.03162  0.00491  -0.0116  0.7966  -0.09085
6.48e+09  0.7225  0.3431  -0.01237  -0.03318  -0.01228  0.002364  0.6811  -0.3499
6.481e+09  0.8837  0.1088  0.01617  -0.04134  -0.0424  0.02671  0.5649  -0.5093
6.482e+09  0.8194  -0.1697  0.03905  0.03678  0.03134  0.06362  0.3084  -0.7011
6.484e+09  0.7254  -0.4412  0.02849  -0.007735  0.04686  -0.02953  0.01959  -0.7892
6.485e+09  0.5624  -0.6843  0.01196  0.01387  -0.04361  -0.02443  -0.1918  -0.7142
6.486e+09  0.23  -0.7668  0.02999  0.0112  -0.004687  0.02434  -0.4471  -0.6192
6.488e+09  -0.2083  -0.1078  -0.03589  0.02333  -0.1743  0.6949  -0.6732  -0.3958
6.489e+09  -0.2997  -0.7578  0.0243  -0.007893  -0.0137  0.005823  -0.7757  -0.213
6.49e+09  -0.5617  -0.6209  0.01563  0.03486  0.03045  -0.04548  -0.7859  0.0868
6.491e+09  -0.7512  -0.3812  0.03036  0.0207  0.02618  -0.009158  -0.6492  0.3523
6.492e+09  -0.8457  -0.08462  -0.01974  0.006108  0.007023  -0.02927  -0.5086  0.5338
6.494e+09  -0.749  0.1377  0.001987  -0.02723  0.1177  -0.01125  -0.2718  0.665
6.495e+09  -0.6991  0.4465  -0.004741  -0.0436  -0.005501  0.04895  -0.03275  0.7687
6.496e+09  -0.5207  0.6715  -0.000149  0.03014  -0.04594  -0.03085  0.2266  0.7518
6.498e+09  -0.1909  0.8317  0.03955  -0.01113  0.01126  0.01934  0.4524  0.5841
6.499e+09  0.05755  0.837  0.003958  0.03372  -0.0002206  0.0001343  0.612  0.3839
6.5e+09  0.2285  0.8125  0.01005  -0.02809  -0.03791  -0.02683  0.7232  0.1676
6.501e+09  0.5868  0.6055  0.04683  0.02044  0.01625  0.01534  0.7509  -0.06027
6.502e+09  0.7864  0.4326  -0.01043  0.01028  -0.04486  -0.02948  0.6723  -0.3632
6.504e+09  0.8973  0.1392  0.02858  0.0009709  0.0266  0.07342  0.509  -0.5793
6.505e+09  0.864  -0.2404  -0.01372  0.02317  -0.007571  0.02875  0.2635  -0.7248
6.506e+09  0.7186  -0.4989  -0.0008439  -0.001387  0.002122  -0.004998  0.04076  -0.7703
6.508e+09  0.514  -0.7154  -0.01817  -0.06214  -0.01002  -0.008266  -0.2375  -0.7276
6.509e+09  0.2116  -0.7717  -0.003501  0.003084  -0.003597  0.007445  -0.4553  -0.5754
6.51e+09  -0.04429  -0.8472  0.03132  -0.008089  -0.009891  -0.02937  -0.607  -0.4073
6.511e+09  -0.3288  -0.8627  -0.03392  0.01503  -0.01548  0.04457  -0.7218  -0.1419
6.512e+09  -0.6562  -0.6204  -0.01648  -0.03908  -0.02899  -0.03721  -0.7543  0.09758
6.514e+09  -0.8131  -0.392  0.003016  0.03526  -0.02822  0.03691  -0.6686  0.3766
6.515e+09  -0.8782  -0.07135  -0.01114  0.006919  -0.01312  -0.03103  -0.4451  0.5557
6.516e+09  -0.8878  0.1893  -0.01783  0.001641  0.001036  0.01145  -0.2395  0.7224
6.518e+09  -0.777  0.5037  -0.009102  0.001235  -0.02748  0.01409  0.04041  0.7471
6.519e+09  -0.5057  0.7528  -0.01065  -0.01382  -0.03394  0.02468  0.2534  0.6608
6.52e+09  -0.2505  0.8869  0.02774  -0.005535  -0.00541  -0.001613  0.5109  0.5603
6.521e+09  0.1492  0.9195  -0.01148  -0.001915  -0.001691  -0.01181  0.6177  0.3315
6.522e+09  0.3715  0.8131  0.00469  0.004826  0.009255  0.02024  0.7083  0.1039
6.524e+09  0.6677  0.5861  0.003773  -0.01059  0.02075  0.02742  0.7046  -0.1547
6.525e+09  0.8797  0.362  -0.03203  -0.0004509  0.03711  0.02347  0.6509  -0.3458
6.526e+09  0.9267  0.02194  0.0174  0.03055  -0.02955  0.02023  0.4451  -0.5812
6.528e+09  0.8563  -0.2792  0.009523  0.02341  -0.00137  0.02561  0.2053  -0.6508
6.529e+09  0.7097  -0.5918  0.01952  0.005446  -0.04536  0.006874  -0.04099  -0.7024
6.53e+09  0.4844  -0.7447  0.01222  0.01593  0.02251  0.01481  -0.2546  -0.6084
6.531e+09  0.1949  -0.8695  -0.02581  -0.03421  0.007648  0.01501  -0.4338  -0.4938
6.532e+09  -0.1906  -0.9366  -0.01339  -0.01951  -0.0002129  -0.01064  -0.5771  -0.2906
6.534e+09  -0.4797  -0.8068  0.03037  -0.004268  -0.006141  0.01496  -0.6653  -0.09227
6.535e+09  -0.6599  -0.5991  -0.005385  0.007221  -0.05227  -0.01381  -0.6251  0.1107
6.536e+09  -0.8674  -0.3038  0.0113  0.002432  -0.009525  -0.03426  -0.5631  0.2734
6.538e+09  -0.9451  -0.01127  0.03187  -0.02513  0.05442  0.00644  -0.4763  0.5083
6.539e+09  -0.8766  0.3095  -0.03773  0.01708  0.01241  0.03386  -0.2399  0.6025
6.54e+09  -0.6903  0.6069  0.01281  -0.02134  0.0389  -0.01044  -0.03637  0.6532
6.541e+09  -0.4893  0.8783  0.007355  -0.01717  -0.01158  0.01377  0.1635  0.6416
6.542e+09  -0.176  0.9012  -0.005163  0.01987  -0.03733  0.002886  0.3588  0.5735
6.544e+09  0.1883  0.8971  0.03247  -0.01327  0.008199  -0.01842  0.6139  0.41
6.545e+09  0.504  0.8054  0.02224  -0.01197  0.002895  -0.003162  0.6864  0.1715
6.546e+09  0.7981  0.6139  0.02087  0.04126  0.03478  0.02488  0.7245  -0.0825
6.548e+09  0.9239  0.2895  -0.01162  0.02531  0.02548  -0.002142  0.6358  -0.3373
6.549e+09  0.9637  -0.1054  -0.01662  0.01807  -0.01299  0.003529  0.4931  -0.5333
6.55e+09  0.8485  -0.3944  -0.004342  -0.007408  0.003093  0.001874  0.3044  -0.6969
