# Hz S RI R 50
6.25e+09  -0.3895  0.7497  -0.03568  -0.02146  0.001733  0.0157  0.1391  0.4955
6.251e+09  -0.1216  0.7782  0.008295  -0.03248  -0.04107  0.009984  0.3755  0.3888
6.252e+09  0.2041  0.7977  -0.001141  0.004951  0.006664  0.009841  0.5454  0.2613
6.254e+09  0.4315  0.6375  0.005603  -0.001377  0.01221  0.06805  0.6111  0.02211
6.255e+09  0.7202  0.4666  -0.0376  0.01081  -0.02778  -0.003896  0.5818  -0.2577
6.256e+09  0.8112  0.2743  -0.02528  0.02903  0.01724  -0.03151  0.4762  -0.4324
6.258e+09  0.8371  -0.05173  0.02085  0.00149  -0.04383  0.007187  0.2621  -0.621
6.259e+09  0.7502  -0.3289  0.02119  0.01187  -0.01289  0.02176  0.04555  -0.6934
6.26e+09  0.5939  -0.5969  -0.009295  0.006012  0.009825  -0.004974  -0.2339  -0.6819
6.261e+09  0.2761  -0.7215  -0.02624  5.691e-05  -0.008788  0.022  -0.4401  -0.5283
6.262e+09  0.0697  -0.8282  -0.001927  0.02102  0.003944  0.001327  -0.6287  -0.3808
6.264e+09  -0.169  -0.8075  -0.02996  0.006344  0.04588  -0.05004  -0.6958  -0.1167
6.265e+09  -0.4768  -0.6364  -0.0002389  -0.003209  0.01867  -0.0158  -0.6998  0.1502
6.266e+09  -0.6437  -0.4588  0.0134  -0.01629  -0.02087  0.05659  -0.6301  0.4022
6.268e+09  -0.7988  -0.2531  -0.02497  0.01196  0.03868  0.008515  -0.4227  0.5541
6.269e+09  -0.7937  0.08493  0.02096  -0.03297  -0.03886  0.02554  -0.1785  0.7186
6.27e+09  -0.7103  0.3479  -0.009143  -0.04012  -0.004781  -0.001471  0.0553  0.7275
6.271e+09  -0.6127  0.582  -0.003795  0.006287  0.0006748  0.03559  0.3304  0.6681
6.272e+09  -0.3122  0.7256  -0.01214  0.01212  0.00158  0.006236  0.5368  0.5069
6.274e+09  -0.1356  0.8048  -0.0156  -0.0009076  -0.04307  0.006233  0.7247  0.2955
6.275e+09  0.1768  0.7848  0.00168  0.02986  0.06783  -0.02302  0.7688  0.01349
6.276e+09  0.4938  0.6477  -0.01911  -0.02112  0.02093  -0.05725  0.6821  -0.2307
6.278e+09  0.6454  0.397  0.04273  0.0174  -0.02031  -0.04592  0.5988  -0.478
6.279e+09  0.8382  0.2281  0.03053  -0.02187  0.003645  -0.02946  0.3987  -0.6294
6.28e+09  0.8191  -0.1119  -0.004717  -0.003016  -0.03319  -0.04023  0.1489  -0.7404
6.281e+09  0.7432  -0.3363  -0.008913  0.01489  0.03483  0.004793  -0.08519  -0.7622
6.282e+09  0.5384  -0.6119  -0.01011  0.02113  0.03373  0.03577  -0.3806  -0.6982
6.284e+09  0.308  -0.7475  0.001464  -0.01123  -0.02079  -0.0006192  -0.6264  -0.5539
6.285e+09  0.03547  -0.8273  -0.03138  -0.01788  -0.005688  0.0004205  -0.7415  -0.2771
6.286e+09  -0.227  -0.783  -0.02475  0.0216  0.03498  -0.02145  -0.8181  0.002524
6.288e+09  -0.4688  -0.6334  -0.03167  0.01149  -0.007814  -0.01602  -0.7597  0.2689
6.289e+09  -0.6966  -0.442  0.009105  -0.02644  -0.01325  0.01032  -0.6533  0.4847
6.29e+09  -0.8189  -0.1543  0.01835  -0.003042  -0.01722  -0.005911  -0.4006  0.7119
6.291e+09  -0.785  0.124  0.01235  -0.004536  -0.0248  -0.001562  -0.1725  0.7981
6.292e+09  -0.7326  0.3409  0.0034  -0.001896  0.04449  0.01336  0.1504  0.785
6.294e+09  -0.5967  0.5961  0.02266  -0.008366  0.02637  0.0113  0.4134  0.7356
6.295e+09  -0.2769  0.7172  0.01505  0.01643  0.09755  -0.03296  0.5971  0.5396
6.296e+09  -0.01362  0.8084  -0.0005783  -0.008831  0.0006973  0.03131  0.7479  0.2808
6.298e+09  0.2437  0.8042  -0.008368  0.03717  0.01954  -0.001924  0.8173  -0.0032
6.299e+09  0.5379  0.61  -0.00101  -0.04806  -4.576e-05  -0.05644  0.7913  -0.2682
6.3e+09  0.7044  0.4148  -0.01176  0.008102  -0.02725  -0.02427  0.6643  -0.5041
6.301e+09  0.7489  0.1574  -0.04422  0.02706  -0.01124  0.03484  0.4162  -0.7242
6.302e+09  0.7629  -0.1469  0.02082  0.009275  -0.04506  -0.01028  0.1458  -0.8289
6.304e+09  0.7345  -0.4103  -0.004096  0.02373  -0.01831  -0.01697  -0.117  -0.87
6.305e+09  0.5307  -0.5843  -0.004969  -0.00158  -0.005432  -0.01087  -0.427  -0.722
6.306e+09  0.2342  -0.7527  -0.02573  0.04035  0.002712  -0.02284  -0.6295  -0.5349
6.308e+09  -0.0465  -0.8301  0.006572  0.0007858  0.01469  -0.008822  -0.8049  -0.3078
6.309e+09  -0.2938  -0.7741  0.02197  -0.02094  0.02199  -0.04076  -0.8831  0.01011
6.31e+09  -0.5339  -0.6032  0.01201  -0.03578  -0.01497  -0.00326  -0.8186  0.2684
6.311e+09  -0.7283  -0.3984  0.02695  0.004102  0.003091  -0.01341  -0.6627  0.5282
6.312e+09  -0.7501  -0.133  0.006804  -0.006991  0.02672  0.009243  -0.4489  0.7531
6.314e+09  -0.8072  0.1594  -0.002648  0.006642  -0.04927  -0.001035  -0.1473  0.8715
6.315e+09  -0.6641  0.4556  -0.005816  0.03248  -0.01624  0.04426  0.1475  0.8425
6.316e+09  -0.4781  0.6518  -0.0144  0.002453  -0.01163  0.06287  0.4303  0.7448
6.318e+09  -0.2445  0.8089  0.005826  0.01355  0.0004401  0.00413  0.6655  0.5836
6.319e+09  0.1025  0.821  -0.02604  -0.03894  0.01532  -0.01756  0.8287  0.3135
6.32e+09  0.2879  0.7307  0.009286  8.935e-05  -0.01652  0.008539  0.8973  0.01412
6.321e+09  0.6173  0.5946  0.02717  -0.00816  -0.01073  -0.03603  0.8178  -0.2503
6.322e+09  0.7499  0.3945  0.001446  0.0351  0.04693  -0.0433  0.6765  -0.5558
6.324e+09  0.8171  0.06372  0.01987  -0.0009043  -0.02812  0.0429  0.437  -0.7912
6.325e+09  0.7872  -0.2481  -0.01823  0.01932  -0.0746  -0.006012  0.1877  -0.895
6.326e+09  0.6545  -0.4417  0.02516  -0.001162  -0.00229  -0.05475  -0.1358  -0.8974
6.328e+09  0.46  -0.6774  -0.01567  -0.01303  -0.007344  0.01603  -0.4482  -0.7832
6.329e+09  0.2003  -0.7926  0.004027  0.02323  -0.004061  -0.0107  -0.6691  -0.5878
6.33e+09  -0.05653  -0.8303  -0.05547  -0.0261  0.006921  0.005857  -0.8684  -0.3154
6.331e+09  -0.3625  -0.7315  0.04283  0.002266  -0.01696  0.02856  -0.9262  -0.04412
6.332e+09  -0.6116  -0.5942  0.003745  -0.006699  -0.01584  0.00111  -0.896  0.2864
6.334e+09  -0.766  -0.3023  -0.02439  0.02415  -0.03113  0.0552  -0.6906  0.5147
6.335e+09  -0.8303  -0.04233  -0.0005911  0.02503  0.007553  -0.04219  -0.5287  0.7647
6.336e+09  -0.7855  0.25  0.001032  -0.01858  -0.004971  -0.007246  -0.2069  0.9042
6.338e+09  -0.6887  0.5308  0.02005  -0.004144  -0.03669  -0.05455  0.153  0.8973
6.339e+09  -0.3583  0.7038  -0.01433  -0.001516  0.02625  -0.03523  0.4225  0.8461
6.34e+09  -0.1858  0.8309  0.02149  0.006539  0.01041  -0.04067  0.6957  0.5962
6.341e+09  0.1493  0.8233  -0.0006814  -0.005194  0.03229  -0.03012  0.873  0.3461
6.342e+09  0.4136  0.7209  0.02961  -0.006065  0.02045  -0.02431  0.9014  0.07059
6.344e+09  0.68  0.5363  -0.03204  -0.02038  0.002629  -0.00541  0.9033  -0.2867
6.345e+09  0.8586  0.2684  0.01135  0.008103  0.003992  -0.05346  0.7305  -0.54
6.346e+09  0.8353  -0.05946  -0.007894  -0.01114  0.05231  -0.02149  0.5042  -0.7336
6.348e+09  0.7557  -0.3263  0.009116  -0.007494  -0.05884  -0.00257  0.2385  -0.9478
6.349e+09  0.6287  -0.5973  -0.01549  0.01425  -0.03833  0.03591  -0.1494  -0.9316
6.35e+09  0.4028  -0.7527  -0.01255  -0.003813  0.02287  -0.03265  -0.4168  -0.8482
6.351e+09  0.07095  -0.8708  -0.00791  -0.007119  -0.007997  -0.0005264  -0.6465  -0.6237
6.352e+09  -0.1757  -0.7825  -0.0321  0.007301  0.01735  0.01394  -0.8546  -0.3477
6.354e+09  -0.5057  -0.7082  0.02149  0.01348  0.02406  -0.04069  -0.9491  -0.051
6.355e+09  -0.6986  -0.4832  -0.02795  2.865e-05  -0.02124  0.008856  -0.9178  0.2547
6.356e+09  -0.8302  -0.2429  0.009193  0.001286  -0.01584  0.01196  -0.7979  0.5202
6.358e+09  -0.8582  0.002955  0.0126  0.02143  -0.01243  -0.02373  -0.5404  0.7676
6.359e+09  -0.8017  0.3948  -0.03033  -0.001739  -0.02768  0.03197  -0.2448  0.9094
6.36e+09  -0.5706  0.6139  -0.001097  0.01549  -0.05381  0.003753  0.06401  0.94
6.361e+09  -0.3371  0.7685  -0.07197  -0.02348  -0.0005466  -0.01091  0.4033  0.8277
6.362e+09  -0.07917  0.8772  0.0148  0.02753  0.00721  -0.007639  0.6746  0.6527
6.364e+09  0.2511  0.8468  -0.006035  -0.003623  0.009561  0.00481  0.8354  0.3941
6.365e+09  0.5222  0.7317  0.01399  0.01455  -0.0312  0.02096  0.9565  0.07343
6.366e+09  0.7187  0.4485  0.03231  -0.03375  -0.02378  0.01483  0.9265  -0.2507
6.368e+09  0.8573  0.2024  -0.01789  0.000957  -0.03303  -0.003654  0.7824  -0.493
6.369e+09  0.8709  -0.1188  0.0207  0.01788  0.0004978  -0.05214  0.5019  -0.7595
6.37e+09  0.7466  -0.4533  0.003244  0.02519  0.01571  0.005619  0.2463  -0.8944
6.371e+09  0.5525  -0.6648  0.02812  -0.004581  -0.01914  -0.001971  -0.08861  -0.9419
6.372e+09  0.3022  -0.7883  -0.01536  -0.02356  -0.01866  0.0177  -0.4261  -0.8658
6.374e+09  -0.02747  -0.931  -0.05595  -0.006693  0.006746  0.02216  -0.655  -0.6809
6.375e+09  -0.2885  -0.8158  0.02494  0.02204  0.03555  -0.02024  -0.8536  -0.4002
6.376e+09  -0.5876  -0.6671  -0.0278  -0.00244  0.02853  0.0537  -0.9094  -0.08876
6.378e+09  -0.7474  -0.3814  0.02196  -0.01418  -0.04241  -0.007999  -0.9081  0.2332
6.379e+09  -0.8568  -0.1429  0.03379  -0.01495  -0.005347  0.009816  -0.7683  0.5252
6.38e+09  -0.8998  0.1846  0.001277  -0.02166  0.004437  -0.01992  -0.537  0.7302
6.381e+09  -0.7636  0.4745  -0.004954  0.01966  0.004287  -0.006981  -0.2772  0.8852
6.382e+09  -0.5451  0.6818  -0.03865  0.007057  0.00277  0.01455  0.02848  0.9458
6.384e+09  -0.2757  0.7968  -0.03232  0.01597  -0.005147  -0.02976  0.3678  0.834
6.385e+09  0.02071  0.8551  -0.02039  -0.03874  -0.008246  -0.01855  0.6981  0.6751
6.386e+09  0.3385  0.8041  -0.006614  -0.02488  -0.006268  0.01687  0.8371  0.4232
6.388e+09  0.553  0.6539  0.01494  -0.00358  0.0006241  -0.0375  0.9252  0.1213
6.389e+09  0.7991  0.3895  0.03666  0.01732  0.01309  -0.07108  0.938  -0.2345
6.39e+09  0.8324  0.09577  0.02344  0.005147  0.004723  0.03396  0.7685  -0.5084
6.391e+09  0.8934  -0.1902  0.02864  -0.003657  -0.06381  -0.02959  0.586  -0.7125
6.392e+09  0.7083  -0.5257  0.01278  0.0155  -0.03712  -0.01111  0.3156  -0.8936
6.394e+09  0.5101  -0.7205  0.02301  -0.03672  0.01486  -0.003236  -0.02755  -0.8936
6.395e+09  0.2198  -0.8559  -0.02165  0.02528  0.005197  0.01942  -0.3847  -0.8118
6.396e+09  -0.04738  -0.8812  0.01445  0.001736  -0.03197  -0.01133  -0.6328  -0.6481
6.398e+09  -0.3346  -0.7878  0.01789  -0.00266  -0.009298  0.01941  -0.8133  -0.4536
6.399e+09  -0.6109  -0.6118  -0.01341  -0.03026  0.003754  0.03706  -0.9028  -0.1137
6.4e+09  -0.7627  -0.3595  -0.02246  -0.04265  -0.04358  -0.01628  -0.8563  0.1141
6.401e+09  -0.861  -0.0936  0.003143  0.009111  0.02463  -0.009279  -0.8039  0.4453
6.402e+09  -0.8201  0.1994  -0.01776  -0.01334  0.002732  -0.03368  -0.592  0.6993
6.404e+09  -0.6871  0.5113  -0.01034  0.007339  0.01885  0.01074  -0.2937  0.8349
6.405e+09  -0.4592  0.6788  0.001969  -0.034  0.02479  0.01531  -0.034  0.9316
6.406e+09  -0.2576  0.8551  0.01052  -0.01286  0.07392  -0.01094  0.326  0.895
6.408e+09  0.1221  0.8266  0.02556  -0.01184  -0.0105  -0.003069  0.5668  0.6669
6.409e+09  0.4041  0.7632  -0.006317  -0.02386  -0.02831  0.02428  0.8147  0.4688
6.41e+09  0.6534  0.5867  -0.01087  0.005074  0.01179  0.002546  0.8805  0.2145
6.411e+09  0.7845  0.3711  0.007232  0.003981  0.01642  -0.008196  0.8826  -0.154
6.412e+09  0.8717  0.02158  -0.002466  -0.02704  -0.01077  -0.01403  0.7721  -0.4082
6.414e+09  0.845  -0.2223  -0.0002602  -0.008659  -0.006364  0.03332  0.5829  -0.6955
6.415e+09  0.7096  -0.4809  0.001365  0.03775  0.0151  -0.02054  0.3756  -0.8183
6.416e+09  0.4459  -0.6936  -0.002797  0.03527  0.00492  -0.03175  0.06523  -0.8916
6.418e+09  0.1838  -0.8564  0.005204  4.165e-05  -0.0136  0.03984  -0.2726  -0.873
6.419e+09  -0.1028  -0.8588  0.04114  -0.01471  0.006249  0.03529  -0.5432  -0.6742
6.42e+09  -0.4068  -0.7711  0.05801  0.008178  0.05629  -0.02421  -0.7459  -0.5042
6.421e+09  -0.6192  -0.5016  0.01845  -0.001916  -0.05693  0.03022  -0.8294  -0.1686
6.422e+09  -0.772  -0.3277  -0.0367  -0.02246  -0.0001189  0.03663  -0.8745  0.1283
6.424e+09  -0.8629  -0.0758  -0.001316  0.03408  -0.01727  -0.004989  -0.8154  0.3998
6.425e+09  -0.7992  0.2543  -0.02148  -0.01147  0.00577  -0.02337  -0.5838  0.6334
6.426e+09  -0.68  0.5262  -0.03473  0.03472  -0.03031  0.01557  -0.3784  0.751
6.428e+09  -0.421  0.7129  0.01084  0.03153  0.01932  0.0653  -0.07378  0.8855
6.429e+09  -0.177  0.8294  -0.008369  0.01717  -0.06644  -0.03138  0.2474  0.8322
6.43e+09  0.1253  0.8159  0.0007825  0.02316  0.01139  -0.08781  0.5269  0.7197
6.431e+09  0.4347  0.7399  -0.02104  -0.009946  -0.002387  -0.007777  0.7284  0.4414
6.432e+09  0.6313  0.5609  0.01669  0.0005401  0.00626  0.0233  0.7907  0.1728
6.434e+09  0.7863  0.3035  -0.00405  0.003432  -0.0009334  -0.04743  0.8902  -0.08549
6.435e+09  0.8594  0.006078  0.004724  -0.03033  -0.0005934  0.007622  0.7612  -0.3908
6.436e+09  0.7588  -0.2889  -0.02919  -0.0128  -0.003345  0.004062  0.6286  -0.5864
6.438e+09  0.6735  -0.5356  0.07828  0.0001556  0.01494  0.0323  0.3243  -0.8211
6.439e+09  0.4479  -0.7052  0.03532  -0.01604  0.01705  0.02944  0.02342  -0.8672
6.44e+09  0.1644  -0.8366  0.01003  0.06171  -0.02314  0.02813  -0.21  -0.7977
6.441e+09  -0.1155  -0.8194  0.02361  0.02964  -0.0045  -0.048  -0.4923  -0.6622
6.442e+09  -0.4337  -0.7749  -0.005245  0.01446  0.02636  -0.0308  -0.6692  -0.5108
6.444e+09  -0.645  -0.5272  0.007671  0.01128  0.00717  0.02002  -0.8245  -0.2284
6.445e+09  -0.8511  -0.3224  -0.0327  0.02465  0.02965  -0.008138  -0.8546  0.06358
6.446e+09  -0.8437  -0.01077  -0.01547  0.02739  -0.01206  -0.01384  -0.7526  0.372
6.448e+09  -0.8147  0.2368  0.005147  0.02306  -0.008349  -0.01434  -0.5837  0.5823
6.449e+09  -0.6283  0.5633  0.001204  0.03139  0.02143  0.01784  -0.3403  0.7852
6.45e+09  -0.4398  0.7352  -0.03546  -0.0108  0.008234  -0.03027  -0.1061  0.8597
6.451e+09  -0.1388  0.8023  -0.008091  0.003059  0.02085  0.02049  0.2214  0.8376
6.452e+09  0.1632  0.8719  -0.01034  -0.01815  0.04455  -0.01546  0.4484  0.7184
6.454e+09  0.4169  0.7643  -0.01425  -0.02782  0.0429  -0.01707  0.7053  0.4591
6.455e+09  0.6263  0.6257  -0.01384  -0.005301  -0.02332  -0.01286  0.772  0.211
6.456e+09  0.8672  0.3165  0.0026  0.02173  -0.06924  0.0008574  0.7957  -0.05707
6.458e+09  0.8413  0.03396  -0.06687  0.02562  0.02817  0.02718  0.7353  -0.4189
6.459e+09  0.8428  -0.2998  -0.0513  -0.007599  -0.03086  0.007306  0.5614  -0.5564
6.46e+09  0.6676  -0.5593  -0.02347  -0.01582  -0.02581  -0.01677  0.3304  -0.7451
6.461e+09  0.4234  -0.7655  0.03499  0.02785  -0.02822  0.02312  0.01903  -0.7942
6.462e+09  0.1321  -0.8746  -0.01374  0.01466  -0.01089  0.01036  -0.1996  -0.8055
6.464e+09  -0.1523  -0.8587  -0.02084  0.01231  0.02554  -6.434e-05  -0.4957  -0.6607
6.465e+09  -0.4542  -0.7593  0.005433  0.01585  0.001464  0.0002052  -0.6771  -0.479
6.466e+09  -0.665  -0.5838  0.0004089  0.03252  -0.01713  -0.007931  -0.7957  -0.1876
6.468e+09  -0.8178  -0.2675  -0.01832  -0.01544  0.02201  0.02392  -0.7371  0.04721
6.469e+09  -0.7886  0.02426  -0.006014  -0.04096  -0.01634  -0.008817  -0.715  0.3841
6.47e+09  -0.8315  0.2853  0.009483  -0.003579  0.02996  0.01817  -0.5645  0.5773
6.471e+09  -0.6945  0.5698  -0.01904  0.01801  0.005807  0.004389  -0.3013  0.6992
6.472e+09  -0.4069  0.745  0.03756  -0.05569  0.01239  -0.01517  -0.04179  0.7929
6.474e+09  -0.08142  0.8975  -0.009194  0.02325  -0.001995  -0.02496  0.2005  0.7351
6.475e+09  0.1447  0.812  -0.01299  0.01883  -0.03175  0.01974  0.4444  0.6288
6.476e+09  0.4523  0.7711  -0.01962  0.005321  -0.003711  -0.0521  0.6548  0.4679
6.478e+09  0.6393  0.5468  -0.01614  -0.02328  -0.02499  0.03983  0.7708  0.2057
6.479e+09  0.8142  0.2351  0.008377  -0.01768  -0.01848  0.04699  0.8218  -0.06458
6.48e+09  0.8846  -0.03565  0.01225  0.04645  0.009616  -0.008772  0.6722  -0.3067
6.481e+09  0.8136  -0.3244  0.02692  -0.01148  -0.002052  -0.01077  0.5759  -0.567
6.482e+09  0.6657  -0.6147  -0.02401  -0.01954  -0.065  0.01725  0.3307  -0.7151
6.484e+09  0.3801  -0.8023  -0.003271  0.04597  -0.01838  0.01142  0.03741  -0.7606
6.485e+09  0.1405  -0.9013  0.001491  -0.02562  0.02719  0.02838  -0.1786  -0.721
6.486e+09  -0.1927  -0.8405  -0.0534  -0.003989  0.02117  -0.01748  -0.4602  -0.636
6.488e+09  -1.088  -0.3137  0.01153  0.009467  0.5241  -0.4919  -0.6445  -0.4565
6.489e+09  -0.7262  -0.5091  0.01099  -0.0184  0.006854  0.02606  -0.7607  -0.168
6.49e+09  -0.8506  -0.2208  -0.09857  -0.01475  0.0373  -0.005555  -0.7462  0.1073
6.491e+09  -0.8858  0.09167  0.01165  0.01221  0.007054  -0.04372  -0.6945  0.3529
6.492e+09  -0.8291  0.3228  0.02505  0.004694  -0.02963  0.023  -0.4938  0.5609
6.494e+09  -0.6174  0.4933  0.04449  0.007774  0.1046  -0.08262  -0.3221  0.6967
6.495e+09  -0.352  0.834  -0.0186  -0.0279  0.0009354  -0.01965  -0.06814  0.7535
6.496e+09  -0.09207  0.9144  -0.007891  0.02823  -0.07485  0.01066  0.178  0.7256
6.498e+09  0.2001  0.8629  -0.06021  -0.007367  0.04252  -0.02084  0.4559  0.65
6.499e+09  0.5398  0.741  0.01537  -0.02243  -0.01693  -0.02971  0.6304  0.4657
6.5e+09  0.7377  0.4881  0.02341  0.007743  0.01193  0.01815  0.7514  0.1936
6.501e+09  0.8773  0.2764  -0.02247  -0.005633  -0.0284  -0.01497  0.7437  -0.1318
6.502e+09  0.901  -0.04577  0.03005  -0.02287  -0.03836  0.01051  0.663  -0.3525
6.504e+09  0.8162  -0.3605  0.008444  -0.008582  -0.03399  0.0563  0.4901  -0.5512
6.505e+09  0.6143  -0.6124  0.0009477  0.02754  -0.01327  0.006301  0.3074  -0.6857
6.506e+09  0.3602  -0.8383  -0.01814  -0.009797  0.01843  -0.02144  0.01685  -0.7667
6.508e+09  0.0428  -0.9262  0.01649  0.03269  0.02363  0.006996  -0.2348  -0.7223
6.509e+09  -0.2848  -0.8709  -0.001322  -0.003817  -0.02057  -0.03142  -0.4507  -0.5706
6.51e+09  -0.5693  -0.7153  0.01528  -0.01032  -0.004613  0.0438  -0.625  -0.3986
6.511e+09  -0.7278  -0.4772  0.01222  -0.01234  -0.001394  0.003119  -0.7131  -0.1613
6.512e+09  -0.9197  -0.1998  -0.02694  0.000878  -0.03591  -0.003599  -0.7381  0.1391
6.514e+09  -0.9146  0.1464  -0.002529  -0.008251  -0.006824  -0.04135  -0.6664  0.3239
6.515e+09  -0.7883  0.411  0.009783  -0.02892  0.001258  -0.03478  -0.4706  0.6046
6.516e+09  -0.6123  0.6935  0.016  -0.02298  0.03447  0.0235  -0.2229  0.6725
6.518e+09  -0.3591  0.8789  0.03042  0.01265  -0.05961  -0.0009362  0.02011  0.7333
6.519e+09  -0.01997  0.9109  0.001295  0.000387  -0.05109  0.009679  0.2834  0.6796
6.52e+09  0.3301  0.8565  0.01513  -0.03103  0.02323  0.004111  0.4746  0.5298
6.521e+09  0.5711  0.7155  -0.01701  0.0447  -0.0009167  0.03419  0.6865  0.3625
6.522e+09  0.8262  0.461  -0.02452  -0.009558  0.01443  0.005632  0.7513  0.07239
6.524e+09  0.9055  0.1835  -0.004682  0.02449  -0.04185  0.01003  0.7033  -0.1442
6.525e+09  0.9195  -0.1397  -0.01655  0.01639  -0.004001  -0.01561  0.6274  -0.3893
6.526e+09  0.8486  -0.5075  -0.02644  0.04508  -0.01264  -0.05749  0.4406  -0.5877
6.528e+09  0.5552  -0.7316  -0.01098  0.006469  -0.01261  -0.01566  0.2166  -0.6861
6.529e+09  0.2946  -0.8826  -0.03196  -0.006713  -0.03645  -0.02447  -0.05102  -0.7194
6.53e+09  -0.07022  -0.9918  -0.02989  -0.01594  -0.007102  0.02071  -0.2928  -0.6573
6.531e+09  -0.3453  -0.9084  0.003823  0.01308  0.01993  0.04504  -0.5073  -0.4736
6.532e+09  -0.6499  -0.7189  -0.0185  -0.01014  0.05279  0.01836  -0.5735  -0.2506
6.534e+09  -0.8307  -0.38  0.005775  -0.01405  0.0511  0.02746  -0.6047  -0.07234
6.535e+09  -0.957  -0.08248  0.005964  -0.004775  -0.01446  -0.01636  -0.5777  0.1038
6.536e+09  -0.873  0.2598  -0.03622  -0.01032  -0.03688  0.0007009  -0.5498  0.301
6.538e+09  -0.7316  0.546  -0.0002996  -0.02221  0.03178  -0.03244  -0.4622  0.4731
6.539e+09  -0.5391  0.7928  -0.03496  0.007097  -0.03663  0.01596  -0.2657  0.6066
6.54e+09  -0.2946  0.9181  0.00777  0.01033  0.05491  -0.02502  -0.0615  0.6621
6.541e+09  0.0452  0.975  -0.003023  0.003541  0.01532  -0.02686  0.1832  0.6591
6.542e+09  0.4147  0.802  0.01576  0.002562  0.006854  -0.0171  0.4082  0.6076
6.544e+09  0.6854  0.6395  0.01153  -0.0243  -0.0325  -0.01311  0.6015  0.3961
6.545e+09  0.8917  0.2705  0.01507  0.02297  -0.0134  0.05188  0.6983  0.1833
6.546e+09  0.9408  0.02115  0.000458  0.01924  -0.02081  0.04957  0.7188  -0.07401
6.548e+09  0.931  -0.2785  -0.002922  -0.01474  -0.01924  -0.01356  0.6621  -0.3172
6.549e+09  0.705  -0.6499  0.01832  0.02528  -0.03101  -0.02836  0.4897  -0.5096
6.55e+09  0.4446  -0.8448  -0.007158  0.01235  -0.03077  0.0186  0.2837  -0.6503
