# Hz S RI R 50
6.25e+09  -0.2932  0.7936  0.02697  0.02172  -0.02207  0.07236  0.1428  0.4696
6.251e+09  -0.01274  0.8167  -0.04232  -0.01644  -0.01445  0.01358  0.3742  0.3854
6.252e+09  0.3443  0.8  0.02836  0.02639  -0.01972  0.05629  0.5022  0.2318
6.254e+09  0.5091  0.618  0.01201  0.02245  -0.003176  0.03489  0.5965  -0.008739
6.255e+09  0.7187  0.4047  0.004942  0.006034  0.02357  -0.005842  0.6163  -0.1957
6.256e+09  0.7776  0.1688  -0.01198  0.02811  0.03696  0.01141  0.4876  -0.4536
6.258e+09  0.7854  -0.1766  0.01428  -0.006408  -0.01848  0.002114  0.2707  -0.6038
6.259e+09  0.7487  -0.3772  0.008753  0.01047  0.01293  0.04634  0.03411  -0.6777
6.26e+09  0.5177  -0.6784  0.008312  -0.00423  -0.008266  -0.0551  -0.193  -0.6518
6.261e+09  0.2439  -0.7748  0.03833  0.02607  0.02339  -0.0371  -0.4303  -0.5308
6.262e+09  -0.002974  -0.8215  0.006751  -0.02711  0.03412  -0.03749  -0.6065  -0.3591
6.264e+09  -0.3185  -0.7548  0.01945  0.0009243  0.01533  -0.04537  -0.7021  -0.07575
6.265e+09  -0.514  -0.6763  -0.01103  -0.0231  -0.02565  0.04888  -0.7071  0.1481
6.266e+09  -0.6963  -0.3896  0.0006688  0.01657  0.04978  -0.05592  -0.5817  0.3754
6.268e+09  -0.8391  -0.1887  -0.03941  0.003507  -0.005472  -0.02619  -0.4162  0.6036
6.269e+09  -0.7967  0.1463  0.01548  0.01741  -0.02334  -0.005652  -0.203  0.6994
6.27e+09  -0.6514  0.4051  -0.02777  -0.007943  -0.002007  0.00185  0.06458  0.7119
6.271e+09  -0.4898  0.6303  -0.005856  0.02283  -0.01574  0.004971  0.3519  0.6449
6.272e+09  -0.2389  0.7786  0.001771  -0.03385  0.05397  -0.004605  0.5091  0.5481
6.274e+09  0.02001  0.8103  -0.03901  -0.03708  -0.008788  0.02512  0.6816  0.3226
6.275e+09  0.2944  0.7507  -0.006147  0.000445  -0.01199  0.005314  0.747  0.0587
6.276e+09  0.5418  0.6024  -0.02149  -0.0252  0.04451  -0.03871  0.7407  -0.24
6.278e+09  0.7125  0.3905  -6.07e-05  -0.006611  -0.02322  0.002894  0.6295  -0.4666
6.279e+09  0.7836  0.08099  0.00743  -0.02002  0.02935  -0.05022  0.3949  -0.6383
6.28e+09  0.7623  -0.1484  -0.002479  -0.01085  -0.03158  0.02424  0.1629  -0.728
6.281e+09  0.6584  -0.4656  0.0001501  -0.0009116  0.006417  0.01527  -0.0822  -0.7917
6.282e+09  0.4664  -0.6477  0.005344  -0.00832  0.04088  0.03971  -0.4006  -0.7021
6.284e+09  0.2447  -0.7545  0.01123  -0.02276  -0.02342  0.04433  -0.6089  -0.5143
6.285e+09  -0.03223  -0.7695  0.02646  -0.04181  0.009651  -0.01324  -0.7395  -0.2874
6.286e+09  -0.2872  -0.7386  -0.03927  -0.01071  -0.02167  0.0541  -0.7957  -0.0265
6.288e+09  -0.5618  -0.5917  0.01758  0.002189  -0.03039  0.02286  -0.7824  0.2499
6.289e+09  -0.7017  -0.3436  0.006376  -0.001341  -0.01229  -0.01614  -0.6168  0.4826
6.29e+09  -0.8204  -0.04941  -0.008266  -0.0002052  0.03666  -0.05863  -0.4038  0.6871
6.291e+09  -0.7777  0.2235  0.007872  -0.01085  0.01442  -0.0215  -0.1408  0.7876
6.292e+09  -0.619  0.4959  -0.01174  0.01906  0.00262  0.005811  0.1278  0.7733
6.294e+09  -0.4352  0.6623  0.01918  -0.005952  0.03444  0.01387  0.3814  0.7044
6.295e+09  -0.209  0.7643  -0.02814  0.0005788  -0.01598  0.01384  0.6499  0.5471
6.296e+09  0.04993  0.7762  -0.001128  -0.01481  -0.006463  0.05329  0.7607  0.2894
6.298e+09  0.3486  0.7284  0.02396  -0.01108  -0.0104  0.0379  0.8405  -0.002793
6.299e+09  0.6161  0.5485  -0.001039  -0.01361  0.02599  -0.003701  0.7795  -0.2908
6.3e+09  0.7034  0.3391  0.009126  0.008781  0.02179  0.002786  0.6353  -0.5114
6.301e+09  0.79  0.04422  -0.01663  -0.00396  -0.01303  -0.01295  0.4161  -0.7095
6.302e+09  0.7406  -0.222  0.00722  0.00307  0.0384  -0.02102  0.1629  -0.8409
6.304e+09  0.637  -0.4789  0.005835  0.009524  -0.0009535  0.01135  -0.1554  -0.8319
6.305e+09  0.4561  -0.6704  0.01726  -0.004016  -0.02048  -0.0583  -0.4347  -0.7282
6.306e+09  0.1876  -0.7816  -0.001111  -0.004386  0.03884  0.008934  -0.6602  -0.5535
6.308e+09  -0.125  -0.8184  0.006592  0.01323  0.02659  0.03179  -0.8103  -0.2896
6.309e+09  -0.3889  -0.7058  -0.006772  -0.001139  -0.005903  0.007891  -0.8939  -0.02806
6.31e+09  -0.6242  -0.5592  -0.0428  0.00608  0.05211  -0.01664  -0.8231  0.2771
6.311e+09  -0.754  -0.3239  -0.007472  -0.0274  -0.01667  -0.01075  -0.6708  0.5526
6.312e+09  -0.8456  -0.01919  0.01382  0.009157  0.0295  -0.001759  -0.4257  0.7397
6.314e+09  -0.7418  0.2666  0.0001519  0.009574  0.01904  -0.0272  -0.1596  0.8818
6.315e+09  -0.6502  0.5677  -0.009882  0.004283  -0.01743  0.01587  0.1423  0.8557
6.316e+09  -0.414  0.7015  -0.0139  0.01244  0.01245  0.02999  0.3941  0.7616
6.318e+09  -0.1702  0.7612  0.02171  -0.004343  -0.01481  0.02311  0.6283  0.5861
6.319e+09  0.1274  0.8219  -0.01515  -0.002425  -0.006438  0.02442  0.8207  0.3265
6.32e+09  0.414  0.7238  -0.009282  -0.01786  0.0002092  -0.02364  0.8863  0.004684
6.321e+09  0.6068  0.4942  -0.006929  0.02094  -0.03289  -0.05515  0.8373  -0.2681
6.322e+09  0.778  0.2933  0.0006029  0.003404  0.01617  -0.03066  0.6634  -0.5882
6.324e+09  0.808  -0.02256  -0.01097  0.01646  -0.00194  -0.01476  0.4899  -0.7752
6.325e+09  0.8162  -0.2789  0.00127  0.002099  -0.01332  0.01735  0.1746  -0.8975
6.326e+09  0.6531  -0.5313  0.003584  0.005365  0.01636  0.001635  -0.1303  -0.8859
6.328e+09  0.3711  -0.6971  0.04734  -0.006143  -0.02254  0.004379  -0.4385  -0.8068
6.329e+09  0.1279  -0.8314  0.007173  -0.01887  0.004024  -0.02805  -0.7039  -0.6134
6.33e+09  -0.1777  -0.8134  0.003826  -0.003005  0.01431  0.006328  -0.8223  -0.3203
6.331e+09  -0.4263  -0.7475  0.005557  0.02465  -0.03052  -0.04397  -0.9025  -0.04185
6.332e+09  -0.7092  -0.5013  -0.005929  0.002819  0.02891  -0.003116  -0.8404  0.3105
6.334e+09  -0.8482  -0.2087  -0.01825  -0.002768  0.005214  -0.009917  -0.6795  0.5338
6.335e+09  -0.875  0.04421  -0.001862  -0.0009727  0.02078  -0.04219  -0.4863  0.7789
6.336e+09  -0.7749  0.3164  0.03892  -0.0003835  -0.04926  -0.0429  -0.2164  0.9026
6.338e+09  -0.6414  0.5883  -0.004407  0.01358  0.02834  -0.05667  0.09871  0.8971
6.339e+09  -0.3638  0.789  0.009354  -0.05603  0.00341  0.02921  0.4031  0.8229
6.34e+09  -0.05264  0.8324  -0.01616  0.005138  0.02784  0.003712  0.6629  0.6206
6.341e+09  0.2326  0.7922  -0.01409  -0.007749  0.003045  0.007069  0.8885  0.374
6.342e+09  0.4995  0.7098  0.006041  0.003156  -0.03436  -0.01872  0.9133  0.06337
6.344e+09  0.7243  0.5247  -0.006521  0.02853  -0.02205  0.009348  0.9021  -0.3049
6.345e+09  0.8707  0.1754  0.02762  -0.002036  0.02715  0.0102  0.7337  -0.5208
6.346e+09  0.8673  -0.1172  0.04197  0.01182  -0.01106  0.00159  0.49  -0.7641
6.348e+09  0.7912  -0.4136  -0.04842  -0.01948  0.02763  -0.01872  0.2376  -0.9393
6.349e+09  0.5599  -0.6422  0.0018  -0.003142  0.0004019  -0.002533  -0.1292  -0.9619
6.35e+09  0.289  -0.7744  -0.001242  -0.01863  -0.02203  -0.02879  -0.3815  -0.8292
6.351e+09  -0.005151  -0.8323  -0.01998  -0.03172  -0.003769  -0.008387  -0.6799  -0.6681
6.352e+09  -0.3024  -0.8487  -0.002957  0.009744  -0.03198  -0.0247  -0.8577  -0.4006
6.354e+09  -0.5246  -0.6841  -0.02109  0.02765  0.03917  -0.0009679  -0.9149  -0.08148
6.355e+09  -0.767  -0.3743  0.01566  -0.02034  -0.01902  0.02125  -0.9447  0.2304
6.356e+09  -0.8384  -0.1364  -0.02685  -0.001732  -0.02768  -0.01211  -0.738  0.5749
6.358e+09  -0.8313  0.1612  0.02053  0.005475  -0.02556  0.01024  -0.5352  0.78
6.359e+09  -0.6932  0.4575  0.007431  -0.005675  -0.009994  0.004693  -0.2723  0.9169
6.36e+09  -0.5251  0.6718  0.009686  -0.003727  -0.06562  -0.0304  0.08807  0.9354
6.361e+09  -0.2894  0.8552  -0.0202  -0.009415  0.005664  -0.0149  0.4524  0.8869
6.362e+09  0.03771  0.8694  -0.01782  0.05072  0.01959  0.01559  0.6965  0.7003
6.364e+09  0.3003  0.7744  -0.03393  -0.03414  0.009525  0.003832  0.8515  0.3994
6.365e+09  0.603  0.629  -0.0164  -0.01232  -0.009687  -0.002303  0.9207  0.09634
6.366e+09  0.7893  0.4121  0.05527  0.0004875  -0.02132  -0.002384  0.9344  -0.2794
6.368e+09  0.8976  0.1353  -0.0086  -0.03154  0.01595  -0.02675  0.7624  -0.5427
6.369e+09  0.7809  -0.2248  0.0418  -0.00166  0.005045  0.05776  0.5546  -0.7462
6.37e+09  0.6716  -0.4642  -0.0009007  -0.002947  -0.02043  0.01298  0.2322  -0.8757
6.371e+09  0.5409  -0.6589  0.02808  -0.005149  -0.01783  0.03105  -0.02705  -0.9692
6.372e+09  0.1632  -0.8494  0.002735  0.009016  -0.003601  -0.0275  -0.3873  -0.8482
6.374e+09  -0.1293  -0.8338  0.02372  0.01447  0.01565  0.01198  -0.6261  -0.6328
6.375e+09  -0.3615  -0.7442  0.05264  -0.01679  0.01449  0.01842  -0.8516  -0.4368
6.376e+09  -0.6458  -0.6296  0.02976  -0.04862  -0.009179  0.04098  -0.9563  -0.07265
6.378e+09  -0.762  -0.3755  0.02445  0.0251  -0.01896  -0.01833  -0.9382  0.2536
6.379e+09  -0.8092  0.01504  0.01462  -0.038  -0.0222  0.03176  -0.785  0.5554
6.38e+09  -0.7842  0.2493  0.007262  -0.01561  0.01419  -0.008737  -0.5502  0.7954
6.381e+09  -0.6809  0.5729  -0.009721  0.004602  0.03761  0.008565  -0.2652  0.9109
6.382e+09  -0.4749  0.6996  -0.009375  -0.01135  -0.007155  -0.02215  0.05466  0.9159
6.384e+09  -0.1832  0.8662  0.0119  -0.007959  0.003828  0.01573  0.3933  0.8992
6.385e+09  0.1687  0.8472  -0.03297  0.01356  0.002373  -0.01622  0.6392  0.7082
6.386e+09  0.4124  0.7684  0.02223  0.009228  -0.02966  -0.002963  0.8252  0.3837
6.388e+09  0.6257  0.589  -0.01608  -0.008261  0.01795  -0.06846  0.9281  0.1061
6.389e+09  0.856  0.2902  -0.00712  -0.01146  0.009674  0.00485  0.9594  -0.2094
6.39e+09  0.8531  0.003374  0.02117  -0.01117  0.01682  -0.004947  0.8052  -0.5121
6.391e+09  0.7953  -0.3122  0.007594  0.0004981  -0.005181  -0.01055  0.586  -0.7235
6.392e+09  0.6306  -0.5455  -0.003998  0.02759  -0.02237  0.006994  0.2775  -0.9137
6.394e+09  0.4543  -0.7253  -0.004165  -0.02768  0.02222  0.01978  -0.04077  -0.9222
6.395e+09  0.19  -0.8403  -0.01847  0.001632  0.009605  -0.02333  -0.2844  -0.8128
6.396e+09  -0.09393  -0.8226  -0.001554  0.02322  -0.009496  0.03289  -0.5767  -0.6835
6.398e+09  -0.4709  -0.7906  0.06328  0.03483  -0.02047  -0.006363  -0.8299  -0.3989
6.399e+09  -0.6373  -0.537  -0.01011  0.00151  0.0162  -0.02587  -0.9117  -0.1936
6.4e+09  -0.8322  -0.2841  0.03181  -0.01412  -0.01264  0.02392  -0.8473  0.1513
6.401e+09  -0.8033  0.0005529  -0.01469  -0.01294  -0.009153  0.02585  -0.7877  0.4678
6.402e+09  -0.7677  0.3345  -0.02068  -0.01092  -0.02382  -0.004081  -0.6341  0.7239
6.404e+09  -0.6105  0.5636  0.00481  0.04001  -0.009387  -0.0172  -0.2964  0.8871
6.405e+09  -0.4313  0.7574  0.002425  -0.03244  -0.009133  0.04269  0.02297  0.9443
6.406e+09  -0.06107  0.8036  -0.01125  0.017  -0.03776  0.02983  0.2937  0.904
6.408e+09  0.1708  0.8355  0.009548  -0.02753  0.04766  -0.05796  0.6012  0.6753
6.409e+09  0.4245  0.7398  -0.01567  0.01991  -0.02682  0.009177  0.826  0.4524
6.41e+09  0.7001  0.5489  -0.007464  -0.02879  0.04384  0.01844  0.8799  0.1999
6.411e+09  0.8292  0.2619  0.01777  0.006735  -0.01094  -0.05297  0.8692  -0.1347
6.412e+09  0.8518  -0.01036  0.0255  -0.0351  -0.01677  -0.000341  0.7625  -0.4193
6.414e+09  0.7587  -0.3469  0.004639  -0.02887  -0.01326  0.0202  0.6027  -0.6773
6.415e+09  0.6059  -0.5546  -0.0165  -0.007298  -0.01238  -0.01868  0.374  -0.8519
6.416e+09  0.4149  -0.763  0.006373  0.003353  -0.003135  -0.05662  0.06414  -0.8852
6.418e+09  0.1028  -0.8741  0.01286  0.008542  0.02607  -0.004037  -0.2716  -0.8213
6.419e+09  -0.2086  -0.8341  -0.03723  -0.02816  -0.02046  -0.04854  -0.5332  -0.7038
6.42e+09  -0.4217  -0.7301  -0.0215  -0.02509  -0.05926  -0.06198  -0.7606  -0.5173
6.421e+09  -0.6648  -0.5315  0.0119  0.01504  0.01748  -0.003793  -0.8999  -0.1775
6.422e+09  -0.791  -0.2802  0.01116  -0.05397  0.02768  0.01772  -0.8264  0.09077
6.424e+09  -0.8891  0.09274  0.06255  0.01013  -0.04034  -0.01108  -0.7506  0.3853
6.425e+09  -0.7342  0.3347  -0.01964  0.01664  -0.03453  0.01957  -0.6248  0.6747
6.426e+09  -0.5946  0.6293  -0.01335  0.02179  0.002425  -0.01161  -0.345  0.8398
6.428e+09  -0.3833  0.7537  -0.02213  0.0382  0.04906  -0.003745  -0.02934  0.8905
6.429e+09  -0.0424  0.8666  0.006534  0.02963  0.01362  -0.00184  0.2388  0.8304
6.43e+09  0.2108  0.7775  -0.01906  0.03233  -0.02008  -0.02639  0.5177  0.7081
6.431e+09  0.44  0.7095  -0.02571  -0.01073  0.0003902  0.03604  0.7519  0.4576
6.432e+09  0.6641  0.5354  0.03853  0.01949  -0.007149  -0.01994  0.851  0.2147
6.434e+09  0.8615  0.2209  0.02609  0.0102  -0.008697  -0.02075  0.8709  -0.08505
6.435e+09  0.8524  0.007208  0.03982  -0.01872  0.01981  -0.003914  0.7835  -0.4182
6.436e+09  0.7669  -0.3451  0.01338  -0.04945  -0.02682  -0.02008  0.6217  -0.5978
6.438e+09  0.5773  -0.6015  -0.01138  0.012  0.007907  0.01998  0.3315  -0.7724
6.439e+09  0.3698  -0.7572  -0.03499  -0.01501  0.05205  0.008134  0.06446  -0.835
6.44e+09  0.1267  -0.8561  0.01199  0.01747  -0.01645  0.004442  -0.2524  -0.7892
6.441e+09  -0.2222  -0.816  -0.004596  0.01209  -0.02113  0.01961  -0.5221  -0.6775
6.442e+09  -0.506  -0.7052  0.003999  -0.05114  -0.02837  -0.005196  -0.7299  -0.517
6.444e+09  -0.7045  -0.4799  -0.006519  0.04027  -0.01024  -0.01278  -0.8707  -0.2529
6.445e+09  -0.7623  -0.245  -0.01393  -0.02873  -0.03851  -0.009766  -0.8675  0.0576
6.446e+09  -0.8387  0.1194  0.004268  -0.02434  -0.03547  -0.003125  -0.7638  0.3896
6.448e+09  -0.7854  0.3475  -0.002724  -0.008474  0.02872  0.02916  -0.5768  0.6292
6.449e+09  -0.6226  0.656  0.01393  0.02593  0.00125  0.0261  -0.3504  0.7389
6.45e+09  -0.3729  0.7982  0.03639  0.01519  -0.0003384  -0.03199  -0.06225  0.8394
6.451e+09  -0.0715  0.8274  0.009784  -0.01057  -0.04912  0.01275  0.2192  0.8181
6.452e+09  0.2109  0.8389  0.02382  0.00107  -0.03008  -0.004322  0.4695  0.6724
6.454e+09  0.5113  0.6902  -0.003872  -0.03146  -0.03754  -0.0007106  0.6987  0.4233
6.455e+09  0.668  0.4108  0.009628  0.003868  0.01032  0.04462  0.7762  0.1777
6.456e+09  0.8337  0.2376  0.01181  0.006751  -0.009336  -0.004643  0.7963  -0.08273
6.458e+09  0.9121  -0.03374  0.02421  0.001407  -0.03728  0.001093  0.7686  -0.3024
6.459e+09  0.7542  -0.4201  0.0306  0.03574  0.01908  -0.03488  0.5456  -0.5659
6.46e+09  0.627  -0.6409  0.03288  0.01104  0.01402  0.02334  0.3105  -0.7671
6.461e+09  0.3601  -0.7655  0.004437  -0.01452  -0.02589  -0.04971  0.07995  -0.8511
6.462e+09  0.06652  -0.8532  0.01907  -0.03759  -0.04973  -0.07776  -0.233  -0.7983
6.464e+09  -0.2243  -0.8169  -0.0143  -0.05372  -0.02635  0.004311  -0.4342  -0.6645
6.465e+09  -0.4823  -0.7228  0.0005489  0.006929  -0.008257  0.02932  -0.6729  -0.4776
6.466e+09  -0.7496  -0.4767  -0.03654  -0.02553  0.009466  0.02629  -0.8276  -0.1963
6.468e+09  -0.8712  -0.1478  0.0232  -0.03399  -0.04829  0.004326  -0.8166  0.1108
6.469e+09  -0.86  0.09579  -0.01191  0.03397  0.03398  -0.01438  -0.7607  0.3464
6.47e+09  -0.7807  0.3531  0.02954  0.01523  0.02291  -0.001447  -0.5285  0.6063
6.471e+09  -0.5999  0.6187  0.003272  -0.04221  0.01284  -0.0191  -0.3628  0.7021
6.472e+09  -0.3256  0.8455  0.03259  -0.006016  -0.04723  0.01163  -0.08835  0.7937
6.474e+09  -0.04593  0.9396  -0.006414  -0.004692  0.02912  0.004236  0.2039  0.7637
6.475e+09  0.3033  0.8229  -0.05093  -0.009991  -0.02691  -0.0003807  0.4646  0.6613
6.476e+09  0.5832  0.7256  -0.01938  0.006295  -0.07613  0.004622  0.6172  0.4374
6.478e+09  0.762  0.4958  0.0112  -0.06161  0.04292  0.008547  0.7415  0.2129
6.479e+09  0.8539  0.1339  0.01315  -0.00563  0.01895  -0.03666  0.7537  -0.1107
6.48e+09  0.8878  -0.1184  -0.03679  -0.05612  0.00751  -0.02037  0.7154  -0.3474
6.481e+09  0.7847  -0.4184  -0.02553  0.02899  -0.02791  0.02879  0.5955  -0.5744
6.482e+09  0.5541  -0.659  0.01039  0.03428  0.02242  -0.005954  0.3474  -0.6823
6.484e+09  0.3533  -0.8312  -0.01813  0.02215  -0.0001539  -0.04301  0.03229  -0.7595
6.485e+09  0.02192  -0.9158  0.001434  -0.002677  0.01732  -0.01087  -0.2202  -0.7518
6.486e+09  -0.3252  -0.869  0.0339  0.007891  0.01536  0.02249  -0.445  -0.6107
6.488e+09  -0.3162  -0.01151  0.02629  -0.001876  -0.49  0.5679  -0.6513  -0.4431
6.489e+09  -0.7862  -0.4152  -0.0201  -0.009917  0.04201  0.01529  -0.693  -0.1913
6.49e+09  -0.8857  -0.1437  -0.02399  0.01856  0.02906  0.03941  -0.784  0.09839
6.491e+09  -0.9288  0.1119  -0.006286  0.02574  0.01012  -0.03046  -0.6665  0.2764
6.492e+09  -0.7913  0.4925  -0.03651  -0.006695  -0.03833  -0.03882  -0.5364  0.5811
6.494e+09  -0.5276  0.7788  -0.01736  -0.01733  0.06573  -0.06884  -0.2979  0.6838
6.495e+09  -0.2893  0.7939  0.02545  0.01093  0.02883  0.0571  -0.01627  0.7843
6.496e+09  0.004281  0.9044  -0.02262  -0.03057  0.03312  0.01675  0.2316  0.7366
6.498e+09  0.3168  0.8367  0.04196  0.01175  -0.001015  -0.01832  0.4465  0.6246
6.499e+09  0.5767  0.7059  -0.03499  -0.01191  -0.006576  -0.008556  0.6677  0.4234
6.5e+09  0.7626  0.53  0.02986  0.04401  0.01407  0.01442  0.7464  0.1335
6.501e+09  0.9259  0.1337  -0.03389  0.002298  -0.03216  0.01115  0.7591  -0.05943
6.502e+09  0.8751  -0.2337  0.03454  -0.005538  -0.03016  0.03932  0.6999  -0.3569
6.504e+09  0.8142  -0.44  0.004098  -0.02454  0.01684  0.01068  0.4985  -0.5631
6.505e+09  0.4803  -0.6974  0.02543  0.01036  0.004888  0.02451  0.2877  -0.7405
6.506e+09  0.2822  -0.9151  -0.00837  -0.01391  0.00291  0.02237  -0.0003852  -0.73
6.508e+09  -0.0668  -0.912  -0.02135  0.01029  0.007642  -0.04032  -0.2318  -0.7401
6.509e+09  -0.3705  -0.8404  0.01859  -0.02351  -0.01918  0.01015  -0.4666  -0.596
6.51e+09  -0.6741  -0.6592  -0.0007015  -0.01176  0.006208  -0.005411  -0.6406  -0.3803
6.511e+09  -0.8257  -0.389  -0.000212  0.009474  0.02426  0.05231  -0.7236  -0.1455
6.512e+09  -0.9658  -0.1119  0.003909  -0.03349  -0.01032  0.04772  -0.7727  0.1268
6.514e+09  -0.9329  0.2697  0.001325  0.03697  -0.002258  0.01394  -0.6784  0.3653
6.515e+09  -0.7215  0.5542  -0.01542  -0.02369  -0.006668  0.0005171  -0.4765  0.6016
6.516e+09  -0.5546  0.7546  -0.04855  0.0237  0.00401  -0.02322  -0.254  0.6915
6.518e+09  -0.1918  0.9223  -0.004353  -0.01586  -0.008193  -0.04174  0.005646  0.802
6.519e+09  0.0694  0.8828  0.03618  0.03936  -0.004147  0.00198  0.2985  0.6728
6.52e+09  0.4401  0.8026  0.01993  -0.002623  -0.03013  -0.003392  0.5072  0.5617
6.521e+09  0.683  0.6226  -0.005321  -0.004216  -0.01873  0.05106  0.6406  0.3429
6.522e+09  0.8927  0.3208  0.0128  0.02708  0.01013  0.02427  0.7397  0.1181
6.524e+09  0.9663  0.004941  0.004015  0.01055  -0.01103  0.01075  0.7166  -0.1646
6.525e+09  0.8947  -0.3415  -0.01389  0.01891  0.03048  -0.001369  0.6151  -0.3988
6.526e+09  0.6984  -0.6294  0.03602  -0.03773  -0.02309  0.02438  0.4384  -0.5768
6.528e+09  0.4742  -0.7654  0.0367  0.01492  0.008689  -0.02579  0.1743  -0.7017
6.529e+09  0.1522  -0.9071  -0.0004288  -0.04553  -0.007082  0.02031  -0.04266  -0.7235
6.53e+09  -0.152  -0.9432  -0.01589  0.01211  0.03156  0.01589  -0.321  -0.6232
6.531e+09  -0.4299  -0.821  0.01326  0.008507  0.01153  0.03148  -0.4755  -0.5014
6.532e+09  -0.7561  -0.6332  -0.01555  0.008639  -0.004208  0.009486  -0.5489  -0.2939
6.534e+09  -0.9067  -0.3036  -0.01059  0.01459  -0.01024  -0.02345  -0.658  -0.1
6.535e+09  -0.946  0.02452  0.02382  0.01883  -0.005483  -0.009888  -0.6158  0.1034
6.536e+09  -0.8729  0.3348  0.0138  0.01625  -0.02323  -0.02952  -0.5437  0.3007
6.538e+09  -0.7057  0.6319  -0.01441  -0.01081  0.0002617  -0.007534  -0.4273  0.46
6.539e+09  -0.3937  0.8383  -0.01328  0.009584  -0.005445  0.03136  -0.2838  0.5932
6.54e+09  -0.09169  0.909  0.01725  0.01126  -0.004969  -0.009324  -0.009327  0.6438
6.541e+09  0.2396  0.8684  -0.0117  0.002824  -0.02919  -0.01585  0.1733  0.6819
6.542e+09  0.5473  0.7708  0.006351  -0.01187  0.0009348  0.01434  0.4002  0.5787
6.544e+09  0.7733  0.5062  0.003805  0.025  -0.002285  -0.003654  0.5896  0.4236
6.545e+09  0.8805  0.2499  -0.01334  -0.01039  -0.03048  0.01669  0.6942  0.1543
6.546e+09  0.9078  -0.1165  0.01246  -0.00348  -0.01504  -0.0364  0.7063  -0.08922
6.548e+09  0.829  -0.4199  -0.01542  -0.02696  -0.04355  0.01014  0.6674  -0.3133
6.549e+09  0.6522  -0.7156  -0.02393  0.01158  -0.009727  0.02047  0.4862  -0.5251
6.55e+09  0.3435  -0.8696  0.03551  0.006421  -0.03263  -0.01862  0.2989  -0.6547
