# Hz S RI R 50
6.25e+09  -0.1934  0.823  0.01899  -0.01307  -0.03044  -0.0004051  0.1808  0.5092
6.251e+09  0.08754  0.8397  0.01774  0.01779  -0.02034  -0.03274  0.3503  0.42
6.252e+09  0.3187  0.7479  -0.02459  -0.0001128  0.01688  -0.01397  0.4837  0.2362
6.254e+09  0.5582  0.6255  -0.0004906  -0.0132  -0.01807  -0.04639  0.6209  0.06556
6.255e+09  0.7324  0.3786  0.004908  0.01591  -0.02466  0.0743  0.563  -0.2083
6.256e+09  0.8162  0.07948  0.008962  -0.02314  0.02445  -0.04452  0.4546  -0.4352
6.258e+09  0.8025  -0.2637  0.02156  0.0187  0.02291  -0.007333  0.2578  -0.591
6.259e+09  0.6555  -0.507  0.01524  0.004758  0.003617  -0.02488  0.06352  -0.6707
6.26e+09  0.4757  -0.6682  -0.004277  -0.01582  -0.01899  0.02313  -0.1974  -0.623
6.261e+09  0.1726  -0.8091  0.02665  -0.01111  -0.01241  -0.007694  -0.4186  -0.5405
6.262e+09  -0.1193  -0.8343  0.01743  0.009604  -0.002939  -0.01093  -0.6002  -0.3309
6.264e+09  -0.3732  -0.7332  -0.03237  0.008497  0.01341  0.02996  -0.6801  -0.07426
6.265e+09  -0.5597  -0.5746  0.0375  0.02728  -0.02949  -0.007854  -0.7069  0.163
6.266e+09  -0.765  -0.3345  -0.01999  0.003767  0.0001507  -0.01356  -0.5776  0.3804
6.268e+09  -0.8176  -0.03326  0.0006826  -0.006116  0.008524  -0.02811  -0.4238  0.6136
6.269e+09  -0.7907  0.2893  -0.00395  -0.001699  0.0009626  -0.008743  -0.1585  0.7339
6.27e+09  -0.6152  0.5308  -0.01947  -0.004364  0.01342  0.01176  0.05759  0.725
6.271e+09  -0.4476  0.677  -0.0236  -0.04697  -0.03033  -0.03333  0.3192  0.6657
6.272e+09  -0.2154  0.791  -0.02204  -0.008618  -0.01954  -0.0219  0.5327  0.5259
6.274e+09  0.1024  0.7766  -0.000958  -0.01381  0.02907  0.006644  0.6959  0.2851
6.275e+09  0.3834  0.8064  -0.0188  -0.01159  -0.005325  -0.009445  0.7725  0.07346
6.276e+09  0.6368  0.4962  -0.004604  -0.01269  0.0002896  0.001078  0.7666  -0.2211
6.278e+09  0.8011  0.3069  0.03943  -0.02987  0.01374  -0.01626  0.5944  -0.4807
6.279e+09  0.819  0.0356  0.005217  0.0001858  -0.02116  -0.01868  0.4191  -0.6772
6.28e+09  0.7447  -0.2168  -0.003241  0.007571  -0.03259  0.002689  0.1855  -0.743
6.281e+09  0.6449  -0.5056  -0.0046  -0.02761  -0.04669  0.04137  -0.1134  -0.7528
6.282e+09  0.4482  -0.6808  0.001725  -0.01212  0.0009385  0.05923  -0.3745  -0.7048
6.284e+09  0.135  -0.8339  0.0192  -0.01112  0.01016  0.06274  -0.6079  -0.5125
6.285e+09  -0.1377  -0.7868  -0.004669  -0.006151  -0.00171  -0.03679  -0.7196  -0.298
6.286e+09  -0.4395  -0.6749  -0.006385  0.002223  0.04274  0.01223  -0.8066  -0.002687
6.288e+09  -0.6586  -0.5112  -0.003224  0.02494  -0.00295  0.03748  -0.7449  0.2342
6.289e+09  -0.783  -0.2778  -0.00359  -0.02995  -0.02427  0.03731  -0.6473  0.4712
6.29e+09  -0.8149  0.02601  0.0135  0.01791  -0.05374  0.007055  -0.4316  0.6772
6.291e+09  -0.7849  0.3213  0.02872  0.01129  -0.002208  0.01687  -0.179  0.7977
6.292e+09  -0.6432  0.5216  -0.00353  -0.02546  -0.01099  -0.04332  0.1234  0.7902
6.294e+09  -0.4332  0.7122  0.01406  -0.002875  0.001577  -0.01417  0.4136  0.6872
6.295e+09  -0.1346  0.8088  0.007238  -0.001201  -0.04786  0.02474  0.6268  0.5355
6.296e+09  0.1806  0.8221  0.00434  0.01666  0.02016  -0.0448  0.7856  0.3032
6.298e+09  0.4081  0.6883  0.02114  -0.001179  -0.02382  -0.06588  0.836  0.006091
6.299e+09  0.6918  0.4926  -0.003291  0.01907  -0.01653  -0.03926  0.7822  -0.2796
6.3e+09  0.8037  0.2456  0.007428  0.008095  -0.0197  -0.01817  0.6337  -0.5285
6.301e+09  0.8045  -0.07212  0.01896  0.004005  0.002757  0.01755  0.4175  -0.7288
6.302e+09  0.7643  -0.3322  -0.001527  0.0248  -8.557e-05  -0.01206  0.1815  -0.8145
6.304e+09  0.581  -0.5382  0.01342  0.005591  -0.003151  -0.01251  -0.144  -0.7981
6.305e+09  0.3671  -0.7124  -0.008772  -0.009111  -0.02606  0.02752  -0.4422  -0.7719
6.306e+09  0.06832  -0.8352  0.0005999  -0.02034  0.01477  -0.0454  -0.6258  -0.5554
6.308e+09  -0.183  -0.7578  -0.007824  0.0104  0.008513  0.001259  -0.811  -0.3023
6.309e+09  -0.4275  -0.6609  0.01268  0.003788  0.003155  0.02467  -0.8566  -0.02419
6.31e+09  -0.6342  -0.4461  0.001502  -0.02049  -0.03718  -0.02097  -0.8202  0.2868
6.311e+09  -0.752  -0.2119  0.01572  0.01513  -0.03232  0.02595  -0.6619  0.533
6.312e+09  -0.7688  0.1149  0.00306  -0.01778  -0.005436  -0.02328  -0.4289  0.7506
6.314e+09  -0.7544  0.3513  -0.0123  -0.004767  0.005554  -0.005627  -0.1478  0.8538
6.315e+09  -0.5726  0.5646  0.0004833  -0.01125  0.005294  -0.00585  0.1505  0.8506
6.316e+09  -0.3182  0.7665  -0.0211  -0.004043  0.04002  0.03011  0.4277  0.7764
6.318e+09  -0.07293  0.8492  0.01519  -0.004787  0.01249  0.03342  0.6837  0.5803
6.319e+09  0.2259  0.7897  -0.01365  -0.002455  -0.006902  -0.01382  0.8149  0.3012
6.32e+09  0.4574  0.6473  0.003709  -0.0211  0.03586  0.006476  0.8735  0.042
6.321e+09  0.6745  0.4771  0.005239  0.03897  -0.002992  0.03918  0.8643  -0.2611
6.322e+09  0.8292  0.1907  -0.01732  0.02354  -0.009776  -0.001377  0.6774  -0.5569
6.324e+09  0.8253  -0.1095  0.003377  0.04292  0.02281  0.00416  0.4306  -0.7402
6.325e+09  0.7485  -0.3689  -0.02558  -0.002319  0.004568  0.05248  0.1807  -0.8947
6.326e+09  0.5754  -0.6161  -0.009774  0.02143  0.02335  0.04057  -0.1101  -0.8681
6.328e+09  0.2573  -0.7787  -0.001472  0.03257  -0.02548  -0.01654  -0.466  -0.7782
6.329e+09  0.01409  -0.8287  -0.01194  0.02217  0.01735  0.0006745  -0.6725  -0.6003
6.33e+09  -0.2813  -0.7591  -0.01958  0.001024  0.06753  -0.03253  -0.8533  -0.329
6.331e+09  -0.5544  -0.6325  0.002185  0.01433  0.007127  -0.045  -0.8808  -0.03193
6.332e+09  -0.7628  -0.3666  -0.02955  0.009537  0.000646  -0.03858  -0.8528  0.2562
6.334e+09  -0.8614  -0.09467  -0.01179  -0.01385  0.02803  0.03962  -0.7374  0.5665
6.335e+09  -0.8648  0.1794  0.01406  0.001841  0.01462  0.001068  -0.4691  0.7617
6.336e+09  -0.7198  0.453  -0.04416  -0.02283  -0.005704  -0.03265  -0.188  0.8798
6.338e+09  -0.5025  0.7107  -0.03213  -0.006826  -0.01685  -0.02894  0.1129  0.8978
6.339e+09  -0.2472  0.8534  0.006642  0.0135  -0.03309  0.007654  0.4409  0.8072
6.34e+09  0.05299  0.8415  -0.01622  0.01529  0.05597  0.03396  0.6662  0.6276
6.341e+09  0.3312  0.7961  -0.003106  0.01622  -0.03727  0.0738  0.86  0.3576
6.342e+09  0.5846  0.6167  0.00438  0.01876  -0.006022  -0.003266  0.9155  0.0352
6.344e+09  0.7959  0.3464  0.002952  0.03586  -0.007643  0.03718  0.8747  -0.3168
6.345e+09  0.8452  0.0729  -0.00945  0.001445  -0.02265  -0.05106  0.7415  -0.5823
6.346e+09  0.8484  -0.232  -0.003265  0.005833  -0.01692  0.03669  0.487  -0.771
6.348e+09  0.6938  -0.5135  0.003736  0.02729  -0.02276  0.01117  0.2491  -0.9027
6.349e+09  0.4683  -0.6957  -0.01727  -0.008913  -0.06607  0.00117  -0.09565  -0.9409
6.35e+09  0.1783  -0.8345  -0.03013  -0.02867  -0.04201  -0.001224  -0.4022  -0.8545
6.351e+09  -0.1049  -0.8632  -0.005018  -0.0454  0.01927  -0.01961  -0.6602  -0.6305
6.352e+09  -0.4111  -0.7694  0.01423  -0.009131  -0.03244  -0.0239  -0.9104  -0.3303
6.354e+09  -0.6419  -0.6089  0.01347  -0.006522  0.006837  0.001502  -0.9325  -0.1022
6.355e+09  -0.8154  -0.3228  -0.001873  -0.0253  0.02681  -0.01199  -0.9201  0.289
6.356e+09  -0.833  0.01918  0.03595  -0.004241  0.008668  0.01196  -0.7877  0.4984
6.358e+09  -0.8165  0.2369  -0.0191  -0.01146  -0.04087  0.02283  -0.5316  0.7495
6.359e+09  -0.6372  0.5274  -0.008408  -0.02241  -0.01823  -0.03354  -0.2195  0.8636
6.36e+09  -0.4501  0.7661  -0.009509  -0.008259  -0.006782  -0.01833  0.1228  0.9022
6.361e+09  -0.1248  0.8838  -0.01888  0.01474  -0.005762  0.008312  0.4043  0.864
6.362e+09  0.1561  0.845  0.002349  -0.01817  -0.01782  -0.03158  0.6476  0.643
6.364e+09  0.4529  0.7222  0.01096  0.03534  0.007819  0.002185  0.8644  0.3985
6.365e+09  0.6609  0.5421  0.03212  -0.01368  0.003126  0.02076  0.9385  0.08773
6.366e+09  0.792  0.2436  0.01403  0.02543  0.00332  0.007868  0.8977  -0.2255
6.368e+09  0.907  -0.01654  0.02897  0.03582  0.009409  -0.008681  0.7735  -0.5529
6.369e+09  0.7763  -0.3009  -0.001156  0.04011  -0.00358  0.02318  0.5451  -0.7362
6.37e+09  0.6423  -0.5831  0.03678  0.007428  -0.004772  0.001245  0.2615  -0.9199
6.371e+09  0.3991  -0.7527  0.002404  -0.0082  0.02261  -0.03964  -0.1007  -0.9155
6.372e+09  0.07719  -0.853  0.007481  -0.009425  -0.04498  -0.004608  -0.4009  -0.8199
6.374e+09  -0.2042  -0.8073  -0.004071  0.002407  -0.03081  -0.007143  -0.6805  -0.6322
6.375e+09  -0.4743  -0.7575  0.04222  -0.01411  0.00819  0.03359  -0.8306  -0.3633
6.376e+09  -0.7195  -0.4865  0.02407  -0.02963  0.004263  0.02557  -0.9302  -0.06673
6.378e+09  -0.8526  -0.254  0.00214  -0.0245  0.02899  -0.0103  -0.9734  0.2464
6.379e+09  -0.8263  0.02079  -0.02536  -0.007704  -0.01886  -0.04119  -0.7813  0.5239
6.38e+09  -0.7972  0.3601  0.01334  0.01432  -0.04133  0.01888  -0.564  0.7413
6.381e+09  -0.6306  0.6533  -0.009776  -0.08077  0.03205  -0.05754  -0.272  0.8675
6.382e+09  -0.3575  0.7937  0.02371  0.01307  -0.02759  0.008019  0.009891  0.9577
6.384e+09  -0.03351  0.8364  0.01553  -0.02489  -0.003351  0.0536  0.3832  0.8993
6.385e+09  0.2253  0.8096  -0.01086  -0.003694  -0.03563  0.04488  0.6302  0.7119
6.386e+09  0.5308  0.6973  -0.008687  0.006365  -0.01595  0.04021  0.8043  0.4238
6.388e+09  0.687  0.4676  -0.03052  -0.001974  -0.01354  0.01059  0.9261  0.1115
6.389e+09  0.851  0.2347  0.02359  0.01841  -0.03996  -0.007407  0.8791  -0.2129
6.39e+09  0.8675  -0.04267  0.006023  0.006917  -0.04528  -0.002331  0.7888  -0.5021
6.391e+09  0.7504  -0.3723  0.009634  -0.004624  -0.008033  0.01173  0.5416  -0.7376
6.392e+09  0.613  -0.6335  -0.01108  0.02391  0.02418  0.0003179  0.3036  -0.8349
6.394e+09  0.3658  -0.8262  -0.01109  0.006717  0.01727  0.002149  -0.02714  -0.9197
6.395e+09  0.01595  -0.8298  0.01144  -0.01132  0.01556  0.01738  -0.2917  -0.8574
6.396e+09  -0.2592  -0.8141  0.02685  -0.006089  -0.01157  0.01087  -0.6316  -0.6602
6.398e+09  -0.4833  -0.7183  -0.01834  0.01399  -0.006749  -0.02635  -0.8061  -0.4859
6.399e+09  -0.7654  -0.4762  0.004885  0.01314  -0.018  0.01293  -0.9009  -0.1637
6.4e+09  -0.8168  -0.1925  -0.03102  -0.005542  -0.01869  0.04122  -0.9007  0.1659
6.401e+09  -0.8614  0.126  -0.0105  0.02599  -0.006284  -0.01515  -0.7671  0.5209
6.402e+09  -0.71  0.4249  -0.02532  -0.03078  0.008578  0.02806  -0.627  0.763
6.404e+09  -0.5751  0.6645  0.006656  0.005725  -0.01773  0.02781  -0.2886  0.8538
6.405e+09  -0.2629  0.8313  -0.0006962  0.003759  -0.01055  0.01129  0.01689  0.912
6.406e+09  -0.001359  0.879  0.03084  0.02136  -0.03881  -0.009328  0.3034  0.8634
6.408e+09  0.2991  0.817  0.02832  0.02479  -0.001182  -0.01958  0.5662  0.7172
6.409e+09  0.5564  0.6643  -0.0145  -0.03235  -0.04379  -0.01751  0.7679  0.4756
6.41e+09  0.7441  0.4275  -7.993e-05  -0.02912  -0.01239  -0.00249  0.8719  0.1556
6.411e+09  0.8398  0.2087  0.008151  0.02899  0.02109  -0.005371  0.8438  -0.1584
6.412e+09  0.853  -0.1028  0.001315  0.01775  -0.03421  -0.004804  0.7749  -0.4084
6.414e+09  0.7373  -0.3975  -0.01115  0.01192  0.01359  -0.01678  0.5746  -0.6295
6.415e+09  0.5834  -0.6617  -0.02665  0.02079  -0.009435  0.0071  0.3319  -0.8271
6.416e+09  0.3099  -0.7904  -0.006652  -0.008146  -0.03811  0.02916  0.05105  -0.8949
6.418e+09  0.007753  -0.8667  0.04619  -0.05421  -0.001652  0.02591  -0.2656  -0.8334
6.419e+09  -0.298  -0.7599  0.009648  0.00113  -0.01553  0.01108  -0.5498  -0.6869
6.42e+09  -0.4899  -0.7007  -0.006597  0.02203  0.05178  0.0142  -0.7463  -0.451
6.421e+09  -0.6961  -0.3992  0.07136  0.0005304  0.007423  0.0006332  -0.867  -0.1738
6.422e+09  -0.8485  -0.1362  0.006705  0.01259  0.02365  -0.08726  -0.8328  0.1001
6.424e+09  -0.8598  0.1671  0.01238  0.02406  -0.05396  -0.01497  -0.7983  0.4055
6.425e+09  -0.7267  0.4047  0.01537  0.006216  0.001181  0.006334  -0.5941  0.6251
6.426e+09  -0.5428  0.6801  0.02406  0.03251  0.003538  0.001804  -0.328  0.786
6.428e+09  -0.2491  0.8323  -0.02185  0.02116  0.002295  -0.04578  -0.03993  0.8936
6.429e+09  0.0004272  0.8983  -0.007699  0.0334  0.01426  -0.02002  0.2123  0.8285
6.43e+09  0.3375  0.7977  -0.005308  0.005387  -0.03455  0.0005607  0.5057  0.6949
6.431e+09  0.5272  0.7261  -0.0126  -0.01728  0.05645  0.008034  0.7559  0.4897
6.432e+09  0.7599  0.4578  0.02841  -0.009149  0.01026  -0.02984  0.7831  0.1605
6.434e+09  0.8404  0.1648  -0.01265  -0.006318  -0.06309  -0.01002  0.8739  -0.07879
6.435e+09  0.8631  -0.1524  -0.004751  0.006238  -0.05339  -0.01022  0.7699  -0.3815
6.436e+09  0.7463  -0.4285  -0.01949  -0.00118  0.01777  -0.007404  0.6242  -0.6118
6.438e+09  0.5063  -0.6524  0.01165  0.03297  0.025  -0.03388  0.3659  -0.7891
6.439e+09  0.2381  -0.8648  -0.03341  0.03831  0.0193  -0.008797  0.0399  -0.8788
6.44e+09  -0.07186  -0.8116  0.01167  0.006946  0.01341  -0.01862  -0.2341  -0.8419
6.441e+09  -0.3581  -0.8163  -0.01389  -0.02579  0.01405  -0.03899  -0.4917  -0.6967
6.442e+09  -0.5569  -0.5965  -0.003654  -0.03002  0.01672  -0.0814  -0.714  -0.4716
6.444e+09  -0.7786  -0.4108  -0.02455  0.01616  -0.02707  -0.001768  -0.8102  -0.2038
6.445e+09  -0.8647  -0.14  0.03477  0.01581  0.04133  -0.03685  -0.8603  0.05875
6.446e+09  -0.8097  0.1892  -0.01727  -0.03553  -0.02568  -0.01865  -0.7612  0.3834
6.448e+09  -0.7365  0.4596  -0.008235  -0.005232  0.007342  0.006707  -0.5637  0.5927
6.449e+09  -0.5763  0.6589  0.04378  -0.001134  -0.01281  0.0006515  -0.3735  0.7869
6.45e+09  -0.2634  0.8778  -0.002696  -0.03211  -0.04574  0.03243  -0.07418  0.7854
6.451e+09  0.04751  0.9387  0.01213  0.03753  0.02678  0.004011  0.219  0.7661
6.452e+09  0.3707  0.7975  0.03136  0.008548  -0.005068  -0.02877  0.4537  0.6468
6.454e+09  0.6231  0.6495  0.0002736  -0.0011  0.0247  -0.00625  0.6912  0.4718
6.455e+09  0.7423  0.4044  0.01643  -0.001682  0.01018  0.01348  0.8031  0.2045
6.456e+09  0.9012  0.1236  0.02903  -0.01288  -0.01415  0.006497  0.8628  -0.05057
6.458e+09  0.8999  -0.1865  0.02386  -0.01394  -0.04477  -0.03377  0.7546  -0.3265
6.459e+09  0.7464  -0.4803  0.003329  0.006785  -0.01242  0.03456  0.6019  -0.5917
6.46e+09  0.497  -0.7483  -0.004784  0.01461  -0.02401  -0.01776  0.2959  -0.7704
6.461e+09  0.2445  -0.8762  -0.01098  -0.04306  0.006293  -0.02493  0.0737  -0.8017
6.462e+09  -0.0428  -0.8362  -0.03689  0.003824  -0.04099  -0.03152  -0.2494  -0.78
6.464e+09  -0.3527  -0.7646  -0.001874  -0.02445  0.02178  -0.04823  -0.4557  -0.6555
6.465e+09  -0.601  -0.6698  0.0172  -0.0009395  0.002181  0.009973  -0.6895  -0.4299
6.466e+09  -0.8489  -0.3976  -0.004481  -0.02919  -0.007885  0.005561  -0.7692  -0.2168
6.468e+09  -0.8736  -0.09702  0.03078  0.006752  -0.003247  0.01337  -0.8028  0.03755
6.469e+09  -0.8859  0.1839  -0.005257  -0.006693  0.02806  -0.001719  -0.7091  0.3345
6.47e+09  -0.747  0.5433  0.008776  0.002322  0.04237  -0.01665  -0.5849  0.547
6.471e+09  -0.5461  0.7431  -0.01367  0.02739  -0.02474  -0.01319  -0.3193  0.7329
6.472e+09  -0.2029  0.8449  0.03096  -0.01899  -0.02634  -0.02621  -0.06046  0.7938
6.474e+09  0.06556  0.9235  -0.02562  0.01956  -0.03632  0.0348  0.1918  0.7551
6.475e+09  0.3675  0.7594  -0.03755  0.03068  -0.02373  -0.04209  0.4578  0.6513
6.476e+09  0.6427  0.6176  -0.00053  0.01862  0.01157  -0.004738  0.6802  0.4567
6.478e+09  0.8188  0.3383  0.01231  0.05024  -0.04671  0.01682  0.7685  0.2102
6.479e+09  0.9085  0.1013  -0.001582  -0.0194  0.003752  -0.0435  0.7725  -0.04657
6.48e+09  0.8791  -0.2779  0.05022  0.01755  0.04059  0.01074  0.7  -0.3349
6.481e+09  0.7224  -0.5309  0.02769  -0.007627  -0.007663  0.02065  0.5497  -0.5729
6.482e+09  0.5174  -0.7184  -0.007053  -0.01298  -0.05343  -0.03884  0.2949  -0.7008
6.484e+09  0.2283  -0.9282  -0.02191  0.03752  0.009281  -0.05081  0.02274  -0.7614
6.485e+09  -0.1175  -0.8928  -0.01091  0.0277  0.03701  0.01746  -0.1897  -0.7262
6.486e+09  -0.412  -0.7684  0.008466  0.03804  0.04028  -0.007462  -0.427  -0.6068
6.488e+09  -1.071  -0.01008  -0.04214  -0.01882  -0.6466  -0.1534  -0.6255  -0.4407
6.489e+09  -0.8001  -0.3679  0.02538  0.02279  -0.002673  -0.00219  -0.7878  -0.1439
6.49e+09  -0.9144  -0.04737  0.03213  0.009326  -0.003766  0.03683  -0.7928  0.08095
6.491e+09  -0.8691  0.2667  -0.002727  0.02337  0.02722  0.008001  -0.735  0.2994
6.492e+09  -0.6569  0.6539  -0.005551  0.03285  -0.04109  -0.04945  -0.5177  0.5611
6.494e+09  -0.3943  0.6666  -0.01853  0.03578  -0.05967  -0.06865  -0.3149  0.7011
6.495e+09  -0.1583  0.9003  -0.02163  0.01218  -0.01871  -0.02829  -0.03047  0.7326
6.496e+09  0.1713  0.9263  -0.01105  0.004315  0.01019  -0.03774  0.2239  0.7161
6.498e+09  0.4781  0.7781  0.01844  0.01532  -0.08059  0.07618  0.4885  0.5907
6.499e+09  0.7347  0.615  0.0245  -0.04947  -0.006687  -0.01915  0.663  0.4036
6.5e+09  0.8024  0.3079  -0.004315  -0.04848  0.01663  0.03469  0.7597  0.1572
6.501e+09  0.9336  -0.01901  -0.0008822  -0.01396  0.006878  -0.03698  0.7384  -0.118
6.502e+09  0.8576  -0.3104  -0.02347  -0.005604  -0.006243  -0.008186  0.7232  -0.3884
6.504e+09  0.6993  -0.6224  -0.002004  0.0382  -0.05169  0.0005337  0.4872  -0.5769
6.505e+09  0.4493  -0.7717  -0.01095  0.02132  -0.003331  0.03044  0.2542  -0.6805
6.506e+09  0.1144  -0.8741  -0.0002927  -0.003506  0.0685  -0.009346  0.05259  -0.7602
6.508e+09  -0.2102  -0.944  0.0006633  0.05335  -0.03396  0.03875  -0.2266  -0.6758
6.509e+09  -0.5746  -0.77  0.02491  -0.01105  -0.01706  0.0007385  -0.5173  -0.5746
6.51e+09  -0.738  -0.527  0.05071  -0.009991  -0.01745  0.003623  -0.6231  -0.3963
6.511e+09  -0.9357  -0.2752  -0.02549  0.05004  0.02705  -0.02452  -0.7287  -0.1283
6.512e+09  -0.893  0.01347  0.02467  0.002735  -0.04512  0.06339  -0.7401  0.1513
6.514e+09  -0.8471  0.3549  -0.02516  0.008872  -0.0193  0.004881  -0.6307  0.3777
6.515e+09  -0.6972  0.6334  0.01108  0.002647  0.0149  -0.02102  -0.4743  0.5821
6.516e+09  -0.4204  0.8547  0.009671  -0.000478  -0.009294  -0.02819  -0.2438  0.6902
6.518e+09  -0.06537  0.9183  -0.01885  0.02727  0.05192  -0.003965  0.03372  0.7292
6.519e+09  0.246  0.9159  -0.02889  0.003937  -0.01869  0.01485  0.2779  0.6594
6.52e+09  0.5861  0.7036  0.005574  -0.03451  0.004766  0.0174  0.4856  0.5719
6.521e+09  0.7601  0.4848  0.03013  0.009  0.02221  -0.008194  0.5921  0.3624
6.522e+09  0.8909  0.2296  -0.03923  -0.004728  0.02167  0.02109  0.7271  0.09206
6.524e+09  0.928  -0.1279  0.03272  0.03816  0.005727  -0.01297  0.7195  -0.185
6.525e+09  0.8558  -0.4115  -0.001344  0.007064  -0.02239  -0.01882  0.6084  -0.3892
6.526e+09  0.5908  -0.7442  0.006218  0.0016  0.02692  -0.04314  0.4308  -0.5863
6.528e+09  0.3752  -0.9464  0.01831  9.228e-06  -0.03461  -0.01433  0.1974  -0.6783
6.529e+09  -0.04255  -0.9523  -0.02165  -0.02764  -0.008957  0.001311  -0.04313  -0.71
6.53e+09  -0.3441  -0.8496  -0.003688  -0.005582  0.003622  -0.02585  -0.3192  -0.6336
6.531e+09  -0.6281  -0.64  0.02628  0.02243  0.01188  0.02815  -0.4443  -0.469
6.532e+09  -0.8418  -0.4328  0.01613  0.01781  -0.00158  -0.05287  -0.6314  -0.2703
6.534e+09  -0.9462  -0.138  -0.01193  0.01924  -0.006695  -0.03033  -0.6363  -0.09474
6.535e+09  -0.949  0.2147  0.003761  0.01411  -0.009017  -0.07593  -0.6053  0.07944
6.536e+09  -0.8097  0.5217  0.002206  -0.006722  -0.02917  0.01424  -0.5725  0.2979
6.538e+09  -0.5553  0.7179  -0.01723  0.02134  -0.01806  0.00878  -0.4545  0.4749
6.539e+09  -0.2394  0.9113  0.005006  0.005432  -0.0009373  -0.03436  -0.3044  0.5777
6.54e+09  0.09594  0.9144  -0.001367  0.01091  -0.01928  -0.001238  -0.04239  0.679
6.541e+09  0.3915  0.802  0.01075  0.005858  -0.009569  -0.01006  0.2254  0.6587
6.542e+09  0.6342  0.6381  0.01459  -0.005327  0.04754  0.03387  0.3924  0.6127
6.544e+09  0.9102  0.3161  -0.01297  -0.01881  -0.01362  0.006585  0.5729  0.4017
6.545e+09  0.8767  0.03825  0.01021  -0.01852  -0.01693  -0.009543  0.6863  0.1843
6.546e+09  0.8867  -0.2814  -0.002052  0.007575  -0.01645  -0.006298  0.6972  -0.07403
6.548e+09  0.6955  -0.5452  0.003571  -0.01806  0.02161  -0.02174  0.6593  -0.3362
6.549e+09  0.4172  -0.7665  -0.002821  0.009643  -0.01052  -0.02652  0.4809  -0.5377
