# Hz S RI R 50
6.25e+09  -0.2456  0.812  -0.02739  -0.02781  0.05035  0.0366  0.1645  0.4764
6.251e+09  0.08633  0.8149  0.04563  0.002912  -0.0449  0.04763  0.3548  0.4285
6.252e+09  0.3251  0.7928  0.003117  0.009128  0.01093  -0.02002  0.5345  0.234
6.254e+09  0.5697  0.5358  0.03275  -0.02262  -0.02752  0.03078  0.6109  0.012
6.255e+09  0.7725  0.3544  0.01683  0.004772  0.01717  0.002192  0.5765  -0.2157
6.256e+09  0.8929  0.04944  -0.02399  -0.00707  0.01769  -0.03022  0.5066  -0.4161
6.258e+09  0.845  -0.2428  -0.0187  0.01714  0.002987  -0.02143  0.2801  -0.5929
6.259e+09  0.6988  -0.5222  -0.03086  0.01221  -0.04352  -0.006249  0.04442  -0.6823
6.26e+09  0.4365  -0.6695  0.007014  -0.01738  -0.02049  -0.01428  -0.2337  -0.6939
6.261e+09  0.2032  -0.7703  -0.008458  -0.02793  0.001405  0.003698  -0.4421  -0.5288
6.262e+09  -0.09826  -0.8021  0.02758  0.004774  0.01684  0.01503  -0.6098  -0.3582
6.264e+09  -0.3531  -0.7212  0.00354  0.01481  0.03796  0.01466  -0.6944  -0.1075
6.265e+09  -0.5981  -0.5449  -0.01473  -0.02208  0.02633  0.04267  -0.692  0.1565
6.266e+09  -0.7461  -0.2835  -0.004231  0.03823  0.007087  -0.005027  -0.6458  0.4148
6.268e+09  -0.7654  -0.0326  -0.0277  -0.005686  -0.009357  -0.007625  -0.4676  0.571
6.269e+09  -0.7433  0.2371  -0.01426  -0.0004443  -0.01482  -0.01069  -0.2391  0.7109
6.27e+09  -0.6201  0.5063  -0.03462  0.01695  -0.001854  0.03596  0.05586  0.7304
6.271e+09  -0.4388  0.7286  -0.0193  0.006339  -0.05999  -0.04593  0.3363  0.6898
6.272e+09  -0.2034  0.7602  0.01078  -0.0154  -0.02169  0.06356  0.5484  0.5208
6.274e+09  0.1548  0.8706  0.01188  -0.01829  0.03953  -0.03982  0.6705  0.3157
6.275e+09  0.4116  0.6854  -0.008488  0.02014  0.01679  -0.002332  0.749  0.06228
6.276e+09  0.6238  0.5418  0.007176  -0.02126  -0.02046  0.02656  0.7364  -0.1972
6.278e+09  0.7628  0.348  0.0008262  -0.009143  0.01714  0.008342  0.5941  -0.4667
6.279e+09  0.827  -0.01368  -0.01233  0.0157  -0.02502  0.001619  0.4391  -0.6577
6.28e+09  0.7351  -0.2494  -0.01908  -0.03723  0.03567  -8.72e-05  0.1554  -0.7396
6.281e+09  0.6641  -0.5088  0.01104  0.005639  -0.01319  -0.01724  -0.1104  -0.74
6.282e+09  0.4293  -0.7035  -0.00396  0.01938  -0.01898  0.02184  -0.3601  -0.6822
6.284e+09  0.2002  -0.873  -0.02451  -0.02397  0.06126  -0.05381  -0.5649  -0.5009
6.285e+09  -0.1615  -0.7593  -0.01484  0.00285  0.004628  -0.04113  -0.702  -0.2674
6.286e+09  -0.3223  -0.7411  0.004006  0.003582  -0.02307  -0.05131  -0.7789  -0.01085
6.288e+09  -0.5777  -0.5393  0.00654  -0.02352  -0.04544  0.01257  -0.7487  0.2746
6.289e+09  -0.7954  -0.2966  -0.01862  -0.0002648  -0.0419  -0.008959  -0.6049  0.4969
6.29e+09  -0.7897  -0.02028  0.0267  0.01632  0.02001  -0.05508  -0.4375  0.6666
6.291e+09  -0.8266  0.28  -0.01074  0.02314  0.026  -0.04146  -0.1782  0.8182
6.292e+09  -0.597  0.5519  -0.01885  0.009865  0.005855  -0.02812  0.1365  0.8252
6.294e+09  -0.3934  0.7019  0.002766  -0.01562  0.01405  -0.05181  0.398  0.7332
6.295e+09  -0.1042  0.7528  -0.02491  0.003399  0.003086  0.01564  0.6035  0.5437
6.296e+09  0.1782  0.7898  -0.007481  -0.02587  -0.002193  0.0291  0.7326  0.3242
6.298e+09  0.4103  0.7209  0.00483  0.02185  0.0737  -0.04177  0.8208  -0.00955
6.299e+09  0.6313  0.5152  -0.004925  0.02931  -0.007065  -0.03767  0.7822  -0.287
6.3e+09  0.804  0.2654  0.01329  0.004245  -0.03034  0.0103  0.6527  -0.5138
6.301e+09  0.8011  -0.02113  -0.03891  0.01926  -0.001493  0.001635  0.4222  -0.735
6.302e+09  0.6873  -0.2552  -0.01364  -0.01636  0.03576  -0.02591  0.1143  -0.8155
6.304e+09  0.577  -0.5847  -0.02601  0.0173  0.06189  -0.03524  -0.1274  -0.8122
6.305e+09  0.3591  -0.7361  0.008898  0.007057  -0.006136  0.03879  -0.4294  -0.7428
6.306e+09  0.05607  -0.8021  0.01602  -0.00669  0.02982  0.01751  -0.6512  -0.555
6.308e+09  -0.1819  -0.7829  -0.0366  0.008613  0.03374  -0.02032  -0.7606  -0.3038
6.309e+09  -0.488  -0.6881  0.01075  0.02185  0.01286  -0.04432  -0.8675  -0.02714
6.31e+09  -0.6452  -0.4557  0.01465  -0.01104  0.05876  0.004344  -0.8063  0.2763
6.311e+09  -0.7693  -0.2025  -0.01514  -0.004297  -0.02841  -0.01075  -0.6694  0.5534
6.312e+09  -0.8449  0.07388  -0.004509  -0.01379  -0.03516  -0.01251  -0.4623  0.7711
6.314e+09  -0.7191  0.3358  0.01435  -0.02676  -0.02925  -0.01192  -0.1478  0.8691
6.315e+09  -0.6046  0.5895  0.006128  -0.004734  -0.01895  -0.01545  0.1263  0.8546
6.316e+09  -0.2886  0.7217  0.007169  0.001604  0.01145  0.01886  0.4148  0.7725
6.318e+09  -0.05963  0.8555  -0.001836  0.03289  -0.05363  -0.01328  0.6848  0.5716
6.319e+09  0.2498  0.7611  0.007227  -0.002606  0.01344  -0.01018  0.8303  0.2939
6.32e+09  0.5289  0.6632  -0.0293  -0.005382  0.02919  -0.001439  0.853  0.02687
6.321e+09  0.6573  0.4368  0.00451  0.004109  0.01602  0.006959  0.8371  -0.2813
6.322e+09  0.7834  0.1547  -0.01303  -0.005894  -0.001981  0.006966  0.6533  -0.5754
6.324e+09  0.7859  -0.1044  -0.00735  0.01171  -0.027  0.0006445  0.4956  -0.7482
6.325e+09  0.7492  -0.4097  -0.001934  -0.003049  0.01252  -0.004055  0.1522  -0.8732
6.326e+09  0.5403  -0.6201  0.01936  0.006061  0.01793  0.03079  -0.1095  -0.8641
6.328e+09  0.3142  -0.7597  0.000272  0.0002225  -0.004468  -0.007651  -0.4416  -0.7748
6.329e+09  -0.02872  -0.874  -0.02754  -0.04577  0.009663  0.007754  -0.6753  -0.5974
6.33e+09  -0.3004  -0.7899  0.03108  0.01787  -0.01149  0.02455  -0.8544  -0.3159
6.331e+09  -0.5765  -0.6415  -0.0001461  0.01216  -0.01708  0.01224  -0.9178  0.0008483
6.332e+09  -0.7273  -0.396  -0.01238  0.02452  -0.01702  -0.03141  -0.8775  0.2768
6.334e+09  -0.8381  -0.1443  -0.01977  -0.00886  0.02756  -0.01755  -0.7286  0.5632
6.335e+09  -0.8344  0.1466  0.008781  0.0116  -0.02694  0.0319  -0.4804  0.7543
6.336e+09  -0.7018  0.4687  -0.004608  -0.00103  -0.01016  0.01924  -0.1868  0.89
6.338e+09  -0.4875  0.6706  -0.01299  -0.01287  0.03378  0.08159  0.09066  0.9157
6.339e+09  -0.2666  0.7955  0.02304  0.007905  -0.02002  0.06979  0.4327  0.8313
6.34e+09  0.0331  0.8495  -0.01318  -0.01877  0.02396  0.01389  0.6742  0.607
6.341e+09  0.3217  0.7591  0.00154  -0.006537  -0.0268  0.01435  0.8486  0.3653
6.342e+09  0.6411  0.6115  -0.006289  0.02765  -0.02621  -0.00474  0.9127  0.03545
6.344e+09  0.7539  0.3355  0.008757  -0.004118  0.01679  -0.005833  0.9166  -0.2626
6.345e+09  0.8655  0.08719  -0.004022  0.00893  -0.007087  -0.006877  0.755  -0.5422
6.346e+09  0.8064  -0.2419  -0.007332  -0.01885  -0.01499  -0.005556  0.502  -0.7803
6.348e+09  0.7221  -0.5127  -0.02781  -0.0215  0.01006  0.0009925  0.2201  -0.9158
6.349e+09  0.4479  -0.6842  -0.00877  -0.02118  0.004971  0.02388  -0.128  -0.9605
6.35e+09  0.1794  -0.8489  0.02173  0.02826  -0.002367  0.01674  -0.3913  -0.8401
6.351e+09  -0.0723  -0.8869  0.001538  0.02649  -0.03884  -0.005512  -0.6702  -0.6228
6.352e+09  -0.4096  -0.7571  0.02681  0.01144  0.03766  -0.01533  -0.8832  -0.3639
6.354e+09  -0.683  -0.589  -0.02309  0.008671  -0.03111  -0.006343  -0.9501  -0.08993
6.355e+09  -0.8393  -0.3007  0.005528  0.0246  0.01878  -0.01346  -0.895  0.2308
6.356e+09  -0.8538  -0.06149  0.003584  -0.01806  0.0139  0.007463  -0.7617  0.5572
6.358e+09  -0.8064  0.2842  -0.005148  -0.003044  0.03999  -0.01425  -0.5498  0.7549
6.359e+09  -0.6628  0.5787  0.002557  0.008545  -0.032  -0.00141  -0.2359  0.8751
6.36e+09  -0.4131  0.7602  0.01365  0.05122  0.01393  0.05382  0.1112  0.955
6.361e+09  -0.1379  0.9157  -0.006734  0.004402  0.01259  0.001268  0.3409  0.8331
6.362e+09  0.1728  0.861  -0.007267  -0.03124  -0.01272  -0.03106  0.6894  0.6279
6.364e+09  0.4416  0.7607  0.006058  0.0004171  -0.06198  0.01802  0.8596  0.3936
6.365e+09  0.6886  0.5525  0.02734  -0.01839  -0.01677  -2.939e-05  0.9319  0.08644
6.366e+09  0.8352  0.2741  0.009858  -0.02261  -0.001425  0.04505  0.9226  -0.2266
6.368e+09  0.8374  -0.06016  0.01717  -0.006596  0.01279  -0.0008972  0.7669  -0.5228
6.369e+09  0.7965  -0.3247  0.03045  -0.007078  0.04218  -0.01421  0.5613  -0.7753
6.37e+09  0.6172  -0.5709  -0.004236  0.05138  0.002012  0.01282  0.2458  -0.9254
6.371e+09  0.4111  -0.7693  -0.01189  0.002911  -0.03961  0.0183  -0.07484  -0.8978
6.372e+09  0.114  -0.8266  0.03969  -0.007258  -0.01806  0.02628  -0.3825  -0.8579
6.374e+09  -0.1942  -0.9007  -0.02431  -0.000822  0.006278  -0.02447  -0.6552  -0.6275
6.375e+09  -0.4278  -0.696  0.01958  -0.003295  -0.01427  0.01114  -0.8494  -0.425
6.376e+09  -0.7064  -0.5027  -0.01126  0.02692  0.02186  0.02195  -0.9087  -0.08593
6.378e+09  -0.8352  -0.2179  -0.03125  0.02644  0.008224  0.05664  -0.9425  0.2511
6.379e+09  -0.879  0.04461  0.01711  9.589e-05  0.01844  -0.03053  -0.8096  0.5156
6.38e+09  -0.81  0.3473  -0.02006  -0.02012  -0.02338  -0.006301  -0.6234  0.7782
6.381e+09  -0.625  0.6207  0.02096  -0.00964  -0.01485  -0.02432  -0.2201  0.8986
6.382e+09  -0.3889  0.79  0.03388  0.01938  -0.04464  -0.005516  0.04271  0.9869
6.384e+09  -0.07905  0.8259  0.02807  0.01232  0.007027  -0.006998  0.3685  0.8589
6.385e+09  0.2504  0.831  0.01807  0.008259  -0.02714  0.03649  0.61  0.6737
6.386e+09  0.509  0.6957  -0.03616  -0.008121  0.002105  -0.02756  0.8479  0.4116
6.388e+09  0.7182  0.5074  -0.02405  -0.01855  0.01997  -0.04295  0.9075  0.0872
6.389e+09  0.8713  0.1838  0.01022  0.04905  -0.001744  -0.01419  0.8893  -0.228
6.39e+09  0.8517  -0.1222  0.0144  -0.03187  -0.03996  -0.02689  0.7488  -0.5378
6.391e+09  0.7512  -0.3738  0.01653  0.01599  0.01796  -0.007309  0.5738  -0.705
6.392e+09  0.573  -0.6645  0.01895  0.003089  -0.001857  -0.01758  0.2896  -0.9228
6.394e+09  0.3419  -0.7658  -0.003707  -0.03064  0.0001749  0.0192  0.002453  -0.9343
6.395e+09  0.05866  -0.8824  -0.01184  0.01406  0.01211  0.02259  -0.3488  -0.9086
6.396e+09  -0.2712  -0.8277  -0.01472  -0.03138  0.0281  0.0738  -0.6311  -0.7104
6.398e+09  -0.58  -0.7044  0.0128  0.01261  0.02847  -0.01194  -0.7691  -0.4388
6.399e+09  -0.7377  -0.4422  0.006234  -0.02058  -0.04647  -0.005329  -0.9147  -0.167
6.4e+09  -0.8746  -0.2103  0.02109  0.02863  -0.00451  0.05478  -0.8918  0.1375
6.401e+09  -0.8724  0.1185  0.02742  -0.02106  -0.01978  0.01504  -0.7778  0.4287
6.402e+09  -0.7823  0.3867  0.005103  0.0166  0.03239  -0.02425  -0.5746  0.7363
6.404e+09  -0.5552  0.6554  0.01798  -0.006374  -0.002678  -0.004054  -0.3467  0.8071
6.405e+09  -0.2873  0.7746  -0.03066  0.000152  -0.01207  0.02957  0.004912  0.9206
6.406e+09  0.005308  0.8072  0.01017  -0.009584  -0.009741  -0.009573  0.3295  0.8747
6.408e+09  0.2293  0.7806  0.02881  -0.01059  -0.002134  -0.05361  0.5666  0.6935
6.409e+09  0.5216  0.6377  -0.0003659  0.006298  -0.006871  0.03074  0.7889  0.4793
6.41e+09  0.7022  0.454  -0.04728  -0.002212  0.007398  0.05831  0.9034  0.1916
6.411e+09  0.8511  0.218  -0.02137  -0.004368  0.02309  -0.0004301  0.9215  -0.1502
6.412e+09  0.8293  -0.1324  -0.01774  0.01652  0.00572  -0.01371  0.7989  -0.4374
6.414e+09  0.7114  -0.3845  -0.05426  -0.01374  0.01261  -0.02041  0.6132  -0.6399
6.415e+09  0.5422  -0.6534  0.0302  0.01132  -0.02719  0.01689  0.2995  -0.8233
6.416e+09  0.2971  -0.811  0.01305  -0.02153  0.007885  -0.003397  0.03263  -0.8835
6.418e+09  -0.008748  -0.8856  0.02735  -0.01717  0.007491  0.02161  -0.19  -0.8479
6.419e+09  -0.3332  -0.8518  -0.0107  0.006077  -0.04366  -0.009709  -0.5262  -0.731
6.42e+09  -0.5284  -0.6846  0.02484  0.01009  -0.02737  -0.02392  -0.7633  -0.4772
6.421e+09  -0.7485  -0.417  0.008024  -0.02218  0.03966  -0.0173  -0.9209  -0.1863
6.422e+09  -0.8825  -0.1271  -0.001332  -0.02688  -0.03318  0.01736  -0.8599  0.105
6.424e+09  -0.8554  0.1566  0.01442  -0.01136  0.06312  0.03032  -0.7644  0.3869
6.425e+09  -0.7893  0.4315  0.023  0.03765  0.005108  0.02853  -0.6332  0.5948
6.426e+09  -0.5768  0.6519  -0.02455  -0.01454  -0.03024  -0.0003546  -0.3458  0.7967
6.428e+09  -0.2582  0.8195  0.009091  0.03518  -0.002991  0.03517  -0.06716  0.8462
6.429e+09  0.05165  0.8277  0.02899  0.02122  -0.04415  -0.007988  0.2493  0.8484
6.43e+09  0.3323  0.795  0.01298  -0.02328  0.05738  0.0007862  0.4978  0.6785
6.431e+09  0.6017  0.626  -0.01787  0.01035  -0.004634  0.016  0.771  0.4374
6.432e+09  0.7619  0.4147  0.03973  0.05076  0.02857  0.01699  0.8342  0.2006
6.434e+09  0.8623  0.05347  -0.005155  -0.0268  -0.04612  -0.03036  0.8687  -0.1245
6.435e+09  0.8705  -0.1585  0.02846  0.02253  -0.00295  -0.04246  0.8149  -0.4009
6.436e+09  0.7644  -0.5068  -0.02333  0.01048  -0.01543  0.007457  0.5793  -0.5764
6.438e+09  0.5127  -0.6257  -0.0277  0.0008807  0.006117  0.01439  0.3611  -0.7581
6.439e+09  0.2573  -0.8111  -0.02152  -0.01087  -0.03375  -0.006172  0.04857  -0.8636
6.44e+09  -0.03935  -0.9167  -0.009661  -0.01554  0.05237  -0.02599  -0.2361  -0.8479
6.441e+09  -0.3398  -0.8085  -0.007462  0.03104  -0.01696  -0.05188  -0.4981  -0.6777
6.442e+09  -0.5468  -0.6179  0.03057  0.002179  -0.03973  0.003273  -0.7163  -0.4814
6.444e+09  -0.7765  -0.3571  0.01194  -0.02265  -0.01843  -0.01707  -0.8216  -0.1788
6.445e+09  -0.8432  -0.1206  -0.001543  0.009385  0.01491  0.02234  -0.8099  0.08094
6.446e+09  -0.8458  0.2138  -0.05937  -0.01707  0.01414  -0.001782  -0.7363  0.3401
6.448e+09  -0.7189  0.5057  0.01281  0.01253  -0.01469  0.001981  -0.6153  0.5664
6.449e+09  -0.5641  0.678  -0.02586  0.03631  -0.04368  -0.007554  -0.3338  0.8061
6.45e+09  -0.2509  0.8276  0.009991  0.04252  -0.01165  -0.01504  -0.09702  0.8254
6.451e+09  0.05148  0.9443  0.009999  0.02746  -0.07226  0.004495  0.2183  0.7444
6.452e+09  0.3482  0.7625  -0.003082  0.01194  0.008636  -0.01579  0.4869  0.6917
6.454e+09  0.568  0.6223  0.0187  -0.02197  0.04204  -0.003844  0.6478  0.4696
6.455e+09  0.8231  0.3894  0.0342  -0.0334  -0.01759  -0.03984  0.7804  0.2542
6.456e+09  0.8539  0.1711  0.003072  -0.02202  -0.03024  -0.007971  0.7652  -0.1031
6.458e+09  0.8412  -0.2043  -0.00873  0.007216  0.01024  0.02976  0.7255  -0.383
6.459e+09  0.674  -0.4611  0.02418  0.01152  0.01122  -0.001636  0.5693  -0.6066
6.46e+09  0.5061  -0.7422  -0.03396  0.01934  0.01063  -0.005238  0.3417  -0.7375
6.461e+09  0.2393  -0.8366  -0.01972  0.05544  -0.03863  0.0007704  0.1219  -0.8754
6.462e+09  -0.05946  -0.8951  -0.007954  0.02712  0.001047  0.03063  -0.1983  -0.7931
6.464e+09  -0.4026  -0.8495  -0.004899  -0.03206  0.04289  0.00992  -0.4965  -0.6703
6.465e+09  -0.5854  -0.6288  -0.01538  0.006975  0.02178  0.02504  -0.6397  -0.4896
6.466e+09  -0.8097  -0.3698  -0.008683  -0.004758  0.02663  -0.0099  -0.7484  -0.222
6.468e+09  -0.8506  -0.05686  0.05323  0.0028  0.01976  0.02511  -0.7742  0.1019
6.469e+09  -0.8859  0.2232  0.001822  0.008215  0.0191  0.03344  -0.7269  0.3167
6.47e+09  -0.671  0.5838  0.01502  -0.01217  -0.03697  0.02827  -0.5646  0.5685
6.471e+09  -0.5192  0.7678  -0.02504  0.002837  -6.128e-05  0.02024  -0.3374  0.7122
6.472e+09  -0.2592  0.8268  0.01551  -0.008959  0.02681  -0.01699  -0.06273  0.8291
6.474e+09  0.07652  0.8962  0.008987  -0.04027  0.001463  -0.05033  0.1847  0.7946
6.475e+09  0.3864  0.8432  -0.007303  0.01479  -0.05903  -0.004385  0.482  0.6589
6.476e+09  0.6196  0.6289  -0.008406  -0.01386  -0.02172  -0.001146  0.6502  0.459
6.478e+09  0.8351  0.3924  -0.01157  -0.004208  -0.02783  0.03545  0.7889  0.2093
6.479e+09  0.9087  0.03109  0.009794  0.003101  -0.008645  0.01524  0.7667  -0.04656
6.48e+09  0.9013  -0.2271  -0.03454  0.02953  0.06076  -0.01022  0.6997  -0.3511
6.481e+09  0.7108  -0.5364  0.03058  0.003276  0.02385  -0.03053  0.5531  -0.5126
6.482e+09  0.4549  -0.801  0.008318  0.001231  -0.03325  0.02504  0.3308  -0.7412
6.484e+09  0.1999  -0.8962  -0.02376  0.02448  0.02536  0.04496  0.02229  -0.7567
6.485e+09  -0.1318  -0.888  0.01791  -0.01801  -0.03408  -0.003254  -0.2185  -0.7223
6.486e+09  -0.4461  -0.7759  -0.02115  -0.006107  -0.007977  0.02491  -0.4458  -0.6771
6.488e+09  -0.977  -1.222  -0.01641  -0.04633  0.6338  -0.3805  -0.5683  -0.4337
6.489e+09  -0.7897  -0.3108  -0.04835  -0.01204  0.005449  0.02341  -0.763  -0.1807
6.49e+09  -0.9394  -0.01046  -0.007894  -0.006591  -0.03391  0.01183  -0.7849  0.09575
6.491e+09  -0.8976  0.2929  0.01688  0.006996  -0.02197  0.02828  -0.6796  0.3086
6.492e+09  -0.6946  0.5807  -0.02514  0.04153  0.03319  -0.0168  -0.524  0.5746
6.494e+09  -0.4426  0.884  -0.01901  0.01964  -0.02089  -0.07353  -0.3001  0.7171
6.495e+09  -0.2032  0.8938  0.008239  0.01748  -0.0116  -0.006412  -0.0824  0.7771
6.496e+09  0.1558  0.902  0.02378  0.03128  0.01772  0.0009615  0.2229  0.7579
6.498e+09  0.4026  0.7456  -0.01977  0.02017  0.03578  -0.04884  0.468  0.6075
6.499e+09  0.7172  0.6059  -0.007156  0.02885  -0.0237  -0.01126  0.6493  0.4162
6.5e+09  0.8244  0.2271  0.008928  0.001723  -0.05233  -0.002231  0.7617  0.2022
6.501e+09  0.9237  -0.003556  -0.01837  -0.008671  -0.01185  -0.02609  0.7759  -0.05609
6.502e+09  0.8788  -0.3392  -0.0207  -0.01323  0.03566  0.02879  0.6781  -0.3635
6.504e+09  0.7166  -0.6302  0.02531  0.02201  -0.02739  0.005055  0.4968  -0.5687
6.505e+09  0.4536  -0.8716  0.01224  -0.03248  0.01002  -0.01808  0.26  -0.6726
6.506e+09  0.1669  -0.9025  0.0214  -0.01263  -0.003485  -0.001397  0.05757  -0.7825
6.508e+09  -0.1953  -0.9376  0.04145  -0.002584  0.008891  -0.001316  -0.2316  -0.7151
6.509e+09  -0.5318  -0.7664  -0.02722  0.0002692  -0.05512  0.01502  -0.4922  -0.57
6.51e+09  -0.7469  -0.538  -0.041  0.006567  -0.0241  -0.0288  -0.6814  -0.371
6.511e+09  -0.867  -0.281  0.0123  -0.001649  0.01993  0.01289  -0.6955  -0.1386
6.512e+09  -0.9331  0.1151  0.01779  -0.0003138  0.03028  -0.04106  -0.7567  0.1638
6.514e+09  -0.8159  0.376  -0.006687  0.017  -0.0003408  -0.05153  -0.6263  0.3696
6.515e+09  -0.6371  0.6782  -0.0008618  -0.003076  0.026  -0.06993  -0.4785  0.5432
6.516e+09  -0.4473  0.9083  0.009655  -0.013  0.0221  -0.02509  -0.2208  0.7593
6.518e+09  -0.05646  0.9132  0.01836  0.04019  0.07172  0.02937  -0.00368  0.7192
6.519e+09  0.3032  0.9112  0.01798  0.002858  0.01387  -0.04733  0.3223  0.6899
6.52e+09  0.6055  0.725  -0.01529  0.03415  -0.03169  0.009106  0.4634  0.5227
6.521e+09  0.802  0.4792  -0.005152  -0.01324  -0.004291  -0.0178  0.6938  0.3447
6.522e+09  0.9155  0.1712  -0.01995  0.02507  -0.03215  -0.0212  0.7545  0.06985
6.524e+09  0.89  -0.1227  0.008434  0.02447  0.0704  -0.00642  0.6652  -0.1889
6.525e+09  0.8037  -0.5002  0.03048  0.04483  -0.05802  -0.004586  0.6163  -0.3966
6.526e+09  0.6466  -0.6926  -0.01807  -0.006466  0.003421  0.04549  0.4234  -0.5555
6.528e+09  0.3319  -0.8803  -0.04328  0.02543  0.009244  -0.04421  0.199  -0.6713
6.529e+09  -0.02855  -0.9479  0.0252  0.01114  -0.05282  -0.0003976  -0.03553  -0.7255
6.53e+09  -0.3698  -0.8917  -0.003159  -0.007471  0.02113  0.01141  -0.2774  -0.6413
6.531e+09  -0.6281  -0.7264  0.03596  -0.01906  0.04476  -0.04276  -0.5119  -0.4734
6.532e+09  -0.8362  -0.4265  -0.007749  -0.004614  6.236e-05  0.01816  -0.5925  -0.2966
6.534e+09  -0.9156  -0.07292  0.001405  0.00658  0.01493  -0.03333  -0.629  -0.1327
6.535e+09  -0.9262  0.2006  -0.01387  0.031  0.04648  0.02174  -0.6526  0.1814
6.536e+09  -0.7526  0.5456  -0.0001136  0.005486  -0.05944  -0.01205  -0.5523  0.284
6.538e+09  -0.5124  0.7609  0.02259  -0.02627  0.0157  0.002789  -0.4681  0.4941
6.539e+09  -0.2419  0.8261  7.797e-05  0.01008  -0.06085  0.005606  -0.256  0.614
6.54e+09  0.08854  0.9101  -0.01691  0.004458  0.008661  0.02388  -0.02239  0.6882
6.541e+09  0.4089  0.8616  -0.01164  0.02871  0.01151  0.004175  0.1813  0.6808
6.542e+09  0.6634  0.6139  0.02195  0.02472  0.006835  0.002608  0.3776  0.5563
6.544e+09  0.8663  0.3502  0.01496  0.003638  -0.02571  -0.06873  0.5718  0.394
6.545e+09  0.9411  0.03282  -0.04534  -0.005149  0.002759  -0.02489  0.6791  0.1402
6.546e+09  0.865  -0.3231  0.02378  -0.02158  -0.001056  0.02307  0.7235  -0.1069
6.548e+09  0.7876  -0.5905  -0.01107  -0.02105  -0.01035  -0.01549  0.7076  -0.3336
6.549e+09  0.4376  -0.7459  -0.005368  -0.0149  0.01508  -0.01633  0.5079  -0.5197
6.55e+09  0.1823  -0.8501  -0.02828  -0.02311  0.001153  0.00388  0.3035  -0.6507
