# Hz S RI R 50
6.25e+09  -0.707  0.3507  0.038  -0.02774  -0.02035  0.03071  0.164  0.4767
6.251e+09  -0.5219  0.6519  -0.002783  0.01399  0.06824  -0.03121  0.4022  0.4059
6.252e+09  -0.2977  0.7404  -0.007138  -0.006897  0.01267  -0.02629  0.5514  0.2056
6.254e+09  0.005177  0.8506  -0.01177  0.01919  0.02622  -0.02352  0.575  -0.03412
6.255e+09  0.3275  0.7739  -0.005192  -0.002942  -0.03963  0.044  0.5568  -0.2121
6.256e+09  0.4935  0.6011  0.004477  -0.001106  0.02024  0.009461  0.4722  -0.4284
6.258e+09  0.6948  0.3916  0.001391  -0.0206  -0.03542  0.002115  0.284  -0.6149
6.259e+09  0.7915  0.1586  0.009941  0.02276  -0.002423  -0.03749  0.03242  -0.6382
6.26e+09  0.8018  -0.1357  0.03677  0.0161  -0.02405  0.009258  -0.2079  -0.6367
6.261e+09  0.682  -0.4418  0.009732  0.01542  -0.03933  0.005867  -0.4112  -0.5598
6.262e+09  0.4831  -0.6177  0.009615  0.01683  0.03594  0.03145  -0.5836  -0.3584
6.264e+09  0.2774  -0.8087  -0.02136  0.008168  0.01953  0.04486  -0.7194  -0.09086
6.265e+09  -0.02361  -0.8357  -0.01042  -0.006557  -0.01772  0.02957  -0.7177  0.1671
6.266e+09  -0.2753  -0.7739  -0.0193  -0.01529  -0.008385  -0.03806  -0.5917  0.3848
6.268e+09  -0.5268  -0.613  0.002315  -0.01985  -0.04231  0.0002379  -0.4425  0.6085
6.269e+09  -0.7105  -0.3996  -0.0128  0.007339  0.02041  -0.01853  -0.2243  0.6872
6.27e+09  -0.7768  -0.1258  0.01784  -0.009862  -0.03782  -0.02554  0.05493  0.7064
6.271e+09  -0.7822  0.1685  -0.0041  -0.002094  -5.226e-05  -0.0005503  0.3303  0.6518
6.272e+09  -0.6909  0.407  -0.00204  0.02889  0.01458  -0.02078  0.5265  0.5281
6.274e+09  -0.5298  0.634  0.01197  0.006253  -0.006506  0.04311  0.6795  0.3147
6.275e+09  -0.3006  0.7442  0.03559  0.02517  -0.0248  0.02621  0.7337  0.04701
6.276e+09  0.0333  0.8037  0.005551  -0.009012  0.02238  0.02566  0.7564  -0.2312
6.278e+09  0.259  0.7536  0.006691  0.001433  -0.08768  0.03699  0.611  -0.4527
6.279e+09  0.4845  0.6319  0.00106  0.005779  -0.0002445  0.03716  0.4185  -0.6547
6.28e+09  0.7498  0.3891  0.03746  0.005024  -0.03251  -0.02215  0.1764  -0.7568
6.281e+09  0.7576  0.08912  0.01256  0.01132  -0.03634  -0.0269  -0.1376  -0.7508
6.282e+09  0.7976  -0.1085  0.002214  -0.01782  0.03084  -0.01844  -0.3767  -0.6793
6.284e+09  0.6828  -0.4368  0.05627  -0.01341  -0.03941  -0.01979  -0.5471  -0.5405
6.285e+09  0.455  -0.6398  -0.01934  0.002279  0.0009609  -0.01082  -0.7231  -0.2823
6.286e+09  0.2718  -0.7731  -0.004073  0.02416  0.00898  -0.01862  -0.7889  -0.008882
6.288e+09  -0.006412  -0.8363  -0.00652  0.001147  -0.02961  -0.01505  -0.7761  0.2704
6.289e+09  -0.3183  -0.7322  0.003859  0.03033  -0.02224  0.0215  -0.6293  0.4987
6.29e+09  -0.5366  -0.6052  -0.02903  0.003289  -0.01352  -0.0393  -0.4128  0.6988
6.291e+09  -0.6934  -0.3596  -0.01469  -0.01861  0.0374  -0.06852  -0.1483  0.8025
6.292e+09  -0.8286  -0.1243  0.01217  0.0003731  0.02662  -0.03667  0.1127  0.8153
6.294e+09  -0.7973  0.1857  0.02654  -0.04377  0.03099  -0.03045  0.3901  0.6905
6.295e+09  -0.6256  0.4278  -0.008624  -0.001089  -0.06282  0.03666  0.5968  0.5411
6.296e+09  -0.5073  0.5982  0.01151  0.01318  0.004348  -0.03826  0.747  0.2958
6.298e+09  -0.2231  0.7185  0.01098  0.02002  -0.02462  0.03899  0.8372  0.006841
6.299e+09  0.006671  0.7972  -0.0114  0.006115  -0.007098  0.002977  0.7835  -0.2558
6.3e+09  0.3216  0.7929  -0.01538  -0.0214  -0.04804  0.01369  0.6632  -0.5433
6.301e+09  0.5441  0.5952  -0.02411  0.00159  -0.01919  -0.0213  0.423  -0.7139
6.302e+09  0.7041  0.3782  0.004647  0.01819  0.01417  0.03281  0.15  -0.8118
6.304e+09  0.7963  0.03192  -0.03011  0.0009428  0.008559  0.00601  -0.1414  -0.8347
6.305e+09  0.7904  -0.2363  -0.005784  0.01319  0.00566  0.03673  -0.4236  -0.7369
6.306e+09  0.6396  -0.4237  0.05092  0.005822  -0.02747  -0.02041  -0.6207  -0.549
6.308e+09  0.4661  -0.6361  -0.01502  0.01241  -0.01195  0.01142  -0.8122  -0.3074
6.309e+09  0.1559  -0.7848  -0.005304  0.0065  0.01004  -0.02588  -0.832  0.01031
6.31e+09  -0.122  -0.7915  -0.002492  -0.02016  -0.009985  0.002787  -0.7889  0.2826
6.311e+09  -0.351  -0.731  0.01596  -0.01282  -0.02907  -0.02286  -0.649  0.5689
6.312e+09  -0.5531  -0.539  -0.005113  -0.003257  -0.02687  0.04873  -0.4375  0.7338
6.314e+09  -0.7251  -0.3516  -0.01213  0.003856  -0.02487  0.06476  -0.1708  0.8575
6.315e+09  -0.8219  -0.06363  -0.01789  -0.005876  0.04791  0.02589  0.1398  0.8712
6.316e+09  -0.777  0.2581  -0.01681  0.008063  0.007009  -0.006096  0.4359  0.7731
6.318e+09  -0.6291  0.4781  0.02341  0.01285  0.01988  0.00511  0.6626  0.5328
6.319e+09  -0.4236  0.7034  -0.03366  -0.01325  0.00267  0.009399  0.8202  0.3298
6.32e+09  -0.1272  0.8013  -0.004341  0.0371  -0.008135  -0.01662  0.8842  -0.01091
6.321e+09  0.1424  0.8073  -0.01284  -0.007014  -0.02212  0.02487  0.8288  -0.2804
6.322e+09  0.4275  0.6805  0.01912  0.01475  -0.008857  0.004435  0.7186  -0.5677
6.324e+09  0.613  0.5256  0.002229  -0.0264  0.01443  -0.04316  0.4301  -0.771
6.325e+09  0.7156  0.3114  0.01681  -0.01295  0.02644  0.01182  0.1822  -0.8208
6.326e+09  0.8288  -0.009661  0.01507  0.006891  -0.01072  -0.001487  -0.1543  -0.8865
6.328e+09  0.7589  -0.2747  0.04083  -0.01653  0.02806  0.02963  -0.4255  -0.8055
6.329e+09  0.6262  -0.5316  -0.009515  -0.004015  -0.02905  -0.004168  -0.6748  -0.5922
6.33e+09  0.4034  -0.7332  -0.009849  -0.0182  -0.03926  0.04559  -0.831  -0.3461
6.331e+09  0.1559  -0.7791  -0.006754  0.005194  0.0002863  0.03818  -0.8816  -0.04875
6.332e+09  -0.09319  -0.789  -0.01948  -0.005478  0.01786  0.03562  -0.8651  0.3018
6.334e+09  -0.4436  -0.7186  0.006803  -0.02369  -0.008553  0.00624  -0.7028  0.5648
6.335e+09  -0.6722  -0.5063  -0.006744  0.005475  -0.008636  0.001994  -0.5096  0.7722
6.336e+09  -0.8052  -0.2466  -0.02875  0.01039  -0.01331  0.02956  -0.1947  0.8862
6.338e+09  -0.8331  0.08035  0.02198  -0.007457  0.02856  -0.03244  0.1294  0.8866
6.339e+09  -0.8306  0.3296  0.01459  -0.01202  0.009795  0.01427  0.4401  0.8281
6.34e+09  -0.6293  0.5936  -0.01963  -0.01893  -0.005882  -0.01703  0.642  0.5982
6.341e+09  -0.3878  0.709  -0.03858  -0.01441  -0.002012  -0.03662  0.8658  0.3605
6.342e+09  -0.1012  0.8456  -0.01068  -0.002928  0.02853  0.002493  0.9366  0.05428
6.344e+09  0.2088  0.8279  -0.03484  0.01808  -0.03793  0.01845  0.8953  -0.2591
6.345e+09  0.5115  0.6148  0.02175  -0.01823  -0.02179  -0.00531  0.7411  -0.5478
6.346e+09  0.6717  0.4459  0.01355  0.01185  -0.0006026  0.006287  0.4838  -0.8209
6.348e+09  0.8311  0.2094  -0.006506  -0.01829  0.02415  0.02906  0.2014  -0.9011
6.349e+09  0.8074  -0.04395  -0.01182  -0.01792  0.0142  0.007468  -0.1204  -0.9235
6.35e+09  0.7666  -0.3764  0.02336  0.02074  -0.01376  -0.01383  -0.4128  -0.8783
6.351e+09  0.543  -0.664  -0.002299  -0.01407  0.004869  -0.02562  -0.6915  -0.6378
6.352e+09  0.305  -0.782  0.001979  -0.03269  -0.03833  0.04099  -0.8857  -0.3634
6.354e+09  0.02584  -0.8406  -0.03474  0.009599  0.03713  -0.01611  -0.9194  -0.06524
6.355e+09  -0.2572  -0.8435  0.008982  0.002931  -0.004383  0.02286  -0.8744  0.2295
6.356e+09  -0.5663  -0.6191  -0.03163  -0.01071  -0.01256  0.01923  -0.7928  0.5599
6.358e+09  -0.7714  -0.44  -0.02549  0.004094  -0.07139  -0.02543  -0.5348  0.7732
6.359e+09  -0.8387  -0.1391  -0.04053  0.01318  -0.03824  0.02008  -0.1991  0.9363
6.36e+09  -0.8389  0.1938  -0.008757  0.002251  -0.02578  0.004196  0.09342  0.9407
6.361e+09  -0.717  0.4722  -0.02927  0.01358  0.01883  0.01268  0.4475  0.8786
6.362e+09  -0.5473  0.6816  0.001055  0.004389  -0.04732  0.04493  0.6438  0.6308
6.364e+09  -0.2641  0.8075  -0.02153  -0.001217  -0.007181  0.005767  0.8947  0.3866
6.365e+09  0.05429  0.8387  -0.01427  0.0001171  -0.01828  -0.00556  0.8858  0.09213
6.366e+09  0.3467  0.7952  -0.02285  -0.009972  -0.02281  -0.002387  0.8962  -0.1996
6.368e+09  0.6171  0.6074  -0.002533  -0.01313  0.04491  0.0354  0.7714  -0.5547
6.369e+09  0.7644  0.4147  -0.01873  0.02834  -0.005757  0.007337  0.5111  -0.7676
6.37e+09  0.8604  0.06362  0.006625  0.01932  0.04166  0.01798  0.2155  -0.919
6.371e+09  0.8311  -0.2374  0.005851  0.01079  0.02693  -0.01063  -0.03981  -0.9499
6.372e+09  0.6769  -0.5256  -0.01958  -0.03536  0.04091  0.03414  -0.3974  -0.85
6.374e+09  0.4754  -0.6805  -0.01531  0.02187  -0.01717  -0.0299  -0.6266  -0.6821
6.375e+09  0.09914  -0.8167  -0.01181  -0.02159  0.03905  0.03917  -0.8204  -0.4166
6.376e+09  -0.1028  -0.8468  -0.01576  0.01184  0.0301  -0.02383  -0.9518  -0.0811
6.378e+09  -0.4022  -0.7774  -0.01717  0.006326  0.01461  -0.01598  -0.8947  0.2341
6.379e+09  -0.66  -0.5835  0.004929  0.03798  0.01841  -0.01723  -0.8166  0.5128
6.38e+09  -0.7998  -0.3321  -0.001619  0.01876  0.0004266  -0.02676  -0.5641  0.7799
6.381e+09  -0.8779  -0.05368  -0.0171  -0.0392  0.01165  -0.006441  -0.2785  0.9018
6.382e+09  -0.7831  0.2885  0.0124  0.003938  0.02552  0.009312  0.02533  0.9282
6.384e+09  -0.6334  0.5628  -0.01475  -0.01522  -0.0003653  0.00278  0.3589  0.8985
6.385e+09  -0.4813  0.7284  0.02805  -0.03795  -0.005509  -0.0157  0.6061  0.6917
6.386e+09  -0.129  0.8827  0.0201  0.01814  -0.01553  -0.03965  0.8278  0.4098
6.388e+09  0.1436  0.8567  0.02006  -0.007072  0.004013  0.0153  0.9116  0.156
6.389e+09  0.4246  0.7535  -0.00156  0.008139  -0.01474  -0.03278  0.9143  -0.2076
6.39e+09  0.7013  0.5008  0.0009544  0.03222  -0.04133  -0.002066  0.7848  -0.4598
6.391e+09  0.7533  0.2711  -0.03146  0.01244  0.04844  -0.0482  0.5651  -0.7073
6.392e+09  0.846  -0.02125  -0.01608  0.02531  0.008889  0.01163  0.273  -0.8495
6.394e+09  0.7802  -0.3321  0.01298  -0.01244  -0.01599  0.02946  -0.0385  -0.8996
6.395e+09  0.6004  -0.6166  0.01419  -0.04022  -0.01705  -0.01973  -0.3311  -0.7988
6.396e+09  0.4119  -0.7144  -0.01621  -0.06119  -0.03318  0.01553  -0.6246  -0.708
6.398e+09  0.1343  -0.8187  -0.01056  0.04889  -0.02519  -0.009257  -0.7911  -0.449
6.399e+09  -0.2347  -0.8252  -0.02823  -0.02229  0.03576  0.02718  -0.8853  -0.1723
6.4e+09  -0.4534  -0.6865  -0.007348  0.0149  -0.00613  0.02946  -0.9273  0.1587
6.401e+09  -0.6819  -0.4442  0.001646  -0.009666  0.01578  -0.02646  -0.7751  0.4599
6.402e+09  -0.8241  -0.2444  0.02518  -0.04048  -0.006082  0.02047  -0.605  0.7324
6.404e+09  -0.8375  0.0983  0.01911  0.01258  -0.01137  -0.0002489  -0.3414  0.8684
6.405e+09  -0.7814  0.3535  0.0004251  0.004598  -0.02051  0.0129  -0.02624  0.9289
6.406e+09  -0.5791  0.6108  -0.008607  0.0163  0.03703  -0.004849  0.2881  0.8755
6.408e+09  -0.3413  0.7506  0.01543  0.02223  -0.03337  0.03727  0.5633  0.7051
6.409e+09  -0.02813  0.7901  -0.007627  0.001768  -0.04608  -0.03748  0.8013  0.4617
6.41e+09  0.2788  0.8202  0.01554  -0.003209  -0.03355  -0.01673  0.8639  0.2319
6.411e+09  0.5303  0.6652  0.01569  0.02154  -0.03214  0.03777  0.8965  -0.09536
6.412e+09  0.7463  0.479  -0.0003967  -0.02552  -0.01676  -0.0009028  0.7716  -0.4305
6.414e+09  0.7814  0.1789  -0.0133  0.007973  -0.04481  -0.02233  0.5966  -0.6323
6.415e+09  0.8228  -0.1177  -0.03449  0.01359  -0.03024  -0.01573  0.3055  -0.8396
6.416e+09  0.7808  -0.3794  -0.02818  0.0357  -0.004456  -0.0008434  0.03957  -0.8943
6.418e+09  0.6111  -0.6631  -0.0008144  -0.001105  -0.003054  -0.001851  -0.2284  -0.8544
6.419e+09  0.2786  -0.7402  0.0143  -0.02352  0.007061  -0.03623  -0.5535  -0.6946
6.42e+09  0.03336  -0.8722  -0.02055  0.03244  -0.01086  -0.02909  -0.7194  -0.5031
6.421e+09  -0.3063  -0.8059  -0.02007  0.01701  0.01638  -0.01704  -0.867  -0.2083
6.422e+09  -0.5726  -0.6466  -0.0212  -0.0108  0.02517  0.0257  -0.8749  0.1038
6.424e+09  -0.7466  -0.4337  -0.02867  -0.01683  0.01318  -0.0003304  -0.7909  0.3504
6.425e+09  -0.8086  -0.1535  0.008587  -0.003252  -0.03138  -0.01031  -0.5734  0.6183
6.426e+09  -0.7986  0.1266  0.02551  0.02608  -0.0006324  -0.0322  -0.3571  0.8595
6.428e+09  -0.7116  0.4378  -0.03535  0.0174  0.003544  -0.01036  -0.03547  0.8501
6.429e+09  -0.5578  0.6399  0.04052  0.02251  0.0246  0.01889  0.2117  0.8681
6.43e+09  -0.2694  0.813  -0.02767  -0.02905  0.03094  0.00497  0.5241  0.6983
6.431e+09  0.003564  0.8074  -0.01284  0.02242  0.003471  -0.002555  0.7183  0.4836
6.432e+09  0.2848  0.7906  0.0316  0.04372  0.02509  0.01846  0.8095  0.2127
6.434e+09  0.5389  0.669  0.01508  0.01866  0.001987  0.01479  0.8396  -0.09884
6.435e+09  0.7318  0.4118  -0.0004065  -0.001245  -0.0473  -0.03907  0.7501  -0.3853
6.436e+09  0.8711  0.1264  -0.02803  0.01403  -0.002303  0.04446  0.6303  -0.5988
6.438e+09  0.7904  -0.1448  -0.01365  0.01228  0.007568  0.02863  0.3725  -0.782
6.439e+09  0.7207  -0.4207  0.004481  -0.01466  0.03905  0.00912  0.05947  -0.8309
6.44e+09  0.5282  -0.6798  -0.0319  -0.004323  0.01832  -0.01156  -0.2137  -0.8339
6.441e+09  0.3102  -0.8044  0.007989  -0.01237  0.04096  -0.005591  -0.5395  -0.6478
6.442e+09  -0.00552  -0.8601  -0.005197  -0.02997  0.02431  -0.0407  -0.6526  -0.4514
6.444e+09  -0.3031  -0.8059  -0.03437  0.006249  0.01604  0.06331  -0.8174  -0.1757
6.445e+09  -0.5795  -0.6321  0.02061  0.03868  -0.006998  -4.851e-06  -0.8462  0.04828
6.446e+09  -0.7829  -0.4141  0.003879  0.01287  0.01721  -0.003582  -0.7822  0.3414
6.448e+09  -0.8093  -0.1192  -0.02864  -0.03177  -0.01689  0.01518  -0.5758  0.6059
6.449e+09  -0.8607  0.2382  0.01738  0.01732  -0.01965  -0.006922  -0.3325  0.7428
6.45e+09  -0.6971  0.4564  -0.02014  -0.01598  -0.03321  0.02256  0.002565  0.7804
6.451e+09  -0.5575  0.6724  -0.0387  -0.00462  0.0121  -0.01984  0.237  0.8218
6.452e+09  -0.3339  0.8349  -0.01322  -0.009593  0.02813  0.05713  0.4748  0.6755
6.454e+09  0.03877  0.8916  -0.001031  -0.001502  0.02131  0.03314  0.6839  0.4726
6.455e+09  0.3405  0.7857  0.002749  -0.009297  -0.006921  -0.002587  0.8104  0.2072
6.456e+09  0.5683  0.607  -0.01023  -0.01179  -0.04136  0.01608  0.8048  -0.1056
6.458e+09  0.7959  0.329  0.01157  0.006243  -0.02326  0.005085  0.733  -0.3418
6.459e+09  0.7817  0.101  -0.02798  -0.00648  -0.03907  -0.04226  0.6176  -0.591
6.46e+09  0.8139  -0.2196  0.02289  -0.003481  0.0175  0.02279  0.3279  -0.7195
6.461e+09  0.7108  -0.4672  -0.04073  -0.01838  0.02742  0.01791  0.08088  -0.7863
6.462e+09  0.4909  -0.7009  -0.05881  -0.03601  -0.04108  -0.0105  -0.2581  -0.7935
6.464e+09  0.2138  -0.8242  -0.02002  -0.00935  -0.0978  -0.0148  -0.4767  -0.6747
6.465e+09  -0.06641  -0.841  -0.006542  -0.04569  0.03035  -0.02612  -0.6248  -0.438
6.466e+09  -0.3999  -0.7632  -0.05966  0.04061  0.01933  0.0389  -0.7807  -0.256
6.468e+09  -0.5879  -0.6322  0.02591  -0.02154  0.08993  0.02227  -0.8083  0.09104
6.469e+09  -0.785  -0.3755  -0.003524  0.001913  0.04968  -0.0358  -0.736  0.3163
6.47e+09  -0.8387  -0.1398  -0.01371  -0.01814  -0.02112  0.02929  -0.5141  0.5695
6.471e+09  -0.818  0.1687  0.0005587  0.001569  0.02085  -0.02604  -0.3753  0.735
6.472e+09  -0.6817  0.477  -0.01729  0.02265  -0.04258  0.02336  -0.04864  0.8091
6.474e+09  -0.4957  0.6615  -0.01223  0.0001937  0.04572  -0.01099  0.2157  0.7327
6.475e+09  -0.2045  0.7729  -0.01596  -0.0368  -0.005284  -0.02219  0.4551  0.6678
6.476e+09  0.07104  0.8189  -0.002959  -0.01871  -0.0318  0.01496  0.6683  0.4297
6.478e+09  0.3474  0.7286  -0.005548  0.03018  -0.003956  0.02947  0.7376  0.1933
6.479e+09  0.5873  0.6448  -0.01109  0.009633  0.01927  -0.01078  0.7937  -0.09083
6.48e+09  0.7621  0.3591  -0.03311  0.03835  0.02264  -0.02948  0.6815  -0.2951
6.481e+09  0.8517  0.07201  -0.02314  -0.005113  0.02386  0.01258  0.5513  -0.5478
6.482e+09  0.8216  -0.1729  -0.01728  -0.0317  0.01039  0.04506  0.3025  -0.6886
6.484e+09  0.6646  -0.4573  -0.03342  0.03638  0.06802  0.008197  0.07369  -0.7834
6.485e+09  0.4818  -0.7107  -0.02244  0.05003  -0.0005172  -0.01184  -0.2354  -0.6951
6.486e+09  0.254  -0.844  0.008526  0.02859  0.06262  -0.01499  -0.4848  -0.6259
6.488e+09  0.05593  -1.58  0.005809  0.001893  -0.6221  -0.2958  -0.6178  -0.4561
6.489e+09  -0.3497  -0.7639  0.007754  0.00627  -0.04736  0.02499  -0.7823  -0.151
6.49e+09  -0.5562  -0.5963  0.01512  -0.021  0.01247  0.01383  -0.7453  0.07313
6.491e+09  -0.7749  -0.3679  0.01669  -0.01771  -0.01155  0.0104  -0.6917  0.3342
6.492e+09  -0.8794  -0.07525  -0.01544  0.02901  -0.02132  0.04128  -0.5079  0.5639
6.494e+09  -0.7224  0.2268  -0.03149  -0.001999  -0.03217  0.02427  -0.3008  0.6935
6.495e+09  -0.6377  0.5002  0.03357  0.04301  -0.01197  -0.01106  -0.05218  0.7772
6.496e+09  -0.4529  0.7339  -0.0009497  -0.004527  -0.05945  -0.03831  0.2212  0.7544
6.498e+09  -0.1731  0.8259  0.01042  0.03257  -0.01172  0.01507  0.4627  0.647
6.499e+09  0.07139  0.8636  0.04793  -0.03689  0.004961  0.008948  0.6259  0.4211
6.5e+09  0.4448  0.7914  -0.02332  0.01081  -0.0168  -0.007521  0.761  0.1924
6.501e+09  0.6283  0.6047  0.007173  0.01611  -0.01538  -0.0139  0.7527  -0.08155
6.502e+09  0.7961  0.331  0.04926  -0.005871  0.04  -0.01767  0.6745  -0.3262
6.504e+09  0.8512  0.06767  0.03089  0.01914  -0.01502  0.0521  0.5255  -0.588
6.505e+09  0.8673  -0.2461  -0.004521  -0.01097  -0.03564  0.05589  0.2495  -0.6925
6.506e+09  0.6366  -0.5037  0.01456  0.01396  -0.02161  -0.02835  0.05701  -0.749
6.508e+09  0.4494  -0.7308  0.05457  -0.02096  0.007308  -0.004616  -0.2609  -0.702
6.509e+09  0.2033  -0.8949  -0.01587  0.01575  0.04402  0.01306  -0.4739  -0.6082
6.51e+09  -0.06052  -0.892  0.004301  -0.004208  0.006972  -0.02663  -0.6164  -0.3903
6.511e+09  -0.3729  -0.8137  0.01734  -0.01538  0.02344  -0.01779  -0.7472  -0.09272
6.512e+09  -0.6708  -0.6046  -0.03742  -0.02904  0.01475  0.01838  -0.738  0.1115
6.514e+09  -0.8264  -0.3371  0.01404  0.03617  -0.001084  -0.0078  -0.6076  0.388
6.515e+09  -0.9049  0.02216  -0.01135  0.0226  -0.01077  -0.01405  -0.4933  0.6011
6.516e+09  -0.8375  0.2694  -0.04116  -0.0166  -0.009149  0.01705  -0.2191  0.708
6.518e+09  -0.6981  0.6011  0.01645  -0.0006279  -0.04769  0.04249  0.02036  0.7717
6.519e+09  -0.4231  0.7857  0.03194  -0.01512  0.002689  0.01716  0.2702  0.725
6.52e+09  -0.2122  0.8817  -0.01758  0.001291  0.002484  -0.001208  0.4611  0.5615
6.521e+09  0.1685  0.8705  -0.001966  0.00383  0.003424  0.001473  0.6929  0.3383
6.522e+09  0.4437  0.7388  0.01579  -0.01403  0.02532  0.0301  0.7401  0.06501
6.524e+09  0.6945  0.612  -0.005234  -0.01282  -0.003344  0.01356  0.6359  -0.1476
6.525e+09  0.8755  0.3173  0.01868  -0.02088  -0.004843  -0.002613  0.639  -0.3801
6.526e+09  0.9208  -0.03656  0.008841  0.00491  0.02457  -0.04549  0.4165  -0.5853
6.528e+09  0.8423  -0.285  0.01495  0.0006542  -0.01433  -0.008596  0.1972  -0.7098
6.529e+09  0.6806  -0.5943  -0.01493  0.00778  0.003081  0.0194  -0.06155  -0.6836
6.53e+09  0.4414  -0.7866  -0.0181  -0.01612  0.02807  0.002393  -0.3026  -0.6101
6.531e+09  0.1769  -0.8721  0.04262  -0.04323  0.002326  -0.04969  -0.4615  -0.49
6.532e+09  -0.1808  -0.8909  0.04489  0.009803  0.02426  -0.0174  -0.6107  -0.3323
6.534e+09  -0.5483  -0.8115  0.002835  -0.01825  0.04934  0.03096  -0.6291  -0.07103
6.535e+09  -0.7298  -0.5838  0.009687  0.0367  0.02136  0.02372  -0.5985  0.1363
6.536e+09  -0.9153  -0.2794  -0.0019  -0.004673  -0.02163  -0.006223  -0.5643  0.3059
6.538e+09  -0.9866  0.02689  0.0127  0.001781  0.04341  0.001576  -0.4392  0.4919
6.539e+09  -0.8515  0.327  -0.01365  -0.01158  -0.001595  -0.02101  -0.2465  0.6103
6.54e+09  -0.6913  0.65  0.01064  -0.01956  -0.02255  0.02787  -0.06875  0.6626
6.541e+09  -0.4015  0.8661  0.0004132  0.02453  -0.01882  -0.06009  0.1681  0.6764
6.542e+09  -0.07627  0.904  0.02873  0.01178  -0.01422  -0.008042  0.4345  0.5634
6.544e+09  0.3147  0.8688  0.006191  -0.0298  -0.002306  -0.02732  0.5521  0.407
6.545e+09  0.5574  0.7761  -0.01133  0.02617  0.01985  -0.04298  0.7011  0.1909
6.546e+09  0.7642  0.5356  0.01025  0.02802  -0.02745  -0.0666  0.7507  -0.07869
6.548e+09  0.9208  0.1947  0.02146  -0.008211  0.05149  -0.007814  0.6628  -0.3257
6.549e+09  0.9042  -0.1133  0.01306  0.04482  -0.003018  -0.006102  0.4878  -0.5193
6.55e+09  0.8618  -0.4387  -0.004094  0.0408  -0.006181  0.03933  0.303  -0.6681
