# Hz S RI R 50
6.25e+09  -0.3796  0.7369  -0.009038  -0.008047  -0.01558  0.04005  0.1437  0.4935
6.251e+09  -0.1336  0.8619  0.00548  -0.01132  -0.0008315  0.03542  0.3714  0.4043
6.252e+09  0.1772  0.829  -0.0001806  0.005585  0.00616  0.01044  0.5436  0.2752
6.254e+09  0.4673  0.699  -0.01861  0.009275  -0.007045  -0.03247  0.6259  0.03271
6.255e+09  0.6508  0.4726  8.801e-06  0.01413  -0.03298  -0.02389  0.6313  -0.2162
6.256e+09  0.7256  0.2555  -0.007818  0.01482  -0.005151  0.03264  0.4687  -0.4495
6.258e+09  0.8328  -0.1122  0.0311  0.02335  -0.0665  -0.03856  0.2903  -0.6233
6.259e+09  0.7075  -0.3672  0.0299  0.005676  -0.0002146  0.05493  0.03386  -0.6873
6.26e+09  0.593  -0.5264  0.03678  0.01374  0.02139  -0.008077  -0.2489  -0.6551
6.261e+09  0.3317  -0.6856  -0.01584  0.01026  -0.01448  -0.0242  -0.414  -0.5237
6.262e+09  0.0847  -0.8031  0.02449  -0.001437  -0.0249  0.01436  -0.5885  -0.3328
6.264e+09  -0.2375  -0.8042  0.005131  0.004084  0.0201  -0.005499  -0.7003  -0.1164
6.265e+09  -0.407  -0.694  -0.01372  0.02348  0.03129  -0.02828  -0.7165  0.1398
6.266e+09  -0.6737  -0.4481  -0.02449  -0.006868  -0.01254  0.0112  -0.6004  0.3708
6.268e+09  -0.746  -0.2271  -0.0228  -0.01753  0.0114  -0.001103  -0.4202  0.5976
6.269e+09  -0.7834  0.1063  -0.003729  0.002063  0.01325  0.009723  -0.2137  0.6995
6.27e+09  -0.7153  0.4049  -0.00267  -0.00207  0.007698  0.00621  0.07344  0.7539
6.271e+09  -0.5178  0.5588  0.0151  0.03426  0.007112  -0.05909  0.2911  0.6714
6.272e+09  -0.378  0.7763  0.01386  0.001554  0.0414  -0.0007206  0.5207  0.5282
6.274e+09  -0.09502  0.8132  -0.01148  -0.005704  0.007984  -0.03273  0.7047  0.3082
6.275e+09  0.2038  0.751  0.01224  -0.01718  0.01147  0.0361  0.7576  0.03009
6.276e+09  0.5144  0.6918  -0.001027  0.01251  0.07412  -0.02433  0.7257  -0.213
6.278e+09  0.6647  0.4349  0.003043  -0.003092  -0.04178  0.03066  0.6132  -0.4492
6.279e+09  0.7938  0.247  -0.01103  0.03819  -0.02383  0.01642  0.4553  -0.6465
6.28e+09  0.8327  -0.1344  -0.007855  -0.001999  -0.03813  -0.01443  0.1571  -0.7429
6.281e+09  0.6904  -0.3561  -0.003599  -0.000808  0.05539  -0.03121  -0.07837  -0.7714
6.282e+09  0.5257  -0.601  0.02975  0.005142  0.02235  -0.008833  -0.3836  -0.6837
6.284e+09  0.3507  -0.7826  -0.02715  -0.01182  0.002487  -0.034  -0.5658  -0.5065
6.285e+09  0.01273  -0.8683  -0.002876  -0.003864  0.06202  -0.001623  -0.7066  -0.2792
6.286e+09  -0.2453  -0.75  0.01174  0.008702  0.01716  -0.02258  -0.811  -0.008868
6.288e+09  -0.4623  -0.6415  -0.01272  0.01065  -0.01686  0.0341  -0.7322  0.2522
6.289e+09  -0.6577  -0.4587  0.02006  -0.003851  0.03021  -0.03877  -0.6008  0.4822
6.29e+09  -0.7914  -0.209  0.008848  -0.009719  -0.02274  0.02508  -0.4038  0.7023
6.291e+09  -0.7906  0.1045  0.006746  -0.02794  0.01679  -0.04521  -0.1337  0.7895
6.292e+09  -0.6944  0.3934  -0.0318  0.00512  -0.006052  -0.02815  0.1093  0.796
6.294e+09  -0.5387  0.5733  -0.01858  0.01884  -0.04608  0.0452  0.3835  0.7349
6.295e+09  -0.2261  0.7892  -5.233e-05  0.003008  0.0004611  0.00694  0.6227  0.5217
6.296e+09  -0.0319  0.8001  0.00248  0.008321  -0.04343  -0.01588  0.7702  0.2858
6.298e+09  0.2672  0.7125  0.006394  0.01916  0.02326  -0.005707  0.8624  -0.03471
6.299e+09  0.5321  0.63  0.03794  -0.002956  -0.01312  0.007573  0.7639  -0.2759
6.3e+09  0.6229  0.3962  -0.0002351  -0.0111  -0.02679  -0.04931  0.6897  -0.5525
6.301e+09  0.776  0.1519  0.008111  -0.01582  0.02312  -0.02783  0.4324  -0.7209
6.302e+09  0.8239  -0.0753  -0.01429  -0.01774  0.03766  -0.005049  0.1667  -0.8369
6.304e+09  0.6486  -0.424  0.03826  0.02989  0.02189  0.02007  -0.1254  -0.8182
6.305e+09  0.5434  -0.6127  -0.02514  -0.00491  0.00599  -0.01062  -0.4295  -0.7398
6.306e+09  0.3126  -0.7691  0.008097  -0.000258  0.001043  0.009746  -0.6372  -0.536
6.308e+09  -0.02636  -0.7438  0.02016  -0.001623  0.04265  0.0137  -0.8085  -0.3089
6.309e+09  -0.3062  -0.7452  -0.009166  0.04034  0.00995  -0.03891  -0.8438  0.02094
6.31e+09  -0.529  -0.5966  0.01134  0.033  0.04732  -0.03464  -0.8477  0.3012
6.311e+09  -0.7455  -0.3619  0.0052  4.877e-05  0.002445  0.0373  -0.6608  0.5481
6.312e+09  -0.8238  -0.113  -0.005136  -0.0203  -0.00114  0.01594  -0.4446  0.7331
6.314e+09  -0.8061  0.157  -0.01318  0.02044  0.01413  0.03342  -0.1542  0.8561
6.315e+09  -0.6917  0.4865  -0.01403  0.00101  -0.03749  -0.01121  0.1186  0.8542
6.316e+09  -0.496  0.6373  0.01166  -0.004747  0.009602  -0.009016  0.4162  0.7828
6.318e+09  -0.2364  0.8247  0.04205  -0.02909  -0.008891  -0.008976  0.6428  0.5501
6.319e+09  0.06649  0.8492  0.03523  -0.05515  0.02244  -0.003951  0.7924  0.2888
6.32e+09  0.3287  0.7596  0.008519  -0.02777  -0.01555  0.0004981  0.9153  0.02959
6.321e+09  0.535  0.6064  0.02001  -0.03047  0.009286  0.01471  0.8548  -0.284
6.322e+09  0.7444  0.3476  -0.008746  -0.01544  0.03773  -0.02564  0.6707  -0.5584
6.324e+09  0.8125  0.12  0.003688  -0.02245  -0.007536  0.02753  0.4379  -0.7759
6.325e+09  0.7862  -0.2206  0.01081  0.009788  -0.0217  0.07877  0.1734  -0.8697
6.326e+09  0.6662  -0.4865  0.01557  0.003093  -0.01876  -0.03822  -0.1477  -0.8806
6.328e+09  0.4426  -0.6471  0.02128  0.01205  0.04331  -0.02978  -0.4314  -0.7746
6.329e+09  0.2038  -0.7792  0.03104  -0.03464  0.01774  -0.02341  -0.6565  -0.5849
6.33e+09  -0.1282  -0.8046  -0.01236  0.01454  0.005887  -0.004551  -0.8501  -0.3131
6.331e+09  -0.3711  -0.7342  0.002486  -0.01112  0.02313  0.00081  -0.9155  -0.04234
6.332e+09  -0.6083  -0.5955  0.009808  -0.02064  0.00503  0.01709  -0.8503  0.2772
6.334e+09  -0.784  -0.3497  0.009373  0.01309  -0.03353  -0.03792  -0.7352  0.5356
6.335e+09  -0.8167  -0.0136  0.0005476  -0.01505  0.003966  -0.01845  -0.4584  0.774
6.336e+09  -0.8019  0.2663  0.00224  -0.0002765  -0.01273  -0.0001039  -0.1732  0.8808
6.338e+09  -0.6406  0.5369  0.035  0.03225  -0.04303  0.00448  0.1326  0.9246
6.339e+09  -0.4383  0.6811  0.0105  -0.01302  0.01206  0.01146  0.4251  0.8123
6.34e+09  -0.1458  0.8433  0.001798  -0.003111  0.0311  0.05191  0.6961  0.5933
6.341e+09  0.1553  0.8343  0.001646  -0.0006452  -0.02904  -0.03087  0.8639  0.3801
6.342e+09  0.4818  0.7374  0.03452  -0.01338  -0.06273  0.003224  0.9494  0.03579
6.344e+09  0.6175  0.5329  0.01721  -0.01296  0.004277  0.003653  0.8764  -0.3015
6.345e+09  0.7881  0.2623  0.03854  -0.01268  0.01523  -0.03882  0.7509  -0.5606
6.346e+09  0.8492  -0.04471  -0.02052  -0.0159  0.003986  -0.02016  0.5076  -0.7687
6.348e+09  0.7889  -0.3452  0.0322  0.0002197  -0.03789  0.00969  0.2129  -0.9508
6.349e+09  0.6357  -0.5777  -0.001442  0.01652  -0.01548  -0.001115  -0.0866  -0.9051
6.35e+09  0.3772  -0.7637  0.009242  0.01209  -0.02165  0.03356  -0.4539  -0.8502
6.351e+09  0.1166  -0.8455  -0.02102  0.013  0.01299  0.01186  -0.6823  -0.6192
6.352e+09  -0.1753  -0.8792  -0.0231  -0.01469  0.002622  0.005832  -0.8756  -0.3913
6.354e+09  -0.4365  -0.7217  -0.03171  -0.0528  -0.0227  0.03303  -0.9177  -0.0323
6.355e+09  -0.653  -0.4723  0.004057  -0.003275  -0.04911  0.02371  -0.8889  0.2495
6.356e+09  -0.7981  -0.2159  -0.01179  0.01077  0.003043  0.003255  -0.7565  0.5277
6.358e+09  -0.8466  0.05679  -0.02767  0.01644  0.01187  -0.03924  -0.5498  0.7964
6.359e+09  -0.7679  0.3625  0.01279  -0.05043  -0.006539  -0.04031  -0.2087  0.9098
6.36e+09  -0.573  0.6084  -0.02024  0.004365  -0.01237  -0.006673  0.1332  0.9228
6.361e+09  -0.3071  0.7855  -0.01116  0.03366  -0.01056  -0.02056  0.4206  0.8463
6.362e+09  -0.04336  0.8699  -0.01629  -0.01918  -0.03086  -0.005741  0.6631  0.6758
6.364e+09  0.3064  0.8018  -0.01272  0.0004472  -0.0325  0.01086  0.8677  0.3802
6.365e+09  0.5563  0.6894  0.01218  0.00719  -0.01671  -0.006293  0.9117  0.1005
6.366e+09  0.7322  0.4516  -0.003475  -0.05829  0.006498  0.02846  0.9346  -0.2519
6.368e+09  0.8932  0.1615  -0.007056  0.0007927  -0.02304  -0.019  0.7937  -0.5244
6.369e+09  0.869  -0.1752  -0.01451  0.01155  0.01829  -0.00625  0.5677  -0.786
6.37e+09  0.7309  -0.4637  0.02806  -0.01676  0.0105  -0.02144  0.2571  -0.9471
6.371e+09  0.534  -0.641  0.01753  -7.951e-05  -0.009618  0.02503  -0.0556  -0.955
6.372e+09  0.3402  -0.8159  0.01133  0.0394  -0.02491  -0.03343  -0.4264  -0.8895
6.374e+09  -0.007818  -0.8929  -0.02702  0.01714  0.01768  -0.0213  -0.6535  -0.6605
6.375e+09  -0.2811  -0.8239  -0.01607  -0.04019  0.0242  -0.02646  -0.8595  -0.4318
6.376e+09  -0.5644  -0.6218  -0.02471  -0.03866  0.02144  -0.007311  -0.9331  -0.08475
6.378e+09  -0.8016  -0.4473  -0.04449  0.004617  -0.03152  0.003794  -0.8985  0.2553
6.379e+09  -0.8259  -0.0813  0.03618  0.02024  -0.02726  -0.008513  -0.819  0.5353
6.38e+09  -0.8417  0.1523  -0.04142  0.033  -0.02728  0.005983  -0.5435  0.7525
6.381e+09  -0.7339  0.4201  -0.01065  0.01201  0.007794  0.03571  -0.2497  0.9047
6.382e+09  -0.5318  0.6674  0.007946  0.02435  -0.03218  0.06691  0.04791  0.9463
6.384e+09  -0.2716  0.8087  -0.03957  0.03308  0.01019  -0.004066  0.3492  0.8221
6.385e+09  0.06656  0.8834  -0.001848  0.04997  0.007081  0.0155  0.6408  0.7167
6.386e+09  0.3508  0.7837  -0.01136  -0.02016  0.01688  -0.01949  0.8406  0.4267
6.388e+09  0.5903  0.632  0.02371  0.06064  -0.01303  -0.008449  0.9234  0.1317
6.389e+09  0.7657  0.3749  0.04066  0.01314  0.00821  0.002329  0.9188  -0.1632
6.39e+09  0.8657  0.1347  0.007956  -0.003953  0.0239  0.03175  0.8226  -0.5028
6.391e+09  0.8472  -0.2139  -0.007432  0.0112  0.01193  0.04201  0.5512  -0.7308
6.392e+09  0.7143  -0.495  -0.02115  0.0134  -0.01637  -0.03101  0.2815  -0.8493
6.394e+09  0.4797  -0.6978  -0.001167  -0.03264  -0.00496  0.03  -0.01694  -0.9058
6.395e+09  0.2439  -0.8542  0.008689  -0.01441  0.05017  -0.03434  -0.3127  -0.8558
6.396e+09  -0.06722  -0.8361  -0.03549  -0.001877  -0.002417  0.03986  -0.612  -0.6693
6.398e+09  -0.3495  -0.8435  0.00262  0.02202  -0.01346  -0.02774  -0.7589  -0.428
6.399e+09  -0.6405  -0.5985  -0.004144  0.02371  0.005086  0.02682  -0.9003  -0.1227
6.4e+09  -0.8226  -0.3723  -0.004849  -0.0103  -0.01032  0.01408  -0.8946  0.2256
6.401e+09  -0.7837  -0.1388  0.01091  -0.01601  0.01218  -0.0151  -0.8239  0.4337
6.402e+09  -0.7857  0.2826  0.006702  0.0131  -0.005073  -0.01442  -0.599  0.7114
6.404e+09  -0.725  0.5029  -0.02218  -0.006673  -0.02928  -0.02184  -0.3235  0.8885
6.405e+09  -0.4707  0.6889  0.01156  -0.01452  -0.04046  0.001513  0.0005714  0.9283
6.406e+09  -0.2293  0.8721  0.005539  0.0389  -0.02918  0.002985  0.2794  0.8104
6.408e+09  0.07135  0.8417  0.04381  -0.0285  0.003234  -0.02202  0.5747  0.6799
6.409e+09  0.3548  0.7387  0.03155  0.008558  0.003652  -0.006936  0.7704  0.4605
6.41e+09  0.6848  0.6042  -0.02519  -0.01059  -0.01619  0.03286  0.9141  0.1947
6.411e+09  0.7939  0.3613  -0.01521  0.0452  -0.01894  -0.01006  0.8942  -0.1513
6.412e+09  0.8883  0.1106  0.03122  0.02061  0.01659  0.03059  0.8188  -0.3991
6.414e+09  0.8468  -0.2628  -0.01392  0.008762  0.002131  -0.03728  0.608  -0.6524
6.415e+09  0.6882  -0.5321  0.05108  -0.06189  -0.02402  -0.01875  0.338  -0.8415
6.416e+09  0.4404  -0.7203  0.01234  0.01571  -0.06081  0.006571  0.03731  -0.8632
6.418e+09  0.2488  -0.7948  -0.004042  0.01215  -0.02259  -0.04559  -0.288  -0.8558
6.419e+09  -0.1104  -0.8046  -0.02318  -0.04481  0.02982  0.05582  -0.5389  -0.7021
6.42e+09  -0.385  -0.7289  0.01625  -0.01275  -0.02104  -0.003214  -0.7491  -0.4361
6.421e+09  -0.5925  -0.6109  -0.04199  -0.01023  0.008019  -0.0229  -0.7901  -0.1855
6.422e+09  -0.7885  -0.3565  -0.02934  0.01622  0.007289  0.001294  -0.8825  0.0994
6.424e+09  -0.8198  0.0145  -0.008702  0.01958  0.008384  -0.04067  -0.8206  0.387
6.425e+09  -0.815  0.3311  -0.0334  0.002094  -0.02318  0.01169  -0.6247  0.6397
6.426e+09  -0.6827  0.5933  0.0197  0.02436  -0.03811  -0.01605  -0.4028  0.7876
6.428e+09  -0.4097  0.7533  0.02457  -0.003817  0.01556  -0.01252  -0.1032  0.8788
6.429e+09  -0.1586  0.8541  -0.02323  0.02104  0.02274  0.04563  0.2601  0.8293
6.43e+09  0.1398  0.8151  0.01265  0.03659  0.02238  0.02426  0.5792  0.6565
6.431e+09  0.4222  0.7505  0.004646  0.0008698  0.007923  -0.01222  0.7226  0.4662
6.432e+09  0.6461  0.581  0.03814  0.007154  0.032  -0.02071  0.8323  0.2168
6.434e+09  0.8325  0.3201  0.001911  0.001066  -0.01129  0.00456  0.8763  -0.1095
6.435e+09  0.8387  -0.02692  -0.01695  0.001753  0.02876  -0.007781  0.7826  -0.3832
6.436e+09  0.7673  -0.2488  0.004985  0.04485  -0.00171  0.05413  0.595  -0.6143
6.438e+09  0.6737  -0.5243  0.01599  -0.01859  -0.01107  -0.02248  0.3589  -0.7507
6.439e+09  0.4684  -0.7598  0.02152  -0.01627  -0.01364  -0.0029  0.06584  -0.8533
6.44e+09  0.1289  -0.8236  0.01105  -0.01748  0.003762  -0.02238  -0.2219  -0.8241
6.441e+09  -0.1551  -0.8504  0.009526  0.008059  0.03713  0.03833  -0.4849  -0.6762
6.442e+09  -0.4035  -0.8453  -0.003733  0.02363  0.01393  -0.004198  -0.7136  -0.4768
6.444e+09  -0.6318  -0.5941  -0.007192  0.02324  -0.03588  -0.01708  -0.8284  -0.2746
6.445e+09  -0.8326  -0.3317  -0.00146  0.0246  0.0242  -0.009891  -0.8302  0.1113
6.446e+09  -0.8381  -0.03278  -0.01494  -0.02842  -0.008786  -0.02551  -0.7092  0.3716
6.448e+09  -0.8241  0.3082  0.02121  -0.03301  0.006477  -0.01295  -0.5303  0.5955
6.449e+09  -0.6493  0.5322  -0.009521  -0.02121  -0.01286  -0.03082  -0.3726  0.7422
6.45e+09  -0.4583  0.7636  0.003844  0.02078  -0.02821  0.01315  -0.07217  0.8586
6.451e+09  -0.1616  0.8817  0.01617  -0.04465  -0.002281  -0.01159  0.2635  0.8047
6.452e+09  0.1248  0.8516  0.00992  -0.02583  0.03266  -0.02827  0.4602  0.6694
6.454e+09  0.4569  0.722  -0.01063  0.004035  -0.005118  0.01937  0.7248  0.4549
6.455e+09  0.6453  0.6028  0.03638  0.009551  -0.008219  0.01829  0.7735  0.1762
6.456e+09  0.8119  0.3488  0.03494  0.01835  0.01184  0.01954  0.8132  -0.06536
6.458e+09  0.9209  0.03773  0.02051  -0.02366  0.02361  0.009512  0.7419  -0.3353
6.459e+09  0.7953  -0.3223  0.04296  0.01463  -0.002985  -0.01052  0.5921  -0.5693
6.46e+09  0.6846  -0.5831  -0.02714  0.01703  -0.01418  0.05758  0.3504  -0.7261
6.461e+09  0.4442  -0.7445  0.002229  -0.03162  0.002613  0.0494  0.06125  -0.8123
6.462e+09  0.1238  -0.8359  -0.001176  0.001958  0.0142  0.01364  -0.1834  -0.773
6.464e+09  -0.1665  -0.8765  0.009172  -0.04367  -0.009948  -0.02522  -0.4964  -0.6799
6.465e+09  -0.4431  -0.7692  0.02183  0.01181  -0.04665  -0.07065  -0.6955  -0.4423
6.466e+09  -0.6947  -0.531  -0.003573  -0.04559  0.02723  -0.03587  -0.7579  -0.2148
6.468e+09  -0.8494  -0.274  -0.0257  -0.06203  0.01918  0.0127  -0.7802  0.06871
6.469e+09  -0.8895  0.01426  -0.01301  0.01948  -0.06515  -0.0403  -0.7005  0.3432
6.47e+09  -0.8079  0.305  -0.02987  0.002677  -0.0193  0.002725  -0.5686  0.5577
6.471e+09  -0.6626  0.5525  -0.003624  -0.03366  0.0034  0.02425  -0.3353  0.727
6.472e+09  -0.4464  0.7527  -0.024  0.03561  0.01936  -0.01994  -0.05439  0.7874
6.474e+09  -0.1828  0.8937  -0.0008933  -0.004496  0.03279  -0.002331  0.1994  0.7858
6.475e+09  0.145  0.8946  0.02  0.02148  -0.01232  0.01764  0.4519  0.6219
6.476e+09  0.4946  0.7664  -0.02751  -0.01056  -0.01801  -0.0006553  0.6659  0.4377
6.478e+09  0.6841  0.5693  0.03081  -0.01946  0.08095  0.04427  0.7  0.1708
6.479e+09  0.8208  0.2823  0.02563  0.01903  0.001974  -0.02904  0.7637  -0.06177
6.48e+09  0.8703  -0.02004  0.0309  0.01937  0.01671  -0.0016  0.6808  -0.3518
6.481e+09  0.7965  -0.3258  -0.006186  0.008566  -0.01843  -0.03204  0.5555  -0.5735
6.482e+09  0.6703  -0.614  -0.01498  -0.007529  -0.00702  0.01933  0.3173  -0.7083
6.484e+09  0.4419  -0.8143  -0.00817  -0.01236  -0.0001087  0.04123  0.06634  -0.7864
6.485e+09  0.09932  -0.8716  -0.003215  -0.03024  0.006094  -0.003411  -0.2128  -0.7442
6.486e+09  -0.1534  -0.8485  0.006023  0.02632  -0.0175  -0.0005893  -0.4468  -0.6457
6.488e+09  -1.201  -0.6376  0.02668  -0.00852  -0.5713  -0.4458  -0.6293  -0.4378
6.489e+09  -0.7247  -0.5411  0.01968  -0.008891  0.07569  -0.009294  -0.75  -0.2057
6.49e+09  -0.8444  -0.2421  -0.03611  0.01715  -0.009638  -0.00805  -0.7346  0.08504
6.491e+09  -0.8767  0.03282  0.00687  -0.002665  0.0201  -0.001288  -0.6981  0.3649
6.492e+09  -0.809  0.3765  0.0001966  -0.0293  -0.01513  0.02831  -0.5749  0.5535
6.494e+09  -0.729  0.5308  0.01665  0.01841  -0.08791  0.1177  -0.3097  0.736
6.495e+09  -0.4076  0.7855  0.0196  -0.01099  0.04  0.01421  -0.0431  0.7555
6.496e+09  -0.1204  0.9111  0.0265  -0.03081  -0.02508  0.009134  0.1761  0.7293
6.498e+09  0.2083  0.9138  -0.01266  0.002996  -0.01033  -0.0226  0.441  0.6138
6.499e+09  0.5287  0.6866  0.009005  0.01535  0.03386  -0.005267  0.6407  0.4285
6.5e+09  0.7313  0.5359  -0.001754  0.02755  -0.02835  0.002118  0.7255  0.1649
6.501e+09  0.8251  0.2287  -0.001503  -0.02503  -0.03302  0.004465  0.7655  -0.07924
6.502e+09  0.9539  -0.1003  -0.04508  0.005671  0.05028  0.01948  0.6502  -0.3303
6.504e+09  0.8343  -0.3908  0.03099  0.01646  0.02844  -0.002596  0.5114  -0.5361
6.505e+09  0.601  -0.6713  0.02352  -0.02733  0.03931  0.008714  0.262  -0.7122
6.506e+09  0.3886  -0.8827  -0.04571  0.01107  -1.34e-05  0.02347  0.0188  -0.7458
6.508e+09  0.09689  -0.8882  -0.02042  -0.008189  -0.0452  -0.04701  -0.2339  -0.749
6.509e+09  -0.2194  -0.9048  -0.03277  -0.01946  -0.03158  -0.01561  -0.4934  -0.6017
6.51e+09  -0.5176  -0.7137  0.02783  -0.001878  -0.0156  -0.008289  -0.6487  -0.3989
6.511e+09  -0.7695  -0.5275  -0.01135  0.02247  -0.006295  -0.0437  -0.7237  -0.1615
6.512e+09  -0.9174  -0.2202  -0.02648  0.0566  0.01721  0.01927  -0.6932  0.1388
6.514e+09  -0.8826  0.08533  0.009989  0.04345  -0.03394  0.04896  -0.6627  0.3756
6.515e+09  -0.8028  0.4288  0.006619  0.005183  -0.02705  -0.00544  -0.469  0.5744
6.516e+09  -0.6431  0.7117  0.007598  -0.00098  -0.008706  0.0124  -0.2532  0.7165
6.518e+09  -0.3691  0.8855  -5.405e-06  -0.02007  -0.01641  0.02882  0.00961  0.7656
6.519e+09  -0.01853  0.9472  0.002232  0.01115  -0.002264  -0.03817  0.2638  0.6913
6.52e+09  0.3328  0.8905  -0.009792  -0.02179  0.03508  -0.06035  0.5103  0.4768
6.521e+09  0.6257  0.698  0.01571  0.006207  0.0007886  -0.0211  0.6425  0.3447
6.522e+09  0.8008  0.4892  -0.002546  -0.03243  0.007974  -0.02092  0.7159  0.0928
6.524e+09  0.9296  0.1662  -0.01104  -0.0001  -0.01791  0.04467  0.6853  -0.1963
6.525e+09  0.939  -0.1301  -0.02271  -0.01668  -0.006366  0.03009  0.5866  -0.3723
6.526e+09  0.8178  -0.4496  0.02194  0.0003024  0.03311  0.003998  0.4159  -0.5889
6.528e+09  0.5601  -0.7477  -0.02497  -0.02573  0.0002718  0.03384  0.2158  -0.6703
6.529e+09  0.34  -0.9241  -0.00741  -0.008439  -0.004017  0.0275  -0.08712  -0.7074
6.53e+09  -0.06586  -0.9228  -0.02299  -0.02834  0.01225  0.009973  -0.3295  -0.6001
6.531e+09  -0.3511  -0.9213  -0.02109  -0.01662  0.00564  0.01455  -0.4777  -0.5094
6.532e+09  -0.639  -0.6826  0.001519  0.008708  0.001689  0.02143  -0.5889  -0.2746
6.534e+09  -0.8378  -0.4296  -0.02949  -0.01821  -0.009316  0.01026  -0.6344  -0.0849
6.535e+09  -0.9019  -0.114  -0.008067  -0.03481  0.0177  -0.03337  -0.6221  0.0969
6.536e+09  -0.9266  0.2554  0.01125  -0.004664  0.05913  0.02734  -0.5437  0.2906
6.538e+09  -0.8044  0.5542  0.03801  0.014  0.01527  -0.01089  -0.4334  0.4594
6.539e+09  -0.5793  0.7616  0.0201  0.001473  -0.005559  0.01687  -0.2802  0.6297
6.54e+09  -0.2224  0.9106  0.01369  0.002899  0.01508  -0.02223  -0.04076  0.7152
6.541e+09  0.1228  0.9665  0.02282  -0.00429  0.006628  0.02647  0.2074  0.6952
6.542e+09  0.4104  0.8091  -0.0235  -0.02154  0.009887  -0.03429  0.4124  0.5721
6.544e+09  0.6813  0.6737  -0.0237  0.04617  -0.04796  0.01275  0.6037  0.4096
6.545e+09  0.8386  0.3334  0.00593  -0.007881  0.005458  -0.01459  0.6896  0.1903
6.546e+09  0.9422  0.07541  0.01045  -0.01543  -0.005682  -0.01173  0.7019  -0.07683
6.548e+09  0.8998  -0.3081  -0.01313  0.01867  0.02899  -0.00936  0.6546  -0.351
6.549e+09  0.679  -0.6103  -0.01031  -0.02978  0.003746  0.009508  0.5043  -0.542
6.55e+09  0.5043  -0.8474  -0.02049  -0.02099  -0.03594  0.01376  0.2813  -0.6736
6.551e+09  0.1352  -0.8789  -0.004486  -0.001456  -0.01856  -0.007726  0.03015  -0.7212
