# Hz S RI R 50
6.25e+09  -0.5622  0.5344  -0.005667  -0.009299  -0.04785  0.0103  0.1871  0.4763
6.251e+09  -0.3441  0.6992  -0.008327  -0.01566  0.04383  0.02417  0.3831  0.4151
6.252e+09  -0.0587  0.7729  -0.002308  0.026  -0.01384  -0.04679  0.54  0.2255
6.254e+09  0.1912  0.8502  -0.008401  0.03181  -0.01362  0.003293  0.6173  0.02355
6.255e+09  0.52  0.6777  0.01767  0.04363  0.002258  -0.03291  0.6052  -0.1921
6.256e+09  0.6713  0.4794  -0.02121  0.01329  -0.03776  -0.05714  0.4933  -0.4526
6.258e+09  0.7935  0.2048  0.01386  -0.01587  0.01122  -0.00165  0.2592  -0.6161
6.259e+09  0.83  -0.09856  -0.005045  0.007396  0.01171  0.007768  0.05399  -0.6616
6.26e+09  0.73  -0.3743  0.01317  0.0017  0.01226  -0.037  -0.195  -0.7048
6.261e+09  0.5329  -0.5493  0.02853  0.006911  -0.008742  -0.01794  -0.427  -0.5455
6.262e+09  0.2888  -0.7119  -0.004721  -0.02378  0.07182  0.002085  -0.5898  -0.3519
6.264e+09  0.06519  -0.7867  0.004661  0.0281  -0.003301  0.004189  -0.7009  -0.1118
6.265e+09  -0.24  -0.7228  0.01597  0.01051  -0.0271  0.04589  -0.7008  0.1696
6.266e+09  -0.4804  -0.6685  -0.02666  -0.003506  -0.02515  -0.02776  -0.5376  0.3663
6.268e+09  -0.6237  -0.3946  0.02651  -0.01951  0.01701  0.01452  -0.4049  0.6198
6.269e+09  -0.7755  -0.163  0.004434  -0.01279  -0.02247  0.00815  -0.2324  0.7008
6.27e+09  -0.7481  0.05692  0.001713  0.01847  -0.018  0.06227  0.034  0.7363
6.271e+09  -0.7092  0.3527  0.03997  -0.006753  -0.01163  -0.03741  0.2936  0.6508
6.272e+09  -0.5473  0.5755  0.02812  -0.0005904  0.05597  -0.004654  0.5183  0.5006
6.274e+09  -0.3346  0.7151  0.005215  -0.003398  0.06718  -0.04966  0.6942  0.2809
6.275e+09  -0.05885  0.8427  0.01402  0.02112  -0.02381  0.01772  0.7364  0.02848
6.276e+09  0.2466  0.7482  -0.006538  0.004553  0.01014  0.03734  0.7243  -0.2317
6.278e+09  0.4857  0.6304  -0.02712  0.0123  0.01165  -0.00661  0.5981  -0.4792
6.279e+09  0.6339  0.4266  0.01108  0.01877  -0.03249  -0.01225  0.412  -0.6798
6.28e+09  0.7831  0.22  -0.0256  0.01781  -0.04292  0.007132  0.1667  -0.7551
6.281e+09  0.7804  -0.121  0.01967  0.004518  -0.03285  0.01261  -0.0959  -0.7762
6.282e+09  0.7574  -0.3836  -0.0006851  0.01255  -0.008987  0.04094  -0.3654  -0.6786
6.284e+09  0.5013  -0.5946  -0.003162  0.0133  0.02377  0.07076  -0.5654  -0.5367
6.285e+09  0.3123  -0.7421  -0.001405  -0.02439  -0.04789  0.05265  -0.719  -0.292
6.286e+09  0.02863  -0.8092  0.01511  -0.01012  -0.0287  -0.0009955  -0.7845  -0.01211
6.288e+09  -0.2216  -0.7588  -0.00993  -0.02993  -0.03826  0.03254  -0.7551  0.2354
6.289e+09  -0.4409  -0.6214  0.01906  0.01129  -0.01339  0.003342  -0.6274  0.5315
6.29e+09  -0.6781  -0.4136  0.01794  -0.009444  -0.03393  0.006808  -0.4101  0.6761
6.291e+09  -0.7912  -0.1591  0.004465  -0.009907  0.00382  0.008782  -0.1533  0.7961
6.292e+09  -0.8019  0.1218  0.007347  0.0121  0.002956  -0.001905  0.142  0.8113
6.294e+09  -0.6846  0.3897  0.01371  0.02089  0.0007931  -0.01854  0.3789  0.6943
6.295e+09  -0.5488  0.6478  -0.006751  0.001428  -0.01218  -0.003698  0.6063  0.5529
6.296e+09  -0.273  0.7765  0.02027  0.007757  0.01756  0.001585  0.7773  0.2831
6.298e+09  -0.05203  0.7993  0.023  -0.01173  0.02266  -0.008043  0.802  0.01163
6.299e+09  0.2843  0.8363  -0.03442  0.005536  -0.01372  0.005011  0.7928  -0.2474
6.3e+09  0.5065  0.6356  -0.007893  0.03242  -0.01281  -0.03249  0.6632  -0.5094
6.301e+09  0.6627  0.3918  0.02764  -0.002157  0.01167  -0.01586  0.4462  -0.721
6.302e+09  0.7766  0.133  -0.04278  0.005544  0.01647  0.006311  0.1701  -0.8609
6.304e+09  0.769  -0.1198  -0.02651  0.002286  -0.02227  -0.02141  -0.1217  -0.8128
6.305e+09  0.6814  -0.3702  0.01255  0.004516  -0.02631  0.02679  -0.406  -0.7663
6.306e+09  0.5003  -0.6035  0.003041  -0.01191  0.01597  0.005159  -0.6357  -0.5259
6.308e+09  0.2592  -0.743  0.007148  0.01612  0.0309  -0.07023  -0.8145  -0.2903
6.309e+09  0.0002713  -0.8239  -0.007483  0.02678  0.01295  -0.04253  -0.8284  -0.001279
6.31e+09  -0.2551  -0.7817  -0.02036  0.01952  -0.002497  0.03605  -0.8192  0.3062
6.311e+09  -0.5882  -0.6146  0.0229  0.01321  0.03737  0.004164  -0.6861  0.5718
6.312e+09  -0.7157  -0.3975  -0.01926  -0.03319  -0.01668  -0.009623  -0.447  0.7487
6.314e+09  -0.7942  -0.101  0.02699  -0.006726  -0.01528  0.01477  -0.1413  0.8375
6.315e+09  -0.8194  0.1944  -0.01613  -0.01419  -0.00036  0.01005  0.1493  0.855
6.316e+09  -0.702  0.4166  -0.002733  -0.004806  -0.02266  -0.04393  0.419  0.7954
6.318e+09  -0.505  0.6298  -0.0352  -0.009626  0.01198  0.01371  0.6732  0.5879
6.319e+09  -0.2602  0.7922  0.03616  0.01599  0.01085  0.02873  0.8407  0.3361
6.32e+09  0.07111  0.842  -0.0112  -0.01433  -0.05615  0.005385  0.9066  -0.003357
6.321e+09  0.3309  0.7517  -0.007256  -0.008904  0.02245  -0.001213  0.8269  -0.2887
6.322e+09  0.5277  0.6144  0.01918  0.01479  0.02619  -0.006362  0.7018  -0.552
6.324e+09  0.7562  0.3648  -0.003838  -0.0002741  -0.02615  0.004761  0.4892  -0.764
6.325e+09  0.8118  0.1201  -0.01048  0.00448  0.01199  -0.01304  0.1458  -0.8873
6.326e+09  0.762  -0.2467  0.001154  -0.004762  0.02693  -0.03671  -0.127  -0.8526
6.328e+09  0.6551  -0.5212  0.01663  0.01812  -0.01228  0.01523  -0.401  -0.7798
6.329e+09  0.4905  -0.6858  0.02145  -0.0199  0.02258  0.03046  -0.6584  -0.649
6.33e+09  0.2063  -0.7783  0.04696  0.007198  0.03473  -0.004258  -0.8271  -0.3687
6.331e+09  -0.06681  -0.8068  -0.01578  0.03569  0.003704  0.02298  -0.8781  -0.01805
6.332e+09  -0.4113  -0.7595  -0.01722  0.01445  0.002091  -0.02559  -0.8668  0.2569
6.334e+09  -0.6096  -0.5725  -0.007733  -0.03  0.007894  -0.0004109  -0.7018  0.5369
6.335e+09  -0.7734  -0.3245  -0.01862  -0.0011  -0.06176  -0.02866  -0.4655  0.7447
6.336e+09  -0.8337  -0.06639  -0.01418  0.002975  0.02413  -0.03269  -0.2251  0.8807
6.338e+09  -0.8134  0.3124  0.007352  0.0216  -0.0266  0.02695  0.1077  0.9277
6.339e+09  -0.6515  0.5796  -0.009534  -0.03075  -0.02409  -0.01543  0.4145  0.7832
6.34e+09  -0.4408  0.7485  -0.002986  -0.007448  0.01143  0.02076  0.6586  0.6239
6.341e+09  -0.09415  0.752  0.04056  -0.01278  0.005878  -0.01276  0.8739  0.3888
6.342e+09  0.212  0.8465  -0.01924  0.01044  0.0005977  0.02119  0.9361  0.05081
6.344e+09  0.4147  0.7348  -0.02144  -0.02235  -0.006526  0.03218  0.8769  -0.2765
6.345e+09  0.6817  0.5008  0.01369  0.03302  0.03013  0.04466  0.7469  -0.5709
6.346e+09  0.8395  0.2603  -0.03342  0.01584  0.02836  0.02151  0.525  -0.7675
6.348e+09  0.8376  -0.04095  -0.002595  0.006714  0.02324  -0.0004795  0.1914  -0.9169
6.349e+09  0.8209  -0.3445  -0.03511  -0.002943  -0.01776  -0.01445  -0.08492  -0.9003
6.35e+09  0.6069  -0.5353  -0.01013  0.01321  -0.03072  0.004338  -0.3857  -0.8312
6.351e+09  0.411  -0.7438  -0.00445  -0.02816  -0.0105  0.01105  -0.6744  -0.659
6.352e+09  0.1188  -0.8441  -0.02102  0.02529  0.03828  -0.01704  -0.8297  -0.3865
6.354e+09  -0.1777  -0.8051  -0.005362  -0.004518  0.005137  -0.03233  -0.9437  -0.06074
6.355e+09  -0.4851  -0.715  -0.003037  0.02388  -0.00431  0.04161  -0.8843  0.2543
6.356e+09  -0.7155  -0.5012  -5.413e-05  -0.01145  0.03723  0.00642  -0.7719  0.5734
6.358e+09  -0.799  -0.2574  0.002931  0.01433  -0.02251  -0.02305  -0.5008  0.7937
6.359e+09  -0.8174  0.1271  -0.005282  -0.0191  0.05524  -0.01116  -0.2303  0.9232
6.36e+09  -0.7693  0.3687  -0.004589  -0.002046  0.006476  -0.009908  0.1054  0.9723
6.361e+09  -0.5726  0.5893  -0.03138  0.04178  -0.02779  0.01142  0.4458  0.8435
6.362e+09  -0.345  0.7954  0.02562  -0.01575  -0.03038  -0.02061  0.7052  0.6593
6.364e+09  -0.005787  0.8348  0.006648  -0.01248  -0.01082  -0.02665  0.8633  0.405
6.365e+09  0.2738  0.8669  0.02004  0.005206  -0.009838  0.04987  0.9347  0.1026
6.366e+09  0.4928  0.7029  0.03424  0.02417  -0.002909  0.04094  0.9048  -0.2308
6.368e+09  0.6926  0.4245  -0.04546  0.002092  -0.03982  -0.001547  0.79  -0.5413
6.369e+09  0.8212  0.1873  0.007797  0.002061  0.03286  0.04251  0.5522  -0.8021
6.37e+09  0.8465  -0.1644  -0.02212  -0.01643  0.03459  -0.02285  0.2833  -0.8759
6.371e+09  0.7396  -0.401  -0.01435  -0.01926  0.01635  -0.001727  -0.03789  -0.9502
6.372e+09  0.5821  -0.6431  0.03863  -0.007576  0.0169  -0.008797  -0.3801  -0.8284
6.374e+09  0.2658  -0.8518  0.03496  -0.001526  0.01851  0.05665  -0.6608  -0.6928
6.375e+09  0.002868  -0.8349  0.02508  -0.009464  -0.01816  0.01363  -0.8353  -0.3834
6.376e+09  -0.3271  -0.8136  0.02473  -0.01307  0.00205  0.00508  -0.9852  -0.1021
6.378e+09  -0.5632  -0.594  0.01374  0.003426  0.0208  0.01561  -0.9037  0.234
6.379e+09  -0.7552  -0.3642  0.03422  0.0001048  0.002882  -0.01265  -0.7675  0.5148
6.38e+09  -0.8192  -0.1115  0.001662  0.04256  -0.003731  0.02742  -0.5752  0.7322
6.381e+09  -0.7922  0.2257  0.01231  -0.0214  0.02669  -0.005772  -0.2574  0.8879
6.382e+09  -0.6694  0.4873  0.04239  0.01056  -0.01316  -0.003833  0.04553  0.9462
6.384e+09  -0.521  0.7081  0.02988  0.04124  -0.01918  -0.009067  0.3843  0.8191
6.385e+09  -0.2702  0.8066  -0.00142  0.02909  0.03134  0.01377  0.6217  0.7089
6.386e+09  0.01959  0.8146  0.01754  -0.02821  0.02407  -0.03257  0.8161  0.4136
6.388e+09  0.3726  0.7577  0.03261  0.02378  -0.005738  0.01892  0.9028  0.147
6.389e+09  0.5868  0.5559  0.04562  -0.004899  0.008154  -0.006507  0.9114  -0.2282
6.39e+09  0.7995  0.3555  0.002454  0.01707  -0.0427  -0.01166  0.7535  -0.4823
6.391e+09  0.8525  0.07484  0.005758  0.04892  -0.03104  -0.0335  0.5672  -0.6878
6.392e+09  0.8492  -0.2145  -0.01077  -0.03888  -0.002615  -0.05812  0.2879  -0.8799
6.394e+09  0.6807  -0.4972  -0.03731  -0.03246  0.002604  -0.01181  -0.006141  -0.9018
6.395e+09  0.516  -0.6986  -0.0001492  -0.04482  -0.002178  0.01814  -0.3741  -0.8451
6.396e+09  0.1777  -0.8452  0.004742  0.007607  -0.01103  -0.06412  -0.5916  -0.7076
6.398e+09  -0.1031  -0.8623  -0.01048  -0.04702  0.02231  0.01021  -0.7921  -0.4138
6.399e+09  -0.4161  -0.7211  -0.004175  0.002998  -0.009071  -0.03713  -0.9077  -0.1638
6.4e+09  -0.6296  -0.5287  0.02436  0.03547  0.0161  -0.04481  -0.8732  0.1255
6.401e+09  -0.7806  -0.3371  0.002431  -0.003621  -0.02086  -0.03083  -0.821  0.4502
6.402e+09  -0.8309  -0.01156  0.04663  0.01774  0.001693  -0.01296  -0.6139  0.7432
6.404e+09  -0.8098  0.2503  0.006734  -0.01517  -0.02552  0.05024  -0.3199  0.8502
6.405e+09  -0.6583  0.4582  -0.04199  0.01613  -0.01132  0.008389  0.01526  0.9147
6.406e+09  -0.4503  0.7084  0.0215  0.005562  0.02625  0.004743  0.297  0.85
6.408e+09  -0.1325  0.8258  -0.01745  -0.007353  0.01994  -0.03297  0.5574  0.7363
6.409e+09  0.1301  0.8437  0.005163  -0.02727  -0.04605  -0.002016  0.7885  0.4644
6.41e+09  0.4155  0.7218  0.01657  0.0025  -0.006857  0.008193  0.8888  0.1822
6.411e+09  0.6918  0.5403  -0.003195  -0.007209  0.0407  0.003062  0.8934  -0.08826
6.412e+09  0.7916  0.3004  -0.01496  -0.02284  -0.019  0.05067  0.8597  -0.475
6.414e+09  0.8156  -0.02425  -0.02981  0.03138  -0.01351  0.05043  0.578  -0.6826
6.415e+09  0.7743  -0.2871  0.001454  0.01106  -0.01614  -0.01343  0.2796  -0.8216
6.416e+09  0.6635  -0.5327  0.009469  -0.02214  -0.02983  -0.01066  0.05463  -0.8769
6.418e+09  0.4242  -0.7399  -0.04109  -0.009092  0.01084  0.02866  -0.2735  -0.7964
6.419e+09  0.08737  -0.7645  0.00396  -0.02388  0.0228  0.02933  -0.5613  -0.7442
6.42e+09  -0.2174  -0.8518  0.02791  -0.06705  0.009306  -0.02236  -0.7513  -0.4528
6.421e+09  -0.4047  -0.7473  -0.01041  0.01691  -0.003483  0.02757  -0.8427  -0.2331
6.422e+09  -0.679  -0.5576  0.009967  0.05348  0.003365  -0.0009504  -0.8445  0.1095
6.424e+09  -0.8142  -0.3082  -0.0114  0.004215  -0.02491  0.001904  -0.734  0.3651
6.425e+09  -0.8445  0.04366  0.002228  0.0005946  -0.01003  0.0329  -0.5914  0.6151
6.426e+09  -0.804  0.2588  -0.0089  0.008103  -0.01234  -0.006344  -0.3878  0.8437
6.428e+09  -0.6833  0.52  -0.008074  0.01004  -0.01259  0.0157  -0.05625  0.8736
6.429e+09  -0.4358  0.7669  -0.03119  -0.02815  -0.01728  0.0156  0.2608  0.8381
6.43e+09  -0.153  0.8145  0.02119  -0.0314  -0.0254  0.02281  0.4882  0.7089
6.431e+09  0.1461  0.8479  -0.01932  0.008821  -0.0107  0.02196  0.6941  0.4372
6.432e+09  0.4529  0.7185  0.006355  0.01963  -0.02297  0.003448  0.8167  0.1947
6.434e+09  0.6704  0.5388  0.01568  -0.05281  0.02173  0.01368  0.888  -0.08799
6.435e+09  0.8218  0.2544  -0.05831  -0.007088  0.0183  -0.002911  0.8058  -0.34
6.436e+09  0.8024  -0.01962  0.001571  0.03732  -0.007697  0.0464  0.5582  -0.5996
6.438e+09  0.7663  -0.3254  0.02354  0.03385  0.01788  0.004723  0.3955  -0.7379
6.439e+09  0.66  -0.5541  -0.01463  0.002637  0.01623  0.01927  0.04983  -0.8203
6.44e+09  0.3661  -0.7082  -0.04223  -0.02222  0.01894  -0.03092  -0.1914  -0.8572
6.441e+09  0.1444  -0.8622  0.03365  -0.02561  0.04469  0.03434  -0.5235  -0.7169
6.442e+09  -0.2298  -0.8678  0.02682  -0.01635  0.04963  -0.02572  -0.7112  -0.4911
6.444e+09  -0.4988  -0.6686  0.08036  0.01399  0.008251  -0.002332  -0.8214  -0.2378
6.445e+09  -0.6591  -0.5514  -0.05874  0.02004  -0.02317  -0.02081  -0.8535  0.09658
6.446e+09  -0.8154  -0.2406  -0.02776  -0.01064  -0.02965  0.06943  -0.7414  0.3747
6.448e+09  -0.7993  0.03468  0.007217  -0.00222  -0.03516  0.02189  -0.5867  0.558
6.449e+09  -0.7547  0.3122  -0.009999  0.009681  -0.04017  -0.02001  -0.3964  0.7623
6.45e+09  -0.6208  0.5417  -0.04374  -0.04851  0.01799  -0.01406  -0.1111  0.8418
6.451e+09  -0.3394  0.7547  -0.01343  0.02466  -0.02308  -0.03349  0.2218  0.8382
6.452e+09  -0.0966  0.8161  0.01677  -0.03442  -0.005306  0.03854  0.4527  0.6946
6.454e+09  0.214  0.8154  -0.009191  -0.01525  -0.01523  0.004906  0.6766  0.4953
6.455e+09  0.4755  0.7118  0.06449  0.01036  0.0407  -0.03565  0.7926  0.2213
6.456e+09  0.6714  0.4661  0.02412  -0.003098  -0.008158  0.02634  0.82  -0.06294
6.458e+09  0.8328  0.2013  -0.01661  -0.0464  0.0315  -0.002526  0.7356  -0.3618
6.459e+09  0.8895  -0.03569  -0.0247  -0.05258  -0.03245  -0.02681  0.5631  -0.6117
6.46e+09  0.7485  -0.3444  0.01042  0.01672  0.07256  -0.04357  0.3619  -0.7529
6.461e+09  0.6023  -0.5729  -0.00706  0.01935  0.0002577  -0.02226  0.06472  -0.8338
6.462e+09  0.3331  -0.7557  0.02275  0.01622  0.03805  0.02131  -0.2257  -0.764
6.464e+09  0.1188  -0.8241  -0.01254  0.01071  0.05906  0.003893  -0.4705  -0.6801
6.465e+09  -0.1873  -0.8628  0.00174  -0.003706  -0.01115  -0.01741  -0.6465  -0.4504
6.466e+09  -0.4677  -0.6787  -0.01969  -0.006015  0.03958  0.009246  -0.7913  -0.1936
6.468e+09  -0.6594  -0.5052  0.007031  0.02456  -0.02424  0.02571  -0.8074  0.06553
6.469e+09  -0.7999  -0.1959  0.01762  0.02941  0.03231  -0.03592  -0.7056  0.3508
6.47e+09  -0.8608  0.1042  -0.03558  0.01373  0.01104  0.001923  -0.5362  0.5562
6.471e+09  -0.791  0.3365  -0.02501  -0.03353  0.0195  0.02051  -0.3179  0.749
6.472e+09  -0.6325  0.6099  -0.03324  -0.00583  -0.02471  -0.03105  -0.07758  0.818
6.474e+09  -0.3939  0.786  -0.02943  0.02548  -0.006767  0.04206  0.2277  0.7246
6.475e+09  -0.08148  0.8729  -0.0283  -0.01322  -0.04327  0.008177  0.4519  0.6562
6.476e+09  0.2062  0.8152  0.02688  -0.02393  -0.01651  0.003872  0.6719  0.4522
6.478e+09  0.506  0.7118  0.001292  -0.02973  -0.04281  0.02555  0.7622  0.217
6.479e+09  0.7108  0.487  -0.01576  0.02617  -0.01056  0.001232  0.8066  -0.05855
6.48e+09  0.8535  0.2429  0.01527  -0.0158  0.01492  -0.01495  0.6855  -0.3259
6.481e+09  0.8226  -0.1089  0.03752  0.0002583  0.01411  0.03495  0.5448  -0.5466
6.482e+09  0.7663  -0.3889  0.02702  -0.0559  0.02343  0.0466  0.2768  -0.669
6.484e+09  0.6521  -0.5693  -0.03926  -0.03847  -0.04419  0.05256  0.01292  -0.7699
6.485e+09  0.3542  -0.7746  0.02155  -0.03337  -0.04048  -0.01354  -0.2151  -0.7991
6.486e+09  0.02369  -0.922  0.02085  0.03945  0.01604  0.0001652  -0.4479  -0.6117
6.488e+09  -0.7189  -0.2423  0.02305  0.01904  -0.3841  -0.6471  -0.5848  -0.4407
6.489e+09  -0.4769  -0.6644  -0.03777  0.009004  0.01952  0.02507  -0.7436  -0.1648
6.49e+09  -0.7321  -0.5447  0.03232  -0.008968  -0.005631  0.0129  -0.7882  0.05545
6.491e+09  -0.8318  -0.223  0.01273  0.01728  0.02051  -0.002931  -0.6811  0.3429
6.492e+09  -0.8289  0.1396  0.001428  -0.04  0.005329  -0.02052  -0.5492  0.5276
6.494e+09  -0.7234  0.3414  -0.02317  -0.01036  0.02321  0.1035  -0.2536  0.743
6.495e+09  -0.6274  0.648  0.02766  0.0001389  -0.0253  0.02054  -0.04527  0.7671
6.496e+09  -0.382  0.7624  -0.03498  0.03323  -0.02048  0.0249  0.253  0.7402
6.498e+09  -0.08445  0.8835  0.05975  -0.02198  -0.02129  3.902e-06  0.462  0.6557
6.499e+09  0.2508  0.9079  -0.00852  0.001182  -0.03768  0.01068  0.6267  0.3623
6.5e+09  0.5814  0.7462  0.01358  -0.01823  0.009838  -0.03787  0.7313  0.1537
6.501e+09  0.7244  0.4965  0.04025  0.01238  0.003257  0.01835  0.7734  -0.106
6.502e+09  0.8688  0.1433  -0.001907  -0.04604  -0.02066  -0.07117  0.6646  -0.3446
6.504e+09  0.8828  -0.09615  0.01557  -0.009135  -0.001145  -0.01021  0.5511  -0.5463
6.505e+09  0.8488  -0.3589  -0.02545  0.007229  -0.02471  -0.03551  0.2707  -0.7411
6.506e+09  0.6137  -0.6112  0.008916  0.005361  0.03181  -0.01282  0.01039  -0.7628
6.508e+09  0.3897  -0.7827  0.004191  0.002706  -0.04097  0.03502  -0.2149  -0.7111
6.509e+09  -0.001215  -0.9306  0.01113  0.002922  -0.03383  0.05955  -0.4497  -0.5884
6.51e+09  -0.2828  -0.8216  -0.02004  -0.01821  0.02639  0.03531  -0.6223  -0.4365
6.511e+09  -0.5443  -0.6966  0.0254  -0.009544  -0.008688  0.001677  -0.7033  -0.1307
6.512e+09  -0.732  -0.4929  0.001499  -0.03019  0.006095  0.008141  -0.7322  0.1412
6.514e+09  -0.9029  -0.1821  0.003078  0.04324  0.003537  0.03987  -0.659  0.3575
6.515e+09  -0.8898  0.09012  -0.005874  -0.01522  -0.005297  -0.008797  -0.4996  0.5928
6.516e+09  -0.7504  0.3981  0.03193  -0.008223  -0.02039  -0.01071  -0.2715  0.7147
6.518e+09  -0.5798  0.6647  0.02103  -0.01586  -0.03236  0.0009803  0.01334  0.7775
6.519e+09  -0.2951  0.8688  -0.0183  -0.0007188  -0.02024  -0.001378  0.2923  0.7051
6.52e+09  -0.04428  0.9327  0.01977  0.007293  -0.0004707  0.03921  0.5  0.5783
6.521e+09  0.3121  0.8783  0.0137  0.003532  -0.006725  -0.04416  0.6424  0.3674
6.522e+09  0.5983  0.681  -0.007387  -0.008328  0.02962  -0.08203  0.7255  0.09047
6.524e+09  0.7731  0.48  -0.01354  0.009119  -0.007705  0.0279  0.6859  -0.1603
6.525e+09  0.9162  0.1085  -0.01557  -0.01208  -0.06516  -0.01096  0.6057  -0.3996
6.526e+09  0.882  -0.17  0.01687  0.006831  -0.01621  0.01437  0.3881  -0.6029
6.528e+09  0.8047  -0.492  0.01041  0.02938  0.004654  -0.02985  0.1227  -0.6806
6.529e+09  0.6203  -0.7178  -0.002435  -0.02485  0.004715  -0.02743  -0.07638  -0.6641
6.53e+09  0.2801  -0.8761  -0.007971  -0.0003881  -0.0112  0.01605  -0.2719  -0.6174
6.531e+09  -0.03935  -0.9221  -0.01127  0.01814  0.01013  -0.0144  -0.4866  -0.5022
6.532e+09  -0.3819  -0.8802  0.005149  0.009636  -0.01515  0.006773  -0.5655  -0.2971
6.534e+09  -0.6624  -0.7163  -0.03388  -0.02686  -0.03992  0.04354  -0.6364  -0.09263
6.535e+09  -0.8631  -0.3861  0.01822  -0.0007481  0.01557  0.00264  -0.6454  0.1034
6.536e+09  -0.9172  -0.1493  0.03612  -0.0002555  -0.002057  -0.009028  -0.5576  0.2897
6.538e+09  -0.9002  0.2323  0.02766  -0.003487  0.03766  0.01613  -0.4489  0.4599
6.539e+09  -0.7858  0.5571  -0.01092  -0.004265  -0.004542  0.05167  -0.2681  0.6063
6.54e+09  -0.5275  0.8041  -0.004227  -0.02212  -0.01782  0.04749  -0.06179  0.6909
6.541e+09  -0.2147  0.8926  0.009655  0.01374  -0.02151  -0.03755  0.1928  0.634
6.542e+09  0.09498  0.9806  -0.01351  0.01735  -0.03991  -0.0009955  0.4095  0.5754
6.544e+09  0.4072  0.7927  0.01041  -0.01956  -0.003938  0.03735  0.597  0.3926
6.545e+09  0.6604  0.6765  0.01654  -0.02512  -0.01026  0.03001  0.7201  0.154
6.546e+09  0.8672  0.3688  0.02216  0.01166  -0.0497  0.01967  0.7316  -0.07029
6.548e+09  0.9128  0.05765  0.01131  -0.01971  -0.01361  -0.005087  0.6566  -0.3224
6.549e+09  0.8605  -0.2628  0.009646  0.0161  0.009364  -0.06655  0.5056  -0.5329
6.55e+09  0.7143  -0.5764  -0.006684  -0.00156  0.01437  0.01217  0.3085  -0.6538
