# Hz S RI R 50
6.25e+09  -0.355  0.753  -0.003012  -0.04266  -0.05591  0.03884  0.1384  0.4618
6.251e+09  -0.08828  0.8285  -0.02188  -0.001994  -0.003378  -0.02373  0.3925  0.4144
6.252e+09  0.2143  0.8361  -0.008756  -0.01904  -0.02951  0.0299  0.5164  0.2407
6.254e+09  0.5122  0.7013  -0.00118  -0.003593  -0.01837  -0.03201  0.6053  0.01675
6.255e+09  0.6043  0.4235  -0.004248  0.01232  -0.02829  0.01969  0.5868  -0.2036
6.256e+09  0.786  0.183  0.01088  0.02995  -0.01421  0.0219  0.4691  -0.4455
6.258e+09  0.8501  -0.08311  0.01103  -0.008567  -0.03192  0.01196  0.2855  -0.5956
6.259e+09  0.7474  -0.3045  0.03714  0.001878  -0.02938  0.04946  0.06308  -0.7045
6.26e+09  0.5593  -0.623  -0.02107  -0.01087  0.03061  -0.03249  -0.2352  -0.6569
6.261e+09  0.3046  -0.7594  0.01122  0.006788  -0.02218  0.02062  -0.4258  -0.5505
6.262e+09  0.0564  -0.8534  -0.004188  -0.01172  0.02157  0.03968  -0.6168  -0.3416
6.264e+09  -0.283  -0.7623  0.01989  -0.02671  0.02394  0.01463  -0.7307  -0.1173
6.265e+09  -0.5341  -0.6155  0.01863  0.008789  0.0234  -0.0005986  -0.7129  0.1476
6.266e+09  -0.6501  -0.4476  -0.007708  0.0192  -0.004637  0.04692  -0.6254  0.3998
6.268e+09  -0.7965  -0.1708  0.02251  -0.01302  -0.01796  -0.02191  -0.4383  0.5986
6.269e+09  -0.7262  0.1024  0.01872  0.01968  -0.01463  -0.02174  -0.2264  0.6749
6.27e+09  -0.7347  0.3565  -0.0153  0.004758  -0.005218  0.0202  0.05211  0.7544
6.271e+09  -0.5577  0.5898  -0.009775  -0.006961  0.02436  0.0219  0.2935  0.6704
6.272e+09  -0.2576  0.7256  -0.01507  -0.02036  -0.02033  -0.003582  0.5039  0.5222
6.274e+09  -0.00134  0.755  -0.02286  -0.01726  -0.03876  0.02232  0.6822  0.3127
6.275e+09  0.2403  0.7502  -0.02196  0.002206  0.02171  -0.05359  0.7631  0.06741
6.276e+09  0.5281  0.6252  -0.008501  -0.01518  0.02544  -0.0001312  0.7268  -0.2291
6.278e+09  0.7138  0.4455  0.006912  0.04171  0.01943  0.01506  0.6081  -0.4672
6.279e+09  0.7654  0.1664  0.015  0.01156  -0.005075  -0.05281  0.3979  -0.6366
6.28e+09  0.7554  -0.1495  0.0387  -0.0169  0.03328  0.004431  0.1639  -0.716
6.281e+09  0.6912  -0.3979  -0.004996  -0.01638  -0.01327  -0.03298  -0.06442  -0.7627
6.282e+09  0.5286  -0.6248  0.004234  -0.03142  -0.01694  -0.02235  -0.3692  -0.6674
6.284e+09  0.2677  -0.7764  0.01511  -0.02534  -0.02264  -0.00282  -0.5715  -0.5213
6.285e+09  -0.003041  -0.8129  0.02062  -0.02317  -0.0183  -0.01509  -0.7209  -0.308
6.286e+09  -0.2778  -0.7707  0.01169  -0.01757  -0.05974  -0.03556  -0.8217  0.01355
6.288e+09  -0.5092  -0.5665  0.01122  -0.01251  0.02729  0.006816  -0.7399  0.2817
6.289e+09  -0.7285  -0.4258  -0.0005237  0.02067  -0.02268  -0.005674  -0.6201  0.496
6.29e+09  -0.8278  -0.1257  -0.0004725  0.005958  -0.02319  -0.03943  -0.4387  0.6848
6.291e+09  -0.7669  0.1533  0.008686  0.02192  -0.04258  -0.00468  -0.1236  0.7919
6.292e+09  -0.7132  0.4507  -0.02144  -0.002464  0.009228  -0.05035  0.1165  0.8174
6.294e+09  -0.4817  0.602  0.01904  0.008775  -0.03653  0.01272  0.3893  0.6933
6.295e+09  -0.2336  0.758  -0.02545  -0.002756  -0.02747  0.02354  0.6177  0.5365
6.296e+09  -0.02006  0.7812  0.01212  0.01897  -0.034  -0.007994  0.7406  0.2871
6.298e+09  0.3031  0.7814  -0.01395  0.01022  0.003811  -0.0263  0.8244  0.03198
6.299e+09  0.5325  0.5757  0.02433  0.01013  0.02042  0.01381  0.7961  -0.2788
6.3e+09  0.7367  0.4061  0.000447  0.01989  -0.04336  0.01986  0.659  -0.5523
6.301e+09  0.8172  0.09099  -0.03656  0.01746  -0.02876  0.02026  0.4203  -0.7238
6.302e+09  0.83  -0.1711  -0.01698  -0.009235  -0.02167  -0.001183  0.1613  -0.8231
6.304e+09  0.6572  -0.405  -0.003744  0.00267  0.003058  -0.007514  -0.1303  -0.8409
6.305e+09  0.4804  -0.6579  0.01613  0.01149  0.01164  -0.06345  -0.421  -0.7383
6.306e+09  0.23  -0.8149  0.01441  -0.01709  -0.01549  -0.04047  -0.6373  -0.5663
6.308e+09  -0.0297  -0.7546  -0.007598  0.02387  -0.04226  0.01301  -0.7811  -0.2863
6.309e+09  -0.3286  -0.679  0.002865  -0.01782  0.01734  0.03891  -0.8726  -0.009353
6.31e+09  -0.6151  -0.6084  -0.005627  0.001331  -0.01359  -0.008522  -0.7964  0.2621
6.311e+09  -0.7329  -0.3375  0.02793  0.005831  -0.02813  -0.003282  -0.6857  0.5396
6.312e+09  -0.7846  -0.08493  -0.004651  -0.002516  -0.03236  0.01213  -0.4546  0.7345
6.314e+09  -0.8158  0.2122  0.02643  -0.04701  -0.06658  0.01483  -0.1657  0.8612
6.315e+09  -0.6289  0.4679  0.05931  0.005505  -0.00416  0.03755  0.1371  0.8858
6.316e+09  -0.4581  0.6577  0.01544  -0.005622  -0.05471  -0.02783  0.3962  0.745
6.318e+09  -0.186  0.7914  -0.02725  0.006966  0.03607  -0.006512  0.6646  0.5834
6.319e+09  0.09132  0.8481  -0.02718  -0.005842  0.01383  0.03037  0.8153  0.3183
6.32e+09  0.3935  0.7307  -0.01067  0.02131  0.003461  -0.007701  0.8857  0.01436
6.321e+09  0.6359  0.5326  0.002073  0.01403  -0.005588  -0.0358  0.8299  -0.3038
6.322e+09  0.7903  0.238  -0.01581  -0.0004819  0.06211  -0.01635  0.6779  -0.5858
6.324e+09  0.8157  0.0336  0.0001045  -0.0001336  -0.01737  -0.01267  0.4888  -0.7976
6.325e+09  0.7802  -0.2703  0.00219  0.01192  -0.03262  -0.03615  0.1365  -0.8746
6.326e+09  0.6395  -0.5092  0.01393  0.0005744  -0.0008294  -0.0007949  -0.1226  -0.8959
6.328e+09  0.3679  -0.7188  0.02977  0.005637  -0.01112  0.01244  -0.4232  -0.8001
6.329e+09  0.1758  -0.8137  0.00914  -0.01558  0.04967  -0.04969  -0.6717  -0.6104
6.33e+09  -0.1403  -0.8019  -0.008801  0.005222  0.001554  0.01378  -0.8346  -0.3333
6.331e+09  -0.4173  -0.7266  -0.01738  -0.003442  -0.003376  -0.01162  -0.8755  -0.02843
6.332e+09  -0.6792  -0.5231  -0.01501  -0.007135  -0.01694  -0.02209  -0.8761  0.3116
6.334e+09  -0.8256  -0.2634  0.0147  0.006336  0.02187  0.02584  -0.734  0.5581
6.335e+09  -0.8504  0.005789  0.0002943  -0.0007729  0.03951  -0.01816  -0.5101  0.7404
6.336e+09  -0.7603  0.3085  0.01202  0.03693  0.01086  0.01385  -0.1665  0.8589
6.338e+09  -0.6394  0.6041  0.008618  0.001939  -0.04037  -0.005689  0.09979  0.9064
6.339e+09  -0.418  0.7869  0.003434  0.01751  0.0105  -0.03344  0.4307  0.816
6.34e+09  -0.09229  0.8644  -0.01238  0.01908  -0.003576  0.01702  0.67  0.6177
6.341e+09  0.206  0.8482  0.01766  0.02465  -0.06163  -0.00942  0.8672  0.361
6.342e+09  0.5095  0.7073  -0.002281  -0.02085  0.009592  0.01277  0.9211  0.08523
6.344e+09  0.731  0.5079  -0.03165  0.01255  -0.000551  0.05568  0.8758  -0.283
6.345e+09  0.8295  0.2403  0.01329  -0.00637  -0.01657  -0.04526  0.7355  -0.5634
6.346e+09  0.8272  -0.06265  -0.003547  -0.005058  0.04753  0.05336  0.5452  -0.7635
6.348e+09  0.7539  -0.3564  -0.02008  0.01554  -0.03098  0.02388  0.1914  -0.8877
6.349e+09  0.6017  -0.647  0.01355  -0.02276  -0.003985  0.02391  -0.114  -0.9187
6.35e+09  0.3773  -0.7979  0.03506  -0.03276  -0.01087  0.009838  -0.4132  -0.8094
6.351e+09  0.05982  -0.8769  -0.009966  -0.004993  -0.01254  -0.02555  -0.6766  -0.6167
6.352e+09  -0.2278  -0.7647  -0.01825  -0.02013  -0.03045  0.02853  -0.8499  -0.3891
6.354e+09  -0.4946  -0.6778  0.01555  0.004982  -1.491e-05  0.02016  -0.9548  -0.09664
6.355e+09  -0.7229  -0.4719  0.004633  0.01854  0.02134  -0.01312  -0.9147  0.2631
6.356e+09  -0.8096  -0.1712  0.01906  0.03634  0.05476  -0.009666  -0.7733  0.5843
6.358e+09  -0.8354  0.1444  -0.0198  -0.0154  -0.03371  0.01867  -0.5159  0.7714
6.359e+09  -0.76  0.4023  -0.005162  -0.01752  -0.004725  -0.01819  -0.2317  0.9088
6.36e+09  -0.5823  0.6809  -0.01365  -0.02377  -0.004465  0.008409  0.08096  0.9561
6.361e+09  -0.2971  0.809  0.004488  -0.01955  -0.02308  0.02064  0.4165  0.8284
6.362e+09  0.002623  0.8573  0.01158  0.01782  0.02492  0.079  0.6752  0.6683
6.364e+09  0.2917  0.8275  -0.01257  0.002597  0.006812  0.02413  0.8916  0.3953
6.365e+09  0.5588  0.6248  0.01615  0.0187  -0.002749  -0.02405  0.9796  0.09457
6.366e+09  0.7365  0.4091  0.007791  0.01276  0.01934  0.003834  0.8967  -0.2157
6.368e+09  0.8352  0.1755  0.02681  0.0008758  -0.02719  0.03861  0.7981  -0.5479
6.369e+09  0.8736  -0.1885  -0.01208  0.03781  -0.008932  0.03179  0.574  -0.7941
6.37e+09  0.7492  -0.4499  -0.007017  0.02496  0.03859  0.02816  0.2408  -0.9297
6.371e+09  0.5609  -0.6906  0.005486  0.0001902  0.04656  -0.0511  -0.07364  -0.9558
6.372e+09  0.2312  -0.7818  -0.02563  -0.004256  -0.01135  -0.01307  -0.3859  -0.7933
6.374e+09  -0.02107  -0.8721  0.01768  0.01711  -0.01219  -0.03394  -0.6735  -0.7223
6.375e+09  -0.3738  -0.7757  -0.05528  -0.01734  -0.02138  -0.01251  -0.86  -0.418
6.376e+09  -0.6002  -0.6088  0.002166  0.006017  0.02709  0.006022  -0.9372  -0.1221
6.378e+09  -0.751  -0.4048  -0.03282  0.01707  -0.008511  0.01011  -0.9322  0.1979
6.379e+09  -0.8329  -0.05687  0.03548  0.01289  -0.007873  0.02631  -0.8032  0.5319
6.38e+09  -0.8507  0.2323  -0.009633  0.002497  -0.00486  -0.007306  -0.5879  0.7322
6.381e+09  -0.7419  0.4836  -0.03023  0.001282  0.02502  0.0199  -0.2459  0.9283
6.382e+09  -0.4756  0.7236  -0.00615  0.02302  -0.03514  0.01295  0.09444  0.9223
6.384e+09  -0.1646  0.8331  -5.64e-05  -0.04674  -0.008442  0.03436  0.3468  0.8421
6.385e+09  0.04899  0.859  -0.006032  0.008109  0.01915  0.01849  0.5791  0.6516
6.386e+09  0.4022  0.7389  -0.002796  0.02588  0.01983  -0.04162  0.8504  0.4442
6.388e+09  0.6481  0.6019  -0.0254  -0.008432  -0.03661  0.03195  0.9571  0.08326
6.389e+09  0.84  0.3493  -0.009506  -0.03338  0.01093  0.01633  0.8892  -0.1874
6.39e+09  0.8815  0.06059  0.01477  -0.01446  0.01112  -0.001126  0.7942  -0.5256
6.391e+09  0.8329  -0.271  -0.01176  0.003025  0.03195  0.05269  0.5706  -0.7167
6.392e+09  0.6777  -0.49  -0.02969  0.01463  -0.002715  0.05409  0.2875  -0.8884
6.394e+09  0.4822  -0.7037  0.01382  -0.01218  0.02529  0.01847  -0.06128  -0.9114
6.395e+09  0.1808  -0.8226  -0.0358  0.002178  -0.03146  0.0147  -0.329  -0.8384
6.396e+09  -0.09694  -0.8399  0.009697  -0.01849  -0.001715  -0.02932  -0.6497  -0.6852
6.398e+09  -0.4167  -0.7588  -0.01369  0.001128  0.01675  -0.01407  -0.7801  -0.4504
6.399e+09  -0.6328  -0.5751  -0.02303  -0.004695  0.01282  0.008684  -0.8781  -0.07747
6.4e+09  -0.8284  -0.2978  0.02695  0.04137  -0.03839  0.01773  -0.8832  0.2031
6.401e+09  -0.8403  -0.02141  -0.01178  0.0133  -0.03224  -0.03162  -0.7938  0.4681
6.402e+09  -0.829  0.2689  -0.00724  -0.05719  -0.04822  -0.01425  -0.5761  0.7033
6.404e+09  -0.6824  0.5574  -0.03493  -0.01838  0.01535  -0.004024  -0.3152  0.8793
6.405e+09  -0.4092  0.7235  -0.06332  0.02701  0.03566  -0.003492  -0.004266  0.9214
6.406e+09  -0.1746  0.7668  0.01564  -0.02097  0.004068  -0.0009891  0.3354  0.9
6.408e+09  0.1425  0.8772  -0.03891  0.009535  0.01858  0.003405  0.6046  0.6821
6.409e+09  0.3949  0.7696  0.04159  0.003829  0.01382  -0.0267  0.7503  0.4603
6.41e+09  0.6456  0.5409  -0.02296  -0.02653  -0.0111  0.002614  0.8871  0.1638
6.411e+09  0.7963  0.3064  0.05348  0.02755  0.05762  0.002767  0.9253  -0.1285
6.412e+09  0.8665  0.01442  0.01222  0.0001082  -0.03503  -0.0127  0.7835  -0.4058
6.414e+09  0.7964  -0.2576  0.01185  0.01759  0.006703  -0.02702  0.6134  -0.6646
6.415e+09  0.6453  -0.5499  -0.001764  0.003402  0.04025  -0.01434  0.3272  -0.7974
6.416e+09  0.443  -0.7545  0.03707  -0.02565  0.01178  -0.02774  0.03069  -0.9361
6.418e+09  0.1491  -0.8161  -0.01405  -0.02809  0.03163  -0.01208  -0.2815  -0.8243
6.419e+09  -0.1392  -0.8816  -0.01462  0.004494  -0.02218  -0.02369  -0.5399  -0.7244
6.42e+09  -0.4794  -0.7681  0.01124  -0.02961  -0.0125  -0.01092  -0.7747  -0.4598
6.421e+09  -0.6807  -0.5431  -0.001995  -0.0346  -0.01784  0.03284  -0.8945  -0.2065
6.422e+09  -0.7949  -0.2677  0.02122  -0.02657  0.03072  -0.02437  -0.8633  0.1409
6.424e+09  -0.9481  -0.02354  -0.004503  0.008246  -0.01168  -0.01978  -0.8131  0.4125
6.425e+09  -0.8025  0.2596  -0.009921  -0.02535  0.01983  -0.01342  -0.6202  0.6027
6.426e+09  -0.6526  0.554  -0.0008136  0.02182  -0.0264  -0.01433  -0.3554  0.8289
6.428e+09  -0.3975  0.7591  -0.02893  0.009077  -0.008398  0.05392  -0.07636  0.9061
6.429e+09  -0.1334  0.8934  0.05841  0.01779  -0.03421  -0.02742  0.2298  0.8727
6.43e+09  0.191  0.8573  0.01952  0.03443  0.01816  -0.03915  0.5459  0.6893
6.431e+09  0.3768  0.7151  -0.01449  0.06121  0.05628  -0.05351  0.6966  0.4651
6.432e+09  0.6823  0.5314  0.005106  0.05896  0.0111  0.02535  0.8845  0.1988
6.434e+09  0.8081  0.2635  -0.03127  -0.00795  0.03355  0.02988  0.8429  -0.09235
6.435e+09  0.8829  -0.04072  0.02204  -0.01934  -0.01702  -0.03281  0.7754  -0.3849
6.436e+09  0.7946  -0.3188  0.03408  -0.02313  0.03005  0.00562  0.5995  -0.5835
6.438e+09  0.5972  -0.5827  -0.04779  -0.02183  -0.002399  0.01128  0.3688  -0.7578
6.439e+09  0.4398  -0.7544  -0.004723  0.01386  -0.009991  0.0308  0.1078  -0.8459
6.44e+09  0.127  -0.8309  -0.0121  0.04825  0.004324  0.03019  -0.2423  -0.883
6.441e+09  -0.1526  -0.7858  -0.0191  -0.009141  0.01046  0.003569  -0.496  -0.7063
6.442e+09  -0.4364  -0.7378  -0.006112  -0.02899  -0.0221  -0.02098  -0.72  -0.4696
6.444e+09  -0.6706  -0.492  0.04273  -0.06066  0.02652  -0.002395  -0.8077  -0.2049
6.445e+09  -0.8904  -0.2118  -0.003893  -0.04071  0.04143  0.01096  -0.8576  0.08892
6.446e+09  -0.8519  -0.01313  0.0001956  0.02434  0.02125  -0.02209  -0.7982  0.3473
6.448e+09  -0.7911  0.3675  -0.009076  -0.03171  0.01839  -0.01791  -0.5679  0.6099
6.449e+09  -0.6638  0.5877  -0.03757  -0.02185  -0.03837  0.03376  -0.322  0.7546
6.45e+09  -0.3924  0.8204  0.002818  -0.01209  -0.01422  -0.02181  -0.0662  0.8399
6.451e+09  -0.08738  0.8434  0.02334  -0.003414  -0.05987  0.001562  0.2129  0.7921
6.452e+09  0.2013  0.8497  0.001042  -0.03971  -0.02949  0.0227  0.4669  0.7213
6.454e+09  0.4489  0.7327  -0.0475  0.02408  -0.001643  -0.01191  0.6868  0.4994
6.455e+09  0.6779  0.5257  0.03686  0.05069  0.05404  -0.005107  0.7862  0.2118
6.456e+09  0.8011  0.2144  -0.005987  -0.03006  -0.0002819  0.007208  0.8179  -0.1035
6.458e+09  0.8505  -0.07  0.02376  -0.005235  -0.0283  -0.002578  0.761  -0.3493
6.459e+09  0.8246  -0.3332  -0.02506  0.04383  -0.03765  0.01092  0.5726  -0.5564
6.46e+09  0.6049  -0.6112  -0.04556  0.02857  -0.003163  -0.04645  0.3109  -0.7639
6.461e+09  0.345  -0.7366  -0.009147  -0.03037  -0.0006697  0.005489  0.0628  -0.851
6.462e+09  0.09458  -0.8598  0.005431  0.005209  -0.04511  0.02908  -0.1751  -0.7413
6.464e+09  -0.2248  -0.8181  0.003401  -0.00632  -0.01445  -0.0193  -0.4602  -0.6333
6.465e+09  -0.5032  -0.7142  0.0222  -0.03749  0.02456  -0.01893  -0.6826  -0.4512
6.466e+09  -0.6931  -0.4906  -0.0063  -0.01041  -0.004685  -0.03018  -0.7751  -0.1856
6.468e+09  -0.8446  -0.2198  -0.01866  0.01492  0.02827  -0.002419  -0.7981  0.05549
6.469e+09  -0.8401  0.05801  0.005374  -0.001286  0.03405  -0.002781  -0.7481  0.3481
6.47e+09  -0.7516  0.4079  -0.003499  2.748e-05  -0.002813  0.02159  -0.5788  0.619
6.471e+09  -0.6034  0.598  0.01618  -0.05297  -0.0199  0.002493  -0.3265  0.7139
6.472e+09  -0.3618  0.78  0.03234  0.02544  -0.01693  -0.0162  -0.08075  0.8057
6.474e+09  -0.1235  0.861  0.01173  -0.01812  0.01112  0.03455  0.2096  0.7062
6.475e+09  0.2114  0.8404  0.01419  -0.01998  0.03102  0.01884  0.4397  0.642
6.476e+09  0.4752  0.7415  -0.03009  -0.01376  0.004433  0.01636  0.6554  0.4899
6.478e+09  0.6695  0.503  0.01323  -0.02113  -0.0002712  -0.0272  0.7533  0.2246
6.479e+09  0.8744  0.2306  -0.01463  0.01517  0.02206  0.05542  0.778  -0.05633
6.48e+09  0.8947  -0.06455  -0.004455  0.01583  -0.04274  0.05875  0.7147  -0.2901
6.481e+09  0.8318  -0.3881  -0.04266  0.00903  0.01838  0.03224  0.5226  -0.5754
6.482e+09  0.655  -0.6017  -0.004846  0.005006  0.03509  -0.01593  0.2896  -0.6811
6.484e+09  0.3661  -0.82  0.009629  0.007588  0.02084  0.0426  0.1096  -0.7274
6.485e+09  0.06506  -0.9157  0.01024  0.001839  -0.0127  -0.002817  -0.2094  -0.7685
6.486e+09  -0.2426  -0.8464  -0.004996  -0.03373  -0.04058  -0.02054  -0.4264  -0.6179
6.488e+09  0.2364  -0.7944  -0.04804  0.01834  -0.09667  0.7448  -0.6331  -0.4068
6.489e+09  -0.7574  -0.4859  0.0005289  0.006939  -0.02842  0.005027  -0.7354  -0.1494
6.49e+09  -0.8568  -0.2086  0.01072  0.008159  0.03705  -0.01884  -0.767  0.07524
6.491e+09  -0.8717  0.1026  -0.002512  0.02732  0.03231  0.03269  -0.7114  0.3417
6.492e+09  -0.8165  0.4478  -0.02862  -0.01204  -0.02317  0.03396  -0.5136  0.5819
6.494e+09  -0.6645  0.6101  0.01582  0.02089  0.1344  -0.007268  -0.2822  0.7093
6.495e+09  -0.3521  0.8058  -0.01001  0.009306  0.03582  -0.04133  -0.05064  0.7898
6.496e+09  -0.05016  0.9442  -0.03594  -0.001586  0.0002053  -0.007734  0.2177  0.7119
6.498e+09  0.2558  0.894  -0.008538  -0.003664  0.005879  0.03117  0.4279  0.6237
6.499e+09  0.5706  0.7455  -0.02018  -0.01534  0.07141  -0.01916  0.6452  0.4299
6.5e+09  0.7293  0.4883  0.03101  0.00152  0.05192  0.02098  0.749  0.18
6.501e+09  0.8869  0.1965  -0.008899  0.008262  -0.01321  -0.008948  0.724  -0.08748
6.502e+09  0.908  -0.1691  0.003072  0.007895  0.02941  0.01445  0.6686  -0.3377
6.504e+09  0.8111  -0.4384  0.01096  0.01616  -0.06488  0.00265  0.5133  -0.5274
6.505e+09  0.5528  -0.6475  0.0004302  0.006126  -0.02384  -0.01125  0.2515  -0.6919
6.506e+09  0.3182  -0.8211  -0.008525  0.0187  0.009908  -0.002702  0.0294  -0.7664
6.508e+09  0.03059  -0.9125  0.0071  -0.002233  -0.02749  -0.06506  -0.2533  -0.717
6.509e+09  -0.2969  -0.8324  -0.006207  -0.004318  -0.0479  -0.04871  -0.4742  -0.5368
6.51e+09  -0.5624  -0.668  0.02852  -0.0122  0.004283  0.01181  -0.6438  -0.3412
6.511e+09  -0.8096  -0.5086  0.002428  -0.008888  0.02126  0.008263  -0.722  -0.1058
6.512e+09  -0.8492  -0.1196  -0.01087  -0.009507  0.00943  -0.007982  -0.7771  0.1296
6.514e+09  -0.8704  0.1572  -0.005635  -0.02229  -0.01934  -0.03678  -0.674  0.3843
6.515e+09  -0.8168  0.4735  0.02137  0.01289  -0.03033  -0.00653  -0.5074  0.5752
6.516e+09  -0.5911  0.7568  0.004861  0.03343  0.007659  0.01067  -0.2604  0.731
6.518e+09  -0.2572  0.9442  -0.01064  -0.03901  -0.01972  0.01021  -0.01313  0.7616
6.519e+09  0.01637  0.901  -0.038  0.001624  0.03558  0.009358  0.2709  0.6746
6.52e+09  0.3717  0.8596  0.004599  0.02066  0.0005245  0.004461  0.4979  0.5135
6.521e+09  0.6137  0.6486  0.0007063  -0.009944  -0.03823  0.01641  0.6703  0.3193
6.522e+09  0.8533  0.3795  0.03813  -0.03462  -0.03468  0.03756  0.7152  0.08662
6.524e+09  0.9037  0.09363  -0.01789  0.001554  -0.007254  0.004726  0.6842  -0.1647
6.525e+09  0.9232  -0.231  -0.004652  0.03312  0.0237  -0.01513  0.6244  -0.3613
6.526e+09  0.7628  -0.5496  -0.002686  0.02742  -0.01016  0.01422  0.4091  -0.5505
6.528e+09  0.5223  -0.7919  0.01167  0.01668  0.03145  0.01297  0.1579  -0.6568
6.529e+09  0.2207  -0.9135  -0.02406  0.004496  -0.01505  0.05666  -0.05279  -0.7261
6.53e+09  -0.1172  -0.9172  -0.02218  0.02248  0.03708  0.01231  -0.2811  -0.6284
6.531e+09  -0.4167  -0.8395  -0.009341  0.003525  0.02691  -0.03174  -0.4789  -0.4567
6.532e+09  -0.719  -0.7034  -0.02572  -0.002756  -0.03438  -0.03842  -0.5941  -0.3109
6.534e+09  -0.8827  -0.3454  0.0106  -0.006493  0.007649  -0.02832  -0.6299  -0.08509
6.535e+09  -0.9354  -0.01426  -0.00254  -0.02683  -0.03469  0.04088  -0.6174  0.08955
6.536e+09  -0.9216  0.2693  0.006141  -0.01292  0.0138  0.02386  -0.509  0.3013
6.538e+09  -0.7092  0.6169  -0.01131  0.0007011  0.01513  0.05997  -0.4361  0.4837
6.539e+09  -0.4741  0.7864  -0.01329  0.02789  -0.01915  -0.006501  -0.2926  0.5837
6.54e+09  -0.1501  0.9017  -0.04074  0.01218  -0.006619  -0.03124  -0.06697  0.6968
6.541e+09  0.1881  0.9392  -0.02715  0.03491  -0.0283  0.00732  0.1997  0.6563
6.542e+09  0.476  0.7843  -0.002318  0.006762  -0.00816  0.001564  0.4035  0.5572
6.544e+09  0.7061  0.5869  0.01123  -0.001029  -0.03924  -0.03731  0.6004  0.4221
6.545e+09  0.8662  0.3013  0.005213  -0.02068  -0.01156  0.06822  0.7104  0.2022
6.546e+09  0.952  -0.06092  0.003622  -0.01192  -0.03657  0.04272  0.7452  -0.08421
6.548e+09  0.8463  -0.4086  0.007935  0.01085  0.003371  0.02464  0.6468  -0.2794
6.549e+09  0.6692  -0.5911  -0.01326  0.01483  -0.007943  0.03411  0.4813  -0.5355
6.55e+09  0.4277  -0.7995  -0.00634  -0.02256  0.002146  0.008967  0.3097  -0.699
