# Hz S RI R 50
6.25e+09  -0.395  0.7859  0.03492  0.00666  -0.008584  -0.02813  0.1497  0.4779
6.251e+09  -0.1043  0.7996  -0.02458  0.001916  -0.04822  0.01719  0.3436  0.431
6.252e+09  0.2148  0.8211  -0.02781  0.0005617  0.004956  0.0611  0.5361  0.2566
6.254e+09  0.464  0.7026  -0.002077  -0.01056  0.01809  -0.03061  0.638  0.05708
6.255e+09  0.6797  0.4886  -0.01863  0.001475  -0.01429  0.02303  0.6027  -0.2049
6.256e+09  0.845  0.2324  -0.009637  -0.003107  0.01163  -0.003032  0.4737  -0.4338
6.258e+09  0.8106  -0.06498  0.01082  -0.0001072  0.01923  -0.02318  0.2586  -0.6061
6.259e+09  0.7917  -0.3529  -0.007234  0.02629  0.03293  0.006582  0.05435  -0.6638
6.26e+09  0.595  -0.6176  -0.0147  -0.001439  0.01211  0.000116  -0.2212  -0.6572
6.261e+09  0.3308  -0.7911  0.005147  0.005658  0.03499  0.04767  -0.426  -0.5457
6.262e+09  0.09587  -0.8555  0.001988  0.01555  0.03177  -0.03719  -0.6122  -0.3621
6.264e+09  -0.2565  -0.7676  0.009688  -0.01038  -0.01339  -0.0391  -0.7152  -0.08805
6.265e+09  -0.4226  -0.63  -0.0009036  0.006465  -0.009874  -0.01871  -0.7105  0.1632
6.266e+09  -0.6827  -0.4857  -0.01553  -0.004904  -0.0164  0.0182  -0.5933  0.3955
6.268e+09  -0.7688  -0.1818  -0.01442  -0.007952  0.007505  -0.03363  -0.4305  0.5778
6.269e+09  -0.7786  0.1102  -0.005435  0.01452  -0.01315  -0.06436  -0.1892  0.7204
6.27e+09  -0.7124  0.3053  -0.0007953  -0.007104  0.04295  0.02875  0.08444  0.7589
6.271e+09  -0.6163  0.5832  -0.008987  -0.003129  0.006221  -0.00274  0.3393  0.6642
6.272e+09  -0.3988  0.6995  -0.01571  -0.006231  -0.006124  0.01793  0.5194  0.5461
6.274e+09  -0.0744  0.8654  -0.0217  0.03807  -0.03956  0.01843  0.6699  0.3156
6.275e+09  0.2149  0.8165  0.01419  0.009913  0.02567  -0.01684  0.7127  0.02377
6.276e+09  0.4586  0.6093  -0.01908  -0.02894  0.01958  0.03407  0.7141  -0.208
6.278e+09  0.7025  0.4535  -0.003598  0.0239  -0.03405  0.0474  0.6129  -0.4475
6.279e+09  0.7484  0.1696  0.00669  -0.01847  -0.01396  -0.03017  0.4023  -0.6711
6.28e+09  0.7722  -0.05964  -0.0117  0.01342  0.0135  0.02656  0.1592  -0.7555
6.281e+09  0.731  -0.3955  -0.02105  -0.03049  -0.03342  -0.0197  -0.1388  -0.7693
6.282e+09  0.5821  -0.5871  -0.01492  0.03062  -0.038  -0.003757  -0.3453  -0.7009
6.284e+09  0.3078  -0.7584  0.01568  -0.01428  0.009038  0.009374  -0.5991  -0.5038
6.285e+09  0.04726  -0.7657  -0.009388  0.02135  -0.03348  0.02429  -0.7237  -0.323
6.286e+09  -0.2438  -0.7918  0.0257  0.03245  -0.01518  -0.005486  -0.7701  -0.05844
6.288e+09  -0.49  -0.6256  -0.008862  -0.01182  0.002523  0.01817  -0.7577  0.2603
6.289e+09  -0.7536  -0.445  0.0009949  0.003643  -0.01672  0.004089  -0.6213  0.4861
6.29e+09  -0.7988  -0.1505  -0.004313  -0.02078  0.0003636  0.01549  -0.4056  0.6844
6.291e+09  -0.8347  0.1039  0.01053  -0.03297  0.005571  0.0119  -0.1774  0.8012
6.292e+09  -0.6727  0.3954  -0.004772  -0.0197  -0.0174  -0.01999  0.1256  0.796
6.294e+09  -0.5345  0.5794  -0.04557  -0.01242  -0.02271  0.02376  0.3807  0.7162
6.295e+09  -0.3297  0.7398  0.01842  -0.008036  0.003172  -0.05201  0.591  0.5252
6.296e+09  0.02425  0.7896  -0.005058  0.0469  0.006412  -0.02792  0.7954  0.3083
6.298e+09  0.2151  0.7457  -0.0364  -0.007858  0.0112  -0.01193  0.8535  -0.001994
6.299e+09  0.5577  0.6615  0.0008441  0.01032  0.01741  -0.01698  0.7926  -0.2705
6.3e+09  0.6694  0.3858  -0.01172  0.02281  -0.007529  0.03379  0.6325  -0.5207
6.301e+09  0.7398  0.1164  0.02251  0.00798  0.01683  0.007576  0.4468  -0.7203
6.302e+09  0.8144  -0.1293  -0.0005676  -0.01336  -0.02789  0.01309  0.1657  -0.7976
6.304e+09  0.6953  -0.4429  -0.0199  -0.01738  -0.01632  0.001589  -0.1398  -0.8374
6.305e+09  0.5249  -0.6435  -0.01417  0.006682  -0.03265  -0.0437  -0.4454  -0.7255
6.306e+09  0.2956  -0.767  -0.01108  -0.007233  -0.007383  -0.02931  -0.6282  -0.5363
6.308e+09  0.006534  -0.762  -0.0399  -0.01648  -0.008603  0.01545  -0.7629  -0.3192
6.309e+09  -0.2574  -0.7669  -0.005586  -0.01689  -0.01521  0.05517  -0.8601  -0.005297
6.31e+09  -0.5132  -0.5949  0.04047  0.0001566  0.008682  -0.03867  -0.8224  0.2852
6.311e+09  -0.7604  -0.3695  -0.04118  -0.01295  -0.02959  -0.06319  -0.6462  0.5569
6.312e+09  -0.8294  -0.09715  0.00794  -0.01843  -0.001534  0.0009975  -0.4246  0.7475
6.314e+09  -0.8022  0.2268  -0.006461  -0.03516  0.00855  -0.003666  -0.1803  0.8478
6.315e+09  -0.6917  0.4821  0.0156  -0.01886  -0.005349  0.05897  0.1682  0.8694
6.316e+09  -0.4901  0.6608  -0.02185  0.005566  -0.00659  -0.02226  0.446  0.7935
6.318e+09  -0.2503  0.7565  0.0176  0.003951  -0.0189  0.002796  0.6497  0.5334
6.319e+09  0.03683  0.8356  -0.0372  0.01713  0.01342  0.002922  0.8149  0.3027
6.32e+09  0.3698  0.7366  -0.02386  -0.01044  0.009584  0.01998  0.8471  -0.01462
6.321e+09  0.542  0.5843  -0.02305  -0.00672  -0.01169  0.05493  0.8417  -0.312
6.322e+09  0.7649  0.317  0.01381  0.007239  -0.002897  0.0009594  0.6687  -0.5628
6.324e+09  0.8472  0.05776  0.02573  0.02031  -0.03455  0.01071  0.457  -0.779
6.325e+09  0.7963  -0.2186  -0.009607  0.003302  0.02626  -0.02532  0.1722  -0.8851
6.326e+09  0.6389  -0.473  -0.03954  -0.003133  -0.003253  0.01037  -0.121  -0.8866
6.328e+09  0.4184  -0.6863  0.02911  0.006828  -0.01074  0.0194  -0.4004  -0.8013
6.329e+09  0.1908  -0.817  -0.007753  0.002565  -4.993e-05  -0.02966  -0.6653  -0.5848
6.33e+09  -0.1137  -0.8149  -0.006296  0.0158  -0.008472  0.03507  -0.8119  -0.3394
6.331e+09  -0.38  -0.7468  -0.006396  -0.01703  0.01239  -0.01453  -0.8893  -0.07643
6.332e+09  -0.568  -0.5918  0.02559  -0.002677  0.01489  0.04374  -0.867  0.2994
6.334e+09  -0.7728  -0.3281  -0.009133  -0.0003737  -0.02267  0.005676  -0.7102  0.5654
6.335e+09  -0.8071  0.007122  0.01248  -0.01494  0.03956  0.03414  -0.5208  0.7801
6.336e+09  -0.8278  0.282  -0.001575  0.00147  -0.03879  0.009186  -0.2149  0.8811
6.338e+09  -0.6097  0.4606  -0.007149  0.02326  -0.03136  0.04083  0.1416  0.8941
6.339e+09  -0.4524  0.749  -0.003764  0.03892  0.04081  0.04114  0.4429  0.8159
6.34e+09  -0.1413  0.8125  0.0001595  0.01142  0.01775  0.0288  0.6563  0.638
6.341e+09  0.1427  0.8344  0.01433  0.01978  0.002426  -0.01268  0.8478  0.3632
6.342e+09  0.4734  0.7229  0.04165  -0.01031  -0.01068  0.0008627  0.9451  0.04366
6.344e+09  0.6607  0.5422  -0.02105  0.01541  0.006983  -0.03102  0.8661  -0.2563
6.345e+09  0.8084  0.2379  -0.02138  0.02846  0.005137  0.03282  0.7188  -0.5479
6.346e+09  0.8394  -0.02312  -0.007134  0.01253  0.01263  0.01533  0.5171  -0.8318
6.348e+09  0.7957  -0.2924  -0.01669  0.01823  0.01612  -0.01936  0.2269  -0.8975
6.349e+09  0.6454  -0.6032  -0.006298  0.02809  -0.02602  -0.0321  -0.08932  -0.9175
6.35e+09  0.3854  -0.7322  0.0339  -0.0103  0.03942  -0.04764  -0.4095  -0.829
6.351e+09  0.1507  -0.8274  0.01786  -0.0128  -0.004292  -0.004393  -0.6743  -0.6835
6.352e+09  -0.2037  -0.8302  -0.006155  -0.01905  -0.002402  0.01919  -0.8495  -0.3644
6.354e+09  -0.4808  -0.6463  0.004995  -0.005053  -0.009638  0.01698  -0.9316  -0.04455
6.355e+09  -0.6959  -0.4833  0.01908  0.004158  -0.0006364  -0.0008998  -0.8985  0.2745
6.356e+09  -0.7803  -0.2217  -0.02417  0.01152  -0.03107  0.00874  -0.7694  0.5363
6.358e+09  -0.871  0.1178  -0.0224  0.01309  -0.02897  0.008896  -0.5276  0.7497
6.359e+09  -0.7389  0.3755  0.01565  0.03473  0.01468  -0.001606  -0.2682  0.8944
6.36e+09  -0.5918  0.6029  -0.01777  -0.003114  0.03254  -0.04811  0.06757  0.9087
6.361e+09  -0.3582  0.8042  0.009192  0.003596  0.04233  0.004766  0.402  0.8466
6.362e+09  -0.06794  0.8764  0.004755  0.007133  0.03015  0.02264  0.6756  0.7172
6.364e+09  0.2637  0.8307  0.004575  0.02371  0.04121  -0.004728  0.8471  0.4117
6.365e+09  0.5356  0.6449  -0.01732  0.01621  0.04379  -0.002056  0.9591  0.06283
6.366e+09  0.7621  0.4401  -0.02963  0.005514  -0.01539  -0.00585  0.9051  -0.2336
6.368e+09  0.8496  0.1634  0.003462  -0.004491  0.02629  0.01855  0.7973  -0.5234
6.369e+09  0.8561  -0.1786  -0.01789  0.01822  -0.0384  -0.04039  0.504  -0.772
6.37e+09  0.7546  -0.4416  -0.0262  -0.006777  0.04237  0.02028  0.269  -0.9295
6.371e+09  0.57  -0.6566  0.01702  -0.01886  0.02047  -0.006799  -0.0814  -0.9239
6.372e+09  0.2947  -0.847  -0.02452  -0.02731  0.008183  0.01605  -0.393  -0.892
6.374e+09  -0.02258  -0.8515  -0.008123  0.004694  -0.03301  0.02406  -0.721  -0.6661
6.375e+09  -0.3135  -0.8121  -0.01542  -0.009075  -0.00574  -0.04077  -0.8725  -0.3955
6.376e+09  -0.5902  -0.6442  0.03217  -0.003575  -0.01826  0.01123  -0.9232  -0.1122
6.378e+09  -0.7645  -0.4063  -0.01692  0.006662  -0.03918  -0.02781  -0.8914  0.2317
6.379e+09  -0.8419  -0.1237  0.004532  0.04003  -0.008236  -0.0003156  -0.743  0.5185
6.38e+09  -0.8283  0.1739  0.01351  -0.0427  0.02196  0.07746  -0.5452  0.7584
6.381e+09  -0.7267  0.4546  -0.01367  -0.01593  -0.006625  -0.003173  -0.246  0.9192
6.382e+09  -0.5667  0.6437  0.01415  0.002592  0.01065  -0.03547  0.01578  0.9358
6.384e+09  -0.2716  0.8568  -0.003753  -0.00874  -0.01849  -0.02643  0.3636  0.8808
6.385e+09  0.06758  0.8784  0.01275  -0.02148  0.0287  -0.0006723  0.6692  0.7058
6.386e+09  0.3232  0.8027  0.02493  0.02264  0.003684  -0.001628  0.8353  0.4505
6.388e+09  0.6008  0.6258  -0.02535  -0.02197  -0.002942  -0.006721  0.9284  0.1044
6.389e+09  0.7633  0.3465  0.01538  0.02159  0.01081  -0.01098  0.9287  -0.1663
6.39e+09  0.8138  0.09154  0.01713  0.01367  -0.008431  0.02172  0.7811  -0.4972
6.391e+09  0.8146  -0.1617  -0.02158  0.0157  -0.003673  -0.02125  0.575  -0.7056
6.392e+09  0.6936  -0.4903  0.0004748  -0.004542  -0.01849  -0.004541  0.2988  -0.8641
6.394e+09  0.4763  -0.7059  0.02724  -0.009905  0.001492  -0.003996  -0.03237  -0.9088
6.395e+09  0.1954  -0.8495  -0.0302  -5.902e-05  0.02563  0.01351  -0.3567  -0.8363
6.396e+09  -0.06575  -0.86  -0.03028  0.02114  8.44e-05  0.02981  -0.5706  -0.6903
6.398e+09  -0.3983  -0.7652  0.00895  -0.02705  0.007551  -0.02413  -0.7909  -0.475
6.399e+09  -0.6109  -0.6202  -0.05867  0.01415  -0.0325  -0.02237  -0.8907  -0.158
6.4e+09  -0.7811  -0.3227  0.0063  -0.01251  0.01422  0.02073  -0.888  0.1562
6.401e+09  -0.8348  -0.05482  -0.02347  0.03138  0.007832  -0.003434  -0.7629  0.4894
6.402e+09  -0.8539  0.2041  -0.002271  0.02638  -0.0361  -0.0222  -0.5812  0.7702
6.404e+09  -0.6959  0.4786  -0.0001067  0.002004  0.0212  -0.006214  -0.3553  0.8333
6.405e+09  -0.436  0.7064  0.01268  0.02343  -0.006487  0.03739  0.04121  0.9431
6.406e+09  -0.2056  0.8062  -0.00608  0.0083  -0.02098  0.009217  0.3153  0.8346
6.408e+09  0.1034  0.8147  0.004433  -0.01531  0.001497  -0.004433  0.5972  0.7228
6.409e+09  0.3489  0.7647  0.00799  0.02677  0.01639  0.0006843  0.7741  0.4906
6.41e+09  0.6001  0.5965  -0.02114  0.03985  -0.01412  -0.02147  0.8679  0.161
6.411e+09  0.8164  0.3293  -0.003791  -0.03168  0.001787  0.0008198  0.892  -0.1349
6.412e+09  0.8914  0.07308  0.01996  -0.01142  -0.002591  0.01318  0.8258  -0.4524
6.414e+09  0.8141  -0.2185  -0.02992  -0.006791  0.006201  0.0002915  0.5746  -0.6778
6.415e+09  0.6441  -0.4696  -0.01819  0.002235  -0.02181  0.01145  0.385  -0.8587
6.416e+09  0.5184  -0.7032  0.04106  -0.03592  0.05156  -0.01122  0.05094  -0.8909
6.418e+09  0.1638  -0.8168  -0.01883  -0.02373  -0.0007778  -0.03725  -0.3042  -0.879
6.419e+09  -0.07498  -0.8453  0.0006029  0.008902  0.03102  -0.0135  -0.5849  -0.6499
6.42e+09  -0.3771  -0.78  -0.05933  0.004978  -0.02795  0.01619  -0.7172  -0.4937
6.421e+09  -0.6404  -0.5805  -0.03762  -0.01257  -0.01379  0.007281  -0.9084  -0.2032
6.422e+09  -0.758  -0.3638  0.03114  -0.01676  -0.04691  0.02145  -0.8556  0.1192
6.424e+09  -0.8767  -0.02118  -0.01022  0.005378  0.02629  0.0227  -0.7363  0.3987
6.425e+09  -0.8161  0.2457  -0.008227  -0.01442  0.003783  0.02332  -0.6154  0.625
6.426e+09  -0.6613  0.5555  0.008274  0.02554  0.01847  -0.01392  -0.3261  0.7979
6.428e+09  -0.4142  0.7353  -0.0004109  0.04134  0.04567  -0.04931  -0.09905  0.8808
6.429e+09  -0.1625  0.8207  0.05163  0.02966  0.00346  -0.02137  0.2299  0.8867
6.43e+09  0.1107  0.845  -0.005395  -0.005443  -0.006053  0.03588  0.5005  0.7029
6.431e+09  0.3743  0.7621  -0.02073  -0.02319  0.01211  0.02133  0.7048  0.4761
6.432e+09  0.6416  0.5512  -0.03606  -0.01883  -0.0007445  -0.02353  0.7987  0.205
6.434e+09  0.788  0.2945  0.02074  -0.03138  -0.02073  0.03231  0.9241  -0.04272
6.435e+09  0.8507  0.01946  -0.005766  0.01298  -0.01086  0.01231  0.7413  -0.3825
6.436e+09  0.8109  -0.3091  -0.009501  0.03378  -0.00746  0.03392  0.5661  -0.604
6.438e+09  0.6613  -0.5512  0.0369  -0.01539  0.01096  -0.02482  0.3597  -0.8166
6.439e+09  0.4481  -0.7188  0.02496  -0.03789  0.005971  -0.006033  0.05275  -0.8681
6.44e+09  0.2333  -0.852  0.01506  0.03152  -0.006623  0.02438  -0.227  -0.8451
6.441e+09  -0.1232  -0.8727  0.003491  -0.02106  0.04602  0.001952  -0.507  -0.6976
6.442e+09  -0.4349  -0.7307  0.01885  -0.03828  0.02771  -0.01186  -0.694  -0.4776
6.444e+09  -0.6365  -0.5567  -0.04728  0.01145  0.0254  0.01519  -0.8463  -0.1923
6.445e+09  -0.7617  -0.303  0.007903  -0.03404  -0.01989  0.009263  -0.8108  0.08793
6.446e+09  -0.8305  0.02728  -0.0007456  0.02098  -0.04425  0.05575  -0.7729  0.3415
6.448e+09  -0.7722  0.2616  0.02353  0.02051  0.03641  0.01806  -0.5973  0.6021
6.449e+09  -0.6853  0.5352  0.0144  0.004738  0.01433  -0.02916  -0.3442  0.7648
6.45e+09  -0.4452  0.7407  -0.005968  -0.01706  -0.006846  -0.002485  -0.07498  0.8222
6.451e+09  -0.2025  0.8752  -0.003773  0.01691  0.02163  0.01854  0.2091  0.8002
6.452e+09  0.11  0.8491  -0.03762  0.04405  0.01731  -0.004289  0.4928  0.7099
6.454e+09  0.3913  0.7405  -0.02271  -0.008066  0.007493  -0.002461  0.6688  0.5026
6.455e+09  0.6695  0.5496  -0.01492  -0.04392  0.007256  0.01858  0.8074  0.2206
6.456e+09  0.8183  0.2902  0.004886  -0.01581  0.001576  0.01192  0.8076  -0.08733
6.458e+09  0.8578  -0.02215  0.0117  -0.03785  0.03249  -0.01485  0.7601  -0.3462
6.459e+09  0.8016  -0.2689  -0.02394  0.005924  -0.04257  0.01747  0.5963  -0.5617
6.46e+09  0.6859  -0.5565  -0.008945  -0.01072  -0.05185  -0.04062  0.3314  -0.7311
6.461e+09  0.3926  -0.745  -0.02109  0.0175  -0.03938  0.009548  0.07795  -0.8098
6.462e+09  0.1113  -0.8588  0.0208  -0.004574  -0.0002296  -0.01269  -0.2082  -0.7937
6.464e+09  -0.1311  -0.8609  0.001586  0.04549  0.007548  0.003851  -0.4737  -0.6834
6.465e+09  -0.4381  -0.7263  0.02278  -0.0144  0.05786  0.0277  -0.665  -0.4299
6.466e+09  -0.7216  -0.5129  0.03157  0.004104  -0.01612  0.02599  -0.7889  -0.2247
6.468e+09  -0.8305  -0.3162  0.009614  -0.04045  -0.01359  0.02217  -0.7776  0.05543
6.469e+09  -0.8496  0.0009505  -0.002741  0.0001179  -0.03353  -0.01932  -0.7347  0.3378
6.47e+09  -0.8287  0.3308  0.01802  -0.03444  -0.0123  -0.0157  -0.5573  0.5619
6.471e+09  -0.706  0.5948  -0.02636  -0.001957  0.02448  0.009311  -0.3593  0.6757
6.472e+09  -0.4496  0.7904  -0.02376  0.02361  0.00428  0.01126  -0.08293  0.7718
6.474e+09  -0.1305  0.8689  0.02236  -0.001279  -0.01793  -0.01418  0.1805  0.7627
6.475e+09  0.2004  0.8917  -0.009111  -0.0435  -0.01029  0.002462  0.4572  0.67
6.476e+09  0.4636  0.7611  -0.002653  -0.009864  0.01492  0.03557  0.6219  0.4472
6.478e+09  0.6706  0.5537  0.02214  -0.02983  -0.03465  0.01518  0.7594  0.1887
6.479e+09  0.8686  0.2502  0.01381  -0.02062  -0.02838  0.0189  0.7956  -0.08605
6.48e+09  0.8534  -0.06057  -0.01132  0.02026  0.01348  0.01765  0.6958  -0.2978
6.481e+09  0.7804  -0.3742  0.001497  -0.01769  -0.005462  -0.01262  0.555  -0.5417
6.482e+09  0.6469  -0.5685  -0.01485  -0.004927  0.001393  -0.02705  0.3178  -0.7375
6.484e+09  0.4211  -0.8102  -0.01918  0.04113  -0.002818  -0.00535  0.1049  -0.7728
6.485e+09  0.1345  -0.8903  -0.008399  0.02373  -0.02498  -0.05059  -0.2195  -0.7441
6.486e+09  -0.1943  -0.9759  -0.02234  -0.002183  -0.01577  0.06059  -0.4667  -0.6151
6.488e+09  -0.2714  -1.47  0.03545  0.02166  0.5844  0.486  -0.6516  -0.4482
6.489e+09  -0.7229  -0.5519  -0.01184  -0.00113  -0.01378  0.006543  -0.7362  -0.171
6.49e+09  -0.8572  -0.2316  -0.01433  -0.05352  -0.01258  -0.0004158  -0.7605  0.1087
6.491e+09  -0.9272  0.08595  0.02434  -0.06413  0.006674  0.04157  -0.6968  0.3322
6.492e+09  -0.8187  0.3979  -0.005901  0.01003  -0.01431  0.01925  -0.5486  0.5322
6.494e+09  -0.4974  0.6588  -0.006927  -0.03897  -0.05313  0.04277  -0.3064  0.7085
6.495e+09  -0.4374  0.8299  0.02027  0.04794  -0.006778  0.0106  -0.04179  0.757
6.496e+09  -0.06141  0.831  0.01887  -0.01822  -0.05708  -0.01624  0.198  0.7231
6.498e+09  0.1716  0.8974  0.01074  0.02861  0.02508  -0.001048  0.4681  0.5817
6.499e+09  0.4985  0.7512  -0.02735  0.01081  0.03353  -0.001263  0.6567  0.3982
6.5e+09  0.774  0.4796  0.009964  0.00307  -0.009352  0.03529  0.7454  0.1887
6.501e+09  0.8273  0.1888  0.009716  -0.01479  0.03262  -0.003473  0.7618  -0.1309
6.502e+09  0.8932  -0.0989  -0.03492  0.003916  -0.05139  -0.008373  0.7043  -0.357
6.504e+09  0.8177  -0.3747  0.009754  0.05279  -0.02376  -0.01786  0.5195  -0.5795
6.505e+09  0.6361  -0.69  -0.0241  0.02343  0.02212  0.04297  0.2688  -0.7505
6.506e+09  0.4197  -0.7864  0.01603  0.02436  -0.0007475  0.02546  0.02845  -0.7597
6.508e+09  0.07708  -0.9562  -0.03793  -0.02522  -0.007833  0.01422  -0.2665  -0.7088
6.509e+09  -0.2735  -0.9089  0.05943  -0.02574  -0.009665  -0.00675  -0.4629  -0.5971
6.51e+09  -0.5338  -0.725  0.002445  -0.01702  -0.02338  0.02291  -0.6209  -0.4128
6.511e+09  -0.7741  -0.5004  0.003957  -0.02195  -0.03655  -0.01866  -0.7406  -0.1479
6.512e+09  -0.8719  -0.2439  0.01767  0.005343  0.006829  -0.02736  -0.7661  0.09594
6.514e+09  -0.9153  0.1005  0.01932  -0.0002433  0.003822  -0.02646  -0.6647  0.3606
6.515e+09  -0.8008  0.362  0.001535  -0.0004229  0.01376  -0.002209  -0.4875  0.5421
6.516e+09  -0.5754  0.7126  0.04013  -0.009081  0.02752  0.03965  -0.2143  0.6405
6.518e+09  -0.3363  0.8535  -0.002716  0.004961  -0.005657  0.05832  -0.01116  0.761
6.519e+09  -0.06047  0.9102  0.01986  -0.03467  -0.001883  -0.06956  0.2361  0.6839
6.52e+09  0.3177  0.9168  0.02695  -0.00191  -0.04741  -0.01506  0.4762  0.5482
6.521e+09  0.5783  0.6843  0.0133  0.01669  -0.01067  -0.001642  0.6604  0.3546
6.522e+09  0.8554  0.4863  0.01524  0.03164  0.005124  0.004643  0.7174  0.1268
6.524e+09  0.9771  0.1659  0.001103  -0.005818  0.06136  0.02501  0.6816  -0.154
6.525e+09  0.9168  -0.1433  0.006263  0.01865  0.008352  0.0627  0.6151  -0.4013
6.526e+09  0.799  -0.4618  -0.006827  -0.008335  -0.001386  0.004724  0.4349  -0.5763
6.528e+09  0.6186  -0.7184  0.005289  0.009141  0.001376  -0.0899  0.1975  -0.6731
6.529e+09  0.2689  -0.903  0.03212  -0.05167  0.01412  0.03488  -0.07294  -0.7284
6.53e+09  -0.06422  -0.9186  -0.01014  -0.02163  -0.0002074  -0.01425  -0.2858  -0.5948
6.531e+09  -0.3506  -0.869  -0.007748  -0.007452  0.03839  0.001668  -0.486  -0.5064
6.532e+09  -0.6174  -0.6822  0.01567  -0.009869  -0.01239  -0.02805  -0.6041  -0.2802
6.534e+09  -0.8259  -0.3596  0.001341  0.01256  0.02434  0.0476  -0.6369  -0.06835
6.535e+09  -0.9224  -0.1039  -0.009629  -0.02302  0.04602  -0.006737  -0.6047  0.09763
6.536e+09  -0.929  0.2517  -0.006473  -0.02877  -0.03404  -0.0319  -0.5762  0.3204
6.538e+09  -0.788  0.5282  0.008748  -0.008778  -0.007527  0.01259  -0.4478  0.4991
6.539e+09  -0.524  0.7215  -0.02  0.01184  -0.03893  -0.01039  -0.2504  0.6324
6.54e+09  -0.2004  0.919  0.01039  -0.01761  0.01585  0.02042  -0.06232  0.6724
6.541e+09  0.02282  0.9192  -0.01242  -0.02905  -0.0225  -0.04037  0.1544  0.6645
6.542e+09  0.4365  0.8928  -0.01799  0.01963  0.01425  0.03139  0.4306  0.5497
6.544e+09  0.7008  0.6546  -0.01736  0.02172  0.0002487  0.009715  0.594  0.4093
6.545e+09  0.8291  0.3887  0.01447  -0.02539  -0.007041  0.008749  0.7149  0.1924
6.546e+09  0.9404  0.07288  -0.009421  0.01249  0.03592  0.07334  0.6979  -0.05629
6.548e+09  0.8895  -0.2666  -0.01223  -0.01042  -0.02275  0.0008126  0.6533  -0.3265
6.549e+09  0.745  -0.6016  0.01031  0.01117  0.03764  -0.0425  0.5182  -0.5436
6.55e+09  0.4784  -0.7805  -0.005131  -0.02232  -0.04808  0.02002  0.2995  -0.6439
