# Hz S RI R 50
6.25e+09  -0.3983  0.759  -0.005054  -0.02264  0.02662  -0.02226  0.1714  0.4722
6.251e+09  -0.115  0.8084  -0.05224  -0.003435  0.007329  0.01012  0.3554  0.4372
6.252e+09  0.1588  0.808  -0.01682  -0.01628  0.04106  -0.04353  0.5745  0.2275
6.254e+09  0.5243  0.7024  -0.01606  0.0178  0.008327  -0.01791  0.6081  0.01166
6.255e+09  0.6313  0.4431  0.01141  -0.007577  -0.02923  -0.007905  0.5953  -0.1998
6.256e+09  0.8635  0.1905  -0.01003  -0.001572  0.01014  0.005951  0.4836  -0.4394
6.258e+09  0.8728  -0.1014  -0.02058  0.004807  0.00594  -0.05676  0.274  -0.6198
6.259e+09  0.7191  -0.3326  -0.031  0.0006965  0.03555  -0.005457  0.04432  -0.6854
6.26e+09  0.5953  -0.5683  0.01164  -0.0145  0.03506  -0.005474  -0.2288  -0.6477
6.261e+09  0.3268  -0.6884  -0.00391  -0.002085  -0.01955  0.009599  -0.4558  -0.5535
6.262e+09  0.1067  -0.8293  0.02771  -0.01236  0.03023  0.0006378  -0.587  -0.3587
6.264e+09  -0.2194  -0.8204  -0.02295  -0.001788  0.04206  0.01873  -0.7166  -0.1208
6.265e+09  -0.4705  -0.6925  -0.01902  -0.01549  -0.05466  -0.03613  -0.6917  0.1623
6.266e+09  -0.6306  -0.4781  -0.02024  0.02899  -0.06534  0.01826  -0.6302  0.3905
6.268e+09  -0.8189  -0.191  -0.01822  -0.01302  -0.01258  -0.02109  -0.4421  0.5907
6.269e+09  -0.8308  0.05666  0.01479  0.01259  0.02452  0.04669  -0.2022  0.7328
6.27e+09  -0.7469  0.3609  0.009892  -0.0315  -0.02943  -0.02278  0.07799  0.7352
6.271e+09  -0.6047  0.5855  -0.008328  -0.02252  0.003235  0.004093  0.3018  0.6567
6.272e+09  -0.3508  0.7255  0.0005103  0.006473  -0.01715  -0.02328  0.5286  0.5246
6.274e+09  -0.05628  0.789  0.02231  0.01944  0.0005994  -0.03934  0.6793  0.3072
6.275e+09  0.2175  0.6858  -0.01259  -0.0254  0.03713  0.002218  0.7701  0.05573
6.276e+09  0.4967  0.6481  0.004962  -0.003347  0.001423  -0.08729  0.7236  -0.2324
6.278e+09  0.6473  0.4675  -0.007987  -0.009924  0.02996  0.0002045  0.6326  -0.4647
6.279e+09  0.7716  0.1605  0.02229  0.03873  -0.02435  0.00745  0.3946  -0.6345
6.28e+09  0.7442  -0.06962  -0.01947  0.03502  -0.03771  0.0348  0.1902  -0.7179
6.281e+09  0.7065  -0.3633  -0.0138  0.008185  0.03581  0.03159  -0.09324  -0.7611
6.282e+09  0.56  -0.5991  -0.01904  -0.0008457  0.02827  -0.001617  -0.3636  -0.6974
6.284e+09  0.3177  -0.7018  0.0074  -0.01476  -0.02324  0.06654  -0.5795  -0.5276
6.285e+09  0.04309  -0.8104  -0.008725  0.01459  0.0172  0.02459  -0.7055  -0.293
6.286e+09  -0.2358  -0.7394  0.0006715  -0.005352  -0.01018  -0.01846  -0.8072  -0.002721
6.288e+09  -0.4814  -0.6357  0.001928  0.03759  0.02456  -0.006647  -0.7151  0.2399
6.289e+09  -0.6753  -0.3782  -0.03792  -0.01101  -0.03035  -0.004125  -0.6379  0.5046
6.29e+09  -0.7657  -0.1206  0.01053  0.02469  -0.02682  -0.03996  -0.4016  0.6931
6.291e+09  -0.78  0.1337  0.02086  -0.006831  0.0237  -0.004589  -0.1393  0.786
6.292e+09  -0.7069  0.3926  0.01986  -0.001593  0.01383  0.0387  0.1511  0.7673
6.294e+09  -0.5438  0.5982  -0.01279  -0.01082  0.04088  -0.00648  0.3921  0.7512
6.295e+09  -0.3078  0.7768  -0.009454  -0.02614  -0.05587  -0.006257  0.6009  0.5265
6.296e+09  -0.007107  0.7347  -0.008774  0.008276  -0.05527  -0.02514  0.7907  0.3095
6.298e+09  0.2406  0.7446  -0.01131  -0.004288  -0.01609  -0.03538  0.8314  0.0343
6.299e+09  0.4977  0.6354  -0.01293  -0.001731  0.02794  0.02012  0.7754  -0.2807
6.3e+09  0.7093  0.4423  -0.006237  0.01174  0.003305  0.01792  0.6151  -0.547
6.301e+09  0.806  0.1336  -0.005781  -0.04477  0.007115  -0.02469  0.4137  -0.743
6.302e+09  0.7977  -0.1461  -0.01102  -0.02416  0.02092  -0.02301  0.1706  -0.8342
6.304e+09  0.681  -0.3904  0.00619  0.002487  0.02643  0.04064  -0.1674  -0.8415
6.305e+09  0.4662  -0.6063  -0.03303  0.02461  -0.01873  -8.494e-05  -0.3972  -0.722
6.306e+09  0.2777  -0.7755  0.03525  0.02189  -0.003484  -0.04251  -0.6322  -0.5516
6.308e+09  -0.01981  -0.8504  0.01357  0.01967  -0.02135  0.03326  -0.8001  -0.2729
6.309e+09  -0.3307  -0.7358  -0.01155  -0.006596  0.02388  0.05281  -0.8794  -0.01294
6.31e+09  -0.5519  -0.592  -0.004598  0.0006572  -0.02633  -0.01557  -0.8339  0.2898
6.311e+09  -0.6898  -0.3421  0.005326  -0.02824  -0.01697  -0.01177  -0.6483  0.5077
6.312e+09  -0.7827  -0.08947  -0.003394  -0.01401  -0.01912  0.004479  -0.429  0.7425
6.314e+09  -0.8037  0.1793  0.02206  -0.003973  -0.01161  0.01992  -0.1623  0.8515
6.315e+09  -0.6719  0.4661  -0.02531  -0.03058  0.02242  -0.01061  0.1469  0.8614
6.316e+09  -0.5231  0.6772  -0.02198  0.007159  -0.03957  0.01553  0.4378  0.7744
6.318e+09  -0.2689  0.7697  0.02217  0.02225  -0.03398  0.02195  0.6611  0.5857
6.319e+09  0.0454  0.7644  -0.0103  -0.02521  -0.006325  -0.0003941  0.8004  0.3307
6.32e+09  0.3198  0.7391  -0.02073  -0.01397  0.02972  0.06588  0.9124  0.01416
6.321e+09  0.6006  0.6131  -0.001784  0.01189  0.03628  0.03655  0.8342  -0.2585
6.322e+09  0.739  0.3866  0.01481  0.008105  -0.01979  -0.01641  0.7118  -0.5331
6.324e+09  0.807  0.06474  -0.01173  -0.004146  0.007238  0.07084  0.489  -0.7549
6.325e+09  0.7765  -0.2139  -0.004301  -0.01868  -0.04856  0.03747  0.1733  -0.8817
6.326e+09  0.6729  -0.4561  -0.02695  0.03875  -0.01829  -0.003571  -0.1249  -0.8949
6.328e+09  0.4574  -0.6925  -0.004482  0.008162  -0.01208  -0.01206  -0.4048  -0.8374
6.329e+09  0.1876  -0.7782  -0.007278  0.007815  0.02028  0.005045  -0.7058  -0.6
6.33e+09  -0.1599  -0.8358  -0.03215  0.02709  0.05271  -0.009425  -0.84  -0.3294
6.331e+09  -0.403  -0.7427  -0.02029  0.01326  0.005684  -0.02431  -0.9215  -0.05498
6.332e+09  -0.6583  -0.6116  0.003974  0.0278  -0.004478  -0.02004  -0.8697  0.273
6.334e+09  -0.7392  -0.274  -0.02515  0.01401  -0.009699  -0.03534  -0.7237  0.5714
6.335e+09  -0.896  -0.05403  -0.005036  0.01762  0.02739  0.01496  -0.482  0.7641
6.336e+09  -0.8433  0.2529  0.0008709  -0.04695  -0.009825  -0.008729  -0.1824  0.8893
6.338e+09  -0.6589  0.5083  -0.01677  0.02257  -0.03523  -0.01812  0.1182  0.903
6.339e+09  -0.4336  0.7723  0.005012  0.005089  -0.06007  -0.00649  0.4391  0.7939
6.34e+09  -0.1655  0.8095  0.02601  -0.01947  0.02793  -0.008328  0.72  0.6201
6.341e+09  0.172  0.8377  -0.01331  -0.02268  0.01922  -0.01859  0.841  0.3242
6.342e+09  0.443  0.749  -0.005122  -0.003048  -0.01374  -0.01779  0.9335  0.05849
6.344e+09  0.6803  0.5333  -0.03384  0.02475  0.001887  -0.02126  0.8845  -0.2834
6.345e+09  0.8208  0.2934  0.01495  0.01176  0.004177  -0.01977  0.7129  -0.5667
6.346e+09  0.8348  -0.01698  0.02113  -0.0023  -0.02601  -0.05001  0.5059  -0.7856
6.348e+09  0.8006  -0.3029  0.005504  0.005926  0.009462  -0.009452  0.1876  -0.9073
6.349e+09  0.6647  -0.588  0.0164  0.0003143  0.008569  0.02799  -0.1264  -0.9533
6.35e+09  0.3839  -0.7848  0.03463  -0.03011  -0.02471  -0.01288  -0.4067  -0.8294
6.351e+09  0.1185  -0.8425  -0.03109  -0.0181  0.006727  -0.001306  -0.6906  -0.6821
6.352e+09  -0.1856  -0.8695  -0.004605  -0.005233  -0.01283  0.03005  -0.8178  -0.4197
6.354e+09  -0.4522  -0.7142  -0.05892  0.04152  -0.01636  -0.005505  -0.9354  -0.05831
6.355e+09  -0.6887  -0.5131  0.01927  0.01666  -0.03421  0.01479  -0.9124  0.2488
6.356e+09  -0.8144  -0.2095  -0.01432  0.01203  -0.01066  0.01728  -0.7616  0.5886
6.358e+09  -0.846  0.1186  -0.004236  -0.02144  -0.02363  -0.0005154  -0.5718  0.7483
6.359e+09  -0.8167  0.3639  -0.01255  -0.01095  -0.05667  -0.01866  -0.2605  0.9226
6.36e+09  -0.552  0.6496  0.02091  -0.01544  0.02613  -0.008079  0.06239  0.9422
6.361e+09  -0.319  0.7888  0.002758  0.01846  -0.03261  0.03036  0.4156  0.792
6.362e+09  -0.0501  0.8553  -0.004421  -0.01191  -0.001697  0.003526  0.6624  0.6625
6.364e+09  0.2941  0.8062  0.01518  0.0188  0.005601  -0.00192  0.8552  0.4178
6.365e+09  0.5464  0.6845  0.007827  0.01117  0.05296  -0.03286  0.9301  0.07521
6.366e+09  0.7459  0.4781  -0.002333  0.02811  -0.00854  0.005208  0.8735  -0.2572
6.368e+09  0.8285  0.1496  0.01334  0.005084  0.04293  0.002308  0.7464  -0.5344
6.369e+09  0.871  -0.1324  0.0434  -0.01063  0.02112  0.001371  0.5186  -0.7752
6.37e+09  0.7344  -0.4393  0.01191  -0.003873  -0.01155  -0.002031  0.2562  -0.9111
6.371e+09  0.5316  -0.6684  -0.01066  -0.01096  -0.009791  -0.004698  -0.06774  -0.9812
6.372e+09  0.2969  -0.8039  0.02524  0.01305  -0.009207  -0.03547  -0.4419  -0.8741
6.374e+09  0.02156  -0.8691  0.007996  0.009589  0.03191  0.02566  -0.645  -0.6898
6.375e+09  -0.3015  -0.7629  0.00322  -0.01718  -0.04039  -0.001515  -0.8244  -0.4176
6.376e+09  -0.5808  -0.6689  0.01158  -0.01886  0.03202  -0.04958  -0.9372  -0.09974
6.378e+09  -0.7968  -0.4215  -0.005674  -0.01758  0.01765  0.02028  -0.9201  0.2179
6.379e+09  -0.8851  -0.1027  -0.01518  -0.0009997  0.01712  -0.04826  -0.8044  0.5143
6.38e+09  -0.8552  0.186  0.008964  0.0123  -0.0232  0.0148  -0.5307  0.7777
6.381e+09  -0.7321  0.4507  0.01819  -0.05371  -0.002679  0.07557  -0.2481  0.8482
6.382e+09  -0.559  0.6913  -0.001883  0.02661  -0.006348  0.01674  0.05945  0.9775
6.384e+09  -0.2376  0.8126  0.03413  -0.002152  -0.005255  0.009569  0.4008  0.8019
6.385e+09  0.09763  0.9225  0.007147  0.004785  -0.03342  -0.0002961  0.6004  0.7096
6.386e+09  0.3506  0.8097  0.02729  -0.007617  0.01053  -0.03017  0.8205  0.4618
6.388e+09  0.5979  0.6008  0.01312  -0.006319  -0.01199  -0.02345  0.9436  0.1069
6.389e+09  0.7843  0.3545  -0.03086  -0.001423  0.03668  -0.02792  0.9339  -0.1854
6.39e+09  0.8715  0.09683  0.03571  0.03843  0.004915  -0.04861  0.8028  -0.5039
6.391e+09  0.8037  -0.2601  0.01311  -0.04135  0.03854  0.01005  0.57  -0.7459
6.392e+09  0.6759  -0.4657  0.01882  7.989e-07  0.01973  0.05146  0.2862  -0.9031
6.394e+09  0.5249  -0.7357  -0.03511  0.01427  0.00956  0.005931  -0.02077  -0.9773
6.395e+09  0.2402  -0.8025  -0.004101  -0.01592  -0.01742  0.003084  -0.3278  -0.8307
6.396e+09  -0.1025  -0.8339  0.003147  0.03315  0.005124  -0.01184  -0.6012  -0.7015
6.398e+09  -0.3871  -0.7821  0.00454  0.07433  0.03935  -0.03369  -0.8342  -0.4643
6.399e+09  -0.6596  -0.6068  -0.02912  0.01781  0.03904  -0.07589  -0.9163  -0.1456
6.4e+09  -0.782  -0.3468  0.0183  -0.03889  0.01784  0.03363  -0.8409  0.1785
6.401e+09  -0.8738  -0.04749  -0.00662  0.04088  -0.006507  0.002503  -0.7912  0.4418
6.402e+09  -0.8306  0.2217  0.0279  -0.02092  -0.03212  0.02513  -0.5375  0.7001
6.404e+09  -0.7  0.4879  0.01913  0.03066  0.002765  0.03102  -0.3302  0.7954
6.405e+09  -0.4442  0.6965  -0.02804  -0.04766  0.01718  -0.02172  -0.00162  0.9195
6.406e+09  -0.1934  0.7969  0.01993  0.01683  -0.05344  -0.0247  0.3062  0.8317
6.408e+09  0.06573  0.8343  -0.00215  0.003228  0.0006383  -0.03561  0.5882  0.7268
6.409e+09  0.3875  0.7959  0.02218  0.02989  0.043  0.01218  0.7952  0.4623
6.41e+09  0.6381  0.5811  0.02759  -0.03392  0.06128  0.009615  0.9186  0.1675
6.411e+09  0.7702  0.3594  0.01364  0.002792  0.004509  0.04491  0.8823  -0.1544
6.412e+09  0.8466  0.04353  -0.01106  -0.02778  0.03256  -0.001989  0.842  -0.4625
6.414e+09  0.7772  -0.2378  -0.04233  0.03967  0.02826  0.00213  0.5872  -0.6714
6.415e+09  0.7234  -0.5516  0.02547  -0.01282  -0.02252  -0.03904  0.3207  -0.8522
6.416e+09  0.4215  -0.7369  0.03406  -0.02223  0.002242  0.05957  0.07123  -0.9063
6.418e+09  0.1738  -0.8362  0.005001  -0.002658  -0.001146  -0.01296  -0.2888  -0.8428
6.419e+09  -0.1082  -0.8529  -0.03421  -0.02112  -0.0217  0.009625  -0.571  -0.7274
6.42e+09  -0.4294  -0.812  -0.02544  -0.01441  -0.03743  -0.0123  -0.7031  -0.5114
6.421e+09  -0.6368  -0.5536  -0.04311  0.06448  0.01688  -0.02738  -0.832  -0.2069
6.422e+09  -0.8155  -0.3261  -0.0198  0.03305  0.02754  0.03626  -0.884  0.1682
6.424e+09  -0.8801  -0.03216  0.04411  0.02257  -0.03223  -0.03698  -0.8234  0.4014
6.425e+09  -0.7971  0.2403  0.004633  -0.02279  -0.008244  -0.001696  -0.599  0.5807
6.426e+09  -0.6561  0.4801  0.01014  -0.05828  -0.03096  0.02589  -0.38  0.7947
6.428e+09  -0.3927  0.6731  0.005205  0.01368  0.04236  -0.03277  -0.05145  0.8562
6.429e+09  -0.1513  0.8499  -0.01213  0.03278  -0.003988  -0.03764  0.261  0.847
6.43e+09  0.1084  0.8649  0.005211  0.02592  0.00478  0.01789  0.5134  0.6849
6.431e+09  0.3839  0.7787  -0.03074  -0.01404  -0.03769  -0.04271  0.7521  0.5021
6.432e+09  0.6463  0.5944  0.01729  -0.03669  -0.001526  -0.01699  0.8145  0.2331
6.434e+09  0.7756  0.2607  -0.006296  -0.003792  0.004518  0.002406  0.852  -0.09294
6.435e+09  0.8185  -0.006518  0.03805  -0.0292  0.07431  0.02052  0.7802  -0.3708
6.436e+09  0.7924  -0.3158  0.04262  0.02817  -0.02664  0.003858  0.595  -0.5652
6.438e+09  0.6715  -0.5599  0.01912  -0.01812  0.04084  -0.03397  0.3252  -0.8096
6.439e+09  0.4455  -0.7168  0.0215  -0.03787  0.05028  0.00891  0.05819  -0.869
6.44e+09  0.1815  -0.8547  -0.01203  0.009506  0.02707  0.0378  -0.2557  -0.8224
6.441e+09  -0.1289  -0.844  -0.006106  -0.06174  0.01243  -0.01334  -0.4551  -0.6582
6.442e+09  -0.41  -0.7785  -0.02463  -0.002473  -0.02787  0.01652  -0.6654  -0.4791
6.444e+09  -0.6875  -0.5904  0.004025  -0.02751  -0.03202  -0.002702  -0.7807  -0.1983
6.445e+09  -0.7817  -0.3159  -0.05238  0.04482  -0.003122  -0.01056  -0.8539  0.1078
6.446e+09  -0.8446  0.04541  -0.0465  -0.009526  -0.001178  -0.0297  -0.7344  0.3314
6.448e+09  -0.805  0.2592  -0.02356  -0.002258  0.01254  0.009214  -0.5326  0.5899
6.449e+09  -0.7088  0.5751  -0.02444  0.0005277  0.01496  0.03267  -0.3217  0.783
6.45e+09  -0.4526  0.7514  -0.004429  0.00841  0.01514  0.003364  -0.07152  0.8082
6.451e+09  -0.1481  0.8583  -0.03991  0.005923  -0.0171  0.01426  0.2673  0.7997
6.452e+09  0.1776  0.8338  -0.02679  -0.01186  -0.01532  0.02539  0.4551  0.6734
6.454e+09  0.4671  0.73  -0.0233  0.01952  0.002601  0.04023  0.6673  0.5026
6.455e+09  0.7175  0.5193  -0.0171  0.009401  -0.04896  0.01285  0.7547  0.2425
6.456e+09  0.7753  0.3222  0.01302  -0.01898  0.04518  0.05355  0.79  -0.06558
6.458e+09  0.8526  -0.002404  0.01231  0.04602  -0.006962  -0.02917  0.752  -0.3723
6.459e+09  0.842  -0.3202  -0.03102  -0.01379  -0.02138  0.03576  0.5908  -0.5852
6.46e+09  0.6895  -0.5482  -0.001074  0.01663  0.04266  -0.02594  0.3407  -0.7112
6.461e+09  0.4561  -0.7498  0.01034  0.01219  -0.008312  0.01008  0.04013  -0.7501
6.462e+09  0.1523  -0.9188  -0.02635  0.02708  0.01196  0.03941  -0.1945  -0.783
6.464e+09  -0.1688  -0.8049  0.03342  0.0394  0.04742  -0.02082  -0.4377  -0.633
6.465e+09  -0.4937  -0.7362  -0.03237  0.01453  -0.01042  0.03089  -0.6787  -0.4678
6.466e+09  -0.6596  -0.5297  0.02343  -0.001728  0.007923  -0.02366  -0.7661  -0.2329
6.468e+09  -0.8442  -0.2884  -0.01918  -0.001628  0.03839  -0.02725  -0.7845  0.09748
6.469e+09  -0.8547  0.04892  0.002973  -0.01282  0.01484  0.01166  -0.7162  0.3094
6.47e+09  -0.8226  0.2899  0.01413  0.01124  -0.02665  0.0294  -0.5326  0.5427
6.471e+09  -0.5936  0.5189  -0.0318  0.005119  -0.004336  0.0589  -0.354  0.7457
6.472e+09  -0.4379  0.7496  0.05325  0.001648  0.02895  0.04004  -0.09153  0.7976
6.474e+09  -0.1833  0.8667  -0.01474  0.0001853  -0.004178  0.0267  0.1725  0.7343
6.475e+09  0.1836  0.8625  0.02618  -0.01446  -0.007913  -0.01025  0.4877  0.6396
6.476e+09  0.4783  0.7164  -0.006464  0.01405  0.0001834  -0.0004157  0.65  0.4732
6.478e+09  0.6739  0.5412  -0.01887  0.01337  0.03919  0.03696  0.7454  0.2326
6.479e+09  0.8242  0.2746  -0.02195  0.04739  0.007161  0.008262  0.8209  -0.07264
6.48e+09  0.9071  -0.01888  0.0007519  0.01032  -0.0353  -0.02564  0.7098  -0.3145
6.481e+09  0.7998  -0.3361  -0.02396  0.03733  -0.024  -0.007944  0.5668  -0.5864
6.482e+09  0.6349  -0.6281  0.05855  0.04609  -0.01534  0.02005  0.2951  -0.6983
6.484e+09  0.3902  -0.7938  -0.003513  0.01235  -0.01011  0.02801  0.01315  -0.7166
6.485e+09  0.105  -0.8463  -0.03704  -0.02062  0.0263  -0.004851  -0.2318  -0.7239
6.486e+09  -0.1821  -0.8499  -0.00399  0.01168  0.02108  0.003747  -0.4326  -0.6157
6.488e+09  -1.227  -0.7845  -0.03936  0.01321  -0.7407  0.06024  -0.673  -0.4614
6.489e+09  -0.6808  -0.4802  0.03712  -0.001798  -0.0288  -0.01938  -0.7444  -0.2092
6.49e+09  -0.8328  -0.2922  -0.02936  -0.02173  0.04357  -0.0332  -0.736  0.1407
6.491e+09  -0.8729  0.03948  0.01198  -0.008368  0.04412  -0.075  -0.6995  0.387
6.492e+09  -0.8136  0.3598  0.005138  0.02431  -0.02592  -0.02478  -0.5393  0.5463
6.494e+09  -0.7501  0.6424  -0.01864  0.02071  -0.05638  -0.07221  -0.3097  0.7215
6.495e+09  -0.3743  0.8114  0.01279  0.02321  0.005447  0.07018  -0.03783  0.7239
6.496e+09  -0.07814  0.8581  -0.02145  -0.03315  -0.007096  0.009786  0.2339  0.696
6.498e+09  0.1962  0.8723  -0.01426  0.01732  0.003606  -0.01139  0.484  0.6247
6.499e+09  0.4821  0.7468  -0.0167  -0.0405  0.04838  -0.02408  0.6016  0.4086
6.5e+09  0.8165  0.479  0.001209  0.006667  0.01469  0.01779  0.737  0.1351
6.501e+09  0.8397  0.2323  0.01498  0.0003317  0.02236  0.0118  0.7661  -0.1029
6.502e+09  0.9221  -0.06995  -0.004542  -0.02272  0.05516  0.01231  0.6946  -0.3955
6.504e+09  0.8518  -0.3983  0.02668  -0.01883  -0.0161  -0.04559  0.4822  -0.5358
6.505e+09  0.6658  -0.6215  0.02052  0.0199  -0.007792  0.03859  0.284  -0.6864
6.506e+09  0.3575  -0.8941  -0.006452  -0.01572  -0.007594  0.0146  -0.007464  -0.7826
6.508e+09  0.08227  -0.9291  0.016  -0.002463  -0.00037  -0.04759  -0.2573  -0.7233
6.509e+09  -0.2711  -0.9204  -0.03155  -0.01784  -0.009553  0.007274  -0.4976  -0.5917
6.51e+09  -0.5396  -0.7416  -0.009595  -0.02657  -0.02805  -0.01079  -0.6497  -0.4018
6.511e+09  -0.7419  -0.4943  -0.005542  -0.007765  0.03322  0.03367  -0.7534  -0.1283
6.512e+09  -0.9126  -0.1873  0.03954  -0.01366  -0.009179  -0.03091  -0.7451  0.1528
6.514e+09  -0.8759  0.0548  -0.02055  0.01983  -0.01105  0.03334  -0.6218  0.3471
6.515e+09  -0.8458  0.3528  -0.01357  0.01818  0.007079  -0.0294  -0.4564  0.5544
6.516e+09  -0.6416  0.71  0.007855  0.0363  0.006918  -0.005085  -0.279  0.698
6.518e+09  -0.3362  0.8709  -0.02342  -0.0132  -0.01626  -0.01616  0.005486  0.7394
6.519e+09  -0.01756  0.9284  -0.03673  0.01653  0.04398  -0.03069  0.2545  0.6761
6.52e+09  0.2679  0.837  -0.0008089  0.03606  -0.03139  0.02644  0.4358  0.5298
6.521e+09  0.6104  0.7278  -0.01129  -0.003471  -0.027  0.04472  0.6363  0.3319
6.522e+09  0.8125  0.4961  0.009447  -0.03469  0.02291  -0.019  0.6982  0.04836
6.524e+09  0.916  0.1594  -0.01703  0.003887  0.06202  -0.01275  0.6962  -0.1625
6.525e+09  0.9436  -0.2109  0.005073  0.001995  0.02408  0.01672  0.6289  -0.3782
6.526e+09  0.7996  -0.5179  0.002892  -0.01983  -0.04358  -0.04379  0.4705  -0.5626
6.528e+09  0.5614  -0.715  0.005388  -0.01184  0.02161  0.005996  0.223  -0.665
6.529e+09  0.271  -0.8976  -0.01462  0.04998  0.007362  -0.03652  -0.03442  -0.6705
6.53e+09  -0.06566  -0.9779  -0.008076  -0.02143  -0.04519  0.006614  -0.319  -0.604
6.531e+09  -0.3718  -0.8882  0.02086  -0.01266  -0.02966  -0.02943  -0.4563  -0.505
6.532e+09  -0.662  -0.7056  0.01372  -0.004758  0.04356  0.01381  -0.589  -0.2826
6.534e+09  -0.835  -0.3921  0.007021  -0.01464  0.005773  -0.02823  -0.6205  -0.05989
6.535e+09  -0.9102  -0.1352  0.004842  0.01239  -0.001719  -0.02264  -0.6216  0.09637
6.536e+09  -0.9848  0.2643  -0.006364  -0.008535  0.03888  -0.01739  -0.5697  0.2805
6.538e+09  -0.748  0.5532  0.01634  0.008964  0.003056  -0.02251  -0.4749  0.5113
6.539e+09  -0.5305  0.7784  -0.0006696  0.03021  -0.00184  -0.0283  -0.2827  0.6061
6.54e+09  -0.2711  0.9264  0.002877  -0.01894  0.008379  -0.03852  -0.05434  0.7006
6.541e+09  0.107  0.8976  0.03575  -0.03404  -0.007785  -0.01333  0.1872  0.6772
6.542e+09  0.3809  0.8766  -0.01031  0.007546  -0.0395  0.008873  0.3857  0.5993
6.544e+09  0.705  0.6303  -0.004111  0.03162  0.001884  -0.0732  0.6091  0.3609
6.545e+09  0.882  0.3733  -0.03343  -0.03521  -0.005417  -0.009668  0.672  0.165
6.546e+09  0.9202  0.002118  0.002441  -0.02161  0.03234  -0.05623  0.7246  -0.06776
6.548e+09  0.8063  -0.3247  -0.001795  0.01621  -0.0278  0.02447  0.6366  -0.2985
6.549e+09  0.7262  -0.5743  0.003685  -0.01301  0.05244  -0.01728  0.4757  -0.5132
6.55e+09  0.4727  -0.7503  0.001697  0.008574  -0.05831  -0.001949  0.2826  -0.689
