# Hz S RI R 50
6.25e+09  -0.6075  0.5633  0.008901  -0.005135  0.004161  0.02539  0.1833  0.4582
6.251e+09  -0.3102  0.7183  0.01094  -0.01185  -0.01052  0.01931  0.3838  0.4076
6.252e+09  -0.1259  0.8249  -0.01095  -0.01788  -0.01851  -0.05277  0.5177  0.24
6.254e+09  0.1877  0.7928  -0.01918  -0.004593  0.02731  -0.006927  0.6061  0.004321
6.255e+09  0.4478  0.6785  0.01578  0.02432  -0.002143  0.02234  0.578  -0.2509
6.256e+09  0.6922  0.4847  0.02488  -0.00323  0.01807  -0.01549  0.4754  -0.4152
6.258e+09  0.7904  0.178  -0.0002585  -0.003506  -0.00243  0.008681  0.3029  -0.5991
6.259e+09  0.7911  -0.04845  -0.03158  0.02598  0.06246  0.006775  0.05189  -0.6797
6.26e+09  0.7011  -0.379  0.0003348  0.01974  -0.02937  -0.01049  -0.1849  -0.6294
6.261e+09  0.5471  -0.5595  -0.007823  0.003435  0.01129  0.0008134  -0.4373  -0.5322
6.262e+09  0.3379  -0.7062  0.009343  -0.0219  -0.01292  -0.07821  -0.6188  -0.3546
6.264e+09  0.07233  -0.8283  -0.001321  0.02411  0.03391  0.0007576  -0.7019  -0.1141
6.265e+09  -0.2019  -0.7782  -0.00137  -0.01277  -0.01857  -0.01916  -0.7118  0.1518
6.266e+09  -0.453  -0.6443  0.01165  -0.003481  -0.001074  -0.003263  -0.5916  0.3909
6.268e+09  -0.6781  -0.4459  0.01605  -0.001329  -0.01535  -0.04733  -0.4704  0.6107
6.269e+09  -0.7647  -0.2126  -0.02253  0.001563  -0.002396  0.08626  -0.1945  0.7113
6.27e+09  -0.772  0.07432  -0.008496  -0.01635  -0.02476  -0.0263  0.07297  0.7808
6.271e+09  -0.7396  0.3472  -0.02216  -0.02557  -0.004392  0.01605  0.3562  0.6653
6.272e+09  -0.5768  0.6433  -0.02504  -0.01874  0.01584  0.03244  0.5637  0.5132
6.274e+09  -0.2951  0.7225  0.02082  -0.000271  -0.05062  0.03353  0.7181  0.3204
6.275e+09  -0.06332  0.8104  0.00342  -0.01722  0.01594  -0.008975  0.753  0.03426
6.276e+09  0.2062  0.7616  -0.01856  0.027  -0.01333  0.01433  0.7444  -0.1836
6.278e+09  0.4624  0.6317  -0.02355  0.01226  -0.02353  -0.02946  0.6359  -0.428
6.279e+09  0.74  0.4712  -0.005831  -0.004076  -0.01001  0.008722  0.4378  -0.6795
6.28e+09  0.7367  0.1716  0.01813  -0.009551  0.01704  -0.0537  0.1454  -0.7578
6.281e+09  0.8054  -0.1628  -0.004856  -0.00516  -0.004484  -0.02845  -0.1026  -0.7739
6.282e+09  0.7024  -0.3571  0.01432  -0.02387  -0.0002009  -0.03034  -0.3643  -0.7025
6.284e+09  0.5383  -0.5979  0.008299  -0.01347  -0.03654  -0.00737  -0.6229  -0.5555
6.285e+09  0.3022  -0.7207  -0.002756  -0.02485  0.01812  -0.06149  -0.7244  -0.2895
6.286e+09  0.02493  -0.8006  -0.02462  -0.009246  0.006639  0.03103  -0.7744  0.0021
6.288e+09  -0.2819  -0.7704  -0.004655  -0.0432  0.01858  -0.004264  -0.7366  0.2644
6.289e+09  -0.5356  -0.6552  -0.01858  0.0006806  -0.02381  -0.0228  -0.6106  0.5186
6.29e+09  -0.6826  -0.4079  0.00657  -0.0135  -0.001224  0.03312  -0.432  0.6896
6.291e+09  -0.7931  -0.1634  -9.735e-05  -0.02547  0.006376  0.04719  -0.1341  0.7831
6.292e+09  -0.7585  0.09761  0.002053  0.006888  0.02484  -0.003612  0.1416  0.7929
6.294e+09  -0.6604  0.3688  -0.0314  0.01187  -0.01892  0.03192  0.3984  0.7108
6.295e+09  -0.5165  0.5738  -0.004867  -0.005345  0.02745  -0.02682  0.6246  0.5447
6.296e+09  -0.3251  0.7952  -0.0006742  0.02077  -0.008616  0.006317  0.7588  0.2793
6.298e+09  0.03376  0.7703  0.003658  -0.003468  -0.001376  -0.01675  0.8152  -0.00402
6.299e+09  0.2846  0.7799  -0.005471  0.01479  0.02607  0.01569  0.7739  -0.2499
6.3e+09  0.5099  0.6063  0.0171  -0.01065  0.0057  0.01894  0.6664  -0.5116
6.301e+09  0.6981  0.4371  -0.001343  -0.01391  -0.02286  0.01218  0.463  -0.7031
6.302e+09  0.7705  0.148  -0.001522  -0.01528  0.02181  -0.001377  0.1409  -0.8646
6.304e+09  0.8206  -0.1547  0.003162  0.003642  -0.07287  0.007116  -0.1274  -0.815
6.305e+09  0.6511  -0.4057  -0.01637  0.01877  -0.03411  -0.02509  -0.4288  -0.7279
6.306e+09  0.5303  -0.6168  -0.006903  0.02838  0.01827  0.01083  -0.675  -0.5595
6.308e+09  0.2734  -0.7506  -0.01319  -0.00284  0.004042  0.02451  -0.7947  -0.3079
6.309e+09  0.02381  -0.7598  -0.003409  -0.01481  0.04403  -0.002869  -0.8271  0.003592
6.31e+09  -0.3055  -0.7296  -0.008851  -0.01429  -0.003991  0.04092  -0.8141  0.2558
6.311e+09  -0.5235  -0.6264  -0.01227  -0.003624  0.00853  0.01783  -0.6852  0.5377
6.312e+09  -0.6875  -0.3567  -0.03486  -0.03516  0.003867  -0.03333  -0.4395  0.7464
6.314e+09  -0.7865  -0.08183  0.01542  0.02362  -0.03092  -0.004748  -0.1485  0.8272
6.315e+09  -0.7958  0.1668  0.02287  0.006497  0.04635  0.005259  0.1345  0.8876
6.316e+09  -0.6714  0.4491  -0.006218  -0.02605  -0.001624  -0.02101  0.4444  0.7943
6.318e+09  -0.5088  0.6957  -0.001951  0.01063  -0.000275  -0.0132  0.6555  0.5444
6.319e+09  -0.2621  0.7795  -0.02714  0.01678  0.03311  0.01275  0.83  0.2997
6.32e+09  0.08642  0.7915  0.003131  -0.01115  0.007772  -0.006255  0.8908  0.008011
6.321e+09  0.3013  0.7793  -0.004847  0.003734  0.04088  -0.01071  0.8309  -0.2836
6.322e+09  0.569  0.5909  0.03094  0.01496  -0.01188  0.03126  0.6954  -0.5544
6.324e+09  0.722  0.3672  -0.03532  0.02267  0.01813  -0.0103  0.5054  -0.742
6.325e+09  0.8412  0.08519  0.007058  0.0102  0.02404  -0.01087  0.1929  -0.8624
6.326e+09  0.7883  -0.2364  0.004981  0.02054  0.03394  0.003558  -0.1228  -0.877
6.328e+09  0.6968  -0.458  -0.04881  -0.008422  0.01123  0.007489  -0.413  -0.7799
6.329e+09  0.4489  -0.6742  -0.007193  0.01041  -0.01545  0.005608  -0.6828  -0.6216
6.33e+09  0.1972  -0.8152  0.02396  -0.0134  0.01824  0.004794  -0.8482  -0.3463
6.331e+09  -0.1285  -0.8122  0.01359  0.005142  -0.01211  0.02458  -0.899  -0.01415
6.332e+09  -0.3634  -0.7869  0.01252  0.003906  0.01384  -0.01323  -0.888  0.2756
6.334e+09  -0.567  -0.5584  0.006418  0.01679  0.005991  -0.03564  -0.7363  0.5761
6.335e+09  -0.7917  -0.3193  -0.02066  0.01336  -0.00468  -0.005853  -0.535  0.79
6.336e+09  -0.9007  -0.06494  0.04457  -0.007569  -0.02199  -0.0129  -0.1876  0.862
6.338e+09  -0.8303  0.254  0.01217  -0.009472  -0.02077  0.01425  0.1219  0.9289
6.339e+09  -0.6619  0.5146  0.0001635  -0.006794  -0.01814  0.02241  0.4593  0.7753
6.34e+09  -0.3683  0.7311  0.004234  -0.02397  0.01215  -0.04737  0.7095  0.572
6.341e+09  -0.1349  0.7702  -0.004531  0.05088  0.03297  0.02412  0.847  0.3282
6.342e+09  0.2001  0.8797  0.007885  0.008019  -0.0418  -0.02197  0.9301  0.02487
6.344e+09  0.4501  0.7156  0.003061  0.003734  0.01157  0.01877  0.9063  -0.2817
6.345e+09  0.6519  0.5272  0.002526  -0.02506  0.03124  -0.02783  0.7333  -0.5615
6.346e+09  0.8005  0.258  0.006953  0.007485  0.01809  0.05128  0.5136  -0.7949
6.348e+09  0.8203  -0.04587  0.02548  -0.03397  -0.02547  0.001946  0.2247  -0.9476
6.349e+09  0.8091  -0.3382  0.01829  0.01887  0.007306  0.009965  -0.1193  -0.9393
6.35e+09  0.6347  -0.5596  -0.01021  -0.003709  -0.009251  0.03278  -0.4344  -0.7926
6.351e+09  0.4256  -0.7463  -0.0283  -0.013  0.0005873  -0.01449  -0.6922  -0.6975
6.352e+09  0.05054  -0.8364  0.003541  0.02837  -0.02691  0.02752  -0.8744  -0.3815
6.354e+09  -0.1921  -0.8382  -0.004106  0.005755  -0.00451  0.01737  -0.9429  -0.0579
6.355e+09  -0.4784  -0.7092  -0.04144  -0.02571  -0.006075  -0.02311  -0.8866  0.2555
6.356e+09  -0.674  -0.5211  -0.03121  0.0254  0.01405  0.02559  -0.7838  0.5595
6.358e+09  -0.8195  -0.2419  -0.03054  0.01567  -0.05669  -0.001854  -0.5443  0.7739
6.359e+09  -0.8305  0.0651  0.03411  0.02338  -0.01651  0.001485  -0.2365  0.931
6.36e+09  -0.8209  0.3494  -0.008291  -0.01183  -0.0428  0.009291  0.09297  0.9247
6.361e+09  -0.5983  0.6001  0.0494  -0.01596  0.0007825  0.01124  0.3885  0.8455
6.362e+09  -0.3189  0.7367  0.008886  0.04382  -0.01976  -0.00226  0.6798  0.6674
6.364e+09  -0.05195  0.8199  -0.003486  -0.004758  -0.03761  -0.03915  0.8632  0.408
6.365e+09  0.2574  0.7971  -0.0007908  -0.03647  0.009716  -0.006338  0.932  0.03424
6.366e+09  0.506  0.6717  -0.004646  0.01682  -0.001759  -0.008431  0.9129  -0.2768
6.368e+09  0.7429  0.4378  0.003736  -0.02537  0.009451  0.01833  0.7601  -0.5422
6.369e+09  0.8378  0.1342  -0.0192  -0.0447  -0.01295  -0.01747  0.549  -0.7624
6.37e+09  0.8712  -0.1149  -0.00506  -0.01297  -0.03954  0.02927  0.2625  -0.9471
6.371e+09  0.6841  -0.4291  0.0007703  -0.008311  0.01047  -0.01265  -0.06583  -0.9454
6.372e+09  0.5844  -0.6802  -0.0199  0.01935  -0.02558  0.01214  -0.4109  -0.8416
6.374e+09  0.2985  -0.8761  -0.003896  0.02028  -0.008305  0.02521  -0.6683  -0.6881
6.375e+09  -0.002894  -0.8592  0.006819  -0.01559  0.02757  0.008959  -0.8695  -0.4095
6.376e+09  -0.3323  -0.8369  -0.01575  -0.01243  0.03599  -0.01615  -0.9171  -0.08797
6.378e+09  -0.575  -0.6692  0.002455  0.02022  0.002522  -0.01271  -0.9281  0.2061
6.379e+09  -0.7608  -0.4103  0.009463  -0.01907  -0.04422  0.01053  -0.7948  0.5673
6.38e+09  -0.8971  -0.1379  -0.01158  -0.04065  -0.01692  -0.002404  -0.5461  0.7639
6.381e+09  -0.8537  0.1878  -0.00233  -0.01267  0.0008635  0.0196  -0.2886  0.8747
6.382e+09  -0.7473  0.5107  0.01093  0.03743  0.02172  -0.03294  0.06167  0.8922
6.384e+09  -0.5572  0.6766  -0.003316  0.02226  0.007635  0.001974  0.3466  0.8925
6.385e+09  -0.2135  0.8367  -0.0157  -0.03904  -0.002859  -0.001084  0.6253  0.6615
6.386e+09  0.04643  0.8623  -0.01408  0.01942  0.01057  -0.01356  0.8376  0.4134
6.388e+09  0.3717  0.7779  -0.006131  -0.01029  -0.03886  -0.01596  0.9237  0.1207
6.389e+09  0.6341  0.6403  -0.02198  0.001685  0.01039  -0.02017  0.9119  -0.2318
6.39e+09  0.8059  0.346  -0.01202  -0.01993  -0.008263  0.01577  0.7708  -0.5276
6.391e+09  0.8721  0.09965  0.009413  0.0002997  -0.02688  -0.003637  0.5574  -0.7632
6.392e+09  0.804  -0.1735  -0.03134  -0.04063  0.01967  0.02448  0.2757  -0.897
6.394e+09  0.702  -0.4987  -0.01985  0.01205  -0.01632  0.02179  -0.01048  -0.9206
6.395e+09  0.453  -0.7246  -0.005713  -0.009191  0.0004548  -0.05284  -0.3629  -0.8138
6.396e+09  0.2122  -0.8899  0.01284  -0.003537  -0.0275  -0.003759  -0.6242  -0.6864
6.398e+09  -0.1124  -0.8563  -0.02818  0.05695  0.0364  7.38e-05  -0.7965  -0.4194
6.399e+09  -0.3656  -0.7829  -0.02547  -0.00315  0.00126  0.0111  -0.9113  -0.169
6.4e+09  -0.5914  -0.6038  0.01228  0.01246  0.02948  -0.002014  -0.8923  0.1234
6.401e+09  -0.7766  -0.3446  -0.008681  0.03288  -0.01591  0.007516  -0.8  0.4707
6.402e+09  -0.8346  -0.03298  0.02116  -0.0201  0.03376  -0.0367  -0.5999  0.6866
6.404e+09  -0.8178  0.2613  -0.02404  -0.008699  0.04931  -0.06986  -0.3712  0.9086
6.405e+09  -0.6535  0.524  0.01098  0.001219  0.007859  0.01896  -0.01862  0.8842
6.406e+09  -0.4868  0.7291  0.01026  0.003467  0.06683  -0.03395  0.3255  0.8661
6.408e+09  -0.1853  0.8131  0.0003494  0.01411  -0.009433  0.01893  0.5656  0.6815
6.409e+09  0.1461  0.8104  -5.368e-05  0.03607  -0.005664  0.03247  0.8476  0.4761
6.41e+09  0.3739  0.7723  0.02217  -0.01083  0.02694  0.00197  0.9179  0.1593
6.411e+09  0.5997  0.5519  -0.0264  -0.007045  0.05625  -0.01219  0.8727  -0.1537
6.412e+09  0.7785  0.2862  0.0009333  0.03658  -0.0006918  0.01885  0.8054  -0.4536
6.414e+09  0.8423  0.009227  0.03112  -0.02202  0.01085  0.01322  0.6316  -0.6837
6.415e+09  0.8012  -0.2743  0.03714  -0.0388  -0.005813  0.04483  0.345  -0.8354
6.416e+09  0.6619  -0.5298  0.0289  -0.03802  0.03415  -0.02086  0.02878  -0.8707
6.418e+09  0.4363  -0.7945  0.03587  -0.0279  0.004051  -0.009341  -0.2641  -0.8594
6.419e+09  0.176  -0.8445  0.00348  -0.0008695  0.002762  -0.005513  -0.5416  -0.6849
6.42e+09  -0.1561  -0.8279  0.007575  -0.02024  -0.04314  -0.01194  -0.7281  -0.4583
6.421e+09  -0.4202  -0.7526  -0.03818  0.01625  -0.02894  0.01822  -0.819  -0.2312
6.422e+09  -0.7015  -0.5422  0.01648  0.0103  0.01587  0.03894  -0.886  0.1019
6.424e+09  -0.8223  -0.2437  -0.003566  -0.0131  -0.05401  0.008469  -0.7804  0.4062
6.425e+09  -0.8332  0.01641  0.01473  0.0006846  0.02982  -0.01857  -0.5969  0.6428
6.426e+09  -0.776  0.3045  -0.03057  -0.0189  -0.04115  -0.0365  -0.3667  0.8458
6.428e+09  -0.6409  0.6024  -0.01972  0.0416  0.01294  -0.03938  -0.0679  0.8596
6.429e+09  -0.3957  0.7524  0.0001064  -0.0121  0.02146  -0.01566  0.2011  0.8368
6.43e+09  -0.1062  0.8627  0.01625  -0.007146  0.02483  -0.02996  0.5323  0.6895
6.431e+09  0.1657  0.8124  0.04081  0.00654  0.01133  0.04109  0.7504  0.5053
6.432e+09  0.4609  0.6986  0.01462  0.03085  0.009955  -0.01433  0.7885  0.2528
6.434e+09  0.674  0.5205  -0.02967  -0.001637  0.0006234  0.0126  0.8791  -0.1008
6.435e+09  0.7284  0.3068  0.0001332  -0.005292  -0.01862  -0.009666  0.7709  -0.4136
6.436e+09  0.809  -0.02413  0.001962  0.01782  -0.01631  0.02306  0.6144  -0.585
6.438e+09  0.743  -0.3608  -0.02114  -0.01736  0.01996  0.01973  0.3584  -0.7493
6.439e+09  0.6326  -0.5343  0.01622  -0.0555  0.04569  -0.008018  0.07979  -0.8803
6.44e+09  0.3479  -0.7668  -0.01521  0.005299  0.05957  0.01374  -0.2314  -0.8269
6.441e+09  0.1114  -0.8169  -0.00838  -0.005318  -0.03582  -0.03002  -0.5066  -0.6651
6.442e+09  -0.1776  -0.8198  -0.02823  -0.004227  0.003291  0.01888  -0.7179  -0.4526
6.444e+09  -0.4587  -0.7606  0.0372  -0.03561  0.02723  0.03333  -0.7832  -0.248
6.445e+09  -0.6937  -0.4786  -0.01091  0.01654  -0.007119  0.002261  -0.8444  0.04164
6.446e+09  -0.8564  -0.2174  -0.006432  -0.01774  0.01323  0.04451  -0.7733  0.367
6.448e+09  -0.8566  0.02948  -0.03927  -0.01484  0.0126  -0.0237  -0.5973  0.6089
6.449e+09  -0.8672  0.3398  0.007824  -0.02416  -0.01422  -0.01791  -0.3302  0.7776
6.45e+09  -0.6298  0.5679  0.01486  0.03948  -0.01817  0.003969  -0.07929  0.8405
6.451e+09  -0.3638  0.7335  0.007114  -0.007025  0.03689  0.01115  0.2146  0.7643
6.452e+09  -0.1188  0.8476  0.005102  0.0005274  0.03532  0.01558  0.4687  0.6872
6.454e+09  0.1409  0.8402  0.006768  0.01723  0.02639  -0.05348  0.6836  0.4913
6.455e+09  0.4635  0.7116  0.03793  -0.03378  0.002695  0.01718  0.816  0.2626
6.456e+09  0.689  0.446  -0.009711  0.03131  -0.03454  0.04043  0.8212  -0.1134
6.458e+09  0.7814  0.2318  0.025  -0.02014  0.03352  0.01597  0.7233  -0.3118
6.459e+09  0.8585  -0.06449  0.01408  -0.005338  0.02805  0.01228  0.6022  -0.5592
6.46e+09  0.7999  -0.3018  0.0256  0.008765  0.003085  0.07083  0.3029  -0.7839
6.461e+09  0.6258  -0.5848  -0.02025  0.01749  -0.01971  -0.007098  0.09222  -0.7809
6.462e+09  0.4038  -0.7737  -0.01964  0.033  -0.04148  -0.01539  -0.2088  -0.7685
6.464e+09  0.09631  -0.8111  -0.002456  -0.01324  0.007579  -0.04649  -0.4604  -0.6816
6.465e+09  -0.1866  -0.8337  0.01245  -0.001604  0.01338  0.004545  -0.627  -0.475
6.466e+09  -0.4752  -0.7125  0.03168  0.03732  0.0472  0.03175  -0.8034  -0.2086
6.468e+09  -0.6946  -0.5089  -0.0232  0.02531  -0.01447  -0.007057  -0.8067  0.07343
6.469e+09  -0.8388  -0.282  -0.02119  -0.02739  -0.02594  -0.0111  -0.7083  0.3075
6.47e+09  -0.863  0.03897  -0.01886  -0.04096  0.03505  -0.03126  -0.5338  0.5828
6.471e+09  -0.7973  0.3263  -0.03896  -0.02067  0.01111  -0.02196  -0.3382  0.7058
6.472e+09  -0.5925  0.5819  -0.01307  0.02309  -0.01674  -0.002806  -0.06346  0.7667
6.474e+09  -0.3882  0.7777  0.02523  -0.002962  -0.000949  -0.05935  0.2283  0.7021
6.475e+09  -0.06823  0.7867  0.01875  -0.004193  0.036  -0.05404  0.4304  0.6328
6.476e+09  0.1514  0.8185  0.02985  0.008603  0.04375  0.02654  0.683  0.4861
6.478e+09  0.4698  0.7058  -0.02355  -0.02051  -0.04117  -0.03103  0.7291  0.1992
6.479e+09  0.7445  0.5199  0.009903  -0.0274  -0.036  0.01834  0.8137  -0.08758
6.48e+09  0.8041  0.2279  0.007948  -0.008471  0.01377  -0.02024  0.7384  -0.3859
6.481e+09  0.8975  -0.06411  0.01279  -0.03107  0.04598  -0.008445  0.5833  -0.5413
6.482e+09  0.7723  -0.3399  -0.02213  -0.03801  0.06168  0.02399  0.306  -0.736
6.484e+09  0.6864  -0.5643  0.00929  0.0122  0.03448  -0.02361  0.063  -0.7539
6.485e+09  0.3813  -0.7586  -0.01948  -0.01312  0.001825  -0.02274  -0.1971  -0.7377
6.486e+09  0.09343  -0.8875  0.01341  0.01099  0.004762  0.02016  -0.4205  -0.5997
6.488e+09  0.3821  -0.442  -0.03348  0.03379  0.6483  0.2344  -0.6329  -0.416
6.489e+09  -0.45  -0.7433  0.01046  0.02227  0.01125  0.01183  -0.7465  -0.1838
6.49e+09  -0.7157  -0.5098  0.0159  0.01236  -0.03095  -0.05471  -0.7784  0.07422
6.491e+09  -0.8398  -0.1861  0.02493  -0.03127  0.01044  -0.009556  -0.6679  0.3546
6.492e+09  -0.858  0.07807  0.04497  -0.003543  0.0267  0.01836  -0.5264  0.5553
6.494e+09  -0.8388  0.4355  0.01473  0.01782  -0.08339  0.02164  -0.3068  0.7126
6.495e+09  -0.604  0.5961  0.02227  0.001682  0.01787  0.03406  -0.05314  0.7769
6.496e+09  -0.3346  0.8406  0.01907  0.006004  -0.02155  -0.0225  0.2304  0.7301
6.498e+09  -0.08712  0.8946  0.03  0.004129  0.0287  -0.01173  0.4887  0.5968
6.499e+09  0.2253  0.844  0.01134  0.0148  0.003213  -0.07985  0.5818  0.4172
6.5e+09  0.4642  0.7667  -0.02047  0.003072  -0.01475  0.03153  0.7184  0.1632
6.501e+09  0.7234  0.5444  -0.002894  0.003256  0.03376  -0.007283  0.7437  -0.1179
6.502e+09  0.8749  0.1994  0.009684  0.003505  0.02157  0.009354  0.674  -0.377
6.504e+09  0.8693  -0.0792  0.007266  -0.03458  -0.02873  -0.001588  0.5168  -0.5957
6.505e+09  0.7336  -0.4659  -0.04199  0.0004933  0.01512  -0.002737  0.256  -0.6957
6.506e+09  0.5824  -0.6824  -0.002444  0.005934  -0.0463  -0.005744  0.02452  -0.7304
6.508e+09  0.3279  -0.8312  0.01478  0.0003418  0.03379  0.01025  -0.1907  -0.7454
6.509e+09  0.09716  -0.8694  0.003741  -0.01388  -0.009216  0.01352  -0.5212  -0.6131
6.51e+09  -0.283  -0.8615  -0.02737  -0.03742  0.00828  -0.01879  -0.6581  -0.3692
6.511e+09  -0.5123  -0.7127  -0.01251  -0.02685  0.003445  0.01386  -0.7099  -0.1475
6.512e+09  -0.7817  -0.5  -0.02593  0.006148  -0.02287  -0.019  -0.7425  0.1359
6.514e+09  -0.8885  -0.1964  -0.01317  0.006389  0.03482  -0.007169  -0.6399  0.3671
6.515e+09  -0.9081  0.1944  0.003592  -0.02227  -0.02024  0.009063  -0.4869  0.5817
6.516e+09  -0.8028  0.4212  0.01435  -0.01662  -0.04238  0.01079  -0.2642  0.725
6.518e+09  -0.5653  0.6492  0.002198  -0.01428  -0.04461  -0.0006144  0.02965  0.724
6.519e+09  -0.338  0.8477  0.006072  0.02934  -0.01544  0.02692  0.2886  0.7244
6.52e+09  -0.0103  0.8824  -0.02591  0.02867  0.02692  0.05703  0.5024  0.5658
6.521e+09  0.3276  0.8496  -0.00695  0.01616  0.006113  0.006357  0.6661  0.3245
6.522e+09  0.5495  0.6874  0.01403  0.008195  0.0237  -0.05948  0.7161  0.0943
6.524e+09  0.7776  0.4201  -0.000547  -0.009301  0.04935  -0.05103  0.6995  -0.1464
6.525e+09  0.8983  0.2038  0.006033  -0.02332  -0.0008332  -0.009373  0.6184  -0.413
6.526e+09  0.9186  -0.1474  0.0186  -0.004751  -0.01947  0.03195  0.4017  -0.5181
6.528e+09  0.7928  -0.4496  0.007008  -0.00418  0.01589  0.0358  0.1865  -0.6758
6.529e+09  0.5782  -0.7298  0.009278  -0.0008672  0.01217  -0.01753  -0.06185  -0.7035
6.53e+09  0.3548  -0.8783  0.01699  0.007328  -0.001244  -0.0199  -0.2829  -0.6655
6.531e+09  -0.09258  -0.9715  0.0008066  -0.0102  0.04089  -0.04674  -0.4895  -0.4829
6.532e+09  -0.3793  -0.8782  0.03911  0.004958  -0.01931  0.04025  -0.5806  -0.3474
6.534e+09  -0.6352  -0.6528  -0.01317  -0.01371  -0.02784  -0.03692  -0.6401  -0.08811
6.535e+09  -0.8522  -0.4501  -0.02065  0.02523  -0.01828  -0.00914  -0.6188  0.158
6.536e+09  -0.9334  -0.06546  -0.001156  -0.0189  -0.0116  -0.02241  -0.541  0.2985
6.538e+09  -0.9376  0.2302  -0.00742  -0.007361  0.01809  0.02546  -0.4658  0.4655
6.539e+09  -0.7814  0.5214  0.01404  0.03066  0.03633  0.0088  -0.2674  0.6098
6.54e+09  -0.5746  0.7989  0.02481  0.01613  0.03924  -0.01923  -0.06281  0.693
6.541e+09  -0.2681  0.8682  0.003367  0.01334  -0.02945  -0.03071  0.1753  0.6834
6.542e+09  0.08265  0.9257  0.008242  0.0002188  0.02779  -0.03728  0.3896  0.5777
6.544e+09  0.4356  0.8583  0.02584  -0.01502  0.02156  -0.02726  0.5772  0.3935
6.545e+09  0.6776  0.6592  -0.00554  -0.03416  -0.00242  -0.003511  0.7046  0.1796
6.546e+09  0.8759  0.3784  -0.03135  0.00358  0.01517  -0.02339  0.716  -0.03583
6.548e+09  0.9453  0.03656  0.003571  0.03217  0.02894  -0.02075  0.6574  -0.3102
6.549e+09  0.924  -0.2834  0.02727  -0.04123  -0.02407  -0.0026  0.4743  -0.5138
6.55e+09  0.703  -0.5532  -0.01296  -0.04023  0.01469  0.03366  0.2751  -0.6893
