# Hz S RI R 50
6.25e+09  -0.1622  0.869  0.007157  -0.01526  0.02063  0.009172  0.1492  0.4892
6.251e+09  0.1159  0.8626  0.01681  -0.01813  -0.02325  0.0139  0.3626  0.412
6.252e+09  0.3529  0.7655  0.008255  0.0056  0.05861  -0.011  0.5399  0.2823
6.254e+09  0.662  0.5665  -0.02978  0.003497  0.01083  0.008159  0.6144  0.01023
6.255e+09  0.8411  0.3285  -0.01654  0.01997  0.05635  -0.003971  0.5888  -0.2324
6.256e+09  0.8651  0.03657  -0.01857  0.008357  0.04976  -0.01583  0.5041  -0.4657
6.258e+09  0.7491  -0.2816  0.006725  0.00648  0.04056  -0.03367  0.2465  -0.6095
6.259e+09  0.6839  -0.5182  -0.0005946  -0.002379  -0.02117  0.05238  0.07249  -0.7153
6.26e+09  0.4655  -0.7279  0.02834  0.001918  -0.04733  -0.02815  -0.1973  -0.6774
6.261e+09  0.1812  -0.8188  -0.005305  0.0007161  0.05403  0.03611  -0.4417  -0.5286
6.262e+09  -0.1127  -0.8526  0.009385  -0.02062  0.02674  -0.01722  -0.6248  -0.3684
6.264e+09  -0.3983  -0.6625  -0.004326  0.00772  0.005141  -0.01811  -0.7254  -0.1016
6.265e+09  -0.6624  -0.5874  -0.0187  0.002567  0.04246  0.01293  -0.6909  0.1786
6.266e+09  -0.8092  -0.3386  -0.02447  -0.01737  0.01679  -0.001588  -0.6202  0.3922
6.268e+09  -0.8745  0.01685  -0.01159  0.006955  -0.04192  -0.03834  -0.442  0.5969
6.269e+09  -0.7868  0.2982  -0.001459  0.02297  -0.07995  0.02048  -0.2178  0.7186
6.27e+09  -0.6782  0.5121  0.03031  0.03162  0.01804  0.04857  0.06723  0.7353
6.271e+09  -0.4333  0.7181  -0.002556  -0.01483  0.01007  -0.05791  0.315  0.6952
6.272e+09  -0.1531  0.8323  -0.02741  -0.02113  0.03999  0.0057  0.5377  0.5365
6.274e+09  0.1845  0.8592  -0.003666  -0.009171  -0.005995  -0.01524  0.6943  0.3112
6.275e+09  0.3957  0.6813  -0.01069  0.007953  -0.006786  0.02509  0.7865  0.07703
6.276e+09  0.6161  0.5382  0.002721  -0.01966  0.03782  0.06439  0.7464  -0.2185
6.278e+09  0.7835  0.3152  -0.0132  0.0238  -0.01019  -0.0317  0.6248  -0.4806
6.279e+09  0.812  -0.01339  0.01467  0.003291  0.003162  -0.001982  0.4212  -0.6644
6.28e+09  0.7818  -0.2746  0.02648  -0.02106  0.04872  -0.06472  0.1448  -0.7406
6.281e+09  0.6498  -0.5523  -0.008138  -0.001009  0.01677  -0.0359  -0.07112  -0.7585
6.282e+09  0.4534  -0.7367  9.803e-05  -0.01607  -0.0257  0.01522  -0.3715  -0.6821
6.284e+09  0.1141  -0.809  -0.003647  0.007397  -0.01724  -0.02887  -0.5832  -0.547
6.285e+09  -0.1492  -0.7986  -0.002986  0.002708  -0.007825  -0.006162  -0.7386  -0.3261
6.286e+09  -0.4534  -0.7427  0.01935  -0.01215  -0.02864  0.009158  -0.7783  -0.02082
6.288e+09  -0.6749  -0.5032  -0.00177  0.0001411  -0.08072  0.01227  -0.7413  0.2648
6.289e+09  -0.7504  -0.2246  0.006804  0.02129  0.01111  -0.01397  -0.641  0.525
6.29e+09  -0.8181  0.06405  2.768e-05  -0.004734  -0.01855  0.03159  -0.4571  0.6664
6.291e+09  -0.7551  0.3324  -0.002723  -0.03899  0.02089  0.03058  -0.2028  0.7981
6.292e+09  -0.6112  0.5777  0.01963  0.003786  0.02784  -0.08553  0.1119  0.7979
6.294e+09  -0.3298  0.7243  0.01271  -0.001976  0.0566  0.00148  0.3822  0.7241
6.295e+09  -0.1462  0.8358  0.01138  -0.006772  0.01007  -0.005632  0.6237  0.5338
6.296e+09  0.2379  0.8442  -0.007323  0.03088  0.01457  0.001579  0.7582  0.2735
6.298e+09  0.5557  0.7297  0.01272  0.01615  0.01052  -0.02737  0.83  0.01377
6.299e+09  0.6893  0.5241  0.01283  0.002461  0.02301  0.02061  0.7997  -0.2898
6.3e+09  0.8648  0.1935  -0.01329  0.0152  0.01474  0.04005  0.6642  -0.5288
6.301e+09  0.8415  -0.04736  0.01027  -0.01636  -0.001163  -0.02916  0.4096  -0.7136
6.302e+09  0.7614  -0.3484  -0.01539  0.006778  0.001387  -0.007024  0.1616  -0.8252
6.304e+09  0.5358  -0.5909  -0.01439  -0.01019  0.03372  0.03076  -0.1397  -0.8485
6.305e+09  0.3256  -0.7388  -0.01122  -0.01273  0.01425  0.0178  -0.4622  -0.705
6.306e+09  0.0369  -0.8706  -0.008891  0.0005045  0.01168  -0.01847  -0.6559  -0.5752
6.308e+09  -0.2631  -0.8016  -0.02661  -0.01716  0.005544  -0.02195  -0.8082  -0.306
6.309e+09  -0.4891  -0.6284  -0.01084  -0.005416  -0.02208  0.0885  -0.8821  -0.003409
6.31e+09  -0.7287  -0.4856  -0.0161  0.001457  0.01625  -0.04649  -0.8109  0.3003
6.311e+09  -0.7798  -0.1995  0.006916  -0.02813  -0.1058  0.009872  -0.666  0.5205
6.312e+09  -0.8485  0.1351  -0.0254  -0.01976  0.01158  0.02006  -0.4174  0.7504
6.314e+09  -0.7117  0.3907  0.001019  -0.01969  -0.01456  -0.01602  -0.1759  0.8655
6.315e+09  -0.5957  0.671  0.02184  -0.009003  0.01291  -0.01988  0.178  0.8724
6.316e+09  -0.325  0.7801  -0.005412  0.01305  -0.001676  -0.008242  0.4129  0.758
6.318e+09  0.008865  0.8018  0.03535  0.01655  -0.01014  0.0004052  0.6723  0.5898
6.319e+09  0.3037  0.8111  -0.003564  -0.006658  0.0297  0.003426  0.8308  0.3486
6.32e+09  0.565  0.6713  0.02414  -0.01692  -0.02505  -0.02761  0.9048  0.02553
6.321e+09  0.8119  0.4666  0.04072  -0.02745  0.005441  0.02705  0.8522  -0.2882
6.322e+09  0.8473  0.1757  -0.02365  -0.02222  0.03551  0.02348  0.6816  -0.5467
6.324e+09  0.8319  -0.1535  0.006614  -0.004738  0.01486  -0.02224  0.4803  -0.7475
6.325e+09  0.6922  -0.4089  0.04276  0.01217  0.01013  -0.05365  0.1912  -0.8993
6.326e+09  0.5565  -0.6745  -0.01916  0.005723  0.02239  -0.001823  -0.1255  -0.8934
6.328e+09  0.2833  -0.7843  0.03372  -0.0196  -0.05229  -0.03251  -0.4373  -0.7886
6.329e+09  -0.04203  -0.8175  -0.002439  0.005815  0.02668  -0.03247  -0.6669  -0.5976
6.33e+09  -0.3067  -0.811  -0.00453  0.02361  -0.004342  -0.02456  -0.827  -0.3296
6.331e+09  -0.6107  -0.6356  -0.03162  0.005468  0.02966  0.04141  -0.8744  -0.004223
6.332e+09  -0.7807  -0.3903  0.007952  -0.02194  -0.01259  0.0461  -0.847  0.2852
6.334e+09  -0.929  -0.09349  -0.0046  -0.006937  -0.05724  0.02429  -0.7444  0.5526
6.335e+09  -0.8141  0.2183  0.03476  -0.02304  -0.0285  -0.05963  -0.479  0.8167
6.336e+09  -0.7601  0.539  -0.02845  0.01302  -0.03804  0.0289  -0.196  0.909
6.338e+09  -0.4866  0.7102  0.02557  0.008968  0.02854  -0.003002  0.1254  0.9149
6.339e+09  -0.2111  0.8443  -0.01652  -0.01868  0.07502  0.02921  0.4522  0.8214
6.34e+09  0.1218  0.8642  0.009025  -0.008657  0.01188  0.02664  0.6911  0.6434
6.341e+09  0.3776  0.7937  -0.01385  -0.00262  -0.01018  0.002007  0.8336  0.3585
6.342e+09  0.6287  0.596  -0.02051  0.008731  -0.01386  0.02456  0.9106  0.06016
6.344e+09  0.8418  0.329  -0.01526  0.01472  0.004117  -0.06189  0.8609  -0.2691
6.345e+09  0.8805  0.02952  -0.009339  -0.03038  0.0443  0.03244  0.7443  -0.5787
6.346e+09  0.8519  -0.3174  -0.003328  0.004099  -0.01539  -0.02498  0.5295  -0.7724
6.348e+09  0.7022  -0.5513  0.02518  0.007884  0.0008914  -0.009496  0.2569  -0.9123
6.349e+09  0.4937  -0.7923  0.03111  0.003908  0.02303  -0.002114  -0.09891  -0.9425
6.35e+09  0.1923  -0.8793  0.02683  0.003064  0.01459  -0.04951  -0.445  -0.8322
6.351e+09  -0.182  -0.8772  -0.008339  0.02445  0.004736  0.02154  -0.6866  -0.6342
6.352e+09  -0.4714  -0.7778  -0.01501  0.007263  -0.01122  0.02519  -0.8479  -0.3485
6.354e+09  -0.6777  -0.5598  -0.02396  0.006301  0.05227  0.05378  -0.9407  -0.05988
6.355e+09  -0.8383  -0.316  0.004111  0.0247  -0.02289  0.001188  -0.9177  0.2775
6.356e+09  -0.8693  -0.01463  -0.03166  0.001411  -0.001048  -0.01615  -0.7773  0.5885
6.358e+09  -0.8692  0.4002  -0.02096  -0.02024  -0.01778  -0.0008935  -0.5294  0.7958
6.359e+09  -0.6569  0.5886  -0.007936  0.02344  0.02407  -0.02365  -0.2064  0.9234
6.36e+09  -0.4437  0.7619  0.02878  -0.01035  0.03595  0.05974  0.07417  0.9115
6.361e+09  -0.08433  0.914  0.01557  -0.002524  0.02268  0.02055  0.4026  0.8895
6.362e+09  0.2126  0.8658  0.01833  -0.05431  -0.004412  0.0275  0.6972  0.6919
6.364e+09  0.4912  0.7601  -0.0171  -0.02203  0.01032  0.004855  0.8539  0.405
6.365e+09  0.7381  0.5498  0.02692  -0.00281  -0.0002373  -0.02515  0.9781  0.0958
6.366e+09  0.8619  0.2401  -0.01032  0.005534  0.004387  -0.01273  0.9038  -0.2193
6.368e+09  0.8817  -0.13  -0.000602  -0.003155  0.03685  -0.02863  0.7721  -0.561
6.369e+09  0.8021  -0.3854  -0.01728  0.002657  -0.008389  -0.007709  0.5598  -0.8188
6.37e+09  0.6268  -0.6325  -0.02565  -0.01158  0.02965  -0.06011  0.3086  -0.955
6.371e+09  0.3689  -0.8069  0.02352  -0.0218  0.007896  0.01732  -0.08147  -0.9136
6.372e+09  0.08038  -0.8458  0.0238  0.03796  -0.02345  0.005794  -0.3997  -0.8814
6.374e+09  -0.26  -0.8653  -0.0299  -0.01142  0.01511  0.01857  -0.6386  -0.6773
6.375e+09  -0.5498  -0.7269  -0.02605  0.004964  0.006178  0.04074  -0.8298  -0.4059
6.376e+09  -0.7267  -0.4761  4.843e-05  0.008857  -0.0001665  -0.04901  -0.9537  -0.09243
6.378e+09  -0.8701  -0.2005  0.01552  0.003875  -0.009988  0.03719  -0.9127  0.2353
6.379e+09  -0.9102  0.1476  0.002033  0.003903  -0.05532  -0.01101  -0.7989  0.5161
6.38e+09  -0.8347  0.4355  -0.0256  0.001757  -0.04217  0.006497  -0.547  0.8052
6.381e+09  -0.6275  0.6913  -0.0436  -0.01296  -0.009302  0.01016  -0.2614  0.9047
6.382e+09  -0.3468  0.8332  -0.01819  -0.02584  0.01257  -0.004759  0.05474  0.9437
6.384e+09  -0.0291  0.849  0.03184  -0.00378  0.004396  -0.002672  0.4104  0.863
6.385e+09  0.2689  0.8488  0.0004143  0.01922  0.01485  -0.01408  0.6321  0.6829
6.386e+09  0.5878  0.6607  0.02915  -0.02593  -0.01679  -0.03345  0.8688  0.4151
6.388e+09  0.7056  0.4906  0.03477  -0.008871  -0.02304  -0.01101  0.9371  0.07828
6.389e+09  0.9081  0.178  0.003516  0.02875  -0.01892  0.02655  0.9222  -0.1972
6.39e+09  0.8856  -0.1572  -0.0007238  -0.01278  -0.0003356  -0.006082  0.7112  -0.4667
6.391e+09  0.7981  -0.4817  0.01931  0.01972  -0.003362  -0.00913  0.5793  -0.7553
6.392e+09  0.6  -0.7107  -0.001202  -0.01992  -0.03665  0.01379  0.3037  -0.8824
6.394e+09  0.2844  -0.8249  -0.05667  0.02165  0.04051  0.02773  -0.07735  -0.9125
6.395e+09  0.01303  -0.9173  -0.01829  0.0084  0.02445  0.003088  -0.3496  -0.8408
6.396e+09  -0.2963  -0.8757  -0.01559  -0.01516  0.01118  0.03018  -0.6361  -0.6706
6.398e+09  -0.5761  -0.6716  -0.009846  -0.002674  -0.001435  0.044  -0.7768  -0.4098
6.399e+09  -0.7527  -0.5074  0.01554  -0.01901  -0.0267  0.0105  -0.9199  -0.1972
6.4e+09  -0.9034  -0.1217  -0.01177  -0.03229  -0.002751  0.02882  -0.9218  0.1651
6.401e+09  -0.8605  0.1663  0.00612  0.03595  -0.00221  -0.02336  -0.7912  0.4306
6.402e+09  -0.7921  0.4569  -0.01153  0.02989  -0.0109  0.00738  -0.5973  0.7245
6.404e+09  -0.5083  0.7343  0.01486  -0.01965  -0.06265  -0.01945  -0.3087  0.8961
6.405e+09  -0.2416  0.7665  0.0214  -0.000339  0.01303  0.04542  -0.0008791  0.9224
6.406e+09  0.05718  0.9119  -0.0284  0.04264  -0.01313  0.03669  0.2931  0.8622
6.408e+09  0.3774  0.847  -0.0006631  0.03704  -0.03693  0.01001  0.5445  0.7367
6.409e+09  0.6294  0.6467  -0.02563  0.0302  0.07355  0.004622  0.8298  0.4661
6.41e+09  0.7919  0.4312  0.03509  -0.006464  -0.03052  -0.03207  0.8841  0.1909
6.411e+09  0.8708  0.06659  -0.04897  0.006576  0.00442  -0.00223  0.9128  -0.1377
6.412e+09  0.8103  -0.2102  0.008638  -0.0494  -0.0269  0.03446  0.7997  -0.4736
6.414e+09  0.743  -0.5012  -0.01426  0.04266  -0.002831  0.003644  0.5705  -0.689
6.415e+09  0.4981  -0.6791  0.01343  -0.007527  -0.02561  -0.0232  0.3067  -0.7967
6.416e+09  0.2325  -0.8828  -0.02704  -0.00466  -0.006374  0.02257  0.04174  -0.9393
6.418e+09  -0.07984  -0.8984  -0.01123  0.01093  -0.03448  -0.05752  -0.265  -0.8426
6.419e+09  -0.3484  -0.7984  0.02315  -0.004794  -0.03559  0.0326  -0.526  -0.6543
6.42e+09  -0.6681  -0.6789  0.002636  -0.003204  0.03171  0.02325  -0.7199  -0.4531
6.421e+09  -0.8044  -0.4399  0.002239  -0.01437  -0.004893  0.04835  -0.8644  -0.1608
6.422e+09  -0.8182  -0.07857  0.008072  0.00878  -0.005643  0.03014  -0.8862  0.09608
6.424e+09  -0.8692  0.2076  0.02145  -0.006287  0.009007  0.04201  -0.8119  0.4224
6.425e+09  -0.7227  0.4498  0.00658  0.04638  -0.00646  0.007222  -0.6359  0.6395
6.426e+09  -0.5489  0.7138  0.02572  -0.008474  -0.002596  0.02355  -0.3577  0.8142
6.428e+09  -0.246  0.8576  0.03018  -0.01685  -0.01038  -0.001391  -0.03308  0.9127
6.429e+09  0.1295  0.9026  -0.02187  0.004988  -0.01062  -0.01876  0.2654  0.84
6.43e+09  0.3853  0.7749  -0.02636  0.04201  0.005185  -0.01848  0.5417  0.7247
6.431e+09  0.6508  0.5966  0.009711  0.001085  -0.001324  -0.004758  0.7533  0.4666
6.432e+09  0.8729  0.3879  -0.02443  0.01757  0.01806  -0.03704  0.8325  0.2612
6.434e+09  0.8766  0.08391  0.03183  0.0034  -0.02473  -0.008851  0.8685  -0.07663
6.435e+09  0.8967  -0.1909  0.01244  0.03691  -0.03414  -0.02969  0.7896  -0.3544
6.436e+09  0.7302  -0.4865  0.003101  0.04612  0.006863  -0.01281  0.5924  -0.5951
6.438e+09  0.5545  -0.7436  0.01708  -0.007094  0.0284  -0.01609  0.3571  -0.7676
6.439e+09  0.2022  -0.8528  -0.003528  0.01711  -0.01052  -0.005834  0.07381  -0.8419
6.44e+09  -0.0973  -0.9014  -0.003975  0.009761  0.008953  -0.03303  -0.2299  -0.8375
6.441e+09  -0.3795  -0.8124  -0.03182  -0.01476  -0.00784  -0.02333  -0.5076  -0.6427
6.442e+09  -0.6472  -0.6594  0.02367  0.006922  -0.007764  -0.0121  -0.7001  -0.4554
6.444e+09  -0.8214  -0.4223  -0.04806  0.01373  -0.005614  0.01993  -0.8326  -0.2216
6.445e+09  -0.861  -0.1236  0.03835  0.01081  -0.01634  0.03079  -0.8239  0.05465
6.446e+09  -0.8416  0.2814  -0.009092  0.03714  0.04319  -0.03681  -0.7794  0.3632
6.448e+09  -0.7018  0.5061  0.0004113  -0.008622  -0.005401  0.01042  -0.6057  0.5958
6.449e+09  -0.5383  0.78  0.01614  -0.007487  -0.00974  -0.03473  -0.3885  0.7482
6.45e+09  -0.2834  0.9229  -0.02211  -0.009908  0.01183  -0.04844  -0.05938  0.8905
6.451e+09  0.1141  0.8693  0.01143  0.02126  -0.004201  0.04646  0.2054  0.8439
6.452e+09  0.4267  0.8078  -0.01102  -0.06466  0.0002028  0.008343  0.5219  0.6606
6.454e+09  0.6974  0.6062  -0.001631  0.01546  0.0514  0.006732  0.7069  0.4961
6.455e+09  0.8323  0.3571  0.03998  -0.03588  -0.08046  -0.009457  0.7967  0.1819
6.456e+09  0.9388  0.06544  -0.02144  -0.01681  -0.03595  -0.01962  0.8098  -0.0901
6.458e+09  0.8879  -0.2736  -0.02694  -0.008614  8.993e-05  -0.04487  0.763  -0.3598
6.459e+09  0.7036  -0.5832  0.009931  -0.01916  0.02888  -0.01068  0.5904  -0.6045
6.46e+09  0.4591  -0.7892  0.01061  -0.01406  0.02758  -0.01715  0.3816  -0.8205
6.461e+09  0.2192  -0.916  0.002978  -0.02835  -0.04389  0.01145  0.02511  -0.8493
6.462e+09  -0.09437  -0.8856  -0.02104  -0.01994  -0.01753  -0.02607  -0.1945  -0.7478
6.464e+09  -0.41  -0.8064  0.05533  -0.01987  0.007853  -0.02376  -0.4488  -0.6589
6.465e+09  -0.6816  -0.6202  0.0004559  -0.05595  -0.01121  0.03732  -0.6669  -0.4358
6.466e+09  -0.8334  -0.3896  0.009927  -0.03698  0.005814  -0.0594  -0.7531  -0.2157
6.468e+09  -0.8899  -0.03884  -0.03895  0.01513  0.00963  0.005385  -0.8149  0.08975
6.469e+09  -0.9056  0.2806  -0.03018  0.002312  0.01043  -0.03615  -0.7204  0.3525
6.47e+09  -0.7251  0.5128  0.02252  0.01134  -0.02025  -0.06436  -0.6182  0.5426
6.471e+09  -0.5172  0.8071  -0.02313  -0.002995  0.04278  0.007601  -0.3193  0.7185
6.472e+09  -0.1898  0.9443  -0.008838  -0.007507  0.02617  -0.01912  -0.02296  0.8214
6.474e+09  0.1074  0.9147  0.01076  -0.005525  0.03538  0.003889  0.1842  0.7802
6.475e+09  0.4964  0.7724  0.01264  -0.001398  -0.03625  -0.01356  0.4735  0.645
6.476e+09  0.724  0.618  0.01099  -0.02954  0.02299  -0.004646  0.6629  0.414
6.478e+09  0.8731  0.3963  0.00253  -0.002808  -0.03497  0.02775  0.7429  0.2167
6.479e+09  0.965  -0.05432  -0.005149  -0.02179  0.03951  0.01265  0.7768  -0.04212
6.48e+09  0.8837  -0.3209  0.0131  0.00611  0.006666  -0.001634  0.7222  -0.3526
6.481e+09  0.7263  -0.5223  0.005021  0.00417  -0.06567  -0.03518  0.4958  -0.5632
6.482e+09  0.4208  -0.8426  -0.03338  0.0341  -0.00497  -0.02573  0.31  -0.6637
6.484e+09  0.08482  -0.956  0.005082  0.0003244  -0.01682  0.0298  0.04569  -0.7713
6.485e+09  -0.1978  -0.9116  -0.01822  0.01013  -0.009209  -0.004562  -0.2081  -0.7412
6.486e+09  -0.544  -0.8064  0.0309  0.03461  0.04062  0.004196  -0.4158  -0.646
6.488e+09  -0.7941  -0.6133  -0.01743  -0.01213  0.02907  -0.01409  -0.6386  -0.4856
6.489e+09  -0.8812  -0.2745  -0.01931  0.05837  0.01378  0.0411  -0.7085  -0.1585
6.49e+09  -0.9093  0.07891  0.02447  0.007651  -0.02424  0.01627  -0.7791  0.0556
6.491e+09  -0.905  0.3997  0.01293  -0.02423  -0.02272  -0.01307  -0.6736  0.3425
6.492e+09  -0.7146  0.6693  -0.01587  -0.01269  0.001233  0.004988  -0.534  0.5232
6.494e+09  -0.4055  0.8497  0.01693  0.01735  -0.01996  0.01238  -0.3103  0.7161
6.495e+09  -0.09505  0.9175  0.03352  -0.01598  0.04614  0.06624  -0.00424  0.7782
6.496e+09  0.2419  0.8833  0.01261  -0.02336  -0.01249  -0.004576  0.2015  0.71
6.498e+09  0.5219  0.8103  -0.007033  0.01752  0.02294  0.02483  0.5056  0.5763
6.499e+09  0.7466  0.5669  0.00139  0.04073  0.04191  0.00845  0.6355  0.4241
6.5e+09  0.9221  0.2217  0.02238  0.0182  -0.02816  0.02885  0.7114  0.1519
6.501e+09  0.9646  -0.05827  0.007262  0.01306  -0.0148  0.01587  0.7597  -0.1339
6.502e+09  0.9123  -0.3666  -0.01655  -0.04389  0.02048  -0.015  0.6985  -0.3503
6.504e+09  0.6767  -0.7054  -0.01306  0.006961  -0.03681  0.04282  0.5273  -0.6238
6.505e+09  0.3029  -0.8673  -0.01796  0.02339  0.01061  0.05883  0.2897  -0.7089
6.506e+09  0.07717  -0.9918  0.04864  -0.01637  -0.03335  -0.009093  0.003056  -0.7626
6.508e+09  -0.2923  -0.9278  0.01193  0.02032  0.02577  0.001872  -0.2851  -0.7164
6.509e+09  -0.6178  -0.7393  0.05798  -0.03664  0.02156  0.003497  -0.4551  -0.6388
6.51e+09  -0.821  -0.4953  0.03239  -0.003255  0.008559  -0.02012  -0.6487  -0.3708
6.511e+09  -0.9622  -0.2052  -0.0004966  -0.03488  0.001995  0.01384  -0.7823  -0.1222
6.512e+09  -0.9736  0.1797  -0.02749  0.01441  0.007146  -0.006259  -0.754  0.168
6.514e+09  -0.8182  0.4652  -0.01904  0.02117  -0.02271  0.02352  -0.647  0.4094
6.515e+09  -0.6434  0.7843  0.0151  -0.01042  0.02147  -0.01044  -0.5185  0.5925
6.516e+09  -0.377  0.9272  -0.0057  0.01539  0.002444  -0.005409  -0.2221  0.7087
6.518e+09  0.05071  0.9463  0.01187  -0.04479  0.006352  -0.05195  0.02048  0.7559
6.519e+09  0.3719  0.8691  0.02257  -0.04939  0.03  -0.005636  0.2768  0.7016
6.52e+09  0.6814  0.7378  -0.02812  0.04187  -0.002512  0.002641  0.5162  0.585
6.521e+09  0.8962  0.433  -0.006983  0.006162  -0.05087  -0.01271  0.6131  0.3379
6.522e+09  0.9589  0.152  0.03222  0.0002861  -0.03722  0.01017  0.7473  0.08698
6.524e+09  0.9657  -0.2331  -0.01194  0.01104  0.03344  -0.04393  0.7286  -0.2021
6.525e+09  0.8133  -0.4984  0.01339  0.01688  0.0004603  0.02569  0.6026  -0.409
6.526e+09  0.5571  -0.7794  0.004217  0.005318  0.07235  -0.02056  0.4514  -0.5954
6.528e+09  0.2863  -0.8843  0.005868  -0.007499  0.04699  0.02376  0.2192  -0.6853
6.529e+09  -0.05815  -0.9773  0.02095  0.02222  0.05302  0.0445  -0.06713  -0.7061
6.53e+09  -0.4556  -0.8548  0.009444  0.000458  0.03168  -0.04753  -0.2513  -0.6539
6.531e+09  -0.68  -0.6719  0.03132  -0.009359  -0.002428  -0.01512  -0.519  -0.4721
6.532e+09  -0.8684  -0.3672  0.01607  -0.02784  0.01801  0.01206  -0.5593  -0.2798
6.534e+09  -0.9902  -0.01741  -0.002633  -0.0187  0.01993  0.012  -0.6909  -0.05566
6.535e+09  -0.9445  0.3165  0.008365  0.01492  -0.02534  -0.003188  -0.5909  0.09706
6.536e+09  -0.741  0.59  0.01259  0.003477  0.04006  0.05698  -0.5548  0.3154
6.538e+09  -0.484  0.8231  0.009455  -0.01467  0.002071  0.01866  -0.4664  0.4499
6.539e+09  -0.1622  0.9484  -0.00996  0.00412  -0.002227  -0.02017  -0.2352  0.6027
6.54e+09  0.1597  0.9986  -0.0178  -0.007324  0.007573  -0.02711  -0.05698  0.7057
6.541e+09  0.4755  0.8433  0.01347  -0.02894  0.02176  0.06994  0.2269  0.6943
6.542e+09  0.7275  0.6124  -0.01128  -0.01682  -0.003724  -0.02681  0.4187  0.6068
6.544e+09  0.9044  0.2753  -0.02948  0.02249  -0.007101  -0.02324  0.6205  0.3667
6.545e+09  0.9716  -0.03803  0.008756  -0.006221  -0.02163  0.02912  0.7127  0.1639
6.546e+09  0.8634  -0.37  0.01793  -0.006355  -0.002085  0.01145  0.726  -0.113
6.548e+09  0.7083  -0.6345  0.005243  -0.01473  -0.0287  -0.05065  0.6472  -0.3311
6.549e+09  0.4197  -0.8453  -0.001572  0.0517  -0.007295  0.01352  0.5017  -0.594
6.55e+09  0.07486  -0.9488  0.01292  -0.000787  0.01501  0.002556  0.2647  -0.6547
