# Hz S RI R 50
6.25e+09  -0.6862  -0.4286  -0.009019  0.008065  0.04838  -0.03079  0.1401  0.4886
6.251e+09  -0.7915  -0.196  0.01632  -0.01259  -0.006627  -0.003437  0.3615  0.414
6.252e+09  -0.7637  0.1347  0.003725  0.01344  0.02604  0.01077  0.5518  0.268
6.254e+09  -0.7062  0.411  0.03244  -0.003288  0.03613  0.07326  0.6247  0.01091
6.255e+09  -0.5374  0.6689  -0.01393  -0.02705  0.04565  0.05515  0.5737  -0.2263
6.256e+09  -0.27  0.7364  -0.006032  0.00862  0.03118  -0.04406  0.4967  -0.425
6.258e+09  0.02107  0.7676  0.01452  -0.006917  -0.09104  -0.03009  0.295  -0.5783
6.259e+09  0.2735  0.7179  0.01812  0.04231  0.01577  0.0004399  0.04273  -0.6908
6.26e+09  0.5035  0.5718  -0.01741  -0.001666  -0.02713  0.02933  -0.2309  -0.6438
6.261e+09  0.7375  0.3627  0.0006868  0.01604  -0.01624  0.03656  -0.4287  -0.5021
6.262e+09  0.7524  0.1641  -0.01423  0.01215  0.02289  0.02957  -0.5993  -0.3308
6.264e+09  0.7757  -0.1369  0.009208  -0.02075  -0.01529  -0.02725  -0.7057  -0.09254
6.265e+09  0.6802  -0.3683  -0.01788  0.002991  0.01953  -0.02683  -0.7049  0.157
6.266e+09  0.4966  -0.6078  0.0179  0.002302  0.0123  -0.01287  -0.5904  0.4026
6.268e+09  0.2473  -0.7897  -0.03488  0.005576  -0.05367  -0.03861  -0.4367  0.6143
6.269e+09  -0.04756  -0.8117  0.008328  0.01536  -0.01417  -0.03144  -0.1977  0.7037
6.27e+09  -0.3468  -0.7471  -0.004682  -0.01026  -0.004544  0.009353  0.06804  0.7374
6.271e+09  -0.5552  -0.5922  0.005633  -0.01218  -0.03042  -0.02127  0.3318  0.6512
6.272e+09  -0.7346  -0.3521  0.0228  0.02869  0.01043  0.03714  0.5444  0.5323
6.274e+09  -0.8002  -0.05294  0.01224  0.009729  0.001888  0.02802  0.6918  0.3068
6.275e+09  -0.78  0.1643  0.02267  0.003832  0.002071  0.05748  0.7803  0.03144
6.276e+09  -0.704  0.46  0.008175  -0.00278  -0.03732  0.01105  0.7317  -0.2532
6.278e+09  -0.3877  0.675  -0.00271  0.001385  -0.04593  0.02428  0.5869  -0.4509
6.279e+09  -0.1808  0.7697  0.02041  0.001858  0.01687  -0.02264  0.4145  -0.6592
6.28e+09  0.08183  0.7658  0.007944  -0.009207  0.01726  0.09054  0.1559  -0.7811
6.281e+09  0.3375  0.6659  0.004519  -0.00438  0.008421  0.01393  -0.1345  -0.7802
6.282e+09  0.6023  0.4891  -0.01419  -0.006162  -0.01835  0.002939  -0.3623  -0.704
6.284e+09  0.7296  0.3091  0.01382  -0.005185  -0.02201  0.1037  -0.5979  -0.5351
6.285e+09  0.7797  0.06978  -0.03093  0.008475  -0.04793  0.04328  -0.7229  -0.2654
6.286e+09  0.7509  -0.2683  0.01198  0.01948  0.01447  -0.02017  -0.7865  -0.02155
6.288e+09  0.6326  -0.4773  -0.004311  -0.006156  -0.001856  -0.03117  -0.7645  0.2446
6.289e+09  0.4305  -0.6597  -0.008285  0.03859  0.009048  0.0303  -0.6331  0.485
6.29e+09  0.2087  -0.8244  0.01823  0.003128  0.01416  0.004274  -0.413  0.6767
6.291e+09  -0.1547  -0.8257  -0.02279  -0.02964  0.02846  0.02698  -0.1453  0.8085
6.292e+09  -0.4169  -0.6781  0.002652  0.008164  0.08983  0.06372  0.1107  0.8055
6.294e+09  -0.5773  -0.5662  -0.03342  -0.007167  -0.04638  -0.007645  0.3885  0.7074
6.295e+09  -0.7961  -0.2434  -0.009896  0.003385  -0.01601  -0.00435  0.6336  0.5341
6.296e+09  -0.8098  -0.02407  -0.01664  -0.001431  -0.006423  -0.01664  0.7911  0.281
6.298e+09  -0.7622  0.2936  -0.001813  0.002477  -0.02749  0.0056  0.8237  -0.01773
6.299e+09  -0.6209  0.5676  -0.02612  -0.01135  -0.01801  -0.03175  0.7766  -0.2811
6.3e+09  -0.4187  0.7527  -0.004557  0.01823  0.003958  -0.04838  0.6523  -0.5407
6.301e+09  -0.1322  0.8131  -0.001493  -0.001037  0.01508  -0.05521  0.44  -0.7156
6.302e+09  0.2036  0.8413  0.008115  -0.01845  -0.02265  0.002986  0.1812  -0.811
6.304e+09  0.4421  0.6666  -0.009938  0.01262  0.03819  0.02252  -0.1238  -0.8252
6.305e+09  0.6114  0.4279  -0.004663  0.00304  -0.0087  -0.003543  -0.4149  -0.756
6.306e+09  0.7886  0.2683  0.003732  0.006374  -0.0002225  0.006376  -0.6407  -0.5625
6.308e+09  0.8269  -0.08043  0.02814  -0.03569  0.01359  0.02754  -0.8266  -0.3243
6.309e+09  0.7607  -0.3185  -0.06017  -0.00926  -0.03555  0.05568  -0.8926  -0.04321
6.31e+09  0.5444  -0.6406  -0.01387  0.02526  0.01385  -0.03053  -0.821  0.2825
6.311e+09  0.3733  -0.7717  -0.02218  0.01449  -5.236e-05  0.05417  -0.6658  0.5593
6.312e+09  0.0622  -0.794  -0.003127  0.01525  -0.03126  0.03338  -0.4052  0.7276
6.314e+09  -0.2049  -0.8136  0.01812  0.01331  -0.02193  0.01069  -0.1503  0.8702
6.315e+09  -0.4864  -0.6795  0.02993  0.003772  -0.004733  0.05981  0.1403  0.8529
6.316e+09  -0.7062  -0.4738  -0.03444  -0.0142  0.03504  0.002314  0.4376  0.7735
6.318e+09  -0.8163  -0.1745  0.01627  -0.009061  0.004889  0.02216  0.654  0.5995
6.319e+09  -0.8482  0.1175  0.02745  0.004541  0.02962  0.07049  0.8333  0.3359
6.32e+09  -0.7165  0.3869  0.01416  4.844e-05  0.005164  -0.0154  0.8722  0.01336
6.321e+09  -0.5072  0.5952  -0.0116  -0.02279  -0.07341  -0.01977  0.8403  -0.2966
6.322e+09  -0.2691  0.783  -0.03895  0.0004867  0.003546  -0.01155  0.6626  -0.5608
6.324e+09  0.008043  0.8078  0.05  0.0343  -0.006313  -0.0125  0.4299  -0.7876
6.325e+09  0.3039  0.7213  0.02272  -0.0007337  -0.0071  -0.003935  0.1671  -0.8883
6.326e+09  0.5325  0.6201  -0.01235  -0.01385  0.03547  -0.008448  -0.1265  -0.8814
6.328e+09  0.7295  0.3951  -0.01415  0.007797  0.005484  -0.05802  -0.4362  -0.7949
6.329e+09  0.8557  0.1232  0.001299  0.006688  0.005067  0.01296  -0.6607  -0.5694
6.33e+09  0.8348  -0.1993  0.005585  -0.01389  0.05013  -0.03388  -0.8478  -0.3247
6.331e+09  0.727  -0.4889  0.004273  -0.03062  -0.02168  -0.01404  -0.9178  -0.04309
6.332e+09  0.4861  -0.6418  -0.001013  -0.00957  0.02993  0.03342  -0.872  0.2625
6.334e+09  0.2319  -0.8129  -0.01468  -0.03187  -0.01782  0.01545  -0.7497  0.5709
6.335e+09  -0.09392  -0.9003  0.01095  -5.401e-05  -0.03069  -0.02194  -0.4711  0.7799
6.336e+09  -0.346  -0.7791  0.01009  -0.01907  -0.05871  0.01208  -0.1902  0.8958
6.338e+09  -0.646  -0.5895  -0.01753  -0.00382  0.03824  0.02276  0.1544  0.8902
6.339e+09  -0.7319  -0.3274  0.0146  0.006255  0.07236  0.02194  0.4574  0.8357
6.34e+09  -0.8307  -0.01938  -0.01296  0.005991  0.01701  -0.009845  0.7022  0.6305
6.341e+09  -0.8146  0.2414  -0.02579  0.01136  -0.02222  0.003081  0.8086  0.3351
6.342e+09  -0.7119  0.5722  -0.01109  -0.001627  0.001229  -0.02605  0.9052  0.05399
6.344e+09  -0.4352  0.747  -0.008411  0.006937  -0.01435  -0.004217  0.8858  -0.2718
6.345e+09  -0.1543  0.8573  -0.01479  -0.01015  0.03749  -0.03806  0.7518  -0.5551
6.346e+09  0.1455  0.8227  -0.008432  -0.01151  0.00243  0.006898  0.499  -0.7829
6.348e+09  0.4484  0.7324  -0.001678  0.0008066  0.005955  -0.00925  0.191  -0.8895
6.349e+09  0.6716  0.5176  0.005198  0.005203  -0.003165  0.004074  -0.1205  -0.9111
6.35e+09  0.8073  0.2851  0.02102  -0.01264  -0.001156  -0.0235  -0.4107  -0.8569
6.351e+09  0.8695  -0.02625  -0.02805  0.004617  0.05836  0.002433  -0.661  -0.6301
6.352e+09  0.8121  -0.2954  0.03958  -0.02718  0.008646  -0.006986  -0.878  -0.3912
6.354e+09  0.6036  -0.5874  -0.01411  0.001774  0.02912  0.04486  -0.9427  -0.05999
6.355e+09  0.384  -0.7845  -0.01294  0.001528  -0.03758  0.02506  -0.8925  0.287
6.356e+09  0.08711  -0.8474  -0.003313  0.01758  -0.02462  -0.00226  -0.7832  0.5663
6.358e+09  -0.238  -0.8046  -0.01754  -0.03577  0.02786  0.000549  -0.5123  0.7728
6.359e+09  -0.5119  -0.6776  -0.01219  -0.005336  -0.01063  -0.01457  -0.2322  0.9427
6.36e+09  -0.7081  -0.4439  -0.02385  0.03347  -0.0009258  0.02394  0.07405  0.9315
6.361e+09  -0.7992  -0.1683  -0.009321  -0.01252  -0.006797  0.02394  0.4134  0.8692
6.362e+09  -0.8418  0.158  0.01058  -0.02296  -0.01266  -0.02281  0.7503  0.6935
6.364e+09  -0.7876  0.4462  -0.01126  -0.03253  -0.0258  -0.0002673  0.8849  0.4061
6.365e+09  -0.5968  0.631  0.004451  0.009272  -0.01369  0.02736  0.936  0.08687
6.366e+09  -0.2828  0.8271  0.003553  0.00645  -0.0003459  0.02872  0.9361  -0.2618
6.368e+09  0.02149  0.8891  0.01954  -0.002375  0.03381  0.05226  0.7672  -0.5518
6.369e+09  0.3162  0.7991  -0.04592  0.004525  -0.02543  -0.05332  0.5565  -0.805
6.37e+09  0.6195  0.6348  -0.01346  -0.01488  0.04115  -0.0001157  0.2236  -0.8811
6.371e+09  0.7504  0.3457  -0.03088  -0.006797  0.08101  0.001489  -0.09108  -0.9329
6.372e+09  0.826  0.04118  0.03686  -0.0005293  -0.009776  0.00713  -0.3851  -0.8648
6.374e+09  0.8373  -0.2245  -0.03422  -0.01356  0.04396  0.02508  -0.6638  -0.6691
6.375e+09  0.6974  -0.4873  -0.03438  0.01343  -0.0288  -0.001383  -0.8548  -0.4236
6.376e+09  0.4442  -0.7116  -0.01893  -0.01663  0.008724  0.001039  -0.9306  -0.05576
6.378e+09  0.158  -0.8208  -0.004445  -0.01466  0.01852  -0.01837  -0.9036  0.2133
6.379e+09  -0.08492  -0.821  0.02139  0.01185  0.003797  0.009406  -0.7951  0.5389
6.38e+09  -0.4002  -0.7336  0.02329  -0.01361  0.0005837  0.02205  -0.5971  0.773
6.381e+09  -0.6532  -0.535  0.01441  0.01232  0.003652  0.01964  -0.2484  0.8664
6.382e+09  -0.8226  -0.2839  0.007395  0.02613  -0.02065  0.01947  0.05344  0.9431
6.384e+09  -0.8393  -0.008506  0.01562  0.009035  0.004892  0.02331  0.412  0.8194
6.385e+09  -0.7801  0.3196  -0.01764  -0.01247  0.002346  0.003215  0.6629  0.6531
6.386e+09  -0.6065  0.5848  0.01072  0.01387  0.004656  -0.01626  0.7986  0.3649
6.388e+09  -0.4203  0.8048  -0.01323  -0.0465  0.003069  -0.06153  0.9266  0.1662
6.389e+09  -0.09022  0.8604  -0.01953  4.914e-05  -0.01577  0.03266  0.8798  -0.2423
6.39e+09  0.2235  0.8771  0.001451  -0.03432  -0.03126  -0.006318  0.7989  -0.4968
6.391e+09  0.4633  0.7038  0.008878  0.02262  0.01073  -0.04144  0.5884  -0.7233
6.392e+09  0.7287  0.468  -0.03761  0.003097  -0.03924  0.0135  0.2823  -0.8893
6.394e+09  0.8746  0.167  -0.005836  -0.001605  -0.01614  0.01096  -0.05515  -0.9234
6.395e+09  0.9029  -0.09758  0.004542  0.002496  -0.03844  0.006266  -0.3381  -0.842
6.396e+09  0.8071  -0.3791  -0.003822  0.008927  -0.01106  0.005759  -0.6141  -0.6961
6.398e+09  0.6047  -0.594  0.02618  -0.006703  0.01367  -0.01924  -0.8408  -0.4569
6.399e+09  0.2897  -0.7915  -0.01134  0.02036  -0.02347  0.03821  -0.8964  -0.1142
6.4e+09  -0.01588  -0.9362  0.03054  0.03407  -0.01131  -0.01858  -0.924  0.1988
6.401e+09  -0.2879  -0.8074  -0.02007  -0.01369  0.03776  -0.04486  -0.7928  0.4527
6.402e+09  -0.5746  -0.6584  0.03668  0.01332  -0.02403  0.01136  -0.6063  0.7221
6.404e+09  -0.7671  -0.4046  -0.001589  -0.01443  -0.008833  0.005539  -0.3645  0.8624
6.405e+09  -0.8372  -0.1079  -0.03547  -0.02809  -0.06825  0.02061  -0.01684  0.917
6.406e+09  -0.7831  0.1918  0.002416  0.01715  -0.05296  0.03619  0.3091  0.8462
6.408e+09  -0.7796  0.4502  0.00519  -0.01805  0.02793  0.01294  0.5715  0.7359
6.409e+09  -0.5365  0.7087  0.02163  -0.02754  0.004958  -0.001854  0.811  0.4884
6.41e+09  -0.2673  0.7843  -0.02527  0.03491  0.03068  0.06354  0.9174  0.2276
6.411e+09  0.049  0.8464  0.008216  0.02502  0.006344  -0.04154  0.8711  -0.1404
6.412e+09  0.3695  0.7461  0.04351  -0.02092  -0.005702  0.02636  0.7719  -0.4395
6.414e+09  0.6516  0.6122  0.0003265  0.00944  -0.02266  -0.05179  0.5776  -0.6803
6.415e+09  0.8216  0.3572  -0.006881  0.007909  -0.03658  0.003633  0.3357  -0.8128
6.416e+09  0.8181  0.04856  -0.0207  -0.02172  0.008272  -0.01771  0.04076  -0.8756
6.418e+09  0.8069  -0.2226  -0.0653  -0.03714  0.04089  0.02087  -0.3094  -0.8407
6.419e+09  0.6891  -0.4752  0.0316  -0.02485  0.01943  -0.002743  -0.5554  -0.6866
6.42e+09  0.4544  -0.7469  0.0319  0.0254  0.005874  -0.0126  -0.7613  -0.5114
6.421e+09  0.1962  -0.8452  0.00875  0.01438  -0.01873  -0.003498  -0.8545  -0.2203
6.422e+09  -0.1547  -0.7968  -0.01466  0.01439  -0.02176  0.003449  -0.8864  0.1003
6.424e+09  -0.397  -0.7095  0.01617  -0.0008158  -0.01978  0.04773  -0.8057  0.3719
6.425e+09  -0.64  -0.5776  -0.008111  -0.01015  -0.03632  0.05266  -0.61  0.6456
6.426e+09  -0.8251  -0.2985  -0.01895  0.02026  -0.03315  0.01522  -0.3691  0.8158
6.428e+09  -0.8688  0.02103  -0.01002  0.01713  -0.03371  -0.01157  -0.03499  0.9097
6.429e+09  -0.8103  0.3311  0.02377  0.04451  -0.01908  0.06306  0.1954  0.8222
6.43e+09  -0.6429  0.548  0.009434  0.03632  -0.01174  0.006657  0.5126  0.6785
6.431e+09  -0.4042  0.7678  -0.04229  -0.001247  -0.03302  -0.00685  0.7673  0.4865
6.432e+09  -0.1235  0.865  0.005137  0.009359  -0.04189  -0.001214  0.837  0.2018
6.434e+09  0.1927  0.8326  -0.02799  0.001828  -0.03689  -0.04101  0.8382  -0.1092
6.435e+09  0.4981  0.7158  -0.01782  -0.005265  -0.0357  -0.01101  0.8134  -0.3822
6.436e+09  0.7283  0.4805  -0.06114  -0.0359  -0.01507  0.008929  0.5992  -0.6368
6.438e+09  0.8625  0.2529  -0.006588  -0.01831  -0.03573  0.02288  0.3639  -0.8002
6.439e+09  0.8234  -0.05624  0.02214  0.03509  -0.06105  -0.03638  0.06721  -0.8444
6.44e+09  0.7717  -0.3265  0.03723  -0.01182  -0.04003  -0.009371  -0.2715  -0.7929
6.441e+09  0.5859  -0.6247  -0.0568  0.03358  0.004929  -0.008937  -0.537  -0.6788
6.442e+09  0.3271  -0.7507  0.006708  0.02939  -0.01966  0.01813  -0.7029  -0.503
6.444e+09  0.05824  -0.8125  -0.0308  -0.01292  0.02141  -0.01908  -0.8007  -0.2265
6.445e+09  -0.1975  -0.7904  0.02834  0.02333  0.008199  -0.001753  -0.7897  0.09467
6.446e+09  -0.4764  -0.7029  -0.001665  0.03048  0.01917  0.04757  -0.7647  0.3642
6.448e+09  -0.7085  -0.4236  0.02512  -0.01983  0.01181  0.01647  -0.5942  0.5694
6.449e+09  -0.8194  -0.2212  0.007218  0.03733  -0.007915  0.02885  -0.2855  0.7388
6.45e+09  -0.8293  0.1153  -0.01909  -0.00978  -0.01136  0.006691  -0.07008  0.8109
6.451e+09  -0.7668  0.3796  0.0009779  -0.04446  -0.01094  0.003165  0.2188  0.7927
6.452e+09  -0.5778  0.6363  -0.002395  -0.03836  0.02516  0.03744  0.4892  0.7245
6.454e+09  -0.3355  0.7903  -0.01223  0.02393  0.004996  -0.01749  0.6661  0.4519
6.455e+09  -0.01529  0.8479  -0.02692  -0.005781  -0.0341  0.04197  0.7946  0.2227
6.456e+09  0.2974  0.8012  -0.009981  0.01496  0.02878  0.037  0.8392  -0.03542
6.458e+09  0.5347  0.6524  -0.02405  0.01477  0.009093  0.02581  0.7756  -0.3136
6.459e+09  0.7557  0.4242  0.01044  -0.005589  0.01014  0.02517  0.5933  -0.5999
6.46e+09  0.8327  0.1354  0.01406  -0.04371  0.008978  -0.02741  0.358  -0.7544
6.461e+09  0.8612  -0.1304  0.02336  0.02931  0.005968  0.05163  0.04879  -0.8774
6.462e+09  0.7283  -0.4228  0.02035  -0.006978  -0.05253  -0.02693  -0.2054  -0.7346
6.464e+09  0.6139  -0.5967  0.03283  0.0143  -0.01698  -0.05512  -0.4782  -0.6858
6.465e+09  0.3152  -0.8072  0.001759  0.0117  -0.003464  -0.022  -0.6796  -0.4598
6.466e+09  -0.0007791  -0.8417  -0.001918  -0.01371  0.000976  0.00822  -0.7927  -0.2246
6.468e+09  -0.266  -0.7511  0.002947  -0.007732  -0.008957  -0.002575  -0.8045  0.07394
6.469e+09  -0.5211  -0.6229  -0.00846  0.01528  -0.01862  -0.007583  -0.7552  0.3187
6.47e+09  -0.7926  -0.4444  -0.008699  -0.009004  -0.02349  -0.02556  -0.5754  0.5677
6.471e+09  -0.837  -0.1375  -0.02309  -0.006953  0.01066  -0.02075  -0.3429  0.7196
6.472e+09  -0.8697  0.1224  0.006537  0.01947  -0.01279  0.02998  -0.04028  0.7819
6.474e+09  -0.7677  0.4747  -0.01527  0.01605  -0.05178  -0.005748  0.234  0.756
6.475e+09  -0.5509  0.647  -0.05663  0.002843  0.005973  0.05953  0.4744  0.5946
6.476e+09  -0.2433  0.8014  0.002113  -0.03111  -0.02967  0.02539  0.6198  0.4614
6.478e+09  0.08943  0.8423  -0.009978  -0.03918  -0.01197  -0.03589  0.7793  0.1782
6.479e+09  0.3513  0.8041  -0.01984  0.03205  0.003111  0.02137  0.7519  -0.0541
6.48e+09  0.6246  0.6057  0.01997  0.0306  0.006357  0.05302  0.7399  -0.3471
6.481e+09  0.7453  0.424  -0.04095  -0.007124  0.03  0.008371  0.5575  -0.5795
6.482e+09  0.8334  0.1421  0.01057  -0.006142  -0.001143  -0.02112  0.3389  -0.7184
6.484e+09  0.8392  -0.09832  -0.018  -0.00814  0.02473  0.04101  0.04792  -0.792
6.485e+09  0.7333  -0.4158  -0.02409  -0.01641  -0.02147  0.05623  -0.1986  -0.726
6.486e+09  0.5351  -0.6672  -0.007564  -0.003677  0.008271  0.01219  -0.4204  -0.6145
6.488e+09  0.2862  -0.8102  0.05155  -0.02998  0.001729  -0.03095  -0.6467  -0.4176
6.489e+09  -0.02763  -0.8761  0.01601  -0.02365  -0.02846  0.009446  -0.7589  -0.2124
6.49e+09  -0.3082  -0.8076  0.0391  0.001443  0.01556  -0.03202  -0.7494  0.08227
6.491e+09  -0.5708  -0.6376  0.04147  -0.01498  0.002895  0.07349  -0.6835  0.3438
6.492e+09  -0.796  -0.425  -0.02635  0.009032  0.04198  0.04897  -0.5214  0.5772
6.494e+09  -0.7954  -0.1184  -0.01417  -0.008142  0.03802  0.002052  -0.3003  0.7207
6.495e+09  -0.798  0.2059  0.04269  0.003592  0.04467  -0.03265  -0.02999  0.7633
6.496e+09  -0.7153  0.4477  -0.05226  0.01202  0.02524  -0.002643  0.2908  0.7007
6.498e+09  -0.4783  0.6921  0.005499  -0.01655  -0.02471  -0.02894  0.4764  0.6504
6.499e+09  -0.2218  0.822  0.00998  0.02484  -0.02451  -0.003586  0.6624  0.408
6.5e+09  0.03958  0.8542  -0.03169  0.04541  0.03592  0.001831  0.7716  0.1628
6.501e+09  0.3761  0.7939  -0.02295  -0.003133  -0.0528  0.004922  0.7277  -0.1003
6.502e+09  0.6465  0.6101  -0.009799  -0.02661  -0.006866  0.01146  0.6538  -0.3443
6.504e+09  0.8048  0.3718  -0.0129  0.01231  -0.00905  0.004407  0.4976  -0.5497
6.505e+09  0.8439  0.06204  0.01346  0.05635  0.0107  -0.02312  0.2715  -0.6887
6.506e+09  0.8152  -0.273  0.001996  -0.04342  0.003722  -0.03393  0.01351  -0.7734
6.508e+09  0.7199  -0.5087  0.05323  0.001608  0.01823  -0.001343  -0.2299  -0.7128
6.509e+09  0.4542  -0.725  -0.01236  0.005336  0.01504  0.008064  -0.5016  -0.5897
6.51e+09  0.1989  -0.8397  -0.01103  0.008621  -0.01163  -0.03045  -0.6385  -0.3714
6.511e+09  -0.07345  -0.8601  -0.03088  -0.004239  -0.02873  -0.04663  -0.7616  -0.1398
6.512e+09  -0.3931  -0.7527  -0.0163  0.0117  -0.001555  0.002914  -0.7703  0.1593
6.514e+09  -0.608  -0.5909  0.006153  -0.01545  0.01576  -0.002466  -0.6399  0.3679
6.515e+09  -0.8368  -0.3382  -0.0433  -0.01297  0.003821  -0.0268  -0.484  0.5881
6.516e+09  -0.8991  -0.05842  -0.01537  0.003969  0.01454  0.01184  -0.2787  0.7103
6.518e+09  -0.8429  0.2428  0.01662  -0.00906  0.01893  -0.01449  -0.01441  0.7319
6.519e+09  -0.7338  0.5455  -0.02179  -0.008947  -0.05055  -0.01785  0.3005  0.6712
6.52e+09  -0.4562  0.7671  0.005566  0.001967  0.005282  0.07071  0.4997  0.5773
6.521e+09  -0.175  0.8772  -0.02108  0.02878  0.03089  -0.008973  0.6437  0.319
6.522e+09  0.1189  0.8953  -0.007824  -0.02497  0.002996  -0.01068  0.7316  0.1156
6.524e+09  0.4419  0.8011  -0.001943  -0.03514  0.01231  0.01445  0.74  -0.1935
6.525e+09  0.6591  0.5597  0.02252  0.0385  0.01761  0.006241  0.6285  -0.4211
6.526e+09  0.8371  0.3291  0.03488  0.002945  0.0004501  0.01393  0.4374  -0.5672
6.528e+09  0.9052  0.009064  -0.01896  -0.008671  0.02784  0.01185  0.1829  -0.6933
6.529e+09  0.8938  -0.2794  -6.588e-05  0.01896  0.05054  -0.009682  -0.02973  -0.6678
6.53e+09  0.7285  -0.5672  0.01967  -0.003052  0.01386  -0.02255  -0.2909  -0.6386
6.531e+09  0.4395  -0.7978  -0.009771  0.008827  0.04947  -0.008325  -0.4542  -0.4794
6.532e+09  0.148  -0.8913  0.005325  0.002596  0.08628  0.03506  -0.5629  -0.2868
6.534e+09  -0.1617  -0.9024  0.009207  0.01588  -0.02657  -0.0179  -0.6453  -0.0718
6.535e+09  -0.542  -0.7926  -0.006685  0.006941  0.02864  -0.04505  -0.6518  0.1236
6.536e+09  -0.7161  -0.5733  0.01405  0.007994  0.08205  0.05444  -0.5852  0.2904
6.538e+09  -0.9306  -0.2684  -0.02429  0.01213  0.02226  0.03879  -0.4393  0.4717
6.539e+09  -0.8875  0.03471  -0.006371  -0.02403  -0.01944  0.003122  -0.262  0.6004
6.54e+09  -0.858  0.3359  0.02781  0.01574  0.02831  -0.0183  -0.05297  0.652
6.541e+09  -0.7311  0.677  0.0285  -7.13e-05  -0.02898  -0.01724  0.1948  0.682
6.542e+09  -0.39  0.8535  0.02137  0.01003  0.0525  -0.01601  0.402  0.5479
6.544e+09  -0.09494  0.9558  -0.0002872  0.02668  -0.0608  -0.02128  0.6045  0.4027
6.545e+09  0.2199  0.9592  -0.03022  0.02839  0.0423  0.005243  0.7056  0.1552
6.546e+09  0.5468  0.7623  -0.01353  -0.004141  -0.04144  -0.01909  0.7454  -0.07424
6.548e+09  0.7928  0.5421  0.00174  -0.0244  0.0357  -0.02602  0.6519  -0.3385
6.549e+09  0.903  0.179  0.01198  -0.01308  0.02635  0.004819  0.5145  -0.5248
6.55e+09  0.9352  -0.09368  -0.001046  -0.01041  -0.01299  -0.01066  0.2641  -0.6739
