# Hz S RI R 50
6.25e+09  0.6577  0.6477  -0.01313  -0.01361  -0.0105  0.008378  0.143  0.4816
6.251e+09  0.7607  0.3772  0.01077  0.002003  -0.008102  -0.004342  0.3446  0.3978
6.252e+09  0.8443  0.06706  0.02776  -0.01553  0.05666  0.03992  0.5428  0.2415
6.254e+09  0.8166  -0.2778  -0.0136  0.00256  0.02915  0.01314  0.6315  -0.0122
6.255e+09  0.697  -0.4906  -0.002944  0.0019  -0.0304  0.02494  0.5943  -0.2438
6.256e+09  0.4525  -0.7199  -0.01151  0.008259  -0.05886  0.005486  0.4674  -0.4222
6.258e+09  0.106  -0.8387  -0.02752  0.009863  -0.02817  0.03024  0.284  -0.5971
6.259e+09  -0.1652  -0.7722  -0.01619  0.01183  0.007409  -0.03896  0.03561  -0.6699
6.26e+09  -0.4001  -0.7054  0.02878  0.009502  -0.004497  -0.01455  -0.2231  -0.6613
6.261e+09  -0.6499  -0.5983  -0.004688  -0.0007154  0.02567  -0.0156  -0.4455  -0.5209
6.262e+09  -0.7977  -0.3387  -0.01136  -0.002388  0.006614  -0.005481  -0.6499  -0.3547
6.264e+09  -0.8069  0.008937  0.007672  0.00348  0.005702  0.002491  -0.6941  -0.08583
6.265e+09  -0.7517  0.3632  -0.007346  0.008301  -0.02351  -0.04823  -0.7273  0.1244
6.266e+09  -0.6375  0.6  -0.03339  0.003934  0.05191  0.0009169  -0.6133  0.3952
6.268e+09  -0.3779  0.7566  0.002554  -0.02144  -0.02229  0.02827  -0.4228  0.5937
6.269e+09  -0.1072  0.8071  0.01042  -0.01624  0.01471  0.05408  -0.2065  0.6982
6.27e+09  0.2024  0.7402  -0.04405  0.0008263  0.02725  0.05153  0.05324  0.7124
6.271e+09  0.4533  0.6513  0.01473  0.006261  -0.008195  -0.02171  0.3052  0.6921
6.272e+09  0.64  0.495  -0.00538  -0.01789  0.01242  -0.03805  0.5354  0.5214
6.274e+09  0.8339  0.2128  -0.01659  0.01659  -0.002218  -0.01765  0.6792  0.3062
6.275e+09  0.7993  -0.05873  0.03564  0.001779  0.00692  -0.01338  0.7753  0.03388
6.276e+09  0.7757  -0.3464  -0.002229  0.006046  0.0244  0.04933  0.7259  -0.2059
6.278e+09  0.589  -0.6151  -0.01727  -0.005962  0.04492  0.03698  0.6496  -0.486
6.279e+09  0.301  -0.7442  -0.009068  -0.00443  -0.02795  -0.02554  0.4091  -0.6593
6.28e+09  0.05677  -0.8471  0.002099  -1.266e-05  -0.005485  -0.01674  0.1451  -0.7724
6.281e+09  -0.2602  -0.8028  0.02252  0.04112  -0.02504  0.03304  -0.06203  -0.8007
6.282e+09  -0.5998  -0.6495  -0.006385  -0.0147  0.02648  -0.05567  -0.4135  -0.6663
6.284e+09  -0.7093  -0.395  0.02533  -0.01903  0.001602  0.01922  -0.5815  -0.5103
6.285e+09  -0.8214  -0.1463  0.01904  0.005726  -0.01755  0.01557  -0.733  -0.2723
6.286e+09  -0.7805  0.1646  0.003164  0.01898  -0.04446  0.01171  -0.8084  -0.03834
6.288e+09  -0.7169  0.3776  -0.03638  0.007391  -0.03674  -0.01159  -0.7303  0.2539
6.289e+09  -0.5196  0.7059  -0.02311  -0.008718  -0.07803  0.02454  -0.6254  0.478
6.29e+09  -0.299  0.7925  -0.01423  -0.04072  -0.008845  0.006912  -0.4258  0.6895
6.291e+09  0.001207  0.8326  0.007721  0.003694  -0.03162  -0.01518  -0.1541  0.7791
6.292e+09  0.354  0.7381  -0.01369  -0.02061  0.03479  0.01489  0.1089  0.7932
6.294e+09  0.582  0.5762  0.003605  0.005617  0.02625  -0.03035  0.4122  0.7123
6.295e+09  0.7497  0.3708  0.003755  -0.02169  -0.02002  0.0406  0.6244  0.5304
6.296e+09  0.8514  0.05936  -0.000575  -0.01289  -0.01038  -0.01616  0.7966  0.2979
6.298e+09  0.7556  -0.236  -0.006147  -0.02948  -0.002404  0.01707  0.7962  0.007776
6.299e+09  0.6319  -0.4712  -0.009668  0.01161  -0.02514  -0.02279  0.7758  -0.2633
6.3e+09  0.4129  -0.7399  -0.0006369  0.02096  -0.009295  0.02173  0.6485  -0.5515
6.301e+09  0.1425  -0.8091  -0.003193  0.02809  0.007905  -0.07508  0.428  -0.7164
6.302e+09  -0.1538  -0.8233  0.03538  -0.00245  0.05117  -0.003813  0.1578  -0.8297
6.304e+09  -0.4438  -0.7351  0.0272  0.01064  0.02474  0.005261  -0.172  -0.8457
6.305e+09  -0.6516  -0.5157  0.01093  0.001933  -0.05959  -0.05556  -0.3711  -0.7746
6.306e+09  -0.7757  -0.3029  -0.02564  0.02296  -0.03838  -0.0387  -0.6355  -0.5786
6.308e+09  -0.8653  0.05746  0.004018  -0.0302  0.04171  -0.01829  -0.8168  -0.2934
6.309e+09  -0.8108  0.2659  -0.03622  0.008579  -0.007708  0.003979  -0.8694  -0.02882
6.31e+09  -0.6131  0.5728  0.001859  0.01669  -0.02911  0.01685  -0.7905  0.2928
6.311e+09  -0.345  0.7446  -0.008027  0.02329  -0.01363  -0.03477  -0.6502  0.5491
6.312e+09  -0.07355  0.8294  0.01528  -0.027  -0.001854  0.0532  -0.4151  0.7263
6.314e+09  0.1586  0.8167  0.005099  -0.03385  0.04541  -0.02257  -0.167  0.8633
6.315e+09  0.51  0.6335  -0.01932  -0.03642  -0.04223  0.007179  0.1451  0.8742
6.316e+09  0.6937  0.4679  0.01127  0.01906  -0.03923  -0.04373  0.4031  0.7417
6.318e+09  0.8154  0.1923  0.02437  0.009372  0.02999  0.02429  0.6832  0.5628
6.319e+09  0.8792  -0.1279  0.002677  -0.02816  0.03092  0.01475  0.8133  0.3109
6.32e+09  0.7408  -0.4034  0.01735  -0.00222  0.01196  -0.003743  0.844  0.04391
6.321e+09  0.5786  -0.6791  0.002514  -0.001526  0.01028  -0.05747  0.8273  -0.2835
6.322e+09  0.2485  -0.7841  -0.02083  -0.005719  0.03882  -0.01119  0.6963  -0.5598
6.324e+09  -0.0006618  -0.8365  -0.01253  0.005152  -0.03342  -0.01668  0.4411  -0.7756
6.325e+09  -0.272  -0.7392  0.005816  -0.009642  -0.03165  0.0005275  0.1474  -0.897
6.326e+09  -0.5483  -0.6303  -0.002851  0.01465  -0.00884  0.07604  -0.1286  -0.9301
6.328e+09  -0.7439  -0.3919  0.009014  -0.03476  0.01848  0.01381  -0.4374  -0.8108
6.329e+09  -0.8807  -0.09705  -0.02109  -0.02088  -0.008093  0.04323  -0.6747  -0.5822
6.33e+09  -0.8425  0.2056  0.01682  -0.02184  0.02537  0.006447  -0.8628  -0.3317
6.331e+09  -0.6857  0.5108  0.01288  -0.02767  -0.02102  -0.04134  -0.9009  -0.04796
6.332e+09  -0.5141  0.7055  -0.01177  0.01905  0.01494  0.01204  -0.832  0.2928
6.334e+09  -0.2516  0.7931  -0.00478  -0.00605  0.01904  0.03994  -0.7348  0.5751
6.335e+09  0.1393  0.8426  -0.01786  -0.00456  0.03288  -0.04581  -0.4897  0.7579
6.336e+09  0.4116  0.7673  0.01939  -0.003211  -0.006945  0.01251  -0.1733  0.8932
6.338e+09  0.6313  0.5591  -0.04342  0.004325  -0.02626  -0.04664  0.1293  0.9342
6.339e+09  0.7891  0.333  -0.01507  0.01869  -0.01271  -0.03677  0.4148  0.8342
6.34e+09  0.8666  0.007058  0.003036  -0.001215  0.002341  -0.009341  0.6738  0.6572
6.341e+09  0.7963  -0.3116  -0.005987  -0.002478  -0.005588  0.02532  0.8918  0.3663
6.342e+09  0.6818  -0.5576  0.01464  0.01582  0.01796  -0.004653  0.9254  0.05082
6.344e+09  0.4071  -0.7537  -0.0211  -0.03581  -0.02463  0.04355  0.8625  -0.2342
6.345e+09  0.1128  -0.8789  0.01278  -0.03334  0.02488  -0.007173  0.7427  -0.5448
6.346e+09  -0.2682  -0.8359  0.01398  -0.01425  -0.04397  0.01322  0.4692  -0.7673
6.348e+09  -0.417  -0.6899  -0.003718  0.0009709  0.0005837  -0.03889  0.1858  -0.9172
6.349e+09  -0.706  -0.5239  -0.02094  -0.03104  0.007477  -0.009787  -0.1252  -0.9448
6.35e+09  -0.8007  -0.1822  0.01561  0.01308  0.02291  0.0423  -0.3902  -0.8426
6.351e+09  -0.8238  0.07195  0.03402  -0.04286  0.006562  -0.03121  -0.7227  -0.631
6.352e+09  -0.7698  0.3677  -0.01844  0.01028  0.0168  -0.002036  -0.809  -0.3779
6.354e+09  -0.5941  0.6057  0.01784  -0.01702  -0.018  -0.03534  -0.9464  -0.05103
6.355e+09  -0.3209  0.7952  0.0165  0.001212  0.002282  -0.009957  -0.9073  0.2804
6.356e+09  -0.03308  0.8774  0.006037  0.004908  0.00534  0.04898  -0.7406  0.5977
6.358e+09  0.2457  0.8405  -0.02467  -0.004771  -0.0119  -0.0006597  -0.5407  0.8354
6.359e+09  0.5584  0.717  0.02158  -0.004918  0.01219  0.006183  -0.2053  0.9134
6.36e+09  0.7404  0.4195  0.01688  -0.02494  -0.01161  -0.02226  0.1047  0.9176
6.361e+09  0.8565  0.1337  -0.02262  0.01836  -0.008779  -0.02905  0.4009  0.8197
6.362e+09  0.841  -0.1473  0.000351  -0.0004695  -0.0538  -0.01861  0.6619  0.6852
6.364e+09  0.7345  -0.4322  -0.008954  -0.008588  -0.004158  -0.01846  0.851  0.41
6.365e+09  0.5297  -0.6562  0.03754  -0.01008  0.03379  -0.01779  0.9669  0.01105
6.366e+09  0.3021  -0.8143  -0.006147  0.01602  -0.02028  -0.01571  0.9055  -0.2913
6.368e+09  -0.03288  -0.8665  -0.005571  -0.05371  -0.01996  0.01231  0.7906  -0.5566
6.369e+09  -0.319  -0.8072  0.009917  -0.001713  -0.04641  -0.01378  0.5473  -0.7778
6.37e+09  -0.587  -0.6223  0.01047  -0.06123  0.02307  0.03262  0.2635  -0.9153
6.371e+09  -0.8121  -0.3244  0.005673  -0.009657  -0.01535  -0.01275  -0.05306  -0.9363
6.372e+09  -0.8744  -0.05562  0.01267  0.001623  -0.04971  -0.006571  -0.375  -0.8462
6.374e+09  -0.8149  0.2386  -0.02739  -0.01075  0.03838  -0.0517  -0.6551  -0.6551
6.375e+09  -0.7205  0.5016  -0.05109  -0.0004074  0.03458  0.000256  -0.8489  -0.441
6.376e+09  -0.4476  0.7061  0.03103  0.02168  0.004177  -0.006678  -0.9531  -0.128
6.378e+09  -0.1947  0.8514  0.03292  0.009398  0.02653  0.03273  -0.8742  0.2097
6.379e+09  0.1027  0.8365  -0.01051  -0.002475  -0.01633  0.04463  -0.7996  0.5358
6.38e+09  0.4529  0.7214  0.007131  -0.0173  0.0244  0.02946  -0.5269  0.7278
6.381e+09  0.7106  0.5572  -0.01455  0.03049  0.02587  0.006503  -0.2858  0.8916
6.382e+09  0.7655  0.2524  0.03783  0.007332  0.04939  -0.01062  0.03995  0.9591
6.384e+09  0.875  -0.01517  -0.007226  -0.0284  0.01051  0.02313  0.3719  0.87
6.385e+09  0.7897  -0.334  0.001692  -0.01875  -0.01909  0.02462  0.6628  0.6942
6.386e+09  0.6373  -0.6  -0.02746  0.006096  0.027  -0.01894  0.8484  0.4261
6.388e+09  0.3751  -0.7783  -0.038  0.02468  -0.00541  0.006627  0.9411  0.1093
6.389e+09  0.117  -0.8287  0.03422  -0.01543  0.001318  -0.04395  0.9314  -0.199
6.39e+09  -0.2823  -0.8421  -0.0125  -0.04914  0.04204  0.01162  0.7596  -0.4704
6.391e+09  -0.554  -0.7169  0.01777  0.05881  0.00739  0.03506  0.5948  -0.745
6.392e+09  -0.7559  -0.474  0.01235  -0.01911  -0.01983  -0.01939  0.2875  -0.9006
6.394e+09  -0.8758  -0.1863  0.0174  0.006549  0.03258  0.001565  -0.02306  -0.9392
6.395e+09  -0.8619  0.1002  -0.005109  0.003768  -0.06071  -0.02986  -0.3416  -0.8549
6.396e+09  -0.758  0.4623  -0.001224  0.02875  0.005771  0.02312  -0.6745  -0.7306
6.398e+09  -0.5892  0.6753  0.006765  0.02041  0.05732  0.01957  -0.8385  -0.4355
6.399e+09  -0.2651  0.8486  -0.01639  0.0002179  0.03172  -0.005029  -0.8926  -0.1435
6.4e+09  0.008754  0.839  0.009251  0.01094  0.03383  0.001983  -0.8769  0.1581
6.401e+09  0.2703  0.8263  0.01577  -0.01112  -0.04679  0.006563  -0.8216  0.4756
6.402e+09  0.5427  0.6429  -0.07289  0.01613  0.01002  0.05397  -0.5549  0.7338
6.404e+09  0.7662  0.3767  -0.01105  -0.009472  0.02657  -0.01123  -0.3387  0.8359
6.405e+09  0.8639  0.1142  0.002012  -0.0239  -0.007051  0.03329  0.02565  0.9125
6.406e+09  0.8352  -0.2555  0.02671  -0.006981  -0.00035  -0.01568  0.2696  0.8183
6.408e+09  0.7393  -0.5763  0.006966  0.03365  -0.04687  -0.01227  0.5902  0.6844
6.409e+09  0.4827  -0.7422  0.01621  0.003226  0.001033  -0.002998  0.7617  0.4822
6.41e+09  0.2192  -0.881  0.01263  0.00104  -0.01808  0.004203  0.8862  0.1781
6.411e+09  -0.1405  -0.8871  -0.01128  0.02041  0.05647  0.05096  0.9119  -0.1161
6.412e+09  -0.4572  -0.7682  -0.02911  0.01556  -0.007973  -0.03078  0.7699  -0.4307
6.414e+09  -0.6778  -0.5441  -0.01979  -0.01165  0.03503  -0.01102  0.6093  -0.6945
6.415e+09  -0.8354  -0.243  0.01375  0.0383  0.001531  0.04019  0.3651  -0.873
6.416e+09  -0.8188  0.04943  0.00884  0.02148  -0.03617  0.004378  -0.03613  -0.9375
6.418e+09  -0.7915  0.3879  0.06348  0.0002539  0.006051  0.004157  -0.2673  -0.8836
6.419e+09  -0.6114  0.6278  0.02596  0.02305  -0.02789  0.03494  -0.55  -0.7156
6.42e+09  -0.3782  0.8513  0.0007771  -0.004587  -0.0201  0.007005  -0.7718  -0.4716
6.421e+09  0.004478  0.9102  0.008535  0.00488  -0.04552  0.001819  -0.8666  -0.1714
6.422e+09  0.2543  0.7996  0.008948  -0.03906  0.007056  0.03574  -0.8948  0.06934
6.424e+09  0.6117  0.6821  -0.001747  0.01674  -0.0245  -5.894e-05  -0.8035  0.3989
6.425e+09  0.7483  0.3736  -0.04514  -0.01903  0.03673  0.0013  -0.5501  0.6324
6.426e+09  0.8862  0.1333  -0.01651  -0.02783  0.04471  -0.008694  -0.357  0.8468
6.428e+09  0.8789  -0.2232  0.01447  -0.05098  -0.002192  -0.02829  -0.09954  0.8944
6.429e+09  0.6942  -0.5251  0.01097  0.002206  0.02105  0.01089  0.2055  0.8381
6.43e+09  0.529  -0.7743  0.02936  -0.009986  0.0009203  0.05359  0.5138  0.697
6.431e+09  0.1592  -0.8624  0.01838  0.01357  0.02065  0.0213  0.749  0.4871
6.432e+09  -0.1151  -0.8856  0.02693  0.01402  0.004329  -0.01408  0.8729  0.2048
6.434e+09  -0.4624  -0.7593  -0.00565  0.02139  -0.0494  0.0151  0.8945  -0.1031
6.435e+09  -0.6466  -0.53  -0.01637  -0.01654  0.07554  -0.01613  0.7773  -0.3654
6.436e+09  -0.8781  -0.278  0.03969  -0.02714  0.00286  -0.0285  0.6017  -0.5949
6.438e+09  -0.907  0.05884  -0.02654  -0.006954  0.08219  0.05502  0.369  -0.7858
6.439e+09  -0.765  0.4152  0.0483  -0.02233  0.009688  0.008913  0.03272  -0.8787
6.44e+09  -0.5887  0.6356  -0.07589  -0.03221  0.01868  -0.02763  -0.2466  -0.7984
6.441e+09  -0.3019  0.8273  -0.05996  -0.007752  0.008345  0.009072  -0.504  -0.7171
6.442e+09  -0.01259  0.8763  0.008363  0.05223  -0.001324  0.02305  -0.7043  -0.5012
6.444e+09  0.3354  0.7976  0.0295  -0.01943  -0.003111  -0.00637  -0.8443  -0.1895
6.445e+09  0.5645  0.6502  -0.03246  -0.02518  0.01743  0.04425  -0.8756  0.09332
6.446e+09  0.7937  0.3294  -0.01092  0.03839  -0.005467  0.04531  -0.7297  0.3669
6.448e+09  0.8639  0.0351  0.01692  -0.0003928  -0.02072  0.0218  -0.5848  0.5679
6.449e+09  0.8068  -0.3153  -0.01058  -0.008124  0.003673  -0.0227  -0.3346  0.8151
6.45e+09  0.685  -0.5965  0.002432  -0.0155  -0.004281  -0.009677  -0.06508  0.8433
6.451e+09  0.4071  -0.7495  -0.01489  0.03193  0.03059  -0.03202  0.219  0.8344
6.452e+09  0.07624  -0.855  0.002008  0.007233  0.01476  -0.04779  0.4464  0.716
6.454e+09  -0.231  -0.8664  0.02775  0.01712  0.00447  0.01628  0.6751  0.465
6.455e+09  -0.5005  -0.7247  -0.001967  -0.005013  -0.03297  0.05493  0.8224  0.2345
6.456e+09  -0.7183  -0.4442  -0.03233  -0.04173  -0.01268  -0.02842  0.8028  -0.1168
6.458e+09  -0.7965  -0.154  0.03415  -0.03004  0.004356  -0.008213  0.7771  -0.3976
6.459e+09  -0.8506  0.1368  -0.003303  -0.01925  -0.002933  0.005112  0.6167  -0.5552
6.46e+09  -0.7087  0.4309  -0.03712  0.009074  -0.007921  -0.01738  0.3401  -0.7275
6.461e+09  -0.5345  0.6846  -0.005309  -0.01647  -0.01777  -0.02942  0.07478  -0.8196
6.462e+09  -0.218  0.8044  0.02066  -0.02139  0.008945  0.01646  -0.223  -0.8028
6.464e+09  0.1343  0.8369  0.02142  -0.009815  -0.002957  0.01856  -0.4486  -0.6252
6.465e+09  0.3927  0.7432  0.02986  -0.01772  0.01449  -0.03144  -0.6588  -0.4365
6.466e+09  0.6345  0.5227  -0.007211  -0.0002322  0.00285  -0.01809  -0.7752  -0.194
6.468e+09  0.7925  0.3174  0.001823  0.01087  0.01272  0.001735  -0.8434  0.1032
6.469e+09  0.8703  4.84e-06  -0.01021  0.008231  0.0561  0.02482  -0.7255  0.3358
6.47e+09  0.742  -0.3607  -0.02185  -0.03831  0.006823  -0.06004  -0.5239  0.6244
6.471e+09  0.5906  -0.5983  0.007221  -0.05135  -0.008908  0.02259  -0.3185  0.741
6.472e+09  0.3024  -0.7436  -0.01612  -0.01729  -0.003196  -0.006854  -0.06259  0.7751
6.474e+09  0.08001  -0.8874  -0.01261  0.004548  -0.03976  0.002312  0.2025  0.7548
6.475e+09  -0.2712  -0.843  -0.008146  -0.01366  -0.03519  0.03726  0.4587  0.6427
6.476e+09  -0.5623  -0.578  0.005883  0.01236  0.02014  0.02117  0.657  0.4088
6.478e+09  -0.6918  -0.4155  0.01931  0.02179  0.01005  -0.03315  0.7507  0.1943
6.479e+09  -0.7814  -0.06899  -0.01543  -0.05055  0.003311  -0.01466  0.7556  -0.07411
6.48e+09  -0.7589  0.2319  0.00256  0.04037  0.004599  -0.003538  0.685  -0.3497
6.481e+09  -0.5806  0.4541  0.04226  -0.03339  -0.01051  -0.07107  0.55  -0.5769
6.482e+09  -0.419  0.7042  -0.01127  0.005366  0.0333  -0.02295  0.3645  -0.7352
6.484e+09  -0.1474  0.8534  0.00927  0.01  -0.03169  0.01253  0.05036  -0.8252
6.485e+09  0.0879  0.8027  0.01856  0.0119  -0.006727  -0.007977  -0.2411  -0.7419
6.486e+09  0.4145  0.6499  -0.001358  0.007248  -0.01022  -0.006791  -0.4987  -0.6076
6.488e+09  0.6252  0.4925  0.02112  0.01514  -0.01608  0.003377  -0.6516  -0.4568
6.489e+09  0.7525  0.2142  0.02736  0.0008512  -0.008516  -0.02226  -0.7457  -0.1939
6.49e+09  0.757  -0.06216  0.02067  -0.03869  -0.003707  -0.01483  -0.7746  0.08468
6.491e+09  0.6453  -0.3116  -0.003743  -0.02863  -0.02854  -0.03381  -0.736  0.3187
6.492e+09  0.5136  -0.5787  -0.003773  0.004484  -0.007918  0.004154  -0.5138  0.5464
6.494e+09  0.1962  -0.7311  0.01911  -0.01953  0.04007  -0.01179  -0.3311  0.7026
6.495e+09  -0.03462  -0.7241  0.006744  -0.001006  -0.01015  0.02278  -0.04943  0.7865
6.496e+09  -0.2834  -0.7209  -0.05447  0.01485  -0.001045  0.04144  0.2207  0.7394
6.498e+09  -0.5451  -0.5346  -0.0138  0.003211  -0.00147  0.09879  0.4479  0.6003
6.499e+09  -0.6731  -0.3971  -0.0451  0.02552  -0.03229  0.02699  0.649  0.3944
6.5e+09  -0.8011  -0.1052  -0.01088  -0.01513  -0.007754  -0.01296  0.7724  0.1471
6.501e+09  -0.7034  0.1723  0.00763  -0.04017  -0.01301  -0.03037  0.753  -0.07563
6.502e+09  -0.6244  0.468  -0.002644  0.004314  0.01558  -0.001376  0.6612  -0.3474
6.504e+09  -0.3929  0.6181  0.01196  -0.0004609  0.07911  -0.04649  0.489  -0.5846
6.505e+09  -0.1937  0.7652  -0.04404  -0.01852  0.0233  -0.01554  0.2934  -0.7067
6.506e+09  0.135  0.8053  0.06786  -0.008371  -0.05442  -0.01918  -0.004382  -0.7862
6.508e+09  0.3763  0.6197  0.02229  -0.009377  0.02003  -0.03593  -0.2605  -0.7127
6.509e+09  0.6285  0.4598  0.005971  -0.0115  0.01617  0.01588  -0.4743  -0.5778
6.51e+09  0.7134  0.273  -0.00419  0.01357  0.04492  -0.03194  -0.6685  -0.3586
6.511e+09  0.7139  -0.05826  -0.002707  -0.01095  0.02379  0.04289  -0.7215  -0.1815
6.512e+09  0.7159  -0.2698  -0.006391  -0.004383  0.01793  -0.01912  -0.7474  0.1467
6.514e+09  0.5367  -0.54  -0.02501  0.00193  0.03698  -0.01002  -0.6475  0.3418
6.515e+09  0.3183  -0.6432  0.0002521  0.005792  -0.002463  0.0464  -0.492  0.578
6.516e+09  0.03237  -0.7811  0.03593  -0.00602  0.03282  -0.03113  -0.2271  0.7194
6.518e+09  -0.2318  -0.72  -0.006209  0.02896  0.006925  0.006364  0.04205  0.7673
6.519e+09  -0.4709  -0.6456  -0.01373  -0.02605  -0.01559  -0.02069  0.269  0.6917
6.52e+09  -0.5825  -0.3861  0.02266  -0.003857  0.02007  -0.00777  0.5114  0.56
6.521e+09  -0.7203  -0.1495  -0.01324  0.05285  0.04678  -0.02334  0.6518  0.3324
6.522e+09  -0.7221  0.1841  0.02293  0.008748  -0.05351  0.04343  0.7455  0.09282
6.524e+09  -0.6522  0.3075  0.0108  0.01531  0.04681  0.009539  0.7014  -0.1812
6.525e+09  -0.4839  0.5578  -0.003844  0.01406  0.02944  0.06806  0.6007  -0.3904
6.526e+09  -0.191  0.7162  -0.01255  -0.02117  -0.01191  0.02595  0.4113  -0.6108
6.528e+09  0.007981  0.711  0.006676  -0.03154  -0.01052  -0.01196  0.2039  -0.6882
6.529e+09  0.2613  0.7002  -0.002485  -0.0047  -0.03308  -0.03134  -0.07796  -0.7053
6.53e+09  0.5029  0.5636  -0.009012  0.02336  0.05166  0.01069  -0.2533  -0.6191
6.531e+09  0.6861  0.318  0.005013  0.00747  -0.02888  -0.0024  -0.466  -0.4941
6.532e+09  0.6926  0.05511  -0.01553  0.0174  0.04167  0.008003  -0.5645  -0.2953
6.534e+09  0.7426  -0.236  0.01284  -0.009886  -0.01289  0.01811  -0.6394  -0.05617
6.535e+09  0.5882  -0.4996  0.004063  -0.01049  0.05433  -0.03156  -0.6339  0.1062
6.536e+09  0.4146  -0.7027  -0.009722  -0.007841  0.03922  -0.01602  -0.5496  0.2838
6.538e+09  0.1324  -0.7676  -0.01072  -0.01251  0.02655  0.01304  -0.4384  0.467
6.539e+09  -0.1145  -0.7616  -0.01994  0.004212  0.007127  -0.03098  -0.3061  0.604
6.54e+09  -0.3949  -0.6214  -0.02409  0.005356  0.02281  0.01799  -0.04414  0.6683
6.541e+09  -0.6118  -0.4393  -0.003017  0.0272  -0.01923  -0.0099  0.1894  0.6735
6.542e+09  -0.7284  -0.1733  -0.004992  0.01606  0.07074  -0.027  0.4241  0.5426
6.544e+09  -0.7818  0.05686  0.0145  0.02207  0.02632  -0.05824  0.5508  0.4127
6.545e+09  -0.7356  0.3408  0.004794  -0.009663  -0.009547  -0.008763  0.7151  0.1809
6.546e+09  -0.5623  0.5876  -0.01996  0.008297  0.03924  0.06639  0.7539  -0.06007
6.548e+09  -0.3211  0.7052  -0.005126  -0.01  0.01417  -0.03491  0.6749  -0.336
6.549e+09  -0.01036  0.7773  -0.003183  -0.01229  0.01932  -0.03253  0.4941  -0.5427
6.55e+09  0.2606  0.7274  -0.002844  0.0119  -0.03134  0.03233  0.2872  -0.6775
