# Hz S RI R 50
6.25e+09  0.8143  0.2747  -0.00579  -0.01221  -0.08297  -0.0008092  0.1994  0.4903
6.251e+09  0.8103  0.05055  -0.02111  0.01732  0.008759  -0.01963  0.3886  0.3764
6.252e+09  0.7803  -0.2886  0.002276  0.03295  0.008095  0.02921  0.5558  0.2492
6.254e+09  0.643  -0.587  0.009971  -0.01848  0.003307  0.01156  0.6065  0.01069
6.255e+09  0.3883  -0.7036  -0.01076  0.01777  0.01643  0.02058  0.5905  -0.2403
6.256e+09  0.1188  -0.8241  -0.01558  0.02289  0.005784  -0.01362  0.4546  -0.4459
6.258e+09  -0.1978  -0.8562  0.01669  0.03502  0.02037  0.001846  0.2816  -0.5747
6.259e+09  -0.4779  -0.6807  -0.027  -0.04648  -0.02719  0.04053  0.05658  -0.7188
6.26e+09  -0.7013  -0.5149  -0.007172  -0.02863  0.01233  0.002315  -0.224  -0.679
6.261e+09  -0.7844  -0.2262  -0.006056  0.00519  0.05184  0.02559  -0.4543  -0.5328
6.262e+09  -0.8675  0.09248  0.008263  0.003565  0.01983  -0.01632  -0.6352  -0.3469
6.264e+09  -0.671  0.4134  0.008877  -0.006401  -0.01913  -0.05168  -0.6872  -0.07212
6.265e+09  -0.5606  0.5652  -0.02899  -0.01308  -0.03478  -0.01673  -0.7279  0.1465
6.266e+09  -0.2835  0.8136  -0.02941  0.001639  0.05849  -0.03525  -0.6152  0.4228
6.268e+09  0.0008922  0.8428  -0.03298  -0.01468  -0.02404  -0.01987  -0.4392  0.5908
6.269e+09  0.2863  0.7459  -0.01287  0.005383  -0.05282  -0.02099  -0.2257  0.7099
6.27e+09  0.5575  0.6045  0.02943  0.001104  -0.01563  -0.003299  0.06458  0.73
6.271e+09  0.7217  0.3447  0.01296  -0.001551  0.007158  0.008726  0.3039  0.6476
6.272e+09  0.7742  0.1543  -0.02193  -0.00554  0.009539  -0.04596  0.551  0.5456
6.274e+09  0.7942  -0.1888  0.009171  -0.01524  -0.02373  0.0305  0.6836  0.2842
6.275e+09  0.6623  -0.4262  0.003351  0.001216  0.007579  0.01538  0.7717  0.03209
6.276e+09  0.4731  -0.631  -0.01398  -0.002114  0.06528  -0.004966  0.7372  -0.2406
6.278e+09  0.2394  -0.8302  0.005955  -0.01094  0.01684  0.009467  0.6225  -0.4742
6.279e+09  -0.08893  -0.7825  0.02604  -0.0187  -0.04947  -0.05779  0.4059  -0.6699
6.28e+09  -0.3875  -0.7385  -0.004329  -0.01314  0.000335  -0.007333  0.1696  -0.7804
6.281e+09  -0.6148  -0.6115  -0.02076  0.0278  -0.01492  -0.01001  -0.1093  -0.7788
6.282e+09  -0.7743  -0.3231  0.009999  0.01459  -0.05573  -0.07149  -0.3521  -0.6852
6.284e+09  -0.7933  -0.0101  0.003072  0.004453  -0.0002601  0.003779  -0.5947  -0.5062
6.285e+09  -0.7666  0.2727  0.01495  -0.01714  -0.005006  0.07029  -0.7497  -0.278
6.286e+09  -0.5907  0.4741  0.01301  -0.02526  -0.004767  -0.002628  -0.802  -0.02013
6.288e+09  -0.3928  0.6924  -0.00839  0.01321  0.05019  -0.01792  -0.7444  0.2699
6.289e+09  -0.1278  0.7676  -0.007721  0.01165  -0.01758  0.0114  -0.6356  0.4977
6.29e+09  0.1989  0.823  -0.03264  -0.02013  -0.02859  -0.05891  -0.3812  0.6902
6.291e+09  0.4455  0.6362  0.007666  0.007691  -0.02205  0.02119  -0.1376  0.7907
6.292e+09  0.6989  0.459  0.0001301  9.676e-05  -0.008507  0.02711  0.1175  0.8156
6.294e+09  0.7862  0.2377  0.01643  -0.02083  -0.03016  -0.01328  0.3854  0.732
6.295e+09  0.824  -0.03826  -0.01853  0.001667  -0.002826  -0.05493  0.6211  0.5692
6.296e+09  0.7597  -0.3427  0.002155  0.02849  -0.02186  -0.04368  0.7698  0.2618
6.298e+09  0.5626  -0.5596  -0.004711  -0.0314  0.004779  -0.05916  0.7838  0.04984
6.299e+09  0.3121  -0.76  0.006669  0.02024  -0.0257  -0.00144  0.7842  -0.2535
6.3e+09  0.03895  -0.8146  -0.04163  0.008919  0.01618  0.004197  0.6408  -0.514
6.301e+09  -0.3073  -0.7344  -0.006395  -0.002972  -0.02497  -0.005505  0.4493  -0.7146
6.302e+09  -0.5394  -0.6264  0.05034  -0.002706  0.02064  0.004175  0.1332  -0.8206
6.304e+09  -0.7476  -0.4285  0.001611  0.0217  0.02859  -0.0001148  -0.1428  -0.8333
6.305e+09  -0.8288  -0.1175  -0.006938  0.002148  -0.01239  -0.01378  -0.4442  -0.7418
6.306e+09  -0.8307  0.1838  0.0006477  0.005741  -0.01197  -0.01384  -0.6573  -0.5373
6.308e+09  -0.6675  0.4842  -0.02821  0.0161  -0.02514  -0.002721  -0.7898  -0.3022
6.309e+09  -0.4755  0.6667  -0.004042  -0.00658  -0.002342  -0.004945  -0.8676  0.0006506
6.31e+09  -0.1905  0.7821  -0.01726  -0.01267  0.02631  -0.05263  -0.8163  0.2753
6.311e+09  0.0617  0.827  0.0133  0.03393  0.03996  0.01329  -0.6486  0.5447
6.312e+09  0.3896  0.7507  0.001633  -0.02632  0.02533  -0.01827  -0.4093  0.7729
6.314e+09  0.5712  0.6058  -0.006076  0.03764  -0.007242  -0.009143  -0.1378  0.8749
6.315e+09  0.7661  0.3241  0.008591  0.01301  -0.03492  0.003924  0.1661  0.8385
6.316e+09  0.8108  0.008382  0.003002  -0.01094  -0.01808  -0.07114  0.4225  0.7634
6.318e+09  0.8482  -0.2967  0.0173  0.00553  -0.03658  -0.007036  0.652  0.5833
6.319e+09  0.6241  -0.5827  0.00937  0.01026  0.009109  -0.01509  0.8541  0.3143
6.32e+09  0.4215  -0.6923  0.009109  -0.009952  0.02971  0.01683  0.8666  0.01646
6.321e+09  0.1043  -0.83  -5.286e-05  0.02448  -0.01156  0.03969  0.8452  -0.3118
6.322e+09  -0.1721  -0.8202  0.004086  0.002259  0.06766  0.04252  0.6411  -0.53
6.324e+09  -0.5129  -0.7048  0.00918  -0.006475  0.02639  0.01457  0.4416  -0.7739
6.325e+09  -0.6388  -0.4955  0.01319  -0.02835  -0.008966  -0.02449  0.1437  -0.9017
6.326e+09  -0.8551  -0.1671  0.01158  0.01717  -0.008268  0.001888  -0.1451  -0.8785
6.328e+09  -0.8327  0.1239  -0.01395  -0.001395  -0.01319  -0.005475  -0.4263  -0.8038
6.329e+09  -0.7103  0.3793  0.003664  -0.0005326  -0.0217  -0.009139  -0.7019  -0.5977
6.33e+09  -0.5557  0.6254  -0.005933  0.02251  0.01531  0.05047  -0.8344  -0.3235
6.331e+09  -0.3314  0.7879  -0.01498  -0.02461  -0.009103  -0.01474  -0.9339  -0.03238
6.332e+09  -0.01679  0.8032  0.02484  0.01552  0.004755  0.02159  -0.8774  0.3185
6.334e+09  0.2866  0.8156  0.01163  0.01452  -0.008118  -0.05034  -0.7177  0.5829
6.335e+09  0.56  0.6038  -0.02859  0.01995  -0.01957  -0.03467  -0.4779  0.806
6.336e+09  0.7415  0.4098  0.027  0.00871  -0.02329  0.03613  -0.2024  0.9396
6.338e+09  0.8548  0.0925  -0.01973  -0.009428  0.05697  -0.04497  0.1011  0.9116
6.339e+09  0.8245  -0.1767  0.009739  0.02223  0.01129  0.05184  0.4231  0.8285
6.34e+09  0.6665  -0.4959  -0.02736  -0.03239  0.02389  0.008993  0.6946  0.6252
6.341e+09  0.5046  -0.7097  0.01891  -0.003894  -0.02153  -0.007337  0.8719  0.3408
6.342e+09  0.2476  -0.8373  0.007735  0.03256  -0.007177  0.02788  0.9597  0.0923
6.344e+09  -0.07572  -0.8658  -0.0187  0.008909  -0.05168  -0.007711  0.8851  -0.2544
6.345e+09  -0.3827  -0.7666  -0.01826  0.03259  0.01117  -0.04073  0.7671  -0.5676
6.346e+09  -0.6646  -0.5484  -0.004214  0.002897  0.003145  0.03392  0.4644  -0.8094
6.348e+09  -0.8025  -0.3418  -0.01087  0.01894  -0.02753  0.03077  0.2092  -0.9193
6.349e+09  -0.8688  -0.02157  0.01571  -0.01325  0.00703  -0.01046  -0.1259  -0.9653
6.35e+09  -0.8263  0.2868  0.002319  0.00842  -0.0002614  -0.0101  -0.4019  -0.8489
6.351e+09  -0.6802  0.5526  -0.01473  -0.0185  -0.006891  -0.004396  -0.6586  -0.7014
6.352e+09  -0.398  0.7568  -0.02336  -0.01314  -0.001625  -0.03302  -0.8854  -0.3945
6.354e+09  -0.115  0.8723  -0.009303  0.03718  0.009477  -0.01107  -0.9259  -0.06876
6.355e+09  0.1783  0.8256  0.005073  0.007912  0.04739  -0.007937  -0.8706  0.3013
6.356e+09  0.527  0.6955  0.004136  -0.0299  -0.03956  -0.01149  -0.7598  0.5866
6.358e+09  0.6263  0.5361  -0.001293  -0.005759  0.03868  0.008949  -0.5125  0.7555
6.359e+09  0.7801  0.1699  -0.001893  -0.01236  0.02055  0.01033  -0.215  0.9034
6.36e+09  0.8886  -0.08454  -0.01113  0.03969  0.006079  0.01379  0.1124  0.94
6.361e+09  0.771  -0.3654  0.004358  -0.05305  0.02301  0.03701  0.3787  0.8442
6.362e+09  0.5455  -0.635  -0.02449  -0.002927  -0.02632  -0.00134  0.649  0.6526
6.364e+09  0.2854  -0.7835  0.02188  0.01448  -0.02546  0.01441  0.8478  0.4041
6.365e+09  0.04154  -0.8378  0.04436  -0.01964  -0.008575  0.03082  0.9742  0.09381
6.366e+09  -0.2793  -0.8185  -0.01315  0.0115  -0.009244  0.02185  0.9227  -0.2389
6.368e+09  -0.5784  -0.6553  0.01092  0.02567  0.02834  -0.02601  0.7719  -0.5379
6.369e+09  -0.7199  -0.4063  0.02045  -0.002933  -0.01898  -0.04149  0.5642  -0.7888
6.37e+09  -0.809  -0.09179  0.008627  -0.009818  -0.02543  0.01349  0.254  -0.929
6.371e+09  -0.7922  0.2239  -0.006495  0.05672  -0.00458  0.0427  -0.06273  -0.9454
6.372e+09  -0.6714  0.4742  0.01421  -0.02741  0.01768  -0.02245  -0.3914  -0.8979
6.374e+09  -0.505  0.7182  0.04839  -0.01016  0.0281  -0.01862  -0.7092  -0.6471
6.375e+09  -0.1511  0.8171  0.02064  -0.01883  0.001908  -0.0141  -0.8987  -0.3895
6.376e+09  0.08042  0.8216  -0.01389  0.06689  0.05122  0.01346  -0.9474  -0.1035
6.378e+09  0.447  0.7421  0.008438  -0.002871  -0.01134  0.0124  -0.9028  0.2361
6.379e+09  0.6809  0.4962  0.02819  -0.01445  -0.01099  0.03183  -0.752  0.535
6.38e+09  0.8155  0.2817  0.02374  -0.02193  0.001133  -0.0353  -0.5226  0.8127
6.381e+09  0.8396  0.001506  -0.01093  0.01928  -0.04711  0.02415  -0.2715  0.874
6.382e+09  0.7937  -0.3428  -0.00174  -0.009048  0.06032  0.04326  0.03793  0.9503
6.384e+09  0.6219  -0.6177  -0.02241  0.05379  -0.005183  -0.009453  0.4016  0.8527
6.385e+09  0.3854  -0.7568  0.009347  -0.02331  0.01722  -0.005659  0.626  0.7201
6.386e+09  0.06507  -0.8627  0.0235  -0.01834  0.01879  -0.01007  0.8631  0.3837
6.388e+09  -0.2658  -0.8474  -0.0159  -0.01527  -0.003981  0.03949  0.9466  0.1344
6.389e+09  -0.4994  -0.6432  -0.01337  -0.004723  -0.003802  -0.0001411  0.9617  -0.1984
6.39e+09  -0.7297  -0.4161  -0.03634  0.02821  -0.01861  0.01996  0.7928  -0.4759
6.391e+09  -0.8464  -0.1848  0.02132  -0.01236  0.0002844  -0.002097  0.5371  -0.7283
6.392e+09  -0.8066  0.1856  0.00296  -0.006928  -0.02072  -0.01385  0.2799  -0.8826
6.394e+09  -0.7295  0.4175  -0.02091  -0.006025  0.005763  -0.009594  -0.05987  -0.8832
6.395e+09  -0.5201  0.6755  -0.01407  -0.02467  -0.03436  0.02986  -0.3588  -0.8101
6.396e+09  -0.2708  0.8108  0.01927  -0.008276  -0.0214  -0.01942  -0.5884  -0.6695
6.398e+09  0.04191  0.8218  -0.01041  -0.01102  0.007432  0.01273  -0.8022  -0.4702
6.399e+09  0.2784  0.8344  0.04199  0.007905  0.03255  -0.002042  -0.9037  -0.1383
6.4e+09  0.625  0.6107  0.01036  0.03246  0.01824  -0.01912  -0.9192  0.1832
6.401e+09  0.8411  0.3602  -0.005143  0.01805  0.00809  -0.01625  -0.7869  0.496
6.402e+09  0.8733  0.04414  0.03553  0.03403  -0.005892  0.02685  -0.5962  0.7709
6.404e+09  0.7837  -0.2486  -0.02012  -0.03297  0.01493  0.002508  -0.3427  0.8641
6.405e+09  0.6903  -0.5256  0.05076  0.01192  -0.02037  -0.02772  -0.007967  0.8863
6.406e+09  0.4231  -0.7568  0.009648  -0.01877  -0.008412  0.04424  0.3077  0.8998
6.408e+09  0.1377  -0.8737  -0.04802  -0.02426  0.0002378  0.0259  0.5735  0.7733
6.409e+09  -0.1832  -0.8432  -0.02947  0.0697  -0.01182  -0.01298  0.7685  0.47
6.41e+09  -0.4414  -0.6662  -0.006413  0.0142  -0.03057  0.02887  0.8666  0.1916
6.411e+09  -0.6855  -0.4334  -0.01503  -0.01153  -0.0248  0.002317  0.8534  -0.1152
6.412e+09  -0.8446  -0.1404  0.0005541  0.01022  -0.009686  0.04425  0.8201  -0.4168
6.414e+09  -0.8211  0.1365  -0.03587  0.01732  0.02888  0.01066  0.5949  -0.6668
6.415e+09  -0.7322  0.4249  0.08934  0.02941  -0.04256  -0.01239  0.3405  -0.8435
6.416e+09  -0.5707  0.6486  -0.01469  0.03518  0.03668  0.01981  0.02885  -0.8996
6.418e+09  -0.2682  0.81  0.002722  0.02043  -0.01142  -0.002327  -0.3119  -0.8541
6.419e+09  0.1153  0.8217  0.01668  -0.01299  0.005034  0.02605  -0.5189  -0.7236
6.42e+09  0.4258  0.7749  0.007213  0.02189  -0.01041  -0.04558  -0.7306  -0.4657
6.421e+09  0.6669  0.5986  0.02003  -0.0004945  -0.02446  0.04683  -0.9019  -0.1982
6.422e+09  0.7804  0.2631  -0.008476  -0.02415  -0.004129  -0.01995  -0.8786  0.09878
6.424e+09  0.8265  -0.04312  0.03541  0.007051  -0.01902  -0.04004  -0.7048  0.4347
6.425e+09  0.7667  -0.3395  0.00639  0.01232  0.005955  -0.0453  -0.6026  0.6559
6.426e+09  0.6269  -0.6097  -0.0311  0.01608  -0.009322  -0.004293  -0.3695  0.8013
6.428e+09  0.3177  -0.847  -0.04893  -0.00617  -0.07025  0.006218  -0.006584  0.9068
6.429e+09  0.03428  -0.8835  -0.009693  0.01756  0.03526  -0.03595  0.2453  0.7932
6.43e+09  -0.2934  -0.8453  0.02033  0.007731  -0.01995  -0.02173  0.5595  0.6819
6.431e+09  -0.5722  -0.6178  -0.0272  -0.006348  -0.01113  0.003514  0.722  0.4941
6.432e+09  -0.8015  -0.4208  0.01885  -0.002921  -0.03654  -0.01581  0.887  0.2735
6.434e+09  -0.8367  -0.1266  0.04259  -0.02799  0.01954  -0.04605  0.8732  -0.09358
6.435e+09  -0.8565  0.2309  -0.01778  -0.009928  -0.01058  0.04176  0.7582  -0.3508
6.436e+09  -0.6498  0.5716  0.02403  -0.01319  0.02914  0.01454  0.6136  -0.5696
6.438e+09  -0.483  0.7118  -0.01118  -0.04692  -0.05184  -0.03043  0.3294  -0.7959
6.439e+09  -0.1081  0.8145  0.02147  -0.01062  0.008186  -0.03829  0.06138  -0.8101
6.44e+09  0.159  0.8562  -0.008725  0.01849  -0.01487  0.02879  -0.1844  -0.8244
6.441e+09  0.4671  0.708  -0.00584  0.02891  0.005598  -0.00526  -0.4868  -0.6754
6.442e+09  0.7198  0.5414  0.0308  -0.06124  -0.01343  0.002493  -0.7174  -0.4804
6.444e+09  0.8229  0.2125  0.03637  0.04541  -0.008207  0.02755  -0.8316  -0.2059
6.445e+09  0.854  -0.1336  0.01114  0.000983  0.006873  -0.002977  -0.8044  0.05996
6.446e+09  0.7445  -0.4137  0.03047  -0.006605  0.02679  -0.06066  -0.7893  0.3555
6.448e+09  0.5426  -0.6077  0.04126  -0.03155  0.005861  -0.0411  -0.6167  0.6152
6.449e+09  0.2759  -0.8044  -0.01666  0.02215  0.008913  -0.001894  -0.3231  0.7339
6.45e+09  -0.04101  -0.8576  0.01258  -0.01057  0.008017  -0.07422  -0.1024  0.846
6.451e+09  -0.3641  -0.7251  -0.009832  -0.001675  0.02345  -0.006485  0.2292  0.7984
6.452e+09  -0.5765  -0.5608  -0.02547  0.02144  0.008238  0.01762  0.4939  0.6708
6.454e+09  -0.7664  -0.3174  -0.02821  0.01488  0.038  -0.02801  0.6645  0.4838
6.455e+09  -0.7957  -0.04089  -0.03622  -0.003911  -0.008477  0.005515  0.7817  0.2169
6.456e+09  -0.7694  0.2436  -0.03627  0.019  -0.004369  0.01342  0.864  -0.07821
6.458e+09  -0.648  0.5139  -0.000311  0.03184  0.009629  -0.01712  0.7751  -0.3341
6.459e+09  -0.3809  0.6929  -0.003045  0.0009701  -0.05348  -0.001118  0.5519  -0.6077
6.46e+09  -0.1288  0.7925  -0.004775  0.01308  -0.009212  0.008518  0.2868  -0.7191
6.461e+09  0.2179  0.7597  0.03145  0.007498  -0.03059  0.05461  0.0786  -0.8108
6.462e+09  0.5009  0.6708  0.002438  0.03457  0.004412  0.009663  -0.2347  -0.7817
6.464e+09  0.695  0.4034  -0.02094  0.02468  -0.0131  -0.01006  -0.4404  -0.6544
6.465e+09  0.7953  0.178  0.0318  0.01192  -0.09795  -0.009137  -0.6572  -0.4399
6.466e+09  0.7779  -0.1344  0.0145  -0.01072  0.01314  -0.001291  -0.8114  -0.1717
6.468e+09  0.7144  -0.4044  0.01066  -0.006177  -0.003776  0.05518  -0.8304  0.02919
6.469e+09  0.5136  -0.6399  0.01612  -0.01476  -0.03706  0.01801  -0.795  0.3738
6.47e+09  0.245  -0.7835  0.0117  -0.02163  -0.002051  -0.01628  -0.543  0.5394
6.471e+09  -0.04897  -0.7809  -0.0003569  0.002095  0.006032  -0.0111  -0.3543  0.7081
6.472e+09  -0.3338  -0.682  0.02929  0.02099  -0.0148  -0.02544  -0.04034  0.7943
6.474e+09  -0.58  -0.607  0.02003  -0.016  -0.03792  -0.02716  0.2119  0.7901
6.475e+09  -0.715  -0.3298  -0.01848  -0.001687  -0.02689  -0.02063  0.4594  0.6186
6.476e+09  -0.8308  -0.08653  -0.02019  0.02475  0.04046  0.0211  0.6602  0.3748
6.478e+09  -0.7789  0.2721  -0.009141  0.01996  0.04093  -0.02643  0.745  0.2301
6.479e+09  -0.634  0.532  -0.008481  0.0008373  0.01028  0.05837  0.7656  -0.008453
6.48e+09  -0.3906  0.6768  0.02444  -0.0323  0.06142  -0.02229  0.7072  -0.3314
6.481e+09  -0.08031  0.8207  -0.01633  0.0006834  0.01945  -0.02093  0.5546  -0.5765
6.482e+09  0.1765  0.7495  0.01189  -0.03551  -0.004849  -0.009131  0.327  -0.7399
6.484e+09  0.4208  0.6402  0.01646  -0.004415  0.01217  -0.03465  0.05508  -0.7088
6.485e+09  0.6059  0.4247  -0.005822  0.0279  -0.005984  -0.01629  -0.2138  -0.7474
6.486e+09  0.7701  0.2438  -0.04794  -0.002461  0.04072  -0.01948  -0.4506  -0.6716
6.488e+09  0.7685  -0.08245  0.01925  -0.003701  0.0007588  0.03649  -0.6847  -0.4341
6.489e+09  0.7189  -0.3387  -0.005  0.03619  0.02349  0.02004  -0.7201  -0.2068
6.49e+09  0.5087  -0.5486  -0.02215  -0.03186  -0.03627  0.01227  -0.7677  0.09509
6.491e+09  0.2957  -0.697  0.02929  0.03604  0.0004975  0.04811  -0.6983  0.3667
6.492e+09  0.04079  -0.8038  -0.008896  -0.02539  0.05118  0.002071  -0.5165  0.5549
6.494e+09  -0.3094  -0.7698  0.03013  -0.03319  -0.04446  0.02552  -0.2785  0.7018
6.495e+09  -0.4945  -0.6263  -0.009621  -0.004253  -0.01751  -0.01084  -0.03096  0.8074
6.496e+09  -0.6679  -0.3484  -0.0253  -0.02923  -0.03212  -0.01059  0.2556  0.7294
6.498e+09  -0.7887  -0.1402  0.01753  0.02658  0.03678  -0.03473  0.4884  0.6343
6.499e+09  -0.7258  0.1436  0.01021  -0.008262  0.01013  0.007605  0.6544  0.399
6.5e+09  -0.7131  0.3536  -0.01334  -0.04024  0.009622  -0.01045  0.7478  0.1887
6.501e+09  -0.5036  0.5938  0.01894  0.02769  0.0004536  0.02369  0.772  -0.1068
6.502e+09  -0.1796  0.7398  0.009255  -0.007888  0.0438  0.006273  0.6785  -0.3451
6.504e+09  0.05714  0.7559  -0.004329  -0.01752  0.001694  0.02487  0.4866  -0.6057
6.505e+09  0.3476  0.7022  0.001597  0.0107  0.0147  -0.001421  0.2927  -0.7085
6.506e+09  0.5289  0.5191  0.01293  0.007303  -0.02431  0.04886  0.04601  -0.7599
6.508e+09  0.6925  0.3305  -0.01281  0.02099  -0.03574  0.0004721  -0.2389  -0.7417
6.509e+09  0.7668  0.05297  0.02541  0.0449  0.01598  0.03477  -0.4956  -0.5899
6.51e+09  0.7865  -0.2125  0.003344  -0.0466  0.001602  -0.00622  -0.6958  -0.3658
6.511e+09  0.5985  -0.4835  -0.00356  -0.01101  0.03389  0.004276  -0.7407  -0.1369
6.512e+09  0.4278  -0.6438  -0.03244  -0.01576  0.01821  -0.02875  -0.7549  0.1117
6.514e+09  0.1637  -0.7787  0.01226  -0.01774  -0.02092  0.03401  -0.6031  0.371
6.515e+09  -0.09223  -0.8172  0.02652  -0.0182  -0.02763  -0.01237  -0.4803  0.5803
6.516e+09  -0.3689  -0.7211  -0.001195  -0.04274  -0.01055  0.01488  -0.2498  0.7081
6.518e+09  -0.5875  -0.4776  -0.0005104  -0.01701  -0.05454  0.01988  0.01432  0.7225
6.519e+09  -0.7584  -0.2278  -0.01669  0.04139  -0.004157  -0.03107  0.2981  0.7248
6.52e+09  -0.8176  0.02759  -0.006629  0.02073  -0.00595  -0.01503  0.5049  0.5353
6.521e+09  -0.7247  0.3234  0.004691  -0.01313  -0.03535  -0.02109  0.6496  0.3398
6.522e+09  -0.5539  0.5357  -0.02826  -0.0006432  -0.01388  0.03699  0.7143  0.06008
6.524e+09  -0.363  0.6914  -0.02498  -0.01057  0.008232  -0.003918  0.7099  -0.1683
6.525e+09  -0.09307  0.7646  -0.002402  -0.01021  -0.00706  -0.0006253  0.5828  -0.3896
6.526e+09  0.2011  0.7893  0.01689  0.007914  -0.01774  -0.003903  0.4296  -0.5931
6.528e+09  0.4832  0.5928  -0.007142  0.02266  0.009147  -0.01687  0.2087  -0.6787
6.529e+09  0.6513  0.4819  -0.004103  0.001747  0.05252  -0.01213  -0.06073  -0.7032
6.53e+09  0.825  0.178  0.008222  -0.01451  0.01179  0.001733  -0.2708  -0.6196
6.531e+09  0.7696  -0.1221  0.006201  0.009195  0.004828  -0.01498  -0.4977  -0.4505
6.532e+09  0.7135  -0.4271  0.03712  0.03565  0.025  0.003862  -0.5754  -0.3106
6.534e+09  0.5573  -0.5548  -0.0009017  -0.01669  0.02533  0.02107  -0.6339  -0.09287
6.535e+09  0.271  -0.8069  -0.006066  -0.016  -0.008195  -0.03879  -0.6327  0.1103
6.536e+09  0.01544  -0.8479  0.02189  0.01104  -0.01932  -0.04679  -0.5851  0.3096
6.538e+09  -0.3056  -0.7666  0.009884  0.005825  0.02085  0.04572  -0.4722  0.4644
6.539e+09  -0.5323  -0.6632  -0.01167  0.0006807  0.03227  0.03228  -0.2814  0.577
6.54e+09  -0.7554  -0.4076  -0.01975  -0.005414  -0.05614  -0.01522  -0.05311  0.6747
6.541e+09  -0.804  -0.1336  0.005891  -0.01353  -0.03125  0.009  0.1708  0.6604
6.542e+09  -0.8669  0.1529  -0.01898  0.03605  0.001913  -0.03179  0.4125  0.5774
6.544e+09  -0.7257  0.4709  -0.02069  -0.006334  -0.01041  0.02627  0.6151  0.4128
6.545e+09  -0.4997  0.7119  0.02177  0.009195  -0.04259  0.02304  0.6826  0.1807
6.546e+09  -0.2604  0.8224  0.02677  0.002764  0.002499  0.006333  0.7388  -0.08643
6.548e+09  0.1122  0.8304  0.009259  0.03085  -0.06842  0.02864  0.6368  -0.3598
6.549e+09  0.3865  0.7724  0.002519  0.01606  0.04007  0.01668  0.4652  -0.5478
