# Hz S RI R 50
6.25e+09  0.5885  0.6797  0.008944  -0.01099  -0.008623  -0.02642  0.1896  0.4686
6.251e+09  0.7478  0.5082  0.008301  -0.01033  -0.008106  0.05893  0.4027  0.4073
6.252e+09  0.8202  0.117  0.009295  -0.01513  -0.01487  -0.01206  0.5176  0.2092
6.254e+09  0.8397  -0.192  -0.01587  0.0117  0.01201  -0.01569  0.5858  0.01616
6.255e+09  0.7437  -0.4112  -0.01863  -0.006483  0.002907  0.0006505  0.5719  -0.2148
6.256e+09  0.5082  -0.5988  -0.01369  0.005916  0.002184  0.001376  0.5075  -0.4441
6.258e+09  0.2858  -0.8301  0.0145  0.00656  0.02778  -0.01658  0.2883  -0.6105
6.259e+09  0.02912  -0.826  0.008997  -0.004554  0.02485  0.009161  0.02926  -0.664
6.26e+09  -0.3234  -0.8688  -0.009423  -0.01228  -0.03926  -0.02769  -0.2219  -0.6685
6.261e+09  -0.5348  -0.6602  -0.01934  0.00727  0.03999  0.04435  -0.4522  -0.5744
6.262e+09  -0.7641  -0.3503  -0.001202  0.01066  -0.02752  -0.00782  -0.5837  -0.3577
6.264e+09  -0.8271  -0.124  0.01697  0.007918  0.04955  0.06811  -0.7189  -0.1198
6.265e+09  -0.8417  0.1783  -0.01076  0.008894  0.007625  0.01526  -0.6957  0.1576
6.266e+09  -0.6836  0.4461  0.01654  -0.01074  0.02492  0.01295  -0.6025  0.393
6.268e+09  -0.4873  0.6448  -0.004888  -0.01265  0.02471  0.03836  -0.4661  0.5856
6.269e+09  -0.256  0.8063  0.002903  -0.001354  -0.01938  -0.009605  -0.22  0.7401
6.27e+09  0.1674  0.8469  -0.02559  -0.006534  0.01364  -0.06463  0.04414  0.7465
6.271e+09  0.3831  0.731  0.005008  0.02042  -0.01434  0.04988  0.3208  0.6758
6.272e+09  0.6026  0.5839  0.02983  -0.02405  0.01604  0.01625  0.5249  0.5411
6.274e+09  0.7286  0.2768  -0.003541  0.008152  0.03391  0.04756  0.6797  0.314
6.275e+09  0.8617  0.05261  0.003745  0.02472  0.02034  0.01528  0.731  0.03198
6.276e+09  0.7755  -0.2724  0.002859  -0.01443  0.04585  0.006234  0.7087  -0.2194
6.278e+09  0.6289  -0.5486  -0.01309  -0.007288  0.02595  0.03615  0.603  -0.4616
6.279e+09  0.3938  -0.7867  0.001471  0.006626  0.00959  0.01011  0.4069  -0.6465
6.28e+09  0.1176  -0.805  0.01659  0.012  -0.01422  0.0165  0.1145  -0.7681
6.281e+09  -0.2107  -0.8437  -0.008115  0.02391  -0.03445  -0.003836  -0.139  -0.7807
6.282e+09  -0.446  -0.7387  -0.006579  -0.0001698  -0.03015  -0.03484  -0.3638  -0.7077
6.284e+09  -0.663  -0.4676  0.02796  0.02407  0.03693  -0.03854  -0.5808  -0.54
6.285e+09  -0.7625  -0.2826  0.02421  0.001979  0.009664  0.01494  -0.7747  -0.2928
6.286e+09  -0.8721  0.02991  0.02121  0.01885  -0.009873  -0.07329  -0.8078  -0.01467
6.288e+09  -0.7512  0.3636  -0.00675  0.02139  -0.01816  -0.007086  -0.7572  0.2629
6.289e+09  -0.5975  0.5357  0.006181  0.003236  -0.01229  0.02014  -0.6254  0.5303
6.29e+09  -0.3027  0.7394  0.00463  0.0172  0.02357  -0.005896  -0.4085  0.7213
6.291e+09  -0.06687  0.8423  -0.003044  0.01155  -0.03014  -0.03174  -0.1384  0.8247
6.292e+09  0.2161  0.7654  -0.009632  0.007007  -0.02288  0.03578  0.1753  0.7777
6.294e+09  0.5372  0.6993  0.002534  0.01901  0.009197  0.02025  0.3956  0.7079
6.295e+09  0.7283  0.422  -0.03102  0.03254  0.00271  -0.01551  0.6087  0.5327
6.296e+09  0.8509  0.1914  0.01383  0.01119  -0.004989  -0.01719  0.7807  0.2561
6.298e+09  0.8712  -0.1514  -0.01945  -0.005118  -0.0378  -0.04062  0.8386  0.005739
6.299e+09  0.6593  -0.3857  -0.02045  -0.006717  0.01119  -0.00324  0.7619  -0.2609
6.3e+09  0.5226  -0.6112  -0.02916  0.009836  -0.05432  0.03738  0.6317  -0.5411
6.301e+09  0.284  -0.8177  0.005635  -0.0003414  0.01346  -0.02015  0.4375  -0.7236
6.302e+09  -0.07853  -0.8471  -0.02175  0.0003275  -0.01564  -0.0001759  0.139  -0.8441
6.304e+09  -0.3267  -0.7885  0.03467  0.01691  0.02292  -0.04088  -0.1191  -0.8471
6.305e+09  -0.5956  -0.6042  0.03217  0.007977  0.003806  -0.02518  -0.4367  -0.7294
6.306e+09  -0.7668  -0.385  -0.01526  -0.002803  -0.04912  0.05167  -0.674  -0.5062
6.308e+09  -0.7854  -0.07774  0.003068  0.01098  -0.01001  -0.002231  -0.7978  -0.3115
6.309e+09  -0.8277  0.2522  0.01489  0.01846  -0.01772  0.03559  -0.8689  -0.03804
6.31e+09  -0.6769  0.4866  -0.01272  0.02701  0.0105  0.02717  -0.8355  0.2539
6.311e+09  -0.4471  0.6652  -0.01366  -0.001515  -0.02868  -0.04965  -0.6716  0.54
6.312e+09  -0.1588  0.8343  -0.01346  -0.0131  -0.03771  0.03675  -0.457  0.7257
6.314e+09  0.08774  0.831  0.004723  0.01708  0.0119  -0.01081  -0.1784  0.8883
6.315e+09  0.3901  0.7232  -0.01932  -0.01463  -0.0173  -0.03136  0.1599  0.8516
6.316e+09  0.6487  0.582  0.02086  0.01237  0.0306  -0.0008323  0.4519  0.7794
6.318e+09  0.7837  0.3136  -0.02144  0.008939  -0.0331  0.005094  0.6569  0.5552
6.319e+09  0.7937  0.001198  -0.001871  0.005857  -0.01681  -0.02935  0.8193  0.3255
6.32e+09  0.8404  -0.2736  -0.01442  0.0029  -0.0105  -0.009459  0.88  -0.0249
6.321e+09  0.6855  -0.5668  0.006584  -0.008242  0.01833  0.02824  0.8679  -0.2541
6.322e+09  0.4166  -0.7358  0.02115  0.008535  0.03957  0.007591  0.6992  -0.5481
6.324e+09  0.1009  -0.8373  -0.005841  -0.005272  -0.01877  -0.02401  0.4768  -0.7796
6.325e+09  -0.213  -0.8759  -0.008654  -0.008075  -0.04735  -0.0146  0.1576  -0.8863
6.326e+09  -0.4968  -0.6888  0.04861  0.01307  0.01996  0.01303  -0.1553  -0.8796
6.328e+09  -0.6721  -0.4717  -0.02807  -0.005258  0.02782  -0.02849  -0.4046  -0.7977
6.329e+09  -0.7976  -0.2473  0.001156  -0.0284  -0.02042  -0.05568  -0.7072  -0.5876
6.33e+09  -0.847  0.09042  0.01229  -0.02105  -0.02511  0.04062  -0.8255  -0.3095
6.331e+09  -0.777  0.3786  -0.01492  -0.0159  -0.02278  -0.008747  -0.9161  -0.03114
6.332e+09  -0.597  0.5878  -0.002296  0.01759  0.01711  -0.01469  -0.8606  0.2997
6.334e+09  -0.345  0.7848  0.01118  -0.005827  0.007709  -0.002108  -0.7312  0.5275
6.335e+09  0.008391  0.9374  -0.02855  -0.02892  -0.0249  0.02075  -0.4625  0.7906
6.336e+09  0.2504  0.8337  0.007227  -0.003397  0.03391  0.0005536  -0.1631  0.9025
6.338e+09  0.5268  0.6902  -0.007435  -0.004442  -0.0113  0.01918  0.09056  0.9113
6.339e+09  0.7707  0.4478  0.00128  0.0005263  -0.037  -0.006696  0.3906  0.8205
6.34e+09  0.8468  0.1249  -0.03226  0.01334  0.01882  0.07203  0.6619  0.6332
6.341e+09  0.8779  -0.178  0.003376  0.0145  -0.01178  -0.02108  0.8796  0.3634
6.342e+09  0.7378  -0.433  -0.008701  0.01969  -0.022  0.04564  0.9536  0.06342
6.344e+09  0.5162  -0.7291  -0.02928  -0.001486  -0.04862  0.04902  0.8773  -0.257
6.345e+09  0.2369  -0.8309  0.007308  0.004254  0.007437  0.0382  0.7399  -0.5404
6.346e+09  -0.03732  -0.8659  -0.01236  0.001053  -0.02202  0.01516  0.4926  -0.7498
6.348e+09  -0.4118  -0.7214  0.02233  -0.01114  0.0262  0.001656  0.1726  -0.9175
6.349e+09  -0.6188  -0.5746  -0.02203  0.008741  -0.004363  -0.002307  -0.1187  -0.9469
6.35e+09  -0.7852  -0.3746  0.002423  -0.01909  -0.04459  0.03263  -0.4304  -0.8538
6.351e+09  -0.8718  -0.04302  -0.02465  0.01132  -0.009358  0.04107  -0.7028  -0.6315
6.352e+09  -0.777  0.2248  0.00327  -0.00482  0.04683  0.01708  -0.8637  -0.3764
6.354e+09  -0.6694  0.537  -0.0004726  -0.05145  -0.01152  -0.002916  -0.9282  -0.04772
6.355e+09  -0.4575  0.7678  0.004247  0.0279  0.007337  0.03315  -0.8971  0.2549
6.356e+09  -0.1865  0.8552  -0.01602  0.004355  -0.006633  -0.02011  -0.7653  0.5523
6.358e+09  0.1338  0.8278  -0.009832  -0.0431  0.02107  -0.001199  -0.5389  0.785
6.359e+09  0.3979  0.7912  0.02618  0.009962  -0.03516  0.01273  -0.2257  0.932
6.36e+09  0.675  0.574  0.03307  0.003403  0.01491  0.0309  0.0487  0.9639
6.361e+09  0.8097  0.3095  -0.01726  0.00566  -0.04977  0.009746  0.4341  0.846
6.362e+09  0.8638  0.02678  -0.03265  -0.01645  0.01244  -0.02771  0.6713  0.6593
6.364e+09  0.8242  -0.3017  0.01964  -0.0278  -0.04314  -0.03424  0.8954  0.3696
6.365e+09  0.6368  -0.5751  -0.02992  -0.02368  0.004282  -0.01382  0.9508  0.1037
6.366e+09  0.4109  -0.7792  -0.02049  -0.01394  -0.01369  0.03305  0.9213  -0.2386
6.368e+09  0.1087  -0.845  -0.01402  0.01756  -0.0348  0.05419  0.7773  -0.5488
6.369e+09  -0.2482  -0.8695  0.02673  0.0175  0.002479  -0.01911  0.5459  -0.7643
6.37e+09  -0.5135  -0.6549  0.03091  0.01346  0.02001  -0.002331  0.2603  -0.9384
6.371e+09  -0.6626  -0.5097  0.01548  -0.04368  -0.002707  0.04282  -0.1021  -0.9218
6.372e+09  -0.819  -0.1952  0.009166  -0.002362  -0.01161  0.03505  -0.4248  -0.8672
6.374e+09  -0.8701  0.06257  0.02873  0.0217  0.01853  0.02291  -0.6792  -0.6828
6.375e+09  -0.7722  0.3505  -0.02359  0.002445  0.06841  -0.008379  -0.813  -0.4401
6.376e+09  -0.5839  0.6395  0.009387  0.005336  0.02968  0.002334  -0.9267  -0.1172
6.378e+09  -0.3006  0.8224  -0.02625  0.003753  0.04744  -0.0004793  -0.9103  0.217
6.379e+09  -0.04164  0.8861  0.01278  0.0283  -0.03317  0.006367  -0.7828  0.5326
6.38e+09  0.2963  0.8153  -0.005069  -0.02433  0.01458  -0.04742  -0.5522  0.7608
6.381e+09  0.5179  0.6377  -0.01123  -0.008229  0.03244  0.01029  -0.2606  0.9273
6.382e+09  0.746  0.4434  0.009231  -0.01494  -0.005209  -0.0126  0.08792  0.9081
6.384e+09  0.8731  0.1236  -0.01356  0.03965  -0.0006626  0.02161  0.3457  0.8366
6.385e+09  0.869  -0.2248  0.001127  -0.006962  0.0258  0.02878  0.6076  0.6934
6.386e+09  0.7477  -0.4801  0.03452  -0.01428  -0.02143  -0.0278  0.8746  0.4117
6.388e+09  0.5299  -0.6761  0.02517  -0.00529  0.01568  -0.04266  0.9601  0.1664
6.389e+09  0.2667  -0.8367  0.003957  0.01586  -0.001247  0.07637  0.9053  -0.1915
6.39e+09  -0.02312  -0.8765  0.04824  -0.03937  -0.02533  -0.0165  0.751  -0.4994
6.391e+09  -0.4205  -0.7826  -0.01215  -0.003421  0.03415  -0.02027  0.5592  -0.7351
6.392e+09  -0.6571  -0.5905  -0.003082  0.005984  -0.01704  0.0313  0.2792  -0.8525
6.394e+09  -0.7749  -0.3072  0.03219  0.0449  0.04032  -0.002967  -0.0251  -0.9316
6.395e+09  -0.8518  -0.07119  -0.03384  0.004918  -0.01744  -0.006458  -0.326  -0.8233
6.396e+09  -0.8402  0.2176  -0.005239  0.01922  -0.02296  -0.02486  -0.6217  -0.7014
6.398e+09  -0.6803  0.5285  -0.008984  0.0337  -0.02162  0.02759  -0.7803  -0.4529
6.399e+09  -0.4068  0.7154  0.04672  0.003083  0.02737  0.05752  -0.8904  -0.1355
6.4e+09  -0.1984  0.847  0.01113  -0.006088  0.0444  -0.04098  -0.8875  0.1744
6.401e+09  0.1742  0.8137  0.01072  -0.01565  0.02822  0.01953  -0.7979  0.4788
6.402e+09  0.4666  0.7819  0.01172  -0.02379  -0.001238  0.002714  -0.6121  0.7288
6.404e+09  0.7129  0.542  0.01702  -0.02843  0.01686  -0.02116  -0.3186  0.8443
6.405e+09  0.8597  0.243  0.01905  -0.01246  -0.0255  0.017  -0.02325  0.9093
6.406e+09  0.8346  -0.04686  0.005852  0.005281  -0.00981  0.008936  0.319  0.8402
6.408e+09  0.8116  -0.3302  -0.02399  -0.01615  0.03335  0.04693  0.5888  0.7308
6.409e+09  0.6444  -0.5966  0.01567  -0.008944  -0.01678  0.01843  0.8314  0.4907
6.41e+09  0.397  -0.7764  -0.0123  -0.01802  0.002208  -0.01068  0.8676  0.1515
6.411e+09  0.02622  -0.8704  -0.06591  -0.0213  0.01386  0.007944  0.8574  -0.1342
6.412e+09  -0.2675  -0.8515  0.02596  -0.0335  -0.04323  -0.01658  0.8104  -0.409
6.414e+09  -0.5295  -0.7257  -0.03525  -0.01574  -0.00242  -0.01503  0.5993  -0.7004
6.415e+09  -0.7289  -0.5057  0.02659  -0.0417  0.002578  -0.001898  0.2769  -0.8719
6.416e+09  -0.8423  -0.1824  -0.02541  0.02222  -0.007489  -0.002005  0.0006074  -0.8994
6.418e+09  -0.8412  0.1902  0.007906  -0.03147  -0.01612  0.01756  -0.2905  -0.8602
6.419e+09  -0.7329  0.4793  0.03793  0.01112  0.01861  -0.002803  -0.5225  -0.6881
6.42e+09  -0.5509  0.6855  0.02387  0.01859  0.0276  -0.03551  -0.7341  -0.4723
6.421e+09  -0.2681  0.8134  0.00432  0.05371  0.01928  -0.01615  -0.8968  -0.2212
6.422e+09  0.06517  0.8773  0.01886  0.02857  -0.06156  -0.01006  -0.9104  0.07512
6.424e+09  0.3922  0.8145  -0.007831  0.01284  0.02964  0.01929  -0.8155  0.4265
6.425e+09  0.6586  0.5491  0.02848  -0.02577  0.02086  -0.01852  -0.6129  0.6722
6.426e+09  0.8072  0.3178  0.04695  -0.0225  -0.01329  -0.002964  -0.3541  0.7892
6.428e+09  0.8958  0.01851  0.02344  0.00631  -0.009631  0.03156  -0.03344  0.9072
6.429e+09  0.8104  -0.3316  0.02299  0.00584  0.04977  0.01368  0.2992  0.8851
6.43e+09  0.7022  -0.5844  -0.005155  0.04776  0.05403  0.04499  0.5471  0.7091
6.431e+09  0.4213  -0.7851  -0.002644  -0.01574  0.003031  0.01329  0.7384  0.4928
6.432e+09  0.1092  -0.901  -0.01501  -0.04  -0.03472  -0.03547  0.8054  0.2411
6.434e+09  -0.2262  -0.8621  -0.02265  -0.001161  -0.0318  -0.01276  0.8506  -0.05477
6.435e+09  -0.5621  -0.7351  0.02705  0.02831  -0.006289  0.02778  0.7954  -0.3936
6.436e+09  -0.7574  -0.4717  0.001078  0.02918  0.001117  0.03819  0.5754  -0.6489
6.438e+09  -0.8814  -0.1904  -0.007006  0.01623  -0.04931  -0.009584  0.3542  -0.7714
6.439e+09  -0.8842  0.1815  0.01786  -0.003293  -0.02194  0.02674  0.06529  -0.8441
6.44e+09  -0.7627  0.4676  -0.02003  0.03437  0.01743  0.003209  -0.2504  -0.807
6.441e+09  -0.5218  0.7082  0.002329  0.004175  -0.001634  0.01135  -0.4573  -0.6995
6.442e+09  -0.2421  0.8496  -0.0169  0.0174  -0.01729  0.001251  -0.7123  -0.4829
6.444e+09  0.0823  0.8994  -0.01492  -0.006145  -0.02585  0.000766  -0.816  -0.2279
6.445e+09  0.4381  0.7901  0.04091  0.002405  0.001692  0.06506  -0.8749  0.08557
6.446e+09  0.6616  0.5638  0.01015  0.02577  0.008626  -0.0143  -0.8152  0.3297
6.448e+09  0.8462  0.2637  0.01125  0.003744  -0.01524  0.03826  -0.5774  0.5673
6.449e+09  0.8822  -0.0378  -0.004785  0.04945  0.02175  -0.006764  -0.3916  0.7726
6.45e+09  0.755  -0.3362  -0.01985  0.01914  -0.004537  -0.001852  -0.08364  0.8786
6.451e+09  0.603  -0.5931  -0.01804  0.01126  0.01788  0.0569  0.2723  0.8146
6.452e+09  0.3371  -0.7755  -0.01076  0.0389  0.08049  0.02308  0.4758  0.6735
6.454e+09  0.06898  -0.8912  0.009949  0.02645  0.01351  0.005127  0.6569  0.5165
6.455e+09  -0.2855  -0.8158  -0.003974  -0.00416  -0.008929  -0.01664  0.8256  0.1699
6.456e+09  -0.5386  -0.722  -0.01652  -0.01859  0.02202  0.01945  0.8215  -0.07456
6.458e+09  -0.7937  -0.4442  0.02324  -0.01208  -0.03524  0.009932  0.758  -0.3232
6.459e+09  -0.8775  -0.143  -0.01351  0.05198  0.02439  0.02486  0.5508  -0.5995
6.46e+09  -0.7992  0.2205  -0.02023  -0.01631  -0.01708  -0.01415  0.3507  -0.7693
6.461e+09  -0.7163  0.5256  -0.0001655  -0.01137  -0.02636  -0.0104  0.0601  -0.85
6.462e+09  -0.4939  0.7089  -0.01526  0.03456  -0.025  0.00999  -0.2165  -0.7857
6.464e+09  -0.1531  0.8507  -0.00193  0.01383  0.005661  0.02958  -0.5214  -0.6969
6.465e+09  0.1444  0.8546  -0.008738  0.0231  -0.001186  0.006144  -0.6377  -0.4702
6.466e+09  0.4707  0.7714  0.04241  0.005672  -0.04112  0.04579  -0.8055  -0.1853
6.468e+09  0.6939  0.5068  -0.0411  0.0251  0.009332  0.00372  -0.7992  0.08774
6.469e+09  0.8713  0.2279  -0.0003458  -0.0126  -0.033  -0.006024  -0.7139  0.3554
6.47e+09  0.8901  -0.1245  0.01583  -0.03284  -0.004598  -0.006185  -0.567  0.571
6.471e+09  0.7681  -0.4269  -0.004714  -0.00708  0.03644  0.005439  -0.3718  0.7585
6.472e+09  0.5871  -0.5967  -0.004852  0.02352  0.01327  0.01518  -0.06798  0.7726
6.474e+09  0.3101  -0.7839  0.01604  0.0045  -0.05082  0.04718  0.2002  0.7394
6.475e+09  -0.07111  -0.8455  -0.00109  -0.02417  -0.05683  -0.0249  0.438  0.6562
6.476e+09  -0.3161  -0.7934  0.02345  0.008175  0.01183  0.002237  0.6651  0.4429
6.478e+09  -0.5223  -0.5969  -0.01892  0.00514  -0.03749  -0.02784  0.7401  0.2115
6.479e+09  -0.7426  -0.3216  -0.03329  -0.001093  0.05509  -0.02941  0.7928  -0.07262
6.48e+09  -0.8608  -0.03472  0.01889  -0.002989  0.02193  -0.01319  0.6906  -0.3382
6.481e+09  -0.734  0.2841  0.02837  -0.003385  0.0127  -0.09244  0.5235  -0.576
6.482e+09  -0.6054  0.5102  0.01163  -0.07122  0.02588  0.05768  0.291  -0.7174
6.484e+09  -0.3666  0.735  -0.01018  -0.02122  0.06363  0.04516  0.01824  -0.7749
6.485e+09  -0.06913  0.7842  0.003494  0.01201  -0.01379  -0.02811  -0.1963  -0.7602
6.486e+09  0.2213  0.7612  -0.04846  -0.001805  -0.02223  0.001511  -0.4622  -0.6095
6.488e+09  0.4725  0.6395  0.01046  0.01505  -0.007794  -0.03509  -0.6566  -0.4257
6.489e+09  0.6602  0.4143  0.0449  -0.01062  -0.003386  0.02506  -0.7394  -0.166
6.49e+09  0.7574  0.1445  0.00308  0.02334  -0.01436  0.01616  -0.7693  0.116
6.491e+09  0.7887  -0.1725  0.008409  0.01124  5.292e-05  0.02842  -0.6902  0.371
6.492e+09  0.655  -0.4041  0.01023  -0.01809  -0.04582  0.02888  -0.5558  0.5726
6.494e+09  0.4731  -0.6276  0.01891  0.006235  0.001783  0.02657  -0.3034  0.7101
6.495e+09  0.1953  -0.764  0.0377  -0.02459  -0.02076  -0.005777  -0.05665  0.7778
6.496e+09  -0.08572  -0.753  -0.009321  0.02318  0.008374  0.02233  0.2692  0.707
6.498e+09  -0.33  -0.7398  -0.004097  0.004729  -0.03456  -0.01081  0.4501  0.5531
6.499e+09  -0.5743  -0.4934  -0.01539  0.03274  -0.01167  -0.02571  0.6381  0.4031
6.5e+09  -0.7376  -0.229  0.03116  -0.02691  -0.03573  -0.0009999  0.7444  0.2086
6.501e+09  -0.7889  0.02488  0.006786  -0.001411  0.02472  -0.01357  0.7471  -0.09959
6.502e+09  -0.6294  0.2671  -0.01983  0.005462  -0.02253  -0.01186  0.6772  -0.386
6.504e+09  -0.5695  0.5006  0.04629  0.007143  0.04706  0.00276  0.5019  -0.5485
6.505e+09  -0.2943  0.6895  0.04085  -0.03321  -0.01902  -0.008281  0.2882  -0.7121
6.506e+09  -0.08326  0.6978  -0.01149  -0.00426  0.03982  0.005793  -0.01205  -0.7648
6.508e+09  0.2223  0.749  0.01232  0.003126  -0.03975  0.01739  -0.2482  -0.7114
6.509e+09  0.4129  0.5876  0.02573  -0.004058  0.01153  0.004297  -0.4533  -0.5926
6.51e+09  0.6461  0.4045  -0.01493  0.01739  -0.02605  -0.03687  -0.6738  -0.3794
6.511e+09  0.699  0.1604  -0.01589  0.02287  -0.03314  -0.0574  -0.7372  -0.1348
6.512e+09  0.7526  -0.1557  0.05221  0.008568  -0.04317  0.02624  -0.7488  0.1334
6.514e+09  0.5932  -0.3376  0.0003565  -0.008962  0.01024  0.0003779  -0.6456  0.4215
6.515e+09  0.4841  -0.5728  0.004652  0.003562  0.01198  0.02144  -0.4643  0.5555
6.516e+09  0.1935  -0.6951  -0.000507  -0.008594  0.01347  0.03506  -0.2597  0.7111
6.518e+09  -0.04933  -0.7332  0.005937  -0.008951  -0.03171  0.04843  0.02202  0.7532
6.519e+09  -0.3095  -0.6995  0.007929  -0.01315  0.004559  -0.03667  0.3253  0.6809
6.52e+09  -0.5288  -0.5178  -0.003508  0.007127  0.05813  0.0449  0.4727  0.5436
6.521e+09  -0.6338  -0.3157  -0.01009  0.02953  0.03216  -0.02759  0.6717  0.3146
6.522e+09  -0.7031  0.00376  -0.02391  -0.0135  -0.01455  -0.02677  0.7092  0.05453
6.524e+09  -0.6789  0.1878  -0.007783  0.006208  -0.006707  -0.03575  0.6903  -0.1792
6.525e+09  -0.5362  0.4842  0.004179  0.02895  0.01581  -0.04354  0.597  -0.3775
6.526e+09  -0.3612  0.6827  -0.001596  -0.01644  -0.009662  -0.0001965  0.4647  -0.5848
6.528e+09  -0.1155  0.7576  -0.01225  -0.01096  0.02546  0.01974  0.1975  -0.6906
6.529e+09  0.1304  0.7423  0.01529  -0.006747  -0.04118  -0.01085  -0.06568  -0.6911
6.53e+09  0.4348  0.6552  -0.005593  0.02236  0.03672  0.002662  -0.2891  -0.6168
6.531e+09  0.6057  0.4722  -0.002725  -0.007062  -0.03786  -0.01165  -0.4478  -0.446
6.532e+09  0.7531  0.2064  0.000368  0.02484  0.01553  -0.0123  -0.584  -0.2929
6.534e+09  0.7395  -0.08255  6.253e-05  -0.01615  0.02613  0.02196  -0.6355  -0.08886
6.535e+09  0.6541  -0.3728  -0.04834  -0.01416  0.02773  -0.03854  -0.6114  0.1477
6.536e+09  0.5226  -0.5441  0.02992  0.01609  0.0003984  -0.01323  -0.5822  0.3261
6.538e+09  0.2589  -0.7013  0.01844  0.01214  -0.02108  0.009167  -0.4399  0.4628
6.539e+09  0.08369  -0.7121  -0.03657  -0.0009697  0.03213  0.007478  -0.2928  0.6212
6.54e+09  -0.2588  -0.7121  0.001142  0.005365  0.07157  0.03593  -0.05198  0.6799
6.541e+09  -0.5399  -0.5436  0.003511  0.006476  -0.01575  0.02789  0.1685  0.7024
6.542e+09  -0.6571  -0.3608  0.01904  -0.0005411  -0.01973  0.02645  0.43  0.5777
6.544e+09  -0.755  -0.1305  -0.01933  -0.03835  0.01521  -0.03279  0.617  0.3847
6.545e+09  -0.7207  0.2048  -0.008055  0.007305  -0.01333  0.01423  0.6927  0.1701
6.546e+09  -0.6271  0.4517  0.003923  -0.001006  -0.01233  -0.03848  0.7444  -0.07091
6.548e+09  -0.4353  0.6457  -0.00223  0.006791  -0.03665  -0.03652  0.6614  -0.3173
6.549e+09  -0.1744  0.7933  0.007281  0.0139  0.0916  -0.002742  0.5244  -0.5355
6.55e+09  0.1213  0.762  -0.02599  0.01407  -0.0578  -0.02976  0.2943  -0.6722
6.551e+09  0.385  0.6951  -0.01696  0.02472  0.017  -0.003423  0.01666  -0.7078
