# Hz S RI R 50
6.25e+09  -0.3544  0.8283  -0.006518  0.006894  -0.006515  0.09184  0.1482  0.5102
6.251e+09  -0.06919  0.8402  -0.01405  -0.01459  -0.03392  -0.0365  0.362  0.4033
6.252e+09  0.2677  0.8459  -0.0115  0.006882  0.0277  -0.01236  0.5461  0.2538
6.254e+09  0.4848  0.7175  -0.03086  0.01586  -0.007047  0.04589  0.6138  0.01109
6.255e+09  0.7143  0.4592  -0.00633  0.0005791  0.01704  0.002826  0.5872  -0.2205
6.256e+09  0.855  0.2076  0.0008855  -0.008648  -0.03719  -0.02928  0.4801  -0.4433
6.258e+09  0.7832  -0.07946  -0.004222  -0.02865  -0.04096  -0.002734  0.2733  -0.6419
6.259e+09  0.7507  -0.3622  0.02319  -0.001894  -0.05811  0.009546  0.02812  -0.6661
6.26e+09  0.6084  -0.5788  0.009344  0.03384  -0.007093  0.003343  -0.1476  -0.6542
6.261e+09  0.3383  -0.7447  0.01874  0.02282  0.01806  0.05288  -0.4936  -0.5308
6.262e+09  0.06201  -0.8312  -0.04375  0.005692  -0.008984  -0.04728  -0.642  -0.3653
6.264e+09  -0.263  -0.7856  0.005275  -0.009771  0.04069  0.01401  -0.7237  -0.1135
6.265e+09  -0.5127  -0.6823  -0.01566  -0.0243  -0.02242  -0.02064  -0.6849  0.1616
6.266e+09  -0.727  -0.4808  0.009204  -0.01362  -0.02693  -0.02836  -0.6298  0.4047
6.268e+09  -0.8473  -0.1668  0.004728  -0.004818  -0.04395  0.05297  -0.4318  0.5861
6.269e+09  -0.8183  0.08303  -0.05643  -0.0163  0.002304  0.02604  -0.194  0.7051
6.27e+09  -0.7165  0.4007  -0.003468  -0.02086  0.02388  -0.00744  0.0877  0.7417
6.271e+09  -0.5474  0.59  -0.0002962  -0.001479  -0.007696  0.006705  0.3437  0.6517
6.272e+09  -0.3183  0.7411  -0.01396  0.03493  -0.04138  -0.07612  0.5431  0.5403
6.274e+09  -0.04798  0.8521  0.02296  -0.01429  -0.01549  -0.02608  0.6978  0.3118
6.275e+09  0.3055  0.8223  -0.00135  -0.001832  -0.05208  0.002016  0.7669  0.02489
6.276e+09  0.4704  0.6527  0.005665  -0.004586  0.03219  -0.03031  0.7093  -0.2163
6.278e+09  0.7138  0.4594  -0.01175  0.009826  0.02068  0.05494  0.6117  -0.4794
6.279e+09  0.7882  0.1831  0.01372  -0.008586  -0.008838  0.05389  0.3724  -0.663
6.28e+09  0.8795  -0.1557  0.002368  -0.008979  -0.003059  -0.004184  0.2009  -0.7343
6.281e+09  0.7004  -0.448  -0.02961  0.003615  0.02994  0.06174  -0.1123  -0.7655
6.282e+09  0.5549  -0.6383  -0.02484  0.0102  0.06075  -0.009271  -0.3794  -0.7062
6.284e+09  0.2598  -0.7816  0.01718  -0.01159  -0.03076  -0.005255  -0.6065  -0.5405
6.285e+09  -0.01802  -0.8501  -0.003056  0.0233  0.01899  -0.05049  -0.7286  -0.3215
6.286e+09  -0.2741  -0.8062  -0.03112  -0.002382  0.03527  0.01675  -0.8197  -0.01291
6.288e+09  -0.5734  -0.6601  -0.01715  0.01671  0.009189  -0.05406  -0.7595  0.2723
6.289e+09  -0.7068  -0.4055  0.02074  -0.009256  0.02389  -0.008138  -0.6136  0.5284
6.29e+09  -0.8246  -0.1593  -0.03194  0.007288  -0.02691  -0.007035  -0.3972  0.7066
6.291e+09  -0.8267  0.1597  0.01072  -0.009475  0.0171  -0.03954  -0.1459  0.812
6.292e+09  -0.721  0.4126  0.02131  -0.01083  -0.03764  0.00389  0.1109  0.7843
6.294e+09  -0.5121  0.6709  -0.02606  -0.009322  -0.01666  0.05903  0.4152  0.7321
6.295e+09  -0.2774  0.7823  0.008336  -0.01509  -0.0008533  -0.002105  0.6119  0.5659
6.296e+09  0.01368  0.7984  -0.01658  0.00883  0.001769  -0.00299  0.7698  0.3184
6.298e+09  0.3411  0.7894  0.009468  -0.03322  -0.0115  0.006714  0.7906  0.01662
6.299e+09  0.578  0.6305  0.0008953  -0.007225  -0.02486  -0.01687  0.7938  -0.2878
6.3e+09  0.7501  0.3917  0.01495  0.01789  0.02097  -0.01328  0.6482  -0.5538
6.301e+09  0.8415  0.1324  0.04259  0.004937  -0.02855  0.001721  0.4102  -0.7143
6.302e+09  0.8274  -0.2357  -0.0003244  -0.02857  0.009758  -0.02618  0.1466  -0.8071
6.304e+09  0.6815  -0.4362  -0.006189  -0.0007811  0.01062  0.05503  -0.1351  -0.8324
6.305e+09  0.5224  -0.714  0.009839  0.001756  -0.05903  0.002447  -0.4279  -0.7528
6.306e+09  0.2175  -0.8318  0.01297  -0.006482  -0.003994  -0.0622  -0.6481  -0.5468
6.308e+09  -0.04086  -0.8407  0.02806  0.03722  0.02641  0.003587  -0.8291  -0.2621
6.309e+09  -0.2948  -0.7781  -0.01649  0.002087  0.02455  -0.007531  -0.8869  -0.03423
6.31e+09  -0.614  -0.5985  -0.02948  -0.0301  -0.02077  0.02746  -0.8186  0.2855
6.311e+09  -0.7606  -0.3484  -0.02713  0.006962  0.007008  0.04311  -0.675  0.5533
6.312e+09  -0.8406  -0.04628  0.03883  0.02092  0.05478  0.03509  -0.4536  0.7242
6.314e+09  -0.806  0.2045  -0.009214  0.02062  0.001814  -0.00269  -0.1864  0.855
6.315e+09  -0.7463  0.4977  -0.006058  -0.01975  -0.00696  0.02871  0.1665  0.8821
6.316e+09  -0.4901  0.7081  0.006277  0.01526  -0.01273  0.008627  0.421  0.7409
6.318e+09  -0.2521  0.8114  0.01978  0.01716  -0.02611  0.01529  0.7104  0.5857
6.319e+09  0.1241  0.8772  0.006236  -0.01762  -0.005357  -0.04336  0.8107  0.3023
6.32e+09  0.3908  0.7613  -0.0163  -0.02765  0.01073  0.03279  0.8445  0.0004803
6.321e+09  0.6818  0.5557  -0.01272  -4.165e-05  0.005084  0.01448  0.8498  -0.2887
6.322e+09  0.8116  0.3382  0.02328  -0.01183  -0.007891  -0.04848  0.6859  -0.5347
6.324e+09  0.9224  0.04322  -0.02842  0.02583  0.004909  -0.001447  0.4439  -0.7986
6.325e+09  0.7743  -0.285  0.02995  0.03423  0.05489  0.03301  0.1675  -0.8766
6.326e+09  0.6119  -0.5319  -0.03064  0.01176  -0.02785  0.0228  -0.13  -0.9007
6.328e+09  0.4371  -0.7718  -0.02552  0.0142  -0.05418  0.01348  -0.426  -0.803
6.329e+09  0.1631  -0.8618  -0.02251  0.01213  -0.03355  0.02719  -0.6957  -0.6099
6.33e+09  -0.1568  -0.8674  0.003927  0.02935  -0.05741  0.03276  -0.8484  -0.3088
6.331e+09  -0.4312  -0.7215  0.006437  0.05684  0.007476  -0.04531  -0.9471  -0.04824
6.332e+09  -0.6934  -0.5436  0.02385  -0.001206  -0.004443  0.03366  -0.8809  0.2737
6.334e+09  -0.8189  -0.3276  -0.01859  0.01394  -0.01353  0.01799  -0.7305  0.6017
6.335e+09  -0.8849  0.02951  -0.004076  0.009114  -0.004074  0.03707  -0.5073  0.755
6.336e+09  -0.7775  0.3362  -0.02193  -0.008953  0.02112  -0.01264  -0.1998  0.8635
6.338e+09  -0.6726  0.5875  0.01912  0.03041  -0.06102  -0.02482  0.1136  0.88
6.339e+09  -0.4275  0.758  -0.03011  -0.04045  -0.009556  0.02632  0.4447  0.8418
6.34e+09  -0.1156  0.9225  0.01517  0.00785  0.03546  -0.01163  0.6919  0.625
6.341e+09  0.2016  0.8535  -0.00178  0.004042  -8.361e-05  0.02574  0.8987  0.3701
6.342e+09  0.5042  0.7381  -0.003048  0.01181  -0.01683  -0.01483  0.9222  -0.004813
6.344e+09  0.6678  0.5551  -0.0393  0.01802  0.02522  0.003797  0.9061  -0.2909
6.345e+09  0.8126  0.2451  0.001584  0.007378  -0.02277  -0.006411  0.7624  -0.563
6.346e+09  0.8676  -0.09717  0.005606  0.01281  -0.03126  0.001836  0.5514  -0.7672
6.348e+09  0.7957  -0.3573  0.003917  -0.03583  -0.002416  -0.0122  0.1937  -0.8994
6.349e+09  0.5675  -0.6016  0.009878  -0.02315  -0.001737  -0.003285  -0.09468  -0.9202
6.35e+09  0.3648  -0.8334  0.009758  0.004388  0.004113  0.02977  -0.4347  -0.8408
6.351e+09  0.01922  -0.8626  0.003347  -0.03644  0.02358  0.01465  -0.7263  -0.6257
6.352e+09  -0.265  -0.8367  -0.0218  0.02952  -0.03137  -0.0252  -0.898  -0.3686
6.354e+09  -0.5266  -0.6979  -0.02362  -0.02096  -0.01497  -0.02155  -0.9177  -0.05365
6.355e+09  -0.7527  -0.5232  -0.01354  0.02206  0.009378  0.04906  -0.8898  0.2444
6.356e+09  -0.8492  -0.1664  -0.0189  -0.002243  0.02902  -0.01476  -0.7805  0.5296
6.358e+09  -0.8909  0.1377  -5.733e-06  0.003499  -0.02067  0.004862  -0.532  0.7969
6.359e+09  -0.7804  0.4056  0.02936  -0.01566  0.007542  -0.01022  -0.259  0.9428
6.36e+09  -0.5905  0.6847  -0.005119  0.03105  -0.007703  0.0169  0.07132  0.9409
6.361e+09  -0.316  0.8469  0.07352  -0.01538  0.01323  0.006984  0.4092  0.8427
6.362e+09  -0.008201  0.9036  -0.02988  -0.02533  -0.006351  -0.03262  0.6837  0.6958
6.364e+09  0.3075  0.8368  0.03292  -0.02376  0.0101  0.002801  0.8774  0.437
6.365e+09  0.569  0.6587  -0.004074  0.01572  0.006207  -0.03612  0.946  0.07434
6.366e+09  0.7807  0.4012  0.0185  0.003232  0.02159  0.00102  0.9312  -0.2192
6.368e+09  0.8764  0.1611  0.01724  -0.03123  0.03583  -0.01378  0.7854  -0.5706
6.369e+09  0.8988  -0.1929  -0.007892  -0.03025  0.02211  -0.01745  0.5762  -0.7689
6.37e+09  0.765  -0.4953  -0.002064  0.07155  -0.0113  -0.03899  0.2853  -0.8866
6.371e+09  0.53  -0.7527  0.007807  0.004262  0.01654  0.02455  -0.08602  -0.972
6.372e+09  0.2713  -0.8582  0.01459  0.02473  -0.01358  -0.007955  -0.3833  -0.8626
6.374e+09  -0.0625  -0.898  -0.02994  0.01474  -0.01667  0.01775  -0.699  -0.6122
6.375e+09  -0.3778  -0.8471  0.0374  0.0251  0.02039  -0.0001069  -0.865  -0.4029
6.376e+09  -0.5903  -0.6351  0.005493  -0.01529  -0.03847  0.02008  -0.9237  -0.07976
6.378e+09  -0.7973  -0.3852  -0.02701  -0.000592  0.007322  0.003984  -0.9117  0.2258
6.379e+09  -0.9212  -0.0562  -0.009531  -0.02493  0.002382  0.04666  -0.7849  0.5246
6.38e+09  -0.882  0.1702  0.01665  -0.009284  0.008013  0.003544  -0.5495  0.7807
6.381e+09  -0.719  0.504  0.02374  0.03379  -0.03968  0.008391  -0.259  0.9321
6.382e+09  -0.5194  0.7561  -0.01181  -0.02685  0.02604  0.04672  0.07561  0.9611
6.384e+09  -0.2095  0.8834  0.02856  -0.03839  -0.01279  0.03515  0.3414  0.8855
6.385e+09  0.08687  0.8817  0.01382  0.01243  -0.00663  0.005962  0.6329  0.6865
6.386e+09  0.4116  0.7928  0.07121  -0.02644  -0.0004597  -0.05412  0.804  0.4391
6.388e+09  0.6508  0.6267  -0.01577  0.0491  -0.01343  -0.02288  0.9459  0.1307
6.389e+09  0.8367  0.393  0.007147  -0.01932  -0.003653  -0.006167  0.869  -0.2182
6.39e+09  0.8795  0.06225  0.01698  -0.02366  -0.04558  -0.01383  0.7872  -0.5484
6.391e+09  0.855  -0.2638  0.01952  -0.005493  0.02323  -0.05901  0.5779  -0.7325
6.392e+09  0.7438  -0.5211  0.01872  0.01486  -0.01809  -0.02181  0.2914  -0.9014
6.394e+09  0.4658  -0.7722  -0.01608  -0.02102  -0.008239  0.007095  0.004084  -0.9265
6.395e+09  0.2014  -0.8589  -0.0007404  -0.03422  -0.03558  -0.005052  -0.3433  -0.9011
6.396e+09  -0.1269  -0.8914  -0.01325  -0.00047  -0.03641  -0.02434  -0.6049  -0.6936
6.398e+09  -0.402  -0.8369  0.02173  0.004179  -0.03019  -0.03329  -0.7818  -0.3957
6.399e+09  -0.6054  -0.5846  0.01678  -0.004531  -0.008382  0.003612  -0.9273  -0.1403
6.4e+09  -0.8407  -0.3252  -0.02605  0.02378  0.01215  -0.05889  -0.9065  0.1548
6.401e+09  -0.8935  -0.1309  0.008149  0.01593  -0.06449  0.02567  -0.8228  0.4959
6.402e+09  -0.8267  0.2802  -0.04958  0.06009  0.004638  -0.03304  -0.5898  0.6875
6.404e+09  -0.7174  0.5984  -0.02497  -0.008529  0.01842  0.01694  -0.2606  0.8441
6.405e+09  -0.4698  0.7619  -0.002019  -0.01275  -0.01363  -0.02606  -0.01072  0.9571
6.406e+09  -0.1453  0.8607  0.02825  -0.02425  0.05331  0.04976  0.3187  0.9324
6.408e+09  0.1862  0.8582  -0.02581  0.008625  0.01695  -0.02752  0.5808  0.703
6.409e+09  0.4762  0.7457  0.01154  -0.004166  0.003022  -0.04403  0.8062  0.4938
6.41e+09  0.6503  0.6124  -0.04074  0.02204  -0.006552  0.02993  0.867  0.1913
6.411e+09  0.85  0.3643  -0.0151  0.0199  0.005442  0.01087  0.8939  -0.1214
6.412e+09  0.8488  0.0302  -0.01136  -0.0127  0.05288  -0.009876  0.766  -0.4018
6.414e+09  0.8577  -0.3041  -0.01869  -0.01224  -0.02264  0.001375  0.5858  -0.6741
6.415e+09  0.7067  -0.5984  0.03326  0.01927  0.01576  0.01836  0.318  -0.8543
6.416e+09  0.4635  -0.7855  0.03491  0.02272  0.005697  -0.01599  0.04637  -0.8955
6.418e+09  0.153  -0.8864  0.01914  -0.01149  0.03079  -0.04318  -0.2486  -0.9025
6.419e+09  -0.1214  -0.8756  -0.01523  0.01496  0.03086  0.02364  -0.509  -0.6958
6.42e+09  -0.4545  -0.7746  -0.03219  -0.02188  0.02955  -0.03187  -0.777  -0.4727
6.421e+09  -0.6621  -0.5731  0.02505  0.02983  0.06946  0.05022  -0.8817  -0.1883
6.422e+09  -0.8039  -0.2498  -0.04156  -0.02464  -0.004345  -0.01916  -0.8676  0.1196
6.424e+09  -0.861  0.07156  -0.02753  -0.008244  -0.01109  -0.007202  -0.7854  0.426
6.425e+09  -0.8463  0.2812  -0.00982  0.009561  -0.04282  -0.06672  -0.6173  0.6117
6.426e+09  -0.6794  0.5874  0.01652  -0.03419  -0.00824  -0.01764  -0.3216  0.7949
6.428e+09  -0.4366  0.8035  -0.04437  0.005983  -0.02469  0.02083  -0.06438  0.8753
6.429e+09  -0.1333  0.8522  -0.01949  0.02255  0.03012  -0.02038  0.2687  0.8665
6.43e+09  0.1913  0.8763  -0.008929  0.02899  -0.006133  -0.02704  0.5094  0.7068
6.431e+09  0.4663  0.7614  0.03797  0.01077  -0.02541  -0.06674  0.7308  0.4777
6.432e+09  0.6981  0.5461  0.0425  0.004746  0.04745  -0.05491  0.8103  0.2056
6.434e+09  0.8712  0.2796  0.02789  -0.01663  0.006461  0.02306  0.8376  -0.07647
6.435e+09  0.854  -0.04272  0.007604  0.01014  -0.03107  0.008016  0.7517  -0.4132
6.436e+09  0.8488  -0.3358  -0.01061  0.01393  -0.01188  0.01757  0.603  -0.5857
6.438e+09  0.6793  -0.6122  0.002002  0.0252  0.01222  0.03463  0.3886  -0.8205
6.439e+09  0.4349  -0.8472  0.04201  0.03836  -0.009376  0.01258  0.03626  -0.8051
6.44e+09  0.07078  -0.9058  0.01911  0.01316  -0.001175  0.04487  -0.2148  -0.7968
6.441e+09  -0.2182  -0.8843  0.02696  -0.03558  -0.04335  -0.0003186  -0.4899  -0.6697
6.442e+09  -0.5073  -0.8059  0.0003928  -0.01346  -0.009657  -0.01207  -0.7512  -0.4687
6.444e+09  -0.7135  -0.5945  -0.0181  -0.009941  0.02138  -0.007483  -0.8261  -0.2325
6.445e+09  -0.8639  -0.3172  -0.008175  0.03856  -0.006232  0.02462  -0.8104  0.09313
6.446e+09  -0.8774  0.05809  -0.01615  0.03877  -0.01933  -0.04426  -0.7584  0.3671
6.448e+09  -0.8634  0.3161  0.02  -0.002766  -0.02555  0.04598  -0.6087  0.5855
6.449e+09  -0.6939  0.6147  -0.01572  0.01902  0.0003149  -0.01623  -0.3865  0.7324
6.45e+09  -0.4451  0.8047  0.0497  -0.01913  0.01326  -0.00712  -0.05154  0.8392
6.451e+09  -0.1309  0.9285  0.02739  -0.01963  0.01279  0.01992  0.2391  0.81
6.452e+09  0.2158  0.8623  -0.02078  0.01066  -0.03545  0.02716  0.4674  0.6677
6.454e+09  0.4509  0.7591  -0.04184  -0.03156  -0.04496  0.001798  0.6379  0.4573
6.455e+09  0.7572  0.5006  0.004798  -0.01972  -0.0002158  0.01099  0.8586  0.2733
6.456e+09  0.8359  0.2822  0.02278  0.01186  0.005857  -0.03056  0.7817  -0.07615
6.458e+09  0.8648  -0.04348  -0.01881  0.01588  0.01266  -0.04781  0.7357  -0.3468
6.459e+09  0.811  -0.3661  0.03498  0.01661  0.021  -0.007883  0.6019  -0.5558
6.46e+09  0.6361  -0.6525  0.01308  -0.01626  0.01388  0.002395  0.347  -0.7771
6.461e+09  0.437  -0.7773  -0.03931  -0.01634  -0.005722  0.04496  0.02932  -0.8418
6.462e+09  0.08463  -0.9004  0.01119  0.01758  -0.04226  0.00362  -0.2242  -0.7631
6.464e+09  -0.1866  -0.8758  -0.02075  0.05036  0.04345  0.01063  -0.44  -0.6944
6.465e+09  -0.4394  -0.7051  0.03424  0.01919  0.006743  0.02216  -0.6396  -0.4505
6.466e+09  -0.725  -0.5319  0.04018  0.01425  0.009971  0.02583  -0.8303  -0.1904
6.468e+09  -0.859  -0.2803  0.02103  -0.007402  0.001811  -0.02111  -0.7892  0.1284
6.469e+09  -0.9214  -0.003861  -0.01992  -0.02123  0.02163  -0.02647  -0.7027  0.3502
6.47e+09  -0.8716  0.4065  0.01156  0.02574  0.009421  0.02501  -0.5625  0.5727
6.471e+09  -0.6743  0.6375  0.06913  -0.02674  0.01313  0.03454  -0.31  0.7062
6.472e+09  -0.3975  0.7847  0.0136  0.03932  -0.02665  -0.03729  0.005842  0.7928
6.474e+09  -0.1321  0.9268  0.005529  0.0005332  0.07715  0.03868  0.2336  0.7767
6.475e+09  0.2114  0.8985  -0.02546  -0.007623  -0.04046  -0.02987  0.466  0.6413
6.476e+09  0.5409  0.754  0.0179  0.00486  -0.02317  0.03088  0.679  0.4257
6.478e+09  0.778  0.5449  -0.01922  -0.005793  -0.02257  0.03945  0.7197  0.206
6.479e+09  0.8545  0.2233  -0.00988  0.006435  -0.01022  -0.02754  0.7868  -0.08656
6.48e+09  0.9377  -0.06812  -0.01487  0.03271  -0.0255  -0.044  0.6996  -0.3498
6.481e+09  0.8404  -0.3978  -0.02753  0.001148  0.005622  -0.02595  0.5591  -0.5758
6.482e+09  0.6473  -0.6462  -0.008129  0.01399  0.04754  -0.01158  0.3277  -0.6777
6.484e+09  0.4019  -0.812  0.01734  0.003752  -0.01861  -0.01096  0.01912  -0.7026
6.485e+09  0.1018  -0.8844  -0.002756  0.02176  0.007609  -0.02622  -0.2226  -0.7468
6.486e+09  -0.2914  -0.9368  0.01662  0.01494  0.001099  -0.00815  -0.4815  -0.6123
6.488e+09  -0.5311  -0.7301  -0.00812  0.02769  0.02545  0.08327  -0.6438  -0.4279
6.489e+09  -0.8233  -0.5283  0.02849  -0.01829  0.08458  0.003911  -0.7314  -0.184
6.49e+09  -0.9853  -0.208  0.001537  0.03935  0.03758  0.04523  -0.7524  0.1419
6.491e+09  -0.9419  0.05732  0.03698  0.02155  0.01328  0.01155  -0.6747  0.3598
6.492e+09  -0.8271  0.4318  -0.002571  -0.03043  0.04355  0.02653  -0.5124  0.5771
6.494e+09  -0.6343  0.6724  0.01968  -0.04647  0.02625  0.03175  -0.2964  0.7246
6.495e+09  -0.3701  0.7912  -0.01532  0.02968  -0.04994  -0.05262  -0.06317  0.7908
6.496e+09  -0.0516  0.9843  0.04058  -0.01273  0.05735  -0.0149  0.2184  0.7147
6.498e+09  0.2634  0.8838  0.004477  -0.01035  0.0001658  -0.01821  0.4738  0.6352
6.499e+09  0.5624  0.7575  0.009802  0.03772  -0.01223  -0.06652  0.6106  0.4134
6.5e+09  0.836  0.5232  0.0131  0.03033  -0.01023  0.0381  0.7299  0.152
6.501e+09  0.9643  0.2077  0.003993  -0.01092  -0.006583  0.04903  0.7451  -0.1351
6.502e+09  0.9381  -0.06343  -0.01167  0.004922  -0.06421  -0.0515  0.6672  -0.3267
6.504e+09  0.8401  -0.4786  0.03365  0.03127  -0.01713  0.00252  0.5157  -0.5545
6.505e+09  0.6153  -0.7581  -0.01235  -0.02952  -0.004109  -0.04344  0.2612  -0.7309
6.506e+09  0.3356  -0.8798  0.0201  -0.002949  0.05145  -0.01738  0.02325  -0.7903
6.508e+09  0.02078  -0.9563  -0.005329  0.01025  0.04608  0.009657  -0.2599  -0.7451
6.509e+09  -0.3076  -0.8861  -0.009296  -0.005638  -0.005359  -0.01137  -0.4841  -0.6046
6.51e+09  -0.5989  -0.7227  -0.01728  0.007894  -0.03363  -0.01065  -0.6088  -0.3622
6.511e+09  -0.8435  -0.5042  -0.02883  -0.0003639  0.01794  0.03924  -0.747  -0.1481
6.512e+09  -0.9322  -0.1429  0.02105  -0.0208  -0.02488  0.01446  -0.7575  0.09897
6.514e+09  -0.9919  0.1752  0.02984  0.02007  0.03032  0.01114  -0.7047  0.4023
6.515e+09  -0.7519  0.4563  0.02855  -0.02131  0.002864  0.00605  -0.4836  0.6181
6.516e+09  -0.624  0.777  -0.007902  -0.02265  0.01374  0.03231  -0.2528  0.706
6.518e+09  -0.2755  0.9244  -0.0004058  -0.04839  0.002491  -0.07008  0.0153  0.7276
6.519e+09  0.01805  0.9345  0.002916  0.0132  0.06997  0.03624  0.2663  0.6764
6.52e+09  0.3746  0.9311  0.04114  -0.01929  0.0004524  -0.0006102  0.4855  0.5721
6.521e+09  0.6653  0.7366  -0.02071  -0.009208  -0.009849  0.001792  0.6359  0.3577
6.522e+09  0.9035  0.4207  0.02579  -0.00988  -0.005509  -0.02134  0.7366  0.1185
6.524e+09  0.9332  0.07041  -0.0497  0.004744  -0.01364  0.03749  0.6883  -0.1888
6.525e+09  0.9284  -0.2249  0.005367  -0.03184  0.03848  0.007056  0.5815  -0.41
6.526e+09  0.8069  -0.5423  -0.01041  -0.001943  0.02875  0.03128  0.4225  -0.6377
6.528e+09  0.6103  -0.7968  -0.0157  -0.03597  0.006586  -0.009918  0.2099  -0.732
6.529e+09  0.2402  -0.9973  0.005798  -0.001001  -0.004195  0.05732  -0.0487  -0.6876
6.53e+09  -0.09138  -0.9491  -0.00659  -0.01433  0.06532  -0.003807  -0.2991  -0.6644
6.531e+09  -0.4023  -0.8982  -0.02383  0.01264  -0.00281  -0.01318  -0.4455  -0.4925
6.532e+09  -0.7249  -0.7057  -0.01252  0.03333  -0.01743  0.01395  -0.6064  -0.3147
6.534e+09  -0.866  -0.3715  -0.01213  0.001966  -0.04464  0.05784  -0.6245  -0.09632
6.535e+09  -1.04  0.01938  4.96e-05  -0.01667  -0.006513  0.007236  -0.6283  0.0954
6.536e+09  -0.8897  0.3181  -0.01985  0.03086  -0.02288  -0.03217  -0.5807  0.2942
6.538e+09  -0.772  0.5848  -0.01229  -0.02889  -0.05032  0.005833  -0.4681  0.4537
6.539e+09  -0.5256  0.8518  0.01698  -0.01143  -0.003453  -0.02436  -0.2791  0.6334
6.54e+09  -0.2017  1.014  0.03456  0.01057  0.0187  0.09127  -0.06045  0.6763
6.541e+09  0.1895  0.9935  0.03079  0.004972  -0.01877  -0.0008851  0.2156  0.6924
6.542e+09  0.5224  0.8117  -0.008761  0.0006564  0.03285  -0.007275  0.4145  0.6047
6.544e+09  0.7414  0.6119  0.01818  -0.02242  0.05245  0.02283  0.6008  0.4505
6.545e+09  0.8668  0.3233  0.006279  -0.01078  -0.0005807  0.03466  0.6977  0.1751
6.546e+09  0.9959  -0.02698  -0.009361  -0.01166  0.002611  -0.03898  0.7054  -0.08056
6.548e+09  0.9378  -0.3884  -0.02305  0.004904  0.0438  -0.009002  0.6611  -0.3392
6.549e+09  0.7142  -0.6583  -0.002104  -0.02791  0.01097  0.02234  0.5064  -0.5415
6.55e+09  0.4525  -0.8193  -0.008892  -0.02244  -0.03808  0.02713  0.28  -0.6583
