# Hz S RI R 50
6.25e+09  -0.2167  0.8519  -0.008105  0.002573  -0.04602  0.04351  0.1319  0.4763
6.251e+09  0.0502  0.885  -0.01017  -0.02326  -0.009393  -0.01971  0.384  0.4009
6.252e+09  0.3281  0.8297  -0.01593  -0.0136  0.03755  0.03072  0.5403  0.2358
6.254e+09  0.5592  0.6426  0.01198  -0.00595  -0.004392  0.02153  0.615  0.004841
6.255e+09  0.7354  0.4407  0.02284  -0.006715  0.04811  0.01924  0.6142  -0.2168
6.256e+09  0.9144  0.1319  -0.0206  0.01487  -0.01588  -0.007095  0.4873  -0.422
6.258e+09  0.8477  -0.2  -5.103e-05  -0.02548  -0.009053  0.009877  0.2629  -0.5842
6.259e+09  0.7439  -0.4273  0.006092  0.006349  0.05105  0.02564  0.02944  -0.6689
6.26e+09  0.5024  -0.6331  0.002806  0.03667  -0.03126  -0.001357  -0.2139  -0.673
6.261e+09  0.2244  -0.7926  0.0005053  -0.007589  0.07306  0.02088  -0.4401  -0.5437
6.262e+09  -0.04407  -0.877  -0.01222  -0.005203  0.02518  0.02959  -0.6197  -0.3744
6.264e+09  -0.333  -0.7948  0.01331  0.01543  -0.03479  0.03419  -0.7157  -0.08355
6.265e+09  -0.5651  -0.6053  0.001189  -0.0081  0.01155  -0.006319  -0.7146  0.1705
6.266e+09  -0.7556  -0.4214  0.02831  -0.01276  0.00298  0.02412  -0.6007  0.4
6.268e+09  -0.8094  -0.07719  0.03316  -0.02077  -0.01963  -0.000191  -0.437  0.596
6.269e+09  -0.7977  0.1836  0.01217  -0.008801  -0.00367  0.04077  -0.2023  0.7008
6.27e+09  -0.745  0.4916  -0.01036  0.009647  -0.05216  0.03456  0.04655  0.7315
6.271e+09  -0.4601  0.6568  -0.01576  -0.02772  0.02714  0.03091  0.3241  0.6868
6.272e+09  -0.1825  0.794  0.00258  0.00921  0.02615  -0.06536  0.5583  0.5362
6.274e+09  0.06605  0.88  0.01759  -0.0008342  -0.04117  -0.02228  0.7162  0.3179
6.275e+09  0.3511  0.8012  -0.005172  -0.01748  0.02006  -0.04087  0.7651  0.07418
6.276e+09  0.5566  0.537  -0.005696  0.0255  -0.01201  0.0002261  0.7339  -0.213
6.278e+09  0.7247  0.384  -0.01007  -0.003674  0.004734  -0.04327  0.6097  -0.4685
6.279e+09  0.8241  0.07816  -0.007561  0.01652  -0.03274  0.03433  0.4458  -0.6285
6.28e+09  0.8066  -0.2322  0.001415  -0.005966  -0.01475  0.01212  0.1556  -0.775
6.281e+09  0.6978  -0.4738  -0.002575  -0.01501  0.02135  -0.01715  -0.09843  -0.7836
6.282e+09  0.4547  -0.6796  0.02137  0.007954  -0.06019  0.02789  -0.3756  -0.7005
6.284e+09  0.1827  -0.8231  -0.02454  -0.006727  0.01425  0.02088  -0.617  -0.5208
6.285e+09  -0.04122  -0.8587  -0.004182  -0.01269  -0.01328  0.02338  -0.7522  -0.2605
6.286e+09  -0.3462  -0.7597  0.01266  0.03462  0.01518  0.01616  -0.807  -0.01532
6.288e+09  -0.5555  -0.5104  0.007337  -0.02477  0.02804  -0.01098  -0.7337  0.2313
6.289e+09  -0.7458  -0.318  0.01009  -0.009516  -0.01522  0.06002  -0.634  0.4994
6.29e+09  -0.8108  -0.03771  0.01097  -0.02912  -0.0008838  0.03155  -0.4265  0.6914
6.291e+09  -0.8119  0.2454  -0.002311  0.0105  -0.01667  -0.06009  -0.1726  0.808
6.292e+09  -0.6179  0.4844  -0.005205  0.001976  0.02273  -0.01328  0.1019  0.7903
6.294e+09  -0.4827  0.7291  -0.007006  0.003057  -0.02414  0.003041  0.3862  0.7048
6.295e+09  -0.1694  0.8904  0.02823  -0.02626  0.008671  -0.01034  0.6085  0.5251
6.296e+09  0.1088  0.8483  -0.0391  0.01228  -0.006841  0.03944  0.7389  0.2652
6.298e+09  0.4567  0.7258  -0.03327  -0.0166  -0.03159  0.01287  0.8273  -0.002555
6.299e+09  0.6362  0.489  -0.001039  0.02375  0.007358  -0.01177  0.762  -0.3
6.3e+09  0.8173  0.3246  0.0274  -0.02226  -0.008154  0.02061  0.6558  -0.5253
6.301e+09  0.8353  0.008298  -0.02908  0.0104  0.01964  0.001  0.4355  -0.7235
6.302e+09  0.7798  -0.2736  -0.0226  -0.001839  0.02157  -0.002458  0.1496  -0.8058
6.304e+09  0.6231  -0.5389  -0.009566  0.01652  -0.0332  -0.02679  -0.108  -0.826
6.305e+09  0.4066  -0.6886  -0.006868  0.01218  0.0144  -0.03428  -0.4243  -0.7529
6.306e+09  0.1379  -0.8412  -0.011  -0.001838  0.02023  -0.07095  -0.6885  -0.5555
6.308e+09  -0.1033  -0.8175  -0.04225  0.01155  -0.02478  0.008507  -0.7828  -0.3299
6.309e+09  -0.4285  -0.7174  -0.02595  0.05668  -0.01233  0.02301  -0.8699  0.01648
6.31e+09  -0.6475  -0.5055  0.002929  -0.001387  -0.06477  0.02088  -0.8139  0.3054
6.311e+09  -0.8095  -0.2773  0.003059  -0.008391  -0.008872  0.03921  -0.6688  0.5596
6.312e+09  -0.8877  0.03817  9.489e-05  0.02232  -0.0238  -0.05879  -0.4149  0.726
6.314e+09  -0.7917  0.3395  -0.0173  -0.005294  -0.04656  0.009014  -0.1567  0.8268
6.315e+09  -0.6857  0.558  -0.02179  -0.0108  -0.06274  0.000565  0.129  0.8869
6.316e+09  -0.3703  0.7313  -0.01928  0.01925  -0.01005  -0.008265  0.4498  0.7437
6.318e+09  -0.0953  0.8531  0.01048  -0.01269  0.04909  -0.01265  0.6518  0.5742
6.319e+09  0.1185  0.8068  -0.01062  -0.02007  -0.03078  -0.02221  0.8245  0.2832
6.32e+09  0.4645  0.7337  0.01289  -0.001818  -0.01909  -0.01141  0.8567  -0.01074
6.321e+09  0.7338  0.5434  0.0008278  -0.01119  0.0003268  -0.004398  0.8387  -0.2522
6.322e+09  0.7953  0.2303  -0.02773  0.00674  -0.0385  0.005595  0.6951  -0.6052
6.324e+09  0.799  -0.07376  -0.01608  -0.01437  0.03726  0.006671  0.4662  -0.7847
6.325e+09  0.7591  -0.3735  0.003295  0.01876  -0.01643  0.08714  0.1867  -0.8899
6.326e+09  0.6296  -0.5717  -0.001139  0.02541  -0.002316  -0.03342  -0.1074  -0.8975
6.328e+09  0.4006  -0.7975  0.006154  0.03293  0.006675  -0.003536  -0.4313  -0.7952
6.329e+09  0.06727  -0.8566  0.01472  -0.005539  -0.02417  -0.005454  -0.6685  -0.5875
6.33e+09  -0.2434  -0.8325  -0.04212  -0.01342  0.003453  -0.02334  -0.8537  -0.334
6.331e+09  -0.4977  -0.7342  -0.01325  -0.0009641  0.07328  0.02131  -0.9063  -0.04764
6.332e+09  -0.7296  -0.5318  0.01863  0.02349  -0.01404  0.04942  -0.8483  0.2576
6.334e+09  -0.8436  -0.1971  -0.04109  0.00743  0.006728  0.02877  -0.7071  0.5526
6.335e+09  -0.9129  0.08488  0.009795  -0.007655  0.01613  0.01823  -0.4808  0.7855
6.336e+09  -0.7832  0.3888  0.02259  -0.0006376  0.005145  -0.002818  -0.1947  0.9009
6.338e+09  -0.5832  0.6555  -0.0291  -0.02262  0.005726  -0.02727  0.1321  0.9163
6.339e+09  -0.3034  0.7876  0.0001672  -0.02546  0.02908  0.0002269  0.4047  0.8141
6.34e+09  -0.0123  0.8863  0.004132  0.03413  -0.00663  0.00437  0.7001  0.6184
6.341e+09  0.2694  0.7968  -0.01908  0.03185  0.0155  0.0182  0.8404  0.3438
6.342e+09  0.612  0.6292  -0.006925  0.01796  -0.005065  0.05803  0.9156  0.06954
6.344e+09  0.8143  0.4079  0.01176  -0.005676  0.02215  -0.01941  0.8914  -0.2818
6.345e+09  0.849  0.1297  -0.03177  -0.02908  -0.01556  -0.001438  0.7461  -0.5666
6.346e+09  0.8976  -0.1868  0.006051  0.002227  -0.02159  0.02357  0.5263  -0.7957
6.348e+09  0.7577  -0.4437  -0.002694  0.03897  -0.06184  0.03079  0.246  -0.8978
6.349e+09  0.4799  -0.6953  -0.01784  -0.0106  0.01763  0.01924  -0.09654  -0.922
6.35e+09  0.2056  -0.8784  -0.03581  -0.006634  -0.01339  0.008969  -0.4157  -0.8576
6.351e+09  -0.03883  -0.8798  -0.01279  0.01743  0.01295  0.03764  -0.6988  -0.6647
6.352e+09  -0.3682  -0.8755  0.03153  -0.01088  0.01664  0.004718  -0.8438  -0.3697
6.354e+09  -0.6025  -0.6645  0.01544  0.009332  -0.01154  -0.0284  -0.9693  -0.06029
6.355e+09  -0.7961  -0.4244  -0.002861  0.03334  -0.0226  0.0005314  -0.8511  0.2534
6.356e+09  -0.9072  -0.066  -0.007079  -0.01044  -0.01223  -0.01333  -0.7716  0.5724
6.358e+09  -0.8794  0.2439  -0.005351  -0.004612  -0.00917  -0.01074  -0.5716  0.7608
6.359e+09  -0.7111  0.4591  0.003461  0.01577  -0.01786  0.01766  -0.2052  0.9406
6.36e+09  -0.4931  0.7583  0.01493  0.0003317  -0.009845  -0.001547  0.07596  0.9318
6.361e+09  -0.2519  0.858  0.03315  0.01474  -0.03781  0.02256  0.3987  0.8522
6.362e+09  0.09147  0.8961  0.03303  0.01115  0.06399  0.01213  0.6962  0.6419
6.364e+09  0.4096  0.7843  -0.06265  -0.04563  -0.004961  -0.00888  0.8307  0.432
6.365e+09  0.6394  0.6054  0.001945  -0.01395  0.04204  -0.02121  0.938  0.09618
6.366e+09  0.7929  0.3702  0.0129  -0.02465  -0.05982  -0.005879  0.921  -0.2549
6.368e+09  0.8714  0.0003327  -0.02242  0.01828  0.01264  0.01036  0.7908  -0.5376
6.369e+09  0.8598  -0.3161  -0.02  -0.04793  0.0173  0.001953  0.5709  -0.8152
6.37e+09  0.6999  -0.6212  0.001544  0.02491  0.001327  -0.009759  0.2352  -0.9459
6.371e+09  0.4978  -0.7512  0.00955  -0.01766  -0.009315  0.03357  -0.08513  -0.9532
6.372e+09  0.1725  -0.8622  -0.02213  -0.04507  0.006816  0.01061  -0.4067  -0.8873
6.374e+09  -0.1579  -0.8536  -0.01162  -0.067  -0.03953  0.005782  -0.6843  -0.6554
6.375e+09  -0.3835  -0.8014  -0.03903  -0.02849  0.005477  -0.02158  -0.862  -0.4151
6.376e+09  -0.6537  -0.596  0.007828  -0.005437  0.0317  -0.006582  -0.9053  -0.09854
6.378e+09  -0.8755  -0.3057  -0.018  -0.03663  0.02948  0.02768  -0.933  0.2402
6.379e+09  -0.9493  -0.001998  -0.007432  -0.01104  0.03915  0.008955  -0.7831  0.5135
6.38e+09  -0.8414  0.2876  -0.009121  -0.01701  0.01253  0.03209  -0.5653  0.7784
6.381e+09  -0.686  0.5707  0.03335  -0.007418  -0.009281  -0.01015  -0.2905  0.8907
6.382e+09  -0.4443  0.7896  -0.02966  -0.04471  -0.04059  -0.01028  0.1016  0.9579
6.384e+09  -0.1471  0.8668  -0.039  0.03853  0.01585  -0.01379  0.3715  0.8761
6.385e+09  0.1752  0.8744  -0.02272  -0.006006  0.0003286  0.01481  0.6174  0.7062
6.386e+09  0.4748  0.7933  -0.0345  -0.008132  -0.006592  0.001874  0.8837  0.3915
6.388e+09  0.7219  0.5534  0.02898  0.02402  0.02052  -0.01518  0.9582  0.1018
6.389e+09  0.8773  0.3078  -0.01068  -0.009901  -9.115e-05  0.007017  0.9447  -0.1747
6.39e+09  0.8689  -0.05259  -0.01207  -0.01708  0.01083  0.01774  0.7392  -0.5322
6.391e+09  0.8859  -0.3749  -0.02129  -0.02696  -0.005095  -0.0373  0.5378  -0.804
6.392e+09  0.6547  -0.5794  -0.00253  0.02659  -0.01159  0.01066  0.2617  -0.8885
6.394e+09  0.4346  -0.8119  0.01389  -0.03045  -0.02111  -0.00194  -0.01479  -0.8744
6.395e+09  0.1035  -0.9335  -0.05451  0.02786  -0.02891  0.007843  -0.3184  -0.8191
6.396e+09  -0.2385  -0.8382  0.009452  -0.02135  0.0579  -0.009267  -0.6193  -0.6728
6.398e+09  -0.5257  -0.7303  -0.0008236  -0.04297  0.007724  -0.01058  -0.8143  -0.4365
6.399e+09  -0.7094  -0.5169  0.001396  -0.02742  -0.0518  -0.009461  -0.9208  -0.1544
6.4e+09  -0.854  -0.2668  -0.009156  -0.008676  -0.00739  -0.04122  -0.8827  0.196
6.401e+09  -0.8972  0.1125  -0.02149  -0.01726  0.03352  -0.003849  -0.781  0.4972
6.402e+09  -0.7997  0.3769  0.01431  0.007538  -0.03547  0.03061  -0.5761  0.7232
6.404e+09  -0.5936  0.6373  0.02812  0.01758  -0.02185  -0.06348  -0.3085  0.8042
6.405e+09  -0.3912  0.8017  -0.0085  0.006047  0.008856  0.00468  0.02749  0.9416
6.406e+09  -0.08698  0.9248  -0.005703  0.04198  0.008776  0.002934  0.3412  0.8712
6.408e+09  0.2353  0.8379  0.00328  0.02888  -0.01584  0.003922  0.6186  0.7
6.409e+09  0.519  0.6324  -0.005665  0.01473  -0.01267  -0.0481  0.7774  0.4955
6.41e+09  0.7684  0.5007  -0.0364  -0.005827  -0.001505  -0.03572  0.9385  0.156
6.411e+09  0.8225  0.2448  0.04884  -0.002916  -0.009987  -0.0166  0.8811  -0.166
6.412e+09  0.8698  -0.1158  0.01306  0.01355  0.02262  0.01028  0.7849  -0.459
6.414e+09  0.7749  -0.3377  -0.02724  1.399e-05  -0.03457  -0.001119  0.6103  -0.6744
6.415e+09  0.5799  -0.6121  0.009785  -0.002444  0.02121  0.01127  0.3312  -0.8136
6.416e+09  0.3468  -0.8052  -0.03333  -0.01051  -0.009965  0.02775  -0.003293  -0.9157
6.418e+09  0.04439  -0.9164  0.01152  -0.02316  -0.02377  -0.001767  -0.2384  -0.8363
6.419e+09  -0.2409  -0.8867  -0.06146  -0.02059  0.009115  0.01812  -0.5272  -0.7226
6.42e+09  -0.5568  -0.717  -0.01354  0.03387  0.05084  -0.02554  -0.7559  -0.5114
6.421e+09  -0.7268  -0.4615  0.01076  0.004916  -0.02533  0.01462  -0.8624  -0.1866
6.422e+09  -0.8546  -0.233  0.02941  -0.02236  -0.01273  -0.006688  -0.8751  0.1591
6.424e+09  -0.8975  0.1031  0.03261  -0.01132  -0.0044  0.01761  -0.7755  0.373
6.425e+09  -0.8051  0.4338  -0.03213  0.02009  0.01156  0.02173  -0.5889  0.6819
6.426e+09  -0.5783  0.6461  0.02267  -0.004671  -0.01744  0.01606  -0.3664  0.789
6.428e+09  -0.3647  0.8176  -0.0209  0.0537  -0.01253  -0.02494  -0.05566  0.9211
6.429e+09  -0.0512  0.8729  0.01506  -0.003024  0.01714  -0.01072  0.2694  0.8319
6.43e+09  0.2234  0.8595  0.009682  0.0045  -0.03729  0.007914  0.5371  0.6768
6.431e+09  0.554  0.6847  -0.0142  -0.04206  -0.01692  -0.002657  0.7165  0.5264
6.432e+09  0.8082  0.495  -0.01644  0.02044  0.02123  -0.013  0.875  0.1893
6.434e+09  0.8711  0.1894  0.02553  -0.05793  0.006812  -0.008797  0.847  -0.09279
6.435e+09  0.8644  -0.1143  -0.04056  -0.02229  0.01379  0.01706  0.7642  -0.3393
6.436e+09  0.8019  -0.4491  -0.01522  -0.04351  -0.005248  -0.02513  0.6006  -0.5952
6.438e+09  0.6125  -0.6771  0.0491  -0.0107  -0.02414  0.01838  0.3474  -0.8058
6.439e+09  0.381  -0.8008  0.01047  0.0201  0.04549  0.009279  0.01284  -0.8352
6.44e+09  0.02797  -0.9165  -0.0161  -0.0003567  -0.01942  -0.04502  -0.2019  -0.8415
6.441e+09  -0.2955  -0.8432  -0.02519  0.04762  0.01797  0.05096  -0.498  -0.6726
6.442e+09  -0.5551  -0.6906  0.009736  0.0315  -0.04321  -0.01254  -0.7149  -0.5075
6.444e+09  -0.7509  -0.5178  0.02966  -0.0004959  -0.02959  0.04471  -0.8635  -0.2133
6.445e+09  -0.876  -0.175  0.006461  -0.004071  -0.02151  0.002513  -0.8604  0.0982
6.446e+09  -0.8913  0.1053  0.021  0.04508  0.009687  0.0326  -0.7584  0.3831
6.448e+09  -0.7616  0.4711  -0.001742  -0.02021  -0.0297  0.01975  -0.5578  0.5688
6.449e+09  -0.5665  0.666  0.01307  0.02012  0.05265  0.006607  -0.3414  0.7384
6.45e+09  -0.3464  0.8038  -0.01455  -0.00977  -0.02426  -0.003947  -0.05535  0.8237
6.451e+09  -0.08939  0.9016  0.02193  0.009234  0.0188  0.0004542  0.1701  0.7914
6.452e+09  0.3194  0.8787  -0.01558  -0.01691  -0.01491  -0.01958  0.489  0.6575
6.454e+09  0.5684  0.7206  -0.02146  -0.004178  -0.01469  -0.03917  0.7222  0.4864
6.455e+09  0.7345  0.486  -0.01447  -0.01233  -0.01602  0.0143  0.8376  0.225
6.456e+09  0.8083  0.1704  0.01493  -0.02067  0.008329  -0.0256  0.8468  -0.05199
6.458e+09  0.9253  -0.1449  -0.001569  0.01408  0.06584  -0.01702  0.7719  -0.3391
6.459e+09  0.7915  -0.4358  0.0352  0.01912  0.001055  0.01659  0.5488  -0.5683
6.46e+09  0.6413  -0.6973  0.007581  0.004191  0.01255  0.01506  0.377  -0.7063
6.461e+09  0.2908  -0.8593  -0.04423  -0.05024  0.005861  -0.03627  0.06113  -0.7816
6.462e+09  -0.01603  -0.9029  0.01896  0.02455  0.004803  -0.008453  -0.1979  -0.7882
6.464e+09  -0.347  -0.833  0.003236  0.0299  -0.05866  -0.04654  -0.4844  -0.6653
6.465e+09  -0.571  -0.7152  0.02124  -0.0006635  0.0004504  0.04611  -0.672  -0.4834
6.466e+09  -0.8014  -0.4639  0.06549  -0.01823  0.01269  -0.02179  -0.7906  -0.1753
6.468e+09  -0.9312  -0.2034  0.03968  0.02814  0.05354  0.01087  -0.8003  0.07983
6.469e+09  -0.9542  0.1938  -0.05228  -0.03909  0.02368  -0.002437  -0.7181  0.3568
6.47e+09  -0.763  0.4749  0.01098  0.01628  0.02303  -0.0362  -0.5709  0.5462
6.471e+09  -0.5671  0.7  0.03202  0.02879  0.00896  -0.0004326  -0.3277  0.6867
6.472e+09  -0.3043  0.8907  0.009467  -0.001913  -0.008772  0.0008195  -0.07303  0.7838
6.474e+09  0.04405  0.9122  -0.01506  0.0005432  -0.04916  0.03288  0.2139  0.762
6.475e+09  0.3103  0.9088  0.02587  0.01237  0.01695  -0.003769  0.449  0.6727
6.476e+09  0.63  0.7125  -0.008788  -0.01899  0.02028  0.002435  0.6562  0.4242
6.478e+09  0.842  0.4597  0.004191  0.01659  -0.05225  -0.01648  0.7933  0.2015
6.479e+09  0.9322  0.167  0.0227  0.02826  -0.004484  -0.01851  0.792  -0.05751
6.48e+09  0.8948  -0.2141  -0.0256  0.0373  0.01429  -0.001575  0.6714  -0.3513
6.481e+09  0.8086  -0.4996  -0.01647  -0.012  -0.01487  0.00302  0.5383  -0.6184
6.482e+09  0.5552  -0.7101  -0.001955  -0.01875  0.04806  0.04291  0.304  -0.7294
6.484e+09  0.3074  -0.9632  0.02058  -0.02157  0.005859  -0.02171  0.07142  -0.768
6.485e+09  -0.04051  -0.9246  0.02228  0.003851  -0.002051  0.03617  -0.2086  -0.7225
6.486e+09  -0.3416  -0.8729  0.08147  -0.02664  0.00891  -0.04804  -0.4613  -0.6482
6.488e+09  -0.6607  -0.6377  -0.009928  -0.001865  0.02463  -0.0002007  -0.6436  -0.4552
6.489e+09  -0.8483  -0.4387  0.01117  -0.0009961  0.01777  -0.01845  -0.773  -0.199
6.49e+09  -0.972  -0.1164  0.007655  -0.000617  0.001997  -0.03228  -0.7886  0.08837
6.491e+09  -0.9199  0.2479  -0.01965  -0.01032  -0.002438  -0.05325  -0.6802  0.3551
6.492e+09  -0.8276  0.5328  0.0595  0.009263  -0.03661  -0.03147  -0.5543  0.5483
6.494e+09  -0.5549  0.8078  0.0127  -0.005741  0.01159  -0.0008861  -0.3505  0.6997
6.495e+09  -0.2924  0.9946  0.05183  0.001776  0.03439  -0.002435  -0.01641  0.7709
6.496e+09  0.08558  0.9522  -0.0163  0.01572  0.0415  0.01142  0.2406  0.7997
6.498e+09  0.4038  0.815  0.02643  -0.006467  0.04145  -0.0004842  0.4461  0.587
6.499e+09  0.6804  0.7104  0.01098  -0.004831  0.0009608  -0.01372  0.6253  0.4142
6.5e+09  0.8543  0.3689  0.007877  0.005836  -0.04409  -0.001566  0.7621  0.1306
6.501e+09  0.9457  0.09219  0.008764  -0.01844  -0.003543  0.02212  0.7479  -0.1123
6.502e+09  0.9281  -0.2575  -0.02482  -0.02108  0.02723  0.02518  0.6686  -0.3468
6.504e+09  0.7597  -0.5491  0.01227  -0.002297  -0.01965  0.009631  0.5151  -0.5723
6.505e+09  0.5808  -0.8493  -0.02533  0.009166  0.06779  -0.02203  0.2858  -0.7225
6.506e+09  0.171  -0.9214  -0.002418  0.02794  -0.03317  0.00571  0.05326  -0.7743
6.508e+09  -0.1372  -0.9816  0.04272  0.002677  -0.04097  0.0393  -0.2326  -0.72
6.509e+09  -0.4543  -0.8776  -0.0004691  0.02631  -0.05007  -0.003116  -0.4975  -0.5851
6.51e+09  -0.6637  -0.6311  0.0461  0.0007396  -0.01779  0.03294  -0.65  -0.3365
6.511e+09  -0.8892  -0.3551  -0.008209  -0.0007191  -0.0222  -0.0562  -0.7598  -0.1342
6.512e+09  -0.9973  -0.03604  -0.001269  0.007596  0.0342  0.01611  -0.7927  0.1271
6.514e+09  -0.8981  0.3065  0.01854  -0.02313  0.06366  0.07068  -0.6931  0.3496
6.515e+09  -0.7705  0.6256  0.01764  -0.008838  0.03563  -0.04259  -0.4637  0.5654
6.516e+09  -0.5231  0.8789  -0.007132  -0.004703  -0.0283  -0.005563  -0.217  0.6979
6.518e+09  -0.158  0.9974  0.0009956  0.0211  0.02926  -0.02917  0.06476  0.7857
6.519e+09  0.2083  0.956  -0.01865  0.03504  0.005111  0.0005466  0.2585  0.6788
6.52e+09  0.5094  0.8263  -0.003765  0.03135  -0.04526  0.02106  0.5027  0.5281
6.521e+09  0.7655  0.5909  0.03322  -0.001029  0.006493  0.0558  0.6549  0.3632
6.522e+09  0.9432  0.2575  -0.007665  -0.01231  -0.01493  -0.05531  0.7085  0.1043
6.524e+09  0.9567  -0.01674  0.00235  0.008402  -0.02949  0.00456  0.7251  -0.1498
6.525e+09  0.8868  -0.4288  -0.04527  0.02127  0.02586  0.009863  0.611  -0.3547
6.526e+09  0.7284  -0.6665  -0.0247  0.0228  0.01247  -0.005346  0.4  -0.5751
6.528e+09  0.4187  -0.8775  0.02138  0.03055  0.03234  0.0006102  0.1905  -0.7107
6.529e+09  0.1381  -0.9654  -0.003728  -0.003762  -0.01043  -0.05292  -0.09103  -0.6602
6.53e+09  -0.2259  -0.9189  -0.006941  0.004404  -0.03214  -0.01783  -0.3246  -0.5935
6.531e+09  -0.5518  -0.8111  -0.02615  0.003734  0.01961  -0.01125  -0.5053  -0.4537
6.532e+09  -0.8332  -0.5591  0.008893  0.02767  -0.03833  0.007353  -0.5627  -0.2872
6.534e+09  -0.9524  -0.2248  -0.005829  -0.01042  0.02394  0.01078  -0.6426  -0.1033
6.535e+09  -0.998  0.1176  -0.005506  -0.001296  -0.02346  0.04379  -0.6349  0.1105
6.536e+09  -0.9067  0.4644  0.01115  0.02099  -0.01561  -0.01227  -0.5505  0.2948
6.538e+09  -0.6587  0.6817  0.02437  -0.0171  -0.0101  0.03298  -0.4211  0.469
6.539e+09  -0.4034  0.926  -0.01878  -0.01155  -0.00597  0.01702  -0.2818  0.6257
6.54e+09  0.07332  0.976  -0.01473  -0.0009743  -0.0507  -0.01999  -0.05058  0.6822
6.541e+09  0.3272  0.9235  -0.002287  -0.02303  -0.02966  0.009359  0.1966  0.6654
6.542e+09  0.6508  0.7881  -0.01041  -0.002415  0.01641  -0.05416  0.4201  0.5669
6.544e+09  0.8631  0.5496  -0.01377  0.02381  -0.03165  -0.04572  0.5882  0.3975
6.545e+09  0.9  0.1377  -0.0204  0.01246  -0.01057  0.03171  0.7839  0.1763
6.546e+09  0.986  -0.2288  -0.00955  0.0144  0.01493  0.03403  0.715  -0.08133
6.548e+09  0.8203  -0.5102  0.008615  -0.02016  -0.03948  0.009036  0.6724  -0.3034
6.549e+09  0.5921  -0.7722  -0.01107  -0.02055  0.02541  0.06375  0.5127  -0.5496
6.55e+09  0.2188  -0.9009  -0.01277  -0.01531  0.02731  0.03328  0.2527  -0.6561
