# Hz S RI R 50
6.25e+09  -0.7779  0.2668  -0.005219  -0.01193  -0.0004693  0.06224  0.1758  0.4677
6.251e+09  -0.6722  0.4633  0.02333  -0.0009824  0.01226  0.01571  0.3658  0.4229
6.252e+09  -0.4941  0.7091  -0.007876  -0.02893  -0.01385  0.002407  0.5337  0.2261
6.254e+09  -0.2146  0.7458  -0.01534  0.02117  -0.0152  0.01691  0.6263  0.003921
6.255e+09  0.05506  0.8204  0.01831  0.02146  -0.02309  0.04459  0.5901  -0.1974
6.256e+09  0.2617  0.7029  0.02827  -0.002392  0.004897  -0.001583  0.4431  -0.4564
6.258e+09  0.6044  0.5649  -0.005936  -0.002902  -0.05391  -0.02719  0.2831  -0.6078
6.259e+09  0.7094  0.3888  0.04691  0.007237  0.009096  -0.04263  0.04617  -0.6483
6.26e+09  0.8173  0.07087  0.001806  0.0225  0.01334  0.02373  -0.2522  -0.6562
6.261e+09  0.7313  -0.186  0.01455  0.01353  0.0233  0.002336  -0.4446  -0.5562
6.262e+09  0.6376  -0.4833  0.0008659  0.006002  0.02682  -0.01323  -0.6117  -0.351
6.264e+09  0.4035  -0.6477  -0.001914  0.005142  0.0305  -0.0618  -0.7115  -0.09577
6.265e+09  0.1909  -0.8553  0.03581  0.001798  0.0151  -0.01318  -0.6608  0.158
6.266e+09  -0.06201  -0.7983  0.03266  0.0004295  0.03456  -0.03165  -0.6173  0.4265
6.268e+09  -0.3734  -0.7624  -0.01709  0.02368  0.01543  0.05575  -0.4093  0.5852
6.269e+09  -0.6282  -0.5982  0.009176  0.002958  -0.01487  -0.04757  -0.182  0.7283
6.27e+09  -0.707  -0.3581  0.01811  0.02637  0.006446  0.04954  0.06081  0.7493
6.271e+09  -0.8238  -0.01366  0.002832  -0.008971  0.08341  -0.02366  0.3163  0.6728
6.272e+09  -0.7549  0.1936  -0.001657  -0.01491  -0.02697  -0.00737  0.5519  0.5488
6.274e+09  -0.6552  0.4548  -0.008616  -0.005455  0.001038  -0.005925  0.6873  0.2842
6.275e+09  -0.4488  0.6512  -0.01368  0.0009781  -0.06928  -0.01845  0.7758  0.06182
6.276e+09  -0.194  0.7379  0.01166  0.03383  -0.05684  0.03218  0.7472  -0.2293
6.278e+09  0.09024  0.8647  0.01655  0.02093  -0.02584  -0.01948  0.5984  -0.4975
6.279e+09  0.3526  0.7471  -0.01057  -0.01981  0.005259  0.01465  0.3937  -0.6504
6.28e+09  0.6086  0.5499  0.03405  0.007589  -0.03661  0.007595  0.1516  -0.7396
6.281e+09  0.7487  0.3431  -0.01823  0.006916  0.0001013  -0.01943  -0.1057  -0.7776
6.282e+09  0.7961  0.06757  0.009477  0.005786  0.01465  0.02957  -0.4093  -0.6925
6.284e+09  0.7674  -0.1922  0.03263  -0.0166  0.00359  0.0555  -0.6181  -0.5394
6.285e+09  0.6704  -0.4768  0.00607  0.0178  -0.007  -0.0009077  -0.7271  -0.2658
6.286e+09  0.459  -0.6812  0.009674  0.01785  -0.01951  0.04986  -0.7596  -0.02125
6.288e+09  0.1554  -0.7784  -0.01259  -0.009926  0.03733  0.02628  -0.775  0.2674
6.289e+09  -0.08047  -0.8328  -0.0286  0.01853  0.03649  -0.03008  -0.6136  0.4652
6.29e+09  -0.3674  -0.7511  -0.02374  -0.007517  -0.01931  -0.01012  -0.3805  0.6739
6.291e+09  -0.641  -0.561  -0.0002896  -0.008367  0.003586  -0.02229  -0.191  0.7804
6.292e+09  -0.7491  -0.2516  0.004326  0.004765  -0.01401  -0.04593  0.1459  0.8193
6.294e+09  -0.8159  0.0175  0.01924  0.0253  -0.0221  -0.02663  0.4337  0.7462
6.295e+09  -0.7512  0.2675  0.004556  0.01796  0.006903  -0.0151  0.629  0.5337
6.296e+09  -0.6191  0.5204  0.006614  0.006252  -0.01308  0.008441  0.7464  0.2904
6.298e+09  -0.429  0.7819  -0.01548  0.008799  0.02343  -0.00152  0.8359  0.01927
6.299e+09  -0.1104  0.7831  0.01215  0.007259  0.01069  0.03866  0.7968  -0.2729
6.3e+09  0.0897  0.8482  -0.01985  0.02532  0.0238  0.02263  0.6528  -0.5423
6.301e+09  0.4286  0.6683  0.016  -0.003296  0.01845  -0.0009456  0.4179  -0.7209
6.302e+09  0.6337  0.4839  0.002604  0.02802  -0.001434  -0.007191  0.1284  -0.8307
6.304e+09  0.7291  0.2498  -0.01646  -0.01564  0.007205  0.03156  -0.1543  -0.8328
6.305e+09  0.8208  -0.0354  -0.005928  -0.01529  0.01248  -0.05711  -0.4136  -0.7514
6.306e+09  0.7693  -0.2527  0.01703  0.00929  -0.009225  0.04675  -0.646  -0.5735
6.308e+09  0.6248  -0.5191  0.01007  0.01889  -0.03909  0.1025  -0.7824  -0.3022
6.309e+09  0.4012  -0.7313  -0.00458  0.005946  0.01036  0.023  -0.8664  0.001422
6.31e+09  0.1353  -0.8416  0.03373  0.01069  0.05092  -0.005438  -0.7929  0.3028
6.311e+09  -0.1428  -0.8418  -0.01332  -0.01262  -0.000492  -7.359e-05  -0.65  0.566
6.312e+09  -0.4569  -0.6596  0.008583  -0.02064  0.02251  -0.03415  -0.4426  0.7481
6.314e+09  -0.677  -0.5292  -0.02316  -0.02631  -1.629e-05  -0.0152  -0.1615  0.9208
6.315e+09  -0.7676  -0.2285  0.01186  -0.005838  0.03813  0.01913  0.136  0.8796
6.316e+09  -0.8105  -0.006473  0.001328  -0.007841  0.04221  -0.000366  0.4221  0.7699
6.318e+09  -0.7799  0.3194  -0.02199  0.02692  0.03438  -0.01213  0.6672  0.573
6.319e+09  -0.5965  0.5775  -0.005854  0.0177  0.04224  0.004562  0.8109  0.2956
6.32e+09  -0.3547  0.7384  -0.02033  -0.00202  0.004629  -0.05737  0.8882  0.006084
6.321e+09  -0.1162  0.7876  -0.009629  0.02415  0.02137  -0.05892  0.8325  -0.3106
6.322e+09  0.2288  0.8341  -0.01538  0.03265  -0.008365  0.05495  0.6925  -0.5591
6.324e+09  0.4443  0.6815  -0.012  -0.01016  -0.03667  0.02599  0.476  -0.7556
6.325e+09  0.6752  0.5097  -0.000438  -0.01217  -0.0304  -0.0432  0.1769  -0.8569
6.326e+09  0.801  0.1982  -0.01512  -0.003912  -0.003262  -0.009955  -0.1313  -0.9069
6.328e+09  0.7701  -0.08617  0.02226  0.005382  0.01475  -0.03396  -0.4503  -0.7934
6.329e+09  0.7598  -0.4111  -0.004759  0.01286  -0.004743  -0.02778  -0.6532  -0.5663
6.33e+09  0.5768  -0.6267  0.0144  -0.03636  0.02458  -0.06008  -0.8438  -0.336
6.331e+09  0.3582  -0.8176  0.0117  -0.002483  -0.003417  0.02219  -0.9157  -0.08077
6.332e+09  0.01611  -0.8566  -0.005292  0.003568  -0.01917  -0.01868  -0.859  0.2922
6.334e+09  -0.2929  -0.8089  0.006501  -0.02425  0.006161  -0.03208  -0.7072  0.576
6.335e+09  -0.5683  -0.6492  0.008521  0.02261  0.01569  -0.06365  -0.4261  0.7772
6.336e+09  -0.7441  -0.4125  0.0008861  0.002262  0.009309  0.01682  -0.2201  0.9357
6.338e+09  -0.8211  -0.1417  0.01019  0.03534  -0.01866  -0.03684  0.1071  0.9269
6.339e+09  -0.8126  0.137  -0.007088  -0.00759  -0.005855  -0.01028  0.4099  0.7958
6.34e+09  -0.7372  0.4105  0.03027  -0.007357  0.02817  0.0004838  0.6836  0.6048
6.341e+09  -0.5839  0.6683  0.005252  -0.008249  -0.01165  0.02421  0.8714  0.3641
6.342e+09  -0.2518  0.8523  -0.0001525  0.006244  0.01099  -0.03373  0.9008  0.05837
6.344e+09  0.004601  0.8962  -0.0159  -0.02557  -0.01735  0.01734  0.8837  -0.257
6.345e+09  0.3382  0.7885  -0.009347  -0.008718  0.03692  -0.04525  0.7537  -0.5387
6.346e+09  0.6519  0.656  0.01077  -0.02905  -0.03751  0.004474  0.5075  -0.8085
6.348e+09  0.8022  0.4025  0.009195  0.002391  0.00306  -0.01786  0.2016  -0.8814
6.349e+09  0.9057  0.06687  -0.02072  0.009189  0.003551  0.006853  -0.09559  -0.9027
6.35e+09  0.8226  -0.2519  -0.01621  -0.003375  -0.04748  -0.02573  -0.3833  -0.8521
6.351e+09  0.7209  -0.4608  0.007508  0.02857  -0.0002303  -0.001412  -0.705  -0.6453
6.352e+09  0.4688  -0.685  -0.004794  -0.003434  0.04928  -0.03948  -0.8772  -0.366
6.354e+09  0.2616  -0.8059  -0.005212  -0.02687  -0.04254  -0.0407  -0.9649  -0.06505
6.355e+09  -0.1032  -0.8978  -0.0318  0.02368  0.0302  0.0239  -0.8952  0.2626
6.356e+09  -0.3717  -0.7933  0.01282  0.01076  -0.01378  0.01134  -0.7218  0.5689
6.358e+09  -0.6519  -0.5633  -0.00127  0.004781  -0.01634  -6.323e-05  -0.5264  0.7825
6.359e+09  -0.8203  -0.3378  0.04061  -0.0127  -0.003807  0.02552  -0.2296  0.9132
6.36e+09  -0.893  -0.02102  0.0002593  -0.01328  -0.01726  0.02778  0.07983  0.9707
6.361e+09  -0.824  0.2661  0.01148  0.0117  0.004124  0.02304  0.4171  0.8882
6.362e+09  -0.6969  0.5734  -0.005033  0.01032  -0.01024  -0.009563  0.6587  0.679
6.364e+09  -0.4359  0.7413  -0.004312  -0.01935  0.01374  -0.01675  0.8733  0.3785
6.365e+09  -0.1297  0.8087  -0.02146  -0.02624  0.01701  0.004401  0.9431  0.06288
6.366e+09  0.2044  0.8606  0.01164  0.003089  -0.03253  0.005917  0.9311  -0.2343
6.368e+09  0.5035  0.7231  0.01171  0.03157  -0.00359  -0.06252  0.7943  -0.5162
6.369e+09  0.7268  0.5166  -0.01264  -0.01908  -0.001328  -0.009802  0.5055  -0.8026
6.37e+09  0.8272  0.2416  0.01301  0.009545  0.006834  -0.02166  0.2484  -0.905
6.371e+09  0.9379  -0.03741  0.01507  0.03382  0.05019  0.06107  -0.06743  -0.9454
6.372e+09  0.7961  -0.366  -0.02027  -0.01391  0.01687  0.02845  -0.4203  -0.8697
6.374e+09  0.6202  -0.6517  0.00945  0.02768  -0.03483  0.0122  -0.6514  -0.6461
6.375e+09  0.3255  -0.8445  0.03303  -0.001784  -0.009797  0.03209  -0.8604  -0.3878
6.376e+09  0.08518  -0.9256  0.002669  -0.003082  -0.03666  -0.01124  -0.959  -0.1085
6.378e+09  -0.2233  -0.8305  0.03862  -0.03124  -0.006581  -0.01091  -0.9307  0.2419
6.379e+09  -0.5226  -0.6465  0.00272  -0.005414  -0.01584  -0.03775  -0.7603  0.5126
6.38e+09  -0.7076  -0.4332  0.01797  -0.017  -0.0154  0.003667  -0.5469  0.7638
6.381e+09  -0.8383  -0.2626  -0.01857  -0.03463  0.004526  0.02032  -0.2419  0.9278
6.382e+09  -0.9078  0.1505  0.01654  -0.005648  0.0009223  -0.05849  0.05861  0.9731
6.384e+09  -0.8069  0.4245  0.02896  -0.005028  -0.05461  0.006008  0.3946  0.8518
6.385e+09  -0.566  0.6531  -0.02397  -0.0373  -0.05182  0.02828  0.6316  0.6358
6.386e+09  -0.2528  0.8175  0.01032  0.01097  -0.0416  0.004141  0.8544  0.4339
6.388e+09  0.02922  0.9068  0.01255  -0.04308  0.009458  -0.02131  0.8994  0.1252
6.389e+09  0.3354  0.8273  -0.01419  -0.042  -0.01572  0.04738  0.8923  -0.2177
6.39e+09  0.6212  0.6847  0.03522  -0.01965  -0.05411  -0.01666  0.7969  -0.4872
6.391e+09  0.7557  0.436  -0.01299  -0.007001  0.05677  -0.001376  0.5874  -0.7166
6.392e+09  0.8779  0.1447  0.05027  -0.01195  0.02573  -0.01134  0.2612  -0.8515
6.394e+09  0.909  -0.1928  -0.0007305  -0.0003866  -0.007805  0.024  -0.03398  -0.9566
6.395e+09  0.7525  -0.4784  -0.0101  -0.02619  0.02782  0.03291  -0.3467  -0.8328
6.396e+09  0.537  -0.7248  -0.02952  0.0192  0.03207  -0.01657  -0.6156  -0.6524
6.398e+09  0.2505  -0.8401  0.02683  -0.00759  0.0405  -0.02104  -0.8046  -0.4829
6.399e+09  -0.05666  -0.8987  0.003606  0.04308  0.02917  -0.02329  -0.9324  -0.1762
6.4e+09  -0.3395  -0.8329  -0.006953  -0.01262  0.01729  -0.04547  -0.8782  0.1785
6.401e+09  -0.5855  -0.5917  -0.0365  0.01623  -0.009833  0.01734  -0.8217  0.49
6.402e+09  -0.7823  -0.3795  0.01008  -0.008256  0.02914  -0.01659  -0.6107  0.6681
6.404e+09  -0.8889  -0.07547  0.009073  -0.03191  0.04175  0.02907  -0.3218  0.853
6.405e+09  -0.8417  0.2085  0.01568  0.0387  -0.008686  -0.04487  0.01319  0.922
6.406e+09  -0.7204  0.4889  -0.06214  0.02617  -0.0146  0.02557  0.3088  0.861
6.408e+09  -0.5167  0.7074  0.02242  -0.007372  0.02153  -0.006738  0.5922  0.7158
6.409e+09  -0.1916  0.8447  -0.02268  -0.01857  0.01559  0.009131  0.7685  0.4563
6.41e+09  0.1118  0.8438  -0.04857  -0.05421  0.03259  -0.0001401  0.9068  0.1378
6.411e+09  0.4357  0.7565  0.03093  -0.001921  0.006879  0.03306  0.9162  -0.134
6.412e+09  0.6367  0.5339  0.04402  -0.02248  -0.0293  -0.02598  0.8167  -0.4778
6.414e+09  0.8319  0.2965  -0.0409  -0.0117  0.03539  -0.03345  0.5686  -0.6872
6.415e+09  0.9253  0.009906  0.02953  0.00244  -0.006682  -0.0297  0.3325  -0.8049
6.416e+09  0.8099  -0.2499  0.01548  -0.01774  0.001272  0.0103  0.05105  -0.9276
6.418e+09  0.6956  -0.5715  0.04275  -0.01723  -0.005274  -0.0187  -0.2213  -0.8393
6.419e+09  0.4143  -0.7627  0.003764  -0.03457  0.0393  -0.02236  -0.5014  -0.7155
6.42e+09  0.1279  -0.853  -0.003004  -0.03468  -0.006642  0.02505  -0.7582  -0.5267
6.421e+09  -0.1542  -0.8234  -0.009231  0.01922  -0.01243  0.009161  -0.8573  -0.1713
6.422e+09  -0.443  -0.7709  0.01325  -0.01306  -0.003453  0.02924  -0.8747  0.1182
6.424e+09  -0.6813  -0.5411  0.004688  0.008657  0.02488  -0.01991  -0.8299  0.4147
6.425e+09  -0.8389  -0.2893  -0.02689  -0.03765  -0.01538  0.001197  -0.5815  0.6447
6.426e+09  -0.8614  0.009905  0.02796  0.02038  0.0121  -0.002901  -0.3211  0.8121
6.428e+09  -0.8242  0.289  -0.001614  -0.02461  -0.01967  0.01259  -0.08413  0.8604
6.429e+09  -0.6425  0.6167  -0.02755  0.004656  -0.05007  -0.01755  0.2481  0.813
6.43e+09  -0.4479  0.7513  0.02107  0.01553  0.04498  -0.005093  0.4872  0.6731
6.431e+09  -0.08275  0.8503  0.01027  0.04768  -0.01151  0.007489  0.7019  0.4708
6.432e+09  0.1521  0.8267  -0.01124  0.02652  0.0437  -0.03894  0.87  0.1825
6.434e+09  0.4563  0.7379  0.009185  0.01947  -0.01124  0.02332  0.8627  -0.1092
6.435e+09  0.683  0.5184  0.01242  0.01566  0.03702  -0.02837  0.8218  -0.3841
6.436e+09  0.8251  0.3022  0.01027  0.01899  0.0465  0.02904  0.5926  -0.627
6.438e+09  0.8382  -0.03301  0.004313  -0.01566  0.00876  0.01065  0.3061  -0.7499
6.439e+09  0.7708  -0.4028  -0.02119  0.02534  -0.03703  0.03713  0.04272  -0.8307
6.44e+09  0.6042  -0.61  -0.03664  -0.04257  0.04057  0.004027  -0.1852  -0.8161
6.441e+09  0.4097  -0.7749  0.008332  -0.0418  0.01848  -0.036  -0.4677  -0.6662
6.442e+09  0.02959  -0.8458  0.01904  0.01486  0.04316  -0.01404  -0.7188  -0.4745
6.444e+09  -0.2307  -0.8543  0.0309  -0.002664  -0.001064  -0.03007  -0.7933  -0.2169
6.445e+09  -0.476  -0.7517  -0.01817  -0.02257  0.01222  0.01924  -0.85  0.03446
6.446e+09  -0.6833  -0.5021  -0.00729  -0.04403  0.03031  -0.009206  -0.7905  0.3787
6.448e+09  -0.7973  -0.2193  0.0224  0.0324  -0.01332  0.01317  -0.5904  0.6028
6.449e+09  -0.8566  0.04449  0.01715  -0.03498  -0.03001  0.01025  -0.3195  0.7691
6.45e+09  -0.8163  0.3423  0.05419  0.04342  0.00184  -0.007283  -0.07851  0.8398
6.451e+09  -0.6159  0.5894  -0.02184  -0.02058  0.006826  -0.04186  0.2097  0.7625
6.452e+09  -0.3603  0.7789  -0.006454  -0.01979  -0.01948  -0.0336  0.4771  0.6947
6.454e+09  -0.09937  0.9031  -0.01884  0.005892  -0.02647  0.05238  0.6929  0.4527
6.455e+09  0.2067  0.7976  0.03877  0.01202  0.00133  0.02224  0.7953  0.2103
6.456e+09  0.5065  0.7544  0.01062  0.002031  -0.04699  -0.03156  0.8264  -0.07763
6.458e+09  0.6496  0.4663  0.01908  -0.02898  -0.008098  -0.01747  0.7378  -0.3437
6.459e+09  0.8417  0.2189  -0.01595  -0.02481  -0.02894  -0.03804  0.55  -0.5663
6.46e+09  0.8805  -0.07572  0.02501  -0.01683  0.0006109  -0.02492  0.337  -0.7791
6.461e+09  0.7725  -0.3732  -0.02645  -0.03606  -0.006289  0.02707  0.04555  -0.8214
6.462e+09  0.6219  -0.6595  0.008226  -0.01242  -0.04264  0.04618  -0.224  -0.8214
6.464e+09  0.3722  -0.8099  0.03111  -0.01842  0.03176  -0.03373  -0.4769  -0.6594
6.465e+09  0.07173  -0.8677  0.03925  0.02365  0.008816  0.0152  -0.6328  -0.4252
6.466e+09  -0.2651  -0.8349  0.001676  -0.008064  -0.01669  0.0111  -0.7987  -0.2027
6.468e+09  -0.5229  -0.715  0.02428  -0.01511  0.04155  0.03445  -0.8052  0.02944
6.469e+09  -0.7138  -0.5079  -0.002805  0.01898  -0.05319  -0.03217  -0.7159  0.3394
6.47e+09  -0.8954  -0.2068  0.00496  0.01817  0.03498  -0.02608  -0.5545  0.5701
6.471e+09  -0.8581  0.1154  0.004441  -0.02635  0.02287  3.653e-05  -0.3131  0.7055
6.472e+09  -0.7959  0.4412  1.155e-06  0.008294  0.002014  0.006295  -0.04974  0.789
6.474e+09  -0.6017  0.6104  -0.0002128  -0.002348  -0.05434  -0.01257  0.2174  0.7737
6.475e+09  -0.2885  0.7931  0.001193  -0.03011  0.0523  0.01045  0.4766  0.6197
6.476e+09  -0.05898  0.8767  -0.03106  -0.03322  -0.01559  -0.02655  0.6444  0.4347
6.478e+09  0.2478  0.7964  0.01937  0.04232  0.007549  -0.007744  0.7616  0.2052
6.479e+09  0.5153  0.7026  0.02204  0.005873  -0.009505  0.05865  0.7925  -0.09508
6.48e+09  0.7687  0.4809  -0.002666  -0.02199  -0.04014  0.02185  0.6984  -0.3278
6.481e+09  0.832  0.1545  0.005965  0.03402  0.03365  0.01854  0.5473  -0.5822
6.482e+09  0.8516  -0.09111  -0.01627  -0.01084  -0.02988  0.0002494  0.3411  -0.7357
6.484e+09  0.7437  -0.3835  0.01842  -0.02163  0.01631  -0.02154  0.08014  -0.7968
6.485e+09  0.6009  -0.6905  0.01444  0.02667  -0.04082  -0.01361  -0.1856  -0.7652
6.486e+09  0.3516  -0.802  -0.003166  -0.02287  -0.02456  0.01434  -0.4739  -0.5906
6.488e+09  0.04107  -0.9302  0.0187  -0.05006  0.07478  -0.0193  -0.6628  -0.4703
6.489e+09  -0.3013  -0.8608  -0.01153  -0.0342  -0.01323  0.001083  -0.7773  -0.2037
6.49e+09  -0.5366  -0.7  -0.03317  -0.02824  -0.003493  0.007781  -0.736  0.07526
6.491e+09  -0.7396  -0.4586  0.02852  -0.006803  0.02781  -0.001016  -0.6732  0.3175
6.492e+09  -0.8402  -0.1912  -0.03556  -0.004752  -0.01404  0.03203  -0.5518  0.5439
6.494e+09  -0.8578  0.1263  0.04769  -0.01135  0.01485  0.01265  -0.3673  0.6917
6.495e+09  -0.8114  0.3858  -0.005849  0.01249  -0.003768  0.0189  -0.03003  0.7635
6.496e+09  -0.6307  0.6479  -0.002337  -0.009363  0.0315  -0.05775  0.2672  0.7418
6.498e+09  -0.2926  0.8755  -0.002034  -0.01157  -0.00753  -0.05787  0.4781  0.5889
6.499e+09  -0.05251  0.8675  -0.01126  0.02794  -0.01126  0.008974  0.6821  0.4479
6.5e+09  0.2744  0.8699  -0.03942  0.03211  0.01891  0.07499  0.751  0.1667
6.501e+09  0.5385  0.6586  -0.001695  0.0118  -0.02515  0.03405  0.7411  -0.1004
6.502e+09  0.7891  0.502  0.004839  -0.02883  0.04034  -0.004251  0.6878  -0.3607
6.504e+09  0.8851  0.178  -0.04643  -0.03385  -0.06478  0.0306  0.488  -0.5711
6.505e+09  0.8866  -0.1142  0.05218  0.02662  0.02215  -0.0008099  0.2571  -0.6898
6.506e+09  0.762  -0.436  -0.002926  0.01519  0.04473  -0.0451  -0.0147  -0.7338
6.508e+09  0.5775  -0.6758  0.01852  0.01639  -0.02956  -0.02763  -0.2661  -0.7057
6.509e+09  0.3038  -0.8744  0.01278  0.02781  -0.01736  -0.0002377  -0.4647  -0.5649
6.51e+09  0.02741  -0.9456  -0.005227  -0.009565  -0.000957  0.0138  -0.6384  -0.4093
6.511e+09  -0.2981  -0.7996  0.02022  0.01706  -0.01206  0.01387  -0.7669  -0.1414
6.512e+09  -0.6366  -0.6411  -0.02294  -0.01544  -0.0351  0.02148  -0.7183  0.1366
6.514e+09  -0.8186  -0.469  0.01583  -0.02973  -0.01935  0.06109  -0.6741  0.4077
6.515e+09  -0.878  -0.09238  -0.03415  0.0335  0.01616  0.04799  -0.4821  0.544
6.516e+09  -0.9075  0.1983  0.0274  -0.007803  0.03465  -0.02459  -0.2209  0.7031
6.518e+09  -0.7645  0.4647  -0.004416  -0.01201  0.08201  0.01406  0.002725  0.7197
6.519e+09  -0.574  0.7203  -0.02178  -0.001998  0.03704  -0.02184  0.2897  0.6834
6.52e+09  -0.3362  0.9165  -0.008061  0.03042  -0.005453  -0.003658  0.4786  0.5923
6.521e+09  0.02419  0.982  0.03131  -0.01467  -0.02845  -0.04896  0.6237  0.3281
6.522e+09  0.333  0.8666  0.03121  0.007121  0.01638  0.04193  0.7011  0.05059
6.524e+09  0.6101  0.7165  -0.01183  0.003098  0.02069  0.005941  0.7089  -0.1371
6.525e+09  0.8677  0.4264  -0.02956  0.02772  0.01835  -0.006568  0.5432  -0.358
6.526e+09  0.93  0.09781  0.0467  -0.002946  0.01021  0.0146  0.4268  -0.597
6.528e+09  0.9515  -0.2365  0.04118  0.005374  0.0008945  0.023  0.2205  -0.6582
6.529e+09  0.8218  -0.4898  -0.01851  -0.002304  -0.0006018  -0.002504  -0.02183  -0.7145
6.53e+09  0.5567  -0.7741  0.009474  -0.02177  -0.00197  0.02274  -0.296  -0.6376
6.531e+09  0.2484  -0.9086  0.04194  0.04378  0.005101  0.01312  -0.4758  -0.4916
6.532e+09  -0.09459  -0.9658  -0.00233  -0.05788  -0.006048  0.04643  -0.5962  -0.2909
6.534e+09  -0.4187  -0.8518  0.01783  0.0118  -0.0207  -0.02018  -0.6358  -0.06893
6.535e+09  -0.6957  -0.6441  -0.01842  0.03178  -0.05373  -0.01937  -0.6316  0.09302
6.536e+09  -0.8489  -0.3306  -0.008363  0.01974  -0.05464  -0.02392  -0.5907  0.2829
6.538e+09  -0.9516  -0.09852  0.003107  0.02264  -0.019  -0.01668  -0.4439  0.4742
6.539e+09  -0.9001  0.2593  0.01386  0.0395  -0.03681  0.009633  -0.2437  0.6081
6.54e+09  -0.747  0.5875  -0.01407  0.0006143  0.06792  0.0438  -0.07692  0.6633
6.541e+09  -0.5487  0.7576  0.03206  0.006252  -0.02856  -0.01683  0.1942  0.691
6.542e+09  -0.1538  0.9585  0.007388  7.596e-05  0.008037  0.002664  0.392  0.5777
6.544e+09  0.115  0.9036  -0.001716  -0.01945  -0.01796  0.06249  0.5816  0.4035
6.545e+09  0.4878  0.8654  -0.001546  -0.001081  -0.04136  -0.03468  0.7078  0.2146
6.546e+09  0.7367  0.5993  -0.01055  0.007325  0.005056  0.006384  0.6962  -0.09344
6.548e+09  0.9345  0.3212  -0.01632  -0.03279  0.02405  0.0327  0.6577  -0.3453
6.549e+09  0.9512  -0.02545  -0.02186  -0.003263  -0.008779  0.003901  0.4999  -0.5101
6.55e+09  0.8569  -0.3182  0.005704  -0.03244  -0.01625  0.05298  0.2955  -0.6838
