# Hz S RI R 50
6.25e+09  -0.2246  0.8211  0.01279  0.01367  -0.02139  -0.005564  0.1556  0.4861
6.251e+09  0.07084  0.8578  0.01324  0.01452  -0.03558  -0.0259  0.3704  0.4297
6.252e+09  0.3847  0.7436  -0.008774  -0.002123  0.04109  0.003519  0.5363  0.2298
6.254e+09  0.6441  0.6385  0.002318  -0.004432  0.05194  -0.001046  0.6392  0.01962
6.255e+09  0.7839  0.3158  0.01724  0.003276  -0.01691  0.1196  0.61  -0.2315
6.256e+09  0.8943  0.04254  0.0163  0.007732  0.03853  -0.05061  0.5122  -0.4393
6.258e+09  0.8181  -0.2721  -0.0278  -0.03503  -0.01339  -0.01676  0.2707  -0.6034
6.259e+09  0.6474  -0.5522  0.01288  -0.03722  -0.04351  0.00197  0.03213  -0.6713
6.26e+09  0.4899  -0.7069  0.004575  -0.01983  0.03254  0.01297  -0.2302  -0.667
6.261e+09  0.08747  -0.8564  0.00998  0.009699  0.01167  -0.007874  -0.4221  -0.5456
6.262e+09  -0.1613  -0.9012  0.04533  0.01264  -0.002599  0.0009077  -0.6032  -0.3289
6.264e+09  -0.373  -0.7649  -0.01686  0.00359  -0.04273  0.07869  -0.7296  -0.09569
6.265e+09  -0.7014  -0.5929  0.007002  0.01272  -0.03421  0.02054  -0.7231  0.1602
6.266e+09  -0.8147  -0.3293  -0.02595  0.0002545  0.03556  0.01237  -0.6252  0.4115
6.268e+09  -0.8285  -0.07502  0.003542  -0.005149  0.008246  -0.04682  -0.4446  0.5715
6.269e+09  -0.8107  0.2322  -0.02027  -0.01435  -0.007378  0.001701  -0.2102  0.7319
6.27e+09  -0.6733  0.5644  -0.005917  0.01206  -0.04603  0.02264  0.05786  0.7239
6.271e+09  -0.397  0.7112  -0.007713  0.005376  0.01548  -0.03702  0.34  0.6609
6.272e+09  -0.128  0.814  0.0119  0.01233  -0.006288  0.02105  0.5567  0.5154
6.274e+09  0.1378  0.8221  0.01224  -0.02255  0.01706  0.05568  0.707  0.2878
6.275e+09  0.4308  0.7712  0.01126  -0.01089  0.06037  0.04294  0.7591  0.01793
6.276e+09  0.6344  0.5539  0.006534  0.003469  -0.005801  -0.02604  0.7428  -0.2417
6.278e+09  0.8162  0.3074  -0.01678  0.007846  0.07663  -0.002361  0.6086  -0.459
6.279e+09  0.8307  0.02795  -0.01605  -0.001962  -0.01673  0.02982  0.4396  -0.6797
6.28e+09  0.7604  -0.3142  -0.02324  -0.007288  0.07761  0.02353  0.1777  -0.7527
6.281e+09  0.681  -0.5364  -0.009054  -0.04107  0.02194  0.01962  -0.1027  -0.7671
6.282e+09  0.4159  -0.6817  -0.007872  0.007909  -0.006962  0.01074  -0.381  -0.7053
6.284e+09  0.1124  -0.766  0.003194  -0.01664  0.00755  -0.009889  -0.5652  -0.5548
6.285e+09  -0.1749  -0.8669  -0.0125  -0.02427  0.03283  -0.03179  -0.7193  -0.3011
6.286e+09  -0.4626  -0.7402  0.0298  0.0006224  -0.008255  0.006879  -0.7994  -0.02111
6.288e+09  -0.6177  -0.4845  -0.005606  -0.01341  0.05207  -0.05878  -0.7525  0.2267
6.289e+09  -0.7965  -0.257  0.009802  0.02924  0.03573  -0.01957  -0.6132  0.5456
6.29e+09  -0.8426  0.06723  -0.01249  -0.000779  0.01672  -0.001313  -0.4235  0.6863
6.291e+09  -0.8112  0.3903  0.02069  -0.01578  0.04866  0.04043  -0.1533  0.8046
6.292e+09  -0.628  0.572  0.006399  -0.01392  0.01421  -0.03871  0.1053  0.7939
6.294e+09  -0.3901  0.6905  -0.005751  -0.002227  0.03451  0.02878  0.3833  0.6956
6.295e+09  -0.06681  0.8599  -0.0003282  -0.0101  -0.02043  0.0546  0.6475  0.5362
6.296e+09  0.2724  0.8685  -0.005127  -0.02157  0.009238  0.03089  0.7854  0.2993
6.298e+09  0.4891  0.7128  0.003315  -0.00766  -0.02778  -0.02253  0.8444  -0.02964
6.299e+09  0.6957  0.4747  0.01641  0.01102  -0.006576  -0.03257  0.7885  -0.276
6.3e+09  0.7768  0.2142  -0.003626  -0.01935  -0.02846  -0.02409  0.6454  -0.5222
6.301e+09  0.8697  -0.08587  -0.01338  -0.03243  -0.02672  0.0466  0.4164  -0.7389
6.302e+09  0.7709  -0.3619  -0.005706  0.01494  0.02511  0.04003  0.1715  -0.8091
6.304e+09  0.6096  -0.581  -0.01626  0.002641  -0.05172  0.03294  -0.1423  -0.8357
6.305e+09  0.3915  -0.7348  -0.01024  -0.004704  -0.01722  0.03063  -0.4262  -0.7101
6.306e+09  0.04117  -0.81  -0.03301  0.00314  0.04241  -0.01689  -0.6334  -0.5455
6.308e+09  -0.214  -0.7906  0.003837  0.04152  0.03644  0.02738  -0.8193  -0.3136
6.309e+09  -0.4598  -0.6885  0.003612  0.001817  0.02361  0.003214  -0.8322  -0.01455
6.31e+09  -0.6107  -0.4972  -0.008728  0.004715  0.0172  -0.03238  -0.8285  0.2904
6.311e+09  -0.8091  -0.194  0.01104  -0.03087  -0.01105  -0.00224  -0.6757  0.5392
6.312e+09  -0.8964  0.1203  0.01056  0.001731  -0.05902  0.01129  -0.4324  0.7334
6.314e+09  -0.7352  0.4229  -0.02051  -0.005463  0.03078  0.01641  -0.1651  0.8662
6.315e+09  -0.5442  0.6106  0.05336  -0.001561  -0.02352  0.002771  0.1267  0.8643
6.316e+09  -0.306  0.8048  0.002871  -0.003112  0.001787  -0.03442  0.4178  0.8122
6.318e+09  0.002508  0.8591  -0.02857  0.002698  0.00339  0.08606  0.647  0.5581
6.319e+09  0.2641  0.8188  -0.0233  0.00289  -0.0241  -0.0543  0.8317  0.3077
6.32e+09  0.5418  0.6963  0.00444  -0.01004  -0.02799  -0.0283  0.8969  -0.02538
6.321e+09  0.7584  0.4461  -0.004203  0.02018  -0.02142  -0.02837  0.8122  -0.2867
6.322e+09  0.847  0.2051  -0.01887  0.001823  -0.02795  0.02586  0.697  -0.5674
6.324e+09  0.8239  -0.09571  -0.009484  0.02498  0.01243  -0.01322  0.4802  -0.7745
6.325e+09  0.7428  -0.4664  0.004006  -0.001016  -0.04037  -0.03671  0.1611  -0.8887
6.326e+09  0.5471  -0.6812  0.01063  0.03086  0.005596  0.005507  -0.1563  -0.9052
6.328e+09  0.2597  -0.8339  -0.001456  0.03036  0.02314  -0.008761  -0.4446  -0.7974
6.329e+09  0.01448  -0.8818  0.02954  0.004723  0.03993  0.007195  -0.7066  -0.6043
6.33e+09  -0.3275  -0.8284  0.005674  0.01709  0.01219  0.009782  -0.8613  -0.3069
6.331e+09  -0.6049  -0.6583  -0.01254  0.007704  0.02596  -0.01497  -0.9125  -0.01777
6.332e+09  -0.8312  -0.3757  0.04829  -0.008695  -0.03494  0.005315  -0.854  0.2928
6.334e+09  -0.8758  -0.1158  0.01205  -0.04038  -0.01693  -0.01657  -0.7153  0.5802
6.335e+09  -0.8161  0.2505  0.02094  -0.01455  -0.0312  0.01861  -0.4493  0.7932
6.336e+09  -0.7535  0.4899  0.005411  0.006414  -0.02064  -0.0296  -0.1976  0.8902
6.338e+09  -0.5325  0.6916  -0.02281  0.01075  -0.03813  -0.0003923  0.09944  0.9413
6.339e+09  -0.2037  0.8419  -0.02337  0.01346  0.04927  0.02613  0.4197  0.8206
6.34e+09  0.06644  0.8767  0.03082  -0.01553  -0.03215  -0.02924  0.7026  0.6239
6.341e+09  0.3235  0.7835  -0.003303  -0.02036  -0.03355  -0.02382  0.8581  0.342
6.342e+09  0.6932  0.5949  0.004774  -0.003787  0.0275  -0.02573  0.9411  0.03467
6.344e+09  0.8339  0.358  -0.004351  -0.01662  -0.0293  -0.001194  0.8799  -0.2737
6.345e+09  0.8729  0.05668  0.003107  -0.02123  -0.01191  -0.01449  0.7298  -0.5587
6.346e+09  0.8555  -0.2561  0.01094  0.01552  -0.04695  -0.0003838  0.5318  -0.8159
6.348e+09  0.7287  -0.5476  -0.02403  0.000835  -0.03027  -0.01286  0.1933  -0.9102
6.349e+09  0.4908  -0.78  -0.003377  0.003241  0.03626  0.004793  -0.07432  -0.921
6.35e+09  0.1545  -0.899  -0.03385  -0.001102  0.03133  0.0174  -0.4221  -0.8199
6.351e+09  -0.1562  -0.848  0.00875  0.04092  -0.04566  -0.03477  -0.644  -0.6404
6.352e+09  -0.4092  -0.6972  -0.01483  -0.01176  -0.01699  0.02496  -0.8495  -0.3536
6.354e+09  -0.6301  -0.5983  -0.003279  0.007628  -0.008055  -0.005641  -0.9588  -0.07361
6.355e+09  -0.8377  -0.2925  -0.02491  0.04345  -0.001821  0.0004076  -0.8795  0.2358
6.356e+09  -0.8755  0.008253  -0.003375  0.04214  -0.01873  -0.0131  -0.7763  0.5666
6.358e+09  -0.8767  0.3414  -0.004286  0.008342  0.02475  -0.05851  -0.4965  0.808
6.359e+09  -0.6891  0.597  -0.02113  0.007874  -0.04964  -0.006474  -0.2439  0.8887
6.36e+09  -0.4094  0.8065  0.004596  0.01316  0.02982  0.003743  0.1034  0.9695
6.361e+09  -0.1159  0.9145  -0.002661  0.01021  -0.0338  0.02319  0.4504  0.8298
6.362e+09  0.1643  0.8985  0.0333  -0.01789  0.01759  0.01403  0.6171  0.6763
6.364e+09  0.4969  0.7561  -0.04542  0.03726  0.005551  0.001127  0.8382  0.3956
6.365e+09  0.7502  0.5425  -0.01007  -0.009157  0.04095  0.01482  0.947  0.07628
6.366e+09  0.8953  0.2662  -0.01859  -0.02537  -0.000695  -0.02858  0.9268  -0.2692
6.368e+09  0.8748  -0.05145  -0.01037  0.03271  -0.004107  -0.01683  0.7606  -0.5332
6.369e+09  0.7893  -0.4099  -0.004251  -0.02935  0.009341  0.003325  0.5308  -0.7415
6.37e+09  0.6274  -0.6348  0.05012  -0.03154  0.01174  0.01688  0.2731  -0.9013
6.371e+09  0.3804  -0.7965  -0.01372  -0.006737  0.01681  0.003129  -0.08799  -0.9624
6.372e+09  0.04242  -0.8855  -0.02406  0.04633  -0.01478  -0.01736  -0.4287  -0.8597
6.374e+09  -0.2675  -0.8461  0.0282  0.01447  0.03172  0.0308  -0.6522  -0.675
6.375e+09  -0.5502  -0.7163  -0.0334  0.01099  0.01651  -0.03085  -0.8368  -0.4193
6.376e+09  -0.7643  -0.4944  0.0279  0.01545  0.02251  0.04947  -0.9372  -0.08463
6.378e+09  -0.8686  -0.2559  0.03114  -0.008559  0.01522  -0.008774  -0.924  0.2168
6.379e+09  -0.8934  0.1062  -0.007821  -0.01203  -0.01415  0.02797  -0.756  0.5369
6.38e+09  -0.8243  0.4019  -0.001444  0.03753  -0.01243  0.004037  -0.5548  0.7252
6.381e+09  -0.6268  0.6854  -0.008318  -0.02154  -0.0578  -0.01512  -0.2756  0.8818
6.382e+09  -0.337  0.8128  -0.008845  0.004741  -0.01581  -0.01248  0.07906  0.9657
6.384e+09  -0.05415  0.9059  -0.001244  0.03843  0.003625  0.018  0.4143  0.8499
6.385e+09  0.2919  0.8505  0.04786  0.02983  -0.03956  -0.02384  0.6326  0.6457
6.386e+09  0.5202  0.665  0.000812  0.01594  -0.02472  -0.03541  0.822  0.4311
6.388e+09  0.7996  0.4316  -0.03958  0.02276  -0.03517  -0.0454  0.913  0.1273
6.389e+09  0.8196  0.15  -0.01601  -0.03646  -0.01193  -0.01702  0.917  -0.21
6.39e+09  0.9179  -0.09073  0.06058  0.02019  -0.01735  -0.009707  0.7901  -0.5418
6.391e+09  0.7662  -0.3974  0.007717  -0.02706  -0.006597  0.006345  0.5718  -0.7465
6.392e+09  0.5724  -0.7169  0.02956  -0.006094  -0.004876  -0.00948  0.2978  -0.8571
6.394e+09  0.3138  -0.8297  0.03212  0.002292  0.003887  0.02574  -0.007037  -0.9298
6.395e+09  -0.009091  -0.9038  0.01009  0.03313  -0.03485  0.02939  -0.3598  -0.885
6.396e+09  -0.2873  -0.8516  0.004365  0.003588  -0.04663  0.01357  -0.6067  -0.6522
6.398e+09  -0.5873  -0.7454  0.003  -0.02492  0.01979  -0.01194  -0.8157  -0.4507
6.399e+09  -0.7593  -0.4642  0.02264  -0.01627  -0.01352  0.02436  -0.8952  -0.1535
6.4e+09  -0.8815  -0.16  -0.004702  -0.008068  0.008813  -0.03401  -0.8339  0.1238
6.401e+09  -0.9021  0.1692  0.007229  -0.0121  0.02045  -0.00438  -0.8308  0.456
6.402e+09  -0.7679  0.4687  -0.008242  -0.01366  -0.01857  -0.01598  -0.5677  0.6993
6.404e+09  -0.566  0.6762  0.0164  -0.02401  -0.00876  -0.005791  -0.299  0.8999
6.405e+09  -0.3159  0.8386  -0.006501  -0.02615  0.003734  -0.03304  0.003165  0.9179
6.406e+09  0.03244  0.883  0.02169  -0.0001792  -0.007063  -0.003089  0.3128  0.8739
6.408e+09  0.3013  0.8145  0.01137  -0.0156  -0.03038  -0.04403  0.5729  0.6974
6.409e+09  0.5768  0.6654  -0.04416  0.00408  -0.02729  0.007515  0.7682  0.4794
6.41e+09  0.7532  0.3678  0.007768  -0.02494  -0.04306  -0.01143  0.899  0.1545
6.411e+09  0.8665  0.1263  -0.02293  0.01777  -0.03776  0.03184  0.8702  -0.123
6.412e+09  0.8257  -0.1798  0.02562  0.01153  -0.02048  0.02428  0.8126  -0.488
6.414e+09  0.7883  -0.4865  -0.003018  -0.01025  0.01248  0.03001  0.5782  -0.7143
6.415e+09  0.4957  -0.7304  -0.007944  -0.05109  -0.04102  0.003072  0.3395  -0.8124
6.416e+09  0.304  -0.8479  0.01193  0.02126  0.05636  0.005748  0.04901  -0.9075
6.418e+09  -0.06421  -0.9291  -0.009502  -0.02528  -0.01696  6.499e-05  -0.301  -0.8211
6.419e+09  -0.3291  -0.8619  -0.004174  0.005806  -0.02483  0.03144  -0.5545  -0.6791
6.42e+09  -0.6453  -0.6472  0.03636  0.06923  0.002318  -0.01487  -0.7273  -0.4869
6.421e+09  -0.8349  -0.4323  0.02355  0.01775  -0.004576  0.01335  -0.858  -0.1992
6.422e+09  -0.8683  -0.07208  0.003025  0.02296  -0.02363  -0.005545  -0.9003  0.07361
6.424e+09  -0.8805  0.1872  -0.06116  -0.01121  -0.01458  0.01869  -0.7938  0.4569
6.425e+09  -0.7215  0.4639  -0.02683  -0.0129  0.04786  -0.02292  -0.5799  0.6494
6.426e+09  -0.5465  0.716  -0.01669  -0.06659  0.01863  -0.007156  -0.3332  0.76
6.428e+09  -0.2573  0.9035  0.02232  -0.0102  -0.04442  -0.00423  -0.06167  0.8458
6.429e+09  0.07069  0.948  0.008611  0.0169  -0.003998  -0.03713  0.2347  0.8623
6.43e+09  0.3249  0.869  -0.01766  0.03255  0.03282  0.03985  0.5646  0.7499
6.431e+09  0.6225  0.6431  -0.01882  0.004065  0.01397  -0.009845  0.7018  0.4988
6.432e+09  0.817  0.4214  -0.00764  0.02596  -0.02558  0.01244  0.8416  0.2202
6.434e+09  0.9086  0.1047  0.00483  0.006373  0.02659  -0.0006008  0.8158  -0.05415
6.435e+09  0.8378  -0.2627  -0.01192  0.008227  0.02469  -0.0198  0.7933  -0.4053
6.436e+09  0.7405  -0.539  0.004791  -0.004632  -0.002268  0.04104  0.6089  -0.5955
6.438e+09  0.5215  -0.7631  0.01765  -0.04305  0.05811  -0.03524  0.3744  -0.8182
6.439e+09  0.2236  -0.8725  0.02713  0.005171  0.005549  0.0003919  0.06519  -0.8542
6.44e+09  -0.06859  -0.9526  -0.003869  0.03806  0.03693  -0.01101  -0.1949  -0.8072
6.441e+09  -0.3836  -0.7974  -0.01498  -0.01097  0.003627  -0.00599  -0.5315  -0.6794
6.442e+09  -0.622  -0.6195  -0.003795  0.0195  -0.02097  0.01837  -0.7205  -0.4809
6.444e+09  -0.7915  -0.3599  -0.02466  0.02576  0.01187  0.002239  -0.8201  -0.1941
6.445e+09  -0.9422  -0.1049  0.03687  -0.004165  0.03873  -0.01666  -0.8637  0.027
6.446e+09  -0.8476  0.2355  -0.0231  -0.0265  -0.004737  0.03502  -0.7745  0.3489
6.448e+09  -0.7616  0.5032  0.01612  0.002248  0.03989  0.006737  -0.5983  0.6105
6.449e+09  -0.5187  0.76  -0.04839  0.02075  0.04867  -0.01585  -0.3363  0.8317
6.45e+09  -0.2212  0.8711  0.004948  0.03253  -0.01557  -0.05218  -0.03296  0.8283
6.451e+09  0.08377  0.9609  -0.008748  0.002471  -0.02175  -0.08178  0.2381  0.8046
6.452e+09  0.3717  0.8798  -0.03334  -0.0009631  0.02296  -0.009578  0.4434  0.7
6.454e+09  0.6588  0.6349  0.03165  0.03939  0.0023  -0.01443  0.7129  0.4153
6.455e+09  0.827  0.3814  0.00816  0.02816  0.01356  -0.01889  0.7994  0.2202
6.456e+09  0.9405  0.05402  -0.02333  0.03173  -0.04061  0.01134  0.8138  -0.07155
6.458e+09  0.8049  -0.2507  0.006092  -0.02279  0.02693  -0.01241  0.7326  -0.3318
6.459e+09  0.7404  -0.514  -0.006715  -0.01105  -0.03242  -0.007174  0.6146  -0.6081
6.46e+09  0.5068  -0.779  0.04343  0.01002  0.05617  -0.03529  0.3508  -0.7357
6.461e+09  0.2099  -0.8563  -0.02234  0.01365  -0.03165  -0.01884  0.04984  -0.8132
6.462e+09  -0.07526  -0.901  -0.01489  -0.01626  -0.02591  0.000866  -0.2223  -0.7472
6.464e+09  -0.3881  -0.843  0.04141  -0.008711  -0.01092  0.0189  -0.5294  -0.6164
6.465e+09  -0.6379  -0.6279  -0.01577  -0.00377  -0.01913  0.0345  -0.6619  -0.436
6.466e+09  -0.8482  -0.3694  -0.00226  -0.0373  -0.01655  0.02254  -0.7788  -0.1998
6.468e+09  -0.9405  -0.03727  -0.01834  0.001002  -0.005641  0.02375  -0.7989  0.08615
6.469e+09  -0.8621  0.226  -0.006562  -0.02231  -0.01257  -0.005567  -0.7513  0.3594
6.47e+09  -0.78  0.5481  0.05691  -0.0133  -0.0003355  -0.011  -0.5543  0.5512
6.471e+09  -0.5175  0.7789  -0.03614  -0.0209  0.02002  0.02035  -0.3349  0.7335
6.472e+09  -0.2049  0.9686  -0.003969  -0.02372  0.01492  -0.02716  -0.05666  0.7802
6.474e+09  0.1731  0.8883  -0.02271  -0.03066  0.0556  -0.008577  0.1999  0.776
6.475e+09  0.4481  0.8169  -0.02167  -0.02551  0.03321  0.03493  0.4465  0.645
6.476e+09  0.7386  0.5965  -0.01616  0.02522  0.04736  0.01547  0.6681  0.437
6.478e+09  0.8967  0.3404  -0.04878  -0.01548  -0.02006  -0.01038  0.8072  0.199
6.479e+09  0.9194  0.02678  0.006374  0.01352  -0.002503  -0.005821  0.7751  -0.08515
6.48e+09  0.8659  -0.282  -0.0001806  0.005947  -0.01546  -0.05837  0.7319  -0.3869
6.481e+09  0.7038  -0.6074  0.01165  -0.01582  0.02862  0.02418  0.4927  -0.5744
6.482e+09  0.4583  -0.7679  -0.02542  0.01269  0.02822  -0.01342  0.3419  -0.736
6.484e+09  0.163  -0.9531  0.002545  0.001405  0.004472  0.0009058  0.08663  -0.7597
6.485e+09  -0.1425  -0.9175  -0.02233  0.03713  0.001993  -0.0558  -0.2351  -0.7804
6.486e+09  -0.4715  -0.7831  0.01667  0.01335  0.01473  -0.02375  -0.4739  -0.643
6.488e+09  -0.756  -0.568  -0.03687  -0.01472  0.0188  -0.06916  -0.6197  -0.4911
6.489e+09  -0.8689  -0.2839  -0.01436  -0.01655  0.01674  0.04183  -0.7535  -0.1889
6.49e+09  -1.003  -0.001439  -0.01873  0.009946  -0.05181  0.001839  -0.743  0.09499
6.491e+09  -0.882  0.3604  0.004821  -0.006276  -0.02668  -0.01916  -0.6968  0.3669
6.492e+09  -0.6944  0.612  -0.02168  -0.001174  0.03697  0.001596  -0.5122  0.5625
6.494e+09  -0.409  0.8383  -0.01309  -0.01604  -0.0412  0.00976  -0.3209  0.6672
6.495e+09  -0.1202  0.9097  0.02447  -0.01234  -0.01875  0.02098  -0.02765  0.8392
6.496e+09  0.1677  0.9108  0.006948  -0.006211  -0.05021  0.006695  0.232  0.7557
6.498e+09  0.5455  0.7856  -0.01962  0.002563  -0.02804  0.03418  0.5237  0.6073
6.499e+09  0.7862  0.5469  0.04723  -0.01301  -0.03773  0.0341  0.6085  0.4084
6.5e+09  0.9023  0.2369  -0.0253  -0.03185  0.002735  0.02838  0.7857  0.1608
6.501e+09  0.87  -0.09802  -0.01223  0.02128  0.000265  0.004183  0.7795  -0.07315
6.502e+09  0.8398  -0.4132  -0.05034  0.003852  -0.02484  0.03959  0.6455  -0.3489
6.504e+09  0.6764  -0.6647  0.02665  0.03461  0.001112  0.02498  0.5035  -0.5032
6.505e+09  0.3988  -0.8503  0.01454  0.008559  0.05983  0.02108  0.2712  -0.69
6.506e+09  0.02233  -0.9717  -0.02186  -0.01396  -0.02248  -0.02404  0.00853  -0.7856
6.508e+09  -0.2567  -0.9357  -0.02483  -0.01504  0.00963  -0.06094  -0.2361  -0.6976
6.509e+09  -0.5769  -0.8194  0.0005526  0.007888  0.002216  0.009824  -0.4704  -0.6
6.51e+09  -0.8289  -0.4973  0.009446  -0.04762  0.01414  -0.02233  -0.6764  -0.3836
6.511e+09  -0.9755  -0.1952  -0.00218  -0.0116  0.02195  -0.02584  -0.727  -0.1141
6.512e+09  -0.9056  0.1716  -0.03029  0.002119  0.01533  -0.004567  -0.7527  0.1207
6.514e+09  -0.857  0.442  -0.02008  0.02758  0.0159  -0.02508  -0.6384  0.4004
6.515e+09  -0.6204  0.6847  -0.01467  -0.01239  -0.01501  0.005141  -0.4961  0.5857
6.516e+09  -0.3734  0.9065  -0.02528  0.0118  -0.01418  0.03171  -0.2158  0.7025
6.518e+09  -0.0006666  0.9789  -0.0139  0.002994  0.03716  0.03462  0.02689  0.7754
6.519e+09  0.343  0.9084  0.0265  -0.007775  -0.0217  -0.006881  0.2916  0.7306
6.52e+09  0.6736  0.7186  -0.01502  -0.01237  -0.0116  0.01084  0.4703  0.5265
6.521e+09  0.8832  0.4828  0.02487  0.01896  0.009466  -0.009178  0.6302  0.353
6.522e+09  0.9565  0.1436  -0.008962  -0.03304  0.02196  -0.006049  0.7002  0.1065
6.524e+09  0.9718  -0.1893  0.01095  -0.01407  -0.007977  0.02424  0.6991  -0.1604
6.525e+09  0.8258  -0.5453  -0.0006835  -0.01681  -0.0005482  -0.003005  0.5995  -0.4132
6.526e+09  0.6183  -0.7706  -0.006622  -0.01724  0.04253  0.01086  0.448  -0.5409
6.528e+09  0.3737  -0.9282  -0.005859  -0.005222  0.02912  -0.01937  0.1802  -0.671
6.529e+09  -0.06108  -0.9716  0.006095  -0.003974  0.02541  0.002085  -0.04691  -0.6891
6.53e+09  -0.4257  -0.8758  -0.008627  0.000714  -0.01419  0.05481  -0.3029  -0.6001
6.531e+09  -0.6864  -0.6651  -0.003207  0.01135  -0.02809  -0.04876  -0.4789  -0.4565
6.532e+09  -0.8019  -0.3408  -0.03221  -0.002061  0.02235  0.003896  -0.6077  -0.2777
6.534e+09  -0.9551  -0.1028  0.04206  -0.008913  -0.01861  -0.07694  -0.6415  -0.08434
6.535e+09  -0.9671  0.2746  0.01883  0.01122  -0.02768  0.001201  -0.6391  0.1078
6.536e+09  -0.7567  0.5879  -0.02091  -0.02541  -0.0679  0.005927  -0.5806  0.3062
6.538e+09  -0.5479  0.7873  0.01856  0.05343  0.0009901  -0.0576  -0.4401  0.4851
6.539e+09  -0.2385  0.9832  0.02632  0.007302  0.02563  0.008142  -0.3022  0.6199
6.54e+09  0.1977  0.961  0.009054  -0.007389  -0.01085  -0.008995  -0.05128  0.7019
6.541e+09  0.4671  0.8291  -0.01447  -0.04797  -0.02923  0.01833  0.1951  0.6831
6.542e+09  0.7226  0.6207  0.03705  0.005847  0.01498  0.00593  0.4031  0.6022
6.544e+09  0.927  0.2722  -0.02429  0.01767  -0.007797  -0.03455  0.5898  0.3801
6.545e+09  0.9677  -0.05156  -0.01352  -0.03519  -0.04698  -0.009476  0.7013  0.1925
6.546e+09  0.9121  -0.3586  0.01296  -0.01215  -0.02786  -0.04094  0.7404  -0.09298
6.548e+09  0.7585  -0.6001  -0.01288  -0.01998  -0.0384  -0.01867  0.629  -0.3285
6.549e+09  0.4282  -0.8502  -0.01197  0.01547  -0.01957  -0.004054  0.5128  -0.5633
6.55e+09  0.1286  -0.8925  -0.02683  -0.0004937  0.0135  0.002458  0.2957  -0.6882
