# Hz S RI R 50
6.25e+09  -0.6547  -0.5674  0.004075  -0.00514  0.0114  0.01018  0.1789  0.4214
6.251e+09  -0.7898  -0.2961  -0.009627  0.01098  -0.07809  0.01087  0.3987  0.3738
6.252e+09  -0.8239  -0.03375  0.01069  -0.02851  0.01674  0.01134  0.5128  0.2506
6.254e+09  -0.7203  0.3284  0.02836  0.01072  0.0289  0.03234  0.6076  0.04002
6.255e+09  -0.6055  0.519  -0.024  -0.01423  -0.03826  0.0267  0.5798  -0.2391
6.256e+09  -0.4279  0.7006  0.02672  0.04134  0.01473  0.03465  0.4904  -0.4712
6.258e+09  -0.1206  0.8466  -0.01459  0.01603  0.005014  -0.003239  0.2746  -0.622
6.259e+09  0.2102  0.7801  0.01237  -0.01542  -0.01019  0.03308  0.06557  -0.6711
6.26e+09  0.4551  0.6326  -0.004234  -0.019  -0.01713  0.02141  -0.2214  -0.6506
6.261e+09  0.6151  0.4947  -0.0007296  0.009042  0.007086  0.0501  -0.4496  -0.5805
6.262e+09  0.7914  0.2253  0.009253  0.003185  -0.01962  -0.07429  -0.6376  -0.3658
6.264e+09  0.8078  -0.1067  -0.01625  0.04173  -0.02381  0.0148  -0.7122  -0.08957
6.265e+09  0.7342  -0.2543  -0.01445  0.009536  -0.03942  0.01691  -0.6855  0.1465
6.266e+09  0.5495  -0.5596  0.01169  -0.004385  -0.004477  0.01042  -0.629  0.3858
6.268e+09  0.35  -0.7535  0.009834  0.004701  -0.05945  -0.005935  -0.4377  0.6097
6.269e+09  0.01081  -0.7577  -0.006223  0.0186  -0.03175  -0.0193  -0.2171  0.6903
6.27e+09  -0.2271  -0.7315  0.01113  0.0262  0.02338  -0.0152  0.07691  0.751
6.271e+09  -0.4797  -0.6933  0.01685  0.009733  0.02728  0.02995  0.3266  0.6696
6.272e+09  -0.5999  -0.4277  0.001007  -0.005687  -0.02358  -0.02591  0.5575  0.5289
6.274e+09  -0.7686  -0.2135  0.01798  -0.02335  0.02969  -0.04406  0.7124  0.3082
6.275e+09  -0.8025  0.1223  -0.007888  0.006219  0.06319  0.009179  0.7737  0.03825
6.276e+09  -0.7139  0.3428  -0.00634  0.02296  0.01878  -0.007912  0.7293  -0.2182
6.278e+09  -0.5483  0.6442  -0.0009731  0.007822  0.003429  -0.03326  0.5879  -0.4528
6.279e+09  -0.3146  0.7603  0.01484  0.02818  0.01611  -0.02839  0.4346  -0.6703
6.28e+09  -0.05998  0.8133  -0.01216  -0.01683  0.03414  0.05972  0.1615  -0.7688
6.281e+09  0.3217  0.7901  0.02396  0.02033  0.05477  -0.00433  -0.1031  -0.7497
6.282e+09  0.5223  0.6192  -0.0328  -0.0135  -0.006446  -0.01712  -0.3643  -0.7116
6.284e+09  0.7193  0.4202  0.008851  0.02145  0.0124  -0.03763  -0.6013  -0.4902
6.285e+09  0.834  0.1374  0.02053  0.006473  -0.02514  0.0104  -0.7521  -0.298
6.286e+09  0.7526  -0.2181  0.01787  -0.003611  0.01707  0.009164  -0.7802  -0.02167
6.288e+09  0.6909  -0.4268  0.004695  -0.02246  0.01956  0.01733  -0.7616  0.1997
6.289e+09  0.4545  -0.5668  0.002527  -0.02719  -0.04755  -0.001776  -0.624  0.4927
6.29e+09  0.2253  -0.8008  -0.007584  0.01254  0.02156  -0.03555  -0.4243  0.6633
6.291e+09  -0.04204  -0.7975  0.02811  0.0079  -0.02028  -0.007443  -0.1576  0.7713
6.292e+09  -0.3357  -0.7175  0.03102  0.01614  0.04788  -0.02187  0.1286  0.778
6.294e+09  -0.5757  -0.6038  0.04394  -0.004217  -0.003136  -0.05339  0.3965  0.7016
6.295e+09  -0.7101  -0.3453  -0.006201  0.009049  0.01381  0.02982  0.6189  0.5399
6.296e+09  -0.8128  -0.01402  0.02956  0.01714  -0.01259  -0.01944  0.7637  0.2911
6.298e+09  -0.768  0.1836  -0.01915  -0.00485  0.03607  0.001096  0.8356  -0.006008
6.299e+09  -0.6423  0.4596  -0.001214  0.02894  -0.05799  -0.01406  0.7878  -0.2379
6.3e+09  -0.4659  0.6843  -0.01374  0.009148  -2.469e-05  -0.03932  0.65  -0.5316
6.301e+09  -0.1729  0.8066  -0.02745  0.006502  0.001722  -0.02509  0.4281  -0.7225
6.302e+09  0.1146  0.8108  0.006065  -0.01842  0.002565  -0.007484  0.162  -0.858
6.304e+09  0.3901  0.748  -0.01328  -0.009425  -0.03675  0.03443  -0.139  -0.8503
6.305e+09  0.6051  0.5206  0.0008387  -0.005106  -0.03394  -0.02406  -0.4372  -0.745
6.306e+09  0.7857  0.3186  -0.03098  -0.0336  -0.008953  0.0204  -0.6269  -0.5639
6.308e+09  0.7819  0.04656  -0.01885  -0.03905  0.03445  -0.03129  -0.8088  -0.3005
6.309e+09  0.8279  -0.2779  0.008552  0.01642  -0.01378  0.05188  -0.8719  0.0008343
6.31e+09  0.6196  -0.4738  0.008912  0.01029  0.05153  -0.001255  -0.8469  0.3117
6.311e+09  0.3626  -0.7169  0.0196  -0.003787  0.02655  0.005929  -0.6654  0.5703
6.312e+09  0.1149  -0.8017  0.02296  0.04678  0.0277  -0.01118  -0.4681  0.7761
6.314e+09  -0.1678  -0.7962  0.02091  -0.01287  0.04062  0.03313  -0.1358  0.8925
6.315e+09  -0.4226  -0.7165  -0.01421  -0.008175  -0.01151  0.01533  0.1353  0.8865
6.316e+09  -0.6135  -0.5378  -0.001325  0.006168  0.02501  0.03773  0.4195  0.7557
6.318e+09  -0.7371  -0.2394  -0.03582  -0.0009247  -0.03918  0.05244  0.6761  0.5667
6.319e+09  -0.8575  -0.01883  -0.02409  -0.01394  0.04654  -0.0479  0.8217  0.3183
6.32e+09  -0.7452  0.2832  0.02166  0.01483  0.0401  -0.03809  0.8816  -0.0005409
6.321e+09  -0.5952  0.5601  -0.007306  -0.0117  -0.01447  -0.009546  0.8261  -0.271
6.322e+09  -0.3728  0.6678  0.01865  0.008949  0.003064  -0.02171  0.7084  -0.5408
6.324e+09  -0.06702  0.8234  -0.003989  0.01074  -0.02523  0.03937  0.448  -0.7692
6.325e+09  0.2068  0.8306  0.0154  -0.01362  0.008722  0.001653  0.1818  -0.9093
6.326e+09  0.48  0.6842  -0.007386  0.0192  -0.02217  -0.05113  -0.1221  -0.889
6.328e+09  0.6714  0.5104  0.002243  0.002592  -0.06847  -0.007116  -0.4706  -0.7973
6.329e+09  0.8319  0.2003  0.01098  0.007181  -0.03964  -0.009657  -0.6937  -0.5935
6.33e+09  0.7909  -0.1162  0.02618  0.03156  0.03885  0.05507  -0.8642  -0.3263
6.331e+09  0.7767  -0.3967  -0.009474  -0.008408  -0.02938  -0.01043  -0.9316  -0.02785
6.332e+09  0.5649  -0.6309  0.01381  -0.001357  -0.01548  0.04317  -0.8721  0.3177
6.334e+09  0.3399  -0.7441  -0.007557  0.002868  0.01625  0.009404  -0.73  0.5651
6.335e+09  0.01604  -0.8589  -0.01088  -0.02513  -0.03482  -0.006267  -0.4811  0.7755
6.336e+09  -0.3308  -0.7584  0.01452  0.01511  -0.03184  -0.02165  -0.1861  0.8846
6.338e+09  -0.5676  -0.6385  0.05373  0.01255  -0.06552  -0.01197  0.1454  0.9336
6.339e+09  -0.741  -0.4148  0.02224  -0.003529  -0.01948  0.04381  0.4462  0.8241
6.34e+09  -0.8612  -0.1078  0.002814  -0.00611  0.01278  -0.02123  0.6851  0.6529
6.341e+09  -0.826  0.1478  0.0005686  -0.02119  -0.02809  0.03805  0.8451  0.3773
6.342e+09  -0.6856  0.4747  -0.04532  -0.02494  0.009093  0.02306  0.9372  0.05359
6.344e+09  -0.4999  0.6339  0.003709  -0.0039  -0.04642  0.03856  0.8935  -0.289
6.345e+09  -0.2211  0.7909  -0.01675  -0.01092  0.02004  -0.02107  0.7481  -0.5282
6.346e+09  0.05648  0.806  -0.006175  0.02508  -0.01116  -0.04862  0.4903  -0.7698
6.348e+09  0.3694  0.7611  0.03748  -0.04868  0.02066  0.03634  0.1944  -0.9019
6.349e+09  0.5778  0.5675  0.004041  0.002543  0.03344  -0.01491  -0.1046  -0.9207
6.35e+09  0.796  0.3257  0.01001  0.01488  -0.03475  0.002777  -0.4142  -0.8522
6.351e+09  0.8602  0.06754  0.02865  0.02787  -0.02499  -0.0152  -0.7164  -0.6476
6.352e+09  0.78  -0.2725  -0.02658  0.03925  0.006086  0.008706  -0.865  -0.3833
6.354e+09  0.6486  -0.4605  -0.01971  0.03327  0.0316  0.009167  -0.9017  -0.05335
6.355e+09  0.4398  -0.746  -0.002699  -0.01718  0.01052  -0.009997  -0.9231  0.2985
6.356e+09  0.139  -0.7987  -0.06555  0.03403  -0.009793  0.02757  -0.7973  0.5601
6.358e+09  -0.1732  -0.9194  -0.01693  0.00172  -0.01085  -0.04157  -0.5437  0.7831
6.359e+09  -0.4536  -0.7398  -0.01366  -0.0354  0.004401  0.02693  -0.2128  0.9212
6.36e+09  -0.6981  -0.5423  0.005485  -0.005374  -0.02399  -0.04165  0.1077  0.9791
6.361e+09  -0.8201  -0.2415  0.008096  0.006243  0.02257  0.01631  0.3876  0.8438
6.362e+09  -0.8359  0.04877  -0.02559  0.02509  -0.01105  0.02154  0.6936  0.6693
6.364e+09  -0.7768  0.3546  -0.01806  -0.008781  -0.01189  0.03315  0.8479  0.4045
6.365e+09  -0.591  0.5786  0.003306  -0.03364  0.01575  -0.02912  0.933  0.06884
6.366e+09  -0.4086  0.7839  -0.007469  -0.006702  0.01481  -0.01084  0.9379  -0.2551
6.368e+09  -0.1019  0.9172  -0.006623  -0.0005958  0.03781  -0.004151  0.7717  -0.5932
6.369e+09  0.2678  0.8598  0.01056  0.009098  -0.08336  -0.007385  0.5232  -0.7553
6.37e+09  0.5377  0.6863  0.004641  0.009956  0.02632  0.03778  0.2444  -0.9342
6.371e+09  0.738  0.4432  0.01035  0.01317  -0.08371  -0.0199  -0.05031  -0.9737
6.372e+09  0.8903  0.1444  0.004247  0.01879  0.01923  0.04643  -0.403  -0.8936
6.374e+09  0.8554  -0.1859  0.01182  -0.007087  -0.005518  0.003942  -0.6873  -0.6699
6.375e+09  0.7375  -0.4068  0.02361  0.03327  0.04653  0.001562  -0.838  -0.4124
6.376e+09  0.5447  -0.7171  0.01391  -0.01718  0.03465  0.01793  -0.9507  -0.09657
6.378e+09  0.2805  -0.8083  -0.0342  0.00116  0.03341  -0.002748  -0.8915  0.2415
6.379e+09  -0.08199  -0.8834  -0.006536  0.006259  0.01001  -0.02326  -0.7355  0.5185
6.38e+09  -0.3847  -0.8518  -0.03138  -0.006713  -0.07018  0.004713  -0.5863  0.8027
6.381e+09  -0.6285  -0.6326  -0.04062  -0.005029  0.018  0.01762  -0.242  0.8994
6.382e+09  -0.7466  -0.3354  -0.01666  -0.02071  -0.04064  0.002225  0.06507  0.9553
6.384e+09  -0.9105  -0.04289  0.01806  -0.01759  -0.06092  0.02354  0.3796  0.8477
6.385e+09  -0.8338  0.2625  0.01144  -0.02551  0.02926  0.0336  0.6744  0.6533
6.386e+09  -0.7016  0.5279  -0.02547  0.004016  -0.005514  -0.01982  0.8321  0.4096
6.388e+09  -0.4162  0.7244  0.02638  0.01192  0.04624  0.003131  0.9404  0.1285
6.389e+09  -0.1675  0.8587  0.007447  0.03271  -0.01627  -0.02173  0.9191  -0.1994
6.39e+09  0.1502  0.8774  -0.02387  -0.01901  -0.04551  -0.01868  0.8299  -0.4859
6.391e+09  0.4205  0.7989  -0.007113  0.02263  -0.04165  0.0483  0.5731  -0.6939
6.392e+09  0.7203  0.5688  0.02076  -0.02525  -0.05327  -0.006942  0.3027  -0.9512
6.394e+09  0.818  0.3205  0.000965  -0.004448  0.004111  0.02094  -0.05378  -0.9275
6.395e+09  0.8519  0.01329  0.01756  0.01541  -0.03439  0.002941  -0.3591  -0.819
6.396e+09  0.8008  -0.3373  0.00105  -0.002152  0.03738  -0.004567  -0.6593  -0.7331
6.398e+09  0.6488  -0.6079  -0.0209  -0.005259  0.007567  0.01763  -0.7784  -0.4913
6.399e+09  0.3534  -0.7862  -0.009978  0.01984  0.002539  -0.03398  -0.8543  -0.141
6.4e+09  0.07026  -0.8395  0.008982  -0.01568  0.03672  0.02941  -0.8783  0.142
6.401e+09  -0.2433  -0.824  0.0186  0.017  -0.009858  -0.03141  -0.7907  0.4432
6.402e+09  -0.4813  -0.7363  -0.006253  0.01957  0.009863  -0.001969  -0.642  0.7241
6.404e+09  -0.7282  -0.4939  -0.001188  0.002941  -0.01089  0.02662  -0.3221  0.8528
6.405e+09  -0.8623  -0.2169  -0.005478  0.01591  0.004871  -0.01129  0.0313  0.8928
6.406e+09  -0.7979  0.1237  -0.02444  -0.02793  -0.002526  -0.03034  0.2862  0.8911
6.408e+09  -0.723  0.4424  -0.04658  0.03163  0.01493  0.04279  0.5997  0.6925
6.409e+09  -0.5025  0.6594  0.003446  0.0102  -0.02813  0.01692  0.8286  0.459
6.41e+09  -0.291  0.8323  0.05481  0.04903  0.0008509  0.01804  0.9173  0.1889
6.411e+09  0.01542  0.853  -0.02709  0.003204  0.02393  0.02624  0.8967  -0.133
6.412e+09  0.3028  0.7863  0.04297  0.001254  -0.02979  -0.01144  0.7973  -0.4552
6.414e+09  0.568  0.6352  0.01081  0.02832  -0.006458  -0.03619  0.6002  -0.6843
6.415e+09  0.8085  0.3925  -0.008433  -0.03436  -0.008576  0.008754  0.3116  -0.8536
6.416e+09  0.9108  0.1602  0.04218  -0.002423  0.009638  -0.0002414  -0.008394  -0.9021
6.418e+09  0.8134  -0.1918  -0.0001819  -0.02484  -0.02636  0.007278  -0.278  -0.8398
6.419e+09  0.723  -0.4899  -0.03281  -0.01635  -0.048  -0.01487  -0.5772  -0.6987
6.42e+09  0.4738  -0.6978  -0.0428  0.002886  -0.00947  0.02682  -0.7732  -0.4525
6.421e+09  0.2325  -0.8116  -0.002801  0.01364  -0.03794  -0.006412  -0.9054  -0.2348
6.422e+09  -0.09992  -0.8483  0.02785  -0.001857  -0.02096  0.006713  -0.8598  0.134
6.424e+09  -0.3845  -0.8307  0.00954  -0.00527  -0.01252  0.01467  -0.7655  0.3718
6.425e+09  -0.6198  -0.6385  -0.004045  7.642e-05  -0.001028  -0.02883  -0.6266  0.6602
6.426e+09  -0.7823  -0.3256  0.01187  0.06788  -0.008778  0.002476  -0.3347  0.8082
6.428e+09  -0.9295  -0.04568  0.01124  -0.007226  -0.05106  -0.008561  -0.04652  0.9204
6.429e+09  -0.7972  0.2829  -0.01755  -0.03578  0.02249  -0.02402  0.256  0.8556
6.43e+09  -0.694  0.5538  0.03083  -0.007908  -0.02969  5.155e-05  0.5205  0.7181
6.431e+09  -0.4613  0.7333  0.03238  0.01622  0.0241  0.01471  0.7169  0.5215
6.432e+09  -0.1678  0.7835  -0.03323  -0.006409  0.008276  0.04019  0.8253  0.1867
6.434e+09  0.147  0.778  0.005565  0.01995  -0.03027  0.02166  0.8081  -0.143
6.435e+09  0.4073  0.7752  0.01012  -0.04203  -0.02827  -0.01049  0.7753  -0.3688
6.436e+09  0.6426  0.5515  0.006657  -0.003286  0.03888  -0.03117  0.5747  -0.6403
6.438e+09  0.8428  0.2323  -0.02175  -0.006837  -0.01902  0.002781  0.3835  -0.8051
6.439e+09  0.8632  -0.01541  -0.006716  0.02765  -0.04201  0.04662  0.08966  -0.8588
6.44e+09  0.8038  -0.3169  0.024  0.00357  -0.0327  0.02078  -0.2188  -0.857
6.441e+09  0.6316  -0.5664  -0.007122  0.01764  -0.03224  -0.00253  -0.4833  -0.6998
6.442e+09  0.3952  -0.7367  -0.02206  -0.02749  0.00408  0.05203  -0.6849  -0.5023
6.444e+09  0.05692  -0.8652  0.01027  0.0283  -0.0005148  0.006975  -0.8411  -0.2197
6.445e+09  -0.1995  -0.8204  0.05377  -0.02173  -0.03508  -0.005369  -0.848  0.07403
6.446e+09  -0.4525  -0.7024  0.002277  -0.004923  -0.008668  0.003474  -0.7262  0.3328
6.448e+09  -0.6674  -0.5056  -0.007265  0.00748  -0.02196  -0.0397  -0.5866  0.6205
6.449e+09  -0.8323  -0.2271  0.006544  -0.01489  -0.008438  0.02408  -0.3582  0.7724
6.45e+09  -0.8434  0.0683  0.009356  0.03121  0.06815  -0.03456  -0.06849  0.809
6.451e+09  -0.7528  0.3565  -0.01978  0.005022  0.02023  0.006331  0.2113  0.8193
6.452e+09  -0.6176  0.5971  -0.04077  0.007855  0.01204  0.0284  0.502  0.6997
6.454e+09  -0.3945  0.7854  -0.01572  -0.02229  -0.04013  0.01525  0.6382  0.4997
6.455e+09  -0.1306  0.8666  0.008881  0.04205  0.008832  -0.03516  0.8086  0.2516
6.456e+09  0.2647  0.8017  -0.01075  -0.001843  0.004123  0.02073  0.821  -0.03028
6.458e+09  0.4941  0.7165  -0.01398  -0.01857  0.001651  -0.003776  0.7274  -0.3396
6.459e+09  0.723  0.4564  0.02231  -0.03237  0.004598  -0.05098  0.5893  -0.6523
6.46e+09  0.831  0.1902  0.01028  0.001007  0.03049  0.004408  0.2949  -0.7582
6.461e+09  0.898  -0.1033  0.02818  0.05972  0.001507  0.01001  0.08312  -0.8419
6.462e+09  0.7937  -0.4255  0.01368  -0.01825  -0.0504  -0.06019  -0.181  -0.7637
6.464e+09  0.5433  -0.6246  -0.01619  -0.01011  0.003827  -0.02292  -0.4664  -0.658
6.465e+09  0.2962  -0.7751  0.05626  -0.04319  0.01827  0.03458  -0.6492  -0.4608
6.466e+09  0.001539  -0.8481  0.0324  -0.01568  0.0222  -0.01799  -0.814  -0.1679
6.468e+09  -0.2755  -0.8099  0.05786  0.01477  -0.02527  -0.02031  -0.8323  0.05034
6.469e+09  -0.497  -0.6386  -6.609e-05  0.04022  0.02848  0.03458  -0.6759  0.3311
6.47e+09  -0.7517  -0.4407  -0.02027  -0.02756  0.01996  -0.0239  -0.5793  0.5368
6.471e+09  -0.798  -0.1635  -0.02624  0.03347  0.0009746  -0.06958  -0.3364  0.7411
6.472e+09  -0.8398  0.1388  -0.04315  -0.03335  0.02169  0.04568  -0.07386  0.7921
6.474e+09  -0.7686  0.4139  -0.004103  0.01186  0.01074  0.00674  0.274  0.7848
6.475e+09  -0.5942  0.5989  0.01597  -0.03018  -0.0172  -0.007316  0.4452  0.6807
6.476e+09  -0.2905  0.8351  0.00554  -0.001548  -0.01288  -0.01609  0.6219  0.4163
6.478e+09  -0.006545  0.815  -0.04952  -0.01312  0.06039  -0.03685  0.7768  0.1878
6.479e+09  0.2704  0.8191  0.01174  0.05112  0.004133  -0.02146  0.7932  -0.06696
6.48e+09  0.5012  0.6839  -0.06752  -0.02554  0.02621  -0.006755  0.6917  -0.3785
6.481e+09  0.7018  0.4267  -0.002197  0.006762  -0.001194  0.007531  0.5477  -0.6105
6.482e+09  0.839  0.1485  -0.03083  0.04049  -0.02092  -0.006971  0.3516  -0.7215
6.484e+09  0.8214  -0.1227  0.01169  0.01878  0.0371  0.002932  0.05334  -0.7407
6.485e+09  0.7027  -0.3846  0.04609  -0.005622  0.02656  0.03093  -0.1987  -0.7318
6.486e+09  0.53  -0.6329  -0.009979  0.01444  -0.04406  0.001304  -0.5325  -0.6105
6.488e+09  0.3108  -0.7679  0.01193  0.03055  -0.03566  -0.05972  -0.6086  -0.3709
6.489e+09  0.03186  -0.9  -0.002158  0.02272  0.009763  -0.01329  -0.7731  -0.1346
6.49e+09  -0.3216  -0.7881  0.009937  0.0003994  0.03704  -0.006767  -0.781  0.1124
6.491e+09  -0.5626  -0.6655  0.03069  -0.00162  0.005302  -0.00143  -0.6966  0.3479
6.492e+09  -0.7797  -0.4358  0.01729  -0.007148  -0.005729  -0.0292  -0.54  0.5358
6.494e+09  -0.8106  -0.1374  0.004592  -0.03057  -0.004162  0.01327  -0.3287  0.7292
6.495e+09  -0.8836  0.1743  0.02925  -0.00217  0.004778  0.001139  -0.06506  0.7528
6.496e+09  -0.7278  0.4233  -0.03794  0.009293  -0.02933  -0.007934  0.2561  0.7391
6.498e+09  -0.5195  0.7254  -0.04079  0.003628  -0.01294  0.002625  0.4646  0.5823
6.499e+09  -0.2745  0.8352  0.01946  0.01037  0.02275  0.03459  0.6399  0.4055
6.5e+09  -0.002268  0.8853  0.03617  0.01599  0.009311  0.03078  0.7297  0.166
6.501e+09  0.3391  0.8027  -0.05011  -0.009793  0.02485  0.001248  0.7373  -0.1152
6.502e+09  0.6586  0.6288  0.01157  0.003408  -0.00919  -0.0385  0.6708  -0.3782
6.504e+09  0.7691  0.379  0.01594  -0.04301  -0.03006  0.02756  0.5231  -0.5754
6.505e+09  0.8752  0.1018  -0.01608  0.03262  -0.01099  0.01523  0.2927  -0.6915
6.506e+09  0.8113  -0.1855  0.01721  -0.002574  -0.02512  0.00416  -0.01063  -0.8092
6.508e+09  0.752  -0.4664  0.00204  0.02002  0.03255  -0.03859  -0.2689  -0.6999
6.509e+09  0.5372  -0.7151  0.005093  -0.02327  -0.001164  -0.0007617  -0.4706  -0.5771
6.51e+09  0.2238  -0.8476  0.03393  0.02063  0.04409  0.0135  -0.681  -0.3813
6.511e+09  -0.08917  -0.9144  -0.01245  -0.0124  0.01917  0.04284  -0.7642  -0.1612
6.512e+09  -0.3554  -0.7809  0.01534  0.005094  0.03022  -0.01599  -0.7154  0.1488
6.514e+09  -0.6345  -0.6578  0.03245  0.01193  -0.06995  0.003061  -0.6381  0.3556
6.515e+09  -0.7838  -0.3644  0.02104  -0.048  -0.0811  -0.03655  -0.4921  0.5915
6.516e+09  -0.8628  -0.1087  -0.03736  0.006403  0.01383  -0.01725  -0.2512  0.7215
6.518e+09  -0.8123  0.2429  -0.02529  0.01822  -0.00122  0.01209  0.02435  0.753
6.519e+09  -0.679  0.5354  0.01658  -0.01325  -0.02379  0.04255  0.2852  0.6597
6.52e+09  -0.5172  0.7749  -0.02266  -0.004512  0.01199  0.03738  0.5006  0.5546
6.521e+09  -0.2173  0.8259  0.01016  0.02558  0.007434  0.03354  0.6652  0.3344
6.522e+09  0.06173  0.9034  0.007334  -0.02362  -0.003189  -0.02618  0.7765  0.0924
6.524e+09  0.3695  0.7765  0.002331  -0.04659  -0.005682  -0.01192  0.7177  -0.1808
6.525e+09  0.6837  0.6377  0.01631  -0.01736  -0.01163  0.04464  0.6149  -0.3913
6.526e+09  0.8673  0.3441  0.003301  -0.007003  0.01949  -0.02244  0.4343  -0.5668
6.528e+09  0.8754  0.02305  0.001369  -0.001762  0.007001  0.01125  0.1903  -0.7024
6.529e+09  0.8322  -0.288  0.009984  0.02372  0.02625  0.0568  -0.0246  -0.6994
6.53e+09  0.6664  -0.5801  -0.01736  0.008592  -0.009673  0.03613  -0.2612  -0.5907
6.531e+09  0.4957  -0.7653  0.02805  0.03565  0.04622  0.01791  -0.4768  -0.4885
6.532e+09  0.1752  -0.9318  0.01002  -0.005399  0.0164  -0.00735  -0.5732  -0.2481
6.534e+09  -0.1174  -0.9483  -0.001561  -0.009293  0.01381  0.02584  -0.6459  -0.08071
6.535e+09  -0.4264  -0.8502  7.725e-05  -0.003952  0.02079  0.004343  -0.6397  0.1099
6.536e+09  -0.6901  -0.6001  -0.0005545  0.004186  -0.004617  0.000464  -0.5761  0.3042
6.538e+09  -0.9141  -0.3316  -0.03598  -0.02172  -0.03783  0.002804  -0.4462  0.4516
6.539e+09  -0.9036  0.002346  -0.0127  0.01246  -0.01274  0.02322  -0.2751  0.588
6.54e+09  -0.9275  0.4175  0.01906  -0.00809  0.01165  0.0519  -0.03242  0.6707
6.541e+09  -0.677  0.6225  -0.02835  -0.02377  -0.00608  -0.007783  0.1838  0.7087
6.542e+09  -0.495  0.827  0.00979  -0.01493  0.006478  0.006662  0.4348  0.5768
6.544e+09  -0.1666  0.9133  0.01475  -0.01164  0.005896  0.03812  0.5753  0.3701
6.545e+09  0.2433  0.9405  0.008951  0.02494  -0.02796  0.01919  0.6822  0.1364
6.546e+09  0.4949  0.8459  0.002376  0.02252  0.046  0.01253  0.7227  -0.0872
6.548e+09  0.7941  0.5465  -0.01348  0.005434  -0.0326  -0.02062  0.6992  -0.329
6.549e+09  0.9167  0.2244  0.0001929  -0.01637  -0.007459  -0.01182  0.5044  -0.5438
6.55e+09  0.9917  -0.0663  0.03159  -0.04388  -0.03248  0.001351  0.267  -0.6851
