# Hz S RI R 50
6.25e+09  -0.3419  0.8265  0.003328  0.007284  0.002292  0.01554  0.1255  0.4773
6.251e+09  -0.0006733  0.9185  -0.009932  0.01875  0.03303  -0.01443  0.3479  0.4005
6.252e+09  0.3536  0.8642  0.01541  0.001278  0.006435  -0.03492  0.5394  0.2427
6.254e+09  0.5013  0.6375  -0.03101  -0.006499  -0.0143  0.01665  0.6006  0.0107
6.255e+09  0.722  0.4671  0.003271  0.00806  0.01526  -0.08259  0.6024  -0.2131
6.256e+09  0.8806  0.1848  -0.02217  -0.02527  -0.04373  0.05567  0.4872  -0.4553
6.258e+09  0.858  -0.1989  0.009894  0.01292  0.001059  0.007586  0.2955  -0.6328
6.259e+09  0.7312  -0.4748  -0.009562  0.01037  0.003233  0.01669  -0.008428  -0.6962
6.26e+09  0.5108  -0.6622  0.008464  -0.005225  -0.03477  -0.001976  -0.2053  -0.6572
6.261e+09  0.2562  -0.8073  0.0195  -0.01009  0.03779  0.02808  -0.45  -0.5815
6.262e+09  -0.0313  -0.7978  -0.001561  0.01398  -0.007824  0.00278  -0.614  -0.3501
6.264e+09  -0.3184  -0.7945  -0.01392  0.006783  0.05001  -0.01905  -0.7267  -0.1031
6.265e+09  -0.5484  -0.6008  -0.00193  0.03507  0.009596  0.02149  -0.7017  0.1436
6.266e+09  -0.7743  -0.4611  0.009209  -0.0043  -0.02277  -0.03085  -0.5845  0.3968
6.268e+09  -0.8169  -0.1116  -0.001508  -0.000614  -0.02493  0.01068  -0.4525  0.6035
6.269e+09  -0.8078  0.2087  0.0001651  -0.01636  -0.01342  -0.0348  -0.2246  0.7029
6.27e+09  -0.6844  0.419  -0.009828  0.008328  -0.05213  0.02364  0.04803  0.7365
6.271e+09  -0.5308  0.6233  0.0382  -0.01078  0.005006  0.003823  0.3107  0.6767
6.272e+09  -0.2567  0.8125  0.003421  0.01079  -0.002772  0.04973  0.5497  0.5411
6.274e+09  0.01894  0.8465  0.02181  0.005045  0.04173  0.025  0.6878  0.3022
6.275e+09  0.3257  0.7504  -0.02092  -0.0009363  0.03783  0.02319  0.7416  0.06878
6.276e+09  0.5666  0.6059  -0.003999  0.019  -0.01403  0.008152  0.7186  -0.2339
6.278e+09  0.7969  0.3979  0.007136  -0.00999  -0.01932  0.08209  0.6323  -0.4426
6.279e+09  0.8095  0.0988  -0.003661  0.003473  0.05495  0.0009969  0.4021  -0.6363
6.28e+09  0.8041  -0.1946  0.0003089  -0.02238  -0.04449  0.03448  0.1828  -0.7627
6.281e+09  0.6918  -0.424  0.02182  0.005556  -0.07102  -0.02199  -0.1139  -0.7544
6.282e+09  0.5151  -0.698  0.01783  -0.009206  0.06078  -0.04181  -0.3622  -0.7231
6.284e+09  0.1946  -0.7971  0.0008423  0.03463  0.01894  -0.03799  -0.5958  -0.5248
6.285e+09  -0.05033  -0.804  0.006695  0.01623  -0.03772  -0.02208  -0.7169  -0.2975
6.286e+09  -0.3667  -0.7784  -0.003588  0.005655  -0.01381  -0.01582  -0.782  -0.03829
6.288e+09  -0.5732  -0.6249  0.006741  0.04501  -0.01422  0.005274  -0.7624  0.2773
6.289e+09  -0.7549  -0.33  0.03382  -0.01295  0.008915  -0.01939  -0.6302  0.519
6.29e+09  -0.8532  -0.07455  0.009399  0.0104  -0.04392  -0.02443  -0.3693  0.6715
6.291e+09  -0.7435  0.2616  0.0151  0.02082  -0.02457  0.0153  -0.149  0.8013
6.292e+09  -0.7054  0.4737  -0.007444  0.02622  -0.01611  0.00853  0.1369  0.813
6.294e+09  -0.4788  0.671  0.00541  0.006113  0.02861  -0.02603  0.3741  0.695
6.295e+09  -0.217  0.824  0.01103  0.02463  0.01629  0.05499  0.6159  0.525
6.296e+09  0.1265  0.8476  -0.008201  -0.007102  -0.0169  0.01624  0.7807  0.2692
6.298e+09  0.394  0.7955  0.005504  0.02542  -0.03294  0.01014  0.8396  0.02704
6.299e+09  0.655  0.5533  0.005656  -0.0007051  0.01301  -0.02125  0.7713  -0.2655
6.3e+09  0.7915  0.3536  0.01449  0.01782  0.009397  -0.02916  0.6419  -0.5475
6.301e+09  0.8578  0.05925  0.003299  -0.02614  0.004938  0.01364  0.4523  -0.7467
6.302e+09  0.8258  -0.2736  0.004208  -0.005545  0.005182  -0.0414  0.1839  -0.8242
6.304e+09  0.6377  -0.4761  -0.02332  0.01477  -0.005547  0.01936  -0.1242  -0.8272
6.305e+09  0.4299  -0.6917  -0.04046  0.043  0.03917  -0.003807  -0.4452  -0.7766
6.306e+09  0.1758  -0.8329  0.02718  0.01204  0.02149  -0.03663  -0.6402  -0.5421
6.308e+09  -0.1572  -0.8587  -0.0236  0.01187  -0.006086  0.03775  -0.7813  -0.295
6.309e+09  -0.3932  -0.695  0.006766  -0.0228  0.008513  -0.02139  -0.8828  -0.003006
6.31e+09  -0.68  -0.5275  -0.03018  0.03281  -0.003108  -0.0219  -0.8213  0.2943
6.311e+09  -0.7855  -0.3186  -0.02113  0.01484  -0.02271  -0.01261  -0.6651  0.5281
6.312e+09  -0.8504  -0.02053  -0.01264  0.003867  -0.01234  -0.005753  -0.4255  0.7194
6.314e+09  -0.8076  0.3061  -0.005805  0.02306  0.01626  0.02045  -0.1878  0.8715
6.315e+09  -0.6014  0.5295  -0.02075  0.02509  0.009491  0.03579  0.1615  0.8526
6.316e+09  -0.4285  0.743  -0.01454  -0.008628  0.009932  0.03775  0.4377  0.7585
6.318e+09  -0.1004  0.7894  0.02727  -0.02509  -0.02531  0.01692  0.665  0.5975
6.319e+09  0.1664  0.8861  -0.001954  -0.0004686  -0.03894  -0.04727  0.8064  0.3152
6.32e+09  0.4717  0.7575  -0.01133  0.02292  -0.04284  0.07263  0.9066  0.01932
6.321e+09  0.7017  0.5317  -0.03643  0.005404  -0.001264  -0.007306  0.8443  -0.2598
6.322e+09  0.8184  0.3042  0.03766  -0.007931  0.006372  0.02236  0.693  -0.5897
6.324e+09  0.8276  -0.0698  0.007236  0.0001305  0.03336  -0.04624  0.454  -0.7217
6.325e+09  0.7881  -0.3471  -0.0007246  0.01444  -0.003057  -0.05273  0.1902  -0.8833
6.326e+09  0.6316  -0.585  -0.02733  0.00359  -0.0062  0.001206  -0.1628  -0.8767
6.328e+09  0.4249  -0.7904  -0.000116  0.00534  -0.004536  -0.02408  -0.4617  -0.7585
6.329e+09  0.05565  -0.8875  0.002097  -0.01741  0.06806  0.03681  -0.6643  -0.6095
6.33e+09  -0.1971  -0.7964  0.007506  0.003044  0.01571  -0.04611  -0.8302  -0.3218
6.331e+09  -0.4498  -0.7393  0.009388  -0.03639  0.003175  0.007353  -0.8996  -0.01727
6.332e+09  -0.7207  -0.4958  -0.02531  0.01304  -0.05734  0.01743  -0.8728  0.2929
6.334e+09  -0.8157  -0.2214  -0.006792  0.02093  -0.02428  -0.01861  -0.7204  0.5527
6.335e+09  -0.9025  0.07546  0.00501  -0.01836  0.01233  0.0553  -0.454  0.7919
6.336e+09  -0.811  0.4089  -0.01796  -0.007544  -0.02614  0.0004239  -0.1914  0.867
6.338e+09  -0.5699  0.6531  0.0323  -0.007712  0.02108  -0.03249  0.1347  0.9267
6.339e+09  -0.3489  0.8689  0.00445  -0.001091  0.01174  -0.02753  0.4186  0.8279
6.34e+09  -0.05382  0.8962  0.003575  -0.0196  0.005499  0.05458  0.6962  0.6438
6.341e+09  0.3212  0.8505  0.009385  0.03247  -0.05322  -0.03249  0.8416  0.3746
6.342e+09  0.5152  0.7363  -0.01587  -0.009301  0.006198  -0.01292  0.9475  0.03952
6.344e+09  0.7659  0.426  -0.0001349  0.01959  -0.002713  0.007813  0.8949  -0.2871
6.345e+09  0.9248  0.1864  -0.02163  0.03714  0.00722  -0.01574  0.7333  -0.5548
6.346e+09  0.8779  -0.1447  -0.02476  -0.002385  -0.002092  -0.01489  0.5103  -0.7822
6.348e+09  0.7677  -0.4375  -0.01066  -0.01471  0.02397  -0.04335  0.2285  -0.9271
6.349e+09  0.5945  -0.7268  0.01318  -0.01598  7.334e-06  -0.005714  -0.1009  -0.9458
6.35e+09  0.2858  -0.8354  0.006958  0.01514  -0.04703  0.02186  -0.4329  -0.7924
6.351e+09  -0.01021  -0.8787  0.0009159  -0.01112  0.0593  0.0004117  -0.6758  -0.6433
6.352e+09  -0.3315  -0.8355  -0.02977  0.00105  -0.03998  0.0009225  -0.8775  -0.365
6.354e+09  -0.5966  -0.6285  -0.008881  0.01185  -0.03213  -0.03189  -0.9659  -0.07108
6.355e+09  -0.7914  -0.3603  0.01367  0.003876  -0.007391  0.01283  -0.9249  0.2854
6.356e+09  -0.9099  -0.1199  0.02926  -0.03061  -0.01786  0.03125  -0.7715  0.5506
6.358e+09  -0.9026  0.1357  -0.01569  -0.02252  0.01881  0.02351  -0.5179  0.7888
6.359e+09  -0.7279  0.4918  0.002937  -0.01084  -0.04125  0.03653  -0.2511  0.9336
6.36e+09  -0.528  0.724  0.03522  -0.04481  0.007844  0.02569  0.0888  0.9593
6.361e+09  -0.1918  0.8424  -0.02484  0.02265  0.01811  0.02014  0.451  0.8653
6.362e+09  0.119  0.8522  -0.01592  -0.0338  0.02106  -0.039  0.6656  0.6877
6.364e+09  0.3729  0.7958  -0.000462  0.00237  -0.03972  0.01059  0.8335  0.4127
6.365e+09  0.6602  0.6096  0.02781  0.01055  -0.01688  -0.02506  0.9764  0.08114
6.366e+09  0.8114  0.3581  0.00369  0.03034  -0.02565  0.01833  0.8868  -0.2578
6.368e+09  0.9579  0.05328  -0.002572  0.04492  -0.007573  0.003921  0.7494  -0.5638
6.369e+09  0.8085  -0.2695  -0.01094  0.01157  0.01995  0.07868  0.5641  -0.7933
6.37e+09  0.7609  -0.5483  -0.03119  0.01082  0.01024  -0.0001719  0.2729  -0.9384
6.371e+09  0.5251  -0.7632  0.04747  -0.002687  -0.005882  0.03373  -0.1083  -0.9466
6.372e+09  0.1949  -0.8762  0.01421  0.04891  0.04519  -0.01396  -0.4043  -0.8596
6.374e+09  -0.1137  -0.8581  -0.03529  -0.02861  0.02018  0.006042  -0.6869  -0.6702
6.375e+09  -0.4435  -0.7792  -0.03299  0.0103  -0.009143  -0.004724  -0.887  -0.4209
6.376e+09  -0.7185  -0.6049  -0.01498  0.00925  -0.02153  -0.02438  -0.9147  -0.1226
6.378e+09  -0.8769  -0.3162  0.001563  0.01762  0.01092  -0.03778  -0.9426  0.2545
6.379e+09  -0.89  -0.008362  -0.02107  0.01108  -0.0005762  -0.0006742  -0.7875  0.5176
6.38e+09  -0.8415  0.3106  -0.03058  -0.02473  -0.01064  -0.005404  -0.559  0.7507
6.381e+09  -0.7048  0.5591  -0.03039  -0.009043  -0.006646  -0.03493  -0.2791  0.878
6.382e+09  -0.4149  0.8022  0.02522  -0.03036  0.01577  0.01466  0.06365  0.9655
6.384e+09  -0.1972  0.8448  -0.001502  -0.003902  0.08911  0.01339  0.3722  0.8597
6.385e+09  0.1482  0.8867  0.07124  0.01996  -0.0108  -0.05792  0.6608  0.6391
6.386e+09  0.4827  0.7618  -0.03449  0.01657  0.01224  -0.02468  0.8117  0.4305
6.388e+09  0.7463  0.6039  -0.02686  -0.005357  -0.04939  0.01083  0.9212  0.097
6.389e+09  0.826  0.2855  -0.009186  -0.01072  -0.02755  0.001552  0.9421  -0.1807
6.39e+09  0.8959  -0.01368  -0.002428  -0.02204  0.01822  0.01449  0.7543  -0.5194
6.391e+09  0.8399  -0.2902  -0.01943  -0.0005727  -0.006935  0.02022  0.5854  -0.7289
6.392e+09  0.6613  -0.6315  -0.01504  0.03853  0.003644  0.01367  0.2857  -0.8762
6.394e+09  0.3948  -0.8031  -0.03501  0.02703  0.02217  -0.004697  -0.06913  -0.8979
6.395e+09  0.08509  -0.851  -0.002869  -0.006404  -0.00319  -0.002678  -0.3504  -0.8704
6.396e+09  -0.1803  -0.8627  -0.003075  0.03494  -0.003315  -0.000768  -0.5913  -0.6928
6.398e+09  -0.4385  -0.7376  0.01443  -0.02866  0.04006  0.0207  -0.7884  -0.4439
6.399e+09  -0.7307  -0.5361  0.02164  0.04354  -0.01006  0.03135  -0.9388  -0.1582
6.4e+09  -0.8346  -0.2644  0.0245  -0.006252  -0.002372  0.004975  -0.8934  0.1851
6.401e+09  -0.9108  0.03184  -0.03301  -0.0004124  -0.01341  -0.006832  -0.8167  0.4835
6.402e+09  -0.7837  0.3677  -0.03259  0.03483  -0.03086  0.02755  -0.6067  0.6985
6.404e+09  -0.6239  0.5866  0.01983  0.004736  0.001781  0.01155  -0.2844  0.8252
6.405e+09  -0.419  0.8003  0.02078  -0.02568  -0.02324  0.02282  -0.01916  0.9197
6.406e+09  -0.0944  0.8852  -0.03848  0.04103  -0.02518  -0.02938  0.3673  0.8472
6.408e+09  0.2079  0.8752  -0.02259  0.0331  0.01834  -0.04472  0.5983  0.6764
6.409e+09  0.5078  0.7414  0.01878  0.004685  0.01905  -0.01981  0.7247  0.4595
6.41e+09  0.7207  0.5438  0.01001  0.04687  -0.0534  -0.05704  0.9151  0.1561
6.411e+09  0.8185  0.2217  -0.01599  -0.001149  -0.05034  -0.01603  0.8845  -0.1428
6.412e+09  0.8816  -0.06217  0.0386  0.005019  0.02488  0.03099  0.7962  -0.3984
6.414e+09  0.8476  -0.3629  0.02248  -0.03275  0.002832  0.004463  0.6076  -0.701
6.415e+09  0.616  -0.6388  0.01924  -0.006565  -0.01468  -0.004806  0.3144  -0.8134
6.416e+09  0.3921  -0.7829  -0.02782  0.03679  0.002053  0.02168  0.05399  -0.8897
6.418e+09  0.08978  -0.8976  -0.0004766  -0.01523  0.032  0.0223  -0.2379  -0.8346
6.419e+09  -0.2081  -0.8192  -0.008247  0.01492  0.01137  -0.04446  -0.5438  -0.7103
6.42e+09  -0.4956  -0.6976  0.003507  -0.004778  -0.0151  0.008488  -0.7847  -0.5154
6.421e+09  -0.7032  -0.5114  -0.01252  -0.01478  0.03475  0.05295  -0.8655  -0.159
6.422e+09  -0.8974  -0.2591  0.02358  -0.04863  0.0009611  -0.02597  -0.8512  0.1406
6.424e+09  -0.8925  0.05755  -0.01741  -0.0682  0.008024  -0.02079  -0.8373  0.4002
6.425e+09  -0.8028  0.372  0.008608  0.006015  0.02916  0.04245  -0.6923  0.6657
6.426e+09  -0.5992  0.6606  0.03448  0.005424  -0.03695  -0.01809  -0.3703  0.7699
6.428e+09  -0.3684  0.7971  -0.01285  0.0229  0.02748  -0.04002  0.001865  0.8638
6.429e+09  -0.05224  0.9133  0.00578  0.03692  0.01426  0.01609  0.2442  0.8822
6.43e+09  0.2621  0.8297  -0.03522  -0.04304  0.02012  -0.03999  0.5415  0.6663
6.431e+09  0.5367  0.7519  0.003757  0.03598  -0.01484  0.0509  0.7195  0.5023
6.432e+09  0.7725  0.5031  0.03614  -0.03518  -0.03213  -0.026  0.9028  0.2242
6.434e+09  0.8798  0.227  -0.01566  -0.03511  0.03088  0.05084  0.8461  -0.1317
6.435e+09  0.9107  -0.1035  -0.005749  -0.02411  -0.0522  0.01888  0.7705  -0.3654
6.436e+09  0.8028  -0.3423  0.03119  0.01682  -0.01973  -0.01168  0.5855  -0.6141
6.438e+09  0.6496  -0.6121  -0.01042  0.01577  -0.04967  -0.0009537  0.3726  -0.8055
6.439e+09  0.2818  -0.8363  0.02446  0.02945  -0.001052  0.04078  0.04663  -0.8691
6.44e+09  0.08098  -0.9479  0.008366  0.009878  -0.04102  0.07142  -0.2164  -0.7765
6.441e+09  -0.2113  -0.8739  -0.01845  0.01419  -0.0165  -0.09446  -0.5255  -0.6889
6.442e+09  -0.5643  -0.7182  -0.002454  -0.01024  -0.03593  0.0569  -0.7079  -0.488
6.444e+09  -0.72  -0.4845  -0.03052  0.02985  -0.02793  0.01321  -0.7735  -0.2451
6.445e+09  -0.8578  -0.2368  -0.01261  -0.006541  0.001885  -0.02752  -0.818  0.1064
6.446e+09  -0.876  0.1189  -0.01111  -0.026  0.007891  -0.06934  -0.8064  0.3432
6.448e+09  -0.7921  0.4133  0.008495  0.009477  0.02598  0.02566  -0.6177  0.6008
6.449e+09  -0.6651  0.6547  -0.03905  0.02994  -0.02941  -0.01649  -0.3466  0.7515
6.45e+09  -0.3777  0.8947  0.0142  0.001269  0.04674  0.04865  -0.03975  0.8988
6.451e+09  -0.07353  0.8638  -0.04086  -0.002304  -0.03832  -0.02141  0.2125  0.7944
6.452e+09  0.2577  0.9131  0.03172  -0.008423  0.01359  -0.02536  0.4823  0.6858
6.454e+09  0.5174  0.7255  0.02329  0.02346  0.04187  -0.004712  0.6863  0.5229
6.455e+09  0.7727  0.4706  -0.000788  -0.008204  -0.03051  0.02203  0.8557  0.2164
6.456e+09  0.8934  0.1836  -0.0617  -0.006661  0.003213  -0.02956  0.8165  -0.07137
6.458e+09  0.8872  -0.1371  0.02636  0.002354  -0.0006442  0.01038  0.7519  -0.3417
6.459e+09  0.7694  -0.4296  -0.06945  -0.01238  -0.01436  0.0594  0.5802  -0.609
6.46e+09  0.6423  -0.7069  0.05083  0.02804  -0.03555  0.01407  0.3313  -0.7464
6.461e+09  0.3499  -0.8379  0.02261  -0.005288  0.0138  0.02641  0.04417  -0.7583
6.462e+09  0.05145  -0.8701  0.005149  -0.00909  0.01787  -0.01172  -0.2251  -0.7695
6.464e+09  -0.2989  -0.9029  0.006883  0.00906  0.05886  -0.07085  -0.5067  -0.6805
6.465e+09  -0.5554  -0.7148  -0.03102  -0.02602  -0.02216  0.007078  -0.6875  -0.4451
6.466e+09  -0.7563  -0.5152  0.03505  0.0293  -0.01853  -0.0255  -0.8116  -0.1957
6.468e+09  -0.8702  -0.1899  -0.01974  -0.03795  -0.03698  0.02108  -0.7545  0.05102
6.469e+09  -0.9715  0.1184  0.009594  0.03719  0.01779  0.03568  -0.7392  0.3731
6.47e+09  -0.8362  0.4111  -0.009776  0.01414  0.02484  -0.02792  -0.5675  0.5538
6.471e+09  -0.5777  0.7235  -0.02537  -0.06727  -0.02703  0.02996  -0.3371  0.8023
6.472e+09  -0.2938  0.8444  -0.02279  0.01179  0.04631  -0.0552  -0.03794  0.8006
6.474e+09  -0.01479  0.8844  -0.03714  0.003856  -0.01197  -0.07514  0.215  0.7571
6.475e+09  0.2911  0.8946  -0.01273  0.02133  0.001591  -0.02068  0.4387  0.6579
6.476e+09  0.564  0.746  0.004952  -0.01055  0.01704  0.002887  0.6622  0.4184
6.478e+09  0.8012  0.4562  -0.06385  0.005144  -0.008655  -0.003651  0.7634  0.2059
6.479e+09  0.8641  0.1554  -0.003969  -0.03706  0.03735  0.04899  0.7714  -0.06459
6.48e+09  0.8998  -0.1717  0.0314  -0.01506  0.03847  0.0002922  0.6581  -0.3724
6.481e+09  0.7637  -0.4814  0.01954  -0.01041  0.007429  0.03319  0.5683  -0.5649
6.482e+09  0.5976  -0.6917  0.003204  -0.01614  -0.04221  -0.002159  0.3272  -0.749
6.484e+09  0.3051  -0.8612  -0.004016  0.01469  0.05304  0.007266  0.03635  -0.8062
6.485e+09  -0.0342  -0.923  0.04459  -0.03658  0.02106  -0.003856  -0.2075  -0.7747
6.486e+09  -0.3498  -0.8876  0.0002926  -0.001726  -0.006073  0.01336  -0.4554  -0.6477
6.488e+09  -0.6364  -0.7345  0.006505  -0.02974  0.003304  -0.005446  -0.6617  -0.4416
6.489e+09  -0.8008  -0.4306  -0.01656  -0.004065  -0.0083  0.01571  -0.7291  -0.1808
6.49e+09  -0.9092  -0.1034  -0.01669  -0.004964  0.03133  -0.03389  -0.7281  0.06054
6.491e+09  -0.9083  0.1296  0.03651  -0.01444  -0.04893  0.0278  -0.6961  0.3355
6.492e+09  -0.8521  0.5273  0.01346  -0.02529  -0.02952  -0.02162  -0.5575  0.5416
6.494e+09  -0.5725  0.7163  -0.06189  -0.04197  -0.004979  0.01458  -0.2798  0.7192
6.495e+09  -0.3113  0.908  0.005772  0.01404  -0.003962  -0.006624  -0.02063  0.7815
6.496e+09  0.0485  0.9291  -0.04281  0.02552  -0.005439  0.001435  0.2399  0.6951
6.498e+09  0.3445  0.8338  0.02361  0.01718  -0.03613  0.01912  0.4412  0.6087
6.499e+09  0.6099  0.713  -0.01203  -0.02378  0.01023  0.0112  0.6439  0.4402
6.5e+09  0.8293  0.4297  0.01173  -0.03308  0.01954  -0.004008  0.7376  0.1433
6.501e+09  0.9108  0.08716  -0.004777  0.01662  -0.00624  -0.02879  0.7242  -0.09999
6.502e+09  0.926  -0.261  -0.005305  -0.01802  -0.002985  0.02554  0.6859  -0.3567
6.504e+09  0.7857  -0.5346  0.01474  0.04463  -0.01961  0.01941  0.4637  -0.5499
6.505e+09  0.5366  -0.7342  -0.01756  -0.02127  3.713e-05  -0.00201  0.2877  -0.7718
6.506e+09  0.2771  -0.9125  0.02351  -0.00201  0.0235  -0.002976  -0.03673  -0.7718
6.508e+09  -0.06836  -0.9991  0.01727  0.01459  0.03331  -0.01184  -0.2239  -0.7214
6.509e+09  -0.4461  -0.8746  -0.004449  -0.02142  -6.393e-05  -0.009181  -0.4933  -0.5724
6.51e+09  -0.706  -0.6664  -0.01094  -0.04611  -0.03145  -0.0008345  -0.6343  -0.4305
6.511e+09  -0.928  -0.4216  -0.005717  -0.0133  0.02685  -0.02658  -0.7359  -0.1346
6.512e+09  -1.007  -0.06805  0.00155  0.008054  0.004464  -0.006818  -0.73  0.128
6.514e+09  -0.9269  0.2179  -0.01892  0.0246  0.01712  0.003155  -0.6603  0.3802
6.515e+09  -0.7584  0.5504  0.01114  -0.02324  0.00513  -0.03468  -0.5038  0.6013
6.516e+09  -0.5551  0.7611  -0.004338  0.04596  0.01528  -0.05218  -0.2709  0.7191
6.518e+09  -0.2317  0.9627  -0.006723  -0.02163  0.01125  0.01666  0.01783  0.7295
6.519e+09  0.1142  0.9738  0.0253  0.005901  -0.03323  -0.008268  0.2461  0.6985
6.52e+09  0.4841  0.8494  -0.01812  0.009318  -0.01361  -0.04617  0.47  0.5475
6.521e+09  0.7907  0.6848  -0.01532  -0.01357  0.06199  -0.009498  0.6789  0.3133
6.522e+09  0.9297  0.3395  0.01325  0.02656  0.05282  -0.04377  0.6955  0.1121
6.524e+09  0.9605  0.01953  -0.001982  -0.003806  0.002465  0.007099  0.7203  -0.154
6.525e+09  0.9208  -0.326  0.003151  0.02562  -0.02249  -0.0158  0.6111  -0.3895
6.526e+09  0.7407  -0.6561  -0.007687  0.01597  -0.008495  -0.03044  0.3955  -0.5795
6.528e+09  0.4931  -0.8508  -0.02483  -0.01857  0.01213  0.01836  0.2009  -0.7004
6.529e+09  0.1702  -1.021  0.03097  0.02246  0.04048  -0.005769  -0.08446  -0.6966
6.53e+09  -0.2108  -0.9536  0.0193  -0.01856  0.05434  0.04976  -0.2755  -0.6263
6.531e+09  -0.6185  -0.8591  -0.01745  -0.005652  -0.008066  -0.00539  -0.5007  -0.4917
6.532e+09  -0.8014  -0.5689  0.0232  0.02495  -0.01972  -0.02104  -0.6072  -0.2938
6.534e+09  -0.9398  -0.3354  0.006637  0.01019  0.01181  0.004657  -0.6542  -0.05954
6.535e+09  -0.9969  0.04362  0.002375  0.01935  -0.04568  0.009386  -0.5956  0.0975
6.536e+09  -0.8664  0.4489  0.01454  0.02295  0.01024  -0.0221  -0.5596  0.3002
6.538e+09  -0.6411  0.69  0.0003903  -0.02306  0.02164  -0.01184  -0.455  0.4772
6.539e+09  -0.4235  0.8551  0.02807  0.003894  -0.01253  0.04682  -0.2733  0.5872
6.54e+09  -0.03943  0.9633  0.001917  0.003117  0.005008  0.02184  -0.02553  0.7027
6.541e+09  0.209  0.9019  -0.0171  -0.003666  -0.001412  0.03494  0.1982  0.6746
6.542e+09  0.6068  0.806  -0.009333  -0.01597  0.03543  0.01844  0.4075  0.6018
6.544e+09  0.7751  0.5448  -0.03427  0.02003  0.04597  -0.01067  0.5863  0.4095
6.545e+09  0.9271  0.1849  -0.0003368  0.01314  -0.01409  -0.002942  0.6756  0.1761
6.546e+09  0.9484  -0.1158  0.001749  0.00151  0.02351  -0.02011  0.6989  -0.06709
6.548e+09  0.8214  -0.4601  0.006214  0.02175  -0.006958  0.01291  0.6547  -0.3268
6.549e+09  0.6446  -0.7465  -0.01655  0.006659  0.008302  -0.07013  0.4886  -0.5204
6.55e+09  0.3317  -0.8588  0.0001199  -0.006979  -0.004356  0.004463  0.3156  -0.6702
