# Hz S RI R 50
6.25e+09  0.02848  0.8461  -0.01077  -0.0001891  -0.02662  -0.06783  0.1525  0.4939
6.251e+09  0.3025  0.7818  -0.03682  -0.01817  0.00882  -0.01927  0.3676  0.391
6.252e+09  0.6066  0.6885  0.02528  0.005341  -0.02741  -0.01978  0.54  0.2439
6.254e+09  0.7587  0.3751  -0.02138  0.01089  -0.04002  0.0064  0.6041  0.003212
6.255e+09  0.8334  0.1318  0.01077  0.02002  0.002014  -0.01044  0.5715  -0.2472
6.256e+09  0.8624  -0.1849  -0.01643  0.01016  -0.02121  0.05909  0.4891  -0.4493
6.258e+09  0.7109  -0.5468  -0.01045  0.03748  -0.02209  0.06299  0.3147  -0.6119
6.259e+09  0.6025  -0.6859  -0.02686  -0.01447  -0.02066  -0.0116  0.02353  -0.6646
6.26e+09  0.3005  -0.7847  0.02405  0.01956  -0.01036  0.03258  -0.2402  -0.6674
6.261e+09  -0.002999  -0.9118  -0.005803  -0.0117  -3.632e-05  -0.04044  -0.4685  -0.5406
6.262e+09  -0.3546  -0.8426  0.02485  0.04214  -0.02677  0.01793  -0.6194  -0.3314
6.264e+09  -0.6147  -0.6501  0.009184  0.001822  -0.01315  0.02744  -0.6804  -0.1082
6.265e+09  -0.7529  -0.3117  0.01205  0.02233  -0.03028  0.03245  -0.6958  0.1524
6.266e+09  -0.8404  -0.0795  0.027  -0.001437  0.0132  -0.1121  -0.6389  0.3971
6.268e+09  -0.8031  0.2015  -0.03095  0.02211  -0.0431  0.002904  -0.4228  0.6232
6.269e+09  -0.6835  0.4702  0.04911  0.01525  0.07246  0.03015  -0.1976  0.7199
6.27e+09  -0.4495  0.6921  -0.009241  0.01999  0.07275  -0.04627  0.07445  0.7387
6.271e+09  -0.1697  0.8408  -0.005227  0.0009605  0.02928  -0.02484  0.357  0.6855
6.272e+09  0.09627  0.8824  0.0442  -0.0056  0.05252  0.02317  0.5481  0.5395
6.274e+09  0.4095  0.7602  0.0189  -0.02655  -0.001227  -0.005306  0.7017  0.3141
6.275e+09  0.551  0.5797  0.01154  -0.005505  0.003052  0.01367  0.7366  0.05168
6.276e+09  0.7503  0.3409  -0.003193  0.003688  0.02393  0.001433  0.7368  -0.2052
6.278e+09  0.8317  -0.01836  -0.02733  -0.03038  -0.00475  0.03586  0.6056  -0.4781
6.279e+09  0.7802  -0.2343  0.02353  -0.008055  -0.01729  0.01534  0.413  -0.6803
6.28e+09  0.6607  -0.4666  -0.02185  0.003129  -0.02919  -0.03835  0.1742  -0.7652
6.281e+09  0.5026  -0.684  0.01344  -0.03223  0.01743  -0.03241  -0.114  -0.8099
6.282e+09  0.1473  -0.8385  -0.002997  -0.01053  0.07547  0.01322  -0.3395  -0.6932
6.284e+09  -0.07222  -0.8142  0.01418  -0.007292  -0.01362  -0.01851  -0.5885  -0.521
6.285e+09  -0.4017  -0.7368  -0.02892  -0.00167  0.01746  -0.02399  -0.7302  -0.2635
6.286e+09  -0.6633  -0.5645  -0.01317  0.0175  0.02973  0.01556  -0.8069  -0.017
6.288e+09  -0.7304  -0.3184  0.01702  0.01741  -0.01329  -0.01168  -0.8007  0.2692
6.289e+09  -0.8462  -0.09853  0.007842  0.01321  0.004136  -0.005407  -0.6257  0.4835
6.29e+09  -0.7726  0.2881  0.003296  0.004726  0.008369  0.01295  -0.4057  0.6799
6.291e+09  -0.5881  0.5844  0.001578  0.01394  0.03254  -0.02755  -0.1432  0.7835
6.292e+09  -0.4479  0.7063  -0.008299  -0.01722  -0.02865  0.04984  0.112  0.7973
6.294e+09  -0.1737  0.8042  -0.008374  -0.001245  -0.01803  -0.02621  0.4056  0.7323
6.295e+09  0.1227  0.8072  -0.01848  0.0383  -0.03041  0.02499  0.6263  0.5296
6.296e+09  0.4208  0.7427  -0.001322  -0.0163  0.003652  0.08484  0.7539  0.2981
6.298e+09  0.621  0.5302  0.006917  -4.84e-06  -0.01753  0.01614  0.8526  0.02649
6.299e+09  0.8133  0.2837  -0.0121  0.006487  0.07105  0.01124  0.8063  -0.2631
6.3e+09  0.848  -0.02914  -0.003834  0.002547  0.003765  0.03252  0.6172  -0.5347
6.301e+09  0.735  -0.2915  0.03685  -0.03122  0.05125  0.04981  0.4251  -0.7677
6.302e+09  0.5686  -0.5424  -0.007552  -0.006294  0.02161  -0.001762  0.1753  -0.8808
6.304e+09  0.362  -0.7281  -0.003533  0.02809  0.01548  0.01834  -0.135  -0.8327
6.305e+09  0.1107  -0.8184  0.0003903  0.01414  -0.02948  0.007915  -0.4207  -0.7602
6.306e+09  -0.1545  -0.8413  0.008358  0.01139  -0.002858  0.002064  -0.6602  -0.5524
6.308e+09  -0.4964  -0.6636  0.01133  -0.003866  -0.007808  0.04364  -0.8373  -0.3161
6.309e+09  -0.6979  -0.4982  -0.03119  -0.02498  0.002078  0.01855  -0.8747  -0.02675
6.31e+09  -0.7976  -0.2339  0.01127  0.01865  -0.02286  -0.04666  -0.8023  0.2942
6.311e+09  -0.8261  0.0943  0.01546  -0.01226  0.0153  -0.01311  -0.6711  0.5599
6.312e+09  -0.7874  0.3572  -0.03488  0.02754  0.009912  0.01087  -0.4313  0.7408
6.314e+09  -0.6142  0.6693  0.01142  0.00202  0.04992  -0.01098  -0.1388  0.8811
6.315e+09  -0.333  0.7599  -0.02645  0.01235  0.0005039  0.0002404  0.1602  0.8912
6.316e+09  0.009979  0.8507  -0.002589  -0.02734  -0.02198  -0.01477  0.4219  0.7165
6.318e+09  0.1904  0.8377  -0.01567  0.01106  -0.051  -0.01767  0.6562  0.5797
6.319e+09  0.5004  0.699  -0.0143  0.03427  -0.01415  -0.003491  0.8306  0.2868
6.32e+09  0.7655  0.4433  -0.05386  0.002671  0.004336  -0.01171  0.8646  0.01811
6.321e+09  0.8497  0.2035  0.02658  0.0373  0.04265  0.01607  0.8494  -0.2638
6.322e+09  0.8094  -0.1426  0.009152  -0.02984  0.003505  -0.008088  0.6866  -0.5557
6.324e+09  0.7225  -0.437  -0.003909  0.0191  -0.04805  -0.01281  0.4478  -0.7782
6.325e+09  0.5869  -0.6339  0.002643  -0.003337  -0.02959  -0.003165  0.1856  -0.8897
6.326e+09  0.2978  -0.8344  -0.02139  -0.01838  0.0003246  0.01821  -0.1478  -0.8833
6.328e+09  -0.01467  -0.8722  -0.001816  0.002719  0.04095  0.04758  -0.4402  -0.8337
6.329e+09  -0.2542  -0.8133  0.02672  -0.0108  -0.07912  0.0008275  -0.6498  -0.6189
6.33e+09  -0.6262  -0.674  -0.01665  -6.639e-05  -0.01266  0.0106  -0.875  -0.3236
6.331e+09  -0.7474  -0.4209  -0.01258  -0.002427  0.01631  -0.001936  -0.898  -0.03416
6.332e+09  -0.8696  -0.1268  -0.01088  -0.009073  -0.04906  -0.06832  -0.8572  0.2821
6.334e+09  -0.8718  0.1312  0.0009763  0.01085  -0.02198  0.02258  -0.7042  0.5693
6.335e+09  -0.7342  0.4812  0.0009044  -0.01797  0.03014  -0.006283  -0.4602  0.7978
6.336e+09  -0.5887  0.7391  -0.02309  -0.03657  -0.01189  -0.01461  -0.2037  0.8806
6.338e+09  -0.2306  0.8285  -0.04965  0.009679  -0.01083  -0.01052  0.1489  0.9428
6.339e+09  0.03669  0.8874  -0.01293  0.02943  -0.01097  -0.03849  0.4546  0.796
6.34e+09  0.3617  0.8113  0.01102  0.009992  0.004898  -0.005734  0.703  0.6063
6.341e+09  0.5871  0.6272  0.004569  0.01658  -0.0548  0.02867  0.8635  0.3541
6.342e+09  0.8013  0.4051  -0.009143  0.01196  0.005842  -0.005388  0.9091  0.08435
6.344e+09  0.8943  0.1031  -0.01094  -0.002691  -0.002559  0.01334  0.8939  -0.2794
6.345e+09  0.8025  -0.2083  -0.002909  -0.0009488  -0.002187  0.02389  0.7709  -0.5958
6.346e+09  0.7901  -0.4709  -0.00167  -0.0264  0.0138  0.03327  0.521  -0.8114
6.348e+09  0.4745  -0.7524  -0.03801  0.03181  -0.001687  -0.01153  0.2308  -0.9029
6.349e+09  0.195  -0.914  -0.006785  0.01094  -0.009011  -0.01732  -0.1166  -0.9043
6.35e+09  -0.05237  -0.8829  -0.03667  -0.007181  0.03784  -0.01323  -0.3852  -0.835
6.351e+09  -0.4799  -0.8002  0.02638  -0.02418  0.02871  -0.03049  -0.6845  -0.6878
6.352e+09  -0.6483  -0.5983  -0.0003778  -0.006101  -0.002242  0.01874  -0.8613  -0.3798
6.354e+09  -0.8008  -0.3572  -0.01147  -0.02387  -0.009148  0.009279  -0.9749  -0.07427
6.355e+09  -0.9181  -0.01509  -0.01452  0.01  -0.01319  -0.01268  -0.9064  0.2672
6.356e+09  -0.799  0.3005  -0.01318  -0.0002908  -0.01116  -0.001253  -0.7808  0.5318
6.358e+09  -0.7143  0.6052  0.003564  -0.03559  -0.04569  -0.02173  -0.5358  0.7611
6.359e+09  -0.4286  0.8075  -0.006672  -0.01199  0.0133  0.002528  -0.2422  0.9479
6.36e+09  -0.1625  0.8846  0.004091  0.03138  -0.01658  0.008432  0.1081  0.949
6.361e+09  0.1397  0.8765  0.03163  0.0258  0.01252  0.0006616  0.4079  0.8404
6.362e+09  0.4535  0.7834  -0.02722  -0.003648  0.00734  0.04129  0.6696  0.7113
6.364e+09  0.673  0.5075  0.03079  0.01349  -0.03793  0.006632  0.8745  0.3733
6.365e+09  0.8536  0.3303  0.03281  -0.001377  -0.02097  0.03182  0.9623  0.07206
6.366e+09  0.9071  -0.05041  0.04182  0.01975  0.009039  -0.03559  0.9486  -0.2156
6.368e+09  0.8356  -0.4049  -0.01002  -0.02381  -0.009702  -0.0266  0.818  -0.5529
6.369e+09  0.656  -0.5973  0.004053  0.008397  0.01513  -0.001546  0.5645  -0.7804
6.37e+09  0.3903  -0.788  0.001097  0.01288  -0.01299  -0.03216  0.2676  -0.9095
6.371e+09  0.0773  -0.9208  -0.02412  0.03516  0.01551  0.01343  -0.05565  -0.9529
6.372e+09  -0.2697  -0.8846  -0.02758  0.01476  0.01765  -0.01782  -0.3929  -0.8684
6.374e+09  -0.5153  -0.7312  0.009894  -0.04709  0.01233  -0.02843  -0.6844  -0.7019
6.375e+09  -0.7032  -0.5293  0.02555  -0.02183  -0.005158  0.0514  -0.8694  -0.4303
6.376e+09  -0.9204  -0.2346  0.004043  0.008326  0.03513  0.02121  -0.9399  -0.0939
6.378e+09  -0.8886  0.0928  0.009912  -0.0182  0.02118  0.009896  -0.9358  0.2171
6.379e+09  -0.8154  0.3955  0.005705  -0.02315  0.01693  -0.02636  -0.799  0.5169
6.38e+09  -0.6621  0.6574  3.811e-06  -0.005594  0.01789  0.01801  -0.5566  0.7673
6.381e+09  -0.3853  0.7455  -0.00376  0.01464  -0.01386  -0.01069  -0.2709  0.9196
6.382e+09  -0.0167  0.9146  0.003971  0.02293  -0.002762  -0.0305  0.07283  0.8979
6.384e+09  0.2169  0.8049  -0.02953  -0.0389  0.02451  -0.01458  0.402  0.8797
6.385e+09  0.5474  0.7272  -0.01086  0.01908  -0.01687  0.002071  0.6235  0.6579
6.386e+09  0.7605  0.4805  0.008089  0.01109  -0.01196  0.005328  0.8617  0.4497
6.388e+09  0.8822  0.1908  -0.01366  -0.02342  0.02272  0.01408  0.9388  0.1247
6.389e+09  0.8753  -0.1186  -0.002069  -0.003504  0.006502  0.009977  0.8724  -0.1699
6.39e+09  0.7733  -0.4593  0.02021  0.05512  -0.05082  -0.02632  0.7697  -0.5049
6.391e+09  0.6099  -0.6932  -0.001733  -0.002683  0.01885  0.006689  0.507  -0.7399
6.392e+09  0.3017  -0.8424  -0.01912  0.002853  -0.01448  -0.02508  0.2942  -0.8911
6.394e+09  0.04436  -0.9106  0.01601  0.002056  0.02645  -0.01944  -0.01916  -0.9726
6.395e+09  -0.2506  -0.8583  -0.01655  -0.02184  0.002049  -0.01917  -0.3267  -0.859
6.396e+09  -0.5726  -0.7025  0.01572  -0.02741  0.03403  0.02404  -0.5404  -0.6933
6.398e+09  -0.72  -0.5059  0.0238  -0.009031  0.03631  0.01321  -0.803  -0.433
6.399e+09  -0.8686  -0.1496  0.002963  0.05276  0.03277  -0.01951  -0.9354  -0.1341
6.4e+09  -0.9079  0.1312  0.0436  -0.001349  -0.01912  0.002204  -0.8848  0.1634
6.401e+09  -0.7435  0.4682  -0.0415  0.001321  -0.02275  -0.02483  -0.813  0.445
6.402e+09  -0.6025  0.699  0.0658  -0.03393  -0.005234  -0.008364  -0.5991  0.7165
6.404e+09  -0.2358  0.8731  -0.02337  -0.009442  0.006443  9.23e-05  -0.3176  0.8734
6.405e+09  0.01919  0.8967  0.01256  0.02238  -0.008921  0.02093  -0.007664  0.8961
6.406e+09  0.3111  0.8246  -0.01403  -0.03137  0.03749  0.04832  0.3015  0.8681
6.408e+09  0.5433  0.6806  -0.02405  -0.02608  -0.02137  -0.01601  0.5789  0.711
6.409e+09  0.7482  0.5134  -0.0302  0.0002245  0.02261  0.02775  0.7678  0.4551
6.41e+09  0.8273  0.1872  0.01025  -0.003932  -0.005484  -0.03344  0.9141  0.1822
6.411e+09  0.8917  -0.2249  -0.02776  0.02216  -0.00646  0.02835  0.9104  -0.1578
6.412e+09  0.748  -0.5315  0.0206  0.03452  0.008969  -0.002668  0.8046  -0.4424
6.414e+09  0.5528  -0.691  0.003261  -0.02906  0.002162  0.05211  0.5893  -0.6763
6.415e+09  0.2841  -0.7927  0.0393  0.01816  9.74e-05  -0.01177  0.3071  -0.7769
6.416e+09  -0.01843  -0.9061  -0.05027  -0.01489  0.03535  0.03389  0.04937  -0.917
6.418e+09  -0.3381  -0.8608  -0.003666  0.04212  0.02596  -0.000383  -0.2212  -0.8207
6.419e+09  -0.6251  -0.6614  -0.0001308  -0.04064  -0.03596  0.003058  -0.5518  -0.6781
6.42e+09  -0.7885  -0.4296  -0.03714  -0.01044  0.04509  0.02308  -0.7874  -0.4234
6.421e+09  -0.88  -0.05462  0.03563  -0.01896  -0.03627  -0.03646  -0.9136  -0.2078
6.422e+09  -0.8914  0.1906  0.03071  -0.01205  -0.0542  -0.0008689  -0.8766  0.1427
6.424e+09  -0.8036  0.4827  -0.02575  0.01884  -0.002539  -0.02712  -0.7726  0.3825
6.425e+09  -0.5638  0.6878  -0.01777  0.0002911  -0.01048  -0.01518  -0.6033  0.6738
6.426e+09  -0.2744  0.8695  0.04165  -0.04615  0.001892  -0.0359  -0.3448  0.7896
6.428e+09  0.0479  0.9746  -0.03836  0.04475  -0.01952  0.01395  -0.06055  0.8554
6.429e+09  0.3679  0.801  0.04411  -0.03717  0.04848  -0.003694  0.2686  0.8379
6.43e+09  0.5996  0.6607  -0.02286  -0.02916  0.04541  0.06806  0.5437  0.702
6.431e+09  0.8158  0.3666  -0.01992  -0.02014  -0.02078  0.0008607  0.7431  0.4618
6.432e+09  0.8847  0.1079  0.01933  -0.008085  -0.004373  -0.035  0.8741  0.1842
6.434e+09  0.9161  -0.2521  -0.02181  0.006747  -0.03641  0.03282  0.8729  -0.06964
6.435e+09  0.7474  -0.5189  0.007953  -0.02543  0.03726  -0.1283  0.7697  -0.4259
6.436e+09  0.5137  -0.7119  0.02552  -0.01588  0.02092  -0.01337  0.6386  -0.6258
6.438e+09  0.1963  -0.8853  -0.03653  0.008215  -0.004589  0.005227  0.3782  -0.7642
6.439e+09  -0.1387  -0.8467  -0.02579  -0.03381  0.03023  -0.01829  0.08642  -0.9169
6.44e+09  -0.3973  -0.8339  -0.01189  -0.01328  0.008074  0.04051  -0.2367  -0.8597
6.441e+09  -0.664  -0.5855  -0.03864  -0.004231  -0.02475  -0.00294  -0.4484  -0.6801
6.442e+09  -0.8735  -0.3852  -0.02867  -0.005219  0.004185  0.03444  -0.6542  -0.4841
6.444e+09  -0.9316  -0.05018  0.01482  -0.05826  0.01081  -0.02007  -0.8316  -0.2247
6.445e+09  -0.9073  0.2628  0.01558  -0.05487  0.01002  0.03427  -0.8366  0.0585
6.446e+09  -0.6922  0.5378  4.555e-05  0.0334  0.01895  -0.02457  -0.7823  0.3816
6.448e+09  -0.5298  0.7074  0.0273  -0.0172  -0.02299  -0.02349  -0.624  0.5777
6.449e+09  -0.1704  0.9057  -0.005877  -0.03946  -0.001051  0.03665  -0.3364  0.7197
6.45e+09  0.1013  0.9025  0.02877  0.03294  0.006072  -0.01452  -0.08351  0.8338
6.451e+09  0.4643  0.7904  -0.0146  0.001235  -0.02953  -0.04419  0.1941  0.8331
6.452e+09  0.756  0.6508  -0.0804  0.02271  -0.004378  0.012  0.4569  0.7074
6.454e+09  0.8662  0.2591  0.04712  -0.003695  0.01353  0.01327  0.6837  0.5064
6.455e+09  0.94  0.0109  0.002642  -0.007649  -0.00302  -0.05885  0.821  0.2011
6.456e+09  0.8908  -0.3609  0.02069  -0.04352  0.01187  -0.03889  0.8573  -0.08151
6.458e+09  0.7073  -0.5947  0.01108  -0.02469  -0.0004388  -0.007149  0.7025  -0.3537
6.459e+09  0.4063  -0.7722  0.005653  -0.03047  -0.002525  0.03099  0.6195  -0.5579
6.46e+09  0.172  -0.8667  -0.03516  -0.02844  0.008126  0.02776  0.3338  -0.7753
6.461e+09  -0.1936  -0.8887  0.03435  0.003481  0.03216  -0.03815  0.06488  -0.8026
6.462e+09  -0.5274  -0.803  -0.04158  0.05458  0.003411  0.02838  -0.2024  -0.7899
6.464e+09  -0.7582  -0.5579  -0.02437  -0.00241  0.007138  0.001104  -0.4736  -0.6459
6.465e+09  -0.8764  -0.2884  0.03878  -0.03355  0.03174  -0.04702  -0.6931  -0.4234
6.466e+09  -0.9526  0.02064  0.01577  0.02352  0.0213  0.02667  -0.7372  -0.1982
6.468e+09  -0.8639  0.4056  0.05545  0.001723  -0.05858  0.03261  -0.8415  0.06363
6.469e+09  -0.6645  0.6597  0.01183  0.01056  -0.009209  0.06811  -0.7348  0.3827
6.47e+09  -0.4248  0.8326  -0.005477  -0.007904  -0.05738  -0.0129  -0.5653  0.5812
6.471e+09  -0.04591  0.9448  0.01422  -0.04835  -0.05087  0.01594  -0.3344  0.6993
6.472e+09  0.2671  0.8954  -0.01182  0.001287  0.01776  -0.03938  -0.03665  0.7799
6.474e+09  0.5165  0.7544  -0.02926  0.009278  0.006892  0.02637  0.2356  0.8056
6.475e+09  0.7625  0.59  -0.03325  -0.01523  0.002404  -0.01437  0.4295  0.6617
6.476e+09  0.9515  0.2747  0.007308  0.01953  0.01357  -0.001409  0.6639  0.453
6.478e+09  0.9217  -0.132  0.02774  -0.02566  0.003619  -0.03246  0.7692  0.1648
6.479e+09  0.8808  -0.4498  -0.04125  0.003442  -0.004721  -0.003753  0.7405  -0.06389
6.48e+09  0.6205  -0.7084  0.02109  -0.009012  -0.01197  0.02155  0.7188  -0.3174
6.481e+09  0.365  -0.9311  -0.01535  -0.00186  -0.0202  0.01621  0.5418  -0.5627
6.482e+09  -0.00996  -0.9413  -0.04362  0.003483  -0.02461  -0.05937  0.3249  -0.6987
6.484e+09  -0.3351  -0.9393  0.03275  -0.03313  0.01217  0.002937  0.07378  -0.7871
6.485e+09  -0.6377  -0.7059  0.0191  -3.437e-05  0.08234  -0.007715  -0.1811  -0.7917
6.486e+09  -0.8405  -0.4748  -0.03291  0.006639  0.03555  -0.009395  -0.4711  -0.6007
6.488e+09  -0.9559  -0.151  0.02927  -0.0167  0.01468  -0.04747  -0.6361  -0.4229
6.489e+09  -0.9163  0.1821  0.01698  -0.0223  -0.003019  -0.01105  -0.7472  -0.2203
6.49e+09  -0.8096  0.5185  -0.001739  -0.03902  0.04661  0.04456  -0.7864  0.06457
6.491e+09  -0.5751  0.7799  0.009147  0.01147  0.03235  -0.009072  -0.6674  0.382
6.492e+09  -0.2702  0.948  0.01315  0.03137  -0.01817  0.02503  -0.536  0.5792
6.494e+09  0.06734  0.9617  -0.02245  0.003044  0.0008937  0.01244  -0.3094  0.7073
6.495e+09  0.4026  0.8466  -0.009938  0.006942  0.01524  -0.003009  -0.07386  0.7567
6.496e+09  0.6869  0.6582  -0.01504  -0.008827  -0.03639  -0.02712  0.2533  0.6939
6.498e+09  0.822  0.4242  -0.008149  0.005056  0.005622  0.0006381  0.477  0.6102
6.499e+09  0.935  0.07712  -0.009248  0.01435  -0.02482  -0.01714  0.6171  0.4069
6.5e+09  0.9336  -0.3335  -0.04121  -0.01434  0.1114  0.01905  0.7553  0.1456
6.501e+09  0.7128  -0.6182  -0.01435  -0.01035  -0.02082  0.0136  0.7217  -0.1099
6.502e+09  0.5067  -0.8411  -0.01418  -0.003371  -0.03647  0.02083  0.6589  -0.3884
6.504e+09  0.1608  -0.9363  -0.0304  -0.01989  0.0204  0.001024  0.5362  -0.5847
6.505e+09  -0.1451  -0.928  0.02748  0.02949  0.03382  0.01768  0.2816  -0.6959
6.506e+09  -0.4988  -0.8262  -0.04683  -0.01961  -0.03036  0.006293  -0.01457  -0.7568
6.508e+09  -0.7887  -0.5905  -0.01171  -0.01116  0.04743  -0.01672  -0.2394  -0.7515
6.509e+09  -0.8929  -0.2657  0.02079  -0.00424  0.03584  0.0005858  -0.5187  -0.556
6.51e+09  -0.8966  0.07574  0.03404  -0.04902  -0.08373  -0.01711  -0.686  -0.4011
6.511e+09  -0.8782  0.3975  -0.004091  0.01123  -0.05488  0.05954  -0.7336  -0.1828
6.512e+09  -0.6707  0.692  -0.01678  -0.02219  0.035  0.02935  -0.722  0.1116
6.514e+09  -0.3645  0.8515  0.001989  -0.01111  -0.03003  0.02385  -0.6659  0.3898
6.515e+09  -0.07329  0.9177  -0.02289  0.008626  0.04502  0.02785  -0.4962  0.5676
6.516e+09  0.2598  0.923  -0.02554  -0.009677  0.0249  0.007848  -0.2246  0.6862
6.518e+09  0.5475  0.7301  -0.01466  0.006328  0.02868  -0.009714  0.02867  0.7696
6.519e+09  0.7881  0.5285  0.01123  0.002249  -0.03807  0.0207  0.2453  0.6984
6.52e+09  0.9744  0.2497  -0.008374  -0.01004  0.02657  -0.05089  0.4948  0.545
6.521e+09  0.9378  -0.1493  -0.01162  0.01095  -0.03348  0.04636  0.6274  0.3296
6.522e+09  0.8212  -0.4562  -0.01832  0.02306  -0.0242  -0.005087  0.7245  0.09978
6.524e+09  0.537  -0.6906  -0.00843  -0.007395  0.04275  -0.02148  0.6919  -0.1343
6.525e+09  0.2951  -0.828  0.01056  -0.004775  -0.0275  -0.03831  0.5692  -0.4025
6.526e+09  -0.05387  -0.9016  -0.007684  -0.003233  -0.04169  -0.000659  0.4611  -0.5721
6.528e+09  -0.4118  -0.8294  -0.01118  0.01347  -0.01225  0.00802  0.2505  -0.7218
6.529e+09  -0.6304  -0.6481  -0.02126  0.01764  0.01348  -0.008062  -0.05925  -0.6718
6.53e+09  -0.8419  -0.3583  0.02741  -0.005556  -0.0493  0.005732  -0.2859  -0.6161
6.531e+09  -0.8961  -0.03864  -0.0386  0.003318  -0.03085  0.01396  -0.4658  -0.4835
6.532e+09  -0.8244  0.2427  -0.004189  0.01116  0.05032  0.01147  -0.5764  -0.2808
6.534e+09  -0.708  0.6003  0.04014  -0.01479  0.04218  -0.03136  -0.6428  -0.0848
6.535e+09  -0.478  0.7618  -0.005427  -0.01034  0.04173  -0.0004331  -0.6096  0.103
6.536e+09  -0.1536  0.8789  -0.01664  -0.008824  0.03055  0.009229  -0.5603  0.292
6.538e+09  0.1745  0.8419  0.003062  -0.0258  -0.0333  0.0303  -0.4461  0.5281
6.539e+09  0.4992  0.7617  -0.004514  0.009344  0.0191  0.05114  -0.2676  0.6059
6.54e+09  0.7106  0.545  -0.04539  0.02221  -0.01079  -0.01627  -0.06306  0.6751
6.541e+09  0.8327  0.2957  -0.0003844  -0.031  -0.04768  -0.008421  0.1851  0.6654
6.542e+09  0.874  -0.05291  -0.01207  0.02055  0.01688  -0.01087  0.3781  0.5711
6.544e+09  0.8079  -0.3953  0.01227  -0.02187  0.03306  -0.01858  0.6169  0.4014
6.545e+09  0.6461  -0.6133  -0.03039  0.02864  0.03345  -0.04393  0.7194  0.1694
6.546e+09  0.3334  -0.7574  -0.008968  -0.008775  -0.02953  -0.001198  0.7393  -0.05635
6.548e+09  0.07105  -0.8289  -0.00554  0.000472  -0.03859  -0.01546  0.6253  -0.3415
6.549e+09  -0.2518  -0.8231  0.02387  0.008129  -0.04532  -0.03445  0.5143  -0.5384
6.55e+09  -0.5212  -0.6573  0.02862  -0.0007098  0.06327  0.03313  0.2836  -0.6931
