# Hz S RI R 50
6.25e+09  -0.2502  0.7767  0.0009228  -0.01281  -0.07821  0.04079  0.1497  0.475
6.251e+09  0.01351  0.8482  0.01851  0.01172  0.00644  0.04693  0.3587  0.3699
6.252e+09  0.2828  0.8079  0.02431  -0.04301  -0.003028  -0.05193  0.5585  0.2173
6.254e+09  0.6074  0.6297  -0.01612  0.001908  0.03418  -0.01615  0.6152  0.005965
6.255e+09  0.7699  0.2826  -0.0007997  0.02964  -0.02705  -0.01832  0.5774  -0.2147
6.256e+09  0.8583  0.1733  0.003321  -0.006897  0.02068  0.01133  0.4711  -0.444
6.258e+09  0.869  -0.2056  -0.01816  -0.01137  0.05449  -0.02945  0.2977  -0.5864
6.259e+09  0.6804  -0.4859  0.01823  0.005832  -0.01854  0.0385  0.05198  -0.6751
6.26e+09  0.4227  -0.6499  0.0251  -0.01912  -0.02749  -0.01565  -0.2031  -0.6511
6.261e+09  0.2515  -0.7969  0.01172  -0.02587  0.01223  -0.005312  -0.4674  -0.5116
6.262e+09  -0.08876  -0.8408  -0.02401  -0.01917  0.03989  -0.04383  -0.6256  -0.3358
6.264e+09  -0.3576  -0.7934  0.0052  0.004105  -0.04615  0.01443  -0.7031  -0.11
6.265e+09  -0.5666  -0.5927  -0.008805  -0.02429  -0.009947  -0.02709  -0.7192  0.1281
6.266e+09  -0.7983  -0.387  -0.06093  -0.02214  0.02293  0.0313  -0.6078  0.4285
6.268e+09  -0.7917  -0.04571  0.01987  -0.01769  0.007124  -0.01166  -0.4264  0.5905
6.269e+09  -0.8229  0.2045  0.01551  0.002061  -0.0302  -0.00936  -0.2033  0.7026
6.27e+09  -0.6561  0.4768  0.01873  0.006031  0.02796  0.07429  0.07249  0.7596
6.271e+09  -0.4591  0.7096  -0.003097  0.008506  0.01458  0.009773  0.33  0.6754
6.272e+09  -0.2695  0.8143  -0.02184  0.01494  -0.001051  -0.03436  0.5672  0.5035
6.274e+09  0.05902  0.8798  0.008153  0.008681  -0.02984  0.01556  0.673  0.2953
6.275e+09  0.3654  0.7692  0.009253  0.01214  -0.01342  -0.01312  0.7769  0.07421
6.276e+09  0.6476  0.6592  -0.008132  0.0004245  0.03342  -0.001998  0.693  -0.2047
6.278e+09  0.7551  0.2682  0.009194  -0.01039  -0.03076  0.006596  0.5994  -0.4578
6.279e+09  0.8014  0.06137  -0.006804  -0.00652  0.001355  0.00397  0.434  -0.6606
6.28e+09  0.845  -0.3156  0.02432  0.001072  0.04856  0.04296  0.1475  -0.7472
6.281e+09  0.6969  -0.5199  -0.02945  -0.0022  -0.002278  -0.01854  -0.123  -0.795
6.282e+09  0.4762  -0.7193  0.02487  0.0263  -0.0512  0.02305  -0.3854  -0.6811
6.284e+09  0.1554  -0.818  -0.00362  0.0408  -0.0002798  -0.03919  -0.6276  -0.5367
6.285e+09  -0.07576  -0.878  -0.005212  -0.0008007  0.02221  0.03685  -0.7335  -0.279
6.286e+09  -0.3675  -0.7205  0.01768  -0.01442  0.03206  0.01188  -0.7758  0.002242
6.288e+09  -0.6539  -0.5446  -0.03025  -0.01246  -0.01378  0.02236  -0.7661  0.2791
6.289e+09  -0.7658  -0.325  0.02498  -0.01915  0.001879  -0.007736  -0.606  0.4988
6.29e+09  -0.816  -0.01008  0.03678  -0.02777  0.02686  -0.01648  -0.3966  0.7017
6.291e+09  -0.7651  0.271  0.00269  -0.003475  -0.001385  0.002106  -0.1386  0.7918
6.292e+09  -0.7225  0.5416  -0.01156  0.0004881  -0.009366  0.008267  0.1633  0.8075
6.294e+09  -0.4033  0.7112  -0.002414  -0.003945  0.002736  0.006474  0.3782  0.7139
6.295e+09  -0.1533  0.8644  0.01904  -0.01751  -0.02826  0.02011  0.6244  0.5185
6.296e+09  0.1548  0.7877  0.03041  0.02271  -0.01239  -0.0191  0.7587  0.2715
6.298e+09  0.4384  0.7255  0.01229  -0.0106  -0.002405  -0.01947  0.849  -0.01042
6.299e+09  0.6623  0.5209  -0.01983  0.01278  0.03533  -0.02868  0.7971  -0.2857
6.3e+09  0.7914  0.2924  0.002156  -0.002412  0.03057  0.009055  0.6362  -0.5313
6.301e+09  0.8073  0.008387  0.003687  -0.02162  -0.01881  -0.0006542  0.4  -0.7511
6.302e+09  0.8169  -0.3078  0.008222  -0.01842  -0.02136  0.01487  0.1745  -0.8422
6.304e+09  0.6464  -0.5673  0.0007052  0.007601  0.004222  0.00929  -0.158  -0.7923
6.305e+09  0.4381  -0.7696  -0.03112  -0.00824  0.02587  -0.00115  -0.4294  -0.725
6.306e+09  0.1213  -0.8082  -0.0003202  -0.006957  0.03375  0.02567  -0.6741  -0.5494
6.308e+09  -0.1785  -0.8746  0.02079  -0.005202  -0.01363  0.03644  -0.8076  -0.3229
6.309e+09  -0.4486  -0.7403  0.003509  0.02726  -0.06049  -0.01254  -0.8558  0.02106
6.31e+09  -0.6345  -0.5214  -0.01084  0.03842  0.03307  -0.04522  -0.845  0.2873
6.311e+09  -0.8148  -0.3107  0.03931  -0.03965  0.01182  -0.03746  -0.6815  0.5573
6.312e+09  -0.8634  0.04212  -0.003992  -0.01046  -0.04237  0.01225  -0.4519  0.7413
6.314e+09  -0.7683  0.3476  -0.0499  0.006526  -0.03912  0.0531  -0.1582  0.8602
6.315e+09  -0.6092  0.6067  0.02395  -0.0107  -0.03811  -0.014  0.1526  0.89
6.316e+09  -0.4164  0.7009  0.004811  -0.02152  -0.01065  -0.003888  0.3908  0.7629
6.318e+09  -0.05871  0.8371  -0.02215  0.01019  -0.06297  0.007662  0.6537  0.6046
6.319e+09  0.2488  0.8524  0.01922  0.007968  -0.003672  0.03953  0.8278  0.3257
6.32e+09  0.4787  0.7479  -0.002009  -0.01322  -0.003629  0.007387  0.8985  0.003318
6.321e+09  0.7435  0.4833  0.01123  0.0254  -0.06026  -0.01956  0.8334  -0.2956
6.322e+09  0.8873  0.2367  0.005091  0.01324  -0.01629  -0.02793  0.6715  -0.5737
6.324e+09  0.8904  -0.04262  -0.002222  -0.004944  -0.0008665  -0.01162  0.4744  -0.7717
6.325e+09  0.7387  -0.3596  -0.003421  -0.04672  -0.03614  -0.007579  0.1446  -0.9064
6.326e+09  0.6012  -0.6637  0.02214  -0.003347  -0.003985  0.009067  -0.1207  -0.8919
6.328e+09  0.295  -0.818  -0.01417  -0.01623  0.04186  0.02799  -0.4786  -0.7979
6.329e+09  0.04677  -0.8605  -0.03275  -0.009103  -0.01321  0.01252  -0.6856  -0.5857
6.33e+09  -0.2836  -0.8552  -0.007851  -0.03165  0.02072  -0.03555  -0.8308  -0.3417
6.331e+09  -0.5338  -0.6983  -0.006701  0.01092  -0.02496  -0.003118  -0.8964  -0.003987
6.332e+09  -0.7358  -0.4328  0.02473  -0.00505  0.02066  -0.001738  -0.8444  0.2604
6.334e+09  -0.9362  -0.1915  -0.01979  -0.002988  -0.001038  0.02659  -0.7269  0.5562
6.335e+09  -0.8464  0.1263  -0.01687  0.002178  0.006878  -0.0001527  -0.5139  0.7723
6.336e+09  -0.7385  0.4327  0.01774  0.003072  -0.06172  -0.01175  -0.214  0.8932
6.338e+09  -0.5793  0.668  0.002474  0.01083  0.005917  0.04118  0.09936  0.8733
6.339e+09  -0.2898  0.7944  -0.05048  0.0277  -0.02836  -0.03895  0.437  0.826
6.34e+09  0.05403  0.8949  -0.0208  0.01487  0.003228  0.002794  0.6808  0.6223
6.341e+09  0.3288  0.8114  0.01133  0.002238  0.01314  -0.01788  0.8485  0.3624
6.342e+09  0.5714  0.6446  0.007311  0.01733  -0.01848  -0.02282  0.9416  0.02178
6.344e+09  0.7953  0.3981  -0.02464  0.003288  0.04588  -0.02333  0.8858  -0.2442
6.345e+09  0.9187  0.1099  0.00419  -0.02466  -0.01477  -0.02498  0.7675  -0.5631
6.346e+09  0.8213  -0.189  -0.009856  0.02544  -3.79e-05  0.008952  0.5281  -0.7946
6.348e+09  0.7612  -0.5357  0.04065  0.02002  0.02384  0.05104  0.1906  -0.9264
6.349e+09  0.5027  -0.7179  -0.01135  -0.04264  0.0299  0.04061  -0.09426  -0.9369
6.35e+09  0.2758  -0.8441  -0.01156  -0.01859  -0.01047  -0.02545  -0.4072  -0.848
6.351e+09  -0.06231  -0.8654  -0.02093  -0.01008  0.02256  -0.0193  -0.6697  -0.6429
6.352e+09  -0.3976  -0.8149  0.008072  0.02177  0.006404  0.01119  -0.8855  -0.3135
6.354e+09  -0.6467  -0.6261  0.01199  -0.01496  0.01864  0.01481  -0.9521  -0.06468
6.355e+09  -0.8516  -0.3134  0.004333  0.01308  -0.001008  -0.01448  -0.9125  0.2687
6.356e+09  -0.886  -0.06811  -0.008261  0.005651  -0.04065  0.009342  -0.7464  0.5677
6.358e+09  -0.8599  0.2488  0.005418  0.01786  -0.01228  0.001739  -0.5252  0.8146
6.359e+09  -0.7417  0.5522  0.04008  0.04203  0.006481  -0.01697  -0.2275  0.917
6.36e+09  -0.448  0.7769  0.01997  0.01188  -0.03082  0.002965  0.1196  0.9779
6.361e+09  -0.2008  0.881  -0.02142  -0.00558  0.0157  0.01778  0.4108  0.8736
6.362e+09  0.096  0.8375  -0.02568  0.003191  -0.01554  -0.04483  0.6995  0.6551
6.364e+09  0.4205  0.7967  0.02059  0.0009469  0.01208  -0.02268  0.8887  0.3947
6.365e+09  0.668  0.6409  0.002332  -0.007804  0.03175  0.00555  0.9537  0.08897
6.366e+09  0.7827  0.2725  0.005079  -0.005216  0.02849  0.02284  0.9157  -0.2505
6.368e+09  0.8723  -0.007389  -0.02979  -0.01633  0.01249  -0.009591  0.7962  -0.5631
6.369e+09  0.8106  -0.3615  0.03458  0.003354  0.01058  0.0529  0.555  -0.7573
6.37e+09  0.6991  -0.5608  0.007976  0.004627  0.01085  -0.03539  0.241  -0.9324
6.371e+09  0.3857  -0.7925  0.03063  0.03398  0.002886  0.04153  -0.0707  -0.9585
6.372e+09  0.1721  -0.8887  0.0035  0.03284  -0.02765  -0.002286  -0.3658  -0.8645
6.374e+09  -0.1881  -0.8846  0.00962  -0.006726  -0.01408  0.00519  -0.6335  -0.6752
6.375e+09  -0.4269  -0.7441  0.02147  0.006997  -0.02755  0.03675  -0.8363  -0.4313
6.376e+09  -0.7194  -0.5187  -0.02069  0.01502  0.02742  0.04744  -0.9653  -0.1035
6.378e+09  -0.8864  -0.3236  -0.04554  -0.03602  -0.01206  -0.004276  -0.9105  0.2547
6.379e+09  -0.9071  0.008028  0.03008  -0.002648  0.03376  0.02109  -0.7527  0.5777
6.38e+09  -0.8204  0.3213  -0.01196  -0.01828  0.03653  0.01122  -0.5578  0.7299
6.381e+09  -0.6836  0.5837  0.009636  -0.02987  -0.02951  -0.006654  -0.2632  0.8602
6.382e+09  -0.4451  0.7373  -0.03009  -0.003747  0.008802  0.02037  0.06706  0.9593
6.384e+09  -0.1098  0.8841  -0.02953  0.0004504  -0.02557  0.03112  0.3837  0.8772
6.385e+09  0.228  0.8768  0.02399  -0.004273  0.02374  -0.01832  0.6534  0.7198
6.386e+09  0.481  0.7251  0.03121  -0.01218  -0.03399  0.03295  0.8341  0.404
6.388e+09  0.755  0.527  -0.03157  0.02627  -0.001676  0.0329  0.9029  0.1188
6.389e+09  0.8515  0.2276  0.01816  -0.002936  0.02962  0.03673  0.9277  -0.2362
6.39e+09  0.9046  -0.1153  0.03775  -0.03127  0.008483  0.009065  0.8141  -0.4742
6.391e+09  0.8397  -0.3563  -0.01292  0.05108  0.01632  0.01485  0.552  -0.757
6.392e+09  0.6685  -0.6321  0.00402  -0.02099  0.001352  0.01518  0.298  -0.8719
6.394e+09  0.3442  -0.8289  0.01797  0.004686  -0.03482  0.0196  -0.03955  -0.9032
6.395e+09  0.08764  -0.8755  -0.0003911  0.03861  -0.02459  -0.003866  -0.3313  -0.8401
6.396e+09  -0.2523  -0.8515  -0.001702  0.03049  0.001901  -0.03669  -0.646  -0.6836
6.398e+09  -0.5015  -0.7156  -0.03109  -0.006204  -0.03956  0.02587  -0.7896  -0.4638
6.399e+09  -0.7447  -0.4942  -0.01157  -0.003596  -0.04319  0.02742  -0.8731  -0.1337
6.4e+09  -0.882  -0.1725  0.0101  0.006188  -0.01085  0.005805  -0.911  0.1462
6.401e+09  -0.8067  0.1295  0.0139  0.01222  -0.0644  0.02321  -0.7425  0.5162
6.402e+09  -0.8012  0.3946  -0.01172  0.003712  0.004292  -0.01306  -0.6133  0.6953
6.404e+09  -0.6593  0.6879  -0.04819  -0.02267  0.04502  0.01818  -0.2957  0.9008
6.405e+09  -0.3466  0.8014  0.0165  0.02379  -0.0305  0.03807  -0.01412  0.948
6.406e+09  -0.07008  0.8674  0.01274  -0.008102  -0.001535  -0.01934  0.2531  0.9017
6.408e+09  0.2807  0.8243  -0.05002  0.004965  -0.03017  0.009364  0.6114  0.6926
6.409e+09  0.5123  0.7381  -0.02082  0.01145  -0.01288  -0.004186  0.7699  0.4586
6.41e+09  0.7188  0.4889  0.01747  -0.01052  -0.009197  -0.0221  0.9086  0.1682
6.411e+09  0.8318  0.2318  0.008416  -0.006287  0.0131  -0.02534  0.9607  -0.1457
6.412e+09  0.9107  -0.1215  -0.009358  0.02408  -0.00152  0.002081  0.8229  -0.445
6.414e+09  0.751  -0.381  0.0187  0.02765  -0.0504  0.04475  0.6335  -0.6589
6.415e+09  0.5918  -0.631  0.02101  -0.01812  0.0009755  0.0248  0.328  -0.8069
6.416e+09  0.3068  -0.8758  -0.04881  0.0006792  -0.01062  0.002679  0.01571  -0.8806
6.418e+09  0.02889  -0.8836  0.008344  -0.004452  0.06701  -0.03113  -0.2531  -0.8448
6.419e+09  -0.254  -0.8734  -0.02278  -0.02497  -0.03025  0.01673  -0.538  -0.752
6.42e+09  -0.5587  -0.7214  0.01032  -0.01512  0.004931  0.002971  -0.7221  -0.4848
6.421e+09  -0.7492  -0.4722  -0.00911  -0.003534  -0.04344  0.02854  -0.876  -0.2145
6.422e+09  -0.8491  -0.1809  -0.006541  -0.005963  -0.02602  -0.00589  -0.8921  0.1064
6.424e+09  -0.8769  0.08138  0.008907  -0.006935  0.01603  -0.009826  -0.8097  0.359
6.425e+09  -0.7613  0.3838  -0.009543  0.02449  0.005977  -0.004899  -0.6255  0.6938
6.426e+09  -0.5471  0.7146  0.03637  -0.009026  -0.004044  -0.01807  -0.3673  0.79
6.428e+09  -0.3051  0.8264  0.008644  -0.004648  -0.04759  0.0196  -0.006787  0.8704
6.429e+09  -0.01065  0.9093  -0.01871  -0.004401  -0.01297  -0.03591  0.2356  0.8703
6.43e+09  0.2702  0.8866  -0.02365  -0.009325  0.02506  -0.0109  0.583  0.7202
6.431e+09  0.5745  0.6967  0.01486  -0.0191  0.02755  0.01092  0.7392  0.4896
6.432e+09  0.7727  0.4559  -0.01321  -0.02483  -0.03314  -0.03308  0.8678  0.2141
6.434e+09  0.7992  0.1648  -0.008227  0.02887  -0.02895  -0.02424  0.8726  -0.1035
6.435e+09  0.8764  -0.09325  -0.022  0.03732  0.01765  -0.02323  0.7609  -0.3842
6.436e+09  0.7883  -0.4301  -0.01311  0.002431  0.01298  -0.03232  0.5892  -0.6191
6.438e+09  0.554  -0.7059  0.03724  0.04072  0.04173  -0.03447  0.3463  -0.7762
6.439e+09  0.2983  -0.8247  -0.02555  0.03962  0.01572  0.004108  0.06091  -0.8618
6.44e+09  -0.006342  -0.8839  -0.03388  0.04555  -0.04128  -0.01039  -0.2628  -0.8601
6.441e+09  -0.3295  -0.8171  -0.02252  -0.002805  0.02972  0.04533  -0.4919  -0.7336
6.442e+09  -0.5174  -0.6903  0.06307  0.00635  -0.02273  -0.03195  -0.741  -0.4744
6.444e+09  -0.7565  -0.446  0.02842  -0.01377  0.0005087  -0.02305  -0.8358  -0.2156
6.445e+09  -0.8898  -0.128  0.01237  0.02344  0.04555  0.04516  -0.8479  0.06114
6.446e+09  -0.9197  0.166  -0.03835  0.02991  0.07447  -0.001715  -0.7401  0.3411
6.448e+09  -0.8059  0.4811  0.08192  0.0317  0.01815  -0.02607  -0.6059  0.6129
6.449e+09  -0.5919  0.7031  -0.0138  0.01508  -0.03887  0.04393  -0.3061  0.7605
6.45e+09  -0.2958  0.8194  0.0275  0.01011  0.004653  -0.001649  -0.1066  0.8397
6.451e+09  0.01565  0.8728  0.01349  0.002798  -0.01946  0.0174  0.2442  0.8132
6.452e+09  0.3291  0.8342  -0.004273  -0.03928  -0.03741  0.04391  0.5121  0.6851
6.454e+09  0.5696  0.6867  -0.003009  -0.03737  -0.03214  -0.03376  0.7183  0.449
6.455e+09  0.8186  0.4936  0.02535  -0.04977  -0.01813  0.00417  0.809  0.2012
6.456e+09  0.8827  0.1413  -0.005058  0.04625  -0.006612  0.006523  0.8104  -0.09563
6.458e+09  0.9119  -0.1555  -0.0003969  -0.01075  0.03174  -0.005679  0.7179  -0.3707
6.459e+09  0.7767  -0.4919  -0.007042  -0.003582  -0.02794  0.01594  0.6013  -0.5892
6.46e+09  0.5767  -0.6881  0.005226  0.01882  0.0002598  -0.03381  0.3698  -0.7523
6.461e+09  0.2811  -0.8634  -0.004232  0.02576  -0.02023  0.002035  0.02329  -0.833
6.462e+09  -0.02095  -0.9506  -0.02354  0.0492  0.006243  -0.01794  -0.241  -0.8098
6.464e+09  -0.3549  -0.8493  0.00484  0.02949  0.03256  -0.03272  -0.4915  -0.643
6.465e+09  -0.6373  -0.6885  -0.003929  0.02233  -0.0042  -0.02925  -0.6719  -0.4657
6.466e+09  -0.8241  -0.4949  0.01465  0.009983  0.01401  0.01332  -0.7816  -0.2015
6.468e+09  -0.9388  -0.1405  -0.01274  0.02033  0.0376  0.007025  -0.7747  0.06126
6.469e+09  -0.9527  0.1927  0.01138  0.01722  0.0057  0.03409  -0.6896  0.3494
6.47e+09  -0.8054  0.527  -0.002811  -0.006618  -0.01386  -0.00525  -0.5523  0.5578
6.471e+09  -0.5918  0.7271  -0.03058  0.03263  0.02843  0.02606  -0.3664  0.7197
6.472e+09  -0.2482  0.9362  -0.03785  -0.005244  -0.003727  -0.04405  -0.07451  0.7837
6.474e+09  0.05225  0.8946  0.03737  -0.01204  -0.01933  0.01319  0.1863  0.7827
6.475e+09  0.4138  0.8133  0.008859  0.01492  0.03191  0.04859  0.4539  0.6752
6.476e+09  0.6474  0.6778  0.02168  -0.001336  -0.001356  0.08305  0.6343  0.4821
6.478e+09  0.8031  0.4206  -0.001908  0.007257  0.00445  -0.05348  0.7438  0.1761
6.479e+09  0.9063  0.09659  0.02307  -0.03805  0.01358  0.02468  0.8028  -0.05867
6.48e+09  0.9004  -0.204  -0.02624  -0.000398  -0.02129  0.01159  0.7292  -0.346
6.481e+09  0.7736  -0.5337  0.002914  -0.04501  0.04738  0.009352  0.5161  -0.5976
6.482e+09  0.5418  -0.743  0.02333  -0.00908  0.07821  0.06084  0.3246  -0.6867
6.484e+09  0.2946  -0.898  -0.002478  -0.04709  0.008731  0.03177  0.02658  -0.7923
6.485e+09  -0.07193  -0.9173  0.004566  0.005606  -0.03745  -0.05083  -0.1942  -0.7168
6.486e+09  -0.3923  -0.8717  0.003819  -0.01097  0.004925  0.01576  -0.4909  -0.5866
6.488e+09  -0.6468  -0.6655  0.06982  0.01028  -0.01281  0.01543  -0.6646  -0.4068
6.489e+09  -0.8422  -0.4249  0.008045  -0.01326  0.0001121  0.02027  -0.7386  -0.1805
6.49e+09  -0.9398  -0.1317  -0.009003  0.03625  0.007208  0.01709  -0.8076  0.05201
6.491e+09  -0.884  0.1664  0.03145  0.03501  0.0006471  -0.04748  -0.6707  0.3231
6.492e+09  -0.7489  0.5813  0.05475  -0.0154  -0.04893  0.002688  -0.5384  0.5762
6.494e+09  -0.5486  0.7992  0.001493  -0.005516  -0.04433  0.006517  -0.2866  0.6914
6.495e+09  -0.1957  0.942  -0.03311  0.03382  0.03465  0.003556  -0.03123  0.7863
6.496e+09  0.09644  0.9588  0.03947  0.03163  0.01267  0.06606  0.2554  0.7302
6.498e+09  0.4099  0.8515  -0.01779  -0.01205  0.01978  0.01077  0.4891  0.6134
6.499e+09  0.7054  0.6504  0.01527  0.0142  0.001042  -0.005464  0.6263  0.4248
6.5e+09  0.8846  0.3848  0.005097  0.02526  0.02268  0.03104  0.7285  0.1819
6.501e+09  0.9813  0.04153  0.000996  0.005882  -0.02963  0.004008  0.7978  -0.1107
6.502e+09  0.8559  -0.2916  -0.01236  -0.00512  0.02388  0.01437  0.6741  -0.3919
6.504e+09  0.7388  -0.5743  0.008719  0.0005225  0.004786  -0.01666  0.5229  -0.627
6.505e+09  0.4905  -0.8041  -0.007663  -0.01259  0.01882  0.01326  0.284  -0.7123
6.506e+09  0.1609  -0.9773  0.02255  -0.01305  0.009262  -0.02969  0.06351  -0.7658
6.508e+09  -0.1583  -1.002  -0.005685  0.04851  -0.01022  0.04938  -0.2137  -0.7231
6.509e+09  -0.4666  -0.8567  0.01355  0.008537  -0.05179  -0.03596  -0.5132  -0.5859
6.51e+09  -0.7606  -0.6597  0.01188  0.0174  0.005244  -0.02802  -0.6456  -0.3982
6.511e+09  -0.8829  -0.2994  0.03575  0.01762  0.02306  -0.003938  -0.7408  -0.1123
6.512e+09  -0.9882  0.04462  0.002724  0.022  -0.0244  -0.02998  -0.7701  0.1223
6.514e+09  -0.8928  0.3285  -0.01528  0.03505  0.01318  -0.02378  -0.624  0.3813
6.515e+09  -0.7182  0.6384  -0.01107  0.02888  0.01674  -0.001669  -0.4878  0.5669
6.516e+09  -0.464  0.8502  -0.0005516  -0.001975  0.002164  -0.05506  -0.2472  0.73
6.518e+09  -0.09878  0.9434  -0.03531  -0.009321  0.0162  0.00223  0.02512  0.7417
6.519e+09  0.1997  0.9711  0.02433  -0.01484  0.004584  -0.006661  0.2512  0.6759
6.52e+09  0.5386  0.8019  -0.01985  -0.02309  -0.03287  -0.06781  0.4579  0.5407
6.521e+09  0.7912  0.5925  -0.001435  0.01089  0.01781  0.006874  0.6533  0.3088
6.522e+09  0.9691  0.2874  0.01363  -0.01928  0.003583  -0.02041  0.7459  0.08793
6.524e+09  1.002  -0.07704  0.03447  0.01283  0.004223  -0.01436  0.7034  -0.1633
6.525e+09  0.895  -0.4154  -0.03079  0.009898  -0.01068  -0.03906  0.6225  -0.4247
6.526e+09  0.6575  -0.6631  0.01904  -0.01939  0.07558  -0.008155  0.4373  -0.5662
6.528e+09  0.4206  -0.8794  0.01668  0.009454  -0.0002001  0.005685  0.2174  -0.7029
6.529e+09  0.06429  -0.9713  0.03389  -0.006461  -0.01153  -0.003387  -0.05644  -0.7036
6.53e+09  -0.2785  -0.9273  -0.00137  0.02178  -0.07875  0.01077  -0.2586  -0.6558
6.531e+09  -0.6141  -0.7743  0.04379  -0.01879  -0.02266  -0.01182  -0.4609  -0.4933
6.532e+09  -0.7753  -0.4407  -0.02868  0.0204  0.002131  -0.003915  -0.6136  -0.2797
6.534e+09  -0.9439  -0.1827  -0.001046  0.0309  0.03184  -0.005539  -0.6759  -0.1244
6.535e+09  -1.006  0.1308  -0.008554  -0.002082  -0.007872  0.005658  -0.623  0.1171
6.536e+09  -0.8207  0.4766  0.01281  -0.01484  0.02423  0.02295  -0.5697  0.2929
6.538e+09  -0.6137  0.7574  0.02729  0.01602  -0.01212  -0.0406  -0.4513  0.4486
6.539e+09  -0.3638  0.9969  -0.003968  0.01407  0.002893  0.02766  -0.3021  0.6063
6.54e+09  0.02373  1.025  -0.004122  -0.001759  -0.002005  0.04029  -0.0514  0.7063
6.541e+09  0.3359  0.9309  0.005936  -0.03174  -0.03599  0.05271  0.1684  0.6912
6.542e+09  0.6604  0.7058  0.01491  0.0295  0.05423  0.04676  0.392  0.5363
6.544e+09  0.8556  0.4618  0.0307  0.003853  -0.002145  -0.03749  0.5944  0.3945
6.545e+09  0.9805  0.122  -0.0249  -0.02974  -0.01804  0.02372  0.7171  0.1608
6.546e+09  0.9548  -0.2573  0.01831  -0.01701  -0.01602  0.04212  0.7242  -0.1177
6.548e+09  0.8052  -0.5039  0.03284  0.006518  0.03823  -0.005173  0.6473  -0.3089
6.549e+09  0.5988  -0.7946  -0.02124  0.001984  0.003576  -0.009085  0.5244  -0.5438
6.55e+09  0.1997  -0.914  0.01694  -0.01589  -0.02749  0.01721  0.2883  -0.658
