# Hz S RI R 50
6.25e+09  0.5584  -0.5206  -0.03246  -0.007542  0.04414  0.01254  0.1402  0.493
6.251e+09  0.4143  -0.6854  0.01847  0.002279  -0.04224  0.01538  0.3458  0.4614
6.252e+09  0.062  -0.8181  -0.01497  -0.02233  0.01766  0.01664  0.4951  0.2469
6.254e+09  -0.2098  -0.785  0.0003557  0.02576  -0.03832  -0.01192  0.6194  -0.008266
6.255e+09  -0.513  -0.6324  -0.02947  0.04262  -0.008456  -0.03562  0.6239  -0.223
6.256e+09  -0.6867  -0.4294  -0.02779  -0.02084  0.02778  -0.01038  0.4999  -0.4695
6.258e+09  -0.7851  -0.1779  0.0207  -0.004441  0.008436  0.0008095  0.2892  -0.5952
6.259e+09  -0.8034  0.1694  0.0102  -0.0136  0.06317  0.002626  0.06779  -0.6683
6.26e+09  -0.6679  0.4607  -0.006656  -0.001226  0.02397  0.06074  -0.2133  -0.6841
6.261e+09  -0.4856  0.6524  0.008842  -0.01279  -0.03724  -0.008425  -0.4649  -0.5554
6.262e+09  -0.2238  0.7909  -0.004642  0.02599  -0.02229  -0.02111  -0.6257  -0.3374
6.264e+09  0.1043  0.7769  0.001715  -0.002186  0.02294  0.08616  -0.7221  -0.09357
6.265e+09  0.3214  0.7334  -0.0201  -0.02341  0.0627  -0.01032  -0.6737  0.1488
6.266e+09  0.5964  0.5026  -0.0007043  0.001214  0.007562  0.01633  -0.6255  0.4073
6.268e+09  0.7425  0.3084  -9.483e-05  -0.01203  -0.02232  -0.00565  -0.4141  0.6084
6.269e+09  0.7793  0.002482  -0.01453  0.02392  0.01266  -0.0507  -0.192  0.7655
6.27e+09  0.8165  -0.2561  -0.01377  -0.0164  -0.0255  -0.02215  0.05541  0.7531
6.271e+09  0.5539  -0.4833  0.01024  -0.001805  -0.03139  0.0594  0.3165  0.6763
6.272e+09  0.3722  -0.6525  -0.008805  0.003569  -0.008854  0.03872  0.5493  0.496
6.274e+09  0.02957  -0.7009  -0.005623  -0.02506  -0.06725  0.04594  0.6882  0.2649
6.275e+09  -0.2068  -0.7199  0.01942  0.007258  0.01929  0.04684  0.7619  0.03022
6.276e+09  -0.4045  -0.6527  0.02596  0.002601  0.01991  -0.03556  0.7514  -0.222
6.278e+09  -0.6477  -0.4552  0.005103  -0.006997  -0.03899  0.03123  0.619  -0.4646
6.279e+09  -0.7905  -0.1989  -0.009206  -0.02711  0.01321  -0.009549  0.4366  -0.6314
6.28e+09  -0.7705  0.05664  -0.03974  0.005318  -0.03146  0.0615  0.1686  -0.7764
6.281e+09  -0.6679  0.3547  -0.002677  -0.006411  -0.05146  -0.04493  -0.08616  -0.7685
6.282e+09  -0.5237  0.5935  -0.0232  0.001753  0.002095  0.03377  -0.3675  -0.6798
6.284e+09  -0.2764  0.7334  0.01435  0.002789  0.003382  0.001064  -0.5798  -0.5632
6.285e+09  -0.02944  0.8197  0.02325  -0.0126  -0.01459  -0.0001554  -0.7113  -0.3215
6.286e+09  0.3183  0.8203  0.009498  0.007344  0.006757  -0.007174  -0.783  -0.01158
6.288e+09  0.5135  0.6194  -0.002198  0.0129  0.00487  -0.01308  -0.7303  0.2456
6.289e+09  0.6989  0.3703  -0.01754  -0.04321  0.007953  -0.04297  -0.636  0.5153
6.29e+09  0.8192  0.0505  -0.006936  0.005658  0.02266  -0.01067  -0.4253  0.6855
6.291e+09  0.783  -0.1747  0.02719  -0.003122  -0.002546  0.06944  -0.1518  0.7747
6.292e+09  0.6099  -0.4696  -0.01817  -0.003982  0.04111  -0.002771  0.1413  0.8099
6.294e+09  0.4627  -0.6654  0.02254  0.004451  -0.005188  0.01444  0.445  0.7106
6.295e+09  0.1974  -0.8277  0.0401  0.006503  -0.00565  -0.02346  0.5966  0.5079
6.296e+09  -0.1122  -0.7873  0.006438  0.01439  0.01734  -0.05225  0.7422  0.2927
6.298e+09  -0.3571  -0.6982  0.03107  -0.02108  -0.03552  -0.002197  0.8365  0.04336
6.299e+09  -0.6399  -0.5244  0.01152  -0.02297  -0.03737  -0.01554  0.7893  -0.2832
6.3e+09  -0.7657  -0.2697  -0.004856  0.02063  -0.01557  -0.0006277  0.6413  -0.5094
6.301e+09  -0.7454  0.02003  0.02673  0.009835  -0.03814  0.004945  0.4347  -0.7291
6.302e+09  -0.7625  0.2947  -0.0007369  -0.002937  -0.01665  0.02229  0.1418  -0.8161
6.304e+09  -0.641  0.5155  0.005678  -0.005561  -0.02811  -0.03123  -0.1576  -0.7836
6.305e+09  -0.4392  0.7059  0.01163  -0.01084  0.006698  0.04458  -0.3924  -0.7438
6.306e+09  -0.0953  0.8185  0.01816  -0.007921  -0.01276  -0.01387  -0.6586  -0.544
6.308e+09  0.1933  0.7866  -0.004642  0.01584  0.07441  0.0289  -0.8039  -0.2983
6.309e+09  0.4839  0.6665  0.003336  -0.005821  -0.0194  0.009811  -0.8524  -0.01171
6.31e+09  0.7001  0.4212  0.01952  0.02563  0.00712  0.02588  -0.7929  0.2791
6.311e+09  0.7709  0.1981  0.009098  0.01751  -0.008159  0.003975  -0.657  0.5491
6.312e+09  0.8309  -0.1527  0.01428  -0.008358  0.009281  0.03065  -0.4618  0.7679
6.314e+09  0.737  -0.3927  -0.01096  0.00466  -0.02283  0.0004283  -0.1577  0.8194
6.315e+09  0.5379  -0.6  -0.01734  -0.001481  0.01024  -0.01074  0.1449  0.9035
6.316e+09  0.2657  -0.7578  0.006246  -0.01508  0.04596  -0.0262  0.4411  0.7807
6.318e+09  -0.04034  -0.8115  -0.01093  -0.01253  -0.02593  0.02518  0.6565  0.5818
6.319e+09  -0.2962  -0.7379  -0.007749  -0.003205  0.008973  0.05286  0.835  0.3246
6.32e+09  -0.5887  -0.6191  -0.02972  0.01279  0.01719  -0.009964  0.8882  0.04284
6.321e+09  -0.7394  -0.3667  0.007363  0.003367  -0.02454  0.001077  0.819  -0.3053
6.322e+09  -0.7866  -0.08161  -0.005796  -0.008664  0.002496  -0.01393  0.6999  -0.5757
6.324e+09  -0.7951  0.2525  -0.008262  0.01916  -0.00727  0.06285  0.4533  -0.7673
6.325e+09  -0.6694  0.4774  0.01548  0.01631  -0.002411  0.02019  0.174  -0.8533
6.326e+09  -0.4983  0.7142  -0.04507  -0.008152  -0.04454  -0.01588  -0.1494  -0.8575
6.328e+09  -0.1864  0.8245  -0.001526  0.01429  0.01042  -0.04541  -0.4652  -0.7966
6.329e+09  0.07909  0.8146  -0.002215  0.01464  0.02994  -0.02076  -0.6889  -0.6299
6.33e+09  0.3934  0.6823  0.04827  -0.02724  -0.01523  -0.008582  -0.8664  -0.3178
6.331e+09  0.6345  0.5843  -0.0003473  0.02296  0.02775  0.0448  -0.8865  -0.04049
6.332e+09  0.7969  0.2922  -0.02312  0.02481  -0.01863  0.03551  -0.8668  0.3087
6.334e+09  0.8037  0.0336  -0.03497  0.003246  0.04756  -0.01419  -0.7215  0.5637
6.335e+09  0.7765  -0.3137  0.01552  -0.004641  0.02651  0.01195  -0.4434  0.7699
6.336e+09  0.6297  -0.5563  0.01061  0.02407  -0.04134  0.005019  -0.1962  0.8828
6.338e+09  0.3089  -0.7268  0.007287  -0.02556  -0.02288  0.03696  0.1291  0.9724
6.339e+09  0.04753  -0.788  -0.01025  0.006234  -0.01828  -0.0002802  0.4215  0.8127
6.34e+09  -0.2198  -0.8157  -0.007966  0.03482  -0.04675  -0.03971  0.6788  0.6377
6.341e+09  -0.4505  -0.6295  0.001587  -0.000258  -0.002323  0.04542  0.8646  0.3993
6.342e+09  -0.6867  -0.451  -0.0009178  0.003324  0.01773  0.0251  0.9404  0.06006
6.344e+09  -0.8153  -0.1649  -0.0261  -0.0195  -0.006456  -0.02494  0.8684  -0.2515
6.345e+09  -0.8054  0.04689  -0.03086  0.01547  -0.04031  0.00698  0.7306  -0.5954
6.346e+09  -0.6987  0.4474  -0.0089  -0.009718  0.01616  -0.03799  0.4791  -0.7961
6.348e+09  -0.5431  0.6547  0.04837  -0.03908  0.01742  -0.01903  0.2447  -0.8897
6.349e+09  -0.2667  0.744  -0.0052  0.006485  0.01766  0.008174  -0.1365  -0.9421
6.35e+09  0.03922  0.8069  0.03903  0.002009  0.04895  0.007207  -0.419  -0.864
6.351e+09  0.2982  0.8155  0.01162  0.02973  -0.003468  -0.02895  -0.6647  -0.6458
6.352e+09  0.5724  0.6133  -0.00218  0.005495  0.02409  0.008866  -0.8744  -0.3586
6.354e+09  0.7071  0.331  -0.01048  -0.0231  -0.01053  -0.007575  -0.9218  -0.08367
6.355e+09  0.8398  0.1013  -0.003681  0.02337  0.006991  -0.03484  -0.8818  0.2735
6.356e+09  0.7869  -0.2757  -0.04526  0.01801  0.05212  0.02071  -0.7895  0.5678
6.358e+09  0.6763  -0.503  -0.007683  -0.0147  -0.01248  0.02527  -0.4983  0.7845
6.359e+09  0.4624  -0.6816  0.005475  0.001249  -0.02354  -0.04451  -0.2816  0.9064
6.36e+09  0.1615  -0.8034  0.01256  -0.01511  -0.005005  -0.0113  0.1166  0.95
6.361e+09  -0.1026  -0.8262  0.03728  -0.006576  -0.02609  0.002674  0.4188  0.8763
6.362e+09  -0.4379  -0.7386  -0.001586  0.03336  -0.04571  0.04275  0.6812  0.6996
6.364e+09  -0.6497  -0.5168  0.02927  -0.02284  -0.001301  0.02888  0.8341  0.3689
6.365e+09  -0.8219  -0.2791  -0.008925  -0.009205  -0.02168  0.005971  0.9347  0.05781
6.366e+09  -0.8585  0.06724  0.01432  -0.05301  -0.02555  -0.01233  0.896  -0.2646
6.368e+09  -0.8045  0.3267  -0.03249  -0.008872  0.02608  -0.02991  0.7442  -0.541
6.369e+09  -0.5832  0.6284  0.01979  -0.01041  -0.0007292  -0.007315  0.5378  -0.8024
6.37e+09  -0.3386  0.7664  0.0315  0.001872  0.01419  -0.02102  0.2693  -0.9486
6.371e+09  -0.02296  0.8127  0.007618  0.01243  0.03242  -0.008179  -0.09263  -0.9698
6.372e+09  0.2552  0.7932  -0.009438  -0.01955  0.0315  0.01761  -0.3649  -0.8485
6.374e+09  0.5595  0.616  0.01142  -0.006583  -0.02079  0.01945  -0.6734  -0.6931
6.375e+09  0.7585  0.4313  -0.02671  -0.02278  -0.03277  -0.01763  -0.8531  -0.4301
6.376e+09  0.7846  0.1398  0.0004919  0.02215  -0.08293  0.04083  -0.9818  -0.09669
6.378e+09  0.8506  -0.2121  0.02356  -0.01176  0.02394  0.007686  -0.8873  0.2457
6.379e+09  0.742  -0.4739  0.04355  -0.02892  0.005129  0.03798  -0.7817  0.5074
6.38e+09  0.4945  -0.727  -0.03269  -0.02999  0.006252  0.01904  -0.5839  0.7463
6.381e+09  0.2227  -0.8118  0.0005401  0.007501  -0.00291  0.03938  -0.2866  0.9044
6.382e+09  -0.09655  -0.8451  0.01116  -0.001774  0.05864  0.03542  0.07334  0.9199
6.384e+09  -0.3844  -0.7616  -0.0159  -0.004675  -0.006112  0.03304  0.3788  0.854
6.385e+09  -0.6447  -0.6171  -0.02007  0.02459  0.01732  0.04298  0.6302  0.6354
6.386e+09  -0.8735  -0.2902  -0.007994  0.02668  -0.004432  0.0467  0.8245  0.4386
6.388e+09  -0.8682  0.02602  -0.02136  0.02684  -0.005186  0.01208  0.9144  0.1317
6.389e+09  -0.7492  0.3491  0.01461  -0.03034  -0.02133  -0.03154  0.8765  -0.1724
6.39e+09  -0.6422  0.5933  0.03306  0.02558  0.01046  -0.02398  0.7812  -0.48
6.391e+09  -0.4094  0.7551  -0.01638  0.01374  -0.01639  0.05133  0.5677  -0.7549
6.392e+09  -0.07177  0.8704  -0.007285  -0.005571  0.02712  0.04023  0.2614  -0.9049
6.394e+09  0.2811  0.8513  -0.02601  0.01588  -0.02473  0.001516  -0.02786  -0.9252
6.395e+09  0.5098  0.6746  -0.03845  0.007448  0.03037  -0.01061  -0.3186  -0.8523
6.396e+09  0.7255  0.4728  -0.01717  -0.02015  0.01352  0.02436  -0.6443  -0.6624
6.398e+09  0.8111  0.1494  0.005512  0.00651  -0.03311  0.02305  -0.8064  -0.4457
6.399e+09  0.9049  -0.2039  0.0125  0.009839  0.005727  0.01918  -0.9099  -0.1151
6.4e+09  0.6577  -0.5061  0.02786  -0.007379  0.02414  0.03987  -0.875  0.1971
6.401e+09  0.5597  -0.6566  -0.02477  0.04906  0.03211  -0.02556  -0.817  0.4643
6.402e+09  0.2169  -0.8127  0.0041  -0.009019  0.01866  0.01188  -0.6165  0.7249
6.404e+09  -0.08644  -0.8955  0.004069  -0.03366  0.02757  0.03844  -0.3196  0.8513
6.405e+09  -0.3653  -0.7028  0.02412  0.03368  -0.01412  -0.002664  -0.03289  0.9582
6.406e+09  -0.5766  -0.5939  0.009597  0.005556  -0.03044  0.001586  0.2778  0.87
6.408e+09  -0.7813  -0.2966  -0.005585  0.02098  0.003805  -0.01775  0.6046  0.7093
6.409e+09  -0.8698  0.01832  -0.01769  0.03164  -0.03701  -0.04849  0.8217  0.4408
6.41e+09  -0.7947  0.2224  0.03023  0.007809  0.04165  0.005494  0.8535  0.1339
6.411e+09  -0.5751  0.6034  0.03761  0.00235  -0.03985  0.02243  0.8635  -0.1592
6.412e+09  -0.3766  0.747  -0.01761  0.01743  -0.005657  -0.004122  0.798  -0.3968
6.414e+09  -0.1291  0.8271  0.01849  -0.01427  0.03232  0.01763  0.588  -0.6613
6.415e+09  0.2441  0.8249  0.01279  0.05228  0.0221  0.00494  0.3614  -0.8685
6.416e+09  0.4844  0.6768  -0.02329  0.02074  0.01286  -0.01694  0.02043  -0.9429
6.418e+09  0.7194  0.4939  -0.01123  -0.01596  0.01156  0.009933  -0.3411  -0.8345
6.419e+09  0.8201  0.2046  -0.009219  0.03831  0.0004894  -0.03342  -0.5778  -0.6664
6.42e+09  0.8753  -0.1401  -0.03919  0.01719  0.001162  -0.002587  -0.765  -0.5002
6.421e+09  0.7652  -0.4338  -0.01015  0.06131  -0.01994  -0.008672  -0.8484  -0.1803
6.422e+09  0.5622  -0.6916  -0.01037  -0.01551  -0.003798  -0.01575  -0.8899  0.117
6.424e+09  0.2563  -0.7493  0.05224  0.001598  -0.0009011  -0.001123  -0.8333  0.4528
6.425e+09  -0.1262  -0.9023  -0.03447  -0.002078  0.02377  -0.002167  -0.6045  0.6263
6.426e+09  -0.3444  -0.8003  -0.04058  0.003844  0.007647  0.005009  -0.3853  0.8544
6.428e+09  -0.5897  -0.5584  -0.001867  -0.02673  0.00407  0.04355  -0.09179  0.8639
6.429e+09  -0.7635  -0.3587  0.01216  -0.02368  -0.03119  -0.03989  0.2344  0.8753
6.43e+09  -0.8383  -0.04508  -0.02378  0.05727  0.01418  0.005759  0.5177  0.754
6.431e+09  -0.7873  0.2636  0.003305  0.02218  -0.0344  0.0312  0.724  0.4906
6.432e+09  -0.6646  0.4997  -0.00559  -0.006044  0.02276  0.01103  0.8278  0.2198
6.434e+09  -0.3878  0.7572  -0.03129  0.01998  0.01991  0.03638  0.8561  -0.1206
6.435e+09  -0.1263  0.8399  -0.009381  0.009101  0.03642  -0.01844  0.7503  -0.3732
6.436e+09  0.1305  0.8295  -0.01931  0.01322  9.877e-05  0.009944  0.6009  -0.5887
6.438e+09  0.4852  0.7127  -0.005544  -0.04569  -0.04501  0.02373  0.3435  -0.7867
6.439e+09  0.6921  0.4982  0.04669  -0.03253  -0.006991  -0.01116  0.04721  -0.8606
6.44e+09  0.8361  0.2099  0.02479  -0.01058  0.01234  0.002465  -0.1882  -0.8108
6.441e+09  0.873  -0.03677  0.04849  -0.02563  0.02334  -0.01092  -0.4703  -0.6922
6.442e+09  0.7697  -0.3339  -0.01997  -0.02023  0.00795  -0.01898  -0.6886  -0.4903
6.444e+09  0.5727  -0.5785  -7.5e-05  0.009377  0.04972  0.03082  -0.7842  -0.211
6.445e+09  0.3761  -0.7464  0.02634  0.01926  0.01895  0.005212  -0.8329  0.08935
6.446e+09  0.02216  -0.8263  0.004925  -0.003954  0.0226  -0.02896  -0.7474  0.4127
6.448e+09  -0.3028  -0.7638  0.01353  -0.02465  -0.01714  -0.03725  -0.5891  0.5975
6.449e+09  -0.5209  -0.6336  0.01382  0.01673  -0.01877  0.001872  -0.3477  0.7616
6.45e+09  -0.6956  -0.4125  -0.02852  0.01228  -0.01045  0.02745  -0.06862  0.8535
6.451e+09  -0.7878  -0.1116  -0.004196  -0.03293  0.003031  0.0112  0.2312  0.7782
6.452e+09  -0.8055  0.1568  0.002777  0.02942  -0.02649  -0.01782  0.4723  0.6534
6.454e+09  -0.6737  0.4519  0.02956  0.01248  0.03861  -0.07334  0.6943  0.4837
6.455e+09  -0.5139  0.6292  -0.04004  -0.01131  -0.006966  0.004802  0.7984  0.146
6.456e+09  -0.2302  0.7934  -0.03415  -0.009065  -0.02277  -0.06529  0.8648  -0.09516
6.458e+09  0.06944  0.8006  -0.00827  -0.01529  0.0373  0.01463  0.7545  -0.3947
6.459e+09  0.3708  0.7658  0.02705  -0.02223  0.01285  -0.04648  0.5975  -0.5776
6.46e+09  0.5923  0.5751  -0.02271  -0.01785  -0.004035  0.004905  0.3496  -0.7813
6.461e+09  0.7757  0.2768  -0.009703  0.01331  -0.03119  -0.02868  0.06732  -0.8092
6.462e+09  0.77  0.03535  0.03714  0.02026  0.04045  0.03386  -0.2671  -0.7366
6.464e+09  0.8015  -0.2714  -0.004151  0.04917  -0.04744  -0.02314  -0.421  -0.6654
6.465e+09  0.6605  -0.519  0.001795  -0.01286  0.03125  -0.000665  -0.6721  -0.4755
6.466e+09  0.3653  -0.7172  0.005886  0.01806  0.04564  -0.02972  -0.7355  -0.1737
6.468e+09  0.1683  -0.7568  0.02063  -0.03032  0.03386  -0.03025  -0.8673  0.07662
6.469e+09  -0.147  -0.8009  0.03901  0.03248  -0.03971  -0.02647  -0.6876  0.3486
6.47e+09  -0.3851  -0.7407  -0.01628  -0.02094  -0.01365  0.0284  -0.5578  0.5657
6.471e+09  -0.5965  -0.5424  -0.04387  -0.03856  -0.01526  0.0311  -0.3551  0.7057
6.472e+09  -0.7777  -0.284  0.02026  -0.01862  -0.01711  -0.02648  -0.1006  0.7544
6.474e+09  -0.7748  0.09229  0.005099  0.006215  0.001904  0.009793  0.2143  0.7974
6.475e+09  -0.7779  0.2968  0.006045  -0.009211  -0.01524  -0.003755  0.4458  0.6489
6.476e+09  -0.6065  0.5573  -0.02382  -0.01598  -0.01167  0.02526  0.6941  0.4507
6.478e+09  -0.3566  0.7048  -0.07187  0.03722  -0.03116  0.001394  0.7717  0.1892
6.479e+09  -0.1229  0.8352  -0.00807  -0.004317  -0.03341  -0.03801  0.7624  -0.09344
6.48e+09  0.1287  0.7745  -0.0003534  -0.04329  -0.03805  0.002974  0.7073  -0.3688
6.481e+09  0.4159  0.6849  -0.02309  0.03831  0.01728  0.002915  0.529  -0.5793
6.482e+09  0.6153  0.5033  0.008783  -0.01574  0.004278  -0.03203  0.26  -0.7002
6.484e+09  0.7597  0.2796  0.008054  -0.008207  0.01796  -0.002056  0.02575  -0.7899
6.485e+09  0.8511  -0.03759  -0.02153  -0.002836  -0.02054  0.01306  -0.2342  -0.7788
6.486e+09  0.7037  -0.3319  -0.03152  -0.0005725  -0.008479  0.006918  -0.4554  -0.6278
6.488e+09  0.5838  -0.6009  0.06346  -0.01579  0.02322  -0.01184  -0.6502  -0.4314
6.489e+09  0.3786  -0.7515  0.01906  -0.009904  -0.06577  -0.01152  -0.7726  -0.1712
6.49e+09  0.1114  -0.8384  -0.004026  -0.02211  -0.01891  0.01686  -0.7669  0.07874
6.491e+09  -0.231  -0.7858  -0.004859  0.02043  0.009482  -0.01129  -0.7016  0.3828
6.492e+09  -0.5182  -0.6049  0.004465  0.00765  -0.06428  -0.01462  -0.5393  0.5445
6.494e+09  -0.7131  -0.4567  -0.001627  -0.03079  -0.01188  0.007201  -0.3098  0.7279
6.495e+09  -0.7555  -0.1738  0.02571  -0.00449  0.000423  0.03756  -0.06359  0.761
6.496e+09  -0.7444  0.1362  0.01653  -0.008286  0.004764  0.0184  0.1944  0.7542
6.498e+09  -0.723  0.4325  -0.05606  0.01198  0.02221  -0.01937  0.4216  0.5923
6.499e+09  -0.5753  0.6231  -0.01552  0.01262  -0.0133  0.005112  0.6555  0.457
6.5e+09  -0.3557  0.7714  0.01227  -0.02711  -0.02229  0.01005  0.7433  0.1607
6.501e+09  0.009636  0.8461  0.03764  -0.005718  0.01348  0.0232  0.7376  -0.08694
6.502e+09  0.2662  0.8346  -0.06557  0.003309  0.01924  -0.02419  0.6554  -0.3544
6.504e+09  0.5625  0.6487  -0.03074  -0.05002  0.007347  0.006371  0.5309  -0.5551
6.505e+09  0.7177  0.4134  -0.005037  -0.004691  -0.0145  0.01295  0.2411  -0.7223
6.506e+09  0.8702  0.1092  -0.002615  0.000465  0.01751  0.0426  0.03346  -0.7428
6.508e+09  0.7996  -0.1146  -0.0193  0.01207  0.00171  -0.002939  -0.2627  -0.712
6.509e+09  0.7016  -0.4637  -0.02767  -0.006446  -0.0152  -0.01833  -0.5206  -0.6272
6.51e+09  0.5002  -0.6398  0.003246  0.01445  0.008413  0.01192  -0.6624  -0.3645
6.511e+09  0.2328  -0.8561  -0.05713  -0.004085  -0.009523  -0.02118  -0.7246  -0.1665
6.512e+09  -0.05162  -0.853  -0.01976  -0.03431  0.02223  -0.01852  -0.7309  0.1472
6.514e+09  -0.2552  -0.7814  -0.008717  0.0005351  -0.07398  -0.02571  -0.6234  0.4273
6.515e+09  -0.5486  -0.6053  -0.004655  0.02073  0.001583  -0.01639  -0.5167  0.5949
6.516e+09  -0.6975  -0.426  -0.02013  0.009334  -0.01442  -0.05768  -0.2498  0.6857
6.518e+09  -0.8476  -0.07767  -0.0124  0.01987  0.00552  0.01956  0.0009663  0.8004
6.519e+09  -0.8126  0.1977  -0.01991  0.008554  0.01988  0.06186  0.2574  0.6641
6.52e+09  -0.6787  0.4455  -0.002215  0.03832  -0.005075  0.05806  0.4898  0.5265
6.521e+09  -0.5098  0.6503  0.0133  0.01298  -0.01495  -0.002003  0.6902  0.3141
6.522e+09  -0.1986  0.8193  -0.002507  -0.01597  -0.003684  0.006989  0.7189  0.09653
6.524e+09  0.05977  0.8647  -0.04321  -0.01323  -0.0103  -0.001644  0.7175  -0.1878
6.525e+09  0.2935  0.8238  0.01704  0.02483  0.001304  -0.01372  0.5771  -0.4163
6.526e+09  0.6463  0.6427  0.002469  0.01237  -0.01353  0.01089  0.4411  -0.5944
6.528e+09  0.7544  0.4225  0.01822  0.007529  -0.00161  -0.08139  0.1854  -0.6998
6.529e+09  0.876  0.01822  -0.001816  0.03396  0.07657  -0.0139  -0.05269  -0.6945
6.53e+09  0.8813  -0.2221  0.03737  0.008596  0.02292  0.01299  -0.2719  -0.6106
6.531e+09  0.6938  -0.5168  -0.001749  -0.03527  0.009973  0.02045  -0.4931  -0.4687
6.532e+09  0.456  -0.7341  0.0164  -0.007142  0.003163  -0.01732  -0.6006  -0.3104
6.534e+09  0.1322  -0.8703  -0.0209  -0.005976  -0.02214  0.03075  -0.6156  -0.05399
6.535e+09  -0.1624  -0.8421  -0.02605  0.003896  0.0217  -0.006271  -0.6018  0.07097
6.536e+09  -0.4388  -0.7759  -0.00751  -0.0147  -0.03339  0.01032  -0.6035  0.3391
6.538e+09  -0.6749  -0.5924  0.003315  0.0166  -0.04999  0.04239  -0.432  0.4778
6.539e+09  -0.8245  -0.2607  -0.001257  0.0298  0.001936  -0.0294  -0.2404  0.6128
6.54e+09  -0.9673  -0.02839  -0.02361  0.001416  -0.08645  -0.008912  -0.05102  0.7039
6.541e+09  -0.8504  0.3644  -0.01084  -0.02883  0.00973  -0.041  0.1887  0.6794
6.542e+09  -0.6946  0.6019  -0.04152  0.04905  0.01583  -0.0136  0.4351  0.5883
6.544e+09  -0.4391  0.8171  -0.03453  0.001519  -0.03631  -0.005895  0.5569  0.4104
6.545e+09  -0.1212  0.8786  0.00656  -0.005118  0.03672  -0.009384  0.6854  0.124
6.546e+09  0.2557  0.8796  0.006424  -0.002763  -0.02993  -0.02128  0.7355  -0.06924
6.548e+09  0.5376  0.749  -0.001526  0.003593  -0.06119  -0.0233  0.6768  -0.3267
6.549e+09  0.6988  0.5477  -0.0325  -0.0286  -0.03586  -0.01942  0.4975  -0.5215
