# Hz S RI R 50
6.25e+09  -0.7885  -0.3115  -0.02299  -0.02438  -0.000678  0.008321  0.1916  0.4602
6.251e+09  -0.8056  0.04531  0.0001729  -0.02174  -0.05176  0.03605  0.394  0.3872
6.252e+09  -0.7705  0.348  -0.006991  -0.03784  -0.03977  -0.01929  0.5321  0.2583
6.254e+09  -0.589  0.5627  0.02556  0.00789  -0.02114  -0.00816  0.6025  0.03623
6.255e+09  -0.3811  0.6732  0.008663  0.03785  -0.03352  -0.02186  0.607  -0.2387
6.256e+09  -0.1013  0.82  -0.02605  -0.03889  -0.03238  0.05064  0.5053  -0.4582
6.258e+09  0.1274  0.7503  -0.02023  -0.0006922  -0.01596  0.00452  0.2963  -0.576
6.259e+09  0.4961  0.7049  -0.00913  -0.009807  -0.05158  -0.06099  0.03692  -0.6371
6.26e+09  0.6659  0.4911  0.02185  -0.006581  0.001473  -0.006644  -0.2107  -0.6391
6.261e+09  0.7567  0.2226  0.03971  0.02189  -0.02117  -0.0208  -0.461  -0.5382
6.262e+09  0.7453  -0.1232  -0.009216  0.00341  -0.0707  0.02304  -0.6253  -0.3433
6.264e+09  0.7339  -0.362  0.02592  -0.01667  -0.023  -0.0118  -0.692  -0.1066
6.265e+09  0.5796  -0.5805  -0.01671  0.03085  -0.04585  0.022  -0.7506  0.1449
6.266e+09  0.338  -0.7037  -0.02721  -0.01112  0.01642  0.01225  -0.5977  0.3916
6.268e+09  0.1137  -0.7739  0.0003597  -0.0002697  -0.02503  0.01094  -0.4377  0.6029
6.269e+09  -0.224  -0.7616  -0.02414  -0.002911  -0.0153  0.03621  -0.1948  0.7002
6.27e+09  -0.4659  -0.694  0.02519  -0.01218  -0.06135  0.01803  0.09356  0.7456
6.271e+09  -0.6542  -0.4719  0.002583  0.02211  0.04966  0.02829  0.3203  0.6685
6.272e+09  -0.7463  -0.1685  -0.03204  -0.006839  -0.03704  -0.02014  0.5493  0.4996
6.274e+09  -0.7573  0.09279  -0.01073  0.02212  -0.05272  0.004745  0.6931  0.2964
6.275e+09  -0.7134  0.3467  -0.007294  0.03218  -0.004582  0.03357  0.783  0.01288
6.276e+09  -0.5466  0.6026  -0.004342  -0.01779  0.0004334  0.01961  0.7112  -0.2278
6.278e+09  -0.34  0.7578  0.006943  0.004843  0.005766  -0.00754  0.6022  -0.4464
6.279e+09  -0.04911  0.8357  0.01431  -0.003086  -0.006016  0.03286  0.4104  -0.6339
6.28e+09  0.2519  0.7817  -1.146e-05  0.01661  0.03904  0.04523  0.1413  -0.7835
6.281e+09  0.5192  0.6598  -0.003372  0.02051  -0.04407  -0.01163  -0.1362  -0.7873
6.282e+09  0.7225  0.4849  0.01612  0.02035  -0.03062  0.01282  -0.3711  -0.673
6.284e+09  0.772  0.1101  -0.009816  0.01773  0.004249  -0.04336  -0.5852  -0.5039
6.285e+09  0.7754  -0.1183  0.01698  -0.01591  -0.02024  -0.01504  -0.7448  -0.2638
6.286e+09  0.6984  -0.3938  -0.008139  -0.001303  0.006103  -0.05062  -0.7913  -0.005574
6.288e+09  0.5316  -0.5831  0.01914  -0.02237  -0.03691  0.03121  -0.7391  0.2646
6.289e+09  0.2714  -0.7847  0.01279  0.02329  -0.008282  0.01115  -0.628  0.4833
6.29e+09  0.02659  -0.8489  -0.006576  0.01907  0.03661  0.03288  -0.4652  0.705
6.291e+09  -0.2743  -0.8171  -0.009697  0.02275  0.01964  0.02737  -0.1456  0.8074
6.292e+09  -0.5116  -0.5947  -0.001275  -0.009518  0.06043  -0.03261  0.1314  0.8195
6.294e+09  -0.7404  -0.3315  -0.01907  -0.01768  0.01963  -0.003035  0.3782  0.7223
6.295e+09  -0.7714  -0.1447  -0.01341  -0.003754  -0.007974  0.01468  0.6186  0.5501
6.296e+09  -0.8362  0.1402  0.009839  -0.01875  -0.00593  -0.02204  0.7619  0.2668
6.298e+09  -0.6735  0.4312  0.02877  0.01202  0.05573  0.04047  0.8525  0.02292
6.299e+09  -0.4969  0.659  -0.03117  -0.01779  -0.02877  -0.006013  0.769  -0.2843
6.3e+09  -0.2168  0.7705  0.004207  0.009059  -0.04599  -0.01  0.6327  -0.5439
6.301e+09  -0.005226  0.8142  -0.003017  0.003665  -0.001538  0.03248  0.433  -0.7388
6.302e+09  0.3259  0.7651  -0.01043  0.04965  -0.06316  0.02826  0.1666  -0.8046
6.304e+09  0.5733  0.5817  -0.007809  0.01563  -0.01779  0.0632  -0.1625  -0.8416
6.305e+09  0.7663  0.3621  0.006795  -0.01508  0.06318  -0.01284  -0.4559  -0.7202
6.306e+09  0.776  0.03259  0.006521  -0.02073  0.0008773  0.02165  -0.6212  -0.5719
6.308e+09  0.7919  -0.2073  -0.01053  -0.02822  -0.02244  0.03359  -0.7751  -0.2925
6.309e+09  0.712  -0.4782  -0.003047  -0.0119  -0.001061  0.03441  -0.8234  0.0124
6.31e+09  0.4665  -0.6149  0.01773  -0.03281  -0.02585  0.00377  -0.7956  0.3008
6.311e+09  0.1599  -0.7486  -0.02764  0.01906  -0.01246  0.02199  -0.671  0.5513
6.312e+09  -0.03546  -0.822  -0.02201  0.008439  -0.0175  0.01364  -0.42  0.793
6.314e+09  -0.3673  -0.6676  0.004242  0.02256  -0.02944  0.03504  -0.1876  0.8758
6.315e+09  -0.5422  -0.5746  -0.01589  0.01782  0.02651  -0.03681  0.12  0.8277
6.316e+09  -0.7638  -0.2601  0.007829  -0.01666  -0.01844  0.006629  0.458  0.7777
6.318e+09  -0.7938  -0.04034  0.02593  0.009177  0.002165  0.01846  0.6631  0.55
6.319e+09  -0.7446  0.2769  -0.01263  0.03399  -0.01108  -0.01183  0.8606  0.3178
6.32e+09  -0.6528  0.4469  0.002927  -0.01194  -0.0132  0.0005819  0.8852  0.004046
6.321e+09  -0.3939  0.7259  -0.00703  -0.02386  0.03576  0.0004623  0.8701  -0.312
6.322e+09  -0.1762  0.7807  -0.02122  0.0174  0.02497  -0.01505  0.6883  -0.5374
6.324e+09  0.1187  0.8166  -0.01791  0.0004933  0.05928  -0.003921  0.4539  -0.7693
6.325e+09  0.3923  0.7082  -0.0157  -0.01228  0.01199  0.02625  0.1735  -0.846
6.326e+09  0.6139  0.5107  -0.002865  0.02127  -0.006539  -0.01241  -0.1347  -0.8931
6.328e+09  0.7768  0.2827  0.000811  0.009777  -0.02862  0.005359  -0.4364  -0.7682
6.329e+09  0.8675  -0.02438  0.02414  0.01292  -0.003637  0.02355  -0.6701  -0.5852
6.33e+09  0.8197  -0.2974  0.007845  -0.002269  0.008361  0.004044  -0.8382  -0.3283
6.331e+09  0.6636  -0.5985  0.0005121  0.01909  -0.04187  -0.01001  -0.9368  -0.0246
6.332e+09  0.3683  -0.7307  -0.02189  0.01696  -0.01173  0.03311  -0.9068  0.2815
6.334e+09  0.1009  -0.8588  -0.007098  -0.02702  -0.05339  0.004351  -0.7244  0.574
6.335e+09  -0.185  -0.8265  0.02303  0.005793  0.02469  -0.0275  -0.4581  0.777
6.336e+09  -0.4617  -0.6965  0.0007828  -0.03849  0.001596  0.01515  -0.2102  0.9024
6.338e+09  -0.7073  -0.4735  -0.01151  0.005569  -0.02315  -0.04014  0.07817  0.9227
6.339e+09  -0.8356  -0.1969  -0.02336  0.02083  0.007596  0.005821  0.404  0.799
6.34e+09  -0.8301  0.085  0.0002316  -0.003937  0.01062  0.007996  0.7054  0.6435
6.341e+09  -0.8136  0.3605  0.002078  -0.003065  0.001955  0.03911  0.8593  0.3484
6.342e+09  -0.5724  0.5822  0.005085  -0.01903  0.0001725  -0.03366  0.9722  0.01846
6.344e+09  -0.3373  0.7993  0.009384  0.007033  -0.05254  -0.001839  0.8679  -0.2599
6.345e+09  -0.04249  0.8212  0.02211  0.01299  0.01101  0.01535  0.7209  -0.5421
6.346e+09  0.2716  0.7379  -0.01236  0.03356  0.005508  -0.02303  0.5058  -0.7696
6.348e+09  0.5531  0.6903  -0.006677  0.006504  0.01079  0.005555  0.2073  -0.9314
6.349e+09  0.6961  0.3851  -0.01082  0.0234  -0.002803  -0.004397  -0.0877  -0.9415
6.35e+09  0.8359  0.1245  0.02031  0.005317  -0.02902  0.0194  -0.3826  -0.8552
6.351e+09  0.8246  -0.1528  -0.0195  -0.001522  0.05289  -0.008424  -0.6815  -0.6339
6.352e+09  0.7279  -0.4247  -0.01315  0.01788  0.02287  -0.05768  -0.8728  -0.3763
6.354e+09  0.5012  -0.6773  0.003045  -0.03071  -0.000321  -0.03101  -0.9105  -0.06453
6.355e+09  0.2272  -0.8303  -0.01948  0.0332  -0.01757  -0.03039  -0.9037  0.2678
6.356e+09  -0.07022  -0.8556  0.006089  0.04355  -0.01013  -0.02538  -0.7546  0.5701
6.358e+09  -0.3135  -0.7601  -0.02447  0.007592  0.04895  -0.02046  -0.5078  0.7771
6.359e+09  -0.6229  -0.5811  -0.08333  0.009185  -0.005947  -0.04303  -0.2378  0.9312
6.36e+09  -0.7662  -0.3811  0.006544  -0.009986  -0.02317  -0.02112  0.07712  0.9343
6.361e+09  -0.8583  -0.07199  -0.01379  0.001215  0.0462  -0.01247  0.3714  0.8611
6.362e+09  -0.8516  0.2423  0.01962  -0.02298  0.003747  -0.01075  0.6906  0.6653
6.364e+09  -0.6356  0.4982  0.01554  0.03124  -0.0001847  0.01327  0.8359  0.3941
6.365e+09  -0.4835  0.7457  -0.009188  -0.02117  0.01171  0.02254  0.9444  0.1198
6.366e+09  -0.1134  0.8901  -0.02028  -0.01595  0.021  0.05078  0.9075  -0.2412
6.368e+09  0.1138  0.8257  -0.03492  0.02478  0.007809  0.01121  0.743  -0.5375
6.369e+09  0.429  0.7327  -0.08022  0.02664  -0.01202  0.01395  0.5226  -0.8219
6.37e+09  0.6756  0.5292  0.07653  -0.008966  0.01513  0.01461  0.2403  -0.8896
6.371e+09  0.7454  0.2814  -0.02735  -0.05816  -0.01168  0.01438  -0.08272  -0.9378
6.372e+09  0.9018  -0.0583  0.004912  0.002307  -0.01246  -0.02035  -0.3963  -0.8938
6.374e+09  0.816  -0.3345  0.01241  -0.02304  -0.02302  -0.01017  -0.6647  -0.6988
6.375e+09  0.639  -0.6133  -0.01207  0.01135  -0.06056  0.03004  -0.8698  -0.4645
6.376e+09  0.3819  -0.7713  0.007144  -0.03333  -0.01389  -0.0377  -0.9238  -0.1293
6.378e+09  0.1125  -0.8741  0.05002  0.0007643  0.004706  0.02092  -0.9295  0.263
6.379e+09  -0.2001  -0.8856  0.02204  -0.003705  0.01127  0.01706  -0.7958  0.5068
6.38e+09  -0.5978  -0.7215  -0.02019  -0.01293  0.01506  0.02209  -0.57  0.7237
6.381e+09  -0.7425  -0.4663  -0.006471  -0.0117  -0.03547  -0.02336  -0.2562  0.9034
6.382e+09  -0.8542  -0.2039  0.003755  0.009118  -0.02725  0.02033  0.04295  0.9455
6.384e+09  -0.8608  0.1154  0.005977  -0.001796  0.04664  0.0108  0.3652  0.8418
6.385e+09  -0.7853  0.4415  0.006031  0.03476  0.04992  0.04991  0.6409  0.6735
6.386e+09  -0.5858  0.6768  0.01851  0.01249  -0.001015  0.02403  0.8335  0.3765
6.388e+09  -0.3447  0.799  -0.03199  0.00484  -0.02972  -0.03928  0.9681  0.1456
6.389e+09  0.002865  0.8763  -0.002472  -0.06513  -0.005381  -0.006655  0.8867  -0.2528
6.39e+09  0.2505  0.8177  0.03563  0.02166  0.03395  -0.02285  0.7779  -0.5194
6.391e+09  0.588  0.6707  0.05684  -0.04076  -0.0093  -0.0214  0.5862  -0.7872
6.392e+09  0.8205  0.4245  0.03115  0.005145  -0.0258  0.006787  0.2522  -0.8714
6.394e+09  0.8599  0.09107  0.01005  -0.0067  0.03133  0.009429  -0.01449  -0.9323
6.395e+09  0.8574  -0.1684  0.05464  0.02038  0.001227  -0.00633  -0.3272  -0.8886
6.396e+09  0.7044  -0.4964  0.002925  -0.003908  -0.01949  -0.03346  -0.5996  -0.7107
6.398e+09  0.4811  -0.6984  -0.03628  -0.02777  -0.01179  0.02019  -0.7892  -0.4384
6.399e+09  0.203  -0.8397  0.04412  0.03289  0.007845  0.007035  -0.9208  -0.1574
6.4e+09  -0.03791  -0.8828  0.0002514  0.02289  -0.02562  0.05461  -0.9057  0.173
6.401e+09  -0.3764  -0.7539  0.005123  0.005353  -0.03037  -0.03857  -0.798  0.4776
6.402e+09  -0.6549  -0.5966  -0.02751  0.02372  0.001169  -0.02024  -0.5937  0.6916
6.404e+09  -0.7914  -0.3515  0.006959  0.04497  -0.01483  0.03119  -0.3054  0.8861
6.405e+09  -0.8607  -0.02311  0.02251  -0.02228  -0.004174  0.01222  0.02377  0.887
6.406e+09  -0.8866  0.2316  0.02267  0.04726  0.006374  -0.02988  0.3101  0.8757
6.408e+09  -0.6668  0.5774  0.01105  0.00837  0.03261  0.04575  0.593  0.6886
6.409e+09  -0.406  0.7782  -0.01206  0.004315  0.03395  -0.013  0.7958  0.4181
6.41e+09  -0.1608  0.8672  -0.0277  0.01372  0.04281  -0.01322  0.8581  0.1601
6.411e+09  0.1199  0.8934  -0.01424  0.009658  -0.00419  0.008196  0.867  -0.125
6.412e+09  0.4657  0.7454  -0.0131  0.008796  0.04456  0.003571  0.7733  -0.4643
6.414e+09  0.7077  0.6051  0.08729  0.007385  -0.007477  0.03061  0.6022  -0.7172
6.415e+09  0.7958  0.2387  0.01781  -0.01038  0.01169  0.007974  0.2989  -0.8401
6.416e+09  0.8541  0.001513  -0.01974  -0.00281  -0.02666  0.009096  0.03605  -0.894
6.418e+09  0.7648  -0.3448  0.01551  -0.0031  -0.01157  0.0345  -0.2882  -0.8604
6.419e+09  0.63  -0.5872  -0.01479  0.01354  -0.02169  0.005221  -0.5724  -0.6758
6.42e+09  0.3883  -0.7678  0.0564  0.04001  -0.004064  0.009989  -0.7351  -0.4835
6.421e+09  0.1276  -0.8662  -0.01171  -0.04655  -0.03925  -0.01184  -0.8561  -0.1978
6.422e+09  -0.2024  -0.8338  0.002064  -0.01972  -0.03152  -0.003844  -0.873  0.08622
6.424e+09  -0.516  -0.7068  -0.03979  0.006182  0.03216  0.005522  -0.7871  0.3782
6.425e+09  -0.7046  -0.5073  0.01019  -0.01005  0.03956  0.04764  -0.6453  0.6912
6.426e+09  -0.8021  -0.2026  -0.06703  -0.007385  0.03111  -0.03969  -0.3095  0.7494
6.428e+09  -0.8755  0.09565  0.03184  0.03123  -0.009817  -0.006721  -0.03121  0.8729
6.429e+09  -0.7607  0.3826  0.02385  0.06298  -0.02297  0.05034  0.2165  0.8317
6.43e+09  -0.5946  0.614  -0.0179  0.006814  -0.045  -0.009071  0.5372  0.6955
6.431e+09  -0.3685  0.8433  0.01233  -0.009931  -0.007095  0.002437  0.7266  0.5178
6.432e+09  -0.005125  0.8348  -0.009968  0.007392  0.006418  0.01509  0.8677  0.2023
6.434e+09  0.2945  0.8709  -0.02148  -0.003186  0.03532  -0.01684  0.8817  -0.139
6.435e+09  0.5648  0.659  -0.002584  -0.009776  -0.0001229  -0.03207  0.7864  -0.405
6.436e+09  0.7041  0.4917  -0.01344  0.003976  -0.03532  -0.01077  0.5813  -0.6686
6.438e+09  0.831  0.158  0.008693  0.02148  0.05435  0.05597  0.3437  -0.7721
6.439e+09  0.8678  -0.1953  -0.001709  0.01226  0.02541  0.0214  0.0556  -0.822
6.44e+09  0.7937  -0.3664  0.02572  -0.007733  0.03107  0.01992  -0.2576  -0.8244
6.441e+09  0.5873  -0.6693  0.03717  -0.005715  0.03215  0.03217  -0.4717  -0.6781
6.442e+09  0.2531  -0.8429  -0.002981  -0.0509  0.0107  -0.009565  -0.6578  -0.4669
6.444e+09  -0.02605  -0.8508  0.01786  -0.01485  -0.002344  -0.037  -0.7876  -0.2054
6.445e+09  -0.3391  -0.8151  0.02012  0.04407  0.0435  0.009436  -0.8167  0.07839
6.446e+09  -0.5958  -0.6243  -0.005207  0.01754  -0.04139  0.02495  -0.8136  0.3597
6.448e+09  -0.6815  -0.3833  0.03929  -0.002307  -0.0141  0.03533  -0.6024  0.5872
6.449e+09  -0.8126  -0.0611  -0.06097  -0.00187  -0.03398  -0.02961  -0.3477  0.7813
6.45e+09  -0.8218  0.1542  -0.005441  0.05055  -0.00433  -0.04598  -0.04  0.8354
6.451e+09  -0.74  0.4681  0.01512  0.02769  0.03196  0.02592  0.1858  0.8032
6.452e+09  -0.5103  0.6461  -0.05772  0.009239  0.00915  -0.01396  0.4308  0.6738
6.454e+09  -0.3545  0.8225  -0.02035  -0.01431  0.0056  -0.0307  0.6719  0.506
6.455e+09  0.05328  0.8205  -0.01027  0.02661  0.01253  0.002616  0.7783  0.1944
6.456e+09  0.3013  0.7781  -0.02713  -0.004561  -0.007577  -0.001263  0.798  -0.08671
6.458e+09  0.5912  0.6702  0.006374  0.03723  -0.001459  -0.01673  0.6987  -0.3425
6.459e+09  0.7371  0.4077  0.005428  -0.03579  0.01101  -0.0118  0.5665  -0.5602
6.46e+09  0.771  0.1298  0.03123  -0.003331  0.001124  -0.02766  0.3169  -0.7701
6.461e+09  0.8195  -0.259  0.005038  0.008193  -0.007805  -0.02417  0.0543  -0.8211
6.462e+09  0.7401  -0.4406  0.03318  -0.01626  0.06187  0.04644  -0.2089  -0.7352
6.464e+09  0.4672  -0.7242  0.02327  0.02215  -0.002991  0.03437  -0.4463  -0.6331
6.465e+09  0.2593  -0.7914  -0.01506  -0.01822  -0.005959  0.01478  -0.6594  -0.4255
6.466e+09  -0.06477  -0.8599  0.005961  -0.04643  -0.03162  -0.03902  -0.7466  -0.1536
6.468e+09  -0.3607  -0.8111  -0.001129  -0.01578  -0.02376  0.05674  -0.8259  0.08453
6.469e+09  -0.6212  -0.6676  -0.004296  0.01466  -0.005247  -0.027  -0.7327  0.327
6.47e+09  -0.7666  -0.3676  0.008887  0.003548  -0.02048  0.002253  -0.557  0.5572
6.471e+09  -0.8538  -0.004738  0.025  0.01039  -0.02144  0.00484  -0.3115  0.7401
6.472e+09  -0.7691  0.2105  0.02729  -0.009533  0.02962  0.03291  -0.04911  0.7888
6.474e+09  -0.7014  0.5049  0.02018  -0.01981  -0.01761  -0.03095  0.1898  0.7905
6.475e+09  -0.5049  0.7267  0.02749  -0.02824  0.009956  0.007361  0.4754  0.6914
6.476e+09  -0.2488  0.8073  -0.004815  -0.007897  -0.03095  -0.005752  0.6522  0.4345
6.478e+09  0.088  0.8225  0.03306  -0.02129  0.0225  0.002851  0.7718  0.1906
6.479e+09  0.3292  0.7609  0.01671  0.02235  0.02544  0.01015  0.7903  -0.05976
6.48e+09  0.5863  0.6272  -0.0237  -0.009544  0.02902  0.02552  0.6571  -0.3438
6.481e+09  0.7851  0.3577  -0.00218  -0.01139  0.007223  0.01489  0.5552  -0.6028
6.482e+09  0.8525  0.0663  0.0267  0.0101  0.01661  -0.0147  0.3744  -0.6954
6.484e+09  0.8052  -0.239  0.00892  0.006571  0.02225  0.01894  0.04687  -0.8042
6.485e+09  0.6414  -0.5104  0.01803  -0.0006855  0.04015  0.01969  -0.1581  -0.7168
6.486e+09  0.5011  -0.7756  0.07609  0.02114  0.003287  -0.003186  -0.4367  -0.6323
6.488e+09  0.1655  -0.8042  0.02552  -0.001488  -0.0009813  -0.04337  -0.6573  -0.4179
6.489e+09  -0.1241  -0.8586  0.03174  0.003014  0.003629  -0.04607  -0.7179  -0.1634
6.49e+09  -0.365  -0.8357  0.001102  -0.02646  -0.07777  -0.006851  -0.7851  0.1069
6.491e+09  -0.5881  -0.6118  -0.01045  -0.03008  0.02524  0.04686  -0.7005  0.3091
6.492e+09  -0.7951  -0.3332  -0.05527  0.005912  0.01689  -0.03555  -0.538  0.5629
6.494e+09  -0.8986  -0.005676  0.01602  0.01818  -0.02827  -0.005726  -0.268  0.7126
6.495e+09  -0.8079  0.2364  -0.006062  0.01678  0.02645  -0.001822  -0.03627  0.7363
6.496e+09  -0.6793  0.5346  -0.0149  -0.03946  0.02799  -0.02274  0.2196  0.7396
6.498e+09  -0.4367  0.7126  -0.0097  2.698e-05  0.01637  0.01069  0.4247  0.6157
6.499e+09  -0.2424  0.9195  0.01975  0.01506  -0.04575  -0.05713  0.6454  0.4266
6.5e+09  0.1216  0.8609  -0.01034  -0.01184  0.01088  -0.01406  0.7371  0.1667
6.501e+09  0.4345  0.7713  -0.009663  -0.03352  0.01184  -0.0007733  0.7443  -0.102
6.502e+09  0.6632  0.5916  -0.01025  0.008502  0.02009  -0.03021  0.6911  -0.3612
6.504e+09  0.8343  0.3246  -0.02089  0.05373  0.007883  0.01123  0.4789  -0.5975
6.505e+09  0.8484  0.007417  0.01849  -0.03632  0.01079  -0.03528  0.2857  -0.6956
6.506e+09  0.8506  -0.2785  -0.01018  -0.02714  0.03689  0.004951  0.006012  -0.7413
6.508e+09  0.6892  -0.5326  -0.00246  0.01818  0.01023  -2.354e-05  -0.2119  -0.6898
6.509e+09  0.4914  -0.8214  -0.006815  0.01395  0.0391  0.004049  -0.4711  -0.5895
6.51e+09  0.1442  -0.8251  -0.0007231  0.01205  -0.001787  0.02898  -0.6112  -0.398
6.511e+09  -0.1635  -0.913  -0.003258  -0.02685  0.03153  0.009024  -0.7549  -0.1082
6.512e+09  -0.4649  -0.7831  0.03119  0.005926  -0.04602  -0.07883  -0.7412  0.1618
6.514e+09  -0.6368  -0.5573  0.03127  -0.0009796  -0.03796  0.01617  -0.6399  0.4004
6.515e+09  -0.8386  -0.3019  -0.02213  -0.007929  0.007218  0.03559  -0.4881  0.5913
6.516e+09  -0.9035  0.06858  -0.03051  -0.01632  0.04179  0.01331  -0.2635  0.7189
6.518e+09  -0.8738  0.2998  0.0007945  -0.0007884  -0.007972  -0.01395  0.007263  0.728
6.519e+09  -0.7402  0.5938  -0.00381  -0.004231  -0.005092  0.02199  0.2496  0.6999
6.52e+09  -0.4333  0.8055  -0.0002066  -0.02806  0.003667  -0.03897  0.5036  0.5276
6.521e+09  -0.1073  0.9056  -0.02508  0.03197  0.02516  0.004522  0.6429  0.3419
6.522e+09  0.2014  0.8679  0.004115  -0.02341  0.04805  -0.05185  0.702  0.08675
6.524e+09  0.4835  0.7676  0.02453  -0.03264  -0.04692  -0.006488  0.7393  -0.1774
6.525e+09  0.7244  0.5602  0.01909  0.02505  -0.05421  -0.01142  0.6138  -0.4246
6.526e+09  0.8371  0.2513  -0.03405  -0.01561  0.02567  -0.04968  0.4147  -0.5794
6.528e+09  0.9053  -0.01503  0.008394  -0.01798  -0.02782  0.003492  0.2058  -0.6991
6.529e+09  0.8124  -0.3604  0.001316  -0.005894  0.04325  0.003449  -0.1029  -0.7126
6.53e+09  0.6536  -0.6319  -0.03763  -0.01761  0.008507  -0.08126  -0.2986  -0.6348
6.531e+09  0.4101  -0.8507  0.04412  0.01508  0.06432  -0.02209  -0.4865  -0.4723
6.532e+09  0.116  -0.9431  3.524e-05  0.02157  -0.001981  0.04026  -0.5788  -0.3076
6.534e+09  -0.2143  -0.9233  0.001883  -0.006716  -0.02004  -0.02824  -0.6155  -0.09509
6.535e+09  -0.5747  -0.7704  0.001929  -0.01724  0.009538  -0.001102  -0.641  0.09258
6.536e+09  -0.7518  -0.5335  -0.01629  0.01994  -0.008137  0.0309  -0.5641  0.2635
6.538e+09  -0.9068  -0.2507  -0.01427  0.0009975  -0.005396  -0.0008768  -0.4522  0.462
6.539e+09  -0.9274  0.1133  0.01581  -0.02449  0.02121  0.008469  -0.2846  0.5901
6.54e+09  -0.8418  0.3526  -0.03919  0.03171  -0.03847  -0.05861  -0.05893  0.686
6.541e+09  -0.6545  0.6809  0.01087  -0.02096  -0.05393  0.003121  0.1849  0.6685
6.542e+09  -0.309  0.8924  0.02525  0.01655  0.008376  -0.001235  0.411  0.5652
6.544e+09  -0.02797  0.9372  0.01051  0.02568  0.01304  -0.00593  0.6301  0.4033
6.545e+09  0.3129  0.9239  0.02122  -0.016  -0.005862  0.03085  0.7097  0.1562
6.546e+09  0.5732  0.764  0.01813  0.0002592  -0.003093  0.01955  0.7311  -0.08284
6.548e+09  0.8602  0.5295  0.00216  -0.0393  0.01428  0.009695  0.6462  -0.3271
6.549e+09  0.9458  0.1836  0.0021  -0.001953  -0.03688  -0.01605  0.5215  -0.5539
6.55e+09  0.9466  -0.1516  -0.01307  -0.004411  -0.008377  -0.005633  0.3069  -0.6662
