# Hz S RI R 50
6.25e+09  0.1201  0.9109  -0.01746  0.01061  0.02308  -0.06791  0.1645  0.5132
6.251e+09  0.3743  0.7234  -0.02313  -0.02015  0.02819  -0.03796  0.3765  0.4227
6.252e+09  0.712  0.5604  0.01085  -0.01935  0.007656  -0.02811  0.5139  0.2318
6.254e+09  0.8148  0.2788  0.01803  -0.02021  -0.01254  -0.01915  0.6184  0.01747
6.255e+09  0.8516  -0.006272  0.0037  -0.003987  0.00824  0.0001303  0.6013  -0.2173
6.256e+09  0.8165  -0.3231  -0.00928  -0.01083  -0.02786  0.02603  0.4394  -0.4566
6.258e+09  0.7098  -0.5666  -0.01354  0.009879  0.014  -0.00055  0.279  -0.6509
6.259e+09  0.4543  -0.7406  -0.02038  0.0008184  0.01904  -0.00806  0.02362  -0.6734
6.26e+09  0.1489  -0.8318  -0.009985  -0.02017  -0.01832  -0.0208  -0.2302  -0.6894
6.261e+09  -0.1399  -0.8196  0.04695  -0.01359  0.08053  0.009534  -0.4611  -0.5674
6.262e+09  -0.3761  -0.7009  0.01139  0.02621  0.02988  -0.005597  -0.6218  -0.3901
6.264e+09  -0.6495  -0.5411  0.01142  0.02697  0.01233  -0.03262  -0.7237  -0.1139
6.265e+09  -0.8552  -0.3168  -0.02379  -0.02057  -0.01533  -0.01158  -0.6737  0.1441
6.266e+09  -0.8495  0.04463  -0.002697  -0.02093  -0.009048  -0.03842  -0.6194  0.4334
6.268e+09  -0.8104  0.2511  -0.01157  0.01119  -0.06974  0.01946  -0.4556  0.5949
6.269e+09  -0.6242  0.475  0.02809  0.008337  0.007571  -0.02113  -0.2127  0.728
6.27e+09  -0.4176  0.7183  -0.01464  0.009127  -0.006918  0.02007  0.0236  0.7448
6.271e+09  -0.09449  0.8249  -0.0333  -0.03854  -0.002718  -0.04679  0.3201  0.6844
6.272e+09  0.136  0.793  -0.03287  -0.01501  -0.003142  -0.01887  0.5578  0.5149
6.274e+09  0.4778  0.657  -0.0549  -0.005843  0.03792  0.005164  0.6761  0.3031
6.275e+09  0.6696  0.5173  0.01644  -0.0129  -0.05759  -0.04741  0.7547  0.04016
6.276e+09  0.8085  0.2353  0.01072  -0.01498  0.007347  0.01256  0.7373  -0.2658
6.278e+09  0.8186  -0.06651  0.02039  0.007271  -0.01916  -0.02034  0.5921  -0.4638
6.279e+09  0.7532  -0.2966  0.000115  -0.00785  -0.009965  0.07093  0.4103  -0.6742
6.28e+09  0.6564  -0.6019  0.003252  0.02663  -0.01984  0.04378  0.1784  -0.7807
6.281e+09  0.3657  -0.7375  0.02466  0.008694  -0.01571  0.03425  -0.08822  -0.785
6.282e+09  0.0485  -0.8141  0.008733  0.003021  0.02948  -0.002203  -0.3899  -0.6844
6.284e+09  -0.2356  -0.7926  0.0002134  -0.002402  0.008956  -0.05618  -0.5765  -0.5099
6.285e+09  -0.4956  -0.6785  -0.0002675  -0.02497  -0.01152  0.04512  -0.7214  -0.3095
6.286e+09  -0.685  -0.4178  -0.004492  -0.0164  0.0267  0.02472  -0.7567  -0.02814
6.288e+09  -0.8177  -0.1759  -0.005581  0.01856  -0.03626  -0.04679  -0.7458  0.2148
6.289e+09  -0.8534  0.05631  -0.008221  0.01585  0.04305  -0.02592  -0.6396  0.4945
6.29e+09  -0.7837  0.4122  0.01408  -0.0009875  -0.0317  -0.01506  -0.4133  0.692
6.291e+09  -0.5949  0.595  -0.01314  -0.02811  -0.065  -0.02785  -0.1504  0.8288
6.292e+09  -0.2791  0.7434  0.008704  -0.02851  0.03232  0.03048  0.1151  0.8323
6.294e+09  -0.00115  0.806  -0.006342  0.02103  0.05338  0.01126  0.3925  0.7298
6.295e+09  0.2938  0.7424  -0.004082  0.02532  0.04684  -0.02532  0.6277  0.5302
6.296e+09  0.5382  0.6048  -0.02941  -0.00059  0.01599  -0.0008561  0.7578  0.2591
6.298e+09  0.722  0.4385  -0.02415  -0.004871  0.003943  0.003401  0.837  0.01193
6.299e+09  0.8669  0.1207  0.0157  0.0159  0.02834  -0.008467  0.7549  -0.2398
6.3e+09  0.7347  -0.2038  0.00967  -0.004614  -0.02652  -0.002855  0.6502  -0.5391
6.301e+09  0.741  -0.4503  -0.005523  -0.02287  0.01154  -0.008512  0.4266  -0.7196
6.302e+09  0.4904  -0.6541  -0.03276  -0.01907  -0.01444  0.01976  0.1424  -0.8091
6.304e+09  0.2583  -0.7062  0.0004531  -0.02562  -0.0106  -0.01662  -0.1772  -0.8654
6.305e+09  -0.04814  -0.7748  0.004279  -0.004409  0.004549  -0.008114  -0.4321  -0.7427
6.306e+09  -0.3328  -0.7348  -0.007931  0.01459  0.0182  0.03739  -0.6492  -0.573
6.308e+09  -0.6083  -0.6172  -0.01094  -0.0184  0.0162  -0.007152  -0.8035  -0.3238
6.309e+09  -0.7875  -0.3899  -0.01057  0.03259  -0.02644  0.01177  -0.8804  -0.02841
6.31e+09  -0.8171  -0.149  -0.02152  -0.003889  -0.0004199  -0.03357  -0.8357  0.2796
6.311e+09  -0.8235  0.1961  0.0003218  0.001559  0.02593  0.01018  -0.7315  0.5252
6.312e+09  -0.6923  0.4949  -0.003675  -0.004966  -0.0382  0.06896  -0.4655  0.7739
6.314e+09  -0.4422  0.666  -0.01214  -0.01436  -0.009755  -0.02106  -0.2088  0.8893
6.315e+09  -0.2247  0.8229  0.01966  0.008873  0.02366  0.01281  0.1051  0.8316
6.316e+09  0.07302  0.851  -0.0452  -0.0161  -0.01594  0.01916  0.3942  0.7648
6.318e+09  0.3519  0.7682  -0.03102  0.01098  -0.01428  -0.02818  0.6609  0.5602
6.319e+09  0.5744  0.5413  -0.008808  -0.01615  -0.01478  -0.01767  0.8338  0.3399
6.32e+09  0.785  0.3396  0.02355  -0.01545  -0.02234  0.04593  0.8856  0.02911
6.321e+09  0.863  0.0232  -0.02402  0.01622  -0.03436  0.04383  0.8489  -0.2831
6.322e+09  0.7862  -0.2328  0.02587  0.02088  -0.01382  -0.03955  0.7028  -0.5821
6.324e+09  0.6568  -0.525  -0.0003906  0.002965  0.02476  0.009453  0.4699  -0.7608
6.325e+09  0.4522  -0.7645  0.01945  0.01939  -0.0116  0.05455  0.1876  -0.8541
6.326e+09  0.1912  -0.8201  -0.01059  -0.002584  0.002611  0.0248  -0.1095  -0.8893
6.328e+09  -0.1988  -0.8456  -0.0128  -0.01737  -0.04381  -0.01007  -0.4475  -0.7834
6.329e+09  -0.3862  -0.7455  -0.03776  -0.01095  -0.01056  -0.01701  -0.6334  -0.6079
6.33e+09  -0.6872  -0.5656  0.002882  -0.02014  0.04018  0.04849  -0.8534  -0.3368
6.331e+09  -0.8169  -0.2557  0.01168  -0.001738  -0.01145  0.002901  -0.9154  -0.05717
6.332e+09  -0.8813  0.01124  0.0003039  -0.01422  0.0107  0.004682  -0.8707  0.3156
6.334e+09  -0.8184  0.2976  -0.01675  -0.0008074  -0.04147  0.02924  -0.7208  0.5777
6.335e+09  -0.6698  0.5743  0.01351  -0.01437  0.01691  -0.01314  -0.5142  0.7733
6.336e+09  -0.3904  0.7772  0.001591  -0.03331  -0.0421  -0.05061  -0.1887  0.8959
6.338e+09  -0.1207  0.8596  -0.005269  -0.007219  0.04157  0.0006979  0.1396  0.8968
6.339e+09  0.1519  0.8928  0.01921  0.0004232  -0.003762  -0.01157  0.4531  0.8009
6.34e+09  0.4776  0.7105  0.01373  -0.005143  -0.005038  -0.02062  0.6637  0.6465
6.341e+09  0.6986  0.5008  -0.01843  -0.005354  -0.02468  -0.03128  0.8398  0.342
6.342e+09  0.8794  0.2468  -0.01469  0.006981  0.04901  0.03775  0.9342  0.0315
6.344e+09  0.8733  -0.06342  0.0009576  -0.01301  -0.004799  -0.01976  0.8874  -0.273
6.345e+09  0.7851  -0.3839  -0.00743  0.02561  0.04046  0.05581  0.7512  -0.5794
6.346e+09  0.5882  -0.6607  0.001858  0.03962  0.02966  0.002727  0.5164  -0.7881
6.348e+09  0.3325  -0.8211  0.007674  -0.0299  0.01157  -0.02834  0.222  -0.9511
6.349e+09  -0.01627  -0.9185  -0.01993  -0.01874  0.03151  0.007387  -0.1483  -0.9505
6.35e+09  -0.312  -0.845  -0.04395  -0.01534  -0.001678  0.03999  -0.442  -0.8136
6.351e+09  -0.5452  -0.6575  -0.006552  -0.01003  0.004662  -0.002776  -0.6658  -0.6583
6.352e+09  -0.7714  -0.4429  0.02245  0.001212  -0.06587  -0.01884  -0.8898  -0.3862
6.354e+09  -0.9035  -0.1919  -0.001481  -0.02975  -0.01206  0.0124  -0.9284  -0.07263
6.355e+09  -0.8502  0.1327  -0.02227  -0.02614  -0.01792  0.01229  -0.93  0.2604
6.356e+09  -0.8087  0.4298  0.026  -0.00618  0.02523  -0.003657  -0.7735  0.5709
6.358e+09  -0.5562  0.7006  0.00566  0.02288  -0.001006  -0.01214  -0.524  0.7811
6.359e+09  -0.2739  0.8655  0.01215  0.00132  0.05124  -0.07417  -0.249  0.8614
6.36e+09  0.02644  0.8745  -0.02703  0.01187  -0.0008372  0.03613  0.1115  0.9492
6.361e+09  0.385  0.8207  0.02644  -0.01464  0.007359  -0.007285  0.4012  0.8589
6.362e+09  0.645  0.6106  -0.003081  0.017  -0.006763  0.01368  0.693  0.6701
6.364e+09  0.7985  0.4561  -0.006022  0.003557  0.004608  -0.01475  0.8526  0.3834
6.365e+09  0.8644  0.1382  0.01912  0.04626  -0.008264  -0.03126  0.9368  0.0822
6.366e+09  0.9227  -0.1934  0.01498  0.006693  0.01381  0.01439  0.9485  -0.2478
6.368e+09  0.7297  -0.4915  -0.011  0.0001297  -0.002291  0.004798  0.779  -0.5845
6.369e+09  0.4762  -0.729  -0.0185  0.004169  0.03969  0.0105  0.5625  -0.779
6.37e+09  0.2269  -0.815  -0.02409  0.02814  -0.01034  -0.03563  0.2598  -0.897
6.371e+09  -0.06102  -0.9062  0.03314  0.02865  0.03636  -0.007926  -0.07486  -0.967
6.372e+09  -0.4013  -0.8309  -0.0002281  -0.00791  -0.0102  0.01414  -0.3497  -0.8917
6.374e+09  -0.6402  -0.6304  0.001405  0.01329  -0.01433  0.04139  -0.6784  -0.6739
6.375e+09  -0.7772  -0.4085  -0.01299  -0.01704  0.02526  -0.01747  -0.8142  -0.3797
6.376e+09  -0.8803  -0.0228  -0.007478  -0.009942  0.0239  -0.03501  -0.9807  -0.1019
6.378e+09  -0.8655  0.2384  0.003245  -0.04048  0.02041  0.06559  -0.9238  0.244
6.379e+09  -0.6832  0.5139  -0.02762  0.01574  -0.01099  -0.002454  -0.7946  0.4963
6.38e+09  -0.4806  0.7402  0.02838  -0.03817  -0.0287  -0.01498  -0.5557  0.7771
6.381e+09  -0.1837  0.8678  -0.03141  0.002118  -0.04978  -0.002227  -0.2428  0.9095
6.382e+09  0.1083  0.9326  -0.01036  0.01335  0.03381  0.01532  0.04972  0.9381
6.384e+09  0.4182  0.7673  -0.01844  -0.03331  0.04049  -0.05464  0.3619  0.8685
6.385e+09  0.657  0.5892  -0.02846  0.01358  -0.01287  0.02245  0.6529  0.6551
6.386e+09  0.82  0.3453  -0.01359  -0.0002802  -0.02247  0.05154  0.8427  0.4335
6.388e+09  0.8462  -0.009793  0.03312  -0.02276  0.01315  0.01324  0.9182  0.1485
6.389e+09  0.8939  -0.2529  -0.02785  -0.01466  -0.01446  0.001089  0.8683  -0.2025
6.39e+09  0.712  -0.5577  0.007737  0.01233  -0.01508  -0.01494  0.7826  -0.5175
6.391e+09  0.4895  -0.7357  -0.0122  5.666e-05  0.01059  -0.01403  0.5239  -0.7918
6.392e+09  0.1614  -0.9148  -0.00808  0.03108  -0.009878  -0.01572  0.2834  -0.861
6.394e+09  -0.1453  -0.8934  0.006745  -0.03302  -0.01476  0.01935  -0.03145  -0.952
6.395e+09  -0.408  -0.7888  0.01473  0.0006699  0.01328  -0.03718  -0.3658  -0.8009
6.396e+09  -0.6311  -0.5849  -0.02145  0.01244  0.001654  -0.000166  -0.6069  -0.7104
6.398e+09  -0.8009  -0.3509  0.0205  0.01932  -0.02053  0.007015  -0.8402  -0.423
6.399e+09  -0.8734  -0.04305  0.008184  0.006273  -0.03158  0.02644  -0.8455  -0.1829
6.4e+09  -0.8103  0.3207  -0.0109  0.01502  0.01235  0.009227  -0.9179  0.1506
6.401e+09  -0.6555  0.6056  -0.01955  -0.03009  -0.007125  7.322e-05  -0.7923  0.4759
6.402e+09  -0.4177  0.7665  0.01203  -0.001641  0.005112  0.0168  -0.59  0.7543
6.404e+09  -0.1359  0.8547  -0.01662  0.07201  0.00211  -0.02431  -0.3091  0.8573
6.405e+09  0.1787  0.9089  -0.01212  -0.004517  0.004407  0.02699  0.008348  0.9291
6.406e+09  0.4044  0.7778  0.07233  -0.01403  0.01158  0.006901  0.2924  0.867
6.408e+09  0.6754  0.5777  0.01908  -0.0005862  -0.04237  -0.006299  0.5611  0.6855
6.409e+09  0.793  0.2619  -0.04644  -0.01003  -0.000275  0.004107  0.8008  0.471
6.41e+09  0.8663  -0.02984  -0.02967  -0.02886  0.01283  -0.03064  0.8989  0.1429
6.411e+09  0.825  -0.3643  0.01248  0.02133  0.02564  0.01645  0.8995  -0.1527
6.412e+09  0.6607  -0.5906  -0.02129  0.02793  0.0222  0.01579  0.826  -0.459
6.414e+09  0.4801  -0.7816  -0.08033  -0.003457  -0.0396  -0.003102  0.5624  -0.7127
6.415e+09  0.1364  -0.8916  -0.005276  -0.03281  -0.0524  0.04839  0.2765  -0.8738
6.416e+09  -0.2204  -0.8995  0.04611  -0.01945  0.0464  0.0507  0.01162  -0.9019
6.418e+09  -0.5017  -0.7526  -0.007339  -0.03186  0.04687  -0.008142  -0.2722  -0.8447
6.419e+09  -0.775  -0.4971  -0.007713  0.0004977  0.008256  0.006739  -0.539  -0.7053
6.42e+09  -0.9147  -0.22  0.004351  0.04287  0.001189  -0.001073  -0.7508  -0.4477
6.421e+09  -0.9014  0.08935  -0.03952  -0.02438  0.03436  0.05374  -0.8899  -0.1651
6.422e+09  -0.7612  0.3545  -0.008777  0.03417  -0.003172  0.01593  -0.8155  0.1077
6.424e+09  -0.6507  0.6504  -0.0422  0.007702  0.01956  0.02011  -0.8099  0.362
6.425e+09  -0.3762  0.8377  0.05248  0.009408  0.04637  0.01352  -0.5474  0.6818
6.426e+09  -0.08392  0.9055  0.0209  -0.04271  0.01437  -0.02235  -0.3596  0.8058
6.428e+09  0.2836  0.8821  -0.008795  -0.02347  0.04207  0.01376  -0.03759  0.8668
6.429e+09  0.5738  0.7208  0.0007976  0.02309  -0.0568  0.03042  0.2163  0.8185
6.43e+09  0.7387  0.5005  0.04423  -0.00529  -0.01709  -0.002369  0.5135  0.7
6.431e+09  0.9164  0.1853  0.000881  -0.0122  -0.01543  -0.03342  0.7247  0.475
6.432e+09  0.9121  -0.124  0.008536  0.002045  -0.0249  -0.04828  0.8356  0.2195
6.434e+09  0.807  -0.4506  0.003671  0.02564  0.002635  0.004068  0.8736  -0.09637
6.435e+09  0.5176  -0.7413  0.01969  0.03887  -0.03532  -0.05133  0.7518  -0.4088
6.436e+09  0.3131  -0.9092  0.04432  0.04095  0.0469  -0.009417  0.5658  -0.6199
6.438e+09  0.004198  -0.8991  0.01331  -0.05583  0.02487  -0.03422  0.3584  -0.7438
6.439e+09  -0.2977  -0.8322  0.02658  -0.008902  -0.0615  -0.04589  0.03133  -0.8883
6.44e+09  -0.6014  -0.7385  0.02765  0.03763  0.02026  -0.01932  -0.2208  -0.8222
6.441e+09  -0.827  -0.4318  -0.03731  -0.0566  0.055  -0.02877  -0.5321  -0.6983
6.442e+09  -0.9561  -0.1206  -0.02998  -0.0269  0.01754  0.03646  -0.6863  -0.4739
6.444e+09  -0.9277  0.1387  0.01521  -0.02308  -0.0003425  -0.008357  -0.8142  -0.1687
6.445e+09  -0.8051  0.4941  -0.01818  0.02494  0.01913  -0.04958  -0.8637  0.06946
6.446e+09  -0.5558  0.7388  -0.02702  0.0406  0.002843  -0.01498  -0.796  0.3649
6.448e+09  -0.2343  0.8947  -0.03941  -0.03258  0.02812  -0.05656  -0.5962  0.6103
6.449e+09  0.03833  0.8894  0.02978  0.02466  -0.001642  -0.03562  -0.3599  0.7722
6.45e+09  0.4306  0.8272  -0.001251  -0.01762  0.04445  0.02707  -0.04638  0.85
6.451e+09  0.6646  0.7327  -0.01525  0.02487  -0.02357  0.0269  0.2604  0.81
6.452e+09  0.8587  0.4652  -0.03411  0.03475  0.01023  0.01456  0.4851  0.6856
6.454e+09  0.9451  0.1169  0.01025  0.007049  0.04915  0.007993  0.6526  0.4882
6.455e+09  0.9351  -0.2623  0.01261  -0.002097  -0.02109  -0.01264  0.8534  0.1915
6.456e+09  0.7608  -0.5464  0.01885  -0.02226  -0.01492  -0.03506  0.8515  -0.07078
6.458e+09  0.5217  -0.7583  0.02541  -0.01038  0.03809  -0.01478  0.7413  -0.351
6.459e+09  0.2108  -0.9489  0.03279  0.02746  -0.0428  -0.0006084  0.5771  -0.586
6.46e+09  -0.1223  -0.9061  0.01532  0.03861  -0.03113  -0.0336  0.3228  -0.7627
6.461e+09  -0.4259  -0.8061  -0.04919  -0.03165  -0.02747  0.00296  0.09408  -0.8219
6.462e+09  -0.6623  -0.6457  -0.04407  0.02236  -0.01876  -0.0438  -0.2337  -0.745
6.464e+09  -0.8704  -0.3574  0.03258  -0.03139  0.03909  -0.08618  -0.4893  -0.6726
6.465e+09  -0.9179  0.02098  0.003639  -0.01529  0.00297  0.005175  -0.7059  -0.4073
6.466e+09  -0.8834  0.3168  0.01903  -0.03443  -0.004712  0.0005675  -0.728  -0.1818
6.468e+09  -0.6684  0.5697  0.04493  0.02834  0.02047  -0.009606  -0.7768  0.08357
6.469e+09  -0.4502  0.7841  -0.02894  0.0311  0.01377  -0.00662  -0.7224  0.3274
6.47e+09  -0.1128  0.9848  0.03294  -0.0153  0.008755  -0.03975  -0.5523  0.5796
6.471e+09  0.2517  0.9329  -0.01639  -0.01751  -0.01572  -0.01234  -0.3131  0.7691
6.472e+09  0.5328  0.7949  0.0253  0.01533  0.04105  0.01853  -0.05057  0.7993
6.474e+09  0.7945  0.5528  0.02061  -0.02082  0.02348  0.0456  0.2233  0.7547
6.475e+09  0.9141  0.2128  -0.02145  0.02597  0.04306  0.018  0.4882  0.6518
6.476e+09  0.9185  -0.09422  -0.002769  0.02611  -0.01839  0.06123  0.6488  0.4742
6.478e+09  0.9068  -0.4582  -0.002271  -0.02964  -0.01162  -0.03172  0.7477  0.1852
6.479e+09  0.6193  -0.7554  -0.004542  -0.02321  -0.005903  -0.03954  0.7245  -0.1103
6.48e+09  0.3851  -0.8818  0.03188  0.01241  -0.04159  -0.02051  0.7025  -0.31
6.481e+09  0.01353  -0.962  -0.03142  0.01021  0.0127  0.0358  0.5278  -0.5383
6.482e+09  -0.2899  -0.9021  0.02912  0.023  0.00937  0.02513  0.3283  -0.7753
6.484e+09  -0.612  -0.7526  -0.007174  -0.00392  0.01476  -0.006699  0.03453  -0.7708
6.485e+09  -0.8504  -0.479  0.01568  -0.04414  -0.03507  -0.003691  -0.2185  -0.7932
6.486e+09  -0.9112  -0.1481  0.01488  -0.0332  -0.006382  0.0198  -0.4793  -0.6522
6.488e+09  -0.9254  0.2055  0.002365  -0.01266  0.005818  -0.005997  -0.6439  -0.4484
6.489e+09  -0.7921  0.5891  -0.007364  -0.03389  0.05523  0.006523  -0.7383  -0.1804
6.49e+09  -0.5246  0.7697  -0.03861  0.03737  0.01031  -0.0197  -0.8041  0.05408
6.491e+09  -0.2993  0.9319  -0.01422  0.02178  -0.0453  0.03635  -0.7147  0.3225
6.492e+09  0.08346  0.9008  -0.02414  -0.0356  0.009129  0.008031  -0.5139  0.5488
6.494e+09  0.4618  0.8482  0.009238  0.007344  0.01479  0.01021  -0.2795  0.7155
6.495e+09  0.7344  0.6403  -0.0192  -0.0227  0.01095  -0.0215  -0.04354  0.7538
6.496e+09  0.8693  0.3523  0.01322  0.0003013  0.01885  0.01555  0.2426  0.73
6.498e+09  0.9192  0.01547  -0.004279  -0.03458  -0.01231  -0.03031  0.4893  0.634
6.499e+09  0.8718  -0.3359  0.0004793  0.01271  -0.02893  -0.01853  0.6501  0.4058
6.5e+09  0.698  -0.5989  -0.04005  0.009964  -0.008545  0.02298  0.7536  0.1488
6.501e+09  0.4635  -0.7525  -0.005366  0.03026  0.06701  0.01308  0.7622  -0.1354
6.502e+09  0.1504  -0.8962  -0.003059  0.03903  0.06276  -0.02369  0.675  -0.3428
6.504e+09  -0.2165  -0.9186  0.01748  0.02225  -0.01109  0.01977  0.4959  -0.5907
6.505e+09  -0.494  -0.7551  0.02221  -0.02175  -0.02007  0.000988  0.2805  -0.6964
6.506e+09  -0.7259  -0.4636  -0.005855  0.005078  0.05701  0.03242  0.005438  -0.7738
6.508e+09  -0.8804  -0.261  -0.009529  -0.0009511  -0.003786  -0.01114  -0.2575  -0.7331
6.509e+09  -0.9159  0.1208  -0.01722  -0.01739  -0.04957  0.02823  -0.4655  -0.6114
6.51e+09  -0.8223  0.4386  -0.004016  0.02221  0.02862  0.03553  -0.6519  -0.3779
6.511e+09  -0.5612  0.6878  -0.01174  -0.01014  -0.02823  0.04982  -0.7443  -0.1663
6.512e+09  -0.2755  0.8674  0.02453  -0.01787  0.05372  0.004894  -0.7466  0.1392
6.514e+09  -0.03515  0.8787  0.01151  -0.04596  0.002058  0.03236  -0.677  0.3438
6.515e+09  0.3555  0.8388  0.03689  -0.00608  0.0003619  0.05904  -0.466  0.5811
6.516e+09  0.616  0.6219  -0.01335  0.001466  -0.003377  0.03218  -0.2611  0.6908
6.518e+09  0.8246  0.3928  0.02249  0.03532  -0.003661  -0.008854  0.004837  0.7671
6.519e+09  0.8749  0.07917  -0.04606  0.03524  0.0003672  -0.0206  0.2578  0.717
6.52e+09  0.8833  -0.1971  0.03346  0.02591  0.0239  -0.006037  0.5212  0.5451
6.521e+09  0.7171  -0.5458  0.03547  -0.007015  -0.0578  0.04223  0.6205  0.3495
6.522e+09  0.4799  -0.7278  -0.01492  0.01962  0.02991  0.07539  0.7253  0.06599
6.524e+09  0.1526  -0.906  -0.02047  -0.009159  0.0006829  0.04598  0.731  -0.1719
6.525e+09  -0.1717  -0.8778  0.01885  0.01111  -0.004494  0.01949  0.5976  -0.3805
6.526e+09  -0.4211  -0.7241  0.02265  0.01887  0.01041  -0.06653  0.4227  -0.576
6.528e+09  -0.6139  -0.5398  0.009457  -0.006755  -0.01054  -0.0439  0.2051  -0.6885
6.529e+09  -0.8182  -0.2504  -0.007999  -0.004201  0.03167  -0.005437  -0.04344  -0.7082
6.53e+09  -0.8329  0.06374  0.006076  -0.02153  0.08566  0.004778  -0.2588  -0.6307
6.531e+09  -0.817  0.3599  0.01103  0.04386  -0.008977  -0.01776  -0.433  -0.4696
6.532e+09  -0.5566  0.6044  -0.007766  0.002677  -0.03523  0.013  -0.5963  -0.2852
6.534e+09  -0.344  0.808  0.01114  -0.01928  0.0116  -0.008505  -0.6652  -0.08791
6.535e+09  -0.07509  0.8048  -0.01379  -0.01968  0.01778  0.04375  -0.6178  0.1204
6.536e+09  0.3074  0.8362  -0.02608  -0.02084  0.02516  -0.006953  -0.5699  0.3065
6.538e+09  0.4905  0.6853  0.03852  -0.02377  -0.006018  -0.007201  -0.4407  0.4529
6.539e+09  0.7023  0.4291  0.003097  0.03119  0.03335  -0.009235  -0.2862  0.5894
6.54e+09  0.7778  0.1489  0.003911  0.00652  -0.03297  -0.0004912  -0.04107  0.6743
6.541e+09  0.761  -0.1474  -0.02221  0.01402  0.02991  0.01984  0.1716  0.6352
6.542e+09  0.7365  -0.4778  -0.04784  0.008361  0.01182  -0.02355  0.4038  0.5675
6.544e+09  0.5  -0.6518  -0.01017  0.002364  0.08204  -0.001239  0.6039  0.3764
6.545e+09  0.2085  -0.7482  -8.707e-05  0.01347  -0.0013  0.02348  0.7255  0.2251
6.546e+09  -0.1022  -0.7737  0.01777  0.005446  -0.01756  0.01236  0.7289  -0.0963
6.548e+09  -0.356  -0.7131  0.01288  0.007402  -0.03212  0.04875  0.6472  -0.3076
6.549e+09  -0.5544  -0.5129  -0.01757  -0.002202  -0.005924  0.01489  0.4874  -0.4994
6.55e+09  -0.7284  -0.3208  -0.03849  -0.02129  -0.001823  0.034  0.3484  -0.6769
6.551e+09  -0.7923  -0.01695  0.02346  0.001125  -0.04872  0.01748  0.06776  -0.7415
