# Hz S RI R 50
6.25e+09  -0.2856  0.8445  -0.03455  -0.02205  -0.04157  0.000714  0.1472  0.4723
6.251e+09  -0.02413  0.8803  -0.04503  0.01165  0.09054  0.03376  0.3909  0.44
6.252e+09  0.3129  0.8495  -0.00961  -0.02432  -0.02  -0.00179  0.5526  0.2239
6.254e+09  0.5704  0.6431  0.01662  0.01419  -0.03811  0.07068  0.6376  -0.02322
6.255e+09  0.7394  0.4631  0.008797  -0.0004547  0.0195  -0.04523  0.5934  -0.1886
6.256e+09  0.891  0.1086  -0.03805  -0.01173  -0.01326  0.003426  0.489  -0.4292
6.258e+09  0.8343  -0.1685  0.005968  -0.00385  0.03928  -0.01998  0.2967  -0.5739
6.259e+09  0.7378  -0.4232  -0.01255  0.0149  -0.04252  0.0196  -0.005891  -0.6874
6.26e+09  0.5492  -0.649  -0.02404  -0.005424  0.03821  -0.0359  -0.2026  -0.6427
6.261e+09  0.2801  -0.7819  -0.0239  0.02168  0.02583  -0.03824  -0.4205  -0.5079
6.262e+09  -0.02784  -0.8431  0.01352  -0.006259  0.01257  0.0008695  -0.6457  -0.3493
6.264e+09  -0.2713  -0.834  -0.0004209  -0.02762  0.01743  0.03078  -0.7002  -0.1207
6.265e+09  -0.584  -0.6465  -0.005807  0.02453  -0.04113  -0.0349  -0.6868  0.1723
6.266e+09  -0.7858  -0.4027  0.02353  0.007853  -0.05376  -0.02234  -0.5822  0.4255
6.268e+09  -0.8046  -0.08127  -0.009247  0.01118  0.002228  0.01673  -0.4114  0.5962
6.269e+09  -0.7899  0.1838  -0.0004425  -0.0155  0.001637  0.03592  -0.2167  0.7276
6.27e+09  -0.6585  0.4361  0.001437  -0.01018  0.04532  0.0258  0.05753  0.7356
6.271e+09  -0.527  0.6507  0.02095  0.02568  -0.01203  -0.01542  0.3072  0.688
6.272e+09  -0.2386  0.7975  -0.002259  -0.0001529  0.03565  0.01926  0.5486  0.5152
6.274e+09  0.0008182  0.9128  0.01384  0.003727  0.002156  -0.0252  0.6809  0.313
6.275e+09  0.3277  0.7822  0.0111  0.02813  0.0423  -0.04135  0.7692  0.01658
6.276e+09  0.5763  0.5733  0.003312  -0.007006  -0.01373  -0.01669  0.7272  -0.216
6.278e+09  0.7323  0.3802  0.01522  0.007071  -0.06011  0.02777  0.6256  -0.4567
6.279e+09  0.8522  0.1141  -0.03214  -0.03046  -0.008371  0.02022  0.4099  -0.6537
6.28e+09  0.8136  -0.1893  -0.01644  0.006114  0.04454  -0.05979  0.1595  -0.7597
6.281e+09  0.7278  -0.424  0.0143  -0.008177  0.01163  -0.06138  -0.09174  -0.7587
6.282e+09  0.5423  -0.6466  -0.005346  0.01634  0.04581  -0.001174  -0.3733  -0.7043
6.284e+09  0.2529  -0.7792  0.005567  0.006503  0.03445  -0.01981  -0.6021  -0.5157
6.285e+09  -0.0424  -0.8747  0.00656  -0.01818  0.001061  0.006621  -0.7142  -0.3071
6.286e+09  -0.3155  -0.7829  -0.001232  -0.04948  0.04041  0.003822  -0.7865  -0.04423
6.288e+09  -0.6124  -0.5554  -0.0169  -0.004326  -0.01054  0.03728  -0.7591  0.2651
6.289e+09  -0.7582  -0.4073  -0.002931  -0.02335  -0.002356  -0.02114  -0.6481  0.4721
6.29e+09  -0.8953  -0.08914  0.01396  0.01584  -0.03152  -0.0772  -0.3965  0.6773
6.291e+09  -0.7773  0.1951  0.0173  0.01076  -0.00572  -0.06805  -0.1721  0.787
6.292e+09  -0.7023  0.4788  -0.02434  0.002649  0.01957  -0.01033  0.1181  0.8026
6.294e+09  -0.5153  0.6501  -0.04623  -0.01973  0.005679  -0.001219  0.4188  0.7209
6.295e+09  -0.1972  0.816  0.001933  0.008222  0.00253  -0.01759  0.6173  0.5435
6.296e+09  0.06176  0.85  -0.0215  0.01619  -0.02741  0.05064  0.7443  0.2853
6.298e+09  0.3459  0.7181  -0.001959  0.002905  0.03484  -0.01275  0.8397  0.01241
6.299e+09  0.665  0.5418  0.0201  0.008702  0.03515  0.03724  0.7786  -0.2448
6.3e+09  0.7727  0.3218  0.0006972  0.001214  0.007648  -0.01989  0.6724  -0.5233
6.301e+09  0.8417  0.02614  0.01976  0.01137  0.03884  0.00309  0.4605  -0.7578
6.302e+09  0.806  -0.2485  -0.03668  0.01535  0.02699  0.0268  0.1869  -0.8339
6.304e+09  0.6284  -0.4854  0.03624  0.01419  -0.00782  -0.02105  -0.1195  -0.8233
6.305e+09  0.4392  -0.6338  -0.006678  -0.01215  0.01345  -0.03756  -0.4152  -0.7371
6.306e+09  0.1517  -0.8131  0.02774  0.005672  0.03835  0.03  -0.6931  -0.5843
6.308e+09  -0.1091  -0.877  -0.01862  0.008954  0.01952  0.007792  -0.7693  -0.313
6.309e+09  -0.3967  -0.7414  0.02481  -0.01946  -0.013  0.02081  -0.8659  -0.01008
6.31e+09  -0.6322  -0.5624  -0.01264  0.01519  0.06414  -0.02522  -0.8017  0.2693
6.311e+09  -0.7538  -0.3186  -0.02815  -0.01577  0.05362  0.03225  -0.6945  0.5898
6.312e+09  -0.8811  -0.007098  0.01564  0.001149  -0.002459  0.01187  -0.4291  0.7227
6.314e+09  -0.755  0.2533  0.001051  0.01002  0.0109  -0.009067  -0.1788  0.8691
6.315e+09  -0.6614  0.5272  -0.009249  -0.005768  -0.01027  0.03445  0.1535  0.8805
6.316e+09  -0.4547  0.7137  0.002855  -0.005763  -0.02338  0.005844  0.4187  0.7533
6.318e+09  -0.1285  0.8478  0.02222  0.001259  -0.01292  -0.02371  0.6915  0.5955
6.319e+09  0.1478  0.8366  0.01289  -0.03503  -0.01034  0.02234  0.8487  0.32
6.32e+09  0.423  0.7659  0.006167  0.01654  -0.004774  -0.01835  0.8754  -0.0005156
6.321e+09  0.6455  0.5387  -0.01293  -0.007804  -0.01711  -0.01482  0.8817  -0.277
6.322e+09  0.8552  0.2858  0.006444  0.007527  0.01996  0.037  0.7038  -0.5793
6.324e+09  0.8173  -0.05086  -0.002045  -0.01648  -0.02456  -0.01583  0.4629  -0.7926
6.325e+09  0.8088  -0.4268  -0.01672  -0.01313  -0.004576  0.02651  0.1475  -0.8647
6.326e+09  0.606  -0.599  -0.009412  -0.03085  -0.005369  0.04049  -0.1032  -0.8504
6.328e+09  0.3866  -0.7364  0.004  0.01814  -0.02335  -0.007706  -0.4119  -0.7882
6.329e+09  0.1123  -0.8257  0.01478  0.05723  0.001456  -0.0004067  -0.6577  -0.604
6.33e+09  -0.2154  -0.8279  -0.01237  0.01762  0.01802  -0.02244  -0.85  -0.3403
6.331e+09  -0.5229  -0.7016  -0.003613  -0.007116  -0.02928  -0.03696  -0.915  -0.02442
6.332e+09  -0.7147  -0.5364  -0.001186  0.01892  0.01375  -0.00049  -0.8867  0.2941
6.334e+09  -0.8853  -0.2701  -0.006929  0.008524  0.02966  0.03927  -0.7026  0.575
6.335e+09  -0.8312  0.08501  -0.0003687  0.005517  -0.03298  0.07837  -0.4792  0.7756
6.336e+09  -0.8101  0.3934  0.001195  0.0144  0.001801  0.02743  -0.2285  0.9077
6.338e+09  -0.5961  0.586  -0.03145  -0.02867  -0.03536  0.02688  0.1309  0.9254
6.339e+09  -0.3296  0.8217  -0.01353  -0.002592  0.01862  0.01107  0.4125  0.8079
6.34e+09  -0.05589  0.8375  0.02636  -0.0006  -0.03049  0.0298  0.672  0.6067
6.341e+09  0.271  0.8626  -0.02716  -0.03008  0.006506  0.01574  0.8335  0.372
6.342e+09  0.5213  0.6662  0.01621  -0.01102  -0.01421  -0.03998  0.9562  0.07108
6.344e+09  0.7114  0.4459  0.01528  -0.009447  -0.04877  0.02592  0.858  -0.2656
6.345e+09  0.8799  0.1592  -0.007796  0.03107  -0.01214  0.0257  0.744  -0.5568
6.346e+09  0.8784  -0.1014  -0.007308  -0.007782  -0.003576  -0.04845  0.4756  -0.8121
6.348e+09  0.7593  -0.4505  0.006004  0.01259  -0.02941  -0.04709  0.2572  -0.8999
6.349e+09  0.5715  -0.6709  -0.02874  -0.0171  -0.003886  0.01921  -0.1157  -0.9223
6.35e+09  0.3075  -0.9105  -0.02798  0.0002805  -0.02189  -0.01378  -0.4385  -0.8486
6.351e+09  -0.0104  -0.8845  0.01844  -0.00523  0.02766  -0.008772  -0.6953  -0.6432
6.352e+09  -0.3219  -0.8027  0.007469  -0.01673  -0.01546  -0.01977  -0.869  -0.4016
6.354e+09  -0.582  -0.6531  0.01195  0.02407  -0.002318  -0.0434  -0.9342  -0.02186
6.355e+09  -0.8094  -0.3691  -0.002605  0.001995  0.01084  -0.01968  -0.9557  0.2932
6.356e+09  -0.8464  -0.1595  -0.01272  -0.0375  -0.005152  -0.01181  -0.7333  0.5049
6.358e+09  -0.8053  0.2017  0.002494  0.02446  -0.0304  0.03656  -0.543  0.7891
6.359e+09  -0.7967  0.5108  -0.001246  0.0101  0.005719  -0.02448  -0.2075  0.9203
6.36e+09  -0.5028  0.7258  -0.02286  -0.01268  0.07133  -0.007745  0.1303  0.9351
6.361e+09  -0.2328  0.8614  0.0008642  -0.01259  -0.01369  0.002007  0.4195  0.8518
6.362e+09  0.1042  0.87  -0.005818  -0.02761  -0.02327  0.003609  0.6753  0.6396
6.364e+09  0.3797  0.7675  0.006003  -0.003083  -0.007954  0.001498  0.8776  0.4109
6.365e+09  0.6127  0.6351  -0.03542  0.009145  0.00777  -0.01736  0.9576  0.08978
6.366e+09  0.7725  0.3714  -0.002448  0.02462  0.004409  -0.04446  0.9414  -0.2099
6.368e+09  0.891  0.05723  0.006526  -0.01543  -0.02516  0.01628  0.7913  -0.5052
6.369e+09  0.8703  -0.2367  0.04089  -0.007804  0.02833  0.01127  0.5169  -0.7685
6.37e+09  0.7301  -0.5596  0.008553  -0.006658  -0.01947  -0.01004  0.2591  -0.9095
6.371e+09  0.4814  -0.7195  0.04368  -0.008623  0.00808  -0.01423  -0.06182  -0.9729
6.372e+09  0.1994  -0.8574  -0.04156  -0.01794  0.0489  -0.02527  -0.4207  -0.8481
6.374e+09  -0.1222  -0.8725  0.01585  -0.00561  -0.02573  0.07427  -0.6551  -0.6976
6.375e+09  -0.4125  -0.8246  -0.01553  -0.01735  0.007321  0.02029  -0.8372  -0.4001
6.376e+09  -0.648  -0.5777  -0.001129  -0.02406  -0.004111  -0.04757  -0.9333  -0.09091
6.378e+09  -0.7928  -0.3325  0.01878  -0.03322  -0.02516  -0.007848  -0.9044  0.2609
6.379e+09  -0.9077  -0.006801  0.01338  0.01785  0.005863  -0.05075  -0.793  0.5228
6.38e+09  -0.8785  0.2636  0.01323  0.03054  -0.01092  0.03096  -0.5678  0.774
6.381e+09  -0.6976  0.5039  -0.008589  -0.003606  0.02645  0.001294  -0.2792  0.8689
6.382e+09  -0.4762  0.6939  -0.05937  0.03587  0.009508  0.01551  0.09746  0.9323
6.384e+09  -0.1615  0.8507  -0.02614  0.007232  0.01472  0.02526  0.3696  0.8509
6.385e+09  0.1184  0.89  -0.002371  -0.02049  0.02786  -0.02863  0.6652  0.6845
6.386e+09  0.4843  0.7913  0.01439  0.02288  -0.03868  -0.02052  0.8429  0.4504
6.388e+09  0.7078  0.5656  -0.01549  -0.04285  -0.03935  0.05856  0.9294  0.1041
6.389e+09  0.8389  0.3141  -0.01697  0.01159  -0.02205  0.02623  0.9201  -0.2208
6.39e+09  0.9058  0.01075  -0.01373  -0.008106  -0.01544  -0.02519  0.7539  -0.501
6.391e+09  0.8465  -0.3134  -0.005207  -0.04175  0.0588  -0.01776  0.5439  -0.7549
6.392e+09  0.7134  -0.562  0.007808  -0.01494  0.01075  0.002936  0.243  -0.8658
6.394e+09  0.444  -0.7836  -0.01024  0.0364  -0.0548  -0.03286  -0.04203  -0.9451
6.395e+09  0.1009  -0.8983  0.003848  0.04798  0.02447  0.02006  -0.3417  -0.8565
6.396e+09  -0.1684  -0.8621  -0.001618  0.02876  0.01168  -0.01976  -0.6266  -0.6807
6.398e+09  -0.4878  -0.7986  -0.04835  -0.0257  -0.01015  -0.007914  -0.8064  -0.449
6.399e+09  -0.7182  -0.5449  -0.04734  -0.04005  -0.03408  0.04844  -0.9438  -0.126
6.4e+09  -0.8833  -0.2704  0.005249  0.02264  -0.03093  0.004443  -0.9193  0.1577
6.401e+09  -0.906  -0.009243  0.003065  -0.02435  0.01299  -0.003635  -0.7991  0.4547
6.402e+09  -0.8473  0.3261  -0.01826  0.0001066  0.01428  0.01882  -0.566  0.749
6.404e+09  -0.6354  0.5831  -0.00568  -0.006032  -0.01127  -0.008724  -0.2974  0.9188
6.405e+09  -0.3991  0.8442  0.03488  0.008097  0.01434  -0.01273  0.007158  0.9196
6.406e+09  -0.1165  0.8903  0.01114  -0.001097  0.001047  -0.02185  0.3232  0.8027
6.408e+09  0.2047  0.8674  0.01702  0.03599  -0.01402  -0.02328  0.5677  0.7236
6.409e+09  0.4597  0.7366  0.004186  -0.02247  -0.01155  0.06393  0.7549  0.4668
6.41e+09  0.7366  0.5423  -0.001812  0.0003492  0.05894  -0.04882  0.898  0.1649
6.411e+09  0.8452  0.2522  -0.03454  0.02302  -0.003594  -0.03196  0.9222  -0.1389
6.412e+09  0.8439  -0.08151  -0.03212  0.009194  0.01451  0.04773  0.8166  -0.4456
6.414e+09  0.8099  -0.3811  0.01571  0.02317  -0.02827  -0.02441  0.5931  -0.6362
6.415e+09  0.5853  -0.6249  -0.00434  0.005915  -0.01972  -0.00209  0.3551  -0.847
6.416e+09  0.4093  -0.8107  0.01572  0.03636  0.02361  -0.02881  0.04044  -0.9687
6.418e+09  0.08496  -0.8624  -0.00635  -0.004781  0.01119  -0.03314  -0.2698  -0.8713
6.419e+09  -0.2295  -0.8723  -0.0226  -0.005778  -0.01508  0.02212  -0.5339  -0.7168
6.42e+09  -0.5171  -0.7385  5.149e-05  -0.05658  0.02562  -0.0291  -0.7372  -0.4497
6.421e+09  -0.7531  -0.502  0.05399  0.01824  -0.01141  -0.04583  -0.9137  -0.218
6.422e+09  -0.9118  -0.2349  0.01445  0.02628  -0.03546  0.04405  -0.9028  0.1107
6.424e+09  -0.8422  0.03325  -0.001188  -0.00726  0.00057  0.0112  -0.7514  0.3981
6.425e+09  -0.8534  0.3402  -0.02572  0.001626  -0.01802  -0.0121  -0.6073  0.634
6.426e+09  -0.6793  0.6259  -0.0397  0.03015  0.02557  -0.02541  -0.3739  0.8073
6.428e+09  -0.3601  0.8079  0.007362  -0.03324  -0.03393  0.06529  -0.0653  0.868
6.429e+09  -0.05563  0.8884  0.01393  -0.03335  0.03076  0.01816  0.2118  0.8163
6.43e+09  0.2317  0.9136  0.003132  -0.04238  0.05501  -0.004708  0.5369  0.6529
6.431e+09  0.5861  0.7186  0.03914  0.02077  -0.02034  0.004592  0.7123  0.4718
6.432e+09  0.7283  0.5082  -0.05276  0.02351  0.03867  0.01993  0.8764  0.233
6.434e+09  0.8483  0.2516  -0.01445  -0.003202  0.003808  -0.01266  0.879  -0.1105
6.435e+09  0.8646  -0.1292  0.002068  2.2e-05  -0.006418  0.03891  0.7817  -0.4206
6.436e+09  0.7889  -0.3789  0.03569  0.04632  0.01393  0.0008203  0.5666  -0.632
6.438e+09  0.6294  -0.648  0.01415  -0.03282  -0.0263  0.009408  0.3674  -0.7906
6.439e+09  0.3771  -0.8055  0.03156  -0.03867  0.005581  0.02087  0.1111  -0.8372
6.44e+09  0.06721  -0.8838  -0.0024  0.01172  -0.003732  0.004659  -0.2199  -0.8685
6.441e+09  -0.2401  -0.859  -0.005118  0.01119  -0.009863  0.03177  -0.4851  -0.7146
6.442e+09  -0.548  -0.7231  0.02017  -0.01289  0.006835  -0.005215  -0.6977  -0.4536
6.444e+09  -0.7343  -0.5132  -0.07084  -0.0109  0.07169  -0.03614  -0.7931  -0.2516
6.445e+09  -0.8586  -0.2587  -0.04023  0.01191  0.01121  0.001814  -0.8259  0.08578
6.446e+09  -0.8742  0.1175  -0.0278  -0.02436  -0.009064  -0.0257  -0.7666  0.3498
6.448e+09  -0.7822  0.4474  0.02401  0.006297  0.009456  0.0358  -0.5674  0.5977
6.449e+09  -0.6395  0.6568  0.01029  0.007768  -0.01107  -0.07478  -0.3417  0.7285
6.45e+09  -0.3429  0.877  0.01018  0.01003  0.01205  -0.04082  -0.08921  0.8019
6.451e+09  -0.05163  0.8963  -0.03231  -0.01003  0.003959  0.003143  0.2384  0.7844
6.452e+09  0.227  0.866  -0.02041  -0.03002  0.07079  0.007465  0.5146  0.6734
6.454e+09  0.5858  0.7336  -0.004149  0.009726  -0.004314  -0.01856  0.729  0.4904
6.455e+09  0.7639  0.4421  -0.06002  -0.04322  -0.001241  0.03507  0.7895  0.2306
6.456e+09  0.836  0.2187  -5.366e-05  -0.007661  0.01269  -0.0283  0.8634  -0.08033
6.458e+09  0.8802  -0.1403  -0.0226  0.0018  -0.04524  -0.04138  0.7505  -0.3529
6.459e+09  0.7505  -0.4013  0.003579  0.008343  0.02061  -0.01889  0.564  -0.5691
6.46e+09  0.6226  -0.7145  0.0004095  0.03704  -0.02264  -0.01756  0.3102  -0.7518
6.461e+09  0.3608  -0.8412  -0.009051  0.01483  0.02259  -0.01794  0.1101  -0.8363
6.462e+09  0.04552  -0.8759  -0.0452  0.009117  -0.01573  0.01522  -0.2174  -0.7818
6.464e+09  -0.246  -0.8555  0.02324  0.01866  0.01903  -0.06116  -0.4495  -0.65
6.465e+09  -0.5555  -0.7456  0.01455  -0.01616  -0.009954  0.03323  -0.659  -0.477
6.466e+09  -0.7796  -0.5135  -0.02568  -0.004285  -0.004351  0.01794  -0.7411  -0.2058
6.468e+09  -0.879  -0.2181  -0.009749  0.01007  0.0112  0.006739  -0.8149  0.09086
6.469e+09  -0.8532  0.1331  0.0179  0.01374  0.008822  0.0239  -0.7112  0.3308
6.47e+09  -0.7992  0.4454  0.04054  0.0001303  -0.01657  -0.02607  -0.5161  0.5559
6.471e+09  -0.6134  0.6832  0.03629  0.01597  -0.0505  0.01759  -0.309  0.6935
6.472e+09  -0.3239  0.8635  0.006001  0.01895  0.01298  0.01309  -0.05684  0.7598
6.474e+09  0.02629  0.8983  -0.03406  0.02321  0.02525  -0.02929  0.2091  0.783
6.475e+09  0.2899  0.8415  0.02577  -0.0395  -0.01699  -0.01192  0.4166  0.6154
6.476e+09  0.5627  0.6976  -0.005324  -0.02927  0.05357  0.001904  0.6539  0.4803
6.478e+09  0.8107  0.5011  0.006118  -0.03268  0.003427  0.005711  0.8004  0.1822
6.479e+09  0.9447  0.1589  0.00133  0.003943  -0.002042  -0.02456  0.7427  -0.04584
6.48e+09  0.898  -0.1264  3.058e-05  -0.006883  -0.01189  0.01867  0.6425  -0.3122
6.481e+09  0.8036  -0.39  0.01407  -0.01211  -0.01294  0.01296  0.5318  -0.5739
6.482e+09  0.5987  -0.7683  0.02109  -0.003304  -0.00106  -0.03099  0.3313  -0.6646
6.484e+09  0.2924  -0.8611  0.04287  0.01643  -0.01767  0.02921  0.04444  -0.8224
6.485e+09  0.02581  -0.9274  0.01896  -0.003485  0.004221  -0.009111  -0.2169  -0.7379
6.486e+09  -0.2808  -0.8755  0.0128  0.03759  0.006831  -0.0003434  -0.4428  -0.6081
6.488e+09  -0.6344  -0.6875  -0.02228  0.006838  -0.003072  -0.03388  -0.652  -0.4428
6.489e+09  -0.8323  -0.3854  -0.004647  -0.02317  0.02274  0.006966  -0.7779  -0.2298
6.49e+09  -0.9595  -0.07568  0.007781  -0.02996  0.09171  0.02467  -0.7701  0.07251
6.491e+09  -0.9501  0.1715  0.01247  0.005662  -0.05065  0.0325  -0.7383  0.3634
6.492e+09  -0.8533  0.4998  -0.03891  -0.006555  0.01643  0.03326  -0.5428  0.5911
6.494e+09  -0.5878  0.7986  -0.0398  -0.009055  -0.0213  0.05725  -0.2861  0.7129
6.495e+09  -0.3263  0.9709  -0.02183  0.0162  0.005276  0.03633  -0.05549  0.7465
6.496e+09  0.05946  0.9583  -0.01811  0.02455  -0.004646  0.01315  0.2032  0.7497
6.498e+09  0.3561  0.8387  -0.0283  -0.03828  0.000482  -0.003621  0.4562  0.5775
6.499e+09  0.6653  0.6802  0.03931  0.01463  0.0002134  -0.002038  0.6178  0.4179
6.5e+09  0.8779  0.4297  -0.0152  0.01195  -0.008752  -0.0004641  0.7178  0.1725
6.501e+09  0.9924  0.1186  0.02222  0.01769  0.05139  -0.002185  0.7712  -0.1164
6.502e+09  0.9467  -0.18  -0.004499  -0.02119  -0.04957  -0.009185  0.6362  -0.3723
6.504e+09  0.7549  -0.53  -0.02408  -0.007316  -0.04769  0.00794  0.4731  -0.596
6.505e+09  0.5454  -0.7654  -0.01387  0.01512  0.03102  0.02877  0.2624  -0.703
6.506e+09  0.2683  -0.9129  0.01004  -0.006273  0.03564  -0.03165  0.02185  -0.7565
6.508e+09  -0.07063  -0.9743  -0.0008152  0.00832  0.02575  -0.03158  -0.239  -0.6914
6.509e+09  -0.4084  -0.8942  -0.03156  0.02516  -0.002558  0.004781  -0.4443  -0.5891
6.51e+09  -0.6844  -0.7301  -0.03686  -0.03144  -0.01605  -0.02933  -0.6366  -0.3612
6.511e+09  -0.8863  -0.4448  -0.006593  0.006836  -0.01888  0.01095  -0.7708  -0.07367
6.512e+09  -0.9439  -0.09058  -0.02791  0.01383  0.0003156  -0.09655  -0.7764  0.119
6.514e+09  -0.9359  0.274  -0.01208  -0.02709  -0.04753  -0.02988  -0.6558  0.3864
6.515e+09  -0.7574  0.5842  0.04389  0.002221  0.03157  -0.01678  -0.4762  0.5902
6.516e+09  -0.5947  0.7952  0.01178  -0.002414  0.05303  0.05288  -0.2332  0.7162
6.518e+09  -0.2645  0.9772  0.02291  -0.00556  -0.02017  0.03165  -0.0101  0.7386
6.519e+09  0.1204  0.9751  0.02018  0.01985  0.08697  0.01047  0.2935  0.6763
6.52e+09  0.4495  0.8774  0.02767  -0.01339  -0.02106  0.0004189  0.4868  0.5725
6.521e+09  0.7297  0.6014  -0.03137  -0.01537  -0.0514  0.04149  0.6323  0.3433
6.522e+09  0.9208  0.2975  -0.00669  -0.01678  0.0221  -0.04802  0.7499  0.1193
6.524e+09  0.9724  0.01144  0.02204  -0.002339  -0.007051  -0.01846  0.7  -0.1406
6.525e+09  0.943  -0.3487  0.01548  -0.01535  0.02049  -0.0211  0.5915  -0.407
6.526e+09  0.798  -0.6464  -0.002332  -0.02421  -0.02246  0.007793  0.4315  -0.5781
6.528e+09  0.4363  -0.8922  0.02047  -0.03681  0.01111  -0.0147  0.2288  -0.6998
6.529e+09  0.1335  -0.8869  0.002708  0.02059  -0.008226  0.01101  -0.06909  -0.7023
6.53e+09  -0.1647  -0.9802  -0.0005713  -0.02624  0.04956  0.01185  -0.2809  -0.6447
6.531e+09  -0.4981  -0.8294  0.0002654  -0.01553  0.006084  0.03221  -0.4808  -0.5029
6.532e+09  -0.7694  -0.5954  -0.01646  -0.02608  0.01135  0.06796  -0.5678  -0.3002
6.534e+09  -0.9464  -0.2897  -0.01009  0.007975  -0.0302  0.0007668  -0.6538  -0.07704
6.535e+09  -0.9929  0.05836  -0.03515  0.01398  -0.01652  0.02898  -0.6339  0.1094
6.536e+09  -0.9148  0.3843  -0.01836  0.007525  -0.02428  -0.003836  -0.5694  0.2953
6.538e+09  -0.6984  0.7025  0.005612  -0.001607  -0.004547  0.01351  -0.4772  0.4727
6.539e+09  -0.4378  0.8972  0.01051  -0.02749  -0.00917  0.02565  -0.263  0.6361
6.54e+09  -0.1237  0.998  -0.01898  -0.01194  0.006525  -0.03196  -0.02765  0.6901
6.541e+09  0.2733  0.9482  -0.01718  0.002483  0.001013  -0.00205  0.2142  0.6801
6.542e+09  0.5942  0.7859  -0.01238  -0.01767  -0.0007562  -0.01134  0.4318  0.5858
6.544e+09  0.8337  0.4962  0.005615  0.003041  -0.04227  0.02057  0.5797  0.4258
6.545e+09  0.9195  0.2336  0.02673  -0.01247  0.03985  0.01353  0.7095  0.1645
6.546e+09  0.9907  -0.1612  0.02552  0.04223  0.0189  -0.008653  0.7594  -0.0712
6.548e+09  0.7967  -0.4344  0.01268  -0.006951  -0.005697  0.02628  0.6145  -0.3799
6.549e+09  0.6102  -0.7399  0.03074  -0.01537  0.008901  -0.001049  0.4952  -0.5449
6.55e+09  0.3651  -0.9081  -0.00854  0.0177  0.02285  0.007483  0.2665  -0.7026
