# Hz S RI R 50
6.25e+09  -0.7893  -0.007831  -0.01082  -0.02497  -0.01415  0.05926  0.155  0.453
6.251e+09  -0.8005  0.2991  -0.02265  -0.009971  -0.00194  -0.007934  0.3678  0.3933
6.252e+09  -0.6309  0.5089  0.006621  0.0008384  0.01922  0.004253  0.5538  0.2696
6.254e+09  -0.4324  0.6978  -0.01451  -0.02806  -0.01692  -0.003056  0.609  0.004993
6.255e+09  -0.1156  0.8584  -0.02201  -0.003629  0.07187  0.005042  0.603  -0.2649
6.256e+09  0.1395  0.8391  -0.01487  0.005651  -0.03758  0.00721  0.4609  -0.4305
6.258e+09  0.4003  0.6588  -0.003983  -0.01281  -0.01325  -0.01676  0.2439  -0.6302
6.259e+09  0.5914  0.5127  -0.006832  0.02443  0.05533  0.06587  0.08146  -0.673
6.26e+09  0.7701  0.286  0.02653  -0.002855  -0.02182  0.04418  -0.2002  -0.6637
6.261e+09  0.8609  -0.02173  0.01255  0.01167  -0.02274  0.01797  -0.4646  -0.5485
6.262e+09  0.7602  -0.3213  0.0142  0.0242  -0.01233  0.00867  -0.6564  -0.3628
6.264e+09  0.5808  -0.541  -0.001189  -0.0203  -0.01864  0.05039  -0.6938  -0.1027
6.265e+09  0.3864  -0.6834  -0.0235  -0.01097  -0.01142  0.0464  -0.7413  0.1389
6.266e+09  0.06989  -0.8312  -0.007877  0.009546  0.01471  0.006456  -0.5935  0.4141
6.268e+09  -0.1627  -0.8135  0.005978  0.005173  0.05654  -0.02505  -0.4282  0.5706
6.269e+09  -0.4064  -0.677  -0.01194  0.02822  0.00457  0.04884  -0.1999  0.7227
6.27e+09  -0.665  -0.4883  0.03427  0.02851  -0.02734  -0.04773  0.1218  0.749
6.271e+09  -0.8014  -0.2294  0.01093  -0.006057  0.06982  0.04708  0.3204  0.6339
6.272e+09  -0.822  0.06619  -0.02446  -0.02008  -0.01302  0.01121  0.5277  0.482
6.274e+09  -0.6707  0.3189  0.01132  0.01895  -0.1022  0.009928  0.7038  0.2703
6.275e+09  -0.5958  0.5185  -0.008315  0.0122  0.0335  0.04177  0.7799  0.03938
6.276e+09  -0.3545  0.6851  -0.006845  -0.02282  0.0091  0.009778  0.7377  -0.224
6.278e+09  -0.1612  0.8181  0.02546  -0.00327  -0.03647  0.02835  0.5812  -0.4589
6.279e+09  0.1913  0.7625  0.003906  0.006972  -0.0004189  -0.02848  0.4164  -0.6759
6.28e+09  0.4127  0.7132  -0.00934  0.01686  -0.01194  0.01248  0.1473  -0.7416
6.281e+09  0.727  0.5001  0.0004808  -0.02363  -0.02538  -0.05889  -0.1516  -0.7841
6.282e+09  0.8095  0.1913  -0.03528  -0.02998  0.04763  -0.0224  -0.3748  -0.6802
6.284e+09  0.8853  -0.1043  0.03187  -0.02871  -0.02101  0.04454  -0.6171  -0.4955
6.285e+09  0.7632  -0.3579  -0.02355  0.001217  -0.008287  0.07494  -0.7087  -0.2789
6.286e+09  0.6293  -0.5575  -0.003092  0.01336  0.02745  -0.06976  -0.7974  -0.01719
6.288e+09  0.3418  -0.7758  -0.01338  -0.000552  0.06036  0.02956  -0.7983  0.2347
6.289e+09  0.05107  -0.8583  -0.01093  0.01421  0.008023  0.05283  -0.6409  0.512
6.29e+09  -0.2157  -0.7502  0.008384  0.05813  0.0101  -0.06708  -0.4025  0.6776
6.291e+09  -0.5311  -0.6714  -0.03434  -0.01721  -0.06974  0.04089  -0.1686  0.8065
6.292e+09  -0.688  -0.4352  -0.006868  -0.05601  0.0189  0.03177  0.1142  0.8251
6.294e+09  -0.7858  -0.2257  0.005204  -0.018  -0.006948  0.01125  0.3723  0.7326
6.295e+09  -0.7839  0.05757  0.007173  0.004578  0.004382  -0.02184  0.6294  0.5554
6.296e+09  -0.7537  0.3851  -0.004881  -0.009942  -0.03877  0.01608  0.7751  0.2879
6.298e+09  -0.5158  0.5465  0.0275  -0.003945  1.058e-05  0.03089  0.846  0.009891
6.299e+09  -0.2947  0.7154  -0.00867  0.01279  -0.05088  -0.03583  0.7868  -0.2927
6.3e+09  -0.09244  0.779  -0.02242  0.01022  0.0026  0.02886  0.6422  -0.5515
6.301e+09  0.2776  0.7873  0.03289  0.01992  0.03507  -0.01546  0.4176  -0.7195
6.302e+09  0.5396  0.6796  -0.014  -0.00165  -0.03696  0.0008316  0.1592  -0.8384
6.304e+09  0.7055  0.387  0.01907  -0.02134  0.0213  0.01487  -0.1411  -0.8401
6.305e+09  0.8038  0.1532  -0.008118  7.103e-05  0.004597  0.01262  -0.4335  -0.7465
6.306e+09  0.8493  -0.1422  -0.0361  -0.01525  -0.02737  0.02647  -0.6407  -0.5811
6.308e+09  0.7514  -0.3459  -0.01649  0.01572  -0.009444  0.01309  -0.8253  -0.3043
6.309e+09  0.5332  -0.5995  -0.004498  0.02738  0.04496  -0.04408  -0.8856  -0.000508
6.31e+09  0.2504  -0.8014  0.003354  0.02845  -0.01777  -0.01513  -0.8117  0.3033
6.311e+09  0.02407  -0.8287  0.01874  0.02543  0.03648  -0.03414  -0.6771  0.5766
6.312e+09  -0.2666  -0.7694  -0.003682  -0.01516  -0.03179  0.0021  -0.4175  0.7344
6.314e+09  -0.4998  -0.6401  0.01245  -0.003801  0.02967  0.02039  -0.1469  0.8477
6.315e+09  -0.6823  -0.4159  0.005785  0.006838  -0.006667  0.02606  0.1554  0.8599
6.316e+09  -0.7958  -0.1001  0.0004099  -0.003093  -0.02608  0.00912  0.4353  0.767
6.318e+09  -0.7723  0.1904  0.01164  -0.004368  0.07666  0.005625  0.667  0.5812
6.319e+09  -0.6855  0.3914  0.005947  0.001059  0.00692  -0.007282  0.8388  0.2814
6.32e+09  -0.4939  0.6643  -0.0008965  -0.02866  -0.01913  -0.01122  0.9148  0.05636
6.321e+09  -0.2478  0.7797  0.01981  -0.01851  0.04559  -0.01714  0.8479  -0.2859
6.322e+09  0.03922  0.8401  0.009331  -0.0006553  -0.02247  -0.01046  0.6604  -0.5287
6.324e+09  0.3037  0.7663  -0.004201  -0.001867  -0.02505  0.001604  0.444  -0.7523
6.325e+09  0.5283  0.6079  -0.003899  0.01319  -0.00764  0.03603  0.1931  -0.8535
6.326e+09  0.7145  0.3698  -0.009012  0.01037  0.01785  0.01724  -0.1618  -0.8505
6.328e+09  0.8103  0.08431  -0.0112  0.01184  0.04809  -0.02643  -0.4317  -0.8092
6.329e+09  0.8124  -0.2727  0.01529  -0.01141  0.006053  0.006482  -0.7017  -0.6007
6.33e+09  0.672  -0.4718  -0.003844  -0.01143  0.01348  -0.036  -0.849  -0.3515
6.331e+09  0.5033  -0.7196  -0.009895  -0.01232  -0.003026  -0.01084  -0.8798  -0.02203
6.332e+09  0.185  -0.855  -0.00265  0.01892  0.001428  0.03427  -0.8663  0.2643
6.334e+09  -0.09168  -0.7989  -0.03592  -0.01733  -0.0476  0.02083  -0.7201  0.6056
6.335e+09  -0.4168  -0.782  -0.01605  0.006165  0.02989  0.01725  -0.494  0.7815
6.336e+09  -0.6702  -0.5319  0.05308  -0.008787  -0.01158  -0.01109  -0.1865  0.9278
6.338e+09  -0.7934  -0.3194  0.01106  0.01405  0.006065  0.004907  0.1223  0.9105
6.339e+09  -0.8419  -0.02158  0.006671  0.03206  0.005543  -0.03105  0.4204  0.8239
6.34e+09  -0.8275  0.2742  0.001834  -0.002452  -0.02496  -0.008493  0.6323  0.6047
6.341e+09  -0.6547  0.5609  -0.01497  -0.02476  -0.007507  0.02344  0.8699  0.3443
6.342e+09  -0.4482  0.756  -0.01151  -0.001586  -0.02465  -0.05572  0.9534  0.05198
6.344e+09  -0.1458  0.8182  0.0001439  0.01861  -0.005489  -0.03325  0.8984  -0.2783
6.345e+09  0.1819  0.864  -0.008387  0.01035  0.008662  -0.001401  0.7591  -0.5404
6.346e+09  0.4759  0.697  -0.003013  0.02568  -0.00588  0.008535  0.5454  -0.7929
6.348e+09  0.6579  0.4726  0.01133  -0.0287  -0.00721  -0.03819  0.2119  -0.9205
6.349e+09  0.8546  0.259  0.01209  0.007308  0.05552  -0.002682  -0.09704  -0.9203
6.35e+09  0.8263  -0.05659  0.00865  -0.02262  0.009259  0.001423  -0.3966  -0.7772
6.351e+09  0.8336  -0.3322  -4.339e-05  0.01776  0.04451  -0.01018  -0.648  -0.6417
6.352e+09  0.6457  -0.6132  0.00627  -0.01949  -0.03447  0.01508  -0.839  -0.3857
6.354e+09  0.3325  -0.8311  0.01679  -0.01301  -0.01206  0.01572  -0.927  -0.06701
6.355e+09  0.06334  -0.8832  0.02267  -0.005195  0.01932  0.05418  -0.8868  0.2664
6.356e+09  -0.2686  -0.8392  -0.00139  0.008239  0.02765  -0.01347  -0.7679  0.5587
6.358e+09  -0.5525  -0.6949  -0.04355  0.01769  -0.01766  -0.0358  -0.5099  0.7804
6.359e+09  -0.6905  -0.4986  -0.01439  0.02862  0.004113  0.009398  -0.2484  0.9135
6.36e+09  -0.8832  -0.1738  -0.02392  0.002483  -0.0349  0.03975  0.09115  0.9648
6.361e+09  -0.8845  0.1358  0.02506  -0.0003087  -0.01824  0.01073  0.4356  0.8493
6.362e+09  -0.7651  0.4646  0.01141  0.0169  -0.04008  0.0192  0.6572  0.6625
6.364e+09  -0.5163  0.6773  0.02859  -0.01178  0.0126  0.0123  0.8868  0.3718
6.365e+09  -0.2761  0.8075  -0.009359  0.01055  -0.02339  0.04391  0.9688  0.06617
6.366e+09  0.0444  0.8681  0.06445  -0.01177  -0.0007902  0.03473  0.9229  -0.2503
6.368e+09  0.3087  0.8171  -0.01531  -0.02185  -0.0008415  -0.00157  0.796  -0.5572
6.369e+09  0.5891  0.6334  0.01846  -0.03035  -0.0185  0.007919  0.5227  -0.7709
6.37e+09  0.7628  0.442  0.01369  0.009245  0.005618  0.01415  0.2276  -0.9016
6.371e+09  0.8768  0.1201  0.007986  0.004365  -0.001559  -0.006386  -0.08382  -0.8853
6.372e+09  0.8797  -0.2012  -0.0162  -0.02436  0.02454  -0.0474  -0.3949  -0.8375
6.374e+09  0.7403  -0.4893  0.006967  -8.361e-05  0.01154  -0.007129  -0.6553  -0.6466
6.375e+09  0.5112  -0.7583  -0.02127  0.0281  0.002204  -0.03747  -0.8562  -0.3962
6.376e+09  0.2093  -0.8343  0.01441  0.01009  -0.0203  -0.01205  -0.9582  -0.1032
6.378e+09  -0.1496  -0.8812  0.007627  -0.002665  0.001423  -0.007608  -0.9621  0.2525
6.379e+09  -0.3962  -0.7344  -0.009663  0.008411  -0.01628  -0.0221  -0.7952  0.5197
6.38e+09  -0.6554  -0.5626  -0.01096  -0.002792  -0.02698  0.01838  -0.5844  0.7399
6.381e+09  -0.7988  -0.3545  -0.007173  0.04903  -0.003711  0.01182  -0.2813  0.863
6.382e+09  -0.8748  -0.03314  0.02134  0.006027  0.02605  -0.01337  0.0785  0.9117
6.384e+09  -0.8699  0.3078  -0.02448  -0.003021  0.001244  0.02581  0.3486  0.8293
6.385e+09  -0.6444  0.6008  -0.02396  0.02595  -0.002123  0.05438  0.6346  0.6855
6.386e+09  -0.4345  0.7561  0.003449  0.04809  -0.01832  0.02809  0.8176  0.3967
6.388e+09  -0.1281  0.8959  -0.01032  0.04086  -0.01596  -0.04647  0.937  0.1503
6.389e+09  0.1288  0.8259  0.035  0.006018  0.03932  0.05962  0.903  -0.2369
6.39e+09  0.5082  0.7313  -0.008854  0.008945  -0.008384  -0.0341  0.7734  -0.4944
6.391e+09  0.6995  0.5411  -0.009394  -0.01916  -0.01963  0.01102  0.5633  -0.7399
6.392e+09  0.8265  0.2638  0.02892  0.0365  0.01028  0.009895  0.3228  -0.9174
6.394e+09  0.849  -0.02973  0.03326  0.05046  0.01803  0.002816  -0.02985  -0.971
6.395e+09  0.8259  -0.3921  0.006822  -0.00592  0.01007  0.004751  -0.3079  -0.8636
6.396e+09  0.6095  -0.6034  0.01833  -0.02377  -0.001169  0.02922  -0.6169  -0.6513
6.398e+09  0.3708  -0.7721  0.01687  -0.003002  0.03212  -0.001695  -0.7818  -0.4221
6.399e+09  0.05152  -0.9538  -0.003497  -0.04633  0.01631  0.01137  -0.9173  -0.1437
6.4e+09  -0.2695  -0.8439  -0.01727  0.04249  0.002867  -0.01206  -0.8773  0.1796
6.401e+09  -0.5069  -0.7135  0.00533  -0.01478  -0.005414  0.02756  -0.7762  0.4588
6.402e+09  -0.7213  -0.4532  0.02508  0.01542  -0.03158  0.01717  -0.598  0.7405
6.404e+09  -0.8759  -0.2049  0.01838  0.06374  0.07894  -0.04101  -0.262  0.9068
6.405e+09  -0.8944  0.1582  0.01266  0.02117  0.05365  -0.02512  0.03498  0.9336
6.406e+09  -0.7522  0.4135  0.008931  0.007159  -0.03964  -0.03417  0.2941  0.8585
6.408e+09  -0.5487  0.6334  0.04476  -0.03988  -0.01265  -0.02947  0.5823  0.6998
6.409e+09  -0.3247  0.7799  0.0002614  -0.00841  0.03176  0.03437  0.7966  0.4759
6.41e+09  -0.0041  0.8498  0.03268  -0.03829  -0.01245  -0.04115  0.9152  0.1458
6.411e+09  0.256  0.8448  0.01444  0.03119  -0.0213  -0.0009162  0.8646  -0.2062
6.412e+09  0.5923  0.7124  -0.01827  0.01908  0.04713  0.06115  0.7834  -0.4363
6.414e+09  0.7588  0.4219  -0.003448  0.01204  -0.02174  -0.04967  0.613  -0.6926
6.415e+09  0.8618  0.1067  0.02426  0.006269  0.03872  0.0004004  0.3792  -0.7964
6.416e+09  0.8252  -0.1882  -0.03427  -0.009579  0.0367  -0.0159  0.05218  -0.8931
6.418e+09  0.6999  -0.4211  -0.003566  0.02266  0.001806  0.04061  -0.3019  -0.8196
6.419e+09  0.5526  -0.7121  -0.006976  0.01763  -0.009807  0.0728  -0.5964  -0.6858
6.42e+09  0.2319  -0.8322  0.009661  0.02463  -0.003014  -0.02143  -0.7351  -0.4922
6.421e+09  -0.03657  -0.9339  0.008925  -0.04072  -0.00114  0.02039  -0.8555  -0.1751
6.422e+09  -0.2988  -0.8192  -0.0132  0.01974  -0.01055  -0.02912  -0.8474  0.1172
6.424e+09  -0.6238  -0.6197  0.02546  0.01976  -0.01343  0.03564  -0.7921  0.3795
6.425e+09  -0.7839  -0.3433  0.005863  -0.0212  0.04367  0.005367  -0.5457  0.6573
6.426e+09  -0.8648  -0.1038  -0.01405  0.01001  -0.02069  0.03209  -0.3571  0.8488
6.428e+09  -0.8345  0.2397  -0.01617  -0.01815  0.01624  0.008846  -0.05887  0.9173
6.429e+09  -0.717  0.5044  -0.02211  -0.05082  0.0053  0.001752  0.2351  0.8625
6.43e+09  -0.5313  0.687  -0.01422  -0.01767  0.02446  -0.04053  0.5549  0.7098
6.431e+09  -0.2258  0.8873  0.0132  -0.03926  -0.03351  -0.0196  0.7446  0.4652
6.432e+09  0.04747  0.8739  0.02178  0.05078  0.05234  0.01189  0.8532  0.1751
6.434e+09  0.3318  0.8124  -0.02862  -0.000289  -0.01518  -0.02919  0.9037  -0.1109
6.435e+09  0.5866  0.5793  -0.01777  0.02683  0.03404  -0.007103  0.756  -0.3721
6.436e+09  0.8231  0.338  -0.001619  -0.00237  -0.004357  0.01887  0.6018  -0.6665
6.438e+09  0.8486  0.03961  -0.02055  -0.002202  0.01255  0.0008323  0.3202  -0.7772
6.439e+09  0.808  -0.21  0.02056  -0.02725  0.02939  0.001337  0.04887  -0.845
6.44e+09  0.6713  -0.4745  -0.006676  0.006332  0.02597  0.01968  -0.1761  -0.8248
6.441e+09  0.4613  -0.7172  -0.000187  0.007328  -0.02209  -0.01409  -0.5066  -0.6874
6.442e+09  0.1434  -0.8801  -0.01763  0.02796  0.02957  -0.008929  -0.6941  -0.4968
6.444e+09  -0.1308  -0.8449  0.02543  -0.03112  -0.01962  -0.02021  -0.8323  -0.1946
6.445e+09  -0.4418  -0.7946  -0.03618  0.01127  0.005012  0.02936  -0.8412  0.07274
6.446e+09  -0.6062  -0.5835  0.03747  -0.01069  0.004228  -0.009837  -0.7818  0.3784
6.448e+09  -0.7902  -0.2807  -0.00226  0.004006  -0.00292  -0.06339  -0.5526  0.5944
6.449e+09  -0.8497  -0.05261  0.007442  0.02234  0.007983  0.0141  -0.3351  0.774
6.45e+09  -0.8189  0.2758  0.001504  -0.03136  0.001854  0.005843  -0.04752  0.8669
6.451e+09  -0.6831  0.5808  -0.05854  0.01821  0.001576  0.01323  0.2217  0.8162
6.452e+09  -0.4414  0.7712  0.04202  0.05089  -0.02155  -0.0201  0.4504  0.6833
6.454e+09  -0.1267  0.8333  -0.02019  0.04671  0.04345  0.01152  0.6904  0.4432
6.455e+09  0.1461  0.8628  -0.03682  -0.003365  0.03753  0.02736  0.7893  0.1923
6.456e+09  0.3769  0.7196  -0.03742  -0.01439  0.04979  0.006782  0.8244  -0.09682
6.458e+09  0.62  0.5777  0.004246  -0.04348  0.02674  0.004091  0.6806  -0.3777
6.459e+09  0.8007  0.2979  0.06069  0.02954  -0.04774  -0.03271  0.546  -0.626
6.46e+09  0.8568  -0.0004415  0.008145  0.01988  -0.0005102  -0.01024  0.3515  -0.7586
6.461e+09  0.8227  -0.3095  -0.03302  -0.004234  0.03617  0.01061  0.03525  -0.8167
6.462e+09  0.6542  -0.5631  -0.01446  0.04758  -0.02894  0.004085  -0.217  -0.7949
6.464e+09  0.4037  -0.7099  -0.02921  -0.01427  0.007815  0.02295  -0.4865  -0.676
6.465e+09  0.1616  -0.8486  -0.01921  -0.02001  -0.01354  0.004295  -0.6778  -0.4853
6.466e+09  -0.1219  -0.8355  -0.008261  -0.009748  -0.0006645  0.007329  -0.7797  -0.2282
6.468e+09  -0.4412  -0.7597  0.01916  0.002246  0.0309  0.08524  -0.7833  0.08281
6.469e+09  -0.6393  -0.5443  -0.005514  0.002161  0.01046  -0.002878  -0.7197  0.3764
6.47e+09  -0.7503  -0.2438  0.02065  -0.03135  -0.01629  0.008062  -0.602  0.5463
6.471e+09  -0.8271  0.05923  -0.06804  -0.01425  0.0162  0.01778  -0.3007  0.7195
6.472e+09  -0.8236  0.2684  -0.02358  0.01582  -0.01188  0.004544  -0.1073  0.8034
6.474e+09  -0.6715  0.6004  -0.01317  0.01624  -0.03574  0.0009472  0.1954  0.7088
6.475e+09  -0.4434  0.7895  -0.01308  -0.0428  -0.05126  -0.02478  0.4194  0.6401
6.476e+09  -0.09307  0.8522  -0.04064  0.006838  -0.05226  -0.05432  0.6209  0.4165
6.478e+09  0.189  0.8498  0.03595  0.05857  -0.005491  0.01191  0.7354  0.2241
6.479e+09  0.4713  0.6997  0.007612  0.02526  -0.001486  -0.02081  0.7848  -0.0928
6.48e+09  0.6865  0.4912  0.02461  0.02199  0.04108  0.007773  0.6772  -0.3598
6.481e+09  0.7783  0.2805  0.0165  -0.0143  0.000743  -0.03556  0.5174  -0.6022
6.482e+09  0.9019  -0.0003765  -0.03359  0.01964  -0.02967  0.03212  0.3007  -0.7275
6.484e+09  0.797  -0.3149  0.01298  -0.006311  -0.001903  -0.02381  0.08136  -0.7603
6.485e+09  0.6267  -0.5696  -0.02199  0.02024  -0.01149  -0.03408  -0.225  -0.7681
6.486e+09  0.3896  -0.7173  -0.02768  0.02762  0.01992  -0.03008  -0.4503  -0.6155
6.488e+09  0.1489  -0.884  0.01035  -0.004843  0.008593  0.04032  -0.6562  -0.4741
6.489e+09  -0.1473  -0.8623  -0.01884  0.001493  0.02451  -0.05817  -0.7477  -0.1515
6.49e+09  -0.4882  -0.7534  0.005063  -0.03147  -0.03401  -0.009217  -0.7485  0.07814
6.491e+09  -0.6991  -0.4702  0.005526  -0.02026  -0.02771  0.00791  -0.7201  0.3576
6.492e+09  -0.8593  -0.2927  0.0304  0.0141  -0.005969  -0.01545  -0.5144  0.5954
6.494e+09  -0.8497  0.08127  -0.01188  0.0171  -0.02814  0.004211  -0.3056  0.6899
6.495e+09  -0.7981  0.312  -0.005676  0.00776  0.05738  -0.004088  -0.07285  0.7944
6.496e+09  -0.6534  0.5848  0.0251  0.01668  0.0157  -0.02237  0.2287  0.7185
6.498e+09  -0.3956  0.757  -0.01888  0.00657  -0.002478  0.009513  0.4473  0.6329
6.499e+09  -0.1169  0.8586  0.01472  0.002883  -0.05353  0.04388  0.6294  0.4485
6.5e+09  0.2075  0.8349  -0.01859  0.01107  0.01877  0.04215  0.7605  0.1866
6.501e+09  0.5192  0.702  -0.002182  -0.005771  -0.002218  0.00453  0.7526  -0.1009
6.502e+09  0.7283  0.4742  0.02302  0.0008868  0.02912  -0.0001645  0.6689  -0.3874
6.504e+09  0.8613  0.2532  0.009934  0.01331  0.02121  0.01388  0.4827  -0.5329
6.505e+09  0.8761  -0.02446  0.02344  0.02069  0.007815  0.0405  0.2663  -0.7307
6.506e+09  0.8385  -0.3004  -0.001032  0.008798  -0.0003026  -0.006586  0.003608  -0.7514
6.508e+09  0.6064  -0.6767  -0.009982  -0.03515  0.02514  0.0008224  -0.2848  -0.7094
6.509e+09  0.3964  -0.79  -0.04976  0.005033  0.02619  0.007569  -0.5189  -0.6141
6.51e+09  0.1037  -0.9177  -0.03314  0.02647  0.04362  0.01385  -0.6112  -0.3688
6.511e+09  -0.2587  -0.9053  0.02036  -0.01083  0.02521  0.005453  -0.7523  -0.1216
6.512e+09  -0.4786  -0.7215  -0.01201  0.0305  -0.01616  -0.00137  -0.7603  0.167
6.514e+09  -0.7736  -0.4941  0.00111  -0.03415  -0.005555  0.00509  -0.6391  0.3655
6.515e+09  -0.8735  -0.2947  -0.01321  0.02221  -0.04609  -0.005253  -0.5084  0.6051
6.516e+09  -0.9045  0.07546  0.02652  0.01583  0.04619  -0.003029  -0.2514  0.7254
6.518e+09  -0.7929  0.4022  -0.009574  0.0002709  0.003396  0.04996  0.04985  0.771
6.519e+09  -0.6558  0.729  0.007224  -0.01615  -0.00803  -0.007436  0.2999  0.682
6.52e+09  -0.3407  0.8501  -0.003979  -0.01807  0.03023  0.01583  0.4777  0.5534
6.521e+09  -0.01078  0.961  0.02366  0.0003719  0.009094  -0.03543  0.652  0.3593
6.522e+09  0.2444  0.8414  0.006563  0.0126  -0.01198  0.07258  0.7347  0.1042
6.524e+09  0.5608  0.7163  -0.01208  0.02166  -0.005644  0.0008978  0.7163  -0.1633
6.525e+09  0.8064  0.5485  0.005331  -0.0278  0.01912  0.03047  0.5892  -0.393
6.526e+09  0.9204  0.178  0.01683  0.01026  -0.003762  -0.001127  0.4098  -0.5653
6.528e+09  0.8997  -0.1107  0.009708  -0.004211  -0.02008  -0.01166  0.1953  -0.7163
6.529e+09  0.8998  -0.4411  0.02404  -0.009636  0.01133  -0.02229  -0.06203  -0.7041
6.53e+09  0.5948  -0.7567  -0.00693  0.04347  0.06809  0.032  -0.3121  -0.625
6.531e+09  0.3239  -0.8824  0.03777  0.01689  -0.00566  0.05257  -0.4796  -0.4829
6.532e+09  0.004372  -0.9531  -0.00614  0.01913  -0.03629  0.03698  -0.5731  -0.3093
6.534e+09  -0.3432  -0.9042  0.0186  -0.01695  -0.02832  0.04966  -0.639  -0.09841
6.535e+09  -0.5952  -0.7269  0.01789  -0.0008491  -0.006329  0.05122  -0.6269  0.1069
6.536e+09  -0.8339  -0.4594  -0.002756  -0.03857  0.01853  -0.04671  -0.5641  0.3077
6.538e+09  -0.9926  -0.1032  -0.01588  -0.02743  0.03252  0.01965  -0.4794  0.4732
6.539e+09  -0.9534  0.2434  -0.005357  -0.004226  0.02026  0.01167  -0.2846  0.5952
6.54e+09  -0.8455  0.4663  0.003245  0.01008  0.01106  -0.04096  -0.02766  0.676
6.541e+09  -0.5509  0.7472  0.0212  0.03296  -0.02475  -0.01709  0.1759  0.6824
6.542e+09  -0.2586  0.8997  0.004237  0.00521  -0.02601  -0.03648  0.4293  0.5831
6.544e+09  0.03543  0.9257  -0.01279  -0.001236  -0.00408  -0.004077  0.6163  0.3515
6.545e+09  0.3841  0.8777  -0.003646  -0.004616  0.01489  -0.03193  0.6738  0.1709
6.546e+09  0.6252  0.7072  -0.01366  0.02424  -0.0328  0.01187  0.7176  -0.07244
6.548e+09  0.8726  0.3854  -0.02728  0.01209  0.02364  -0.02972  0.6516  -0.2952
6.549e+09  1.005  0.08332  -0.00452  -0.003387  0.03354  0.0548  0.49  -0.5132
6.55e+09  0.908  -0.2796  0.02772  -0.03616  -0.02692  0.003895  0.2857  -0.6872
