# Hz S RI R 50
6.25e+09  0.06202  0.8705  -0.01313  0.005925  -0.01346  -0.009796  0.139  0.5103
6.251e+09  0.3978  0.7913  0.0132  0.004944  -0.03735  0.00319  0.3487  0.3898
6.252e+09  0.5755  0.5721  -0.03826  0.03726  -0.02044  -0.01166  0.5452  0.2264
6.254e+09  0.8176  0.4687  -0.001405  0.01669  0.04763  -0.04616  0.5812  0.03395
6.255e+09  0.9238  0.08512  -0.001328  -0.04754  0.005138  -0.01984  0.6211  -0.2153
6.256e+09  0.877  -0.1288  -0.008766  -0.0005236  -0.02345  0.01182  0.4833  -0.4388
6.258e+09  0.7193  -0.4668  0.0172  0.02108  0.005674  -0.01516  0.2842  -0.5886
6.259e+09  0.4815  -0.6983  -0.001662  -0.01084  -0.001073  -0.03215  0.06802  -0.6845
6.26e+09  0.2052  -0.775  -0.04148  0.005872  -0.0318  0.03278  -0.2161  -0.6756
6.261e+09  -0.06527  -0.8099  -0.01332  0.03328  -0.02369  0.008065  -0.452  -0.5652
6.262e+09  -0.3345  -0.8015  -0.01373  0.02039  0.02786  0.01918  -0.6074  -0.3276
6.264e+09  -0.5869  -0.6576  -0.004454  -0.02885  0.04786  -0.05435  -0.6758  -0.1358
6.265e+09  -0.7298  -0.353  -0.01639  -0.03138  -0.03249  -0.01293  -0.7108  0.1469
6.266e+09  -0.8356  -0.00218  -0.003588  0.005031  -0.00903  0.008235  -0.6146  0.3587
6.268e+09  -0.8015  0.1924  -0.01571  -0.003114  0.00961  0.0009792  -0.4428  0.5977
6.269e+09  -0.6871  0.4743  -0.0139  -0.008907  -0.07954  0.02159  -0.1936  0.7178
6.27e+09  -0.4677  0.7373  -0.03392  0.0008725  -0.03608  -0.008777  0.05981  0.7259
6.271e+09  -0.1882  0.8386  0.03829  -0.01441  -0.00479  0.01215  0.2997  0.6959
6.272e+09  0.07971  0.8771  0.0168  0.02038  0.004773  5.602e-05  0.5224  0.546
6.274e+09  0.3673  0.775  -0.02141  -0.008201  0.02695  0.006719  0.7214  0.3104
6.275e+09  0.5802  0.5929  0.01763  0.01516  0.005695  0.04501  0.7439  0.06069
6.276e+09  0.7757  0.3056  -0.0133  0.0143  0.05281  -0.001665  0.7712  -0.2572
6.278e+09  0.8233  0.02891  0.03729  0.004112  0.04661  0.01901  0.6034  -0.4746
6.279e+09  0.8045  -0.2246  -0.0002539  0.02703  -0.004375  0.03373  0.4352  -0.6596
6.28e+09  0.6651  -0.49  -0.03112  -0.0352  0.02051  -0.01977  0.141  -0.743
6.281e+09  0.4697  -0.7596  -0.0161  -0.0157  -0.04806  0.0002102  -0.1325  -0.8111
6.282e+09  0.1863  -0.8469  0.0004787  0.0274  0.01356  0.009324  -0.3826  -0.6816
6.284e+09  -0.09741  -0.8231  0.02116  -0.002152  -0.003647  0.04929  -0.5661  -0.5027
6.285e+09  -0.4248  -0.7028  0.02855  0.01616  -0.0117  0.01674  -0.729  -0.2755
6.286e+09  -0.6024  -0.5803  0.01102  -0.004134  0.005368  0.0001984  -0.7886  -0.04227
6.288e+09  -0.7432  -0.2626  0.01578  0.004756  -0.008887  0.05762  -0.7375  0.2841
6.289e+09  -0.873  0.01934  -0.001462  0.004655  -0.01812  0.03953  -0.6416  0.5439
6.29e+09  -0.8164  0.284  0.008606  0.01529  -0.02306  0.005019  -0.4069  0.682
6.291e+09  -0.6618  0.5247  0.01131  0.006552  -0.03548  -0.02229  -0.1706  0.8009
6.292e+09  -0.3978  0.7045  0.04393  -0.01219  0.02176  0.001178  0.1409  0.8179
6.294e+09  -0.187  0.8359  0.006117  0.004558  -0.003907  0.06456  0.3948  0.7089
6.295e+09  0.2053  0.7824  0.02566  0.003155  0.02098  -0.05981  0.6279  0.5309
6.296e+09  0.4229  0.695  0.003849  0.02506  0.02342  0.02478  0.7639  0.3058
6.298e+09  0.6847  0.5338  0.008442  0.003014  0.01547  0.01431  0.8036  0.02456
6.299e+09  0.8369  0.2495  0.01733  -0.00808  -0.04421  -0.02731  0.7738  -0.2981
6.3e+09  0.838  -0.01594  -0.001667  -0.02768  0.03775  0.0087  0.6609  -0.536
6.301e+09  0.802  -0.3121  -0.01713  0.03626  -0.03021  -0.01634  0.4259  -0.7181
6.302e+09  0.6012  -0.5757  -0.004144  0.01465  0.01742  -0.007339  0.1514  -0.8363
6.304e+09  0.3569  -0.734  -0.008701  -0.01165  0.007166  0.02154  -0.146  -0.8396
6.305e+09  0.06999  -0.8929  0.02391  0.0125  0.01851  -0.0005192  -0.4227  -0.7582
6.306e+09  -0.2404  -0.8075  -0.02397  -0.01019  0.02786  0.03324  -0.6423  -0.5361
6.308e+09  -0.4683  -0.7098  -0.008159  -0.002221  -0.06604  -0.03468  -0.8036  -0.301
6.309e+09  -0.7285  -0.459  -0.03086  0.03066  0.01667  -0.008048  -0.8823  -0.03268
6.31e+09  -0.862  -0.1881  -0.01574  0.002588  -0.01968  -0.001054  -0.8137  0.2854
6.311e+09  -0.8416  0.1251  0.004001  0.01033  -0.01836  -0.03722  -0.6339  0.5656
6.312e+09  -0.7768  0.4166  -0.02035  -0.02907  -0.005814  0.02297  -0.4372  0.7535
6.314e+09  -0.5443  0.6535  0.004224  0.02132  -0.03439  0.00821  -0.1178  0.8666
6.315e+09  -0.2883  0.8194  0.02475  -0.00558  0.03412  -0.002934  0.1213  0.8716
6.316e+09  -0.005726  0.8413  0.009852  0.02503  -0.01088  0.009896  0.4647  0.7558
6.318e+09  0.2506  0.8234  0.01435  0.001056  0.00405  0.04187  0.6536  0.6138
6.319e+09  0.5911  0.6624  0.01108  -0.001414  -0.05663  -0.008454  0.838  0.3176
6.32e+09  0.7619  0.4528  -0.01037  -0.02488  -0.01515  0.01705  0.8679  0.02241
6.321e+09  0.9113  0.1496  0.01113  0.003252  -0.04017  0.002695  0.8501  -0.2981
6.322e+09  0.8378  -0.1303  0.01228  0.008409  0.02184  -0.01655  0.6702  -0.5646
6.324e+09  0.7551  -0.4368  -0.009449  0.03347  -0.01685  0.02353  0.459  -0.7792
6.325e+09  0.5463  -0.6806  -0.0241  -0.002246  0.01094  -0.05192  0.1953  -0.8691
6.326e+09  0.2655  -0.8192  -0.008176  0.001915  -0.04611  0.0261  -0.1339  -0.8753
6.328e+09  -0.02381  -0.877  -0.02298  0.02201  -0.01642  -0.03364  -0.4664  -0.7849
6.329e+09  -0.2778  -0.8085  0.007626  -0.01418  -0.04292  0.004176  -0.6838  -0.6052
6.33e+09  -0.6099  -0.6584  -0.01151  -0.004395  -0.00239  -0.01723  -0.8041  -0.3535
6.331e+09  -0.7314  -0.4214  0.007105  -0.01348  -0.02094  0.02316  -0.922  -0.03058
6.332e+09  -0.9095  -0.137  -0.007181  -0.004481  0.01823  0.02925  -0.8761  0.2732
6.334e+09  -0.8459  0.202  0.02112  0.03357  0.002592  0.01102  -0.6981  0.5768
6.335e+09  -0.7102  0.5318  -0.01729  -0.04039  -0.01086  0.01625  -0.451  0.7799
6.336e+09  -0.4689  0.6713  -0.00733  0.01703  -0.03978  -0.05416  -0.183  0.8997
6.338e+09  -0.2128  0.8624  -0.02601  0.02025  0.04507  -0.03256  0.1147  0.9239
6.339e+09  0.08186  0.87  0.003181  0.008477  -0.02178  0.02639  0.4083  0.8154
6.34e+09  0.4219  0.7958  0.008322  0.007931  0.01274  -0.02807  0.6868  0.6085
6.341e+09  0.6552  0.6268  0.01056  -0.06021  0.02914  0.01087  0.872  0.3696
6.342e+09  0.7939  0.3229  0.005867  0.01839  -0.02614  0.02402  0.9436  0.07252
6.344e+09  0.9328  0.01323  0.008749  -0.001434  -0.04616  -0.01084  0.9051  -0.2676
6.345e+09  0.8189  -0.2683  0.005024  0.03031  0.008984  0.03942  0.7581  -0.6026
6.346e+09  0.6515  -0.5544  -0.03232  -0.009813  -0.02305  -0.0101  0.5177  -0.796
6.348e+09  0.4593  -0.747  -0.01575  -0.05664  -0.01562  -0.03507  0.2039  -0.8998
6.349e+09  0.173  -0.8388  0.009962  -0.02521  -0.01922  -0.04527  -0.11  -0.9346
6.35e+09  -0.1927  -0.8626  -0.002742  0.01606  0.03741  -0.004095  -0.3993  -0.8546
6.351e+09  -0.4291  -0.8145  -0.01476  0.004817  -0.02424  0.02296  -0.6903  -0.642
6.352e+09  -0.6635  -0.5526  -0.009937  0.04109  0.0004344  0.01157  -0.8969  -0.3205
6.354e+09  -0.8665  -0.3374  0.01864  -0.02559  -0.002343  -0.06734  -0.9425  -0.03357
6.355e+09  -0.8832  0.01972  0.03866  -0.01509  -0.008079  -0.003344  -0.929  0.2792
6.356e+09  -0.7974  0.2807  0.007043  0.02282  0.001649  -0.01565  -0.7749  0.5167
6.358e+09  -0.6767  0.6363  -0.002243  0.03545  0.02945  -0.0272  -0.513  0.7987
6.359e+09  -0.4246  0.7712  -0.02017  0.01202  0.01671  -0.03509  -0.2463  0.8721
6.36e+09  -0.09941  0.9138  0.02659  -0.007391  0.005474  0.005026  0.1218  0.9678
6.361e+09  0.2052  0.8753  0.02229  -0.0005173  -0.01613  0.02019  0.4237  0.877
6.362e+09  0.5107  0.7391  0.000708  0.007722  0.01659  0.003008  0.6852  0.6931
6.364e+09  0.7151  0.5564  0.0414  -0.00322  0.01649  0.03147  0.8771  0.3939
6.365e+09  0.8921  0.1945  -0.02399  -0.02167  0.01203  0.04021  0.9838  0.03759
6.366e+09  0.8862  -0.05695  0.01414  -0.05968  -0.05251  0.0487  0.9161  -0.2491
6.368e+09  0.7803  -0.3847  0.0221  -0.008438  -0.01744  -0.01756  0.791  -0.5532
6.369e+09  0.6059  -0.5935  -0.02557  0.008489  -0.01997  -0.02365  0.5171  -0.7746
6.37e+09  0.3993  -0.8048  0.01081  0.008316  -0.0177  0.009972  0.2527  -0.918
6.371e+09  0.0003263  -0.8717  -0.002921  0.02352  0.02355  0.02141  -0.07809  -0.9423
6.372e+09  -0.2598  -0.8597  -0.01357  0.01081  -0.01709  -0.006509  -0.3855  -0.8903
6.374e+09  -0.5552  -0.7201  0.02997  -0.01622  0.01456  -0.01231  -0.6913  -0.6632
6.375e+09  -0.7435  -0.496  0.03061  0.08735  -0.016  0.01762  -0.8754  -0.372
6.376e+09  -0.9354  -0.2268  -0.005088  0.02563  0.03735  -0.01053  -0.9388  -0.1118
6.378e+09  -0.8768  0.1511  0.01337  0.02417  0.02205  -0.0145  -0.8697  0.2295
6.379e+09  -0.816  0.4288  0.02971  0.02412  -0.02527  0.04925  -0.77  0.5424
6.38e+09  -0.6127  0.629  -0.0001064  -0.003584  -0.002694  0.000394  -0.5695  0.7749
6.381e+09  -0.3426  0.8598  0.02775  -0.003033  -0.02168  -0.03148  -0.2712  0.907
6.382e+09  -0.04992  0.896  0.04035  -0.008177  0.03605  0.0001708  0.05174  0.9503
6.384e+09  0.2964  0.8758  -0.001253  -0.009614  0.007864  -0.02628  0.3719  0.8531
6.385e+09  0.6085  0.668  -0.008653  -0.001467  -0.03878  0.01374  0.6482  0.6494
6.386e+09  0.7842  0.4914  -0.006378  0.02418  -0.00995  -0.01066  0.8458  0.3901
6.388e+09  0.9162  0.168  0.04296  -0.01577  -0.01148  -0.004542  0.9695  0.1204
6.389e+09  0.8789  -0.1402  -0.02093  -0.01172  0.0007498  0.01819  0.9124  -0.1876
6.39e+09  0.8144  -0.4299  -0.008859  0.02616  0.01069  -0.006444  0.7784  -0.4967
6.391e+09  0.5824  -0.6871  0.02339  0.005191  -0.008947  -0.001862  0.5281  -0.7293
6.392e+09  0.3085  -0.8046  -0.03343  0.01374  0.03752  0.04914  0.2334  -0.8415
6.394e+09  0.00183  -0.912  -0.007388  0.02193  0.02998  -0.009144  -0.03284  -0.9247
6.395e+09  -0.3454  -0.8548  0.06372  -0.004763  0.009186  -0.02357  -0.3081  -0.8549
6.396e+09  -0.5386  -0.6896  0.001977  -0.003049  0.0136  -0.01472  -0.6264  -0.7027
6.398e+09  -0.7917  -0.4274  -0.012  -0.0005671  -0.01059  0.0444  -0.8107  -0.4468
6.399e+09  -0.891  -0.07702  0.01877  0.02938  -0.02396  0.04149  -0.9516  -0.1129
6.4e+09  -0.8629  0.1678  -0.01701  0.0268  0.02173  -0.02051  -0.8681  0.1745
6.401e+09  -0.7332  0.4726  -0.03655  -0.02415  0.01847  -0.006218  -0.7781  0.4578
6.402e+09  -0.5172  0.6769  -0.01148  0.03509  0.004569  -0.02853  -0.5831  0.7092
6.404e+09  -0.302  0.7796  0.02545  -0.002333  -0.009208  -0.003091  -0.2735  0.8266
6.405e+09  0.03709  0.8435  -0.02629  0.01913  -0.02246  -0.003099  0.01189  0.9369
6.406e+09  0.3534  0.8457  0.01286  -0.002294  0.02871  -0.02428  0.2959  0.8767
6.408e+09  0.6526  0.6554  0.003991  0.008585  -0.0144  -0.01006  0.5968  0.7351
6.409e+09  0.8018  0.401  -0.009448  -0.04565  -0.02177  0.01235  0.8006  0.4277
6.41e+09  0.8838  0.1082  0.008906  0.02007  -0.04399  -0.001263  0.882  0.1687
6.411e+09  0.8566  -0.1738  -0.001209  -0.007239  0.008402  -0.000639  0.8875  -0.1533
6.412e+09  0.7344  -0.4675  0.0112  -0.02938  0.006162  -0.03234  0.7752  -0.401
6.414e+09  0.5481  -0.7319  0.01052  -0.0365  0.01221  -0.01725  0.6029  -0.6944
6.415e+09  0.2143  -0.8314  -0.02187  -0.007914  -0.02906  0.001654  0.3589  -0.8139
6.416e+09  -0.04919  -0.9203  0.0007471  -0.03966  0.01469  0.004374  0.04405  -0.871
6.418e+09  -0.3228  -0.8235  0.02451  -0.02676  -0.03523  0.0002332  -0.287  -0.8673
6.419e+09  -0.622  -0.5851  -0.004631  -0.008035  0.0192  -0.006445  -0.5509  -0.6826
6.42e+09  -0.791  -0.3587  -0.0005853  0.02859  0.01945  -0.02504  -0.7394  -0.421
6.421e+09  -0.9086  -0.0806  0.01302  -0.0399  0.01995  -0.003623  -0.8633  -0.1793
6.422e+09  -0.9117  0.2802  -0.01918  -0.02416  -0.02165  0.005268  -0.902  0.1459
6.424e+09  -0.7722  0.5333  -0.01256  -2.83e-05  0.0137  0.005886  -0.7418  0.4124
6.425e+09  -0.502  0.7959  -0.004994  0.004283  -0.02865  0.03671  -0.611  0.6461
6.426e+09  -0.2408  0.8431  0.02195  -0.008742  0.02367  0.008942  -0.3371  0.7679
6.428e+09  0.09464  0.8934  0.02558  -0.00188  0.02089  -0.04069  -0.05631  0.8604
6.429e+09  0.4336  0.7849  -0.02877  -0.009831  0.02247  0.01834  0.244  0.8517
6.43e+09  0.6959  0.5939  0.01628  -0.02085  0.009954  0.0005105  0.5283  0.7277
6.431e+09  0.8284  0.3647  -0.03151  -0.01604  0.006865  0.0329  0.7401  0.4787
6.432e+09  0.9173  0.09108  -0.01801  -0.0031  -0.0185  0.00381  0.879  0.2334
6.434e+09  0.8746  -0.2756  -0.01933  0.009067  -0.01792  0.01212  0.8354  -0.1236
6.435e+09  0.7456  -0.5886  0.0512  0.01852  -0.02096  0.01852  0.7702  -0.3668
6.436e+09  0.4648  -0.7775  0.03477  -0.006742  0.002437  -0.03717  0.65  -0.62
6.438e+09  0.1797  -0.9023  -0.001067  -0.008223  0.01189  0.01584  0.3283  -0.7802
6.439e+09  -0.1848  -0.846  -0.002526  0.01014  -0.00454  -0.01547  0.08025  -0.8049
6.44e+09  -0.4531  -0.8379  -0.01598  -0.02198  -0.002254  -0.01116  -0.2473  -0.8001
6.441e+09  -0.6892  -0.6119  0.02048  -0.02339  0.01166  0.03422  -0.5131  -0.7208
6.442e+09  -0.8562  -0.2997  0.009739  -0.02124  0.008354  0.02559  -0.7129  -0.5065
6.444e+09  -0.9116  -0.008415  -0.03758  0.01018  -0.00428  0.03408  -0.8046  -0.1783
6.445e+09  -0.848  0.2556  0.0002109  -0.03804  -0.02875  -0.005664  -0.8081  0.06295
6.446e+09  -0.6857  0.6013  0.004003  0.0219  0.004263  0.02849  -0.7649  0.3762
6.448e+09  -0.4053  0.8205  -0.0002031  -0.04964  -0.03616  -0.01497  -0.5877  0.5711
6.449e+09  -0.1563  0.9325  0.01819  -0.01785  -0.03144  0.01485  -0.3132  0.7829
6.45e+09  0.2054  0.9225  0.0342  0.001314  -0.04176  0.03641  -0.0594  0.8134
6.451e+09  0.4864  0.7971  -0.0003428  0.02578  0.008672  0.002488  0.2026  0.7725
6.452e+09  0.6684  0.5567  -0.004855  0.03924  -0.002361  0.01668  0.4418  0.6921
6.454e+09  0.8707  0.3045  0.01736  0.006997  -0.02129  -0.03861  0.6716  0.491
6.455e+09  0.9131  -0.01844  -0.003769  -0.06784  0.02615  -0.004879  0.8074  0.2181
6.456e+09  0.8345  -0.3765  -0.01314  -0.03129  0.007749  -0.02906  0.8132  -0.07803
6.458e+09  0.6855  -0.6315  0.01834  -0.006416  -0.01526  0.03244  0.7427  -0.332
6.459e+09  0.4658  -0.8071  0.01287  -0.01056  0.006626  -0.09369  0.558  -0.6002
6.46e+09  0.1242  -0.9214  0.01995  0.02351  0.001681  0.02334  0.3425  -0.7616
6.461e+09  -0.2295  -0.9498  0.01895  0.03708  0.01994  0.05555  0.04584  -0.7915
6.462e+09  -0.546  -0.7907  0.005865  0.04133  -0.009875  -0.08862  -0.2049  -0.7681
6.464e+09  -0.8319  -0.5312  -0.02383  -0.0006994  0.04096  -0.02494  -0.4214  -0.6428
6.465e+09  -0.9008  -0.1956  0.0278  -0.00478  0.02916  0.03283  -0.648  -0.4492
6.466e+09  -0.9127  0.1066  0.001203  0.01804  0.01014  0.03511  -0.7876  -0.2049
6.468e+09  -0.8489  0.4324  0.02161  0.02954  -0.01418  -0.05767  -0.8133  0.09094
6.469e+09  -0.6337  0.6949  0.04281  -0.001974  -0.05342  0.002518  -0.6517  0.357
6.47e+09  -0.3475  0.8771  0.007431  0.02192  0.007969  -0.02406  -0.5848  0.5715
6.471e+09  -0.07799  0.9632  -0.00134  -0.02888  0.03271  -0.006603  -0.3567  0.6998
6.472e+09  0.3218  0.9342  -0.02424  -0.0101  0.004612  -0.02803  -0.0512  0.778
6.474e+09  0.5831  0.7516  0.01697  -0.04212  -0.05955  -0.03439  0.2446  0.798
6.475e+09  0.8135  0.4971  -0.02857  -0.01883  0.0153  0.003902  0.4253  0.6389
6.476e+09  0.9367  0.1552  -0.06813  0.01082  0.03012  0.05477  0.6653  0.4699
6.478e+09  0.9163  -0.1699  0.0156  0.02566  -0.01927  -0.02038  0.7383  0.2028
6.479e+09  0.8587  -0.4622  -0.01154  -0.03359  -0.01557  0.01318  0.7995  -0.1007
6.48e+09  0.5749  -0.7265  -0.0209  0.01847  -0.02277  -0.006206  0.7108  -0.3117
6.481e+09  0.2874  -0.8657  -0.01725  0.03517  -0.04925  -0.03482  0.5627  -0.574
6.482e+09  -0.02217  -0.9491  -0.0295  0.04425  0.004097  -0.0131  0.3252  -0.7005
6.484e+09  -0.4119  -0.8739  0.01789  0.01521  0.0065  0.02103  0.05555  -0.7407
6.485e+09  -0.7023  -0.6729  -0.02562  -0.003005  -0.02743  0.06601  -0.2244  -0.7413
6.486e+09  -0.9081  -0.4182  0.00544  0.03298  0.01781  -0.02057  -0.4632  -0.6218
6.488e+09  -0.9246  -0.0585  -0.003735  0.000674  0.04546  -0.04602  -0.5681  -0.4464
6.489e+09  -0.9184  0.2795  0.03098  -0.01792  -0.006205  -0.03338  -0.75  -0.2007
6.49e+09  -0.7058  0.6177  0.03269  0.002839  -0.00201  0.01463  -0.7472  0.105
6.491e+09  -0.5321  0.8172  -0.006215  -0.007133  -0.006444  0.001551  -0.6901  0.399
6.492e+09  -0.2654  0.9851  -0.01094  -0.04958  -0.01355  0.03007  -0.5003  0.588
6.494e+09  0.08606  0.9452  0.008515  -0.0138  0.008835  0.009155  -0.321  0.7103
6.495e+09  0.4368  0.8018  -0.04418  -0.01986  0.04601  -0.05512  -0.04562  0.7802
6.496e+09  0.7608  0.578  0.005379  0.003127  0.006811  -0.03027  0.2365  0.745
6.498e+09  0.8678  0.3049  -0.01637  -0.03003  0.03836  0.01115  0.487  0.6105
6.499e+09  0.9767  -0.02393  -0.0449  -0.01275  -0.05062  -0.04062  0.6933  0.4371
6.5e+09  0.9406  -0.3626  0.01002  -0.002737  -0.01661  0.007113  0.7672  0.1223
6.501e+09  0.662  -0.6374  -0.04909  -0.03191  0.01124  -0.05716  0.705  -0.1312
6.502e+09  0.427  -0.8481  3.574e-05  0.01707  0.0631  -0.01066  0.6637  -0.3529
6.504e+09  0.07685  -0.9088  -0.02646  0.02692  -0.03382  0.0371  0.5054  -0.5719
6.505e+09  -0.2502  -0.94  -0.0146  -0.01386  0.007952  -0.01863  0.3096  -0.6756
6.506e+09  -0.579  -0.7637  -0.03134  -0.03667  -0.0419  0.02159  0.05822  -0.7807
6.508e+09  -0.7667  -0.4487  0.01363  -0.02635  -0.02102  0.01672  -0.2313  -0.7649
6.509e+09  -0.9262  -0.2101  0.02476  0.02141  -0.04264  -0.0005733  -0.4605  -0.6017
6.51e+09  -0.9829  0.09993  0.01407  0.01583  -0.00767  0.03513  -0.6561  -0.3917
6.511e+09  -0.8484  0.5111  -0.01656  0.01184  -0.04628  -0.009242  -0.712  -0.1098
6.512e+09  -0.6264  0.711  -0.01608  -0.03007  0.01638  0.02011  -0.7578  0.139
6.514e+09  -0.3097  0.8779  0.003251  -0.01012  -0.04453  -0.01867  -0.6221  0.4368
6.515e+09  -0.006718  0.8871  0.006822  -0.01375  0.0002323  -0.02471  -0.4722  0.5365
6.516e+09  0.3166  0.9065  0.01737  -0.02343  0.03163  0.05125  -0.2373  0.7247
6.518e+09  0.662  0.6865  0.0166  0.001787  0.001014  -0.05509  0.005768  0.753
6.519e+09  0.8391  0.4309  0.01267  0.002031  0.01801  0.003425  0.2796  0.6891
6.52e+09  0.9114  0.09343  -0.05008  -0.00803  -0.02105  0.04733  0.4615  0.526
6.521e+09  0.8839  -0.2511  0.0002027  -0.01095  0.002563  0.01462  0.6234  0.3515
6.522e+09  0.7459  -0.502  -0.01155  -0.02275  0.06571  0.03732  0.7304  0.09661
6.524e+09  0.5173  -0.7451  0.01004  -0.002965  0.02085  0.007178  0.6954  -0.1521
6.525e+09  0.24  -0.9272  0.006851  0.01202  0.007166  -0.02511  0.6128  -0.3918
6.526e+09  -0.1748  -0.9412  -0.00749  -0.01635  -0.002815  0.04161  0.4661  -0.5637
6.528e+09  -0.4395  -0.796  0.0406  0.009711  -0.006009  -0.03731  0.1691  -0.7102
6.529e+09  -0.6688  -0.5976  0.01327  -0.01963  -0.03078  0.02701  -0.025  -0.6978
6.53e+09  -0.811  -0.2795  -0.004431  -0.0006377  0.03944  0.03514  -0.2942  -0.6236
6.531e+09  -0.9102  0.01872  -0.02047  0.04018  -0.006493  0.005171  -0.4653  -0.4758
6.532e+09  -0.864  0.387  -0.007975  0.04349  0.008063  0.05453  -0.5887  -0.2889
6.534e+09  -0.6746  0.5524  0.007208  -0.0227  0.006982  0.005418  -0.6388  -0.06879
6.535e+09  -0.3371  0.8465  0.009628  0.007085  -0.01455  0.03867  -0.6431  0.09866
6.536e+09  -0.125  0.9082  0.005365  0.01693  -0.02108  -0.01305  -0.5617  0.2848
6.538e+09  0.2699  0.8605  -0.02202  0.007009  -0.03583  0.03784  -0.4331  0.487
6.539e+09  0.5462  0.6691  0.006771  0.02168  0.02684  -0.04715  -0.2581  0.6065
6.54e+09  0.7102  0.4187  -0.01079  -0.03485  0.00431  -0.009202  -0.05161  0.6466
6.541e+09  0.8592  0.1943  -0.01439  -0.007439  0.02142  0.001019  0.1707  0.6519
6.542e+09  0.8751  -0.07865  0.02418  -0.0141  -0.003847  -0.005455  0.4035  0.6018
6.544e+09  0.7602  -0.4157  0.00288  -0.009384  0.02609  0.04646  0.6065  0.3955
6.545e+09  0.5122  -0.6485  -0.007085  0.0186  -0.0252  -0.01047  0.6824  0.1827
6.546e+09  0.2655  -0.8148  0.006231  0.01809  0.04399  0.02796  0.7461  -0.05955
6.548e+09  -0.01389  -0.7749  0.03438  0.002814  -0.006366  -0.01139  0.6741  -0.3628
6.549e+09  -0.3676  -0.7499  0.0114  -0.005284  -0.01919  0.005029  0.5422  -0.5338
6.55e+09  -0.577  -0.6521  -0.009242  0.02177  0.01413  -0.003271  0.2702  -0.6745
