# Hz S RI R 50
6.25e+09  -0.3696  0.855  0.000245  0.0002963  -0.05911  0.01955  0.1646  0.4546
6.251e+09  -0.01178  0.8598  0.01392  0.0001194  0.01837  -0.003167  0.371  0.4165
6.252e+09  0.269  0.8107  0.01858  -0.001869  0.01081  0.01027  0.5472  0.2439
6.254e+09  0.5142  0.689  -0.01288  -0.005421  -0.0007131  0.05492  0.6367  -0.02403
6.255e+09  0.6773  0.4768  -0.01065  0.01611  -0.009532  0.01575  0.5729  -0.2215
6.256e+09  0.8662  0.1551  -0.01813  0.006218  0.01549  0.04584  0.4597  -0.4553
6.258e+09  0.8656  -0.1054  0.008772  -0.015  -0.01789  0.01685  0.2531  -0.6016
6.259e+09  0.7379  -0.4017  0.01951  -0.007316  0.07728  0.006875  0.03786  -0.7048
6.26e+09  0.5464  -0.7193  0.02798  -0.02068  0.01016  -0.0005671  -0.2025  -0.6635
6.261e+09  0.3305  -0.7641  0.008639  0.01955  -0.004721  0.03433  -0.4496  -0.5324
6.262e+09  0.03538  -0.8514  0.04172  -0.003716  0.07285  0.01766  -0.6058  -0.3184
6.264e+09  -0.2249  -0.7546  0.0009022  -0.00453  -0.0446  -0.03068  -0.7017  -0.09439
6.265e+09  -0.4885  -0.6445  0.02748  0.02171  0.006996  0.01457  -0.699  0.1474
6.266e+09  -0.7269  -0.4035  0.006579  0.007697  0.02716  -0.001249  -0.631  0.4353
6.268e+09  -0.8044  -0.1794  -0.009784  0.009159  -0.04672  -0.01211  -0.3931  0.6264
6.269e+09  -0.7849  0.1549  0.008154  -0.03549  -0.01309  0.07233  -0.2298  0.7
6.27e+09  -0.781  0.4004  -0.009189  0.008036  0.02075  0.02266  0.1042  0.7765
6.271e+09  -0.5451  0.6273  0.004354  -0.00255  0.002446  -0.05658  0.2999  0.6476
6.272e+09  -0.3143  0.794  -0.007506  0.008013  -0.03231  0.04917  0.5227  0.555
6.274e+09  -0.004356  0.8345  -0.02793  0.009987  0.06091  -0.0002208  0.7038  0.298
6.275e+09  0.3167  0.8585  -0.005222  0.00965  0.0494  -0.01714  0.7265  0.03026
6.276e+09  0.5558  0.6605  -0.001467  0.0003294  0.003802  0.03772  0.7227  -0.2346
6.278e+09  0.717  0.3674  0.03085  0.005882  -0.02015  0.04712  0.6073  -0.4554
6.279e+09  0.8228  0.1259  0.0442  -0.006281  -0.02335  -0.00564  0.4089  -0.6454
6.28e+09  0.8597  -0.1767  0.02104  0.0176  -0.01769  -0.04737  0.1567  -0.7698
6.281e+09  0.7134  -0.4339  -0.001259  -0.01711  0.03939  0.02679  -0.1294  -0.7771
6.282e+09  0.4892  -0.6607  -0.03204  -0.003839  0.002853  0.007489  -0.3541  -0.7067
6.284e+09  0.2707  -0.7896  -0.03701  -0.004943  0.005054  0.02824  -0.5987  -0.5178
6.285e+09  0.009844  -0.7466  -0.006981  -0.003265  0.03975  0.007335  -0.7173  -0.2867
6.286e+09  -0.3477  -0.7379  0.00116  0.004801  -0.05048  0.0201  -0.8246  -0.003009
6.288e+09  -0.6048  -0.6383  0.006601  0.02391  -0.05135  0.03946  -0.7724  0.267
6.289e+09  -0.7622  -0.3911  -0.01445  0.009039  0.02082  -0.06055  -0.6339  0.4881
6.29e+09  -0.8414  -0.1402  -0.01137  -0.01765  -0.002129  -0.01829  -0.4293  0.7032
6.291e+09  -0.859  0.1812  -0.007192  -0.01719  0.06416  0.006846  -0.1469  0.7909
6.292e+09  -0.7312  0.4695  -0.01648  0.005913  0.052  0.0234  0.1504  0.7722
6.294e+09  -0.5026  0.6541  0.008259  -0.01958  0.0005435  0.006845  0.3923  0.7281
6.295e+09  -0.2794  0.8008  -0.0088  0.02124  -0.06781  -0.004096  0.6139  0.5349
6.296e+09  0.03426  0.7857  -0.0006804  -0.004502  0.01311  -0.01385  0.768  0.2758
6.298e+09  0.3687  0.77  -0.02778  0.01285  0.0001  -0.0125  0.8426  0.01059
6.299e+09  0.5773  0.6275  -0.01119  0.005925  -0.00221  -0.04346  0.7702  -0.2677
6.3e+09  0.7507  0.3508  -0.00337  -0.003134  0.02935  -0.02004  0.6236  -0.5282
6.301e+09  0.8046  0.1192  -0.01099  -0.03808  -0.02629  0.03189  0.4443  -0.6915
6.302e+09  0.7884  -0.2109  0.01961  -0.01775  0.01353  -0.05211  0.1517  -0.8054
6.304e+09  0.7192  -0.5135  0.01993  -0.02771  -0.03858  -0.008056  -0.1245  -0.8296
6.305e+09  0.4904  -0.6818  0.05321  -0.01617  -0.05016  0.04989  -0.4262  -0.7151
6.306e+09  0.2587  -0.8263  0.00662  -0.005287  -0.006656  -0.01902  -0.6317  -0.5459
6.308e+09  -0.06502  -0.8081  -0.002178  -0.02117  -0.02146  -0.02984  -0.7781  -0.2858
6.309e+09  -0.3369  -0.7804  0.0009106  -0.04161  -0.01837  -0.01498  -0.8774  -0.01595
6.31e+09  -0.6168  -0.5836  0.02153  0.006508  0.003806  -0.02522  -0.8152  0.2602
6.311e+09  -0.7671  -0.336  -0.02202  -0.03176  -0.0365  -0.01112  -0.6707  0.5281
6.312e+09  -0.9022  -0.02844  0.005468  0.001379  -0.0001088  0.003929  -0.4455  0.7486
6.314e+09  -0.8395  0.2526  0.01052  -0.001404  -0.01278  -0.01345  -0.14  0.8475
6.315e+09  -0.6826  0.5051  -0.01949  0.02372  -0.03484  -0.01187  0.1319  0.8768
6.316e+09  -0.4619  0.6848  -0.01563  -0.005375  0.005149  0.03597  0.4356  0.7786
6.318e+09  -0.1853  0.8416  0.006914  -0.004942  0.03074  -0.03362  0.6307  0.6059
6.319e+09  0.1237  0.8797  -0.001934  0.02068  0.004185  -0.06538  0.8172  0.3029
6.32e+09  0.3787  0.7503  -0.01942  -0.001327  -0.02684  0.005646  0.8513  0.009042
6.321e+09  0.6037  0.5716  0.007241  -0.0574  -0.007854  0.00486  0.8515  -0.2874
6.322e+09  0.7761  0.3024  -0.02615  0.002839  -0.007618  0.02165  0.6678  -0.5801
6.324e+09  0.8482  0.02397  -0.007298  0.007072  -0.0007003  0.007294  0.4321  -0.7638
6.325e+09  0.8018  -0.3218  0.004897  -0.02988  0.04727  -0.01432  0.1394  -0.8694
6.326e+09  0.7014  -0.5513  -0.00631  0.002861  0.03041  -0.01962  -0.1396  -0.8937
6.328e+09  0.4311  -0.7524  0.003537  -0.02587  0.02351  -0.0003246  -0.4354  -0.7962
6.329e+09  0.1735  -0.8323  -0.02483  0.004448  0.007131  0.01898  -0.673  -0.5749
6.33e+09  -0.1814  -0.8554  0.02384  0.009311  -0.04444  -0.01092  -0.8339  -0.3216
6.331e+09  -0.4224  -0.7348  -0.01068  -0.005172  0.006107  -0.03271  -0.9489  -0.02784
6.332e+09  -0.7147  -0.5106  0.02327  0.00369  0.01022  -0.01479  -0.8844  0.2675
6.334e+09  -0.8478  -0.3145  -0.01805  0.003527  0.006132  -0.008565  -0.6966  0.5901
6.335e+09  -0.8702  0.05868  0.02054  0.02222  -0.02249  -0.01465  -0.4739  0.788
6.336e+09  -0.7868  0.3631  -0.003951  -0.02202  -0.01025  0.006864  -0.1752  0.9093
6.338e+09  -0.6524  0.6044  -0.02751  0.03752  -0.03938  -0.01723  0.1216  0.9131
6.339e+09  -0.4279  0.7727  0.006301  0.03685  0.02872  -0.02728  0.4348  0.8255
6.34e+09  -0.06618  0.8952  -0.02262  0.05972  0.04504  0.01044  0.6983  0.6416
6.341e+09  0.2196  0.8173  -0.01149  -0.004955  0.02531  -0.00953  0.8726  0.3741
6.342e+09  0.5092  0.6877  -0.004564  0.05481  0.04435  0.02299  0.9381  0.04875
6.344e+09  0.7101  0.532  -0.0158  -0.05516  0.02332  0.0308  0.9046  -0.2893
6.345e+09  0.8767  0.2344  -0.01492  -0.007498  0.03721  0.002166  0.7239  -0.5598
6.346e+09  0.8648  -0.1189  0.003819  -0.005259  -0.01123  -0.009373  0.505  -0.7876
6.348e+09  0.8175  -0.4646  -0.02692  -0.01968  0.01209  0.003211  0.2055  -0.9387
6.349e+09  0.623  -0.6332  -0.01014  -0.01913  0.03434  0.01302  -0.1187  -0.95
6.35e+09  0.2971  -0.8583  -0.002538  -0.004737  -0.0384  0.009506  -0.4155  -0.8602
6.351e+09  0.03773  -0.9035  0.03614  0.03215  0.01334  0.05121  -0.6945  -0.6514
6.352e+09  -0.2469  -0.8304  -0.01459  0.007191  0.01053  -0.03677  -0.8597  -0.3837
6.354e+09  -0.5655  -0.6879  0.00613  0.04122  0.03534  -0.04465  -0.9549  -0.07888
6.355e+09  -0.804  -0.4551  0.01283  -0.004448  -0.003891  -0.004846  -0.9047  0.2618
6.356e+09  -0.8905  -0.1267  -0.02261  0.03648  -0.007752  -0.01376  -0.8025  0.5404
6.358e+09  -0.9213  0.1699  -0.03403  0.0212  -0.02014  0.05183  -0.5398  0.7781
6.359e+09  -0.7506  0.4436  0.0213  -0.01807  -0.003925  0.01059  -0.2287  0.925
6.36e+09  -0.5736  0.6444  -0.01811  0.009576  -0.02411  0.0005132  0.08833  0.9272
6.361e+09  -0.3043  0.8611  0.01037  -0.0004031  -0.009065  -0.001813  0.4433  0.8546
6.362e+09  -0.01083  0.8848  -0.02615  0.02379  -0.01422  -0.02011  0.6715  0.6289
6.364e+09  0.3282  0.8331  -0.006813  0.02832  0.0299  -0.03095  0.8635  0.4
6.365e+09  0.6079  0.6574  -0.01974  -0.001452  -0.02563  -0.00522  0.9569  0.08597
6.366e+09  0.8342  0.4185  0.006164  -0.02683  0.01942  -0.02408  0.9382  -0.2717
6.368e+09  0.8989  0.1363  0.008662  -0.05571  -0.02193  0.005032  0.7595  -0.5574
6.369e+09  0.8805  -0.21  -0.02743  -0.02995  0.03601  0.01359  0.5388  -0.7387
6.37e+09  0.7738  -0.48  0.007287  0.03939  -0.007895  -0.01862  0.2296  -0.9088
6.371e+09  0.5694  -0.7697  0.00447  -0.002849  -0.00451  0.001591  -0.04714  -0.9275
6.372e+09  0.2401  -0.8494  -0.008056  -0.004487  0.003634  0.003296  -0.3916  -0.8614
6.374e+09  -0.08323  -0.8621  -0.0002216  -0.03768  -0.0138  -0.01833  -0.7038  -0.677
6.375e+09  -0.3724  -0.8119  -0.02192  0.05212  0.02915  0.007188  -0.8659  -0.3956
6.376e+09  -0.6498  -0.6824  0.02235  0.005848  0.05567  0.01414  -0.9326  -0.09207
6.378e+09  -0.8418  -0.363  -0.01516  -0.006415  0.01659  0.01752  -0.9172  0.246
6.379e+09  -0.9011  -0.09024  -0.002602  0.02256  -0.007493  0.01817  -0.791  0.4994
6.38e+09  -0.8399  0.2157  -0.02581  0.006553  0.009436  -0.01634  -0.5976  0.7632
6.381e+09  -0.7273  0.5701  0.01346  0.005355  0.0004885  0.01142  -0.2597  0.8897
6.382e+09  -0.4835  0.7035  0.02931  0.01856  0.008769  0.01331  0.05226  0.938
6.384e+09  -0.2517  0.8585  -0.01962  0.005993  0.007499  0.02246  0.4109  0.8778
6.385e+09  0.08084  0.8678  0.02218  -0.003667  0.001605  0.02261  0.6245  0.69
6.386e+09  0.4272  0.7936  -0.04185  0.0385  0.0002139  -0.0136  0.8302  0.3978
6.388e+09  0.6496  0.617  -0.004479  -0.008104  0.01881  0.01502  0.8784  0.08861
6.389e+09  0.8408  0.3473  0.01353  0.01928  -0.02727  0.01105  0.9399  -0.2424
6.39e+09  0.8881  0.05751  -0.02426  0.01878  -0.0195  0.01813  0.8095  -0.5229
6.391e+09  0.8916  -0.235  -0.02003  0.01757  0.01866  0.02965  0.5907  -0.7588
6.392e+09  0.7112  -0.547  -0.01705  -0.02317  0.02812  -0.01861  0.3022  -0.9123
6.394e+09  0.4924  -0.783  -0.01829  -0.01898  -0.01429  -0.005783  -0.04635  -0.9256
6.395e+09  0.1835  -0.8316  -0.006682  -0.05015  -0.0314  -0.01081  -0.3401  -0.8397
6.396e+09  -0.161  -0.9032  -0.02877  0.01636  0.01926  0.01125  -0.653  -0.7214
6.398e+09  -0.4303  -0.7886  0.02603  -0.03007  0.02412  0.00414  -0.814  -0.4652
6.399e+09  -0.6727  -0.5582  -0.03654  -0.01328  -0.00742  -0.02371  -0.9269  -0.1666
6.4e+09  -0.8414  -0.3442  0.009208  -0.03347  -0.003016  -0.01531  -0.9049  0.1947
6.401e+09  -0.8987  -0.01483  -0.0293  0.002635  -0.0001988  -0.05234  -0.7908  0.4547
6.402e+09  -0.8339  0.3003  0.02119  -0.01606  0.02191  0.02894  -0.575  0.7124
6.404e+09  -0.7015  0.5484  -0.02397  -0.01678  0.02812  -0.01334  -0.3469  0.8855
6.405e+09  -0.42  0.7828  0.04475  0.04372  -0.004128  -0.04226  -0.02374  0.8951
6.406e+09  -0.1725  0.9143  -0.002181  0.02582  -0.009651  0.02044  0.3402  0.8458
6.408e+09  0.2057  0.8641  0.00956  0.04379  -0.04437  -0.003335  0.5643  0.7388
6.409e+09  0.4192  0.7415  -0.007206  -0.03319  0.03359  -0.03105  0.7786  0.4357
6.41e+09  0.6529  0.5709  -0.01088  -0.02648  0.004694  -0.01184  0.9378  0.1527
6.411e+09  0.833  0.2786  -0.007313  0.01804  0.01642  0.01615  0.8497  -0.1362
6.412e+09  0.9062  0.04047  -0.02434  -0.01634  -0.02796  0.01469  0.7743  -0.4532
6.414e+09  0.8298  -0.2814  -0.0476  0.0194  -0.04005  -0.02445  0.576  -0.7172
6.415e+09  0.6711  -0.6489  0.0131  0.01406  0.01228  -0.02662  0.3061  -0.8816
6.416e+09  0.4069  -0.8282  -0.01422  -0.000531  0.01475  0.01652  -0.01757  -0.8864
6.418e+09  0.1181  -0.8288  -0.04439  -0.03074  -0.0287  0.03755  -0.2814  -0.8788
6.419e+09  -0.1876  -0.8607  -0.05107  -0.05054  -0.003724  0.007186  -0.5125  -0.7414
6.42e+09  -0.4489  -0.7844  0.02796  -0.01464  -0.0002747  0.02302  -0.7448  -0.4889
6.421e+09  -0.7002  -0.5681  0.03528  0.006195  -0.02142  -0.008973  -0.8378  -0.1678
6.422e+09  -0.8831  -0.257  -0.01201  0.004507  0.08532  -0.02215  -0.8978  0.155
6.424e+09  -0.9397  0.05633  0.000407  -0.008078  -0.001163  -0.008759  -0.7937  0.4416
6.425e+09  -0.8461  0.3114  -0.01511  -0.01895  -0.01874  -0.01258  -0.595  0.5956
6.426e+09  -0.6505  0.5564  0.02695  -0.0268  -0.0244  0.001151  -0.4037  0.8303
6.428e+09  -0.4011  0.7935  0.003947  -0.02525  -0.02535  0.03405  -0.08198  0.9011
6.429e+09  -0.08844  0.9448  0.04052  0.04226  -0.003325  -0.005585  0.244  0.814
6.43e+09  0.1482  0.9041  0.01683  -0.01209  0.0004679  0.01986  0.4981  0.7305
6.431e+09  0.4683  0.7216  -0.008195  -0.02944  -0.005278  -0.008098  0.7657  0.5255
6.432e+09  0.7385  0.4949  0.00712  0.01256  -0.006941  0.002997  0.8478  0.2093
6.434e+09  0.8248  0.2857  -0.02052  -0.02612  -0.02478  0.01561  0.8778  -0.1254
6.435e+09  0.8861  -0.03591  -0.03078  0.01968  -0.04193  0.01353  0.7933  -0.3483
6.436e+09  0.8258  -0.307  0.007575  0.01633  -0.02347  -0.03714  0.6177  -0.6072
6.438e+09  0.6242  -0.6045  0.04661  -0.009768  -0.01408  -0.02097  0.3553  -0.7952
6.439e+09  0.4506  -0.81  -0.009304  0.0287  0.002628  -0.07525  0.08398  -0.8682
6.44e+09  0.08644  -0.8618  0.001211  -0.007283  0.02217  -0.02748  -0.2435  -0.7916
6.441e+09  -0.2308  -0.8704  0.03813  0.02423  -0.03616  -0.00575  -0.4852  -0.7198
6.442e+09  -0.451  -0.7193  -0.01506  -0.01398  -0.0271  0.02544  -0.7041  -0.4913
6.444e+09  -0.6567  -0.5403  0.01767  -0.01988  -0.01654  -0.005573  -0.818  -0.224
6.445e+09  -0.8443  -0.2694  0.0197  -0.02616  -0.003892  0.01888  -0.8515  0.06486
6.446e+09  -0.9124  0.08779  -0.03539  0.09054  0.001883  0.02543  -0.7467  0.3814
6.448e+09  -0.8309  0.3704  0.003718  -0.003352  0.0003649  -5.36e-06  -0.5928  0.639
6.449e+09  -0.6614  0.6026  -0.0332  -0.02971  -0.006048  -0.01688  -0.3023  0.8008
6.45e+09  -0.4334  0.7894  0.003087  0.01326  -0.0002185  -0.009007  -0.03512  0.8472
6.451e+09  -0.09144  0.8755  0.05581  0.01428  -0.04264  -0.03782  0.2091  0.7881
6.452e+09  0.1714  0.8817  0.06378  0.003497  0.0191  0.04544  0.5166  0.6818
6.454e+09  0.467  0.7689  0.04014  0.02445  0.05848  -0.01781  0.7136  0.4402
6.455e+09  0.7406  0.5507  0.008349  0.0116  0.005375  -0.004539  0.8255  0.1992
6.456e+09  0.8714  0.2158  0.0004912  0.006859  0.02582  0.01032  0.8524  -0.116
6.458e+09  0.9017  -0.1107  0.001723  -0.005714  -0.004195  0.0518  0.7333  -0.3725
6.459e+09  0.8347  -0.3953  0.01059  0.04012  0.0106  -0.04389  0.6029  -0.5153
6.46e+09  0.6561  -0.6006  -0.0378  -0.008909  -0.001591  0.01967  0.372  -0.7198
6.461e+09  0.3851  -0.8593  0.003504  0.004594  -0.01163  -0.04232  0.05363  -0.795
6.462e+09  0.1124  -0.9021  0.002939  -0.01626  -0.04191  -0.005541  -0.2052  -0.7487
6.464e+09  -0.1976  -0.8154  0.002385  0.003504  -0.009017  0.004815  -0.4655  -0.6303
6.465e+09  -0.5128  -0.7609  -0.04136  -0.03721  -0.05014  -0.02307  -0.6526  -0.427
6.466e+09  -0.7331  -0.5369  0.04978  -0.03703  0.005824  0.004362  -0.8102  -0.1493
6.468e+09  -0.929  -0.2703  0.009128  0.01238  0.02311  -0.01267  -0.7947  0.05883
6.469e+09  -0.9227  0.08523  -0.01706  -0.0024  -0.02192  0.002712  -0.7255  0.3446
6.47e+09  -0.823  0.36  0.03216  -0.01406  0.03325  -0.04639  -0.5819  0.5237
6.471e+09  -0.6017  0.6679  0.01011  0.02323  -0.01956  0.02486  -0.3101  0.7194
6.472e+09  -0.3465  0.8265  -0.008099  -0.008151  0.007221  -0.02317  -0.03608  0.8115
6.474e+09  -0.09607  0.9736  -0.04136  -0.0154  0.05055  -0.007979  0.248  0.7451
6.475e+09  0.1982  0.8818  0.006388  -0.03933  0.02734  -0.0009497  0.4592  0.6704
6.476e+09  0.5257  0.7874  0.01966  -0.007001  -0.03673  -0.03019  0.6326  0.4545
6.478e+09  0.7861  0.5089  -0.0193  0.04356  0.02754  0.02394  0.8016  0.164
6.479e+09  0.9089  0.2079  0.03532  0.02651  -0.004439  -0.01318  0.7839  -0.08775
6.48e+09  0.9037  -0.0783  0.01317  -0.005301  0.01109  -0.0005782  0.7262  -0.2866
6.481e+09  0.8371  -0.463  0.0009941  -0.002945  0.02218  -0.0002841  0.547  -0.5619
6.482e+09  0.6237  -0.7255  0.0314  0.003163  -0.01405  -0.00528  0.3221  -0.7112
6.484e+09  0.3966  -0.8515  -0.01642  -0.02004  -0.03176  0.016  0.04802  -0.7808
6.485e+09  0.04743  -0.9392  -0.01381  0.02487  -0.01218  -0.002405  -0.2244  -0.7513
6.486e+09  -0.208  -0.8979  -0.00452  0.001025  0.01689  0.002666  -0.477  -0.6229
6.488e+09  -0.6035  -0.734  0.01757  -0.003865  -0.07435  -0.01019  -0.6189  -0.4713
6.489e+09  -0.7664  -0.4827  -0.01163  -0.0116  -0.01242  0.002266  -0.7484  -0.168
6.49e+09  -0.8829  -0.1914  0.007228  -0.0239  -0.03157  -0.05329  -0.7947  0.08021
6.491e+09  -0.9535  0.06623  0.04326  0.006175  -0.0409  -0.005093  -0.6678  0.3321
6.492e+09  -0.8658  0.4452  -0.006389  0.03119  -0.02308  -0.002995  -0.5317  0.5358
6.494e+09  -0.5997  0.6847  -0.01292  0.01055  0.02293  -0.01946  -0.2967  0.713
6.495e+09  -0.3083  0.8594  0.02323  -0.007269  0.03251  -0.05079  -0.03594  0.7562
6.496e+09  -0.05523  0.9007  -0.02149  0.004775  -0.01951  -0.03489  0.2103  0.7414
6.498e+09  0.3077  0.8832  0.02275  0.003657  0.007342  0.004547  0.4392  0.5983
6.499e+09  0.6178  0.7547  0.02455  0.02657  -0.05764  0.009014  0.6357  0.4592
6.5e+09  0.8008  0.5151  0.03635  -0.0211  -0.04093  -0.04805  0.7391  0.1844
6.501e+09  0.9512  0.1821  -0.005779  -0.01007  -0.02163  0.002593  0.7341  -0.09514
6.502e+09  0.8929  -0.1615  0.01761  0.02797  0.03462  -0.03755  0.6894  -0.3979
6.504e+09  0.835  -0.4488  -0.01879  0.0195  -0.01889  -0.04208  0.5006  -0.5928
6.505e+09  0.5789  -0.7668  0.00505  0.007017  0.01279  0.04953  0.2864  -0.687
6.506e+09  0.3274  -0.9159  0.009575  -0.01489  0.0234  -0.04366  0.04884  -0.7715
6.508e+09  -0.01159  -0.9967  -0.02905  0.03887  -0.01406  0.07156  -0.265  -0.768
6.509e+09  -0.3308  -0.8649  0.009364  0.01044  -0.02537  0.02899  -0.4682  -0.588
6.51e+09  -0.6844  -0.7903  0.01712  -0.02689  0.04951  0.007118  -0.6853  -0.3953
6.511e+09  -0.8506  -0.4529  -0.002003  -0.03834  0.0104  0.04762  -0.7575  -0.1359
6.512e+09  -0.9525  -0.091  0.01367  -0.03808  -0.001955  -0.03057  -0.7246  0.1292
6.514e+09  -0.9568  0.1703  0.01246  -0.002751  0.02264  -0.03019  -0.6679  0.3558
6.515e+09  -0.771  0.5071  -0.05019  0.003772  -0.003023  -0.02093  -0.5123  0.5989
6.516e+09  -0.5945  0.7543  -0.002315  -0.02717  0.03106  -0.03098  -0.2526  0.7177
6.518e+09  -0.2636  0.8963  0.006555  -0.009987  0.03443  -0.01373  0.04277  0.7395
6.519e+09  0.1013  1.014  -0.005328  -0.02712  0.002279  -0.009959  0.2724  0.6829
6.52e+09  0.4139  0.9209  0.02218  0.01155  0.01876  0.03718  0.5078  0.5685
6.521e+09  0.7119  0.6712  0.03111  0.004179  0.03994  0.008455  0.6102  0.3511
6.522e+09  0.8952  0.4358  -0.007295  -0.01595  -0.01257  0.0388  0.7306  0.08491
6.524e+09  1.013  0.05675  -0.04919  0.02555  0.002631  -0.003684  0.6726  -0.1533
6.525e+09  0.9508  -0.3184  -0.02511  -0.005634  -0.01304  -0.05058  0.6237  -0.3789
6.526e+09  0.786  -0.567  0.019  0.01457  0.02513  -0.04779  0.4364  -0.5827
6.528e+09  0.5593  -0.8319  0.008243  0.01934  0.006454  0.001272  0.1952  -0.6562
6.529e+09  0.1844  -0.9854  0.007697  -0.0197  -0.007058  -0.02033  -0.01469  -0.7006
6.53e+09  -0.1247  -0.9952  0.02768  -0.006374  -0.005963  -0.02057  -0.2848  -0.6153
6.531e+09  -0.4433  -0.8451  0.01574  0.01396  0.02422  -0.003391  -0.471  -0.4752
6.532e+09  -0.8042  -0.6587  0.01127  0.003826  -0.02983  0.05948  -0.5915  -0.2787
6.534e+09  -0.9276  -0.3966  -0.0396  0.03003  -0.001564  0.05236  -0.6106  -0.08507
6.535e+09  -0.9546  -0.00473  -0.004512  0.02107  -0.01665  0.04499  -0.6077  0.0875
6.536e+09  -0.9089  0.3295  0.005603  0.003846  0.003619  -0.02906  -0.5627  0.2681
6.538e+09  -0.7604  0.6463  0.0315  -0.01423  -0.003847  0.01199  -0.4294  0.4857
6.539e+09  -0.5137  0.8549  0.01356  0.01546  0.004694  -0.02156  -0.2614  0.6211
6.54e+09  -0.1689  0.974  -0.02525  0.01352  -0.03683  0.007126  -0.1018  0.6437
6.541e+09  0.1755  0.9425  0.02628  -0.01175  -0.01378  0.02529  0.1623  0.6837
6.542e+09  0.4774  0.855  0.00699  -0.008988  -0.04794  -0.006449  0.4394  0.5572
6.544e+09  0.7854  0.5412  -0.002787  0.004751  0.02877  0.03638  0.61  0.3888
6.545e+09  0.9428  0.2874  0.03007  0.02409  -0.002023  0.02062  0.7071  0.1859
6.546e+09  0.9303  -0.05327  0.00387  0.01612  0.04519  -0.03141  0.7162  -0.07806
6.548e+09  0.8689  -0.3615  0.01549  0.01613  -0.01521  -0.01926  0.6579  -0.3151
6.549e+09  0.7141  -0.6753  -0.02626  -0.001059  0.02078  0.002591  0.4837  -0.5508
6.55e+09  0.3836  -0.8483  -0.0173  -0.003561  0.00653  -0.02399  0.2883  -0.693
