# Hz S RI R 50
6.25e+09  -0.2616  0.7948  0.009589  -0.01166  -0.008841  0.04092  0.1459  0.5156
6.251e+09  0.06797  0.8859  -0.01148  0.01211  -0.004714  -0.01563  0.3747  0.4133
6.252e+09  0.3503  0.8454  -0.01003  -0.02317  -0.02437  0.03041  0.5068  0.2318
6.254e+09  0.604  0.6735  0.01577  0.01341  -0.0252  -0.02363  0.6202  0.01196
6.255e+09  0.7834  0.4344  0.03792  -0.007979  -0.03896  0.03085  0.5763  -0.2316
6.256e+09  0.8214  0.1328  0.01638  -0.02454  0.04233  -0.02566  0.4611  -0.4237
6.258e+09  0.8335  -0.1802  -0.005619  0.001901  0.01398  -0.07077  0.2792  -0.5861
6.259e+09  0.7477  -0.5115  0.03349  -0.03727  -0.03252  0.009235  0.01951  -0.6607
6.26e+09  0.5142  -0.6917  0.001867  0.02778  -0.05337  0.002662  -0.2222  -0.6647
6.261e+09  0.2486  -0.8084  0.003227  0.02129  0.03375  -0.03451  -0.4281  -0.5441
6.262e+09  -0.07574  -0.8958  -0.0118  0.03236  0.0007755  -0.01502  -0.6264  -0.3511
6.264e+09  -0.3974  -0.8037  -0.01477  -0.003254  0.01024  0.0004794  -0.6919  -0.1613
6.265e+09  -0.5796  -0.6062  -0.01357  0.03278  -0.03283  -0.06985  -0.6819  0.1796
6.266e+09  -0.7675  -0.3911  0.008977  0.001696  -0.003689  0.02881  -0.6148  0.4116
6.268e+09  -0.8154  -0.09707  0.02604  0.01728  0.008858  0.05231  -0.4274  0.5899
6.269e+09  -0.7521  0.1811  -0.03248  -0.01645  0.03409  -0.04019  -0.2066  0.7399
6.27e+09  -0.7025  0.4287  -0.02107  -0.008741  0.02935  -0.02333  0.06845  0.7433
6.271e+09  -0.5022  0.6831  -0.01002  -0.02061  0.01677  -0.06544  0.3101  0.6633
6.272e+09  -0.2268  0.8107  -0.02983  -0.01816  0.02318  0.01436  0.5466  0.5155
6.274e+09  0.04782  0.813  -0.006637  0.04221  0.000771  -0.009831  0.6583  0.3079
6.275e+09  0.335  0.7734  -0.02492  -0.01048  0.04776  0.007138  0.7859  0.05563
6.276e+09  0.5992  0.6754  -0.05619  -0.0004056  0.03519  -0.02833  0.7266  -0.2217
6.278e+09  0.7019  0.4023  -0.03418  -0.007974  -0.01876  -0.01029  0.6359  -0.445
6.279e+09  0.8241  0.06296  -0.0224  -0.001347  0.02632  -0.0002398  0.3904  -0.6309
6.28e+09  0.7872  -0.2386  0.02153  -0.009248  0.01552  -0.02875  0.1479  -0.7491
6.281e+09  0.6758  -0.4979  -0.03154  0.01297  -0.03109  0.01407  -0.09003  -0.8014
6.282e+09  0.4574  -0.6847  -0.01458  0.0143  -0.02994  0.0422  -0.3555  -0.6998
6.284e+09  0.1827  -0.8137  -0.01981  0.02588  -0.005868  0.01858  -0.6039  -0.5386
6.285e+09  -0.09539  -0.8291  -0.01137  0.005604  -0.02544  0.0006989  -0.7169  -0.2806
6.286e+09  -0.4171  -0.7349  -0.01553  0.005304  -0.0006  0.01947  -0.7941  -0.02731
6.288e+09  -0.6088  -0.6017  0.00041  0.01072  -0.009887  0.006877  -0.7591  0.27
6.289e+09  -0.8095  -0.3483  0.01908  -0.01182  0.01262  -0.04458  -0.6266  0.515
6.29e+09  -0.8876  -0.0733  0.03711  -0.02846  0.01326  0.03643  -0.4129  0.6818
6.291e+09  -0.7699  0.2326  -0.002361  0.02094  0.04306  -0.01195  -0.1568  0.8003
6.292e+09  -0.6592  0.5414  0.0189  -0.006057  0.009856  0.01988  0.1536  0.8179
6.294e+09  -0.4593  0.747  -0.02583  0.02321  0.00689  0.0182  0.4  0.7083
6.295e+09  -0.1614  0.8575  -0.001745  0.01855  -0.02513  0.006318  0.632  0.5274
6.296e+09  0.1599  0.8893  0.0008692  -0.006933  0.02969  -0.0112  0.7753  0.2953
6.298e+09  0.4363  0.7227  0.01515  -0.02083  -0.008642  -0.0242  0.8605  0.03664
6.299e+09  0.6125  0.5447  -0.01448  0.005485  0.03699  -0.01173  0.8002  -0.2982
6.3e+09  0.7964  0.3193  -0.009133  -0.01944  0.0002874  -0.0306  0.6317  -0.541
6.301e+09  0.8333  0.00849  0.02127  -0.02227  0.03085  -0.04516  0.4135  -0.6959
6.302e+09  0.765  -0.2816  0.02351  0.006939  -0.009295  -0.02456  0.1607  -0.7948
6.304e+09  0.6357  -0.5441  -0.006633  -0.01074  -0.004483  -0.0003979  -0.1436  -0.805
6.305e+09  0.4185  -0.7348  -0.01856  -0.01156  -0.0008248  -0.02805  -0.4104  -0.7267
6.306e+09  0.1345  -0.833  8.996e-05  -0.005104  -0.002406  -0.01374  -0.6522  -0.529
6.308e+09  -0.1228  -0.7999  0.002038  0.0009858  0.008202  -0.02936  -0.7922  -0.324
6.309e+09  -0.5067  -0.7795  -0.0192  0.008978  -0.02822  0.02755  -0.8847  -0.0008189
6.31e+09  -0.6674  -0.5038  0.0051  0.004987  0.05774  0.005675  -0.7961  0.308
6.311e+09  -0.7809  -0.2757  0.005007  0.006428  -0.03428  0.0454  -0.6798  0.5701
6.312e+09  -0.84  0.01138  0.009386  0.00809  -0.003242  0.01472  -0.4782  0.7784
6.314e+09  -0.7552  0.3438  -0.01893  0.00354  -0.03752  0.01226  -0.1749  0.866
6.315e+09  -0.6195  0.5844  0.003738  0.01917  0.009286  0.01467  0.1667  0.8745
6.316e+09  -0.3944  0.7532  0.01199  0.03683  0.08169  -0.03017  0.4373  0.7725
6.318e+09  -0.1568  0.8564  0.002269  0.02789  0.01588  -0.01462  0.6826  0.5469
6.319e+09  0.2251  0.8326  -0.01193  0.02475  0.01842  -0.02784  0.8281  0.3034
6.32e+09  0.5015  0.7293  -0.03337  -0.02058  0.02216  0.001528  0.894  0.02387
6.321e+09  0.6698  0.4874  0.001138  -0.008275  0.001086  -0.02881  0.8444  -0.3138
6.322e+09  0.8577  0.3131  0.004992  -0.01002  -0.0209  -0.08909  0.6803  -0.5889
6.324e+09  0.8774  -0.09457  0.01709  0.01832  0.0115  0.02649  0.4546  -0.7986
6.325e+09  0.7378  -0.3911  0.01195  0.01265  -0.006043  -0.01371  0.1735  -0.8652
6.326e+09  0.6119  -0.6242  -0.03433  0.005431  0.00953  -0.004342  -0.1634  -0.8962
6.328e+09  0.3761  -0.7945  0.01475  -0.01348  0.03459  0.01932  -0.4443  -0.8015
6.329e+09  0.03485  -0.8388  0.00484  -0.02685  0.04607  0.02066  -0.6794  -0.5851
6.33e+09  -0.2463  -0.8531  -0.009238  0.0276  -0.0001512  -0.02567  -0.8531  -0.3159
6.331e+09  -0.4901  -0.69  -0.000914  -0.003893  -0.04211  -0.02035  -0.9145  -0.005725
6.332e+09  -0.7429  -0.447  -0.0001343  -0.03162  0.03066  -0.01932  -0.84  0.2584
6.334e+09  -0.8229  -0.1572  -0.02264  0.00987  -0.001318  -0.008537  -0.7349  0.5689
6.335e+09  -0.8278  0.07633  -0.008201  0.01427  0.01953  -0.02145  -0.4573  0.7482
6.336e+09  -0.7835  0.4467  -0.027  0.02172  0.0009358  -0.02335  -0.1815  0.9003
6.338e+09  -0.5807  0.631  0.01631  0.02501  0.0182  0.01679  0.0869  0.887
6.339e+09  -0.3421  0.8505  0.01099  -0.02662  -0.02422  0.05468  0.4371  0.8152
6.34e+09  0.04422  0.9342  -0.02202  0.02  -0.008361  -0.04868  0.6749  0.6074
6.341e+09  0.3246  0.8412  0.02358  0.02425  0.02493  -0.0114  0.8449  0.354
6.342e+09  0.5583  0.6766  0.01574  0.002556  -0.021  -0.0404  0.938  0.06616
6.344e+09  0.733  0.4156  -0.01741  -0.02075  0.02518  0.01548  0.913  -0.2736
6.345e+09  0.9193  0.147  0.009704  -0.03045  -0.03525  0.04416  0.726  -0.5623
6.346e+09  0.8956  -0.1828  -0.02535  0.03031  -0.01586  0.01069  0.4952  -0.7921
6.348e+09  0.7643  -0.4829  0.01592  0.004792  0.02214  0.02031  0.2193  -0.9091
6.349e+09  0.5943  -0.7248  -0.03054  -0.01495  0.04309  0.005718  -0.09746  -0.9419
6.35e+09  0.2334  -0.8016  -0.009792  -0.002579  -0.03788  -0.008101  -0.4155  -0.8483
6.351e+09  -0.05336  -0.8909  0.01632  0.01534  0.00423  0.0008883  -0.6539  -0.6495
6.352e+09  -0.3696  -0.7668  0.0187  0.003562  -0.02759  -8.462e-05  -0.8735  -0.4101
6.354e+09  -0.6294  -0.6319  2.924e-05  0.01103  0.03384  -0.05923  -0.909  -0.0204
6.355e+09  -0.8258  -0.3874  -0.008327  0.02367  0.005702  -0.01519  -0.9173  0.3053
6.356e+09  -0.9172  -0.06705  0.04327  0.007099  0.007315  0.01588  -0.7903  0.5392
6.358e+09  -0.8461  0.2455  0.0328  0.03209  -0.03735  0.02179  -0.4972  0.7749
6.359e+09  -0.7103  0.5285  0.004744  -0.02915  -0.00759  0.002565  -0.2553  0.9061
6.36e+09  -0.5059  0.7755  0.01008  0.003036  -0.01341  -0.01208  0.0855  0.9407
6.361e+09  -0.1748  0.8828  0.04269  -0.004317  -0.06815  -0.01687  0.3918  0.8651
6.362e+09  0.1045  0.9081  -0.01213  0.003711  -0.01467  0.001154  0.6559  0.6686
6.364e+09  0.3913  0.7752  -0.01988  -0.009387  0.01467  0.02478  0.861  0.4344
6.365e+09  0.6554  0.6032  -0.006534  -0.006706  0.001093  0.03911  0.974  0.09306
6.366e+09  0.8184  0.3394  -0.01954  0.01124  -0.01071  0.005665  0.913  -0.2407
6.368e+09  0.8805  0.05693  -0.00299  -0.001823  -0.00426  -0.01241  0.8026  -0.5589
6.369e+09  0.8907  -0.2814  0.02759  0.003425  -0.03212  0.02329  0.5446  -0.7753
6.37e+09  0.6911  -0.5583  0.003993  0.001099  -0.02202  -0.03424  0.2823  -0.9492
6.371e+09  0.4587  -0.7779  -0.01559  0.0007173  -0.02436  0.02662  -0.1346  -0.9233
6.372e+09  0.1449  -0.9008  -0.01228  0.03893  -0.02048  -0.0005171  -0.3816  -0.8524
6.374e+09  -0.1523  -0.8639  -0.006217  0.01826  -0.04645  -0.04688  -0.6297  -0.6522
6.375e+09  -0.4488  -0.7765  -0.01668  0.005931  -0.02261  -0.02345  -0.8566  -0.4011
6.376e+09  -0.7222  -0.5941  -0.0002514  0.005073  0.006241  -0.02908  -0.9669  -0.1143
6.378e+09  -0.8092  -0.2815  0.02778  -0.01024  0.02389  -0.01109  -0.9033  0.2447
6.379e+09  -0.9102  0.06764  0.003217  0.02529  -0.0001901  -0.001106  -0.8172  0.5442
6.38e+09  -0.8621  0.3167  -0.02815  -0.008855  -0.0006325  0.01215  -0.5856  0.7618
6.381e+09  -0.6866  0.6019  0.01385  0.0009815  -0.001106  0.009818  -0.2414  0.8847
6.382e+09  -0.4455  0.8041  0.006755  0.008414  -0.03739  0.01908  0.07368  0.9449
6.384e+09  -0.132  0.8305  0.004891  -0.01257  0.009605  -0.0097  0.3759  0.9219
6.385e+09  0.2493  0.8776  -0.004808  -0.02601  -0.03161  0.01733  0.5962  0.6658
6.386e+09  0.4612  0.7798  0.01393  0.002158  -0.03118  0.01265  0.8147  0.4267
6.388e+09  0.6784  0.5471  0.02785  0.01316  -0.0211  -0.00782  0.9423  0.1198
6.389e+09  0.855  0.2993  -0.01398  0.009912  -0.01091  0.02384  0.894  -0.2154
6.39e+09  0.8936  -0.0768  0.0539  -0.001802  -0.004241  -0.006977  0.7809  -0.5004
6.391e+09  0.8335  -0.3407  -0.02022  -0.02335  0.03693  -0.001839  0.6039  -0.7377
6.392e+09  0.6653  -0.6222  0.02062  -0.008374  0.02413  0.03011  0.2755  -0.9
6.394e+09  0.4175  -0.7926  -0.01036  0.0398  -0.03057  -0.02403  0.03054  -0.9193
6.395e+09  0.1003  -0.9002  0.06544  0.04164  0.003999  -0.01096  -0.3197  -0.8453
6.396e+09  -0.2384  -0.8662  -0.01697  -0.01799  0.002679  0.003539  -0.5536  -0.6856
6.398e+09  -0.4919  -0.7416  0.01017  -0.008899  -0.05474  -0.01884  -0.8073  -0.4748
6.399e+09  -0.7809  -0.5689  0.004799  -0.04077  0.02151  -0.05402  -0.9033  -0.1282
6.4e+09  -0.8288  -0.2111  0.02407  0.008516  -0.0004683  0.0243  -0.8919  0.1681
6.401e+09  -0.9486  0.02831  0.0001128  -0.01343  -0.01083  -0.001011  -0.7832  0.5115
6.402e+09  -0.8213  0.4024  -0.02323  0.03274  0.007684  -0.01153  -0.6168  0.7073
6.404e+09  -0.5749  0.6903  -0.03565  0.01013  -0.02298  -0.03082  -0.3236  0.913
6.405e+09  -0.3749  0.7514  -0.004541  -0.05433  -0.0378  0.001759  -0.08513  0.897
6.406e+09  -0.06864  0.877  0.01204  0.01589  0.03325  -0.02606  0.3102  0.8657
6.408e+09  0.275  0.8394  -0.01782  -0.009127  -0.0002385  0.04084  0.6058  0.7008
6.409e+09  0.5274  0.6933  0.02317  0.002887  -0.05608  -0.03178  0.7865  0.5044
6.41e+09  0.7212  0.4674  0.008349  -0.02131  0.04582  0.05318  0.9516  0.1698
6.411e+09  0.8733  0.2189  0.00547  -0.02813  0.0007696  0.01239  0.8681  -0.1523
6.412e+09  0.9156  -0.07968  0.02242  0.005804  0.007545  -0.02604  0.7719  -0.4385
6.414e+09  0.8414  -0.3719  -0.02748  0.04382  0.01554  0.02626  0.5977  -0.7091
6.415e+09  0.6222  -0.6612  0.00234  -0.006975  -0.03945  -0.01532  0.3194  -0.824
6.416e+09  0.316  -0.8649  0.02242  -0.007262  -0.0138  0.01232  0.01931  -0.8453
6.418e+09  0.07463  -0.8788  0.03388  0.006792  0.03439  0.007969  -0.2519  -0.8489
6.419e+09  -0.2174  -0.8365  0.01565  0.02948  -0.02319  0.0386  -0.6097  -0.7076
6.42e+09  -0.4779  -0.6892  -0.01055  0.002499  0.01664  -0.01797  -0.7669  -0.4716
6.421e+09  -0.7209  -0.4854  -0.03015  -0.01535  -0.02831  -0.06277  -0.8883  -0.206
6.422e+09  -0.8465  -0.2108  0.05627  0.0689  0.04909  -0.004411  -0.8411  0.1558
6.424e+09  -0.8805  0.1359  0.05867  -0.02205  -0.005644  0.03642  -0.7879  0.4096
6.425e+09  -0.8189  0.4382  0.01295  -0.01765  0.002235  0.01263  -0.6295  0.6466
6.426e+09  -0.6073  0.6547  0.04334  -0.01305  0.07839  -0.02005  -0.334  0.8266
6.428e+09  -0.3426  0.8332  -0.009601  -0.0006576  0.006356  -0.02398  -0.05024  0.9135
6.429e+09  -0.0297  0.9025  -0.004703  -0.0197  -0.004969  0.001038  0.2335  0.8273
6.43e+09  0.2636  0.8605  0.008011  0.009428  0.01513  0.007096  0.5048  0.6926
6.431e+09  0.4762  0.7163  -0.03611  0.001783  0.04845  -0.00303  0.7245  0.484
6.432e+09  0.7437  0.4841  0.01128  -0.03093  -0.04322  -0.00571  0.8489  0.177
6.434e+09  0.8537  0.1941  -0.0201  0.02009  -0.02568  0.01755  0.844  -0.1143
6.435e+09  0.885  -0.1132  -0.008424  0.01786  -0.009696  -0.005747  0.7634  -0.3693
6.436e+09  0.836  -0.407  0.006834  -0.02631  -0.01545  0.008388  0.6368  -0.6187
6.438e+09  0.603  -0.6678  0.02866  -0.06447  -0.001627  0.03147  0.389  -0.7597
6.439e+09  0.2949  -0.85  -0.0173  0.004731  0.02271  -0.003075  0.04113  -0.8501
6.44e+09  0.05577  -0.9035  -0.02466  -0.02392  -0.04853  0.006601  -0.2102  -0.8537
6.441e+09  -0.3009  -0.8632  0.00223  -0.02362  -0.05656  0.01797  -0.4434  -0.6779
6.442e+09  -0.5335  -0.6867  0.01594  -0.03362  0.0214  -0.006077  -0.7104  -0.4837
6.444e+09  -0.7931  -0.5141  0.008909  -0.02294  0.01302  0.01584  -0.8689  -0.2417
6.445e+09  -0.8458  -0.1928  0.02316  -0.00133  0.02456  -0.04162  -0.8536  0.08988
6.446e+09  -0.8813  0.08657  0.01077  -0.005357  0.04506  0.04586  -0.754  0.3288
6.448e+09  -0.784  0.4028  -0.004451  -0.02188  0.02277  0.01366  -0.58  0.5885
6.449e+09  -0.6006  0.6665  0.004646  -0.02429  -0.02774  0.002387  -0.3572  0.7249
6.45e+09  -0.291  0.8767  0.02578  0.03505  0.02297  0.0231  -0.05295  0.8556
6.451e+09  -0.005498  0.9532  0.009778  -0.002732  -0.02067  -0.02148  0.2397  0.8484
6.452e+09  0.3223  0.8916  0.03785  -0.0219  -0.04331  -0.02586  0.506  0.6469
6.454e+09  0.5541  0.6992  -0.0001903  0.02003  -0.01716  0.02578  0.6493  0.5155
6.455e+09  0.7851  0.5206  0.03462  0.02704  0.02929  -0.009632  0.8169  0.2292
6.456e+09  0.8971  0.1457  0.02441  0.00859  -0.0816  0.0002078  0.8632  -0.1028
6.458e+09  0.8895  -0.1498  0.009824  0.0004061  -0.0009033  0.03028  0.7286  -0.365
6.459e+09  0.8006  -0.4957  -0.02371  -0.02313  -0.03311  -0.03437  0.5921  -0.5694
6.46e+09  0.5441  -0.7  -0.02889  0.008713  -0.04983  0.01025  0.3395  -0.7592
6.461e+09  0.3369  -0.8261  -0.00567  -0.03945  0.006181  0.03574  0.06427  -0.8265
6.462e+09  -0.03334  -0.8772  0.02493  -0.02059  0.04794  0.004852  -0.2027  -0.7895
6.464e+09  -0.2767  -0.8218  0.03064  -0.03225  -0.02422  -8.872e-05  -0.4731  -0.6363
6.465e+09  -0.5803  -0.6788  0.0452  -0.01466  -0.03739  -0.01783  -0.732  -0.4857
6.466e+09  -0.7531  -0.4571  0.006105  -0.02743  0.02657  0.00404  -0.7743  -0.1998
6.468e+09  -0.9348  -0.1562  0.01179  -0.002772  -0.02155  0.01991  -0.7737  0.0963
6.469e+09  -0.9076  0.1666  -0.006507  -0.002435  -0.01072  -0.02145  -0.7282  0.3458
6.47e+09  -0.7948  0.4532  0.04016  0.01814  0.006627  -0.007685  -0.589  0.5499
6.471e+09  -0.5991  0.7362  0.001796  0.03573  -0.01947  -0.04619  -0.3125  0.7142
6.472e+09  -0.2759  0.8941  -0.0211  -9.112e-05  -0.01484  0.03948  -0.04968  0.7766
6.474e+09  0.01616  0.911  0.03797  0.02156  0.01804  -0.01333  0.2151  0.751
6.475e+09  0.2965  0.8804  0.01001  -0.01165  0.01794  0.03828  0.4528  0.6092
6.476e+09  0.6412  0.6816  -0.04855  0.02626  -0.03958  -0.02624  0.6316  0.415
6.478e+09  0.8721  0.4244  -0.03314  0.002007  -0.01386  -0.01158  0.7399  0.1735
6.479e+09  0.9113  0.1359  -0.01193  0.04646  0.01619  -0.02549  0.7482  -0.06396
6.48e+09  0.9138  -0.2028  0.01786  0.01667  0.00699  0.03645  0.7286  -0.36
6.481e+09  0.7839  -0.5406  0.03566  -0.03581  -0.0102  0.009719  0.5568  -0.5542
6.482e+09  0.5651  -0.6923  -0.002284  -0.01054  0.01528  0.004092  0.3397  -0.7371
6.484e+09  0.2836  -0.9429  -0.01801  -0.01901  0.009949  -0.005859  0.0805  -0.7632
6.485e+09  -0.06286  -0.9146  0.0235  -0.02048  -0.00782  0.0674  -0.2543  -0.7485
6.486e+09  -0.4069  -0.7998  -0.00292  0.03858  -0.02786  0.01028  -0.417  -0.6192
6.488e+09  -0.6314  -0.7007  -0.006566  0.04263  0.03168  -0.07448  -0.6341  -0.4572
6.489e+09  -0.8514  -0.4043  -0.01752  -0.005212  0.0243  0.01058  -0.7464  -0.2071
6.49e+09  -0.9725  -0.1117  0.02268  -0.009402  0.02062  -0.02903  -0.7561  0.08976
6.491e+09  -0.892  0.2523  -0.03851  0.003474  0.006183  0.01762  -0.689  0.301
6.492e+09  -0.788  0.5635  0.001424  -0.0344  0.04554  0.02678  -0.5499  0.5845
6.494e+09  -0.5763  0.7661  0.03721  0.05325  0.0552  -0.02585  -0.3384  0.6869
6.495e+09  -0.2878  0.9098  0.009782  0.005574  0.01784  -0.04248  -0.02509  0.7821
6.496e+09  0.1183  0.9232  -0.006358  0.04365  -0.02781  0.004013  0.2423  0.7234
6.498e+09  0.3802  0.8525  -0.005182  -0.03845  -0.002593  -0.01234  0.4542  0.6006
6.499e+09  0.6599  0.6247  -0.01026  -0.00957  -0.006063  0.01171  0.6467  0.4129
6.5e+09  0.8397  0.4038  0.02444  -0.006423  0.04248  -0.004698  0.7482  0.1781
6.501e+09  0.9205  0.08954  0.01643  -0.009426  0.01239  -0.03804  0.7665  -0.1361
6.502e+09  0.9554  -0.28  0.02633  0.02169  -0.01787  0.04843  0.6568  -0.3622
6.504e+09  0.8249  -0.5779  0.008817  0.01016  0.03393  -0.04422  0.496  -0.5595
6.505e+09  0.515  -0.8037  -0.02848  -0.02841  -0.02067  -0.01005  0.2907  -0.7087
6.506e+09  0.1854  -0.954  -0.01702  -0.002164  -0.0002294  0.023  0.04199  -0.7709
6.508e+09  -0.108  -0.9469  0.01593  -0.04293  0.04962  -0.04019  -0.235  -0.7267
6.509e+09  -0.4257  -0.8167  0.0172  -0.03951  0.04667  0.01882  -0.4506  -0.6118
6.51e+09  -0.7054  -0.7181  -0.008104  0.003549  0.0129  0.01208  -0.646  -0.395
6.511e+09  -0.8952  -0.327  -0.001566  0.004378  -0.01708  0.03164  -0.7595  -0.1489
6.512e+09  -0.9512  0.03024  -0.02085  0.02358  -0.005268  0.03837  -0.7483  0.1051
6.514e+09  -0.9277  0.3575  0.0154  0.02132  -0.001575  -0.0008768  -0.6536  0.3662
6.515e+09  -0.7469  0.6092  0.01596  0.00248  -0.02435  0.01229  -0.4698  0.5938
6.516e+09  -0.4564  0.8613  -0.01  0.02116  -0.03766  0.014  -0.237  0.6897
6.518e+09  -0.1501  0.9801  0.02492  0.009043  -0.04941  0.03547  0.001846  0.7677
6.519e+09  0.2274  0.9402  0.01743  -0.02178  0.03094  0.06213  0.2599  0.6929
6.52e+09  0.5382  0.7649  0.04036  0.002704  0.0338  0.00244  0.49  0.5987
6.521e+09  0.8115  0.5959  0.001002  -0.000869  -0.01779  -0.009966  0.6745  0.3498
6.522e+09  0.9017  0.3012  0.03668  -0.02162  0.05367  -0.007339  0.7564  0.0798
6.524e+09  0.9828  -0.01734  -0.008717  -0.0005517  0.01566  -0.005795  0.7256  -0.1635
6.525e+09  0.9044  -0.3633  -0.03966  -0.0115  0.02457  -0.009257  0.6231  -0.4309
6.526e+09  0.7075  -0.7055  0.01374  0.0203  0.001463  0.006214  0.4339  -0.5856
6.528e+09  0.3999  -0.8325  0.03337  0.0006007  -0.008731  -0.05388  0.1763  -0.6857
6.529e+09  0.1055  -0.983  -0.04678  0.01801  0.07048  0.01501  -0.02635  -0.6618
6.53e+09  -0.3033  -0.8964  0.04952  -0.004289  0.009464  -0.01662  -0.2833  -0.6253
6.531e+09  -0.5677  -0.8107  -0.02862  0.02316  -0.05023  0.006558  -0.478  -0.5085
6.532e+09  -0.8355  -0.5504  0.01064  -0.01457  -0.04124  -0.01376  -0.606  -0.2775
6.534e+09  -0.9763  -0.2495  -0.01069  -0.01376  -0.0116  0.05796  -0.6511  -0.09213
6.535e+09  -0.9901  0.1225  0.01395  0.003881  -0.0005805  0.02107  -0.6413  0.132
6.536e+09  -0.8874  0.4487  -0.008232  -0.003895  -0.008276  -0.05736  -0.5338  0.3277
6.538e+09  -0.6176  0.7118  0.009275  -0.03473  -0.01621  0.004573  -0.4305  0.469
6.539e+09  -0.3728  0.9398  0.02498  0.01804  -0.03069  0.04057  -0.2952  0.607
6.54e+09  -0.01236  0.96  0.01071  -0.01769  0.008067  0.006315  -0.03343  0.6994
6.541e+09  0.3593  0.9566  -0.006054  -0.003069  0.01393  -0.02646  0.2157  0.6838
6.542e+09  0.6567  0.6899  -0.01258  -0.003479  -0.03293  -0.01721  0.3928  0.576
6.544e+09  0.8234  0.5096  -0.0001729  -0.01137  -0.01921  -0.003675  0.6008  0.4234
6.545e+09  0.9977  0.1682  -0.001501  0.0153  -0.005028  0.03776  0.726  0.2045
6.546e+09  0.9922  -0.1716  -0.001335  0.005664  0.02026  -0.04284  0.7285  -0.08775
6.548e+09  0.7715  -0.4879  -0.0131  0.005727  0.005422  -0.006505  0.6581  -0.3161
6.549e+09  0.5885  -0.7415  -0.03393  0.003883  0.01622  -0.01555  0.499  -0.5254
6.55e+09  0.2813  -0.9359  -0.0082  0.03365  -0.0297  -0.0163  0.2882  -0.6749
