# Hz S RI R 50
6.25e+09  -0.08642  0.8451  -0.007283  -0.0232  0.01486  0.02683  0.1438  0.4955
6.251e+09  0.1342  0.8602  -0.02837  0.0727  -0.004671  0.07267  0.3675  0.3828
6.252e+09  0.4531  0.8158  0.001161  -0.009635  0.002068  -0.0251  0.5158  0.2195
6.254e+09  0.6806  0.5348  -0.01498  -0.009106  0.002859  0.02138  0.5705  0.01214
6.255e+09  0.799  0.2908  0.008277  0.01261  0.01309  0.03578  0.6131  -0.2393
6.256e+09  0.8112  0.01908  0.01337  -0.001203  -0.0005599  0.01018  0.4606  -0.436
6.258e+09  0.823  -0.2856  -0.008624  0.04501  -0.03553  0.003294  0.2979  -0.5916
6.259e+09  0.6571  -0.5438  -0.02277  -0.02048  0.03463  0.009022  0.0437  -0.6544
6.26e+09  0.4515  -0.7675  0.003869  0.0274  -0.008674  -0.01801  -0.2429  -0.6721
6.261e+09  0.1208  -0.8525  -0.00991  0.02387  0.01695  -0.0361  -0.4575  -0.5421
6.262e+09  -0.2011  -0.8185  0.0351  -0.01257  -0.0262  -0.0343  -0.615  -0.3694
6.264e+09  -0.4485  -0.7023  0.02644  -0.01682  -0.03246  -0.04003  -0.6801  -0.09684
6.265e+09  -0.6577  -0.487  -0.01347  0.009603  -0.0298  -0.05795  -0.6788  0.1811
6.266e+09  -0.8001  -0.2713  -0.003002  -0.00972  -0.003546  -0.04736  -0.5816  0.3754
6.268e+09  -0.8347  0.0183  0.02404  -0.02308  0.0155  -0.01337  -0.447  0.5962
6.269e+09  -0.7772  0.3363  -0.005427  -0.0152  -0.04153  0.03023  -0.2038  0.7039
6.27e+09  -0.6664  0.5425  0.005835  -0.01394  -0.0396  0.01372  0.07066  0.751
6.271e+09  -0.3628  0.7541  -0.01584  -0.002347  -0.0005049  -0.02193  0.3075  0.6954
6.272e+09  -0.1079  0.8116  -0.05599  -0.02849  -0.0006365  0.03686  0.5456  0.5165
6.274e+09  0.1714  0.8537  0.0003147  -0.0009412  -0.0333  -0.02047  0.6797  0.2897
6.275e+09  0.428  0.6615  -0.02628  0.004174  -0.01435  0.006105  0.7415  0.01971
6.276e+09  0.6415  0.5241  0.02226  0.007293  -0.02893  -0.0007897  0.7101  -0.2445
6.278e+09  0.8326  0.2015  0.01539  0.005651  0.005842  0.03628  0.5966  -0.4605
6.279e+09  0.8562  -0.07837  -0.007682  0.001807  0.03009  0.006936  0.4076  -0.6217
6.28e+09  0.7598  -0.3234  0.002856  -0.01535  0.008526  -0.01566  0.1878  -0.747
6.281e+09  0.6155  -0.6291  -0.01874  0.01562  -0.01373  -0.01583  -0.112  -0.7939
6.282e+09  0.3674  -0.8419  0.02234  -0.0004986  0.05341  -0.004971  -0.3789  -0.7091
6.284e+09  0.02752  -0.8442  -0.01075  0.02435  -0.0508  0.02077  -0.6292  -0.5102
6.285e+09  -0.1942  -0.793  -0.002925  -0.0362  0.004076  0.05397  -0.7261  -0.2826
6.286e+09  -0.4509  -0.6309  0.01323  0.003101  -0.02681  -0.01355  -0.8024  -0.01475
6.288e+09  -0.6913  -0.4692  0.01475  0.01421  0.01088  -0.002772  -0.7689  0.2342
6.289e+09  -0.7795  -0.1911  0.0162  -0.01103  -0.01479  0.0136  -0.6158  0.4936
6.29e+09  -0.8245  0.09089  0.006617  0.02664  0.02227  -0.008235  -0.4023  0.6816
6.291e+09  -0.7679  0.3514  0.01951  0.0179  0.001177  -0.04154  -0.1474  0.7973
6.292e+09  -0.5787  0.6314  -0.02302  0.004884  0.009355  0.0172  0.1279  0.8042
6.294e+09  -0.3368  0.7978  -0.0184  0.01406  0.06954  0.002971  0.4044  0.6986
6.295e+09  0.01302  0.8178  0.002123  -0.01633  -0.04147  0.004065  0.6022  0.5083
6.296e+09  0.2737  0.7826  -0.0006103  0.0007377  0.07011  0.03584  0.7438  0.3248
6.298e+09  0.5084  0.6447  -0.002961  0.0156  0.01895  -0.02587  0.8231  -0.02465
6.299e+09  0.7554  0.4464  0.003961  0.00795  -0.01268  0.02515  0.7507  -0.2753
6.3e+09  0.8254  0.1364  0.004465  -0.0273  -0.03362  -0.05422  0.633  -0.5351
6.301e+09  0.8307  -0.1241  0.006388  0.01825  0.009967  0.01731  0.4308  -0.7362
6.302e+09  0.7485  -0.3623  0.02327  -0.009359  -0.007128  0.0003662  0.1265  -0.7998
6.304e+09  0.5444  -0.6509  0.03373  0.03334  0.01736  0.02618  -0.1218  -0.8492
6.305e+09  0.2745  -0.7844  0.01485  -0.01201  0.04668  0.08211  -0.417  -0.7513
6.306e+09  0.01348  -0.7999  -0.008704  0.007671  0.01588  -0.01883  -0.65  -0.5535
6.308e+09  -0.2808  -0.7847  0.01767  -0.04432  0.07042  0.02604  -0.8075  -0.3199
6.309e+09  -0.5472  -0.6155  -0.01215  -0.01622  -0.0122  0.02684  -0.8604  -0.01032
6.31e+09  -0.6821  -0.4189  -0.01033  -0.019  -0.02989  -0.01678  -0.8413  0.3381
6.311e+09  -0.8628  -0.1121  0.009597  -0.01672  -0.02167  -0.04914  -0.6784  0.5294
6.312e+09  -0.824  0.193  0.006073  0.00578  -0.03549  -0.02918  -0.4503  0.7175
6.314e+09  -0.7087  0.4358  0.02145  -0.001373  0.03627  -0.05785  -0.1741  0.8783
6.315e+09  -0.5609  0.6852  -0.02333  -0.0498  -0.004494  0.04672  0.1195  0.8601
6.316e+09  -0.2858  0.8132  0.006755  0.007315  -0.03344  -0.02444  0.4252  0.7488
6.318e+09  0.07572  0.8218  -0.01303  -0.0332  -0.007914  -0.00502  0.6669  0.5945
6.319e+09  0.3451  0.77  0.01735  0.001116  0.02457  -0.04263  0.8174  0.3165
6.32e+09  0.657  0.6246  -0.01934  -0.02487  0.04711  -0.015  0.8869  -0.008698
6.321e+09  0.7651  0.3956  0.02594  -0.00345  -0.001381  -0.03096  0.8381  -0.297
6.322e+09  0.8912  0.08757  0.01636  0.009456  0.01575  0.04326  0.7214  -0.5489
6.324e+09  0.8155  -0.2386  -0.004102  -0.03125  -0.05949  0.01743  0.4888  -0.793
6.325e+09  0.7048  -0.4969  0.001574  -0.02169  0.02723  -0.02357  0.1655  -0.8824
6.326e+09  0.4802  -0.7468  0.0003012  0.02342  -0.01514  -0.01201  -0.1347  -0.9212
6.328e+09  0.1749  -0.7868  0.02265  0.01958  0.02682  0.02611  -0.4463  -0.7851
6.329e+09  -0.1062  -0.8645  -0.01011  0.02007  0.001706  0.0541  -0.677  -0.595
6.33e+09  -0.349  -0.7374  -0.02127  -0.03996  -0.009689  -0.00559  -0.8579  -0.3537
6.331e+09  -0.5684  -0.673  0.01721  -0.03381  -0.009246  0.01551  -0.8897  -0.04823
6.332e+09  -0.7858  -0.3474  -0.0111  0.01006  0.0428  0.02386  -0.8306  0.2727
6.334e+09  -0.9123  -0.008414  0.01073  0.00233  -0.01816  -0.02927  -0.7137  0.5996
6.335e+09  -0.8199  0.2932  -0.02115  0.01203  0.02799  0.0493  -0.4446  0.7671
6.336e+09  -0.6998  0.6131  0.03634  -0.004512  -0.03428  0.02739  -0.209  0.8919
6.338e+09  -0.4113  0.7955  7.655e-05  -0.008409  -0.0205  -0.04383  0.1222  0.9473
6.339e+09  -0.1883  0.8977  0.007029  -0.01129  0.0423  -0.009216  0.4436  0.7957
6.34e+09  0.1404  0.8843  -0.006588  0.00445  -0.02399  0.001743  0.7021  0.6549
6.341e+09  0.4623  0.7765  -0.007495  -0.02503  -0.001639  0.006589  0.8656  0.3699
6.342e+09  0.6534  0.5533  0.001208  -0.005563  0.01217  0.0105  0.9058  0.05413
6.344e+09  0.8596  0.3266  -0.02297  0.01929  -0.02108  -0.02033  0.9016  -0.2786
6.345e+09  0.8639  -0.03456  -0.01603  -0.03521  -0.002389  0.005038  0.7474  -0.5434
6.346e+09  0.7841  -0.3172  0.007245  0.001364  0.05679  0.0008448  0.4995  -0.8021
6.348e+09  0.683  -0.6217  -0.01967  0.006191  0.003445  -0.02936  0.2007  -0.9109
6.349e+09  0.3656  -0.7631  0.002508  0.01055  -0.008782  -0.01698  -0.06887  -0.9193
6.35e+09  0.1026  -0.8786  0.01213  -0.02052  0.03648  -0.04474  -0.3761  -0.8276
6.351e+09  -0.2279  -0.8775  0.01457  0.01485  0.01734  -0.007875  -0.683  -0.6513
6.352e+09  -0.477  -0.7299  -0.01003  -0.04181  -0.01063  -0.03368  -0.8591  -0.4157
6.354e+09  -0.7161  -0.4985  0.00324  -0.00128  0.006206  0.03849  -0.9311  -0.03901
6.355e+09  -0.8796  -0.2193  0.01059  0.01053  0.001569  -0.07638  -0.9155  0.2848
6.356e+09  -0.8512  0.04871  0.0005621  -0.01388  0.007017  -0.008946  -0.7928  0.5704
6.358e+09  -0.8186  0.3676  -0.005907  0.01352  0.02541  -0.03372  -0.5444  0.8094
6.359e+09  -0.5964  0.6846  -0.007828  0.006391  -0.01241  -0.007743  -0.21  0.8673
6.36e+09  -0.315  0.8404  -0.02721  -0.009204  -0.01926  -0.02774  0.1015  0.9417
6.361e+09  -0.06982  0.8849  -0.00537  0.004525  0.04646  -0.03708  0.4074  0.893
6.362e+09  0.266  0.8664  0.01505  0.01432  -0.02906  -0.00346  0.6736  0.6435
6.364e+09  0.5332  0.7137  0.01225  0.001494  0.04462  0.01063  0.8888  0.4264
6.365e+09  0.775  0.5361  -0.01189  -0.004282  0.01433  -0.05669  0.9756  0.1037
6.366e+09  0.8515  0.1128  0.003419  0.02365  -0.01632  -0.03602  0.9454  -0.2674
6.368e+09  0.8383  -0.1199  -0.01495  0.03604  0.0002835  -0.03984  0.8072  -0.5714
6.369e+09  0.8045  -0.4402  -0.002689  -0.009158  -0.007977  -0.03162  0.5618  -0.7533
6.37e+09  0.6182  -0.6729  0.01263  0.006041  0.009748  0.005892  0.209  -0.8953
6.371e+09  0.3134  -0.8022  0.005095  -0.007214  0.03864  0.04395  -0.09881  -0.9637
6.372e+09  -0.04035  -0.9111  -0.01963  -0.02175  0.03674  0.01141  -0.3888  -0.8709
6.374e+09  -0.3467  -0.8699  0.01302  0.008981  0.04401  0.01839  -0.6343  -0.668
6.375e+09  -0.5812  -0.6597  0.01927  0.02283  0.01696  0.05485  -0.8148  -0.3999
6.376e+09  -0.7303  -0.4516  -0.007221  0.03065  0.02223  -0.03199  -0.9403  -0.09939
6.378e+09  -0.8828  -0.0964  -0.008635  -0.04474  -0.0358  -0.005451  -0.8919  0.2366
6.379e+09  -0.8789  0.1999  -0.0164  -0.01385  -0.03901  -0.01361  -0.797  0.5446
6.38e+09  -0.7672  0.4778  0.008042  -0.04949  -0.02691  -0.03572  -0.5438  0.7521
6.381e+09  -0.5441  0.7267  -0.0393  -0.02295  -0.002084  -0.0004508  -0.3019  0.8941
6.382e+09  -0.2897  0.8648  0.006993  0.02633  0.0141  -0.00701  0.08279  0.9132
6.384e+09  0.05087  0.8603  -0.0109  -0.03063  0.01212  0.03424  0.3639  0.8509
6.385e+09  0.3251  0.7958  0.01701  -0.01329  -0.01829  0.001225  0.6338  0.7064
6.386e+09  0.5858  0.6679  -0.01297  0.01074  -0.01255  0.04407  0.8665  0.412
6.388e+09  0.8348  0.3969  0.009633  0.03304  0.007392  0.01461  0.922  0.09158
6.389e+09  0.9096  0.1097  0.004637  0.002571  -0.03838  0.03323  0.914  -0.1905
6.39e+09  0.8629  -0.1509  -0.0127  0.01856  -0.01086  -0.006568  0.7837  -0.4663
6.391e+09  0.6972  -0.4863  0.01631  -0.06152  -0.04151  0.05714  0.5595  -0.7005
6.392e+09  0.5548  -0.731  0.0005047  0.02042  0.003488  0.03789  0.2864  -0.902
6.394e+09  0.2694  -0.8598  -0.02468  0.00391  0.04016  -0.01289  -0.0274  -0.948
6.395e+09  -0.04102  -0.9105  -0.001805  -0.01013  -0.02521  -0.01502  -0.3622  -0.8158
6.396e+09  -0.3809  -0.8504  -0.03676  -0.02255  0.01697  0.05957  -0.5968  -0.6792
6.398e+09  -0.6557  -0.6179  -0.01556  0.008386  0.01283  0.003988  -0.8039  -0.504
6.399e+09  -0.8163  -0.4013  0.01918  -0.03372  0.01173  0.01533  -0.9229  -0.1533
6.4e+09  -0.926  -0.09084  -0.01146  0.01257  -0.01584  0.02078  -0.8895  0.1444
6.401e+09  -0.8648  0.2225  -0.03738  -0.006668  0.01585  0.002221  -0.8086  0.4775
6.402e+09  -0.749  0.5316  -0.01732  0.02089  0.02674  0.02303  -0.5827  0.7043
6.404e+09  -0.5061  0.7278  -0.02649  0.03122  -0.02748  0.03285  -0.3049  0.8826
6.405e+09  -0.1764  0.8555  0.0005502  -0.01921  0.06515  -0.0225  -0.01601  0.9175
6.406e+09  0.0542  0.8383  0.01991  0.0273  -0.02703  -0.01916  0.3197  0.8729
6.408e+09  0.4046  0.8028  0.001317  0.01094  -0.02967  0.002392  0.569  0.7025
6.409e+09  0.6294  0.5744  -0.01457  -0.0005931  -0.0183  -0.03081  0.7841  0.4832
6.41e+09  0.839  0.3359  0.03752  0.05745  0.004255  0.01669  0.9524  0.1955
6.411e+09  0.8637  0.02345  -0.006138  -0.01155  -0.02617  0.04811  0.9217  -0.1437
6.412e+09  0.8664  -0.2579  -3.323e-05  0.09649  0.002752  0.007809  0.7992  -0.4412
6.414e+09  0.7276  -0.538  0.004566  0.008024  0.01443  -0.01348  0.6569  -0.6819
6.415e+09  0.5383  -0.7269  -0.006048  -0.03413  0.0277  0.048  0.321  -0.8245
6.416e+09  0.1731  -0.8689  -0.0005742  0.007093  0.001451  0.04763  0.03306  -0.9169
6.418e+09  -0.114  -0.8852  -0.006134  -0.0139  0.04119  0.00172  -0.3272  -0.8409
6.419e+09  -0.3967  -0.7778  0.03949  -0.04584  0.001831  0.03747  -0.5331  -0.6461
6.42e+09  -0.6499  -0.6934  -0.009284  0.01087  0.0201  -0.03143  -0.7931  -0.4482
6.421e+09  -0.815  -0.3435  0.02761  0.003535  0.01267  -0.03824  -0.8593  -0.1951
6.422e+09  -0.8561  -0.03367  -0.02194  -0.02502  0.04232  -0.03495  -0.8831  0.126
6.424e+09  -0.9144  0.2688  0.01411  0.02931  -0.0162  0.01139  -0.7484  0.3933
6.425e+09  -0.6502  0.5656  0.02839  -0.00766  -0.03275  0.01799  -0.6077  0.6747
6.426e+09  -0.4388  0.7734  -0.01925  0.07517  0.01058  -0.00109  -0.3679  0.8408
6.428e+09  -0.1684  0.8332  -0.03673  -0.02423  0.03164  -0.004747  -0.06006  0.8462
6.429e+09  0.06938  0.8876  -0.001441  -0.03114  0.0103  0.07823  0.2479  0.818
6.43e+09  0.4335  0.7658  -0.00756  -0.005789  0.04374  -0.01027  0.5136  0.7053
6.431e+09  0.6326  0.622  -0.00156  0.02739  -0.02227  0.004907  0.7221  0.5427
6.432e+09  0.806  0.3371  -0.0403  0.02062  -0.0185  -0.003101  0.8757  0.2028
6.434e+09  0.878  0.01762  0.02233  0.04252  -0.04506  0.03159  0.921  -0.1098
6.435e+09  0.8557  -0.2992  0.005755  0.009116  0.02019  -0.02657  0.824  -0.3216
6.436e+09  0.709  -0.5592  0.0101  -0.01396  0.000281  0.007566  0.5965  -0.6223
6.438e+09  0.4374  -0.7558  -0.02019  0.01507  0.01959  0.03669  0.3315  -0.7951
6.439e+09  0.1561  -0.8827  0.0138  0.01336  -0.01818  -0.02333  0.06405  -0.8229
6.44e+09  -0.1793  -0.8757  0.01682  0.007269  0.02209  -0.0003712  -0.1992  -0.8388
6.441e+09  -0.4731  -0.8063  0.02844  -0.008449  0.02229  0.02155  -0.5362  -0.6958
6.442e+09  -0.7125  -0.616  0.02307  0.01368  -0.02072  0.007107  -0.7137  -0.4608
6.444e+09  -0.8602  -0.2998  0.008979  0.007698  -0.03358  0.007419  -0.79  -0.155
6.445e+09  -0.8722  -0.02773  -0.006629  -0.05581  -0.02604  -0.007879  -0.8612  0.03796
6.446e+09  -0.8224  0.2852  0.001832  -0.02224  0.01073  -0.01597  -0.801  0.3596
6.448e+09  -0.7011  0.5942  0.003411  -0.005089  -0.003111  0.01677  -0.6265  0.6473
6.449e+09  -0.4343  0.8651  -0.01296  0.00553  0.002966  -0.01836  -0.3668  0.788
6.45e+09  -0.09791  0.8709  0.007611  -0.01246  0.02864  -0.008119  -0.1084  0.8179
6.451e+09  0.133  0.922  -0.01393  -0.03571  -0.008539  0.007369  0.2382  0.8338
6.452e+09  0.4301  0.7623  0.01067  -0.007228  0.02197  0.001536  0.4744  0.6725
6.454e+09  0.7198  0.5883  -0.001066  0.01761  0.03904  0.05306  0.6469  0.4463
6.455e+09  0.8552  0.3315  -0.0342  -0.007937  -0.01137  0.004803  0.8033  0.2127
6.456e+09  0.9066  -0.04144  0.002473  0.03868  -0.02854  0.03802  0.8402  -0.1252
6.458e+09  0.8587  -0.316  0.02295  -0.03527  0.03663  0.01616  0.7139  -0.3757
6.459e+09  0.6874  -0.6427  0.006342  -0.0002917  -0.01275  0.03102  0.5954  -0.5492
6.46e+09  0.4621  -0.7416  0.01589  -0.01686  0.03144  0.03166  0.3462  -0.7066
6.461e+09  0.12  -0.8998  -0.02991  0.02251  -0.01292  0.04813  0.07274  -0.7832
6.462e+09  -0.1835  -0.9168  0.00205  -0.03834  -0.01896  0.03855  -0.2054  -0.7732
6.464e+09  -0.5032  -0.7767  0.02412  0.008338  0.004096  0.03615  -0.4657  -0.7144
6.465e+09  -0.7124  -0.6251  -0.004059  0.02859  0.0249  -0.03638  -0.6471  -0.4766
6.466e+09  -0.8858  -0.3123  -0.02523  -0.03892  -0.02518  0.0359  -0.7817  -0.2037
6.468e+09  -0.9107  0.03601  0.008402  -0.04262  0.02137  0.004776  -0.7865  0.08271
6.469e+09  -0.8816  0.3738  -0.02704  0.02346  -0.0008747  -0.0127  -0.719  0.3372
6.47e+09  -0.7002  0.6122  0.01279  0.01862  -0.02521  0.01758  -0.5991  0.5599
6.471e+09  -0.4122  0.8327  -0.03448  0.02196  -0.002693  0.02245  -0.2907  0.7168
6.472e+09  -0.103  0.938  0.01009  0.05489  -0.002263  0.02159  -0.07274  0.8067
6.474e+09  0.2689  0.9015  0.003565  -0.009317  -0.02185  0.01286  0.2118  0.7659
6.475e+09  0.5282  0.7523  -0.03074  0.0244  0.02046  0.03229  0.4953  0.6678
6.476e+09  0.7093  0.551  0.03259  -0.009454  -0.01315  0.03812  0.6705  0.4728
6.478e+09  0.9339  0.2231  0.04709  -0.02091  -0.03935  -0.02282  0.7944  0.2425
6.479e+09  0.9537  -0.09689  0.004672  0.002367  0.02599  -0.009925  0.8051  -0.06854
6.48e+09  0.8299  -0.3841  0.02089  0.03214  -0.001509  0.001534  0.6968  -0.3133
6.481e+09  0.6484  -0.6808  0.04691  0.002824  0.006657  0.004437  0.5668  -0.5626
6.482e+09  0.3465  -0.8647  0.03107  -0.003008  -0.00758  -0.04168  0.3106  -0.7397
6.484e+09  0.01263  -0.9253  0.005032  0.04208  -0.01128  0.03752  0.04973  -0.7321
6.485e+09  -0.2973  -0.9372  -0.01073  -0.03052  0.01347  0.01801  -0.2  -0.7609
6.486e+09  -0.6088  -0.8053  -0.002859  -0.002456  0.01495  7.798e-05  -0.4557  -0.6184
6.488e+09  -0.7994  -0.4321  0.03084  0.0348  0.01778  0.01866  -0.6974  -0.4372
6.489e+09  -0.9621  -0.186  0.006911  0.009452  -0.02197  -0.02337  -0.7677  -0.1812
6.49e+09  -0.944  0.1045  0.006468  -0.0514  -0.02137  -0.03965  -0.7466  0.08963
6.491e+09  -0.8094  0.4603  -0.02343  0.03099  0.01357  -0.04365  -0.6663  0.3285
6.492e+09  -0.6323  0.7252  -0.02186  -0.03305  -0.06832  -0.001187  -0.5407  0.567
6.494e+09  -0.3359  0.8729  0.004849  0.04553  0.01995  -0.007583  -0.2876  0.7225
6.495e+09  0.005014  0.9658  -0.002509  -0.01526  0.02861  -0.03031  -0.03583  0.7785
6.496e+09  0.3673  0.891  0.03162  -0.02723  0.0005104  0.02319  0.2249  0.7135
6.498e+09  0.6094  0.7404  0.01397  0.03019  -0.01877  -0.03609  0.4766  0.6393
6.499e+09  0.8361  0.4847  -0.007334  0.005752  -0.01356  0.03644  0.6474  0.3851
6.5e+09  0.9089  0.1545  0.01285  0.01185  -0.0185  -0.01151  0.7751  0.2207
6.501e+09  0.9512  -0.23  -0.01256  0.02444  -0.01451  -0.005563  0.7523  -0.1019
6.502e+09  0.8772  -0.5447  -0.009379  -0.007488  -0.009465  0.03974  0.6747  -0.3837
6.504e+09  0.5828  -0.8106  -0.01812  0.02393  0.02644  -0.009272  0.5034  -0.5893
6.505e+09  0.2774  -0.9373  -0.01284  -0.01013  0.01153  -0.01858  0.3076  -0.6729
6.506e+09  -0.02647  -0.9842  -0.01252  -0.02288  0.003338  -0.004106  0.03102  -0.763
6.508e+09  -0.4021  -0.8543  -4.445e-06  0.003107  0.05712  -0.01509  -0.2824  -0.7146
6.509e+09  -0.7263  -0.7053  -0.002659  0.002803  -0.009651  -0.0437  -0.4809  -0.5596
6.51e+09  -0.892  -0.4014  -0.01963  0.004709  0.02599  -0.01242  -0.6563  -0.4092
6.511e+09  -1.016  -0.1115  0.02427  -0.01131  0.01776  -0.02271  -0.7268  -0.1443
6.512e+09  -0.9292  0.3017  -0.0277  -0.008327  -0.057  -0.05093  -0.7226  0.1081
6.514e+09  -0.7823  0.5734  0.034  -0.001798  -0.02195  0.002144  -0.6553  0.3866
6.515e+09  -0.5511  0.8172  -0.02096  -0.00919  0.01068  -0.007697  -0.4645  0.5673
6.516e+09  -0.2355  0.9811  -0.001156  0.01111  -0.04584  0.015  -0.287  0.7223
6.518e+09  0.1316  0.9394  -0.01409  -0.005409  -0.00963  -0.03265  -0.00337  0.7682
6.519e+09  0.4781  0.8855  0.001159  0.002744  0.01439  -0.016  0.2566  0.6906
6.52e+09  0.6842  0.6672  0.04565  -0.01163  0.0198  0.01802  0.5054  0.5441
6.521e+09  0.9034  0.2959  0.0216  -0.005662  0.0178  -0.009843  0.6708  0.3471
6.522e+09  0.9984  0.002572  0.03332  0.007286  -0.04663  -0.02798  0.7368  0.102
6.524e+09  0.9188  -0.3605  0.00253  0.009124  -0.006422  -0.02024  0.7414  -0.1852
6.525e+09  0.7321  -0.6522  -0.0004095  -0.00666  0.01449  0.01197  0.6124  -0.3896
6.526e+09  0.4795  -0.8327  -0.0001807  0.02602  -0.008425  0.01173  0.4156  -0.6286
6.528e+09  0.105  -0.9538  0.00547  -0.02172  0.02431  -0.03041  0.2318  -0.689
6.529e+09  -0.2357  -0.9891  -0.01683  0.03402  -0.01896  0.02751  -0.05133  -0.707
6.53e+09  -0.5566  -0.8247  0.0176  0.003187  0.0003269  0.01785  -0.2902  -0.6251
6.531e+09  -0.7696  -0.5171  -0.009043  -0.003179  0.01358  -0.004133  -0.4577  -0.4976
6.532e+09  -0.9591  -0.2164  -0.03373  0.007377  0.05723  -0.011  -0.6137  -0.2719
6.534e+09  -1.001  0.06891  0.001676  0.002472  -0.01746  -0.000247  -0.6442  -0.07764
6.535e+09  -0.8433  0.4524  0.04262  -0.03986  0.0001369  -0.0163  -0.6622  0.08944
6.536e+09  -0.6861  0.7028  -0.006945  -0.01775  -0.02069  -0.03174  -0.5439  0.2978
6.538e+09  -0.4075  0.9166  -0.007189  0.06507  0.01804  -0.02807  -0.4856  0.4788
6.539e+09  -0.09338  0.9694  -0.009341  -0.01726  -0.02004  -0.06228  -0.2833  0.5937
6.54e+09  0.3181  0.9174  -0.005575  0.01382  0.006935  0.03622  -0.08397  0.6738
6.541e+09  0.5997  0.7281  -0.03809  -0.02626  -0.03199  -0.017  0.18  0.6603
6.542e+09  0.7655  0.5546  -0.004775  -0.01229  0.04109  -0.009736  0.4276  0.5876
6.544e+09  0.9797  0.215  -0.01227  -0.008915  0.01536  -0.01269  0.5982  0.426
6.545e+09  0.9195  -0.197  0.005794  -0.026  -0.02356  0.01772  0.6716  0.1473
6.546e+09  0.8236  -0.4541  0.01045  -0.01081  -0.009023  -0.03779  0.7418  -0.06635
6.548e+09  0.6084  -0.6946  -0.002969  -0.003349  -0.005601  0.01345  0.6671  -0.3233
6.549e+09  0.3321  -0.9219  -0.02659  -0.004932  -0.02855  0.03521  0.5128  -0.5298
6.55e+09  -0.05135  -0.8908  0.01775  -0.004826  0.004529  -0.0273  0.2554  -0.6797
