# Hz S RI R 50
6.25e+09  -0.06177  0.8612  -0.005582  -0.02025  -0.02197  -0.0158  0.163  0.4679
6.251e+09  0.2047  0.7715  -0.009827  -0.01703  -0.003279  0.01614  0.3926  0.4286
6.252e+09  0.4987  0.7646  -0.02147  0.02316  0.03386  0.009603  0.5194  0.2336
6.254e+09  0.6722  0.5146  -0.01824  0.01192  0.02011  -0.01544  0.5693  -0.001825
6.255e+09  0.8434  0.221  0.03196  0.007693  0.01802  -0.004589  0.6416  -0.2147
6.256e+09  0.8281  -0.08349  -0.02132  0.003855  -0.009562  0.01348  0.4451  -0.4563
6.258e+09  0.8041  -0.393  0.01605  -0.003527  0.01894  -0.01505  0.2597  -0.6222
6.259e+09  0.6013  -0.6215  0.0002921  0.007839  0.001378  0.002072  0.04193  -0.7046
6.26e+09  0.3197  -0.7747  0.0245  -0.03341  -0.07199  -0.1085  -0.2249  -0.6435
6.261e+09  0.066  -0.863  -0.005743  0.006474  -0.009771  -0.02666  -0.4189  -0.5174
6.262e+09  -0.2244  -0.8145  0.02689  0.001859  -0.04524  -0.001736  -0.6125  -0.3328
6.264e+09  -0.4557  -0.6939  -0.01248  0.003712  -0.02507  0.04861  -0.7103  -0.08772
6.265e+09  -0.7534  -0.4397  0.01807  0.003729  -0.03151  -0.03854  -0.6995  0.1828
6.266e+09  -0.8039  -0.1901  0.02949  -0.009363  -0.06028  0.03394  -0.6061  0.4071
6.268e+09  -0.8135  0.08884  -0.02034  0.01604  -0.004311  -0.03953  -0.453  0.6208
6.269e+09  -0.7538  0.3793  0.0358  -0.0323  0.02508  0.02805  -0.2279  0.7175
6.27e+09  -0.6185  0.5637  0.01046  0.01731  0.04217  -0.01982  0.05099  0.7442
6.271e+09  -0.3596  0.7746  0.007741  -0.003763  0.001259  -0.01266  0.3268  0.6979
6.272e+09  -0.07754  0.8571  0.003936  0.0188  0.01155  -0.04358  0.5259  0.545
6.274e+09  0.2221  0.7519  -0.01879  0.004226  0.01295  0.006263  0.7228  0.3055
6.275e+09  0.5229  0.6804  -0.001757  0.03025  -0.01041  -0.02815  0.7653  0.05746
6.276e+09  0.6839  0.4371  0.006543  0.01045  0.01077  -0.03483  0.7429  -0.2323
6.278e+09  0.7614  0.2339  0.0006282  -0.01965  -0.02972  -0.06392  0.6232  -0.4669
6.279e+09  0.8429  -0.1184  0.02036  0.02911  0.009698  0.01225  0.4164  -0.6534
6.28e+09  0.7336  -0.3897  -0.01648  -0.008317  0.01557  0.01754  0.1582  -0.7638
6.281e+09  0.5536  -0.6365  -0.002621  -0.02912  -0.02125  0.01448  -0.1003  -0.7582
6.282e+09  0.3191  -0.7706  -0.01751  0.01244  0.01281  -0.03773  -0.3566  -0.6871
6.284e+09  0.0641  -0.8363  -8.501e-05  -0.02146  0.04769  -0.0139  -0.5717  -0.507
6.285e+09  -0.1881  -0.7365  -0.004319  0.01408  0.002808  -0.02245  -0.7283  -0.2929
6.286e+09  -0.489  -0.6219  -0.01624  -0.004051  -0.007227  -0.005684  -0.7985  -0.004669
6.288e+09  -0.7507  -0.4314  -0.01522  -0.01774  0.006909  -0.02188  -0.765  0.2353
6.289e+09  -0.8574  -0.1849  0.003218  -0.009893  -0.01398  0.006263  -0.6153  0.448
6.29e+09  -0.8443  0.1763  -0.00834  -0.00923  0.006211  0.04712  -0.3975  0.6727
6.291e+09  -0.7018  0.4423  0.0325  0.005045  -0.01181  -0.04035  -0.1457  0.7935
6.292e+09  -0.5252  0.6097  -0.02366  0.02332  -0.008951  0.01865  0.1476  0.8065
6.294e+09  -0.2897  0.8371  -0.005281  0.006975  0.03056  -0.008253  0.3713  0.7261
6.295e+09  0.02907  0.8652  0.01866  -0.01431  -0.04653  0.01286  0.6356  0.5302
6.296e+09  0.2857  0.7155  -0.006589  -0.02169  0.03545  -0.02219  0.7676  0.2969
6.298e+09  0.5764  0.5668  0.01912  -0.01665  -0.04143  0.03514  0.8332  0.01152
6.299e+09  0.7128  0.3886  0.0139  8.436e-05  0.03861  0.02887  0.7787  -0.2621
6.3e+09  0.8594  0.1441  -0.007377  -0.004153  0.01437  -0.01212  0.6698  -0.5363
6.301e+09  0.8063  -0.24  0.02826  -0.02489  -0.02186  -0.02102  0.4026  -0.7122
6.302e+09  0.7004  -0.4623  -0.002121  0.03531  0.03114  0.01237  0.1484  -0.8494
6.304e+09  0.4786  -0.6964  0.05299  -0.04829  0.006611  -0.05286  -0.1551  -0.8502
6.305e+09  0.2666  -0.8535  0.01228  0.01955  0.00542  0.03431  -0.4352  -0.749
6.306e+09  -0.02112  -0.8384  0.009336  -0.005764  -0.002174  0.02191  -0.6418  -0.5589
6.308e+09  -0.333  -0.7754  0.02806  -0.009296  0.00306  0.00271  -0.7838  -0.3111
6.309e+09  -0.5621  -0.6464  0.005971  -0.001543  0.005855  0.01312  -0.8707  -0.01473
6.31e+09  -0.7927  -0.3353  0.007022  -0.002242  -0.005691  0.001416  -0.8278  0.2941
6.311e+09  -0.8207  -0.05734  -0.01579  -0.005884  0.009233  0.03112  -0.6675  0.5462
6.312e+09  -0.7836  0.2182  0.003349  0.009921  -0.02603  -0.01197  -0.4258  0.7606
6.314e+09  -0.7135  0.4597  0.006019  0.01107  -0.002194  0.02179  -0.1656  0.8344
6.315e+09  -0.491  0.7058  0.00696  0.01092  -0.01844  0.02429  0.1373  0.8479
6.316e+09  -0.2109  0.8457  0.00347  0.02267  -0.02716  0.01273  0.4198  0.7371
6.318e+09  0.07804  0.8649  0.009501  -0.01112  -0.01096  -0.03306  0.6742  0.5963
6.319e+09  0.4141  0.7871  -0.01679  -0.005751  -0.01159  -0.01441  0.7984  0.2723
6.32e+09  0.6488  0.5567  -0.01982  -0.01353  -0.008939  -0.04862  0.8864  -0.02858
6.321e+09  0.7714  0.3385  -0.04168  -0.03361  0.05347  0.01209  0.859  -0.2907
6.322e+09  0.8908  0.0418  -0.01924  0.00807  0.02403  0.05527  0.6745  -0.5672
6.324e+09  0.8094  -0.2805  -0.006584  -0.002017  -0.01353  -0.02799  0.4463  -0.764
6.325e+09  0.63  -0.5455  -0.009625  -0.0168  -0.00201  0.03019  0.1786  -0.883
6.326e+09  0.4293  -0.7223  -0.01799  -0.01043  0.02915  0.01136  -0.1617  -0.8868
6.328e+09  0.1814  -0.8954  -0.01519  -0.02496  0.03507  -0.013  -0.4267  -0.7856
6.329e+09  -0.1231  -0.8603  -0.01734  -0.01596  -0.01056  0.007893  -0.6836  -0.5841
6.33e+09  -0.4481  -0.7486  -0.03568  -0.002209  0.02848  0.03399  -0.8449  -0.3275
6.331e+09  -0.6911  -0.545  0.01511  0.008066  -0.04208  0.04112  -0.8848  -0.03385
6.332e+09  -0.8178  -0.3108  -0.04953  -0.04097  -0.01367  -0.001787  -0.875  0.2565
6.334e+09  -0.8988  -0.002661  0.01516  0.02241  0.01915  -0.004606  -0.7578  0.5752
6.335e+09  -0.8222  0.3254  -0.01663  -0.002077  0.02203  0.00914  -0.457  0.8077
6.336e+09  -0.6474  0.6145  -0.01163  -0.003381  -0.04954  0.03229  -0.2564  0.8869
6.338e+09  -0.3933  0.7468  0.03878  0.03505  -0.025  -0.01731  0.1376  0.8737
6.339e+09  -0.1173  0.8966  -0.00465  -0.03654  -0.008656  0.01413  0.3911  0.7896
6.34e+09  0.2553  0.8786  0.02613  0.01319  0.01572  -0.03189  0.7281  0.616
6.341e+09  0.5323  0.7278  0.03627  -0.02882  -0.03466  -0.01052  0.8522  0.3623
6.342e+09  0.7609  0.4997  0.001764  0.007215  -0.03019  0.009039  0.937  0.05844
6.344e+09  0.8345  0.2171  0.01524  -0.01303  -0.0006081  -0.03428  0.8727  -0.2884
6.345e+09  0.8723  -0.1031  0.004516  0.009556  -0.02532  -0.03336  0.738  -0.558
6.346e+09  0.8056  -0.4226  -0.03779  0.01575  -0.04168  -0.01018  0.4948  -0.7911
6.348e+09  0.603  -0.6524  0.003254  0.03153  -0.06687  -0.02512  0.2067  -0.8941
6.349e+09  0.377  -0.8004  0.04002  -0.005369  -0.02493  0.008913  -0.1157  -0.9305
6.35e+09  0.02227  -0.8967  0.01347  0.01754  -0.003732  -0.004593  -0.4278  -0.861
6.351e+09  -0.259  -0.8329  0.01529  0.05288  0.02566  0.04828  -0.72  -0.6529
6.352e+09  -0.542  -0.7015  -0.002769  0.03077  -0.007482  -0.009533  -0.879  -0.3895
6.354e+09  -0.783  -0.4604  0.005825  -0.001493  0.005842  -0.003212  -0.9516  -0.0946
6.355e+09  -0.8835  -0.1978  0.003434  -0.0177  -0.01448  -0.003241  -0.9043  0.2526
6.356e+09  -0.9145  0.1158  0.004722  -0.002484  0.009542  0.004765  -0.7756  0.5834
6.358e+09  -0.7559  0.4106  0.02373  -0.00522  -0.007281  -0.0129  -0.5159  0.7997
6.359e+09  -0.5582  0.6865  0.01504  -0.03225  0.02612  0.002136  -0.217  0.9306
6.36e+09  -0.2578  0.8394  -0.009908  -0.00152  -0.03061  0.02872  0.1324  0.9499
6.361e+09  -0.001569  0.9288  -0.0137  0.0112  0.007289  0.04748  0.4294  0.8375
6.362e+09  0.3724  0.8433  -0.03365  0.03051  0.003117  0.002397  0.6827  0.6588
6.364e+09  0.5879  0.678  -0.01082  -0.003805  0.002275  -0.01078  0.8301  0.3693
6.365e+09  0.8125  0.4387  0.01444  0.02872  -0.03026  -0.04556  0.9178  0.08835
6.366e+09  0.9017  0.1431  -0.006178  0.00612  -0.06778  -0.000298  0.9035  -0.2505
6.368e+09  0.8021  -0.1896  -0.01394  -0.03082  0.007523  -0.004817  0.7509  -0.5266
6.369e+09  0.7183  -0.4719  -0.01351  -0.0427  -0.006277  -0.01596  0.5504  -0.7647
6.37e+09  0.5027  -0.7547  -0.04505  0.01694  0.005573  -0.02381  0.2763  -0.9276
6.371e+09  0.2547  -0.8711  0.04556  0.02053  0.01636  0.0154  -0.1164  -0.9949
6.372e+09  -0.1125  -0.8749  -0.01898  0.006436  0.06731  0.01452  -0.3887  -0.8395
6.374e+09  -0.3902  -0.793  -0.02366  -0.02289  -0.008457  -0.02298  -0.6408  -0.7307
6.375e+09  -0.6323  -0.6586  0.03813  -0.01888  0.01926  -0.01859  -0.8561  -0.429
6.376e+09  -0.8295  -0.3374  0.01991  0.003097  -0.02441  -0.01022  -0.906  -0.1396
6.378e+09  -0.9165  -0.03847  -0.003377  -0.004664  -0.0136  0.008064  -0.9139  0.2291
6.379e+09  -0.8422  0.264  -0.0268  0.008653  0.01393  0.01372  -0.7762  0.5628
6.38e+09  -0.7585  0.4886  -0.008446  0.01302  0.007294  0.01342  -0.5319  0.7543
6.381e+09  -0.5017  0.7738  0.01778  -0.009276  0.0157  0.04576  -0.2262  0.8765
6.382e+09  -0.2189  0.8823  -0.003176  0.002749  -0.0123  0.01772  0.0367  0.9827
6.384e+09  0.1034  0.8841  -0.02422  0.02441  0.02875  -0.02179  0.3652  0.8808
6.385e+09  0.405  0.7991  -0.01591  -0.006665  0.01596  0.02679  0.6448  0.6879
6.386e+09  0.6532  0.6095  -0.02386  -0.0004766  -0.01588  0.0333  0.828  0.4039
6.388e+09  0.852  0.3045  0.00973  0.04569  0.01029  -0.005542  0.9273  0.09102
6.389e+09  0.8985  0.06799  -0.02481  -0.02141  -0.02107  0.01978  0.9195  -0.1759
6.39e+09  0.8252  -0.2992  0.03115  -0.0009418  0.004105  0.02012  0.7597  -0.5265
6.391e+09  0.6657  -0.5382  -0.02735  0.02277  -0.03532  -0.05412  0.5583  -0.7302
6.392e+09  0.4455  -0.7625  0.01496  0.005171  0.02729  -0.004886  0.2991  -0.8675
6.394e+09  0.1515  -0.8778  -0.05405  0.00119  -0.0401  -0.02435  -0.03475  -0.95
6.395e+09  -0.1316  -0.89  0.04371  -0.02382  -0.004683  0.02146  -0.3567  -0.8967
6.396e+09  -0.4144  -0.8101  0.0407  -0.05969  0.000192  -0.001611  -0.6322  -0.6657
6.398e+09  -0.689  -0.5937  -0.005634  -0.01788  -0.03285  -0.02254  -0.8302  -0.4479
6.399e+09  -0.8324  -0.3266  0.00622  -0.06264  0.02138  -0.002669  -0.8855  -0.1448
6.4e+09  -0.9025  0.007744  0.03864  -0.03278  -0.03455  0.03287  -0.8991  0.211
6.401e+09  -0.8619  0.2852  -0.01401  0.01628  0.01914  -0.01285  -0.771  0.4345
6.402e+09  -0.693  0.6067  0.0178  -0.01728  -0.01201  -0.008087  -0.6066  0.7032
6.404e+09  -0.4335  0.757  0.006629  -0.02676  0.007667  0.0171  -0.3273  0.8423
6.405e+09  -0.1395  0.8683  0.04113  0.005853  0.02501  -0.0119  0.02088  0.8719
6.406e+09  0.1657  0.8832  0.04653  0.02747  -0.05154  0.01137  0.2788  0.8636
6.408e+09  0.4408  0.7806  -0.01255  0.001476  0.005524  -0.03531  0.587  0.675
6.409e+09  0.7113  0.5845  -0.008411  -0.004556  -0.08522  0.04534  0.7786  0.4555
6.41e+09  0.819  0.3118  -0.00936  0.003478  -0.002314  0.003692  0.9068  0.1471
6.411e+09  0.8604  0.001545  -0.003369  -0.01542  -0.0207  -0.004403  0.8978  -0.1933
6.412e+09  0.836  -0.3125  -0.005264  0.01301  -0.004724  0.002369  0.7607  -0.456
6.414e+09  0.6385  -0.5199  0.007557  -0.007537  0.01759  -0.01259  0.6149  -0.6543
6.415e+09  0.4411  -0.7542  0.04698  -0.0106  0.021  0.006305  0.2754  -0.8453
6.416e+09  0.09789  -0.8891  0.009224  -0.001273  -0.008472  0.01127  0.05403  -0.9194
6.418e+09  -0.1873  -0.8884  -0.02648  -0.01457  -0.0479  0.01635  -0.308  -0.8293
6.419e+09  -0.4425  -0.7622  0.02346  0.009369  0.001014  -0.02635  -0.5645  -0.6949
6.42e+09  -0.6885  -0.5555  0.007989  0.04475  0.006669  0.08329  -0.7196  -0.4757
6.421e+09  -0.8221  -0.2989  0.0006776  -0.03034  0.04927  -0.005999  -0.886  -0.1986
6.422e+09  -0.8971  0.06039  -0.01395  0.04946  -0.03634  0.01899  -0.8637  0.1228
6.424e+09  -0.8312  0.3534  -0.04625  -0.01337  0.01764  0.002539  -0.7583  0.4118
6.425e+09  -0.6529  0.6666  -0.006041  0.0005374  -0.03407  0.009098  -0.6082  0.6208
6.426e+09  -0.4247  0.8004  -0.02716  0.003015  -0.005389  0.001221  -0.3525  0.7955
6.428e+09  -0.1192  0.8505  -0.0486  0.0202  -0.01487  -0.009182  -0.07317  0.909
6.429e+09  0.1963  0.8783  -0.02113  -0.03343  0.02618  0.007301  0.221  0.8619
6.43e+09  0.507  0.7691  0.03079  -0.04068  -4.298e-05  0.02122  0.52  0.7037
6.431e+09  0.7614  0.5257  -0.02501  0.009358  0.01418  0.04463  0.7507  0.5057
6.432e+09  0.8829  0.2365  -0.01334  0.0434  -0.005218  0.01483  0.8913  0.2174
6.434e+09  0.9451  -0.09159  -0.005712  0.04561  0.01103  0.05363  0.9066  -0.09657
6.435e+09  0.8549  -0.3612  -0.003842  -0.01017  0.007114  -0.01991  0.7927  -0.3598
6.436e+09  0.6201  -0.6538  0.04368  -0.04909  0.03366  0.02024  0.6045  -0.6436
6.438e+09  0.359  -0.8217  -0.02964  0.02005  0.01095  0.04365  0.3183  -0.8138
6.439e+09  0.05925  -0.906  -0.02247  -0.04773  0.03992  0.02237  0.08426  -0.8621
6.44e+09  -0.1996  -0.8789  -0.001857  0.02988  -0.01989  0.02763  -0.2133  -0.8424
6.441e+09  -0.4657  -0.7756  -0.03204  -0.04602  0.04402  -0.02227  -0.4876  -0.6583
6.442e+09  -0.7804  -0.4917  -0.007719  0.0247  -0.04631  0.02072  -0.6774  -0.512
6.444e+09  -0.8698  -0.1782  0.04916  0.02423  -0.03314  0.0001184  -0.8228  -0.233
6.445e+09  -0.9226  0.1212  0.02405  0.03134  0.004947  -0.008769  -0.8623  0.07928
6.446e+09  -0.8251  0.4276  -0.03512  -0.021  -0.07406  -0.02608  -0.7958  0.3633
6.448e+09  -0.6595  0.6681  0.0224  -0.04226  0.03586  0.006907  -0.6049  0.6106
6.449e+09  -0.2886  0.8349  -0.01454  -0.01112  0.003256  0.01438  -0.3733  0.7884
6.45e+09  -0.1195  0.9089  0.01371  0.02051  -0.01194  0.003696  -0.1076  0.8484
6.451e+09  0.224  0.9025  -0.04284  -0.05226  -0.008576  0.02906  0.221  0.7944
6.452e+09  0.5084  0.7129  0.02124  0.0003058  -0.008002  -0.0264  0.4828  0.6844
6.454e+09  0.7747  0.5327  0.004334  -0.003673  -0.01745  0.01954  0.6895  0.467
6.455e+09  0.9118  0.2162  0.05284  0.02519  0.002646  0.05005  0.8274  0.2313
6.456e+09  0.9184  -0.1308  -0.01228  -0.04168  -0.03373  -0.02239  0.8458  -0.09442
6.458e+09  0.8439  -0.4333  -0.003929  -0.0131  -0.01567  0.0631  0.7639  -0.3573
6.459e+09  0.6251  -0.6899  0.02437  -0.001475  0.01931  -0.03131  0.589  -0.6035
6.46e+09  0.3588  -0.9167  -0.013  0.02062  0.007065  -0.02328  0.3168  -0.7439
6.461e+09  0.0295  -0.9391  0.0148  -0.05161  -0.002074  0.06123  0.1142  -0.8045
6.462e+09  -0.2967  -0.8966  -0.009557  -0.0006754  -0.006582  -0.01513  -0.1966  -0.7548
6.464e+09  -0.5722  -0.7524  -0.01728  0.01774  -0.04414  0.02117  -0.4691  -0.6803
6.465e+09  -0.8011  -0.5305  -0.006866  0.01904  0.003733  0.004434  -0.6434  -0.4639
6.466e+09  -0.9913  -0.2324  0.002977  0.004394  0.06169  -0.003713  -0.8054  -0.2383
6.468e+09  -0.9394  0.1347  0.0007078  -0.0459  -0.01637  0.05634  -0.7786  0.02203
6.469e+09  -0.8301  0.4661  -0.02597  -0.01861  -0.01492  0.0285  -0.7641  0.3569
6.47e+09  -0.5627  0.6882  -0.01645  -0.01977  -0.01551  0.0599  -0.5266  0.6014
6.471e+09  -0.3032  0.8332  -0.001801  -0.01067  0.01549  0.005645  -0.2976  0.7953
6.472e+09  0.01229  0.9615  -0.01395  -0.002635  0.01085  -0.03342  -0.02987  0.7818
6.474e+09  0.3229  0.919  -0.01417  -0.07002  0.01514  -0.04623  0.213  0.8294
6.475e+09  0.6592  0.7273  -0.04827  0.01694  -0.0007937  0.001249  0.4013  0.6572
6.476e+09  0.7977  0.4541  0.001655  -0.02092  0.03974  -0.0257  0.6325  0.449
6.478e+09  0.9511  0.1609  -0.03079  0.01215  -0.00625  0.01195  0.7422  0.1587
6.479e+09  0.9316  -0.1624  -0.04057  -0.04162  0.01142  -0.02021  0.7478  -0.1132
6.48e+09  0.8166  -0.5113  -0.006534  0.01479  -0.02629  0.06977  0.7627  -0.3533
6.481e+09  0.5998  -0.7843  0.03382  0.01713  -0.02056  0.002496  0.5451  -0.5525
6.482e+09  0.2914  -0.9363  -0.06552  -0.01798  -0.04437  -0.02081  0.3121  -0.7149
6.484e+09  -0.05202  -0.9498  -0.01617  0.007487  0.0197  0.01138  0.07252  -0.7898
6.485e+09  -0.3817  -0.8403  -0.034  0.01618  0.00447  0.009286  -0.2132  -0.729
6.486e+09  -0.6783  -0.705  0.02282  -0.01791  0.0336  0.01048  -0.4545  -0.627
6.488e+09  -0.8713  -0.3977  0.008987  0.06541  -0.04945  -0.004409  -0.6419  -0.426
6.489e+09  -0.9519  -0.01994  0.002613  -0.000623  0.001944  0.01532  -0.7476  -0.2072
6.49e+09  -0.9424  0.2404  0.001027  -0.02127  -0.02084  0.02277  -0.7766  0.1209
6.491e+09  -0.7985  0.5612  0.0122  -0.01574  0.0122  0.00376  -0.6667  0.3481
6.492e+09  -0.5564  0.7867  0.01994  -0.05816  -0.00206  -0.04249  -0.562  0.5483
6.494e+09  -0.2289  0.9472  -0.00343  -0.0006777  -0.06488  -0.003734  -0.2942  0.724
6.495e+09  0.09174  0.9462  -0.02561  -0.0382  0.03241  -0.0621  -0.03073  0.7448
6.496e+09  0.4544  0.8585  -0.01913  0.0151  0.04165  -0.04416  0.208  0.7057
6.498e+09  0.7276  0.6193  -0.007211  -0.05122  -0.03732  -0.02109  0.4294  0.6113
6.499e+09  0.8704  0.3893  0.001805  0.008741  -0.007363  0.01553  0.6319  0.4073
6.5e+09  0.947  -0.006474  -0.01351  0.0002146  -0.073  0.02857  0.7211  0.1839
6.501e+09  0.8745  -0.3455  -0.01784  0.02783  -0.03881  -0.01281  0.7632  -0.13
6.502e+09  0.7455  -0.6191  -0.01051  0.0003331  -0.009074  0.009834  0.6599  -0.3662
6.504e+09  0.48  -0.8409  0.01303  0.03171  -0.03269  0.03557  0.5361  -0.5775
6.505e+09  0.1486  -0.9671  -0.009872  -0.04376  -0.0113  -0.0377  0.2328  -0.7016
6.506e+09  -0.2184  -0.9098  0.009067  0.0432  0.01562  -0.01371  -0.0206  -0.7336
6.508e+09  -0.478  -0.8041  0.001431  -0.01806  0.0285  0.0472  -0.2283  -0.7442
6.509e+09  -0.7847  -0.557  -0.01433  0.02091  -0.02591  -0.00573  -0.4807  -0.5801
6.51e+09  -0.8868  -0.3008  0.006881  -0.0009113  -0.008165  0.09621  -0.6811  -0.4052
6.511e+09  -0.9866  0.05085  -0.008735  0.041  0.00811  -0.0005162  -0.7656  -0.1488
6.512e+09  -0.8913  0.4  -0.008003  -0.02626  -0.0142  0.01261  -0.7209  0.08909
6.514e+09  -0.7166  0.6726  -0.006137  0.01368  0.01668  -0.007858  -0.6329  0.3468
6.515e+09  -0.4094  0.8634  0.009055  0.01477  0.002585  -0.001791  -0.4911  0.5646
6.516e+09  -0.1263  0.9087  0.01414  0.004356  -0.02186  0.0301  -0.2461  0.7125
6.518e+09  0.2649  0.9249  -0.009768  0.01388  0.03051  -0.009339  0.05441  0.7506
6.519e+09  0.5673  0.7824  0.003604  0.02683  0.01653  -0.008941  0.3012  0.6821
6.52e+09  0.8061  0.4942  0.01923  -0.009789  -0.03023  0.01266  0.4995  0.5477
6.521e+09  0.9762  0.2102  -0.015  0.006695  -0.07183  -0.009697  0.6535  0.3394
6.522e+09  0.9752  -0.1542  -0.03245  0.05087  0.01384  -0.05258  0.7503  0.1358
6.524e+09  0.8073  -0.4981  0.007835  -0.001299  0.01129  -0.01174  0.7129  -0.1499
6.525e+09  0.6376  -0.7876  0.0003777  0.002231  -0.0293  -0.004343  0.6208  -0.3853
6.526e+09  0.311  -0.9403  0.01459  -0.0301  -0.03046  -0.0749  0.4211  -0.5687
6.528e+09  0.01458  -1.021  0.01155  0.02648  0.004616  0.03762  0.2002  -0.7234
6.529e+09  -0.3862  -0.8686  -0.00212  0.01874  0.009649  0.05263  -0.07525  -0.7075
6.53e+09  -0.6285  -0.6952  0.003803  0.01451  -0.02877  0.03871  -0.2728  -0.6019
6.531e+09  -0.8859  -0.451  -0.01642  0.009307  -0.009055  -0.008834  -0.458  -0.4719
6.532e+09  -0.9279  -0.1127  -0.009435  -0.008326  -0.01212  0.007631  -0.5932  -0.302
6.534e+09  -0.8545  0.1914  -0.00452  0.02267  0.02788  0.04259  -0.6148  -0.06653
6.535e+09  -0.7671  0.5199  0.01353  0.006478  -0.001281  0.0518  -0.6582  0.09262
6.536e+09  -0.5478  0.8037  -0.002414  0.006874  0.01727  -0.02506  -0.5783  0.3333
6.538e+09  -0.2016  0.9083  -0.0002766  0.001605  -0.03402  -0.01462  -0.4607  0.4178
6.539e+09  0.109  0.903  -0.01262  -0.006744  -0.006822  0.02648  -0.2913  0.6438
6.54e+09  0.4222  0.8243  -0.01485  -0.02422  -0.05755  -0.02372  -0.06767  0.6626
6.541e+09  0.7457  0.5936  -0.01315  -0.0154  0.03672  -0.0344  0.2009  0.6788
6.542e+09  0.868  0.3197  0.01426  -0.006593  0.009498  0.03497  0.4385  0.5805
6.544e+09  0.9898  0.007004  0.001331  0.01466  0.004558  -0.0065  0.6001  0.408
6.545e+09  0.8592  -0.294  0.00528  -0.01041  -0.003534  0.01261  0.7049  0.1867
6.546e+09  0.6718  -0.6078  -0.003276  0.01666  0.01477  0.007693  0.7289  -0.08246
6.548e+09  0.4971  -0.8372  0.0145  -0.02842  -0.05083  -0.01635  0.6595  -0.3074
6.549e+09  0.1444  -0.8922  -0.01494  -0.03235  0.0006722  -0.02285  0.512  -0.5419
6.55e+09  -0.1944  -0.8899  0.02329  0.008029  0.02056  -0.03928  0.3028  -0.6534
