# Hz S RI R 50
6.25e+09  -0.2865  0.8606  0.01709  0.02437  -0.03778  0.03995  0.168  0.4683
6.251e+09  0.001707  0.8826  -0.008651  0.008162  -0.006465  0.02818  0.3595  0.4194
6.252e+09  0.3628  0.8148  0.005674  0.02807  0.01379  0.0551  0.5225  0.2221
6.254e+09  0.5153  0.6267  -0.02605  -0.0009463  0.02683  0.05003  0.63  0.05224
6.255e+09  0.7676  0.431  0.0142  0.01284  0.06168  0.006744  0.6061  -0.2115
6.256e+09  0.78  0.1085  -0.02621  0.003422  -0.005422  0.02726  0.4955  -0.4359
6.258e+09  0.9032  -0.1569  0.00454  -0.01385  0.003564  -0.006425  0.277  -0.5988
6.259e+09  0.7638  -0.4049  0.009699  0.001624  0.003688  0.002471  0.0653  -0.6556
6.26e+09  0.518  -0.6407  -0.02638  -0.01797  -0.02651  0.02368  -0.2044  -0.6581
6.261e+09  0.2386  -0.8361  0.01035  0.01218  -0.01526  -0.0001924  -0.457  -0.5432
6.262e+09  0.000735  -0.8125  0.0238  0.02131  -0.03765  -0.01357  -0.6033  -0.3249
6.264e+09  -0.3293  -0.7398  -0.01193  0.0044  -0.01775  0.00742  -0.7322  -0.1319
6.265e+09  -0.6194  -0.6706  0.002759  -0.002517  0.01585  -0.01869  -0.6854  0.1549
6.266e+09  -0.7732  -0.3896  -0.0123  0.005147  0.02169  -0.00558  -0.605  0.3718
6.268e+09  -0.8638  -0.1319  -0.01037  -0.02917  0.019  0.01564  -0.4238  0.5903
6.269e+09  -0.8572  0.2009  -0.00772  0.01916  -0.07425  0.0282  -0.2095  0.6856
6.27e+09  -0.6977  0.4649  -0.02013  0.007709  -0.00261  -0.04034  0.07353  0.7294
6.271e+09  -0.5519  0.6446  0.02815  0.007835  0.03627  0.02063  0.3341  0.6829
6.272e+09  -0.2539  0.7862  0.01651  -0.01311  0.01558  0.03364  0.5814  0.5214
6.274e+09  0.02816  0.7656  0.02922  0.02591  -0.01781  -0.006484  0.6554  0.2884
6.275e+09  0.3053  0.7548  -0.02346  0.005862  -0.01013  0.0651  0.7611  0.02292
6.276e+09  0.6082  0.6662  -0.01754  0.004905  -0.001928  0.01197  0.7293  -0.2365
6.278e+09  0.7701  0.3521  0.004938  0.01729  0.05558  0.01611  0.5947  -0.4601
6.279e+09  0.8322  0.04896  0.01815  -0.02088  -0.02851  -0.008297  0.4241  -0.6496
6.28e+09  0.8236  -0.2096  -0.01079  -0.002404  -0.02033  0.002473  0.1548  -0.7606
6.281e+09  0.6616  -0.4553  0.00595  0.01107  0.02921  -0.004637  -0.1065  -0.7703
6.282e+09  0.4318  -0.6839  -0.00345  0.03357  0.01062  0.004316  -0.3819  -0.7179
6.284e+09  0.2693  -0.8329  0.01132  0.02174  0.003117  0.007198  -0.5866  -0.55
6.285e+09  -0.04913  -0.8277  0.005629  0.02605  0.0002593  0.01191  -0.6986  -0.3174
6.286e+09  -0.3367  -0.7454  0.009191  0.008247  -0.0007578  -0.0221  -0.7717  -0.01798
6.288e+09  -0.6521  -0.6161  0.04653  0.0005659  -0.001411  0.03663  -0.758  0.2506
6.289e+09  -0.7389  -0.3474  -0.02907  -0.0111  -0.001134  0.009913  -0.6516  0.5003
6.29e+09  -0.8685  -0.03863  -0.0002685  0.005498  0.009279  0.04547  -0.417  0.6477
6.291e+09  -0.7937  0.1689  0.02428  0.03588  0.003698  -0.009981  -0.1804  0.7886
6.292e+09  -0.6241  0.4525  0.01023  -0.01103  -0.04644  -0.04786  0.1473  0.8106
6.294e+09  -0.4796  0.6947  0.001017  0.009729  0.03497  -0.04666  0.3789  0.6947
6.295e+09  -0.204  0.798  0.01518  0.01356  -0.03424  0.04944  0.6604  0.5463
6.296e+09  0.09938  0.8168  0.02626  -0.003579  -0.03773  0.06033  0.8079  0.2751
6.298e+09  0.3593  0.7301  0.02639  -0.01878  -0.02612  -0.03455  0.8412  0.002949
6.299e+09  0.618  0.5632  -0.02073  0.002256  0.02846  0.005523  0.7944  -0.2839
6.3e+09  0.7571  0.3244  -0.02063  0.01318  -0.02429  -0.03614  0.652  -0.5262
6.301e+09  0.785  0.02959  -0.0005924  0.0522  0.01086  0.05045  0.4447  -0.7324
6.302e+09  0.7807  -0.2798  -0.006181  -0.03755  -0.01327  -0.007518  0.1718  -0.8283
6.304e+09  0.6252  -0.5526  -0.01333  0.0009693  0.008996  -0.03655  -0.1165  -0.8697
6.305e+09  0.4273  -0.7144  0.02121  -0.002721  0.03439  -0.06442  -0.4404  -0.7094
6.306e+09  0.1643  -0.8028  0.0008944  -0.01557  0.03075  0.01827  -0.6244  -0.5753
6.308e+09  -0.1284  -0.7827  0.01031  0.00227  4.074e-06  -0.002271  -0.8059  -0.303
6.309e+09  -0.4066  -0.7401  -0.004771  -0.0008819  0.03984  0.001993  -0.8747  -0.0365
6.31e+09  -0.6251  -0.5414  0.005792  0.004838  -0.02067  0.001376  -0.7856  0.303
6.311e+09  -0.8332  -0.2894  -0.002204  -0.01326  -0.01877  0.01877  -0.6709  0.5875
6.312e+09  -0.8608  -0.06357  0.003353  0.02109  -0.06881  -0.009763  -0.4487  0.7294
6.314e+09  -0.7639  0.3101  -0.004518  -0.002335  -0.05256  0.0003446  -0.1275  0.8651
6.315e+09  -0.6989  0.4931  -0.009808  -0.009837  -0.02542  -0.05334  0.1297  0.8736
6.316e+09  -0.3843  0.7547  -0.005458  -0.009449  0.01706  0.006386  0.4533  0.7716
6.318e+09  -0.1249  0.867  0.01219  -0.003108  -0.02484  -0.04267  0.6391  0.6086
6.319e+09  0.1666  0.8621  0.004818  -0.0009366  0.01647  0.02068  0.8412  0.3182
6.32e+09  0.4525  0.7646  -0.02335  0.01101  -0.009119  -0.01197  0.8902  0.01515
6.321e+09  0.6389  0.5324  0.03602  0.006295  0.05658  -0.02481  0.846  -0.2811
6.322e+09  0.8185  0.2401  -0.01604  0.02288  -0.01162  -0.0007766  0.6969  -0.5387
6.324e+09  0.8552  -0.07358  0.005681  -0.0002536  0.01655  -0.03705  0.4502  -0.7863
6.325e+09  0.8027  -0.3282  0.02863  -0.006973  0.02975  -0.03991  0.2047  -0.8722
6.326e+09  0.6022  -0.5476  -0.02429  -0.00166  -0.007982  -0.01238  -0.162  -0.8836
6.328e+09  0.324  -0.7742  -0.008349  -0.006444  0.007  -0.0298  -0.4445  -0.7862
6.329e+09  0.1061  -0.8531  0.02522  0.01428  -0.009426  0.004888  -0.6923  -0.6008
6.33e+09  -0.2222  -0.8405  0.0009678  -0.02009  -0.03465  -0.01059  -0.8918  -0.3136
6.331e+09  -0.4443  -0.6739  -0.03393  0.02409  -0.01654  -0.01658  -0.9181  -0.04509
6.332e+09  -0.7302  -0.5068  -0.02311  -0.01003  0.00285  -0.04162  -0.8557  0.2551
6.334e+09  -0.8502  -0.2098  -0.001537  0.006496  -0.01539  -0.07236  -0.7232  0.544
6.335e+09  -0.8846  0.1434  0.001686  -0.009354  -0.00837  0.006385  -0.4886  0.7576
6.336e+09  -0.8129  0.4267  0.01961  -0.01019  -0.003352  -0.02835  -0.1764  0.8857
6.338e+09  -0.6168  0.7245  0.006389  0.00152  0.006796  0.008797  0.1082  0.937
6.339e+09  -0.3193  0.7889  -0.002846  0.02535  0.058  0.01104  0.4166  0.7963
6.34e+09  -0.02898  0.9008  -0.01673  -0.003675  -0.02955  -0.0256  0.6853  0.6187
6.341e+09  0.3276  0.8211  -0.02492  0.008705  -0.01612  -0.04713  0.8535  0.3578
6.342e+09  0.5655  0.6794  -0.02807  -0.01293  -0.001737  -0.01087  0.9247  0.02353
6.344e+09  0.7826  0.482  0.01024  0.01291  0.008162  -0.006792  0.9023  -0.2225
6.345e+09  0.888  0.2234  0.005139  -0.02063  0.007998  0.009689  0.7407  -0.5762
6.346e+09  0.8928  -0.1232  0.03757  0.01956  -0.01728  -0.01194  0.5052  -0.8055
6.348e+09  0.8107  -0.4151  0.008949  0.007274  -0.003384  0.01078  0.2228  -0.9504
6.349e+09  0.5493  -0.6696  0.02206  -0.02725  0.001909  0.01869  -0.1356  -0.9496
6.35e+09  0.2692  -0.8443  0.03195  -0.005081  -0.049  0.02753  -0.403  -0.8172
6.351e+09  -0.0223  -0.8457  -0.01656  0.01965  -0.04368  -0.02364  -0.6868  -0.6478
6.352e+09  -0.3314  -0.8048  -0.01869  0.01826  0.03998  0.0004098  -0.8693  -0.3832
6.354e+09  -0.5686  -0.6631  -0.01086  0.002692  -0.008255  -0.01336  -0.9179  -0.05646
6.355e+09  -0.7813  -0.4209  -0.007021  -0.01387  0.02258  0.01171  -0.8689  0.2321
6.356e+09  -0.8983  -0.0936  0.008025  -0.007139  -0.0008445  0.0008626  -0.7565  0.5658
6.358e+09  -0.8745  0.224  -0.003292  -0.01496  -0.001439  -0.01386  -0.5253  0.7912
6.359e+09  -0.7752  0.4817  0.01393  0.03477  0.03188  -0.01461  -0.2357  0.9015
6.36e+09  -0.5256  0.6952  0.03658  -0.001525  0.02347  0.03053  0.1251  0.9487
6.361e+09  -0.2554  0.8623  0.04412  0.008827  0.01003  0.003667  0.4149  0.8649
6.362e+09  0.05641  0.8866  0.02749  0.009868  0.01494  0.04578  0.7001  0.6589
6.364e+09  0.4081  0.79  0.01673  0.0161  -0.005171  0.065  0.8229  0.3723
6.365e+09  0.6321  0.6277  0.01084  0.02638  -0.07637  0.01675  0.9618  0.08177
6.366e+09  0.8178  0.3756  0.006917  0.02885  -0.01995  0.0008323  0.8984  -0.2744
6.368e+09  0.9016  0.05817  0.001314  0.001938  0.01808  -0.0147  0.7989  -0.555
6.369e+09  0.8486  -0.2637  -0.01885  -0.01036  -0.02235  -0.0006744  0.5794  -0.769
6.37e+09  0.7241  -0.5446  0.01227  0.02345  0.04164  -0.007545  0.2662  -0.9101
6.371e+09  0.5073  -0.7556  -0.0328  -0.006148  0.004888  -0.01142  -0.06926  -0.9212
6.372e+09  0.1794  -0.887  -0.01218  -0.01966  -0.002072  -0.01428  -0.399  -0.8305
6.374e+09  -0.08199  -0.9095  -0.007887  0.01276  -0.001956  -0.04399  -0.7037  -0.6163
6.375e+09  -0.4174  -0.7933  0.02174  -0.005495  0.008473  0.04011  -0.8615  -0.4068
6.376e+09  -0.647  -0.5592  -0.01239  -0.05624  0.0178  -0.01777  -0.9511  -0.1044
6.378e+09  -0.8477  -0.3958  0.02516  0.03994  0.02066  -0.01829  -0.9069  0.2249
6.379e+09  -0.8943  -0.0353  0.008242  0.01033  0.03295  -0.03572  -0.7548  0.5038
6.38e+09  -0.8343  0.3025  0.02006  -0.004488  -0.01683  0.03796  -0.5888  0.7602
6.381e+09  -0.6931  0.5313  -0.02564  0.002154  -0.008857  0.06455  -0.2572  0.9082
6.382e+09  -0.5005  0.7797  0.03012  0.01109  -0.03361  0.03165  0.05358  0.9584
6.384e+09  -0.1596  0.8717  -0.02104  -0.04301  -0.01243  0.02284  0.414  0.8623
6.385e+09  0.1547  0.8796  -0.04142  -0.004941  -0.004553  0.01342  0.6285  0.6788
6.386e+09  0.5109  0.738  0.03914  0.01619  -0.01758  0.01372  0.8995  0.4002
6.388e+09  0.6734  0.5868  9.124e-05  0.0005344  0.02126  0.0286  0.9518  0.1555
6.389e+09  0.8671  0.288  -0.009121  0.001664  -0.01747  -0.02909  0.9481  -0.1896
6.39e+09  0.8936  -0.03107  -0.001832  -0.02076  -0.01448  -0.02982  0.7652  -0.5122
6.391e+09  0.8421  -0.3686  -0.01327  -0.03523  -0.05491  0.005765  0.5812  -0.7458
6.392e+09  0.7384  -0.5789  0.002538  0.02702  0.01017  0.03028  0.314  -0.8442
6.394e+09  0.4289  -0.8001  0.07719  -0.01797  0.01767  0.02842  -0.0847  -0.9221
6.395e+09  0.1146  -0.8847  0.01374  0.02001  -0.04403  0.04191  -0.3396  -0.8314
6.396e+09  -0.1439  -0.8489  -0.04617  0.03405  0.00264  0.04709  -0.6132  -0.7199
6.398e+09  -0.5139  -0.7827  0.02854  -0.03092  0.0168  -0.002518  -0.8048  -0.4297
6.399e+09  -0.696  -0.5523  0.03865  0.01861  -0.01752  -0.0146  -0.9174  -0.1329
6.4e+09  -0.8401  -0.2378  -0.01991  0.01726  -0.0477  -0.06962  -0.8749  0.1753
6.401e+09  -0.8997  -0.001318  0.01648  0.03081  0.01556  0.04332  -0.7509  0.465
6.402e+09  -0.8489  0.3649  -0.005462  0.02317  -0.04284  0.02574  -0.6104  0.6848
6.404e+09  -0.6257  0.5765  -0.03879  0.002031  0.02732  0.03285  -0.3099  0.8568
6.405e+09  -0.4408  0.8118  0.05716  -0.0145  -0.003391  0.02818  -0.04661  0.9359
6.406e+09  -0.1017  0.868  -0.03215  0.0655  0.007041  -0.0239  0.3427  0.8671
6.408e+09  0.2091  0.8926  -0.03274  0.01745  -0.005073  0.02819  0.5928  0.6913
6.409e+09  0.431  0.7666  -0.003905  0.01808  -0.01359  -0.02596  0.8065  0.4461
6.41e+09  0.7049  0.529  0.05514  -0.01001  -0.01285  -0.04359  0.9163  0.1054
6.411e+09  0.8898  0.2885  -0.004586  -0.02074  -0.02871  0.03325  0.9069  -0.1917
6.412e+09  0.8197  -0.1074  0.004631  -0.009374  -0.01884  0.001629  0.7784  -0.4224
6.414e+09  0.774  -0.3646  0.003833  0.0007797  -0.01979  -0.01763  0.629  -0.7005
6.415e+09  0.6185  -0.5988  -0.01789  0.02949  -0.003097  0.01016  0.3401  -0.8423
6.416e+09  0.3804  -0.8165  0.01337  0.01355  -0.008974  -0.004592  0.01155  -0.8368
6.418e+09  0.08117  -0.9  0.02425  0.02629  0.03523  -0.01087  -0.3005  -0.8707
6.419e+09  -0.2285  -0.8948  0.01351  -0.01355  0.008183  -0.01528  -0.5769  -0.7202
6.42e+09  -0.499  -0.7599  -0.02486  -0.04994  -0.0207  0.01602  -0.7422  -0.5425
6.421e+09  -0.6943  -0.5768  0.0002239  0.01912  -0.009325  -0.001728  -0.9012  -0.1924
6.422e+09  -0.862  -0.1943  -0.001992  0.0001173  0.02948  0.02728  -0.884  0.1234
6.424e+09  -0.911  0.07145  0.02291  -0.009704  -0.0797  0.05148  -0.8208  0.4124
6.425e+09  -0.8384  0.3176  0.023  0.04877  0.01063  0.01631  -0.612  0.6714
6.426e+09  -0.6525  0.6566  -0.01902  -0.01546  -0.002378  0.003172  -0.3606  0.8229
6.428e+09  -0.3209  0.8206  -0.02783  0.006433  0.008592  0.02129  -0.03782  0.8584
6.429e+09  -0.04243  0.8762  -0.01251  0.009214  -0.01706  -0.01184  0.2675  0.8826
6.43e+09  0.2572  0.8261  -0.0177  0.07178  -0.08672  -0.03224  0.5246  0.7118
6.431e+09  0.5112  0.7421  -0.008865  -0.02354  -0.008259  -0.009433  0.7097  0.5029
6.432e+09  0.7609  0.4922  -0.01719  -0.00205  -0.02741  -0.02507  0.8397  0.2008
6.434e+09  0.8809  0.2339  -0.002205  0.0249  -0.0268  -0.04119  0.8714  -0.07729
6.435e+09  0.8792  -0.0852  0.01575  -0.008504  -0.05268  -0.01535  0.7767  -0.3835
6.436e+09  0.7756  -0.3822  -0.01825  0.05337  -0.007863  0.000188  0.6192  -0.6264
6.438e+09  0.6333  -0.6339  -0.005246  -0.0497  -0.07552  -0.05605  0.3663  -0.8005
6.439e+09  0.407  -0.8049  -0.01644  -0.05052  -0.001844  0.00827  0.03476  -0.8829
6.44e+09  0.06055  -0.8699  0.007697  -0.01345  -0.04419  -0.04538  -0.2486  -0.8349
6.441e+09  -0.2333  -0.8413  -0.008778  0.03555  0.01021  -0.002333  -0.4752  -0.6947
6.442e+09  -0.4795  -0.682  0.02206  0.01027  0.01159  -0.0115  -0.6727  -0.4879
6.444e+09  -0.7615  -0.5002  0.01138  0.02386  0.02584  0.01952  -0.8284  -0.189
6.445e+09  -0.8399  -0.241  0.03368  0.01473  -0.02005  -0.004708  -0.8302  0.0704
6.446e+09  -0.8624  0.1101  -0.04281  -0.03682  0.0006628  -0.001615  -0.7845  0.3537
6.448e+09  -0.7551  0.4018  0.02142  -0.005339  0.003044  0.02137  -0.6244  0.5931
6.449e+09  -0.5981  0.6958  -0.0238  0.0038  0.002307  -0.01758  -0.3551  0.7667
6.45e+09  -0.3624  0.8282  -0.009089  -0.04157  0.03081  -0.01191  -0.04421  0.8307
6.451e+09  -0.04016  0.9031  -0.003948  0.034  -0.004729  0.008668  0.214  0.8155
6.452e+09  0.3105  0.8732  -0.01331  -0.05681  -0.0001254  0.03894  0.517  0.6611
6.454e+09  0.6016  0.7608  0.008248  -0.01786  0.01602  0.02486  0.6682  0.5176
6.455e+09  0.7594  0.5003  -0.04957  0.01143  -0.03132  0.007666  0.7682  0.2359
6.456e+09  0.8796  0.2144  0.0002975  -0.003718  0.03186  0.005866  0.8192  -0.07042
6.458e+09  0.8758  -0.1511  -0.009864  -0.02056  -0.004979  -0.02067  0.7328  -0.3238
6.459e+09  0.8396  -0.461  0.01066  -0.04996  0.03859  0.02158  0.5823  -0.6208
6.46e+09  0.5832  -0.6505  0.003574  -0.01054  -0.03654  0.01419  0.3317  -0.763
6.461e+09  0.3242  -0.8664  0.04235  0.006119  -0.02155  -0.006021  0.03292  -0.8293
6.462e+09  0.06642  -0.9153  0.02456  -0.01996  0.0158  -0.02332  -0.2534  -0.7961
6.464e+09  -0.3173  -0.8854  0.0362  -0.03268  0.00155  -0.03892  -0.4846  -0.6847
6.465e+09  -0.5656  -0.7372  -0.01482  0.02435  -0.02771  0.01872  -0.7123  -0.4473
6.466e+09  -0.7505  -0.5003  0.001578  -0.01717  0.01912  -0.0009347  -0.8052  -0.2063
6.468e+09  -0.8908  -0.2116  0.006874  0.01675  -5.228e-05  -0.03901  -0.7987  0.06107
6.469e+09  -0.8928  0.1093  0.02381  -0.03775  -0.03259  -0.02412  -0.7298  0.3581
6.47e+09  -0.7746  0.4156  0.01333  -0.007765  0.0139  0.009787  -0.5875  0.5726
6.471e+09  -0.6198  0.6445  -0.01167  0.01921  -0.01685  -0.03653  -0.2817  0.7373
6.472e+09  -0.3223  0.8488  -0.0391  -0.01092  -0.009057  -0.03625  -0.06159  0.7871
6.474e+09  -0.02602  0.9332  0.02656  -0.04155  -0.0008967  0.00232  0.2116  0.801
6.475e+09  0.3065  0.8482  -0.006852  0.03813  0.04012  -0.00835  0.4589  0.6334
6.476e+09  0.6156  0.6997  -0.08474  -0.02749  -0.02596  0.03138  0.6531  0.4412
6.478e+09  0.789  0.466  -0.001639  -0.03508  -0.0161  0.005667  0.7875  0.2157
6.479e+09  0.9284  0.1809  0.01509  0.009159  -0.03378  -0.005856  0.7623  -0.08115
6.48e+09  0.8831  -0.165  0.02302  0.002252  0.006215  -0.02528  0.7267  -0.356
6.481e+09  0.7551  -0.4402  -0.01774  0.001487  -0.0191  -0.005177  0.5275  -0.5664
6.482e+09  0.5566  -0.6826  0.01342  0.005885  0.002516  -0.04175  0.2997  -0.7115
6.484e+09  0.3192  -0.8571  0.02922  0.003696  0.03341  -0.02712  0.07031  -0.7475
6.485e+09  -0.006286  -0.9252  0.01562  0.0005735  -0.0149  -0.04719  -0.2065  -0.7682
6.486e+09  -0.2982  -0.8928  0.008861  0.004944  0.04536  0.03562  -0.4613  -0.6488
6.488e+09  -0.5665  -0.6953  0.008847  -0.02009  -0.01407  0.03299  -0.639  -0.4143
6.489e+09  -0.8475  -0.4338  -0.002466  0.008305  0.007393  -0.0176  -0.7411  -0.1733
6.49e+09  -0.9405  -0.1559  -0.008397  -0.001533  0.02835  0.03051  -0.7914  0.07301
6.491e+09  -0.914  0.2125  0.004523  -0.01451  0.02533  -0.02466  -0.7013  0.338
6.492e+09  -0.8547  0.4745  3.295e-05  0.03405  0.0194  0.05603  -0.5461  0.5817
6.494e+09  -0.595  0.708  -0.02338  -0.01292  0.04007  -0.007566  -0.3517  0.7006
6.495e+09  -0.3018  0.9185  -0.02304  0.01969  -0.05  -0.01865  -0.01101  0.7575
6.496e+09  0.05201  0.9607  -0.02741  0.03438  -0.05403  0.002096  0.1724  0.7549
6.498e+09  0.3894  0.8726  0.01074  0.01902  0.02986  -0.01488  0.4637  0.5959
6.499e+09  0.6119  0.6798  -0.0007861  -0.02257  0.05225  0.03097  0.6438  0.39
6.5e+09  0.8524  0.4002  0.03344  0.03026  0.02396  0.01022  0.7481  0.1716
6.501e+09  0.9617  0.132  -0.01025  -0.004151  0.037  -0.001849  0.7116  -0.08589
6.502e+09  0.9371  -0.2109  0.005613  -0.0218  0.05401  0.03737  0.6868  -0.3447
6.504e+09  0.7992  -0.5629  0.004191  -0.04834  -0.06261  0.03515  0.5111  -0.6017
6.505e+09  0.5527  -0.734  -0.02966  0.0481  0.04533  0.02835  0.2728  -0.6978
6.506e+09  0.2053  -0.9032  0.0265  -0.01652  0.004034  -0.0424  0.05289  -0.7992
6.508e+09  -0.04423  -0.9152  0.02027  -0.001524  0.03114  -0.007881  -0.2714  -0.705
6.509e+09  -0.4146  -0.9002  0.02662  -0.000563  0.05433  0.04932  -0.4711  -0.5739
6.51e+09  -0.6958  -0.6417  0.04494  -0.01431  0.009108  0.00609  -0.6386  -0.3939
6.511e+09  -0.8755  -0.4065  -0.001061  0.01245  -0.01019  -0.02342  -0.7196  -0.1315
6.512e+09  -0.8967  -0.06969  -0.01572  -0.009833  -0.003637  -0.008006  -0.7519  0.09835
6.514e+09  -1.006  0.3205  0.02059  -0.0299  0.01881  -0.006742  -0.6609  0.4155
6.515e+09  -0.7359  0.6106  0.001101  -0.01671  0.04515  0.05648  -0.4744  0.6068
6.516e+09  -0.5496  0.8067  0.001924  -0.08511  -0.07187  -0.005735  -0.2849  0.748
6.518e+09  -0.2257  0.9673  -0.005509  0.009896  -0.02664  -0.01041  -0.02002  0.7555
6.519e+09  0.1579  0.9972  0.004811  0.007813  -0.02367  -0.005613  0.2723  0.7115
6.52e+09  0.4703  0.845  -0.01787  0.002205  0.02882  -0.002587  0.5034  0.5669
6.521e+09  0.7379  0.5974  -0.01258  0.001231  0.005088  0.04464  0.656  0.3668
6.522e+09  0.9358  0.3429  0.01035  -0.002092  0.02847  0.01531  0.6818  0.1078
6.524e+09  0.9684  0.03901  -0.0249  -0.005021  0.01555  0.006472  0.6842  -0.1671
6.525e+09  0.8768  -0.353  0.001991  0.01966  0.001499  -0.02107  0.63  -0.4109
6.526e+09  0.7653  -0.6621  0.01952  0.006322  -0.008212  0.05463  0.4246  -0.6001
6.528e+09  0.476  -0.8454  0.02167  -0.02571  -0.02618  -0.01462  0.1966  -0.7186
6.529e+09  0.1032  -1.013  0.03097  0.00063  0.04676  -0.02106  -0.02406  -0.7035
6.53e+09  -0.1779  -0.913  -0.004343  0.00907  -0.01347  -0.03695  -0.292  -0.6234
6.531e+09  -0.5154  -0.8045  0.01665  0.005685  0.03009  0.01097  -0.4562  -0.4726
6.532e+09  -0.7942  -0.6082  -0.003524  -0.02048  -0.04891  0.03914  -0.596  -0.2909
6.534e+09  -0.936  -0.2383  -0.03087  0.02917  0.01309  -0.01034  -0.6274  -0.08814
6.535e+09  -0.9268  0.08992  0.001379  0.02123  -0.01015  -0.009131  -0.6209  0.07237
6.536e+09  -0.8898  0.3928  -0.02017  0.006212  0.0118  0.03259  -0.5759  0.2914
6.538e+09  -0.6695  0.7135  0.02834  0.007674  -0.009991  -0.004241  -0.437  0.4439
6.539e+09  -0.3952  0.9131  0.01391  -0.01423  -0.02698  -0.03905  -0.2945  0.623
6.54e+09  -0.03587  0.9989  -0.01622  0.004014  0.02962  0.02624  -0.08526  0.6827
6.541e+09  0.2696  0.9091  0.007128  0.01595  -0.027  -0.05549  0.161  0.6892
6.542e+09  0.6043  0.7301  -0.006574  0.03079  0.02358  0.01441  0.4084  0.6102
6.544e+09  0.8829  0.5073  -0.003339  0.01996  -0.01373  -0.02489  0.5634  0.3778
6.545e+09  0.9395  0.1633  0.003225  -0.01884  0.03191  0.0576  0.7423  0.1566
6.546e+09  0.9778  -0.1468  0.01864  0.01814  0.0108  0.006188  0.6977  -0.09605
6.548e+09  0.8791  -0.4733  0.001292  0.01715  -0.01013  0.008123  0.6631  -0.3629
6.549e+09  0.6137  -0.7269  0.02796  -0.002248  0.02404  0.01586  0.5065  -0.5396
6.55e+09  0.2646  -0.8828  -0.0186  0.005421  0.003041  -0.04038  0.2897  -0.6835
