# Hz S RI R 50
6.25e+09  0.1775  -0.7624  -0.0081  0.03122  -0.07174  -0.01854  0.1661  0.4971
6.251e+09  -0.08903  -0.8279  0.01875  -0.05146  0.04267  -0.01606  0.3559  0.4041
6.252e+09  -0.3224  -0.6755  0.007196  -0.01659  0.02508  -0.03123  0.5483  0.2437
6.254e+09  -0.6657  -0.5109  -0.02376  -4.961e-05  -0.01956  -0.06705  0.6414  0.04393
6.255e+09  -0.7649  -0.2653  -0.02378  -0.01286  0.02626  0.02559  0.5965  -0.2326
6.256e+09  -0.8088  0.0008326  -0.02778  -0.01714  0.01104  -0.0009984  0.4458  -0.4283
6.258e+09  -0.7515  0.3336  -0.008832  0.02607  -0.04881  -0.0129  0.2824  -0.6113
6.259e+09  -0.6245  0.5779  0.02662  -0.01818  0.03571  -0.004282  0.05959  -0.6809
6.26e+09  -0.307  0.7363  -0.01141  -0.003054  0.02925  0.04091  -0.1648  -0.6892
6.261e+09  -0.05021  0.7662  0.001489  -0.01616  0.07062  -0.0231  -0.4639  -0.5257
6.262e+09  0.2137  0.7728  0.002181  -0.0008838  -0.01527  0.03912  -0.6384  -0.3404
6.264e+09  0.4543  0.6102  -0.002137  0.02081  -0.008365  -0.05655  -0.6726  -0.09936
6.265e+09  0.6154  0.4407  -0.006677  0.02504  -0.001428  0.013  -0.6785  0.1766
6.266e+09  0.7971  0.1597  0.003438  -0.01488  -0.0234  0.01018  -0.628  0.4227
6.268e+09  0.7698  -0.1245  -0.005789  0.02444  -0.0452  -0.01624  -0.4302  0.6124
6.269e+09  0.7029  -0.3688  -0.03237  -0.002727  0.01425  0.0006535  -0.2077  0.7091
6.27e+09  0.4739  -0.635  0.03223  -0.009454  0.04956  0.0255  0.08184  0.7629
6.271e+09  0.2538  -0.6819  -0.008411  -0.002615  -0.003925  0.005694  0.3194  0.6543
6.272e+09  -0.03084  -0.7715  0.0052  0.01121  -0.02135  -0.001474  0.515  0.5297
6.274e+09  -0.2861  -0.7341  -0.01427  -0.07719  0.0284  -0.006921  0.6938  0.3033
6.275e+09  -0.5477  -0.5464  0.009784  -0.02281  -0.0417  0.03345  0.7485  0.0546
6.276e+09  -0.7248  -0.3546  0.00815  -0.01961  0.04434  0.0268  0.7195  -0.2506
6.278e+09  -0.7994  -0.1362  -0.009685  0.03787  0.02087  0.01054  0.6113  -0.4769
6.279e+09  -0.7838  0.2549  0.007079  0.0001148  0.03223  0.01509  0.4035  -0.6495
6.28e+09  -0.6432  0.45  -0.005306  0.02723  0.004823  -0.1002  0.1718  -0.7399
6.281e+09  -0.4651  0.7083  0.02396  0.01427  -0.04652  0.03345  -0.1126  -0.7371
6.282e+09  -0.1699  0.7822  -0.01445  0.009447  0.009567  -0.04655  -0.3806  -0.6853
6.284e+09  0.1806  0.7867  0.02837  -0.0001573  0.006993  -0.01533  -0.6018  -0.531
6.285e+09  0.3564  0.6822  0.02072  -0.009962  0.01426  -0.002366  -0.7311  -0.2853
6.286e+09  0.562  0.5496  0.007917  0.008258  0.1068  0.006336  -0.8113  -0.01607
6.288e+09  0.7558  0.2724  0.02956  -0.03192  -0.02565  -0.02826  -0.7768  0.2494
6.289e+09  0.7766  -0.06265  -0.009544  -0.004138  0.04517  0.0003924  -0.6032  0.5031
6.29e+09  0.7555  -0.2579  0.004308  0.01983  -0.0111  0.03332  -0.4045  0.6985
6.291e+09  0.6197  -0.5741  -0.02146  -0.01327  0.03768  -0.02965  -0.1634  0.7713
6.292e+09  0.3449  -0.7378  0.01171  -0.02451  0.01693  -0.00659  0.1249  0.8009
6.294e+09  0.04582  -0.7613  -0.01199  -0.01128  -0.09468  0.03758  0.3698  0.707
6.295e+09  -0.2352  -0.7275  0.01463  0.01159  0.01822  0.04494  0.6478  0.5387
6.296e+09  -0.3939  -0.7187  -0.01098  0.03248  0.02901  0.01408  0.7501  0.3013
6.298e+09  -0.687  -0.4689  -0.02147  0.01455  -0.001004  0.01531  0.834  0.02524
6.299e+09  -0.7687  -0.1874  -0.02907  -0.018  0.01553  -0.0001775  0.7857  -0.2755
6.3e+09  -0.7844  0.06376  0.01956  0.004046  0.02008  0.008694  0.646  -0.5293
6.301e+09  -0.6872  0.4182  -0.001096  0.007671  0.0278  0.0006148  0.4415  -0.6996
6.302e+09  -0.5693  0.6254  0.002688  0.04094  0.00715  0.01305  0.1711  -0.8207
6.304e+09  -0.261  0.7481  0.0003792  -0.003261  0.01061  -0.01441  -0.1314  -0.8118
6.305e+09  0.001967  0.8289  0.004855  0.005462  -0.007298  0.0339  -0.4113  -0.7312
6.306e+09  0.292  0.7332  0.0008645  0.01794  -0.02579  0.002657  -0.6323  -0.5392
6.308e+09  0.5415  0.5848  0.01169  0.003738  0.016  0.001985  -0.8099  -0.3029
6.309e+09  0.7465  0.3449  0.02082  -0.01167  0.01059  0.008464  -0.8844  -0.04276
6.31e+09  0.7653  0.1324  -0.003486  -0.005845  -0.03309  -0.03173  -0.8128  0.2793
6.311e+09  0.7973  -0.1715  0.01786  -0.00217  0.02288  -0.04162  -0.631  0.5704
6.312e+09  0.6645  -0.399  0.03814  3.679e-05  -0.04688  -0.003298  -0.4821  0.7138
6.314e+09  0.4687  -0.6816  0.006435  -0.01949  0.0003745  0.01009  -0.181  0.8585
6.315e+09  0.2388  -0.8337  -0.006412  -0.008623  -0.0009043  -0.01006  0.1758  0.8812
6.316e+09  -0.0769  -0.803  -0.01685  0.00809  -0.0006262  0.01942  0.4255  0.7692
6.318e+09  -0.3546  -0.6795  0.02269  0.004491  0.01809  -0.002355  0.6567  0.5701
6.319e+09  -0.5686  -0.5445  -0.03576  0.01806  -0.01843  -0.04772  0.8212  0.34
6.32e+09  -0.7569  -0.3291  -0.01463  -0.01263  -0.003222  -0.003689  0.8521  0.0344
6.321e+09  -0.8504  -0.006815  0.01085  0.01208  -0.008367  -0.005564  0.8245  -0.2674
6.322e+09  -0.7197  0.2464  0.02763  0.009085  -0.03423  -0.01998  0.7016  -0.5925
6.324e+09  -0.6234  0.5406  -0.01524  -0.004309  0.001563  -0.03642  0.4449  -0.771
6.325e+09  -0.388  0.7165  0.02141  0.004497  -0.007824  -0.003628  0.1566  -0.8892
6.326e+09  -0.1218  0.7792  -0.02561  -0.04389  0.02677  0.03047  -0.1436  -0.9185
6.328e+09  0.1894  0.7822  -0.0005758  -0.001519  -0.02765  0.02105  -0.4203  -0.7848
6.329e+09  0.4334  0.7213  -0.01712  0.0002549  0.0363  0.04419  -0.71  -0.5961
6.33e+09  0.712  0.4984  -0.02398  0.02762  -0.01561  -0.03517  -0.8317  -0.3388
6.331e+09  0.7861  0.2208  0.02689  -0.001815  0.02092  -0.01466  -0.9299  -0.03743
6.332e+09  0.8091  -0.1093  0.01684  -0.004307  0.007857  -0.0101  -0.8828  0.2894
6.334e+09  0.7081  -0.3883  -0.007568  0.05  0.02396  -0.0139  -0.6911  0.5612
6.335e+09  0.6149  -0.5981  0.02662  -0.003628  0.009261  0.03507  -0.4851  0.7609
6.336e+09  0.3387  -0.7827  0.02595  -0.02514  -0.00714  -0.002927  -0.1896  0.8868
6.338e+09  0.06342  -0.7902  -0.01727  0.0626  0.01951  0.02676  0.1326  0.9045
6.339e+09  -0.2466  -0.7972  -0.02097  0.05893  0.008552  0.01289  0.4383  0.8049
6.34e+09  -0.5282  -0.6908  -0.0043  0.005884  -0.01533  0.01876  0.6814  0.62
6.341e+09  -0.7271  -0.3833  0.03269  0.01454  0.01723  -0.04827  0.8415  0.3465
6.342e+09  -0.8052  -0.1379  0.02575  0.01455  0.02804  -0.02737  0.951  0.007486
6.344e+09  -0.7942  0.185  -0.0104  0.02784  0.01943  -0.03923  0.85  -0.3077
6.345e+09  -0.7278  0.3779  0.004952  -0.06187  -0.01491  0.04909  0.7488  -0.5646
6.346e+09  -0.5012  0.6861  0.01552  -0.02978  -0.0185  -0.02027  0.4824  -0.8152
6.348e+09  -0.2031  0.7934  0.02656  -0.005734  0.01036  0.002069  0.2343  -0.9389
6.349e+09  0.05443  0.8311  -0.01547  -0.005231  0.003017  -0.02386  -0.09685  -0.932
6.35e+09  0.3959  0.7422  -0.01356  -0.01208  0.02219  0.02908  -0.3881  -0.8479
6.351e+09  0.5662  0.5535  0.006865  0.01184  0.02583  0.05766  -0.6739  -0.6617
6.352e+09  0.7688  0.3182  0.007859  -0.01963  0.003499  0.005382  -0.8324  -0.3719
6.354e+09  0.8012  0.01385  -0.001862  -0.01642  0.009857  -0.00621  -0.9428  -0.06921
6.355e+09  0.8113  -0.2405  -0.02437  -0.007185  -0.02476  0.04833  -0.9227  0.2887
6.356e+09  0.6512  -0.5187  -0.01483  0.03581  0.006656  0.0009494  -0.7498  0.5775
6.358e+09  0.3928  -0.7127  -0.02085  0.01158  -0.009524  0.007567  -0.5145  0.7548
6.359e+09  0.136  -0.8204  0.001381  -0.01535  0.04268  -0.03214  -0.2172  0.9104
6.36e+09  -0.2019  -0.8396  -0.01942  0.02363  0.06367  0.001387  0.1132  0.9528
6.361e+09  -0.5392  -0.7597  -0.06407  -0.006551  -0.01846  -0.02919  0.4531  0.8718
6.362e+09  -0.6782  -0.4984  -0.007764  0.02173  0.0166  0.01722  0.6972  0.6876
6.364e+09  -0.8364  -0.2265  0.001829  0.006356  0.0524  0.0184  0.8858  0.4081
6.365e+09  -0.838  0.05952  -0.01702  -0.04293  -0.007453  -0.002783  0.979  0.05858
6.366e+09  -0.7884  0.3036  -0.01584  0.01897  -0.03124  0.02081  0.9032  -0.2615
6.368e+09  -0.5759  0.6425  0.01481  -0.002924  -0.0011  0.03778  0.7904  -0.5469
6.369e+09  -0.3287  0.7926  -0.03182  0.02458  -0.02487  -0.01003  0.5602  -0.7528
6.37e+09  -0.02154  0.8438  -0.02918  -0.02112  -0.04652  -0.007788  0.2401  -0.8947
6.371e+09  0.2836  0.8085  0.001682  0.02342  0.02538  -0.05207  -0.1079  -0.9275
6.372e+09  0.5682  0.5998  0.02902  -0.01505  -0.02106  0.02408  -0.3881  -0.8603
6.374e+09  0.7864  0.4038  0.01352  -0.0254  0.001464  0.0268  -0.6358  -0.6405
6.375e+09  0.8445  0.1187  0.01146  0.02746  0.05284  -0.01104  -0.8658  -0.4212
6.376e+09  0.8876  -0.2462  -0.01754  -0.0445  0.001064  0.0185  -0.9574  -0.0884
6.378e+09  0.7456  -0.5024  0.01614  -0.00589  -0.008131  0.03673  -0.9075  0.2227
6.379e+09  0.482  -0.7107  -0.01867  0.01802  0.01843  -0.02674  -0.79  0.5413
6.38e+09  0.1534  -0.8566  -0.0104  -0.01848  0.004458  0.02401  -0.5581  0.7655
6.381e+09  -0.1639  -0.8321  0.01915  -0.04238  0.01994  -0.01936  -0.2771  0.9271
6.382e+09  -0.5179  -0.7556  0.02774  -0.01902  0.01037  -0.03624  0.05686  0.9305
6.384e+09  -0.6548  -0.5265  0.0111  -0.02614  -0.03156  0.004998  0.3463  0.8797
6.385e+09  -0.8246  -0.2646  0.03045  -0.01667  -0.02366  0.02753  0.6521  0.7148
6.386e+09  -0.8557  0.05752  -0.02582  -0.01698  0.03252  -0.005563  0.8609  0.4394
6.388e+09  -0.8046  0.3689  -0.007118  0.02672  -0.01958  0.03084  0.9445  0.1388
6.389e+09  -0.5725  0.6136  -0.03787  -0.01538  5.099e-05  -0.01188  0.9258  -0.2071
6.39e+09  -0.3432  0.7987  0.04389  -0.004256  0.008823  -0.01263  0.7514  -0.4992
6.391e+09  -0.06308  0.8113  0.01581  -0.02016  -0.01446  -0.01906  0.5792  -0.7514
6.392e+09  0.1745  0.8414  -0.01788  0.01128  -0.04732  -0.008013  0.2883  -0.9183
6.394e+09  0.5742  0.6837  -0.02237  -0.00873  -0.0191  0.0402  -0.002393  -0.9394
6.395e+09  0.7608  0.4015  -0.02006  -0.0106  0.02391  0.04076  -0.3357  -0.8653
6.396e+09  0.8712  0.1469  -0.008241  -0.01686  -0.03664  0.01515  -0.6268  -0.6851
6.398e+09  0.8315  -0.1961  -0.0244  0.01167  0.009933  -0.02004  -0.8421  -0.4737
6.399e+09  0.7366  -0.4585  0.007401  0.03793  -0.05686  0.01205  -0.9169  -0.1088
6.4e+09  0.5579  -0.6728  -0.02129  0.03022  -0.0006358  0.01301  -0.916  0.1719
6.401e+09  0.2814  -0.7944  0.04381  0.0102  4.681e-05  0.01776  -0.7664  0.4572
6.402e+09  -0.04375  -0.8531  -0.02336  -0.03098  0.003676  -0.002725  -0.5703  0.688
6.404e+09  -0.3522  -0.7768  0.0228  0.0576  0.01844  -0.01409  -0.3142  0.8997
6.405e+09  -0.6364  -0.6467  0.03792  -0.0187  -0.01038  -0.01575  -0.02678  0.9366
6.406e+09  -0.7754  -0.3063  0.007278  0.01313  0.01071  0.01654  0.3244  0.8726
6.408e+09  -0.8779  -0.03245  -0.002502  -0.01428  0.04816  0.03507  0.6282  0.6915
6.409e+09  -0.7873  0.2334  0.0005699  0.03684  -0.03265  0.0172  0.7815  0.4438
6.41e+09  -0.6564  0.579  -0.01383  0.002754  0.009695  0.004617  0.8923  0.1878
6.411e+09  -0.3847  0.7636  0.006926  -0.0038  -0.03696  0.006283  0.9047  -0.1263
6.412e+09  -0.1225  0.8055  0.009861  0.016  0.003785  0.001218  0.7911  -0.4999
6.414e+09  0.2128  0.8451  -0.01019  -0.002773  0.0005472  -0.02459  0.5876  -0.6585
6.415e+09  0.4433  0.6764  0.01006  -0.02233  -0.01242  -0.005978  0.3294  -0.7968
6.416e+09  0.7234  0.5211  -6.161e-05  0.02223  -0.009721  0.01872  0.01212  -0.8844
6.418e+09  0.8025  0.1992  0.0113  -0.03841  -0.02026  0.01062  -0.308  -0.8503
6.419e+09  0.814  -0.07846  0.01305  0.04136  0.03757  0.03541  -0.5668  -0.6723
6.42e+09  0.7865  -0.374  -0.02762  -0.02538  -0.01539  -0.005432  -0.7626  -0.4436
6.421e+09  0.554  -0.6363  0.007481  0.02254  -0.02164  -0.03971  -0.8676  -0.1817
6.422e+09  0.3052  -0.7946  -0.007934  0.01665  0.003943  -0.01193  -0.8945  0.1189
6.424e+09  0.01674  -0.8267  0.01082  0.01306  0.007983  0.01831  -0.8268  0.4179
6.425e+09  -0.2944  -0.7783  0.01645  0.02166  0.01163  0.05225  -0.5917  0.6473
6.426e+09  -0.5567  -0.6517  0.01413  -0.0199  0.0007051  0.03704  -0.346  0.8304
6.428e+09  -0.7354  -0.4112  -0.01057  -0.04184  -0.001756  -0.009757  -0.05005  0.8709
6.429e+09  -0.8245  -0.07773  0.0159  -0.009099  0.0009516  -0.00286  0.2387  0.8221
6.43e+09  -0.8045  0.2096  0.005155  0.05112  0.02495  -0.004773  0.4971  0.6679
6.431e+09  -0.7378  0.4609  -0.02909  -0.02004  -0.02213  -0.008282  0.7453  0.4821
6.432e+09  -0.4768  0.7263  0.04294  0.03531  -0.04204  0.0249  0.8719  0.1685
6.434e+09  -0.1829  0.8595  -0.06334  -0.001604  -0.01285  -0.02402  0.8211  -0.07372
6.435e+09  0.08742  0.8386  -0.01972  -0.009079  -0.02405  -0.009677  0.756  -0.3522
6.436e+09  0.392  0.7315  0.01689  0.02296  0.02347  0.0343  0.6243  -0.5801
6.438e+09  0.671  0.5209  0.009167  -0.0652  -0.03851  0.02657  0.3807  -0.8085
6.439e+09  0.7417  0.2714  0.0132  0.01303  -0.02145  0.02553  0.06569  -0.8639
6.44e+09  0.8438  0.0265  0.005481  0.02369  0.02732  0.05497  -0.2282  -0.7633
6.441e+09  0.8133  -0.3212  0.03006  0.01788  -0.004753  -0.06051  -0.5148  -0.6792
6.442e+09  0.6429  -0.5128  0.02884  0.05195  0.01969  -0.03248  -0.7059  -0.4497
6.444e+09  0.4074  -0.7014  -0.03233  0.01079  -0.03042  -0.01251  -0.7985  -0.266
6.445e+09  0.1343  -0.8453  -0.003146  0.0411  0.002123  -0.002012  -0.8546  0.1219
6.446e+09  -0.1826  -0.8564  0.04072  0.04153  -0.004804  -0.005001  -0.7543  0.364
6.448e+09  -0.3855  -0.7613  -0.05321  -0.01366  0.02182  -0.04314  -0.6093  0.6333
6.449e+09  -0.6472  -0.4871  -0.0007628  -0.004497  -0.008644  -0.002379  -0.3222  0.7501
6.45e+09  -0.8073  -0.244  0.009687  -0.04464  -0.03111  0.0266  -0.1004  0.8654
6.451e+09  -0.8375  0.05222  0.007154  0.004767  -0.02264  -7.524e-05  0.2203  0.7959
6.452e+09  -0.7352  0.3219  -0.02337  -0.01941  -0.0243  0.001608  0.5025  0.6823
6.454e+09  -0.6098  0.6008  -0.005442  -0.002105  -0.01177  0.01367  0.6989  0.4868
6.455e+09  -0.3533  0.7824  -0.007198  0.01344  -0.05204  -0.03257  0.8105  0.185
6.456e+09  -0.0832  0.8989  0.04165  0.005849  0.02344  -0.005248  0.8555  -0.1358
6.458e+09  0.2482  0.7891  0.004048  -0.0218  0.02375  -0.04573  0.7457  -0.338
6.459e+09  0.4813  0.6685  -0.05182  0.003452  -0.0106  0.0007332  0.5555  -0.5853
6.46e+09  0.6906  0.51  -0.03475  0.007042  0.03596  0.02608  0.3346  -0.7216
6.461e+09  0.8062  0.165  0.01005  0.02065  -0.08196  0.02457  0.08156  -0.7855
6.462e+09  0.814  -0.1332  -0.02447  0.006238  -0.00847  -0.02802  -0.2114  -0.7939
6.464e+09  0.7059  -0.4206  -0.0166  0.002334  -0.0183  -0.00467  -0.4575  -0.6874
6.465e+09  0.5349  -0.5647  -0.0212  -0.03272  -0.03375  -0.0006218  -0.6652  -0.4328
6.466e+09  0.2853  -0.8002  -0.006372  -0.02253  0.03361  0.00501  -0.7968  -0.1882
6.468e+09  0.0005434  -0.8143  0.02569  0.01358  -0.01935  -0.01991  -0.8124  0.06357
6.469e+09  -0.2493  -0.7377  -0.01251  -0.001733  -0.0231  0.0144  -0.6931  0.3431
6.47e+09  -0.5413  -0.5856  0.03932  0.004275  -0.004827  -0.01901  -0.5879  0.5569
6.471e+09  -0.7767  -0.3892  0.03886  0.01309  0.007888  -0.02662  -0.347  0.7426
6.472e+09  -0.7546  -0.1757  -0.007917  0.01614  -0.04436  -0.01045  -0.0557  0.7664
6.474e+09  -0.85  0.1952  -0.01231  -0.02281  0.002914  -0.02688  0.2373  0.7938
6.475e+09  -0.6798  0.4147  0.007737  -0.03205  0.02732  -0.05972  0.4624  0.6276
6.476e+09  -0.4959  0.6391  -0.03018  -0.005428  0.03342  0.04074  0.6706  0.4245
6.478e+09  -0.2553  0.7562  0.0289  -0.001321  0.003039  -0.03045  0.7444  0.2188
6.479e+09  0.02304  0.8123  -0.003346  -0.01729  -0.0001906  -0.02128  0.7848  -0.1101
6.48e+09  0.3005  0.7615  0.009235  -0.03062  -0.08195  0.01452  0.7121  -0.338
6.481e+09  0.5717  0.5967  -0.06135  -0.03942  -0.005106  -0.02647  0.4884  -0.5874
6.482e+09  0.7227  0.3389  -0.01512  0.01829  0.002154  0.01352  0.3601  -0.6808
6.484e+09  0.808  0.1473  0.03089  -0.01761  0.009427  -0.01417  0.07685  -0.7825
6.485e+09  0.8444  -0.1874  0.002408  0.01586  0.007799  -0.001028  -0.2115  -0.7306
6.486e+09  0.6614  -0.4819  -0.004795  -0.04757  -0.006144  0.0241  -0.4693  -0.6374
6.488e+09  0.4948  -0.6335  0.01878  0.02568  0.008499  0.003942  -0.6372  -0.4213
6.489e+09  0.1553  -0.7977  -0.04174  -0.01524  -0.002336  -0.004121  -0.7958  -0.1793
6.49e+09  -0.1035  -0.7915  -0.02441  0.01199  0.00335  0.01238  -0.745  0.09739
6.491e+09  -0.3944  -0.7428  0.02322  -0.02233  0.0118  0.03245  -0.7404  0.3995
6.492e+09  -0.587  -0.5924  -0.009126  0.009144  -0.009879  -0.01829  -0.5009  0.5963
6.494e+09  -0.771  -0.3699  -0.008941  0.01521  -0.0356  0.02582  -0.3477  0.7251
6.495e+09  -0.7909  -0.08351  -0.02714  0.01831  0.04274  0.04641  -0.06954  0.7713
6.496e+09  -0.7813  0.2671  -0.02291  0.01856  0.004709  -0.07074  0.233  0.7592
6.498e+09  -0.708  0.5173  -0.02236  -0.02093  0.0216  0.02085  0.4729  0.6373
6.499e+09  -0.4789  0.6935  -0.02174  -0.001134  -0.03536  0.01017  0.6353  0.4123
6.5e+09  -0.221  0.7795  0.03631  0.03993  -0.002396  0.04274  0.7426  0.1858
6.501e+09  0.09883  0.8266  -0.02973  0.001932  -0.007672  -0.008939  0.7298  -0.09867
6.502e+09  0.381  0.74  -0.02675  0.01888  -0.05504  0.03383  0.6506  -0.3741
6.504e+09  0.6152  0.5217  -0.003018  -0.01994  0.02458  -0.02442  0.5124  -0.5846
6.505e+09  0.7553  0.3261  0.02663  0.02321  0.002744  0.03168  0.307  -0.6978
6.506e+09  0.8444  0.02769  0.01208  0.02219  -0.005646  -0.064  0.00411  -0.7453
6.508e+09  0.8437  -0.2801  0.001139  0.02499  -0.02581  -0.05679  -0.2654  -0.7239
6.509e+09  0.7012  -0.5207  0.02956  0.01996  -0.02722  0.04914  -0.4619  -0.6187
6.51e+09  0.4531  -0.7591  0.0282  -0.0017  0.0015  -0.01098  -0.6504  -0.3751
6.511e+09  0.1289  -0.871  0.01685  -0.03924  0.009231  0.0153  -0.7361  -0.128
6.512e+09  -0.134  -0.8483  0.04007  0.03031  0.03832  0.01427  -0.7296  0.1055
6.514e+09  -0.3972  -0.6856  -0.002639  -0.02367  -0.01388  0.008758  -0.6437  0.3592
6.515e+09  -0.6602  -0.5909  -0.04236  -0.0189  0.01589  0.01727  -0.4771  0.5872
6.516e+09  -0.831  -0.2543  -0.009614  -0.009037  -0.04061  -0.03659  -0.2368  0.7004
6.518e+09  -0.8522  0.02005  -0.008023  0.04763  -0.003298  0.02282  0.0277  0.7396
6.519e+09  -0.781  0.3281  0.009198  0.02577  -0.01689  0.02354  0.2516  0.7068
6.52e+09  -0.7029  0.5552  0.02994  -0.01924  0.02528  -0.06025  0.5217  0.5625
6.521e+09  -0.4383  0.7857  0.00677  0.0295  0.007799  0.005369  0.6465  0.3445
6.522e+09  -0.1393  0.868  0.005383  0.01805  -0.005743  -0.002717  0.7249  0.1105
6.524e+09  0.2028  0.8973  -0.01072  0.01998  -0.01441  0.002585  0.7037  -0.1554
6.525e+09  0.4723  0.7145  -0.04555  0.002465  0.01143  -0.0004664  0.6173  -0.386
6.526e+09  0.7158  0.5059  -0.02159  0.003701  0.04187  -0.01046  0.4363  -0.5699
6.528e+09  0.8439  0.2269  -0.02222  -0.03258  0.06789  -0.003756  0.176  -0.6638
6.529e+09  0.8689  -0.02839  -0.002402  -0.01349  0.009711  -0.02741  -0.06981  -0.727
6.53e+09  0.8451  -0.3835  0.01243  0.001579  0.02866  -0.03902  -0.2896  -0.6088
6.531e+09  0.6625  -0.5893  0.01726  0.008673  0.0007184  -0.0164  -0.4692  -0.4865
6.532e+09  0.4001  -0.8255  0.01719  0.00153  -0.02844  -0.02126  -0.6235  -0.2884
6.534e+09  0.084  -0.8652  0.03192  0.01161  -0.01847  0.01153  -0.6524  -0.1125
6.535e+09  -0.2419  -0.8325  0.008944  -0.0272  -0.06316  0.03593  -0.6219  0.1131
6.536e+09  -0.565  -0.8078  0.02525  -0.0333  -0.04893  -0.02721  -0.5658  0.3175
6.538e+09  -0.7334  -0.4796  -0.001071  -0.03558  -0.003966  -0.02551  -0.4502  0.4969
6.539e+09  -0.8563  -0.1872  -0.00994  0.01827  0.01618  0.04407  -0.2784  0.6179
6.54e+09  -0.8845  0.1253  -0.01712  0.03089  -0.0118  -0.03773  -0.02594  0.6665
6.541e+09  -0.8161  0.4374  -0.01448  0.006141  -0.02503  0.01834  0.192  0.6493
6.542e+09  -0.6013  0.7017  0.007249  -0.01629  -0.006977  -0.01264  0.4153  0.5674
6.544e+09  -0.3102  0.8415  -0.005683  0.0135  0.01011  0.008567  0.6074  0.3819
6.545e+09  -0.02122  0.9843  0.002962  -0.02083  0.003529  0.01917  0.6765  0.1933
6.546e+09  0.2926  0.88  -0.01295  -0.0008572  -0.04861  0.04668  0.7528  -0.09132
6.548e+09  0.5929  0.7183  -0.004446  0.01626  0.006284  -0.04131  0.6867  -0.3115
6.549e+09  0.8147  0.4157  -0.01139  0.02014  -0.0005869  -0.04717  0.4956  -0.523
6.55e+09  0.9668  0.1317  0.02557  0.007737  -0.02533  0.01684  0.2781  -0.6677
