# Hz S RI R 50
6.25e+09  0.09496  0.9212  0.02613  -0.01233  0.009172  0.047  0.1896  0.5059
6.251e+09  0.3936  0.7699  0.002987  0.02121  -0.006015  0.01002  0.4013  0.4293
6.252e+09  0.708  0.6033  0.01685  0.01563  -0.06659  -0.06064  0.5222  0.2515
6.254e+09  0.7908  0.4105  -0.01344  -0.004055  -0.04206  -0.004062  0.596  0.03446
6.255e+09  0.8408  0.02222  -0.002503  0.01293  -0.01447  0.009521  0.5836  -0.2271
6.256e+09  0.8287  -0.2862  -0.01343  -0.006657  0.003398  -0.03513  0.4675  -0.441
6.258e+09  0.6306  -0.5079  -0.001494  0.00374  0.02465  0.01215  0.259  -0.621
6.259e+09  0.4785  -0.6909  -0.02166  0.01157  0.01791  -0.02755  0.06109  -0.652
6.26e+09  0.1551  -0.8326  0.01293  0.02125  0.023  0.001817  -0.2304  -0.6543
6.261e+09  -0.1326  -0.8748  0.001962  -0.006327  -0.005846  -0.008924  -0.4903  -0.5317
6.262e+09  -0.4227  -0.7131  -0.006693  -0.01638  0.02756  -0.01636  -0.6152  -0.3652
6.264e+09  -0.6443  -0.5839  0.0111  -0.02262  -0.006854  0.02086  -0.7061  -0.1232
6.265e+09  -0.7992  -0.3019  0.01289  -0.008844  0.004473  -0.04833  -0.7163  0.1291
6.266e+09  -0.8604  -0.03444  -0.007447  0.03742  -0.03214  -0.05239  -0.5983  0.3932
6.268e+09  -0.806  0.2396  0.009651  -0.001094  0.02233  0.00557  -0.4079  0.5973
6.269e+09  -0.6531  0.4992  0.02682  -0.005589  0.05257  0.09326  -0.1819  0.7024
6.27e+09  -0.4461  0.7505  -0.002961  -0.0334  0.03563  0.007991  0.05785  0.7741
6.271e+09  -0.189  0.8501  0.009561  -0.01095  0.03425  -0.008131  0.3063  0.6964
6.272e+09  0.1537  0.8198  -0.006268  -0.01892  -0.01293  -0.0332  0.5179  0.5169
6.274e+09  0.3978  0.752  0.0202  -0.01374  -0.02596  0.02727  0.7081  0.3323
6.275e+09  0.656  0.528  0.009491  0.0061  0.01644  -0.05222  0.7584  0.03423
6.276e+09  0.8698  0.2631  0.001075  0.03241  0.02889  0.01054  0.738  -0.2543
6.278e+09  0.7857  -0.004567  0.01664  -0.02611  0.01185  0.03727  0.6288  -0.4548
6.279e+09  0.7817  -0.2927  -0.01458  0.002046  0.003319  -0.01821  0.4061  -0.6843
6.28e+09  0.6606  -0.5774  0.00853  0.01764  0.01206  0.005161  0.1645  -0.7793
6.281e+09  0.3251  -0.7056  -0.02041  -0.02411  0.04953  0.03873  -0.1064  -0.7928
6.282e+09  0.1111  -0.8264  -0.03881  0.003173  -0.02606  0.03867  -0.3678  -0.6762
6.284e+09  -0.1777  -0.8172  0.002989  -0.0003249  0.03482  -0.007626  -0.6035  -0.5436
6.285e+09  -0.412  -0.6933  0.009911  0.0319  0.04157  0.02259  -0.7562  -0.2941
6.286e+09  -0.6395  -0.4887  0.001247  -0.001839  0.04955  -0.006659  -0.7655  0.008084
6.288e+09  -0.8182  -0.1982  -0.01855  0.0157  -0.012  0.02186  -0.7557  0.263
6.289e+09  -0.8854  0.03614  0.008554  0.005934  -0.008641  -0.02474  -0.6109  0.5434
6.29e+09  -0.7597  0.3746  0.03357  -0.01743  0.005989  0.00189  -0.4203  0.7126
6.291e+09  -0.5472  0.5566  0.01187  -0.0005011  0.004546  -0.00986  -0.1436  0.773
6.292e+09  -0.3011  0.7287  -0.01318  -0.006182  0.000699  -0.01432  0.1502  0.8062
6.294e+09  -0.02232  0.8523  0.005597  0.03101  -0.01859  0.02069  0.4178  0.7503
6.295e+09  0.232  0.8296  -0.002173  -0.008976  0.008811  -0.003164  0.6433  0.544
6.296e+09  0.4981  0.6562  -0.02999  0.0148  0.04132  -0.003877  0.7758  0.2662
6.298e+09  0.7322  0.4711  -0.02404  -0.005474  0.01759  -0.005657  0.8138  0.009079
6.299e+09  0.8099  0.1601  0.01941  0.005493  0.02275  0.01809  0.7469  -0.269
6.3e+09  0.8252  -0.1129  0.001559  -0.0009048  -0.02921  0.005828  0.6543  -0.5509
6.301e+09  0.6839  -0.4209  0.009256  -0.008154  0.04052  -0.03187  0.4431  -0.7185
6.302e+09  0.5815  -0.5554  0.01211  0.007243  -0.01603  0.004635  0.1424  -0.8481
6.304e+09  0.2959  -0.7729  0.01029  -0.009537  0.04724  0.0004392  -0.1514  -0.8268
6.305e+09  0.0306  -0.8388  -0.03845  0.00155  -0.01442  0.02236  -0.4262  -0.7123
6.306e+09  -0.3313  -0.8017  0.01526  -0.005315  0.01201  -0.005768  -0.6507  -0.5526
6.308e+09  -0.5567  -0.6174  -0.01117  -0.01064  -0.03562  -0.01467  -0.7799  -0.3005
6.309e+09  -0.6883  -0.4073  0.002823  0.01356  0.03331  0.005574  -0.8475  -0.04331
6.31e+09  -0.7893  -0.195  0.03042  -0.02652  0.00639  -0.006527  -0.7838  0.2829
6.311e+09  -0.8653  0.1389  -0.02613  0.005924  0.003428  0.04059  -0.6628  0.5551
6.312e+09  -0.7723  0.4444  0.01377  -0.009162  0.03815  0.01281  -0.4537  0.7969
6.314e+09  -0.5214  0.6396  -0.01867  -0.0123  -0.02648  0.02188  -0.1558  0.8662
6.315e+09  -0.2779  0.7571  -0.01512  -0.02006  0.0001029  0.05692  0.1228  0.8957
6.316e+09  0.03178  0.8378  0.005151  -0.02605  0.04266  -0.02797  0.4436  0.7839
6.318e+09  0.3641  0.7174  -0.01811  -0.01058  -0.007435  0.01019  0.729  0.5915
6.319e+09  0.6476  0.5703  -0.001061  0.01246  0.06112  0.02039  0.824  0.3417
6.32e+09  0.7332  0.427  0.02077  -0.0311  0.03609  0.01068  0.8824  0.02353
6.321e+09  0.8639  0.06102  0.009464  -0.01389  0.0005256  -0.06826  0.8378  -0.3021
6.322e+09  0.802  -0.1988  -0.02986  0.01027  -0.004922  -0.02674  0.7053  -0.5797
6.324e+09  0.7071  -0.481  -0.01744  0.003217  -0.0363  -0.007368  0.4423  -0.7518
6.325e+09  0.5081  -0.7257  0.03294  0.005015  -0.04839  -0.001807  0.1773  -0.8596
6.326e+09  0.2086  -0.8081  0.01588  -0.008045  -0.01529  0.02474  -0.1168  -0.9243
6.328e+09  -0.1011  -0.8738  0.003838  0.04432  0.011  0.01476  -0.3977  -0.8004
6.329e+09  -0.3809  -0.7656  0.01241  -0.01875  -0.09161  0.04122  -0.6542  -0.5808
6.33e+09  -0.6204  -0.577  0.02008  0.03786  -0.01153  0.007005  -0.8532  -0.3702
6.331e+09  -0.7828  -0.3393  0.04385  -0.02569  0.0239  0.008205  -0.9141  -0.0285
6.332e+09  -0.9065  0.009788  -0.01555  -0.0058  -0.05721  0.006759  -0.8667  0.2654
6.334e+09  -0.8368  0.2834  -0.01986  -0.002417  -0.05045  0.01161  -0.6988  0.5715
6.335e+09  -0.685  0.579  -0.01306  -0.02268  0.02028  -0.01351  -0.485  0.769
6.336e+09  -0.4243  0.7794  -0.008931  -0.009791  0.01182  0.0008544  -0.1731  0.8989
6.338e+09  -0.1768  0.8813  -0.005674  -0.01384  -0.02005  0.01038  0.1534  0.9028
6.339e+09  0.1724  0.9028  0.02142  -0.008991  0.008209  0.005603  0.4522  0.816
6.34e+09  0.4605  0.7729  -0.02089  -0.002038  -0.04036  0.02041  0.687  0.6299
6.341e+09  0.6889  0.5672  -0.02368  -0.01992  -0.04273  -0.006652  0.867  0.3754
6.342e+09  0.8463  0.3078  0.01979  0.001734  -0.006168  0.02165  0.9388  0.03983
6.344e+09  0.9044  -0.00228  -0.003793  0.01709  -0.01086  -0.01027  0.8931  -0.287
6.345e+09  0.7713  -0.3662  0.01128  -0.01344  0.023  0.02778  0.739  -0.5583
6.346e+09  0.6736  -0.635  6.906e-05  0.00566  0.07502  -0.01841  0.53  -0.7632
6.348e+09  0.3436  -0.7423  -0.01331  -0.0104  0.0293  -0.008672  0.2167  -0.8964
6.349e+09  0.07668  -0.8865  0.03593  0.004617  0.05661  0.01472  -0.1203  -0.9234
6.35e+09  -0.1717  -0.8285  -0.01989  -0.02512  -0.04054  -0.001554  -0.4566  -0.8471
6.351e+09  -0.5102  -0.7082  -0.004447  -0.009129  -0.007051  0.02182  -0.6579  -0.6444
6.352e+09  -0.7444  -0.4995  -0.01866  0.02428  0.01284  0.01007  -0.834  -0.3441
6.354e+09  -0.8626  -0.2026  -0.03536  0.003579  0.005211  -0.01609  -0.9061  -0.06306
6.355e+09  -0.9076  0.1019  -0.01257  0.03656  -0.005241  0.07324  -0.9043  0.27
6.356e+09  -0.789  0.3412  0.001257  0.002844  0.02513  -0.004259  -0.8031  0.5725
6.358e+09  -0.651  0.7055  -2.133e-05  0.0165  0.01468  -0.001443  -0.5214  0.8085
6.359e+09  -0.3301  0.8109  0.01995  0.03222  -0.01872  -0.01376  -0.2448  0.9033
6.36e+09  -0.04111  0.8655  0.01823  0.004646  -0.02719  0.004764  0.1038  0.9332
6.361e+09  0.2771  0.8413  -0.01935  -0.005829  0.02021  -0.03425  0.4628  0.8661
6.362e+09  0.5333  0.6978  0.01275  -0.007163  -0.03656  -0.01938  0.6549  0.682
6.364e+09  0.7697  0.4067  -0.03408  0.01094  -0.01903  -0.02783  0.8378  0.3822
6.365e+09  0.896  0.1504  -0.002578  -0.00928  -0.02596  0.03757  0.9378  0.07328
6.366e+09  0.9009  -0.1659  0.0222  0.001216  -0.02772  -0.01764  0.9296  -0.2353
6.368e+09  0.8193  -0.4662  -0.003691  0.04157  -0.01816  0.00258  0.7912  -0.5611
6.369e+09  0.5462  -0.7438  -0.0005694  0.01342  0.0304  0.01924  0.5545  -0.8053
6.37e+09  0.3006  -0.7993  0.01539  0.002954  0.01291  0.009222  0.2379  -0.9423
6.371e+09  -0.001354  -0.8524  0.0009673  0.02003  0.01662  -0.0221  -0.09471  -0.9302
6.372e+09  -0.3389  -0.8143  0.02168  0.01007  -0.03843  0.02523  -0.3912  -0.8129
6.374e+09  -0.6086  -0.671  -0.001423  -0.0162  -0.0002167  -0.00433  -0.64  -0.7057
6.375e+09  -0.7949  -0.3669  -0.001563  0.02646  0.009811  -0.006314  -0.888  -0.4701
6.376e+09  -0.8828  -0.1184  -0.01397  0.01637  0.02142  0.03326  -0.9385  -0.0736
6.378e+09  -0.9218  0.2245  0.0125  0.003677  0.04696  0.03236  -0.9113  0.2629
6.379e+09  -0.7599  0.4957  0.02946  -0.004116  0.01801  -0.007814  -0.8125  0.5128
6.38e+09  -0.5598  0.7175  -0.02854  0.02224  0.03523  -0.02158  -0.5532  0.749
6.381e+09  -0.2313  0.8771  -0.0007735  0.02573  -0.01801  -0.004335  -0.2608  0.8855
6.382e+09  0.05582  0.9143  -0.03555  -0.004698  0.02177  -0.007145  0.05654  0.9285
6.384e+09  0.3479  0.8027  -0.009361  0.02348  0.01958  0.008161  0.3436  0.8875
6.385e+09  0.6885  0.6661  0.005256  0.02353  -0.02224  0.01205  0.6235  0.6774
6.386e+09  0.7995  0.389  -0.03332  0.01834  0.008714  0.04446  0.8141  0.4168
6.388e+09  0.8474  0.04336  -0.01083  0.01499  0.001577  0.01691  0.9  0.09808
6.389e+09  0.8379  -0.2451  0.02522  0.01398  0.02136  0.02536  0.9122  -0.2251
6.39e+09  0.7136  -0.5269  0.006177  0.02713  -0.005687  0.03354  0.7847  -0.4985
6.391e+09  0.441  -0.7214  -0.01214  0.008115  -0.01563  0.06541  0.5816  -0.7128
6.392e+09  0.2225  -0.8746  -0.01487  -0.02253  -0.01308  -0.01608  0.2855  -0.9205
6.394e+09  -0.1241  -0.9298  -0.02584  -0.007222  0.04364  -0.001889  -0.0712  -0.9146
6.395e+09  -0.4203  -0.7856  -0.04266  0.01251  -0.04914  0.0258  -0.3777  -0.8552
6.396e+09  -0.6067  -0.606  0.02176  0.03689  0.04648  0.002342  -0.6365  -0.6919
6.398e+09  -0.8004  -0.3255  0.001691  -0.02264  0.01345  -0.007397  -0.8145  -0.4468
6.399e+09  -0.8728  -0.08821  -0.01169  0.01046  -0.0495  -0.01351  -0.8738  -0.1227
6.4e+09  -0.851  0.2497  0.03224  0.02504  0.01464  0.0174  -0.9124  0.1553
6.401e+09  -0.6829  0.5461  -0.01902  0.03328  0.01425  0.0006537  -0.7816  0.4831
6.402e+09  -0.4819  0.7663  0.002386  -0.03339  -0.01291  -0.01691  -0.5954  0.7316
6.404e+09  -0.233  0.8438  0.02339  -0.01332  0.01688  -0.007917  -0.3151  0.9168
6.405e+09  0.1273  0.9111  0.03523  -0.03317  -0.01725  -0.02556  -0.01481  0.9591
6.406e+09  0.4149  0.7545  0.02196  -0.02748  -0.03073  -0.01404  0.3088  0.829
6.408e+09  0.6659  0.581  -0.0654  0.03199  -0.007022  0.01727  0.5863  0.7264
6.409e+09  0.8663  0.368  0.04859  0.02857  0.02616  -0.00357  0.7968  0.4754
6.41e+09  0.8979  0.02158  -0.01837  -0.002404  0.01502  -0.03334  0.9007  0.1986
6.411e+09  0.817  -0.2764  -0.006701  0.01589  -0.01373  0.01496  0.8847  -0.1057
6.412e+09  0.7188  -0.5781  0.03532  0.01489  0.04425  -0.04723  0.7591  -0.4274
6.414e+09  0.4532  -0.7702  -0.04607  -0.03775  0.03146  -0.01286  0.5814  -0.6692
6.415e+09  0.1423  -0.8771  -0.02746  -0.008372  0.03006  0.001855  0.3477  -0.823
6.416e+09  -0.1665  -0.9279  -0.003008  0.0007686  -0.01687  0.02582  0.02129  -0.9152
6.418e+09  -0.4219  -0.748  -0.005675  -0.02058  0.02807  0.03288  -0.2638  -0.8267
6.419e+09  -0.693  -0.5729  -0.04475  -0.02968  -0.01801  -0.02469  -0.5364  -0.6996
6.42e+09  -0.868  -0.2769  0.003751  -0.009565  0.02108  0.03412  -0.7181  -0.4867
6.421e+09  -0.8579  0.0219  0.01957  -0.007039  -0.009596  -0.04428  -0.8547  -0.2179
6.422e+09  -0.8274  0.3255  -0.01335  -0.01356  0.01193  0.03897  -0.8601  0.09075
6.424e+09  -0.6295  0.6147  -0.01082  0.03063  -0.05646  -0.03868  -0.7522  0.4266
6.425e+09  -0.439  0.7857  0.02559  0.006812  0.01752  0.02218  -0.5886  0.6757
6.426e+09  -0.1209  0.8825  -0.01943  -0.008862  -0.02453  -0.06011  -0.3962  0.7889
6.428e+09  0.2009  0.8944  -0.01204  -0.008195  0.008076  0.01765  -0.04813  0.8572
6.429e+09  0.5291  0.7187  -0.01779  0.02769  -0.0303  -0.01238  0.2669  0.8083
6.43e+09  0.747  0.5447  0.02411  0.02284  -0.03567  0.009687  0.5484  0.7047
6.431e+09  0.8716  0.2453  -0.007544  0.007357  -0.02646  -0.01404  0.7272  0.4645
6.432e+09  0.92  -0.05434  -0.001132  -0.002483  -0.001195  -0.01671  0.8532  0.2169
6.434e+09  0.8118  -0.3735  -0.03052  0.001873  0.005031  -0.01816  0.8731  -0.06867
6.435e+09  0.6453  -0.6028  -0.01744  -0.03667  0.01173  0.01654  0.7664  -0.3616
6.436e+09  0.4037  -0.8372  -0.01218  0.0298  -0.01952  -0.01317  0.613  -0.6195
6.438e+09  0.0707  -0.888  0.06801  -0.003938  -0.02581  -0.02942  0.3152  -0.7497
6.439e+09  -0.2629  -0.9272  -0.03997  -0.002383  0.02379  0.03094  0.1027  -0.8422
6.44e+09  -0.4704  -0.7678  -0.0001837  -0.0256  0.01747  -0.008935  -0.2381  -0.834
6.441e+09  -0.7628  -0.4997  -0.01177  0.006126  0.007743  -0.02015  -0.4844  -0.7255
6.442e+09  -0.9166  -0.2561  0.01801  0.009105  -0.01862  -0.009808  -0.732  -0.4892
6.444e+09  -0.9048  0.1438  -0.004166  -0.03841  -0.01157  -0.01378  -0.8243  -0.1479
6.445e+09  -0.829  0.4307  0.03042  -0.03106  0.04701  -0.03631  -0.8217  0.07733
6.446e+09  -0.6315  0.7197  -0.008021  -0.02194  -0.003698  0.01666  -0.7733  0.3584
6.448e+09  -0.3617  0.888  0.004706  0.01164  0.04206  0.02259  -0.615  0.5984
6.449e+09  -0.02638  0.9205  0.03936  0.01056  -0.01559  0.006196  -0.3516  0.7975
6.45e+09  0.3042  0.859  0.05947  -0.004854  -0.006768  -0.0009468  -0.07314  0.8285
6.451e+09  0.6421  0.7239  -0.05443  0.01508  0.008342  -0.01512  0.2319  0.8651
6.452e+09  0.8344  0.4818  0.01766  0.02303  0.03578  -0.02583  0.4689  0.67
6.454e+09  0.9485  0.1603  -0.02465  0.03762  -0.03362  -0.04277  0.6609  0.4986
6.455e+09  0.9353  -0.1504  0.01642  0.02392  -0.0145  -0.03808  0.804  0.2294
6.456e+09  0.764  -0.5064  -0.03647  -0.02016  -0.006496  0.01436  0.8566  -0.07157
6.458e+09  0.6069  -0.8002  -0.02072  -0.005895  -0.02073  -0.01308  0.7416  -0.3353
6.459e+09  0.3232  -0.8604  -0.0261  0.01316  0.001381  0.03203  0.5995  -0.5357
6.46e+09  -0.04898  -0.942  0.00611  0.01317  -0.03314  -0.06422  0.3253  -0.7012
6.461e+09  -0.3417  -0.8698  -0.008649  -0.04298  0.009352  -0.01725  0.05909  -0.7879
6.462e+09  -0.6702  -0.6802  -0.005047  -0.02555  0.007977  -0.02364  -0.2374  -0.761
6.464e+09  -0.7737  -0.3869  0.04748  0.02766  0.02065  0.08027  -0.4676  -0.6392
6.465e+09  -0.9573  -0.125  -0.01475  -0.01394  0.02419  -0.0177  -0.7144  -0.4483
6.466e+09  -0.9172  0.2828  -0.01569  0.0141  0.008219  -0.05329  -0.7605  -0.2276
6.468e+09  -0.7492  0.5575  0.017  -0.0305  0.03434  0.01598  -0.8236  0.09405
6.469e+09  -0.5824  0.8116  -0.0336  -0.004859  0.02464  -0.03186  -0.7265  0.3742
6.47e+09  -0.1994  0.9511  -0.01353  0.02214  0.03786  -0.00294  -0.576  0.5719
6.471e+09  0.09379  0.9084  -0.0251  0.02083  0.005165  0.01663  -0.3271  0.727
6.472e+09  0.4393  0.8216  -0.01456  0.006499  -0.01989  0.01157  -0.02552  0.7786
6.474e+09  0.6512  0.631  -0.05479  0.01134  0.03506  -0.0104  0.2213  0.7327
6.475e+09  0.872  0.3727  -0.02463  -0.04163  0.02137  0.02378  0.4586  0.6097
6.476e+09  0.9574  -0.005592  -0.02974  0.01429  -0.01974  0.03217  0.6626  0.4367
6.478e+09  0.9007  -0.371  0.001163  -0.02674  -0.02375  -0.01646  0.7465  0.2229
6.479e+09  0.7142  -0.616  -0.008688  -0.02831  -0.01528  -0.02193  0.7383  -0.06178
6.48e+09  0.4148  -0.8444  0.002432  -0.0177  -0.05727  -0.04657  0.6939  -0.3481
6.481e+09  0.06322  -0.9211  0.008041  -0.06167  -0.01418  0.03517  0.5355  -0.5693
6.482e+09  -0.1897  -0.8648  0.0006715  0.01204  -0.01566  0.005323  0.2946  -0.7046
6.484e+09  -0.4881  -0.7743  -0.01969  0.01235  0.02528  0.02865  0.0501  -0.7887
6.485e+09  -0.7714  -0.5095  -0.03292  -0.02263  -0.0482  -0.008213  -0.2059  -0.7528
6.486e+09  -0.926  -0.2181  -0.04879  0.003038  0.01286  0.05591  -0.4607  -0.5765
6.488e+09  -0.9812  0.1015  -0.01689  -0.04107  0.01772  0.00151  -0.6649  -0.4408
6.489e+09  -0.8338  0.4582  0.02074  -0.0197  -0.04047  -0.0003546  -0.7568  -0.1279
6.49e+09  -0.6537  0.6874  0.0224  0.01915  0.00994  0.04816  -0.7743  0.1014
6.491e+09  -0.3273  0.8837  -0.02564  0.03704  -0.03459  -0.02613  -0.6901  0.3317
6.492e+09  0.03394  0.9364  0.02263  0.03039  -0.01083  0.03984  -0.5527  0.5365
6.494e+09  0.2914  0.8748  -0.01441  -0.02695  -0.007701  -0.01539  -0.3149  0.6867
6.495e+09  0.5965  0.7269  -0.03228  -0.003124  -0.03442  -0.01851  -0.1044  0.7651
6.496e+09  0.8393  0.4863  0.02996  -0.008598  0.038  -0.0399  0.2572  0.7588
6.498e+09  0.8999  0.1083  0.004297  0.008546  0.01068  0.005146  0.4354  0.594
6.499e+09  0.9578  -0.2003  -0.02423  0.006311  0.0009185  -0.01455  0.6476  0.383
6.5e+09  0.7754  -0.5454  -0.03678  0.02021  0.06183  -0.02028  0.7594  0.2008
6.501e+09  0.5736  -0.786  -0.011  0.001049  0.03407  0.01014  0.7433  -0.1171
6.502e+09  0.2587  -0.9056  0.009619  0.008054  -0.01915  0.01282  0.6703  -0.3356
6.504e+09  -0.09333  -0.9568  -0.02241  0.001264  0.001196  0.005201  0.5465  -0.5694
6.505e+09  -0.4374  -0.8387  -0.01194  -0.03686  0.04457  -0.03982  0.2545  -0.736
6.506e+09  -0.6636  -0.6451  -0.004805  0.0009234  -0.004856  0.002266  0.01925  -0.7944
6.508e+09  -0.8587  -0.2914  -0.02934  0.002743  0.03156  0.005489  -0.2448  -0.698
6.509e+09  -0.9259  -0.06452  -0.02833  0.01096  -0.01262  -0.003838  -0.4474  -0.6327
6.51e+09  -0.906  0.3283  -0.04114  0.0143  0.02711  -0.02704  -0.6735  -0.4015
6.511e+09  -0.7267  0.6866  0.01546  0.01543  -0.009217  0.001054  -0.7536  -0.1468
6.512e+09  -0.3659  0.7957  0.02141  -0.03601  0.0128  -0.04555  -0.7293  0.1339
6.514e+09  -0.0898  0.9077  -0.0271  -0.01948  -0.01606  0.02714  -0.697  0.3688
6.515e+09  0.1688  0.9205  0.02458  -0.00887  0.01967  -0.001106  -0.4862  0.5681
6.516e+09  0.5272  0.7593  -0.003013  0.01761  0.05  0.01408  -0.24  0.6667
6.518e+09  0.7431  0.5067  0.03642  0.005599  -0.07117  -0.01779  0.01367  0.7257
6.519e+09  0.818  0.2367  -0.02391  -0.01722  0.007838  0.06015  0.2424  0.6658
6.52e+09  0.9109  -0.09082  0.007732  0.001635  -0.03545  0.05308  0.5203  0.5666
6.521e+09  0.802  -0.4835  0.01633  -0.02117  0.01091  -0.004098  0.6569  0.329
6.522e+09  0.6142  -0.6615  0.02053  -0.02513  0.01703  0.05485  0.7445  0.07736
6.524e+09  0.334  -0.81  0.01203  -0.0406  0.05175  -0.03014  0.6539  -0.1802
6.525e+09  -0.01706  -0.8759  0.006738  -0.01101  0.02409  0.0257  0.6219  -0.4007
6.526e+09  -0.3224  -0.8233  0.01762  0.00749  -0.003555  0.01514  0.4084  -0.5717
6.528e+09  -0.6553  -0.6887  -0.001161  -0.01254  -0.0209  -0.01203  0.1793  -0.6843
6.529e+09  -0.7254  -0.369  0.0239  -0.006145  -0.01512  -0.05107  -0.05711  -0.721
6.53e+09  -0.912  -0.1133  0.01367  0.001063  0.005641  0.01701  -0.273  -0.6526
6.531e+09  -0.8626  0.2035  -0.002171  0.02447  0.05214  0.0005467  -0.5097  -0.4926
6.532e+09  -0.7211  0.5588  0.01523  0.0384  -0.03414  -0.01405  -0.6217  -0.278
6.534e+09  -0.445  0.7092  0.02144  0.04257  0.01172  -0.002496  -0.6177  -0.0921
6.535e+09  -0.1861  0.8781  -0.007054  0.001117  -0.08383  0.07233  -0.6318  0.1149
6.536e+09  0.122  0.8167  0.009337  0.00743  0.0409  0.01009  -0.5641  0.2969
6.538e+09  0.3976  0.7459  -0.008094  -0.02511  0.04931  -0.01857  -0.4657  0.4447
6.539e+09  0.7142  0.5297  0.007184  -0.004722  0.04452  -0.04381  -0.2609  0.5808
6.54e+09  0.8152  0.2467  0.03365  0.01293  0.03302  -0.0298  -0.03696  0.6756
6.541e+09  0.7632  -0.05867  -0.0109  -0.0007306  -0.04139  0.01191  0.1882  0.6836
6.542e+09  0.7847  -0.3102  -0.01281  0.002996  0.04699  0.0448  0.387  0.5855
6.544e+09  0.5886  -0.5612  -0.04455  -0.01799  -0.04596  -0.009479  0.6086  0.4295
6.545e+09  0.3241  -0.7379  -0.01614  -0.00874  0.04731  -0.0227  0.6942  0.1623
6.546e+09  0.08173  -0.7986  0.01486  0.02455  -0.04743  -0.0003039  0.7547  -0.07851
6.548e+09  -0.2424  -0.8657  -0.01339  -0.008013  0.009425  0.04157  0.657  -0.3036
6.549e+09  -0.4686  -0.6428  -0.001744  0.03639  0.01487  0.06014  0.5265  -0.5743
6.55e+09  -0.6652  -0.4502  0.01827  -0.01351  -0.008609  0.04508  0.2676  -0.677
6.551e+09  -0.8333  -0.1471  -0.001952  -0.01908  0.01636  -0.001431  0.04434  -0.7223
