# Hz S RI R 50
6.25e+09  -0.1551  0.9111  0.000645  -0.001324  -0.01292  0.03218  0.1557  0.4742
6.251e+09  0.1782  0.8229  0.0004952  -0.04984  -0.005625  0.0845  0.3692  0.4231
6.252e+09  0.4755  0.8213  -0.01971  -0.009314  0.04518  -0.004893  0.482  0.2498
6.254e+09  0.7041  0.5505  0.01116  -0.01969  -0.01806  -0.06455  0.6226  -0.003499
6.255e+09  0.7415  0.2375  -0.03498  -0.006373  -0.03701  -0.01881  0.5906  -0.1639
6.256e+09  0.8566  -0.1324  0.01371  0.01067  0.03785  0.005818  0.4413  -0.4622
6.258e+09  0.8282  -0.3317  0.02517  0.01905  0.04262  -0.03643  0.3005  -0.6208
6.259e+09  0.6715  -0.6175  0.02509  0.002307  0.001243  -0.01722  0.03211  -0.6422
6.26e+09  0.3273  -0.7891  -0.0003291  -0.001156  0.02714  0.04567  -0.1899  -0.6675
6.261e+09  0.07259  -0.852  0.01242  -0.004564  -0.02215  -0.007679  -0.4243  -0.556
6.262e+09  -0.1797  -0.8013  0.004138  0.01337  0.02206  -0.04624  -0.6422  -0.3501
6.264e+09  -0.4609  -0.6843  -0.003123  -0.01446  -0.03316  -0.08292  -0.7058  -0.09885
6.265e+09  -0.6871  -0.5481  -0.00782  0.01337  0.04685  0.07964  -0.7251  0.1806
6.266e+09  -0.8457  -0.2501  0.001654  0.004613  0.007177  -0.006763  -0.5736  0.3928
6.268e+09  -0.8327  0.05205  -0.004521  0.005447  -0.02575  -0.0346  -0.4044  0.574
6.269e+09  -0.7568  0.3962  -0.04898  -0.00476  -0.0242  0.02522  -0.1765  0.7014
6.27e+09  -0.6048  0.587  0.02086  -0.01748  -0.02026  0.01361  0.03964  0.7278
6.271e+09  -0.3528  0.7299  0.0323  -0.003031  0.003169  0.02642  0.3273  0.7082
6.272e+09  -0.03604  0.8262  -0.01981  -0.02141  -0.0002971  -0.0491  0.554  0.5017
6.274e+09  0.2014  0.8625  -0.0205  -0.004905  -0.003548  0.0315  0.6784  0.3125
6.275e+09  0.5111  0.6721  0.01234  0.01653  0.02207  0.01507  0.7078  0.01794
6.276e+09  0.6858  0.4607  -0.008959  0.01436  0.01957  -0.03922  0.7185  -0.2507
6.278e+09  0.7838  0.2343  0.03492  -0.02118  -0.01089  -0.03827  0.5893  -0.466
6.279e+09  0.8422  -0.1089  -0.01017  -0.006247  0.01341  -0.03521  0.4353  -0.6475
6.28e+09  0.75  -0.3313  -0.009568  0.02271  -0.009456  -0.03209  0.1848  -0.7645
6.281e+09  0.5321  -0.621  0.01261  0.003225  -0.03027  -0.01718  -0.1033  -0.7507
6.282e+09  0.3061  -0.799  0.04071  0.01599  -0.01548  0.005728  -0.3488  -0.7007
6.284e+09  0.03401  -0.7972  -0.005633  -0.0003319  0.00988  -0.005543  -0.5833  -0.5685
6.285e+09  -0.2428  -0.8249  -0.004714  0.0004295  0.001011  -0.02112  -0.734  -0.2731
6.286e+09  -0.5233  -0.6037  -0.01147  -0.02802  -0.0459  0.05271  -0.8201  -0.02617
6.288e+09  -0.7235  -0.4972  -0.002804  0.03461  -0.06751  0.05001  -0.7827  0.2586
6.289e+09  -0.8725  -0.1482  -0.01072  -0.02101  -0.003433  0.001894  -0.6207  0.5136
6.29e+09  -0.8381  0.1546  0.02793  -0.01691  0.0181  -0.0007767  -0.4148  0.7027
6.291e+09  -0.6952  0.4124  -0.009941  0.02588  -0.01016  -0.001481  -0.1337  0.7748
6.292e+09  -0.5623  0.617  0.0257  0.005105  -0.003202  0.003814  0.1323  0.816
6.294e+09  -0.2602  0.7998  -0.009681  0.01153  -0.07691  0.0218  0.3826  0.743
6.295e+09  -0.0393  0.8178  0.004779  -0.006009  0.01957  -0.02236  0.6249  0.4905
6.296e+09  0.2681  0.8123  -0.003182  -0.00675  -0.009051  -0.02559  0.7803  0.2768
6.298e+09  0.5484  0.599  -0.0003676  0.0184  0.04351  0.01112  0.7902  -0.006539
6.299e+09  0.704  0.3702  0.003232  0.001214  -0.01382  0.02664  0.8151  -0.2663
6.3e+09  0.8025  0.09704  0.03102  -0.001429  0.006064  -0.01599  0.6406  -0.5537
6.301e+09  0.8206  -0.1807  -0.01952  -0.01651  0.05644  0.01935  0.427  -0.7361
6.302e+09  0.6824  -0.4925  0.0272  0.001399  -0.0182  -0.008146  0.1571  -0.8192
6.304e+09  0.5111  -0.6871  0.003228  -0.0002425  -0.04186  -0.002615  -0.1358  -0.8248
6.305e+09  0.2149  -0.7696  -0.03279  0.001689  -0.0005151  0.01147  -0.4125  -0.7474
6.306e+09  -0.05957  -0.8242  0.0006371  0.01101  -0.03386  -0.03954  -0.6683  -0.5776
6.308e+09  -0.3643  -0.7842  -0.01645  0.02175  -0.08314  -0.04005  -0.7802  -0.2584
6.309e+09  -0.5903  -0.6175  -0.02925  0.003161  -0.01614  -0.03425  -0.8781  0.004746
6.31e+09  -0.7747  -0.3821  0.009076  -0.02161  -0.0337  -0.01413  -0.8424  0.3328
6.311e+09  -0.8429  -0.07663  -0.0005544  -0.0118  0.02279  0.02762  -0.663  0.5566
6.312e+09  -0.7665  0.2383  0.01853  0.002641  -0.06666  0.007547  -0.4081  0.746
6.314e+09  -0.7071  0.5029  -0.008362  -0.0177  0.0081  -0.006982  -0.1775  0.8814
6.315e+09  -0.4528  0.7124  -0.01844  0.0213  0.008156  -0.01676  0.1922  0.847
6.316e+09  -0.256  0.8567  -0.003222  0.0003781  0.02469  0.01117  0.4191  0.7497
6.318e+09  0.05412  0.8662  0.002145  -0.002371  -0.02802  -0.01155  0.6661  0.5869
6.319e+09  0.4024  0.7556  -0.0147  -0.0103  -0.02442  -0.01732  0.8377  0.3397
6.32e+09  0.6537  0.5939  0.01122  -0.0322  0.01255  0.02975  0.8537  0.01028
6.321e+09  0.8066  0.3352  -0.004751  0.01042  -0.03049  0.02801  0.8668  -0.2957
6.322e+09  0.8304  -0.00875  0.001129  -0.02287  -0.02444  0.001106  0.6551  -0.5556
6.324e+09  0.811  -0.2607  0.008183  -0.007232  -0.003054  0.01141  0.4361  -0.7704
6.325e+09  0.7099  -0.5468  -0.01187  0.01099  -0.01929  0.03737  0.1732  -0.8798
6.326e+09  0.4489  -0.7816  -0.01819  -0.03543  0.003566  -0.0274  -0.154  -0.8746
6.328e+09  0.2343  -0.8407  -0.005819  -0.003628  -0.007986  0.005866  -0.402  -0.7868
6.329e+09  -0.1007  -0.8652  0.0001195  0.01435  -0.01091  -0.05867  -0.6797  -0.62
6.33e+09  -0.4113  -0.7575  -0.008524  -0.01436  0.01236  -0.03091  -0.833  -0.338
6.331e+09  -0.7316  -0.5734  -0.01957  0.01504  -0.04116  0.0009765  -0.9032  -0.02728
6.332e+09  -0.7944  -0.2915  0.02346  0.01029  -0.005951  -0.01176  -0.875  0.2667
6.334e+09  -0.8678  0.05653  -0.03015  0.01818  0.005477  0.02499  -0.7086  0.562
6.335e+09  -0.7685  0.3149  -0.004859  -0.01234  0.01082  -0.004728  -0.4878  0.7566
6.336e+09  -0.6465  0.6063  0.01191  -0.02027  -0.01194  0.02044  -0.1883  0.9011
6.338e+09  -0.4385  0.7768  -0.01874  -0.02455  -0.0157  -0.02857  0.1447  0.9185
6.339e+09  -0.0832  0.8634  0.01684  0.001981  0.01316  4.297e-05  0.4256  0.8144
6.34e+09  0.2476  0.8787  0.002291  -0.008512  0.02225  0.05239  0.6723  0.6279
6.341e+09  0.4981  0.7421  0.003195  -0.02023  0.03232  0.03409  0.8443  0.359
6.342e+09  0.7335  0.5198  0.01637  -0.0169  -0.006132  -0.01261  0.9439  0.08425
6.344e+09  0.8758  0.214  -0.003721  -0.002878  0.06196  0.001734  0.876  -0.273
6.345e+09  0.888  -0.08458  -0.0157  0.0134  -0.04455  -0.0255  0.7495  -0.5579
6.346e+09  0.8019  -0.4186  -0.04054  0.009555  0.04862  -0.004469  0.5075  -0.7843
6.348e+09  0.6294  -0.6692  0.02027  0.05492  -0.02107  0.01701  0.2075  -0.9128
6.349e+09  0.3484  -0.8698  -0.01467  0.006706  0.0364  0.02362  -0.09513  -0.9041
6.35e+09  0.03975  -0.9382  0.008466  0.004997  0.01062  -0.007811  -0.4552  -0.8315
6.351e+09  -0.3382  -0.8382  -0.01598  -0.03249  0.02701  -0.02739  -0.659  -0.6508
6.352e+09  -0.5318  -0.7091  -0.01303  0.01177  -0.01982  -0.04412  -0.8794  -0.3994
6.354e+09  -0.7621  -0.4265  -0.007454  0.02821  -0.01414  -0.04404  -0.9397  -0.0324
6.355e+09  -0.8766  -0.1752  -0.03952  -0.003048  0.04533  0.04661  -0.8981  0.2657
6.356e+09  -0.8709  0.1577  0.0211  0.02594  0.004603  0.03863  -0.7557  0.5652
6.358e+09  -0.7801  0.464  -0.03065  -0.02277  0.00131  -0.03117  -0.4838  0.7925
6.359e+09  -0.5927  0.7228  -0.01396  0.02935  -0.03343  -0.07172  -0.2593  0.8943
6.36e+09  -0.3329  0.8269  0.03295  0.01369  -0.05111  0.03556  0.1342  0.9531
6.361e+09  0.0193  0.8973  -0.003891  -0.01103  0.03195  0.0181  0.3982  0.8078
6.362e+09  0.3492  0.8539  0.00697  0.003448  -0.008953  -0.02622  0.7096  0.6721
6.364e+09  0.6078  0.6955  0.05029  0.008993  0.03127  0.0252  0.8748  0.4158
6.365e+09  0.7919  0.4341  -0.02825  -0.03757  0.03501  -0.0281  0.9392  0.09829
6.366e+09  0.8844  0.1101  -0.01331  0.02438  0.05135  0.005263  0.8963  -0.2376
6.368e+09  0.8567  -0.2204  -0.0004831  -0.01701  -0.0685  0.002625  0.7899  -0.5578
6.369e+09  0.7816  -0.5075  0.008887  -0.001627  -0.03079  0.02129  0.5701  -0.7864
6.37e+09  0.5193  -0.685  0.009862  -0.01496  -0.005277  -0.01505  0.2413  -0.8911
6.371e+09  0.2808  -0.843  -0.01421  0.009978  -0.02175  0.02395  -0.1244  -0.9442
6.372e+09  -0.0868  -0.9608  -0.01123  0.007397  -0.02504  0.006909  -0.3834  -0.8403
6.374e+09  -0.3932  -0.7951  -0.003677  -7.27e-05  0.03084  0.03506  -0.6371  -0.7014
6.375e+09  -0.6092  -0.6337  -0.03922  0.00429  -0.06825  -0.03068  -0.8315  -0.4197
6.376e+09  -0.796  -0.3626  0.006853  0.02145  0.01551  0.02126  -0.9316  -0.1043
6.378e+09  -0.8942  -0.1147  0.02175  -0.03202  -0.006473  0.008054  -0.9146  0.2043
6.379e+09  -0.9176  0.2865  -0.02488  -0.009934  0.04095  0.02225  -0.7951  0.5588
6.38e+09  -0.7732  0.5228  -0.01317  0.01994  0.02624  -0.02306  -0.5285  0.7686
6.381e+09  -0.5177  0.7008  -0.02326  -0.03046  0.02482  0.01075  -0.2634  0.9015
6.382e+09  -0.2231  0.8903  -0.01328  -0.02111  -0.01811  0.02298  0.0465  0.9362
6.384e+09  0.09812  0.876  -0.00338  -0.0004274  -0.009976  0.00379  0.3969  0.8673
6.385e+09  0.3882  0.8539  0.00514  -0.00268  0.001207  -0.01643  0.6353  0.7009
6.386e+09  0.6201  0.614  0.04341  0.01309  0.04447  0.04276  0.8421  0.4282
6.388e+09  0.8637  0.3626  0.01834  -0.03131  -0.02122  0.03013  0.9604  0.08449
6.389e+09  0.8958  0.06793  0.01113  0.01376  0.01723  -0.001744  0.9485  -0.1964
6.39e+09  0.8983  -0.251  -0.01784  0.01609  0.02483  0.0282  0.7635  -0.4924
6.391e+09  0.7323  -0.5279  0.03169  0.01965  -0.005275  0.002664  0.5589  -0.7521
6.392e+09  0.5066  -0.736  -0.02739  0.00644  -0.01262  0.0003154  0.2958  -0.8935
6.394e+09  0.1847  -0.8097  -0.003362  0.02489  0.01408  0.02122  -0.02216  -0.954
6.395e+09  -0.1175  -0.8853  -0.009122  0.06483  0.003992  0.01358  -0.336  -0.8375
6.396e+09  -0.4717  -0.7556  0.01203  0.02169  -0.0003805  -0.02367  -0.5963  -0.7002
6.398e+09  -0.6471  -0.6319  0.02507  -0.006053  0.02041  0.03527  -0.7704  -0.3716
6.399e+09  -0.8118  -0.3097  0.01088  0.01313  -0.04621  0.02444  -0.9183  -0.1481
6.4e+09  -0.8802  -0.02297  -0.02588  -0.0003224  -0.02504  -0.006004  -0.9323  0.1913
6.401e+09  -0.8171  0.2797  -0.001963  0.0524  -0.01057  -0.006215  -0.8453  0.5274
6.402e+09  -0.7011  0.546  -0.007028  0.005809  -0.02484  -0.07919  -0.6055  0.6961
6.404e+09  -0.4397  0.7486  0.0111  0.02488  0.01261  -0.01081  -0.3106  0.855
6.405e+09  -0.2056  0.853  -0.04502  0.01481  -0.006758  0.006631  0.005686  0.9417
6.406e+09  0.1381  0.8561  0.01662  0.02423  0.04314  -0.0001511  0.2878  0.8762
6.408e+09  0.4344  0.7802  0.01109  0.03324  -0.02063  -0.00539  0.5684  0.6817
6.409e+09  0.6766  0.6017  0.02282  -0.03429  0.01998  -0.008865  0.7915  0.4521
6.41e+09  0.8081  0.2828  0.03411  -0.005814  -0.02537  0.002552  0.8783  0.1522
6.411e+09  0.9075  -0.01251  0.01479  -0.009475  -0.02262  0.02313  0.8909  -0.2039
6.412e+09  0.8919  -0.316  -0.005503  0.01202  0.005646  -0.009967  0.7889  -0.4741
6.414e+09  0.6932  -0.5755  -0.02527  -0.01006  -0.005356  0.0002132  0.5966  -0.6845
6.415e+09  0.415  -0.7228  0.03391  -0.008036  -0.02543  -7.507e-05  0.3495  -0.8555
6.416e+09  0.1606  -0.8992  0.006215  -0.0411  -0.0106  -0.002702  0.04458  -0.931
6.418e+09  -0.1371  -0.8137  0.01921  0.03466  -0.01008  0.003876  -0.2512  -0.8034
6.419e+09  -0.4523  -0.7557  0.01237  -0.03251  -0.002419  -0.002857  -0.5475  -0.6817
6.42e+09  -0.6568  -0.5269  -0.03547  0.08606  0.03359  0.003917  -0.7734  -0.4932
6.421e+09  -0.8105  -0.3171  -0.01435  -0.03907  0.005649  0.03536  -0.8697  -0.1611
6.422e+09  -0.8943  -0.006804  0.002298  -0.02185  -0.04364  0.05676  -0.8852  0.1209
6.424e+09  -0.8306  0.3511  -0.05099  0.00668  0.0299  0.06797  -0.771  0.3501
6.425e+09  -0.7082  0.5359  0.02397  -0.02405  -0.03005  0.008879  -0.6329  0.6194
6.426e+09  -0.3786  0.7851  -0.06353  0.01864  -0.00829  -0.0168  -0.33  0.8159
6.428e+09  -0.144  0.8758  -0.005556  0.00246  -0.01249  0.05466  -0.0414  0.8459
6.429e+09  0.1582  0.8326  0.01826  -0.007558  0.007947  -0.03702  0.247  0.8503
6.43e+09  0.482  0.8225  0.02153  -0.00782  -0.03084  -0.001683  0.528  0.6507
6.431e+09  0.7171  0.5772  -0.01556  0.0288  0.0103  -0.01336  0.7241  0.493
6.432e+09  0.7922  0.288  -0.009785  0.01853  0.02531  0.01124  0.855  0.1836
6.434e+09  0.8673  -0.0384  -0.007814  -0.006095  -0.005406  -0.04964  0.8688  -0.1519
6.435e+09  0.8202  -0.3616  0.04473  -0.03571  0.00961  0.0796  0.7421  -0.3723
6.436e+09  0.6585  -0.6184  0.009606  0.04184  -0.01159  0.02418  0.5882  -0.6128
6.438e+09  0.379  -0.8186  0.03121  0.0002651  0.04164  -0.01669  0.3488  -0.7876
6.439e+09  0.1113  -0.917  -0.01353  0.003327  0.001108  -0.01141  0.09823  -0.8194
6.44e+09  -0.2455  -0.9298  0.009924  -0.07309  0.01689  -0.0008245  -0.2241  -0.8551
6.441e+09  -0.5196  -0.7255  0.06388  -0.02608  0.005048  -0.004968  -0.525  -0.6924
6.442e+09  -0.6897  -0.5516  -0.06051  -0.01697  0.02123  -0.04899  -0.7148  -0.4736
6.444e+09  -0.8805  -0.2807  0.02879  -0.01274  -0.01094  0.004577  -0.7985  -0.1853
6.445e+09  -0.8411  0.05161  0.02264  -0.01787  0.03183  0.007482  -0.8639  0.08372
6.446e+09  -0.8245  0.3561  0.01331  0.0212  0.01033  -0.01147  -0.7652  0.3913
6.448e+09  -0.6339  0.6558  0.02819  -0.06715  0.0201  -0.03019  -0.5864  0.6113
6.449e+09  -0.3413  0.8371  0.01309  0.0285  0.003424  0.03207  -0.3219  0.7704
6.45e+09  -0.103  0.8942  0.02221  -0.02977  -0.007415  0.02215  -0.06216  0.832
6.451e+09  0.294  0.9099  -0.02291  0.06178  -0.005446  -0.04638  0.1623  0.8014
6.452e+09  0.5714  0.7178  -0.0215  -0.02074  0.003912  0.03054  0.4537  0.6646
6.454e+09  0.717  0.5149  -0.01579  -0.01498  0.008442  -0.02011  0.665  0.4326
6.455e+09  0.8941  0.2541  0.02248  0.0424  -0.03559  0.01304  0.8188  0.2306
6.456e+09  0.9344  -0.1156  0.01716  -8.141e-05  0.008543  -0.01507  0.8531  -0.08257
6.458e+09  0.818  -0.4019  0.01051  0.003463  0.05991  -0.05295  0.7089  -0.3553
6.459e+09  0.5767  -0.6298  0.02316  -0.004899  0.02652  -0.02061  0.6263  -0.5782
6.46e+09  0.3631  -0.8411  0.04373  0.04835  0.01161  0.01233  0.3922  -0.7424
6.461e+09  -0.002672  -0.9592  0.009311  0.02465  -0.0394  0.01363  0.06035  -0.8403
6.462e+09  -0.2522  -0.9092  -0.01397  0.04071  -0.04292  0.05517  -0.2334  -0.7667
6.464e+09  -0.6119  -0.7554  0.02523  -0.04137  0.02778  -0.008089  -0.4814  -0.6663
6.465e+09  -0.8036  -0.506  -0.004388  -0.0273  -0.02611  0.002979  -0.6445  -0.4851
6.466e+09  -0.8972  -0.2392  -0.01399  0.0443  -0.02411  -0.01114  -0.7464  -0.1929
6.468e+09  -0.9303  0.1007  0.03789  -0.05299  0.07787  -0.02601  -0.7845  0.08183
6.469e+09  -0.806  0.3692  0.002873  0.01078  0.02423  0.004829  -0.6706  0.3571
6.47e+09  -0.6147  0.7104  -0.01861  -0.03124  -0.009462  -0.007495  -0.5685  0.6007
6.471e+09  -0.4373  0.924  -0.01196  0.00449  -0.03634  -0.02624  -0.3709  0.7073
6.472e+09  -0.01926  0.9719  -0.004381  -0.01769  -0.03322  -0.02343  -0.06158  0.8116
6.474e+09  0.2993  0.8963  -0.01872  0.02475  0.0176  0.01169  0.18  0.767
6.475e+09  0.5855  0.7406  0.02381  -0.01926  0.04457  -0.02017  0.4659  0.6686
6.476e+09  0.7763  0.4649  -0.01992  0.02765  0.01244  0.001503  0.6424  0.411
6.478e+09  0.8799  0.1286  -0.02149  0.01978  -0.04586  -0.01252  0.7618  0.14
6.479e+09  0.985  -0.1213  -0.002619  -0.003065  0.007416  0.03819  0.7992  -0.09368
6.48e+09  0.8141  -0.491  0.01775  -0.03309  0.01259  0.009806  0.6998  -0.3371
6.481e+09  0.6183  -0.7309  0.03409  0.01227  -0.03941  0.01288  0.5361  -0.5615
6.482e+09  0.2994  -0.9013  -0.02361  0.0169  -0.05279  -0.04403  0.3106  -0.7107
6.484e+09  -0.05621  -0.9156  0.007964  -0.007168  0.0004908  0.01099  0.07042  -0.7626
6.485e+09  -0.3546  -0.9385  -0.02462  -0.01793  -0.03178  0.01  -0.1911  -0.7606
6.486e+09  -0.6029  -0.6623  -0.01909  0.04121  0.01429  0.04574  -0.4455  -0.6299
6.488e+09  -0.8153  -0.4289  -0.001021  -0.04516  0.0245  -0.02611  -0.6751  -0.5026
6.489e+09  -0.9324  -0.1006  0.05255  0.02874  0.0211  0.03933  -0.76  -0.2155
6.49e+09  -0.884  0.2764  0.0295  -0.0007784  0.03551  -0.03378  -0.787  0.109
6.491e+09  -0.8152  0.5733  0.009395  -0.01448  -0.03348  -0.02794  -0.6844  0.3129
6.492e+09  -0.5726  0.7229  0.002147  0.01046  0.00988  -0.02795  -0.5181  0.536
6.494e+09  -0.2647  0.9112  0.009279  0.02317  -0.0002399  -0.0248  -0.3075  0.746
6.495e+09  0.0815  0.9494  -0.03576  -0.007532  0.0595  0.005015  -0.05583  0.8386
6.496e+09  0.471  0.8891  0.02052  0.00496  -0.007362  0.0243  0.1631  0.7553
6.498e+09  0.6687  0.7083  0.009244  -0.007619  0.02164  -0.00149  0.4735  0.5959
6.499e+09  0.8545  0.3516  -0.01493  -0.009585  0.02764  0.03535  0.6649  0.408
6.5e+09  0.9978  0.05688  0.02067  0.03229  -0.02327  0.01569  0.7777  0.1098
6.501e+09  0.9415  -0.2847  -0.008291  0.02922  0.04831  -0.02152  0.7641  -0.1152
6.502e+09  0.7447  -0.5946  -0.02456  0.02719  -0.02297  -0.0007654  0.6536  -0.3724
6.504e+09  0.5049  -0.8337  -0.002176  -0.02103  -0.02488  0.0143  0.5361  -0.5825
6.505e+09  0.1877  -0.908  0.0117  -0.01579  0.02212  0.0573  0.3203  -0.7141
6.506e+09  -0.1438  -0.9465  -0.02679  -0.01047  -0.0005088  -0.01604  0.02746  -0.7759
6.508e+09  -0.499  -0.8878  0.04742  -0.001802  0.001784  0.001634  -0.2777  -0.746
6.509e+09  -0.7365  -0.5842  0.02737  -0.01559  -0.01594  0.004823  -0.459  -0.5491
6.51e+09  -0.8986  -0.2986  -0.0005724  0.02237  0.02394  -0.03173  -0.6853  -0.3906
6.511e+09  -0.9905  -0.02045  0.04474  -0.003423  -0.006471  -0.003607  -0.7371  -0.1203
6.512e+09  -0.9094  0.3658  -0.01025  -0.02333  0.03794  -0.001632  -0.7069  0.1713
6.514e+09  -0.7032  0.6999  0.01838  0.007169  0.05181  -0.02145  -0.6257  0.368
6.515e+09  -0.4375  0.8513  -0.002209  -0.01714  0.01276  -0.006832  -0.4843  0.5844
6.516e+09  -0.1308  0.9564  -0.01547  0.02192  -0.02174  -0.02362  -0.2575  0.7031
6.518e+09  0.2109  0.9515  -0.02391  -0.008904  -0.007503  0.0137  0.01954  0.7189
6.519e+09  0.5437  0.7993  -0.03188  -0.01217  -0.04123  -0.07054  0.2842  0.6813
6.52e+09  0.8324  0.5159  0.008498  0.004218  0.003641  -0.0001522  0.4912  0.5671
6.521e+09  0.8981  0.2321  -0.01844  -0.005106  0.0182  -0.01098  0.6426  0.3586
6.522e+09  0.9526  -0.09209  0.02056  0.04746  -0.02575  -0.0232  0.7092  0.1243
6.524e+09  0.9075  -0.4728  0.01937  0.01831  -0.0243  0.0155  0.7158  -0.1701
6.525e+09  0.6321  -0.7038  -0.01096  0.01858  0.0633  -0.03913  0.6296  -0.4288
6.526e+09  0.4154  -0.8949  0.01537  0.001022  0.05766  -0.0177  0.4218  -0.6078
6.528e+09  0.03366  -0.9573  0.02718  0.01805  -0.01245  0.01541  0.2148  -0.6805
6.529e+09  -0.3265  -0.9134  -0.005205  -0.01113  0.0007431  0.05696  -0.07358  -0.7158
6.53e+09  -0.5928  -0.6745  0.003087  -0.03238  -0.04189  -0.004158  -0.2382  -0.6068
6.531e+09  -0.87  -0.51  -0.01208  0.01601  0.04635  -0.02714  -0.4754  -0.5018
6.532e+09  -0.9411  -0.1785  -0.02441  0.005477  -0.007145  0.0009476  -0.5807  -0.3114
6.534e+09  -0.9195  0.1807  0.009427  -0.01092  0.08465  -0.03432  -0.6193  -0.0867
6.535e+09  -0.7829  0.45  0.02157  0.01926  -0.04849  -0.02148  -0.6019  0.1003
6.536e+09  -0.5896  0.785  -0.02108  0.005475  0.001873  0.03144  -0.5652  0.3055
6.538e+09  -0.2419  0.8823  0.01135  0.02581  -0.0171  0.01697  -0.4503  0.4787
6.539e+09  0.08409  0.959  0.007047  0.01051  0.006171  0.0364  -0.2572  0.61
6.54e+09  0.3644  0.852  0.01554  0.03045  0.02152  0.01844  -0.02821  0.6752
6.541e+09  0.6287  0.6472  0.005201  -0.007274  -0.02824  -0.06051  0.1811  0.6937
6.542e+09  0.8931  0.3695  0.0001186  -0.01445  0.009721  -0.001965  0.4359  0.5719
6.544e+09  0.9394  0.05876  -0.0001717  -0.02678  0.006806  -0.06335  0.6437  0.3741
6.545e+09  0.8662  -0.288  0.01041  -0.03412  -0.03296  -0.005754  0.6751  0.1587
6.546e+09  0.6342  -0.5165  -0.005181  0.002893  -0.006752  -0.05885  0.7441  -0.09541
6.548e+09  0.487  -0.7689  -0.01117  0.001635  -0.0268  0.03229  0.6508  -0.3118
6.549e+09  0.173  -0.8858  0.007303  0.008511  -0.001252  -0.02452  0.527  -0.5529
6.55e+09  -0.1195  -0.9156  -0.002102  -0.01137  0.008983  -0.008427  0.3055  -0.7032
