# Hz S RI R 50
6.25e+09  -0.7855  -0.088  0.03447  -0.006194  0.03163  0.01521  0.1579  0.492
6.251e+09  -0.8313  0.2185  0.04278  0.001642  -0.02677  -0.02349  0.3772  0.4008
6.252e+09  -0.6888  0.4875  -0.007711  0.006868  -0.04154  -0.0187  0.5303  0.2738
6.254e+09  -0.3997  0.651  -0.008995  0.02208  -0.01215  -0.002291  0.6161  0.04195
6.255e+09  -0.241  0.8033  0.008222  0.01149  -0.02674  0.0008743  0.595  -0.2195
6.256e+09  0.1264  0.7988  -0.0152  -0.009637  0.004681  0.003052  0.4774  -0.447
6.258e+09  0.3996  0.7093  0.02112  -0.01283  0.01401  -0.02567  0.2629  -0.5994
6.259e+09  0.6009  0.5832  -0.002741  -0.008259  -0.01071  0.02641  0.05341  -0.6772
6.26e+09  0.764  0.3116  0.01182  -0.001221  0.03203  0.02875  -0.2113  -0.6616
6.261e+09  0.8018  -0.001143  0.01132  -0.00934  0.06583  0.007876  -0.4435  -0.5863
6.262e+09  0.7993  -0.2251  0.01893  0.01961  0.01166  0.03726  -0.6339  -0.3278
6.264e+09  0.5659  -0.478  0.02232  -0.003365  -0.03074  -0.04217  -0.7254  -0.09117
6.265e+09  0.4759  -0.6938  -0.01135  -0.02416  -0.00188  -0.0273  -0.7023  0.1783
6.266e+09  0.1808  -0.7679  -0.01106  -0.03047  -0.004044  -0.0633  -0.6206  0.4044
6.268e+09  -0.1622  -0.7693  -0.01617  0.02376  -0.03789  0.002281  -0.4364  0.5943
6.269e+09  -0.3836  -0.697  -0.0168  -0.005593  0.008294  0.003492  -0.1787  0.7406
6.27e+09  -0.6087  -0.5357  -0.006678  -0.03099  -0.01982  -0.04307  0.05978  0.756
6.271e+09  -0.7313  -0.2857  -0.0002921  -0.001237  -0.06394  -0.05328  0.3275  0.6865
6.272e+09  -0.8751  0.002719  -0.02064  -0.03755  -0.01595  -0.02815  0.5555  0.5171
6.274e+09  -0.7683  0.265  -0.009042  -0.01499  0.04656  -0.03054  0.7041  0.2906
6.275e+09  -0.6421  0.5184  -0.02743  0.01103  0.0008458  -0.06077  0.7471  0.06577
6.276e+09  -0.4045  0.7025  -0.01811  0.009778  -0.006972  0.04193  0.7256  -0.229
6.278e+09  -0.1499  0.8224  -0.01441  -0.01116  0.0315  0.03557  0.5971  -0.4639
6.279e+09  0.1486  0.8036  -0.0137  0.009098  -0.03165  0.01974  0.3942  -0.6725
6.28e+09  0.3739  0.7042  0.01235  0.01154  -0.008022  -0.01636  0.1809  -0.7279
6.281e+09  0.6488  0.4968  -0.02099  0.01754  0.02834  -0.006948  -0.09219  -0.7843
6.282e+09  0.7373  0.3232  -0.04192  -0.01645  -0.001958  -0.01093  -0.4008  -0.6888
6.284e+09  0.8233  -0.01007  -0.002572  0.01803  -0.02833  0.0006359  -0.5773  -0.5224
6.285e+09  0.7747  -0.3452  -0.0116  0.03758  -0.02284  -0.04468  -0.7502  -0.2836
6.286e+09  0.5939  -0.4987  0.01246  -0.0147  0.01166  0.01173  -0.7998  -0.04229
6.288e+09  0.3831  -0.7261  -0.01859  0.006808  -0.008902  0.03347  -0.7525  0.2669
6.289e+09  0.1324  -0.8193  0.01864  -0.01202  0.03739  0.01589  -0.6248  0.5309
6.29e+09  -0.1872  -0.7701  -0.001927  -0.02174  -0.03045  0.0006589  -0.4251  0.7074
6.291e+09  -0.4372  -0.6812  0.0102  0.02845  0.02678  -0.0149  -0.1648  0.813
6.292e+09  -0.6432  -0.4595  -0.008454  -0.01171  0.01602  -0.01632  0.1262  0.7979
6.294e+09  -0.761  -0.1812  -0.008388  0.005421  -0.03016  -0.0293  0.4159  0.7129
6.295e+09  -0.827  -0.001881  -0.02652  -0.01945  -0.02842  0.04809  0.6242  0.5336
6.296e+09  -0.7378  0.2989  -0.01836  -0.02429  -0.001058  -0.02506  0.7686  0.2725
6.298e+09  -0.5888  0.5701  -0.02033  0.002538  0.04405  0.03083  0.8359  0.02935
6.299e+09  -0.3447  0.7312  0.002486  0.01871  0.001162  -0.02333  0.7604  -0.2881
6.3e+09  -0.0854  0.8254  0.005844  -0.001426  -0.05788  -0.03097  0.6435  -0.5322
6.301e+09  0.1907  0.8088  0.0007716  0.01425  0.0265  -0.01991  0.4219  -0.7313
6.302e+09  0.4965  0.6564  0.01153  0.01512  -0.01743  -0.02033  0.1439  -0.8296
6.304e+09  0.6795  0.4351  -0.01577  -0.004865  0.003303  0.02168  -0.1272  -0.8557
6.305e+09  0.7528  0.1888  -0.03539  -0.009757  -0.01606  -0.00989  -0.4214  -0.7267
6.306e+09  0.8107  -0.07375  -0.0426  0.004913  -0.02717  -0.02653  -0.6482  -0.5264
6.308e+09  0.7413  -0.3202  0.00376  -0.02606  0.0009127  -0.03846  -0.8002  -0.3029
6.309e+09  0.52  -0.604  0.006217  0.008657  0.04558  -0.007882  -0.841  -0.02882
6.31e+09  0.2652  -0.7268  -0.04134  0.01516  -0.01201  -0.02549  -0.7903  0.3043
6.311e+09  -0.0141  -0.854  0.01031  -0.005901  0.03754  -0.008042  -0.6546  0.5505
6.312e+09  -0.2608  -0.7979  0.02537  0.007462  -0.02764  0.006962  -0.4433  0.7236
6.314e+09  -0.4863  -0.6708  0.004248  -0.005976  0.0294  -0.002116  -0.1611  0.8419
6.315e+09  -0.7333  -0.4476  -0.009529  0.01708  -0.03643  -0.005786  0.1409  0.866
6.316e+09  -0.809  -0.1457  -0.004274  0.02745  -0.002693  -0.03315  0.4586  0.7783
6.318e+09  -0.8045  0.09044  0.02262  -0.003469  -0.01126  0.004568  0.6645  0.5527
6.319e+09  -0.7261  0.3786  0.01244  0.01263  -0.051  0.03204  0.8032  0.2937
6.32e+09  -0.5194  0.5838  -0.01885  -0.01827  -0.0145  -0.01289  0.8905  0.01641
6.321e+09  -0.2664  0.7632  -0.035  0.0008924  0.01981  0.01052  0.8195  -0.317
6.322e+09  0.006156  0.8841  0.01594  0.01357  0.03517  -0.01287  0.6884  -0.5979
6.324e+09  0.2984  0.8098  0.0254  -0.03964  0.005218  0.02392  0.4573  -0.746
6.325e+09  0.5399  0.5886  -0.01222  -0.009714  -0.05188  -0.02308  0.1721  -0.8581
6.326e+09  0.7408  0.3864  0.01084  0.01879  -0.04095  0.001904  -0.1117  -0.91
6.328e+09  0.8112  0.1119  0.04609  -0.01661  0.039  -0.03721  -0.4439  -0.8241
6.329e+09  0.8412  -0.1913  0.0149  0.002244  0.003885  -0.0557  -0.6773  -0.6098
6.33e+09  0.7259  -0.4418  0.0235  -0.00824  -0.01779  -0.03118  -0.8501  -0.3343
6.331e+09  0.5375  -0.6904  0.0008528  0.003025  -0.02442  -0.08147  -0.933  -0.04973
6.332e+09  0.2341  -0.8112  -0.003903  0.01038  0.006309  0.008223  -0.8647  0.2945
6.334e+09  -0.05953  -0.832  -0.02485  -0.02908  0.04223  0.004294  -0.7227  0.5285
6.335e+09  -0.3476  -0.8061  0.01837  -0.02087  0.001808  -0.05712  -0.4807  0.7608
6.336e+09  -0.6158  -0.5513  0.001348  0.02571  -0.01878  0.02971  -0.2103  0.8934
6.338e+09  -0.7806  -0.3562  0.01323  -0.01483  0.04833  0.02791  0.1232  0.9114
6.339e+09  -0.8744  -0.05387  0.02532  0.009249  -0.01186  -0.03395  0.4268  0.8197
6.34e+09  -0.8116  0.2258  3.662e-05  -0.002774  -0.01222  0.03254  0.6631  0.6491
6.341e+09  -0.6969  0.4827  0.007501  -0.00808  0.001011  0.01628  0.8433  0.3878
6.342e+09  -0.4106  0.6874  -0.0294  -0.02928  -0.02257  -0.009831  0.9011  0.04615
6.344e+09  -0.1782  0.8579  -0.04902  0.0005777  0.004593  -0.01905  0.8638  -0.2454
6.345e+09  0.1526  0.8115  0.00294  -0.02878  0.03831  -0.05514  0.7364  -0.582
6.346e+09  0.4526  0.7493  0.01284  0.001833  -0.008336  0.01655  0.5031  -0.7883
6.348e+09  0.7087  0.6028  -0.005679  -0.02796  -0.04847  -0.03903  0.2341  -0.9255
6.349e+09  0.8728  0.3213  -0.01473  -0.03126  0.004606  -0.02452  -0.1147  -0.8951
6.35e+09  0.8834  -0.03838  -0.02711  -0.0237  -0.03234  -0.003809  -0.4295  -0.8312
6.351e+09  0.7806  -0.335  0.01008  0.01532  0.02431  0.04139  -0.6996  -0.648
6.352e+09  0.6354  -0.5794  0.0324  0.008086  -0.025  0.006982  -0.8737  -0.383
6.354e+09  0.3612  -0.7909  0.01545  -0.02105  0.02888  -0.02309  -0.9183  -0.03572
6.355e+09  0.0841  -0.8785  0.01958  0.03532  -0.009969  -0.006385  -0.9275  0.2737
6.356e+09  -0.1486  -0.8448  0.00108  0.03964  -0.034  2.11e-05  -0.7425  0.5788
6.358e+09  -0.4498  -0.6946  -0.027  0.01602  -0.03409  0.02797  -0.5162  0.7698
6.359e+09  -0.7138  -0.4929  0.02213  -0.02428  0.07469  0.008367  -0.2171  0.9113
6.36e+09  -0.8053  -0.2502  -0.001706  0.01036  0.005912  0.001968  0.06809  0.981
6.361e+09  -0.8678  0.0912  -0.0009874  -0.006678  -0.007724  -0.01693  0.3918  0.8738
6.362e+09  -0.7958  0.3593  -0.0007074  0.009267  -0.001723  -0.05826  0.7047  0.6826
6.364e+09  -0.5724  0.706  -0.001506  -0.02465  -0.03842  -0.02205  0.87  0.3937
6.365e+09  -0.3414  0.8383  0.04752  0.03739  -0.008288  -0.04487  0.9734  0.0756
6.366e+09  0.02459  0.8365  -0.02001  -0.02232  -0.001184  0.01287  0.9264  -0.2528
6.368e+09  0.26  0.867  0.0134  -0.001944  -0.01732  0.04341  0.8067  -0.5289
6.369e+09  0.5482  0.6861  -0.01972  -0.01075  -0.001819  0.003528  0.5552  -0.7668
6.37e+09  0.7403  0.4093  0.006856  -0.004654  0.007855  0.01907  0.2278  -0.9247
6.371e+09  0.8784  0.188  -0.03138  -0.01438  0.06324  -0.01365  -0.09521  -0.9596
6.372e+09  0.8713  -0.1822  -0.001203  0.02451  -0.005556  0.01324  -0.3852  -0.8975
6.374e+09  0.7525  -0.479  -0.0103  -0.0291  -0.008544  -0.02253  -0.6564  -0.6633
6.375e+09  0.53  -0.7014  0.01087  -0.0293  0.004271  -0.0004116  -0.8078  -0.4469
6.376e+09  0.2391  -0.8296  0.01149  0.008891  0.01328  -0.02056  -0.9354  -0.08843
6.378e+09  -0.02507  -0.8731  0.002465  -0.003394  0.03606  0.03395  -0.9395  0.2226
6.379e+09  -0.4018  -0.7721  -7.405e-06  0.02456  -0.01524  -0.007708  -0.7531  0.5243
6.38e+09  -0.6166  -0.6125  0.03512  -0.003798  -0.01494  0.004382  -0.5732  0.7695
6.381e+09  -0.87  -0.3836  0.01862  0.0124  0.0117  -0.03674  -0.2536  0.9483
6.382e+09  -0.8688  -0.07061  -0.00512  0.0195  -0.008454  0.03229  0.059  0.9303
6.384e+09  -0.8791  0.2998  -0.02633  -0.06254  0.01456  -0.00213  0.3739  0.8366
6.385e+09  -0.7502  0.5559  -0.02652  0.0159  -0.0148  -0.03354  0.6619  0.6957
6.386e+09  -0.4757  0.7499  0.02182  -0.01578  -0.01509  0.0138  0.8472  0.4142
6.388e+09  -0.2102  0.8328  -0.01279  -0.01275  -0.03108  0.0341  0.8872  0.1013
6.389e+09  0.141  0.8741  -0.01789  0.00174  -0.005545  0.01365  0.9372  -0.2234
6.39e+09  0.4326  0.7548  0.02101  -0.005046  0.02512  -0.01349  0.755  -0.5234
6.391e+09  0.6775  0.5838  0.0004113  0.004418  0.03193  0.009268  0.5663  -0.7185
6.392e+09  0.8409  0.2408  -0.05125  -0.007011  -0.006303  -0.01373  0.2946  -0.8593
6.394e+09  0.8921  -0.02089  0.03516  0.02245  -0.0175  0.02387  -0.03746  -0.9171
6.395e+09  0.8139  -0.3273  0.007555  -0.01285  -0.0125  0.01237  -0.3529  -0.8331
6.396e+09  0.6346  -0.6229  -0.00335  0.0006921  -0.0102  -0.007802  -0.6212  -0.6798
6.398e+09  0.4259  -0.7634  0.004569  0.0332  -0.00487  0.03551  -0.802  -0.4257
6.399e+09  0.1789  -0.8765  0.03594  -0.009019  0.008265  0.01977  -0.8806  -0.1393
6.4e+09  -0.1955  -0.8386  0.0004995  -0.0002675  0.02259  0.02336  -0.89  0.1926
6.401e+09  -0.4575  -0.6913  -0.02826  -0.006963  0.0136  0.02143  -0.7879  0.4984
6.402e+09  -0.7309  -0.5207  -0.03008  0.03505  -0.05227  0.0002084  -0.5837  0.6974
6.404e+09  -0.8229  -0.1983  -0.02828  -0.02276  -0.01216  -0.04217  -0.3006  0.8645
6.405e+09  -0.8821  0.1017  -0.01286  -0.02519  0.008801  0.01568  -0.0212  0.9232
6.406e+09  -0.7693  0.3775  -0.008878  0.008556  0.03029  0.008549  0.3015  0.8554
6.408e+09  -0.593  0.6325  0.01242  0.03553  0.01232  -0.007434  0.557  0.6972
6.409e+09  -0.3705  0.8345  0.0307  -0.05015  0.001962  -0.04527  0.7623  0.4469
6.41e+09  -0.09175  0.9074  -0.04538  0.02746  0.03008  -0.0197  0.8865  0.1279
6.411e+09  0.2424  0.8105  -0.02831  -0.009392  0.02502  -0.00588  0.9279  -0.09956
6.412e+09  0.5691  0.7454  -0.005785  0.0002033  -0.005451  0.05033  0.8186  -0.4105
6.414e+09  0.7463  0.4473  0.0005638  -0.01339  0.06916  -0.05512  0.5778  -0.7094
6.415e+09  0.8652  0.1114  -0.03228  0.001169  0.02454  -0.04893  0.3345  -0.8453
6.416e+09  0.8735  -0.1646  0.004724  -0.01727  -0.0155  -0.03519  0.01278  -0.8784
6.418e+09  0.7357  -0.4418  -0.0015  0.0237  0.01717  0.02095  -0.2313  -0.8314
6.419e+09  0.5441  -0.6569  0.04936  -0.02403  -0.01984  0.02791  -0.5663  -0.7184
6.42e+09  0.2992  -0.8145  0.00867  -0.02671  0.02201  -0.0144  -0.7702  -0.5078
6.421e+09  -0.007015  -0.8439  -0.0162  0.01124  0.04035  -0.0007873  -0.8665  -0.1524
6.422e+09  -0.3176  -0.7778  -0.0237  -0.02402  0.01926  -0.02474  -0.8509  0.1019
6.424e+09  -0.6422  -0.6975  0.003386  -0.01867  0.03612  -0.008651  -0.7913  0.3783
6.425e+09  -0.7537  -0.4195  -0.02524  0.007607  -0.004095  -0.01317  -0.6277  0.6613
6.426e+09  -0.9014  -0.1263  0.03508  -0.01786  0.001368  -0.02777  -0.3922  0.8189
6.428e+09  -0.8637  0.2315  0.005749  -0.0003826  -0.004054  -0.02803  -0.05407  0.9031
6.429e+09  -0.7016  0.4395  0.0158  0.01646  0.003852  -0.03792  0.2753  0.8499
6.43e+09  -0.4924  0.6424  0.05829  -0.0008196  0.1088  -0.03665  0.4969  0.7538
6.431e+09  -0.1936  0.8439  2.212e-05  0.01755  -0.02144  0.01353  0.7603  0.5251
6.432e+09  0.01194  0.877  0.02055  -0.04086  -0.03514  -0.0404  0.7914  0.2228
6.434e+09  0.3893  0.7885  -0.008669  -0.009794  0.01982  0.0446  0.8863  -0.131
6.435e+09  0.6169  0.5743  0.01211  0.00933  -0.01636  -0.02505  0.7887  -0.3541
6.436e+09  0.7877  0.3652  -0.0004214  -0.08116  0.004891  -0.007791  0.6229  -0.6321
6.438e+09  0.7806  0.07721  0.005041  0.02472  0.04671  0.01346  0.3288  -0.7701
6.439e+09  0.8217  -0.1985  -0.05074  0.02025  0.0006068  0.009724  0.08116  -0.8482
6.44e+09  0.6748  -0.4821  -0.007071  -0.0189  0.002314  0.05541  -0.285  -0.8559
6.441e+09  0.5124  -0.7078  -0.01265  0.0454  -0.005478  0.01758  -0.4819  -0.6913
6.442e+09  0.2117  -0.8199  -0.008569  0.004608  -0.009769  0.0122  -0.6894  -0.4611
6.444e+09  -0.09532  -0.8235  0.0004257  -0.03566  0.006927  0.01749  -0.8006  -0.1998
6.445e+09  -0.3938  -0.7537  -0.02248  0.02909  0.03661  -0.01742  -0.8317  0.07875
6.446e+09  -0.6042  -0.6202  -0.02712  -0.01429  -0.02214  0.02687  -0.719  0.3954
6.448e+09  -0.7886  -0.3349  -0.001555  0.001591  -0.02414  -0.02866  -0.555  0.6445
6.449e+09  -0.8209  -0.0586  0.06274  -0.008232  -0.05175  -0.04043  -0.3812  0.7664
6.45e+09  -0.8146  0.2408  0.02847  0.01533  0.02143  -0.003385  -0.07946  0.8684
6.451e+09  -0.7013  0.4665  0.007475  -0.02561  -0.03462  0.006728  0.2528  0.8106
6.452e+09  -0.3877  0.7405  -0.02204  0.01022  -0.03336  -0.00395  0.4973  0.6862
6.454e+09  -0.2106  0.8179  -0.02102  0.0175  0.01266  0.003455  0.7074  0.4725
6.455e+09  0.0982  0.8269  -0.0463  -0.05536  -0.01776  -0.009943  0.8093  0.2174
6.456e+09  0.4189  0.7469  -0.0004128  -0.01129  0.02011  -0.03247  0.8624  -0.1251
6.458e+09  0.62  0.5595  -0.0001563  -0.01027  0.03385  -0.001574  0.7661  -0.3247
6.459e+09  0.7858  0.3636  0.00995  -0.005898  0.07118  -0.02243  0.5407  -0.5995
6.46e+09  0.8324  -0.03466  0.02145  0.01076  -0.02376  0.0248  0.3523  -0.7209
6.461e+09  0.8369  -0.2946  0.0125  -0.005361  -0.01432  0.004598  0.02467  -0.84
6.462e+09  0.63  -0.5257  0.02631  0.002355  0.007257  0.0251  -0.2118  -0.7953
6.464e+09  0.487  -0.7689  -0.005136  -0.02365  -0.006505  0.02831  -0.4942  -0.6433
6.465e+09  0.1971  -0.8433  0.04006  0.002405  0.01434  0.05011  -0.6496  -0.4603
6.466e+09  -0.06031  -0.8708  -0.01751  0.01294  0.02356  0.00564  -0.7496  -0.1851
6.468e+09  -0.3964  -0.7628  -0.009159  0.01104  -0.01118  0.04266  -0.8393  0.1021
6.469e+09  -0.6337  -0.557  -0.02157  -0.005888  0.008671  0.009593  -0.7055  0.3146
6.47e+09  -0.7989  -0.228  0.01839  0.01937  -0.006552  -0.01873  -0.5692  0.5578
6.471e+09  -0.8748  -0.05081  -0.01939  0.03884  0.006838  -0.02022  -0.3591  0.778
6.472e+09  -0.7874  0.2942  0.01691  -0.01229  0.009127  0.02732  -0.035  0.7883
6.474e+09  -0.632  0.581  -0.03257  -0.00198  -0.03641  0.0268  0.1988  0.762
6.475e+09  -0.4707  0.7429  0.01843  -0.01649  -0.03746  0.003504  0.4911  0.6286
6.476e+09  -0.1951  0.899  -0.02371  0.02095  0.01426  0.03643  0.631  0.4564
6.478e+09  0.1394  0.8913  0.02399  0.03269  -0.01551  0.01187  0.735  0.236
6.479e+09  0.4258  0.7442  0.01936  0.0374  0.0183  0.01331  0.7687  -0.07172
6.48e+09  0.667  0.5894  -0.02022  -0.008599  -0.001369  0.00854  0.716  -0.3617
6.481e+09  0.8234  0.2616  0.02292  0.01579  -0.01234  -0.005107  0.5432  -0.5632
6.482e+09  0.8939  0.01339  -0.02195  -0.003527  0.01131  0.008541  0.325  -0.7073
6.484e+09  0.7917  -0.332  0.01005  0.009518  -0.01676  -0.03856  0.01424  -0.7306
6.485e+09  0.6371  -0.558  0.0144  0.04197  -0.02825  -0.03633  -0.2346  -0.7852
6.486e+09  0.4311  -0.7813  0.006247  0.02581  -0.02263  -0.05394  -0.4491  -0.631
6.488e+09  0.1292  -0.8008  0.005084  -0.01581  -0.02727  0.009866  -0.6523  -0.4082
6.489e+09  -0.154  -0.7819  -0.0145  0.01596  0.03647  0.01327  -0.7578  -0.1981
6.49e+09  -0.4702  -0.7255  0.02113  -0.007068  -0.0321  0.03284  -0.8074  0.1178
6.491e+09  -0.7045  -0.5614  -0.04431  -0.02401  0.0118  0.02971  -0.6332  0.3488
6.492e+09  -0.8155  -0.2984  0.03969  -0.01971  0.01731  -0.05374  -0.5004  0.5395
6.494e+09  -0.8948  0.03045  0.006352  -0.0555  0.01287  -0.01763  -0.3245  0.7119
6.495e+09  -0.8404  0.3284  -0.02039  0.02982  -0.03348  -0.006271  -0.08704  0.7803
6.496e+09  -0.7159  0.5544  -0.01822  -0.01385  0.01719  0.01506  0.2595  0.722
6.498e+09  -0.3971  0.8179  -0.02292  0.01962  -0.02423  -0.004308  0.4698  0.6396
6.499e+09  -0.1099  0.8492  0.02332  -0.03026  0.03444  0.01259  0.6541  0.408
6.5e+09  0.2278  0.8504  0.0314  0.008113  -0.04055  -0.009526  0.7362  0.1694
6.501e+09  0.4424  0.6975  -0.002805  0.03149  0.006474  -0.05613  0.7311  -0.1701
6.502e+09  0.7315  0.4995  -0.01114  -0.006149  0.03413  0.0261  0.6753  -0.362
6.504e+09  0.8578  0.2275  0.008422  0.03768  -0.06042  0.0413  0.4973  -0.5786
6.505e+09  0.9151  -0.02293  -0.004211  0.002251  0.03127  0.0343  0.2802  -0.7109
6.506e+09  0.786  -0.4182  0.004911  0.004673  0.01555  0.06992  0.04575  -0.7821
6.508e+09  0.6324  -0.6364  -0.005787  -0.00016  -0.001233  0.04009  -0.2332  -0.7231
6.509e+09  0.3883  -0.7758  -0.01473  -0.02505  0.01922  0.035  -0.503  -0.6162
6.51e+09  0.05446  -0.8917  0.006421  0.0008782  0.003934  0.07779  -0.6485  -0.3678
6.511e+09  -0.2331  -0.8887  -0.03305  -0.01225  -0.01515  -0.01195  -0.751  -0.09313
6.512e+09  -0.4727  -0.7615  0.01519  -0.006151  -0.005111  0.02457  -0.7225  0.1386
6.514e+09  -0.7109  -0.5071  -0.03151  -0.04589  -0.007875  0.005164  -0.6647  0.3837
6.515e+09  -0.8405  -0.2621  0.01052  -0.0001247  0.001938  -0.03314  -0.4921  0.5601
6.516e+09  -0.89  0.07555  -0.028  0.01903  0.00948  0.005283  -0.2657  0.7147
6.518e+09  -0.8366  0.3447  -0.01714  0.02972  0.02942  -0.0561  -0.006346  0.7283
6.519e+09  -0.6331  0.6243  0.02039  0.04156  0.004019  -0.04385  0.268  0.6943
6.52e+09  -0.3593  0.8647  0.03557  -0.009907  -0.05048  -0.0238  0.5104  0.5524
6.521e+09  -0.06617  0.9172  -0.0171  -0.01867  0.004243  -0.07325  0.6588  0.3448
6.522e+09  0.2634  0.8748  0.03458  -0.007886  -0.005233  0.02649  0.7076  0.05922
6.524e+09  0.5499  0.7106  0.0008406  -0.002205  -0.03687  -0.03057  0.7259  -0.1807
6.525e+09  0.7943  0.5304  0.005524  0.002094  -0.03909  0.01078  0.6048  -0.3839
6.526e+09  0.9164  0.2399  0.001506  0.01967  0.09043  -0.0158  0.449  -0.5561
6.528e+09  0.9134  -0.1002  0.008255  -0.01908  0.02022  0.04527  0.2201  -0.675
6.529e+09  0.7967  -0.4133  -0.01678  0.02106  0.05018  -0.03985  -0.02681  -0.6827
6.53e+09  0.6757  -0.6866  0.008183  -0.003667  -0.01563  0.0439  -0.2793  -0.6292
6.531e+09  0.372  -0.8495  0.01582  0.01997  -0.003804  -0.01264  -0.461  -0.4761
6.532e+09  0.07733  -0.989  0.02605  0.001424  0.0207  0.06165  -0.558  -0.2874
6.534e+09  -0.2943  -0.9117  -0.003179  -0.01799  -0.00577  -0.01524  -0.6393  -0.08861
6.535e+09  -0.6238  -0.7379  -0.01431  0.008899  -0.01802  0.1052  -0.6567  0.07952
6.536e+09  -0.8692  -0.4682  0.01207  -0.001007  0.0491  0.02007  -0.5161  0.3042
6.538e+09  -0.9531  -0.138  0.0002795  -0.01426  -0.06651  0.009486  -0.4128  0.4549
6.539e+09  -0.9401  0.2538  0.0005572  -0.0404  0.006704  0.01325  -0.2865  0.6449
6.54e+09  -0.7935  0.5185  -0.007501  0.001326  0.04333  -0.06558  -0.07652  0.7077
6.541e+09  -0.5514  0.7417  0.001093  0.008598  -0.007873  -0.04948  0.1797  0.6413
6.542e+09  -0.2578  0.9076  -0.02032  0.02654  0.03058  -0.0007786  0.3754  0.5945
6.544e+09  0.09368  0.957  -0.003247  -0.01301  -0.008434  0.006228  0.6242  0.409
6.545e+09  0.3653  0.8818  0.006116  -0.005759  0.02676  0.02493  0.7112  0.184
6.546e+09  0.658  0.7001  -0.01665  -0.01293  0.004769  0.00261  0.6935  -0.06712
6.548e+09  0.9018  0.4038  -0.002163  0.04012  -0.01764  -0.006027  0.6738  -0.3184
6.549e+09  1.028  0.1162  0.0203  -0.003881  -0.0349  -0.02236  0.4821  -0.5651
6.55e+09  0.9685  -0.283  0.01132  0.008364  0.02769  0.01776  0.2937  -0.6567
