# Hz S RI R 50
6.25e+09  -0.2783  0.8154  0.01623  -0.04185  -0.06655  0.03612  0.2015  0.5097
6.251e+09  -0.08121  0.846  -0.003891  0.01106  -0.009616  0.07374  0.3589  0.4135
6.252e+09  0.2612  0.8567  0.026  -0.01998  -0.01444  -0.02899  0.5322  0.2185
6.254e+09  0.5128  0.6889  0.01408  0.01666  0.04025  -0.02699  0.5931  0.0003748
6.255e+09  0.7268  0.4719  -0.03959  0.02  0.008677  0.005718  0.6002  -0.2237
6.256e+09  0.8174  0.1263  0.009142  -0.02909  0.04417  -0.009255  0.5052  -0.4529
6.258e+09  0.907  -0.1255  0.03155  0.01871  0.009288  0.01769  0.2858  -0.6016
6.259e+09  0.7981  -0.4205  -0.00432  0.04127  -0.0129  -0.007118  0.0213  -0.6655
6.26e+09  0.5515  -0.672  0.02978  -0.02081  -0.02384  0.01928  -0.2107  -0.66
6.261e+09  0.314  -0.7753  0.0179  0.01709  0.05424  -0.02851  -0.492  -0.556
6.262e+09  0.03946  -0.8847  0.01504  0.03581  -0.07824  0.01347  -0.5993  -0.3151
6.264e+09  -0.2954  -0.8628  0.01266  0.04261  -0.01632  -0.009806  -0.7044  -0.1085
6.265e+09  -0.522  -0.6378  0.002998  0.01325  0.0248  0.007613  -0.7191  0.1913
6.266e+09  -0.6984  -0.4477  0.01898  -0.0211  0.01433  -0.0005286  -0.5981  0.4138
6.268e+09  -0.8344  -0.149  -0.02057  0.01269  -0.02554  -0.02599  -0.4539  0.5974
6.269e+09  -0.8244  0.1146  0.01024  0.02358  0.003055  -0.06073  -0.2112  0.732
6.27e+09  -0.6975  0.4267  0.006088  0.01375  0.01442  -0.03092  0.05418  0.721
6.271e+09  -0.4952  0.6065  -0.001025  -0.01046  -0.02782  -0.03786  0.3218  0.6851
6.272e+09  -0.3273  0.763  -0.02995  -0.01306  -0.0145  0.05252  0.5112  0.5389
6.274e+09  0.0534  0.8313  0.01998  -0.005403  0.00703  -0.04217  0.6867  0.3156
6.275e+09  0.2804  0.8276  0.003676  0.02253  0.0178  0.008943  0.7576  0.06369
6.276e+09  0.5539  0.5939  -0.009514  0.0242  0.01105  -0.03799  0.7483  -0.2018
6.278e+09  0.7964  0.4352  0.005306  -0.01707  -0.02772  -0.01637  0.6277  -0.4882
6.279e+09  0.7673  0.1167  -0.00782  0.01232  0.07241  -0.02529  0.4123  -0.6394
6.28e+09  0.7937  -0.1535  -0.006308  -0.008481  0.01168  0.0581  0.1404  -0.7612
6.281e+09  0.7091  -0.4261  -0.008474  -0.005935  0.03011  0.02299  -0.1189  -0.7713
6.282e+09  0.5296  -0.5862  0.02467  0.01524  -0.005812  -0.01409  -0.3541  -0.6861
6.284e+09  0.2734  -0.7481  -0.0179  0.002651  -0.01987  -0.02974  -0.5686  -0.525
6.285e+09  -0.02617  -0.8666  0.005211  -0.01854  0.02179  0.02426  -0.7298  -0.3008
6.286e+09  -0.2895  -0.7904  0.0111  0.01016  -0.01668  -0.03418  -0.7961  -0.03165
6.288e+09  -0.542  -0.6185  0.004496  -0.03653  -0.02477  -0.008838  -0.7573  0.2391
6.289e+09  -0.7333  -0.3844  -0.00872  0.004882  0.02172  -0.04359  -0.6171  0.4726
6.29e+09  -0.8453  -0.09571  -0.04341  -0.007968  -0.06078  0.03697  -0.4377  0.7115
6.291e+09  -0.792  0.2126  -0.009619  0.006067  0.01893  -0.03587  -0.1599  0.7813
6.292e+09  -0.6971  0.45  0.003023  -0.0148  -0.05839  -0.005909  0.1363  0.8122
6.294e+09  -0.4924  0.626  0.0005361  0.002158  0.02522  0.01915  0.4128  0.7339
6.295e+09  -0.2442  0.7519  0.03173  0.02123  -0.03206  0.0443  0.646  0.559
6.296e+09  0.117  0.8265  -0.01467  0.0024  -0.008136  -0.01944  0.788  0.2887
6.298e+09  0.334  0.7453  -0.02975  0.004159  0.0009978  -0.01723  0.8498  0.008557
6.299e+09  0.578  0.5921  -0.008064  0.02038  -0.02673  0.00803  0.7806  -0.285
6.3e+09  0.7504  0.3433  0.0001756  0.02172  -0.00699  0.0165  0.6517  -0.5276
6.301e+09  0.8662  0.06557  0.02134  -0.005798  -0.04195  -0.06933  0.4378  -0.7367
6.302e+09  0.8248  -0.201  0.01985  0.01351  0.04205  0.01413  0.1228  -0.8074
6.304e+09  0.6924  -0.5289  -0.03196  -0.03393  0.01284  0.03171  -0.1535  -0.8305
6.305e+09  0.4805  -0.6582  -0.01508  -0.01262  0.02393  -0.03527  -0.4377  -0.7493
6.306e+09  0.2636  -0.8294  0.004417  0.0003878  -0.05744  -0.05761  -0.6686  -0.571
6.308e+09  -0.05582  -0.8497  0.002143  -0.003024  -0.01969  0.04016  -0.8188  -0.3139
6.309e+09  -0.3751  -0.7074  -0.001594  0.00546  0.02513  -0.0245  -0.851  -0.01498
6.31e+09  -0.6221  -0.6026  -0.01756  0.006444  0.02378  -0.01415  -0.8145  0.2675
6.311e+09  -0.7807  -0.267  0.0152  -0.01059  0.02496  -0.05057  -0.6744  0.5542
6.312e+09  -0.8502  -0.06519  -0.001281  -0.01386  -0.02766  0.02034  -0.4341  0.7758
6.314e+09  -0.7778  0.3116  -0.006011  0.01973  -0.04343  -0.04696  -0.1782  0.8367
6.315e+09  -0.6773  0.5557  -0.008976  -0.02664  0.02654  0.004857  0.1592  0.8782
6.316e+09  -0.4574  0.6963  -0.01031  -0.01384  0.02078  -0.007813  0.4219  0.7838
6.318e+09  -0.1552  0.8656  -0.003516  0.01379  -0.04211  -0.01208  0.6902  0.5569
6.319e+09  0.1095  0.8751  -0.02195  -0.01643  0.02157  -0.007119  0.8199  0.3288
6.32e+09  0.4204  0.8216  0.02338  0.008626  -0.005609  -0.02177  0.872  0.01249
6.321e+09  0.6215  0.5856  0.002445  -0.008543  -0.01858  -0.02529  0.8303  -0.3004
6.322e+09  0.7916  0.2736  -0.01161  0.004377  0.01602  0.02101  0.6896  -0.5854
6.324e+09  0.8467  -0.02825  -0.0006517  0.002728  0.01448  0.01383  0.4597  -0.7365
6.325e+09  0.8298  -0.2723  -0.02639  0.01505  -0.0385  -0.001671  0.1924  -0.8693
6.326e+09  0.6011  -0.5395  0.0315  -0.01136  -0.01393  0.002777  -0.1398  -0.8925
6.328e+09  0.4356  -0.7383  -0.03583  -0.002069  0.01886  0.01555  -0.4405  -0.7794
6.329e+09  0.1355  -0.8286  -0.001306  -0.02505  -0.03846  -0.01178  -0.6846  -0.6144
6.33e+09  -0.1937  -0.8876  0.002926  -0.01736  0.009876  -0.01816  -0.8221  -0.3429
6.331e+09  -0.4837  -0.7369  -0.007615  -0.004629  0.00916  -0.02293  -0.8975  -0.05841
6.332e+09  -0.7213  -0.5081  0.0132  0.01702  0.008924  -0.005024  -0.8322  0.3102
6.334e+09  -0.8902  -0.2238  -0.001904  0.008503  0.01496  0.00578  -0.7271  0.5791
6.335e+09  -0.8985  0.02776  -0.02736  0.03284  0.00502  0.04334  -0.4479  0.786
6.336e+09  -0.8048  0.3728  0.02543  0.03062  0.004052  -0.0165  -0.1847  0.9135
6.338e+09  -0.5864  0.5427  0.04327  -0.0116  -0.009312  0.01101  0.1225  0.9291
6.339e+09  -0.3793  0.7905  0.01946  0.01547  -0.03324  -0.005553  0.4254  0.8047
6.34e+09  -0.05855  0.9103  0.02663  0.01755  -0.02848  -0.06109  0.6876  0.6337
6.341e+09  0.2569  0.8605  -0.007365  -0.02026  -0.002265  -0.01642  0.8806  0.3475
6.342e+09  0.5253  0.6904  0.01016  0.007581  -0.01655  0.0377  0.8993  0.03789
6.344e+09  0.7253  0.5332  0.007834  0.0002512  0.005974  -0.03163  0.8908  -0.282
6.345e+09  0.8774  0.1957  -0.004587  0.01108  -0.01292  0.006466  0.7435  -0.5567
6.346e+09  0.84  -0.09974  -0.006679  -0.0144  -0.04509  -0.03377  0.5298  -0.7929
6.348e+09  0.7643  -0.4624  -0.01908  0.003626  0.003902  -0.007233  0.2104  -0.9265
6.349e+09  0.5765  -0.6989  0.03477  -0.001291  -0.01692  -0.05511  -0.1184  -0.9421
6.35e+09  0.3146  -0.8502  0.0323  -0.005903  0.005728  0.02247  -0.4048  -0.8724
6.351e+09  0.027  -0.9043  -0.004991  -0.03624  -0.04955  -0.0227  -0.6847  -0.6376
6.352e+09  -0.293  -0.8392  -0.01263  0.04058  0.03404  -0.03412  -0.8706  -0.3605
6.354e+09  -0.5704  -0.6934  -0.0221  -0.001225  0.05969  0.01222  -0.9597  -0.04915
6.355e+09  -0.7695  -0.4842  0.002157  -0.004762  -0.01043  -0.04474  -0.8551  0.2617
6.356e+09  -0.8654  -0.1576  -0.01683  -0.02756  -0.03991  0.01159  -0.7415  0.5611
6.358e+09  -0.9149  0.1715  0.007037  -0.009596  -0.02477  0.0383  -0.5542  0.7605
6.359e+09  -0.7257  0.4765  0.01228  0.0004892  -0.004528  0.02092  -0.2574  0.916
6.36e+09  -0.5634  0.6931  0.008703  0.004384  -0.00868  -0.05342  0.1494  0.9754
6.361e+09  -0.2901  0.8395  0.03231  -0.02181  -0.02347  0.001996  0.4326  0.8801
6.362e+09  0.03082  0.9087  0.004239  0.006183  -0.03671  -0.01296  0.7136  0.6819
6.364e+09  0.3134  0.8353  0.01479  -0.0005636  -0.009974  0.06084  0.8483  0.3654
6.365e+09  0.6125  0.6541  0.01526  -0.01709  0.0305  -0.01511  0.9801  0.07106
6.366e+09  0.8054  0.406  0.006007  -0.009332  -0.008125  -0.01315  0.916  -0.1947
6.368e+09  0.9379  0.115  -0.0008599  0.00821  0.02964  -0.005495  0.819  -0.5898
6.369e+09  0.8511  -0.1914  0.01644  -0.01475  -0.003487  0.002195  0.512  -0.8125
6.37e+09  0.7781  -0.4937  -0.001622  0.03448  -0.03698  0.007538  0.2439  -0.9111
6.371e+09  0.5188  -0.7358  -0.0154  -0.04912  -0.04415  -0.007947  -0.08364  -0.9564
6.372e+09  0.2458  -0.8263  0.02083  0.01992  0.02387  0.007453  -0.3835  -0.8469
6.374e+09  -0.08243  -0.9405  0.0228  0.02334  0.06079  0.03604  -0.6447  -0.6972
6.375e+09  -0.4207  -0.7933  -0.001969  -0.001137  0.01234  0.0243  -0.8615  -0.4206
6.376e+09  -0.6537  -0.6297  0.009744  0.01008  -0.03464  0.004281  -0.9399  -0.0675
6.378e+09  -0.8557  -0.3653  -0.02271  0.02958  -0.02485  0.02465  -0.8924  0.2113
6.379e+09  -0.881  -0.05885  -0.002706  -0.003897  -0.02655  0.009428  -0.8079  0.5444
6.38e+09  -0.8894  0.2675  -0.01421  -0.007653  -0.02866  0.01582  -0.5919  0.7605
6.381e+09  -0.7616  0.5514  -0.0131  -0.001807  -0.01527  -0.01075  -0.2769  0.958
6.382e+09  -0.4801  0.7503  -0.01332  -0.01494  -0.03653  0.004417  0.09032  0.8885
6.384e+09  -0.1658  0.8418  -0.01051  0.01135  0.02543  -0.006238  0.4217  0.8538
6.385e+09  0.07246  0.8303  0.03054  0.04118  -0.04044  -0.03126  0.6512  0.659
6.386e+09  0.4169  0.7561  0.02446  -0.02285  0.006534  0.0154  0.8319  0.4148
6.388e+09  0.6508  0.5937  -0.02685  0.04465  -0.04213  -0.01421  0.9056  0.04504
6.389e+09  0.8781  0.3139  -0.04616  -0.003122  -0.02936  -0.02919  0.9194  -0.2444
6.39e+09  0.9018  0.06284  -0.009105  -0.02704  -0.02542  0.005127  0.7933  -0.495
6.391e+09  0.8717  -0.2869  -0.01327  0.03324  -0.0006412  0.01118  0.6121  -0.7277
6.392e+09  0.7023  -0.5639  0.01861  0.01808  -0.0153  0.003043  0.2658  -0.9099
6.394e+09  0.474  -0.811  -0.02211  -0.01796  0.07093  -0.01466  -0.06064  -0.9148
6.395e+09  0.1365  -0.8761  0.01373  -0.01088  -0.006468  0.06473  -0.3446  -0.8283
6.396e+09  -0.1366  -0.8831  -0.02233  0.02954  0.01214  0.01835  -0.6218  -0.6941
6.398e+09  -0.468  -0.768  -0.0005622  0.01935  0.03246  0.04906  -0.8036  -0.4726
6.399e+09  -0.6854  -0.5834  0.01644  0.02598  -0.00229  0.03363  -0.9063  -0.148
6.4e+09  -0.8627  -0.3031  0.02764  0.01062  0.00462  -0.01477  -0.9311  0.1481
6.401e+09  -0.8861  0.02118  -0.031  0.03445  -0.01161  0.001177  -0.7934  0.4832
6.402e+09  -0.8355  0.298  0.004642  0.02131  -0.01458  -0.001913  -0.576  0.6749
6.404e+09  -0.6637  0.553  -0.01665  0.02964  -0.04124  0.005603  -0.2986  0.8398
6.405e+09  -0.4392  0.7537  0.01111  0.05262  -0.0008069  0.01233  -0.04584  0.9527
6.406e+09  -0.1102  0.8485  0.0139  -0.009796  -0.03242  -0.02087  0.3441  0.8569
6.408e+09  0.1548  0.8794  -0.01676  0.004934  0.0564  -0.06269  0.5887  0.7225
6.409e+09  0.4435  0.7506  -0.01433  -0.001576  -0.007368  -0.02008  0.8418  0.4804
6.41e+09  0.6647  0.5344  -0.02451  0.001935  0.003052  -0.02512  0.8879  0.1631
6.411e+09  0.8632  0.2774  0.02662  0.001853  0.01712  -0.0005935  0.9376  -0.1495
6.412e+09  0.8939  0.002665  0.02282  0.01115  0.007695  0.01198  0.7699  -0.4368
6.414e+09  0.8216  -0.3581  0.01602  0.005174  -0.01702  -0.02574  0.5848  -0.6813
6.415e+09  0.6657  -0.5591  0.02103  -0.06049  -0.02474  -0.01021  0.3464  -0.8316
6.416e+09  0.4393  -0.7757  0.03689  0.03954  -0.02889  0.009654  0.02821  -0.913
6.418e+09  0.08648  -0.8605  -0.01111  0.02868  -0.03739  0.01446  -0.2628  -0.8695
6.419e+09  -0.1628  -0.8566  0.01542  -0.01351  -0.001051  -0.03121  -0.5744  -0.6644
6.42e+09  -0.4544  -0.7529  0.0108  -0.002839  0.03942  -0.002922  -0.7422  -0.5055
6.421e+09  -0.709  -0.5532  0.004756  0.02487  -0.0101  -0.03499  -0.889  -0.2124
6.422e+09  -0.8402  -0.2874  -0.055  0.01302  -0.01532  -0.04096  -0.8898  0.1467
6.424e+09  -0.9013  0.01805  -0.0004837  0.007799  -0.01635  0.01829  -0.8058  0.4314
6.425e+09  -0.8229  0.3319  -0.03949  -0.01032  -0.07139  0.004658  -0.5941  0.6266
6.426e+09  -0.6349  0.6386  0.003478  -0.03904  -0.01544  -0.01497  -0.3614  0.8172
6.428e+09  -0.3898  0.7381  0.006852  -0.05317  -0.01843  -0.0162  -0.01516  0.9089
6.429e+09  -0.09887  0.9078  -0.02447  0.01642  0.01659  0.001653  0.214  0.8591
6.43e+09  0.2171  0.8717  0.002303  0.007002  0.04157  0.01116  0.5045  0.7341
6.431e+09  0.4737  0.7191  0.0371  0.01672  0.03164  0.01499  0.7031  0.4642
6.432e+09  0.721  0.4897  -0.009117  -0.01824  -0.002239  -0.02692  0.8718  0.2218
6.434e+09  0.8591  0.2368  -0.01607  0.01228  0.03016  -0.02736  0.8517  -0.08061
6.435e+09  0.912  -0.02845  -0.01794  -0.04453  -0.01899  -0.02562  0.7871  -0.358
6.436e+09  0.8216  -0.3158  0.06283  -0.02575  0.01698  0.01331  0.5797  -0.6437
6.438e+09  0.6287  -0.6235  0.06567  -0.01434  0.004453  -0.003012  0.3249  -0.772
6.439e+09  0.3758  -0.8083  0.02932  0.01581  -0.02885  -0.01843  0.0873  -0.8729
6.44e+09  0.1128  -0.8919  0.01713  -0.02944  -0.03401  0.04019  -0.2147  -0.821
6.441e+09  -0.2233  -0.848  0.01252  -0.02987  -0.02103  0.04381  -0.5022  -0.6348
6.442e+09  -0.5061  -0.7179  -0.003465  0.01281  -0.01234  0.01169  -0.7247  -0.4795
6.444e+09  -0.7522  -0.5155  0.004457  0.03977  0.01706  -0.0004745  -0.8479  -0.27
6.445e+09  -0.8377  -0.2162  0.02536  -0.02894  -0.02376  0.01296  -0.8422  0.077
6.446e+09  -0.9246  0.01876  0.006892  0.03726  0.004004  -0.01794  -0.7545  0.3844
6.448e+09  -0.8052  0.4137  0.04048  0.006408  -0.06676  -0.006707  -0.607  0.5984
6.449e+09  -0.6286  0.5978  0.02975  0.001037  -0.002039  -0.002473  -0.3321  0.758
6.45e+09  -0.3763  0.8281  0.03975  -0.021  0.0469  -0.04291  -0.06651  0.8597
6.451e+09  -0.05157  0.8917  -0.008124  -0.02544  0.02998  -0.01659  0.2209  0.8306
6.452e+09  0.2469  0.8891  -0.01206  0.04787  0.02479  0.008203  0.4924  0.6628
6.454e+09  0.5261  0.7191  -0.01088  -0.008853  0.005223  -0.04452  0.6745  0.5065
6.455e+09  0.7003  0.5304  0.01563  -0.03278  0.01363  0.0004924  0.7962  0.2438
6.456e+09  0.8928  0.2159  -0.04362  0.02199  -0.001246  -0.02286  0.8218  -0.0779
6.458e+09  0.9415  -0.09441  0.01538  -0.005727  -0.02276  -0.05423  0.7311  -0.3799
6.459e+09  0.7958  -0.3383  -0.003471  -0.01228  0.0212  0.006785  0.5247  -0.6264
6.46e+09  0.6221  -0.6338  -0.007716  0.03051  -0.03532  0.004604  0.3157  -0.7946
6.461e+09  0.3773  -0.8382  0.0119  0.02753  -0.01249  -0.05175  0.04819  -0.85
6.462e+09  0.03343  -0.8913  -0.0192  0.03403  0.03815  0.008504  -0.209  -0.7838
6.464e+09  -0.2132  -0.8605  -0.01312  0.002489  0.001558  -0.02091  -0.4709  -0.6429
6.465e+09  -0.5525  -0.7337  -0.04301  -0.05167  0.03164  -0.009538  -0.6578  -0.4053
6.466e+09  -0.7053  -0.5087  -0.004645  0.01316  -0.002216  0.02979  -0.743  -0.2221
6.468e+09  -0.8696  -0.2405  0.02024  0.03338  0.003143  -0.02251  -0.7814  0.08047
6.469e+09  -0.935  0.08409  0.005907  -0.001603  0.01994  -0.01714  -0.7369  0.3341
6.47e+09  -0.8531  0.3958  0.004834  -0.02073  -0.04418  0.003218  -0.547  0.5388
6.471e+09  -0.6555  0.6743  -0.005643  0.05038  0.01507  -0.02801  -0.2962  0.7204
6.472e+09  -0.3739  0.8257  0.02476  -0.01478  -0.02239  -0.001525  -0.08018  0.7945
6.474e+09  -0.08796  0.9177  0.01354  0.01916  -0.00709  0.006581  0.233  0.7692
6.475e+09  0.2212  0.8435  -0.009265  0.01169  -0.01979  -0.0472  0.4982  0.6586
6.476e+09  0.5327  0.7308  -0.0001682  0.02916  -0.04405  -0.02356  0.6923  0.441
6.478e+09  0.7581  0.51  -0.04412  0.00526  -0.0452  0.0166  0.7746  0.1881
6.479e+09  0.9189  0.2277  -0.009802  -0.01944  -0.03079  0.0044  0.7508  -0.1125
6.48e+09  0.9746  -0.1259  -0.005617  0.004531  -0.09484  -0.03653  0.7385  -0.3322
6.481e+09  0.7929  -0.4011  0.01701  -0.01527  0.04363  0.01129  0.5184  -0.5396
6.482e+09  0.6054  -0.7226  -0.01866  0.02145  -0.04776  0.04452  0.3002  -0.7396
6.484e+09  0.3744  -0.8268  0.004692  -0.01475  -0.04985  0.01037  0.08791  -0.7299
6.485e+09  0.03906  -0.9124  -0.006546  -0.001255  -0.04106  0.001251  -0.2234  -0.7413
6.486e+09  -0.3225  -0.8694  0.007413  -0.02714  -0.006247  -0.01141  -0.4601  -0.6417
6.488e+09  -0.5336  -0.7146  0.02873  -0.0254  0.0239  0.003147  -0.641  -0.423
6.489e+09  -0.7839  -0.4756  -0.01539  0.00256  0.02042  -0.01971  -0.7633  -0.1749
6.49e+09  -0.8851  -0.146  0.02797  0.02458  0.0267  -0.02282  -0.7966  0.09546
6.491e+09  -0.9276  0.1298  -0.005209  0.006296  0.005405  -0.006935  -0.7029  0.3534
6.492e+09  -0.8052  0.4473  -0.02392  -0.04573  -0.01684  0.0001885  -0.5369  0.5452
6.494e+09  -0.6204  0.7044  0.005515  0.02513  0.01988  0.04155  -0.3073  0.7119
6.495e+09  -0.3152  0.8548  -0.024  0.02263  0.01066  -0.0307  -0.06681  0.7668
6.496e+09  0.01727  0.9556  -0.03302  -0.003765  -0.009059  -0.04093  0.2074  0.7769
6.498e+09  0.3373  0.8655  0.01678  -0.02651  -0.04221  0.03908  0.4716  0.6163
6.499e+09  0.6025  0.7584  -0.01739  -0.01406  0.05257  0.02859  0.6454  0.4106
6.5e+09  0.8323  0.4521  -0.01563  0.005803  0.01402  -0.0365  0.7448  0.1504
6.501e+09  0.9535  0.1314  -0.008666  -0.003634  0.03425  -0.02055  0.7275  -0.1119
6.502e+09  0.9039  -0.1249  0.00847  -0.004497  0.01425  0.003508  0.6741  -0.3582
6.504e+09  0.8418  -0.4826  1.806e-05  -0.01839  0.007504  0.03559  0.4893  -0.5444
6.505e+09  0.6095  -0.7173  -0.009839  0.0006324  -0.02747  -0.0123  0.2892  -0.7251
6.506e+09  0.2916  -0.9315  0.01929  -0.03247  -0.03014  -0.004291  0.009951  -0.7653
6.508e+09  -0.01172  -0.9668  0.05696  -0.03444  -0.01254  -0.0138  -0.2261  -0.7071
6.509e+09  -0.4005  -0.9031  0.002792  0.01885  0.00675  -0.01576  -0.4696  -0.5904
6.51e+09  -0.6265  -0.7433  -0.001512  0.00269  0.01052  0.05757  -0.6888  -0.3642
6.511e+09  -0.8683  -0.4555  -0.01217  -0.005823  0.02405  -0.003664  -0.7286  -0.1299
6.512e+09  -0.9153  -0.1406  0.000895  0.01134  0.01286  -0.004732  -0.7484  0.1317
6.514e+09  -0.9429  0.2377  -0.0125  -0.007317  0.007449  0.02616  -0.6398  0.3345
6.515e+09  -0.7596  0.474  0.02768  0.0111  -0.02081  -0.01061  -0.4778  0.5944
6.516e+09  -0.5713  0.8488  0.01895  -0.03513  0.0247  -0.02845  -0.2708  0.7463
6.518e+09  -0.2827  0.9199  -0.009997  0.002374  -0.0007426  0.008702  0.04582  0.7527
6.519e+09  0.08824  0.9629  -0.01163  -0.001249  -0.004794  -0.001989  0.2831  0.713
6.52e+09  0.4122  0.8654  -0.01149  0.01056  0.009349  -0.05201  0.5089  0.5176
6.521e+09  0.6744  0.7319  -0.008764  -0.007967  -0.01194  0.02156  0.6529  0.3543
6.522e+09  0.8446  0.4121  0.0062  -0.02078  -0.0467  -0.05838  0.707  0.07714
6.524e+09  0.9511  0.09778  0.03329  0.01942  -0.007399  0.01451  0.7139  -0.183
6.525e+09  0.8943  -0.3033  0.01077  0.01777  -0.02888  -0.0003078  0.6265  -0.3596
6.526e+09  0.7683  -0.6397  -0.01614  -0.02585  0.005495  -0.01623  0.4064  -0.5952
6.528e+09  0.5348  -0.8101  -0.04029  -0.007472  -0.007026  0.01919  0.2035  -0.6959
6.529e+09  0.1953  -0.9141  0.009535  0.02707  -0.00871  0.02275  -0.078  -0.6871
6.53e+09  -0.1052  -0.9807  -0.06356  -0.0229  -0.0277  -0.01177  -0.3075  -0.6281
6.531e+09  -0.4758  -0.8615  -0.008505  0.009779  -0.02135  0.03221  -0.4971  -0.4714
6.532e+09  -0.7195  -0.6198  -0.005197  -0.0218  -0.04029  0.005035  -0.614  -0.3035
6.534e+09  -0.8591  -0.3261  -0.01695  0.002633  0.001331  -0.0005572  -0.6475  -0.09176
6.535e+09  -0.9785  0.005256  0.0174  0.01773  -0.01757  -0.005381  -0.6147  0.13
6.536e+09  -0.9486  0.3213  -0.02195  -0.03582  0.01549  -0.05249  -0.5573  0.291
6.538e+09  -0.7488  0.6512  -0.01682  -0.01564  0.01198  -0.02347  -0.4411  0.4897
6.539e+09  -0.4551  0.8715  -0.005743  0.01395  -0.01546  -0.0486  -0.2959  0.5941
6.54e+09  -0.1364  0.9306  -0.001029  -0.03036  -0.02303  0.04931  -0.01174  0.7071
6.541e+09  0.1965  0.951  -0.02159  0.01693  -0.04112  0.009727  0.2047  0.6996
6.542e+09  0.5198  0.81  -0.004807  0.01624  -0.007993  -0.04312  0.4331  0.557
6.544e+09  0.7625  0.6256  -0.03559  0.0155  0.0303  -0.03858  0.5969  0.3844
6.545e+09  0.9095  0.2609  -0.03067  -0.02457  -0.01401  -0.01886  0.6984  0.1556
6.546e+09  0.9098  -0.07319  0.01593  0.006172  -0.06935  -0.0144  0.7115  -0.09252
6.548e+09  0.8063  -0.4576  0.04957  0.001064  0.001585  -0.03825  0.6578  -0.316
6.549e+09  0.7224  -0.7134  0.01907  0.02204  -0.01614  -0.01362  0.5475  -0.5518
6.55e+09  0.3404  -0.8896  0.01007  5.118e-05  0.01741  0.02032  0.2818  -0.6976
