# Hz S RI R 50
6.25e+09  0.7772  -0.1912  -0.01006  0.004433  -0.01795  -0.004238  0.1701  0.4654
6.251e+09  0.6554  -0.4989  0.01428  0.008638  0.04085  0.0207  0.3701  0.3871
6.252e+09  0.4496  -0.7011  0.002085  -0.01502  0.02221  0.02409  0.5528  0.2482
6.254e+09  0.1528  -0.8052  0.02741  0.01353  0.01763  0.07675  0.6027  0.03746
6.255e+09  -0.1412  -0.8386  0.007533  -0.006968  -0.009733  0.03395  0.5876  -0.2414
6.256e+09  -0.4164  -0.7565  -0.007111  0.007986  -0.06702  0.008798  0.4851  -0.4556
6.258e+09  -0.6463  -0.5594  0.0257  -0.02433  0.05135  -0.007629  0.2712  -0.5956
6.259e+09  -0.766  -0.2232  -0.004988  -0.01339  -0.03485  0.01135  0.04008  -0.6598
6.26e+09  -0.8159  0.06981  -0.01143  0.03254  -0.03108  0.01075  -0.2397  -0.6511
6.261e+09  -0.7262  0.299  -0.006371  0.01104  -0.002044  -0.02843  -0.4496  -0.5105
6.262e+09  -0.5616  0.5245  0.01195  0.006242  0.02784  -0.01606  -0.6366  -0.3528
6.264e+09  -0.3552  0.7284  0.01433  -0.01161  -0.01961  0.0424  -0.7554  -0.09882
6.265e+09  -0.04835  0.8221  0.0199  0.01751  0.03995  -0.03589  -0.7228  0.1707
6.266e+09  0.2049  0.7737  0.008403  0.02246  0.03188  -0.00405  -0.6235  0.3843
6.268e+09  0.5019  0.6547  -0.03502  -0.01021  -0.00256  -0.001365  -0.4525  0.5705
6.269e+09  0.658  0.3647  0.007569  0.002822  0.001341  0.04119  -0.212  0.689
6.27e+09  0.8447  0.1146  0.02937  0.02141  0.00886  -0.004818  0.04596  0.7409
6.271e+09  0.7562  -0.1668  -0.003062  -0.02668  -0.04036  -0.01117  0.3283  0.6746
6.272e+09  0.6706  -0.4672  -0.006717  -0.009192  -0.02412  0.07023  0.5513  0.482
6.274e+09  0.4535  -0.6382  0.006671  0.01033  0.02173  -0.003207  0.719  0.316
6.275e+09  0.2825  -0.806  -0.004974  -0.0272  -0.007617  -0.0427  0.7517  0.06786
6.276e+09  -0.01999  -0.7791  -0.01846  -0.01621  0.03439  0.01148  0.7452  -0.2358
6.278e+09  -0.3423  -0.7139  0.01156  -0.01222  0.0182  -0.007549  0.6121  -0.4815
6.279e+09  -0.5797  -0.5719  0.0147  0.03684  -0.01806  -0.002544  0.4004  -0.656
6.28e+09  -0.7642  -0.3441  0.01772  -0.01622  -0.02225  0.05075  0.1686  -0.762
6.281e+09  -0.8028  -0.08555  -0.01887  0.01669  0.03432  -0.01056  -0.1485  -0.7552
6.282e+09  -0.7453  0.296  0.02253  -0.01284  -0.003619  0.003317  -0.3949  -0.6628
6.284e+09  -0.5718  0.5103  0.01225  0.02639  0.0009508  -0.01822  -0.5864  -0.536
6.285e+09  -0.3495  0.6546  0.006417  0.01387  -0.004118  0.08197  -0.7373  -0.2741
6.286e+09  -0.129  0.8024  -0.03003  0.02842  0.007183  0.006602  -0.7969  -0.02091
6.288e+09  0.1972  0.7521  0.03663  0.0103  0.03618  -0.06268  -0.752  0.2406
6.289e+09  0.4503  0.6702  -0.02146  -0.02361  -0.02231  -0.008235  -0.6206  0.5256
6.29e+09  0.6736  0.5241  0.04018  0.003156  0.02902  0.03449  -0.3968  0.6892
6.291e+09  0.7604  0.1722  -0.0181  0.00923  0.02537  0.03234  -0.1574  0.8162
6.292e+09  0.7925  -0.04517  0.02055  -0.01722  -0.008372  -0.001769  0.1316  0.8164
6.294e+09  0.7  -0.3377  0.01862  -0.02595  0.0002488  -0.02678  0.423  0.7292
6.295e+09  0.5367  -0.6351  -0.03297  0.01033  0.02512  0.00144  0.6265  0.5299
6.296e+09  0.3102  -0.7676  0.002199  0.01313  0.03079  -0.01436  0.7705  0.289
6.298e+09  -0.006912  -0.8356  0.001471  0.006097  0.01328  -0.00597  0.8188  -0.009689
6.299e+09  -0.2694  -0.7878  0.02567  -3.34e-05  0.02731  0.02264  0.8171  -0.2791
6.3e+09  -0.5597  -0.6267  -0.002021  0.03764  0.0197  0.01789  0.6501  -0.5326
6.301e+09  -0.6733  -0.3349  0.01555  -0.003479  0.0438  0.02094  0.412  -0.718
6.302e+09  -0.7492  -0.1529  -0.01791  0.02026  0.002152  -0.003974  0.1664  -0.8072
6.304e+09  -0.7998  0.1416  -0.004553  -0.01278  -0.05188  -0.0002339  -0.1189  -0.8334
6.305e+09  -0.6653  0.4118  -0.02193  0.0007058  -0.02411  -0.05907  -0.3828  -0.7365
6.306e+09  -0.4331  0.6969  -0.001405  0.02114  -0.0224  -0.01492  -0.6466  -0.5712
6.308e+09  -0.1939  0.8123  -0.02985  -0.007016  0.03923  -0.00215  -0.8104  -0.3353
6.309e+09  0.07551  0.843  -0.01416  -0.0388  0.01318  -0.004604  -0.8535  -0.02222
6.31e+09  0.3409  0.7354  -4.024e-05  -0.008514  0.03946  -0.01464  -0.8208  0.2796
6.311e+09  0.5743  0.4886  0.02139  0.0105  -0.0197  0.01155  -0.6613  0.544
6.312e+09  0.7349  0.2538  0.003101  -0.0225  0.04641  0.04827  -0.469  0.7341
6.314e+09  0.8391  -0.04505  0.02566  0.002578  -0.04025  0.02177  -0.1688  0.8498
6.315e+09  0.7359  -0.305  -0.01475  0.0116  -0.05496  -0.04766  0.124  0.8676
6.316e+09  0.5821  -0.5353  0.02448  0.007434  0.009074  -0.007463  0.4201  0.7945
6.318e+09  0.47  -0.6964  0.009917  -0.004745  -0.007184  0.0004136  0.6792  0.5561
6.319e+09  0.09292  -0.8185  0.003388  -0.007511  0.008494  0.0145  0.83  0.3047
6.32e+09  -0.1552  -0.7801  -0.006744  0.002946  0.0147  -0.005028  0.8661  0.01296
6.321e+09  -0.4621  -0.668  -0.01039  0.02668  -0.05161  -0.02965  0.827  -0.3035
6.322e+09  -0.6589  -0.5039  0.003371  -0.0001743  0.02047  0.01339  0.6901  -0.56
6.324e+09  -0.7896  -0.1934  -0.002696  -0.0003687  -0.01265  -0.0226  0.4672  -0.7696
6.325e+09  -0.7975  0.0791  -0.006688  -0.00699  0.02349  -0.01797  0.1926  -0.8732
6.326e+09  -0.7264  0.3809  -0.0167  0.009395  0.02713  0.009772  -0.1189  -0.8769
6.328e+09  -0.5523  0.6038  -0.03132  -0.006062  0.01061  -0.009887  -0.4436  -0.7462
6.329e+09  -0.2564  0.7784  -0.03632  0.001373  0.01228  0.009963  -0.6791  -0.6066
6.33e+09  0.01199  0.8447  -0.0141  0.002527  0.01686  0.0168  -0.8197  -0.3185
6.331e+09  0.2884  0.7864  0.03128  0.01629  -0.01214  0.0172  -0.8813  -0.01126
6.332e+09  0.5335  0.6421  -0.0008017  -0.0002181  -0.042  -0.01904  -0.8988  0.2833
6.334e+09  0.6822  0.4271  -0.006848  0.01663  -0.009093  0.03095  -0.7133  0.5877
6.335e+09  0.8599  0.1114  -0.006892  -0.02023  -0.004516  0.03877  -0.4678  0.7713
6.336e+09  0.8001  -0.1899  -0.01316  0.01843  -0.006809  0.0001018  -0.226  0.9192
6.338e+09  0.7371  -0.4646  -0.01614  -0.009553  0.01601  0.009249  0.1386  0.9167
6.339e+09  0.4312  -0.697  0.007482  0.03369  -0.0005492  0.004772  0.4162  0.8111
6.34e+09  0.191  -0.818  -0.02531  0.03572  -0.02264  0.001774  0.6742  0.6647
6.341e+09  -0.09988  -0.823  0.01113  -0.02008  0.02388  -0.03278  0.8708  0.383
6.342e+09  -0.3682  -0.786  -0.004186  -0.0008924  -0.007883  0.01678  0.9244  0.02723
6.344e+09  -0.5908  -0.5413  -0.02064  -0.03537  0.03007  -0.008609  0.869  -0.2907
6.345e+09  -0.791  -0.2231  0.0253  0.006894  0.03509  0.000279  0.7109  -0.552
6.346e+09  -0.828  -0.04995  0.01738  -0.01208  0.01862  -0.01733  0.4857  -0.7798
6.348e+09  -0.7606  0.3657  0.007085  0.03772  -0.03743  0.02479  0.1944  -0.9359
6.349e+09  -0.6162  0.5452  0.03486  -0.02385  -0.02563  -0.00932  -0.1124  -0.9353
6.35e+09  -0.3792  0.7541  0.01257  -0.01607  0.01553  0.02938  -0.4484  -0.8096
6.351e+09  -0.03595  0.8381  -0.008898  0.0207  0.01406  -0.001716  -0.7035  -0.6325
6.352e+09  0.164  0.809  -0.01784  -0.01137  -0.02768  -0.02668  -0.8736  -0.3902
6.354e+09  0.468  0.6748  0.00279  0.009714  -0.0214  -0.009865  -0.9484  -0.04313
6.355e+09  0.7184  0.4493  0.02936  0.02506  0.007968  -0.03131  -0.909  0.274
6.356e+09  0.8202  0.2019  0.02502  0.0003953  0.0148  0.0158  -0.779  0.5335
6.358e+09  0.8488  -0.1395  0.02695  0.005967  0.005059  0.03865  -0.5407  0.7828
6.359e+09  0.7268  -0.4128  0.03159  0.03979  0.01399  -0.02819  -0.216  0.9202
6.36e+09  0.5588  -0.6346  -0.003639  0.03619  0.01604  0.02755  0.06939  0.9783
6.361e+09  0.2529  -0.7971  -0.01056  -0.02263  0.0273  -0.008106  0.4499  0.8632
6.362e+09  -0.03418  -0.8174  0.01315  0.00714  -0.002855  -0.02472  0.6674  0.6621
6.364e+09  -0.3558  -0.7616  0.0283  0.01813  0.001196  -0.0115  0.8974  0.4247
6.365e+09  -0.5579  -0.5824  0.04692  -0.002096  -0.01994  -0.03453  0.9225  0.06077
6.366e+09  -0.7529  -0.2945  0.02649  0.01495  -0.02652  0.00378  0.9099  -0.2793
6.368e+09  -0.8316  -0.04162  0.005046  0.000309  0.03102  0.008409  0.7964  -0.5594
6.369e+09  -0.797  0.2182  -0.04067  -0.01973  0.01196  -0.03409  0.525  -0.7888
6.37e+09  -0.6633  0.5288  0.007121  -0.02941  -0.02559  0.06916  0.2201  -0.9339
6.371e+09  -0.4207  0.7665  0.01343  -0.04783  0.01244  -0.01186  -0.1261  -0.9372
6.372e+09  -0.146  0.8264  -0.001161  -0.02011  -0.01913  -0.01431  -0.3878  -0.8827
6.374e+09  0.1619  0.8523  0.00301  0.004633  -0.01043  -0.004613  -0.6469  -0.6918
6.375e+09  0.4706  0.6647  0.0008921  -0.006023  -0.0152  -0.0136  -0.8757  -0.4302
6.376e+09  0.6922  0.5129  0.03964  -0.01209  -0.03231  -0.02985  -0.9393  -0.1224
6.378e+09  0.7947  0.2115  -0.03316  0.02269  0.02549  -0.008829  -0.877  0.2312
6.379e+09  0.8244  -0.1357  0.01684  -0.04357  0.0191  -0.07129  -0.8044  0.5402
6.38e+09  0.7575  -0.3869  -0.006875  -0.004281  0.002728  -0.01686  -0.5681  0.7901
6.381e+09  0.5417  -0.6731  0.01183  0.001186  -0.0003513  -0.02031  -0.2462  0.9171
6.382e+09  0.338  -0.8181  -0.04764  -0.02346  0.01903  -0.03579  0.06876  0.9238
6.384e+09  0.01302  -0.8886  0.0246  -0.02605  0.03189  -0.02557  0.355  0.863
6.385e+09  -0.3076  -0.7534  -0.01544  0.03626  0.03727  -0.01912  0.6193  0.7256
6.386e+09  -0.5732  -0.6661  0.04012  -0.0226  0.05021  0.003291  0.8465  0.4256
6.388e+09  -0.7611  -0.3572  0.005639  0.02887  0.02933  0.02353  0.8935  0.08782
6.389e+09  -0.8708  -0.06312  0.01327  -0.003045  0.0113  -0.004363  0.9016  -0.1853
6.39e+09  -0.8458  0.2572  -0.01185  -0.006463  0.01156  0.02501  0.8273  -0.5406
6.391e+09  -0.6428  0.5263  0.01739  -0.009647  0.00589  0.0429  0.5589  -0.7944
6.392e+09  -0.4274  0.7137  0.0328  0.01394  -0.01016  0.02641  0.2987  -0.8974
6.394e+09  -0.08747  0.8334  0.005318  -0.01539  0.01072  0.002704  -0.0152  -0.9133
6.395e+09  0.1997  0.8427  0.001646  -0.01044  -0.01124  -0.01687  -0.3475  -0.8526
6.396e+09  0.4047  0.7037  -0.03498  -0.006535  -0.01522  -0.0246  -0.6374  -0.6805
6.398e+09  0.6616  0.4315  0.01396  0.005227  -0.01319  -0.02279  -0.8108  -0.4021
6.399e+09  0.8383  0.2161  0.0274  0.02667  0.0353  -0.01768  -0.9337  -0.1419
6.4e+09  0.833  -0.08917  0.01458  0.00884  -0.002753  -0.04373  -0.8567  0.1773
6.401e+09  0.7952  -0.3926  0.02539  0.03883  -0.0288  -0.007449  -0.7769  0.4524
6.402e+09  0.5476  -0.629  0.007362  -0.009346  0.01138  0.01883  -0.5871  0.7164
6.404e+09  0.3425  -0.7825  0.04567  -0.001361  0.01259  0.02863  -0.2736  0.8596
6.405e+09  0.02421  -0.8451  -0.02162  0.02307  0.001418  -0.008734  0.03673  0.9113
6.406e+09  -0.2759  -0.8138  -0.008313  -0.01349  -0.04367  -0.005548  0.3069  0.8591
6.408e+09  -0.5923  -0.6634  0.01512  -0.01107  0.008006  -0.02796  0.5611  0.6978
6.409e+09  -0.7675  -0.3346  0.04624  0.004426  -0.003258  0.00639  0.8049  0.45
6.41e+09  -0.8528  -0.06308  -0.01444  0.02391  -0.003296  0.002523  0.8851  0.1942
6.411e+09  -0.825  0.2352  -0.02336  0.006597  0.00271  -0.03832  0.9004  -0.1095
6.412e+09  -0.7068  0.5157  0.009978  0.02104  0.03589  -0.003112  0.7796  -0.4365
6.414e+09  -0.4472  0.695  -0.01296  -0.00259  -0.02673  0.02456  0.6147  -0.6602
6.415e+09  -0.1713  0.8101  0.01681  0.04606  -0.02182  0.01302  0.312  -0.8173
6.416e+09  0.09363  0.8169  0.009739  0.001824  7.458e-05  -0.008066  0.01934  -0.8463
6.418e+09  0.4552  0.7254  0.01342  -0.006178  0.00755  0.02998  -0.2916  -0.8442
6.419e+09  0.6938  0.4897  0.02831  0.02519  -0.01615  -0.000701  -0.5695  -0.7406
6.42e+09  0.8172  0.2106  -0.03152  0.01281  0.02399  -0.02842  -0.7271  -0.5222
6.421e+09  0.8055  -0.1195  0.01214  -0.02158  0.003057  0.01312  -0.8655  -0.1837
6.422e+09  0.7439  -0.342  0.03352  -0.01213  0.02845  0.0346  -0.8218  0.1104
6.424e+09  0.5051  -0.6229  0.0002742  -0.0005452  0.01371  0.03449  -0.7768  0.4471
6.425e+09  0.2828  -0.8058  -0.02511  -0.021  -0.02375  0.02193  -0.5897  0.6668
6.426e+09  -0.02666  -0.8794  -0.005344  0.03563  0.07637  0.01365  -0.316  0.7808
6.428e+09  -0.3101  -0.7957  0.02095  -0.0137  -0.007299  0.06351  -0.07196  0.8693
6.429e+09  -0.5691  -0.6135  -0.04569  0.04584  0.015  -0.005084  0.2599  0.7989
6.43e+09  -0.7663  -0.3583  -0.008436  0.008142  -0.02356  0.01962  0.5143  0.7098
6.431e+09  -0.8017  -0.04634  0.002468  0.008155  0.004769  0.03022  0.7379  0.4932
6.432e+09  -0.8316  0.2768  -0.02067  0.02344  0.02372  0.04672  0.8331  0.2249
6.434e+09  -0.7291  0.4904  -0.0121  0.02036  0.03054  0.04463  0.8924  -0.06854
6.435e+09  -0.4363  0.7515  -0.03817  -0.02295  0.0009944  -0.01921  0.7646  -0.3435
6.436e+09  -0.07723  0.8313  0.001088  -0.01231  0.01972  0.008625  0.6056  -0.6518
6.438e+09  0.1494  0.8833  -0.002891  -0.00249  0.04358  -0.001418  0.3501  -0.8168
6.439e+09  0.4036  0.7138  -0.004993  -0.01297  0.001084  -0.003303  0.05225  -0.8802
6.44e+09  0.6728  0.5091  -0.0357  -0.00236  -0.007384  0.05158  -0.2382  -0.8343
6.441e+09  0.8037  0.2097  0.002169  0.02327  -0.002287  0.04225  -0.4568  -0.6811
6.442e+09  0.8415  -0.07089  0.006867  -0.02247  0.006864  -0.02583  -0.6779  -0.4936
6.444e+09  0.7553  -0.3789  0.001079  0.01811  -0.02379  -0.0368  -0.7622  -0.1871
6.445e+09  0.5578  -0.6146  0.0081  -0.02652  0.03033  -0.01257  -0.8285  0.07784
6.446e+09  0.2811  -0.7874  0.02722  -0.007678  0.01665  -0.07343  -0.7535  0.3231
6.448e+09  0.02375  -0.8553  -0.03959  0.02229  -0.008289  -0.06436  -0.594  0.6108
6.449e+09  -0.2825  -0.785  0.0202  0.007039  -0.0242  -0.03252  -0.3583  0.712
6.45e+09  -0.5386  -0.61  0.006185  0.02759  -0.02665  0.005486  -0.08138  0.8727
6.451e+09  -0.7405  -0.3848  0.009337  -0.01747  0.05355  0.03278  0.2237  0.7657
6.452e+09  -0.8559  -0.07054  0.008628  -0.01094  -0.03827  -0.02894  0.5116  0.6839
6.454e+09  -0.8194  0.2057  0.02213  -0.008567  0.01431  0.02278  0.6572  0.4684
6.455e+09  -0.6281  0.5079  -0.02211  0.0113  -0.01318  0.001412  0.8374  0.2288
6.456e+09  -0.4667  0.6743  -0.006246  -0.0199  0.008864  -0.008342  0.8191  -0.07413
6.458e+09  -0.222  0.8177  0.0004132  -0.009684  -0.03773  0.002239  0.7201  -0.3695
6.459e+09  0.09134  0.8362  0.02755  -0.02632  0.04358  -0.03072  0.5921  -0.6002
6.46e+09  0.444  0.7002  -0.001229  -0.0024  -0.03517  0.01417  0.3577  -0.7514
6.461e+09  0.6411  0.5352  0.01342  -0.02178  0.01153  0.007102  0.09328  -0.8154
6.462e+09  0.7308  0.308  -0.0453  0.02292  -0.04291  -0.0335  -0.2067  -0.7774
6.464e+09  0.8056  -0.05054  0.04184  -0.0135  -0.004349  0.05616  -0.4723  -0.6528
6.465e+09  0.7146  -0.3283  -0.00943  -0.0005459  -0.005763  -0.009042  -0.6553  -0.4858
6.466e+09  0.611  -0.5792  -0.007716  -0.009669  0.01398  0.01186  -0.7802  -0.2328
6.468e+09  0.2857  -0.7385  -0.004901  0.05695  -0.004139  0.03552  -0.7938  0.08788
6.469e+09  0.02344  -0.837  0.02054  -0.0466  0.006716  0.01786  -0.7162  0.3566
6.47e+09  -0.2712  -0.7874  0.02261  0.0185  -0.003628  -0.02305  -0.5693  0.5091
6.471e+09  -0.4612  -0.6828  0.004749  -0.02426  0.01723  0.0252  -0.3213  0.7216
6.472e+09  -0.6529  -0.442  -0.03165  0.0002624  0.02556  -0.02435  -0.05587  0.8004
6.474e+09  -0.7606  -0.1863  -0.03124  0.01505  0.05352  0.001988  0.1868  0.7626
6.475e+09  -0.7998  0.1138  -0.003509  -0.009496  -0.02773  0.001209  0.455  0.6487
6.476e+09  -0.6738  0.3814  0.03962  0.007779  -0.03765  0.06411  0.6652  0.4443
6.478e+09  -0.5034  0.5797  -0.03231  -0.00257  0.01428  0.006026  0.784  0.2158
6.479e+09  -0.262  0.7316  -0.004331  -0.03365  -0.02821  -0.03983  0.8016  -0.08271
6.48e+09  0.004627  0.7933  0.01883  0.02999  -0.01491  0.02095  0.6696  -0.3702
6.481e+09  0.3138  0.784  -0.007882  0.0271  0.03786  -0.009128  0.5394  -0.548
6.482e+09  0.5118  0.6026  0.03364  -0.02177  0.01569  0.009982  0.3283  -0.7376
6.484e+09  0.6968  0.4319  -0.00252  -0.004241  -0.06116  -0.007899  0.06461  -0.7604
6.485e+09  0.7575  0.0444  0.02033  -0.00137  -0.0004688  -0.01541  -0.2277  -0.7556
6.486e+09  0.8021  -0.1727  -0.01053  -0.01703  0.01615  -0.03658  -0.4373  -0.5938
6.488e+09  0.6526  -0.4148  -0.01915  0.06739  0.0263  -0.05806  -0.6394  -0.4642
6.489e+09  0.4939  -0.6162  -0.0126  -0.001422  -0.03368  -0.02261  -0.7768  -0.2159
6.49e+09  0.2393  -0.753  -0.009127  0.008193  -0.008589  0.01705  -0.7912  0.08921
6.491e+09  -0.05992  -0.7917  0.004003  0.001626  -0.0495  -0.04  -0.7091  0.3273
6.492e+09  -0.3751  -0.7185  -0.006077  0.0117  0.03125  -0.001943  -0.5124  0.5727
6.494e+09  -0.5454  -0.5607  -0.002972  -0.02804  0.03719  -0.02994  -0.2904  0.7208
6.495e+09  -0.6999  -0.3496  0.03408  -0.005071  -0.01419  0.06573  -0.04492  0.7633
6.496e+09  -0.7976  -0.08642  -0.0314  -0.01587  0.06662  -0.02012  0.1943  0.7274
6.498e+09  -0.7408  0.2389  -0.01934  0.001308  -0.00983  -0.0359  0.4244  0.6288
6.499e+09  -0.6585  0.4652  0.006726  0.01004  -0.001972  -0.01035  0.661  0.4469
6.5e+09  -0.4051  0.6495  -0.01622  0.0145  0.05039  -0.006753  0.77  0.1592
6.501e+09  -0.1127  0.777  -0.01136  -0.01986  0.01293  -0.02096  0.7517  -0.1239
6.502e+09  0.09085  0.7731  -0.01087  0.0008595  0.06081  0.01193  0.6808  -0.3232
6.504e+09  0.4007  0.6479  0.003843  -0.01322  -0.0003443  0.01934  0.5378  -0.576
6.505e+09  0.5875  0.5088  0.005431  -0.02703  -0.008374  0.0473  0.303  -0.6703
6.506e+09  0.7205  0.31  0.004452  0.02879  -0.03392  -0.04513  0.01426  -0.7699
6.508e+09  0.8254  -0.006513  -0.05316  -0.04423  -0.03302  -0.06105  -0.2723  -0.7187
6.509e+09  0.7392  -0.2615  -0.008973  -0.006007  0.01761  0.03546  -0.4767  -0.5873
6.51e+09  0.6781  -0.5179  -0.0006174  0.009846  -0.05961  -0.01067  -0.6247  -0.4099
6.511e+09  0.416  -0.6872  0.008415  -0.000636  -0.006183  0.04051  -0.7661  -0.09221
6.512e+09  0.1553  -0.7692  -0.02413  0.01121  0.03059  0.03083  -0.7515  0.13
6.514e+09  -0.1746  -0.8108  0.01661  0.01058  0.03499  -0.007624  -0.6523  0.3652
6.515e+09  -0.4857  -0.654  -0.0173  -0.02144  -0.03348  -0.004557  -0.5027  0.5982
6.516e+09  -0.6111  -0.4982  -0.008132  0.03153  -0.0226  -0.06438  -0.2577  0.7026
6.518e+09  -0.7943  -0.2058  0.001083  -0.04407  0.01163  -0.04004  0.0451  0.7038
6.519e+09  -0.8861  0.09182  0.009167  0.0217  -0.02153  0.03537  0.2858  0.6828
6.52e+09  -0.6862  0.3369  0.0005632  0.01628  -0.02924  -0.002089  0.4782  0.5475
6.521e+09  -0.5947  0.5918  -0.0176  0.02149  0.04254  -0.008757  0.6282  0.3144
6.522e+09  -0.3832  0.7485  -0.03477  0.02495  -0.007366  -0.0188  0.7433  0.0775
6.524e+09  -0.06545  0.801  0.02957  0.01034  -0.01793  -0.01817  0.6963  -0.1543
6.525e+09  0.2032  0.843  -0.03093  0.02905  -0.0417  0.0001036  0.6277  -0.3868
6.526e+09  0.4388  0.6541  0.008614  0.00253  -0.04444  -0.01024  0.4617  -0.5538
6.528e+09  0.6537  0.5014  0.002392  0.05375  -0.000592  -0.00469  0.1559  -0.739
6.529e+09  0.825  0.2249  -0.003162  -0.002476  0.009554  -0.007624  -0.03714  -0.6917
6.53e+09  0.9401  -0.08453  0.01435  -0.01789  -0.0524  0.01293  -0.2846  -0.6362
6.531e+09  0.7345  -0.4077  0.008494  -0.04341  -0.02705  0.006428  -0.4606  -0.5083
6.532e+09  0.5827  -0.6286  -0.001976  0.02544  -0.02225  -0.01599  -0.6254  -0.2808
6.534e+09  0.3822  -0.8047  -0.0003926  -0.001659  -0.02768  -0.04144  -0.6436  -0.07365
6.535e+09  0.04398  -0.9101  -0.0367  0.004936  0.007437  0.04371  -0.6271  0.1308
6.536e+09  -0.3  -0.8235  -0.02176  -0.006372  0.01872  0.03071  -0.5678  0.3291
6.538e+09  -0.5248  -0.7005  -0.01499  -0.03779  -0.01898  0.05146  -0.421  0.4842
6.539e+09  -0.7756  -0.3956  0.0005106  -0.007276  -0.03205  -0.03964  -0.246  0.6185
6.54e+09  -0.8576  -0.2059  -0.03101  -0.02011  0.03847  -0.02739  -0.05326  0.6597
6.541e+09  -0.8385  0.15  -0.007562  0.001455  -0.02397  0.03431  0.1899  0.6618
6.542e+09  -0.7703  0.4624  0.005453  0.01811  -0.03675  -0.01382  0.4036  0.586
6.544e+09  -0.5278  0.6879  -0.009635  -0.01924  0.0005677  0.003076  0.5892  0.3593
6.545e+09  -0.2902  0.8913  0.02646  -0.01779  0.001591  -0.0275  0.6592  0.18
6.546e+09  0.04087  0.8927  -0.01903  -0.005774  -0.005612  0.01181  0.7369  -0.07964
6.548e+09  0.3612  0.8621  0.0008204  -0.01105  0.04997  0.02469  0.6458  -0.3413
6.549e+09  0.6353  0.597  -0.006686  0.007052  0.0001942  0.06147  0.5367  -0.5409
6.55e+09  0.8153  0.425  0.0007426  -0.01821  0.02186  -0.001197  0.2691  -0.6826
