# Hz S RI R 50
6.25e+09  -0.3533  0.8122  0.01384  0.01371  0.01791  -0.005388  0.1701  0.4875
6.251e+09  0.008355  0.8864  -0.02769  0.007493  0.01034  -0.04881  0.3732  0.4083
6.252e+09  0.3025  0.8197  -0.04043  0.007703  -0.008318  0.0432  0.5245  0.242
6.254e+09  0.4993  0.7025  -0.01421  -0.01219  -0.03869  0.01059  0.6152  -0.01435
6.255e+09  0.7923  0.4421  0.03024  0.01727  0.01576  0.05227  0.6097  -0.2165
6.256e+09  0.7888  0.1696  -0.02042  0.03561  -0.00314  0.03539  0.4605  -0.4571
6.258e+09  0.8617  -0.119  -0.007755  -0.04515  -0.05509  -0.07438  0.2802  -0.6337
6.259e+09  0.7344  -0.4265  -0.005719  -0.0001889  -0.0003149  -0.04689  0.01434  -0.6726
6.26e+09  0.584  -0.6509  0.01531  0.005863  0.006996  0.02445  -0.2092  -0.6429
6.261e+09  0.252  -0.7628  0.0386  -0.002955  0.01808  0.02833  -0.4442  -0.5229
6.262e+09  -0.0297  -0.8108  0.03834  -0.03017  0.001189  -0.06296  -0.6237  -0.3774
6.264e+09  -0.3433  -0.8575  -0.0006728  -0.006367  0.018  0.01617  -0.686  -0.08815
6.265e+09  -0.5654  -0.6392  -0.005506  0.003553  0.03786  0.01125  -0.7222  0.1743
6.266e+09  -0.7546  -0.448  0.01248  0.02625  0.06821  0.004271  -0.5973  0.4212
6.268e+09  -0.8037  -0.122  0.004413  -0.0286  0.007404  -0.03656  -0.4369  0.6169
6.269e+09  -0.802  0.1405  0.02101  -0.01665  -0.009179  -0.0584  -0.1607  0.7257
6.27e+09  -0.7572  0.4109  0.001817  -0.01007  0.01931  0.01117  0.04726  0.7606
6.271e+09  -0.5779  0.6919  -0.008784  -0.002604  0.006705  -0.01546  0.337  0.6801
6.272e+09  -0.3073  0.7862  0.01198  -0.002996  -0.03724  0.006063  0.5398  0.5325
6.274e+09  0.05809  0.8459  -0.02407  -0.004114  0.03757  -0.0404  0.6959  0.3011
6.275e+09  0.2999  0.7765  0.006357  0.01336  -0.01636  0.04545  0.7785  0.03404
6.276e+09  0.6137  0.613  -0.02163  -0.003673  0.009679  0.03841  0.732  -0.2204
6.278e+09  0.749  0.423  -0.008393  -0.0264  -0.04328  -0.002148  0.5771  -0.4943
6.279e+09  0.8479  0.08161  -0.0137  0.01972  0.05709  -0.02972  0.397  -0.6461
6.28e+09  0.8332  -0.1709  0.008375  -0.001791  -0.008588  -7.938e-05  0.1752  -0.7523
6.281e+09  0.6485  -0.4422  -0.002631  -0.02418  -0.04144  0.02816  -0.1285  -0.7816
6.282e+09  0.5429  -0.6565  -0.03469  0.01407  -0.01201  0.04783  -0.3729  -0.6815
6.284e+09  0.2679  -0.8358  -0.02777  -0.008375  -0.001539  -0.05683  -0.6288  -0.5185
6.285e+09  -0.05749  -0.8625  -0.000168  0.005825  -0.03238  0.01567  -0.7354  -0.2894
6.286e+09  -0.3358  -0.7406  0.006943  -0.02  0.01642  0.02969  -0.812  -0.003078
6.288e+09  -0.6001  -0.641  0.01412  -0.003371  -0.02068  0.01617  -0.7553  0.2729
6.289e+09  -0.7681  -0.3924  0.02167  0.002592  -0.05243  -0.0457  -0.6404  0.512
6.29e+09  -0.8682  -0.08486  0.002193  0.0522  -0.03287  -0.01936  -0.4323  0.6874
6.291e+09  -0.8346  0.2035  -0.01382  -0.01166  0.03072  -0.01412  -0.1432  0.7793
6.292e+09  -0.6992  0.4729  -0.008174  0.03248  -0.03987  0.003218  0.1409  0.7993
6.294e+09  -0.4935  0.6195  0.007094  0.02106  0.005673  0.02957  0.3687  0.7104
6.295e+09  -0.2164  0.8057  0.01513  0.006729  -0.03013  0.01736  0.6097  0.5364
6.296e+09  0.09778  0.7847  0.03521  0.01896  0.07294  -0.03149  0.7732  0.2937
6.298e+09  0.3694  0.7696  0.01335  0.006922  -0.02085  0.06579  0.8137  0.01497
6.299e+09  0.5949  0.5887  0.02425  0.004284  -0.03997  -0.02385  0.7769  -0.2603
6.3e+09  0.7279  0.3437  -0.03432  0.009295  -0.02358  0.03823  0.6581  -0.5175
6.301e+09  0.8053  0.06911  -0.02119  -0.01244  0.01862  0.01547  0.4244  -0.7216
6.302e+09  0.8039  -0.2393  0.01605  0.005411  -0.02683  -0.01709  0.1591  -0.8225
6.304e+09  0.7174  -0.5031  0.01076  0.01998  -0.04252  0.005597  -0.1743  -0.8053
6.305e+09  0.4812  -0.6702  -0.01099  0.03883  -0.04352  0.02275  -0.4148  -0.7747
6.306e+09  0.1594  -0.8084  -0.02792  0.006899  -0.002626  -0.008953  -0.6708  -0.556
6.308e+09  -0.1276  -0.8024  0.008249  0.005229  0.04979  0.004707  -0.7888  -0.303
6.309e+09  -0.3927  -0.7572  -0.03888  -0.001221  0.01715  0.01309  -0.8514  -0.05468
6.31e+09  -0.6588  -0.5608  0.03242  0.01032  -0.03327  0.001368  -0.8379  0.301
6.311e+09  -0.7969  -0.3344  -0.004767  -0.01924  -0.004113  0.0233  -0.6506  0.5621
6.312e+09  -0.8336  -0.0222  -0.0004623  0.009375  0.02712  0.02337  -0.4441  0.736
6.314e+09  -0.7962  0.2796  0.005153  -0.01518  -0.07627  -0.003953  -0.1596  0.8244
6.315e+09  -0.6779  0.5578  -0.0045  -0.002468  0.0003752  -0.02409  0.1447  0.8666
6.316e+09  -0.4272  0.7728  -0.005297  0.006462  -0.0416  0.003879  0.4367  0.7843
6.318e+09  -0.142  0.803  -0.01758  0.02533  0.0001812  -0.002369  0.6643  0.5279
6.319e+09  0.1776  0.8473  -0.01014  1.528e-05  0.0422  -0.0323  0.8358  0.3192
6.32e+09  0.4111  0.7666  0.01315  0.03628  -0.01335  -0.02672  0.8895  -0.0008012
6.321e+09  0.6236  0.5627  0.02515  -0.0217  -0.0347  -0.01042  0.8323  -0.3026
6.322e+09  0.7878  0.2681  0.01075  0.0107  -0.0439  0.006808  0.6643  -0.5714
6.324e+09  0.886  0.01409  -0.001908  -0.01472  0.008957  -0.006109  0.4344  -0.7698
6.325e+09  0.8253  -0.3314  0.005085  -0.02472  0.007271  -0.0257  0.1602  -0.8831
6.326e+09  0.6706  -0.6239  -0.018  0.0227  -0.01643  0.03124  -0.1364  -0.8852
6.328e+09  0.4559  -0.7437  0.019  -0.002116  0.007274  2.423e-05  -0.4589  -0.7472
6.329e+09  0.108  -0.8926  -0.01045  0.01737  -0.05643  0.02142  -0.7016  -0.6445
6.33e+09  -0.1621  -0.8204  0.02108  0.02495  0.01804  0.02159  -0.8634  -0.3178
6.331e+09  -0.4689  -0.7445  -0.007007  0.01337  -0.02319  0.00446  -0.9049  -0.06632
6.332e+09  -0.694  -0.488  0.03516  -0.01839  0.008678  -0.04847  -0.8518  0.2797
6.334e+09  -0.8147  -0.2132  -0.04186  -0.004738  -0.02866  0.0225  -0.724  0.5812
6.335e+09  -0.9005  0.01618  -0.02818  0.001614  0.003224  0.02934  -0.4958  0.7478
6.336e+09  -0.8263  0.3942  -0.01472  0.01429  -0.0268  0.004295  -0.1889  0.9029
6.338e+09  -0.5944  0.5661  -0.01735  -0.01832  -0.03151  -0.00344  0.1406  0.9051
6.339e+09  -0.3461  0.8271  0.0109  0.00197  -0.02203  0.003249  0.4619  0.8102
6.34e+09  -0.05329  0.9192  -0.02334  0.003659  0.006382  0.01601  0.6538  0.6166
6.341e+09  0.2418  0.8472  0.002367  -0.007248  0.04646  0.01255  0.8573  0.3578
6.342e+09  0.5243  0.7165  -0.04214  0.02266  0.02539  0.03451  0.9207  0.06321
6.344e+09  0.7252  0.5081  0.0003281  -0.01446  -0.02949  -0.05353  0.8757  -0.237
6.345e+09  0.8483  0.1865  0.028  -0.004891  0.02034  -0.03098  0.7708  -0.5831
6.346e+09  0.8999  -0.1433  -0.02261  -0.02575  0.02244  0.01032  0.5134  -0.8179
6.348e+09  0.7714  -0.3767  -0.01239  -0.0147  0.04036  0.00784  0.2121  -0.8851
6.349e+09  0.571  -0.6919  0.03379  -0.0252  -0.03963  0.006966  -0.1268  -0.9355
6.35e+09  0.3452  -0.84  0.05135  -0.0213  -0.03043  0.01507  -0.396  -0.8215
6.351e+09  0.04277  -0.9028  -0.005482  -0.04263  0.003825  0.01815  -0.6785  -0.662
6.352e+09  -0.2728  -0.8299  -0.01837  0.01406  0.02461  -0.01196  -0.8585  -0.3733
6.354e+09  -0.5896  -0.6939  -0.006952  0.005905  0.00115  -0.0214  -0.9647  -0.06936
6.355e+09  -0.7676  -0.4519  0.007318  0.0181  0.0121  -0.01216  -0.8925  0.2995
6.356e+09  -0.8791  -0.1424  -0.03164  -0.01248  0.02488  0.0001555  -0.775  0.5643
6.358e+09  -0.8721  0.1868  -0.01441  0.01881  -0.007957  -0.005268  -0.4995  0.7753
6.359e+09  -0.7339  0.4388  0.01545  0.002349  -0.0005759  -0.03023  -0.2196  0.9577
6.36e+09  -0.54  0.7116  -0.02898  0.02278  -0.008445  0.03703  0.07196  0.9682
6.361e+09  -0.2325  0.9082  -0.001605  -0.01969  0.01342  -0.00811  0.4282  0.8325
6.362e+09  0.04323  0.8874  -0.01692  -0.006126  -0.00479  -0.01121  0.6487  0.6857
6.364e+09  0.3905  0.8128  -0.03229  0.01685  0.01312  -0.03149  0.8717  0.3937
6.365e+09  0.5955  0.6217  0.01313  -0.000404  0.01759  -0.0138  0.9548  0.08453
6.366e+09  0.7984  0.439  -0.029  0.005324  -0.03992  0.03019  0.9356  -0.2585
6.368e+09  0.8842  0.07936  0.000983  -0.04224  0.007684  0.02994  0.7842  -0.5421
6.369e+09  0.8318  -0.2236  0.01958  -0.01522  -0.01341  0.02774  0.5734  -0.7765
6.37e+09  0.7359  -0.5258  -0.01661  -0.01204  -0.07116  -0.01772  0.2125  -0.8991
6.371e+09  0.4681  -0.7208  -0.01384  0.01102  0.001534  0.04961  -0.08751  -0.9812
6.372e+09  0.1708  -0.8573  0.01928  0.006594  -0.02377  -0.007113  -0.395  -0.8557
6.374e+09  -0.08356  -0.8928  0.02409  0.005263  0.01534  0.007251  -0.6751  -0.7029
6.375e+09  -0.4301  -0.7983  0.009865  0.02253  0.02617  -0.007758  -0.858  -0.3799
6.376e+09  -0.6228  -0.5927  0.01757  0.02914  -0.01516  0.01896  -0.9452  -0.1096
6.378e+09  -0.8243  -0.2878  -0.02026  -0.01096  -0.05127  -0.04215  -0.9319  0.2558
6.379e+09  -0.8464  -0.02968  -0.005825  0.04232  0.01314  -0.02132  -0.7945  0.5282
6.38e+09  -0.8538  0.2264  -0.03949  0.00331  0.02524  0.000612  -0.5586  0.7583
6.381e+09  -0.7039  0.6004  -0.007782  0.03466  -0.005762  0.008644  -0.2841  0.9116
6.382e+09  -0.478  0.774  -0.01695  0.0337  0.06199  0.0315  0.04115  0.9823
6.384e+09  -0.1532  0.9082  -0.04048  0.0101  0.006969  0.0298  0.4211  0.8848
6.385e+09  0.1475  0.8961  -0.009224  -0.0201  0.02394  0.001485  0.6328  0.6797
6.386e+09  0.4368  0.8354  0.02212  -0.0342  0.01416  0.0009626  0.8213  0.3959
6.388e+09  0.6986  0.5771  0.01241  0.01449  0.01844  0.02864  0.9201  0.09673
6.389e+09  0.8454  0.3132  -0.01999  0.04915  0.01665  -0.04067  0.909  -0.1762
6.39e+09  0.8753  0.03983  0.03728  -0.00381  0.06455  -0.03792  0.7816  -0.5222
6.391e+09  0.8246  -0.3033  -0.03249  -0.03944  -0.06022  -0.009067  0.6257  -0.7537
6.392e+09  0.7279  -0.5931  0.01121  -0.02268  0.03253  0.06593  0.2991  -0.8975
6.394e+09  0.4467  -0.7583  0.02511  -0.004414  0.009235  0.01787  -0.05022  -0.9514
6.395e+09  0.1457  -0.9328  0.003601  -0.04899  -0.005679  -0.0004617  -0.3319  -0.9044
6.396e+09  -0.1739  -0.8787  -0.01239  -0.01727  0.02662  0.0009842  -0.6288  -0.6807
6.398e+09  -0.4881  -0.7839  -0.009923  -0.02402  0.04655  -0.004367  -0.8185  -0.4686
6.399e+09  -0.7409  -0.5676  0.007647  0.007885  0.02326  -0.01324  -0.9125  -0.1141
6.4e+09  -0.8366  -0.2481  -0.005846  -0.01616  -0.01668  0.00897  -0.9411  0.1913
6.401e+09  -0.9391  -0.02844  -0.02713  -0.05  0.01479  0.009432  -0.7931  0.4617
6.402e+09  -0.8075  0.2804  0.0001444  -0.004048  -0.04171  -0.02793  -0.5891  0.703
6.404e+09  -0.6651  0.5647  0.0246  0.01091  0.01243  0.05578  -0.3201  0.8425
6.405e+09  -0.4707  0.8015  0.05297  -0.01147  0.04105  -0.02573  0.001099  0.9254
6.406e+09  -0.09921  0.883  -0.01103  -0.01923  -0.02107  -0.02246  0.2814  0.8332
6.408e+09  0.1551  0.8863  -0.03843  -0.0327  -0.003535  0.01073  0.5688  0.6999
6.409e+09  0.452  0.7206  -0.02067  -0.0152  0.02316  0.001969  0.7779  0.5061
6.41e+09  0.7078  0.5737  0.02376  0.05117  0.01054  0.009815  0.9174  0.1799
6.411e+09  0.7962  0.2631  0.0001283  0.02741  -0.04637  -0.01623  0.9077  -0.1714
6.412e+09  0.8987  -0.03886  -0.03505  -0.02757  -0.0348  -0.006496  0.7645  -0.4889
6.414e+09  0.8536  -0.3407  0.01105  -0.003979  -0.003796  -0.02096  0.5675  -0.688
6.415e+09  0.6562  -0.5956  -0.02956  -0.01692  0.003244  0.01954  0.3527  -0.8823
6.416e+09  0.4206  -0.8088  0.01016  0.008762  0.06058  0.02245  0.03739  -0.9044
6.418e+09  0.04908  -0.8742  0.003999  0.02615  -0.05715  -0.004111  -0.2516  -0.8744
6.419e+09  -0.2114  -0.8627  -0.01206  -0.02632  0.002841  -0.04297  -0.5341  -0.7116
6.42e+09  -0.5095  -0.7734  0.002212  -0.002126  0.02664  -0.02529  -0.695  -0.4873
6.421e+09  -0.7716  -0.49  0.02285  0.01867  0.03327  0.005235  -0.8518  -0.1422
6.422e+09  -0.8621  -0.2455  0.03336  0.002744  -0.005418  0.053  -0.8863  0.1012
6.424e+09  -0.8694  0.01509  0.05331  -0.01934  0.004482  0.008279  -0.7931  0.4287
6.425e+09  -0.8523  0.3303  -0.0118  -0.03834  0.01714  -0.02101  -0.6211  0.6437
6.426e+09  -0.6542  0.6287  0.02252  0.04149  0.03744  -0.07909  -0.3201  0.7729
6.428e+09  -0.4425  0.8182  -0.01487  0.002868  -0.01284  0.02474  -0.03098  0.899
6.429e+09  -0.108  0.8822  0.02508  -0.0177  0.01536  0.04198  0.2581  0.8425
6.43e+09  0.2096  0.8998  0.01336  -0.02522  -0.01231  -0.02046  0.5134  0.6985
6.431e+09  0.481  0.7398  -0.01739  0.02563  -0.01294  -0.006525  0.7196  0.4878
6.432e+09  0.7542  0.4757  0.01448  -0.03626  0.01835  0.006564  0.8327  0.2085
6.434e+09  0.8508  0.2115  -0.004812  -0.05268  -0.03121  -0.03385  0.8624  -0.08039
6.435e+09  0.9174  -0.02314  -0.04345  -0.01198  -0.05149  -0.01095  0.7556  -0.3973
6.436e+09  0.7825  -0.3619  -0.0429  -0.06369  0.0141  -0.01176  0.6192  -0.6452
6.438e+09  0.6152  -0.6545  0.004647  0.02777  -0.05224  -0.004052  0.3965  -0.7683
6.439e+09  0.3535  -0.7675  0.02695  0.008771  -0.006476  -0.01659  0.06174  -0.9175
6.44e+09  0.1055  -0.8603  0.02786  0.01362  -0.03929  0.02259  -0.2174  -0.8599
6.441e+09  -0.1843  -0.8262  0.004627  -0.01965  0.002333  -0.01479  -0.5227  -0.6726
6.442e+09  -0.4889  -0.724  0.04052  0.007115  0.01746  0.03776  -0.6776  -0.4677
6.444e+09  -0.75  -0.5031  -0.02827  0.02504  0.001609  0.03781  -0.8337  -0.1801
6.445e+09  -0.9044  -0.2577  -0.01845  -0.02287  0.02537  0.01776  -0.8091  0.08781
6.446e+09  -0.8532  0.1043  -0.0213  -0.01972  0.04558  0.00785  -0.7449  0.4303
6.448e+09  -0.838  0.4154  0.03211  -0.01356  0.01108  0.004302  -0.6227  0.6137
6.449e+09  -0.6465  0.6677  0.03582  0.009066  -0.006298  0.0177  -0.3299  0.7303
6.45e+09  -0.3644  0.811  -0.001003  0.05368  0.04287  -0.008364  -0.09547  0.8348
6.451e+09  -0.04533  0.9031  -0.0359  0.04054  -0.02893  -0.05604  0.2742  0.8199
6.452e+09  0.2658  0.8247  -0.02442  -0.03762  0.01561  -0.002002  0.4962  0.6312
6.454e+09  0.501  0.7673  0.02506  -0.00537  0.03722  0.03154  0.7123  0.4919
6.455e+09  0.7343  0.5323  -0.005295  -0.01048  0.02392  -0.0179  0.7914  0.1927
6.456e+09  0.8766  0.2689  -0.004456  0.02082  -0.03572  -0.01965  0.8265  -0.05016
6.458e+09  0.9163  -0.1243  -0.03466  -0.008247  0.05987  -0.03973  0.7537  -0.3352
6.459e+09  0.8871  -0.4121  -0.04385  -0.02289  -0.03075  0.04522  0.5753  -0.549
6.46e+09  0.624  -0.6278  -0.01449  -0.01892  -0.04805  -0.01621  0.3199  -0.7737
6.461e+09  0.3689  -0.8466  -0.00824  0.03862  -0.05192  0.003844  0.002487  -0.8176
6.462e+09  0.05059  -0.8885  0.01999  -0.0007099  -0.03702  0.01164  -0.2411  -0.8213
6.464e+09  -0.2976  -0.8471  -0.0002287  -0.04002  0.002898  0.04451  -0.4491  -0.6573
6.465e+09  -0.5377  -0.6817  -0.01152  -0.04805  0.004818  0.007032  -0.6569  -0.4462
6.466e+09  -0.7379  -0.5223  0.005598  -0.002174  -0.02779  0.001935  -0.7807  -0.1955
6.468e+09  -0.8977  -0.2287  0.01806  0.008149  -0.01588  -0.0325  -0.7883  0.1031
6.469e+09  -0.9051  0.1551  -0.02751  0.007051  0.04199  0.04261  -0.734  0.366
6.47e+09  -0.8933  0.4179  -0.006351  0.01588  -0.03658  0.02357  -0.5263  0.5715
6.471e+09  -0.643  0.6994  -0.006504  0.02333  -0.02343  -0.02857  -0.3279  0.7252
6.472e+09  -0.3355  0.8407  0.02336  -0.01698  -0.02353  -0.03323  -0.0536  0.832
6.474e+09  -0.01041  0.8929  -0.01302  0.01064  -0.006769  0.01336  0.2004  0.8172
6.475e+09  0.2846  0.8903  -0.01503  0.03853  -0.01784  0.002967  0.5011  0.6277
6.476e+09  0.5926  0.7413  0.01624  -0.03567  0.01799  0.02993  0.6554  0.4373
6.478e+09  0.7757  0.4644  0.03204  0.03415  -0.004805  0.009792  0.7804  0.1419
6.479e+09  0.9265  0.1832  -0.03003  0.01649  -0.04152  0.004989  0.7337  -0.07071
6.48e+09  0.9349  -0.1279  0.005632  0.0007782  0.001056  0.02862  0.6904  -0.3489
6.481e+09  0.8158  -0.4057  0.02123  0.01106  0.02263  -0.01699  0.5309  -0.5776
6.482e+09  0.6418  -0.697  -0.00933  0.0122  0.04814  -0.0001977  0.2592  -0.7271
6.484e+09  0.3363  -0.836  -0.01163  0.02897  -0.02827  0.04754  0.06854  -0.7822
6.485e+09  0.05204  -0.9027  0.0363  -0.008266  -0.03554  0.005845  -0.2171  -0.737
6.486e+09  -0.296  -0.8508  0.00157  -0.02613  -0.01556  0.00644  -0.4674  -0.6403
6.488e+09  -0.5267  -0.7121  0.02771  -0.002748  -0.03713  0.02455  -0.6571  -0.4347
6.489e+09  -0.7405  -0.4993  0.004746  -0.02483  0.004821  -0.02845  -0.7755  -0.166
6.49e+09  -0.9191  -0.13  -0.00119  0.0397  -0.04398  -0.01261  -0.77  0.06131
6.491e+09  -0.8976  0.1621  0.02372  -0.003396  0.01265  -0.02241  -0.6945  0.3716
6.492e+09  -0.8451  0.4568  0.007877  0.01485  -0.04309  0.006976  -0.51  0.5736
6.494e+09  -0.6075  0.7219  0.01323  -0.02409  0.01557  0.005936  -0.3086  0.7272
6.495e+09  -0.3373  0.8776  0.03863  -0.00105  -0.0002397  0.02432  -0.05309  0.7279
6.496e+09  0.007608  0.899  -0.004959  -0.004107  -0.004982  -0.0318  0.2337  0.7705
6.498e+09  0.3081  0.8735  -0.02003  -0.005828  0.02421  0.01085  0.4998  0.571
6.499e+09  0.6184  0.7386  -0.01659  0.0171  -0.006063  0.03561  0.6716  0.3978
6.5e+09  0.8474  0.4404  -0.01815  0.03501  -0.05  0.001083  0.7308  0.1558
6.501e+09  0.9677  0.105  -0.006226  -0.03215  0.009339  0.01052  0.758  -0.1343
6.502e+09  0.8951  -0.1732  -0.01798  -0.0376  0.014  0.001495  0.7295  -0.3463
6.504e+09  0.8076  -0.5366  0.01312  0.01662  0.003577  -0.06382  0.5106  -0.5564
6.505e+09  0.5011  -0.7194  -0.01352  0.01136  0.01094  -0.02367  0.2687  -0.7203
6.506e+09  0.2295  -0.9318  0.00915  0.005615  0.01135  0.007411  0.01594  -0.7495
6.508e+09  -0.09921  -0.9487  0.002212  -0.003582  -0.05375  0.02965  -0.2592  -0.7128
6.509e+09  -0.3345  -0.8622  0.002884  0.004236  0.01974  -0.007749  -0.4927  -0.5807
6.51e+09  -0.6679  -0.6924  0.0101  -0.002863  -0.02822  -0.001983  -0.6323  -0.3996
6.511e+09  -0.8978  -0.4092  0.002816  0.01209  -0.05613  0.03721  -0.746  -0.1509
6.512e+09  -0.983  -0.05729  -0.04542  0.01112  -0.01821  0.008177  -0.7555  0.1462
6.514e+09  -0.9375  0.2706  -0.005568  0.0007769  0.03628  -0.02404  -0.6503  0.3954
6.515e+09  -0.7453  0.5571  -0.03002  0.01977  0.02224  0.02821  -0.51  0.6077
6.516e+09  -0.5879  0.7851  -0.02087  0.01506  -0.03437  -0.02213  -0.2186  0.6835
6.518e+09  -0.1996  0.926  -0.005137  -0.0009468  0.01252  -0.01107  0.02763  0.7551
6.519e+09  0.08094  0.9393  0.02459  -0.02865  0.07093  -0.005049  0.2189  0.6736
6.52e+09  0.4639  0.8227  -0.02077  0.01895  0.036  0.02068  0.4895  0.5592
6.521e+09  0.7483  0.6895  0.02758  0.0355  -0.0147  -0.03647  0.6458  0.3639
6.522e+09  0.909  0.3622  0.03394  0.02022  0.01601  -0.03029  0.6994  0.08345
6.524e+09  0.9553  0.01264  0.01439  0.008489  0.01828  7.504e-05  0.7049  -0.1804
6.525e+09  0.9172  -0.2738  0.008494  0.02912  -0.02135  -0.003691  0.5942  -0.3933
6.526e+09  0.7639  -0.6199  -0.006202  0.006412  -0.01419  -0.00196  0.4325  -0.5811
6.528e+09  0.4708  -0.8737  0.007556  0.02397  0.02858  -0.001266  0.2248  -0.6732
6.529e+09  0.2115  -0.8926  0.0075  -0.03168  -0.01691  -0.04639  -0.07536  -0.6778
6.53e+09  -0.2046  -0.9869  -0.0187  -0.009924  0.01959  0.0543  -0.2756  -0.6309
6.531e+09  -0.441  -0.8824  0.01352  0.02448  -0.05491  -0.02054  -0.4584  -0.5062
6.532e+09  -0.8576  -0.6346  -0.008591  -0.01555  0.01254  0.02654  -0.5997  -0.3304
6.534e+09  -0.9432  -0.3026  0.006998  0.009635  0.05162  -0.0337  -0.6085  -0.07854
6.535e+09  -1.027  0.08553  0.01709  -0.03451  -0.02435  0.01209  -0.6434  0.1464
6.536e+09  -0.9454  0.398  -0.01053  0.02142  -0.01524  0.01398  -0.5549  0.3062
6.538e+09  -0.6796  0.6817  -0.03237  0.003816  0.01909  0.02144  -0.4872  0.4648
6.539e+09  -0.4538  0.8619  -0.003697  -0.04024  -0.01884  -0.02683  -0.2809  0.5977
6.54e+09  -0.05963  0.9633  -0.003262  0.01283  0.03115  -0.02868  -0.06685  0.7011
6.541e+09  0.2716  0.9138  0.003316  0.01127  0.01162  -0.003361  0.1679  0.6918
6.542e+09  0.5364  0.7847  -0.0441  -0.01505  -0.03406  -0.01634  0.3786  0.5667
6.544e+09  0.8256  0.6009  0.007634  0.03065  -0.03205  0.02839  0.5436  0.3672
6.545e+09  0.9146  0.2507  0.00205  -0.003089  -0.05895  0.001009  0.6773  0.2067
6.546e+09  0.9425  -0.08577  -0.001681  -0.009934  -0.04577  -0.002174  0.7154  -0.09149
6.548e+09  0.8326  -0.3941  -0.02127  0.01151  0.0378  -0.05624  0.6536  -0.3478
6.549e+09  0.661  -0.6729  -0.01814  -0.0023  0.0007735  -0.0115  0.5075  -0.5352
6.55e+09  0.3853  -0.929  -0.004823  -0.01032  0.02963  -0.03784  0.3084  -0.6732
