# Hz S RI R 50
6.25e+09  0.04263  0.9064  0.03769  0.01421  -0.04335  0.007304  0.1778  0.4782
6.251e+09  0.2843  0.7866  0.002329  -0.0004951  0.01354  0.02567  0.3973  0.3781
6.252e+09  0.5536  0.6912  -0.01839  -0.008804  -0.07002  -0.005061  0.5282  0.2216
6.254e+09  0.7248  0.4846  0.003185  -0.01009  0.02165  0.02473  0.5735  -0.003964
6.255e+09  0.8133  0.1889  -0.01577  0.01623  -0.02394  -0.002064  0.6024  -0.2379
6.256e+09  0.7905  -0.1839  -0.005819  0.0174  0.06227  -0.02509  0.4637  -0.4721
6.258e+09  0.7981  -0.4278  -0.006371  0.02477  0.02005  0.04516  0.274  -0.6149
6.259e+09  0.6001  -0.6573  -0.001972  0.01461  -0.009941  0.004152  0.05591  -0.6762
6.26e+09  0.2552  -0.7963  0.004739  -0.009111  -0.01262  -0.01488  -0.1688  -0.6426
6.261e+09  0.01806  -0.8546  -0.02435  0.009245  0.001712  -0.02026  -0.4063  -0.5462
6.262e+09  -0.2806  -0.7729  -0.01827  0.0006685  0.02342  0.0124  -0.6216  -0.3467
6.264e+09  -0.5027  -0.7102  -0.01151  0.02902  0.01611  -0.03921  -0.7219  -0.1103
6.265e+09  -0.7697  -0.433  0.003751  -0.0286  -0.05147  0.05165  -0.6709  0.16
6.266e+09  -0.8429  -0.1322  0.008763  0.01299  -0.01278  0.02281  -0.6136  0.3819
6.268e+09  -0.8213  0.0995  -0.01001  0.002643  0.01675  0.005478  -0.4378  0.5719
6.269e+09  -0.7399  0.3829  -0.0124  0.007946  0.006338  -0.02688  -0.2204  0.7231
6.27e+09  -0.5343  0.6563  -0.01137  -0.002702  0.006769  -0.01625  0.06634  0.7596
6.271e+09  -0.3093  0.8091  0.01666  -0.006765  -0.02525  -0.04683  0.3405  0.6282
6.272e+09  0.01352  0.7837  0.005119  -0.007506  0.012  -0.001079  0.522  0.5107
6.274e+09  0.3282  0.7469  -0.003278  -0.0005001  -0.02465  -0.006091  0.6716  0.2837
6.275e+09  0.5937  0.6449  0.018  -0.008344  0.05237  0.02863  0.7565  0.04315
6.276e+09  0.7173  0.4242  -0.02081  -0.03524  0.02596  0.002326  0.7243  -0.219
6.278e+09  0.8359  0.1091  -0.009134  -0.009077  -0.04523  0.04172  0.5975  -0.5043
6.279e+09  0.8104  -0.2094  0.007358  0.03398  0.01729  0.0402  0.4176  -0.6469
6.28e+09  0.7465  -0.4898  -0.003679  -0.0005959  -0.05543  -0.01485  0.1418  -0.7568
6.281e+09  0.481  -0.7011  -0.02431  0.01455  -0.031  0.0402  -0.1083  -0.7695
6.282e+09  0.2596  -0.7554  -0.004636  0.007936  0.006808  0.02231  -0.3751  -0.6891
6.284e+09  -0.1098  -0.8358  0.009733  0.002213  -0.0648  -0.005939  -0.6043  -0.5268
6.285e+09  -0.3387  -0.7808  0.008852  -0.008755  0.02948  -0.007414  -0.7429  -0.2743
6.286e+09  -0.5923  -0.5621  0.004264  0.007612  -0.0333  -0.01733  -0.7951  -0.002132
6.288e+09  -0.836  -0.3446  0.01051  -0.02859  0.04692  -0.0317  -0.7654  0.2799
6.289e+09  -0.8034  -0.06754  0.005197  -0.0155  0.03965  -0.05542  -0.6367  0.4943
6.29e+09  -0.8112  0.2505  -0.0254  -0.008108  -0.01832  -0.01636  -0.3999  0.6904
6.291e+09  -0.7144  0.4959  -0.007945  0.01602  0.001849  -0.05206  -0.1583  0.8253
6.292e+09  -0.4615  0.7649  -0.0229  0.002828  -0.04383  -0.004002  0.1026  0.8012
6.294e+09  -0.1979  0.8679  0.03687  0.01943  -0.0117  0.02114  0.3937  0.6869
6.295e+09  0.08321  0.8635  0.0039  0.01656  -0.03867  -0.04238  0.6115  0.5723
6.296e+09  0.3735  0.7591  -0.008117  0.006649  0.02586  0.00892  0.748  0.2783
6.298e+09  0.6166  0.5639  -0.01807  -0.03231  -0.03035  0.009217  0.811  0.02614
6.299e+09  0.7669  0.3477  0.01912  -0.02404  -0.02375  0.02208  0.8148  -0.2693
6.3e+09  0.8252  0.03046  -0.006903  -0.008931  -0.0253  -0.03274  0.6301  -0.5687
6.301e+09  0.8142  -0.298  0.0177  0.01944  0.00977  -0.02138  0.4099  -0.7243
6.302e+09  0.6423  -0.5294  -0.02334  -0.0163  -0.02591  0.002349  0.1908  -0.8068
6.304e+09  0.4435  -0.7408  -0.01904  -0.01105  -0.03535  -0.05369  -0.147  -0.8457
6.305e+09  0.1707  -0.8185  0.01792  -0.0002547  0.01618  -0.01662  -0.4377  -0.7327
6.306e+09  -0.114  -0.8796  -0.008549  0.002506  -0.01529  0.00306  -0.6628  -0.5379
6.308e+09  -0.4367  -0.7192  0.0203  -0.03226  0.009345  -0.03556  -0.7865  -0.2697
6.309e+09  -0.69  -0.5429  0.01832  -0.02187  -0.03551  0.04668  -0.8658  -0.00493
6.31e+09  -0.8248  -0.2351  0.00159  0.01031  -0.0182  0.0001118  -0.7795  0.2836
6.311e+09  -0.8755  0.01507  0.008858  -0.0007397  0.05269  0.006101  -0.7008  0.5675
6.312e+09  -0.8563  0.3242  -0.006847  -0.03049  0.03847  -0.01812  -0.4134  0.7364
6.314e+09  -0.6103  0.5701  -0.0249  0.01585  -0.06625  0.01578  -0.1823  0.8516
6.315e+09  -0.4142  0.7377  -0.02421  0.01576  0.0217  -0.007781  0.1382  0.8654
6.316e+09  -0.09467  0.8096  -0.001282  0.003067  -0.02608  -0.05653  0.4554  0.7742
6.318e+09  0.2117  0.8691  0.007196  -0.01424  -0.02105  -0.05239  0.6582  0.5594
6.319e+09  0.4914  0.7453  0.007532  0.008353  0.01021  0.01488  0.8087  0.3255
6.32e+09  0.6801  0.5469  -0.01245  -0.01355  -0.03429  0.01449  0.8777  0.01355
6.321e+09  0.7929  0.22  -0.008949  0.005462  0.02068  0.01496  0.8591  -0.2982
6.322e+09  0.8542  -0.04742  0.0006824  -0.00943  -0.04234  0.02495  0.6928  -0.6148
6.324e+09  0.8075  -0.3548  0.02987  -0.01533  -0.02532  -0.02026  0.4705  -0.772
6.325e+09  0.6185  -0.6046  -0.01942  -0.02802  -0.008367  -0.0206  0.1333  -0.8917
6.326e+09  0.3749  -0.7604  -0.01409  -0.01067  -0.01811  0.00523  -0.1442  -0.8968
6.328e+09  0.05216  -0.8977  0.007497  -0.001697  0.006289  -0.007709  -0.453  -0.8088
6.329e+09  -0.2781  -0.8286  0.0158  -0.007626  -0.007732  0.05082  -0.6855  -0.5864
6.33e+09  -0.5195  -0.691  0.00758  0.006114  0.0354  -0.01033  -0.8257  -0.3127
6.331e+09  -0.7599  -0.4378  0.02802  0.004153  -0.02601  0.03081  -0.9232  -0.04045
6.332e+09  -0.8761  -0.1537  0.001929  0.02867  0.02615  0.02369  -0.8729  0.2699
6.334e+09  -0.8468  0.1102  0.01366  -0.0008511  0.0281  -0.00798  -0.7145  0.5516
6.335e+09  -0.7308  0.4509  -0.002523  0.004104  -0.01281  0.03862  -0.4901  0.7776
6.336e+09  -0.5846  0.6813  -0.01013  0.04258  0.04384  0.01351  -0.1967  0.8835
6.338e+09  -0.3371  0.8385  -0.007103  -0.002957  -0.02122  -0.004005  0.161  0.9368
6.339e+09  0.01869  0.8687  0.02817  0.005434  0.03692  -0.02537  0.4342  0.8255
6.34e+09  0.3539  0.8697  0.006782  -0.02173  -0.03095  0.03553  0.6899  0.6242
6.341e+09  0.6126  0.6928  0.06187  0.006985  -0.01145  0.01628  0.8627  0.3686
6.342e+09  0.7625  0.4248  -0.0265  -0.002291  0.03396  -0.02321  0.9041  0.03261
6.344e+09  0.8862  0.126  0.0135  0.007852  -0.05199  0.0274  0.8865  -0.2835
6.345e+09  0.8265  -0.1647  -0.02089  0.01934  -0.01124  0.0006402  0.7724  -0.5453
6.346e+09  0.7376  -0.4833  0.003121  0.002116  0.05554  0.02241  0.5107  -0.7757
6.348e+09  0.5197  -0.6953  0.007002  -0.001708  0.02166  -0.02294  0.2309  -0.9517
6.349e+09  0.2301  -0.8211  -0.01166  0.01839  0.03488  -0.03992  -0.1046  -0.9148
6.35e+09  -0.09648  -0.8392  -0.02927  0.003163  0.03819  -0.002822  -0.43  -0.8316
6.351e+09  -0.3669  -0.7993  -0.02779  -0.003886  0.006087  -0.0003249  -0.6976  -0.6394
6.352e+09  -0.661  -0.6395  -0.005241  0.005077  0.01357  0.002068  -0.8577  -0.3236
6.354e+09  -0.7858  -0.2973  -0.003018  -0.00537  0.05798  0.03984  -0.9044  -0.05021
6.355e+09  -0.8782  -0.06928  -0.002972  -0.004045  -0.01527  -0.02611  -0.9035  0.2433
6.356e+09  -0.8615  0.2565  0.005638  -0.01929  -0.03052  0.03806  -0.7117  0.5539
6.358e+09  -0.7904  0.5411  -0.01419  0.004291  0.02474  -0.002117  -0.5377  0.8121
6.359e+09  -0.5206  0.6955  0.004713  0.05113  -0.01246  -0.009359  -0.1866  0.91
6.36e+09  -0.2217  0.9121  -0.01179  0.006031  0.04489  -0.03289  0.09557  0.9241
6.361e+09  0.07947  0.8564  -0.002232  -0.00515  0.009258  -0.01192  0.4415  0.8527
6.362e+09  0.4492  0.8155  -0.01615  -0.003536  -0.08418  0.02252  0.6658  0.6346
6.364e+09  0.6659  0.5967  0.03357  0.01531  0.01521  0.01349  0.8543  0.3861
6.365e+09  0.8347  0.3498  -0.007546  0.01382  -0.03277  0.03749  0.9562  0.0687
6.366e+09  0.8518  0.0419  0.04122  -0.0135  0.03903  0.007388  0.9256  -0.2359
6.368e+09  0.8703  -0.2801  0.02203  0.01191  -0.03513  -0.004586  0.7648  -0.4936
6.369e+09  0.7394  -0.5894  0.005276  -0.01251  0.009369  0.01046  0.515  -0.829
6.37e+09  0.4396  -0.8334  -0.03821  0.01177  0.03316  -0.01245  0.2577  -0.9214
6.371e+09  0.1568  -0.8797  0.008807  0.01137  0.03698  0.0123  -0.05229  -0.9274
6.372e+09  -0.173  -0.8755  -0.007101  -0.02818  0.001522  -0.00207  -0.3889  -0.8492
6.374e+09  -0.4608  -0.7579  -0.01528  0.04617  -0.02601  0.0312  -0.6664  -0.6817
6.375e+09  -0.7391  -0.6252  -0.01348  0.02526  0.02839  -0.02919  -0.8709  -0.4192
6.376e+09  -0.835  -0.3124  -0.01503  0.03967  -0.01488  0.05738  -0.9148  -0.06893
6.378e+09  -0.8678  -0.0003275  -0.01211  -0.00285  -0.02647  0.01122  -0.9029  0.1969
6.379e+09  -0.8189  0.3132  -0.05372  0.008135  0.03197  -0.017  -0.783  0.4951
6.38e+09  -0.6886  0.5957  -0.01751  -0.04462  0.01253  -0.006999  -0.5048  0.7697
6.381e+09  -0.4216  0.8271  -0.0006206  -0.03686  -0.03532  -0.02554  -0.2635  0.9172
6.382e+09  -0.08944  0.8862  -0.02125  -0.04655  -0.0184  -0.01632  0.0564  0.9424
6.384e+09  0.203  0.8986  -0.008916  -0.04799  -0.02119  0.02775  0.3754  0.8857
6.385e+09  0.4934  0.7497  -0.005776  -0.001034  0.009091  -0.007681  0.6611  0.6672
6.386e+09  0.727  0.5659  0.00392  -0.0181  0.02381  -0.01024  0.8437  0.4147
6.388e+09  0.8394  0.2743  0.01116  -0.02701  -0.04751  -0.02661  0.903  0.1185
6.389e+09  0.8715  -0.03012  -0.02127  -0.02361  -0.02053  -0.05209  0.8553  -0.2107
6.39e+09  0.8099  -0.3866  -0.02665  0.001832  0.01074  0.002327  0.792  -0.5083
6.391e+09  0.6495  -0.5661  0.001303  -0.0427  0.02793  0.03446  0.586  -0.721
6.392e+09  0.373  -0.8644  -0.01569  0.01111  0.003802  -0.02938  0.2813  -0.8783
6.394e+09  0.05814  -0.9256  -0.002378  -0.0002704  0.002724  0.01616  -0.01631  -0.9131
6.395e+09  -0.2462  -0.8487  -0.01201  -0.04137  -0.01351  0.01163  -0.3439  -0.8153
6.396e+09  -0.5014  -0.7702  0.002595  -0.01156  -0.02905  -0.03603  -0.5888  -0.6589
6.398e+09  -0.7626  -0.5282  -0.01048  0.009276  0.02915  0.008347  -0.8206  -0.4258
6.399e+09  -0.8493  -0.212  0.002166  -0.01725  -0.02399  0.01297  -0.8923  -0.1493
6.4e+09  -0.9114  0.01642  0.007875  -0.01396  0.02001  0.04093  -0.9049  0.1923
6.401e+09  -0.8167  0.4039  0.04054  0.01599  -0.001748  -0.04891  -0.8082  0.4788
6.402e+09  -0.6472  0.6162  0.03119  -0.01197  0.01842  0.04431  -0.5734  0.7262
6.404e+09  -0.3526  0.8242  0.03922  -0.02305  -0.008257  0.02986  -0.3067  0.8633
6.405e+09  -0.09212  0.8631  0.00073  -0.005459  -0.01528  -0.04214  0.05092  0.9327
6.406e+09  0.2589  0.8789  0.03139  0.006787  0.02521  0.001332  0.3068  0.8525
6.408e+09  0.5403  0.7318  -0.006308  0.007966  -0.003123  0.01102  0.6047  0.6331
6.409e+09  0.753  0.5293  0.02227  0.0084  -0.06291  0.01144  0.7672  0.4615
6.41e+09  0.8795  0.2272  -0.00994  -0.001644  -0.01313  -0.03062  0.8895  0.1901
6.411e+09  0.9205  -0.1155  0.01151  -0.007425  -0.01653  -0.01561  0.9222  -0.1542
6.412e+09  0.7656  -0.4035  -0.03065  -0.03745  0.02089  -0.04056  0.7388  -0.4802
6.414e+09  0.5452  -0.6284  0.02933  0.02463  0.0161  0.01357  0.6044  -0.6808
6.415e+09  0.3384  -0.8436  0.04258  -0.0293  -0.02113  0.01658  0.3487  -0.828
6.416e+09  -0.0232  -0.8582  0.01197  0.02248  0.01278  0.06573  0.09318  -0.9278
6.418e+09  -0.2318  -0.8361  0.05495  -0.03177  -0.03381  0.006597  -0.2759  -0.859
6.419e+09  -0.5435  -0.6817  0.06099  0.03034  0.02166  -0.002565  -0.5474  -0.6773
6.42e+09  -0.8017  -0.4685  0.03329  0.01097  -0.05459  0.006838  -0.7231  -0.4682
6.421e+09  -0.9047  -0.1586  0.01403  0.02382  0.005067  0.06337  -0.8562  -0.2214
6.422e+09  -0.922  0.1155  -0.003819  0.004901  0.04531  0.02819  -0.904  0.1071
6.424e+09  -0.8184  0.4775  0.00561  0.01673  0.06629  -0.007414  -0.8296  0.3918
6.425e+09  -0.6103  0.7162  -0.0219  -0.0177  0.05002  -0.008398  -0.594  0.6732
6.426e+09  -0.3505  0.8405  0.04235  -0.007664  0.0006301  -0.0465  -0.3177  0.8958
6.428e+09  0.01034  0.8996  0.04598  -0.01574  -0.02722  0.03954  -0.07359  0.8598
6.429e+09  0.2793  0.8524  0.03891  0.01152  0.01624  0.03625  0.2442  0.8602
6.43e+09  0.6334  0.7406  0.00404  -0.02148  -0.01711  -0.01141  0.4919  0.6738
6.431e+09  0.783  0.3969  -0.01105  0.02633  0.037  -0.039  0.7184  0.4429
6.432e+09  0.8896  0.1239  -0.02103  0.01186  0.0181  0.01127  0.8558  0.2185
6.434e+09  0.8862  -0.1767  0.02043  -0.01239  0.024  -0.0201  0.8507  -0.1076
6.435e+09  0.7555  -0.4787  -0.03126  0.02017  -0.04328  0.06025  0.7594  -0.3832
6.436e+09  0.6153  -0.6916  -0.02614  -0.01211  -0.01033  0.02077  0.6137  -0.6412
6.438e+09  0.2671  -0.8751  0.02337  0.02185  0.01687  0.01176  0.3338  -0.7992
6.439e+09  -0.04397  -0.89  -0.01253  -0.01002  0.03327  0.02394  0.02302  -0.8414
6.44e+09  -0.339  -0.8507  0.005017  0.01918  0.02344  -0.01083  -0.2185  -0.8148
6.441e+09  -0.5486  -0.707  0.0146  -0.006964  0.02198  0.002755  -0.5435  -0.6845
6.442e+09  -0.8168  -0.4461  0.002141  -0.003888  -0.03191  0.03618  -0.6924  -0.5133
6.444e+09  -0.9102  -0.08517  0.02046  -0.01573  0.02418  0.0129  -0.8538  -0.2047
6.445e+09  -0.8972  0.2368  0.001432  -0.04898  -0.01284  -0.01017  -0.9118  0.09921
6.446e+09  -0.772  0.4237  -0.01418  -0.004022  -0.04187  0.004898  -0.7645  0.3616
6.448e+09  -0.5509  0.7373  0.003217  -0.01483  -0.004734  0.01765  -0.6016  0.5911
6.449e+09  -0.2768  0.8807  -0.04113  0.02039  0.01171  0.009737  -0.3252  0.7853
6.45e+09  0.06863  0.944  0.01408  -0.009258  -0.004923  -0.000861  -0.04073  0.8353
6.451e+09  0.3436  0.8864  0.01359  0.01691  0.05493  -0.01047  0.2007  0.8279
6.452e+09  0.6818  0.6309  -0.007099  -0.03454  -0.01847  -0.02204  0.4671  0.6957
6.454e+09  0.8445  0.4002  -0.01015  0.0357  0.01446  0.01985  0.7367  0.4705
6.455e+09  0.9389  0.06922  0.00382  -0.02774  0.02004  -0.01022  0.8434  0.1704
6.456e+09  0.8876  -0.1894  -0.03521  -0.00676  0.01526  0.04209  0.8222  -0.0489
6.458e+09  0.7127  -0.5582  -0.01177  -0.005576  0.05966  0.007915  0.7521  -0.3674
6.459e+09  0.5418  -0.8729  -0.02114  0.02742  -0.04737  0.02028  0.5836  -0.5933
6.46e+09  0.1804  -0.9608  -0.02344  0.02558  -0.002802  0.01296  0.3392  -0.7762
6.461e+09  -0.1011  -0.9163  0.03345  -0.006652  0.02042  0.02289  0.003676  -0.8378
6.462e+09  -0.4258  -0.8787  -0.01052  -0.03186  -0.03275  -0.01708  -0.2639  -0.7746
6.464e+09  -0.6636  -0.6209  0.03465  -0.00169  -0.01568  -0.000767  -0.4483  -0.6454
6.465e+09  -0.8627  -0.3068  0.005087  0.0002834  0.01607  0.03606  -0.6489  -0.4679
6.466e+09  -0.9403  -0.00982  -0.02781  0.02164  0.01459  0.02056  -0.7756  -0.1608
6.468e+09  -0.9176  0.2927  0.003883  -0.003752  -0.008423  -0.0455  -0.8102  0.08102
6.469e+09  -0.7232  0.5811  -0.0004276  0.02385  0.005195  0.03187  -0.7601  0.3288
6.47e+09  -0.5074  0.7957  -0.02084  -0.007883  0.04278  0.0083  -0.5598  0.5845
6.471e+09  -0.195  0.9351  -0.001741  -0.02918  -0.00276  -0.01314  -0.3434  0.7455
6.472e+09  0.1629  0.9061  0.03833  -0.06222  -0.0003572  -0.0256  -0.0529  0.7859
6.474e+09  0.475  0.8234  -0.01613  -0.03305  -0.0001504  0.05967  0.1946  0.7212
6.475e+09  0.7329  0.6079  0.01811  -0.03777  -0.03018  0.004308  0.4254  0.6755
6.476e+09  0.8753  0.2996  0.002541  -0.01044  0.05357  -0.002481  0.655  0.4338
6.478e+09  0.9128  -0.008908  0.0001999  0.005038  0.01985  -0.006528  0.7141  0.1849
6.479e+09  0.8754  -0.3194  0.02272  0.01803  0.01086  0.0003454  0.7726  -0.05465
6.48e+09  0.702  -0.6552  0.01486  0.02164  0.008067  0.01196  0.6907  -0.3036
6.481e+09  0.4351  -0.7903  0.01859  0.02859  -0.06047  -0.03457  0.5007  -0.5409
6.482e+09  0.138  -0.9747  0.01888  0.01334  -0.03251  0.0394  0.3559  -0.7096
6.484e+09  -0.1981  -0.943  -0.005525  -0.01063  -0.06472  -0.009257  0.0673  -0.7892
6.485e+09  -0.589  -0.8117  -0.007708  0.04091  -0.04148  -0.02187  -0.2047  -0.7938
6.486e+09  -0.786  -0.5868  -0.03147  -0.04758  0.05147  0.005216  -0.481  -0.6043
6.488e+09  -0.9212  -0.2263  0.01958  0.02544  0.01516  0.03606  -0.6225  -0.4474
6.489e+09  -0.9699  0.06284  -0.01934  0.01611  -0.04152  -0.01114  -0.7784  -0.15
6.49e+09  -0.8939  0.4323  0.01342  -0.003085  -0.0008227  0.02833  -0.7785  0.08515
6.491e+09  -0.6759  0.6578  0.01734  0.02474  -0.02833  -0.00361  -0.6721  0.3536
6.492e+09  -0.4677  0.8541  -0.003596  0.01095  0.01033  -0.009316  -0.5483  0.6062
6.494e+09  -0.03378  0.9226  -0.01183  0.01979  -0.001496  -0.0413  -0.2884  0.7034
6.495e+09  0.3203  0.9283  -0.01659  -0.02294  -0.01721  0.01332  -0.02363  0.7663
6.496e+09  0.6022  0.7345  -0.01177  -0.00925  0.02481  -0.01366  0.2412  0.7485
6.498e+09  0.8375  0.5359  0.02264  0.03016  -0.003177  0.005426  0.4342  0.6203
6.499e+09  0.9511  0.1869  -0.01123  0.006969  0.002035  -0.003538  0.6359  0.4032
6.5e+09  0.979  -0.1736  -0.01452  -0.00428  0.02822  0.06292  0.7437  0.1427
6.501e+09  0.837  -0.4695  0.0185  0.008812  0.0264  -0.01068  0.7709  -0.1037
6.502e+09  0.5995  -0.7211  -0.003824  0.02221  0.02147  0.01968  0.6687  -0.3613
6.504e+09  0.3143  -0.9075  -0.007553  0.001029  -0.0161  -0.01715  0.5343  -0.5488
6.505e+09  -0.03119  -0.9524  -0.03816  0.002233  -0.0005883  0.01647  0.3004  -0.727
6.506e+09  -0.4012  -0.908  -0.0005418  0.0321  0.05401  -0.02768  0.02152  -0.7545
6.508e+09  -0.6436  -0.6781  -0.0002585  -0.001745  0.02532  0.04811  -0.2449  -0.6998
6.509e+09  -0.8728  -0.4233  0.009242  0.01547  0.004573  0.02767  -0.5114  -0.5634
6.51e+09  -0.96  -0.088  -0.03523  0.009433  -0.04791  0.02887  -0.671  -0.3844
6.511e+09  -0.9179  0.25  0.04524  0.006311  0.07303  0.05448  -0.7676  -0.155
6.512e+09  -0.7894  0.5064  -0.002323  -0.01188  0.03782  -0.003781  -0.7239  0.1697
6.514e+09  -0.4812  0.8205  -0.008368  0.00954  0.02607  -0.01708  -0.6301  0.3945
6.515e+09  -0.2255  0.9071  -0.01389  0.009296  -0.05304  0.02131  -0.4623  0.5759
6.516e+09  0.1151  0.9573  0.03007  0.007256  0.02576  -0.01916  -0.2883  0.7082
6.518e+09  0.4635  0.8065  -0.0009446  -0.01788  -0.007686  -0.04233  0.0002738  0.7658
6.519e+09  0.6919  0.6582  -0.00322  0.01835  0.00796  -0.01292  0.275  0.6856
6.52e+09  0.8257  0.2951  -0.02637  -0.007116  -0.0327  0.02407  0.4884  0.5551
6.521e+09  0.9621  -0.06213  0.02702  -0.03479  0.0369  0.004915  0.6714  0.3884
6.522e+09  0.8949  -0.3481  -0.03274  0.03631  0.001657  0.04767  0.7432  0.1075
6.524e+09  0.6783  -0.6259  0.005364  -0.02328  -0.008646  0.06656  0.7274  -0.1774
6.525e+09  0.4048  -0.8405  -0.006819  -0.01752  -0.05315  -0.002698  0.5819  -0.4051
6.526e+09  0.06572  -0.959  -0.02089  -0.002827  -0.00153  0.0001375  0.471  -0.5722
6.528e+09  -0.2793  -0.9121  -0.02563  -0.006066  0.03844  -0.02339  0.2035  -0.6702
6.529e+09  -0.5401  -0.7571  0.01681  -0.03221  -0.02971  -0.02154  -0.1077  -0.7185
6.53e+09  -0.7209  -0.5339  0.001654  0.001119  0.04601  0.02741  -0.2842  -0.6375
6.531e+09  -0.8939  -0.2171  -0.0006425  0.002664  0.02209  0.01213  -0.471  -0.4923
6.532e+09  -0.9163  0.1332  0.02363  0.03306  -0.04574  0.0477  -0.5772  -0.2631
6.534e+09  -0.801  0.4735  -0.03514  0.01013  -0.03342  -0.02937  -0.6458  -0.09755
6.535e+09  -0.5906  0.712  -0.009811  0.003785  -0.01017  0.01202  -0.6332  0.09292
6.536e+09  -0.3327  0.8695  0.04214  0.008368  0.04799  0.02125  -0.5723  0.3379
6.538e+09  -0.01646  0.88  -0.02829  0.02855  -0.01553  0.02234  -0.4352  0.4998
6.539e+09  0.3056  0.8528  0.01321  -0.01787  -0.04042  0.008288  -0.2548  0.6364
6.54e+09  0.5502  0.634  0.001578  -0.01517  -0.04513  0.000752  -0.069  0.6457
6.541e+09  0.7664  0.4028  0.02644  -0.00478  -0.01015  0.02595  0.188  0.7286
6.542e+09  0.9304  0.1009  0.02724  0.02507  -0.01571  0.03154  0.411  0.5569
6.544e+09  0.9177  -0.2036  0.01853  0.00917  0.01527  0.001099  0.5879  0.3886
6.545e+09  0.7229  -0.5076  -0.01337  -0.02333  0.0005392  0.02727  0.7298  0.1753
6.546e+09  0.5101  -0.7719  0.01412  0.002705  -0.0473  -0.0269  0.7033  -0.09127
6.548e+09  0.1851  -0.8959  -0.02258  0.04522  0.01916  -0.02504  0.6337  -0.3061
6.549e+09  -0.06541  -0.8503  -0.0206  0.003181  -0.01875  0.01466  0.5251  -0.5689
6.55e+09  -0.4042  -0.7817  -0.006429  0.02484  0.02755  0.04346  0.278  -0.6624
