# Hz S RI R 50
6.25e+09  -0.8109  0.04688  -0.006048  -0.004661  0.008247  -0.05298  0.1618  0.4669
6.251e+09  -0.7363  0.297  0.01617  -0.03029  0.004328  0.006902  0.3541  0.4343
6.252e+09  -0.6091  0.5247  0.02301  -0.02929  -0.0207  0.03479  0.5461  0.2468
6.254e+09  -0.3611  0.7643  -0.03733  0.002016  0.001532  0.03242  0.6209  -0.009889
6.255e+09  -0.09472  0.8108  -0.002778  -0.04186  0.009167  -0.008699  0.5413  -0.2358
6.256e+09  0.2465  0.806  0.01298  0.02828  -0.04146  0.007686  0.4501  -0.4328
6.258e+09  0.4676  0.6099  0.02009  0.02403  0.003289  0.01671  0.2679  -0.5973
6.259e+09  0.6698  0.4866  -0.006008  0.01862  -0.01838  0.01049  0.02312  -0.6845
6.26e+09  0.7772  0.2041  0.01309  -0.001971  -2.86e-05  0.006253  -0.2012  -0.6791
6.261e+09  0.8244  -0.1143  -0.01337  0.01429  -0.01928  -0.002481  -0.4637  -0.571
6.262e+09  0.7414  -0.3564  -0.009633  -0.004165  0.083  0.00851  -0.5919  -0.3393
6.264e+09  0.5873  -0.5879  -0.01063  -0.01346  -0.02455  0.05676  -0.6793  -0.08213
6.265e+09  0.3846  -0.713  0.02606  -0.02252  -0.009927  0.02426  -0.6973  0.1617
6.266e+09  0.04916  -0.8113  0.00769  -0.02596  0.02223  -0.02237  -0.5995  0.394
6.268e+09  -0.2736  -0.7616  0.005527  0.01279  -0.02095  0.005909  -0.4436  0.5767
6.269e+09  -0.5103  -0.6935  0.006596  -0.002494  0.01922  -0.03914  -0.219  0.7191
6.27e+09  -0.6235  -0.4733  0.01126  0.02111  -0.01058  0.04762  0.05002  0.7431
6.271e+09  -0.7664  -0.2419  0.04605  -0.01845  0.01357  -0.01822  0.3054  0.692
6.272e+09  -0.7938  0.1166  0.02465  -0.01682  -0.01143  0.06567  0.5334  0.5276
6.274e+09  -0.7784  0.4  0.001563  -5.421e-05  -0.03022  -0.0276  0.7003  0.3046
6.275e+09  -0.5489  0.5994  -0.02962  -0.002319  -0.003468  -0.04672  0.7478  0.06644
6.276e+09  -0.3315  0.6843  -0.02568  0.0288  0.04721  -0.05115  0.711  -0.243
6.278e+09  -0.05981  0.8332  0.007423  0.005686  0.009211  -0.04969  0.6287  -0.4288
6.279e+09  0.2302  0.8099  -0.0131  0.008248  0.01298  0.008795  0.4258  -0.6682
6.28e+09  0.4678  0.6708  0.03506  -0.01649  -0.002377  -0.008511  0.177  -0.7569
6.281e+09  0.6268  0.4639  0.006698  0.02235  -0.02952  0.01769  -0.09816  -0.7587
6.282e+09  0.8335  0.1748  0.01906  0.01816  -0.04744  -0.01637  -0.3665  -0.6981
6.284e+09  0.8314  -0.1423  -0.0189  0.01631  -0.02323  0.05238  -0.5878  -0.4958
6.285e+09  0.7347  -0.3874  0.001148  0.0129  -0.02556  -0.02369  -0.7463  -0.3044
6.286e+09  0.566  -0.625  0.006997  0.007248  -0.01966  0.01769  -0.7661  -0.02705
6.288e+09  0.2926  -0.7937  0.003445  0.01668  -0.02138  -0.00469  -0.769  0.2528
6.289e+09  0.07588  -0.7893  -0.02784  -0.007754  -0.01345  0.02028  -0.6371  0.4982
6.29e+09  -0.2835  -0.7287  -0.01009  0.0238  -0.03249  0.01893  -0.4085  0.6977
6.291e+09  -0.5111  -0.6284  0.001456  -0.02854  -0.00758  -0.01078  -0.1919  0.8123
6.292e+09  -0.6644  -0.4031  -0.005252  -0.003166  -0.00303  0.02384  0.1078  0.7722
6.294e+09  -0.801  -0.1642  -0.04589  0.008634  0.01714  -0.02763  0.3729  0.6962
6.295e+09  -0.7984  0.1445  0.01161  -0.03079  -0.02915  0.0002477  0.6371  0.5539
6.296e+09  -0.6862  0.4252  -0.01604  -0.01497  -0.02299  0.02975  0.7568  0.298
6.298e+09  -0.5276  0.6589  0.02888  -0.002984  0.01982  -0.0123  0.8185  0.006256
6.299e+09  -0.2937  0.714  0.009139  -0.01711  0.01545  0.007862  0.7996  -0.2647
6.3e+09  0.05238  0.817  0.009358  0.01342  0.01404  0.02886  0.655  -0.5166
6.301e+09  0.3307  0.7707  -0.02298  -0.01532  0.01184  -0.02481  0.4059  -0.7379
6.302e+09  0.5428  0.6339  -0.004659  -0.01861  0.05446  0.01492  0.1545  -0.8287
6.304e+09  0.7729  0.3841  -0.001287  0.007036  -0.0478  -0.04958  -0.1304  -0.8258
6.305e+09  0.8158  0.1481  -0.01435  -0.01748  0.01737  -0.01488  -0.4108  -0.7224
6.306e+09  0.8533  -0.1737  -0.001983  -0.009811  -0.0183  -0.007662  -0.6711  -0.5558
6.308e+09  0.6903  -0.4959  -0.005419  0.02079  -0.09355  0.01969  -0.8085  -0.3163
6.309e+09  0.5271  -0.6472  0.0392  -0.007142  0.01095  -0.07283  -0.8744  -0.002721
6.31e+09  0.2437  -0.7947  -0.0168  -0.01041  -0.07756  -0.01864  -0.8224  0.2813
6.311e+09  -0.04635  -0.8469  -0.01111  0.02125  0.02334  0.002963  -0.6763  0.5622
6.312e+09  -0.3214  -0.742  -0.02723  -0.01448  0.01611  0.01562  -0.446  0.7614
6.314e+09  -0.5799  -0.653  -0.002889  -0.02268  -0.0286  -0.02233  -0.1692  0.9053
6.315e+09  -0.7434  -0.3157  0.00372  0.002646  -0.002774  0.007274  0.1501  0.8669
6.316e+09  -0.8232  -0.08355  0.03351  -0.03418  2.015e-05  -0.008186  0.4571  0.7827
6.318e+09  -0.7971  0.2383  0.0005163  -0.006982  -0.0003269  0.02965  0.6637  0.5769
6.319e+09  -0.6871  0.4889  -0.00915  -0.0003649  0.01023  -0.01961  0.8289  0.3267
6.32e+09  -0.4729  0.6902  0.006161  0.01685  0.001743  0.06073  0.8643  0.02585
6.321e+09  -0.1861  0.8208  0.01818  -0.02462  -0.04777  0.00968  0.8431  -0.2998
6.322e+09  0.06622  0.8428  0.009096  0.02251  0.04462  0.01271  0.707  -0.5778
6.324e+09  0.3654  0.6951  0.0007533  0.02273  -0.008444  -0.003422  0.468  -0.7743
6.325e+09  0.6154  0.5671  0.003869  0.003396  -0.002712  -0.01921  0.1821  -0.9021
6.326e+09  0.7507  0.3021  -0.03594  0.01579  -0.01971  0.003105  -0.156  -0.8806
6.328e+09  0.8706  0.03882  0.002162  -0.01614  0.008973  -0.01355  -0.446  -0.8287
6.329e+09  0.783  -0.294  -0.00369  -0.003373  -0.0575  -0.07321  -0.6782  -0.5815
6.33e+09  0.6244  -0.5331  0.01674  -0.01364  -0.02356  -0.01847  -0.8269  -0.3265
6.331e+09  0.4727  -0.7623  0.01331  0.0006892  -0.004225  -0.00553  -0.9438  -0.009141
6.332e+09  0.1478  -0.8524  -0.0132  0.01648  -0.01797  0.007475  -0.8914  0.2863
6.334e+09  -0.1048  -0.8474  0.01346  0.00974  -0.009373  -0.03105  -0.7061  0.5558
6.335e+09  -0.4479  -0.6958  0.02252  0.01853  -0.01266  -0.01838  -0.4729  0.8
6.336e+09  -0.6402  -0.5419  -0.03558  0.004659  -0.001571  -0.01353  -0.1667  0.9128
6.338e+09  -0.7723  -0.2999  0.0006624  -0.01039  -0.03044  -0.004127  0.1069  0.9131
6.339e+09  -0.848  0.02949  -0.0124  -0.02376  0.01809  -0.02133  0.4091  0.8184
6.34e+09  -0.7719  0.3566  0.01783  0.01487  0.01412  0.007508  0.6858  0.6138
6.341e+09  -0.6261  0.5742  0.01746  0.01813  -0.01096  0.01326  0.8174  0.3744
6.342e+09  -0.3466  0.7675  0.003089  -0.01481  0.00306  -0.01024  0.9499  0.009668
6.344e+09  -0.0833  0.8789  -0.01462  -0.008812  0.01568  -0.03891  0.8931  -0.2821
6.345e+09  0.2307  0.8687  0.01829  -0.01553  0.05578  -0.01314  0.7338  -0.5471
6.346e+09  0.4723  0.7152  0.0178  0.02551  0.02809  0.02328  0.5368  -0.7845
6.348e+09  0.7264  0.4808  -0.01651  0.01393  0.03256  0.04218  0.2474  -0.9128
6.349e+09  0.8425  0.209  -0.03329  -0.02691  0.001351  0.02926  -0.1002  -0.9784
6.35e+09  0.8367  -0.1265  -0.02121  0.01457  0.02428  -0.02178  -0.4389  -0.846
6.351e+09  0.7474  -0.3766  0.0216  0.01624  0.003487  -0.03401  -0.6863  -0.6579
6.352e+09  0.5285  -0.6561  0.01824  0.02186  0.00349  0.04022  -0.9152  -0.3495
6.354e+09  0.3408  -0.801  -0.02487  0.03123  -0.001653  0.007611  -0.9793  -0.08106
6.355e+09  0.0007719  -0.9118  -0.0395  -0.01007  -0.02004  0.005216  -0.9282  0.2466
6.356e+09  -0.2774  -0.8077  -0.007312  0.0009132  -0.008747  -0.01778  -0.7818  0.5618
6.358e+09  -0.571  -0.6432  0.01267  0.06848  0.003715  -0.011  -0.5765  0.7896
6.359e+09  -0.7535  -0.4179  -0.04136  -0.005712  -0.01551  -0.02743  -0.2358  0.9054
6.36e+09  -0.8803  -0.07576  -0.006899  -0.03883  -0.02708  0.03305  0.08969  0.9212
6.361e+09  -0.8485  0.1899  -0.03135  0.002796  0.03137  0.001801  0.4056  0.8679
6.362e+09  -0.7147  0.4672  -0.005639  -0.009479  -0.02768  -0.01667  0.663  0.6629
6.364e+09  -0.5359  0.6452  -0.0009948  0.02849  -0.03183  0.01448  0.8627  0.3899
6.365e+09  -0.2506  0.8173  -0.03389  0.002294  -0.003268  -0.02675  0.9413  0.07728
6.366e+09  0.07705  0.8807  0.01371  0.01246  -0.0194  0.01466  0.9312  -0.2597
6.368e+09  0.3501  0.8168  0.01589  -0.05543  -0.0384  0.0182  0.7682  -0.5488
6.369e+09  0.6199  0.6714  0.007933  -0.02919  -0.02562  0.0457  0.5181  -0.7916
6.37e+09  0.7856  0.4016  0.02715  -0.009698  0.01714  -0.04534  0.2392  -0.9189
6.371e+09  0.9009  0.01684  -0.02579  0.02234  0.03049  -0.02048  -0.08066  -0.9323
6.372e+09  0.8816  -0.255  0.0008795  0.02249  -0.009769  -0.05653  -0.3987  -0.887
6.374e+09  0.6739  -0.5648  -0.01567  0.01296  -0.0241  0.01345  -0.6851  -0.6854
6.375e+09  0.4619  -0.6885  -0.01751  -0.003622  -0.0207  0.008713  -0.8909  -0.417
6.376e+09  0.2168  -0.9035  0.005478  -0.0193  -0.002834  -0.014  -0.9654  -0.06886
6.378e+09  -0.1286  -0.8906  -0.01528  0.02304  -0.04878  -0.00837  -0.9299  0.2366
6.379e+09  -0.4523  -0.7537  0.006842  0.03742  -0.01997  -0.004005  -0.7597  0.5205
6.38e+09  -0.6565  -0.5665  0.002966  0.04682  0.007068  0.0006098  -0.5391  0.7511
6.381e+09  -0.8193  -0.2821  -0.009224  -0.01756  -0.02365  0.007082  -0.2388  0.9346
6.382e+09  -0.8655  0.006008  -0.007941  0.03352  -0.02049  0.03434  0.07475  0.9244
6.384e+09  -0.8292  0.3358  0.01375  0.002752  -0.0003801  -0.04531  0.3585  0.8289
6.385e+09  -0.6477  0.6068  -0.01101  0.005194  0.003265  -0.02763  0.6352  0.6986
6.386e+09  -0.4182  0.7946  -0.01899  0.01726  -0.02336  -0.01228  0.8628  0.4515
6.388e+09  -0.1335  0.8502  0.03427  0.04095  -0.01192  -0.02896  0.9415  0.09416
6.389e+09  0.2252  0.8436  -0.003338  -0.05579  -0.01312  -0.04746  0.9707  -0.1913
6.39e+09  0.5203  0.71  0.01443  -0.02417  0.004356  0.01773  0.7846  -0.4702
6.391e+09  0.6413  0.537  -0.06789  -0.03591  -0.01251  -0.006132  0.5892  -0.7243
6.392e+09  0.8657  0.229  0.009848  -0.02812  -0.01825  0.02888  0.2961  -0.8855
6.394e+09  0.8813  -0.08135  -0.02043  -0.001395  0.02478  -0.02385  -0.03959  -0.8947
6.395e+09  0.8341  -0.3661  0.02793  0.01951  -0.03775  -0.02367  -0.333  -0.8735
6.396e+09  0.618  -0.6275  0.01851  0.005473  0.02983  -0.04849  -0.6385  -0.6745
6.398e+09  0.3259  -0.8607  0.03874  -0.04311  -0.01582  0.03031  -0.8385  -0.4169
6.399e+09  0.02586  -0.899  0.0004128  0.0273  0.009809  -0.01129  -0.9155  -0.1258
6.4e+09  -0.2598  -0.8721  -0.00934  0.0023  0.00262  0.02041  -0.9143  0.1618
6.401e+09  -0.5186  -0.7121  0.003805  -0.009964  -0.03295  -0.01272  -0.802  0.4804
6.402e+09  -0.7417  -0.4515  -0.005843  -0.04173  0.0273  0.03056  -0.5762  0.6993
6.404e+09  -0.877  -0.1861  0.04735  -0.03196  0.05889  -0.04403  -0.2924  0.8342
6.405e+09  -0.9009  0.13  0.02483  0.003459  0.006234  -0.005964  -0.005373  0.8928
6.406e+09  -0.7319  0.4269  -0.05136  0.01469  -0.005814  0.00294  0.3045  0.8774
6.408e+09  -0.5254  0.6588  0.03007  -0.01848  0.01499  -0.01156  0.5828  0.7256
6.409e+09  -0.296  0.8365  0.0185  -0.002138  0.0518  0.01846  0.7801  0.4367
6.41e+09  0.02325  0.8441  -0.008637  0.05446  0.01165  0.02379  0.9412  0.1664
6.411e+09  0.3248  0.7765  0.008527  0.03019  -0.004118  -0.009933  0.9072  -0.129
6.412e+09  0.5678  0.6546  0.01289  -0.03225  -0.00219  1.783e-05  0.7936  -0.4443
6.414e+09  0.7532  0.4012  -0.05078  -0.03066  0.03771  0.0233  0.6325  -0.6566
6.415e+09  0.8819  0.158  0.01662  0.002788  -0.01918  -0.007646  0.3484  -0.8319
6.416e+09  0.8823  -0.1608  0.00262  -0.008271  -1.906e-05  0.002331  0.04527  -0.8614
6.418e+09  0.7389  -0.4927  0.01873  0.02383  -0.05051  0.01643  -0.32  -0.8479
6.419e+09  0.5733  -0.7376  0.003419  -0.05748  -0.02658  0.02696  -0.5413  -0.7406
6.42e+09  0.2589  -0.8361  -0.01285  0.0283  0.01859  -0.0468  -0.7501  -0.4448
6.421e+09  -0.07634  -0.8433  0.006972  -0.002442  -0.02988  0.01956  -0.8916  -0.1735
6.422e+09  -0.3502  -0.7458  0.01258  -0.03676  -0.004272  0.006125  -0.8419  0.1192
6.424e+09  -0.6251  -0.6124  -0.005246  -0.01893  -0.01381  -0.06029  -0.7763  0.3286
6.425e+09  -0.7721  -0.3931  -0.004761  0.006675  -0.02559  -0.01381  -0.6007  0.6529
6.426e+09  -0.8685  -0.05315  0.009528  0.004428  0.04001  -0.008081  -0.3627  0.8646
6.428e+09  -0.8191  0.2517  0.01614  -0.02885  0.02023  0.006222  -0.09785  0.8606
6.429e+09  -0.65  0.5061  0.01286  -0.007418  0.02351  0.0107  0.2201  0.8765
6.43e+09  -0.4951  0.6879  -0.01299  -0.01013  0.0151  -0.04432  0.4926  0.6954
6.431e+09  -0.2144  0.8851  -0.03136  0.01486  -0.02039  0.07446  0.6985  0.5026
6.432e+09  0.1035  0.8546  0.02929  0.02504  0.03431  0.03895  0.8642  0.1979
6.434e+09  0.3596  0.803  0.01964  -0.0359  0.03022  0.005034  0.8318  -0.06926
6.435e+09  0.6678  0.5236  -0.01775  -0.03624  -0.02205  -0.01609  0.7994  -0.325
6.436e+09  0.812  0.2931  -0.02273  -0.002605  0.002723  0.0004241  0.6142  -0.5964
6.438e+09  0.8964  -0.006074  0.04411  0.004953  0.02586  0.005804  0.3291  -0.7429
6.439e+09  0.7797  -0.2735  -0.003148  0.01825  0.01101  -0.04887  0.08872  -0.8662
6.44e+09  0.645  -0.5634  0.01204  -0.01024  0.0001389  -0.03877  -0.1991  -0.852
6.441e+09  0.4312  -0.7288  0.02436  0.0142  -0.05077  -0.02843  -0.5092  -0.6854
6.442e+09  0.1505  -0.8441  -0.005105  -0.00687  0.03845  -0.05043  -0.7222  -0.5165
6.444e+09  -0.1115  -0.8703  -0.001629  0.006098  -0.01647  -0.002985  -0.818  -0.2038
6.445e+09  -0.4203  -0.7321  0.0611  0.04078  0.02093  0.04444  -0.921  0.05861
6.446e+09  -0.6279  -0.5416  0.01684  -0.002631  0.01471  0.02104  -0.7654  0.3452
6.448e+09  -0.8192  -0.3134  0.02332  0.002872  -0.01946  -0.02074  -0.5827  0.6291
6.449e+09  -0.8422  0.01546  0.03935  0.02252  -0.04539  -0.006128  -0.3673  0.7818
6.45e+09  -0.7689  0.3128  -0.02799  -0.007208  -0.03084  0.0001578  -0.007911  0.8224
6.451e+09  -0.6596  0.5538  0.02115  0.04687  -0.006302  -0.02725  0.2154  0.797
6.452e+09  -0.452  0.7565  0.0228  -0.0206  -0.03987  -0.04371  0.5122  0.7142
6.454e+09  -0.1262  0.9252  0.0221  0.02161  -0.01308  0.01286  0.7149  0.5006
6.455e+09  0.1371  0.7983  0.02229  -0.00445  -0.07547  -0.02964  0.8069  0.205
6.456e+09  0.4762  0.7306  -0.00652  0.004892  0.0428  -0.004199  0.8251  -0.09092
6.458e+09  0.6427  0.5243  -0.02457  -0.0009116  0.07138  0.02065  0.7353  -0.3244
6.459e+09  0.8237  0.3096  -0.0222  -0.0006606  0.01342  0.00666  0.601  -0.5676
6.46e+09  0.8642  0.04289  -0.01067  0.01394  0.031  -0.03542  0.3921  -0.7455
6.461e+09  0.8116  -0.3173  0.004671  -0.03983  -0.005293  -0.04442  0.06536  -0.7979
6.462e+09  0.6314  -0.5849  0.03126  0.01366  0.0129  -0.0153  -0.1893  -0.7871
6.464e+09  0.4243  -0.7345  -0.006917  -0.0243  0.01748  0.01302  -0.4961  -0.6367
6.465e+09  0.1547  -0.867  0.01156  0.0372  -0.01983  0.01742  -0.6339  -0.4551
6.466e+09  -0.1454  -0.8838  -6.204e-05  0.0115  0.01245  0.04634  -0.7627  -0.1395
6.468e+09  -0.4319  -0.6796  -0.0443  -0.0168  0.031  -0.04345  -0.8102  0.1043
6.469e+09  -0.6712  -0.5409  -0.008826  0.01655  -0.008608  -0.01202  -0.7392  0.3178
6.47e+09  -0.8277  -0.2776  -0.003911  -0.01399  0.01103  -0.02017  -0.5287  0.6013
6.471e+09  -0.792  0.07026  0.05408  -0.01421  0.02005  -0.05049  -0.316  0.7422
6.472e+09  -0.7817  0.3202  -0.008253  0.05589  -0.03081  0.03684  -0.0584  0.7938
6.474e+09  -0.6265  0.5674  0.0261  0.003064  0.04919  0.005459  0.2231  0.7705
6.475e+09  -0.3887  0.7763  0.01846  0.01173  -0.0004116  0.01032  0.4919  0.6712
6.476e+09  -0.1037  0.8453  -0.03307  0.009945  -0.02708  0.003388  0.6614  0.444
6.478e+09  0.1897  0.832  -0.008227  0.02951  -0.02429  0.05185  0.7585  0.2187
6.479e+09  0.4291  0.7307  -0.03826  0.02508  0.02464  -0.01487  0.774  -0.06098
6.48e+09  0.685  0.5152  -0.02874  -0.0131  0.04063  0.00761  0.7013  -0.319
6.481e+09  0.8518  0.2548  -0.0002912  -0.01172  -0.01273  0.005975  0.537  -0.5511
6.482e+09  0.8588  -0.07324  -0.003435  0.02286  0.01153  -0.03009  0.3231  -0.7253
6.484e+09  0.8028  -0.3872  -0.003775  0.02287  0.04716  0.0222  0.07128  -0.7691
6.485e+09  0.6159  -0.6319  0.002558  0.03497  -0.03687  0.001241  -0.1786  -0.7441
6.486e+09  0.3848  -0.7942  -0.003932  -0.04324  0.02301  -0.05443  -0.4497  -0.6182
6.488e+09  0.07179  -0.8796  -0.002123  0.03807  -0.008883  0.03366  -0.621  -0.4288
6.489e+09  -0.2007  -0.8646  -0.007275  0.01216  0.003531  0.0005338  -0.7203  -0.1859
6.49e+09  -0.4923  -0.7515  0.01584  0.01058  -0.01019  0.03983  -0.8131  0.09331
6.491e+09  -0.717  -0.5183  -0.02185  -0.00557  0.003756  0.03884  -0.685  0.3529
6.492e+09  -0.8606  -0.2512  0.00895  -0.05944  0.01419  0.02931  -0.5102  0.5393
6.494e+09  -0.8978  0.08137  -0.0181  0.009206  0.0006382  -0.04038  -0.3267  0.715
6.495e+09  -0.8219  0.3557  0.03713  -0.009935  0.02863  -0.003598  -0.02368  0.7482
6.496e+09  -0.6083  0.6048  -0.008617  0.002099  0.04173  0.01674  0.2226  0.7028
6.498e+09  -0.3865  0.7823  0.001287  0.05424  0.001823  0.04414  0.4604  0.6351
6.499e+09  -0.06269  0.8842  -0.004718  0.01625  0.03827  0.00803  0.6205  0.386
6.5e+09  0.2266  0.8351  0.006678  0.01077  -0.02342  -0.007757  0.7678  0.1517
6.501e+09  0.4915  0.7519  0.03033  0.02568  0.007841  -0.03579  0.7806  -0.1151
6.502e+09  0.7623  0.5209  0.05601  0.01052  -0.005778  0.01416  0.6683  -0.367
6.504e+09  0.9229  0.2444  0.008376  -0.0003612  0.01897  0.03703  0.5082  -0.5624
6.505e+09  0.8973  -0.08728  0.01225  0.04053  0.01151  -0.007086  0.2292  -0.6987
6.506e+09  0.8379  -0.3587  -0.001866  -0.008405  -0.03666  0.008448  0.02019  -0.7622
6.508e+09  0.6985  -0.6618  -0.03912  -0.008411  -0.04875  0.01341  -0.2901  -0.7149
6.509e+09  0.3856  -0.8125  0.003672  0.03478  -0.001382  0.009894  -0.4706  -0.6066
6.51e+09  0.09027  -0.8997  -0.02215  0.005708  -0.005092  -0.006207  -0.6515  -0.3853
6.511e+09  -0.228  -0.8889  0.001894  0.03398  0.004398  0.01365  -0.7263  -0.1256
6.512e+09  -0.5519  -0.7635  0.04616  0.03062  -0.0189  0.02307  -0.746  0.1512
6.514e+09  -0.7879  -0.5049  -0.001357  -0.0002747  -0.005567  0.02019  -0.6288  0.3805
6.515e+09  -0.8619  -0.1539  -0.01679  -0.02906  -0.02496  -0.05515  -0.4608  0.5721
6.516e+09  -0.9118  0.124  0.01378  0.02469  0.01389  0.02309  -0.231  0.691
6.518e+09  -0.8273  0.4574  -0.007786  -0.01936  0.03404  0.009024  0.007198  0.7896
6.519e+09  -0.6511  0.7048  0.007263  0.004161  0.05052  -0.02028  0.2572  0.6747
6.52e+09  -0.3293  0.8514  -0.02312  0.04655  -0.02601  0.0246  0.4828  0.5753
6.521e+09  -0.01282  0.8998  -0.002342  -0.001467  -0.0398  -0.06913  0.6477  0.3686
6.522e+09  0.2456  0.9036  0.0134  0.01204  -0.03383  -0.02581  0.7263  0.1074
6.524e+09  0.5598  0.7641  0.004719  0.01054  -0.01599  0.04122  0.726  -0.2016
6.525e+09  0.7718  0.476  0.01791  -0.01083  0.0137  -0.03472  0.6046  -0.4008
6.526e+09  0.8794  0.1474  0.01787  0.007089  -0.05163  0.007076  0.4222  -0.6033
6.528e+09  0.9301  -0.1621  -0.04289  0.009559  0.03085  0.04511  0.1734  -0.6581
6.529e+09  0.8099  -0.4773  -0.01266  -0.009183  0.02932  -0.0173  -0.01643  -0.7205
6.53e+09  0.5753  -0.6759  -0.00337  -0.04487  0.01733  0.005693  -0.2967  -0.6094
6.531e+09  0.2989  -0.8995  -0.01893  0.02224  0.03015  0.06025  -0.4587  -0.485
6.532e+09  -0.01774  -0.924  -0.01948  0.00919  -0.01308  -0.01533  -0.6237  -0.2437
6.534e+09  -0.3469  -0.941  0.004972  0.03283  -0.01179  -0.06615  -0.6177  -0.1115
6.535e+09  -0.6707  -0.8025  0.007058  -0.03311  0.01376  0.09554  -0.6529  0.1275
6.536e+09  -0.8309  -0.4158  0.02103  -0.01915  0.00277  -0.04761  -0.5354  0.3072
6.538e+09  -0.9343  -0.1115  -0.0159  0.0002825  0.01987  -0.000357  -0.4579  0.4537
6.539e+09  -0.967  0.2163  -0.0006036  0.0101  -0.01227  0.0009716  -0.2808  0.6269
6.54e+09  -0.8096  0.5291  -0.001436  -0.01228  -0.0003005  -0.01039  -0.04544  0.6925
6.541e+09  -0.5393  0.7532  -0.0347  0.007069  -0.01571  -0.0237  0.2031  0.6598
6.542e+09  -0.2719  0.9452  -0.02016  0.02382  0.04339  -0.02661  0.3907  0.5502
6.544e+09  0.1024  0.9354  0.0296  -0.01358  -0.03588  -0.001804  0.5926  0.3924
6.545e+09  0.4419  0.9071  0.02365  -0.003574  -0.03459  0.02525  0.7172  0.1778
6.546e+09  0.7017  0.7267  0.006689  -0.001184  0.001595  0.02153  0.6796  -0.0804
6.548e+09  0.8769  0.4279  0.001051  0.0205  -0.01497  -0.01477  0.6713  -0.3218
6.549e+09  0.9687  0.06673  0.01812  -0.005825  0.01516  -0.02469  0.5031  -0.5567
6.55e+09  0.8913  -0.2149  0.001305  -0.006522  0.04172  -0.01747  0.2779  -0.6863
