# Hz S RI R 50
6.25e+09  -0.1588  0.8677  -0.002002  -0.009811  -0.02993  0.02765  0.203  0.4381
6.251e+09  0.1792  0.8368  -0.01392  -0.006194  -0.02319  0.01939  0.398  0.4008
6.252e+09  0.4521  0.7533  -0.01405  -0.002763  -0.00479  0.08915  0.5612  0.2448
6.254e+09  0.6695  0.6086  -0.03332  0.0155  0.006508  0.01637  0.5915  0.01488
6.255e+09  0.7887  0.2749  -0.03955  -0.007736  -0.02692  0.04447  0.5728  -0.248
6.256e+09  0.8516  -0.07134  0.03355  -0.007496  -0.004031  0.03455  0.4571  -0.4595
6.258e+09  0.7826  -0.3159  0.03903  0.02384  -0.02329  -0.002453  0.2745  -0.6231
6.259e+09  0.6352  -0.5901  -0.007672  0.03712  -0.01785  -0.005982  0.06951  -0.6653
6.26e+09  0.4373  -0.7792  0.004989  -0.01031  -0.007512  0.05398  -0.217  -0.6442
6.261e+09  0.1539  -0.8307  0.006134  0.01938  0.0258  0.001843  -0.4401  -0.5636
6.262e+09  -0.1378  -0.8529  -0.03624  -0.03323  0.0355  0.03421  -0.6197  -0.3159
6.264e+09  -0.4812  -0.7555  0.005425  -0.008006  -0.004323  -0.02401  -0.7036  -0.1164
6.265e+09  -0.6613  -0.5227  0.02331  -0.001152  -0.0183  -0.001453  -0.6767  0.1459
6.266e+09  -0.7885  -0.2154  0.03413  -0.0209  -0.0417  -0.04886  -0.6052  0.4057
6.268e+09  -0.7889  0.01133  -0.002286  0.01431  0.01079  0.0513  -0.4522  0.6001
6.269e+09  -0.8019  0.3077  0.005601  -0.02568  0.003445  0.02409  -0.1949  0.7092
6.27e+09  -0.6571  0.5708  0.006405  -0.02145  -0.008565  -0.04484  0.05492  0.7739
6.271e+09  -0.4279  0.7832  0.003825  0.02075  -0.001915  0.01436  0.3045  0.6708
6.272e+09  -0.0941  0.8282  -0.02952  0.005154  0.002643  0.03826  0.5119  0.5067
6.274e+09  0.1756  0.8313  0.01659  0.02757  0.07363  -0.0003963  0.693  0.2942
6.275e+09  0.4961  0.7126  -0.01378  -0.02421  -0.02223  -0.03395  0.7442  0.03474
6.276e+09  0.7288  0.5266  0.01752  -0.01055  -0.009658  -0.03538  0.7287  -0.233
6.278e+09  0.7774  0.2727  -0.02017  0.01233  0.03044  0.001433  0.6131  -0.4634
6.279e+09  0.8352  -0.03075  -0.02411  -0.01406  0.004186  -0.0184  0.4061  -0.6425
6.28e+09  0.802  -0.3587  -0.02585  0.005589  -0.03931  0.004411  0.1726  -0.7678
6.281e+09  0.6491  -0.5927  0.008757  -0.02481  -0.01739  0.0253  -0.1049  -0.7928
6.282e+09  0.3878  -0.7492  0.007734  0.04338  -0.02995  0.01309  -0.3785  -0.6761
6.284e+09  0.1061  -0.8272  0.005193  -0.008247  -0.04456  -0.0001081  -0.5818  -0.5338
6.285e+09  -0.2525  -0.7621  -0.01903  0.01119  -0.01199  -0.02638  -0.7472  -0.2937
6.286e+09  -0.5065  -0.6809  0.0005009  -0.009312  -0.009831  0.0262  -0.8025  -0.01713
6.288e+09  -0.6852  -0.4636  0.0003238  0.01149  -0.001731  0.003412  -0.7316  0.2348
6.289e+09  -0.8541  -0.2099  0.01516  0.01404  0.01387  -0.01129  -0.6065  0.5406
6.29e+09  -0.9371  0.04659  -0.004347  0.004171  -0.01061  -0.01565  -0.3994  0.7054
6.291e+09  -0.7035  0.2978  -0.01479  -0.03344  0.01118  -0.008882  -0.13  0.7871
6.292e+09  -0.6193  0.5897  0.001999  0.001022  0.03115  0.001447  0.1219  0.8117
6.294e+09  -0.2992  0.7732  -0.01044  -0.008809  0.001594  -0.009521  0.4012  0.7312
6.295e+09  -0.003143  0.8586  0.005379  -0.01312  -0.004894  -0.02552  0.6451  0.5348
6.296e+09  0.2352  0.8168  -0.01347  -0.02494  0.01464  0.02956  0.7748  0.2697
6.298e+09  0.54  0.696  -0.001423  0.004297  0.04493  -0.02517  0.8295  0.01249
6.299e+09  0.7033  0.4674  0.0107  -0.002541  -0.007003  0.0183  0.7698  -0.2606
6.3e+09  0.8385  0.1458  0.01498  -0.02047  -0.001084  -0.0231  0.6453  -0.5293
6.301e+09  0.8786  -0.08299  0.01105  0.02541  -0.02644  -0.029  0.4019  -0.7222
6.302e+09  0.788  -0.3826  -0.00619  0.002272  -0.07779  -0.002411  0.1316  -0.78
6.304e+09  0.5397  -0.6655  0.0176  0.008228  0.02183  0.01331  -0.1293  -0.8487
6.305e+09  0.2994  -0.796  -0.01495  -0.02769  -0.01735  0.005254  -0.4444  -0.7439
6.306e+09  -0.0426  -0.8872  0.01887  0.0007248  -0.02375  -0.01482  -0.645  -0.5293
6.308e+09  -0.2478  -0.8276  -0.005961  -0.00267  -0.03767  0.02982  -0.7947  -0.3063
6.309e+09  -0.5285  -0.6854  -0.0249  -0.001509  0.004722  0.009514  -0.8482  0.0002297
6.31e+09  -0.7366  -0.4447  0.005704  -0.01141  0.03014  0.03135  -0.8243  0.2449
6.311e+09  -0.8325  -0.165  0.005813  -0.01271  -0.01061  -0.05035  -0.6642  0.5612
6.312e+09  -0.8229  0.1324  -0.01726  0.003573  0.07026  -0.002697  -0.4215  0.7758
6.314e+09  -0.7422  0.4547  -0.01745  -0.001875  -0.03259  -0.03201  -0.1335  0.8569
6.315e+09  -0.5459  0.6638  0.01076  0.02555  0.02727  -0.01594  0.1376  0.8798
6.316e+09  -0.2518  0.8208  -0.02296  0.01043  -0.002573  -0.01114  0.4373  0.7957
6.318e+09  0.08877  0.8572  -0.01335  -0.01033  -0.01085  -0.03164  0.6799  0.575
6.319e+09  0.3263  0.7562  -0.019  0.009407  0.01046  0.004214  0.844  0.3184
6.32e+09  0.5744  0.6786  0.00667  0.007817  -0.0242  -0.01242  0.8909  0.02866
6.321e+09  0.7457  0.3978  0.006344  -0.01589  -0.006503  0.01395  0.8809  -0.2942
6.322e+09  0.8198  0.07381  0.04072  -0.01945  -0.01193  0.04887  0.694  -0.6042
6.324e+09  0.8742  -0.2094  -0.02714  0.003005  0.004595  0.004526  0.4656  -0.7838
6.325e+09  0.6938  -0.4857  0.01314  0.02091  -0.05432  -0.01661  0.1602  -0.8605
6.326e+09  0.5584  -0.6516  0.01517  -0.006607  0.02266  0.001468  -0.1401  -0.8711
6.328e+09  0.2578  -0.8208  0.01162  -0.011  -0.007029  -0.01549  -0.4512  -0.7826
6.329e+09  -0.129  -0.8051  0.01726  0.00995  0.01832  0.01039  -0.7007  -0.6251
6.33e+09  -0.3326  -0.8011  -0.01503  -0.02695  0.01712  0.01543  -0.8701  -0.2986
6.331e+09  -0.6954  -0.5737  -0.004895  0.02003  -0.02283  0.008532  -0.9218  -0.007963
6.332e+09  -0.8069  -0.333  0.0001233  0.001737  -0.009481  -0.03694  -0.8457  0.2938
6.334e+09  -0.8568  -0.0727  0.01536  -0.0189  -0.02166  0.01422  -0.7249  0.5666
6.335e+09  -0.8477  0.2646  -0.02653  0.009648  -0.008375  -0.01989  -0.4608  0.7819
6.336e+09  -0.6716  0.5022  0.01952  0.04191  0.006854  0.018  -0.1888  0.9169
6.338e+09  -0.4994  0.7356  0.01625  0.001287  -0.00662  0.01878  0.1587  0.9048
6.339e+09  -0.1552  0.8911  0.01396  0.01272  0.02848  -0.00395  0.4387  0.8361
6.34e+09  0.1517  0.8836  0.03844  0.02183  -0.02785  0.0137  0.6791  0.6248
6.341e+09  0.4686  0.7258  0.001936  -0.02312  0.01868  -0.008015  0.8383  0.3506
6.342e+09  0.6245  0.5468  0.03172  -0.003551  0.05433  0.0344  0.9095  0.03555
6.344e+09  0.8819  0.3169  -0.02143  -0.01164  0.01788  -0.03832  0.9127  -0.2662
6.345e+09  0.9203  -0.02294  0.01185  -0.0009025  0.02291  0.02378  0.7558  -0.5709
6.346e+09  0.8571  -0.3092  -0.02207  0.007114  0.01209  0.0117  0.5487  -0.8128
6.348e+09  0.6184  -0.5878  -0.01493  -0.05187  -0.01033  -0.04884  0.2277  -0.9076
6.349e+09  0.3971  -0.7872  0.01035  -0.006308  0.002954  0.008501  -0.09525  -0.9273
6.35e+09  0.0613  -0.8996  -0.003122  -0.01919  -0.03166  -0.02455  -0.4229  -0.8442
6.351e+09  -0.2137  -0.8469  0.01183  0.02072  -0.04301  0.02285  -0.6573  -0.6641
6.352e+09  -0.5269  -0.7345  0.02556  -0.0126  0.03185  -0.01695  -0.8581  -0.385
6.354e+09  -0.7788  -0.5295  0.01508  0.03371  0.05796  -0.01741  -0.9288  -0.07456
6.355e+09  -0.8568  -0.2331  0.01455  0.03657  -0.01729  0.003691  -0.9142  0.3001
6.356e+09  -0.8915  0.1125  -0.001812  -0.001242  -0.02767  -0.02796  -0.7758  0.5309
6.358e+09  -0.8166  0.3913  -0.05716  0.01588  -0.02262  -0.0003474  -0.5296  0.7823
6.359e+09  -0.641  0.6559  -0.01271  -0.02096  -0.02752  0.007331  -0.2379  0.8891
6.36e+09  -0.3671  0.8095  -0.002758  0.01752  -0.01191  -0.009011  0.05698  0.9464
6.361e+09  -0.08205  0.9102  0.01431  -0.002329  -0.02369  0.02104  0.414  0.8521
6.362e+09  0.2467  0.8567  -0.009157  -0.02041  -0.02812  -0.007039  0.6571  0.6656
6.364e+09  0.5028  0.7199  -0.0007957  -0.01686  -0.01136  -0.02452  0.8827  0.3781
6.365e+09  0.7564  0.4668  -0.004723  0.02811  0.02473  0.03901  0.9759  0.05924
6.366e+09  0.8798  0.1814  -0.01464  0.005605  -0.05489  0.008156  0.9267  -0.2508
6.368e+09  0.9068  -0.1682  0.006525  0.05071  -0.002141  0.04441  0.7994  -0.5547
6.369e+09  0.7826  -0.4708  0.01698  0.02349  -0.04817  0.007259  0.5276  -0.8219
6.37e+09  0.607  -0.6822  0.04812  0.005825  0.009776  0.002435  0.2112  -0.9526
6.371e+09  0.324  -0.8794  -0.0202  -0.02058  0.00999  0.006303  -0.0664  -0.9313
6.372e+09  -0.012  -0.8697  -0.01436  0.02277  -0.02636  0.01886  -0.3989  -0.8659
6.374e+09  -0.3149  -0.8546  0.0314  0.01946  0.04493  -0.03985  -0.645  -0.6647
6.375e+09  -0.5674  -0.7397  -0.006979  -0.01458  -0.03241  -0.02787  -0.86  -0.4329
6.376e+09  -0.7631  -0.4921  0.006969  0.04055  0.01142  0.04482  -0.9498  -0.1003
6.378e+09  -0.8127  -0.1656  -0.02267  0.01268  -0.02654  -0.03981  -0.9343  0.2233
6.379e+09  -0.9304  0.1174  0.009749  0.00299  0.01358  0.01469  -0.7926  0.5067
6.38e+09  -0.8079  0.437  -0.01393  0.01824  -0.003866  0.001666  -0.5116  0.7374
6.381e+09  -0.6064  0.6762  -0.01503  -0.04647  -0.006198  -0.007345  -0.2287  0.9359
6.382e+09  -0.2586  0.8293  -0.01786  -0.01861  -0.04408  0.0229  0.06034  0.9653
6.384e+09  0.04956  0.9038  0.01479  -0.01203  0.007657  -0.0605  0.3508  0.8762
6.385e+09  0.3462  0.8514  -0.03349  -0.04255  0.01012  -0.02078  0.6392  0.6898
6.386e+09  0.6307  0.6764  0.01077  0.02363  -0.01712  -0.01653  0.8674  0.4019
6.388e+09  0.801  0.4467  -0.03728  -0.03587  -0.008491  -0.02616  0.9331  0.109
6.389e+09  0.9008  0.1128  0.03248  0.01476  0.02744  0.0004345  0.9017  -0.1945
6.39e+09  0.8991  -0.2069  -0.003989  0.02744  -0.01821  0.01565  0.7799  -0.5209
6.391e+09  0.766  -0.4922  -0.04844  0.02841  0.006105  0.007363  0.5663  -0.7279
6.392e+09  0.5479  -0.743  0.03739  -0.04769  -0.03232  -0.007867  0.2628  -0.8897
6.394e+09  0.2515  -0.9048  0.002385  -0.02684  -0.01138  -0.02083  -0.08738  -0.9326
6.395e+09  -0.1046  -0.8969  -0.03099  0.04149  0.03498  0.02729  -0.3929  -0.873
6.396e+09  -0.3539  -0.8457  -0.02987  -0.005558  0.03143  0.01732  -0.5751  -0.6615
6.398e+09  -0.6165  -0.6351  -0.001195  0.02956  0.01868  0.03328  -0.7885  -0.3949
6.399e+09  -0.7754  -0.3859  -0.01211  -0.01869  0.01621  0.01178  -0.8891  -0.1037
6.4e+09  -0.8904  -0.1139  -0.006019  -0.008436  0.03011  -0.0166  -0.8928  0.1781
6.401e+09  -0.8095  0.2267  -0.0254  -0.01111  -0.01689  0.02845  -0.7907  0.453
6.402e+09  -0.7561  0.5338  0.03635  0.001072  0.008274  0.007586  -0.5991  0.7488
6.404e+09  -0.5165  0.6911  0.01183  0.01655  -0.01145  0.0166  -0.2984  0.8243
6.405e+09  -0.2389  0.7896  -0.02255  0.02021  0.01402  0.03703  0.01549  0.9232
6.406e+09  0.04972  0.8775  0.0007848  -0.01194  -0.02506  -0.01157  0.3487  0.8277
6.408e+09  0.3473  0.8164  0.01863  0.004313  0.007913  -0.0323  0.5944  0.7382
6.409e+09  0.6025  0.6061  0.003995  -0.03068  0.004045  -0.00392  0.7781  0.4561
6.41e+09  0.7917  0.3922  -0.009785  0.0129  -0.01335  0.02264  0.891  0.1607
6.411e+09  0.9203  0.1222  -0.03817  -0.01737  -0.01634  0.02584  0.854  -0.1495
6.412e+09  0.8586  -0.2468  -0.0002564  -0.01782  -0.01398  0.005295  0.7909  -0.482
6.414e+09  0.6906  -0.5869  -0.02004  0.01374  0.002245  -0.04548  0.5991  -0.7084
6.415e+09  0.5382  -0.7178  -0.004222  -0.004234  0.03297  0.06678  0.3103  -0.7859
6.416e+09  0.2066  -0.8545  -0.004378  -0.01044  -0.03916  0.003961  0.02226  -0.889
6.418e+09  -0.06801  -0.8692  -0.03515  -0.05002  0.04459  0.01303  -0.2977  -0.8339
6.419e+09  -0.3996  -0.798  -0.01138  -0.005543  -0.01909  0.002651  -0.5469  -0.7216
6.42e+09  -0.6329  -0.6376  -0.01863  -0.0202  0.01967  -0.005695  -0.7341  -0.5128
6.421e+09  -0.7931  -0.3901  0.02511  -0.03383  -0.01526  -0.02607  -0.9012  -0.1991
6.422e+09  -0.9138  -0.04606  0.02261  0.008409  0.02097  0.05786  -0.9074  0.08169
6.424e+09  -0.8722  0.2759  -0.01385  0.019  0.001513  -0.03509  -0.7957  0.4058
6.425e+09  -0.6676  0.6098  -0.01928  0.02056  0.009546  0.02657  -0.5946  0.6459
6.426e+09  -0.401  0.7647  -0.001706  0.003941  -0.003141  0.05081  -0.3728  0.8055
6.428e+09  -0.196  0.8385  -0.008687  -0.03362  0.06546  0.01821  -0.03867  0.8929
6.429e+09  0.1168  0.8618  0.01219  -0.02904  0.05956  0.01617  0.2468  0.8094
6.43e+09  0.3417  0.7806  -0.03768  -0.03159  -0.01754  -0.02675  0.5109  0.7097
6.431e+09  0.6311  0.5963  -0.0001979  0.03833  0.003937  -0.0145  0.7471  0.4952
6.432e+09  0.7578  0.3456  0.0102  -0.002707  -0.007663  -0.0004541  0.8393  0.2078
6.434e+09  0.9445  0.04129  0.004504  0.01604  -0.01363  -0.0006387  0.8575  -0.0981
6.435e+09  0.8095  -0.3407  0.005287  -0.04767  -0.004679  0.00916  0.78  -0.3584
6.436e+09  0.6875  -0.6265  0.03292  0.007083  -0.03656  -0.05612  0.6113  -0.6158
6.438e+09  0.4898  -0.755  0.01308  -0.02286  0.03716  0.01214  0.3271  -0.8063
6.439e+09  0.1468  -0.8753  0.01933  -0.01827  0.04916  -0.004959  0.03592  -0.8879
6.44e+09  -0.1339  -0.899  -0.02274  -0.009437  -0.002749  -0.01439  -0.2125  -0.8693
6.441e+09  -0.4187  -0.7778  0.003147  -0.007793  0.02202  0.01237  -0.5039  -0.6435
6.442e+09  -0.6738  -0.5767  -0.04022  -0.02602  0.02371  0.007343  -0.7003  -0.5159
6.444e+09  -0.7881  -0.3445  -0.05078  0.009418  -0.02136  0.01126  -0.8374  -0.2281
6.445e+09  -0.8979  -0.005138  -0.02361  -0.007572  0.01333  -0.009176  -0.8505  0.08235
6.446e+09  -0.8547  0.3136  -0.01237  0.002368  0.02075  0.001573  -0.7875  0.3485
6.448e+09  -0.7089  0.5885  -0.01124  0.002922  -0.01461  -0.003331  -0.5801  0.592
6.449e+09  -0.4799  0.7905  -0.02394  -0.001613  -0.04903  0.01212  -0.3684  0.7921
6.45e+09  -0.2058  0.9047  0.01323  0.01534  -0.006363  -0.01218  -0.06134  0.8111
6.451e+09  0.1616  0.917  0.02884  -0.01504  -0.05418  -0.02176  0.2299  0.8069
6.452e+09  0.4448  0.7774  0.006721  0.05154  0.01803  -0.006724  0.462  0.706
6.454e+09  0.7146  0.5336  0.0004229  -0.01249  -0.05333  -0.01792  0.6292  0.4721
6.455e+09  0.8698  0.2749  0.00317  -0.001881  -0.008521  0.02019  0.8094  0.2079
6.456e+09  0.9124  -0.04441  -0.01523  -0.009963  0.04643  -0.02282  0.8056  -0.09929
6.458e+09  0.857  -0.3271  -0.01831  0.002678  0.02793  -0.03522  0.7513  -0.3471
6.459e+09  0.6532  -0.6009  0.006867  0.004393  0.0008386  -0.03316  0.6122  -0.6199
6.46e+09  0.4188  -0.7984  -0.009098  -0.0003325  0.04712  -0.03814  0.348  -0.7517
6.461e+09  0.09957  -0.9631  -0.015  -0.01576  -0.01279  0.02637  0.06964  -0.8378
6.462e+09  -0.1508  -0.8807  0.06823  0.03225  0.06501  -0.02922  -0.2181  -0.7673
6.464e+09  -0.461  -0.7867  0.04102  -0.03668  -0.03022  -0.04195  -0.4774  -0.6695
6.465e+09  -0.739  -0.5913  0.02375  -0.06111  -0.03267  -0.01374  -0.6296  -0.4772
6.466e+09  -0.8742  -0.3155  0.002069  -0.0308  0.05778  -0.02543  -0.7343  -0.2336
6.468e+09  -0.9188  0.05036  0.01106  0.004668  0.003128  0.02299  -0.807  0.09833
6.469e+09  -0.8811  0.363  -0.01824  0.04093  -0.03081  0.04107  -0.6874  0.3568
6.47e+09  -0.6967  0.6924  0.006925  -0.003158  0.02862  -0.03033  -0.5517  0.6066
6.471e+09  -0.3944  0.8383  0.04643  -0.0471  0.02907  0.0002777  -0.3305  0.6853
6.472e+09  -0.1301  0.8897  0.01009  -0.01112  -0.03184  0.01251  -0.08105  0.8171
6.474e+09  0.2021  0.9619  0.0276  -0.004615  -0.01867  -0.04145  0.2403  0.7854
6.475e+09  0.5073  0.8392  -0.002652  0.001376  -0.03171  -0.01328  0.4685  0.6323
6.476e+09  0.7719  0.5858  -0.003731  -0.01298  0.02683  0.02978  0.6387  0.4223
6.478e+09  0.9068  0.2413  0.00542  0.004345  0.03039  -0.0157  0.7721  0.1837
6.479e+09  0.9614  -0.1055  -0.007766  -0.03575  0.00729  -0.01176  0.7924  -0.1078
6.48e+09  0.8358  -0.3689  0.02176  -0.0002011  0.03169  0.0194  0.7287  -0.3585
6.481e+09  0.6825  -0.6843  0.01702  0.02228  -0.005111  -0.05518  0.53  -0.5026
6.482e+09  0.4096  -0.8877  0.01855  -0.01527  0.01384  -0.01869  0.2887  -0.6962
6.484e+09  0.1103  -0.9182  -0.006301  0.01392  -0.01388  0.05053  0.07224  -0.7762
6.485e+09  -0.2643  -0.9397  0.03217  0.003022  -0.03041  -0.01425  -0.2014  -0.7554
6.486e+09  -0.538  -0.7627  0.01599  0.02697  0.03971  -0.03227  -0.4287  -0.6357
6.488e+09  -0.7821  -0.5401  -0.03939  0.007379  0.04005  0.01424  -0.6161  -0.4433
6.489e+09  -0.9831  -0.2162  -0.003486  -0.0006258  0.005883  0.01561  -0.7432  -0.1821
6.49e+09  -1.002  0.05509  0.01744  0.01613  0.01941  0.0232  -0.7386  0.09155
6.491e+09  -0.8515  0.4628  0.04807  0.01634  -0.00666  -0.04716  -0.7101  0.3552
6.492e+09  -0.6661  0.6822  0.02595  -0.001515  0.004916  0.02297  -0.5064  0.5305
6.494e+09  -0.3502  0.8832  0.0008093  -0.03251  -0.0214  -0.02308  -0.2972  0.7155
6.495e+09  -0.02529  0.9782  -0.002213  0.004713  -0.03684  -0.01889  -0.01155  0.7757
6.496e+09  0.3218  0.8843  -0.03642  -0.04973  0.001601  -0.01814  0.2275  0.7555
6.498e+09  0.5582  0.7206  -0.02081  0.01281  0.01517  0.01562  0.4562  0.6616
6.499e+09  0.8228  0.4584  0.005081  0.003427  0.01337  -0.01468  0.6495  0.4451
6.5e+09  0.9766  0.1864  0.01715  0.01833  0.001976  0.03999  0.73  0.184
6.501e+09  0.9067  -0.1205  0.05002  -0.007898  0.002532  0.01009  0.797  -0.1209
6.502e+09  0.8289  -0.4787  -0.01892  0.03374  0.008167  -0.01434  0.6835  -0.3358
6.504e+09  0.6334  -0.7928  0.004055  -0.01744  0.0002483  -0.06276  0.5098  -0.5898
6.505e+09  0.3233  -0.9438  -0.01364  -0.006802  -0.01911  0.0577  0.3372  -0.7081
6.506e+09  0.004159  -0.9717  -0.0002128  -0.006906  0.00306  0.0537  0.03943  -0.7573
6.508e+09  -0.3351  -0.8901  -0.04432  -0.002553  -0.005347  -0.00213  -0.285  -0.6955
6.509e+09  -0.6645  -0.7108  0.04263  0.003338  -0.05387  0.006333  -0.491  -0.599
6.51e+09  -0.8903  -0.4797  -0.007204  0.02515  0.02438  0.01051  -0.6414  -0.3764
6.511e+09  -0.9466  -0.1147  -0.01018  0.005612  -0.01169  -0.04307  -0.7605  -0.2011
6.512e+09  -0.9498  0.2367  0.02577  -0.004322  -0.04285  0.01554  -0.7432  0.1233
6.514e+09  -0.836  0.5798  0.01361  -0.01867  -0.03568  -0.03281  -0.6488  0.3631
6.515e+09  -0.5783  0.8377  0.01225  -0.02195  -0.00192  0.02409  -0.463  0.6016
6.516e+09  -0.2399  0.9394  0.01983  0.009553  0.03538  -0.004333  -0.2889  0.6988
6.518e+09  0.1427  1.002  -0.02564  -0.0102  -0.02619  -0.04498  0.03598  0.7472
6.519e+09  0.3916  0.8513  0.03214  0.00185  0.05086  -0.0263  0.3098  0.6736
6.52e+09  0.7432  0.6383  0.00578  -0.01421  -0.03674  -0.02169  0.4766  0.5712
6.521e+09  0.9365  0.4094  0.009893  -0.0254  -0.05377  0.08727  0.656  0.3857
6.522e+09  0.9788  0.04516  0.02152  0.004257  0.01224  0.04747  0.7148  0.1411
6.524e+09  0.9006  -0.312  -0.00679  -0.01227  0.008396  0.004181  0.7096  -0.181
6.525e+09  0.6679  -0.5615  0.01977  0.02609  0.03441  -0.00404  0.6211  -0.3915
6.526e+09  0.4845  -0.7951  -0.004149  0.01585  0.02998  -0.06425  0.4161  -0.6061
6.528e+09  0.1878  -0.976  0.007865  -1.442e-05  0.01837  0.01086  0.2009  -0.7216
6.529e+09  -0.1433  -0.9349  0.005102  0.002713  -0.01107  -0.0211  -0.04622  -0.7215
6.53e+09  -0.4896  -0.8054  0.008844  0.00641  0.004683  0.007978  -0.3137  -0.6389
6.531e+09  -0.7712  -0.5997  -0.007525  -0.001309  0.04969  0.02599  -0.4923  -0.4645
6.532e+09  -0.9557  -0.2698  -0.07083  0.0009436  0.008164  -0.02485  -0.6041  -0.2986
6.534e+09  -1.007  0.05374  0.005101  -0.02742  0.02662  -0.0004531  -0.6516  -0.09444
6.535e+09  -0.9034  0.4254  -0.007951  -0.02389  -0.02408  0.03386  -0.5889  0.1284
6.536e+09  -0.6669  0.694  0.004848  -0.01257  0.01354  -0.003887  -0.5697  0.3378
6.538e+09  -0.3851  0.8345  0.005734  0.007056  -0.02082  -0.000548  -0.444  0.496
6.539e+09  -0.02153  0.9431  -0.03043  0.02086  -0.008001  0.02047  -0.283  0.5974
6.54e+09  0.2871  0.9291  0.00283  0.006406  0.005086  0.00732  -0.01533  0.6461
6.541e+09  0.566  0.7684  0.009279  0.006895  0.005486  0.01954  0.1711  0.6774
6.542e+09  0.7829  0.5436  0.02166  -0.03583  -0.05316  -0.00302  0.4377  0.5811
6.544e+09  0.8916  0.2226  -0.01037  -0.007544  -0.02278  0.007922  0.6124  0.4267
6.545e+09  0.9922  -0.09561  -0.01594  0.005397  0.004603  0.02648  0.6744  0.1886
6.546e+09  0.8293  -0.4078  -0.01885  -0.002356  0.0579  -0.03757  0.7423  -0.08464
6.548e+09  0.5922  -0.7393  -0.02178  0.01391  -0.005126  -0.0005822  0.6386  -0.3253
6.549e+09  0.3566  -0.867  0.001333  0.006002  0.03248  -0.03827  0.4885  -0.5194
6.55e+09  0.02211  -0.9381  -0.001191  0.005254  0.01773  -0.03334  0.2665  -0.6503
