# Hz S RI R 50
6.25e+09  0.1699  0.8476  0.01699  -0.003947  0.01645  0.007046  0.1626  0.479
6.251e+09  0.4253  0.6911  -0.02192  -0.02198  -0.005829  -0.00891  0.3682  0.4336
6.252e+09  0.6497  0.5406  -0.02475  -0.05406  0.0134  0.005312  0.5136  0.2246
6.254e+09  0.8042  0.3148  -0.02693  0.04804  0.04113  0.03805  0.6228  0.01393
6.255e+09  0.8403  -0.05281  -0.004731  -0.01628  0.01747  0.03073  0.5774  -0.2027
6.256e+09  0.7654  -0.3174  0.01741  0.03625  -0.006151  -0.04696  0.4899  -0.4434
6.258e+09  0.6479  -0.5817  -0.01607  -0.02268  0.04195  0.05772  0.2775  -0.6069
6.259e+09  0.3887  -0.7712  -0.003473  -0.009026  0.005959  -0.01701  0.03267  -0.6952
6.26e+09  0.1512  -0.9031  0.01647  -0.007072  -0.01997  0.04794  -0.2127  -0.6601
6.261e+09  -0.1635  -0.8062  0.01925  -0.009279  0.001709  0.02289  -0.4371  -0.5374
6.262e+09  -0.4968  -0.7559  -0.02375  -0.03639  -0.06667  -0.05024  -0.636  -0.3479
6.264e+09  -0.717  -0.5099  -0.005936  9.628e-06  0.002796  -0.03687  -0.7329  -0.07574
6.265e+09  -0.8103  -0.2918  -0.03891  -0.0028  -0.02749  0.03606  -0.7391  0.157
6.266e+09  -0.8196  0.08963  0.005096  -0.002533  -0.02188  -0.003822  -0.6037  0.4245
6.268e+09  -0.7608  0.3306  -0.01678  -0.01706  -0.02664  0.01819  -0.4577  0.582
6.269e+09  -0.5737  0.605  -0.0005439  -0.01911  -0.003784  0.02181  -0.1919  0.7
6.27e+09  -0.3555  0.763  -0.0066  -0.009385  0.0127  -0.01582  0.05622  0.7348
6.271e+09  -0.09327  0.8125  0.008264  0.0168  -0.04875  0.04596  0.3148  0.7067
6.272e+09  0.2031  0.8002  -0.01535  0.006795  0.03233  -0.002521  0.5454  0.5454
6.274e+09  0.4959  0.6576  -0.02329  -0.0004443  0.01154  -0.01322  0.7103  0.2651
6.275e+09  0.6853  0.4927  0.009037  -0.008106  0.01962  -0.003448  0.7697  0.03904
6.276e+09  0.8368  0.2106  0.02952  -0.006576  -0.01347  -0.000225  0.7209  -0.2373
6.278e+09  0.8062  -0.08137  0.01345  0.03594  -0.008227  -0.008059  0.6156  -0.4235
6.279e+09  0.75  -0.3916  -0.0085  0.006568  0.004788  0.008061  0.4117  -0.6592
6.28e+09  0.5445  -0.5752  0.03154  -0.02285  0.08103  -0.03668  0.1833  -0.7429
6.281e+09  0.357  -0.7958  0.02548  0.01691  -0.009564  0.002956  -0.0947  -0.7933
6.282e+09  0.08604  -0.9103  0.01446  -0.001741  0.01166  0.008338  -0.3629  -0.6927
6.284e+09  -0.234  -0.7773  -0.007773  0.02107  0.02345  -0.02623  -0.5933  -0.5375
6.285e+09  -0.5202  -0.6224  0.002079  -0.01787  -0.008228  -0.02468  -0.7475  -0.3063
6.286e+09  -0.7228  -0.4957  -0.02091  0.02326  0.04061  -0.002523  -0.7872  -0.05051
6.288e+09  -0.8154  -0.1638  -0.03259  0.01179  -0.002559  0.01432  -0.7774  0.2365
6.289e+09  -0.8602  0.1263  -0.003673  -0.009219  -0.03466  0.007208  -0.6227  0.4753
6.29e+09  -0.6902  0.4436  0.01342  -0.0119  0.007271  -0.03744  -0.4214  0.6542
6.291e+09  -0.5546  0.6355  0.01043  0.003558  -0.06959  0.02087  -0.1376  0.8065
6.292e+09  -0.2983  0.8025  -0.04048  -0.0224  -0.02298  -0.01544  0.1801  0.785
6.294e+09  -0.007419  0.8619  0.0003502  -0.007205  0.009919  -0.001939  0.3795  0.7069
6.295e+09  0.2737  0.7363  0.01369  0.0251  -0.00327  0.002738  0.6267  0.4945
6.296e+09  0.4855  0.5876  -0.003662  -0.01857  0.05732  -0.006472  0.7598  0.2906
6.298e+09  0.773  0.3701  -0.01027  0.024  0.008696  0.008969  0.8252  0.01064
6.299e+09  0.8455  0.09846  -0.008625  0.01336  -0.05784  -0.00832  0.7639  -0.2862
6.3e+09  0.8374  -0.1558  -0.002717  0.03017  -0.003744  -0.005645  0.6786  -0.5125
6.301e+09  0.6778  -0.4907  -0.009602  -0.008913  0.0004086  -0.01675  0.4066  -0.7088
6.302e+09  0.4834  -0.6797  0.02631  0.004354  0.0196  -0.04374  0.1561  -0.85
6.304e+09  0.2425  -0.8317  0.006266  0.005207  0.002442  -0.04608  -0.1271  -0.8174
6.305e+09  -0.0477  -0.8441  -0.02033  0.01109  -0.0159  -0.04501  -0.4098  -0.7639
6.306e+09  -0.2914  -0.8119  0.03033  0.002199  0.007781  -0.04707  -0.6874  -0.5951
6.308e+09  -0.5899  -0.5738  0.006135  -0.0233  0.03351  -0.008991  -0.8079  -0.2826
6.309e+09  -0.7472  -0.3339  -0.01876  0.003002  0.06833  0.06393  -0.8606  -0.03676
6.31e+09  -0.8634  -0.04732  -0.006829  -0.02028  -0.01032  0.04864  -0.8171  0.3132
6.311e+09  -0.8209  0.2435  0.02689  -0.01302  0.003494  0.01489  -0.669  0.5668
6.312e+09  -0.7159  0.5321  0.01515  -0.008371  -0.03401  -0.009989  -0.468  0.7695
6.314e+09  -0.4948  0.7333  -0.01089  0.0002298  0.005459  0.01549  -0.1287  0.8531
6.315e+09  -0.1757  0.879  -0.001203  -0.007126  -0.0001061  -0.0212  0.1743  0.8771
6.316e+09  0.1196  0.8112  -0.04356  -0.02051  0.005088  -0.03453  0.3938  0.7547
6.318e+09  0.3665  0.7829  -0.02543  -0.01649  0.02587  0.01648  0.6485  0.5768
6.319e+09  0.605  0.5466  -0.001206  0.01338  0.01683  0.03793  0.8202  0.3212
6.32e+09  0.841  0.2894  0.001804  -0.009284  0.004797  0.02385  0.8906  0.04591
6.321e+09  0.877  -0.002026  -0.008129  0.001598  -0.0003851  0.02146  0.8671  -0.2994
6.322e+09  0.8014  -0.3153  0.002029  0.02518  -0.0147  -0.02333  0.6875  -0.5584
6.324e+09  0.6434  -0.5364  -0.004993  0.003271  0.0421  0.02392  0.4286  -0.741
6.325e+09  0.4051  -0.7702  0.01392  0.01807  0.03066  0.04815  0.142  -0.9218
6.326e+09  0.1255  -0.8678  0.01806  0.0306  -0.04587  -0.01332  -0.156  -0.9008
6.328e+09  -0.1904  -0.8718  0.004517  -0.000325  -0.01688  -6.162e-05  -0.4666  -0.784
6.329e+09  -0.4374  -0.762  -0.01512  0.0292  -0.002915  -0.02409  -0.6854  -0.5951
6.33e+09  -0.7185  -0.5094  -0.03503  0.004867  0.00518  -0.01201  -0.8262  -0.3531
6.331e+09  -0.8425  -0.2299  -0.014  0.00364  0.02751  0.04163  -0.9023  -0.0352
6.332e+09  -0.8575  0.07088  0.005926  -0.03655  0.01637  -0.006381  -0.9139  0.2854
6.334e+09  -0.7887  0.3275  -0.004044  0.01038  0.04567  -0.02343  -0.6744  0.5423
6.335e+09  -0.631  0.6327  0.02515  0.02399  -0.02388  -0.04448  -0.4647  0.7943
6.336e+09  -0.3503  0.8195  -0.001427  0.001446  0.02671  -0.0249  -0.1522  0.8563
6.338e+09  -0.07598  0.9111  0.003622  -0.03167  -0.008146  -0.002166  0.1219  0.9105
6.339e+09  0.223  0.8012  0.02218  0.002045  -0.0158  -0.005706  0.4341  0.7791
6.34e+09  0.5326  0.7073  0.002123  0.007646  -0.01304  -0.0307  0.6965  0.5931
6.341e+09  0.7083  0.4381  -0.004266  -0.02579  0.03145  0.003907  0.8697  0.3676
6.342e+09  0.8348  0.1968  -0.012  -0.02263  0.06847  0.06763  0.9357  0.05453
6.344e+09  0.8575  -0.1717  -0.0267  0.02589  0.03173  0.007849  0.9335  -0.2762
6.345e+09  0.744  -0.3868  -0.01762  -0.03723  -0.03378  -0.04964  0.724  -0.5769
6.346e+09  0.5158  -0.6431  -0.007255  -0.02688  0.04132  -0.02979  0.4645  -0.7987
6.348e+09  0.3486  -0.8189  -0.02012  0.03518  0.06343  0.028  0.1835  -0.9036
6.349e+09  0.01521  -0.8634  0.005438  -0.01251  -0.02055  -0.01225  -0.1299  -0.9101
6.35e+09  -0.3373  -0.8398  0.01592  -0.0466  -0.007904  0.005324  -0.4269  -0.8684
6.351e+09  -0.5468  -0.6841  -0.02736  0.02719  -0.04957  -0.01043  -0.666  -0.6769
6.352e+09  -0.7325  -0.4435  0.00284  0.003992  0.002383  -0.004377  -0.8205  -0.406
6.354e+09  -0.8703  -0.1167  0.01837  0.004243  -0.02114  0.03679  -0.9252  -0.08802
6.355e+09  -0.8626  0.2031  0.008333  0.04148  0.01062  -0.02765  -0.9469  0.2582
6.356e+09  -0.7392  0.4972  0.006412  0.001566  -0.02615  -0.02153  -0.7713  0.5728
6.358e+09  -0.5488  0.6662  0.005083  -0.009109  -0.03278  -0.02289  -0.5264  0.7807
6.359e+09  -0.2682  0.8846  -0.009097  0.01231  0.04143  -0.01176  -0.2172  0.9377
6.36e+09  0.1059  0.8787  -0.007942  -0.002761  -0.003794  0.01474  0.09092  0.9661
6.361e+09  0.332  0.8067  -0.006324  0.01047  0.04217  -0.0471  0.3937  0.8466
6.362e+09  0.624  0.6275  -0.02212  0.004251  -0.006918  0.04629  0.6416  0.7024
6.364e+09  0.7894  0.3802  0.0009916  -0.0004471  -0.02985  0.01992  0.8717  0.3872
6.365e+09  0.8662  0.04358  0.05554  0.003344  -0.01418  0.007604  0.9663  0.05701
6.366e+09  0.8458  -0.2338  0.01081  0.0293  0.02499  0.001051  0.8807  -0.2016
6.368e+09  0.7355  -0.5328  -0.005601  0.03888  0.0254  0.008043  0.7481  -0.5331
6.369e+09  0.4636  -0.7885  0.001372  0.003211  -0.004951  -0.01807  0.5659  -0.7478
6.37e+09  0.2122  -0.8859  0.02261  0.01178  0.03677  0.01851  0.2473  -0.9109
6.371e+09  -0.1144  -0.8882  0.00245  0.02065  -0.01178  -0.00653  -0.08771  -0.9261
6.372e+09  -0.433  -0.813  0.03759  0.06436  -0.005707  -0.01442  -0.402  -0.8887
6.374e+09  -0.6548  -0.5761  0.03426  0.01072  -0.01831  -0.01747  -0.659  -0.6998
6.375e+09  -0.8478  -0.3344  -0.02548  0.03359  -0.05371  -0.02349  -0.8653  -0.4329
6.376e+09  -0.8941  -0.0551  -0.009347  -0.01153  -0.0004222  0.05001  -0.9758  -0.09799
6.378e+09  -0.8188  0.2835  -0.01215  -0.04422  0.04727  -0.00711  -0.9182  0.2142
6.379e+09  -0.6585  0.5746  -0.00922  0.004857  -0.01444  -0.004623  -0.7338  0.5111
6.38e+09  -0.4334  0.7902  -0.02353  0.03754  0.0113  0.02391  -0.5543  0.798
6.381e+09  -0.132  0.8998  0.01862  0.01049  0.001808  -0.02257  -0.2587  0.9203
6.382e+09  0.1523  0.8353  0.004496  0.009845  0.01666  0.02262  0.1094  0.9581
6.384e+09  0.4653  0.7402  -0.006396  -0.01845  0.006495  0.009809  0.365  0.8847
6.385e+09  0.683  0.5645  0.03031  -0.02432  -0.02529  -0.009172  0.6284  0.7246
6.386e+09  0.864  0.2709  -0.003578  0.03093  0.055  0.005329  0.8393  0.4405
6.388e+09  0.882  -0.03143  0.04912  0.002956  -0.007738  0.008192  0.9473  0.07736
6.389e+09  0.8168  -0.3164  -0.002975  -0.0211  -0.02274  -0.0004105  0.8596  -0.1918
6.39e+09  0.6572  -0.588  0.02839  0.02406  0.003282  -0.0126  0.8275  -0.5164
6.391e+09  0.451  -0.8002  -0.008606  -0.003279  -0.0009351  -0.04465  0.5703  -0.7647
6.392e+09  0.06551  -0.902  -0.01583  0.01415  0.009176  0.0384  0.2792  -0.8686
6.394e+09  -0.1707  -0.8859  -0.0492  0.05885  0.01098  0.03722  -0.04453  -0.9671
6.395e+09  -0.4506  -0.7747  -0.03096  -0.007224  0.0385  -0.01267  -0.3385  -0.8772
6.396e+09  -0.711  -0.5227  -0.003617  0.004792  0.01727  -0.05606  -0.6288  -0.6974
6.398e+09  -0.8604  -0.2657  -0.02223  -0.01794  0.03215  -0.01778  -0.7811  -0.4708
6.399e+09  -0.9206  0.03215  -0.02202  -0.02212  0.01878  0.02138  -0.8999  -0.1395
6.4e+09  -0.8204  0.3525  -0.03549  0.0242  0.03087  -0.007942  -0.9126  0.1612
6.401e+09  -0.6244  0.6042  -0.02877  -0.02964  0.01786  0.003078  -0.8253  0.4615
6.402e+09  -0.3699  0.7911  -0.01503  -0.02173  -0.01061  -0.01598  -0.6048  0.6972
6.404e+09  -0.07908  0.8542  0.0001914  -0.005576  -0.02031  -0.03515  -0.2729  0.9019
6.405e+09  0.2215  0.8877  0.03495  0.01019  0.03723  -0.01583  0.01353  0.9446
6.406e+09  0.5479  0.7427  -0.02807  -0.003473  0.004238  0.03423  0.3083  0.8432
6.408e+09  0.7545  0.5259  0.01255  -0.0159  -0.00879  -0.01713  0.5927  0.6943
6.409e+09  0.9149  0.2419  0.02529  -0.009258  0.001189  -0.0005615  0.7637  0.4919
6.41e+09  0.8356  -0.06853  0.02508  0.01502  -0.0278  0.04859  0.8869  0.218
6.411e+09  0.7815  -0.3415  0.01471  -0.01893  -0.04015  0.006846  0.8929  -0.1289
6.412e+09  0.5639  -0.6471  -0.002489  0.01134  0.003024  0.004415  0.8076  -0.4496
6.414e+09  0.3624  -0.7945  0.007923  -0.01849  -0.03324  -0.003234  0.5479  -0.7187
6.415e+09  0.04035  -0.8286  -0.01533  0.02876  0.03584  -0.03021  0.3055  -0.794
6.416e+09  -0.2853  -0.8341  0.002933  -0.03296  0.01466  0.06063  0.01179  -0.8845
6.418e+09  -0.5595  -0.7247  -0.02661  0.01377  0.03464  0.004271  -0.3026  -0.8924
6.419e+09  -0.7639  -0.4717  -0.03658  0.06574  -0.008886  0.02217  -0.5311  -0.6983
6.42e+09  -0.9261  -0.142  0.04138  0.01833  -0.01349  -0.04726  -0.7629  -0.4497
6.421e+09  -0.923  0.08997  0.01257  -0.009591  0.01681  -0.003075  -0.8608  -0.1801
6.422e+09  -0.7884  0.4355  -0.01254  -0.02582  0.01701  -0.02206  -0.8684  0.1271
6.424e+09  -0.564  0.6431  0.04022  0.02359  0.03357  -0.01305  -0.8026  0.4017
6.425e+09  -0.3006  0.8626  0.01984  -0.05009  -0.02257  -0.01983  -0.6151  0.6445
6.426e+09  -0.007748  0.8792  -0.01536  -0.01589  -0.01438  0.01597  -0.3615  0.7947
6.428e+09  0.3264  0.8549  -0.02849  0.02811  -0.01656  0.001199  -0.05334  0.8885
6.429e+09  0.5998  0.7134  0.006087  -0.003027  -0.008889  -0.06171  0.27  0.8449
6.43e+09  0.7902  0.4208  -0.01662  -0.0294  0.07327  -0.03776  0.5034  0.6894
6.431e+09  0.8588  0.1426  0.02973  0.005391  -0.04878  -0.02364  0.6748  0.5041
6.432e+09  0.8629  -0.163  -0.03904  -0.01022  0.004746  0.006274  0.8821  0.1635
6.434e+09  0.7657  -0.4866  0.02997  0.01227  0.02548  0.04919  0.8632  -0.09702
6.435e+09  0.5445  -0.7398  -0.005064  0.03368  0.01548  0.06155  0.7903  -0.3817
6.436e+09  0.2378  -0.8725  -0.03286  -0.009604  0.009184  -0.006635  0.5741  -0.6573
6.438e+09  -0.04108  -0.9269  0.01914  -0.03284  -0.001128  0.01093  0.3932  -0.7916
6.439e+09  -0.3446  -0.8729  0.01618  0.02017  0.04196  0.004524  0.03384  -0.8342
6.44e+09  -0.6238  -0.6723  -0.01264  -0.003121  -0.03438  0.01979  -0.1676  -0.8375
6.441e+09  -0.8465  -0.4034  -0.007008  -0.02908  0.03554  0.01353  -0.5262  -0.6289
6.442e+09  -0.8773  -0.05333  0.0126  0.03184  0.007355  0.007435  -0.6876  -0.4781
6.444e+09  -0.8609  0.1825  0.00818  -0.009317  0.0438  -0.00757  -0.8084  -0.2376
6.445e+09  -0.7586  0.5818  -0.02422  0.01804  -0.004248  -0.01862  -0.8387  0.07818
6.446e+09  -0.5038  0.7767  -0.0202  -0.008641  -0.01699  0.01945  -0.7641  0.356
6.448e+09  -0.2196  0.909  -0.009541  -0.007196  -0.00987  -0.002594  -0.5963  0.6091
6.449e+09  0.186  0.9088  0.01346  0.02718  -0.0055  -0.01769  -0.3274  0.7693
6.45e+09  0.4801  0.8486  0.01119  0.01425  -0.01741  -0.01507  -0.04856  0.8391
6.451e+09  0.6998  0.6279  0.005134  0.02264  0.00254  0.005464  0.1901  0.7572
6.452e+09  0.8948  0.3128  -0.02371  0.0536  -0.04073  -0.03181  0.4847  0.6768
6.454e+09  0.9435  -0.04551  -0.02632  -0.01293  0.002234  -0.01295  0.6854  0.4583
6.455e+09  0.9366  -0.3412  -0.05717  0.05247  -0.03101  -0.05586  0.8234  0.2125
6.456e+09  0.6851  -0.5953  -0.02017  -0.02885  0.04174  -0.0002989  0.8635  -0.07554
6.458e+09  0.4401  -0.7903  6.626e-05  -0.007136  -0.02567  0.01595  0.7564  -0.2924
6.459e+09  0.1729  -0.9591  0.009237  0.01498  0.0233  0.04868  0.5413  -0.5672
6.46e+09  -0.2016  -0.8992  0.02364  -0.02136  -0.01669  0.0208  0.353  -0.7162
6.461e+09  -0.5505  -0.7869  0.01449  0.02337  0.03389  0.02642  0.07479  -0.832
6.462e+09  -0.7653  -0.4971  -0.04887  0.01489  0.005141  -0.002879  -0.2398  -0.8119
6.464e+09  -0.8869  -0.2372  -0.03401  -0.003008  -0.02253  0.04487  -0.522  -0.7098
6.465e+09  -0.9196  0.07962  -0.02256  -0.00885  0.0159  -0.04042  -0.6309  -0.4434
6.466e+09  -0.8762  0.432  -0.02554  -0.004631  0.08593  0.03872  -0.7952  -0.2097
6.468e+09  -0.6686  0.6905  -0.0174  -0.03054  0.01768  0.01459  -0.8134  0.07744
6.469e+09  -0.3753  0.8629  -0.001444  0.05029  -0.05058  -0.01447  -0.7433  0.3445
6.47e+09  -0.03426  0.9793  -0.02488  -0.008531  -0.01346  0.01505  -0.5358  0.5539
6.471e+09  0.3307  0.9319  -0.03254  0.03219  0.03321  -0.006243  -0.3252  0.7234
6.472e+09  0.586  0.7412  -0.01153  -0.006276  -0.001063  0.01069  -0.06005  0.8116
6.474e+09  0.8204  0.5103  0.03113  -0.004157  -0.008561  -0.06545  0.2297  0.7678
6.475e+09  0.9101  0.1313  0.02271  0.01826  -0.01126  -0.009461  0.4783  0.6584
6.476e+09  0.8875  -0.2181  -0.01918  -0.01148  0.03763  -0.04718  0.6843  0.4725
6.478e+09  0.8271  -0.5072  -0.02817  0.008777  0.01287  -0.02032  0.7713  0.2085
6.479e+09  0.5573  -0.7889  -0.01818  -0.01834  0.009033  -0.0007626  0.7909  -0.08098
6.48e+09  0.261  -0.924  0.005599  0.01267  -0.005829  -0.004958  0.7477  -0.3222
6.481e+09  -0.06909  -0.9038  0.04161  -0.002249  -0.02242  -0.001734  0.5793  -0.5777
6.482e+09  -0.3764  -0.8317  0.003672  0.01965  0.02684  0.005879  0.3224  -0.7346
6.484e+09  -0.7243  -0.6624  -0.03244  0.02488  0.0414  -0.05336  0.08727  -0.7562
6.485e+09  -0.8901  -0.3375  0.003924  0.00597  -0.007124  -0.03411  -0.1862  -0.7874
6.486e+09  -0.9508  0.0007324  -0.01918  -0.009957  -0.02913  -0.02901  -0.4819  -0.6104
6.488e+09  -0.891  0.3616  0.003282  0.01795  0.03261  0.009366  -0.6604  -0.4227
6.489e+09  -0.7429  0.5786  0.02087  -0.0002288  -0.0312  -0.01313  -0.7501  -0.1801
6.49e+09  -0.4579  0.8308  -0.01363  0.06198  0.01081  0.02306  -0.7655  0.07363
6.491e+09  -0.155  0.9302  0.008194  -0.01861  0.05302  0.03327  -0.712  0.3552
6.492e+09  0.2461  0.8649  0.00935  0.03071  0.04739  -0.06384  -0.5218  0.5827
6.494e+09  0.5073  0.7451  0.003467  -0.001678  0.0116  0.01577  -0.3198  0.7018
6.495e+09  0.731  0.5579  0.008805  -0.006329  -0.01755  -0.02198  -0.01655  0.7819
6.496e+09  0.9489  0.2026  -0.007946  -0.007798  0.05991  -0.01984  0.2316  0.7324
6.498e+09  0.9395  -0.1289  -0.004398  0.007133  -0.01275  -0.01607  0.494  0.6328
6.499e+09  0.8095  -0.4103  -0.0004427  -0.01588  -0.04643  0.006136  0.6285  0.4347
6.5e+09  0.6048  -0.7064  0.001144  0.002714  0.06186  0.01104  0.7757  0.1766
6.501e+09  0.3549  -0.8773  -0.02086  0.006366  0.011  0.02991  0.7548  -0.1063
6.502e+09  0.01063  -0.9381  -0.001025  -0.02776  0.01601  0.009925  0.6888  -0.3616
6.504e+09  -0.3273  -0.8398  -0.01833  -0.008152  -0.03225  0.003673  0.4743  -0.5629
6.505e+09  -0.6139  -0.6304  0.0204  -0.00847  -0.01747  0.03537  0.27  -0.7421
6.506e+09  -0.8111  -0.3952  0.004827  -0.003955  -0.001717  0.02915  -0.01445  -0.7754
6.508e+09  -0.8715  -0.1069  -0.0207  -0.004421  -0.03512  -0.01624  -0.2491  -0.6992
6.509e+09  -0.8688  0.2288  0.0141  0.01505  0.05242  0.01413  -0.4669  -0.5903
6.51e+09  -0.7081  0.474  0.02087  -0.02226  0.01597  -0.004017  -0.6753  -0.3776
6.511e+09  -0.452  0.8139  -0.004495  -0.008687  -0.005697  -0.02141  -0.7267  -0.1665
6.512e+09  -0.2012  0.8512  0.02907  0.01659  -0.02566  0.0118  -0.7719  0.1472
6.514e+09  0.1426  0.86  0.02848  0.009466  -0.01082  -0.002893  -0.62  0.3464
6.515e+09  0.4731  0.8023  0.02201  -0.04186  -0.0332  -0.0546  -0.5351  0.5484
6.516e+09  0.6906  0.5511  -0.03124  -0.01019  0.007382  -0.05692  -0.2454  0.6941
6.518e+09  0.8123  0.2462  0.01509  -0.03614  -0.006898  -0.00201  -0.005225  0.7135
6.519e+09  0.9282  -0.008273  -0.006075  -0.005076  0.01514  8.242e-05  0.2567  0.6594
6.52e+09  0.8282  -0.3698  0.01119  -0.04778  0.04987  -0.004867  0.5086  0.5381
6.521e+09  0.6269  -0.6068  0.03384  0.01016  0.02941  -0.04336  0.6595  0.3375
6.522e+09  0.3452  -0.8697  -0.01208  0.02626  -0.009727  0.006971  0.7036  0.1348
6.524e+09  0.0498  -0.8355  0.003047  0.03656  0.01564  -0.02578  0.689  -0.1692
6.525e+09  -0.2972  -0.7287  -0.006064  0.00315  0.006656  0.03117  0.6123  -0.4173
6.526e+09  -0.5861  -0.7182  0.01551  -0.001474  0.01537  -0.00507  0.429  -0.5834
6.528e+09  -0.7198  -0.418  -0.001418  0.04695  -0.008548  -0.03199  0.2028  -0.6567
6.529e+09  -0.8263  -0.07633  0.009773  -0.02562  -0.05183  0.01426  -0.03288  -0.7082
6.53e+09  -0.8042  0.1074  0.01235  0.002454  -0.0222  -0.05042  -0.2859  -0.6311
6.531e+09  -0.695  0.4262  0.0001264  0.01986  0.0102  0.006269  -0.4695  -0.426
6.532e+09  -0.4596  0.6849  -0.004316  -0.01163  -0.02179  0.02674  -0.6047  -0.2848
6.534e+09  -0.1903  0.8149  -0.02174  -0.01005  0.06759  0.01191  -0.6497  -0.08991
6.535e+09  0.09778  0.7819  0.02215  -0.01543  0.002284  0.009831  -0.5971  0.1053
6.536e+09  0.4037  0.7113  0.02408  -0.009706  -0.0424  -0.02663  -0.5759  0.3003
6.538e+09  0.5627  0.5176  0.01405  0.006123  0.0644  0.008311  -0.4648  0.498
6.539e+09  0.7844  0.2726  0.001872  -0.006752  -0.03551  -0.006057  -0.2682  0.6207
6.54e+09  0.8026  -0.03034  -0.01947  0.00569  0.02293  -0.03441  -0.04106  0.6531
6.541e+09  0.7018  -0.2487  0.03834  -0.01196  -0.01704  0.01552  0.1909  0.7181
6.542e+09  0.5838  -0.4487  -0.03963  0.0009105  0.02825  0.01423  0.4378  0.547
6.544e+09  0.3838  -0.6888  0.009097  -0.002068  0.02106  0.01277  0.6088  0.4427
6.545e+09  0.09511  -0.7768  -0.001685  0.003461  0.05153  -0.01153  0.6714  0.1737
6.546e+09  -0.2322  -0.7211  0.006763  -0.01915  0.006737  0.01065  0.696  -0.1153
6.548e+09  -0.4574  -0.6471  0.01527  -0.007992  0.03735  0.01158  0.6388  -0.3493
6.549e+09  -0.6881  -0.462  0.02438  -0.03287  0.04392  -0.02107  0.5019  -0.536
