# Hz S RI R 50
6.25e+09  -0.3832  0.8268  -0.001229  -0.02641  -0.02889  0.07056  0.1439  0.4814
6.251e+09  -0.1046  0.8397  -0.01528  -0.02539  0.01468  -0.01974  0.3775  0.4136
6.252e+09  0.2594  0.7999  0.000557  -0.007257  -0.0442  -0.07435  0.5016  0.2458
6.254e+09  0.5609  0.6909  -0.01314  0.01645  -0.003994  -0.0282  0.6137  0.04133
6.255e+09  0.6953  0.5476  -0.04137  -0.01412  0.01068  0.03794  0.5995  -0.2143
6.256e+09  0.8703  0.1742  -0.01383  -0.004452  -0.001253  -0.02779  0.4844  -0.4513
6.258e+09  0.8443  -0.09278  -0.0114  -0.03888  0.005309  -0.01151  0.2524  -0.6144
6.259e+09  0.7125  -0.3606  -0.0005739  0.0266  -0.02342  -0.0316  0.01306  -0.6854
6.26e+09  0.5562  -0.6049  0.00877  0.007592  -0.04372  -0.01201  -0.2377  -0.6265
6.261e+09  0.2783  -0.7964  -0.0292  -0.009538  -0.01985  -0.01351  -0.4482  -0.5735
6.262e+09  0.05439  -0.8369  -0.005226  -0.04085  -0.02145  -0.001572  -0.6319  -0.3586
6.264e+09  -0.274  -0.7917  -0.0007808  -0.008399  -0.05979  -0.01157  -0.7014  -0.08414
6.265e+09  -0.5094  -0.6573  -0.009268  -0.01043  -0.002587  0.06185  -0.7266  0.1501
6.266e+09  -0.7054  -0.4799  0.008331  -0.006577  0.0257  -0.002894  -0.6287  0.4003
6.268e+09  -0.7954  -0.1881  -0.02464  0.02384  0.001569  0.01105  -0.4084  0.6069
6.269e+09  -0.8638  0.04357  -0.007338  0.01418  -0.0226  0.01411  -0.1806  0.6985
6.27e+09  -0.7617  0.4178  0.003057  -0.03495  0.0304  -0.03535  0.05814  0.7349
6.271e+09  -0.4983  0.6551  0.01123  0.004001  0.02783  0.03581  0.326  0.6709
6.272e+09  -0.3027  0.7858  0.01385  -0.01735  -0.01124  0.03638  0.5284  0.5057
6.274e+09  -0.02486  0.8264  -0.006168  -0.01629  0.005791  0.01154  0.7113  0.309
6.275e+09  0.2273  0.8215  -0.02569  -0.005081  -0.008876  -0.01717  0.7547  0.06995
6.276e+09  0.5168  0.6625  -0.0227  -0.009715  0.03562  0.0002247  0.7434  -0.1841
6.278e+09  0.7648  0.4302  -0.01176  -0.00251  0.02843  -0.008539  0.6166  -0.4644
6.279e+09  0.8308  0.1278  -0.01008  0.01528  0.03377  -0.03204  0.388  -0.6558
6.28e+09  0.8597  -0.1911  -0.01292  0.02215  0.02795  0.006492  0.1674  -0.7742
6.281e+09  0.802  -0.4433  0.01404  0.01515  0.02654  -0.01038  -0.1028  -0.7971
6.282e+09  0.5347  -0.6382  0.01128  -0.01531  -0.01439  -0.04843  -0.3811  -0.6914
6.284e+09  0.3117  -0.8201  0.01187  0.003706  0.01695  0.02083  -0.5664  -0.5129
6.285e+09  0.02829  -0.7733  -0.01449  0.01341  -0.00327  -0.001763  -0.7365  -0.3179
6.286e+09  -0.2572  -0.748  0.003251  -0.01032  -0.02658  -0.01757  -0.8286  -0.00694
6.288e+09  -0.488  -0.6439  0.003133  0.01101  -0.01494  0.04354  -0.7219  0.2699
6.289e+09  -0.691  -0.3922  -0.01573  -0.002406  -0.01951  0.04257  -0.6261  0.531
6.29e+09  -0.838  -0.1662  -0.002168  -0.003692  -0.04138  -0.0114  -0.4145  0.7004
6.291e+09  -0.8279  0.1457  -0.001347  -0.006824  0.04294  -0.0235  -0.1826  0.8205
6.292e+09  -0.6933  0.4006  0.02205  0.03219  -0.06222  0.02421  0.1449  0.7984
6.294e+09  -0.5277  0.6818  0.001933  0.006134  -0.05957  0.006423  0.3633  0.6858
6.295e+09  -0.2157  0.765  0.003497  0.01107  0.02156  -0.09734  0.6353  0.5388
6.296e+09  0.03262  0.8304  0.01607  -0.007921  0.03883  -0.04567  0.7423  0.2821
6.298e+09  0.3108  0.7977  0.00596  0.03805  0.08016  -0.009962  0.8388  -0.02742
6.299e+09  0.5918  0.6601  -0.03585  -0.01825  0.00977  -0.0236  0.7665  -0.2398
6.3e+09  0.7111  0.3631  0.01961  0.006472  -0.0116  0.03188  0.622  -0.516
6.301e+09  0.8701  0.1094  0.0009924  0.003431  -0.00176  -0.06976  0.4082  -0.7005
6.302e+09  0.8212  -0.1825  0.00829  0.01645  0.003862  -0.04176  0.1393  -0.8103
6.304e+09  0.6671  -0.4646  -0.01134  0.003065  0.03105  -0.03407  -0.1359  -0.8261
6.305e+09  0.4989  -0.6381  -0.008371  0.002207  -0.01117  -0.06945  -0.4355  -0.7187
6.306e+09  0.2308  -0.815  -0.0005041  -0.02557  -0.01737  0.02609  -0.6495  -0.5243
6.308e+09  -0.07426  -0.8622  0.006669  -0.001752  0.02328  -0.0002637  -0.8174  -0.3002
6.309e+09  -0.415  -0.8299  0.0267  0.02433  -0.02228  -0.01501  -0.8784  0.01834
6.31e+09  -0.5704  -0.5796  0.003224  0.01754  0.01112  0.00456  -0.8204  0.2901
6.311e+09  -0.7349  -0.4053  -0.008367  0.01803  0.02263  0.0007008  -0.6432  0.5705
6.312e+09  -0.8331  -0.06984  0.03037  -0.0217  0.01834  0.01626  -0.4063  0.7818
6.314e+09  -0.8054  0.1817  0.003302  -0.02585  0.0237  -0.005034  -0.1654  0.8377
6.315e+09  -0.6686  0.5207  0.001771  -0.006065  -0.0269  -0.0202  0.1258  0.8655
6.316e+09  -0.4657  0.7457  -0.005213  -0.0113  -0.01849  0.01935  0.4069  0.7586
6.318e+09  -0.2204  0.8681  0.03483  0.04122  -0.008344  0.04809  0.6543  0.5552
6.319e+09  0.1097  0.8332  -0.003675  -0.01935  -0.03092  -0.01317  0.8229  0.3189
6.32e+09  0.3925  0.7529  0.008092  -0.004298  0.03027  0.06799  0.8901  0.03352
6.321e+09  0.5951  0.5797  0.01824  -0.02782  0.007711  0.01331  0.845  -0.283
6.322e+09  0.8222  0.3709  0.0358  -0.0003886  -0.02933  -0.04079  0.7  -0.5537
6.324e+09  0.8685  0.04617  0.01228  0.01828  0.01986  -0.03351  0.4829  -0.7586
6.325e+09  0.8083  -0.2761  -0.0415  0.004554  -0.02142  0.04944  0.1576  -0.8847
6.326e+09  0.6219  -0.4681  0.01098  -0.008843  -0.01401  -0.02668  -0.1187  -0.9078
6.328e+09  0.505  -0.7796  -0.008654  0.003362  -0.004795  -0.009305  -0.4203  -0.7846
6.329e+09  0.1124  -0.8412  0.003899  0.002615  0.03925  -0.02127  -0.659  -0.613
6.33e+09  -0.128  -0.8744  -0.02365  -0.01119  0.005224  0.02267  -0.8417  -0.3059
6.331e+09  -0.4679  -0.7749  0.004341  0.001451  -0.02254  -0.005214  -0.8773  -0.04394
6.332e+09  -0.7009  -0.4939  -0.04447  0.003171  0.03314  -0.02796  -0.8523  0.2843
6.334e+09  -0.8193  -0.2405  0.02053  0.0008988  0.03036  0.004356  -0.723  0.5582
6.335e+09  -0.8995  0.01838  0.01351  -0.0006596  -0.00296  0.003189  -0.4947  0.7949
6.336e+09  -0.8251  0.2716  0.01084  -0.003674  -0.02254  -0.01117  -0.2137  0.8773
6.338e+09  -0.6463  0.5895  0.01546  -0.01414  -0.01453  -0.02598  0.1179  0.8874
6.339e+09  -0.4184  0.7846  -0.004174  -0.009251  0.04938  0.00829  0.42  0.8027
6.34e+09  -0.1182  0.9275  -0.01916  -0.02432  0.02663  0.01584  0.6471  0.6005
6.341e+09  0.2173  0.8831  0.01292  0.003975  0.03508  -0.02167  0.8136  0.3814
6.342e+09  0.4659  0.7799  0.008861  0.01825  0.004648  0.005962  0.9198  0.02597
6.344e+09  0.7334  0.5668  0.002132  0.03003  0.001084  0.002637  0.8553  -0.2667
6.345e+09  0.8317  0.2737  0.0008555  -0.006832  -0.02677  -0.002837  0.7507  -0.5791
6.346e+09  0.8961  -0.06631  -0.03265  0.005706  0.001167  -0.07225  0.5608  -0.7621
6.348e+09  0.8056  -0.3775  -0.005063  0.02198  0.02126  0.03008  0.2426  -0.9279
6.349e+09  0.6508  -0.623  -0.009137  0.02776  0.01873  0.0002248  -0.1352  -0.9502
6.35e+09  0.3393  -0.8385  -0.01527  0.001995  0.05337  0.02811  -0.3997  -0.8402
6.351e+09  0.03287  -0.8721  -0.01327  -0.01237  0.05844  -0.009728  -0.7176  -0.6517
6.352e+09  -0.2084  -0.9299  0.008089  0.007848  0.0384  0.01915  -0.8594  -0.3701
6.354e+09  -0.5373  -0.6721  -0.009388  -0.005209  0.02071  0.01139  -0.9813  -0.09155
6.355e+09  -0.7425  -0.4779  -0.02492  0.02304  -0.07826  0.01007  -0.9326  0.2343
6.356e+09  -0.8271  -0.167  -0.0208  -0.005261  0.001578  -0.02045  -0.7431  0.5646
6.358e+09  -0.8998  0.1175  0.003069  0.02995  -0.0148  0.00278  -0.5306  0.8018
6.359e+09  -0.8004  0.4812  0.01332  0.008423  0.01945  0.01468  -0.2215  0.9765
6.36e+09  -0.5501  0.6523  0.01373  -0.007497  0.05816  -0.01368  0.1053  0.8961
6.361e+09  -0.3156  0.8596  -0.01439  0.02303  -0.03404  0.09536  0.4318  0.8655
6.362e+09  -0.02275  0.8965  -0.0323  -0.01746  0.01219  -0.003912  0.6527  0.6439
6.364e+09  0.2679  0.7976  0.001231  -0.002889  0.02298  -0.02999  0.8999  0.3955
6.365e+09  0.595  0.6869  -0.02852  0.02053  0.04108  -0.03016  0.9401  0.1043
6.366e+09  0.777  0.4411  -0.01183  0.01178  -0.01667  -0.0091  0.9192  -0.2384
6.368e+09  0.8696  0.1045  0.03025  -0.0162  -0.0117  -0.01389  0.7484  -0.5505
6.369e+09  0.8836  -0.1863  0.006315  0.01667  0.04833  -0.02773  0.5582  -0.7789
6.37e+09  0.8019  -0.4875  0.01939  0.004869  0.03452  0.03304  0.2129  -0.9094
6.371e+09  0.516  -0.7461  0.0239  0.01465  0.02943  0.009725  -0.05553  -0.9631
6.372e+09  0.2491  -0.8664  -0.0272  -0.00204  0.03939  0.01323  -0.3632  -0.8854
6.374e+09  -0.05637  -0.8706  0.006836  -0.0001494  0.05089  -0.01163  -0.6644  -0.7003
6.375e+09  -0.3722  -0.8197  0.02461  0.01116  -0.01136  0.01537  -0.8682  -0.4136
6.376e+09  -0.6475  -0.6402  0.002108  -0.04876  -0.00567  0.02188  -0.9668  -0.09178
6.378e+09  -0.8562  -0.3958  0.04823  0.01895  0.01373  0.02612  -0.9098  0.2357
6.379e+09  -0.8847  -0.09397  0.009414  0.001936  -0.03568  -0.03615  -0.7727  0.4953
6.38e+09  -0.8964  0.2301  0.0009957  0.03346  0.01794  0.02144  -0.5578  0.7583
6.381e+09  -0.759  0.5089  0.02363  -0.00447  0.02092  -0.0111  -0.2351  0.8909
6.382e+09  -0.5331  0.7361  -0.02866  -0.02434  0.01175  -0.03228  0.06656  0.9557
6.384e+09  -0.2084  0.8452  0.01198  -0.04477  0.01338  0.02368  0.4013  0.8185
6.385e+09  0.07679  0.9466  0.00234  -0.0174  0.04004  -0.002073  0.6372  0.6673
6.386e+09  0.4682  0.8743  0.01435  0.02788  -0.05979  0.01133  0.7855  0.4242
6.388e+09  0.612  0.6133  -0.01477  -0.01914  -0.03973  -0.02297  0.9208  0.1269
6.389e+09  0.8069  0.3541  -0.02049  -0.007673  0.01005  -0.02794  0.9573  -0.2028
6.39e+09  0.8871  0.0387  0.004017  0.02323  0.02159  0.07674  0.7582  -0.5221
6.391e+09  0.8722  -0.2297  0.00664  -0.004849  -0.03829  0.03747  0.5587  -0.6958
6.392e+09  0.6923  -0.5823  -0.01781  -0.02674  -0.01151  -0.02758  0.2578  -0.9091
6.394e+09  0.5267  -0.7582  0.01369  -0.01829  -0.01703  -0.004526  -0.001087  -0.9071
6.395e+09  0.231  -0.8842  0.005083  0.008329  0.01473  -0.002777  -0.3668  -0.8881
6.396e+09  -0.08837  -0.9029  0.01391  -0.06827  0.002273  -0.002851  -0.5803  -0.6826
6.398e+09  -0.4384  -0.7974  -0.006936  -0.003614  0.05517  0.01165  -0.78  -0.4593
6.399e+09  -0.7187  -0.5622  0.007745  -0.00896  -0.01308  -0.009176  -0.8924  -0.1472
6.4e+09  -0.8627  -0.3338  0.0004934  0.006609  0.009679  -0.01205  -0.9154  0.1319
6.401e+09  -0.8971  -0.0789  -0.0134  -0.01247  -0.01777  -0.01211  -0.8218  0.4425
6.402e+09  -0.8212  0.2723  0.009342  -0.02344  -0.01846  0.04043  -0.5722  0.6644
6.404e+09  -0.7219  0.5387  0.0163  0.03946  0.03973  -0.007571  -0.3101  0.8608
6.405e+09  -0.467  0.7711  -0.02211  -0.03233  -0.008795  -0.008923  -0.00951  0.9323
6.406e+09  -0.163  0.8212  -0.02436  0.01541  0.008963  0.009847  0.2909  0.8725
6.408e+09  0.1128  0.9009  0.02402  0.04534  -0.009594  0.01644  0.6075  0.7046
6.409e+09  0.4207  0.7457  0.04931  0.002257  0.0178  0.0101  0.8325  0.4554
6.41e+09  0.7145  0.5816  -0.02395  -0.03763  0.004424  -0.03275  0.8752  0.1534
6.411e+09  0.8175  0.2873  -0.01441  0.0289  -0.003186  -0.02299  0.885  -0.1064
6.412e+09  0.8865  0.06087  0.02013  0.03709  -0.08551  -0.00496  0.8019  -0.4844
6.414e+09  0.8152  -0.2611  -0.01347  0.04785  0.03435  -0.04205  0.6102  -0.6859
6.415e+09  0.6764  -0.5929  0.006583  -0.05367  -0.01099  0.01743  0.3293  -0.8125
6.416e+09  0.4501  -0.743  -0.001617  -0.02946  -0.002549  -0.02757  0.01347  -0.8609
6.418e+09  0.169  -0.9265  0.0181  0.01613  0.00732  0.002025  -0.2725  -0.8866
6.419e+09  -0.1114  -0.8988  -0.02198  0.009105  -0.007285  0.0484  -0.5076  -0.7017
6.42e+09  -0.4846  -0.7936  -0.004724  0.02472  -0.03711  0.02959  -0.7367  -0.4319
6.421e+09  -0.687  -0.5498  0.02262  0.003427  -0.03327  0.004629  -0.8771  -0.1967
6.422e+09  -0.8315  -0.3357  0.01445  0.02097  -0.03438  -0.01868  -0.8911  0.1107
6.424e+09  -0.8764  -0.01399  -0.03495  -0.006105  0.0394  -0.008922  -0.7536  0.383
6.425e+09  -0.8674  0.3084  -0.0184  -0.002247  -0.02381  -0.01315  -0.617  0.6438
6.426e+09  -0.6671  0.6284  -0.003761  -0.01463  0.02309  0.001832  -0.3651  0.8159
6.428e+09  -0.4067  0.7749  0.01683  -0.04389  -0.02887  -0.01357  -0.0711  0.88
6.429e+09  -0.1338  0.8787  0.01542  0.01785  -0.06851  0.05608  0.2505  0.8318
6.43e+09  0.1668  0.8609  -0.0007826  0.03892  0.01914  -0.02089  0.561  0.6982
6.431e+09  0.4851  0.742  -0.01426  -0.008451  0.009329  -0.021  0.6972  0.4804
6.432e+09  0.7118  0.564  0.0112  0.05795  -0.03036  -0.0313  0.801  0.2132
6.434e+09  0.8147  0.3412  0.03893  -0.004886  0.002814  0.01679  0.875  -0.05879
6.435e+09  0.9137  0.01412  -0.008893  0.05768  0.005742  -0.08329  0.8014  -0.3739
6.436e+09  0.9061  -0.3165  0.06413  0.001768  -0.004277  -0.006037  0.5914  -0.5821
6.438e+09  0.6583  -0.5694  0.05204  0.00931  -0.01981  -0.04566  0.3878  -0.8123
6.439e+09  0.3745  -0.78  0.01388  -0.02696  -0.01844  0.02397  0.01407  -0.8597
6.44e+09  0.1192  -0.8512  0.00858  0.03228  0.008733  -3.85e-05  -0.2014  -0.8139
6.441e+09  -0.1842  -0.8738  -0.01623  -0.03509  -0.05483  0.08059  -0.5313  -0.7073
6.442e+09  -0.4857  -0.7565  -0.0254  -0.008536  0.005073  -0.008385  -0.66  -0.5077
6.444e+09  -0.6931  -0.5148  -0.003186  -0.009322  0.02953  -0.02944  -0.7595  -0.2249
6.445e+09  -0.8451  -0.3043  0.02764  -0.006294  0.03753  -0.02448  -0.8494  0.07912
6.446e+09  -0.897  0.04601  -0.01652  -0.01079  -0.01933  0.002954  -0.7427  0.3553
6.448e+09  -0.8208  0.3795  0.01319  -0.01298  -0.01323  0.02354  -0.628  0.5619
6.449e+09  -0.6425  0.6082  0.02057  -0.001013  -0.05055  0.009732  -0.3517  0.7579
6.45e+09  -0.4412  0.8111  -0.02745  -0.01179  -0.07898  0.05486  -0.08701  0.8575
6.451e+09  -0.1929  0.8325  0.05823  -0.02899  -0.02109  -0.02728  0.2386  0.7808
6.452e+09  0.2248  0.8798  0.04339  -0.001784  -0.01638  -0.01452  0.4995  0.6737
6.454e+09  0.4908  0.8091  -0.01529  -0.00247  0.01563  0.01812  0.6598  0.4469
6.455e+09  0.7642  0.5713  -0.01322  -0.02595  0.005669  -0.03536  0.7749  0.253
6.456e+09  0.8358  0.2909  0.03986  0.003587  -0.0119  -0.01122  0.8273  -0.08608
6.458e+09  0.9084  -0.03502  0.01284  -0.02754  0.01869  0.05021  0.7447  -0.3261
6.459e+09  0.8266  -0.3582  -0.005279  -0.01709  0.04295  0.01938  0.5503  -0.5858
6.46e+09  0.6563  -0.6196  0.00972  0.005903  -0.02543  0.0313  0.3538  -0.7252
6.461e+09  0.4021  -0.81  -0.002949  -0.005989  -0.0179  0.01143  0.1031  -0.8361
6.462e+09  0.04629  -0.8977  -0.02676  -0.02793  0.002977  -0.01611  -0.2142  -0.8118
6.464e+09  -0.1538  -0.8566  0.02146  0.03144  0.01742  -0.01012  -0.4714  -0.7001
6.465e+09  -0.4893  -0.7838  -0.007441  -0.005286  -0.04768  0.03177  -0.6793  -0.4309
6.466e+09  -0.7421  -0.5209  0.004394  0.003974  -0.01481  -0.04757  -0.8276  -0.196
6.468e+09  -0.9125  -0.27  -0.04725  -6.492e-05  0.04481  -0.008337  -0.8078  0.1104
6.469e+09  -0.875  0.03132  0.001279  -0.01558  0.07184  0.01706  -0.7465  0.3124
6.47e+09  -0.8562  0.3965  -0.0624  0.02646  -0.004783  0.01456  -0.5584  0.5767
6.471e+09  -0.711  0.5699  -0.04934  0.01988  -0.02416  -0.01383  -0.3957  0.7367
6.472e+09  -0.4089  0.776  -0.005886  0.01165  -0.0003934  -0.05175  -0.03945  0.7537
6.474e+09  -0.1303  0.9363  -0.008181  -0.03202  0.01752  0.03067  0.1927  0.7952
6.475e+09  0.2246  0.9243  -0.002148  0.00458  0.02039  -0.007475  0.4564  0.6233
6.476e+09  0.5375  0.8238  -0.002376  -0.02991  0.05654  -0.01683  0.6921  0.4341
6.478e+09  0.7673  0.5543  0.05443  -0.00571  -0.001681  0.01318  0.779  0.1947
6.479e+09  0.9337  0.2379  0.02216  0.04512  -0.04223  0.00128  0.7983  -0.08272
6.48e+09  0.9581  -0.1022  -0.008679  -0.01053  0.01385  -0.001093  0.7369  -0.3523
6.481e+09  0.8042  -0.4446  0.02404  0.002071  -0.04452  0.04461  0.5151  -0.6032
6.482e+09  0.7059  -0.6468  0.01544  -0.001097  0.0003596  0.01101  0.3395  -0.6922
6.484e+09  0.4285  -0.8228  0.02027  -0.01307  -0.00665  0.03566  0.09988  -0.7207
6.485e+09  0.08478  -0.9254  -0.004071  0.00279  0.01711  -0.01681  -0.2215  -0.7601
6.486e+09  -0.281  -0.8817  0.06194  -0.03143  -0.01549  0.006952  -0.4853  -0.6331
6.488e+09  -0.5393  -0.7793  0.01015  0.007815  -0.02335  0.02685  -0.6582  -0.4639
6.489e+09  -0.7305  -0.4946  -0.00141  -0.01519  0.09984  0.008872  -0.7708  -0.2016
6.49e+09  -0.9117  -0.2241  -0.0502  -0.004845  -0.0385  0.03916  -0.7915  0.08819
6.491e+09  -0.9652  0.1501  -0.02835  -0.005501  -0.05768  0.001419  -0.7054  0.3628
6.492e+09  -0.8254  0.4246  0.02983  -0.005771  -0.00829  0.005742  -0.5241  0.556
6.494e+09  -0.6368  0.7146  -0.02075  -0.01349  -0.04813  0.01418  -0.3355  0.6975
6.495e+09  -0.3927  0.8911  -0.0271  -8.736e-05  0.0002971  0.05717  -0.04918  0.7852
6.496e+09  -0.0574  0.9594  0.02745  -0.003928  0.02214  0.001098  0.223  0.7265
6.498e+09  0.2945  0.8914  -0.04841  -0.01545  0.02069  0.01294  0.4642  0.6228
6.499e+09  0.595  0.7813  0.04534  0.001656  -0.01108  -0.02893  0.6789  0.424
6.5e+09  0.8129  0.5446  0.05238  -0.01677  0.001016  0.006906  0.7496  0.1371
6.501e+09  0.9336  0.1969  -0.007302  0.03424  -0.06159  -0.01901  0.7423  -0.1078
6.502e+09  0.9528  -0.1137  -0.01333  0.007742  0.0514  0.02182  0.676  -0.3404
6.504e+09  0.7959  -0.4781  0.002663  0.02809  0.01511  -0.01286  0.5117  -0.5816
6.505e+09  0.6036  -0.7396  -0.02395  0.01634  0.04595  -0.0144  0.2217  -0.6763
6.506e+09  0.3346  -0.9045  -0.03169  -0.001055  0.02048  0.04188  -0.01174  -0.7598
6.508e+09  0.03279  -0.949  0.01886  0.01555  0.00469  0.01112  -0.2344  -0.7177
6.509e+09  -0.3033  -0.9095  -0.01823  0.05463  0.01242  0.01993  -0.511  -0.575
6.51e+09  -0.6145  -0.7307  -0.009278  -0.008296  0.03772  -0.02707  -0.6412  -0.377
6.511e+09  -0.8583  -0.5066  0.0125  0.01997  -0.01897  -0.06213  -0.7676  -0.153
6.512e+09  -0.8948  -0.1802  0.01862  0.01423  -0.007418  0.008431  -0.7215  0.129
6.514e+09  -0.9639  0.1843  0.03783  0.02348  -0.04818  -0.01385  -0.5961  0.3828
6.515e+09  -0.86  0.4793  0.01966  0.01331  0.00572  -0.006364  -0.4817  0.5544
6.516e+09  -0.581  0.7762  0.003031  0.0002764  -0.02875  -0.004718  -0.2397  0.7238
6.518e+09  -0.2552  0.94  0.01237  0.01494  -0.0167  -0.01134  0.01566  0.7054
6.519e+09  0.03716  0.9735  0.03554  0.004943  -0.00394  -0.03987  0.3154  0.6527
6.52e+09  0.3766  0.9295  0.04161  0.0194  -0.07152  0.001566  0.4861  0.5549
6.521e+09  0.6693  0.7224  -0.03048  0.01904  -0.02137  0.03135  0.6606  0.3506
6.522e+09  0.8622  0.4371  0.02901  0.01266  -0.007772  -0.02391  0.7479  0.08132
6.524e+09  1.045  0.1314  0.02953  -0.007631  -0.04118  0.01582  0.7166  -0.1497
6.525e+09  0.948  -0.2306  0.01973  -0.008193  0.006457  0.007244  0.6256  -0.3749
6.526e+09  0.8781  -0.5522  0.0009684  -0.006556  -0.01352  -0.01026  0.4411  -0.5699
6.528e+09  0.5464  -0.8148  -0.01643  -0.01856  -0.01095  -0.0236  0.1847  -0.6701
6.529e+09  0.2684  -0.9687  -0.00583  0.02615  0.07002  0.01544  -0.03074  -0.6772
6.53e+09  -0.06501  -1.035  0.004183  -0.01087  0.02042  -0.05709  -0.2401  -0.6149
6.531e+09  -0.4119  -0.9188  0.02946  -0.03392  -0.006391  -0.03958  -0.5199  -0.489
6.532e+09  -0.7333  -0.7062  0.03486  -0.0179  -0.01479  0.0003766  -0.584  -0.3013
6.534e+09  -0.8952  -0.4052  -0.01393  -0.0124  0.02757  -0.04014  -0.6523  -0.1003
6.535e+09  -0.9399  -0.04684  0.007794  0.0298  0.01011  0.03057  -0.6648  0.1217
6.536e+09  -0.8717  0.3011  -0.01322  0.01771  0.0188  0.02843  -0.5673  0.2938
6.538e+09  -0.7831  0.5524  -0.008467  0.01825  0.03639  0.04413  -0.4531  0.4526
6.539e+09  -0.5767  0.8766  0.006224  -0.0006836  0.0256  0.05279  -0.3187  0.5907
6.54e+09  -0.1581  0.9883  -0.05433  -0.004399  -0.06211  -0.03183  -0.02985  0.6427
6.541e+09  0.08025  0.9649  -0.04349  -0.0005749  -0.04718  0.03614  0.1949  0.6859
6.542e+09  0.5113  0.7902  -0.01312  0.003835  -0.0002492  0.04003  0.4504  0.5707
6.544e+09  0.7721  0.6274  0.02156  0.007843  -0.01239  -0.004144  0.5907  0.3998
6.545e+09  0.8485  0.3618  -0.02009  -0.003339  0.04525  0.05264  0.6749  0.1709
6.546e+09  1.01  -0.02412  0.03205  0.002146  0.02973  -0.002769  0.7278  -0.1059
6.548e+09  0.9505  -0.3266  -0.02246  0.02053  0.0093  0.01584  0.6733  -0.326
6.549e+09  0.7332  -0.6334  0.003354  -0.01939  -0.007047  0.05838  0.5115  -0.5585
6.55e+09  0.4688  -0.835  0.0172  -0.001742  0.03779  -0.02293  0.2953  -0.6563
