# Hz S RI R 50
6.25e+09  -0.2976  0.8742  -0.01803  -0.02113  0.009528  -0.03128  0.1444  0.4814
6.251e+09  -0.01192  0.872  -0.01425  0.02369  -0.006425  0.01614  0.3694  0.4052
6.252e+09  0.3456  0.784  0.001416  0.03227  0.01159  0.02918  0.5228  0.2246
6.254e+09  0.6176  0.6843  0.03643  -0.02591  -0.01736  -0.008974  0.6033  0.02287
6.255e+09  0.7691  0.4147  -0.005502  -0.007004  0.04733  -0.003172  0.5976  -0.2547
6.256e+09  0.8577  0.1253  0.00568  0.02001  0.009007  0.005152  0.4626  -0.4559
6.258e+09  0.8723  -0.2315  0.01457  0.01119  -0.0096  0.01227  0.247  -0.6215
6.259e+09  0.7612  -0.4262  0.003855  0.01293  0.006399  0.05952  0.05215  -0.6893
6.26e+09  0.5105  -0.6694  0.001924  -0.02797  0.001483  -0.01609  -0.2027  -0.6609
6.261e+09  0.3159  -0.8236  -0.0008409  0.007861  -0.0009359  0.03218  -0.4058  -0.5366
6.262e+09  -0.009538  -0.8517  -0.02274  -0.001598  -0.0006763  -0.02583  -0.652  -0.3503
6.264e+09  -0.3433  -0.7936  0.007629  -0.002314  -0.0005885  -0.03225  -0.7302  -0.09485
6.265e+09  -0.5812  -0.6367  0.005299  0.003868  0.0226  -0.03002  -0.7009  0.1819
6.266e+09  -0.7656  -0.4542  -0.01763  -0.01592  0.01519  0.02707  -0.642  0.3925
6.268e+09  -0.9374  -0.1128  0.00965  -0.01459  -0.01396  0.03099  -0.4522  0.6175
6.269e+09  -0.7316  0.2234  0.01126  0.01656  0.03827  0.01112  -0.2075  0.6875
6.27e+09  -0.7397  0.4937  0.01963  -0.02009  0.0799  0.006436  0.06691  0.7208
6.271e+09  -0.5148  0.6517  -0.0035  -0.01984  -0.0006418  0.02598  0.2821  0.6626
6.272e+09  -0.236  0.7949  0.03072  0.004477  0.0225  0.0006706  0.5489  0.5059
6.274e+09  0.06935  0.8203  -0.002561  0.01754  0.01495  -0.02982  0.6995  0.2922
6.275e+09  0.308  0.8329  0.01901  0.01183  -0.02753  0.007265  0.7521  0.009618
6.276e+09  0.5695  0.6435  0.0132  -0.01595  -0.02337  0.02098  0.7347  -0.2678
6.278e+09  0.7714  0.3641  0.0124  -0.01405  0.05411  0.01789  0.6253  -0.4814
6.279e+09  0.8701  0.07226  0.01139  0.005993  0.04548  -0.02461  0.4102  -0.6496
6.28e+09  0.8467  -0.203  0.003189  -0.02208  0.0307  0.003972  0.1549  -0.7688
6.281e+09  0.6985  -0.467  0.001245  -0.0008585  0.01364  0.01214  -0.1118  -0.8032
6.282e+09  0.4864  -0.7086  -0.01516  -0.01965  -0.01073  0.01475  -0.3649  -0.7225
6.284e+09  0.2065  -0.7782  0.01714  0.03427  -0.007661  0.009593  -0.6159  -0.5454
6.285e+09  -0.04077  -0.7951  -0.02667  -0.02609  0.04545  0.01737  -0.7255  -0.2767
6.286e+09  -0.3355  -0.753  -0.004673  0.01327  0.03281  0.01473  -0.7856  -0.0071
6.288e+09  -0.544  -0.5346  -0.00802  0.01005  0.00567  0.02085  -0.7373  0.2687
6.289e+09  -0.7466  -0.3338  0.00406  -0.03218  0.05574  -0.05035  -0.6247  0.5129
6.29e+09  -0.8161  -0.06595  -0.01375  -0.02471  0.01255  -0.03295  -0.408  0.6885
6.291e+09  -0.8097  0.2128  -0.002105  0.01649  0.02162  -0.005007  -0.1697  0.8103
6.292e+09  -0.6882  0.4988  -0.01325  -0.01075  -0.001757  -0.009629  0.1165  0.8185
6.294e+09  -0.473  0.6758  0.02423  -0.002158  0.02097  0.02973  0.389  0.6969
6.295e+09  -0.22  0.8404  0.03074  0.03466  -0.02824  -0.0185  0.6237  0.5472
6.296e+09  0.08152  0.8546  0.01226  0.03505  0.01602  -0.006198  0.7846  0.2715
6.298e+09  0.4251  0.7721  0.0244  -0.03525  0.01515  -0.04808  0.8481  -0.004086
6.299e+09  0.6217  0.5776  -0.01974  0.02293  -0.03175  0.04126  0.7797  -0.2825
6.3e+09  0.6944  0.346  0.01232  -0.0003794  -0.003742  -0.001769  0.6856  -0.5537
6.301e+09  0.8799  0.04127  -0.0005148  0.01094  -0.01574  -0.06087  0.4153  -0.7053
6.302e+09  0.8305  -0.251  -0.005046  0.02606  -0.01682  -0.003651  0.1704  -0.818
6.304e+09  0.6928  -0.55  0.001144  0.02236  -0.01425  0.007496  -0.1328  -0.8456
6.305e+09  0.4638  -0.7303  -0.004458  0.02469  -0.007488  0.01819  -0.411  -0.7352
6.306e+09  0.1819  -0.8546  0.01097  -0.006544  -0.01243  0.007578  -0.6477  -0.5688
6.308e+09  -0.1437  -0.849  0.006273  -0.009598  0.04038  0.0674  -0.8247  -0.2757
6.309e+09  -0.4771  -0.7295  -0.008925  -0.01037  0.04151  0.01557  -0.8628  -0.01158
6.31e+09  -0.7208  -0.5263  0.01743  0.01448  0.004099  0.04059  -0.7978  0.3006
6.311e+09  -0.8291  -0.2845  0.02555  -0.0221  -0.02812  0.01338  -0.648  0.5582
6.312e+09  -0.8473  0.0565  0.001022  -0.01743  0.01382  0.03572  -0.4546  0.7498
6.314e+09  -0.8205  0.3311  0.01237  0.009198  -0.01449  0.002309  -0.1829  0.8768
6.315e+09  -0.6103  0.5804  -0.009766  0.02563  -0.03224  0.01128  0.129  0.8447
6.316e+09  -0.43  0.7606  -0.002567  -0.001294  -0.0003366  0.05374  0.4281  0.7577
6.318e+09  -0.0974  0.8358  0.01446  0.006217  -0.0259  -0.04298  0.6622  0.5275
6.319e+09  0.1513  0.8843  0.01256  -0.01568  0.01382  -0.004927  0.8228  0.3268
6.32e+09  0.4538  0.6427  -0.0002106  0.02396  0.02153  0.02495  0.8855  0.02066
6.321e+09  0.6878  0.5293  -0.0154  0.007223  -0.02046  0.02226  0.8621  -0.273
6.322e+09  0.8244  0.249  0.003693  -0.0218  -0.02194  0.02377  0.6897  -0.5356
6.324e+09  0.8397  -0.07663  -0.01678  -0.007274  -0.01883  -0.001405  0.482  -0.7959
6.325e+09  0.7462  -0.3781  -0.005625  -0.03339  -0.01314  0.03569  0.1925  -0.887
6.326e+09  0.6571  -0.6301  0.00182  -0.04308  0.01286  -0.02083  -0.1005  -0.8768
6.328e+09  0.3818  -0.7544  -0.01694  -0.002651  0.01558  0.07369  -0.4562  -0.8135
6.329e+09  0.08127  -0.8883  0.008911  0.00901  0.04208  -0.02027  -0.6951  -0.6178
6.33e+09  -0.2343  -0.857  0.004229  0.01122  -0.001432  0.0594  -0.8304  -0.3392
6.331e+09  -0.525  -0.7161  0.03227  -0.003186  -0.02022  -0.000901  -0.924  -0.0509
6.332e+09  -0.7321  -0.5247  -0.007806  0.004194  -0.01717  -0.05022  -0.8786  0.281
6.334e+09  -0.8794  -0.2335  -0.02311  0.01926  -0.03152  0.009089  -0.7407  0.5963
6.335e+09  -0.8405  0.07911  0.03098  0.002522  0.01919  0.01251  -0.5296  0.8171
6.336e+09  -0.7959  0.3922  0.009553  -0.02898  -0.01451  0.0009191  -0.1611  0.9082
6.338e+09  -0.5926  0.6664  -0.001653  0.01596  -0.005381  0.03984  0.1231  0.9304
6.339e+09  -0.3407  0.8807  -0.007602  0.007347  -0.008043  0.003427  0.4297  0.8175
6.34e+09  -0.05227  0.8862  -0.05443  0.0337  0.04392  0.01785  0.7011  0.6276
6.341e+09  0.3172  0.8424  0.008758  0.01438  0.02926  0.005615  0.8303  0.353
6.342e+09  0.5701  0.6908  0.006597  0.009903  -0.00517  -0.005624  0.9455  0.03478
6.344e+09  0.7438  0.4371  -0.004056  0.0002977  -0.03764  0.04036  0.8399  -0.2562
6.345e+09  0.8595  0.1093  0.02261  -0.004649  -0.03592  0.03276  0.7767  -0.5682
6.346e+09  0.9134  -0.187  -0.04301  0.03529  0.06275  -0.004221  0.4662  -0.785
6.348e+09  0.784  -0.4341  0.01816  -0.00181  -0.02233  -0.06064  0.2026  -0.877
6.349e+09  0.5603  -0.7095  0.03319  -0.04706  0.05934  -0.007261  -0.0902  -0.9529
6.35e+09  0.3001  -0.8362  -0.007191  0.02981  -0.06646  -0.03525  -0.4327  -0.8613
6.351e+09  -0.06801  -0.9312  -0.00412  0.002278  -0.01665  0.006985  -0.7176  -0.6669
6.352e+09  -0.3717  -0.7779  -0.01836  -0.02502  0.02332  -0.07028  -0.8636  -0.3534
6.354e+09  -0.6241  -0.6441  -0.01742  -0.00726  -0.01844  0.0156  -0.9403  -0.05778
6.355e+09  -0.8304  -0.3859  0.02223  0.01297  -0.05388  0.003835  -0.9078  0.3137
6.356e+09  -0.9144  -0.0985  0.03089  0.01423  -0.0137  -0.01239  -0.7911  0.5771
6.358e+09  -0.8667  0.257  -0.002727  -0.01731  0.02  0.0283  -0.5562  0.7871
6.359e+09  -0.7258  0.5287  0.01305  -0.004881  -0.01442  -0.02699  -0.2077  0.9028
6.36e+09  -0.5669  0.7277  0.008609  -0.0285  0.05014  -0.009898  0.1083  0.9299
6.361e+09  -0.1765  0.8462  0.01451  -0.008369  0.003431  0.005097  0.3762  0.7907
6.362e+09  0.006385  0.9097  0.009816  -0.002637  -0.02111  0.01501  0.6391  0.6657
6.364e+09  0.3996  0.8298  -0.0159  -0.01848  -0.004637  0.01417  0.8974  0.3746
6.365e+09  0.6512  0.6472  0.01057  0.01293  -0.02772  0.04715  0.9534  0.05791
6.366e+09  0.8097  0.4038  -0.006075  0.001565  0.005368  0.006004  0.9306  -0.2613
6.368e+09  0.9667  0.02722  -0.005482  0.02126  -0.0137  0.04292  0.7944  -0.5325
6.369e+09  0.8061  -0.2789  0.001135  0.006013  -0.005242  -0.04346  0.5307  -0.7954
6.37e+09  0.7292  -0.5416  0.006024  0.0142  0.02366  -0.009328  0.2535  -0.9247
6.371e+09  0.5211  -0.7637  -0.004557  0.03206  0.06254  0.04094  -0.06518  -0.9537
6.372e+09  0.1421  -0.8432  -0.009992  0.02673  0.002571  0.003638  -0.4064  -0.8883
6.374e+09  -0.09828  -0.9115  -0.005878  0.02848  0.02916  -0.003737  -0.7244  -0.7123
6.375e+09  -0.4097  -0.7881  0.04782  0.02615  -0.004085  0.00539  -0.8551  -0.3774
6.376e+09  -0.7304  -0.5583  0.01713  -0.03107  0.001415  0.02774  -0.9549  -0.09805
6.378e+09  -0.8084  -0.3042  -0.004265  -0.006619  0.02583  -0.02324  -0.8999  0.2384
6.379e+09  -0.8718  0.007415  -0.01364  0.02874  0.03102  -0.006926  -0.819  0.5263
6.38e+09  -0.8348  0.3172  0.006348  0.01859  -0.02768  0.02823  -0.5465  0.7914
6.381e+09  -0.6448  0.6043  0.05138  0.06191  -0.02572  0.03525  -0.2801  0.8767
6.382e+09  -0.4104  0.787  -0.01221  -0.003945  0.02213  0.02428  0.05601  0.9397
6.384e+09  -0.1388  0.9212  -0.006506  -0.02347  0.002927  0.01299  0.3772  0.8564
6.385e+09  0.1972  0.8832  -0.002937  0.02436  0.005217  -0.03873  0.6675  0.7363
6.386e+09  0.4755  0.7635  0.05453  -0.006707  -0.02248  0.04815  0.8193  0.4471
6.388e+09  0.6901  0.602  0.06072  -0.00787  0.0191  0.01558  0.9199  0.109
6.389e+09  0.9  0.298  0.0403  0.01103  0.01088  0.01315  0.9166  -0.223
6.39e+09  0.8851  -0.01626  0.02494  -0.003696  0.01934  -0.008046  0.7933  -0.4836
6.391e+09  0.8585  -0.3255  -0.009908  -0.01339  0.01934  -0.02003  0.5532  -0.7208
6.392e+09  0.6672  -0.5665  0.005798  -0.01055  0.02042  -0.01776  0.3079  -0.8815
6.394e+09  0.4026  -0.8037  -0.07689  -0.0293  0.05844  0.03411  -0.01639  -0.9616
6.395e+09  0.1063  -0.8863  0.02585  0.004447  -0.01134  0.002914  -0.2905  -0.8416
6.396e+09  -0.222  -0.8938  0.01169  -0.03369  -0.01172  0.01043  -0.6243  -0.6718
6.398e+09  -0.4268  -0.7397  -0.02045  0.008561  -0.001948  -0.02797  -0.8028  -0.441
6.399e+09  -0.6898  -0.5195  0.001806  0.01395  0.01297  -0.0134  -0.8962  -0.1428
6.4e+09  -0.8704  -0.2579  -0.01804  0.01281  -0.03517  -0.02091  -0.8699  0.2268
6.401e+09  -0.8452  0.05426  -0.006545  0.02176  -0.002479  -0.04581  -0.7853  0.4611
6.402e+09  -0.8415  0.3999  5.574e-05  0.01772  0.01965  0.02836  -0.5797  0.6735
6.404e+09  -0.6535  0.6457  0.02227  0.0002355  -0.01309  -0.03476  -0.352  0.9168
6.405e+09  -0.3644  0.8309  -0.009553  0.02411  -0.06689  0.02595  0.03899  0.8726
6.406e+09  -0.1212  0.8557  0.02831  0.001703  0.02199  -0.04254  0.3049  0.8657
6.408e+09  0.2088  0.8324  -0.04949  -0.02739  -0.003549  -0.009406  0.6096  0.6547
6.409e+09  0.5387  0.7564  -0.0184  0.006262  0.03409  0.03974  0.802  0.4422
6.41e+09  0.7627  0.5269  0.03667  0.03357  -0.0002269  -0.01165  0.8998  0.1947
6.411e+09  0.8331  0.2563  -0.004993  0.04135  0.01047  0.01208  0.8933  -0.1673
6.412e+09  0.9036  -0.1013  0.04196  -0.05639  -0.04076  0.0419  0.828  -0.4263
6.414e+09  0.8643  -0.3587  0.003793  -0.03099  0.03197  -0.01576  0.6078  -0.6586
6.415e+09  0.6883  -0.6515  -0.02283  -0.001782  0.004639  -0.02443  0.3256  -0.8642
6.416e+09  0.3347  -0.8041  0.0429  0.004035  -0.004679  -0.004837  0.02075  -0.9071
6.418e+09  0.06646  -0.853  0.01101  0.02022  0.001408  -0.004883  -0.2593  -0.8166
6.419e+09  -0.185  -0.8795  0.01118  0.0188  0.06154  0.02511  -0.536  -0.7121
6.42e+09  -0.5377  -0.7062  0.009754  -0.008665  0.009505  -0.003702  -0.7896  -0.4885
6.421e+09  -0.7424  -0.5319  0.02749  0.008984  0.007644  0.001742  -0.8481  -0.1977
6.422e+09  -0.874  -0.2109  -0.01946  0.01492  0.01499  -0.0002542  -0.8767  0.1331
6.424e+09  -0.8582  0.1004  -0.04192  0.02018  -0.007078  -0.007891  -0.7975  0.4236
6.425e+09  -0.8023  0.3997  0.0144  0.02042  0.0114  -0.04174  -0.5775  0.6353
6.426e+09  -0.6261  0.6802  -0.005966  0.0003047  -0.02859  0.02749  -0.3326  0.7922
6.428e+09  -0.3708  0.787  0.0225  -0.002819  0.04938  -0.03555  -0.05309  0.8943
6.429e+09  -0.02983  0.882  -0.02351  0.01603  0.004394  -0.02499  0.2527  0.8795
6.43e+09  0.3135  0.8818  -0.03257  0.02443  0.0287  -0.007989  0.5448  0.6829
6.431e+09  0.5585  0.7213  -0.0002803  0.006676  0.00733  0.04196  0.7439  0.4801
6.432e+09  0.6942  0.4903  -0.002795  0.03962  0.04566  -0.0128  0.8526  0.186
6.434e+09  0.8977  0.2537  -0.02084  -0.04416  0.03231  0.001322  0.8848  -0.1116
6.435e+09  0.9036  -0.08067  -0.03468  0.01836  -0.03168  -0.03344  0.825  -0.4115
6.436e+09  0.8398  -0.386  0.005204  0.006605  -0.02571  -0.02583  0.5905  -0.5933
6.438e+09  0.6201  -0.6362  -0.01961  0.01043  0.02246  -0.00372  0.393  -0.8249
6.439e+09  0.338  -0.8584  -0.01864  0.01532  0.01135  -0.01424  0.06079  -0.8669
6.44e+09  0.03245  -0.8846  -0.004818  -0.02127  0.01543  -0.01637  -0.2493  -0.8158
6.441e+09  -0.2304  -0.8089  0.008731  -0.01435  -0.0005215  0.03255  -0.5401  -0.7113
6.442e+09  -0.5744  -0.6776  -0.02711  -0.01804  0.006553  -0.006752  -0.6696  -0.5194
6.444e+09  -0.7597  -0.5345  -0.02673  -0.03693  -0.003908  -0.05492  -0.8305  -0.2191
6.445e+09  -0.8452  -0.2042  0.004784  -0.05681  -0.006317  0.0007712  -0.857  0.1046
6.446e+09  -0.9336  0.1017  0.05219  -0.00235  0.02479  -0.0169  -0.7241  0.3417
6.448e+09  -0.8068  0.4294  -0.05427  0.008039  0.058  0.01487  -0.5706  0.5942
6.449e+09  -0.6153  0.6617  -0.007342  -0.00482  0.01459  -0.02646  -0.3685  0.8315
6.45e+09  -0.3326  0.9035  0.0049  -0.01409  -0.03806  0.0335  -0.08352  0.873
6.451e+09  -0.02485  0.9103  -0.05707  0.02164  -0.02188  -0.00531  0.2068  0.7682
6.452e+09  0.282  0.8943  -0.03762  0.009839  0.04129  0.0167  0.4824  0.6952
6.454e+09  0.5194  0.7696  -0.01246  0.007392  -0.02433  -0.01561  0.7055  0.5091
6.455e+09  0.7691  0.5135  -0.03098  -0.02364  -0.02669  -0.04472  0.8172  0.2358
6.456e+09  0.8985  0.1513  0.01108  -0.01976  0.006807  -0.01808  0.7944  -0.06202
6.458e+09  0.8568  -0.1385  -0.01891  -0.02459  0.002941  -0.03853  0.765  -0.3602
6.459e+09  0.8217  -0.4458  -0.0195  0.0141  0.06445  0.02869  0.5371  -0.5874
6.46e+09  0.6002  -0.6737  0.006321  -0.005512  -0.002051  0.02621  0.3285  -0.7384
6.461e+09  0.3862  -0.7904  -0.005248  -0.03417  0.009404  -0.056  0.03975  -0.8336
6.462e+09  0.05731  -0.8994  -0.03581  0.05909  -0.0003411  0.006114  -0.2241  -0.7944
6.464e+09  -0.2753  -0.8986  0.03975  -0.03035  0.003793  -0.0008713  -0.4712  -0.6817
6.465e+09  -0.5679  -0.6786  0.02979  0.02527  0.04701  0.0316  -0.687  -0.4818
6.466e+09  -0.8114  -0.5054  -0.04341  -0.01568  -0.01666  0.02074  -0.7535  -0.2168
6.468e+09  -0.8854  -0.1608  0.0163  0.01854  0.02313  0.03761  -0.7474  0.1218
6.469e+09  -0.9044  0.1115  -0.01574  -0.01111  -0.006294  -0.004582  -0.7449  0.3869
6.47e+09  -0.8178  0.4625  -0.02289  0.04119  0.03611  -0.07901  -0.5897  0.6027
6.471e+09  -0.6051  0.7066  -0.0186  0.0252  -0.009935  -0.0004142  -0.313  0.7483
6.472e+09  -0.3059  0.8407  0.008239  0.01065  0.06689  0.03834  -0.03215  0.7638
6.474e+09  0.01989  0.8847  0.03366  0.006994  0.009491  -0.01519  0.2279  0.7616
6.475e+09  0.2965  0.9043  0.03952  0.007632  0.001878  0.006879  0.5198  0.659
6.476e+09  0.6049  0.6887  0.009191  -0.02758  0.05347  -0.02098  0.659  0.4421
6.478e+09  0.7939  0.4452  0.04643  0.01235  0.01025  -0.01931  0.7524  0.1686
6.479e+09  0.9338  0.1451  -0.05307  -0.03351  0.02893  -0.004763  0.7478  -0.08354
6.48e+09  0.9038  -0.1593  -0.02283  0.02642  0.001746  0.006747  0.7424  -0.3326
6.481e+09  0.8234  -0.4533  0.02394  0.01818  -0.02772  -0.03558  0.5409  -0.5444
6.482e+09  0.611  -0.7242  0.01089  0.02562  0.006988  0.009265  0.347  -0.7313
6.484e+09  0.3071  -0.8887  0.02524  -0.0419  0.002308  -0.03002  0.07486  -0.7558
6.485e+09  -0.009492  -0.9198  0.03705  -0.004198  -0.0161  -0.03272  -0.2412  -0.7669
6.486e+09  -0.3761  -0.8691  -0.01796  -0.02557  -0.03595  -0.0731  -0.4771  -0.6387
6.488e+09  -0.5914  -0.7149  -0.008781  -0.01127  0.003137  -0.008009  -0.6317  -0.4817
6.489e+09  -0.8442  -0.4417  -0.01343  0.002024  0.005788  0.01387  -0.7661  -0.2055
6.49e+09  -0.9598  -0.1522  -0.003909  0.004433  0.01869  0.004122  -0.7594  0.07145
6.491e+09  -0.9668  0.1739  0.009646  -0.01755  -0.01655  0.03748  -0.719  0.3576
6.492e+09  -0.78  0.5411  0.01585  0.003337  0.007762  -0.04119  -0.5283  0.5801
6.494e+09  -0.5672  0.7516  -0.02745  0.02519  0.01051  -0.01588  -0.3068  0.6944
6.495e+09  -0.247  0.9687  0.04877  0.02327  -0.01211  -0.04989  -0.01618  0.7455
6.496e+09  0.1317  0.854  -0.03673  0.01053  -0.01655  -0.006799  0.2233  0.7161
6.498e+09  0.3888  0.8266  -0.01632  -0.0008165  -0.02544  0.04189  0.4348  0.5825
6.499e+09  0.6269  0.6535  0.004362  -0.01375  -0.02458  -0.008749  0.6527  0.4071
6.5e+09  0.8764  0.4071  0.01011  -0.007604  -0.02181  0.0208  0.748  0.1681
6.501e+09  0.9602  0.1132  0.003042  -0.001943  0.001539  -0.007716  0.7615  -0.1097
6.502e+09  0.9115  -0.2838  0.04481  -0.01209  0.007723  0.03486  0.6943  -0.3614
6.504e+09  0.8017  -0.5653  0.006647  -0.03218  0.01914  0.02255  0.5329  -0.5885
6.505e+09  0.5473  -0.7969  0.02104  -0.003416  -0.03768  -0.03657  0.2593  -0.6875
6.506e+09  0.2344  -0.9656  0.006256  0.00755  -0.02397  -0.0282  0.01688  -0.77
6.508e+09  -0.08371  -0.9374  0.0005423  0.007404  -0.0176  -0.009374  -0.2579  -0.7048
6.509e+09  -0.4116  -0.8489  0.02676  -0.02436  -0.03885  -0.04469  -0.4841  -0.5917
6.51e+09  -0.6218  -0.669  -0.006655  0.03562  0.03458  -0.01724  -0.6542  -0.4274
6.511e+09  -0.8069  -0.3626  0.04974  0.01593  -0.03243  -0.04085  -0.7443  -0.1594
6.512e+09  -0.9886  0.01254  -0.01984  -0.01994  0.01619  0.01723  -0.745  0.1149
6.514e+09  -0.9571  0.2825  -0.002956  -0.02515  0.004017  -0.006039  -0.6893  0.3724
6.515e+09  -0.7778  0.6043  -0.009445  0.01543  0.04313  -0.002229  -0.4505  0.5858
6.516e+09  -0.5187  0.8496  -0.01381  0.01152  -0.01029  -0.003678  -0.2603  0.7303
6.518e+09  -0.2003  0.9698  0.004328  -0.03614  0.0003829  -0.01281  0.04137  0.7349
6.519e+09  0.1847  0.9736  -0.0107  0.03222  0.009962  0.0185  0.2669  0.6672
6.52e+09  0.481  0.8807  0.02263  0.001464  -0.009328  -0.02021  0.4846  0.5145
6.521e+09  0.7632  0.5724  -0.01074  -0.04466  0.013  -0.02449  0.6478  0.3572
6.522e+09  0.9377  0.332  0.02043  -0.01154  -0.009798  0.001563  0.7519  0.09712
6.524e+09  1.064  -0.01601  -0.003468  -0.007215  -0.03462  0.02558  0.6855  -0.1625
6.525e+09  0.8894  -0.3666  -0.00252  -0.008334  0.02047  -0.06456  0.6211  -0.3976
6.526e+09  0.7001  -0.6312  0.01524  0.03235  0.02474  -0.01248  0.4632  -0.5907
6.528e+09  0.4542  -0.8511  -0.00458  -0.02297  -0.03419  0.05038  0.2259  -0.6816
6.529e+09  0.05154  -0.9176  -0.004185  -0.02638  0.003046  0.03784  -0.05724  -0.6656
6.53e+09  -0.1844  -1.031  0.04034  0.00625  -0.05709  0.004434  -0.2374  -0.6513
6.531e+09  -0.5888  -0.7891  -0.005338  0.01555  0.008448  -0.03432  -0.4518  -0.4775
6.532e+09  -0.8501  -0.5286  -0.007716  0.01077  0.03794  -0.04295  -0.5854  -0.3203
6.534e+09  -0.9313  -0.2832  -0.01505  -0.0004053  -0.03902  -0.01679  -0.6179  -0.08369
6.535e+09  -0.9934  0.07623  -0.01986  0.005268  -0.06848  0.04327  -0.6097  0.1421
6.536e+09  -0.8554  0.3845  -0.0343  0.01448  0.02048  -0.007436  -0.5788  0.2821
6.538e+09  -0.6014  0.7806  0.02149  -0.03621  0.0196  -0.04158  -0.4539  0.4678
6.539e+09  -0.4037  0.8851  -0.03483  0.01536  0.0131  -0.01492  -0.2614  0.6156
6.54e+09  -0.04637  0.9628  -0.00243  0.006119  -0.04981  -0.001239  -0.07245  0.6858
6.541e+09  0.286  0.9451  0.03626  0.004358  0.0231  0.04611  0.2108  0.6421
6.542e+09  0.5905  0.7964  -0.01737  -0.0357  -0.03296  -0.03669  0.4211  0.579
6.544e+09  0.8166  0.4422  -0.0462  -0.01628  -0.009962  -0.003652  0.553  0.3866
6.545e+09  0.998  0.23  0.01316  0.01308  -0.003976  0.03424  0.7071  0.1883
6.546e+09  0.9507  -0.1542  -0.01241  -0.02819  -0.004783  0.0452  0.7142  -0.03333
6.548e+09  0.851  -0.4651  -0.01542  -0.0219  0.02787  0.01386  0.6698  -0.3392
6.549e+09  0.5913  -0.7386  0.003404  -0.01607  -0.01996  -0.02524  0.493  -0.5365
6.55e+09  0.3212  -0.8706  -0.006416  -0.02415  0.01359  0.00456  0.2638  -0.6785
