# Hz S RI R 50
6.25e+09  -0.3371  -0.7409  -0.001903  0.01281  -0.03195  0.02754  0.1549  0.4895
6.251e+09  -0.5601  -0.4947  0.01509  0.007019  -0.003602  0.01035  0.3471  0.4031
6.252e+09  -0.7609  -0.2462  0.03611  -0.03615  -0.006909  -0.00238  0.5228  0.2645
6.254e+09  -0.7998  0.003062  -0.03134  -0.02554  0.01694  0.07605  0.6183  -0.009176
6.255e+09  -0.707  0.342  -0.006801  0.002905  -0.03589  0.06382  0.6114  -0.2783
6.256e+09  -0.6014  0.5442  -0.00522  0.02343  0.05041  -0.04789  0.5021  -0.4408
6.258e+09  -0.3092  0.6564  -0.006659  -0.006565  -0.02115  -0.01418  0.3026  -0.6257
6.259e+09  -0.1432  0.7972  0.009783  0.04538  -0.01023  -0.03001  0.03544  -0.7014
6.26e+09  0.1811  0.7441  -0.01646  0.01228  0.01856  0.02897  -0.2024  -0.6806
6.261e+09  0.4268  0.5917  0.01274  -0.02349  0.01633  0.05632  -0.444  -0.5549
6.262e+09  0.6423  0.4144  0.03002  0.004199  -0.0262  0.02502  -0.6174  -0.3543
6.264e+09  0.8022  0.2534  -0.001211  0.01956  -0.04178  -0.03323  -0.7244  -0.1072
6.265e+09  0.8036  -0.08506  0.004961  -0.00857  0.01023  0.008264  -0.6956  0.1465
6.266e+09  0.696  -0.2912  0.002952  0.01728  -0.01444  0.06315  -0.5722  0.4119
6.268e+09  0.5093  -0.6126  0.04143  -0.003961  0.005916  0.01161  -0.4432  0.5871
6.269e+09  0.3521  -0.7427  0.01134  0.02078  0.0209  0.00426  -0.1947  0.7165
6.27e+09  0.01659  -0.798  -0.02309  0.003173  0.02148  0.008826  0.0698  0.7448
6.271e+09  -0.2525  -0.7481  0.03985  -0.00121  0.02735  0.0169  0.3271  0.6969
6.272e+09  -0.5182  -0.6413  -0.01655  0.01188  -0.08382  0.04304  0.5188  0.544
6.274e+09  -0.7209  -0.4371  0.002848  0.01348  0.008965  0.01827  0.7009  0.308
6.275e+09  -0.8016  -0.1796  -0.0002395  0.00143  -0.02678  0.01715  0.7675  0.05575
6.276e+09  -0.7668  0.155  -0.007017  -0.0101  0.02184  -0.0545  0.7232  -0.2485
6.278e+09  -0.6667  0.454  -0.02259  -0.0002645  0.001401  0.005738  0.6134  -0.4503
6.279e+09  -0.5019  0.5846  -0.01261  -0.02144  -0.004264  -0.05907  0.4268  -0.6527
6.28e+09  -0.2736  0.7769  0.009321  0.009145  0.02334  -0.00735  0.1766  -0.7863
6.281e+09  0.06501  0.8128  -0.01549  -0.007752  -0.02417  -0.04499  -0.1354  -0.7778
6.282e+09  0.2842  0.762  0.0092  -0.02148  -0.01999  0.01314  -0.3655  -0.6943
6.284e+09  0.565  0.5808  -0.008418  0.02314  -0.01254  -0.008042  -0.5944  -0.5
6.285e+09  0.7095  0.32  0.05695  0.01442  0.06621  0.02934  -0.7352  -0.3069
6.286e+09  0.8041  0.1479  0.01866  0.0007412  0.05671  0.02133  -0.8037  -0.02829
6.288e+09  0.7709  -0.2074  0.003779  0.02559  -0.00685  -0.08554  -0.7512  0.2472
6.289e+09  0.6413  -0.4844  0.04117  0.01278  -0.004258  0.05229  -0.6171  0.5206
6.29e+09  0.4468  -0.6619  0.01219  -0.03423  -0.00281  -0.03731  -0.4056  0.7186
6.291e+09  0.1917  -0.8022  0.02167  -0.008701  -0.02439  0.02918  -0.1575  0.7908
6.292e+09  -0.1388  -0.7924  -0.008618  -0.01752  0.04452  0.01306  0.1326  0.8001
6.294e+09  -0.3496  -0.7143  -0.01498  0.01078  0.002858  0.01416  0.3776  0.7141
6.295e+09  -0.567  -0.5389  -0.003492  0.01012  -0.02169  0.01055  0.6339  0.5011
6.296e+09  -0.7545  -0.2556  -0.02201  0.01833  -0.01321  -0.02919  0.7792  0.293
6.298e+09  -0.8605  -0.06206  -0.00761  -0.02395  0.03054  -0.009199  0.8083  0.01573
6.299e+09  -0.7575  0.2842  -0.006583  -0.03655  -0.01925  0.03634  0.7937  -0.3034
6.3e+09  -0.6222  0.5464  0.02866  -0.01768  -0.0025  -0.03725  0.622  -0.5631
6.301e+09  -0.3297  0.7154  0.004746  -0.02819  -0.001566  0.04099  0.4164  -0.7217
6.302e+09  -0.1473  0.8392  -0.01599  0.02888  0.01147  -0.005877  0.1506  -0.8165
6.304e+09  0.1516  0.7908  -0.008087  -0.003085  0.08397  -0.01026  -0.1075  -0.8368
6.305e+09  0.3982  0.6708  0.02383  0.0155  -0.01731  0.01696  -0.4124  -0.7632
6.306e+09  0.5911  0.5076  -0.006484  0.01078  0.01439  0.01441  -0.6604  -0.5837
6.308e+09  0.8076  0.2678  -0.001141  -0.027  0.01261  -0.009115  -0.7943  -0.3189
6.309e+09  0.8062  -0.05447  0.003238  0.005031  -0.001657  -0.03261  -0.8529  -0.004549
6.31e+09  0.7143  -0.3105  -0.004665  -0.02299  0.04512  0.00111  -0.8137  0.2913
6.311e+09  0.576  -0.5636  -0.01523  -0.003296  -0.000682  -0.0176  -0.6783  0.5329
6.312e+09  0.3589  -0.7456  0.001818  -0.009946  0.01369  0.03337  -0.4428  0.7482
6.314e+09  0.03613  -0.8452  -0.03985  -0.02171  -0.03908  -0.00374  -0.1406  0.8579
6.315e+09  -0.2278  -0.7889  -0.0007547  0.01936  -0.006123  -0.04408  0.108  0.869
6.316e+09  -0.4515  -0.6422  0.003912  -0.01062  -0.02389  -0.0326  0.4421  0.7579
6.318e+09  -0.5955  -0.4659  -0.01758  -0.01061  -0.01361  -0.01718  0.6608  0.6054
6.319e+09  -0.7782  -0.1318  -0.00862  0.01891  -0.06077  0.006847  0.8438  0.3465
6.32e+09  -0.7937  0.07346  -0.02668  -0.01132  0.03413  0.0273  0.8894  0.04144
6.321e+09  -0.7234  0.4223  -0.004113  0.02365  0.02949  -0.007511  0.8344  -0.3029
6.322e+09  -0.537  0.6206  0.0102  -0.02197  0.03766  -0.03268  0.6657  -0.5434
6.324e+09  -0.2928  0.7509  0.01482  -0.005284  0.03362  -0.003423  0.4541  -0.7854
6.325e+09  0.02752  0.849  -0.02565  -0.002392  0.01948  -0.01307  0.1809  -0.9024
6.326e+09  0.2863  0.7589  -0.007792  0.006575  -0.02735  0.03041  -0.14  -0.9204
6.328e+09  0.5635  0.6162  0.005946  0.006742  0.003373  -0.002573  -0.4391  -0.7923
6.329e+09  0.7256  0.3803  -0.01573  -0.01163  0.004944  -0.008361  -0.6588  -0.6046
6.33e+09  0.81  0.1259  -0.02422  -0.02103  0.0136  -0.02117  -0.8526  -0.3363
6.331e+09  0.8221  -0.2057  -0.03504  0.008334  -0.02221  0.04396  -0.9066  -0.0107
6.332e+09  0.6616  -0.4786  -0.03269  -0.004217  -0.006326  0.02866  -0.8577  0.3159
6.334e+09  0.4943  -0.7054  -0.002156  -0.01756  0.01542  -0.007703  -0.7041  0.5781
6.335e+09  0.2077  -0.8351  -0.006902  0.004263  0.06301  -0.0482  -0.5038  0.7774
6.336e+09  -0.06368  -0.7789  0.01308  -0.007098  -0.003444  0.01603  -0.2068  0.8855
6.338e+09  -0.4144  -0.744  0.02075  0.02117  0.006996  -0.0003175  0.1142  0.8983
6.339e+09  -0.618  -0.5336  0.001091  0.01303  -0.0129  0.002282  0.4215  0.8305
6.34e+09  -0.761  -0.2739  0.03488  -0.002264  0.03442  0.02201  0.7039  0.5972
6.341e+09  -0.8334  -0.006036  -0.002872  0.02484  0.003926  0.0127  0.8638  0.3726
6.342e+09  -0.8343  0.3173  0.01733  -0.01468  -0.02001  0.05243  0.9041  0.03861
6.344e+09  -0.6597  0.526  0.009643  0.02991  0.04129  0.02501  0.8717  -0.2653
6.345e+09  -0.4444  0.7073  0.03143  0.02002  0.02959  0.0119  0.749  -0.5318
6.346e+09  -0.1394  0.8076  0.01477  -0.01906  0.0373  0.001626  0.4734  -0.7835
6.348e+09  0.1714  0.8253  -0.01941  0.007251  -0.07358  0.02446  0.2139  -0.9478
6.349e+09  0.4938  0.7227  -0.003132  0.004395  0.006082  -0.02258  -0.09482  -0.9353
6.35e+09  0.6899  0.4857  0.007638  -0.01531  -0.01584  -0.0386  -0.4081  -0.8246
6.351e+09  0.7941  0.2291  -0.00404  0.008641  0.05177  0.01146  -0.6789  -0.6348
6.352e+09  0.8349  -0.07922  0.02254  0.02346  0.04342  0.005912  -0.8366  -0.3366
6.354e+09  0.7407  -0.3761  -0.01708  0.01277  -0.01331  -0.01481  -0.9056  -0.03905
6.355e+09  0.6545  -0.5964  0.01881  -0.03327  0.02559  -0.04237  -0.9297  0.2514
6.356e+09  0.3014  -0.7719  -0.0002236  0.01243  0.01134  -0.005649  -0.7745  0.5852
6.358e+09  0.04045  -0.8162  0.01267  -0.008912  -0.01027  -0.002395  -0.5057  0.7788
6.359e+09  -0.272  -0.7633  0.001858  0.001847  0.01071  -0.01735  -0.1993  0.928
6.36e+09  -0.5465  -0.6509  -0.009347  0.03045  -0.01207  -0.006307  0.1063  0.9709
6.361e+09  -0.7372  -0.4129  -0.02133  0.05879  -0.008971  0.03029  0.4075  0.8427
6.362e+09  -0.8363  -0.1088  0.01784  0.007615  0.01539  0.008264  0.6628  0.6807
6.364e+09  -0.8189  0.1481  -0.03205  -0.004512  0.03274  -0.009443  0.87  0.4049
6.365e+09  -0.7436  0.4804  -0.01535  0.03981  -0.06567  0.06131  0.9461  0.04624
6.366e+09  -0.4839  0.6785  0.004488  -0.003162  0.0136  0.05707  0.8922  -0.2545
6.368e+09  -0.2673  0.881  0.04409  0.007401  0.01787  -0.009296  0.7427  -0.5364
6.369e+09  0.06681  0.8247  0.03334  -0.002706  -0.01651  -0.0261  0.541  -0.7734
6.37e+09  0.3475  0.7802  -0.009948  -0.03035  -0.01912  0.0428  0.2567  -0.8891
6.371e+09  0.6155  0.5827  0.000221  0.01957  -0.02135  0.01147  -0.1073  -0.8827
6.372e+09  0.7838  0.357  -0.006381  -0.03358  0.06206  0.03783  -0.4583  -0.8715
6.374e+09  0.8527  0.02046  -0.008079  -0.01491  0.008091  0.01341  -0.6501  -0.6699
6.375e+09  0.809  -0.3014  -0.01484  -0.02425  0.004457  -0.001434  -0.9197  -0.4303
6.376e+09  0.6884  -0.5498  -0.03357  -0.03017  -0.02057  0.03024  -0.8954  -0.09401
6.378e+09  0.4302  -0.7471  0.01884  -0.005394  -0.002565  0.007892  -0.9681  0.2113
6.379e+09  0.1516  -0.8185  -0.03205  0.03129  -0.02421  -0.003281  -0.7959  0.5297
6.38e+09  -0.1872  -0.82  0.001715  0.02289  0.006157  -0.01189  -0.576  0.7543
6.381e+09  -0.4629  -0.7357  0.008613  0.02441  0.04532  -0.01147  -0.2814  0.9115
6.382e+09  -0.6438  -0.4986  0.02957  0.02459  0.002315  -0.01399  0.1118  0.9416
6.384e+09  -0.8633  -0.2176  -0.01162  0.01467  -0.0005183  0.0245  0.3718  0.8704
6.385e+09  -0.8667  0.1232  -0.02238  0.01436  -0.004613  0.002165  0.646  0.7244
6.386e+09  -0.7881  0.3719  -0.008784  0.005827  -0.01885  0.0622  0.8439  0.4392
6.388e+09  -0.5942  0.6434  0.008961  0.03223  0.04142  0.03466  0.9227  0.1256
6.389e+09  -0.3012  0.8133  -0.004126  0.03888  -0.001061  -0.04796  0.9249  -0.2091
6.39e+09  -0.008902  0.8925  -0.01461  0.02421  0.01164  0.01013  0.7859  -0.4795
6.391e+09  0.2579  0.8311  0.0209  0.04596  0.001434  -0.02566  0.5427  -0.76
6.392e+09  0.5665  0.6703  -0.004274  0.00494  0.03087  -0.008158  0.2885  -0.8811
6.394e+09  0.7163  0.4365  -0.0045  -0.04003  -0.02674  -0.008276  -0.01646  -0.9374
6.395e+09  0.858  0.1037  0.008634  0.007034  0.05876  -0.005507  -0.3453  -0.8204
6.396e+09  0.8395  -0.2152  -0.02952  -0.02517  0.00984  0.04322  -0.5945  -0.6752
6.398e+09  0.7344  -0.4631  -0.02007  0.0321  -0.03136  -0.04932  -0.8392  -0.4274
6.399e+09  0.5007  -0.7484  -0.02869  0.02344  -0.01579  0.004386  -0.8778  -0.1288
6.4e+09  0.256  -0.8102  0.01716  -0.01758  0.01322  -0.02123  -0.941  0.2209
6.401e+09  -0.1357  -0.8376  0.01518  0.02774  0.009808  0.02172  -0.824  0.4802
6.402e+09  -0.3532  -0.8071  0.06095  0.0361  0.04132  0.004353  -0.5623  0.7514
6.404e+09  -0.6149  -0.5857  0.03665  -0.009618  -0.01369  -0.02561  -0.2703  0.8448
6.405e+09  -0.7758  -0.3695  -0.008266  -0.04236  -0.003222  -0.006323  0.01449  0.9323
6.406e+09  -0.8648  -0.03819  0.02235  -0.02073  -0.001628  0.0257  0.284  0.8741
6.408e+09  -0.8139  0.2588  0.03056  -0.004119  0.005579  0.008932  0.5562  0.7093
6.409e+09  -0.6785  0.5583  0.01804  -0.02843  -0.008849  0.01469  0.809  0.4702
6.41e+09  -0.4377  0.6969  0.009862  0.03672  -0.004397  0.001354  0.8703  0.1553
6.411e+09  -0.138  0.8531  -0.00843  0.03245  0.01886  -0.04785  0.8861  -0.1453
6.412e+09  0.1677  0.814  0.01692  0.0356  -0.03139  -0.03904  0.8221  -0.392
6.414e+09  0.4547  0.7148  -0.02534  0.01488  0.01514  -0.0168  0.6495  -0.6931
6.415e+09  0.6466  0.559  0.005093  0.01314  -0.01466  -0.001658  0.2979  -0.8241
6.416e+09  0.8382  0.2383  0.02583  -0.002307  -0.008778  0.01635  0.02976  -0.9184
6.418e+09  0.8175  -0.05935  -0.01881  0.01768  -0.02283  0.04635  -0.2511  -0.8664
6.419e+09  0.7686  -0.3388  0.04999  -0.01384  0.02622  0.01732  -0.5379  -0.7087
6.42e+09  0.6051  -0.6265  -0.006726  0.001475  -0.03344  -0.003193  -0.7593  -0.4511
6.421e+09  0.3788  -0.8069  -0.0513  0.02604  0.02067  -0.04417  -0.829  -0.1547
6.422e+09  0.0504  -0.893  -0.01496  -0.05264  -0.0251  0.05108  -0.9306  0.1726
6.424e+09  -0.246  -0.8178  0.003626  0.004629  -0.03871  0.005289  -0.847  0.379
6.425e+09  -0.4899  -0.6636  0.008467  0.03508  0.01723  0.02877  -0.5756  0.6759
6.426e+09  -0.7445  -0.4679  -0.0007444  0.03132  -0.02084  0.02747  -0.3393  0.8426
6.428e+09  -0.8331  -0.1393  -0.06269  0.03591  -0.02727  -0.003069  -0.03091  0.8993
6.429e+09  -0.8016  0.1581  -0.006023  0.001757  0.009264  -0.0107  0.2085  0.8012
6.43e+09  -0.7299  0.436  -0.000238  -0.02332  -0.0451  0.007324  0.5169  0.7348
6.431e+09  -0.5187  0.6832  -0.03081  0.01182  -0.01884  -0.003276  0.7643  0.506
6.432e+09  -0.2809  0.815  -0.04177  -0.01005  -0.01192  -0.005835  0.8154  0.2195
6.434e+09  0.0129  0.8482  -0.01865  -0.0243  0.0359  0.01408  0.8763  -0.1089
6.435e+09  0.4018  0.8053  0.03233  3.129e-05  -0.005723  -0.01036  0.7985  -0.3356
6.436e+09  0.6034  0.6542  -0.04693  0.007608  -0.0146  -0.00893  0.595  -0.6037
6.438e+09  0.7305  0.4241  -0.01612  0.02295  -0.01191  -0.02517  0.3531  -0.7835
6.439e+09  0.8686  0.1029  0.04841  -0.03919  -0.003871  -0.04565  0.0633  -0.8367
6.44e+09  0.7898  -0.205  -0.0257  -0.00724  0.0451  0.07085  -0.2333  -0.827
6.441e+09  0.7564  -0.5201  -0.01841  -0.02195  0.0458  -0.003293  -0.4991  -0.7136
6.442e+09  0.4544  -0.7052  -0.006941  0.003958  0.0257  0.01446  -0.6691  -0.4516
6.444e+09  0.2151  -0.8451  -0.004926  -0.005405  -0.04657  0.069  -0.8051  -0.2142
6.445e+09  -0.07474  -0.8555  -0.01023  0.0116  -0.02655  -0.03948  -0.8277  0.03124
6.446e+09  -0.3593  -0.7562  -0.01299  -0.01821  0.004772  -0.0005927  -0.7752  0.3831
6.448e+09  -0.6086  -0.5611  -0.01649  0.001498  -0.003531  0.01789  -0.604  0.6213
6.449e+09  -0.7986  -0.3229  -0.006322  0.02458  -0.01672  0.06251  -0.3498  0.8294
6.45e+09  -0.828  -0.09045  0.005325  -0.02279  0.01716  -0.01594  -0.07269  0.8822
6.451e+09  -0.8023  0.26  0.02737  0.03409  0.01112  -0.08804  0.2428  0.799
6.452e+09  -0.6429  0.4725  0.01263  -0.01921  -0.03392  -0.0205  0.4872  0.7152
6.454e+09  -0.4302  0.7153  0.002173  0.002748  -0.003262  0.06151  0.6659  0.4598
6.455e+09  -0.1444  0.8494  0.03281  0.01613  0.05294  -0.0221  0.831  0.2176
6.456e+09  0.118  0.7941  -0.01481  0.04628  0.006473  -0.05527  0.8192  -0.07625
6.458e+09  0.4486  0.6985  -0.02276  -0.03032  0.02095  -0.033  0.7213  -0.3884
6.459e+09  0.6605  0.559  -0.02131  0.02555  -0.01634  0.001336  0.5685  -0.5882
6.46e+09  0.8109  0.2568  0.01077  -0.01709  0.00264  -0.01483  0.3516  -0.7762
6.461e+09  0.8977  -0.01932  0.002146  0.02206  -0.01163  -0.03962  0.09927  -0.7928
6.462e+09  0.7392  -0.2696  -0.0155  0.01003  -0.002414  -0.01959  -0.2145  -0.8434
6.464e+09  0.6476  -0.5688  0.008075  -0.01236  0.02497  -0.01331  -0.445  -0.6507
6.465e+09  0.3781  -0.7266  0.005199  0.01873  -0.003097  0.001572  -0.6348  -0.4837
6.466e+09  0.08975  -0.7827  0.006908  0.02603  0.01137  0.02244  -0.7732  -0.2092
6.468e+09  -0.1964  -0.83  0.01795  0.01186  0.05513  0.02371  -0.8055  0.06231
6.469e+09  -0.4387  -0.7264  0.04063  0.006863  -0.02054  -0.003037  -0.7249  0.3513
6.47e+09  -0.6192  -0.5076  -0.01765  -0.02929  -0.03901  0.02739  -0.542  0.5619
6.471e+09  -0.7849  -0.2208  -0.0009567  -0.04286  0.01089  -0.0638  -0.351  0.7043
6.472e+09  -0.8258  0.07287  -0.006243  -0.03857  0.03473  0.0772  -0.05514  0.7808
6.474e+09  -0.7689  0.3161  -0.04017  0.04192  0.001221  -0.0696  0.2256  0.7444
6.475e+09  -0.6155  0.5611  -0.02656  0.005469  0.01775  0.0005628  0.4987  0.6803
6.476e+09  -0.3808  0.7812  -0.01921  0.01365  0.03811  0.005737  0.631  0.4264
6.478e+09  -0.08442  0.8426  0.01244  -0.01172  0.005311  0.04816  0.7868  0.1698
6.479e+09  0.2224  0.8098  -0.03608  -0.02028  -0.007256  -0.04501  0.7584  -0.108
6.48e+09  0.5158  0.6833  0.01447  -0.03875  0.02909  -0.02798  0.7217  -0.3162
6.481e+09  0.6773  0.4996  -0.004455  -0.006064  -0.01957  0.0065  0.5755  -0.572
6.482e+09  0.7884  0.2084  0.01821  -0.04013  -0.02004  0.06545  0.3303  -0.7278
6.484e+09  0.8672  -0.05449  0.009847  0.04179  -0.007532  -0.04138  0.03171  -0.7737
6.485e+09  0.7421  -0.3603  -0.01454  0.01396  -0.04701  -0.012  -0.214  -0.7391
6.486e+09  0.6241  -0.5727  0.0008099  0.022  0.01451  -0.06299  -0.4939  -0.6421
6.488e+09  0.3126  -0.7959  -0.01447  0.03468  0.03214  0.01214  -0.6507  -0.3851
6.489e+09  0.04981  -0.8815  -0.02588  0.02048  0.02239  0.02149  -0.7306  -0.1844
6.49e+09  -0.231  -0.7661  0.006197  -0.00189  0.0486  0.001106  -0.7795  0.09497
6.491e+09  -0.506  -0.707  -0.002653  0.01121  -0.0431  0.00655  -0.7077  0.3076
6.492e+09  -0.6655  -0.4663  -0.02553  0.01421  0.05312  0.003871  -0.5299  0.5863
6.494e+09  -0.8875  -0.2294  0.004828  0.0316  -0.05563  -0.02357  -0.3085  0.7414
6.495e+09  -0.8377  0.1317  0.01738  0.003893  -0.01696  0.02794  -0.03839  0.7682
6.496e+09  -0.7599  0.4158  -0.02445  -0.008381  -0.02184  0.02725  0.2514  0.6671
6.498e+09  -0.5708  0.6271  -0.01414  0.03824  0.05155  0.02234  0.4583  0.6151
6.499e+09  -0.2952  0.7301  0.002053  0.0077  -0.05005  0.03976  0.6591  0.4067
6.5e+09  -0.07991  0.8413  0.00695  -0.02361  0.02852  -0.02949  0.7483  0.1595
6.501e+09  0.2532  0.7714  0.01561  -0.01571  -0.007854  0.03126  0.7609  -0.1216
6.502e+09  0.5338  0.6416  0.01691  0.02135  -0.01563  -0.04319  0.657  -0.3537
6.504e+09  0.6947  0.4645  0.005271  -0.01659  0.009095  -0.04631  0.5149  -0.5567
6.505e+09  0.8302  0.2073  0.02433  0.02338  0.01096  0.02955  0.2793  -0.6978
6.506e+09  0.8371  -0.164  -0.01898  0.02735  -0.01769  0.01572  0.07931  -0.7525
6.508e+09  0.7751  -0.4147  0.01606  -0.03831  0.02394  -0.01731  -0.2626  -0.7122
6.509e+09  0.4985  -0.6571  -0.04196  0.0168  -0.023  0.0389  -0.4508  -0.6082
6.51e+09  0.2814  -0.8344  -0.004133  0.006904  0.03454  0.05507  -0.6859  -0.4386
6.511e+09  0.0314  -0.84  0.003572  -0.003202  -0.06724  0.02869  -0.7377  -0.1359
6.512e+09  -0.2589  -0.7756  0.02687  -0.01438  0.04354  -0.02207  -0.7526  0.1215
6.514e+09  -0.5094  -0.6912  -0.02515  -0.03838  -0.01435  0.01189  -0.6446  0.3486
6.515e+09  -0.7686  -0.4122  0.01506  0.006418  -0.02328  -0.01461  -0.4545  0.6075
6.516e+09  -0.7883  -0.156  -0.03731  0.008026  -0.01195  0.002484  -0.2465  0.7108
6.518e+09  -0.8396  0.1731  0.03842  0.03388  -0.0009159  -0.03832  0.02683  0.7513
6.519e+09  -0.7929  0.4496  -0.01258  0.0004445  -0.008229  -0.03978  0.2632  0.7117
6.52e+09  -0.453  0.7124  -0.008804  0.03519  -0.004198  -0.007038  0.5252  0.5106
6.521e+09  -0.3375  0.8493  -0.0008862  0.004642  -0.02622  -0.0198  0.6622  0.3431
6.522e+09  0.03336  0.8786  0.02765  0.00976  -0.04122  0.005176  0.7213  0.08837
6.524e+09  0.3578  0.8335  0.005363  -0.004515  0.0712  0.05545  0.704  -0.1455
6.525e+09  0.6228  0.6248  -0.007927  0.01117  0.02641  0.01118  0.6323  -0.4097
6.526e+09  0.7681  0.3968  0.002162  0.004345  -0.03285  -0.02856  0.4183  -0.5696
6.528e+09  0.8927  0.1562  0.02769  0.0333  -0.01737  0.0416  0.1913  -0.669
6.529e+09  0.9004  -0.1937  0.002732  0.00359  -0.01939  0.01455  -0.08269  -0.6993
6.53e+09  0.7594  -0.5432  0.002866  -0.02091  -0.001079  -0.009148  -0.2501  -0.6502
6.531e+09  0.5492  -0.7346  -0.03387  0.005065  -0.06797  -0.0232  -0.4601  -0.4975
6.532e+09  0.2165  -0.8477  0.005213  -0.01598  0.0005709  -0.06282  -0.5831  -0.3023
6.534e+09  -0.09238  -0.9408  -0.02841  0.004007  -0.01661  -0.04936  -0.5884  -0.1209
6.535e+09  -0.3493  -0.8801  -0.01993  -0.008932  -0.01561  -0.04465  -0.634  0.1188
6.536e+09  -0.6341  -0.6888  -0.01883  0.00288  0.003469  0.0112  -0.5444  0.3147
6.538e+09  -0.831  -0.3967  -0.03176  0.006484  0.04653  0.01697  -0.464  0.4795
6.539e+09  -0.9388  -0.02032  0.005231  0.01868  -0.008362  0.02461  -0.2607  0.5932
6.54e+09  -0.887  0.2543  -0.007036  -0.003831  0.0279  0.03008  -0.08356  0.6953
6.541e+09  -0.7274  0.596  0.01435  -0.02634  0.01407  -0.00123  0.1991  0.6668
6.542e+09  -0.5158  0.8042  0.01842  0.007687  0.02406  0.02975  0.4608  0.5296
6.544e+09  -0.1946  0.9655  0.01839  -0.01767  -0.02417  -0.03026  0.5859  0.3737
6.545e+09  0.1533  0.9283  0.01005  -0.009993  -0.01091  0.03243  0.709  0.1575
6.546e+09  0.4197  0.8175  0.004535  0.008196  0.02343  0.05979  0.7502  -0.08081
6.548e+09  0.7058  0.6032  0.0004972  -0.03497  -0.008265  -0.02327  0.6601  -0.3041
6.549e+09  0.8728  0.2823  0.001317  0.008851  -0.04323  0.0008787  0.5073  -0.5661
6.55e+09  0.9416  -0.03586  0.0262  -0.001855  0.0222  0.02371  0.2663  -0.6372
6.551e+09  0.8225  -0.2939  0.0278  -0.01355  -0.01392  0.02591  0.00692  -0.745
