# Hz S RI R 50
6.25e+09  0.2014  0.885  -0.03062  0.02379  -0.05506  -0.02311  0.1461  0.5047
6.251e+09  0.4549  0.7387  0.0004356  -0.006922  -0.04321  0.02802  0.3793  0.4379
6.252e+09  0.7258  0.507  -0.02272  0.006745  0.05661  0.01982  0.5232  0.2441
6.254e+09  0.8783  0.2641  -0.017  -0.02439  -0.04793  0.02449  0.5925  0.01117
6.255e+09  0.8825  -0.04343  0.02357  -0.01789  0.02922  -0.02953  0.5866  -0.2163
6.256e+09  0.7807  -0.3113  -0.02318  -0.002989  -0.007014  0.02221  0.4622  -0.4431
6.258e+09  0.5672  -0.5828  0.02103  0.02643  -0.07426  -0.008198  0.2778  -0.5864
6.259e+09  0.3996  -0.7627  -0.02008  0.01999  0.01421  -0.0004989  0.07059  -0.6985
6.26e+09  0.08524  -0.8839  -0.01275  -0.0163  0.02894  -0.01749  -0.2404  -0.6541
6.261e+09  -0.2932  -0.8311  0.01532  0.0001915  0.01123  -0.03075  -0.4376  -0.5354
6.262e+09  -0.5234  -0.649  -0.009832  -0.01301  0.01141  -0.0126  -0.5947  -0.368
6.264e+09  -0.7299  -0.4694  0.006774  -0.03272  0.05092  -0.04654  -0.7013  -0.1197
6.265e+09  -0.841  -0.2056  0.0203  -0.006495  -0.000221  -0.02516  -0.7039  0.1703
6.266e+09  -0.826  0.1221  0.01673  -0.0005732  -0.0005093  -0.04857  -0.6088  0.3698
6.268e+09  -0.6818  0.4162  0.01215  -0.01036  -0.03087  -0.02537  -0.434  0.5794
6.269e+09  -0.5853  0.6131  -0.01138  0.01483  -0.05075  -0.04491  -0.1877  0.719
6.27e+09  -0.3718  0.7338  -0.007948  -0.0007963  -0.01857  -0.05373  0.03423  0.7416
6.271e+09  -0.01704  0.8463  0.004  -0.0384  0.06531  -0.009534  0.3352  0.6676
6.272e+09  0.2491  0.7692  0.006631  0.001838  -0.004151  0.03817  0.5292  0.519
6.274e+09  0.459  0.6674  0.04511  0.03013  -0.02692  0.01803  0.7074  0.2703
6.275e+09  0.7351  0.4561  -0.01853  -0.003174  -0.03165  -0.01524  0.7653  0.04827
6.276e+09  0.7816  0.188  0.01142  0.006411  0.03175  -0.0417  0.762  -0.2162
6.278e+09  0.8123  -0.08428  0.004183  0.01775  -0.05945  0.03401  0.6407  -0.4612
6.279e+09  0.7711  -0.4648  -0.01697  -0.01677  -0.01986  -0.07126  0.4441  -0.6585
6.28e+09  0.5722  -0.6474  0.03959  -0.01954  0.03474  0.04451  0.122  -0.7507
6.281e+09  0.3507  -0.8308  0.0176  -0.009102  0.03457  0.06664  -0.1108  -0.735
6.282e+09  0.03304  -0.8319  -0.008101  0.009909  -0.05147  0.03196  -0.37  -0.7082
6.284e+09  -0.3136  -0.7845  0.004802  -0.01655  -0.006466  -0.03485  -0.6079  -0.5193
6.285e+09  -0.5255  -0.6315  0.009415  0.02084  -0.008431  -0.05582  -0.7319  -0.2892
6.286e+09  -0.7312  -0.3608  -0.006754  0.005158  0.04345  0.03603  -0.7868  -0.003979
6.288e+09  -0.7648  -0.1176  -0.02251  -0.004403  -0.02548  0.0194  -0.7311  0.2538
6.289e+09  -0.8018  0.189  0.003854  -0.01383  -0.01713  -0.06965  -0.6218  0.5015
6.29e+09  -0.7117  0.4822  0.02516  -0.001502  0.02026  0.01959  -0.4175  0.6864
6.291e+09  -0.5403  0.6585  0.01386  0.01199  -0.07834  0.02494  -0.1744  0.7874
6.292e+09  -0.2387  0.7999  0.01608  -0.003284  -0.02083  -0.01542  0.1292  0.8114
6.294e+09  0.06074  0.8569  0.001361  0.0125  0.01841  0.007646  0.4155  0.7408
6.295e+09  0.3667  0.8015  -0.01581  -0.03799  -0.01527  0.03247  0.6036  0.565
6.296e+09  0.5673  0.5735  0.005628  0.003149  0.003276  0.02881  0.7723  0.2709
6.298e+09  0.7722  0.3355  -0.03921  -0.008819  -0.01775  0.01273  0.814  -0.001667
6.299e+09  0.8444  0.061  0.03162  -0.004795  0.007483  -0.004676  0.7753  -0.2996
6.3e+09  0.7917  -0.244  -0.02442  -0.01835  -0.0156  0.03569  0.6635  -0.5322
6.301e+09  0.6908  -0.4599  0.02571  0.0001373  0.005566  0.07853  0.4201  -0.7306
6.302e+09  0.4386  -0.717  0.01647  0.01565  -0.004577  -0.005207  0.1854  -0.8039
6.304e+09  0.1663  -0.7805  0.007909  0.007045  0.02343  0.02837  -0.1472  -0.8312
6.305e+09  -0.1566  -0.8715  -0.01515  0.01382  -0.00486  -0.0354  -0.3953  -0.7436
6.306e+09  -0.4263  -0.7847  0.02712  -0.027  -0.01004  0.06251  -0.6409  -0.5039
6.308e+09  -0.6562  -0.5715  -0.0187  0.01066  -0.02363  -0.03077  -0.8097  -0.3048
6.309e+09  -0.7993  -0.2905  -0.04643  0.02367  0.06312  -0.01669  -0.8739  -0.02192
6.31e+09  -0.8359  -0.02636  0.02543  0.002532  0.03323  0.02242  -0.8104  0.2777
6.311e+09  -0.7915  0.332  0.01894  0.01201  0.01095  -0.0456  -0.667  0.5242
6.312e+09  -0.6379  0.5501  0.03441  0.0268  0.01563  -0.02605  -0.4348  0.7453
6.314e+09  -0.385  0.7017  -0.01767  -0.004747  -0.04323  -0.009195  -0.1392  0.8767
6.315e+09  -0.1278  0.8641  0.02053  -0.01811  -0.01322  -0.05042  0.1615  0.8768
6.316e+09  0.1759  0.8295  -0.03572  0.02445  -0.009408  0.003619  0.4208  0.7913
6.318e+09  0.4523  0.696  -0.02588  0.002953  0.01638  -0.01247  0.6642  0.5718
6.319e+09  0.7045  0.5809  -0.01042  -0.02157  0.0141  0.01196  0.8376  0.2829
6.32e+09  0.8459  0.2715  -0.01457  -0.009821  -0.04495  -0.03149  0.9171  0.02789
6.321e+09  0.8353  -0.01476  -0.03002  0.007944  0.0177  -0.04413  0.8385  -0.3331
6.322e+09  0.8142  -0.348  0.01503  0.009619  0.0006606  0.01817  0.7012  -0.584
6.324e+09  0.6362  -0.6265  -0.0012  0.01286  -0.01989  0.009304  0.488  -0.7992
6.325e+09  0.3863  -0.8369  -0.002042  -0.02913  -0.04345  -0.04411  0.2073  -0.901
6.326e+09  0.06933  -0.857  0.001801  -0.0295  0.01446  0.008462  -0.1429  -0.878
6.328e+09  -0.2356  -0.8047  -0.01254  -0.005631  -0.006472  0.009506  -0.422  -0.7862
6.329e+09  -0.517  -0.6844  0.0134  -0.0446  -0.008485  0.06954  -0.6576  -0.5783
6.33e+09  -0.7143  -0.4647  -0.009196  0.009389  -0.0003477  -0.005001  -0.8383  -0.3336
6.331e+09  -0.8308  -0.2313  -0.02053  0.01799  0.01456  0.02355  -0.8932  -0.0265
6.332e+09  -0.9245  0.09023  0.002136  0.02531  -0.001585  -0.02082  -0.88  0.3194
6.334e+09  -0.8291  0.4014  0.02974  -0.01143  0.02262  -0.001352  -0.7251  0.5857
6.335e+09  -0.5886  0.638  0.001203  0.005193  0.003683  0.01033  -0.4877  0.7791
6.336e+09  -0.3177  0.8194  -0.002326  0.004391  -0.02907  0.008954  -0.1561  0.8634
6.338e+09  0.002759  0.9015  -0.02572  -0.01047  -0.007691  -0.005957  0.1125  0.9362
6.339e+09  0.2913  0.8262  0.007607  -0.03694  -0.001671  0.00729  0.4273  0.8157
6.34e+09  0.5921  0.6903  0.007416  0.0008965  -0.001818  -0.005303  0.6758  0.6113
6.341e+09  0.7663  0.405  0.002399  0.002479  -0.01399  0.05219  0.8446  0.3454
6.342e+09  0.8537  0.1447  -0.003118  -0.002114  0.02061  -0.006583  0.9571  0.05194
6.344e+09  0.8853  -0.1802  0.007751  1.919e-05  -0.03086  -0.03092  0.9225  -0.2774
6.345e+09  0.7376  -0.4456  0.003774  0.02841  0.01241  0.02764  0.7137  -0.56
6.346e+09  0.4933  -0.6997  0.01527  -0.001049  -0.02018  0.03743  0.5557  -0.758
6.348e+09  0.2539  -0.8219  0.0109  0.0163  0.02415  -0.01304  0.1976  -0.9422
6.349e+09  -0.09255  -0.8884  -0.0157  0.02131  -0.02736  0.03317  -0.1247  -0.9138
6.35e+09  -0.3606  -0.8135  0.01479  -0.002873  -0.03516  -0.01345  -0.4198  -0.8042
6.351e+09  -0.643  -0.6363  -0.01538  0.004241  0.01916  0.02364  -0.6579  -0.6281
6.352e+09  -0.8163  -0.3343  0.044  0.004904  0.02812  0.008685  -0.9098  -0.3697
6.354e+09  -0.8989  -0.04394  -0.003807  -0.01959  -0.01686  0.003412  -0.9296  -0.02643
6.355e+09  -0.8742  0.2652  -0.00125  0.008651  0.01339  -0.0006194  -0.8867  0.2662
6.356e+09  -0.7209  0.5353  0.03541  0.0008211  -0.0123  0.005414  -0.7591  0.5553
6.358e+09  -0.4979  0.7285  0.01482  0.005717  0.001774  -0.01906  -0.535  0.7973
6.359e+09  -0.1866  0.9124  0.01293  -0.01767  -0.003144  -0.009958  -0.2307  0.9104
6.36e+09  0.1303  0.9324  0.0009783  0.00864  -0.005865  -0.02214  0.08232  0.9353
6.361e+09  0.4056  0.7479  0.02412  0.01788  -0.01078  -0.03493  0.3869  0.8513
6.362e+09  0.7248  0.6363  -0.01377  -0.0301  -0.0158  0.02233  0.6392  0.6286
6.364e+09  0.8461  0.2744  -0.01711  0.02984  -0.01789  -0.04672  0.8973  0.4154
6.365e+09  0.9148  -0.003958  0.0009293  -0.01896  0.01832  0.008728  0.9777  0.07314
6.366e+09  0.813  -0.2594  -0.002089  -0.02982  -0.02131  -0.01595  0.9131  -0.2291
6.368e+09  0.7111  -0.5552  -0.01507  -0.003406  -0.02435  0.005984  0.7651  -0.5329
6.369e+09  0.4608  -0.7628  0.02448  -0.0221  0.01724  0.04339  0.5839  -0.7903
6.37e+09  0.1388  -0.9119  -0.005868  -0.003778  -0.01577  0.02931  0.2712  -0.9101
6.371e+09  -0.1814  -0.8939  0.0002221  0.01449  -0.046  0.0004553  -0.1134  -0.8988
6.372e+09  -0.4809  -0.7674  -0.05076  0.02749  0.006415  -0.01524  -0.3522  -0.8598
6.374e+09  -0.7096  -0.5242  -0.0002342  -0.005087  0.02584  0.001448  -0.7056  -0.692
6.375e+09  -0.8078  -0.2497  -0.01521  0.02958  0.0345  -0.007292  -0.8646  -0.4177
6.376e+09  -0.865  0.06361  0.005715  0.02979  0.01913  -0.01632  -0.9476  -0.08982
6.378e+09  -0.8235  0.3837  0.005173  -0.02205  0.0004845  -0.02294  -0.9226  0.2026
6.379e+09  -0.6921  0.5729  -0.007321  0.02963  0.01484  -0.001683  -0.7373  0.5191
6.38e+09  -0.4151  0.8283  0.01347  -0.005652  0.01732  -0.05563  -0.572  0.7861
6.381e+09  -0.09403  0.932  0.02571  0.03404  -0.006527  -0.02127  -0.2903  0.9294
6.382e+09  0.2264  0.8588  0.04675  -0.02941  -0.001912  0.01211  0.08283  0.9539
6.384e+09  0.5267  0.7141  0.002204  -0.01986  0.001876  0.01942  0.3802  0.8853
6.385e+09  0.6646  0.4952  -0.01701  0.04342  0.003812  0.02792  0.6264  0.6828
6.386e+09  0.8653  0.2469  -0.008207  0.03997  0.01899  -0.003993  0.8461  0.4074
6.388e+09  0.8835  -0.1081  -0.03285  4.799e-05  -0.04865  -0.02409  0.9165  0.0772
6.389e+09  0.8004  -0.4075  -0.0235  0.01063  -0.0121  0.01653  0.9151  -0.2232
6.39e+09  0.593  -0.6659  -0.06092  -0.004322  -0.06055  -0.02751  0.7851  -0.541
6.391e+09  0.3703  -0.8519  0.02367  0.05144  -0.01449  -0.05807  0.5926  -0.7277
6.392e+09  0.04546  -0.8604  0.02468  0.02327  0.03081  -0.03798  0.2709  -0.8951
6.394e+09  -0.2738  -0.8242  0.03263  0.01505  -0.00363  -0.0125  -0.03032  -0.9002
6.395e+09  -0.5035  -0.7274  0.01696  -0.009786  -0.05407  0.01668  -0.3485  -0.8508
6.396e+09  -0.74  -0.5495  0.0138  0.03406  -0.02718  -0.007618  -0.5956  -0.664
6.398e+09  -0.8546  -0.2235  0.01311  0.01153  -0.002572  -0.001295  -0.8338  -0.4553
6.399e+09  -0.9055  0.09429  0.004929  0.0227  0.005441  -0.02551  -0.9367  -0.1295
6.4e+09  -0.7882  0.476  -0.02291  -0.02593  0.02335  0.01163  -0.9291  0.1945
6.401e+09  -0.5786  0.6793  0.04649  0.004989  0.002297  -0.004396  -0.8533  0.4638
6.402e+09  -0.319  0.8426  0.01538  -0.0002671  -0.02315  0.009134  -0.6424  0.7225
6.404e+09  -0.05604  0.92  -0.02892  0.01253  0.03892  0.004465  -0.295  0.8737
6.405e+09  0.2984  0.8377  0.01339  -0.02071  -0.03483  -0.02903  0.009012  0.9121
6.406e+09  0.584  0.6273  0.03465  0.02161  -0.04373  0.05322  0.3294  0.8435
6.408e+09  0.7575  0.4175  -0.03601  0.02422  -0.01695  0.01605  0.5905  0.7455
6.409e+09  0.8405  0.1422  0.01655  -0.00829  0.03084  0.002448  0.7998  0.484
6.41e+09  0.9  -0.1259  -0.03354  -0.0159  0.0203  -0.02588  0.9269  0.1447
6.411e+09  0.7539  -0.4505  -0.02725  -0.02062  0.002104  0.01156  0.8911  -0.09783
6.412e+09  0.553  -0.6753  -0.003428  -0.01386  -0.02786  0.0237  0.7365  -0.4504
6.414e+09  0.2824  -0.843  0.0143  -0.0123  -0.05411  -0.02954  0.6056  -0.6827
6.415e+09  -0.02444  -0.9624  -0.009553  0.02545  -0.03686  0.01869  0.3605  -0.8055
6.416e+09  -0.3065  -0.7953  -0.01064  0.00939  0.03401  0.02069  -0.0009487  -0.8845
6.418e+09  -0.651  -0.6554  0.004626  0.03532  -0.02866  -0.04601  -0.2761  -0.8558
6.419e+09  -0.7969  -0.441  -0.03945  0.01896  0.0451  -0.0207  -0.5695  -0.6788
6.42e+09  -0.8663  -0.1277  -0.004378  -0.01381  -0.002054  -0.04893  -0.7594  -0.4596
6.421e+09  -0.8516  0.2297  -0.01003  0.01753  0.01711  -0.009502  -0.8757  -0.2526
6.422e+09  -0.7376  0.5051  -0.001573  -0.01578  -0.03756  0.009053  -0.8553  0.07521
6.424e+09  -0.5282  0.7689  -0.01703  -0.009439  -0.02277  -0.02978  -0.8157  0.4417
6.425e+09  -0.2743  0.9129  0.02269  0.01731  0.002756  -0.01352  -0.5597  0.6895
6.426e+09  0.05346  0.8927  -0.007861  0.006343  0.03134  -0.004352  -0.3977  0.8205
6.428e+09  0.4064  0.8201  0.009653  -0.02329  0.02396  -0.0104  -0.07835  0.8933
6.429e+09  0.6545  0.5997  -0.0289  -0.008369  0.02507  0.04518  0.2378  0.8266
6.43e+09  0.8035  0.3657  -0.02785  -0.001384  0.03259  -0.02211  0.5225  0.7208
6.431e+09  0.882  0.1109  0.02432  -0.02392  0.01258  -0.008471  0.6952  0.5073
6.432e+09  0.893  -0.1837  -0.03975  0.02104  -0.009957  0.01556  0.8801  0.1289
6.434e+09  0.6741  -0.5413  -0.01006  0.0108  -0.021  0.01978  0.8396  -0.1178
6.435e+09  0.4691  -0.7463  0.002811  0.001584  0.005415  -0.007532  0.755  -0.3044
6.436e+09  0.1968  -0.9573  0.0002741  0.00736  0.009247  -0.01196  0.6121  -0.6159
6.438e+09  -0.1611  -0.9473  0.01386  0.01723  -0.0205  0.05675  0.3472  -0.7635
6.439e+09  -0.4903  -0.8303  -0.03588  0.01171  0.01933  0.009595  0.05868  -0.8763
6.44e+09  -0.7169  -0.5971  0.05176  -0.02674  -0.01585  -0.009478  -0.2397  -0.8199
6.441e+09  -0.8314  -0.2958  -0.02622  0.0297  -0.04901  -0.04363  -0.5119  -0.6466
6.442e+09  -0.9193  0.0355  -0.01433  0.05681  0.0748  -0.0007684  -0.7411  -0.4953
6.444e+09  -0.8731  0.3357  -0.02528  -0.02294  0.01547  0.02294  -0.8404  -0.1886
6.445e+09  -0.6719  0.6805  0.03239  0.01755  0.002224  -0.001234  -0.8042  0.1252
6.446e+09  -0.4495  0.8003  0.03745  0.0232  0.01764  0.02444  -0.7298  0.358
6.448e+09  -0.1581  0.9065  -0.01681  0.01135  -0.0193  -0.002582  -0.5777  0.6561
6.449e+09  0.194  0.8789  -0.0003065  0.005494  0.008385  -0.006184  -0.3469  0.8054
6.45e+09  0.5324  0.7298  -0.03377  0.01719  0.01399  -0.003748  -0.08099  0.8228
6.451e+09  0.7705  0.5409  -0.002444  0.02713  -0.01954  -0.01757  0.21  0.7917
6.452e+09  0.9119  0.2162  0.02232  0.02094  -5.834e-05  0.0373  0.5016  0.6562
6.454e+09  0.9242  -0.1397  -0.003042  -0.008371  -0.002042  0.005881  0.7015  0.4726
6.455e+09  0.8447  -0.4207  -0.0001218  -0.05032  -0.006044  -0.01966  0.804  0.2414
6.456e+09  0.6304  -0.6996  0.005708  0.01547  0.01038  0.04484  0.8589  -0.05808
6.458e+09  0.2976  -0.8535  0.02409  0.005492  0.0264  -0.009445  0.7467  -0.3546
6.459e+09  -0.009161  -0.9723  -0.0176  0.001842  -0.03461  0.007147  0.5529  -0.5903
6.46e+09  -0.2899  -0.9034  0.007985  0.01929  0.007398  0.003754  0.3561  -0.7486
6.461e+09  -0.6083  -0.7286  0.009912  -0.004579  -0.001859  0.02874  0.07949  -0.8347
6.462e+09  -0.8405  -0.4088  0.004042  0.03147  -0.04913  0.002867  -0.2193  -0.7838
6.464e+09  -0.9758  -0.1211  -0.01595  -0.0008427  0.04173  0.07106  -0.4834  -0.6847
6.465e+09  -0.9836  0.1876  0.008384  -0.04218  0.02079  -0.0177  -0.709  -0.5139
6.466e+09  -0.8183  0.4824  -0.02387  0.0002556  -0.02497  0.009264  -0.7526  -0.2023
6.468e+09  -0.512  0.781  0.02197  0.009093  0.03749  0.01413  -0.7811  0.1031
6.469e+09  -0.2564  0.9052  -0.03481  -0.007471  -0.008214  0.02561  -0.762  0.353
6.47e+09  0.08434  0.9522  0.01251  0.02057  0.005732  -0.06078  -0.5785  0.5343
6.471e+09  0.4225  0.8254  -0.04743  -0.01789  0.05029  -0.06667  -0.3005  0.7274
6.472e+09  0.6604  0.6745  0.00411  -0.002593  -0.01402  -0.06759  -0.09205  0.7753
6.474e+09  0.8496  0.2753  -0.03373  -0.009842  0.01704  -0.01969  0.189  0.8011
6.475e+09  0.9125  -0.04773  -0.01531  0.006827  0.05396  0.006473  0.4375  0.6252
6.476e+09  0.8821  -0.3454  0.007155  -0.01  0.01779  -0.001986  0.6539  0.4251
6.478e+09  0.6622  -0.6036  0.02162  -0.001069  -0.01304  -0.02382  0.7867  0.2313
6.479e+09  0.4517  -0.8254  0.02913  0.005334  0.005037  -0.01698  0.791  -0.06784
6.48e+09  0.1339  -0.9383  0.00765  -0.03421  -0.02417  -0.02272  0.6934  -0.3133
6.481e+09  -0.1948  -0.8744  0.01011  -0.01911  -0.02464  -0.002305  0.5569  -0.5302
6.482e+09  -0.5381  -0.7816  -0.02936  -0.002347  -0.007105  -0.00297  0.3301  -0.6839
6.484e+09  -0.7362  -0.5269  0.001504  -0.03514  -0.03393  -0.03916  0.03391  -0.7973
6.485e+09  -0.9476  -0.2622  -0.04112  -0.004736  0.02721  -0.03845  -0.1731  -0.7401
6.486e+09  -0.9477  0.1055  0.02648  0.009023  0.03314  0.00344  -0.4572  -0.6382
6.488e+09  -0.8225  0.3902  0.04249  0.008265  -0.02666  0.01438  -0.6252  -0.4554
6.489e+09  -0.5882  0.6642  -8.945e-05  0.007661  0.0309  0.03462  -0.7157  -0.1853
6.49e+09  -0.3658  0.8466  0.007387  0.01682  -0.0005199  0.008492  -0.7971  0.06782
6.491e+09  0.03865  0.9109  0.03518  -0.02905  -0.007481  -0.007242  -0.6852  0.3534
6.492e+09  0.3327  0.8269  0.02  0.02801  -0.0003696  -0.01689  -0.5278  0.5957
6.494e+09  0.6576  0.6316  0.01858  -0.02368  0.02029  -0.004984  -0.3102  0.6926
6.495e+09  0.7998  0.4389  0.02964  0.01252  -0.07066  0.01234  -0.05592  0.7428
6.496e+09  0.8598  0.03002  -0.004895  -0.007483  -0.03611  0.005276  0.1991  0.7196
6.498e+09  0.831  -0.2621  -0.006536  -0.005415  -0.05949  -0.007673  0.4677  0.5877
6.499e+09  0.7103  -0.5733  -0.002758  -0.04029  -0.03388  0.03122  0.6686  0.4099
6.5e+09  0.5048  -0.8403  0.0256  -0.008054  -0.02523  0.05019  0.763  0.1685
6.501e+09  0.1591  -0.9223  0.006926  0.001929  0.072  0.04568  0.7878  -0.1461
6.502e+09  -0.1852  -0.8711  -0.005033  0.02488  -0.01243  0.003281  0.6302  -0.3802
6.504e+09  -0.4721  -0.7629  -0.01266  -0.002066  0.005193  -0.03066  0.4813  -0.579
6.505e+09  -0.7078  -0.5331  0.02648  0.02065  0.01604  0.02584  0.2897  -0.7476
6.506e+09  -0.8052  -0.2709  0.0152  -0.04695  0.000241  -0.01559  -0.0003189  -0.7663
6.508e+09  -0.9201  0.07861  -0.01436  -0.008187  -0.03643  -0.01871  -0.2352  -0.7266
6.509e+09  -0.787  0.3516  0.003527  0.01166  -0.01436  -0.03712  -0.4844  -0.5936
6.51e+09  -0.615  0.6015  -0.01623  0.04125  0.02203  -0.005349  -0.6685  -0.3822
6.511e+09  -0.3487  0.7665  0.007117  -0.01737  -0.004827  0.015  -0.7152  -0.1288
6.512e+09  -0.07602  0.8804  -0.01593  0.00908  -0.01896  0.0225  -0.755  0.1552
6.514e+09  0.266  0.8126  -0.006769  0.01932  0.02501  -0.0248  -0.6568  0.3929
6.515e+09  0.5638  0.6498  0.03707  -0.01112  0.02901  -0.02935  -0.5023  0.5642
6.516e+09  0.8095  0.4253  0.01237  -0.02809  -0.01699  -0.05745  -0.2195  0.6882
6.518e+09  0.8641  0.09342  -0.01004  0.004731  0.03143  0.01588  0.01101  0.7563
6.519e+09  0.8547  -0.1979  0.00714  0.01775  -0.005197  0.01007  0.2927  0.7215
6.52e+09  0.7084  -0.4791  -0.01101  0.008098  -0.005688  0.051  0.5033  0.531
6.521e+09  0.4434  -0.6603  -0.01635  -0.02541  0.0215  0.01355  0.6782  0.335
6.522e+09  0.2287  -0.8273  -0.01474  -0.005172  0.009875  -0.004145  0.7262  0.08573
6.524e+09  -0.09087  -0.8343  -0.02192  0.02267  0.01458  0.01597  0.7717  -0.1878
6.525e+09  -0.4399  -0.7151  -0.01785  0.001878  0.0003216  0.02477  0.6098  -0.4024
6.526e+09  -0.6917  -0.5179  -0.009541  0.03743  -0.001715  0.02633  0.453  -0.5823
6.528e+09  -0.7801  -0.2894  0.02092  -0.008588  0.01998  0.01423  0.1497  -0.6816
6.529e+09  -0.7843  0.04963  0.0269  -0.001045  -0.02332  0.002141  -0.06397  -0.6818
6.53e+09  -0.7701  0.32  0.02598  0.003048  -0.01828  0.04401  -0.2752  -0.5999
6.531e+09  -0.5526  0.5271  -0.01171  0.01165  -0.0413  -0.01218  -0.4775  -0.5013
6.532e+09  -0.3599  0.7743  -0.002598  -0.005065  0.008125  -0.07333  -0.5884  -0.2886
6.534e+09  -0.04127  0.7714  0.01041  -0.01431  -0.04071  0.01069  -0.6088  -0.09294
6.535e+09  0.2667  0.8205  0.0001222  0.01215  0.02409  -0.05228  -0.6061  0.103
6.536e+09  0.4793  0.5996  0.02544  -0.01793  -0.02132  0.01273  -0.5851  0.3109
6.538e+09  0.6504  0.3944  0.04047  0.007689  0.008989  0.04217  -0.4334  0.4647
6.539e+09  0.7414  0.1204  0.008256  -0.00973  0.02407  0.007349  -0.2851  0.6117
6.54e+09  0.7692  -0.1523  -0.02083  0.01733  -0.0216  -0.02668  -0.05094  0.6726
6.541e+09  0.6822  -0.4083  0.005497  0.002434  0.004036  -0.001183  0.1842  0.6488
6.542e+09  0.4263  -0.663  -0.008844  0.02001  -0.01615  -0.0145  0.4004  0.5776
6.544e+09  0.1748  -0.7134  0.01289  0.02509  -0.01024  0.004597  0.6018  0.3876
6.545e+09  -0.1352  -0.7793  -0.05469  -0.01388  -0.0468  0.0296  0.7286  0.1294
6.546e+09  -0.3191  -0.6763  -0.0003027  0.001708  -0.01352  0.02647  0.7038  -0.1116
6.548e+09  -0.5579  -0.4675  -0.02099  -0.0118  -0.01205  0.001049  0.6461  -0.3219
6.549e+09  -0.7357  -0.2791  0.02722  -0.02114  -0.03351  5.116e-05  0.5147  -0.5163
6.55e+09  -0.7276  0.03965  -0.01341  -0.01236  0.006364  0.00308  0.2858  -0.6717
