# Hz S RI R 50
6.25e+09  -0.3615  0.7998  -0.01095  -0.005773  -0.02609  -0.03815  0.1549  0.4848
6.251e+09  -0.039  0.8175  -0.008511  0.02115  0.02459  0.0156  0.3477  0.4023
6.252e+09  0.255  0.8509  -0.001068  0.01856  -0.005624  -0.002562  0.527  0.2464
6.254e+09  0.5222  0.6963  0.01778  -0.03954  0.01425  -0.002874  0.6111  0.02993
6.255e+09  0.6972  0.5354  0.001107  -0.02134  -0.01728  -0.008891  0.5673  -0.2112
6.256e+09  0.8207  0.2091  -0.002709  0.001284  -0.01101  0.0567  0.483  -0.4783
6.258e+09  0.9126  -0.1424  0.003879  -0.03975  -0.007693  -0.002457  0.2645  -0.5982
6.259e+09  0.7161  -0.4074  0.01803  0.008274  -0.0655  -0.02023  0.04989  -0.686
6.26e+09  0.5525  -0.6049  0.01123  -0.004616  0.01752  -0.02698  -0.2304  -0.6432
6.261e+09  0.3677  -0.7625  0.01557  -0.001675  0.0101  -0.00876  -0.4435  -0.5209
6.262e+09  0.005941  -0.833  -0.004  -0.009298  -0.007504  0.02401  -0.6172  -0.3381
6.264e+09  -0.2999  -0.7824  -0.01359  0.001567  0.04523  0.02022  -0.7183  -0.1177
6.265e+09  -0.4942  -0.642  0.01694  0.0277  -0.001123  -0.05121  -0.7216  0.1506
6.266e+09  -0.7096  -0.4542  0.009299  -0.01361  -0.01879  -0.0008178  -0.632  0.4016
6.268e+09  -0.8502  -0.208  0.001384  0.0229  0.01325  -0.02796  -0.4363  0.6033
6.269e+09  -0.8521  0.05089  0.00384  -0.006931  -0.01435  -0.04392  -0.2446  0.7267
6.27e+09  -0.7618  0.3898  -0.01498  0.02035  0.05539  -0.02946  0.04349  0.7756
6.271e+09  -0.4937  0.623  -0.001007  -0.01657  0.05934  0.01911  0.3186  0.6682
6.272e+09  -0.3038  0.7752  0.01468  -0.01568  0.06148  0.02757  0.5326  0.498
6.274e+09  -0.01867  0.8301  0.001566  -0.008288  0.06248  0.0649  0.7131  0.2912
6.275e+09  0.3077  0.8013  0.0262  0.03173  -0.01922  -0.004086  0.7755  0.06948
6.276e+09  0.5028  0.6534  -0.01475  0.007434  0.0002292  -0.00542  0.7173  -0.21
6.278e+09  0.6815  0.4853  0.002463  -0.007001  -0.0282  -0.02361  0.5864  -0.4575
6.279e+09  0.9157  0.1887  0.01445  -0.01557  0.02666  -0.02852  0.4357  -0.6441
6.28e+09  0.897  -0.1599  -0.01535  0.03874  0.01343  0.01734  0.1431  -0.7965
6.281e+09  0.6909  -0.4077  0.03244  0.004367  0.01784  -0.04253  -0.08088  -0.7985
6.282e+09  0.5683  -0.6686  0.01423  -0.001399  -0.02595  -0.04821  -0.3235  -0.6994
6.284e+09  0.2809  -0.7379  0.02765  -0.006729  0.01357  -0.001347  -0.5708  -0.5092
6.285e+09  0.0004499  -0.8545  -0.0164  0.007747  0.0002516  0.007347  -0.7215  -0.3091
6.286e+09  -0.2999  -0.8091  -0.003443  -0.01479  -0.0257  0.06504  -0.7966  -0.04295
6.288e+09  -0.5697  -0.6088  0.004572  0.01012  0.01769  -0.006667  -0.7668  0.2646
6.289e+09  -0.723  -0.421  0.01728  -0.005738  -0.04377  -0.01689  -0.6234  0.4965
6.29e+09  -0.8263  -0.1418  0.02368  0.00443  -0.01332  0.005972  -0.42  0.6858
6.291e+09  -0.8102  0.1711  -0.009333  0.0002809  -0.03304  0.04807  -0.1492  0.8133
6.292e+09  -0.7334  0.4464  0.002026  -0.0069  0.0001834  0.0311  0.1253  0.8224
6.294e+09  -0.5057  0.6791  0.003065  0.00207  0.007586  0.01598  0.3889  0.7049
6.295e+09  -0.2965  0.7966  -0.02075  0.02034  0.02741  0.0205  0.6305  0.5147
6.296e+09  0.0729  0.8673  0.01973  -0.002359  0.04153  -0.02324  0.7975  0.3036
6.298e+09  0.3178  0.7557  0.003441  -0.0159  -0.01191  -0.0009382  0.792  -0.007219
6.299e+09  0.5502  0.6319  0.03128  0.004943  0.00356  0.02136  0.8145  -0.2712
6.3e+09  0.7107  0.3847  0.0219  0.01888  -0.02246  -0.01153  0.6818  -0.5487
6.301e+09  0.8029  0.1117  0.002529  -0.02527  -0.02474  0.02858  0.3924  -0.7412
6.302e+09  0.7902  -0.1834  -0.0203  0.04232  0.04907  0.01335  0.1556  -0.8344
6.304e+09  0.7067  -0.4714  0.01022  0.02744  -0.01668  0.02249  -0.1251  -0.8266
6.305e+09  0.4697  -0.6505  0.01854  -0.01629  0.007066  0.008285  -0.425  -0.7612
6.306e+09  0.2891  -0.844  -0.03009  0.01188  0.01685  0.00922  -0.6131  -0.5423
6.308e+09  -0.04487  -0.8762  0.02718  0.02388  -0.0007631  -0.02446  -0.826  -0.3422
6.309e+09  -0.3694  -0.7437  -0.01407  0.02534  -0.009033  0.006445  -0.8722  -0.05811
6.31e+09  -0.5879  -0.5757  -0.001227  0.001526  -0.02494  -0.02944  -0.8298  0.2722
6.311e+09  -0.7486  -0.3594  0.02099  0.002902  0.01353  -0.0539  -0.647  0.5516
6.312e+09  -0.8499  -0.07761  0.02156  0.001161  0.02263  -0.001495  -0.4364  0.7665
6.314e+09  -0.7986  0.2603  0.02237  0.001471  -0.005066  -0.01984  -0.156  0.8669
6.315e+09  -0.6985  0.4907  -0.008258  -0.005216  0.005057  -0.04081  0.1487  0.8809
6.316e+09  -0.4858  0.7087  -0.02388  0.02324  0.03114  0.03548  0.4036  0.736
6.318e+09  -0.2041  0.8242  -0.03426  0.05031  0.03251  -0.0438  0.6895  0.567
6.319e+09  0.1176  0.8271  0.01907  -0.00353  -0.01332  -0.03991  0.7807  0.311
6.32e+09  0.3765  0.775  0.02475  -0.001732  -0.004651  -0.04256  0.8808  0.006645
6.321e+09  0.6662  0.5728  0.007071  -0.0002569  -0.007048  -0.006163  0.8027  -0.2634
6.322e+09  0.7606  0.3847  0.02151  -0.003945  0.02157  0.004267  0.6487  -0.5749
6.324e+09  0.8536  0.04807  0.01176  -0.001208  -0.06693  -0.03633  0.4379  -0.7956
6.325e+09  0.8079  -0.2399  0.01028  -0.01209  0.02851  -0.00257  0.1874  -0.8895
6.326e+09  0.6734  -0.5358  0.006126  -0.008537  0.0154  -0.02103  -0.1325  -0.8997
6.328e+09  0.4942  -0.7296  0.01052  0.02286  0.0322  0.01871  -0.4078  -0.7925
6.329e+09  0.1548  -0.8932  -0.009856  0.01589  -0.01501  0.008832  -0.6602  -0.6263
6.33e+09  -0.1515  -0.8084  -0.03078  0.03303  -0.009809  0.02361  -0.8714  -0.3322
6.331e+09  -0.4001  -0.7378  -0.01824  -0.003004  0.01037  0.0006971  -0.8903  -0.0248
6.332e+09  -0.6424  -0.5291  0.002239  0.02164  -0.008121  -0.04307  -0.9026  0.2484
6.334e+09  -0.8556  -0.2646  0.009984  -0.003176  -0.02329  -0.05388  -0.7068  0.5968
6.335e+09  -0.8921  -0.001734  -0.005369  -0.01441  -0.01615  -0.04001  -0.5039  0.7521
6.336e+09  -0.7653  0.3077  -0.007581  -0.01662  -0.00523  0.01836  -0.163  0.8805
6.338e+09  -0.7165  0.6066  0.003619  0.005286  -0.03094  -0.03279  0.1269  0.9428
6.339e+09  -0.3816  0.7768  -0.02501  -0.02552  -0.01694  -0.05704  0.4392  0.8116
6.34e+09  -0.1361  0.8769  -0.05693  -0.001082  0.000552  0.01124  0.6629  0.6312
6.341e+09  0.2308  0.8632  -0.00343  0.0125  -0.0628  -0.07636  0.8263  0.3609
6.342e+09  0.4474  0.7349  -0.01687  -0.00816  0.03951  0.005173  0.9456  0.06606
6.344e+09  0.7547  0.5398  -0.01714  -0.02677  0.01962  0.007474  0.9163  -0.2736
6.345e+09  0.8685  0.2201  -0.02218  -0.02798  -0.007381  -0.01854  0.7379  -0.5459
6.346e+09  0.8811  -0.07007  0.002023  -0.02569  0.01249  0.02597  0.5015  -0.7907
6.348e+09  0.8283  -0.4022  -0.04862  0.02083  -0.04429  0.01436  0.2152  -0.9112
6.349e+09  0.5976  -0.6443  0.009339  0.005101  0.05085  -0.04276  -0.1227  -0.9078
6.35e+09  0.3474  -0.8225  0.01096  0.01394  0.03624  0.005886  -0.4684  -0.8547
6.351e+09  0.01197  -0.9094  -0.003515  0.001486  -0.02813  -0.005973  -0.699  -0.6615
6.352e+09  -0.2779  -0.8344  -0.01294  0.01865  -0.01239  -0.01961  -0.8722  -0.3619
6.354e+09  -0.5292  -0.6935  -0.004604  0.01787  0.01657  0.005338  -0.9461  -0.07082
6.355e+09  -0.7592  -0.4978  -0.004436  0.02081  0.002747  0.03395  -0.9141  0.2417
6.356e+09  -0.8781  -0.1791  -0.0004714  -0.04178  -0.01662  -0.01284  -0.7829  0.5475
6.358e+09  -0.8561  0.1578  -0.01702  0.007358  -0.02218  0.03367  -0.5267  0.7717
6.359e+09  -0.7748  0.4526  0.01507  0.01007  -0.04665  0.01568  -0.231  0.9106
6.36e+09  -0.5355  0.676  0.0135  -0.04913  -0.006129  -0.02531  0.08835  0.9605
6.361e+09  -0.2672  0.7976  0.005527  0.02537  -0.003738  -0.01466  0.4203  0.8631
6.362e+09  -0.01283  0.87  0.01056  0.01245  -0.01235  0.02133  0.6824  0.6916
6.364e+09  0.3203  0.8241  0.0177  -0.02074  -0.01372  -0.01527  0.8776  0.3926
6.365e+09  0.6177  0.6849  -0.00884  0.003678  0.005506  -0.01583  0.9358  0.08261
6.366e+09  0.7821  0.3999  0.003658  -0.002607  -0.01286  0.02608  0.9136  -0.2504
6.368e+09  0.8723  0.1338  -0.008223  0.03523  0.04154  0.02605  0.7952  -0.574
6.369e+09  0.8433  -0.2217  0.007115  0.005105  0.02048  0.002438  0.5269  -0.7913
6.37e+09  0.7611  -0.5092  0.02836  -0.001272  0.01136  0.03386  0.2598  -0.9563
6.371e+09  0.5307  -0.7213  0.009719  -0.03368  -0.01374  -0.008292  -0.046  -0.9089
6.372e+09  0.2883  -0.8227  0.02548  -0.002119  -0.01154  0.006457  -0.3941  -0.8304
6.374e+09  -0.03766  -0.8925  0.04612  -0.05016  0.03521  -0.003485  -0.6862  -0.6847
6.375e+09  -0.3407  -0.7869  0.002188  0.001656  0.005512  -0.02827  -0.8586  -0.3754
6.376e+09  -0.6291  -0.6374  -0.03417  0.004075  -0.06832  -0.03488  -0.9356  -0.06738
6.378e+09  -0.7834  -0.3947  0.03815  0.004631  0.009763  0.005655  -0.9052  0.2196
6.379e+09  -0.8688  -0.0976  -0.002076  -0.03222  -0.01995  0.01547  -0.7492  0.5131
6.38e+09  -0.8584  0.198  -0.008696  0.02739  0.06145  -0.01637  -0.5575  0.7774
6.381e+09  -0.6817  0.5247  0.03737  0.05169  0.005901  0.00913  -0.2747  0.8836
6.382e+09  -0.5047  0.735  -0.0063  0.01329  0.01429  -0.03146  0.1042  0.9569
6.384e+09  -0.2428  0.8479  0.004492  -0.03433  -0.01671  0.03405  0.3221  0.8635
6.385e+09  0.07075  0.9035  0.03253  -0.01487  0.01683  -0.01904  0.6723  0.6984
6.386e+09  0.3927  0.7591  0.01913  0.01453  -0.015  -0.02817  0.8263  0.3921
6.388e+09  0.6421  0.6229  -0.01774  -0.01411  -0.01955  0.008457  0.8995  0.1331
6.389e+09  0.8245  0.3635  0.004242  0.01571  0.01455  0.01013  0.8696  -0.1835
6.39e+09  0.882  0.04002  0.004263  0.0611  0.005506  -0.02362  0.7781  -0.4866
6.391e+09  0.8846  -0.2638  0.01923  0.007758  0.005146  -0.007549  0.5432  -0.7134
6.392e+09  0.709  -0.555  0.052  0.004604  -0.00518  -0.03963  0.2415  -0.9003
6.394e+09  0.4896  -0.7054  0.01019  0.02666  0.00985  0.01503  -0.03791  -0.9496
6.395e+09  0.1949  -0.8774  0.001903  0.0416  0.004806  0.0132  -0.343  -0.8356
6.396e+09  -0.113  -0.9103  0.003555  -0.04049  0.03885  0.01256  -0.5823  -0.6658
6.398e+09  -0.4077  -0.7834  0.005929  -0.04417  0.001698  0.01429  -0.8187  -0.4319
6.399e+09  -0.6718  -0.5909  0.02127  -0.004606  -0.02182  0.00626  -0.9026  -0.133
6.4e+09  -0.8483  -0.3304  0.01893  -0.01371  0.02711  -0.01678  -0.8985  0.1475
6.401e+09  -0.8237  -0.01772  0.02884  -0.0068  0.01186  0.00741  -0.8055  0.4761
6.402e+09  -0.8684  0.2174  0.03229  0.004252  0.01407  -0.01039  -0.5635  0.6954
6.404e+09  -0.6732  0.5771  0.05062  -0.02393  -0.002005  -0.02861  -0.2968  0.8621
6.405e+09  -0.4231  0.7516  0.04193  0.006357  0.02089  -0.02001  0.006546  0.9555
6.406e+09  -0.135  0.857  0.0074  0.009691  0.00751  0.01065  0.3091  0.8958
6.408e+09  0.1662  0.8595  0.006377  0.02426  -0.006274  -0.01957  0.6037  0.6904
6.409e+09  0.4757  0.7458  0.03567  -0.001521  -0.02178  0.02559  0.7993  0.4469
6.41e+09  0.6445  0.5594  -0.006825  0.007707  0.02962  0.03156  0.9793  0.1961
6.411e+09  0.8288  0.3416  -0.04501  -0.01911  0.009422  -0.03319  0.9006  -0.1415
6.412e+09  0.8295  -0.00118  -0.02329  -0.0322  0.03641  -0.03276  0.8012  -0.4463
6.414e+09  0.8233  -0.2458  -0.01315  0.03087  -0.02135  -0.01743  0.6018  -0.6744
6.415e+09  0.6931  -0.5473  -0.01222  -0.0101  -0.03129  -0.009893  0.321  -0.8547
6.416e+09  0.4383  -0.7762  0.0008332  -0.01733  0.02325  0.03593  0.03339  -0.9155
6.418e+09  0.1276  -0.8804  0.03572  0.02876  0.01818  0.02102  -0.2819  -0.8527
6.419e+09  -0.1915  -0.8634  0.002072  0.01167  0.02673  0.05759  -0.5586  -0.7504
6.42e+09  -0.4561  -0.6955  0.04371  -0.008983  0.002184  -0.02794  -0.7156  -0.5305
6.421e+09  -0.7231  -0.5122  0.02392  0.02746  -0.02636  -0.006119  -0.8705  -0.1729
6.422e+09  -0.8221  -0.259  -0.02917  0.02613  0.03951  -0.01755  -0.9049  0.08844
6.424e+09  -0.8984  -0.01227  0.02495  -0.03638  -0.03417  -0.03062  -0.7386  0.4391
6.425e+09  -0.8036  0.3051  0.001239  -0.03622  0.06592  -0.01074  -0.5624  0.6839
6.426e+09  -0.6388  0.6085  -0.06042  0.05943  -0.01431  0.05341  -0.3646  0.8212
6.428e+09  -0.4439  0.7843  0.01745  -0.005846  -0.005951  -0.003438  -0.0841  0.8665
6.429e+09  -0.1383  0.8905  -0.006911  -0.005311  0.004358  -0.003891  0.2566  0.8185
6.43e+09  0.1939  0.8772  -0.04087  -0.0105  0.02821  0.04079  0.4527  0.6561
6.431e+09  0.4288  0.786  -0.02461  0.01041  0.02619  -0.02135  0.7306  0.5063
6.432e+09  0.6781  0.5763  0.00815  0.02569  -0.002591  -0.02853  0.858  0.2427
6.434e+09  0.8538  0.2766  -0.03431  0.009335  -0.001992  0.03099  0.8618  -0.06141
6.435e+09  0.9083  -0.04435  -0.0002238  0.003274  0.0217  0.03157  0.8038  -0.3565
6.436e+09  0.8361  -0.3227  0.03797  0.03789  -0.03072  -0.004259  0.5995  -0.6162
6.438e+09  0.6759  -0.6068  -0.007258  -0.03019  0.01184  0.008624  0.3528  -0.7785
6.439e+09  0.4103  -0.7993  -0.04164  -0.01385  -0.0006605  0.02499  0.02496  -0.8706
6.44e+09  0.1275  -0.9149  0.01033  -0.008292  0.0005185  0.04461  -0.2205  -0.8485
6.441e+09  -0.1932  -0.8694  -0.01639  0.02908  -0.02651  0.05969  -0.4841  -0.6569
6.442e+09  -0.4807  -0.6982  -0.004446  0.05608  0.03954  0.01735  -0.6888  -0.4765
6.444e+09  -0.7195  -0.5615  -0.01712  0.008403  -0.00131  0.00794  -0.8343  -0.2165
6.445e+09  -0.8286  -0.2752  0.02783  0.003073  0.03495  0.03988  -0.8043  0.07041
6.446e+09  -0.9252  0.04647  -0.03783  0.004666  -0.006418  -0.002512  -0.786  0.3193
6.448e+09  -0.778  0.3683  -0.05091  0.01105  -0.02251  0.03907  -0.562  0.5618
6.449e+09  -0.6187  0.6141  -0.00163  0.01638  0.002766  0.05027  -0.3668  0.8
6.45e+09  -0.4484  0.7994  -0.0028  -0.003974  0.02335  -0.009881  -0.07404  0.8537
6.451e+09  -0.119  0.8558  -0.03427  0.01392  0.02354  0.006978  0.2232  0.8122
6.452e+09  0.1653  0.8232  -0.00894  -0.01223  9.558e-05  0.02646  0.5023  0.6765
6.454e+09  0.4917  0.77  0.003242  0.008855  -0.01261  -0.05188  0.6784  0.4924
6.455e+09  0.7239  0.5854  -0.07502  -0.02936  -0.01396  0.01846  0.7992  0.2458
6.456e+09  0.9022  0.283  -0.03325  0.01871  0.02915  -0.02329  0.8938  -0.07105
6.458e+09  0.9275  -0.04296  0.02288  -0.008879  0.02442  -0.02726  0.7567  -0.3187
6.459e+09  0.8663  -0.3373  0.01146  0.04052  -0.07907  -0.05528  0.5731  -0.5728
6.46e+09  0.6481  -0.6142  0.04972  0.05018  0.01577  -0.04928  0.3509  -0.7125
6.461e+09  0.4076  -0.7759  -0.01949  0.003329  0.02696  -0.02788  -0.01184  -0.7798
6.462e+09  0.1293  -0.967  -0.02702  -0.008526  -0.004674  -0.0002732  -0.1883  -0.7499
6.464e+09  -0.1795  -0.9166  -0.01604  0.03119  -0.04247  -0.01595  -0.4469  -0.6619
6.465e+09  -0.5328  -0.7453  -0.01692  -0.005422  -0.01776  -0.0442  -0.67  -0.4481
6.466e+09  -0.7234  -0.538  0.00677  -0.06052  -0.03124  -0.01994  -0.781  -0.236
6.468e+09  -0.9289  -0.2522  -0.0324  0.02153  0.0271  0.005531  -0.7908  0.04913
6.469e+09  -0.9038  0.05268  -0.005509  0.01613  0.01833  0.03585  -0.76  0.3173
6.47e+09  -0.8594  0.419  0.005292  0.006318  0.00048  0.003668  -0.5989  0.588
6.471e+09  -0.676  0.6342  7.314e-05  -0.0009305  -0.002761  -0.01629  -0.3334  0.7384
6.472e+09  -0.3954  0.8464  0.02644  0.03958  -0.005749  -0.005774  -0.05051  0.8068
6.474e+09  -0.0894  0.89  0.01905  -0.02583  -0.06076  -0.02865  0.2322  0.7648
6.475e+09  0.2246  0.8908  -0.02291  -0.01042  0.02525  0.03394  0.4394  0.6601
6.476e+09  0.5202  0.7808  -0.006044  -0.007647  0.001828  -0.01344  0.6726  0.4256
6.478e+09  0.7446  0.5355  0.004299  -0.02111  0.01605  -0.03178  0.7902  0.2202
6.479e+09  0.8144  0.2349  0.0002714  0.007669  -0.03103  0.018  0.7843  -0.09863
6.48e+09  0.8792  -0.0533  -0.03342  -0.007292  -0.02424  0.03174  0.7443  -0.3371
6.481e+09  0.8307  -0.4157  -0.01274  -0.008266  0.01838  -0.005366  0.504  -0.608
6.482e+09  0.67  -0.6541  0.00456  -0.01121  -0.01578  -0.02189  0.3101  -0.7509
6.484e+09  0.4171  -0.8319  0.01031  -0.0111  -0.03906  0.02432  0.06897  -0.7718
6.485e+09  0.09707  -0.9174  0.007302  -0.03919  0.009618  0.007783  -0.2334  -0.7337
6.486e+09  -0.2935  -0.9171  -0.01527  0.008946  -0.02493  0.03136  -0.4553  -0.6086
6.488e+09  -0.5354  -0.75  -0.03142  -0.01482  -0.0293  -0.04179  -0.6432  -0.4402
6.489e+09  -0.789  -0.5421  0.02459  0.03624  -0.04192  0.03405  -0.7191  -0.1832
6.49e+09  -0.8706  -0.2089  -0.02344  -0.0266  0.007512  0.027  -0.7679  0.05967
6.491e+09  -0.9536  0.157  -0.03323  0.01262  -0.03137  0.07867  -0.6533  0.3358
6.492e+09  -0.8132  0.4266  0.006149  0.01451  0.03164  0.00307  -0.5398  0.5308
6.494e+09  -0.6478  0.7143  0.02823  -0.03712  0.008763  0.02487  -0.3227  0.7115
6.495e+09  -0.3114  0.848  -0.02159  -0.004352  0.01365  0.03969  -0.03457  0.7935
6.496e+09  -0.03072  0.9749  0.009715  -0.02047  -0.006597  -0.05782  0.2163  0.7293
6.498e+09  0.3268  0.8821  -0.04022  0.0169  -0.02935  -0.03452  0.4597  0.5542
6.499e+09  0.6411  0.7352  0.03168  0.008727  0.05968  -0.0245  0.6639  0.405
6.5e+09  0.7958  0.4917  -0.04108  0.006539  0.04668  0.05084  0.7555  0.1657
6.501e+09  0.907  0.2214  -0.03154  0.02865  0.02249  0.01642  0.7953  -0.0783
6.502e+09  0.9781  -0.1803  0.005289  -0.001147  0.004553  -0.0003613  0.6589  -0.36
6.504e+09  0.8066  -0.4421  0.02032  -0.02238  0.007907  -0.01737  0.5085  -0.5854
6.505e+09  0.6317  -0.6682  -0.005519  -0.01548  -0.002492  -0.02782  0.2963  -0.7281
6.506e+09  0.3561  -0.8727  -0.04454  -0.03863  0.01556  0.02838  -0.000908  -0.7673
6.508e+09  0.0007468  -0.9694  -0.006958  -0.02804  0.001846  0.01471  -0.2825  -0.7314
6.509e+09  -0.3484  -0.926  0.009386  0.0354  -0.05018  0.003055  -0.4812  -0.587
6.51e+09  -0.6012  -0.7145  -0.007374  -0.02144  -0.03152  -0.00294  -0.6428  -0.3645
6.511e+09  -0.8625  -0.4606  0.01028  -0.02108  0.008938  -0.03601  -0.7097  -0.1088
6.512e+09  -0.9621  -0.2022  0.01226  -0.003929  -0.00206  0.04749  -0.732  0.1305
6.514e+09  -0.9448  0.2002  -0.005014  0.01433  0.0361  0.0198  -0.6433  0.3882
6.515e+09  -0.8278  0.502  -0.0266  -0.01036  -0.006713  0.006018  -0.4629  0.6191
6.516e+09  -0.5774  0.7646  0.02486  -0.0275  -0.006845  -0.03816  -0.2437  0.6929
6.518e+09  -0.2703  0.9705  0.02089  0.03049  0.01528  0.01581  0.03845  0.7534
6.519e+09  0.04676  1.032  -0.01621  0.01292  -0.003924  0.006472  0.2438  0.6839
6.52e+09  0.4522  0.89  0.04319  -0.005561  -0.01017  0.005232  0.4905  0.545
6.521e+09  0.6532  0.7191  -0.002613  -0.005215  0.04377  -0.03165  0.6525  0.3471
6.522e+09  0.8303  0.428  -0.003703  -0.009017  -0.03046  0.01621  0.7474  0.09863
6.524e+09  0.9594  0.1268  -0.002148  -0.01068  -0.01163  -0.01427  0.7281  -0.1343
6.525e+09  0.9526  -0.2696  0.01153  0.01051  0.01665  0.03055  0.5961  -0.4189
6.526e+09  0.7872  -0.5498  -0.01497  0.002777  0.004182  0.004245  0.4073  -0.5425
6.528e+09  0.5744  -0.7733  -0.006532  -0.01209  -0.05092  0.0007926  0.1757  -0.6844
6.529e+09  0.2595  -0.9668  0.004696  -0.006458  0.0005647  -0.02997  -0.07753  -0.7195
6.53e+09  -0.1249  -0.9214  0.008857  -0.0001803  -0.002965  -0.01739  -0.2983  -0.647
6.531e+09  -0.3745  -0.8871  0.02035  -0.007327  -0.002895  -0.01056  -0.4711  -0.4906
6.532e+09  -0.7262  -0.6072  -0.00839  0.01206  0.01035  -0.03998  -0.5979  -0.2852
6.534e+09  -0.914  -0.351  -0.00184  -0.01972  0.04618  -0.0469  -0.6319  -0.07743
6.535e+09  -0.9563  -0.0325  -0.05104  -0.00345  0.003676  -0.002127  -0.6177  0.1044
6.536e+09  -1.006  0.3064  -0.01207  -0.0261  0.03537  -0.04832  -0.5514  0.2952
6.538e+09  -0.8141  0.6341  -0.00985  0.01092  0.04871  -0.00534  -0.4611  0.4591
6.539e+09  -0.4877  0.8603  0.008144  -0.007759  0.01267  0.023  -0.2683  0.6076
6.54e+09  -0.2067  0.911  0.007646  0.0009477  -0.03522  0.02896  -0.02131  0.67
6.541e+09  0.1694  0.9493  -0.003029  -0.006581  -0.004631  -0.01314  0.2273  0.6655
6.542e+09  0.4939  0.8714  0.03358  -5.62e-05  0.08651  0.01805  0.4138  0.5742
6.544e+09  0.7312  0.6097  -0.0177  0.001074  0.02977  0.03169  0.6108  0.3821
6.545e+09  0.9277  0.316  0.0226  0.003671  0.02737  -0.0005147  0.7019  0.162
6.546e+09  0.9108  0.001058  0.02457  -0.006865  0.01327  -0.002671  0.7275  -0.0755
6.548e+09  0.8729  -0.4018  -0.03031  0.01531  -0.0637  0.02431  0.66  -0.3105
6.549e+09  0.73  -0.6783  0.0009597  0.007706  0.03422  -0.05047  0.5114  -0.5464
6.55e+09  0.4114  -0.9129  -0.02802  -0.0048  0.03188  -0.0006309  0.2829  -0.6658
