# Hz S RI R 50
6.25e+09  -0.7991  -0.1645  -0.003278  0.04097  0.026  0.04272  0.164  0.4796
6.251e+09  -0.8354  0.1677  -0.01974  -0.02103  -0.01934  0.0268  0.3565  0.4159
6.252e+09  -0.753  0.4095  0.05217  0.02105  0.01008  0.002366  0.509  0.2423
6.254e+09  -0.4976  0.676  0.01805  -0.02359  -0.0196  0.01074  0.6056  0.02958
6.255e+09  -0.2743  0.7801  -0.009466  0.002773  0.01974  0.001577  0.5757  -0.2269
6.256e+09  0.0264  0.7513  0.01015  0.002077  -0.01631  0.02018  0.4658  -0.4382
6.258e+09  0.3079  0.7442  0.01983  -0.01526  0.01967  -0.04594  0.3005  -0.5848
6.259e+09  0.5437  0.5974  -0.01079  0.02787  0.009913  0.06041  0.04239  -0.6467
6.26e+09  0.7633  0.3806  -0.008275  0.02319  -0.0003003  -0.01315  -0.1808  -0.6816
6.261e+09  0.8304  0.08831  -0.003054  -0.02161  -0.04118  -0.00732  -0.4616  -0.5526
6.262e+09  0.8386  -0.1581  -0.0183  -0.01878  -0.04152  -0.008874  -0.5917  -0.3572
6.264e+09  0.7062  -0.5009  -0.001579  -0.001187  0.05437  -0.01421  -0.7083  -0.1075
6.265e+09  0.5403  -0.6532  0.007642  -0.01494  0.0192  -0.05901  -0.6861  0.1621
6.266e+09  0.2227  -0.774  0.01854  -0.009199  0.02364  0.01518  -0.6022  0.3906
6.268e+09  -0.02772  -0.7867  -0.02344  -0.01171  0.002535  -0.02643  -0.4534  0.6
6.269e+09  -0.3648  -0.7054  0.003345  -0.002711  -0.04769  -0.0536  -0.1548  0.7125
6.27e+09  -0.5814  -0.5408  0.03113  -0.01949  -0.02672  -0.003345  0.06285  0.7409
6.271e+09  -0.6889  -0.3495  -0.02057  -0.03052  -0.02112  -0.001149  0.3241  0.676
6.272e+09  -0.8095  -0.0654  0.006158  0.004867  0.02396  -0.00408  0.5669  0.4891
6.274e+09  -0.7893  0.2256  0.009642  0.01279  0.05719  -0.0348  0.6956  0.3193
6.275e+09  -0.6664  0.5166  0.008234  0.01605  0.002994  0.01147  0.7899  0.04695
6.276e+09  -0.4765  0.6356  -0.01958  -0.003434  -0.04311  -0.0008132  0.726  -0.2242
6.278e+09  -0.1402  0.8114  0.02331  0.005417  0.0232  -0.008079  0.6144  -0.4496
6.279e+09  0.04893  0.7968  0.004687  0.01115  -0.03566  0.03666  0.3884  -0.6907
6.28e+09  0.341  0.6984  -0.003933  -0.00204  -0.008534  -0.006477  0.176  -0.7734
6.281e+09  0.5956  0.5817  -0.007044  0.002604  0.01258  0.02354  -0.09642  -0.773
6.282e+09  0.7108  0.326  -0.005881  -0.01268  -0.03452  0.02722  -0.3569  -0.7128
6.284e+09  0.8717  0.02581  0.002231  0.009374  -0.05424  0.01482  -0.6178  -0.5023
6.285e+09  0.7504  -0.2276  -0.02383  -0.03047  0.04128  -0.002296  -0.744  -0.2618
6.286e+09  0.631  -0.4932  0.01647  -0.01887  0.0339  0.02083  -0.7704  -0.02053
6.288e+09  0.4598  -0.6499  0.03022  0.003806  -0.03453  -0.008265  -0.7398  0.2643
6.289e+09  0.1853  -0.8279  0.005295  -0.03773  0.01516  -0.01596  -0.661  0.5114
6.29e+09  -0.09951  -0.7951  0.003849  -0.02501  -0.02215  0.03814  -0.4208  0.7056
6.291e+09  -0.3923  -0.7161  0.01289  7.594e-05  -0.01318  -0.02941  -0.1846  0.8128
6.292e+09  -0.5784  -0.4777  0.02855  -0.02204  -0.01601  -0.01726  0.1275  0.8553
6.294e+09  -0.7358  -0.3063  0.009818  -0.003031  0.01979  -0.000319  0.402  0.7149
6.295e+09  -0.8482  0.02215  0.01407  0.03575  0.02239  -0.02023  0.6222  0.533
6.296e+09  -0.803  0.2519  -0.002003  -0.01769  0.01449  -0.01286  0.7559  0.2686
6.298e+09  -0.5827  0.4929  -0.003457  -0.0204  -0.02421  -0.02445  0.8137  0.01257
6.299e+09  -0.4113  0.698  -0.004074  -0.01681  -0.04613  -0.008132  0.8272  -0.2658
6.3e+09  -0.1385  0.8434  0.01633  0.003968  -0.00653  0.06063  0.6498  -0.5359
6.301e+09  0.1735  0.7521  -0.02209  -0.009868  -0.000792  0.01985  0.4511  -0.714
6.302e+09  0.4718  0.7722  -0.01401  -0.006041  -0.004836  0.01228  0.1608  -0.82
6.304e+09  0.6382  0.5097  0.00495  -0.01375  -0.03095  0.02961  -0.1401  -0.8393
6.305e+09  0.774  0.2231  -0.03164  0.005916  0.01497  -0.006509  -0.4161  -0.7333
6.306e+09  0.8452  -0.08772  0.002902  0.005059  -0.01437  0.02158  -0.6385  -0.5535
6.308e+09  0.7865  -0.3067  0.02844  0.03594  -0.008813  -0.03087  -0.7997  -0.3055
6.309e+09  0.5832  -0.5437  -0.007481  -0.01135  -0.013  0.002504  -0.8645  -0.01151
6.31e+09  0.3791  -0.741  0.01237  0.01601  -0.02209  -0.05121  -0.8022  0.2877
6.311e+09  0.05769  -0.8196  0.00138  -0.005225  0.03321  -0.01372  -0.6315  0.5406
6.312e+09  -0.1939  -0.8213  -0.002476  0.01284  -0.0006198  -0.0121  -0.4297  0.7541
6.314e+09  -0.4969  -0.6477  -0.01669  -0.005536  -0.001548  0.0483  -0.1395  0.8501
6.315e+09  -0.7033  -0.4697  -0.01135  -0.002036  0.03674  -0.02449  0.1864  0.8748
6.316e+09  -0.8168  -0.1982  0.001063  0.005702  -0.01258  -0.04162  0.4309  0.7474
6.318e+09  -0.8069  0.06172  0.02524  -0.004718  -0.03385  0.04278  0.6516  0.5679
6.319e+09  -0.7389  0.3802  -0.01584  0.02409  0.01373  0.025  0.8365  0.2981
6.32e+09  -0.5846  0.6  0.02216  0.008732  -0.0234  -0.002998  0.8748  0.02792
6.321e+09  -0.3267  0.7646  -0.0317  -0.03203  -0.02721  -0.02579  0.8411  -0.2968
6.322e+09  -0.009189  0.8527  -0.004303  0.03936  0.008298  -0.0624  0.6887  -0.5523
6.324e+09  0.2735  0.8103  0.02049  0.01038  0.03502  -0.03664  0.4547  -0.8094
6.325e+09  0.5082  0.7241  -0.01861  0.003695  -0.04088  0.04476  0.18  -0.8641
6.326e+09  0.7496  0.4512  -0.02197  0.03196  -0.01397  -0.01279  -0.1326  -0.8854
6.328e+09  0.7942  0.1343  0.005766  -0.02733  0.01867  0.01594  -0.4199  -0.7879
6.329e+09  0.8351  -0.08995  0.01809  0.0226  -0.0682  0.01334  -0.6707  -0.5862
6.33e+09  0.6789  -0.4156  0.007953  0.0136  -0.02346  0.04156  -0.8587  -0.326
6.331e+09  0.5277  -0.6067  -0.01973  0.02705  0.02912  -0.01704  -0.9087  0.01544
6.332e+09  0.2958  -0.8209  0.01002  0.01794  -0.03448  -0.005066  -0.8533  0.2511
6.334e+09  0.02647  -0.8489  -0.004646  -0.02132  0.04109  0.00646  -0.6999  0.5228
6.335e+09  -0.3479  -0.7687  -0.01489  -0.008562  -0.008451  0.04987  -0.4794  0.8161
6.336e+09  -0.5641  -0.621  0.02948  -0.002537  0.03128  -0.03756  -0.1645  0.9185
6.338e+09  -0.7358  -0.3608  0.02754  0.005357  -0.004794  0.01669  0.1259  0.8993
6.339e+09  -0.836  -0.1155  0.02663  0.04125  -0.0158  -0.03469  0.4101  0.8529
6.34e+09  -0.8227  0.2218  -0.01907  0.01698  -0.07395  0.006077  0.644  0.6279
6.341e+09  -0.7201  0.4988  0.01158  0.01043  0.006757  -0.02508  0.8681  0.3584
6.342e+09  -0.4495  0.7448  -0.002909  0.008201  -0.005569  8.857e-05  0.9413  0.01655
6.344e+09  -0.183  0.8633  0.004307  0.04845  -0.0117  -0.003462  0.8764  -0.2823
6.345e+09  0.1156  0.8186  -0.006423  0.001506  -0.06066  -0.04721  0.7329  -0.5694
6.346e+09  0.3495  0.7583  -0.01545  -0.03437  0.005604  -0.05385  0.5181  -0.795
6.348e+09  0.5768  0.5854  0.0385  0.0157  0.01673  -0.01672  0.2343  -0.9283
6.349e+09  0.8117  0.3209  0.005782  0.02078  -0.02249  0.03989  -0.1178  -0.9574
6.35e+09  0.8391  0.03116  -0.003465  -0.004127  -0.00248  -0.006855  -0.4157  -0.8338
6.351e+09  0.8267  -0.2808  -0.03777  -0.02355  0.03199  -0.01054  -0.7123  -0.6424
6.352e+09  0.6678  -0.577  -0.02776  -0.004752  0.009069  -0.0415  -0.8554  -0.3708
6.354e+09  0.436  -0.7385  0.006852  0.005912  0.02654  0.008136  -0.9373  -0.08305
6.355e+09  0.1429  -0.8513  -0.0011  0.008036  0.03052  0.005895  -0.8675  0.2442
6.356e+09  -0.1693  -0.8164  -0.01469  0.03204  -0.0563  0.02271  -0.7922  0.5878
6.358e+09  -0.4253  -0.7109  0.003936  0.01443  -0.02999  0.03078  -0.5355  0.771
6.359e+09  -0.6876  -0.5024  -0.01431  0.002126  -0.04143  0.01366  -0.2424  0.8952
6.36e+09  -0.8217  -0.2405  -0.003105  0.01358  0.03981  0.008876  0.07067  0.9573
6.361e+09  -0.8923  0.03713  0.008971  -0.01846  0.04186  -0.02615  0.3792  0.8808
6.362e+09  -0.7491  0.3591  -0.01627  0.02168  0.02908  -0.01812  0.6909  0.637
6.364e+09  -0.6237  0.6145  -0.005106  0.005413  -0.001878  -0.0434  0.8687  0.3664
6.365e+09  -0.3523  0.7977  0.007971  0.01157  -0.04211  -0.009727  0.9032  0.09793
6.366e+09  -0.03459  0.954  -0.02604  -0.03753  -0.000581  0.02471  0.8833  -0.2248
6.368e+09  0.2491  0.84  0.01028  -0.01645  0.01187  -0.01029  0.7633  -0.5495
6.369e+09  0.5368  0.6868  0.003501  0.0212  -0.02745  -0.03016  0.5379  -0.7634
6.37e+09  0.7304  0.4948  0.01135  -0.01853  0.02994  0.01466  0.2176  -0.9176
6.371e+09  0.8286  0.1693  -0.05203  -0.01755  0.0227  -0.003573  -0.06851  -0.9615
6.372e+09  0.8637  -0.1161  -0.04863  -0.02465  0.01091  0.03166  -0.4135  -0.852
6.374e+09  0.7447  -0.4385  -0.01739  0.005449  0.007129  -0.03293  -0.665  -0.7276
6.375e+09  0.5674  -0.6755  0.005314  0.007755  -0.003762  0.001974  -0.8793  -0.4389
6.376e+09  0.3085  -0.8837  -0.00184  -0.02218  0.01038  -0.001929  -0.9105  -0.1062
6.378e+09  -0.01349  -0.8755  0.00265  0.007386  -0.01521  -6.309e-05  -0.938  0.2299
6.379e+09  -0.3102  -0.7982  -0.02209  0.01597  -0.02985  0.004884  -0.8005  0.5106
6.38e+09  -0.5609  -0.6791  -0.008583  -0.03197  -0.02836  0.004139  -0.5545  0.7156
6.381e+09  -0.7448  -0.4437  -0.002135  -0.007199  0.03312  -0.02032  -0.2865  0.8821
6.382e+09  -0.9028  -0.08541  -0.02911  -0.01257  0.01621  0.03264  0.03319  0.9557
6.384e+09  -0.8794  0.2163  -0.003069  0.04823  -0.04745  0.01947  0.3685  0.9177
6.385e+09  -0.7137  0.4487  0.01108  0.0407  0.02049  -0.0524  0.6374  0.6828
6.386e+09  -0.5363  0.7811  -0.04073  0.03707  0.04793  0.0009771  0.7969  0.4265
6.388e+09  -0.2376  0.8728  -0.01411  -0.009708  0.01582  -0.04696  0.9081  0.1261
6.389e+09  0.1273  0.8358  0.00154  -0.02651  -0.005038  0.00612  0.8965  -0.2188
6.39e+09  0.4539  0.7708  0.01839  0.02051  -0.003131  0.01957  0.7964  -0.4855
6.391e+09  0.656  0.5559  0.0204  -0.01132  -0.001506  -0.001615  0.5688  -0.6861
6.392e+09  0.8026  0.3431  0.002017  -0.0161  0.00289  -0.01066  0.2636  -0.9027
6.394e+09  0.8595  0.04056  -0.00481  0.004191  0.003964  -0.004781  -0.02025  -0.9382
6.395e+09  0.7965  -0.3403  0.0008415  0.005964  -0.005079  -0.008324  -0.341  -0.8993
6.396e+09  0.6883  -0.5801  -0.03148  -0.02027  -0.01439  -0.02896  -0.602  -0.703
6.398e+09  0.4088  -0.8067  0.01552  -0.009335  0.006599  0.0009467  -0.8199  -0.4425
6.399e+09  0.1145  -0.8912  -0.01717  -0.03803  0.008694  -0.009003  -0.9112  -0.1592
6.4e+09  -0.1653  -0.8485  0.002427  0.005554  0.03278  -0.06167  -0.9373  0.1669
6.401e+09  -0.4055  -0.7479  0.005093  -0.04815  0.001131  -0.00813  -0.7673  0.5204
6.402e+09  -0.7105  -0.5221  -0.01503  -0.01804  0.02119  -0.02443  -0.5783  0.6964
6.404e+09  -0.8081  -0.2559  -0.01821  0.004743  0.02319  0.02754  -0.312  0.8721
6.405e+09  -0.886  0.002885  -0.041  -0.01763  -0.001938  0.03631  0.002359  0.9529
6.406e+09  -0.7907  0.3151  0.01755  -0.00392  0.04048  0.003483  0.2797  0.8931
6.408e+09  -0.6118  0.5968  0.008789  0.01742  0.03418  -0.009854  0.5496  0.6961
6.409e+09  -0.3504  0.7791  -0.02338  -0.02112  0.04703  0.05035  0.7938  0.4653
6.41e+09  -0.08536  0.8769  -0.009739  0.000955  0.0385  0.0398  0.8925  0.1752
6.411e+09  0.2546  0.8221  -0.005148  0.00669  0.0396  -0.01023  0.8472  -0.1354
6.412e+09  0.5223  0.7154  -0.01447  0.03502  -0.005298  0.02746  0.8223  -0.4576
6.414e+09  0.7124  0.4626  0.0331  -0.0007753  0.03905  0.02317  0.5971  -0.7065
6.415e+09  0.8709  0.226  -0.01343  0.003414  0.01901  0.04891  0.2918  -0.8327
6.416e+09  0.8698  -0.1397  -0.001955  0.008494  -0.006922  0.03204  0.04237  -0.9056
6.418e+09  0.7513  -0.3988  -0.01765  -0.006914  0.03474  0.0026  -0.2963  -0.8729
6.419e+09  0.6192  -0.6022  0.03436  0.003442  0.0026  0.01592  -0.5462  -0.743
6.42e+09  0.2945  -0.8048  -0.03565  0.01468  -0.04136  -2.652e-05  -0.7575  -0.512
6.421e+09  0.03822  -0.9309  -0.01697  0.03657  0.01247  0.02763  -0.8562  -0.2218
6.422e+09  -0.2996  -0.83  0.009346  0.002875  0.0112  -7.847e-05  -0.8363  0.07448
6.424e+09  -0.4953  -0.6607  -0.03339  -0.05305  0.008386  -0.001611  -0.7537  0.3954
6.425e+09  -0.7356  -0.4292  -0.001384  0.006904  -0.03514  0.001991  -0.6133  0.6094
6.426e+09  -0.8338  -0.179  -0.02626  0.01707  -0.00924  0.01213  -0.3247  0.8065
6.428e+09  -0.8278  0.1867  -0.007756  -0.002227  0.0009257  -0.009079  -0.04466  0.8368
6.429e+09  -0.7778  0.4359  -0.08204  -0.01685  -0.01362  -0.008117  0.2885  0.8277
6.43e+09  -0.557  0.7114  -0.004672  -0.003612  0.02261  -0.03308  0.5337  0.6675
6.431e+09  -0.2788  0.8116  0.01038  -0.05554  0.006996  0.05581  0.687  0.5474
6.432e+09  0.04126  0.8725  0.01569  0.02944  -0.01616  0.03289  0.8186  0.2411
6.434e+09  0.3708  0.7754  0.02647  0.04089  0.02289  -0.01624  0.848  -0.08009
6.435e+09  0.5968  0.6467  0.02093  0.00174  -0.003695  0.06642  0.7615  -0.3663
6.436e+09  0.7856  0.3694  -0.003774  0.01004  0.00972  0.00858  0.5865  -0.5723
6.438e+09  0.827  0.08704  -0.01663  -0.004888  0.02933  -0.03422  0.3603  -0.8076
6.439e+09  0.8395  -0.2033  0.0003471  -0.009995  -0.02882  -0.005047  0.1087  -0.8308
6.44e+09  0.7245  -0.503  -0.02765  -0.03097  0.008  -0.01564  -0.2545  -0.8686
6.441e+09  0.5001  -0.7337  0.005048  0.01244  0.01945  0.005579  -0.4948  -0.6872
6.442e+09  0.226  -0.8165  0.02384  -0.01185  0.01845  0.052  -0.6437  -0.5124
6.444e+09  -0.0592  -0.8684  -0.05067  0.02242  -0.05768  0.02124  -0.8287  -0.2032
6.445e+09  -0.3473  -0.8264  0.01465  0.006705  -0.0445  -0.01533  -0.8471  0.1273
6.446e+09  -0.5988  -0.6305  0.009682  -0.003619  0.005081  -0.01072  -0.7298  0.3442
6.448e+09  -0.7458  -0.3162  -0.01896  0.001967  0.008848  -0.02347  -0.5942  0.6122
6.449e+09  -0.9035  -0.07225  -0.004349  -0.03143  -0.003295  -0.006377  -0.3484  0.796
6.45e+09  -0.835  0.2576  0.0176  0.01079  -0.02788  0.01537  -0.09183  0.8481
6.451e+09  -0.6827  0.4949  -0.02148  -0.02819  -0.02908  -0.009624  0.2393  0.7658
6.452e+09  -0.4266  0.7378  -0.03359  -0.01593  -0.009567  0.02197  0.4457  0.6625
6.454e+09  -0.1813  0.8225  -0.008595  0.0327  -0.009177  -0.01575  0.6875  0.4788
6.455e+09  0.06008  0.8629  0.02476  0.05597  0.02771  -0.00453  0.835  0.2146
6.456e+09  0.3838  0.788  0.00655  0.04589  -0.04654  0.01976  0.8213  -0.06996
6.458e+09  0.6315  0.599  -0.02541  -0.005695  -0.004794  0.02173  0.766  -0.2947
6.459e+09  0.7669  0.3564  0.006368  0.002941  -0.002805  -0.02643  0.6218  -0.5898
6.46e+09  0.8092  0.01696  -0.004864  0.02245  0.006188  0.01455  0.3128  -0.7193
6.461e+09  0.7915  -0.2545  -0.03468  0.01275  -0.03247  -0.02589  0.06534  -0.8233
6.462e+09  0.679  -0.4453  -0.01583  0.01735  -0.04417  -0.007234  -0.253  -0.7483
6.464e+09  0.4538  -0.7492  0.02501  0.02476  0.075  0.01052  -0.467  -0.6888
6.465e+09  0.1841  -0.8513  0.03684  0.0122  -0.01456  -0.03791  -0.6702  -0.5139
6.466e+09  -0.1463  -0.8991  -0.01864  -0.04151  0.02281  -0.01103  -0.7587  -0.1816
6.468e+09  -0.4057  -0.7659  -0.04123  0.009524  0.008721  -0.01716  -0.8019  0.06743
6.469e+09  -0.6108  -0.5468  0.01883  -0.02518  0.0579  0.03044  -0.6988  0.3262
6.47e+09  -0.7801  -0.3155  -0.01819  -0.02852  -0.0006679  0.04144  -0.5898  0.5376
6.471e+09  -0.862  -0.007954  0.016  -0.001645  -0.002062  0.03511  -0.3026  0.7353
6.472e+09  -0.7916  0.3047  -0.034  -0.01774  -0.03552  -0.04122  -0.04973  0.7912
6.474e+09  -0.6756  0.511  -0.01416  0.01007  -0.01725  0.009582  0.2253  0.7766
6.475e+09  -0.4518  0.754  -0.008838  0.01805  -0.06048  -0.01594  0.4652  0.649
6.476e+09  -0.1508  0.7956  0.008728  0.005281  0.00914  0.01874  0.6267  0.443
6.478e+09  0.1359  0.872  -0.003948  0.01752  -0.006701  -0.02058  0.7991  0.1424
6.479e+09  0.3823  0.7812  -0.01834  -0.004258  -0.01714  0.07913  0.7549  -0.06982
6.48e+09  0.6735  0.5637  -0.01052  0.03221  0.02452  0.0514  0.7135  -0.3275
6.481e+09  0.8473  0.3542  0.02324  0.03093  0.009886  0.00505  0.5371  -0.53
6.482e+09  0.9014  -0.0023  0.02462  0.01598  0.01724  -0.003447  0.2815  -0.7484
6.484e+09  0.8456  -0.286  -0.03264  -0.01211  0.004607  0.0295  0.05142  -0.7805
6.485e+09  0.6359  -0.5304  -0.02102  -0.02738  -0.01677  0.0119  -0.1859  -0.7455
6.486e+09  0.423  -0.7559  -0.006942  -0.02878  0.02365  -0.03932  -0.4755  -0.5899
6.488e+09  0.0935  -0.8317  -0.006153  0.02085  -0.001181  -0.009813  -0.639  -0.393
6.489e+09  -0.1171  -0.8672  0.02922  0.01951  -0.01042  0.01937  -0.7769  -0.1671
6.49e+09  -0.4377  -0.7889  -0.02034  -0.004767  0.01955  -0.007477  -0.7532  0.09368
6.491e+09  -0.6508  -0.6284  -0.03255  -0.02193  -0.04023  0.04192  -0.7363  0.3216
6.492e+09  -0.8032  -0.3333  0.06854  0.005294  0.01303  0.02696  -0.5173  0.5556
6.494e+09  -0.8301  -0.01755  -0.06248  -0.02585  -0.001985  0.00311  -0.3166  0.7004
6.495e+09  -0.7454  0.3316  0.0006656  -0.007466  -0.009454  -0.0337  -0.0141  0.7725
6.496e+09  -0.6945  0.593  -0.0009971  0.02723  -0.03643  0.05049  0.244  0.7017
6.498e+09  -0.4527  0.7363  0.004937  0.01121  0.01393  0.02217  0.4708  0.6178
6.499e+09  -0.159  0.9065  0.01408  0.03291  -0.07877  0.03653  0.6696  0.4185
6.5e+09  0.1443  0.8546  0.03077  -0.01118  -0.007071  0.009661  0.8094  0.1839
6.501e+09  0.4922  0.7655  -0.0004824  -0.003706  0.0171  0.01048  0.7342  -0.07592
6.502e+09  0.7142  0.5204  0.01841  -0.005948  -0.006249  0.01953  0.6714  -0.3544
6.504e+09  0.79  0.3457  0.01015  -0.01328  0.01247  0.01828  0.5163  -0.5764
6.505e+09  0.9112  -0.05478  -0.02948  -0.001966  0.01148  -0.005547  0.2605  -0.7485
6.506e+09  0.8478  -0.311  0.03402  0.01289  0.02028  0.03699  -0.05035  -0.8009
6.508e+09  0.6654  -0.5897  -0.005664  -0.02414  0.007087  -0.007806  -0.2478  -0.6963
6.509e+09  0.42  -0.7761  -0.02855  -0.006227  -0.01913  0.02255  -0.4787  -0.6026
6.51e+09  0.123  -0.8654  0.02332  0.02529  0.008621  -0.006827  -0.6302  -0.3686
6.511e+09  -0.1854  -0.8927  -0.03693  0.007565  0.01434  -0.01185  -0.7556  -0.1527
6.512e+09  -0.4616  -0.7931  -0.0303  0.03488  -0.00237  0.006778  -0.7611  0.1157
6.514e+09  -0.7438  -0.541  -0.02342  -0.01227  -0.004772  -0.01081  -0.6524  0.361
6.515e+09  -0.8708  -0.2682  0.002753  0.007655  0.005097  0.008538  -0.4947  0.5613
6.516e+09  -0.9217  0.08715  0.02749  0.007021  -0.02698  0.01234  -0.2279  0.7035
6.518e+09  -0.8464  0.4107  -0.02555  -0.006679  -0.001774  0.0008118  -0.01373  0.7348
6.519e+09  -0.641  0.641  -0.001447  0.006552  0.0108  0.0166  0.247  0.7175
6.52e+09  -0.3828  0.8312  -0.01015  0.005529  0.0009682  0.0009114  0.4996  0.5524
6.521e+09  -0.111  0.8713  0.01234  -0.004482  0.07359  0.05713  0.6796  0.3626
6.522e+09  0.2427  0.8877  -0.01206  0.004752  -0.04058  0.02895  0.7241  0.1127
6.524e+09  0.4879  0.7698  -0.0002092  0.02091  0.01159  -0.01507  0.6884  -0.1415
6.525e+09  0.7599  0.4797  -0.02535  -0.01152  7.731e-05  0.02477  0.6076  -0.3906
6.526e+09  0.9027  0.2507  0.01682  0.05308  -0.05077  -0.01753  0.4317  -0.5922
6.528e+09  0.9036  -0.1225  0.02638  -0.03923  0.01388  0.005003  0.2057  -0.6804
6.529e+09  0.8298  -0.422  -0.03065  -0.003733  0.006514  0.04022  -0.08229  -0.7086
6.53e+09  0.6318  -0.7113  -0.03192  0.03521  0.009617  -0.005904  -0.2747  -0.588
6.531e+09  0.3709  -0.8853  0.00515  -0.01386  0.03498  -0.01981  -0.4787  -0.4662
6.532e+09  0.05335  -0.9553  -0.03585  -0.02124  0.008126  -0.02522  -0.5953  -0.2694
6.534e+09  -0.3219  -0.8807  0.01475  -0.003315  -0.01547  0.06198  -0.6123  -0.1168
6.535e+09  -0.5521  -0.7383  -0.02078  -0.01933  0.001521  0.01783  -0.6049  0.08476
6.536e+09  -0.77  -0.5254  0.01771  0.008686  -0.01036  0.005626  -0.5391  0.3052
6.538e+09  -0.9304  -0.1895  -0.01888  -0.02207  -0.001415  -0.03246  -0.4535  0.4664
6.539e+09  -0.9701  0.1341  -0.03663  -0.0002694  -0.01912  -0.01631  -0.2681  0.6158
6.54e+09  -0.8115  0.4385  -0.002361  -0.003651  0.04335  0.01274  -0.06559  0.6999
6.541e+09  -0.6135  0.7643  -0.03343  -0.0002578  0.04271  -0.03297  0.1777  0.6626
6.542e+09  -0.3488  0.9406  -0.0004166  -0.004283  -0.03037  0.003158  0.4147  0.5101
6.544e+09  -0.04458  0.9678  0.001896  0.01142  -0.002157  -0.0452  0.6185  0.4179
6.545e+09  0.3503  0.9613  0.02895  0.03947  0.02443  0.01866  0.7139  0.1665
6.546e+09  0.637  0.7538  0.01435  -0.007337  0.04592  0.04789  0.6914  -0.06429
6.548e+09  0.8703  0.4385  -0.00602  -0.007006  0.04089  0.0375  0.6527  -0.3322
6.549e+09  0.9391  0.09014  0.02092  -0.007426  0.03887  -0.09521  0.5233  -0.5331
6.55e+09  0.8816  -0.25  -0.01729  -0.03281  -0.06428  -0.02414  0.328  -0.6676
