# Hz S RI R 50
6.25e+09  -0.239  0.7866  -0.01078  -0.00731  -0.006327  -0.06691  0.1638  0.4891
6.251e+09  0.008433  0.8575  -0.01946  -0.01116  -0.02683  -0.004915  0.3661  0.4243
6.252e+09  0.3382  0.8254  -0.008603  -0.004388  -0.01235  0.02059  0.5243  0.2276
6.254e+09  0.5966  0.6274  -0.02472  0.006477  -0.007169  0.04758  0.6194  0.005844
6.255e+09  0.7254  0.4119  -0.00175  -0.007637  -0.07509  0.03361  0.5968  -0.2097
6.256e+09  0.8031  0.0905  0.003522  0.006406  0.0334  0.01402  0.4761  -0.4672
6.258e+09  0.8168  -0.1549  0.01579  0.01764  0.02271  0.02277  0.302  -0.5906
6.259e+09  0.7386  -0.4289  0.01891  -0.006383  0.03873  -0.0124  0.02987  -0.7045
6.26e+09  0.5746  -0.6447  0.004393  -0.01797  -0.0578  0.001291  -0.217  -0.6569
6.261e+09  0.2678  -0.8023  0.01635  -0.006023  0.005997  0.02195  -0.4547  -0.5618
6.262e+09  -0.0262  -0.9234  0.001273  0.03038  -0.03943  -0.004115  -0.6109  -0.3579
6.264e+09  -0.3058  -0.7781  -0.01828  0.01027  -0.02625  -0.03985  -0.7255  -0.08748
6.265e+09  -0.5697  -0.5911  -0.003349  0.005744  -0.06128  -0.03379  -0.703  0.1537
6.266e+09  -0.7439  -0.3611  0.01969  -0.01232  -0.01446  0.02137  -0.6069  0.4108
6.268e+09  -0.8146  -0.1061  -0.005079  0.01525  0.004568  -0.006713  -0.433  0.5778
6.269e+09  -0.7812  0.2015  0.01614  -0.02746  0.01779  -0.01446  -0.1865  0.7244
6.27e+09  -0.6489  0.4439  0.02144  -0.01008  -0.002295  -0.02743  0.05093  0.7451
6.271e+09  -0.463  0.6805  0.02495  -0.009837  0.04448  -0.0127  0.3365  0.6848
6.272e+09  -0.2338  0.7964  0.02143  -0.003067  0.03229  -0.07592  0.5367  0.5106
6.274e+09  0.03687  0.8282  -0.009059  0.01481  0.02142  0.0434  0.7251  0.2858
6.275e+09  0.326  0.8179  -0.007461  -0.01128  0.0185  -0.001581  0.7782  0.02738
6.276e+09  0.5345  0.5871  0.01195  0.02026  0.03733  -0.001079  0.7563  -0.2115
6.278e+09  0.7394  0.4351  0.02542  -0.005213  0.01549  -0.01056  0.5985  -0.4686
6.279e+09  0.8786  0.1478  0.0006868  0.00325  0.02597  -0.02154  0.4175  -0.675
6.28e+09  0.8155  -0.192  -0.01115  -0.02252  -0.005362  0.05484  0.1447  -0.7675
6.281e+09  0.6893  -0.4745  0.01601  -0.01346  0.03054  -0.03365  -0.1028  -0.7549
6.282e+09  0.4913  -0.6316  -0.02418  0.002577  -0.05138  -0.01075  -0.3282  -0.6901
6.284e+09  0.1695  -0.7737  0.03018  0.01435  -0.01866  -0.000855  -0.6199  -0.521
6.285e+09  -0.07251  -0.8762  -0.007488  0.009505  0.01892  -0.03237  -0.7318  -0.2747
6.286e+09  -0.3728  -0.7299  -0.0006535  -0.02262  -0.03023  -0.003057  -0.7913  -0.005572
6.288e+09  -0.5886  -0.5424  0.0159  0.01329  0.01506  0.01211  -0.7637  0.2417
6.289e+09  -0.766  -0.375  -0.006  -0.01561  -0.04261  0.03214  -0.627  0.5029
6.29e+09  -0.8548  -0.04054  -0.005513  0.01149  0.0413  0.00522  -0.4099  0.7122
6.291e+09  -0.7687  0.2209  -0.009966  0.02377  -0.001479  0.02943  -0.1388  0.7814
6.292e+09  -0.6571  0.5036  -0.01456  -0.02896  -0.01573  0.01522  0.127  0.7949
6.294e+09  -0.4552  0.6662  0.0225  -0.01479  -0.0007546  -0.02706  0.3801  0.7004
6.295e+09  -0.1533  0.8419  -0.0171  -0.01435  0.001742  0.0358  0.6351  0.5171
6.296e+09  0.0854  0.8451  -0.009263  -0.01678  -0.02958  -0.01393  0.8045  0.2797
6.298e+09  0.3497  0.7485  -0.005137  0.01075  0.04888  -0.03459  0.8588  -0.01015
6.299e+09  0.6059  0.5805  -0.009818  0.01427  0.004096  -0.04139  0.7766  -0.2795
6.3e+09  0.7745  0.342  -0.01934  -0.01021  -0.006289  -0.001054  0.6294  -0.5124
6.301e+09  0.8779  0.07945  0.0147  0.01269  -0.01359  0.03495  0.4598  -0.7164
6.302e+09  0.8262  -0.287  0.01393  0.02291  -0.06755  0.007306  0.1695  -0.7974
6.304e+09  0.6486  -0.5802  0.005237  -7.704e-06  0.01475  0.04453  -0.1164  -0.821
6.305e+09  0.416  -0.7336  0.03142  0.00865  -0.02537  -0.01139  -0.4244  -0.7284
6.306e+09  0.2023  -0.8607  0.004254  -0.01208  0.02841  -0.001013  -0.6545  -0.5447
6.308e+09  -0.1657  -0.788  -0.002217  0.02026  0.07359  -0.01428  -0.8218  -0.2856
6.309e+09  -0.3972  -0.699  -0.03833  0.03875  0.005127  0.02448  -0.8687  -0.01681
6.31e+09  -0.6379  -0.5199  0.01042  0.01284  -0.0223  0.06412  -0.8342  0.2806
6.311e+09  -0.8182  -0.2524  -0.005275  -0.003725  -0.002843  -0.03023  -0.6642  0.5596
6.312e+09  -0.865  -0.03458  -0.01211  -0.0001779  -0.01099  -0.05204  -0.4622  0.7586
6.314e+09  -0.8022  0.2913  0.01936  0.0163  0.0237  0.001345  -0.1404  0.8507
6.315e+09  -0.6077  0.5649  0.02123  0.009344  0.01873  0.008569  0.1171  0.8724
6.316e+09  -0.4161  0.7148  0.04261  0.02816  -0.01049  -0.005804  0.4377  0.7582
6.318e+09  -0.1631  0.8384  0.002284  0.02145  -0.03962  -0.02674  0.689  0.5719
6.319e+09  0.2071  0.8166  -0.008319  -0.009354  -0.02216  0.02459  0.8121  0.3107
6.32e+09  0.4979  0.745  0.002772  -0.003829  -0.02295  0.02335  0.879  3.07e-05
6.321e+09  0.6108  0.5402  -0.009697  -0.01326  -0.006539  0.01448  0.8603  -0.2804
6.322e+09  0.8431  0.2452  0.009289  0.01457  -0.01411  0.00564  0.6794  -0.5903
6.324e+09  0.88  -0.01844  -0.007364  -0.01723  0.007827  0.02207  0.4385  -0.7628
6.325e+09  0.796  -0.3808  0.001528  0.03954  0.02681  -0.002004  0.1619  -0.8977
6.326e+09  0.6173  -0.5763  -0.01659  -0.01537  -0.005501  -0.02773  -0.1478  -0.8509
6.328e+09  0.3744  -0.7734  -0.02814  -0.007664  0.02472  -0.02354  -0.4492  -0.807
6.329e+09  0.06497  -0.8529  0.009042  -0.04361  0.07631  -0.0684  -0.6904  -0.5902
6.33e+09  -0.188  -0.7898  0.03123  0.02963  0.03091  -0.02864  -0.8554  -0.3333
6.331e+09  -0.5121  -0.7122  -0.01636  0.003736  0.003786  0.02952  -0.8822  -0.0198
6.332e+09  -0.7607  -0.4964  -0.006854  0.007548  0.001299  -0.007019  -0.8681  0.2793
6.334e+09  -0.8745  -0.1628  -0.01778  0.003453  0.02566  0.02841  -0.715  0.5453
6.335e+09  -0.82  0.1217  -0.02327  0.02368  0.01984  0.02384  -0.466  0.7671
6.336e+09  -0.7765  0.4165  0.008202  0.04242  0.03062  -0.02184  -0.1621  0.9121
6.338e+09  -0.6051  0.6723  0.0009327  0.001781  0.01746  0.01219  0.1119  0.8985
6.339e+09  -0.2985  0.8544  0.01009  0.007281  0.01394  0.007594  0.4199  0.8225
6.34e+09  -0.03037  0.9159  0.02259  -0.002626  0.01415  -0.04796  0.6732  0.5919
6.341e+09  0.2628  0.829  0.0127  -0.01306  0.01783  0.01635  0.8851  0.3415
6.342e+09  0.5921  0.6991  0.01321  -0.001122  0.01013  0.03517  0.957  0.05984
6.344e+09  0.7322  0.4369  0.01607  -0.002844  -0.04341  0.02431  0.8741  -0.2819
6.345e+09  0.8725  0.1525  0.009871  -0.02114  -0.01494  0.01731  0.7552  -0.5036
6.346e+09  0.8632  -0.1874  -0.009621  -0.03184  -0.002451  -0.04345  0.525  -0.7856
6.348e+09  0.7612  -0.4825  0.005171  -0.01097  0.0265  0.04845  0.2034  -0.8843
6.349e+09  0.5424  -0.7403  0.008178  0.01223  0.0131  0.01332  -0.138  -0.9481
6.35e+09  0.2829  -0.8338  0.01558  0.03073  -0.00213  0.005293  -0.4017  -0.8486
6.351e+09  -0.03983  -0.8349  0.01746  0.008001  -0.03137  -0.04975  -0.7046  -0.6219
6.352e+09  -0.3525  -0.8259  0.02485  -0.002088  0.00371  -0.02002  -0.8538  -0.3871
6.354e+09  -0.6344  -0.6596  -0.00345  -0.01072  0.01119  0.05298  -0.9622  -0.08167
6.355e+09  -0.8429  -0.4428  -0.004165  0.01356  0.02431  0.02538  -0.9256  0.3027
6.356e+09  -0.8904  -0.1023  -0.003661  -0.01456  -0.01246  -0.01802  -0.7841  0.5308
6.358e+09  -0.8312  0.2289  0.01552  -0.003072  0.05074  0.00935  -0.5684  0.8135
6.359e+09  -0.7459  0.512  -0.00727  -0.0263  0.007661  0.006739  -0.2109  0.98
6.36e+09  -0.4772  0.734  0.01752  -0.04044  -0.04735  -0.03142  0.08393  0.9375
6.361e+09  -0.2505  0.866  -0.01845  0.0368  -0.01958  -0.005139  0.4314  0.8803
6.362e+09  0.1174  0.9023  0.02401  -0.01043  0.007073  -0.05947  0.6923  0.6471
6.364e+09  0.4144  0.773  0.007042  -0.0003153  -0.02491  -0.008828  0.8669  0.3998
6.365e+09  0.6524  0.6132  0.03771  -0.02642  -0.03718  0.02745  0.9416  0.06842
6.366e+09  0.8065  0.3333  0.02321  0.01402  0.01322  -0.0347  0.8706  -0.2473
6.368e+09  0.8635  0.05791  0.0256  -0.02867  0.03238  -0.0117  0.7915  -0.5808
6.369e+09  0.8585  -0.293  0.03166  0.0328  -0.007989  0.007988  0.541  -0.7512
6.37e+09  0.6575  -0.528  -0.00665  0.001206  0.005302  0.00884  0.2604  -0.8899
6.371e+09  0.4459  -0.7398  -0.01162  0.006648  -0.01295  -0.008703  -0.07663  -0.9125
6.372e+09  0.1897  -0.8425  -0.01329  0.009703  0.003907  0.007218  -0.3982  -0.8546
6.374e+09  -0.1535  -0.9007  -0.0001277  0.02744  -0.02222  0.0136  -0.6481  -0.6897
6.375e+09  -0.4511  -0.7697  0.01708  0.001115  -0.01886  -0.008148  -0.8473  -0.3908
6.376e+09  -0.6957  -0.5841  0.00165  -0.03099  -0.02484  -0.02338  -0.9414  -0.05675
6.378e+09  -0.8591  -0.3017  -0.02198  -0.01312  0.04025  0.02394  -0.9251  0.2365
6.379e+09  -0.9146  0.02522  -0.02786  -0.01463  0.02435  -0.03022  -0.7813  0.5062
6.38e+09  -0.841  0.3312  0.02307  -0.04275  0.05324  0.01533  -0.5503  0.7343
6.381e+09  -0.7184  0.561  -0.02896  0.01461  -0.0104  -0.03885  -0.2198  0.9377
6.382e+09  -0.4132  0.825  -0.01602  -0.01644  -0.03657  -0.01076  0.04808  0.9274
6.384e+09  -0.1259  0.9203  0.03317  -0.002466  -0.02982  0.02771  0.3548  0.858
6.385e+09  0.1752  0.8606  0.01176  -0.01819  0.04681  -0.02669  0.672  0.6638
6.386e+09  0.4523  0.8003  -0.01904  -0.04494  0.02808  -0.01855  0.8348  0.4079
6.388e+09  0.7313  0.5475  0.004311  -0.01428  0.01385  -0.02406  0.8938  0.1284
6.389e+09  0.8414  0.2745  -0.01688  -0.02893  -0.003881  0.02462  0.9267  -0.2132
6.39e+09  0.8807  -0.06877  0.01989  0.009844  0.0001897  0.00514  0.7473  -0.4952
6.391e+09  0.8849  -0.3177  -0.02094  -0.01708  0.0183  0.02128  0.5318  -0.717
6.392e+09  0.698  -0.603  -0.01186  -0.002283  -0.03292  0.0462  0.2935  -0.8476
6.394e+09  0.4371  -0.8401  -0.01502  0.0152  -0.004902  -0.03142  -0.004621  -0.9191
6.395e+09  0.07348  -0.9098  0.02224  -0.01068  -0.01187  -0.02399  -0.3696  -0.8587
6.396e+09  -0.2129  -0.8616  -0.02051  -0.006985  -0.003671  0.01018  -0.5895  -0.6906
6.398e+09  -0.4932  -0.7778  0.01456  0.02005  0.05507  0.008631  -0.8139  -0.4538
6.399e+09  -0.7074  -0.4874  0.01797  -0.009881  0.001843  0.000784  -0.9226  -0.117
6.4e+09  -0.8808  -0.2531  -0.03205  -0.01145  -0.03252  0.01992  -0.8983  0.1377
6.401e+09  -0.8262  0.05101  0.007929  -0.03788  0.001024  0.04176  -0.7845  0.4235
6.402e+09  -0.7808  0.3405  0.01164  -0.02264  -0.008127  0.02738  -0.5665  0.7096
6.404e+09  -0.6356  0.5983  0.006632  0.06188  -0.01106  -0.01645  -0.3005  0.8733
6.405e+09  -0.3629  0.834  -0.04639  -0.01903  -0.009094  0.0003919  0.001066  0.9297
6.406e+09  -0.06359  0.9022  0.02373  -0.01624  -0.02205  0.002273  0.3439  0.8678
6.408e+09  0.2027  0.8616  0.03616  0.04942  -0.007226  -0.005103  0.5854  0.7114
6.409e+09  0.5462  0.7416  -0.01902  0.001775  0.02462  -0.01715  0.7499  0.3847
6.41e+09  0.6812  0.5312  -0.007417  0.03327  -0.007445  -0.03373  0.8734  0.2033
6.411e+09  0.8729  0.2563  -0.01378  0.02125  -0.0382  -0.002403  0.9209  -0.1509
6.412e+09  0.8471  -0.0472  0.02852  -0.02273  -0.005352  -0.01046  0.793  -0.4156
6.414e+09  0.7566  -0.3778  -0.01968  -0.01855  -0.005445  -0.01231  0.6523  -0.7178
6.415e+09  0.6257  -0.6571  0.006682  0.009319  -0.019  -0.04099  0.3595  -0.8882
6.416e+09  0.3128  -0.7913  0.002333  0.02719  -0.01075  -0.03572  0.009475  -0.9301
6.418e+09  0.1076  -0.8895  -0.006739  -0.002918  -0.01342  0.007629  -0.2572  -0.8478
6.419e+09  -0.1917  -0.8659  -0.03169  0.001581  -0.02856  -0.01526  -0.5765  -0.7132
6.42e+09  -0.5006  -0.7433  0.006934  -0.001381  -0.002037  0.0243  -0.8105  -0.4811
6.421e+09  -0.7395  -0.5064  0.0007652  0.04592  0.006328  -0.003716  -0.8628  -0.1862
6.422e+09  -0.8302  -0.1871  0.002497  0.01438  0.02347  0.005463  -0.8461  0.1378
6.424e+09  -0.8483  0.08945  0.03467  -0.03797  -0.0404  0.01268  -0.7564  0.406
6.425e+09  -0.8098  0.3711  -0.03205  -0.03352  0.017  0.007295  -0.6095  0.6337
6.426e+09  -0.622  0.63  -0.01517  -0.004388  0.00777  -0.01443  -0.3697  0.8512
6.428e+09  -0.3299  0.8019  -0.001543  -0.01148  -0.008973  -0.02383  -0.05233  0.8857
6.429e+09  -0.08923  0.9076  0.007918  -0.03007  -0.03579  0.02674  0.2423  0.8463
6.43e+09  0.2635  0.8882  -0.001262  0.002905  0.01049  -0.0009199  0.474  0.7751
6.431e+09  0.5698  0.7093  0.01265  0.008203  0.02234  0.01087  0.7746  0.4514
6.432e+09  0.7572  0.5247  -4.862e-05  0.04002  0.03487  -0.01985  0.8504  0.2343
6.434e+09  0.894  0.2207  0.02624  0.04264  0.03224  0.01954  0.8936  -0.07772
6.435e+09  0.8388  -0.1187  0.04509  -0.03096  0.01211  0.05336  0.7943  -0.4077
6.436e+09  0.8018  -0.466  -0.01158  0.02497  -0.05217  0.03396  0.6152  -0.598
6.438e+09  0.626  -0.6419  0.02983  0.02123  0.08369  0.004571  0.3518  -0.8199
6.439e+09  0.3586  -0.8605  -0.01584  -0.05682  -0.02556  0.003793  0.07215  -0.8592
6.44e+09  0.05949  -0.8863  0.02783  -0.009716  0.02113  -0.01854  -0.2439  -0.8331
6.441e+09  -0.2977  -0.9006  -0.0003258  0.02117  -0.008412  -0.02607  -0.4621  -0.683
6.442e+09  -0.5407  -0.7225  -0.01303  0.04218  0.03272  -0.0042  -0.6955  -0.4912
6.444e+09  -0.7486  -0.4848  0.005096  -0.004509  -0.009557  -0.01172  -0.8069  -0.2381
6.445e+09  -0.9107  -0.1699  -0.02224  -0.02319  0.02575  -0.04735  -0.8362  0.1033
6.446e+09  -0.9178  0.08493  0.008584  0.003737  -0.02035  0.006477  -0.753  0.3498
6.448e+09  -0.8224  0.4473  0.0554  0.04522  -0.006446  -0.03049  -0.5881  0.5669
6.449e+09  -0.6033  0.7003  -0.0161  -0.01062  0.008168  0.02907  -0.3617  0.7521
6.45e+09  -0.3781  0.7998  -0.04441  0.02745  0.01373  0.003  -0.02114  0.8585
6.451e+09  -0.06598  0.889  0.02299  0.0003298  0.05667  -0.03234  0.2531  0.8474
6.452e+09  0.275  0.848  0.03719  0.04014  -0.05279  0.0111  0.4829  0.6682
6.454e+09  0.576  0.7387  -0.001497  -0.02074  -0.004851  0.0359  0.7016  0.47
6.455e+09  0.7922  0.5007  0.002824  -0.003603  -0.003757  0.0347  0.7946  0.1954
6.456e+09  0.8738  0.1404  -0.01611  0.009225  0.02415  -0.01595  0.8536  -0.1132
6.458e+09  0.9254  -0.1322  0.04082  0.02132  -0.009638  -0.02586  0.7381  -0.3483
6.459e+09  0.7628  -0.459  0.02735  0.001819  0.05011  -0.00746  0.6219  -0.621
6.46e+09  0.5527  -0.6653  -0.003505  0.0173  -7.879e-05  0.0207  0.3101  -0.7635
6.461e+09  0.3436  -0.913  -0.006752  0.04071  -0.02178  0.007078  0.0688  -0.8666
6.462e+09  0.004954  -0.9207  -0.01878  0.0132  0.01687  -0.008044  -0.2292  -0.77
6.464e+09  -0.3223  -0.8452  0.02577  -0.008234  0.009775  0.01968  -0.5146  -0.7076
6.465e+09  -0.5978  -0.732  0.04361  -0.03813  -0.008637  0.008096  -0.655  -0.5024
6.466e+09  -0.818  -0.5062  -0.0004594  0.02041  0.03524  0.01526  -0.8073  -0.2155
6.468e+09  -0.909  -0.1458  0.022  -0.01196  -0.04645  0.02634  -0.7925  0.04229
6.469e+09  -0.8635  0.1223  -0.03764  0.009643  0.008251  0.02716  -0.7293  0.3519
6.47e+09  -0.7823  0.47  -0.01176  -0.01852  -0.004785  -0.01824  -0.566  0.58
6.471e+09  -0.5685  0.7082  0.01496  -0.02065  0.03409  -0.004744  -0.356  0.6975
6.472e+09  -0.3265  0.9321  0.04171  -0.0325  -0.04396  0.0008368  -0.0549  0.7705
6.474e+09  -0.01553  0.9081  0.005776  -0.004843  -0.02446  -0.0138  0.1965  0.7333
6.475e+09  0.3161  0.8531  -0.008641  -0.0003793  -0.02594  -0.09047  0.4262  0.6438
6.476e+09  0.6031  0.72  -0.02635  0.02982  0.05274  0.006762  0.6257  0.466
6.478e+09  0.793  0.4523  0.0001062  -0.0123  -0.02628  0.0209  0.7528  0.1787
6.479e+09  0.9508  0.1177  -0.002658  0.05512  -0.003586  -0.007353  0.755  -0.0712
6.48e+09  0.8628  -0.2364  -0.02761  -0.02308  -0.05633  0.008807  0.6825  -0.3892
6.481e+09  0.7872  -0.4743  0.00834  0.01884  -0.0313  -0.002123  0.539  -0.5551
6.482e+09  0.5641  -0.7202  -0.02675  0.01474  -0.03814  -0.02955  0.3127  -0.7222
6.484e+09  0.2785  -0.8954  -0.01911  0.01416  0.006204  -0.03711  0.06163  -0.7596
6.485e+09  -0.06326  -0.9207  -0.01016  -0.0298  -0.02027  -0.00827  -0.2095  -0.7486
6.486e+09  -0.3653  -0.9014  0.0236  0.002786  0.08504  -0.03036  -0.4243  -0.6079
6.488e+09  -0.6302  -0.6751  -0.02336  -0.02727  0.03321  0.0008849  -0.6367  -0.414
6.489e+09  -0.8352  -0.4205  0.011  0.02217  0.03  -0.02416  -0.7236  -0.1925
6.49e+09  -0.9747  -0.1382  0.02932  -0.01703  -0.006275  0.003225  -0.7423  0.08653
6.491e+09  -0.9731  0.2167  -0.005501  -0.03063  0.000633  0.03616  -0.6898  0.3449
6.492e+09  -0.7642  0.5084  0.02549  0.02557  0.04035  0.005635  -0.5538  0.5777
6.494e+09  -0.5304  0.7483  -0.04606  0.0139  -0.01328  -0.03137  -0.2834  0.7043
6.495e+09  -0.2983  0.9054  0.02255  0.008406  0.02262  -0.001433  -0.0314  0.7651
6.496e+09  0.06898  1.017  -0.0143  -0.005483  -0.06541  -0.001691  0.1962  0.7332
6.498e+09  0.3531  0.8375  0.0005344  -0.03846  -0.01528  0.0297  0.4749  0.6033
6.499e+09  0.681  0.7079  0.02118  -0.01575  -0.007277  0.01056  0.6749  0.4158
6.5e+09  0.905  0.3793  -0.02044  0.003652  0.04513  -0.02841  0.7383  0.1698
6.501e+09  0.9353  0.08986  -0.004679  0.02259  0.04056  -0.04017  0.7627  -0.1143
6.502e+09  0.9197  -0.2434  -0.02155  0.01097  -0.02084  -0.03303  0.6845  -0.3635
6.504e+09  0.7732  -0.587  -0.03663  0.004989  0.03026  -0.06039  0.5173  -0.5989
6.505e+09  0.5411  -0.7586  -0.001603  0.01279  -0.02914  -0.0133  0.2743  -0.6844
6.506e+09  0.2629  -0.9456  0.03997  -0.004663  0.0159  -0.01726  0.01205  -0.7963
6.508e+09  -0.1213  -0.9535  0.006601  -0.01348  0.003875  -0.06148  -0.2381  -0.7009
6.509e+09  -0.4142  -0.8257  -0.003305  -0.005432  0.03654  -0.01851  -0.499  -0.64
6.51e+09  -0.729  -0.6457  0.0211  -0.04604  0.03113  -0.002829  -0.6645  -0.329
6.511e+09  -0.9199  -0.3601  0.02003  -0.00639  0.02263  -0.01915  -0.7459  -0.145
6.512e+09  -0.9943  -0.001492  -0.01604  -0.03676  -0.002734  0.02537  -0.7519  0.1284
6.514e+09  -0.9191  0.2875  -0.03598  -0.01469  -0.04675  -0.01886  -0.6415  0.3814
6.515e+09  -0.7839  0.5777  -0.0493  0.04248  -0.02669  0.00983  -0.4777  0.6414
6.516e+09  -0.519  0.8341  -0.002453  0.0195  0.007857  0.036  -0.2349  0.6562
6.518e+09  -0.1629  0.8935  -0.005724  -0.03218  -0.03132  0.03701  0.01385  0.7418
6.519e+09  0.1407  0.9512  -0.02206  -0.03679  0.06967  0.01073  0.2743  0.7004
6.52e+09  0.5021  0.8522  0.01353  -0.01504  0.02482  0.03247  0.4935  0.5315
6.521e+09  0.7366  0.6393  -0.01732  -0.02855  -0.004341  0.01465  0.663  0.3618
6.522e+09  0.9426  0.3144  -0.00882  0.03173  -0.05103  -0.009084  0.7286  0.08699
6.524e+09  1.037  -0.02768  0.0002888  -0.02368  -0.01446  -0.0189  0.6993  -0.1528
6.525e+09  0.8711  -0.3922  -0.003102  -0.004139  0.02904  -0.003307  0.6207  -0.4194
6.526e+09  0.6828  -0.6138  -0.01888  0.006845  -0.004167  0.03516  0.4345  -0.5808
6.528e+09  0.4448  -0.8847  0.01494  0.006121  -0.0133  -0.03928  0.1668  -0.7187
6.529e+09  0.1036  -0.9755  -0.02886  -0.002402  -0.05154  -0.04744  -0.06305  -0.7046
6.53e+09  -0.2315  -0.9392  0.02054  0.03207  -0.06622  0.004724  -0.2775  -0.636
6.531e+09  -0.5172  -0.789  0.001396  0.004199  -0.02989  -0.002833  -0.4695  -0.4619
6.532e+09  -0.8075  -0.6048  0.02839  -0.01082  -0.032  0.03943  -0.6051  -0.2747
6.534e+09  -0.9661  -0.2988  -0.0131  -0.03195  0.06  0.006588  -0.6217  -0.07895
6.535e+09  -0.9784  0.07373  0.008735  0.03184  -0.008869  -0.04706  -0.6339  0.1098
6.536e+09  -0.8662  0.4021  0.002833  0.0004863  -0.03066  0.02201  -0.5682  0.2946
6.538e+09  -0.636  0.6938  0.007428  -0.001159  -0.03127  -0.02358  -0.4553  0.4877
6.539e+09  -0.3609  0.9334  0.0007485  0.02823  -0.03671  -0.03199  -0.2581  0.6065
6.54e+09  -0.04685  0.9627  0.05576  0.005786  -0.01111  0.03981  -0.0328  0.6984
6.541e+09  0.2857  0.9159  -0.02928  0.01525  -0.0207  0.04728  0.1766  0.664
6.542e+09  0.6323  0.7534  0.0407  -0.007569  -0.005917  -0.01729  0.4203  0.5925
6.544e+09  0.8359  0.4951  0.00466  0.003565  -0.01601  0.06467  0.6179  0.4027
6.545e+09  0.9994  0.1954  -0.01675  -0.004504  0.01832  0.007166  0.696  0.1772
6.546e+09  0.9214  -0.1529  -0.006547  -0.008605  -0.03308  -0.0202  0.7476  -0.09891
6.548e+09  0.8279  -0.5362  0.009627  0.01208  0.02074  0.01286  0.6665  -0.3091
6.549e+09  0.6186  -0.758  0.002538  0.01085  0.02531  0.002396  0.5168  -0.5501
6.55e+09  0.3238  -0.9489  -0.03043  -0.0119  0.01944  0.0007556  0.296  -0.6759
