# Hz S RI R 50
6.25e+09  0.489  0.7456  -0.004938  -0.009202  0.05536  -0.07624  0.1794  0.4947
6.251e+09  0.6139  0.5712  0.004448  0.0001904  -0.01992  -0.03133  0.3591  0.4018
6.252e+09  0.8046  0.2246  0.02144  0.02475  -0.03178  0.009357  0.5188  0.2431
6.254e+09  0.9  -0.08057  0.008116  -0.01192  -0.01294  -0.02109  0.6071  0.007442
6.255e+09  0.7465  -0.4012  -0.01998  0.02913  -0.03204  -0.02886  0.5831  -0.2498
6.256e+09  0.6297  -0.6273  -0.003129  -0.01611  0.03228  -0.05942  0.4678  -0.4296
6.258e+09  0.3764  -0.7987  -0.04436  0.01423  0.04618  0.02758  0.2459  -0.6344
6.259e+09  0.04621  -0.8022  0.003019  0.01531  -0.01642  -0.04179  0.02248  -0.6789
6.26e+09  -0.2712  -0.7847  -0.01582  -0.02313  -0.02635  0.03378  -0.2433  -0.6653
6.261e+09  -0.5014  -0.6455  -0.02378  0.01747  -0.0344  0.05113  -0.4475  -0.507
6.262e+09  -0.7184  -0.4737  -0.01056  -0.002499  -0.005305  -0.02924  -0.6291  -0.3658
6.264e+09  -0.8196  -0.1811  -0.00508  -0.02859  0.05964  0.02565  -0.7071  -0.125
6.265e+09  -0.8547  0.1272  0.03134  0.01012  0.0003957  0.04375  -0.7281  0.1902
6.266e+09  -0.7854  0.4585  0.009074  0.001117  0.02643  0.009231  -0.5993  0.3989
6.268e+09  -0.5052  0.5932  0.02332  0.008085  0.02977  -0.032  -0.4356  0.5602
6.269e+09  -0.2719  0.792  0.001202  0.003117  -0.01896  0.07657  -0.1972  0.7134
6.27e+09  -0.02847  0.7914  -0.01034  -0.008619  0.01821  -0.01071  0.03166  0.743
6.271e+09  0.3018  0.811  0.001049  -0.02637  0.04173  0.05517  0.3039  0.6516
6.272e+09  0.5574  0.6505  -0.01951  0.02756  -0.02557  0.05411  0.5744  0.5277
6.274e+09  0.7548  0.3695  0.01416  0.01936  -0.03304  -0.01763  0.692  0.3168
6.275e+09  0.8424  0.1394  -0.02875  0.02666  0.02418  -0.03696  0.7703  0.05557
6.276e+09  0.7934  -0.2444  -0.004777  -0.01087  -0.0181  0.01727  0.7233  -0.2267
6.278e+09  0.7109  -0.5016  -0.01436  8.448e-05  0.001484  -0.0384  0.6193  -0.4853
6.279e+09  0.4358  -0.6639  -0.00127  -0.01739  -0.01758  -0.02704  0.4096  -0.6855
6.28e+09  0.1688  -0.8106  -0.00313  -0.02212  0.02178  0.04421  0.1161  -0.8174
6.281e+09  -0.06434  -0.8461  0.006332  -0.02891  -0.0409  -0.03278  -0.1151  -0.7889
6.282e+09  -0.3922  -0.7227  0.01401  0.007825  -0.02462  0.07465  -0.3531  -0.6721
6.284e+09  -0.6047  -0.5761  0.06784  0.01714  -0.001894  0.02111  -0.5503  -0.5231
6.285e+09  -0.7994  -0.2944  0.02027  -0.002701  -0.007167  -0.003949  -0.6994  -0.2991
6.286e+09  -0.81  -0.01854  0.01588  0.03076  -0.02665  -0.02828  -0.7905  -0.00989
6.288e+09  -0.8052  0.2739  -0.00571  0.009499  0.02166  0.00706  -0.7456  0.2473
6.289e+09  -0.6729  0.4886  -0.01373  0.02085  0.0009842  0.05592  -0.5852  0.531
6.29e+09  -0.4772  0.7774  7.215e-05  -0.01619  -0.004139  0.01271  -0.3984  0.7247
6.291e+09  -0.1621  0.8174  0.02172  -0.02785  0.009246  -0.0223  -0.1571  0.7766
6.292e+09  0.1176  0.8143  0.02918  0.01781  -0.03586  0.03088  0.1109  0.8123
6.294e+09  0.3858  0.7358  -0.009468  0.01097  0.01406  0.02786  0.3861  0.6945
6.295e+09  0.6595  0.4921  0.02229  0.01084  -0.01508  0.02156  0.5952  0.5445
6.296e+09  0.7934  0.2897  0.009831  0.009822  -0.03994  -0.01996  0.7589  0.2666
6.298e+09  0.8246  -0.0371  -0.001226  0.0007879  -0.01986  0.0172  0.8431  0.008635
6.299e+09  0.7584  -0.3156  0.00277  0.03485  0.01912  -0.03373  0.7805  -0.3017
6.3e+09  0.5826  -0.5393  0.01682  0.02781  -0.02684  0.02024  0.6652  -0.5417
6.301e+09  0.412  -0.7362  0.0304  0.005834  0.005633  -0.03845  0.4221  -0.7413
6.302e+09  0.1018  -0.8547  0.0192  -0.01934  -0.003194  0.01856  0.1434  -0.8573
6.304e+09  -0.215  -0.7875  -0.01928  -0.01222  0.04707  0.05504  -0.145  -0.7889
6.305e+09  -0.4803  -0.6813  -0.005524  0.01687  -0.01304  0.001623  -0.4121  -0.7518
6.306e+09  -0.6775  -0.472  -0.03749  -0.002179  0.01477  0.01882  -0.6437  -0.5482
6.308e+09  -0.8037  -0.208  -0.009785  -0.01373  -0.004018  -0.009232  -0.8122  -0.3046
6.309e+09  -0.8223  0.1543  0.005629  -0.003356  -0.03411  -0.006211  -0.8257  -0.004017
6.31e+09  -0.8025  0.4178  -0.002507  -0.02562  0.02019  0.008535  -0.7945  0.307
6.311e+09  -0.5771  0.6239  -0.02369  0.004607  -0.01779  -0.004455  -0.6481  0.5448
6.312e+09  -0.3932  0.8132  0.006261  0.01738  0.0353  -0.002019  -0.4355  0.7287
6.314e+09  -0.03417  0.8296  -0.0009365  0.01561  0.0396  -0.02741  -0.1734  0.8384
6.315e+09  0.2855  0.8212  0.02195  -0.007044  -0.03614  0.007847  0.137  0.8585
6.316e+09  0.5433  0.6751  0.0135  0.02839  -0.0397  0.02236  0.4155  0.7504
6.318e+09  0.7701  0.4494  -0.02017  0.01559  -0.005209  -0.004558  0.6726  0.594
6.319e+09  0.8215  0.1351  -0.004858  0.01293  0.0174  -0.01599  0.8431  0.2802
6.32e+09  0.8353  -0.1843  0.01064  -0.005663  -0.02516  0.0312  0.9184  -0.01415
6.321e+09  0.7038  -0.4979  -0.007014  -0.01393  0.03191  0.0381  0.8482  -0.2806
6.322e+09  0.5236  -0.6836  -0.02589  -0.02771  0.02091  -0.003694  0.6742  -0.5686
6.324e+09  0.2073  -0.821  -0.02343  -0.003934  -0.01364  -0.03225  0.463  -0.7739
6.325e+09  -0.1287  -0.8206  0.004565  -0.003446  0.006466  -0.01633  0.2013  -0.9008
6.326e+09  -0.3394  -0.7219  -0.01528  -0.01984  0.01653  0.007312  -0.1328  -0.9122
6.328e+09  -0.6318  -0.5543  0.006635  -0.04147  -0.01425  0.01975  -0.4353  -0.8256
6.329e+09  -0.7831  -0.3798  -0.01686  0.001356  -0.008694  0.06117  -0.7001  -0.6065
6.33e+09  -0.8724  -0.04603  0.02273  -0.02605  -0.008028  0.003201  -0.811  -0.3151
6.331e+09  -0.8227  0.2237  0.01564  -0.002195  0.02374  -0.01675  -0.9298  0.01386
6.332e+09  -0.6657  0.5385  -0.03139  0.008872  0.02924  -0.02219  -0.8424  0.2806
6.334e+09  -0.4409  0.732  0.01034  0.01643  0.003445  -0.007888  -0.7193  0.5663
6.335e+09  -0.1409  0.8518  -0.001267  0.007411  -0.02629  0.006501  -0.4564  0.7978
6.336e+09  0.1481  0.8092  -0.01194  -0.02231  0.02568  -0.04454  -0.1782  0.8864
6.338e+09  0.4349  0.715  0.004849  -0.005684  0.007993  0.03873  0.09873  0.9176
6.339e+09  0.6657  0.5658  -0.009509  -0.01516  -0.008908  0.03464  0.4258  0.7984
6.34e+09  0.7983  0.1953  -0.004352  -0.02386  -0.06422  0.03145  0.6865  0.5923
6.341e+09  0.9116  -0.0551  0.005781  -0.02712  -0.0148  0.0002845  0.8594  0.3481
6.342e+09  0.7771  -0.3241  0.009786  0.03661  0.02003  0.001753  0.9212  0.06939
6.344e+09  0.6323  -0.6466  -0.004256  -0.001487  -0.0162  -0.02043  0.8906  -0.2689
6.345e+09  0.4174  -0.7838  0.005359  -0.03416  -0.001607  -0.01066  0.719  -0.5861
6.346e+09  0.1024  -0.8635  -0.01708  0.01912  0.003749  0.02037  0.5301  -0.7612
6.348e+09  -0.2125  -0.824  -0.01142  -0.01681  -0.02536  -0.03601  0.2376  -0.9221
6.349e+09  -0.5409  -0.697  -0.02409  -0.01752  -0.01232  -0.01638  -0.09107  -0.9412
6.35e+09  -0.7061  -0.4779  0.0506  -0.03692  0.01309  -0.002816  -0.4299  -0.8053
6.351e+09  -0.8782  -0.2165  -0.0182  -0.03674  -0.02946  -0.07124  -0.744  -0.6685
6.352e+09  -0.8973  0.1349  -0.01074  -0.02347  -0.007723  0.01831  -0.8976  -0.3773
6.354e+09  -0.7603  0.4079  0.01356  -0.03464  0.008147  0.05852  -0.8828  -0.07996
6.355e+09  -0.5954  0.6895  -0.01788  0.02077  0.02917  0.006308  -0.8722  0.2666
6.356e+09  -0.3107  0.8256  -0.01744  -0.009369  0.01952  -0.01233  -0.7629  0.5537
6.358e+09  0.02191  0.8531  -0.002601  -0.02221  -0.007524  0.001734  -0.5376  0.7887
6.359e+09  0.3307  0.7491  -0.01653  0.01007  -0.004753  0.03422  -0.2278  0.9393
6.36e+09  0.5748  0.6983  0.0006944  0.03477  -0.02515  0.005103  0.1058  0.917
6.361e+09  0.7225  0.434  0.01049  -0.003638  0.02249  0.03272  0.4267  0.8372
6.362e+09  0.8797  0.1568  0.05807  -0.01039  0.004227  -0.008317  0.702  0.6239
6.364e+09  0.8636  -0.183  0.006448  -0.02457  0.00796  0.01699  0.873  0.3722
6.365e+09  0.7264  -0.4723  0.04273  0.02169  -0.0006155  -0.02785  0.9554  0.1058
6.366e+09  0.5514  -0.6963  0.007786  -0.01815  -0.0321  -0.01066  0.9094  -0.2858
6.368e+09  0.2371  -0.8261  -0.003116  0.01202  -0.04246  -0.002296  0.7843  -0.5448
6.369e+09  -0.08374  -0.8606  -0.008359  0.01361  -0.02528  0.03377  0.5621  -0.7583
6.37e+09  -0.3924  -0.7689  -0.001349  -0.04609  0.01054  0.03258  0.2688  -0.9426
6.371e+09  -0.6461  -0.5857  0.01191  0.01463  -0.06504  -0.006531  -0.1093  -0.899
6.372e+09  -0.8296  -0.3215  -0.02704  -0.02071  -0.01026  -0.02114  -0.409  -0.8973
6.374e+09  -0.8426  -0.05649  -0.02229  0.01921  0.009505  0.02814  -0.6694  -0.7224
6.375e+09  -0.8179  0.2343  -0.01708  -0.01224  -0.02812  -0.00717  -0.848  -0.4127
6.376e+09  -0.6771  0.554  0.008001  0.02189  -0.03386  -0.0256  -0.9476  -0.05325
6.378e+09  -0.4664  0.7362  -0.0244  -0.005235  -0.02647  -0.01989  -0.924  0.1973
6.379e+09  -0.1268  0.8656  0.0152  -0.008154  0.03015  -0.02103  -0.7674  0.5828
6.38e+09  0.1734  0.8308  -0.02162  0.02359  0.01186  0.02346  -0.5747  0.7882
6.381e+09  0.4726  0.7545  -0.004707  0.01767  0.02764  -0.01412  -0.2675  0.9184
6.382e+09  0.6425  0.5417  0.04081  -0.001067  0.04538  -0.02412  0.06034  0.9096
6.384e+09  0.8523  0.2788  -0.01422  0.01666  -0.004101  -0.007543  0.3844  0.8806
6.385e+09  0.8963  -0.0194  -0.03213  0.007179  0.03282  0.01137  0.6131  0.7084
6.386e+09  0.7914  -0.3616  -0.01508  -0.007879  -0.0476  -0.0541  0.8499  0.4217
6.388e+09  0.6714  -0.6008  -0.006076  -0.01346  0.03552  -0.004839  0.916  0.09068
6.389e+09  0.3416  -0.7709  -0.01281  -0.006657  0.01002  -0.02524  0.9223  -0.2181
6.39e+09  0.08716  -0.8704  -0.03146  -0.007752  -0.01393  0.01852  0.7621  -0.4816
6.391e+09  -0.2169  -0.88  -0.03231  -0.02461  -0.0006816  0.03777  0.5778  -0.7835
6.392e+09  -0.4819  -0.7007  -0.0253  0.01321  -0.008168  -0.003868  0.3332  -0.8912
6.394e+09  -0.7426  -0.4998  -0.01473  0.0193  0.03683  -0.02228  -0.0212  -0.911
6.395e+09  -0.9048  -0.2208  -0.008859  -0.002306  -0.02735  -0.04913  -0.3073  -0.8638
6.396e+09  -0.8834  0.08894  0.0049  -0.00678  -0.0125  -0.00125  -0.6079  -0.6607
6.398e+09  -0.7864  0.4556  0.02435  0.03084  0.002776  0.02453  -0.8704  -0.4364
6.399e+09  -0.6372  0.5982  0.03502  0.00132  -0.02323  0.01768  -0.927  -0.141
6.4e+09  -0.364  0.8327  -0.007715  -0.06917  -0.007791  0.001012  -0.908  0.1943
6.401e+09  -0.02905  0.8747  0.005275  0.03076  -0.01505  0.03478  -0.7919  0.4772
6.402e+09  0.3132  0.8445  0.05572  0.001591  -0.004462  0.01422  -0.6024  0.7123
6.404e+09  0.5552  0.6714  -0.02429  -0.01263  -0.0002943  0.07424  -0.3021  0.8716
6.405e+09  0.7644  0.4779  0.004242  0.00453  0.02168  -0.005321  0.02335  0.8743
6.406e+09  0.8724  0.1316  0.009952  -0.01676  0.03269  -0.02091  0.2701  0.872
6.408e+09  0.8593  -0.1923  -0.02804  -0.001735  -0.004189  -0.01285  0.5423  0.6914
6.409e+09  0.7512  -0.4498  0.01715  -0.03699  -0.001728  -0.002559  0.7529  0.4732
6.41e+09  0.4665  -0.6967  0.01521  0.01464  0.006164  0.003248  0.8662  0.131
6.411e+09  0.2386  -0.8665  -0.03706  -0.0164  0.04965  -0.01088  0.8845  -0.1639
6.412e+09  -0.006343  -0.8908  -0.01649  0.007358  0.02221  0.02189  0.7765  -0.4224
6.414e+09  -0.3977  -0.7906  -0.01309  0.0008307  0.0203  0.002152  0.5804  -0.6482
6.415e+09  -0.6463  -0.6602  0.02854  0.008918  0.02423  -0.01169  0.3559  -0.8373
6.416e+09  -0.7797  -0.3234  0.0191  0.01938  -0.002403  -0.01097  0.0291  -0.8895
6.418e+09  -0.8466  -0.02101  -0.01359  -0.02  0.02039  -0.01402  -0.2709  -0.8234
6.419e+09  -0.8907  0.2373  -0.01528  0.03657  -0.02785  0.005511  -0.5597  -0.6494
6.42e+09  -0.7159  0.5598  -0.02078  -0.04601  0.0278  -0.01178  -0.7816  -0.4934
6.421e+09  -0.4783  0.7863  -0.02741  -0.005592  0.01628  0.008718  -0.8409  -0.1999
6.422e+09  -0.15  0.9084  0.006143  -0.01291  0.01311  0.01057  -0.8527  0.1316
6.424e+09  0.1768  0.863  0.006246  0.02173  -0.04619  -0.04161  -0.7925  0.3876
6.425e+09  0.4927  0.7425  0.01701  -0.04575  0.00962  -0.01627  -0.6131  0.6167
6.426e+09  0.703  0.5338  -0.008249  0.03881  -0.008106  0.04529  -0.3623  0.7763
6.428e+09  0.9264  0.2272  0.01776  0.02508  0.09402  -0.02031  -0.0111  0.9027
6.429e+09  0.8671  -0.11  0.04184  -0.0286  0.04307  0.001862  0.2307  0.793
6.43e+09  0.8055  -0.397  0.038  -0.02925  0.02862  -0.02526  0.5088  0.68
6.431e+09  0.6032  -0.6555  -0.0001212  0.02971  0.008363  -0.02589  0.7211  0.4617
6.432e+09  0.2983  -0.8374  0.05188  0.02412  0.01758  -0.01849  0.87  0.1812
6.434e+09  -0.001845  -0.9101  0.0603  -0.04096  0.01942  0.038  0.8332  -0.09616
6.435e+09  -0.3227  -0.8695  0.04792  0.001872  -0.03349  0.03717  0.8215  -0.3896
6.436e+09  -0.6259  -0.6468  0.008479  -0.03986  0.01275  0.009164  0.6183  -0.6246
6.438e+09  -0.7868  -0.4344  0.0109  0.02461  0.02113  -0.006039  0.337  -0.7592
6.439e+09  -0.9137  -0.1142  -0.01485  -0.03144  0.0005913  -0.01103  0.07076  -0.8348
6.44e+09  -0.8379  0.2561  -0.03195  0.009562  -0.03491  0.01034  -0.2191  -0.8557
6.441e+09  -0.779  0.4911  -0.005121  -0.04521  0.01795  -0.06756  -0.4888  -0.722
6.442e+09  -0.478  0.7265  0.02342  -0.03684  -0.01662  0.04626  -0.718  -0.4736
6.444e+09  -0.1328  0.9093  -0.03187  -0.01515  0.05929  0.03331  -0.7503  -0.2093
6.445e+09  0.1597  0.8904  -0.01358  -0.004324  0.02429  0.009249  -0.8306  0.07349
6.446e+09  0.4864  0.7006  0.01721  0.01309  -0.0297  0.0131  -0.7163  0.4016
6.448e+09  0.7454  0.5927  0.001298  0.03766  0.02096  0.05017  -0.552  0.5701
6.449e+09  0.8851  0.2563  -0.04588  0.0426  -0.005701  0.06169  -0.3516  0.7701
6.45e+09  0.9089  -0.1024  -0.01129  0.003991  0.01898  -0.006395  -0.06388  0.8087
6.451e+09  0.8206  -0.4203  -0.01813  -0.00982  -0.03226  -0.0312  0.2122  0.8399
6.452e+09  0.603  -0.7352  -0.006844  0.03214  0.00103  -0.01603  0.4855  0.7008
6.454e+09  0.3123  -0.8382  -0.0153  -0.002439  -0.01467  0.03356  0.6594  0.438
6.455e+09  -0.0621  -0.8926  -0.02507  -0.013  0.06199  0.03793  0.8435  0.1718
6.456e+09  -0.3103  -0.8066  -0.008757  0.003063  -0.0306  0.01161  0.7832  -0.09308
6.458e+09  -0.6172  -0.6438  0.01065  -0.01869  -0.007994  -0.01923  0.6919  -0.3609
6.459e+09  -0.8138  -0.4159  0.01033  0.03154  -0.01856  -0.0113  0.5997  -0.5869
6.46e+09  -0.8634  -0.05428  0.04472  -0.0314  0.02368  0.003137  0.3266  -0.7703
6.461e+09  -0.8737  0.3028  0.02829  -0.03292  0.07694  0.002433  0.07542  -0.7818
6.462e+09  -0.6674  0.5809  0.03749  0.01231  -0.0003393  -0.02471  -0.1758  -0.781
6.464e+09  -0.4007  0.8068  0.007147  0.002149  0.03915  -0.02086  -0.4353  -0.6589
6.465e+09  -0.1222  0.8242  -0.04668  -0.005716  -0.02283  0.02009  -0.6378  -0.4653
6.466e+09  0.2104  0.806  -0.02471  0.01232  -0.01659  -0.01985  -0.7993  -0.2382
6.468e+09  0.4912  0.7273  0.003457  0.01329  -0.01306  0.01791  -0.7911  0.07665
6.469e+09  0.7687  0.4851  -0.008055  -0.06261  -0.01289  -0.03291  -0.7801  0.3495
6.47e+09  0.9217  0.1535  0.02023  0.03861  0.004467  -0.01154  -0.5245  0.5314
6.471e+09  0.8415  -0.1676  -0.002373  -0.008879  -0.03652  0.0002947  -0.3451  0.7623
6.472e+09  0.7469  -0.4301  -0.007242  0.01589  -0.009729  -0.0369  -0.07403  0.7965
6.474e+09  0.4572  -0.7135  -0.03312  -0.001948  0.01394  -0.01433  0.2778  0.7715
6.475e+09  0.2141  -0.8324  0.002547  0.01236  0.02533  -0.03484  0.4321  0.7069
6.476e+09  -0.1025  -0.841  -0.01326  0.01173  0.01084  0.04868  0.6402  0.4631
6.478e+09  -0.4152  -0.7378  -0.02038  0.05015  0.02335  0.002748  0.7527  0.1964
6.479e+09  -0.681  -0.5485  -0.01472  0.01116  0.01715  0.01083  0.7919  -0.05291
6.48e+09  -0.7217  -0.2463  -0.01424  8.522e-05  -0.02024  -0.0264  0.7293  -0.3578
6.481e+09  -0.8674  0.04264  0.04447  0.008071  -0.01127  0.03154  0.5593  -0.5625
6.482e+09  -0.7645  0.3112  -0.03338  -0.01617  -0.04436  0.05173  0.3444  -0.674
6.484e+09  -0.6239  0.6211  -0.002205  0.005857  0.06587  -0.04105  0.0646  -0.7584
6.485e+09  -0.3023  0.7539  -0.03869  -0.00346  -0.005516  -0.01538  -0.2504  -0.7506
6.486e+09  -0.0259  0.7983  0.02165  0.02656  -0.03183  0.001931  -0.4864  -0.6315
6.488e+09  0.328  0.7625  0.0385  0.0109  -0.01989  -0.03278  -0.6677  -0.4077
6.489e+09  0.5666  0.5848  -0.001393  0.01199  0.01871  0.02496  -0.7368  -0.1429
6.49e+09  0.7524  0.3936  0.009924  -0.0002293  -0.04277  0.00675  -0.7937  0.04245
6.491e+09  0.8181  0.08952  -0.05328  -0.04347  -0.002697  0.04843  -0.7017  0.3262
6.492e+09  0.7404  -0.1937  -0.03936  -0.005135  -0.04285  -0.04103  -0.5092  0.5602
6.494e+09  0.6256  -0.4438  -0.02117  0.005992  0.01719  0.04331  -0.2872  0.7064
6.495e+09  0.3406  -0.6588  0.003423  0.01048  -0.02455  -0.03883  -0.04301  0.7711
6.496e+09  0.1636  -0.7743  0.01398  -0.01212  -0.003703  0.02542  0.2156  0.744
6.498e+09  -0.1618  -0.8106  -0.008322  -0.0262  0.009353  0.004131  0.443  0.579
6.499e+09  -0.3977  -0.6777  -0.02011  -0.008665  -0.03048  -0.08245  0.6453  0.4219
6.5e+09  -0.6298  -0.4684  0.03002  0.006939  -0.05106  -0.01321  0.7834  0.1672
6.501e+09  -0.7592  -0.1999  0.003802  0.003138  -0.0002947  -0.006988  0.7841  -0.1207
6.502e+09  -0.6977  0.03243  -0.007249  0.03906  -0.01391  -0.03814  0.6817  -0.3409
6.504e+09  -0.6821  0.3456  -0.02085  0.003721  0.02108  0.03421  0.4566  -0.595
6.505e+09  -0.5357  0.5453  0.003271  -0.0122  0.008648  -0.03672  0.2538  -0.7311
6.506e+09  -0.2829  0.6985  -0.002507  -0.001831  -0.05331  -0.02458  0.01922  -0.7839
6.508e+09  -0.01005  0.763  0.0068  0.01603  -0.096  0.02563  -0.2599  -0.7128
6.509e+09  0.262  0.6846  -0.03282  0.00445  0.004236  0.019  -0.4797  -0.5876
6.51e+09  0.4579  0.5311  -0.01978  -0.02931  0.004174  0.03084  -0.6223  -0.3396
6.511e+09  0.6672  0.3678  0.02041  -0.02465  0.01054  -0.01999  -0.7414  -0.1201
6.512e+09  0.7511  0.08638  0.02409  0.01376  0.03469  -0.05835  -0.7648  0.09017
6.514e+09  0.7794  -0.1642  -0.007288  -0.005163  0.02465  0.02127  -0.6282  0.3598
6.515e+09  0.5723  -0.4558  0.004209  0.04071  0.02381  -0.04643  -0.5012  0.565
6.516e+09  0.4221  -0.6273  -0.02653  0.009621  0.06101  -0.03451  -0.2411  0.7055
6.518e+09  0.183  -0.7358  -0.009132  0.02172  -0.01734  -0.0105  0.007081  0.7729
6.519e+09  -0.07368  -0.7289  0.00814  0.0167  -0.01176  0.01797  0.2629  0.6858
6.52e+09  -0.3931  -0.6176  -0.02164  -0.0434  -0.02231  0.01793  0.4751  0.5203
6.521e+09  -0.4988  -0.4691  0.00133  -0.003089  -0.04803  0.002736  0.6349  0.3462
6.522e+09  -0.7342  -0.2233  0.0088  -0.005775  -0.01222  0.09215  0.7236  0.1074
6.524e+09  -0.7534  0.01528  -0.01315  -0.0226  -0.008736  0.01493  0.7148  -0.1423
6.525e+09  -0.6251  0.2627  0.00991  -0.02764  0.02602  -0.007776  0.5823  -0.3869
6.526e+09  -0.521  0.563  0.03122  0.03058  -0.003267  -0.04456  0.4197  -0.5764
6.528e+09  -0.3524  0.6625  0.01731  -0.02186  0.01968  0.06216  0.1995  -0.6715
6.529e+09  -0.05456  0.6919  0.03557  0.002677  -0.001433  -0.001649  -0.02516  -0.6729
6.53e+09  0.2126  0.6861  0.01813  0.02456  0.0108  -0.0186  -0.2774  -0.6463
6.531e+09  0.5311  0.5535  -0.01586  -0.01112  0.03127  0.005042  -0.4978  -0.4948
6.532e+09  0.649  0.3594  0.02263  -0.005026  0.0295  -0.01411  -0.569  -0.2683
6.534e+09  0.7275  0.1203  0.01133  -0.0004069  -0.01155  0.03896  -0.6058  -0.08206
6.535e+09  0.7402  -0.1007  -0.01839  0.01323  -0.05878  -0.03273  -0.6259  0.08141
6.536e+09  0.6672  -0.4136  -0.01811  -0.02075  0.03291  -0.02547  -0.5843  0.3435
6.538e+09  0.4315  -0.5684  0.00778  0.03266  -0.06845  -0.03431  -0.4216  0.4757
6.539e+09  0.2056  -0.6774  0.004434  0.02994  -0.04011  0.02806  -0.2527  0.6349
6.54e+09  -0.03152  -0.7175  -0.004032  0.03666  -0.02527  0.01545  -0.05314  0.6932
6.541e+09  -0.3315  -0.6944  0.001821  -0.007227  -0.01948  0.04666  0.1879  0.6675
6.542e+09  -0.5928  -0.5137  -0.02786  -0.02955  -0.04446  0.007613  0.3994  0.5693
6.544e+09  -0.6944  -0.2717  -0.01734  0.002696  -0.02049  0.04222  0.6047  0.4004
6.545e+09  -0.7572  0.003269  0.01012  -0.02035  0.01055  -0.02086  0.6788  0.1743
6.546e+09  -0.6862  0.2329  0.001078  -0.02072  0.005362  0.03077  0.7038  -0.06115
6.548e+09  -0.5196  0.4766  0.03135  -0.03979  -0.02158  0.004914  0.6653  -0.3181
6.549e+09  -0.3552  0.642  -0.01912  0.004188  0.0002112  0.05453  0.4995  -0.5282
6.55e+09  -0.08356  0.7552  0.002484  -0.01411  -0.0001293  0.01909  0.2844  -0.6799
