# Hz S RI R 50
6.25e+09  -0.2427  0.7987  0.01132  -0.02219  0.03219  -0.003086  0.1341  0.4765
6.251e+09  0.04397  0.8374  0.02123  0.007219  -0.00075  -0.01722  0.3423  0.4234
6.252e+09  0.3555  0.7878  -0.01618  0.001966  0.01157  0.02638  0.5162  0.2245
6.254e+09  0.6031  0.6142  0.01358  -0.01538  0.005766  0.04998  0.6191  0.009304
6.255e+09  0.7837  0.2862  0.02807  0.002988  0.02563  0.02398  0.6332  -0.2593
6.256e+09  0.8224  0.08657  -0.01655  -0.03418  0.04298  -0.03585  0.5076  -0.4307
6.258e+09  0.8313  -0.2389  -0.007283  -0.0373  -0.04195  -0.02265  0.2782  -0.6273
6.259e+09  0.6926  -0.464  0.02957  0.03476  -0.005501  -0.05188  0.005966  -0.6918
6.26e+09  0.4683  -0.6822  -0.003768  -0.001582  0.007793  -0.04386  -0.1935  -0.6627
6.261e+09  0.1953  -0.8737  -0.0001091  -0.004848  0.03665  0.03625  -0.4641  -0.5261
6.262e+09  -0.1058  -0.8533  -0.02588  -0.01796  -0.0183  -0.004494  -0.6011  -0.3394
6.264e+09  -0.3129  -0.7511  0.002832  -0.008781  -0.004972  -0.01631  -0.6765  -0.08861
6.265e+09  -0.5851  -0.6368  -0.02088  -0.02446  0.005968  -0.01497  -0.6777  0.149
6.266e+09  -0.7987  -0.3677  -0.01041  0.009265  0.01285  0.02038  -0.6202  0.4069
6.268e+09  -0.8261  -0.04184  0.03202  0.008058  0.03173  -0.02483  -0.433  0.5771
6.269e+09  -0.799  0.2498  -0.0004474  -0.02003  -0.01659  0.04969  -0.2017  0.7173
6.27e+09  -0.7143  0.4781  -0.003024  -0.00664  -0.03062  0.04401  0.06735  0.7461
6.271e+09  -0.473  0.6856  -0.02504  -0.008717  0.04116  -0.06403  0.3203  0.6491
6.272e+09  -0.1736  0.7707  -0.01926  0.01622  -0.01018  -0.01266  0.5249  0.5236
6.274e+09  0.07071  0.8438  0.003394  0.01379  0.009137  0.008446  0.6755  0.2935
6.275e+09  0.3362  0.7332  -0.0003304  0.01369  -0.05644  0.0626  0.7817  0.03446
6.276e+09  0.575  0.602  0.01817  0.007717  -0.0305  0.007847  0.7123  -0.1987
6.278e+09  0.7306  0.2954  0.0008235  -0.01787  -0.03388  -0.008052  0.6113  -0.4532
6.279e+09  0.8321  0.05191  0.003812  -0.02184  0.01205  0.04562  0.443  -0.6446
6.28e+09  0.7652  -0.1825  -0.005989  0.005219  -0.006087  -0.01321  0.1828  -0.7741
6.281e+09  0.6898  -0.4961  -0.03207  -0.001074  -0.006183  -0.001213  -0.1082  -0.7417
6.282e+09  0.4638  -0.6888  0.02633  -0.03808  0.02183  -0.04572  -0.3789  -0.6951
6.284e+09  0.167  -0.8387  -0.01819  0.01216  0.04984  0.01324  -0.5877  -0.5429
6.285e+09  -0.1857  -0.8224  0.00872  -0.01728  0.0468  0.008909  -0.7387  -0.3055
6.286e+09  -0.3922  -0.7002  -0.0006267  0.004432  0.04877  -0.01693  -0.784  -0.0004663
6.288e+09  -0.6055  -0.5505  0.01338  0.02599  0.003606  0.02577  -0.7265  0.2372
6.289e+09  -0.7995  -0.2409  0.0003563  -0.004741  -0.04171  -0.03365  -0.6164  0.5197
6.29e+09  -0.8135  -0.0177  0.005001  0.02409  -0.04204  0.04305  -0.4109  0.6792
6.291e+09  -0.7446  0.3377  0.02129  0.02572  -0.03201  -0.01305  -0.1271  0.8117
6.292e+09  -0.6326  0.6198  -0.01139  0.01455  -0.02129  0.001501  0.1362  0.8199
6.294e+09  -0.3908  0.6924  -0.001327  -0.01716  0.006635  0.009528  0.4172  0.7037
6.295e+09  -0.1964  0.7882  -0.002248  -0.007391  -0.04029  0.004638  0.6326  0.548
6.296e+09  0.1471  0.7996  0.001374  0.02191  -0.04517  -0.001005  0.7974  0.2714
6.298e+09  0.4648  0.7603  0.02314  0.004917  -0.01346  0.0224  0.8408  -0.02831
6.299e+09  0.6686  0.471  -0.009722  -0.01464  0.07504  -0.01909  0.7833  -0.2816
6.3e+09  0.8064  0.2523  0.0003383  0.001896  0.01902  0.02034  0.6369  -0.5238
6.301e+09  0.8576  -0.008163  -0.02216  -0.01223  -0.003987  0.03005  0.4488  -0.7276
6.302e+09  0.7729  -0.3179  0.03596  0.001667  -0.01093  0.02462  0.1499  -0.827
6.304e+09  0.5696  -0.559  -0.01247  0.001118  0.0151  -0.03924  -0.1322  -0.8576
6.305e+09  0.3468  -0.7639  0.0021  0.001395  -0.02975  -0.01938  -0.4274  -0.7499
6.306e+09  0.09715  -0.8057  -0.005649  0.005633  -0.01749  0.02955  -0.6442  -0.5451
6.308e+09  -0.1564  -0.7704  0.002807  0.002254  -0.02528  -0.01201  -0.8086  -0.2996
6.309e+09  -0.5004  -0.722  -0.0373  0.01681  -0.007668  -0.02694  -0.8735  -0.05792
6.31e+09  -0.6487  -0.4754  0.006167  -0.0004163  -0.01045  -0.006834  -0.802  0.2905
6.311e+09  -0.823  -0.2392  0.003325  -0.03032  -0.006808  -0.002592  -0.6767  0.558
6.312e+09  -0.8282  0.1094  -0.01755  -0.01233  0.03728  -0.02836  -0.433  0.7425
6.314e+09  -0.7558  0.3484  -0.007923  0.01012  -0.02315  0.005751  -0.1711  0.8688
6.315e+09  -0.6007  0.5911  0.009848  0.03876  0.03385  0.03171  0.1399  0.8813
6.316e+09  -0.3641  0.7731  0.007223  0.002692  0.006669  0.012  0.4204  0.7521
6.318e+09  -0.09432  0.8307  -0.01831  0.000748  0.04235  0.00819  0.6719  0.5848
6.319e+09  0.2128  0.7966  -0.02012  0.0455  0.05556  0.04719  0.829  0.2982
6.32e+09  0.5107  0.67  0.01783  0.03104  0.04613  0.00737  0.9267  -0.009329
6.321e+09  0.7219  0.4641  0.01989  -0.009544  0.01185  0.00777  0.8218  -0.3198
6.322e+09  0.8568  0.2079  -0.0005124  0.0001875  -0.0002961  0.03132  0.6714  -0.5649
6.324e+09  0.8562  -0.1651  0.01394  0.009891  -0.0471  0.0167  0.4574  -0.7743
6.325e+09  0.8104  -0.4169  -0.04417  0.003236  -0.007488  0.01363  0.1848  -0.8507
6.326e+09  0.6004  -0.6893  -0.01834  -0.002181  0.07213  -0.01348  -0.1345  -0.8802
6.328e+09  0.2429  -0.7832  0.0212  0.01318  0.002379  -0.05435  -0.4619  -0.7926
6.329e+09  0.0549  -0.8837  -0.006465  0.003223  -0.006886  -0.01995  -0.6517  -0.575
6.33e+09  -0.3037  -0.8327  0.01242  -0.002614  0.0293  0.04403  -0.8016  -0.3284
6.331e+09  -0.5422  -0.67  0.005401  -0.03362  -0.05035  -0.008646  -0.8941  -0.03498
6.332e+09  -0.7327  -0.4047  -0.01496  0.01304  -0.03407  -0.06103  -0.8821  0.3272
6.334e+09  -0.8468  -0.1012  0.000644  0.01637  -0.005723  -0.01366  -0.7386  0.5501
6.335e+09  -0.8643  0.2156  0.001508  0.002693  -0.03812  0.05125  -0.4659  0.7966
6.336e+09  -0.7628  0.5036  -0.03577  0.008704  -0.02276  -0.03647  -0.183  0.8899
6.338e+09  -0.5501  0.6615  0.04436  0.008972  -0.005837  0.002554  0.1455  0.9147
6.339e+09  -0.2607  0.8322  0.00342  0.02445  0.001516  -0.000655  0.393  0.8476
6.34e+09  0.0395  0.8591  0.03843  0.02988  -0.005433  0.03978  0.7166  0.599
6.341e+09  0.3936  0.8809  -0.005172  -0.001753  -0.009037  -0.0254  0.8717  0.3254
6.342e+09  0.6038  0.6494  0.02144  0.002509  0.003544  -0.02435  0.9421  0.0488
6.344e+09  0.7911  0.3756  0.01509  -0.02816  0.05661  -0.0549  0.8917  -0.2722
6.345e+09  0.8785  0.0766  0.001273  -0.02065  0.01612  -0.03006  0.7335  -0.5647
6.346e+09  0.8506  -0.2373  0.006048  0.0202  0.01388  0.01654  0.5087  -0.8229
6.348e+09  0.7214  -0.5467  0.02198  0.01187  0.004892  0.03714  0.2005  -0.8917
6.349e+09  0.5235  -0.7351  -0.0393  -0.008953  -0.01371  0.007304  -0.14  -0.9502
6.35e+09  0.2241  -0.8547  -0.02523  -0.02886  -0.002661  -0.01446  -0.4198  -0.8296
6.351e+09  -0.1075  -0.9027  -0.005093  0.02036  -0.02142  -0.04783  -0.6807  -0.6723
6.352e+09  -0.4277  -0.8164  0.06221  0.03064  0.05322  -0.02203  -0.853  -0.4072
6.354e+09  -0.6874  -0.6167  -0.01417  -0.006911  0.02052  0.006044  -0.9244  -0.07215
6.355e+09  -0.8549  -0.3327  0.003783  0.03129  -0.02431  0.02574  -0.9469  0.2358
6.356e+09  -0.8482  -0.02939  0.02997  -0.05129  0.002671  -0.002416  -0.7851  0.5622
6.358e+09  -0.8347  0.2772  -0.01072  -0.01139  0.009919  -0.01114  -0.5246  0.7932
6.359e+09  -0.7058  0.5888  0.006281  0.0204  -0.01565  0.01876  -0.2341  0.9522
6.36e+09  -0.4379  0.7505  -0.0198  0.0002792  -0.02056  -0.001845  0.1156  0.9035
6.361e+09  -0.1745  0.873  0.001809  -0.01137  -0.0239  0.002456  0.418  0.8697
6.362e+09  0.1405  0.87  0.002017  0.01041  -0.01885  0.0472  0.6902  0.6692
6.364e+09  0.4702  0.7527  0.04489  0.002418  -0.03697  0.02757  0.8656  0.413
6.365e+09  0.7042  0.5455  0.01043  -0.001714  0.04004  0.04056  0.9341  0.09683
6.366e+09  0.8133  0.2524  0.01567  -0.007825  0.002824  -0.03439  0.934  -0.2798
6.368e+09  0.9093  0.02511  0.008605  0.0163  -0.003771  0.0002654  0.8115  -0.5254
6.369e+09  0.8574  -0.3687  0.008279  -0.02342  0.008682  0.01827  0.5302  -0.8027
6.37e+09  0.6504  -0.6114  0.002018  -0.006953  0.02147  0.03164  0.2399  -0.9007
6.371e+09  0.3895  -0.7897  0.009403  -0.01189  0.0394  0.001763  -0.05852  -0.9532
6.372e+09  0.09331  -0.8809  0.04693  0.01363  -0.0002058  -0.007093  -0.3859  -0.8603
6.374e+09  -0.2212  -0.8916  -0.02164  -0.01664  -0.02347  0.0182  -0.6844  -0.6562
6.375e+09  -0.5069  -0.7157  -0.02002  0.02795  0.00542  -0.01209  -0.8689  -0.4608
6.376e+09  -0.7182  -0.5279  0.008863  -0.03557  0.005626  -0.02793  -1.001  -0.08365
6.378e+09  -0.8473  -0.2692  -0.03037  -0.009468  -0.01225  -0.004098  -0.8707  0.2607
6.379e+09  -0.8851  0.07261  -0.02935  -0.02089  -0.0008633  0.04598  -0.7771  0.5606
6.38e+09  -0.8499  0.308  0.01701  0.001913  -0.01481  0.01384  -0.5685  0.7431
6.381e+09  -0.6329  0.6023  0.001017  0.02097  0.03061  0.007878  -0.243  0.918
6.382e+09  -0.3878  0.7996  -0.01366  0.01819  -0.02544  -0.003886  0.05146  0.8925
6.384e+09  -0.07728  0.9134  0.006421  -0.006506  0.06039  -0.007447  0.3705  0.8625
6.385e+09  0.2393  0.8407  -0.01843  0.007497  -0.01293  0.01702  0.6778  0.6854
6.386e+09  0.5254  0.7408  0.006553  -0.01213  0.04324  -0.01414  0.846  0.439
6.388e+09  0.7434  0.5144  0.0319  -0.04695  -0.02144  -0.01644  0.9372  0.1154
6.389e+09  0.8695  0.2278  -0.03795  0.02011  -0.03337  -0.007219  0.9324  -0.2085
6.39e+09  0.8922  -0.04041  -0.005017  -0.02049  -0.02961  -0.0254  0.7882  -0.553
6.391e+09  0.8024  -0.4014  0.008488  0.01555  0.02735  -0.03882  0.5905  -0.7312
6.392e+09  0.6444  -0.6766  0.03758  0.02133  -0.036  -0.006211  0.2828  -0.8896
6.394e+09  0.337  -0.8404  -0.01677  -0.03589  0.008561  0.05293  -0.0735  -0.9361
6.395e+09  0.06334  -0.877  0.01896  -0.05277  -0.01533  -0.03192  -0.3214  -0.8258
6.396e+09  -0.2774  -0.8426  -0.02385  -0.001269  -0.01241  0.01899  -0.6241  -0.7171
6.398e+09  -0.5792  -0.7884  0.006264  0.03185  -0.04148  0.02161  -0.8146  -0.4609
6.399e+09  -0.8065  -0.4856  0.04416  0.01517  0.01041  0.01591  -0.9115  -0.1111
6.4e+09  -0.8967  -0.192  0.01308  0.0226  -0.01656  -0.002636  -0.8949  0.2084
6.401e+09  -0.8778  0.1408  -0.02534  -0.00708  0.01041  -0.01197  -0.7957  0.4596
6.402e+09  -0.7845  0.3828  0.01287  0.01422  0.01605  -0.003984  -0.5752  0.7147
6.404e+09  -0.5746  0.651  0.03522  -0.0002458  -0.01691  0.04255  -0.2929  0.8808
6.405e+09  -0.3073  0.7934  0.02437  -0.005451  -0.007554  -0.01392  0.01911  0.9047
6.406e+09  -0.04123  0.8987  0.008857  0.005716  0.01368  0.003838  0.2887  0.9229
6.408e+09  0.2711  0.8323  -0.0313  0.02413  0.03756  -0.05835  0.5825  0.6893
6.409e+09  0.5253  0.6931  -0.006244  -0.03734  0.01139  -0.02295  0.7832  0.4594
6.41e+09  0.7405  0.5007  -0.0333  0.004991  0.05924  -0.00856  0.8657  0.1775
6.411e+09  0.9137  0.1403  0.01735  -0.0204  0.006001  -0.02154  0.9025  -0.1814
6.412e+09  0.9  -0.1731  0.001917  0.02103  -0.0432  0.008748  0.8339  -0.4715
6.414e+09  0.776  -0.4221  0.02236  0.0009983  -0.02968  0.00645  0.6129  -0.6932
6.415e+09  0.61  -0.6736  0.02371  -0.03709  0.07834  -0.03859  0.3607  -0.7905
6.416e+09  0.3081  -0.8446  0.02061  0.02107  0.01971  0.003804  0.01739  -0.881
6.418e+09  0.03166  -0.8745  0.005002  0.008486  0.04095  -0.001158  -0.2855  -0.8647
6.419e+09  -0.2866  -0.8406  -0.02713  0.0139  0.009279  -0.04714  -0.5171  -0.6706
6.42e+09  -0.5559  -0.6962  0.04994  0.008869  -0.02586  -0.01885  -0.7388  -0.4839
6.421e+09  -0.7996  -0.4333  0.0147  -0.007793  -0.0322  -0.01408  -0.8644  -0.1704
6.422e+09  -0.8277  -0.1468  -0.01737  0.008068  -0.06137  -0.03425  -0.8949  0.1067
6.424e+09  -0.8919  0.149  -0.00699  0.02098  -0.03557  0.03891  -0.7908  0.3781
6.425e+09  -0.8391  0.4555  -0.002364  -0.02363  0.06244  0.003039  -0.5492  0.6208
6.426e+09  -0.5876  0.721  0.01193  -0.01015  -0.0184  0.01323  -0.3417  0.7997
6.428e+09  -0.2986  0.8765  -0.00453  -0.03631  -0.02387  -0.02457  -0.01499  0.8368
6.429e+09  -0.006961  0.8802  -0.004869  0.04575  -0.02793  0.008729  0.2552  0.8481
6.43e+09  0.2769  0.8579  0.01997  -0.01343  0.02292  -0.008585  0.5238  0.7291
6.431e+09  0.5734  0.6297  0.02164  -0.01281  0.01999  0.008091  0.7418  0.4948
6.432e+09  0.7853  0.4151  0.007468  0.03216  0.0152  -0.04502  0.8492  0.2275
6.434e+09  0.8997  0.1671  0.005915  0.01954  0.02188  -0.03526  0.7909  -0.09522
6.435e+09  0.8772  -0.1941  0.001407  0.03575  0.009262  -0.005636  0.8356  -0.3853
6.436e+09  0.8049  -0.4527  -0.04691  -0.008339  -0.009145  -0.003648  0.6151  -0.6102
6.438e+09  0.6075  -0.7347  0.05096  0.02429  0.06159  0.03632  0.3748  -0.773
6.439e+09  0.3114  -0.8449  0.01192  -0.009811  0.0165  0.02554  0.07942  -0.8446
6.44e+09  -0.04054  -0.9411  0.003509  0.00874  -0.0283  -0.000482  -0.2779  -0.8707
6.441e+09  -0.3203  -0.8654  -0.03422  -0.04954  0.002959  -0.004054  -0.4915  -0.6697
6.442e+09  -0.6337  -0.6719  0.05433  0.01176  0.02961  -0.01849  -0.6881  -0.4851
6.444e+09  -0.7616  -0.4441  0.02  0.02117  -0.01587  -0.04245  -0.8518  -0.1877
6.445e+09  -0.9  -0.1683  -0.01128  0.06631  -0.02841  0.01896  -0.8942  0.02582
6.446e+09  -0.918  0.186  -0.0006748  -0.01699  -0.05288  0.0104  -0.7772  0.3644
6.448e+09  -0.7046  0.5325  0.006526  0.03088  -0.05303  0.0163  -0.5966  0.6151
6.449e+09  -0.5449  0.7529  0.02596  0.03978  0.009683  -0.00913  -0.3621  0.7788
6.45e+09  -0.2309  0.8465  0.02752  0.03296  -0.01083  -0.0194  -0.04239  0.8063
6.451e+09  0.07254  0.911  -0.02658  0.04204  0.02074  -0.01031  0.2187  0.745
6.452e+09  0.3598  0.8337  -0.003009  -0.0003895  -0.02778  0.03943  0.516  0.6838
6.454e+09  0.6157  0.6588  0.02505  0.00982  -0.07205  0.02028  0.6323  0.4896
6.455e+09  0.7758  0.4196  -0.0075  -0.03306  -0.0193  0.03781  0.8332  0.1921
6.456e+09  0.9715  0.08886  -0.01179  -0.01432  -0.06197  0.0215  0.8853  -0.1121
6.458e+09  0.9096  -0.2144  0.01759  0.003679  -0.005994  0.03067  0.7044  -0.3572
6.459e+09  0.756  -0.4768  0.004155  0.006216  0.09341  0.001341  0.57  -0.5996
6.46e+09  0.5157  -0.7619  0.01662  -0.001861  0.01307  0.004968  0.3828  -0.7481
6.461e+09  0.2768  -0.9342  -0.0009541  -0.009737  0.07192  -0.006216  0.1002  -0.7946
6.462e+09  -0.1033  -0.9526  -0.01507  0.0142  -0.02214  -0.01611  -0.2645  -0.7758
6.464e+09  -0.3179  -0.822  0.02506  0.0146  -0.02313  -0.01498  -0.4246  -0.6441
6.465e+09  -0.6139  -0.6983  0.01105  -0.008667  -0.04403  0.001311  -0.6776  -0.4381
6.466e+09  -0.8716  -0.4245  0.04825  -0.02139  0.01456  -0.004675  -0.7973  -0.2348
6.468e+09  -0.9107  -0.07967  0.0298  0.004263  0.02946  0.04221  -0.8265  0.08738
6.469e+09  -0.9153  0.2132  -0.005448  -0.01272  -0.02984  0.03693  -0.7739  0.3161
6.47e+09  -0.7841  0.5436  0.01802  -0.0262  0.03605  -0.01618  -0.589  0.5881
6.471e+09  -0.5561  0.7822  -0.008024  -0.05914  -0.0467  -0.005108  -0.338  0.7031
6.472e+09  -0.2447  0.8666  -0.007977  -0.0238  -0.01883  0.003148  -0.05339  0.8077
6.474e+09  0.1219  0.941  -0.006883  0.01869  -0.01343  -0.03358  0.2324  0.7786
6.475e+09  0.4436  0.8991  -0.02355  0.0282  0.01006  -0.03254  0.4511  0.6114
6.476e+09  0.6606  0.6865  -0.02536  -0.03403  0.008634  0.03608  0.6722  0.4439
6.478e+09  0.8503  0.3699  0.007185  0.01538  -0.02442  0.02433  0.7661  0.1849
6.479e+09  0.9703  0.03065  0.02489  -0.04278  0.04401  0.01665  0.7887  -0.0959
6.48e+09  0.8773  -0.2681  0.009172  0.008994  0.041  -0.001128  0.6833  -0.34
6.481e+09  0.7943  -0.5942  -0.01301  -0.01  -0.003511  -0.01713  0.5334  -0.5342
6.482e+09  0.513  -0.7687  0.01844  0.003104  -0.007589  -0.02183  0.3092  -0.7311
6.484e+09  0.23  -0.9043  0.002117  -0.005338  0.01036  0.0768  0.07043  -0.7673
6.485e+09  -0.08538  -1.008  0.02295  -0.007273  0.02274  -0.01339  -0.1823  -0.7426
6.486e+09  -0.446  -0.8066  -0.004728  -0.03245  -0.007581  -0.02895  -0.4455  -0.6041
6.488e+09  -0.71  -0.6311  -0.03459  -0.01172  -0.0215  -0.03834  -0.6443  -0.4068
6.489e+09  -0.8915  -0.3574  0.003015  0.03897  -0.002506  -0.001124  -0.7564  -0.1815
6.49e+09  -0.8984  -0.06174  -0.005536  -0.0169  -0.04115  -0.005238  -0.7915  0.08213
6.491e+09  -0.9141  0.3357  0.02914  0.009435  0.01128  0.03808  -0.676  0.3648
6.492e+09  -0.7274  0.6228  -0.01115  -0.004058  -0.001282  0.009575  -0.5454  0.5458
6.494e+09  -0.5075  0.7877  -0.008973  0.01589  -0.01861  0.04907  -0.3187  0.6972
6.495e+09  -0.184  0.9012  0.01054  -0.021  0.01201  -0.005375  -0.03373  0.7555
6.496e+09  0.1396  0.9614  -0.03559  -0.008143  0.005527  0.004002  0.24  0.7472
6.498e+09  0.4763  0.8166  -0.02961  -0.00298  -0.01245  -0.0008057  0.4636  0.6259
6.499e+09  0.7185  0.6022  -0.00714  0.008839  0.04654  -0.01734  0.6395  0.4397
6.5e+09  0.9113  0.3058  -0.02354  -0.01797  -0.00406  0.005617  0.7432  0.1553
6.501e+09  0.9875  -0.05413  0.04669  0.001052  0.03447  -0.01249  0.7152  -0.07886
6.502e+09  0.8675  -0.3406  0.01461  -0.01655  -0.03153  0.01271  0.6957  -0.3496
6.504e+09  0.7103  -0.6087  -0.03974  0.02719  0.009058  0.01003  0.4734  -0.5788
6.505e+09  0.4181  -0.8509  0.009489  -0.002006  -0.02724  -0.03198  0.2963  -0.7188
6.506e+09  0.1154  -0.9397  0.01255  -0.03042  -0.02358  0.004503  -0.008208  -0.7542
6.508e+09  -0.2211  -0.9684  0.045  -0.001065  0.03083  0.006578  -0.2477  -0.6718
6.509e+09  -0.5493  -0.8335  -0.0194  5.811e-05  0.0296  0.01161  -0.4799  -0.5733
6.51e+09  -0.7327  -0.5682  -0.01141  0.01247  0.004396  0.008829  -0.6447  -0.3785
6.511e+09  -0.9329  -0.2828  -0.02308  0.0006588  -0.02494  -0.02231  -0.7452  -0.1196
6.512e+09  -0.9701  0.07146  0.01501  -0.02781  0.03268  0.001706  -0.7138  0.1281
6.514e+09  -0.878  0.398  -0.01737  0.04163  0.01641  0.01201  -0.6406  0.4148
6.515e+09  -0.7195  0.6583  -0.001016  0.01697  0.04137  0.06191  -0.5127  0.5848
6.516e+09  -0.4366  0.8803  -0.005014  -0.009971  0.01373  -0.02986  -0.2507  0.7319
6.518e+09  -0.1483  1.003  -0.04836  -0.00493  0.006125  -0.00679  0.03662  0.7585
6.519e+09  0.2674  0.961  0.02031  0.01248  -0.05918  -0.04692  0.3025  0.6908
6.52e+09  0.5723  0.7805  -0.009895  -0.02249  -0.09803  0.02943  0.4989  0.5279
6.521e+09  0.794  0.5171  -0.01468  0.0242  -0.002156  0.04077  0.6465  0.3308
6.522e+09  0.9352  0.2321  0.01919  -0.009992  0.02252  -0.003953  0.7449  0.08448
6.524e+09  0.9697  -0.1678  0.0005382  -0.01739  0.007686  0.01128  0.733  -0.1706
6.525e+09  0.8584  -0.4508  0.01944  -0.0137  -0.00283  -0.003313  0.588  -0.3887
6.526e+09  0.6017  -0.7499  0.05055  -0.05564  0.002255  -0.01764  0.4044  -0.5867
6.528e+09  0.3264  -0.9104  0.001256  -0.004546  0.03302  0.06345  0.1979  -0.6882
6.529e+09  0.01038  -1.029  -0.03944  0.006955  -0.01449  -0.0552  -0.04334  -0.6712
6.53e+09  -0.2686  -0.9684  -0.0352  -0.004003  0.006728  0.005783  -0.2875  -0.6723
6.531e+09  -0.63  -0.7893  0.02075  0.001314  -0.01094  0.02003  -0.463  -0.4846
6.532e+09  -0.8279  -0.4901  0.0171  -0.0182  0.05325  -0.01677  -0.5767  -0.2798
6.534e+09  -0.9783  -0.1126  0.03411  0.02576  -0.01045  0.02616  -0.6256  -0.08014
6.535e+09  -0.9414  0.1891  -0.009824  -0.009958  0.01207  -0.007484  -0.6184  0.09148
6.536e+09  -0.8142  0.5139  -0.02714  -0.004591  0.008197  0.02336  -0.5498  0.3158
6.538e+09  -0.553  0.8118  0.0219  0.004715  -0.01534  -0.01957  -0.459  0.4952
6.539e+09  -0.2568  0.9178  0.001065  0.008766  0.01114  -0.0231  -0.2685  0.6363
6.54e+09  0.07655  0.9867  0.02658  0.03006  -0.03178  -0.02434  -0.04116  0.6654
6.541e+09  0.3826  0.856  0.001993  -0.02791  -0.03784  -0.002695  0.2027  0.6952
6.542e+09  0.7287  0.6423  0.01019  0.0295  0.006502  -0.01278  0.4323  0.5841
6.544e+09  0.8857  0.3951  0.01274  -0.006699  0.005481  0.03392  0.5992  0.39
6.545e+09  0.9646  0.03047  -0.001485  0.001586  -0.05242  -0.009933  0.7124  0.1947
6.546e+09  0.9017  -0.2818  0.01301  0.005951  -0.04444  -0.05842  0.78  -0.1016
6.548e+09  0.7021  -0.5627  0.03191  0.0142  0.02226  -0.01616  0.6407  -0.3207
6.549e+09  0.4931  -0.8102  -0.00355  -0.01513  0.001128  -0.05998  0.4944  -0.5211
6.55e+09  0.1591  -0.8892  0.0175  0.006869  -0.074  -0.02176  0.2793  -0.6839
