# Hz S RI R 50
6.25e+09  -0.2924  0.8118  -0.007789  -0.00618  -0.009198  0.009715  0.1591  0.4891
6.251e+09  0.0006485  0.8677  0.005417  -0.001506  -0.01274  0.02122  0.3818  0.4242
6.252e+09  0.2779  0.8429  -0.02949  -0.02459  0.0152  -0.001204  0.5133  0.2453
6.254e+09  0.5051  0.6573  0.01942  0.01022  -0.03793  0.06593  0.6123  0.02462
6.255e+09  0.673  0.4653  -0.005621  0.002623  0.00933  -0.06278  0.6038  -0.2347
6.256e+09  0.8109  0.2296  -0.01389  -0.03084  0.01764  -0.01044  0.4352  -0.4176
6.258e+09  0.8671  -0.07674  -0.007476  -0.001812  0.009927  -0.0142  0.2853  -0.6298
6.259e+09  0.7249  -0.4073  0.005094  -0.01479  0.0004418  0.03059  0.04396  -0.6787
6.26e+09  0.5378  -0.6188  -0.003741  -0.0296  0.009642  0.01894  -0.222  -0.6318
6.261e+09  0.2696  -0.7758  0.013  0.005185  0.01366  0.01842  -0.4349  -0.4999
6.262e+09  -0.01234  -0.8116  0.0124  -0.01791  0.006563  -0.05636  -0.5884  -0.3711
6.264e+09  -0.2677  -0.7612  -0.024  -0.01234  0.03682  -0.0325  -0.7218  -0.08276
6.265e+09  -0.5286  -0.6172  0.01446  -0.01397  -0.009318  -0.02864  -0.702  0.1716
6.266e+09  -0.7664  -0.4452  -0.007777  0.02897  0.03009  -0.032  -0.6063  0.3829
6.268e+09  -0.8667  -0.156  -0.01212  0.005932  0.02371  -0.02181  -0.4098  0.6149
6.269e+09  -0.7722  0.1379  -0.02265  0.005791  0.04708  -0.02283  -0.2015  0.6806
6.27e+09  -0.7696  0.3523  0.00171  -0.0003539  -0.02774  0.01334  0.04219  0.7197
6.271e+09  -0.5568  0.6411  0.003003  -0.02581  0.008174  -0.01824  0.3229  0.6619
6.272e+09  -0.386  0.8082  0.01242  -0.01551  -0.03155  0.001455  0.5383  0.5337
6.274e+09  -0.03278  0.8429  -0.01087  0.01363  -0.007347  -0.0008994  0.6668  0.2933
6.275e+09  0.2703  0.8187  0.01802  0.002264  0.02511  -0.002157  0.7946  0.07425
6.276e+09  0.5007  0.654  0.02664  -0.01174  -0.02054  -0.02684  0.744  -0.2109
6.278e+09  0.7062  0.3984  0.0164  0.008297  -0.02167  0.02008  0.6247  -0.481
6.279e+09  0.8495  0.1188  0.01853  -0.01626  -0.01152  0.001863  0.4311  -0.6474
6.28e+09  0.8529  -0.1161  0.006943  -0.01157  0.01603  0.02475  0.1511  -0.7903
6.281e+09  0.6987  -0.3933  -0.01886  0.01087  0.0111  0.01501  -0.12  -0.7512
6.282e+09  0.5073  -0.6046  0.001104  -0.02499  0.01236  0.001362  -0.4051  -0.6806
6.284e+09  0.2662  -0.804  0.005469  0.01629  0.0009689  0.001936  -0.6009  -0.4874
6.285e+09  -0.01944  -0.8178  0.02643  0.01787  0.0143  -0.03657  -0.7087  -0.2528
6.286e+09  -0.3009  -0.7898  0.0157  0.0163  0.02969  0.008522  -0.8197  -0.0004476
6.288e+09  -0.6053  -0.615  -0.01726  0.005449  -0.03535  0.03979  -0.771  0.2541
6.289e+09  -0.7634  -0.4033  0.02083  0.004083  -0.03735  -0.03193  -0.623  0.5226
6.29e+09  -0.8116  -0.1428  0.006492  -0.02209  -0.02072  0.02167  -0.4393  0.7065
6.291e+09  -0.8426  0.1666  0.02606  0.000406  0.02117  0.03185  -0.1415  0.8219
6.292e+09  -0.7158  0.443  -0.01156  0.0005577  0.01946  -0.007061  0.143  0.7852
6.294e+09  -0.5323  0.5949  0.01075  -0.009602  -0.01722  -0.01843  0.4073  0.7163
6.295e+09  -0.2703  0.8023  0.02939  0.0102  0.01305  -0.003416  0.6211  0.5359
6.296e+09  0.07279  0.8289  0.02434  -0.01157  -0.02296  -0.00662  0.7828  0.2763
6.298e+09  0.2977  0.8256  -0.002933  -0.01266  0.01898  0.006232  0.846  -0.009551
6.299e+09  0.5642  0.6331  -0.002165  -0.007394  -0.009727  0.004025  0.7957  -0.2689
6.3e+09  0.75  0.4131  -0.00626  -0.00373  -0.02789  0.02136  0.668  -0.5178
6.301e+09  0.8215  0.08684  -0.01622  -0.02578  -0.02098  -0.00966  0.4249  -0.7146
6.302e+09  0.8227  -0.2069  0.01625  -0.004333  0.01046  0.01156  0.1408  -0.82
6.304e+09  0.6953  -0.4751  -0.004019  -0.03783  0.005867  0.01284  -0.1223  -0.827
6.305e+09  0.5252  -0.6904  0.01183  -0.004419  -0.06576  -0.002294  -0.427  -0.7124
6.306e+09  0.2002  -0.8083  -0.01804  0.002033  0.03254  -0.02795  -0.6697  -0.5431
6.308e+09  -0.06186  -0.8662  0.005744  -0.01508  -0.03016  -0.03619  -0.8165  -0.3047
6.309e+09  -0.3561  -0.768  -0.02229  0.04129  -0.03531  -0.008092  -0.8646  -0.02158
6.31e+09  -0.5593  -0.6629  0.005807  0.02327  -0.04606  -0.00886  -0.8146  0.2975
6.311e+09  -0.7248  -0.3279  -0.01264  -0.01655  -0.04444  -0.007377  -0.6688  0.5765
6.312e+09  -0.8422  -0.1171  0.01745  0.007308  0.0572  -0.003128  -0.4454  0.7431
6.314e+09  -0.8135  0.2157  0.02114  0.001974  0.03943  -0.00326  -0.1372  0.8193
6.315e+09  -0.6744  0.4961  -0.02405  0.002884  0.03008  -0.004434  0.1436  0.8854
6.316e+09  -0.5419  0.7338  -0.004551  0.02475  -0.02725  0.03666  0.416  0.7284
6.318e+09  -0.1959  0.8392  -0.003603  -0.00509  -0.03499  -0.01131  0.6939  0.583
6.319e+09  0.09524  0.796  -0.001381  0.0201  -0.01109  0.04385  0.8039  0.2922
6.32e+09  0.4491  0.8025  0.004765  -0.01956  0.006922  -0.0151  0.9127  0.01438
6.321e+09  0.6371  0.5437  0.0166  0.03029  -0.01545  0.003379  0.8404  -0.282
6.322e+09  0.8184  0.3267  0.0004862  0.002251  0.01075  -0.007868  0.6945  -0.5273
6.324e+09  0.8861  0.0196  -0.03144  0.02474  -0.02573  0.01233  0.4412  -0.7537
6.325e+09  0.8133  -0.3186  0.003718  0.003892  -0.03669  0.01548  0.1635  -0.8872
6.326e+09  0.6677  -0.4975  -0.018  -0.05118  0.01352  -0.03708  -0.1413  -0.8702
6.328e+09  0.4282  -0.7236  0.02485  -0.005606  0.03417  0.009741  -0.4717  -0.8119
6.329e+09  0.1644  -0.8935  -0.02206  -0.01753  -0.01588  -0.001383  -0.6826  -0.6155
6.33e+09  -0.1578  -0.8284  -0.02954  0.01045  0.005107  0.002517  -0.8884  -0.3246
6.331e+09  -0.4489  -0.7538  0.01029  -0.001265  -0.03337  -0.01405  -0.9474  -0.03075
6.332e+09  -0.6719  -0.5299  0.01028  0.01075  0.03723  0.02534  -0.8787  0.2924
6.334e+09  -0.8279  -0.2715  -0.04595  0.0015  -0.009229  -0.01077  -0.7089  0.5724
6.335e+09  -0.8498  0.007041  0.01167  0.03631  -0.04134  0.004419  -0.4727  0.7894
6.336e+09  -0.7997  0.3532  -0.003102  -0.004542  0.04167  0.03615  -0.1792  0.8963
6.338e+09  -0.6194  0.6097  -0.01629  -0.003746  -0.01059  0.01725  0.1583  0.9226
6.339e+09  -0.4088  0.7287  0.0007937  0.02351  -0.02182  -0.01181  0.4269  0.8428
6.34e+09  -0.142  0.8479  0.03118  0.008201  0.02323  0.01418  0.688  0.6166
6.341e+09  0.1841  0.8615  -0.007121  -0.003931  0.02689  -0.01075  0.8612  0.3348
6.342e+09  0.5154  0.7176  0.01373  0.007584  0.005182  -0.02518  0.9353  0.04256
6.344e+09  0.7286  0.5409  0.008318  0.01899  0.02185  0.04713  0.8661  -0.2987
6.345e+09  0.82  0.2225  0.0001206  0.02104  -0.01313  -0.02392  0.7757  -0.5789
6.346e+09  0.8932  -0.1074  -0.01213  -0.01611  0.02254  -0.01912  0.4751  -0.8067
6.348e+09  0.7478  -0.4207  -0.02372  0.01933  0.04928  0.0001742  0.2375  -0.9159
6.349e+09  0.6672  -0.6335  -0.01165  0.00693  -0.04749  -0.04505  -0.1088  -0.9403
6.35e+09  0.3772  -0.8046  -0.006125  0.002413  0.02744  -0.0179  -0.4446  -0.8407
6.351e+09  0.01411  -0.875  -0.0156  -0.005811  0.004688  0.04248  -0.696  -0.6435
6.352e+09  -0.3334  -0.8562  -0.0136  0.04093  -0.02216  0.009767  -0.8514  -0.3711
6.354e+09  -0.5176  -0.7024  0.01874  -0.005321  -0.02054  0.0142  -0.9613  -0.03131
6.355e+09  -0.7689  -0.4307  -0.005601  -0.00739  -0.02649  0.0006494  -0.9044  0.245
6.356e+09  -0.9097  -0.1843  -0.007465  0.02151  0.02862  0.02691  -0.7461  0.5587
6.358e+09  -0.876  0.1209  0.01263  0.01369  0.02631  0.01278  -0.5738  0.7638
6.359e+09  -0.7948  0.4087  0.02181  0.01409  -0.04364  0.03275  -0.2143  0.9334
6.36e+09  -0.5754  0.6761  -0.01297  -0.005864  0.01047  0.01894  0.07839  0.9568
6.361e+09  -0.3081  0.8133  0.003376  -0.02916  0.01515  0.01653  0.3855  0.8342
6.362e+09  0.03213  0.8658  0.01686  -0.006178  -0.02583  -0.004502  0.6828  0.6385
6.364e+09  0.346  0.8772  -0.01327  0.002897  0.01077  -0.0263  0.8151  0.3934
6.365e+09  0.6119  0.6773  0.0132  0.01107  0.04358  0.02878  0.949  0.0524
6.366e+09  0.8505  0.3884  -0.01656  -0.0119  -0.01218  0.001129  0.9305  -0.2159
6.368e+09  0.9255  0.1512  0.02811  -0.007533  0.02098  -0.01624  0.8044  -0.5159
6.369e+09  0.9017  -0.1596  -0.01701  -0.002654  0.00748  0.01823  0.5275  -0.7828
6.37e+09  0.7774  -0.4455  -0.03998  -0.01489  -0.02899  -0.01051  0.271  -0.9211
6.371e+09  0.5382  -0.7149  -0.0293  0.03475  -0.02993  0.01336  -0.09094  -0.9382
6.372e+09  0.2796  -0.8131  -0.009403  0.02554  -0.02042  -0.03399  -0.3854  -0.8537
6.374e+09  -0.04535  -0.8935  0.0214  0.05423  0.01388  -0.02725  -0.6362  -0.6571
6.375e+09  -0.3694  -0.8077  -0.03083  0.02988  0.0001445  -0.01  -0.9181  -0.4189
6.376e+09  -0.6396  -0.6586  0.01189  -0.003904  -0.04749  0.009395  -0.9442  -0.1141
6.378e+09  -0.775  -0.4082  0.002981  -0.03062  -0.002084  0.002978  -0.9042  0.238
6.379e+09  -0.8536  -0.07273  0.002957  0.04397  0.005954  -0.03813  -0.7701  0.5473
6.38e+09  -0.8418  0.2521  0.01531  -0.007644  -0.006298  -0.004968  -0.5705  0.7817
6.381e+09  -0.7238  0.5433  0.01282  -0.01931  -0.008325  0.02691  -0.2701  0.9008
6.382e+09  -0.4878  0.7574  -0.02113  0.01561  -0.03644  0.007979  0.09657  0.9256
6.384e+09  -0.2456  0.8783  -0.006352  0.02616  -0.01087  -0.007315  0.3867  0.8576
6.385e+09  0.1152  0.9161  -0.02781  0.007097  0.005108  0.0121  0.6519  0.6875
6.386e+09  0.4025  0.8599  -0.04161  0.01863  0.02498  0.01109  0.8316  0.4532
6.388e+09  0.6252  0.6257  -0.00511  -0.03808  0.02767  -0.01506  0.9638  0.1506
6.389e+09  0.8151  0.3567  -0.009653  0.002851  0.004612  0.06988  0.982  -0.1818
6.39e+09  0.9015  0.05599  0.01174  0.009855  0.01998  -0.005265  0.744  -0.4766
6.391e+09  0.8545  -0.2806  -0.02987  -0.0228  0.05361  0.0008653  0.5723  -0.7288
6.392e+09  0.7024  -0.531  -0.009376  0.02296  -0.01625  0.002952  0.286  -0.9105
6.394e+09  0.4911  -0.7646  -0.008878  0.01712  0.02634  -0.02078  -0.01855  -0.9192
6.395e+09  0.2024  -0.9045  0.01049  0.04391  0.008443  -0.02767  -0.3638  -0.8563
6.396e+09  -0.1176  -0.8708  0.02342  0.006162  0.001791  0.002518  -0.5885  -0.6879
6.398e+09  -0.3985  -0.7691  -0.03163  0.02429  0.01414  0.005007  -0.8572  -0.4335
6.399e+09  -0.6565  -0.6323  -0.01056  0.008944  -0.007577  -0.02086  -0.9128  -0.1061
6.4e+09  -0.8432  -0.3667  0.03858  0.0345  -0.01191  -0.02579  -0.9224  0.178
6.401e+09  -0.8854  -0.006116  0.01217  -0.0003968  -0.006823  -0.02784  -0.7509  0.4781
6.402e+09  -0.8368  0.3214  -0.0023  -0.01506  0.03431  -0.01809  -0.6089  0.7185
6.404e+09  -0.7638  0.5437  -0.02942  -0.01972  -0.001275  -0.02657  -0.3016  0.8169
6.405e+09  -0.4351  0.729  -0.01393  0.03185  -0.03769  0.02628  0.004912  0.838
6.406e+09  -0.1609  0.8862  0.01625  0.02634  0.001838  -0.03163  0.2762  0.8595
6.408e+09  0.1502  0.9039  0.03599  -0.0254  -0.005758  -0.01187  0.5721  0.7494
6.409e+09  0.4282  0.8035  0.02325  -0.03872  -0.008367  0.003528  0.7892  0.5032
6.41e+09  0.6009  0.5424  -0.03515  -0.0197  0.02638  -0.003004  0.8936  0.1886
6.411e+09  0.8368  0.3012  -0.01398  0.01239  -0.04089  0.04257  0.9169  -0.1453
6.412e+09  0.8648  -9.35e-05  -0.006123  0.004253  -0.02422  -0.03382  0.8028  -0.4421
6.414e+09  0.8355  -0.2702  0.02354  0.009761  -0.02263  -0.02568  0.5993  -0.6792
6.415e+09  0.6947  -0.548  0.06593  -0.02917  0.006209  -0.007073  0.3306  -0.8582
6.416e+09  0.3672  -0.7451  -0.02603  -0.003583  0.01979  -0.01002  0.05125  -0.9647
6.418e+09  0.1862  -0.9237  -0.0163  0.008497  -0.0197  -0.02646  -0.3186  -0.8808
6.419e+09  -0.1317  -0.8631  0.006297  -0.006717  -0.007092  0.03775  -0.5566  -0.6538
6.42e+09  -0.474  -0.7479  -0.03615  0.001052  -0.05196  0.002007  -0.7637  -0.4726
6.421e+09  -0.6546  -0.5335  0.02162  0.0115  -0.0506  0.03053  -0.8179  -0.1914
6.422e+09  -0.8624  -0.3326  -0.03538  0.04544  -0.02599  -0.04482  -0.8533  0.1187
6.424e+09  -0.9534  0.009871  -0.05607  0.006231  0.01699  0.02991  -0.7674  0.4123
6.425e+09  -0.8155  0.3576  -0.01689  -0.01687  -0.04199  -0.02144  -0.5992  0.6704
6.426e+09  -0.704  0.5953  0.005644  -0.008811  -0.00375  0.01316  -0.3098  0.8127
6.428e+09  -0.4466  0.7756  0.0303  -0.02638  0.01084  0.001652  -0.05209  0.8776
6.429e+09  -0.1018  0.8336  0.01939  0.008745  0.03503  0.001009  0.2732  0.8554
6.43e+09  0.2191  0.8563  0.006119  -0.0058  -0.02122  -0.02233  0.5214  0.668
6.431e+09  0.4637  0.7389  0.003681  -0.02994  0.04853  -0.003133  0.7242  0.4911
6.432e+09  0.687  0.5507  -0.01336  0.03472  0.0002775  0.01039  0.8263  0.2325
6.434e+09  0.8409  0.2665  -0.02007  0.02943  -0.002725  -0.02156  0.8132  -0.07604
6.435e+09  0.8779  -0.02783  -0.03166  -0.02142  -0.02522  0.04507  0.7965  -0.3755
6.436e+09  0.8734  -0.327  -0.03619  0.005121  -0.04728  -0.005286  0.5936  -0.6188
6.438e+09  0.6834  -0.6013  -0.01222  -0.03365  -0.03798  0.04602  0.3568  -0.818
6.439e+09  0.3891  -0.7517  -0.02352  0.05135  0.03904  -0.01994  0.05722  -0.8338
6.44e+09  0.1338  -0.8452  0.0009057  0.05479  -0.002457  -0.01176  -0.1955  -0.8218
6.441e+09  -0.1781  -0.8632  0.02291  -0.008015  0.01822  -0.03645  -0.5036  -0.6905
6.442e+09  -0.4573  -0.7456  0.00561  -0.009504  -0.008167  -0.01011  -0.7281  -0.4884
6.444e+09  -0.7267  -0.5221  -0.04593  -0.00676  0.05163  0.00563  -0.835  -0.2164
6.445e+09  -0.85  -0.2448  -0.03365  -0.003508  -0.01347  0.01475  -0.8249  0.08448
6.446e+09  -0.8865  0.04401  -0.008208  0.006899  7.729e-05  -0.002224  -0.7871  0.3931
6.448e+09  -0.7822  0.3671  0.03719  -0.03045  0.004288  -0.06194  -0.559  0.6228
6.449e+09  -0.6641  0.6335  -0.06326  -0.02033  -0.01649  0.01454  -0.3383  0.7628
6.45e+09  -0.4012  0.7521  0.003196  0.02848  -0.01013  -0.01959  -0.086  0.8737
6.451e+09  -0.1842  0.8867  -0.02135  -0.04038  0.07888  0.006284  0.2324  0.8266
6.452e+09  0.212  0.8822  -0.03134  0.01094  -0.007439  -0.01236  0.4898  0.7149
6.454e+09  0.4629  0.7558  0.0188  0.02092  -0.02341  -0.01393  0.6274  0.4762
6.455e+09  0.7265  0.562  -0.01582  0.007657  -0.005244  -0.01569  0.8326  0.2339
6.456e+09  0.7953  0.234  0.027  -0.02129  0.0146  -0.01968  0.831  -0.08048
6.458e+09  0.9565  -0.07071  -0.0006907  -0.01878  -0.02048  -0.01096  0.691  -0.3541
6.459e+09  0.8534  -0.3456  -0.005567  0.001952  -0.001887  -0.004107  0.6227  -0.5723
6.46e+09  0.6236  -0.5911  0.03357  0.01678  0.001188  0.03474  0.3891  -0.7455
6.461e+09  0.3817  -0.8322  -0.002354  0.009527  0.02937  0.01807  0.04542  -0.8077
6.462e+09  0.09965  -0.8951  0.02731  -0.007982  0.02627  0.009568  -0.1785  -0.7649
6.464e+09  -0.2373  -0.8448  0.02245  -0.005908  -0.0379  -0.02721  -0.4891  -0.6869
6.465e+09  -0.5551  -0.7705  0.01296  -0.03131  -0.04263  0.0189  -0.6523  -0.4989
6.466e+09  -0.7352  -0.5076  -0.005854  0.03342  -0.0415  0.01877  -0.8059  -0.1712
6.468e+09  -0.8694  -0.2374  0.03661  0.01393  -0.02976  -0.01779  -0.8227  0.09928
6.469e+09  -0.901  0.05383  -0.02752  0.04223  0.01732  0.01626  -0.7315  0.3354
6.47e+09  -0.8158  0.3992  -0.04392  -0.02699  -0.006942  0.02751  -0.5088  0.5754
6.471e+09  -0.6581  0.6567  -0.02342  0.005019  0.01449  0.02435  -0.3463  0.7056
6.472e+09  -0.3583  0.8437  0.01526  -0.03529  0.06496  0.02347  -0.03635  0.7994
6.474e+09  -0.1128  0.8978  -0.01308  0.01225  -0.002321  -0.001801  0.1899  0.7188
6.475e+09  0.2713  0.8714  0.01011  -0.02453  0.0278  0.03649  0.4804  0.6882
6.476e+09  0.5365  0.7694  0.001063  -0.01304  0.00428  -0.05551  0.6687  0.4098
6.478e+09  0.7463  0.5423  -0.02832  -0.02461  0.05647  -0.02617  0.756  0.1956
6.479e+09  0.8804  0.2328  0.01401  -0.001656  -0.006546  0.001922  0.7883  -0.1025
6.48e+09  0.8822  -0.06005  -0.01107  -0.01822  0.03232  0.02301  0.7033  -0.3626
6.481e+09  0.8386  -0.3681  -0.02813  -0.003729  -0.007445  0.02052  0.5527  -0.5407
6.482e+09  0.6759  -0.5873  -0.02205  0.00349  -0.006885  -0.01561  0.3723  -0.7029
6.484e+09  0.3428  -0.8426  -0.00168  -0.02894  0.03307  0.003935  0.05423  -0.7838
6.485e+09  0.1201  -0.9051  0.01809  -0.008696  -0.005305  -0.004994  -0.2361  -0.7062
6.486e+09  -0.2451  -0.8976  0.04809  0.007293  -0.02943  -0.04546  -0.4739  -0.6056
6.488e+09  -0.5606  -0.7668  0.02025  -0.001864  -0.00597  0.04171  -0.6321  -0.4022
6.489e+09  -0.7536  -0.5064  -0.01199  -0.02139  -0.005334  0.003129  -0.801  -0.1886
6.49e+09  -0.891  -0.147  0.01883  -0.03139  -0.009218  -0.008858  -0.7277  0.06456
6.491e+09  -0.9219  0.112  -0.03978  -0.001932  0.01551  -0.02991  -0.6917  0.3691
6.492e+09  -0.8756  0.4143  -0.007428  0.005984  0.005968  0.04871  -0.5279  0.509
6.494e+09  -0.665  0.7093  0.009342  0.0208  -0.02675  -0.01869  -0.3475  0.7035
6.495e+09  -0.3922  0.8382  -0.01258  -0.009236  -0.03772  0.001099  -0.04565  0.7365
6.496e+09  -0.05887  0.9545  0.03337  -0.04636  -0.02354  -0.02766  0.2356  0.7272
6.498e+09  0.3069  0.8753  -0.01185  0.0356  0.04141  0.01913  0.4742  0.6189
6.499e+09  0.5691  0.6781  -0.01076  -0.01709  0.03966  -0.01418  0.6052  0.4613
6.5e+09  0.8188  0.5231  -0.06619  0.02128  -0.03508  0.01254  0.7087  0.1893
6.501e+09  0.883  0.1241  0.005415  0.02374  -0.02421  -0.005352  0.7592  -0.07046
6.502e+09  0.9302  -0.1459  0.01091  -0.02462  0.02826  0.005215  0.6939  -0.3426
6.504e+09  0.8479  -0.4439  0.0126  -0.05014  -0.02044  0.005887  0.4867  -0.5879
6.505e+09  0.6301  -0.7351  -0.02672  0.05498  -0.03848  -0.02761  0.2841  -0.7318
6.506e+09  0.3959  -0.8448  -0.01633  -0.0157  -0.01131  0.01672  0.04294  -0.7751
6.508e+09  -0.0007224  -0.9787  -0.009217  -0.02924  -0.02918  0.0152  -0.2311  -0.7629
6.509e+09  -0.3087  -0.8628  -0.01182  0.005055  -0.06328  -0.009711  -0.4914  -0.5915
6.51e+09  -0.5711  -0.7336  -0.02342  0.006166  -0.04738  -0.02324  -0.6382  -0.3704
6.511e+09  -0.8392  -0.4632  -0.006475  0.0232  0.005486  0.02019  -0.79  -0.1368
6.512e+09  -0.9653  -0.1106  -0.01271  0.001779  0.0176  0.01645  -0.6968  0.149
6.514e+09  -0.9081  0.2221  -0.008401  0.005669  0.018  -0.004949  -0.6374  0.3963
6.515e+09  -0.8085  0.4942  0.01093  -0.01835  -0.0003176  0.04882  -0.4746  0.5995
6.516e+09  -0.5545  0.7468  -0.02819  0.01611  -0.003219  -0.02067  -0.268  0.6913
6.518e+09  -0.2713  0.8683  0.01744  0.007328  -0.02691  0.0005243  0.0247  0.7898
6.519e+09  0.07374  0.9421  0.01389  0.03805  0.02808  -0.03823  0.276  0.6813
6.52e+09  0.3124  0.9374  0.002095  0.04391  0.009974  0.009552  0.5127  0.5198
6.521e+09  0.6345  0.7296  -0.009884  0.0204  -0.01895  -0.03171  0.6693  0.3573
6.522e+09  0.8723  0.4514  0.008937  -0.01238  -0.01693  -0.01392  0.7381  0.1162
6.524e+09  1.003  0.1166  -0.01119  -0.01266  0.02042  -0.01453  0.705  -0.1524
6.525e+09  0.9387  -0.2533  0.03583  -0.005505  -0.03975  0.02068  0.6091  -0.3986
6.526e+09  0.8229  -0.5869  0.0402  -0.003703  -0.04096  0.02687  0.4232  -0.5685
6.528e+09  0.4672  -0.8255  0.001944  0.02031  0.02111  0.003575  0.2328  -0.6971
6.529e+09  0.2295  -0.8804  -0.01044  -0.01904  -0.02789  -0.01137  -0.07306  -0.6638
6.53e+09  -0.1321  -1.002  -0.0135  0.006012  -0.004319  -0.02003  -0.2996  -0.6038
6.531e+09  -0.4594  -0.8483  -0.01172  -0.03013  0.01472  0.007481  -0.4577  -0.5139
6.532e+09  -0.708  -0.6904  -0.0321  0.01423  0.06431  -0.02272  -0.6024  -0.2868
6.534e+09  -0.92  -0.4259  -0.01317  -0.0383  -0.02355  0.01749  -0.6245  -0.05717
6.535e+09  -1.015  -0.08607  -2.156e-05  0.02771  0.05108  0.002778  -0.651  0.1263
6.536e+09  -0.9656  0.3495  0.04003  -0.02065  0.005889  -0.04856  -0.565  0.3272
6.538e+09  -0.7587  0.617  0.006648  0.04241  0.01475  -0.007643  -0.417  0.4858
6.539e+09  -0.5081  0.8764  -7.115e-05  0.02957  -0.02056  -0.03318  -0.2696  0.6006
6.54e+09  -0.1433  0.9516  0.01558  0.02219  0.01629  -0.04768  -0.07508  0.677
6.541e+09  0.1976  1.028  0.01525  0.005838  -0.002623  0.02129  0.1851  0.6508
6.542e+09  0.5018  0.8433  0.01354  0.01672  0.02194  0.0495  0.4113  0.5398
6.544e+09  0.7859  0.6292  0.005214  -0.02128  -0.05116  0.03949  0.5792  0.393
6.545e+09  0.9427  0.2861  0.03275  0.02496  -0.007531  -0.03988  0.7118  0.1717
6.546e+09  0.9499  -0.01366  0.02536  -0.01979  0.01147  -0.007006  0.7429  -0.06999
6.548e+09  0.8851  -0.431  0.002875  0.0102  0.02227  0.02854  0.6837  -0.3384
6.549e+09  0.7642  -0.6412  0.00802  -0.007278  0.04712  -0.02801  0.5133  -0.5625
6.55e+09  0.4204  -0.9011  -0.005129  5.669e-05  -0.03686  0.04368  0.2977  -0.7106
