# Hz S RI R 50
6.25e+09  0.8228  -0.04251  -0.005554  -0.01949  -0.04062  0.05579  0.1745  0.4744
6.251e+09  0.7278  -0.3048  0.001012  -0.01277  0.03602  -0.04659  0.3892  0.3761
6.252e+09  0.5428  -0.5682  -0.006408  0.02109  -0.007387  0.09467  0.5288  0.2592
6.254e+09  0.341  -0.7691  -0.02178  -0.0136  0.02298  -0.002001  0.5764  0.01585
6.255e+09  0.0852  -0.8631  -0.002263  0.03833  -0.01013  -0.03309  0.5862  -0.2315
6.256e+09  -0.2546  -0.7813  -0.0141  0.0281  0.01808  -0.008543  0.4782  -0.4252
6.258e+09  -0.4632  -0.6699  -0.02765  -0.00606  -0.01574  0.0002143  0.3063  -0.6245
6.259e+09  -0.6887  -0.4119  -0.004407  0.0132  -0.01214  0.004106  0.03065  -0.6693
6.26e+09  -0.7323  -0.1516  -0.02078  0.01882  -0.04714  0.03959  -0.2254  -0.6376
6.261e+09  -0.7981  0.1652  -0.005488  0.001001  -0.05454  0.05124  -0.4374  -0.548
6.262e+09  -0.6751  0.361  -0.0338  0.006109  0.01664  -0.009289  -0.6144  -0.3456
6.264e+09  -0.499  0.609  -0.02888  0.01349  0.01006  0.02279  -0.7077  -0.07589
6.265e+09  -0.2894  0.824  -0.03905  -0.0003972  -0.01162  -0.05951  -0.6912  0.1351
6.266e+09  -0.01948  0.7831  -0.005141  -0.004792  0.02504  -0.04652  -0.6331  0.3795
6.268e+09  0.3776  0.7206  -0.0006392  -0.004611  -0.01381  -0.02807  -0.4296  0.5937
6.269e+09  0.5992  0.5677  0.03419  0.007865  -0.001876  0.009243  -0.1865  0.6927
6.27e+09  0.7462  0.3412  -0.009081  -0.01406  -0.06894  0.02707  0.04522  0.7428
6.271e+09  0.7975  0.04423  -0.007654  0.0015  0.000818  -0.01017  0.3107  0.6657
6.272e+09  0.8021  -0.2719  -0.01462  -0.02953  -0.01864  -0.008232  0.5356  0.5281
6.274e+09  0.6679  -0.5087  0.01148  -0.003514  -0.01132  -0.002733  0.7063  0.3039
6.275e+09  0.4398  -0.7148  0.008906  -0.03874  -0.01226  0.00418  0.7265  0.05913
6.276e+09  0.2021  -0.7704  0.02386  -0.008702  -0.004671  0.07216  0.7285  -0.2419
6.278e+09  -0.1674  -0.78  0.02164  0.03773  0.03215  -0.04169  0.6274  -0.4471
6.279e+09  -0.432  -0.6717  0.02452  -0.007951  -0.04082  -0.05599  0.4251  -0.6461
6.28e+09  -0.6593  -0.5087  -0.0338  0.0008732  0.01855  -0.01905  0.1486  -0.7559
6.281e+09  -0.7655  -0.2324  0.006345  -0.002655  -0.01328  -0.006114  -0.1489  -0.7469
6.282e+09  -0.8189  0.072  0.005618  0.01644  0.01612  -0.07743  -0.3603  -0.7
6.284e+09  -0.7524  0.3237  -0.0287  -0.0001293  0.007804  -0.02537  -0.5744  -0.5311
6.285e+09  -0.5598  0.5946  -0.005432  -0.05257  0.03275  -0.02757  -0.749  -0.3025
6.286e+09  -0.2903  0.7537  0.007035  -0.01525  0.03094  -0.002624  -0.7765  -0.02131
6.288e+09  0.009702  0.8268  -0.02644  -0.0009281  0.02457  0.01593  -0.7411  0.271
6.289e+09  0.2544  0.8022  0.02276  -0.005263  -0.04107  0.009581  -0.5878  0.4786
6.29e+09  0.5037  0.6636  -0.001854  -0.02112  0.01507  -0.02729  -0.4255  0.6684
6.291e+09  0.6844  0.4171  -0.00551  -0.02379  0.06239  -0.03945  -0.1631  0.7719
6.292e+09  0.7777  0.1441  0.009478  -0.00609  -0.007639  -0.01419  0.1619  0.816
6.294e+09  0.748  -0.1456  -0.00412  -0.01032  0.08292  0.02166  0.4169  0.7191
6.295e+09  0.729  -0.4088  -0.0149  0.002292  -0.04392  -0.003824  0.6332  0.5747
6.296e+09  0.4988  -0.6505  0.02174  -0.002525  -0.02635  0.02914  0.7907  0.2894
6.298e+09  0.2408  -0.7527  -0.008662  -0.01958  0.04063  0.01525  0.8427  0.02009
6.299e+09  -0.05423  -0.8194  0.006794  0.02138  -0.02438  -0.01385  0.7558  -0.2635
6.3e+09  -0.3465  -0.7834  -0.02184  -0.0006785  -0.02223  0.0196  0.6435  -0.5316
6.301e+09  -0.6103  -0.608  -0.01069  -0.01814  -0.01809  -0.02647  0.3922  -0.7169
6.302e+09  -0.7146  -0.3001  -0.04017  0.01956  -0.03227  -0.01696  0.1837  -0.8698
6.304e+09  -0.804  -0.01236  -0.007697  0.01149  0.01365  -0.0179  -0.1275  -0.8202
6.305e+09  -0.775  0.2272  0.006355  -0.02473  0.06616  -0.002189  -0.4424  -0.7195
6.306e+09  -0.6158  0.536  0.001674  0.01263  0.01669  0.02356  -0.6621  -0.5491
6.308e+09  -0.4328  0.7037  0.0164  -0.01706  -0.02778  -0.008713  -0.7963  -0.2838
6.309e+09  -0.1218  0.86  0.0001115  0.02516  -0.01112  0.08507  -0.8504  0.003665
6.31e+09  0.1905  0.8268  0.001523  0.02968  0.01227  0.0238  -0.8093  0.264
6.311e+09  0.4771  0.7151  0.04712  0.004588  0.02454  -0.03203  -0.7034  0.532
6.312e+09  0.7172  0.4082  0.02368  -0.004273  -0.02135  -0.003018  -0.459  0.736
6.314e+09  0.7536  0.1748  -0.02127  -0.01206  -0.001284  0.02088  -0.1841  0.8666
6.315e+09  0.8448  -0.08774  -0.005813  0.007214  0.006214  -0.01342  0.1556  0.8875
6.316e+09  0.6855  -0.3258  0.02732  -0.03751  0.02119  -0.05972  0.4271  0.7652
6.318e+09  0.5828  -0.5895  0.0367  0.01077  0.02116  -0.005104  0.6754  0.5824
6.319e+09  0.3373  -0.7575  0.03353  0.01241  0.02375  -0.0237  0.7959  0.3439
6.32e+09  0.007965  -0.897  0.011  -0.009751  -0.01436  0.02556  0.9126  -0.01455
6.321e+09  -0.2289  -0.8025  -0.02779  0.008069  -0.03556  0.007228  0.8522  -0.3193
6.322e+09  -0.5704  -0.6004  0.02702  -0.0204  0.003454  0.006151  0.6519  -0.5947
6.324e+09  -0.754  -0.3764  0.0112  -0.00281  0.01646  0.002094  0.4843  -0.7454
6.325e+09  -0.7961  -0.1229  0.03805  -0.033  0.0007239  -0.01009  0.1894  -0.8741
6.326e+09  -0.8783  0.1453  -0.01114  -0.05227  0.05181  0.02297  -0.1306  -0.9263
6.328e+09  -0.6999  0.4831  0.02004  0.02658  -0.01054  -0.06019  -0.4441  -0.7678
6.329e+09  -0.4557  0.7263  0.01225  0.03347  -0.02302  0.01814  -0.6863  -0.6081
6.33e+09  -0.1537  0.8153  -0.001626  0.008278  -0.009871  -0.001123  -0.8367  -0.3575
6.331e+09  0.1184  0.8485  -0.03933  -0.02312  0.04644  0.03941  -0.905  -0.02178
6.332e+09  0.3787  0.7323  0.01996  0.00438  -0.01134  0.02989  -0.8795  0.271
6.334e+09  0.6143  0.5732  -0.0353  0.02165  -0.03787  0.005042  -0.7027  0.569
6.335e+09  0.7519  0.328  0.01532  -0.0004764  0.02321  0.002187  -0.4955  0.7882
6.336e+09  0.778  0.02385  -0.01274  -0.007851  0.002276  0.01573  -0.2031  0.8632
6.338e+09  0.7387  -0.3428  0.01356  -0.006132  0.003306  -0.051  0.0735  0.9324
6.339e+09  0.6593  -0.5574  -0.01639  0.001439  -0.01544  0.05123  0.4038  0.7967
6.34e+09  0.3961  -0.7328  0.01223  -0.008357  0.02527  0.02014  0.6643  0.6358
6.341e+09  0.08805  -0.8546  0.00363  -0.01012  0.02297  0.05435  0.8674  0.3466
6.342e+09  -0.2021  -0.8353  -0.018  0.001962  -0.02895  0.02128  0.9466  0.018
6.344e+09  -0.498  -0.6687  -0.01396  -0.021  -0.004783  -0.05015  0.8999  -0.284
6.345e+09  -0.7055  -0.4065  0.01055  0.00336  0.009582  0.04278  0.7446  -0.585
6.346e+09  -0.8227  -0.1595  0.01893  -0.004  -0.01076  0.003676  0.5234  -0.7642
6.348e+09  -0.8136  0.05495  0.01248  -0.0009007  0.06208  0.01943  0.2152  -0.8721
6.349e+09  -0.7159  0.4121  -0.002483  -0.007138  0.003854  -0.04841  -0.1155  -0.9166
6.35e+09  -0.5605  0.5999  0.03363  -0.005667  -0.009625  -0.01672  -0.4334  -0.8294
6.351e+09  -0.2562  0.7717  -0.01247  -0.01104  0.04632  -0.01291  -0.6583  -0.6798
6.352e+09  0.05022  0.8211  -0.05139  0.007462  -0.006508  0.01778  -0.8857  -0.3744
6.354e+09  0.3044  0.7757  0.002404  0.002738  0.007759  -0.04503  -0.9356  -0.05607
6.355e+09  0.5954  0.636  0.04301  0.01743  0.005039  0.009601  -0.9163  0.2543
6.356e+09  0.7163  0.3846  -0.00564  -0.01851  -0.02871  -0.0008632  -0.7791  0.5248
6.358e+09  0.8506  0.138  0.004393  -0.01652  -0.02325  -0.01177  -0.4869  0.7746
6.359e+09  0.7995  -0.2373  0.00449  0.01436  -0.004758  0.003514  -0.2157  0.9088
6.36e+09  0.6757  -0.4555  0.009988  0.01694  0.0426  0.02209  0.1035  0.9385
6.361e+09  0.4584  -0.6976  -0.01139  0.002661  0.01542  -0.0006186  0.3866  0.8443
6.362e+09  0.2335  -0.7863  -0.008299  -0.002318  -0.002212  -0.03471  0.6675  0.6796
6.364e+09  -0.1256  -0.8421  -0.01795  -0.02852  -0.02008  0.02241  0.838  0.4177
6.365e+09  -0.4423  -0.7623  0.001763  0.004464  -0.009698  0.02169  0.9827  0.06276
6.366e+09  -0.6657  -0.5418  -0.005402  0.001262  0.02026  -0.005085  0.9194  -0.2419
6.368e+09  -0.8143  -0.3071  0.06034  -0.02115  0.01803  0.02716  0.7744  -0.5481
6.369e+09  -0.8178  0.06054  0.02167  -0.02142  -0.01804  0.0212  0.5435  -0.7868
6.37e+09  -0.7727  0.3591  -0.02339  -0.013  -0.003658  0.03928  0.2765  -0.9514
6.371e+09  -0.5581  0.5468  -0.007886  -0.05286  -0.03202  -0.01011  -0.05515  -0.9373
6.372e+09  -0.3868  0.7818  -0.0396  0.008775  0.024  -0.02746  -0.4268  -0.8643
6.374e+09  -0.05863  0.8351  0.007409  -0.01871  -0.05303  -0.06058  -0.6608  -0.6839
6.375e+09  0.2434  0.8415  -0.01265  0.02077  0.02655  -0.005068  -0.8815  -0.3947
6.376e+09  0.5195  0.6566  0.01918  -0.002224  0.004428  0.001897  -0.9618  -0.0998
6.378e+09  0.7387  0.4365  -0.02281  -0.001548  -0.004811  0.0197  -0.9168  0.2686
6.379e+09  0.852  0.1361  -0.01553  -0.01923  0.03209  -0.01133  -0.7745  0.5029
6.38e+09  0.8192  -0.1911  0.008139  0.01176  -0.00991  -0.0606  -0.56  0.7534
6.381e+09  0.6949  -0.431  -0.005174  -0.008112  0.000697  -0.01292  -0.292  0.9217
6.382e+09  0.5068  -0.6892  -0.00628  0.008993  -0.01267  -0.03437  0.08058  0.9365
6.384e+09  0.2171  -0.8155  0.01074  0.03356  -0.01159  -0.03213  0.3604  0.835
6.385e+09  -0.076  -0.855  -0.001856  0.01675  0.02919  -0.0002332  0.628  0.6561
6.386e+09  -0.4299  -0.813  0.01675  0.02141  -0.0481  -0.006603  0.83  0.4225
6.388e+09  -0.6163  -0.6123  -0.02613  0.001416  -0.02307  0.01553  0.8858  0.1121
6.389e+09  -0.797  -0.2931  -0.01278  -0.03153  -0.01853  -0.02373  0.9209  -0.1883
6.39e+09  -0.8303  0.04045  -0.005688  -0.02709  -0.0402  -0.05895  0.7685  -0.5281
6.391e+09  -0.742  0.2579  0.03962  0.009514  -0.03802  -0.02623  0.5592  -0.7284
6.392e+09  -0.5878  0.5735  0.004872  0.01296  -0.01781  0.00583  0.276  -0.89
6.394e+09  -0.3445  0.7639  0.04228  -0.005206  -0.007488  0.02014  -0.03047  -0.9109
6.395e+09  -0.01776  0.8575  -0.01852  0.05687  -0.004728  -0.003554  -0.3784  -0.8921
6.396e+09  0.2872  0.8068  0.03783  0.03597  -0.02927  0.004154  -0.6391  -0.7054
6.398e+09  0.5544  0.6725  0.0431  0.00628  -0.05693  -0.02681  -0.8001  -0.4321
6.399e+09  0.7406  0.4564  0.02036  -0.02283  -0.01392  -0.001347  -0.9494  -0.1602
6.4e+09  0.8676  0.1098  -0.005238  0.05532  -0.02057  0.03387  -0.9122  0.1468
6.401e+09  0.8065  -0.1981  -0.008947  -0.009521  0.01643  0.05223  -0.7895  0.505
6.402e+09  0.7398  -0.4327  -0.02529  0.01985  -0.05875  0.04449  -0.635  0.6787
6.404e+09  0.52  -0.6423  -0.06036  0.04929  -0.0002654  -0.003188  -0.338  0.8933
6.405e+09  0.2508  -0.8555  -0.01195  -0.02246  0.04325  -0.008435  -0.05271  0.8989
6.406e+09  -0.03678  -0.8239  -0.006335  0.02924  -0.04987  -0.03538  0.3621  0.8527
6.408e+09  -0.4216  -0.7056  -0.02678  0.0037  -0.0185  0.003629  0.5783  0.7361
6.409e+09  -0.6272  -0.5591  -0.01359  -0.00369  -0.04059  -0.02451  0.825  0.4617
6.41e+09  -0.8104  -0.3275  0.03985  -0.02637  -0.01129  0.0201  0.9322  0.1717
6.411e+09  -0.8399  -0.0403  -0.002661  0.008195  0.003822  -0.001294  0.8834  -0.1571
6.412e+09  -0.8338  0.2229  -0.002131  0.0001699  0.02315  0.06491  0.8214  -0.4161
6.414e+09  -0.6515  0.6395  -0.008375  -0.0288  0.02961  -0.03997  0.5757  -0.7155
6.415e+09  -0.3774  0.7409  -0.0139  0.02251  -0.02166  -0.02394  0.324  -0.819
6.416e+09  -0.06234  0.8443  -0.0142  0.002396  -0.01442  -0.01487  0.03648  -0.9
6.418e+09  0.2222  0.7435  0.016  -0.01578  -0.002306  -0.02081  -0.2598  -0.8723
6.419e+09  0.5449  0.6652  0.0146  -0.007582  0.0267  -0.001917  -0.5355  -0.7126
6.42e+09  0.7219  0.4074  -0.03331  -0.007727  0.02098  -0.0006152  -0.7507  -0.4998
6.421e+09  0.8342  0.09889  -0.003985  0.0008027  -0.002382  -0.001432  -0.9076  -0.2005
6.422e+09  0.8073  -0.2101  0.0113  -0.01478  -0.01024  -0.003102  -0.9323  0.1428
6.424e+09  0.7266  -0.4625  -0.002971  0.009488  0.002663  0.003753  -0.7949  0.4337
6.425e+09  0.4449  -0.6571  -0.009793  0.005101  -0.01446  -0.04658  -0.587  0.6268
6.426e+09  0.1561  -0.8889  -0.03838  -0.1014  -0.02455  0.01885  -0.3564  0.8199
6.428e+09  -0.08726  -0.8138  -0.008225  -0.01126  0.04716  0.04258  -0.04942  0.8671
6.429e+09  -0.421  -0.725  0.003973  0.007702  -0.0067  -0.0201  0.2804  0.8369
6.43e+09  -0.6086  -0.5047  -0.04391  -0.004086  -0.002773  0.03839  0.5299  0.7625
6.431e+09  -0.8399  -0.2578  -0.02371  0.007487  0.03518  0.045  0.7042  0.5097
6.432e+09  -0.8979  8.273e-05  0.04132  0.02307  -0.03104  0.05382  0.8317  0.1827
6.434e+09  -0.7945  0.3446  -0.01324  0.0284  0.000973  -0.08184  0.8766  -0.1213
6.435e+09  -0.6089  0.6204  0.02251  -0.004848  -0.006945  0.03724  0.7694  -0.3722
6.436e+09  -0.3239  0.7162  -0.018  -0.01461  -0.04606  0.003287  0.5935  -0.5987
6.438e+09  0.001814  0.8552  -0.05303  -0.03724  0.02923  0.04284  0.3231  -0.8056
6.439e+09  0.275  0.7779  -0.005586  -0.009825  -0.02286  -0.04571  0.03219  -0.7812
6.44e+09  0.5784  0.5867  -0.0008012  -0.007278  -0.004752  0.02227  -0.2123  -0.8561
6.441e+09  0.7073  0.3903  -0.008736  0.02445  0.0182  0.05023  -0.5268  -0.7141
6.442e+09  0.8208  0.08808  0.02345  -0.003148  -0.02212  -0.005795  -0.6993  -0.4684
6.444e+09  0.7889  -0.2194  -0.04558  0.003811  0.006295  0.02178  -0.8313  -0.1861
6.445e+09  0.6309  -0.5328  -0.03217  0.009063  0.001589  0.0239  -0.8663  0.0619
6.446e+09  0.407  -0.6743  0.004993  0.03437  0.06043  0.005592  -0.7735  0.3736
6.448e+09  0.1969  -0.7801  0.006859  0.003651  -0.009766  0.05313  -0.5745  0.5946
6.449e+09  -0.1596  -0.8808  -0.02168  -0.007149  -0.01583  -0.006503  -0.3777  0.7285
6.45e+09  -0.4269  -0.7248  0.02567  -0.006291  -0.01632  -0.04953  -0.0703  0.8849
6.451e+09  -0.6769  -0.5216  -0.01038  0.02309  0.02036  0.02503  0.2511  0.7865
6.452e+09  -0.7728  -0.2221  0.01814  0.006902  -0.003533  -0.03618  0.4604  0.6628
6.454e+09  -0.7822  0.03816  0.01152  0.03961  -0.0125  -0.01819  0.6977  0.4428
6.455e+09  -0.7063  0.3554  0.02557  -0.03826  0.01171  0.04558  0.8054  0.224
6.456e+09  -0.5542  0.6057  0.008673  0.01374  -0.03771  0.0001694  0.805  -0.1111
6.458e+09  -0.3152  0.7476  -0.001781  -0.003363  0.02999  0.008519  0.7687  -0.3367
6.459e+09  0.02464  0.7625  -0.004936  -0.03004  0.02966  0.05035  0.5584  -0.6236
6.46e+09  0.2636  0.7342  -0.04267  0.008808  -0.01597  0.004594  0.3478  -0.7541
6.461e+09  0.4812  0.6264  -0.03483  0.02748  -0.05226  0.009565  0.1153  -0.8091
6.462e+09  0.7446  0.4054  0.00654  -0.004969  -0.008992  0.03648  -0.165  -0.7543
6.464e+09  0.7924  0.1596  0.01754  0.009607  -0.01516  -0.04778  -0.4239  -0.6542
6.465e+09  0.7862  -0.119  -0.02387  -0.004313  0.01453  0.009792  -0.6648  -0.4558
6.466e+09  0.6804  -0.4319  0.0016  0.023  -0.001402  0.03786  -0.8014  -0.1847
6.468e+09  0.4373  -0.675  -0.02689  -0.01599  0.02607  -0.07188  -0.8359  0.07302
6.469e+09  0.2654  -0.7729  -0.02252  -0.01503  0.01909  0.01244  -0.7124  0.3241
6.47e+09  -0.0706  -0.8309  -0.01218  -0.02675  0.05333  -0.004923  -0.5527  0.5525
6.471e+09  -0.3102  -0.7428  -0.004274  -0.007128  -0.006034  -0.02152  -0.3541  0.7047
6.472e+09  -0.579  -0.5729  -0.008426  -0.006457  0.03444  0.009886  -0.07214  0.8168
6.474e+09  -0.7894  -0.2923  -0.009707  -0.005113  -0.02545  0.0001874  0.2101  0.7821
6.475e+09  -0.8007  0.01186  -0.01302  -0.01577  0.0273  0.08531  0.4403  0.5978
6.476e+09  -0.7703  0.2416  0.01149  -0.006085  0.03664  0.06332  0.6352  0.3855
6.478e+09  -0.6094  0.5032  0.03062  0.01335  0.02318  -0.02348  0.7996  0.1464
6.479e+09  -0.4011  0.6747  -0.004842  0.02259  -0.01742  0.06009  0.7793  -0.08301
6.48e+09  -0.05727  0.76  -0.002003  -0.007163  0.03839  0.05544  0.7248  -0.3254
6.481e+09  0.1724  0.7956  0.04921  0.005681  0.01752  0.01262  0.5153  -0.5582
6.482e+09  0.3953  0.6631  -0.001415  -0.005614  0.009603  -0.04767  0.314  -0.7278
6.484e+09  0.6094  0.4245  0.01495  0.01207  -0.01265  -0.01136  0.05401  -0.7839
6.485e+09  0.72  0.2376  0.002237  0.001357  -0.01917  -0.02461  -0.2186  -0.7713
6.486e+09  0.8244  -0.09433  0.01072  -0.002706  -0.03482  -0.02469  -0.4515  -0.6495
6.488e+09  0.7253  -0.3538  -0.02664  0.00706  -0.009351  -0.03789  -0.68  -0.3978
6.489e+09  0.5207  -0.5448  0.01801  -0.03791  -0.03546  -0.01176  -0.7475  -0.1615
6.49e+09  0.3432  -0.713  -0.006087  -0.009635  -0.0146  0.04783  -0.7943  0.08562
6.491e+09  0.04503  -0.7709  -0.02023  0.02446  -0.01242  -0.02366  -0.6587  0.3319
6.492e+09  -0.2697  -0.7296  0.006849  -0.01247  0.04628  -0.0163  -0.5086  0.5756
6.494e+09  -0.4611  -0.6108  0.01779  0.03587  0.02454  -0.05714  -0.3076  0.7205
6.495e+09  -0.7582  -0.4567  -0.004957  0.01015  -0.01613  -0.03076  -0.01564  0.782
6.496e+09  -0.7112  -0.1436  0.0008806  -0.002807  -0.03773  -0.01174  0.2405  0.7536
6.498e+09  -0.8136  0.141  0.03608  -0.04548  -0.03693  -0.04487  0.4265  0.5641
6.499e+09  -0.6542  0.3745  -0.03518  0.002524  0.0568  -0.0247  0.623  0.4408
6.5e+09  -0.525  0.6045  -0.0179  0.02351  0.06538  -0.003  0.7214  0.1327
6.501e+09  -0.2593  0.736  -0.006727  0.04894  -0.02493  0.08847  0.7584  -0.0863
6.502e+09  0.01533  0.799  8.329e-05  -0.002595  0.01774  0.02939  0.6575  -0.367
6.504e+09  0.297  0.7696  -0.007849  -0.006605  0.03669  -0.04143  0.4763  -0.5537
6.505e+09  0.5316  0.5563  0.01012  0.001386  0.05252  -0.03676  0.2891  -0.6912
6.506e+09  0.7476  0.354  -0.001104  0.01868  0.01903  -0.003282  0.01655  -0.777
6.508e+09  0.7835  0.1206  0.01948  0.03276  0.003855  -0.02535  -0.2431  -0.7367
6.509e+09  0.7675  -0.1607  -0.01329  0.01373  0.01318  0.04137  -0.4978  -0.6082
6.51e+09  0.6747  -0.4044  0.007414  -0.002553  -0.001142  -0.00879  -0.6508  -0.3799
6.511e+09  0.4294  -0.6582  -0.0001227  0.02513  0.02726  0.03522  -0.756  -0.1482
6.512e+09  0.2148  -0.7831  0.04572  -0.009685  -0.009905  -0.04286  -0.7751  0.1038
6.514e+09  -0.03585  -0.8273  -0.008156  0.03004  0.01013  -0.02328  -0.7109  0.3714
6.515e+09  -0.3205  -0.7061  0.008037  -0.01137  -0.01046  0.01762  -0.4746  0.5926
6.516e+09  -0.5785  -0.5953  0.02576  0.006724  0.02576  0.02363  -0.241  0.6879
6.518e+09  -0.7704  -0.3075  -0.01692  -0.01743  0.05816  0.02698  0.00612  0.7474
6.519e+09  -0.7922  -0.04321  -0.02588  0.02583  -0.01691  -0.03654  0.2447  0.7113
6.52e+09  -0.8061  0.2317  -0.01232  -0.002535  0.031  0.06173  0.4894  0.5741
6.521e+09  -0.6318  0.4701  -0.04471  0.006091  -0.02669  -0.01616  0.6566  0.3352
6.522e+09  -0.4619  0.7187  -0.0004398  0.04123  0.07476  -0.03719  0.7009  0.1246
6.524e+09  -0.1719  0.8321  -0.001285  0.002311  0.004055  0.03413  0.6869  -0.1802
6.525e+09  0.1641  0.7988  -0.01199  -0.01078  0.0517  0.01616  0.571  -0.3898
6.526e+09  0.3882  0.6654  0.006281  0.01523  -0.03711  -0.003401  0.4399  -0.5837
6.528e+09  0.6614  0.5806  0.002015  -2.268e-05  0.02734  -0.01577  0.1943  -0.6846
6.529e+09  0.7475  0.2909  0.01037  0.01424  0.01731  -0.005121  -0.06789  -0.7027
6.53e+09  0.8431  -0.05302  0.01324  0.02534  0.06009  -0.01694  -0.323  -0.6015
6.531e+09  0.7951  -0.299  -0.0197  0.01401  0.00632  -0.01745  -0.45  -0.4787
6.532e+09  0.5784  -0.5317  -0.01847  -0.03295  -0.01552  -0.04949  -0.5682  -0.3141
6.534e+09  0.4318  -0.7831  0.00458  -0.0151  0.02493  0.01653  -0.6375  -0.1039
6.535e+09  0.153  -0.8475  0.01977  0.009391  0.02386  -0.03028  -0.6748  0.07036
6.536e+09  -0.1723  -0.8296  0.003842  0.04921  0.0003767  -0.06017  -0.5532  0.3116
6.538e+09  -0.4703  -0.7072  -0.02182  -0.01284  -0.05692  0.01488  -0.4941  0.4742
6.539e+09  -0.7428  -0.5238  0.03817  -0.02205  0.02483  0.004117  -0.2882  0.5848
6.54e+09  -0.8606  -0.2656  0.02517  0.03446  0.04205  0.03597  -0.08611  0.6693
6.541e+09  -0.9279  0.07226  8.751e-05  0.02103  -0.03521  -0.04536  0.1858  0.684
6.542e+09  -0.7989  0.3591  0.01708  -0.02548  0.03229  -0.03995  0.4167  0.585
6.544e+09  -0.5816  0.6022  0.02451  0.03945  0.01167  -0.03458  0.5928  0.3762
6.545e+09  -0.327  0.8485  -0.001468  0.05069  -0.03197  -0.0218  0.6975  0.1427
6.546e+09  -0.04327  0.8671  0.01325  0.007143  0.02911  -0.0339  0.7239  -0.05976
6.548e+09  0.2894  0.8383  0.02793  -0.00371  0.02249  0.01539  0.6572  -0.3342
6.549e+09  0.5697  0.6609  0.008013  0.02871  -0.02238  -0.05708  0.4989  -0.5531
6.55e+09  0.8029  0.4313  0.04528  0.002322  -0.01253  0.005858  0.3059  -0.6738
