# Hz S RI R 50
6.25e+09  0.2986  0.8026  -0.05784  -0.01706  0.01882  0.01212  0.1668  0.5113
6.251e+09  0.5701  0.6587  0.007995  0.001676  -0.03049  0.01653  0.3457  0.4276
6.252e+09  0.7742  0.371  0.01872  -0.005497  0.01846  -0.01908  0.5273  0.2255
6.254e+09  0.8641  0.164  -0.001159  0.008692  -0.02406  -0.05317  0.5914  0.03537
6.255e+09  0.8614  -0.1217  -0.01168  -0.03504  0.02486  -0.01519  0.5847  -0.198
6.256e+09  0.7095  -0.4668  -0.001824  0.01753  0.002204  -0.02739  0.476  -0.4498
6.258e+09  0.5013  -0.6866  -0.01617  0.01167  0.05418  0.01223  0.2328  -0.6083
6.259e+09  0.2524  -0.8516  -0.0048  -0.01727  0.01769  -0.03825  0.0352  -0.6594
6.26e+09  -0.07514  -0.8586  0.01856  -0.01321  0.003871  -0.02727  -0.1952  -0.6812
6.261e+09  -0.3253  -0.8024  0.01393  -0.003215  0.002164  -0.006139  -0.4538  -0.5403
6.262e+09  -0.5983  -0.6241  0.0004513  -0.01537  0.02628  0.04916  -0.5987  -0.3599
6.264e+09  -0.8109  -0.3639  -0.001032  -0.02511  -0.04158  -0.01933  -0.7209  -0.0892
6.265e+09  -0.8785  -0.04201  0.01189  -0.03773  -0.02922  0.003914  -0.7362  0.1427
6.266e+09  -0.8522  0.2425  0.02099  -0.01586  0.01325  0.09769  -0.6114  0.3742
6.268e+09  -0.7073  0.4712  0.0008593  -0.001488  -0.01683  0.045  -0.4521  0.6085
6.269e+09  -0.5005  0.7307  -0.01414  -0.005776  0.02016  0.04446  -0.1883  0.7203
6.27e+09  -0.1812  0.8343  -0.03266  0.01542  0.007263  0.06423  0.08712  0.76
6.271e+09  0.1236  0.7986  0.01048  -0.02187  0.008694  -0.06037  0.2999  0.6795
6.272e+09  0.4068  0.6894  0.01683  0.01944  -0.04667  0.03119  0.517  0.5345
6.274e+09  0.6003  0.5631  0.01111  0.009897  -0.006548  0.03022  0.7105  0.2914
6.275e+09  0.7259  0.3446  -0.02656  -0.01377  -0.04843  -0.009922  0.7438  0.05098
6.276e+09  0.8418  0.01816  -0.01716  0.02063  0.02753  0.02431  0.7647  -0.2194
6.278e+09  0.791  -0.2304  -0.02504  0.01853  0.01845  -0.08487  0.6135  -0.482
6.279e+09  0.7009  -0.5785  -0.02101  0.003597  0.03312  -0.04039  0.4326  -0.6562
6.28e+09  0.4433  -0.7112  -0.01688  0.01916  -0.01823  0.0185  0.1726  -0.7586
6.281e+09  0.1279  -0.8169  -0.01798  0.008436  0.01923  0.003417  -0.08342  -0.7623
6.282e+09  -0.1409  -0.8493  -0.02434  -0.02083  -0.0325  -0.02713  -0.3725  -0.7124
6.284e+09  -0.396  -0.6759  0.009377  0.009655  -0.03156  -0.02723  -0.6058  -0.5481
6.285e+09  -0.6219  -0.5431  -0.005039  0.003152  0.03194  0.03219  -0.7535  -0.2729
6.286e+09  -0.7899  -0.2677  0.01591  0.02684  0.05109  0.03579  -0.7953  -0.0001053
6.288e+09  -0.801  0.04263  0.0009259  0.004458  0.02193  -0.01565  -0.7933  0.28
6.289e+09  -0.7894  0.303  -0.01564  -0.02411  -0.009346  0.02971  -0.6144  0.5036
6.29e+09  -0.6035  0.5942  0.003724  -0.006225  -0.003735  -0.02434  -0.3977  0.6931
6.291e+09  -0.3377  0.755  0.01549  -0.01711  -0.01161  -0.03041  -0.1579  0.8241
6.292e+09  -0.09999  0.822  0.02112  0.01586  0.05142  0.03034  0.1201  0.8126
6.294e+09  0.1876  0.8468  0.0007384  0.003775  0.01052  -0.05225  0.3909  0.7178
6.295e+09  0.533  0.6783  0.01336  -0.009671  0.02649  -0.04681  0.6422  0.5071
6.296e+09  0.703  0.4783  -0.007223  0.001131  -0.02208  -0.05396  0.7552  0.2816
6.298e+09  0.8264  0.2083  -0.0196  0.01088  0.02179  0.001556  0.8331  0.0208
6.299e+09  0.8315  -0.08413  0.001538  0.01369  0.00343  0.081  0.7991  -0.2552
6.3e+09  0.7874  -0.3939  0.02602  -0.008598  0.01998  -0.009446  0.6489  -0.5124
6.301e+09  0.5774  -0.6265  0.004146  0.008571  0.004107  -0.03097  0.4614  -0.7311
6.302e+09  0.2904  -0.7797  0.008272  0.03657  0.03429  -0.0176  0.1653  -0.8287
6.304e+09  0.07375  -0.8249  0.007044  -0.003592  0.04886  -0.009682  -0.1386  -0.8605
6.305e+09  -0.2862  -0.7605  0.004912  0.007547  0.02072  0.05228  -0.4061  -0.7195
6.306e+09  -0.5701  -0.6674  0.003289  -0.008763  -0.03235  0.06037  -0.6507  -0.5379
6.308e+09  -0.714  -0.4625  -0.003237  -0.03108  0.01855  -0.01935  -0.84  -0.2943
6.309e+09  -0.8482  -0.1132  -0.007352  -0.01425  -0.02051  0.01498  -0.8573  -0.004613
6.31e+09  -0.8037  0.1416  0.02056  0.02879  0.0002466  -0.01558  -0.8365  0.2799
6.311e+09  -0.7423  0.4131  -0.03152  0.004202  0.02672  -0.008902  -0.6759  0.5371
6.312e+09  -0.4871  0.6465  -0.00972  0.04484  0.001002  -0.02064  -0.4444  0.7493
6.314e+09  -0.2537  0.8175  0.003943  0.00295  0.01608  -0.004663  -0.1367  0.8632
6.315e+09  0.02895  0.8819  0.03223  0.00772  0.006139  0.02582  0.1616  0.8692
6.316e+09  0.3395  0.7895  -0.03767  0.00627  0.03388  -0.03447  0.4292  0.7501
6.318e+09  0.6306  0.5941  -0.02665  -0.002477  0.02714  0.00888  0.6963  0.5837
6.319e+09  0.743  0.3547  0.03246  0.01594  0.04498  0.02728  0.8614  0.2782
6.32e+09  0.8694  0.0672  0.01075  -0.04664  -0.03527  0.0274  0.8876  0.02067
6.321e+09  0.8274  -0.2257  0.01125  -0.01504  -0.01147  -0.03264  0.863  -0.2939
6.322e+09  0.7176  -0.502  -0.008969  0.009445  -0.01388  -0.03117  0.7114  -0.584
6.324e+09  0.4539  -0.7565  0.02316  0.004159  0.004247  0.02765  0.4522  -0.7835
6.325e+09  0.2131  -0.8839  0.005307  -0.01053  0.008122  -0.01396  0.2065  -0.8875
6.326e+09  -0.1545  -0.8445  -0.006192  -0.03115  -0.02676  -0.009604  -0.1327  -0.8645
6.328e+09  -0.4101  -0.762  -0.002695  -0.0259  -0.01321  -0.03098  -0.4037  -0.789
6.329e+09  -0.6654  -0.5508  0.009544  -0.02495  0.01333  0.008134  -0.6515  -0.5876
6.33e+09  -0.7769  -0.3115  0.03687  0.01944  -0.03076  0.01242  -0.815  -0.3244
6.331e+09  -0.9221  -0.01065  -0.01541  0.01616  -0.001213  0.02655  -0.8726  -0.0473
6.332e+09  -0.8356  0.2949  0.004774  0.01561  0.005558  0.02488  -0.8734  0.2814
6.334e+09  -0.6469  0.5949  0.03478  0.0273  0.0611  -0.002849  -0.7125  0.5762
6.335e+09  -0.419  0.7537  0.00716  0.02016  -0.0406  0.05719  -0.5006  0.7629
6.336e+09  -0.1478  0.8321  -0.01353  0.02298  -0.01939  -0.02771  -0.1792  0.8992
6.338e+09  0.1887  0.8348  0.02773  -0.01718  -0.005599  -0.01523  0.1439  0.9325
6.339e+09  0.4881  0.7241  -0.008602  0.02226  -0.002621  -0.02667  0.4626  0.8099
6.34e+09  0.713  0.5176  -0.01351  0.01798  -0.05759  0.01654  0.6691  0.6318
6.341e+09  0.8441  0.2717  0.03514  0.004726  -0.01899  0.003554  0.8466  0.3711
6.342e+09  0.8737  -0.05654  0.01748  0.01188  0.0117  0.005298  0.9012  0.02698
6.344e+09  0.7821  -0.3495  -0.02005  0.001195  -0.003352  -0.02231  0.9298  -0.2506
6.345e+09  0.5869  -0.6264  -0.01456  -0.03585  0.03733  0.008239  0.736  -0.558
6.346e+09  0.3492  -0.7513  0.009457  0.005586  -0.02036  0.01002  0.5153  -0.7403
6.348e+09  0.05638  -0.8847  0.02141  0.002374  0.03753  -0.0139  0.2069  -0.9137
6.349e+09  -0.2718  -0.8394  0.0374  -0.007367  0.01828  0.01297  -0.1132  -0.9159
6.35e+09  -0.5066  -0.7098  -0.009174  -0.006473  -0.02641  -0.006426  -0.4118  -0.8294
6.351e+09  -0.7452  -0.4534  0.01706  -0.05375  0.01414  0.006129  -0.6467  -0.6475
6.352e+09  -0.8782  -0.2072  -0.02361  0.008511  0.01621  -0.02157  -0.8335  -0.3858
6.354e+09  -0.8806  0.1385  -0.008418  -0.01835  0.005353  -0.04306  -0.9371  -0.06287
6.355e+09  -0.7387  0.4304  0.04144  -0.00082  -0.01205  0.03524  -0.8974  0.2743
6.356e+09  -0.6242  0.6921  0.009416  0.02332  0.004355  0.008334  -0.7296  0.5491
6.358e+09  -0.2989  0.8205  0.01565  -0.003735  -0.009296  0.0287  -0.557  0.7763
6.359e+09  0.03139  0.8804  0.0266  0.007937  0.007401  0.01109  -0.2435  0.9383
6.36e+09  0.2689  0.8081  0.02857  0.02535  -0.0345  -0.02102  0.0915  0.9413
6.361e+09  0.6109  0.6379  -0.02027  0.0251  0.03645  -0.003713  0.4171  0.8743
6.362e+09  0.78  0.4368  -0.02611  -0.03155  -0.02044  -0.01906  0.6671  0.6797
6.364e+09  0.8647  0.168  0.001534  0.02207  -0.0193  0.0277  0.876  0.3671
6.365e+09  0.8772  -0.246  -0.0196  -0.00334  0.008008  -0.007202  0.9447  0.06426
6.366e+09  0.7569  -0.4798  -0.01445  0.001706  0.00737  0.0002545  0.9376  -0.2872
6.368e+09  0.4809  -0.6934  -0.00488  -0.01574  -0.02605  -0.01064  0.7809  -0.5387
6.369e+09  0.2243  -0.9095  0.02114  -0.01242  0.0377  0.008152  0.5288  -0.8016
6.37e+09  -0.06186  -0.8673  -0.01467  -0.004253  -0.03764  -0.04741  0.2582  -0.8929
6.371e+09  -0.3967  -0.7612  0.005548  0.01068  0.03042  -0.01846  -0.1088  -0.9419
6.372e+09  -0.6455  -0.6527  0.01931  0.01808  0.02457  0.03442  -0.4056  -0.867
6.374e+09  -0.7731  -0.337  -0.0165  -0.01043  0.01456  0.01098  -0.6487  -0.6529
6.375e+09  -0.8541  -0.05425  0.006596  -0.01515  -0.02759  -0.008451  -0.8315  -0.3954
6.376e+09  -0.8387  0.2741  0.02584  -0.03331  0.0377  -0.01611  -0.9544  -0.104
6.378e+09  -0.7167  0.5144  -0.004296  0.06186  0.01142  0.02149  -0.9267  0.2293
6.379e+09  -0.4784  0.7572  -1.587e-05  -0.01327  0.02466  0.03243  -0.8052  0.5718
6.38e+09  -0.2087  0.8692  -0.009052  0.000269  -0.022  0.0006383  -0.5777  0.7506
6.381e+09  0.1519  0.8516  -0.005985  -0.02151  -0.005013  -0.008107  -0.2808  0.9087
6.382e+09  0.4489  0.802  0.02836  0.03329  0.03908  -0.02552  0.07357  0.9243
6.384e+09  0.68  0.5537  -0.02101  0.003608  0.01836  -0.01984  0.3806  0.863
6.385e+09  0.831  0.2877  0.02115  0.01372  0.002889  0.01455  0.6422  0.7041
6.386e+09  0.9328  -0.02039  -0.006793  0.02391  0.001579  0.002527  0.8433  0.4279
6.388e+09  0.8262  -0.2915  -0.01398  0.01227  0.002542  -0.05499  0.9748  0.1134
6.389e+09  0.6406  -0.5825  0.01804  -0.02238  0.00352  -0.02268  0.8926  -0.208
6.39e+09  0.4285  -0.7677  0.02595  0.02048  0.03805  -0.009267  0.7741  -0.5203
6.391e+09  0.1238  -0.9236  0.008102  -0.007692  -0.05683  0.01654  0.5222  -0.7226
6.392e+09  -0.1896  -0.83  -0.0168  0.01747  -0.03329  0.02743  0.2732  -0.8313
6.394e+09  -0.4812  -0.726  0.002028  -0.0401  0.00583  0.01275  -0.05731  -0.9189
6.395e+09  -0.7207  -0.5321  -0.03299  -0.03099  -0.0058  0.02353  -0.35  -0.8853
6.396e+09  -0.879  -0.2668  0.02381  0.02282  -0.02767  0.03142  -0.6167  -0.7113
6.398e+09  -0.9036  0.0643  0.00581  0.01645  -0.03585  -0.01049  -0.8208  -0.4539
6.399e+09  -0.8163  0.3279  -0.01948  0.01502  -0.01442  0.006307  -0.925  -0.1143
6.4e+09  -0.6651  0.663  -0.05662  -0.001614  -0.01306  0.001809  -0.911  0.1824
6.401e+09  -0.3936  0.7903  0.04112  -0.01303  -0.008222  -0.04607  -0.7921  0.4962
6.402e+09  -0.0659  0.8642  0.03236  -0.01537  0.001881  0.04337  -0.5746  0.7809
6.404e+09  0.2311  0.8756  -0.001544  -0.03803  -0.01525  -0.04357  -0.2824  0.8616
6.405e+09  0.5559  0.6588  0.0009876  0.04338  -0.02872  0.02107  -0.001469  0.9569
6.406e+09  0.75  0.5032  0.01206  -0.03414  0.01191  0.02566  0.3262  0.8322
6.408e+09  0.9  0.2531  -0.007927  0.01281  0.01288  -0.0146  0.6125  0.6713
6.409e+09  0.8498  -0.08663  -0.02694  -0.01016  0.007453  0.00111  0.7669  0.4689
6.41e+09  0.7324  -0.3994  0.01963  0.007211  -0.03385  -0.02118  0.9589  0.1885
6.411e+09  0.6163  -0.6278  0.02148  0.02594  0.009653  0.001008  0.8784  -0.1633
6.412e+09  0.3414  -0.8269  -0.02354  0.0297  -0.009087  0.02085  0.8066  -0.4382
6.414e+09  0.06235  -0.9081  0.007095  -0.03796  0.008143  0.007994  0.6211  -0.6726
6.415e+09  -0.2679  -0.8164  0.03017  -0.01282  -0.006978  -0.006594  0.3585  -0.8512
6.416e+09  -0.5874  -0.7221  0.03403  -0.01022  0.005476  -0.0421  0.01438  -0.8777
6.418e+09  -0.7823  -0.4309  0.01444  -0.03918  -0.01706  0.01139  -0.2925  -0.8887
6.419e+09  -0.8929  -0.09652  0.003034  -0.02331  0.02775  0.002504  -0.5196  -0.6747
6.42e+09  -0.9212  0.1391  -0.02859  -0.03113  0.0645  0.01478  -0.7696  -0.5029
6.421e+09  -0.7683  0.454  0.02609  0.005407  -0.05638  -0.03015  -0.8553  -0.1921
6.422e+09  -0.5324  0.7186  -0.04238  -0.01094  0.01641  -0.01016  -0.8945  0.1261
6.424e+09  -0.3037  0.8753  0.02611  0.01468  -0.01121  -0.01205  -0.7889  0.3654
6.425e+09  0.05236  0.9107  -0.02863  0.01983  0.03305  -0.02996  -0.6066  0.6279
6.426e+09  0.3517  0.8106  0.003996  0.005345  -0.004286  -0.02404  -0.3798  0.7963
6.428e+09  0.7311  0.6339  -0.005974  0.01095  0.04203  -0.01828  0.01275  0.9013
6.429e+09  0.8613  0.3395  0.0225  -0.03504  0.04549  -0.006756  0.2311  0.8515
6.43e+09  0.8675  0.1006  -0.006744  0.01956  0.01914  0.02453  0.4985  0.6741
6.431e+09  0.8636  -0.2849  -0.02591  0.02716  -0.01981  0.006459  0.7319  0.4997
6.432e+09  0.7621  -0.5914  0.0235  0.01569  0.04716  -0.01622  0.8252  0.1646
6.434e+09  0.4601  -0.7981  -0.0249  -0.003674  0.02486  0.01108  0.7741  -0.08557
6.435e+09  0.1178  -0.946  0.04178  -0.009369  -0.003059  -0.03506  0.7905  -0.3938
6.436e+09  -0.113  -0.8976  -0.03282  -0.01397  -0.003092  0.02002  0.5997  -0.5882
6.438e+09  -0.499  -0.7782  -0.003833  -0.0008517  0.0004835  0.002653  0.364  -0.7837
6.439e+09  -0.7208  -0.56  0.03074  -0.0055  0.02115  0.0321  0.08048  -0.8754
6.44e+09  -0.8798  -0.3422  0.006024  -0.004434  -0.03541  -0.04569  -0.231  -0.8416
6.441e+09  -0.9263  0.001676  -0.00478  0.006178  0.01012  0.01914  -0.49  -0.6937
6.442e+09  -0.8602  0.394  0.02196  -0.01495  0.0001263  0.04735  -0.7451  -0.5426
6.444e+09  -0.6906  0.6022  0.0413  -0.02944  0.02221  0.01358  -0.778  -0.2049
6.445e+09  -0.4001  0.7926  -0.05511  -0.02488  0.01129  0.06534  -0.8681  0.1121
6.446e+09  -0.08517  0.8881  0.0003947  -0.01134  -0.01701  0.03433  -0.7928  0.3708
6.448e+09  0.3055  0.9202  -0.0436  0.01827  -0.011  -0.005318  -0.566  0.6169
6.449e+09  0.601  0.7381  -0.026  0.009123  -0.0277  0.03564  -0.3535  0.7742
6.45e+09  0.7581  0.4813  -0.01752  -0.01659  0.03761  -0.03258  -0.04403  0.8034
6.451e+09  0.8679  0.1651  -0.01144  -0.05192  -0.0212  0.02938  0.2365  0.7723
6.452e+09  0.9091  -0.155  -0.0004423  0.000862  0.02839  -0.02856  0.5081  0.6652
6.454e+09  0.8181  -0.4648  0.008569  0.007919  -0.01562  0.004541  0.7281  0.514
6.455e+09  0.5498  -0.7288  0.01692  -0.01446  -0.02202  0.001694  0.8017  0.2351
6.456e+09  0.2743  -0.8731  -0.02611  -0.04417  0.01644  -0.0242  0.812  -0.06291
6.458e+09  -0.0683  -0.9254  0.02021  0.0424  0.02113  0.01928  0.756  -0.37
6.459e+09  -0.4317  -0.8796  -0.02288  -0.003565  0.002624  0.02707  0.5645  -0.5494
6.46e+09  -0.7162  -0.618  -0.009778  -0.009791  0.04204  0.01054  0.4031  -0.7786
6.461e+09  -0.8257  -0.3318  0.01883  0.01995  -0.03512  -0.049  0.09369  -0.8155
6.462e+09  -0.9245  -0.01631  -0.02802  0.01932  0.006062  -0.01172  -0.2048  -0.7737
6.464e+09  -0.8487  0.319  -0.0001044  0.02413  0.02684  0.005951  -0.4648  -0.6759
6.465e+09  -0.6986  0.5931  0.02848  -0.003427  0.02237  0.0113  -0.6559  -0.4335
6.466e+09  -0.4467  0.7799  -0.01407  -0.02035  -0.00882  -0.02268  -0.7779  -0.202
6.468e+09  -0.1853  0.9071  0.01935  0.01003  -0.0007785  -0.03716  -0.7737  0.08476
6.469e+09  0.1751  0.8794  -0.004142  0.04195  -0.0443  0.005132  -0.747  0.3308
6.47e+09  0.5292  0.757  -0.008634  0.03367  -0.004306  0.09906  -0.556  0.5564
6.471e+09  0.7637  0.5317  0.0155  0.00151  -0.01395  0.006595  -0.2869  0.6644
6.472e+09  0.916  0.2122  -0.007955  0.004919  -0.0005054  0.05126  -0.0264  0.7798
6.474e+09  0.8807  -0.1459  0.005999  -0.005066  0.04854  -0.02573  0.2425  0.7684
6.475e+09  0.7868  -0.481  -0.01441  -0.0003251  0.02452  -0.02535  0.4486  0.6277
6.476e+09  0.5805  -0.7338  -0.04155  0.005582  -0.01021  0.01866  0.6489  0.4423
6.478e+09  0.2704  -0.8786  -0.006153  -0.06243  -0.02252  0.02884  0.7768  0.1825
6.479e+09  -0.05814  -0.9088  -0.01629  0.03349  0.02165  -0.02952  0.7267  -0.111
6.48e+09  -0.3604  -0.8544  -0.05678  0.009129  -0.03668  0.008727  0.6454  -0.3312
6.481e+09  -0.6462  -0.6181  -0.04072  0.01844  0.0004227  -0.02216  0.5193  -0.5525
6.482e+09  -0.8518  -0.3498  -0.02567  -0.03494  -0.009352  -0.01777  0.2915  -0.7231
6.484e+09  -0.8752  -0.04121  -0.02898  0.02476  -0.01151  0.007311  0.0473  -0.7899
6.485e+09  -0.8332  0.3063  -0.01192  0.008792  0.03453  -0.03342  -0.1807  -0.7547
6.486e+09  -0.6907  0.6237  -0.01721  -0.008609  -0.002461  0.01383  -0.4633  -0.6289
6.488e+09  -0.4161  0.7858  -0.01065  -0.002949  0.04749  0.01051  -0.6243  -0.4701
6.489e+09  -0.1115  0.8875  -0.003093  -0.001573  -0.01786  0.01974  -0.7623  -0.1916
6.49e+09  0.2276  0.8267  0.02171  -0.03047  0.01546  0.03563  -0.7246  0.0936
6.491e+09  0.5103  0.6596  0.001389  0.00374  -0.01788  0.01836  -0.6954  0.345
6.492e+09  0.7426  0.4467  0.0213  -0.03938  0.003525  0.03696  -0.5657  0.5336
6.494e+09  0.8138  0.1759  -0.04606  -0.02896  -0.0523  -0.001448  -0.3185  0.6785
6.495e+09  0.8466  -0.1812  -0.01961  0.008856  -0.05101  -0.01857  -0.0453  0.7633
6.496e+09  0.736  -0.4649  0.02031  -0.02312  -0.009252  0.03138  0.2141  0.7455
6.498e+09  0.5165  -0.7107  0.01889  0.008734  -0.03277  -0.01591  0.4722  0.629
6.499e+09  0.1693  -0.8175  -0.0006264  -0.009103  0.0005528  -0.0001955  0.6216  0.4752
6.5e+09  -0.07567  -0.8179  0.0001857  0.008904  0.01435  -0.03531  0.7528  0.1347
6.501e+09  -0.4017  -0.7863  0.02852  -0.02467  0.01478  -0.01996  0.7531  -0.109
6.502e+09  -0.5742  -0.565  0.01311  0.02327  -0.02134  0.01387  0.6728  -0.3448
6.504e+09  -0.7762  -0.2016  -0.01208  -0.006643  -0.01613  -0.00126  0.4838  -0.5577
6.505e+09  -0.822  0.01174  -0.0214  -0.02384  0.0193  0.05217  0.2781  -0.7267
6.506e+09  -0.7865  0.2433  0.006651  0.02831  0.001303  0.04843  -0.003417  -0.7599
6.508e+09  -0.6622  0.5857  -0.02201  0.01902  0.047  0.01823  -0.2501  -0.7261
6.509e+09  -0.3294  0.7119  -0.004541  -0.01198  0.0192  0.02556  -0.4841  -0.6007
6.51e+09  -0.05864  0.8212  0.005912  -0.003589  -0.03025  0.04851  -0.624  -0.4059
6.511e+09  0.172  0.7811  -0.006062  0.03535  0.03742  0.001031  -0.7534  -0.1815
6.512e+09  0.488  0.6162  0.04183  -0.003388  0.02336  0.009076  -0.7404  0.1172
6.514e+09  0.6854  0.4518  -0.03057  0.005056  -0.002858  -0.05639  -0.6515  0.3911
6.515e+09  0.7898  0.1674  -0.04627  -0.02452  -0.0257  -0.0131  -0.4701  0.6031
6.516e+09  0.8342  -0.09527  -0.0008024  -0.003258  0.03448  0.02473  -0.256  0.7028
6.518e+09  0.6473  -0.4633  -0.0204  0.01201  0.03342  -0.0001169  -0.0272  0.7638
6.519e+09  0.477  -0.6284  -0.02033  -0.004742  0.0348  -0.01562  0.2943  0.7166
6.52e+09  0.205  -0.7043  0.02583  -0.02936  0.0192  0.02057  0.5361  0.5644
6.521e+09  -0.08323  -0.7778  -0.005641  0.01004  0.02221  0.009954  0.646  0.3542
6.522e+09  -0.3002  -0.6435  -0.04091  0.0002754  0.02047  -0.02151  0.7359  0.0929
6.524e+09  -0.5621  -0.5195  -0.009853  0.007776  0.02699  0.02081  0.6849  -0.1575
6.525e+09  -0.6634  -0.2457  0.003524  -0.03645  -0.006784  -0.01178  0.6111  -0.3819
6.526e+09  -0.765  0.01386  0.003126  0.02508  -0.01543  0.007711  0.4336  -0.5741
6.528e+09  -0.681  0.3175  -0.005115  4.419e-05  -0.004259  0.02685  0.2049  -0.6984
6.529e+09  -0.5915  0.5027  -0.001815  0.04444  0.01543  -0.02794  -0.06746  -0.6858
6.53e+09  -0.3451  0.6857  -0.002065  0.04112  0.02808  -0.02181  -0.2926  -0.6417
6.531e+09  -0.07946  0.7007  0.03088  0.02343  -0.005571  -0.01917  -0.4741  -0.507
6.532e+09  0.2375  0.7329  0.01184  -0.002966  -0.006376  -0.001046  -0.5831  -0.2797
6.534e+09  0.4423  0.6409  -0.0008186  -0.01754  0.02445  -0.03295  -0.6468  -0.09298
6.535e+09  0.6842  0.3796  -0.00404  0.01664  -0.01579  -0.00613  -0.5896  0.09583
6.536e+09  0.7171  0.1416  -0.01193  0.007049  -0.004127  0.003224  -0.6064  0.3111
6.538e+09  0.7671  -0.1321  0.00728  -0.03662  -0.008981  0.04985  -0.4584  0.4994
6.539e+09  0.6033  -0.4162  -0.01137  0.007538  -0.02871  0.0539  -0.2524  0.6326
6.54e+09  0.474  -0.5824  -0.02717  -0.01976  0.01351  -0.007892  -0.09085  0.6591
6.541e+09  0.2145  -0.7608  -0.004892  -0.01007  0.009809  0.02004  0.1738  0.674
6.542e+09  -0.05763  -0.7192  -0.01712  -0.01226  -0.02629  -0.01327  0.4417  0.5687
6.544e+09  -0.3255  -0.6264  0.008614  -0.0111  0.04013  -0.014  0.5861  0.3992
6.545e+09  -0.5219  -0.5055  -0.01581  -0.004707  0.01141  0.0004186  0.7064  0.1795
6.546e+09  -0.6744  -0.3047  0.02378  0.01229  -0.007165  0.04719  0.7506  -0.03718
6.548e+09  -0.7186  0.02698  -0.005321  -0.001621  -0.03977  -0.04079  0.6555  -0.3102
6.549e+09  -0.6861  0.2615  0.01008  0.004108  -0.02288  0.0003703  0.5116  -0.5294
6.55e+09  -0.5557  0.4576  -0.01166  -0.00315  0.02898  0.0001495  0.2733  -0.7176
