# Hz S RI R 50
6.25e+09  -0.06957  -0.7822  -0.009995  0.02294  -0.01824  -0.03116  0.1698  0.4493
6.251e+09  -0.2613  -0.7348  0.03609  0.01394  -0.02598  0.01446  0.3968  0.4399
6.252e+09  -0.5825  -0.5327  -0.004017  -0.02094  -0.0005776  0.03449  0.502  0.2399
6.254e+09  -0.7427  -0.2905  0.007012  0.007993  0.07224  -0.02267  0.6217  -0.004315
6.255e+09  -0.7789  -0.1004  0.008072  -0.01749  -0.03114  -0.0185  0.5739  -0.2105
6.256e+09  -0.731  0.2152  0.01303  0.01415  0.002252  -0.02374  0.4491  -0.4382
6.258e+09  -0.5728  0.475  -0.0005314  0.005069  -0.01357  0.05011  0.2562  -0.6149
6.259e+09  -0.4501  0.6977  -0.008377  -0.01195  0.00941  0.04828  0.06926  -0.6772
6.26e+09  -0.1697  0.7939  0.008956  -0.002372  -0.01346  -0.05137  -0.1769  -0.661
6.261e+09  0.1126  0.7722  -0.01253  0.004542  0.02865  0.002889  -0.4696  -0.5414
6.262e+09  0.4146  0.663  0.01457  -0.02811  -0.04804  -0.06713  -0.6183  -0.3327
6.264e+09  0.6131  0.4798  -0.00325  0.01912  0.0008328  0.01416  -0.7038  -0.06095
6.265e+09  0.7429  0.2527  -0.006053  0.01496  0.01416  0.03514  -0.6981  0.1466
6.266e+09  0.7979  -0.003051  -0.001154  -0.02397  -0.007143  0.03097  -0.6118  0.4314
6.268e+09  0.6589  -0.2984  0.03373  0.03058  0.03039  -0.03041  -0.4237  0.6022
6.269e+09  0.5782  -0.5254  0.006188  -0.0176  0.02713  0.03012  -0.1927  0.7062
6.27e+09  0.2757  -0.6989  -0.009409  -0.02884  -0.03912  0.05849  0.05912  0.7119
6.271e+09  0.06018  -0.779  -0.007097  -0.01385  0.03471  0.01801  0.3034  0.6461
6.272e+09  -0.1858  -0.6875  0.02138  0.0145  -0.03419  0.02679  0.5384  0.5258
6.274e+09  -0.4598  -0.6001  -0.0008578  0.009377  0.01403  0.005118  0.6865  0.3017
6.275e+09  -0.7315  -0.4554  0.02803  -0.01439  0.01561  0.04935  0.7593  0.03889
6.276e+09  -0.7671  -0.1747  0.007624  0.008543  -0.01147  0.02707  0.7234  -0.2154
6.278e+09  -0.7721  0.1189  0.008084  0.02809  -0.01209  -0.02271  0.5936  -0.45
6.279e+09  -0.699  0.3475  -0.01052  0.007345  0.00395  -0.006921  0.4056  -0.6615
6.28e+09  -0.5285  0.5828  0.0119  0.005665  -0.04307  0.03815  0.1647  -0.7068
6.281e+09  -0.283  0.7576  -8.211e-05  0.005505  0.009052  0.007566  -0.1127  -0.7479
6.282e+09  0.04503  0.8386  -0.002151  -0.008826  -0.0255  -0.03963  -0.3715  -0.6819
6.284e+09  0.3307  0.7127  -0.01621  -0.01123  -0.002839  0.04614  -0.5804  -0.5283
6.285e+09  0.5645  0.5542  0.02241  -0.01032  0.04655  0.006808  -0.7347  -0.3018
6.286e+09  0.692  0.3764  0.008022  -0.008269  0.01409  0.03168  -0.8193  -0.009153
6.288e+09  0.803  0.07545  -0.01252  -0.002496  -0.02847  -0.004289  -0.7733  0.2773
6.289e+09  0.7741  -0.191  -0.02207  -0.01147  0.009524  0.005663  -0.625  0.4817
6.29e+09  0.6711  -0.4326  0.007741  0.02709  -0.00705  -0.01834  -0.4202  0.6806
6.291e+09  0.5151  -0.7056  0.0389  0.02736  -0.01883  0.06468  -0.1668  0.7996
6.292e+09  0.2035  -0.784  -0.02689  0.002357  0.0354  0.001972  0.125  0.8078
6.294e+09  -0.03975  -0.7853  -0.003434  -0.01715  0.04584  0.0161  0.4268  0.6979
6.295e+09  -0.3214  -0.715  0.01396  0.006714  0.01856  -0.009667  0.6192  0.5251
6.296e+09  -0.5736  -0.5166  -0.01275  0.01892  0.004178  -0.005963  0.8102  0.3064
6.298e+09  -0.798  -0.2752  0.04191  0.00332  0.0002687  0.008234  0.8407  0.009738
6.299e+09  -0.7806  -0.04044  0.0001646  -0.01876  -0.0617  -0.06059  0.7739  -0.2828
6.3e+09  -0.7617  0.2227  0.02583  0.0008158  0.02971  0.02674  0.6324  -0.4934
6.301e+09  -0.6809  0.5493  -0.005506  -0.03583  0.04993  0.03093  0.4598  -0.7343
6.302e+09  -0.3777  0.7115  -0.01944  -0.009879  -0.02376  -0.01096  0.171  -0.824
6.304e+09  -0.1627  0.7566  -0.002976  0.001328  0.02062  0.01429  -0.1264  -0.819
6.305e+09  0.1756  0.7923  -0.007675  0.01433  -0.01247  -0.008696  -0.4195  -0.7401
6.306e+09  0.3791  0.6914  0.01117  -0.001667  0.02046  0.0521  -0.644  -0.519
6.308e+09  0.6602  0.4713  0.01167  -0.008892  0.04732  -0.02216  -0.7975  -0.2918
6.309e+09  0.8  0.2087  0.01035  -0.01315  -0.04239  0.0525  -0.8799  -0.03158
6.31e+09  0.8282  -0.04021  0.0006104  0.003059  -0.01247  -0.00441  -0.7926  0.3055
6.311e+09  0.7452  -0.4026  0.0009043  -0.00626  -0.02794  0.005303  -0.6517  0.5581
6.312e+09  0.5499  -0.543  0.0002884  -0.003062  -0.01932  0.007948  -0.4552  0.7375
6.314e+09  0.3637  -0.7186  -0.01579  0.01268  -0.002943  0.004271  -0.1595  0.8566
6.315e+09  0.05335  -0.8269  -0.03969  -0.0003951  -0.009785  -0.04042  0.1554  0.8604
6.316e+09  -0.2556  -0.774  -0.01645  0.01458  0.01192  -0.002825  0.4878  0.7743
6.318e+09  -0.5192  -0.666  -0.008978  0.0003006  0.01857  -0.03462  0.6811  0.5942
6.319e+09  -0.688  -0.3934  0.04472  0.04044  -0.000774  0.00739  0.8365  0.3229
6.32e+09  -0.836  -0.2039  0.0293  0.04051  0.01359  -0.03505  0.8823  0.008919
6.321e+09  -0.7888  0.1324  -0.006466  -0.008164  0.06766  0.01379  0.8215  -0.282
6.322e+09  -0.7132  0.3673  -0.02233  -0.02952  -0.02929  0.00116  0.7061  -0.5381
6.324e+09  -0.5156  0.6161  -0.001158  -0.0003522  -0.02604  0.0202  0.461  -0.7652
6.325e+09  -0.2826  0.7758  -0.002457  0.03066  0.017  0.007876  0.1807  -0.9218
6.326e+09  0.00889  0.8257  -0.006474  0.05089  0.01272  -0.03265  -0.1538  -0.8707
6.328e+09  0.2744  0.718  -0.0107  0.009164  0.04689  -0.06279  -0.3978  -0.7835
6.329e+09  0.5716  0.5984  -0.02248  0.002503  -0.04854  0.007671  -0.6905  -0.5485
6.33e+09  0.7726  0.3589  -0.006702  -0.01205  -0.0004552  -0.01623  -0.8815  -0.3424
6.331e+09  0.7814  0.08746  -0.02581  -0.001883  0.02151  -0.003796  -0.935  0.01649
6.332e+09  0.8035  -0.1892  -0.006474  0.04052  -0.01464  0.07522  -0.8492  0.2814
6.334e+09  0.646  -0.4675  0.009778  -0.02035  0.02933  0.02011  -0.702  0.5657
6.335e+09  0.4525  -0.6655  0.01815  0.01302  -2.636e-05  0.01299  -0.508  0.7615
6.336e+09  0.2254  -0.7921  0.007074  0.03077  -0.04837  -0.03646  -0.2082  0.8499
6.338e+09  -0.09934  -0.8189  0.03139  0.0007596  -0.0227  -0.04577  0.1579  0.908
6.339e+09  -0.3939  -0.7331  -0.007033  -0.0003288  -0.003372  0.0332  0.4178  0.7754
6.34e+09  -0.6341  -0.5335  -0.0006998  0.01976  -0.04637  -0.02158  0.6817  0.6508
6.341e+09  -0.8436  -0.2818  0.01635  -0.02757  0.01644  -0.01631  0.873  0.3418
6.342e+09  -0.8239  0.0282  0.01876  0.007622  -0.004579  0.02004  0.9181  0.009918
6.344e+09  -0.7856  0.3469  -0.01419  -0.01531  -0.008416  -0.03326  0.9102  -0.2502
6.345e+09  -0.6613  0.5397  -0.026  0.02695  0.02807  0.004339  0.7364  -0.5526
6.346e+09  -0.3668  0.7662  0.02173  -0.02651  0.03736  -0.02002  0.4959  -0.7797
6.348e+09  -0.09614  0.808  0.004768  -0.003929  -0.01471  0.01264  0.239  -0.9234
6.349e+09  0.1884  0.782  0.01719  0.02023  0.0308  -0.02091  -0.1167  -0.9641
6.35e+09  0.5557  0.687  -0.002746  -0.01853  -0.03408  0.0008241  -0.3962  -0.8538
6.351e+09  0.6685  0.4524  -0.0443  0.02462  -0.01963  0.0006103  -0.6852  -0.6519
6.352e+09  0.7894  0.1383  0.01987  0.004622  -0.0379  0.0242  -0.8821  -0.3661
6.354e+09  0.8337  -0.144  -0.01632  -0.02081  -0.01314  0.01879  -0.9888  -0.05852
6.355e+09  0.7413  -0.4155  -0.02775  0.004413  -0.00946  0.04466  -0.9253  0.2798
6.356e+09  0.5311  -0.6944  0.006404  -0.002399  -0.004974  -0.03891  -0.7504  0.5547
6.358e+09  0.2903  -0.7995  0.02086  -4.242e-05  -0.03098  0.05243  -0.5346  0.773
6.359e+09  -0.03625  -0.8822  0.02317  0.03714  -0.01695  0.0269  -0.2375  0.9596
6.36e+09  -0.3299  -0.777  -0.02863  0.01043  -0.02637  0.02207  0.05551  0.9184
6.361e+09  -0.5724  -0.6018  -0.004399  -0.02986  0.06347  0.02106  0.4487  0.8432
6.362e+09  -0.7502  -0.3656  -0.008615  -0.008405  -0.0329  0.02309  0.6701  0.652
6.364e+09  -0.8759  -0.03582  0.01528  -0.007261  -0.03338  0.0131  0.8762  0.4057
6.365e+09  -0.7571  0.218  0.01641  0.008268  0.02866  0.02037  0.917  0.06108
6.366e+09  -0.6906  0.5474  0.03966  0.005886  0.008547  -0.003236  0.9144  -0.2329
6.368e+09  -0.4355  0.7278  0.01302  -0.01915  -0.02163  0.01957  0.8043  -0.548
6.369e+09  -0.1645  0.8171  0.01483  0.01436  0.03607  0.04213  0.5818  -0.7784
6.37e+09  0.1343  0.7743  -0.04445  -0.01172  0.02517  -0.03202  0.2618  -0.9178
6.371e+09  0.4369  0.71  -0.02097  -0.02175  0.02289  -0.007061  -0.09859  -0.9415
6.372e+09  0.6315  0.5302  -0.06938  -0.03679  0.01719  -0.002477  -0.3966  -0.8836
6.374e+09  0.8048  0.3024  -0.0289  0.01999  0.001066  0.02562  -0.6676  -0.6693
6.375e+09  0.8071  -0.01039  0.0372  -0.01714  -0.02278  -0.03002  -0.8608  -0.3804
6.376e+09  0.7684  -0.3895  -0.0186  0.01996  -0.02534  0.05386  -0.9151  -0.06593
6.378e+09  0.5856  -0.6526  0.002287  -0.01833  0.02771  0.009082  -0.909  0.2285
6.379e+09  0.3689  -0.7493  0.0337  0.02635  -0.01687  0.03331  -0.7792  0.5274
6.38e+09  0.08521  -0.8352  0.01086  0.02135  0.01699  -0.0003303  -0.5684  0.7522
6.381e+09  -0.1855  -0.818  -0.0175  0.003859  -0.01191  -0.01116  -0.2595  0.914
6.382e+09  -0.5176  -0.583  2.253e-05  0.009946  0.01782  -0.03166  0.05558  0.897
6.384e+09  -0.764  -0.4513  0.003056  0.04406  -0.01277  -0.001449  0.3697  0.8512
6.385e+09  -0.9036  -0.1991  -0.03243  0.0003018  0.03943  -0.01462  0.6666  0.6638
6.386e+09  -0.8539  0.1731  -0.01107  0.007344  0.008019  -1.755e-05  0.8372  0.4282
6.388e+09  -0.7557  0.4375  -0.01435  0.0217  -0.00918  0.002851  0.9518  0.115
6.389e+09  -0.5217  0.7041  0.01711  0.04054  0.005132  -0.01129  0.9322  -0.2395
6.39e+09  -0.2498  0.8723  0.05574  -0.02727  -0.02113  0.04277  0.8072  -0.5304
6.391e+09  0.001488  0.8543  0.01302  0.01336  0.004921  0.001419  0.5873  -0.6933
6.392e+09  0.4129  0.7845  0.01484  1.055e-05  -0.006777  0.04615  0.2889  -0.8883
6.394e+09  0.6237  0.5618  -0.02392  0.004546  0.01837  -0.004481  -0.01338  -0.9361
6.395e+09  0.8784  0.2716  -0.02175  -0.01033  -0.0188  -0.03414  -0.3375  -0.8616
6.396e+09  0.8352  0.02986  -0.01323  -0.02284  -0.0007686  -0.0529  -0.6153  -0.674
6.398e+09  0.803  -0.2693  -0.02884  -0.01158  -0.03463  -0.03824  -0.8155  -0.4435
6.399e+09  0.6731  -0.5355  -0.01837  -0.03384  0.004377  -0.002824  -0.8668  -0.1255
6.4e+09  0.4211  -0.7089  -0.001133  -0.00436  0.01897  -0.02832  -0.8782  0.153
6.401e+09  0.0603  -0.8558  0.02817  0.01427  -0.01268  0.02915  -0.7641  0.4982
6.402e+09  -0.1801  -0.7686  -0.03203  0.03742  -0.01649  -0.02786  -0.6288  0.7181
6.404e+09  -0.4898  -0.7232  -0.0007406  0.02328  0.006731  -0.01427  -0.288  0.8588
6.405e+09  -0.6887  -0.4762  -0.005362  0.01155  0.0187  0.008964  0.02067  0.8989
6.406e+09  -0.8667  -0.261  -0.007525  -0.008797  -0.003831  0.03208  0.3388  0.883
6.408e+09  -0.8507  0.1068  0.009663  0.02775  -0.02611  0.01759  0.5653  0.7261
6.409e+09  -0.7573  0.3584  -0.04203  -0.02736  0.05977  -0.01529  0.7602  0.4743
6.41e+09  -0.5788  0.6686  -0.0199  0.00215  -0.02345  -0.02115  0.8649  0.1485
6.411e+09  -0.3511  0.8048  -0.02134  -0.002949  0.002001  0.004031  0.8807  -0.1578
6.412e+09  -0.01183  0.8444  -0.02361  -0.02279  -0.03853  0.01469  0.7915  -0.4397
6.414e+09  0.277  0.7917  0.01435  -0.03771  -0.001389  -0.0149  0.5619  -0.6733
6.415e+09  0.579  0.6554  -0.005091  -0.002966  0.00206  0.01856  0.341  -0.8026
6.416e+09  0.7892  0.3592  -0.03897  -0.03994  0.01606  -0.02274  0.03347  -0.9072
6.418e+09  0.8185  0.166  -0.006815  -0.007359  0.02849  0.002583  -0.2852  -0.8922
6.419e+09  0.8638  -0.1686  -0.0264  0.02905  -0.02078  -0.007897  -0.5518  -0.7214
6.42e+09  0.7019  -0.3855  0.02461  0.0169  -0.01451  0.03715  -0.7189  -0.461
6.421e+09  0.4979  -0.6902  0.0131  0.0158  0.02737  -0.01834  -0.8863  -0.2019
6.422e+09  0.25  -0.8285  -0.05696  -0.002023  0.005757  0.003645  -0.8895  0.1027
6.424e+09  -0.08914  -0.9021  0.002536  -0.008301  -0.08097  0.02627  -0.8024  0.4154
6.425e+09  -0.3668  -0.7537  0.02003  0.04874  0.01541  -0.02643  -0.5746  0.6361
6.426e+09  -0.6251  -0.6053  -0.03747  0.0339  0.01186  -0.006732  -0.333  0.8529
6.428e+09  -0.7992  -0.352  -0.02347  -0.01144  8.518e-05  0.006435  -0.09677  0.8521
6.429e+09  -0.8971  -0.01703  -0.009487  0.01478  0.00384  0.03883  0.2906  0.7957
6.43e+09  -0.8387  0.2811  -0.03168  -0.02358  0.01756  -0.01299  0.5277  0.7583
6.431e+09  -0.639  0.4979  0.007636  -0.03127  0.004217  0.02039  0.6569  0.5065
6.432e+09  -0.3789  0.7549  -0.03188  0.04267  -0.005412  -0.009626  0.8622  0.2504
6.434e+09  -0.1136  0.8579  0.002301  -0.04016  -0.008496  -0.001227  0.827  -0.0746
6.435e+09  0.2061  0.8183  0.03156  0.0149  0.02116  0.0005272  0.7791  -0.3369
6.436e+09  0.4382  0.6986  -0.02356  0.01738  -0.04256  -0.05552  0.5762  -0.6342
6.438e+09  0.6685  0.4911  -0.03019  -0.004303  0.04276  -0.02122  0.345  -0.7825
6.439e+09  0.8116  0.2412  -0.015  -0.021  -0.003212  0.0209  0.09053  -0.8948
6.44e+09  0.8487  -0.06054  -0.007432  -0.03749  -0.03159  -0.002242  -0.3016  -0.8402
6.441e+09  0.7785  -0.3324  -0.0293  0.03897  0.02446  0.03468  -0.5225  -0.696
6.442e+09  0.5476  -0.6051  0.0404  -0.03456  -0.02237  0.06487  -0.7032  -0.4735
6.444e+09  0.3413  -0.7792  0.02469  -0.02608  0.02037  0.01136  -0.8438  -0.2607
6.445e+09  0.02218  -0.7945  -0.01569  -0.02223  -0.05058  -0.04455  -0.8005  0.1094
6.446e+09  -0.1823  -0.8119  -0.00643  0.002245  0.004828  -0.05055  -0.8021  0.3882
6.448e+09  -0.4774  -0.6242  -0.02345  -0.00872  0.0287  -0.0004894  -0.5589  0.5826
6.449e+09  -0.6963  -0.4913  -0.01629  -0.03937  0.01987  -0.0556  -0.3645  0.735
6.45e+09  -0.8282  -0.1333  0.02273  0.0033  0.02524  -0.03526  -0.08502  0.8216
6.451e+09  -0.8054  0.1343  -0.00705  -0.01347  -0.004742  0.009322  0.2227  0.7631
6.452e+09  -0.715  0.4157  0.03664  -0.01438  -0.00665  -0.02314  0.4909  0.6911
6.454e+09  -0.5524  0.6423  -0.0002113  -0.01556  0.009318  0.01396  0.7021  0.4601
6.455e+09  -0.273  0.7423  0.01231  0.0002525  0.01775  0.02242  0.8133  0.2076
6.456e+09  -0.0158  0.8104  -0.002869  0.01543  0.00533  0.01704  0.89  -0.09013
6.458e+09  0.3163  0.8153  -0.00394  0.006009  -0.04282  -0.04881  0.7532  -0.3874
6.459e+09  0.5622  0.6294  0.01134  -0.02899  -0.0421  -0.06989  0.5767  -0.6089
6.46e+09  0.7604  0.4396  -0.02668  -0.02274  -0.01631  -0.02004  0.321  -0.7004
6.461e+09  0.7951  0.1366  0.0233  -0.009202  0.01776  0.03336  0.09953  -0.8198
6.462e+09  0.7631  -0.1737  -0.02836  0.02608  -0.05973  -0.07669  -0.2086  -0.7794
6.464e+09  0.6937  -0.461  -0.009557  -0.0171  -0.001639  -0.04844  -0.5168  -0.633
6.465e+09  0.468  -0.6862  0.0412  -0.004072  -0.0616  0.07334  -0.658  -0.4332
6.466e+09  0.2189  -0.845  -0.0359  0.03616  0.03416  0.01043  -0.7993  -0.1743
6.468e+09  -0.04455  -0.884  -0.001656  -0.02577  -0.02483  -0.01226  -0.8135  0.07245
6.469e+09  -0.3412  -0.7937  -0.01297  -0.06087  -0.005692  0.0005728  -0.705  0.3196
6.47e+09  -0.5772  -0.6071  -0.04355  0.02337  -0.0168  -0.07833  -0.5402  0.5861
6.471e+09  -0.7814  -0.3636  -0.001433  0.03506  -0.02946  -0.0009024  -0.3585  0.742
6.472e+09  -0.8335  -0.03451  -0.008896  -0.01273  0.0003869  0.01998  -0.04768  0.8037
6.474e+09  -0.8  0.2504  -0.006087  -0.0004929  0.04251  -0.02619  0.2029  0.7569
6.475e+09  -0.6857  0.5135  -0.0395  0.001077  -0.02204  0.01241  0.4618  0.6467
6.476e+09  -0.4164  0.7357  0.009659  -0.02187  0.03392  -0.07798  0.6801  0.4293
6.478e+09  -0.1952  0.7926  -0.007016  -0.00326  0.008826  -0.04333  0.7797  0.1999
6.479e+09  0.03158  0.8091  0.01516  0.0359  0.06368  -0.007673  0.7631  -0.0861
6.48e+09  0.4149  0.75  0.02462  -0.007156  0.02186  0.007892  0.7112  -0.3435
6.481e+09  0.6222  0.5413  0.008253  0.01955  -0.04561  0.03171  0.5805  -0.6048
6.482e+09  0.7506  0.3109  -0.03701  0.01173  -0.01929  -0.001517  0.3291  -0.6633
6.484e+09  0.8301  0.005055  -0.04575  -0.005219  -0.03042  -0.02934  0.03631  -0.8223
6.485e+09  0.8228  -0.2714  -0.004736  -0.003122  0.05111  0.006866  -0.1841  -0.7598
6.486e+09  0.6518  -0.5499  0.01013  -0.01622  0.01029  0.02949  -0.481  -0.6346
6.488e+09  0.423  -0.7069  -0.007438  0.03278  -0.03464  0.001973  -0.6269  -0.4112
6.489e+09  0.1271  -0.8103  -0.01878  0.03406  0.01888  -0.005574  -0.7794  -0.218
6.49e+09  -0.1538  -0.7996  -0.01193  -0.01859  -0.0113  -0.01131  -0.7211  0.06373
6.491e+09  -0.4165  -0.713  0.02252  0.03756  0.01274  -0.002685  -0.6988  0.3645
6.492e+09  -0.6152  -0.469  0.0122  0.01605  -7.942e-05  -0.001544  -0.5205  0.5768
6.494e+09  -0.7396  -0.2691  -0.001414  -0.01238  -0.002629  -0.003656  -0.3232  0.7168
6.495e+09  -0.835  0.01479  -0.04024  -0.002936  -0.05677  0.01227  -0.05743  0.7636
6.496e+09  -0.7965  0.2876  -0.0105  0.0559  0.01362  -0.01967  0.2398  0.7325
6.498e+09  -0.6592  0.5212  0.01847  0.007944  -0.0008843  -0.03619  0.4592  0.6237
6.499e+09  -0.3943  0.716  -0.04278  -0.01197  -0.04906  -0.01248  0.6227  0.4207
6.5e+09  -0.1124  0.8395  0.01687  -0.005495  0.009157  -0.005663  0.7302  0.1931
6.501e+09  0.1282  0.8072  0.006628  -0.04257  0.001214  0.01421  0.7173  -0.1096
6.502e+09  0.4832  0.7189  -0.02886  0.03141  -0.03668  -0.02271  0.6516  -0.3846
6.504e+09  0.6904  0.5035  -0.003675  -0.007403  0.004508  -0.01556  0.5379  -0.5607
6.505e+09  0.8199  0.2608  0.003815  0.02059  -0.01782  0.03399  0.288  -0.6872
6.506e+09  0.8481  -0.06072  -0.005737  0.006791  -0.02462  -0.006004  0.02456  -0.7659
6.508e+09  0.7423  -0.3306  0.01373  0.006834  0.0739  -0.01665  -0.2542  -0.7238
6.509e+09  0.6515  -0.5808  0.004611  -0.003872  0.0009551  -0.06183  -0.4716  -0.565
6.51e+09  0.3569  -0.7841  0.01685  0.01076  -0.0003699  0.02483  -0.6599  -0.3601
6.511e+09  0.1528  -0.8624  0.01976  -0.01712  -0.009127  -0.02648  -0.7584  -0.1395
6.512e+09  -0.2075  -0.7844  0.005629  0.008627  -0.03642  0.006539  -0.7543  0.1269
6.514e+09  -0.5172  -0.7257  0.01972  -0.03569  0.003567  -0.03274  -0.6489  0.3778
6.515e+09  -0.762  -0.5169  -0.04449  -0.0102  -0.04654  0.01317  -0.4909  0.59
6.516e+09  -0.861  -0.2377  -0.005025  -0.01835  -0.02341  0.02258  -0.2678  0.6572
6.518e+09  -0.8727  0.04358  -0.05548  0.02619  0.01058  0.01287  -0.009463  0.7633
6.519e+09  -0.7923  0.3389  0.008548  0.01329  -0.02619  -0.02649  0.3007  0.684
6.52e+09  -0.596  0.5884  -0.05966  0.02246  -0.00955  -0.003403  0.4842  0.5432
6.521e+09  -0.4  0.8109  0.006059  -0.0119  0.02522  0.0491  0.679  0.381
6.522e+09  -0.08438  0.8451  -0.000102  -0.004949  0.03225  0.02415  0.7192  0.08646
6.524e+09  0.2212  0.8882  0.0004518  -0.009819  0.05061  -0.08156  0.705  -0.178
6.525e+09  0.5436  0.6766  -0.02568  0.02015  -0.02013  0.03111  0.6149  -0.3981
6.526e+09  0.7595  0.4821  -0.02147  0.008858  -0.01672  0.008552  0.4424  -0.5452
6.528e+09  0.8308  0.232  0.03785  0.01732  0.01378  0.01469  0.1999  -0.6886
6.529e+09  0.892  -0.1501  0.003471  0.02807  0.04834  -0.03377  -0.07243  -0.6669
6.53e+09  0.7726  -0.3895  0.01583  -0.02283  -0.04853  -0.03277  -0.3297  -0.6163
6.531e+09  0.6198  -0.6439  0.01826  -0.0147  0.06033  0.06244  -0.4868  -0.4754
6.532e+09  0.3084  -0.8509  0.007363  -0.02069  -0.01091  0.01412  -0.5538  -0.277
6.534e+09  0.03276  -0.9345  0.02505  -0.02146  0.02898  -0.005883  -0.633  -0.08446
6.535e+09  -0.299  -0.8859  0.02233  0.02236  -0.0286  0.03129  -0.6268  0.116
6.536e+09  -0.5756  -0.6983  0.004054  -0.0304  0.01684  -0.008842  -0.5877  0.3048
6.538e+09  -0.7594  -0.4633  0.01759  0.001267  -0.07228  0.0422  -0.4649  0.4914
6.539e+09  -0.9052  -0.1544  0.01655  0.01009  -0.001978  0.007332  -0.2535  0.5955
6.54e+09  -0.9407  0.182  0.01015  -0.02012  0.02043  -0.02253  -0.05683  0.6573
6.541e+09  -0.8047  0.5303  0.03798  0.02148  0.006291  0.004907  0.2036  0.6738
6.542e+09  -0.6173  0.741  -0.002057  0.04348  0.002923  0.01969  0.4357  0.559
6.544e+09  -0.3105  0.8929  -0.03787  0.01427  0.02135  0.01876  0.584  0.3863
6.545e+09  0.03504  0.9096  0.01907  -0.005687  0.008929  0.02055  0.7221  0.1426
6.546e+09  0.3135  0.8388  0.004892  -0.006332  0.009538  0.03543  0.7274  -0.1098
6.548e+09  0.6311  0.6685  0.00874  -0.0266  0.004683  -0.0261  0.667  -0.3208
6.549e+09  0.8217  0.4381  0.005095  -0.01663  0.01491  -0.002046  0.5043  -0.5598
6.55e+09  0.9167  0.0803  0.001499  0.01056  -0.03007  0.03733  0.2527  -0.6668
