# Hz S RI R 50
6.25e+09  0.8102  0.1488  -0.00994  -0.02506  0.02096  0.01992  0.1482  0.4945
6.251e+09  0.8175  -0.1305  -0.003925  -0.02211  0.03185  0.04005  0.3767  0.372
6.252e+09  0.6991  -0.4428  -0.001369  0.02617  0.004071  -0.02962  0.5043  0.2535
6.254e+09  0.485  -0.6672  -0.005163  0.0182  0.01303  0.03328  0.6122  0.04914
6.255e+09  0.305  -0.8351  -0.006816  0.05075  -0.05781  -0.003151  0.5683  -0.2418
6.256e+09  -0.003345  -0.8248  -0.0157  -0.005615  -0.006728  0.0306  0.4685  -0.4583
6.258e+09  -0.3418  -0.7477  0.003624  0.007246  0.00449  0.04015  0.2744  -0.5887
6.259e+09  -0.5585  -0.5815  -0.007832  0.01709  0.003386  0.02057  0.05947  -0.6603
6.26e+09  -0.7722  -0.3881  -0.02449  -0.03232  -0.004705  0.01652  -0.2053  -0.6345
6.261e+09  -0.8514  -0.04718  0.02535  -0.01161  0.00398  -0.03542  -0.471  -0.5613
6.262e+09  -0.8272  0.2632  0.004195  -0.009005  0.01395  0.07183  -0.6359  -0.3107
6.264e+09  -0.6407  0.4817  -0.02324  -0.01981  -0.04817  0.01505  -0.7145  -0.1138
6.265e+09  -0.4338  0.7555  0.01877  -0.01828  -0.02463  -0.02399  -0.702  0.1778
6.266e+09  -0.1465  0.8274  -0.005636  -0.03437  0.05793  0.03974  -0.6606  0.4119
6.268e+09  0.1202  0.8417  -0.003225  -0.002138  -0.03276  -0.01844  -0.4418  0.5675
6.269e+09  0.3775  0.6621  0.02523  -0.00992  -0.05433  -0.01635  -0.2002  0.7213
6.27e+09  0.6272  0.4819  0.009145  0.02357  0.01984  -0.01877  0.05364  0.7805
6.271e+09  0.7344  0.2386  -0.01251  -0.008881  -0.06835  0.03689  0.332  0.6627
6.272e+09  0.7584  -0.03519  0.01018  0.002637  -0.04316  -0.03521  0.563  0.5289
6.274e+09  0.7126  -0.4048  -0.01314  -0.00778  0.02823  -0.04695  0.7071  0.2764
6.275e+09  0.5471  -0.5576  -0.01007  0.01122  -0.01471  -0.04237  0.7688  0.0715
6.276e+09  0.2826  -0.7042  0.02897  -0.01311  -0.003774  -0.005231  0.7337  -0.2284
6.278e+09  0.009819  -0.8571  -0.002226  0.01062  0.007091  0.02684  0.6123  -0.4767
6.279e+09  -0.2815  -0.789  0.01086  0.004619  0.05579  -0.00537  0.4209  -0.6704
6.28e+09  -0.5283  -0.6225  0.02741  0.01306  0.03326  0.02709  0.1501  -0.7465
6.281e+09  -0.7348  -0.4046  0.004277  -0.01244  -0.05371  0.03577  -0.1242  -0.7865
6.282e+09  -0.7606  -0.1698  -0.009612  -0.01883  -0.006874  0.04589  -0.3702  -0.7175
6.284e+09  -0.7932  0.1471  0.008677  -0.01022  -0.003853  -0.03014  -0.6047  -0.5155
6.285e+09  -0.6699  0.4091  -0.02944  -0.01647  -0.004749  -0.009456  -0.7265  -0.2721
6.286e+09  -0.485  0.6426  0.006529  0.03799  0.02157  -0.0164  -0.8033  0.005639
6.288e+09  -0.2265  0.801  -0.02027  -0.002798  -0.009149  -0.04115  -0.7524  0.2306
6.289e+09  0.02148  0.7855  0.03767  -0.01554  -0.02204  0.01995  -0.6388  0.4821
6.29e+09  0.3167  0.749  -0.003769  -0.003379  -0.01918  0.006823  -0.4222  0.7077
6.291e+09  0.5682  0.5823  -0.009045  0.01677  -0.03986  0.011  -0.1762  0.7845
6.292e+09  0.7707  0.3201  0.01364  -0.003748  0.04059  -0.04136  0.1308  0.8108
6.294e+09  0.8029  0.04293  0.03466  -0.001465  -0.0384  0.008769  0.3863  0.7099
6.295e+09  0.7966  -0.2168  -0.01414  0.01731  -0.04504  -0.01759  0.6716  0.4911
6.296e+09  0.6398  -0.5376  -0.0007574  -0.002554  -0.004648  -0.01265  0.7862  0.2734
6.298e+09  0.4299  -0.7005  0.01007  0.00614  -0.01659  0.001663  0.8243  -0.004535
6.299e+09  0.1159  -0.7702  -0.02266  0.03864  0.005236  -0.02193  0.7858  -0.3233
6.3e+09  -0.1964  -0.7693  0.01639  0.02762  0.001618  -0.00594  0.6394  -0.5171
6.301e+09  -0.4243  -0.6609  -0.008378  0.003815  -0.05363  0.006076  0.4355  -0.7461
6.302e+09  -0.7102  -0.5168  0.01049  -0.01672  0.01429  -0.01403  0.1297  -0.8451
6.304e+09  -0.7594  -0.2  -0.01207  -0.01692  0.01251  0.07404  -0.1196  -0.8361
6.305e+09  -0.7966  0.09531  0.01186  -0.002742  -0.01059  -0.03753  -0.4611  -0.7453
6.306e+09  -0.691  0.329  0.005099  -0.02425  0.007243  -0.0244  -0.6575  -0.5541
6.308e+09  -0.6055  0.5981  0.004049  0.008832  0.04617  -0.01209  -0.8232  -0.2956
6.309e+09  -0.3183  0.7901  0.0261  0.005518  -0.02374  -0.0141  -0.8929  0.02222
6.31e+09  -0.01432  0.8021  0.00269  -0.002925  -0.01561  0.01291  -0.8018  0.2961
6.311e+09  0.2389  0.7961  0.03395  0.01993  -0.01268  -0.03381  -0.6669  0.5636
6.312e+09  0.5209  0.6355  0.01092  0.03233  0.002555  0.009324  -0.4633  0.7424
6.314e+09  0.7398  0.457  -0.01095  0.01929  -0.02077  0.001843  -0.145  0.8427
6.315e+09  0.8482  0.1332  -0.001559  0.01944  -0.03232  0.009838  0.1529  0.8604
6.316e+09  0.8071  -0.2072  0.003667  -0.03017  -0.01658  -0.02639  0.4472  0.7699
6.318e+09  0.7328  -0.4114  0.005541  0.0001974  -0.02046  -0.02632  0.6568  0.591
6.319e+09  0.5124  -0.6605  0.007068  -0.01865  0.0114  -0.0151  0.8068  0.3374
6.32e+09  0.2607  -0.799  0.01189  -0.03723  4.264e-05  0.004942  0.8683  0.03648
6.321e+09  -0.07923  -0.7917  -0.01095  0.02339  -0.008843  -0.001373  0.8306  -0.2913
6.322e+09  -0.3629  -0.7612  -0.009052  0.02647  -0.01918  -0.01432  0.6643  -0.5324
6.324e+09  -0.6114  -0.5721  -0.002385  -0.03256  -0.0135  -0.03385  0.4465  -0.7753
6.325e+09  -0.7692  -0.286  0.009588  0.01071  -0.004268  -0.03173  0.1729  -0.8997
6.326e+09  -0.8238  0.006657  0.01127  0.01304  -0.009184  0.02933  -0.1004  -0.8708
6.328e+09  -0.774  0.2787  -0.006787  -0.01642  -0.009293  0.02519  -0.4398  -0.7826
6.329e+09  -0.6416  0.5622  0.006779  0.004369  -0.007104  0.03889  -0.6686  -0.6
6.33e+09  -0.4472  0.6931  -0.0168  0.02472  0.03277  -0.007133  -0.8388  -0.3172
6.331e+09  -0.1399  0.8348  0.01955  -0.01618  0.04412  -0.01625  -0.9139  -0.05341
6.332e+09  0.1446  0.857  0.03648  -0.008463  -0.005895  -0.06193  -0.8621  0.2799
6.334e+09  0.4954  0.7479  -0.02787  0.01726  -0.01112  0.03199  -0.7222  0.5507
6.335e+09  0.6817  0.4962  0.009202  -0.01335  -0.006773  -0.02172  -0.5036  0.7669
6.336e+09  0.8227  0.2445  -0.01188  -0.007735  -0.005392  -0.01565  -0.1354  0.8845
6.338e+09  0.8013  -0.0886  -0.00237  0.009486  -0.02798  -0.03333  0.1154  0.9022
6.339e+09  0.7292  -0.4112  0.006413  0.01118  -0.0152  0.02582  0.4524  0.8011
6.34e+09  0.6012  -0.6341  -0.0223  0.0191  0.05436  0.002356  0.6831  0.6361
6.341e+09  0.3683  -0.7623  0.02351  -0.007778  -0.0364  -0.002563  0.8348  0.3614
6.342e+09  0.06191  -0.7987  0.03166  -0.01009  0.01705  0.03245  0.906  0.03489
6.344e+09  -0.2655  -0.8132  0.02126  0.006921  -0.01681  0.02727  0.8747  -0.2838
6.345e+09  -0.5606  -0.6284  0.01983  0.004225  0.01902  0.02011  0.739  -0.5688
6.346e+09  -0.7517  -0.4415  -0.008425  -0.01619  0.05727  -0.02501  0.4988  -0.7533
6.348e+09  -0.8141  -0.1518  0.005635  0.009806  0.01533  0.006752  0.2247  -0.9233
6.349e+09  -0.7924  0.2234  0.004308  -0.0211  -0.01725  0.01357  -0.1394  -0.9025
6.35e+09  -0.6887  0.4543  -0.02133  -0.02208  0.04029  -0.02922  -0.4414  -0.8195
6.351e+09  -0.4881  0.6576  0.006817  -0.02226  0.006357  -0.01067  -0.688  -0.6586
6.352e+09  -0.2443  0.7846  -0.006769  0.01268  -0.03246  0.02934  -0.914  -0.3612
6.354e+09  0.0724  0.8568  0.006293  -0.004691  0.001533  0.005598  -0.95  -0.03941
6.355e+09  0.4293  0.7305  -0.01116  -0.01156  -0.009556  0.04009  -0.921  0.246
6.356e+09  0.6437  0.5796  0.02306  -0.02002  -0.0009702  0.02533  -0.7899  0.5867
6.358e+09  0.8175  0.3133  0.01628  0.0002144  0.00392  0.02326  -0.5188  0.7858
6.359e+09  0.7891  -0.02487  0.004684  -0.01273  -0.02074  0.03347  -0.2076  0.8999
6.36e+09  0.8464  -0.2742  -0.01932  0.02828  -0.01577  -0.03264  0.0998  0.9751
6.361e+09  0.5837  -0.5767  -0.03309  0.006675  0.02128  0.009261  0.3928  0.869
6.362e+09  0.3868  -0.7582  -0.01088  0.02148  0.01242  -0.0008051  0.6999  0.6374
6.364e+09  0.1133  -0.8573  0.002478  -0.01042  0.05613  -0.0008943  0.8255  0.401
6.365e+09  -0.2547  -0.8316  0.01901  -0.01871  -0.04482  -0.007071  0.9671  0.08412
6.366e+09  -0.5058  -0.6968  0.002176  0.0368  -0.006562  0.0002416  0.8871  -0.2653
6.368e+09  -0.6987  -0.4735  0.01373  0.02191  -0.009991  -0.04809  0.7632  -0.5935
6.369e+09  -0.7772  -0.1846  0.003581  -0.01311  -0.03737  -0.005726  0.5822  -0.7764
6.37e+09  -0.8587  0.1248  0.01879  0.001806  -0.02788  -0.007034  0.2361  -0.9371
6.371e+09  -0.6842  0.4178  0.00519  0.03396  0.03187  -0.04009  -0.09253  -0.93
6.372e+09  -0.529  0.6653  0.008415  0.01138  -0.03079  -0.02158  -0.4003  -0.8705
6.374e+09  -0.2887  0.7568  0.00539  0.03676  -0.01647  0.02371  -0.6918  -0.655
6.375e+09  0.003986  0.8851  -0.02701  0.002682  -0.03116  -0.01318  -0.8408  -0.405
6.376e+09  0.3146  0.7826  -0.02577  -0.01419  -0.02643  -0.0009797  -0.9661  -0.07933
6.378e+09  0.5925  0.6035  -0.0004184  -0.001494  -0.04064  0.05028  -0.9005  0.2665
6.379e+09  0.7765  0.3591  -0.004641  -0.0158  0.002146  -0.01391  -0.7686  0.5237
6.38e+09  0.8441  0.03915  -0.01211  -0.02874  -0.04434  -0.000435  -0.5182  0.7639
6.381e+09  0.813  -0.2566  -0.01244  -0.0169  -0.01522  0.02598  -0.2951  0.9012
6.382e+09  0.6777  -0.5355  -0.0004789  0.03182  -0.00444  -0.01564  0.05066  0.9257
6.384e+09  0.4391  -0.7129  0.03542  0.0114  0.02656  0.006234  0.3828  0.9162
6.385e+09  0.1336  -0.8148  -0.03396  -0.04569  0.005063  0.002972  0.6817  0.6843
6.386e+09  -0.1452  -0.8174  0.009326  -0.01849  -0.03229  -0.001643  0.8213  0.4225
6.388e+09  -0.4791  -0.719  -0.01528  -0.005974  -0.03158  -0.01471  0.903  0.06475
6.389e+09  -0.678  -0.4766  -0.02389  -0.007935  0.02489  0.008679  0.9083  -0.1993
6.39e+09  -0.8004  -0.2602  0.0101  0.02489  -0.05263  -0.02647  0.7696  -0.5088
6.391e+09  -0.8349  0.09698  -0.004761  -0.005449  0.03859  -0.003811  0.6143  -0.7648
6.392e+09  -0.8203  0.3725  -0.01789  0.0265  -0.02242  -0.004489  0.2892  -0.8797
6.394e+09  -0.5679  0.6483  -0.04179  -0.01714  0.02525  -0.02873  -0.02468  -0.9402
6.395e+09  -0.2828  0.8073  0.05769  -0.01176  -0.006094  -0.01212  -0.3537  -0.8995
6.396e+09  0.03605  0.8862  -0.04996  0.03338  0.035  -0.02907  -0.5954  -0.6892
6.398e+09  0.2198  0.7725  0.021  0.02741  -0.01548  0.02914  -0.8341  -0.4212
6.399e+09  0.5671  0.6771  0.01417  -0.002438  0.01323  0.002424  -0.9006  -0.134
6.4e+09  0.7524  0.3856  -0.04692  0.02988  -0.06798  0.0357  -0.9094  0.1895
6.401e+09  0.9127  0.05665  -0.005359  0.03479  0.007313  0.03903  -0.7991  0.5059
6.402e+09  0.804  -0.2542  -0.02046  0.04068  0.03098  -0.00987  -0.609  0.778
6.404e+09  0.6459  -0.5542  -0.0009889  0.01015  0.01436  0.02991  -0.2813  0.9042
6.405e+09  0.4649  -0.7316  0.03394  -0.03118  0.01698  0.024  -0.02341  0.9502
6.406e+09  0.1605  -0.8017  0.0351  0.03469  0.002833  0.003744  0.3335  0.8705
6.408e+09  -0.1955  -0.8129  0.006263  0.01441  0.04091  -0.02095  0.5782  0.6918
6.409e+09  -0.51  -0.6859  -0.001066  0.009443  -0.001207  -0.03454  0.7689  0.4997
6.41e+09  -0.6267  -0.5669  0.01537  -0.01338  -0.01422  -0.009082  0.9062  0.2403
6.411e+09  -0.8293  -0.2448  0.007295  0.012  -0.01068  0.0152  0.8641  -0.1568
6.412e+09  -0.8569  0.02024  0.02132  0.03073  -0.02181  -0.01602  0.7841  -0.4379
6.414e+09  -0.7738  0.3221  -0.009724  0.02651  -0.02952  -0.04218  0.5877  -0.6877
6.415e+09  -0.5563  0.6291  -0.01819  -0.007479  0.005824  0.003016  0.3174  -0.8241
6.416e+09  -0.3301  0.8331  -0.01036  0.0307  -0.004826  0.0009428  0.02417  -0.9184
6.418e+09  0.01992  0.8348  -0.009053  0.02441  -0.001239  -0.03145  -0.3049  -0.8646
6.419e+09  0.3166  0.7931  -0.04881  -0.04667  -0.03026  0.005483  -0.5243  -0.7137
6.42e+09  0.6042  0.6155  -0.03851  0.02582  0.009236  -0.03963  -0.7475  -0.4857
6.421e+09  0.7827  0.314  0.00845  0.02842  -0.03414  0.03949  -0.8811  -0.1962
6.422e+09  0.8884  0.05206  -0.008524  0.00323  -0.001586  0.0002352  -0.8442  0.07783
6.424e+09  0.8101  -0.2563  -0.01168  -0.02127  -0.00594  -0.02338  -0.7927  0.4032
6.425e+09  0.6084  -0.5851  0.01546  0.02756  0.003022  0.02209  -0.5754  0.5725
6.426e+09  0.4247  -0.7147  0.001929  0.02018  0.02167  -0.02692  -0.3416  0.8402
6.428e+09  0.1033  -0.8293  -0.003358  0.05538  -0.005941  0.02369  -0.06685  0.886
6.429e+09  -0.2355  -0.8148  0.01326  -0.006179  0.03788  0.02918  0.228  0.8192
6.43e+09  -0.5218  -0.6879  0.0485  0.00221  -0.01007  0.01008  0.5254  0.7228
6.431e+09  -0.7443  -0.4715  -0.005016  -0.02394  0.01905  -0.001146  0.7477  0.5088
6.432e+09  -0.8438  -0.1509  -0.01176  -0.02265  0.008045  -0.04473  0.8212  0.2243
6.434e+09  -0.8141  0.1857  -0.01721  0.04473  -0.008726  -0.01467  0.8259  -0.07258
6.435e+09  -0.7324  0.4551  0.0714  0.0161  -0.02352  0.06651  0.7901  -0.3717
6.436e+09  -0.4708  0.6615  0.04092  0.03098  -0.01864  -0.009861  0.6171  -0.577
6.438e+09  -0.2588  0.8276  0.05415  -0.01108  -0.01691  -0.003426  0.2886  -0.7772
6.439e+09  0.0745  0.8522  -0.004286  0.003171  0.04236  -0.02872  0.03687  -0.8274
6.44e+09  0.3629  0.7897  0.02065  -0.01841  0.03193  0.0001498  -0.2581  -0.8353
6.441e+09  0.6252  0.5591  0.0101  0.04334  0.01779  0.006303  -0.4981  -0.6627
6.442e+09  0.7908  0.2897  -0.004534  0.003325  -0.04771  -0.02666  -0.6858  -0.4675
6.444e+09  0.8479  -0.02562  -0.02798  0.04235  0.03243  0.03947  -0.8216  -0.1976
6.445e+09  0.7759  -0.3456  0.006271  0.008126  -0.01336  -0.04016  -0.8351  0.1323
6.446e+09  0.539  -0.6053  -0.003315  -0.04377  0.03575  0.007765  -0.7903  0.3648
6.448e+09  0.369  -0.7555  0.03437  0.006279  -0.005454  0.002608  -0.6035  0.6313
6.449e+09  0.07197  -0.8317  0.007889  0.0006769  -0.002385  0.02638  -0.3334  0.8103
6.45e+09  -0.252  -0.8031  0.03323  0.03357  0.01645  0.005385  -0.09392  0.8563
6.451e+09  -0.4707  -0.6907  -0.002147  0.04609  0.03859  0.02665  0.2672  0.8316
6.452e+09  -0.7556  -0.39  -0.03385  0.0189  0.007511  0.001105  0.5046  0.6884
6.454e+09  -0.781  -0.1418  -0.00925  -0.00588  0.0006072  0.01636  0.6901  0.4644
6.455e+09  -0.8324  0.2033  -0.01095  0.02415  -0.02605  -0.01931  0.8234  0.2238
6.456e+09  -0.6259  0.4591  0.03467  -0.0124  0.03097  -0.00758  0.8399  -0.1086
6.458e+09  -0.498  0.658  0.01195  0.001949  -0.04782  -0.04432  0.7377  -0.3461
6.459e+09  -0.1775  0.7939  0.01209  0.03845  0.04025  -0.01121  0.6014  -0.6244
6.46e+09  0.1159  0.8369  -0.008475  -0.008592  -0.01905  -0.02313  0.3929  -0.8076
6.461e+09  0.3951  0.6958  -0.01668  -0.005311  -0.05964  0.002455  0.08632  -0.8067
6.462e+09  0.6191  0.5417  0.01044  0.04284  -0.02538  0.01818  -0.2618  -0.7675
6.464e+09  0.8033  0.3036  0.0243  0.03436  0.02059  0.05741  -0.4887  -0.6217
6.465e+09  0.7499  -0.00626  -0.03781  -0.02583  0.01261  0.02362  -0.6674  -0.4258
6.466e+09  0.7696  -0.3182  0.0196  -0.0051  0.05369  -0.006469  -0.7954  -0.2175
6.468e+09  0.5381  -0.5172  0.01208  0.02054  0.00093  0.03049  -0.8056  0.0391
6.469e+09  0.3683  -0.7148  -0.01632  0.04255  0.02479  -0.04254  -0.7317  0.3235
6.47e+09  0.07424  -0.7381  -0.004914  -0.0184  -0.02768  -0.01488  -0.5624  0.5752
6.471e+09  -0.2017  -0.7442  0.008824  -0.05199  0.04947  0.04272  -0.3463  0.7344
6.472e+09  -0.5033  -0.6441  0.02964  0.001291  0.01742  0.000916  -0.0477  0.8252
6.474e+09  -0.6491  -0.4502  -0.0001399  0.008394  -0.03818  -0.02733  0.1967  0.774
6.475e+09  -0.7337  -0.206  0.02373  0.00265  -0.01252  0.01093  0.4226  0.643
6.476e+09  -0.803  0.07115  0.008695  -0.006297  -0.01811  -0.04034  0.6242  0.4329
6.478e+09  -0.7057  0.3597  -0.04194  0.003267  0.001579  -0.00589  0.7637  0.2084
6.479e+09  -0.5416  0.5732  -0.04225  0.02824  -0.0002501  0.02484  0.8086  -0.1219
6.48e+09  -0.2746  0.7202  -0.04513  0.06774  -0.01478  0.02311  0.6948  -0.2599
6.481e+09  0.01577  0.7836  0.01386  0.02716  -0.001045  0.02966  0.5452  -0.5787
6.482e+09  0.2851  0.7585  0.0227  0.01901  -0.03105  0.003792  0.311  -0.712
6.484e+09  0.5429  0.5477  -0.006901  0.01084  -0.002954  -0.0178  0.05635  -0.8414
6.485e+09  0.6923  0.3259  -0.009894  0.005359  -0.01258  0.01628  -0.2177  -0.7789
6.486e+09  0.7387  0.1132  0.05126  0.01462  0.001844  -0.03616  -0.4417  -0.6522
6.488e+09  0.7518  -0.1948  0.008311  -0.02422  0.01289  -0.01325  -0.6253  -0.4563
6.489e+09  0.6487  -0.4501  -0.006245  0.04557  -0.02474  -0.04069  -0.7813  -0.2
6.49e+09  0.443  -0.6472  -0.01245  -0.004917  0.007744  0.02002  -0.7453  0.05473
6.491e+09  0.1586  -0.7563  -0.005824  0.01207  -0.01076  0.07291  -0.6949  0.3284
6.492e+09  -0.1154  -0.7262  0.007525  0.02772  -0.009148  0.0119  -0.5427  0.5191
6.494e+09  -0.3663  -0.6707  -0.0004135  -0.02984  -0.02472  -0.01661  -0.322  0.7119
6.495e+09  -0.5992  -0.5007  0.005593  -0.06269  0.01577  -0.03296  -0.02287  0.8006
6.496e+09  -0.6933  -0.2653  -0.0001341  0.02484  -0.003312  0.002587  0.2055  0.7661
6.498e+09  -0.7738  -0.01113  -0.001731  -0.008381  0.0262  0.0005051  0.4533  0.5955
6.499e+09  -0.699  0.265  -0.02343  -0.003016  0.0242  -0.02354  0.641  0.4141
6.5e+09  -0.5551  0.5173  0.001892  0.009357  -0.01266  -0.0008367  0.777  0.1811
6.501e+09  -0.3656  0.6894  -0.02491  -0.003643  -0.01986  0.006149  0.7619  -0.09876
6.502e+09  -0.08426  0.7874  0.006254  -0.02733  0.03747  0.004849  0.6725  -0.3728
6.504e+09  0.2119  0.7364  0.005232  -0.03893  0.03859  -0.04143  0.511  -0.5961
6.505e+09  0.4721  0.6277  0.05155  0.01603  -0.01002  -0.01399  0.2875  -0.6923
6.506e+09  0.6448  0.449  -0.002577  0.01522  0.0103  -0.0247  0.03194  -0.7226
6.508e+09  0.714  0.2281  -0.02681  0.01415  0.05528  0.03357  -0.2537  -0.7404
6.509e+09  0.8076  -0.03794  0.01563  -0.01732  0.0483  0.001111  -0.4316  -0.6259
6.51e+09  0.6637  -0.3267  -0.02132  0.01562  0.02922  0.002698  -0.6347  -0.3832
6.511e+09  0.5009  -0.5484  -0.00323  -0.006794  0.00116  -0.01815  -0.7225  -0.1712
6.512e+09  0.3123  -0.7193  -0.01206  0.01995  -0.01789  -0.001358  -0.747  0.1355
6.514e+09  0.08299  -0.813  0.01237  0.008957  0.009348  0.0243  -0.626  0.372
6.515e+09  -0.2456  -0.7471  -0.03312  -0.03607  0.01817  0.03852  -0.504  0.5809
6.516e+09  -0.4602  -0.6411  0.02098  0.02265  -0.008327  -0.002155  -0.2252  0.6882
6.518e+09  -0.6832  -0.4494  0.003614  0.01503  -0.0127  -0.001024  0.01342  0.7709
6.519e+09  -0.8178  -0.1515  -0.01104  -0.01309  -0.001042  0.01962  0.2461  0.7313
6.52e+09  -0.7879  0.1712  0.003166  0.01059  0.04117  -0.0004667  0.5132  0.5365
6.521e+09  -0.6939  0.3973  -0.007164  -0.03029  -0.02533  -0.0312  0.6734  0.3776
6.522e+09  -0.4872  0.5783  -0.019  0.02323  0.01595  -0.01369  0.7333  0.1215
6.524e+09  -0.2527  0.8515  -0.0248  0.03609  0.000937  0.03926  0.7138  -0.185
6.525e+09  0.01488  0.83  -0.01669  -0.01055  0.01454  -0.009831  0.6038  -0.3849
6.526e+09  0.3272  0.7856  -0.009245  0.03724  0.05288  -0.01738  0.4412  -0.6017
6.528e+09  0.579  0.5782  -0.02534  -0.001881  -0.01426  0.02256  0.2007  -0.6926
6.529e+09  0.7409  0.3432  0.002445  0.005555  0.002566  -0.02755  -0.03263  -0.7231
6.53e+09  0.8381  0.1091  -0.003637  0.001325  -0.009817  -0.02531  -0.2969  -0.6357
6.531e+09  0.8021  -0.2268  0.02573  -0.004194  0.01031  -0.05285  -0.4906  -0.4777
6.532e+09  0.6864  -0.4974  0.007006  -0.02741  -0.01323  -0.04972  -0.5781  -0.2739
6.534e+09  0.4955  -0.6954  0.01351  -0.02425  0.06832  0.03232  -0.6289  -0.09493
6.535e+09  0.2194  -0.7875  -0.01144  -0.0008507  0.003061  0.01333  -0.6067  0.1485
6.536e+09  -0.09256  -0.7921  0.01344  -0.0139  -0.0266  0.01034  -0.5424  0.3093
6.538e+09  -0.4415  -0.7673  0.02058  0.02257  0.01458  -0.04011  -0.4452  0.4904
6.539e+09  -0.652  -0.5715  0.03837  -0.01181  0.009587  0.01528  -0.2613  0.6215
6.54e+09  -0.7698  -0.2645  -0.009872  -0.00481  -0.03015  0.02082  -0.04915  0.6792
6.541e+09  -0.8431  -0.0191  -0.02828  -0.02739  -0.01118  0.006529  0.2186  0.6485
6.542e+09  -0.8412  0.2562  0.007322  -0.002035  -0.004834  0.03548  0.419  0.5905
6.544e+09  -0.6503  0.5883  0.01658  0.01573  -0.002277  0.004162  0.6106  0.4103
6.545e+09  -0.4137  0.7615  -0.01281  -0.02283  -0.009989  0.01748  0.6813  0.1772
6.546e+09  -0.09773  0.8497  -0.008432  -0.01824  -0.001813  -0.03333  0.717  -0.06811
6.548e+09  0.2361  0.8361  -0.01166  0.0112  0.01867  -0.002214  0.645  -0.3466
6.549e+09  0.4788  0.6646  -0.05229  -0.01357  0.04379  -0.02061  0.5161  -0.5579
6.55e+09  0.7213  0.5584  -0.00776  -0.001676  -0.004139  0.008852  0.2956  -0.7111
