# Hz S RI R 50
6.25e+09  0.3601  0.8068  -0.005975  -0.01417  -0.03923  0.01869  0.11  0.4983
6.251e+09  0.6066  0.5785  -0.01078  0.006309  0.005523  -0.02458  0.3698  0.4055
6.252e+09  0.7853  0.3459  0.007519  0.0008263  -0.0006093  0.009697  0.574  0.2535
6.254e+09  0.9093  0.0289  0.007919  0.036  -0.003841  0.004828  0.6026  0.03656
6.255e+09  0.7755  -0.286  0.004255  0.01592  0.02836  0.0265  0.6241  -0.2552
6.256e+09  0.7588  -0.5066  -0.01931  0.01675  0.0276  0.007498  0.4664  -0.4422
6.258e+09  0.4482  -0.666  0.01757  -0.005039  0.04235  -0.03134  0.2958  -0.6004
6.259e+09  0.1943  -0.8428  0.005341  -0.003831  0.009983  -0.01256  0.05376  -0.6764
6.26e+09  -0.1695  -0.8096  -0.001434  -0.01485  0.01821  0.03005  -0.2131  -0.667
6.261e+09  -0.399  -0.7365  0.01827  0.01519  -0.006249  0.01517  -0.4453  -0.5474
6.262e+09  -0.6534  -0.5771  -0.03067  -0.03399  -0.007113  0.05835  -0.6275  -0.3771
6.264e+09  -0.7654  -0.3554  -0.01552  -0.007024  0.02159  0.07289  -0.7183  -0.08571
6.265e+09  -0.7646  -0.0581  -0.0318  -0.008403  -0.01009  -0.01942  -0.6907  0.1287
6.266e+09  -0.75  0.2331  -0.007504  0.008993  0.004005  0.02175  -0.6246  0.3642
6.268e+09  -0.6225  0.5686  -0.009446  -0.007694  0.01274  0.03876  -0.444  0.5794
6.269e+09  -0.372  0.7657  0.0276  -0.007274  -0.043  0.04383  -0.208  0.7123
6.27e+09  -0.1583  0.8323  0.01883  0.004874  -0.004319  0.03292  0.05103  0.7639
6.271e+09  0.1596  0.8133  0.0243  -0.001313  0.02827  0.0208  0.3158  0.6865
6.272e+09  0.4232  0.6829  0.0007465  0.02892  0.01348  -0.05659  0.5469  0.5344
6.274e+09  0.6886  0.5048  -0.004791  -0.01021  0.02528  0.009337  0.7108  0.2823
6.275e+09  0.7964  0.2231  -0.006176  -0.01131  -0.0111  -0.008886  0.7526  0.06406
6.276e+09  0.8703  -0.0139  0.005434  0.002167  0.04375  -0.05342  0.7363  -0.2132
6.278e+09  0.6828  -0.3426  0.01034  -0.01892  0.0206  -0.008305  0.61  -0.4498
6.279e+09  0.5331  -0.5879  0.01934  0.01291  0.04552  0.028  0.4393  -0.6319
6.28e+09  0.3847  -0.8196  0.005414  -0.007231  0.01562  0.01803  0.1822  -0.7564
6.281e+09  0.08082  -0.7801  0.02733  -0.008232  -0.01899  -0.03366  -0.1527  -0.7597
6.282e+09  -0.2216  -0.8233  -0.01858  0.008446  0.02988  -0.02684  -0.36  -0.7362
6.284e+09  -0.5126  -0.6875  -0.07239  -0.005391  0.0304  -0.002175  -0.5482  -0.5248
6.285e+09  -0.6636  -0.4405  -0.0001886  0.03248  0.02503  -0.03691  -0.7274  -0.2974
6.286e+09  -0.8261  -0.2121  0.0005081  0.001524  -0.04249  -0.00873  -0.801  -0.03572
6.288e+09  -0.8213  0.1312  -0.0002159  0.01637  0.003712  -0.043  -0.7444  0.2775
6.289e+09  -0.766  0.3112  0.01622  -0.00802  -0.02332  -0.02694  -0.6321  0.4963
6.29e+09  -0.5498  0.6512  0.0005025  0.01174  0.008759  0.01967  -0.411  0.7037
6.291e+09  -0.3321  0.7871  -0.01341  -0.005526  -0.0159  0.03223  -0.1741  0.8208
6.292e+09  -0.041  0.7989  0.01739  0.01929  -0.002935  -0.008443  0.132  0.8016
6.294e+09  0.259  0.7478  -0.001871  -0.01318  -0.01183  -0.003172  0.361  0.7263
6.295e+09  0.5627  0.6592  0.01632  0.02368  0.03232  0.006271  0.628  0.5028
6.296e+09  0.7133  0.3501  -0.01429  -0.01015  0.01841  -0.01607  0.7341  0.3062
6.298e+09  0.879  0.1736  -0.003922  0.007411  -0.0175  0.006861  0.8004  0.006615
6.299e+09  0.823  -0.1585  -0.01796  -0.01375  0.0272  0.01062  0.7574  -0.3081
6.3e+09  0.712  -0.4706  -0.01274  -0.002965  -0.009346  0.03719  0.6476  -0.494
6.301e+09  0.5555  -0.6685  0.03791  -0.004509  -0.04689  0.008533  0.4564  -0.6988
6.302e+09  0.2307  -0.8028  0.01951  0.02736  -0.04839  -0.00321  0.1492  -0.8362
6.304e+09  -0.05035  -0.8256  0.005027  -0.001416  -0.006848  0.03907  -0.1251  -0.8217
6.305e+09  -0.3251  -0.7592  0.0251  -0.004734  0.003179  0.001386  -0.4199  -0.7252
6.306e+09  -0.5963  -0.5917  -0.005847  0.01104  -0.05414  0.03607  -0.6404  -0.5559
6.308e+09  -0.7646  -0.3638  -0.001699  0.006991  -0.01148  0.0416  -0.8157  -0.317
6.309e+09  -0.9015  -0.08647  0.001836  -0.009006  0.04463  0.001791  -0.8368  -0.009248
6.31e+09  -0.7779  0.2619  0.01892  -0.01413  -0.03325  0.08967  -0.805  0.281
6.311e+09  -0.7014  0.4878  0.01337  -0.02485  -0.02571  0.02212  -0.6596  0.5332
6.312e+09  -0.4749  0.7109  -0.01843  -0.007631  -0.006825  0.01694  -0.4528  0.7486
6.314e+09  -0.1993  0.8383  -0.01775  -0.01676  -0.003452  0.00665  -0.1804  0.832
6.315e+09  0.1473  0.8332  0.03722  -0.01788  -0.02063  -0.03464  0.146  0.8806
6.316e+09  0.4041  0.7701  0.01639  0.009298  -0.06152  0.004758  0.4302  0.7891
6.318e+09  0.6651  0.5325  -0.02238  -0.005806  0.0001949  0.02427  0.6597  0.5837
6.319e+09  0.7805  0.3061  -0.004559  0.008519  -0.02422  -0.03132  0.8357  0.2906
6.32e+09  0.853  0.001803  0.00935  -0.02353  -0.06303  -0.01397  0.8852  6.699e-05
6.321e+09  0.7959  -0.2859  -0.005385  0.01485  -0.01886  -0.01033  0.8412  -0.2942
6.322e+09  0.6793  -0.54  0.005128  0.008335  0.01116  0.01264  0.7037  -0.6114
6.324e+09  0.463  -0.7352  0.00576  -0.01384  0.04947  0.006903  0.4616  -0.7772
6.325e+09  0.09806  -0.8942  0.01684  -0.01618  -0.008411  -0.009673  0.169  -0.8941
6.326e+09  -0.2097  -0.8853  -0.01156  -0.001528  -0.003835  0.008141  -0.1164  -0.8893
6.328e+09  -0.464  -0.6935  0.00129  0.007437  -0.00915  -0.001614  -0.4517  -0.8246
6.329e+09  -0.7148  -0.5279  0.0275  -0.01392  0.02094  0.007003  -0.6716  -0.5897
6.33e+09  -0.8521  -0.2065  -0.02707  0.003995  -0.0501  0.00983  -0.8118  -0.3456
6.331e+09  -0.8618  0.056  -0.0011  0.03998  -0.0003761  -0.08165  -0.9474  -0.02244
6.332e+09  -0.8489  0.3521  -0.0006747  -0.01374  0.01029  0.01767  -0.8788  0.2472
6.334e+09  -0.6552  0.665  -0.0237  0.009602  0.01281  -0.02568  -0.7442  0.5364
6.335e+09  -0.371  0.8118  0.03908  -0.01611  -0.007559  0.006133  -0.5021  0.7881
6.336e+09  -0.06089  0.8569  -0.00278  -0.01604  -0.04992  0.01151  -0.1805  0.91
6.338e+09  0.2444  0.8149  0.0164  0.02922  -0.01204  -0.003702  0.1157  0.9275
6.339e+09  0.568  0.6724  0.006746  -0.03122  -0.04601  0.01442  0.4118  0.8229
6.34e+09  0.8125  0.4057  -0.0155  0.008083  -0.00649  0.02075  0.6759  0.6154
6.341e+09  0.8403  0.1415  -0.009613  0.02548  -0.01355  0.04402  0.8686  0.3592
6.342e+09  0.8815  -0.1997  -0.001004  -0.01055  0.03148  0.01776  0.9184  0.02895
6.344e+09  0.7622  -0.4135  0.00375  0.0189  -0.0168  -0.004431  0.8779  -0.2982
6.345e+09  0.5363  -0.688  -0.01018  -0.01415  0.01112  0.03751  0.7507  -0.5833
6.346e+09  0.2453  -0.8188  0.03144  0.008783  0.009676  0.01858  0.4986  -0.7928
6.348e+09  0.003427  -0.8612  0.01018  0.02705  -0.001107  0.04832  0.2396  -0.9059
6.349e+09  -0.3215  -0.7973  0.008212  0.009452  -0.04249  -0.0346  -0.08169  -0.9495
6.35e+09  -0.6071  -0.6381  -0.006001  0.02046  0.0044  0.01503  -0.4177  -0.8306
6.351e+09  -0.7766  -0.394  0.02143  -0.001327  -0.008034  0.02901  -0.7104  -0.6591
6.352e+09  -0.859  -0.05651  0.005822  -0.0003646  0.03833  -0.03117  -0.8771  -0.3858
6.354e+09  -0.8454  0.2204  -0.02111  0.001061  0.02686  0.01773  -0.9746  -0.07668
6.355e+09  -0.6953  0.5097  0.00132  0.003284  0.02917  0.04153  -0.8869  0.2599
6.356e+09  -0.486  0.749  -0.008784  -0.01562  -0.01173  -0.0001187  -0.7757  0.5646
6.358e+09  -0.1932  0.8631  0.01834  -0.001658  -0.0008821  0.001536  -0.5332  0.7785
6.359e+09  0.08746  0.8876  -0.01217  0.003652  0.01888  0.008819  -0.2504  0.8705
6.36e+09  0.3922  0.7822  0.0182  -0.00461  -0.04231  -0.009403  0.06734  0.9368
6.361e+09  0.673  0.588  0.002935  0.05474  0.02847  -0.01197  0.3897  0.8566
6.362e+09  0.8048  0.3579  -0.01601  -0.001059  -0.00157  0.01648  0.6818  0.6633
6.364e+09  0.8868  0.04752  -0.003981  0.004823  -0.02057  -0.02526  0.8417  0.3919
6.365e+09  0.8356  -0.2442  -0.01671  0.009709  0.004027  0.02028  0.9397  0.07961
6.366e+09  0.6713  -0.5724  0.001897  -0.01661  -0.02599  0.02113  0.9185  -0.2911
6.368e+09  0.5323  -0.7959  -0.02357  0.004867  0.002707  -0.04292  0.7725  -0.5628
6.369e+09  0.1446  -0.9358  -0.0118  -0.05757  0.002847  0.001369  0.528  -0.7679
6.37e+09  -0.2032  -0.8715  -0.01999  -0.009541  -0.02549  -0.02623  0.2742  -0.9375
6.371e+09  -0.4584  -0.6774  0.0009544  -0.04381  -0.009885  0.02149  -0.06603  -0.9773
6.372e+09  -0.6869  -0.5586  -0.00338  0.03414  0.03929  -0.00814  -0.3671  -0.87
6.374e+09  -0.7776  -0.2977  -0.01914  -0.006478  0.0229  0.003108  -0.6809  -0.6766
6.375e+09  -0.8918  0.04657  -0.003002  -0.01067  0.003592  -0.003039  -0.8519  -0.3837
6.376e+09  -0.8181  0.2947  -0.009486  0.00828  -0.0124  0.01915  -0.9498  -0.09815
6.378e+09  -0.6526  0.5937  -0.008892  0.04185  0.01987  0.04757  -0.9666  0.2622
6.379e+09  -0.362  0.7648  0.008565  -0.008826  0.06857  0.03456  -0.7849  0.5054
6.38e+09  -0.06102  0.8701  0.0106  -0.001248  0.006688  -0.004704  -0.5987  0.7659
6.381e+09  0.2241  0.8421  0.01279  0.003548  -0.008903  -0.01809  -0.2337  0.8548
6.382e+09  0.51  0.7104  0.03269  -0.008994  0.03491  0.006335  0.0855  0.9575
6.384e+09  0.6806  0.5137  -0.002104  0.03309  0.02787  -0.01871  0.3544  0.8712
6.385e+09  0.8824  0.2366  0.01019  0.01193  -0.001744  0.009641  0.6719  0.6811
6.386e+09  0.8843  -0.0588  0.02655  -0.02465  0.07624  0.04139  0.8104  0.4186
6.388e+09  0.8094  -0.3911  0.0137  -0.007541  0.02739  -0.01436  0.9453  0.1083
6.389e+09  0.6019  -0.6639  0.01943  0.02272  -0.006636  -0.02805  0.898  -0.2404
6.39e+09  0.3244  -0.7794  -0.01909  -0.02879  -0.01226  -0.005242  0.7668  -0.5103
6.391e+09  0.0006586  -0.8386  0.003195  -0.01073  -0.02779  -0.007527  0.5382  -0.7567
6.392e+09  -0.2801  -0.8106  -0.01097  0.0193  -0.01486  0.03175  0.2822  -0.9289
6.394e+09  -0.5647  -0.7019  -0.03435  0.0002371  -0.02626  0.011  -0.03835  -0.9432
6.395e+09  -0.7738  -0.3733  0.02134  -0.01122  0.001502  -0.04029  -0.3548  -0.8653
6.396e+09  -0.89  -0.1558  0.02298  0.02565  0.01049  -0.02026  -0.6401  -0.6625
6.398e+09  -0.8429  0.1428  0.05741  0.003054  -0.004716  0.03398  -0.7773  -0.4675
6.399e+09  -0.7624  0.4221  0.00279  0.01166  0.004766  0.005276  -0.9073  -0.163
6.4e+09  -0.5999  0.6963  -0.007218  -0.02097  -0.02711  0.003528  -0.8584  0.1616
6.401e+09  -0.2949  0.8654  -0.01714  -0.02898  -0.00126  -0.008832  -0.8097  0.4584
6.402e+09  0.0009983  0.8655  -0.009243  -0.03811  -0.02013  0.0313  -0.6023  0.7284
6.404e+09  0.3443  0.7941  -0.009219  -0.02684  -0.01351  -0.01632  -0.3009  0.8742
6.405e+09  0.5794  0.66  -0.003635  -0.02181  0.009439  0.00268  -0.005355  0.8932
6.406e+09  0.7615  0.4399  0.01663  0.008182  0.02462  -0.01375  0.3059  0.8405
6.408e+09  0.8762  0.1385  -0.01735  -0.01022  -0.04873  0.01671  0.604  0.7115
6.409e+09  0.8733  -0.2715  -0.0113  -0.005157  0.02376  -0.008076  0.7972  0.4274
6.41e+09  0.7568  -0.5443  0.007947  0.005298  0.02912  0.01286  0.9022  0.1771
6.411e+09  0.5161  -0.684  0.005955  0.01624  0.005814  0.008908  0.9126  -0.1455
6.412e+09  0.2442  -0.893  -0.009749  -0.03685  0.04273  -0.01858  0.7838  -0.4656
6.414e+09  -0.0839  -0.9145  0.02363  0.004208  0.02078  0.05787  0.5953  -0.6968
6.415e+09  -0.4324  -0.8229  0.03661  -0.005031  -0.01748  -0.003337  0.3356  -0.8075
6.416e+09  -0.6688  -0.5888  0.01614  -0.003378  -0.007671  -0.01162  0.02013  -0.856
6.418e+09  -0.8295  -0.3397  -0.03392  -0.02606  -0.001981  -0.01941  -0.2892  -0.8807
6.419e+09  -0.8692  -0.005227  0.03932  0.02869  0.02628  -0.02841  -0.5976  -0.6467
6.42e+09  -0.8652  0.2572  -0.0008413  0.01882  0.01594  0.004075  -0.73  -0.5203
6.421e+09  -0.7257  0.5452  0.01336  -0.004176  -0.05877  0.01091  -0.8586  -0.2344
6.422e+09  -0.3993  0.7489  -0.03569  -0.01618  0.01619  -0.002589  -0.8573  0.1206
6.424e+09  -0.1104  0.9165  0.01974  0.03701  -0.01588  -0.001611  -0.789  0.4126
6.425e+09  0.2118  0.8472  -0.02968  0.03245  -0.03169  -0.03056  -0.5728  0.6873
6.426e+09  0.4998  0.7413  0.006207  -0.006067  0.01157  0.01973  -0.3353  0.8216
6.428e+09  0.7314  0.5662  -0.03473  0.01533  0.03812  0.03547  -0.02479  0.8872
6.429e+09  0.8578  0.2313  0.0009803  0.02723  -0.004107  9.695e-05  0.2614  0.8532
6.43e+09  0.8982  -0.03461  0.02458  -0.01061  -0.03423  -0.008805  0.5495  0.6559
6.431e+09  0.8108  -0.3935  -0.003756  0.04272  -0.02726  -0.03473  0.7122  0.4886
6.432e+09  0.6009  -0.6693  -0.03748  0.01836  -0.05149  0.04443  0.8313  0.1787
6.434e+09  0.3528  -0.8561  0.03584  0.00717  0.009014  -0.002245  0.864  -0.07005
6.435e+09  0.01759  -0.8714  -0.0312  -0.008677  0.01424  0.01871  0.7616  -0.4057
6.436e+09  -0.2889  -0.848  -0.004741  0.06172  0.03279  0.01974  0.5953  -0.6088
6.438e+09  -0.5648  -0.6833  0.02344  0.05453  0.09954  -0.02477  0.3571  -0.8062
6.439e+09  -0.7819  -0.4368  -0.005429  -0.01128  0.02389  0.02322  0.04768  -0.8657
6.44e+09  -0.8529  -0.1498  0.0229  0.01737  -0.06511  0.037  -0.2305  -0.8243
6.441e+09  -0.958  0.1872  0.01639  -0.01135  -0.06657  0.04102  -0.4861  -0.7085
6.442e+09  -0.7747  0.5098  -0.005832  0.0244  0.01202  -0.01459  -0.6704  -0.4533
6.444e+09  -0.5174  0.7744  -0.03876  0.01355  -0.03716  0.03516  -0.8557  -0.1989
6.445e+09  -0.2381  0.895  -0.003516  0.004495  -0.02161  0.01897  -0.8418  0.05614
6.446e+09  0.1187  0.9083  -0.007187  0.002882  -0.0167  -0.01147  -0.7459  0.3793
6.448e+09  0.4339  0.8389  -0.02245  -0.004363  0.01761  0.03188  -0.6121  0.6079
6.449e+09  0.6848  0.6195  -0.02235  0.01946  0.01315  0.01669  -0.3532  0.7891
6.45e+09  0.8869  0.3138  0.01758  0.02198  0.03372  -0.001017  -0.104  0.8594
6.451e+09  0.9031  0.01532  0.001435  -0.02901  -0.02684  0.05694  0.2415  0.7923
6.452e+09  0.8572  -0.3286  -0.02531  -0.01502  0.004527  -0.03431  0.472  0.6831
6.454e+09  0.7302  -0.6179  0.03082  0.02595  0.06446  -0.02145  0.693  0.4559
6.455e+09  0.4612  -0.8252  -0.0194  0.05213  1.553e-07  0.02811  0.784  0.2235
6.456e+09  0.06879  -0.9291  -0.0328  -0.05504  0.01761  0.01092  0.8476  -0.04761
6.458e+09  -0.2697  -0.859  -0.00346  -0.002691  0.0003757  -0.01088  0.8028  -0.3331
6.459e+09  -0.5474  -0.7139  -0.02679  0.02055  -0.03858  0.02644  0.6188  -0.5694
6.46e+09  -0.7843  -0.4466  0.0215  -0.01214  -0.09739  0.03506  0.3905  -0.7651
6.461e+09  -0.8982  -0.1457  0.01425  -0.03053  0.03372  -0.008823  0.0862  -0.8111
6.462e+09  -0.9435  0.1521  0.01372  -0.005954  -0.00885  -0.02084  -0.2066  -0.7458
6.464e+09  -0.8104  0.457  -0.002569  0.0003044  -0.002878  0.03663  -0.4842  -0.6695
6.465e+09  -0.5512  0.7204  0.05868  -0.009604  0.006754  0.05389  -0.6616  -0.4396
6.466e+09  -0.2243  0.8398  -0.009722  -0.01711  0.01633  0.04606  -0.8169  -0.1691
6.468e+09  0.08379  0.8883  0.004658  0.03305  -0.01591  -0.01492  -0.8417  0.07345
6.469e+09  0.4331  0.8425  0.01143  -0.01229  -0.0211  0.0349  -0.6885  0.3652
6.47e+09  0.6501  0.6077  0.02918  -0.03642  -0.007946  -0.007545  -0.6034  0.5657
6.471e+09  0.8713  0.3065  0.008932  -0.02623  -0.0524  0.03014  -0.3613  0.7323
6.472e+09  0.8982  -0.009224  -0.00609  0.03561  0.0006798  0.01286  -0.05579  0.7698
6.474e+09  0.868  -0.3048  0.02176  0.008246  -0.01981  0.02418  0.2112  0.7831
6.475e+09  0.6065  -0.5886  -0.03709  0.02495  -0.009033  -0.004677  0.4572  0.6207
6.476e+09  0.4021  -0.792  -0.005224  -0.00456  -0.02498  0.031  0.6691  0.4428
6.478e+09  0.03545  -0.9189  -0.01739  -0.04823  0.01769  -0.01258  0.7527  0.191
6.479e+09  -0.2729  -0.8712  0.01428  0.004773  -0.01472  0.02647  0.7384  -0.08885
6.48e+09  -0.5488  -0.6979  0.03651  -0.01018  0.01459  -0.04643  0.6864  -0.304
6.481e+09  -0.7549  -0.4565  -0.0008234  -0.03087  0.02121  0.001396  0.5726  -0.5635
6.482e+09  -0.8847  -0.1092  -0.004613  0.03562  0.03286  0.02439  0.2675  -0.7024
6.484e+09  -0.8749  0.208  -0.00661  0.04261  0.03447  0.05076  0.06309  -0.7616
6.485e+09  -0.7208  0.48  0.01723  -0.01229  -0.02255  -0.0323  -0.2254  -0.7385
6.486e+09  -0.444  0.6995  0.008367  -0.001181  0.02564  -0.01318  -0.4689  -0.6538
6.488e+09  -0.2185  0.8201  0.02366  0.01836  -0.01496  0.01073  -0.6313  -0.4295
6.489e+09  0.0912  0.8431  0.005541  -0.01123  -0.02202  0.045  -0.7599  -0.147
6.49e+09  0.4333  0.7255  -0.01534  0.01885  -0.02413  -0.008661  -0.7564  0.08721
6.491e+09  0.6373  0.5345  -0.002038  -0.01488  -0.02412  -0.05439  -0.6955  0.3751
6.492e+09  0.7605  0.2626  -0.01559  0.02244  -0.001715  -0.02185  -0.5036  0.5424
6.494e+09  0.813  -0.03523  0.004517  -0.03192  0.003227  -0.01023  -0.321  0.7367
6.495e+09  0.7734  -0.3752  0.01027  -0.01211  -0.02282  -0.02463  -0.04959  0.7425
6.496e+09  0.5856  -0.5922  -0.0424  0.002943  0.03962  0.03511  0.2297  0.7425
6.498e+09  0.2709  -0.715  0.01561  0.02857  0.006566  0.02443  0.5051  0.6205
6.499e+09  0.008732  -0.8034  0.02111  0.07331  0.002254  -0.01351  0.6695  0.4452
6.5e+09  -0.2305  -0.8127  -0.006943  -0.0062  -0.001854  0.02732  0.7219  0.15
6.501e+09  -0.529  -0.5968  -0.02019  0.05355  0.0003523  -0.006866  0.7714  -0.1325
6.502e+09  -0.7021  -0.3916  0.01306  -0.01203  0.00144  0.01327  0.6662  -0.3524
6.504e+09  -0.7494  -0.1242  -0.01235  0.02179  -0.06633  -0.05419  0.5235  -0.5778
6.505e+09  -0.7494  0.1864  0.01666  -0.01619  0.05234  -0.01975  0.3149  -0.7313
6.506e+09  -0.6314  0.4931  -0.003669  -0.05802  0.0008729  -0.04357  0.007395  -0.7775
6.508e+09  -0.3883  0.6686  0.02339  -0.008705  0.04756  -0.0005664  -0.2814  -0.6986
6.509e+09  -0.1527  0.7693  0.01841  -0.005875  0.009828  -0.00188  -0.4975  -0.5954
6.51e+09  0.1378  0.7411  -0.0005935  0.04987  -0.02552  -0.001747  -0.648  -0.3666
6.511e+09  0.3958  0.7042  0.01761  -0.01319  -0.01184  -0.01067  -0.7542  -0.1444
6.512e+09  0.5992  0.4922  -0.03561  -0.0121  -0.03514  0.02131  -0.7463  0.1346
6.514e+09  0.7048  0.2394  0.02305  0.01835  -0.05703  -0.01949  -0.6662  0.3736
6.515e+09  0.7387  -0.04423  -0.01058  0.02908  0.0134  -0.02226  -0.4847  0.5619
6.516e+09  0.6694  -0.3588  0.0006424  -0.01094  -0.01886  -0.03672  -0.2837  0.6878
6.518e+09  0.5716  -0.5697  -0.01538  -0.03035  0.03428  -0.03662  0.005115  0.7402
6.519e+09  0.3058  -0.6223  -0.006443  -0.01947  -0.02501  0.006784  0.3064  0.7159
6.52e+09  0.002533  -0.7318  0.0007714  -0.01224  -0.04093  -0.01908  0.5144  0.5588
6.521e+09  -0.2114  -0.7103  0.004503  0.006757  -0.03126  -0.002615  0.6596  0.3311
6.522e+09  -0.4936  -0.6217  -0.004883  -0.006809  -0.004441  0.02808  0.7254  0.1046
6.524e+09  -0.6505  -0.3403  0.008291  -8.923e-05  0.004809  -0.003836  0.7019  -0.1732
6.525e+09  -0.727  -0.1198  -0.04735  -0.0297  0.005739  -0.06352  0.6295  -0.3855
6.526e+09  -0.6788  0.1439  -0.006284  -0.01826  0.02096  0.005134  0.4344  -0.5773
6.528e+09  -0.6173  0.4399  -0.01718  0.0131  -0.07907  0.02462  0.184  -0.6789
6.529e+09  -0.4181  0.692  0.02146  0.002775  0.04635  0.004291  -0.03416  -0.6944
6.53e+09  -0.1503  0.7384  -0.01484  0.002521  0.05794  0.008894  -0.2921  -0.6058
6.531e+09  0.1299  0.6912  0.01964  -0.005286  -0.02418  -0.02012  -0.5008  -0.4437
6.532e+09  0.4064  0.5748  0.01259  0.001109  0.07939  -0.01763  -0.604  -0.26
6.534e+09  0.5669  0.4715  0.01079  0.01428  0.02499  -0.02613  -0.6348  -0.09933
6.535e+09  0.6614  0.2335  0.02813  0.03269  0.01159  -0.07309  -0.647  0.1245
6.536e+09  0.7257  -0.0237  0.01303  0.006579  -0.01628  0.003539  -0.562  0.3346
6.538e+09  0.6658  -0.3222  0.004446  -0.01922  -0.03669  0.02205  -0.4717  0.5016
6.539e+09  0.5078  -0.526  0.005104  -9.279e-05  0.02612  -0.02968  -0.3055  0.6081
6.54e+09  0.2702  -0.7378  -0.00706  0.03678  -0.01784  0.04962  -0.05408  0.7088
6.541e+09  0.02186  -0.6917  -0.01931  -0.02156  -0.01263  -0.01919  0.1778  0.666
6.542e+09  -0.216  -0.6993  -0.03327  -0.0297  0.00635  0.03056  0.3972  0.5763
6.544e+09  -0.4198  -0.5275  -0.006453  -0.002729  -0.001352  0.01733  0.6149  0.4293
6.545e+09  -0.6799  -0.3566  -0.0018  0.0008884  0.00215  0.005392  0.7125  0.185
6.546e+09  -0.6817  -0.1245  -0.006551  0.01453  0.005578  0.01722  0.6928  -0.08582
6.548e+09  -0.7036  0.2135  0.001968  -0.01774  0.01965  0.01629  0.6944  -0.3317
6.549e+09  -0.5575  0.3872  0.01025  -0.0151  0.009934  0.05484  0.4698  -0.5279
6.55e+09  -0.3931  0.6065  -0.0169  0.001116  0.03776  -0.009573  0.2675  -0.6788
