# Hz S RI R 50
6.25e+09  -0.2563  0.8769  0.008564  0.007194  0.01926  0.03015  0.169  0.4992
6.251e+09  0.03951  0.926  -0.01367  -0.003416  0.04343  -0.0495  0.3581  0.4171
6.252e+09  0.337  0.8375  0.002481  -0.0005359  -0.04661  -0.003284  0.5316  0.2194
6.254e+09  0.5952  0.6938  0.01957  0.009628  0.02096  -0.0386  0.6202  0.03147
6.255e+09  0.7692  0.3799  0.004124  -0.02325  0.0003637  0.031  0.5609  -0.2614
6.256e+09  0.7981  0.0996  0.01084  -0.001846  -0.007181  0.009541  0.4748  -0.4561
6.258e+09  0.8308  -0.242  0.02106  0.008317  0.005551  -0.03707  0.2798  -0.6031
6.259e+09  0.7009  -0.4996  0.01473  -0.002239  0.04466  0.01468  0.06647  -0.7162
6.26e+09  0.5389  -0.7065  0.03002  0.007307  -0.0267  -0.01876  -0.2014  -0.6669
6.261e+09  0.2595  -0.8569  0.01652  0.01212  -0.0443  -0.00329  -0.463  -0.5163
6.262e+09  -0.08629  -0.7982  0.002973  -0.04407  -0.003225  -0.01164  -0.6223  -0.3566
6.264e+09  -0.3827  -0.7508  0.006022  0.01369  -0.01228  -0.05281  -0.6971  -0.09946
6.265e+09  -0.6034  -0.5213  -0.01725  -0.03008  0.01782  0.01839  -0.7176  0.1608
6.266e+09  -0.7464  -0.348  -0.007751  0.001464  0.03431  -0.07294  -0.6105  0.4281
6.268e+09  -0.8075  -0.1192  0.02705  -0.004336  -0.00434  0.005805  -0.4345  0.6201
6.269e+09  -0.8079  0.1646  0.01671  -0.03151  0.02175  0.02994  -0.1889  0.7114
6.27e+09  -0.6662  0.4705  -0.007573  0.01035  -0.02069  -0.01469  0.09296  0.7392
6.271e+09  -0.4785  0.6826  0.003631  -0.02572  -0.01011  -0.003063  0.3296  0.6537
6.272e+09  -0.1943  0.8138  0.01592  -0.002853  -0.05644  0.03557  0.4754  0.5279
6.274e+09  0.05302  0.7944  0.004264  -0.002822  0.05195  -0.01189  0.6568  0.3231
6.275e+09  0.2931  0.7403  -0.02195  -0.004403  -0.02603  0.0411  0.7471  0.0148
6.276e+09  0.6404  0.5989  0.02561  0.008715  0.03787  0.008105  0.714  -0.2327
6.278e+09  0.7558  0.3694  -0.01364  -0.007467  -0.008641  -0.04393  0.6044  -0.449
6.279e+09  0.7904  0.01748  -0.02726  0.01876  0.009057  0.01204  0.4143  -0.6334
6.28e+09  0.7923  -0.225  -0.009019  -0.004431  -0.06331  0.03478  0.164  -0.7405
6.281e+09  0.6936  -0.5459  0.006731  -0.02536  -0.02559  0.01238  -0.1  -0.7718
6.282e+09  0.4775  -0.7017  0.02404  0.01286  0.07529  0.0194  -0.3372  -0.6898
6.284e+09  0.1982  -0.846  0.001166  0.01615  -0.02375  -0.006703  -0.5931  -0.5417
6.285e+09  -0.06136  -0.8299  0.01945  0.003768  0.04453  -0.02023  -0.7169  -0.287
6.286e+09  -0.3896  -0.7105  0.0116  0.01532  0.03587  0.03084  -0.7783  -0.01444
6.288e+09  -0.5854  -0.5652  -0.02538  -0.005917  -0.0145  0.05742  -0.7333  0.2639
6.289e+09  -0.7479  -0.3279  0.003872  0.02415  -0.04741  -0.04038  -0.6474  0.5106
6.29e+09  -0.8707  -0.03082  -0.00435  0.006856  -0.01025  0.001977  -0.43  0.7059
6.291e+09  -0.7678  0.3142  -0.03799  0.02241  0.03194  0.05182  -0.1379  0.8247
6.292e+09  -0.6532  0.4313  0.01571  0.04082  0.04851  -0.05638  0.1253  0.8177
6.294e+09  -0.4201  0.714  -0.0003267  -0.02155  0.03103  0.02753  0.4252  0.6837
6.295e+09  -0.2058  0.795  -0.00966  0.0004239  -0.02785  0.02795  0.6209  0.5262
6.296e+09  0.1753  0.8693  -0.01592  0.0204  0.0412  0.0004044  0.7543  0.2789
6.298e+09  0.4271  0.73  0.01915  -0.007413  -0.03858  -0.004982  0.8051  0.01342
6.299e+09  0.6557  0.519  -0.01031  0.001663  -0.01018  0.01579  0.7908  -0.2807
6.3e+09  0.7833  0.276  -0.01269  -0.03177  0.02648  -0.02229  0.6648  -0.5009
6.301e+09  0.7947  -0.03528  0.02035  0.01401  0.05386  -0.01856  0.4116  -0.7441
6.302e+09  0.8398  -0.3345  -0.00521  -0.03116  0.01888  0.01816  0.1598  -0.8387
6.304e+09  0.6202  -0.5529  -0.01727  6.692e-05  0.03097  0.02591  -0.149  -0.8533
6.305e+09  0.3899  -0.7645  0.03148  0.01519  0.01353  0.01531  -0.4139  -0.7066
6.306e+09  0.1737  -0.7881  -0.002057  0.002999  -0.004256  0.04512  -0.6299  -0.5461
6.308e+09  -0.1485  -0.8239  0.01008  -0.01212  0.02073  0.04908  -0.813  -0.3279
6.309e+09  -0.4617  -0.7413  -0.02718  -0.0225  0.007145  0.01375  -0.859  -0.008021
6.31e+09  -0.6353  -0.5061  0.03921  -0.002932  0.05164  0.01047  -0.8045  0.3079
6.311e+09  -0.8243  -0.2848  -0.02006  -0.009964  -0.02717  0.007725  -0.665  0.5802
6.312e+09  -0.8595  0.03375  -0.002859  0.02507  -0.01314  -0.01429  -0.4283  0.7139
6.314e+09  -0.7786  0.3751  -0.0159  -0.01707  -0.02936  0.006435  -0.1592  0.8231
6.315e+09  -0.6572  0.5948  -0.006797  0.003105  0.01183  -0.01233  0.1337  0.8742
6.316e+09  -0.3628  0.7443  0.03204  -0.005645  -0.02937  0.06603  0.4467  0.7641
6.318e+09  -0.07008  0.8378  0.02005  -0.03417  0.00397  0.005319  0.6796  0.5918
6.319e+09  0.2039  0.8063  0.009646  0.007964  0.02676  -0.01672  0.8184  0.2915
6.32e+09  0.4885  0.7015  0.01555  -0.006442  -0.0007493  0.007637  0.8506  -0.04141
6.321e+09  0.7359  0.4915  -0.03119  0.003872  -0.001368  0.005074  0.8643  -0.2713
6.322e+09  0.8258  0.191  0.01798  -0.006139  -0.01227  0.02727  0.6852  -0.5854
6.324e+09  0.8963  -0.1176  0.03132  -0.001798  -0.02488  0.02907  0.4944  -0.7625
6.325e+09  0.8498  -0.3326  -0.03198  -0.002072  -0.0288  0.005457  0.1518  -0.8903
6.326e+09  0.6473  -0.635  -0.01393  -0.01428  0.01028  0.01786  -0.1324  -0.8844
6.328e+09  0.3374  -0.7678  0.008511  -0.00403  0.02444  0.005901  -0.4817  -0.7577
6.329e+09  0.02438  -0.8912  -0.0001906  -0.004227  0.01171  0.004087  -0.7121  -0.6409
6.33e+09  -0.2607  -0.8665  -0.006742  -0.0006842  0.004904  0.003217  -0.8603  -0.3845
6.331e+09  -0.4936  -0.7079  -8.73e-05  -0.004557  0.002457  0.01846  -0.928  -0.03274
6.332e+09  -0.7877  -0.4332  0.01697  -0.02952  -0.0006318  0.006094  -0.8809  0.2891
6.334e+09  -0.8209  -0.141  0.01569  -0.01431  -0.01587  0.02781  -0.689  0.5517
6.335e+09  -0.9141  0.1028  -0.0207  -0.01754  -0.03126  0.01948  -0.4743  0.776
6.336e+09  -0.7454  0.3978  0.01572  0.003734  0.02468  -0.02032  -0.1311  0.9367
6.338e+09  -0.5636  0.6824  0.03543  -0.009284  -0.0119  -0.02104  0.1281  0.9102
6.339e+09  -0.2876  0.8334  0.01691  0.01404  0.007852  0.0434  0.4493  0.8184
6.34e+09  0.01196  0.895  0.01037  -0.009608  -0.03362  0.005613  0.6291  0.6184
6.341e+09  0.3117  0.7877  0.00474  -0.006742  -0.009663  0.02225  0.8738  0.3536
6.342e+09  0.5536  0.7158  -0.001663  -0.02702  0.02587  0.004783  0.9508  0.02351
6.344e+09  0.7998  0.3877  0.01761  -0.0112  0.02709  -0.004034  0.9127  -0.2935
6.345e+09  0.9154  0.1035  0.03882  -0.03523  -0.006852  -0.007626  0.7592  -0.5544
6.346e+09  0.8887  -0.2078  -0.03352  0.02001  0.05991  0.001296  0.4875  -0.7547
6.348e+09  0.7398  -0.5128  0.0005839  0.02737  0.04854  -0.04585  0.2174  -0.9025
6.349e+09  0.5094  -0.6906  -0.0188  0.009902  0.02793  -0.02391  -0.09068  -0.9058
6.35e+09  0.2569  -0.8791  0.02025  0.01782  -0.004703  0.0006048  -0.4274  -0.8217
6.351e+09  -0.0755  -0.8733  -0.05493  -0.005433  -0.0216  -0.01016  -0.6961  -0.642
6.352e+09  -0.3907  -0.8471  0.003017  -0.01994  -0.01783  0.0003757  -0.858  -0.3601
6.354e+09  -0.6175  -0.6868  -0.06542  0.03066  -0.03095  -0.01868  -0.9597  -0.04674
6.355e+09  -0.8114  -0.3856  0.0286  0.01172  -0.001209  0.0122  -0.9199  0.2809
6.356e+09  -0.9336  -0.06161  0.02259  0.03006  0.01561  -0.04634  -0.7442  0.5587
6.358e+09  -0.8783  0.217  0.0162  0.007597  -0.02831  0.001185  -0.481  0.8296
6.359e+09  -0.7386  0.5738  -0.02799  -0.00281  -0.006783  0.03028  -0.23  0.8827
6.36e+09  -0.4794  0.6669  0.02345  -0.004825  -0.03573  0.008487  0.0983  0.9164
6.361e+09  -0.1775  0.8189  -0.01545  0.06236  -0.01752  -0.01217  0.434  0.8648
6.362e+09  0.125  0.8265  -0.0371  0.001542  -0.02662  -0.01067  0.6618  0.6179
6.364e+09  0.4582  0.8041  -0.02323  0.009898  -0.001793  0.007711  0.8868  0.4391
6.365e+09  0.6733  0.5411  -0.001511  -0.03855  0.01919  -0.01298  0.935  0.07606
6.366e+09  0.8323  0.329  0.04293  -0.01359  -0.006969  0.001986  0.9531  -0.2701
6.368e+09  0.9077  -0.007401  0.003755  -0.01285  0.03827  -0.005616  0.7854  -0.5342
6.369e+09  0.8669  -0.3222  0.0105  -0.01541  0.02037  -0.04638  0.5503  -0.7639
6.37e+09  0.705  -0.5704  -0.02165  -0.007892  -0.0261  -0.006457  0.2632  -0.8807
6.371e+09  0.4515  -0.7714  0.0008177  0.002018  -0.03404  -0.0008216  -0.0617  -0.956
6.372e+09  0.1451  -0.8956  -0.01332  0.005621  -0.002906  0.01337  -0.3823  -0.8773
6.374e+09  -0.1578  -0.9309  -0.003881  -0.03817  0.01049  0.01221  -0.7006  -0.6759
6.375e+09  -0.4558  -0.781  -0.03293  0.01364  -0.03041  -0.02003  -0.8174  -0.3768
6.376e+09  -0.658  -0.5452  0.03718  0.04604  0.01353  0.04168  -0.9446  -0.08265
6.378e+09  -0.8262  -0.2704  -0.005204  -0.007693  0.03712  -0.06992  -0.9253  0.2078
6.379e+09  -0.8933  0.01314  -0.02531  -0.0318  -0.01742  -0.008337  -0.806  0.5078
6.38e+09  -0.8452  0.3482  0.009738  -4.317e-05  -0.008751  -0.04397  -0.534  0.7674
6.381e+09  -0.6922  0.6238  -0.009749  0.02237  0.0007529  0.006812  -0.2546  0.902
6.382e+09  -0.4402  0.8199  -0.0125  0.007086  -0.0188  -0.005044  0.03894  0.9197
6.384e+09  -0.1255  0.887  0.007236  -0.02148  0.02698  -0.01472  0.3757  0.8621
6.385e+09  0.2158  0.8777  0.004697  -0.01583  -0.009508  0.03739  0.6209  0.7326
6.386e+09  0.5219  0.7094  -0.009019  -0.00233  0.009708  0.04365  0.8116  0.4267
6.388e+09  0.7067  0.5309  0.007632  -0.01092  -0.03127  0.006004  0.8618  0.108
6.389e+09  0.8893  0.2457  0.004462  0.01969  0.004381  0.03811  0.9335  -0.2171
6.39e+09  0.9327  0.02325  -0.02372  -0.0106  0.0001506  0.009272  0.7638  -0.4723
6.391e+09  0.8506  -0.3922  -0.02712  0.01045  -0.004237  0.01779  0.522  -0.7314
6.392e+09  0.6668  -0.62  0.01548  0.01889  0.02227  0.005283  0.2707  -0.8977
6.394e+09  0.436  -0.8179  -0.01357  -0.003004  -0.00904  0.0006656  -0.0299  -0.9565
6.395e+09  0.1326  -0.8927  -0.03378  0.03061  -0.02355  0.01245  -0.363  -0.8931
6.396e+09  -0.2565  -0.886  -0.01349  -0.03847  0.006983  -0.004177  -0.6199  -0.6977
6.398e+09  -0.4967  -0.777  0.04587  0.02488  0.04305  -0.02187  -0.8362  -0.4416
6.399e+09  -0.7288  -0.4962  0.02604  0.02179  -0.03207  0.03402  -0.8957  -0.1441
6.4e+09  -0.8555  -0.1797  -0.006696  -0.01691  0.03053  0.006845  -0.8951  0.166
6.401e+09  -0.8527  0.1116  -0.01754  0.01512  0.007579  -0.02225  -0.7862  0.479
6.402e+09  -0.8304  0.3362  0.003801  0.0245  0.0105  0.0168  -0.6179  0.7536
6.404e+09  -0.6293  0.6446  0.02362  0.03618  0.02919  -0.01589  -0.3372  0.8602
6.405e+09  -0.3672  0.743  0.03094  0.03615  -0.01726  0.05025  -0.02782  0.9116
6.406e+09  -0.07082  0.8458  0.02639  0.01206  0.05135  -0.01328  0.3148  0.8497
6.408e+09  0.2419  0.8684  0.008408  0.0328  0.006412  -0.01881  0.5987  0.6896
6.409e+09  0.5101  0.7144  0.01749  -0.01934  0.01327  -0.008736  0.7956  0.4761
6.41e+09  0.754  0.5514  -0.02325  0.009116  -0.0129  -0.0008357  0.875  0.1706
6.411e+09  0.8443  0.2251  0.00724  -0.0002102  -0.0256  -0.01015  0.9123  -0.1462
6.412e+09  0.8879  -0.1024  -0.006576  0.01342  0.01088  0.0461  0.8222  -0.4821
6.414e+09  0.7814  -0.3804  0.04909  0.001952  -0.01437  -0.03149  0.6293  -0.6654
6.415e+09  0.6434  -0.6523  0.03142  0.02829  -0.01975  -0.0001551  0.3381  -0.8642
6.416e+09  0.3463  -0.8122  -0.01628  0.03534  0.01588  0.02781  0.04363  -0.8964
6.418e+09  0.035  -0.8559  -0.01224  -0.006895  0.05034  -0.04732  -0.2818  -0.8033
6.419e+09  -0.246  -0.855  -0.02433  0.01416  0.005714  0.01515  -0.4998  -0.6991
6.42e+09  -0.5118  -0.7683  0.008554  0.04712  -0.0383  0.05441  -0.7531  -0.4805
6.421e+09  -0.7547  -0.4728  -0.00663  0.03746  -0.0122  -0.009728  -0.8581  -0.1537
6.422e+09  -0.8851  -0.2102  0.01487  0.02598  0.02668  0.003659  -0.8904  0.09995
6.424e+09  -0.8801  0.139  0.04678  0.02865  -0.007509  -0.01888  -0.7737  0.3963
6.425e+09  -0.7995  0.4167  -0.003385  -0.03507  -0.03667  -0.01358  -0.5811  0.6423
6.426e+09  -0.638  0.675  -0.01509  0.03391  -0.004962  0.006532  -0.2834  0.8111
6.428e+09  -0.3412  0.8101  -0.0258  -0.01832  0.01057  -0.0215  -0.0814  0.8565
6.429e+09  -0.03099  0.8906  0.01224  -0.006333  0.04091  0.01833  0.2425  0.8626
6.43e+09  0.2808  0.8742  0.009176  0.005304  0.04284  -0.004981  0.4987  0.7147
6.431e+09  0.5594  0.7204  -0.009956  -0.01942  -0.002415  0.001402  0.7323  0.4385
6.432e+09  0.75  0.4178  -0.0294  0.01892  -0.02309  -0.006713  0.8237  0.1999
6.434e+09  0.8553  0.1909  0.0135  0.01169  0.0122  -0.01241  0.8503  -0.09393
6.435e+09  0.914  -0.1243  -0.005724  -0.01861  -0.02244  -0.02981  0.791  -0.3898
6.436e+09  0.817  -0.4858  -0.05183  0.01743  0.008937  -0.0007395  0.609  -0.6119
6.438e+09  0.5752  -0.6619  0.02345  0.0109  -0.03426  -0.02792  0.3693  -0.8279
6.439e+09  0.3132  -0.8271  -0.04389  0.0302  0.01384  -0.06391  0.06304  -0.8327
6.44e+09  0.04063  -0.9228  0.04384  0.001106  0.0007575  0.03914  -0.2258  -0.8193
6.441e+09  -0.2585  -0.8528  0.04114  0.003619  0.04325  -0.01407  -0.4803  -0.729
6.442e+09  -0.56  -0.6763  -0.026  0.01336  -0.0204  0.0004371  -0.6929  -0.4247
6.444e+09  -0.729  -0.424  -0.0009637  -0.03721  0.01515  0.002644  -0.8071  -0.2293
6.445e+09  -0.9085  -0.1764  0.007791  -0.008219  -0.02685  -0.009538  -0.8914  0.1118
6.446e+09  -0.8738  0.1295  0.02151  0.02659  0.02968  0.02635  -0.7805  0.3547
6.448e+09  -0.7457  0.4172  -0.02541  -0.002221  -0.03035  -0.005237  -0.5854  0.5542
6.449e+09  -0.619  0.6724  0.03339  -0.03022  -0.00544  -0.005785  -0.3279  0.7551
6.45e+09  -0.3103  0.777  -0.03444  -0.03127  -0.01638  0.03005  -0.1097  0.8305
6.451e+09  -0.01365  0.9277  -0.02449  0.02158  -0.02436  -0.06251  0.2097  0.8033
6.452e+09  0.3079  0.8617  0.03135  -0.03098  -0.02975  -0.02077  0.467  0.7096
6.454e+09  0.5873  0.7728  -0.01613  0.0005484  -0.01261  0.006015  0.7084  0.5039
6.455e+09  0.7576  0.4737  0.00734  -0.01116  -0.008406  5.28e-05  0.8065  0.2281
6.456e+09  0.8969  0.1439  -0.03973  -0.009497  -0.02031  -0.04703  0.8129  -0.09914
6.458e+09  0.8631  -0.1492  0.006088  0.02724  0.004145  0.01242  0.7311  -0.3485
6.459e+09  0.755  -0.436  0.01835  -0.01713  -0.01239  -0.02447  0.5618  -0.5482
6.46e+09  0.5761  -0.7008  -0.007665  -0.01113  0.0314  0.03012  0.3097  -0.7387
6.461e+09  0.2888  -0.8381  -0.006959  0.007327  0.04759  0.05967  0.05063  -0.8517
6.462e+09  0.01868  -0.9278  0.01018  -0.00341  0.01858  0.007706  -0.2215  -0.8071
6.464e+09  -0.331  -0.8778  -0.02307  -0.01391  0.01787  -0.0234  -0.4943  -0.6549
6.465e+09  -0.5843  -0.6669  -0.01314  0.02395  -0.03526  -0.02786  -0.6569  -0.4457
6.466e+09  -0.8172  -0.4338  0.006855  0.000176  0.00619  -0.02624  -0.7894  -0.1886
6.468e+09  -0.8968  -0.1259  -0.005545  0.005132  -0.04694  0.02531  -0.8139  0.07949
6.469e+09  -0.9591  0.1745  0.01533  -0.01871  -0.05208  -0.0002232  -0.7197  0.3308
6.47e+09  -0.7915  0.5189  -0.04623  -0.0658  -0.02767  0.04255  -0.5083  0.6062
6.471e+09  -0.5937  0.7098  -0.01035  -0.03407  0.07507  0.01024  -0.3222  0.7241
6.472e+09  -0.2336  0.8507  0.02046  0.005493  0.005717  -0.02836  -0.08309  0.7807
6.474e+09  -0.01949  0.8798  0.0008971  -0.00421  -0.002192  0.07103  0.1784  0.7598
6.475e+09  0.3214  0.8917  -0.01736  -0.03857  -0.005222  0.02107  0.4666  0.6352
6.476e+09  0.6174  0.7344  0.01108  -0.02058  -0.04098  -0.01374  0.6883  0.4375
6.478e+09  0.882  0.3799  -0.003923  0.0183  0.01533  0.02372  0.8106  0.17
6.479e+09  0.912  0.1117  -0.003068  0.01535  -0.04397  -0.0103  0.8028  -0.0913
6.48e+09  0.8961  -0.1842  -0.06003  -0.01631  -0.02189  0.02974  0.6918  -0.371
6.481e+09  0.8068  -0.5645  -0.01918  -0.01087  -0.04554  0.03352  0.5308  -0.5399
6.482e+09  0.5997  -0.7813  0.002571  -0.005282  -0.05508  0.05012  0.3346  -0.7073
6.484e+09  0.2732  -0.8901  -0.003401  -0.01083  0.009632  -0.008648  0.06145  -0.7613
6.485e+09  -0.08752  -0.954  0.0114  -0.05905  -0.04822  0.02818  -0.1564  -0.7296
6.486e+09  -0.3818  -0.9028  -0.04103  0.003497  -0.0492  0.05385  -0.4568  -0.6221
6.488e+09  -0.7029  -0.6659  0.02924  0.009143  -0.004992  0.03071  -0.6366  -0.4305
6.489e+09  -0.8582  -0.4386  -0.01171  0.003977  0.03398  0.04423  -0.7464  -0.1553
6.49e+09  -0.9834  -0.1242  -0.003137  0.04672  0.002328  0.02047  -0.7903  0.08712
6.491e+09  -0.8896  0.3047  -0.05954  -0.04712  -0.04397  -0.0585  -0.6957  0.328
6.492e+09  -0.7731  0.5549  0.01676  0.03291  0.026  -0.03162  -0.52  0.562
6.494e+09  -0.5571  0.7948  -0.05257  -0.007044  0.0219  -0.008537  -0.3136  0.6922
6.495e+09  -0.2218  0.9618  -0.002212  0.0484  0.009058  0.01916  -0.02613  0.7492
6.496e+09  0.05777  0.8992  -0.01058  -0.02314  -0.0005795  0.01994  0.1982  0.7412
6.498e+09  0.4001  0.8941  -0.04015  0.01271  0.0168  -0.008912  0.5147  0.5954
6.499e+09  0.6332  0.6439  -0.005526  -0.006608  -0.02538  -0.004191  0.6439  0.3945
6.5e+09  0.8789  0.3646  0.002144  -0.009961  -0.01268  0.03755  0.7541  0.1388
6.501e+09  0.9519  0.02399  -0.01344  -0.01425  -0.01121  0.01053  0.7415  -0.1018
6.502e+09  0.9142  -0.2591  0.02256  0.02278  -0.05385  0.004675  0.6644  -0.3706
6.504e+09  0.7728  -0.6164  0.002115  0.02202  0.009195  0.009179  0.4692  -0.5571
6.505e+09  0.5608  -0.8307  0.01523  0.0007255  -0.05661  0.03955  0.2705  -0.7029
6.506e+09  0.2018  -0.9411  0.04575  -0.03212  -0.02537  0.004972  0.02226  -0.7897
6.508e+09  -0.1132  -0.9454  0.01754  -0.001287  -0.02501  -0.00988  -0.2595  -0.7246
6.509e+09  -0.5242  -0.8287  -0.01526  -0.002024  -0.02516  0.007487  -0.4773  -0.6101
6.51e+09  -0.7115  -0.6251  -0.03265  -0.016  -0.01639  0.06051  -0.6393  -0.3821
6.511e+09  -0.8888  -0.3498  0.003982  0.03627  -0.01956  0.03734  -0.7622  -0.1043
6.512e+09  -0.9456  0.02531  0.01904  0.02163  0.01345  0.00766  -0.7341  0.1171
6.514e+09  -0.9138  0.3377  -0.006816  -0.02872  -0.007864  -0.05809  -0.642  0.4079
6.515e+09  -0.6805  0.6702  -0.03087  -0.02486  -0.003662  0.03008  -0.4421  0.5795
6.516e+09  -0.5313  0.8534  0.01006  -0.005894  -0.01151  0.01625  -0.2778  0.6845
6.518e+09  -0.1066  0.9446  0.0272  0.0162  0.004788  -0.02861  -0.03233  0.7534
6.519e+09  0.1703  0.9069  0.02108  -0.01021  -0.002479  0.04085  0.2849  0.6929
6.52e+09  0.5322  0.7352  -0.01512  0.04228  0.009511  0.08861  0.4895  0.5323
6.521e+09  0.7592  0.5625  -0.05533  -0.02617  0.03206  -0.05691  0.6481  0.3395
6.522e+09  0.955  0.2224  0.007414  -0.01171  -0.01362  0.0277  0.7055  0.1461
6.524e+09  0.9831  -0.04981  0.001349  0.002556  0.035  0.0148  0.7359  -0.1507
6.525e+09  0.8864  -0.3982  0.0004437  0.006266  -0.07187  0.04053  0.6288  -0.4231
6.526e+09  0.7131  -0.6441  -0.01445  -0.01341  0.001137  0.009695  0.4439  -0.5828
6.528e+09  0.4291  -0.8884  -0.01676  -0.03623  -0.02422  0.01552  0.2009  -0.678
6.529e+09  0.07504  -0.9853  -0.002849  0.02355  -0.03328  -0.002672  -0.02963  -0.6963
6.53e+09  -0.2645  -0.8928  0.004282  -0.00612  -0.004988  0.004882  -0.2802  -0.6237
6.531e+09  -0.5546  -0.7601  0.00774  -0.01214  0.01543  -0.02364  -0.4809  -0.4677
6.532e+09  -0.8714  -0.5203  -0.006227  -0.02125  0.006561  -0.07096  -0.6084  -0.3
6.534e+09  -0.9462  -0.1928  0.07239  -0.01732  0.03263  -0.01364  -0.6368  -0.09874
6.535e+09  -1.003  0.1263  0.02638  -0.03041  0.03923  -0.03839  -0.6289  0.1104
6.536e+09  -0.8735  0.4663  -0.01586  -0.0222  -0.02779  0.01313  -0.5634  0.2876
6.538e+09  -0.6481  0.6546  0.008216  -0.001791  -0.01044  -0.07724  -0.4532  0.4734
6.539e+09  -0.3829  0.9801  0.01179  0.01714  0.02315  0.02187  -0.279  0.6208
6.54e+09  0.009077  0.9567  0.004112  0.01633  0.0591  0.009207  -0.03973  0.6781
6.541e+09  0.4  0.9134  0.006573  -0.01469  -0.007004  0.001698  0.194  0.6701
6.542e+09  0.6406  0.7193  0.0239  0.003585  -0.03981  -0.03937  0.4326  0.5917
6.544e+09  0.8506  0.5118  0.01526  -0.001455  0.02461  -0.02077  0.5882  0.4183
6.545e+09  0.9553  0.175  -0.007302  0.008441  0.05745  0.001977  0.6756  0.1692
6.546e+09  0.9182  -0.1879  0.03134  -0.0001737  0.06049  0.04739  0.7495  -0.09448
6.548e+09  0.8014  -0.479  -0.002268  -0.007945  0.002248  -0.0354  0.6349  -0.3407
6.549e+09  0.5553  -0.7655  0.003879  -0.003744  0.005573  0.009752  0.5147  -0.5001
6.55e+09  0.2073  -0.9199  0.02423  -0.005493  -0.004639  -0.007154  0.2967  -0.6771
