# Hz S RI R 50
6.25e+09  -0.347  0.8337  -0.02012  -0.01955  0.01727  0.02156  0.1733  0.4989
6.251e+09  -0.02107  0.8544  0.03323  -0.01846  0.08239  0.0238  0.3554  0.398
6.252e+09  0.2586  0.8179  0.009756  -0.01147  0.04783  0.03281  0.5334  0.2458
6.254e+09  0.5787  0.6829  0.004504  0.004023  0.01384  0.001018  0.5915  0.01955
6.255e+09  0.8057  0.4174  -0.02128  0.02705  -0.02739  -0.07095  0.6148  -0.2283
6.256e+09  0.8204  0.1488  -0.02286  0.03258  0.01522  0.02243  0.4352  -0.4586
6.258e+09  0.8275  -0.09448  0.009836  0.01703  -0.01753  0.007832  0.2832  -0.5858
6.259e+09  0.7692  -0.3898  0.00497  -0.007408  -0.01584  -0.007154  0.06328  -0.6442
6.26e+09  0.593  -0.6776  -0.002196  0.00651  0.03257  -0.03588  -0.2145  -0.6983
6.261e+09  0.3437  -0.8323  -0.01969  0.003026  0.05697  0.03957  -0.4351  -0.5548
6.262e+09  -0.03977  -0.8163  -0.02189  0.01399  0.003797  0.01868  -0.6416  -0.3409
6.264e+09  -0.2873  -0.8748  0.02318  -0.0282  0.001159  0.01051  -0.7314  -0.1158
6.265e+09  -0.5217  -0.667  0.0346  0.01259  -0.03732  -0.007792  -0.6847  0.1746
6.266e+09  -0.7939  -0.4395  0.003193  -0.01107  0.01956  0.03624  -0.6317  0.4225
6.268e+09  -0.8725  -0.1291  -0.02994  -0.002756  -0.006197  -0.01654  -0.4502  0.5999
6.269e+09  -0.7801  0.1128  0.009022  -0.009341  0.006129  0.001658  -0.21  0.7013
6.27e+09  -0.7247  0.4066  0.01907  0.01682  0.006817  0.02275  0.06824  0.7536
6.271e+09  -0.5158  0.6699  -0.02237  -0.006536  -0.008963  0.01765  0.3202  0.6598
6.272e+09  -0.2628  0.8052  0.02687  0.005314  0.03092  0.0232  0.543  0.5067
6.274e+09  0.005808  0.8596  -0.02506  0.02549  0.02862  -0.04351  0.693  0.2972
6.275e+09  0.3048  0.7579  0.04281  0.009807  -0.01021  -0.05549  0.7703  0.02006
6.276e+09  0.5631  0.6465  -0.008  -0.02786  0.03726  0.02774  0.7465  -0.2612
6.278e+09  0.7588  0.3869  -0.0005457  -0.0003799  -0.03398  0.01055  0.6154  -0.4736
6.279e+09  0.7885  0.08899  -0.01213  0.01002  -0.01262  -0.00808  0.4072  -0.6359
6.28e+09  0.8624  -0.1795  0.02123  0.02484  0.003652  -0.0003512  0.1678  -0.7611
6.281e+09  0.6945  -0.492  0.0167  0.01827  0.03152  -0.008537  -0.1289  -0.7847
6.282e+09  0.5301  -0.6902  -0.007467  -0.0007216  0.0545  -0.03974  -0.3835  -0.6715
6.284e+09  0.293  -0.7626  0.009807  -0.01094  -0.02332  0.003979  -0.5949  -0.499
6.285e+09  -0.02768  -0.8615  0.01293  -0.008271  0.03166  0.002128  -0.7388  -0.267
6.286e+09  -0.2954  -0.8315  -0.02673  0.002293  -0.02658  -0.005449  -0.8062  -0.02626
6.288e+09  -0.596  -0.6277  -0.003944  0.01308  -0.006998  -0.02429  -0.7662  0.2916
6.289e+09  -0.7462  -0.3714  0.01572  -0.0112  -0.003301  -0.03396  -0.599  0.4851
6.29e+09  -0.7915  -0.1219  -0.008657  -0.01553  -0.02393  0.01046  -0.4102  0.708
6.291e+09  -0.8152  0.1877  -0.007287  0.005837  0.04328  0.0005529  -0.1542  0.8251
6.292e+09  -0.6623  0.5023  0.01169  -0.02595  0.007551  0.009009  0.1257  0.818
6.294e+09  -0.4743  0.7167  -0.008018  -0.00778  0.0266  0.05317  0.3932  0.7141
6.295e+09  -0.2185  0.8263  0.006426  0.01767  0.001925  0.01327  0.6176  0.5587
6.296e+09  0.066  0.7914  -0.007844  -0.01018  0.03168  0.01394  0.7552  0.2862
6.298e+09  0.3781  0.7666  -0.0192  -0.04497  -0.02216  0.05452  0.8478  0.01304
6.299e+09  0.6007  0.5968  -0.003568  -0.01599  -0.0007357  -0.02303  0.8097  -0.2458
6.3e+09  0.7715  0.3555  0.009124  -0.02453  0.01543  0.03259  0.6727  -0.5168
6.301e+09  0.8171  0.03108  -0.001899  -0.004833  0.03546  0.01506  0.4226  -0.706
6.302e+09  0.7846  -0.2395  0.0006347  0.009065  -0.003979  0.0327  0.1718  -0.8089
6.304e+09  0.6867  -0.4783  -0.0357  -0.01942  0.06468  0.002987  -0.1764  -0.8165
6.305e+09  0.4818  -0.6962  -0.02199  0.02054  0.01554  0.002631  -0.424  -0.7354
6.306e+09  0.1988  -0.7815  0.0198  -0.001348  -0.005728  0.006347  -0.6622  -0.5437
6.308e+09  -0.08656  -0.8227  0.01186  0.01652  0.0006116  0.01287  -0.8  -0.2946
6.309e+09  -0.3966  -0.7626  -0.0004743  0.01203  -0.01484  0.03129  -0.8385  0.00308
6.31e+09  -0.6081  -0.5642  0.009537  0.0134  0.04208  0.01903  -0.8262  0.276
6.311e+09  -0.7973  -0.3493  -0.0115  0.003227  -0.03566  -0.002405  -0.6798  0.5324
6.312e+09  -0.8184  -0.01969  -0.01806  -0.001263  0.02839  -0.04293  -0.4288  0.7551
6.314e+09  -0.7831  0.3133  -0.0104  -0.02328  -0.03925  -0.04928  -0.1479  0.8475
6.315e+09  -0.6749  0.5154  -0.01098  0.01648  0.005626  -0.00654  0.1321  0.8452
6.316e+09  -0.4058  0.7626  0.006915  0.001913  -0.02072  0.01548  0.427  0.7714
6.318e+09  -0.1565  0.844  -0.005723  0.0118  0.06185  -0.0266  0.6834  0.5687
6.319e+09  0.0995  0.8437  -0.03939  0.01402  0.008717  -0.01672  0.8131  0.3059
6.32e+09  0.4359  0.7106  0.0001661  0.0006566  0.01624  -0.03739  0.9053  0.05345
6.321e+09  0.6595  0.5101  -0.01734  -0.01951  -0.02367  -0.01241  0.8401  -0.2744
6.322e+09  0.8382  0.2892  -0.01646  -0.01343  -0.02066  -0.03458  0.6828  -0.5659
6.324e+09  0.8521  0.005069  0.01491  0.0244  -0.006207  0.02945  0.4622  -0.7857
6.325e+09  0.7624  -0.296  -0.01658  0.02398  0.03536  -0.01079  0.1809  -0.8617
6.326e+09  0.6677  -0.6027  0.0008307  -0.0009596  -0.01021  -0.003257  -0.1405  -0.8904
6.328e+09  0.3832  -0.7932  0.006726  -0.01626  0.03042  -0.03394  -0.4074  -0.7746
6.329e+09  0.09582  -0.8301  0.002165  0.03844  0.01916  -0.0003335  -0.6796  -0.576
6.33e+09  -0.2615  -0.868  -0.03081  0.005351  -0.03384  -0.01855  -0.8596  -0.3286
6.331e+09  -0.4895  -0.7509  0.01084  -0.002445  0.03667  -0.006234  -0.9127  -0.02069
6.332e+09  -0.6925  -0.5112  -0.0172  -0.001964  0.01215  -0.0421  -0.8926  0.3129
6.334e+09  -0.8579  -0.2431  0.03282  0.03001  -0.02661  -0.02096  -0.773  0.5948
6.335e+09  -0.8604  0.05349  -0.03443  -0.01303  0.03842  0.002243  -0.5135  0.7864
6.336e+09  -0.763  0.4138  0.004189  -0.01471  -0.01152  0.03536  -0.2369  0.878
6.338e+09  -0.6412  0.6149  -0.005935  -0.0314  -0.04096  -0.0204  0.108  0.8836
6.339e+09  -0.3235  0.8319  0.0004083  -0.01321  0.0478  0.02877  0.4334  0.8283
6.34e+09  -0.0369  0.8962  0.01053  -0.01125  0.06918  0.0221  0.6746  0.6379
6.341e+09  0.2342  0.8705  0.005849  -0.006077  -0.0101  0.007516  0.8557  0.3111
6.342e+09  0.5226  0.7364  -0.01238  0.0161  0.02007  -0.02087  0.9309  0.01456
6.344e+09  0.7914  0.474  0.01329  -0.02416  0.04269  0.04092  0.9101  -0.2954
6.345e+09  0.8607  0.1406  0.001679  -0.00668  -0.01819  -0.0308  0.7052  -0.5585
6.346e+09  0.8287  -0.1015  0.01185  -0.004271  0.01383  0.03904  0.4947  -0.7828
6.348e+09  0.7636  -0.4442  -0.01173  -0.0227  0.01084  0.002976  0.2197  -0.909
6.349e+09  0.5952  -0.6718  0.006081  0.02933  0.001475  0.02334  -0.1226  -0.9459
6.35e+09  0.3203  -0.8235  0.01295  -0.01214  -0.01626  -0.02916  -0.4532  -0.8191
6.351e+09  0.01341  -0.8902  0.00577  0.02462  0.001399  -0.02159  -0.6867  -0.6333
6.352e+09  -0.327  -0.8354  -0.00247  -0.002955  0.008808  -0.00538  -0.8395  -0.4051
6.354e+09  -0.5942  -0.6326  0.047  -0.0189  0.02362  -0.07269  -0.9721  -0.05332
6.355e+09  -0.7636  -0.4203  0.02401  0.002786  0.01019  -0.01568  -0.8882  0.3137
6.356e+09  -0.8487  -0.09003  -0.004839  -0.01422  0.04763  0.06957  -0.7587  0.5246
6.358e+09  -0.8658  0.1823  -0.00935  -0.01643  -0.01622  0.004605  -0.51  0.7893
6.359e+09  -0.7636  0.4344  -0.02149  -0.02042  -0.0008033  0.000139  -0.2529  0.9087
6.36e+09  -0.5578  0.6875  0.02426  -0.01071  0.002499  0.05658  0.09411  0.9321
6.361e+09  -0.242  0.826  -0.02247  -0.01518  0.01516  0.0487  0.4324  0.8195
6.362e+09  0.03778  0.9247  -0.01186  0.003786  0.01932  0.02588  0.6696  0.6415
6.364e+09  0.3659  0.814  0.01511  0.005276  0.03809  -0.01943  0.8155  0.4003
6.365e+09  0.6457  0.7229  -0.006453  0.01038  -0.01812  0.01129  0.9707  0.05318
6.366e+09  0.8372  0.4065  0.02514  0.002572  0.004717  0.003248  0.9293  -0.2406
6.368e+09  0.8937  0.02319  -0.01543  0.011  -0.01762  -0.0361  0.7693  -0.5624
6.369e+09  0.9184  -0.273  0.03843  -0.01274  0.0004012  -0.01874  0.5138  -0.7769
6.37e+09  0.7206  -0.5128  -0.001228  0.004367  -0.005014  -0.002978  0.2491  -0.9005
6.371e+09  0.4907  -0.7267  -0.03842  0.01669  -0.05962  0.02521  -0.1081  -0.9561
6.372e+09  0.2055  -0.8796  -0.02043  -0.02203  0.0317  -0.02225  -0.4056  -0.8484
6.374e+09  -0.1272  -0.8872  -0.01153  0.04299  -0.005877  0.01455  -0.6645  -0.6588
6.375e+09  -0.4097  -0.7966  0.02556  0.01782  0.03693  -0.0004226  -0.8963  -0.4105
6.376e+09  -0.6952  -0.6374  -0.00051  -0.01767  -0.01663  0.007144  -0.9793  -0.06037
6.378e+09  -0.7953  -0.3226  -0.02798  0.006513  0.02168  0.03078  -0.9242  0.2179
6.379e+09  -0.8915  -0.07326  -0.01557  0.007979  0.02135  0.01024  -0.7866  0.5469
6.38e+09  -0.8711  0.2741  0.001025  -0.01636  -0.04034  0.02399  -0.5182  0.7755
6.381e+09  -0.7337  0.5893  0.003784  0.008376  0.009017  0.007605  -0.2708  0.8666
6.382e+09  -0.4575  0.7821  -0.01262  0.0331  -0.002603  -0.04161  0.09174  0.9452
6.384e+09  -0.1649  0.8365  0.01867  0.009082  0.004683  -0.02427  0.3768  0.8362
6.385e+09  0.1696  0.8987  -0.01283  -0.004456  -0.0459  0.03096  0.6847  0.6657
6.386e+09  0.5076  0.7851  0.003021  -0.02128  -0.02764  0.01503  0.8556  0.4249
6.388e+09  0.7297  0.6158  -0.006734  -0.02675  -0.001018  -0.008232  0.9403  0.1572
6.389e+09  0.8191  0.2811  -0.03982  -0.04287  -0.003219  -0.003759  0.8865  -0.2282
6.39e+09  0.9139  -0.01202  0.03697  0.008952  0.007027  -0.005422  0.793  -0.5053
6.391e+09  0.7802  -0.2966  -0.02758  -0.007626  0.003458  0.01624  0.5415  -0.7532
6.392e+09  0.6831  -0.5352  0.0109  -0.02358  0.003025  -0.006634  0.2953  -0.8851
6.394e+09  0.4443  -0.8055  0.02669  -0.021  -0.02829  -0.006106  0.009827  -0.9331
6.395e+09  0.1443  -0.8734  0.007066  -0.02814  -0.0362  -0.02862  -0.3267  -0.8151
6.396e+09  -0.168  -0.8358  -0.02097  0.01775  0.009925  -0.005591  -0.6183  -0.6926
6.398e+09  -0.4824  -0.7428  -0.01301  -0.00494  -0.00233  0.02903  -0.8286  -0.4398
6.399e+09  -0.7019  -0.6  -0.04702  -0.03027  0.02271  -0.001857  -0.895  -0.1887
6.4e+09  -0.8355  -0.2601  0.004848  0.04729  0.007568  -0.03541  -0.9587  0.1908
6.401e+09  -0.8778  0.03061  -0.0513  -0.002177  0.0391  -0.04036  -0.8095  0.49
6.402e+09  -0.8461  0.3454  0.0368  -0.03564  -0.008296  -0.0268  -0.6044  0.7076
6.404e+09  -0.6754  0.6371  0.005068  -0.02989  -0.024  -0.03652  -0.2972  0.8575
6.405e+09  -0.3949  0.7666  -0.01257  0.0328  0.04271  -0.006985  0.01001  0.9204
6.406e+09  -0.1186  0.834  0.005918  0.007653  0.03268  0.003467  0.2435  0.8471
6.408e+09  0.1615  0.8583  0.03659  -0.0395  -0.02253  0.03396  0.538  0.774
6.409e+09  0.4507  0.7387  0.03418  -0.01103  -0.001362  0.01231  0.782  0.4738
6.41e+09  0.7313  0.4908  0.0536  0.0113  -0.01668  0.05534  0.9342  0.1721
6.411e+09  0.8755  0.2736  0.004513  0.02211  -0.01577  0.02575  0.8833  -0.1242
6.412e+09  0.8766  -0.02905  0.01052  -0.008628  0.009863  -0.03048  0.7483  -0.4421
6.414e+09  0.7893  -0.3652  0.06709  -0.03185  -0.01435  -0.00214  0.6167  -0.7368
6.415e+09  0.6272  -0.5902  0.04105  0.01594  -0.04605  -0.01311  0.3717  -0.7924
6.416e+09  0.3566  -0.7602  -0.0406  0.01819  0.02673  0.02352  -0.0105  -0.9267
6.418e+09  0.1078  -0.8834  0.02513  -0.02193  -0.006556  -0.01591  -0.2942  -0.8381
6.419e+09  -0.205  -0.8954  0.0009973  0.002515  -0.07892  0.03135  -0.579  -0.7191
6.42e+09  -0.5375  -0.7721  -0.0005403  0.01184  0.0366  -0.03518  -0.7393  -0.4853
6.421e+09  -0.6945  -0.5686  -0.01002  -0.01099  -0.03668  -0.02422  -0.8784  -0.2214
6.422e+09  -0.8587  -0.2241  -0.02309  -0.01299  -0.01785  -0.05864  -0.8793  0.09337
6.424e+09  -0.8519  0.01185  0.02789  0.01897  -0.02234  0.006429  -0.8073  0.4107
6.425e+09  -0.7924  0.317  -0.05293  -0.01051  -0.007952  0.008056  -0.5779  0.6522
6.426e+09  -0.6605  0.6209  -0.01753  -0.05832  -0.01265  0.007108  -0.3467  0.7994
6.428e+09  -0.352  0.8299  -0.009581  0.02236  -0.03626  -0.008372  -0.0433  0.8702
6.429e+09  -0.08903  0.9088  -0.01762  -0.02555  0.01182  -0.02932  0.271  0.8879
6.43e+09  0.2235  0.8562  0.0057  0.007224  -0.04068  0.02787  0.5361  0.6732
6.431e+09  0.5435  0.7493  -0.02451  0.04756  0.04768  -0.03205  0.6539  0.4908
6.432e+09  0.7391  0.4787  -0.02985  -0.005403  0.01211  0.04126  0.8683  0.2177
6.434e+09  0.8972  0.2502  -0.01697  -0.04314  0.02161  0.006863  0.8431  -0.07658
6.435e+09  0.8746  -0.07175  -0.01406  0.01461  0.02245  0.01223  0.7868  -0.3793
6.436e+09  0.7988  -0.3075  0.002651  0.05307  -0.03695  0.021  0.6072  -0.6381
6.438e+09  0.6293  -0.6227  0.02059  -0.02895  0.01107  -0.02797  0.3223  -0.7615
6.439e+09  0.4247  -0.803  0.02082  0.003965  -0.02221  -0.01401  0.07602  -0.875
6.44e+09  0.1137  -0.9461  0.01006  0.004306  -0.005246  0.01327  -0.2455  -0.844
6.441e+09  -0.196  -0.8814  0.02086  0.02305  -0.03086  -0.001456  -0.513  -0.7255
6.442e+09  -0.5587  -0.7044  -0.03545  -0.0006965  0.01787  0.002859  -0.705  -0.5276
6.444e+09  -0.7837  -0.5178  -0.01482  0.01572  0.02367  0.007597  -0.8398  -0.2522
6.445e+09  -0.8864  -0.2409  -0.01046  0.01016  -0.003894  0.016  -0.872  0.05758
6.446e+09  -0.8859  0.08623  0.02336  -0.02418  0.02407  -0.02658  -0.7962  0.3826
6.448e+09  -0.7758  0.3931  0.03301  0.005188  0.04746  -0.01961  -0.5985  0.562
6.449e+09  -0.6196  0.6105  0.003476  0.0231  0.004981  -0.006639  -0.3411  0.7638
6.45e+09  -0.3612  0.8171  0.02904  -0.01182  -0.01994  -0.01691  -0.05835  0.8388
6.451e+09  -0.05633  0.8757  -0.01231  -0.01986  0.0341  0.0009588  0.2392  0.7681
6.452e+09  0.2729  0.8486  -0.017  -0.0215  -0.001366  -0.0264  0.471  0.7102
6.454e+09  0.556  0.7045  -0.03782  0.03434  0.0135  0.01007  0.6759  0.4349
6.455e+09  0.7537  0.5165  -0.009748  0.008519  0.0135  -0.006845  0.759  0.1888
6.456e+09  0.8939  0.2444  0.01051  -0.02402  0.005563  -0.005009  0.8153  -0.08981
6.458e+09  0.9134  -0.06501  0.007701  -0.01263  0.01671  0.00337  0.755  -0.3378
6.459e+09  0.8365  -0.3906  -0.03294  -0.007359  0.001098  0.005174  0.5787  -0.6016
6.46e+09  0.6636  -0.6177  0.009326  -0.01089  0.009121  0.008069  0.3269  -0.7577
6.461e+09  0.352  -0.8771  -0.03884  0.03795  -0.02822  -0.04749  0.04169  -0.8528
6.462e+09  -0.01976  -0.9238  0.01646  0.04728  0.006425  -0.03639  -0.2482  -0.7705
6.464e+09  -0.3123  -0.8456  0.04623  -0.03609  0.009097  -0.02701  -0.4663  -0.6743
6.465e+09  -0.5288  -0.707  0.01788  -0.02734  -0.003227  -0.0003262  -0.6573  -0.4556
6.466e+09  -0.7806  -0.4962  0.03533  -0.01146  0.01695  0.01998  -0.7836  -0.2322
6.468e+09  -0.9278  -0.1883  0.03537  0.01377  0.01191  -0.03468  -0.7988  0.07142
6.469e+09  -0.9459  0.1619  0.05329  -0.005096  0.0461  -0.04949  -0.7268  0.3554
6.47e+09  -0.843  0.4083  -0.02874  -0.007113  -0.00797  0.01516  -0.5734  0.5701
6.471e+09  -0.5961  0.7096  0.0005881  0.0009408  -0.02728  -0.006867  -0.3237  0.7091
6.472e+09  -0.245  0.8603  -0.04682  -0.0106  -0.04071  -0.02427  -0.08317  0.7969
6.474e+09  -0.04349  0.922  -0.01087  0.02069  0.01641  0.04348  0.2259  0.8002
6.475e+09  0.306  0.8892  0.0246  0.01823  -0.02812  0.003635  0.4143  0.6249
6.476e+09  0.5588  0.6976  -0.03592  -0.04956  -0.01709  0.01032  0.6693  0.4601
6.478e+09  0.8545  0.5098  0.004097  0.01332  -0.01001  -0.008083  0.7726  0.2065
6.479e+09  0.9137  0.1656  0.01215  -0.001246  0.05791  0.06252  0.7924  -0.1039
6.48e+09  0.9553  -0.1757  0.06146  -0.02602  -0.01655  -0.05284  0.6752  -0.3208
6.481e+09  0.8474  -0.4175  -0.02453  -0.03329  0.02088  -0.01597  0.5505  -0.5555
6.482e+09  0.5812  -0.7294  -0.001194  0.01513  -0.01312  -0.005108  0.3435  -0.72
6.484e+09  0.3393  -0.853  -0.005015  0.03261  -0.03178  -0.01081  0.04846  -0.7364
6.485e+09  0.02357  -0.9172  -0.03223  -0.02808  -0.01844  0.02165  -0.2408  -0.8018
6.486e+09  -0.2978  -0.8738  0.01347  0.002162  -0.00673  -0.0146  -0.4653  -0.6051
6.488e+09  -0.5876  -0.7369  -0.005689  -0.01109  0.04062  0.02755  -0.6622  -0.4522
6.489e+09  -0.7997  -0.4674  0.01482  0.03439  -0.01142  -0.01014  -0.7432  -0.1995
6.49e+09  -0.8996  -0.17  0.00113  0.02698  -0.02044  -0.01352  -0.7452  0.08917
6.491e+09  -0.8913  0.1618  -0.04059  -0.008973  0.01642  -0.02107  -0.6786  0.2864
6.492e+09  -0.816  0.5054  0.02085  0.02535  -0.04043  -0.03973  -0.5369  0.5665
6.494e+09  -0.5998  0.7337  -0.02317  0.01688  -0.01176  0.005044  -0.2693  0.6915
6.495e+09  -0.3429  0.9056  -0.007495  -0.01289  0.03713  0.02003  -0.05537  0.7689
6.496e+09  0.02237  0.9215  0.02273  -0.007869  0.0103  0.02815  0.2334  0.7597
6.498e+09  0.3342  0.8428  0.002218  0.01135  0.01921  -0.002978  0.4632  0.5894
6.499e+09  0.6395  0.7396  0.0126  0.001842  0.001398  0.05921  0.6664  0.4095
6.5e+09  0.8462  0.4827  -0.002444  -0.01141  -0.02639  0.003526  0.734  0.1626
6.501e+09  0.9445  0.169  0.02206  0.008012  0.01542  -0.00962  0.7414  -0.1311
6.502e+09  0.8934  -0.2098  -0.0001139  -0.003315  0.01621  0.03337  0.6647  -0.3708
6.504e+09  0.7822  -0.5162  -0.009438  -0.02132  -0.01723  -0.005673  0.5248  -0.5699
6.505e+09  0.5386  -0.7648  -0.008603  -0.02061  -0.02107  -0.03726  0.2707  -0.7286
6.506e+09  0.2736  -0.9116  0.02948  0.001653  0.01303  0.008161  0.01384  -0.7116
6.508e+09  -0.02418  -0.9722  0.01423  0.03834  0.03396  0.01551  -0.2295  -0.6999
6.509e+09  -0.3666  -0.878  0.02227  0.004669  0.03858  -0.0242  -0.4834  -0.5795
6.51e+09  -0.6837  -0.7252  0.009989  -0.01336  0.03502  -0.0003129  -0.5987  -0.3504
6.511e+09  -0.8516  -0.4492  0.01074  -0.01847  0.02451  0.02065  -0.7377  -0.1505
6.512e+09  -0.968  -0.09956  -0.03071  0.03359  -0.045  -0.0273  -0.7359  0.1519
6.514e+09  -0.9591  0.2469  0.004151  0.009123  -0.04527  -0.002385  -0.653  0.3529
6.515e+09  -0.8212  0.5705  0.02122  0.02466  0.001679  -0.02634  -0.4873  0.5775
6.516e+09  -0.5975  0.773  0.006985  -0.0177  -0.02971  -0.02379  -0.227  0.6874
6.518e+09  -0.2281  0.9467  -0.02824  0.02868  0.04548  0.002167  0.04345  0.737
6.519e+09  0.09102  0.9332  0.02642  0.05891  0.0006113  -0.03472  0.2368  0.7206
6.52e+09  0.4137  0.8809  -0.006317  -0.02235  -0.06699  0.05446  0.4724  0.5381
6.521e+09  0.7327  0.7334  0.003355  -0.009334  0.02246  -0.02414  0.6431  0.3656
6.522e+09  0.8606  0.3723  -0.01479  -0.01531  -0.006259  0.008533  0.7265  0.07781
6.524e+09  1.003  -0.002358  0.009569  -0.03101  0.03997  0.022  0.6888  -0.16
6.525e+09  0.89  -0.3665  -0.005286  -0.01359  -0.05297  0.03278  0.6008  -0.4088
6.526e+09  0.73  -0.6218  0.01612  -0.004958  -0.01796  0.02104  0.406  -0.5645
6.528e+09  0.4717  -0.8689  0.01012  0.02427  0.000406  -0.01104  0.1878  -0.6773
6.529e+09  0.1953  -0.9763  -0.0007611  0.001988  -0.02793  0.005174  -0.03515  -0.697
6.53e+09  -0.1615  -1.001  0.02747  -0.001714  0.04489  0.01279  -0.2653  -0.6501
6.531e+09  -0.4845  -0.8353  0.008877  0.006282  -0.03763  -0.01724  -0.4895  -0.4912
6.532e+09  -0.7467  -0.6519  -0.01769  -0.01053  -0.03956  0.01026  -0.5826  -0.3167
6.534e+09  -0.9336  -0.321  -0.00246  -0.002834  -0.007538  0.01889  -0.6241  -0.07384
6.535e+09  -0.9963  0.0226  0.02511  0.0294  0.05309  -0.002795  -0.6389  0.112
6.536e+09  -0.9131  0.384  -0.007378  -0.02249  0.03122  -0.01122  -0.5664  0.2744
6.538e+09  -0.7189  0.693  0.007386  -0.01528  0.01018  -0.0107  -0.4581  0.451
6.539e+09  -0.4275  0.9473  0.02097  0.03887  0.0169  -0.004736  -0.2406  0.5639
6.54e+09  -0.07748  0.9564  -0.01008  -0.007516  0.04455  0.0383  -0.06178  0.6906
6.541e+09  0.2712  0.9149  0.01  0.004567  0.0129  0.01817  0.1724  0.6415
6.542e+09  0.48  0.8118  0.003259  -0.000832  0.02041  -0.02501  0.4078  0.5935
6.544e+09  0.8016  0.5273  -0.01399  0.003712  0.006621  -0.02272  0.5954  0.4485
6.545e+09  0.9188  0.2456  0.004754  -0.009628  -0.01078  0.004707  0.7124  0.1968
6.546e+09  0.9536  -0.119  0.00613  0.04269  -0.01844  0.02287  0.7172  -0.06426
6.548e+09  0.8252  -0.5019  -0.01374  -0.03123  0.02955  -0.05773  0.6467  -0.3693
6.549e+09  0.6786  -0.6766  0.001476  0.002951  -0.007443  -0.008712  0.5232  -0.5465
6.55e+09  0.3971  -0.8821  -0.007755  0.0259  -0.04566  0.04491  0.2581  -0.6626
