# Hz S RI R 50
6.25e+09  -0.009045  0.8792  0.01382  -0.03238  -0.07177  -0.02435  0.18  0.4824
6.251e+09  0.2582  0.8438  -0.01592  0.01903  0.01848  -0.02829  0.3433  0.4119
6.252e+09  0.4935  0.7246  -0.01652  -0.0009374  -0.03464  -0.02034  0.5304  0.2451
6.254e+09  0.7221  0.5253  0.004505  -0.03301  -0.02814  0.01546  0.6125  0.01178
6.255e+09  0.8034  0.1782  0.008502  0.04656  -0.03566  0.02559  0.569  -0.2368
6.256e+09  0.8122  -0.1137  0.03656  0.006917  -0.004122  0.03129  0.5039  -0.4285
6.258e+09  0.7743  -0.3293  -0.03182  0.01607  0.01409  -0.06433  0.2898  -0.5808
6.259e+09  0.5937  -0.6069  0.0363  -0.002925  -0.008062  0.02517  0.055  -0.6753
6.26e+09  0.3672  -0.8032  -0.0023  -0.005326  -0.01102  -0.0147  -0.2356  -0.6985
6.261e+09  0.03334  -0.8416  0.009078  0.02759  -0.02017  0.01128  -0.4513  -0.5243
6.262e+09  -0.2804  -0.8203  0.005666  0.005372  -0.005339  0.01042  -0.6168  -0.3675
6.264e+09  -0.5022  -0.6717  -0.001027  -0.01543  0.03231  0.03181  -0.7305  -0.1058
6.265e+09  -0.8016  -0.4699  0.02203  -0.009093  0.04939  0.03435  -0.6782  0.1874
6.266e+09  -0.7782  -0.1836  -0.01141  0.02899  0.05476  0.0138  -0.5926  0.4035
6.268e+09  -0.8884  0.128  -0.0168  -0.009584  0.02225  -0.003129  -0.4202  0.5994
6.269e+09  -0.7172  0.4174  0.002359  0.02223  -0.004207  -0.01134  -0.2026  0.7222
6.27e+09  -0.5527  0.6328  0.0111  -0.008177  0.05089  0.008261  0.07279  0.7558
6.271e+09  -0.2856  0.8193  -0.007774  0.01123  0.06937  0.02689  0.31  0.6775
6.272e+09  0.02286  0.814  -0.02578  0.04145  0.03369  0.03399  0.545  0.5192
6.274e+09  0.2106  0.7772  0.002677  -0.01517  0.0201  -0.00247  0.6778  0.2756
6.275e+09  0.4938  0.6416  -0.005851  0.0124  0.01485  0.01376  0.7733  0.03052
6.276e+09  0.7021  0.4248  0.001241  0.003397  0.02072  -0.02398  0.7238  -0.2363
6.278e+09  0.8527  0.133  -0.009652  -0.01703  0.01473  0.02261  0.6141  -0.4871
6.279e+09  0.8257  -0.1645  -0.008439  0.006485  -0.05257  0.03576  0.3911  -0.6483
6.28e+09  0.7495  -0.3498  0.03666  0.02876  0.0159  -0.01368  0.1603  -0.7556
6.281e+09  0.5459  -0.6543  0.01494  0.01808  -0.004395  0.01513  -0.1136  -0.7546
6.282e+09  0.3145  -0.7188  0.01193  -0.005509  0.00448  -0.01176  -0.3666  -0.6696
6.284e+09  -0.02153  -0.8921  -0.002342  -0.006657  0.03076  0.04808  -0.5682  -0.5305
6.285e+09  -0.2677  -0.7686  -0.008246  -0.02005  -0.03682  -0.04268  -0.71  -0.2899
6.286e+09  -0.5925  -0.6285  -0.02228  0.009176  -0.01849  -0.008339  -0.819  -0.04505
6.288e+09  -0.7681  -0.3695  -0.01603  -0.008257  0.01326  -0.01457  -0.7421  0.2678
6.289e+09  -0.8543  -0.1564  -0.0213  -0.006188  0.002856  0.03075  -0.629  0.5019
6.29e+09  -0.8224  0.1514  -0.01377  -0.01104  -0.05504  0.01096  -0.3739  0.6819
6.291e+09  -0.6635  0.4236  0.01738  -0.003108  0.01961  -0.003087  -0.1806  0.8174
6.292e+09  -0.5392  0.665  -0.02349  -0.005197  -0.01323  -0.04003  0.1285  0.7921
6.294e+09  -0.3168  0.7935  0.003174  -0.008724  -0.02942  0.05902  0.4091  0.7237
6.295e+09  0.08964  0.8869  -0.004301  -0.0003796  -0.06671  0.04866  0.6047  0.5012
6.296e+09  0.3226  0.7193  0.01419  -0.02583  -0.03784  0.02811  0.7448  0.2898
6.298e+09  0.5403  0.6256  0.008151  0.00819  0.007226  -0.0101  0.8133  0.03365
6.299e+09  0.7669  0.346  -0.007448  -0.02377  0.001567  0.01435  0.8  -0.2964
6.3e+09  0.8373  0.107  0.007519  0.006912  -0.01093  -0.006462  0.645  -0.5363
6.301e+09  0.8025  -0.1745  -0.02622  0.003799  0.02377  0.004949  0.4018  -0.7478
6.302e+09  0.6794  -0.4577  0.02031  0.005523  -0.01152  -0.03376  0.1617  -0.8281
6.304e+09  0.455  -0.6851  0.02313  0.01542  -0.01484  0.04991  -0.1312  -0.8237
6.305e+09  0.2029  -0.8177  -0.005655  0.002068  -0.04919  -0.03093  -0.4137  -0.7472
6.306e+09  -0.09876  -0.8573  -0.003843  0.00987  0.03932  0.01192  -0.658  -0.5487
6.308e+09  -0.3761  -0.7559  0.002567  -0.01364  -0.02142  -0.04665  -0.8573  -0.2986
6.309e+09  -0.5902  -0.5638  -0.02217  0.02992  -0.01363  -0.02917  -0.8269  -0.002135
6.31e+09  -0.8198  -0.339  -0.03522  -0.003477  0.04481  -0.02275  -0.8301  0.3067
6.311e+09  -0.8579  -0.03098  0.009962  0.008156  0.01216  -0.002268  -0.6719  0.5171
6.312e+09  -0.8185  0.2186  0.0222  0.01189  0.01478  0.004042  -0.4629  0.767
6.314e+09  -0.6597  0.5752  -0.01414  0.04758  -0.004524  0.004394  -0.1439  0.8533
6.315e+09  -0.4742  0.7072  -0.0138  0.004379  -0.01468  -0.01392  0.146  0.8776
6.316e+09  -0.1443  0.8579  -0.009857  0.004704  -0.0217  0.01595  0.4337  0.7895
6.318e+09  0.1599  0.8696  0.02311  0.01278  -0.01417  0.04296  0.6775  0.5992
6.319e+09  0.3525  0.7582  -0.0009108  0.01691  0.00713  -0.0008113  0.8256  0.3334
6.32e+09  0.6777  0.5581  -0.02553  0.01497  -0.002121  0.01118  0.8922  0.03596
6.321e+09  0.8094  0.2607  0.02216  0.009688  -0.004967  -0.01384  0.8459  -0.2777
6.322e+09  0.8344  -0.01087  -0.02175  0.004023  0.008501  -0.003217  0.6447  -0.5666
6.324e+09  0.8124  -0.3198  0.002528  -0.02462  -0.02673  0.02043  0.4514  -0.7706
6.325e+09  0.6471  -0.5424  -0.04142  0.01397  -0.01482  0.03261  0.2055  -0.8918
6.326e+09  0.4467  -0.7671  -0.00267  -0.00365  -0.006181  -0.01951  -0.09824  -0.881
6.328e+09  0.1235  -0.8645  -0.003994  0.00566  -0.002511  0.01473  -0.4168  -0.8091
6.329e+09  -0.2013  -0.8631  0.02038  0.00856  -0.005352  -0.01915  -0.7056  -0.6014
6.33e+09  -0.459  -0.7747  0.01629  -0.009586  -0.03489  0.0242  -0.8365  -0.3113
6.331e+09  -0.7289  -0.5496  -0.02726  0.01639  -0.01542  -0.03878  -0.9293  -0.02491
6.332e+09  -0.8566  -0.2659  0.004327  -0.01222  0.00514  0.0005658  -0.8492  0.287
6.334e+09  -0.8913  0.06354  0.0403  0.02346  -0.04479  -0.004706  -0.7323  0.5533
6.335e+09  -0.815  0.3784  -0.01707  -0.0284  0.01135  -0.02333  -0.485  0.7786
6.336e+09  -0.6383  0.6049  0.02795  -0.0121  -0.02034  0.05107  -0.1584  0.9113
6.338e+09  -0.3572  0.7906  -0.02837  0.002616  -0.01921  0.007033  0.1443  0.9132
6.339e+09  -0.05308  0.9272  0.003372  0.02316  -0.03974  0.0183  0.4332  0.8157
6.34e+09  0.2201  0.8684  0.03973  -0.02233  -0.002381  0.002613  0.6666  0.6489
6.341e+09  0.4861  0.7315  -0.03061  -0.006486  0.001012  -0.01803  0.8347  0.3741
6.342e+09  0.7377  0.4631  0.00937  0.0003424  -0.02887  0.03393  0.9399  0.03665
6.344e+09  0.9079  0.1969  0.008088  -0.03205  0.01526  0.03558  0.8828  -0.2823
6.345e+09  0.8648  -0.1032  -0.02469  0.04874  -0.03586  0.02456  0.7504  -0.5689
6.346e+09  0.7614  -0.389  0.02637  -0.004454  0.002688  0.007345  0.5267  -0.7902
6.348e+09  0.6426  -0.6624  -0.02446  -0.01658  0.00406  0.004389  0.206  -0.9239
6.349e+09  0.3096  -0.8237  -0.01176  0.0003664  0.00701  0.01656  -0.1105  -0.9424
6.35e+09  -0.001476  -0.8602  -0.006372  0.00468  -0.0237  -0.01092  -0.4122  -0.8738
6.351e+09  -0.2846  -0.8078  0.02955  0.000924  -0.01973  0.00275  -0.6876  -0.6351
6.352e+09  -0.6102  -0.6901  0.01378  -0.01993  -0.01364  -0.02537  -0.8997  -0.3491
6.354e+09  -0.764  -0.4194  0.006596  -0.003805  -0.05577  -0.001303  -0.9576  -0.06395
6.355e+09  -0.8936  -0.1486  -0.00358  0.01271  0.0003394  -0.0692  -0.9333  0.2813
6.356e+09  -0.8519  0.1071  0.0245  0.02728  -0.0442  0.03582  -0.7633  0.5725
6.358e+09  -0.7699  0.4793  0.003305  0.01442  -0.01532  0.004382  -0.5827  0.7729
6.359e+09  -0.5623  0.6785  0.003158  0.01065  0.0001911  0.02601  -0.2582  0.9774
6.36e+09  -0.2371  0.8191  0.007641  -0.03202  -0.02532  0.03473  0.1043  0.9445
6.361e+09  0.03924  0.9038  -0.01678  -0.0109  0.01216  0.005532  0.3719  0.8345
6.362e+09  0.3428  0.8271  0.02001  0.007633  -0.01091  -0.04115  0.6724  0.6689
6.364e+09  0.6156  0.6899  -0.003262  -0.02413  0.005628  -0.0004975  0.8595  0.3791
6.365e+09  0.7977  0.4387  -0.02502  0.01716  0.0318  0.00452  0.9302  0.1014
6.366e+09  0.8593  0.1313  0.01592  0.02639  0.01305  -0.02399  0.9043  -0.226
6.368e+09  0.8589  -0.2174  0.008088  -0.01394  -0.04259  0.02234  0.792  -0.5541
6.369e+09  0.7591  -0.5285  -0.03744  -0.01264  0.03365  -0.01854  0.5805  -0.8248
6.37e+09  0.5337  -0.7635  -0.001525  0.02623  0.01165  0.01945  0.2675  -0.9115
6.371e+09  0.2036  -0.886  0.02293  0.01374  -0.02045  0.006249  -0.06334  -0.9493
6.372e+09  -0.1171  -0.905  -0.02424  0.01608  -0.03651  0.02594  -0.387  -0.9111
6.374e+09  -0.3623  -0.8396  0.006427  0.01591  0.03533  -0.009588  -0.6792  -0.6956
6.375e+09  -0.6495  -0.5879  0.005926  -0.01633  0.01762  0.0007851  -0.8402  -0.4339
6.376e+09  -0.8607  -0.3424  -0.005091  0.03658  -0.02504  -0.01599  -0.9337  -0.09281
6.378e+09  -0.9112  -0.05229  -0.0358  0.05496  -0.01403  -0.02825  -0.932  0.241
6.379e+09  -0.849  0.2998  -0.03235  -0.0265  0.01372  -0.003884  -0.7805  0.5142
6.38e+09  -0.6835  0.5323  0.04121  0.003025  -0.02576  0.03798  -0.5583  0.8132
6.381e+09  -0.4485  0.7206  0.04115  0.005697  -0.0259  0.0002961  -0.241  0.877
6.382e+09  -0.1916  0.911  -0.01938  -0.03237  0.001897  -0.04441  0.0529  0.9775
6.384e+09  0.1413  0.8931  0.02607  0.003114  0.01264  0.02583  0.3937  0.8695
6.385e+09  0.4119  0.8603  -0.00131  -0.02866  -0.03692  -0.01752  0.6538  0.6606
6.386e+09  0.729  0.5842  0.0003226  0.06187  0.04977  -0.0236  0.8301  0.4092
6.388e+09  0.8276  0.3022  0.03719  0.01714  0.01878  -0.01692  0.9294  0.1255
6.389e+09  0.9236  0.06141  0.003057  0.02311  -0.01405  0.02683  0.904  -0.1869
6.39e+09  0.8139  -0.3338  0.004069  0.03214  -0.03353  -0.002488  0.7559  -0.5268
6.391e+09  0.7019  -0.5578  -0.02003  -0.006691  -0.03094  0.01715  0.5149  -0.7714
6.392e+09  0.4591  -0.7783  -0.0239  0.04481  -0.03303  0.01616  0.2901  -0.8682
6.394e+09  0.178  -0.9128  -0.01774  -0.001208  -0.03785  -0.03316  -0.01277  -0.9595
6.395e+09  -0.2119  -0.8776  -0.006426  -0.01275  -0.003393  -0.005628  -0.3477  -0.8617
6.396e+09  -0.4775  -0.7885  -0.009085  -0.0004773  -0.01717  0.016  -0.5884  -0.6692
6.398e+09  -0.6919  -0.5824  -0.01824  0.006589  -0.006521  0.0693  -0.8223  -0.4405
6.399e+09  -0.8765  -0.2683  0.004655  -0.04147  0.007276  -0.06765  -0.9768  -0.1335
6.4e+09  -0.8754  0.009066  -0.01834  0.01698  0.006468  0.01179  -0.8977  0.1628
6.401e+09  -0.8383  0.2812  -0.01504  -0.04312  0.008987  -0.01135  -0.8375  0.4362
6.402e+09  -0.7277  0.6035  -0.03363  -0.008192  -0.02535  0.005358  -0.5698  0.7337
6.404e+09  -0.4334  0.7859  0.04026  0.001849  -0.01952  -0.002475  -0.2812  0.8834
6.405e+09  -0.1193  0.9125  0.02997  -0.000994  0.03306  0.008615  -0.05184  0.9165
6.406e+09  0.182  0.8786  0.00923  0.01539  -0.03805  -0.02412  0.3212  0.9054
6.408e+09  0.4702  0.7355  -0.01805  -0.004561  -0.008536  -0.01272  0.5992  0.7092
6.409e+09  0.681  0.5193  0.07457  -0.07718  -0.01862  -0.03239  0.7832  0.4916
6.41e+09  0.8706  0.2511  -0.02097  -0.0009219  0.03097  0.06317  0.8996  0.1553
6.411e+09  0.9376  -0.02093  -0.007131  -0.002516  -0.01407  0.002513  0.9071  -0.1438
6.412e+09  0.8375  -0.333  -0.03296  0.004449  0.05241  0.01147  0.7741  -0.4351
6.414e+09  0.6135  -0.5919  0.008404  -0.01476  0.01964  0.02232  0.6219  -0.6984
6.415e+09  0.4123  -0.8173  -0.02325  0.007163  -0.02713  0.03023  0.3173  -0.8291
6.416e+09  0.1308  -0.8973  0.02235  -0.05486  0.01614  0.00848  0.04212  -0.8651
6.418e+09  -0.1976  -0.8525  0.01484  0.003  0.001441  -0.02877  -0.3063  -0.8492
6.419e+09  -0.5356  -0.724  -0.01657  -0.02264  -0.04131  -0.01085  -0.5322  -0.6635
6.42e+09  -0.7398  -0.5529  -0.02177  -0.01252  -0.01779  -0.006728  -0.7922  -0.493
6.421e+09  -0.864  -0.2865  0.02084  0.008759  0.01872  -0.02916  -0.8325  -0.1702
6.422e+09  -0.9386  0.05305  -0.02995  0.01312  -0.01956  0.03566  -0.9117  0.1082
6.424e+09  -0.8307  0.3613  0.02975  -0.02069  -0.0249  0.01444  -0.7695  0.4227
6.425e+09  -0.6222  0.6167  -0.01356  -0.008879  0.01061  -0.02605  -0.6269  0.6101
6.426e+09  -0.4412  0.779  0.02771  0.03801  -0.008545  -0.01938  -0.3136  0.8001
6.428e+09  -0.084  0.9155  -0.01516  0.01494  -0.06521  -0.06596  -0.0396  0.9214
6.429e+09  0.2438  0.876  -0.0215  0.003142  -0.01156  0.0507  0.235  0.8799
6.43e+09  0.4977  0.6999  0.0287  0.01121  -0.03936  0.002459  0.5245  0.6679
6.431e+09  0.7944  0.5004  0.02395  0.02412  0.001233  -0.008204  0.7092  0.4633
6.432e+09  0.8427  0.2234  0.02267  0.01072  0.03943  0.01798  0.8431  0.2122
6.434e+09  0.9095  -0.08937  0.002298  -0.003723  -0.00909  -0.01281  0.8602  -0.005774
6.435e+09  0.8261  -0.3962  0.01527  0.03156  0.03598  0.03403  0.7744  -0.3838
6.436e+09  0.6471  -0.674  -0.0162  0.02318  0.01135  0.01742  0.6363  -0.6274
6.438e+09  0.3752  -0.8495  -0.01436  -0.03281  0.01625  0.06105  0.311  -0.8214
6.439e+09  0.1157  -0.8902  -0.03416  -0.02615  -0.02725  -0.02295  0.03344  -0.8891
6.44e+09  -0.256  -0.9128  -0.02379  0.03347  -0.02233  -0.01679  -0.2197  -0.8416
6.441e+09  -0.5239  -0.7423  0.0006207  0.008036  0.013  0.03329  -0.4719  -0.6929
6.442e+09  -0.7886  -0.5465  0.02972  -0.006033  -0.001282  -0.03637  -0.6914  -0.4523
6.444e+09  -0.8961  -0.246  -0.03414  0.04141  -0.03168  0.006724  -0.8329  -0.2055
6.445e+09  -0.8676  0.1045  -0.01886  -0.0465  0.01204  0.02756  -0.8195  0.04772
6.446e+09  -0.8021  0.4827  0.004802  0.03375  0.008428  -0.03612  -0.7436  0.3697
6.448e+09  -0.6317  0.6649  -0.01301  -0.02659  -0.01223  -0.03348  -0.624  0.6042
6.449e+09  -0.3058  0.8243  0.02606  0.03905  0.02548  -0.01117  -0.3879  0.7266
6.45e+09  -0.04037  0.93  -0.03967  -0.0003777  -0.002151  0.00711  -0.09172  0.8633
6.451e+09  0.2615  0.8485  -0.009031  0.0527  -0.01187  0.0182  0.2129  0.8073
6.452e+09  0.5278  0.7332  -0.006076  -0.01158  0.02075  -0.0342  0.4726  0.6372
6.454e+09  0.7851  0.4682  0.01364  0.01996  0.004705  -0.02628  0.7136  0.4293
6.455e+09  0.904  0.1913  -0.007189  0.05253  0.01327  -0.03776  0.8121  0.1522
6.456e+09  0.8846  -0.1617  -0.05025  0.0127  0.02631  -0.04491  0.8063  -0.08864
6.458e+09  0.811  -0.4457  -0.0226  -0.04221  0.02076  0.006593  0.799  -0.3384
6.459e+09  0.6213  -0.6762  0.00484  0.02255  -0.02876  -0.03019  0.5564  -0.5881
6.46e+09  0.283  -0.871  0.006713  -0.01858  0.006863  -0.0206  0.3428  -0.755
6.461e+09  0.0105  -0.9593  -0.001247  0.02295  0.04772  -0.001076  0.05668  -0.8126
6.462e+09  -0.3799  -0.8605  0.01016  -0.005018  -0.02124  0.006614  -0.219  -0.748
6.464e+09  -0.5772  -0.6758  -0.02234  0.001934  -0.005347  0.04324  -0.5098  -0.642
6.465e+09  -0.8071  -0.4832  0.01945  -0.03224  0.01792  -0.01699  -0.6666  -0.4343
6.466e+09  -0.9153  -0.199  -0.01227  0.02942  -0.01767  -0.001881  -0.7714  -0.1883
6.468e+09  -0.914  0.2278  0.04299  -0.03657  -0.01269  -0.006125  -0.8336  0.07065
6.469e+09  -0.7722  0.4782  0.01182  0.03083  0.04541  0.03008  -0.7263  0.3315
6.47e+09  -0.5912  0.7451  0.002517  -0.008896  -0.03229  0.07725  -0.564  0.5959
6.471e+09  -0.3489  0.8552  -0.001396  0.03647  -0.023  0.04476  -0.3292  0.7376
6.472e+09  0.02792  0.9243  0.00943  -0.0111  0.01568  0.01082  -0.06802  0.777
6.474e+09  0.3554  0.934  -0.006632  0.01088  -0.007678  0.007941  0.2062  0.8122
6.475e+09  0.6542  0.7115  -0.0124  -0.003094  -0.001099  -0.01449  0.4503  0.6531
6.476e+09  0.8519  0.4076  0.06137  0.01645  0.01499  0.05755  0.6471  0.4107
6.478e+09  0.9327  0.13  -0.02309  0.0006225  0.05364  -0.018  0.7771  0.2335
6.479e+09  0.9731  -0.2009  -0.01606  0.001075  -0.03765  0.03561  0.7938  -0.07864
6.48e+09  0.8228  -0.5041  0.02088  -0.004649  -0.03472  0.005397  0.7027  -0.3737
6.481e+09  0.586  -0.7617  -0.01058  0.02265  0.02462  -0.01298  0.5021  -0.5727
6.482e+09  0.2565  -0.9271  0.006307  0.02224  0.003296  -0.001619  0.3155  -0.6898
6.484e+09  -0.1199  -0.9432  0.0134  0.01375  -0.04199  -0.04271  0.0663  -0.7506
6.485e+09  -0.4042  -0.8211  0.04867  -0.00246  0.0006472  -0.002542  -0.2224  -0.733
6.486e+09  -0.6811  -0.6813  -0.03657  0.006461  -0.03785  0.0005837  -0.4712  -0.6232
6.488e+09  -0.9043  -0.3735  0.01343  0.01431  0.003514  -0.04503  -0.6305  -0.4786
6.489e+09  -0.9681  -0.0663  0.009941  -0.001801  -0.01167  -0.01568  -0.7509  -0.1654
6.49e+09  -0.9323  0.2604  0.01991  0.01523  0.02958  -0.01769  -0.7807  0.07815
6.491e+09  -0.7531  0.5837  0.02502  -0.01004  0.03769  -0.01494  -0.6727  0.3696
6.492e+09  -0.5068  0.819  0.03221  -0.05039  -0.002341  -0.0517  -0.5688  0.5543
6.494e+09  -0.1795  0.9438  -0.009399  0.00116  -0.02534  0.05558  -0.2988  0.7457
6.495e+09  0.1516  0.9745  0.01413  -0.007662  -0.01707  -0.04111  -0.02808  0.7333
6.496e+09  0.5213  0.8108  0.01853  0.002669  -0.02203  0.03079  0.2152  0.7461
6.498e+09  0.7461  0.6201  0.01287  0.01413  -0.01017  -0.01308  0.4623  0.6161
6.499e+09  0.9279  0.3644  -0.006284  0.006347  -0.02678  -0.02191  0.6275  0.3956
6.5e+09  0.9773  -0.04959  -0.002454  -0.01498  -0.03697  0.005785  0.7747  0.1333
6.501e+09  0.9573  -0.3676  -0.01066  -0.002  0.009668  0.001685  0.7606  -0.0986
6.502e+09  0.7076  -0.6287  -0.01121  -0.0004516  -0.03329  -0.01655  0.6843  -0.3673
6.504e+09  0.3823  -0.8719  -0.0251  0.04831  -0.03398  0.02014  0.5052  -0.6232
6.505e+09  0.1092  -0.9906  0.03953  -0.01197  0.03049  -0.001656  0.2599  -0.7221
6.506e+09  -0.2286  -0.9062  0.008833  -0.026  -0.005391  -0.029  -0.02138  -0.7195
6.508e+09  -0.5741  -0.8086  -0.02531  -0.01479  0.006773  -0.01645  -0.2876  -0.7164
6.509e+09  -0.7659  -0.5218  -0.02122  0.0232  0.08098  0.07453  -0.4373  -0.5966
6.51e+09  -0.9674  -0.2461  0.01446  -0.02721  -0.02042  0.02767  -0.6221  -0.3912
6.511e+09  -0.9902  0.1123  -0.01988  0.00842  -1.372e-05  -0.006885  -0.7485  -0.1487
6.512e+09  -0.9159  0.4668  -0.008855  0.01202  -0.01136  -0.01054  -0.7501  0.1101
6.514e+09  -0.6367  0.7652  0.01721  -0.01252  -0.05324  0.0303  -0.6087  0.3601
6.515e+09  -0.3551  0.8828  -0.02174  -0.01364  0.007543  -0.003684  -0.5007  0.5858
6.516e+09  -0.00506  0.8999  0.009807  0.01599  -0.03092  0.02084  -0.2692  0.7376
6.518e+09  0.3147  0.8471  0.02956  0.01032  -0.03977  0.01761  0.01812  0.7462
6.519e+09  0.5677  0.7437  0.01828  0.01454  -0.01241  -0.03255  0.2431  0.7035
6.52e+09  0.7971  0.5175  -0.0373  -0.02045  0.02259  0.01891  0.4989  0.5422
6.521e+09  0.9327  0.2102  0.0001081  -0.01473  -0.04413  -0.03674  0.6552  0.3447
6.522e+09  0.9526  -0.2275  -0.02096  -0.01358  -0.005165  -0.0359  0.7387  0.08373
6.524e+09  0.8092  -0.4398  -0.01884  0.0009207  0.002046  -0.02877  0.6827  -0.1498
6.525e+09  0.54  -0.7354  -0.02507  0.01151  -0.01216  -0.05174  0.6142  -0.3743
6.526e+09  0.2662  -0.9608  0.01714  0.02813  -0.01527  0.01319  0.4233  -0.6229
6.528e+09  -0.08944  -0.9407  -0.0125  -0.0367  0.0002097  -0.003786  0.195  -0.6774
6.529e+09  -0.3544  -0.8209  -0.02022  0.006721  -0.02982  0.03471  -0.0488  -0.7155
6.53e+09  -0.6908  -0.6389  0.00766  -0.03535  -0.00793  0.01989  -0.2758  -0.6343
6.531e+09  -0.8718  -0.3545  -0.05226  0.02675  -0.004376  0.01716  -0.4635  -0.483
6.532e+09  -0.968  -0.09037  0.01632  0.02435  -0.008595  0.05865  -0.5972  -0.2923
6.534e+09  -0.922  0.2742  -0.002372  -0.01111  0.02357  0.067  -0.651  -0.08798
6.535e+09  -0.7396  0.5569  0.01764  -0.02216  0.007331  -0.005909  -0.6108  0.1092
6.536e+09  -0.5086  0.7616  0.006192  0.005775  0.004945  0.04211  -0.5792  0.3045
6.538e+09  -0.2196  0.9541  -0.00448  0.0158  -0.02323  0.05895  -0.4434  0.4822
6.539e+09  0.141  0.9165  -0.0322  -0.009796  0.0006075  0.01495  -0.2771  0.625
6.54e+09  0.4835  0.7871  0.009839  -0.007491  -0.006342  -0.05628  -0.04987  0.6891
6.541e+09  0.7254  0.601  0.03372  0.01992  -0.02016  0.005283  0.1784  0.659
6.542e+09  0.8759  0.2735  0.004084  0.0006338  -0.0586  -0.03511  0.4084  0.5625
6.544e+09  0.8569  -0.0004468  0.00444  -0.02035  -0.002762  0.01358  0.6256  0.3551
6.545e+09  0.8566  -0.3823  0.03178  0.001399  0.008232  0.008069  0.7031  0.1879
6.546e+09  0.7007  -0.6383  -0.01173  0.003644  -0.01714  0.03995  0.7198  -0.1154
6.548e+09  0.3635  -0.8431  -0.02393  -0.01022  -0.00127  -0.02083  0.634  -0.325
6.549e+09  0.1015  -0.9107  -0.004535  -0.003585  0.01308  -0.005981  0.4965  -0.5572
6.55e+09  -0.2465  -0.8359  -0.02656  -0.02678  -0.03289  0.03024  0.322  -0.6549
