# Hz S RI R 50
6.25e+09  -0.04458  0.838  0.003557  0.02095  -0.03449  0.06755  0.1327  0.4503
6.251e+09  0.246  0.8646  0.008192  -0.001177  0.05884  -0.01346  0.3731  0.3901
6.252e+09  0.5187  0.7147  0.02324  0.009881  0.04626  0.03443  0.549  0.2319
6.254e+09  0.7256  0.452  0.02297  0.02659  0.01484  0.06618  0.5969  0.02503
6.255e+09  0.8464  0.2197  -0.01934  0.02603  -0.01162  0.007299  0.5766  -0.2319
6.256e+09  0.8115  -0.107  0.02184  -0.0003623  0.04533  0.03241  0.4743  -0.4322
6.258e+09  0.789  -0.4104  -0.00204  0.02901  0.04912  0.01343  0.3013  -0.5892
6.259e+09  0.5548  -0.6289  -0.0279  0.03211  0.0325  -0.05591  0.0337  -0.6978
6.26e+09  0.3233  -0.7698  0.02918  0.001183  -0.009544  0.009024  -0.2215  -0.6646
6.261e+09  0.02744  -0.8556  -0.0176  -0.000708  0.002228  -0.02258  -0.4659  -0.5541
6.262e+09  -0.236  -0.8334  -0.009571  0.004993  -0.002346  -0.05631  -0.6423  -0.3452
6.264e+09  -0.5512  -0.6468  -0.0008892  0.01429  -0.005979  -0.04345  -0.6822  -0.1092
6.265e+09  -0.6891  -0.417  -0.03362  0.002497  0.04263  0.02564  -0.723  0.1901
6.266e+09  -0.8218  -0.1739  0.01991  0.03816  0.009056  0.02442  -0.6056  0.4049
6.268e+09  -0.864  0.1548  -0.01127  -0.03815  0.02155  0.01216  -0.4437  0.5753
6.269e+09  -0.763  0.3681  0.002948  -0.01207  0.01249  0.01431  -0.2313  0.7254
6.27e+09  -0.6066  0.6894  -0.007707  -0.01534  -0.04451  0.01358  0.07118  0.778
6.271e+09  -0.3646  0.793  -0.001246  -0.006832  -0.001305  -0.01161  0.3373  0.6691
6.272e+09  -0.02905  0.8384  0.01252  0.004039  -0.05259  0.01922  0.5238  0.5349
6.274e+09  0.2736  0.8176  0.02402  0.01513  0.04344  0.0103  0.6725  0.339
6.275e+09  0.5692  0.6255  -0.01983  -0.02833  -0.005458  -0.00177  0.7487  0.03568
6.276e+09  0.7449  0.389  -0.02164  -0.003222  -0.03562  -0.02968  0.7018  -0.2417
6.278e+09  0.7764  0.154  -0.01887  0.01158  0.002819  -0.02354  0.6169  -0.4859
6.279e+09  0.8231  -0.1961  0.006119  0.01168  -0.02284  -0.05218  0.4103  -0.6658
6.28e+09  0.7231  -0.4232  -0.009732  -0.01194  0.01754  0.01801  0.1523  -0.7441
6.281e+09  0.5316  -0.627  0.002238  -0.003066  -0.004994  0.04538  -0.09985  -0.766
6.282e+09  0.2915  -0.7739  0.001487  -0.0005171  -0.02  -0.02604  -0.3941  -0.7005
6.284e+09  -0.06533  -0.8202  0.004453  0.04486  0.006442  -0.0006805  -0.5819  -0.5097
6.285e+09  -0.3045  -0.7343  -0.007611  -0.01935  -0.04736  0.03189  -0.7265  -0.3085
6.286e+09  -0.578  -0.6023  0.008828  0.01824  -0.02866  0.06983  -0.7878  -0.0153
6.288e+09  -0.7962  -0.418  -0.004982  -0.0008592  -0.01123  -0.008077  -0.7875  0.2266
6.289e+09  -0.8128  -0.07357  -0.0328  0.003562  0.009167  -0.02795  -0.6149  0.491
6.29e+09  -0.8518  0.1907  -0.0002169  0.007684  -0.008588  -0.02618  -0.4116  0.6905
6.291e+09  -0.6982  0.4593  -0.002062  -0.03957  -0.03489  -0.02516  -0.1537  0.7761
6.292e+09  -0.4699  0.6142  -0.008843  0.01186  -0.04708  0.009874  0.1309  0.8168
6.294e+09  -0.2511  0.8354  1.328e-05  0.03746  -0.009342  0.03966  0.4034  0.693
6.295e+09  0.08124  0.805  0.0336  -0.0318  0.03512  -0.007307  0.6674  0.5482
6.296e+09  0.3572  0.8005  0.00385  0.001324  0.01888  0.006153  0.7952  0.2799
6.298e+09  0.5918  0.5542  -0.01005  0.01802  0.001946  0.02446  0.8262  -0.01603
6.299e+09  0.7765  0.304  -0.03319  -0.01017  -0.02591  -0.01109  0.7771  -0.2653
6.3e+09  0.8512  0.04287  -0.00399  -0.008268  0.003502  -0.01496  0.6682  -0.5306
6.301e+09  0.7798  -0.2432  -0.01778  0.014  -0.05904  0.003864  0.4328  -0.7267
6.302e+09  0.6449  -0.5178  -0.01127  -0.001739  0.01838  0.03051  0.156  -0.8445
6.304e+09  0.4478  -0.74  0.02148  0.01198  0.01309  -0.03181  -0.1331  -0.8495
6.305e+09  0.2575  -0.8253  -0.006542  0.002983  0.01881  0.03656  -0.445  -0.7356
6.306e+09  -0.1358  -0.8502  0.0247  0.03582  -0.04904  -0.03775  -0.6668  -0.542
6.308e+09  -0.4376  -0.7424  -0.008277  -0.01651  0.008442  -0.003829  -0.8179  -0.2932
6.309e+09  -0.6581  -0.5713  0.005648  -0.01018  0.03521  -0.0266  -0.8725  0.0174
6.31e+09  -0.7849  -0.2728  -0.006872  -0.04519  -0.05449  0.004763  -0.779  0.3095
6.311e+09  -0.8448  -0.00477  0.003137  -0.01315  0.02619  -0.04289  -0.6856  0.5498
6.312e+09  -0.8596  0.2846  -0.0082  -0.008801  -0.001481  -0.06106  -0.4425  0.7569
6.314e+09  -0.6348  0.5861  -0.004602  0.01279  0.02678  -0.01194  -0.1486  0.8625
6.315e+09  -0.4105  0.7327  0.004378  0.008796  0.03254  -0.0001527  0.1509  0.8436
6.316e+09  -0.1406  0.8292  -0.02112  -0.006532  0.02713  -0.03393  0.3988  0.7758
6.318e+09  0.2054  0.7639  0.0327  -0.03625  0.02397  0.04795  0.6684  0.5809
6.319e+09  0.4596  0.771  0.007044  0.01136  0.006895  0.04314  0.8233  0.2933
6.32e+09  0.7055  0.5416  0.03769  0.01862  0.002021  -0.04177  0.9059  0.02106
6.321e+09  0.7989  0.2788  -0.03334  -0.00144  0.01471  0.03314  0.8578  -0.3039
6.322e+09  0.8739  -0.05185  -0.05499  0.0391  -0.02132  -0.008272  0.6514  -0.549
6.324e+09  0.806  -0.351  0.002666  0.01852  -0.0002841  0.008525  0.4514  -0.7593
6.325e+09  0.6017  -0.6152  0.02357  0.01325  0.04148  -0.01374  0.1904  -0.8942
6.326e+09  0.3685  -0.7987  -0.003843  0.005044  -0.01703  -0.03147  -0.1356  -0.8935
6.328e+09  0.09091  -0.8291  0.006175  -0.03172  0.03916  -0.03139  -0.4281  -0.8045
6.329e+09  -0.2569  -0.8185  0.01581  0.005468  0.0175  -0.004855  -0.7125  -0.5895
6.33e+09  -0.4833  -0.7271  0.007845  -0.006565  -0.0308  0.00988  -0.8516  -0.3559
6.331e+09  -0.6532  -0.4823  0.007092  -0.005753  0.02191  0.03238  -0.8949  -0.02639
6.332e+09  -0.8593  -0.2261  0.000102  -0.008689  -0.01685  -0.00242  -0.8405  0.2876
6.334e+09  -0.8991  0.03129  0.02591  0.009985  -0.02196  0.001589  -0.7423  0.5437
6.335e+09  -0.7585  0.4321  0.02075  -0.00884  0.01502  -0.01076  -0.4785  0.74
6.336e+09  -0.6099  0.6843  -0.0139  -0.009033  -0.04594  0.03625  -0.2108  0.8804
6.338e+09  -0.3036  0.8067  0.01001  -0.01708  0.02094  0.02762  0.1216  0.9376
6.339e+09  -0.05988  0.8921  -0.01916  -0.007178  -0.02482  -0.000368  0.4163  0.8287
6.34e+09  0.2851  0.8671  -0.002227  -0.0343  -0.004387  0.01132  0.6954  0.6393
6.341e+09  0.5608  0.6624  -0.003925  -0.03592  -0.02273  0.01835  0.8489  0.3481
6.342e+09  0.7436  0.4115  -2.476e-05  -0.008487  0.01079  0.04201  0.9239  0.07897
6.344e+09  0.841  0.1444  -0.01772  0.01739  -0.03931  -0.01913  0.9199  -0.2759
6.345e+09  0.8903  -0.1324  0.005803  -0.01384  -0.004983  0.06286  0.7377  -0.6018
6.346e+09  0.7652  -0.4697  -0.01832  -0.008106  0.005641  -0.01369  0.4993  -0.7463
6.348e+09  0.571  -0.6785  0.02286  -0.04634  -0.004217  -0.01359  0.2224  -0.9279
6.349e+09  0.249  -0.8311  -0.009609  -0.04994  0.003711  0.02019  -0.09167  -0.9478
6.35e+09  -0.06474  -0.8735  -0.01312  -0.002273  -0.0001938  -0.02171  -0.3669  -0.8454
6.351e+09  -0.3292  -0.8339  -0.01558  0.01484  0.002766  -0.01346  -0.7311  -0.6702
6.352e+09  -0.6074  -0.6448  -0.001403  0.03369  -0.03689  0.01685  -0.8916  -0.3778
6.354e+09  -0.7455  -0.3861  -0.02506  0.00563  -0.02153  -0.01038  -0.9254  -0.05978
6.355e+09  -0.901  -0.06503  -0.03032  0.002415  0.02463  -0.01456  -0.8617  0.2732
6.356e+09  -0.8308  0.2666  -0.009178  0.007552  0.07227  -0.02419  -0.741  0.5349
6.358e+09  -0.7413  0.5304  0.007947  0.01128  -0.001368  0.05259  -0.5059  0.8202
6.359e+09  -0.5008  0.7413  -0.04183  -0.002519  0.01312  -0.003767  -0.214  0.9172
6.36e+09  -0.2121  0.8533  -0.01471  -0.005713  -0.0002655  0.0241  0.1371  0.966
6.361e+09  0.07957  0.8679  0.01515  -0.008438  -0.01453  -0.03137  0.3798  0.8489
6.362e+09  0.3656  0.7971  0.01854  0.007591  -0.01749  0.004033  0.6826  0.6729
6.364e+09  0.653  0.6336  -0.0003308  -0.01379  0.04083  0.04949  0.8919  0.391
6.365e+09  0.8383  0.362  -0.01625  0.01451  -0.04236  0.06362  0.9228  0.07477
6.366e+09  0.8924  0.07029  -0.005452  0.02766  0.007882  0.01723  0.8939  -0.2602
6.368e+09  0.8347  -0.2816  -0.02001  -8.576e-05  0.005573  0.006043  0.7123  -0.5744
6.369e+09  0.6591  -0.5507  -0.01156  0.04453  0.02052  0.02202  0.5342  -0.7469
6.37e+09  0.4446  -0.7807  0.005923  0.01829  0.02536  -0.002149  0.2276  -0.9258
6.371e+09  0.1504  -0.8653  0.01097  -0.04322  0.005058  -0.02857  -0.06282  -0.9617
6.372e+09  -0.1295  -0.8856  -0.01985  -0.048  0.02144  -0.01427  -0.3772  -0.8745
6.374e+09  -0.4474  -0.7565  -0.004801  -0.01599  -0.01583  0.02822  -0.6527  -0.671
6.375e+09  -0.7342  -0.6426  -0.04603  0.003392  -0.002038  0.02831  -0.8374  -0.4182
6.376e+09  -0.8433  -0.3082  -0.0195  -0.006928  0.03994  0.05856  -0.933  -0.1012
6.378e+09  -0.8757  -0.01922  -0.009649  0.02191  0.03103  -0.001142  -0.9467  0.2479
6.379e+09  -0.8586  0.3079  -0.01984  0.03746  -0.004092  -0.009813  -0.756  0.5239
6.38e+09  -0.6675  0.538  -0.006829  -0.01047  0.02657  -0.008276  -0.5498  0.7547
6.381e+09  -0.464  0.7712  0.02488  0.03137  -0.01517  0.02602  -0.2231  0.893
6.382e+09  -0.1536  0.8515  -0.02731  0.009638  -0.002134  -0.0184  0.03803  0.969
6.384e+09  0.1586  0.9155  -0.03236  0.01009  0.04192  -0.0004586  0.3973  0.8826
6.385e+09  0.5043  0.7649  -0.0156  -0.02002  0.02089  0.03626  0.6431  0.7208
6.386e+09  0.7292  0.5668  -0.002514  -0.0212  0.02641  -0.02306  0.8581  0.4589
6.388e+09  0.8787  0.2859  -0.006661  0.008344  0.02159  -0.01332  0.9299  0.1423
6.389e+09  0.8914  -0.07936  -0.05527  0.001355  0.02522  -0.02715  0.9397  -0.1985
6.39e+09  0.8537  -0.3636  -0.0173  0.02373  -0.07346  -0.0165  0.7565  -0.5094
6.391e+09  0.6892  -0.5843  -0.004363  0.02035  0.007441  -0.001542  0.5784  -0.7236
6.392e+09  0.4253  -0.7843  0.01834  -0.003956  0.02237  -0.05447  0.2465  -0.8691
6.394e+09  0.09532  -0.8804  -0.01343  -0.01158  0.02296  -0.03629  0.004051  -0.9342
6.395e+09  -0.1923  -0.8696  0.02501  0.02473  0.01575  -0.03915  -0.3669  -0.8368
6.396e+09  -0.534  -0.7074  -0.004688  -0.004878  -0.043  -0.0143  -0.6105  -0.7097
6.398e+09  -0.6617  -0.5354  -0.03116  0.004601  -0.01923  -0.01475  -0.7997  -0.3946
6.399e+09  -0.8667  -0.2471  -0.002138  0.005802  -0.007598  0.02981  -0.9005  -0.1108
6.4e+09  -0.867  0.07461  -0.02151  0.01164  0.01204  0.008349  -0.9195  0.1474
6.401e+09  -0.7735  0.352  -0.03919  0.05863  0.005893  -0.003791  -0.7799  0.5065
6.402e+09  -0.651  0.585  0.01404  0.03181  -0.01676  0.02984  -0.5759  0.7295
6.404e+09  -0.3601  0.8076  -0.007028  -0.008668  0.02454  -0.00688  -0.3141  0.8456
6.405e+09  -0.05901  0.8836  -0.006959  0.0106  -0.01115  -0.03299  -0.015  0.9435
6.406e+09  0.2157  0.8522  0.01659  0.00267  -0.008332  -0.01352  0.3231  0.8959
6.408e+09  0.4274  0.7104  0.04693  0.008997  0.0008586  0.05569  0.5943  0.6892
6.409e+09  0.7002  0.5092  0.001624  -0.008021  -0.00867  -0.03098  0.7782  0.4525
6.41e+09  0.8662  0.2208  -0.02449  0.07897  -0.02179  0.04355  0.9089  0.1355
6.411e+09  0.9228  -0.04912  0.02425  -0.01089  0.04123  0.00715  0.8603  -0.1475
6.412e+09  0.8471  -0.3632  0.04411  0.001644  -0.007448  0.001294  0.7431  -0.4116
6.414e+09  0.6108  -0.5928  0.04781  0.02523  0.0009406  -0.0139  0.5873  -0.6744
6.415e+09  0.3523  -0.8227  -0.002421  -0.02144  0.03453  0.02782  0.3081  -0.8607
6.416e+09  0.08208  -0.8837  -0.01208  -0.02596  -0.02319  0.05362  -0.005247  -0.9153
6.418e+09  -0.2609  -0.8625  0.0002635  0.0186  -0.02096  0.001648  -0.2804  -0.8199
6.419e+09  -0.5193  -0.7199  0.003905  0.03267  0.03055  0.01201  -0.5621  -0.7381
6.42e+09  -0.75  -0.5455  -0.02825  -0.02961  0.04328  -0.02795  -0.7451  -0.4859
6.421e+09  -0.8745  -0.1838  0.004518  -0.0106  -0.02868  0.01512  -0.8321  -0.1796
6.422e+09  -0.8853  0.09365  0.01582  0.009229  -0.04175  0.02123  -0.8542  0.09995
6.424e+09  -0.7791  0.4064  -0.004082  0.01185  0.004683  0.003867  -0.7892  0.4631
6.425e+09  -0.5792  0.6913  0.02547  -0.001347  0.01038  0.08312  -0.5999  0.643
6.426e+09  -0.3918  0.8113  0.006224  0.004948  -0.008984  0.03789  -0.3125  0.8013
6.428e+09  -0.03943  0.8459  -0.01669  0.0439  -0.01154  -0.01978  -0.05444  0.9287
6.429e+09  0.2797  0.9259  -0.04528  -0.0206  0.02793  -0.007406  0.2667  0.846
6.43e+09  0.5894  0.7081  -0.05296  0.007051  -0.01655  -0.04808  0.5472  0.711
6.431e+09  0.7847  0.4919  -0.01556  -0.005875  0.07162  0.008782  0.743  0.4734
6.432e+09  0.8714  0.2254  0.001953  -0.003514  -0.02972  0.05656  0.859  0.213
6.434e+09  0.9114  -0.1227  0.003971  0.004986  0.0216  -0.0132  0.8364  -0.1072
6.435e+09  0.8259  -0.4412  0.02544  -0.02548  0.05155  -0.03846  0.8062  -0.4039
6.436e+09  0.6213  -0.6324  0.01099  0.02369  -0.005421  0.02518  0.6094  -0.6198
6.438e+09  0.3671  -0.8444  0.0364  -0.01305  -0.009187  -0.03637  0.3808  -0.7758
6.439e+09  0.03768  -0.8794  -0.01401  0.03569  0.01705  0.02159  0.03703  -0.8641
6.44e+09  -0.2708  -0.8498  0.0153  -0.03055  0.02007  0.01152  -0.1943  -0.8178
6.441e+09  -0.5974  -0.7492  -0.001697  0.008525  5.507e-05  0.03587  -0.4546  -0.6543
6.442e+09  -0.8222  -0.4515  0.0132  -0.02811  -0.02905  0.02137  -0.7084  -0.4835
6.444e+09  -0.9015  -0.17  0.03168  0.03381  0.01492  -0.00692  -0.8363  -0.2106
6.445e+09  -0.8789  0.1948  -0.02877  0.006949  -0.036  0.03805  -0.8444  0.08074
6.446e+09  -0.7697  0.4733  -0.004896  -0.02149  0.04418  -0.00705  -0.7448  0.3701
6.448e+09  -0.5391  0.7125  -0.02078  -0.004524  0.0283  0.06665  -0.5847  0.6074
6.449e+09  -0.2906  0.8519  0.003976  0.03118  -0.02013  -0.02622  -0.3313  0.7807
6.45e+09  -0.0256  0.962  0.02953  0.007214  0.01558  0.01295  -0.06986  0.7986
6.451e+09  0.3697  0.8473  0.01155  -0.04763  -0.05674  0.009158  0.2594  0.8323
6.452e+09  0.6382  0.6691  -0.02838  0.003457  -0.03083  -0.02199  0.4265  0.6861
6.454e+09  0.8269  0.4242  0.01172  -0.02285  0.001584  0.002457  0.678  0.5224
6.455e+09  0.8914  0.1284  0.01643  0.01493  -0.04291  0.005826  0.7932  0.2018
6.456e+09  0.8914  -0.2141  0.002932  0.02025  -0.0005806  -0.02278  0.7742  -0.08913
6.458e+09  0.8065  -0.5471  -0.005455  0.001445  0.03595  0.02261  0.7216  -0.3606
6.459e+09  0.5522  -0.7448  -0.006021  0.03916  0.01518  0.02976  0.5819  -0.5278
6.46e+09  0.2981  -0.919  -0.02126  0.04917  -0.0136  0.004088  0.3093  -0.753
6.461e+09  -0.02593  -0.9378  -0.01941  -0.009856  0.01129  -0.01744  0.07756  -0.8202
6.462e+09  -0.3836  -0.8903  -0.008947  0.01674  0.03625  0.01709  -0.2086  -0.759
6.464e+09  -0.6127  -0.6463  -0.04052  0.06459  -0.05105  0.0447  -0.4673  -0.6624
6.465e+09  -0.8201  -0.378  0.02721  -0.002442  0.0315  0.002108  -0.6725  -0.4354
6.466e+09  -0.9314  -0.07809  -0.0243  0.02991  0.0127  -0.02082  -0.78  -0.1988
6.468e+09  -0.9496  0.2326  0.02096  0.01122  -0.01752  0.02327  -0.7702  0.07945
6.469e+09  -0.7732  0.5179  0.02228  0.01871  0.01362  -0.01476  -0.7666  0.3116
6.47e+09  -0.457  0.7651  0.007571  0.02572  -0.02174  -0.007511  -0.5839  0.5709
6.471e+09  -0.2225  0.9308  0.002661  -0.01586  0.008732  0.03043  -0.3382  0.7333
6.472e+09  0.1094  0.953  0.01114  0.0142  0.00745  -0.0067  -0.09113  0.8012
6.474e+09  0.4633  0.8463  0.04301  -0.01423  0.02765  -0.02729  0.2106  0.7851
6.475e+09  0.6761  0.6264  -0.02899  -0.01835  -0.0239  -0.03366  0.4744  0.6482
6.476e+09  0.8466  0.3554  -0.04708  -0.002792  -0.01912  -0.03914  0.6155  0.4448
6.478e+09  0.91  0.04174  -0.003407  0.01995  -0.006781  0.01919  0.7283  0.1784
6.479e+09  0.9269  -0.3114  -0.005063  0.01854  0.004436  -0.002246  0.7822  -0.06964
6.48e+09  0.7739  -0.5603  -0.02926  0.0147  -0.04235  0.03386  0.7238  -0.3712
6.481e+09  0.4709  -0.799  0.01923  0.0183  0.007282  0.03887  0.5147  -0.5508
6.482e+09  0.1574  -0.9228  -0.02734  -0.0168  -0.04133  -0.03944  0.2993  -0.7291
6.484e+09  -0.1857  -0.9306  0.001075  0.003904  0.01771  -0.01822  0.083  -0.7862
6.485e+09  -0.5085  -0.864  0.02531  -0.02422  -0.03853  -0.02516  -0.1808  -0.7745
6.486e+09  -0.7204  -0.5613  0.01573  -0.0263  0.05884  0.02246  -0.471  -0.6115
6.488e+09  -0.8747  -0.3269  0.02037  -0.02673  -0.03989  -0.005115  -0.6562  -0.4275
6.489e+09  -0.965  0.06138  -0.02316  -0.005658  0.0519  0.05008  -0.7459  -0.1919
6.49e+09  -0.8568  0.3325  0.04511  0.01176  -0.03132  -0.01082  -0.818  0.05189
6.491e+09  -0.7103  0.6229  0.04129  0.02711  0.004234  0.02963  -0.6943  0.3562
6.492e+09  -0.3769  0.8999  0.03593  -0.02357  -0.00907  -0.003345  -0.5282  0.5649
6.494e+09  -0.07331  0.9781  -0.01998  -0.0193  0.04215  0.03104  -0.3218  0.7402
6.495e+09  0.2225  0.9378  -0.03794  -0.01264  -0.0374  0.006068  -0.06892  0.7648
6.496e+09  0.5343  0.7861  -0.01418  0.01346  -0.005134  0.01337  0.1699  0.7295
6.498e+09  0.7825  0.5598  -0.005857  -0.008418  -0.0276  0.04676  0.4587  0.5834
6.499e+09  0.9431  0.2941  0.02661  -0.01812  0.04112  -0.01534  0.6399  0.4798
6.5e+09  0.8999  -0.07385  0.004556  -0.02434  -0.03978  -0.003255  0.788  0.1374
6.501e+09  0.8752  -0.473  -0.01351  -0.01765  0.04813  0.009634  0.7307  -0.1502
6.502e+09  0.6398  -0.6838  0.0009888  0.04183  -0.01212  -0.03175  0.6788  -0.4086
6.504e+09  0.4085  -0.9122  -0.01797  -0.02403  -0.001349  0.03349  0.4709  -0.6068
6.505e+09  0.01357  -0.9387  -0.0001496  0.001152  -0.03088  -0.01042  0.2353  -0.7281
6.506e+09  -0.3535  -0.9175  -0.02097  -0.003096  0.0001076  -0.03135  -0.0009025  -0.7488
6.508e+09  -0.6145  -0.6981  0.002224  -0.001634  -0.05468  -0.001607  -0.2333  -0.6882
6.509e+09  -0.8058  -0.4801  0.002894  0.02759  -0.01222  -0.0096  -0.4842  -0.6157
6.51e+09  -0.9661  -0.1664  -0.01997  0.01339  -0.01534  0.01491  -0.6621  -0.4035
6.511e+09  -0.9034  0.2299  -0.02815  0.01215  0.009788  -0.03439  -0.7746  -0.1137
6.512e+09  -0.7742  0.4563  -0.008792  -0.01392  -0.01192  -0.01494  -0.7536  0.154
6.514e+09  -0.6064  0.748  0.006184  0.0144  0.0315  -0.00149  -0.6458  0.3757
6.515e+09  -0.3085  0.9599  -0.01241  0.02336  0.007752  -0.01145  -0.478  0.5645
6.516e+09  0.06193  0.9184  -0.02068  -0.01492  0.001089  0.02385  -0.2443  0.7236
6.518e+09  0.413  0.8722  -0.01711  0.02391  -0.02885  -0.006003  0.0497  0.7713
6.519e+09  0.7015  0.687  -0.0021  0.02708  -0.04411  0.05132  0.2573  0.6918
6.52e+09  0.8947  0.3494  -0.01094  -0.03734  -0.0151  0.04627  0.4825  0.5869
6.521e+09  0.947  0.0204  0.001453  -0.01017  0.03077  -0.03426  0.669  0.3443
6.522e+09  0.9314  -0.2601  0.02864  -0.02531  -0.006781  -0.04007  0.72  0.1261
6.524e+09  0.708  -0.6463  0.03978  -0.03692  -0.06745  -0.003686  0.6795  -0.1301
6.525e+09  0.5139  -0.8384  -0.01232  -0.03788  0.03584  -0.05138  0.6326  -0.3796
6.526e+09  0.1746  -0.9204  0.03505  0.01919  0.02466  0.01577  0.4002  -0.5957
6.528e+09  -0.1712  -0.9703  -0.0007976  0.0278  0.03121  0.01613  0.2048  -0.6951
6.529e+09  -0.484  -0.8144  -0.003889  0.03835  -0.03087  -0.02866  -0.05308  -0.7312
6.53e+09  -0.751  -0.6224  -0.03905  0.0195  0.001043  -0.03601  -0.3169  -0.6245
6.531e+09  -0.867  -0.3168  0.02025  -0.02693  -0.003774  -0.02382  -0.5146  -0.4966
6.532e+09  -0.9242  0.05406  0.0006286  -0.02934  0.01003  0.02383  -0.6163  -0.282
6.534e+09  -0.8492  0.4003  -0.01358  0.02275  0.01392  0.01672  -0.6218  -0.07875
6.535e+09  -0.6663  0.6755  -0.01487  0.009362  -0.004366  0.01712  -0.6325  0.1168
6.536e+09  -0.4176  0.8038  -0.01201  -0.01695  -0.02845  0.01602  -0.5647  0.2649
6.538e+09  -0.05419  0.8818  0.005787  -0.01688  -0.008879  -0.0005264  -0.4318  0.4802
6.539e+09  0.2444  0.8103  -0.001882  -0.01214  0.01379  -0.0004239  -0.3222  0.6414
6.54e+09  0.5561  0.8063  0.0182  0.03641  -0.02017  0.00363  -0.08024  0.6493
6.541e+09  0.719  0.4713  0.03121  -0.001388  0.01525  -0.0534  0.1719  0.6798
6.542e+09  0.8535  0.1494  -0.01441  -0.01498  0.01452  0.00422  0.4298  0.5592
6.544e+09  0.9163  -0.1824  0.01979  -0.007338  -0.02152  0.008067  0.5919  0.3987
6.545e+09  0.768  -0.4296  -0.006355  0.01315  0.03051  -0.02697  0.7185  0.2082
6.546e+09  0.5002  -0.7487  -0.02571  -0.002246  0.009376  -0.01265  0.7129  -0.08101
6.548e+09  0.3008  -0.8954  -0.01849  -0.00135  0.02113  -0.0141  0.6179  -0.338
6.549e+09  -0.06818  -0.8708  -0.008598  0.01755  0.02344  -0.04467  0.4957  -0.5183
6.55e+09  -0.3424  -0.8054  0.01689  0.01197  0.01467  0.00652  0.2925  -0.6794
