# Hz S RI R 50
6.25e+09  -0.8371  0.09793  -0.001139  -0.02758  -0.01252  0.03831  0.1752  0.472
6.251e+09  -0.7185  0.3386  -0.01575  -0.0233  -0.02291  0.004231  0.3693  0.3872
6.252e+09  -0.5463  0.5807  -0.006307  -0.01508  -0.0413  -0.002159  0.5573  0.2249
6.254e+09  -0.2742  0.7779  -0.01428  -0.00895  -0.03682  0.009513  0.6136  0.004819
6.255e+09  0.005048  0.8108  -0.0006167  -0.005414  -0.02577  -0.03047  0.5747  -0.2542
6.256e+09  0.2553  0.7416  -0.007585  -0.01088  -0.03964  -0.01144  0.4796  -0.4686
6.258e+09  0.4859  0.6659  0.004842  -0.01058  -0.01614  -0.03951  0.2958  -0.6254
6.259e+09  0.6961  0.4431  -0.003558  -0.01358  -0.02743  -0.007278  0.02025  -0.6697
6.26e+09  0.8363  0.2  0.03349  0.01002  -0.003082  -0.01058  -0.2137  -0.6627
6.261e+09  0.8123  -0.155  0.01612  -0.01874  -0.01412  0.01951  -0.4642  -0.5108
6.262e+09  0.7333  -0.3573  0.0007113  0.01585  -0.008663  0.002842  -0.6108  -0.3545
6.264e+09  0.557  -0.5769  -0.01334  -0.002625  0.01836  -0.03422  -0.7042  -0.09467
6.265e+09  0.3481  -0.7823  -0.01001  0.004076  -0.01968  -0.03632  -0.7212  0.1546
6.266e+09  0.03753  -0.8141  -0.002943  -0.01116  -0.002768  -0.02456  -0.6053  0.4165
6.268e+09  -0.2763  -0.7481  0.001301  -0.01162  0.0387  0.04257  -0.4397  0.6239
6.269e+09  -0.523  -0.6586  0.0139  -0.01843  -0.0441  -0.02231  -0.1813  0.6942
6.27e+09  -0.7012  -0.4241  -0.005577  -0.001662  0.02172  -0.02809  0.07575  0.7589
6.271e+09  -0.8011  -0.1988  -0.006293  -0.005586  0.004892  0.003511  0.2929  0.677
6.272e+09  -0.818  0.1367  -0.01016  -0.00826  -0.03314  0.04713  0.5447  0.5137
6.274e+09  -0.75  0.3711  -0.01854  0.00567  -0.0325  0.06544  0.7063  0.3122
6.275e+09  -0.5664  0.5715  -0.01724  -0.01674  0.02841  -0.034  0.7489  0.0442
6.276e+09  -0.3047  0.7808  0.0006451  -0.008955  -0.0151  -0.02702  0.7169  -0.2296
6.278e+09  0.01585  0.8346  0.02805  -0.002721  0.05421  0.001247  0.6167  -0.4526
6.279e+09  0.3033  0.7617  0.00317  -0.01411  -0.001046  -0.06559  0.4105  -0.6399
6.28e+09  0.5166  0.6589  0.02568  -0.004354  -0.004251  -0.003837  0.1458  -0.7383
6.281e+09  0.6957  0.3971  0.00552  0.02182  0.01064  0.04608  -0.1003  -0.7672
6.282e+09  0.8362  0.1396  0.02147  -0.007424  -0.01573  0.01874  -0.3761  -0.7134
6.284e+09  0.8067  -0.1212  0.02298  0.0006953  -0.02413  -0.005769  -0.6195  -0.549
6.285e+09  0.7479  -0.3762  -0.003415  -0.00799  0.01174  -0.01185  -0.7338  -0.2753
6.286e+09  0.4929  -0.6714  -0.0253  -0.01444  -0.002941  0.002123  -0.7764  -0.01886
6.288e+09  0.2807  -0.7932  0.01167  -0.01716  -0.02475  -0.00664  -0.7458  0.3022
6.289e+09  -0.01158  -0.8228  -0.000916  -0.01325  -0.04339  0.01606  -0.6302  0.5178
6.29e+09  -0.3239  -0.7057  -0.00588  0.004093  -0.02778  -0.04795  -0.4581  0.7026
6.291e+09  -0.5066  -0.6474  0.01308  0.01522  -0.04184  -0.03041  -0.1788  0.7838
6.292e+09  -0.7214  -0.3459  -0.01114  -0.01578  -0.01918  0.03462  0.1266  0.8056
6.294e+09  -0.8289  -0.1074  0.004965  0.006281  0.02881  -0.04382  0.438  0.7367
6.295e+09  -0.8596  0.1914  0.001441  0.02439  -0.02049  -0.01541  0.6283  0.5591
6.296e+09  -0.6803  0.4804  -0.009955  0.02287  0.02164  -0.009863  0.7791  0.305
6.298e+09  -0.4804  0.6944  0.004785  0.02381  -0.02469  -0.0336  0.8467  -0.008457
6.299e+09  -0.2713  0.8125  0.01931  0.008702  0.02004  -0.005546  0.7496  -0.2621
6.3e+09  -0.02065  0.8321  0.01786  0.01322  0.01107  0.01816  0.6716  -0.5473
6.301e+09  0.3123  0.775  0.008884  0.006628  -0.003711  -0.01868  0.4232  -0.7215
6.302e+09  0.5516  0.6013  0.01364  -0.01479  0.01453  0.04744  0.1511  -0.8497
6.304e+09  0.7842  0.3623  -0.008267  0.02255  0.0002572  0.005892  -0.1865  -0.8381
6.305e+09  0.814  0.09496  0.0128  0.02821  -0.04168  0.004397  -0.4205  -0.7267
6.306e+09  0.8166  -0.2477  0.006104  -0.01835  -0.03274  0.05737  -0.6907  -0.5678
6.308e+09  0.7051  -0.4412  -0.006083  -0.01912  -0.01901  0.04929  -0.7974  -0.3111
6.309e+09  0.4875  -0.6554  0.01595  -0.01201  -0.008034  0.02293  -0.8522  0.004979
6.31e+09  0.2423  -0.79  -0.001941  -0.03197  -0.006175  -0.02943  -0.8135  0.3023
6.311e+09  -0.07417  -0.7954  -0.005998  0.0194  0.001737  -0.0175  -0.6963  0.5529
6.312e+09  -0.3391  -0.707  -0.01105  0.009725  -0.03829  0.01601  -0.4383  0.7691
6.314e+09  -0.5906  -0.5478  0.01672  -0.007418  0.01285  0.005929  -0.142  0.8336
6.315e+09  -0.7671  -0.3573  -0.009018  0.02615  0.003954  0.04697  0.1704  0.8871
6.316e+09  -0.808  -0.05903  0.02647  0.01898  0.02654  -0.005581  0.392  0.7718
6.318e+09  -0.7787  0.2296  -0.02266  0.01772  0.004927  -0.01323  0.6584  0.6035
6.319e+09  -0.6647  0.4751  -0.002316  -0.004974  0.009816  0.01433  0.7724  0.3397
6.32e+09  -0.4816  0.6886  -0.01816  0.009174  -0.02874  0.01814  0.8945  0.01884
6.321e+09  -0.1558  0.8359  0.003426  -0.01776  -0.01383  0.01428  0.8388  -0.2965
6.322e+09  0.1452  0.8358  -0.0368  -0.004423  -0.002343  -0.02064  0.6939  -0.5401
6.324e+09  0.4062  0.7806  0.008704  -0.02566  -0.01904  -0.005252  0.4982  -0.7786
6.325e+09  0.6603  0.5323  0.02255  0.04315  -0.005216  0.03251  0.1593  -0.8841
6.326e+09  0.7803  0.3145  -0.009718  -0.002422  -0.0003022  -0.00935  -0.1338  -0.8627
6.328e+09  0.8411  -0.02339  0.01124  0.001236  0.02708  -0.02938  -0.406  -0.7995
6.329e+09  0.8197  -0.2649  -0.003609  0.01287  -0.01847  -0.009605  -0.7108  -0.6047
6.33e+09  0.6262  -0.5841  -0.00829  -0.02177  0.04651  -0.03015  -0.8002  -0.331
6.331e+09  0.4185  -0.7462  0.01756  0.02187  0.008528  -0.04074  -0.904  -0.04395
6.332e+09  0.1162  -0.8534  -0.01791  -0.03789  -0.01401  -0.02129  -0.8794  0.2922
6.334e+09  -0.1915  -0.7979  0.03693  0.008924  0.02361  0.01277  -0.7097  0.5725
6.335e+09  -0.4469  -0.7008  -0.006088  -0.0006811  0.03032  0.05281  -0.4749  0.7829
6.336e+09  -0.6428  -0.5046  0.01733  0.005277  -0.05441  0.0003814  -0.2314  0.8933
6.338e+09  -0.8109  -0.2411  -0.01333  0.00966  -0.02799  0.003848  0.1226  0.9044
6.339e+09  -0.8542  0.0899  -0.00886  0.04371  -0.0002933  -0.02137  0.4327  0.8012
6.34e+09  -0.7759  0.3873  0.02552  -0.0006084  -0.001792  0.004054  0.6893  0.5966
6.341e+09  -0.6242  0.5827  -0.03502  0.01046  -0.03609  -0.0263  0.8373  0.3438
6.342e+09  -0.3471  0.7784  0.02001  0.01849  -0.02981  0.01717  0.9802  0.05801
6.344e+09  -0.003444  0.8956  0.01766  0.002105  -0.05089  0.01879  0.8951  -0.2593
6.345e+09  0.2475  0.8553  0.01574  0.01127  0.0351  -0.01001  0.7124  -0.5765
6.346e+09  0.5407  0.6293  -4.393e-05  0.01115  0.005803  0.01209  0.5036  -0.7948
6.348e+09  0.7559  0.4579  -0.007982  -0.01103  0.02069  0.01722  0.2269  -0.9294
6.349e+09  0.7984  0.173  0.008228  -0.0004911  0.003472  0.04162  -0.135  -0.9774
6.35e+09  0.8591  -0.1711  -0.01664  -0.003868  0.02225  -0.009964  -0.4332  -0.8357
6.351e+09  0.7543  -0.4471  0.02101  0.008779  -0.01348  -0.01324  -0.6867  -0.629
6.352e+09  0.5657  -0.6918  0.003005  -0.02825  -0.01666  -0.02888  -0.8561  -0.3541
6.354e+09  0.3068  -0.8331  0.01006  0.01666  0.01898  -0.05065  -0.9513  -0.06799
6.355e+09  -0.01276  -0.9159  -0.0135  -0.01741  0.0635  0.03155  -0.932  0.2818
6.356e+09  -0.3006  -0.7889  0.03592  -0.02788  0.0141  0.001274  -0.7571  0.5667
6.358e+09  -0.5562  -0.6201  -0.04186  -0.0286  -0.01711  -0.003548  -0.5275  0.8046
6.359e+09  -0.7887  -0.4083  0.0071  0.001841  0.001271  -0.02758  -0.2313  0.9193
6.36e+09  -0.8499  -0.08314  0.03587  0.01552  0.05223  -0.0003527  0.05851  0.9572
6.361e+09  -0.8633  0.2013  -0.02159  -0.01357  0.005984  -0.02014  0.3866  0.846
6.362e+09  -0.77  0.4384  -0.008595  0.03766  0.03284  0.002404  0.695  0.6895
6.364e+09  -0.4802  0.7321  0.006194  -0.03021  0.01509  -0.01904  0.8536  0.3823
6.365e+09  -0.1749  0.8226  0.006908  0.05793  0.004437  0.02173  0.9603  0.07078
6.366e+09  0.1146  0.8566  -0.03284  -0.007528  -0.02411  -0.01985  0.916  -0.2858
6.368e+09  0.4044  0.7966  -0.009972  0.008492  -0.03001  -0.004418  0.8153  -0.5169
6.369e+09  0.6819  0.5595  -0.004358  -0.0006512  -0.04975  -0.01252  0.5428  -0.7713
6.37e+09  0.7912  0.3552  0.02184  -0.01366  -0.004729  -0.05747  0.2675  -0.9383
6.371e+09  0.8774  0.005815  0.009975  -0.01351  -0.006072  0.006021  -0.06867  -0.9667
6.372e+09  0.8209  -0.3113  -0.02806  0.008125  0.002592  -0.01692  -0.3856  -0.8248
6.374e+09  0.6844  -0.5463  0.04039  0.005451  0.04876  -0.01585  -0.664  -0.6935
6.375e+09  0.4625  -0.7619  -0.005667  -0.003303  0.0001557  0.01818  -0.8752  -0.3986
6.376e+09  0.1445  -0.8706  0.03186  -0.01022  0.0007675  0.002115  -0.943  -0.09062
6.378e+09  -0.1541  -0.9117  0.00502  -0.004994  -0.03136  0.0167  -0.9023  0.2154
6.379e+09  -0.4273  -0.74  -0.01529  -0.0041  -0.0007829  0.01302  -0.7926  0.5532
6.38e+09  -0.6337  -0.5552  -0.007685  -0.004686  0.01653  -0.02585  -0.5663  0.7386
6.381e+09  -0.8487  -0.2521  0.003891  0.03475  0.01331  0.0006825  -0.2817  0.9066
6.382e+09  -0.894  0.06264  0.0225  -0.04768  -0.0167  -0.007311  0.02614  0.9508
6.384e+09  -0.8082  0.3384  0.01538  -0.02554  -0.0158  0.03357  0.4139  0.868
6.385e+09  -0.6776  0.6248  0.01834  -0.01236  0.06305  -0.0453  0.6248  0.6949
6.386e+09  -0.387  0.8241  -0.001281  -0.0119  0.02542  -0.01299  0.8393  0.419
6.388e+09  -0.06193  0.8694  -0.01473  0.01816  0.002415  0.02795  0.925  0.1165
6.389e+09  0.2582  0.8356  0.01715  -0.008801  0.02967  -0.03082  0.8992  -0.2295
6.39e+09  0.5467  0.6864  -0.0278  -0.006187  -0.0022  0.03781  0.7924  -0.4956
6.391e+09  0.6975  0.478  0.017  0.01356  0.01031  0.04113  0.5558  -0.7286
6.392e+09  0.8351  0.2195  0.02533  -0.01327  0.0153  -0.03258  0.2733  -0.9239
6.394e+09  0.8705  -0.08712  -0.02907  0.01971  -0.005119  -0.008225  -0.08295  -0.935
6.395e+09  0.8189  -0.4137  0.0272  0.04071  -0.02132  0.01507  -0.3731  -0.8616
6.396e+09  0.5964  -0.6324  0.001194  0.0135  0.004274  0.01132  -0.5829  -0.6218
6.398e+09  0.3998  -0.8734  -0.01422  -0.02016  0.01213  0.02917  -0.8415  -0.432
6.399e+09  -0.02189  -0.8876  0.02181  -0.004659  -0.01936  -0.04486  -0.9226  -0.1511
6.4e+09  -0.3507  -0.8362  0.0005522  -0.01457  0.02142  -0.006027  -0.9344  0.1438
6.401e+09  -0.552  -0.6341  0.01154  0.009885  0.0199  -0.001334  -0.8267  0.5081
6.402e+09  -0.7431  -0.4297  0.01064  -0.03234  0.007586  -0.04088  -0.5813  0.7279
6.404e+09  -0.8227  -0.1408  0.02058  -0.008327  0.02043  -0.01376  -0.3189  0.8316
6.405e+09  -0.8539  0.1426  -0.02416  0.02558  0.02618  -0.02532  -0.04238  0.9239
6.406e+09  -0.7188  0.47  -0.01134  0.004189  -0.02697  -0.01065  0.3201  0.8502
6.408e+09  -0.5387  0.71  0.004328  -0.01977  0.03686  -0.01386  0.547  0.7136
6.409e+09  -0.2711  0.8228  -0.008804  0.01043  -0.003337  0.01728  0.7813  0.4631
6.41e+09  0.07354  0.8898  -0.01411  0.02117  -0.04597  0.001273  0.8479  0.1182
6.411e+09  0.3616  0.8377  0.008888  0.007257  0.01522  -0.02963  0.8787  -0.1379
6.412e+09  0.5968  0.6763  -0.01805  -0.001195  0.02602  -0.0183  0.8361  -0.4503
6.414e+09  0.8135  0.4286  0.001117  0.05185  -0.02477  -0.03798  0.6027  -0.6422
6.415e+09  0.8314  0.07353  -0.01612  0.01886  -0.02491  0.04642  0.324  -0.8512
6.416e+09  0.8529  -0.225  0.006465  -0.01832  0.003269  0.00561  0.003863  -0.8826
6.418e+09  0.7487  -0.529  0.0309  0.007076  -0.02751  0.02768  -0.3046  -0.8578
6.419e+09  0.462  -0.7038  0.01333  0.02142  -0.01504  0.03533  -0.5602  -0.7319
6.42e+09  0.1694  -0.8474  -0.02828  -0.006948  0.02267  0.01317  -0.7548  -0.4949
6.421e+09  -0.1553  -0.8406  -0.001355  -0.06155  0.004258  0.006391  -0.8417  -0.2092
6.422e+09  -0.4145  -0.8191  -0.005374  0.009861  0.01718  0.05664  -0.8449  0.07831
6.424e+09  -0.6553  -0.6162  -0.0294  0.002765  -0.02192  -0.003739  -0.8087  0.3746
6.425e+09  -0.8315  -0.3457  0.0333  -0.01418  0.01645  0.04154  -0.578  0.6346
6.426e+09  -0.8872  -0.06759  -0.08871  0.002555  0.02534  -0.03261  -0.3509  0.8039
6.428e+09  -0.7817  0.24  0.02337  0.01715  -0.005627  0.0001755  -0.0775  0.8931
6.429e+09  -0.6604  0.5685  -0.00633  -0.000632  -0.002233  -0.03374  0.2754  0.8023
6.43e+09  -0.4514  0.782  0.0006674  0.02795  -0.03017  0.06583  0.5288  0.7124
6.431e+09  -0.1069  0.9305  0.03016  -0.02766  0.0167  -0.01175  0.6981  0.4895
6.432e+09  0.09866  0.8282  0.03616  0.002305  -0.02691  0.006919  0.8196  0.2148
6.434e+09  0.4504  0.7385  0.01524  0.0007834  0.02547  0.004438  0.8355  -0.07268
6.435e+09  0.6549  0.5512  -0.0233  0.03226  -0.006444  0.002839  0.7729  -0.3984
6.436e+09  0.8331  0.2946  0.01592  0.04075  0.01166  -0.01728  0.5845  -0.6256
6.438e+09  0.8788  0.00753  0.03583  -0.001823  -0.02276  0.01462  0.345  -0.802
6.439e+09  0.796  -0.2959  0.01362  -0.009436  -0.03554  0.04021  0.089  -0.8461
6.44e+09  0.6327  -0.5622  -0.02393  0.04914  0.00955  0.01947  -0.1936  -0.8331
6.441e+09  0.4466  -0.725  0.003834  -0.02188  -0.003729  0.03142  -0.5154  -0.6255
6.442e+09  0.1361  -0.8294  -0.005784  0.0006725  0.001821  0.03879  -0.7124  -0.48
6.444e+09  -0.1799  -0.8301  0.01158  -0.01997  -0.02207  -0.002342  -0.8078  -0.2419
6.445e+09  -0.4722  -0.7299  0.0002088  0.001373  0.06487  -0.02696  -0.8398  0.07105
6.446e+09  -0.6719  -0.5423  0.03496  0.03085  0.03263  0.01757  -0.7978  0.3808
6.448e+09  -0.8706  -0.2771  -0.02891  -0.0255  -0.03757  0.01781  -0.6018  0.6106
6.449e+09  -0.8715  0.03218  -0.008287  -0.00184  -0.0135  0.006911  -0.3426  0.7562
6.45e+09  -0.7589  0.3136  0.003074  -0.03174  0.004317  -0.03852  -0.119  0.797
6.451e+09  -0.6458  0.603  -0.01287  -0.01727  -0.01551  0.02722  0.2022  0.7805
6.452e+09  -0.4404  0.8171  0.04343  -0.01747  0.0265  0.01123  0.4771  0.6425
6.454e+09  -0.08241  0.8249  0.02158  0.00623  -0.03311  -0.08046  0.6918  0.4802
6.455e+09  0.1766  0.8347  0.03076  -0.01493  0.002056  0.004595  0.7542  0.1889
6.456e+09  0.4981  0.737  -0.01629  -0.01459  -0.04246  -0.0173  0.8193  -0.1032
6.458e+09  0.6442  0.5121  -0.0002386  0.018  -0.01439  -0.04866  0.7771  -0.3439
6.459e+09  0.8306  0.2704  0.00601  0.04502  0.01088  -0.007504  0.5911  -0.5865
6.46e+09  0.91  -0.05714  -0.02379  -0.001536  -0.01701  -0.0157  0.3195  -0.7213
6.461e+09  0.7822  -0.2807  0.01048  0.003905  -0.03812  0.02689  0.06625  -0.7935
6.462e+09  0.6177  -0.5391  0.006112  0.01078  -0.02415  -0.04607  -0.2137  -0.7826
6.464e+09  0.3878  -0.7586  0.01328  0.01308  0.006911  0.06286  -0.4347  -0.6607
6.465e+09  0.1087  -0.8398  0.009464  -0.0274  0.07296  -0.043  -0.6557  -0.4559
6.466e+09  -0.1999  -0.8531  0.01462  -0.001473  0.02073  -0.0326  -0.7882  -0.216
6.468e+09  -0.4928  -0.6716  0.04605  -0.0117  0.006864  0.04126  -0.8283  0.07188
6.469e+09  -0.657  -0.4935  0.01163  0.02894  0.01559  0.01283  -0.7137  0.3019
6.47e+09  -0.8287  -0.2402  -0.003859  0.005199  0.0374  0.03856  -0.5871  0.6027
6.471e+09  -0.886  0.05747  0.005367  0.01957  0.01284  -0.01069  -0.3253  0.7422
6.472e+09  -0.7285  0.3499  -0.0263  -0.04908  -0.01753  -0.03009  -0.09461  0.8066
6.474e+09  -0.5905  0.6283  -0.01524  0.009864  0.02607  -0.01253  0.2274  0.7447
6.475e+09  -0.367  0.7389  -0.004246  0.009899  0.04088  -0.006339  0.4642  0.6752
6.476e+09  -0.1623  0.8513  0.002048  -0.01116  0.02079  -0.007144  0.6348  0.4258
6.478e+09  0.1989  0.8537  0.007703  0.01509  -0.02042  0.01335  0.8191  0.1721
6.479e+09  0.4628  0.6985  0.004273  0.01466  0.01063  0.06001  0.7569  -0.08949
6.48e+09  0.7276  0.4803  0.02715  0.004289  -0.05359  -0.01551  0.6884  -0.3419
6.481e+09  0.8302  0.2297  0.03638  -0.01003  -0.02786  -0.03667  0.5276  -0.5639
6.482e+09  0.881  -0.08008  -0.007351  -0.002999  -0.007073  -0.02175  0.2814  -0.7484
6.484e+09  0.7922  -0.3499  0.00954  -0.006187  0.0284  -0.0007433  0.04716  -0.7662
6.485e+09  0.6541  -0.6478  0.01995  0.02374  -0.01908  0.02636  -0.2184  -0.7295
6.486e+09  0.3896  -0.8042  0.007162  0.03336  -0.01354  -0.03251  -0.4561  -0.6529
6.488e+09  0.06887  -0.8882  -0.01954  0.01837  -0.0001827  0.002011  -0.639  -0.4638
6.489e+09  -0.2382  -0.8816  0.007673  -0.004996  0.06122  -0.01577  -0.7467  -0.1545
6.49e+09  -0.5328  -0.6851  -0.00903  -0.03555  0.005091  0.02439  -0.8209  0.05595
6.491e+09  -0.7497  -0.4859  0.0108  0.002519  0.01175  0.03421  -0.6781  0.334
6.492e+09  -0.8985  -0.2191  0.05026  0.01723  -0.04278  0.03327  -0.5132  0.5825
6.494e+09  -0.8989  0.09579  -0.01424  -0.01474  -0.02816  -0.03569  -0.3281  0.7065
6.495e+09  -0.7531  0.3898  0.02388  -0.01132  0.02297  -0.02558  -0.0247  0.7348
6.496e+09  -0.5692  0.6064  0.04276  -0.02336  -0.04873  0.0009415  0.2164  0.7364
6.498e+09  -0.3586  0.7964  -0.01818  0.01582  -0.003481  -0.007692  0.4361  0.6361
6.499e+09  -0.07614  0.8717  -0.002055  0.009334  0.008126  0.01369  0.6308  0.4067
6.5e+09  0.2444  0.8477  0.03386  0.007776  -0.008305  0.04818  0.7179  0.1207
6.501e+09  0.5466  0.7238  0.02671  -0.003119  -0.001365  0.02755  0.8129  -0.1206
6.502e+09  0.7188  0.5127  -0.04062  -0.009582  0.007566  -0.03763  0.6603  -0.3591
6.504e+09  0.8194  0.2401  -0.01994  0.005514  -0.03101  0.009885  0.5007  -0.5927
6.505e+09  0.8858  -0.1121  0.03198  0.01216  -0.0313  0.0258  0.3146  -0.6925
6.506e+09  0.7944  -0.4112  0.006583  -0.01291  -0.03972  0.005369  0.02733  -0.7497
6.508e+09  0.5873  -0.6369  0.03447  -0.04428  0.0339  -0.0177  -0.2275  -0.7205
6.509e+09  0.3876  -0.8163  0.02132  0.02725  0.01584  -0.02121  -0.5006  -0.5713
6.51e+09  0.07222  -0.8893  -0.02244  0.02037  0.03339  -0.03734  -0.6705  -0.3848
6.511e+09  -0.2293  -0.8612  -0.01744  -0.0221  0.02343  -0.005903  -0.7067  -0.1438
6.512e+09  -0.5112  -0.7601  0.01145  -0.03077  0.004959  -0.02454  -0.7391  0.1201
6.514e+09  -0.7499  -0.4545  0.01097  -0.01235  0.03396  -0.005868  -0.6649  0.3678
6.515e+09  -0.8148  -0.2069  0.03196  -0.03197  -0.03569  0.02404  -0.4831  0.577
6.516e+09  -0.9399  0.1755  0.008399  0.03806  0.01163  0.01003  -0.2336  0.6976
6.518e+09  -0.7323  0.4253  0.004435  0.02177  0.00334  0.001711  0.006778  0.7182
6.519e+09  -0.5981  0.7047  0.007119  0.01191  -0.006979  0.02148  0.2727  0.6915
6.52e+09  -0.3333  0.8418  -0.001946  -0.01936  -0.02217  0.003001  0.4951  0.5038
6.521e+09  -0.03199  0.9152  0.008329  -0.000248  0.02253  0.02352  0.6567  0.3257
6.522e+09  0.3199  0.9039  0.01086  0.04076  0.01063  0.03085  0.7125  0.07533
6.524e+09  0.5784  0.7085  -0.01139  0.05219  0.01166  0.006421  0.7079  -0.1586
6.525e+09  0.8347  0.4867  0.0239  0.005578  -0.01408  0.01933  0.586  -0.3463
6.526e+09  0.912  0.1728  -0.01661  -0.03869  -0.04285  0.001881  0.4568  -0.5967
6.528e+09  0.9212  -0.2122  -0.02456  -0.009349  -0.01002  -0.03683  0.1881  -0.6519
6.529e+09  0.7862  -0.4247  0.02789  -0.007288  -0.01212  -0.0497  -0.05678  -0.6999
6.53e+09  0.5528  -0.6993  -0.007317  0.02481  0.01071  -0.03382  -0.3129  -0.5983
6.531e+09  0.2762  -0.9249  0.02702  0.03349  -0.001626  0.004872  -0.4765  -0.4666
6.532e+09  -0.04015  -0.9155  -0.001802  -0.03108  -0.03774  0.0005454  -0.584  -0.2728
6.534e+09  -0.4026  -0.8803  0.004318  -0.02441  0.01482  0.04166  -0.6275  -0.1045
6.535e+09  -0.5869  -0.6911  0.01344  0.008055  0.04819  0.05529  -0.6035  0.11
6.536e+09  -0.8468  -0.393  0.01903  0.005446  -0.01527  -0.03046  -0.5599  0.3011
6.538e+09  -0.933  -0.1051  5.369e-05  -0.004696  0.02763  -0.01525  -0.4586  0.5028
6.539e+09  -0.9774  0.2606  0.001554  -0.02904  -0.04085  -0.001046  -0.2564  0.614
6.54e+09  -0.7873  0.6033  -0.01108  0.005435  0.03474  0.02421  -0.0479  0.6727
6.541e+09  -0.5607  0.7932  -0.01266  -0.01267  0.009809  0.01027  0.1885  0.6478
6.542e+09  -0.242  0.9596  0.002768  -0.02529  -0.05028  0.04922  0.431  0.583
6.544e+09  0.0944  0.934  0.005958  0.03477  0.03693  0.01123  0.5829  0.4247
6.545e+09  0.3878  0.82  0.0124  0.001835  -0.05253  -0.05877  0.7205  0.18
6.546e+09  0.7315  0.6862  0.01681  0.002614  0.01404  0.01125  0.7424  -0.08317
6.548e+09  0.9143  0.4113  -0.02318  -0.001315  0.05013  -0.04757  0.6531  -0.3458
6.549e+09  0.9489  0.04516  0.01593  0.02734  0.02711  0.01577  0.5134  -0.5627
6.55e+09  0.9021  -0.3078  -0.02598  -0.01247  -0.02052  -0.04743  0.2835  -0.6692
