# Hz S RI R 50
6.25e+09  0.4858  0.7502  0.001995  -0.01681  0.08286  0.004091  0.1446  0.4681
6.251e+09  0.6174  0.5708  -0.01894  -0.0106  0.03096  -0.001895  0.3646  0.4125
6.252e+09  0.84  0.2792  0.02343  0.008613  -0.01987  -0.007924  0.5122  0.2321
6.254e+09  0.8384  -0.01578  -0.004168  -0.01515  0.01753  -0.01201  0.6189  0.0376
6.255e+09  0.7832  -0.2953  0.02066  -0.003207  0.01111  -0.002282  0.5863  -0.2161
6.256e+09  0.6244  -0.5676  -0.002348  0.01072  -0.00266  0.01524  0.4646  -0.4628
6.258e+09  0.436  -0.7408  0.01939  0.00705  -0.04982  -0.04252  0.3238  -0.5917
6.259e+09  0.12  -0.8402  0.005712  0.003814  0.07557  -0.05852  0.02901  -0.6714
6.26e+09  -0.172  -0.7795  0.005119  -0.03625  0.003302  0.03816  -0.1947  -0.6436
6.261e+09  -0.4162  -0.7845  -0.01024  0.005862  0.01989  -0.01937  -0.4504  -0.5526
6.262e+09  -0.6772  -0.5421  -0.01766  -0.01362  0.01176  -0.00192  -0.6241  -0.3496
6.264e+09  -0.8136  -0.1775  -0.04755  -0.01186  0.01119  -0.04131  -0.7016  -0.1268
6.265e+09  -0.8262  0.09453  -0.02431  0.003715  -0.01558  0.046  -0.6988  0.1555
6.266e+09  -0.7792  0.369  0.01724  0.02021  0.01238  0.01501  -0.6193  0.4286
6.268e+09  -0.602  0.6014  -0.0243  0.02065  -0.01646  0.02418  -0.4597  0.5733
6.269e+09  -0.3149  0.7742  0.02779  -0.01281  -0.02273  -0.003321  -0.2037  0.7027
6.27e+09  -0.1204  0.8561  -0.01383  -0.005222  -0.02819  -0.0295  0.03115  0.7595
6.271e+09  0.2068  0.8031  -0.01167  -0.003892  0.009469  0.02568  0.3394  0.6658
6.272e+09  0.4693  0.6503  -0.001632  -0.008546  -0.0126  0.02314  0.5295  0.5053
6.274e+09  0.7296  0.4675  0.02301  0.002221  -0.01529  -0.006328  0.6933  0.2764
6.275e+09  0.7399  0.1959  0.009403  0.05287  0.02036  -0.00259  0.7578  0.01009
6.276e+09  0.8421  -0.1174  0.01266  -0.004216  0.03866  0.0125  0.7165  -0.2234
6.278e+09  0.7581  -0.4154  -0.009842  -0.01273  -0.003958  0.001784  0.5923  -0.4523
6.279e+09  0.5118  -0.6588  -0.002917  0.001954  0.02229  0.02739  0.4214  -0.6589
6.28e+09  0.337  -0.7328  0.0206  -0.02162  -0.02374  0.05371  0.1821  -0.7569
6.281e+09  -0.003904  -0.8447  -0.01496  -0.009739  0.00583  0.02666  -0.1275  -0.7776
6.282e+09  -0.306  -0.7506  0.015  -0.04356  -0.005913  -0.06314  -0.3803  -0.7131
6.284e+09  -0.5  -0.6206  0.01533  0.01808  -0.009631  0.04611  -0.5691  -0.5521
6.285e+09  -0.7155  -0.3958  -0.01187  -0.01506  -0.007103  0.01716  -0.7163  -0.2938
6.286e+09  -0.8311  -0.09944  -0.001654  -0.03266  0.004739  -0.03247  -0.8071  0.03021
6.288e+09  -0.8043  0.1643  0.02509  0.01676  -0.02538  -0.01013  -0.7563  0.2815
6.289e+09  -0.7242  0.4335  0.007267  -0.006986  0.02198  0.05451  -0.6292  0.4875
6.29e+09  -0.5514  0.6787  -0.006362  -0.002415  0.07021  0.01838  -0.4437  0.6863
6.291e+09  -0.2418  0.7294  -0.008112  0.01444  0.02126  -0.05488  -0.1456  0.7832
6.292e+09  0.06264  0.8549  0.02636  -0.0143  -0.03626  0.03368  0.1239  0.7871
6.294e+09  0.358  0.7664  0.0008313  0.03731  0.03021  -0.06508  0.3999  0.7025
6.295e+09  0.6006  0.6142  -0.01802  0.009727  -0.01589  -0.02838  0.6408  0.5168
6.296e+09  0.7679  0.3247  0.008468  0.0005843  0.01496  -0.02523  0.7861  0.3287
6.298e+09  0.819  0.04728  0.01471  -0.004779  0.02862  -0.05118  0.8295  0.006311
6.299e+09  0.8063  -0.2206  0.01432  -0.01415  0.00674  -0.02576  0.78  -0.303
6.3e+09  0.6645  -0.501  0.02319  -0.01424  -0.0263  -0.008396  0.6594  -0.5773
6.301e+09  0.4053  -0.6871  0.006948  -0.02782  -0.004973  -0.01195  0.4276  -0.692
6.302e+09  0.1877  -0.8318  0.007928  0.008624  -0.0354  -0.03952  0.1401  -0.8282
6.304e+09  -0.1521  -0.8382  -0.04703  0.02491  0.0155  0.00249  -0.1328  -0.8308
6.305e+09  -0.39  -0.7738  0.0438  -0.002143  -0.01888  -0.001407  -0.4374  -0.7253
6.306e+09  -0.6102  -0.512  -0.0007491  -0.02651  0.001695  0.01045  -0.6393  -0.5675
6.308e+09  -0.7636  -0.2343  -0.02785  0.02852  -0.01867  -0.06227  -0.824  -0.3138
6.309e+09  -0.8721  -0.01316  -0.01757  -0.02778  0.005581  0.02714  -0.8807  -0.003443
6.31e+09  -0.8049  0.2843  -0.005532  -0.007671  0.0102  -0.005364  -0.789  0.2474
6.311e+09  -0.654  0.5097  -0.004978  0.02041  -0.06815  -0.0654  -0.6629  0.5493
6.312e+09  -0.3818  0.7495  -0.0217  0.01283  -0.0008867  0.0229  -0.4712  0.747
6.314e+09  -0.07738  0.784  0.01382  0.007681  -0.02767  -0.002875  -0.1605  0.8542
6.315e+09  0.1946  0.8876  0.004432  -0.04328  0.003801  -0.01515  0.1674  0.8659
6.316e+09  0.5107  0.7326  0.005271  0.008199  -0.01245  0.06061  0.4251  0.7718
6.318e+09  0.6829  0.4538  0.0003794  0.009291  0.05213  0.04321  0.6778  0.5893
6.319e+09  0.7936  0.2087  0.006097  -0.02139  -0.03034  0.03093  0.7931  0.3352
6.32e+09  0.844  -0.1172  -0.02053  -0.0169  -0.03904  -0.01132  0.8863  0.008883
6.321e+09  0.7567  -0.3662  -0.005025  -0.01327  0.006417  -0.03731  0.8773  -0.273
6.322e+09  0.6223  -0.6343  -0.003654  0.02034  0.0009543  -0.03439  0.7045  -0.5679
6.324e+09  0.3174  -0.7927  0.009282  -0.01687  -0.02009  -0.01944  0.4571  -0.791
6.325e+09  0.06579  -0.8108  -0.007776  -0.01591  -0.005605  -0.02755  0.1871  -0.905
6.326e+09  -0.32  -0.8373  0.002103  -0.01445  -0.000741  -0.02256  -0.1394  -0.882
6.328e+09  -0.5367  -0.6136  -0.002902  0.04476  0.02741  0.01422  -0.4345  -0.7941
6.329e+09  -0.7522  -0.4406  -0.01116  -0.02354  0.001034  0.01254  -0.6997  -0.6059
6.33e+09  -0.9068  -0.1084  0.004978  -0.02342  -0.01419  0.02471  -0.8311  -0.3069
6.331e+09  -0.8554  0.171  0.005507  0.01525  -0.004066  -0.03391  -0.9144  -0.04711
6.332e+09  -0.7348  0.4488  0.02569  0.0373  -0.02301  0.000695  -0.858  0.2952
6.334e+09  -0.536  0.6915  -0.01754  0.01386  -0.004329  0.01139  -0.7355  0.5545
6.335e+09  -0.2749  0.8443  -0.03799  -0.004524  0.003683  0.01819  -0.4936  0.7887
6.336e+09  0.05183  0.8835  0.02009  -0.04449  -0.01231  -0.003089  -0.1844  0.9055
6.338e+09  0.3417  0.8139  -0.007705  -0.01721  -0.04321  -0.005132  0.1042  0.9193
6.339e+09  0.6119  0.6578  -0.04395  -0.02229  0.05251  0.02233  0.3914  0.7902
6.34e+09  0.7501  0.3374  0.007815  -0.01141  -0.03477  0.0246  0.6916  0.6023
6.341e+09  0.8936  0.05976  -0.009864  -0.02504  0.03075  0.0005766  0.8149  0.3543
6.342e+09  0.8197  -0.269  0.006077  0.00155  -0.02535  -0.009953  0.9084  0.01791
6.344e+09  0.7746  -0.5358  0.01087  -0.019  0.01456  -0.03714  0.9058  -0.2776
6.345e+09  0.4681  -0.7816  0.02353  -0.02566  0.02536  0.04771  0.7962  -0.5291
6.346e+09  0.2251  -0.8793  -0.04028  -0.02145  0.01196  0.06535  0.4961  -0.7711
6.348e+09  -0.09277  -0.839  -0.04194  -0.03565  0.01649  -0.04823  0.2273  -0.9142
6.349e+09  -0.4302  -0.7436  -0.04506  0.01191  0.01307  -0.01332  -0.08451  -0.9213
6.35e+09  -0.7055  -0.5614  -0.01457  -0.01171  0.02952  -0.04206  -0.4101  -0.84
6.351e+09  -0.8453  -0.2902  -0.0277  0.01178  -0.01056  0.005345  -0.6965  -0.6893
6.352e+09  -0.879  0.0247  -0.01168  -0.005146  -0.008127  -0.01935  -0.8603  -0.3353
6.354e+09  -0.8204  0.3187  0.01115  0.01745  0.01512  -0.01082  -0.9542  -0.05928
6.355e+09  -0.6145  0.6096  -0.009495  -0.006152  0.01514  -0.04211  -0.9207  0.2458
6.356e+09  -0.4166  0.8142  0.002735  -0.03201  0.01182  0.02733  -0.7449  0.5633
6.358e+09  -0.05005  0.9085  -0.06017  0.02583  -0.0554  -0.0003325  -0.557  0.7761
6.359e+09  0.1918  0.8315  0.02037  -0.009403  0.01872  -0.02059  -0.2113  0.9102
6.36e+09  0.513  0.7079  0.02573  0.02759  -0.01854  -0.02467  0.07567  0.9777
6.361e+09  0.7807  0.5402  -0.01208  0.01971  -0.02257  0.04944  0.4235  0.8543
6.362e+09  0.8497  0.2045  0.001999  -0.01383  -0.01985  -0.01976  0.6773  0.6307
6.364e+09  0.8864  -0.06738  -0.02133  -0.04973  0.04857  -0.0265  0.8928  0.3881
6.365e+09  0.7782  -0.3874  0.02612  0.01388  -0.01614  0.0007457  0.9298  0.04122
6.366e+09  0.6194  -0.6217  -0.01137  -0.008286  0.03987  0.03509  0.9188  -0.2607
6.368e+09  0.3263  -0.8089  0.02884  -0.002809  -0.01676  0.04366  0.7711  -0.5374
6.369e+09  0.02767  -0.8439  -0.02448  -0.02379  -0.005434  -0.02434  0.5151  -0.7824
6.37e+09  -0.2986  -0.8048  0.02809  -0.0009131  0.03553  0.001397  0.2284  -0.9042
6.371e+09  -0.5159  -0.671  0.04741  -0.03091  0.01156  0.003691  -0.1213  -0.9843
6.372e+09  -0.7184  -0.4791  0.004581  -0.004687  0.03049  0.001125  -0.4111  -0.8537
6.374e+09  -0.8974  -0.1896  -0.005217  0.01956  -0.004377  0.02059  -0.678  -0.6928
6.375e+09  -0.8256  0.1608  0.005303  -0.007702  -0.02244  0.02114  -0.8609  -0.4345
6.376e+09  -0.767  0.4065  0.002188  0.01241  0.04006  0.02304  -0.9245  -0.1136
6.378e+09  -0.5738  0.7216  0.0313  0.00621  0.001307  -0.01143  -0.9126  0.2389
6.379e+09  -0.2513  0.8365  0.01539  0.02614  -0.03453  -0.007144  -0.769  0.5349
6.38e+09  0.04588  0.8482  0.01717  0.04904  0.005993  -0.0001816  -0.5058  0.7475
6.381e+09  0.3314  0.8235  0.03926  -0.01585  0.01505  0.02023  -0.2522  0.9096
6.382e+09  0.5777  0.6977  0.01663  0.02991  -0.01957  -0.01587  0.06735  0.916
6.384e+09  0.7725  0.4196  -0.001716  0.00636  -0.0274  0.004425  0.3926  0.8585
6.385e+09  0.8182  0.09943  -0.02099  -0.03677  0.00535  -0.01001  0.6265  0.6673
6.386e+09  0.8696  -0.2294  0.01172  0.03055  -0.03247  0.02199  0.8505  0.3824
6.388e+09  0.7381  -0.4724  -0.0005501  -0.03159  -0.01914  0.01258  0.9178  0.1224
6.389e+09  0.4828  -0.6972  0.03026  0.008418  0.0217  -0.01709  0.9139  -0.2094
6.39e+09  0.2743  -0.8125  0.01271  -0.002553  0.02386  -0.002987  0.8071  -0.4954
6.391e+09  -0.1029  -0.8429  -0.02238  0.01653  -0.02252  -0.02948  0.5718  -0.7427
6.392e+09  -0.3929  -0.8162  0.03361  -0.01443  0.02968  0.05524  0.273  -0.8584
6.394e+09  -0.6799  -0.6254  0.02976  0.00874  -0.0369  -0.008913  0.03167  -0.9091
6.395e+09  -0.8528  -0.2884  0.02663  0.01178  0.042  -0.01123  -0.3016  -0.899
6.396e+09  -0.8884  -0.04233  0.04367  -0.07213  0.02688  -0.009326  -0.5817  -0.7078
6.398e+09  -0.811  0.3295  -0.02668  0.03486  -0.007713  0.02583  -0.7793  -0.4651
6.399e+09  -0.6528  0.5316  -0.03177  0.01818  -0.04114  -0.001542  -0.9312  -0.1487
6.4e+09  -0.4374  0.7619  0.03751  -0.01375  -0.03063  -0.01109  -0.9045  0.1553
6.401e+09  -0.1927  0.8439  -0.01176  0.01452  0.01822  0.03526  -0.7772  0.4411
6.402e+09  0.1359  0.8682  0.04139  0.05121  -0.03032  0.001824  -0.6115  0.7181
6.404e+09  0.4244  0.7922  -0.01489  0.01642  0.01677  -0.0354  -0.3463  0.8764
6.405e+09  0.6385  0.5355  0.003347  -0.01952  0.04156  0.001797  0.07227  0.9335
6.406e+09  0.8596  0.2498  0.007299  0.01444  -0.001428  -0.02065  0.3107  0.8936
6.408e+09  0.9115  -0.02688  -0.005434  -0.0358  0.01431  0.01066  0.5796  0.6868
6.409e+09  0.7631  -0.3746  -0.01698  0.03876  0.00815  -0.001682  0.786  0.4861
6.41e+09  0.619  -0.5855  -0.04299  0.01727  -0.02678  -0.01871  0.8843  0.1849
6.411e+09  0.3473  -0.7937  0.01776  -0.0001341  -0.01522  0.02259  0.8803  -0.1622
6.412e+09  0.1162  -0.8966  -0.02753  0.0003123  -0.005697  -0.02249  0.8141  -0.4707
6.414e+09  -0.2088  -0.8639  0.03112  0.006283  -0.0006953  -0.06504  0.6105  -0.7018
6.415e+09  -0.5009  -0.7416  0.006147  -0.008671  -0.03833  -0.02379  0.3284  -0.8231
6.416e+09  -0.7168  -0.4699  -0.02863  0.007942  0.0062  -0.04078  -0.021  -0.8961
6.418e+09  -0.839  -0.1943  0.008365  0.01468  -0.0003995  0.01176  -0.2671  -0.8696
6.419e+09  -0.9002  0.158  0.009322  0.05465  0.01396  -0.009995  -0.5806  -0.6963
6.42e+09  -0.7989  0.4255  0.05777  -0.01062  -0.07535  0.01357  -0.7326  -0.4591
6.421e+09  -0.574  0.7196  -0.03954  -0.0224  0.02991  -0.0003576  -0.894  -0.1941
6.422e+09  -0.3657  0.8989  0.004139  -0.01456  -0.01153  -0.01689  -0.8938  0.1352
6.424e+09  0.008424  0.8985  0.02188  0.02745  -0.02896  0.003674  -0.7525  0.378
6.425e+09  0.3201  0.8173  -0.04668  -0.009231  0.0207  -0.00305  -0.6325  0.6498
6.426e+09  0.6092  0.6777  0.004899  0.02236  -0.03756  -0.01115  -0.3235  0.834
6.428e+09  0.8077  0.3683  -0.01165  0.005949  -0.02511  -0.02121  -0.04816  0.8486
6.429e+09  0.8712  0.1325  0.004198  0.02527  -0.0194  -0.01335  0.292  0.8677
6.43e+09  0.9118  -0.2733  0.01791  -0.02741  -0.001574  0.02742  0.5573  0.6715
6.431e+09  0.7066  -0.5806  -0.008668  -0.0352  0.01257  0.01008  0.715  0.4812
6.432e+09  0.5125  -0.7825  -0.01269  -0.001708  0.01276  -0.02756  0.8209  0.1873
6.434e+09  0.221  -0.8425  -0.0166  -0.02003  -0.04873  -0.01721  0.8354  -0.09014
6.435e+09  -0.1294  -0.905  -0.0002394  0.02869  -0.02458  0.01721  0.7572  -0.3079
6.436e+09  -0.4829  -0.8233  0.03318  0.0004004  0.05835  -0.005665  0.6084  -0.6778
6.438e+09  -0.7293  -0.588  -0.04052  -0.02402  0.01954  0.005126  0.3356  -0.7873
6.439e+09  -0.861  -0.2973  -0.02483  -0.03716  0.002812  0.02178  0.01721  -0.8261
6.44e+09  -0.8964  0.09  -0.02556  0.01801  -0.04162  -0.01827  -0.2233  -0.8004
6.441e+09  -0.8492  0.3931  -0.009708  -0.03075  -0.02381  -0.02514  -0.4984  -0.7116
6.442e+09  -0.6639  0.686  -0.007682  -0.01501  -0.05529  -0.04173  -0.6693  -0.5415
6.444e+09  -0.3993  0.8014  0.01807  -0.01184  0.004913  -0.02067  -0.8027  -0.1882
6.445e+09  -0.02024  0.9092  0.02105  -0.0179  0.04175  -0.0768  -0.8408  0.06183
6.446e+09  0.3018  0.8619  -0.007386  0.01134  0.02136  0.01483  -0.7402  0.3416
6.448e+09  0.5889  0.6931  -0.0212  -0.03094  0.0319  0.008284  -0.5934  0.5786
6.449e+09  0.7738  0.43  0.01143  0.01992  -0.02856  -0.05486  -0.375  0.7048
6.45e+09  0.8545  0.1417  0.01318  -0.009985  -0.03998  -0.03387  -0.05261  0.8357
6.451e+09  0.8912  -0.1734  -0.003283  0.04506  -0.01363  -0.008979  0.2667  0.8499
6.452e+09  0.7768  -0.4827  0.03612  0.02277  0.04062  -0.012  0.4894  0.6837
6.454e+09  0.4963  -0.7646  -0.01311  0.006721  -0.01345  -0.05296  0.6745  0.4707
6.455e+09  0.1768  -0.8967  0.02939  0.01973  0.03962  -0.0131  0.7749  0.2104
6.456e+09  -0.1382  -0.9241  0.002347  -0.004866  0.01481  -0.03808  0.856  -0.06322
6.458e+09  -0.4991  -0.7953  0.01136  0.00837  0.02529  0.001919  0.7376  -0.3833
6.459e+09  -0.6929  -0.5484  0.005366  0.02303  0.03494  -0.01177  0.5519  -0.6387
6.46e+09  -0.8759  -0.2925  0.009237  0.01693  -0.07216  0.01809  0.3128  -0.7361
6.461e+09  -0.8945  0.07808  0.02774  0.001079  0.05577  0.01107  0.04495  -0.8212
6.462e+09  -0.841  0.3647  -0.01593  0.04837  -0.02271  -0.007362  -0.231  -0.7987
6.464e+09  -0.6455  0.6508  0.01816  -0.001277  0.04432  -0.007869  -0.5271  -0.6231
6.465e+09  -0.3568  0.8416  -0.01311  -0.004405  0.009254  -0.01611  -0.6615  -0.4481
6.466e+09  -0.02535  0.9244  0.002263  0.007949  0.002043  -0.01446  -0.8249  -0.171
6.468e+09  0.3385  0.8891  0.04449  -0.04715  0.02195  -0.03236  -0.8132  0.06686
6.469e+09  0.5406  0.6436  0.01829  -0.004169  0.0334  0.04559  -0.7241  0.3692
6.47e+09  0.847  0.4293  0.02588  0.0269  -0.001866  0.001354  -0.5285  0.5552
6.471e+09  0.9028  0.1228  -0.02646  -0.01857  0.01959  0.007571  -0.307  0.7225
6.472e+09  0.8583  -0.2314  0.02759  0.04904  -0.004494  0.01416  -0.0201  0.8097
6.474e+09  0.6461  -0.5466  -0.01575  -0.02035  -0.03404  0.01212  0.2245  0.754
6.475e+09  0.4561  -0.7572  -0.01523  -0.01641  -0.003737  -0.02926  0.4501  0.651
6.476e+09  0.1823  -0.8588  0.04361  -0.01767  0.0001205  -0.006483  0.6595  0.4391
6.478e+09  -0.1586  -0.8652  0.03246  -0.03306  0.003125  0.00672  0.8211  0.1783
6.479e+09  -0.4341  -0.7429  -0.01093  -0.01085  -0.01064  0.007667  0.8217  -0.1033
6.48e+09  -0.6763  -0.5034  -0.02261  -0.002352  -0.05389  0.03997  0.7339  -0.3597
6.481e+09  -0.771  -0.1555  -0.01766  0.006278  0.05806  -0.01427  0.5491  -0.5678
6.482e+09  -0.8556  0.09465  0.002496  0.004807  0.004554  -0.02294  0.2922  -0.7339
6.484e+09  -0.7382  0.3393  -0.002065  -0.002127  0.003778  0.006508  0.04133  -0.783
6.485e+09  -0.5784  0.6386  0.02187  -0.001785  0.00455  -0.03611  -0.2054  -0.7236
6.486e+09  -0.3018  0.8244  0.02853  -0.006318  -0.02426  0.009429  -0.44  -0.6187
6.488e+09  0.06006  0.7758  -0.04205  0.005849  0.01541  0.006674  -0.688  -0.4623
6.489e+09  0.3146  0.7263  0.02023  0.001814  -0.01377  0.05722  -0.7448  -0.1952
6.49e+09  0.5526  0.5477  -0.01175  0.0148  -0.001108  -0.01458  -0.7728  0.06798
6.491e+09  0.7558  0.3057  -0.003968  -0.007677  0.03493  -0.01883  -0.6944  0.3209
6.492e+09  0.7823  0.00654  -0.008526  0.003105  0.04353  0.03099  -0.5524  0.5681
6.494e+09  0.7913  -0.2286  0.03555  -0.02853  0.01273  -0.03829  -0.3148  0.6923
6.495e+09  0.5847  -0.5144  -0.001801  -0.01095  0.01952  0.01802  -0.02755  0.8053
6.496e+09  0.3975  -0.6938  -0.02306  0.03846  -0.01166  0.007336  0.2289  0.7296
6.498e+09  0.08744  -0.7924  0.01067  -0.008982  -0.04006  0.01054  0.4335  0.6019
6.499e+09  -0.1626  -0.8051  0.01778  -0.0107  -0.01795  -0.005635  0.6603  0.4228
6.5e+09  -0.4918  -0.6286  0.01824  -0.007802  -0.01095  -0.02089  0.764  0.1613
6.501e+09  -0.636  -0.4022  -0.01606  -0.04126  0.0407  -0.00184  0.7631  -0.1061
6.502e+09  -0.791  -0.145  -0.02687  -0.04985  0.01471  -0.04333  0.707  -0.3677
6.504e+09  -0.7773  0.1323  0.05668  -0.01031  0.01057  0.009107  0.4783  -0.5887
6.505e+09  -0.6814  0.3384  0.00877  0.01096  -0.0326  -0.02672  0.3015  -0.7057
6.506e+09  -0.5013  0.574  0.01361  0.0009414  -0.0006821  -0.02467  0.04654  -0.7563
6.508e+09  -0.16  0.7373  -0.01364  -0.0193  0.002145  0.001139  -0.2317  -0.7643
6.509e+09  0.04106  0.7173  0.0007488  -0.01889  0.001404  0.04873  -0.4695  -0.5693
6.51e+09  0.2625  0.6425  0.0264  0.003604  -0.03243  -0.00411  -0.6444  -0.3884
6.511e+09  0.5694  0.4985  0.024  0.02361  0.01033  0.02158  -0.7409  -0.1271
6.512e+09  0.6603  0.2543  -0.008001  0.03288  0.08787  -0.003511  -0.7715  0.1455
6.514e+09  0.7709  0.02008  -0.01177  -0.01638  -0.07517  0.02754  -0.6411  0.3675
6.515e+09  0.7051  -0.2396  -0.01634  -0.003172  -0.02707  -0.06663  -0.4999  0.5944
6.516e+09  0.5831  -0.4976  0.01578  -0.0003305  0.01337  0.06351  -0.2349  0.7382
6.518e+09  0.3813  -0.6203  0.003197  0.03451  0.01851  -0.01283  0.007718  0.7558
6.519e+09  0.1324  -0.651  0.008671  -0.002346  0.02588  -0.003132  0.3177  0.7063
6.52e+09  -0.1921  -0.7331  0.004683  0.01803  -0.06933  0.01411  0.4904  0.5613
6.521e+09  -0.4036  -0.6266  0.001018  0.002501  -0.0001365  -0.04479  0.6766  0.3194
6.522e+09  -0.6315  -0.3826  -0.005922  0.03255  -0.01642  0.001713  0.7055  0.122
6.524e+09  -0.7305  -0.1514  0.0421  0.01057  0.01354  -0.02134  0.6901  -0.1466
6.525e+09  -0.7403  0.1181  0.02253  0.02876  -0.02676  0.01845  0.6012  -0.3772
6.526e+09  -0.6143  0.3758  0.001314  0.003143  -0.007981  -0.06371  0.4207  -0.563
6.528e+09  -0.4951  0.526  -0.03264  0.04293  0.04443  0.01705  0.1957  -0.7041
6.529e+09  -0.1847  0.6606  0.003983  0.003147  0.02284  0.02384  -0.03224  -0.6979
6.53e+09  0.0217  0.76  0.007569  0.02944  0.005288  -0.01113  -0.2625  -0.6664
6.531e+09  0.306  0.6721  -0.008969  -0.005361  -0.009537  0.02805  -0.4603  -0.4622
6.532e+09  0.5858  0.5217  0.04369  0.00459  0.03987  -0.01659  -0.5806  -0.2609
6.534e+09  0.7245  0.2421  -0.009753  0.01165  -0.01629  0.0248  -0.6151  -0.074
6.535e+09  0.7507  0.02327  0.01408  0.02572  0.01044  0.01503  -0.6232  0.1408
6.536e+09  0.7259  -0.2281  0.002028  -0.01071  0.02005  -0.02877  -0.551  0.3294
6.538e+09  0.5836  -0.4307  0.007795  -0.00456  0.0194  -0.01854  -0.4394  0.4788
6.539e+09  0.367  -0.6251  0.007448  0.02214  -0.03042  0.01633  -0.2616  0.6173
6.54e+09  0.1075  -0.73  -0.02566  0.01399  0.01346  -0.03561  -0.03526  0.6806
6.541e+09  -0.1213  -0.7043  -0.0005537  0.01298  -0.002481  -0.02944  0.1757  0.6581
6.542e+09  -0.4173  -0.6075  0.03027  0.006401  0.04581  0.06432  0.3781  0.5712
6.544e+09  -0.6528  -0.3956  -0.01625  -0.03464  0.004609  0.001217  0.5975  0.3845
6.545e+09  -0.7082  -0.2304  0.02198  -0.02408  0.02853  -0.005753  0.6938  0.1892
6.546e+09  -0.7173  0.1043  -0.01142  -0.007413  0.01485  -0.03527  0.7464  -0.07732
6.548e+09  -0.7079  0.2555  0.02164  -0.02465  -0.02585  0.03888  0.6436  -0.3152
6.549e+09  -0.4529  0.5566  -0.01262  0.007319  -0.0366  0.01277  0.5094  -0.5302
6.55e+09  -0.2425  0.6622  0.03077  -0.02442  -0.05077  0.01224  0.3072  -0.7172
