# Hz S RI R 50
6.25e+09  -0.03149  0.9128  0.007733  -0.01411  -0.00903  0.01271  0.161  0.4875
6.251e+09  0.3008  0.8288  -0.002454  -0.0101  0.008932  -0.0115  0.3841  0.3946
6.252e+09  0.5123  0.6357  -0.007426  0.02282  -0.01846  0.05485  0.5029  0.238
6.254e+09  0.747  0.4095  0.02131  0.00118  -0.01332  -0.02649  0.6091  -0.002005
6.255e+09  0.81  0.1643  -0.0004905  -0.0067  0.002928  -0.06262  0.5971  -0.2667
6.256e+09  0.863  -0.1778  0.01284  -0.01419  -0.05688  -0.02235  0.4589  -0.4286
6.258e+09  0.7275  -0.4655  0.05185  -0.001688  0.01609  0.02915  0.2424  -0.6029
6.259e+09  0.5549  -0.7062  -0.01685  -0.004646  0.02133  0.0741  0.05121  -0.6715
6.26e+09  0.2889  -0.8539  0.01499  0.02709  -0.008067  -0.05451  -0.2148  -0.6707
6.261e+09  -0.03336  -0.8281  -0.01584  -0.000655  0.04174  -0.04453  -0.4444  -0.5416
6.262e+09  -0.3322  -0.8287  0.02316  0.04287  -0.04035  0.02694  -0.6231  -0.3573
6.264e+09  -0.5814  -0.6253  -0.01919  0.002647  0.03298  0.001574  -0.6885  -0.09126
6.265e+09  -0.7074  -0.4079  -0.01197  -0.02941  0.01943  0.02384  -0.7068  0.1683
6.266e+09  -0.8694  -0.1088  -0.005346  0.007987  -0.04785  0.02948  -0.6217  0.4187
6.268e+09  -0.817  0.1457  0.01816  -0.003679  -0.000323  0.0003752  -0.4559  0.5883
6.269e+09  -0.7275  0.4312  -0.02346  -0.01274  0.02817  0.01001  -0.1939  0.7129
6.27e+09  -0.532  0.704  0.001634  0.001535  0.01302  0.0447  0.08359  0.7112
6.271e+09  -0.2403  0.8521  -0.009677  -0.01587  -0.01159  -0.01281  0.3082  0.6842
6.272e+09  0.06114  0.7939  0.006959  -0.0159  -0.03128  -0.03342  0.5332  0.5286
6.274e+09  0.296  0.7809  -0.01087  -0.0029  0.05469  -0.006814  0.661  0.3324
6.275e+09  0.5418  0.576  0.003464  0.01631  -0.02482  0.05226  0.7613  0.0368
6.276e+09  0.8195  0.4139  0.02269  -0.01328  0.05853  0.02692  0.7177  -0.2262
6.278e+09  0.7921  0.04329  0.02062  -0.009208  0.02685  0.02086  0.5956  -0.4445
6.279e+09  0.8253  -0.1756  0.001764  0.01468  0.01876  -0.05599  0.4206  -0.6331
6.28e+09  0.6868  -0.4534  0.006418  -0.0139  -0.0575  0.03167  0.183  -0.7776
6.281e+09  0.5346  -0.6872  -0.002555  0.009942  -0.01993  0.001651  -0.1404  -0.777
6.282e+09  0.2811  -0.8073  -0.002187  0.02608  -0.01631  0.01166  -0.3654  -0.6927
6.284e+09  -0.07998  -0.8414  0.02294  0.02118  -0.03333  0.07281  -0.5704  -0.5394
6.285e+09  -0.3669  -0.7862  0.009529  0.01749  0.005982  -0.02143  -0.7167  -0.279
6.286e+09  -0.5835  -0.5581  -0.02038  0.01965  0.01751  -0.03488  -0.7748  -0.04704
6.288e+09  -0.7721  -0.3301  0.009676  -0.00902  0.03776  0.03331  -0.7399  0.2513
6.289e+09  -0.8834  -0.04781  0.01007  -0.01095  0.008011  -0.07068  -0.6466  0.4934
6.29e+09  -0.7999  0.1964  -0.02767  -0.01219  -0.00359  -0.01397  -0.4261  0.6927
6.291e+09  -0.619  0.5348  -0.02161  0.01541  -0.01655  -0.006096  -0.1572  0.7825
6.292e+09  -0.3987  0.7106  -0.004032  -0.001384  -0.03503  -0.03478  0.1279  0.7869
6.294e+09  -0.1677  0.801  -0.001952  -0.00148  0.01514  0.011  0.408  0.6868
6.295e+09  0.09823  0.8684  -0.01084  -0.03356  -0.002476  0.0183  0.5887  0.5076
6.296e+09  0.4081  0.727  -0.004759  0.01338  0.01474  0.03668  0.7529  0.2793
6.298e+09  0.5885  0.5782  -0.01739  -0.005526  0.04445  0.01324  0.826  0.02505
6.299e+09  0.7972  0.2993  0.008583  -0.0009157  0.01366  -0.04862  0.7806  -0.2736
6.3e+09  0.8222  0.02192  0.005364  0.01398  0.03532  0.003576  0.6432  -0.5074
6.301e+09  0.7956  -0.3071  0.0147  0.02591  0.02519  -0.01053  0.4236  -0.7287
6.302e+09  0.6046  -0.5529  0.02461  0.006565  0.01363  -0.003861  0.1401  -0.8242
6.304e+09  0.4423  -0.6719  -0.01776  0.0001572  -0.02773  0.02923  -0.1706  -0.8211
6.305e+09  0.1774  -0.8165  0.005818  -0.009507  -0.0148  -0.03288  -0.431  -0.7511
6.306e+09  -0.2047  -0.8615  -0.04444  -0.006171  -0.006333  -0.001894  -0.6786  -0.5816
6.308e+09  -0.432  -0.7125  0.01086  0.01877  0.05297  0.05921  -0.784  -0.2823
6.309e+09  -0.6555  -0.5615  0.01216  -0.008868  0.0521  -0.03968  -0.871  -0.01452
6.31e+09  -0.7734  -0.2569  0.003007  0.009873  0.007474  -0.02817  -0.8097  0.2752
6.311e+09  -0.8626  0.07315  0.0005811  -0.0179  -0.06027  -0.000379  -0.6765  0.5338
6.312e+09  -0.7679  0.3408  0.01457  -0.0284  -0.02997  0.05509  -0.4137  0.728
6.314e+09  -0.6353  0.6039  -0.02614  -0.01329  0.0296  0.05327  -0.1548  0.8232
6.315e+09  -0.365  0.7752  -0.004926  -0.0261  0.029  0.008831  0.1373  0.8871
6.316e+09  -0.04615  0.8387  0.01699  -0.003949  -0.03649  -0.04309  0.461  0.7644
6.318e+09  0.2356  0.8236  -0.000909  0.01348  0.02541  0.02809  0.6845  0.564
6.319e+09  0.4907  0.7029  -0.03416  -0.009897  0.01233  0.03586  0.8532  0.315
6.32e+09  0.7614  0.4743  -0.0008668  0.00895  0.01686  -0.02768  0.8912  -0.002017
6.321e+09  0.8215  0.2486  0.005541  -0.02077  0.01419  0.008868  0.82  -0.2961
6.322e+09  0.834  -0.07412  -0.001331  0.03041  0.03528  -0.0009277  0.7081  -0.5538
6.324e+09  0.7876  -0.3776  -0.01404  -0.02264  -0.016  -0.02758  0.4817  -0.7819
6.325e+09  0.5955  -0.6242  -0.001412  -0.02322  -0.02259  -0.01006  0.1752  -0.8831
6.326e+09  0.3832  -0.8056  0.001557  0.004533  0.0454  0.004889  -0.143  -0.9045
6.328e+09  0.02472  -0.8614  -0.0274  0.002349  -0.05096  -0.0004058  -0.4307  -0.8003
6.329e+09  -0.2644  -0.8167  0.02166  -0.02094  0.008031  0.01459  -0.672  -0.5915
6.33e+09  -0.5218  -0.6463  -0.03093  0.02116  0.02662  -0.01868  -0.8507  -0.2927
6.331e+09  -0.7537  -0.4053  -0.000548  0.01746  0.03369  0.008686  -0.9073  -0.02438
6.332e+09  -0.8372  -0.2056  -0.005133  0.0138  0.03508  0.0246  -0.8412  0.2811
6.334e+09  -0.8965  0.1997  -0.003126  0.01827  -0.01436  0.04039  -0.728  0.5674
6.335e+09  -0.7373  0.4183  0.01369  0.008471  -0.02233  -0.004667  -0.449  0.7917
6.336e+09  -0.5464  0.6646  0.01669  0.01668  -0.1025  0.04239  -0.1824  0.913
6.338e+09  -0.2896  0.8106  -0.03653  0.04273  -0.01513  0.04285  0.1374  0.9296
6.339e+09  0.007674  0.8506  0.0111  0.02501  -0.05709  -0.005708  0.4592  0.8193
6.34e+09  0.2708  0.8255  -0.0005444  0.01425  -0.01351  0.04078  0.6972  0.642
6.341e+09  0.6321  0.6267  -0.01627  0.01992  0.01235  0.0004498  0.8517  0.3741
6.342e+09  0.775  0.3988  -0.002328  0.02142  -0.004392  -0.0283  0.8829  0.04438
6.344e+09  0.924  0.1395  -0.01444  0.003653  -0.04124  -0.005309  0.8945  -0.2622
6.345e+09  0.8895  -0.237  0.02127  -0.02997  -0.04621  -0.0277  0.7671  -0.5476
6.346e+09  0.7573  -0.4971  0.005959  0.01003  0.03529  0.04701  0.5222  -0.7731
6.348e+09  0.5369  -0.7435  0.01692  -0.01048  -0.03357  0.01038  0.1947  -0.8914
6.349e+09  0.2016  -0.8104  0.02884  -0.01904  -0.01489  -0.01743  -0.1141  -0.9128
6.35e+09  -0.0849  -0.8579  0.01644  -0.004213  0.04511  -0.02003  -0.4205  -0.867
6.351e+09  -0.441  -0.7969  -0.004956  0.02287  0.02703  0.00749  -0.6736  -0.6484
6.352e+09  -0.665  -0.6243  0.01536  0.01192  -0.01967  0.009541  -0.8624  -0.3927
6.354e+09  -0.8035  -0.3416  -0.007879  -0.01973  0.05491  0.0625  -0.9491  -0.02256
6.355e+09  -0.868  -0.02645  0.005792  0.01777  0.01824  0.03775  -0.9106  0.2833
6.356e+09  -0.8186  0.2974  0.0005366  0.04915  0.03953  -0.02049  -0.7595  0.5433
6.358e+09  -0.6798  0.5757  -0.0006138  0.0299  -0.01442  0.03462  -0.5205  0.8027
6.359e+09  -0.4581  0.7873  0.004009  0.02349  -0.03838  -0.02037  -0.2253  0.9018
6.36e+09  -0.1598  0.9454  -0.02756  0.0007541  0.01307  -0.006028  0.0945  0.9652
6.361e+09  0.178  0.9133  -0.03684  -0.001255  0.004962  0.001416  0.4211  0.8417
6.362e+09  0.4326  0.8172  -0.01391  0.00979  -0.005034  -0.01944  0.634  0.6782
6.364e+09  0.6199  0.6168  0.00562  -0.03532  0.01767  0.007976  0.8738  0.3682
6.365e+09  0.8804  0.2879  0.01574  0.01758  0.02786  -0.00697  0.9646  0.1264
6.366e+09  0.9133  -0.06797  0.03755  0.0009678  -0.03816  -0.0009889  0.9349  -0.2532
6.368e+09  0.8696  -0.315  -0.005472  0.03941  0.00791  -0.0004952  0.7722  -0.5684
6.369e+09  0.6523  -0.5641  -0.0212  0.009468  -0.02461  -0.01896  0.5874  -0.7676
6.37e+09  0.4715  -0.8129  0.004776  -0.008116  -0.005312  0.01598  0.2417  -0.9385
6.371e+09  0.1057  -0.928  0.01285  -0.01157  0.01869  -0.02673  -0.07754  -0.9359
6.372e+09  -0.2037  -0.8298  -0.002991  0.02406  -0.008997  0.01882  -0.3897  -0.8589
6.374e+09  -0.4986  -0.7577  -0.01942  0.02912  -0.01003  0.01686  -0.6871  -0.6568
6.375e+09  -0.7109  -0.5708  0.01321  -0.006338  0.0308  0.02435  -0.8511  -0.3971
6.376e+09  -0.9042  -0.2486  0.03892  -0.01082  0.01604  -0.02041  -0.9735  -0.06667
6.378e+09  -0.8705  0.06748  0.001694  0.00297  0.01957  -0.0002095  -0.9672  0.2036
6.379e+09  -0.8209  0.3778  5.662e-05  0.01821  0.007815  -0.02538  -0.759  0.5137
6.38e+09  -0.622  0.6632  0.03527  -0.03264  -0.01057  0.02685  -0.5476  0.7674
6.381e+09  -0.4251  0.7794  -0.0409  0.02219  0.03139  0.02298  -0.2719  0.9336
6.382e+09  -0.1014  0.9045  0.01783  -0.01834  0.01638  -0.03376  0.06353  0.932
6.384e+09  0.2301  0.8892  -0.03464  -0.04067  -0.02012  0.009826  0.3402  0.846
6.385e+09  0.4665  0.7296  -0.01782  0.01103  0.03874  0.01994  0.6298  0.6794
6.386e+09  0.7234  0.4795  -0.003494  0.02578  0.0243  0.03395  0.8739  0.3842
6.388e+09  0.908  0.229  -0.006871  -0.00615  1.586e-06  -0.01219  0.9223  0.08403
6.389e+09  0.8695  -0.06889  -0.003536  0.009952  -0.02321  0.03693  0.9351  -0.2076
6.39e+09  0.8252  -0.3929  -0.04931  -0.0154  -0.02186  -0.008936  0.7554  -0.4616
6.391e+09  0.6256  -0.6737  -0.00454  0.01065  0.02444  0.01737  0.5809  -0.7365
6.392e+09  0.3278  -0.8402  0.004839  0.0339  -0.03434  0.03221  0.2949  -0.8913
6.394e+09  0.02468  -0.946  0.05003  0.01533  -0.01847  0.009775  -0.01871  -0.9035
6.395e+09  -0.25  -0.8966  -0.02459  0.003627  0.02104  0.01003  -0.3489  -0.8463
6.396e+09  -0.5704  -0.6923  -0.01991  0.006567  -0.05486  0.01211  -0.6307  -0.6952
6.398e+09  -0.7519  -0.5115  0.01602  0.03397  0.02226  0.01625  -0.8441  -0.4663
6.399e+09  -0.879  -0.2138  -0.0202  0.04114  0.001215  0.03666  -0.91  -0.1257
6.4e+09  -0.8814  0.08349  -0.02188  0.01905  -0.001401  0.003209  -0.8848  0.1556
6.401e+09  -0.7791  0.3621  -0.0005125  -0.05583  0.002752  0.01876  -0.8065  0.4922
6.402e+09  -0.6027  0.6553  -0.004118  0.01745  0.02823  0.007994  -0.5835  0.715
6.404e+09  -0.311  0.8373  -0.004756  0.03901  0.007043  0.03477  -0.3452  0.9276
6.405e+09  -0.0648  0.9228  -0.009029  0.0326  -0.008581  0.04335  -0.008385  0.9298
6.406e+09  0.2988  0.8088  -0.00154  0.01503  -0.008169  -0.008809  0.3049  0.8569
6.408e+09  0.557  0.7167  0.03019  -0.009419  -0.01275  0.01008  0.5799  0.6882
6.409e+09  0.7105  0.4882  0.004123  0.0254  -0.008629  -0.013  0.7911  0.4604
6.41e+09  0.852  0.1606  -0.03182  -0.003211  0.005783  -0.0163  0.8769  0.1737
6.411e+09  0.892  -0.1077  0.01991  -0.006844  -0.0008207  -0.04612  0.8708  -0.1612
6.412e+09  0.7477  -0.4371  -0.003867  -0.01658  -0.003049  -0.04081  0.8044  -0.45
6.414e+09  0.605  -0.683  0.03252  -0.006084  0.04155  -0.01257  0.6011  -0.709
6.415e+09  0.2724  -0.8528  -0.05182  0.02547  -0.003994  0.02427  0.3782  -0.8191
6.416e+09  -0.00317  -0.905  0.01213  -0.0259  0.004577  -0.01825  0.07411  -0.9248
6.418e+09  -0.2671  -0.8454  0.01381  -0.004461  0.004326  0.03115  -0.3053  -0.8127
6.419e+09  -0.571  -0.7317  0.009254  0.03084  0.01274  -0.01388  -0.5515  -0.7004
6.42e+09  -0.7703  -0.4327  0.02803  0.02137  -0.032  0.01933  -0.7114  -0.4619
6.421e+09  -0.8768  -0.1301  0.04328  -0.0213  0.03726  0.03975  -0.8453  -0.1588
6.422e+09  -0.8517  0.1784  -0.0595  -0.02371  0.005882  -0.004181  -0.91  0.09836
6.424e+09  -0.7389  0.47  -0.03096  -0.02136  -0.005882  -0.007197  -0.7664  0.3488
6.425e+09  -0.5323  0.7222  0.01135  0.02898  -0.01731  -0.02324  -0.6171  0.6714
6.426e+09  -0.2452  0.8352  0.01468  -0.01163  0.0008211  0.02088  -0.3501  0.7818
6.428e+09  -0.00687  0.8939  0.02078  -0.02717  0.009009  0.02157  -0.05754  0.8852
6.429e+09  0.3667  0.845  -0.02488  0.03515  -0.02208  -0.01212  0.2541  0.7889
6.43e+09  0.5891  0.676  0.01018  0.01259  -0.01044  -0.004768  0.5236  0.6626
6.431e+09  0.8042  0.4434  0.01696  0.03327  0.03998  0.004775  0.7234  0.469
6.432e+09  0.9012  0.08683  0.007815  -0.03619  -0.06828  0.0446  0.8551  0.1744
6.434e+09  0.8655  -0.1895  0.008593  -0.0576  -0.02418  -0.03837  0.889  -0.1101
6.435e+09  0.7672  -0.4618  0.002665  -0.007047  0.02412  0.02897  0.7856  -0.346
6.436e+09  0.6607  -0.7298  -0.002679  -0.04021  0.0463  0.0278  0.6339  -0.6231
6.438e+09  0.2559  -0.868  -0.03655  0.02833  0.002246  -0.008126  0.3676  -0.7848
6.439e+09  -0.02491  -0.8654  0.04668  -0.02986  0.008537  -0.02332  0.06935  -0.8472
6.44e+09  -0.3877  -0.7914  -0.03871  0.02218  -0.01163  0.01093  -0.2222  -0.8393
6.441e+09  -0.5934  -0.6437  -0.01014  0.03253  -0.04133  0.02971  -0.4847  -0.707
6.442e+09  -0.7986  -0.3972  0.04575  -0.02185  -0.03843  -0.003546  -0.6913  -0.4712
6.444e+09  -0.9594  -0.1014  -0.04825  0.0116  0.04227  -0.007687  -0.8163  -0.1718
6.445e+09  -0.9111  0.2684  0.001698  0.05642  -0.008756  0.04225  -0.8525  0.02805
6.446e+09  -0.7415  0.5148  0.001715  -0.00269  -0.03566  -0.008488  -0.7238  0.3958
6.448e+09  -0.5201  0.7644  -0.001789  0.001477  -0.01425  0.04312  -0.5972  0.582
6.449e+09  -0.2146  0.8662  0.0432  -0.04077  -0.00688  0.05391  -0.3657  0.7619
6.45e+09  0.1198  0.9471  0.0384  -0.02415  -0.01169  -0.0204  -0.0746  0.837
6.451e+09  0.3807  0.7892  0.02718  -0.01743  -0.01006  0.00386  0.2254  0.7812
6.452e+09  0.6724  0.6093  -0.02182  -0.03704  0.01678  0.03269  0.5278  0.6867
6.454e+09  0.8157  0.378  0.05744  -0.05494  -0.03207  -0.05416  0.6619  0.4738
6.455e+09  0.9563  0.1035  -0.01144  -0.01724  -0.0528  -0.03201  0.7522  0.1939
6.456e+09  0.8633  -0.2664  0.01813  -0.02427  0.03288  0.01551  0.796  -0.1118
6.458e+09  0.7059  -0.5889  -0.01824  0.00126  0.006797  0.001888  0.7929  -0.3402
6.459e+09  0.4796  -0.7706  -0.03996  -0.01671  0.02307  0.0284  0.5703  -0.5643
6.46e+09  0.1683  -0.9517  -0.01218  0.01641  0.01357  -0.01118  0.344  -0.7177
6.461e+09  -0.1519  -0.9392  -0.011  -0.02707  -0.0002313  0.02222  0.03795  -0.8039
6.462e+09  -0.4518  -0.7889  -0.04395  0.03193  0.02911  0.0437  -0.1673  -0.7576
6.464e+09  -0.7152  -0.6271  0.008554  -0.02553  -0.009669  -0.04019  -0.5211  -0.6458
6.465e+09  -0.856  -0.335  0.0007637  -0.007273  0.004433  0.04977  -0.7016  -0.4856
6.466e+09  -0.9219  -0.01165  0.01623  -0.0171  -0.01025  0.02769  -0.8006  -0.2216
6.468e+09  -0.8997  0.3029  0.02004  -0.02948  -0.02246  -0.03667  -0.8  0.06413
6.469e+09  -0.7161  0.6161  -0.01363  0.0158  0.04806  0.01725  -0.7041  0.3303
6.47e+09  -0.4962  0.8036  0.01625  0.01582  0.01393  -0.03007  -0.5437  0.5573
6.471e+09  -0.1313  0.9078  -0.009135  -0.02481  0.009719  -0.01716  -0.3305  0.7579
6.472e+09  0.2249  0.8713  0.006513  -0.007638  0.007987  0.01002  -0.04116  0.8251
6.474e+09  0.509  0.8101  0.0179  -0.002139  0.03577  -0.05232  0.2078  0.7461
6.475e+09  0.7784  0.5746  0.01643  -0.003191  0.02639  0.004249  0.4655  0.6515
6.476e+09  0.9361  0.3362  -0.01818  -0.01912  0.01688  0.01506  0.6623  0.4622
6.478e+09  0.9174  -0.07114  -0.004019  -0.004575  -0.05977  -0.00401  0.7937  0.2515
6.479e+09  0.8224  -0.3378  -0.01077  -0.004705  0.02749  -0.008389  0.7878  -0.06973
6.48e+09  0.6319  -0.6826  -0.02119  -0.006131  -0.01162  -0.04418  0.6724  -0.3551
6.481e+09  0.3828  -0.8971  -0.003109  -0.001809  -0.0238  0.02974  0.5526  -0.5874
6.482e+09  0.07941  -0.8938  -0.006134  -0.04714  -0.003734  0.03037  0.3794  -0.7396
6.484e+09  -0.239  -0.9145  -0.03237  -0.0225  0.04824  -0.04256  0.07337  -0.7763
6.485e+09  -0.5938  -0.7648  -0.03085  -0.02599  -0.02758  0.06383  -0.2424  -0.7524
6.486e+09  -0.8659  -0.5124  0.02319  0.03436  0.001738  -0.02121  -0.4631  -0.5531
6.488e+09  -0.9742  -0.1986  0.02631  0.01265  0.02869  0.02327  -0.6322  -0.424
6.489e+09  -0.9625  0.1586  -0.0007087  -0.001426  0.008684  0.0156  -0.713  -0.189
6.49e+09  -0.8665  0.4762  -0.03211  -0.01755  -0.04526  -0.03328  -0.735  0.09652
6.491e+09  -0.59  0.7296  0.002055  0.02514  0.008339  -0.01952  -0.6983  0.3109
6.492e+09  -0.3387  0.8723  0.004142  0.01211  0.01885  0.003025  -0.5143  0.5693
6.494e+09  -0.01715  0.9792  0.04624  0.01708  -0.01485  -0.002401  -0.3155  0.6859
6.495e+09  0.3304  0.8563  -0.01189  -0.0278  0.07091  -0.007201  -0.05575  0.7642
6.496e+09  0.6173  0.7131  0.01383  0.0004926  0.03829  0.009376  0.2174  0.7223
6.498e+09  0.8552  0.47  0.009823  -0.02999  0.01179  -0.03477  0.4822  0.6547
6.499e+09  0.9243  0.1314  -0.009255  0.01401  0.006926  0.003945  0.6637  0.4116
6.5e+09  0.9116  -0.2278  -0.03763  -0.001558  0.01857  -0.006413  0.7441  0.1513
6.501e+09  0.8572  -0.5209  0.007091  -0.02931  -0.03822  -2.789e-05  0.7571  -0.1001
6.502e+09  0.5444  -0.7799  0.02722  0.02421  0.0423  -0.006734  0.6474  -0.308
6.504e+09  0.1766  -0.9233  0.002924  0.01409  -0.01079  -0.004703  0.5228  -0.5897
6.505e+09  -0.1393  -0.9853  0.02338  -0.01199  -0.02894  -0.02443  0.2789  -0.6866
6.506e+09  -0.4057  -0.8631  -0.01369  0.001426  -0.05422  0.002205  -0.00467  -0.7315
6.508e+09  -0.6904  -0.6992  -0.04681  -0.003665  0.007458  -0.04871  -0.2222  -0.7107
6.509e+09  -0.8584  -0.3267  -0.02326  -0.01166  -0.01739  0.01189  -0.4902  -0.5718
6.51e+09  -0.9303  -0.04785  -0.04273  0.02154  0.008852  0.02115  -0.6375  -0.3904
6.511e+09  -0.915  0.3318  -0.01761  -0.01527  0.02157  0.025  -0.7605  -0.1686
6.512e+09  -0.712  0.6689  -0.01318  -0.002124  -0.02515  -0.04401  -0.7551  0.1543
6.514e+09  -0.419  0.8014  -0.00194  0.0151  0.01424  0.01372  -0.6152  0.4046
6.515e+09  -0.1238  0.9745  -0.04583  0.006359  -0.03077  0.02449  -0.4895  0.5757
6.516e+09  0.2471  0.8958  -0.01064  -0.004323  0.0405  -0.02669  -0.2597  0.7127
6.518e+09  0.455  0.7871  -0.004033  -0.008944  -0.02936  -0.009604  0.004642  0.7051
6.519e+09  0.7697  0.6201  0.00317  0.0146  -0.01836  0.001671  0.2694  0.7273
6.52e+09  0.8887  0.2474  -0.007285  -0.01632  0.02118  -0.06423  0.5306  0.5418
6.521e+09  0.9703  -0.1036  0.01419  0.0126  0.001116  0.01089  0.6211  0.3514
6.522e+09  0.863  -0.3933  0.007437  -0.01404  -0.009113  -0.01587  0.7151  0.09367
6.524e+09  0.6772  -0.7253  0.01309  0.01273  -0.02459  -0.03237  0.7085  -0.1717
6.525e+09  0.3308  -0.8065  -0.07506  -0.01686  -0.0178  0.01582  0.6243  -0.4005
6.526e+09  0.06324  -0.9442  -0.004415  0.01857  -0.04918  -0.02902  0.4462  -0.5924
6.528e+09  -0.306  -0.8565  -0.02003  -0.007568  0.01501  0.01695  0.1966  -0.6929
6.529e+09  -0.5828  -0.7287  -0.0185  0.002858  -0.0113  -0.02427  -0.04222  -0.6818
6.53e+09  -0.7913  -0.4331  -0.01168  0.005871  0.001905  -0.003487  -0.2645  -0.6336
6.531e+09  -0.9253  -0.171  -0.03666  0.006369  0.002876  0.00467  -0.4484  -0.4669
6.532e+09  -0.8748  0.1809  0.00844  0.03741  0.03748  -0.02001  -0.5979  -0.3223
6.534e+09  -0.8091  0.4581  -0.04167  0.002863  -0.01903  -0.01989  -0.6577  -0.0734
6.535e+09  -0.5847  0.7203  0.01084  0.03564  -0.01822  0.006869  -0.6507  0.08218
6.536e+09  -0.252  0.8802  -0.02459  -0.01346  -0.04916  0.01387  -0.5814  0.3107
6.538e+09  0.08645  0.9423  -0.02836  -0.01255  0.01648  0.01525  -0.4599  0.4673
6.539e+09  0.3788  0.7617  -0.003723  -0.01007  0.02522  -0.03148  -0.238  0.6436
6.54e+09  0.6383  0.596  -0.005981  -0.01388  0.03705  -0.06817  -0.09006  0.6723
6.541e+09  0.787  0.362  0.03322  0.001286  -0.02784  0.0557  0.1961  0.6668
6.542e+09  0.9087  0.04363  0.02574  0.002757  -0.03438  -0.03194  0.4172  0.587
6.544e+09  0.7846  -0.2374  0.02375  0.01934  -0.0002595  -0.01749  0.622  0.391
6.545e+09  0.7037  -0.5488  0.001644  0.001255  -0.009444  0.003505  0.737  0.1821
6.546e+09  0.4386  -0.7783  0.0004398  -0.02904  0.02232  0.02302  0.7304  -0.07889
6.548e+09  0.1524  -0.8602  0.001978  0.02398  -0.01799  -0.024  0.6596  -0.3618
6.549e+09  -0.2132  -0.9154  -0.003841  -0.02178  -0.008594  -0.04748  0.513  -0.5254
6.55e+09  -0.4144  -0.7792  -0.02475  -0.006404  -0.01266  -0.03563  0.2566  -0.6757
6.551e+09  -0.7319  -0.5412  0.02029  0.001943  0.005356  -0.005991  0.059  -0.7483
