# Hz S RI R 50
6.25e+09  0.7346  -0.3958  -0.004192  -0.02571  0.0515  0.01215  0.1747  0.4773
6.251e+09  0.5575  -0.6712  -0.03122  0.03654  -0.02493  -0.01612  0.3609  0.3874
6.252e+09  0.2259  -0.7856  -0.02333  -0.008417  -0.06487  -0.02486  0.5458  0.2202
6.254e+09  -0.02957  -0.7762  -0.03904  -0.02182  0.04239  0.01604  0.6427  0.01455
6.255e+09  -0.2917  -0.7086  -0.0009055  -0.02354  -0.003144  -0.02061  0.5988  -0.2261
6.256e+09  -0.5827  -0.613  0.02927  0.004891  -0.01305  -0.03056  0.4689  -0.4451
6.258e+09  -0.7208  -0.326  -0.02214  -0.006645  -0.01025  0.02138  0.2588  -0.6016
6.259e+09  -0.8477  -0.01914  0.001912  -0.005875  0.01125  0.06562  0.02776  -0.6789
6.26e+09  -0.7944  0.2599  -0.002683  -0.0059  -0.002816  -0.008737  -0.1935  -0.65
6.261e+09  -0.6787  0.4834  0.009029  -0.02057  0.009317  -0.017  -0.4399  -0.5299
6.262e+09  -0.3706  0.6547  -0.02817  -0.003051  0.01904  0.03748  -0.6258  -0.308
6.264e+09  -0.1282  0.7706  0.0107  0.01938  0.0007323  0.01212  -0.7031  -0.1182
6.265e+09  0.1353  0.8041  0.01825  -0.0103  -0.007919  -0.01216  -0.6909  0.2072
6.266e+09  0.367  0.7392  0.00738  0.01627  0.0267  -0.06817  -0.615  0.3899
6.268e+09  0.6597  0.4574  0.01087  -0.01659  -0.02619  -0.02309  -0.4205  0.5857
6.269e+09  0.8536  0.2035  0.01014  -0.02196  -0.001557  -0.04538  -0.2157  0.7306
6.27e+09  0.7578  -0.008936  -0.01008  0.01829  0.009913  -0.05105  0.07164  0.7542
6.271e+09  0.6602  -0.3747  -0.02472  0.003991  0.03894  0.009546  0.3127  0.6807
6.272e+09  0.5518  -0.5232  0.008039  -0.007113  -0.03282  0.03032  0.5616  0.5717
6.274e+09  0.3044  -0.7549  -0.01202  -0.01192  -0.01606  -0.009811  0.6689  0.3175
6.275e+09  0.01602  -0.7579  -0.008851  0.01961  -0.0004076  0.005314  0.742  0.04784
6.276e+09  -0.2783  -0.7323  0.02469  -0.0215  0.002555  -0.01407  0.7559  -0.2307
6.278e+09  -0.486  -0.5404  0.01361  -0.02516  0.007886  0.04379  0.6032  -0.4422
6.279e+09  -0.7179  -0.454  -0.000668  0.01314  -0.008645  0.01847  0.4155  -0.6471
6.28e+09  -0.7585  -0.09922  -0.01612  -0.03889  0.01228  0.002531  0.1831  -0.7352
6.281e+09  -0.7371  0.1269  0.004796  -0.007122  -0.0007525  0.05385  -0.1219  -0.7378
6.282e+09  -0.6888  0.3784  -0.01326  0.04742  -0.03627  0.02191  -0.3649  -0.6994
6.284e+09  -0.375  0.6588  0.006988  -0.02283  -0.02532  0.01216  -0.6319  -0.5133
6.285e+09  -0.1887  0.7815  -0.01218  -0.002326  -0.02024  0.01347  -0.7333  -0.3055
6.286e+09  0.1133  0.8355  0.02407  0.01212  -0.03405  -0.01866  -0.8167  -0.0386
6.288e+09  0.3748  0.6601  0.003494  -0.02291  0.01958  -0.01186  -0.75  0.2818
6.289e+09  0.5609  0.5275  0.03553  0.01312  -0.01472  -0.007937  -0.6111  0.4945
6.29e+09  0.7406  0.2762  0.03029  -0.007858  0.01566  0.01771  -0.4106  0.6684
6.291e+09  0.772  -0.00489  0.01927  0.009514  0.03033  0.04291  -0.196  0.7638
6.292e+09  0.7842  -0.2779  0.01698  0.01549  0.006822  0.006259  0.1441  0.8253
6.294e+09  0.6176  -0.5605  0.01077  0.008207  -0.01114  0.02631  0.4099  0.6925
6.295e+09  0.4147  -0.7021  -0.01351  -0.005397  -0.002336  0.02126  0.6466  0.5414
6.296e+09  0.1088  -0.8131  0.02243  0.004649  -0.01004  0.03232  0.7545  0.3071
6.298e+09  -0.178  -0.7713  -0.008779  -0.0003487  0.02823  0.00352  0.8106  0.01512
6.299e+09  -0.3731  -0.6906  -0.004283  0.0009517  -0.006869  -0.03995  0.7916  -0.266
6.3e+09  -0.6972  -0.4216  0.005207  0.01288  7.485e-05  0.01086  0.6455  -0.531
6.301e+09  -0.7849  -0.1934  -0.01773  0.02404  -0.007987  0.004512  0.425  -0.7199
6.302e+09  -0.8375  0.1018  0.03642  0.0003991  0.06911  -0.007478  0.1656  -0.8259
6.304e+09  -0.6409  0.3758  -0.004168  -0.03167  0.007304  -0.02167  -0.1762  -0.8129
6.305e+09  -0.5096  0.5354  0.02803  0.0615  0.02279  -0.03647  -0.433  -0.7586
6.306e+09  -0.297  0.7615  0.02048  -0.02994  -0.04104  0.02207  -0.6752  -0.5502
6.308e+09  -0.01677  0.8117  0.01329  -0.0429  0.01595  -0.05433  -0.815  -0.3488
6.309e+09  0.2867  0.7459  0.003619  0.01558  -0.008561  0.03741  -0.882  0.002502
6.31e+09  0.5245  0.6165  -0.01165  0.02128  0.004961  -0.0001537  -0.7778  0.2876
6.311e+09  0.7138  0.3723  0.007343  0.02788  0.003766  -0.009615  -0.6789  0.58
6.312e+09  0.8043  0.1288  0.0002416  0.02127  -0.02833  -0.008806  -0.4405  0.7256
6.314e+09  0.7805  -0.1587  0.004768  0.003027  0.0001013  0.02405  -0.1705  0.8537
6.315e+09  0.6404  -0.471  -0.01516  0.01901  -0.0143  0.01932  0.1461  0.8594
6.316e+09  0.4722  -0.6841  -0.009481  0.01304  -0.02617  0.04742  0.4128  0.7409
6.318e+09  0.1769  -0.7602  -0.01242  0.004793  0.04013  0.03541  0.6728  0.5741
6.319e+09  -0.08751  -0.8438  -0.04001  3.149e-05  -0.0106  -0.01765  0.8308  0.322
6.32e+09  -0.3968  -0.7224  0.005154  0.01479  0.01563  0.01638  0.9118  -0.00476
6.321e+09  -0.6324  -0.4865  0.001415  0.03017  -0.0125  0.05392  0.8542  -0.2638
6.322e+09  -0.7689  -0.2507  0.0008293  -0.04594  -0.06068  0.02353  0.657  -0.587
6.324e+09  -0.8181  -0.0484  -0.01441  0.01658  -0.007853  0.003238  0.4747  -0.7679
6.325e+09  -0.8205  0.3241  0.002825  0.01643  -0.0113  -0.006488  0.1543  -0.8669
6.326e+09  -0.6457  0.6007  -0.01306  -0.0227  0.01774  -0.04162  -0.1645  -0.8708
6.328e+09  -0.3212  0.7785  -0.01498  -0.01534  0.004911  -0.006961  -0.4278  -0.774
6.329e+09  -0.106  0.801  0.029  -0.0092  0.03869  -0.01003  -0.6658  -0.5995
6.33e+09  0.2161  0.8161  0.005988  0.01554  -0.04723  -0.01458  -0.8268  -0.3201
6.331e+09  0.4944  0.7054  -0.003903  0.0009191  -0.0135  -0.004053  -0.9186  -0.05312
6.332e+09  0.7002  0.457  -0.02678  0.001418  0.0227  -0.007375  -0.879  0.3124
6.334e+09  0.8527  0.2075  0.008303  -0.02155  -0.01055  -0.005028  -0.6994  0.5566
6.335e+09  0.8215  -0.1399  -0.03575  0.005872  -0.02102  -0.02879  -0.4466  0.7401
6.336e+09  0.7135  -0.3502  -0.0004595  -0.00538  -0.01414  0.03518  -0.1957  0.896
6.338e+09  0.5502  -0.6198  -0.02765  0.01806  -0.01989  0.04326  0.1063  0.9095
6.339e+09  0.2984  -0.7477  -0.03301  -0.006691  0.02594  -0.006429  0.4014  0.8012
6.34e+09  -2.813e-05  -0.8488  0.004337  0.004419  0.0008036  -0.03014  0.675  0.6245
6.341e+09  -0.3024  -0.7387  -0.01361  -0.007889  0.03763  0.03395  0.9105  0.3306
6.342e+09  -0.566  -0.6569  0.0008586  -0.02517  0.02503  -0.01883  0.8981  0.02414
6.344e+09  -0.7483  -0.323  0.00251  -0.004649  -0.02198  0.02515  0.8719  -0.2418
6.345e+09  -0.8191  -0.0697  -0.007769  -0.0083  -0.01053  -0.0637  0.776  -0.5274
6.346e+09  -0.7902  0.189  0.01132  0.02021  0.02059  0.001875  0.4678  -0.7627
6.348e+09  -0.632  0.4793  -0.001632  -0.0293  0.003349  0.04495  0.2361  -0.9085
6.349e+09  -0.4477  0.6892  -0.007176  -0.0224  -0.01483  0.006726  -0.1574  -0.9204
6.35e+09  -0.2141  0.8331  -0.0181  -0.02595  -0.01965  0.003143  -0.4247  -0.8103
6.351e+09  0.09972  0.8033  0.03793  0.008132  -0.006452  -0.001077  -0.6915  -0.6717
6.352e+09  0.4077  0.7313  -0.00713  -0.01988  0.004522  0.001279  -0.8359  -0.3724
6.354e+09  0.607  0.4785  -0.05131  0.008959  0.009257  0.06024  -0.9289  -0.0538
6.355e+09  0.747  0.2731  0.004278  0.002484  0.006443  0.08034  -0.8993  0.2683
6.356e+09  0.8212  -0.04102  -0.02318  -0.02127  0.02314  -0.002524  -0.7871  0.5317
6.358e+09  0.7892  -0.3179  -0.03547  -0.008318  0.03145  0.05769  -0.5254  0.7956
6.359e+09  0.577  -0.5546  0.001779  -0.007019  0.03593  -0.02527  -0.2129  0.9245
6.36e+09  0.3638  -0.7526  0.005843  -0.04226  -0.02627  -0.0344  0.1048  0.9075
6.361e+09  0.05807  -0.8422  0.01217  -0.002649  0.01066  0.003966  0.4033  0.8885
6.362e+09  -0.2465  -0.8202  0.01514  0.03257  0.01292  -0.002103  0.6819  0.6477
6.364e+09  -0.5472  -0.6627  0.03082  -0.02785  0.02152  -0.009631  0.8586  0.3865
6.365e+09  -0.7324  -0.4266  0.009023  -0.03944  -0.01281  -0.01129  0.9481  0.1235
6.366e+09  -0.8474  -0.1468  0.0003038  0.0006973  0.02907  -0.05476  0.894  -0.2631
6.368e+09  -0.866  0.1224  0.01011  -0.00504  -0.002249  -0.00971  0.788  -0.5405
6.369e+09  -0.6893  0.3905  0.02578  0.01485  0.0003683  0.002894  0.5311  -0.7601
6.37e+09  -0.47  0.6669  0.005125  -0.02275  -0.01562  0.0397  0.2525  -0.9016
6.371e+09  -0.2054  0.8164  0.01523  -0.01769  0.007543  0.002355  -0.08414  -0.9427
6.372e+09  0.06628  0.8338  0.03266  0.001772  0.006066  0.01342  -0.3904  -0.8333
6.374e+09  0.3558  0.7284  0.01695  -0.001174  0.01163  -0.02191  -0.6565  -0.6713
6.375e+09  0.6448  0.5846  0.01383  0.01865  0.01695  0.00338  -0.859  -0.3969
6.376e+09  0.8053  0.3289  -0.009888  -0.04273  0.01038  0.02811  -0.9728  -0.08716
6.378e+09  0.8358  0.03428  -0.03486  -0.01003  0.01063  -0.04285  -0.9077  0.2275
6.379e+09  0.789  -0.3094  0.017  0.01677  0.0457  0.001861  -0.8022  0.5399
6.38e+09  0.6327  -0.593  -0.01519  -0.009287  -0.02508  -0.004164  -0.5531  0.7389
6.381e+09  0.3941  -0.7291  -0.001278  0.006892  -0.0151  0.03365  -0.2492  0.8992
6.382e+09  0.1203  -0.8293  -0.01805  0.0001978  -0.05129  -0.001088  0.03898  0.9341
6.384e+09  -0.2144  -0.7994  -0.02117  0.01424  0.02499  -0.008388  0.3645  0.8213
6.385e+09  -0.4815  -0.6875  0.01215  -0.002273  -0.03482  0.001252  0.6231  0.674
6.386e+09  -0.7387  -0.4128  0.03167  -0.003628  -0.00868  -0.001679  0.8419  0.4305
6.388e+09  -0.8438  -0.1271  -0.008964  -0.008599  -0.03881  -0.002236  0.9348  0.1503
6.389e+09  -0.8147  0.1192  -0.00179  0.01566  -0.03964  -0.006582  0.92  -0.2298
6.39e+09  -0.7086  0.4397  0.0146  -0.04587  -0.004144  0.02921  0.8137  -0.482
6.391e+09  -0.534  0.6584  -0.02313  0.03499  0.03326  0.03096  0.5405  -0.7437
6.392e+09  -0.2845  0.8336  -0.0003259  0.0009167  0.04728  0.04826  0.2876  -0.8849
6.394e+09  0.03303  0.856  -0.01442  -0.02029  0.00923  -0.06077  -0.01105  -0.9367
6.395e+09  0.3257  0.799  0.02528  0.02422  0.04061  0.01481  -0.351  -0.8634
6.396e+09  0.6281  0.6238  0.007934  0.0264  0.02909  -0.001179  -0.6019  -0.7476
6.398e+09  0.796  0.3217  0.003895  0.006217  0.03426  -0.004362  -0.8561  -0.438
6.399e+09  0.837  0.002819  0.009788  0.005435  0.0221  -0.007197  -0.8778  -0.1324
6.4e+09  0.7502  -0.2772  0.006745  0.02789  0.01188  -0.01419  -0.8523  0.2126
6.401e+09  0.6649  -0.5561  0.02231  0.01344  -0.004604  0.02253  -0.7594  0.4655
6.402e+09  0.4191  -0.7818  -0.01964  0.006642  0.03757  -0.01012  -0.5234  0.6355
6.404e+09  0.1092  -0.7611  -0.02319  0.01059  -0.01316  0.005175  -0.3569  0.8788
6.405e+09  -0.2382  -0.816  -0.03508  0.01805  -0.005328  -0.01811  0.01156  0.9793
6.406e+09  -0.4637  -0.6683  -0.01025  -0.07389  -0.02883  0.02197  0.297  0.8417
6.408e+09  -0.7217  -0.4282  -0.009247  0.046  0.01849  -0.03671  0.5654  0.718
6.409e+09  -0.8144  -0.202  0.04813  -0.009783  0.02458  0.04825  0.7947  0.4566
6.41e+09  -0.8136  0.06126  0.0151  0.01538  0.02101  0.0154  0.9301  0.1954
6.411e+09  -0.7074  0.403  -0.004825  0.004263  -0.03968  -0.04469  0.9197  -0.156
6.412e+09  -0.4494  0.702  0.004778  0.02706  -0.02083  -0.02137  0.7706  -0.4831
6.414e+09  -0.2556  0.7891  0.0007105  0.01166  0.03714  -0.02869  0.5961  -0.6587
6.415e+09  0.02148  0.8751  -0.01923  0.04255  -0.02479  -0.04047  0.3445  -0.8458
6.416e+09  0.2678  0.7865  0.007151  -0.0006795  -0.008499  0.03364  0.06641  -0.8754
6.418e+09  0.5827  0.5288  0.04334  0.01611  0.02447  0.02039  -0.2631  -0.862
6.419e+09  0.7827  0.3448  -0.002402  -0.002422  0.04486  0.0214  -0.5472  -0.6904
6.42e+09  0.8571  0.04051  -0.02392  0.003149  -0.04582  -0.005339  -0.7255  -0.4811
6.421e+09  0.8589  -0.2803  -0.003888  0.01117  -0.02263  -0.03388  -0.8826  -0.1903
6.422e+09  0.669  -0.5503  0.01141  0.03754  -0.05306  -0.02864  -0.8804  0.1136
6.424e+09  0.3749  -0.7258  -0.002483  0.01781  -0.009716  -0.007731  -0.8129  0.4139
6.425e+09  0.05977  -0.8474  -0.002556  -0.01962  0.01548  0.03972  -0.6491  0.581
6.426e+09  -0.219  -0.7726  0.01193  -0.03767  0.01807  -0.01525  -0.3246  0.7879
6.428e+09  -0.4749  -0.7039  -0.01601  -0.04293  -0.02559  -0.01505  -0.04122  0.8637
6.429e+09  -0.709  -0.5216  0.01331  -0.008757  -0.005028  0.004954  0.2554  0.7947
6.43e+09  -0.8345  -0.1947  -0.01452  -0.01876  0.009535  -0.02029  0.4996  0.7022
6.431e+09  -0.8292  0.07315  -0.008116  0.000501  0.01028  0.006788  0.6777  0.4705
6.432e+09  -0.7562  0.4038  0.03259  -0.04196  0.00617  -0.009464  0.7996  0.2164
6.434e+09  -0.5381  0.6818  -0.0242  0.03599  -0.02346  0.01079  0.8453  -0.06605
6.435e+09  -0.2879  0.7574  -0.03204  0.0238  -0.003742  -0.01924  0.7753  -0.4062
6.436e+09  -0.01574  0.8035  -0.03108  0.02321  -0.004339  0.0454  0.6037  -0.5893
6.438e+09  0.3596  0.7473  0.00802  -0.001158  0.007863  -0.02565  0.3636  -0.8057
6.439e+09  0.6107  0.5771  -0.0536  -0.03132  0.02526  8.718e-06  0.1037  -0.8606
6.44e+09  0.8002  0.3704  0.01975  -0.01024  0.01174  -0.02013  -0.2232  -0.8224
6.441e+09  0.8047  0.09336  0.0574  0.0109  -0.02482  -0.009684  -0.5015  -0.6706
6.442e+09  0.8061  -0.226  -0.02027  0.02286  -0.007735  0.06194  -0.7457  -0.4562
6.444e+09  0.6347  -0.5067  -0.02753  -0.01465  0.01275  0.009913  -0.8041  -0.1981
6.445e+09  0.3674  -0.7301  -0.02604  -0.01647  -0.02712  -0.006749  -0.8403  0.06686
6.446e+09  0.0748  -0.8219  0.03155  -0.01469  0.01504  -0.02206  -0.7606  0.38
6.448e+09  -0.125  -0.828  -0.01277  0.007593  0.02509  0.01634  -0.5971  0.6427
6.449e+09  -0.4327  -0.7446  0.006897  -0.005494  0.03761  -0.002647  -0.3231  0.7521
6.45e+09  -0.6051  -0.5291  0.01603  0.01368  0.03997  -0.009941  -0.03438  0.869
6.451e+09  -0.755  -0.2587  -0.01934  0.006065  -0.01732  -0.0332  0.2286  0.7787
6.452e+09  -0.8615  0.1014  0.03915  -0.003301  -0.03183  -0.004578  0.556  0.6744
6.454e+09  -0.6715  0.3734  0.05913  0.004044  -0.01122  0.02003  0.6668  0.478
6.455e+09  -0.5823  0.596  -0.02883  0.04718  0.005222  -0.04029  0.7809  0.1968
6.456e+09  -0.3758  0.7281  0.002008  0.04129  -0.0349  -0.01435  0.8177  -0.07832
6.458e+09  -0.03555  0.8109  -0.03065  0.006771  0.03118  -0.0232  0.6908  -0.3204
6.459e+09  0.2374  0.7467  0.002729  0.02788  0.09366  -0.009982  0.5451  -0.6049
6.46e+09  0.4764  0.6684  0.002982  -0.02547  -0.03337  0.04525  0.3872  -0.7604
6.461e+09  0.7045  0.452  0.03926  0.008029  0.00763  0.04672  0.009978  -0.7919
6.462e+09  0.7973  0.156  -0.02356  -0.05269  -0.003262  0.02322  -0.254  -0.7537
6.464e+09  0.8072  -0.1194  0.009625  -0.02757  -0.06183  -0.004644  -0.4755  -0.6677
6.465e+09  0.6812  -0.4444  0.008943  -0.02241  -0.009758  0.03239  -0.659  -0.461
6.466e+09  0.5403  -0.5811  0.0009944  -0.03483  -0.003096  0.01045  -0.7493  -0.1528
6.468e+09  0.2307  -0.7323  0.01154  -0.01468  -0.004334  -0.02401  -0.7901  0.06992
6.469e+09  -0.0197  -0.7829  -0.006601  -0.04239  -0.0308  -0.04494  -0.7816  0.3303
6.47e+09  -0.2808  -0.7197  0.01293  -0.0195  -0.001426  0.002297  -0.555  0.5736
6.471e+09  -0.5447  -0.6276  -0.0366  0.02989  -0.006803  0.03418  -0.3496  0.7119
6.472e+09  -0.73  -0.3847  -0.01014  -0.002187  -0.003063  0.0003816  -0.07446  0.7926
6.474e+09  -0.7641  -0.05209  -0.01293  -0.02157  -0.01435  0.003056  0.2319  0.769
6.475e+09  -0.7572  0.189  -0.01645  -0.004227  0.01874  0.002757  0.4183  0.6509
6.476e+09  -0.6654  0.4467  -0.01965  0.0007175  0.01267  -0.01604  0.6763  0.4894
6.478e+09  -0.4377  0.6775  0.01882  -0.005537  0.04415  -0.03585  0.7761  0.1952
6.479e+09  -0.1414  0.7421  -0.01316  -0.03335  -0.05553  -0.006586  0.8108  -0.09785
6.48e+09  0.1281  0.8115  -0.001021  0.008575  -0.03076  0.01978  0.6667  -0.3233
6.481e+09  0.3859  0.7363  -0.02121  -0.02903  0.009944  -0.004308  0.5558  -0.5504
6.482e+09  0.5729  0.5546  0.02274  0.0001961  0.01887  0.01907  0.3382  -0.7332
6.484e+09  0.7728  0.3252  0.01117  0.02125  0.006395  0.01821  0.06973  -0.7861
6.485e+09  0.7496  0.01633  -0.01371  0.03891  -0.009955  0.04453  -0.1983  -0.7599
6.486e+09  0.6946  -0.2597  -0.00218  0.001498  -2.151e-05  -0.008198  -0.4547  -0.6589
6.488e+09  0.6547  -0.4268  0.06152  -0.02606  -0.01149  0.008259  -0.633  -0.3925
6.489e+09  0.3724  -0.685  0.01508  -0.01826  0.009312  -0.005366  -0.7949  -0.1883
6.49e+09  0.1373  -0.7747  0.008847  0.03401  -0.05618  0.04126  -0.7316  0.0844
6.491e+09  -0.1599  -0.7703  0.006964  0.02935  -0.002435  -0.01431  -0.6448  0.3434
6.492e+09  -0.4153  -0.6848  0.01282  0.01325  0.04307  0.0008574  -0.4966  0.5452
6.494e+09  -0.6602  -0.5477  0.01442  -0.01279  0.05239  -0.03887  -0.3014  0.7167
6.495e+09  -0.747  -0.2381  -0.004439  0.0302  -0.004534  0.001586  -0.04107  0.7487
6.496e+09  -0.8081  0.02341  0.01187  -0.02535  0.008672  0.03152  0.2225  0.7524
6.498e+09  -0.7498  0.2892  0.02937  -0.03735  -0.04453  -0.0512  0.5143  0.6178
6.499e+09  -0.5562  0.5091  0.01145  -0.009002  0.04567  0.02537  0.6681  0.4069
6.5e+09  -0.3771  0.7018  0.03447  -0.01157  -0.02681  -0.01232  0.7496  0.1269
6.501e+09  -0.06925  0.7712  -0.0305  0.007  -0.01718  0.05447  0.7516  -0.1246
6.502e+09  0.1874  0.7756  -0.0202  -0.001334  -0.03042  0.0327  0.6804  -0.3952
6.504e+09  0.4458  0.6487  -0.007141  -0.006002  0.01276  0.04473  0.5065  -0.5688
6.505e+09  0.6715  0.4764  0.009401  -0.004092  -0.04145  0.0334  0.2579  -0.7164
6.506e+09  0.8049  0.2264  0.03023  0.05282  -0.01536  0.02507  0.007131  -0.7896
6.508e+09  0.7477  -0.05813  0.001775  -0.001882  0.04231  -0.06432  -0.2178  -0.7706
6.509e+09  0.7096  -0.3544  -0.01898  -0.04499  -0.01714  -0.009549  -0.4749  -0.6077
6.51e+09  0.574  -0.6304  -0.006849  -0.01397  -0.02528  0.01831  -0.6488  -0.3707
6.511e+09  0.3294  -0.7623  0.007456  -0.006859  -0.000169  0.005657  -0.728  -0.1263
6.512e+09  0.01893  -0.7656  -0.02513  0.01124  0.007091  0.001836  -0.7272  0.1073
6.514e+09  -0.2042  -0.8302  0.01195  -0.01054  -0.0535  0.0463  -0.6558  0.3881
6.515e+09  -0.4976  -0.69  -0.01169  -0.0168  0.03562  0.008549  -0.4785  0.5575
6.516e+09  -0.6847  -0.4633  0.01822  0.007472  -0.01164  -0.02082  -0.269  0.7009
6.518e+09  -0.8073  -0.1553  0.01246  -0.03659  0.009059  0.02118  0.02908  0.7804
6.519e+09  -0.8009  0.1569  -0.008622  0.003767  0.04145  -0.01351  0.2846  0.6639
6.52e+09  -0.7183  0.4118  0.0005411  -0.01322  0.007869  0.01171  0.5067  0.5752
6.521e+09  -0.5602  0.6078  -0.055  0.01408  0.07295  0.06626  0.6354  0.3637
6.522e+09  -0.2695  0.7885  -0.01525  0.02769  -0.0435  0.03094  0.7262  0.1111
6.524e+09  0.005938  0.8482  -0.007266  0.008455  0.03567  0.02643  0.682  -0.1738
6.525e+09  0.3264  0.7861  0.0049  0.01866  0.04014  0.01119  0.6511  -0.4146
6.526e+09  0.5726  0.6387  0.001235  0.0005494  -0.03906  -0.01917  0.4107  -0.5969
6.528e+09  0.7737  0.4481  -0.02143  -0.0145  0.03582  -0.0203  0.1512  -0.6821
6.529e+09  0.8528  0.09229  0.0005293  -0.02096  0.02186  -0.002087  -0.05255  -0.7007
6.53e+09  0.8734  -0.1502  0.02888  -0.008156  -0.04758  -0.0392  -0.2732  -0.6087
6.531e+09  0.7126  -0.4486  0.01296  0.003116  -0.01031  -0.02633  -0.4697  -0.4863
6.532e+09  0.549  -0.7228  0.0255  0.0129  0.02209  -0.006243  -0.6155  -0.2832
6.534e+09  0.2765  -0.8634  -0.02904  -0.001777  -0.05865  0.04487  -0.6466  -0.09992
6.535e+09  -0.08366  -0.8928  -0.02881  0.01413  -0.03911  -0.02215  -0.5967  0.1515
6.536e+09  -0.3493  -0.8392  0.001558  0.007312  0.03396  -0.05793  -0.5424  0.3152
6.538e+09  -0.6397  -0.6171  0.0162  -0.009792  0.03355  -0.03881  -0.4459  0.4958
6.539e+09  -0.8174  -0.3697  0.01902  -0.0136  -0.02906  0.008591  -0.2644  0.6039
6.54e+09  -0.8733  -0.05147  -0.01817  -0.01356  -0.04669  0.05034  -0.05157  0.6875
6.541e+09  -0.8445  0.2759  -0.0238  -0.003176  0.02583  0.02599  0.1869  0.6731
6.542e+09  -0.7008  0.5442  -0.01138  -0.008378  0.005184  0.02773  0.4206  0.5811
6.544e+09  -0.517  0.7231  0.04381  -0.01092  -0.005772  0.03862  0.5747  0.3981
6.545e+09  -0.1848  0.856  -0.006341  0.04402  -0.001125  -0.004511  0.68  0.1754
6.546e+09  0.1342  0.9194  0.002355  0.02275  -0.0476  0.02198  0.7167  -0.06891
6.548e+09  0.4664  0.8027  0.01679  -0.01785  0.06816  0.0008223  0.6362  -0.321
6.549e+09  0.7151  0.5874  0.02035  -0.00546  0.009902  0.0128  0.4906  -0.5702
6.55e+09  0.8518  0.274  -0.01322  0.01039  -0.01231  0.006519  0.301  -0.6555
