# Hz S RI R 50
6.25e+09  0.6788  0.4678  -0.02187  -0.005446  -0.02307  0.06455  0.1756  0.471
6.251e+09  0.8118  0.1648  0.04175  0.003533  0.004353  0.01116  0.391  0.3853
6.252e+09  0.8256  -0.1937  -0.006677  0.009751  0.03263  -0.0168  0.541  0.2553
6.254e+09  0.6569  -0.4535  0.03228  0.005556  -0.01323  0.0186  0.607  0.04234
6.255e+09  0.5222  -0.6664  0.002475  0.02098  0.00993  0.01567  0.5577  -0.1966
6.256e+09  0.2675  -0.819  0.01049  0.002047  -0.006849  0.004321  0.5068  -0.4397
6.258e+09  -0.04019  -0.7816  -0.0339  -0.01326  -0.02064  -0.04005  0.2762  -0.6247
6.259e+09  -0.3332  -0.7162  0.005974  -0.006622  0.03975  -0.0217  0.06081  -0.6863
6.26e+09  -0.5728  -0.6305  0.01304  0.03516  -0.003714  -0.003243  -0.1923  -0.6758
6.261e+09  -0.7586  -0.4106  -0.006523  -0.01559  -0.01263  0.006817  -0.4502  -0.5059
6.262e+09  -0.8348  -0.04316  0.03481  0.009463  -0.02974  0.01374  -0.6127  -0.3432
6.264e+09  -0.7874  0.2292  0.02406  -0.008306  0.02032  -0.005918  -0.6897  -0.1257
6.265e+09  -0.6529  0.5707  -0.005822  0.008106  -0.0297  0.002237  -0.7219  0.1694
6.266e+09  -0.4374  0.6502  0.003698  0.0004351  0.0209  0.05164  -0.5933  0.4214
6.268e+09  -0.1344  0.8297  0.04518  0.02527  0.01016  -0.01801  -0.41  0.582
6.269e+09  0.1408  0.7811  -0.008014  -0.004162  -0.006198  0.02806  -0.1753  0.6893
6.27e+09  0.477  0.7394  0.03037  0.007279  0.05748  -0.01048  0.06877  0.7531
6.271e+09  0.646  0.4528  -0.004383  0.007573  0.01576  -0.02581  0.3434  0.6811
6.272e+09  0.7919  0.3043  -0.02652  -0.0109  -0.04305  -0.003225  0.5456  0.5578
6.274e+09  0.8453  -0.003461  0.01278  0.01667  -0.004763  0.01612  0.6895  0.2946
6.275e+09  0.7868  -0.3234  0.01802  -0.01911  -0.01296  -0.008715  0.7676  0.01362
6.276e+09  0.5451  -0.6018  0.0001914  0.03059  -0.01808  0.04979  0.7374  -0.2349
6.278e+09  0.3208  -0.7444  -0.01097  0.02212  -0.01827  0.01399  0.6302  -0.4596
6.279e+09  0.05107  -0.837  -0.02279  -0.007034  0.01471  0.0342  0.4032  -0.6497
6.28e+09  -0.2713  -0.7743  0.005364  0.01351  -0.02816  0.00949  0.1755  -0.7553
6.281e+09  -0.5073  -0.6689  0.008372  0.01472  -0.04688  -0.03227  -0.09288  -0.7735
6.282e+09  -0.7236  -0.4148  0.001119  0.01729  -0.01007  -0.01981  -0.3833  -0.6906
6.284e+09  -0.8217  -0.1495  0.0004494  0.01057  -0.03067  -0.07246  -0.5955  -0.5427
6.285e+09  -0.8257  0.1427  0.02013  -0.006524  -0.03402  -0.006037  -0.7486  -0.2876
6.286e+09  -0.7281  0.477  0.007621  0.002909  0.00204  0.01304  -0.7833  -0.03546
6.288e+09  -0.5667  0.6089  -0.009629  -0.03297  0.01292  -0.06524  -0.7559  0.2467
6.289e+09  -0.3002  0.8104  0.01197  -0.007997  -0.03171  -0.03102  -0.658  0.474
6.29e+09  0.06958  0.8695  0.003099  -0.02193  0.02713  0.013  -0.3984  0.6982
6.291e+09  0.2929  0.7416  -0.004217  0.002952  0.03052  -0.06311  -0.137  0.7779
6.292e+09  0.5408  0.6191  0.0081  0.006566  -0.05545  -0.03878  0.1391  0.7982
6.294e+09  0.8264  0.3342  -0.009205  -0.01678  0.00751  -0.008012  0.3946  0.7294
6.295e+09  0.8256  0.05003  0.008271  0.01578  0.08017  0.0309  0.6572  0.5343
6.296e+09  0.7874  -0.1938  0.01675  0.002046  0.0251  0.003972  0.7429  0.2827
6.298e+09  0.6106  -0.4799  0.00333  0.0007879  0.005444  0.05332  0.8672  0.003501
6.299e+09  0.413  -0.6938  -0.01432  -9.623e-05  0.04245  -0.0124  0.7543  -0.2303
6.3e+09  0.1782  -0.8295  0.02037  -0.005464  0.05504  0.01398  0.6697  -0.5426
6.301e+09  -0.1022  -0.7558  0.01439  0.003504  -0.06196  -0.03316  0.4348  -0.7613
6.302e+09  -0.4495  -0.7371  -0.001441  -0.008667  0.00521  0.009476  0.1458  -0.844
6.304e+09  -0.6382  -0.5333  0.009291  -0.02239  -0.006542  0.000715  -0.1742  -0.8259
6.305e+09  -0.812  -0.2857  -0.005941  0.02549  0.01154  0.01246  -0.4416  -0.7641
6.306e+09  -0.85  0.01139  -0.0002037  -0.005835  -0.005053  0.004865  -0.6234  -0.5501
6.308e+09  -0.7598  0.3374  -0.003472  -0.01354  -0.02345  0.0008095  -0.7963  -0.3008
6.309e+09  -0.6185  0.5393  -0.02677  0.01962  -0.02188  -0.006025  -0.885  -0.02038
6.31e+09  -0.3642  0.7079  6.498e-05  0.03776  0.005815  0.02727  -0.8456  0.2804
6.311e+09  -0.07221  0.8033  0.01211  0.05931  -0.02448  0.02458  -0.6353  0.5485
6.312e+09  0.1541  0.8239  0.01821  -0.01282  -0.001854  0.02495  -0.4324  0.7664
6.314e+09  0.4833  0.6477  0.01907  -0.03427  -0.02741  0.006248  -0.1667  0.8789
6.315e+09  0.7048  0.4898  -0.02221  -0.008289  -0.006351  -0.02449  0.132  0.8931
6.316e+09  0.825  0.2443  -0.03626  0.0009435  0.01961  -0.009141  0.4508  0.7538
6.318e+09  0.7967  -0.0951  0.01689  0.009434  0.01024  0.005976  0.68  0.5689
6.319e+09  0.7262  -0.3835  -0.001547  -0.01106  0.02092  -0.001715  0.8117  0.3262
6.32e+09  0.575  -0.6588  -0.02119  -0.02433  0.005882  0.0231  0.8758  0.005815
6.321e+09  0.2993  -0.7573  0.03127  0.006014  -0.04202  -0.06644  0.8604  -0.3121
6.322e+09  -0.06602  -0.8727  0.01831  0.01341  0.009221  -0.001779  0.7  -0.5483
6.324e+09  -0.306  -0.76  0.001057  0.005508  -0.07178  -0.005363  0.4506  -0.7613
6.325e+09  -0.5665  -0.6261  0.002869  -0.0005861  -0.01526  0.003532  0.1833  -0.8799
6.326e+09  -0.76  -0.425  0.009705  -0.03335  0.005066  -0.03111  -0.1765  -0.8743
6.328e+09  -0.8269  -0.1422  -0.01511  -0.003876  0.003476  -0.01352  -0.4323  -0.7818
6.329e+09  -0.8335  0.2098  -0.0003237  -0.01808  -0.006214  0.009137  -0.721  -0.5994
6.33e+09  -0.6982  0.5157  -0.02094  0.01017  0.02512  -0.07132  -0.8527  -0.328
6.331e+09  -0.4319  0.7014  0.01771  -0.01004  -0.03134  -0.002548  -0.8782  -0.0445
6.332e+09  -0.2171  0.8513  -0.009653  -0.007469  0.01275  0.005185  -0.8514  0.3116
6.334e+09  0.07776  0.9087  -0.007016  -0.02309  0.02313  0.01357  -0.7011  0.5871
6.335e+09  0.4343  0.7631  0.02215  -0.0004552  0.007311  6.678e-05  -0.5132  0.7472
6.336e+09  0.6075  0.5344  -0.009783  0.007156  -0.001876  0.005062  -0.1907  0.8928
6.338e+09  0.8057  0.3128  0.009212  7.881e-05  -0.02975  0.01188  0.1163  0.8665
6.339e+09  0.823  0.0365  -0.04455  -0.01193  -0.001636  -0.005292  0.4268  0.8092
6.34e+09  0.82  -0.2992  0.005332  0.01836  -0.01766  -0.02056  0.6616  0.6282
6.341e+09  0.6754  -0.574  -0.02538  0.008079  0.04555  0.01699  0.8103  0.3463
6.342e+09  0.373  -0.7992  -0.004862  0.02357  0.01724  -0.009311  0.9254  0.05886
6.344e+09  0.1222  -0.8351  0.005629  -0.0006565  -0.0234  -0.02345  0.8893  -0.2798
6.345e+09  -0.2348  -0.8217  0.01532  -0.01949  0.01545  -0.0004641  0.7369  -0.607
6.346e+09  -0.5357  -0.6851  -0.03873  0.03201  -0.04062  -0.02691  0.5363  -0.7963
6.348e+09  -0.7256  -0.5203  0.009988  -0.03739  0.01803  -0.01136  0.2002  -0.9288
6.349e+09  -0.8016  -0.1964  -0.02299  0.007533  0.0005023  0.03221  -0.1104  -0.9295
6.35e+09  -0.8783  0.06675  -0.04254  0.008778  0.0336  -0.01522  -0.3772  -0.8657
6.351e+09  -0.7141  0.445  0.02255  -0.02307  -0.01126  -0.002931  -0.6867  -0.6324
6.352e+09  -0.5542  0.6374  0.01514  0.00605  0.03041  -0.09032  -0.8473  -0.3896
6.354e+09  -0.2934  0.7576  0.03285  0.001823  -0.02182  -0.05283  -0.9929  -0.08369
6.355e+09  0.01522  0.8803  -0.01166  0.0242  0.01428  0.005985  -0.8979  0.2579
6.356e+09  0.3305  0.7728  -0.006767  0.006868  0.01533  0.02992  -0.8131  0.5771
6.358e+09  0.5619  0.6212  0.01422  -0.01742  -0.0001176  0.005985  -0.5461  0.78
6.359e+09  0.8145  0.3396  -0.008666  0.03558  0.003389  -0.0006709  -0.2172  0.9086
6.36e+09  0.8757  0.05336  -0.03186  -0.02092  0.03098  0.009854  0.06659  0.966
6.361e+09  0.7903  -0.1645  -0.007352  0.0254  0.02869  -0.02682  0.4589  0.8401
6.362e+09  0.7093  -0.4987  0.0238  0.0268  -0.00326  -0.0009173  0.6844  0.6698
6.364e+09  0.5004  -0.7283  -0.03603  -0.0274  -0.008541  -0.003035  0.8677  0.3644
6.365e+09  0.1827  -0.854  0.003531  0.02193  -0.004159  0.03486  0.9349  0.06789
6.366e+09  -0.08876  -0.8755  0.02582  0.006554  0.0453  0.0303  0.9559  -0.2584
6.368e+09  -0.4064  -0.7709  0.02062  -0.02  -0.00776  0.02882  0.7704  -0.5315
6.369e+09  -0.6145  -0.5435  -0.01067  -0.01196  0.0188  0.01139  0.522  -0.751
6.37e+09  -0.8165  -0.3146  -0.01504  -0.005089  -0.01228  0.04195  0.2138  -0.9326
6.371e+09  -0.825  -0.004815  -0.006147  0.01082  0.00872  -0.002033  -0.08592  -0.9308
6.372e+09  -0.7733  0.3134  0.02885  -0.05081  0.01244  -0.02103  -0.3739  -0.8778
6.374e+09  -0.635  0.6325  -0.03102  0.01222  -0.01546  -0.006688  -0.6837  -0.6875
6.375e+09  -0.4145  0.7729  0.0008918  -0.008968  0.01172  -0.02826  -0.928  -0.3863
6.376e+09  -0.08583  0.8393  -0.003492  0.004434  -0.007252  -0.008069  -0.9487  -0.1301
6.378e+09  0.1747  0.8347  0.0102  0.007929  -0.005306  0.02713  -0.8956  0.2325
6.379e+09  0.4966  0.7237  0.02161  -0.03154  -0.04048  -0.04509  -0.8126  0.5049
6.38e+09  0.7038  0.4503  -0.002718  -0.03583  0.0007596  0.006343  -0.5718  0.7895
6.381e+09  0.8365  0.1722  0.03264  0.026  -0.03332  0.00644  -0.2795  0.9242
6.382e+09  0.8298  -0.1444  -0.03349  -0.01025  -0.04316  -0.004602  0.1025  0.9284
6.384e+09  0.7398  -0.3969  -0.006967  0.008707  -0.02324  -0.001685  0.3964  0.8781
6.385e+09  0.5684  -0.6487  -0.005287  0.009942  -0.03583  0.01388  0.6426  0.6751
6.386e+09  0.277  -0.7778  -0.01827  -0.01716  -0.01664  0.04096  0.8468  0.4238
6.388e+09  -0.04926  -0.8022  0.05092  0.002582  -0.03517  -0.02741  0.9269  0.09452
6.389e+09  -0.2638  -0.755  0.03238  0.005689  -0.02236  0.02194  0.9448  -0.2089
6.39e+09  -0.5907  -0.6139  0.008106  -0.004339  0.002732  0.02411  0.7634  -0.5227
6.391e+09  -0.7552  -0.3683  -0.007828  -0.006123  0.02471  -0.03161  0.5425  -0.7499
6.392e+09  -0.8718  -0.03631  -0.05351  -0.008998  -0.02728  -0.01832  0.2648  -0.8945
6.394e+09  -0.8083  0.2552  0.01587  0.02696  0.01866  0.04461  -0.0466  -0.9374
6.395e+09  -0.6783  0.5347  0.004275  -0.03114  0.007813  -0.03276  -0.3296  -0.8707
6.396e+09  -0.4369  0.684  0.02377  -0.02253  -0.02419  -0.02799  -0.6687  -0.6899
6.398e+09  -0.1264  0.8674  -0.01742  0.02488  -0.02021  -0.01894  -0.799  -0.4245
6.399e+09  0.1737  0.8214  0.01255  0.01297  -0.0262  0.01334  -0.9512  -0.1429
6.4e+09  0.4379  0.7407  0.007274  -0.006079  0.01451  -0.007892  -0.8688  0.1894
6.401e+09  0.649  0.5296  0.01934  0.05884  0.004181  -0.03274  -0.8178  0.4449
6.402e+09  0.8032  0.2639  0.01464  0.01889  0.001002  -0.06272  -0.5427  0.7486
6.404e+09  0.9033  -0.04459  -0.01275  0.05992  -0.0157  -0.01486  -0.3098  0.8337
6.405e+09  0.7406  -0.3805  0.008356  0.02614  -0.02583  -0.03536  0.05674  0.9418
6.406e+09  0.6523  -0.6126  0.02265  0.01459  -0.03031  -0.04181  0.3309  0.8948
6.408e+09  0.3537  -0.7488  -0.01543  0.0619  -0.03085  0.0005973  0.576  0.702
6.409e+09  0.02372  -0.8377  -0.02104  0.01131  -0.0269  -0.002341  0.7554  0.4843
6.41e+09  -0.2621  -0.8082  0.04516  0.01778  0.04408  0.01353  0.892  0.1829
6.411e+09  -0.5822  -0.6384  -0.01967  -0.004487  0.006982  -0.0137  0.8682  -0.138
6.412e+09  -0.7829  -0.4127  -0.006983  -0.01139  0.01502  -0.006098  0.7863  -0.4251
6.414e+09  -0.8622  -0.1102  0.03074  -0.0007927  0.03342  0.02145  0.6145  -0.6982
6.415e+09  -0.8607  0.1918  -0.004907  0.001274  0.02425  0.02526  0.3467  -0.848
6.416e+09  -0.7131  0.4557  0.02411  -0.02757  -0.008957  -0.01115  0.003537  -0.893
6.418e+09  -0.4779  0.7051  -0.0314  -0.02221  -0.008797  0.006068  -0.2544  -0.8776
6.419e+09  -0.1899  0.8914  0.05702  0.01235  -0.02536  0.01664  -0.5417  -0.6546
6.42e+09  0.1069  0.887  0.007768  -0.02107  -0.02223  0.02698  -0.7106  -0.4979
6.421e+09  0.4168  0.7515  0.04007  -0.01841  0.03754  0.001712  -0.8972  -0.1811
6.422e+09  0.6814  0.5363  0.002556  -0.0339  -0.05207  -0.02931  -0.8759  0.1113
6.424e+09  0.8623  0.2175  -0.05406  -0.02179  0.0202  0.009409  -0.7804  0.4137
6.425e+09  0.8415  -0.1172  -0.05874  0.02806  0.02057  -0.02087  -0.572  0.6358
6.426e+09  0.7711  -0.3611  -0.01378  0.005745  -0.0221  -0.07416  -0.3275  0.8469
6.428e+09  0.5291  -0.6576  0.04399  -0.02683  0.01127  -0.03435  -0.02832  0.8543
6.429e+09  0.2792  -0.7776  0.03968  0.02869  0.0643  -0.03043  0.2499  0.8449
6.43e+09  -0.01334  -0.8377  0.01664  -0.00155  -0.01754  -0.0351  0.4894  0.6506
6.431e+09  -0.3225  -0.7526  0.0003584  -0.005607  0.006976  0.02723  0.7281  0.4767
6.432e+09  -0.5836  -0.5875  -0.01717  0.007098  -0.01437  0.01143  0.814  0.2336
6.434e+09  -0.7329  -0.3809  -0.03592  -0.004564  0.03164  -0.04397  0.8504  -0.1383
6.435e+09  -0.8488  -0.05606  -0.005966  -0.01197  0.03543  0.06455  0.736  -0.3888
6.436e+09  -0.7908  0.2855  0.01718  0.01782  -0.004338  0.006103  0.5845  -0.6118
6.438e+09  -0.6805  0.58  0.02442  -0.01521  -0.03697  0.01622  0.3697  -0.7752
6.439e+09  -0.3726  0.7576  -0.01192  0.0002415  -0.0106  -0.004333  0.06407  -0.8577
6.44e+09  -0.02985  0.8652  0.02771  -0.02356  -0.0538  0.04269  -0.2226  -0.7834
6.441e+09  0.1685  0.8227  -0.0016  -0.009273  0.01607  0.02101  -0.5036  -0.6481
6.442e+09  0.5248  0.7194  -0.007029  -0.02754  -0.01843  0.009757  -0.6775  -0.5156
6.444e+09  0.7234  0.4419  0.01895  -0.0139  0.00109  -0.01664  -0.829  -0.2275
6.445e+09  0.8636  0.1668  0.02949  -0.004366  -0.02263  -0.06175  -0.8829  0.05537
6.446e+09  0.8554  -0.1289  -0.001282  -0.03763  0.0311  -0.007516  -0.7217  0.4127
6.448e+09  0.7057  -0.5226  -0.02046  0.072  0.02556  0.001239  -0.6187  0.5688
6.449e+09  0.5108  -0.7076  -0.00173  -0.0009102  0.04667  0.02062  -0.3024  0.7844
6.45e+09  0.2107  -0.8  -0.01747  0.005556  -0.01268  0.001935  -0.08622  0.8352
6.451e+09  -0.07597  -0.7971  -0.005701  -0.001382  0.01375  -0.0177  0.2618  0.813
6.452e+09  -0.426  -0.7591  -0.009504  0.0004104  0.01887  0.003775  0.4741  0.7201
6.454e+09  -0.6484  -0.5411  -0.0198  0.03747  -0.05815  0.007415  0.7585  0.4907
6.455e+09  -0.7725  -0.3151  0.01381  0.006848  0.009912  0.03562  0.7899  0.1421
6.456e+09  -0.8718  0.07596  0.03499  -0.006389  0.06391  -0.029  0.8049  -0.02649
6.458e+09  -0.7072  0.378  -0.003733  0.001261  -5.036e-05  0.0009575  0.7377  -0.3021
6.459e+09  -0.5273  0.6345  0.0279  0.008193  -0.03967  0.04386  0.5748  -0.5929
6.46e+09  -0.3832  0.7149  0.02021  -0.002322  0.0397  0.01798  0.3456  -0.7446
6.461e+09  -0.006219  0.8197  0.01008  -0.002528  -0.03235  0.05197  0.08446  -0.8438
6.462e+09  0.2488  0.7942  -0.02944  -0.02945  -0.03593  0.008775  -0.2014  -0.8
6.464e+09  0.5217  0.5605  -0.02893  -0.01162  -0.0004702  0.01671  -0.4496  -0.6491
6.465e+09  0.6822  0.3951  -0.03002  -0.00431  -0.006807  -0.04897  -0.6867  -0.4733
6.466e+09  0.8834  0.0823  0.01867  0.009045  -0.02183  -0.02224  -0.7454  -0.1882
6.468e+09  0.7782  -0.2687  0.02619  0.03112  -0.0117  -0.039  -0.8343  0.06926
6.469e+09  0.6493  -0.4546  0.02312  -0.01042  0.02822  -0.06231  -0.7077  0.3426
6.47e+09  0.4597  -0.6661  -0.02784  -0.002715  -0.007013  -0.005694  -0.6158  0.5569
6.471e+09  0.1445  -0.761  0.01955  -0.02283  0.0605  -0.006427  -0.325  0.7334
6.472e+09  -0.1078  -0.8259  -0.0433  -0.005889  0.005843  -0.03968  -0.06434  0.8358
6.474e+09  -0.4157  -0.6473  0.007365  -0.01944  0.02634  0.01489  0.2028  0.7519
6.475e+09  -0.6211  -0.4561  -0.01049  0.03097  -0.007835  0.01751  0.4578  0.6761
6.476e+09  -0.7507  -0.2203  -0.01802  -0.01418  -0.009066  0.001737  0.6415  0.4373
6.478e+09  -0.7693  0.07555  -0.01435  0.009885  0.0398  -0.01171  0.7603  0.1865
6.479e+09  -0.7269  0.3595  0.002123  -0.01146  0.04868  0.005574  0.7715  -0.1251
6.48e+09  -0.5126  0.5963  0.01233  -0.01327  -0.02328  -0.03847  0.707  -0.3155
6.481e+09  -0.2789  0.7202  0.02309  0.01085  0.01872  0.04073  0.5793  -0.5403
6.482e+09  0.06406  0.7595  0.01997  -0.0104  -0.01684  -0.01221  0.3367  -0.7603
6.484e+09  0.2983  0.7197  -0.02962  0.00291  0.05605  -0.001301  0.11  -0.7879
6.485e+09  0.5157  0.558  -0.0235  -0.0104  0.01456  -0.006163  -0.2366  -0.7134
6.486e+09  0.6532  0.3806  0.01415  0.01822  -0.001675  -0.01465  -0.4585  -0.6239
6.488e+09  0.7481  0.104  -0.02699  0.005037  0.01217  -0.01306  -0.688  -0.4459
6.489e+09  0.7281  -0.2088  -0.01696  -0.02878  0.01739  -0.0006458  -0.7723  -0.1681
6.49e+09  0.6183  -0.4314  -0.0141  -0.02754  0.03118  -0.04119  -0.8057  0.05513
6.491e+09  0.4094  -0.6362  0.005096  -0.01228  -0.02255  -0.01605  -0.6502  0.3662
6.492e+09  0.1644  -0.7642  0.01082  0.015  0.007983  0.01706  -0.5077  0.5839
6.494e+09  -0.09926  -0.7714  -0.009874  -0.01351  0.01211  0.03866  -0.2859  0.7446
6.495e+09  -0.3349  -0.6699  -0.01312  0.02276  0.007052  0.02577  -0.01972  0.7281
6.496e+09  -0.5996  -0.4948  -0.02932  0.005972  -0.00994  -0.004869  0.2522  0.7315
6.498e+09  -0.7126  -0.2783  -0.006724  -0.02318  0.005424  -0.03017  0.4903  0.5952
6.499e+09  -0.7448  0.002033  -0.0236  -0.02236  0.00784  -0.05887  0.6122  0.4082
6.5e+09  -0.7314  0.2855  -0.00322  0.01975  -0.01028  0.00455  0.735  0.136
6.501e+09  -0.571  0.5252  -0.01257  0.009026  -0.008631  -0.03077  0.7964  -0.1139
6.502e+09  -0.3453  0.6348  0.01713  -0.001183  0.004336  0.004764  0.6836  -0.3561
6.504e+09  -0.1071  0.7392  -0.03183  -0.01663  -0.03419  0.0133  0.5006  -0.5529
6.505e+09  0.2176  0.7515  -0.06383  0.01533  -0.02334  0.02267  0.2955  -0.7382
6.506e+09  0.4164  0.6025  -0.006035  0.02844  -0.0402  0.02346  -0.004741  -0.7309
6.508e+09  0.6103  0.4094  -0.003956  -0.001971  -0.01203  -0.02162  -0.2479  -0.7662
6.509e+09  0.7733  0.2198  -0.02459  0.0008407  -0.00081  -0.04894  -0.4573  -0.6203
6.51e+09  0.7709  -0.05858  0.004235  0.02625  0.01341  -0.02261  -0.6244  -0.366
6.511e+09  0.7028  -0.3713  0.01009  0.007194  -0.01304  -0.01738  -0.7291  -0.1149
6.512e+09  0.5188  -0.5993  0.01022  0.004194  -0.02454  0.0278  -0.7612  0.1466
6.514e+09  0.2852  -0.7426  -0.01719  0.01457  -0.03239  -0.0309  -0.6506  0.3583
6.515e+09  0.05956  -0.7359  -0.03667  0.01287  -0.06576  0.0255  -0.4983  0.5826
6.516e+09  -0.2827  -0.7539  -0.01625  -0.0382  -0.01707  -0.00602  -0.2539  0.7269
6.518e+09  -0.4632  -0.6034  -0.01325  -0.007769  -0.002344  0.0124  0.02517  0.7483
6.519e+09  -0.6296  -0.3916  -0.005166  0.002211  0.03876  -0.04286  0.2922  0.6685
6.52e+09  -0.7575  -0.06669  -0.002537  0.009956  -0.03479  -0.04146  0.5246  0.5365
6.521e+09  -0.7638  0.1391  0.001501  0.007302  -0.02426  0.004076  0.6763  0.3353
6.522e+09  -0.6286  0.4048  -0.04048  -0.01282  -0.004405  -0.06408  0.7493  0.08591
6.524e+09  -0.4905  0.6505  -0.007608  -0.001779  0.02983  -0.03626  0.7197  -0.1529
6.525e+09  -0.1628  0.7736  0.01846  0.006297  0.02257  0.02667  0.6156  -0.4063
6.526e+09  0.08397  0.7959  0.01247  0.01964  0.01307  -0.0001498  0.445  -0.602
6.528e+09  0.361  0.6936  -0.0358  -0.02167  -0.03374  -0.01961  0.1851  -0.7268
6.529e+09  0.5546  0.5024  -0.01473  -0.0003959  0.04792  -0.01294  -0.06327  -0.7158
6.53e+09  0.6975  0.296  0.04001  -0.01689  0.01  0.0379  -0.3361  -0.599
6.531e+09  0.8042  -0.01788  -0.02708  -0.02157  -0.02277  0.03442  -0.4622  -0.4684
6.532e+09  0.7652  -0.2741  0.01363  -0.01347  0.02538  0.02072  -0.5747  -0.2874
6.534e+09  0.6022  -0.4959  0.03093  0.03093  0.009791  0.02086  -0.6531  -0.09953
6.535e+09  0.4457  -0.6919  0.002102  -0.005211  -0.002087  0.01021  -0.6023  0.1067
6.536e+09  0.1287  -0.8284  0.02651  0.01099  -0.02893  0.0254  -0.5764  0.2759
6.538e+09  -0.1585  -0.8  0.00141  -0.000765  0.06465  0.01614  -0.431  0.4887
6.539e+09  -0.395  -0.6771  -0.01207  0.01079  -0.0006066  1.669e-05  -0.2744  0.6187
6.54e+09  -0.6492  -0.5629  -0.0202  0.05226  0.01252  0.04694  -0.08536  0.6842
6.541e+09  -0.7505  -0.2158  -0.01772  0.005925  0.03399  -0.01734  0.166  0.6655
6.542e+09  -0.8199  0.05491  0.01002  0.01969  0.03357  -0.01316  0.3824  0.5694
6.544e+09  -0.7595  0.3519  0.006879  0.00833  -0.0744  -0.04732  0.5875  0.3954
6.545e+09  -0.546  0.5718  0.02203  0.04186  0.003505  -0.02139  0.707  0.1293
6.546e+09  -0.3822  0.8478  -0.03336  -0.003631  0.005067  0.03282  0.7443  -0.1101
6.548e+09  -0.01847  0.788  -0.04712  -0.0213  0.0244  -0.03958  0.673  -0.3008
6.549e+09  0.247  0.796  -0.04041  -0.009318  -0.002102  -0.05334  0.5339  -0.5387
6.55e+09  0.4791  0.6777  0.002536  -0.04021  -0.07616  0.02007  0.2752  -0.6765
