# Hz S RI R 50
6.25e+09  -0.3004  0.7579  -0.01666  -0.02007  -0.02189  0.01223  0.1268  0.4707
6.251e+09  0.02283  0.9196  0.009244  -0.02603  -0.04774  -0.03062  0.3559  0.3854
6.252e+09  0.2295  0.7766  -0.01037  0.00649  0.005638  -0.02775  0.5158  0.24
6.254e+09  0.5708  0.7003  -0.004677  -0.008009  -0.0149  -0.06586  0.6009  0.03031
6.255e+09  0.7359  0.4445  -0.005791  0.004364  0.01081  0.04396  0.5664  -0.1919
6.256e+09  0.8419  0.1401  -0.004165  0.02113  0.03027  -0.04113  0.4756  -0.4268
6.258e+09  0.8166  -0.1556  0.03067  -0.0235  0.00679  0.03366  0.2773  -0.6216
6.259e+09  0.7871  -0.4456  0.002924  0.0179  0.01418  0.003804  0.04523  -0.7075
6.26e+09  0.5409  -0.641  -0.003361  0.02863  0.04688  -0.02213  -0.2374  -0.6564
6.261e+09  0.3121  -0.7788  0.01908  -0.008323  0.01895  0.04706  -0.4247  -0.5317
6.262e+09  0.01727  -0.8697  0.0002273  0.03496  0.04304  0.02371  -0.6307  -0.3729
6.264e+09  -0.2977  -0.7803  0.01601  -0.01831  -0.008539  -0.02525  -0.7018  -0.09992
6.265e+09  -0.6139  -0.6028  0.001506  0.01047  0.08737  -0.02713  -0.6937  0.1342
6.266e+09  -0.727  -0.4262  -0.01241  -0.03739  -0.05542  0.01311  -0.6185  0.3967
6.268e+09  -0.8012  -0.1216  -0.02771  -0.01706  -0.01995  0.009733  -0.4052  0.6104
6.269e+09  -0.8177  0.1959  -0.004247  -0.02375  0.04832  0.03944  -0.1996  0.7229
6.27e+09  -0.7132  0.4262  -0.01323  -0.01189  -0.01077  -0.03328  0.1025  0.7669
6.271e+09  -0.5022  0.6028  0.03079  -0.008031  -0.01395  0.01249  0.329  0.6777
6.272e+09  -0.315  0.801  -0.03028  0.01057  0.07712  -0.007816  0.524  0.5547
6.274e+09  0.02077  0.8441  0.04055  -0.01457  -0.0002321  0.03824  0.6888  0.3213
6.275e+09  0.3328  0.7908  -0.01849  0.002037  -0.01035  0.01181  0.7697  0.06893
6.276e+09  0.5816  0.6801  0.004933  0.03794  -0.0278  -0.09871  0.7548  -0.2052
6.278e+09  0.7865  0.3517  0.009083  -0.006245  -0.02379  0.0312  0.6009  -0.451
6.279e+09  0.7453  0.1481  0.003307  0.01954  0.00477  -0.006571  0.4296  -0.6712
6.28e+09  0.813  -0.1503  0.002724  -0.009199  0.001011  -0.07847  0.1608  -0.7731
6.281e+09  0.7383  -0.4271  -0.02197  0.007243  -0.04023  0.01632  -0.1207  -0.7729
6.282e+09  0.4602  -0.6562  -0.01114  -0.01432  -0.01078  0.003539  -0.3585  -0.7242
6.284e+09  0.2619  -0.8331  -0.008324  0.02864  -0.001691  -0.004729  -0.5989  -0.5371
6.285e+09  -0.04126  -0.8634  0.01037  -0.009269  -0.0004618  -0.01115  -0.756  -0.2997
6.286e+09  -0.3225  -0.8069  0.02558  -0.0004976  0.08935  -0.01117  -0.7815  -0.00951
6.288e+09  -0.5605  -0.6281  0.03797  -0.001329  -0.04074  -0.007323  -0.7545  0.2656
6.289e+09  -0.7423  -0.3845  -0.01491  -0.02348  -0.01528  -0.01785  -0.6144  0.5139
6.29e+09  -0.8644  -0.104  -0.004958  -0.008105  -0.01548  0.03667  -0.409  0.726
6.291e+09  -0.8175  0.2185  -0.02253  0.008087  0.04023  -0.03179  -0.144  0.805
6.292e+09  -0.6891  0.4432  0.01582  0.001485  0.01701  -0.03523  0.1496  0.8289
6.294e+09  -0.5243  0.6977  -0.01151  0.003911  0.03348  -0.05403  0.3906  0.7272
6.295e+09  -0.2382  0.8559  -0.004249  -0.0008571  0.01114  0.02924  0.6268  0.5681
6.296e+09  0.1036  0.838  -0.008392  0.02343  0.01218  0.004896  0.7784  0.2784
6.298e+09  0.3218  0.7501  0.02129  0.001774  0.01394  0.04708  0.8298  -0.006002
6.299e+09  0.525  0.5865  -0.003406  -0.03723  -0.03011  0.04143  0.7912  -0.2553
6.3e+09  0.787  0.3818  0.01603  -0.01123  -0.0137  -0.01598  0.6289  -0.5257
6.301e+09  0.7478  0.1117  0.00967  -0.006879  -0.01178  -0.007829  0.4401  -0.7685
6.302e+09  0.7988  -0.2045  0.002359  -0.03856  0.03636  0.001607  0.1328  -0.8539
6.304e+09  0.6477  -0.4871  -0.009605  0.00529  -0.03678  0.07134  -0.1839  -0.8093
6.305e+09  0.455  -0.6474  0.0006201  -0.0008111  -0.03873  -0.04566  -0.4039  -0.7554
6.306e+09  0.2076  -0.8417  -0.02062  0.003914  0.03439  0.01693  -0.6677  -0.5613
6.308e+09  -0.131  -0.7892  0.01756  0.01204  -0.005007  0.04073  -0.8021  -0.2841
6.309e+09  -0.3379  -0.7982  -0.01016  -0.04665  -0.0009994  -0.02149  -0.8553  0.002569
6.31e+09  -0.6266  -0.6016  0.009204  -0.0006017  -0.01324  -0.0003541  -0.8339  0.2984
6.311e+09  -0.7305  -0.2861  -0.01131  -0.02663  -0.004957  0.00236  -0.7022  0.5407
6.312e+09  -0.8642  -0.05167  -0.007122  0.02167  0.01859  0.0243  -0.4647  0.7719
6.314e+09  -0.7818  0.2697  0.01108  0.01364  -0.006876  -0.00702  -0.1715  0.8484
6.315e+09  -0.6473  0.496  0.01365  -0.01955  0.03482  0.005169  0.1519  0.8742
6.316e+09  -0.4874  0.7467  -0.01312  0.0239  -0.04828  -0.008038  0.4163  0.7855
6.318e+09  -0.1622  0.8196  -0.02068  -0.03915  -0.06257  -0.02276  0.6614  0.5933
6.319e+09  0.1386  0.7821  -0.00306  -0.009262  0.03493  0.01038  0.8151  0.3158
6.32e+09  0.4701  0.7396  -0.03766  0.02739  -0.02089  0.001846  0.8788  0.02303
6.321e+09  0.6829  0.5769  -0.02316  -0.005021  -0.06733  -0.02084  0.8425  -0.3223
6.322e+09  0.8357  0.2783  -0.01373  -0.001602  -0.04635  -0.01449  0.7139  -0.5654
6.324e+09  0.8336  -0.0682  -0.004707  0.0147  -0.01787  -0.002212  0.4852  -0.7525
6.325e+09  0.8393  -0.2417  -0.02753  -0.0003592  0.02461  -0.003244  0.1305  -0.8645
6.326e+09  0.6381  -0.5741  0.01131  0.007181  0.03573  -0.01601  -0.14  -0.8689
6.328e+09  0.4306  -0.8018  0.005036  0.02308  0.0195  0.03914  -0.441  -0.7878
6.329e+09  0.1191  -0.832  -0.01783  -0.02367  -0.01077  -0.01659  -0.66  -0.6067
6.33e+09  -0.1969  -0.8889  0.007695  0.006965  0.01178  0.004143  -0.8226  -0.3099
6.331e+09  -0.4692  -0.7435  -0.006692  0.001164  -0.002497  -0.01379  -0.9059  0.007387
6.332e+09  -0.7056  -0.5754  -0.0003048  -0.01939  0.0137  -0.03417  -0.8586  0.2765
6.334e+09  -0.8404  -0.2215  0.04621  0.009598  0.000887  -0.03285  -0.7066  0.6084
6.335e+09  -0.8767  0.03624  0.001134  0.03049  0.05958  -0.03119  -0.4962  0.7467
6.336e+09  -0.7965  0.3775  -0.01091  0.02496  -0.03371  -0.02327  -0.2109  0.8772
6.338e+09  -0.6396  0.6427  0.02368  0.01212  -0.004131  0.02723  0.1295  0.9165
6.339e+09  -0.3469  0.8167  -0.009981  0.01085  -0.02362  -0.005367  0.4511  0.8243
6.34e+09  -0.07593  0.8562  0.01236  0.009055  -0.03231  0.03776  0.6833  0.6223
6.341e+09  0.2556  0.8985  -0.02903  0.00628  -0.002908  0.001013  0.8899  0.3455
6.342e+09  0.5557  0.7056  -0.007258  -0.0143  0.008407  0.006053  0.92  0.04588
6.344e+09  0.756  0.4449  0.02519  -0.001445  -0.01155  0.02826  0.9031  -0.2817
6.345e+09  0.864  0.1888  -0.026  -0.05165  0.01501  0.02444  0.7544  -0.5302
6.346e+09  0.893  -0.0782  -0.001751  0.005302  -0.03084  -0.04514  0.5238  -0.8124
6.348e+09  0.7715  -0.4094  0.01173  -0.0106  0.003705  0.03637  0.1975  -0.9174
6.349e+09  0.5805  -0.6628  -0.02549  0.0003575  -0.004864  0.002612  -0.1281  -0.9045
6.35e+09  0.2914  -0.8332  -0.003942  -0.02565  0.02225  0.01423  -0.4039  -0.8393
6.351e+09  0.02659  -0.8758  0.01905  -0.006361  -0.01201  -0.005969  -0.7102  -0.6362
6.352e+09  -0.2597  -0.8288  0.008008  0.01059  0.0316  -0.005941  -0.8526  -0.3576
6.354e+09  -0.5809  -0.6939  -0.0009925  -0.008177  -0.008932  0.0003987  -0.9309  -0.09008
6.355e+09  -0.8203  -0.4183  -0.04726  0.03137  -0.01582  0.02407  -0.9251  0.2717
6.356e+09  -0.8363  -0.1687  -0.02314  0.01208  -0.02533  -0.03426  -0.7756  0.5341
6.358e+09  -0.8229  0.2216  0.007917  0.02055  0.003873  -0.0005043  -0.5393  0.7753
6.359e+09  -0.769  0.4633  -0.007669  0.00595  -0.03466  0.004978  -0.2537  0.943
6.36e+09  -0.5313  0.6918  -0.008416  0.004306  0.03604  0.0192  0.105  0.9649
6.361e+09  -0.2897  0.8448  0.0295  0.03199  -0.03018  -0.01161  0.3789  0.8902
6.362e+09  0.02085  0.9451  0.04104  0.009828  -0.07035  -0.02346  0.6666  0.6288
6.364e+09  0.3634  0.7944  -0.007393  -0.03667  0.03669  -0.03363  0.8327  0.4072
6.365e+09  0.6361  0.6392  -0.003155  -0.02348  -0.0211  0.04113  0.9336  0.06184
6.366e+09  0.8291  0.396  0.01512  0.01591  -0.002213  0.01392  0.9235  -0.2723
6.368e+09  0.8877  0.1218  -0.003464  -0.002362  -0.00759  0.01018  0.7793  -0.527
6.369e+09  0.8723  -0.1622  -0.01083  0.02394  0.02856  0.02484  0.5537  -0.806
6.37e+09  0.7551  -0.5006  0.02682  0.004057  0.05202  -0.01422  0.2208  -0.943
6.371e+09  0.4717  -0.6869  -0.01653  0.003522  0.006743  0.02818  -0.09303  -0.9156
6.372e+09  0.2566  -0.8513  -0.01738  0.0129  0.02327  -0.01135  -0.4234  -0.8236
6.374e+09  -0.105  -0.8858  0.002373  0.02626  -0.01731  0.04844  -0.6769  -0.699
6.375e+09  -0.3756  -0.7703  0.004476  -0.01162  -0.02563  -0.01807  -0.8599  -0.3768
6.376e+09  -0.6741  -0.5984  -0.03847  0.007192  0.01655  -0.03139  -0.9203  -0.1112
6.378e+09  -0.8117  -0.3515  0.02556  -0.01935  0.00847  -0.009294  -0.9318  0.2363
6.379e+09  -0.8736  -0.0553  -0.006405  0.009638  0.007631  0.03078  -0.8099  0.5375
6.38e+09  -0.8308  0.2565  -0.01968  -0.002305  -0.03051  -0.01833  -0.5648  0.7543
6.381e+09  -0.7255  0.5424  0.001494  -0.003503  0.009342  0.028  -0.3017  0.9241
6.382e+09  -0.4728  0.7324  0.02831  0.03399  0.04353  -0.04204  0.06182  0.9489
6.384e+09  -0.1775  0.8417  0.0001285  0.006722  -0.08049  -0.02669  0.4  0.8547
6.385e+09  0.1202  0.8807  -0.0074  0.04673  -0.001626  0.01149  0.6243  0.701
6.386e+09  0.3794  0.7796  0.0464  0.01621  0.02262  -0.04007  0.8264  0.4459
6.388e+09  0.7452  0.6338  -0.004382  0.01432  0.01007  -0.02519  0.9371  0.1355
6.389e+09  0.8012  0.2786  0.01529  -0.01692  -0.003353  0.003559  0.9284  -0.2156
6.39e+09  0.9377  -0.01474  0.01056  0.03696  0.01224  0.02869  0.7856  -0.5206
6.391e+09  0.8894  -0.3191  0.04677  0.003856  0.003581  -0.006845  0.5602  -0.7036
6.392e+09  0.6637  -0.573  0.02124  0.02105  -0.03721  0.03398  0.2918  -0.875
6.394e+09  0.4182  -0.7811  -0.0206  -0.005178  0.01359  0.0209  -0.04787  -0.9538
6.395e+09  0.136  -0.8618  -0.01034  0.0448  -0.03638  -0.0003456  -0.3498  -0.8387
6.396e+09  -0.2139  -0.8929  0.003724  -0.04312  -0.0333  0.02812  -0.579  -0.6817
6.398e+09  -0.4589  -0.7626  -0.003444  0.006488  -0.00879  0.003733  -0.8241  -0.4737
6.399e+09  -0.7318  -0.5272  -0.007507  -0.007742  -0.04595  -0.03271  -0.91  -0.2019
6.4e+09  -0.8479  -0.315  -0.01569  0.0001936  0.03095  -0.05364  -0.9095  0.2002
6.401e+09  -0.8719  -0.03862  -0.000307  -0.03378  -0.03456  0.01422  -0.7797  0.486
6.402e+09  -0.8408  0.3347  0.04562  0.01164  -0.02273  -0.02043  -0.6094  0.6957
6.404e+09  -0.6644  0.5321  -0.007576  0.0188  -0.02741  -0.01892  -0.3259  0.8678
6.405e+09  -0.4416  0.8208  0.01339  0.05465  0.06782  0.02454  0.01507  0.9137
6.406e+09  -0.09553  0.9157  -0.02286  -0.006835  -0.0004084  -0.002805  0.3285  0.8924
6.408e+09  0.2064  0.8916  0.01074  0.06568  0.0691  -0.006074  0.5581  0.7123
6.409e+09  0.4745  0.7641  -0.0243  0.04716  0.004737  0.02317  0.7869  0.4597
6.41e+09  0.6839  0.4896  -0.02127  0.02723  -0.03111  -0.03184  0.8516  0.1539
6.411e+09  0.8414  0.289  -0.00454  0.007528  0.003732  0.02043  0.868  -0.08856
6.412e+09  0.874  -0.06487  -0.01621  0.04607  0.05995  0.008808  0.7432  -0.4563
6.414e+09  0.8094  -0.3766  0.01683  0.01297  8.679e-05  0.03669  0.6227  -0.6428
6.415e+09  0.6494  -0.5888  0.01269  -0.006233  0.04342  0.002135  0.3179  -0.8433
6.416e+09  0.4728  -0.8086  -0.002111  -0.01254  0.0349  0.01314  0.007641  -0.8728
6.418e+09  0.1409  -0.8897  -0.0201  0.02198  0.04659  -0.01481  -0.2709  -0.8353
6.419e+09  -0.2327  -0.8828  0.01109  -0.01585  0.005839  -0.01967  -0.5563  -0.7153
6.42e+09  -0.5158  -0.7219  -0.02042  -0.0278  -0.02873  0.006505  -0.7369  -0.5083
6.421e+09  -0.7067  -0.4812  -0.04441  0.007646  -0.02768  -0.0182  -0.876  -0.2397
6.422e+09  -0.8395  -0.2417  0.01885  0.0235  0.0349  -0.03028  -0.8893  0.1074
6.424e+09  -0.9523  0.09369  -0.03476  -0.03842  0.04839  0.01851  -0.7773  0.4113
6.425e+09  -0.8488  0.3613  -0.01381  -0.0149  0.03258  -0.06287  -0.5491  0.6636
6.426e+09  -0.6417  0.6086  -0.007183  0.0059  0.009699  0.002175  -0.3779  0.8185
6.428e+09  -0.3858  0.806  -0.02087  0.0002968  -0.01603  0.03802  -0.03645  0.8381
6.429e+09  -0.1407  0.8834  0.0118  0.01558  0.007647  0.02035  0.2301  0.8419
6.43e+09  0.2763  0.9092  0.009795  -0.03097  0.02559  -0.0154  0.5073  0.6968
6.431e+09  0.5184  0.7404  -0.01557  0.02431  -0.01109  0.03388  0.7253  0.4783
6.432e+09  0.6958  0.533  0.04997  -0.01961  0.03294  -0.01251  0.8469  0.2016
6.434e+09  0.8434  0.2231  -0.01093  -0.03558  0.03796  -0.004789  0.8367  -0.07485
6.435e+09  0.875  -0.04306  -0.01514  -0.01658  0.0002476  -0.02078  0.7658  -0.3567
6.436e+09  0.8045  -0.4163  -0.01206  0.03289  -0.007575  -0.07196  0.6036  -0.6379
6.438e+09  0.6185  -0.6379  -0.007822  0.02855  0.02562  0.1108  0.3491  -0.8
6.439e+09  0.3689  -0.8427  -0.004721  0.01841  -0.003068  0.007661  0.03935  -0.8551
6.44e+09  0.1152  -0.8583  0.006696  -0.000486  -0.007783  0.04408  -0.2495  -0.8749
6.441e+09  -0.2658  -0.8649  0.01842  0.02927  -0.001043  -0.02048  -0.5045  -0.6823
6.442e+09  -0.502  -0.7563  0.007137  0.006419  0.0266  0.004791  -0.717  -0.5326
6.444e+09  -0.7244  -0.4723  0.01234  0.02988  -0.00914  0.02452  -0.82  -0.2033
6.445e+09  -0.8109  -0.2323  -0.02187  -0.01128  -0.001786  -0.005109  -0.8061  0.1495
6.446e+09  -0.8569  0.05089  0.003202  -0.03268  0.004508  -0.00933  -0.7806  0.335
6.448e+09  -0.8775  0.3821  -0.04201  -0.04266  -0.02177  -0.03057  -0.5919  0.595
6.449e+09  -0.6763  0.6618  0.009582  0.03188  -0.01384  0.004948  -0.3125  0.7732
6.45e+09  -0.4158  0.837  0.03228  0.03747  -0.001509  -0.04921  -0.04377  0.8526
6.451e+09  -0.08277  0.8969  0.02791  -0.00853  0.05666  -0.0007291  0.24  0.8104
6.452e+09  0.2922  0.8476  -0.02854  0.01953  -0.04819  0.004743  0.451  0.7092
6.454e+09  0.5019  0.7223  -0.02285  0.01173  0.01322  -0.04273  0.6663  0.4904
6.455e+09  0.7317  0.5271  0.006435  0.01088  0.001718  0.02718  0.8116  0.1836
6.456e+09  0.8801  0.2336  0.04867  0.01781  0.009612  -0.02024  0.8212  -0.08792
6.458e+09  0.8603  -0.06206  0.0005759  -0.02481  -0.004526  0.0003003  0.7049  -0.3188
6.459e+09  0.8097  -0.3781  0.02645  0.05063  0.02959  -0.02128  0.5636  -0.5847
6.46e+09  0.6011  -0.6033  0.005234  -0.01106  -0.03458  0.01192  0.3137  -0.6813
6.461e+09  0.3632  -0.8388  0.009299  0.05018  0.05598  -0.02083  0.1242  -0.8597
6.462e+09  0.1224  -0.8914  0.00117  0.01791  -0.006652  0.005944  -0.2249  -0.765
6.464e+09  -0.2564  -0.8938  0.02075  -0.02253  -0.0174  -0.001594  -0.4536  -0.6515
6.465e+09  -0.5393  -0.7411  0.01023  0.009694  0.03082  0.05878  -0.6578  -0.4554
6.466e+09  -0.7356  -0.5367  -0.01144  -0.02987  -0.04703  -0.02577  -0.7788  -0.2247
6.468e+09  -0.8718  -0.2554  -0.003473  0.002236  0.007768  0.001816  -0.7929  0.0229
6.469e+09  -0.9118  0.09935  0.03483  -0.02056  -0.04005  0.0392  -0.7218  0.3743
6.47e+09  -0.7909  0.4094  -0.02097  0.01886  0.02218  0.0171  -0.5858  0.6085
6.471e+09  -0.6403  0.6133  -0.02117  -0.02348  0.0314  -0.009325  -0.2869  0.6966
6.472e+09  -0.4257  0.7914  -0.008656  0.01207  -0.04449  -0.007049  -0.07631  0.7902
6.474e+09  -0.01308  0.9251  -0.01481  0.023  -0.04159  0.008656  0.2161  0.7405
6.475e+09  0.2677  0.9112  -0.01121  0.02564  -0.04337  0.002109  0.4322  0.6335
6.476e+09  0.5608  0.6837  -0.003626  0.009991  0.02555  0.04127  0.6678  0.4524
6.478e+09  0.775  0.4837  0.01884  -0.019  -0.000961  0.01909  0.7744  0.1889
6.479e+09  0.889  0.2039  0.003397  -0.0136  -0.007567  0.004944  0.7646  -0.06632
6.48e+09  0.9115  -0.1827  0.01346  -0.0103  -0.03248  -0.04504  0.7137  -0.3245
6.481e+09  0.846  -0.4703  0.004918  0.005246  0.04903  -0.05058  0.5216  -0.5724
6.482e+09  0.6113  -0.721  -0.01532  -0.01401  0.0143  -0.05088  0.3186  -0.7277
6.484e+09  0.3336  -0.8227  0.01222  0.002575  0.02093  0.009477  0.07146  -0.7817
6.485e+09  0.05644  -0.9617  -0.0232  0.01178  -0.01402  -0.0009852  -0.188  -0.7617
6.486e+09  -0.2965  -0.9227  0.006133  0.02633  0.03099  -0.05823  -0.4853  -0.6387
6.488e+09  -0.5643  -0.736  -0.02181  0.03028  0.03286  0.008332  -0.676  -0.4247
6.489e+09  -0.8539  -0.5239  0.004934  -0.03053  0.01282  0.01204  -0.7557  -0.2087
6.49e+09  -0.9321  -0.2188  0.02214  0.01754  0.003153  -0.008683  -0.7404  0.07523
6.491e+09  -0.9138  0.1804  -0.02067  0.01535  0.05487  0.01849  -0.6761  0.3424
6.492e+09  -0.8084  0.4266  -0.004151  -0.03285  0.003028  0.003581  -0.4998  0.5538
6.494e+09  -0.5762  0.78  5.702e-06  0.007159  -0.03753  -0.005381  -0.3154  0.7046
6.495e+09  -0.3014  0.8447  -0.0358  0.002682  -0.05312  -0.02623  -0.04663  0.7425
6.496e+09  -0.02467  0.9158  -0.03173  -0.003211  -0.01406  0.0217  0.228  0.7333
6.498e+09  0.367  0.9215  -0.04002  -0.00858  -0.03951  0.03045  0.4441  0.5554
6.499e+09  0.5781  0.6969  -0.005685  -0.02558  -0.06515  -0.01784  0.6477  0.3924
6.5e+09  0.866  0.4374  0.01023  -0.003566  0.0001525  0.04309  0.7328  0.1792
6.501e+09  0.9274  0.09111  0.01052  0.01438  0.02266  0.00836  0.7787  -0.1063
6.502e+09  0.9396  -0.1868  -0.01415  0.002491  -0.07013  0.008325  0.7053  -0.3307
6.504e+09  0.8295  -0.5406  0.0006549  0.00064  0.06544  -0.01257  0.4775  -0.5906
6.505e+09  0.5525  -0.7462  -0.03624  -0.007309  -0.003014  0.02016  0.2618  -0.6822
6.506e+09  0.2641  -0.8778  -0.007263  0.02273  0.005356  0.02973  0.05  -0.7626
6.508e+09  -0.07346  -0.927  -0.05049  -0.01859  0.05973  -0.0173  -0.2668  -0.7181
6.509e+09  -0.3943  -0.8954  0.01864  -0.001898  0.005553  0.04228  -0.4725  -0.5996
6.51e+09  -0.6799  -0.7225  0.02909  0.003251  -0.04641  0.0401  -0.6745  -0.3676
6.511e+09  -0.8241  -0.4272  -0.03267  0.01433  -0.008603  0.02029  -0.7181  -0.1599
6.512e+09  -0.9558  -0.08587  0.02143  -0.007201  0.05813  0.03925  -0.7452  0.128
6.514e+09  -0.882  0.2341  0.03811  0.04664  0.0384  -0.02937  -0.6365  0.3977
6.515e+09  -0.8039  0.5583  -0.0299  -0.00824  -0.002421  0.03857  -0.4832  0.5316
6.516e+09  -0.584  0.7909  0.02982  -0.02022  -0.03326  0.006245  -0.2412  0.7326
6.518e+09  -0.202  0.9176  -0.01718  -0.03358  -0.01368  0.02102  0.01971  0.7111
6.519e+09  0.1007  0.9766  -0.03268  0.0009602  -0.03198  -0.01337  0.2791  0.7103
6.52e+09  0.4412  0.8746  -2.28e-05  -0.003402  -0.03622  -0.01256  0.5009  0.5651
6.521e+09  0.683  0.705  -0.006767  0.03926  0.01723  0.01199  0.6572  0.3326
6.522e+09  0.8761  0.3976  -0.03677  -0.03429  -0.000883  -0.009371  0.7336  0.1319
6.524e+09  0.9433  0.01583  -0.0007069  0.0001878  0.02808  0.01432  0.7327  -0.1482
6.525e+09  0.9241  -0.282  -0.003534  -0.0007752  -0.03211  -0.03315  0.6008  -0.3711
6.526e+09  0.79  -0.6059  0.005635  0.008033  -0.0003505  0.002397  0.4536  -0.5974
6.528e+09  0.5228  -0.7967  -0.00454  -0.0115  0.01587  -0.009481  0.2074  -0.6694
6.529e+09  0.207  -0.9762  -0.0004907  0.01914  0.005794  0.01951  -0.01863  -0.6784
6.53e+09  -0.1323  -0.988  -0.009507  0.0002653  0.02865  -0.03925  -0.3163  -0.6087
6.531e+09  -0.4919  -0.8937  0.01651  0.02058  -0.03074  -0.05123  -0.4617  -0.4839
6.532e+09  -0.7555  -0.5999  -0.01409  -0.05423  0.03437  0.05158  -0.5702  -0.2836
6.534e+09  -0.9077  -0.3376  0.005219  0.04584  0.01228  0.03233  -0.6194  -0.08317
6.535e+09  -0.9566  0.0315  0.007934  -0.0166  -0.02891  0.002301  -0.6552  0.1131
6.536e+09  -0.8929  0.3527  -0.01696  -0.009341  0.01734  -0.007425  -0.5749  0.3065
6.538e+09  -0.6903  0.6372  -0.0005353  -0.004322  -0.006911  0.02462  -0.4486  0.4833
6.539e+09  -0.4728  0.8777  0.03596  0.01891  -0.005663  0.0381  -0.2713  0.5959
6.54e+09  -0.1375  0.9593  -0.007414  0.01098  -0.008262  0.02218  -0.06752  0.678
6.541e+09  0.2493  0.9139  -0.02958  -0.001145  0.008079  -0.01039  0.1725  0.6623
6.542e+09  0.5159  0.7974  0.0137  -0.01564  0.01645  0.07064  0.4029  0.5726
6.544e+09  0.7898  0.538  -0.01895  -0.006014  0.004155  0.03686  0.5952  0.4044
6.545e+09  0.9562  0.2263  0.02834  -0.01065  0.02017  0.04976  0.7158  0.1929
6.546e+09  0.9245  -0.09338  0.02582  0.01174  0.00609  0.02747  0.7073  -0.071
6.548e+09  0.8811  -0.3828  -0.01225  0.009505  0.01241  -0.0289  0.6386  -0.3401
6.549e+09  0.679  -0.7193  0.001551  0.01179  -0.05379  0.02936  0.5011  -0.5171
6.55e+09  0.3624  -0.8923  -0.006028  -0.0154  -0.04886  0.00663  0.2706  -0.686
