# Hz S RI R 50
6.25e+09  -0.1568  0.8375  0.01499  -0.006092  0.006346  -0.0549  0.1457  0.4879
6.251e+09  0.07711  0.8695  -0.02228  0.009923  0.0149  0.002293  0.373  0.401
6.252e+09  0.3391  0.8423  -0.01929  -0.005952  -0.0427  -0.01078  0.5244  0.2281
6.254e+09  0.5792  0.6779  -4.604e-05  -0.01236  0.004922  0.004994  0.569  0.002939
6.255e+09  0.8088  0.3249  0.01209  0.002602  0.01311  -0.0157  0.583  -0.236
6.256e+09  0.8622  0.104  0.00577  0.01221  0.03611  -0.007712  0.469  -0.4274
6.258e+09  0.8096  -0.2469  0.02109  -0.01507  0.026  0.06947  0.283  -0.5853
6.259e+09  0.7277  -0.5067  -0.001812  -0.02146  0.02228  -0.04308  0.01809  -0.6801
6.26e+09  0.4767  -0.6587  0.002847  -0.001852  -0.02125  0.0319  -0.2469  -0.638
6.261e+09  0.1957  -0.7714  0.02526  -0.03082  -0.03787  -0.0091  -0.4428  -0.5391
6.262e+09  -0.06783  -0.8149  0.01477  -0.001876  -0.02407  -0.03869  -0.6066  -0.3444
6.264e+09  -0.3865  -0.8027  0.004281  0.009347  0.001309  0.006297  -0.7302  -0.09526
6.265e+09  -0.6299  -0.5482  0.03736  0.00825  0.04813  -0.001204  -0.7196  0.1663
6.266e+09  -0.8212  -0.3319  0.01342  -0.001407  0.002736  -0.03014  -0.5998  0.3777
6.268e+09  -0.8812  -0.0511  -0.0002022  0.0166  -0.05586  0.01081  -0.4299  0.5943
6.269e+09  -0.7605  0.2568  0.02876  -0.01165  -0.0003525  -0.05932  -0.1971  0.7217
6.27e+09  -0.7318  0.4796  0.01498  0.01009  -0.005684  -0.003176  0.07689  0.7198
6.271e+09  -0.4799  0.7072  0.00245  0.007716  -0.003606  0.006369  0.2924  0.6954
6.272e+09  -0.2106  0.8375  0.006267  -0.006546  -0.008462  -0.009763  0.5232  0.5074
6.274e+09  0.1645  0.7832  -0.01246  -0.03907  -0.01223  -0.003353  0.7167  0.2713
6.275e+09  0.3808  0.7294  0.00255  0.002508  -0.007541  -0.007008  0.7461  0.03827
6.276e+09  0.6113  0.5397  0.003774  -0.009677  -0.009263  -0.04384  0.7785  -0.2147
6.278e+09  0.7243  0.33  0.001957  -0.003799  -0.004283  0.04724  0.6443  -0.4506
6.279e+09  0.8384  0.05878  0.008467  0.008223  -0.04799  -0.01213  0.4175  -0.6663
6.28e+09  0.7667  -0.2555  0.002362  -0.008453  0.0453  0.01271  0.1756  -0.7523
6.281e+09  0.6551  -0.495  -0.04209  0.01902  -0.005498  -0.03681  -0.09319  -0.7856
6.282e+09  0.4474  -0.7439  -0.004735  -0.009326  -0.009668  0.001198  -0.3564  -0.7063
6.284e+09  0.1594  -0.8314  0.00948  0.02971  0.04063  -0.001789  -0.5888  -0.5067
6.285e+09  -0.1663  -0.7939  0.00466  0.004272  0.01459  0.01963  -0.7196  -0.2783
6.286e+09  -0.3731  -0.7686  0.01131  -0.01321  -0.02228  -0.01617  -0.7794  -0.03471
6.288e+09  -0.6239  -0.5454  -0.009783  0.001802  0.01346  -0.005858  -0.7255  0.269
6.289e+09  -0.7614  -0.3025  -0.007138  0.01239  -0.03268  -0.06464  -0.6497  0.4917
6.29e+09  -0.8161  -0.03696  -0.01421  0.01046  -0.03242  -0.03537  -0.3898  0.7451
6.291e+09  -0.8038  0.2932  -0.03854  -0.01352  -0.01208  -0.01234  -0.1795  0.812
6.292e+09  -0.6617  0.5497  -0.00462  -0.0227  0.03868  -0.01254  0.131  0.7705
6.294e+09  -0.3923  0.7052  0.02063  0.02575  -0.01447  0.0397  0.396  0.7262
6.295e+09  -0.1421  0.8202  0.01033  -0.0106  -0.01418  -0.008006  0.652  0.5216
6.296e+09  0.1437  0.8172  -0.01449  0.01342  0.0005215  0.01916  0.7746  0.3
6.298e+09  0.4205  0.7052  -0.001227  -0.01165  0.02479  -0.001508  0.8064  0.0208
6.299e+09  0.7093  0.5252  0.01771  -0.009467  -0.02186  0.03217  0.8047  -0.2372
6.3e+09  0.779  0.2846  -0.0003353  -0.000303  0.005195  -0.05676  0.692  -0.5237
6.301e+09  0.8581  -0.001433  0.005171  -0.02028  0.04869  -0.02843  0.4165  -0.7132
6.302e+09  0.7701  -0.2988  0.005106  0.0342  0.006068  0.04099  0.1424  -0.8546
6.304e+09  0.5841  -0.539  0.002528  0.01516  -0.01822  -0.05331  -0.1515  -0.8022
6.305e+09  0.4028  -0.746  0.01364  -0.003421  -0.01925  0.05768  -0.3947  -0.764
6.306e+09  0.05262  -0.8475  0.002771  -0.0002683  0.00462  -0.02762  -0.6394  -0.5743
6.308e+09  -0.1673  -0.8254  0.01981  0.01872  -0.06013  0.03573  -0.794  -0.2775
6.309e+09  -0.4268  -0.6498  -0.004551  0.001751  -0.04225  0.03243  -0.8454  -0.008751
6.31e+09  -0.6648  -0.5153  0.01136  0.01277  0.02012  0.01817  -0.7976  0.2531
6.311e+09  -0.7676  -0.2394  -0.01958  0.03331  -0.03407  -0.05104  -0.6325  0.5601
6.312e+09  -0.8561  0.02638  -0.003636  -0.0233  -0.004223  -0.02579  -0.4313  0.7445
6.314e+09  -0.7519  0.3924  0.02416  0.02263  -0.01686  -0.01921  -0.1748  0.858
6.315e+09  -0.6071  0.5846  -0.02088  -0.01615  -0.006672  -0.01426  0.1587  0.8596
6.316e+09  -0.3046  0.8065  0.0213  0.003312  0.01704  -0.0194  0.4526  0.7738
6.318e+09  -0.0479  0.8753  0.002797  -0.002372  0.005651  0.02451  0.6964  0.5902
6.319e+09  0.2748  0.8288  0.02686  -0.008019  -0.01567  -0.02201  0.8469  0.3068
6.32e+09  0.5211  0.6951  -0.02212  -0.01491  0.0282  -0.002745  0.8929  -0.007739
6.321e+09  0.6322  0.5018  0.01013  -0.009088  -0.02296  -0.03312  0.854  -0.2926
6.322e+09  0.865  0.1869  -0.01277  -0.001775  -0.02577  0.05586  0.7053  -0.5834
6.324e+09  0.8949  -0.08108  -0.001194  -0.04463  -0.03088  0.002077  0.4306  -0.7764
6.325e+09  0.7348  -0.3544  -0.002589  0.02878  0.02902  -0.01612  0.1966  -0.8958
6.326e+09  0.5459  -0.6152  -0.006333  -0.009474  -0.02057  0.02963  -0.07645  -0.8618
6.328e+09  0.3928  -0.8532  -0.01  -0.02366  0.03093  -0.02302  -0.4528  -0.8194
6.329e+09  0.03121  -0.8699  0.00884  -0.01302  -0.03918  -0.01269  -0.7015  -0.5728
6.33e+09  -0.2946  -0.7926  -0.01059  -0.01363  0.008009  0.01682  -0.8571  -0.3296
6.331e+09  -0.6002  -0.6938  0.02993  0.03812  -0.0002933  0.002829  -0.9322  -0.03335
6.332e+09  -0.7749  -0.4849  0.001942  -0.0315  0.01478  0.01294  -0.858  0.3101
6.334e+09  -0.8438  -0.1225  0.01564  -0.001345  -0.009344  -0.02662  -0.7256  0.5696
6.335e+09  -0.8593  0.1906  0.02967  -0.004335  -0.004525  0.004076  -0.5011  0.7534
6.336e+09  -0.768  0.4262  0.01085  0.01601  0.03312  -0.004257  -0.1419  0.9229
6.338e+09  -0.603  0.6512  0.01637  -0.01835  -0.016  -0.04515  0.1077  0.9177
6.339e+09  -0.2775  0.8699  -0.005092  0.009168  0.007222  -0.02642  0.4812  0.8386
6.34e+09  0.01236  0.8926  0.003902  0.01395  -0.002941  -0.02003  0.6944  0.6331
6.341e+09  0.3563  0.7505  -0.02937  0.003115  0.00749  -0.01179  0.8566  0.3572
6.342e+09  0.613  0.6259  -0.02393  -0.009872  0.01524  -0.02727  0.9713  0.03786
6.344e+09  0.7954  0.3991  0.001077  0.02698  -0.01979  0.05329  0.9109  -0.301
6.345e+09  0.8727  0.08581  -0.01552  -0.01292  -0.01819  0.009397  0.7474  -0.6102
6.346e+09  0.8615  -0.2566  -0.01985  0.003613  -0.004237  5.851e-05  0.5104  -0.7669
6.348e+09  0.7422  -0.517  0.02667  -0.0007022  0.05298  -0.03044  0.229  -0.9083
6.349e+09  0.5387  -0.7635  0.02428  -0.005541  0.03672  -0.00665  -0.1103  -0.9421
6.35e+09  0.1992  -0.8571  0.04905  -0.003939  0.00994  -0.04184  -0.4432  -0.8811
6.351e+09  -0.09557  -0.8706  0.003608  0.03225  -0.008546  0.005695  -0.6953  -0.6503
6.352e+09  -0.3775  -0.7529  -0.00669  -0.03556  0.008083  -0.0229  -0.8861  -0.4061
6.354e+09  -0.6419  -0.5893  0.001188  0.01038  -0.01293  -0.0315  -0.9296  -0.07149
6.355e+09  -0.8826  -0.4083  0.01815  0.03189  0.009047  0.01414  -0.9189  0.2687
6.356e+09  -0.902  -0.0417  0.01442  0.02765  0.03709  0.015  -0.7368  0.5548
6.358e+09  -0.8586  0.3051  0.01091  0.005821  0.004715  0.006168  -0.4936  0.78
6.359e+09  -0.7049  0.5326  -0.01515  0.006836  0.01391  -0.07015  -0.2587  0.9368
6.36e+09  -0.4388  0.7569  0.0183  0.01135  0.02851  -0.06302  0.0952  0.9819
6.361e+09  -0.1426  0.886  0.001434  -0.007305  -0.01893  0.01216  0.4294  0.8721
6.362e+09  0.1622  0.885  -0.01634  0.004837  -0.006563  -0.01545  0.7035  0.6779
6.364e+09  0.4368  0.7682  0.02488  0.0131  0.03786  -0.01388  0.8587  0.3847
6.365e+09  0.7229  0.5683  -0.01973  0.01049  -0.01062  -0.04081  0.978  0.07246
6.366e+09  0.8322  0.3339  -0.03008  0.007727  0.01364  -0.02594  0.904  -0.2462
6.368e+09  0.9339  0.007267  0.02982  -0.008473  0.02199  -0.0007849  0.7748  -0.5517
6.369e+09  0.822  -0.2976  -0.02241  -0.002891  0.05139  -0.002734  0.5338  -0.7914
6.37e+09  0.6732  -0.5944  -0.0006549  -0.03113  0.01006  -0.02398  0.2164  -0.8963
6.371e+09  0.4196  -0.7853  -0.03619  -0.006393  0.0265  -0.003015  -0.09636  -0.9826
6.372e+09  0.1354  -0.8443  0.01851  -0.007523  0.004454  -0.02162  -0.3494  -0.8633
6.374e+09  -0.2586  -0.8702  -0.03741  -0.01101  -0.0116  -0.01175  -0.678  -0.6733
6.375e+09  -0.4764  -0.7016  0.01638  -0.0147  0.03294  -0.02573  -0.8375  -0.3563
6.376e+09  -0.6945  -0.573  -0.01368  0.04215  -0.0207  0.03505  -0.9014  -0.08114
6.378e+09  -0.8499  -0.2486  -0.02887  -0.0001729  -0.04242  0.0181  -0.9388  0.2242
6.379e+09  -0.9289  0.01867  -0.01384  0.03257  0.003823  0.0005739  -0.742  0.5468
6.38e+09  -0.8102  0.3844  -0.002414  -0.0135  -0.001857  0.001298  -0.5568  0.809
6.381e+09  -0.6061  0.6215  -0.02863  -0.002409  0.004039  0.01002  -0.2655  0.8861
6.382e+09  -0.4176  0.8419  -0.01624  -0.02466  0.04157  -0.01367  0.02643  0.9199
6.384e+09  -0.1225  0.9297  -0.05504  0.01532  -0.03934  0.0337  0.3941  0.8756
6.385e+09  0.2652  0.8421  0.01281  -0.04775  0.0163  -0.006717  0.6032  0.7192
6.386e+09  0.5121  0.7757  0.002066  0.02688  0.00554  0.02277  0.8332  0.4405
6.388e+09  0.7596  0.5131  0.01028  -0.01805  -0.0217  -0.03804  0.9292  0.1113
6.389e+09  0.8682  0.243  0.008442  0.0106  -0.01496  0.005901  0.8951  -0.1879
6.39e+09  0.8863  0.006413  0.003021  -0.00545  -0.007124  -0.0001963  0.7648  -0.4706
6.391e+09  0.8238  -0.3326  -0.02145  0.02753  -0.008054  -0.03033  0.5729  -0.7346
6.392e+09  0.6218  -0.6795  -0.02816  0.03736  0.01739  -0.00741  0.3219  -0.9089
6.394e+09  0.3657  -0.8054  0.008652  0.0125  0.001555  -0.005327  -0.001849  -0.909
6.395e+09  0.07945  -0.9052  -0.03291  0.001322  0.01682  0.02699  -0.2949  -0.8877
6.396e+09  -0.2451  -0.8436  0.04344  -0.0266  -0.01704  0.01627  -0.6113  -0.6472
6.398e+09  -0.5435  -0.7572  -0.01323  0.02082  0.02545  0.03784  -0.8011  -0.4408
6.399e+09  -0.7434  -0.4416  0.03366  -0.0454  0.03279  -0.03034  -0.9451  -0.1556
6.4e+09  -0.8394  -0.1605  -0.001937  -0.01294  -0.02059  0.009256  -0.8961  0.1465
6.401e+09  -0.8072  0.09516  -0.006349  0.02595  -0.0005428  -0.02359  -0.7934  0.4914
6.402e+09  -0.7929  0.4094  0.01304  -0.04328  -0.01914  -0.02512  -0.5572  0.7321
6.404e+09  -0.5791  0.6212  -0.006071  0.03712  -0.06227  0.01309  -0.304  0.8131
6.405e+09  -0.3428  0.8509  -0.02323  0.02075  0.02298  -0.008576  -0.03349  0.8785
6.406e+09  -0.02651  0.8291  0.02906  -0.03184  0.01972  -0.04998  0.3301  0.8803
6.408e+09  0.2869  0.8571  0.009873  0.03325  -0.04719  -0.03268  0.5873  0.7373
6.409e+09  0.5405  0.6949  -0.005998  -0.002467  -0.01154  -0.03649  0.771  0.468
6.41e+09  0.7506  0.5084  -0.02275  0.06353  0.04273  0.001515  0.8636  0.1632
6.411e+09  0.8524  0.1538  -0.01467  0.02833  -0.01759  -0.006398  0.8961  -0.1817
6.412e+09  0.8771  -0.1042  -0.01484  0.02096  -0.01739  -0.02894  0.7612  -0.4442
6.414e+09  0.7357  -0.4485  -0.06576  0.01194  -0.05324  -0.04051  0.5996  -0.7002
6.415e+09  0.6424  -0.6549  -0.006703  -0.01906  0.01076  -0.001529  0.3078  -0.8785
6.416e+09  0.3422  -0.8027  0.02274  0.01265  -0.02246  -0.01675  0.05312  -0.9166
6.418e+09  0.02166  -0.8852  -0.01768  -0.01051  0.01338  0.02036  -0.2784  -0.8777
6.419e+09  -0.2468  -0.8311  -0.04643  -0.0327  0.01095  -0.04221  -0.5126  -0.7143
6.42e+09  -0.5594  -0.709  0.01208  -0.05293  0.06526  -0.02589  -0.7705  -0.4664
6.421e+09  -0.7326  -0.4493  -0.009599  0.0268  -0.01504  -0.01085  -0.8702  -0.1745
6.422e+09  -0.8918  -0.1665  -0.03577  -0.0004689  0.01581  -0.003426  -0.8626  0.09129
6.424e+09  -0.9002  0.1307  0.01045  0.03408  0.0292  -0.00344  -0.7826  0.399
6.425e+09  -0.7538  0.3984  0.01206  0.008547  -0.002852  -0.01281  -0.6516  0.6109
6.426e+09  -0.5855  0.6316  0.01939  -0.01573  0.02603  -0.04145  -0.344  0.7803
6.428e+09  -0.2562  0.886  -0.05703  -0.006583  0.04604  -0.004721  -0.04762  0.8881
6.429e+09  -0.05745  0.9315  -0.01048  0.02569  -0.01371  -0.03105  0.2623  0.8056
6.43e+09  0.3089  0.8758  -0.00159  -0.003226  0.01527  0.02244  0.5339  0.7083
6.431e+09  0.5153  0.6663  0.01552  -0.01593  0.02209  -0.01392  0.7571  0.5236
6.432e+09  0.7689  0.4506  -0.02322  0.03134  -0.04239  -0.03268  0.8685  0.239
6.434e+09  0.887  0.1627  -0.04049  0.01748  0.02659  -0.03817  0.8425  -0.0405
6.435e+09  0.8995  -0.112  0.008939  0.0224  0.02569  -0.007782  0.7699  -0.391
6.436e+09  0.7109  -0.462  -0.02514  -0.01466  0.003416  0.01695  0.5713  -0.6383
6.438e+09  0.5982  -0.7398  -0.0009153  -0.005786  -0.006413  -0.003166  0.3326  -0.7914
6.439e+09  0.28  -0.9089  -0.02668  -0.03862  0.05258  -0.01183  0.05281  -0.8601
6.44e+09  -0.0004719  -0.8941  0.01781  -0.03405  0.003507  0.01392  -0.2564  -0.8286
6.441e+09  -0.2727  -0.8513  0.00181  -0.005637  0.004918  -0.0245  -0.4698  -0.7247
6.442e+09  -0.5323  -0.7132  0.04581  0.02868  -0.0289  0.04316  -0.6968  -0.4637
6.444e+09  -0.799  -0.4414  -0.03511  0.01168  -0.02366  -0.03657  -0.7826  -0.226
6.445e+09  -0.9153  -0.1555  0.01162  -0.01115  0.004804  0.03322  -0.8053  0.1161
6.446e+09  -0.8895  0.181  -0.02243  0.005769  0.01823  0.04602  -0.7519  0.3401
6.448e+09  -0.8129  0.4228  0.01781  -0.03548  0.02739  -0.03057  -0.5743  0.5855
6.449e+09  -0.5306  0.6973  -0.02358  0.007567  -0.06132  0.01272  -0.3706  0.761
6.45e+09  -0.3148  0.8431  -0.0357  -0.01926  0.02271  0.02625  -0.07134  0.7934
6.451e+09  0.07891  0.9331  -0.009323  0.006542  -0.01432  0.0405  0.2219  0.7791
6.452e+09  0.3555  0.8804  0.01719  0.01118  0.008988  0.01436  0.4961  0.6692
6.454e+09  0.6028  0.6715  0.01081  0.008537  -0.05091  0.02242  0.6422  0.4613
6.455e+09  0.8641  0.4755  0.01857  -0.0269  0.02479  0.01884  0.8285  0.2679
6.456e+09  0.9026  0.1084  -0.003686  -0.03337  -0.02176  -0.03208  0.8165  -0.05641
6.458e+09  0.8828  -0.1645  0.04808  -0.03572  0.04394  -0.02577  0.7486  -0.3962
6.459e+09  0.7338  -0.5159  0.04925  -0.008443  0.02939  -0.001638  0.5865  -0.6239
6.46e+09  0.5344  -0.7649  0.0117  -0.0001738  0.002133  -0.008545  0.3923  -0.7404
6.461e+09  0.2737  -0.902  0.03451  -0.006753  0.001885  -0.008391  0.0568  -0.8169
6.462e+09  -0.07862  -0.8894  0.04631  0.003739  0.03339  -0.01941  -0.2034  -0.7665
6.464e+09  -0.3699  -0.8483  0.009962  0.02472  -0.05961  -0.01131  -0.4536  -0.6829
6.465e+09  -0.6155  -0.6379  -0.02511  -0.01118  0.01926  0.01091  -0.7018  -0.4733
6.466e+09  -0.8506  -0.4274  -0.01566  -0.03227  -0.007549  0.009574  -0.7898  -0.2136
6.468e+09  -0.9045  -0.135  -0.003029  -0.0326  0.03249  -0.007823  -0.7945  0.08104
6.469e+09  -0.8699  0.2006  0.06049  0.01149  0.01134  0.01021  -0.7528  0.3487
6.47e+09  -0.759  0.4875  0.01892  0.006214  0.009287  0.01416  -0.6112  0.5583
6.471e+09  -0.5745  0.6995  -0.02767  -0.05051  -0.00758  -0.02792  -0.3274  0.7158
6.472e+09  -0.2832  0.8538  -0.001602  -0.0006696  0.04029  0.03763  -0.09939  0.763
6.474e+09  0.04517  0.9372  -0.01721  -0.02139  -0.04149  0.01288  0.222  0.7541
6.475e+09  0.3343  0.8167  0.008161  0.02117  -0.004904  0.02872  0.4248  0.664
6.476e+09  0.6051  0.6675  0.0007838  -0.02387  0.03411  -0.004863  0.6747  0.4612
6.478e+09  0.8431  0.3726  0.04085  0.01551  0.001176  0.03139  0.7825  0.2302
6.479e+09  0.9296  0.09487  -0.01985  0.0143  0.007868  -0.0256  0.8008  -0.03698
6.48e+09  0.8975  -0.2233  -0.03002  -0.01234  0.02135  -0.03555  0.7259  -0.3621
6.481e+09  0.7583  -0.5448  0.0391  0.01998  -0.007021  0.01063  0.5937  -0.5231
6.482e+09  0.5181  -0.791  0.01163  0.03789  0.01618  -0.02809  0.3032  -0.6949
6.484e+09  0.2389  -0.9178  -0.04257  0.02465  -0.02837  -0.0393  0.06266  -0.7476
6.485e+09  -0.1058  -0.904  -0.01232  -0.002085  0.005936  -0.02567  -0.1949  -0.7315
6.486e+09  -0.345  -0.8283  0.003297  0.001871  0.01518  -0.0381  -0.4769  -0.64
6.488e+09  -0.6725  -0.6006  0.02222  0.01308  -0.02677  -0.03629  -0.6557  -0.4403
6.489e+09  -0.8426  -0.4031  0.01577  0.01093  0.02434  -0.001333  -0.816  -0.193
6.49e+09  -1.01  -0.02562  0.02918  0.01868  -0.03194  -0.008497  -0.7835  0.03325
6.491e+09  -0.8845  0.2444  -0.00724  0.02186  -0.04422  0.0383  -0.6912  0.3437
6.492e+09  -0.735  0.5831  0.02121  -0.007745  -0.001941  -0.02123  -0.5613  0.5662
6.494e+09  -0.5356  0.8255  -0.02138  -0.0178  -0.01448  0.009605  -0.3599  0.6851
6.495e+09  -0.1773  0.9345  0.02303  -0.03139  0.021  -0.01623  -0.04788  0.7491
6.496e+09  0.1102  0.9215  -0.00232  -0.01436  0.009211  0.009026  0.1997  0.7469
6.498e+09  0.4176  0.8267  -0.01281  -0.008056  0.006926  0.059  0.4391  0.5942
6.499e+09  0.6878  0.6258  0.009777  -0.009109  0.02678  0.0002873  0.65  0.4455
6.5e+09  0.8973  0.3521  -0.06418  0.05285  0.02783  0.02392  0.7451  0.1722
6.501e+09  0.9846  0.001282  0.00819  0.01476  0.0162  -0.007506  0.76  -0.1148
6.502e+09  0.8734  -0.3148  0.0128  -0.01492  0.02573  0.009828  0.6917  -0.353
6.504e+09  0.7583  -0.6195  0.009694  -0.0003998  -0.006641  -0.04746  0.5012  -0.5547
6.505e+09  0.4278  -0.8399  -0.01791  0.01843  -0.03482  -0.009858  0.2358  -0.7126
6.506e+09  0.1812  -0.9512  -0.01737  0.001841  -0.02974  0.009305  0.00214  -0.7571
6.508e+09  -0.1922  -1.01  0.0275  -0.02053  -0.03153  -0.0298  -0.2526  -0.7102
6.509e+09  -0.4731  -0.8152  -0.02492  -0.01437  0.0027  -0.02423  -0.496  -0.6268
6.51e+09  -0.7547  -0.5679  0.0003274  0.01078  -0.03177  0.05191  -0.6458  -0.3775
6.511e+09  -0.9453  -0.2974  0.001439  0.01749  -0.005352  -0.01079  -0.7232  -0.152
6.512e+09  -0.9443  0.03062  -0.03926  -0.0007757  0.009769  -0.0001474  -0.7543  0.1449
6.514e+09  -0.8679  0.3559  0.01372  0.03295  0.02467  -0.01916  -0.6196  0.3826
6.515e+09  -0.7163  0.6746  0.0167  -0.00959  -0.0009717  -0.0181  -0.4957  0.5805
6.516e+09  -0.445  0.8377  0.000282  -0.02456  -0.002628  -0.008843  -0.2315  0.7121
6.518e+09  -0.06479  0.9497  0.004288  0.0009207  -0.04775  -0.02848  0.00539  0.7351
6.519e+09  0.2104  0.9625  0.008461  -0.02167  -0.03443  0.0327  0.2549  0.7266
6.52e+09  0.5415  0.7856  0.01913  -0.0005686  0.03007  0.007656  0.5272  0.5406
6.521e+09  0.8079  0.5556  -0.002053  -0.04644  0.01861  -0.02013  0.6511  0.3247
6.522e+09  0.9205  0.2035  -0.004329  0.008754  -0.03674  0.02729  0.7348  0.07478
6.524e+09  0.9906  -0.08638  0.01379  -0.02125  0.03211  -0.02063  0.6993  -0.1429
6.525e+09  0.8446  -0.4319  0.003844  -0.0133  -0.0451  -0.02948  0.6081  -0.4134
6.526e+09  0.6601  -0.7363  0.003465  -0.002401  0.04198  -0.02496  0.4177  -0.5899
6.528e+09  0.3657  -0.8799  0.04069  0.00287  0.008313  -0.01128  0.2102  -0.7065
6.529e+09  0.01495  -0.9804  -0.01476  0.01146  0.02823  -0.02277  -0.08633  -0.7153
6.53e+09  -0.2961  -0.9406  -0.01315  -0.006147  -0.01036  0.01862  -0.3072  -0.6281
6.531e+09  -0.6409  -0.8076  -0.03061  -0.005277  -0.01608  0.02894  -0.4669  -0.4831
6.532e+09  -0.8211  -0.5036  0.01479  -0.04045  0.03777  0.009408  -0.5592  -0.2989
6.534e+09  -0.9459  -0.2276  0.02806  -0.007195  -0.02719  -0.01596  -0.6487  -0.05689
6.535e+09  -0.8943  0.1584  -0.00805  -0.009876  0.006384  0.04858  -0.6222  0.1405
6.536e+09  -0.7818  0.4603  -0.00127  0.02263  -0.08601  -0.01813  -0.5862  0.2759
6.538e+09  -0.5977  0.7448  0.009855  -0.007053  0.00031  -0.003043  -0.4585  0.4996
6.539e+09  -0.3039  0.9132  0.003807  -0.01055  0.02876  0.009729  -0.2567  0.592
6.54e+09  0.09517  1.007  0.01531  -0.01105  -0.004737  0.04842  -0.06465  0.7026
6.541e+09  0.3969  0.8665  -0.003142  0.005155  -0.02042  0.01238  0.1996  0.6565
6.542e+09  0.6238  0.6707  0.0005696  0.01933  -0.02046  0.01951  0.402  0.6056
6.544e+09  0.8318  0.3974  0.006748  -0.00893  0.001351  0.02527  0.5842  0.4085
6.545e+09  0.9423  0.04635  0.02519  0.003754  0.01512  0.009076  0.7057  0.1752
6.546e+09  0.916  -0.2227  -0.01009  -0.01309  0.03079  0.05525  0.7292  -0.1113
6.548e+09  0.7457  -0.5781  0.00271  0.01309  0.01615  -0.007877  0.676  -0.3298
6.549e+09  0.5045  -0.7941  -0.008225  -0.01227  0.04103  0.004555  0.4834  -0.5196
6.55e+09  0.2285  -0.9089  -0.02756  -0.009676  -0.005841  0.006239  0.3055  -0.6766
