# Hz S RI R 50
6.25e+09  -0.3253  0.8238  -0.01171  0.01196  0.01317  -0.004025  0.1921  0.4775
6.251e+09  -0.02396  0.9108  0.0005327  0.01801  -0.02731  0.01137  0.3643  0.4115
6.252e+09  0.271  0.7865  0.01883  -0.01984  -0.04639  -0.01798  0.5222  0.207
6.254e+09  0.4944  0.7081  0.01431  0.0182  -0.03458  0.01722  0.5873  0.006854
6.255e+09  0.6878  0.4641  -0.0194  -0.002208  -0.005872  -0.003197  0.5817  -0.2512
6.256e+09  0.7867  0.164  0.04849  -0.0119  0.0197  0.02086  0.4867  -0.4285
6.258e+09  0.8294  -0.133  0.03756  -0.007991  0.03252  -0.01502  0.2849  -0.5924
6.259e+09  0.7953  -0.4641  0.02239  -0.008838  -0.03236  -0.01573  0.07085  -0.7054
6.26e+09  0.5206  -0.659  -0.004888  0.006976  0.05476  0.03832  -0.1953  -0.6325
6.261e+09  0.3387  -0.823  -0.009002  -0.0169  -0.007519  -0.02161  -0.4565  -0.5807
6.262e+09  0.0193  -0.8825  0.01374  -0.01395  0.02648  0.02676  -0.5984  -0.3824
6.264e+09  -0.319  -0.8254  -0.01742  0.009355  -0.0186  -0.05567  -0.7288  -0.1056
6.265e+09  -0.5219  -0.6535  0.0006185  0.02639  0.005629  -0.02537  -0.7008  0.166
6.266e+09  -0.716  -0.4272  -0.005506  -0.01081  -0.02014  -0.008369  -0.6181  0.3777
6.268e+09  -0.8919  -0.1604  0.01503  0.003379  0.05659  0.01742  -0.4502  0.608
6.269e+09  -0.8652  0.1468  -0.03035  0.01852  0.01235  -0.02595  -0.2031  0.751
6.27e+09  -0.7505  0.429  -0.01589  0.01239  0.01186  -0.02338  0.06546  0.7507
6.271e+09  -0.5283  0.6765  0.0003648  0.02499  0.02543  -0.01521  0.3263  0.6528
6.272e+09  -0.2715  0.8144  -0.01921  -0.004263  -0.01494  -0.002079  0.5266  0.5482
6.274e+09  0.01151  0.8624  0.0003678  -0.007421  0.0004908  -0.01778  0.6973  0.3387
6.275e+09  0.2824  0.8219  -0.01362  -0.009263  -0.075  -0.0205  0.7778  0.05213
6.276e+09  0.5632  0.6251  0.02802  -0.00763  0.01623  0.01115  0.7294  -0.2266
6.278e+09  0.7558  0.4017  0.01433  -0.008559  -0.01985  -0.01592  0.6052  -0.4796
6.279e+09  0.8204  0.1073  -0.00451  0.04364  0.0133  0.01833  0.395  -0.657
6.28e+09  0.7971  -0.135  0.003607  0.02047  -0.03583  -0.0009719  0.158  -0.7555
6.281e+09  0.7848  -0.4546  -0.02394  -0.007922  0.02629  -0.01353  -0.1151  -0.7969
6.282e+09  0.4869  -0.6448  0.01744  0.01848  -4.265e-05  0.02323  -0.3535  -0.6774
6.284e+09  0.2685  -0.8143  -0.0315  -0.003332  -0.02837  -0.01178  -0.5923  -0.5202
6.285e+09  -0.06774  -0.8107  0.02736  0.004282  -0.01421  0.009312  -0.7197  -0.2724
6.286e+09  -0.3078  -0.7861  -0.004646  -0.01265  -0.04892  0.001764  -0.7869  -0.0407
6.288e+09  -0.5866  -0.634  0.008536  -0.04058  -0.02628  0.0292  -0.7451  0.2625
6.289e+09  -0.7104  -0.3448  -0.03511  0.007842  -0.03138  0.03289  -0.6404  0.5035
6.29e+09  -0.8663  -0.1462  -0.01465  0.01346  -0.01886  0.02289  -0.4109  0.6778
6.291e+09  -0.8395  0.174  0.008932  -0.0234  0.03836  0.02946  -0.1488  0.8314
6.292e+09  -0.7003  0.5084  -0.004651  -0.009601  0.01704  -0.008523  0.1397  0.8225
6.294e+09  -0.5049  0.6594  -0.01239  0.00621  0.01572  0.00741  0.3958  0.7089
6.295e+09  -0.2497  0.7725  -0.006376  0.008231  -0.05063  0.01302  0.6677  0.4913
6.296e+09  0.05555  0.8503  -0.005029  0.004981  -0.02701  -0.04795  0.7849  0.2875
6.298e+09  0.3092  0.7558  -0.009395  -0.01373  0.007973  -0.01607  0.8261  0.007675
6.299e+09  0.6406  0.5948  -0.005368  0.005304  0.03389  -0.02272  0.7985  -0.2719
6.3e+09  0.7641  0.3687  0.01281  0.03867  0.001558  -0.03663  0.6532  -0.529
6.301e+09  0.848  0.08815  0.007631  -0.0262  0.02957  0.009836  0.4269  -0.7198
6.302e+09  0.8034  -0.165  0.0113  -0.0188  0.002235  -0.009845  0.1553  -0.883
6.304e+09  0.7199  -0.4604  -0.01814  0.006398  -0.03733  -0.02294  -0.1322  -0.8427
6.305e+09  0.4838  -0.7055  -0.001271  -0.003303  -0.01269  0.003822  -0.3923  -0.7241
6.306e+09  0.1894  -0.8318  0.02202  0.004406  0.01102  0.01402  -0.6154  -0.5708
6.308e+09  -0.08427  -0.8011  -0.009728  0.0207  0.000719  -0.01018  -0.8085  -0.296
6.309e+09  -0.3847  -0.7447  0.01832  0.01313  0.03384  -0.008765  -0.8588  0.01076
6.31e+09  -0.6533  -0.5826  -0.002965  0.01986  -0.004598  0.0258  -0.8116  0.2408
6.311e+09  -0.8593  -0.3153  0.01571  0.01172  0.06982  -0.001363  -0.6894  0.5408
6.312e+09  -0.8707  -0.0848  -0.02663  0.000663  -0.007518  0.06461  -0.4392  0.7612
6.314e+09  -0.8676  0.2597  0.02443  -0.01371  -0.009949  -0.009508  -0.18  0.8956
6.315e+09  -0.6703  0.5035  -0.002121  -0.02449  0.04233  0.02356  0.1198  0.8493
6.316e+09  -0.4511  0.6841  0.01189  0.002123  -0.005907  0.04403  0.4384  0.7566
6.318e+09  -0.1857  0.7779  0.01087  -0.03564  0.03114  -0.00364  0.6602  0.5696
6.319e+09  0.1051  0.8495  0.009666  0.005301  0.01231  0.001369  0.8298  0.3
6.32e+09  0.434  0.7242  0.006269  -0.004481  0.007722  0.0516  0.8691  0.01466
6.321e+09  0.6405  0.5427  -0.002425  0.002558  0.01361  0.0617  0.8219  -0.2581
6.322e+09  0.8115  0.2871  -0.01123  -0.02073  -0.02602  -0.01779  0.7154  -0.6127
6.324e+09  0.8723  0.03199  0.01089  0.008032  -0.011  0.03574  0.4766  -0.7919
6.325e+09  0.7593  -0.307  0.01843  0.01984  0.009589  0.0006703  0.1823  -0.8838
6.326e+09  0.6509  -0.5821  -0.002565  -0.01186  -0.001993  -0.06747  -0.1375  -0.8996
6.328e+09  0.4091  -0.7537  -0.02468  0.005919  0.00776  0.002443  -0.4621  -0.8011
6.329e+09  0.08573  -0.8686  0.02749  -0.009913  0.06585  0.04758  -0.6623  -0.6063
6.33e+09  -0.2056  -0.8675  -0.0004946  0.02403  0.05347  0.01226  -0.8585  -0.3623
6.331e+09  -0.4315  -0.7423  -0.008419  -0.009596  -0.02551  0.003524  -0.9249  -0.01448
6.332e+09  -0.7143  -0.5556  0.005008  0.03045  -0.006924  0.02086  -0.8588  0.2696
6.334e+09  -0.7979  -0.2594  -0.02099  0.02473  0.03745  -0.003234  -0.7317  0.5843
6.335e+09  -0.8553  0.07406  0.03642  0.02047  -0.007782  -0.02338  -0.5147  0.8039
6.336e+09  -0.8209  0.3705  0.008188  -0.0005053  0.01167  -0.03296  -0.2017  0.8984
6.338e+09  -0.5919  0.5806  0.0164  -0.01637  0.01421  0.0363  0.1425  0.9025
6.339e+09  -0.3633  0.7683  0.00573  -0.002258  0.0435  0.006559  0.4205  0.7905
6.34e+09  -0.07289  0.8927  -0.02226  -0.04965  0.03338  -0.02085  0.713  0.6558
6.341e+09  0.2506  0.8705  0.008502  -0.024  0.05453  0.01287  0.8276  0.3691
6.342e+09  0.5353  0.7281  0.03028  -0.006723  0.02123  0.01766  0.9607  0.03806
6.344e+09  0.7741  0.4999  -0.01509  0.03126  0.02525  0.03771  0.8698  -0.2758
6.345e+09  0.852  0.2533  0.02055  0.03248  0.03532  0.00247  0.726  -0.5928
6.346e+09  0.8613  -0.1354  -0.01466  0.004321  -0.03753  0.0719  0.5306  -0.7913
6.348e+09  0.7631  -0.3665  -0.002445  0.00492  -0.003248  -0.01265  0.2435  -0.8964
6.349e+09  0.604  -0.6176  -0.01841  -0.0342  -0.003197  -0.02882  -0.1096  -0.9399
6.35e+09  0.3335  -0.8502  0.03999  -0.004718  -0.02903  -0.0008102  -0.4321  -0.8341
6.351e+09  -0.03047  -0.944  0.01918  -0.006724  -0.04259  -0.03139  -0.6816  -0.6518
6.352e+09  -0.2745  -0.8399  -0.001848  -0.01297  -0.0003065  -0.04018  -0.8693  -0.3897
6.354e+09  -0.5886  -0.6708  -0.02267  0.005946  0.004066  0.01841  -0.9335  -0.0985
6.355e+09  -0.7801  -0.4643  0.005567  0.004898  0.01395  0.023  -0.897  0.2557
6.356e+09  -0.9202  -0.1976  0.002636  0.001061  0.05897  0.0219  -0.7632  0.5701
6.358e+09  -0.8975  0.134  0.009492  -0.02276  -0.01458  -0.006446  -0.5307  0.7675
6.359e+09  -0.7373  0.4553  0.001302  -0.02309  0.005826  0.007919  -0.2479  0.9286
6.36e+09  -0.5843  0.7066  -0.001151  -0.005552  0.02608  0.01756  0.09446  0.9604
6.361e+09  -0.279  0.8347  -0.04487  0.03205  0.02293  0.002008  0.4225  0.8605
6.362e+09  0.01593  0.8868  -0.01504  0.009491  0.01158  -0.01013  0.6754  0.6244
6.364e+09  0.3427  0.859  -0.03164  0.04361  0.03949  0.02293  0.8613  0.3898
6.365e+09  0.6  0.6858  -0.01662  -0.03333  -0.01212  -0.007007  0.9198  0.07182
6.366e+09  0.7838  0.38  -0.003695  0.02861  0.02209  -0.08274  0.9191  -0.2309
6.368e+09  0.8948  0.07269  -0.02359  0.004454  -0.05823  0.008012  0.7459  -0.5157
6.369e+09  0.8496  -0.1745  -0.004423  -0.004718  0.03007  -0.03697  0.5578  -0.785
6.37e+09  0.7862  -0.4682  0.007902  -0.00507  -0.05611  -0.03387  0.2414  -0.8938
6.371e+09  0.5462  -0.7548  -0.0127  0.02619  0.01101  -0.02387  -0.06454  -0.959
6.372e+09  0.2644  -0.8204  -0.01912  0.06518  -0.003837  -0.02253  -0.3673  -0.8614
6.374e+09  -0.08205  -0.8979  -0.01254  -0.002109  0.01243  -0.02492  -0.6827  -0.6476
6.375e+09  -0.3622  -0.844  -0.00612  -0.01483  -0.03565  0.009912  -0.8432  -0.4443
6.376e+09  -0.6092  -0.6419  -0.01648  0.007969  -0.003524  -0.05957  -0.9635  -0.08461
6.378e+09  -0.7601  -0.3986  -0.001315  0.0456  -0.01475  0.02923  -0.9358  0.2181
6.379e+09  -0.8998  -0.06356  -0.03397  -0.01658  0.008631  -0.02461  -0.795  0.5209
6.38e+09  -0.8806  0.253  0.02591  0.01171  0.009306  0.02039  -0.5511  0.7417
6.381e+09  -0.6957  0.6121  -0.03347  0.009058  -0.06182  0.009227  -0.2038  0.9203
6.382e+09  -0.4756  0.762  -0.03319  0.001104  0.01723  0.01956  0.04748  0.9165
6.384e+09  -0.2121  0.8223  -0.01613  -0.03855  0.001305  -0.04835  0.352  0.8385
6.385e+09  0.1283  0.8999  -0.0127  0.01667  -0.01778  -0.03501  0.6449  0.7024
6.386e+09  0.4293  0.7484  -0.01569  0.01445  0.02  -0.01078  0.8314  0.4138
6.388e+09  0.6671  0.5919  -0.01681  0.01278  -0.0212  0.01842  0.9071  0.1382
6.389e+09  0.8467  0.3849  -0.01763  0.005141  0.0802  -0.02506  0.9297  -0.169
6.39e+09  0.9167  0.01671  -0.005581  0.01346  0.02093  0.002869  0.766  -0.4583
6.391e+09  0.8902  -0.2928  0.0122  0.00571  0.05144  0.0117  0.5511  -0.723
6.392e+09  0.7192  -0.5477  -0.03996  0.02287  0.03302  0.01183  0.3117  -0.8321
6.394e+09  0.4395  -0.7759  0.01349  -0.006531  0.03271  0.01849  -0.02991  -0.9093
6.395e+09  0.1321  -0.8685  -0.01065  0.00163  0.02936  -0.01297  -0.3307  -0.8459
6.396e+09  -0.1332  -0.9103  -0.0038  0.01313  0.01563  -0.03207  -0.631  -0.6959
6.398e+09  -0.468  -0.7869  0.01755  -0.01496  0.01264  0.006996  -0.8423  -0.4582
6.399e+09  -0.6853  -0.5651  0.03336  -0.02177  -0.05882  -0.01522  -0.922  -0.1665
6.4e+09  -0.839  -0.2978  0.001928  -0.01747  0.01763  0.02331  -0.8944  0.141
6.401e+09  -0.8996  -0.04176  -0.01439  0.01224  0.001208  -0.02858  -0.8415  0.4673
6.402e+09  -0.8392  0.3835  -0.007397  -0.01743  0.0173  -0.008846  -0.5932  0.7231
6.404e+09  -0.6736  0.5961  -0.01611  0.009196  -0.009501  -0.006903  -0.3012  0.8872
6.405e+09  -0.439  0.7365  -0.01479  -0.01986  0.008356  0.03685  0.01774  0.9332
6.406e+09  -0.1204  0.8509  0.001154  0.01395  0.01596  0.03259  0.3039  0.9094
6.408e+09  0.2025  0.8687  0.01331  -0.0003419  -0.01849  -0.005207  0.605  0.6675
6.409e+09  0.4334  0.7666  -0.02684  0.02152  0.02551  0.01163  0.798  0.47
6.41e+09  0.6806  0.587  -0.01142  0.01823  -0.03437  0.01191  0.9037  0.1451
6.411e+09  0.8232  0.3068  0.0427  0.0689  0.02092  0.04399  0.902  -0.1474
6.412e+09  0.9168  0.01047  -0.008143  0.01451  -0.004555  -0.003852  0.8153  -0.4648
6.414e+09  0.8401  -0.3434  0.04385  2.665e-05  -0.02268  0.009205  0.6011  -0.7484
6.415e+09  0.6844  -0.5903  0.003593  -0.01481  0.0008303  0.01311  0.3577  -0.8343
6.416e+09  0.4048  -0.7784  0.01694  0.0043  -0.05716  0.03043  0.007101  -0.8825
6.418e+09  0.1214  -0.9148  0.005376  0.0008663  -0.02071  0.01853  -0.2694  -0.8462
6.419e+09  -0.2114  -0.8605  0.009467  0.02389  -0.01342  0.0236  -0.5301  -0.6933
6.42e+09  -0.4852  -0.7719  0.01427  -0.02214  0.024  -0.00132  -0.7585  -0.4724
6.421e+09  -0.6791  -0.5237  0.001244  0.009634  0.0241  0.008782  -0.8863  -0.2222
6.422e+09  -0.8529  -0.2688  0.01204  0.0132  -0.02584  0.03927  -0.8708  0.1108
6.424e+09  -0.9037  0.0546  0.002962  -0.007439  0.01498  0.03525  -0.7805  0.3539
6.425e+09  -0.7783  0.3202  -0.04825  0.01053  0.03178  -0.04672  -0.5742  0.6819
6.426e+09  -0.6494  0.5731  -0.00289  -0.00651  0.006215  -0.03963  -0.3452  0.8021
6.428e+09  -0.4174  0.7648  -0.02013  0.06944  -0.02159  0.008884  -0.04429  0.8828
6.429e+09  -0.08458  0.8624  -0.01192  -0.0005889  -0.03129  -0.0188  0.2508  0.8641
6.43e+09  0.2516  0.8613  -0.00585  -0.01594  0.02355  0.02698  0.5028  0.7019
6.431e+09  0.5282  0.7633  0.02888  0.03745  -0.001661  -0.002788  0.7152  0.4628
6.432e+09  0.7073  0.5576  0.02141  -0.0003834  0.007206  0.02008  0.8115  0.1986
6.434e+09  0.834  0.2636  0.01673  -0.005886  0.01429  0.008469  0.8597  -0.05573
6.435e+09  0.9134  -0.01502  0.004516  -0.03668  0.02601  0.009503  0.7764  -0.409
6.436e+09  0.8404  -0.3515  0.03661  -0.04842  0.01074  0.01476  0.562  -0.6292
6.438e+09  0.6684  -0.6525  0.008531  -0.01319  0.0314  -0.006691  0.3671  -0.8375
6.439e+09  0.367  -0.7613  -0.02852  -0.03345  0.0391  0.0408  0.05425  -0.8552
6.44e+09  0.1042  -0.935  -0.04416  0.02181  -0.03915  0.05509  -0.2271  -0.8655
6.441e+09  -0.2333  -0.8826  0.02418  -0.01633  0.01956  0.003397  -0.5196  -0.7087
6.442e+09  -0.4933  -0.7781  -0.009252  -0.01294  0.01209  -0.005248  -0.7073  -0.4903
6.444e+09  -0.6968  -0.5072  -0.02096  0.00739  0.01918  0.005858  -0.7633  -0.2285
6.445e+09  -0.896  -0.3236  0.001549  0.03024  0.01285  -0.003073  -0.8564  0.07866
6.446e+09  -0.8951  0.1162  -0.01771  0.002595  0.006064  -0.001327  -0.7425  0.3592
6.448e+09  -0.8182  0.3438  0.02172  0.01905  -0.001839  -0.05165  -0.5924  0.6107
6.449e+09  -0.6483  0.6387  -0.008548  -0.008706  -0.02485  0.05167  -0.3703  0.7772
6.45e+09  -0.3724  0.8069  0.003555  0.04978  0.04913  -0.01215  -0.05757  0.862
6.451e+09  -0.04332  0.8988  -0.05421  0.01913  0.01101  0.01755  0.2037  0.802
6.452e+09  0.2415  0.8987  -0.02408  -0.03788  0.02749  -0.02075  0.4678  0.6775
6.454e+09  0.4241  0.7427  -0.003792  -0.0301  -0.04154  -0.03246  0.6641  0.4762
6.455e+09  0.753  0.4849  0.02755  0.01062  -0.001049  -0.006381  0.7827  0.1811
6.456e+09  0.8497  0.2939  -0.01385  -0.02328  0.04184  0.03991  0.8208  -0.06043
6.458e+09  0.8849  -0.08239  0.0747  -0.02539  0.02905  -0.0262  0.8002  -0.3602
6.459e+09  0.8092  -0.386  0.01407  -0.04006  -0.03065  0.0004147  0.5944  -0.6013
6.46e+09  0.6725  -0.6195  0.0005056  0.01502  -0.04286  -0.001885  0.3356  -0.731
6.461e+09  0.3904  -0.8176  -0.01035  -0.01104  0.004886  -0.009745  0.0834  -0.7705
6.462e+09  0.0909  -0.8937  -0.006948  0.02337  -0.01012  0.01129  -0.2355  -0.7826
6.464e+09  -0.225  -0.862  -0.02104  -0.01861  0.02246  -0.008698  -0.4613  -0.6914
6.465e+09  -0.5194  -0.7658  -0.0225  -0.01732  -0.02756  0.01754  -0.6278  -0.4658
6.466e+09  -0.7647  -0.5432  -0.02647  0.0046  -0.007989  -0.0533  -0.785  -0.2387
6.468e+09  -0.8955  -0.2479  0.01777  0.03936  0.02897  -0.001956  -0.7962  0.09489
6.469e+09  -0.9499  0.08039  7.694e-05  -0.04127  0.03292  -0.03209  -0.7474  0.3374
6.47e+09  -0.834  0.4156  -0.04147  -0.008403  -0.01411  0.005276  -0.5457  0.5163
6.471e+09  -0.6779  0.655  -0.01256  -0.01777  -0.06113  0.01132  -0.3323  0.7053
6.472e+09  -0.3834  0.8974  -0.02094  -0.004378  0.006953  0.02556  -0.02772  0.8287
6.474e+09  -0.08709  0.9174  -0.01818  0.001648  0.0263  -0.01742  0.2221  0.7869
6.475e+09  0.32  0.9502  0.007517  -0.0006339  0.01185  0.01095  0.4784  0.6913
6.476e+09  0.5825  0.8223  -0.002861  -0.02334  0.02664  -0.01771  0.6736  0.5114
6.478e+09  0.7167  0.5146  0.01039  0.05738  0.01929  -0.004345  0.7351  0.2516
6.479e+09  0.8999  0.2439  0.03762  -0.006524  -0.06406  -0.01186  0.8185  -0.06613
6.48e+09  0.8818  -0.1407  0.03149  -0.01301  0.008483  0.02254  0.6877  -0.338
6.481e+09  0.8751  -0.444  0.03841  -0.01885  0.007006  -0.0206  0.5718  -0.5518
6.482e+09  0.634  -0.6632  0.03872  0.0119  0.02102  -0.04375  0.3064  -0.7052
6.484e+09  0.3455  -0.8934  0.00589  -0.006069  0.06861  0.01217  0.03682  -0.7129
6.485e+09  0.07145  -0.9346  0.02112  0.001286  0.00782  -0.03904  -0.177  -0.7182
6.486e+09  -0.3191  -0.8747  0.01359  -0.02062  0.01599  -0.02341  -0.4688  -0.6174
6.488e+09  -0.555  -0.7544  -0.02619  0.03127  0.03343  0.002033  -0.6339  -0.4423
6.489e+09  -0.8141  -0.505  0.04789  -0.0001592  -0.01738  0.03563  -0.7503  -0.1116
6.49e+09  -0.8668  -0.2237  -0.0129  -0.01532  -0.02628  -0.01506  -0.7835  0.08129
6.491e+09  -0.9129  0.1322  0.006438  -0.01509  -0.04099  0.01869  -0.7112  0.3538
6.492e+09  -0.8414  0.4437  0.002955  -0.01246  0.03865  0.01324  -0.5113  0.5918
6.494e+09  -0.5922  0.7523  -0.01352  -0.04472  -0.04104  -0.00995  -0.3043  0.7137
6.495e+09  -0.3255  0.8619  -0.02328  -0.03855  0.02085  0.05013  -0.03849  0.774
6.496e+09  -0.01628  0.9607  -0.009972  0.004461  0.02093  0.01738  0.1974  0.7838
6.498e+09  0.2904  0.8824  0.04021  -0.0087  0.01701  -0.01312  0.4435  0.6071
6.499e+09  0.6077  0.7159  -0.02087  0.01099  0.03902  -0.03389  0.6494  0.3857
6.5e+09  0.8313  0.449  0.04529  0.003276  -0.01754  0.001991  0.6977  0.1432
6.501e+09  0.9209  0.1596  -0.01196  -0.01084  0.01207  0.01652  0.7572  -0.1162
6.502e+09  0.9408  -0.1355  0.001969  0.01755  -0.05963  -0.05724  0.6293  -0.4246
6.504e+09  0.8339  -0.4377  0.02277  -0.003678  -0.02216  -0.04649  0.5398  -0.5438
6.505e+09  0.6263  -0.7159  0.03344  0.0227  -0.009806  -0.01673  0.2676  -0.6788
6.506e+09  0.3023  -0.8913  0.02806  -0.01945  0.01829  0.01276  0.01157  -0.7489
6.508e+09  -0.05196  -0.9302  0.007568  -0.03419  0.03264  0.01993  -0.247  -0.7268
6.509e+09  -0.3552  -0.8658  0.00106  0.0195  0.05073  0.0447  -0.5041  -0.5568
6.51e+09  -0.6207  -0.7403  -0.02073  -0.01516  0.01944  -0.0159  -0.6603  -0.3988
6.511e+09  -0.8841  -0.4581  0.008164  -0.02157  -0.03164  -0.02026  -0.7657  -0.1469
6.512e+09  -0.9663  -0.07934  0.003649  -0.02309  -0.04029  0.01569  -0.7462  0.08322
6.514e+09  -0.8967  0.2553  0.01745  0.01258  0.03942  0.01269  -0.6422  0.3929
6.515e+09  -0.835  0.4815  0.0162  -0.007845  -0.03095  0.02136  -0.4644  0.6082
6.516e+09  -0.6038  0.7661  -0.0008549  0.001201  -0.00186  -0.02655  -0.2291  0.7305
6.518e+09  -0.261  0.9624  -0.03964  -0.01218  0.03001  -0.04694  0.005897  0.7426
6.519e+09  0.05595  0.949  0.03587  0.04492  0.02128  -0.03389  0.2837  0.7115
6.52e+09  0.3736  0.8209  -0.06496  0.006502  0.01609  0.02619  0.5069  0.5556
6.521e+09  0.6944  0.6918  -0.01058  0.02837  -0.06441  0.002898  0.6722  0.3612
6.522e+09  0.907  0.3985  -0.0112  0.007123  -0.007086  0.03898  0.6841  0.1109
6.524e+09  0.9777  0.05625  0.01755  -0.004296  0.01289  0.01211  0.6962  -0.1369
6.525e+09  0.919  -0.2856  -0.007388  0.01886  0.04434  -0.003095  0.5842  -0.4109
6.526e+09  0.8026  -0.5883  0.01247  -0.009212  -0.01365  -0.007292  0.459  -0.5512
6.528e+09  0.5067  -0.8512  0.01062  0.01627  0.01004  -0.01461  0.2128  -0.6813
6.529e+09  0.2302  -0.9219  0.03134  -0.0193  0.01821  -0.004191  -0.05195  -0.6869
6.53e+09  -0.1577  -0.919  -0.0369  -0.01659  -0.009526  -0.05377  -0.3022  -0.6317
6.531e+09  -0.4812  -0.8511  -0.0241  -0.03423  -0.02332  -0.008041  -0.4497  -0.5027
6.532e+09  -0.7436  -0.6246  0.01206  0.00605  -0.02936  -0.009273  -0.5671  -0.2908
6.534e+09  -0.9175  -0.3338  0.01898  -0.01596  0.06704  0.004612  -0.6263  -0.08699
6.535e+09  -0.9846  -0.002163  0.02019  0.02492  0.008162  -0.009336  -0.5908  0.1188
6.536e+09  -0.9184  0.3741  0.006954  0.021  0.0586  -0.006909  -0.5928  0.3061
6.538e+09  -0.685  0.6703  -0.005548  0.002174  0.02478  0.01288  -0.4208  0.4781
6.539e+09  -0.4397  0.8427  -0.002717  -0.002972  -0.02415  0.02088  -0.2491  0.6013
6.54e+09  -0.1764  1.036  -0.004237  0.01825  0.04059  0.0149  -0.05898  0.6978
6.541e+09  0.1937  0.9616  -0.03409  0.0008386  0.009707  -0.01692  0.1762  0.6657
6.542e+09  0.5497  0.8315  -0.01062  -0.002051  0.04076  -0.04276  0.4026  0.6062
6.544e+09  0.771  0.5524  0.01007  0.004553  0.014  0.008113  0.5881  0.4041
6.545e+09  0.9808  0.2232  0.01524  0.002058  -0.001828  0.01832  0.7038  0.1634
6.546e+09  0.9568  -0.1175  -0.0156  -0.02393  0.03205  0.04927  0.7476  -0.04731
6.548e+09  0.84  -0.3687  0.006719  -0.01343  -0.02638  -0.01793  0.6529  -0.3097
6.549e+09  0.6495  -0.6785  0.002725  -0.007352  0.004211  -0.0237  0.4618  -0.5245
6.55e+09  0.3665  -0.8664  -0.01767  -0.007512  -0.04313  -0.02617  0.2851  -0.6922
6.551e+09  0.04652  -0.938  0.003021  -0.004377  -0.00178  -0.04591  0.03732  -0.747
