# Hz S RI R 50
6.25e+09  -0.2502  0.8635  -0.01284  0.009009  -0.05503  0.02002  0.1629  0.4674
6.251e+09  0.1289  0.8568  -0.007602  -0.01071  0.001898  0.02344  0.3652  0.4084
6.252e+09  0.3652  0.7794  0.009268  -0.006365  -0.02674  -0.04353  0.5176  0.2609
6.254e+09  0.5976  0.6309  -0.03625  0.02844  0.05925  -0.02654  0.6154  0.03217
6.255e+09  0.7873  0.3177  -0.03035  0.02228  0.003225  -0.01218  0.6192  -0.207
6.256e+09  0.8809  0.03066  -0.01634  0.02443  -0.01725  -0.01554  0.4664  -0.476
6.258e+09  0.8092  -0.2305  0.006839  0.009057  -0.00602  -0.02131  0.266  -0.5783
6.259e+09  0.6686  -0.508  -0.03254  0.02099  -0.06182  0.007253  0.02793  -0.6905
6.26e+09  0.4521  -0.6822  -0.0007747  0.01066  0.02055  -0.02248  -0.2288  -0.6374
6.261e+09  0.1672  -0.8331  -0.008428  -0.01718  -0.01173  -0.04545  -0.4356  -0.5279
6.262e+09  -0.06933  -0.8747  0.0115  0.02536  -0.03119  -0.02091  -0.6283  -0.3163
6.264e+09  -0.3861  -0.7749  0.02383  -0.01519  -0.01001  -0.02323  -0.7496  -0.1329
6.265e+09  -0.631  -0.6193  -0.01711  -0.004292  0.06539  0.00257  -0.7164  0.1768
6.266e+09  -0.7293  -0.3393  -0.01923  0.01908  -0.01924  0.02473  -0.6102  0.3764
6.268e+09  -0.8342  -0.001638  -0.004296  -0.01854  0.002517  -0.03835  -0.4322  0.5849
6.269e+09  -0.7434  0.2678  0.008928  0.04473  -0.01238  -0.0625  -0.2116  0.7458
6.27e+09  -0.5765  0.5027  -0.01498  -0.01185  -0.03173  -0.02932  0.06853  0.7467
6.271e+09  -0.414  0.6592  0.009994  0.02205  0.05469  -0.01359  0.3343  0.6886
6.272e+09  -0.1363  0.8212  0.009781  -0.001238  -0.03145  0.007209  0.5564  0.5196
6.274e+09  0.05252  0.7813  -0.01921  0.004634  -0.00717  0.0018  0.7044  0.285
6.275e+09  0.3709  0.7619  -0.04193  0.009384  -0.02968  0.001598  0.772  0.04812
6.276e+09  0.5982  0.5396  -0.01511  -0.005404  0.009973  -0.004654  0.7568  -0.2685
6.278e+09  0.8089  0.3033  -0.007865  -0.0161  -0.006377  -0.01585  0.618  -0.465
6.279e+09  0.7918  0.02557  0.01295  -0.0339  0.03413  -0.03518  0.4294  -0.679
6.28e+09  0.7873  -0.2862  -0.01081  -0.01711  0.015  -0.01285  0.1885  -0.7656
6.281e+09  0.648  -0.5277  -0.02066  0.03278  -0.02413  -0.02886  -0.1218  -0.76
6.282e+09  0.3733  -0.6662  -0.0253  0.01126  0.03386  -0.02209  -0.3876  -0.6811
6.284e+09  0.1612  -0.8128  -0.01311  -0.01091  -0.04418  -0.01544  -0.6049  -0.5019
6.285e+09  -0.09747  -0.843  -0.03112  -0.02591  0.0129  0.02714  -0.7287  -0.3047
6.286e+09  -0.4012  -0.7185  -0.03033  0.006148  0.0156  -0.006832  -0.8133  -0.03814
6.288e+09  -0.6122  -0.5412  -0.006558  -0.002238  0.05773  0.006093  -0.7565  0.2769
6.289e+09  -0.7912  -0.2574  -0.0008572  -0.02739  -0.01043  -0.02793  -0.6238  0.4724
6.29e+09  -0.8533  0.04917  -0.01006  0.007767  0.002961  -0.01601  -0.4288  0.6961
6.291e+09  -0.7699  0.2879  0.02331  0.02834  -0.04642  -0.01194  -0.1702  0.7992
6.292e+09  -0.632  0.6327  0.04628  -0.01271  0.03265  -0.02078  0.1457  0.7974
6.294e+09  -0.3406  0.7305  0.001882  0.008178  -0.04762  -0.03067  0.4035  0.7333
6.295e+09  -0.1325  0.8673  0.02068  -0.02363  0.06229  -0.01897  0.6264  0.5202
6.296e+09  0.179  0.7672  -0.0112  0.01166  0.003779  -0.00315  0.7868  0.2886
6.298e+09  0.5003  0.7392  0.02736  0.01278  -0.02479  0.06188  0.8376  0.02094
6.299e+09  0.6975  0.5728  -0.01399  0.000204  0.006256  -0.01497  0.7832  -0.3
6.3e+09  0.8022  0.2434  -0.01367  0.0305  -0.006487  0.006819  0.665  -0.5531
6.301e+09  0.8344  -0.0298  0.03257  -0.01193  0.004745  -0.02346  0.4513  -0.7063
6.302e+09  0.7748  -0.2676  -0.007339  0.01107  -0.01491  -0.008095  0.1524  -0.8439
6.304e+09  0.6141  -0.6008  -0.005626  0.002657  -0.02246  -0.008415  -0.1211  -0.8374
6.305e+09  0.3842  -0.7661  -0.01188  0.001128  0.03724  -0.005377  -0.4055  -0.7183
6.306e+09  0.07538  -0.8397  0.0168  0.007324  -0.006367  0.02536  -0.6757  -0.5525
6.308e+09  -0.2265  -0.7911  -0.0003626  0.007891  -0.01971  -0.01681  -0.7994  -0.3162
6.309e+09  -0.4539  -0.685  -0.0004925  -0.003711  0.00454  0.04218  -0.886  -0.02566
6.31e+09  -0.7006  -0.5017  0.004037  0.01451  -0.001691  0.02759  -0.807  0.3011
6.311e+09  -0.8057  -0.2425  0.004885  0.01105  0.01754  0.006509  -0.6956  0.5552
6.312e+09  -0.8685  0.1237  -0.0266  -0.03104  -0.02104  -0.0141  -0.4389  0.7367
6.314e+09  -0.7804  0.3662  -0.04957  0.002873  0.00309  -0.009418  -0.1651  0.8538
6.315e+09  -0.5562  0.6328  -0.01574  0.008238  0.004005  -0.001356  0.1378  0.8676
6.316e+09  -0.3431  0.7671  0.007806  -0.009795  0.007448  -0.02219  0.4391  0.7566
6.318e+09  0.008101  0.7901  0.003162  -0.01597  0.005022  0.003882  0.7054  0.5662
6.319e+09  0.2893  0.8378  0.01006  0.01838  0.007243  0.01751  0.8204  0.3139
6.32e+09  0.5052  0.6882  0.01574  -0.02029  -0.002124  -0.03657  0.8718  -0.012
6.321e+09  0.6902  0.4711  0.006095  0.02019  0.04029  0.004927  0.8336  -0.2895
6.322e+09  0.8259  0.1902  0.03004  0.01891  -0.04603  -0.03176  0.6862  -0.5913
6.324e+09  0.8387  -0.1534  -0.01043  -0.02329  0.00424  -0.05271  0.4521  -0.763
6.325e+09  0.7654  -0.447  -0.008034  0.0008971  0.002581  0.0527  0.1803  -0.8661
6.326e+09  0.5543  -0.6266  0.02293  0.01224  0.008655  0.02505  -0.1785  -0.9075
6.328e+09  0.3023  -0.845  0.0199  0.0284  0.02157  -0.02484  -0.4351  -0.7578
6.329e+09  0.00619  -0.8547  -0.02786  0.01479  -0.02244  -0.02698  -0.6741  -0.5881
6.33e+09  -0.2841  -0.8126  -0.003215  0.006956  0.01257  -0.02131  -0.8424  -0.3426
6.331e+09  -0.6066  -0.6871  -0.00564  -0.02294  -0.01539  -0.0009491  -0.908  -0.05097
6.332e+09  -0.8338  -0.3964  -0.01415  0.02044  0.04648  0.01085  -0.8617  0.3227
6.334e+09  -0.8835  -0.1021  0.01256  -0.02244  -0.03116  -0.01643  -0.71  0.5644
6.335e+09  -0.8626  0.172  -0.009708  -0.02661  -0.02037  0.005488  -0.4633  0.7752
6.336e+09  -0.771  0.4864  -0.003375  -0.02562  0.02883  -0.01919  -0.1726  0.9171
6.338e+09  -0.5587  0.6961  0.01003  0.006605  0.02416  0.003162  0.1558  0.9258
6.339e+09  -0.232  0.8652  0.02745  -0.01744  -0.03685  0.007962  0.4207  0.849
6.34e+09  0.03411  0.9059  -0.01704  0.007784  -0.04176  -0.02104  0.6771  0.6407
6.341e+09  0.3915  0.7927  0.01063  0.02773  -0.02414  0.024  0.8749  0.3744
6.342e+09  0.6247  0.6273  -0.01587  -0.009889  0.02088  0.02419  0.9143  0.02428
6.344e+09  0.8323  0.386  0.01986  -0.04258  -0.02473  0.01382  0.9128  -0.2687
6.345e+09  0.8842  0.03554  0.01908  0.01923  0.01048  0.05116  0.7535  -0.5772
6.346e+09  0.901  -0.2519  0.006831  -0.002296  -0.01799  0.02987  0.5082  -0.8007
6.348e+09  0.6909  -0.5389  -0.006565  -0.0197  -0.03902  -0.003371  0.2234  -0.9152
6.349e+09  0.4866  -0.7763  0.05059  0.02851  0.01597  -0.004265  -0.1281  -0.9652
6.35e+09  0.2124  -0.8178  0.02377  0.0496  0.04644  0.0227  -0.4072  -0.8235
6.351e+09  -0.07351  -0.8628  -0.0003203  0.003032  0.02282  -0.01985  -0.6852  -0.6133
6.352e+09  -0.4454  -0.8134  -0.01718  -0.0007523  -0.005837  -0.0247  -0.8935  -0.3566
6.354e+09  -0.6455  -0.5933  -5.189e-05  -0.01623  -0.02751  -0.01739  -0.9347  -0.05558
6.355e+09  -0.8903  -0.3107  0.01457  0.0006988  0.05869  0.005664  -0.9064  0.2491
6.356e+09  -0.8796  -0.0342  -0.003223  0.001355  0.0208  -0.02426  -0.7303  0.5336
6.358e+09  -0.8526  0.3797  0.005135  0.04287  0.02117  -0.03644  -0.4951  0.7735
6.359e+09  -0.7018  0.6116  0.03357  0.01783  -0.01396  0.0494  -0.2414  0.9603
6.36e+09  -0.4379  0.7828  0.006516  -0.00524  -0.02232  0.002932  0.09369  0.9401
6.361e+09  -0.1417  0.8919  -0.005456  0.01942  0.02523  0.0271  0.4177  0.8564
6.362e+09  0.1693  0.9151  -0.01084  0.02494  -0.003752  0.02129  0.7102  0.6696
6.364e+09  0.4747  0.7472  -0.01052  -0.0379  -0.0166  -0.01909  0.8547  0.3538
6.365e+09  0.6881  0.5433  0.03476  0.02375  -0.02947  -0.006701  0.9471  0.05996
6.366e+09  0.87  0.2456  0.003335  0.02966  0.009554  -0.01957  0.932  -0.2776
6.368e+09  0.8661  -0.01933  -0.002472  0.004552  0.02491  -0.01607  0.7426  -0.5371
6.369e+09  0.8298  -0.3709  0.02925  0.004028  -0.03335  0.00945  0.5909  -0.7437
6.37e+09  0.6898  -0.6126  0.004474  -0.02966  0.001363  0.0106  0.2303  -0.9076
6.371e+09  0.4172  -0.7925  0.008151  0.03511  0.006913  -0.02876  -0.04551  -0.9636
6.372e+09  0.1343  -0.8978  -0.005099  -0.007925  -0.03332  0.01133  -0.3673  -0.8512
6.374e+09  -0.2158  -0.8586  0.02184  0.00712  0.01218  -0.01281  -0.6782  -0.6631
6.375e+09  -0.516  -0.7091  0.001544  0.01549  -0.0279  0.04128  -0.8434  -0.4194
6.376e+09  -0.6773  -0.482  -0.01856  -0.006178  -0.01729  0.005202  -0.9492  -0.08101
6.378e+09  -0.8667  -0.2437  0.008196  0.05182  -0.04371  -0.00431  -0.8681  0.235
6.379e+09  -0.8925  0.07657  -0.002757  0.05835  0.00593  -0.009184  -0.7574  0.5289
6.38e+09  -0.8165  0.4326  -0.01444  0.009841  -0.002583  -0.03739  -0.5475  0.7365
6.381e+09  -0.6242  0.6618  0.02862  -0.02044  0.01065  0.01394  -0.27  0.8864
6.382e+09  -0.3967  0.868  0.005596  0.0049  0.02278  0.02733  0.08205  0.9188
6.384e+09  -0.08592  0.9053  0.0298  0.009805  0.004203  0.03045  0.3803  0.8205
6.385e+09  0.2744  0.8771  0.041  -0.03191  -0.008598  0.02734  0.6292  0.707
6.386e+09  0.5353  0.6372  0.02194  0.005596  0.03291  -0.03774  0.85  0.4154
6.388e+09  0.7691  0.4869  -0.02586  0.008371  0.009854  -0.01147  0.9161  0.07084
6.389e+09  0.9303  0.18  -0.01116  -0.007452  -0.02283  0.03054  0.9058  -0.185
6.39e+09  0.8917  -0.147  0.01303  0.006766  -0.008446  0.002504  0.7885  -0.5076
6.391e+09  0.8278  -0.4041  0.03894  -0.01844  -0.006416  0.01357  0.594  -0.7372
6.392e+09  0.5899  -0.6885  0.005814  0.05306  0.01164  -0.02008  0.2976  -0.9208
6.394e+09  0.3236  -0.8464  -0.007013  -0.01389  -0.001139  -0.02921  -0.03188  -0.9179
6.395e+09  0.06923  -0.9426  -0.03247  0.004783  -0.01704  0.003151  -0.3256  -0.8288
6.396e+09  -0.2472  -0.8144  0.03323  -0.0115  0.00569  -0.003439  -0.6503  -0.717
6.398e+09  -0.5591  -0.7041  0.009482  -0.02746  -0.01116  0.03899  -0.8242  -0.4416
6.399e+09  -0.725  -0.5003  -0.01587  0.0355  0.02478  -0.04429  -0.9302  -0.1481
6.4e+09  -0.8889  -0.2024  0.01683  0.03675  0.0063  -0.01601  -0.8908  0.1264
6.401e+09  -0.8878  0.126  0.01045  0.004035  0.006733  -0.03699  -0.7744  0.4786
6.402e+09  -0.7491  0.4376  0.007875  -0.001352  0.0005309  -0.007402  -0.6143  0.7164
6.404e+09  -0.58  0.6423  -0.01594  0.07563  0.0204  0.0142  -0.318  0.8771
6.405e+09  -0.2637  0.823  0.01447  -0.03265  0.01653  0.03432  -0.009129  0.91
6.406e+09  -0.0266  0.8842  -0.01912  -0.006361  0.01802  0.04014  0.2824  0.841
6.408e+09  0.2646  0.8591  0.04075  0.01163  -0.06624  0.007445  0.5831  0.7081
6.409e+09  0.5126  0.6923  -0.009281  0.04043  -0.00574  -0.03111  0.826  0.4784
6.41e+09  0.788  0.4405  -0.0249  0.02834  0.022  -0.02272  0.8371  0.1588
6.411e+09  0.9026  0.1546  -0.02535  -0.0287  -0.01431  0.0007635  0.8928  -0.1514
6.412e+09  0.9039  -0.1391  -0.02556  -0.01898  -0.02456  0.02251  0.8271  -0.4277
6.414e+09  0.7605  -0.4537  0.001504  -0.02551  -0.01416  0.005214  0.5963  -0.7008
6.415e+09  0.6009  -0.66  0.04188  0.02197  0.02868  -0.0187  0.339  -0.8264
6.416e+09  0.26  -0.9053  -0.005204  0.007211  -0.02305  0.01039  -0.01098  -0.9224
6.418e+09  0.03914  -0.8784  -0.02275  -0.0181  0.02775  0.01767  -0.3165  -0.8729
6.419e+09  -0.3481  -0.8609  -0.01754  -0.002887  0.0305  -0.05464  -0.5505  -0.714
6.42e+09  -0.5978  -0.6382  -0.001295  0.008963  0.02626  -0.01557  -0.7377  -0.5124
6.421e+09  -0.8232  -0.4281  -0.009055  -0.04542  0.01454  0.0303  -0.851  -0.2473
6.422e+09  -0.8557  -0.1545  -0.003087  0.04147  0.02753  -0.0436  -0.8625  0.1125
6.424e+09  -0.8861  0.1487  0.003869  0.005311  0.03673  0.01177  -0.7688  0.4151
6.425e+09  -0.783  0.476  0.001162  0.01261  -0.02327  -0.02452  -0.5735  0.63
6.426e+09  -0.5671  0.657  0.03466  -0.04292  0.01267  -0.008523  -0.4157  0.818
6.428e+09  -0.305  0.8506  0.03908  -0.02664  -0.008115  0.02527  -0.05143  0.8939
6.429e+09  0.03488  0.9145  -0.006091  -0.02939  0.01114  0.001088  0.2501  0.8636
6.43e+09  0.3726  0.8019  0.009159  -0.01695  0.05662  -0.001419  0.5311  0.7271
6.431e+09  0.5857  0.6557  0.04574  0.007622  -0.05112  -0.02589  0.6712  0.465
6.432e+09  0.7786  0.4325  -0.01863  0.01251  -0.002923  0.04358  0.8589  0.2142
6.434e+09  0.8691  0.06558  -0.03834  -0.01636  0.01658  -0.01765  0.8732  -0.09936
6.435e+09  0.8268  -0.2093  -0.01748  -0.006087  0.01341  0.02204  0.7941  -0.3818
6.436e+09  0.7839  -0.4859  0.01419  0.003719  0.009314  0.04902  0.6457  -0.6105
6.438e+09  0.5778  -0.7433  0.007346  0.006419  0.00279  -0.0273  0.3659  -0.7479
6.439e+09  0.2578  -0.8267  -0.05755  -0.02201  -0.02084  0.0364  0.0591  -0.843
6.44e+09  -0.024  -0.8968  0.01978  -0.02492  0.01346  0.05046  -0.1256  -0.7921
6.441e+09  -0.3584  -0.8345  0.01888  -0.03055  -0.05414  0.01421  -0.518  -0.6783
6.442e+09  -0.6126  -0.6708  -0.03196  0.008717  -0.0004834  -0.006363  -0.7104  -0.4747
6.444e+09  -0.7817  -0.4298  -0.008088  0.0438  -0.04351  0.0196  -0.827  -0.206
6.445e+09  -0.8827  -0.1333  -0.02335  0.02595  0.00504  0.03395  -0.8439  0.02696
6.446e+09  -0.9236  0.2331  0.004252  0.009779  0.01703  -0.02766  -0.7781  0.3527
6.448e+09  -0.786  0.4938  -0.009658  -0.02273  -0.03247  0.003721  -0.6039  0.6231
6.449e+09  -0.5371  0.7559  0.02402  0.009393  0.007249  -0.04681  -0.3874  0.7362
6.45e+09  -0.2479  0.881  0.00247  -0.03947  -0.05188  -0.04471  -0.06848  0.8187
6.451e+09  0.07259  0.9429  -0.01955  -0.05806  0.04023  0.008962  0.2134  0.8541
6.452e+09  0.3827  0.8445  0.006716  -0.01737  0.01231  -0.02704  0.4865  0.6559
6.454e+09  0.6445  0.6663  0.04002  -0.01232  -0.01655  -0.04808  0.7016  0.4229
6.455e+09  0.7981  0.3955  0.0003348  0.002381  -0.01773  -0.02364  0.798  0.2206
6.456e+09  0.9016  0.1433  0.01452  0.03963  0.008054  -0.003246  0.8051  -0.06254
6.458e+09  0.8679  -0.193  -0.00562  -0.008087  -0.07974  0.008385  0.7043  -0.3985
6.459e+09  0.7673  -0.5227  0.01648  -0.02915  -0.02041  -0.01105  0.6093  -0.6013
6.46e+09  0.5235  -0.7914  0.004694  -0.04555  0.03593  -0.03594  0.3536  -0.79
6.461e+09  0.2265  -0.8672  -0.00606  0.04733  0.001877  0.02325  0.05931  -0.813
6.462e+09  -0.02461  -0.9079  0.03153  0.004095  0.01208  0.05459  -0.2401  -0.7851
6.464e+09  -0.4047  -0.7927  -0.02403  -0.01292  -0.01246  0.01313  -0.4468  -0.6431
6.465e+09  -0.6361  -0.6741  -0.03306  0.002854  0.0009017  0.01224  -0.658  -0.4701
6.466e+09  -0.8472  -0.3903  0.02374  0.03007  0.02374  0.05975  -0.7918  -0.1743
6.468e+09  -0.9847  -0.05938  -0.03139  -0.002339  0.01089  0.06421  -0.7991  0.05566
6.469e+09  -0.871  0.2617  -0.001885  0.03039  0.03797  -0.02832  -0.742  0.3585
6.47e+09  -0.6928  0.5874  -0.01708  0.01063  0.06494  -0.04632  -0.584  0.6191
6.471e+09  -0.5318  0.7412  0.02004  -0.04244  0.06283  0.04449  -0.3296  0.745
6.472e+09  -0.1845  0.9216  -0.02426  0.01551  -0.005312  0.007998  -0.07618  0.7832
6.474e+09  0.1337  0.944  0.02406  -0.0498  0.02863  -0.03138  0.1822  0.8009
6.475e+09  0.4001  0.8428  -0.007206  -0.0007977  0.03943  -0.007559  0.4244  0.6139
6.476e+09  0.6966  0.6614  0.01153  -0.003677  0.02314  -0.04191  0.6711  0.4726
6.478e+09  0.9131  0.3173  0.02992  0.03971  0.03036  -0.009196  0.789  0.2244
6.479e+09  0.9161  0.009144  0.006552  -0.02207  -0.007428  0.002947  0.7678  -0.04583
6.48e+09  0.9107  -0.2901  -0.03077  -0.0003606  0.000146  -0.02431  0.7031  -0.3628
6.481e+09  0.7487  -0.5788  -0.004095  -0.004954  0.009516  -0.06124  0.5345  -0.564
6.482e+09  0.5477  -0.8121  0.01557  0.04516  0.002168  0.04927  0.3346  -0.6761
6.484e+09  0.2318  -0.8799  0.01325  -0.002381  0.02683  -0.0337  0.05151  -0.8051
6.485e+09  -0.1121  -0.9303  0.01582  0.00363  -0.002507  0.02066  -0.1944  -0.7578
6.486e+09  -0.4902  -0.8467  0.000655  0.002343  0.04951  0.004502  -0.4765  -0.6012
6.488e+09  -0.7121  -0.6156  -0.04658  0.02996  0.03449  -0.01096  -0.6573  -0.3971
6.489e+09  -0.893  -0.3626  0.03804  -0.00937  0.06168  -0.00181  -0.7756  -0.2347
6.49e+09  -0.9346  -0.0008007  0.005238  -0.02415  -0.01125  -0.004679  -0.7603  0.04784
6.491e+09  -0.8818  0.2818  -0.0145  -0.03254  -0.02706  -0.01019  -0.6582  0.3734
6.492e+09  -0.7444  0.6306  -0.02366  0.003186  -0.0174  -0.004894  -0.5169  0.5468
6.494e+09  -0.4692  0.8502  -0.006342  -0.04977  -0.02024  0.05088  -0.3054  0.706
6.495e+09  -0.1064  0.947  0.01677  -0.01179  0.01201  0.03968  -0.02389  0.747
6.496e+09  0.2017  0.94  -0.01114  -0.03678  -0.01146  -0.0007135  0.1796  0.7241
6.498e+09  0.4714  0.8614  0.02444  -0.06633  0.01929  0.04051  0.4736  0.5809
6.499e+09  0.7428  0.5401  -0.03062  -0.006441  0.02135  -0.04397  0.6347  0.4005
6.5e+09  0.9095  0.2837  0.009355  -0.01598  0.009557  -0.0395  0.767  0.2178
6.501e+09  1.028  -0.04076  0.01914  0.02505  -0.0278  0.003849  0.718  -0.0877
6.502e+09  0.8748  -0.3955  -0.002893  -0.009567  -0.003942  -0.03188  0.6623  -0.3574
6.504e+09  0.6964  -0.6533  -0.008647  0.004395  -0.02392  0.008884  0.4849  -0.5666
6.505e+09  0.4526  -0.8855  0.00328  0.0152  -0.03989  -0.01223  0.289  -0.702
6.506e+09  0.07264  -0.9308  0.007724  0.008355  -0.006744  -0.06145  0.03756  -0.768
6.508e+09  -0.2403  -0.9653  0.02021  0.01002  0.003404  0.04999  -0.2347  -0.7339
6.509e+09  -0.5941  -0.8027  -0.01254  0.02147  0.01756  0.0218  -0.456  -0.6144
6.51e+09  -0.7479  -0.5651  0.05158  -0.0108  0.05386  -0.008358  -0.6278  -0.3415
6.511e+09  -0.9433  -0.1937  0.01144  0.01722  0.05868  0.03251  -0.7721  -0.1428
6.512e+09  -0.9767  0.07866  -0.002197  0.01562  -0.01318  -0.02676  -0.7535  0.1133
6.514e+09  -0.8608  0.4741  0.02653  0.01211  0.00151  0.01498  -0.6824  0.3727
6.515e+09  -0.6526  0.7158  0.03056  0.01628  0.02486  -0.01505  -0.487  0.5766
6.516e+09  -0.4146  0.9006  0.04122  0.03516  0.01261  -0.04727  -0.2592  0.7197
6.518e+09  0.01219  0.9609  0.05  0.01452  -0.02447  0.03529  0.001123  0.7186
6.519e+09  0.2652  0.9208  0.02977  0.03576  -0.005717  0.02948  0.3099  0.6731
6.52e+09  0.539  0.7148  -0.003894  0.01334  -0.01511  -0.0196  0.485  0.5441
6.521e+09  0.845  0.4469  -0.01477  0.007601  -0.03459  -0.03243  0.6696  0.3633
6.522e+09  0.9985  0.1563  0.008278  -0.0174  -0.002412  -0.008957  0.7578  0.09505
6.524e+09  0.9842  -0.1166  0.009205  -0.0004551  -0.02166  -0.05677  0.7082  -0.1782
6.525e+09  0.859  -0.4927  0.01236  0.02094  0.006584  0.05653  0.6178  -0.3772
6.526e+09  0.6652  -0.7603  -0.003651  0.04075  0.04437  0.04978  0.4439  -0.5905
6.528e+09  0.2938  -0.9077  0.006416  -0.0127  0.003518  0.002163  0.1974  -0.6853
6.529e+09  -0.03245  -0.9305  -0.02318  0.02226  0.01774  -0.004404  -0.04667  -0.7211
6.53e+09  -0.3586  -0.9087  -0.01283  0.0464  0.01817  0.02259  -0.2683  -0.6232
6.531e+09  -0.7318  -0.7265  0.02708  -0.0122  -0.01555  0.009383  -0.4623  -0.4944
6.532e+09  -0.8934  -0.4496  -0.001179  0.01765  -0.003881  -0.01419  -0.5958  -0.2814
6.534e+09  -1.01  -0.03609  0.000254  -0.01776  0.009018  -0.03063  -0.6198  -0.05158
6.535e+09  -0.8904  0.2143  -0.0006563  -0.01241  0.001873  -0.01336  -0.6576  0.09279
6.536e+09  -0.8568  0.5425  -0.01784  -0.006732  0.01243  -0.0425  -0.5353  0.294
6.538e+09  -0.5198  0.804  0.02963  0.01792  -0.02106  0.01195  -0.4828  0.4685
6.539e+09  -0.2283  1.018  0.01599  -0.01162  0.00208  0.05651  -0.2803  0.6409
6.54e+09  0.1044  0.9513  0.006453  0.01572  -0.01692  -0.01046  -0.053  0.6895
6.541e+09  0.4207  0.8575  0.005659  -0.01021  0.006564  0.03576  0.2023  0.6536
6.542e+09  0.6796  0.5984  0.0006755  -0.01874  -0.04751  -0.001956  0.4371  0.5721
6.544e+09  0.9123  0.3658  -0.02527  0.008984  -0.00369  0.02917  0.5666  0.4204
6.545e+09  0.9531  0.064  -0.01152  -0.02657  -0.01469  0.06689  0.6842  0.1765
6.546e+09  0.8648  -0.2755  0.002052  -0.03485  -0.003094  0.00531  0.7339  -0.08655
6.548e+09  0.7858  -0.6012  0.01322  -0.02144  -0.02119  0.008471  0.6385  -0.3215
6.549e+09  0.4743  -0.8503  0.02487  0.001391  0.01675  -0.03335  0.4937  -0.5328
6.55e+09  0.1627  -0.9658  0.004719  0.02024  -0.0386  0.03086  0.2868  -0.6935
6.551e+09  -0.1956  -0.9677  -0.02605  -0.01554  -0.02662  -0.05351  0.02433  -0.7329
