# Hz S RI R 50
6.25e+09  -0.1851  0.8228  0.005253  -0.02695  0.02973  0.01882  0.1765  0.4609
6.251e+09  0.1061  0.8566  -0.01108  -0.01344  -0.006157  -0.03007  0.3647  0.4208
6.252e+09  0.469  0.7199  -0.02401  0.005449  0.004943  0.011  0.5428  0.2625
6.254e+09  0.7052  0.5739  -0.006452  -0.003483  -0.01618  0.009257  0.5983  0.009758
6.255e+09  0.7646  0.2806  -0.01817  -0.0342  -0.004014  -0.01552  0.5952  -0.2546
6.256e+09  0.8354  0.0232  0.01908  -0.02355  0.02174  -0.02062  0.4676  -0.4121
6.258e+09  0.7828  -0.3039  0.0008746  0.0485  0.07377  -0.1018  0.2918  -0.6094
6.259e+09  0.5785  -0.5518  0.01891  0.01811  0.01398  0.03242  0.01348  -0.6837
6.26e+09  0.4018  -0.6591  -0.01088  0.01612  -0.01019  0.05878  -0.2426  -0.6843
6.261e+09  0.1284  -0.7831  -0.01439  -0.006371  -0.0152  -0.02848  -0.467  -0.5591
6.262e+09  -0.1363  -0.8389  -0.02601  0.01254  -0.01369  -0.02753  -0.6361  -0.3297
6.264e+09  -0.3932  -0.7906  0.01156  -0.007585  -3.054e-05  0.004049  -0.7148  -0.08299
6.265e+09  -0.6524  -0.5269  0.01644  -0.02466  -0.01546  -0.01378  -0.7254  0.1272
6.266e+09  -0.7612  -0.3453  0.001589  -0.003065  -0.0639  0.05293  -0.6275  0.4076
6.268e+09  -0.8364  -0.00299  0.006281  -0.01338  -0.03579  0.02159  -0.4178  0.6165
6.269e+09  -0.8372  0.2778  0.02703  0.01826  -0.01962  0.0203  -0.1953  0.7146
6.27e+09  -0.6252  0.5139  -0.01257  0.009275  -0.0548  -0.00265  0.08907  0.7402
6.271e+09  -0.3948  0.7117  -0.0353  0.008413  -0.0311  0.003597  0.3306  0.6995
6.272e+09  -0.1696  0.8383  -0.01219  0.01661  -0.004812  -0.04269  0.5423  0.5044
6.274e+09  0.199  0.8185  -0.02351  -0.00912  -0.01342  -0.06785  0.7069  0.3001
6.275e+09  0.4304  0.7241  -0.003536  -0.0359  0.03046  0.05336  0.778  0.03278
6.276e+09  0.6512  0.5602  0.01487  -0.005619  0.0277  -0.02261  0.7404  -0.2067
6.278e+09  0.7154  0.3001  -0.01284  0.02555  0.02384  -0.003429  0.6035  -0.4632
6.279e+09  0.834  -0.01722  -0.03268  0.01705  0.0334  -0.03791  0.4072  -0.6644
6.28e+09  0.8043  -0.307  -0.02622  -0.01575  0.03135  0.0283  0.1842  -0.7318
6.281e+09  0.6294  -0.4727  0.01048  -0.02096  0.02168  -0.01462  -0.1244  -0.7483
6.282e+09  0.3916  -0.731  0.03564  -0.006784  0.02672  -0.02371  -0.3628  -0.6989
6.284e+09  0.1272  -0.8381  0.0136  0.005302  0.03705  -0.02158  -0.6004  -0.529
6.285e+09  -0.228  -0.7916  0.01198  0.005607  -0.02267  -0.0395  -0.7466  -0.3037
6.286e+09  -0.4654  -0.7054  -0.04047  -0.0034  0.009667  -0.01812  -0.7874  -0.03689
6.288e+09  -0.6947  -0.5721  -0.01108  -0.004251  0.01799  -0.04545  -0.7686  0.2534
6.289e+09  -0.8099  -0.2277  0.01752  -0.004176  0.007502  -0.002125  -0.6131  0.5317
6.29e+09  -0.8589  0.03574  0.006033  0.01831  0.02303  0.0154  -0.4068  0.6822
6.291e+09  -0.6739  0.3248  -0.006134  0.0201  -0.01291  -0.01868  -0.1505  0.7809
6.292e+09  -0.619  0.5783  0.01047  0.01982  0.02145  0.004408  0.1265  0.781
6.294e+09  -0.3864  0.7655  -0.01138  0.02363  -0.01794  0.0461  0.4286  0.7397
6.295e+09  -0.07464  0.8369  0.02842  0.009392  0.06691  0.01421  0.6003  0.5519
6.296e+09  0.1859  0.8287  -0.02889  0.01676  0.009437  0.03038  0.7711  0.2516
6.298e+09  0.4952  0.6878  0.01379  0.002897  -0.002543  -0.03462  0.8253  -0.01246
6.299e+09  0.7215  0.501  0.004947  0.003801  0.03066  0.004098  0.819  -0.2785
6.3e+09  0.7958  0.2453  -0.006267  -0.01569  -0.05102  0.0001158  0.6447  -0.5308
6.301e+09  0.8781  -0.09646  -0.004287  -0.007312  -0.0153  -0.04365  0.4041  -0.7146
6.302e+09  0.7763  -0.4026  0.0308  0.02419  0.01646  0.02105  0.1253  -0.8336
6.304e+09  0.5735  -0.5743  0.02602  0.001999  0.03143  0.003874  -0.131  -0.8509
6.305e+09  0.2921  -0.7784  0.03234  -0.01327  0.02432  -0.05284  -0.3794  -0.7378
6.306e+09  0.06713  -0.8496  0.01043  -0.007726  0.02529  0.02195  -0.6567  -0.5239
6.308e+09  -0.3075  -0.7573  0.03232  0.02398  0.04703  0.01903  -0.783  -0.279
6.309e+09  -0.5274  -0.7054  0.00152  -0.02102  0.01762  -0.007729  -0.868  -0.002235
6.31e+09  -0.6882  -0.4595  -0.02763  0.03567  0.03262  -0.01407  -0.786  0.3072
6.311e+09  -0.9046  -0.21  -1.641e-05  0.0128  -0.0009738  0.02433  -0.6524  0.5722
6.312e+09  -0.8294  0.1475  0.03402  0.01363  -0.02463  -0.03505  -0.392  0.7684
6.314e+09  -0.7748  0.4202  0.001542  -0.00538  0.02368  0.01061  -0.1659  0.8362
6.315e+09  -0.5478  0.6517  0.007378  -0.01835  -0.03369  -0.003367  0.1038  0.858
6.316e+09  -0.3062  0.731  0.006334  -0.008208  -0.008527  -0.03332  0.4165  0.7887
6.318e+09  0.01276  0.875  0.005441  -0.002465  0.01226  -0.03484  0.6401  0.5783
6.319e+09  0.2689  0.8014  -0.02706  0.006801  0.005254  -0.01918  0.7937  0.2933
6.32e+09  0.5761  0.6279  -0.007137  0.02104  -0.01303  -0.0245  0.8867  0.00388
6.321e+09  0.7996  0.4263  0.03435  -0.0208  -0.01456  -0.02119  0.8451  -0.305
6.322e+09  0.8741  0.1186  -0.01383  -0.0176  0.004396  -0.02625  0.7128  -0.5655
6.324e+09  0.8371  -0.1867  0.01702  0.007762  -0.01431  -0.01306  0.442  -0.7736
6.325e+09  0.6884  -0.4912  0.01047  -0.01107  -0.02738  0.01036  0.1675  -0.9113
6.326e+09  0.5338  -0.7137  0.02424  -0.01423  0.01656  0.01883  -0.1675  -0.8953
6.328e+09  0.248  -0.7539  -0.001841  -0.01563  0.01659  0.02901  -0.4209  -0.8096
6.329e+09  -0.06676  -0.91  -0.04224  0.001822  0.04535  -0.006013  -0.6834  -0.6396
6.33e+09  -0.3061  -0.7764  0.02573  -0.0206  0.006261  0.00934  -0.8354  -0.312
6.331e+09  -0.5799  -0.613  0.006892  0.01525  0.003715  -0.007191  -0.9272  0.002728
6.332e+09  -0.7523  -0.418  0.01301  0.006178  -0.02014  -0.02863  -0.8277  0.2933
6.334e+09  -0.8605  -0.07762  0.02113  0.02496  0.003507  -0.01684  -0.7284  0.5823
6.335e+09  -0.7858  0.207  -0.001547  -0.0186  0.02013  0.006269  -0.5036  0.7713
6.336e+09  -0.7582  0.4374  0.01424  -6.603e-05  0.005573  0.0004057  -0.1891  0.9202
6.338e+09  -0.5091  0.7008  -0.006422  0.01844  0.007721  -0.002077  0.1392  0.9083
6.339e+09  -0.2501  0.8976  -0.01882  -0.008869  0.02385  0.02914  0.4554  0.8356
6.34e+09  0.105  0.8804  -0.0001451  -0.001547  0.02952  -0.0004123  0.7072  0.6426
6.341e+09  0.3892  0.7671  -0.00713  -0.01558  -0.02191  -0.001871  0.8529  0.3517
6.342e+09  0.6487  0.5811  -0.008  0.008303  0.005363  0.02677  0.9361  0.01015
6.344e+09  0.8194  0.2768  -0.005631  -0.01178  -0.02294  0.006317  0.8998  -0.2672
6.345e+09  0.8791  0.0673  -0.02292  -0.0007108  -0.03872  0.005114  0.7714  -0.5495
6.346e+09  0.8541  -0.2979  -0.001001  0.004685  -0.005709  -0.003183  0.5271  -0.8142
6.348e+09  0.6627  -0.5724  -0.0128  -0.03617  0.02336  -0.01122  0.1743  -0.936
6.349e+09  0.4429  -0.7741  -0.011  0.06544  -0.06392  0.007735  -0.1197  -0.9192
6.35e+09  0.1378  -0.8354  0.009603  0.01116  0.02481  -0.05367  -0.3994  -0.8296
6.351e+09  -0.1708  -0.8799  0.01639  -0.02581  -0.01457  0.02166  -0.6795  -0.6528
6.352e+09  -0.4769  -0.7513  0.001179  -0.01564  -0.003348  0.01373  -0.8652  -0.3553
6.354e+09  -0.7099  -0.5536  -0.01741  -0.03526  0.0007934  0.01554  -0.9446  -0.0605
6.355e+09  -0.8479  -0.2934  -0.02916  0.01384  0.02865  -0.04331  -0.9151  0.2378
6.356e+09  -0.8517  0.05028  -0.01564  -0.0141  0.01442  0.03268  -0.7638  0.5871
6.358e+09  -0.8294  0.3436  -0.01626  0.02814  0.03514  0.01666  -0.5125  0.8033
6.359e+09  -0.6428  0.5765  0.01588  0.02856  -0.01398  0.01661  -0.2033  0.9352
6.36e+09  -0.4114  0.7717  -0.01373  -0.002362  0.06696  0.03296  0.07634  0.9551
6.361e+09  -0.1395  0.8631  -0.02025  -0.009798  0.0186  -0.0006626  0.4139  0.8473
6.362e+09  0.2749  0.8372  -0.01808  0.01439  0.01757  -0.004914  0.6831  0.6331
6.364e+09  0.5134  0.7765  0.03221  0.02291  0.03396  0.02552  0.886  0.4208
6.365e+09  0.7439  0.51  -0.03663  -0.001134  -0.005035  0.003221  0.9288  0.05064
6.366e+09  0.8773  0.2317  0.0228  -0.03357  0.04629  0.007518  0.9236  -0.2127
6.368e+09  0.8738  -0.07429  0.01503  0.01335  0.03099  0.02811  0.7918  -0.5436
6.369e+09  0.8079  -0.4371  0.001283  0.0115  0.008203  0.02106  0.5549  -0.7602
6.37e+09  0.6409  -0.6419  0.001132  -0.02168  0.01461  0.02527  0.2262  -0.9546
6.371e+09  0.3048  -0.7908  0.02448  0.03335  0.01792  0.01873  -0.0546  -0.9507
6.372e+09  0.03464  -0.9454  0.0124  0.02245  0.01388  -0.0248  -0.4078  -0.8406
6.374e+09  -0.2719  -0.8436  0.01185  -0.0584  -0.01836  0.05345  -0.6448  -0.6806
6.375e+09  -0.5818  -0.7373  -0.02146  0.01246  -0.004163  -0.01037  -0.8356  -0.4248
6.376e+09  -0.78  -0.4515  -0.01526  0.03967  0.001651  -0.01345  -0.9409  -0.09545
6.378e+09  -0.9151  -0.1926  0.02693  0.008679  -0.01518  0.02468  -0.9481  0.244
6.379e+09  -0.9354  0.1521  -0.0248  0.008839  0.004941  0.0274  -0.7781  0.5328
6.38e+09  -0.7765  0.4386  0.003919  0.05639  0.03307  0.01693  -0.5497  0.7537
6.381e+09  -0.6244  0.7084  -0.001521  0.01631  0.04363  -0.01766  -0.2708  0.916
6.382e+09  -0.3073  0.8789  -0.01006  -0.007073  -0.002773  -0.03289  0.04673  0.9201
6.384e+09  -0.003558  0.9757  0.01109  -0.01808  -0.002045  -0.02588  0.3628  0.8514
6.385e+09  0.2694  0.8665  -0.006518  0.001462  -0.001102  0.02479  0.6497  0.6525
6.386e+09  0.5726  0.6947  0.01303  -0.02592  -0.02363  -0.03179  0.865  0.4279
6.388e+09  0.7002  0.5032  -0.03219  0.004294  -0.03742  -0.00348  0.9295  0.1118
6.389e+09  0.8648  0.1244  0.007189  0.01432  -0.01229  -0.01401  0.9103  -0.1837
6.39e+09  0.8937  -0.1679  -0.04535  0.04418  -0.01489  0.0002622  0.7871  -0.4789
6.391e+09  0.8028  -0.4333  -0.005966  -0.05157  -0.01712  0.01022  0.5644  -0.6793
6.392e+09  0.5597  -0.6469  0.04163  -0.03851  0.08124  -0.02901  0.2799  -0.8841
6.394e+09  0.3214  -0.8701  -0.01005  0.009592  0.007278  -0.006741  -0.01287  -0.9518
6.395e+09  0.03932  -0.8834  -0.0123  -0.0211  -0.009059  -0.008052  -0.3631  -0.8178
6.396e+09  -0.2964  -0.8376  -0.009922  0.03193  -0.04241  0.02107  -0.6011  -0.7394
6.398e+09  -0.5712  -0.6367  0.01107  -0.001024  0.001643  0.004937  -0.7939  -0.4602
6.399e+09  -0.7791  -0.4327  0.03322  -0.02603  -0.005181  0.002322  -0.8708  -0.1165
6.4e+09  -0.865  -0.09644  0.007406  -0.01474  -0.01485  0.0122  -0.9074  0.185
6.401e+09  -0.8117  0.1818  0.008775  -0.008751  -0.001551  0.02079  -0.776  0.4589
6.402e+09  -0.7878  0.4433  -0.01311  -0.0168  -0.004359  -0.005131  -0.6109  0.7542
6.404e+09  -0.5459  0.6734  -0.02315  0.04554  -0.002174  -0.03357  -0.3208  0.8547
6.405e+09  -0.245  0.8381  0.006503  0.004123  0.04829  -0.03464  0.01637  0.9041
6.406e+09  0.01435  0.8853  0.03248  -0.01741  -0.02334  0.03806  0.3181  0.8594
6.408e+09  0.3495  0.86  0.002894  0.03218  -0.01668  -0.009073  0.5937  0.7582
6.409e+09  0.5839  0.6254  -0.002655  0.01592  0.008024  -0.001428  0.7744  0.5084
6.41e+09  0.794  0.3907  0.02657  -0.006113  -0.01781  -0.05114  0.8652  0.1967
6.411e+09  0.8959  0.1033  0.01344  -0.003969  -0.01979  -0.01  0.8947  -0.1613
6.412e+09  0.884  -0.2072  -0.008725  -0.004192  -0.001997  -0.0488  0.7941  -0.4506
6.414e+09  0.7001  -0.5083  0.04419  0.01107  0.02682  0.03552  0.577  -0.6745
6.415e+09  0.5507  -0.7172  -0.007567  0.03147  0.005954  0.02475  0.3225  -0.8633
6.416e+09  0.2624  -0.8999  -0.01209  -0.02504  -0.003706  -0.002139  0.009265  -0.9048
6.418e+09  -0.03985  -0.8904  0.09067  -0.009572  0.0475  0.01452  -0.2568  -0.8624
6.419e+09  -0.3803  -0.8255  0.03617  -0.01679  -0.01293  0.01774  -0.5378  -0.6901
6.42e+09  -0.6294  -0.6516  -0.01793  0.01828  0.02478  0.01296  -0.727  -0.483
6.421e+09  -0.836  -0.3701  0.02524  -0.03547  0.05053  0.04684  -0.8782  -0.2005
6.422e+09  -0.8458  -0.1068  -0.02148  0.006212  -0.02317  -0.02698  -0.8628  0.1402
6.424e+09  -0.8737  0.2105  0.06175  -0.007447  -0.02168  -0.009448  -0.823  0.3839
6.425e+09  -0.7289  0.5371  -0.01207  0.03176  -0.001701  0.02067  -0.6046  0.6698
6.426e+09  -0.5749  0.7574  0.004072  -0.006245  0.0314  -0.02962  -0.3338  0.7854
6.428e+09  -0.2669  0.9043  -0.0172  0.02921  0.01027  -0.03032  -0.06758  0.8873
6.429e+09  0.085  0.9029  0.02388  -0.008308  0.003156  -0.02382  0.22  0.8705
6.43e+09  0.4091  0.8387  -0.01785  0.02371  -0.05036  0.02398  0.4836  0.7069
6.431e+09  0.5686  0.6431  -0.01361  -0.03912  0.02318  -0.02987  0.7377  0.4821
6.432e+09  0.8494  0.3638  -0.03827  0.02486  0.01364  -0.007692  0.8462  0.154
6.434e+09  0.9261  0.142  -0.02635  0.01225  0.02342  -0.02035  0.8943  -0.1026
6.435e+09  0.8885  -0.2011  -0.02853  0.02846  0.04194  -0.04301  0.7503  -0.3938
6.436e+09  0.7343  -0.5287  -0.001669  0.004984  0.01225  -0.02663  0.5578  -0.6227
6.438e+09  0.5023  -0.744  0.0008853  0.009911  -0.006354  0.01657  0.3278  -0.7644
6.439e+09  0.2557  -0.8951  0.006529  0.01733  0.04028  0.03926  0.07009  -0.851
6.44e+09  -0.07975  -0.8924  -0.03295  0.01466  0.04054  -0.003265  -0.2129  -0.7685
6.441e+09  -0.3756  -0.8396  0.004192  -0.02409  0.05042  0.0239  -0.5302  -0.6976
6.442e+09  -0.6455  -0.6069  -0.04356  -0.008207  -0.008281  0.01982  -0.6649  -0.4775
6.444e+09  -0.8396  -0.3834  0.01893  0.01466  -0.02337  -0.02786  -0.8527  -0.2384
6.445e+09  -0.9244  -0.07032  -0.02228  -0.01629  0.006037  -0.01083  -0.8471  0.04814
6.446e+09  -0.8227  0.2679  -0.04809  0.01173  0.02332  -0.02417  -0.7889  0.3946
6.448e+09  -0.7581  0.4988  0.008666  -0.01385  -0.02442  -0.008817  -0.6385  0.6317
6.449e+09  -0.4972  0.7684  -0.02958  0.02692  -0.02365  0.008288  -0.3578  0.7641
6.45e+09  -0.196  0.8369  -0.01563  0.006074  0.006807  0.007706  -0.06213  0.8206
6.451e+09  0.1313  0.9511  -0.0159  -0.01065  0.002077  0.06945  0.2269  0.8308
6.452e+09  0.4064  0.8555  -0.01897  -0.008978  0.0076  0.02238  0.4747  0.6963
6.454e+09  0.6798  0.6221  0.0002886  0.01577  0.01301  0.03036  0.6824  0.4871
6.455e+09  0.8687  0.3333  -0.01644  0.005296  -0.02866  -0.01242  0.7848  0.1952
6.456e+09  0.8831  -0.02344  -0.01537  -0.03906  -0.0009511  0.03481  0.8073  -0.09768
6.458e+09  0.8917  -0.2475  0.002122  0.008522  0.03854  0.009447  0.7975  -0.3349
6.459e+09  0.7502  -0.5545  -0.0007527  0.009023  -8.06e-05  -0.0165  0.6047  -0.5946
6.46e+09  0.5059  -0.7393  0.008161  -0.006097  -0.01099  -0.001594  0.3399  -0.78
6.461e+09  0.1639  -0.9127  0.02186  -0.005622  0.00331  0.01543  0.08431  -0.816
6.462e+09  -0.08736  -0.8198  -0.04764  0.01748  0.04016  -0.02517  -0.2101  -0.7872
6.464e+09  -0.3993  -0.8291  0.02787  -0.01375  -0.01344  -0.04224  -0.4544  -0.6521
6.465e+09  -0.68  -0.6289  0.02291  0.01244  0.002719  0.003991  -0.6854  -0.4887
6.466e+09  -0.8167  -0.3595  0.001222  0.03081  0.05845  -0.01834  -0.7833  -0.2172
6.468e+09  -0.9206  0.00335  0.009473  0.01994  -0.01414  0.07935  -0.7711  0.1221
6.469e+09  -0.9044  0.2637  0.004881  -0.01878  -0.04189  -0.00866  -0.7059  0.3492
6.47e+09  -0.7224  0.5826  -0.009417  0.02743  0.02304  0.06761  -0.5333  0.6092
6.471e+09  -0.4637  0.81  -0.009038  -0.006862  -0.02659  -0.03137  -0.3366  0.7535
6.472e+09  -0.151  0.9304  0.04821  0.02298  -0.01421  0.0179  -0.09612  0.8128
6.474e+09  0.159  0.9101  0.001059  -0.0206  0.008096  0.008223  0.2253  0.7787
6.475e+09  0.4228  0.7828  -0.007876  0.02352  0.01961  0.01113  0.431  0.6543
6.476e+09  0.7337  0.5871  -0.01339  0.03448  0.003589  -0.0231  0.649  0.4156
6.478e+09  0.8491  0.3251  -0.01034  -0.02028  -0.05005  0.0131  0.7357  0.1863
6.479e+09  0.9705  0.0137  -0.0007652  0.00668  0.01336  -0.03932  0.7899  -0.02432
6.48e+09  0.8651  -0.3179  -0.02277  0.0269  -0.00151  -0.02597  0.6773  -0.3451
6.481e+09  0.7212  -0.5974  -0.004693  -0.01441  0.002794  -0.00672  0.5064  -0.5748
6.482e+09  0.4044  -0.8528  -0.04595  -0.01045  -0.006069  -0.03564  0.3218  -0.6654
6.484e+09  0.1279  -0.8953  0.009836  0.005141  0.0161  0.005973  0.09558  -0.7862
6.485e+09  -0.1749  -0.9358  0.006466  0.02461  -0.02101  -0.01729  -0.2213  -0.7402
6.486e+09  -0.5317  -0.7562  0.01141  0.007885  0.005431  -0.007044  -0.4565  -0.6106
6.488e+09  -0.7516  -0.5963  0.03949  -0.05073  0.02239  0.01262  -0.6393  -0.4225
6.489e+09  -0.9256  -0.3522  -0.01402  -0.04249  0.01437  0.04595  -0.8047  -0.1546
6.49e+09  -0.9724  0.05909  -0.01385  0.005062  0.008084  -0.02887  -0.7618  0.08255
6.491e+09  -0.8918  0.3874  -0.02825  0.03565  0.02089  0.03384  -0.6868  0.3866
6.492e+09  -0.7288  0.7007  -0.01179  -0.0006566  0.03743  -0.04014  -0.5426  0.5933
6.494e+09  -0.4504  0.8997  -0.01195  -0.03729  0.01651  -0.04036  -0.3054  0.6937
6.495e+09  -0.07993  0.9242  -0.007641  -0.02756  -0.04908  -0.01337  -0.05823  0.8144
6.496e+09  0.2568  0.9212  0.01276  -0.009453  -0.00447  0.02739  0.1895  0.7239
6.498e+09  0.5556  0.8243  0.03295  -0.01015  0.009745  -0.009805  0.4492  0.5869
6.499e+09  0.7797  0.507  -0.0008523  0.02746  0.0008869  -0.04483  0.666  0.4306
6.5e+09  0.9315  0.2436  0.006632  -0.002011  0.01417  0.02077  0.763  0.1972
6.501e+09  0.9725  -0.1145  -0.02542  0.03128  -0.04075  0.01189  0.7876  -0.114
6.502e+09  0.906  -0.4669  0.01501  -0.02337  0.01572  -0.01806  0.6636  -0.3063
6.504e+09  0.6916  -0.7115  -0.03094  -0.01323  0.03489  0.005259  0.5051  -0.5951
6.505e+09  0.3497  -0.8813  -0.0299  -0.0004386  0.01887  -0.04721  0.2964  -0.75
6.506e+09  0.059  -0.9583  -0.02146  0.02362  -0.01648  -0.0003594  0.03628  -0.8154
6.508e+09  -0.3089  -0.9255  0.005011  -0.03014  -0.03861  0.005753  -0.2398  -0.737
6.509e+09  -0.6039  -0.7781  0.03579  -0.007561  -0.004592  0.008461  -0.5253  -0.5869
6.51e+09  -0.8189  -0.549  0.00334  -0.005268  -0.02513  0.001278  -0.6657  -0.3843
6.511e+09  -0.9869  -0.117  -0.01892  0.01471  0.06144  0.008357  -0.7479  -0.1244
6.512e+09  -0.9406  0.1905  -0.02914  0.01221  0.0118  0.005662  -0.7106  0.1878
6.514e+09  -0.8692  0.4429  -0.03381  -0.01425  0.001619  -0.06396  -0.6836  0.3292
6.515e+09  -0.5789  0.8047  0.02818  -0.01491  -0.03461  -0.02439  -0.484  0.5814
6.516e+09  -0.3678  0.9327  0.01724  0.01981  0.01172  0.05008  -0.265  0.6651
6.518e+09  -0.036  0.8849  -0.003122  0.02155  -0.02989  0.009258  -0.002593  0.7404
6.519e+09  0.3864  0.9376  0.01115  0.01924  0.0202  0.006486  0.2984  0.6726
6.52e+09  0.641  0.7534  0.01708  0.01671  0.03324  0.0008079  0.4986  0.5628
6.521e+09  0.9293  0.4579  -0.01526  -0.02378  -0.04777  0.01899  0.646  0.3551
6.522e+09  0.9835  0.0988  0.0288  0.01524  -0.01113  -0.0008102  0.6831  0.08198
6.524e+09  0.9565  -0.2281  -0.01178  -0.00171  -0.03133  -0.01759  0.7145  -0.1395
6.525e+09  0.7568  -0.5706  -0.03685  0.01961  -0.0283  -0.03701  0.5857  -0.3876
6.526e+09  0.5356  -0.7862  -0.01364  0.003721  -0.06007  -0.005499  0.3707  -0.5708
6.528e+09  0.2364  -0.9683  -0.02943  0.007721  -0.04454  -0.04197  0.1999  -0.6898
6.529e+09  -0.06881  -0.9785  -0.02296  -0.00231  0.03102  0.03853  -0.03781  -0.6588
6.53e+09  -0.4174  -0.8596  0.01022  0.003995  0.0002577  0.001111  -0.2891  -0.6487
6.531e+09  -0.7197  -0.6627  0.000786  0.004591  0.02053  0.05494  -0.4726  -0.4551
6.532e+09  -0.8797  -0.3567  0.01544  -0.03167  -0.007134  0.03478  -0.6082  -0.2532
6.534e+09  -0.9422  0.01173  0.01075  0.01318  0.04408  0.04367  -0.6422  -0.08848
6.535e+09  -0.9122  0.2886  -0.03143  0.0009507  -0.0402  0.003823  -0.6301  0.106
6.536e+09  -0.7412  0.6297  0.006585  0.01259  0.01349  0.05616  -0.5815  0.31
6.538e+09  -0.4513  0.8628  -0.00198  0.009598  0.01088  -0.03937  -0.4976  0.4705
6.539e+09  -0.1473  0.9859  -0.01196  -0.00234  -0.008324  -0.01158  -0.2719  0.6227
6.54e+09  0.2134  0.9513  0.01  -0.007271  0.01151  0.01542  -0.03108  0.6775
6.541e+09  0.5026  0.8051  -0.02451  -0.008995  0.06198  0.0161  0.2112  0.6833
6.542e+09  0.7495  0.5517  -0.009354  -0.01197  0.003645  -0.0098  0.4054  0.574
6.544e+09  0.888  0.2976  0.02362  -0.02757  -0.04194  0.002706  0.5997  0.4069
6.545e+09  0.9193  -0.09823  0.007245  0.0008351  -0.07832  -0.01009  0.7064  0.1597
6.546e+09  0.8321  -0.3719  -0.002954  -0.01019  -0.02484  -0.0312  0.7164  -0.0968
6.548e+09  0.6801  -0.6961  0.05006  -0.0002414  -0.0224  0.03271  0.6341  -0.3066
6.549e+09  0.4121  -0.8461  0.02911  0.02549  0.03061  -0.02775  0.5148  -0.5493
6.55e+09  0.03712  -0.9352  0.007391  0.003494  -0.01772  -0.01133  0.264  -0.6836
