# Hz S RI R 50
6.25e+09  -0.2235  0.8125  0.01413  -0.007671  0.01826  0.04211  0.1677  0.5052
6.251e+09  0.06737  0.8497  0.02449  0.01407  0.02286  -0.003644  0.3747  0.4504
6.252e+09  0.3435  0.7532  -0.01343  -0.02414  0.03603  0.04056  0.5556  0.2211
6.254e+09  0.609  0.5974  0.003545  0.002814  -0.0187  -0.005946  0.5989  0.03218
6.255e+09  0.761  0.3785  0.00843  0.01241  0.02766  0.03837  0.5958  -0.2245
6.256e+09  0.8794  0.08956  -0.03008  0.006107  -0.01229  0.05693  0.4902  -0.4334
6.258e+09  0.8644  -0.1947  0.003122  0.03268  -0.02256  0.05563  0.2646  -0.6135
6.259e+09  0.6997  -0.4899  -0.03656  -0.01112  -0.031  -0.001235  0.03022  -0.6693
6.26e+09  0.4578  -0.6933  0.0002148  0.0001134  -0.005747  -0.05938  -0.214  -0.6438
6.261e+09  0.2166  -0.7832  -0.008439  -0.00613  -0.02835  -0.02081  -0.4585  -0.5284
6.262e+09  -0.06036  -0.8116  0.008864  0.008929  -0.03007  -0.03892  -0.6375  -0.3472
6.264e+09  -0.3696  -0.7897  0.02171  0.004014  -0.02488  0.005594  -0.6928  -0.1104
6.265e+09  -0.5966  -0.5854  0.0001485  0.01703  0.01335  -0.02252  -0.6952  0.1349
6.266e+09  -0.7404  -0.3418  0.02487  -0.007777  -0.03195  -0.01597  -0.5887  0.4362
6.268e+09  -0.8331  -0.02059  0.01508  -0.00234  0.0516  -0.02075  -0.4486  0.5965
6.269e+09  -0.7944  0.2156  0.02216  -0.005129  -0.001801  0.02231  -0.1878  0.7147
6.27e+09  -0.7321  0.512  0.0152  0.002816  0.01843  0.01689  0.09004  0.7668
6.271e+09  -0.4268  0.7142  0.01377  -0.006359  -0.04807  -0.03901  0.3208  0.6431
6.272e+09  -0.1891  0.8406  0.01806  0.008579  0.01867  -0.003929  0.5685  0.5545
6.274e+09  0.02219  0.8749  -0.04249  -0.02616  -0.03993  -0.03168  0.6882  0.3062
6.275e+09  0.361  0.7219  0.008321  0.002152  0.01233  0.0736  0.7382  0.02109
6.276e+09  0.6049  0.5284  0.00273  -0.0008483  -0.0006164  -0.01706  0.7487  -0.2381
6.278e+09  0.7758  0.281  -0.03498  -0.01888  0.02489  0.03843  0.5887  -0.471
6.279e+09  0.8787  0.03377  0.02667  0.002842  -0.03463  0.02806  0.3977  -0.6712
6.28e+09  0.8021  -0.3004  -0.004354  -0.004609  -0.009579  -0.02148  0.1815  -0.7634
6.281e+09  0.6783  -0.4658  -0.001404  -0.003309  0.005165  -0.008955  -0.09727  -0.7731
6.282e+09  0.4297  -0.6988  -0.003089  0.01769  0.02023  -0.02571  -0.3696  -0.6898
6.284e+09  0.2354  -0.7876  0.01856  0.01281  0.02241  0.005208  -0.5975  -0.5019
6.285e+09  -0.1328  -0.8351  -0.0128  -0.004938  -0.006778  -0.002246  -0.774  -0.269
6.286e+09  -0.4109  -0.7486  0.02604  0.03205  -0.02888  -0.007725  -0.7912  -0.02428
6.288e+09  -0.6634  -0.5701  -0.01356  -0.001342  0.00358  -0.02078  -0.712  0.2444
6.289e+09  -0.7672  -0.3106  -0.02523  -0.02754  -0.01113  -0.02987  -0.6322  0.5228
6.29e+09  -0.813  0.01075  0.009205  0.01461  0.04642  0.02203  -0.3931  0.6908
6.291e+09  -0.7649  0.305  0.01662  0.002166  -0.04066  -0.005581  -0.1343  0.7929
6.292e+09  -0.6327  0.5175  0.04086  0.02151  0.02617  0.0006577  0.1154  0.8122
6.294e+09  -0.4312  0.6812  0.005225  0.01146  0.04702  0.02829  0.3823  0.6906
6.295e+09  -0.1173  0.8291  -0.03489  0.01355  0.05726  0.00821  0.6145  0.5353
6.296e+09  0.1735  0.8775  -0.003705  -0.001088  -0.009649  -0.01098  0.7741  0.3165
6.298e+09  0.3734  0.692  -0.00975  0.02046  0.03451  -0.01131  0.8412  0.001635
6.299e+09  0.7139  0.509  -0.00681  0.03835  -0.01303  0.004258  0.7758  -0.248
6.3e+09  0.8361  0.3229  -0.0007757  -0.01056  0.008744  0.007228  0.6393  -0.5248
6.301e+09  0.8261  0.02985  -0.02936  0.001853  -0.01036  -0.01445  0.4489  -0.7286
6.302e+09  0.8352  -0.3118  -0.01972  -0.01984  -0.01946  -0.01328  0.2037  -0.8173
6.304e+09  0.6402  -0.576  -0.008541  0.01142  -0.01869  0.06267  -0.1287  -0.8394
6.305e+09  0.3878  -0.7078  0.01248  0.01207  -0.02846  -0.00325  -0.4186  -0.7237
6.306e+09  0.08328  -0.8257  0.02014  -0.03362  0.06398  -0.001421  -0.6532  -0.55
6.308e+09  -0.2046  -0.8263  0.01695  -0.004225  -0.006103  -0.01497  -0.8029  -0.2912
6.309e+09  -0.4927  -0.6999  -0.01577  -0.01164  -0.02893  -0.0224  -0.8692  0.006467
6.31e+09  -0.6541  -0.4924  0.01607  0.02256  -0.02046  -0.001076  -0.7767  0.2616
6.311e+09  -0.8125  -0.253  0.02821  -0.003246  -0.006254  -0.00121  -0.6614  0.5389
6.312e+09  -0.8627  0.02343  -0.02418  0.01774  0.006216  0.04263  -0.4586  0.7282
6.314e+09  -0.7987  0.3461  0.02151  -0.0459  -0.01915  -0.005632  -0.1997  0.8936
6.315e+09  -0.6274  0.5731  0.01903  0.02617  -0.01139  0.02847  0.1322  0.8685
6.316e+09  -0.4035  0.7243  -0.006104  0.01111  0.0184  -0.08337  0.4629  0.7339
6.318e+09  -0.06286  0.8772  0.03224  0.02801  -0.02629  -0.01609  0.6664  0.5654
6.319e+09  0.2289  0.7924  -0.03858  -0.01348  -0.001526  -3.604e-05  0.8095  0.3126
6.32e+09  0.463  0.6969  -0.0006985  -1.722e-05  0.01234  0.01328  0.8894  0.02307
6.321e+09  0.6653  0.4704  0.00845  -0.02488  -0.005508  -0.001825  0.8292  -0.2884
6.322e+09  0.8206  0.145  0.01172  0.0079  -0.01079  0.05803  0.7067  -0.5457
6.324e+09  0.8404  -0.06092  0.0212  0.03345  0.007537  -0.01221  0.4699  -0.7511
6.325e+09  0.7796  -0.4572  0.005609  0.03535  0.03168  -0.006705  0.1576  -0.8687
6.326e+09  0.5833  -0.652  -0.002934  0.004031  -0.03161  0.006573  -0.1592  -0.8885
6.328e+09  0.3228  -0.881  -0.02925  0.02307  -0.02437  -0.02159  -0.4286  -0.7625
6.329e+09  -0.009851  -0.9012  0.02013  -0.005289  0.01277  -0.02402  -0.6779  -0.5915
6.33e+09  -0.2684  -0.8102  0.002259  -0.007506  -0.004488  -0.008648  -0.8495  -0.3264
6.331e+09  -0.5565  -0.6984  -0.03645  0.01761  -0.02122  -0.01351  -0.9479  -0.05069
6.332e+09  -0.7747  -0.3748  0.0117  -0.02204  -0.02148  -0.04203  -0.8735  0.2689
6.334e+09  -0.8911  -0.1814  0.03321  0.01947  -0.004288  0.01303  -0.749  0.576
6.335e+09  -0.8191  0.1304  0.006905  -0.01059  -0.0143  0.05729  -0.4606  0.7206
6.336e+09  -0.7802  0.48  -0.002782  -0.0126  -0.006538  0.06283  -0.1914  0.9067
6.338e+09  -0.5802  0.6554  -0.003009  0.004822  0.01852  0.007318  0.09435  0.9386
6.339e+09  -0.3318  0.8729  0.01237  0.005581  -0.02111  0.04739  0.432  0.8018
6.34e+09  0.04385  0.9042  -0.001117  0.0248  -0.05158  0.008667  0.7099  0.6246
6.341e+09  0.2999  0.7793  0.007978  0.004739  0.01394  0.02661  0.8483  0.3475
6.342e+09  0.5982  0.6614  0.02131  0.01074  0.01816  -0.01269  0.9146  0.09451
6.344e+09  0.7519  0.3379  -0.006485  -0.0381  0.04642  -0.004514  0.9234  -0.2571
6.345e+09  0.8625  0.07145  -0.02888  -0.02279  -0.01495  0.004241  0.765  -0.5517
6.346e+09  0.8855  -0.2093  0.008088  -0.0008574  0.009212  -0.002157  0.4962  -0.7843
6.348e+09  0.7494  -0.4805  0.005169  -0.003789  0.01266  -0.01867  0.2158  -0.9072
6.349e+09  0.5244  -0.7293  -0.009281  -0.005916  -0.01677  0.0107  -0.1181  -0.92
6.35e+09  0.2181  -0.858  0.005213  -0.006765  -0.03345  -0.004578  -0.4393  -0.856
6.351e+09  -0.1047  -0.857  0.002538  -0.02946  0.01168  0.01303  -0.648  -0.618
6.352e+09  -0.4045  -0.7988  0.02852  -0.02329  0.05003  0.003458  -0.8615  -0.4029
6.354e+09  -0.6703  -0.6122  -0.0122  0.02754  -0.03177  -0.02675  -0.966  -0.02124
6.355e+09  -0.8314  -0.3642  0.01196  0.001993  -0.006231  -0.03244  -0.9112  0.2391
6.356e+09  -0.8541  -0.03057  -0.01385  -0.02576  -0.02311  -0.03434  -0.766  0.5346
6.358e+09  -0.8238  0.2632  -0.01261  -0.01155  0.006355  -0.01343  -0.5352  0.7779
6.359e+09  -0.7344  0.5351  0.02459  -0.002605  -0.015  0.0113  -0.2151  0.946
6.36e+09  -0.4754  0.7773  -0.001698  -0.0129  0.02029  -0.06498  0.1068  0.9381
6.361e+09  -0.1772  0.8673  -0.004533  0.003785  0.0225  -0.01187  0.4418  0.8583
6.362e+09  0.1498  0.8685  0.0154  0.01152  -0.01801  -0.05096  0.679  0.6839
6.364e+09  0.3952  0.7597  -0.02694  0.02129  0.05949  0.01369  0.8771  0.3637
6.365e+09  0.6742  0.5707  -0.03811  0.02194  -0.01618  -0.01941  0.9643  0.07634
6.366e+09  0.8689  0.2942  -0.02286  -0.0172  0.04614  0.0183  0.938  -0.2496
6.368e+09  0.8855  -0.0155  0.005522  0.03011  0.06614  0.01851  0.7718  -0.5704
6.369e+09  0.84  -0.3082  -0.02977  -0.03111  -0.0004432  -0.0205  0.5129  -0.8237
6.37e+09  0.6906  -0.5533  0.0277  0.01307  -0.01987  -0.01625  0.2394  -0.9107
6.371e+09  0.4449  -0.7495  -0.01219  -0.01588  0.03387  -0.002327  -0.1175  -0.961
6.372e+09  0.1134  -0.8889  -0.01984  0.01851  0.01005  0.01669  -0.4032  -0.833
6.374e+09  -0.2201  -0.8748  -0.0167  0.003572  -0.006712  0.008839  -0.6763  -0.6633
6.375e+09  -0.4479  -0.7826  0.01093  -0.01115  -0.01296  -0.05441  -0.9096  -0.4188
6.376e+09  -0.7037  -0.5809  -0.006844  -0.02  0.03969  -0.001907  -0.9504  -0.05687
6.378e+09  -0.8612  -0.2545  -0.002154  0.004621  0.07468  -0.009515  -0.9295  0.1931
6.379e+09  -0.8845  0.06924  -0.004122  0.03486  0.02558  0.02535  -0.7615  0.5082
6.38e+09  -0.8172  0.4135  0.03595  -0.02667  0.008026  0.03221  -0.5491  0.7478
6.381e+09  -0.6533  0.6215  -0.03353  -0.03513  -0.01724  -0.02221  -0.1884  0.9068
6.382e+09  -0.4353  0.8013  0.007654  -0.03042  -0.02474  0.02914  0.04612  0.9224
6.384e+09  -0.09722  0.8771  -0.01208  -0.02754  -0.01118  0.01209  0.3738  0.8502
6.385e+09  0.1995  0.8694  -0.004721  0.0613  0.02138  -0.02031  0.6741  0.6726
6.386e+09  0.4533  0.7573  -0.0325  0.01992  0.002876  0.007439  0.8404  0.409
6.388e+09  0.7832  0.5391  0.006662  -0.01787  -0.02366  -0.01107  0.9367  0.1345
6.389e+09  0.9019  0.2257  0.01128  -0.01712  -0.03217  0.01831  0.933  -0.2233
6.39e+09  0.8812  -0.08173  -0.004126  -0.001848  0.0541  -0.03005  0.7413  -0.4963
6.391e+09  0.8283  -0.3979  0.01563  0.01154  0.02517  0.02718  0.5646  -0.7608
6.392e+09  0.6455  -0.6403  0.002458  -0.05757  0.0266  -0.0226  0.3187  -0.8738
6.394e+09  0.3972  -0.8352  -0.02086  -0.04147  0.007844  -0.01172  -0.02395  -0.9716
6.395e+09  0.05113  -0.9489  0.031  -0.02672  -0.01843  0.005252  -0.3713  -0.8364
6.396e+09  -0.2644  -0.8682  0.0465  -0.001349  0.01364  0.02472  -0.6144  -0.6792
6.398e+09  -0.5418  -0.7533  -0.02647  -0.001214  -0.006256  -0.008625  -0.8047  -0.4962
6.399e+09  -0.732  -0.4684  0.03629  -0.01001  0.003117  0.02885  -0.904  -0.1462
6.4e+09  -0.8452  -0.2303  0.01399  0.03012  0.01136  -0.0378  -0.8929  0.1751
6.401e+09  -0.8796  0.07188  0.002357  -0.002661  0.009323  -0.008583  -0.8255  0.4973
6.402e+09  -0.7923  0.413  -0.003595  -0.01002  -0.0706  0.02052  -0.5867  0.7447
6.404e+09  -0.6443  0.6311  -0.008719  0.0588  -0.002777  0.01398  -0.2852  0.8685
6.405e+09  -0.3529  0.809  -0.004483  0.006461  0.007183  0.03086  -0.0344  0.9352
6.406e+09  -0.03921  0.8707  -0.03578  0.006132  -0.04796  -0.01349  0.3435  0.8945
6.408e+09  0.2636  0.8524  -0.01224  -0.007044  -0.02481  0.008144  0.6457  0.7347
6.409e+09  0.5502  0.6885  0.03701  0.003729  0.007779  -0.02106  0.8161  0.4295
6.41e+09  0.7254  0.5059  0.01292  0.01374  -0.02784  -0.02418  0.8859  0.2141
6.411e+09  0.8786  0.1944  0.006386  -0.05271  0.0104  0.02628  0.9309  -0.1369
6.412e+09  0.8744  -0.139  0.009555  0.01315  -0.03383  0.02013  0.811  -0.4225
6.414e+09  0.8046  -0.4226  -0.01141  0.02738  -0.01066  0.01119  0.5748  -0.6825
6.415e+09  0.6074  -0.6353  0.004023  -0.006737  0.0356  -0.02687  0.2918  -0.8466
6.416e+09  0.3035  -0.8152  -0.003299  0.03962  0.01081  -0.002594  -0.002818  -0.8822
6.418e+09  0.07272  -0.8572  0.006505  -0.01951  0.007517  -0.03506  -0.2527  -0.8275
6.419e+09  -0.3007  -0.8509  -0.03132  -0.00319  0.0006899  -0.05398  -0.5565  -0.6836
6.42e+09  -0.5503  -0.675  0.0007157  -0.02662  -0.0661  -0.02097  -0.7493  -0.4247
6.421e+09  -0.7945  -0.4834  0.0009867  0.02857  0.02512  0.008311  -0.8781  -0.1833
6.422e+09  -0.879  -0.1725  -0.002618  -0.02164  -0.006237  -0.03315  -0.8739  0.1489
6.424e+09  -0.8972  0.1247  -0.04458  0.002885  0.01347  -0.06047  -0.8482  0.3322
6.425e+09  -0.7783  0.4845  -0.01964  0.008884  -0.02136  -0.0003605  -0.5973  0.64
6.426e+09  -0.5559  0.6687  -3.965e-06  0.02677  -0.007617  -0.02548  -0.3421  0.7758
6.428e+09  -0.3454  0.8611  -0.005248  0.04136  -0.02762  -0.007847  -0.08824  0.8927
6.429e+09  -0.03312  0.8835  0.01015  0.04173  0.01635  -0.03355  0.2736  0.8698
6.43e+09  0.3262  0.9136  0.02493  -0.005441  0.02016  0.01759  0.5157  0.6895
6.431e+09  0.5663  0.7033  0.01934  0.002589  0.007335  0.01202  0.7165  0.4748
6.432e+09  0.7742  0.4681  0.02566  -0.0001213  0.01594  0.007544  0.8209  0.2114
6.434e+09  0.8964  0.1184  -0.008092  -0.02102  -0.04811  0.006139  0.8645  -0.08536
6.435e+09  0.88  -0.1555  -0.02887  0.01253  0.01203  -0.004588  0.7927  -0.3644
6.436e+09  0.8038  -0.4196  -7.765e-05  0.05319  0.007535  0.01061  0.6064  -0.6123
6.438e+09  0.5839  -0.6464  -0.02655  -0.004652  0.00216  -0.02643  0.3685  -0.8063
6.439e+09  0.2956  -0.8523  -0.02495  -0.002903  -0.01152  -0.004214  0.06451  -0.8803
6.44e+09  -0.02257  -0.961  0.006465  0.02192  -0.03276  0.003215  -0.2561  -0.835
6.441e+09  -0.323  -0.8126  0.01487  -0.004696  0.02721  0.0636  -0.4778  -0.6514
6.442e+09  -0.5878  -0.7013  0.05819  -0.01717  -0.03653  0.03123  -0.685  -0.4734
6.444e+09  -0.8094  -0.4072  -0.01024  0.02295  0.03045  0.01562  -0.829  -0.2022
6.445e+09  -0.9083  -0.1826  0.01589  0.03091  0.007133  0.03062  -0.8447  0.1087
6.446e+09  -0.8844  0.1776  -0.01417  0.002691  0.006089  0.009982  -0.7947  0.3758
6.448e+09  -0.7552  0.5119  -0.04916  -0.006613  -0.02089  -0.02858  -0.6022  0.552
6.449e+09  -0.5775  0.6827  0.03461  -0.01342  -0.008802  -0.02456  -0.3583  0.7752
6.45e+09  -0.2554  0.8908  -0.01325  0.03908  -0.0246  -0.002297  -0.06867  0.8078
6.451e+09  0.0578  0.8683  -0.0387  -0.01555  0.03979  0.00934  0.2194  0.7956
6.452e+09  0.3426  0.8171  -0.01755  -0.001404  0.02416  -0.01431  0.4806  0.6421
6.454e+09  0.6494  0.6985  0.03817  0.02192  0.03961  0.03105  0.6894  0.5212
6.455e+09  0.7818  0.4265  0.04281  0.01018  -0.01787  -0.001387  0.7652  0.1974
6.456e+09  0.9177  0.08516  0.0233  -0.002803  0.022  0.009813  0.8092  -0.06006
6.458e+09  0.898  -0.1512  -0.02133  -0.003774  -0.004922  -0.002427  0.7352  -0.3582
6.459e+09  0.8298  -0.5426  -0.03061  -0.03749  -0.03032  0.03248  0.5768  -0.5698
6.46e+09  0.5627  -0.7551  -0.0238  0.0264  0.0192  0.05026  0.3273  -0.7276
6.461e+09  0.2866  -0.867  -0.001649  -0.005598  -0.01112  -0.01599  0.09982  -0.8287
6.462e+09  -0.06949  -0.9481  0.02367  0.01874  0.002914  0.002754  -0.2498  -0.8069
6.464e+09  -0.3163  -0.8796  -0.03612  0.01885  -0.01639  -0.02105  -0.4559  -0.6407
6.465e+09  -0.6459  -0.718  -0.01213  0.01736  -0.06726  -0.03774  -0.6217  -0.4537
6.466e+09  -0.8072  -0.4234  -0.03391  0.0001121  -0.004851  0.05037  -0.7589  -0.1988
6.468e+09  -0.9336  -0.09981  -0.004004  -0.02935  -0.06167  -0.000838  -0.8038  0.04676
6.469e+09  -0.9152  0.2134  0.009053  -0.01036  -0.004388  -0.0178  -0.7042  0.3045
6.47e+09  -0.7557  0.5752  0.04483  -0.07442  -0.03726  -0.01055  -0.563  0.5484
6.471e+09  -0.5466  0.76  0.005368  0.01352  0.008016  -0.005968  -0.3482  0.6651
6.472e+09  -0.3365  0.898  -0.01879  -0.002363  0.01418  0.002122  -0.02666  0.7907
6.474e+09  0.0123  0.9699  0.0301  -0.01303  0.04185  -0.006527  0.2371  0.7322
6.475e+09  0.3804  0.89  0.03725  -0.02319  -0.02422  0.08164  0.43  0.6455
6.476e+09  0.6709  0.6773  -0.02853  -0.01086  -0.003848  -0.01573  0.6745  0.4791
6.478e+09  0.8422  0.4241  -0.02047  0.02157  0.009767  -0.0003831  0.7818  0.1626
6.479e+09  0.9295  0.09971  -0.009606  -0.0318  -0.03071  -0.002938  0.7723  -0.07248
6.48e+09  0.9449  -0.2296  0.00512  0.003412  -0.03602  0.0203  0.7241  -0.3235
6.481e+09  0.7816  -0.5141  0.0184  -0.001885  -0.06279  0.02231  0.5612  -0.5673
6.482e+09  0.5108  -0.7313  -0.0001535  0.02709  -0.03784  0.02785  0.3188  -0.7014
6.484e+09  0.2645  -0.9529  0.02324  0.01355  -0.02689  -0.002467  0.06243  -0.7832
6.485e+09  -0.1327  -0.9233  0.02484  0.01997  0.01013  -0.01808  -0.1864  -0.744
6.486e+09  -0.4082  -0.7935  -0.01199  0.04609  0.06301  -0.01086  -0.4618  -0.6361
6.488e+09  -0.6888  -0.6528  0.003371  0.005105  0.009208  -0.01639  -0.6371  -0.4442
6.489e+09  -0.8502  -0.3006  0.01937  0.02118  -0.006083  -0.01105  -0.7508  -0.2041
6.49e+09  -0.9772  -0.06807  -0.002275  -0.001355  -0.08007  -0.004235  -0.7912  0.1203
6.491e+09  -0.9072  0.3117  0.03662  -0.01128  -0.02632  0.02484  -0.6981  0.3311
6.492e+09  -0.8049  0.6067  0.02583  0.009167  -0.0124  -0.02592  -0.5201  0.5637
6.494e+09  -0.5699  0.8729  -0.002086  0.01098  -0.004663  -0.02565  -0.2985  0.7003
6.495e+09  -0.1942  0.9846  0.009306  -0.04968  -0.009038  -0.0007939  -0.05863  0.7681
6.496e+09  0.1811  0.9344  0.005937  0.003345  0.0005863  -0.0009599  0.2092  0.726
6.498e+09  0.4616  0.8542  -0.02216  -0.00999  0.03566  0.01088  0.4742  0.6138
6.499e+09  0.6664  0.6738  -0.02749  -0.01426  -0.001243  -0.02302  0.6579  0.382
6.5e+09  0.8749  0.3523  -0.01231  -0.007623  0.02423  0.02968  0.7404  0.1638
6.501e+09  0.9369  0.082  -0.01633  0.02145  -0.008875  -0.05975  0.7842  -0.07982
6.502e+09  0.9219  -0.2943  -0.002369  -0.01057  -0.01368  0.01052  0.6593  -0.3564
6.504e+09  0.7268  -0.6257  -0.04175  -0.004903  0.03739  -0.03968  0.5199  -0.5776
6.505e+09  0.4326  -0.8766  -0.00292  0.02124  0.002597  0.03405  0.2776  -0.6837
6.506e+09  0.1561  -0.9546  -0.02239  -0.01689  0.004469  0.03173  0.04315  -0.7403
6.508e+09  -0.09685  -0.9742  -0.001859  -0.01723  -0.003148  -0.03094  -0.2876  -0.7083
6.509e+09  -0.4813  -0.8514  0.01803  -0.00352  0.04518  -0.03379  -0.4696  -0.5902
6.51e+09  -0.7708  -0.6576  -0.006223  -0.007577  -0.03815  -0.004152  -0.6166  -0.3912
6.511e+09  -0.8823  -0.2678  0.02844  0.01406  0.004216  0.014  -0.7279  -0.1436
6.512e+09  -0.8855  -0.003377  -0.01981  -0.005151  0.0116  -0.0141  -0.7636  0.1444
6.514e+09  -0.8609  0.365  -0.008018  0.006961  -0.02683  0.02034  -0.6346  0.409
6.515e+09  -0.6925  0.6374  -0.04275  -0.03223  -0.01205  -0.01241  -0.4713  0.5592
6.516e+09  -0.4105  0.8568  -0.0259  0.03353  -0.04355  -0.002252  -0.2534  0.7208
6.518e+09  -0.1433  1.022  -0.005628  0.01266  -0.03899  0.01309  0.002531  0.759
6.519e+09  0.1733  0.9512  -0.006091  0.0223  0.04009  -0.002247  0.2358  0.6892
6.52e+09  0.5838  0.8185  -0.004525  -0.02996  -0.03998  0.02797  0.488  0.5282
6.521e+09  0.8245  0.5487  0.03153  -0.02615  -0.04351  0.01016  0.6267  0.3354
6.522e+09  0.9736  0.2232  0.009582  -0.01621  0.0716  0.03876  0.7345  0.08591
6.524e+09  0.951  -0.1106  -0.004782  -0.02494  -0.03299  -0.01924  0.734  -0.1883
6.525e+09  0.9298  -0.4237  -0.009005  -0.01448  0.02685  -0.003928  0.5819  -0.4021
6.526e+09  0.7255  -0.7123  0.03782  -0.01068  -0.03278  0.07978  0.44  -0.5906
6.528e+09  0.3685  -0.8731  -0.01785  0.001763  0.01151  0.04088  0.1815  -0.7201
6.529e+09  0.0765  -0.956  -0.01217  0.02879  0.0138  -0.0001169  -0.06319  -0.6971
6.53e+09  -0.2734  -0.9119  0.0115  -0.03189  0.01031  0.01658  -0.288  -0.6453
6.531e+09  -0.6098  -0.788  0.008486  -0.02589  -0.04266  -0.03109  -0.4739  -0.5014
6.532e+09  -0.8449  -0.4556  0.002837  0.0136  -0.03167  0.02343  -0.6076  -0.2727
6.534e+09  -0.9572  -0.1373  0.004505  0.007773  0.01183  -0.002401  -0.6282  -0.09019
6.535e+09  -0.9534  0.2163  0.01109  -0.01041  0.02103  -0.02421  -0.6076  0.09356
6.536e+09  -0.8388  0.4965  0.003379  0.0218  0.03762  -0.0139  -0.5427  0.2836
6.538e+09  -0.5702  0.7852  -0.01093  0.008442  -0.04811  0.04542  -0.4549  0.4877
6.539e+09  -0.2813  0.9044  0.006164  -0.02783  0.01614  -0.004296  -0.2789  0.5972
6.54e+09  0.008987  0.9392  0.004867  0.03685  -0.006698  -0.03462  -0.04829  0.7087
6.541e+09  0.4014  0.8564  -0.005686  -0.00176  0.02482  -0.02604  0.1638  0.6652
6.542e+09  0.6818  0.7308  -0.005894  0.002074  0.03541  -0.0176  0.4054  0.5412
6.544e+09  0.8667  0.4156  0.04715  -0.02086  0.0198  -0.07203  0.5949  0.4006
6.545e+09  0.9578  0.1734  0.02635  -0.01397  -0.03143  0.01062  0.738  0.1848
6.546e+09  0.9574  -0.2149  0.004499  0.008396  0.001466  -0.02999  0.7374  -0.06712
6.548e+09  0.7715  -0.573  0.005325  0.01061  -0.03831  -0.02271  0.643  -0.3244
6.549e+09  0.5823  -0.765  0.007797  0.03065  -0.01567  -0.00127  0.5525  -0.5429
6.55e+09  0.2292  -0.9036  0.00252  0.03388  -0.01975  -0.00884  0.2783  -0.6999
