# Hz S RI R 50
6.25e+09  -0.1126  0.8322  -0.0225  0.003346  -0.02898  -0.04062  0.1712  0.4822
6.251e+09  0.1685  0.8837  -0.01729  -0.007528  0.0004681  0.06141  0.3381  0.4065
6.252e+09  0.4073  0.7424  -0.03684  0.01645  -0.006517  -0.01405  0.5431  0.2631
6.254e+09  0.6562  0.5352  0.02839  -0.002629  0.01931  -0.009208  0.6125  0.006505
6.255e+09  0.8957  0.2797  -0.009337  0.02617  -0.02314  0.05721  0.5446  -0.2263
6.256e+09  0.8636  -0.03218  0.00343  -0.007737  -0.01008  -0.006861  0.4809  -0.4513
6.258e+09  0.7401  -0.3083  -0.02117  0.02636  -0.03027  -0.007561  0.281  -0.64
6.259e+09  0.6549  -0.5755  -0.008895  0.0001541  0.06458  -0.04171  0.03375  -0.6956
6.26e+09  0.4031  -0.749  0.003136  0.02271  0.03501  0.02737  -0.2088  -0.6277
6.261e+09  0.1272  -0.8407  -0.01782  0.002568  -0.07566  0.04391  -0.44  -0.5105
6.262e+09  -0.2046  -0.8479  -0.001445  0.0285  0.04252  -0.03235  -0.5882  -0.3367
6.264e+09  -0.4701  -0.7084  -0.01322  -0.017  -0.0192  -0.0311  -0.7071  -0.1018
6.265e+09  -0.6748  -0.5453  -0.0289  0.009601  0.0525  0.006105  -0.7274  0.1533
6.266e+09  -0.7851  -0.2751  0.0151  0.00966  0.03396  -0.03851  -0.6146  0.3856
6.268e+09  -0.8168  0.03325  -0.01883  0.02696  -0.00855  -0.05243  -0.458  0.6227
6.269e+09  -0.8125  0.3553  -0.01791  0.02076  0.009809  -0.01053  -0.1722  0.7191
6.27e+09  -0.5915  0.5992  -0.0006682  -0.01421  -0.01742  0.01489  0.06935  0.7402
6.271e+09  -0.2872  0.8013  0.02039  0.01477  0.03279  0.03147  0.3289  0.6806
6.272e+09  -0.07569  0.8036  -0.005887  0.01589  0.03899  0.0463  0.5214  0.5058
6.274e+09  0.2011  0.8179  0.01746  0.02089  -0.0271  0.02004  0.6766  0.3023
6.275e+09  0.4752  0.7266  0.003077  -0.0454  -0.002414  0.05666  0.7694  0.06087
6.276e+09  0.6709  0.4832  0.005657  0.02121  0.01376  -0.01939  0.7455  -0.2137
6.278e+09  0.8104  0.2097  0.004319  0.02561  0.01842  0.0004603  0.6112  -0.4684
6.279e+09  0.8545  -0.0823  0.0001132  -0.0454  0.01659  -0.01547  0.4047  -0.6496
6.28e+09  0.8191  -0.3895  -0.02154  -0.02532  0.06385  -0.01763  0.1982  -0.7452
6.281e+09  0.6129  -0.6134  -0.002453  -0.01626  -0.008394  0.03006  -0.09324  -0.7816
6.282e+09  0.3029  -0.7454  -0.01192  0.02033  -0.01712  0.02311  -0.3525  -0.7096
6.284e+09  0.03438  -0.7992  0.01159  0.02261  0.04547  0.04141  -0.5689  -0.5255
6.285e+09  -0.2443  -0.7981  -0.01504  0.02732  0.02456  0.02836  -0.6975  -0.283
6.286e+09  -0.4434  -0.6821  -0.02115  -0.02611  -0.01784  -0.01536  -0.7984  -0.002775
6.288e+09  -0.7177  -0.4616  0.02216  0.002289  0.04169  -0.02255  -0.7498  0.285
6.289e+09  -0.8157  -0.185  -0.01964  -0.02337  0.03967  0.0157  -0.5783  0.5192
6.29e+09  -0.8487  0.1205  -0.003707  -0.005061  -0.02035  -0.01323  -0.4235  0.6876
6.291e+09  -0.7798  0.403  -0.03097  -0.007772  -0.05371  0.01726  -0.1651  0.8046
6.292e+09  -0.5757  0.5851  0.01393  0.004287  0.01572  0.03417  0.1253  0.7875
6.294e+09  -0.2965  0.8228  -0.01775  -0.0104  0.00482  0.0174  0.3866  0.7079
6.295e+09  0.03311  0.8192  0.03195  -0.0007277  -0.03097  -0.01009  0.6405  0.547
6.296e+09  0.2839  0.7991  0.002579  -0.02166  0.01297  -0.03566  0.7922  0.3202
6.298e+09  0.5225  0.6711  -0.03735  0.0007508  0.01878  0.006237  0.8059  0.01934
6.299e+09  0.6993  0.4614  -0.012  0.02252  -0.04414  0.008769  0.7916  -0.2374
6.3e+09  0.8422  0.1484  -0.02386  -0.001113  0.003697  -0.000359  0.6527  -0.5627
6.301e+09  0.7917  -0.1613  -0.006328  -0.01305  -0.01446  -0.02222  0.4156  -0.7528
6.302e+09  0.7109  -0.4064  0.00656  0.005254  -0.01095  0.0179  0.1478  -0.8051
6.304e+09  0.5364  -0.6634  0.01414  0.01634  0.01132  0.002536  -0.1385  -0.8157
6.305e+09  0.3028  -0.7924  -0.005741  0.01179  0.002702  0.00401  -0.4044  -0.718
6.306e+09  -0.05253  -0.783  -0.008871  0.005409  0.03019  -0.02745  -0.6412  -0.541
6.308e+09  -0.2807  -0.832  0.03126  0.01401  0.00412  -0.01393  -0.8058  -0.2995
6.309e+09  -0.5634  -0.6477  -0.000985  -0.005901  -0.0141  0.02881  -0.8769  -0.01508
6.31e+09  -0.7458  -0.3597  -0.01226  -0.02895  0.01887  -0.01604  -0.8073  0.2863
6.311e+09  -0.8461  -0.1544  -0.01669  0.04719  0.004643  0.02821  -0.6749  0.575
6.312e+09  -0.8127  0.1814  -0.003478  -0.001216  0.03843  -0.008191  -0.4537  0.764
6.314e+09  -0.7144  0.4655  -0.01215  -0.009805  0.02871  -0.04788  -0.1318  0.8663
6.315e+09  -0.473  0.6577  0.01503  0.03053  -0.007979  -0.03526  0.1345  0.8587
6.316e+09  -0.2092  0.7956  0.01009  0.0251  -0.02938  0.02565  0.4308  0.7643
6.318e+09  0.08509  0.864  -0.001222  0.02642  0.00359  0.0189  0.6772  0.5591
6.319e+09  0.334  0.7354  -0.03532  0.04533  -0.01222  -0.0435  0.8232  0.3409
6.32e+09  0.6317  0.6232  -0.02134  -0.01635  -0.0299  -0.01186  0.8828  -0.009244
6.321e+09  0.7843  0.358  -0.02371  0.007756  -0.03144  -0.02741  0.8608  -0.2933
6.322e+09  0.9085  0.06541  0.02556  0.02658  0.01997  -0.0374  0.6889  -0.5774
6.324e+09  0.8159  -0.233  -0.006508  0.002109  0.01204  -0.00542  0.4458  -0.7742
6.325e+09  0.6645  -0.492  -0.02178  -0.01398  -0.06015  -0.04938  0.1462  -0.8652
6.326e+09  0.4973  -0.717  -0.00731  -0.01473  0.006295  0.006259  -0.1222  -0.8726
6.328e+09  0.1419  -0.83  0.005469  0.04142  -0.009683  0.01337  -0.4341  -0.8096
6.329e+09  -0.1209  -0.8757  0.0003471  -0.008906  0.01221  -0.02369  -0.647  -0.605
6.33e+09  -0.3894  -0.7696  -0.004348  -0.0008082  0.06056  0.03055  -0.8309  -0.3434
6.331e+09  -0.6638  -0.5766  0.02649  3.335e-05  -0.02202  0.006944  -0.9173  -0.02113
6.332e+09  -0.8276  -0.2948  0.02418  0.008148  0.01008  -0.03129  -0.8609  0.3287
6.334e+09  -0.8679  -0.0213  -0.04089  -0.006231  -0.04175  0.02794  -0.7065  0.5509
6.335e+09  -0.8513  0.3019  0.003526  -0.02241  0.03219  -0.004139  -0.452  0.751
6.336e+09  -0.6415  0.5431  0.01916  0.02131  -0.04123  0.004131  -0.1789  0.8978
6.338e+09  -0.439  0.7909  0.01409  -0.01492  -0.03282  -0.003096  0.1244  0.8916
6.339e+09  -0.1232  0.8756  0.01601  -0.03361  0.01151  0.01801  0.4292  0.8105
6.34e+09  0.1662  0.8591  -0.0002851  -0.0272  -0.04044  0.03092  0.6953  0.6317
6.341e+09  0.4695  0.798  0.01632  0.003636  0.007098  0.002406  0.839  0.3355
6.342e+09  0.7116  0.5364  0.01064  0.04823  -0.04116  -0.02444  0.9461  0.07235
6.344e+09  0.8511  0.2194  0.01449  0.04795  -0.04285  -0.001625  0.8989  -0.272
6.345e+09  0.9064  -0.06341  0.006374  -0.0134  0.04711  -0.0402  0.7814  -0.5953
6.346e+09  0.8439  -0.3702  0.02645  0.008987  -0.004313  -0.02189  0.5002  -0.8116
6.348e+09  0.6743  -0.6727  0.03436  0.008512  0.0447  0.0081  0.1977  -0.9192
6.349e+09  0.3958  -0.8125  0.02349  -0.01263  -0.009231  -0.01863  -0.1324  -0.8891
6.35e+09  0.1033  -0.8685  0.0004043  0.002873  0.04837  0.01071  -0.3993  -0.8448
6.351e+09  -0.2539  -0.8317  -0.03717  -0.01121  0.0334  -0.03823  -0.6962  -0.6122
6.352e+09  -0.4989  -0.7507  -0.007473  -0.06309  -0.03924  0.0482  -0.8587  -0.3655
6.354e+09  -0.6801  -0.5074  0.0076  -0.01811  -0.01043  -0.007017  -0.9194  -0.07498
6.355e+09  -0.8627  -0.2051  0.02412  -0.005332  -0.01795  -0.01006  -0.8896  0.2917
6.356e+09  -0.9541  0.1326  0.01565  0.02614  0.0004596  -0.02705  -0.7777  0.577
6.358e+09  -0.8121  0.3942  0.03148  0.006747  0.02975  -0.01664  -0.5516  0.7936
6.359e+09  -0.5666  0.642  0.01883  0.02055  0.003364  -0.004185  -0.2367  0.8911
6.36e+09  -0.3242  0.8246  0.0132  0.008693  -0.004969  0.01068  0.1073  0.9245
6.361e+09  -0.09004  0.8839  0.022  0.01108  -0.02514  -0.02462  0.4661  0.844
6.362e+09  0.2404  0.8735  -0.008648  -0.008757  0.03863  0.008361  0.6478  0.6555
6.364e+09  0.5366  0.714  -0.0198  0.02247  0.01463  0.007685  0.8571  0.3985
6.365e+09  0.7801  0.4907  -0.007419  -0.007193  -0.01653  0.002849  0.9507  0.08272
6.366e+09  0.8877  0.1605  0.0318  0.01215  0.03258  -0.007754  0.916  -0.276
6.368e+09  0.9008  -0.1222  0.02127  0.04136  -0.009745  -0.06061  0.8192  -0.5655
6.369e+09  0.7672  -0.4583  0.02171  0.005048  -0.007859  0.0001166  0.5075  -0.7949
6.37e+09  0.5821  -0.6858  0.002104  -0.0007769  -0.005351  0.01879  0.2393  -0.9123
6.371e+09  0.2966  -0.8032  -0.02192  -0.02189  -0.00741  0.01073  -0.08167  -0.9512
6.372e+09  -0.04841  -0.9066  -0.006067  -0.02684  0.01357  0.01298  -0.401  -0.8679
6.374e+09  -0.3473  -0.8436  -0.01909  0.007485  -0.005798  -0.04922  -0.6627  -0.6696
6.375e+09  -0.5921  -0.6417  -0.02989  -0.02611  0.02111  0.04398  -0.8989  -0.3491
6.376e+09  -0.7924  -0.441  -0.006121  0.0001539  0.0113  -0.01954  -0.9096  -0.1381
6.378e+09  -0.8489  -0.09254  0.01897  -0.03583  0.001403  -0.02599  -0.9191  0.1963
6.379e+09  -0.9041  0.2264  0.01221  0.005853  -0.01605  0.0004824  -0.7415  0.5157
6.38e+09  -0.7462  0.4497  0.02346  0.01014  0.005623  -0.03106  -0.5565  0.7226
6.381e+09  -0.5506  0.7051  -0.03081  -0.01146  -0.02914  0.01205  -0.2935  0.8684
6.382e+09  -0.2454  0.8532  0.01452  -0.01562  -0.02019  -0.03318  0.08345  0.9615
6.384e+09  0.07743  0.8989  -0.02918  0.0222  -0.004892  -0.02195  0.381  0.9032
6.385e+09  0.3856  0.8421  0.03559  -0.01409  -0.003809  0.01804  0.6171  0.6945
6.386e+09  0.6422  0.6384  0.01484  0.005625  -0.01211  -0.04692  0.8492  0.4239
6.388e+09  0.7827  0.3666  0.01892  0.01079  0.03484  0.01576  0.9105  0.112
6.389e+09  0.8533  0.09792  0.003776  -0.008835  -0.01421  0.02233  0.8885  -0.1925
6.39e+09  0.8836  -0.1902  0.02694  -0.005904  -0.01026  0.008054  0.7475  -0.4954
6.391e+09  0.7084  -0.4881  -0.0005154  0.0005087  -0.03594  -0.03727  0.6147  -0.7088
6.392e+09  0.5581  -0.7453  -0.02924  -0.00147  -0.004943  0.001767  0.2944  -0.9185
6.394e+09  0.219  -0.8826  0.03248  -0.0182  0.0162  -0.0313  -0.04823  -0.9327
6.395e+09  -0.02038  -0.8689  0.00172  0.008203  -0.001069  -0.0451  -0.3407  -0.8805
6.396e+09  -0.368  -0.7928  0.008034  -0.04734  0.0242  -0.01061  -0.6573  -0.6749
6.398e+09  -0.6796  -0.6047  -0.02427  -0.02533  -0.01246  0.0512  -0.828  -0.3938
6.399e+09  -0.7922  -0.3397  -0.01758  0.01245  -0.001094  -0.008685  -0.9462  -0.1129
6.4e+09  -0.8931  -0.05919  -0.002863  -0.04641  -0.01731  0.01294  -0.8866  0.2315
6.401e+09  -0.8722  0.2177  0.0008727  -0.01701  0.01047  -0.02273  -0.7957  0.5141
6.402e+09  -0.749  0.538  0.02102  -0.003657  -0.02311  0.02322  -0.5878  0.7542
6.404e+09  -0.4657  0.7602  -0.03241  -0.005686  -0.01081  0.03801  -0.2841  0.8436
6.405e+09  -0.2336  0.8509  0.01105  -0.007074  0.006874  0.01999  -0.03944  0.92
6.406e+09  0.07827  0.8986  0.01292  0.009403  -0.005102  0.07283  0.3419  0.8874
6.408e+09  0.4866  0.8034  0.03757  0.002112  -0.01318  0.05357  0.5398  0.6472
6.409e+09  0.6245  0.6348  0.01973  -0.01807  -0.03357  -0.04173  0.7537  0.4784
6.41e+09  0.8031  0.3057  -0.03189  0.03138  0.02582  -0.006963  0.8718  0.1778
6.411e+09  0.8615  -0.003451  0.008114  -0.05257  -0.006257  0.01168  0.8757  -0.1949
6.412e+09  0.8223  -0.2933  0.03057  -0.06511  0.007645  -0.02167  0.7692  -0.4117
6.414e+09  0.7057  -0.5559  -0.01773  -0.01384  0.02264  0.03609  0.6125  -0.6506
6.415e+09  0.4535  -0.7378  -0.003746  -0.04425  -0.0453  -0.01693  0.3334  -0.823
6.416e+09  0.1997  -0.8713  -0.03278  -0.00858  -0.01408  -0.009289  0.01469  -0.885
6.418e+09  -0.1732  -0.8909  -0.0397  0.01016  0.02817  -0.05687  -0.2631  -0.8694
6.419e+09  -0.4262  -0.7937  0.01503  -0.001599  -0.0257  0.01765  -0.5736  -0.7141
6.42e+09  -0.6423  -0.6078  -0.0205  -0.01261  -0.04196  -0.0006538  -0.7732  -0.4527
6.421e+09  -0.8414  -0.307  -0.01182  0.0493  -0.0435  -0.001096  -0.9111  -0.2116
6.422e+09  -0.924  0.01468  -0.01061  -0.003593  -0.004383  0.03129  -0.8702  0.1633
6.424e+09  -0.8599  0.2917  -0.002105  0.004979  0.02131  0.01244  -0.7898  0.4199
6.425e+09  -0.7142  0.596  0.03582  -0.01306  -0.02224  0.009391  -0.592  0.6309
6.426e+09  -0.4615  0.7792  0.01223  -0.01782  0.02017  0.02314  -0.3435  0.777
6.428e+09  -0.1873  0.9026  0.02654  -0.007195  0.04265  0.02074  -0.01399  0.8824
6.429e+09  0.1847  0.9098  0.04374  0.03164  0.02242  0.02574  0.2324  0.8051
6.43e+09  0.4135  0.7799  -0.0351  0.005863  -0.02814  0.05277  0.5427  0.7034
6.431e+09  0.7273  0.6079  0.01443  0.0132  0.002791  0.03994  0.6767  0.459
6.432e+09  0.8264  0.3103  -0.02449  0.0285  -0.02117  0.02402  0.8001  0.1983
6.434e+09  0.9243  -0.005535  -0.006658  0.03179  -0.01387  -0.03478  0.9  -0.06982
6.435e+09  0.8472  -0.2899  -0.000128  -0.01137  -0.02586  0.04515  0.7436  -0.3753
6.436e+09  0.7004  -0.5756  -0.04071  0.003926  -0.002859  -0.02082  0.6004  -0.6703
6.438e+09  0.3842  -0.8459  -0.01301  0.03409  -0.04288  -0.009291  0.3693  -0.7331
6.439e+09  0.1507  -0.8449  -0.01484  -0.01239  -0.01494  0.01018  0.04223  -0.8691
6.44e+09  -0.1731  -0.9144  0.01433  -0.01875  -0.02179  0.008223  -0.2076  -0.8009
6.441e+09  -0.4309  -0.7446  -0.01422  0.01784  0.05256  0.0154  -0.4988  -0.6911
6.442e+09  -0.685  -0.5557  0.008178  -0.04798  0.01565  0.03209  -0.7419  -0.4721
6.444e+09  -0.8472  -0.3651  -0.002724  -0.0599  0.01078  -0.0411  -0.8194  -0.1941
6.445e+09  -0.9391  0.0152  -0.0209  0.02048  0.006606  -0.0337  -0.8495  0.09307
6.446e+09  -0.8184  0.3214  -0.03233  0.01852  -0.0135  -0.01559  -0.7854  0.3577
6.448e+09  -0.6459  0.6078  -0.03687  -0.01587  -0.0009972  -0.004931  -0.5831  0.5937
6.449e+09  -0.4369  0.8243  0.0009288  -0.003418  0.03146  -0.02597  -0.346  0.7745
6.45e+09  -0.122  0.913  0.01486  -0.01125  0.007464  0.01767  -0.08471  0.8037
6.451e+09  0.1814  0.9109  0.007725  -0.0374  -0.02612  -0.004816  0.2228  0.7831
6.452e+09  0.5035  0.7937  0.004224  0.007199  0.00126  0.01129  0.4571  0.6878
6.454e+09  0.7122  0.551  0.01899  0.009461  -0.04543  -0.02194  0.6908  0.4451
6.455e+09  0.8563  0.2421  -0.00732  -0.05694  0.0113  0.008329  0.7346  0.2105
6.456e+09  0.971  -0.04208  -0.03395  0.02582  -0.03379  0.04075  0.8563  -0.109
6.458e+09  0.8517  -0.372  -0.006897  -0.01725  0.008543  0.005868  0.7873  -0.3368
6.459e+09  0.6966  -0.6321  -0.01912  -0.0348  0.01508  0.033  0.5792  -0.5666
6.46e+09  0.3891  -0.8054  0.03652  0.01948  -0.04482  -0.02573  0.3168  -0.7761
6.461e+09  0.1105  -0.8646  -0.04024  0.02759  -0.01481  -0.003593  0.06799  -0.8245
6.462e+09  -0.1759  -0.8855  0.01426  0.03431  -0.0412  -0.04067  -0.2142  -0.768
6.464e+09  -0.5498  -0.7641  -0.04621  0.01559  -0.03157  -0.02601  -0.4691  -0.6851
6.465e+09  -0.7436  -0.5351  -0.02155  -0.03842  0.004107  0.01963  -0.6869  -0.4238
6.466e+09  -0.8604  -0.2462  -0.01934  -0.04013  -0.02852  -0.02394  -0.7717  -0.2038
6.468e+09  -0.9134  0.05257  0.004896  0.001159  -0.01608  -0.02054  -0.7914  0.05764
6.469e+09  -0.8543  0.3824  0.006398  0.03358  -0.03404  -0.07082  -0.711  0.3665
6.47e+09  -0.6249  0.6683  -0.01433  -0.01963  -0.02827  0.03759  -0.5531  0.5771
6.471e+09  -0.3572  0.8342  -0.005  -0.009855  -0.03621  -0.02209  -0.3342  0.7342
6.472e+09  -0.05246  0.8958  0.02803  -0.0129  -0.007608  -0.0002009  -0.08218  0.757
6.474e+09  0.2893  0.8841  0.01334  0.04193  0.04643  -0.01079  0.2519  0.7584
6.475e+09  0.5993  0.7463  -0.0005609  -0.006302  -0.02814  0.02529  0.5122  0.6739
6.476e+09  0.7615  0.5498  -0.02009  0.02  0.04752  0.03716  0.6857  0.4593
6.478e+09  0.909  0.18  0.004179  -0.006893  0.01535  -0.03925  0.7538  0.1979
6.479e+09  0.9651  -0.1348  0.001757  -0.02941  -0.06091  0.003668  0.7565  -0.06943
6.48e+09  0.8038  -0.4178  0.002077  -0.01164  -0.01074  -0.02992  0.7161  -0.3405
6.481e+09  0.687  -0.7274  -0.0123  0.02067  0.02092  -0.004859  0.5854  -0.5431
6.482e+09  0.3406  -0.8522  -0.01071  0.04465  -0.01692  0.01848  0.3631  -0.6984
6.484e+09  0.04759  -0.9733  0.001514  0.02349  -0.01041  0.03461  0.07038  -0.7732
6.485e+09  -0.3462  -0.9437  -0.002399  -0.04126  -0.01074  0.01662  -0.2219  -0.7284
6.486e+09  -0.6122  -0.7412  -0.05433  0.01916  0.04319  0.003307  -0.4691  -0.6226
6.488e+09  -0.8603  -0.5101  0.003382  0.01911  -0.01381  -0.0335  -0.6581  -0.4192
6.489e+09  -0.951  -0.2108  0.002129  -0.02333  0.03288  -0.04583  -0.775  -0.1855
6.49e+09  -0.878  0.1511  0.0004691  0.01645  -0.02456  0.01658  -0.7568  0.1261
6.491e+09  -0.8027  0.4597  -0.01347  -0.01243  -0.0205  0.001221  -0.6655  0.3433
6.492e+09  -0.6136  0.7832  -0.02524  -0.00993  -0.02515  -0.02361  -0.5308  0.543
6.494e+09  -0.3349  0.9279  -0.01538  -0.01193  0.02364  -0.06172  -0.3287  0.6746
6.495e+09  0.03478  0.9684  0.02272  -0.04315  -0.0007459  -0.03787  -0.09925  0.7537
6.496e+09  0.3977  0.8653  0.01162  -0.007973  0.01218  -0.005516  0.2387  0.7044
6.498e+09  0.6891  0.7368  0.02608  -0.01257  0.009339  -0.05342  0.5085  0.6237
6.499e+09  0.8359  0.4186  0.0557  -0.01644  -0.0348  0.01226  0.6152  0.4284
6.5e+09  0.9477  0.09168  0.02911  -0.04388  -0.04001  0.009038  0.7564  0.1944
6.501e+09  0.9307  -0.2453  0.02001  -0.03338  0.06489  0.03891  0.7266  -0.1234
6.502e+09  0.804  -0.5489  -0.04054  0.02678  -0.04061  0.02003  0.6868  -0.3777
6.504e+09  0.5515  -0.7447  -0.006221  -0.02271  -0.04964  -0.04076  0.4922  -0.5197
6.505e+09  0.2903  -0.9262  0.01306  -0.03532  0.02452  -0.04357  0.259  -0.696
6.506e+09  -0.09035  -0.9791  0.001435  0.002282  0.01571  -0.03848  0.05006  -0.7142
6.508e+09  -0.4199  -0.8561  0.02778  0.02381  0.01741  -0.006015  -0.216  -0.7511
6.509e+09  -0.7867  -0.6672  -0.03858  0.00154  0.04822  -0.01849  -0.4549  -0.581
6.51e+09  -0.935  -0.3716  -0.02047  -0.02002  -0.02182  0.02808  -0.6552  -0.3566
6.511e+09  -0.9888  -0.005148  0.02408  0.009834  -0.003899  0.04093  -0.7396  -0.1296
6.512e+09  -0.9532  0.2944  0.007609  0.008322  0.04074  -0.0661  -0.741  0.1073
6.514e+09  -0.8146  0.6167  -0.02032  0.008614  0.007573  0.05466  -0.6459  0.3673
6.515e+09  -0.5248  0.8628  -0.01925  -0.005496  0.01502  -0.018  -0.4681  0.5959
6.516e+09  -0.159  0.9945  -0.01937  0.01004  -0.008568  -0.001573  -0.2757  0.6955
6.518e+09  0.1795  0.9524  0.01126  -0.0379  0.04664  0.003898  0.01792  0.7516
6.519e+09  0.4683  0.8645  -0.004229  0.01167  0.02076  -0.005988  0.2665  0.7025
6.52e+09  0.7777  0.6093  0.03049  0.004848  0.01552  0.02831  0.4705  0.552
6.521e+09  0.9155  0.3128  0.005593  0.02397  -0.04647  0.0201  0.6213  0.3677
6.522e+09  0.9167  -0.04694  0.02207  0.01864  -0.01606  -0.02394  0.7552  0.08373
6.524e+09  0.9281  -0.4034  0.01255  0.03922  -0.001478  -0.01957  0.7392  -0.1284
6.525e+09  0.7015  -0.666  0.02988  -0.01505  0.003753  0.004432  0.5955  -0.3744
6.526e+09  0.4905  -0.9212  0.0256  -0.06863  -0.03423  0.01955  0.4348  -0.6009
6.528e+09  0.07679  -0.9279  0.02506  -0.01044  -0.04093  -0.07562  0.1908  -0.6927
6.529e+09  -0.2111  -0.8762  -0.02243  0.01023  -0.02048  0.04347  -0.02693  -0.7321
6.53e+09  -0.5399  -0.7967  0.004393  0.001835  0.01371  0.05747  -0.3003  -0.6443
6.531e+09  -0.7339  -0.4925  -0.006376  0.009632  -0.0009607  0.02145  -0.4845  -0.4649
6.532e+09  -0.9276  -0.1695  -0.005149  -0.01845  0.02835  -0.02112  -0.58  -0.3135
6.534e+09  -1.011  0.13  0.01212  0.001571  0.001591  0.007693  -0.6186  -0.08982
6.535e+09  -0.8447  0.4138  0.02917  0.01446  0.02253  -0.02267  -0.6145  0.1326
6.536e+09  -0.6318  0.6574  -0.0213  0.02897  -0.0002248  0.02159  -0.5775  0.2857
6.538e+09  -0.3663  0.8917  0.03206  -0.005337  0.004331  -0.004515  -0.4796  0.4544
6.539e+09  -0.003588  0.9814  -0.006095  0.004268  0.04372  -0.02178  -0.2679  0.6181
6.54e+09  0.2996  0.8846  0.009474  -0.007884  -0.08519  -0.009201  -0.07189  0.6956
6.541e+09  0.5804  0.6846  -0.0007083  -0.002625  -0.05233  0.005571  0.2047  0.6835
6.542e+09  0.8301  0.4688  0.01073  -0.02168  0.05725  -0.0001924  0.404  0.5579
6.544e+09  0.904  0.1157  0.01755  0.02069  -0.02344  0.04577  0.5542  0.4201
6.545e+09  0.8646  -0.1673  0.02192  -0.01978  0.04467  -0.009123  0.7373  0.1859
6.546e+09  0.7543  -0.4924  -0.02002  0.00493  0.01507  0.007025  0.683  -0.05015
6.548e+09  0.5762  -0.7532  -0.03337  0.006094  0.01404  -0.005098  0.6593  -0.3461
6.549e+09  0.2214  -0.8887  -0.02155  -0.007146  0.003345  -0.04893  0.4943  -0.5547
6.55e+09  -0.0192  -0.9144  -0.01193  -0.03308  -0.002282  -0.01965  0.2866  -0.6804
