# Hz S RI R 50
6.25e+09  -0.1486  0.8856  -0.0239  -0.00624  0.01721  0.005238  0.1668  0.4815
6.251e+09  0.1337  0.833  -0.02186  -0.008851  0.002169  0.06268  0.3715  0.4319
6.252e+09  0.3863  0.8178  0.006249  0.01992  0.0009064  0.0002944  0.5204  0.2752
6.254e+09  0.6643  0.6038  -0.007431  0.02736  0.004202  -0.01504  0.6001  0.02049
6.255e+09  0.8055  0.3154  -0.001771  0.00494  0.004838  0.01641  0.6077  -0.2154
6.256e+09  0.8396  0.0503  0.005867  0.01395  0.07769  -0.004142  0.4506  -0.4301
6.258e+09  0.795  -0.3877  0.009366  -0.003491  0.06123  0.03157  0.2621  -0.623
6.259e+09  0.6459  -0.5357  0.05383  -0.03269  -0.03731  -0.005023  0.02578  -0.7041
6.26e+09  0.4478  -0.7047  -0.004531  -0.02673  -0.04131  0.009434  -0.223  -0.6868
6.261e+09  0.1264  -0.8188  0.007303  0.0133  -0.04764  0.0397  -0.4467  -0.5563
6.262e+09  -0.1149  -0.8441  -0.004743  -0.05469  0.04319  -0.004048  -0.6642  -0.3568
6.264e+09  -0.4515  -0.765  0.0172  0.001872  -0.006213  0.01902  -0.7245  -0.1432
6.265e+09  -0.635  -0.5792  0.02542  0.02312  -0.007276  0.009289  -0.7035  0.1308
6.266e+09  -0.8335  -0.2654  -0.01553  -0.02434  -0.009364  -0.0008501  -0.5962  0.396
6.268e+09  -0.881  0.032  -0.003245  -0.006308  0.001829  -0.01051  -0.413  0.6011
6.269e+09  -0.7926  0.3388  0.001005  0.02792  0.05599  -0.007848  -0.2019  0.7047
6.27e+09  -0.613  0.531  -0.01582  0.009499  -0.01595  0.07063  0.04374  0.719
6.271e+09  -0.3665  0.7105  0.02073  -0.002365  0.02627  -0.0226  0.3364  0.703
6.272e+09  -0.1203  0.8135  -0.0117  0.003342  0.02108  0.02723  0.5185  0.5284
6.274e+09  0.172  0.7973  0.003317  0.01594  0.001678  -0.03624  0.7192  0.3119
6.275e+09  0.4358  0.6974  -0.00462  0.009833  -0.008476  -0.006641  0.7252  0.05495
6.276e+09  0.6311  0.5117  -3.953e-05  -0.003064  0.0264  -0.01559  0.7158  -0.2281
6.278e+09  0.8026  0.2352  0.007469  -0.001992  -0.02112  0.01842  0.5867  -0.4743
6.279e+09  0.8083  -0.06295  0.01074  0.004064  0.05504  0.01105  0.4071  -0.6429
6.28e+09  0.8138  -0.3341  -0.03507  -0.01906  0.01488  0.005806  0.1436  -0.7511
6.281e+09  0.6124  -0.5072  -0.005629  0.01604  0.02788  0.03894  -0.1057  -0.749
6.282e+09  0.4235  -0.7385  -0.01715  0.003176  0.01177  0.01288  -0.3687  -0.6958
6.284e+09  0.1001  -0.8145  0.01359  0.01628  0.0316  0.01126  -0.5881  -0.5467
6.285e+09  -0.1571  -0.8034  -0.002886  0.01108  0.02184  0.02502  -0.7411  -0.2983
6.286e+09  -0.432  -0.7059  0.006338  0.00388  0.04509  -0.02763  -0.7969  -0.01782
6.288e+09  -0.6623  -0.44  0.003596  0.0222  0.01316  -0.02023  -0.758  0.2316
6.289e+09  -0.8139  -0.2382  0.008949  0.003811  0.01979  -0.03742  -0.6418  0.5268
6.29e+09  -0.828  -0.01363  0.01041  -0.02337  0.07589  -0.01289  -0.4134  0.7
6.291e+09  -0.7776  0.3626  -0.01405  -0.01987  -0.04748  0.01203  -0.1303  0.8064
6.292e+09  -0.5959  0.5827  -0.01059  0.01708  -0.02716  -0.002935  0.1049  0.814
6.294e+09  -0.3899  0.7614  0.0004835  -0.0007071  -0.01991  -0.03046  0.3824  0.6608
6.295e+09  -0.0875  0.8776  0.000904  -0.003047  0.02388  0.03499  0.6578  0.5275
6.296e+09  0.2073  0.7821  0.01496  0.01248  0.01028  0.03567  0.7639  0.3115
6.298e+09  0.4915  0.6982  0.0005016  0.01527  -0.02658  0.01439  0.8082  0.01525
6.299e+09  0.6359  0.4324  0.002251  0.008164  -0.08363  -0.03806  0.7793  -0.2561
6.3e+09  0.8142  0.2379  -0.002758  -0.008862  0.02087  0.01201  0.635  -0.5081
6.301e+09  0.806  -0.09101  -0.03005  -0.00473  0.005454  -0.01632  0.4519  -0.7713
6.302e+09  0.7557  -0.4052  -0.005941  0.01956  -0.03953  0.04892  0.1533  -0.8092
6.304e+09  0.5259  -0.6175  0.01241  0.01559  -0.002422  -0.003003  -0.156  -0.7979
6.305e+09  0.3532  -0.8024  -0.01666  0.01415  -0.00367  0.02073  -0.4228  -0.7565
6.306e+09  -0.004093  -0.8786  0.0007501  -0.01393  0.01175  0.001873  -0.6744  -0.5647
6.308e+09  -0.2665  -0.8208  -0.01166  0.00489  -0.0188  -0.0177  -0.7885  -0.279
6.309e+09  -0.5862  -0.6393  -0.02682  0.006732  0.007565  -0.01637  -0.8211  0.01069
6.31e+09  -0.6744  -0.4525  0.04226  0.01364  -0.004579  -0.02953  -0.8366  0.2857
6.311e+09  -0.8122  -0.1796  0.01134  -0.005307  -0.02179  0.0003459  -0.6591  0.5289
6.312e+09  -0.8485  0.1537  0.01665  -0.0001916  0.001522  0.01998  -0.4466  0.7728
6.314e+09  -0.7109  0.4592  -0.008727  -0.05602  -0.01428  0.02012  -0.1644  0.8471
6.315e+09  -0.5584  0.6147  0.00161  0.01396  0.02479  -0.007836  0.1436  0.8526
6.316e+09  -0.2744  0.8407  -0.005756  0.005643  0.01396  -0.05057  0.4278  0.7854
6.318e+09  0.01388  0.8411  0.002473  0.002543  0.0127  0.02276  0.6775  0.5469
6.319e+09  0.2712  0.8282  0.000766  0.009014  -0.04105  0.04159  0.8317  0.3015
6.32e+09  0.552  0.6461  0.0125  -0.02288  -0.01132  0.02985  0.8799  0.01149
6.321e+09  0.7072  0.4325  -0.02132  -0.02683  -0.019  -0.01127  0.8435  -0.2784
6.322e+09  0.8928  0.08723  0.01591  0.02263  -0.006066  -0.01582  0.6918  -0.5892
6.324e+09  0.8005  -0.1843  0.03139  -0.0162  0.02525  -0.005074  0.4596  -0.7971
6.325e+09  0.7433  -0.452  0.01361  0.005041  -0.01823  -0.01587  0.1523  -0.8825
6.326e+09  0.5306  -0.6602  -0.004677  0.0009474  0.01784  0.05033  -0.1855  -0.8464
6.328e+09  0.2666  -0.838  -0.02262  -0.02926  0.02837  -0.01316  -0.4193  -0.7406
6.329e+09  -0.08999  -0.8267  0.0172  -0.001275  0.004467  -0.04067  -0.7026  -0.6123
6.33e+09  -0.2999  -0.8233  0.008051  0.02461  -0.02411  0.02989  -0.8433  -0.3475
6.331e+09  -0.5755  -0.6387  0.002165  0.01728  -0.006069  -0.05984  -0.8893  -0.0417
6.332e+09  -0.8323  -0.332  0.001653  -0.02526  0.0375  0.01843  -0.8427  0.2713
6.334e+09  -0.886  -0.03947  -0.01056  0.005136  0.005086  -0.04165  -0.7331  0.5609
6.335e+09  -0.8621  0.2008  0.001654  -0.02113  0.03681  0.03504  -0.481  0.7762
6.336e+09  -0.7074  0.5885  -0.01941  0.01201  0.01499  0.01414  -0.1823  0.8889
6.338e+09  -0.4634  0.775  0.008945  0.01659  0.04702  0.006517  0.1129  0.9115
6.339e+09  -0.216  0.8925  -0.0224  0.0196  0.02438  0.04479  0.4402  0.8085
6.34e+09  0.115  0.8872  0.04382  0.004782  0.01837  -0.02973  0.6991  0.6221
6.341e+09  0.4183  0.7587  -0.009627  -0.02317  -0.04535  0.02299  0.883  0.3459
6.342e+09  0.6733  0.5598  0.01848  -0.01463  -0.001642  0.00808  0.9168  0.004886
6.344e+09  0.8492  0.3406  -0.01116  -0.01368  -0.002007  -0.01383  0.8999  -0.3141
6.345e+09  0.866  0.01731  0.02697  0.03603  -0.01996  0.0002198  0.7459  -0.5596
6.346e+09  0.8206  -0.292  0.002351  0.007893  0.02004  -0.009806  0.4817  -0.7781
6.348e+09  0.6877  -0.585  -0.004914  0.01908  -0.06731  0.0103  0.2193  -0.8833
6.349e+09  0.427  -0.7706  -0.006451  0.02273  0.008463  -0.001183  -0.1177  -1.004
6.35e+09  0.1289  -0.8738  -0.01882  -0.02397  -0.01543  0.01394  -0.417  -0.849
6.351e+09  -0.1605  -0.8819  -0.004053  0.01509  0.05552  -0.002591  -0.668  -0.6158
6.352e+09  -0.4936  -0.7224  0.01252  0.006118  -0.02158  0.05753  -0.8899  -0.3824
6.354e+09  -0.7267  -0.5496  -0.04452  -0.01139  -0.0213  0.02303  -0.9624  -0.1035
6.355e+09  -0.829  -0.2936  -0.02292  0.0002392  -0.03442  -0.01465  -0.9029  0.2989
6.356e+09  -0.8849  0.08366  -0.0338  0.002021  -0.007484  -0.008993  -0.7684  0.5372
6.358e+09  -0.8152  0.3557  0.02138  -0.004706  0.005244  -0.007208  -0.5911  0.7807
6.359e+09  -0.6742  0.5904  -0.01296  -0.002281  0.03172  -0.05175  -0.2433  0.9434
6.36e+09  -0.37  0.8318  0.002525  0.007182  0.05264  -0.01312  0.08983  0.9138
6.361e+09  -0.1  0.8875  -7.85e-05  0.008155  -0.03666  0.01854  0.4073  0.8489
6.362e+09  0.2569  0.8219  0.009321  0.007355  -0.01092  0.0205  0.6414  0.6517
6.364e+09  0.4689  0.7026  -0.005117  -0.0308  0.01379  0.01741  0.8429  0.3982
6.365e+09  0.7202  0.4893  -0.03935  -0.04841  0.005372  0.02128  0.9415  0.0834
6.366e+09  0.8689  0.1842  0.005357  -0.01023  0.001083  -0.006933  0.968  -0.1963
6.368e+09  0.89  -0.1072  0.001009  0.01965  0.0001497  0.01594  0.7647  -0.5487
6.369e+09  0.8334  -0.4237  0.01771  0.02491  -0.01144  -0.04771  0.5463  -0.7759
6.37e+09  0.5808  -0.6993  0.005936  0.001533  -0.0091  -0.007504  0.2045  -0.9745
6.371e+09  0.3301  -0.8267  0.001391  0.03128  0.04219  0.0274  -0.07693  -0.9578
6.372e+09  0.02394  -0.9131  0.002982  1.048e-05  0.00674  0.02507  -0.4279  -0.8676
6.374e+09  -0.3112  -0.8779  0.04309  -0.009791  -0.0336  0.03054  -0.6604  -0.6701
6.375e+09  -0.5608  -0.7515  -0.04105  -0.002174  -0.006596  -0.02063  -0.8529  -0.4332
6.376e+09  -0.7668  -0.46  -0.009919  -0.006532  0.04218  -0.002137  -0.9262  -0.07978
6.378e+09  -0.8937  -0.1483  0.01769  0.01756  0.01358  -0.01953  -0.931  0.2414
6.379e+09  -0.9125  0.1654  -0.01127  0.02694  0.03213  -0.007465  -0.768  0.5744
6.38e+09  -0.7888  0.444  -0.02641  0.00666  0.01483  0.0173  -0.4963  0.7618
6.381e+09  -0.5629  0.6582  -0.001873  0.01531  0.01235  0.004201  -0.2259  0.8726
6.382e+09  -0.3195  0.8352  -0.01403  0.008874  0.04499  0.01008  0.08777  0.9024
6.384e+09  0.04975  0.9388  0.01828  -0.00183  0.03592  -0.0307  0.3508  0.839
6.385e+09  0.3014  0.8597  0.003893  0.004915  0.002558  -0.0002956  0.6271  0.6741
6.386e+09  0.5778  0.6975  -0.007968  0.02097  0.05638  0.01753  0.8329  0.4293
6.388e+09  0.7717  0.4211  -0.02904  0.008774  0.03801  0.01811  0.9572  0.07404
6.389e+09  0.9188  0.1117  0.02119  0.03617  -0.0251  -0.005895  0.8902  -0.1761
6.39e+09  0.8853  -0.1775  -0.01036  -0.01704  -0.04404  -0.01914  0.7683  -0.5807
6.391e+09  0.7441  -0.4095  0.01349  -0.05016  -0.003005  -0.03208  0.5554  -0.7579
6.392e+09  0.5723  -0.7329  -0.05654  0.01882  0.02453  0.01922  0.3083  -0.8888
6.394e+09  0.2889  -0.8209  0.02172  -0.02714  -0.005431  0.00657  -0.0504  -0.9323
6.395e+09  -0.0408  -0.8663  -0.002715  -0.003434  0.01443  0.001166  -0.3451  -0.8382
6.396e+09  -0.3465  -0.8847  0.02514  -0.005242  0.03032  0.02304  -0.6264  -0.6484
6.398e+09  -0.6167  -0.6552  0.01775  0.03186  -0.04884  -1.21e-05  -0.7874  -0.4385
6.399e+09  -0.8387  -0.4043  0.001026  -0.00366  0.05094  -0.002001  -0.8827  -0.1496
6.4e+09  -0.9276  -0.1494  0.01694  -0.04821  0.03518  -0.01051  -0.9041  0.1697
6.401e+09  -0.8554  0.1719  -0.01583  0.01856  0.02151  -0.03585  -0.8028  0.5172
6.402e+09  -0.7358  0.5082  -0.006604  0.006751  0.02835  0.03502  -0.5361  0.6814
6.404e+09  -0.5331  0.6883  -0.003979  0.01386  0.0122  0.02512  -0.3517  0.8788
6.405e+09  -0.2554  0.8398  -0.0641  -0.02292  -0.01346  -0.006683  -0.004378  0.9036
6.406e+09  0.06707  0.8945  -0.001929  0.02052  -0.01922  -0.004475  0.3474  0.8759
6.408e+09  0.349  0.8374  -0.004971  -0.01051  0.00721  0.01185  0.5659  0.704
6.409e+09  0.576  0.6654  0.003157  0.09015  -0.005206  0.04772  0.7853  0.4801
6.41e+09  0.7808  0.3862  -0.03696  -0.03192  0.03598  0.01705  0.8846  0.148
6.411e+09  0.8347  0.1002  0.01401  -0.01696  -0.03514  0.03367  0.8538  -0.1319
6.412e+09  0.8315  -0.2176  -0.03176  0.007303  0.0306  -0.03935  0.8295  -0.4259
6.414e+09  0.6999  -0.5041  -0.03278  -0.03313  -0.02975  0.0146  0.6286  -0.6497
6.415e+09  0.4972  -0.7455  -0.02871  0.01078  -0.04063  -0.003471  0.3352  -0.8868
6.416e+09  0.1896  -0.8356  -0.00881  0.02202  -0.001667  -0.02841  -0.003225  -0.8994
6.418e+09  -0.1194  -0.9176  0.03929  -0.01833  0.001079  -0.003679  -0.2646  -0.8363
6.419e+09  -0.3265  -0.8288  0.03705  -0.01473  -0.06364  -0.01689  -0.5124  -0.6996
6.42e+09  -0.593  -0.6508  -0.0178  -0.005226  -0.01957  0.04586  -0.719  -0.4828
6.421e+09  -0.8557  -0.3829  0.004538  0.01491  0.02701  -0.02041  -0.9108  -0.2141
6.422e+09  -0.8783  -0.06471  0.008638  0.02715  -0.01438  0.01178  -0.8758  0.1191
6.424e+09  -0.8348  0.2226  -0.006748  -0.01451  -0.01735  -0.02527  -0.8046  0.46
6.425e+09  -0.7299  0.5008  0.02133  -0.02125  -0.01963  -0.05195  -0.62  0.6332
6.426e+09  -0.5293  0.7265  0.01235  -0.001296  -0.02308  0.008027  -0.3393  0.8065
6.428e+09  -0.2543  0.8219  -0.009843  0.02901  -0.02022  -0.01327  0.00481  0.8677
6.429e+09  0.09988  0.8878  -0.02245  -0.02127  -0.01931  0.00234  0.2439  0.8072
6.43e+09  0.393  0.8503  -0.01459  0.01099  -0.004122  0.04574  0.5062  0.7428
6.431e+09  0.6687  0.6371  0.02433  -0.04628  0.0386  0.03788  0.7736  0.4438
6.432e+09  0.8327  0.3687  -0.03041  -0.03476  -0.04578  -0.05972  0.8496  0.1965
6.434e+09  0.8834  0.0354  -0.01711  0.04002  -0.01362  -0.02058  0.8536  -0.09296
6.435e+09  0.8631  -0.2876  0.04097  -0.007389  -0.01779  0.02247  0.7907  -0.3209
6.436e+09  0.7252  -0.5423  -0.008407  -0.0535  0.01535  0.03941  0.5953  -0.6222
6.438e+09  0.4919  -0.7877  -0.02703  -0.01352  0.0435  0.0002131  0.3612  -0.7931
6.439e+09  0.2292  -0.8591  -0.004289  0.007392  0.005016  0.01201  0.08497  -0.8784
6.44e+09  -0.1406  -0.8936  0.01519  -0.005473  0.05331  0.02479  -0.2239  -0.7805
6.441e+09  -0.4192  -0.8032  0.0231  0.0006889  0.006899  0.007475  -0.4784  -0.6892
6.442e+09  -0.681  -0.6373  0.009973  -0.01917  0.04587  0.038  -0.7438  -0.4804
6.444e+09  -0.8813  -0.3533  -0.03743  0.04607  -0.02807  -0.01338  -0.8241  -0.2167
6.445e+09  -0.9018  -0.04161  0.01959  -0.0542  0.006535  -0.03254  -0.8317  0.07576
6.446e+09  -0.8251  0.2309  -0.01625  -0.0162  -0.0318  -0.005219  -0.7651  0.3435
6.448e+09  -0.6831  0.5206  -0.004811  -0.009562  -0.006435  -0.004725  -0.5508  0.6172
6.449e+09  -0.4895  0.768  -0.006703  0.007018  0.006542  0.026  -0.3672  0.7838
6.45e+09  -0.1646  0.8452  -0.005701  -0.03307  0.03276  0.01085  -0.108  0.8255
6.451e+09  0.1233  0.9053  -0.008675  -0.003039  -0.008405  0.04519  0.2161  0.815
6.452e+09  0.3855  0.8247  0.01909  0.003094  -0.008122  -0.04757  0.512  0.6705
6.454e+09  0.6848  0.6147  0.028  0.02366  0.02102  0.0177  0.6745  0.4996
6.455e+09  0.8149  0.4152  0.02514  -0.0212  -0.02381  -0.02409  0.7725  0.2174
6.456e+09  0.9053  0.02238  -0.01747  0.004747  -0.04322  -0.01762  0.8149  -0.09079
6.458e+09  0.8609  -0.285  -0.003989  -0.0009336  0.01459  0.0224  0.7538  -0.332
6.459e+09  0.7415  -0.5626  0.02411  -0.000431  -0.05326  0.03936  0.5386  -0.5468
6.46e+09  0.4886  -0.8036  -0.01817  0.04669  0.03679  -0.04692  0.3097  -0.713
6.461e+09  0.1642  -0.8844  0.006742  -0.007009  -0.03685  -0.04083  0.08616  -0.764
6.462e+09  -0.2109  -0.9259  -0.01644  0.03396  0.00709  0.04469  -0.2147  -0.8365
6.464e+09  -0.4904  -0.7745  0.003378  -0.02209  -0.00417  0.05991  -0.4982  -0.6745
6.465e+09  -0.7044  -0.6314  -0.003351  -0.00234  -0.01438  0.01626  -0.6174  -0.4204
6.466e+09  -0.8393  -0.345  -0.01018  0.01146  0.09667  0.06321  -0.7515  -0.2239
6.468e+09  -0.9163  -0.02959  0.03854  -0.03187  0.03932  -0.002571  -0.8154  0.08477
6.469e+09  -0.8678  0.3491  -0.01802  0.04041  0.01607  -0.02593  -0.714  0.3264
6.47e+09  -0.689  0.5942  0.006218  -0.008394  -0.006708  0.04743  -0.59  0.5435
6.471e+09  -0.4029  0.8061  0.01399  -0.008425  0.03154  0.009969  -0.3357  0.6747
6.472e+09  -0.2012  0.9055  -0.008793  -0.03959  -0.03661  -0.03706  -0.08308  0.7986
6.474e+09  0.1393  0.9357  0.01037  0.0203  -0.03253  -0.01053  0.2048  0.7789
6.475e+09  0.4738  0.8138  -0.001065  -0.00449  -0.03095  0.02979  0.4575  0.6404
6.476e+09  0.7235  0.6125  0.006045  -0.0158  0.05672  -0.02589  0.6418  0.4689
6.478e+09  0.8978  0.3197  -0.03057  0.02136  0.02278  -0.036  0.7679  0.2121
6.479e+09  0.9591  -0.0416  0.01494  -0.03016  -0.0126  0.02062  0.8159  -0.05364
6.48e+09  0.8614  -0.3152  0.001593  -0.02596  0.02687  0.02224  0.7204  -0.3409
6.481e+09  0.6894  -0.6708  0.03345  0.001529  -0.02005  -0.04047  0.5592  -0.5315
6.482e+09  0.4748  -0.8799  0.0176  0.04343  -0.009885  0.06092  0.2632  -0.6886
6.484e+09  0.1477  -0.9632  0.01862  0.04992  -0.02832  0.002588  0.05659  -0.7302
6.485e+09  -0.2446  -0.8956  0.003501  0.03016  -0.01864  0.0223  -0.2343  -0.7455
6.486e+09  -0.4907  -0.7559  0.008585  -0.01668  -0.01658  -0.01312  -0.471  -0.6576
6.488e+09  -0.7489  -0.5423  -0.01322  0.0167  -0.03416  0.01544  -0.6925  -0.4636
6.489e+09  -0.8443  -0.2679  0.03099  -0.004788  0.02172  -0.003927  -0.7212  -0.1865
6.49e+09  -0.9494  0.1269  0.003884  -0.003769  -0.0189  -0.01369  -0.7458  0.09969
6.491e+09  -0.9237  0.3888  0.02196  -0.01768  -0.02521  0.05645  -0.7318  0.3347
6.492e+09  -0.6572  0.6965  0.00873  -0.016  0.007748  0.008533  -0.509  0.523
6.494e+09  -0.382  0.8464  -0.008287  -0.02789  -0.02648  0.0394  -0.3118  0.75
6.495e+09  -0.03052  0.9834  -0.09417  -0.02068  0.05289  0.01014  -0.02589  0.7204
6.496e+09  0.2332  0.9194  0.008303  -0.01361  0.002912  -0.02711  0.212  0.7274
6.498e+09  0.6169  0.7656  0.003  -0.007071  0.01734  -0.03975  0.4869  0.6146
6.499e+09  0.8131  0.5356  -0.002467  -0.03132  -0.01141  -0.009322  0.6807  0.3905
6.5e+09  0.9558  0.2039  -0.03856  -0.02564  0.004539  -0.02299  0.7377  0.1482
6.501e+09  0.9678  -0.07379  -0.01245  -0.009328  0.03293  0.01914  0.7272  -0.1604
6.502e+09  0.8805  -0.4485  -0.0114  0.01056  -0.038  0.02759  0.6528  -0.3428
6.504e+09  0.6246  -0.719  -0.007808  0.006676  0.0161  -0.02644  0.5302  -0.6062
6.505e+09  0.2954  -0.8895  0.0203  0.009467  -0.02061  0.02316  0.2955  -0.7276
6.506e+09  -0.006945  -0.9929  0.0085  0.002211  0.03701  -0.0832  0.01554  -0.7583
6.508e+09  -0.324  -0.9283  -0.01958  0.02368  -0.01025  -0.02362  -0.226  -0.7192
6.509e+09  -0.5715  -0.7378  -0.01719  -0.004268  -0.05765  0.002941  -0.4631  -0.5946
6.51e+09  -0.8211  -0.4963  0.037  0.0117  -0.006842  -0.009884  -0.6737  -0.3764
6.511e+09  -0.9478  -0.1532  -0.0132  0.007928  -0.03519  0.01822  -0.7055  -0.1518
6.512e+09  -0.9492  0.1555  -0.001586  -0.04928  0.004425  0.02447  -0.7277  0.1244
6.514e+09  -0.8466  0.513  0.01545  0.01631  -0.04628  -0.02834  -0.6437  0.3807
6.515e+09  -0.567  0.812  0.02604  -0.03395  -0.02882  -0.04504  -0.4559  0.5836
6.516e+09  -0.3031  0.9102  0.02934  0.0382  0.04117  -0.001043  -0.2354  0.6966
6.518e+09  0.08044  0.949  -0.02442  -0.02605  -0.05028  0.01551  0.02234  0.7551
6.519e+09  0.332  0.8391  -0.001812  0.005098  0.02972  -0.0511  0.2823  0.6642
6.52e+09  0.6902  0.7084  -0.01283  -0.01982  0.0466  -0.008518  0.5007  0.5608
6.521e+09  0.8913  0.4708  -0.001045  0.006333  0.01506  0.01171  0.6883  0.3813
6.522e+09  1.002  0.04096  -0.01426  -0.002066  0.01772  -0.05565  0.7221  0.09284
6.524e+09  0.9493  -0.2936  0.02741  0.02107  -0.008287  0.05129  0.7072  -0.1268
6.525e+09  0.731  -0.6324  -0.01324  -0.01386  -0.01328  0.01077  0.6072  -0.3867
6.526e+09  0.5118  -0.8152  0.01818  -0.03001  0.04374  0.04104  0.4373  -0.5365
6.528e+09  0.204  -0.9737  -0.01121  0.009054  -0.01817  0.0301  0.1974  -0.6411
6.529e+09  -0.1572  -0.966  -0.0002921  0.009236  0.009783  -0.01736  -0.07636  -0.6985
6.53e+09  -0.4947  -0.8894  0.02277  -0.01193  -0.03195  0.01336  -0.2921  -0.602
6.531e+09  -0.7156  -0.606  -0.002903  -0.007815  -0.03846  -0.0102  -0.477  -0.4924
6.532e+09  -0.9543  -0.3757  -0.007576  0.008221  0.02945  -0.04681  -0.6003  -0.2864
6.534e+09  -0.9586  -0.01825  0.03371  0.02138  0.03243  0.002134  -0.6295  -0.06518
6.535e+09  -0.9243  0.3503  -0.02024  -0.02308  -0.01839  -0.01584  -0.6648  0.102
6.536e+09  -0.7267  0.66  0.0125  -0.0147  -0.006196  0.0009002  -0.5442  0.313
6.538e+09  -0.5132  0.8236  -0.003234  -0.01981  0.01865  -0.0426  -0.4383  0.4957
6.539e+09  -0.1265  0.9797  0.006169  0.001144  -0.02558  -0.001129  -0.2395  0.6112
6.54e+09  0.2418  0.9322  -0.02947  -0.01875  -0.007909  -0.01843  -0.05786  0.6807
6.541e+09  0.5741  0.7898  0.002804  0.0259  -0.01245  -0.02913  0.2087  0.6403
6.542e+09  0.7719  0.5334  -0.01087  -0.00719  0.02636  0.003833  0.4178  0.5566
6.544e+09  0.9253  0.2775  0.0472  -0.008068  -0.02391  -0.002311  0.5867  0.3946
6.545e+09  0.9654  -0.108  0.02302  0.02785  0.01599  -0.03844  0.7011  0.1595
6.546e+09  0.8528  -0.4259  0.03025  -0.02117  -0.04105  -0.02397  0.7123  -0.05461
6.548e+09  0.6946  -0.699  -0.0147  -0.003935  -0.02345  -0.04272  0.6432  -0.3382
6.549e+09  0.3697  -0.8848  -0.02174  0.004561  -0.005658  -0.01155  0.5096  -0.5077
6.55e+09  0.06668  -0.9677  -0.02772  0.005828  0.01422  0.008473  0.2723  -0.6766
6.551e+09  -0.2671  -0.8276  -0.02639  0.00338  -0.01838  0.07141  0.02812  -0.7766
