# Hz S RI R 50
6.25e+09  -0.7352  -0.3556  -0.003076  0.0003625  0.01514  -0.004058  0.1852  0.4995
6.251e+09  -0.786  -0.05709  0.03591  -0.01058  -0.002703  0.0001049  0.3489  0.402
6.252e+09  -0.7759  0.2472  0.01471  0.01124  0.02461  -0.003779  0.5668  0.2595
6.254e+09  -0.6485  0.463  0.01175  0.02268  -0.03544  -0.003681  0.5964  0.02052
6.255e+09  -0.5412  0.6103  -0.01104  -0.01787  -0.01579  -0.005811  0.5937  -0.2343
6.256e+09  -0.1916  0.7973  -0.02977  -0.03132  -0.02364  0.02386  0.4856  -0.4502
6.258e+09  0.1071  0.808  -0.03188  0.008519  0.01594  -0.06657  0.2943  -0.5986
6.259e+09  0.4281  0.7014  0.02392  -0.0007148  -0.03564  -0.02308  0.04455  -0.6589
6.26e+09  0.5612  0.5281  -0.001452  -0.0007608  0.001643  0.06229  -0.2505  -0.6568
6.261e+09  0.7635  0.2675  -0.009231  -0.00517  0.03797  0.00929  -0.4838  -0.5656
6.262e+09  0.8444  0.03509  0.0153  0.02352  0.003837  -0.02538  -0.636  -0.3526
6.264e+09  0.7369  -0.2589  0.03169  -0.00776  -0.03799  -0.002751  -0.705  -0.1103
6.265e+09  0.669  -0.5145  0.006034  -0.007269  0.03  -0.03039  -0.6815  0.1546
6.266e+09  0.38  -0.6612  -0.004539  -0.01745  0.01  -0.01929  -0.6264  0.4361
6.268e+09  0.1773  -0.7795  0.02267  0.04787  -0.04616  -0.04455  -0.4121  0.6262
6.269e+09  -0.07386  -0.8199  0.02149  -0.009798  -0.03077  -0.01118  -0.1686  0.7128
6.27e+09  -0.4031  -0.7039  -0.00978  -0.002993  0.04112  0.0115  0.07017  0.721
6.271e+09  -0.6134  -0.5208  -0.03339  0.02446  0.02408  -0.03238  0.3408  0.6765
6.272e+09  -0.7733  -0.2789  0.01464  -0.01232  0.02448  0.006086  0.5073  0.5402
6.274e+09  -0.811  -0.00397  -0.02081  -0.00189  -0.04287  0.009169  0.706  0.2933
6.275e+09  -0.8259  0.2821  0.01035  0.005294  0.05349  -0.002965  0.7856  0.04413
6.276e+09  -0.5648  0.5501  0.01738  0.001712  0.01917  0.02432  0.7386  -0.2412
6.278e+09  -0.3802  0.6789  0.004704  0.01511  -0.0131  -0.00185  0.6331  -0.4701
6.279e+09  -0.1279  0.7655  0.003395  0.009316  -0.001182  0.006049  0.4319  -0.6344
6.28e+09  0.178  0.797  -0.02532  -0.03365  -0.006945  0.02516  0.173  -0.76
6.281e+09  0.4329  0.7043  0.03523  0.007005  -0.07143  0.01566  -0.1038  -0.7931
6.282e+09  0.6597  0.5099  0.0266  -0.004818  -0.009633  -0.009262  -0.4152  -0.6864
6.284e+09  0.7704  0.2529  -0.00482  -0.02588  0.005012  0.006112  -0.5862  -0.5445
6.285e+09  0.8591  -0.0989  0.003175  -0.007388  0.01561  0.01869  -0.7443  -0.3032
6.286e+09  0.6841  -0.3653  -0.01852  -0.01164  0.007812  -0.01277  -0.833  -0.02811
6.288e+09  0.6127  -0.5802  -0.03611  0.02034  -0.02202  -0.01306  -0.7564  0.2938
6.289e+09  0.3849  -0.777  -0.0003273  -0.02534  -0.001408  0.005377  -0.6426  0.4956
6.29e+09  0.04834  -0.7778  -0.005832  -0.0006829  0.03956  0.04141  -0.4328  0.6652
6.291e+09  -0.2037  -0.771  -0.009609  0.01503  -0.01416  -0.05253  -0.1456  0.7646
6.292e+09  -0.4672  -0.6885  -0.03019  -0.01743  0.04307  -0.0413  0.0957  0.814
6.294e+09  -0.6481  -0.4234  0.03926  -0.01087  -0.0113  0.02302  0.3883  0.6946
6.295e+09  -0.7933  -0.2072  -0.02051  -0.01405  0.01558  0.003731  0.6411  0.5602
6.296e+09  -0.7886  0.1032  0.02629  0.01676  -0.01241  -0.03409  0.7772  0.3077
6.298e+09  -0.7002  0.4096  -0.02241  0.01833  -3.275e-05  -0.00101  0.8378  0.01373
6.299e+09  -0.5609  0.6053  0.01312  0.00297  -0.0025  0.05285  0.8047  -0.3048
6.3e+09  -0.3154  0.7899  -0.03167  -0.02773  -0.04319  0.03693  0.6293  -0.5361
6.301e+09  -0.05969  0.8811  0.005346  0.01825  0.0005445  0.004423  0.4188  -0.7075
6.302e+09  0.2292  0.7904  0.03565  0.01009  -0.00908  0.03056  0.1627  -0.819
6.304e+09  0.4334  0.6259  0.009411  0.01903  -0.02326  -0.01131  -0.1276  -0.7978
6.305e+09  0.7287  0.4023  0.01203  -0.02435  -0.004311  0.004432  -0.424  -0.7172
6.306e+09  0.7805  0.1365  0.01563  0.005998  -0.01717  0.03401  -0.6256  -0.562
6.308e+09  0.8478  -0.1543  0.01472  0.01227  -0.008633  0.009041  -0.7983  -0.2845
6.309e+09  0.7083  -0.3763  0.001931  0.0004764  0.01977  0.01366  -0.8676  0.02032
6.31e+09  0.578  -0.6371  0.005524  0.01966  0.03115  0.06367  -0.8128  0.2999
6.311e+09  0.2852  -0.8046  -0.02187  -0.001905  0.01409  0.0376  -0.6569  0.5715
6.312e+09  -0.06216  -0.8281  -0.001538  0.01988  0.005927  0.02669  -0.4257  0.7382
6.314e+09  -0.3217  -0.7846  0.002764  0.01072  -0.009342  -0.02991  -0.1633  0.8549
6.315e+09  -0.5625  -0.6294  -0.0004282  0.00509  -0.009689  0.01492  0.1648  0.8511
6.316e+09  -0.7728  -0.3914  0.02387  -0.04618  0.01721  -0.0449  0.4343  0.7969
6.318e+09  -0.8285  -0.1178  -0.01501  0.02457  0.007308  0.003462  0.6622  0.5746
6.319e+09  -0.8298  0.1707  0.00934  3.901e-05  -0.000921  0.009067  0.8261  0.2987
6.32e+09  -0.6732  0.4523  0.007792  -0.002588  -0.01949  -0.007841  0.9152  0.01865
6.321e+09  -0.4459  0.6757  -0.01154  -0.05062  0.04371  0.03188  0.8047  -0.2848
6.322e+09  -0.1737  0.8347  0.01422  0.008905  -0.003536  0.0006303  0.6701  -0.5818
6.324e+09  0.09714  0.7996  0.0021  -0.02159  -0.01418  -0.02324  0.4376  -0.768
6.325e+09  0.357  0.7897  0.007632  -0.02453  0.02337  0.000947  0.1637  -0.8792
6.326e+09  0.6354  0.5713  0.03218  0.002905  0.01402  0.01724  -0.1444  -0.8871
6.328e+09  0.8006  0.3468  0.02254  -0.04211  0.005898  0.0001326  -0.4275  -0.7665
6.329e+09  0.8567  -0.001252  0.01987  -0.009929  0.009095  -0.04192  -0.6758  -0.6278
6.33e+09  0.8299  -0.2728  -0.01034  0.02111  0.03395  -0.03977  -0.8381  -0.3406
6.331e+09  0.6442  -0.5462  0.01038  0.001578  -0.01169  0.005726  -0.9205  -0.02808
6.332e+09  0.4561  -0.7275  -0.03466  0.0157  -0.01238  0.008831  -0.9041  0.2766
6.334e+09  0.2022  -0.8269  0.003948  0.006713  0.01119  0.01087  -0.6925  0.5335
6.335e+09  -0.1146  -0.8362  -0.02865  -0.01214  0.0004324  -0.01499  -0.521  0.754
6.336e+09  -0.4286  -0.7712  0.004304  -0.007338  0.02588  0.004599  -0.1988  0.8588
6.338e+09  -0.6379  -0.52  0.02725  -0.0004448  0.001106  -0.008966  0.1024  0.9217
6.339e+09  -0.827  -0.245  0.02922  0.03364  0.01866  0.005378  0.3753  0.8404
6.34e+09  -0.8005  -0.002689  0.009493  -0.0338  -0.01492  -0.001383  0.6714  0.6258
6.341e+09  -0.7518  0.2999  0.01978  0.002207  0.02628  0.007143  0.878  0.3427
6.342e+09  -0.6001  0.5478  0.02052  -0.02115  -0.006712  -0.006101  0.9491  0.0359
6.344e+09  -0.3398  0.7065  -0.02889  0.001111  -0.01212  -0.009485  0.8899  -0.2697
6.345e+09  -0.04978  0.8494  -0.01448  0.01697  0.009017  -0.009439  0.7427  -0.56
6.346e+09  0.2219  0.7812  -0.01688  0.008735  0.0267  0.03334  0.5127  -0.7745
6.348e+09  0.5191  0.7146  0.05462  -0.01306  -0.01943  -0.01886  0.2298  -0.8986
6.349e+09  0.7172  0.4722  -0.008084  0.02118  0.003205  -0.06466  -0.1071  -0.933
6.35e+09  0.8314  0.1981  -0.01402  -0.0119  0.0148  -0.03931  -0.4281  -0.8399
6.351e+09  0.8005  -0.1046  -0.003198  0.02072  -0.005158  -0.07121  -0.6676  -0.6535
6.352e+09  0.7463  -0.4068  -0.0214  0.03341  -0.000656  0.02637  -0.8524  -0.3681
6.354e+09  0.6241  -0.672  -0.008012  0.01193  0.006173  0.0249  -0.9237  -0.02285
6.355e+09  0.2887  -0.8401  0.007098  -0.009688  -0.02547  0.03115  -0.9419  0.2853
6.356e+09  0.01157  -0.8671  -0.0431  0.02155  -0.02294  0.007651  -0.7686  0.5814
6.358e+09  -0.3058  -0.7762  0.002939  0.00596  0.0415  -0.01373  -0.5385  0.8134
6.359e+09  -0.5704  -0.6815  0.007771  -0.01845  0.009081  0.03259  -0.2663  0.9391
6.36e+09  -0.7792  -0.3598  0.007627  0.01345  -0.04268  -0.01619  0.08977  0.9376
6.361e+09  -0.8834  -0.1078  -0.02266  0.06122  -0.03879  0.03139  0.3899  0.8521
6.362e+09  -0.807  0.1688  0.0008482  0.005269  0.03964  0.01189  0.7119  0.6708
6.364e+09  -0.7012  0.4786  -0.004377  0.004888  0.01799  0.000504  0.8721  0.3746
6.365e+09  -0.4829  0.7191  0.008051  0.01619  -0.04857  -0.01469  0.9605  0.07941
6.366e+09  -0.2377  0.8689  0.0439  -0.001875  0.008483  -0.009176  0.8891  -0.3111
6.368e+09  0.05803  0.902  0.00267  0.01658  0.02007  0.03339  0.7764  -0.5432
6.369e+09  0.3837  0.7478  0.008679  -0.006091  -0.02953  -0.03176  0.5478  -0.7507
6.37e+09  0.6223  0.5389  -0.04983  -0.04862  0.03364  -0.01181  0.2344  -0.9703
6.371e+09  0.8119  0.3043  -0.003826  -0.01985  0.01712  -0.01288  -0.06438  -0.9386
6.372e+09  0.8786  -0.01892  -0.01547  -0.0001886  -0.02087  -0.05104  -0.4179  -0.8577
6.374e+09  0.8049  -0.3266  -0.007799  0.03003  -0.01304  -0.04189  -0.6794  -0.6398
6.375e+09  0.6719  -0.5755  0.01506  0.01555  0.01168  -0.01356  -0.8538  -0.4297
6.376e+09  0.4549  -0.7553  -0.007405  0.003669  0.009908  0.0165  -0.9759  -0.09153
6.378e+09  0.117  -0.8271  0.03449  0.02978  -0.001235  -0.002513  -0.8958  0.2425
6.379e+09  -0.1817  -0.8436  -0.04265  0.0211  -0.01379  0.01439  -0.8121  0.5407
6.38e+09  -0.4388  -0.7289  -0.006244  0.0007285  -0.04715  -0.07313  -0.5498  0.7294
6.381e+09  -0.7166  -0.4832  0.004945  -0.03528  0.02083  0.03767  -0.2738  0.9156
6.382e+09  -0.8216  -0.2413  0.02227  -0.007379  -0.02407  0.04709  0.07788  0.9346
6.384e+09  -0.8784  0.03076  0.0172  -0.00374  -0.02733  0.03043  0.347  0.8628
6.385e+09  -0.7877  0.3577  0.01741  0.01878  0.002098  0.003719  0.6746  0.7068
6.386e+09  -0.6334  0.5782  0.009977  0.00626  -0.000321  0.001461  0.8347  0.4239
6.388e+09  -0.3398  0.7711  -0.00936  0.03672  0.009352  -0.05531  0.9495  0.1148
6.389e+09  -0.06977  0.9169  -0.01769  0.02883  0.03559  -0.008773  0.9173  -0.1936
6.39e+09  0.2393  0.8169  -0.01475  0.02361  -0.04245  0.03959  0.8039  -0.523
6.391e+09  0.4896  0.6937  -0.01861  -0.01803  0.02163  -0.01812  0.5495  -0.7683
6.392e+09  0.7535  0.4524  -0.03589  0.01401  -0.0419  -0.005796  0.2853  -0.8656
6.394e+09  0.8875  0.183  0.03324  -0.01571  0.01252  0.0187  -0.008712  -0.9429
6.395e+09  0.8055  -0.1503  0.04329  -0.004716  -0.006361  -0.02813  -0.3842  -0.8303
6.396e+09  0.7177  -0.4375  -0.03204  -0.0007821  0.006825  -0.04746  -0.6153  -0.6765
6.398e+09  0.599  -0.686  -0.03542  -0.02477  0.004216  -0.02083  -0.8223  -0.4524
6.399e+09  0.3036  -0.8553  -0.01854  -0.005235  0.009009  -0.01953  -0.8894  -0.2044
6.4e+09  -0.01031  -0.8506  -0.02784  0.02248  0.01451  0.01002  -0.8664  0.1881
6.401e+09  -0.3344  -0.813  -0.008864  0.01099  -0.01621  0.0145  -0.7675  0.4836
6.402e+09  -0.6158  -0.6363  0.02939  0.04149  0.0124  0.004922  -0.5495  0.7412
6.404e+09  -0.7826  -0.4069  0.03796  -0.02274  0.01129  -0.01742  -0.287  0.845
6.405e+09  -0.8476  -0.05003  -0.01491  0.02703  0.05473  -0.01512  -0.008933  0.8599
6.406e+09  -0.9102  0.2497  0.02712  -0.02496  0.01387  0.03164  0.3085  0.8712
6.408e+09  -0.7372  0.4576  0.001225  0.05061  -0.06215  0.05939  0.595  0.7328
6.409e+09  -0.5012  0.7232  -0.04005  0.02644  0.06257  0.05307  0.7792  0.4485
6.41e+09  -0.1741  0.8396  -0.02097  0.001425  0.02416  -0.01493  0.9148  0.1402
6.411e+09  0.1303  0.8691  -0.004829  -0.00674  -0.01768  -0.03757  0.893  -0.1552
6.412e+09  0.4601  0.8155  0.0005008  0.03044  -0.005581  0.02853  0.7907  -0.4256
6.414e+09  0.6637  0.5183  0.04704  0.04645  -0.01111  0.009682  0.6149  -0.671
6.415e+09  0.7692  0.3147  -0.04433  -0.03602  0.02781  0.005222  0.338  -0.8393
6.416e+09  0.8997  0.02306  -0.01192  -0.01525  -0.001119  -0.03041  0.04335  -0.8856
6.418e+09  0.8126  -0.3077  -0.03698  0.03121  0.05809  -0.006468  -0.2721  -0.8275
6.419e+09  0.6572  -0.5651  -0.04337  0.0007918  0.02098  -0.007652  -0.5617  -0.7305
6.42e+09  0.4726  -0.6941  -0.02187  -0.00845  0.013  0.02241  -0.7732  -0.4339
6.421e+09  0.1449  -0.8793  -0.02261  -0.02892  -0.04145  -0.01635  -0.8478  -0.192
6.422e+09  -0.1923  -0.8273  -0.01404  -0.02407  -0.006177  -0.00204  -0.8764  0.1118
6.424e+09  -0.4574  -0.7088  -0.02804  -0.01998  0.004469  -0.02737  -0.7695  0.3786
6.425e+09  -0.7544  -0.5386  -0.01792  0.02385  0.001144  -0.03244  -0.5627  0.6652
6.426e+09  -0.8186  -0.2445  -0.005863  -0.04981  -0.05522  0.01682  -0.3594  0.8127
6.428e+09  -0.8331  0.04928  0.03824  0.04595  0.02045  0.02252  -0.08061  0.8878
6.429e+09  -0.7503  0.3282  -0.05456  -0.002759  -0.01469  -0.01386  0.2589  0.828
6.43e+09  -0.6148  0.6279  -0.02632  -0.05371  0.004058  0.05344  0.5125  0.6573
6.431e+09  -0.3577  0.755  0.003515  -0.01366  0.0009964  0.01482  0.7204  0.512
6.432e+09  -0.06012  0.8202  -0.07883  -0.04057  0.008456  -0.004274  0.9046  0.1892
6.434e+09  0.1996  0.8193  0.0177  -0.02785  0.01482  0.01083  0.8585  -0.06638
6.435e+09  0.5163  0.6948  -0.003396  -0.01816  0.02983  -0.002689  0.778  -0.4207
6.436e+09  0.7304  0.502  0.01157  -0.02272  0.03022  0.02346  0.5986  -0.6526
6.438e+09  0.8626  0.2182  0.01816  -0.002151  0.004142  -0.007043  0.354  -0.771
6.439e+09  0.8471  -0.1384  0.03843  -0.06932  -0.05821  0.03172  0.0847  -0.8598
6.44e+09  0.8173  -0.3996  -0.008067  0.01079  0.02259  0.04187  -0.2309  -0.8233
6.441e+09  0.5633  -0.6087  -0.04948  -0.04243  0.04161  -0.01156  -0.4881  -0.7096
6.442e+09  0.3118  -0.8196  0.04599  0.02519  0.01915  -0.02458  -0.7404  -0.4806
6.444e+09  0.02263  -0.8879  0.04221  0.02967  -0.01913  -0.01829  -0.8557  -0.1975
6.445e+09  -0.2612  -0.8047  0.009119  0.009111  -0.02679  0.01725  -0.8406  0.03489
6.446e+09  -0.5887  -0.6886  0.01886  -0.006594  -0.01018  -0.08078  -0.7794  0.3829
6.448e+09  -0.769  -0.4084  0.003844  0.0251  -0.04243  -0.003838  -0.6336  0.608
6.449e+09  -0.8522  -0.1257  -0.02757  -0.007549  0.01157  0.009448  -0.3416  0.7778
6.45e+09  -0.8542  0.1466  0.003248  0.002367  0.0153  0.04519  -0.09381  0.8743
6.451e+09  -0.7351  0.4481  -0.03221  0.005238  -0.0613  -0.01149  0.2175  0.7879
6.452e+09  -0.5252  0.6914  -0.003987  0.000146  0.01815  0.008919  0.5147  0.7223
6.454e+09  -0.27  0.8134  0.0003039  -0.01781  -0.02872  0.01479  0.7162  0.4757
6.455e+09  0.008404  0.8111  -0.01346  0.01182  0.02858  -0.03251  0.8055  0.2103
6.456e+09  0.2986  0.7654  -0.04057  0.005362  0.02502  -0.02686  0.8227  -0.05697
6.458e+09  0.6038  0.6197  -0.02599  -0.009239  0.006297  -0.0005952  0.7603  -0.3381
6.459e+09  0.7688  0.3684  -0.01907  -0.002526  -0.005286  -0.04211  0.583  -0.5838
6.46e+09  0.8153  0.1488  -0.006422  0.01207  -0.005177  0.001137  0.3431  -0.7349
6.461e+09  0.8692  -0.1407  -0.05271  0.05239  -0.02248  -0.0214  0.05122  -0.8101
6.462e+09  0.7173  -0.4976  0.003385  0.01203  0.01432  0.02781  -0.234  -0.7636
6.464e+09  0.4833  -0.7111  0.03029  0.02863  0.05122  -0.02105  -0.4698  -0.6215
6.465e+09  0.2462  -0.8145  0.02055  0.00129  -0.005829  -0.03843  -0.6715  -0.4767
6.466e+09  0.001054  -0.8384  -0.05199  -0.005866  -0.04908  0.002146  -0.7758  -0.2457
6.468e+09  -0.3341  -0.8144  0.01879  0.03999  -0.04879  -0.02304  -0.7469  0.05366
6.469e+09  -0.5806  -0.6923  -0.01455  -0.0006793  -0.03901  0.04055  -0.745  0.3412
6.47e+09  -0.7523  -0.3336  0.0008663  0.03629  -0.04279  0.003588  -0.575  0.5293
6.471e+09  -0.8657  -0.08266  0.02978  -0.01116  -0.003106  -0.02735  -0.3242  0.7224
6.472e+09  -0.8278  0.1366  -0.003551  -0.01913  0.02381  0.008541  -0.0431  0.7663
6.474e+09  -0.6855  0.4121  -0.006862  -0.03981  -0.01675  0.004183  0.2342  0.7637
6.475e+09  -0.4884  0.6682  0.00195  0.003506  0.03692  0.01541  0.4642  0.6212
6.476e+09  -0.2053  0.8008  -0.0285  0.01221  0.04092  -0.00362  0.657  0.4976
6.478e+09  0.05888  0.8975  0.0136  -0.04645  -0.02333  0.04087  0.7128  0.1798
6.479e+09  0.3453  0.7537  0.03867  0.01749  -0.01792  0.06782  0.7405  -0.06618
6.48e+09  0.5404  0.6274  0.002894  0.03218  0.01809  -0.01633  0.7239  -0.3878
6.481e+09  0.7275  0.3806  -0.02536  -0.02018  -0.02481  -0.0259  0.5291  -0.5454
6.482e+09  0.7991  0.06426  -0.02528  0.01906  0.02575  -0.01292  0.347  -0.6981
6.484e+09  0.7563  -0.2257  -0.01545  -0.04887  0.04454  -0.0137  0.04036  -0.8149
6.485e+09  0.7525  -0.5184  -0.01683  -0.07928  -0.04313  -0.003546  -0.225  -0.7666
6.486e+09  0.4638  -0.6844  -0.01524  -0.0223  -0.003175  0.009669  -0.4336  -0.5944
6.488e+09  0.2212  -0.8326  0.01255  0.01049  0.008936  -0.01638  -0.6682  -0.4342
6.489e+09  -0.08682  -0.8784  -0.0261  -0.002759  -0.002344  0.03069  -0.7604  -0.1554
6.49e+09  -0.3356  -0.7583  -0.01942  -0.01884  0.01309  0.03298  -0.7663  0.1019
6.491e+09  -0.6115  -0.631  0.0007139  0.02827  -0.01788  0.006472  -0.6899  0.3589
6.492e+09  -0.7783  -0.3358  0.01198  0.005214  -0.01117  -0.005228  -0.5458  0.6169
6.494e+09  -0.8617  -0.09619  -0.01299  0.02206  0.003355  -0.01248  -0.3555  0.7077
6.495e+09  -0.8631  0.2761  0.003634  0.02153  0.04667  0.001057  -0.05453  0.7588
6.496e+09  -0.687  0.5023  -0.03096  0.03526  -0.02458  0.05354  0.2181  0.7415
6.498e+09  -0.4592  0.7444  -0.01216  0.008255  0.02778  -0.01108  0.4497  0.6491
6.499e+09  -0.201  0.8274  -0.000987  0.02285  0.03379  0.008212  0.6772  0.4155
6.5e+09  0.09351  0.8876  -0.02324  0.00942  0.01135  0.05899  0.7629  0.1493
6.501e+09  0.4259  0.7368  0.009765  0.004209  -0.01761  0.01936  0.7419  -0.06667
6.502e+09  0.6435  0.5776  -0.02525  0.007282  -0.008168  0.07022  0.6413  -0.3692
6.504e+09  0.8084  0.3215  0.00706  0.01547  0.03763  0.007294  0.5009  -0.5511
6.505e+09  0.859  0.08138  0.006129  -0.008079  0.01051  -0.01013  0.2804  -0.7423
6.506e+09  0.8221  -0.2434  -0.01253  -0.001874  -0.008593  0.03323  0.0202  -0.7694
6.508e+09  0.6541  -0.5494  -0.01264  -0.02417  -0.04176  -0.004892  -0.2387  -0.6855
6.509e+09  0.4773  -0.7283  0.0122  0.03131  0.01407  -0.02454  -0.5145  -0.6194
6.51e+09  0.2109  -0.8735  0.03052  0.03166  -0.04294  -0.03703  -0.6446  -0.363
6.511e+09  -0.09063  -0.847  0.006875  0.005556  -0.003582  0.03181  -0.7697  -0.1233
6.512e+09  -0.4153  -0.7449  0.02516  -0.01221  0.0372  -0.006862  -0.7312  0.1022
6.514e+09  -0.6662  -0.5527  -0.0148  0.01703  -0.01014  0.008767  -0.6739  0.3916
6.515e+09  -0.7857  -0.3951  -0.001526  0.01472  -0.03534  -0.02132  -0.4788  0.5702
6.516e+09  -0.909  -0.05388  0.02207  -0.001151  -0.00793  0.009009  -0.2203  0.6954
6.518e+09  -0.8018  0.2808  0.0002036  0.004087  0.02037  0.04129  -0.000139  0.7528
6.519e+09  -0.7175  0.5612  -0.004888  -0.00855  0.01911  -0.005146  0.2581  0.6915
6.52e+09  -0.4452  0.7911  0.02152  0.007154  -0.004497  0.02959  0.5111  0.5321
6.521e+09  -0.1206  0.8569  -0.02597  0.01921  -0.009816  -0.02405  0.6655  0.3313
6.522e+09  0.1846  0.8469  -0.01066  -0.009941  0.009733  -0.004418  0.7322  0.08725
6.524e+09  0.4464  0.7874  -0.001698  0.004837  0.01088  0.05876  0.7129  -0.1654
6.525e+09  0.676  0.5775  0.02249  0.00203  -0.007033  0.01112  0.6208  -0.3927
6.526e+09  0.8838  0.3295  0.01604  -0.01652  0.03451  0.01018  0.4432  -0.5904
6.528e+09  0.883  -0.06918  -0.02819  0.01321  0.007649  0.002592  0.185  -0.6494
6.529e+09  0.896  -0.3194  0.003695  -0.004823  0.03994  -0.002656  -0.06385  -0.7172
6.53e+09  0.6763  -0.6208  -3.327e-05  -0.006466  0.02195  -0.02713  -0.2737  -0.632
6.531e+09  0.4474  -0.833  0.03524  -0.001718  0.01526  0.008769  -0.4344  -0.4517
6.532e+09  0.1287  -0.9931  0.04919  0.04056  0.05641  -0.01783  -0.61  -0.3116
6.534e+09  -0.2654  -0.9345  0.0352  0.0207  -0.007912  -0.01991  -0.5996  -0.07338
6.535e+09  -0.4954  -0.7847  -0.01574  0.009151  -0.00226  -0.01879  -0.6167  0.11
6.536e+09  -0.7961  -0.5687  0.01339  -0.01663  -0.05409  0.006247  -0.58  0.3073
6.538e+09  -0.9425  -0.2101  -0.009811  0.00122  0.01022  0.01182  -0.4318  0.4892
6.539e+09  -0.9724  0.06818  0.00691  0.02345  0.01943  -0.006675  -0.2786  0.6157
6.54e+09  -0.8555  0.4097  -0.00509  0.02717  0.009887  -0.01418  -0.07463  0.7225
6.541e+09  -0.6593  0.7046  0.02637  0.001952  -0.06019  0.0173  0.1977  0.6371
6.542e+09  -0.3756  0.8749  0.001127  0.006929  -0.005231  0.02782  0.4123  0.5309
6.544e+09  -0.08612  0.9832  -0.002857  -0.01871  0.01872  -0.02144  0.576  0.4134
6.545e+09  0.1941  0.9104  0.009608  -0.005569  0.02894  0.03663  0.6794  0.1898
6.546e+09  0.5498  0.7558  0.009109  0.008473  0.01781  -0.02002  0.7356  -0.0694
6.548e+09  0.845  0.5966  0.004729  0.03774  0.002682  -0.0357  0.6542  -0.3246
6.549e+09  0.8983  0.2422  0.0244  0.02255  -0.0008281  0.01913  0.5275  -0.5661
6.55e+09  0.9508  -0.0992  -0.004732  0.01601  -0.075  -0.05753  0.2791  -0.6777
