# Hz S RI R 50
6.25e+09  -0.3042  0.8321  0.01319  -0.03445  0.04857  -0.04805  0.1798  0.4766
6.251e+09  -0.002108  0.8648  -0.009309  0.001166  -0.01123  0.02853  0.4073  0.374
6.252e+09  0.249  0.8147  -0.0398  -0.01585  -0.02338  0.0132  0.5145  0.2414
6.254e+09  0.5157  0.6402  -0.01592  -0.0129  -0.02012  -0.05128  0.6318  0.019
6.255e+09  0.7162  0.4262  -0.0156  0.01896  0.02178  -0.001993  0.589  -0.2313
6.256e+09  0.8618  0.132  0.02001  0.01092  -0.02236  -0.03088  0.4816  -0.4221
6.258e+09  0.8111  -0.0948  0.02168  -0.01121  0.02582  0.03138  0.2985  -0.6505
6.259e+09  0.7937  -0.3639  -0.0106  -0.007952  0.02336  -0.07157  0.03152  -0.6813
6.26e+09  0.533  -0.65  0.01133  -0.001434  0.06421  -0.007663  -0.2006  -0.6598
6.261e+09  0.31  -0.7607  0.01036  0.00272  -0.005659  -0.05383  -0.4601  -0.5575
6.262e+09  0.01708  -0.9334  -0.04213  -0.01165  -0.01684  -0.008122  -0.6355  -0.3379
6.264e+09  -0.2247  -0.8123  -0.03294  -0.0245  -0.02212  0.01288  -0.7116  -0.1132
6.265e+09  -0.5501  -0.6217  0.02291  0.01212  -0.000883  -0.02729  -0.6923  0.1489
6.266e+09  -0.7507  -0.4328  -0.005226  -0.001501  0.04032  0.02224  -0.6339  0.4063
6.268e+09  -0.7886  -0.176  -0.03091  0.01204  0.006167  -0.008532  -0.4555  0.5702
6.269e+09  -0.8471  0.1534  -0.009958  0.002329  -0.02052  0.01913  -0.2019  0.7023
6.27e+09  -0.7478  0.3764  0.02527  -0.0823  0.05376  0.05973  0.07513  0.7719
6.271e+09  -0.5857  0.6745  0.01  0.007517  0.0579  -0.03788  0.3009  0.6547
6.272e+09  -0.3327  0.8577  0.002611  -0.01044  0.0167  -0.02152  0.5349  0.4998
6.274e+09  -0.0414  0.8175  0.0136  0.01091  0.05054  0.01213  0.6834  0.3353
6.275e+09  0.257  0.7809  0.005556  -0.001542  -0.01818  -0.04582  0.7916  0.06517
6.276e+09  0.5404  0.6389  -0.004378  -0.0001362  0.02435  -0.002963  0.7648  -0.2102
6.278e+09  0.7723  0.4  -0.02189  0.006754  0.005466  0.03636  0.6116  -0.5049
6.279e+09  0.8706  0.0919  -0.00529  0.004453  0.01387  -0.009157  0.4193  -0.6483
6.28e+09  0.8337  -0.1403  0.03101  0.01267  0.02255  0.006365  0.1858  -0.7814
6.281e+09  0.7309  -0.3992  0.03025  -0.006594  0.04862  -0.0373  -0.0921  -0.7647
6.282e+09  0.4609  -0.6318  -0.01225  0.01844  -0.02081  -0.005808  -0.3767  -0.7039
6.284e+09  0.2694  -0.7642  -0.008338  0.01315  -0.01836  -0.04721  -0.5855  -0.5019
6.285e+09  -0.01069  -0.8125  -0.00293  0.02345  -0.0435  -0.02837  -0.7339  -0.2846
6.286e+09  -0.3191  -0.7744  0.00101  -0.0138  -0.0005946  -0.006522  -0.8164  -0.0071
6.288e+09  -0.5504  -0.6244  -0.02257  -0.03401  -0.02218  -0.01358  -0.7445  0.2734
6.289e+09  -0.744  -0.3815  -0.01627  -0.02279  0.005047  0.02388  -0.6335  0.5046
6.29e+09  -0.8457  -0.06213  0.02444  0.009854  -0.001915  0.0001756  -0.4178  0.708
6.291e+09  -0.8038  0.2061  -0.01909  -0.008652  0.0178  -0.0002256  -0.1502  0.7572
6.292e+09  -0.7486  0.4481  -0.01515  -0.008662  -0.02032  0.0009554  0.1188  0.8222
6.294e+09  -0.4822  0.663  -0.005178  0.005072  -0.03394  0.01672  0.4078  0.6924
6.295e+09  -0.2224  0.8043  -0.01715  0.007428  0.002461  0.05122  0.6542  0.5537
6.296e+09  0.03486  0.8432  0.001303  0.004751  -0.0177  -0.03238  0.7803  0.2865
6.298e+09  0.3574  0.7463  0.007997  -0.03562  0.01169  0.04602  0.8183  0.01098
6.299e+09  0.573  0.5765  0.02559  0.01717  0.02748  -0.0109  0.7845  -0.2657
6.3e+09  0.7608  0.339  0.02727  0.02179  0.01086  -0.02841  0.6355  -0.5324
6.301e+09  0.8645  0.0874  -0.0182  0.01723  0.004581  0.02743  0.4504  -0.738
6.302e+09  0.8095  -0.1894  -0.02221  -0.00285  -0.009977  0.02515  0.1347  -0.8392
6.304e+09  0.6672  -0.4928  0.03515  0.03147  0.05222  0.004498  -0.1677  -0.8283
6.305e+09  0.5034  -0.7029  0.01192  -0.000456  -0.003693  -0.003036  -0.4122  -0.7383
6.306e+09  0.1504  -0.8131  0.01522  -0.004837  0.02314  0.05902  -0.6627  -0.576
6.308e+09  -0.05085  -0.8636  0.007027  -0.006204  -0.02742  -0.01114  -0.8095  -0.2965
6.309e+09  -0.3742  -0.7807  0.004524  -0.00591  0.009065  0.004824  -0.8279  -0.008429
6.31e+09  -0.612  -0.6043  0.002981  0.009696  0.02225  0.005686  -0.8127  0.2905
6.311e+09  -0.7844  -0.3434  0.0399  0.01835  -0.007923  -0.0417  -0.6477  0.5253
6.312e+09  -0.8081  -0.03551  -0.003944  0.002041  -0.003658  -0.005384  -0.3967  0.7542
6.314e+09  -0.8671  0.2431  -0.0182  0.03518  -0.02369  0.02255  -0.1974  0.8429
6.315e+09  -0.7001  0.5267  -0.00861  -0.001961  0.02785  0.004461  0.1416  0.8715
6.316e+09  -0.4403  0.7067  0.02387  -0.02127  -0.002086  0.03536  0.4495  0.7581
6.318e+09  -0.1339  0.7805  0.002189  0.01165  -0.006011  -0.05773  0.6769  0.5562
6.319e+09  0.1081  0.8  0.01238  -0.001292  -0.02275  -0.004249  0.8249  0.3008
6.32e+09  0.4062  0.7129  0.02278  -0.01395  -0.0324  0.002932  0.8614  0.03808
6.321e+09  0.6738  0.5814  -0.0387  0.02043  0.01149  -0.009666  0.8462  -0.3459
6.322e+09  0.821  0.3232  -0.001123  0.029  0.05746  -0.005297  0.6876  -0.5495
6.324e+09  0.8923  -0.04822  0.03431  -0.02458  -0.0402  0.02271  0.4683  -0.7642
6.325e+09  0.7762  -0.3311  0.003846  0.008345  -0.01188  -0.0001381  0.175  -0.8908
6.326e+09  0.718  -0.5624  0.008893  0.0005231  0.0104  0.01057  -0.1371  -0.8805
6.328e+09  0.3948  -0.7128  -0.007255  0.01365  -0.001613  -0.0008254  -0.4771  -0.7785
6.329e+09  0.1319  -0.8151  0.02095  0.01329  0.01516  0.01013  -0.6781  -0.6097
6.33e+09  -0.1751  -0.8466  -0.01154  0.003485  0.07148  0.00196  -0.8732  -0.326
6.331e+09  -0.4421  -0.7368  -0.007559  -0.02529  0.03274  -0.05246  -0.896  -0.02624
6.332e+09  -0.7531  -0.5148  -0.00235  0.02529  0.04429  0.04335  -0.9017  0.3018
6.334e+09  -0.7633  -0.261  0.006778  0.01138  0.01787  0.01509  -0.6922  0.5444
6.335e+09  -0.8821  -0.003989  -0.01633  -0.02471  -0.002409  -0.003738  -0.4687  0.7626
6.336e+09  -0.798  0.3476  0.02037  0.01577  -0.04488  0.02043  -0.1819  0.8754
6.338e+09  -0.6233  0.5939  -0.03001  0.001376  -0.009344  -0.04593  0.1525  0.94
6.339e+09  -0.3829  0.7957  0.01968  0.0001891  -0.01958  -0.01474  0.4352  0.8078
6.34e+09  -0.04752  0.9162  0.008217  0.001047  -0.01633  0.02229  0.6951  0.6336
6.341e+09  0.2315  0.8332  0.02667  -0.0126  -0.01775  0.01887  0.9255  0.3454
6.342e+09  0.5179  0.7429  -0.006875  -0.02253  -0.01382  0.01123  0.9408  0.02963
6.344e+09  0.7484  0.4859  -0.0004037  -0.005708  0.008976  0.03497  0.9332  -0.2521
6.345e+09  0.8505  0.2043  -0.01601  0.01146  -0.0111  0.03169  0.7368  -0.5233
6.346e+09  0.9016  -0.09768  -0.001227  -0.009549  -0.002951  -0.00429  0.5174  -0.806
6.348e+09  0.739  -0.3652  -0.03773  0.01437  -0.008238  0.02977  0.2177  -0.9446
6.349e+09  0.6707  -0.6237  0.04358  0.004753  -0.02933  0.04421  -0.1236  -0.9636
6.35e+09  0.3021  -0.8467  -0.01129  -0.006854  -0.01869  0.0607  -0.4358  -0.8598
6.351e+09  0.05901  -0.8987  -0.04286  0.01515  -0.005519  -0.006711  -0.6953  -0.6479
6.352e+09  -0.2987  -0.8292  -0.01202  -0.007273  -0.01321  -0.01835  -0.8638  -0.3974
6.354e+09  -0.5618  -0.705  0.01262  -0.00583  0.00176  -0.0002285  -0.9228  -0.07027
6.355e+09  -0.7353  -0.4393  0.005464  -0.03023  -0.002116  0.009741  -0.9118  0.2624
6.356e+09  -0.8957  -0.174  -0.001639  0.03109  0.02677  0.03098  -0.7648  0.5276
6.358e+09  -0.9206  0.1611  -0.02404  -0.01616  0.02441  -0.01655  -0.5295  0.7341
6.359e+09  -0.8037  0.4607  0.01061  0.03007  -0.021  0.01341  -0.2096  0.9241
6.36e+09  -0.5507  0.6907  -0.01125  -0.003241  0.02134  -0.02633  0.1147  0.9377
6.361e+09  -0.2884  0.8883  -0.0178  -0.008676  0.02098  0.006058  0.4251  0.869
6.362e+09  0.02003  0.8963  -0.01026  0.02844  -0.0531  -0.0003529  0.6861  0.678
6.364e+09  0.3635  0.8528  -0.02602  -0.0123  0.01005  0.01478  0.8832  0.4021
6.365e+09  0.5766  0.6301  -0.01481  0.02209  0.03002  0.005047  0.9845  0.1104
6.366e+09  0.8631  0.363  -0.03729  -0.001516  -0.005537  0.005608  0.8931  -0.243
6.368e+09  0.8769  0.102  0.01782  -0.02859  -0.00461  0.03651  0.7683  -0.5756
6.369e+09  0.8797  -0.1852  0.01199  -0.0165  -0.0284  -0.03027  0.5771  -0.7945
6.37e+09  0.7395  -0.4959  0.01686  -0.0128  -0.00328  -0.04137  0.2633  -0.9487
6.371e+09  0.5347  -0.6984  -0.03508  -0.02113  0.02077  -0.02362  -0.08682  -0.9305
6.372e+09  0.2236  -0.8454  0.005928  0.03651  0.003402  0.01903  -0.417  -0.8736
6.374e+09  -0.08839  -0.9202  0.03306  -0.002052  -0.02444  0.006739  -0.6685  -0.6881
6.375e+09  -0.3771  -0.8265  0.006294  0.002534  0.003601  0.03203  -0.8408  -0.4116
6.376e+09  -0.6125  -0.608  -0.01808  -0.007203  -0.04243  -0.003854  -0.8956  -0.09216
6.378e+09  -0.8015  -0.3544  0.0181  0.02205  -0.01399  0.0292  -0.9335  0.2298
6.379e+09  -0.9472  -0.09926  0.003359  -0.002859  -0.02227  0.03949  -0.7815  0.5393
6.38e+09  -0.8526  0.2471  0.01649  0.01832  -0.04501  0.03202  -0.5571  0.7795
6.381e+09  -0.6691  0.5307  0.01673  -0.04713  0.01843  0.001331  -0.2509  0.8548
6.382e+09  -0.525  0.7717  -0.0009865  0.006167  -0.01934  0.01472  0.05443  0.9491
6.384e+09  -0.1646  0.9222  0.01217  -0.01039  0.03335  -0.03936  0.3584  0.8715
6.385e+09  0.1104  0.908  0.02337  0.02204  0.01069  0.01058  0.6222  0.7069
6.386e+09  0.4436  0.8255  0.002753  0.009048  0.03437  -0.03985  0.8381  0.4082
6.388e+09  0.6877  0.5428  -0.01032  0.06014  0.02151  0.01296  0.9192  0.1423
6.389e+09  0.8073  0.3144  -0.01904  0.01903  -0.04076  0.007021  0.9232  -0.2137
6.39e+09  0.9096  0.05537  0.01214  0.03582  -0.02199  -0.02867  0.7565  -0.4704
6.391e+09  0.8683  -0.2717  0.03214  -0.00822  -0.03067  0.06184  0.5605  -0.7425
6.392e+09  0.7224  -0.5425  -0.0005167  -0.003236  -0.00779  -0.02624  0.2577  -0.86
6.394e+09  0.457  -0.7694  0.0557  -0.03682  -0.04613  -0.02455  -0.04273  -0.9066
6.395e+09  0.1815  -0.905  0.0509  -0.005893  -0.001331  -0.003943  -0.3247  -0.8395
6.396e+09  -0.1338  -0.9163  0.01063  0.001857  -0.0007082  0.04119  -0.6165  -0.7057
6.398e+09  -0.4157  -0.7666  0.03407  -0.05316  0.008586  0.01111  -0.8001  -0.4594
6.399e+09  -0.6713  -0.5561  0.03621  -0.02483  -0.01629  -0.003511  -0.8853  -0.1961
6.4e+09  -0.8891  -0.2745  0.04506  -0.02099  -0.02017  0.0255  -0.8873  0.1884
6.401e+09  -0.8849  -0.001188  -0.012  0.002065  -0.05841  -0.01891  -0.8088  0.474
6.402e+09  -0.8019  0.3571  -0.002466  0.02227  -0.009403  0.01654  -0.6042  0.7754
6.404e+09  -0.6873  0.5253  0.01075  -0.01451  0.005066  -0.05279  -0.2915  0.8856
6.405e+09  -0.4409  0.7558  0.01511  0.01681  -0.02059  -0.02406  0.006199  0.9373
6.406e+09  -0.1532  0.8989  0.02509  0.03332  0.01076  -0.009631  0.3317  0.8455
6.408e+09  0.1467  0.7755  -0.03087  0.01222  0.03951  -0.009317  0.5932  0.7031
6.409e+09  0.4185  0.769  -0.003978  -0.03714  -0.01983  0.003853  0.7866  0.5117
6.41e+09  0.7015  0.5617  0.01256  -0.002144  0.003752  0.02488  0.8898  0.164
6.411e+09  0.9055  0.2745  0.04817  0.002035  -0.01335  0.00538  0.9097  -0.1713
6.412e+09  0.8674  -0.05107  0.02164  0.0055  0.006471  -0.01827  0.7897  -0.4032
6.414e+09  0.7961  -0.302  -0.03797  -0.01323  0.01844  0.007334  0.5729  -0.6717
6.415e+09  0.6558  -0.6119  0.02259  0.03435  -0.03497  -0.04867  0.3418  -0.8774
6.416e+09  0.4795  -0.7261  0.02283  -0.02084  -0.0002076  0.01188  0.03877  -0.9309
6.418e+09  0.145  -0.9014  0.01928  -0.03414  -0.02619  0.02862  -0.2963  -0.8296
6.419e+09  -0.2198  -0.9195  -0.0561  -0.0258  0.01207  -0.04191  -0.5889  -0.7068
6.42e+09  -0.4435  -0.7538  0.01683  -0.03538  0.0009661  -0.006529  -0.7515  -0.4602
6.421e+09  -0.7172  -0.5964  -0.0008564  0.02013  -0.01907  -0.001031  -0.8581  -0.187
6.422e+09  -0.8679  -0.2657  -0.005071  -0.0259  -0.01403  0.001331  -0.8934  0.1198
6.424e+09  -0.8712  0.05195  0.002123  -0.01799  0.00392  0.0409  -0.7794  0.4394
6.425e+09  -0.7735  0.3538  0.02116  0.05468  -0.07989  0.006635  -0.5815  0.607
6.426e+09  -0.6502  0.5891  -0.01816  -0.04087  -0.03251  0.04061  -0.3431  0.8365
6.428e+09  -0.4134  0.7884  0.01617  0.004115  0.01486  0.001847  -0.04454  0.891
6.429e+09  -0.1461  0.9219  -0.02166  -0.004874  0.01169  0.01303  0.2601  0.8726
6.43e+09  0.1403  0.8658  0.0385  0.005586  0.04337  -0.0141  0.5437  0.7342
6.431e+09  0.4844  0.7309  0.05867  0.01885  -0.03979  -0.01958  0.7367  0.4928
6.432e+09  0.7194  0.5516  -0.02879  0.03386  0.05064  -0.01028  0.8902  0.2295
6.434e+09  0.8296  0.2459  0.03105  -0.02927  0.01394  -0.01461  0.8863  -0.07438
6.435e+09  0.8578  0.01083  0.007784  -0.009917  -0.006541  0.01349  0.8087  -0.3749
6.436e+09  0.7778  -0.362  -0.005508  0.02057  -0.004059  -0.02717  0.5621  -0.6078
6.438e+09  0.6592  -0.6309  -0.009137  0.02078  0.01479  -0.025  0.413  -0.8383
6.439e+09  0.4293  -0.8196  -0.009458  0.005664  0.00666  -0.003732  0.03175  -0.8173
6.44e+09  0.1072  -0.9509  -0.02971  -0.02509  0.06281  0.00646  -0.2071  -0.8109
6.441e+09  -0.2836  -0.8484  -0.0458  -0.06708  0.03784  0.02152  -0.465  -0.6716
6.442e+09  -0.4588  -0.7658  -0.01856  0.01785  -0.01623  0.01145  -0.6799  -0.4891
6.444e+09  -0.7201  -0.5231  -0.004586  0.03445  -0.03359  0.009232  -0.7926  -0.2023
6.445e+09  -0.8244  -0.2176  0.00268  0.002591  0.003891  0.04268  -0.8269  0.1017
6.446e+09  -0.8931  0.04882  0.0005786  0.03291  -0.004785  0.02298  -0.7647  0.3111
6.448e+09  -0.831  0.4304  0.006615  -0.008176  -0.01307  -0.03099  -0.5898  0.5937
6.449e+09  -0.689  0.6292  -0.04764  0.01338  0.01837  0.003392  -0.3606  0.7542
6.45e+09  -0.4294  0.8201  0.01414  0.01923  0.01304  0.002975  -0.09931  0.8497
6.451e+09  -0.132  0.8905  -0.01024  0.01999  0.03176  -0.008201  0.2356  0.7817
6.452e+09  0.2855  0.8638  -0.006156  -0.01468  -0.01052  0.05714  0.5414  0.7108
6.454e+09  0.4932  0.7802  0.02099  0.0258  -0.03088  -0.005421  0.6744  0.4839
6.455e+09  0.7757  0.481  0.02318  0.005596  0.01742  0.001251  0.817  0.201
6.456e+09  0.9136  0.247  -0.03406  -0.03175  0.06272  0.08296  0.8057  -0.08882
6.458e+09  0.8594  -0.09431  0.02541  -0.02084  0.01528  -0.01202  0.7025  -0.3286
6.459e+09  0.834  -0.3315  -0.007973  0.03512  -0.03188  0.008535  0.5684  -0.6178
6.46e+09  0.6594  -0.6626  -0.00432  0.05269  -0.02231  0.04854  0.3546  -0.7051
6.461e+09  0.4163  -0.8257  -0.008585  0.02872  0.004705  -0.04808  0.05119  -0.8359
6.462e+09  0.0657  -0.8999  0.005838  0.0115  0.03742  0.006245  -0.2081  -0.7359
6.464e+09  -0.2249  -0.8676  -0.001784  -0.003483  0.02058  -0.03337  -0.4912  -0.6133
6.465e+09  -0.5043  -0.7256  0.01472  -0.01305  0.02167  -0.02491  -0.68  -0.4461
6.466e+09  -0.7784  -0.5282  0.002071  -0.01099  0.01303  -0.04066  -0.7945  -0.1942
6.468e+09  -0.8286  -0.2046  0.01645  -0.01896  0.005626  0.02913  -0.7744  0.06749
6.469e+09  -0.9401  0.05784  -0.0222  -0.03318  -0.01795  -0.02957  -0.7073  0.3825
6.47e+09  -0.8284  0.3625  0.0016  -0.02766  -0.009881  -0.008059  -0.5538  0.575
6.471e+09  -0.6379  0.6536  0.01273  0.01274  -0.0406  0.0107  -0.2846  0.7633
6.472e+09  -0.3458  0.8058  0.03364  -0.01252  -0.01388  -0.02014  -0.05724  0.7915
6.474e+09  -0.06658  0.9152  -0.01462  -0.005471  -0.02973  -0.02055  0.2168  0.7505
6.475e+09  0.2703  0.9279  0.0002969  -0.0217  -0.04831  0.03585  0.4783  0.6333
6.476e+09  0.5493  0.7218  0.02752  0.05081  -0.02025  -0.003554  0.6821  0.4102
6.478e+09  0.736  0.5506  -0.01667  0.03865  -0.02209  0.01851  0.7846  0.2092
6.479e+09  0.8593  0.1879  0.01827  -0.01729  -0.01051  0.03712  0.7581  -0.06836
6.48e+09  0.9542  -0.1081  0.01496  -0.03456  -0.01979  0.01609  0.6489  -0.3296
6.481e+09  0.8021  -0.4161  0.02144  -0.009692  -0.01962  -0.01426  0.5566  -0.5674
6.482e+09  0.6349  -0.7043  0.01752  -0.007692  -0.02817  -0.05157  0.3035  -0.6934
6.484e+09  0.2951  -0.8663  0.02326  -0.02158  0.02478  -0.001706  0.03332  -0.7876
6.485e+09  0.09331  -0.9384  -0.02646  -0.01075  -0.007771  -0.007867  -0.16  -0.7484
6.486e+09  -0.3061  -0.9065  -0.01025  0.008543  0.02388  -0.03315  -0.4699  -0.6132
6.488e+09  -0.5611  -0.7355  -0.001394  -0.01564  -0.0133  -0.02523  -0.6777  -0.4322
6.489e+09  -0.7831  -0.5269  -0.03274  0.01615  -0.05465  -0.025  -0.7374  -0.1601
6.49e+09  -0.9541  -0.2214  -0.01641  0.003902  -0.01939  -0.01354  -0.7498  0.07952
6.491e+09  -0.9594  0.09439  0.003902  -0.01302  0.03108  -0.02481  -0.6629  0.3257
6.492e+09  -0.8488  0.4847  -0.002821  0.02102  0.004788  -0.07702  -0.4833  0.5479
6.494e+09  -0.5988  0.7319  0.02185  -0.02136  -0.04151  -0.007511  -0.3066  0.7259
6.495e+09  -0.3338  0.8953  0.02614  0.007868  -0.03094  0.0283  -0.0757  0.7556
6.496e+09  0.01741  0.9155  0.003724  -0.01647  0.02862  0.02021  0.1931  0.6988
6.498e+09  0.3113  0.9368  -0.0093  0.01294  -0.014  -0.01211  0.4856  0.6227
6.499e+09  0.5966  0.6719  -0.005007  0.02667  -0.00394  0.04197  0.6209  0.4312
6.5e+09  0.8532  0.4641  0.02163  0.004791  -0.005304  -0.04297  0.7333  0.1172
6.501e+09  0.9618  0.1588  0.04453  0.02571  -0.01482  0.03272  0.7575  -0.09778
6.502e+09  0.9389  -0.1868  0.03205  0.00753  0.0757  -0.0152  0.6949  -0.3415
6.504e+09  0.8335  -0.4817  0.0103  0.03025  0.01703  0.001781  0.4974  -0.5593
6.505e+09  0.6287  -0.7022  0.02351  -0.03278  0.03474  0.003964  0.2623  -0.7198
6.506e+09  0.2859  -0.866  -0.01399  -0.03743  -0.01647  -0.03  -0.002008  -0.7664
6.508e+09  -0.06202  -0.9927  0.003381  0.01403  -0.004886  0.04827  -0.2427  -0.7584
6.509e+09  -0.3233  -0.8989  -0.05197  -0.009246  0.02011  0.007714  -0.4607  -0.6006
6.51e+09  -0.6926  -0.6844  -0.03209  0.01193  0.02781  0.0604  -0.6291  -0.392
6.511e+09  -0.8644  -0.4202  0.009027  0.00446  0.006065  -0.0106  -0.7622  -0.124
6.512e+09  -0.9594  -0.141  0.01274  0.007299  0.01863  0.02277  -0.734  0.1385
6.514e+09  -0.9251  0.2019  -0.0007944  0.006566  0.008878  -0.0001317  -0.7221  0.4022
6.515e+09  -0.823  0.527  0.002496  -0.005852  -0.02567  -0.004123  -0.4633  0.5626
6.516e+09  -0.6369  0.7892  -0.004943  -0.01272  0.03363  -0.01436  -0.2408  0.7471
6.518e+09  -0.2762  0.9021  -0.01436  0.03346  -0.02347  0.01105  0.06936  0.7601
6.519e+09  0.07913  0.9914  -0.00787  -0.03258  0.02131  0.02106  0.3077  0.7146
6.52e+09  0.4462  0.9329  -0.004711  0.01684  -0.01692  0.01248  0.4949  0.5358
6.521e+09  0.6362  0.674  -0.002106  -0.008884  0.05942  -0.03198  0.6556  0.3659
6.522e+09  0.8924  0.4593  -0.003538  -0.01838  -0.00494  0.01205  0.7418  0.07729
6.524e+09  0.9839  0.02072  0.01002  0.01553  -0.05015  -0.009987  0.6917  -0.1475
6.525e+09  0.9491  -0.2238  -0.01393  -0.006571  -0.03332  -0.02849  0.5857  -0.399
6.526e+09  0.8054  -0.6392  -0.009958  -0.004604  0.02557  -0.02343  0.4336  -0.5416
6.528e+09  0.5772  -0.7945  0.008205  0.01679  -0.03113  0.009983  0.2178  -0.7101
6.529e+09  0.236  -0.9678  -0.03066  -0.02097  0.04463  -0.02375  -0.04978  -0.7004
6.53e+09  -0.1322  -0.9808  0.01815  0.01271  0.03813  0.005833  -0.2887  -0.6604
6.531e+09  -0.5005  -0.8556  0.02693  -0.01857  -0.09746  -0.008585  -0.4687  -0.4844
6.532e+09  -0.7801  -0.6358  0.01143  0.03754  0.01592  0.03055  -0.5889  -0.2945
6.534e+09  -0.9649  -0.3549  -0.008797  0.0143  0.004388  -0.03998  -0.6735  -0.08939
6.535e+09  -0.9807  -0.034  0.01227  0.02225  0.0374  -0.03806  -0.611  0.1019
6.536e+09  -0.8895  0.3894  0.01428  0.01689  -0.01897  0.02292  -0.5343  0.3128
6.538e+09  -0.6946  0.6315  -0.01962  -0.004818  -0.004389  -0.01699  -0.4705  0.4944
6.539e+09  -0.4637  0.8405  -0.01433  0.03202  0.05105  0.04346  -0.2802  0.614
6.54e+09  -0.1479  0.9949  -0.0005324  0.003051  0.01668  0.03138  -0.05909  0.683
6.541e+09  0.2025  0.9382  0.01464  -0.01501  -0.03883  -0.03229  0.1855  0.6706
6.542e+09  0.4698  0.8093  0.006186  -0.02027  -0.03207  0.01452  0.4467  0.6181
6.544e+09  0.7616  0.5807  0.03504  -0.0001988  -0.01233  -0.04156  0.5889  0.4148
6.545e+09  0.8875  0.2382  0.02496  0.001762  -0.03762  -0.001792  0.6869  0.1896
6.546e+09  0.9867  -0.06047  -0.02959  0.002208  -0.02108  -0.01992  0.755  -0.08917
6.548e+09  0.9004  -0.391  0.002646  0.0147  -0.01551  0.01435  0.6611  -0.3447
6.549e+09  0.6734  -0.6965  -0.01393  -0.0119  -0.009128  0.03153  0.5099  -0.5258
6.55e+09  0.3964  -0.8716  0.01066  0.02244  -0.01892  -0.01566  0.3016  -0.6676
