# Hz S RI R 50
6.25e+09  -0.3167  0.8877  -0.01997  -0.04101  -0.0228  -0.01857  0.1806  0.4944
6.251e+09  0.01049  0.8888  -0.008437  -0.01888  0.0128  0.01294  0.378  0.3979
6.252e+09  0.2541  0.8063  0.02652  -0.02434  -0.01351  -0.02079  0.5156  0.2644
6.254e+09  0.5964  0.6585  -0.006165  0.00612  -0.01338  0.00433  0.6088  -0.01122
6.255e+09  0.7094  0.4024  0.02517  0.02381  -0.01231  -0.0266  0.5398  -0.2592
6.256e+09  0.8363  0.1827  0.007341  0.01328  0.01867  0.03341  0.4625  -0.4306
6.258e+09  0.8502  -0.1799  -0.007031  0.0203  0.01966  0.02926  0.2604  -0.5924
6.259e+09  0.7942  -0.4108  0.03914  0.004211  0.02706  -0.03409  0.02793  -0.6688
6.26e+09  0.5606  -0.6434  -0.03045  0.0223  0.01603  -0.03144  -0.1918  -0.6616
6.261e+09  0.2808  -0.7961  0.06427  -0.001994  -0.02043  0.004883  -0.4537  -0.526
6.262e+09  -0.01454  -0.8763  -0.02024  -0.02077  0.04567  -0.04252  -0.6041  -0.3337
6.264e+09  -0.3343  -0.8105  -0.02261  0.01779  -0.04958  -0.003456  -0.6995  -0.1012
6.265e+09  -0.5224  -0.6574  0.03197  0.0171  0.02762  -0.03054  -0.6983  0.1285
6.266e+09  -0.7263  -0.3867  -0.04029  0.003218  -0.0001714  -0.04468  -0.6153  0.3945
6.268e+09  -0.7927  -0.1597  -0.01366  -0.01791  0.01356  -0.02722  -0.4129  0.582
6.269e+09  -0.8566  0.1952  0.002773  0.01443  0.02024  -0.03804  -0.2056  0.7181
6.27e+09  -0.7401  0.4162  -0.01233  0.003995  -0.002107  0.01948  0.08261  0.7287
6.271e+09  -0.5343  0.6731  0.02256  -0.009611  0.04164  -0.005045  0.3122  0.6821
6.272e+09  -0.2653  0.8405  0.001861  -0.007552  0.03824  -0.0257  0.5605  0.5256
6.274e+09  0.03732  0.8113  0.02747  -0.0241  0.02777  0.04762  0.6841  0.3094
6.275e+09  0.2706  0.7788  -0.01792  -0.008225  0.01729  -0.009736  0.7882  0.05137
6.276e+09  0.5787  0.6136  -0.02762  -0.01062  0.001178  -0.00229  0.7056  -0.2116
6.278e+09  0.7574  0.3785  0.03947  0.001804  0.02469  -0.006545  0.591  -0.4357
6.279e+09  0.8389  0.08055  0.006503  0.008804  0.01014  0.03355  0.3918  -0.6625
6.28e+09  0.8155  -0.1918  0.0002166  -0.007785  0.00617  -0.004434  0.1743  -0.7551
6.281e+09  0.655  -0.4424  0.0241  0.01053  -0.002569  0.04708  -0.08822  -0.7561
6.282e+09  0.547  -0.6088  0.003452  -0.01589  0.01173  -0.008495  -0.3837  -0.6796
6.284e+09  0.2522  -0.8254  -0.007181  -0.004388  0.0007959  -0.01142  -0.5926  -0.5304
6.285e+09  -0.01993  -0.8104  0.02378  -0.006189  -0.06448  0.04487  -0.7294  -0.3181
6.286e+09  -0.3651  -0.7448  0.02607  -0.01388  -0.03781  0.0007667  -0.7739  -0.03845
6.288e+09  -0.5886  -0.5916  -0.0007659  -0.002867  0.03974  -0.02538  -0.7113  0.2819
6.289e+09  -0.7902  -0.3741  0.01234  -0.02481  0.03673  -0.005993  -0.6376  0.5021
6.29e+09  -0.8004  -0.05986  0.01051  0.005753  -0.01378  -0.008087  -0.4003  0.7001
6.291e+09  -0.8372  0.2006  0.0009816  -0.004274  0.0163  -0.0176  -0.1565  0.7754
6.292e+09  -0.6729  0.4993  -0.0002187  -0.01433  -0.02732  0.01537  0.1365  0.806
6.294e+09  -0.5014  0.7082  0.005259  0.002387  -0.0008653  -0.0422  0.3871  0.7087
6.295e+09  -0.2379  0.8244  0.01459  -0.009399  0.02229  -0.00731  0.6179  0.4952
6.296e+09  0.02179  0.8307  0.03002  0.0009783  -0.02296  0.05091  0.8081  0.3113
6.298e+09  0.3414  0.7582  -0.01862  -0.0255  0.0519  -0.03459  0.821  0.01128
6.299e+09  0.6067  0.5939  0.01008  0.0132  0.05365  -0.008841  0.7964  -0.2875
6.3e+09  0.7621  0.3415  0.00883  -0.002145  -0.02708  -0.06497  0.6329  -0.5705
6.301e+09  0.8489  0.04393  0.04941  -0.005537  0.01538  -0.002482  0.4012  -0.7379
6.302e+09  0.7383  -0.1832  0.01487  0.005302  -0.01055  0.01143  0.1882  -0.8227
6.304e+09  0.691  -0.4756  0.007639  0.008933  0.02591  0.00943  -0.1519  -0.8133
6.305e+09  0.511  -0.6674  -0.01205  -0.01135  -0.01305  -0.04386  -0.4325  -0.7355
6.306e+09  0.1621  -0.8911  0.00328  -0.00518  0.01334  -0.02227  -0.6853  -0.5554
6.308e+09  -0.1019  -0.8186  -0.004708  -0.001755  0.03529  -0.05107  -0.8005  -0.2996
6.309e+09  -0.4486  -0.7238  0.002625  0.01279  0.009943  0.05484  -0.8731  -0.01044
6.31e+09  -0.5788  -0.5751  0.008107  -0.0269  -0.02494  0.00307  -0.8  0.2672
6.311e+09  -0.7962  -0.3415  -0.01556  0.01487  0.0118  -0.007111  -0.6627  0.5897
6.312e+09  -0.8889  -0.03537  0.001229  0.001122  0.004974  0.007818  -0.4122  0.7256
6.314e+09  -0.7681  0.2631  0.005477  -0.005673  -0.007323  -0.0128  -0.1379  0.8439
6.315e+09  -0.6134  0.5098  0.008888  0.03384  -0.01253  -0.02622  0.1552  0.8576
6.316e+09  -0.4919  0.7502  -0.004009  0.004508  0.008766  0.0292  0.436  0.7523
6.318e+09  -0.1765  0.8653  0.03197  0.02979  0.0619  -0.02681  0.6586  0.5996
6.319e+09  0.1845  0.7888  -0.008269  0.01723  0.004619  -0.007289  0.8247  0.2874
6.32e+09  0.4531  0.7555  -0.01379  0.04683  -0.008637  0.02889  0.8974  -0.01096
6.321e+09  0.6436  0.5553  -0.005203  -0.008777  -0.01508  0.01411  0.8371  -0.2833
6.322e+09  0.8386  0.2698  -0.004256  -0.02371  -0.03867  0.0183  0.7181  -0.5579
6.324e+09  0.83  -0.04172  -0.01303  0.0015  -0.01441  -0.01683  0.4331  -0.7536
6.325e+09  0.7941  -0.3347  0.001634  0.0163  -0.006433  -0.0424  0.1837  -0.8726
6.326e+09  0.6777  -0.633  0.0159  0.006767  -0.01727  0.002197  -0.146  -0.8814
6.328e+09  0.3637  -0.7601  0.0052  0.02666  -0.04788  0.0199  -0.4342  -0.789
6.329e+09  0.1359  -0.8588  -0.01781  -0.0006481  0.02804  0.01304  -0.6746  -0.5925
6.33e+09  -0.1675  -0.8656  -0.009582  -0.003502  -0.006879  0.01435  -0.8126  -0.3266
6.331e+09  -0.5412  -0.7522  0.003011  -0.02949  -0.02257  -0.026  -0.9065  -0.02661
6.332e+09  -0.7061  -0.54  -0.0006843  0.03239  0.0322  0.007329  -0.8604  0.2809
6.334e+09  -0.8797  -0.3252  -0.01492  0.0146  -0.01659  0.01348  -0.7466  0.6122
6.335e+09  -0.8624  0.07956  0.01889  -0.01559  0.003906  -0.02008  -0.4893  0.8085
6.336e+09  -0.8168  0.3569  -0.001307  -0.006175  -0.004761  -0.01125  -0.1775  0.8872
6.338e+09  -0.6213  0.6692  0.02515  0.02791  0.009391  0.0142  0.1216  0.8954
6.339e+09  -0.3706  0.7887  0.004054  -0.03313  -0.02548  0.03158  0.4427  0.8235
6.34e+09  -0.08328  0.9031  -0.009433  0.03149  0.002124  0.001675  0.6587  0.6187
6.341e+09  0.2617  0.8433  0.02351  0.02384  0.02026  -0.007089  0.8649  0.3335
6.342e+09  0.4831  0.7151  0.01751  0.01738  0.006373  0.02619  0.9616  0.006985
6.344e+09  0.7613  0.5092  0.01177  -0.006624  0.01052  0.02064  0.8857  -0.2642
6.345e+09  0.8694  0.1817  0.01681  0.008133  -0.0076  -0.02313  0.7389  -0.5802
6.346e+09  0.9097  -0.08756  -0.008358  -0.01857  -0.01002  0.01423  0.5304  -0.7825
6.348e+09  0.7232  -0.3743  0.01703  0.01668  -0.02609  -0.03605  0.252  -0.9117
6.349e+09  0.5953  -0.6859  -0.01559  0.02943  -0.03077  -0.0133  -0.0827  -0.9183
6.35e+09  0.274  -0.8443  0.01963  0.001091  0.009707  -0.02988  -0.43  -0.8457
6.351e+09  -0.04578  -0.8361  0.005083  -0.01065  -0.01359  -0.007726  -0.7011  -0.6429
6.352e+09  -0.2514  -0.874  -0.03641  -0.03944  0.0003521  0.02001  -0.8756  -0.3746
6.354e+09  -0.5357  -0.7121  -0.04654  0.01044  -0.03388  -0.02588  -0.9219  -0.03705
6.355e+09  -0.7447  -0.3983  -0.02956  -0.0237  -0.006716  0.0265  -0.9147  0.2558
6.356e+09  -0.8809  -0.1331  0.005006  0.02426  0.007232  0.0341  -0.7872  0.543
6.358e+09  -0.8509  0.1881  -0.01318  -0.004045  -0.025  0.006961  -0.5417  0.7384
6.359e+09  -0.7785  0.4617  -0.01587  0.02415  0.007705  0.01356  -0.2219  0.8986
6.36e+09  -0.5468  0.7363  -0.01006  -0.003274  -0.05924  -0.0253  0.1063  0.9292
6.361e+09  -0.2808  0.8274  0.005334  0.02314  0.009974  -0.01237  0.3993  0.8497
6.362e+09  0.0597  0.9098  -0.034  0.03205  0.03366  -0.0479  0.6794  0.6749
6.364e+09  0.316  0.8424  -0.02378  0.005805  0.02572  0.02586  0.8653  0.4426
6.365e+09  0.6522  0.6623  0.002321  -0.01446  -0.01628  0.02687  0.9154  0.03009
6.366e+09  0.7997  0.4152  -0.02009  -0.0179  -0.04605  0.01273  0.8945  -0.2302
6.368e+09  0.884  0.07594  0.04258  -0.02039  0.001549  0.0185  0.7664  -0.5372
6.369e+09  0.9134  -0.1963  -0.02197  -0.01371  0.0344  -0.03863  0.5455  -0.7893
6.37e+09  0.7403  -0.4968  -0.006567  0.03161  -0.0002247  0.0116  0.229  -0.9216
6.371e+09  0.5407  -0.7357  -0.005918  -0.02337  -0.052  -0.01819  -0.05683  -0.9674
6.372e+09  0.2371  -0.8287  0.01967  0.01249  0.01968  0.01775  -0.3721  -0.8651
6.374e+09  -0.1163  -0.8733  0.009331  0.006377  0.04731  0.03033  -0.6586  -0.7064
6.375e+09  -0.3963  -0.7906  -0.01924  -0.04111  0.007112  0.02727  -0.8978  -0.3965
6.376e+09  -0.625  -0.5993  0.01224  -0.03679  0.01169  0.02352  -0.9464  -0.0734
6.378e+09  -0.8381  -0.3688  0.02369  -0.009002  -0.01211  0.0272  -0.9222  0.2659
6.379e+09  -0.8753  -0.07391  0.001867  0.03504  -0.02985  -0.03512  -0.7646  0.5446
6.38e+09  -0.8672  0.3006  0.03276  -0.00772  -0.03223  0.03466  -0.5489  0.7633
6.381e+09  -0.6914  0.5267  -0.00375  0.00787  -0.004624  0.002661  -0.2335  0.9082
6.382e+09  -0.464  0.7678  -0.03709  0.0283  0.0603  0.05092  0.01772  0.9469
6.384e+09  -0.19  0.8562  -0.004324  -0.009172  -0.003652  -0.002011  0.3871  0.911
6.385e+09  0.07946  0.8615  0.0215  0.002671  -0.03544  0.04472  0.6257  0.6989
6.386e+09  0.4474  0.7704  -0.01357  -0.007522  0.005154  0.06114  0.8456  0.4048
6.388e+09  0.6169  0.5263  0.04139  0.01848  0.03743  0.02032  0.9228  0.0952
6.389e+09  0.86  0.3704  0.01479  -0.0323  0.00464  0.02836  0.8919  -0.2346
6.39e+09  0.9271  -0.008589  -0.01227  0.03556  0.02865  0.003197  0.8091  -0.5442
6.391e+09  0.8259  -0.3233  -0.01187  -0.01475  0.003723  -0.002612  0.5704  -0.7459
6.392e+09  0.6666  -0.5765  -0.02039  -0.02106  0.02724  0.04452  0.2997  -0.8735
6.394e+09  0.4615  -0.7737  0.01801  -0.003254  -0.01003  -0.004502  -0.02055  -0.9053
6.395e+09  0.1345  -0.8772  0.012  0.00551  -0.01567  0.02755  -0.3169  -0.8919
6.396e+09  -0.1732  -0.8902  0.01569  -0.01567  -0.06048  0.01474  -0.5897  -0.6785
6.398e+09  -0.4235  -0.7609  -0.0301  0.00233  0.008521  0.01384  -0.8017  -0.4641
6.399e+09  -0.6594  -0.5399  0.02879  0.04495  -0.01841  0.001147  -0.9295  -0.09044
6.4e+09  -0.8115  -0.351  -0.01159  -0.005936  0.04291  -0.003369  -0.9064  0.1677
6.401e+09  -0.8906  0.03043  -0.01583  0.00539  0.03329  0.02231  -0.8074  0.4846
6.402e+09  -0.8196  0.29  0.00135  -0.00816  -0.02639  0.02372  -0.5531  0.7208
6.404e+09  -0.648  0.5886  -0.01716  -0.02932  -0.02157  0.004674  -0.2731  0.907
6.405e+09  -0.4184  0.8083  -0.02094  -0.01714  0.02516  0.02111  -0.02431  0.8888
6.406e+09  -0.1501  0.8711  -0.0496  0.01158  -0.005971  0.02431  0.28  0.863
6.408e+09  0.1221  0.8522  -0.01025  -0.01412  0.002761  -0.0107  0.5757  0.6895
6.409e+09  0.4927  0.7854  0.007011  -0.03138  0.02083  -0.001468  0.8027  0.4385
6.41e+09  0.6943  0.5215  -0.04773  -0.009437  0.02368  0.0243  0.8778  0.1613
6.411e+09  0.8302  0.235  -0.04625  0.01949  0.02475  0.01821  0.8662  -0.1321
6.412e+09  0.8951  -0.05128  -0.02246  -0.0008704  0.02603  -0.03788  0.7879  -0.458
6.414e+09  0.836  -0.3398  -0.03071  -0.007591  0.03089  0.005763  0.6258  -0.6768
6.415e+09  0.6633  -0.6022  0.02979  -0.01512  0.007429  -0.02456  0.3386  -0.8374
6.416e+09  0.3747  -0.7594  -0.01496  -0.01548  0.02907  0.003791  0.04642  -0.8596
6.418e+09  0.1125  -0.934  -0.05207  0.006026  0.04564  0.005496  -0.2608  -0.8226
6.419e+09  -0.2074  -0.8401  -0.002527  -0.01135  0.003575  0.007235  -0.5611  -0.7282
6.42e+09  -0.4623  -0.7126  -0.01585  0.04305  0.008229  -0.03983  -0.7511  -0.5015
6.421e+09  -0.6742  -0.5233  0.02619  0.01128  0.0244  -0.01598  -0.8753  -0.1911
6.422e+09  -0.8704  -0.2222  -0.001471  0.03447  -0.022  0.004424  -0.8576  0.1426
6.424e+09  -0.9486  0.03058  -0.05394  -0.0246  -0.01246  -0.0365  -0.7477  0.3558
6.425e+09  -0.7699  0.3968  0.06437  0.03064  -0.0746  0.008941  -0.6068  0.5996
6.426e+09  -0.6175  0.5853  0.02922  -0.01576  -0.06643  -0.05243  -0.3438  0.8175
6.428e+09  -0.3798  0.8476  0.04109  0.01171  0.002108  -0.02335  -0.03293  0.8896
6.429e+09  -0.07892  0.8915  -0.0208  -0.001742  -0.01559  -0.01731  0.288  0.825
6.43e+09  0.2447  0.8277  0.04443  0.0153  -0.03107  0.01102  0.5363  0.7101
6.431e+09  0.5135  0.7609  -0.04282  -0.01928  -0.01253  0.03976  0.6886  0.4804
6.432e+09  0.705  0.4858  -0.02321  -0.01691  -0.04549  0.01142  0.8258  0.2337
6.434e+09  0.8662  0.22  0.006853  -0.0324  -0.01602  -0.01078  0.8685  -0.07843
6.435e+09  0.8694  -0.08846  -0.01682  -0.003715  0.04401  -0.05691  0.7629  -0.386
6.436e+09  0.7781  -0.3724  -0.02461  -0.02193  -0.01801  -0.002853  0.5766  -0.5943
6.438e+09  0.6137  -0.6413  0.04871  -0.02063  -0.06914  0.02079  0.3144  -0.7412
6.439e+09  0.3724  -0.7929  0.02572  0.009146  -0.01273  0.006714  0.06079  -0.8714
6.44e+09  0.1401  -0.8622  -0.04608  0.02587  0.01174  0.04175  -0.2091  -0.8004
6.441e+09  -0.2002  -0.8536  -0.03167  0.005502  -0.01878  -0.02789  -0.5344  -0.6948
6.442e+09  -0.5233  -0.7458  0.02807  0.02128  -0.02748  -0.02295  -0.7008  -0.5094
6.444e+09  -0.7225  -0.5144  -0.01516  0.0691  0.01273  0.003189  -0.8804  -0.2194
6.445e+09  -0.8728  -0.264  0.02974  0.007568  -0.01229  0.05731  -0.8269  0.03115
6.446e+09  -0.8938  0.0797  -0.02029  0.002152  0.0264  -0.03611  -0.7582  0.3238
6.448e+09  -0.832  0.409  -0.0455  0.01189  0.004866  0.03079  -0.6004  0.624
6.449e+09  -0.672  0.6402  0.02065  0.001032  0.04341  0.005786  -0.3208  0.7645
6.45e+09  -0.4047  0.7858  -0.003851  0.01784  0.04566  0.004012  -0.1294  0.8072
6.451e+09  -0.06255  0.8653  0.07351  0.0737  -0.02232  0.04936  0.2141  0.8048
6.452e+09  0.2142  0.8166  -0.01243  0.01157  0.005663  -0.009591  0.4765  0.7188
6.454e+09  0.4986  0.7454  -0.006627  0.00782  0.01307  0.02239  0.6738  0.466
6.455e+09  0.7347  0.5368  -0.03716  -0.01566  -0.04325  0.01788  0.7442  0.2243
6.456e+09  0.8446  0.2295  -0.01132  0.0107  0.02535  -0.006918  0.8238  -0.05442
6.458e+09  0.9325  -0.08518  -0.02273  -0.01425  0.0344  0.04493  0.7378  -0.3207
6.459e+09  0.7887  -0.437  0.005851  0.0217  0.003645  -0.02805  0.5543  -0.5777
6.46e+09  0.6364  -0.6002  -0.01397  0.001481  -0.03508  0.01536  0.3639  -0.7571
6.461e+09  0.3525  -0.8132  -0.03517  0.000915  0.02543  -0.04138  0.0729  -0.8737
6.462e+09  0.03301  -0.941  0.025  -0.0238  -0.02704  -0.08498  -0.2226  -0.8038
6.464e+09  -0.2506  -0.8813  0.01758  -0.01722  -0.03189  -0.04342  -0.5109  -0.6771
6.465e+09  -0.5111  -0.7372  -0.01286  0.004976  0.0347  0.03885  -0.69  -0.4428
6.466e+09  -0.7632  -0.4576  -0.002687  0.01311  0.01228  0.02517  -0.7823  -0.2281
6.468e+09  -0.9004  -0.1961  0.007346  0.01487  0.001403  0.02829  -0.7931  0.06337
6.469e+09  -0.873  0.1386  0.03276  -0.04308  -0.02627  -0.05058  -0.7362  0.3269
6.47e+09  -0.854  0.4087  0.01675  0.001796  0.04657  -0.009379  -0.5536  0.5735
6.471e+09  -0.5915  0.6274  -0.005138  -0.0414  0.04619  0.02139  -0.3131  0.7366
6.472e+09  -0.374  0.8253  -0.01741  0.004945  -0.03553  0.05535  -0.06792  0.7772
6.474e+09  -0.02989  0.8989  -0.02337  -0.02296  0.01098  0.02428  0.2168  0.7543
6.475e+09  0.2889  0.9058  -0.02461  -0.00715  -0.01099  -0.01543  0.46  0.6728
6.476e+09  0.5975  0.7471  0.03957  0.0127  0.05681  0.008867  0.7058  0.4452
6.478e+09  0.7741  0.5112  -0.02275  0.00339  -0.0138  -0.02824  0.7943  0.1712
6.479e+09  0.8285  0.1602  -0.04828  0.008968  -0.004649  0.01444  0.7631  -0.08463
6.48e+09  0.921  -0.1666  -0.007349  0.01821  -0.0002118  -0.01876  0.7109  -0.3553
6.481e+09  0.7949  -0.4602  0.0006959  0.01487  -0.001405  -0.003662  0.5288  -0.5243
6.482e+09  0.6214  -0.7422  0.02103  0.03972  0.003552  0.01583  0.3189  -0.7018
6.484e+09  0.3177  -0.8903  -0.001685  0.02489  0.01952  0.07135  0.09502  -0.7824
6.485e+09  0.02123  -0.9361  -0.009544  0.02648  -0.007646  -0.03341  -0.2047  -0.7653
6.486e+09  -0.3575  -0.8992  -0.01775  0.009463  -0.01011  -0.0165  -0.4125  -0.6538
6.488e+09  -0.5575  -0.7336  0.02533  -0.02181  0.04334  0.01036  -0.7074  -0.3687
6.489e+09  -0.8031  -0.4755  0.0466  0.02399  -0.02711  0.007292  -0.7922  -0.2262
6.49e+09  -0.9413  -0.203  -0.00592  -0.03391  0.007109  0.04349  -0.7554  0.07935
6.491e+09  -0.9214  0.1851  0.05165  0.0361  0.01256  0.01654  -0.6745  0.3242
6.492e+09  -0.8094  0.4552  0.02371  0.01446  -0.02842  -0.02079  -0.5316  0.562
6.494e+09  -0.5998  0.7258  -0.02744  -0.006807  0.04743  0.009086  -0.2871  0.6882
6.495e+09  -0.2928  0.9041  -0.01897  0.01372  -0.01235  -0.03781  -0.04307  0.766
6.496e+09  0.00379  0.907  0.03344  0.0133  -0.004577  -0.008011  0.2255  0.752
6.498e+09  0.3553  0.8358  0.005343  0.007988  -0.001059  -0.01243  0.4681  0.6189
6.499e+09  0.6138  0.6888  -0.02069  0.001169  0.009834  0.04969  0.6428  0.4092
6.5e+09  0.8928  0.4434  -0.004486  -0.008103  0.0006187  0.04093  0.7509  0.1876
6.501e+09  0.9507  0.1014  0.008341  -0.02315  0.003815  0.02346  0.8042  -0.1215
6.502e+09  0.9357  -0.1956  0.0541  0.01885  0.01563  -0.01923  0.6798  -0.3334
6.504e+09  0.7574  -0.5209  -0.009525  0.02252  0.006722  0.03657  0.5022  -0.5383
6.505e+09  0.6279  -0.7272  0.01425  -0.01451  0.001937  -0.04761  0.283  -0.6853
6.506e+09  0.3139  -0.9018  0.009068  -0.009454  0.01965  0.0001283  0.01248  -0.7606
6.508e+09  -0.01936  -0.9713  0.004334  -0.01471  0.01144  -0.05678  -0.275  -0.725
6.509e+09  -0.3871  -0.9334  -0.0009821  0.02955  -0.0572  -0.02831  -0.4779  -0.5962
6.51e+09  -0.6407  -0.717  -0.01125  0.01158  0.03436  -0.0021  -0.6374  -0.3889
6.511e+09  -0.8294  -0.4094  -0.006451  0.04339  0.04083  0.02651  -0.7562  -0.1436
6.512e+09  -0.8907  -0.1684  0.007328  -0.04745  0.03707  -0.0004537  -0.7424  0.09761
6.514e+09  -0.9911  0.2387  -0.007504  0.02732  0.005437  0.01383  -0.6142  0.3767
6.515e+09  -0.8656  0.5331  0.01032  0.01457  -0.0005464  0.001954  -0.4798  0.5931
6.516e+09  -0.5361  0.833  -0.0186  0.004566  0.005737  0.0194  -0.2714  0.723
6.518e+09  -0.2712  0.9447  -0.006065  -0.005656  0.01434  0.03008  -0.01328  0.7291
6.519e+09  0.0562  0.954  0.02148  0.02236  0.005718  -0.009495  0.2513  0.6945
6.52e+09  0.4254  0.8653  0.02441  -0.05842  0.01185  0.01404  0.5091  0.5447
6.521e+09  0.7174  0.6474  -0.01496  -0.004405  -0.01175  0.00576  0.6584  0.3612
6.522e+09  0.8724  0.3891  0.01463  0.01448  -0.05135  0.03223  0.7404  0.06472
6.524e+09  0.9656  0.03164  0.02268  -0.01779  -0.03036  -0.05933  0.7361  -0.1587
6.525e+09  0.9832  -0.3061  0.003785  0.004522  -0.01806  -0.01279  0.6307  -0.3807
6.526e+09  0.7699  -0.5978  0.01516  0.03988  -0.04175  -0.003039  0.4489  -0.6096
6.528e+09  0.5071  -0.8531  0.02352  0.02818  -0.004636  0.0736  0.201  -0.6631
6.529e+09  0.1501  -0.9316  0.01485  0.02635  -0.007236  -0.01267  -0.07054  -0.6934
6.53e+09  -0.1196  -0.9747  -0.003371  -0.015  -0.05222  -0.02264  -0.2831  -0.6542
6.531e+09  -0.4655  -0.8362  0.007627  0.01337  0.02922  -0.02693  -0.484  -0.4815
6.532e+09  -0.7431  -0.6226  -0.003893  -0.02148  0.007811  0.02289  -0.5971  -0.2886
6.534e+09  -0.8775  -0.2849  0.04013  -0.005897  -0.02574  -0.01966  -0.6218  -0.1039
6.535e+09  -0.9602  0.005432  -0.01561  -0.03408  0.06968  -0.005344  -0.6401  0.1284
6.536e+09  -0.9421  0.4469  -0.005411  0.001296  -0.003992  0.02039  -0.5689  0.3336
6.538e+09  -0.729  0.6808  -0.02961  -0.02041  -0.01073  -0.01918  -0.4566  0.4482
6.539e+09  -0.4228  0.856  -0.02408  -0.0108  -0.008541  -0.01971  -0.2756  0.6354
6.54e+09  -0.1077  0.9838  0.01079  0.04022  0.01199  0.0005147  -0.04815  0.6749
6.541e+09  0.2026  0.9926  0.01766  -0.007022  -0.0388  0.01353  0.167  0.6568
6.542e+09  0.5437  0.809  -0.02419  0.0006678  0.0279  -0.005974  0.4001  0.569
6.544e+09  0.7587  0.4876  -0.01546  -0.001511  -0.0402  -0.008062  0.5354  0.3984
6.545e+09  0.9301  0.2379  0.03005  0.04231  0.02712  0.03226  0.7043  0.1422
6.546e+09  0.9534  -0.1059  -0.03507  -0.01686  0.02324  0.003513  0.7387  -0.0701
6.548e+09  0.8313  -0.4455  -0.01151  -0.005816  0.03082  -0.0328  0.6866  -0.3117
6.549e+09  0.711  -0.7178  -0.003979  0.02804  -0.003596  -0.008466  0.4841  -0.5353
6.55e+09  0.3232  -0.8866  -0.003334  -0.003931  -0.03418  0.01654  0.2787  -0.7128
6.551e+09  0.02254  -0.927  0.003533  -0.01243  -0.0339  0.01411  0.03957  -0.747
