# Hz S RI R 50
6.25e+09  -0.1378  0.8466  -0.003292  0.01554  0.03072  0.0326  0.1457  0.4414
6.251e+09  0.1984  0.9029  -0.0326  -0.006241  0.007382  -0.02913  0.3628  0.4212
6.252e+09  0.4938  0.6905  0.02889  0.02279  0.004766  0.04114  0.5305  0.2063
6.254e+09  0.6625  0.5294  0.01856  0.02215  -0.04252  -0.003171  0.5925  0.03003
6.255e+09  0.818  0.2506  -0.004454  -0.02884  0.001806  -0.01311  0.5608  -0.2467
6.256e+09  0.832  -0.08734  -0.01438  0.02974  -0.02905  0.01993  0.5044  -0.3987
6.258e+09  0.7706  -0.3852  -0.02907  -0.02239  -0.04554  0.007172  0.2867  -0.5908
6.259e+09  0.6455  -0.5716  0.004656  0.008746  0.01372  -0.02814  0.02611  -0.6933
6.26e+09  0.4078  -0.7836  0.01497  3.247e-06  0.01726  -0.01762  -0.1831  -0.6483
6.261e+09  0.08209  -0.8157  -0.002917  0.01216  0.02576  0.02495  -0.4493  -0.5609
6.262e+09  -0.1989  -0.8509  -0.01918  -0.02286  -0.01114  -0.02067  -0.6286  -0.3476
6.264e+09  -0.4466  -0.7247  0.001244  0.01816  -0.00821  0.02699  -0.7427  -0.103
6.265e+09  -0.7038  -0.4504  -0.01659  -0.009038  0.01359  0.06352  -0.7219  0.1248
6.266e+09  -0.7785  -0.2249  -0.01883  0.0171  0.007799  -0.01311  -0.5705  0.3816
6.268e+09  -0.833  0.07911  0.0007542  0.00743  -0.06929  0.0244  -0.433  0.5943
6.269e+09  -0.7792  0.3806  0.04422  0.01282  0.01098  0.03429  -0.2066  0.6906
6.27e+09  -0.6009  0.5738  0.01629  0.02953  -0.01687  -0.001071  0.08442  0.7255
6.271e+09  -0.3417  0.7633  -0.008896  0.02196  -0.07223  -0.02185  0.3258  0.6685
6.272e+09  -0.08976  0.8174  -0.02892  0.01441  -0.02953  -0.0009816  0.4992  0.5133
6.274e+09  0.209  0.7847  -0.002124  0.02974  -0.0128  -0.01188  0.6834  0.2596
6.275e+09  0.4757  0.6238  0.03358  0.00996  0.04399  -0.0193  0.7803  0.05566
6.276e+09  0.6943  0.4802  -0.01575  0.03399  0.02143  -0.02496  0.7339  -0.262
6.278e+09  0.8132  0.2049  0.0006145  -0.003307  -0.004198  -0.01913  0.613  -0.4683
6.279e+09  0.8795  -0.0584  0.01937  0.009927  0.02383  -0.03712  0.3975  -0.6491
6.28e+09  0.7119  -0.3736  0.01023  -0.0061  -0.0844  0.03229  0.1573  -0.7881
6.281e+09  0.5356  -0.6394  -0.02042  0.01316  0.01349  0.06517  -0.0861  -0.7902
6.282e+09  0.3146  -0.7318  -0.002458  0.03193  0.03613  -0.003075  -0.3433  -0.7044
6.284e+09  0.001003  -0.8614  0.01622  0.01979  -0.008716  -0.02439  -0.5782  -0.5417
6.285e+09  -0.2298  -0.7584  0.02705  -0.02218  0.006733  0.04286  -0.7119  -0.2905
6.286e+09  -0.5085  -0.6605  -0.00343  -0.01974  -0.03226  -0.04478  -0.7896  -0.04112
6.288e+09  -0.7412  -0.5027  -0.001794  -0.004057  0.003946  -0.08781  -0.7592  0.2584
6.289e+09  -0.8015  -0.1357  -0.01495  -0.0105  0.01658  -0.05462  -0.591  0.5093
6.29e+09  -0.8628  0.1041  0.008211  0.008987  -0.02176  -0.0228  -0.4145  0.7213
6.291e+09  -0.7341  0.4387  0.02505  -0.01165  0.006734  -0.02913  -0.1442  0.7944
6.292e+09  -0.5384  0.6904  -0.01099  -0.02525  0.04346  -0.0164  0.1546  0.816
6.294e+09  -0.2959  0.7767  0.0224  0.01933  0.003001  -0.02634  0.4081  0.7105
6.295e+09  0.00272  0.848  -0.007962  0.01238  0.03932  -0.01236  0.6254  0.5298
6.296e+09  0.3018  0.7884  -0.03649  -0.02107  0.0411  -0.01795  0.7864  0.2978
6.298e+09  0.502  0.6769  0.02012  0.01017  0.008502  0.03144  0.8347  -0.02355
6.299e+09  0.73  0.4062  -0.02592  -0.04107  -0.04401  -0.01379  0.7695  -0.2788
6.3e+09  0.8246  0.1332  -0.009875  -0.02737  0.08704  0.002761  0.6672  -0.5444
6.301e+09  0.7498  -0.1633  0.004862  -0.01003  -0.02929  -0.08015  0.4439  -0.7249
6.302e+09  0.7431  -0.4102  -0.01258  0.01011  -0.02736  0.02742  0.1543  -0.8029
6.304e+09  0.5332  -0.6167  -0.003957  -0.01725  0.05453  -0.04017  -0.1863  -0.8291
6.305e+09  0.2691  -0.7625  -0.01109  -0.02185  0.01696  0.01331  -0.4201  -0.7791
6.306e+09  -0.01628  -0.8423  -0.008051  -0.003244  -0.02938  -0.05401  -0.6082  -0.5628
6.308e+09  -0.2995  -0.8167  -0.03142  -0.002205  0.01769  -0.01889  -0.8166  -0.2954
6.309e+09  -0.5574  -0.6023  -0.0145  0.02161  -0.02431  0.03093  -0.8508  -0.0008591
6.31e+09  -0.7342  -0.4025  -0.018  0.002607  0.02107  0.02426  -0.8082  0.2606
6.311e+09  -0.8606  -0.09851  0.02582  0.007234  0.02232  -0.02754  -0.6657  0.5431
6.312e+09  -0.8076  0.1812  0.02382  -0.05099  -0.02992  0.02212  -0.4337  0.7612
6.314e+09  -0.7198  0.4304  -0.006518  -0.003965  -0.033  -0.0315  -0.1491  0.8926
6.315e+09  -0.5133  0.6611  0.02491  -0.003826  -0.04539  -0.03382  0.1107  0.8614
6.316e+09  -0.2354  0.8672  -0.01102  0.009754  -0.03153  0.03477  0.4337  0.7498
6.318e+09  0.07515  0.8421  0.0004796  0.01535  0.002608  -0.005331  0.6821  0.5439
6.319e+09  0.3536  0.7929  -0.02277  -0.02741  -0.001916  -0.0139  0.8028  0.3079
6.32e+09  0.5955  0.5716  -0.02184  0.006116  0.01095  -0.003395  0.875  0.02083
6.321e+09  0.8197  0.3932  0.008504  0.002727  -0.02758  0.01274  0.8506  -0.3151
6.322e+09  0.875  -0.00439  -0.02057  0.0009145  -0.0296  -0.03089  0.6922  -0.5565
6.324e+09  0.8197  -0.2124  0.001191  -0.02377  0.05206  0.0185  0.4728  -0.7612
6.325e+09  0.7329  -0.5599  -0.01744  -6.007e-05  -0.0437  0.01445  0.1685  -0.8832
6.326e+09  0.4424  -0.7371  -0.04613  -0.01929  0.01296  0.01048  -0.1434  -0.8677
6.328e+09  0.1618  -0.8508  0.01332  0.01413  0.009077  0.009976  -0.4229  -0.7843
6.329e+09  -0.1365  -0.8498  0.02601  0.001776  0.02327  -0.015  -0.6805  -0.6047
6.33e+09  -0.4543  -0.747  -0.008022  0.001883  0.0002181  -0.005901  -0.8298  -0.2861
6.331e+09  -0.6527  -0.5466  0.01771  0.016  -0.01292  -0.02319  -0.9233  -0.01184
6.332e+09  -0.7935  -0.3193  -0.003891  -0.004305  0.04334  -0.02793  -0.8354  0.2996
6.334e+09  -0.8944  0.02181  -0.01251  0.01179  -0.03926  0.01671  -0.7178  0.5558
6.335e+09  -0.7901  0.3468  -0.01625  -0.03303  -0.03041  -0.01331  -0.4768  0.7812
6.336e+09  -0.6767  0.5777  -0.003089  0.004261  -0.01545  -0.04107  -0.2183  0.9248
6.338e+09  -0.4367  0.7897  -0.02035  0.002575  -0.05445  0.008331  0.1495  0.9219
6.339e+09  -0.1424  0.8965  0.04193  -0.002186  -0.0416  -0.04984  0.3954  0.8277
6.34e+09  0.1833  0.8302  0.01138  0.01764  -0.02267  -0.04493  0.6798  0.5972
6.341e+09  0.4784  0.7444  -0.004158  -0.0004095  0.02014  0.001213  0.8648  0.3643
6.342e+09  0.6971  0.5519  0.000617  0.007283  -0.002576  0.02732  0.9185  0.01243
6.344e+09  0.8788  0.2593  0.01651  0.007312  -0.04113  0.02203  0.8819  -0.263
6.345e+09  0.8951  -0.07216  0.01277  -0.006682  -0.007703  0.01602  0.7509  -0.5887
6.346e+09  0.7849  -0.3463  0.02115  0.009317  -0.01759  0.03445  0.5028  -0.8022
6.348e+09  0.5685  -0.6087  0.003022  0.009769  -0.0539  -0.01758  0.2773  -0.9384
6.349e+09  0.365  -0.776  0.009101  0.002102  0.01053  -0.009783  -0.0836  -0.9587
6.35e+09  0.09569  -0.9529  0.01335  0.03315  0.01048  0.000318  -0.4661  -0.8583
6.351e+09  -0.2473  -0.8674  0.01076  -0.03635  0.0433  -0.0004101  -0.6875  -0.6373
6.352e+09  -0.5292  -0.6953  -0.03502  -0.005996  -0.02515  0.03496  -0.851  -0.4263
6.354e+09  -0.7475  -0.4723  0.004425  0.009104  0.04736  -0.0564  -0.9814  -0.06184
6.355e+09  -0.8877  -0.1647  0.001731  -0.01261  -0.02672  0.01116  -0.9503  0.2784
6.356e+09  -0.891  0.1623  0.02741  0.02987  0.01094  0.0005931  -0.7332  0.5561
6.358e+09  -0.8316  0.4075  0.02077  -0.0145  -0.01063  0.002426  -0.5009  0.7827
6.359e+09  -0.5942  0.7148  -0.0144  -0.03371  0.007414  0.02069  -0.225  0.9171
6.36e+09  -0.3245  0.8644  0.009592  0.02585  0.01202  0.03058  0.1207  0.9688
6.361e+09  -0.08984  0.8975  0.005766  -0.004339  0.004845  0.01253  0.4175  0.8378
6.362e+09  0.2973  0.8607  0.006267  0.005218  0.02069  0.00171  0.7005  0.6823
6.364e+09  0.5944  0.7242  0.02057  0.007847  -0.04313  -0.002578  0.8422  0.425
6.365e+09  0.786  0.4385  -0.0251  -0.03937  0.04156  -0.01965  0.9405  0.09809
6.366e+09  0.9053  0.08831  0.01376  0.01267  0.02826  -0.02692  0.8927  -0.2611
6.368e+09  0.8784  -0.1808  0.03344  -0.009166  -0.002483  0.004539  0.7654  -0.5237
6.369e+09  0.7885  -0.4677  0.001087  0.007009  0.0481  -0.04265  0.5673  -0.7871
6.37e+09  0.5988  -0.7113  -0.002999  -0.02003  0.001218  -0.04838  0.2594  -0.9501
6.371e+09  0.2644  -0.8702  -0.005562  -0.004833  -0.01001  0.001457  -0.06392  -0.9647
6.372e+09  -0.01563  -0.9139  0.0002122  -0.01481  -0.02548  -0.003892  -0.3836  -0.8985
6.374e+09  -0.313  -0.8109  -0.02344  0.02568  0.03579  -0.03191  -0.6877  -0.6587
6.375e+09  -0.5974  -0.6772  -0.02683  0.01095  -0.02194  -0.01827  -0.8268  -0.4083
6.376e+09  -0.7564  -0.4176  -0.02956  0.003265  -0.02578  -0.009443  -0.9495  -0.08591
6.378e+09  -0.9029  -0.1106  0.009268  -0.009967  0.02454  0.01234  -0.926  0.2361
6.379e+09  -0.9077  0.2404  -0.009856  0.02053  0.03323  0.006631  -0.7569  0.5011
6.38e+09  -0.7254  0.4951  -0.05197  0.0279  0.02889  -0.04283  -0.5798  0.7938
6.381e+09  -0.5187  0.7232  -0.001463  -0.01279  -0.003416  -0.03657  -0.2798  0.9116
6.382e+09  -0.2257  0.8864  0.03926  -0.005009  0.04462  -0.000129  0.04347  0.9514
6.384e+09  0.08545  0.8853  0.007304  0.001202  -0.003066  -0.007698  0.3573  0.9043
6.385e+09  0.3689  0.8309  0.007351  -0.02899  -0.01374  -0.03263  0.6468  0.6968
6.386e+09  0.612  0.6436  0.001278  0.01558  -0.01122  0.001834  0.8163  0.3749
6.388e+09  0.838  0.3157  -0.01321  -0.008357  -0.002363  -0.005582  0.9573  0.1257
6.389e+09  0.9115  0.1245  -0.01235  0.003541  0.05579  0.003637  0.9496  -0.2178
6.39e+09  0.8682  -0.2217  0.01162  0.0126  -0.006807  0.04048  0.7894  -0.5075
6.391e+09  0.6891  -0.529  -0.01371  0.02086  -0.03129  0.09508  0.5679  -0.779
6.392e+09  0.5245  -0.693  0.007185  0.007466  0.007237  -0.04383  0.2864  -0.9028
6.394e+09  0.1772  -0.9167  -0.04498  0.05439  0.04177  0.004714  -0.02477  -0.9187
6.395e+09  -0.1007  -0.8946  0.04378  -0.00374  -0.02153  0.007515  -0.3558  -0.8559
6.396e+09  -0.4315  -0.787  -0.003134  0.006695  0.03174  0.002663  -0.5899  -0.6903
6.398e+09  -0.6821  -0.5924  -0.01247  0.02345  0.01425  -0.003441  -0.7968  -0.4505
6.399e+09  -0.8619  -0.3504  -0.04399  0.03533  0.03903  -0.0142  -0.9358  -0.1547
6.4e+09  -0.9273  -0.06763  0.01592  -0.01335  0.03208  0.01112  -0.9179  0.1917
6.401e+09  -0.8795  0.241  -0.03145  0.01089  0.007783  0.03009  -0.7888  0.4824
6.402e+09  -0.7652  0.5771  0.001039  -0.009834  0.02109  0.003987  -0.5597  0.7104
6.404e+09  -0.4926  0.7906  -0.04005  0.01631  -0.008245  -0.01997  -0.3523  0.8766
6.405e+09  -0.1353  0.8757  -0.01612  -0.03768  -0.01343  -0.0224  -0.006485  0.92
6.406e+09  0.1208  0.9271  -0.00143  -0.0264  -0.04994  -0.00949  0.3562  0.9061
6.408e+09  0.3992  0.7897  0.02352  0.02519  0.01444  -0.002725  0.5438  0.7111
6.409e+09  0.7144  0.6109  -0.01861  -0.04253  -0.006264  0.02407  0.782  0.4399
6.41e+09  0.8402  0.3221  -0.01943  -0.01782  -0.009117  0.02461  0.9197  0.1724
6.411e+09  0.8497  0.02454  0.0123  0.02913  0.01049  -0.03735  0.892  -0.1467
6.412e+09  0.8406  -0.2778  0.01031  0.01985  0.03947  0.04787  0.7989  -0.4784
6.414e+09  0.7273  -0.5754  0.042  -0.01606  -0.01957  -0.01854  0.6238  -0.7261
6.415e+09  0.4259  -0.7943  -0.01066  0.017  -0.004081  0.009507  0.3196  -0.8395
6.416e+09  0.1211  -0.9056  0.03396  0.007038  0.05139  0.02446  -0.0005865  -0.8982
6.418e+09  -0.1182  -0.8648  -0.06204  -0.03075  0.003458  0.02648  -0.2708  -0.8262
6.419e+09  -0.4048  -0.7739  -0.07486  -0.01107  0.009051  -0.0142  -0.5172  -0.724
6.42e+09  -0.6704  -0.5919  0.05501  -0.0005626  -0.01383  0.02085  -0.7746  -0.5206
6.421e+09  -0.8083  -0.3346  0.03994  0.03785  -0.004297  -0.02572  -0.875  -0.2381
6.422e+09  -0.9004  -0.05192  -0.0222  -0.02551  0.006224  0.03116  -0.8367  0.09882
6.424e+09  -0.8824  0.3151  0.0303  0.04016  -0.01399  0.007807  -0.7833  0.3518
6.425e+09  -0.7112  0.5722  -0.02606  -0.01277  0.0319  -0.04675  -0.5989  0.6248
6.426e+09  -0.4584  0.7396  -0.0129  4.681e-05  -0.05745  0.01533  -0.2629  0.8093
6.428e+09  -0.1275  0.8608  0.006174  0.006545  0.003888  -0.006364  -0.09087  0.886
6.429e+09  0.1802  0.9159  0.02122  0.03425  0.02466  0.02505  0.255  0.8048
6.43e+09  0.4422  0.8176  0.01495  0.01576  0.004184  0.001874  0.5037  0.6898
6.431e+09  0.7439  0.5973  -0.05098  -0.02406  -0.01092  0.01494  0.7174  0.4915
6.432e+09  0.8454  0.2546  -0.04525  -0.06041  -0.03394  -0.01481  0.8549  0.2286
6.434e+09  0.8882  -0.002774  -0.03905  -0.003863  -0.03798  0.01619  0.839  -0.0473
6.435e+09  0.8285  -0.301  0.004626  -0.0161  0.03179  0.01716  0.7859  -0.3858
6.436e+09  0.6775  -0.5794  0.009853  -0.02269  -0.03146  0.08496  0.566  -0.6395
6.438e+09  0.4434  -0.785  -0.007275  -0.01443  -0.006488  -0.009158  0.3628  -0.7825
6.439e+09  0.1181  -0.8963  0.04925  -0.02072  0.02404  0.04384  0.08406  -0.8562
6.44e+09  -0.1565  -0.8999  -0.02044  -0.05237  0.006738  -0.04154  -0.2164  -0.814
6.441e+09  -0.4281  -0.7613  0.05071  0.01041  0.007862  -0.01043  -0.5409  -0.7286
6.442e+09  -0.7232  -0.551  0.0398  -0.001034  -0.03235  0.02734  -0.7074  -0.4714
6.444e+09  -0.8457  -0.2945  -0.02992  -0.03679  -0.03258  -0.02499  -0.8473  -0.208
6.445e+09  -0.8928  -0.01005  0.009841  -0.03438  -0.0283  -0.07308  -0.8149  0.09326
6.446e+09  -0.8169  0.3663  -0.01015  0.003483  0.01384  0.01357  -0.7894  0.3472
6.448e+09  -0.6586  0.6007  0.04462  -0.03582  -0.002826  -0.009126  -0.6378  0.609
6.449e+09  -0.3901  0.7848  0.0057  -0.03423  0.0185  0.03287  -0.3548  0.8012
6.45e+09  -0.08731  0.9466  -0.007063  -0.03711  0.02652  0.02682  -0.03062  0.8218
6.451e+09  0.2329  0.8908  0.02276  0.01893  0.04139  0.02044  0.2227  0.7889
6.452e+09  0.5136  0.7625  0.02999  0.04301  -0.04805  0.04584  0.4664  0.6481
6.454e+09  0.6807  0.4994  -0.04798  -0.006098  0.01452  0.02916  0.667  0.4468
6.455e+09  0.8533  0.2715  0.004128  -0.02035  -0.005858  0.001876  0.7914  0.2397
6.456e+09  0.9135  -0.05507  -0.007151  0.01655  -0.01734  0.01508  0.8249  -0.0671
6.458e+09  0.8597  -0.4207  0.03654  -0.02698  0.03798  -0.02662  0.7432  -0.3506
6.459e+09  0.6733  -0.5819  0.01279  0.03108  0.01474  -0.03276  0.5799  -0.574
6.46e+09  0.3649  -0.8298  -0.05389  0.05869  0.002964  -0.03051  0.3451  -0.7296
6.461e+09  0.06123  -0.9396  -0.002597  -0.01616  0.02568  -0.01436  0.04286  -0.8136
6.462e+09  -0.2685  -0.8854  -0.004237  -0.002216  0.009852  0.0004137  -0.248  -0.735
6.464e+09  -0.502  -0.7725  -0.01894  -0.01674  0.03918  0.02901  -0.5151  -0.6504
6.465e+09  -0.7484  -0.5642  0.00366  0.03558  -0.08522  -0.002885  -0.6407  -0.5088
6.466e+09  -0.944  -0.2238  -0.002789  0.04191  -0.01258  0.01828  -0.7779  -0.2178
6.468e+09  -0.8823  0.07584  0.01017  0.02791  -0.009831  0.01236  -0.7422  0.09355
6.469e+09  -0.8606  0.4522  0.006004  -0.01726  -0.001139  -0.02671  -0.7381  0.3678
6.47e+09  -0.6512  0.7318  -0.01786  -0.003171  0.02474  0.02936  -0.5763  0.5589
6.471e+09  -0.3925  0.8479  -0.02283  -0.02037  0.002473  0.03806  -0.3306  0.7286
6.472e+09  -0.006668  0.9343  -0.05429  -0.01549  -0.001158  -0.0136  -0.06992  0.8104
6.474e+09  0.2928  0.8781  0.01904  0.004228  0.01705  -0.005197  0.1956  0.7186
6.475e+09  0.5897  0.7589  -0.007398  0.02699  0.003786  0.01474  0.4767  0.6252
6.476e+09  0.7681  0.5195  -0.01768  -0.05156  0.01072  0.03653  0.6692  0.4679
6.478e+09  0.9  0.1832  0.01104  0.01785  0.02226  0.04474  0.7986  0.2025
6.479e+09  0.9397  -0.1615  0.0007912  -0.01583  0.02131  -0.003222  0.7796  -0.05649
6.48e+09  0.8411  -0.4558  0.01303  0.0002234  -0.04866  0.02814  0.7565  -0.3636
6.481e+09  0.6182  -0.7945  0.001719  0.0009814  0.02621  -0.01999  0.5846  -0.5835
6.482e+09  0.3181  -0.8721  0.008461  0.03063  -0.01868  0.03776  0.3381  -0.7152
6.484e+09  -0.001658  -0.9853  -0.007206  -0.01527  -0.001192  0.03308  0.06957  -0.7522
6.485e+09  -0.3047  -0.9117  0.0008026  -0.006434  0.03602  -0.03277  -0.1698  -0.7553
6.486e+09  -0.6358  -0.7481  0.01953  -0.01943  0.002458  0.005822  -0.4841  -0.6424
6.488e+09  -0.8438  -0.4424  -0.03581  -0.02505  -0.02557  0.006217  -0.6512  -0.4645
6.489e+09  -0.9639  -0.1492  0.0167  -0.00289  -0.04443  -0.03579  -0.7517  -0.1917
6.49e+09  -0.9198  0.1872  0.01543  0.01364  -0.01792  -0.007632  -0.7555  0.09641
6.491e+09  -0.8118  0.489  0.01612  0.003476  -0.003557  0.000694  -0.7284  0.3449
6.492e+09  -0.5369  0.7528  0.02673  -0.002593  -0.01825  0.004575  -0.4926  0.5394
6.494e+09  -0.2369  0.9566  0.01864  0.02731  -0.0582  -0.01146  -0.2958  0.718
6.495e+09  0.04207  0.9367  -0.01547  0.03955  -0.04026  -0.006246  -0.04303  0.7743
6.496e+09  0.4052  0.8665  0.03855  -0.006517  -0.02751  -0.01978  0.182  0.7161
6.498e+09  0.5995  0.6713  -0.002231  -0.02077  -0.02867  -0.01766  0.4427  0.5767
6.499e+09  0.8381  0.4222  0.01134  -0.01582  0.01669  0.01735  0.6255  0.4274
6.5e+09  0.9668  0.113  -0.003596  0.05921  0.006406  -0.01118  0.7534  0.1663
6.501e+09  0.9661  -0.2318  -0.04043  0.006439  -0.007914  0.01453  0.7451  -0.1125
6.502e+09  0.7482  -0.5973  0.002896  -0.001812  -0.01332  -0.03497  0.6519  -0.3713
6.504e+09  0.5356  -0.8014  -0.03077  0.01764  -0.02884  -0.02441  0.4856  -0.5748
6.505e+09  0.2542  -0.948  -0.009018  0.01201  -0.02558  -0.03016  0.304  -0.6714
6.506e+09  -0.0832  -1.011  0.02319  -0.007137  0.009385  -0.02602  -0.01537  -0.7863
6.508e+09  -0.4134  -0.8059  -0.02371  -0.00495  0.01274  0.0624  -0.2132  -0.7451
6.509e+09  -0.7481  -0.6264  -0.02845  0.03995  0.01467  0.01141  -0.47  -0.6392
6.51e+09  -0.9111  -0.4031  0.01241  0.01436  -0.03117  -0.006598  -0.623  -0.3892
6.511e+09  -0.9322  -0.004337  0.01526  -0.02096  0.04556  -0.04633  -0.7461  -0.1133
6.512e+09  -0.9626  0.3472  0.005402  0.02785  0.04444  -0.03815  -0.7364  0.1426
6.514e+09  -0.7375  0.5756  -0.01292  0.03931  0.003574  0.02188  -0.6419  0.3681
6.515e+09  -0.507  0.818  0.004617  -0.03551  0.004538  -0.01396  -0.4569  0.6329
6.516e+09  -0.1757  0.9804  -0.03498  0.01607  0.02579  -0.034  -0.2634  0.7329
6.518e+09  0.1919  0.9049  0.01837  0.03391  -0.02745  0.01395  0.03539  0.7722
6.519e+09  0.5129  0.8434  -0.007588  0.02579  -0.01068  -0.04274  0.2675  0.728
6.52e+09  0.8195  0.5592  0.01335  0.03575  -0.03915  -0.05762  0.4859  0.5263
6.521e+09  0.9307  0.2391  0.006851  -0.0445  -0.02814  0.02092  0.6448  0.3829
6.522e+09  0.9229  -0.1002  0.02574  0.008248  -0.01623  -0.01711  0.7203  0.08578
6.524e+09  0.9367  -0.3551  -0.02967  -0.003473  -0.02155  -0.03566  0.7102  -0.1673
6.525e+09  0.7437  -0.6858  -0.01784  0.008519  -0.008312  -0.03584  0.5775  -0.4186
6.526e+09  0.3603  -0.8995  0.0461  -0.0008692  -0.02959  0.02634  0.404  -0.6104
6.528e+09  0.1031  -0.9694  -0.006781  0.006341  0.00409  0.009038  0.1759  -0.6745
6.529e+09  -0.2874  -0.887  0.01334  -0.02802  -0.04034  0.02334  -0.03652  -0.7041
6.53e+09  -0.6683  -0.8245  0.01471  0.01179  -0.02665  0.06556  -0.2931  -0.6386
6.531e+09  -0.8224  -0.556  0.0009369  -0.02252  0.00503  0.03795  -0.4998  -0.4875
6.532e+09  -0.9282  -0.1841  -0.0003569  0.02701  0.01504  0.01695  -0.5993  -0.2992
6.534e+09  -0.9954  0.1891  -0.02224  0.01583  0.01332  -0.0813  -0.6474  -0.05825
6.535e+09  -0.8043  0.4946  0.000578  -0.04127  -0.002783  0.04117  -0.6003  0.09757
6.536e+09  -0.5723  0.6981  0.02167  0.02262  0.05047  -0.04352  -0.5745  0.3046
6.538e+09  -0.2268  0.9176  -0.009633  -0.01089  -0.03246  0.02289  -0.4493  0.4787
6.539e+09  0.04436  0.9253  -0.0153  -0.007089  0.01149  0.0246  -0.2557  0.6027
6.54e+09  0.4005  0.893  0.02603  -0.008517  -0.01655  -0.01903  -0.06445  0.6984
6.541e+09  0.625  0.7062  0.02706  -0.01367  0.02076  -0.03291  0.2049  0.6838
6.542e+09  0.8837  0.4234  -0.01236  0.0003944  0.006403  -0.03519  0.4349  0.5784
6.544e+09  0.9209  0.09104  0.001833  -0.01918  -0.04636  0.02267  0.579  0.4209
6.545e+09  0.8513  -0.2589  0.01254  0.03428  0.004964  0.01376  0.7129  0.1826
6.546e+09  0.7413  -0.5518  -0.01584  0.01033  0.008527  0.03371  0.7127  -0.0704
6.548e+09  0.4876  -0.7974  0.01919  -0.004967  -0.02611  -0.0256  0.665  -0.3584
6.549e+09  0.2505  -0.891  -0.005186  0.01233  -0.003932  0.00584  0.5236  -0.5391
6.55e+09  -0.1299  -0.9035  0.002581  -0.0179  -0.06227  0.04481  0.3125  -0.685
