# Hz S RI R 50
6.25e+09  -0.3146  0.8159  0.0085  -0.02593  -0.03401  0.02864  0.1608  0.4717
6.251e+09  -0.06934  0.7876  0.006331  -0.03036  -0.05685  0.03912  0.3875  0.3851
6.252e+09  0.2117  0.8598  0.01313  -0.019  0.02077  0.03165  0.5345  0.24
6.254e+09  0.5319  0.7025  0.01493  0.01007  -0.05793  0.03096  0.5988  0.02316
6.255e+09  0.7619  0.4558  0.006758  0.01285  -0.001334  -0.03992  0.6138  -0.2482
6.256e+09  0.8412  0.1313  0.01739  -0.01267  0.01624  0.02614  0.4653  -0.436
6.258e+09  0.85  -0.1136  -0.007926  0.01085  0.01429  0.01006  0.2777  -0.5932
6.259e+09  0.7243  -0.3956  0.01843  -0.009331  0.05528  -0.01487  0.05526  -0.6558
6.26e+09  0.5488  -0.635  -0.002184  -0.01984  0.008603  -0.05039  -0.1975  -0.643
6.261e+09  0.3057  -0.8043  0.04217  0.01402  0.001903  -0.006741  -0.4464  -0.5884
6.262e+09  0.01273  -0.8452  0.01198  -0.01363  0.0231  0.0629  -0.6288  -0.3461
6.264e+09  -0.2801  -0.8445  -0.02745  0.0243  -0.04309  0.004257  -0.7122  -0.08658
6.265e+09  -0.5637  -0.654  -0.00103  -0.01759  -0.06605  -0.04675  -0.7219  0.1709
6.266e+09  -0.7557  -0.4504  0.004516  -0.02057  0.02353  -0.04416  -0.6134  0.4152
6.268e+09  -0.8146  -0.1241  0.02217  -0.05322  0.02639  0.04071  -0.4399  0.6013
6.269e+09  -0.8911  0.1974  0.002806  -0.01111  -0.001766  0.02222  -0.1912  0.685
6.27e+09  -0.6963  0.4163  -0.008057  -0.008836  -0.05605  -0.02317  0.06906  0.7126
6.271e+09  -0.5614  0.6331  -0.01022  -0.02809  0.003051  -0.005608  0.3183  0.6904
6.272e+09  -0.3504  0.8382  -0.02224  0.01078  -0.04828  -0.01524  0.5335  0.5523
6.274e+09  0.03774  0.9026  0.005904  -0.005957  0.02455  -0.02269  0.691  0.2836
6.275e+09  0.3057  0.8063  0.01125  -0.02022  -0.04264  0.02978  0.7702  0.06247
6.276e+09  0.5821  0.6198  -0.008774  -0.002665  -0.05163  -0.06884  0.7072  -0.2257
6.278e+09  0.6623  0.4472  -0.04226  -0.01203  -0.0134  -0.04504  0.6088  -0.4842
6.279e+09  0.8455  0.1263  -0.002287  0.01489  0.02369  -0.01935  0.4097  -0.6503
6.28e+09  0.7956  -0.1481  -0.02226  -0.0006832  -0.03859  -0.02548  0.1778  -0.7435
6.281e+09  0.7583  -0.436  -0.01755  -0.01245  -0.03183  0.003864  -0.1089  -0.7372
6.282e+09  0.4804  -0.6107  -0.006747  -0.02141  0.02174  0.003887  -0.4079  -0.6845
6.284e+09  0.2592  -0.8023  -0.0031  -0.02953  0.07349  -0.0181  -0.601  -0.5117
6.285e+09  0.01252  -0.8398  -0.03506  0.005111  -0.01262  0.02692  -0.706  -0.2913
6.286e+09  -0.2529  -0.7654  -0.006697  0.03372  -0.01815  0.03007  -0.8099  0.009972
6.288e+09  -0.5799  -0.621  -0.01915  0.00643  0.003927  -0.03101  -0.7627  0.2729
6.289e+09  -0.7151  -0.3595  0.01245  -0.01296  0.01918  -0.05779  -0.6054  0.5183
6.29e+09  -0.8151  -0.1027  -0.02064  0.001077  0.006807  -0.05819  -0.3955  0.6924
6.291e+09  -0.8183  0.1952  0.003866  0.01626  0.00735  -0.008562  -0.1995  0.7756
6.292e+09  -0.7009  0.467  -0.01041  -0.003638  -0.04461  0.02742  0.1505  0.8418
6.294e+09  -0.4794  0.6999  0.009079  -0.02692  -0.01808  0.05884  0.3896  0.701
6.295e+09  -0.2798  0.7594  0.005821  0.02782  0.03619  -0.003653  0.6136  0.5371
6.296e+09  0.07495  0.8256  -0.02475  0.02111  -0.03199  0.00304  0.7703  0.3031
6.298e+09  0.3266  0.7956  0.05006  0.01994  -0.01023  -0.05525  0.8141  0.007543
6.299e+09  0.638  0.5983  0.01202  0.00429  0.01365  -0.004717  0.7772  -0.2735
6.3e+09  0.7771  0.363  0.01905  0.01018  0.0237  -0.01138  0.6538  -0.5398
6.301e+09  0.8762  0.04874  -0.003654  0.002693  0.001538  0.001482  0.3818  -0.673
6.302e+09  0.847  -0.2536  0.005008  0.02185  0.02875  -0.04879  0.1656  -0.8384
6.304e+09  0.6835  -0.4646  -0.03124  -0.008166  -0.03474  0.02669  -0.1288  -0.8588
6.305e+09  0.4811  -0.7138  -0.0007112  0.01282  0.002346  0.008699  -0.4288  -0.7608
6.306e+09  0.1789  -0.8013  0.008855  -0.005432  0.02416  0.04056  -0.6638  -0.5643
6.308e+09  -0.05196  -0.828  -0.03431  0.0132  0.01441  0.006442  -0.7976  -0.3452
6.309e+09  -0.3301  -0.7368  0.02668  -0.006277  0.00419  0.04941  -0.8548  0.005646
6.31e+09  -0.5807  -0.5923  -0.006708  -0.001588  0.0387  0.007872  -0.833  0.2928
6.311e+09  -0.7824  -0.3306  -0.02792  -0.02023  0.03286  0.02856  -0.6685  0.5289
6.312e+09  -0.8411  -0.04281  0.01684  0.006392  0.005577  0.04441  -0.4351  0.7184
6.314e+09  -0.7492  0.2276  0.01059  -0.008948  0.01806  -0.01102  -0.1648  0.8574
6.315e+09  -0.6636  0.5427  0.0254  0.01793  -0.002468  0.04389  0.1433  0.8523
6.316e+09  -0.3986  0.7546  0.001882  -0.0275  -0.005231  0.01182  0.4161  0.7456
6.318e+09  -0.1812  0.8714  0.02164  0.0303  0.0807  -0.0791  0.6742  0.5524
6.319e+09  0.1553  0.8307  -0.007645  0.02487  -0.004739  -0.02913  0.8011  0.3234
6.32e+09  0.4367  0.7445  -0.005638  0.008019  -0.01303  -0.0113  0.9016  -0.02632
6.321e+09  0.6536  0.5793  -0.018  -0.005923  0.004276  -0.02354  0.844  -0.3105
6.322e+09  0.803  0.2608  0.01283  0.004976  -0.02639  -0.02596  0.6965  -0.592
6.324e+09  0.8397  0.05267  0.01247  -0.01496  -0.004234  -0.02168  0.4492  -0.7713
6.325e+09  0.8445  -0.3112  0.01916  -0.01309  0.06518  -0.04623  0.1742  -0.9031
6.326e+09  0.6475  -0.5144  0.01311  -0.01441  -0.03871  -0.03658  -0.1508  -0.8837
6.328e+09  0.375  -0.724  -0.01341  0.01347  0.004246  -0.009933  -0.4469  -0.8029
6.329e+09  0.1308  -0.8169  0.01115  0.01424  -0.006742  0.00989  -0.645  -0.5571
6.33e+09  -0.1578  -0.8357  0.02387  0.001977  -0.04361  -0.03315  -0.8482  -0.3444
6.331e+09  -0.4012  -0.7318  0.007206  -0.03431  -0.03348  -0.001365  -0.8906  -0.05706
6.332e+09  -0.6909  -0.5461  -0.01166  -0.02897  0.02608  0.06108  -0.8813  0.2777
6.334e+09  -0.8459  -0.2845  0.03243  -0.01136  0.03314  -0.03015  -0.727  0.5545
6.335e+09  -0.8888  0.004683  0.01051  -0.004001  -0.04466  -0.004692  -0.5028  0.7817
6.336e+09  -0.8316  0.3253  0.002453  -0.03615  0.04833  0.01191  -0.1721  0.8938
6.338e+09  -0.6213  0.5756  0.02475  0.00641  -0.02616  -0.01575  0.1213  0.919
6.339e+09  -0.3374  0.8039  -0.008018  -0.001343  -0.02457  0.003383  0.4379  0.8477
6.34e+09  -0.07819  0.9166  0.005354  -0.001672  0.005001  -0.01151  0.6868  0.6262
6.341e+09  0.2379  0.8476  0.006911  -0.01958  -0.01813  -0.0208  0.837  0.354
6.342e+09  0.5391  0.7354  0.02047  0.04649  0.008389  0.02055  0.9408  0.02209
6.344e+09  0.7901  0.5226  -0.02155  0.003596  0.002855  0.003945  0.9054  -0.258
6.345e+09  0.8245  0.1988  -0.01287  -0.003132  0.02353  -0.04034  0.7129  -0.6064
6.346e+09  0.8729  -0.0972  0.01986  -0.04191  -0.000108  0.04231  0.4898  -0.7651
6.348e+09  0.8132  -0.4244  0.03056  -0.003745  -0.02314  0.006167  0.208  -0.9502
6.349e+09  0.5947  -0.6826  -0.0105  0.008945  -0.004838  0.003372  -0.104  -0.9786
6.35e+09  0.3145  -0.8109  -0.02282  0.003264  0.01835  -0.01509  -0.4275  -0.8513
6.351e+09  0.002794  -0.8726  -0.007619  -0.003315  -0.04568  0.003186  -0.6808  -0.6688
6.352e+09  -0.3188  -0.8465  0.02105  0.01188  0.01966  0.05057  -0.8562  -0.3843
6.354e+09  -0.6062  -0.7217  -0.01325  -0.03204  -0.03901  0.01756  -0.9316  -0.05204
6.355e+09  -0.7856  -0.4121  -0.01488  -0.01881  0.024  -0.05056  -0.8666  0.2784
6.356e+09  -0.9235  -0.1917  -0.002389  0.009146  -0.02175  0.04219  -0.7568  0.5631
6.358e+09  -0.8984  0.1437  -0.003025  0.04733  -0.01291  0.02355  -0.5127  0.7644
6.359e+09  -0.7477  0.4641  0.004091  0.03204  0.04333  -0.01479  -0.2471  0.8995
6.36e+09  -0.5634  0.7421  -0.01635  0.004986  -0.008286  -0.05149  0.118  0.9274
6.361e+09  -0.2939  0.8551  -0.01722  0.02768  -0.04452  -0.000498  0.3932  0.8589
6.362e+09  0.04408  0.9155  0.01048  -0.02195  0.0382  -0.02633  0.7014  0.6848
6.364e+09  0.3549  0.8503  0.006502  0.0244  0.01387  -0.004989  0.868  0.4118
6.365e+09  0.6776  0.6743  0.00645  -0.01827  0.006973  0.03406  0.9479  0.1237
6.366e+09  0.8184  0.4577  -0.03713  -0.01733  -0.01749  0.03641  0.9308  -0.2637
6.368e+09  0.8933  0.09997  -0.004346  -0.009266  0.03192  -0.01005  0.7774  -0.5402
6.369e+09  0.9231  -0.2547  -0.03002  -0.02988  0.01947  -0.01987  0.556  -0.7538
6.37e+09  0.7654  -0.5064  0.008793  -0.01976  0.02037  0.03093  0.2905  -0.9309
6.371e+09  0.5079  -0.7263  -0.004282  0.00946  0.02672  -0.03023  -0.08425  -0.9905
6.372e+09  0.2114  -0.8379  -0.005735  -0.05124  -0.00108  -0.01815  -0.3832  -0.871
6.374e+09  -0.08794  -0.9089  -0.002528  0.03047  0.00601  0.008909  -0.6036  -0.6659
6.375e+09  -0.3909  -0.7884  0.01441  0.005814  -0.01054  0.0315  -0.883  -0.4147
6.376e+09  -0.7053  -0.6371  0.03132  -0.02198  -0.001931  0.01335  -0.9417  -0.07613
6.378e+09  -0.8237  -0.3799  -0.01983  0.01918  -0.03935  -0.002091  -0.8697  0.2338
6.379e+09  -0.9324  -0.05707  0.003884  0.02442  -0.02551  -0.01378  -0.8046  0.4889
6.38e+09  -0.8412  0.2441  -0.03204  0.005121  -0.01363  0.05691  -0.6009  0.7532
6.381e+09  -0.686  0.5677  -0.02504  0.04487  0.03483  0.02613  -0.2447  0.8936
6.382e+09  -0.4856  0.7722  0.04089  -0.01754  0.02021  -0.005344  0.04751  0.9438
6.384e+09  -0.1823  0.8663  -0.00023  -0.01202  -0.01772  -0.002967  0.3799  0.8604
6.385e+09  0.1424  0.8302  0.04012  -0.02567  0.02003  0.01439  0.6404  0.6766
6.386e+09  0.4369  0.7833  -0.04574  0.01569  0.004476  -0.05652  0.8631  0.4423
6.388e+09  0.6317  0.5929  0.0529  -0.02498  0.004832  0.009832  0.9274  0.1022
6.389e+09  0.8606  0.3657  0.01813  0.01525  0.001808  1.232e-05  0.8978  -0.1881
6.39e+09  0.9442  0.003528  0.001674  0.001395  0.04414  0.04984  0.7793  -0.5188
6.391e+09  0.8285  -0.3078  0.004863  0.003418  0.03471  0.0163  0.561  -0.6983
6.392e+09  0.7242  -0.5856  -0.01939  0.003666  0.01268  0.01208  0.3021  -0.8934
6.394e+09  0.4704  -0.7762  0.02137  -0.03429  0.01545  -0.02889  -0.07985  -0.9139
6.395e+09  0.1532  -0.893  -0.00736  0.02232  0.04447  0.01279  -0.324  -0.8532
6.396e+09  -0.125  -0.8988  -0.004886  -0.02848  0.05391  -0.0175  -0.5954  -0.7035
6.398e+09  -0.4718  -0.7913  -0.008788  -0.0009151  0.02072  -0.005344  -0.8177  -0.4427
6.399e+09  -0.7132  -0.5653  -0.05096  -0.04329  -0.004544  0.003507  -0.9006  -0.1149
6.4e+09  -0.8339  -0.2645  -0.0196  -0.01469  -0.02759  0.01109  -0.9139  0.2223
6.401e+09  -0.9134  -0.03053  -0.01276  -0.0239  -0.004993  -0.008874  -0.7619  0.5136
6.402e+09  -0.8857  0.3078  0.02812  0.02291  -0.027  0.005963  -0.5863  0.7277
6.404e+09  -0.6743  0.5845  -0.01659  -0.002058  -0.03408  -0.07435  -0.2919  0.8327
6.405e+09  -0.4337  0.7548  -0.02893  0.04494  -0.002465  0.02844  -0.01338  0.9113
6.406e+09  -0.1164  0.8524  0.01392  -0.02405  -0.02101  0.02729  0.3115  0.8859
6.408e+09  0.1789  0.8527  -0.02833  0.02826  -0.006596  0.03843  0.5855  0.6986
6.409e+09  0.4425  0.7579  -0.006709  0.01871  -0.009069  0.001018  0.8311  0.4059
6.41e+09  0.6519  0.5941  0.01897  -0.01777  -0.008105  0.04806  0.886  0.1585
6.411e+09  0.8404  0.228  0.005191  -0.0004304  0.01305  -0.02626  0.8843  -0.08792
6.412e+09  0.8746  -0.006048  -0.02406  -0.03367  -0.04669  0.03142  0.8342  -0.3998
6.414e+09  0.8435  -0.2865  -0.0038  0.01943  -0.0423  0.0009706  0.5551  -0.6781
6.415e+09  0.6822  -0.6048  -0.00137  -0.01515  0.02093  -0.006003  0.3116  -0.8587
6.416e+09  0.3665  -0.728  0.03363  0.01986  0.03838  -0.0131  -0.003303  -0.882
6.418e+09  0.1044  -0.8944  -0.006338  0.04216  0.0135  0.0166  -0.2815  -0.8221
6.419e+09  -0.231  -0.8801  -0.0413  0.0118  -0.007195  -0.01617  -0.5711  -0.7082
6.42e+09  -0.4916  -0.7318  -0.007093  -0.06718  0.0155  -0.04916  -0.7165  -0.4841
6.421e+09  -0.7464  -0.5317  -0.0213  -0.03011  -0.00179  0.0004787  -0.899  -0.2152
6.422e+09  -0.8611  -0.323  0.04535  0.005633  -0.01541  -0.004781  -0.864  0.1083
6.424e+09  -0.9341  0.02128  0.03524  -0.04151  0.03537  -0.02913  -0.7444  0.4562
6.425e+09  -0.7943  0.3236  -0.03604  -0.01553  -0.007154  -0.009011  -0.595  0.6678
6.426e+09  -0.6313  0.6211  0.003134  0.02583  -0.01798  0.03032  -0.3886  0.7979
6.428e+09  -0.3385  0.7877  0.02832  0.01472  -0.01703  -0.01523  -0.06658  0.8731
6.429e+09  -0.09599  0.855  -0.0155  -0.02941  0.02319  -0.05667  0.2461  0.7979
6.43e+09  0.1878  0.8652  0.03443  0.01884  0.03441  0.02081  0.4712  0.6786
6.431e+09  0.5187  0.7531  -0.02066  0.01254  -0.01456  -0.04508  0.6833  0.4822
6.432e+09  0.7042  0.568  -0.03611  -0.02994  -0.02763  0.006151  0.8075  0.2342
6.434e+09  0.8278  0.2996  -0.03348  0.006604  0.01589  -0.02126  0.8342  -0.1277
6.435e+09  0.8628  -0.04897  0.00409  -0.04343  -0.03204  0.04434  0.7742  -0.3851
6.436e+09  0.8299  -0.4253  -0.01697  -0.02757  9.25e-05  -0.01061  0.588  -0.6188
6.438e+09  0.612  -0.633  -0.06376  0.02649  -0.02619  -0.05441  0.3725  -0.7757
6.439e+09  0.4222  -0.7742  0.03758  -0.0001258  0.006921  0.02709  0.1086  -0.8703
6.44e+09  0.06204  -0.8821  0.0218  -0.06084  0.04319  -0.03355  -0.2287  -0.8223
6.441e+09  -0.1765  -0.9011  0.003168  -0.04861  -0.02067  0.003021  -0.5413  -0.6814
6.442e+09  -0.5031  -0.7488  0.03291  0.001825  0.03916  -0.0212  -0.6896  -0.4844
6.444e+09  -0.7489  -0.5267  -0.01914  0.007514  0.009744  -0.01032  -0.818  -0.21
6.445e+09  -0.8691  -0.2133  0.005162  0.002693  -0.005087  -0.01412  -0.8442  0.1261
6.446e+09  -0.9056  0.06008  -0.01207  -0.02262  -0.01462  -0.01324  -0.7644  0.3307
6.448e+09  -0.8235  0.3835  -0.006563  -0.002248  -0.01955  0.03146  -0.5698  0.6297
6.449e+09  -0.6522  0.6443  0.02078  0.02054  -0.002006  -0.01068  -0.3058  0.7882
6.45e+09  -0.3751  0.7937  -0.0005701  -0.01919  -0.01041  0.007386  -0.05352  0.8417
6.451e+09  -0.09695  0.8923  -0.05149  0.01702  -0.04124  -0.01652  0.2388  0.8135
6.452e+09  0.2069  0.8729  -0.01554  0.0286  -0.001106  -0.02031  0.4679  0.6475
6.454e+09  0.5189  0.7826  -0.02668  -0.01804  -0.04847  0.01555  0.6414  0.4495
6.455e+09  0.7239  0.5118  0.006438  -0.02535  -0.02471  0.02685  0.8104  0.1643
6.456e+09  0.8752  0.2223  0.03494  0.05949  0.02379  -0.006149  0.8152  -0.07021
6.458e+09  0.852  -0.04019  -0.03904  0.01453  0.01068  0.0205  0.77  -0.3037
6.459e+09  0.8159  -0.3892  -0.01945  -0.01132  0.02043  0.0542  0.5582  -0.5993
6.46e+09  0.6414  -0.6584  -0.06188  -0.006128  -0.02153  -0.03635  0.3282  -0.743
6.461e+09  0.4029  -0.7831  0.01868  -0.02035  6.068e-05  0.006053  0.05671  -0.8233
6.462e+09  0.0412  -0.8801  -0.006907  -0.01164  0.02888  -0.0384  -0.2645  -0.8023
6.464e+09  -0.2648  -0.975  -0.0001039  0.004027  -0.01955  0.01878  -0.5169  -0.6905
6.465e+09  -0.5685  -0.7364  -0.02732  -0.008056  0.01826  0.005227  -0.584  -0.4904
6.466e+09  -0.7398  -0.5114  0.005431  -0.02057  0.02876  -0.03729  -0.7849  -0.2179
6.468e+09  -0.9027  -0.2225  -0.03786  0.006349  -0.0137  -0.02588  -0.829  0.1182
6.469e+09  -0.8996  0.09158  -0.02908  0.01663  -0.004316  0.01121  -0.7234  0.3085
6.47e+09  -0.8162  0.4289  -0.03588  -0.01155  0.02457  -0.03234  -0.538  0.6133
6.471e+09  -0.6453  0.6102  0.03476  -0.01762  -0.02735  -0.05255  -0.3011  0.7031
6.472e+09  -0.3383  0.8181  0.007836  0.03024  -0.006039  0.02275  -0.0411  0.799
6.474e+09  -0.03469  0.9554  0.02892  -0.02682  -0.004587  0.01189  0.1702  0.7406
6.475e+09  0.2745  0.8417  -0.03708  -0.01345  0.01957  0.01733  0.4477  0.6466
6.476e+09  0.5575  0.7453  -0.03849  -0.009269  -0.07193  -0.04197  0.6759  0.4575
6.478e+09  0.7631  0.5012  0.01703  -0.0004144  0.008555  -0.05963  0.7587  0.1796
6.479e+09  0.9171  0.2234  -0.00115  0.0371  -0.03427  0.004552  0.7781  -0.03428
6.48e+09  0.8771  -0.08251  -0.00874  -0.02682  -0.02597  -0.003631  0.7293  -0.3601
6.481e+09  0.8071  -0.4036  0.008907  9.822e-05  -0.01535  -0.002883  0.5459  -0.576
6.482e+09  0.6115  -0.6789  0.01146  0.007883  -0.00757  0.008431  0.3399  -0.6972
6.484e+09  0.3635  -0.8867  -0.02209  0.06232  0.07036  -0.02885  0.08464  -0.7668
6.485e+09  0.09185  -0.9037  -0.0004292  -0.01319  -0.0432  -0.002538  -0.2643  -0.7802
6.486e+09  -0.2403  -0.8528  -0.06147  0.02048  0.01955  -0.002688  -0.4406  -0.6239
6.488e+09  -0.5987  -0.6852  -0.009836  -0.003479  -0.001341  0.01778  -0.6559  -0.4755
6.489e+09  -0.8024  -0.4764  -0.01513  0.03243  -0.01732  0.008109  -0.7668  -0.1932
6.49e+09  -0.9534  -0.1563  -0.02324  0.02626  -0.06578  0.002794  -0.7935  0.05428
6.491e+09  -0.9329  0.1424  -0.01843  -0.03847  0.001428  -0.004085  -0.7286  0.3355
6.492e+09  -0.8134  0.4892  0.01413  -0.007605  -0.002391  0.004293  -0.5139  0.5786
6.494e+09  -0.6038  0.7518  0.005541  0.06535  -0.03741  -0.03703  -0.3256  0.703
6.495e+09  -0.3422  0.8636  0.00288  -0.001624  0.006828  -0.01108  -0.02007  0.7672
6.496e+09  -0.03349  0.9028  0.006992  0.0471  0.04182  -0.06297  0.2321  0.7309
6.498e+09  0.3424  0.9071  -0.02524  -0.01196  0.03688  0.06887  0.4661  0.5716
6.499e+09  0.5741  0.7171  0.03218  0.01904  0.003594  0.01343  0.6144  0.4159
6.5e+09  0.873  0.4485  0.01451  -0.009119  -0.0176  0.01505  0.7366  0.1504
6.501e+09  0.9268  0.1707  0.02908  0.01017  -0.01085  0.03095  0.7404  -0.1013
6.502e+09  0.9159  -0.1867  -0.03968  0.008034  -0.02082  -0.02401  0.6713  -0.3578
6.504e+09  0.8063  -0.5124  0.01708  0.006921  0.02191  0.01794  0.5102  -0.5519
6.505e+09  0.5913  -0.7914  -0.03638  0.01367  -0.0627  0.01618  0.2553  -0.71
6.506e+09  0.3065  -0.8895  0.02513  0.002394  0.01271  -0.01539  0.04833  -0.7528
6.508e+09  -0.0437  -0.9586  0.009278  0.01254  -0.05018  0.003408  -0.2427  -0.7167
6.509e+09  -0.3287  -0.9117  0.03905  -0.01723  0.02717  0.02547  -0.4843  -0.5835
6.51e+09  -0.6096  -0.733  0.01471  0.01014  -0.01932  0.009195  -0.6248  -0.377
6.511e+09  -0.8525  -0.4259  -0.01281  -0.01452  0.008801  0.01494  -0.7634  -0.1159
6.512e+09  -0.9638  -0.1323  0.03303  -0.01848  0.03518  -0.006152  -0.7503  0.1284
6.514e+09  -0.9023  0.2181  0.01289  0.00983  0.01784  0.04583  -0.6626  0.3843
6.515e+09  -0.7552  0.5547  -0.009137  -0.02893  0.05456  -0.01093  -0.4495  0.5611
6.516e+09  -0.6088  0.789  0.006698  -0.005155  -0.0165  0.03339  -0.231  0.7067
6.518e+09  -0.2452  0.9507  -0.01077  -0.04366  0.03267  -0.01237  0.009962  0.7446
6.519e+09  0.07625  1.029  -0.006044  -0.01215  -0.01428  -0.01394  0.299  0.6984
6.52e+09  0.4273  0.86  0.01767  -0.03819  -0.009948  -0.04111  0.514  0.5668
6.521e+09  0.6869  0.7093  -0.01717  -0.01124  0.01169  -0.01099  0.6915  0.3491
6.522e+09  0.8781  0.4862  0.0266  -0.01441  -0.01163  0.02942  0.7323  0.1008
6.524e+09  1.045  0.05555  -0.001048  0.001876  -0.06333  -0.001941  0.7303  -0.1539
6.525e+09  0.8514  -0.2697  0.0001698  -0.002958  0.04348  -0.02489  0.5583  -0.373
6.526e+09  0.751  -0.581  -0.006378  0.01842  -0.03997  0.02231  0.3839  -0.6399
6.528e+09  0.5341  -0.7862  0.00762  -0.009285  0.000969  0.007816  0.1995  -0.6836
6.529e+09  0.2028  -0.9253  -0.006633  -0.01896  0.04041  -0.07618  -0.05957  -0.7028
6.53e+09  -0.1487  -0.9835  0.01001  0.004155  -0.00402  0.03993  -0.289  -0.6352
6.531e+09  -0.5177  -0.8896  -0.003674  -0.01698  0.0006056  -0.0458  -0.47  -0.4813
6.532e+09  -0.7724  -0.6456  -0.01128  0.0007248  -0.08304  -0.001704  -0.6006  -0.2711
6.534e+09  -0.9301  -0.3691  0.02373  -0.02225  0.03565  0.02773  -0.6117  -0.09959
6.535e+09  -0.99  -0.01642  0.002725  0.01076  -0.004878  -0.005947  -0.6126  0.1304
6.536e+09  -0.9806  0.3588  -0.02952  -0.01711  -0.01144  -0.02013  -0.5613  0.2831
6.538e+09  -0.7353  0.668  -0.01388  0.004595  0.00378  0.00921  -0.4238  0.4771
6.539e+09  -0.4626  0.834  -0.0174  -0.009343  0.03999  -0.01907  -0.2752  0.5899
6.54e+09  -0.1237  0.9943  0.005368  0.02327  0.04947  0.06846  -0.05587  0.6879
6.541e+09  0.1871  0.9454  -0.006716  -0.02583  -0.04489  -0.009363  0.1782  0.6646
6.542e+09  0.5497  0.8342  0.006741  -0.005134  -0.006638  -0.01077  0.4025  0.594
6.544e+09  0.8035  0.5535  0.03421  0.005738  0.0316  -0.04038  0.5861  0.4265
6.545e+09  0.9095  0.2462  0.02385  0.02912  -0.02504  -0.04308  0.7018  0.1636
6.546e+09  0.9381  -0.06651  0.002551  -0.008359  0.01252  -0.002556  0.7132  -0.08585
6.548e+09  0.8392  -0.3925  0.04246  -0.01263  -0.009121  0.03173  0.6534  -0.3203
6.549e+09  0.6623  -0.7726  -0.014  -0.004537  -0.05356  0.04741  0.4789  -0.5697
6.55e+09  0.3506  -0.865  -0.01357  0.001827  0.007874  0.05803  0.2953  -0.682
