# Hz S RI R 50
6.25e+09  -0.2827  0.8488  -0.005439  0.01833  -0.008084  0.009611  0.1781  0.4705
6.251e+09  -0.04417  0.8798  0.005644  0.01219  0.06009  0.002103  0.3733  0.3989
6.252e+09  0.2563  0.8215  -0.01626  0.01235  0.01966  0.04469  0.5089  0.2385
6.254e+09  0.5016  0.6763  -0.00381  0.02771  -0.02248  -0.01229  0.5939  0.0261
6.255e+09  0.7397  0.4398  0.01125  -0.0286  0.02593  -0.05752  0.5966  -0.2306
6.256e+09  0.8901  0.1909  -0.01197  0.01963  -0.0221  0.02031  0.4707  -0.4193
6.258e+09  0.8862  -0.1422  -0.01009  -0.001155  0.01687  -0.01904  0.2965  -0.5936
6.259e+09  0.7562  -0.435  -0.001549  0.008098  -0.03515  0.002154  0.03316  -0.6856
6.26e+09  0.5364  -0.6722  0.00212  -0.0223  0.008184  0.04693  -0.2251  -0.6731
6.261e+09  0.2781  -0.7605  0.01357  0.004459  -0.04416  0.01024  -0.4397  -0.522
6.262e+09  -0.003915  -0.8546  0.01239  -0.007447  0.01518  -0.02581  -0.6494  -0.3091
6.264e+09  -0.285  -0.8854  0.03002  0.005503  -0.01215  0.02459  -0.7132  -0.1131
6.265e+09  -0.569  -0.6104  0.00555  -0.0005209  -0.0156  -0.05871  -0.7077  0.1602
6.266e+09  -0.7904  -0.3769  -0.005811  -0.0002824  -0.03338  0.01782  -0.6153  0.3762
6.268e+09  -0.7935  -0.1362  -0.003679  0.004138  0.01448  -0.005622  -0.425  0.5988
6.269e+09  -0.7971  0.1896  -0.02326  0.01688  0.003918  0.006721  -0.1908  0.7203
6.27e+09  -0.6882  0.4293  0.01815  0.01088  0.03558  -0.0429  0.0682  0.7493
6.271e+09  -0.513  0.684  -0.01108  0.04448  -0.02106  0.083  0.3101  0.6742
6.272e+09  -0.2382  0.7827  0.002745  0.002528  0.002382  0.01497  0.5392  0.5283
6.274e+09  0.001291  0.8195  0.008029  0.006774  0.08275  0.01062  0.7142  0.3136
6.275e+09  0.3258  0.8573  -0.03448  0.001475  0.02249  -0.004864  0.7563  0.04792
6.276e+09  0.4934  0.609  -0.03466  -0.03792  0.0196  -0.01415  0.7484  -0.2382
6.278e+09  0.7534  0.4211  0.01895  0.01456  -0.0001951  -0.002489  0.6301  -0.4609
6.279e+09  0.8095  0.1068  -0.0192  0.0184  0.04591  0.01915  0.4534  -0.6688
6.28e+09  0.7744  -0.1048  -0.004346  -0.01292  -0.02197  0.01402  0.1849  -0.776
6.281e+09  0.717  -0.4406  -0.02137  -0.003088  0.01031  0.02618  -0.08543  -0.7714
6.282e+09  0.474  -0.6355  -0.01893  -0.0006574  -0.00767  -0.009247  -0.3647  -0.7062
6.284e+09  0.2408  -0.8311  -0.004431  0.01699  0.03008  -0.05158  -0.5782  -0.4908
6.285e+09  -0.04435  -0.854  0.04134  -0.01417  -0.006818  -0.02014  -0.7383  -0.3046
6.286e+09  -0.3104  -0.823  0.01944  -0.002375  -0.02596  -0.002604  -0.77  -0.04217
6.288e+09  -0.5786  -0.5666  0.03234  -0.0009278  -0.04694  -0.0304  -0.7519  0.2824
6.289e+09  -0.7208  -0.3695  0.0106  -0.0004533  0.01092  -0.07179  -0.621  0.4803
6.29e+09  -0.7873  -0.08322  -0.006531  0.00844  -0.02606  -0.0009352  -0.4013  0.6779
6.291e+09  -0.8371  0.2015  0.003204  -0.01658  0.007351  0.02259  -0.182  0.8118
6.292e+09  -0.7183  0.4965  -0.003376  0.01823  0.02028  0.005138  0.134  0.7661
6.294e+09  -0.473  0.6968  -0.02683  -0.01453  -0.003598  -0.03588  0.4294  0.7255
6.295e+09  -0.2492  0.844  0.002182  0.0281  0.02085  -0.02603  0.6033  0.5492
6.296e+09  0.07873  0.8046  0.00647  0.02814  -0.07025  0.003768  0.7701  0.2896
6.298e+09  0.4222  0.7781  0.02296  -0.0006921  -0.01586  0.005632  0.8331  -0.01499
6.299e+09  0.5531  0.6263  0.01632  -0.005355  0.01157  -0.02396  0.7931  -0.2459
6.3e+09  0.7553  0.3673  -0.004202  -0.01286  0.0575  -0.01743  0.644  -0.5083
6.301e+09  0.8736  0.05112  0.0442  -0.00584  -0.003382  -0.02855  0.4192  -0.7377
6.302e+09  0.7811  -0.197  0.03148  0.01863  0.02381  0.06094  0.1607  -0.8198
6.304e+09  0.6597  -0.477  -0.005294  0.007097  0.08078  -0.008811  -0.1553  -0.8342
6.305e+09  0.481  -0.6803  -0.005373  -0.002303  -0.04347  0.01512  -0.4175  -0.75
6.306e+09  0.2199  -0.835  0.003099  0.01104  0.05961  0.008512  -0.6504  -0.5453
6.308e+09  -0.0485  -0.7897  0.004356  0.009895  0.008735  0.02602  -0.7872  -0.2794
6.309e+09  -0.3855  -0.7709  0.001483  0.006928  -0.02478  -0.04804  -0.8238  0.02498
6.31e+09  -0.6399  -0.5759  0.03146  -0.02636  -0.02909  0.01251  -0.8282  0.3004
6.311e+09  -0.7773  -0.2865  -0.02404  0.002964  0.02116  -0.02317  -0.67  0.5545
6.312e+09  -0.8562  -0.04362  -0.01526  -0.01001  -0.02095  -0.03608  -0.4508  0.7509
6.314e+09  -0.7972  0.3077  0.02369  0.01184  0.005326  -0.044  -0.1597  0.828
6.315e+09  -0.6415  0.4975  0.002852  -0.001246  0.03226  -0.01723  0.1654  0.9086
6.316e+09  -0.4613  0.7441  0.003243  0.01379  -0.01015  0.003926  0.4239  0.7423
6.318e+09  -0.1618  0.8442  0.0008591  0.005077  -0.05961  -0.02818  0.6675  0.5803
6.319e+09  0.1403  0.8315  -0.02365  0.007058  0.01475  -0.0335  0.8076  0.342
6.32e+09  0.417  0.7135  0.03604  0.007016  -0.01226  -0.03199  0.9138  0.01785
6.321e+09  0.6648  0.5508  -0.01334  -0.008813  -0.001604  -0.02194  0.822  -0.2589
6.322e+09  0.8168  0.3365  -0.01356  -0.01838  -0.03352  0.01333  0.7065  -0.5691
6.324e+09  0.8734  0.001967  -0.02072  -0.0004709  0.008794  0.02343  0.4594  -0.7869
6.325e+09  0.7946  -0.3075  -0.02258  0.001728  -0.02504  -0.03815  0.1959  -0.8806
6.326e+09  0.6196  -0.597  -0.003454  0.01458  0.002127  -0.02984  -0.15  -0.8698
6.328e+09  0.3822  -0.7182  0.001866  -0.02991  -0.0524  0.04477  -0.4408  -0.8111
6.329e+09  0.1665  -0.8721  0.0002631  0.01294  0.02786  -0.002704  -0.6857  -0.5949
6.33e+09  -0.1998  -0.8382  0.01261  0.007305  0.002335  -0.01689  -0.8322  -0.3271
6.331e+09  -0.4597  -0.7395  -0.01957  0.01394  -0.01592  0.02403  -0.9105  -0.05165
6.332e+09  -0.7109  -0.523  -0.02415  -0.01761  0.003488  0.004459  -0.8816  0.2606
6.334e+09  -0.8624  -0.2452  0.004877  -0.01358  -0.005341  0.008064  -0.7277  0.5655
6.335e+09  -0.8791  0.0682  0.02821  -0.01276  -0.007593  0.01668  -0.4954  0.7909
6.336e+09  -0.8198  0.3874  -0.02716  0.02545  0.009692  0.001004  -0.1957  0.8849
6.338e+09  -0.5934  0.6032  -0.008439  -0.007112  0.01681  -0.0077  0.1244  0.8967
6.339e+09  -0.411  0.7923  -0.008951  -0.009189  -0.0005657  0.03166  0.4078  0.827
6.34e+09  -0.05286  0.9268  0.02139  0.005715  0.02313  -0.0257  0.687  0.6196
6.341e+09  0.2631  0.8517  -0.01042  0.009393  0.03135  0.01406  0.8425  0.3498
6.342e+09  0.4714  0.6668  0.01389  0.02462  0.0003542  0.01358  0.9213  0.04566
6.344e+09  0.7416  0.4949  0.01414  0.007147  -0.04188  0.006882  0.8967  -0.2734
6.345e+09  0.8478  0.1349  -0.007961  0.01274  -0.00424  -0.001281  0.7556  -0.5795
6.346e+09  0.8741  -0.1198  0.02708  0.01255  0.04065  0.003675  0.5254  -0.7738
6.348e+09  0.7816  -0.4119  0.02472  -0.002449  -0.05673  0.006768  0.231  -0.9228
6.349e+09  0.5982  -0.691  0.002954  0.01444  -0.01652  0.00162  -0.1041  -0.9444
6.35e+09  0.3041  -0.886  0.04499  0.01545  -0.004778  0.0393  -0.4198  -0.8156
6.351e+09  -0.02218  -0.8707  -0.002471  0.002987  -0.01466  0.03404  -0.6769  -0.622
6.352e+09  -0.3154  -0.8432  0.007057  -0.02579  0.02674  -0.01007  -0.8462  -0.3889
6.354e+09  -0.5626  -0.7014  -0.004085  0.0264  -0.01071  -0.01166  -0.9782  -0.07818
6.355e+09  -0.7607  -0.4261  -0.002286  -0.008828  0.04362  0.01576  -0.9016  0.2941
6.356e+09  -0.8222  -0.1231  -0.0006854  -0.005486  0.01372  -7.587e-05  -0.7368  0.542
6.358e+09  -0.853  0.2013  -0.02526  0.05054  -0.06968  0.02435  -0.5463  0.8113
6.359e+09  -0.7301  0.4878  -0.02643  -0.008599  -0.008283  -0.06451  -0.2339  0.9485
6.36e+09  -0.5356  0.7156  0.02118  0.007963  -0.06429  0.01259  0.102  0.8975
6.361e+09  -0.2311  0.8988  0.0292  0.02409  0.05251  0.01555  0.4431  0.8661
6.362e+09  0.03089  0.9001  -0.01232  0.0001493  0.0274  0.01249  0.7164  0.6654
6.364e+09  0.3538  0.8157  0.00957  0.01903  0.01273  -0.015  0.8734  0.3899
6.365e+09  0.6276  0.6576  0.05938  -0.02314  -0.0009599  -3.011e-06  0.952  0.04391
6.366e+09  0.777  0.3867  -0.01745  0.0003551  0.02153  0.03358  0.915  -0.2227
6.368e+09  0.9357  0.08749  0.003447  -0.009763  0.03502  -0.02274  0.7888  -0.5359
6.369e+09  0.9001  -0.2639  0.03959  -0.01882  -0.02558  0.01012  0.5231  -0.7656
6.37e+09  0.7145  -0.4792  0.01482  0.005815  0.02717  -0.06809  0.2698  -0.9235
6.371e+09  0.5196  -0.7322  -0.01155  -0.009253  0.03587  -0.02864  -0.04162  -0.9637
6.372e+09  0.2136  -0.906  0.01975  0.04412  -0.04982  -0.0251  -0.3655  -0.8432
6.374e+09  -0.0739  -0.8945  -0.05189  0.01606  -0.00934  -0.02665  -0.7273  -0.6762
6.375e+09  -0.4136  -0.8246  -0.02567  -0.009138  -0.01658  0.01625  -0.8884  -0.4055
6.376e+09  -0.6081  -0.6235  -9.866e-05  -0.0214  0.01486  0.01022  -0.9798  -0.0813
6.378e+09  -0.8211  -0.3729  0.0004158  -0.01298  0.05129  -0.02087  -0.9033  0.2503
6.379e+09  -0.8851  -0.06983  0.01172  -0.005624  0.02467  -0.008591  -0.7876  0.5365
6.38e+09  -0.8819  0.2622  -0.05212  0.02356  -0.06247  -0.03111  -0.5321  0.7263
6.381e+09  -0.7038  0.5614  0.00822  0.004717  -0.02902  0.03491  -0.2637  0.8734
6.382e+09  -0.4861  0.7984  0.007245  -0.0141  -0.0104  0.001657  0.1103  0.9525
6.384e+09  -0.26  0.868  0.007073  0.005772  0.02379  0.02654  0.3715  0.9047
6.385e+09  0.1124  0.9106  0.03302  -0.00349  0.02875  -0.002507  0.6323  0.6826
6.386e+09  0.4345  0.7685  0.02647  -0.01313  -0.02873  -0.04088  0.805  0.4536
6.388e+09  0.6827  0.5877  -0.01459  -0.02886  0.01109  0.002749  0.9109  0.08298
6.389e+09  0.8707  0.3359  -0.03332  0.01366  -0.01114  -0.01456  0.9056  -0.1665
6.39e+09  0.8852  -0.02615  -0.02524  -0.01847  -0.02721  -0.01194  0.739  -0.5511
6.391e+09  0.8485  -0.2458  0.01587  0.02066  0.02  0.02446  0.5849  -0.7956
6.392e+09  0.6837  -0.5628  0.02733  -0.05366  0.009838  0.006995  0.2772  -0.8503
6.394e+09  0.4265  -0.8199  -0.005137  -0.0402  0.01143  -0.03014  -0.0548  -0.8991
6.395e+09  0.1936  -0.9262  -0.0244  -0.03928  -0.0347  0.02773  -0.347  -0.8198
6.396e+09  -0.1653  -0.8983  -0.006107  -0.02525  -0.002227  0.003371  -0.609  -0.6608
6.398e+09  -0.4018  -0.7918  -0.03138  -0.01823  -0.05711  0.02196  -0.8103  -0.4258
6.399e+09  -0.6423  -0.5722  -0.004532  -0.03133  -0.003418  -0.01683  -0.8838  -0.1722
6.4e+09  -0.8577  -0.3081  -0.03912  0.03776  0.0169  -0.01516  -0.9234  0.1647
6.401e+09  -0.8708  -0.01081  -0.02431  -0.0086  0.002173  0.02557  -0.7764  0.4396
6.402e+09  -0.7788  0.3155  -0.001734  -0.01357  -0.03703  0.01182  -0.6117  0.7088
6.404e+09  -0.6562  0.5801  -0.002595  -0.0021  -0.02808  0.006094  -0.3108  0.8459
6.405e+09  -0.3992  0.8021  0.04668  0.03123  -0.03664  -0.0204  -0.02153  0.9148
6.406e+09  -0.09672  0.9056  0.03832  0.0008851  0.0126  -0.02143  0.3214  0.8935
6.408e+09  0.145  0.8956  -0.02608  -0.03218  0.01487  0.01684  0.5526  0.7373
6.409e+09  0.5148  0.7589  -0.007165  0.01598  -0.0159  -0.01353  0.761  0.4605
6.41e+09  0.6921  0.5173  0.0364  0.03915  0.01419  -0.01007  0.9203  0.1982
6.411e+09  0.8342  0.2485  0.01916  -0.04007  -0.04575  0.01741  0.9051  -0.1457
6.412e+09  0.8895  -0.01596  -0.003957  -0.04042  -0.03192  -0.03882  0.7958  -0.4261
6.414e+09  0.8099  -0.3283  0.004845  -0.01297  0.01281  0.00875  0.6068  -0.6861
6.415e+09  0.6089  -0.572  0.001501  0.04064  0.05842  0.01712  0.3569  -0.8488
6.416e+09  0.449  -0.8129  -0.02055  -0.01112  0.05077  -0.01353  0.01269  -0.888
6.418e+09  0.09778  -0.8951  0.009484  -0.003487  0.04216  -0.02034  -0.2402  -0.8808
6.419e+09  -0.1861  -0.8794  -0.01193  -0.02756  0.02355  0.03067  -0.5214  -0.7517
6.42e+09  -0.5202  -0.6822  0.02874  -0.03736  0.04466  -0.04023  -0.7234  -0.4647
6.421e+09  -0.7229  -0.5618  0.00733  0.01031  0.0406  -0.03549  -0.88  -0.1655
6.422e+09  -0.8564  -0.2575  0.02782  -0.001598  -0.06178  0.004063  -0.8608  0.1545
6.424e+09  -0.8903  0.02592  0.004687  0.02322  0.00633  -0.00933  -0.8127  0.42
6.425e+09  -0.8442  0.3151  -0.01512  0.0213  0.01605  -0.003711  -0.5858  0.6573
6.426e+09  -0.6344  0.661  -0.008017  -0.009168  0.04396  -0.002119  -0.3418  0.8204
6.428e+09  -0.4044  0.7752  0.04326  0.004436  -0.02719  0.03533  -0.04025  0.8422
6.429e+09  -0.08424  0.8548  -0.006116  0.03575  0.04457  0.03427  0.2197  0.8733
6.43e+09  0.2713  0.8586  -0.01342  -0.02463  -0.03271  0.005742  0.5185  0.7166
6.431e+09  0.4803  0.7855  -0.03738  -0.02611  -0.03883  -0.0198  0.7049  0.4776
6.432e+09  0.7202  0.5087  0.02818  -0.009392  0.01048  -0.0189  0.8228  0.1878
6.434e+09  0.8674  0.2418  0.0243  -0.009242  -0.009863  -0.04201  0.84  -0.06686
6.435e+09  0.8854  -0.04177  0.01611  -0.02904  -0.03973  0.01517  0.7639  -0.3378
6.436e+09  0.8195  -0.3436  0.02741  -0.007474  0.005479  -0.02589  0.5981  -0.5889
6.438e+09  0.6157  -0.6365  -0.008949  0.007079  0.01682  -0.01207  0.3508  -0.7845
6.439e+09  0.3724  -0.8244  -0.03602  -0.02881  0.02386  -0.01228  0.07703  -0.8485
6.44e+09  0.07648  -0.8744  0.01431  0.01321  0.01856  0.01723  -0.2194  -0.8121
6.441e+09  -0.212  -0.8566  -0.006088  -0.03873  0.02736  -0.02401  -0.525  -0.7093
6.442e+09  -0.4947  -0.7281  -0.01983  0.05402  0.03326  0.03244  -0.7104  -0.4708
6.444e+09  -0.6844  -0.5349  -0.009238  -0.00346  -0.01545  0.002784  -0.8316  -0.2566
6.445e+09  -0.9126  -0.1995  0.0005116  -0.06536  -0.009079  0.01266  -0.9076  0.07874
6.446e+09  -0.9118  0.1502  0.01747  0.01177  0.01803  0.02925  -0.8195  0.3218
6.448e+09  -0.8174  0.3353  0.0006575  -0.01553  0.03742  -0.02574  -0.6233  0.5801
6.449e+09  -0.6354  0.6269  -0.04406  0.00338  -0.04209  -0.0005621  -0.2926  0.7753
6.45e+09  -0.3265  0.8257  0.0325  -0.005966  -0.006542  -0.02712  -0.122  0.8494
6.451e+09  -0.0782  0.9058  0.01834  -0.03298  0.01981  0.04037  0.2397  0.7885
6.452e+09  0.224  0.88  -0.00406  -0.007197  -0.0401  -0.04482  0.5281  0.6384
6.454e+09  0.5356  0.7772  0.00154  0.01882  0.01975  0.0005953  0.7145  0.481
6.455e+09  0.7858  0.5635  0.02037  -0.03145  -0.04134  -5.157e-06  0.774  0.2471
6.456e+09  0.8462  0.224  -0.007902  0.03812  0.006414  -0.008445  0.815  -0.07469
6.458e+09  0.8783  -0.08567  0.0391  -0.04455  -0.009604  -0.02976  0.7403  -0.3839
6.459e+09  0.8256  -0.4529  -0.02678  0.03316  -0.02341  -0.02056  0.5835  -0.6026
6.46e+09  0.5728  -0.6171  -0.02413  -0.06773  -0.04992  -0.0422  0.3608  -0.7804
6.461e+09  0.383  -0.7981  0.01344  0.02505  -0.01599  -0.01655  0.06654  -0.8081
6.462e+09  0.05755  -0.9507  -0.05668  0.01981  0.01535  0.006815  -0.2172  -0.7987
6.464e+09  -0.2179  -0.8826  0.01151  -0.02019  0.02762  -0.001244  -0.4985  -0.6208
6.465e+09  -0.5318  -0.6952  0.01845  0.03454  -0.005991  -0.02054  -0.6786  -0.4673
6.466e+09  -0.7742  -0.523  -0.02334  -0.00372  -0.04706  0.009357  -0.7746  -0.2067
6.468e+09  -0.8915  -0.2389  -0.005589  -0.02072  -0.01794  0.004162  -0.8149  0.09663
6.469e+09  -0.8725  0.1097  0.006304  0.0003458  0.01586  0.02858  -0.7177  0.3113
6.47e+09  -0.8359  0.4152  -0.02208  0.01076  0.009955  -0.01912  -0.5282  0.5311
6.471e+09  -0.6011  0.6734  0.001379  0.01507  -0.004498  0.02213  -0.3452  0.7611
6.472e+09  -0.3138  0.8255  -0.001527  0.03158  0.009953  0.007048  -0.01852  0.8174
6.474e+09  -0.08419  0.9475  0.02592  0.009514  -0.0241  -0.01432  0.2141  0.764
6.475e+09  0.2477  0.8633  0.02179  -0.0006409  0.0171  -0.005324  0.4654  0.6459
6.476e+09  0.5701  0.7529  -0.04547  -0.01936  0.02583  -0.008776  0.6577  0.4475
6.478e+09  0.7279  0.4712  -0.01141  -0.01599  -0.04098  0.01245  0.7837  0.2125
6.479e+09  0.9267  0.2015  0.01079  0.01759  0.002688  0.02061  0.8034  -0.02507
6.48e+09  0.8907  -0.1186  0.0297  -0.01539  0.03304  0.04971  0.7844  -0.3253
6.481e+09  0.8252  -0.4518  0.02938  0.02588  -0.01359  0.003621  0.5437  -0.5519
6.482e+09  0.6233  -0.6521  -0.01629  0.01827  0.01796  -0.02389  0.3012  -0.7183
6.484e+09  0.3454  -0.9033  -0.02176  -0.03795  0.03116  -0.03221  0.07176  -0.7598
6.485e+09  -0.01137  -0.939  -0.05055  0.01499  -0.04354  -0.02257  -0.2523  -0.7785
6.486e+09  -0.2745  -0.895  0.0329  0.01599  -0.02977  0.007083  -0.435  -0.6496
6.488e+09  -0.5648  -0.7255  0.0141  -0.008064  0.009666  0.003985  -0.623  -0.4457
6.489e+09  -0.8316  -0.5018  -0.003189  -0.03186  -0.01158  -0.03997  -0.7744  -0.1747
6.49e+09  -0.8741  -0.1404  -0.01469  -0.01142  0.0137  0.008024  -0.7542  0.1192
6.491e+09  -0.9072  0.1187  0.003481  0.002683  0.00525  -0.01665  -0.661  0.3575
6.492e+09  -0.8371  0.4814  -0.01995  0.01717  0.008625  -0.01186  -0.5463  0.5645
6.494e+09  -0.592  0.7303  0.02096  0.003353  -0.0138  -0.04152  -0.3407  0.7015
6.495e+09  -0.2836  0.8662  -0.02243  -0.02598  -0.007137  0.0361  -0.06193  0.7466
6.496e+09  -0.006252  0.9442  0.02137  0.01026  0.01444  -0.03064  0.2462  0.7185
6.498e+09  0.3241  0.8927  -0.03461  -0.01178  0.01272  0.01801  0.4814  0.6189
6.499e+09  0.6175  0.7544  -0.02853  0.006945  0.0003385  0.04456  0.6289  0.4205
6.5e+09  0.844  0.3833  -0.02707  0.01036  0.02184  -0.01103  0.7588  0.1754
6.501e+09  0.9411  0.1071  0.0205  -0.02045  -0.005957  -0.02395  0.7293  -0.1103
6.502e+09  0.9267  -0.2024  -0.02522  -0.0333  0.01306  -0.04008  0.6653  -0.3359
6.504e+09  0.7749  -0.4818  -0.01834  -0.027  0.005022  -0.0007101  0.5219  -0.5969
6.505e+09  0.6009  -0.7945  -0.03034  0.03454  0.03242  -0.02473  0.3103  -0.7103
6.506e+09  0.2924  -0.93  -0.00747  0.0253  -0.0182  0.02017  -0.01559  -0.7668
6.508e+09  -0.034  -0.9848  0.0263  0.06706  -0.03259  0.01942  -0.2461  -0.6885
6.509e+09  -0.3378  -0.8852  0.002389  -0.02014  0.005624  0.006791  -0.4751  -0.5827
6.51e+09  -0.6443  -0.7009  0.01691  -0.01363  0.03662  0.06332  -0.6537  -0.3915
6.511e+09  -0.8454  -0.4174  -0.03213  0.01805  0.009731  0.002886  -0.7367  -0.1102
6.512e+09  -0.9371  -0.0951  -0.04442  0.04238  -0.0344  0.01196  -0.721  0.1479
6.514e+09  -0.9467  0.2322  0.01378  0.01264  -0.01064  0.007566  -0.6293  0.3587
6.515e+09  -0.7851  0.5134  0.00299  -0.03958  -0.06935  0.001871  -0.4661  0.5926
6.516e+09  -0.5858  0.8133  -0.009886  -0.01985  0.001034  0.04554  -0.2712  0.7437
6.518e+09  -0.2007  0.916  0.001  0.004739  0.002329  0.01068  0.001901  0.7599
6.519e+09  0.139  1.031  0.01898  0.01695  -0.01406  -0.02945  0.2892  0.6841
6.52e+09  0.4478  0.8796  -5.327e-05  -0.04725  -0.002691  -0.0257  0.5031  0.5653
6.521e+09  0.7247  0.6378  0.03969  0.02573  0.003724  0.02025  0.6689  0.323
6.522e+09  0.9111  0.3301  -0.0394  -0.0319  -0.04964  -0.03058  0.7331  0.1171
6.524e+09  0.9732  0.03591  0.02411  0.0002475  -0.02504  0.004457  0.7488  -0.1725
6.525e+09  0.9358  -0.3038  0.01845  -0.03163  0.0123  0.01497  0.6145  -0.418
6.526e+09  0.7177  -0.5795  0.0216  -0.03011  -0.01337  0.006798  0.4245  -0.5888
6.528e+09  0.5454  -0.8294  -0.00269  -0.0005475  -0.01292  -0.01523  0.2037  -0.6872
6.529e+09  0.1631  -0.9666  -0.01554  0.0213  0.04511  -0.01792  -0.04157  -0.7072
6.53e+09  -0.1825  -0.9484  -0.02355  -0.02796  -0.04043  0.01389  -0.2613  -0.6374
6.531e+09  -0.5542  -0.8183  -0.002677  -0.005282  -0.0612  -0.02972  -0.4902  -0.473
6.532e+09  -0.7372  -0.6055  0.01106  -0.01427  0.03172  -0.02206  -0.6241  -0.3055
6.534e+09  -0.8849  -0.3458  0.02727  -0.01418  -0.04125  0.01989  -0.6078  -0.08644
6.535e+09  -0.9837  0.02647  0.01267  0.01635  -0.008595  0.003896  -0.6439  0.1022
6.536e+09  -0.9165  0.3733  -0.02543  0.0248  0.029  0.01076  -0.5848  0.3184
6.538e+09  -0.7819  0.6056  -0.03734  0.01493  -0.06825  -0.004708  -0.4932  0.5
6.539e+09  -0.441  0.9042  0.008578  0.01366  0.04148  0.01012  -0.2542  0.6387
6.54e+09  -0.1504  0.9978  0.03023  -0.004877  -0.0775  0.02723  -0.09812  0.6755
6.541e+09  0.2119  1.017  -0.02708  -0.02001  -0.01644  -0.08827  0.1594  0.6859
6.542e+09  0.5249  0.8123  0.01579  -0.007827  -0.005274  0.02423  0.3873  0.5621
6.544e+09  0.8262  0.5449  -0.01086  0.01689  -0.006215  0.04  0.5784  0.4218
6.545e+09  0.8979  0.2378  0.005114  -0.005304  -0.07254  0.009594  0.7251  0.1937
6.546e+09  1.011  -0.09331  0.003406  0.01587  -0.06975  -0.001677  0.7398  -0.07529
6.548e+09  0.8312  -0.4576  0.009741  -0.02659  -0.02343  0.01958  0.6321  -0.3124
6.549e+09  0.6728  -0.6667  -0.01199  0.003394  -0.001056  0.01312  0.5274  -0.5077
6.55e+09  0.4099  -0.8941  0.005351  -0.009662  -0.02354  0.04413  0.2885  -0.6783
