# Hz S RI R 50
6.25e+09  -0.3494  0.7513  -0.012  0.002386  -0.09992  0.003967  0.1893  0.5112
6.251e+09  -0.03099  0.8227  -0.01748  -0.005648  -0.04066  -0.002065  0.3977  0.4142
6.252e+09  0.3446  0.8618  -0.02621  -0.007326  -0.01666  0.07091  0.5164  0.2358
6.254e+09  0.5464  0.6948  -0.02961  -0.01183  0.009509  0.04036  0.5885  0.0112
6.255e+09  0.7233  0.4482  0.00445  0.01321  0.03468  0.005033  0.5882  -0.2327
6.256e+09  0.8498  0.1264  0.01198  0.02787  -0.02631  -0.005564  0.4533  -0.4712
6.258e+09  0.8837  -0.09913  -0.01216  -0.003053  0.04765  -0.02718  0.2652  -0.5932
6.259e+09  0.7509  -0.3369  0.01439  -0.004649  -0.02636  -0.002064  0.03905  -0.6869
6.26e+09  0.5427  -0.6293  0.01322  0.01692  0.02236  0.01862  -0.2137  -0.6802
6.261e+09  0.3611  -0.814  0.0007117  0.02234  0.03035  -0.008457  -0.4337  -0.5348
6.262e+09  -0.03116  -0.8386  -0.04426  -0.02005  0.003463  0.004473  -0.6271  -0.3339
6.264e+09  -0.297  -0.8267  -0.008376  0.03896  -0.04362  -0.04856  -0.7385  -0.1245
6.265e+09  -0.4968  -0.6077  0.00518  0.01528  0.04501  -0.009312  -0.6847  0.1462
6.266e+09  -0.727  -0.4375  -0.02737  0.00679  -0.06248  0.01944  -0.6328  0.4009
6.268e+09  -0.8462  -0.1283  0.03922  -0.01629  -0.006643  -0.01661  -0.4471  0.603
6.269e+09  -0.8092  0.1289  -0.03695  0.00622  0.004403  0.03756  -0.1839  0.7385
6.27e+09  -0.7285  0.3963  -0.01734  0.006002  -0.002854  0.01173  0.08389  0.7208
6.271e+09  -0.5541  0.6023  0.01248  0.02337  -0.01686  -0.01482  0.3451  0.6774
6.272e+09  -0.332  0.7831  -0.01076  0.01674  -0.04615  -0.000137  0.5649  0.5259
6.274e+09  0.0163  0.8371  0.02332  0.003757  -0.0123  0.02168  0.6609  0.3036
6.275e+09  0.2808  0.8019  0.001125  0.0149  0.004151  0.01339  0.7411  0.028
6.276e+09  0.4873  0.6303  0.001723  0.000741  -0.01876  -0.01377  0.7423  -0.2252
6.278e+09  0.7837  0.4578  -0.01809  0.006713  0.05707  0.03775  0.6095  -0.4734
6.279e+09  0.8171  0.1432  -0.02382  -0.01876  0.0638  0.04657  0.4355  -0.6682
6.28e+09  0.8065  -0.1021  -0.03175  -0.008267  0.064  -0.01554  0.131  -0.7801
6.281e+09  0.7582  -0.4494  0.0163  -0.01464  -0.01117  0.03661  -0.1144  -0.7776
6.282e+09  0.5015  -0.5688  0.0344  0.005369  -0.007026  0.02309  -0.3647  -0.6963
6.284e+09  0.2974  -0.7772  0.002355  0.03118  0.03132  -0.02541  -0.5904  -0.5442
6.285e+09  0.006033  -0.8524  -0.005863  -0.01898  -0.04001  0.001797  -0.7528  -0.273
6.286e+09  -0.3383  -0.8311  0.004865  0.03164  -0.002202  0.01268  -0.81  -0.01256
6.288e+09  -0.6036  -0.6374  0.002293  0.008363  -0.03146  -0.02032  -0.7701  0.2687
6.289e+09  -0.7064  -0.4302  0.006273  0.02171  -0.009042  0.01047  -0.6458  0.4707
6.29e+09  -0.8065  -0.1026  -0.00225  0.0107  -0.005498  -0.004197  -0.4065  0.6718
6.291e+09  -0.8169  0.1911  0.03687  0.0005441  -0.0176  0.01077  -0.1506  0.8042
6.292e+09  -0.7359  0.3848  0.009668  -0.0083  -0.00662  -0.0238  0.1478  0.7772
6.294e+09  -0.5315  0.6534  0.008025  -0.01696  -0.03475  0.02548  0.3899  0.7268
6.295e+09  -0.2796  0.8171  0.02538  -0.02201  0.004294  -0.03808  0.6399  0.5198
6.296e+09  0.05991  0.7904  0.002132  -0.003983  -0.02318  -0.01198  0.7741  0.2882
6.298e+09  0.3509  0.8141  -0.01763  -0.003073  0.008514  -0.01841  0.835  -0.006446
6.299e+09  0.6451  0.6255  -0.008237  -0.01288  0.05922  -0.005873  0.7773  -0.3122
6.3e+09  0.7815  0.374  0.03726  -0.03119  -0.01194  0.004054  0.687  -0.5054
6.301e+09  0.8575  0.1429  0.01756  -0.02143  -0.0375  -0.005413  0.4664  -0.7327
6.302e+09  0.8246  -0.1703  -0.00748  0.008312  -0.02549  0.01973  0.157  -0.8459
6.304e+09  0.7449  -0.4306  -0.009927  0.0136  -0.04007  0.03917  -0.1561  -0.8348
6.305e+09  0.4825  -0.6765  -0.01989  -0.03062  -0.0661  0.0264  -0.4263  -0.71
6.306e+09  0.2226  -0.8201  -0.005817  -0.03109  0.05846  0.01171  -0.6281  -0.5902
6.308e+09  -0.03239  -0.865  0.04131  0.003643  -0.01145  0.006447  -0.78  -0.2788
6.309e+09  -0.3859  -0.7489  -0.007251  -0.01468  0.05653  -0.023  -0.8663  0.007353
6.31e+09  -0.6472  -0.5708  -0.02935  -0.01863  0.02525  -0.0177  -0.8138  0.2683
6.311e+09  -0.7829  -0.3086  -0.002317  0.005011  -0.03383  -0.01261  -0.6679  0.5316
6.312e+09  -0.8249  -0.00668  0.006707  -0.02538  0.01505  -0.003277  -0.4391  0.7649
6.314e+09  -0.8223  0.252  0.02301  0.02455  -0.03057  -0.01518  -0.1801  0.8617
6.315e+09  -0.7182  0.4794  0.03342  -0.006488  -0.003475  0.02955  0.1505  0.8667
6.316e+09  -0.4565  0.7168  0.01463  0.03104  -0.004914  -0.03349  0.4491  0.7591
6.318e+09  -0.2174  0.8143  0.01633  -0.04039  0.01035  0.006111  0.6759  0.5842
6.319e+09  0.1368  0.8773  0.006918  -0.0389  -0.05116  0.07848  0.8458  0.3129
6.32e+09  0.41  0.7424  0.0341  0.00158  -0.04802  0.00543  0.8859  -0.01171
6.321e+09  0.6049  0.5646  0.02047  0.01293  -0.02103  -0.05548  0.8829  -0.2994
6.322e+09  0.795  0.3123  0.009468  -0.01077  0.0211  -0.0255  0.6927  -0.5265
6.324e+09  0.8978  0.03252  -0.03668  0.0136  -0.03511  -0.08735  0.4586  -0.7523
6.325e+09  0.8225  -0.2897  -0.02428  0.004574  -0.02184  0.03953  0.1719  -0.8919
6.326e+09  0.6836  -0.5606  0.001856  -0.002009  0.005367  -0.0491  -0.1438  -0.8703
6.328e+09  0.4352  -0.7573  0.02898  0.02924  -0.02075  0.0131  -0.4052  -0.7889
6.329e+09  0.182  -0.8446  0.004519  0.02667  0.01101  -0.002448  -0.6843  -0.6049
6.33e+09  -0.1211  -0.8703  -0.0227  -0.000191  0.02546  0.004248  -0.851  -0.3281
6.331e+09  -0.454  -0.7681  -0.02535  -0.06105  -0.01566  -0.01834  -0.8934  -0.03661
6.332e+09  -0.6712  -0.5552  0.0001677  0.002188  -0.01331  0.0003703  -0.8571  0.2844
6.334e+09  -0.8081  -0.2499  0.02937  -0.03026  -0.0004896  0.03435  -0.7423  0.5338
6.335e+09  -0.8489  0.03531  0.0007574  0.003205  -0.02464  0.006876  -0.4535  0.7818
6.336e+09  -0.8332  0.3676  -0.02979  -0.02766  0.01692  -0.04395  -0.1868  0.897
6.338e+09  -0.611  0.6125  0.008893  0.006713  -0.01676  0.04033  0.1024  0.9129
6.339e+09  -0.411  0.7513  -0.01478  0.0003431  0.03885  -0.02174  0.4157  0.8009
6.34e+09  -0.1312  0.8567  0.04042  0.0003086  -0.04837  0.02299  0.704  0.6491
6.341e+09  0.1892  0.8884  -0.001466  -0.001714  0.03987  0.03849  0.8679  0.3653
6.342e+09  0.4827  0.7254  0.01083  0.001994  -0.005208  0.0307  0.9252  0.02385
6.344e+09  0.7308  0.5359  0.003892  0.0288  0.0196  0.0414  0.9106  -0.2545
6.345e+09  0.8617  0.2479  -0.01529  0.01682  -0.01503  -0.008387  0.7552  -0.5657
6.346e+09  0.8812  -0.06714  -0.007966  0.008297  0.02189  0.06359  0.5054  -0.8012
6.348e+09  0.8264  -0.3919  -0.01245  0.008755  0.02491  0.00967  0.2263  -0.9223
6.349e+09  0.5926  -0.6773  -0.03625  0.04079  0.01149  0.04077  -0.09644  -0.9469
6.35e+09  0.4068  -0.7944  0.0211  -0.02791  0.006605  0.01876  -0.4495  -0.8805
6.351e+09  0.08926  -0.8907  -0.02845  -0.0269  0.002068  0.04312  -0.7208  -0.6336
6.352e+09  -0.2624  -0.8542  0.009333  -0.007335  -0.02782  -0.02747  -0.8629  -0.3604
6.354e+09  -0.5242  -0.6939  0.001522  0.00936  0.01804  0.03396  -0.9521  -0.089
6.355e+09  -0.7536  -0.4766  0.02049  0.0178  0.008342  0.005684  -0.9024  0.2758
6.356e+09  -0.9367  -0.1646  -0.007453  0.0133  -0.02955  0.02337  -0.7743  0.5299
6.358e+09  -0.8071  0.1358  0.0001585  0.008556  0.02507  0.03553  -0.5286  0.7949
6.359e+09  -0.7643  0.442  -0.003777  -0.01545  -0.01228  -0.003002  -0.2382  0.9436
6.36e+09  -0.5947  0.6866  -0.005577  0.001157  -0.03287  0.02082  0.08659  0.9458
6.361e+09  -0.28  0.8659  -0.02081  0.01242  0.01052  -0.0001697  0.4044  0.8548
6.362e+09  0.02944  0.8213  0.02692  -0.07041  -0.002527  0.00251  0.6801  0.6149
6.364e+09  0.3236  0.8373  -0.01524  0.007991  -0.002132  0.009355  0.8737  0.3803
6.365e+09  0.5896  0.702  0.01018  0.008639  -0.02547  -0.03668  0.9411  0.1049
6.366e+09  0.7666  0.4937  -0.03348  0.0008948  -0.0486  0.00102  0.9088  -0.2447
6.368e+09  0.8868  0.1364  0.01269  0.03422  -0.0009579  0.08338  0.7912  -0.4951
6.369e+09  0.871  -0.1894  -0.02131  0.005325  0.04324  -0.01657  0.5165  -0.7766
6.37e+09  0.7591  -0.4934  0.00757  -0.043  -0.07926  0.04849  0.2561  -0.8987
6.371e+09  0.5278  -0.7176  0.008607  0.05126  0.03485  0.02251  -0.04125  -0.9567
6.372e+09  0.2566  -0.8311  0.005991  -0.0136  0.008016  -0.02527  -0.402  -0.8367
6.374e+09  -0.07583  -0.8668  0.03292  0.005529  0.0005886  0.001401  -0.6587  -0.6885
6.375e+09  -0.3624  -0.7785  0.01071  0.002534  -0.005906  0.002889  -0.8415  -0.4171
6.376e+09  -0.6554  -0.7094  -0.02638  -0.01091  -0.03694  -0.0126  -0.9676  -0.09513
6.378e+09  -0.8548  -0.3628  0.008174  0.008731  -0.007561  0.02589  -0.931  0.2593
6.379e+09  -0.9303  -0.0807  0.0006314  0.03164  -0.005823  0.005103  -0.7794  0.542
6.38e+09  -0.8507  0.2058  0.03889  0.02135  0.02019  -0.05391  -0.5558  0.753
6.381e+09  -0.7102  0.5076  0.03392  0.008877  0.04835  0.002626  -0.2487  0.9008
6.382e+09  -0.4869  0.7652  -0.01003  -0.003817  0.01291  0.01339  0.03174  0.9316
6.384e+09  -0.2062  0.8737  0.02722  0.01395  0.03534  0.01752  0.35  0.884
6.385e+09  0.1392  0.8616  -0.03156  0.04339  0.01096  -0.01997  0.6305  0.7139
6.386e+09  0.3863  0.808  -0.004782  0.04507  0.01568  0.008168  0.8023  0.3879
6.388e+09  0.6793  0.565  -0.03271  0.004312  -0.01687  0.0072  0.9384  0.1095
6.389e+09  0.8351  0.3564  0.01844  -0.01432  -0.03634  -0.01925  0.9467  -0.2259
6.39e+09  0.9097  0.02791  0.007731  -0.03607  0.01432  0.003089  0.7753  -0.4748
6.391e+09  0.8411  -0.3241  0.00065  -0.02648  0.004074  0.0004469  0.5583  -0.7708
6.392e+09  0.7112  -0.5448  0.01245  -0.01042  -0.03992  -0.01287  0.2809  -0.8651
6.394e+09  0.5311  -0.7758  0.0461  -0.01194  -0.0359  -0.064  -0.03052  -0.872
6.395e+09  0.1829  -0.9096  -0.01238  0.03856  -0.007434  -0.003636  -0.3584  -0.8607
6.396e+09  -0.1719  -0.8903  -0.01351  0.0235  -0.03993  -0.01976  -0.6269  -0.7097
6.398e+09  -0.4198  -0.7865  0.00581  -0.001084  -0.001608  0.01604  -0.7942  -0.459
6.399e+09  -0.6811  -0.5906  0.02659  -0.02793  -0.02169  -0.008864  -0.9066  -0.1446
6.4e+09  -0.8512  -0.3475  0.02726  -0.003317  0.004653  -0.005053  -0.9365  0.1949
6.401e+09  -0.9289  -0.05681  0.02645  -0.002352  -0.003555  -0.02153  -0.7645  0.4566
6.402e+09  -0.8549  0.3066  -0.02027  0.001563  0.04168  0.02176  -0.6119  0.7216
6.404e+09  -0.6836  0.5552  0.02983  -0.03883  0.03404  -0.04288  -0.3281  0.8628
6.405e+09  -0.4307  0.7701  0.03544  0.01408  -0.02041  0.01328  0.02551  0.9364
6.406e+09  -0.2419  0.8433  0.002166  0.0227  -0.009689  0.0138  0.2829  0.8672
6.408e+09  0.1275  0.8409  0.01425  -0.02068  0.0285  -0.02269  0.6191  0.7317
6.409e+09  0.4655  0.775  0.01793  0.02474  -0.02127  -0.03398  0.7983  0.402
6.41e+09  0.6978  0.5599  -0.05868  0.02984  -0.004605  0.02323  0.8756  0.1627
6.411e+09  0.8696  0.3042  0.01523  -0.04745  0.004012  0.02172  0.9326  -0.1861
6.412e+09  0.8816  0.008423  0.002768  -0.01076  -0.0236  0.01024  0.8385  -0.4338
6.414e+09  0.8322  -0.3075  0.02389  -0.02345  -0.006734  0.005444  0.6447  -0.6763
6.415e+09  0.6508  -0.5875  -0.05931  -0.01151  0.002342  -0.01819  0.3316  -0.8575
6.416e+09  0.4147  -0.8025  0.0176  -0.02469  0.04168  0.03582  0.003409  -0.8746
6.418e+09  0.1234  -0.841  0.00202  0.018  -0.02568  -0.009787  -0.2989  -0.878
6.419e+09  -0.1689  -0.8807  0.02553  0.002853  -0.005837  0.03479  -0.5507  -0.6697
6.42e+09  -0.4386  -0.7506  0.007373  0.03338  -0.01638  0.06343  -0.7648  -0.4516
6.421e+09  -0.6899  -0.567  0.02214  -0.01195  0.00377  -0.03325  -0.8827  -0.2044
6.422e+09  -0.8357  -0.3045  0.02903  -0.008582  -0.03069  -0.02197  -0.8842  0.1246
6.424e+09  -0.8841  0.05852  0.0233  -0.01217  -0.02481  -0.03351  -0.7702  0.4222
6.425e+09  -0.8448  0.3561  -0.007612  -0.05456  0.03866  -0.05739  -0.5874  0.6413
6.426e+09  -0.6812  0.5792  -0.02781  0.03082  0.02491  0.004995  -0.3474  0.8099
6.428e+09  -0.3915  0.7932  -0.01006  -0.0007962  0.0002747  0.04353  -0.05183  0.9099
6.429e+09  -0.07775  0.8995  0.01202  -0.02814  -0.0192  0.03447  0.2112  0.7995
6.43e+09  0.1947  0.9242  -0.00393  0.003408  0.02929  0.004632  0.4938  0.6713
6.431e+09  0.4644  0.7562  -0.02275  -0.01273  -0.01969  -0.00106  0.747  0.4583
6.432e+09  0.7075  0.503  -0.004646  0.05133  0.0008674  -0.01019  0.8729  0.2131
6.434e+09  0.8333  0.2671  -0.02494  -0.02026  -0.002991  0.01456  0.8909  -0.1076
6.435e+09  0.9056  -0.01358  0.01513  -0.009163  0.02033  -0.0006644  0.7616  -0.3977
6.436e+09  0.843  -0.2614  0.03684  0.01235  0.03566  -0.01712  0.6121  -0.6262
6.438e+09  0.651  -0.6156  -0.04818  0.01067  -0.01496  0.01699  0.3449  -0.7536
6.439e+09  0.385  -0.798  -0.01205  0.03574  0.02741  0.001911  0.06656  -0.8547
6.44e+09  0.1442  -0.9101  -0.01704  0.003511  0.005155  0.03985  -0.2434  -0.8413
6.441e+09  -0.2302  -0.9247  0.04267  0.007387  -0.02413  0.007103  -0.5124  -0.6448
6.442e+09  -0.5492  -0.7309  0.01589  0.03506  -0.05905  0.005775  -0.7078  -0.5059
6.444e+09  -0.7209  -0.5296  -0.02546  0.02416  0.04793  -0.007939  -0.8177  -0.2023
6.445e+09  -0.9171  -0.2826  0.01014  0.00593  -0.05805  -0.0407  -0.8448  0.08801
6.446e+09  -0.9132  0.03432  -0.06101  0.02851  0.004122  -0.05049  -0.7318  0.4059
6.448e+09  -0.7883  0.2903  -0.02301  -0.006752  0.009777  -0.04927  -0.5645  0.6204
6.449e+09  -0.7116  0.5603  0.002234  -0.02181  0.008503  0.01069  -0.3597  0.7676
6.45e+09  -0.4095  0.8375  -0.02461  -0.0151  -0.006001  -0.02703  -0.04995  0.8393
6.451e+09  -0.09776  0.8698  -0.04004  0.0322  -0.006431  -0.01677  0.1823  0.8326
6.452e+09  0.2016  0.8564  0.001723  0.04502  0.01073  0.002198  0.4684  0.6836
6.454e+09  0.4692  0.7699  -0.02068  0.002601  -0.002161  -0.02789  0.6304  0.4717
6.455e+09  0.6817  0.5287  -0.006083  0.02013  -0.004977  -0.03335  0.8377  0.1728
6.456e+09  0.8739  0.317  -0.02848  0.03828  -0.03379  0.009015  0.8581  -0.05579
6.458e+09  0.9385  -0.05387  0.01047  0.00899  -0.0257  -0.01783  0.7645  -0.3617
6.459e+09  0.7749  -0.3933  0.02287  -0.002413  -0.0267  -0.02652  0.5815  -0.5557
6.46e+09  0.6752  -0.6258  -0.01753  0.05315  -0.02052  -0.0353  0.298  -0.7393
6.461e+09  0.3746  -0.8232  0.03158  -0.02939  0.01301  0.01082  0.07556  -0.8246
6.462e+09  0.07958  -0.8391  0.005082  0.002011  0.02091  0.03636  -0.186  -0.8069
6.464e+09  -0.2249  -0.8682  -0.05297  0.01033  0.03384  -0.03287  -0.4601  -0.6342
6.465e+09  -0.5473  -0.7817  -0.04032  0.02314  -0.02112  0.008827  -0.6668  -0.4446
6.466e+09  -0.7454  -0.5034  0.003726  -0.0088  0.05225  -0.002284  -0.8208  -0.1758
6.468e+09  -0.9  -0.2333  0.03551  -0.003962  -0.06342  0.01543  -0.8156  0.05851
6.469e+09  -0.8757  0.09134  0.0351  -0.00361  -0.005794  0.04735  -0.6899  0.3558
6.47e+09  -0.8842  0.3437  0.01297  -0.006405  0.002574  0.004334  -0.5223  0.5709
6.471e+09  -0.6721  0.6146  0.01965  0.02532  -0.05734  -0.01387  -0.3241  0.6818
6.472e+09  -0.3749  0.8419  0.02986  0.007897  -0.01723  -0.0206  -0.06672  0.8018
6.474e+09  -0.139  0.9006  0.02881  -0.01158  0.032  0.004147  0.1808  0.7661
6.475e+09  0.26  0.8678  -0.04127  -0.0002349  -0.04337  0.007681  0.4422  0.6451
6.476e+09  0.5177  0.7602  -0.008115  0.007847  0.01008  0.009982  0.6641  0.4976
6.478e+09  0.7236  0.5115  0.00463  0.009887  -0.04  0.01045  0.7644  0.1926
6.479e+09  0.9254  0.2045  0.0002243  0.005657  -0.03848  0.01471  0.74  -0.06087
6.48e+09  0.8952  -0.0514  0.02216  -0.01548  -0.05144  -0.05959  0.7098  -0.3202
6.481e+09  0.8394  -0.4009  0.04762  -0.02803  -0.005833  -0.03793  0.5267  -0.5873
6.482e+09  0.6579  -0.6616  0.01885  -0.02789  -0.01188  -0.05012  0.3232  -0.7448
6.484e+09  0.366  -0.8215  -0.02081  -0.01157  -0.00822  0.03921  0.06153  -0.7532
6.485e+09  0.06572  -0.8949  0.02057  -0.007272  -0.003239  0.01903  -0.2149  -0.7016
6.486e+09  -0.2519  -0.8723  -0.009605  -0.03368  -0.02408  0.04824  -0.4407  -0.583
6.488e+09  -0.5587  -0.7757  -0.01578  0.00566  0.009657  -0.009047  -0.629  -0.3711
6.489e+09  -0.7637  -0.5431  -0.012  0.005516  -0.01234  0.007134  -0.7356  -0.1721
6.49e+09  -0.874  -0.1419  0.004952  -0.03444  0.04574  -0.02189  -0.809  0.04993
6.491e+09  -0.9481  0.1267  -0.02845  -0.001524  0.02897  -0.04161  -0.6971  0.349
6.492e+09  -0.8596  0.41  -0.01113  0.01682  -0.005301  -0.004668  -0.5383  0.5282
6.494e+09  -0.6805  0.7205  -0.01838  0.02295  0.01339  0.02322  -0.2525  0.7132
6.495e+09  -0.4229  0.8949  0.01828  -0.008884  0.04774  -0.02028  -0.01962  0.7875
6.496e+09  0.004865  0.9355  0.008664  -0.02125  0.04505  0.02051  0.2376  0.782
6.498e+09  0.2845  0.8518  -0.02596  -0.01778  -0.05431  -0.05897  0.4615  0.6159
6.499e+09  0.6394  0.7439  -0.0003832  0.004305  -0.01707  -0.002266  0.6723  0.4041
6.5e+09  0.8087  0.5091  0.004805  0.02241  -0.0166  -0.03048  0.7117  0.1691
6.501e+09  0.9059  0.1797  0.007818  -0.01952  0.01966  -0.01073  0.7725  -0.1156
6.502e+09  0.9321  -0.1258  -0.01944  0.006806  0.01036  -0.001907  0.7007  -0.3743
6.504e+09  0.8824  -0.5139  -0.01185  0.01049  0.002402  -0.01232  0.5156  -0.5824
6.505e+09  0.658  -0.6933  0.006376  0.0003506  0.01666  -0.04003  0.2986  -0.7137
6.506e+09  0.3181  -0.8561  -0.0004663  0.0139  -0.0244  -0.0118  -0.001546  -0.7356
6.508e+09  -0.002559  -0.9552  -0.02317  -0.004555  0.009867  -0.0004487  -0.257  -0.6963
6.509e+09  -0.3031  -0.9662  0.0193  0.02228  -0.005922  -0.06378  -0.4417  -0.5752
6.51e+09  -0.6647  -0.6999  -0.02263  -0.01458  -0.03727  -0.01528  -0.6524  -0.4003
6.511e+09  -0.8881  -0.476  0.02454  -0.008949  -0.0029  -0.00588  -0.7838  -0.1434
6.512e+09  -1.002  -0.1602  -0.01147  0.02132  0.03246  -0.02367  -0.6998  0.1438
6.514e+09  -0.9494  0.1958  -0.01161  -0.03473  -0.01862  -0.004067  -0.6584  0.3582
6.515e+09  -0.8603  0.5491  -0.007762  -0.01234  0.005444  -0.01158  -0.4861  0.5427
6.516e+09  -0.6197  0.7562  -0.007606  -0.007176  -0.03179  0.07468  -0.2038  0.7171
6.518e+09  -0.3321  0.9247  0.01791  -0.02502  0.008681  -0.03901  -0.01922  0.7508
6.519e+09  0.05653  0.989  -0.02518  0.002144  0.006819  0.04322  0.2968  0.6535
6.52e+09  0.3539  0.9294  0.02805  -0.02054  0.01573  -0.002053  0.4918  0.5846
6.521e+09  0.6498  0.7488  -0.009673  -0.001324  -0.001528  0.02848  0.6693  0.3357
6.522e+09  0.8721  0.4347  0.03069  -0.01593  0.003876  0.04692  0.7263  0.09145
6.524e+09  0.9572  0.09999  -0.02492  0.01289  0.0238  0.0667  0.7539  -0.1739
6.525e+09  0.9152  -0.2255  -0.01097  0.004295  0.01035  -0.01285  0.6197  -0.3925
6.526e+09  0.8385  -0.5282  -0.02848  -0.02063  -0.0376  0.00412  0.4192  -0.613
6.528e+09  0.5678  -0.74  -0.01275  0.0002882  0.01257  0.03818  0.1796  -0.665
6.529e+09  0.254  -0.9172  -0.03523  0.007788  0.02028  -0.02386  -0.05273  -0.6697
6.53e+09  -0.08888  -0.9692  0.008338  -0.008799  -0.005904  0.03264  -0.2795  -0.6472
6.531e+09  -0.4678  -0.8357  0.00437  -0.01187  -0.002281  -0.04589  -0.4664  -0.5096
6.532e+09  -0.6798  -0.6667  0.006603  0.03238  0.08485  -0.02445  -0.5897  -0.2581
6.534e+09  -0.9547  -0.3791  0.007752  0.00479  0.04518  0.007485  -0.5997  -0.07221
6.535e+09  -0.9458  -0.0289  -0.0006889  -0.004206  0.01795  0.01875  -0.6126  0.09944
6.536e+09  -0.9311  0.2903  0.01327  -0.0002095  0.0289  0.0005372  -0.5778  0.2946
6.538e+09  -0.7503  0.6351  -0.01807  0.008906  0.01191  0.02889  -0.4199  0.4691
6.539e+09  -0.534  0.8194  0.06505  0.02231  0.02537  -0.0159  -0.2843  0.5977
6.54e+09  -0.1417  0.9592  -0.03327  0.0048  -0.02598  -0.01437  -0.03697  0.7013
6.541e+09  0.2155  0.954  -0.02441  0.003622  0.006442  0.01117  0.202  0.7151
6.542e+09  0.5033  0.838  0.00451  -0.00132  -0.0281  -0.02894  0.391  0.5646
6.544e+09  0.7498  0.6515  0.001959  0.01047  0.003063  0.01817  0.5961  0.4194
6.545e+09  0.8717  0.2836  0.00648  -0.005694  0.01733  -0.05461  0.686  0.1848
6.546e+09  0.9931  -0.03115  -0.01658  -7.303e-05  -0.0005652  -0.01713  0.7237  -0.08087
6.548e+09  0.8926  -0.3259  0.03034  -0.004535  0.04455  0.03999  0.6814  -0.3279
6.549e+09  0.7089  -0.6163  -0.02109  -0.03553  0.04721  0.01901  0.5343  -0.5237
6.55e+09  0.4808  -0.8619  0.01763  -0.0001331  -0.01989  0.02463  0.3089  -0.7054
