# Hz S RI R 50
6.25e+09  -0.3261  0.8295  -0.009997  0.002404  0.02887  -0.03087  0.2051  0.4768
6.251e+09  -0.03971  0.8976  0.0145  0.01205  0.01888  -0.02465  0.3443  0.3883
6.252e+09  0.2719  0.8425  0.001078  -0.01927  0.01689  0.06855  0.5242  0.2121
6.254e+09  0.5485  0.7341  -0.02872  0.01921  0.002925  0.003464  0.6021  0.0198
6.255e+09  0.7808  0.4068  0.00134  -0.00343  0.005015  0.04955  0.6072  -0.2129
6.256e+09  0.8586  0.1747  0.0227  0.006746  -0.01882  0.03718  0.48  -0.4645
6.258e+09  0.8462  -0.1376  -0.02056  0.0347  0.03274  -0.01218  0.2882  -0.5845
6.259e+09  0.7246  -0.3476  -0.002849  -0.01799  0.01762  -0.01515  0.0454  -0.7049
6.26e+09  0.5626  -0.645  -0.01167  -0.00487  0.01261  0.03888  -0.1962  -0.6522
6.261e+09  0.3088  -0.7316  0.006075  -0.01351  -0.01322  0.01578  -0.4355  -0.5264
6.262e+09  0.06302  -0.8398  0.0005539  -0.03176  0.02448  0.01807  -0.6446  -0.3323
6.264e+09  -0.2835  -0.7859  0.01638  0.01049  -0.02224  -0.02558  -0.6626  -0.1174
6.265e+09  -0.5519  -0.7423  0.02927  0.0298  0.0004003  0.05155  -0.6895  0.1388
6.266e+09  -0.7525  -0.445  -0.01545  -0.02116  -0.007741  -0.05237  -0.6182  0.3656
6.268e+09  -0.8632  -0.2208  -0.009456  0.02089  -0.02822  -0.02212  -0.4344  0.5848
6.269e+09  -0.8502  0.09178  0.02152  -0.02187  0.01581  0.004545  -0.2086  0.7391
6.27e+09  -0.7843  0.3713  -0.02653  -0.0117  0.0172  0.05819  0.08786  0.7657
6.271e+09  -0.6166  0.6348  -0.001027  -0.006397  0.02218  -0.004118  0.3419  0.644
6.272e+09  -0.2494  0.7902  -0.02505  0.005791  -0.02164  0.03206  0.5351  0.5314
6.274e+09  -0.001288  0.8496  -0.003327  0.009098  -0.008277  -0.01155  0.6959  0.2911
6.275e+09  0.2886  0.7617  -0.01941  0.03575  -0.001951  0.009172  0.7862  0.03958
6.276e+09  0.5363  0.6727  0.00305  0.004473  -0.00544  -0.01694  0.7596  -0.2362
6.278e+09  0.6924  0.4318  0.01178  -0.0003526  -0.04366  -0.009794  0.6342  -0.4738
6.279e+09  0.8093  0.1411  -0.01289  -0.02713  0.00652  -0.009237  0.3849  -0.6876
6.28e+09  0.7812  -0.1562  0.01036  -0.008373  -0.001101  -0.04241  0.1619  -0.7731
6.281e+09  0.7604  -0.3998  0.0002937  -0.02708  -0.03405  -0.01758  -0.1376  -0.7627
6.282e+09  0.5355  -0.6405  0.02488  -0.01201  -0.05274  0.01875  -0.3741  -0.6929
6.284e+09  0.2865  -0.7762  0.0003301  0.002978  0.02365  -0.02366  -0.5938  -0.5308
6.285e+09  0.02926  -0.8535  -0.003953  0.01856  -0.03237  -0.01122  -0.7481  -0.276
6.286e+09  -0.3324  -0.7878  -0.03089  0.02764  -0.03877  0.03527  -0.7652  -0.05069
6.288e+09  -0.5128  -0.6232  -0.01887  -0.003893  0.03737  0.02604  -0.7446  0.2765
6.289e+09  -0.7229  -0.3941  0.02427  -0.007873  -0.04371  -0.01607  -0.6234  0.54
6.29e+09  -0.7966  -0.1366  0.01231  -0.002806  0.04408  0.0004231  -0.4079  0.6645
6.291e+09  -0.831  0.1426  -0.01673  0.0009195  0.006848  0.004543  -0.1679  0.8106
6.292e+09  -0.6777  0.3769  0.02491  0.0004481  0.005964  -0.007031  0.1611  0.7995
6.294e+09  -0.5038  0.6614  0.006069  -0.0006268  0.01906  -0.00622  0.366  0.7352
6.295e+09  -0.2371  0.7657  0.00354  0.01493  -0.0261  -0.02054  0.6105  0.5441
6.296e+09  0.03608  0.8  -0.01472  0.01235  0.02024  -0.04066  0.7406  0.297
6.298e+09  0.3022  0.7721  -0.004408  0.002387  0.02786  0.006461  0.7783  0.02138
6.299e+09  0.6158  0.608  -0.01677  -0.005576  0.006669  -0.02557  0.8219  -0.3037
6.3e+09  0.7812  0.3733  -0.02777  0.0162  -0.02341  0.0162  0.6452  -0.5101
6.301e+09  0.8669  0.06012  -0.02207  -0.01057  -0.03028  0.02289  0.4402  -0.7097
6.302e+09  0.7928  -0.2267  0.007156  0.01454  -0.02415  -0.03594  0.1561  -0.8277
6.304e+09  0.6868  -0.5105  0.00602  0.04679  0.03113  -0.01979  -0.08331  -0.8357
6.305e+09  0.4971  -0.6984  -0.04175  -0.01045  -0.009728  0.01124  -0.4358  -0.7617
6.306e+09  0.1906  -0.8074  0.02434  -0.02283  0.005679  0.009823  -0.6431  -0.5552
6.308e+09  -0.04202  -0.8619  -0.008888  0.02032  0.03991  0.01597  -0.8571  -0.299
6.309e+09  -0.3371  -0.7678  -0.01018  -0.02196  -0.008915  0.008215  -0.8034  0.01437
6.31e+09  -0.5926  -0.5086  -0.0316  0.009839  0.02734  0.0001673  -0.8129  0.2804
6.311e+09  -0.7906  -0.3209  0.00689  0.02713  0.005485  0.02075  -0.668  0.6016
6.312e+09  -0.866  -0.03282  -0.0162  0.01274  0.03105  -0.008446  -0.4313  0.7174
6.314e+09  -0.8217  0.2109  -0.01605  0.01116  -0.01902  -0.03057  -0.1495  0.8696
6.315e+09  -0.6919  0.5327  -0.002199  0.01857  -0.02337  0.03973  0.1469  0.8284
6.316e+09  -0.411  0.7635  -0.005024  -0.01467  -0.04519  0.01978  0.3973  0.7481
6.318e+09  -0.1467  0.8274  0.005782  -0.02205  -0.01045  -0.07025  0.6594  0.5769
6.319e+09  0.1457  0.8358  -0.01252  0.009765  -0.02725  -0.03076  0.8555  0.2912
6.32e+09  0.409  0.7737  -0.0138  0.02311  -0.03834  -0.02717  0.858  0.04793
6.321e+09  0.6369  0.564  0.007771  0.02162  0.04327  0.002322  0.8624  -0.2713
6.322e+09  0.8158  0.3191  0.006069  0.006338  -0.01083  0.0172  0.705  -0.5798
6.324e+09  0.8821  -0.02937  -0.00652  -0.004379  -0.001155  0.005573  0.4634  -0.7572
6.325e+09  0.81  -0.2601  -0.02196  0.006552  0.007849  0.02132  0.1854  -0.8703
6.326e+09  0.7  -0.57  0.03881  -0.01501  0.05191  -0.05839  -0.1176  -0.8723
6.328e+09  0.4593  -0.7988  -0.02829  -0.01094  0.02089  -0.03655  -0.4377  -0.7713
6.329e+09  0.1728  -0.8332  -0.01653  0.02191  0.008937  -0.0009651  -0.7009  -0.5666
6.33e+09  -0.1732  -0.8955  0.02199  -0.01772  0.01752  -0.006263  -0.8337  -0.3486
6.331e+09  -0.4495  -0.7248  0.01483  -0.0185  0.01767  -0.001529  -0.9198  -0.01267
6.332e+09  -0.7013  -0.5121  -0.02004  -0.0155  0.01101  0.03288  -0.8728  0.2883
6.334e+09  -0.8129  -0.2702  -0.01779  0.01722  0.006307  0.01451  -0.7212  0.5433
6.335e+09  -0.8992  0.02269  0.01397  0.02141  -0.03716  -0.02145  -0.5009  0.7653
6.336e+09  -0.8025  0.309  -0.02323  -0.02819  -0.008657  -0.01084  -0.2128  0.8831
6.338e+09  -0.6472  0.603  0.00301  -0.001233  0.003429  -0.003205  0.1401  0.9202
6.339e+09  -0.4476  0.7844  0.005631  0.01075  0.02268  -0.03795  0.4497  0.8424
6.34e+09  -0.1599  0.8504  0.0124  0.006283  0.00816  0.04129  0.7278  0.6469
6.341e+09  0.227  0.8468  0.02619  -0.02259  0.001047  0.01266  0.8797  0.3549
6.342e+09  0.527  0.7204  -0.02808  0.007343  0.05818  0.05826  0.9324  0.02311
6.344e+09  0.7703  0.4786  -0.004306  -0.01735  -0.009627  0.02755  0.9034  -0.29
6.345e+09  0.8267  0.1711  0.02515  0.02881  -0.01437  -0.02903  0.7411  -0.5335
6.346e+09  0.8578  -0.07763  -0.001178  -0.01192  0.005847  -0.007775  0.5218  -0.8042
6.348e+09  0.7627  -0.3746  0.01306  -0.02054  -0.02921  0.01986  0.2139  -0.9242
6.349e+09  0.6052  -0.5867  0.0002688  0.02355  -0.02136  -0.03402  -0.1252  -0.9247
6.35e+09  0.3485  -0.8746  0.006845  -0.01603  -0.02535  0.02195  -0.4057  -0.8336
6.351e+09  0.02227  -0.8603  0.005285  -0.02192  -0.005993  -0.002485  -0.6868  -0.665
6.352e+09  -0.2863  -0.8558  -0.0145  -0.01835  -0.0007453  -0.05401  -0.8845  -0.3641
6.354e+09  -0.536  -0.7058  0.00152  0.0319  -0.03782  -0.02187  -0.9778  -0.06515
6.355e+09  -0.8075  -0.4775  -0.01505  -0.01122  -0.05271  0.044  -0.9185  0.2484
6.356e+09  -0.8551  -0.139  -0.01892  0.01521  -0.01066  -0.02245  -0.7679  0.5499
6.358e+09  -0.8482  0.1451  -0.01201  -0.01229  -0.01309  -0.02342  -0.5321  0.7818
6.359e+09  -0.8106  0.4828  -0.02686  -0.02994  0.006646  -0.00863  -0.2715  0.9578
6.36e+09  -0.6104  0.6872  0.02167  -0.01881  -0.001491  0.01  0.07744  0.9671
6.361e+09  -0.2702  0.8343  0.04078  0.03481  -0.03762  -0.02375  0.4123  0.8396
6.362e+09  0.03131  0.8818  -0.01585  -0.01279  0.02403  0.03963  0.7113  0.662
6.364e+09  0.3386  0.8241  0.02267  0.001774  -0.005891  0.02861  0.8588  0.3672
6.365e+09  0.6026  0.6409  0.01008  0.02167  0.02489  -0.01026  0.9671  0.09613
6.366e+09  0.8183  0.3948  -0.03126  0.02788  0.03832  0.0008108  0.9149  -0.2509
6.368e+09  0.9028  0.1115  0.01908  0.01949  -0.0347  -0.008634  0.7854  -0.5438
6.369e+09  0.905  -0.1709  -0.02375  0.02955  -0.04551  -0.006518  0.5477  -0.7769
6.37e+09  0.7336  -0.4643  -0.01346  0.02141  -0.02395  -0.01371  0.2618  -0.9258
6.371e+09  0.4885  -0.7257  -0.02569  -0.01548  -0.04645  -0.003134  -0.1099  -0.9558
6.372e+09  0.2457  -0.8954  -0.02469  -0.02626  0.01509  0.033  -0.4162  -0.9232
6.374e+09  -0.06731  -0.9104  0.01171  0.02141  0.007242  -0.0179  -0.6685  -0.6619
6.375e+09  -0.3973  -0.8123  -0.02583  0.01821  -0.02107  -0.04072  -0.8364  -0.3687
6.376e+09  -0.6219  -0.6211  -0.03306  -0.01921  -0.001203  -0.03433  -0.9795  -0.0962
6.378e+09  -0.8216  -0.3575  0.001198  -0.008193  0.06437  -0.008061  -0.8998  0.2315
6.379e+09  -0.9144  -0.06  -0.01769  0.01723  -0.02518  -0.00994  -0.7952  0.5148
6.38e+09  -0.8493  0.2566  -0.01564  0.006367  -0.02645  0.004991  -0.5195  0.7666
6.381e+09  -0.7247  0.5091  -0.03344  0.001607  -0.008987  0.001105  -0.2916  0.9062
6.382e+09  -0.498  0.6966  0.01336  -0.0202  -0.02539  -0.001651  0.02995  0.9289
6.384e+09  -0.2236  0.8636  -0.02892  -0.02605  -0.009884  -0.0003496  0.3485  0.8864
6.385e+09  0.09964  0.91  0.05629  0.01533  -0.009057  -0.03003  0.7036  0.6876
6.386e+09  0.3936  0.7908  -0.01016  -0.001158  0.01512  0.004021  0.8394  0.4349
6.388e+09  0.6695  0.6038  0.01686  0.03485  0.05172  -0.06337  0.9203  0.1341
6.389e+09  0.8395  0.3277  0.01471  0.002827  -0.02772  -0.03063  0.8636  -0.1627
6.39e+09  0.9245  0.0358  0.047  -0.0131  -0.005717  -0.04037  0.7715  -0.4716
6.391e+09  0.8891  -0.2513  -0.003125  0.02108  -0.02427  0.04756  0.5659  -0.7629
6.392e+09  0.7008  -0.5708  -0.003137  -0.0167  -0.06333  0.02263  0.3264  -0.8747
6.394e+09  0.4461  -0.7285  0.03811  -0.0269  0.008621  -0.02564  -0.052  -0.9443
6.395e+09  0.1599  -0.8435  0.009615  0.01365  0.002578  0.003433  -0.3357  -0.8377
6.396e+09  -0.1153  -0.9248  -0.025  0.01294  -0.004662  0.008203  -0.6253  -0.7057
6.398e+09  -0.4491  -0.7918  0.01003  -0.03277  0.0399  -0.04768  -0.8038  -0.4139
6.399e+09  -0.6348  -0.5739  0.01423  0.006376  0.007474  0.03129  -0.8976  -0.1392
6.4e+09  -0.8863  -0.3281  0.01915  0.02175  -0.0006144  -0.01102  -0.9428  0.1446
6.401e+09  -0.8903  -0.06934  -0.02879  0.02359  -0.0005032  0.01113  -0.812  0.4959
6.402e+09  -0.864  0.2689  0.00685  0.006244  0.002153  0.01914  -0.574  0.6651
6.404e+09  -0.682  0.5838  0.02896  0.02488  -0.02756  -0.0006157  -0.3079  0.8685
6.405e+09  -0.4445  0.7462  0.01392  0.0004569  0.004274  0.03277  0.01759  0.9026
6.406e+09  -0.1375  0.7982  -0.02969  0.02602  0.02066  0.01844  0.3534  0.8723
6.408e+09  0.1494  0.862  0.008507  -0.01222  -0.02362  -0.02458  0.6121  0.7501
6.409e+09  0.4389  0.7281  -0.02314  0.004974  -0.01462  0.003793  0.7805  0.4803
6.41e+09  0.7375  0.5632  0.05993  -0.006478  -0.02168  0.004166  0.8751  0.1568
6.411e+09  0.8633  0.2848  -0.007093  -0.02505  0.03596  0.001184  0.8991  -0.14
6.412e+09  0.8976  0.02955  -0.0271  0.03322  0.03014  -0.004077  0.7847  -0.4953
6.414e+09  0.8173  -0.301  0.05069  0.008477  -0.0003153  0.004166  0.5745  -0.6512
6.415e+09  0.6431  -0.5478  -0.02246  0.01279  0.003474  -0.0187  0.3581  -0.8629
6.416e+09  0.4445  -0.772  -0.03875  -0.01614  0.00345  -0.01539  0.02982  -0.9406
6.418e+09  0.1215  -0.8689  0.01418  -0.01957  -0.01537  -0.03326  -0.2544  -0.8671
6.419e+09  -0.1187  -0.9032  -0.01323  0.01656  -0.03386  0.03405  -0.5546  -0.7114
6.42e+09  -0.4597  -0.7595  -0.04027  -0.01235  0.03033  0.008103  -0.7704  -0.4723
6.421e+09  -0.6917  -0.5961  0.003676  0.004238  -0.01993  -0.01589  -0.8352  -0.1921
6.422e+09  -0.8203  -0.2857  0.01937  -0.02585  -0.03872  -0.04681  -0.8896  0.1332
6.424e+09  -0.8684  0.04554  -0.03663  -0.008979  -0.01633  -0.03174  -0.7891  0.3556
6.425e+09  -0.8461  0.3463  0.01214  0.03693  0.008535  0.009549  -0.5816  0.6476
6.426e+09  -0.7444  0.5717  0.02331  0.03154  0.00208  0.04811  -0.3701  0.8263
6.428e+09  -0.462  0.7324  -0.004669  -0.03467  0.03423  -0.01656  -0.06032  0.9057
6.429e+09  -0.09626  0.8417  0.01776  -0.01492  -0.0023  0.01758  0.2213  0.8777
6.43e+09  0.1784  0.8739  0.03304  0.0184  -0.0153  0.006939  0.4779  0.7116
6.431e+09  0.4262  0.7604  0.02912  0.0003349  0.002081  0.08166  0.7465  0.4833
6.432e+09  0.7209  0.5414  -0.006195  0.02162  0.03226  0.0442  0.8657  0.2121
6.434e+09  0.8339  0.2559  -0.009618  -0.02052  -0.05284  0.002015  0.8543  -0.04329
6.435e+09  0.9135  -0.02871  -0.0009444  0.007217  -0.01458  -0.02676  0.7997  -0.4006
6.436e+09  0.8101  -0.295  -0.01308  -0.04009  -0.01246  0.06751  0.6026  -0.6232
6.438e+09  0.651  -0.6107  -0.008132  -0.02524  -0.007409  0.00194  0.3877  -0.7454
6.439e+09  0.4571  -0.7589  -0.0228  -0.01584  -0.01115  0.0279  0.06244  -0.9047
6.44e+09  0.124  -0.847  0.02164  -0.05234  -0.02372  0.04236  -0.1966  -0.8444
6.441e+09  -0.2257  -0.8978  -0.02496  0.001725  -0.004338  -0.04151  -0.5062  -0.6834
6.442e+09  -0.465  -0.7171  -0.02417  0.004417  -0.03437  -0.02256  -0.6964  -0.448
6.444e+09  -0.7041  -0.5822  -0.02596  -0.01679  -0.05552  -0.02541  -0.8309  -0.1588
6.445e+09  -0.8774  -0.2198  0.01789  0.01481  0.03105  -0.01306  -0.8567  0.07815
6.446e+09  -0.9194  0.0736  -0.00921  0.005741  -0.02369  -0.0169  -0.7786  0.4162
6.448e+09  -0.8434  0.3243  0.005922  0.02342  0.02527  0.02534  -0.5995  0.669
6.449e+09  -0.6837  0.6146  -0.01339  -0.01713  -0.02018  0.009765  -0.3699  0.7371
6.45e+09  -0.419  0.7852  -0.01487  -0.0377  -0.004102  -0.02368  -0.09713  0.8433
6.451e+09  -0.06304  0.8448  -0.04775  -0.02697  -0.02364  -0.06225  0.1902  0.8194
6.452e+09  0.1718  0.922  0.009769  -0.03604  0.03669  -0.02461  0.492  0.6163
6.454e+09  0.453  0.7419  -0.001011  0.04003  0.002778  -0.01297  0.6935  0.4847
6.455e+09  0.7147  0.5316  0.04454  0.01077  -0.03071  0.004168  0.783  0.2377
6.456e+09  0.9169  0.1703  0.003911  0.002913  -0.01263  0.04408  0.8326  -0.05831
6.458e+09  0.8779  -0.02988  -0.03534  -0.01324  -0.01623  -0.03054  0.7046  -0.3228
6.459e+09  0.8805  -0.4054  0.04669  -0.01164  0.01534  -0.01379  0.5474  -0.5728
6.46e+09  0.6692  -0.6286  -0.03634  0.04028  0.004759  -0.01782  0.3151  -0.7593
6.461e+09  0.3925  -0.7884  -0.02631  -0.003706  -0.0319  0.0337  0.06659  -0.801
6.462e+09  0.1381  -0.9152  -0.02943  -0.02984  -0.009427  -0.03977  -0.2096  -0.7913
6.464e+09  -0.2091  -0.8564  -0.0134  0.0327  0.0386  0.009595  -0.4873  -0.6776
6.465e+09  -0.5249  -0.7267  0.0002632  0.008193  0.008368  0.02657  -0.6885  -0.5044
6.466e+09  -0.7123  -0.5088  -0.009125  0.008142  0.00462  -0.0577  -0.8254  -0.2036
6.468e+09  -0.8708  -0.2233  -0.004991  -0.03591  -0.02433  -0.02646  -0.8063  0.09513
6.469e+09  -0.9438  0.09903  -0.0006103  -0.007173  -0.01585  -0.0342  -0.7446  0.3671
6.47e+09  -0.8701  0.3762  0.01298  -0.01271  0.03802  -0.008422  -0.57  0.5528
6.471e+09  -0.6672  0.6784  -0.01634  0.008633  -0.0007135  0.005211  -0.329  0.711
6.472e+09  -0.3395  0.8028  0.06548  -0.005763  -0.02755  0.01111  -0.03727  0.7958
6.474e+09  -0.09458  0.9726  0.001211  -0.0136  -0.04948  -0.007526  0.1887  0.7481
6.475e+09  0.242  0.9026  -0.006738  -0.02644  -0.03088  0.02836  0.4634  0.6037
6.476e+09  0.5648  0.7853  0.01572  0.00166  -0.003393  0.01862  0.6663  0.441
6.478e+09  0.708  0.4976  0.04714  0.03492  -0.0007017  0.05364  0.7852  0.2206
6.479e+09  0.9148  0.257  -0.0004546  -0.01661  -0.01491  0.01873  0.7897  -0.08524
6.48e+09  0.951  -0.1125  -0.0608  0.03141  0.006728  -0.02784  0.7528  -0.3641
6.481e+09  0.8604  -0.4227  0.02254  0.00291  -0.008556  0.04138  0.5418  -0.5684
6.482e+09  0.6191  -0.6295  0.003242  0.009611  0.001986  -0.0083  0.3367  -0.7219
6.484e+09  0.3715  -0.8198  0.007997  -0.005922  -0.01157  -0.01527  0.08715  -0.7743
6.485e+09  0.09223  -0.9596  -0.00742  -0.02279  0.01499  -0.009638  -0.212  -0.7445
6.486e+09  -0.2297  -0.9088  -0.009916  -0.007051  -0.01844  -0.02197  -0.4654  -0.6248
6.488e+09  -0.537  -0.7503  -0.02362  -0.0001961  0.02466  0.04908  -0.6639  -0.425
6.489e+09  -0.7843  -0.5476  -0.002437  0.007974  0.01984  0.01943  -0.7927  -0.1651
6.49e+09  -0.9202  -0.2253  0.02509  -0.01033  0.02271  -0.05618  -0.77  0.08301
6.491e+09  -0.9215  0.1232  -0.009095  -0.02822  -0.04733  -0.01981  -0.7102  0.3714
6.492e+09  -0.8226  0.4243  -0.02751  -0.009382  0.02312  -0.04046  -0.5099  0.5831
6.494e+09  -0.6296  0.6811  -0.0459  -0.006949  0.03379  -0.0492  -0.3079  0.7157
6.495e+09  -0.3943  0.8981  -0.003182  0.01946  0.04525  0.01977  -0.01594  0.7558
6.496e+09  -0.06642  0.9573  -0.02611  -0.00804  -0.009143  -0.0002131  0.2193  0.7769
6.498e+09  0.2415  0.9055  0.003263  -0.01676  -0.0009803  -0.01344  0.4642  0.5841
6.499e+09  0.5879  0.7045  -0.009206  -0.001414  -0.04321  0.003126  0.6317  0.4275
6.5e+09  0.7746  0.4446  -0.006355  0.01376  -0.01076  -0.01249  0.7429  0.1715
6.501e+09  0.9444  0.1938  0.01412  -0.02034  -0.03253  0.02636  0.7715  -0.09038
6.502e+09  0.9242  -0.153  0.04312  -0.002313  0.01832  0.05195  0.7011  -0.3545
6.504e+09  0.859  -0.4595  -0.006373  -0.005749  0.02672  -0.02285  0.5095  -0.5338
6.505e+09  0.5929  -0.7417  -0.005949  0.05523  -0.0539  -0.01803  0.2758  -0.7129
6.506e+09  0.3473  -0.8682  0.007254  -0.001048  -0.05955  0.02164  0.0412  -0.7204
6.508e+09  -0.0135  -0.9642  0.002062  0.006876  -0.0138  -0.005739  -0.2159  -0.7315
6.509e+09  -0.3165  -0.8839  -0.005572  0.0055  0.004612  -0.04228  -0.4474  -0.5983
6.51e+09  -0.6301  -0.7384  0.0119  0.01039  0.01626  0.01189  -0.6682  -0.416
6.511e+09  -0.8282  -0.4388  -0.01077  -0.02572  -0.02838  -0.01278  -0.7751  -0.1547
6.512e+09  -0.9651  -0.1467  -0.008181  -0.002042  0.01489  -0.01283  -0.7225  0.1351
6.514e+09  -0.9398  0.1556  -0.002267  -0.006502  0.03007  0.00108  -0.6106  0.3939
6.515e+09  -0.8279  0.5219  0.01216  -0.03549  0.03218  0.007838  -0.4934  0.5894
6.516e+09  -0.6019  0.753  0.01401  0.001187  0.01927  -0.04989  -0.2425  0.7133
6.518e+09  -0.2472  0.9409  -0.002708  0.007847  -0.01164  0.03043  0.0006601  0.7443
6.519e+09  0.0556  0.9522  0.005263  -0.00181  -0.03799  0.006168  0.2584  0.7216
6.52e+09  0.3877  0.8886  -0.0357  -0.01242  0.002771  0.01778  0.4745  0.5623
6.521e+09  0.6348  0.7201  -0.003978  0.002653  0.000531  -0.0109  0.6622  0.3646
6.522e+09  0.9165  0.4363  0.01114  0.02983  -0.03595  0.03388  0.7571  0.06719
6.524e+09  0.9932  0.0209  -0.0352  -0.0307  -0.02432  -0.05614  0.735  -0.1772
6.525e+09  0.9258  -0.2096  -0.004867  0.01525  -0.001421  0.0126  0.6281  -0.4134
6.526e+09  0.7855  -0.5322  0.02469  0.008052  0.03106  0.03579  0.4238  -0.6015
6.528e+09  0.5285  -0.7759  0.03096  0.001104  0.03305  0.06527  0.1939  -0.6645
6.529e+09  0.2371  -0.9944  0.007099  -0.008789  -0.004456  -0.0194  -0.04048  -0.7068
6.53e+09  -0.08019  -1.016  -0.01629  0.03359  0.05025  0.004416  -0.2792  -0.6459
6.531e+09  -0.3901  -0.8453  -0.01718  -0.01696  0.004372  0.03505  -0.489  -0.4816
6.532e+09  -0.7333  -0.6568  -0.03335  -0.02312  -0.004433  0.05045  -0.5951  -0.293
6.534e+09  -0.9122  -0.383  0.01065  -0.01742  -0.02319  -0.00566  -0.6421  -0.09195
6.535e+09  -0.9842  0.01673  0.01029  -0.009452  -0.002148  -0.04127  -0.5919  0.1419
6.536e+09  -0.9318  0.3685  -0.001247  0.01192  0.001363  0.01383  -0.5678  0.3066
6.538e+09  -0.7392  0.6044  0.009763  0.01648  -0.02911  -0.02137  -0.4425  0.4884
6.539e+09  -0.4711  0.848  -0.01267  -0.0188  -0.0187  0.002991  -0.2563  0.6022
6.54e+09  -0.1597  0.9799  -0.007763  0.01107  -0.02619  -0.03485  -0.06242  0.6771
6.541e+09  0.1759  0.9137  -0.01165  0.03986  0.01604  -0.03681  0.1804  0.6682
6.542e+09  0.5314  0.807  0.01019  0.02237  -0.03496  -0.01065  0.4181  0.5834
6.544e+09  0.7871  0.5898  0.01835  -0.003736  -0.04616  0.004719  0.5758  0.3978
6.545e+09  0.9643  0.3598  0.01689  0.02577  -0.04775  0.001373  0.689  0.1695
6.546e+09  0.9954  -0.02451  -0.02394  -0.009932  -0.00258  -0.0238  0.7313  -0.1031
6.548e+09  0.8738  -0.3982  -0.01575  0.02208  -0.01749  -0.06659  0.6356  -0.3169
6.549e+09  0.6912  -0.6951  -0.007208  -0.0008182  -0.0158  -0.01529  0.4843  -0.545
6.55e+09  0.4457  -0.9263  -0.04316  -0.02465  0.02583  -0.02649  0.2873  -0.6759
