# Hz S RI R 50
6.25e+09  -0.2335  0.8336  0.00672  0.01279  -0.003017  0.04665  0.1798  0.4835
6.251e+09  0.03549  0.8881  -0.01626  0.01383  -0.07708  0.05062  0.3797  0.3917
6.252e+09  0.3465  0.7564  -0.01579  -0.03521  -0.0001854  -0.001193  0.5116  0.2838
6.254e+09  0.6003  0.6314  0.03392  0.06665  -0.02054  0.03823  0.609  0.004782
6.255e+09  0.7946  0.3604  -0.002718  0.04556  -0.01736  0.01791  0.6036  -0.2532
6.256e+09  0.8352  0.1732  -0.0008187  -0.003812  -0.003105  -0.05491  0.4776  -0.4279
6.258e+09  0.8918  -0.1899  0.006155  0.03514  -0.01909  -0.001101  0.2697  -0.5843
6.259e+09  0.6649  -0.4931  0.0195  0.007109  0.05982  0.0113  0.05056  -0.7007
6.26e+09  0.5641  -0.7234  0.02438  -0.0169  0.02713  -0.01891  -0.2016  -0.6369
6.261e+09  0.1965  -0.7559  -0.004346  0.002518  -0.005889  0.01739  -0.4504  -0.5089
6.262e+09  -0.01434  -0.8785  -0.009175  -0.01088  0.02267  -0.01696  -0.6108  -0.3423
6.264e+09  -0.3539  -0.7754  -0.01265  -0.008772  0.02602  -0.003902  -0.7202  -0.108
6.265e+09  -0.5959  -0.639  -0.03112  -0.001648  -0.03223  -0.03364  -0.7291  0.1388
6.266e+09  -0.8066  -0.4106  -0.01512  0.009002  -0.02769  -0.004025  -0.6036  0.3977
6.268e+09  -0.8965  -0.06381  0.001273  -0.01065  -0.0004915  0.05602  -0.427  0.5895
6.269e+09  -0.7615  0.1948  -0.01155  0.0006244  0.09511  0.08913  -0.1985  0.717
6.27e+09  -0.6593  0.4633  0.0009435  -0.004797  -0.0027  -0.002095  0.05795  0.7561
6.271e+09  -0.4859  0.7197  -0.003825  -0.007876  0.00292  0.02628  0.309  0.6581
6.272e+09  -0.1972  0.7945  0.0222  0.01592  -0.01936  -0.01334  0.5188  0.5275
6.274e+09  0.07926  0.8475  0.01276  -0.001978  0.03822  0.03172  0.6751  0.2849
6.275e+09  0.3952  0.6765  -0.01313  0.01133  0.007018  -0.02188  0.7664  0.04018
6.276e+09  0.605  0.6261  -0.001055  0.02638  -0.01887  -0.02294  0.7257  -0.2483
6.278e+09  0.7948  0.302  0.003883  0.002124  -0.03171  -0.01888  0.601  -0.4637
6.279e+09  0.8391  -0.01787  0.02555  -0.0001157  -0.05583  -0.02433  0.4284  -0.6474
6.28e+09  0.8205  -0.2635  0.0187  0.003072  -0.002908  -0.04069  0.1738  -0.7624
6.281e+09  0.6288  -0.4225  0.02071  -0.007355  0.03433  -0.007514  -0.09388  -0.7629
6.282e+09  0.4765  -0.6517  0.009874  0.01841  0.01779  0.06596  -0.3796  -0.6793
6.284e+09  0.1631  -0.835  0.006756  0.009162  -0.01064  0.01983  -0.6135  -0.5175
6.285e+09  -0.1156  -0.7696  -0.01759  0.02996  -0.01387  -0.03023  -0.716  -0.2845
6.286e+09  -0.3743  -0.717  -0.004896  0.01263  0.0005906  0.03102  -0.7991  -0.004495
6.288e+09  -0.6209  -0.5879  0.0249  0.05987  0.002486  -0.018  -0.7708  0.2484
6.289e+09  -0.8217  -0.3553  0.01496  -0.03038  0.03849  -0.009756  -0.6351  0.4568
6.29e+09  -0.8503  -0.04618  -0.009505  -0.01095  -0.02165  0.01478  -0.4384  0.6863
6.291e+09  -0.803  0.2851  -0.009121  -0.008284  -0.001607  0.04964  -0.1266  0.7799
6.292e+09  -0.675  0.5433  0.008063  0.02143  0.01825  0.03239  0.1226  0.8093
6.294e+09  -0.4556  0.7049  -0.01858  -0.007432  -0.02388  0.0482  0.4057  0.6906
6.295e+09  -0.1169  0.8412  -0.001915  -0.0152  0.01491  -0.0319  0.6483  0.5187
6.296e+09  0.1373  0.8217  0.008635  -0.01682  -0.003807  0.01735  0.7462  0.2445
6.298e+09  0.46  0.6887  -0.002766  -0.004306  -0.005953  -0.01001  0.8176  -0.004007
6.299e+09  0.5655  0.5651  -0.004041  0.005217  0.04467  -0.01061  0.7802  -0.2857
6.3e+09  0.779  0.2757  -0.01459  0.001008  -0.02744  -0.006193  0.6486  -0.5385
6.301e+09  0.7937  -0.03576  -0.01937  -0.009923  -0.02098  0.01413  0.4369  -0.7549
6.302e+09  0.8348  -0.2903  0.01135  0.01186  0.01015  0.01464  0.1353  -0.8284
6.304e+09  0.6057  -0.5815  -0.01409  -0.0033  -0.01125  0.009984  -0.1333  -0.8199
6.305e+09  0.4242  -0.7404  -0.01473  0.0139  0.02692  -0.02281  -0.4315  -0.7548
6.306e+09  0.092  -0.8131  0.01595  0.02962  -0.005167  0.05013  -0.6327  -0.5412
6.308e+09  -0.1578  -0.7874  -0.01901  0.00748  -0.0193  0.01087  -0.8074  -0.3074
6.309e+09  -0.4275  -0.7354  0.02889  0.008088  0.0652  0.008021  -0.8845  0.01955
6.31e+09  -0.6284  -0.5663  0.007266  -0.005402  -0.02669  -0.0301  -0.8025  0.2976
6.311e+09  -0.8212  -0.2644  -0.01123  -0.004423  0.03921  -0.02293  -0.6754  0.5783
6.312e+09  -0.8195  0.01492  -0.01596  -0.02498  -0.02921  0.003694  -0.4463  0.7825
6.314e+09  -0.7868  0.314  -0.01168  -0.00537  -0.02638  0.01075  -0.1668  0.8562
6.315e+09  -0.6628  0.574  -0.03793  0.002306  0.04597  0.01675  0.133  0.8416
6.316e+09  -0.3811  0.7271  0.006791  0.003171  -0.008037  -0.04859  0.443  0.7968
6.318e+09  -0.05744  0.8333  -0.02294  0.006895  0.05888  -0.01006  0.6849  0.5845
6.319e+09  0.2046  0.8141  0.005799  0.01232  -0.08169  -0.005085  0.8439  0.2994
6.32e+09  0.5026  0.687  -0.02956  -0.03735  -0.02651  -0.004063  0.9086  0.03174
6.321e+09  0.7193  0.4827  0.009385  0.02268  -0.0003462  -0.04688  0.8671  -0.296
6.322e+09  0.7405  0.2003  0.0001687  -0.009128  0.02521  -0.003845  0.6742  -0.5614
6.324e+09  0.8987  -0.1139  0.01637  0.01366  0.01121  -0.01414  0.4532  -0.7698
6.325e+09  0.7356  -0.3367  0.009441  0.0307  0.02522  0.02614  0.1683  -0.8988
6.326e+09  0.6011  -0.6211  -0.001939  0.01608  -0.01171  0.01642  -0.1391  -0.9043
6.328e+09  0.374  -0.7699  0.05021  -0.01113  -0.007231  -0.02612  -0.4385  -0.8006
6.329e+09  0.04912  -0.8662  0.002446  0.005559  0.02587  0.007743  -0.6774  -0.5745
6.33e+09  -0.244  -0.8143  0.01105  0.03014  -0.004194  -0.01238  -0.8477  -0.3196
6.331e+09  -0.4984  -0.6637  -0.004904  0.002408  -0.01231  -0.001868  -0.9094  -0.02046
6.332e+09  -0.7414  -0.4589  0.005016  -0.01798  -0.002434  -0.03279  -0.8983  0.2899
6.334e+09  -0.8597  -0.1339  -0.0136  0.03241  -0.02009  0.005629  -0.7619  0.5605
6.335e+09  -0.8403  0.1459  0.004083  -0.01841  0.05618  -0.001973  -0.4771  0.7707
6.336e+09  -0.7659  0.4831  -0.008104  -0.005185  -0.01611  0.0005234  -0.1994  0.8965
6.338e+09  -0.583  0.6902  0.01242  -0.02034  0.01811  -0.01843  0.1132  0.9046
6.339e+09  -0.2665  0.7831  -0.00159  0.002532  -0.01075  -0.01742  0.4063  0.8409
6.34e+09  -0.001594  0.8446  0.02921  -0.007565  -0.007593  -0.009729  0.7017  0.6884
6.341e+09  0.262  0.7789  -0.01718  -0.01147  0.005234  -0.05808  0.8564  0.364
6.342e+09  0.6045  0.7038  0.0001085  0.02808  0.02805  0.04493  0.9099  0.03806
6.344e+09  0.8248  0.4399  0.0166  -0.005571  -0.02881  -0.003494  0.8604  -0.2401
6.345e+09  0.8647  0.1742  -0.01245  -0.002647  -0.02783  0.002971  0.7623  -0.6079
6.346e+09  0.8776  -0.2068  -0.002679  0.01683  -0.03479  0.01996  0.531  -0.7697
6.348e+09  0.7442  -0.5207  -0.0003935  -0.02094  -0.007031  -0.01368  0.2035  -0.9194
6.349e+09  0.5057  -0.711  0.011  -0.02857  -0.01419  0.009189  -0.1551  -0.9131
6.35e+09  0.2205  -0.8523  -0.004605  -0.007481  0.01962  -0.01481  -0.397  -0.8542
6.351e+09  -0.08449  -0.9305  -0.01416  0.02031  0.01403  0.004304  -0.7055  -0.6261
6.352e+09  -0.3828  -0.8109  -0.06203  -0.00178  -0.01193  -0.0198  -0.8612  -0.3575
6.354e+09  -0.588  -0.6052  0.01585  -0.01055  0.009733  -0.002299  -0.9534  -0.04883
6.355e+09  -0.842  -0.3976  -0.03673  0.0133  0.0196  0.0177  -0.9322  0.2758
6.356e+09  -0.8765  -0.03049  0.03396  0.03306  -0.003564  0.02786  -0.7864  0.5305
6.358e+09  -0.8633  0.2323  0.01006  0.02036  0.01464  -0.03579  -0.5402  0.7967
6.359e+09  -0.6909  0.5552  0.03836  -0.009005  0.0224  0.03118  -0.1982  0.939
6.36e+09  -0.4715  0.7596  -0.01458  0.002698  -0.009598  -0.009304  0.1034  0.9177
6.361e+09  -0.1844  0.9065  -0.02255  -0.01631  0.009344  -0.007382  0.43  0.8351
6.362e+09  0.1502  0.888  0.01756  0.0296  -0.01292  -0.01713  0.6568  0.6304
6.364e+09  0.4158  0.8168  -0.009319  0.04976  0.03032  -0.03146  0.8527  0.398
6.365e+09  0.6989  0.5751  0.0336  -0.0006182  -0.002407  0.0351  0.9623  0.03301
6.366e+09  0.8036  0.3202  -0.0004186  -0.003864  0.01636  -0.008714  0.8947  -0.2692
6.368e+09  0.8777  0.06037  -0.01256  -0.041  0.02355  0.0002736  0.7841  -0.5812
6.369e+09  0.8479  -0.3394  0.01526  0.01105  0.02309  0.05734  0.5407  -0.8142
6.37e+09  0.6793  -0.5723  -0.003092  -0.004091  -0.005459  -0.02242  0.2645  -0.9364
6.371e+09  0.4712  -0.7352  0.01414  0.02096  0.001224  -0.01552  -0.1038  -0.9257
6.372e+09  0.1616  -0.904  0.00212  0.002722  -0.0341  -0.002437  -0.3833  -0.8291
6.374e+09  -0.1848  -0.8774  -0.01689  -0.008299  0.007451  -0.0141  -0.6603  -0.6635
6.375e+09  -0.4409  -0.7457  -0.01892  -0.005232  -0.03912  -0.01563  -0.8529  -0.4225
6.376e+09  -0.7154  -0.5283  -0.003771  0.0127  0.04466  -0.05348  -0.9885  -0.08684
6.378e+09  -0.8414  -0.2911  0.02197  -0.02873  -0.04044  0.04123  -0.9399  0.2204
6.379e+09  -0.9384  0.01691  0.02362  0.002489  0.0202  -0.02969  -0.8305  0.5213
6.38e+09  -0.8067  0.34  -0.001937  0.0184  -0.0585  -0.03231  -0.5495  0.7398
6.381e+09  -0.6542  0.5789  -0.01759  -0.001978  -0.00989  -0.02307  -0.2646  0.9059
6.382e+09  -0.3684  0.7858  0.0007422  -0.001161  -0.01524  0.002479  0.07068  0.9358
6.384e+09  -0.1239  0.8749  -0.00456  0.03476  0.001799  -0.002712  0.3424  0.8866
6.385e+09  0.222  0.8752  0.03974  0.004705  -0.003555  -0.008625  0.6214  0.6713
6.386e+09  0.5034  0.7319  0.01621  -0.03432  -0.06199  0.03525  0.7794  0.4319
6.388e+09  0.6693  0.5478  -0.001193  -0.03839  -0.06502  -0.02848  0.9573  0.1254
6.389e+09  0.8729  0.273  -0.04838  0.0123  0.0335  -0.01082  0.8906  -0.2354
6.39e+09  0.9313  -0.05038  0.03262  -0.02282  0.01424  0.008106  0.7967  -0.4746
6.391e+09  0.8469  -0.3263  0.01217  0.004669  -0.01018  0.0288  0.5747  -0.6676
6.392e+09  0.6196  -0.5904  7.01e-05  -0.01475  -0.01768  -0.03982  0.2804  -0.8925
6.394e+09  0.3837  -0.7782  0.00011  -0.01446  0.01261  0.03375  -0.03134  -0.9101
6.395e+09  0.06312  -0.907  0.008834  -0.03232  0.02756  -3.752e-05  -0.3419  -0.8641
6.396e+09  -0.2493  -0.9087  0.01918  0.0287  0.002792  -0.02255  -0.6256  -0.6597
6.398e+09  -0.469  -0.7575  -0.007904  -0.01903  -0.001365  -0.06999  -0.8303  -0.4827
6.399e+09  -0.7156  -0.501  0.003922  0.03879  0.05967  -0.02866  -0.9052  -0.1653
6.4e+09  -0.8511  -0.2186  0.006258  -0.008255  0.0124  -0.05009  -0.909  0.1431
6.401e+09  -0.8614  0.04938  -0.01819  0.02161  0.02063  0.02211  -0.8272  0.5406
6.402e+09  -0.7922  0.3556  0.04955  -0.02507  -0.0047  -0.04214  -0.5721  0.6845
6.404e+09  -0.6019  0.6833  0.02154  0.002841  -0.0245  -0.01599  -0.2861  0.833
6.405e+09  -0.3517  0.8477  -0.007132  -0.005029  -3.174e-05  -0.01475  0.01529  0.9263
6.406e+09  -0.01929  0.8615  0.06568  -0.01385  0.009081  -0.04101  0.3042  0.8694
6.408e+09  0.2712  0.8815  0.01721  -0.01466  0.02295  -0.02787  0.5614  0.7423
6.409e+09  0.5555  0.6943  -0.02071  0.01618  0.002928  0.00868  0.774  0.4231
6.41e+09  0.7264  0.4625  -0.05233  0.02272  0.008713  -0.000557  0.8485  0.1925
6.411e+09  0.8532  0.1836  0.04751  -0.0241  0.003599  0.05898  0.8761  -0.1367
6.412e+09  0.9061  -0.1141  -0.00259  -0.01832  0.01599  -0.005634  0.8108  -0.4505
6.414e+09  0.8174  -0.3724  -0.02788  0.005891  0.01243  -0.009669  0.5708  -0.6719
6.415e+09  0.6173  -0.6528  -0.01761  -0.002335  -0.04582  0.009285  0.3206  -0.821
6.416e+09  0.3261  -0.8526  -0.02733  0.02746  0.003814  0.02292  0.04207  -0.9297
6.418e+09  0.0694  -0.8854  -0.01505  -0.0156  -0.006052  -0.06933  -0.2604  -0.8622
6.419e+09  -0.2676  -0.8105  0.02129  0.01151  0.02313  0.03412  -0.5908  -0.6786
6.42e+09  -0.5202  -0.7098  -0.008038  -0.009723  -0.02738  -0.03054  -0.7404  -0.4997
6.421e+09  -0.7692  -0.496  -0.04189  0.01123  -0.007078  -0.02246  -0.8707  -0.1706
6.422e+09  -0.8184  -0.1906  0.04257  0.002279  -0.01548  -0.00309  -0.8942  0.1436
6.424e+09  -0.8904  0.09149  0.005958  0.0196  -0.03405  -0.03726  -0.8007  0.3888
6.425e+09  -0.8211  0.4397  0.03543  0.0143  -0.01848  0.02475  -0.6347  0.6634
6.426e+09  -0.612  0.6704  0.02732  0.0185  0.03068  -0.000192  -0.3562  0.7932
6.428e+09  -0.2617  0.8946  0.03818  -0.009419  -0.02024  0.01644  -0.01506  0.8952
6.429e+09  -0.01818  0.8896  -0.0174  -0.017  -0.03219  0.01163  0.1907  0.8251
6.43e+09  0.3137  0.8753  0.02336  0.02007  0.02116  -0.01441  0.5242  0.7291
6.431e+09  0.5527  0.6805  -0.01306  0.006616  -0.03956  0.03137  0.7321  0.4995
6.432e+09  0.7284  0.4686  0.02767  0.009782  -0.01622  -0.0005729  0.8363  0.1695
6.434e+09  0.8692  0.1423  0.04568  -0.002049  0.01251  -0.007619  0.8737  -0.08372
6.435e+09  0.8976  -0.1513  -0.02941  -0.01682  -0.02781  0.03121  0.7262  -0.3879
6.436e+09  0.7549  -0.453  -0.00192  -0.00485  0.01118  -0.002959  0.5925  -0.6023
6.438e+09  0.6087  -0.6664  0.03873  -0.05015  -0.002332  0.009279  0.3293  -0.7701
6.439e+09  0.3065  -0.8638  -0.03534  0.01223  0.02914  0.01137  0.07622  -0.8034
6.44e+09  0.01237  -0.8978  0.01904  0.03144  0.003042  0.01183  -0.1965  -0.8149
6.441e+09  -0.2933  -0.8511  -0.02304  -0.03174  -0.004744  0.03699  -0.5199  -0.7125
6.442e+09  -0.5988  -0.6936  -0.01913  -0.04589  -0.04187  0.01114  -0.6983  -0.4515
6.444e+09  -0.7677  -0.4258  -0.008454  0.06784  0.01659  0.01255  -0.7768  -0.2053
6.445e+09  -0.9309  -0.162  0.05204  0.02242  -0.006808  -0.04586  -0.8088  0.06182
6.446e+09  -0.8942  0.1604  0.002577  -0.03175  -0.02335  -0.0005831  -0.7862  0.3952
6.448e+09  -0.7757  0.511  -0.02633  0.03554  0.0719  0.005086  -0.5948  0.6136
6.449e+09  -0.5338  0.6751  -0.007861  0.01986  -0.06842  -0.01934  -0.3602  0.721
6.45e+09  -0.311  0.7793  -0.001168  0.004985  0.04024  0.01363  -0.06013  0.8618
6.451e+09  0.01516  0.8892  0.03679  -0.00582  0.03218  0.01366  0.2416  0.7764
6.452e+09  0.3137  0.8339  -0.003928  0.001919  0.02198  -0.02564  0.4846  0.7029
6.454e+09  0.5716  0.6815  0.007333  -0.005151  -0.0313  -0.03876  0.6981  0.507
6.455e+09  0.8491  0.4943  0.01935  -0.03355  0.04139  0.0009465  0.8007  0.2479
6.456e+09  0.8815  0.1548  0.05271  -0.02627  -0.006186  0.02063  0.8304  -0.06594
6.458e+09  0.8691  -0.1851  0.01292  -0.007448  -0.0003849  0.0101  0.7582  -0.3541
6.459e+09  0.7749  -0.4792  0.02329  -0.02798  -0.05363  0.01279  0.597  -0.5328
6.46e+09  0.5712  -0.7085  -0.009111  -0.0025  -0.01052  -0.003861  0.349  -0.7513
6.461e+09  0.3159  -0.8826  -0.03731  0.0001339  0.01164  -0.009888  0.03827  -0.8087
6.462e+09  -0.05423  -0.87  0.006219  -0.0464  0.03623  -0.04213  -0.2515  -0.7915
6.464e+09  -0.3482  -0.8452  0.01101  -0.012  -0.04183  -0.01826  -0.4766  -0.6662
6.465e+09  -0.6182  -0.7019  0.001326  -0.008726  0.005126  0.009484  -0.6911  -0.4627
6.466e+09  -0.8092  -0.4104  -0.01759  -0.05717  0.001444  -0.005725  -0.8059  -0.221
6.468e+09  -0.9072  -0.1332  0.002217  0.006966  0.03208  0.03141  -0.7907  0.05067
6.469e+09  -0.8813  0.1311  -0.009232  -0.005134  -0.02748  -0.004234  -0.7373  0.3741
6.47e+09  -0.8031  0.4971  -0.002045  -0.01936  -0.03367  -0.06059  -0.5443  0.5611
6.471e+09  -0.5617  0.7192  0.01904  0.02359  -0.01136  0.003328  -0.3437  0.7148
6.472e+09  -0.2837  0.9338  -0.001654  -0.03506  -0.008024  -0.01674  -0.08601  0.8165
6.474e+09  0.008068  0.9438  -0.01395  0.009904  0.01068  -0.06809  0.1967  0.7529
6.475e+09  0.3532  0.8706  0.01545  -0.03644  0.01226  0.006477  0.4828  0.6574
6.476e+09  0.6252  0.6623  -0.04701  -0.03793  0.01292  0.03268  0.6702  0.4594
6.478e+09  0.8337  0.4189  0.01086  0.01207  0.005148  -0.003732  0.7814  0.166
6.479e+09  0.9068  0.1187  -0.01566  0.008698  0.03191  -0.00246  0.7995  -0.0502
6.48e+09  0.9118  -0.1989  0.0364  -0.004325  0.01353  -0.01958  0.6751  -0.3983
6.481e+09  0.7856  -0.5179  -0.0644  -0.03468  -0.04873  -0.06064  0.5392  -0.5692
6.482e+09  0.5472  -0.7451  0.0203  -0.004499  0.02195  0.009721  0.2957  -0.7311
6.484e+09  0.2918  -0.8787  -0.01338  -0.003392  0.02762  0.01735  0.05605  -0.774
6.485e+09  -0.08355  -0.9474  -0.0234  -0.01775  0.01669  -0.000949  -0.1695  -0.7477
6.486e+09  -0.3261  -0.8675  0.02269  -0.001507  -0.02332  0.02866  -0.4762  -0.638
6.488e+09  -0.6389  -0.663  0.02741  -0.003579  -0.01675  -0.01876  -0.6508  -0.3899
6.489e+09  -0.7855  -0.4187  0.008101  0.01425  0.01036  0.01737  -0.7395  -0.1957
6.49e+09  -0.9047  -0.04484  0.001578  -0.01985  -0.009737  -0.01433  -0.7977  0.1195
6.491e+09  -0.9585  0.2619  0.02273  -0.02916  -0.01264  -0.02322  -0.7008  0.3983
6.492e+09  -0.7737  0.5243  0.008847  0.01793  0.007061  -0.04085  -0.5021  0.566
6.494e+09  -0.5131  0.773  0.02352  0.005794  0.0519  0.006255  -0.2866  0.7236
6.495e+09  -0.1786  0.9747  -0.01047  0.001953  0.01667  0.01481  -0.07215  0.7837
6.496e+09  0.1723  0.9441  0.03236  0.03319  -0.03386  -0.004054  0.2203  0.7046
6.498e+09  0.4302  0.8388  0.005926  -0.04184  -0.008094  -0.001033  0.4841  0.6365
6.499e+09  0.6936  0.6042  0.03516  -0.02391  -0.001605  0.02938  0.6508  0.4401
6.5e+09  0.9001  0.3808  -0.02591  -0.008745  -0.04102  0.01259  0.7325  0.1834
6.501e+09  1.034  0.02127  0.03816  0.009667  -0.008373  0.05131  0.7426  -0.06124
6.502e+09  0.8558  -0.2373  -0.009514  0.02053  -0.003848  0.07981  0.6533  -0.3741
6.504e+09  0.7294  -0.5813  0.009148  -0.03746  0.01179  0.006484  0.5007  -0.5916
6.505e+09  0.5293  -0.8405  0.01779  0.004539  -0.01666  0.006621  0.2918  -0.7056
6.506e+09  0.1208  -0.9568  -0.0005624  -0.02571  0.01061  -0.03227  0.0354  -0.7456
6.508e+09  -0.1236  -0.9576  -0.02973  -0.005629  -0.002144  0.04531  -0.2486  -0.6986
6.509e+09  -0.4794  -0.7942  0.0001316  0.0634  0.03809  0.03931  -0.5337  -0.5758
6.51e+09  -0.7735  -0.6086  -0.02266  -0.03337  0.04068  0.01934  -0.6574  -0.3803
6.511e+09  -0.948  -0.271  0.03467  0.01286  0.001336  0.0293  -0.7212  -0.1299
6.512e+09  -0.983  -0.03655  0.004029  -0.01194  -0.05198  0.01731  -0.7364  0.1174
6.514e+09  -0.9635  0.3502  -0.02013  0.01656  0.01094  0.0532  -0.6053  0.3759
6.515e+09  -0.714  0.6693  0.0291  0.02658  -0.0533  0.0009343  -0.4848  0.6108
6.516e+09  -0.4742  0.8435  0.02574  0.008442  -0.03554  0.01407  -0.2545  0.7293
6.518e+09  -0.1802  0.9327  -0.007692  -0.04749  0.03403  0.02713  -0.01369  0.7199
6.519e+09  0.1901  0.9013  -0.03142  0.03631  -0.006558  0.0041  0.2665  0.6946
6.52e+09  0.5508  0.8052  -0.02875  -0.01654  -0.006882  0.0459  0.5213  0.5634
6.521e+09  0.7714  0.6025  -0.03445  -0.001362  -0.007491  0.01927  0.6812  0.3608
6.522e+09  0.958  0.2863  0.0007437  -0.001021  0.01983  0.02133  0.7504  0.08348
6.524e+09  0.9055  -0.06877  -0.001477  -0.01708  0.00355  0.01344  0.7331  -0.1579
6.525e+09  0.9037  -0.4232  0.01785  -0.04344  0.03342  0.04541  0.6025  -0.3852
6.526e+09  0.6935  -0.7146  0.01837  -0.01221  0.0469  0.008225  0.4416  -0.5635
6.528e+09  0.45  -0.9096  -0.005704  0.001941  0.03648  -0.002975  0.2102  -0.6954
6.529e+09  0.01858  -0.9831  -0.0317  0.01339  -0.04174  0.05968  -0.05299  -0.7234
6.53e+09  -0.3094  -0.9912  -0.04613  0.01851  -0.001359  0.03761  -0.2927  -0.6654
6.531e+09  -0.601  -0.7597  0.02907  -0.000981  -0.03465  -0.05124  -0.4739  -0.4779
6.532e+09  -0.8161  -0.5226  -0.0311  0.0217  -0.01958  0.04149  -0.6082  -0.2929
6.534e+09  -0.9597  -0.2271  0.001603  -0.0387  0.07082  0.05366  -0.6299  -0.1084
6.535e+09  -0.99  0.1517  -0.03888  0.00731  0.02889  0.03239  -0.5873  0.1273
6.536e+09  -0.8803  0.4668  0.01662  -0.006754  0.01027  -0.02592  -0.5826  0.3278
6.538e+09  -0.6356  0.7586  0.01099  -0.0115  0.01084  -0.01106  -0.4863  0.4621
6.539e+09  -0.3162  0.9141  -0.01855  -0.007441  0.0138  0.07317  -0.2759  0.6121
6.54e+09  -0.01477  0.975  0.00171  -0.01327  -0.03884  0.0303  -0.03352  0.6941
6.541e+09  0.3601  0.9054  0.01407  -0.02821  -0.02001  0.02641  0.188  0.6743
6.542e+09  0.6178  0.7227  -0.01214  -0.00538  -0.003411  0.03085  0.4045  0.5866
6.544e+09  0.8945  0.4657  0.01304  0.01715  0.03912  -0.02558  0.6003  0.3975
6.545e+09  1.001  0.1332  0.0003593  0.0006808  -0.009182  -0.01881  0.707  0.1785
6.546e+09  0.9167  -0.2244  -0.01198  0.01751  -0.006269  0.02456  0.7219  -0.09523
6.548e+09  0.7891  -0.5353  0.02342  -0.01126  0.01507  0.02547  0.6598  -0.3386
6.549e+09  0.5605  -0.8346  -0.02301  0.0115  0.02731  0.02541  0.5035  -0.5413
6.55e+09  0.2824  -0.9095  -0.009419  -0.04128  0.009015  -0.08187  0.2721  -0.7015
