# Hz S RI R 50
6.25e+09  -0.1058  0.9133  -0.03373  -0.03809  0.009614  0.00839  0.1504  0.4519
6.251e+09  0.2677  0.8414  0.02038  0.0247  -0.009257  -0.004318  0.3648  0.3919
6.252e+09  0.5  0.6717  -0.005835  -0.02427  -0.03279  -0.0846  0.5401  0.213
6.254e+09  0.7537  0.4443  -0.00784  0.002783  0.04239  -0.009593  0.6271  -0.015
6.255e+09  0.8697  0.1751  0.01685  -0.0189  -3.274e-06  0.005948  0.6345  -0.2429
6.256e+09  0.8867  -0.1306  0.003426  0.0288  0.04879  0.02501  0.4359  -0.4078
6.258e+09  0.766  -0.4041  0.02603  0.04361  0.004641  -0.001338  0.2853  -0.6065
6.259e+09  0.5773  -0.6397  -0.001507  0.04049  -0.03631  -0.02385  0.05264  -0.6442
6.26e+09  0.3488  -0.7769  -0.02028  0.004578  0.06135  -0.01812  -0.2  -0.6826
6.261e+09  -0.001549  -0.8255  -0.01791  0.002388  0.01677  -0.01016  -0.4508  -0.5517
6.262e+09  -0.2815  -0.8228  -0.005761  0.0006396  0.01698  -0.05768  -0.6149  -0.3856
6.264e+09  -0.526  -0.6898  -0.02032  -0.005177  -0.03081  -0.01417  -0.7008  -0.1063
6.265e+09  -0.7827  -0.4941  0.03904  0.00683  -0.02619  0.02462  -0.698  0.1538
6.266e+09  -0.8487  -0.2424  -0.001535  -0.00238  0.006081  0.01066  -0.5963  0.3506
6.268e+09  -0.823  0.08415  -0.007372  0.01301  -0.01509  -0.007595  -0.4291  0.5963
6.269e+09  -0.7787  0.3871  0.01201  -0.006167  -0.004634  -0.05534  -0.1929  0.73
6.27e+09  -0.6091  0.6637  0.01057  0.01776  -0.01525  -0.02816  0.0595  0.7485
6.271e+09  -0.3066  0.7877  -0.01736  -0.01446  -0.05974  -0.02491  0.341  0.6632
6.272e+09  -0.01925  0.8659  0.01169  0.02968  -0.01734  0.007741  0.5428  0.5385
6.274e+09  0.2648  0.7671  0.007564  -0.01093  -0.016  0.005789  0.7081  0.3062
6.275e+09  0.597  0.641  -0.001948  -0.02745  -0.02913  0.02206  0.7719  0.05191
6.276e+09  0.7019  0.4357  0.004751  -0.01175  -0.04822  -0.04958  0.7201  -0.2024
6.278e+09  0.8582  0.1485  -0.02789  -0.02395  -0.01006  0.00287  0.6069  -0.4599
6.279e+09  0.8437  -0.1417  0.002671  -0.02545  0.0329  0.0001805  0.4243  -0.6372
6.28e+09  0.7117  -0.3485  -0.0286  -0.003678  0.02674  -0.005809  0.1683  -0.7724
6.281e+09  0.5805  -0.6349  0.02212  0.03839  0.03369  -0.05019  -0.1231  -0.7352
6.282e+09  0.2468  -0.7814  -0.004709  -0.00574  -0.01163  -0.01398  -0.3536  -0.7156
6.284e+09  -0.01613  -0.8916  -0.01358  0.02163  -0.01547  -0.008778  -0.5877  -0.5228
6.285e+09  -0.2769  -0.7467  0.0176  -0.003681  0.006929  0.01545  -0.7367  -0.2895
6.286e+09  -0.5727  -0.6254  0.02814  -0.03158  0.03076  0.0188  -0.7875  -0.008086
6.288e+09  -0.7209  -0.4116  0.007428  0.02406  -0.02559  -0.03953  -0.7381  0.2379
6.289e+09  -0.8731  -0.1198  0.002956  0.002646  -0.01943  -0.08393  -0.634  0.4947
6.29e+09  -0.7564  0.1515  0.01741  0.0318  -0.02636  -0.002455  -0.4121  0.6995
6.291e+09  -0.7411  0.4559  0.01485  0.01465  0.03078  0.003987  -0.1564  0.7901
6.292e+09  -0.5276  0.6461  -0.03092  0.008824  0.03447  -0.003929  0.125  0.8112
6.294e+09  -0.2466  0.8  0.01162  -0.02327  -0.02699  -0.01357  0.4181  0.7262
6.295e+09  0.05431  0.8362  0.02941  -0.02813  -0.04311  -0.04612  0.6387  0.5331
6.296e+09  0.3254  0.7811  -0.01676  0.01202  -0.01742  -0.03195  0.7557  0.2891
6.298e+09  0.6103  0.6717  -0.009024  0.01445  0.002429  -0.0131  0.8317  0.003042
6.299e+09  0.7449  0.365  -0.00155  0.005968  -0.03566  0.01684  0.784  -0.2759
6.3e+09  0.8197  0.03024  -0.0003293  -0.04135  0.02197  0.002191  0.6546  -0.5317
6.301e+09  0.8079  -0.1931  0.02479  -0.007105  -0.0206  -0.07001  0.3792  -0.7195
6.302e+09  0.6988  -0.4983  -0.009405  -0.008524  -0.004526  0.002834  0.1514  -0.8116
6.304e+09  0.4335  -0.668  0.00503  -0.01071  0.0542  0.02663  -0.1478  -0.8214
6.305e+09  0.2046  -0.8315  -0.01913  -0.01972  -0.01625  -0.001504  -0.3806  -0.7405
6.306e+09  -0.09797  -0.8402  0.0413  -0.01595  -0.03289  -0.003828  -0.6274  -0.5586
6.308e+09  -0.4248  -0.7422  0.01476  0.005256  -0.009203  -0.008201  -0.8084  -0.3061
6.309e+09  -0.6155  -0.5286  -0.007476  -0.0221  -0.02775  -0.02169  -0.8468  -0.009655
6.31e+09  -0.7974  -0.3019  0.004139  -0.01036  0.01303  -0.0142  -0.8155  0.2778
6.311e+09  -0.8755  -0.004774  -0.001768  -0.01071  0.009519  0.03091  -0.7028  0.5682
6.312e+09  -0.808  0.2635  0.03648  0.01315  -0.003099  0.006537  -0.4206  0.77
6.314e+09  -0.686  0.5494  0.01661  0.02487  -0.004676  -0.02642  -0.1485  0.8324
6.315e+09  -0.4407  0.7825  0.00923  -0.001633  -0.006224  -0.07392  0.1327  0.8762
6.316e+09  -0.1681  0.8774  -0.003609  -0.01624  0.01145  -0.0268  0.4219  0.7621
6.318e+09  0.1501  0.8484  0.01864  0.007756  0.02177  -0.03613  0.669  0.5737
6.319e+09  0.4522  0.712  0.007956  -0.009967  -0.004773  -0.0008027  0.8202  0.3016
6.32e+09  0.685  0.545  -0.002951  0.01959  -0.03112  -0.03561  0.9048  0.04015
6.321e+09  0.7833  0.2988  0.003609  0.006448  -0.006164  -0.03194  0.8085  -0.3064
6.322e+09  0.9085  -0.05203  0.002586  -0.0006043  -0.02564  -0.0007614  0.7096  -0.5437
6.324e+09  0.7644  -0.2875  -0.02821  -0.01421  -0.05033  0.0137  0.4688  -0.7492
6.325e+09  0.6392  -0.5589  -0.02234  -0.02193  -0.09266  -0.01062  0.1675  -0.875
6.326e+09  0.385  -0.7324  0.01341  0.0125  0.05644  -0.008086  -0.1351  -0.8877
6.328e+09  0.05846  -0.8787  -0.02017  0.003615  -0.06473  -0.01015  -0.4156  -0.7648
6.329e+09  -0.2432  -0.8076  -0.01049  -0.005391  -0.03998  -0.02307  -0.6815  -0.6112
6.33e+09  -0.4996  -0.7531  -0.006224  0.02343  -0.002751  0.03756  -0.8307  -0.2996
6.331e+09  -0.7115  -0.5038  0.01769  -0.03838  -0.01999  -0.01091  -0.8901  -0.02403
6.332e+09  -0.808  -0.2427  0.008643  0.005318  -0.03601  -0.0004431  -0.8687  0.3045
6.334e+09  -0.8429  0.0995  -0.00359  -0.007297  -0.001768  -0.01992  -0.6961  0.5796
6.335e+09  -0.8111  0.3713  -0.02389  -0.03264  -0.02273  0.02837  -0.4904  0.7807
6.336e+09  -0.6272  0.6058  0.02562  0.001161  0.01675  -0.06139  -0.169  0.9119
6.338e+09  -0.3286  0.8357  0.005324  0.03228  0.0355  0.01956  0.1605  0.9212
6.339e+09  -0.02612  0.8846  0.03526  0.008317  -0.02293  -0.02209  0.4465  0.8458
6.34e+09  0.2555  0.8246  -0.01051  0.05527  -0.007127  -0.003495  0.6523  0.602
6.341e+09  0.507  0.6682  0.03581  0.03402  0.02027  0.01457  0.8674  0.3811
6.342e+09  0.7016  0.5046  0.01304  0.04494  0.01302  -0.006541  0.941  0.0378
6.344e+09  0.8387  0.1754  0.01924  -0.02672  -0.009012  -0.0255  0.9166  -0.248
6.345e+09  0.8968  -0.1714  0.0279  -0.01755  0.0184  -0.0521  0.7407  -0.576
6.346e+09  0.783  -0.4185  -0.03374  0.04664  -0.01685  0.01241  0.4753  -0.8021
6.348e+09  0.6013  -0.7051  -0.004943  0.01247  -0.01299  -0.01067  0.2244  -0.9372
6.349e+09  0.2897  -0.8298  0.0182  0.01776  0.01695  -0.03672  -0.08571  -0.8963
6.35e+09  -0.04058  -0.89  -0.02135  0.001305  0.003617  -0.00283  -0.44  -0.8209
6.351e+09  -0.3223  -0.853  -0.01176  -0.02843  -0.03815  0.003636  -0.7106  -0.6362
6.352e+09  -0.6068  -0.7092  -0.03399  0.002303  -0.0369  -0.04393  -0.8705  -0.3586
6.354e+09  -0.7829  -0.4607  -0.0209  -0.005382  0.05353  0.008674  -0.975  -0.08286
6.355e+09  -0.9055  -0.1567  0.004384  -0.03727  -0.01406  -0.005501  -0.8944  0.2457
6.356e+09  -0.8744  0.1884  0.002553  -0.02848  -0.01507  0.05341  -0.7463  0.5468
6.358e+09  -0.7698  0.465  -0.02485  0.007862  -0.00328  0.006525  -0.5448  0.7894
6.359e+09  -0.5615  0.7209  0.01152  0.02163  -0.006059  -0.04239  -0.2545  0.9501
6.36e+09  -0.2046  0.8625  -0.01416  -0.008067  0.01825  0.006608  0.08818  0.951
6.361e+09  0.1285  0.9138  0.01189  0.01579  -0.02049  -0.01128  0.427  0.8201
6.362e+09  0.4123  0.8351  -0.03016  -0.01132  -0.01382  -0.01636  0.6478  0.7263
6.364e+09  0.5963  0.6056  -0.01993  -0.04793  -0.002419  -0.01359  0.8371  0.3792
6.365e+09  0.8585  0.3548  0.002742  0.03628  -0.02317  -0.009518  0.9253  0.04431
6.366e+09  0.8771  0.0243  -0.02613  0.01994  0.03896  -0.01769  0.9254  -0.2589
6.368e+09  0.8852  -0.2091  -0.005716  -0.01496  -0.03024  0.01346  0.771  -0.5579
6.369e+09  0.7099  -0.5281  -0.01641  0.05352  -0.007115  -0.008304  0.5263  -0.8079
6.37e+09  0.473  -0.746  -0.003414  -0.01021  0.0106  0.04493  0.2548  -0.9333
6.371e+09  0.1535  -0.8409  0.02775  0.005351  -0.008435  -0.04472  -0.1277  -0.9626
6.372e+09  -0.1406  -0.8778  0.004309  -0.009395  -0.0007883  -0.03393  -0.3959  -0.8441
6.374e+09  -0.3811  -0.7762  0.001376  -0.02818  0.003619  0.04039  -0.6463  -0.6677
6.375e+09  -0.6893  -0.6419  -0.03814  -0.004846  0.07047  -0.003782  -0.8766  -0.4036
6.376e+09  -0.842  -0.2745  -0.002836  0.0208  -0.03901  -0.01871  -0.9317  -0.0946
6.378e+09  -0.9086  -0.05739  -0.006777  -0.01469  -0.009568  0.003782  -0.9221  0.2333
6.379e+09  -0.8473  0.2752  -0.001164  -0.03639  -0.04393  0.02184  -0.8204  0.5191
6.38e+09  -0.6969  0.5421  -0.001379  0.004902  -0.007247  -0.007223  -0.5953  0.7672
6.381e+09  -0.4344  0.7712  -0.006748  -0.02668  0.04492  0.008964  -0.2643  0.9152
6.382e+09  -0.1894  0.905  0.03602  0.03158  0.04105  0.001852  0.03771  0.9626
6.384e+09  0.1761  0.8826  0.001924  0.03629  0.01973  0.02036  0.4125  0.852
6.385e+09  0.4686  0.7898  -0.01866  0.009439  0.0143  -0.005807  0.6289  0.6867
6.386e+09  0.7023  0.5486  -0.007584  -0.06466  0.007048  -0.0687  0.8605  0.4208
6.388e+09  0.918  0.3332  0.03378  -0.004958  0.01427  -0.003313  0.9445  0.08568
6.389e+09  0.9456  -0.005222  0.01406  0.007129  -0.007246  -0.02864  0.894  -0.219
6.39e+09  0.8323  -0.3179  0.01011  -0.01879  -0.002369  -0.05181  0.7988  -0.54
6.391e+09  0.6827  -0.623  0.0124  0.03353  0.009362  0.01429  0.5976  -0.7241
6.392e+09  0.5249  -0.7666  -0.01702  -0.01485  -0.03516  0.02842  0.2846  -0.8975
6.394e+09  0.1319  -0.8902  -0.002825  -0.01931  -0.03789  0.04719  0.0196  -0.9421
6.395e+09  -0.159  -0.8974  -0.01033  0.0008169  -0.02591  -0.007768  -0.3996  -0.8635
6.396e+09  -0.4423  -0.7239  -0.003265  0.02702  0.01453  -0.001891  -0.6105  -0.7014
6.398e+09  -0.7306  -0.5342  0.02779  -0.004725  -0.0296  0.01361  -0.789  -0.4231
6.399e+09  -0.8399  -0.3124  0.002708  -0.009071  0.006237  -0.02305  -0.8891  -0.1511
6.4e+09  -0.9339  0.02124  -0.01134  0.01591  -0.004719  -0.02179  -0.9757  0.1855
6.401e+09  -0.7797  0.323  -0.0001025  0.01544  0.004484  -0.02536  -0.8272  0.4634
6.402e+09  -0.6176  0.5333  -0.0283  0.02463  -0.01247  0.05965  -0.5827  0.712
6.404e+09  -0.4396  0.7655  0.03343  0.03311  -0.01895  -0.001808  -0.3366  0.8965
6.405e+09  -0.1643  0.8588  0.03637  0.02139  -0.003046  -0.003559  0.01156  0.9412
6.406e+09  0.1958  0.8845  -0.03723  -0.001026  -0.02855  0.01774  0.3781  0.8398
6.408e+09  0.5254  0.7123  -0.02794  0.0139  -0.02112  -0.02856  0.6082  0.7172
6.409e+09  0.7096  0.5156  -0.006529  0.01271  -0.01372  -0.01041  0.7717  0.4792
6.41e+09  0.8288  0.2764  -0.06605  0.04572  0.007117  0.01941  0.9293  0.1488
6.411e+09  0.88  -0.003114  -0.004308  0.04613  0.005415  -0.005299  0.9336  -0.1256
6.412e+09  0.8622  -0.3856  -0.01196  -0.03466  -0.0388  -0.03414  0.7603  -0.4328
6.414e+09  0.6501  -0.6222  -0.003303  0.006645  -0.02621  -0.06242  0.6385  -0.7183
6.415e+09  0.4092  -0.7917  -0.01645  0.0226  -0.02731  0.02877  0.3587  -0.8288
6.416e+09  0.08511  -0.9053  -0.007439  -0.01512  0.004335  -0.01843  0.01402  -0.8717
6.418e+09  -0.2384  -0.8826  0.0333  0.01441  0.02288  0.03012  -0.2958  -0.8566
6.419e+09  -0.489  -0.7885  0.007649  -0.02832  0.01355  -0.007942  -0.5568  -0.6808
6.42e+09  -0.7276  -0.5195  -0.01132  -0.0257  0.01329  -0.003831  -0.7421  -0.5182
6.421e+09  -0.8971  -0.2524  -0.01217  0.02479  -0.02624  -0.02298  -0.866  -0.1941
6.422e+09  -0.9039  0.08085  0.009086  0.03355  -0.06983  0.01643  -0.8839  0.1295
6.424e+09  -0.8461  0.3549  0.02448  -0.01599  -0.02614  0.009795  -0.813  0.3647
6.425e+09  -0.6558  0.6411  0.04522  -0.03552  0.0131  -0.02367  -0.602  0.6488
6.426e+09  -0.3669  0.7734  0.0132  0.003751  0.04295  0.02755  -0.3199  0.7623
6.428e+09  -0.07425  0.8662  -0.002793  0.02663  -0.02693  -0.002434  -0.04352  0.8734
6.429e+09  0.2871  0.8787  -0.01763  0.009863  0.01811  0.01047  0.2698  0.8981
6.43e+09  0.5016  0.7192  -0.01282  5.303e-05  -0.00517  -0.04059  0.4946  0.7405
6.431e+09  0.7546  0.4714  -0.01752  -0.008002  0.03054  0.01038  0.6864  0.4686
6.432e+09  0.8637  0.2166  -0.005764  0.03065  0.002099  0.03676  0.8494  0.202
6.434e+09  0.8749  -0.1042  0.04545  -0.01804  0.04948  0.002753  0.8526  -0.06622
6.435e+09  0.8008  -0.4462  0.03022  -0.01169  0.007228  0.02746  0.7615  -0.3334
6.436e+09  0.6108  -0.6773  -0.05865  -0.004995  0.01801  0.0159  0.6134  -0.5971
6.438e+09  0.3802  -0.8233  -0.02345  -0.03197  -0.031  -0.009256  0.3094  -0.8056
6.439e+09  0.01346  -0.8975  0.003065  -0.03283  -0.01076  0.02649  0.04989  -0.826
6.44e+09  -0.3124  -0.8265  0.003457  -0.01957  0.01478  -0.01879  -0.2364  -0.7875
6.441e+09  -0.5129  -0.698  -0.03939  0.02637  -0.01802  0.01991  -0.4876  -0.7096
6.442e+09  -0.7573  -0.4631  0.01244  0.0257  -0.009218  -0.02926  -0.725  -0.4539
6.444e+09  -0.9357  -0.1747  0.01027  0.000783  -0.01422  -0.02347  -0.8377  -0.1914
6.445e+09  -0.9124  0.1347  -0.002113  -0.003078  0.02278  -0.02005  -0.8413  0.04505
6.446e+09  -0.7635  0.3929  0.03444  -0.01029  -0.03605  0.008157  -0.7673  0.3832
6.448e+09  -0.6023  0.6858  0.02298  -0.007136  -0.005252  0.03241  -0.5551  0.5812
6.449e+09  -0.343  0.8727  0.009597  0.03607  0.02524  0.02956  -0.3777  0.7441
6.45e+09  -0.04804  0.9468  -0.0169  0.01492  -0.004245  -0.01853  -0.1001  0.803
6.451e+09  0.3239  0.844  -0.003205  -0.02509  0.0173  0.03275  0.1796  0.8299
6.452e+09  0.5765  0.7424  -0.01788  -0.009151  -0.002395  0.04302  0.4946  0.6952
6.454e+09  0.7967  0.4436  0.01325  0.005539  0.02467  0.04481  0.691  0.4431
6.455e+09  0.8894  0.1281  0.03748  0.0003545  -0.01099  -0.005763  0.7616  0.2374
6.456e+09  0.9221  -0.1174  -0.008961  -0.05127  -0.01271  0.001618  0.8675  -0.04632
6.458e+09  0.8071  -0.4818  0.007024  0.007697  -0.07031  0.003575  0.7267  -0.3285
6.459e+09  0.5288  -0.7123  0.01514  0.01559  -0.01023  0.02909  0.5747  -0.6048
6.46e+09  0.2961  -0.8989  -0.01319  -0.002714  -0.03831  -0.002476  0.3766  -0.7695
6.461e+09  -0.05081  -0.9029  -0.01131  0.00179  -0.009176  0.06124  0.08679  -0.7874
6.462e+09  -0.3135  -0.8901  0.03174  0.002312  0.0007985  0.02357  -0.2075  -0.8008
6.464e+09  -0.5737  -0.699  -0.01019  0.03628  -0.002981  -0.003074  -0.4201  -0.674
6.465e+09  -0.8326  -0.4257  0.01924  0.02284  -0.08464  0.03271  -0.6909  -0.4481
6.466e+09  -0.9561  -0.1115  -0.001485  0.01829  0.04586  -0.00625  -0.753  -0.1904
6.468e+09  -0.8797  0.2127  0.01018  0.008267  0.03402  -0.004087  -0.7788  0.0719
6.469e+09  -0.7773  0.47  -0.01713  0.01749  -0.02581  0.02771  -0.7457  0.3413
6.47e+09  -0.5261  0.7692  0.0003016  -0.02928  -0.0008027  0.0002105  -0.5411  0.573
6.471e+09  -0.2211  0.8839  0.02337  0.01795  0.02114  0.01826  -0.3473  0.723
6.472e+09  0.04692  0.9385  -0.01254  -0.01095  -0.0009973  0.0594  -0.07302  0.8129
6.474e+09  0.4157  0.82  -0.01848  0.02531  -0.005002  -0.02509  0.2164  0.8202
6.475e+09  0.6534  0.6251  0.0004095  0.04177  -0.01412  0.01839  0.4437  0.6003
6.476e+09  0.8345  0.4001  -0.004724  -0.01789  -0.0005535  0.01293  0.6664  0.4641
6.478e+09  0.9636  0.09162  0.005946  -0.03358  -0.03687  0.008044  0.7534  0.2195
6.479e+09  0.878  -0.2669  -0.02243  0.02575  0.01949  0.0212  0.7842  -0.08046
6.48e+09  0.7834  -0.5544  -0.005829  -0.03964  0.009523  0.007502  0.6859  -0.345
6.481e+09  0.521  -0.8198  -0.01311  0.006094  0.001864  -0.005725  0.563  -0.5391
6.482e+09  0.2453  -0.9049  -0.003737  0.03868  0.03773  0.02478  0.3252  -0.6949
6.484e+09  -0.1027  -0.8939  -0.01487  -0.01328  -0.02847  0.002062  0.04741  -0.8033
6.485e+09  -0.4302  -0.8344  -0.01107  -0.008785  -0.01231  -0.001291  -0.1583  -0.7529
6.486e+09  -0.7598  -0.6777  -0.0002674  0.03074  0.02356  0.02232  -0.4842  -0.6365
6.488e+09  -0.8739  -0.3009  0.001329  -0.003725  0.04811  -0.0003218  -0.6234  -0.4083
6.489e+09  -0.9712  -0.001183  -0.01842  -0.0007691  0.0539  -0.04023  -0.7605  -0.2339
6.49e+09  -0.8764  0.346  0.02304  -0.00019  0.0007257  0.00297  -0.7652  0.08379
6.491e+09  -0.7538  0.6388  0.01254  -0.007988  0.01629  -0.04037  -0.6667  0.3597
6.492e+09  -0.5323  0.8335  0.002423  0.03704  -0.01747  -0.03121  -0.5005  0.5747
6.494e+09  -0.1329  0.9463  0.006332  0.03584  0.02734  -0.000302  -0.2862  0.7242
6.495e+09  0.1577  0.9376  0.02292  -0.003719  -0.01901  -0.04613  -0.04482  0.7918
6.496e+09  0.5059  0.8096  0.001757  -0.01108  -0.04964  0.01648  0.2143  0.7307
6.498e+09  0.7253  0.5745  -0.000707  -0.009437  -0.03397  -0.002315  0.466  0.6134
6.499e+09  0.9531  0.2705  -0.009074  -0.0317  0.03213  -0.03046  0.643  0.3986
6.5e+09  0.9317  -0.08792  -0.02296  -0.02851  -0.02758  0.04657  0.7184  0.1619
6.501e+09  0.8514  -0.4692  0.02711  -0.0309  -0.001279  -0.008696  0.7725  -0.1084
6.502e+09  0.7363  -0.6698  0.01404  -0.004398  -0.04211  0.007566  0.6545  -0.3696
6.504e+09  0.3872  -0.9276  0.02545  0.008288  0.03695  0.002181  0.4979  -0.5943
6.505e+09  0.04674  -0.9572  0.00559  -0.02242  0.02146  -0.0155  0.279  -0.6851
6.506e+09  -0.1834  -0.9486  0.02454  -0.04322  -0.03058  -0.008805  0.03927  -0.737
6.508e+09  -0.5771  -0.8101  0.02517  -0.01476  -0.02612  -0.04411  -0.2584  -0.7238
6.509e+09  -0.7836  -0.5212  -0.008241  0.02502  -0.05157  -0.02048  -0.4833  -0.6086
6.51e+09  -0.8919  -0.1844  0.04086  -0.01661  -0.01194  -0.01813  -0.6313  -0.3743
6.511e+09  -0.9887  0.1542  0.001111  0.03631  -0.01374  -0.003578  -0.7298  -0.1348
6.512e+09  -0.8721  0.4345  0.006654  -0.01474  -0.03462  -0.03514  -0.744  0.1017
6.514e+09  -0.6382  0.7829  -0.02297  0.02244  0.02436  0.01767  -0.6797  0.3752
6.515e+09  -0.3367  0.8898  0.03599  -0.01759  0.006901  -0.01518  -0.4685  0.5798
6.516e+09  0.04173  0.9849  0.002808  0.02292  0.04487  -0.0624  -0.2344  0.7003
6.518e+09  0.3446  0.8592  -0.02575  0.01745  0.04197  0.02346  0.03755  0.7339
6.519e+09  0.6314  0.6912  0.01267  -0.02592  -0.02641  0.006571  0.2804  0.6701
6.52e+09  0.9012  0.4246  0.001773  -0.002139  0.04429  -0.008526  0.5009  0.5439
6.521e+09  0.9646  0.07636  0.03687  0.01583  0.02762  0.02612  0.6602  0.3523
6.522e+09  0.9063  -0.243  -0.006872  -0.00342  0.0138  0.04139  0.7333  0.1285
6.524e+09  0.7863  -0.5451  0.02279  -0.002708  -0.03581  0.003286  0.7306  -0.1879
6.525e+09  0.5501  -0.7809  0.03278  -0.02037  0.02443  0.02467  0.6316  -0.405
6.526e+09  0.2485  -0.9041  -0.02172  0.000797  0.003445  -0.003047  0.4342  -0.5672
6.528e+09  -0.1518  -0.9068  0.00766  -0.002849  -0.0177  0.04751  0.2289  -0.7102
6.529e+09  -0.4423  -0.8212  -0.007838  -0.001163  -0.01131  0.02971  -0.06096  -0.6795
6.53e+09  -0.7543  -0.643  -0.01294  -0.03292  0.03648  -0.005821  -0.2795  -0.6274
6.531e+09  -0.8744  -0.3323  0.02261  0.003146  -0.02494  -0.0396  -0.5059  -0.4735
6.532e+09  -0.9942  0.03168  0.005707  0.01258  -0.03304  -0.01745  -0.6147  -0.26
6.534e+09  -0.8753  0.3233  -0.0415  -0.02024  -0.0196  -0.04905  -0.6812  -0.09895
6.535e+09  -0.6959  0.6262  0.00359  -0.008562  0.007962  0.02396  -0.6557  0.1015
6.536e+09  -0.4162  0.8664  -0.008431  -0.01527  0.009919  -0.03868  -0.5237  0.2785
6.538e+09  -0.07677  0.9074  0.006304  0.003673  0.06956  -0.005096  -0.4059  0.4797
6.539e+09  0.2637  0.9231  0.02288  -0.01685  -0.05188  -0.008992  -0.294  0.6202
6.54e+09  0.4908  0.758  0.01302  0.03271  -0.03204  0.01157  -0.07106  0.7004
6.541e+09  0.7438  0.5139  0.002266  0.002696  0.01147  0.01724  0.1663  0.6839
6.542e+09  0.8468  0.2813  -0.006726  0.00929  0.01735  0.02416  0.4165  0.5879
6.544e+09  0.897  -0.0978  0.007782  0.01802  -0.007259  0.0142  0.5633  0.4033
6.545e+09  0.7956  -0.3952  0.01213  -0.01339  0.03385  -0.06775  0.6785  0.1612
6.546e+09  0.5648  -0.6169  0.02531  -0.02828  0.00613  -0.003636  0.7536  -0.08049
6.548e+09  0.3343  -0.8502  -0.003138  -0.01202  0.04066  -0.01619  0.6469  -0.3423
6.549e+09  -0.001566  -0.9  0.01142  -0.01147  0.0148  0.008853  0.5089  -0.5394
