# Hz S RI R 50
6.25e+09  -0.2175  0.8638  0.007908  0.01469  -0.000522  -0.007281  0.1553  0.4952
6.251e+09  0.06554  0.8877  -0.004427  -0.01745  0.0318  -0.02701  0.3842  0.4097
6.252e+09  0.4265  0.7637  -0.02398  -0.00922  0.0003428  0.0008257  0.5048  0.2559
6.254e+09  0.6096  0.6043  -0.002339  0.006954  0.0001847  -0.04312  0.6237  0.01731
6.255e+09  0.8117  0.3423  0.02279  0.01484  -0.01542  0.03095  0.5807  -0.2535
6.256e+09  0.8197  -0.002728  0.006923  -0.01305  0.01289  -0.05522  0.4378  -0.4409
6.258e+09  0.8527  -0.256  -0.03644  -0.007716  0.01859  -0.04067  0.2793  -0.6279
6.259e+09  0.691  -0.4718  -0.01924  0.04622  -0.01986  0.01601  0.04169  -0.6578
6.26e+09  0.4474  -0.6767  -0.01073  0.004526  0.001056  0.04915  -0.2149  -0.6626
6.261e+09  0.1988  -0.8572  -0.003673  0.01467  0.02449  -0.02573  -0.4405  -0.5383
6.262e+09  -0.1435  -0.8403  0.007446  -6.121e-05  0.01618  -0.03539  -0.626  -0.3324
6.264e+09  -0.4086  -0.7756  -0.002355  -0.01138  0.02164  0.00513  -0.7262  -0.1286
6.265e+09  -0.6135  -0.6177  0.02005  -0.01974  0.01851  -0.003503  -0.6909  0.1414
6.266e+09  -0.7462  -0.3706  0.03018  0.0231  0.02109  -0.05118  -0.6384  0.3595
6.268e+09  -0.8417  -0.04656  0.006575  0.01335  0.008032  -0.0136  -0.4487  0.5803
6.269e+09  -0.8401  0.2682  -0.01094  -0.01748  0.01738  -0.02489  -0.1923  0.6973
6.27e+09  -0.7124  0.4959  -0.0004467  0.0009611  -0.02012  0.003094  0.09126  0.7453
6.271e+09  -0.4528  0.7005  -0.03136  0.01095  -0.03806  -0.002354  0.3495  0.6794
6.272e+09  -0.182  0.7647  -0.004074  0.01336  -0.01681  -0.03193  0.546  0.5261
6.274e+09  0.12  0.7989  -0.006911  0.007288  0.01484  -0.02123  0.7135  0.3135
6.275e+09  0.3808  0.7431  -0.005659  -0.006343  -0.01333  -0.005685  0.744  0.06413
6.276e+09  0.602  0.5285  -0.00561  0.03436  0.005429  0.04199  0.7279  -0.206
6.278e+09  0.7999  0.3067  0.02666  0.002614  -0.00363  -0.003839  0.6051  -0.4626
6.279e+09  0.8433  -0.002516  -0.01381  -0.01215  0.05013  -0.009257  0.41  -0.6686
6.28e+09  0.7723  -0.2893  0.03554  0.02614  0.002518  -0.04568  0.1939  -0.7522
6.281e+09  0.6212  -0.5559  0.0006491  0.02291  -0.05218  0.003453  -0.1126  -0.7914
6.282e+09  0.4053  -0.7063  0.004235  -0.02149  -0.02258  -0.005063  -0.3443  -0.6985
6.284e+09  0.1397  -0.8278  -0.04709  0.0282  0.05441  0.004157  -0.5902  -0.5237
6.285e+09  -0.1725  -0.7955  -0.009261  0.01231  -0.03516  0.006405  -0.7542  -0.2819
6.286e+09  -0.4026  -0.7354  -0.0293  -0.004431  0.01555  -0.01324  -0.7496  0.001496
6.288e+09  -0.6476  -0.5083  -0.02041  -0.00718  0.05077  -0.02403  -0.7604  0.2644
6.289e+09  -0.7941  -0.2992  -0.004145  0.009527  -0.04485  -0.008759  -0.6251  0.5317
6.29e+09  -0.8262  0.06187  -0.0305  0.01119  -0.007165  0.01864  -0.4158  0.6823
6.291e+09  -0.7822  0.3598  0.003949  0.001028  -0.01124  -0.01719  -0.1347  0.7752
6.292e+09  -0.6262  0.5809  0.003015  0.003118  -0.003623  0.008821  0.1261  0.7621
6.294e+09  -0.3828  0.7373  0.02323  0.02389  0.04847  0.01237  0.3905  0.7268
6.295e+09  -0.1176  0.8373  0.03554  0.008384  0.01598  0.02136  0.6227  0.5351
6.296e+09  0.1801  0.8304  0.02148  -0.01111  0.01176  0.00869  0.7803  0.306
6.298e+09  0.4722  0.7007  0.007818  -0.0007067  -0.00488  -0.007562  0.8458  0.0006209
6.299e+09  0.6894  0.5231  0.02346  0.01297  -0.02793  0.006302  0.7715  -0.2712
6.3e+09  0.7749  0.2238  -0.007251  0.02154  -0.0429  -0.01138  0.6325  -0.5276
6.301e+09  0.8413  -0.02976  -0.02172  0.02343  0.02004  -0.02286  0.414  -0.6889
6.302e+09  0.7231  -0.3916  0.01573  0.01413  0.02334  -0.007977  0.156  -0.8477
6.304e+09  0.6072  -0.6364  -0.0304  0.00614  0.01188  -0.008373  -0.1496  -0.8428
6.305e+09  0.3633  -0.8017  0.006844  0.003436  0.008325  0.04696  -0.4105  -0.757
6.306e+09  0.07492  -0.7645  -0.01064  -0.02393  0.005122  -0.02115  -0.6591  -0.5299
6.308e+09  -0.2165  -0.8006  0.006034  0.00419  0.001535  -0.01739  -0.7907  -0.3027
6.309e+09  -0.5171  -0.6828  -0.01234  -0.02774  -0.02381  0.02026  -0.8761  -0.0126
6.31e+09  -0.6777  -0.4741  0.002576  0.01176  0.006254  0.01374  -0.78  0.259
6.311e+09  -0.7621  -0.2075  -0.01201  0.0168  -0.0141  -0.01246  -0.6922  0.5619
6.312e+09  -0.8779  0.1642  0.006903  0.00401  -0.02718  0.03415  -0.4292  0.7132
6.314e+09  -0.766  0.3804  7.261e-05  0.003337  -0.03507  -0.008001  -0.1698  0.8633
6.315e+09  -0.5538  0.6263  0.003496  -0.02342  -0.008091  -0.02552  0.1196  0.8533
6.316e+09  -0.334  0.7706  0.00705  -0.03644  0.01555  -0.008732  0.4479  0.7438
6.318e+09  0.01479  0.842  0.02522  0.0359  -0.066  0.01493  0.6553  0.6132
6.319e+09  0.2864  0.8138  -0.01151  0.01037  -0.002162  -0.01765  0.8282  0.298
6.32e+09  0.5713  0.7221  -0.02572  -0.00162  0.04373  0.05113  0.8762  0.0195
6.321e+09  0.7301  0.398  0.02186  0.01521  0.03417  0.009789  0.8297  -0.3003
6.322e+09  0.8456  0.1751  0.0207  0.002037  0.04521  -0.002342  0.6919  -0.5591
6.324e+09  0.8692  -0.1561  -0.02657  0.008184  0.002187  0.003529  0.4639  -0.7558
6.325e+09  0.7759  -0.4416  0.03499  0.002627  -0.009629  -0.001535  0.1499  -0.8731
6.326e+09  0.5878  -0.6241  0.01773  -0.01205  0.02641  0.01556  -0.1143  -0.8947
6.328e+09  0.269  -0.8476  0.01681  -0.008673  0.009377  0.01603  -0.4629  -0.8081
6.329e+09  0.03839  -0.881  -0.00584  -0.0158  0.01101  -0.0002518  -0.6714  -0.5795
6.33e+09  -0.3142  -0.8161  -0.01742  0.02263  -0.005362  0.0183  -0.8735  -0.3409
6.331e+09  -0.5594  -0.6804  -0.007883  0.0145  0.02159  -0.04597  -0.9016  -0.05106
6.332e+09  -0.7881  -0.3868  0.01068  -0.008032  -0.01183  0.0274  -0.8581  0.2764
6.334e+09  -0.8533  -0.06096  -0.02703  0.004043  0.0155  0.01601  -0.7347  0.5591
6.335e+09  -0.8441  0.2273  -0.003589  0.02104  -0.01628  0.01739  -0.5116  0.7716
6.336e+09  -0.7329  0.512  -0.01098  0.01615  0.019  -0.01118  -0.1887  0.8866
6.338e+09  -0.5511  0.722  0.006232  -0.005202  -0.03347  -0.0008014  0.132  0.8882
6.339e+09  -0.2693  0.8269  -0.01902  -0.00892  0.002956  -0.03443  0.4259  0.8205
6.34e+09  0.1133  0.9169  0.00489  -0.0102  -0.02041  0.002521  0.6643  0.6107
6.341e+09  0.4106  0.8291  -0.02472  -0.007817  -0.05535  0.03491  0.8546  0.3727
6.342e+09  0.644  0.617  0.001272  -0.004236  -0.02521  0.01537  0.9029  0.04419
6.344e+09  0.8051  0.3554  0.01187  0.005418  -0.009263  0.04526  0.8955  -0.2672
6.345e+09  0.9129  0.05256  -0.01819  0.0488  -0.01176  -0.006682  0.7578  -0.5584
6.346e+09  0.8567  -0.2166  0.007636  -0.01321  -0.02415  -0.02298  0.4861  -0.7663
6.348e+09  0.6926  -0.595  -0.003602  0.02164  -0.02843  -0.02357  0.2159  -0.8882
6.349e+09  0.4625  -0.7297  0.01914  -0.002197  0.02252  0.01469  -0.1145  -0.8768
6.35e+09  0.179  -0.8932  -0.007112  0.03902  0.03084  -0.01377  -0.4173  -0.8484
6.351e+09  -0.1352  -0.8833  0.003627  0.01364  -0.02933  -0.004341  -0.678  -0.644
6.352e+09  -0.4509  -0.764  -0.005994  -0.002598  0.03879  -0.0237  -0.8547  -0.3777
6.354e+09  -0.6619  -0.5411  0.01588  -0.0315  -0.02915  -0.02015  -0.939  -0.05677
6.355e+09  -0.8538  -0.3646  0.01009  -0.008907  0.02011  -0.01206  -0.8791  0.2527
6.356e+09  -0.9202  0.01562  -0.02901  -0.03566  -0.04137  0.05516  -0.7584  0.559
6.358e+09  -0.871  0.2682  -0.01746  -0.04531  -0.02608  0.005152  -0.5401  0.7641
6.359e+09  -0.6622  0.6067  -0.01252  -0.01703  -0.03344  0.006979  -0.221  0.9333
6.36e+09  -0.4371  0.7499  -0.00586  0.03621  0.03878  0.03122  0.1095  0.9251
6.361e+09  -0.1368  0.8928  0.006255  0.005249  -0.008873  -0.008178  0.4296  0.8437
6.362e+09  0.1756  0.8527  -0.006607  0.02937  0.03585  0.04096  0.7048  0.622
6.364e+09  0.5224  0.7844  -0.007794  0.01761  -0.021  0.04003  0.8434  0.3752
6.365e+09  0.6742  0.5345  0.008323  -0.02103  0.04887  0.01912  0.9522  0.08117
6.366e+09  0.8433  0.2491  -0.01094  0.05204  -0.006499  0.01081  0.9459  -0.2403
6.368e+09  0.9397  -0.007078  0.01036  -0.005628  0.03586  0.03214  0.7667  -0.5166
6.369e+09  0.8199  -0.359  -0.008881  0.0177  0.002749  -0.009701  0.5408  -0.8159
6.37e+09  0.6311  -0.682  -0.004929  -0.001808  -0.05649  0.0232  0.2373  -0.9087
6.371e+09  0.3674  -0.7609  -0.02346  -0.02523  0.008961  0.001908  -0.08115  -0.925
6.372e+09  0.1005  -0.9209  -0.02613  -0.04493  -0.01319  0.005912  -0.4079  -0.8643
6.374e+09  -0.2182  -0.8818  -0.01845  -0.01204  0.03108  -0.01259  -0.6597  -0.6893
6.375e+09  -0.522  -0.7278  -0.001826  0.01227  0.02727  0.01125  -0.8531  -0.3771
6.376e+09  -0.734  -0.4912  0.009476  -0.02646  0.009527  -0.004137  -0.9384  -0.08357
6.378e+09  -0.8867  -0.2486  0.01979  0.002805  -0.02337  0.02016  -0.9164  0.2205
6.379e+09  -0.837  0.1034  0.01089  -0.02047  0.03659  -0.006376  -0.7616  0.561
6.38e+09  -0.8352  0.3467  -0.02619  -0.0208  -0.01886  -0.03877  -0.5209  0.7568
6.381e+09  -0.6483  0.6869  0.01101  0.001627  0.0263  -0.02601  -0.2806  0.8847
6.382e+09  -0.3828  0.8168  -0.0009294  0.01329  0.02531  -0.04507  0.07685  0.9484
6.384e+09  -0.06096  0.9011  0.007972  -0.005013  0.02133  -0.02652  0.4053  0.7985
6.385e+09  0.2623  0.8827  -0.0233  -0.04817  -0.02684  0.01972  0.6521  0.728
6.386e+09  0.5508  0.7252  -0.007452  0.006839  0.00211  0.0541  0.8708  0.426
6.388e+09  0.7474  0.4759  -0.02071  0.001933  0.008365  0.06079  0.9036  0.1258
6.389e+09  0.8556  0.2204  0.03827  -0.008282  0.01263  0.02335  0.9225  -0.171
6.39e+09  0.8724  -0.1568  0.01655  -0.004951  -0.01568  0.01793  0.7718  -0.4971
6.391e+09  0.7958  -0.405  -0.01206  -0.02261  -0.00594  -0.003842  0.566  -0.7068
6.392e+09  0.5848  -0.6656  0.002456  -0.05729  0.01599  -0.05751  0.2559  -0.8913
6.394e+09  0.3556  -0.8602  -0.05361  0.02083  -0.01476  0.01273  -0.03843  -0.9007
6.395e+09  -0.01422  -0.8899  0.03076  -0.0453  -0.02123  0.01593  -0.3547  -0.8867
6.396e+09  -0.2979  -0.8894  0.03705  -0.02109  0.02168  -0.003896  -0.5789  -0.7214
6.398e+09  -0.5705  -0.6665  0.01519  0.01749  -0.01745  -0.01329  -0.8282  -0.3916
6.399e+09  -0.7879  -0.5194  0.02627  0.01054  0.006948  0.006229  -0.8882  -0.1641
6.4e+09  -0.8689  -0.1046  -0.01961  -0.006687  -0.02363  0.0515  -0.9076  0.1999
6.401e+09  -0.7956  0.1421  -0.0006966  0.01508  -0.02122  -0.0008149  -0.7788  0.4365
6.402e+09  -0.7757  0.4761  -0.002843  0.01341  0.0002761  -0.02545  -0.629  0.7084
6.404e+09  -0.575  0.6811  -0.02606  0.003892  -0.03601  0.0247  -0.3174  0.8853
6.405e+09  -0.3212  0.8306  0.0009469  -0.007678  -0.01784  -0.02683  0.01122  0.9095
6.406e+09  -0.01499  0.8848  -0.02274  -0.005669  -0.0005892  -0.007524  0.2721  0.8124
6.408e+09  0.3042  0.8084  0.007698  0.002551  -0.01755  0.01552  0.5548  0.7265
6.409e+09  0.6002  0.6997  -0.02625  0.001822  0.01718  0.009756  0.77  0.4809
6.41e+09  0.8126  0.4394  0.03659  0.01897  0.01621  -0.04485  0.9242  0.165
6.411e+09  0.8849  0.1415  0.007234  -0.004471  -0.03161  -0.0366  0.885  -0.1305
6.412e+09  0.8921  -0.1943  0.02419  0.001778  -0.04368  -0.03884  0.7663  -0.5017
6.414e+09  0.7434  -0.4603  0.03111  0.03856  0.04015  0.01194  0.6233  -0.6696
6.415e+09  0.5167  -0.7095  -0.02597  -0.01742  -0.01039  -0.0341  0.3198  -0.8676
6.416e+09  0.2948  -0.8433  -0.00126  -0.02473  -0.0151  6.811e-05  -0.007371  -0.8816
6.418e+09  0.008047  -0.9065  -0.01571  -0.02938  -0.001932  -0.05116  -0.2853  -0.8551
6.419e+09  -0.298  -0.8246  0.04174  -0.02135  -6.227e-05  0.02698  -0.5637  -0.7121
6.42e+09  -0.5477  -0.6419  -0.005074  0.02458  -0.02673  0.001466  -0.7372  -0.4844
6.421e+09  -0.7929  -0.4015  0.03233  -0.02779  -0.02073  -0.003629  -0.8865  -0.1532
6.422e+09  -0.877  -0.1353  0.00607  -0.004005  0.0542  0.002941  -0.8779  0.1082
6.424e+09  -0.8965  0.2107  -0.0003174  -0.009764  -0.01943  -0.009753  -0.7965  0.4005
6.425e+09  -0.7919  0.4895  -0.0427  0.002394  -0.04945  0.06214  -0.6049  0.6486
6.426e+09  -0.5188  0.6718  -0.03238  0.006422  0.03171  -0.01104  -0.3742  0.7979
6.428e+09  -0.2576  0.8531  -0.02339  0.01716  0.02329  0.06501  -0.01801  0.8885
6.429e+09  0.03882  0.9102  -0.01135  0.01295  0.02245  -0.008292  0.2191  0.8545
6.43e+09  0.3758  0.8192  0.02691  0.01092  0.04858  -0.02819  0.5055  0.6816
6.431e+09  0.6085  0.6775  0.009593  -0.0148  0.04557  0.03048  0.756  0.5322
6.432e+09  0.8112  0.3905  -0.0448  -0.019  -0.01272  0.004716  0.7975  0.2108
6.434e+09  0.8902  0.1495  -0.01849  -0.04827  -0.003798  -0.009444  0.8381  -0.1078
6.435e+09  0.8524  -0.2245  0.05477  0.04414  -0.03315  0.003065  0.7905  -0.3182
6.436e+09  0.7642  -0.4745  -0.04771  0.0004483  0.0003876  0.03381  0.6239  -0.6049
6.438e+09  0.5994  -0.7165  -0.04159  0.00435  -0.03753  0.014  0.3815  -0.777
6.439e+09  0.2332  -0.8717  0.01818  -0.01229  -0.02846  0.01604  0.04741  -0.8229
6.44e+09  -0.04668  -0.9309  0.001638  -0.02415  -0.02707  0.02568  -0.2587  -0.8357
6.441e+09  -0.3457  -0.8198  -0.002291  0.002109  -0.01098  0.004752  -0.5438  -0.7407
6.442e+09  -0.6338  -0.6649  0.0367  0.02398  0.01947  -0.02189  -0.7256  -0.486
6.444e+09  -0.8353  -0.4192  -0.01441  0.01306  0.005238  -0.01082  -0.8498  -0.2107
6.445e+09  -0.8983  -0.07738  0.0314  -0.01391  -0.008305  0.06856  -0.8048  0.08144
6.446e+09  -0.8907  0.2733  -0.03639  -0.02249  -0.004387  0.03051  -0.7643  0.372
6.448e+09  -0.7693  0.4883  -0.004522  0.0188  -0.01758  0.03524  -0.5681  0.5818
6.449e+09  -0.5116  0.744  0.0148  0.01161  -0.008451  0.02013  -0.388  0.7358
6.45e+09  -0.2023  0.7941  0.006316  -0.01462  -0.00509  -0.03785  -0.08112  0.845
6.451e+09  0.05878  0.9219  -0.02846  -0.002845  -0.008362  -0.0108  0.1941  0.7776
6.452e+09  0.3742  0.8522  0.02334  0.01329  0.01386  0.021  0.4603  0.6845
6.454e+09  0.6747  0.6457  -0.02092  -0.02589  -0.003692  0.0378  0.6766  0.4794
6.455e+09  0.8214  0.3982  -0.01192  -0.01675  -0.01506  -0.005605  0.7989  0.1797
6.456e+09  0.9002  0.1081  -0.04943  -0.02462  0.03245  -0.02278  0.8297  -0.07775
6.458e+09  0.8652  -0.1891  0.0481  0.05784  -0.002777  -0.0341  0.7372  -0.2895
6.459e+09  0.7304  -0.5147  0.00385  0.04075  -0.02695  -0.008495  0.578  -0.5935
6.46e+09  0.5804  -0.7689  0.01226  -0.03621  -0.005619  -0.05449  0.3295  -0.7256
6.461e+09  0.1651  -0.9019  -0.003049  -0.01048  0.0285  0.02428  0.1213  -0.815
6.462e+09  -0.07096  -0.9383  -0.004321  -0.001738  -0.0431  0.01291  -0.2459  -0.8012
6.464e+09  -0.3968  -0.8199  0.04067  -0.01445  -0.006236  0.02928  -0.4862  -0.6272
6.465e+09  -0.6185  -0.5768  0.0144  -0.002304  -0.02555  -0.01167  -0.6623  -0.4625
6.466e+09  -0.9013  -0.3325  -0.01957  0.005894  -0.03281  0.001789  -0.8144  -0.215
6.468e+09  -0.9238  -0.0532  -0.01077  -0.0106  0.05257  -0.01948  -0.7721  0.06417
6.469e+09  -0.8617  0.2886  -0.003295  0.04971  0.01607  0.02579  -0.6997  0.334
6.47e+09  -0.7561  0.5511  -0.01313  0.004445  -0.009364  0.05336  -0.5284  0.6082
6.471e+09  -0.5154  0.7438  0.0006104  -0.0113  -0.001515  6.51e-05  -0.335  0.7115
6.472e+09  -0.218  0.9021  0.033  -0.008329  -0.004736  0.01133  -0.08405  0.7901
6.474e+09  0.147  0.9452  0.02437  -0.0121  0.03044  0.04322  0.199  0.8
6.475e+09  0.4056  0.8198  0.001369  -0.01735  -0.03055  -0.03041  0.4475  0.6635
6.476e+09  0.6673  0.6082  0.01776  0.009776  -0.006033  0.02348  0.6395  0.4612
6.478e+09  0.8183  0.3373  0.01315  -0.04954  -0.05817  0.01005  0.7725  0.2073
6.479e+09  0.9779  0.02928  0.009695  -0.02514  -0.01095  0.04963  0.8002  -0.06841
6.48e+09  0.8673  -0.3031  0.01824  0.02053  -0.06461  0.02709  0.7059  -0.3333
6.481e+09  0.7284  -0.528  0.00889  0.008812  0.04512  -0.021  0.5171  -0.5802
6.482e+09  0.5223  -0.8056  0.01973  0.03954  0.01977  -0.01049  0.3373  -0.6786
6.484e+09  0.1806  -0.9094  0.0103  -0.03805  -0.02835  -0.01815  0.04086  -0.7649
6.485e+09  -0.1495  -0.9065  0.01068  0.008839  0.03922  -0.0143  -0.2392  -0.7281
6.486e+09  -0.5096  -0.8338  0.01052  -0.01426  0.09229  0.006064  -0.4381  -0.6143
6.488e+09  -0.7167  -0.6271  0.01781  0.02502  0.04629  -0.009242  -0.6215  -0.4337
6.489e+09  -0.8894  -0.3238  -0.005455  0.007867  -0.002861  0.002271  -0.7588  -0.1719
6.49e+09  -0.9535  0.01288  -0.02929  -0.03166  -0.003858  0.02536  -0.7725  0.08549
6.491e+09  -0.8677  0.3692  0.007933  0.02437  0.01144  -0.02309  -0.674  0.3279
6.492e+09  -0.712  0.6217  0.002205  -0.0414  -0.04102  0.006933  -0.5254  0.5401
6.494e+09  -0.4336  0.8771  -0.02989  -0.04883  0.01027  -0.00389  -0.3032  0.6979
6.495e+09  -0.1393  0.9557  -0.005088  0.0259  0.02977  0.02354  -0.02093  0.7907
6.496e+09  0.2214  0.9425  0.01011  -0.004886  0.001246  -0.03627  0.1988  0.7429
6.498e+09  0.571  0.8417  0.007672  -0.02109  0.0248  0.008407  0.458  0.65
6.499e+09  0.7679  0.5997  -0.003522  0.01502  -0.02506  -0.03997  0.635  0.4333
6.5e+09  0.9248  0.326  0.002038  0.02785  -0.02484  -0.0197  0.7725  0.1371
6.501e+09  0.9756  -0.06416  -0.00706  -0.009461  0.02508  0.04036  0.7412  -0.07532
6.502e+09  0.8509  -0.4045  0.02687  -0.02598  0.0594  -0.007454  0.6974  -0.3494
6.504e+09  0.6947  -0.6857  -0.02503  0.02605  0.01022  0.01567  0.4988  -0.5596
6.505e+09  0.424  -0.8328  0.005181  -0.0239  0.02382  -0.002299  0.2622  -0.7246
6.506e+09  0.1229  -0.9493  -0.02705  0.01832  0.005775  -0.01003  0.0004888  -0.7607
6.508e+09  -0.2653  -0.9253  -0.01808  0.06849  0.03493  0.02944  -0.2301  -0.7013
6.509e+09  -0.549  -0.7835  -0.0368  -0.007062  -0.001095  -0.02584  -0.4911  -0.6021
6.51e+09  -0.8052  -0.5404  0.01555  -0.02928  -0.01945  -0.03743  -0.6518  -0.413
6.511e+09  -0.9365  -0.1983  -0.003424  0.01448  0.00646  -0.009079  -0.7274  -0.1547
6.512e+09  -0.9853  0.08244  0.0189  0.001151  0.003818  0.03492  -0.7718  0.1002
6.514e+09  -0.8671  0.5008  0.02192  0.04786  0.00841  0.03732  -0.6397  0.4221
6.515e+09  -0.6461  0.7072  -0.02142  0.02687  0.004602  -0.02276  -0.4829  0.604
6.516e+09  -0.4141  0.931  -0.01543  0.01886  -0.02443  0.02743  -0.2922  0.7426
6.518e+09  -0.01254  0.9539  0.02097  0.0259  -0.00929  0.001001  -0.02033  0.7243
6.519e+09  0.281  0.9925  0.04221  -0.01668  -0.029  -0.02427  0.2459  0.7135
6.52e+09  0.6208  0.7463  0.02118  -0.002422  0.008798  -0.06673  0.4913  0.5589
6.521e+09  0.8189  0.4856  0.0003943  -0.002639  0.0238  -0.01456  0.6893  0.3653
6.522e+09  0.9626  0.1756  -0.003752  -0.03756  -0.0412  -0.05234  0.7076  0.1076
6.524e+09  1.009  -0.1725  -0.0119  0.00968  0.04103  -0.02189  0.7269  -0.1521
6.525e+09  0.8557  -0.5276  0.02514  0.003219  0.003304  0.01074  0.5944  -0.384
6.526e+09  0.6294  -0.7598  0.008784  -0.02325  -0.03362  0.01064  0.4493  -0.5657
6.528e+09  0.2799  -0.9364  0.02535  -0.01094  -0.004384  0.01731  0.1975  -0.6868
6.529e+09  -0.07441  -1  0.00172  0.0003884  0.01728  -0.01988  -0.06937  -0.6843
6.53e+09  -0.4081  -0.9  -0.02943  -0.01575  0.02813  -0.02798  -0.2547  -0.6051
6.531e+09  -0.6637  -0.683  0.04792  0.0003168  -0.0001801  0.003337  -0.4608  -0.4758
6.532e+09  -0.8714  -0.3609  -0.02467  -0.01516  0.004322  0.01492  -0.5601  -0.3171
6.534e+09  -0.997  -0.01049  -0.05148  0.008261  0.003941  0.02171  -0.651  -0.09277
6.535e+09  -0.9242  0.3174  0.01126  0.0005588  -0.003275  -0.01343  -0.6031  0.1014
6.536e+09  -0.7966  0.5871  -0.0002187  0.00629  0.009054  -0.01808  -0.5947  0.3493
6.538e+09  -0.5475  0.7999  0.003805  -0.0209  0.01111  -0.04648  -0.4538  0.4647
6.539e+09  -0.1744  0.916  -0.02595  0.005462  0.00598  0.05431  -0.3003  0.6472
6.54e+09  0.1346  0.9509  -0.003929  -0.001021  -0.04625  0.001333  -0.08202  0.7059
6.541e+09  0.4337  0.8585  0.0241  0.001117  -0.0293  -0.03113  0.1744  0.6426
6.542e+09  0.7464  0.6969  -0.007957  -0.01895  -0.01376  -0.03714  0.4017  0.6027
6.544e+09  0.881  0.3282  0.02566  -0.009171  0.04981  0.003481  0.5716  0.4371
6.545e+09  0.9927  -0.04812  -0.008151  -0.03388  0.01545  0.005364  0.7166  0.2078
6.546e+09  0.8649  -0.3194  -0.005832  -0.02398  0.02836  0.0287  0.7151  -0.1047
6.548e+09  0.7537  -0.6529  -0.009344  0.00778  0.01069  -0.0297  0.674  -0.2921
6.549e+09  0.496  -0.8638  0.01585  -0.003057  0.01258  -0.01577  0.4903  -0.5686
6.55e+09  0.1011  -0.8871  0.01834  0.03463  -0.07992  -0.01746  0.3293  -0.6976
