# Hz S RI R 50
6.25e+09  -0.2828  0.801  -0.009603  -0.00919  0.002973  0.03549  0.1318  0.4891
6.251e+09  -0.01535  0.8488  -0.03753  0.004639  -0.01031  0.001604  0.3729  0.4289
6.252e+09  0.2489  0.8441  9.271e-05  0.008074  0.01384  0.004072  0.518  0.2255
6.254e+09  0.5491  0.6606  -0.002867  0.01893  0.0367  0.06649  0.5865  0.03123
6.255e+09  0.7374  0.4481  0.02698  -0.01165  0.03459  0.08283  0.5736  -0.217
6.256e+09  0.8101  0.1533  -0.01492  -0.02451  0.005041  0.06247  0.4991  -0.4206
6.258e+09  0.8865  -0.1432  -0.003456  -0.003755  -0.0457  0.009292  0.2871  -0.6053
6.259e+09  0.7691  -0.418  0.02071  0.03037  0.0004911  0.01767  0.0482  -0.7104
6.26e+09  0.5252  -0.6417  -0.003466  0.00703  -0.02742  0.03467  -0.2298  -0.6537
6.261e+09  0.2974  -0.7919  0.0188  -0.003243  -0.0122  -0.01838  -0.4108  -0.5255
6.262e+09  0.03756  -0.8811  -0.002928  -0.02047  0.01957  -0.04403  -0.6323  -0.3553
6.264e+09  -0.2498  -0.7994  -0.006045  -0.01712  0.04658  0.03552  -0.7002  -0.1042
6.265e+09  -0.5385  -0.6179  0.01895  0.002305  0.01319  -0.02745  -0.6985  0.1706
6.266e+09  -0.7755  -0.4671  0.01668  0.008684  0.01509  0.03317  -0.6464  0.4015
6.268e+09  -0.8462  -0.1347  -0.01541  -0.01254  -0.015  -0.02475  -0.4215  0.5707
6.269e+09  -0.8143  0.1465  -0.03747  -0.02343  0.001246  -0.01166  -0.1813  0.7053
6.27e+09  -0.7143  0.4071  0.01957  -0.01585  0.004929  -0.003006  0.1068  0.74
6.271e+09  -0.5542  0.6394  -0.005666  -0.01276  -0.004256  0.008811  0.2935  0.6614
6.272e+09  -0.2793  0.8336  -0.01251  -0.007553  0.01475  -0.007634  0.5469  0.5013
6.274e+09  -0.05173  0.8312  -0.02988  -0.00232  -0.01943  -0.02707  0.7191  0.2943
6.275e+09  0.2841  0.7654  0.008117  0.009573  0.01591  0.009168  0.7545  0.0476
6.276e+09  0.5556  0.6402  -0.0229  0.01301  -0.006911  -0.02057  0.7441  -0.2442
6.278e+09  0.6831  0.4228  0.009273  -0.02243  0.005911  -0.0199  0.6257  -0.4884
6.279e+09  0.8089  0.2194  -0.006037  0.01743  0.0008192  0.02942  0.422  -0.6384
6.28e+09  0.8059  -0.1843  0.005672  -0.02157  -0.009973  -0.0293  0.1739  -0.7623
6.281e+09  0.71  -0.4278  0.003042  0.01941  0.004332  0.00227  -0.09619  -0.7766
6.282e+09  0.5275  -0.6957  -0.003077  0.009909  -0.04647  0.01718  -0.3255  -0.6867
6.284e+09  0.3134  -0.7704  0.02173  -0.00972  0.01928  0.05176  -0.5884  -0.5061
6.285e+09  -0.04453  -0.783  -0.01787  -0.005056  -0.05517  0.0001914  -0.7321  -0.294
6.286e+09  -0.2801  -0.7837  -0.01679  -0.01503  0.01909  0.0136  -0.7861  -0.04031
6.288e+09  -0.5739  -0.6565  0.004454  0.02773  0.06839  0.004075  -0.7505  0.25
6.289e+09  -0.7533  -0.4158  0.008246  0.001532  -0.03439  -0.007738  -0.608  0.5213
6.29e+09  -0.8509  -0.1611  0.01377  -0.002033  -0.01295  0.0478  -0.3996  0.6639
6.291e+09  -0.828  0.1865  -0.0165  0.006807  -0.03541  0.03542  -0.1365  0.8367
6.292e+09  -0.6888  0.4404  -0.006254  -0.004846  0.05504  -0.0134  0.1375  0.8117
6.294e+09  -0.5476  0.7027  -0.002077  0.02291  0.04585  -0.005139  0.4095  0.7284
6.295e+09  -0.2363  0.816  0.001895  0.003771  0.009433  -0.039  0.6463  0.5471
6.296e+09  0.04033  0.8086  0.027  -0.02201  -0.01321  -0.04351  0.8074  0.2817
6.298e+09  0.3033  0.788  0.001881  -0.01169  -0.02483  0.000713  0.8211  0.01218
6.299e+09  0.5276  0.5995  0.007178  0.009123  0.001303  0.06578  0.766  -0.3113
6.3e+09  0.7473  0.3975  -0.01685  -0.008703  0.01681  0.0408  0.673  -0.5507
6.301e+09  0.822  0.1091  -0.001447  -0.0114  0.01094  -0.002491  0.4435  -0.744
6.302e+09  0.8128  -0.1677  0.002446  -0.004006  0.02788  0.02293  0.1592  -0.8588
6.304e+09  0.7102  -0.4855  0.01122  -0.01593  -0.008121  0.0229  -0.1489  -0.8416
6.305e+09  0.437  -0.6696  0.01191  0.003238  -0.01918  0.05927  -0.4351  -0.7367
6.306e+09  0.2372  -0.7822  0.02819  0.017  0.03778  -0.04621  -0.6591  -0.5341
6.308e+09  -0.07365  -0.8252  -0.0078  0.01427  0.01391  0.004025  -0.7888  -0.3098
6.309e+09  -0.3382  -0.7639  0.03862  -0.02489  0.007719  0.01156  -0.8687  0.008064
6.31e+09  -0.541  -0.6418  0.02172  0.007573  0.001544  -0.05436  -0.8228  0.2654
6.311e+09  -0.8004  -0.3837  0.001013  0.001468  -0.02854  0.02876  -0.6721  0.5311
6.312e+09  -0.8692  -0.04059  0.00112  0.003716  0.01773  0.007508  -0.4426  0.7346
6.314e+09  -0.8009  0.2606  -0.02281  -0.001621  -0.02663  0.0296  -0.1224  0.8866
6.315e+09  -0.6302  0.4871  0.0225  0.02482  -0.01405  0.03692  0.1421  0.8543
6.316e+09  -0.4711  0.7435  0.0006589  -0.01712  -0.001695  0.01187  0.4088  0.763
6.318e+09  -0.2119  0.8593  0.01385  -0.0209  -0.006755  -0.04491  0.6613  0.5616
6.319e+09  0.09087  0.858  0.01336  0.006094  0.05279  -0.0224  0.7869  0.3328
6.32e+09  0.3749  0.7815  0.02289  0.01852  -0.003515  0.01714  0.8907  0.0223
6.321e+09  0.6392  0.5358  0.004999  -0.03779  -0.009442  -0.02262  0.8274  -0.2736
6.322e+09  0.7727  0.3235  0.02678  0.01864  0.03233  0.04773  0.7014  -0.5707
6.324e+09  0.8631  0.02143  -0.005378  -0.004525  -0.002715  -0.04268  0.4767  -0.7955
6.325e+09  0.8169  -0.2447  -0.01339  -0.01239  0.02994  -0.01422  0.1769  -0.8833
6.326e+09  0.6714  -0.5248  0.02148  -0.01105  -0.009046  -0.01374  -0.1428  -0.9199
6.328e+09  0.4382  -0.7494  -0.01046  -0.02246  0.01607  0.004462  -0.4586  -0.8078
6.329e+09  0.1485  -0.8625  -0.01446  -0.008301  -0.01708  0.03231  -0.6946  -0.5834
6.33e+09  -0.1787  -0.8266  0.001323  0.04087  0.05204  -0.0207  -0.8796  -0.3247
6.331e+09  -0.4403  -0.6961  0.006704  0.001314  -0.03984  -0.01627  -0.9236  -0.03383
6.332e+09  -0.7085  -0.5505  -0.02774  -0.002871  0.02827  0.03653  -0.8545  0.279
6.334e+09  -0.8343  -0.251  -0.003322  0.007374  0.006048  -0.007517  -0.7046  0.5903
6.335e+09  -0.8395  0.01124  -0.01785  -0.005149  -0.03487  -0.02306  -0.454  0.7814
6.336e+09  -0.8428  0.3908  -0.009179  0.01009  -0.02012  -0.01884  -0.1573  0.9083
6.338e+09  -0.6467  0.5861  -0.03561  0.0002356  -0.002883  -0.04312  0.1133  0.8861
6.339e+09  -0.3977  0.8095  0.01631  -0.01899  -0.009259  -0.02027  0.444  0.8652
6.34e+09  -0.09668  0.925  0.03063  0.03271  0.02422  -0.01631  0.6849  0.5948
6.341e+09  0.2189  0.8577  -0.006705  0.01164  -0.01502  -0.01736  0.8448  0.3333
6.342e+09  0.5084  0.6867  0.007239  -0.0251  0.01025  -0.03903  0.9629  0.04171
6.344e+09  0.6821  0.518  -0.01432  -0.02892  0.01158  0.04395  0.8779  -0.271
6.345e+09  0.8513  0.2295  5.336e-05  0.01333  -0.02488  0.04135  0.7227  -0.5611
6.346e+09  0.8966  -0.0956  -0.03286  -0.01348  -0.008069  0.01434  0.5192  -0.8006
6.348e+09  0.8147  -0.4344  -0.006185  -0.0397  0.002615  0.008455  0.2293  -0.8878
6.349e+09  0.5883  -0.6298  -0.02291  -0.0198  -0.01664  0.00342  -0.09628  -0.9285
6.35e+09  0.3729  -0.7845  0.01786  0.02311  0.008657  -0.01649  -0.4267  -0.8397
6.351e+09  0.02983  -0.8657  -0.03819  0.00729  0.01784  -0.01472  -0.6873  -0.6375
6.352e+09  -0.2587  -0.8264  -0.02093  -0.01609  0.06715  -0.03439  -0.8597  -0.3698
6.354e+09  -0.5577  -0.7011  -0.02736  0.006314  -0.06125  0.03254  -0.9485  -0.0159
6.355e+09  -0.7398  -0.4635  0.008223  -0.01186  -0.001659  -0.02377  -0.9041  0.2563
6.356e+09  -0.9449  -0.1822  -0.01607  0.007595  -0.03647  0.0348  -0.7511  0.5355
6.358e+09  -0.8776  0.1539  -0.02274  -0.02174  -0.0002096  -0.02511  -0.5147  0.7995
6.359e+09  -0.7871  0.4764  -0.0006288  0.01037  0.03073  -0.009505  -0.2467  0.9072
6.36e+09  -0.5684  0.6443  0.01612  -0.003484  -9.179e-05  -0.01525  0.07575  0.9495
6.361e+09  -0.2969  0.8811  -0.03115  -0.007536  0.03596  -0.03295  0.3849  0.8709
6.362e+09  -0.007004  0.9028  -0.02144  -0.0009595  -0.0247  0.007959  0.6863  0.661
6.364e+09  0.3483  0.8427  -0.01837  -0.03325  -0.03914  0.02035  0.8335  0.3679
6.365e+09  0.5914  0.6447  -0.0171  -0.01485  -0.02513  0.005095  0.92  0.05593
6.366e+09  0.8059  0.4357  0.01773  -0.00137  0.0003411  -0.02549  0.8718  -0.244
6.368e+09  0.8881  0.1442  -0.02862  0.0245  0.03651  -0.00422  0.7811  -0.5518
6.369e+09  0.929  -0.2174  -0.01301  0.05734  0.008539  0.008116  0.557  -0.7749
6.37e+09  0.7176  -0.5271  0.01727  0.003005  -0.06474  0.03554  0.2288  -0.9474
6.371e+09  0.5056  -0.7359  -0.0001927  -0.03851  0.0145  0.01005  -0.07424  -0.9193
6.372e+09  0.2456  -0.8569  -0.0553  -0.0197  -0.02173  0.01475  -0.4269  -0.8358
6.374e+09  -0.1092  -0.9088  0.0177  -0.04019  -0.01211  0.03494  -0.6314  -0.6369
6.375e+09  -0.4006  -0.7564  0.003306  -0.003217  -0.03867  0.02492  -0.8438  -0.4223
6.376e+09  -0.6068  -0.6007  -0.02564  0.02583  -0.003414  -0.01036  -0.934  -0.1121
6.378e+09  -0.8292  -0.3371  -0.004604  -0.06073  -0.002786  -0.02019  -0.8879  0.2
6.379e+09  -0.8991  -0.09268  -0.04153  0.02298  0.004619  -0.0163  -0.7641  0.4908
6.38e+09  -0.8562  0.2663  -0.0104  0.02154  -0.0007054  0.02337  -0.5489  0.7804
6.381e+09  -0.7089  0.5205  -0.04476  0.02398  -0.03762  -0.001331  -0.2994  0.9022
6.382e+09  -0.4949  0.7744  0.02126  0.01656  -0.04487  -0.0265  0.08893  0.9451
6.384e+09  -0.276  0.8886  0.02509  -0.006596  -0.01436  0.02895  0.3764  0.8656
6.385e+09  0.1524  0.9055  -0.0205  0.03048  0.06732  -0.05122  0.6165  0.7174
6.386e+09  0.4357  0.8077  0.02892  0.003731  0.0532  -0.03813  0.8429  0.4157
6.388e+09  0.7027  0.59  0.06313  0.02555  -0.01086  0.01477  0.8978  0.09281
6.389e+09  0.8526  0.3649  -0.009538  0.03156  -0.02273  0.03779  0.8992  -0.2098
6.39e+09  0.9048  0.005492  0.003218  -0.01911  0.04829  0.02739  0.7805  -0.4951
6.391e+09  0.8431  -0.2762  0.003045  -0.02814  -0.0196  -0.005553  0.5294  -0.7364
6.392e+09  0.7048  -0.5766  0.04881  0.02992  0.01712  0.02302  0.2795  -0.8617
6.394e+09  0.4965  -0.7422  -0.008936  -0.02768  0.02451  0.03178  -0.0309  -0.9198
6.395e+09  0.2305  -0.8166  -0.03464  -0.001159  -0.03542  -0.00601  -0.3038  -0.8407
6.396e+09  -0.1383  -0.8299  -0.006845  0.05441  0.00365  0.004956  -0.6222  -0.7168
6.398e+09  -0.4343  -0.7474  -0.005788  0.03219  -0.01929  0.008626  -0.8333  -0.4122
6.399e+09  -0.695  -0.5864  0.008599  -0.04305  -0.0224  -0.01237  -0.9087  -0.1336
6.4e+09  -0.8276  -0.3278  0.004471  0.02012  0.007893  0.02848  -0.9146  0.1574
6.401e+09  -0.8546  0.02333  -0.02006  -0.03569  0.02943  0.007559  -0.8007  0.5144
6.402e+09  -0.8294  0.3146  -0.01124  0.008671  0.02161  0.00555  -0.5892  0.7008
6.404e+09  -0.6571  0.5445  0.02763  0.01001  0.004772  -0.03823  -0.3063  0.8841
6.405e+09  -0.5108  0.7471  -0.05438  -0.01317  0.01006  0.03111  0.03135  0.9173
6.406e+09  -0.1249  0.8809  0.01067  -0.05731  -0.01235  0.03229  0.3022  0.8621
6.408e+09  0.1444  0.8744  -0.004197  0.005251  0.01065  -0.01199  0.5744  0.6681
6.409e+09  0.4427  0.7618  -0.01875  -0.02411  -0.00698  0.01947  0.7814  0.4646
6.41e+09  0.6867  0.5327  0.006053  0.00182  0.01927  -0.02514  0.8967  0.1676
6.411e+09  0.8317  0.3117  -0.03267  -0.0341  0.01511  0.003655  0.8901  -0.1595
6.412e+09  0.8709  -0.04714  0.03672  -0.021  -0.02248  -0.01795  0.8642  -0.4549
6.414e+09  0.8163  -0.3001  0.003098  -0.001805  -0.03995  -0.03483  0.6282  -0.7199
6.415e+09  0.6767  -0.5908  -0.03112  0.004537  -0.004179  0.007167  0.3598  -0.8322
6.416e+09  0.395  -0.8118  0.02782  0.001571  -0.0007686  0.02612  -0.0009909  -0.9509
6.418e+09  0.1099  -0.889  -0.0224  0.008094  0.0547  0.01284  -0.2961  -0.9081
6.419e+09  -0.136  -0.8481  0.01973  0.008254  -0.03482  -0.01726  -0.5532  -0.6901
6.42e+09  -0.4842  -0.7257  0.008213  -0.01408  -0.05174  0.02571  -0.7514  -0.5153
6.421e+09  -0.6725  -0.5436  0.004868  0.01446  -0.01538  -0.0121  -0.8613  -0.1856
6.422e+09  -0.897  -0.255  -0.01165  -0.01459  -0.01195  0.0512  -0.9184  0.135
6.424e+09  -0.9197  0.05007  0.02294  0.03904  0.001707  -0.00533  -0.8049  0.3446
6.425e+09  -0.8346  0.3261  0.01138  -0.01129  0.007019  0.0201  -0.6026  0.6636
6.426e+09  -0.6667  0.5919  0.01529  0.005966  0.003824  0.001625  -0.3503  0.7994
6.428e+09  -0.4375  0.7629  -0.01294  -0.004761  0.004088  0.02969  -0.06937  0.8475
6.429e+09  -0.1115  0.8367  -0.05087  -0.04519  0.004385  0.02814  0.2567  0.8167
6.43e+09  0.1251  0.8783  -0.02133  0.01591  -0.004546  0.0165  0.4961  0.6813
6.431e+09  0.5134  0.7408  -0.01568  -0.01487  -0.01497  0.02153  0.7217  0.5034
6.432e+09  0.7427  0.5759  0.05216  0.01525  0.01241  -0.005249  0.8128  0.2302
6.434e+09  0.8267  0.2756  -0.01216  0.01344  -0.03193  -0.01994  0.847  -0.08883
6.435e+09  0.863  -0.05529  -0.005324  0.02174  -0.05889  0.002083  0.7695  -0.3612
6.436e+09  0.8409  -0.3677  -0.009063  -0.01  0.0233  0.00498  0.6026  -0.538
6.438e+09  0.6334  -0.6184  -0.01192  0.05562  -0.02517  -0.04291  0.3624  -0.75
6.439e+09  0.4248  -0.7899  -0.0317  -0.01884  -0.01217  -0.02425  0.1153  -0.8895
6.44e+09  0.08768  -0.8555  -0.01452  -0.02652  0.001222  0.03657  -0.2258  -0.8506
6.441e+09  -0.2256  -0.8234  -0.009967  -0.01082  0.01834  -0.04243  -0.5043  -0.7502
6.442e+09  -0.5219  -0.741  -0.0255  0.0286  0.02303  -0.04381  -0.6855  -0.4879
6.444e+09  -0.6816  -0.5326  -0.02118  0.03008  0.01883  0.02254  -0.8381  -0.1979
6.445e+09  -0.903  -0.28  0.001937  -0.04666  0.01551  -0.03271  -0.8607  0.08847
6.446e+09  -0.9131  0.08875  -0.0121  -0.02854  0.01805  -0.04108  -0.7968  0.3808
6.448e+09  -0.8307  0.4128  -0.02359  -0.04034  0.00178  0.04039  -0.5936  0.5884
6.449e+09  -0.6371  0.6265  0.002281  0.01837  -0.007658  0.05132  -0.3701  0.7448
6.45e+09  -0.3725  0.8585  0.001172  0.02399  0.04746  -0.01406  -0.04128  0.8343
6.451e+09  -0.08843  0.8935  -0.01494  -0.02778  -0.02712  0.006179  0.2401  0.818
6.452e+09  0.2209  0.8682  0.02968  0.004176  0.01349  0.03463  0.4827  0.6904
6.454e+09  0.5206  0.7606  -0.04986  0.003968  -0.01271  0.0001143  0.7089  0.4674
6.455e+09  0.7491  0.543  -0.004644  -0.03375  0.01925  -0.03476  0.8509  0.1852
6.456e+09  0.8437  0.2473  -0.005069  0.01672  0.002544  0.01875  0.8034  -0.06442
6.458e+09  0.8755  -0.08247  0.01006  0.03674  -0.003141  -0.04714  0.7671  -0.3567
6.459e+09  0.8144  -0.3664  -0.02945  0.01522  -0.02333  0.04082  0.5657  -0.5852
6.46e+09  0.6231  -0.632  0.004347  -0.02617  0.00323  0.04971  0.3674  -0.7452
6.461e+09  0.3753  -0.8293  -0.01248  0.0109  0.0201  0.009081  0.04709  -0.8564
6.462e+09  0.06965  -0.9408  0.02524  0.02994  -0.05785  -0.007206  -0.2167  -0.8232
6.464e+09  -0.2609  -0.8819  -0.007208  -0.0501  -0.02974  0.04601  -0.5094  -0.6877
6.465e+09  -0.5233  -0.7304  -0.01799  0.005852  -0.003505  -7.924e-05  -0.6712  -0.4421
6.466e+09  -0.7164  -0.4944  -0.003754  0.003784  -0.02177  0.02297  -0.8092  -0.2136
6.468e+09  -0.8584  -0.2654  -0.001874  -0.002232  -0.03444  0.02335  -0.8276  0.1051
6.469e+09  -0.9366  -0.001289  0.007667  -0.04364  -0.007925  0.001388  -0.735  0.3482
6.47e+09  -0.8562  0.3551  0.008501  0.02338  0.002404  0.05448  -0.601  0.589
6.471e+09  -0.693  0.6408  -0.008895  -0.005201  0.04194  0.01905  -0.333  0.6979
6.472e+09  -0.3456  0.8609  0.02658  0.01533  0.006814  0.02277  -0.07134  0.7894
6.474e+09  -0.1045  0.9398  0.03404  0.03502  -0.01933  0.03089  0.2314  0.7489
6.475e+09  0.2579  0.8874  0.04743  0.05372  -0.01255  -0.03493  0.4649  0.6324
6.476e+09  0.561  0.7454  0.01446  -0.0058  -0.01426  0.009304  0.6944  0.4435
6.478e+09  0.7316  0.5482  -0.005111  -0.01522  0.002311  -0.02601  0.7485  0.2005
6.479e+09  0.893  0.2496  0.006201  0.0002906  0.02365  0.01599  0.8035  -0.06813
6.48e+09  0.8897  -0.1295  0.002058  -0.01434  -0.0084  -0.05407  0.757  -0.3524
6.481e+09  0.8134  -0.446  0.0143  -0.04074  -0.01445  -0.01954  0.5511  -0.5473
6.482e+09  0.6387  -0.6956  -0.001455  0.001716  -0.01281  0.001517  0.2925  -0.7172
6.484e+09  0.3636  -0.8272  -0.01329  0.0304  0.0175  -0.005213  0.06046  -0.7687
6.485e+09  0.04826  -0.8839  0.0284  -0.01071  -0.01464  -0.07221  -0.2232  -0.7292
6.486e+09  -0.2651  -0.9081  -0.00413  -0.001127  -0.03605  0.04037  -0.4657  -0.6719
6.488e+09  -0.5429  -0.7746  -0.01667  0.01021  -0.03034  0.04581  -0.6078  -0.4396
6.489e+09  -0.7847  -0.4582  0.01322  -0.0308  -0.006405  0.05607  -0.7741  -0.1911
6.49e+09  -0.9123  -0.2064  0.01874  -0.02798  -0.08117  0.004684  -0.7677  0.04126
6.491e+09  -0.9427  0.1357  0.06852  -0.01333  0.06558  -0.01388  -0.6737  0.3196
6.492e+09  -0.8414  0.4116  0.0133  0.006021  0.03104  0.01729  -0.579  0.5812
6.494e+09  -0.6202  0.7364  -0.007984  -0.04036  -0.03233  -0.02079  -0.3233  0.723
6.495e+09  -0.3104  0.8966  0.01537  0.001132  0.001949  -0.03414  -0.04275  0.7608
6.496e+09  -0.01283  0.9736  0.02516  0.01602  -0.02078  0.02615  0.2109  0.7863
6.498e+09  0.2674  0.9112  -0.005476  0.01671  -0.008078  0.03357  0.478  0.6435
6.499e+09  0.6235  0.7087  -0.02035  -0.008447  0.02402  -0.01381  0.6233  0.4187
6.5e+09  0.8191  0.4725  -0.02569  0.03393  -0.0317  -0.01958  0.7309  0.1989
6.501e+09  0.9757  0.1381  -0.003721  0.02507  -0.02683  0.04133  0.7792  -0.08316
6.502e+09  0.9883  -0.1671  -0.02517  0.02825  -0.009516  -0.04091  0.6693  -0.3467
6.504e+09  0.8179  -0.5119  -0.005286  -0.04221  -0.0185  -0.02982  0.4629  -0.5468
6.505e+09  0.6132  -0.753  -0.01179  -0.002126  -0.001938  -0.05537  0.2757  -0.6762
6.506e+09  0.2586  -0.9068  0.007508  0.03415  0.02317  -0.03161  0.02516  -0.7094
6.508e+09  -0.03138  -0.9421  -0.00164  0.03929  0.01259  0.003012  -0.2487  -0.7044
6.509e+09  -0.3952  -0.8631  0.008166  -0.02003  0.00437  -0.01871  -0.4768  -0.6079
6.51e+09  -0.6827  -0.7196  -0.006322  -0.007668  0.004927  0.01414  -0.6842  -0.3764
6.511e+09  -0.8223  -0.4227  -0.006238  -0.004883  -0.0134  0.02569  -0.7734  -0.1197
6.512e+09  -0.8919  -0.1392  0.001203  -0.01184  0.02457  0.01352  -0.7119  0.1323
6.514e+09  -0.9588  0.2669  0.0175  -0.01188  -0.06015  0.01447  -0.6613  0.4219
6.515e+09  -0.8397  0.5493  0.0003425  -0.008322  -0.02056  0.003454  -0.4938  0.5747
6.516e+09  -0.5993  0.8043  -0.0007444  0.01477  0.00667  0.009443  -0.2026  0.6854
6.518e+09  -0.2573  0.9215  0.003578  0.04113  0.04776  -0.01701  0.01693  0.7688
6.519e+09  0.05315  0.9945  -0.02423  0.01814  -0.001811  0.01367  0.2974  0.6643
6.52e+09  0.4205  0.8586  0.003769  0.02187  -0.04552  -0.0241  0.5043  0.5836
6.521e+09  0.688  0.7111  -0.03102  -0.01356  -0.02657  -0.01329  0.6458  0.2861
6.522e+09  0.8476  0.3562  0.0171  -0.01798  -0.03722  -0.01896  0.7154  0.12
6.524e+09  0.9967  0.05625  -0.03274  0.04684  0.02758  -0.01517  0.7196  -0.1558
6.525e+09  0.8982  -0.2751  -0.01269  -0.02146  0.001543  0.03311  0.6043  -0.4147
6.526e+09  0.7661  -0.5584  -0.01717  -0.0002982  -0.01613  -0.03369  0.4438  -0.5507
6.528e+09  0.5275  -0.8021  0.004203  -0.03762  0.01569  -0.04387  0.2204  -0.6823
6.529e+09  0.2458  -0.924  0.01163  0.003256  -0.01998  -0.02514  -0.01646  -0.6731
6.53e+09  -0.1206  -0.9674  -0.01307  0.01724  0.01314  0.01895  -0.2764  -0.6449
6.531e+09  -0.5142  -0.8603  -0.0143  0.005507  0.016  -0.009097  -0.4872  -0.4632
6.532e+09  -0.6881  -0.6515  0.01263  0.01298  0.01335  -0.06186  -0.6027  -0.2893
6.534e+09  -0.8998  -0.3833  -0.02405  -0.01051  0.02929  0.02068  -0.5914  -0.08464
6.535e+09  -1.003  0.006287  -0.0002874  -0.03041  0.01267  -0.04013  -0.6425  0.09819
6.536e+09  -0.9276  0.3418  0.02193  -0.0005303  0.004798  0.04823  -0.5445  0.2777
6.538e+09  -0.7615  0.6412  -0.006192  -0.02109  0.001693  -0.006869  -0.4414  0.4768
6.539e+09  -0.451  0.8338  0.03793  0.03193  -0.02745  -0.006075  -0.2496  0.6201
6.54e+09  -0.1179  0.978  0.01024  -0.002574  0.05724  0.01034  -0.02307  0.6684
6.541e+09  0.2528  0.9923  -0.01589  0.02037  -0.04361  -0.01124  0.1806  0.6739
6.542e+09  0.5483  0.8365  -0.01867  -0.00574  -0.004153  -0.02263  0.4405  0.5959
6.544e+09  0.7759  0.6119  -0.0001924  -0.007786  0.02965  -0.04769  0.6114  0.4055
6.545e+09  0.902  0.3092  0.03812  -0.00898  0.008479  -0.009014  0.6937  0.1492
6.546e+09  0.9658  -0.08377  -0.0006624  -0.01976  -0.008037  -0.006144  0.7361  -0.1003
6.548e+09  0.8974  -0.3987  -0.006826  -0.01137  0.07199  0.004926  0.6754  -0.3026
6.549e+09  0.666  -0.6533  0.000959  -0.0004882  -0.03131  -0.01429  0.5168  -0.5399
6.55e+09  0.442  -0.8823  0.005566  -0.005224  -0.01035  -0.007746  0.287  -0.6712
