# Hz S RI R 50
6.25e+09  0.6302  0.5475  4.115e-05  -0.007472  0.0256  0.04046  0.1687  0.4754
6.251e+09  0.8188  0.2657  0.01997  0.00157  -0.01559  0.01336  0.3797  0.4015
6.252e+09  0.8091  0.002688  -0.01631  -0.002046  0.01129  0.04489  0.5352  0.2319
6.254e+09  0.7908  -0.3777  0.01619  -0.006292  0.02612  0.0067  0.6147  0.01969
6.255e+09  0.6433  -0.5544  0.02082  0.008125  -0.007045  0.01747  0.5961  -0.2459
6.256e+09  0.4116  -0.8006  -0.008143  -0.00547  -0.005709  0.0214  0.5104  -0.4543
6.258e+09  0.07892  -0.8461  0.02002  -0.01232  0.02173  -0.002829  0.2824  -0.5898
6.259e+09  -0.222  -0.7674  -0.02871  -0.0103  -0.03423  0.01624  0.05506  -0.6609
6.26e+09  -0.5173  -0.723  0.02094  -0.0007915  0.004752  -0.03603  -0.2381  -0.6737
6.261e+09  -0.712  -0.4712  -0.003551  0.006249  -0.000515  0.04501  -0.4561  -0.5054
6.262e+09  -0.804  -0.2218  -0.02249  0.01474  -0.04612  -0.007024  -0.6034  -0.3331
6.264e+09  -0.851  0.1164  0.02334  -0.002147  0.004084  -0.01388  -0.7138  -0.1073
6.265e+09  -0.7552  0.3983  -0.00722  -0.0008866  0.005441  0.01327  -0.7051  0.1422
6.266e+09  -0.533  0.6391  0.02152  -0.002841  -0.000504  0.05733  -0.6224  0.3853
6.268e+09  -0.287  0.77  -0.0124  0.03728  0.06636  0.04694  -0.4376  0.5765
6.269e+09  -0.001723  0.8234  0.03339  0.01114  0.001464  0.018  -0.2296  0.7067
6.27e+09  0.2577  0.805  -0.006105  0.007007  -0.06047  0.05021  0.02889  0.7502
6.271e+09  0.5525  0.6037  -0.01053  -0.001574  -0.01879  -0.0002985  0.316  0.6959
6.272e+09  0.6533  0.3385  0.003604  0.01555  -0.02701  -0.01183  0.5359  0.5297
6.274e+09  0.7906  0.0861  0.0518  0.001024  0.01213  0.02221  0.6867  0.3133
6.275e+09  0.8021  -0.1754  0.007418  0.01037  0.01681  -0.05035  0.7694  0.07405
6.276e+09  0.6152  -0.5122  -0.007689  -0.005196  -0.02372  -0.01271  0.7242  -0.2248
6.278e+09  0.4481  -0.7059  -0.0225  -0.019  -0.001545  -0.01122  0.5809  -0.4989
6.279e+09  0.1883  -0.7882  0.01382  0.02656  0.007723  -0.07172  0.4315  -0.6595
6.28e+09  -0.06043  -0.8449  -0.01461  0.01173  0.01043  -0.01019  0.1801  -0.7837
6.281e+09  -0.3919  -0.7317  -0.00489  -0.01431  -0.005244  -0.01639  -0.1154  -0.7908
6.282e+09  -0.6029  -0.6014  0.01925  -0.02337  -0.02729  -0.009982  -0.3879  -0.7011
6.284e+09  -0.7998  -0.2714  0.02916  -0.00852  -0.01648  -0.05002  -0.5763  -0.5191
6.285e+09  -0.8133  -0.0417  -0.02113  -0.005984  -0.004222  0.02798  -0.7366  -0.2723
6.286e+09  -0.7965  0.2877  0.02061  -0.005151  0.01057  0.002596  -0.7864  -0.01923
6.288e+09  -0.589  0.5236  -0.006292  0.01672  -0.02018  0.003978  -0.763  0.2417
6.289e+09  -0.3769  0.6716  -0.02219  -0.01968  -0.003262  0.03301  -0.6397  0.4931
6.29e+09  -0.0758  0.7867  0.001456  0.009542  0.009105  -0.03152  -0.388  0.7021
6.291e+09  0.1555  0.7934  0.02929  -0.02945  0.009449  -0.00216  -0.1497  0.7934
6.292e+09  0.4237  0.697  -0.009848  0.0008449  0.02149  -0.03719  0.1312  0.8242
6.294e+09  0.6695  0.4626  0.01448  0.01936  0.004365  -0.01808  0.3948  0.6916
6.295e+09  0.8013  0.1609  0.01948  -0.02008  0.04399  0.04733  0.638  0.5371
6.296e+09  0.8395  -0.05632  0.02384  -0.005833  0.00778  -0.02803  0.7667  0.3073
6.298e+09  0.7591  -0.3538  0.0009309  -0.02751  -0.02201  0.02506  0.8454  0.01357
6.299e+09  0.6077  -0.6775  -0.004837  -0.01401  -0.01771  -0.01628  0.7714  -0.2909
6.3e+09  0.2887  -0.7993  -0.02022  -0.01068  0.04553  -0.01824  0.6307  -0.5234
6.301e+09  0.04656  -0.8091  -0.01947  0.008457  0.02144  0.003979  0.4338  -0.7205
6.302e+09  -0.2882  -0.8183  -0.007895  -0.02989  -0.06283  -0.004077  0.147  -0.815
6.304e+09  -0.5245  -0.6743  0.006039  -0.0008876  -0.01462  -0.0147  -0.162  -0.8276
6.305e+09  -0.6851  -0.3982  0.03045  -0.007706  -0.01467  0.01715  -0.4079  -0.753
6.306e+09  -0.8342  -0.1232  0.01046  -0.007555  0.02117  0.02434  -0.6539  -0.5275
6.308e+09  -0.8652  0.1244  -0.01995  0.0177  -0.00727  -0.003832  -0.8209  -0.3045
6.309e+09  -0.7259  0.455  0.01898  -0.01002  -0.01103  0.003041  -0.8424  0.01647
6.31e+09  -0.5432  0.6927  -0.01841  0.01618  0.019  0.009464  -0.8076  0.2967
6.311e+09  -0.2856  0.7821  -0.03059  0.003846  0.07357  0.008025  -0.6784  0.5643
6.312e+09  0.04544  0.7735  -0.02104  -0.007334  0.0254  0.008143  -0.4447  0.7607
6.314e+09  0.3286  0.7454  -0.01239  0.004075  -0.04243  0.01078  -0.1611  0.8805
6.315e+09  0.5621  0.5988  0.02539  0.007378  -0.02462  0.02019  0.1699  0.8583
6.316e+09  0.7366  0.3283  0.004858  -0.01008  -0.03499  0.01716  0.4295  0.7422
6.318e+09  0.862  0.06631  0.002543  -0.01609  -0.03694  0.00845  0.6506  0.5626
6.319e+09  0.8056  -0.2678  -0.003568  -0.06311  -0.00756  -0.0206  0.8498  0.3204
6.32e+09  0.6626  -0.5165  0.000762  0.0001168  0.02565  -0.02595  0.8993  0.01462
6.321e+09  0.4404  -0.7338  0.00207  0.01712  -0.004923  0.006683  0.8676  -0.2542
6.322e+09  0.1369  -0.8316  0.001301  -0.009576  -0.006308  0.02909  0.6895  -0.5691
6.324e+09  -0.1751  -0.8445  -0.01989  -0.006672  -0.02879  -0.009177  0.4417  -0.7802
6.325e+09  -0.4392  -0.765  0.02868  0.001814  -0.02493  0.03219  0.1759  -0.8654
6.326e+09  -0.6759  -0.518  -0.00845  -0.01719  -0.006543  0.01418  -0.1328  -0.8938
6.328e+09  -0.7916  -0.2536  -0.006703  -0.004242  0.04501  -0.01635  -0.4391  -0.8105
6.329e+09  -0.8553  0.03703  0.02061  -0.02384  -0.001962  -0.08301  -0.6996  -0.6167
6.33e+09  -0.7998  0.3411  0.02533  -0.01307  0.00251  -0.00252  -0.825  -0.3084
6.331e+09  -0.6237  0.6005  0.01231  0.01405  -0.03052  -0.001957  -0.9139  -0.01536
6.332e+09  -0.3392  0.8103  -0.01998  -0.03252  -0.01434  0.00338  -0.842  0.2879
6.334e+09  -0.04292  0.8549  0.007  0.01714  0.03794  -0.01358  -0.7386  0.5514
6.335e+09  0.2444  0.8356  0.0009619  0.006995  -0.007808  0.04416  -0.4968  0.8009
6.336e+09  0.5299  0.705  -0.01626  -0.01892  0.01603  0.01015  -0.1919  0.8741
6.338e+09  0.7092  0.4487  0.0003333  0.005921  -0.03048  0.01481  0.08734  0.884
6.339e+09  0.8903  0.1832  -0.002007  -0.03269  0.02678  0.0143  0.4396  0.8103
6.34e+09  0.8079  -0.107  0.02611  -0.007816  -0.01503  -0.01637  0.705  0.5953
6.341e+09  0.6946  -0.4472  0.03213  -0.0006243  -0.02959  -0.01916  0.8621  0.3458
6.342e+09  0.5748  -0.6388  -0.001232  0.01386  -0.009295  -0.003323  0.9236  0.02823
6.344e+09  0.2783  -0.7691  0.03749  -0.03508  -0.03069  0.007142  0.8792  -0.2435
6.345e+09  -0.03632  -0.8468  -0.006351  -0.02186  0.04828  -0.001388  0.7041  -0.6012
6.346e+09  -0.3628  -0.8062  0.02124  0.01487  -0.0146  -0.02678  0.5095  -0.8158
6.348e+09  -0.5784  -0.5935  -0.02512  0.01001  0.0003201  0.008767  0.1937  -0.9027
6.349e+09  -0.7843  -0.3752  0.01305  -0.006882  -0.01198  -0.0141  -0.1337  -0.9724
6.35e+09  -0.8527  -0.06018  0.01941  0.01188  -0.00869  0.03763  -0.4262  -0.8241
6.351e+09  -0.8548  0.2411  -0.006476  0.01505  -0.04854  0.02655  -0.6875  -0.6485
6.352e+09  -0.727  0.5055  0.01818  0.01368  -0.009425  -0.01544  -0.8596  -0.3485
6.354e+09  -0.4947  0.7133  -0.005627  -0.03526  0.04851  0.008741  -0.9329  -0.08818
6.355e+09  -0.2045  0.8524  -0.01611  -0.0007337  0.01512  -0.04422  -0.9264  0.2535
6.356e+09  0.09257  0.8734  -0.00556  0.05121  0.02379  0.03697  -0.7624  0.5878
6.358e+09  0.4074  0.7342  -0.02359  0.01746  -0.02797  -0.01894  -0.5494  0.8085
6.359e+09  0.6663  0.5806  -0.006154  0.0211  0.01419  0.006946  -0.2681  0.9136
6.36e+09  0.8183  0.3062  -0.01083  0.06138  0.008669  0.001966  0.07317  0.9429
6.361e+09  0.8341  -0.004559  -0.01546  0.01574  -0.02012  0.002754  0.4167  0.8369
6.362e+09  0.7955  -0.292  -0.03195  -0.02134  0.0018  -0.02786  0.679  0.6879
6.364e+09  0.6744  -0.5501  0.0005097  -0.0158  -0.03623  0.02309  0.852  0.3917
6.365e+09  0.3931  -0.7959  -0.02628  0.01231  0.02229  0.006927  0.9265  0.06064
6.366e+09  0.142  -0.8554  0.01286  0.02001  0.01085  0.00253  0.9198  -0.2644
6.368e+09  -0.2206  -0.8648  -0.004559  0.02203  0.0418  0.04293  0.7655  -0.5511
6.369e+09  -0.5128  -0.7285  0.01918  0.01101  0.0002683  -0.04506  0.528  -0.7859
6.37e+09  -0.7064  -0.5235  0.009485  -0.02543  -0.0196  0.003929  0.2471  -0.926
6.371e+09  -0.8082  -0.2294  -0.01591  0.02512  -0.02697  0.0339  -0.09532  -0.9317
6.372e+09  -0.8404  0.1385  0.001417  -0.02001  -0.02066  -0.03108  -0.4106  -0.8419
6.374e+09  -0.7811  0.3625  0.003694  0.006187  0.01243  -0.00559  -0.652  -0.6797
6.375e+09  -0.5744  0.614  0.001876  -0.01206  -0.01051  0.01534  -0.799  -0.3797
6.376e+09  -0.3137  0.7972  -0.03727  -0.01748  -0.01377  -0.04001  -0.9595  -0.1257
6.378e+09  -0.0002366  0.845  0.009391  -0.0172  -0.03066  -0.00363  -0.8826  0.2153
6.379e+09  0.3051  0.8168  -0.01374  0.03954  -0.009339  -0.003389  -0.7908  0.4893
6.38e+09  0.6134  0.6106  -0.006533  -0.02414  0.01118  0.01482  -0.608  0.7682
6.381e+09  0.7913  0.4281  0.02498  -0.005849  -0.002514  0.03082  -0.2616  0.914
6.382e+09  0.8487  0.0902  -0.02035  -0.007986  -0.05448  -0.0268  0.07432  0.9097
6.384e+09  0.8474  -0.2004  -0.02701  0.003352  0.01073  0.006297  0.3551  0.8872
6.385e+09  0.6996  -0.4979  -0.04698  0.01574  0.02261  0.008422  0.6322  0.6901
6.386e+09  0.4843  -0.7536  -0.005372  0.05304  0.02627  0.01665  0.8429  0.3756
6.388e+09  0.1893  -0.8504  -0.02828  -0.004128  -0.02847  0.05682  0.9362  0.1184
6.389e+09  -0.1122  -0.9104  -0.0007513  0.02517  -0.02971  0.04255  0.8775  -0.2556
6.39e+09  -0.4359  -0.7914  -0.0107  0.006745  0.01925  0.008577  0.7724  -0.5294
6.391e+09  -0.6392  -0.5608  0.01753  -0.009418  -0.02386  0.04485  0.5703  -0.7312
6.392e+09  -0.8558  -0.3186  -0.02049  0.02568  0.01471  -0.001693  0.2657  -0.8813
6.394e+09  -0.8773  0.006103  -0.03602  0.005609  0.001773  0.005559  -0.02877  -0.9683
6.395e+09  -0.8245  0.296  0.01394  -0.03499  -0.02733  -0.01452  -0.3729  -0.8886
6.396e+09  -0.6432  0.6201  -0.03416  0.001826  0.03645  0.04605  -0.6054  -0.6749
6.398e+09  -0.3316  0.7817  -0.01696  0.003375  0.02415  0.01782  -0.7384  -0.4561
6.399e+09  -0.05005  0.8223  0.009508  0.01744  -0.004815  0.00534  -0.9472  -0.1072
6.4e+09  0.2585  0.8446  0.03837  -0.01779  -0.02046  0.07572  -0.9136  0.2052
6.401e+09  0.4689  0.692  0.01569  0.009589  0.01924  -0.006613  -0.7951  0.4906
6.402e+09  0.7187  0.4573  0.009588  0.01604  -0.009278  0.02509  -0.5757  0.7341
6.404e+09  0.8117  0.183  -0.04514  -0.01545  -0.01788  0.02059  -0.312  0.8786
6.405e+09  0.8451  -0.1481  -0.01096  -0.004319  -0.02329  -0.02544  0.00214  0.9272
6.406e+09  0.7974  -0.4102  0.0001046  0.01378  0.01892  0.02737  0.3049  0.8894
6.408e+09  0.5547  -0.6729  -0.01384  0.02809  0.04553  0.008435  0.6015  0.6765
6.409e+09  0.3179  -0.789  0.005437  0.00328  -0.0171  -0.02114  0.7832  0.4708
6.41e+09  -0.03948  -0.8942  -0.03692  0.02083  -0.007253  0.01035  0.9283  0.1517
6.411e+09  -0.3805  -0.7956  0.004827  -0.0153  0.04238  0.002802  0.8876  -0.1184
6.412e+09  -0.6186  -0.6516  0.03607  0.003509  0.03505  -0.01225  0.7963  -0.4384
6.414e+09  -0.8066  -0.3504  0.003172  -0.03652  -0.01358  -0.02354  0.5755  -0.6659
6.415e+09  -0.8529  -0.0423  0.0361  0.00614  -0.00724  0.0345  0.3052  -0.8106
6.416e+09  -0.7978  0.3024  -0.0261  -0.01667  -0.03424  -0.004913  0.007572  -0.8474
6.418e+09  -0.6816  0.5532  -0.004  0.01811  -0.002826  -0.02685  -0.2243  -0.8351
6.419e+09  -0.4272  0.735  0.02555  -0.04645  0.0229  0.04025  -0.5097  -0.7011
6.42e+09  -0.1415  0.8851  0.01725  0.03749  -0.002652  0.01786  -0.7313  -0.5132
6.421e+09  0.2452  0.8916  -0.02756  0.005997  -0.01703  -0.02532  -0.8553  -0.1764
6.422e+09  0.5307  0.7677  -0.02056  -0.0356  0.0113  -0.02472  -0.841  0.09843
6.424e+09  0.7065  0.4801  0.05248  -0.005067  0.003546  0.003781  -0.8367  0.4119
6.425e+09  0.8036  0.1586  0.01301  -0.0277  -0.01646  -0.04901  -0.5897  0.631
6.426e+09  0.8999  -0.1826  0.01269  0.02754  0.01114  -0.02803  -0.3528  0.834
6.428e+09  0.7298  -0.4421  0.01244  0.006105  0.008687  -5.25e-05  -0.08032  0.8918
6.429e+09  0.5537  -0.719  0.003835  -0.001871  -0.003419  0.02969  0.231  0.8425
6.43e+09  0.2875  -0.7881  -0.02582  0.006949  -0.04246  0.00589  0.5304  0.6905
6.431e+09  -0.09394  -0.9369  0.02072  -0.01208  -0.01999  -0.01117  0.691  0.4446
6.432e+09  -0.4067  -0.7626  -0.02039  -0.02146  -0.0151  0.01088  0.8521  0.1934
6.434e+09  -0.6759  -0.5866  -0.02869  -0.01166  -0.01783  -0.02194  0.8914  -0.1349
6.435e+09  -0.8009  -0.2931  0.01285  0.01557  0.01606  0.002641  0.7601  -0.3618
6.436e+09  -0.9168  0.03792  0.04217  0.001912  0.01465  -0.06167  0.5906  -0.6059
6.438e+09  -0.838  0.3165  0.02672  0.009326  -0.04909  -0.02845  0.3902  -0.7798
6.439e+09  -0.5883  0.6293  0.005099  0.03828  -0.02024  0.04722  0.04673  -0.8788
6.44e+09  -0.4075  0.8184  -0.01959  -0.02067  0.007073  -0.05069  -0.2391  -0.8152
6.441e+09  -0.0359  0.8955  -0.001408  0.03259  0.05209  0.002631  -0.496  -0.6805
6.442e+09  0.2466  0.8481  -0.023  -0.01809  -0.006025  -0.01008  -0.7561  -0.4981
6.444e+09  0.5394  0.7217  -0.05767  -0.009837  -0.01604  -0.0282  -0.8412  -0.2749
6.445e+09  0.7695  0.3792  0.002492  0.01442  -0.01651  -0.04057  -0.8207  0.1167
6.446e+09  0.9187  0.1159  -0.04124  0.01028  -0.02699  0.0001661  -0.7804  0.3929
6.448e+09  0.8464  -0.1984  -0.02857  -0.03473  -0.04454  -0.03729  -0.6193  0.5872
6.449e+09  0.7003  -0.4767  -0.02882  -0.002656  -0.02558  -0.01592  -0.3376  0.8115
6.45e+09  0.4712  -0.7149  0.005694  -0.02248  -0.04243  -0.03731  -0.04492  0.8465
6.451e+09  0.1982  -0.8833  0.003529  -0.01177  -0.02761  -0.01382  0.2169  0.8187
6.452e+09  -0.2169  -0.8909  -0.01384  -0.03971  0.02382  -0.0257  0.4527  0.7284
6.454e+09  -0.4497  -0.748  -0.009394  -0.02998  0.02141  -0.01306  0.672  0.4439
6.455e+09  -0.6643  -0.503  0.005279  -0.02972  -0.01797  -0.0567  0.8372  0.2211
6.456e+09  -0.8306  -0.2736  0.001979  -0.01519  0.03683  -0.02954  0.7859  -0.06713
6.458e+09  -0.8346  0.08614  -0.004426  0.01132  0.01877  0.02456  0.7279  -0.3965
6.459e+09  -0.6454  0.4265  -0.03886  -0.005384  0.03509  0.002114  0.5583  -0.6146
6.46e+09  -0.5438  0.6633  0.03617  -0.005623  0.01076  0.05676  0.3154  -0.7463
6.461e+09  -0.2684  0.7948  0.03385  -0.002468  -0.01017  -0.003129  0.09563  -0.8399
6.462e+09  0.06832  0.8336  -0.01506  -0.0298  -0.04205  0.02567  -0.2261  -0.7717
6.464e+09  0.3519  0.764  -0.002327  -0.01619  0.002896  0.01681  -0.4372  -0.6971
6.465e+09  0.5935  0.6348  -0.02222  0.005005  0.00608  0.06789  -0.6477  -0.4306
6.466e+09  0.7547  0.303  0.01594  0.00548  0.0374  0.02549  -0.8092  -0.1772
6.468e+09  0.8103  0.03266  0.03973  -0.04214  0.04778  0.003216  -0.7855  0.06959
6.469e+09  0.7602  -0.2513  -0.004191  0.03999  0.004645  0.03682  -0.7337  0.3016
6.47e+09  0.5987  -0.5321  0.04375  0.006088  -0.004074  0.009151  -0.5596  0.5489
6.471e+09  0.3663  -0.7422  0.02063  -0.0004265  0.02137  0.009897  -0.359  0.728
6.472e+09  0.07257  -0.8127  0.02807  -0.01693  0.01038  -0.03598  -0.05451  0.7994
6.474e+09  -0.2283  -0.7748  -0.008805  0.04048  0.003167  -0.038  0.2075  0.7535
6.475e+09  -0.5118  -0.6516  -0.0235  -0.01972  0.0331  0.04137  0.436  0.6208
6.476e+09  -0.7169  -0.4033  0.007656  -0.0115  -0.01276  0.01129  0.66  0.4338
6.478e+09  -0.7457  -0.1539  0.03353  0.003913  0.004373  -0.03849  0.7722  0.1644
6.479e+09  -0.7793  0.1952  -0.01366  -0.01426  -0.01172  0.01153  0.7302  -0.08409
6.48e+09  -0.6464  0.3777  -0.006329  0.01147  0.04267  0.04235  0.7237  -0.3037
6.481e+09  -0.4859  0.647  -0.01489  0.0008409  -0.009184  0.001501  0.5599  -0.5683
6.482e+09  -0.2364  0.7411  0.0275  -0.01693  -0.01545  0.002309  0.297  -0.7113
6.484e+09  0.0556  0.7593  0.03786  -0.01506  -0.03593  -0.01966  0.05167  -0.7685
6.485e+09  0.3868  0.6903  0.01809  -0.01078  -0.005458  -0.000922  -0.2331  -0.7452
6.486e+09  0.5335  0.5718  -0.01602  0.01297  0.02431  0.017  -0.445  -0.6515
6.488e+09  0.7374  0.2806  -0.01514  0.0004336  -0.0133  0.006101  -0.6439  -0.4195
6.489e+09  0.8015  0.01008  -0.0002433  0.00502  0.01996  -0.02742  -0.7776  -0.1751
6.49e+09  0.7498  -0.2466  -0.001112  0.01166  0.01492  -0.02635  -0.7499  0.09963
6.491e+09  0.5512  -0.4976  0.06053  -0.004503  -0.0198  0.02447  -0.6891  0.3651
6.492e+09  0.3801  -0.6793  -0.01195  0.0205  -0.01866  0.04667  -0.5399  0.5503
6.494e+09  0.1382  -0.7507  0.03314  0.01518  0.007458  -0.01829  -0.3345  0.6932
6.495e+09  -0.2359  -0.7674  -0.008927  0.0009233  0.01053  -0.03838  -0.03609  0.776
6.496e+09  -0.4583  -0.5808  0.02922  0.02945  0.04735  0.02461  0.2522  0.7172
6.498e+09  -0.6264  -0.3657  -0.003838  -0.005923  -0.05352  0.002095  0.4651  0.5967
6.499e+09  -0.737  -0.1879  0.005454  -0.007857  -0.05415  0.03487  0.6506  0.4459
6.5e+09  -0.7243  0.04034  -0.01476  -0.001584  -0.0573  0.02749  0.7501  0.1637
6.501e+09  -0.6439  0.3654  -0.02569  0.02337  0.005709  -0.004104  0.7423  -0.09289
6.502e+09  -0.4457  0.61  0.01499  -0.01937  -0.01132  -0.0325  0.6872  -0.3675
6.504e+09  -0.2076  0.6687  -0.01622  0.02356  0.0009867  0.03527  0.5401  -0.5609
6.505e+09  0.07438  0.6931  0.004691  -0.016  0.003803  -0.01119  0.2645  -0.7202
6.506e+09  0.2827  0.6838  0.00817  -0.04785  0.007765  -0.02781  0.009791  -0.7584
6.508e+09  0.5165  0.5627  -0.006809  -0.0002762  0.04293  -0.01621  -0.2501  -0.7049
6.509e+09  0.6934  0.343  0.03651  0.01205  0.001519  0.03437  -0.4712  -0.5426
6.51e+09  0.7043  0.05445  0.01468  -0.02935  0.009207  0.00819  -0.6765  -0.3878
6.511e+09  0.7231  -0.243  0.003014  -0.009944  -0.01163  -0.05414  -0.7409  -0.1209
6.512e+09  0.6152  -0.4284  0.01126  0.04127  0.01513  -0.02458  -0.7596  0.1405
6.514e+09  0.4231  -0.6192  -0.002385  0.007818  -0.07842  -0.001615  -0.6738  0.3795
6.515e+09  0.1812  -0.744  -0.01957  -0.007408  0.01025  -0.01278  -0.4897  0.622
6.516e+09  -0.1259  -0.7684  -0.006264  -0.01687  -0.0347  2.465e-05  -0.2376  0.7254
6.518e+09  -0.415  -0.6442  0.009362  -0.006979  -0.04109  0.0105  -0.01858  0.7885
6.519e+09  -0.5809  -0.5282  -0.0005255  -0.004609  -0.05054  -0.0114  0.2696  0.7267
6.52e+09  -0.7302  -0.2599  -0.0245  -0.0006744  -0.00474  -0.002559  0.4954  0.5414
6.521e+09  -0.7445  0.009626  -0.01031  0.01941  -0.02754  -0.001426  0.6064  0.3341
6.522e+09  -0.6836  0.3104  0.01559  -0.006365  0.009082  -0.03455  0.7236  0.1146
6.524e+09  -0.5399  0.5239  0.006519  -0.007135  -0.01049  -0.02444  0.719  -0.1628
6.525e+09  -0.3478  0.6445  -0.02444  -0.02478  0.005325  -0.006524  0.6365  -0.3885
6.526e+09  -0.06324  0.7855  0.02367  -0.04107  0.03257  -0.05673  0.4388  -0.6014
6.528e+09  0.1531  0.7491  0.01172  -0.0121  0.0221  0.007  0.1716  -0.6745
6.529e+09  0.4542  0.6428  0.02563  0.004192  0.002098  -0.001666  -0.06057  -0.7108
6.53e+09  0.5914  0.4216  0.0208  0.005435  0.03727  -0.007872  -0.2796  -0.6197
6.531e+09  0.7785  0.1488  0.0255  0.0008864  -0.006742  -0.08619  -0.4665  -0.4808
6.532e+09  0.7717  -0.08922  0.02793  0.01843  0.01888  -0.02414  -0.6043  -0.268
6.534e+09  0.6868  -0.3975  -0.009224  -0.004233  0.00223  -0.02406  -0.6404  -0.05717
6.535e+09  0.4987  -0.6937  -0.009853  0.0117  -0.009511  -0.02706  -0.6599  0.1225
6.536e+09  0.2884  -0.7705  0.01017  -0.01528  0.0008716  -0.05093  -0.5452  0.3195
6.538e+09  -0.02597  -0.8005  -0.02387  -0.01673  0.02138  0.01016  -0.4781  0.4916
6.539e+09  -0.351  -0.7259  -0.01398  -0.01163  -0.02933  0.07854  -0.2815  0.6009
6.54e+09  -0.5564  -0.6304  0.02467  -0.004577  -0.0259  -0.03827  -0.03235  0.6718
6.541e+09  -0.7026  -0.3433  0.01615  -0.003958  -0.01257  -0.006899  0.201  0.6897
6.542e+09  -0.825  -0.05521  -0.01516  -0.005109  0.004509  -0.01078  0.3804  0.5567
6.544e+09  -0.7409  0.201  0.00797  -0.02092  0.007159  0.00686  0.5978  0.4076
6.545e+09  -0.629  0.5061  -0.0006023  -0.01697  0.02837  0.008705  0.6869  0.1669
6.546e+09  -0.4639  0.7021  0.003338  -0.001689  -0.02737  0.03051  0.7278  -0.07611
6.548e+09  -0.1395  0.7877  -0.02482  0.009923  -0.05024  -0.01935  0.6169  -0.3356
6.549e+09  0.0753  0.8755  0.01234  0.006113  0.01564  -0.0104  0.4663  -0.5484
6.55e+09  0.3912  0.7339  0.007992  0.005881  0.05881  0.0297  0.3035  -0.6645
