# Hz S RI R 50
6.25e+09  0.3816  -0.6662  -0.001618  0.02409  0.01405  0.01361  0.1872  0.4796
6.251e+09  0.105  -0.7942  0.01777  0.01817  -0.02035  0.02758  0.3695  0.3907
6.252e+09  -0.1903  -0.7527  0.01344  -0.01223  0.01001  0.005291  0.5319  0.2357
6.254e+09  -0.4621  -0.6693  0.001041  -0.007672  -0.01814  -0.001452  0.5991  0.02441
6.255e+09  -0.606  -0.4657  0.03264  -0.02155  0.02181  0.0678  0.5677  -0.221
6.256e+09  -0.7474  -0.1524  0.03455  0.005508  -0.01753  -0.004838  0.5017  -0.4258
6.258e+09  -0.8004  0.09989  -0.008005  -0.004859  0.05132  0.05839  0.271  -0.6099
6.259e+09  -0.7287  0.3601  0.02335  -0.03245  -0.02702  -0.03376  0.0415  -0.6446
6.26e+09  -0.4552  0.5994  -0.01146  -0.03104  0.006366  0.05743  -0.212  -0.6635
6.261e+09  -0.2333  0.7394  0.02243  0.02539  0.007562  0.02014  -0.4509  -0.5413
6.262e+09  0.07279  0.8505  0.01197  -0.003771  -0.01444  0.04649  -0.6232  -0.3372
6.264e+09  0.2601  0.7114  0.002281  -0.006784  -0.02543  -0.03121  -0.6887  -0.1128
6.265e+09  0.5332  0.5492  0.0026  0.0126  -0.009828  0.02135  -0.6879  0.1341
6.266e+09  0.7057  0.2962  -0.004224  0.01511  -0.05912  0.009013  -0.5996  0.3968
6.268e+09  0.7536  0.07968  -0.04263  -0.01153  0.02225  0.005903  -0.4284  0.5798
6.269e+09  0.7574  -0.1839  0.01254  0.01072  0.008464  0.03298  -0.21  0.7154
6.27e+09  0.6113  -0.4544  -0.0007694  0.03415  -0.00895  -0.04102  0.07565  0.7285
6.271e+09  0.4727  -0.7041  0.01296  -0.002676  0.005488  0.01186  0.3275  0.6821
6.272e+09  0.116  -0.7971  -0.01346  -0.006089  0.01354  0.09432  0.543  0.529
6.274e+09  -0.09905  -0.7606  -0.01883  0.002241  -0.01333  0.004455  0.6972  0.3121
6.275e+09  -0.4206  -0.6681  -0.0122  -0.02403  -0.01325  -0.02816  0.7523  0.07541
6.276e+09  -0.6007  -0.4391  0.01893  -0.002507  -0.03106  -0.01078  0.7401  -0.2206
6.278e+09  -0.74  -0.2501  0.02583  0.0216  -0.0322  0.04943  0.6283  -0.4479
6.279e+09  -0.7912  -0.004206  -0.004967  -0.001483  -0.06846  -0.05399  0.4185  -0.6803
6.28e+09  -0.7493  0.2286  -0.01586  -0.01525  0.04241  0.02697  0.152  -0.802
6.281e+09  -0.5557  0.5721  -0.008932  -0.0004855  -0.004716  0.02689  -0.1186  -0.7654
6.282e+09  -0.3706  0.6905  -0.03244  0.006281  -0.06156  -0.003548  -0.3832  -0.6573
6.284e+09  -0.05532  0.781  -0.0008837  0.01297  0.03551  0.0258  -0.6067  -0.5224
6.285e+09  0.2185  0.7525  0.01655  0.001213  -0.02071  0.06846  -0.746  -0.2729
6.286e+09  0.4286  0.6711  -0.005089  0.0153  0.0004707  -0.003273  -0.8053  -0.0009771
6.288e+09  0.6897  0.3786  0.000206  -0.002734  -0.07002  0.01145  -0.7929  0.2762
6.289e+09  0.7428  0.1963  -0.007417  -0.03344  -0.03204  0.02598  -0.6312  0.5067
6.29e+09  0.8127  -0.1331  -0.004603  -0.02197  -0.04243  -0.004775  -0.4022  0.6841
6.291e+09  0.6415  -0.4317  0.0102  -0.00834  0.02545  0.02538  -0.1618  0.7697
6.292e+09  0.5388  -0.5594  -0.007282  -0.01749  0.0245  -0.03254  0.1344  0.797
6.294e+09  0.2541  -0.7035  -0.002496  0.02488  -0.02057  -0.0009125  0.4162  0.7383
6.295e+09  -0.01563  -0.8037  -0.003596  0.01413  -0.009673  0.02879  0.5947  0.5217
6.296e+09  -0.3183  -0.7296  -0.01617  0.007821  0.001752  -0.02621  0.762  0.2735
6.298e+09  -0.5052  -0.5981  0.0147  -0.02165  0.02218  0.02777  0.8438  0.004177
6.299e+09  -0.6897  -0.3245  0.006169  0.02846  0.04141  -0.04978  0.8277  -0.2612
6.3e+09  -0.7907  -0.06302  -0.01096  0.002514  -0.003502  -0.01249  0.6638  -0.543
6.301e+09  -0.8039  0.214  -0.009921  0.02739  0.01762  -0.006793  0.433  -0.7237
6.302e+09  -0.651  0.437  0.006871  0.01859  -0.02967  0.02029  0.1354  -0.8304
6.304e+09  -0.4502  0.673  0.008612  -0.02506  -0.04413  0.02651  -0.1363  -0.8228
6.305e+09  -0.2219  0.7603  0.001378  -0.001632  -0.03222  0.02243  -0.452  -0.7057
6.306e+09  0.103  0.8576  0.001573  -0.01406  0.02177  -0.01279  -0.6512  -0.5295
6.308e+09  0.3711  0.6879  0.02365  0.01289  0.00782  0.04527  -0.7988  -0.3077
6.309e+09  0.6147  0.534  0.01895  0.02201  0.07578  0.01296  -0.8518  -0.01739
6.31e+09  0.7279  0.2475  0.017  0.0144  -0.0135  -0.004069  -0.8166  0.2848
6.311e+09  0.8267  -0.05998  -0.028  -0.02633  0.001792  0.04633  -0.6713  0.5457
6.312e+09  0.7587  -0.2686  -0.02646  -0.02237  -0.03474  -0.001149  -0.4306  0.7779
6.314e+09  0.6  -0.5596  -0.009218  -0.02484  -0.003216  -0.01181  -0.1579  0.872
6.315e+09  0.3684  -0.7133  -0.02101  0.01617  -0.05686  0.03401  0.1608  0.8878
6.316e+09  0.1063  -0.7482  0.02456  0.000196  0.004358  -0.0189  0.4341  0.7481
6.318e+09  -0.1686  -0.8018  0.007138  -0.01166  0.01161  0.01072  0.6688  0.5836
6.319e+09  -0.4593  -0.6617  -0.02289  -0.004943  -0.06423  -0.02323  0.8295  0.3301
6.32e+09  -0.6952  -0.4726  -0.02359  0.01273  0.0282  0.04734  0.8882  -0.009131
6.321e+09  -0.7835  -0.2429  0.03079  -0.00634  -0.03491  0.01146  0.8223  -0.2809
6.322e+09  -0.7949  0.1158  0.0008283  0.003315  0.0008808  -0.008329  0.6827  -0.563
6.324e+09  -0.801  0.3669  0.01837  -0.02258  0.0005195  -0.04285  0.4628  -0.7589
6.325e+09  -0.4871  0.6125  0.001077  0.001947  0.07171  -0.02426  0.1412  -0.8618
6.326e+09  -0.3432  0.7381  -0.00559  -0.006084  -0.03268  0.02864  -0.1222  -0.9049
6.328e+09  -0.02239  0.758  -0.001616  0.02539  -0.02655  0.0258  -0.4334  -0.7894
6.329e+09  0.3087  0.7432  -0.03004  0.006334  -0.06646  0.03543  -0.6277  -0.6025
6.33e+09  0.5542  0.6425  -0.003672  0.02186  -0.005128  -0.01358  -0.8383  -0.3277
6.331e+09  0.7503  0.3608  -0.008577  -0.01275  -0.03893  -0.0102  -0.9119  -0.02344
6.332e+09  0.8036  0.1122  -0.01103  -0.01341  -0.02582  0.04677  -0.8497  0.3341
6.334e+09  0.7765  -0.1796  -0.03397  0.01962  0.02519  -0.01474  -0.705  0.6036
6.335e+09  0.6594  -0.4681  0.004473  0.03176  -0.001367  -0.0233  -0.457  0.755
6.336e+09  0.4604  -0.652  -0.01927  0.03891  -0.02607  -0.02974  -0.2058  0.8929
6.338e+09  0.1715  -0.7855  0.01477  0.001704  -0.04517  0.03056  0.1508  0.8851
6.339e+09  -0.07886  -0.8364  -0.001289  -0.05737  0.02432  -0.03041  0.4332  0.8101
6.34e+09  -0.4229  -0.7391  -0.001251  0.01181  0.002104  -0.03449  0.6993  0.6149
6.341e+09  -0.6066  -0.5341  0.0211  0.01922  -0.0112  0.009158  0.8762  0.3688
6.342e+09  -0.802  -0.2949  0.01839  0.01707  -0.01821  -0.03733  0.9307  0.02722
6.344e+09  -0.8451  0.01135  -0.009989  0.006755  0.01888  0.005776  0.8855  -0.3003
6.345e+09  -0.7531  0.2816  0.002287  -0.01844  -0.00735  -0.006826  0.7295  -0.5656
6.346e+09  -0.5941  0.5353  0.001042  0.01422  -0.02838  0.02987  0.4872  -0.7874
6.348e+09  -0.406  0.7439  -0.01954  0.03379  0.0162  -0.02048  0.2179  -0.8983
6.349e+09  -0.09763  0.8036  0.005561  0.004215  -0.02391  0.02236  -0.09808  -0.9262
6.35e+09  0.163  0.8464  -0.01383  0.002983  -0.03004  0.02358  -0.4091  -0.8434
6.351e+09  0.4785  0.6718  -0.01886  0.001512  0.03634  -0.02653  -0.669  -0.693
6.352e+09  0.6927  0.427  0.0381  0.009908  -0.01105  0.01975  -0.8549  -0.342
6.354e+09  0.8372  0.1955  -0.01372  0.02996  0.03744  -0.0002433  -0.9228  -0.08346
6.355e+09  0.8299  -0.1231  -0.004578  0.005005  0.007039  0.0005973  -0.8937  0.2245
6.356e+09  0.7058  -0.391  -0.01162  -0.005542  -0.02117  -0.02799  -0.7564  0.5534
6.358e+09  0.5495  -0.6219  -0.01571  -0.0002574  0.005163  0.02857  -0.5565  0.7598
6.359e+09  0.3119  -0.8503  0.03171  -0.01107  0.0301  0.01301  -0.2238  0.9296
6.36e+09  -0.07853  -0.8552  -0.003146  -0.02526  0.001474  -0.006111  0.06444  0.9562
6.361e+09  -0.3034  -0.8292  -0.01676  0.03929  -0.01562  -0.004801  0.3827  0.8731
6.362e+09  -0.5445  -0.5853  0.003567  -0.02291  0.04024  -0.02765  0.6785  0.7018
6.364e+09  -0.7846  -0.3455  -0.02111  -0.004348  0.05242  0.01772  0.8732  0.4024
6.365e+09  -0.8729  -0.07986  -0.01644  0.01984  0.01574  0.01786  0.9615  0.09155
6.366e+09  -0.7934  0.2531  0.01207  -0.01007  -0.02324  0.0002298  0.9593  -0.2985
6.368e+09  -0.6488  0.5358  0.01433  0.001996  0.05564  0.007996  0.794  -0.5861
6.369e+09  -0.4201  0.7117  0.002798  0.02342  0.003037  -0.01692  0.5249  -0.7385
6.37e+09  -0.1734  0.8275  -0.01152  0.003021  0.04553  0.03583  0.2907  -0.9254
6.371e+09  0.1483  0.8645  -0.01753  -0.005226  0.027  0.01307  -0.08035  -0.9722
6.372e+09  0.4849  0.7144  -0.01905  0.01124  0.02641  -0.04522  -0.439  -0.8194
6.374e+09  0.6999  0.5099  -0.03767  -0.01371  0.003578  -0.003927  -0.6919  -0.6516
6.375e+09  0.8349  0.2403  0.01463  0.008855  -0.002059  -0.02565  -0.8611  -0.3847
6.376e+09  0.8318  -0.05937  -0.03001  0.00221  0.02517  0.01319  -0.9642  -0.09668
6.378e+09  0.7514  -0.3832  -0.02925  -0.01448  -0.01799  -0.03199  -0.9348  0.1948
6.379e+09  0.6169  -0.585  0.02189  -0.01004  0.007352  0.05182  -0.8177  0.5306
6.38e+09  0.3259  -0.7825  0.01381  -0.01947  -0.04299  0.01693  -0.5377  0.7668
6.381e+09  0.00152  -0.8334  0.02325  0.01447  0.03297  -0.03125  -0.2544  0.8875
6.382e+09  -0.2529  -0.7906  -0.03109  -0.009066  -0.04945  0.02221  0.07602  0.9128
6.384e+09  -0.5714  -0.668  0.006702  0.01693  0.009331  -0.03175  0.3691  0.8804
6.385e+09  -0.7364  -0.4021  0.03025  0.04044  -0.03012  0.03322  0.6596  0.6927
6.386e+09  -0.8416  -0.1109  -0.01741  0.01852  0.004648  -0.001872  0.8387  0.4488
6.388e+09  -0.8631  0.1404  0.03714  -0.04315  0.02158  -0.04252  0.9256  0.1227
6.389e+09  -0.7496  0.4943  -0.02646  0.01297  -0.03841  0.03406  0.8952  -0.197
6.39e+09  -0.4386  0.7147  -0.02955  0.01021  0.0007576  0.007728  0.8014  -0.518
6.391e+09  -0.1948  0.828  -0.007882  0.01208  0.03088  0.02629  0.5497  -0.7841
6.392e+09  0.1208  0.8344  -0.03579  -0.01532  -0.005649  0.006333  0.298  -0.8906
6.394e+09  0.4204  0.7448  0.0143  0.003665  0.01209  0.03095  -0.03839  -0.9423
6.395e+09  0.6725  0.5838  0.0426  0.0004962  0.001643  -0.000987  -0.3517  -0.8765
6.396e+09  0.8292  0.3441  0.02698  0.009094  0.03521  -0.01581  -0.6238  -0.6677
6.398e+09  0.8699  -0.06636  -0.006727  -0.02063  -0.04587  -0.01146  -0.8397  -0.4351
6.399e+09  0.792  -0.3361  -0.03024  0.01299  0.001179  -0.02003  -0.9339  -0.1493
6.4e+09  0.6552  -0.6051  0.02795  -0.008931  0.01603  0.01912  -0.9394  0.2061
6.401e+09  0.3509  -0.7586  0.02929  -0.007211  -0.02711  0.008015  -0.7858  0.5151
6.402e+09  0.0648  -0.8746  -0.003111  -0.03514  -0.01829  0.02044  -0.5926  0.7222
6.404e+09  -0.2421  -0.8116  0.04325  -0.01511  0.03031  -0.005338  -0.3343  0.9029
6.405e+09  -0.5005  -0.6848  -0.02354  0.003149  0.04602  0.04425  0.003072  0.9199
6.406e+09  -0.735  -0.4478  -0.02231  -0.002883  0.00407  0.01518  0.2999  0.9085
6.408e+09  -0.7826  -0.1597  -0.0116  0.01973  -0.01995  0.0586  0.5799  0.684
6.409e+09  -0.8022  0.07929  -0.05326  -0.04116  -0.01149  -0.008704  0.7698  0.4608
6.41e+09  -0.7221  0.4492  0.005483  0.01817  0.008037  -0.04554  0.9028  0.219
6.411e+09  -0.5465  0.6715  0.02185  0.03507  -0.02234  0.03992  0.871  -0.1606
6.412e+09  -0.2532  0.8  -0.01885  -0.01618  -0.002174  -0.01348  0.8203  -0.4341
6.414e+09  0.06062  0.8635  0.00177  -0.002203  0.008156  0.0131  0.6227  -0.6875
6.415e+09  0.3562  0.7936  0.01525  0.004802  0.01746  0.01478  0.3095  -0.8192
6.416e+09  0.6597  0.5844  -0.04777  0.01654  -0.04288  -0.007666  0.01692  -0.8925
6.418e+09  0.8122  0.3874  0.04388  -0.03954  0.05494  0.01209  -0.2352  -0.8832
6.419e+09  0.8577  0.05643  -0.008707  0.013  0.004067  0.00107  -0.5274  -0.7571
6.42e+09  0.7842  -0.2581  0.004817  -0.004402  -0.04646  -0.05463  -0.7421  -0.476
6.421e+09  0.698  -0.5278  0.02662  0.002962  -0.02064  -0.04553  -0.9009  -0.1933
6.422e+09  0.4425  -0.7097  0.01558  -0.01979  0.001145  0.01706  -0.9177  0.1442
6.424e+09  0.1132  -0.8987  -0.006156  -6.44e-05  -0.007513  0.04388  -0.7737  0.3904
6.425e+09  -0.1482  -0.8847  0.001181  0.01128  0.03137  -0.03273  -0.604  0.6953
6.426e+09  -0.4936  -0.7126  -0.01931  0.005815  -0.003086  -0.01059  -0.3505  0.8314
6.428e+09  -0.6697  -0.5048  0.01089  -0.007439  -0.005744  -0.01856  -0.05477  0.8531
6.429e+09  -0.7859  -0.2337  -0.04001  0.04603  0.0007315  -0.005623  0.2848  0.8366
6.43e+09  -0.8196  0.04942  0.03753  0.004389  -0.04486  -0.002783  0.5249  0.6931
6.431e+09  -0.7221  0.3779  -0.01192  0.03653  0.02581  0.008503  0.7158  0.4999
6.432e+09  -0.5787  0.6034  -0.03962  0.01628  0.01389  0.03458  0.8604  0.242
6.434e+09  -0.3558  0.7743  -0.01997  0.008876  0.004605  0.01186  0.8561  -0.09344
6.435e+09  -0.0005941  0.8771  0.005925  0.006635  0.05772  0.01441  0.8071  -0.3874
6.436e+09  0.3196  0.753  0.004747  -0.01914  -0.001933  -0.01615  0.5926  -0.6479
6.438e+09  0.544  0.6305  0.02551  -0.01857  -0.03393  0.008925  0.3273  -0.7922
6.439e+09  0.7849  0.3674  0.005446  -0.02202  0.005285  -0.009983  0.1003  -0.8819
6.44e+09  0.8316  0.1157  0.004014  0.01401  -0.04753  0.03799  -0.2121  -0.8296
6.441e+09  0.7695  -0.1814  -0.0204  -0.01719  -0.03665  0.03224  -0.5329  -0.6544
6.442e+09  0.68  -0.4461  0.01953  0.04688  0.03893  0.01054  -0.6547  -0.5512
6.444e+09  0.4589  -0.6676  -0.04341  -0.02109  -0.0286  -0.02471  -0.8004  -0.2393
6.445e+09  0.252  -0.8082  0.01722  0.02404  -0.01103  0.03752  -0.841  0.06123
6.446e+09  -0.05936  -0.8198  0.03692  -0.03757  0.01725  -0.02525  -0.7896  0.3556
6.448e+09  -0.3631  -0.7166  -0.02559  -0.02915  -0.03364  -0.01546  -0.5771  0.6206
6.449e+09  -0.588  -0.5577  -0.01594  0.006418  0.0581  0.01568  -0.3348  0.7602
6.45e+09  -0.8001  -0.3359  0.01922  0.02643  -0.01225  -0.06102  -0.03505  0.8397
6.451e+09  -0.8345  -0.02158  0.006327  0.01022  -0.04809  -0.006345  0.2913  0.7904
6.452e+09  -0.7889  0.2656  0.03187  0.015  0.0001369  0.04621  0.4815  0.6354
6.454e+09  -0.6755  0.5292  -0.0008174  -0.03009  -0.02962  0.0342  0.6927  0.4648
6.455e+09  -0.4152  0.6955  0.005312  -0.01127  -0.05275  -0.01792  0.777  0.226
6.456e+09  -0.1287  0.8353  0.01455  0.01023  0.0033  0.03379  0.8407  -0.0421
6.458e+09  0.1665  0.7919  -0.01618  0.01808  -0.001827  -0.06693  0.7731  -0.3251
6.459e+09  0.4222  0.7077  0.03101  -0.009998  -0.01102  0.02193  0.5919  -0.6018
6.46e+09  0.6449  0.5429  -0.03254  -0.004816  0.003604  0.03459  0.3573  -0.7584
6.461e+09  0.7483  0.2447  0.002259  0.04054  0.0004726  0.02184  0.04133  -0.8643
6.462e+09  0.8178  -0.05406  0.003114  -0.02662  0.0228  0.002629  -0.1747  -0.7863
6.464e+09  0.795  -0.3159  0.001162  -0.02126  0.009901  -0.03136  -0.5024  -0.6366
6.465e+09  0.5774  -0.5641  -0.009978  0.02089  -0.01271  0.02128  -0.6264  -0.4324
6.466e+09  0.404  -0.7272  0.04176  -0.02117  -0.02767  -0.0007751  -0.7651  -0.1762
6.468e+09  0.05184  -0.78  -0.01135  0.004772  -0.009456  -0.01233  -0.809  0.07952
6.469e+09  -0.1917  -0.7505  -0.03752  -0.001892  0.01502  0.03459  -0.7327  0.3107
6.47e+09  -0.4599  -0.6126  0.03939  -0.02624  0.04282  -0.02521  -0.5677  0.5672
6.471e+09  -0.637  -0.4599  -0.03217  0.02164  -0.03687  -0.001251  -0.3117  0.6922
6.472e+09  -0.7673  -0.1754  0.009613  0.03693  -0.03203  -0.03566  -0.04874  0.8258
6.474e+09  -0.8408  0.06301  -0.0135  -0.01774  0.04232  -0.01057  0.159  0.7659
6.475e+09  -0.6979  0.366  -0.04198  0.03152  0.02981  0.02327  0.4832  0.6946
6.476e+09  -0.5168  0.6259  -0.05388  0.01954  -0.02822  -0.0225  0.6989  0.4824
6.478e+09  -0.3257  0.7132  0.009444  0.03795  -0.01324  -0.0007928  0.7671  0.2133
6.479e+09  0.01845  0.8107  0.02925  0.01985  -0.002472  0.01046  0.7352  -0.06101
6.48e+09  0.2026  0.7793  -0.01103  -0.005724  0.009759  -0.0515  0.7505  -0.3125
6.481e+09  0.5275  0.6576  -0.0627  0.001505  0.0405  -0.04519  0.5654  -0.6048
6.482e+09  0.6933  0.4146  -0.03237  -0.00574  0.02844  -0.003323  0.3302  -0.6991
6.484e+09  0.8173  0.1561  0.02119  -0.009271  -0.02383  -0.002688  0.02913  -0.7229
6.485e+09  0.7824  -0.09535  0.01153  -0.05329  -0.009975  0.009129  -0.1842  -0.7458
6.486e+09  0.6927  -0.3815  0.02221  -0.0418  -0.01868  -0.01424  -0.4316  -0.6109
6.488e+09  0.5042  -0.6093  0.04821  -0.01046  0.01552  -0.01143  -0.6419  -0.404
6.489e+09  0.2717  -0.7856  0.02707  0.004101  -0.004216  -0.03532  -0.7702  -0.2172
6.49e+09  -0.03942  -0.7712  0.002165  -0.0178  -0.0309  -0.03587  -0.7762  0.07157
6.491e+09  -0.3316  -0.7312  0.01242  0.02227  0.01258  -0.006921  -0.7074  0.3903
6.492e+09  -0.5288  -0.6275  0.01838  0.01454  -0.07709  -0.007468  -0.5282  0.5678
6.494e+09  -0.7371  -0.3843  -0.006482  -0.03758  0.01015  -0.0004142  -0.3173  0.7491
6.495e+09  -0.8306  -0.05444  0.001954  -0.03403  -0.01294  0.05488  -0.03466  0.743
6.496e+09  -0.7733  0.2203  0.01141  0.04615  -0.02938  -0.02673  0.2342  0.7115
6.498e+09  -0.7554  0.4299  0.03448  0.0146  0.001873  -0.001077  0.4454  0.591
6.499e+09  -0.52  0.6777  -0.002432  -0.05834  0.02146  0.03054  0.6493  0.4206
6.5e+09  -0.2208  0.7666  0.03001  0.029  0.03391  0.001345  0.7828  0.1752
6.501e+09  0.08575  0.7975  0.0107  -0.01685  -0.01432  0.003578  0.7572  -0.06596
6.502e+09  0.3119  0.7335  -0.01133  -0.02332  -0.03474  0.0363  0.6813  -0.3393
6.504e+09  0.5592  0.5515  -0.02991  -0.01469  0.009536  0.05013  0.4753  -0.5763
6.505e+09  0.7779  0.3399  0.00928  0.02369  0.005952  0.06474  0.2994  -0.7218
6.506e+09  0.8419  0.06306  0.01372  -0.02126  0.01653  0.02544  0.02748  -0.7679
6.508e+09  0.7924  -0.2447  -0.03247  -0.01265  0.02337  0.0306  -0.2944  -0.734
6.509e+09  0.6844  -0.4721  -0.01966  0.01047  0.04218  -0.02894  -0.4868  -0.5413
6.51e+09  0.4734  -0.6679  -0.008018  -0.008943  -0.02411  -0.00206  -0.67  -0.4019
6.511e+09  0.2447  -0.8464  0.002246  0.00203  0.001578  -0.04749  -0.7612  -0.1392
6.512e+09  -0.167  -0.8427  -0.02556  0.01937  -0.02846  0.01172  -0.7586  0.1264
6.514e+09  -0.3857  -0.759  -0.02413  0.03992  -0.0387  -0.001515  -0.6736  0.3956
6.515e+09  -0.5978  -0.5587  0.009583  0.01264  0.03661  0.05311  -0.4581  0.5725
6.516e+09  -0.7853  -0.3372  0.01675  0.003256  -0.0572  0.02629  -0.2547  0.7172
6.518e+09  -0.8432  -0.02647  -0.01305  0.02441  0.02989  -0.0014  -0.03441  0.7343
6.519e+09  -0.8448  0.2591  0.007514  -0.007712  0.07658  0.03868  0.264  0.6975
6.52e+09  -0.7011  0.5576  -0.004258  0.01275  0.0138  0.04686  0.5285  0.5413
6.521e+09  -0.4422  0.7088  0.03917  -0.04881  -0.002249  -0.01051  0.6517  0.3392
6.522e+09  -0.1231  0.7752  0.009843  -0.001765  -0.03195  0.01102  0.7364  0.1108
6.524e+09  0.102  0.8922  -0.007288  -0.005846  -0.01346  -0.004004  0.719  -0.1684
6.525e+09  0.399  0.7304  -0.01069  -0.01117  0.008231  -0.03015  0.6602  -0.3931
6.526e+09  0.698  0.5987  -0.01333  -0.04075  0.002639  0.0796  0.4299  -0.5884
6.528e+09  0.8364  0.2595  0.02773  0.006871  0.008062  0.01215  0.1714  -0.6571
6.529e+09  0.8378  0.004389  -0.07113  -0.0235  -0.0482  -0.01196  -0.04284  -0.6669
6.53e+09  0.8388  -0.3025  -0.01916  -0.00956  0.01619  -0.03369  -0.2801  -0.6232
6.531e+09  0.6511  -0.6009  -0.007813  0.01671  0.0498  -0.00924  -0.4695  -0.4959
6.532e+09  0.4451  -0.8067  0.01695  -0.01112  0.01169  -0.01195  -0.5589  -0.3016
6.534e+09  0.1405  -0.8515  0.002687  0.01812  0.01298  0.0149  -0.6432  -0.09802
6.535e+09  -0.1918  -0.8452  -0.005008  -0.004696  0.03058  0.01882  -0.6262  0.1223
6.536e+09  -0.4468  -0.762  -0.02972  0.006335  -0.01111  0.03844  -0.5904  0.3031
6.538e+09  -0.6438  -0.5437  -0.01649  0.02288  0.05566  0.04022  -0.4695  0.4666
6.539e+09  -0.8793  -0.2246  -0.005536  0.02733  0.01438  -0.008382  -0.311  0.589
6.54e+09  -0.8855  0.01243  -0.03776  -0.0322  -0.01094  0.01237  -0.03607  0.7108
6.541e+09  -0.8327  0.329  -0.01999  0.02439  -0.000176  0.02712  0.193  0.6783
6.542e+09  -0.6773  0.6876  0.01471  0.0229  -0.001593  0.05024  0.4273  0.5434
6.544e+09  -0.3823  0.8376  0.01852  -0.03903  0.02488  -0.03171  0.5936  0.4015
6.545e+09  -0.07426  0.9112  0.03703  -0.005631  0.007234  0.006417  0.7008  0.1858
6.546e+09  0.2729  0.8924  0.0145  -0.01087  -0.05937  -0.004426  0.7118  -0.07538
6.548e+09  0.528  0.7236  0.007633  -0.005504  -0.03309  0.01441  0.6384  -0.3144
6.549e+09  0.8032  0.4814  -0.01585  0.000808  -0.01229  -0.001645  0.5247  -0.5471
6.55e+09  0.8776  0.1037  0.01025  0.002818  -0.01616  -0.02973  0.2785  -0.6875
