# Hz S RI R 50
6.25e+09  -0.3388  0.7988  -0.002906  -0.04132  -0.03715  -0.009198  0.152  0.49
6.251e+09  -0.01761  0.8767  0.01289  -0.008224  0.05435  -0.005317  0.3522  0.4312
6.252e+09  0.2544  0.7813  -0.03071  0.01981  -0.04975  0.08433  0.5292  0.2546
6.254e+09  0.497  0.663  0.005999  -0.02051  -0.004385  -0.01741  0.5908  0.0306
6.255e+09  0.7422  0.4773  0.01272  0.0002242  0.01586  -0.01874  0.6049  -0.2094
6.256e+09  0.8101  0.2266  0.02049  -0.0109  -0.01025  -0.04503  0.4833  -0.4762
6.258e+09  0.8319  -0.08644  -0.0413  -0.01674  0.05105  0.02798  0.2917  -0.6139
6.259e+09  0.7269  -0.3866  0.0125  -0.005573  -0.03785  -0.0003321  0.01626  -0.688
6.26e+09  0.5284  -0.5779  0.01099  0.002245  0.0008152  -0.03803  -0.2275  -0.6332
6.261e+09  0.3435  -0.8018  0.008536  0.02019  0.0007809  0.0001357  -0.4463  -0.5698
6.262e+09  0.07337  -0.8749  -0.006835  0.02031  0.01756  -0.001928  -0.6411  -0.3381
6.264e+09  -0.2666  -0.828  0.02605  0.02187  -0.01566  -0.04555  -0.7017  -0.1131
6.265e+09  -0.5476  -0.6662  -0.004443  -0.01771  -0.03396  0.02016  -0.7253  0.1432
6.266e+09  -0.7358  -0.4603  0.01606  0.006006  -0.02276  0.01058  -0.6176  0.4046
6.268e+09  -0.8248  -0.1642  -0.02871  -0.009468  -0.02807  0.03447  -0.4167  0.6067
6.269e+09  -0.839  0.1292  0.009311  -0.0007165  0.002587  -0.0513  -0.2056  0.7263
6.27e+09  -0.758  0.3995  0.03729  -0.01851  0.004434  -0.02234  0.08398  0.755
6.271e+09  -0.5483  0.6149  0.01499  0.02684  -0.02128  0.04658  0.3352  0.6671
6.272e+09  -0.2806  0.7757  -0.01017  0.0117  0.03397  -0.02061  0.5613  0.5081
6.274e+09  -0.05073  0.8204  0.01017  -0.003885  -0.005138  -0.0312  0.6995  0.3163
6.275e+09  0.2417  0.7812  0.00912  0.007441  -0.04726  0.02929  0.7821  0.04904
6.276e+09  0.5025  0.6331  0.01004  0.0071  -0.0179  0.01896  0.7342  -0.2191
6.278e+09  0.7209  0.4267  0.003199  -0.01875  -0.01608  0.014  0.6186  -0.4438
6.279e+09  0.8098  0.08716  -0.00183  -0.03611  0.04281  -0.0304  0.4213  -0.6424
6.28e+09  0.7581  -0.1471  0.001358  -0.002234  -0.03934  0.02394  0.196  -0.7841
6.281e+09  0.7072  -0.3756  -0.00824  0.01886  -0.01936  -0.005676  -0.119  -0.7449
6.282e+09  0.5745  -0.6249  -0.006603  -0.006669  0.004982  0.01681  -0.4108  -0.6953
6.284e+09  0.2928  -0.743  0.01334  0.007175  0.006207  0.002569  -0.6064  -0.5245
6.285e+09  -0.05888  -0.8281  -0.01521  0.01379  -0.0008201  -0.02839  -0.748  -0.2903
6.286e+09  -0.2981  -0.7857  0.01314  0.05316  0.03249  -0.03808  -0.7601  -0.01106
6.288e+09  -0.5754  -0.6031  -0.006456  0.002867  -0.0454  -0.002804  -0.7379  0.2197
6.289e+09  -0.7451  -0.4583  0.01398  -0.0001048  -0.06184  -0.05697  -0.6386  0.5015
6.29e+09  -0.7762  -0.1473  0.02127  -0.006258  0.0137  -0.01293  -0.4122  0.702
6.291e+09  -0.8197  0.1649  -0.004478  0.02689  -0.03089  -0.05265  -0.1659  0.8264
6.292e+09  -0.7267  0.3856  -0.02099  -0.04543  -0.01775  0.02272  0.1423  0.8045
6.294e+09  -0.5246  0.6892  0.01525  -0.01231  0.01397  -0.00856  0.3781  0.7001
6.295e+09  -0.2855  0.7644  0.03248  0.00562  -0.008821  0.03511  0.5936  0.5328
6.296e+09  0.04911  0.8308  0.004319  -0.02911  0.02084  0.04745  0.7859  0.2763
6.298e+09  0.3392  0.7874  0.01004  -0.0124  0.03199  -0.0289  0.8353  0.002404
6.299e+09  0.5217  0.5786  -0.004344  -0.005691  -0.03716  0.04045  0.7995  -0.277
6.3e+09  0.7328  0.4579  0.05035  0.01591  -0.03845  0.08114  0.6337  -0.5336
6.301e+09  0.8344  0.0974  0.004407  -0.003939  0.01773  -0.04728  0.4513  -0.7479
6.302e+09  0.8285  -0.2074  0.04222  0.03026  -0.002047  -0.01073  0.1125  -0.8243
6.304e+09  0.6898  -0.4392  -0.008062  0.009768  -0.006793  -0.006401  -0.1111  -0.8419
6.305e+09  0.4967  -0.6508  -0.02371  0.0152  0.01671  -0.03045  -0.4319  -0.7107
6.306e+09  0.2586  -0.7697  -0.0206  0.01052  0.01215  0.006509  -0.6586  -0.5582
6.308e+09  -0.05732  -0.7769  0.0142  -0.02521  0.02176  0.01826  -0.792  -0.2692
6.309e+09  -0.3131  -0.7924  -0.02601  -0.007814  -0.04814  -0.04447  -0.8866  -0.01116
6.31e+09  -0.6134  -0.6456  -0.01967  -0.01089  -0.04469  0.02399  -0.8506  0.2713
6.311e+09  -0.7926  -0.3226  -0.007545  -0.01664  0.03544  0.03261  -0.655  0.5677
6.312e+09  -0.8835  -0.09993  0.007005  0.03354  -0.05677  -0.03038  -0.4392  0.7646
6.314e+09  -0.8318  0.2564  0.01902  -0.01307  0.03154  0.02561  -0.1855  0.8606
6.315e+09  -0.6709  0.469  -0.01738  0.0005179  -0.02094  -0.0415  0.1131  0.8579
6.316e+09  -0.439  0.7014  -0.003066  0.04095  0.002636  -0.0001199  0.4413  0.7622
6.318e+09  -0.204  0.8281  0.02695  -0.01441  0.01401  0.01423  0.6633  0.5336
6.319e+09  0.1228  0.8634  0.01433  -0.004927  0.0146  0.0134  0.8178  0.284
6.32e+09  0.3788  0.7633  0.01685  -0.00966  0.02683  0.007648  0.8497  -0.01122
6.321e+09  0.6749  0.592  -6.948e-05  -0.004183  0.01804  -0.002175  0.8649  -0.2897
6.322e+09  0.7595  0.3052  -0.008777  0.0446  -0.007815  0.03475  0.6915  -0.5535
6.324e+09  0.8375  0.03406  0.02686  -0.04058  -0.01045  0.01381  0.4251  -0.7856
6.325e+09  0.8329  -0.2678  -0.004833  -0.01208  -0.02451  -0.003339  0.1341  -0.8941
6.326e+09  0.6669  -0.5275  0.01531  -0.007565  0.009155  0.01862  -0.1391  -0.901
6.328e+09  0.429  -0.7253  -0.004539  0.01901  0.0005183  0.03857  -0.4282  -0.771
6.329e+09  0.1447  -0.8878  0.0188  -0.03706  0.008038  0.006764  -0.6713  -0.5957
6.33e+09  -0.1185  -0.8561  -0.002776  0.001769  -0.004485  0.03687  -0.8464  -0.3457
6.331e+09  -0.4112  -0.7754  -0.01505  0.02305  0.0103  -0.03239  -0.9069  -0.02438
6.332e+09  -0.7222  -0.5617  0.003572  0.06255  0.007703  0.01835  -0.863  0.3109
6.334e+09  -0.7895  -0.311  -0.01407  0.002  -0.02023  0.02073  -0.7223  0.5687
6.335e+09  -0.8649  0.0256  -0.007432  0.01085  0.05319  0.05161  -0.5184  0.7705
6.336e+09  -0.8434  0.325  -0.0244  0.02665  0.01052  0.05262  -0.1823  0.9027
6.338e+09  -0.6328  0.6232  0.00101  0.01166  -0.01064  -0.02718  0.1211  0.9206
6.339e+09  -0.4343  0.7874  0.004342  -0.01135  -0.03183  0.01354  0.4312  0.7909
6.34e+09  -0.1448  0.87  0.009118  -0.03717  0.03005  -0.008394  0.6956  0.6171
6.341e+09  0.2352  0.8903  -0.002231  -0.001821  -0.01022  -0.01975  0.8286  0.3808
6.342e+09  0.5165  0.7459  0.02356  -0.01245  -0.02354  -0.01224  0.9459  0.03742
6.344e+09  0.7373  0.524  -0.004839  -0.02479  -0.01945  0.04738  0.8603  -0.3064
6.345e+09  0.8378  0.294  -0.01996  -0.001492  -0.01246  -0.001456  0.7343  -0.573
6.346e+09  0.8776  -0.0855  -0.001534  0.01764  -0.009022  -0.05296  0.5315  -0.7714
6.348e+09  0.7974  -0.381  0.002567  -0.001537  -0.002648  0.006164  0.2371  -0.8912
6.349e+09  0.636  -0.5642  -0.03182  -0.04592  0.0135  0.01966  -0.1258  -0.9373
6.35e+09  0.3153  -0.8135  0.0477  0.01288  0.0004495  0.02026  -0.3859  -0.8139
6.351e+09  0.06041  -0.9146  0.03118  -0.027  0.02739  -0.008359  -0.6669  -0.6522
6.352e+09  -0.2861  -0.8192  0.03202  -0.02863  -0.008936  0.02258  -0.8756  -0.3798
6.354e+09  -0.5238  -0.7213  -0.006771  -0.009913  0.03877  0.006674  -0.9329  -0.07452
6.355e+09  -0.7525  -0.4651  0.006357  0.007089  -0.02427  -0.001016  -0.9172  0.2977
6.356e+09  -0.8554  -0.222  0.007103  -0.001153  0.05231  0.01734  -0.7916  0.5663
6.358e+09  -0.8852  0.117  -0.02984  -0.02172  -0.03898  0.02298  -0.57  0.7648
6.359e+09  -0.7504  0.3911  0.004064  0.02331  0.03009  -0.00236  -0.24  0.9454
6.36e+09  -0.6218  0.7245  -0.0004819  0.002618  -0.001207  0.005204  0.08983  0.9392
6.361e+09  -0.3206  0.8304  -0.01542  -0.007986  -0.02023  -0.03238  0.3795  0.8518
6.362e+09  0.008089  0.9036  -0.01503  -0.007095  -0.01309  0.006882  0.6736  0.6186
6.364e+09  0.3431  0.838  0.008318  0.0001003  0.007235  0.02298  0.8668  0.4077
6.365e+09  0.5744  0.6636  0.01634  -0.005918  0.01406  0.02403  0.9268  0.07393
6.366e+09  0.7324  0.4218  -0.01479  -0.01481  0.02099  -0.0003497  0.9294  -0.2645
6.368e+09  0.9142  0.1462  -0.0124  0.02644  0.001439  0.05677  0.8085  -0.574
6.369e+09  0.8545  -0.1186  -0.02302  0.02114  -0.0002898  0.05632  0.4997  -0.8054
6.37e+09  0.7386  -0.4564  -0.03062  0.007362  -0.01521  0.01723  0.2562  -0.8976
6.371e+09  0.5964  -0.7394  -0.001749  -0.02009  -0.002602  0.02772  -0.07456  -0.9194
6.372e+09  0.2518  -0.8548  -0.04592  0.02563  -0.04375  -0.01849  -0.361  -0.8679
6.374e+09  -0.06836  -0.9068  0.03247  -0.03619  -0.01872  0.04038  -0.667  -0.6529
6.375e+09  -0.3584  -0.7896  -0.04229  0.005108  0.004837  -0.03292  -0.8723  -0.4003
6.376e+09  -0.6183  -0.6307  -0.0146  0.03767  -0.02217  0.02154  -0.9174  -0.09351
6.378e+09  -0.8215  -0.3477  0.008613  0.005208  0.003655  -0.03025  -0.9101  0.1993
6.379e+09  -0.8722  -0.05863  0.01587  -0.02621  -0.03158  -0.04362  -0.8057  0.5629
6.38e+09  -0.8322  0.2995  -0.009178  -0.01606  0.02882  -0.02683  -0.5655  0.7534
6.381e+09  -0.74  0.4775  0.003207  0.03207  -0.03488  0.0454  -0.2544  0.8571
6.382e+09  -0.507  0.7609  0.005378  -0.01285  0.01  -0.01456  0.07971  0.9239
6.384e+09  -0.2223  0.8611  0.001067  0.008254  0.005335  0.002747  0.3748  0.8476
6.385e+09  0.1009  0.8954  -0.0236  0.03358  0.02519  0.02129  0.6502  0.6719
6.386e+09  0.3984  0.8482  4.143e-05  -0.02171  -0.02325  0.004198  0.8086  0.3853
6.388e+09  0.6903  0.658  0.03154  -0.01219  -0.01166  0.004793  0.9635  0.1275
6.389e+09  0.779  0.3902  0.01032  0.02798  -0.029  -0.0132  0.8545  -0.2022
6.39e+09  0.8999  0.06003  0.002511  0.017  -0.0117  0.05301  0.8087  -0.4946
6.391e+09  0.8359  -0.2338  -0.0003635  0.0004885  -0.009595  0.02606  0.5855  -0.7405
6.392e+09  0.7732  -0.4912  0.03065  -0.01007  0.02771  -0.01092  0.2891  -0.8917
6.394e+09  0.5316  -0.7597  -0.01168  0.02723  0.01119  -0.0219  -0.04935  -0.9081
6.395e+09  0.1321  -0.8882  0.02902  -0.02144  -0.01315  0.0206  -0.3481  -0.8478
6.396e+09  -0.07625  -0.8966  -0.004851  0.00907  0.03226  -0.03205  -0.6315  -0.692
6.398e+09  -0.4127  -0.8043  0.06013  -0.02557  -0.008751  -0.03379  -0.8214  -0.445
6.399e+09  -0.6821  -0.6067  0.04054  -0.01653  0.01324  -0.02324  -0.8595  -0.1682
6.4e+09  -0.8086  -0.3079  0.01257  0.03421  -0.007255  -0.008603  -0.9256  0.1266
6.401e+09  -0.8773  0.03719  -0.009338  -0.01689  -0.0634  0.008946  -0.7823  0.4632
6.402e+09  -0.8054  0.2668  0.02809  0.01978  0.007297  0.02238  -0.5975  0.7545
6.404e+09  -0.6556  0.5687  0.03515  0.05218  0.04134  -0.04074  -0.319  0.8889
6.405e+09  -0.4686  0.703  -0.03087  -0.01294  0.04076  -0.04187  0.02353  0.9083
6.406e+09  -0.1382  0.8334  -0.001486  0.06175  -0.007783  0.01395  0.2897  0.8578
6.408e+09  0.1845  0.8976  -0.005956  -0.02105  -0.01172  0.02371  0.5814  0.7007
6.409e+09  0.4206  0.7805  0.03686  -0.04207  -0.02623  0.014  0.7549  0.4586
6.41e+09  0.6737  0.6291  0.009064  -0.008111  -0.0125  -0.009355  0.8933  0.1603
6.411e+09  0.833  0.2652  0.01566  0.02742  -0.006042  0.003229  0.8692  -0.1475
6.412e+09  0.8943  -0.03997  0.01308  -0.03986  0.05548  0.03439  0.816  -0.4835
6.414e+09  0.8568  -0.3549  0.01108  -0.003644  0.005923  -0.01101  0.5418  -0.6865
6.415e+09  0.6884  -0.5956  -0.005727  0.06055  -0.002051  -0.005899  0.3155  -0.818
6.416e+09  0.4166  -0.7609  -0.05166  0.01468  0.001107  -0.009097  0.04133  -0.9252
6.418e+09  0.1384  -0.9013  0.01149  -0.03589  -0.003673  -0.01833  -0.2801  -0.8685
6.419e+09  -0.1036  -0.8652  -0.02249  -0.01012  0.03701  0.003809  -0.566  -0.7042
6.42e+09  -0.467  -0.7577  -0.02877  -0.007259  -0.0006212  -0.001531  -0.7183  -0.5036
6.421e+09  -0.6604  -0.5429  0.01182  0.01122  -0.01424  0.01386  -0.8718  -0.1519
6.422e+09  -0.8574  -0.3  0.01575  -0.004628  0.01919  -0.008037  -0.8587  0.1114
6.424e+09  -0.8826  -0.05038  0.03239  -0.008643  0.02438  -0.03539  -0.7915  0.3849
6.425e+09  -0.8298  0.3413  -0.01845  0.0009577  -0.004751  0.0278  -0.5822  0.6949
6.426e+09  -0.6931  0.6148  -0.008674  0.01079  0.00776  -0.02608  -0.3428  0.7864
6.428e+09  -0.4697  0.8041  -0.01736  -0.003693  -0.01334  0.002767  -0.0116  0.8669
6.429e+09  -0.1515  0.8971  0.009778  0.03075  -0.01302  -0.0344  0.2927  0.8252
6.43e+09  0.1434  0.8735  0.009013  -0.07643  -0.00333  0.005768  0.4961  0.683
6.431e+09  0.4549  0.7844  0.01011  -0.01721  0.02547  0.02679  0.7332  0.5153
6.432e+09  0.6668  0.5249  -0.01598  -0.02008  0.02411  -0.0276  0.8652  0.2309
6.434e+09  0.8991  0.2998  0.02722  -0.01638  0.05682  0.005446  0.8842  -0.07971
6.435e+09  0.8797  0.008316  -0.0004005  -0.05847  -0.03131  0.0004846  0.8183  -0.4438
6.436e+09  0.825  -0.3715  0.00436  -0.04605  0.05222  0.0152  0.631  -0.6417
6.438e+09  0.6477  -0.5885  0.01389  0.03171  -0.001708  0.008018  0.3307  -0.7773
6.439e+09  0.4103  -0.7927  0.01053  -0.02806  -0.02953  -0.0002344  0.07671  -0.8163
6.44e+09  0.1491  -0.8447  -0.04739  0.02043  -0.03989  -0.05859  -0.2031  -0.8518
6.441e+09  -0.1754  -0.8912  -0.01864  -0.02078  -0.04536  -0.003584  -0.4976  -0.6636
6.442e+09  -0.4904  -0.7229  0.008792  0.0331  -0.02556  -0.007008  -0.7216  -0.4356
6.444e+09  -0.7208  -0.5418  -0.006613  -0.03827  -0.01125  0.008745  -0.8318  -0.2441
6.445e+09  -0.8957  -0.2522  -0.03791  0.04956  -0.02249  -0.02189  -0.8634  0.04896
6.446e+09  -0.974  0.01628  -0.02692  0.003428  -0.06952  -0.023  -0.7534  0.3211
6.448e+09  -0.828  0.3246  -0.06628  0.01166  -0.04109  -0.004143  -0.604  0.6178
6.449e+09  -0.6638  0.5946  0.03242  0.02521  0.01036  -0.02066  -0.3858  0.8081
6.45e+09  -0.4049  0.8215  0.02288  -0.003642  -0.01872  0.02997  -0.05233  0.8743
6.451e+09  -0.1154  0.9421  -0.00953  0.0372  0.02386  0.02076  0.2489  0.8093
6.452e+09  0.1781  0.8915  -0.01704  0.0372  -0.0421  -0.02719  0.5064  0.6703
6.454e+09  0.4695  0.7712  0.006566  0.01915  0.007562  -0.002324  0.7059  0.5026
6.455e+09  0.7673  0.5989  0.001553  -0.03083  0.0006156  -0.001612  0.7721  0.2015
6.456e+09  0.8213  0.2625  -0.002836  0.03698  0.02229  -0.009455  0.8245  -0.07338
6.458e+09  0.9211  -0.02085  0.04264  0.01016  -0.04131  0.004169  0.6871  -0.2858
6.459e+09  0.84  -0.3248  0.01205  -0.01563  -0.01147  -0.02147  0.6007  -0.5588
6.46e+09  0.7053  -0.6362  0.01189  -0.033  0.04032  0.01337  0.3371  -0.78
6.461e+09  0.4064  -0.7854  -0.0301  -0.01409  0.04391  -0.04505  0.04901  -0.7831
6.462e+09  0.1141  -0.889  0.0007163  -0.01176  -0.007703  -0.0111  -0.2078  -0.7817
6.464e+09  -0.1735  -0.8471  0.01767  0.04989  -0.02989  0.01633  -0.4547  -0.6472
6.465e+09  -0.5614  -0.7771  -0.01782  0.0006441  0.03876  -0.0083  -0.6583  -0.4517
6.466e+09  -0.7496  -0.5103  0.0288  0.01376  0.01921  0.01233  -0.7404  -0.1762
6.468e+09  -0.8645  -0.2538  0.02335  6.852e-05  -0.05525  0.03229  -0.8312  0.04608
6.469e+09  -0.9119  0.1019  -0.02072  -0.002605  0.01854  -0.005183  -0.7251  0.3708
6.47e+09  -0.8067  0.378  0.0009316  0.02754  0.01057  -0.03302  -0.5618  0.5808
6.471e+09  -0.6053  0.663  -0.02604  0.03217  -0.04369  0.04072  -0.2612  0.7497
6.472e+09  -0.413  0.8207  -0.008917  0.03682  0.004224  -0.03898  -0.04675  0.7637
6.474e+09  -0.08807  0.9048  0.03098  0.01289  0.005631  0.001033  0.2082  0.7561
6.475e+09  0.1966  0.945  -0.02334  -0.02052  -0.01259  0.0273  0.4833  0.7099
6.476e+09  0.5087  0.7328  0.02689  -0.004115  -0.006376  0.02001  0.663  0.4605
6.478e+09  0.8071  0.5364  0.03376  0.01468  -0.03293  0.01341  0.7356  0.2164
6.479e+09  0.873  0.2665  -0.003299  0.03282  0.004629  0.01777  0.8271  -0.123
6.48e+09  0.9683  -0.01196  -0.02123  0.001384  -0.0265  0.01053  0.6659  -0.342
6.481e+09  0.8476  -0.3621  0.03255  -0.04298  -0.0524  0.007866  0.5297  -0.5258
6.482e+09  0.6009  -0.6579  -0.004915  0.009818  0.02372  0.02904  0.3036  -0.6733
6.484e+09  0.381  -0.8948  -0.006804  -0.005533  0.04838  -0.07248  0.0416  -0.7837
6.485e+09  0.02961  -0.9252  0.008434  0.01411  0.04899  -0.03156  -0.2178  -0.7565
6.486e+09  -0.2244  -0.8809  -0.00607  -0.01394  0.02183  0.01772  -0.452  -0.6528
6.488e+09  -0.525  -0.7183  0.01163  -0.009814  0.04226  -0.003374  -0.6422  -0.4336
6.489e+09  -0.8466  -0.5107  -0.01496  0.02441  -0.01792  0.01692  -0.7395  -0.1916
6.49e+09  -0.921  -0.2314  -0.0184  0.008636  0.02934  -0.004267  -0.7648  0.1062
6.491e+09  -0.9473  0.09489  -0.007631  -0.01098  -0.03052  -0.02264  -0.6954  0.3426
6.492e+09  -0.8491  0.4176  -0.01739  -0.003765  0.002138  -0.01529  -0.5695  0.5543
6.494e+09  -0.6391  0.6611  -0.01097  -0.00389  -0.002055  0.03199  -0.331  0.6983
6.495e+09  -0.3971  0.8844  0.01413  0.02036  0.02644  0.01537  -0.03821  0.764
6.496e+09  0.01756  0.9458  -0.009072  0.01103  0.00188  -0.02757  0.2684  0.7702
6.498e+09  0.2989  0.8612  0.03435  0.04806  -0.03776  0.05639  0.4735  0.592
6.499e+09  0.5568  0.7837  0.01792  -0.01241  0.05232  0.02576  0.5909  0.4546
6.5e+09  0.8123  0.4428  -0.016  0.0117  -0.03683  0.0162  0.7613  0.1968
6.501e+09  0.9284  0.2173  0.05068  0.006202  -0.02715  0.01555  0.7856  -0.08927
6.502e+09  0.9145  -0.1043  0.02014  -0.004169  0.003143  0.03298  0.6852  -0.3263
6.504e+09  0.8021  -0.4752  -0.01447  0.02619  -0.01273  0.01554  0.5037  -0.626
6.505e+09  0.6513  -0.6976  0.004936  -0.02487  0.0008499  -0.005248  0.2882  -0.707
6.506e+09  0.3874  -0.8331  0.009466  0.0287  0.05595  -0.0435  0.0239  -0.7834
6.508e+09  -0.002694  -0.9521  -0.006706  -0.04707  -0.04585  -0.03689  -0.2499  -0.7122
6.509e+09  -0.3326  -0.876  -0.04228  0.0008864  -0.03933  0.008543  -0.4737  -0.5825
6.51e+09  -0.6574  -0.7369  -0.01209  0.01215  -0.04933  -0.0196  -0.6471  -0.3739
6.511e+09  -0.8198  -0.5006  -0.0205  0.01089  -0.05093  0.008232  -0.7567  -0.1629
6.512e+09  -0.9477  -0.08539  -0.008487  -0.01382  -0.007461  -0.006766  -0.7367  0.08363
6.514e+09  -0.8996  0.2351  0.008242  -0.003188  -0.02312  0.01392  -0.6562  0.3815
6.515e+09  -0.8038  0.4819  -0.02766  -0.001864  0.02269  0.02313  -0.4441  0.5943
6.516e+09  -0.6394  0.743  -0.01272  -0.01801  0.03216  -0.0103  -0.2655  0.7014
6.518e+09  -0.2696  0.9407  -0.02745  -0.01894  0.02855  -0.006949  -0.01515  0.6842
6.519e+09  0.04317  0.9381  -0.02563  -0.01694  0.01857  -0.02995  0.2603  0.6691
6.52e+09  0.3796  0.8927  -0.0242  0.01764  0.01755  0.01469  0.5136  0.5653
6.521e+09  0.6385  0.6883  0.02685  -0.03055  0.007433  0.00369  0.6742  0.3399
6.522e+09  0.813  0.4006  -0.03131  -0.01239  0.02187  -0.04886  0.7308  0.1115
6.524e+09  0.9916  0.0668  -0.01424  -0.0003461  0.00983  -0.01816  0.742  -0.1673
6.525e+09  0.9089  -0.1891  -0.001449  0.0007519  0.01705  -0.002558  0.6176  -0.3932
6.526e+09  0.7949  -0.581  0.01005  -0.005054  0.09962  0.01886  0.4306  -0.5856
6.528e+09  0.6251  -0.7757  -0.006174  0.01619  0.04818  -0.03706  0.2039  -0.6939
6.529e+09  0.2624  -0.9594  -0.01049  -0.003903  -0.01611  -0.04118  -0.0881  -0.6826
6.53e+09  -0.1295  -0.9246  0.01169  0.01539  -0.03776  0.008239  -0.3106  -0.6336
6.531e+09  -0.4205  -0.829  0.0138  0.01549  -0.007311  -0.007743  -0.4953  -0.504
6.532e+09  -0.7411  -0.7037  -0.04176  -0.02112  -0.01035  2.309e-06  -0.5583  -0.2966
6.534e+09  -0.8704  -0.4202  0.01975  -0.01074  0.03203  0.06467  -0.6772  -0.05897
6.535e+09  -0.9464  -0.1036  -0.01359  -0.02227  0.0285  -0.04559  -0.616  0.1131
6.536e+09  -0.9705  0.2728  -0.04579  0.01022  -0.0004876  0.005468  -0.5485  0.3013
6.538e+09  -0.7629  0.621  0.02659  -0.005489  -0.06847  0.003127  -0.4349  0.4998
6.539e+09  -0.5175  0.8715  0.01914  0.009309  -0.005886  -0.03068  -0.2728  0.5926
6.54e+09  -0.1886  0.9328  0.005377  0.01602  0.03436  0.02963  -0.04911  0.6499
6.541e+09  0.19  1.01  0.01278  0.03331  0.006402  0.02404  0.1874  0.6612
6.542e+09  0.5283  0.8627  0.01171  0.003655  0.005932  0.03224  0.4194  0.581
6.544e+09  0.7673  0.5867  0.002928  -0.01141  0.008787  0.01688  0.5961  0.404
6.545e+09  0.8627  0.3572  0.009601  -0.004403  -0.003903  -0.0007422  0.6988  0.1846
6.546e+09  0.9438  -0.036  0.0004572  0.01226  0.007178  0.008874  0.7363  -0.04012
6.548e+09  0.9294  -0.3507  0.02053  -0.001125  0.01369  0.02872  0.6384  -0.3139
6.549e+09  0.6943  -0.6918  0.00653  -0.009401  0.003613  0.0146  0.5146  -0.5299
6.55e+09  0.4326  -0.8829  -0.01191  -0.009124  -0.01494  0.06094  0.2951  -0.6828
