# Hz S RI R 50
6.25e+09  -0.2081  -0.7728  0.02352  0.0004881  0.01575  -0.01185  0.1704  0.4576
6.251e+09  -0.4763  -0.6418  -0.02087  -0.01338  0.01431  0.04244  0.3999  0.4159
6.252e+09  -0.6689  -0.3593  0.01408  0.003924  0.02506  0.02956  0.5208  0.2518
6.254e+09  -0.7545  -0.1399  0.009667  0.01447  -0.01952  -0.009371  0.6123  0.002931
6.255e+09  -0.8001  0.1438  0.007748  -0.01491  -0.05804  -0.01333  0.577  -0.2576
6.256e+09  -0.662  0.3384  0.003499  -0.004517  -0.00831  0.03302  0.4739  -0.4193
6.258e+09  -0.5064  0.6248  -0.01705  0.004299  -0.01902  -0.0181  0.2338  -0.5955
6.259e+09  -0.257  0.735  0.001145  0.006315  0.02534  -0.08271  0.02282  -0.6948
6.26e+09  -0.01267  0.7447  0.03961  -0.004892  0.04653  0.00108  -0.23  -0.6384
6.261e+09  0.3491  0.7212  -0.00885  -0.003803  0.01579  -0.02909  -0.4282  -0.574
6.262e+09  0.5563  0.5833  0.007817  -0.02269  -0.03856  -0.002581  -0.6105  -0.3612
6.264e+09  0.6989  0.3518  -0.02212  -0.005148  0.04223  0.01064  -0.7113  -0.104
6.265e+09  0.7387  0.0855  0.01566  0.007184  0.05383  -0.0337  -0.7225  0.157
6.266e+09  0.7167  -0.1809  -0.02689  -0.03046  -0.004132  0.00551  -0.6156  0.4055
6.268e+09  0.6471  -0.4182  0.001816  -0.01487  -0.0232  0.02378  -0.4247  0.5841
6.269e+09  0.4441  -0.6731  -0.03104  -0.01056  -0.04082  -0.0441  -0.1935  0.7068
6.27e+09  0.1744  -0.7494  -0.002017  -0.0002363  -0.01495  -0.02173  0.07264  0.7196
6.271e+09  -0.09814  -0.7371  -0.003275  -0.01061  -0.0117  0.006609  0.3585  0.674
6.272e+09  -0.3356  -0.7667  -0.01078  0.0155  -0.02565  0.07389  0.5278  0.5214
6.274e+09  -0.6074  -0.5974  0.01188  -0.0125  -0.03611  0.02658  0.6876  0.3085
6.275e+09  -0.6971  -0.3176  0.01052  -0.03351  0.007772  -0.002486  0.7628  0.06186
6.276e+09  -0.829  -0.04161  -0.0008702  -0.00724  0.03707  0.03074  0.7396  -0.2457
6.278e+09  -0.7278  0.2664  0.003279  -0.00923  -0.03445  -0.008075  0.5822  -0.4519
6.279e+09  -0.602  0.4845  0.00883  -0.01515  8.322e-05  -0.002313  0.4048  -0.6391
6.28e+09  -0.3855  0.6769  0.02786  0.02236  -0.001405  0.04122  0.1616  -0.7181
6.281e+09  -0.1314  0.7796  -0.003124  -0.01592  -0.02753  0.02185  -0.07888  -0.7527
6.282e+09  0.1849  0.8091  -0.01039  1.638e-05  -0.0009201  0.02816  -0.3629  -0.6778
6.284e+09  0.456  0.7079  -0.003602  0.01374  0.02781  -0.008829  -0.5649  -0.4959
6.285e+09  0.6581  0.4332  -0.03533  0.00338  -0.02815  0.0294  -0.7234  -0.3046
6.286e+09  0.7727  0.1937  -0.008012  -0.002942  0.02536  0.009733  -0.7966  -0.04237
6.288e+09  0.7691  -0.06074  -0.007979  -0.006748  0.0003513  0.03515  -0.7426  0.2714
6.289e+09  0.7697  -0.3473  -0.004329  -0.01725  0.05643  0.03833  -0.6137  0.5093
6.29e+09  0.5577  -0.5636  0.02135  0.02677  0.03854  -0.01904  -0.4246  0.6535
6.291e+09  0.3322  -0.7078  -0.01911  0.003521  -0.06814  0.00225  -0.164  0.808
6.292e+09  0.06329  -0.7895  -0.005631  -0.02299  0.02702  0.02024  0.1316  0.7956
6.294e+09  -0.1983  -0.7847  0.008427  0.03347  -0.04983  0.04331  0.3704  0.6998
6.295e+09  -0.4948  -0.6283  0.01726  -0.01183  0.03558  0.02622  0.6222  0.5352
6.296e+09  -0.6789  -0.4067  -0.03812  -0.01094  0.01746  0.004777  0.7701  0.3332
6.298e+09  -0.8279  -0.1274  0.0002338  0.01627  -0.006324  0.02786  0.7789  0.01976
6.299e+09  -0.77  0.1314  -0.0007792  -0.0205  0.02755  -0.07294  0.7581  -0.2931
6.3e+09  -0.6784  0.4088  -0.006715  -0.0281  0.008419  -0.04598  0.6209  -0.5289
6.301e+09  -0.4692  0.6221  0.02056  -0.0033  -0.0176  0.01075  0.4203  -0.7614
6.302e+09  -0.2994  0.7625  0.002923  0.01459  0.02125  -0.03176  0.1478  -0.8426
6.304e+09  0.01012  0.8167  0.00331  0.009893  -0.04343  0.02965  -0.1318  -0.8431
6.305e+09  0.3305  0.7269  -0.008025  -0.002633  0.00432  -0.01912  -0.4169  -0.7243
6.306e+09  0.5643  0.6394  0.005941  -0.009919  -0.02493  -0.002848  -0.6308  -0.5624
6.308e+09  0.7348  0.3644  0.05179  0.01187  0.0275  0.01583  -0.7771  -0.2776
6.309e+09  0.7301  0.07976  -0.01666  -0.02375  0.01535  0.02048  -0.8635  -0.001018
6.31e+09  0.7753  -0.1761  0.00137  -0.002477  0.002853  -0.006608  -0.8161  0.2852
6.311e+09  0.722  -0.4865  -0.02212  0.001466  -0.005241  -0.01176  -0.691  0.5273
6.312e+09  0.4762  -0.647  0.02052  -0.01023  -0.003825  0.008156  -0.4466  0.7539
6.314e+09  0.222  -0.7706  -0.01371  -0.02038  -0.009313  0.001346  -0.1591  0.8366
6.315e+09  -0.1278  -0.7917  0.0175  -0.008932  -0.002253  -0.004558  0.1333  0.8494
6.316e+09  -0.3803  -0.6903  -0.006812  0.01038  0.004389  -0.02  0.4549  0.772
6.318e+09  -0.6378  -0.5598  0.009917  0.03159  -0.006469  0.00787  0.6824  0.5698
6.319e+09  -0.7461  -0.3342  -0.004987  -0.001572  0.002343  -0.01511  0.8329  0.3177
6.32e+09  -0.8524  -0.09869  -0.006629  0.008934  0.01043  -0.006452  0.8672  0.02598
6.321e+09  -0.7579  0.2502  0.003864  0.01315  -0.0005933  0.05052  0.8263  -0.2861
6.322e+09  -0.622  0.5112  0.004696  -0.03626  0.0236  0.05472  0.6825  -0.5739
6.324e+09  -0.3637  0.6823  -0.01263  -0.05025  -0.01185  -0.0004749  0.4735  -0.7376
6.325e+09  -0.1096  0.8354  0.004128  0.007854  -0.03663  -0.03049  0.1517  -0.8665
6.326e+09  0.1145  0.8093  -0.02697  0.01037  -0.04291  -0.03667  -0.1286  -0.8698
6.328e+09  0.4754  0.6965  0.003134  0.003415  -0.01288  0.02069  -0.4528  -0.7941
6.329e+09  0.6204  0.5304  -0.02403  0.0007771  -0.03246  0.03653  -0.6787  -0.614
6.33e+09  0.8009  0.2256  -0.0425  -0.008216  0.01228  -0.001749  -0.841  -0.3405
6.331e+09  0.8716  -0.1143  -0.02366  -0.005913  0.01345  -0.05339  -0.8986  -0.0278
6.332e+09  0.7441  -0.3837  -0.04861  0.00126  0.01546  -0.03349  -0.8861  0.3028
6.334e+09  0.5728  -0.5699  -0.001437  -0.02144  0.002202  0.002112  -0.7607  0.5436
6.335e+09  0.3071  -0.8251  -0.03219  0.01367  0.01587  -0.05137  -0.4697  0.7565
6.336e+09  0.07084  -0.8219  0.01335  0.004318  0.005607  0.01409  -0.1925  0.9218
6.338e+09  -0.258  -0.789  -0.01795  0.02175  0.01771  -0.01833  0.119  0.9161
6.339e+09  -0.5114  -0.643  -0.02087  -0.02352  0.0316  -0.009968  0.3965  0.8169
6.34e+09  -0.6997  -0.4551  -0.01298  0.003023  -0.002709  -0.07495  0.6891  0.6185
6.341e+09  -0.8155  -0.1532  -0.004871  0.02291  0.01581  -0.02329  0.8456  0.3692
6.342e+09  -0.8196  0.2129  0.003096  0.01087  -0.06551  -0.005889  0.9246  0.04996
6.344e+09  -0.7048  0.4506  -0.006052  0.005117  0.006071  -0.03206  0.8795  -0.2613
6.345e+09  -0.4557  0.6673  -0.01378  -0.01624  0.004323  -0.02756  0.7097  -0.6191
6.346e+09  -0.2187  0.7956  0.01532  0.008762  0.01972  0.01745  0.4806  -0.7829
6.348e+09  0.04019  0.8624  0.03688  0.02173  0.01947  0.02418  0.2213  -0.9138
6.349e+09  0.4075  0.7675  0.005743  0.01576  -0.04284  0.01423  -0.1001  -0.923
6.35e+09  0.5726  0.5687  0.02748  0.02278  -0.02047  -0.0106  -0.4331  -0.8151
6.351e+09  0.7967  0.3593  0.01795  -0.01256  -0.005242  -0.03458  -0.7122  -0.6686
6.352e+09  0.8738  0.03394  0.009753  0.008393  -0.02701  0.03807  -0.8444  -0.3801
6.354e+09  0.8439  -0.2524  -0.0389  0.003319  -0.01956  0.005589  -0.9373  -0.09519
6.355e+09  0.6352  -0.5548  -0.01365  0.00684  0.008345  -0.005448  -0.9068  0.2478
6.356e+09  0.3896  -0.6943  -0.03001  0.01878  0.0662  -0.0019  -0.7256  0.5417
6.358e+09  0.1863  -0.8139  0.01932  -0.03471  -0.01838  0.03473  -0.5217  0.8118
6.359e+09  -0.1306  -0.8479  0.02011  0.01123  -0.006089  0.02041  -0.2267  0.9227
6.36e+09  -0.4854  -0.7433  -0.02786  0.006155  -0.03869  -0.02699  0.08164  0.9193
6.361e+09  -0.6425  -0.5229  -0.0506  -0.004149  -0.04885  0.02034  0.4024  0.8547
6.362e+09  -0.8273  -0.2372  0.009792  0.01528  0.005317  0.003314  0.6992  0.6643
6.364e+09  -0.8392  0.03284  -0.008151  0.002109  -0.03962  0.02511  0.8275  0.3609
6.365e+09  -0.8073  0.3686  -0.02333  -0.007957  -0.04211  -0.04937  0.9605  0.09293
6.366e+09  -0.623  0.5972  -0.01798  0.002507  -0.02684  0.04207  0.916  -0.266
6.368e+09  -0.3653  0.7466  0.005351  0.02496  0.02719  0.01496  0.7767  -0.52
6.369e+09  -0.02373  0.8747  -0.02617  -0.03185  0.04706  0.01044  0.5194  -0.7876
6.37e+09  0.2574  0.7773  0.03738  0.03528  -0.05031  -0.05195  0.2065  -0.8931
6.371e+09  0.5233  0.6383  -0.02774  0.005785  0.007098  0.02732  -0.07824  -0.9784
6.372e+09  0.7681  0.4509  0.01816  0.009319  -0.005353  0.03122  -0.4225  -0.8272
6.374e+09  0.8475  0.1623  -0.01007  0.01284  -0.02336  0.007987  -0.6525  -0.6873
6.375e+09  0.8294  -0.1626  0.01611  0.01196  -0.01535  0.0186  -0.8317  -0.4244
6.376e+09  0.6547  -0.4706  -0.019  -0.003191  0.00663  0.01775  -0.9562  -0.1065
6.378e+09  0.5344  -0.7058  -0.01709  -0.02673  0.0334  -0.004992  -0.9385  0.2177
6.379e+09  0.1998  -0.8595  0.001768  -0.0132  -0.005602  0.03005  -0.8087  0.5338
6.38e+09  -0.1026  -0.8364  -0.01747  -0.00217  -0.01187  -0.019  -0.5404  0.7513
6.381e+09  -0.3636  -0.7442  0.007829  0.0408  0.006059  -0.008013  -0.2896  0.8907
6.382e+09  -0.6737  -0.6281  -0.01289  0.03248  -0.04238  -0.03128  0.07858  0.9687
6.384e+09  -0.8266  -0.3321  -0.01832  0.03155  0.009542  -0.007783  0.3508  0.9232
6.385e+09  -0.8725  -0.01751  0.03023  0.01194  0.02447  -0.006584  0.6415  0.6953
6.386e+09  -0.816  0.3129  0.001076  0.02805  0.006219  0.0002692  0.8065  0.4239
6.388e+09  -0.6992  0.5918  -0.01811  -0.04033  0.005719  -0.03751  0.9305  0.1387
6.389e+09  -0.3721  0.7411  -0.03019  -0.009704  0.03204  0.02716  0.924  -0.2158
6.39e+09  -0.1167  0.8581  -0.02246  0.01341  0.01572  0.004392  0.7868  -0.4961
6.391e+09  0.1654  0.8815  -0.006495  0.01416  0.02188  -0.0156  0.5752  -0.6921
6.392e+09  0.444  0.7288  -0.04246  0.02042  -0.03323  -0.003763  0.3102  -0.9168
6.394e+09  0.7466  0.4553  -0.02351  -0.03368  0.02054  -0.005461  -0.05242  -0.9244
6.395e+09  0.8476  0.2169  0.01783  -0.006035  -0.03213  0.02243  -0.3266  -0.8564
6.396e+09  0.8548  -0.0827  -0.009626  -0.03314  0.03269  0.01954  -0.6418  -0.6821
6.398e+09  0.793  -0.3949  -0.01968  -0.009024  0.04982  -0.01008  -0.8125  -0.3982
6.399e+09  0.5643  -0.7044  -0.005041  -0.02124  0.02005  -0.02169  -0.9144  -0.1658
6.4e+09  0.298  -0.795  -0.02362  0.03754  0.01606  -0.04504  -0.9069  0.2055
6.401e+09  0.01221  -0.8543  -0.005506  0.02375  -0.001776  0.003424  -0.7882  0.4643
6.402e+09  -0.277  -0.784  -0.01489  0.01849  -0.004973  -0.006857  -0.6201  0.771
6.404e+09  -0.5587  -0.6295  0.05044  0.01441  -0.03071  -0.01986  -0.2813  0.823
6.405e+09  -0.7318  -0.3934  0.01717  0.03502  -0.0115  -0.04652  0.01167  0.9355
6.406e+09  -0.8422  -0.131  0.001765  0.01552  -0.008166  -0.01494  0.328  0.854
6.408e+09  -0.8447  0.2137  -0.01221  0.02248  0.0692  -0.01307  0.5454  0.7295
6.409e+09  -0.7014  0.4772  0.02398  0.02238  -0.02397  0.0343  0.8015  0.4728
6.41e+09  -0.4628  0.7044  0.02197  0.02453  -0.03864  -0.003439  0.9357  0.188
6.411e+09  -0.19  0.8346  0.0519  0.023  0.00454  -0.03263  0.8801  -0.1229
6.412e+09  0.105  0.8165  -0.01753  0.01204  -0.006466  -0.01291  0.7544  -0.4565
6.414e+09  0.3691  0.757  0.01214  -0.0009287  -0.04316  -0.02767  0.6036  -0.6976
6.415e+09  0.6543  0.5312  0.02097  -0.02709  -0.0331  0.01694  0.3562  -0.8393
6.416e+09  0.8124  0.3492  -0.01522  0.06663  0.01416  0.02199  0.03075  -0.9239
6.418e+09  0.8792  0.04088  -0.02525  0.006382  0.02931  -0.05334  -0.2801  -0.8415
6.419e+09  0.8005  -0.2677  0.02782  0.04258  -0.04756  0.01336  -0.5275  -0.7131
6.42e+09  0.6382  -0.5793  0.009627  0.002483  0.002338  -0.007547  -0.7456  -0.4949
6.421e+09  0.3879  -0.7189  0.0126  -0.02431  -0.0005369  -0.02805  -0.8844  -0.2117
6.422e+09  0.1278  -0.9079  0.01  0.01851  -0.008467  0.04444  -0.9283  0.1031
6.424e+09  -0.1163  -0.8608  -0.06916  -0.01537  0.037  -0.02906  -0.7909  0.4523
6.425e+09  -0.4745  -0.7602  -0.04071  0.04068  0.03171  -0.007072  -0.571  0.6985
6.426e+09  -0.7305  -0.4745  -0.003278  -0.01649  -0.03324  -0.02245  -0.3728  0.8117
6.428e+09  -0.8433  -0.2563  -0.04147  -0.03432  -0.01367  -0.03097  -0.004237  0.8512
6.429e+09  -0.8306  0.04631  -0.006938  -0.04012  0.02709  0.004218  0.2681  0.8329
6.43e+09  -0.7496  0.3669  0.00132  0.03262  0.02022  -0.0507  0.4843  0.681
6.431e+09  -0.5952  0.6351  -0.04776  0.02734  -0.0005879  -0.01148  0.7216  0.4999
6.432e+09  -0.3376  0.8113  0.01826  -0.01071  0.02184  0.01275  0.8152  0.1773
6.434e+09  -0.1009  0.8119  0.01297  0.03757  -0.009356  0.05496  0.8593  -0.08787
6.435e+09  0.2318  0.8178  -0.01215  -0.0337  0.004455  0.005753  0.7879  -0.3556
6.436e+09  0.4897  0.664  0.02793  -0.002057  0.01682  -0.03575  0.6314  -0.634
6.438e+09  0.7292  0.4298  0.03915  0.01515  -0.01886  -0.06736  0.3495  -0.8071
6.439e+09  0.795  0.2094  -0.03565  -0.007762  0.01186  0.003621  0.05756  -0.8627
6.44e+09  0.8729  -0.1424  -0.02827  -0.006356  -0.01551  -0.004994  -0.2335  -0.8493
6.441e+09  0.7398  -0.4084  -0.007663  0.05511  0.02478  0.01702  -0.51  -0.6868
6.442e+09  0.5521  -0.6294  0.03181  -0.01918  -0.01997  0.01464  -0.6869  -0.4706
6.444e+09  0.3533  -0.7651  0.0007202  -0.0009935  0.02  -0.03617  -0.8111  -0.2193
6.445e+09  -0.03073  -0.8578  -0.04913  0.002576  0.05829  0.006581  -0.8549  0.1148
6.446e+09  -0.3221  -0.8001  0.006214  0.03631  0.02769  -0.003472  -0.74  0.3814
6.448e+09  -0.5479  -0.6326  0.009485  -0.007067  0.0195  -0.03299  -0.6021  0.5981
6.449e+09  -0.7659  -0.3607  0.02023  -0.01488  0.02424  -0.01848  -0.3632  0.765
6.45e+09  -0.8394  -0.1192  -0.04465  -0.01945  0.006952  -0.01628  -0.09864  0.8595
6.451e+09  -0.8517  0.2178  0.02358  0.04893  0.03959  -0.04305  0.2135  0.8093
6.452e+09  -0.6463  0.4794  0.03043  -0.01748  -0.009156  -0.0358  0.5218  0.7114
6.454e+09  -0.4975  0.6782  -0.004004  -0.00752  0.06234  0.02284  0.6368  0.4502
6.455e+09  -0.2312  0.8524  0.003861  -0.02907  -0.004687  -0.01191  0.7918  0.2129
6.456e+09  0.0805  0.8181  0.05719  -0.06047  0.01195  0.006668  0.7836  -0.1206
6.458e+09  0.3418  0.7567  0.03441  -0.01587  0.01415  0.0199  0.7256  -0.355
6.459e+09  0.5706  0.626  -0.0342  -0.03213  0.03211  0.05579  0.58  -0.5796
6.46e+09  0.7652  0.292  0.02703  0.02384  -0.02811  -0.04929  0.3418  -0.7188
6.461e+09  0.8456  0.09446  -0.01488  -0.03134  -0.002382  -0.002544  0.03595  -0.8306
6.462e+09  0.8119  -0.2598  -0.008671  -0.02268  0.01298  -0.04767  -0.2548  -0.758
6.464e+09  0.6267  -0.4973  0.0398  0.03344  -0.01983  0.003311  -0.4706  -0.6357
6.465e+09  0.4418  -0.6954  -0.03111  -0.001711  0.008207  -0.02915  -0.6363  -0.453
6.466e+09  0.1853  -0.7987  -0.01781  -0.03348  -0.02617  -0.03348  -0.7803  -0.235
6.468e+09  -0.09643  -0.8367  -0.01939  -0.02676  0.02275  -0.0195  -0.8204  0.07762
6.469e+09  -0.3509  -0.7117  -0.03471  0.01792  -0.01008  -0.01435  -0.7137  0.3366
6.47e+09  -0.6332  -0.5119  0.02952  0.0224  0.005203  0.002983  -0.5606  0.5359
6.471e+09  -0.7539  -0.3169  0.01004  -0.01055  0.03748  -0.04476  -0.3583  0.7523
6.472e+09  -0.8519  -0.01491  -0.02068  0.02872  -0.01595  -0.04231  -0.08267  0.7887
6.474e+09  -0.7828  0.2998  -0.0115  0.06101  0.04244  -0.02459  0.198  0.777
6.475e+09  -0.6179  0.4901  0.01285  0.03938  -0.0344  -0.04576  0.4718  0.6364
6.476e+09  -0.3929  0.6489  -0.01603  0.01465  -0.005437  -0.02836  0.6134  0.4122
6.478e+09  -0.1597  0.8282  0.008619  0.01644  -0.0119  -3.88e-06  0.7465  0.1998
6.479e+09  0.1072  0.8008  0.03069  0.0289  -0.07855  -0.02038  0.798  -0.1177
6.48e+09  0.4449  0.7337  0.00303  -0.02234  -0.08913  0.03453  0.7512  -0.3665
6.481e+09  0.6281  0.5114  -0.02609  -0.04504  0.02559  0.04292  0.5368  -0.5575
6.482e+09  0.8463  0.25  -0.0155  0.03023  -0.06063  -0.01138  0.2983  -0.6992
6.484e+09  0.8411  0.02217  -0.02889  0.02504  0.02998  0.02027  0.05132  -0.7597
6.485e+09  0.799  -0.3482  0.0324  0.01557  0.01367  0.02842  -0.1955  -0.7224
6.486e+09  0.5809  -0.5419  0.006952  0.02706  -0.008704  0.05893  -0.4708  -0.6554
6.488e+09  0.3495  -0.7613  -0.02947  0.01872  -0.04614  -0.04011  -0.6043  -0.4324
6.489e+09  0.1253  -0.8811  -0.01171  0.009865  -0.01051  0.08284  -0.7426  -0.1787
6.49e+09  -0.181  -0.8526  -0.05487  -0.04044  0.005899  -0.03695  -0.7838  0.09524
6.491e+09  -0.4773  -0.6775  -0.01268  -0.01805  0.0002389  0.03602  -0.6444  0.3251
6.492e+09  -0.6394  -0.4655  0.04477  0.009274  0.01606  0.01606  -0.5536  0.5803
6.494e+09  -0.7831  -0.254  0.02154  0.03165  -0.02327  0.04336  -0.2864  0.7216
6.495e+09  -0.8593  0.02508  0.01667  0.02752  -0.02241  -0.01966  -0.03528  0.7933
6.496e+09  -0.7711  0.3313  0.02372  0.0003364  -0.04675  0.06243  0.2375  0.7666
6.498e+09  -0.5814  0.6355  0.03137  0.006611  -0.01147  0.01025  0.4804  0.5869
6.499e+09  -0.3948  0.7575  0.01855  0.03919  0.005606  0.0003326  0.654  0.3966
6.5e+09  -0.0794  0.8201  -0.03523  0.007207  0.01139  0.02582  0.7733  0.1789
6.501e+09  0.1643  0.792  -0.01128  0.01282  -0.03406  0.001897  0.7496  -0.07893
6.502e+09  0.5092  0.7137  0.0008311  -0.007633  -0.03386  0.008673  0.6857  -0.3934
6.504e+09  0.7097  0.4721  0.01446  -0.01244  -0.005276  -0.00168  0.5179  -0.5629
6.505e+09  0.7662  0.2266  0.02867  -0.02117  0.01495  0.04824  0.2881  -0.7037
6.506e+09  0.8845  -0.01152  0.03039  -0.0128  0.04599  0.01536  0.01608  -0.7344
6.508e+09  0.7464  -0.303  -0.00261  0.0007112  -0.01275  -0.0437  -0.2801  -0.6939
6.509e+09  0.6036  -0.6652  -0.008534  -0.008805  -0.01188  0.009151  -0.4801  -0.5855
6.51e+09  0.3565  -0.717  0.005015  0.03441  0.03993  0.008524  -0.6394  -0.4193
6.511e+09  0.06732  -0.8404  -0.002139  0.00383  -0.01381  0.005197  -0.7482  -0.1212
6.512e+09  -0.2387  -0.8853  -0.01381  -0.008152  -0.01664  0.017  -0.7667  0.1328
6.514e+09  -0.5104  -0.6986  -0.03211  0.002979  0.03506  0.01206  -0.6653  0.4068
6.515e+09  -0.7487  -0.4851  0.00204  0.01118  0.02455  0.02529  -0.4858  0.5798
6.516e+09  -0.8615  -0.1661  -0.009704  -0.042  -0.02454  0.001837  -0.298  0.7358
6.518e+09  -0.8762  0.1113  -0.008405  -0.0009989  0.05083  -0.02349  -0.01511  0.7553
6.519e+09  -0.8167  0.4554  -0.006142  -0.009538  0.03703  0.0002039  0.2576  0.6845
6.52e+09  -0.5639  0.6424  -0.03551  -0.02112  -0.03149  -0.01736  0.5145  0.538
6.521e+09  -0.3218  0.8577  -0.01946  -0.03459  0.006916  0.02721  0.6538  0.3674
6.522e+09  -0.01446  0.8626  -0.004054  0.02361  0.04825  0.003051  0.7501  0.07544
6.524e+09  0.2798  0.801  -0.01764  -0.0004577  0.01709  0.007145  0.7368  -0.1644
6.525e+09  0.5525  0.725  -0.008088  -0.01958  -0.02874  -0.01183  0.6303  -0.3727
6.526e+09  0.7799  0.4423  0.03011  -3.33e-05  0.03587  0.02224  0.4128  -0.5707
6.528e+09  0.827  0.1701  0.0151  -0.009104  -0.04042  0.02531  0.1905  -0.664
6.529e+09  0.9338  -0.1389  0.009841  -0.02564  0.03468  -0.04783  -0.082  -0.7108
6.53e+09  0.7476  -0.4518  -0.0006844  -0.0321  0.003986  0.013  -0.2858  -0.6488
6.531e+09  0.6233  -0.6993  0.02253  0.003497  0.001477  -0.04082  -0.461  -0.4783
6.532e+09  0.3328  -0.8582  0.0221  -0.02899  -0.02958  -0.001903  -0.5874  -0.3156
6.534e+09  -0.06907  -0.8762  0.003536  0.0152  -0.01652  -0.02616  -0.6232  -0.08707
6.535e+09  -0.3485  -0.8685  -0.03045  0.008706  0.01966  -0.02344  -0.6456  0.1003
6.536e+09  -0.6599  -0.6981  -0.02152  -0.01475  -0.03766  0.01017  -0.559  0.2882
6.538e+09  -0.8097  -0.4529  -0.00569  -0.03234  0.008204  -0.05467  -0.4657  0.4379
6.539e+09  -0.9094  -0.09171  -0.0001157  -0.03096  -0.01392  -0.0222  -0.3063  0.5875
6.54e+09  -0.8622  0.2288  -0.004013  0.03464  -0.00934  0.05404  -0.04825  0.6976
6.541e+09  -0.7842  0.5407  -0.008872  0.007701  -0.01029  0.01956  0.1769  0.6517
6.542e+09  -0.5193  0.7969  0.008869  -0.01761  -0.01951  -0.01942  0.3872  0.5855
6.544e+09  -0.197  0.8708  0.006392  0.02485  -0.03915  -0.0245  0.5897  0.3553
6.545e+09  0.1189  0.9901  0.0153  0.02274  0.0002066  0.01876  0.745  0.1381
6.546e+09  0.3949  0.8598  0.01014  -0.01433  0.03545  -0.0108  0.7605  -0.07728
6.548e+09  0.7038  0.6328  -0.01912  0.006639  -0.02486  -0.0171  0.6526  -0.3316
6.549e+09  0.8875  0.45  0.02452  0.008482  0.03265  -0.0113  0.508  -0.5167
6.55e+09  0.9758  0.05747  0.004711  0.04239  -0.009325  0.009525  0.2646  -0.6586
