# Hz S RI R 50
6.25e+09  -0.3146  0.8196  -0.004781  -0.02005  0.05954  0.004281  0.1159  0.4549
6.251e+09  -0.03206  0.8674  0.01134  0.01531  -0.004902  0.05779  0.3836  0.3616
6.252e+09  0.2253  0.8264  -0.02176  -0.007133  -0.03722  -0.007479  0.5284  0.2437
6.254e+09  0.5113  0.6674  0.01743  0.01158  0.03088  0.0127  0.5888  0.02411
6.255e+09  0.7244  0.503  0.009489  -0.002097  0.006327  -0.01256  0.6059  -0.2224
6.256e+09  0.8531  0.1703  -0.007637  0.0006433  0.008389  0.00962  0.4694  -0.4568
6.258e+09  0.8327  -0.1721  0.006642  -0.003099  -0.03067  -0.02023  0.2922  -0.6483
6.259e+09  0.6513  -0.4449  -0.01558  0.005213  0.004496  -0.03103  0.0325  -0.6698
6.26e+09  0.5491  -0.5989  -0.01412  -0.02147  -0.08847  0.05727  -0.1904  -0.6456
6.261e+09  0.2835  -0.7959  0.05717  -0.02063  0.001703  -0.03924  -0.4433  -0.5423
6.262e+09  0.03231  -0.891  -0.009601  0.009302  -0.02772  0.04854  -0.6153  -0.3438
6.264e+09  -0.2813  -0.8064  0.02935  0.001018  -0.00529  0.01949  -0.7023  -0.1041
6.265e+09  -0.5233  -0.681  -0.005761  0.01776  -0.03439  0.04412  -0.7027  0.1458
6.266e+09  -0.7755  -0.4333  0.00381  -0.04039  0.01935  -0.008994  -0.611  0.3577
6.268e+09  -0.876  -0.1347  0.01663  0.02124  0.05624  -0.001774  -0.4197  0.6085
6.269e+09  -0.8475  0.09509  0.01484  0.01054  -0.04354  0.01805  -0.1795  0.7073
6.27e+09  -0.7006  0.409  -0.001454  0.004705  -0.01276  -0.04821  0.04158  0.767
6.271e+09  -0.554  0.7103  0.009254  -0.004357  -0.03339  -0.0364  0.349  0.6847
6.272e+09  -0.2824  0.8193  0.002156  0.0004546  0.00336  -0.01011  0.5486  0.5534
6.274e+09  0.01074  0.8581  0.01823  -0.00962  0.03748  -0.03996  0.6938  0.2813
6.275e+09  0.2781  0.798  -0.00336  -0.007948  0.02263  -0.02722  0.7701  0.02541
6.276e+09  0.5804  0.6132  0.01798  0.004168  0.03539  -0.0207  0.7395  -0.2169
6.278e+09  0.7685  0.3945  -0.02095  0.02312  0.02702  -0.05333  0.6256  -0.4649
6.279e+09  0.8407  0.1924  -0.001728  -0.005743  -0.02137  -0.01592  0.414  -0.6274
6.28e+09  0.8575  -0.1731  0.01391  -0.001569  -0.0197  0.02707  0.1478  -0.7613
6.281e+09  0.6687  -0.4524  -0.02403  -0.006363  -0.01477  0.03271  -0.1382  -0.7256
6.282e+09  0.5391  -0.6536  0.001094  -0.01438  -0.02896  -0.0242  -0.3699  -0.7073
6.284e+09  0.2371  -0.8418  -0.02156  0.00556  0.04235  0.008848  -0.5646  -0.5209
6.285e+09  -0.03012  -0.8597  0.001671  -0.01171  -0.02675  -0.03471  -0.6981  -0.2809
6.286e+09  -0.3584  -0.7662  -0.007863  0.0001971  -0.02036  0.001114  -0.8071  -0.01427
6.288e+09  -0.524  -0.6356  -0.0282  -0.002502  0.03728  -0.05912  -0.7628  0.2438
6.289e+09  -0.6704  -0.3807  0.01427  0.0164  0.006934  -0.01659  -0.6454  0.5017
6.29e+09  -0.8464  -0.06005  0.001563  0.006062  0.04446  0.01811  -0.4045  0.6856
6.291e+09  -0.8364  0.1781  0.007931  -0.01135  0.03308  -0.004358  -0.1711  0.7902
6.292e+09  -0.6471  0.4321  0.01201  0.009252  -0.01734  0.003654  0.1342  0.792
6.294e+09  -0.4336  0.7052  -0.01039  -0.003011  0.01259  -0.02792  0.3947  0.7379
6.295e+09  -0.2757  0.812  -0.01842  -0.02357  0.01106  -0.0134  0.6115  0.5443
6.296e+09  0.124  0.8441  -0.0001395  -0.01349  -0.01824  0.01513  0.7811  0.2605
6.298e+09  0.3174  0.7438  -0.01077  -0.01296  0.08546  -0.03183  0.7952  0.02029
6.299e+09  0.6035  0.5638  0.003945  -0.009872  0.00996  0.02608  0.7797  -0.2818
6.3e+09  0.7415  0.3374  -0.03946  0.007051  0.005704  -0.02304  0.6596  -0.5332
6.301e+09  0.8322  0.1017  -0.008647  -0.02967  0.01056  0.01923  0.4125  -0.6963
6.302e+09  0.832  -0.1983  -0.02588  0.03814  0.05951  -0.03875  0.1606  -0.8497
6.304e+09  0.6856  -0.4771  0.01193  0.02171  0.02249  -0.02004  -0.1579  -0.8375
6.305e+09  0.5006  -0.7006  0.01373  0.005076  -0.05438  0.04786  -0.4187  -0.7386
6.306e+09  0.2285  -0.7655  0.0005169  -0.01879  -0.03204  0.04177  -0.6487  -0.5555
6.308e+09  -0.111  -0.8536  -0.007338  -0.001795  -0.04846  -0.0005339  -0.7899  -0.3061
6.309e+09  -0.3694  -0.75  0.03486  0.0009806  0.004891  -0.03143  -0.885  -0.01401
6.31e+09  -0.5868  -0.6181  0.009937  -0.005298  0.006797  -0.02466  -0.7796  0.3245
6.311e+09  -0.7589  -0.2691  0.002864  0.007734  -0.009315  0.0187  -0.6987  0.5565
6.312e+09  -0.8729  -0.01723  0.01996  -0.0008471  -0.03685  0.008284  -0.4403  0.7484
6.314e+09  -0.7653  0.1824  -0.0187  0.01551  -0.06519  0.01473  -0.1493  0.8335
6.315e+09  -0.6386  0.5453  0.008858  0.009327  0.04578  0.03587  0.1515  0.8768
6.316e+09  -0.4326  0.7362  -0.008377  -0.03078  0.03238  0.01565  0.4515  0.7709
6.318e+09  -0.1598  0.869  -0.02304  -0.01249  -0.006258  -0.006319  0.6827  0.5896
6.319e+09  0.1367  0.8879  0.007637  -0.005734  -0.01698  -0.02561  0.8135  0.3015
6.32e+09  0.4221  0.7544  0.01431  0.01429  0.0237  0.002058  0.9117  -0.01118
6.321e+09  0.6313  0.4914  0.004908  -0.01241  -0.02258  0.0136  0.8459  -0.2598
6.322e+09  0.8002  0.2783  -0.05148  -0.007787  -0.02641  0.001951  0.6958  -0.6059
6.324e+09  0.8925  0.001046  0.01065  -0.01789  -0.02794  0.02557  0.4607  -0.7928
6.325e+09  0.8372  -0.3073  -0.01908  0.03155  0.01916  0.007766  0.162  -0.8776
6.326e+09  0.6418  -0.5697  -0.006894  0.0006519  -0.02891  0.01889  -0.1376  -0.8787
6.328e+09  0.4128  -0.7727  -0.02259  0.006024  -0.005886  0.009437  -0.4163  -0.8015
6.329e+09  0.1765  -0.8515  0.01669  -0.01404  -0.006093  0.03011  -0.669  -0.5956
6.33e+09  -0.1606  -0.8432  -0.02841  0.02605  -0.02351  -0.0008907  -0.8382  -0.3464
6.331e+09  -0.4611  -0.7204  0.01133  0.001444  0.009009  0.01885  -0.8728  -0.01526
6.332e+09  -0.7167  -0.4817  -0.01198  0.0449  -0.01574  -0.002908  -0.872  0.2692
6.334e+09  -0.818  -0.2523  0.01737  -0.01855  -0.05622  -0.005726  -0.7258  0.5669
6.335e+09  -0.8578  0.02289  0.009077  0.01461  -0.03198  0.01858  -0.4548  0.7736
6.336e+09  -0.7958  0.3569  -0.0032  0.00504  0.008704  -0.002964  -0.1788  0.9076
6.338e+09  -0.6154  0.662  0.01041  -0.007453  -0.009033  0.01577  0.1413  0.9214
6.339e+09  -0.3763  0.8203  0.004851  -0.02066  -0.008557  0.007028  0.4378  0.7927
6.34e+09  -0.05897  0.871  0.003313  0.03062  -0.01374  -0.0176  0.6964  0.6202
6.341e+09  0.2279  0.8053  0.002894  -0.01304  0.01607  -0.005102  0.8529  0.3782
6.342e+09  0.4826  0.688  0.03824  0.02019  -0.0641  -0.02296  0.9194  0.0103
6.344e+09  0.7768  0.5323  0.00515  -0.01385  0.02546  0.03584  0.8991  -0.2697
6.345e+09  0.8771  0.1787  0.01621  0.02633  0.007304  0.08333  0.7187  -0.5892
6.346e+09  0.9175  -0.09942  -0.02696  0.02565  -0.0402  -0.01092  0.5296  -0.7337
6.348e+09  0.7408  -0.3808  0.006955  -0.02185  0.01902  0.01808  0.19  -0.8821
6.349e+09  0.5663  -0.6231  0.02934  0.007933  0.01002  0.00486  -0.1249  -0.9184
6.35e+09  0.2993  -0.8673  0.007789  -0.007026  0.04126  -0.0289  -0.4206  -0.8158
6.351e+09  0.04232  -0.9174  0.001511  0.001464  3.455e-05  -0.02239  -0.6657  -0.6329
6.352e+09  -0.3414  -0.8485  0.03121  0.002415  -0.01379  0.03118  -0.8671  -0.3495
6.354e+09  -0.5657  -0.7307  0.01656  0.004571  -0.0223  0.05229  -0.9355  -0.0694
6.355e+09  -0.7727  -0.4383  0.02267  0.00478  -0.05134  -0.005806  -0.9315  0.2958
6.356e+09  -0.8901  -0.1446  0.05076  0.0356  -0.01934  -0.02513  -0.7501  0.5732
6.358e+09  -0.9146  0.209  0.04514  0.008451  0.06667  0.009052  -0.5466  0.7996
6.359e+09  -0.7447  0.4949  -0.02421  -0.01258  0.04217  0.001928  -0.2063  0.9202
6.36e+09  -0.5523  0.717  0.004786  -0.01905  -0.008543  0.04178  0.07331  0.9618
6.361e+09  -0.2498  0.8359  -0.009065  -0.01792  0.05017  -0.02362  0.4148  0.8795
6.362e+09  0.01499  0.8745  -0.01788  -0.01863  0.02108  -0.02064  0.6678  0.7144
6.364e+09  0.3325  0.8157  -0.01023  -0.02077  0.04182  0.05204  0.8644  0.3654
6.365e+09  0.5944  0.6456  -0.01702  -0.0002979  0.008497  0.0324  0.9884  0.07201
6.366e+09  0.7716  0.3982  -0.008256  -0.004163  -0.02185  -0.02138  0.8749  -0.2858
6.368e+09  0.8695  0.1279  0.02335  0.01117  0.003078  -0.0193  0.7842  -0.5539
6.369e+09  0.8664  -0.2515  0.01273  -0.002732  -0.04434  0.0412  0.5889  -0.7464
6.37e+09  0.7363  -0.5209  -0.006829  0.01866  -0.03287  0.01468  0.2719  -0.9401
6.371e+09  0.5119  -0.7549  0.0526  -0.03956  0.007939  0.03128  -0.06005  -0.9404
6.372e+09  0.2317  -0.8743  0.008895  0.004661  -0.03065  0.04118  -0.3814  -0.8536
6.374e+09  -0.1233  -0.8744  0.02862  0.003935  -0.01173  0.01021  -0.6417  -0.7072
6.375e+09  -0.371  -0.8201  -0.01974  -0.007683  0.01955  0.04759  -0.8747  -0.4267
6.376e+09  -0.6387  -0.5853  0.004913  -0.01707  -0.01792  -0.0004505  -0.9136  -0.06445
6.378e+09  -0.8982  -0.3525  -0.01791  0.0005372  0.01395  0.01502  -0.9544  0.2506
6.379e+09  -0.8925  -0.03181  -0.01528  -0.01222  0.03795  -0.00111  -0.7729  0.5149
6.38e+09  -0.8419  0.301  -0.008933  0.007593  -0.01091  0.01  -0.5517  0.7604
6.381e+09  -0.7052  0.5705  0.02102  -0.001092  -0.02222  0.01373  -0.2542  0.8873
6.382e+09  -0.454  0.7421  -0.0198  -0.02018  0.04865  0.002216  0.04386  0.9557
6.384e+09  -0.1922  0.8934  0.007029  -0.004946  0.001635  0.03936  0.3342  0.8443
6.385e+09  0.1366  0.9161  0.008534  0.02059  -0.004715  0.007896  0.6891  0.6824
6.386e+09  0.463  0.7408  0.002421  -0.01901  -0.004274  -0.01104  0.843  0.4283
6.388e+09  0.6559  0.6123  -0.007173  -0.00297  0.00127  0.004089  0.9667  0.08999
6.389e+09  0.8615  0.3371  -0.001874  -0.01911  -0.04464  0.02164  0.8802  -0.2243
6.39e+09  0.912  0.02676  -0.03428  0.01331  -0.006251  -0.01991  0.7948  -0.5319
6.391e+09  0.7899  -0.3154  0.001609  -0.04473  -0.0326  -0.01951  0.6079  -0.7139
6.392e+09  0.6956  -0.5911  -0.02642  0.01147  -0.01365  0.01567  0.2791  -0.9103
6.394e+09  0.4549  -0.7514  -0.0218  0.005959  -0.01752  0.005842  -0.04835  -0.913
6.395e+09  0.1418  -0.9006  0.04608  0.01038  0.06247  -0.006217  -0.3233  -0.8898
6.396e+09  -0.1455  -0.8695  0.03225  -0.03348  -0.003645  0.002069  -0.6009  -0.6514
6.398e+09  -0.4544  -0.7443  -0.02601  0.03629  -0.009007  0.007925  -0.79  -0.4482
6.399e+09  -0.7171  -0.5692  0.01765  -0.008469  0.04235  -0.04157  -0.8876  -0.1378
6.4e+09  -0.8469  -0.3116  -0.02594  -0.008413  0.02606  -0.0156  -0.9492  0.1737
6.401e+09  -0.9254  -0.02623  0.009792  0.01394  0.007559  -0.01017  -0.7999  0.5221
6.402e+09  -0.8255  0.3326  -0.01408  -0.003554  -0.002742  0.002973  -0.5686  0.7122
6.404e+09  -0.667  0.5987  0.003205  -0.000237  0.01858  0.004042  -0.3099  0.8582
6.405e+09  -0.4555  0.7426  0.02083  -0.01734  -0.04058  0.02227  0.00833  0.9036
6.406e+09  -0.1466  0.9016  0.01925  -0.007798  -0.008583  0.01063  0.3379  0.8603
6.408e+09  0.1866  0.8913  0.01716  0.01528  0.02549  0.00059  0.5496  0.6934
6.409e+09  0.4846  0.7335  0.007556  0.02344  0.0002608  0.04556  0.7662  0.4445
6.41e+09  0.6871  0.5916  -0.0175  -0.02186  0.009581  -0.006654  0.8833  0.1793
6.411e+09  0.7796  0.2612  0.03513  0.009557  0.01083  -0.03751  0.9047  -0.1619
6.412e+09  0.879  -0.09372  0.02612  0.05053  -0.005395  0.03116  0.7963  -0.4164
6.414e+09  0.85  -0.3162  0.006982  -0.04677  0.008548  -0.03817  0.5879  -0.6524
6.415e+09  0.6283  -0.6095  0.005967  0.003911  -0.02482  0.02213  0.2926  -0.8309
6.416e+09  0.3924  -0.8007  -0.0002095  -0.01877  -0.01477  0.01637  0.04745  -0.9055
6.418e+09  0.1127  -0.8213  0.01452  -0.02607  0.0191  -0.02991  -0.2544  -0.7901
6.419e+09  -0.2291  -0.884  -0.0004091  0.007959  -0.05422  0.01044  -0.5276  -0.7382
6.42e+09  -0.4376  -0.769  0.007189  -0.0001117  -0.04778  -0.01192  -0.785  -0.4705
6.421e+09  -0.712  -0.4978  0.005699  -0.01847  0.01379  -0.00506  -0.8498  -0.1948
6.422e+09  -0.8188  -0.2837  -0.006139  -0.04153  -0.02861  -0.00863  -0.8906  0.06331
6.424e+09  -0.8735  0.09729  0.02302  0.0006508  0.01454  0.02869  -0.8074  0.432
6.425e+09  -0.8067  0.3368  0.007211  -0.00805  -0.01405  -0.009971  -0.575  0.634
6.426e+09  -0.6278  0.6023  -0.0528  0.02912  -0.002589  -0.01544  -0.3181  0.8049
6.428e+09  -0.3751  0.7593  0.01329  0.00301  0.01841  0.05528  -0.02951  0.854
6.429e+09  -0.05429  0.9195  -0.02956  0.008474  -0.0251  0.005087  0.2511  0.8486
6.43e+09  0.1887  0.8723  -0.02214  -0.03752  -0.0357  -0.04689  0.5526  0.7163
6.431e+09  0.4847  0.7608  -0.001228  0.02173  0.05352  -0.02365  0.7291  0.4884
6.432e+09  0.7486  0.5496  0.004385  -0.01602  -0.02478  -0.01287  0.8601  0.2459
6.434e+09  0.8739  0.2294  -0.03749  -0.008248  -0.003896  0.02773  0.87  -0.1118
6.435e+09  0.899  -0.02216  -0.0131  0.02512  -0.02123  -0.001676  0.8087  -0.3697
6.436e+09  0.7811  -0.3715  -0.03079  0.004354  0.02648  0.0144  0.6118  -0.6085
6.438e+09  0.6442  -0.6381  -0.002738  0.002463  0.004912  -0.005693  0.3502  -0.8041
6.439e+09  0.3562  -0.7904  0.02676  -0.04467  -0.01821  -0.0352  0.04571  -0.8775
6.44e+09  0.1085  -0.8567  0.008538  0.02883  0.02294  0.01541  -0.2121  -0.8108
6.441e+09  -0.1581  -0.8988  -0.006926  -0.007117  -0.02443  -0.03302  -0.4858  -0.7562
6.442e+09  -0.4859  -0.7365  -0.01551  0.01576  0.02185  -0.02489  -0.7143  -0.4548
6.444e+09  -0.7026  -0.5025  0.0118  -0.03509  0.02002  0.04007  -0.8162  -0.214
6.445e+09  -0.8845  -0.2222  0.02742  -0.002156  -0.01032  -0.013  -0.8248  0.112
6.446e+09  -0.9056  0.07968  -0.03339  -0.03418  -0.01875  0.01239  -0.7764  0.3521
6.448e+09  -0.82  0.4173  -0.02003  -0.01635  -0.02271  0.03272  -0.565  0.5951
6.449e+09  -0.6185  0.5784  0.006376  -0.01574  -0.02909  -0.01117  -0.3573  0.7697
6.45e+09  -0.4374  0.7955  -0.01607  -0.008436  0.0007371  -0.08191  -0.09412  0.8227
6.451e+09  -0.06813  0.8734  -0.01461  -0.03349  0.01733  0.03338  0.2622  0.8146
6.452e+09  0.2323  0.9061  -0.03683  0.0005929  -0.02728  -0.03238  0.4714  0.7039
6.454e+09  0.5038  0.7157  -0.0279  0.04244  0.00909  -0.007883  0.6935  0.463
6.455e+09  0.7087  0.5276  0.04486  0.0207  -0.03358  0.03378  0.7739  0.1828
6.456e+09  0.8708  0.2284  -0.01223  0.03096  -0.0116  -0.001418  0.862  -0.0648
6.458e+09  0.8727  -0.1105  -0.01559  -0.0509  0.02705  -0.0142  0.6935  -0.3565
6.459e+09  0.8153  -0.3993  -0.01986  0.0377  -0.002547  -0.009644  0.5985  -0.5814
6.46e+09  0.5997  -0.684  -0.02712  -0.02618  -0.02105  -0.03349  0.3442  -0.6995
6.461e+09  0.3512  -0.8081  -0.02045  0.0058  -0.01584  0.007573  0.05222  -0.8123
6.462e+09  0.04266  -0.9287  -0.01404  0.03949  -0.02978  -0.03013  -0.2342  -0.8092
6.464e+09  -0.2615  -0.8956  0.04621  0.004376  0.003865  -0.01111  -0.4756  -0.6778
6.465e+09  -0.5387  -0.7893  -0.01369  0.008736  -0.01009  -0.003833  -0.6468  -0.4597
6.466e+09  -0.7482  -0.507  -0.01884  0.006637  0.03025  -0.01431  -0.7384  -0.1971
6.468e+09  -0.8305  -0.245  -0.02927  0.007233  -0.0008161  0.01964  -0.7701  0.05793
6.469e+09  -0.9541  0.1347  0.03997  -0.01446  -0.02271  0.009715  -0.7416  0.3355
6.47e+09  -0.8328  0.4353  0.008766  -0.0686  -0.09438  0.006096  -0.5516  0.5486
6.471e+09  -0.6491  0.5901  -0.008938  -0.00825  -0.03617  0.01623  -0.3262  0.7012
6.472e+09  -0.3717  0.8404  0.04609  -0.03938  -0.003535  -0.05174  -0.04594  0.7932
6.474e+09  -0.05806  0.8496  -0.0177  -0.03463  0.03963  0.03774  0.1974  0.7558
6.475e+09  0.2231  0.8967  0.07193  0.01002  0.01147  -0.02544  0.4483  0.6604
6.476e+09  0.5613  0.7426  -0.02275  -0.01095  -0.00791  -0.0073  0.6365  0.3893
6.478e+09  0.7683  0.4911  -0.008925  0.01043  0.04272  -0.01379  0.7529  0.1894
6.479e+09  0.9332  0.193  -0.008561  0.006196  0.001462  0.03108  0.7833  -0.0709
6.48e+09  0.8989  -0.1427  -0.01907  0.0004695  -0.007837  -0.04409  0.7223  -0.3468
6.481e+09  0.7622  -0.426  -0.02212  0.001749  0.0232  -0.02616  0.538  -0.5572
6.482e+09  0.6496  -0.6964  0.01297  -0.0001601  -0.03432  0.05271  0.3141  -0.6604
6.484e+09  0.2935  -0.8486  -0.0052  -0.02311  0.03032  -0.007568  0.04041  -0.8119
6.485e+09  -0.02334  -0.9803  0.0554  -0.02429  -0.05327  0.04222  -0.2057  -0.7663
6.486e+09  -0.2494  -0.8724  -0.002948  -0.007204  -0.03129  -0.02154  -0.4453  -0.6222
6.488e+09  -0.5851  -0.714  -0.002048  -0.01028  0.03193  0.0594  -0.6506  -0.4661
6.489e+09  -0.8156  -0.5113  0.001164  -0.03567  -0.03702  0.02295  -0.7386  -0.2165
6.49e+09  -0.9128  -0.2035  0.02733  0.03524  -0.01816  -0.02639  -0.7515  0.09954
6.491e+09  -0.9511  0.1269  0.01703  -0.03996  -0.005017  0.02603  -0.7269  0.3538
6.492e+09  -0.8523  0.4279  -0.009254  -0.006086  0.03552  0.004721  -0.4957  0.569
6.494e+09  -0.5848  0.7023  -0.01089  -0.01945  -0.01764  0.02814  -0.2665  0.6969
6.495e+09  -0.2862  0.8428  0.01728  -0.01155  0.0082  -0.02124  -0.03826  0.7635
6.496e+09  0.0007601  0.931  0.0268  -0.006136  -0.00726  -0.01094  0.2565  0.737
6.498e+09  0.3203  0.8837  0.009505  -0.009006  0.01832  -0.03082  0.478  0.5871
6.499e+09  0.6086  0.7183  -0.02135  -0.01198  0.03922  -0.01468  0.6282  0.4478
6.5e+09  0.8277  0.4735  0.002636  0.01908  -0.01894  0.05605  0.7176  0.1715
6.501e+09  0.9765  0.1233  -0.03907  -0.01337  0.04572  -0.01611  0.7822  -0.09906
6.502e+09  0.9703  -0.1996  -0.02236  0.04526  0.02222  0.01173  0.6832  -0.339
6.504e+09  0.8504  -0.4512  0.04004  0.006733  -0.02034  -0.0473  0.5078  -0.5665
6.505e+09  0.5861  -0.785  -0.01185  -0.03792  -0.01475  -0.01271  0.3079  -0.7186
6.506e+09  0.3119  -0.9394  -0.02117  -0.00703  0.0006928  0.01154  0.03428  -0.7378
6.508e+09  -0.02684  -0.9816  0.0006408  -0.03483  -0.00281  -0.004823  -0.2071  -0.7157
6.509e+09  -0.3559  -0.9306  -0.01943  -0.02468  0.048  -0.02073  -0.4752  -0.5835
6.51e+09  -0.6612  -0.7259  -0.002377  0.02008  0.0003312  -0.035  -0.6683  -0.4157
6.511e+09  -0.8475  -0.427  -0.003661  0.007876  0.02297  0.003193  -0.7511  -0.1319
6.512e+09  -0.9737  -0.06604  -0.007377  -0.02357  -0.01067  0.005964  -0.7174  0.1358
6.514e+09  -0.9131  0.2537  0.02308  0.01732  -0.007336  -0.006742  -0.6401  0.3866
6.515e+09  -0.8181  0.52  -0.007961  -0.006305  0.01378  0.0001097  -0.5095  0.5827
6.516e+09  -0.557  0.8407  -0.02581  0.03297  0.06498  0.02588  -0.2386  0.6911
6.518e+09  -0.278  0.9284  -0.008454  0.02631  -0.0353  0.03714  -0.01099  0.7327
6.519e+09  0.09176  0.9728  -0.007568  0.02276  -0.004254  0.02623  0.2977  0.6823
6.52e+09  0.4407  0.8538  0.02932  0.01628  0.03316  -0.00183  0.5225  0.544
6.521e+09  0.7155  0.6697  -0.009704  0.02874  0.03355  -0.05564  0.6427  0.32
6.522e+09  0.9075  0.4222  0.01634  -0.02268  0.06389  0.01908  0.7309  0.0933
6.524e+09  0.9843  0.07448  -0.002775  -0.009558  0.01405  -0.03755  0.7338  -0.1524
6.525e+09  0.9132  -0.2912  0.01457  -0.001627  -0.007698  0.02011  0.5706  -0.3876
6.526e+09  0.7907  -0.6092  0.008513  -0.002537  -0.02081  -0.002495  0.4146  -0.5542
6.528e+09  0.5224  -0.8404  0.02292  -0.02824  0.01732  0.01507  0.1691  -0.656
6.529e+09  0.1487  -0.9223  -0.02404  -0.0135  -0.03384  0.03017  -0.06232  -0.6871
6.53e+09  -0.178  -1.018  -0.007916  0.002359  -0.01582  0.0046  -0.3152  -0.5823
6.531e+09  -0.5015  -0.8183  -0.003745  -0.02213  0.03017  -0.01538  -0.4649  -0.4728
6.532e+09  -0.7647  -0.6874  0.001606  -0.02599  0.01738  -0.03178  -0.564  -0.281
6.534e+09  -0.9745  -0.3388  0.007888  -0.01741  0.004743  0.02093  -0.6434  -0.09246
6.535e+09  -1.012  -0.0112  0.0257  0.004637  0.01512  0.01262  -0.6251  0.1007
6.536e+09  -0.907  0.3844  0.01345  -0.004071  0.01895  -0.04549  -0.5735  0.2671
6.538e+09  -0.7569  0.6342  0.01195  0.01245  0.03486  0.02272  -0.4427  0.4748
6.539e+09  -0.435  0.8389  0.02052  0.007145  -0.0131  0.003753  -0.2591  0.6239
6.54e+09  -0.1429  1.002  0.03882  -0.01964  -0.02385  -0.006464  -0.04523  0.6628
6.541e+09  0.2182  0.9936  -0.0017  -0.006113  -0.02757  -0.02966  0.16  0.6753
6.542e+09  0.5696  0.8196  -0.001013  -0.01177  -0.01762  -0.02276  0.4237  0.5368
6.544e+09  0.7636  0.5642  -0.008382  -0.003455  -0.0324  0.02918  0.5649  0.3904
6.545e+09  0.906  0.254  0.0184  -0.01644  -0.02885  -0.0002738  0.6973  0.1424
6.546e+09  1  -0.07791  -0.006683  0.003139  0.002406  0.01935  0.7377  -0.08076
6.548e+09  0.8298  -0.4256  -0.02091  -0.005561  0.02884  -0.02038  0.674  -0.3327
6.549e+09  0.6795  -0.6562  -0.01517  -0.008679  -0.0008279  0.04168  0.5436  -0.5431
6.55e+09  0.3182  -0.8608  0.01105  -0.0148  0.01522  -0.05799  0.3025  -0.6813
