# Hz S RI R 50
6.25e+09  -0.2128  0.7933  0.01284  -0.02949  -0.01508  0.0409  0.1529  0.486
6.251e+09  0.1133  0.8291  0.01868  0.02599  -0.04125  0.04176  0.3836  0.4189
6.252e+09  0.3229  0.7725  0.01602  0.004929  0.007742  -0.02606  0.5629  0.2734
6.254e+09  0.6075  0.5705  -0.004114  0.01547  -0.0395  0.03881  0.6387  -0.002193
6.255e+09  0.8232  0.3681  -0.007431  -0.003525  0.04605  0.02642  0.6017  -0.2304
6.256e+09  0.9117  0.01512  0.04108  -0.006001  0.03705  -0.02234  0.455  -0.4595
6.258e+09  0.7474  -0.1796  -0.02651  -0.006446  -0.009773  0.05934  0.2468  -0.6252
6.259e+09  0.7281  -0.5116  -0.0253  0.01454  -0.0112  -0.00206  0.0476  -0.665
6.26e+09  0.4748  -0.7079  -0.0141  -0.008321  0.003353  0.03164  -0.207  -0.6585
6.261e+09  0.2754  -0.8765  -0.002433  0.02261  0.02059  0.004721  -0.4606  -0.5529
6.262e+09  -0.1265  -0.8785  0.007039  0.01786  0.04222  0.02746  -0.6116  -0.3265
6.264e+09  -0.3573  -0.7878  -0.00288  0.009525  0.04111  0.002552  -0.7139  -0.09277
6.265e+09  -0.6078  -0.5994  0.01912  -0.0001591  0.02306  -0.009949  -0.7382  0.1441
6.266e+09  -0.7753  -0.3149  0.01366  -0.03165  -0.01729  -0.05183  -0.6127  0.3735
6.268e+09  -0.8766  -0.04763  -0.00141  -0.01668  -0.02889  -0.04283  -0.4218  0.5795
6.269e+09  -0.8478  0.1959  -0.03052  -0.02142  0.01329  0.03534  -0.181  0.7296
6.27e+09  -0.642  0.4515  -0.04319  0.009289  -0.02843  0.02546  0.04652  0.7419
6.271e+09  -0.4515  0.7024  0.02737  0.02448  -0.04727  -0.04345  0.3222  0.6741
6.272e+09  -0.1099  0.809  0.001017  -0.02381  0.02164  0.02265  0.5366  0.5238
6.274e+09  0.1287  0.8494  -0.004059  0.01981  0.03813  0.07872  0.7001  0.2983
6.275e+09  0.3583  0.7122  0.01408  0.00307  -0.01087  -0.01453  0.7574  0.03451
6.276e+09  0.6694  0.5979  0.001412  -0.01779  0.01522  0.04112  0.7052  -0.2255
6.278e+09  0.7614  0.3342  0.007476  0.01961  -0.05945  -0.01545  0.6045  -0.466
6.279e+09  0.8181  0.02513  0.03483  0.00108  -0.01386  0.01475  0.4148  -0.6647
6.28e+09  0.7949  -0.328  -0.01212  -0.004199  -0.005459  -0.001146  0.1376  -0.7452
6.281e+09  0.673  -0.5304  -0.01383  0.008145  -0.008615  -0.02921  -0.115  -0.7861
6.282e+09  0.425  -0.7409  0.0196  0.002536  0.03718  0.04511  -0.3772  -0.6667
6.284e+09  0.2043  -0.8  -0.05112  0.007085  -0.01141  -0.03042  -0.5719  -0.5138
6.285e+09  -0.1731  -0.8789  0.02224  -0.002954  0.007067  -0.02851  -0.7403  -0.2769
6.286e+09  -0.4327  -0.7436  0.02574  -0.03058  0.05486  -0.01316  -0.7925  -0.01287
6.288e+09  -0.6095  -0.5771  0.01646  -0.004793  0.002827  -0.02484  -0.7469  0.2682
6.289e+09  -0.8179  -0.2947  -0.01129  0.01209  -0.0434  0.008145  -0.6313  0.4918
6.29e+09  -0.7928  -0.009677  -0.01015  -0.0066  0.01156  0.003912  -0.4135  0.7195
6.291e+09  -0.7727  0.3091  -0.003685  -0.0106  -0.01936  0.02031  -0.1391  0.7988
6.292e+09  -0.6565  0.5098  0.02297  -0.009206  0.006394  -0.02253  0.1288  0.7906
6.294e+09  -0.3705  0.7951  0.008315  -0.0302  -0.01539  0.005582  0.4067  0.7465
6.295e+09  -0.09871  0.84  -0.01103  -0.008281  -0.01964  -0.07259  0.6021  0.5265
6.296e+09  0.2001  0.8428  -0.004033  -0.04514  0.03194  -0.009646  0.7467  0.2833
6.298e+09  0.473  0.7226  -0.009101  0.0056  0.02875  0.002454  0.8646  0.03329
6.299e+09  0.6445  0.5383  0.01015  -0.01227  -0.01038  0.03867  0.7902  -0.2758
6.3e+09  0.801  0.1924  0.03357  0.01012  -0.04159  -0.0162  0.6277  -0.5336
6.301e+09  0.8273  -0.1134  8.707e-05  -0.01301  -0.01195  0.03674  0.4435  -0.704
6.302e+09  0.7783  -0.3177  0.00486  0.0168  0.03384  0.004239  0.1543  -0.846
6.304e+09  0.6394  -0.611  0.01871  -0.02882  0.03117  -0.02832  -0.1395  -0.8685
6.305e+09  0.3626  -0.7894  -0.008165  0.02066  0.07967  0.001425  -0.3909  -0.7322
6.306e+09  0.07355  -0.8433  -0.01258  0.02397  -0.04012  -0.03349  -0.6542  -0.5692
6.308e+09  -0.1977  -0.8289  0.001138  0.0004979  0.01735  -0.01747  -0.7676  -0.2715
6.309e+09  -0.4911  -0.6797  -0.01723  0.01749  -0.03183  -0.006191  -0.8531  -0.01664
6.31e+09  -0.6572  -0.5141  -0.02449  -0.01936  0.06536  -0.0221  -0.8281  0.2784
6.311e+09  -0.8471  -0.2505  0.004273  -0.003214  -0.008537  0.01859  -0.6612  0.5709
6.312e+09  -0.8342  0.08972  0.01216  0.007358  -0.01113  0.03482  -0.4667  0.7325
6.314e+09  -0.7268  0.3737  -0.00121  0.006949  0.03104  0.05954  -0.1496  0.8533
6.315e+09  -0.5602  0.6269  0.0458  -0.01251  0.005424  0.02781  0.1179  0.846
6.316e+09  -0.3184  0.8006  -0.04894  -0.006266  0.05475  0.007826  0.4112  0.7794
6.318e+09  -0.09892  0.844  -0.01987  -0.003564  0.001499  -0.03092  0.6776  0.5678
6.319e+09  0.2419  0.7838  -0.0358  -0.03583  -0.0307  0.02621  0.7947  0.3214
6.32e+09  0.5084  0.6197  0.008803  -0.01659  0.02206  0.00917  0.9015  0.009266
6.321e+09  0.7056  0.4549  -0.01382  0.01671  -0.0132  -0.02618  0.8382  -0.3103
6.322e+09  0.847  0.2233  0.02009  -0.04956  -0.006724  -0.02693  0.6785  -0.5648
6.324e+09  0.8429  -0.1132  -0.03113  0.01343  0.03058  0.02352  0.4632  -0.7475
6.325e+09  0.7669  -0.4392  -0.007898  0.005383  0.03032  -0.02268  0.1606  -0.886
6.326e+09  0.5655  -0.6426  -0.01537  -0.03587  -0.007939  -0.01977  -0.1347  -0.8726
6.328e+09  0.3145  -0.7988  0.01477  -0.004241  0.01548  -0.02974  -0.4212  -0.7702
6.329e+09  -0.01243  -0.8607  -0.002953  -0.01179  0.03068  0.03225  -0.6666  -0.6063
6.33e+09  -0.2928  -0.8498  -0.0049  0.01696  -0.0229  0.003931  -0.8508  -0.3259
6.331e+09  -0.5424  -0.5936  0.00333  -0.02857  -0.01445  0.007106  -0.92  -0.01732
6.332e+09  -0.7857  -0.4379  -0.03324  0.01471  0.006077  0.00116  -0.8648  0.2887
6.334e+09  -0.8734  -0.1346  0.04203  -0.007866  -0.005736  -0.02052  -0.7152  0.5681
6.335e+09  -0.8715  0.1641  -0.007165  0.04256  0.03303  0.02222  -0.4695  0.7776
6.336e+09  -0.7044  0.4885  -0.001555  -0.002907  0.01671  -0.02334  -0.1979  0.8777
6.338e+09  -0.5932  0.6897  0.02365  0.0003485  0.001999  0.007374  0.09621  0.9314
6.339e+09  -0.2049  0.8018  -0.008597  -0.02297  0.02379  -0.0185  0.4602  0.7984
6.34e+09  0.01952  0.878  0.045  -0.004097  0.0359  0.001801  0.6684  0.6139
6.341e+09  0.3528  0.7887  0.008272  -0.005073  0.02446  0.04286  0.8407  0.3163
6.342e+09  0.6095  0.6269  0.01595  -0.01808  0.03692  -0.04139  0.9196  0.04598
6.344e+09  0.8548  0.3975  -0.01863  0.01913  0.05595  0.005081  0.8715  -0.3188
6.345e+09  0.8708  0.0457  -0.03817  -0.01514  0.03584  0.01176  0.7226  -0.5797
6.346e+09  0.8639  -0.2243  -0.02568  0.01435  -0.009849  0.003276  0.4997  -0.7553
6.348e+09  0.7007  -0.5262  -0.001052  0.01983  0.03587  0.01929  0.2031  -0.9001
6.349e+09  0.4894  -0.7878  -0.01625  0.02476  -0.01834  0.0223  -0.09341  -0.9314
6.35e+09  0.2209  -0.8866  -0.02759  0.001259  -0.02182  0.02879  -0.4237  -0.8433
6.351e+09  -0.09349  -0.8917  -0.01768  0.04161  -0.003514  -0.01985  -0.6829  -0.66
6.352e+09  -0.4226  -0.7561  0.007517  -0.004394  -0.003967  0.009853  -0.8552  -0.403
6.354e+09  -0.6687  -0.6183  -0.02364  -0.0147  -0.03041  0.00176  -0.9297  -0.05219
6.355e+09  -0.8486  -0.3776  -0.02222  0.003393  -0.019  0.03112  -0.9168  0.2465
6.356e+09  -0.8829  0.01328  -0.002193  0.0497  -0.01464  0.003603  -0.7616  0.5653
6.358e+09  -0.8479  0.3053  -0.01157  -0.006374  0.01356  -0.00369  -0.5271  0.7721
6.359e+09  -0.7323  0.5497  0.005351  0.01236  -0.03173  0.01716  -0.2401  0.9105
6.36e+09  -0.4646  0.742  0.009397  -0.008792  0.07403  -0.02744  0.1007  0.9305
6.361e+09  -0.1653  0.8631  0.01705  -0.001717  0.006287  0.02507  0.4607  0.8595
6.362e+09  0.1909  0.8864  -0.008785  -0.01828  0.00751  0.01217  0.7057  0.6643
6.364e+09  0.4448  0.7856  -0.02013  -0.005868  -0.04216  -0.03377  0.8695  0.4199
6.365e+09  0.6936  0.5238  0.0139  0.00159  -0.04037  -0.01354  0.9162  0.07948
6.366e+09  0.8851  0.2836  -0.004325  0.009507  0.009831  -0.005986  0.9202  -0.2467
6.368e+09  0.9069  -0.02939  -0.005181  -0.004082  0.02315  -0.003448  0.7949  -0.5859
6.369e+09  0.8567  -0.3649  0.01926  0.01001  -0.001596  -0.03805  0.508  -0.7614
6.37e+09  0.6265  -0.6245  -0.01855  0.0009909  0.01586  -0.02556  0.2476  -0.9147
6.371e+09  0.4174  -0.8016  0.02643  -0.01785  0.009503  -0.003382  -0.1011  -0.9311
6.372e+09  0.1356  -0.8948  -0.06249  -0.01037  -0.04282  0.0353  -0.4123  -0.8556
6.374e+09  -0.2257  -0.8738  -0.02715  0.02881  -0.01319  -0.04328  -0.6743  -0.6934
6.375e+09  -0.5073  -0.7755  0.01938  -0.008914  -0.02375  0.02984  -0.8671  -0.4272
6.376e+09  -0.7183  -0.5817  -0.0003974  0.037  -0.02591  0.005234  -0.9518  -0.1087
6.378e+09  -0.8846  -0.2006  0.0007241  -0.02896  0.02691  0.006723  -0.8916  0.2101
6.379e+09  -0.8852  0.06045  0.0005931  -0.0002611  0.01003  -0.02988  -0.7712  0.5504
6.38e+09  -0.7976  0.3798  0.01166  0.0442  0.03592  0.02473  -0.5371  0.7515
6.381e+09  -0.6382  0.6674  0.0037  -0.02504  0.01229  -0.04312  -0.2652  0.8895
6.382e+09  -0.3477  0.7982  0.02366  0.005791  -0.0468  0.07298  0.06608  0.9625
6.384e+09  -0.07178  0.8822  0.04442  0.02914  0.01896  0.036  0.3895  0.8709
6.385e+09  0.278  0.8485  0.003869  -0.004712  -0.04139  -0.008759  0.6341  0.6768
6.386e+09  0.5443  0.7049  -0.0311  -0.03987  -0.01608  -0.04133  0.8476  0.4109
6.388e+09  0.7654  0.4683  -0.002485  0.02523  0.02159  -0.01775  0.9427  0.1257
6.389e+09  0.863  0.2244  -0.004614  -0.01313  0.041  -0.03924  0.9017  -0.2229
6.39e+09  0.9183  -0.06843  -0.005948  0.01297  0.01512  0.0001826  0.8002  -0.5342
6.391e+09  0.8058  -0.3921  -0.001139  0.02839  -0.01732  -0.007388  0.6163  -0.7532
6.392e+09  0.6265  -0.6745  -0.01158  -0.02286  -0.03108  -0.03032  0.3061  -0.8769
6.394e+09  0.3076  -0.8246  0.02522  0.0244  -0.02362  -0.03694  -0.0205  -0.9061
6.395e+09  0.02119  -0.9099  -0.002748  0.004181  -0.01558  -0.04009  -0.3267  -0.8883
6.396e+09  -0.2554  -0.8304  -0.01529  0.01677  -0.02101  -0.006404  -0.6291  -0.6901
6.398e+09  -0.5406  -0.7213  -0.04274  0.02528  -0.01494  0.0208  -0.7859  -0.4271
6.399e+09  -0.7604  -0.4794  -0.04515  0.002624  -0.00854  -0.03791  -0.9111  -0.09761
6.4e+09  -0.8676  -0.2157  0.01133  0.005267  -0.01623  0.01958  -0.888  0.1648
6.401e+09  -0.9026  0.1149  0.002793  0.04003  0.02663  -0.01506  -0.7987  0.5086
6.402e+09  -0.7361  0.4496  0.02365  -0.007792  0.02439  -0.0249  -0.585  0.6924
6.404e+09  -0.5945  0.6887  -0.006403  0.03947  0.003057  0.000323  -0.2838  0.8385
6.405e+09  -0.3039  0.8223  0.007802  0.02583  0.01721  -0.002519  0.0004075  0.9382
6.406e+09  -0.04785  0.846  -0.03205  0.001269  0.0325  -0.009891  0.3475  0.8226
6.408e+09  0.3018  0.8428  0.01497  0.01841  -0.04637  0.03889  0.5842  0.7266
6.409e+09  0.5793  0.6658  -0.01308  -0.003457  0.04277  -0.01975  0.7714  0.4107
6.41e+09  0.7582  0.5016  -0.05073  0.01948  -0.01573  0.0465  0.8506  0.1743
6.411e+09  0.8774  0.1967  0.01572  0.05694  -0.02875  -0.01127  0.9215  -0.1089
6.412e+09  0.9006  -0.1602  0.00605  0.004354  0.03056  -0.006272  0.7794  -0.4216
6.414e+09  0.76  -0.393  0.004507  0.01544  0.02674  -0.001606  0.6164  -0.6303
6.415e+09  0.5856  -0.7156  0.007154  0.02299  0.05563  0.01674  0.3544  -0.8027
6.416e+09  0.3178  -0.8425  -0.002849  -0.03915  -0.04007  -0.009799  0.01352  -0.8992
6.418e+09  0.03338  -0.8981  -0.01165  0.0004143  0.005109  -0.01435  -0.2862  -0.8649
6.419e+09  -0.3251  -0.8278  -0.003374  -0.01233  0.03645  -0.01027  -0.5519  -0.7349
6.42e+09  -0.5787  -0.7148  0.02721  0.00152  0.01959  0.007317  -0.7763  -0.5249
6.421e+09  -0.7915  -0.4603  0.01365  -0.01949  -0.05277  0.00988  -0.9066  -0.2312
6.422e+09  -0.8996  -0.1283  -0.03102  0.04793  -0.01288  0.0253  -0.8366  0.08077
6.424e+09  -0.8761  0.1942  0.01524  0.004906  -0.004324  -0.03211  -0.8518  0.4136
6.425e+09  -0.762  0.4444  -0.02815  0.008475  0.02006  0.001903  -0.6038  0.6496
6.426e+09  -0.5537  0.7504  -0.01222  -0.009749  -0.04784  -0.007036  -0.3922  0.8567
6.428e+09  -0.2573  0.8395  -0.001298  -0.02126  0.01588  -0.02357  -0.02271  0.8556
6.429e+09  -0.03239  0.9064  -0.02788  0.002655  0.0416  -0.04763  0.2207  0.8728
6.43e+09  0.2994  0.8499  0.02463  -0.01684  -0.03001  -0.001514  0.5168  0.7018
6.431e+09  0.6236  0.6883  -0.01026  0.04551  -0.01761  0.06195  0.7511  0.478
6.432e+09  0.8279  0.4217  -0.01496  0.02488  -0.005622  0.04686  0.8488  0.2352
6.434e+09  0.9104  0.131  -0.0001621  -0.003777  0.01377  -0.05026  0.8846  -0.07044
6.435e+09  0.8783  -0.1229  -0.03483  0.04406  -0.02506  0.02614  0.7727  -0.4154
6.436e+09  0.7633  -0.4342  0.003975  0.01681  -0.0004087  0.02981  0.5996  -0.5701
6.438e+09  0.5181  -0.6787  -0.02417  0.002352  0.04445  0.0227  0.3851  -0.7957
6.439e+09  0.2621  -0.8217  -0.02707  0.02625  0.01237  0.02174  0.07204  -0.8545
6.44e+09  -0.05188  -0.9166  0.05431  0.05348  0.00343  -0.02681  -0.2304  -0.8286
6.441e+09  -0.395  -0.8085  -0.006913  0.01584  -0.01402  -0.0276  -0.5179  -0.6589
6.442e+09  -0.6144  -0.6588  0.02727  -0.01289  0.007425  -0.01739  -0.6936  -0.4654
6.444e+09  -0.8651  -0.3923  0.006024  -0.005378  -0.03157  0.05642  -0.8294  -0.185
6.445e+09  -0.8781  -0.1027  -0.03649  -0.01585  -0.02159  0.009813  -0.8298  0.08308
6.446e+09  -0.8529  0.1925  -0.01384  0.003495  -0.01811  0.06095  -0.7354  0.3748
6.448e+09  -0.7062  0.4749  0.0103  0.02866  0.03338  -0.01825  -0.5679  0.6114
6.449e+09  -0.5588  0.7643  -0.002191  0.01961  0.01691  -0.004235  -0.3587  0.8013
6.45e+09  -0.3229  0.8335  0.02722  0.0411  -0.01218  -0.01362  -0.108  0.818
6.451e+09  0.04784  0.9432  -0.02413  -0.003526  -0.02272  -0.02357  0.195  0.7999
6.452e+09  0.3612  0.8647  -0.03608  0.01186  -0.0112  -0.002625  0.5261  0.6707
6.454e+09  0.6351  0.6542  0.02691  -0.0701  -0.02277  -0.02985  0.6973  0.4338
6.455e+09  0.7978  0.3976  -0.005959  0.0191  -0.01381  -0.03099  0.8415  0.2309
6.456e+09  0.8783  0.09631  0.007114  -0.01285  -0.02427  0.05279  0.7787  -0.09619
6.458e+09  0.9207  -0.1458  0.004599  -0.01953  -0.02033  0.01861  0.7741  -0.3411
6.459e+09  0.8061  -0.5002  0.01973  -0.03308  -0.06624  -0.04709  0.5441  -0.5706
6.46e+09  0.5668  -0.7748  -0.07282  -0.02009  -0.03027  -0.007095  0.3348  -0.7833
6.461e+09  0.1999  -0.9201  -0.000915  0.006336  -0.0001956  0.0002879  0.08238  -0.7785
6.462e+09  -0.0939  -0.8886  0.05448  -0.03046  -0.0197  0.02073  -0.1819  -0.8102
6.464e+09  -0.3568  -0.841  -0.06753  -0.02689  0.02687  -0.001999  -0.5125  -0.6561
6.465e+09  -0.6808  -0.6671  -0.03806  -0.01108  -0.01953  -0.0295  -0.6652  -0.4479
6.466e+09  -0.865  -0.4071  0.001829  0.02237  -0.01218  -0.04112  -0.7559  -0.1606
6.468e+09  -0.9516  -0.09389  0.01742  -0.02786  0.0006902  0.002773  -0.8169  0.04824
6.469e+09  -0.8971  0.2053  0.02897  -0.01489  0.03499  -0.03582  -0.711  0.3813
6.47e+09  -0.752  0.4922  -0.005542  0.03781  -0.01453  -0.05507  -0.5539  0.5725
6.471e+09  -0.5315  0.7888  -0.02931  -0.04692  0.03492  -0.01419  -0.3335  0.7475
6.472e+09  -0.2562  0.8836  0.003291  -0.009911  -0.01233  0.02026  -0.08943  0.7882
6.474e+09  0.09118  0.9212  -0.0007923  -0.001284  0.05202  0.02824  0.2219  0.7656
6.475e+09  0.4079  0.8334  0.04087  0.01905  0.05817  0.004645  0.4473  0.5826
6.476e+09  0.702  0.6543  0.04614  -0.00147  0.009466  0.008987  0.6189  0.4424
6.478e+09  0.862  0.3628  0.004825  -0.008375  -0.02308  0.005511  0.7382  0.1741
6.479e+09  0.9702  0.01245  -0.007583  -0.01725  0.05942  0.01909  0.7638  -0.08465
6.48e+09  0.856  -0.2398  0.04653  -0.01574  0.001767  -0.03396  0.7234  -0.3348
6.481e+09  0.76  -0.5425  -0.008395  -0.05089  0.02279  0.04706  0.5658  -0.572
6.482e+09  0.5031  -0.8461  -0.001744  0.01092  -0.06335  -0.01655  0.2946  -0.6727
6.484e+09  0.2021  -0.911  -0.02044  0.03349  0.03658  0.01817  0.04987  -0.8063
6.485e+09  -0.09002  -0.9379  -0.007617  0.03221  0.003908  0.01589  -0.2294  -0.7599
6.486e+09  -0.4263  -0.8037  0.04261  0.04161  -0.03772  0.001835  -0.4384  -0.616
6.488e+09  -0.7567  -0.6254  -0.01942  -0.006922  0.0007209  0.009931  -0.6471  -0.4096
6.489e+09  -0.8733  -0.3149  0.009355  0.02389  -0.01643  -0.05569  -0.7423  -0.149
6.49e+09  -0.9722  -0.03714  -0.0103  0.04703  0.04049  0.02422  -0.7839  0.07999
6.491e+09  -0.9679  0.2888  0.0037  0.01421  -0.01628  0.02421  -0.7038  0.331
6.492e+09  -0.7401  0.5833  -0.01592  -0.008164  -0.03638  0.01591  -0.5329  0.5548
6.494e+09  -0.4065  0.8434  -0.02454  -0.0106  0.01237  -0.03619  -0.314  0.7449
6.495e+09  -0.1617  0.9278  0.005428  0.0317  -0.03336  0.01223  -0.03875  0.7548
6.496e+09  0.1698  0.9542  -0.02108  0.02083  -0.05815  -0.01472  0.2296  0.7482
6.498e+09  0.4492  0.8311  0.0001414  -0.02475  0.06191  -0.02851  0.4432  0.6223
6.499e+09  0.773  0.6499  -0.007107  0.00192  -0.03249  0.02188  0.6011  0.4065
6.5e+09  0.916  0.2857  0.05575  -0.04549  0.04171  -0.02625  0.7413  0.1793
6.501e+09  0.98  -0.05963  -0.02548  0.03723  0.01334  0.004901  0.7412  -0.1446
6.502e+09  0.8958  -0.3546  0.02086  -0.01455  0.001503  -0.002369  0.6733  -0.3941
6.504e+09  0.7002  -0.6613  0.03509  -0.01008  -0.01759  -0.03172  0.4949  -0.5829
6.505e+09  0.4223  -0.8208  0.005162  0.006895  0.01192  0.003411  0.2902  -0.7529
6.506e+09  0.1395  -0.9713  -0.001688  -0.01526  -0.02092  0.0542  -0.01903  -0.7547
6.508e+09  -0.2179  -0.9262  -0.0397  -0.001805  -0.0005304  -0.01132  -0.2096  -0.7168
6.509e+09  -0.5815  -0.7498  0.01457  0.002681  -0.03227  -0.001867  -0.4649  -0.5922
6.51e+09  -0.7912  -0.6132  -0.008431  -0.002601  0.02945  -0.02239  -0.6335  -0.3745
6.511e+09  -0.9601  -0.2867  -0.02049  0.02129  0.02274  0.02964  -0.7278  -0.151
6.512e+09  -1.018  0.0991  -0.04166  -0.008685  0.03521  0.01324  -0.7378  0.1269
6.514e+09  -0.8701  0.3888  -0.003919  -0.006575  0.03107  0.03412  -0.6484  0.4086
6.515e+09  -0.6468  0.6954  0.03163  0.03416  -0.0208  -0.05027  -0.4808  0.6055
6.516e+09  -0.4029  0.8876  0.005918  0.007947  -0.0516  -0.04676  -0.2357  0.6681
6.518e+09  -0.1008  0.9663  0.03625  0.009784  -0.03913  -0.01313  -0.0107  0.7504
6.519e+09  0.2435  0.9586  0.02286  0.009688  -0.01849  0.003996  0.2421  0.6818
6.52e+09  0.6102  0.7315  0.01436  -0.004986  -0.002857  0.05527  0.4624  0.5673
6.521e+09  0.8402  0.5698  0.01826  0.01239  0.04237  0.009822  0.6419  0.3027
6.522e+09  0.9468  0.1862  0.008226  0.006043  -0.004926  -0.008451  0.7417  0.09712
6.524e+09  0.9174  -0.147  0.00936  -0.01992  0.01936  -0.03634  0.7271  -0.168
6.525e+09  0.8318  -0.4354  0.004535  0.00872  -0.03614  0.009782  0.587  -0.3627
6.526e+09  0.6138  -0.7228  0.02515  -0.02048  -0.009328  -0.05428  0.4071  -0.568
6.528e+09  0.323  -0.8888  0.01614  -0.03488  0.05169  -0.04498  0.1637  -0.7002
6.529e+09  -0.01393  -0.9954  -0.01181  -0.0224  0.002254  -0.042  -0.08182  -0.7188
6.53e+09  -0.3291  -0.8897  -0.00258  0.003039  0.006318  0.03029  -0.2855  -0.6331
6.531e+09  -0.6615  -0.641  0.009902  -0.003453  -0.003845  0.02926  -0.4712  -0.4782
6.532e+09  -0.8393  -0.4483  -0.01605  0.003169  -0.04465  0.003954  -0.5779  -0.2533
6.534e+09  -0.9385  -0.1265  -0.02563  -0.01143  0.02998  -0.04823  -0.6554  -0.1105
6.535e+09  -0.9077  0.1769  -0.04266  0.01869  -0.03516  0.01811  -0.6068  0.1459
6.536e+09  -0.765  0.5917  -0.00689  -0.005672  0.07146  -0.001033  -0.5675  0.307
6.538e+09  -0.5288  0.7963  -0.009435  0.01345  -0.003001  -0.001727  -0.4626  0.4848
6.539e+09  -0.2856  0.9432  0.03203  0.003552  0.008755  0.02609  -0.2341  0.6192
6.54e+09  0.1058  0.9806  -0.01787  -0.01345  -0.01771  -0.0105  -0.06926  0.6842
6.541e+09  0.4361  0.8479  -0.0001205  -0.04145  -0.02679  0.06007  0.2037  0.6921
6.542e+09  0.7268  0.6722  0.01117  -0.01487  -0.01599  0.01392  0.4066  0.5435
6.544e+09  0.8619  0.3185  -0.008976  0.01143  0.02263  -0.01156  0.6045  0.406
6.545e+09  0.8855  0.05012  -0.003775  0.03975  -0.007046  -0.04358  0.7352  0.1678
6.546e+09  0.8944  -0.3165  0.02919  0.01764  -0.03626  -0.0601  0.6937  -0.09575
6.548e+09  0.7414  -0.5913  -0.007195  0.0126  0.02904  0.007551  0.6538  -0.3367
6.549e+09  0.4653  -0.8128  0.01761  -0.01355  0.07746  -0.03371  0.5021  -0.5358
6.55e+09  0.132  -0.9198  -0.02432  0.008248  -0.0005641  0.02494  0.2619  -0.6984
