# Hz S RI R 50
6.25e+09  -0.7967  0.1392  -0.001418  0.03553  0.03006  -0.01866  0.1807  0.4454
6.251e+09  -0.7555  0.3505  -0.01484  0.0129  -0.01319  -0.002784  0.3827  0.3976
6.252e+09  -0.5194  0.575  -0.001495  0.03881  -0.02353  0.02128  0.5327  0.2301
6.254e+09  -0.268  0.7847  -0.000378  -0.03581  0.0176  0.04002  0.6237  0.0004735
6.255e+09  -0.01287  0.7921  -0.04075  -0.01251  -0.01014  0.0251  0.5738  -0.2165
6.256e+09  0.2983  0.7493  -0.02131  0.01518  -0.01936  0.02662  0.4853  -0.4158
6.258e+09  0.5075  0.6811  -0.01395  -0.02685  -0.02306  0.0356  0.2646  -0.5907
6.259e+09  0.7404  0.4452  -0.01904  0.01101  -0.007764  -0.04904  0.03834  -0.6544
6.26e+09  0.7997  0.1207  -0.01452  -0.007612  -0.009309  0.02135  -0.1586  -0.6529
6.261e+09  0.8299  -0.1268  0.03216  0.01718  0.07451  0.01267  -0.4278  -0.5364
6.262e+09  0.7629  -0.434  0.0155  -0.01004  -0.003244  0.02686  -0.6583  -0.3472
6.264e+09  0.5327  -0.6326  -0.01163  0.01737  0.003467  0.02463  -0.7013  -0.1141
6.265e+09  0.2341  -0.7422  -0.01418  0.01707  0.01622  0.006521  -0.7294  0.1338
6.266e+09  0.0478  -0.8603  0.008393  0.01588  -0.02657  0.002706  -0.6032  0.3778
6.268e+09  -0.2286  -0.733  -0.04219  -0.001444  0.009093  0.01467  -0.4661  0.5998
6.269e+09  -0.4654  -0.6103  0.008926  -0.02387  0.0191  0.003421  -0.2154  0.6971
6.27e+09  -0.7171  -0.3943  -0.01069  -0.004729  -0.01154  -0.01165  0.07344  0.7314
6.271e+09  -0.7818  -0.1309  -0.0266  -0.0003823  -0.06395  -0.00355  0.3443  0.7003
6.272e+09  -0.7665  0.1483  -0.007509  0.03371  0.03215  0.04573  0.5742  0.541
6.274e+09  -0.7074  0.4366  -0.00447  0.007149  -0.02443  -0.01059  0.6774  0.3155
6.275e+09  -0.5428  0.5539  0.009388  -0.03247  0.05169  0.003115  0.7476  0.02876
6.276e+09  -0.2488  0.8074  -0.003501  0.02139  -0.007715  -0.0158  0.7397  -0.2444
6.278e+09  -0.003416  0.8406  -0.01576  0.01123  0.01911  -0.02047  0.5968  -0.4201
6.279e+09  0.3149  0.749  0.003529  -0.0004565  -0.01379  -0.02246  0.3983  -0.6769
6.28e+09  0.5004  0.6265  0.002964  0.004881  -0.007739  0.007963  0.1234  -0.7711
6.281e+09  0.7012  0.3868  -0.02538  0.01486  0.01617  -0.009782  -0.1175  -0.761
6.282e+09  0.7824  0.07903  -1.541e-05  0.0061  -0.01605  -0.0186  -0.3783  -0.6609
6.284e+09  0.8098  -0.1388  -0.0139  0.01498  0.001773  0.04025  -0.6011  -0.5208
6.285e+09  0.6429  -0.4631  0.02222  0.001937  -0.0395  -0.02606  -0.748  -0.2892
6.286e+09  0.5203  -0.7037  0.02117  0.02601  -0.02358  -0.03726  -0.7934  -0.006818
6.288e+09  0.2536  -0.7218  0.006601  -0.0136  0.02733  -0.03146  -0.7442  0.2528
6.289e+09  -0.06306  -0.7834  0.004634  0.03338  -0.04309  -0.02784  -0.5808  0.5058
6.29e+09  -0.3685  -0.7601  -0.02803  -0.01916  -0.005511  -0.02596  -0.4067  0.7201
6.291e+09  -0.5616  -0.5935  0.01691  0.008737  -0.01403  -0.04646  -0.1487  0.7718
6.292e+09  -0.7699  -0.3117  -0.001334  0.00671  -0.04675  -0.02613  0.1257  0.812
6.294e+09  -0.7881  -0.1417  0.03936  -0.01385  0.001679  0.04425  0.4094  0.7189
6.295e+09  -0.7904  0.1771  -0.04171  -0.01046  -0.002017  0.03939  0.6168  0.5231
6.296e+09  -0.6529  0.4987  0.02101  -0.009207  0.01637  -0.04333  0.7953  0.2712
6.298e+09  -0.4572  0.6583  -0.01896  0.01598  -0.01077  0.02164  0.8205  -0.02609
6.299e+09  -0.1588  0.7889  0.04316  -0.01189  0.002452  0.03736  0.7924  -0.3015
6.3e+09  0.0672  0.7986  -0.02401  -0.004386  -0.0201  -0.02108  0.6487  -0.5057
6.301e+09  0.34  0.742  0.003409  -0.0004502  0.05039  -0.0752  0.4079  -0.729
6.302e+09  0.5434  0.6017  0.02804  -0.02815  -0.0318  -0.01108  0.1585  -0.8417
6.304e+09  0.7531  0.3082  0.01016  0.008034  -0.07044  -0.03637  -0.08471  -0.8102
6.305e+09  0.8251  0.02696  0.01097  -0.0282  -0.008537  0.06358  -0.4316  -0.7346
6.306e+09  0.7889  -0.2605  0.005002  0.02  0.0342  0.03149  -0.6349  -0.547
6.308e+09  0.6881  -0.5587  -0.0234  0.01534  -0.001008  -0.007645  -0.8093  -0.3078
6.309e+09  0.3933  -0.7202  -0.00731  -0.008085  0.04668  0.03229  -0.8639  0.01971
6.31e+09  0.1564  -0.839  0.001288  -0.009348  -0.002291  0.02709  -0.8197  0.3073
6.311e+09  -0.07579  -0.789  -0.01409  0.0122  -0.009826  -0.06427  -0.6732  0.5446
6.312e+09  -0.3806  -0.7227  0.02465  0.003856  -0.01769  -0.05508  -0.4194  0.7638
6.314e+09  -0.618  -0.5202  -0.02303  -0.01403  0.02424  0.03341  -0.1602  0.8613
6.315e+09  -0.8179  -0.3069  0.007942  0.002463  -0.008762  -0.0404  0.1774  0.8875
6.316e+09  -0.8124  -0.01655  0.008775  -0.02453  -0.02032  -0.0093  0.4325  0.8087
6.318e+09  -0.7839  0.2465  -0.02035  0.002191  -0.05727  -0.01336  0.6698  0.5715
6.319e+09  -0.6245  0.5969  -0.01002  -0.002763  0.03844  -0.004047  0.8131  0.327
6.32e+09  -0.4428  0.717  0.01126  0.01011  0.003269  0.008015  0.9117  0.003594
6.321e+09  -0.08543  0.843  -0.0001752  0.01686  0.01142  0.008098  0.8533  -0.3143
6.322e+09  0.1206  0.8648  0.01703  0.04751  -0.05147  -0.008227  0.6982  -0.5605
6.324e+09  0.472  0.752  0.008771  0.01884  0.02852  -0.000579  0.4366  -0.7946
6.325e+09  0.6249  0.5291  0.002361  0.02518  0.008046  0.02434  0.1644  -0.8683
6.326e+09  0.7872  0.2915  -0.01237  0.01211  -0.004287  0.009566  -0.1426  -0.8735
6.328e+09  0.8187  -0.02476  -0.01769  -0.02538  0.007003  0.01965  -0.4307  -0.7954
6.329e+09  0.8025  -0.3121  -0.01806  0.01961  -0.002515  -0.0331  -0.6729  -0.5987
6.33e+09  0.6248  -0.5687  0.004485  -0.01003  0.0008119  0.01846  -0.8414  -0.3454
6.331e+09  0.4237  -0.7299  -0.009731  -0.0293  0.02042  -0.02875  -0.8836  -0.01285
6.332e+09  0.0932  -0.8034  0.01732  -0.01323  0.02618  0.03039  -0.8481  0.2895
6.334e+09  -0.2114  -0.8475  0.01649  -0.01704  0.01125  -0.01537  -0.725  0.581
6.335e+09  -0.5033  -0.6646  0.006049  -0.002025  0.02053  -0.01494  -0.455  0.8068
6.336e+09  -0.6861  -0.486  0.002031  -0.004427  -0.03663  0.004718  -0.2096  0.9051
6.338e+09  -0.8579  -0.2085  0.005587  -0.002583  -0.02422  0.01322  0.1149  0.9037
6.339e+09  -0.8217  0.09709  -0.01955  0.01633  0.04869  -8.604e-05  0.4613  0.8065
6.34e+09  -0.7619  0.367  0.02321  -0.002382  0.0231  0.0003094  0.7078  0.6301
6.341e+09  -0.5435  0.6397  -0.0416  0.02872  -0.03641  0.0226  0.8853  0.3392
6.342e+09  -0.3379  0.7374  -0.01813  -0.01399  0.02349  0.008937  0.9194  0.03796
6.344e+09  -0.01104  0.8261  -0.00603  0.01607  -0.007123  0.005967  0.9015  -0.2718
6.345e+09  0.2577  0.8184  0.01034  -0.001827  -0.01228  0.02239  0.7242  -0.5747
6.346e+09  0.5496  0.6601  0.00636  -0.009796  -0.01366  -0.006769  0.51  -0.838
6.348e+09  0.7492  0.4104  0.03395  -0.007365  -0.02048  -0.01093  0.2253  -0.9041
6.349e+09  0.8626  0.1211  0.01006  0.008711  -0.05402  -0.002428  -0.08616  -0.8991
6.35e+09  0.8194  -0.1831  -0.009121  -0.00317  0.008985  0.03425  -0.3903  -0.7886
6.351e+09  0.7784  -0.4833  -0.01531  -0.05074  0.02022  0.02922  -0.7175  -0.6431
6.352e+09  0.5535  -0.7078  -0.02574  -0.002826  0.001404  0.007638  -0.9097  -0.3747
6.354e+09  0.271  -0.8203  -0.009006  -0.04976  -0.04468  -0.03553  -0.9229  0.008303
6.355e+09  -0.01352  -0.906  0.02291  -0.008938  -0.02942  -0.03262  -0.9244  0.2167
6.356e+09  -0.3046  -0.7891  -0.009132  -0.008739  -0.03897  -0.04001  -0.7669  0.5137
6.358e+09  -0.6223  -0.6498  0.02876  0.008371  -0.027  0.014  -0.5272  0.7742
6.359e+09  -0.8041  -0.3873  0.005828  -0.007441  -0.001532  -0.0334  -0.2266  0.9365
6.36e+09  -0.8555  -0.08375  0.005588  0.02786  -0.007516  0.02324  0.1026  0.9646
6.361e+09  -0.8335  0.237  0.03684  -0.01603  0.01431  -0.02687  0.4309  0.8891
6.362e+09  -0.6969  0.5332  0.03003  0.01748  0.02558  -0.00208  0.6736  0.6895
6.364e+09  -0.4583  0.7417  -0.01069  0.01516  0.02091  0.002333  0.8872  0.4138
6.365e+09  -0.1895  0.8789  0.03964  0.02595  -0.001282  -0.02593  1.005  0.1019
6.366e+09  0.09705  0.844  0.01786  -0.02136  0.01125  0.01211  0.89  -0.2755
6.368e+09  0.4236  0.7578  -0.008912  -0.008361  0.0226  -0.01221  0.7991  -0.5738
6.369e+09  0.6854  0.5714  -0.06681  -0.006792  0.04619  0.01542  0.5648  -0.8304
6.37e+09  0.8067  0.3101  -0.01432  -0.02124  0.02547  0.006362  0.2589  -0.9012
6.371e+09  0.8401  0.007849  0.007657  -0.01436  -0.01707  -0.01315  -0.04368  -0.9512
6.372e+09  0.8512  -0.2834  -0.0004436  -0.00185  -0.02195  -0.01888  -0.3812  -0.8888
6.374e+09  0.6305  -0.6153  0.01931  -0.002249  -0.0346  -0.01207  -0.6903  -0.7068
6.375e+09  0.4305  -0.8173  0.02224  -0.01537  -0.003697  0.005061  -0.8081  -0.3699
6.376e+09  0.1348  -0.8974  -0.004222  0.04078  0.004298  -0.03072  -0.95  -0.07333
6.378e+09  -0.1346  -0.855  -0.003252  -0.0119  -0.02904  -0.005163  -0.9283  0.2452
6.379e+09  -0.4789  -0.7162  0.04442  -0.01171  -0.01575  -0.008626  -0.7775  0.5214
6.38e+09  -0.7422  -0.529  -0.0179  0.01504  -0.01828  -0.04601  -0.5897  0.7529
6.381e+09  -0.833  -0.2379  0.02051  0.007155  -0.02401  0.007501  -0.2676  0.9225
6.382e+09  -0.8775  0.04754  0.0007976  -0.01671  -0.0001003  -0.001281  0.05738  0.9608
6.384e+09  -0.8212  0.3962  -0.01734  -0.001829  0.05318  0.0255  0.3563  0.8586
6.385e+09  -0.6055  0.61  -0.002632  0.04017  0.04212  0.01502  0.6695  0.7073
6.386e+09  -0.389  0.7704  0.01559  0.002668  -0.00861  -0.008059  0.8523  0.3932
6.388e+09  -0.05316  0.8537  0.03981  0.001254  -0.006254  -0.009746  0.9217  0.1044
6.389e+09  0.2756  0.8236  0.002165  0.03696  0.03697  -0.01233  0.9166  -0.1913
6.39e+09  0.5177  0.6972  0.05093  0.009421  -0.001506  -0.02994  0.8118  -0.5236
6.391e+09  0.7138  0.483  0.02815  0.03328  0.0104  -0.0004465  0.5489  -0.7038
6.392e+09  0.8572  0.19  0.002647  0.03562  -0.0194  -0.01442  0.2892  -0.863
6.394e+09  0.8948  -0.1135  -0.001858  -0.03737  0.04649  -8.576e-05  -0.01785  -0.9466
6.395e+09  0.7841  -0.4406  0.01343  0.003818  0.0129  -0.007818  -0.3346  -0.8352
6.396e+09  0.5233  -0.7136  -0.0074  -0.0008756  -0.01599  -0.02213  -0.6257  -0.611
6.398e+09  0.3085  -0.8317  0.03097  0.02675  -0.003661  0.03185  -0.8122  -0.4253
6.399e+09  0.00185  -0.8733  0.002772  0.02607  -0.01005  -0.02533  -0.9475  -0.1333
6.4e+09  -0.2776  -0.8244  0.01777  0.007763  -0.02074  -0.0125  -0.9056  0.189
6.401e+09  -0.5672  -0.6227  -0.02332  0.03602  -0.03811  0.01405  -0.8048  0.494
6.402e+09  -0.7243  -0.4007  -0.01416  -0.001266  0.003612  -0.03196  -0.5705  0.7163
6.404e+09  -0.8245  -0.1209  0.01576  -0.009626  -0.02335  0.03555  -0.3185  0.8916
6.405e+09  -0.8308  0.1912  0.01146  -0.02742  -0.02714  0.0001143  0.009027  0.9198
6.406e+09  -0.7357  0.4807  0.03537  -0.03289  -0.0689  0.03275  0.2919  0.8931
6.408e+09  -0.5808  0.6568  -0.005257  0.02392  -0.002501  -0.03245  0.5727  0.7369
6.409e+09  -0.1694  0.8441  -0.01294  -0.009918  0.028  -0.02417  0.7949  0.4624
6.41e+09  0.07746  0.8191  -0.002192  0.04315  -0.01027  -0.01608  0.8989  0.1546
6.411e+09  0.3568  0.7795  -0.03608  0.0176  -0.02191  -0.06797  0.9  -0.173
6.412e+09  0.6518  0.5727  0.002592  0.0302  0.01205  -0.05584  0.8203  -0.4269
6.414e+09  0.8425  0.3596  -0.02104  -0.02692  -0.00116  0.02458  0.6102  -0.6316
6.415e+09  0.8734  0.08374  -0.001789  -0.003749  -0.01543  -0.01651  0.3342  -0.8514
6.416e+09  0.831  -0.2614  0.009188  -0.05534  -0.002148  -0.01653  0.04681  -0.9039
6.418e+09  0.6969  -0.4859  0.02244  0.0111  0.03194  -0.005692  -0.195  -0.8502
6.419e+09  0.504  -0.7485  -0.02608  -0.0332  0.01521  0.006347  -0.5331  -0.7138
6.42e+09  0.1579  -0.8397  -0.005761  0.007388  0.04038  -0.02042  -0.7986  -0.4729
6.421e+09  -0.1092  -0.8437  -0.07908  0.04511  0.01031  0.01306  -0.9306  -0.1815
6.422e+09  -0.3735  -0.8167  0.01026  0.01072  -0.03129  0.03311  -0.8704  0.1556
6.424e+09  -0.6491  -0.563  -0.0134  0.006462  -0.003416  -0.002165  -0.8017  0.4272
6.425e+09  -0.7481  -0.3264  0.0305  0.0183  0.01054  0.009748  -0.5764  0.6416
6.426e+09  -0.8781  -0.05128  -0.03115  -0.01291  -0.0155  0.002451  -0.3091  0.8167
6.428e+09  -0.8111  0.2816  -0.001461  0.02705  0.0323  -0.0159  -0.08897  0.8641
6.429e+09  -0.6516  0.5627  -0.04573  0.0105  0.04463  0.04106  0.2565  0.8511
6.43e+09  -0.4372  0.7431  -0.01032  0.02188  0.01579  0.01279  0.5213  0.7102
6.431e+09  -0.1713  0.7743  -0.023  -0.004741  -0.0005566  -0.01363  0.6888  0.4552
6.432e+09  0.1858  0.8212  0.01432  0.03698  0.02445  -0.01472  0.8622  0.1963
6.434e+09  0.4386  0.7719  -0.02423  -0.003073  -0.03578  -0.008221  0.8736  -0.1334
6.435e+09  0.6696  0.6017  0.006561  -0.009329  -0.001398  0.02875  0.778  -0.34
6.436e+09  0.823  0.2707  -0.02925  -0.007351  0.03847  -0.03296  0.5916  -0.6253
6.438e+09  0.8756  0.009934  -0.008107  0.03861  -0.03271  0.04902  0.3652  -0.82
6.439e+09  0.7901  -0.3006  -0.02113  7.245e-05  -0.04684  -0.01589  0.0729  -0.8313
6.44e+09  0.6246  -0.5822  -0.02905  -0.01484  -0.01923  -0.02742  -0.2469  -0.8302
6.441e+09  0.4224  -0.7494  0.03808  0.01454  0.02989  0.02274  -0.4736  -0.6657
6.442e+09  0.1231  -0.8582  0.03137  0.0008619  0.04065  -0.008434  -0.6902  -0.5017
6.444e+09  -0.1763  -0.8605  0.01906  0.005131  0.01854  -0.01115  -0.8502  -0.2741
6.445e+09  -0.4324  -0.7259  -0.01191  -0.01903  0.004585  -0.02487  -0.8289  0.09406
6.446e+09  -0.6793  -0.5301  -0.02752  0.004619  -0.04318  0.004542  -0.7771  0.3919
6.448e+09  -0.8368  -0.2879  0.02315  -0.002359  -0.02051  0.003587  -0.6047  0.609
6.449e+09  -0.8696  0.07959  0.004819  -0.005163  0.02214  -0.0234  -0.3408  0.804
6.45e+09  -0.8321  0.3472  -0.01071  -0.02991  0.0203  0.04763  -0.08322  0.8296
6.451e+09  -0.6586  0.5765  0.03178  -0.01121  -0.09623  0.06307  0.2101  0.8243
6.452e+09  -0.422  0.795  0.02195  0.03486  -0.01119  0.009538  0.506  0.7036
6.454e+09  -0.09336  0.817  -0.005849  0.01445  0.01805  -0.0552  0.6899  0.4669
6.455e+09  0.2062  0.8613  -0.01682  -0.00274  -0.03096  -0.04319  0.8059  0.1624
6.456e+09  0.4102  0.7014  0.003319  0.007574  -0.04233  -0.06859  0.8022  -0.09036
6.458e+09  0.7233  0.4929  0.02158  0.02871  -0.03187  -0.01639  0.7163  -0.3248
6.459e+09  0.8392  0.2514  -0.02586  0.02441  0.00223  -0.03233  0.5869  -0.5266
6.46e+09  0.8972  -0.02831  -0.044  -0.02935  0.01423  -0.003181  0.327  -0.7297
6.461e+09  0.794  -0.3459  0.01055  -0.005402  -0.001692  0.03518  0.05778  -0.7914
6.462e+09  0.6411  -0.6118  0.06446  0.02929  0.03366  0.01685  -0.2123  -0.7983
6.464e+09  0.3233  -0.8222  0.03559  -0.04966  -0.04216  -0.0166  -0.4901  -0.6649
6.465e+09  0.06397  -0.8578  -0.01816  -0.01251  0.02151  0.003912  -0.633  -0.4845
6.466e+09  -0.2191  -0.8451  -0.005348  0.007052  -0.02306  0.0001709  -0.7647  -0.1937
6.468e+09  -0.4792  -0.763  -0.01925  0.002576  0.009952  0.0307  -0.7691  0.06913
6.469e+09  -0.6903  -0.5183  -0.02166  -0.01173  0.01714  0.0188  -0.6758  0.3245
6.47e+09  -0.8506  -0.2549  0.02387  -0.0239  0.004499  -0.01127  -0.5118  0.5697
6.471e+09  -0.8868  0.1217  -0.01401  -0.01395  0.01574  -0.04155  -0.3322  0.7201
6.472e+09  -0.7436  0.3406  0.006502  -0.01435  -0.0222  0.0322  -0.03869  0.835
6.474e+09  -0.5898  0.5672  -0.003931  0.0308  -0.04725  -0.007434  0.2115  0.7767
6.475e+09  -0.3844  0.7617  -0.0499  -0.0161  0.007785  -0.02174  0.4829  0.6296
6.476e+09  -0.03533  0.8737  0.01779  0.01022  0.003887  0.03067  0.6607  0.4722
6.478e+09  0.2068  0.8143  0.05894  0.005864  0.0294  -0.04175  0.7198  0.2514
6.479e+09  0.4413  0.7282  -0.02347  -0.04054  -0.008477  0.01441  0.7699  -0.06865
6.48e+09  0.6883  0.5405  -0.03289  -0.008443  -0.03181  -0.01959  0.7614  -0.3481
6.481e+09  0.8515  0.1825  0.01027  -0.02391  -0.03427  -0.01433  0.5411  -0.5833
6.482e+09  0.8376  -0.09553  -0.008093  0.003382  0.03357  -0.01916  0.2801  -0.742
6.484e+09  0.7781  -0.3581  -0.04645  -0.01506  0.0007765  0.05217  0.07546  -0.7788
6.485e+09  0.5967  -0.6236  0.02181  0.01508  0.00779  0.01882  -0.236  -0.7777
6.486e+09  0.4054  -0.8169  -0.004901  0.0162  0.001605  0.02557  -0.4791  -0.6073
6.488e+09  0.09574  -0.8485  -0.003056  -0.02044  0.03814  0.0219  -0.6596  -0.4748
6.489e+09  -0.2597  -0.8654  -0.005906  -0.002786  0.006045  0.0007006  -0.7252  -0.1739
6.49e+09  -0.5415  -0.6951  0.03521  0.01305  -0.002877  -0.000515  -0.7826  0.06154
6.491e+09  -0.6817  -0.5235  -0.02616  -0.0007267  -0.007423  0.002528  -0.7135  0.3746
6.492e+09  -0.8391  -0.1609  -0.002375  0.02164  0.006254  -0.02577  -0.5137  0.5471
6.494e+09  -0.8637  0.1208  -0.04982  -0.007847  0.04812  0.05505  -0.3063  0.7237
6.495e+09  -0.8346  0.3541  0.01457  -0.00313  0.01818  0.02922  -0.04822  0.7462
6.496e+09  -0.597  0.6182  0.02048  -0.03411  -0.07023  0.004556  0.2317  0.7355
6.498e+09  -0.3209  0.7939  -0.01883  -0.03451  0.06751  -0.01239  0.4444  0.5862
6.499e+09  -0.07877  0.8854  0.02443  0.002998  0.02838  -0.0346  0.6573  0.4104
6.5e+09  0.2975  0.8513  -0.01444  -0.02192  -0.005814  0.03097  0.7523  0.1758
6.501e+09  0.5518  0.7385  -0.01043  -0.04646  0.04201  0.04119  0.7776  -0.08967
6.502e+09  0.7082  0.4985  -0.02807  0.01112  0.01974  -0.01826  0.6469  -0.3454
6.504e+09  0.9121  0.2041  -0.007945  -0.006209  0.009189  0.005296  0.5164  -0.5269
6.505e+09  0.8978  -0.0856  0.02437  0.01119  0.00673  -0.007519  0.2661  -0.7257
6.506e+09  0.8271  -0.4203  -0.03176  -0.01045  -0.01345  -0.01741  0.02073  -0.7467
6.508e+09  0.5872  -0.6661  -0.01971  0.01376  -0.03893  -0.04885  -0.2714  -0.7238
6.509e+09  0.3106  -0.8085  -0.02988  0.01236  0.02785  0.006326  -0.4503  -0.5498
6.51e+09  0.03489  -0.8658  0.02399  -0.0179  -0.01506  -0.02563  -0.6536  -0.3646
6.511e+09  -0.2844  -0.89  -0.03476  0.02109  0.04446  -0.004692  -0.7248  -0.1568
6.512e+09  -0.5551  -0.7099  0.02556  -0.02685  0.02613  0.02049  -0.723  0.1684
6.514e+09  -0.7855  -0.4822  -0.04996  0.02695  0.03613  -0.02497  -0.6426  0.3883
6.515e+09  -0.8811  -0.1447  0.01569  -0.04064  0.02164  -0.01267  -0.4871  0.5913
6.516e+09  -0.9152  0.106  0.001228  0.04366  -0.04488  0.0303  -0.2393  0.6555
6.518e+09  -0.7848  0.4196  0.01554  0.003596  0.00298  0.05431  0.01031  0.7704
6.519e+09  -0.6191  0.6652  -0.03861  -0.01941  0.04122  -0.0003685  0.2362  0.7042
6.52e+09  -0.3188  0.8685  0.01135  0.01389  -0.007416  0.009656  0.4784  0.5678
6.521e+09  -0.003882  0.9595  0.01856  0.03102  -0.02001  -0.02337  0.6828  0.3562
6.522e+09  0.3205  0.8667  0.005732  -0.03869  0.03392  -0.03949  0.7589  0.09026
6.524e+09  0.6763  0.7099  -0.01649  0.01036  -0.008584  -0.04314  0.7136  -0.1711
6.525e+09  0.8548  0.482  0.0342  -0.01954  -0.01163  0.02635  0.6026  -0.4215
6.526e+09  0.934  0.1328  0.01328  -0.002882  -0.03115  0.02346  0.4387  -0.588
6.528e+09  0.9512  -0.1979  0.002734  0.003246  -0.01627  0.008998  0.2227  -0.6739
6.529e+09  0.8251  -0.4893  -0.0124  -0.0171  -0.001505  0.008774  -0.07875  -0.6748
6.53e+09  0.5809  -0.716  0.01959  -0.01012  0.03185  -0.04551  -0.2955  -0.618
6.531e+09  0.2825  -0.9537  0.002553  0.01303  -0.001986  0.008248  -0.4507  -0.458
6.532e+09  -0.04526  -0.9219  -0.01559  -0.02649  0.01065  0.03818  -0.5757  -0.302
6.534e+09  -0.3687  -0.8979  0.02892  0.002298  0.01393  -0.01109  -0.6167  -0.06206
6.535e+09  -0.6894  -0.6581  0.005674  -0.01179  0.03204  -0.01615  -0.6179  0.1537
6.536e+09  -0.8532  -0.4014  0.02291  0.01441  -0.01153  -0.02119  -0.5445  0.3106
6.538e+09  -0.9511  -0.07818  0.001957  -0.004514  -0.04812  -0.02927  -0.4439  0.474
6.539e+09  -0.937  0.2529  0.007335  -0.007356  0.02062  -0.00755  -0.2906  0.6126
6.54e+09  -0.7861  0.5787  0.008468  0.03752  -0.01255  0.01767  -0.05198  0.7168
6.541e+09  -0.4931  0.7604  -0.03421  0.01869  0.01129  0.005087  0.1881  0.6947
6.542e+09  -0.2318  0.94  0.01094  -0.0141  0.01234  -0.04755  0.4233  0.5645
6.544e+09  0.1164  0.9609  -0.01196  0.04082  0.003107  -0.0004933  0.6242  0.3596
6.545e+09  0.4593  0.8753  0.03192  0.01062  -0.02246  -0.0006096  0.7117  0.1501
6.546e+09  0.727  0.6481  -0.006389  0.02231  -0.04132  -0.003573  0.7255  -0.06835
6.548e+09  0.8933  0.3798  0.01866  -0.02439  -0.04376  -0.0008547  0.6778  -0.3057
6.549e+09  0.9773  0.03617  0.02207  0.01004  0.02966  0.06107  0.5062  -0.5305
6.55e+09  0.9555  -0.336  0.01875  0.006497  -0.01763  -0.002871  0.3017  -0.6712
