# Hz S RI R 50
6.25e+09  -0.7831  0.147  0.02212  -0.003742  -0.004693  0.03288  0.1489  0.4912
6.251e+09  -0.7339  0.4034  -0.02335  -0.00692  -0.04976  0.05809  0.3872  0.42
6.252e+09  -0.4778  0.6889  0.002475  0.02066  -0.005058  0.01565  0.5336  0.2525
6.254e+09  -0.2936  0.8044  -0.01779  0.01038  0.03665  -0.04161  0.5952  0.02247
6.255e+09  0.02131  0.7973  -0.01449  -0.003134  0.05961  0.005013  0.6071  -0.2533
6.256e+09  0.2754  0.7376  0.01429  0.02276  -0.008937  0.02417  0.4594  -0.4068
6.258e+09  0.5971  0.585  -0.004406  0.01557  0.007364  -0.01893  0.2789  -0.6407
6.259e+09  0.7485  0.357  0.03688  -0.01263  -0.0004091  -0.01912  0.03362  -0.6367
6.26e+09  0.802  0.1165  0.01078  0.02582  -0.001588  0.009117  -0.2008  -0.6793
6.261e+09  0.8013  -0.1495  -0.03106  0.02847  -0.03629  -0.004403  -0.4315  -0.5605
6.262e+09  0.6766  -0.4582  0.01028  -0.007164  -0.03552  0.01012  -0.6158  -0.3881
6.264e+09  0.4986  -0.6175  0.06283  -0.01075  -0.008973  -0.04322  -0.7074  -0.1084
6.265e+09  0.2631  -0.8381  -0.003206  -0.01087  -0.02259  -0.0097  -0.6782  0.1667
6.266e+09  -0.07539  -0.8469  -0.004652  -0.02385  -0.05461  0.04179  -0.5991  0.429
6.268e+09  -0.2795  -0.752  0.07172  0.02661  -0.006923  -0.02303  -0.4421  0.5668
6.269e+09  -0.5639  -0.6608  0.006462  -0.0173  -0.002372  -0.02108  -0.2084  0.6963
6.27e+09  -0.7029  -0.3996  -0.0115  -0.01819  0.009895  -0.0149  0.07467  0.7563
6.271e+09  -0.8272  -0.1586  -0.02477  -0.01504  0.03028  -0.02814  0.295  0.6716
6.272e+09  -0.7853  0.185  -0.01918  0.03825  0.02193  0.07389  0.5178  0.5212
6.274e+09  -0.6588  0.4262  -0.00157  -0.01058  -0.0323  0.04201  0.6636  0.3226
6.275e+09  -0.5128  0.5818  -0.01888  -0.01946  0.02206  -0.04132  0.7675  0.02689
6.276e+09  -0.2689  0.8465  -0.04395  -0.005803  0.0131  -0.02819  0.7383  -0.2497
6.278e+09  0.000841  0.8219  -0.02381  -0.007174  0.02477  -0.01626  0.6119  -0.486
6.279e+09  0.3684  0.7464  0.004195  -0.003612  -0.02527  0.01844  0.4346  -0.6802
6.28e+09  0.589  0.5901  0.00929  0.01245  -0.01452  -0.01685  0.1545  -0.7681
6.281e+09  0.7098  0.3663  -0.01647  -0.02979  0.03138  0.02167  -0.09479  -0.7899
6.282e+09  0.8251  0.1075  0.01748  0.004324  -0.008793  0.002132  -0.3984  -0.6729
6.284e+09  0.7709  -0.196  -0.005774  0.009678  -0.01823  0.07268  -0.5809  -0.4765
6.285e+09  0.6766  -0.5168  0.03591  0.009437  -0.01574  0.01602  -0.7356  -0.2802
6.286e+09  0.5014  -0.6845  -0.008308  0.004603  -0.009138  0.04433  -0.8045  -0.05439
6.288e+09  0.1921  -0.7759  0.007857  0.006431  -0.03805  0.04333  -0.7501  0.2787
6.289e+09  -0.078  -0.8134  0.03533  0.03213  -0.04661  0.04921  -0.643  0.5114
6.29e+09  -0.3465  -0.7199  -0.005928  0.01729  0.01139  -0.05797  -0.4289  0.6776
6.291e+09  -0.5919  -0.5556  0.01123  -0.01839  0.008717  -0.009349  -0.176  0.8283
6.292e+09  -0.7621  -0.3163  -0.009189  0.01239  -0.001839  -0.012  0.1506  0.7628
6.294e+09  -0.8265  -0.05889  0.008691  -0.006115  0.01284  -0.06332  0.4005  0.7368
6.295e+09  -0.7678  0.2252  0.009391  0.009172  -0.0066  -0.03876  0.6001  0.5304
6.296e+09  -0.6657  0.5069  -0.006541  -0.009073  0.04292  -0.002651  0.7817  0.2583
6.298e+09  -0.4784  0.7194  -0.001791  0.008254  0.02282  0.008064  0.8389  -0.01209
6.299e+09  -0.1913  0.7802  0.006565  -0.02056  0.05083  0.02298  0.7728  -0.2886
6.3e+09  0.134  0.8504  -0.01108  0.005084  0.01584  -0.04011  0.6325  -0.5552
6.301e+09  0.3823  0.6938  0.03108  -0.002461  -0.000299  0.0208  0.438  -0.7209
6.302e+09  0.637  0.5733  -0.01312  0.01068  0.05935  -0.03027  0.1586  -0.824
6.304e+09  0.7734  0.2803  0.01122  0.007328  -0.03863  -0.003102  -0.1634  -0.8113
6.305e+09  0.7883  0.08192  0.0326  -0.0001036  0.02322  0.007789  -0.4372  -0.7334
6.306e+09  0.8111  -0.2856  -0.01351  0.03043  0.02253  0.05198  -0.6458  -0.5398
6.308e+09  0.6635  -0.5457  0.02285  0.001601  0.005338  -0.0285  -0.8157  -0.2825
6.309e+09  0.4105  -0.7536  0.03257  0.0333  0.03037  -0.01132  -0.8707  -0.01395
6.31e+09  0.1579  -0.7743  -0.007733  0.017  0.0278  0.06097  -0.8008  0.2898
6.311e+09  -0.1391  -0.8015  0.03467  0.02049  0.0185  -0.002556  -0.7036  0.5347
6.312e+09  -0.3879  -0.7108  0.02384  0.006188  0.01295  0.0114  -0.4036  0.7883
6.314e+09  -0.6032  -0.5447  0.00111  0.005315  0.01499  -0.03148  -0.13  0.8609
6.315e+09  -0.8248  -0.2896  -0.01119  0.01657  0.02016  -0.0203  0.1285  0.854
6.316e+09  -0.8148  -0.01483  0.009025  0.003889  -0.05087  0.01262  0.4421  0.7538
6.318e+09  -0.8002  0.3404  0.01536  -0.01217  -0.004457  0.02091  0.6636  0.5961
6.319e+09  -0.6107  0.4702  0.04883  -0.05632  -0.01434  0.007506  0.8348  0.3136
6.32e+09  -0.3395  0.7624  0.01464  -0.01517  -0.03421  0.03685  0.891  -0.01066
6.321e+09  -0.0893  0.8571  -0.01232  0.006259  -0.0524  0.004797  0.8089  -0.3123
6.322e+09  0.1794  0.8352  0.003154  -0.01707  -0.04034  0.01219  0.7075  -0.5375
6.324e+09  0.4853  0.7345  -0.01501  0.02254  0.0009627  -0.006808  0.4565  -0.7385
6.325e+09  0.6951  0.4685  0.007699  -0.02782  0.02635  -0.01777  0.1912  -0.9124
6.326e+09  0.8329  0.2375  0.0294  -0.01747  -0.004733  -0.003654  -0.1219  -0.8884
6.328e+09  0.8576  -0.08826  0.006306  -0.00219  0.01241  0.01278  -0.4407  -0.8212
6.329e+09  0.7245  -0.3098  -0.01298  0.01295  -0.01765  0.02956  -0.6864  -0.6054
6.33e+09  0.5316  -0.5821  -0.001969  -0.01973  0.03642  -0.005891  -0.8695  -0.3284
6.331e+09  0.3662  -0.7864  -0.02454  -0.0316  0.05443  0.0123  -0.9351  -0.02531
6.332e+09  0.05192  -0.8541  -0.02637  -0.02148  0.001598  -0.006914  -0.8592  0.2777
6.334e+09  -0.2616  -0.8451  0.0006381  0.01121  0.0106  0.008721  -0.7452  0.5423
6.335e+09  -0.5311  -0.6405  0.03161  0.004229  0.02435  0.05247  -0.509  0.7929
6.336e+09  -0.6892  -0.4759  -0.02031  0.01373  -0.0308  -0.06629  -0.1896  0.8986
6.338e+09  -0.8129  -0.1745  0.02343  -0.03565  -0.02754  -0.01877  0.07507  0.934
6.339e+09  -0.824  0.1366  0.03381  0.03529  -0.006927  -0.003888  0.4029  0.8087
6.34e+09  -0.7686  0.4232  -0.02692  -0.01596  -0.02071  -0.008805  0.6918  0.6355
6.341e+09  -0.536  0.6487  -0.02002  0.01253  0.01493  0.01209  0.8858  0.3553
6.342e+09  -0.2824  0.8159  0.03347  -0.01874  0.003513  0.01126  0.9133  0.02465
6.344e+09  0.06946  0.8926  -0.008955  0.03208  0.03861  0.01429  0.9125  -0.2484
6.345e+09  0.3064  0.7748  -0.03264  -0.014  0.02276  -0.01215  0.7456  -0.5986
6.346e+09  0.5868  0.6349  -0.01456  0.01761  0.01635  0.009978  0.4814  -0.781
6.348e+09  0.7615  0.4207  -0.04202  -0.006491  0.01557  -0.05233  0.1922  -0.8889
6.349e+09  0.8666  0.1181  -0.01314  0.01038  0.01671  0.007046  -0.1248  -0.9483
6.35e+09  0.834  -0.168  0.01554  0.02817  0.04062  0.01278  -0.4208  -0.884
6.351e+09  0.7448  -0.4335  0.01667  0.02587  0.008667  0.005144  -0.686  -0.6685
6.352e+09  0.5531  -0.7101  0.004225  0.0213  0.02219  0.0217  -0.8656  -0.369
6.354e+09  0.2665  -0.8451  -0.02448  -0.005284  0.01468  -0.01106  -0.909  -0.06833
6.355e+09  -0.07047  -0.8469  0.0004932  -0.03013  0.02712  -0.01134  -0.9161  0.2941
6.356e+09  -0.3759  -0.8151  -0.02205  0.0166  0.03767  -0.01225  -0.7468  0.5375
6.358e+09  -0.6376  -0.6031  -0.02403  -0.006035  0.001779  -0.02911  -0.5168  0.8064
6.359e+09  -0.8146  -0.3132  -0.004919  -0.00233  -0.04631  0.02504  -0.2337  0.927
6.36e+09  -0.8715  -0.03925  0.01983  -0.007847  -0.004756  0.005963  0.08952  0.9589
6.361e+09  -0.8478  0.2349  -0.00373  0.01114  0.02515  -0.01458  0.426  0.8613
6.362e+09  -0.6855  0.5606  0.01895  -0.00714  -0.04758  -0.01572  0.7042  0.6713
6.364e+09  -0.4601  0.7604  -0.02436  0.04369  -0.0548  -0.008908  0.8899  0.4124
6.365e+09  -0.2031  0.8665  -0.0108  -0.001969  -0.002459  -0.00216  0.94  0.08342
6.366e+09  0.173  0.8776  0.001958  -0.04565  -0.04006  0.01898  0.9337  -0.2552
6.368e+09  0.4494  0.7138  -0.001791  -0.03213  -0.02288  -0.002531  0.7962  -0.5433
6.369e+09  0.6588  0.5689  -0.006861  0.01735  -0.004113  0.01092  0.5621  -0.7746
6.37e+09  0.9024  0.2973  0.03463  -0.02654  -0.003185  0.01013  0.2588  -0.9122
6.371e+09  0.8468  -0.0269  -0.0006436  0.03128  0.04008  0.0286  -0.03485  -0.9288
6.372e+09  0.8403  -0.3271  0.03734  -0.009642  -0.007253  -0.003963  -0.372  -0.8866
6.374e+09  0.6702  -0.6062  -0.00373  0.02205  -0.009482  0.004248  -0.6756  -0.6884
6.375e+09  0.4098  -0.7888  -0.0008826  0.01622  -0.03245  -0.04492  -0.8269  -0.4225
6.376e+09  0.1378  -0.8572  0.0002875  0.01149  0.007464  -0.003753  -0.9897  -0.1396
6.378e+09  -0.2476  -0.875  0.0001283  0.0013  0.04254  -0.01056  -0.9534  0.2636
6.379e+09  -0.5527  -0.6792  -0.001695  -0.002541  -0.009715  0.01839  -0.7923  0.5295
6.38e+09  -0.7287  -0.5455  -0.02042  0.01371  0.02998  -0.02218  -0.5462  0.7362
6.381e+09  -0.8787  -0.2258  0.02052  0.01979  -0.03193  -0.01925  -0.2669  0.9294
6.382e+09  -0.895  0.126  0.01595  0.001404  0.01162  0.001052  0.05779  0.9268
6.384e+09  -0.7855  0.401  0.005251  -0.00728  -0.00705  0.01442  0.4003  0.8337
6.385e+09  -0.5851  0.6838  0.02302  -0.01766  -0.08044  0.03951  0.6245  0.6592
6.386e+09  -0.3143  0.8148  -0.07454  0.01797  0.01283  0.02751  0.8221  0.4221
6.388e+09  -0.02945  0.8995  0.01036  0.008713  -0.05764  0.001633  0.9332  0.1235
6.389e+09  0.2859  0.7939  -0.01105  0.002751  0.04079  -0.04565  0.9342  -0.1396
6.39e+09  0.6052  0.6608  -0.01985  -0.005235  0.0003126  -0.05665  0.7712  -0.5251
6.391e+09  0.7942  0.4108  0.002041  -0.02767  -0.001209  -0.006287  0.5678  -0.7142
6.392e+09  0.8707  0.1215  0.03178  -0.02484  -0.03342  -0.02496  0.3065  -0.8579
6.394e+09  0.8526  -0.1554  0.03488  -0.0398  0.02032  0.0003868  -0.04076  -0.9405
6.395e+09  0.7671  -0.4616  0.01545  0.008219  -0.03185  0.00633  -0.3002  -0.8812
6.396e+09  0.5532  -0.6648  0.01446  0.04524  -0.02136  0.04308  -0.6158  -0.717
6.398e+09  0.265  -0.8458  0.00375  0.02452  -0.002378  -0.0194  -0.8554  -0.4167
6.399e+09  -0.01132  -0.9441  0.02423  -0.004011  -0.00152  -0.03274  -0.9047  -0.1045
6.4e+09  -0.3199  -0.8397  -0.001493  -0.002914  0.03486  -0.04074  -0.8969  0.1714
6.401e+09  -0.6058  -0.6505  -0.0195  -0.00316  -0.02844  0.001908  -0.7811  0.5052
6.402e+09  -0.8287  -0.3476  -0.009635  -0.01821  0.01834  -0.01682  -0.5872  0.7146
6.404e+09  -0.8557  -0.106  0.05175  0.008864  0.01305  -0.01292  -0.3188  0.8796
6.405e+09  -0.8313  0.2422  0.02328  -0.02885  -0.005893  -0.01281  0.004994  0.9099
6.406e+09  -0.705  0.5184  -0.0002389  -0.009127  -0.02328  0.001085  0.2846  0.8783
6.408e+09  -0.5035  0.7398  -0.03158  -0.007454  -0.001521  -0.03526  0.5946  0.6701
6.409e+09  -0.2212  0.8269  -0.04672  -0.03378  -0.01797  0.02087  0.7653  0.4724
6.41e+09  0.08374  0.8793  0.01151  -0.003173  0.05613  -0.01643  0.9058  0.1571
6.411e+09  0.385  0.8296  0.01661  -0.01163  -0.00448  0.04237  0.9456  -0.1814
6.412e+09  0.628  0.5963  -0.001533  -0.01913  0.002799  0.03865  0.7551  -0.4141
6.414e+09  0.796  0.3803  -0.01229  0.008307  -0.0105  -0.03077  0.6023  -0.6536
6.415e+09  0.8654  0.06107  0.001466  -0.008071  0.03834  -0.03349  0.3298  -0.8726
6.416e+09  0.8103  -0.2565  -0.02825  -0.01127  0.00602  0.0003786  -0.002455  -0.8703
6.418e+09  0.6996  -0.5459  -0.007738  -0.02007  0.02247  0.01734  -0.2794  -0.8407
6.419e+09  0.5219  -0.7322  0.03196  0.01933  0.008945  0.007011  -0.5684  -0.738
6.42e+09  0.181  -0.8533  -0.006361  0.008851  -0.02526  0.0348  -0.7765  -0.4589
6.421e+09  -0.1371  -0.8201  -0.0312  -0.007508  -0.01842  -0.04756  -0.9049  -0.1915
6.422e+09  -0.4408  -0.7355  0.03091  0.02212  -0.002201  -0.0552  -0.9204  0.151
6.424e+09  -0.6695  -0.5923  0.02536  0.0616  0.02912  -0.02203  -0.8043  0.3992
6.425e+09  -0.7971  -0.2552  -0.01072  0.02506  -0.01037  0.002337  -0.6199  0.6561
6.426e+09  -0.8252  0.03594  0.0009727  -0.002397  0.0003301  -0.01306  -0.3283  0.8331
6.428e+09  -0.8087  0.3003  0.02002  0.02026  -0.04118  0.01605  -0.0168  0.8566
6.429e+09  -0.6523  0.5508  0.02854  -0.03369  0.02513  -0.01822  0.2292  0.8144
6.43e+09  -0.4261  0.7721  0.02832  -0.01584  -0.03099  0.01965  0.561  0.7266
6.431e+09  -0.1777  0.916  0.0134  -0.017  0.02428  -0.00406  0.6979  0.4997
6.432e+09  0.1918  0.8115  0.005084  0.008371  -0.006635  -0.005425  0.802  0.2148
6.434e+09  0.4976  0.7368  -0.01132  0.02926  0.004404  0.003095  0.8798  -0.0972
6.435e+09  0.6754  0.5231  0.001686  0.001751  0.0002211  -0.06827  0.7961  -0.3222
6.436e+09  0.8072  0.2105  -0.046  -0.005917  -0.006061  0.03628  0.64  -0.5857
6.438e+09  0.841  -0.0208  -0.01605  0.02485  0.0272  0.0137  0.3535  -0.7109
6.439e+09  0.763  -0.2914  -0.02023  0.02891  0.01388  -0.006639  0.03324  -0.8537
6.44e+09  0.6235  -0.5443  0.0337  -0.02551  0.009538  -0.004056  -0.2289  -0.8478
6.441e+09  0.3558  -0.8156  -0.007263  -0.01293  0.03628  -0.01295  -0.491  -0.6705
6.442e+09  0.09356  -0.8504  0.01657  -0.02305  -0.02713  -0.004514  -0.7177  -0.4523
6.444e+09  -0.198  -0.8655  -0.003653  -0.02153  0.008152  0.05502  -0.8405  -0.2312
6.445e+09  -0.5109  -0.6755  0.01483  -0.001204  0.02215  0.007343  -0.8587  0.08755
6.446e+09  -0.6917  -0.5142  -0.006802  -0.003729  -0.004583  0.007004  -0.7537  0.3653
6.448e+09  -0.8537  -0.2583  -0.02102  0.03018  -0.02751  -0.01927  -0.5926  0.5888
6.449e+09  -0.8138  0.08286  -0.02903  -0.003365  -0.03378  -0.009017  -0.3225  0.7853
6.45e+09  -0.7588  0.362  -0.03331  0.021  0.004612  0.01136  -0.09756  0.8501
6.451e+09  -0.6075  0.5677  0.01653  0.0309  0.001998  0.01744  0.1923  0.8339
6.452e+09  -0.3466  0.7308  0.0056  0.02079  -0.006487  0.005511  0.4508  0.6432
6.454e+09  -0.06073  0.843  0.003768  -0.02396  -0.0197  -0.006742  0.6699  0.499
6.455e+09  0.1901  0.8666  -0.01922  0.01279  0.03271  0.01235  0.7988  0.2025
6.456e+09  0.5214  0.7138  0.04186  0.02582  -0.02077  -0.04287  0.8239  -0.09161
6.458e+09  0.6423  0.48  0.009894  0.002738  0.01673  0.04777  0.7445  -0.3567
6.459e+09  0.8452  0.2276  0.02671  0.004843  0.07719  0.01569  0.6132  -0.5582
6.46e+09  0.8746  -0.05185  -0.02832  0.03629  0.00969  0.02093  0.2843  -0.7716
6.461e+09  0.756  -0.3584  -0.01207  -0.01561  0.003502  -0.04176  0.0858  -0.8117
6.462e+09  0.6375  -0.5909  -0.00312  -0.0177  0.0005136  -0.008893  -0.1952  -0.7632
6.464e+09  0.3758  -0.8021  -0.01095  0.03233  -0.02271  0.01547  -0.5357  -0.6575
6.465e+09  0.09562  -0.8737  -0.03085  0.04388  -0.00542  -0.02679  -0.6851  -0.4534
6.466e+09  -0.1798  -0.8206  -0.003351  -0.001354  -0.02055  -0.01887  -0.7526  -0.2187
6.468e+09  -0.4872  -0.7058  0.04067  -0.02778  0.04179  -0.01743  -0.789  0.07413
6.469e+09  -0.7291  -0.5856  0.03386  -0.01438  -0.02507  0.041  -0.7415  0.331
6.47e+09  -0.8009  -0.2529  -0.01759  0.01862  0.003822  -0.02669  -0.5709  0.593
6.471e+09  -0.9086  0.09966  0.03601  -0.005063  0.01378  0.02988  -0.2827  0.7424
6.472e+09  -0.7819  0.3652  0.007197  -0.004129  0.009092  -0.02154  -0.05584  0.8013
6.474e+09  -0.5738  0.5593  0.009263  0.006331  -0.03557  9.955e-05  0.2297  0.8477
6.475e+09  -0.3179  0.7525  -0.01637  0.01072  0.03409  0.04772  0.4366  0.6022
6.476e+09  -0.08434  0.8998  -0.004352  0.007827  -0.01603  -0.04318  0.6843  0.4311
6.478e+09  0.2454  0.801  0.01351  0.01482  0.0651  0.001083  0.755  0.2025
6.479e+09  0.5276  0.6903  0.005073  -0.01076  0.02023  -0.01479  0.7882  -0.1274
6.48e+09  0.7036  0.5124  0.02512  -0.024  -0.09412  0.0491  0.755  -0.3714
6.481e+09  0.8072  0.182  -0.01734  0.02549  -0.01819  -0.02818  0.5434  -0.5585
6.482e+09  0.8781  -0.07709  0.05149  -0.006361  0.02017  0.02803  0.3222  -0.7199
6.484e+09  0.7794  -0.3681  0.003593  -0.006016  0.01043  -0.0007123  0.08444  -0.7893
6.485e+09  0.5611  -0.632  0.00288  0.01631  -0.01296  -0.04061  -0.2248  -0.7129
6.486e+09  0.3431  -0.7585  -0.01034  -0.03007  -0.04506  -0.0007339  -0.4706  -0.596
6.488e+09  0.04743  -0.8848  -0.02033  -0.00485  0.00156  0.001737  -0.6672  -0.456
6.489e+09  -0.2271  -0.8381  -0.001256  -0.02998  0.03399  -0.005294  -0.7667  -0.2291
6.49e+09  -0.537  -0.66  -0.01368  -0.01654  -0.006221  -0.04273  -0.7736  0.06882
6.491e+09  -0.6941  -0.4972  -0.06953  -0.01338  0.04868  -0.001756  -0.6621  0.3263
6.492e+09  -0.8382  -0.1645  -0.01698  0.01446  -0.01197  0.04864  -0.4864  0.5418
6.494e+09  -0.8892  0.1307  0.008261  -0.006975  -0.005724  -0.01735  -0.2788  0.7263
6.495e+09  -0.7566  0.4004  -0.02481  -0.03599  -0.0101  -0.01747  -0.06181  0.7775
6.496e+09  -0.6253  0.6101  0.03872  0.02916  0.02979  -0.0118  0.2239  0.7483
6.498e+09  -0.3249  0.795  0.001726  -0.01903  -0.01374  -0.05053  0.4936  0.5697
6.499e+09  -0.01553  0.8322  -0.002409  0.01061  0.03463  0.001496  0.6366  0.408
6.5e+09  0.2809  0.8381  0.02885  0.04177  0.01265  0.04074  0.7592  0.156
6.501e+09  0.5767  0.6849  0.01112  -0.01107  0.002654  0.006471  0.7673  -0.08342
6.502e+09  0.7643  0.4751  -0.01132  -0.02843  -0.02082  0.03672  0.6896  -0.3558
6.504e+09  0.8843  0.2026  -0.01649  0.01398  0.02273  0.01982  0.5167  -0.5938
6.505e+09  0.8526  -0.1414  -0.0002332  0.02516  -0.02075  0.003261  0.2867  -0.6497
6.506e+09  0.7969  -0.4681  -0.01004  -0.01873  0.01725  0.03566  0.01881  -0.7497
6.508e+09  0.5685  -0.7141  -0.02332  -0.01454  -0.01305  -0.003662  -0.2155  -0.7668
6.509e+09  0.3601  -0.8221  0.005318  0.03403  -0.03207  -0.002577  -0.4485  -0.6137
6.51e+09  -0.00727  -0.8788  -0.01175  -0.01166  0.06124  -0.03339  -0.6565  -0.4072
6.511e+09  -0.2894  -0.8885  0.01176  0.0009628  -0.01581  -0.004024  -0.7263  -0.1488
6.512e+09  -0.5822  -0.7242  -0.02852  0.03819  -0.03552  -0.04195  -0.7586  0.1313
6.514e+09  -0.8189  -0.4662  -0.006717  -0.005567  -0.03698  0.007957  -0.6171  0.3695
6.515e+09  -0.8685  -0.1438  0.001628  0.005795  0.0201  0.02173  -0.4772  0.5606
6.516e+09  -0.8972  0.1539  -0.02283  0.0169  -0.001842  -0.00841  -0.2258  0.7122
6.518e+09  -0.8573  0.4305  -0.002638  0.01261  0.02046  -0.02888  -0.003983  0.7225
6.519e+09  -0.5734  0.7182  -0.03708  -0.01437  -0.00662  0.0458  0.2478  0.6847
6.52e+09  -0.2776  0.9079  -0.0002571  0.0327  0.01906  -0.02522  0.5083  0.564
6.521e+09  0.05554  0.9035  -0.008919  0.008522  0.01212  0.01746  0.648  0.3497
6.522e+09  0.3502  0.8721  0.04121  -0.01417  -0.001226  0.01281  0.7335  0.0717
6.524e+09  0.5989  0.6577  -0.01148  -0.01075  -0.04221  0.03678  0.7018  -0.14
6.525e+09  0.8133  0.4816  0.0247  -0.01864  0.04057  0.02576  0.5993  -0.3947
6.526e+09  0.9603  0.1581  0.00123  0.01122  -0.04001  -0.007917  0.4026  -0.6031
6.528e+09  0.9024  -0.1771  0.02334  0.015  0.06943  0.01962  0.1961  -0.7077
6.529e+09  0.7203  -0.5198  -0.008514  0.03109  -0.01152  -0.05804  -0.02276  -0.7194
6.53e+09  0.538  -0.7547  0.02684  -0.02827  0.00467  0.01465  -0.3107  -0.6428
6.531e+09  0.2927  -0.8956  0.007676  -0.02717  0.01549  -0.04991  -0.4853  -0.475
6.532e+09  -0.08451  -0.9374  -0.0006899  -0.02252  -0.008179  0.04268  -0.6246  -0.2586
6.534e+09  -0.43  -0.8902  0.005389  0.01999  0.008389  0.005221  -0.6242  -0.098
6.535e+09  -0.6338  -0.6613  -0.01322  0.01633  -0.05394  0.005748  -0.6392  0.08242
6.536e+09  -0.8306  -0.3647  0.0364  0.01915  -0.005713  0.0274  -0.5768  0.305
6.538e+09  -1  -0.0965  0.0007777  -0.01133  -0.009107  -0.034  -0.4404  0.4507
6.539e+09  -1.004  0.2693  -0.002585  0.02183  -0.008841  -0.01713  -0.2519  0.6187
6.54e+09  -0.7883  0.5452  0.01165  -0.01105  0.00227  0.02847  -0.04395  0.6934
6.541e+09  -0.5305  0.8341  5.826e-05  -0.009013  -0.003511  0.007233  0.2173  0.6853
6.542e+09  -0.2633  0.927  -0.01528  0.04273  0.04693  0.001438  0.4054  0.5387
6.544e+09  0.2141  0.982  0.01667  -0.0004244  -0.01351  -0.01923  0.591  0.3766
6.545e+09  0.449  0.8335  0.0002143  0.009491  -0.03015  -0.02493  0.7459  0.1655
6.546e+09  0.749  0.619  0.0172  0.01342  -0.005175  0.01207  0.7139  -0.1192
6.548e+09  0.8963  0.3689  0.04192  -0.002889  0.01716  0.01381  0.6459  -0.3296
6.549e+09  0.9472  -0.04434  0.00452  0.001172  -0.02367  -0.006205  0.5105  -0.5809
6.55e+09  0.8929  -0.3472  0.01687  0.03437  -0.02742  -0.01432  0.2877  -0.678
