# Hz S RI R 50
6.25e+09  0.2434  0.8646  -0.01677  -0.01078  -0.03756  -0.012  0.147  0.4977
6.251e+09  0.5066  0.7154  -0.008037  0.01834  -0.0502  0.0001542  0.3561  0.3969
6.252e+09  0.7565  0.4718  -0.01804  0.01539  -0.04716  0.01094  0.5379  0.2049
6.254e+09  0.8801  0.1737  -0.009533  -0.002139  -0.01078  0.01251  0.591  -0.0005067
6.255e+09  0.7888  -0.2193  0.01089  0.01492  0.01466  -0.03115  0.6261  -0.243
6.256e+09  0.8458  -0.4351  -0.005843  -0.01736  0.03219  0.01911  0.4875  -0.4077
6.258e+09  0.59  -0.6684  -0.008886  0.004746  -0.01576  -0.09467  0.2713  -0.6144
6.259e+09  0.2556  -0.7833  0.02804  0.02952  -0.04667  0.02088  0.06763  -0.6841
6.26e+09  0.01075  -0.8522  -0.0258  -0.01023  -0.02501  -0.03064  -0.206  -0.6642
6.261e+09  -0.2933  -0.7805  0.04538  -0.03698  -0.0009565  0.006644  -0.4588  -0.5388
6.262e+09  -0.5723  -0.6397  -0.0117  0.04525  -0.02192  0.02441  -0.6248  -0.3547
6.264e+09  -0.766  -0.366  -0.01354  0.002662  0.04074  -0.01988  -0.6907  -0.1072
6.265e+09  -0.8175  -0.1337  0.00499  0.01222  0.03097  -0.001046  -0.6883  0.1816
6.266e+09  -0.8032  0.205  -0.00991  -0.004484  -0.0285  -0.02548  -0.63  0.3777
6.268e+09  -0.7054  0.4473  0.008281  0.005943  -0.03692  0.03906  -0.4111  0.5759
6.269e+09  -0.5238  0.6672  -0.01825  -0.03557  -0.06349  0.01804  -0.1897  0.7254
6.27e+09  -0.2363  0.7927  0.01928  0.005609  -0.01838  0.02096  0.06685  0.7392
6.271e+09  0.01968  0.797  -0.02685  0.03442  0.01013  0.02152  0.3145  0.6783
6.272e+09  0.311  0.7838  -0.001009  -0.029  0.0106  0.01775  0.5562  0.5144
6.274e+09  0.5996  0.5502  0.01041  -0.0103  0.01896  -0.01311  0.671  0.3021
6.275e+09  0.742  0.3177  -0.02166  -0.02282  -0.03162  0.04036  0.7767  0.04235
6.276e+09  0.8243  0.07273  -0.0001711  -0.003207  0.06181  0.03265  0.7011  -0.226
6.278e+09  0.7746  -0.2626  0.01443  -0.006525  -0.049  0.01059  0.6033  -0.4607
6.279e+09  0.688  -0.4728  -0.01569  -0.0007963  -0.02507  -0.01827  0.4029  -0.6949
6.28e+09  0.4873  -0.659  0.03766  -0.007198  0.05085  0.05606  0.1834  -0.785
6.281e+09  0.1988  -0.8082  -0.002018  0.03167  -0.03296  -0.00126  -0.1216  -0.7725
6.282e+09  -0.1046  -0.864  0.01226  0.02013  0.03065  0.009876  -0.377  -0.6941
6.284e+09  -0.4271  -0.7288  0.007687  7.918e-05  0.0297  -0.02951  -0.5533  -0.5427
6.285e+09  -0.6454  -0.5356  0.0037  -0.003171  -0.008376  -0.007568  -0.7159  -0.275
6.286e+09  -0.7939  -0.3169  -0.01173  0.01461  -0.02604  0.006714  -0.8026  -0.03447
6.288e+09  -0.8386  0.002732  0.01487  -0.0102  0.009582  -0.007606  -0.7539  0.2496
6.289e+09  -0.7599  0.291  -0.03014  0.002968  -0.03039  0.01996  -0.6262  0.5052
6.29e+09  -0.6009  0.5515  0.0007047  0.003158  0.02117  -0.03129  -0.3747  0.6968
6.291e+09  -0.4177  0.7432  -0.01871  0.0003392  -0.01843  -0.0002636  -0.1417  0.8037
6.292e+09  -0.1537  0.8196  0.01798  0.007637  -0.01392  0.006866  0.1104  0.8028
6.294e+09  0.1588  0.8183  -0.01643  0.003474  0.0435  0.05798  0.4189  0.7047
6.295e+09  0.4441  0.6877  -0.01396  0.003735  0.01707  -0.04286  0.6146  0.5285
6.296e+09  0.6492  0.5107  -0.0002023  0.003378  -0.009972  -0.0335  0.7877  0.2791
6.298e+09  0.7813  0.3043  0.006371  -0.01116  0.02705  0.008506  0.8438  0.02215
6.299e+09  0.8645  -0.0912  0.008634  0.01402  0.001778  0.06974  0.7578  -0.2723
6.3e+09  0.7982  -0.3225  -0.006598  0.003132  0.006958  -0.002334  0.688  -0.5634
6.301e+09  0.6528  -0.5377  -0.009584  0.02129  -0.04732  -0.0007646  0.4379  -0.7163
6.302e+09  0.3926  -0.7289  0.005351  -0.009422  -0.001207  -0.037  0.1397  -0.8284
6.304e+09  0.05099  -0.8086  0.01275  -0.02042  0.01987  -0.01925  -0.1513  -0.8361
6.305e+09  -0.2292  -0.8037  -0.006859  0.01476  -0.01962  0.01613  -0.4004  -0.7566
6.306e+09  -0.4695  -0.6638  -0.01239  0.007971  0.01311  -0.04375  -0.6514  -0.5525
6.308e+09  -0.6955  -0.4323  0.006205  0.003717  0.007177  0.003736  -0.8164  -0.3413
6.309e+09  -0.8134  -0.184  0.001364  -0.01739  0.02461  -0.02909  -0.8524  -0.04944
6.31e+09  -0.8549  0.1063  0.0361  -0.007364  -0.02409  0.04389  -0.8239  0.2667
6.311e+09  -0.7558  0.3654  -0.009333  0.006899  -0.0235  0.017  -0.6752  0.5573
6.312e+09  -0.6191  0.5666  -0.004406  -0.001485  0.006961  -0.01179  -0.4436  0.7537
6.314e+09  -0.3005  0.817  -0.004002  -0.03298  -0.01656  -0.04344  -0.1759  0.8337
6.315e+09  -0.0176  0.8473  -0.0175  0.01961  0.02523  -0.01128  0.1527  0.8787
6.316e+09  0.2698  0.8474  0.01687  0.03165  0.01951  -0.02563  0.4405  0.7695
6.318e+09  0.5265  0.6194  -0.01135  -0.01497  0.03436  -0.01966  0.6528  0.5972
6.319e+09  0.721  0.3785  0.0007725  -0.01871  0.01507  0.006378  0.8466  0.3037
6.32e+09  0.8335  0.1543  0.01831  0.02156  -0.008268  0.03997  0.8782  -0.008418
6.321e+09  0.8761  -0.1628  -0.00455  0.01021  0.007587  0.0004079  0.8317  -0.2914
6.322e+09  0.7424  -0.4153  0.009618  -0.006467  0.01017  0.00229  0.7306  -0.5559
6.324e+09  0.5017  -0.6888  0.003461  -0.03092  -0.03089  -0.01374  0.464  -0.7786
6.325e+09  0.2892  -0.8394  -0.01867  -0.01607  -0.009168  -0.01212  0.176  -0.8797
6.326e+09  -0.05208  -0.865  -0.01231  0.006013  0.06354  -0.007935  -0.1554  -0.9242
6.328e+09  -0.335  -0.7988  0.001506  0.009553  0.03467  0.003355  -0.4109  -0.782
6.329e+09  -0.5809  -0.587  0.006704  0.0294  -0.04218  0.03992  -0.6899  -0.6004
6.33e+09  -0.7777  -0.3352  0.02145  0.01015  -0.02992  0.007875  -0.8579  -0.3066
6.331e+09  -0.8954  -0.07172  -0.01999  -0.00237  0.005269  -0.004895  -0.8802  -0.01339
6.332e+09  -0.8165  0.244  0.01479  -0.0041  0.01627  0.007247  -0.8685  0.3018
6.334e+09  -0.6698  0.5062  -0.03455  0.0287  0.007627  -0.002799  -0.7187  0.5564
6.335e+09  -0.4364  0.7346  0.02226  0.02971  -0.04865  -0.002919  -0.45  0.7966
6.336e+09  -0.1848  0.8168  0.0207  0.005131  -0.01909  -0.01779  -0.1814  0.8897
6.338e+09  0.1386  0.8732  0.02462  0.04944  -0.02856  0.0009328  0.1336  0.8804
6.339e+09  0.4119  0.7568  -0.01866  0.01681  -0.03392  0.02315  0.4266  0.809
6.34e+09  0.6264  0.521  0.01865  -0.03632  0.02968  0.001597  0.7054  0.6186
6.341e+09  0.8575  0.2477  -0.03254  -0.00663  -0.01959  0.01244  0.8311  0.3394
6.342e+09  0.8939  -0.007383  -0.04099  -0.04038  -0.003176  -0.01196  0.9234  0.03672
6.344e+09  0.8159  -0.3127  -0.01877  8.842e-05  0.02117  -0.009213  0.8761  -0.2623
6.345e+09  0.6692  -0.5976  -0.00442  -0.003301  0.02712  -0.01784  0.7451  -0.5705
6.346e+09  0.4163  -0.8106  0.02267  0.003664  -0.01999  -0.02933  0.4911  -0.7468
6.348e+09  0.11  -0.8944  0.01265  0.01146  0.01716  0.05114  0.199  -0.899
6.349e+09  -0.1408  -0.8493  -0.008697  -0.001331  -0.06675  -0.007763  -0.1137  -0.9206
6.35e+09  -0.5053  -0.7257  0.03314  0.01764  0.01331  -0.01639  -0.4719  -0.8138
6.351e+09  -0.7253  -0.5589  -0.02859  0.001992  0.0199  0.01692  -0.6585  -0.6513
6.352e+09  -0.8165  -0.2203  -0.001183  -0.02952  -0.0009311  0.02844  -0.8317  -0.367
6.354e+09  -0.9037  0.06757  -0.02137  -0.006134  0.00145  0.001147  -0.9666  -0.06086
6.355e+09  -0.8335  0.3824  0.008956  0.03897  0.003481  -0.0002335  -0.9237  0.2832
6.356e+09  -0.6892  0.6448  0.01665  -0.0162  0.0003367  9.566e-05  -0.7487  0.5707
6.358e+09  -0.3827  0.8262  -0.003798  0.02115  -0.004721  -0.002017  -0.5455  0.8045
6.359e+09  -0.05949  0.8636  -0.005956  -5.529e-05  -0.01299  0.02767  -0.2482  0.9022
6.36e+09  0.2899  0.8144  -0.01563  -0.002423  0.01211  -0.01071  0.06049  0.9387
6.361e+09  0.5256  0.6833  0.0006532  -0.01739  0.05231  0.01585  0.4114  0.8371
6.362e+09  0.7249  0.5059  -0.01731  0.008573  -0.00559  0.03542  0.7003  0.6766
6.364e+09  0.8905  0.2038  0.01106  -0.008228  0.01683  0.03584  0.8588  0.3946
6.365e+09  0.8644  -0.1459  0.03274  -0.00252  0.0102  0.05312  0.9497  0.0667
6.366e+09  0.7996  -0.4096  0.0008261  -0.007626  0.0307  -0.01978  0.9583  -0.2783
6.368e+09  0.5535  -0.6808  -0.01847  0.0152  -0.03409  0.006016  0.7371  -0.573
6.369e+09  0.2986  -0.814  -0.0008192  0.0004593  -0.01747  -0.02943  0.5393  -0.7979
6.37e+09  -0.005525  -0.8914  0.002393  0.01308  -0.01618  -0.06724  0.2522  -0.9186
6.371e+09  -0.329  -0.8848  -0.008252  -0.03659  0.04441  0.03407  -0.08173  -0.9591
6.372e+09  -0.6121  -0.6591  -0.008484  -0.002074  0.005794  0.01985  -0.4078  -0.8073
6.374e+09  -0.7319  -0.4232  -0.006889  -0.02102  0.01856  -0.03403  -0.6598  -0.6778
6.375e+09  -0.9135  -0.1275  0.003281  0.01979  0.0117  -0.005014  -0.891  -0.431
6.376e+09  -0.9048  0.2296  0.01368  -0.03602  -0.02769  0.03073  -0.951  -0.1147
6.378e+09  -0.7552  0.4542  0.02699  -0.01819  -0.004185  -0.01922  -0.9353  0.2491
6.379e+09  -0.5477  0.6799  0.02962  0.01242  0.04003  0.01194  -0.7818  0.5488
6.38e+09  -0.2614  0.8168  0.0269  0.06296  -0.01433  0.02297  -0.5441  0.7676
6.381e+09  0.0684  0.9165  0.007609  -0.00938  -0.01153  0.01178  -0.2797  0.8993
6.382e+09  0.3966  0.7776  0.00981  0.01041  0.02945  -0.01798  0.09275  0.9475
6.384e+09  0.5607  0.6511  5.962e-05  0.008132  0.03216  -0.02512  0.3374  0.8435
6.385e+09  0.7795  0.3623  -0.05111  0.01175  0.00947  0.00894  0.6164  0.6573
6.386e+09  0.8706  0.07242  0.0115  -0.002149  -0.00225  -0.01133  0.8171  0.4286
6.388e+09  0.8663  -0.2197  0.01479  -0.03227  -0.01813  0.03251  0.9026  0.09815
6.389e+09  0.6853  -0.5253  0.02785  0.05537  0.003079  -0.03701  0.9023  -0.2197
6.39e+09  0.5199  -0.7073  0.02537  -0.004908  0.01772  0.006318  0.7903  -0.5117
6.391e+09  0.2258  -0.8691  0.01158  0.01855  -0.009426  0.04218  0.6112  -0.7139
6.392e+09  -0.1111  -0.8764  -0.02003  0.01976  -0.007686  -0.003028  0.2754  -0.8169
6.394e+09  -0.3912  -0.7817  -0.03114  -0.03462  -0.001166  0.009015  -0.05659  -0.8878
6.395e+09  -0.6426  -0.5736  -0.01993  0.005716  -0.008992  0.005909  -0.3219  -0.9007
6.396e+09  -0.795  -0.3439  -0.0287  0.003852  0.006618  0.03034  -0.6003  -0.6733
6.398e+09  -0.9177  -0.03969  0.06018  0.02626  -0.003901  0.01966  -0.8271  -0.4432
6.399e+09  -0.8804  0.2997  0.002298  0.01094  0.01628  0.006065  -0.9226  -0.1755
6.4e+09  -0.6731  0.5712  -0.02386  -0.01984  -0.009766  0.0006333  -0.8786  0.1708
6.401e+09  -0.4459  0.6837  0.01265  -0.02643  -0.00212  0.00752  -0.8184  0.4711
6.402e+09  -0.2259  0.8816  -0.000785  -0.0345  -0.04269  -0.01414  -0.5851  0.7231
6.404e+09  0.108  0.9089  0.00896  -0.003363  0.001993  -0.002237  -0.3241  0.9032
6.405e+09  0.3953  0.7884  -0.01603  -0.01011  -0.01847  -0.03051  0.002414  0.9133
6.406e+09  0.6685  0.5616  0.01403  0.004208  -0.06779  -0.01586  0.2881  0.858
6.408e+09  0.8237  0.2978  -0.007978  0.04507  0.03368  -0.0173  0.5539  0.7218
6.409e+09  0.9164  -0.0007155  0.01402  0.007593  0.01173  0.01162  0.778  0.4861
6.41e+09  0.7832  -0.2593  -0.006091  0.001976  0.002487  0.03135  0.8995  0.1886
6.411e+09  0.6383  -0.6121  -0.0187  -0.0164  0.006215  0.07684  0.9206  -0.1145
6.412e+09  0.3783  -0.8085  0.01346  -0.01955  0.07107  -0.000655  0.8141  -0.4231
6.414e+09  0.1243  -0.8827  0.01589  -0.03912  0.07549  0.02099  0.6147  -0.6636
6.415e+09  -0.1907  -0.8634  0.01848  -0.002959  -0.06641  -0.005746  0.3287  -0.8588
6.416e+09  -0.4627  -0.7676  0.03787  -0.02046  -0.007029  -0.03843  0.03003  -0.8981
6.418e+09  -0.6892  -0.5314  -0.011  0.01733  -0.01528  -0.01546  -0.2724  -0.8682
6.419e+09  -0.894  -0.2699  -0.04026  -0.03989  -0.0004963  0.0491  -0.5602  -0.6787
6.42e+09  -0.9609  0.1123  0.01873  -0.01112  -0.02235  0.02482  -0.7185  -0.5033
6.421e+09  -0.7697  0.4098  -0.03198  0.009612  -0.002078  0.009364  -0.871  -0.1978
6.422e+09  -0.6183  0.6517  0.001967  0.004718  -0.0003258  -0.03947  -0.9107  0.1692
6.424e+09  -0.3663  0.8585  0.01181  0.01551  0.005865  -0.0102  -0.8048  0.3897
6.425e+09  -0.06153  0.9334  -0.02175  0.01199  0.0009112  -0.03494  -0.597  0.6364
6.426e+09  0.2532  0.8509  0.005102  0.0223  0.02689  -0.01194  -0.3226  0.8087
6.428e+09  0.528  0.6898  0.004725  -0.02016  -0.03478  -0.009765  -0.07062  0.7987
6.429e+09  0.745  0.4966  -0.005818  -0.009085  -0.01496  0.01518  0.2467  0.8653
6.43e+09  0.8471  0.1823  -0.005598  -0.01995  0.0328  0.01596  0.5246  0.694
6.431e+09  0.8839  -0.1767  0.002215  0.0008356  0.006532  -0.006564  0.7253  0.4986
6.432e+09  0.8408  -0.4541  -0.006976  -0.002245  0.02813  0.006578  0.8087  0.1506
6.434e+09  0.5682  -0.6573  0.01766  -0.009474  -0.01853  0.01553  0.8358  -0.07873
6.435e+09  0.3258  -0.8764  0.002321  -0.02057  -0.01757  0.03009  0.8249  -0.4297
6.436e+09  0.02458  -0.8999  0.00571  0.007056  -0.01423  -0.006822  0.6378  -0.6145
6.438e+09  -0.2674  -0.8567  -0.002851  -0.009133  -0.000808  0.01346  0.3863  -0.7852
6.439e+09  -0.6558  -0.6555  -0.003971  0.03138  -0.05137  -0.01999  0.05844  -0.8465
6.44e+09  -0.8092  -0.4335  0.01969  -0.02781  0.03782  -0.003258  -0.2498  -0.8247
6.441e+09  -0.8742  -0.0753  0.007692  0.0005493  0.02233  -0.01587  -0.493  -0.7066
6.442e+09  -0.9535  0.2119  0.005878  -0.01756  -0.03523  0.03356  -0.6633  -0.4625
6.444e+09  -0.7499  0.4848  -0.05336  0.02365  0.006468  -0.006481  -0.8456  -0.1956
6.445e+09  -0.5113  0.7053  0.01007  -0.004479  0.03904  0.01613  -0.8575  0.07487
6.446e+09  -0.2284  0.8667  0.03834  0.04149  -0.002184  0.01773  -0.73  0.3606
6.448e+09  0.09837  0.928  0.01581  -0.005211  0.01126  -0.0307  -0.6126  0.6386
6.449e+09  0.4032  0.7935  -0.002012  -0.03208  0.01779  -0.0004528  -0.3482  0.785
6.45e+09  0.6973  0.5832  -0.01408  -0.01118  -0.006406  0.0107  -0.1283  0.8406
6.451e+09  0.8186  0.2737  -0.02282  0.0272  -0.02836  -0.0627  0.234  0.816
6.452e+09  0.9523  -0.02359  0.02992  0.05797  0.0277  0.01095  0.4868  0.6833
6.454e+09  0.8512  -0.3201  -0.03897  -0.03797  0.01801  0.0247  0.7131  0.4838
6.455e+09  0.6895  -0.5969  -0.02137  0.05345  0.01346  -0.002243  0.8232  0.1929
6.456e+09  0.4435  -0.8286  0.03619  -0.0495  -0.01468  0.02325  0.7908  -0.1114
6.458e+09  0.1085  -0.9377  -0.004966  0.02099  -0.03017  -0.03015  0.7303  -0.3386
6.459e+09  -0.2464  -0.9055  0.03813  0.02361  -0.02812  -0.005753  0.5708  -0.5389
6.46e+09  -0.5786  -0.7705  0.004349  0.03363  -0.06543  0.02559  0.2964  -0.7477
6.461e+09  -0.8054  -0.5044  0.02924  0.005009  -0.0307  0.01735  0.0463  -0.845
6.462e+09  -0.8964  -0.211  0.01087  -0.0367  0.04147  0.0262  -0.2376  -0.7562
6.464e+09  -0.933  0.09438  -0.008013  0.007553  -0.05139  -0.0265  -0.4741  -0.6164
6.465e+09  -0.797  0.4051  -0.02105  0.01181  -0.01143  0.007852  -0.6843  -0.4731
6.466e+09  -0.5874  0.7084  0.005799  0.0338  -0.002247  -0.01161  -0.8303  -0.1852
6.468e+09  -0.2847  0.851  -0.01548  0.02245  0.03458  0.01931  -0.8002  0.1113
6.469e+09  0.04067  0.9586  -0.00775  0.03391  -0.02047  0.0221  -0.7803  0.3345
6.47e+09  0.379  0.826  -0.008109  -0.02167  0.009089  8.806e-05  -0.5408  0.6076
6.471e+09  0.6534  0.6288  -0.04165  -0.04052  -0.02043  0.02188  -0.3219  0.7296
6.472e+09  0.8574  0.4232  0.02759  -0.003802  0.00643  0.003418  -0.06312  0.7923
6.474e+09  0.9452  0.05273  0.00281  -0.01472  -0.01187  0.01004  0.2292  0.7992
6.475e+09  0.9185  -0.252  -0.002587  0.05883  -0.01392  0.03377  0.4048  0.6699
6.476e+09  0.734  -0.5364  0.007612  0.02633  -0.03038  -0.002019  0.6361  0.4234
6.478e+09  0.4793  -0.7563  -0.02258  0.03474  0.01262  -0.02781  0.7605  0.2387
6.479e+09  0.1337  -0.9268  0.009424  0.02757  0.01038  0.02816  0.7796  -0.0747
6.48e+09  -0.2356  -0.9218  -0.008363  -0.02658  -0.06407  -0.02148  0.7174  -0.3117
6.481e+09  -0.5383  -0.7671  0.007323  -0.03621  0.02067  -0.03371  0.5561  -0.6094
6.482e+09  -0.7958  -0.554  -0.03394  -0.04122  -0.05066  0.03417  0.3352  -0.7338
6.484e+09  -0.8757  -0.2215  0.01339  -0.03424  0.03871  -0.001998  0.04862  -0.7914
6.485e+09  -0.8644  0.1215  0.02847  0.0009369  0.02405  0.01564  -0.2158  -0.7685
6.486e+09  -0.7991  0.4572  -0.02983  0.04147  0.007259  -0.03475  -0.4781  -0.6128
6.488e+09  -0.5755  0.6713  0.02867  0.01959  -0.0186  0.01841  -0.6112  -0.4232
6.489e+09  -0.3108  0.8653  0.005152  0.0009481  -0.0317  0.01629  -0.7419  -0.1973
6.49e+09  0.03111  0.8416  -0.02426  -0.005144  0.01433  -0.04951  -0.7877  0.08328
6.491e+09  0.3516  0.8719  0.01092  -0.03603  -0.04486  -0.06578  -0.6836  0.3233
6.492e+09  0.6194  0.6518  -0.003424  0.01735  0.01646  0.02892  -0.5206  0.5755
6.494e+09  0.8112  0.3506  0.007238  0.0154  -0.03848  -0.01995  -0.2896  0.7075
6.495e+09  0.8588  0.06243  0.0406  0.008339  0.05655  -0.01849  -0.04465  0.7456
6.496e+09  0.8456  -0.245  0.01484  -0.02197  -0.0254  0.01466  0.2764  0.7536
6.498e+09  0.7166  -0.5494  -0.03349  -4.373e-06  0.05086  -0.02429  0.4754  0.5935
6.499e+09  0.4473  -0.7163  0.007125  0.004488  0.0149  0.004959  0.6978  0.428
6.5e+09  0.1118  -0.8782  -0.05053  0.02115  -0.01395  -0.01177  0.7374  0.1498
6.501e+09  -0.1832  -0.8815  -0.01222  -0.01784  0.02227  -0.02026  0.7431  -0.1144
6.502e+09  -0.5218  -0.7321  0.04065  0.01957  -0.0332  0.01378  0.6138  -0.3901
6.504e+09  -0.691  -0.4711  -0.01322  -0.01004  -0.01544  0.003091  0.4889  -0.554
6.505e+09  -0.8214  -0.1791  -0.01951  -0.01359  0.04683  0.01163  0.2719  -0.7033
6.506e+09  -0.8271  0.1138  0.02815  0.02344  0.01846  0.02868  0.0268  -0.7405
6.508e+09  -0.7169  0.3766  -0.01982  0.000775  -0.01266  0.01887  -0.2561  -0.7423
6.509e+09  -0.5472  0.6318  0.01764  0.04036  -0.007229  0.02526  -0.469  -0.5986
6.51e+09  -0.229  0.7443  0.02299  -0.007029  -0.004108  0.02968  -0.6655  -0.4196
6.511e+09  0.07094  0.8427  0.001514  0.002024  0.01382  -0.03011  -0.7467  -0.1481
6.512e+09  0.3024  0.6738  0.01002  -0.01798  -0.01562  0.02482  -0.7842  0.1497
6.514e+09  0.5637  0.6335  0.02581  -0.02093  0.01348  0.01098  -0.6127  0.4173
6.515e+09  0.7226  0.3592  -0.01073  0.0468  -0.03951  -0.01259  -0.4794  0.5237
6.516e+09  0.7801  0.06141  0.03511  0.0002733  -0.07368  -0.001397  -0.255  0.6959
6.518e+09  0.8306  -0.1991  0.04018  -0.0008593  0.009861  -0.04599  0.001042  0.7633
6.519e+09  0.649  -0.5136  -0.01023  -0.02802  0.001583  0.01071  0.293  0.7203
6.52e+09  0.383  -0.6876  -0.02701  -0.02578  -0.04656  0.004713  0.5031  0.5845
6.521e+09  0.1431  -0.7868  -0.02834  0.003904  0.004315  -0.02937  0.646  0.3373
6.522e+09  -0.115  -0.7235  -0.0118  -0.006647  0.01252  -0.02689  0.7327  0.05922
6.524e+09  -0.436  -0.6887  0.03282  0.006498  -0.0174  -0.008895  0.7418  -0.1763
6.525e+09  -0.6826  -0.4504  -0.003485  -0.00813  -0.01417  -0.002035  0.5993  -0.3762
6.526e+09  -0.7747  -0.1679  0.0411  -0.02235  0.0355  -0.03121  0.4487  -0.5714
6.528e+09  -0.7567  0.05174  0.01882  0.01884  -0.02069  0.01894  0.1824  -0.6967
6.529e+09  -0.6944  0.3592  -0.0111  0.01187  -0.02147  0.02407  -0.05296  -0.7139
6.53e+09  -0.5485  0.567  0.02382  -0.005859  -0.01178  -0.02457  -0.2771  -0.621
6.531e+09  -0.2609  0.6864  -0.007847  -0.03185  0.0428  -0.02325  -0.4766  -0.4925
6.532e+09  0.01938  0.7904  0.03159  0.02614  0.01069  -0.03825  -0.5972  -0.3075
6.534e+09  0.2959  0.6971  0.03075  -0.00849  -0.01259  0.01352  -0.6645  -0.1128
6.535e+09  0.4794  0.5271  0.009493  0.006574  0.006264  0.01903  -0.6572  0.1209
6.536e+09  0.6916  0.3786  0.01174  0.005025  0.001093  0.04534  -0.565  0.3413
6.538e+09  0.7884  0.07929  0.001057  -0.02882  -0.0006079  0.03092  -0.4453  0.4693
6.539e+09  0.7117  -0.2087  0.01729  0.005538  -0.003029  -0.01956  -0.2534  0.6036
6.54e+09  0.5926  -0.4792  -0.03259  -0.03567  -0.02588  0.03184  -0.05822  0.6869
6.541e+09  0.3989  -0.6432  0.01065  -0.008364  -0.02892  -0.000431  0.1834  0.6884
6.542e+09  0.09573  -0.6956  -0.01178  0.002492  0.01311  0.05637  0.4249  0.5777
6.544e+09  -0.1205  -0.68  -0.002079  -0.03905  0.01016  -0.004328  0.603  0.4092
6.545e+09  -0.4554  -0.6409  -0.01884  0.03028  0.03418  0.0156  0.7017  0.1908
6.546e+09  -0.606  -0.3947  0.03289  0.02343  0.01876  0.00564  0.693  -0.08855
6.548e+09  -0.718  -0.1749  0.02084  0.03113  0.002921  -0.01944  0.6948  -0.3432
6.549e+09  -0.7409  0.06462  0.006822  0.005345  -0.02552  -0.01394  0.4681  -0.5212
6.55e+09  -0.6639  0.2992  0.0267  -0.01021  0.01074  -0.04016  0.3163  -0.6961
