# Hz S RI R 50
6.25e+09  -0.2973  0.7996  -0.034  0.002969  0.02331  0.02288  0.1612  0.4706
6.251e+09  -0.01003  0.8233  -0.02321  -0.005904  -0.02185  0.0009036  0.3827  0.438
6.252e+09  0.2872  0.8118  0.01045  -0.02373  0.02516  0.03023  0.5177  0.237
6.254e+09  0.5609  0.6707  -0.008063  -0.0234  0.009141  0.03441  0.5941  0.007995
6.255e+09  0.7579  0.4087  -0.02188  -0.001216  0.03137  0.06337  0.5822  -0.2384
6.256e+09  0.8524  0.1308  0.01207  -0.004977  -0.02383  0.0294  0.5036  -0.4462
6.258e+09  0.8294  -0.1733  -0.008496  -3.346e-05  -0.04778  0.02838  0.271  -0.6019
6.259e+09  0.7182  -0.4511  0.001908  0.01393  -0.05769  -0.06168  0.02037  -0.6743
6.26e+09  0.5318  -0.6239  0.02659  -0.009404  0.02069  0.01464  -0.2267  -0.6544
6.261e+09  0.1875  -0.8602  -0.001957  0.02196  -0.004718  -0.02053  -0.4305  -0.5209
6.262e+09  -0.1166  -0.8786  -0.0111  -0.03085  -0.009455  0.01868  -0.6251  -0.318
6.264e+09  -0.3622  -0.7938  0.003211  0.01219  -0.07337  0.02242  -0.7294  -0.1305
6.265e+09  -0.585  -0.5921  0.006177  0.003097  -0.04416  -0.04173  -0.7287  0.1617
6.266e+09  -0.7081  -0.4493  -0.02407  -0.008604  0.01822  -0.01581  -0.6105  0.3987
6.268e+09  -0.8132  -0.1152  -0.0005148  -0.001928  -0.0003552  0.04506  -0.4546  0.5895
6.269e+09  -0.7978  0.2278  -0.01462  0.01992  0.009326  0.002641  -0.1865  0.6995
6.27e+09  -0.693  0.4748  0.01771  0.00579  0.03466  0.002334  0.09343  0.7218
6.271e+09  -0.5299  0.6922  0.0005488  0.0004031  0.01352  -0.04609  0.3071  0.6753
6.272e+09  -0.2022  0.8043  -0.01159  -0.00212  0.03154  -0.01416  0.5455  0.5516
6.274e+09  0.02301  0.8403  0.006675  -0.02626  -0.06526  0.001699  0.6916  0.3289
6.275e+09  0.3373  0.7588  -0.01761  -0.03781  0.01179  -0.007528  0.7785  0.07273
6.276e+09  0.6314  0.6285  0.006812  -0.01082  0.0008128  0.01258  0.7206  -0.2141
6.278e+09  0.7327  0.4234  -0.005419  0.005308  0.008381  0.017  0.6084  -0.4685
6.279e+09  0.766  0.04645  -0.01185  -0.007004  0.01132  0.0414  0.4051  -0.6617
6.28e+09  0.8119  -0.1457  -0.01103  -0.002721  -0.05252  0.04072  0.19  -0.7493
6.281e+09  0.6617  -0.558  -0.01217  0.02007  0.01939  -0.001685  -0.104  -0.8006
6.282e+09  0.4729  -0.7045  -0.01681  0.02823  -0.00882  -0.06941  -0.3953  -0.666
6.284e+09  0.2746  -0.7969  -0.007426  -0.02961  0.01827  -0.01916  -0.6  -0.5105
6.285e+09  -0.05219  -0.7676  -0.01015  0.01087  -0.04243  0.0543  -0.7462  -0.3068
6.286e+09  -0.3227  -0.7718  0.006976  -0.01243  -0.0256  -0.01026  -0.808  -0.05755
6.288e+09  -0.6149  -0.6263  0.03604  0.006298  0.0511  0.006074  -0.7795  0.2249
6.289e+09  -0.7767  -0.3962  0.03003  0.03024  0.01195  -0.01163  -0.6556  0.5283
6.29e+09  -0.8187  -0.1286  0.00551  -0.02229  -0.02101  0.01891  -0.3716  0.7217
6.291e+09  -0.8001  0.2314  0.03033  0.02971  0.001411  0.01718  -0.1241  0.7705
6.292e+09  -0.6625  0.4511  0.003611  0.03325  0.0116  -0.01336  0.1633  0.804
6.294e+09  -0.4674  0.6707  -0.0134  -0.001609  -0.02765  0.04113  0.411  0.7564
6.295e+09  -0.175  0.853  0.002002  0.04402  -0.03123  -0.001339  0.6561  0.545
6.296e+09  0.06511  0.8039  0.007559  -0.01478  0.03364  -0.004963  0.775  0.2978
6.298e+09  0.4198  0.7245  -0.02876  0.009107  0.03147  0.02826  0.8171  -0.03801
6.299e+09  0.6175  0.6418  0.009181  0.01651  0.005895  0.00104  0.7859  -0.3123
6.3e+09  0.7486  0.3242  0.001499  -0.01239  0.01982  0.04375  0.6704  -0.5257
6.301e+09  0.7976  0.02621  -0.03286  -0.01474  -0.007594  0.009667  0.4408  -0.7366
6.302e+09  0.7914  -0.3086  0.0002472  0.01204  0.001822  0.02528  0.1502  -0.8266
6.304e+09  0.6772  -0.5118  0.01297  -0.02685  -0.02248  0.04117  -0.1197  -0.8218
6.305e+09  0.4157  -0.7482  -0.008107  -0.0041  -0.00402  0.02278  -0.4634  -0.7545
6.306e+09  0.1487  -0.8388  0.02268  -0.02314  0.009718  0.03833  -0.639  -0.5884
6.308e+09  -0.1311  -0.8207  -0.006826  -0.008052  0.001582  -0.01896  -0.7813  -0.3059
6.309e+09  -0.4176  -0.7222  -0.007507  -0.003513  -0.009973  -0.01872  -0.8581  -0.01135
6.31e+09  -0.7226  -0.5681  -7.191e-05  -0.004924  -0.08298  0.005351  -0.8122  0.311
6.311e+09  -0.7734  -0.2784  0.01035  0.003626  -0.02134  -0.01119  -0.6708  0.5808
6.312e+09  -0.8359  -0.003077  0.00425  -0.002403  -0.003021  -0.01198  -0.4374  0.7406
6.314e+09  -0.7361  0.3471  -0.00026  -0.004788  -0.01606  0.007831  -0.1687  0.8831
6.315e+09  -0.6673  0.5455  -0.0009286  -0.01597  -0.009129  0.0004022  0.1314  0.8633
6.316e+09  -0.3939  0.7578  -0.008821  3.016e-05  -0.01765  -0.03809  0.4406  0.7675
6.318e+09  -0.09729  0.8446  0.02206  0.01329  -0.03495  0.04015  0.6446  0.5567
6.319e+09  0.2391  0.8987  -0.008229  0.01761  -0.01875  0.01421  0.8012  0.3155
6.32e+09  0.4472  0.694  -0.01445  0.001864  0.001307  0.003353  0.8533  0.01595
6.321e+09  0.6718  0.5241  -0.01189  0.01879  0.003407  0.01358  0.8478  -0.3206
6.322e+09  0.7791  0.3054  0.002424  -0.02384  0.04456  -0.0302  0.7034  -0.5673
6.324e+09  0.8782  -0.04915  0.009517  -0.01183  0.01428  -0.004198  0.4337  -0.7603
6.325e+09  0.71  -0.3238  -0.02043  -0.008097  0.02379  0.01119  0.1637  -0.8795
6.326e+09  0.6094  -0.5863  0.03685  0.01796  -0.01444  0.008377  -0.1223  -0.8852
6.328e+09  0.3656  -0.8235  -0.00813  0.004836  -0.01589  -0.0007255  -0.4731  -0.8065
6.329e+09  0.1175  -0.9251  0.01819  -0.01893  0.02587  -0.01912  -0.6938  -0.5668
6.33e+09  -0.2168  -0.8627  -0.01852  0.01165  0.02443  0.0009733  -0.8647  -0.3609
6.331e+09  -0.493  -0.6968  0.02031  0.003517  0.006236  -0.002776  -0.8925  0.000581
6.332e+09  -0.7188  -0.5002  0.0117  0.003671  0.02299  0.006471  -0.862  0.2806
6.334e+09  -0.8475  -0.1636  0.01898  0.03475  -0.0101  0.002844  -0.7407  0.5465
6.335e+09  -0.8731  0.1145  0.002746  -0.02933  -0.02592  0.0333  -0.4879  0.8016
6.336e+09  -0.8076  0.389  0.005697  -0.03787  0.03812  0.0282  -0.1979  0.9121
6.338e+09  -0.5609  0.6388  0.02014  -0.003526  -0.01634  0.01626  0.1374  0.9317
6.339e+09  -0.3322  0.8611  0.007922  -0.004086  0.001135  0.04798  0.4507  0.8077
6.34e+09  -0.0102  0.8427  0.009775  0.03477  -0.01187  -0.02654  0.7134  0.619
6.341e+09  0.3266  0.8808  0.00698  0.01147  -0.02805  0.03694  0.8576  0.3578
6.342e+09  0.5593  0.6677  -0.03153  0.03441  0.02187  0.0162  0.9505  0.02696
6.344e+09  0.7046  0.4569  0.01278  0.04515  -0.01121  0.01917  0.9057  -0.3033
6.345e+09  0.8166  0.1511  -0.002666  0.03581  -0.02494  0.01338  0.7247  -0.5847
6.346e+09  0.8507  -0.1164  -0.01491  0.009008  -0.01249  0.02033  0.5386  -0.8076
6.348e+09  0.7911  -0.4692  -0.003325  -0.03491  -0.05289  -0.002932  0.2382  -0.8986
6.349e+09  0.5766  -0.6996  -0.01447  -0.03037  -0.001892  -0.03695  -0.1488  -0.921
6.35e+09  0.3338  -0.8292  -0.01539  -0.005008  -0.04322  0.02116  -0.408  -0.8225
6.351e+09  -0.04226  -0.9112  -0.00977  -0.03063  0.003291  -0.03836  -0.6908  -0.624
6.352e+09  -0.3866  -0.8671  0.0193  0.02518  0.005235  0.02602  -0.8494  -0.366
6.354e+09  -0.6035  -0.6626  -0.007589  -0.02637  -0.02022  0.009139  -0.932  -0.09204
6.355e+09  -0.8063  -0.3824  -0.01451  -0.01962  0.007378  0.0003007  -0.9213  0.2483
6.356e+09  -0.8901  -0.1287  0.02208  0.03825  0.06474  0.03469  -0.7606  0.5693
6.358e+09  -0.8806  0.1917  0.008171  0.009867  0.04068  0.04166  -0.5244  0.8118
6.359e+09  -0.7541  0.4955  0.005757  0.01267  -0.01782  0.02797  -0.21  0.949
6.36e+09  -0.5573  0.7387  -0.02348  -0.01097  -0.005772  -0.01096  0.113  0.9417
6.361e+09  -0.2209  0.8535  -0.04319  0.01476  0.03591  -0.04672  0.3977  0.8706
6.362e+09  0.06845  0.9374  0.0004899  -0.001564  0.01768  -0.004899  0.7037  0.6457
6.364e+09  0.3696  0.8612  -0.04684  0.01594  -0.02859  -0.006051  0.9075  0.408
6.365e+09  0.6273  0.6102  0.01033  0.003622  -0.003452  -0.02068  0.9884  0.1042
6.366e+09  0.8079  0.3432  0.009322  -0.01108  0.03022  -0.01819  0.8934  -0.2939
6.368e+09  0.9379  0.05764  -0.03935  -0.01193  0.004014  -0.01035  0.8027  -0.56
6.369e+09  0.8774  -0.293  -0.03871  -0.03634  -0.01753  -0.03221  0.5374  -0.7672
6.37e+09  0.7427  -0.6049  0.00546  0.01353  0.03852  0.003544  0.2541  -0.9404
6.371e+09  0.4725  -0.7854  -0.0002342  0.02833  0.0002147  0.00256  -0.1113  -0.9272
6.372e+09  0.2076  -0.8405  0.02337  -0.01297  -0.03103  0.02608  -0.3823  -0.8624
6.374e+09  -0.1269  -0.8752  -0.02585  -0.02313  -0.05923  7.39e-05  -0.6693  -0.6734
6.375e+09  -0.3908  -0.7452  -0.007333  -0.01429  0.02565  -0.005399  -0.8637  -0.4289
6.376e+09  -0.6848  -0.5753  0.01061  -0.01701  -0.02273  0.0346  -0.9147  -0.1177
6.378e+09  -0.8566  -0.3888  0.02081  -0.01492  -0.02437  0.05163  -0.9143  0.1973
6.379e+09  -0.8825  -0.004017  -0.0187  0.007264  0.03829  0.01015  -0.7712  0.575
6.38e+09  -0.814  0.3293  -0.007556  -0.005334  0.002398  0.02143  -0.5478  0.7354
6.381e+09  -0.7086  0.5653  0.01203  0.04101  0.007213  0.04052  -0.3017  0.907
6.382e+09  -0.4541  0.7748  0.02268  -0.004889  -0.02614  -0.01356  0.00401  0.9566
6.384e+09  -0.1445  0.9073  0.002764  -0.003963  -0.01542  0.04204  0.3399  0.8556
6.385e+09  0.1586  0.9013  -0.01306  0.01914  0.01112  -0.008354  0.6326  0.7005
6.386e+09  0.4514  0.7667  0.04739  0.001194  0.01929  -0.007029  0.7973  0.448
6.388e+09  0.7095  0.5806  0.02349  -0.006764  0.01695  -0.02699  0.956  0.1143
6.389e+09  0.8518  0.3204  0.00764  0.0006258  -0.008924  0.0127  0.8883  -0.2323
6.39e+09  0.9088  -0.0343  -0.01741  0.04074  -0.004642  -0.0149  0.7587  -0.5126
6.391e+09  0.8516  -0.3316  -0.005426  0.01746  0.01962  0.04765  0.5436  -0.7219
6.392e+09  0.654  -0.653  -0.01919  -0.03729  -0.01728  0.01392  0.2781  -0.8994
6.394e+09  0.4439  -0.8079  -0.00835  -0.00131  -0.005696  0.0256  -0.06656  -0.9304
6.395e+09  0.1195  -0.8887  0.01144  -0.0418  -0.03292  0.004304  -0.3527  -0.8667
6.396e+09  -0.1359  -0.8896  -0.02343  0.03402  -0.01709  0.008113  -0.6244  -0.6703
6.398e+09  -0.4913  -0.7868  0.00274  -0.003654  -0.07478  0.01656  -0.7941  -0.4374
6.399e+09  -0.6992  -0.5602  -0.0003026  0.01409  -0.03016  0.005838  -0.9169  -0.1323
6.4e+09  -0.8215  -0.2897  0.00429  0.02052  0.02337  0.0161  -0.8992  0.1391
6.401e+09  -0.8961  0.03366  0.007285  0.0175  0.09005  -0.0253  -0.7898  0.4829
6.402e+09  -0.831  0.333  0.01143  0.02532  -0.001408  -0.06928  -0.5799  0.7608
6.404e+09  -0.6584  0.6115  -0.04231  -0.01511  -0.03784  -0.02069  -0.3125  0.8494
6.405e+09  -0.3624  0.769  0.03789  0.01679  0.003851  0.03345  -0.006977  0.9077
6.406e+09  -0.1368  0.8625  -0.01325  -0.04837  0.009276  0.00432  0.2755  0.8957
6.408e+09  0.152  0.8398  -0.00406  0.01723  -0.02999  0.02386  0.5596  0.6741
6.409e+09  0.5392  0.7206  0.007496  -0.006873  -0.009576  0.04452  0.8087  0.446
6.41e+09  0.7289  0.5292  0.03025  0.01539  0.005682  -0.007799  0.8635  0.1907
6.411e+09  0.8338  0.2705  -0.01905  -0.01016  0.0008699  -0.008226  0.9121  -0.1293
6.412e+09  0.882  -0.0805  0.04081  -0.02608  -0.02845  0.0239  0.7937  -0.4164
6.414e+09  0.8118  -0.3581  -0.007852  -0.02174  -0.02722  0.03594  0.5815  -0.714
6.415e+09  0.6126  -0.5786  -0.02601  0.003625  -0.02934  -0.03713  0.3239  -0.8332
6.416e+09  0.3527  -0.7967  -0.02944  0.02755  -0.008018  0.005751  0.004404  -0.9021
6.418e+09  0.1172  -0.914  0.0131  0.008721  0.03628  0.02559  -0.2718  -0.8385
6.419e+09  -0.2598  -0.8828  0.01572  -0.0156  0.03132  0.04555  -0.58  -0.7079
6.42e+09  -0.5374  -0.6977  -0.02139  -0.02325  -0.005325  -0.0421  -0.7609  -0.4873
6.421e+09  -0.7271  -0.526  -0.01604  0.038  -0.002845  0.00599  -0.8651  -0.1942
6.422e+09  -0.8482  -0.2749  -0.005193  0.03141  0.001216  0.001429  -0.9147  0.1211
6.424e+09  -0.8569  0.06866  0.03961  0.00508  0.05265  0.01515  -0.7705  0.3871
6.425e+09  -0.8195  0.4185  0.02464  -0.005069  -0.02247  -0.03118  -0.6262  0.6352
6.426e+09  -0.6254  0.6731  0.02031  -0.01236  -0.03052  0.02343  -0.3319  0.8219
6.428e+09  -0.344  0.7769  -0.0008202  -0.01057  -0.05054  -0.01796  -0.06315  0.8676
6.429e+09  -0.1245  0.8903  -0.008449  -0.006478  -0.01127  -0.02858  0.2656  0.8717
6.43e+09  0.2861  0.9041  0.02085  0.03252  0.008783  0.03548  0.5079  0.7253
6.431e+09  0.5324  0.6738  0.04049  0.01852  0.01762  0.01237  0.6885  0.5022
6.432e+09  0.7607  0.5013  -0.02381  0.04314  0.04156  0.05528  0.8467  0.2247
6.434e+09  0.8281  0.1716  0.004194  -0.04557  0.01344  -0.004622  0.8203  -0.07936
6.435e+09  0.9403  -0.1343  -0.001801  -0.01782  -0.00155  0.0001387  0.7705  -0.3778
6.436e+09  0.8334  -0.4543  -0.0131  -0.008612  -0.02037  0.03979  0.5881  -0.5863
6.438e+09  0.5921  -0.6635  -0.06185  -0.01867  -0.009879  -0.03663  0.3325  -0.7365
6.439e+09  0.3328  -0.819  -0.001022  0.02421  0.01463  -0.01722  0.0241  -0.8343
6.44e+09  0.04526  -0.8637  -0.02433  0.01119  0.02928  -0.0268  -0.2289  -0.8251
6.441e+09  -0.247  -0.8349  0.005588  0.03802  -0.00801  0.00611  -0.5145  -0.7195
6.442e+09  -0.5518  -0.6779  0.02399  -0.007318  -2.817e-05  0.01314  -0.6584  -0.4751
6.444e+09  -0.7418  -0.4988  -0.008629  0.01051  0.01242  0.0171  -0.8076  -0.199
6.445e+09  -0.8951  -0.2296  -0.01009  -0.002771  -0.01285  0.02898  -0.8257  0.07248
6.446e+09  -0.9021  0.1132  -0.0221  -0.01413  -0.01632  -0.01999  -0.7691  0.353
6.448e+09  -0.8045  0.4295  0.07126  -0.01859  -0.02932  0.04358  -0.5607  0.6586
6.449e+09  -0.5845  0.6838  -0.02533  -0.01477  0.001101  0.0277  -0.3451  0.7656
6.45e+09  -0.3613  0.7531  0.02893  0.02068  0.02415  -0.005487  -0.0907  0.783
6.451e+09  -0.03654  0.8871  -0.01382  -0.01469  -0.04233  -0.02322  0.2231  0.7929
6.452e+09  0.2723  0.8759  0.005397  -0.009511  -0.04096  -0.07058  0.5334  0.6581
6.454e+09  0.4935  0.7387  -0.02563  0.02933  0.03752  0.003973  0.6974  0.4594
6.455e+09  0.7965  0.4404  -0.01002  -0.009744  -0.02672  -0.03442  0.827  0.1772
6.456e+09  0.8474  0.1868  -0.04424  -0.01236  0.01376  -0.08638  0.8091  -0.1094
6.458e+09  0.9007  -0.1401  0.04859  -0.02556  -0.03699  0.01363  0.7328  -0.3729
6.459e+09  0.7964  -0.4212  0.01074  -0.03686  -0.01477  0.01246  0.5591  -0.5745
6.46e+09  0.6451  -0.7199  -0.02822  0.01219  -0.005428  0.03941  0.39  -0.7698
6.461e+09  0.3099  -0.8273  -0.001321  -0.01466  -0.01359  0.02201  0.01343  -0.805
6.462e+09  0.05227  -0.9077  0.004359  0.005877  -0.02274  -0.05797  -0.1932  -0.7384
6.464e+09  -0.285  -0.8465  -0.0215  0.04531  0.00868  0.03553  -0.4416  -0.6616
6.465e+09  -0.5587  -0.6932  0.01476  -0.004638  0.01416  0.04099  -0.6771  -0.4466
6.466e+09  -0.7747  -0.5072  -0.02556  0.02232  0.008927  -0.000949  -0.784  -0.198
6.468e+09  -0.8993  -0.1339  -0.02164  -0.009067  -0.02612  -0.02491  -0.8358  0.04096
6.469e+09  -0.872  0.1169  -0.004336  -0.01347  -0.01491  0.02064  -0.707  0.3704
6.47e+09  -0.796  0.419  0.02052  -0.02773  0.02478  -0.05108  -0.5419  0.6116
6.471e+09  -0.654  0.7355  -0.04842  0.01436  0.0221  -0.04331  -0.3345  0.7374
6.472e+09  -0.3309  0.8638  0.02686  -0.01626  0.01805  -0.06425  -0.0741  0.7706
6.474e+09  -0.003686  0.8847  -0.04064  0.04182  -0.01957  -0.01619  0.2188  0.7615
6.475e+09  0.334  0.8762  -0.01947  0.05724  -0.0266  -0.02075  0.4349  0.6044
6.476e+09  0.6076  0.6643  0.01707  -0.004667  -0.03384  -0.0109  0.6802  0.407
6.478e+09  0.8507  0.458  -0.0002465  0.03855  0.009607  -0.004122  0.7508  0.171
6.479e+09  0.9015  0.1546  -0.02535  0.03255  0.01758  -0.0024  0.802  -0.05608
6.48e+09  0.9175  -0.1315  -0.009285  0.04033  0.01809  -0.0523  0.725  -0.3757
6.481e+09  0.7501  -0.4492  0.0007323  0.04799  0.009919  -0.02456  0.5594  -0.5562
6.482e+09  0.5779  -0.7362  0.01996  -0.006676  0.01508  0.0105  0.2987  -0.7251
6.484e+09  0.2978  -0.8869  0.02021  -0.01993  -0.01627  0.03687  0.031  -0.7596
6.485e+09  -0.06223  -0.94  0.01187  0.008235  -0.02571  0.01488  -0.1991  -0.7703
6.486e+09  -0.2583  -0.9079  -0.01544  0.03294  0.01186  0.003572  -0.3863  -0.6052
6.488e+09  -0.6054  -0.692  0.007752  -0.007148  -0.02505  0.003401  -0.6388  -0.4024
6.489e+09  -0.7981  -0.4904  -0.02882  0.01677  -0.06261  -0.003293  -0.7412  -0.1006
6.49e+09  -0.9402  -0.09816  -0.01152  0.007549  0.006934  -0.02542  -0.7828  0.09787
6.491e+09  -0.9446  0.1942  -0.009041  0.02103  0.02989  0.02916  -0.6976  0.3665
6.492e+09  -0.8126  0.4917  -0.01373  0.02905  0.03356  -0.00546  -0.5766  0.5613
6.494e+09  -0.5795  0.7128  0.02056  -0.01384  0.009569  -0.01478  -0.2959  0.7522
6.495e+09  -0.2635  0.8904  0.005451  -0.001303  -0.01751  0.08278  -0.05317  0.7739
6.496e+09  0.06974  0.9637  -0.006474  0.003159  -0.01757  -0.0279  0.2274  0.739
6.498e+09  0.3355  0.8476  -0.001568  0.02493  -0.008977  0.003596  0.4666  0.6192
6.499e+09  0.6628  0.6591  0.03203  -0.03607  -0.06574  -0.003988  0.6039  0.3684
6.5e+09  0.847  0.3533  -0.001463  0.01549  -0.03259  0.01835  0.8092  0.1382
6.501e+09  0.9656  0.0775  -0.01228  0.02443  -0.02805  0.04664  0.7526  -0.07755
6.502e+09  0.9239  -0.2593  0.02842  -0.0001342  -0.03414  -0.004298  0.6548  -0.3982
6.504e+09  0.7727  -0.5405  -0.007396  -0.02684  0.01047  -0.006385  0.5047  -0.5313
6.505e+09  0.5302  -0.7669  -0.008006  -0.00216  0.04749  -0.08342  0.2552  -0.7432
6.506e+09  0.2545  -0.9378  -0.01508  0.009095  -0.01164  -0.01061  0.01903  -0.7447
6.508e+09  -0.06504  -0.9835  0.023  0.03323  -0.002893  -0.009084  -0.2136  -0.7391
6.509e+09  -0.3807  -0.8537  0.01196  -0.004133  0.01891  -0.0403  -0.5146  -0.6338
6.51e+09  -0.7724  -0.6569  0.02419  -0.003588  -0.02777  0.04158  -0.6563  -0.3527
6.511e+09  -0.9051  -0.3642  0.01496  -0.005279  -0.003787  0.0228  -0.7449  -0.1793
6.512e+09  -0.958  -0.0848  0.01566  -0.02225  0.05536  -0.0137  -0.7661  0.15
6.514e+09  -0.9073  0.2881  0.005155  0.01303  -0.04597  0.004431  -0.6283  0.3706
6.515e+09  -0.7796  0.5741  0.01614  -0.0002276  -0.02366  -0.01139  -0.4745  0.5845
6.516e+09  -0.5423  0.7454  -0.01613  -0.01108  0.02732  0.001593  -0.2906  0.7176
6.518e+09  -0.1657  0.9592  0.01059  0.02517  0.06404  0.000425  0.03784  0.7246
6.519e+09  0.1461  0.9621  0.005147  0.009047  0.04656  -0.04955  0.2756  0.6976
6.52e+09  0.5028  0.8462  -0.01817  0.009304  0.02168  0.02219  0.4676  0.5659
6.521e+09  0.6859  0.673  0.02547  -0.0101  0.06062  -0.007696  0.6492  0.349
6.522e+09  0.9304  0.3046  0.02974  -0.006628  0.01832  -0.02645  0.711  0.08896
6.524e+09  0.9841  0.03449  -0.02525  -0.008951  0.05141  -0.03787  0.6885  -0.1621
6.525e+09  0.9116  -0.32  -0.0142  0.001763  0.03605  -0.004419  0.5821  -0.3971
6.526e+09  0.7259  -0.6801  -0.001956  0.02019  -0.03081  0.01096  0.42  -0.5768
6.528e+09  0.5081  -0.8917  -0.004781  -0.0007055  0.01846  -0.01796  0.2004  -0.6818
6.529e+09  0.1388  -0.9083  0.01459  -0.0108  -0.03148  0.02864  -0.02031  -0.6783
6.53e+09  -0.2649  -0.9894  0.03954  0.0173  -0.005334  -0.02187  -0.2611  -0.6129
6.531e+09  -0.5409  -0.8284  0.003635  0.004172  0.008695  -0.003019  -0.5046  -0.4939
6.532e+09  -0.8177  -0.5781  0.01485  -0.02378  0.04826  0.0007453  -0.5546  -0.3033
6.534e+09  -0.9297  -0.2119  0.009298  -0.04205  -0.001375  -0.01343  -0.6601  -0.1228
6.535e+09  -0.9506  0.1076  0.005041  -0.02943  0.03277  -0.03309  -0.6396  0.125
6.536e+09  -0.8872  0.3659  0.01483  0.03439  0.03433  0.04297  -0.5461  0.2744
6.538e+09  -0.6811  0.6513  -0.0006198  -0.01121  0.006663  -0.06516  -0.4601  0.5042
6.539e+09  -0.354  0.9227  -0.02401  0.02573  0.03088  0.04389  -0.2799  0.6279
6.54e+09  -0.03243  0.9609  0.01293  -0.01611  0.02955  -0.0004362  -0.06134  0.631
6.541e+09  0.271  0.9269  -0.03568  -0.02293  0.00976  -0.03192  0.2296  0.6878
6.542e+09  0.5542  0.7508  -0.02436  0.01277  -0.04665  0.02558  0.4019  0.5839
6.544e+09  0.8399  0.51  0.0001243  0.06448  0.01666  -0.02168  0.5923  0.387
6.545e+09  0.9779  0.1786  -0.02092  -0.01537  0.0106  -0.01386  0.6978  0.1816
6.546e+09  0.9664  -0.1467  0.003743  -0.01426  -0.05525  -0.02531  0.7154  -0.07755
6.548e+09  0.8305  -0.4763  -0.01821  -0.007908  0.03693  -0.002199  0.6364  -0.3094
6.549e+09  0.5667  -0.7504  -0.008601  0.0001605  -0.01651  0.02132  0.5119  -0.5365
6.55e+09  0.3082  -0.8872  -0.000241  0.02483  0.02148  -0.005454  0.3032  -0.6794
