# Hz S RI R 50
6.25e+09  -0.2307  0.8668  0.01712  0.002784  0.07105  0.02745  0.1491  0.4832
6.251e+09  0.004634  0.86  -0.01999  -0.0024  0.03354  0.01137  0.3903  0.4304
6.252e+09  0.3423  0.8145  -0.0008585  -0.005856  -0.004084  0.01666  0.5239  0.2712
6.254e+09  0.6271  0.6867  -0.004473  0.01495  0.03323  -0.04756  0.5817  -0.01556
6.255e+09  0.7933  0.407  0.0009608  0.01462  0.06917  0.00336  0.6282  -0.2407
6.256e+09  0.8425  0.1238  -0.01634  0.008049  -0.05504  -0.02423  0.4781  -0.436
6.258e+09  0.8222  -0.2054  -0.007363  0.035  0.02227  0.01219  0.2828  -0.6191
6.259e+09  0.7475  -0.4734  0.02606  0.0006504  0.04003  0.01166  0.03118  -0.6823
6.26e+09  0.5179  -0.7623  0.01046  0.01126  -0.02191  -0.006042  -0.1937  -0.6232
6.261e+09  0.202  -0.8236  0.01007  0.002892  -0.006931  0.00529  -0.471  -0.5141
6.262e+09  -0.07495  -0.8044  -0.0219  0.01847  0.004778  0.006619  -0.6099  -0.3598
6.264e+09  -0.2883  -0.7717  -4.674e-05  0.008881  0.000675  0.03286  -0.6996  -0.1229
6.265e+09  -0.5769  -0.6457  -0.02075  0.01749  0.003864  -0.04307  -0.7099  0.1488
6.266e+09  -0.7013  -0.4067  0.008709  0.03332  -0.04114  -0.04302  -0.6107  0.3657
6.268e+09  -0.7846  -0.04203  -0.009723  0.01165  0.01413  -0.02914  -0.439  0.5986
6.269e+09  -0.8138  0.2499  0.01497  0.01298  0.001326  -0.01731  -0.2182  0.7309
6.27e+09  -0.6778  0.4641  0.002671  0.00823  -0.002477  -0.02432  0.03228  0.7213
6.271e+09  -0.5209  0.6938  -0.01162  -0.01769  -0.01596  0.009899  0.3106  0.6567
6.272e+09  -0.275  0.7561  0.03933  0.01101  0.001326  0.0244  0.562  0.56
6.274e+09  0.06582  0.8084  0.01573  0.02989  0.04805  0.003782  0.6968  0.3173
6.275e+09  0.3467  0.6894  -0.03571  -0.02019  -0.01505  0.008178  0.8006  0.009586
6.276e+09  0.5446  0.5571  0.01199  -0.003127  -0.006371  0.01178  0.7078  -0.2319
6.278e+09  0.7798  0.3763  0.005507  -0.04137  0.00911  0.01877  0.5976  -0.4622
6.279e+09  0.8703  0.1256  0.007285  -0.01392  0.0005223  0.005319  0.4093  -0.6587
6.28e+09  0.8621  -0.2548  0.0003114  -0.02882  0.003091  -0.001594  0.1798  -0.7608
6.281e+09  0.675  -0.4935  -0.02808  0.008579  0.001323  -0.0005928  -0.09564  -0.8141
6.282e+09  0.4808  -0.6605  0.01202  -0.01291  0.04078  -0.02799  -0.3747  -0.7179
6.284e+09  0.2784  -0.8306  0.04443  0.006254  0.003376  0.04576  -0.5497  -0.5433
6.285e+09  -0.01629  -0.8083  -0.02324  0.01851  0.006393  -0.03723  -0.71  -0.2987
6.286e+09  -0.4316  -0.6836  0.01432  0.005855  0.0435  -0.06535  -0.8167  -0.04494
6.288e+09  -0.5794  -0.6328  -0.0114  0.02708  -0.03789  -0.007459  -0.7969  0.2459
6.289e+09  -0.788  -0.3611  0.0177  -0.01085  0.01449  -0.003155  -0.598  0.5075
6.29e+09  -0.8493  -0.07942  0.01943  0.001829  0.0003783  0.01965  -0.4466  0.6722
6.291e+09  -0.7781  0.2353  -0.01178  -0.005404  0.01299  0.008366  -0.1231  0.7973
6.292e+09  -0.6684  0.5121  -0.02057  -0.002306  -0.00324  -0.04822  0.164  0.8023
6.294e+09  -0.4057  0.7113  -0.002627  -0.003245  -0.01249  -0.01882  0.4157  0.6833
6.295e+09  -0.1829  0.8304  -0.01278  0.004548  0.0232  0.02254  0.5837  0.5137
6.296e+09  0.08645  0.8801  -0.006327  -0.02579  0.03587  0.01131  0.7731  0.2955
6.298e+09  0.3842  0.7309  0.01234  -0.01629  0.008477  0.002661  0.8232  -0.006074
6.299e+09  0.6762  0.5719  0.02643  0.008824  0.007719  0.02852  0.7785  -0.295
6.3e+09  0.7645  0.3497  0.004094  0.003772  -0.005974  -0.003555  0.624  -0.511
6.301e+09  0.8733  -0.003214  0.02777  0.007919  -0.006239  0.04703  0.4498  -0.739
6.302e+09  0.7647  -0.27  -0.007111  -0.01647  0.04942  -0.04609  0.1618  -0.8187
6.304e+09  0.6685  -0.5431  0.01264  -0.01187  0.01573  0.0005918  -0.1496  -0.8466
6.305e+09  0.4222  -0.6962  -0.00911  0.006546  0.03614  -0.03566  -0.4044  -0.7347
6.306e+09  0.1357  -0.8908  0.001843  -0.01042  0.02731  -0.01447  -0.6557  -0.5223
6.308e+09  -0.1723  -0.8263  0.01528  0.00686  -0.004393  -0.005821  -0.7927  -0.3104
6.309e+09  -0.4432  -0.7137  0.0006172  -0.01485  -0.0003883  -0.01958  -0.8564  -0.01988
6.31e+09  -0.6462  -0.5708  0.01811  -5.377e-05  0.0004688  0.003154  -0.7981  0.2872
6.311e+09  -0.8367  -0.266  0.00197  -0.009531  -0.006621  -0.006682  -0.6784  0.559
6.312e+09  -0.8531  0.08641  -0.0004632  0.01075  0.03569  0.007648  -0.4611  0.7353
6.314e+09  -0.7744  0.2822  -0.008501  -0.02743  -0.03033  0.04953  -0.1742  0.8423
6.315e+09  -0.6676  0.5324  -0.01879  -0.02386  -0.03028  0.04921  0.1464  0.8706
6.316e+09  -0.4003  0.7329  -0.0064  0.005499  0.014  -0.01209  0.4024  0.7771
6.318e+09  -0.1413  0.8254  0.01879  -0.01374  0.06712  0.04099  0.6919  0.5657
6.319e+09  0.2513  0.8212  -0.001845  -0.02216  0.04249  -0.06034  0.8233  0.3194
6.32e+09  0.459  0.72  -0.01709  0.003616  -0.006511  -0.03259  0.927  0.02827
6.321e+09  0.7268  0.5201  0.0006988  0.003767  0.003576  -0.00471  0.8877  -0.318
6.322e+09  0.8747  0.2407  0.00412  -0.01745  -0.04603  0.0174  0.7252  -0.5589
6.324e+09  0.8463  -0.05782  -0.001315  -0.01729  0.02563  -0.03431  0.463  -0.7557
6.325e+09  0.7939  -0.3593  0.01733  -0.004953  -0.01754  0.01634  0.1645  -0.882
6.326e+09  0.5556  -0.6512  0.004682  0.004108  0.01306  0.05102  -0.1862  -0.8774
6.328e+09  0.3798  -0.8061  0.004005  0.01438  0.02458  0.02116  -0.4126  -0.8226
6.329e+09  0.05525  -0.9037  0.009155  0.001163  0.01752  0.03166  -0.6927  -0.5841
6.33e+09  -0.2327  -0.8495  -0.006443  0.01803  -0.0083  0.0412  -0.8152  -0.3393
6.331e+09  -0.4943  -0.7128  0.004386  0.0005257  0.01361  -0.01233  -0.8958  -0.01502
6.332e+09  -0.6789  -0.5173  -0.03119  -0.02671  -0.01098  -0.03494  -0.8599  0.2777
6.334e+09  -0.7948  -0.272  0.01009  -0.003191  0.0322  0.04264  -0.7128  0.5607
6.335e+09  -0.8264  0.0508  -0.001276  0.04568  -0.03034  -0.005169  -0.4727  0.8228
6.336e+09  -0.8261  0.461  0.006896  0.01328  -0.0613  0.01877  -0.2031  0.916
6.338e+09  -0.5625  0.7051  -0.007441  0.02263  -0.01435  0.01216  0.1458  0.8599
6.339e+09  -0.3581  0.8231  0.0153  -0.01844  -0.003946  0.008568  0.4396  0.7924
6.34e+09  0.01145  0.9322  0.01868  0.002673  0.006519  0.006439  0.6932  0.6291
6.341e+09  0.2525  0.903  0.0367  -0.03762  0.03536  -0.005544  0.8439  0.3381
6.342e+09  0.5776  0.6845  0.005202  0.001962  0.03372  -0.03816  0.9525  0.01745
6.344e+09  0.7718  0.4578  0.01776  -0.02924  -0.02197  -0.04457  0.9024  -0.2497
6.345e+09  0.8783  0.1167  -0.01617  0.02193  -0.00211  -0.01431  0.7289  -0.5653
6.346e+09  0.9138  -0.1395  -0.001344  0.01067  0.003882  0.001816  0.5199  -0.7844
6.348e+09  0.7625  -0.4477  -0.04158  0.01265  0.02333  0.01461  0.2272  -0.8938
6.349e+09  0.5275  -0.6901  0.02929  0.001561  -0.04862  -0.02203  -0.1097  -0.9176
6.35e+09  0.2231  -0.8332  -0.003457  -0.01787  0.03335  0.02614  -0.3938  -0.8518
6.351e+09  -0.05577  -0.8763  -0.02123  -0.001867  0.03122  -0.04293  -0.6806  -0.6356
6.352e+09  -0.3085  -0.7993  -0.02683  -0.01263  0.03135  0.02103  -0.8734  -0.3671
6.354e+09  -0.6317  -0.6377  -0.008542  0.01279  -0.0003601  0.02475  -0.9376  -0.04498
6.355e+09  -0.8547  -0.3806  0.0165  0.003287  0.01251  -0.03383  -0.899  0.2945
6.356e+09  -0.8845  -0.05471  0.001635  -0.01776  0.0002868  0.01241  -0.765  0.5574
6.358e+09  -0.8708  0.2139  0.004504  -0.000763  -0.01758  -0.02452  -0.5407  0.7789
6.359e+09  -0.7639  0.4798  0.006115  0.02041  0.008836  0.0166  -0.2232  0.9167
6.36e+09  -0.4842  0.7477  0.01431  0.005288  0.004006  0.008675  0.1114  0.9473
6.361e+09  -0.2626  0.8731  -0.003886  -0.03645  0.05131  0.06643  0.3998  0.8167
6.362e+09  0.1194  0.8778  -0.01339  0.02986  -0.05189  0.003404  0.6724  0.654
6.364e+09  0.3875  0.7962  0.03248  0.03453  -0.004169  -0.006974  0.8504  0.4024
6.365e+09  0.6184  0.6155  -0.01365  -0.01165  0.01745  0.01699  0.9622  0.08876
6.366e+09  0.8572  0.3538  0.008659  0.02707  0.009419  -0.02813  0.9222  -0.2279
6.368e+09  0.8876  0.03856  -0.03001  -0.001839  0.009761  0.04083  0.7622  -0.5383
6.369e+09  0.8482  -0.2674  -0.01146  -0.0397  0.009225  0.01824  0.5497  -0.7602
6.37e+09  0.7148  -0.5638  0.01143  0.0003709  -0.03809  0.02565  0.2359  -0.9042
6.371e+09  0.4685  -0.7335  0.01537  -0.01078  -0.005755  -0.05133  -0.07835  -0.9443
6.372e+09  0.1841  -0.8964  0.01813  0.03389  -0.02082  -0.0203  -0.415  -0.8607
6.374e+09  -0.1373  -0.8614  -0.003517  0.03007  0.001366  0.02847  -0.6641  -0.6749
6.375e+09  -0.4255  -0.7995  -0.0009524  -0.01744  0.008473  0.07224  -0.8363  -0.4131
6.376e+09  -0.6631  -0.5755  0.00842  0.01672  -0.01359  -0.01525  -0.983  -0.1098
6.378e+09  -0.828  -0.2816  -0.02524  0.02812  -0.05336  0.02048  -0.909  0.2533
6.379e+09  -0.9275  0.04457  0.01705  -0.01585  -0.0005788  0.007635  -0.756  0.5295
6.38e+09  -0.8431  0.3295  -0.0008713  0.003676  0.03369  0.01276  -0.5483  0.811
6.381e+09  -0.6911  0.6077  0.005321  -0.004858  0.02793  0.00945  -0.2447  0.8848
6.382e+09  -0.4081  0.7595  -0.01793  0.01017  0.01279  0.01451  0.05859  0.9607
6.384e+09  -0.135  0.8593  -0.01141  0.02326  0.04947  0.00575  0.3783  0.8875
6.385e+09  0.1696  0.8993  0.0452  -0.01237  0.05452  0.006317  0.6633  0.6852
6.386e+09  0.44  0.7807  -0.01703  0.01501  -0.01966  -0.002596  0.8229  0.3802
6.388e+09  0.6893  0.5642  0.04561  -0.009961  -0.02368  0.02345  0.9575  0.1407
6.389e+09  0.8722  0.3045  0.01248  -0.02219  -0.0309  0.01359  0.9222  -0.2035
6.39e+09  0.9417  -0.02425  -0.009823  0.02617  0.003065  0.03002  0.7597  -0.5007
6.391e+09  0.7721  -0.3588  -0.06666  0.0184  0.01858  0.02689  0.5477  -0.7451
6.392e+09  0.6808  -0.6237  0.03795  0.008923  0.002321  0.02616  0.2861  -0.9077
6.394e+09  0.4193  -0.7834  -0.007951  0.009743  0.002746  -0.02496  -0.06937  -0.9185
6.395e+09  0.09417  -0.9005  0.02411  0.01657  0.008722  0.0173  -0.3323  -0.848
6.396e+09  -0.2514  -0.8487  -0.003472  -0.004188  -0.03267  0.02281  -0.6077  -0.6986
6.398e+09  -0.5104  -0.7373  0.0001546  0.006983  0.00597  -0.02182  -0.8443  -0.4613
6.399e+09  -0.7241  -0.5344  0.02662  0.007348  0.04931  -0.06085  -0.9439  -0.1767
6.4e+09  -0.8531  -0.2615  0.03494  0.01175  0.04434  0.02047  -0.916  0.137
6.401e+09  -0.8689  0.02759  0.0112  0.004837  0.03678  -0.004585  -0.8112  0.4951
6.402e+09  -0.8488  0.3678  -0.003595  -0.009419  -0.01759  0.03581  -0.5637  0.7112
6.404e+09  -0.6225  0.5993  0.03785  -0.01453  0.009096  -0.0376  -0.3365  0.8582
6.405e+09  -0.3506  0.828  0.03515  0.04121  -0.005098  0.005027  -0.05215  0.942
6.406e+09  -0.1097  0.8488  0.00291  0.01206  0.05343  0.05383  0.3305  0.8827
6.408e+09  0.2199  0.9129  0.004078  0.006271  0.03473  0.01381  0.5903  0.6645
6.409e+09  0.4593  0.7187  -0.03341  0.03007  -0.01628  0.0311  0.8129  0.4651
6.41e+09  0.7123  0.5129  0.03699  0.0181  -0.01328  0.04349  0.9844  0.1503
6.411e+09  0.8611  0.1965  0.01435  -0.0078  0.004841  0.007163  0.8826  -0.1415
6.412e+09  0.9011  -0.1026  -0.00769  0.01949  0.00745  -0.04332  0.8287  -0.4363
6.414e+09  0.8495  -0.3836  -0.00663  -0.01563  0.01714  0.01646  0.6102  -0.7039
6.415e+09  0.6308  -0.6389  -0.02053  -0.02486  -0.03964  0.04239  0.349  -0.83
6.416e+09  0.389  -0.8229  0.02226  -0.01081  -6.553e-05  0.003332  -0.01998  -0.8989
6.418e+09  0.08147  -0.9437  0.0508  0.03789  -0.03509  -0.009469  -0.2367  -0.8651
6.419e+09  -0.288  -0.8746  0.01157  0.005399  0.002058  -0.003094  -0.5276  -0.704
6.42e+09  -0.4992  -0.7259  -0.02223  -0.01302  0.0077  0.01506  -0.735  -0.4923
6.421e+09  -0.7625  -0.4866  -0.03186  -0.0349  -0.05742  0.07012  -0.8862  -0.2269
6.422e+09  -0.8518  -0.2124  0.02579  0.0004892  0.01732  -0.006034  -0.9125  0.08976
6.424e+09  -0.9159  0.1011  0.01499  -0.06814  -0.01489  0.0008415  -0.8094  0.3635
6.425e+09  -0.8199  0.3725  0.004068  -0.04039  -0.05378  0.006108  -0.5685  0.5968
6.426e+09  -0.6019  0.6242  -0.01155  -0.01622  0.044  0.02495  -0.3221  0.8132
6.428e+09  -0.3443  0.802  -0.03413  -0.000177  -0.003919  0.01592  -0.01209  0.8791
6.429e+09  -0.08498  0.9054  -0.03506  -0.02393  -0.00686  0.04901  0.2616  0.8919
6.43e+09  0.2457  0.8288  -0.005973  0.01494  0.03452  -0.008885  0.5094  0.7369
6.431e+09  0.4927  0.7288  0.0278  -0.0004047  0.01874  0.004382  0.7663  0.4828
6.432e+09  0.756  0.4887  -0.003093  0.04692  -0.0253  -0.0009315  0.8332  0.1943
6.434e+09  0.8512  0.2194  0.004175  -0.02388  0.003532  -0.003738  0.8501  -0.0684
6.435e+09  0.8971  -0.1531  -0.0009729  0.02967  -0.03378  -0.03291  0.8328  -0.3823
6.436e+09  0.7571  -0.423  0.01423  -0.007704  0.002554  0.0273  0.6289  -0.5805
6.438e+09  0.5989  -0.6538  0.0003493  -0.02043  -0.0597  -0.0145  0.3131  -0.8024
6.439e+09  0.368  -0.8105  -0.02825  -0.02346  -0.01529  -0.04821  0.0949  -0.8712
6.44e+09  0.0533  -0.9151  -0.03895  -0.02997  0.01575  0.009348  -0.2172  -0.7603
6.441e+09  -0.2781  -0.907  -0.04492  -0.002779  0.00231  0.0304  -0.503  -0.6621
6.442e+09  -0.5531  -0.7242  0.03385  -0.01666  0.0001936  -0.04675  -0.7255  -0.4675
6.444e+09  -0.8029  -0.5226  0.009731  -0.008277  0.003966  -0.01609  -0.8509  -0.2041
6.445e+09  -0.8964  -0.2147  0.02646  -0.01135  -0.01512  0.01762  -0.8438  0.07514
6.446e+09  -0.895  0.1291  0.01518  -0.04874  0.004047  -0.01027  -0.7539  0.34
6.448e+09  -0.8012  0.389  -0.03511  0.01824  0.01559  0.04471  -0.6033  0.6006
6.449e+09  -0.6301  0.6419  -0.006687  -0.04488  0.02394  0.03456  -0.3058  0.7688
6.45e+09  -0.3212  0.8359  -0.00574  0.00779  -0.01845  -0.02563  -0.02087  0.8076
6.451e+09  0.007976  0.9089  -0.007782  0.002212  -0.0125  -0.004655  0.1915  0.833
6.452e+09  0.2914  0.7894  0.0009726  -0.009284  0.03024  0.03943  0.4339  0.6461
6.454e+09  0.5073  0.7076  -0.02246  -0.01429  0.002626  0.0858  0.6772  0.406
6.455e+09  0.7993  0.4447  -0.006633  -0.03203  0.02169  0.004096  0.8026  0.2458
6.456e+09  0.8996  0.122  -0.02565  0.02367  0.0184  -0.01523  0.8832  -0.08206
6.458e+09  0.8992  -0.1216  0.05065  -0.006355  0.0008971  -0.03042  0.7487  -0.363
6.459e+09  0.8328  -0.4608  0.07556  0.0123  -0.01824  0.04109  0.6065  -0.5934
6.46e+09  0.6231  -0.6472  0.01184  0.005644  -0.01156  0.031  0.3519  -0.7552
6.461e+09  0.3029  -0.8529  -0.02354  0.01466  0.004474  0.004889  0.04525  -0.8254
6.462e+09  0.04075  -0.9229  -0.01529  -0.003306  0.008783  -0.02124  -0.218  -0.7778
6.464e+09  -0.285  -0.8646  -0.02319  0.03112  0.008181  0.009427  -0.4793  -0.6496
6.465e+09  -0.5846  -0.7067  -0.02355  0.0006582  0.02109  0.02785  -0.6762  -0.4517
6.466e+09  -0.8096  -0.5059  0.003067  -0.001761  0.01405  0.06858  -0.7318  -0.21
6.468e+09  -0.9001  -0.1909  -0.0001518  -0.002561  0.005422  0.02973  -0.7973  0.08807
6.469e+09  -0.896  0.2114  0.05297  -0.00426  0.02457  0.05082  -0.7206  0.3165
6.47e+09  -0.8144  0.4778  0.0237  0.01641  0.003559  -0.007781  -0.5745  0.5029
6.471e+09  -0.595  0.7403  -0.003308  0.007152  0.002115  -0.02561  -0.3489  0.771
6.472e+09  -0.3235  0.866  -0.01012  -0.02826  -0.007586  -0.006292  -0.05966  0.7972
6.474e+09  0.008439  0.8846  0.005202  -0.006667  -0.04189  -0.03964  0.252  0.718
6.475e+09  0.3257  0.8733  0.0212  -0.03346  -0.04239  -0.008738  0.4449  0.5952
6.476e+09  0.6465  0.6885  0.0032  -0.01339  -0.01522  -0.01747  0.6386  0.441
6.478e+09  0.8303  0.4407  -0.02505  0.004493  -0.02258  0.001249  0.8019  0.1672
6.479e+09  0.8927  0.1545  -0.008561  -0.03544  0.05357  0.02049  0.8093  -0.1361
6.48e+09  0.9484  -0.2205  0.007608  0.0005771  0.03128  0.03521  0.7224  -0.3192
6.481e+09  0.7708  -0.5405  -0.009675  -0.02028  0.03462  0.01124  0.4958  -0.5835
6.482e+09  0.5821  -0.7559  -0.004871  -0.03832  0.05564  -0.005398  0.3375  -0.7324
6.484e+09  0.27  -0.79  -0.002457  0.02085  -0.01574  -0.03976  0.03855  -0.8218
6.485e+09  -0.03181  -0.9781  -0.01705  -0.01044  -0.02127  -0.00296  -0.2285  -0.7412
6.486e+09  -0.4172  -0.8942  -0.05055  0.004138  0.05043  0.0003571  -0.43  -0.5908
6.488e+09  -0.6631  -0.704  -0.008039  -0.02874  0.004246  -0.03762  -0.6656  -0.414
6.489e+09  -0.8422  -0.4241  0.00991  -0.03324  -0.02376  0.00203  -0.7529  -0.2199
6.49e+09  -0.9661  -0.09377  -0.01478  -0.01067  -0.000303  -0.02846  -0.7856  0.09583
6.491e+09  -0.8941  0.2025  -0.01256  0.02984  0.001483  0.008265  -0.6671  0.3659
6.492e+09  -0.7867  0.5107  0.01908  -0.00697  -0.01083  1.236e-05  -0.5209  0.6099
6.494e+09  -0.5718  0.7439  0.02668  0.001402  0.01252  0.009561  -0.3166  0.7047
6.495e+09  -0.2612  0.919  0.0217  -0.01745  0.02199  -0.002052  -0.07327  0.7519
6.496e+09  0.06437  0.9321  0.0149  -0.004879  0.03069  0.01526  0.2539  0.6948
6.498e+09  0.4237  0.8709  -0.00291  0.01173  0.001179  0.03103  0.4312  0.6319
6.499e+09  0.6821  0.6631  0.003769  -0.02059  -0.002737  -0.03406  0.65  0.4076
6.5e+09  0.887  0.4268  0.009884  -0.00103  0.02687  -0.01907  0.7757  0.1582
6.501e+09  0.9513  0.05487  0.0344  0.01214  0.008696  -0.006682  0.76  -0.09702
6.502e+09  0.9161  -0.2402  0.01937  0.0145  -0.001963  -0.02547  0.6513  -0.3556
6.504e+09  0.7863  -0.5302  -0.01727  0.007409  0.006731  0.01342  0.5077  -0.5801
6.505e+09  0.5875  -0.7657  0.04047  -0.04495  -0.0166  -0.02575  0.2482  -0.6673
6.506e+09  0.2246  -0.9445  -0.003959  0.005037  0.01291  0.0368  0.01328  -0.7427
6.508e+09  -0.07927  -0.961  0.04635  -0.02852  -0.0009964  -0.02653  -0.2372  -0.6968
6.509e+09  -0.4519  -0.8279  0.007361  0.0002315  -0.02016  0.07755  -0.5011  -0.567
6.51e+09  -0.7341  -0.673  0.005106  -0.0008898  -0.01012  0.01128  -0.6289  -0.3947
6.511e+09  -0.8379  -0.3669  0.00569  0.006301  0.01108  0.02126  -0.7453  -0.092
6.512e+09  -0.9392  -0.02001  -0.01974  0.03037  -0.01418  -0.01943  -0.7122  0.1401
6.514e+09  -0.9064  0.3087  0.0103  0.02208  -0.02325  0.044  -0.641  0.3745
6.515e+09  -0.7847  0.5981  -0.009139  0.017  0.05257  0.05131  -0.4436  0.6
6.516e+09  -0.5287  0.8641  0.03044  -0.01323  -0.03013  -0.006042  -0.2519  0.7442
6.518e+09  -0.1744  0.9681  -0.02613  0.0001825  -0.03889  0.02488  0.00839  0.7725
6.519e+09  0.1506  0.9533  0.009299  0.02646  0.04829  -0.02761  0.2697  0.7025
6.52e+09  0.4682  0.826  0.01364  0.01454  -0.0007647  0.01353  0.5  0.5501
6.521e+09  0.7297  0.6131  0.01042  -0.002391  -0.02341  0.007041  0.6842  0.3292
6.522e+09  1.01  0.3039  0.008619  0.008161  0.04924  -0.04273  0.7336  0.108
6.524e+09  0.9699  -0.05495  -0.03448  0.02966  0.02223  -0.009524  0.6779  -0.1704
6.525e+09  0.8359  -0.3725  -0.004658  -0.0415  -0.00791  0.03292  0.5855  -0.3977
6.526e+09  0.6824  -0.6755  -0.01429  0.0211  0.04442  -7.166e-05  0.4049  -0.6184
6.528e+09  0.4176  -0.8428  0.009078  -0.03012  0.05508  0.03386  0.1823  -0.6715
6.529e+09  0.1235  -0.9867  0.01323  -0.009235  0.003802  -0.02416  -0.05632  -0.7079
6.53e+09  -0.2483  -0.9893  -0.04192  -0.01118  0.005731  -0.008548  -0.2768  -0.6243
6.531e+09  -0.5776  -0.7769  0.01198  0.008498  -0.02876  0.01251  -0.4901  -0.4886
6.532e+09  -0.7782  -0.5403  0.02015  0.01788  -0.0275  0.05302  -0.6324  -0.2943
6.534e+09  -0.9669  -0.2249  -0.02596  -0.02473  0.02018  0.04753  -0.6388  -0.05021
6.535e+09  -1.006  0.1315  -0.02092  0.03739  0.008894  -0.01326  -0.6264  0.1231
6.536e+09  -0.8884  0.4705  0.00821  -0.004519  0.03413  -0.03242  -0.5371  0.3111
6.538e+09  -0.6373  0.725  0.002911  -0.01709  -0.04332  -0.01173  -0.4569  0.514
6.539e+09  -0.3628  0.9192  -0.003158  0.0352  -0.008121  0.01743  -0.2791  0.6479
6.54e+09  -0.01261  0.9388  0.04417  0.01535  0.01742  -0.006198  -0.0394  0.6961
6.541e+09  0.3177  0.984  -0.01454  -0.02598  0.03486  0.02634  0.191  0.6459
6.542e+09  0.6266  0.7692  0.01005  0.02461  -0.03563  0.04711  0.3995  0.5644
6.544e+09  0.8354  0.4896  0.008579  -0.004381  -0.02422  -0.001157  0.5963  0.412
6.545e+09  0.9275  0.1351  -0.01069  0.03374  0.0003644  0.01519  0.6908  0.1812
6.546e+09  0.9484  -0.1673  0.02178  -0.008153  0.03228  0.009978  0.767  -0.07915
6.548e+09  0.8092  -0.4722  0.001644  0.01014  -0.04635  -0.004416  0.6593  -0.3145
6.549e+09  0.6163  -0.7022  0.03237  -0.03299  -0.01967  -0.01842  0.5304  -0.5604
6.55e+09  0.3096  -0.9109  -0.03952  0.05826  -0.01685  -0.01279  0.307  -0.6615
