# Hz S RI R 50
6.25e+09  -0.5056  -0.6027  0.02276  0.00887  -0.03898  0.008704  0.1467  0.4988
6.251e+09  -0.6864  -0.4906  -0.009487  0.01587  -0.0418  -0.02362  0.3837  0.4281
6.252e+09  -0.6984  -0.1522  0.002594  0.006027  -0.01091  -0.02405  0.5074  0.2546
6.254e+09  -0.7993  0.1683  0.01613  0.01569  0.05161  0.01997  0.5911  0.04377
6.255e+09  -0.7389  0.415  -0.01059  0.01512  -0.02129  -0.07661  0.5763  -0.2127
6.256e+09  -0.4291  0.622  -0.0109  0.01779  0.007963  0.02337  0.5117  -0.4384
6.258e+09  -0.238  0.7744  -0.06405  0.009707  0.02919  -0.04663  0.2589  -0.6012
6.259e+09  -0.01156  0.8053  -0.0102  0.01604  -0.02314  -0.01518  0.01727  -0.6841
6.26e+09  0.2719  0.7295  -0.01519  0.007215  0.03619  0.02034  -0.2101  -0.6733
6.261e+09  0.5674  0.5852  0.003342  -0.008261  0.00646  -0.0409  -0.4238  -0.5182
6.262e+09  0.6744  0.3486  -0.005357  -0.005679  0.03036  -0.06064  -0.605  -0.374
6.264e+09  0.7623  0.1242  0.003861  -0.007967  -0.007419  -0.01698  -0.6994  -0.09724
6.265e+09  0.7244  -0.207  -0.003018  0.001631  -0.02058  0.01843  -0.7266  0.1536
6.266e+09  0.6085  -0.4639  -0.009436  0.01305  0.01865  0.06954  -0.6288  0.4183
6.268e+09  0.4539  -0.6771  -0.007046  0.03143  -0.02305  -0.05364  -0.3958  0.596
6.269e+09  0.1644  -0.7556  -0.00742  0.003954  0.04457  -0.0773  -0.199  0.7079
6.27e+09  -0.1175  -0.7584  -0.02644  0.01709  0.008051  -0.05099  0.06734  0.7723
6.271e+09  -0.3445  -0.7515  -0.007031  -0.0006551  0.006135  0.01883  0.3373  0.6588
6.272e+09  -0.5838  -0.5245  -0.007145  0.03082  -0.01873  0.01765  0.5388  0.5331
6.274e+09  -0.7389  -0.2617  -0.01457  -0.02213  -0.0318  -0.008573  0.6902  0.3425
6.275e+09  -0.7927  0.02714  0.02387  -0.0151  -0.01789  0.01024  0.778  0.05373
6.276e+09  -0.7334  0.3146  0.005228  0.007506  -0.04177  -0.01869  0.7248  -0.2423
6.278e+09  -0.5675  0.4995  -0.001662  0.01231  0.01412  -0.003664  0.621  -0.491
6.279e+09  -0.4074  0.6917  0.02595  -0.01592  0.0006737  0.008857  0.4279  -0.6822
6.28e+09  -0.0905  0.8363  0.01412  0.01424  -0.03741  -0.0246  0.1791  -0.7433
6.281e+09  0.1599  0.7674  -0.0003679  0.02669  0.01223  0.01475  -0.09527  -0.7753
6.282e+09  0.4188  0.6645  -0.009854  0.004898  -0.02754  -0.02818  -0.3632  -0.7178
6.284e+09  0.6756  0.5754  -0.01565  0.003586  -0.03726  -0.01377  -0.6015  -0.5143
6.285e+09  0.7613  0.2235  -0.001202  -0.004605  0.01387  0.009814  -0.7345  -0.2906
6.286e+09  0.8086  -0.04998  0.01527  0.006581  0.007855  0.04456  -0.7851  -0.01039
6.288e+09  0.7025  -0.3574  0.01671  -0.000174  0.02483  -0.0489  -0.7602  0.2385
6.289e+09  0.6012  -0.5796  -0.02547  0.0003347  -0.04671  0.02769  -0.6258  0.5043
6.29e+09  0.3336  -0.7122  -0.01001  0.01756  -0.02642  0.03472  -0.4291  0.6749
6.291e+09  0.05128  -0.829  0.01732  0.01962  -0.003333  0.05541  -0.1718  0.7658
6.292e+09  -0.2221  -0.7629  0.05624  0.008675  -0.02494  0.06695  0.1031  0.8378
6.294e+09  -0.5004  -0.6809  0.001819  0.006988  0.008497  0.004485  0.4062  0.7524
6.295e+09  -0.6937  -0.4389  -0.03024  0.02257  -0.07235  -0.02073  0.6308  0.5124
6.296e+09  -0.8049  -0.1915  0.04654  0.03113  -0.02114  0.0327  0.7739  0.2676
6.298e+09  -0.8128  0.08173  0.01238  -0.007479  0.01914  -0.003318  0.7949  0.006628
6.299e+09  -0.714  0.3332  0.03871  0.01908  0.04493  0.003356  0.8091  -0.2726
6.3e+09  -0.5645  0.6263  -0.01801  -0.01391  -0.02851  0.04708  0.6487  -0.5225
6.301e+09  -0.283  0.7406  0.01244  0.01629  0.01741  -0.0034  0.4299  -0.7374
6.302e+09  0.003904  0.7983  0.008651  0.008206  -0.002295  0.03083  0.1607  -0.8158
6.304e+09  0.3401  0.757  -0.02628  0.00321  -0.01446  -0.02038  -0.1449  -0.8282
6.305e+09  0.609  0.6184  0.01118  -0.005357  -0.04103  0.00617  -0.3939  -0.7514
6.306e+09  0.6754  0.3597  0.02583  0.02326  -0.0002487  -0.001896  -0.6596  -0.5509
6.308e+09  0.8368  0.1228  0.005673  -0.008125  0.0099  0.01545  -0.8028  -0.3341
6.309e+09  0.8029  -0.1841  -0.02083  -0.01896  -0.0004582  0.01687  -0.8496  -0.02096
6.31e+09  0.7486  -0.4237  -0.003526  -0.005955  -0.04635  -0.02447  -0.7963  0.2594
6.311e+09  0.4582  -0.6255  0.005743  -0.03021  0.01316  -0.03175  -0.6543  0.5454
6.312e+09  0.2296  -0.7932  -0.03493  -0.01454  -0.04157  0.03685  -0.4551  0.7604
6.314e+09  -0.05469  -0.7692  0.01888  -0.01196  0.03428  0.04228  -0.1658  0.8867
6.315e+09  -0.274  -0.758  -0.01094  -0.03522  0.05079  -0.02592  0.1631  0.8676
6.316e+09  -0.5794  -0.5469  4.97e-05  0.03593  -0.005448  -0.005703  0.4136  0.7566
6.318e+09  -0.7045  -0.3466  0.006701  0.0138  0.004536  0.04363  0.6653  0.5671
6.319e+09  -0.8277  -0.1163  0.03439  -0.005931  -0.01737  0.01636  0.8134  0.2962
6.32e+09  -0.783  0.2232  -0.009979  0.02488  -0.02521  -0.008411  0.8969  0.0001248
6.321e+09  -0.6814  0.4985  0.0005718  0.01179  0.009415  -0.03287  0.8586  -0.2959
6.322e+09  -0.4547  0.7075  0.006515  0.006859  -0.004843  0.01632  0.7032  -0.5597
6.324e+09  -0.116  0.8206  0.02173  -0.006922  -0.02823  -0.01228  0.4769  -0.7474
6.325e+09  0.09146  0.778  -0.00307  -0.03048  -0.05333  0.0184  0.1691  -0.9048
6.326e+09  0.37  0.7543  -0.00476  -0.007266  0.04785  0.02492  -0.1307  -0.8832
6.328e+09  0.6725  0.5424  -0.02348  -0.004559  0.006558  0.03711  -0.4258  -0.7706
6.329e+09  0.7695  0.3261  -0.02357  -0.03115  0.04974  -0.01843  -0.6582  -0.6326
6.33e+09  0.8011  0.03382  -0.01086  0.0224  -0.02768  -0.01222  -0.8439  -0.3685
6.331e+09  0.7518  -0.3346  -0.009358  -0.0172  -0.01185  -0.02756  -0.9102  -0.02733
6.332e+09  0.6565  -0.5069  0.02833  -0.0001427  0.004974  -0.0004655  -0.8786  0.293
6.334e+09  0.4079  -0.7434  0.01147  0.01369  0.02269  -0.006344  -0.7152  0.5972
6.335e+09  0.09751  -0.8334  -0.009955  0.01771  0.04353  -0.03293  -0.4809  0.7532
6.336e+09  -0.1302  -0.7633  0.003975  -0.001343  0.007402  0.005425  -0.1776  0.8784
6.338e+09  -0.4483  -0.7108  0.01295  -0.002123  0.02263  0.01528  0.1535  0.9044
6.339e+09  -0.6637  -0.4913  0.007634  -0.002164  0.02535  -0.03596  0.4264  0.8273
6.34e+09  -0.7971  -0.214  0.01128  -0.009462  0.04076  -0.0188  0.7091  0.6061
6.341e+09  -0.8255  0.07943  -0.007201  -0.01042  0.06038  -0.005278  0.8384  0.3321
6.342e+09  -0.7089  0.3814  0.0004563  0.009678  -0.02137  0.03054  0.9499  0.0498
6.344e+09  -0.5345  0.6316  0.02761  0.009628  -0.02907  -0.03299  0.8839  -0.2955
6.345e+09  -0.3395  0.764  0.01306  0.008927  -0.03071  0.01602  0.7449  -0.5509
6.346e+09  -0.04407  0.862  -0.02329  -0.02337  0.01279  -0.04626  0.5312  -0.7987
6.348e+09  0.2578  0.8401  0.05783  -0.0258  0.00568  0.04634  0.191  -0.8876
6.349e+09  0.5215  0.6978  0.0345  0.01552  -0.02304  -0.03913  -0.08195  -0.9044
6.35e+09  0.7291  0.3899  0.04616  0.04632  0.01402  0.03649  -0.4204  -0.819
6.351e+09  0.7914  0.1742  -0.00135  -0.04429  -0.03288  -0.00221  -0.6969  -0.6302
6.352e+09  0.8723  -0.154  -0.003871  0.02733  0.02344  -0.005958  -0.8667  -0.3792
6.354e+09  0.7423  -0.4596  -0.01268  0.007014  0.0009026  0.006015  -0.9462  -0.06124
6.355e+09  0.507  -0.6672  0.00342  0.03472  -0.01397  0.0238  -0.9162  0.2805
6.356e+09  0.1875  -0.804  0.02631  0.01271  -0.0125  0.02683  -0.7354  0.5436
6.358e+09  -0.09909  -0.8602  -0.02547  0.03476  0.01605  0.005913  -0.5024  0.7746
6.359e+09  -0.3537  -0.7302  -0.01722  0.01236  -0.01603  0.03644  -0.239  0.943
6.36e+09  -0.5828  -0.5732  -0.008259  0.001916  -0.02465  0.001249  0.06412  0.9012
6.361e+09  -0.841  -0.3266  -0.04512  0.03537  0.003432  0.03252  0.4218  0.8433
6.362e+09  -0.808  -0.05282  0.003471  -0.01291  0.007179  -0.001645  0.6611  0.671
6.364e+09  -0.7959  0.2525  0.01373  0.02029  0.001214  0.02816  0.88  0.4445
6.365e+09  -0.6773  0.5346  0.01231  -0.0003354  -0.03494  -0.006996  0.9601  0.03683
6.366e+09  -0.422  0.7347  0.03742  0.0207  0.0101  0.03987  0.9414  -0.2305
6.368e+09  -0.1615  0.7932  -0.03331  0.009395  0.06168  -0.05981  0.7942  -0.5289
6.369e+09  0.1569  0.8581  0.01756  0.01975  0.04113  -0.02971  0.5202  -0.7736
6.37e+09  0.4144  0.7314  -0.03618  -0.007516  0.02524  0.01568  0.2371  -0.9146
6.371e+09  0.7098  0.5364  -0.01497  0.003974  0.0367  0.008973  -0.06605  -0.9466
6.372e+09  0.8123  0.2397  0.02819  0.01674  -0.03012  0.03051  -0.4037  -0.8825
6.374e+09  0.8833  -0.05802  0.02416  0.006335  -0.02024  0.04352  -0.6681  -0.6871
6.375e+09  0.7659  -0.3377  0.01789  -0.04117  0.0003389  -0.01493  -0.8355  -0.427
6.376e+09  0.5778  -0.647  0.01425  0.02429  0.005104  -0.02534  -0.9276  -0.08632
6.378e+09  0.2992  -0.8299  0.01247  0.02429  -0.01491  -0.03773  -0.9226  0.2183
6.379e+09  0.06584  -0.8977  -0.02259  -0.006018  -0.03206  -0.01198  -0.7836  0.5412
6.38e+09  -0.2795  -0.8008  -0.02662  -0.02269  -0.002431  -0.01821  -0.526  0.7882
6.381e+09  -0.523  -0.6808  -0.02432  -0.02048  0.007534  -0.03854  -0.2656  0.9233
6.382e+09  -0.7667  -0.4216  0.006202  -0.0233  -0.004205  0.02492  0.06649  0.9498
6.384e+09  -0.8444  -0.09796  -0.001746  0.03017  -0.009119  -0.007189  0.3816  0.8507
6.385e+09  -0.8293  0.1978  0.02082  -0.03522  0.03606  -0.02512  0.6342  0.6853
6.386e+09  -0.7502  0.4739  -0.003248  0.02062  -0.02817  -0.03667  0.8299  0.4256
6.388e+09  -0.4967  0.6846  -0.02084  0.004733  0.0143  0.009148  0.9332  0.09015
6.389e+09  -0.2736  0.8295  -0.0389  -0.01265  0.0204  0.02289  0.9467  -0.1898
6.39e+09  0.04714  0.8208  0.01001  -0.02897  0.004081  0.01199  0.7973  -0.5161
6.391e+09  0.332  0.821  0.02899  0.0162  -0.0141  0.05749  0.5786  -0.7762
6.392e+09  0.647  0.6068  0.008329  0.0168  -0.00944  0.03558  0.2953  -0.9067
6.394e+09  0.8249  0.3817  -0.04575  -0.0008344  -0.01522  -0.03715  -0.01657  -0.9216
6.395e+09  0.9262  0.06749  -0.008719  -0.006523  -0.006141  0.02179  -0.3628  -0.8649
6.396e+09  0.8584  -0.2886  -0.02418  -0.04772  0.02619  0.01517  -0.6427  -0.7078
6.398e+09  0.6452  -0.5468  -0.01171  -0.005924  -0.009682  -0.005253  -0.8486  -0.3934
6.399e+09  0.422  -0.7598  0.02014  -0.05216  -0.01669  -0.02395  -0.9246  -0.1601
6.4e+09  0.1342  -0.8549  0.02226  -0.02899  -0.03416  0.0222  -0.901  0.2078
6.401e+09  -0.1458  -0.8718  -0.009625  -0.008167  -0.01599  -0.00681  -0.8032  0.4799
6.402e+09  -0.4761  -0.7566  -0.004267  -0.02804  -0.01454  0.004686  -0.6328  0.6795
6.404e+09  -0.6737  -0.5153  0.001534  -0.03915  0.009359  0.01665  -0.2935  0.8555
6.405e+09  -0.8448  -0.2582  0.01765  -0.02476  0.03362  -0.0003077  -0.01774  0.9136
6.406e+09  -0.8688  0.04995  0.008087  -0.03126  0.01939  -0.01564  0.3053  0.8534
6.408e+09  -0.7206  0.3585  -0.03847  0.02561  0.01943  -0.01464  0.5798  0.7232
6.409e+09  -0.5567  0.6428  0.001468  -0.01785  0.008291  -0.001515  0.7881  0.4508
6.41e+09  -0.3542  0.7694  0.02677  -0.05001  0.01914  0.02503  0.9273  0.1877
6.411e+09  -0.06918  0.8594  0.005933  0.05142  0.02927  -0.002344  0.9105  -0.1219
6.412e+09  0.2703  0.8289  0.02309  -0.07135  0.01539  -0.01945  0.8012  -0.4436
6.414e+09  0.5373  0.6779  -0.0003751  0.009353  0.02211  0.02004  0.5975  -0.6943
6.415e+09  0.7272  0.4477  0.01316  -0.02345  0.02596  0.01002  0.3498  -0.8083
6.416e+09  0.875  0.1711  -0.01816  0.001929  0.03818  -0.01749  0.006176  -0.9221
6.418e+09  0.8546  -0.1294  0.005624  -0.01925  0.0001063  0.03467  -0.2783  -0.8955
6.419e+09  0.7484  -0.4219  -0.005066  -0.01632  -0.01948  -0.04166  -0.5588  -0.6479
6.42e+09  0.5393  -0.6448  0.01057  0.02661  -0.009581  0.01772  -0.7841  -0.4536
6.421e+09  0.2696  -0.7626  -0.002842  0.01055  -0.001166  0.001348  -0.869  -0.2069
6.422e+09  0.001781  -0.8571  -0.02152  0.0162  0.0438  -0.01401  -0.8853  0.07426
6.424e+09  -0.3287  -0.8152  -0.02664  0.01173  0.01302  -0.005044  -0.7959  0.3686
6.425e+09  -0.5636  -0.6124  0.0147  0.01066  -0.0008941  0.03028  -0.6038  0.6892
6.426e+09  -0.7513  -0.364  0.02236  -0.003679  0.0002644  -0.04873  -0.3365  0.8126
6.428e+09  -0.8489  -0.09709  -0.03578  0.02579  -0.07458  0.03177  -0.04474  0.9038
6.429e+09  -0.8746  0.2339  -0.02698  0.05217  -0.02007  0.0419  0.2891  0.8138
6.43e+09  -0.6979  0.4986  0.01208  0.02683  -0.01167  0.01436  0.5034  0.7044
6.431e+09  -0.5199  0.7296  -0.002921  -0.03918  0.01907  -0.03482  0.7332  0.4817
6.432e+09  -0.2182  0.838  -0.025  0.03826  0.02604  0.00471  0.8445  0.2068
6.434e+09  0.0629  0.8624  -0.03751  0.008905  -0.04606  0.05482  0.8657  -0.07744
6.435e+09  0.4188  0.7682  0.01004  -0.03859  0.02832  -0.01319  0.8248  -0.3671
6.436e+09  0.6279  0.5685  -0.01608  -0.01516  -0.01474  0.02169  0.6239  -0.5979
6.438e+09  0.8172  0.3521  -0.02775  -0.02058  0.004571  -0.01779  0.3617  -0.8165
6.439e+09  0.8859  0.03699  -4.36e-05  0.03581  -0.01612  0.02205  0.1175  -0.8673
6.44e+09  0.8038  -0.2588  0.03033  -0.01191  -0.006678  -0.04313  -0.244  -0.8128
6.441e+09  0.6626  -0.5297  -0.005985  -0.001376  -0.04019  0.01748  -0.5044  -0.6854
6.442e+09  0.4162  -0.7059  0.006578  0.006537  -0.00882  0.004352  -0.6607  -0.4669
6.444e+09  0.1712  -0.821  -0.01722  0.01018  0.007536  0.05731  -0.7877  -0.1971
6.445e+09  -0.1626  -0.8294  0.0089  0.01483  0.0197  0.02243  -0.8185  0.09798
6.446e+09  -0.4251  -0.6882  0.028  -0.03446  -0.01726  -0.03316  -0.7396  0.3572
6.448e+09  -0.6648  -0.5256  -0.01103  -0.005877  -0.009325  -0.03218  -0.5856  0.6099
6.449e+09  -0.8106  -0.293  0.002729  -0.008008  0.02206  -0.03606  -0.3553  0.7966
6.45e+09  -0.8608  0.02413  0.03147  -0.04063  -0.03922  0.01432  -0.0937  0.8419
6.451e+09  -0.7797  0.3676  0.001165  0.002986  -0.01782  0.0282  0.2399  0.8179
6.452e+09  -0.6591  0.5916  0.01806  0.005765  -0.04747  0.00981  0.4875  0.6475
6.454e+09  -0.3778  0.7288  0.0005586  0.002825  -0.003874  -0.02809  0.6506  0.4886
6.455e+09  -0.0761  0.833  -0.001656  0.02431  -0.01309  -0.02385  0.799  0.1612
6.456e+09  0.1743  0.7932  -0.01499  0.01681  -0.02262  0.03862  0.8242  -0.1142
6.458e+09  0.5051  0.735  0.02369  0.008811  -0.003463  -0.04905  0.7145  -0.3588
6.459e+09  0.6597  0.5299  -0.003813  0.0268  -0.01278  0.001211  0.568  -0.5999
6.46e+09  0.787  0.278  -0.01458  -0.02172  -0.02499  0.02455  0.2936  -0.7575
6.461e+09  0.8289  -0.05886  -0.01466  0.03816  0.007908  -0.007708  0.05747  -0.8227
6.462e+09  0.7981  -0.2858  -0.0131  0.03144  -0.015  0.008285  -0.2097  -0.7818
6.464e+09  0.5777  -0.6369  0.003893  0.01134  0.06086  -0.01305  -0.4863  -0.6847
6.465e+09  0.3856  -0.7758  0.008945  -0.008959  -0.04147  0.04519  -0.6679  -0.472
6.466e+09  0.1046  -0.8079  -0.01589  0.06618  0.02705  0.05159  -0.7853  -0.1806
6.468e+09  -0.2464  -0.8105  0.006798  0.007005  0.0961  -0.01486  -0.794  0.09707
6.469e+09  -0.4518  -0.6796  0.02627  -0.02781  0.0295  0.0001949  -0.6988  0.3577
6.47e+09  -0.6824  -0.4752  -0.04883  -0.0141  -0.0151  0.01998  -0.5558  0.5947
6.471e+09  -0.8195  -0.1785  -0.008646  0.05873  0.02496  0.02234  -0.3365  0.6995
6.472e+09  -0.8438  0.1023  -0.02173  -0.01503  -0.02607  0.002231  -0.06563  0.7779
6.474e+09  -0.8096  0.4373  -0.002719  0.005868  0.01039  0.01319  0.1994  0.7223
6.475e+09  -0.6011  0.6632  -0.02576  -0.03189  0.06541  -0.06027  0.4845  0.6271
6.476e+09  -0.3105  0.7675  0.0133  -0.01344  0.031  -0.01012  0.6828  0.4499
6.478e+09  -0.03401  0.8541  0.03605  -0.009269  -0.001164  -0.01392  0.7787  0.2302
6.479e+09  0.23  0.795  -0.02673  0.01741  -0.0366  0.02889  0.7859  -0.04758
6.48e+09  0.5034  0.6989  -0.01075  -0.05534  0.04394  -0.03642  0.6965  -0.3717
6.481e+09  0.697  0.4386  0.007701  -0.02436  0.02241  0.02651  0.4963  -0.5744
6.482e+09  0.8662  0.1941  0.007476  0.03139  0.01784  -0.03113  0.2779  -0.6761
6.484e+09  0.8461  -0.1147  -0.03131  -0.00843  0.01526  -0.02352  0.069  -0.77
6.485e+09  0.7469  -0.402  -0.01333  -0.004751  0.04958  0.02208  -0.2403  -0.7303
6.486e+09  0.546  -0.6575  -0.002964  0.008716  -0.01622  0.04446  -0.4639  -0.6344
6.488e+09  0.3394  -0.8004  0.01622  0.04642  -0.004345  -0.02953  -0.6636  -0.4304
6.489e+09  0.03582  -0.8137  -0.004494  0.0005712  -0.06374  0.01243  -0.744  -0.1736
6.49e+09  -0.2979  -0.7481  0.01488  -0.03602  0.05076  0.01483  -0.7824  0.05112
6.491e+09  -0.554  -0.7256  -0.002207  0.006515  -0.0111  -0.04782  -0.6921  0.3261
6.492e+09  -0.6981  -0.4177  0.03001  -0.0051  0.003057  0.05147  -0.5329  0.5512
6.494e+09  -0.8341  -0.1988  -0.02386  0.007602  0.03314  -0.03719  -0.3105  0.7041
6.495e+09  -0.8584  0.107  -0.0109  -0.04094  0.06074  0.01351  -0.06178  0.7916
6.496e+09  -0.7211  0.4364  0.001648  0.005344  -0.004519  -0.01479  0.2519  0.7881
6.498e+09  -0.5386  0.6404  0.001598  0.01686  -0.04244  0.008657  0.444  0.6078
6.499e+09  -0.3152  0.76  0.00999  0.0006864  -0.003828  0.04602  0.6354  0.3921
6.5e+09  0.02818  0.8579  0.01294  -0.003538  -0.008773  0.02762  0.7916  0.1758
6.501e+09  0.277  0.8017  0.01992  0.02903  -0.03936  -0.03536  0.7535  -0.1028
6.502e+09  0.5357  0.6922  -0.02566  -0.01162  -0.005341  -0.04767  0.6811  -0.3306
6.504e+09  0.7602  0.4081  -0.01545  0.001857  -0.0243  0.009073  0.5188  -0.562
6.505e+09  0.8339  0.1008  0.0238  0.02047  0.001047  -0.01989  0.2817  -0.689
6.506e+09  0.8625  -0.1716  -0.04303  0.004423  0.007976  0.007268  -0.02802  -0.7551
6.508e+09  0.7554  -0.4463  0.005032  0.03535  -0.016  -0.001683  -0.2933  -0.7143
6.509e+09  0.5657  -0.7219  -0.03932  0.01618  0.02275  0.04952  -0.4564  -0.5476
6.51e+09  0.2991  -0.8239  0.01716  0.0002555  -0.02519  -0.01975  -0.6384  -0.3742
6.511e+09  0.007057  -0.8449  0.009423  0.004965  -0.02656  -0.03452  -0.7342  -0.1873
6.512e+09  -0.3227  -0.837  0.03223  0.002913  -0.02346  0.04756  -0.7355  0.116
6.514e+09  -0.5831  -0.6324  -0.03171  -0.022  0.05533  0.01875  -0.6402  0.3899
6.515e+09  -0.7599  -0.4344  -0.007713  -0.01715  0.03886  -0.01998  -0.5146  0.5773
6.516e+09  -0.8777  -0.09544  0.03426  0.002268  -0.04342  0.001194  -0.2199  0.7293
6.518e+09  -0.8513  0.1711  -0.01693  0.02623  0.04245  0.05833  0.003244  0.7378
6.519e+09  -0.7434  0.5015  0.005081  -0.01198  -0.01399  -0.006538  0.2368  0.7136
6.52e+09  -0.5844  0.7003  -0.002262  -0.04807  -0.03976  0.02368  0.4703  0.5643
6.521e+09  -0.2883  0.8545  -0.01973  0.02633  -0.03286  -0.02426  0.6507  0.3431
6.522e+09  0.06679  0.8905  -0.00369  0.01065  -0.008646  0.04553  0.7441  0.1298
6.524e+09  0.3915  0.8014  0.01139  0.02382  -0.07558  0.02555  0.7519  -0.1799
6.525e+09  0.5753  0.644  0.001128  0.02016  -0.006594  0.009989  0.6616  -0.4024
6.526e+09  0.8274  0.4287  -0.007074  -0.06919  -0.01469  0.006467  0.4583  -0.6195
6.528e+09  0.8861  0.07251  -0.02593  0.0255  -0.003392  -0.03039  0.2205  -0.6929
6.529e+09  0.901  -0.2185  -0.002097  -0.006488  -0.03088  0.006423  -0.08077  -0.7382
6.53e+09  0.7402  -0.5378  0.02867  0.002744  -0.0006188  -0.02661  -0.3143  -0.6172
6.531e+09  0.4295  -0.8089  -0.03314  -0.02315  -0.05565  -0.04703  -0.499  -0.4495
6.532e+09  0.2313  -0.9171  -0.02508  0.02783  -0.01684  -0.0589  -0.5804  -0.273
6.534e+09  -0.1225  -0.9297  0.03717  -0.02314  0.002935  0.01264  -0.6497  -0.09662
6.535e+09  -0.3842  -0.8557  -0.01962  -0.002733  -0.02505  -0.005914  -0.6165  0.1068
6.536e+09  -0.6702  -0.5849  0.002643  -0.01796  0.01173  0.05795  -0.5608  0.2866
6.538e+09  -0.9019  -0.4045  -0.01767  0.02784  0.06603  -0.02309  -0.4644  0.4828
6.539e+09  -0.9074  -0.01697  -0.01785  -0.02583  0.001023  -0.02499  -0.286  0.6327
6.54e+09  -0.9274  0.2913  -0.03434  0.009014  -0.001939  0.02059  -0.06666  0.6669
6.541e+09  -0.6662  0.557  0.01726  -0.003612  0.01673  0.08361  0.1699  0.6991
6.542e+09  -0.4594  0.8181  0.02259  0.01774  0.05507  -0.02559  0.4053  0.5679
6.544e+09  -0.1557  0.9069  -0.01079  -0.04501  -0.04817  -0.07399  0.5898  0.4343
6.545e+09  0.174  0.9102  -0.001639  0.02367  -0.01445  0.03351  0.6758  0.1651
6.546e+09  0.4726  0.8117  -0.02114  0.001396  -0.001595  0.006946  0.7738  -0.09057
6.548e+09  0.7748  0.6001  -0.003708  0.02167  0.001547  0.0643  0.6584  -0.339
6.549e+09  0.8968  0.2623  0.01434  -0.01324  0.04277  0.07875  0.5029  -0.5446
6.55e+09  0.9053  -0.05268  -0.0243  0.01285  0.04754  -0.01581  0.2615  -0.6728
