# Hz S RI R 50
6.25e+09  -0.3579  0.82  0.002029  0.01085  -0.0135  0.04074  0.1498  0.4274
6.251e+09  -0.05382  0.862  -0.03335  0.02422  -0.01355  0.007952  0.3693  0.3989
6.252e+09  0.265  0.8729  -0.007169  0.007584  0.01092  -0.00651  0.5632  0.2376
6.254e+09  0.5182  0.7378  -0.02423  0.01897  0.01798  -0.02303  0.6197  0.01081
6.255e+09  0.6895  0.4243  -0.01675  0.01391  -0.01864  -0.005964  0.6211  -0.2509
6.256e+09  0.8024  0.1749  -0.01247  0.003703  0.002636  0.03397  0.4407  -0.4421
6.258e+09  0.791  -0.1019  -0.02772  0.04385  -0.02014  -0.03484  0.3026  -0.6193
6.259e+09  0.7647  -0.4014  0.01161  -0.0004779  -0.02628  0.06177  0.04859  -0.6431
6.26e+09  0.5465  -0.6507  0.01848  0.009711  0.01985  -0.02169  -0.1958  -0.6696
6.261e+09  0.3597  -0.803  0.01223  0.01739  0.04159  -0.01051  -0.4419  -0.5272
6.262e+09  0.08123  -0.8018  0.0128  0.001766  0.005064  0.03071  -0.6308  -0.3542
6.264e+09  -0.2898  -0.8651  0.02378  0.0287  -0.0265  -0.01505  -0.718  -0.1213
6.265e+09  -0.5577  -0.6449  0.005171  -0.005634  -0.02574  -0.01007  -0.7126  0.1617
6.266e+09  -0.6533  -0.4821  0.02627  -0.01345  -0.006394  -0.002248  -0.6279  0.4127
6.268e+09  -0.8694  -0.1764  0.005518  -0.008633  -0.004613  0.01242  -0.4252  0.6145
6.269e+09  -0.8564  0.1762  0.002291  0.01231  -0.005952  0.01133  -0.2004  0.7043
6.27e+09  -0.817  0.3712  0.004682  -0.01275  -0.03179  0.02003  0.08939  0.7505
6.271e+09  -0.5749  0.6048  -0.02168  -0.0008711  -0.007041  0.08834  0.2933  0.6618
6.272e+09  -0.2671  0.7957  -0.0136  0.008378  -0.04486  0.02421  0.5543  0.5455
6.274e+09  0.02673  0.8192  -0.0158  0.01319  0.01824  0.0264  0.6601  0.3291
6.275e+09  0.2557  0.8002  0.01144  0.0213  -0.003148  0.003219  0.7677  0.0466
6.276e+09  0.5271  0.6702  -0.02847  0.01054  -0.01452  0.03101  0.7509  -0.2409
6.278e+09  0.763  0.4364  0.004  0.02311  -0.01195  -0.05502  0.599  -0.4566
6.279e+09  0.8337  0.1176  0.002437  0.009108  -0.007461  -0.037  0.401  -0.6543
6.28e+09  0.8147  -0.1307  0.0339  -0.01486  -0.06355  -0.03142  0.1799  -0.7321
6.281e+09  0.718  -0.3997  -0.01582  -0.002878  -0.03915  0.008236  -0.1182  -0.7704
6.282e+09  0.5253  -0.6373  -0.01728  0.03293  0.002954  0.00771  -0.3613  -0.6757
6.284e+09  0.2895  -0.8389  0.00977  -0.01437  0.01671  0.04692  -0.5841  -0.5383
6.285e+09  0.02586  -0.846  0.01202  0.006595  0.01265  0.05576  -0.7435  -0.2974
6.286e+09  -0.2915  -0.8086  -0.01757  -0.001511  0.0157  0.001759  -0.792  -0.03821
6.288e+09  -0.5237  -0.685  0.01217  0.01523  -0.03576  0.009288  -0.7649  0.2737
6.289e+09  -0.704  -0.3901  0.01243  0.00944  -0.0433  0.03651  -0.621  0.5031
6.29e+09  -0.8401  -0.09064  -0.00441  0.02303  -0.02611  -0.0007417  -0.4259  0.7162
6.291e+09  -0.794  0.1777  -0.008919  -0.004997  -0.03592  0.0184  -0.1639  0.802
6.292e+09  -0.6894  0.4274  -0.003639  0.006437  0.009273  0.01482  0.1069  0.7731
6.294e+09  -0.5435  0.6538  0.003946  -0.01882  0.0222  -0.04205  0.421  0.7043
6.295e+09  -0.261  0.8345  0.01165  -0.0005608  0.01105  0.00358  0.626  0.5397
6.296e+09  0.0241  0.8341  0.01551  0.007408  -0.03337  0.01497  0.7742  0.2998
6.298e+09  0.3303  0.7705  0.004441  0.01442  0.01206  0.009064  0.8404  -0.0254
6.299e+09  0.6112  0.5621  0.009524  0.006565  -0.02919  0.02696  0.817  -0.2921
6.3e+09  0.7486  0.3962  -0.008279  0.007063  -0.01342  -0.04351  0.6012  -0.5533
6.301e+09  0.8165  0.09146  -0.005316  0.005614  0.01039  0.02428  0.4295  -0.7189
6.302e+09  0.8249  -0.1638  0.02243  0.0007606  0.02123  -0.03318  0.1694  -0.8356
6.304e+09  0.6704  -0.4954  0.02063  0.01391  -0.003159  0.006629  -0.1487  -0.8024
6.305e+09  0.4981  -0.6863  -0.0005892  0.00469  6.078e-05  -0.02016  -0.4231  -0.7175
6.306e+09  0.2015  -0.8017  -0.02872  0.02806  0.0134  -0.01114  -0.6422  -0.5612
6.308e+09  -0.02848  -0.8364  0.004583  -0.01042  0.03406  0.01083  -0.8322  -0.2956
6.309e+09  -0.368  -0.7127  0.01611  -0.001603  0.05483  -0.07223  -0.8451  0.02153
6.31e+09  -0.6021  -0.6302  -0.0135  0.06011  -0.002964  -0.001698  -0.7955  0.3025
6.311e+09  -0.7525  -0.326  0.02084  0.01406  -0.01317  -0.02446  -0.6644  0.5431
6.312e+09  -0.8242  -0.06258  -1.954e-05  -0.02297  -0.00487  -0.02662  -0.4201  0.7273
6.314e+09  -0.8571  0.2109  0.01127  -0.03886  0.02835  0.009649  -0.1473  0.8845
6.315e+09  -0.7044  0.5158  -0.02249  0.02089  -0.05351  0.04718  0.1421  0.8835
6.316e+09  -0.4828  0.714  -0.01167  0.01428  -0.03103  0.0148  0.4151  0.7624
6.318e+09  -0.2408  0.8003  0.004151  -0.05526  0.04681  -0.02666  0.6323  0.5558
6.319e+09  0.164  0.8544  -0.01683  0.02018  0.001495  -0.005663  0.832  0.2964
6.32e+09  0.3801  0.765  -0.01305  0.009264  -0.006026  -0.025  0.869  -0.002939
6.321e+09  0.6348  0.5427  0.01973  -0.004402  -0.05303  0.005568  0.8374  -0.2871
6.322e+09  0.7834  0.3234  -0.01904  -0.02498  -0.03199  -0.03405  0.6857  -0.5887
6.324e+09  0.8441  0.002583  0.02226  -0.000933  0.007367  -0.01107  0.4584  -0.7849
6.325e+09  0.8472  -0.2288  -0.02684  -0.0305  -0.01595  -0.02331  0.196  -0.897
6.326e+09  0.661  -0.5267  -0.01741  0.01658  -0.00269  0.02165  -0.134  -0.8531
6.328e+09  0.4035  -0.7085  -0.02075  -0.01451  -0.01848  -0.001107  -0.4295  -0.7696
6.329e+09  0.1414  -0.8693  -0.01359  0.02318  0.01448  -0.03738  -0.6826  -0.6
6.33e+09  -0.1066  -0.8678  -0.001782  0.01348  -0.01343  -0.02283  -0.8529  -0.3153
6.331e+09  -0.4475  -0.7028  0.001668  -0.01642  0.032  -0.01154  -0.921  -0.02921
6.332e+09  -0.669  -0.5957  0.03055  0.008929  -0.03679  -0.02714  -0.8654  0.2964
6.334e+09  -0.794  -0.263  -0.02401  -0.01266  0.03552  0.02117  -0.7169  0.6058
6.335e+09  -0.8676  -0.0433  -0.02044  -0.004622  0.001345  -0.07018  -0.5253  0.7696
6.336e+09  -0.797  0.3229  -0.01456  0.01787  -0.002968  0.01175  -0.1812  0.9046
6.338e+09  -0.6366  0.5892  -0.04972  0.03412  0.008196  0.01617  0.1111  0.9205
6.339e+09  -0.408  0.7659  -0.02434  0.009187  -0.007493  0.009729  0.445  0.8086
6.34e+09  -0.1035  0.9017  -0.00664  -0.01441  -0.001502  -0.02007  0.688  0.6165
6.341e+09  0.252  0.8508  0.002451  0.02348  0.01435  0.009285  0.8659  0.349
6.342e+09  0.4651  0.7316  -0.02145  0.004639  0.009718  -0.04173  0.9408  0.03726
6.344e+09  0.7221  0.5253  0.02302  0.01983  -0.03441  -0.0205  0.8772  -0.2703
6.345e+09  0.8682  0.1895  0.004231  0.01798  -0.00138  0.006174  0.7315  -0.5791
6.346e+09  0.8629  -0.047  -0.01915  -0.03418  -0.002487  -0.0343  0.5292  -0.8073
6.348e+09  0.7908  -0.4196  0.009919  0.002748  0.002312  0.01525  0.2061  -0.923
6.349e+09  0.6174  -0.643  0.04964  -0.04222  -0.02632  0.008357  -0.1621  -0.9299
6.35e+09  0.3759  -0.8364  -0.00316  -0.03798  0.01212  -0.02042  -0.3891  -0.8487
6.351e+09  0.03444  -0.9014  -0.0275  0.007038  0.02525  0.02305  -0.6641  -0.6422
6.352e+09  -0.2983  -0.8716  -0.0203  -0.00734  -0.04384  -0.02426  -0.8417  -0.3918
6.354e+09  -0.5037  -0.7325  0.01924  0.02036  -0.0337  0.02131  -0.9406  -0.1051
6.355e+09  -0.7652  -0.4613  -0.01453  0.003139  0.00817  -0.003408  -0.9142  0.2562
6.356e+09  -0.8497  -0.1901  0.009997  -0.007183  -0.005904  0.02403  -0.7923  0.5147
6.358e+09  -0.8743  0.2032  -0.02115  0.007324  0.03372  -0.02024  -0.525  0.7875
6.359e+09  -0.7415  0.4542  0.009686  -0.00639  0.03348  0.03588  -0.2165  0.8814
6.36e+09  -0.5807  0.703  -0.03972  -0.000951  -0.01432  -0.01508  0.076  0.927
6.361e+09  -0.3505  0.8917  0.009217  -0.02104  -0.02102  0.05056  0.4288  0.8478
6.362e+09  -0.007093  0.887  0.01345  0.004974  -0.02108  -0.04406  0.6556  0.6473
6.364e+09  0.261  0.834  -0.02013  0.002932  0.01295  -0.0084  0.8556  0.3619
6.365e+09  0.5398  0.6811  0.02203  0.03385  0.01218  0.005772  0.9506  0.08394
6.366e+09  0.8021  0.4274  -0.01673  -0.01131  -0.02515  -0.0125  0.9338  -0.2559
6.368e+09  0.8849  0.1071  -0.003307  -0.02688  0.02832  0.01883  0.7572  -0.5312
6.369e+09  0.8946  -0.208  0.003847  0.02953  -0.005504  0.01227  0.5633  -0.8034
6.37e+09  0.794  -0.4885  -0.0008039  -0.001147  -0.02804  -0.01023  0.2503  -0.9522
6.371e+09  0.5183  -0.7134  -0.01878  0.005755  -0.02424  -0.03282  -0.06286  -0.9174
6.372e+09  0.2867  -0.867  0.01895  -0.004937  -0.0225  -0.0268  -0.4011  -0.8761
6.374e+09  -0.05383  -0.9087  0.0287  -0.01413  0.01495  -0.003116  -0.6543  -0.6761
6.375e+09  -0.3658  -0.7821  -0.009973  -0.01587  0.001314  -0.02035  -0.8434  -0.4272
6.376e+09  -0.6405  -0.6323  -0.03064  -0.05335  0.007973  -0.03012  -0.9698  -0.1323
6.378e+09  -0.7535  -0.3843  -0.02641  0.004281  -0.02005  0.02524  -0.9477  0.2442
6.379e+09  -0.891  -0.09796  0.02146  -0.03562  0.01458  0.003041  -0.7795  0.5225
6.38e+09  -0.8751  0.243  -0.01553  0.02333  0.01163  0.04491  -0.564  0.7276
6.381e+09  -0.7076  0.5247  0.01985  -0.01382  -0.008929  -0.01994  -0.3241  0.8882
6.382e+09  -0.5344  0.7389  -0.01237  0.001418  -0.02061  -0.05097  0.04198  0.9503
6.384e+09  -0.1958  0.8562  -0.007277  0.002386  0.01129  -0.0178  0.33  0.8451
6.385e+09  0.09358  0.9165  0.02346  -0.01939  0.01492  -0.04677  0.6565  0.6798
6.386e+09  0.3939  0.8175  0.005588  -0.0007849  0.006957  -0.01594  0.7873  0.4071
6.388e+09  0.6431  0.603  -0.01088  0.01866  0.03004  -0.002582  0.9116  0.09305
6.389e+09  0.8292  0.4278  0.01512  0.04054  -0.01932  -0.0131  0.8895  -0.1994
6.39e+09  0.8784  0.01582  -2.371e-05  0.01672  -0.01326  0.01443  0.7854  -0.5213
6.391e+09  0.855  -0.2815  0.0082  -0.001042  -0.02303  -0.03681  0.5873  -0.7702
6.392e+09  0.7449  -0.5766  -0.003388  -0.02525  -0.0007979  0.01828  0.2805  -0.8483
6.394e+09  0.4789  -0.746  0.006202  0.01665  0.0211  0.004844  -0.0009553  -0.9485
6.395e+09  0.2048  -0.8863  -0.01113  -0.02126  -0.01231  0.0002821  -0.357  -0.8706
6.396e+09  -0.1075  -0.887  -0.03072  -0.01919  -0.04176  0.009839  -0.6426  -0.6639
6.398e+09  -0.4713  -0.7849  -0.02585  -0.00533  -0.003705  -0.02467  -0.7919  -0.4537
6.399e+09  -0.6842  -0.5977  0.0003917  0.01711  -0.008724  -0.01578  -0.89  -0.1366
6.4e+09  -0.8049  -0.3352  0.01006  0.004534  0.009784  -0.03317  -0.8983  0.205
6.401e+09  -0.832  -0.03577  -0.01066  0.02044  -0.03864  0.01662  -0.7782  0.4331
6.402e+09  -0.8082  0.2888  0.02833  0.005451  0.01906  -0.003725  -0.6299  0.7149
6.404e+09  -0.7125  0.5654  0.004964  -0.005905  -0.03872  -0.06911  -0.3191  0.8461
6.405e+09  -0.4584  0.8056  -0.01731  0.001897  0.0297  0.05586  0.02908  0.9806
6.406e+09  -0.1832  0.8655  0.0441  0.01165  -0.01637  0.02985  0.3285  0.8571
6.408e+09  0.2023  0.8904  -0.04569  -0.009112  0.01331  0.02074  0.57  0.7308
6.409e+09  0.4371  0.7835  -0.02868  0.03226  -0.03039  0.006704  0.7636  0.4564
6.41e+09  0.6535  0.6017  -0.04339  -0.002627  -0.008697  -0.01118  0.9265  0.1829
6.411e+09  0.8638  0.2985  -0.01717  -0.01099  -0.008766  0.0126  0.9055  -0.1396
6.412e+09  0.8765  0.02073  0.02158  -0.01616  0.03533  -0.00772  0.7915  -0.4055
6.414e+09  0.8448  -0.3367  -0.03937  0.009912  -0.008674  -0.04131  0.6008  -0.6555
6.415e+09  0.715  -0.6028  0.003823  0.04467  -0.01351  -0.02527  0.3228  -0.8439
6.416e+09  0.4314  -0.7857  0.01899  -0.01155  -0.009596  -0.0125  0.06024  -0.8702
6.418e+09  0.2019  -0.8755  0.002125  -0.01344  0.05285  -0.006426  -0.2984  -0.8643
6.419e+09  -0.1108  -0.8637  0.008606  -0.01618  0.03992  -0.007495  -0.5449  -0.6727
6.42e+09  -0.4315  -0.8076  0.03915  0.01442  0.04096  0.03414  -0.7424  -0.483
6.421e+09  -0.713  -0.5714  0.001803  -0.0006515  -0.01903  0.0135  -0.8669  -0.1927
6.422e+09  -0.8592  -0.2684  -0.006578  0.005617  -0.03888  -0.02789  -0.8721  0.1198
6.424e+09  -0.906  0.01524  -0.02177  -0.061  0.016  0.0255  -0.8309  0.3962
6.425e+09  -0.869  0.3376  -0.02818  -0.02693  -0.01401  -0.04929  -0.5867  0.6495
6.426e+09  -0.6936  0.6178  -0.06015  -0.01504  0.04727  0.001401  -0.3683  0.8106
6.428e+09  -0.4525  0.7882  -0.02091  -0.02285  -0.02809  -0.002229  -0.04053  0.892
6.429e+09  -0.09734  0.8656  -0.03973  -0.03093  -0.04046  -0.05165  0.2609  0.8821
6.43e+09  0.1611  0.9062  -0.02214  -0.03808  -0.01693  0.004987  0.5033  0.6968
6.431e+09  0.4507  0.7777  -0.02499  -0.01916  -0.04542  0.007129  0.6675  0.5544
6.432e+09  0.6875  0.5816  0.01572  -0.01268  -0.03427  0.0499  0.8891  0.1856
6.434e+09  0.8415  0.2739  -0.01393  0.01512  -0.007318  -0.02542  0.8702  -0.1199
6.435e+09  0.8959  -0.04538  -0.007229  -0.01749  -0.007563  0.01739  0.7929  -0.4436
6.436e+09  0.7991  -0.2754  -0.003263  0.01061  -0.04151  0.02381  0.6373  -0.6376
6.438e+09  0.6438  -0.5881  0.00839  0.03277  0.004692  -0.002718  0.3984  -0.7455
6.439e+09  0.4382  -0.7565  0.003232  0.04568  0.04355  0.01018  0.05671  -0.843
6.44e+09  0.1358  -0.8932  0.02556  0.004075  0.01632  -0.05576  -0.2662  -0.8062
6.441e+09  -0.2327  -0.8276  -0.01934  -0.02079  0.008705  0.01271  -0.5442  -0.7536
6.442e+09  -0.4568  -0.7707  0.01339  -0.002166  0.001567  0.003052  -0.6953  -0.4372
6.444e+09  -0.755  -0.5041  -1.598e-05  -0.03105  -0.05274  0.04906  -0.8218  -0.1883
6.445e+09  -0.8544  -0.2171  0.004221  -0.001926  0.02832  -0.00963  -0.8221  0.0484
6.446e+09  -0.9062  0.1042  -0.009365  0.03257  -0.02865  0.0282  -0.7317  0.3644
6.448e+09  -0.8713  0.3472  -0.01304  -0.01775  0.005385  -0.0234  -0.5732  0.601
6.449e+09  -0.685  0.6053  0.004695  -0.01813  0.03327  -0.03772  -0.3179  0.7152
6.45e+09  -0.4708  0.8173  0.0286  0.007942  -0.003139  -2.186e-05  -0.0708  0.8421
6.451e+09  -0.1384  0.8592  -0.02894  0.03023  0.002653  0.003125  0.2121  0.8056
6.452e+09  0.1747  0.8998  -0.03202  -0.001475  -0.007808  -0.008924  0.4801  0.6923
6.454e+09  0.4985  0.7889  -0.06077  0.007702  0.02587  -0.02352  0.6919  0.4928
6.455e+09  0.7048  0.5765  -0.05002  -6.891e-05  -0.02075  -0.02733  0.7564  0.2137
6.456e+09  0.8332  0.2342  0.02163  -0.01896  -0.007682  0.01415  0.7926  -0.09883
6.458e+09  0.9377  -0.06644  0.006041  0.004727  -0.004011  0.003162  0.7688  -0.3262
6.459e+09  0.8795  -0.3433  0.0002195  -0.02159  0.01414  0.0009695  0.5075  -0.5868
6.46e+09  0.6173  -0.6341  0.003121  -0.04962  -0.007239  0.004391  0.3876  -0.7101
6.461e+09  0.4266  -0.7977  -0.01737  -0.01701  -0.02969  -0.03743  0.05083  -0.8455
6.462e+09  0.1013  -0.9416  -0.007202  -0.04313  0.03384  0.04118  -0.2607  -0.7769
6.464e+09  -0.2437  -0.8723  0.01077  0.04591  -0.0252  -0.03545  -0.4493  -0.611
6.465e+09  -0.5511  -0.7617  -0.001447  0.009665  -0.00624  -0.0222  -0.6504  -0.4324
6.466e+09  -0.7399  -0.5525  -0.009414  0.02542  -0.005289  -0.02622  -0.7508  -0.187
6.468e+09  -0.9007  -0.258  0.007063  -0.002576  -0.003934  -0.003255  -0.8244  0.1152
6.469e+09  -0.8958  0.07121  0.0191  0.02353  -0.009233  0.001793  -0.7724  0.3384
6.47e+09  -0.8383  0.368  -0.01265  0.04247  -0.0175  -0.003089  -0.5787  0.548
6.471e+09  -0.6765  0.6361  0.02029  -0.002315  0.01744  -0.001421  -0.3547  0.766
6.472e+09  -0.3954  0.8199  -0.04736  -0.03949  0.02197  -0.04229  -0.07112  0.8099
6.474e+09  -0.1252  0.9198  -0.0245  -0.02075  -0.009105  0.02965  0.2289  0.7797
6.475e+09  0.2143  0.8683  -0.006605  0.03452  0.002416  0.0727  0.4528  0.655
6.476e+09  0.5419  0.753  0.006429  -0.03003  -0.02253  0.01293  0.6914  0.4298
6.478e+09  0.7442  0.5036  0.02614  -0.02456  -0.003662  -0.003772  0.7903  0.2098
6.479e+09  0.9243  0.2841  -0.003268  0.009572  0.03313  -0.008584  0.7713  -0.1101
6.48e+09  0.9443  -0.1244  0.01385  -0.03856  -0.009078  -0.01522  0.6872  -0.3075
6.481e+09  0.8233  -0.4108  -0.02215  0.01265  0.02105  0.0001253  0.5288  -0.5846
6.482e+09  0.6245  -0.6509  0.006985  0.02856  -0.004801  -0.009757  0.3253  -0.7262
6.484e+09  0.4007  -0.8404  0.009907  -0.004016  0.009696  -0.05618  0.03963  -0.7479
6.485e+09  0.002454  -0.916  -0.01364  -0.02483  -0.02366  -0.04515  -0.188  -0.6959
6.486e+09  -0.2502  -0.855  -0.04159  -0.02686  -0.009  0.007465  -0.4786  -0.633
6.488e+09  -0.5392  -0.7887  0.01434  0.0518  0.0363  0.04422  -0.6328  -0.4563
6.489e+09  -0.8191  -0.4928  -0.006325  -0.01812  -0.01584  0.02074  -0.748  -0.1922
6.49e+09  -0.9153  -0.209  0.005957  0.001049  -0.02584  -0.01705  -0.7654  0.08898
6.491e+09  -0.9121  0.122  -0.03524  0.04616  0.02156  0.006993  -0.7443  0.3272
6.492e+09  -0.8369  0.473  0.005489  0.0325  0.06451  -0.01973  -0.5351  0.549
6.494e+09  -0.6029  0.6479  0.009605  -0.0137  -0.02969  0.01307  -0.2985  0.6808
6.495e+09  -0.3631  0.8148  -0.004043  0.01566  0.01809  -0.01618  0.01577  0.7768
6.496e+09  0.02451  0.8952  0.05176  0.03691  0.01863  -0.00209  0.1932  0.7699
6.498e+09  0.2772  0.898  0.01107  -0.02776  0.0313  0.0301  0.4609  0.6486
6.499e+09  0.592  0.754  0.002004  -0.01636  -0.05151  -0.007587  0.6581  0.3988
6.5e+09  0.8451  0.4911  -0.02759  -0.02015  0.1145  0.005028  0.7346  0.1932
6.501e+09  0.9848  0.1845  0.03532  0.005716  0.007308  0.02445  0.7659  -0.1585
6.502e+09  0.9551  -0.1438  0.04035  0.004973  -0.002488  -0.02512  0.6879  -0.3914
6.504e+09  0.835  -0.4738  -0.004492  -0.02302  -0.02041  0.03118  0.5069  -0.5904
6.505e+09  0.6171  -0.7119  0.0008999  -0.02488  -0.04057  0.02422  0.2985  -0.7351
6.506e+09  0.3534  -0.8873  -0.02853  0.02138  0.005015  -0.02354  -0.004888  -0.7882
6.508e+09  0.005721  -0.8594  0.005045  0.03955  0.01531  -0.08051  -0.2642  -0.7201
6.509e+09  -0.3135  -0.8849  0.03163  -0.01372  0.006696  0.0143  -0.4678  -0.5699
6.51e+09  -0.5854  -0.6894  0.0167  -0.007579  -0.0002459  0.03565  -0.6339  -0.3547
6.511e+09  -0.833  -0.5189  -0.007421  0.0399  0.005126  0.03083  -0.7812  -0.1407
6.512e+09  -0.9543  -0.1423  0.02152  0.0001563  -0.02347  0.006894  -0.7516  0.1128
6.514e+09  -0.9676  0.1719  -0.0109  0.01046  -0.02392  -0.03623  -0.697  0.37
6.515e+09  -0.8345  0.5044  -0.02246  -0.001762  -0.001338  0.005869  -0.4774  0.5482
6.516e+09  -0.6084  0.7757  -0.0005367  0.06045  0.04289  -0.03477  -0.2369  0.6875
6.518e+09  -0.2923  0.9463  -0.01045  -0.001844  0.02944  -0.0216  0.006038  0.7755
6.519e+09  0.1047  0.99  0.009161  0.001913  -0.01648  0.03109  0.2582  0.7124
6.52e+09  0.3366  0.8715  -0.03452  -0.02313  -0.01269  -0.03816  0.482  0.5355
6.521e+09  0.6551  0.7036  0.02929  -0.01493  0.04446  0.008236  0.6644  0.3501
6.522e+09  0.8755  0.4098  -0.0212  -0.009578  -0.06401  0.03562  0.7401  0.1062
6.524e+09  1.01  0.09709  -0.004772  0.01809  -0.01069  0.0266  0.7176  -0.1564
6.525e+09  0.9183  -0.2358  -0.01319  -0.01071  0.0413  0.03679  0.6227  -0.4139
6.526e+09  0.8223  -0.5788  0.02478  -0.01409  -0.0004409  -0.07441  0.4131  -0.6311
6.528e+09  0.6166  -0.8321  0.02049  -0.004895  0.003519  -0.01397  0.1868  -0.6695
6.529e+09  0.2552  -0.9413  -0.001145  -0.01606  0.01028  0.02082  -0.03142  -0.723
6.53e+09  -0.09405  -0.9901  -0.001029  -0.02822  -0.04709  0.0589  -0.2812  -0.6201
6.531e+09  -0.4297  -0.8635  0.004199  0.03952  0.06465  -0.01151  -0.4716  -0.4856
6.532e+09  -0.7159  -0.7168  -0.01673  0.008182  -0.01844  -0.003771  -0.5847  -0.3026
6.534e+09  -0.9497  -0.4038  -0.01341  -0.003233  -0.02374  0.02473  -0.6239  -0.07319
6.535e+09  -0.9852  -0.07836  -0.02126  -0.02129  -0.03672  0.01567  -0.6281  0.148
6.536e+09  -0.9634  0.3278  -0.007721  -0.01298  -0.005775  -0.01763  -0.5607  0.3035
6.538e+09  -0.7485  0.597  0.03595  -0.01241  0.03822  0.0007697  -0.4388  0.4613
6.539e+09  -0.4675  0.882  0.007506  -0.01375  0.00516  0.05904  -0.2708  0.6358
6.54e+09  -0.1808  0.979  0.004069  0.01709  -0.001761  -0.0312  -0.03361  0.6858
6.541e+09  0.1937  0.9921  0.02106  -0.01507  -0.01575  -0.00222  0.2216  0.6691
6.542e+09  0.4418  0.8717  0.002772  -0.02954  -0.01205  0.01185  0.4295  0.586
6.544e+09  0.7931  0.6698  0.02117  -0.01237  -0.08886  -0.01577  0.6268  0.4052
6.545e+09  0.9314  0.3043  -0.00751  0.01068  -0.01301  -0.01516  0.6904  0.1824
6.546e+09  0.9752  0.02019  -0.01272  0.02219  -0.01039  -0.01049  0.7461  -0.08914
6.548e+09  0.8822  -0.3451  -0.004588  0.007415  -0.02075  -0.02287  0.6386  -0.3643
6.549e+09  0.7031  -0.6889  -0.01191  -0.01195  -0.02889  0.1033  0.501  -0.5448
6.55e+09  0.4289  -0.8591  0.000451  -0.02819  0.04015  0.02843  0.3  -0.7064
