# Hz S RI R 50
6.25e+09  -0.8529  0.2031  0.02008  -0.01996  0.01132  0.02146  0.1693  0.5068
6.251e+09  -0.751  0.4919  0.0115  0.009077  0.02768  0.01421  0.3958  0.3858
6.252e+09  -0.4973  0.6414  0.008195  -0.00585  0.003606  -0.03048  0.5362  0.2371
6.254e+09  -0.1632  0.7559  0.03085  0.01076  0.004587  0.02484  0.5867  0.01197
6.255e+09  0.1405  0.8234  0.003808  0.009155  0.04442  -0.0107  0.5806  -0.2207
6.256e+09  0.3679  0.7171  -0.003471  0.006471  0.03766  0.03342  0.47  -0.441
6.258e+09  0.6292  0.6039  0.01762  -0.004729  -0.02597  0.01155  0.2587  -0.5953
6.259e+09  0.7751  0.3584  0.008874  0.01816  -0.03442  -0.02579  0.02895  -0.6633
6.26e+09  0.8239  0.03503  -0.01926  -0.0283  0.04261  0.01907  -0.1884  -0.646
6.261e+09  0.7282  -0.1885  0.01118  0.008049  0.01695  0.01093  -0.4159  -0.5271
6.262e+09  0.6522  -0.4701  -0.004716  -0.006045  -0.0164  0.004552  -0.6319  -0.3454
6.264e+09  0.4572  -0.7345  -0.003809  -0.01099  -0.0652  -0.00891  -0.7052  -0.1018
6.265e+09  0.1784  -0.7867  -0.01991  0.0001896  -0.05396  -0.02277  -0.7144  0.1402
6.266e+09  -0.03803  -0.787  -0.008033  -0.002413  0.001815  -0.0003205  -0.6069  0.4327
6.268e+09  -0.3115  -0.7408  0.01649  -0.01739  0.01276  -0.01437  -0.4202  0.5635
6.269e+09  -0.5585  -0.585  0.01429  0.02617  0.01246  0.018  -0.1849  0.6911
6.27e+09  -0.7999  -0.3056  -0.0003099  -0.02482  -0.02158  0.06271  0.07668  0.707
6.271e+09  -0.8353  -0.08262  0.002555  0.01731  0.01831  0.03216  0.3503  0.6579
6.272e+09  -0.8443  0.2097  -0.00346  -0.01188  0.0437  0.0503  0.5377  0.5021
6.274e+09  -0.6178  0.5206  0.01721  0.01171  0.03087  -0.009391  0.6904  0.3133
6.275e+09  -0.4345  0.69  -0.009177  0.02471  0.05457  0.02339  0.7625  0.03169
6.276e+09  -0.168  0.78  0.03956  0.002127  -0.0213  0.03802  0.7233  -0.2268
6.278e+09  0.1197  0.8376  0.005784  0.03491  0.02053  0.01071  0.6151  -0.4855
6.279e+09  0.3731  0.7026  -0.004697  -0.03307  -0.065  -0.02387  0.4199  -0.6388
6.28e+09  0.5889  0.5191  0.01176  0.01307  0.03014  0.006558  0.1622  -0.7695
6.281e+09  0.7558  0.337  0.01488  -0.02226  0.01758  0.03883  -0.1125  -0.7782
6.282e+09  0.8109  -0.02377  0.009046  -0.05412  0.02433  0.07571  -0.398  -0.6827
6.284e+09  0.7516  -0.2366  -0.01941  -0.008854  -0.05299  -0.01157  -0.5905  -0.5229
6.285e+09  0.6656  -0.4907  -0.01873  0.02169  -0.009232  -0.03721  -0.7364  -0.3011
6.286e+09  0.4045  -0.7165  0.003596  0.000674  -0.007735  -0.0271  -0.7825  -0.03331
6.288e+09  0.1116  -0.8439  -0.01411  -0.005934  -0.01349  -0.02951  -0.7562  0.2687
6.289e+09  -0.2049  -0.8138  -0.01955  -0.01086  0.002925  -0.03171  -0.6196  0.4963
6.29e+09  -0.373  -0.7053  0.01935  -0.02292  0.001998  0.008261  -0.4217  0.6582
6.291e+09  -0.6096  -0.5401  0.02306  0.0257  0.01787  -0.04817  -0.1517  0.8079
6.292e+09  -0.7026  -0.2944  0.01341  -0.0005381  -0.0008581  0.03122  0.1374  0.7965
6.294e+09  -0.8241  -0.02483  0.03553  0.00488  0.01528  0.0882  0.3939  0.7124
6.295e+09  -0.7421  0.293  -0.0283  -0.0167  -0.01803  -0.002671  0.6234  0.5385
6.296e+09  -0.663  0.5529  -0.03492  0.02067  0.006747  -0.04908  0.7802  0.3021
6.298e+09  -0.3489  0.6933  0.02482  -0.01079  -0.0007966  0.008984  0.8313  0.002571
6.299e+09  -0.08843  0.7807  -0.002835  -0.02678  -0.04352  -0.002086  0.8097  -0.2418
6.3e+09  0.2037  0.7812  -0.003614  0.0192  -4.705e-05  -0.02128  0.6292  -0.5063
6.301e+09  0.4546  0.6777  0.002741  -0.01491  0.006944  -0.01289  0.4478  -0.7116
6.302e+09  0.6177  0.5401  0.005319  0.03706  0.003332  0.03866  0.1409  -0.8565
6.304e+09  0.7812  0.2168  -0.01833  0.01396  -0.006008  -0.0259  -0.1717  -0.8501
6.305e+09  0.8143  0.0004983  -0.01517  0.004875  -0.006292  -0.0267  -0.4124  -0.7339
6.306e+09  0.8147  -0.3149  0.005686  -0.000221  -0.007224  0.006238  -0.6248  -0.5635
6.308e+09  0.6139  -0.5912  -0.01689  0.01155  -0.0191  0.0446  -0.7848  -0.2983
6.309e+09  0.3946  -0.685  -0.01854  0.002194  0.01078  0.02542  -0.8419  0.007075
6.31e+09  0.1165  -0.8329  0.00844  -0.00417  0.07437  0.06316  -0.7928  0.29
6.311e+09  -0.1727  -0.7704  -0.001498  0.00208  0.02841  -0.04999  -0.6649  0.5861
6.312e+09  -0.4877  -0.6976  0.003982  0.06904  -0.004977  -0.03904  -0.4489  0.7693
6.314e+09  -0.6103  -0.5076  -0.0005638  -0.02265  0.0003123  -0.03829  -0.1536  0.8503
6.315e+09  -0.8254  -0.2629  -0.03668  0.04387  -0.01194  0.01284  0.1357  0.8652
6.316e+09  -0.825  0.08874  -0.03059  -0.01555  -0.05951  0.03623  0.4222  0.7426
6.318e+09  -0.7425  0.333  0.01887  -0.02176  -0.04882  -0.004622  0.705  0.6191
6.319e+09  -0.5928  0.6214  0.04328  -0.00932  0.006553  0.01564  0.8166  0.3303
6.32e+09  -0.3314  0.7271  0.01463  -0.01117  -0.01722  0.02995  0.882  0.01147
6.321e+09  -0.08304  0.8225  -0.01772  0.009478  -0.009877  0.007929  0.8163  -0.3043
6.322e+09  0.2423  0.8332  -0.02571  0.01334  0.02711  -0.04772  0.6891  -0.5497
6.324e+09  0.5241  0.701  -0.02125  -0.005902  -0.02386  -0.0261  0.4249  -0.7613
6.325e+09  0.6832  0.47  -0.01844  0.03895  0.02364  -0.01222  0.173  -0.9001
6.326e+09  0.8365  0.1713  0.00156  0.009547  -0.006011  -0.00735  -0.1381  -0.8657
6.328e+09  0.8586  -0.09973  0.0006316  -0.004849  -0.02476  -0.02017  -0.4244  -0.7945
6.329e+09  0.7326  -0.4079  0.02249  -0.01093  0.05238  -0.0002703  -0.6461  -0.5335
6.33e+09  0.5566  -0.6403  0.02725  -0.02663  0.002581  0.004062  -0.8301  -0.3212
6.331e+09  0.2917  -0.7941  0.02496  0.009314  0.03622  -0.01013  -0.9046  -0.04146
6.332e+09  0.00378  -0.8686  0.02775  -0.0103  0.0412  -0.006669  -0.8669  0.2795
6.334e+09  -0.3108  -0.8425  -0.008263  0.02376  -0.007701  -0.00917  -0.7673  0.5491
6.335e+09  -0.5336  -0.6409  0.009068  -0.01135  -0.0274  0.01136  -0.5293  0.7941
6.336e+09  -0.7881  -0.3778  0.02614  -0.005612  0.04337  -0.02307  -0.2087  0.898
6.338e+09  -0.8277  -0.1384  -0.01144  0.03194  0.03508  0.02282  0.124  0.9111
6.339e+09  -0.8741  0.1597  -0.02338  -0.0001856  -0.01176  0.02897  0.4282  0.83
6.34e+09  -0.6942  0.4801  0.01372  -0.01125  -0.003051  -0.0289  0.6936  0.6211
6.341e+09  -0.5145  0.6877  0.02204  -0.008061  0.0002078  0.004221  0.8507  0.3596
6.342e+09  -0.2107  0.8263  -0.02317  0.006489  0.01035  0.0104  0.8854  0.07503
6.344e+09  0.03816  0.9115  0.01749  0.005578  -0.04592  0.02983  0.8474  -0.2619
6.345e+09  0.3902  0.7808  -0.003207  0.02435  -0.0828  -0.002447  0.765  -0.5703
6.346e+09  0.5966  0.621  -0.02292  0.01487  -0.02063  -0.0141  0.5051  -0.7625
6.348e+09  0.799  0.3696  -0.00148  -0.001505  -0.03327  -0.01811  0.2278  -0.9336
6.349e+09  0.7963  0.05016  -0.004328  0.008441  0.00152  -0.01312  -0.0989  -0.8943
6.35e+09  0.892  -0.2442  0.0107  -0.008066  -0.01529  0.03256  -0.4305  -0.8438
6.351e+09  0.7115  -0.5082  0.03968  0.008355  -0.007875  0.01721  -0.6924  -0.6397
6.352e+09  0.4099  -0.7484  0.02712  0.001639  0.007315  -0.00677  -0.8941  -0.3756
6.354e+09  0.1999  -0.7896  0.00608  0.001444  0.06151  0.03397  -0.9563  -0.05294
6.355e+09  -0.1591  -0.843  -0.03104  -0.01382  -0.03032  0.001942  -0.9202  0.2288
6.356e+09  -0.4636  -0.7722  -0.01481  0.01344  -0.03788  -0.004954  -0.7919  0.5676
6.358e+09  -0.6741  -0.5884  -0.01327  -0.02475  -0.003125  0.01235  -0.5585  0.7824
6.359e+09  -0.8229  -0.2782  -0.01007  -0.01188  -0.01606  -0.01868  -0.2204  0.9255
6.36e+09  -0.8987  0.02279  -0.01243  0.03806  -0.01162  0.03111  0.1341  0.9763
6.361e+09  -0.7874  0.3442  -0.02387  -0.03282  0.03827  -0.0141  0.3808  0.8812
6.362e+09  -0.6312  0.5524  -0.01399  0.0109  -0.04891  0.06546  0.674  0.653
6.364e+09  -0.4271  0.8056  -0.006694  -0.04077  -0.0215  -0.009545  0.8687  0.365
6.365e+09  -0.09977  0.8689  0.03622  0.0009505  -0.004359  -0.0167  0.9921  0.04005
6.366e+09  0.2293  0.8473  -0.01754  -0.02841  -0.03815  0.003553  0.9266  -0.2297
6.368e+09  0.4463  0.7141  0.02577  -0.008541  0.0177  0.0008655  0.7713  -0.5509
6.369e+09  0.7402  0.5557  -0.01528  0.01052  0.008911  -0.007991  0.5209  -0.7865
6.37e+09  0.859  0.2206  0.01245  0.01016  0.02176  -0.03025  0.2667  -0.9095
6.371e+09  0.8719  -0.1255  0.02825  0.01556  -0.001944  0.00877  -0.09822  -0.9259
6.372e+09  0.7739  -0.3484  0.001683  -0.01427  0.02956  0.01463  -0.4004  -0.8758
6.374e+09  0.6101  -0.6275  0.01252  -0.0007811  -0.02483  0.0225  -0.65  -0.6347
6.375e+09  0.3893  -0.8216  0.001884  0.01016  0.008212  -0.01848  -0.8681  -0.4047
6.376e+09  0.07989  -0.8845  0.01335  0.02969  -0.02147  0.001805  -0.9333  -0.08361
6.378e+09  -0.2906  -0.8539  0.02846  0.001774  0.004853  0.02043  -0.9007  0.2224
6.379e+09  -0.5891  -0.7097  0.03193  -0.008441  0.006723  0.01682  -0.7702  0.5327
6.38e+09  -0.7599  -0.4635  0.01381  -0.006524  -0.01745  -0.006264  -0.5857  0.7217
6.381e+09  -0.8766  -0.1491  0.01443  -0.04148  -0.01178  0.01005  -0.247  0.8859
6.382e+09  -0.8872  0.171  0.004771  0.004418  0.01171  -0.009742  0.085  0.9247
6.384e+09  -0.7716  0.4391  0.06607  -0.04492  0.0008804  -0.003756  0.3787  0.8493
6.385e+09  -0.5462  0.6804  -0.02246  0.02182  -0.04245  0.01103  0.6276  0.6854
6.386e+09  -0.2605  0.8422  -0.03622  0.02526  0.01483  -0.05092  0.8469  0.4452
6.388e+09  0.05027  0.9055  0.04103  -0.01851  0.01621  -0.03561  0.8994  0.141
6.389e+09  0.3466  0.7937  -0.01906  0.02664  0.0254  -0.008589  0.9003  -0.2084
6.39e+09  0.5944  0.6326  -0.02137  0.03043  0.004147  -0.003923  0.765  -0.5258
6.391e+09  0.7868  0.416  0.003336  0.02323  -0.02072  -0.03734  0.5829  -0.6766
6.392e+09  0.868  0.1137  -0.0191  -0.008313  0.05459  -0.02965  0.274  -0.9127
6.394e+09  0.8495  -0.2275  0.04187  -0.06539  0.00714  0.02035  -0.0319  -0.9392
6.395e+09  0.7543  -0.4748  -0.0123  0.02124  0.03914  0.003895  -0.3316  -0.8429
6.396e+09  0.527  -0.702  0.01853  -0.003749  0.006456  -0.04207  -0.6183  -0.7141
6.398e+09  0.2226  -0.9468  0.0138  0.0002151  -0.01  -0.02262  -0.8204  -0.4373
6.399e+09  -0.05706  -0.9417  -0.0103  0.04512  0.0255  -0.04635  -0.9221  -0.1375
6.4e+09  -0.4073  -0.8258  0.01649  -0.006742  -0.005933  -0.0283  -0.9434  0.1974
6.401e+09  -0.6261  -0.6213  -0.003447  -0.00527  0.005446  0.005821  -0.8026  0.4537
6.402e+09  -0.8115  -0.3639  0.008634  0.01166  -0.002375  -0.03442  -0.5957  0.6924
6.404e+09  -0.8739  -0.03097  -0.01774  -0.008897  0.004953  -0.00823  -0.322  0.8806
6.405e+09  -0.791  0.3089  0.01507  0.005641  -0.007233  -0.008427  -0.01081  0.9387
6.406e+09  -0.7158  0.5535  0.003195  -0.03356  0.03398  -0.0225  0.2788  0.8488
6.408e+09  -0.4901  0.7465  -0.01348  0.03322  0.02201  0.02923  0.6006  0.6724
6.409e+09  -0.1155  0.8221  -0.01879  0.03064  0.006085  -0.04783  0.8055  0.4778
6.41e+09  0.07752  0.8613  -0.001174  -0.01015  0.0169  0.04481  0.8463  0.1656
6.411e+09  0.4174  0.7967  0.002378  0.01175  -0.04653  0.01401  0.8886  -0.165
6.412e+09  0.6398  0.5764  0.00877  -0.02809  0.0187  0.01067  0.7913  -0.4754
6.414e+09  0.804  0.3043  -0.004323  0.01656  -0.03749  -0.005329  0.595  -0.6743
6.415e+09  0.8829  0.005019  0.007746  0.003403  -0.0333  0.01769  0.3217  -0.8065
6.416e+09  0.8436  -0.3164  -0.0234  -0.009587  -0.03834  0.01506  0.04373  -0.9001
6.418e+09  0.6858  -0.5426  0.015  0.01944  -0.05383  0.02146  -0.3057  -0.8237
6.419e+09  0.4578  -0.7613  -0.007189  0.009358  0.01962  1.379e-05  -0.541  -0.688
6.42e+09  0.1519  -0.8751  -0.01733  0.02768  0.003412  0.01852  -0.7427  -0.4422
6.421e+09  -0.1403  -0.8427  -0.004787  0.02317  0.03222  0.0404  -0.8971  -0.2057
6.422e+09  -0.4305  -0.7921  -0.01733  0.0211  -0.0133  -9.518e-05  -0.8814  0.1396
6.424e+09  -0.6455  -0.5098  0.017  0.02315  -0.02385  -0.03131  -0.8024  0.3656
6.425e+09  -0.8683  -0.2695  -0.004505  0.02825  0.01809  0.01237  -0.5881  0.6023
6.426e+09  -0.9201  0.005278  0.00264  0.04889  -0.002137  -0.01462  -0.3978  0.8308
6.428e+09  -0.7789  0.3333  0.02588  -0.0007241  0.00126  -0.0521  -0.09371  0.913
6.429e+09  -0.6135  0.5515  0.008532  0.01413  0.01078  -0.02276  0.2631  0.8456
6.43e+09  -0.3656  0.7267  -0.06  0.02382  0.0119  -0.01848  0.5327  0.718
6.431e+09  -0.1095  0.8811  -0.03035  -0.01938  -0.03431  0.03776  0.716  0.4387
6.432e+09  0.2217  0.8279  -0.004699  -0.009902  -0.03537  -0.01364  0.8482  0.2072
6.434e+09  0.4826  0.7186  0.03207  0.01351  -0.0001348  -0.02835  0.8848  -0.101
6.435e+09  0.7028  0.5175  0.0421  0.004941  -0.02249  0.005802  0.7354  -0.3906
6.436e+09  0.8492  0.248  -0.01914  0.003008  0.009131  0.008755  0.5714  -0.6437
6.438e+09  0.8609  -0.0932  -0.03539  -0.006279  -0.03244  -0.004997  0.3559  -0.7518
6.439e+09  0.8442  -0.3227  -0.007683  -0.003666  -0.03602  0.003409  0.05119  -0.8173
6.44e+09  0.6166  -0.6449  -0.01724  -0.007631  -0.0249  -0.009895  -0.2306  -0.8128
6.441e+09  0.3361  -0.7604  0.0421  0.00115  0.05685  0.01395  -0.5163  -0.6451
6.442e+09  0.09413  -0.8895  -0.04457  0.0145  -0.005513  0.0123  -0.7001  -0.3942
6.444e+09  -0.229  -0.9108  0.02017  -0.01042  0.01704  -0.03537  -0.826  -0.2127
6.445e+09  -0.5061  -0.6414  0.03279  -0.0328  0.02854  0.001546  -0.8464  0.08371
6.446e+09  -0.7171  -0.4807  0.01825  0.0003451  -0.0007291  0.008779  -0.7357  0.3617
6.448e+09  -0.843  -0.1799  -0.004241  -0.05372  -0.001014  -0.01971  -0.6059  0.5648
6.449e+09  -0.8637  0.1098  0.02441  0.003876  0.002874  -0.01068  -0.3774  0.729
6.45e+09  -0.7842  0.3376  0.01727  0.003662  0.01742  -0.05575  -0.07448  0.8312
6.451e+09  -0.6323  0.6627  -0.02391  0.003544  0.00296  -0.03437  0.2403  0.8311
6.452e+09  -0.3652  0.7982  -0.00204  -0.01495  0.03664  -0.01039  0.4826  0.7076
6.454e+09  -0.04314  0.8722  0.038  0.01526  -0.0114  -0.02142  0.6788  0.4549
6.455e+09  0.2359  0.8075  -0.01014  0.02909  0.03367  -0.02104  0.8116  0.2327
6.456e+09  0.4328  0.6435  -0.04812  0.004421  -0.003533  0.01534  0.8075  -0.08726
6.458e+09  0.722  0.448  -0.04113  0.01207  0.006238  0.00485  0.7242  -0.2718
6.459e+09  0.8581  0.1834  -0.0499  0.03556  0.009271  -0.04472  0.584  -0.574
6.46e+09  0.8903  -0.07861  -0.03097  -0.03585  0.0327  -0.02137  0.3329  -0.7574
6.461e+09  0.7567  -0.3745  0.02927  -0.001492  0.007857  0.02366  0.06318  -0.8237
6.462e+09  0.599  -0.6144  0.01706  -0.002159  -0.05168  0.003434  -0.2133  -0.7681
6.464e+09  0.3178  -0.785  -0.0177  0.009606  -0.001368  -0.02159  -0.4962  -0.6451
6.465e+09  0.06999  -0.8738  -0.01365  0.006671  0.0297  0.05043  -0.6973  -0.4662
6.466e+09  -0.3004  -0.8268  -0.04266  0.01773  0.001804  0.04742  -0.7775  -0.186
6.468e+09  -0.494  -0.723  0.002568  -0.03485  -0.02277  0.01625  -0.8323  0.06189
6.469e+09  -0.769  -0.4776  0.02248  -0.02686  0.01162  0.003828  -0.7139  0.3112
6.47e+09  -0.873  -0.1579  0.000427  0.01492  0.02086  0.03344  -0.5177  0.5744
6.471e+09  -0.8884  0.1135  -0.01802  0.003298  -0.01731  0.005127  -0.32  0.7419
6.472e+09  -0.7232  0.4207  -0.02008  -0.03768  0.04254  0.05121  -0.08637  0.8017
6.474e+09  -0.5907  0.671  0.009672  -0.02165  0.02457  -0.01635  0.2482  0.7515
6.475e+09  -0.3661  0.8108  -0.01466  0.0198  -0.01575  -0.03411  0.4624  0.63
6.476e+09  -0.04079  0.8701  0.01982  0.02948  -0.03362  -0.03581  0.6612  0.4345
6.478e+09  0.2932  0.8244  -0.01263  -0.003154  -0.003221  -0.001648  0.751  0.2288
6.479e+09  0.514  0.6916  0.02221  0.007553  0.0187  0.008763  0.7992  -0.09637
6.48e+09  0.7616  0.4801  0.03401  0.01966  -0.01092  0.00254  0.6786  -0.3516
6.481e+09  0.795  0.1347  -0.01043  -0.01909  0.06088  0.03234  0.5293  -0.5778
6.482e+09  0.8808  -0.1572  0.0008716  -0.01747  0.02574  -0.02444  0.3141  -0.7149
6.484e+09  0.7802  -0.3979  0.02005  0.02973  0.01233  0.01841  0.05541  -0.7817
6.485e+09  0.6149  -0.6349  0.009535  0.01382  -0.001622  0.02769  -0.2312  -0.7406
6.486e+09  0.3037  -0.801  0.01891  -0.03112  -0.027  0.01459  -0.4383  -0.6054
6.488e+09  0.009916  -0.8227  0.001097  0.05294  -0.01953  -0.03636  -0.6521  -0.4425
6.489e+09  -0.2896  -0.7915  0.007109  -0.01264  -0.0132  0.0252  -0.717  -0.1793
6.49e+09  -0.524  -0.7197  0.04673  0.03354  0.01924  -0.06608  -0.7935  0.09089
6.491e+09  -0.7499  -0.4102  0.009896  -0.03515  -0.05444  0.04892  -0.6676  0.3538
6.492e+09  -0.8921  -0.09135  0.0358  0.001765  0.004552  -0.008734  -0.5186  0.5565
6.494e+09  -0.8278  0.1547  -0.02008  -0.01699  0.03909  -0.00571  -0.2943  0.7004
6.495e+09  -0.7529  0.4298  -0.01859  0.03046  0.002614  -0.007871  -0.03559  0.7609
6.496e+09  -0.5875  0.715  -0.01343  0.0408  -0.01351  0.02099  0.2  0.7161
6.498e+09  -0.2788  0.8073  -0.0339  -0.0003401  -0.02472  -0.01126  0.4478  0.5988
6.499e+09  0.02479  0.8882  -0.01956  0.00256  0.002427  -0.04649  0.6523  0.3826
6.5e+09  0.2958  0.8454  0.002096  0.003602  0.0463  -0.03074  0.7535  0.1784
6.501e+09  0.5646  0.661  0.01875  0.01347  0.005626  0.00615  0.7035  -0.07231
6.502e+09  0.7672  0.4063  -0.004485  0.03485  0.01649  -0.02748  0.6389  -0.3551
6.504e+09  0.8412  0.1522  -0.001575  -0.01989  0.01772  0.01768  0.5115  -0.5727
6.505e+09  0.8575  -0.1532  -0.003931  -0.007129  0.05818  0.01328  0.2823  -0.7098
6.506e+09  0.8315  -0.4517  0.03037  -0.0339  -0.02299  -0.01965  0.005988  -0.7555
6.508e+09  0.5695  -0.6755  0.02185  0.04603  0.05239  0.02955  -0.2693  -0.7248
6.509e+09  0.2571  -0.843  0.006599  0.004366  0.06533  -0.02485  -0.4656  -0.6107
6.51e+09  -0.02022  -0.9378  0.0442  -0.02068  -0.0154  0.001673  -0.6367  -0.4015
6.511e+09  -0.3547  -0.913  0.02095  0.006585  0.001514  0.02888  -0.7736  -0.1121
6.512e+09  -0.6148  -0.6583  0.005793  -0.000831  0.04634  -0.01041  -0.7349  0.1724
6.514e+09  -0.8029  -0.434  0.0345  0.02248  -0.001666  0.003474  -0.6807  0.3869
6.515e+09  -0.9243  -0.1177  0.006741  -0.0007676  0.04825  0.04839  -0.4713  0.6257
6.516e+09  -0.8734  0.2327  0.01672  0.02835  -0.002693  0.02376  -0.279  0.7146
6.518e+09  -0.827  0.4621  0.009078  0.002067  -0.03895  0.02934  0.00286  0.7738
6.519e+09  -0.5559  0.7429  -0.008049  -0.03258  0.01197  -0.008778  0.296  0.6802
6.52e+09  -0.2782  0.8744  -0.006408  0.002661  -0.005605  0.02311  0.5313  0.5572
6.521e+09  0.02874  0.8923  -0.01734  0.006496  -0.01552  -0.02136  0.6535  0.3639
6.522e+09  0.3439  0.8688  0.0174  0.004202  0.01099  0.03604  0.7093  0.1487
6.524e+09  0.6161  0.7278  -0.01818  0.005748  0.04118  -0.003401  0.6789  -0.1566
6.525e+09  0.8269  0.3991  -0.01071  -0.03956  -0.0009619  0.00755  0.6069  -0.3643
6.526e+09  0.9021  0.04834  -0.008317  0.04988  0.01276  -0.03434  0.4306  -0.5837
6.528e+09  0.9077  -0.2318  -0.01785  -0.0118  0.01322  -0.01852  0.2455  -0.6492
6.529e+09  0.8072  -0.5383  -0.006464  -0.007091  0.01857  -0.05001  -0.07165  -0.7282
6.53e+09  0.5267  -0.7728  0.0385  0.000633  0.005557  -0.02443  -0.2888  -0.6109
6.531e+09  0.2838  -0.9664  -0.03016  -0.01881  0.008169  0.0548  -0.4395  -0.522
6.532e+09  -0.07663  -0.9669  -0.05201  0.03133  0.02012  0.0289  -0.5932  -0.2668
6.534e+09  -0.403  -0.8816  -0.01796  0.02308  -0.003936  0.03084  -0.6629  -0.1223
6.535e+09  -0.7186  -0.6209  -0.02085  0.00741  -0.0438  2.472e-05  -0.6223  0.1262
6.536e+09  -0.8833  -0.3943  0.01562  0.009267  0.02351  0.02416  -0.5928  0.3257
6.538e+09  -0.9856  -0.03174  0.009366  0.008906  0.01745  0.02682  -0.4612  0.4669
6.539e+09  -0.8976  0.2828  0.01455  0.007268  0.06931  0.004612  -0.2982  0.6343
6.54e+09  -0.78  0.591  -0.03609  0.0002759  0.02139  0.01992  -0.09045  0.6492
6.541e+09  -0.5204  0.8378  -0.00445  -0.008219  -0.02993  -0.0207  0.2019  0.6841
6.542e+09  -0.1823  0.8994  -0.01435  0.01204  -0.008015  -0.03009  0.3857  0.6014
6.544e+09  0.1811  0.9954  0.001583  0.009551  -0.006371  -0.01343  0.6031  0.3878
6.545e+09  0.519  0.8277  0.0419  -0.0007853  0.03945  -0.01701  0.6868  0.1982
6.546e+09  0.7219  0.6238  -0.01559  0.01417  0.004697  -0.05502  0.7192  -0.05226
6.548e+09  0.8722  0.322  0.007804  -0.0152  0.009346  -0.02376  0.6774  -0.2992
6.549e+09  0.9983  0.02072  0.005395  0.03275  0.05778  0.003001  0.5208  -0.5258
6.55e+09  0.9259  -0.3302  -0.0112  -0.03577  -0.02094  -0.007618  0.2626  -0.7042
6.551e+09  0.7551  -0.6425  0.03085  -0.007658  0.007422  -0.01211  0.04789  -0.7475
