# Hz S RI R 50
6.25e+09  -0.2189  0.8068  0.007634  0.002323  -0.07464  0.02069  0.1469  0.4718
6.251e+09  0.1146  0.8707  0.01143  -0.01216  0.02874  0.009728  0.345  0.4087
6.252e+09  0.349  0.8066  0.03306  0.02539  -0.003979  -0.03821  0.5038  0.247
6.254e+09  0.6853  0.6293  -0.0009848  -0.009537  0.02791  -0.01657  0.5992  0.02978
6.255e+09  0.7512  0.3327  0.01588  -0.0009715  0.008711  -0.007765  0.5846  -0.2245
6.256e+09  0.8883  0.05971  0.0188  -0.004202  -0.005758  0.03092  0.4825  -0.4858
6.258e+09  0.8053  -0.2076  -0.03403  0.004355  0.04752  0.03064  0.2632  -0.6176
6.259e+09  0.6678  -0.5179  0.001842  -0.001348  0.002331  -0.03766  0.04804  -0.6782
6.26e+09  0.4806  -0.73  0.01601  -0.01987  0.03362  0.007885  -0.2079  -0.6612
6.261e+09  0.2125  -0.82  -0.02884  -0.02026  -0.02533  -0.0488  -0.4487  -0.5713
6.262e+09  -0.07397  -0.8417  -0.01831  -0.006915  0.02674  -0.02603  -0.6154  -0.3424
6.264e+09  -0.3733  -0.7107  0.02996  0.03605  0.003121  0.02515  -0.715  -0.1102
6.265e+09  -0.5997  -0.5999  -0.03551  0.001474  -0.02197  0.006809  -0.7063  0.1556
6.266e+09  -0.7879  -0.3252  0.008603  -0.003845  -0.009315  -0.002229  -0.6174  0.4239
6.268e+09  -0.8353  -0.03036  0.0362  0.02119  -0.03628  0.02812  -0.4291  0.5937
6.269e+09  -0.829  0.2343  0.01809  0.008531  0.03566  0.008097  -0.1938  0.6952
6.27e+09  -0.7293  0.4974  0.02094  -0.01401  0.03795  -0.01513  0.07819  0.7448
6.271e+09  -0.452  0.7146  -0.01464  -0.03472  -0.02204  0.004063  0.2866  0.6612
6.272e+09  -0.2202  0.8331  0.01239  0.02544  0.009484  -0.01068  0.5437  0.5265
6.274e+09  0.08704  0.8216  -0.02915  -0.01398  0.01353  -0.002292  0.6868  0.3447
6.275e+09  0.3967  0.7907  -0.01881  -0.02151  0.0003347  -0.06938  0.7393  0.009431
6.276e+09  0.5827  0.5618  -0.02743  -0.00673  0.003687  0.002676  0.7164  -0.241
6.278e+09  0.7442  0.3609  -0.003296  -0.01418  -0.007471  -0.03009  0.6145  -0.4701
6.279e+09  0.8287  0.01784  -0.0002622  0.01158  0.06869  -0.001016  0.4095  -0.6513
6.28e+09  0.8012  -0.2959  -0.003219  -0.01389  -0.002854  -0.02182  0.1579  -0.7479
6.281e+09  0.7101  -0.4945  0.0116  0.01174  -0.01676  0.03705  -0.1206  -0.7812
6.282e+09  0.4776  -0.728  0.01837  0.01102  0.01778  -0.03288  -0.3678  -0.7051
6.284e+09  0.1579  -0.8609  0.01891  -0.01455  -0.02794  0.01195  -0.5115  -0.5222
6.285e+09  -0.1094  -0.8159  -0.006584  0.04259  0.0008908  -0.00303  -0.7252  -0.3036
6.286e+09  -0.4384  -0.771  0.006946  0.00639  -0.02333  -0.02505  -0.8087  -0.05814
6.288e+09  -0.641  -0.5752  -0.005477  -0.02547  -0.0003324  0.02559  -0.7352  0.232
6.289e+09  -0.7836  -0.3394  0.02354  -0.003222  -0.05749  0.01615  -0.6189  0.5145
6.29e+09  -0.8867  -0.0124  -0.003769  -0.006151  -0.03388  -0.03645  -0.4036  0.6757
6.291e+09  -0.8082  0.3481  -0.0264  0.009396  0.007469  0.03539  -0.1717  0.8075
6.292e+09  -0.6384  0.5959  0.01499  -0.0315  0.01145  0.01366  0.1479  0.8019
6.294e+09  -0.4455  0.7928  0.003213  -0.005785  -0.01466  0.0094  0.3883  0.7234
6.295e+09  -0.1145  0.7907  -0.02648  0.002858  -0.01939  0.01021  0.6334  0.5398
6.296e+09  0.1706  0.8581  0.01273  0.01531  -0.01374  -0.01643  0.7958  0.2734
6.298e+09  0.4381  0.7353  0.002186  -0.01449  0.007325  -0.01759  0.8184  -0.01835
6.299e+09  0.6489  0.5591  0.01364  -0.01256  -0.04512  0.00989  0.7774  -0.2995
6.3e+09  0.7913  0.2249  -0.01543  0.017  -0.002981  -0.03087  0.679  -0.5455
6.301e+09  0.8188  -0.02827  0.005119  0.01473  -0.009671  0.007104  0.4469  -0.7576
6.302e+09  0.7425  -0.305  0.0217  -0.02036  -0.01314  -0.02084  0.1581  -0.8279
6.304e+09  0.637  -0.5387  0.02666  0.04622  0.0158  -0.02758  -0.1365  -0.835
6.305e+09  0.3417  -0.7425  0.009417  0.00718  0.01364  -0.03182  -0.4423  -0.7533
6.306e+09  0.1423  -0.8063  0.02825  0.006792  0.04101  0.01346  -0.6331  -0.5564
6.308e+09  -0.1499  -0.7762  0.02507  0.008712  -0.01791  -0.0003345  -0.8076  -0.3096
6.309e+09  -0.4299  -0.6986  0.01317  -0.004742  -0.001769  0.002752  -0.8503  0.0271
6.31e+09  -0.7142  -0.4918  -0.0005228  0.01331  -0.02263  0.01467  -0.8315  0.2801
6.311e+09  -0.8243  -0.2002  0.01351  -0.04001  0.0237  0.05339  -0.6789  0.5494
6.312e+09  -0.8594  0.05881  0.02695  -0.005196  0.002722  -0.02725  -0.4557  0.7677
6.314e+09  -0.7624  0.3489  0.01744  -0.02495  0.02395  -0.01223  -0.1261  0.866
6.315e+09  -0.5678  0.6201  -0.01944  -0.001605  -0.03961  0.02209  0.154  0.889
6.316e+09  -0.3262  0.7778  0.005826  -0.008298  0.007322  -0.02411  0.4653  0.7575
6.318e+09  -0.02554  0.8997  -0.04529  -0.01889  -0.03171  -0.03633  0.6755  0.5735
6.319e+09  0.2694  0.7455  0.001596  0.007399  -0.02589  0.04745  0.8262  0.3067
6.32e+09  0.4795  0.6491  -0.007109  0.0003982  0.01534  -0.005684  0.878  0.01882
6.321e+09  0.7237  0.4997  -0.005579  0.002048  0.003225  -0.02783  0.8459  -0.2905
6.322e+09  0.8191  0.1795  0.005582  0.02173  0.01813  -0.004598  0.6941  -0.5629
6.324e+09  0.7993  -0.1005  0.02823  0.006448  -0.02677  -0.03453  0.4528  -0.7643
6.325e+09  0.7604  -0.4004  -0.02321  -0.03516  0.03873  0.01832  0.1814  -0.8899
6.326e+09  0.6087  -0.6398  0.01536  0.01276  -0.05586  -0.0203  -0.124  -0.8941
6.328e+09  0.3446  -0.8009  -0.02049  0.004456  0.002183  0.01785  -0.4482  -0.8275
6.329e+09  0.06077  -0.879  0.01657  -0.001134  0.009606  -0.03255  -0.7101  -0.5934
6.33e+09  -0.26  -0.8197  0.004329  0.02329  0.0294  0.01038  -0.8342  -0.3444
6.331e+09  -0.5814  -0.7016  0.0007005  -0.03334  0.02138  0.02705  -0.9242  -0.01585
6.332e+09  -0.7072  -0.4919  0.021  0.01527  -0.01755  -0.01313  -0.8755  0.2965
6.334e+09  -0.8712  -0.1686  -0.01766  -0.003942  0.01208  0.008237  -0.7498  0.5429
6.335e+09  -0.8401  0.1912  -0.01304  -0.04591  0.01552  -0.006369  -0.4798  0.7635
6.336e+09  -0.7346  0.4308  0.004391  0.007402  0.02482  -0.02724  -0.2002  0.9321
6.338e+09  -0.5646  0.7147  -0.003169  -0.003188  0.01798  -0.02825  0.1621  0.9068
6.339e+09  -0.2863  0.8124  -0.01935  -0.007325  -0.01723  -0.03703  0.3888  0.7957
6.34e+09  -0.01391  0.8797  -0.01376  0.01201  0.005768  -0.0002614  0.6903  0.6313
6.341e+09  0.324  0.7847  0.02522  -0.01174  -0.01801  -0.01022  0.8264  0.3589
6.342e+09  0.6215  0.6212  -0.008907  0.01243  0.02971  -0.01014  0.951  6.254e-05
6.344e+09  0.8109  0.3975  -0.01451  -0.004634  -0.0003897  -0.02906  0.8826  -0.261
6.345e+09  0.8887  0.07855  0.01127  -0.02447  -0.04161  -0.02405  0.7341  -0.5668
6.346e+09  0.8407  -0.2804  -0.001916  0.03592  -0.04594  0.01255  0.5435  -0.7707
6.348e+09  0.7434  -0.5482  0.01027  0.03442  -0.03893  0.01588  0.2057  -0.9435
6.349e+09  0.4991  -0.7048  -0.01235  -0.01159  -0.002783  0.0223  -0.1179  -0.9381
6.35e+09  0.2111  -0.8509  0.01823  0.007426  0.00536  0.02955  -0.4191  -0.8445
6.351e+09  -0.06398  -0.8421  -0.0186  -0.01581  -0.03044  0.008929  -0.6767  -0.6269
6.352e+09  -0.3841  -0.7902  -0.0127  -0.005818  -0.01817  -0.0148  -0.8525  -0.3767
6.354e+09  -0.6577  -0.6165  -0.02599  0.04188  -0.01376  -0.02454  -0.9753  -0.0375
6.355e+09  -0.8492  -0.3414  -0.007158  -0.01252  0.0004937  -0.01435  -0.8994  0.2741
6.356e+09  -0.9005  -0.02759  -0.01139  0.05761  -0.02439  0.003615  -0.7754  0.544
6.358e+09  -0.8437  0.2927  0.005486  -0.01215  0.003341  0.01819  -0.5262  0.8192
6.359e+09  -0.6827  0.5773  0.03094  0.00943  -0.01611  -0.01948  -0.2544  0.8596
6.36e+09  -0.4583  0.7696  -0.01469  -0.03403  -0.003779  -0.02617  0.09291  0.9452
6.361e+09  -0.1733  0.9176  -0.01043  0.03039  -0.02826  0.008994  0.4181  0.8548
6.362e+09  0.1112  0.8831  0.01553  0.01883  0.03938  0.005947  0.7376  0.6517
6.364e+09  0.4398  0.7914  0.01337  0.01511  -0.0478  0.0009059  0.8674  0.3797
6.365e+09  0.695  0.5778  -0.01028  0.006802  -0.05376  0.01933  0.9346  0.06987
6.366e+09  0.8496  0.2744  -0.009013  0.003754  -0.02951  0.003484  0.949  -0.2262
6.368e+09  0.9022  0.02949  -0.04049  -0.01056  -0.006786  0.06411  0.7896  -0.5568
6.369e+09  0.87  -0.358  0.006206  -0.01402  0.02026  0.008935  0.4817  -0.7833
6.37e+09  0.6326  -0.5481  -0.006364  -0.002083  -0.01898  0.01841  0.2311  -0.897
6.371e+09  0.4444  -0.7633  -0.01343  -0.01835  0.03377  0.01806  -0.08535  -0.9292
6.372e+09  0.1056  -0.8742  -0.02379  0.01037  -9.488e-06  0.004462  -0.4067  -0.8834
6.374e+09  -0.2017  -0.8811  0.01297  -0.007466  -0.004179  -0.01113  -0.6529  -0.6553
6.375e+09  -0.495  -0.7192  -0.007495  0.006827  -0.03695  0.0415  -0.8752  -0.405
6.376e+09  -0.7586  -0.5447  0.008542  -0.01473  0.04226  0.03321  -0.9791  -0.1232
6.378e+09  -0.8282  -0.2571  0.01586  0.001985  0.05418  -0.01905  -0.9408  0.2419
6.379e+09  -0.8943  0.05363  0.008733  -0.02367  -0.03225  0.00921  -0.8073  0.5532
6.38e+09  -0.8206  0.3752  0.004375  0.02298  -0.03136  -0.01792  -0.5268  0.7726
6.381e+09  -0.6583  0.6204  0.02224  -0.05697  3.907e-05  -0.01376  -0.238  0.9086
6.382e+09  -0.3709  0.7771  0.007736  0.03226  0.02138  0.0427  0.05309  0.9787
6.384e+09  -0.0444  0.9075  0.005502  -0.01053  -0.008836  0.05226  0.4147  0.8684
6.385e+09  0.2196  0.8533  0.005265  -0.001278  -0.02137  0.00783  0.6221  0.6852
6.386e+09  0.485  0.7323  -0.06494  -0.005704  0.01643  -0.001817  0.8283  0.395
6.388e+09  0.7535  0.518  -0.003212  0.002708  0.009724  -0.001241  0.9348  0.0906
6.389e+09  0.9101  0.2108  -0.03682  0.02068  0.009463  0.002507  0.8994  -0.1603
6.39e+09  0.878  -0.1099  0.002125  -0.008536  0.03474  0.004615  0.7464  -0.5101
6.391e+09  0.8654  -0.4354  -0.02401  -0.01937  -0.003754  0.05759  0.5691  -0.7227
6.392e+09  0.6151  -0.6759  -0.003798  -0.03395  -0.01918  -0.02549  0.3281  -0.9393
6.394e+09  0.3554  -0.8075  -0.05012  0.001656  0.04178  -0.05366  -0.03664  -0.9644
6.395e+09  0.07602  -0.9071  -0.0005753  0.004928  0.0313  -0.01399  -0.3344  -0.8906
6.396e+09  -0.2865  -0.83  0.02789  -0.01805  0.03114  -0.01774  -0.6484  -0.691
6.398e+09  -0.5583  -0.7072  -0.02884  0.03103  -0.01284  -0.01265  -0.7983  -0.4501
6.399e+09  -0.7581  -0.4943  0.03205  0.02924  0.03133  -0.03573  -0.8798  -0.1324
6.4e+09  -0.9057  -0.2281  0.01701  0.003229  -0.06766  0.01072  -0.8633  0.176
6.401e+09  -0.8726  0.1168  0.01336  0.04937  -0.02579  0.00532  -0.7705  0.5048
6.402e+09  -0.7642  0.4123  0.01755  -0.01748  0.03199  -0.006803  -0.6016  0.7394
6.404e+09  -0.6029  0.6634  -0.05887  -0.003475  -0.02464  0.00935  -0.2842  0.9029
6.405e+09  -0.3105  0.8147  0.06551  0.01279  -0.02108  -0.01679  0.004138  0.8913
6.406e+09  -0.06876  0.8926  -0.01676  -0.001298  0.00117  -0.05827  0.3094  0.8227
6.408e+09  0.2794  0.8057  0.0209  0.002366  -0.005053  0.02877  0.5872  0.7104
6.409e+09  0.5529  0.7065  -0.00502  0.003612  0.01135  -0.02539  0.7546  0.4584
6.41e+09  0.7621  0.4722  0.04307  -0.004527  0.002901  0.01833  0.8902  0.2002
6.411e+09  0.917  0.1959  0.0209  0.005273  0.04141  -0.04855  0.9228  -0.1296
6.412e+09  0.8869  -0.1447  0.02191  0.001491  -0.01861  0.005708  0.7858  -0.4746
6.414e+09  0.7661  -0.4554  -0.04148  -0.05526  -0.01625  0.03072  0.6041  -0.674
6.415e+09  0.6183  -0.6989  -0.01219  0.03578  -0.007458  -0.0251  0.3326  -0.848
6.416e+09  0.293  -0.8424  -0.02107  -0.02331  0.02472  0.01058  0.02183  -0.8796
6.418e+09  0.04557  -0.8896  -0.01398  -0.03164  0.05157  0.04284  -0.2972  -0.8545
6.419e+09  -0.2971  -0.8781  -0.01775  0.0139  -0.03393  0.02477  -0.5235  -0.723
6.42e+09  -0.5664  -0.7125  0.009046  0.01355  0.0001995  -0.01592  -0.7785  -0.4891
6.421e+09  -0.7362  -0.4383  -0.0058  -0.0376  -0.002417  -0.03001  -0.7842  -0.24
6.422e+09  -0.908  -0.1784  0.03684  -0.02437  0.0396  -0.03087  -0.9006  0.06917
6.424e+09  -0.8846  0.1863  0.02155  0.001559  0.01239  0.008905  -0.8194  0.3855
6.425e+09  -0.7339  0.4274  0.03076  -0.02955  0.004422  -0.0321  -0.6414  0.6329
6.426e+09  -0.5835  0.6955  -0.006326  -0.002297  -0.0211  0.004297  -0.3265  0.7727
6.428e+09  -0.2813  0.8638  0.01341  -0.02082  -0.04986  0.02343  -0.03653  0.9161
6.429e+09  0.01202  0.8614  0.01833  -0.04701  -0.001718  0.002136  0.2438  0.8406
6.43e+09  0.3079  0.867  -0.0549  0.03066  0.01085  -0.03461  0.4717  0.7054
6.431e+09  0.5832  0.6885  -0.01275  0.01405  -0.03233  -0.02097  0.7233  0.4715
6.432e+09  0.7973  0.3814  -0.0031  0.03604  0.01379  0.0549  0.8497  0.2301
6.434e+09  0.8731  0.192  -0.007883  0.01984  0.0125  0.007174  0.8666  -0.07299
6.435e+09  0.8416  -0.1813  0.02665  -0.04512  0.03214  0.0005358  0.7439  -0.3961
6.436e+09  0.7621  -0.5335  0.01129  0.03591  0.009717  -0.004708  0.5743  -0.6349
6.438e+09  0.604  -0.6544  -0.009229  -0.02617  -0.01785  0.01382  0.3179  -0.8299
6.439e+09  0.2841  -0.9079  0.002806  0.001351  0.006542  -0.03879  0.0363  -0.8102
6.44e+09  0.0003961  -0.8849  0.02584  0.01595  0.05379  0.006813  -0.2309  -0.8151
6.441e+09  -0.3553  -0.8673  0.02158  -0.0236  0.003025  0.004551  -0.493  -0.6694
6.442e+09  -0.5715  -0.6501  -0.0004493  -0.01426  0.04714  -0.008768  -0.7198  -0.4429
6.444e+09  -0.7385  -0.4846  -0.002074  0.02646  -0.003354  0.0318  -0.8151  -0.2318
6.445e+09  -0.8952  -0.1595  -0.00396  -0.001633  0.004397  0.01253  -0.7889  0.07718
6.446e+09  -0.8455  0.1531  0.05038  0.005217  0.009577  0.01977  -0.7337  0.3732
6.448e+09  -0.7879  0.465  0.004308  -0.01921  -0.004766  -0.01962  -0.5953  0.6167
6.449e+09  -0.5817  0.7498  -0.009296  -0.004988  -0.03779  0.02437  -0.3313  0.7959
6.45e+09  -0.2695  0.8665  -0.01605  -0.005308  0.01795  0.01566  -0.0364  0.8135
6.451e+09  0.01806  0.8799  -0.03613  -0.02347  -0.05265  -0.01066  0.2346  0.7978
6.452e+09  0.3217  0.8875  -0.009252  -0.02266  -0.01683  -0.04173  0.5316  0.7387
6.454e+09  0.6177  0.6993  -0.01066  0.02975  0.003975  0.01492  0.6662  0.4304
6.455e+09  0.8353  0.4287  -0.01827  -0.03337  -0.008178  -0.04529  0.7907  0.199
6.456e+09  0.8973  0.07812  0.01634  0.02237  0.007312  -0.006207  0.8389  -0.06887
6.458e+09  0.9142  -0.1995  -0.005041  -0.008115  -0.00116  -0.03264  0.7397  -0.3549
6.459e+09  0.7779  -0.529  -0.02122  -0.01709  -0.06349  -0.04339  0.6065  -0.5862
6.46e+09  0.5655  -0.7582  0.03066  -0.03997  -0.02456  0.002071  0.3092  -0.746
6.461e+09  0.2553  -0.8363  0.009681  0.025  -0.02247  -0.02222  0.09525  -0.8042
6.462e+09  -0.0743  -0.9297  0.02576  0.02863  0.01328  0.05103  -0.2137  -0.7858
6.464e+09  -0.3525  -0.8212  0.005935  -0.009908  0.03054  0.02429  -0.4497  -0.6518
6.465e+09  -0.6623  -0.6483  0.01397  0.007282  0.01155  -0.01385  -0.6458  -0.4973
6.466e+09  -0.7808  -0.4312  0.02351  0.001322  0.02898  0.03023  -0.8111  -0.1786
6.468e+09  -0.9172  -0.09662  -0.03041  -0.003579  -0.008823  -0.02373  -0.8284  0.0718
6.469e+09  -0.8646  0.2316  -0.03144  -0.0253  0.03742  0.02727  -0.7536  0.3295
6.47e+09  -0.7659  0.5478  -0.02043  -0.004862  0.0159  -0.06539  -0.5287  0.5513
6.471e+09  -0.5124  0.7439  -0.00619  -0.004033  -0.00873  0.00384  -0.2976  0.7568
6.472e+09  -0.2005  0.9414  0.00439  0.01425  -0.001307  0.01001  -0.0631  0.8212
6.474e+09  0.0175  0.9258  0.00419  -0.01721  -0.029  -0.03269  0.2032  0.7494
6.475e+09  0.3726  0.8632  -0.009114  0.05188  0.003452  -0.01991  0.4358  0.6305
6.476e+09  0.6562  0.6924  -0.02112  -0.01403  -0.06057  0.03943  0.6508  0.4758
6.478e+09  0.8941  0.398  -0.01977  0.01234  0.03273  0.03702  0.7851  0.192
6.479e+09  0.9251  0.05783  0.01779  0.02968  -0.004134  0.0003442  0.8124  -0.07159
6.48e+09  0.8529  -0.2223  -0.0106  -0.01957  -0.01567  0.06497  0.7056  -0.3364
6.481e+09  0.7694  -0.5367  0.02378  0.01975  0.02618  0.05488  0.5688  -0.5615
6.482e+09  0.4918  -0.7559  -0.005567  -0.008141  0.0166  0.03412  0.3108  -0.7554
6.484e+09  0.2423  -0.8682  0.04552  0.00291  -0.01898  0.01092  0.02769  -0.7628
6.485e+09  -0.1237  -0.9717  0.0405  -0.006499  -0.02209  0.00186  -0.2197  -0.729
6.486e+09  -0.4271  -0.8338  0.01401  0.02551  -0.0005988  -0.01591  -0.4413  -0.6342
6.488e+09  -0.6503  -0.6539  0.01072  -0.004328  -0.008967  -0.0108  -0.6322  -0.4533
6.489e+09  -0.84  -0.3522  0.03871  -0.0395  -0.05902  0.02795  -0.769  -0.1851
6.49e+09  -0.9092  -0.0554  -0.01966  0.01546  -0.01314  -0.01958  -0.7593  0.09534
6.491e+09  -0.9188  0.341  -0.009636  0.01764  -0.02221  -0.03043  -0.6719  0.3453
6.492e+09  -0.7527  0.619  0.002968  -0.01206  0.02013  -0.01741  -0.5294  0.5636
6.494e+09  -0.4625  0.7775  -0.007561  0.01401  0.03239  -0.02905  -0.2651  0.7418
6.495e+09  -0.1602  0.9267  -0.007846  -0.01235  0.0654  0.01754  -0.003451  0.744
6.496e+09  0.1187  0.8453  -0.04224  -0.02557  -0.008188  -0.001063  0.2312  0.7333
6.498e+09  0.4119  0.8606  0.02024  -0.01122  0.002329  0.03693  0.4787  0.6156
6.499e+09  0.6932  0.5744  -0.008704  0.04026  -0.01712  0.008694  0.671  0.4162
6.5e+09  0.9167  0.3181  -0.00555  0.03733  0.00969  -0.01482  0.7623  0.1739
6.501e+09  0.97  -0.05104  0.02195  -0.03895  0.008744  -0.0005538  0.7662  -0.0597
6.502e+09  0.904  -0.333  -0.006308  0.01577  -0.01507  0.0452  0.6113  -0.3433
6.504e+09  0.7283  -0.6198  -0.004903  -0.02937  -0.02285  -0.05666  0.544  -0.5485
6.505e+09  0.4787  -0.8339  0.001262  -0.01947  -0.003242  -0.02267  0.3065  -0.7133
6.506e+09  0.1704  -0.9755  0.04629  -0.01521  -0.04539  0.02301  0.03545  -0.7906
6.508e+09  -0.2187  -0.9648  -0.01601  0.03966  -0.01664  -0.001701  -0.2827  -0.7261
6.509e+09  -0.4702  -0.7844  0.0299  0.01072  -0.02275  -0.003074  -0.4575  -0.5939
6.51e+09  -0.7264  -0.5809  -0.004968  -0.006332  -0.003301  -0.0102  -0.6622  -0.3884
6.511e+09  -0.9478  -0.2693  0.007973  -0.04596  0.008224  -0.009857  -0.7357  -0.1143
6.512e+09  -0.9414  0.1255  -0.02484  0.04927  -0.0252  0.03693  -0.7785  0.1285
6.514e+09  -0.8846  0.4377  0.004517  0.004768  0.04985  -0.01794  -0.629  0.3718
6.515e+09  -0.7322  0.6782  -0.0404  -0.003973  0.003262  -0.02124  -0.4791  0.5865
6.516e+09  -0.3608  0.8796  0.01241  -0.01508  0.04765  -0.01305  -0.2389  0.7237
6.518e+09  -0.009132  0.9603  -0.02195  0.0191  0.05781  0.004042  0.00472  0.7438
6.519e+09  0.2571  0.9012  0.01165  -0.02794  0.003125  -0.02704  0.2959  0.6455
6.52e+09  0.583  0.761  0.01399  0.03415  0.02352  -0.02591  0.5182  0.5393
6.521e+09  0.7911  0.5244  -0.0006386  0.001692  0.01098  0.0389  0.6723  0.3281
6.522e+09  0.9494  0.2082  -0.01131  0.00368  0.01169  0.01855  0.7352  0.1071
6.524e+09  0.9939  -0.08606  0.04509  0.02859  0.02954  0.001318  0.7362  -0.1458
6.525e+09  0.8586  -0.4817  0.005487  -0.02529  -0.02191  0.01023  0.6275  -0.4004
6.526e+09  0.5519  -0.7005  -0.0003794  -0.003489  -0.006587  0.02026  0.4276  -0.5829
6.528e+09  0.3616  -0.8889  -0.05607  0.002908  0.01229  -0.03006  0.1695  -0.6858
6.529e+09  -0.05943  -0.9984  -0.01217  -0.02562  -0.05888  0.01049  -0.05066  -0.7028
6.53e+09  -0.3693  -0.916  0.01527  -0.01875  0.05244  0.006936  -0.2943  -0.5855
6.531e+09  -0.6211  -0.7642  0.06295  -0.01117  -0.0123  -0.007772  -0.4515  -0.4647
6.532e+09  -0.8497  -0.4818  0.01897  -0.02083  0.04619  0.02515  -0.5715  -0.2991
6.534e+09  -0.963  -0.1801  0.0009931  0.0004484  -0.001752  0.026  -0.6392  -0.101
6.535e+09  -1.002  0.2079  0.007617  0.01477  0.0102  0.04705  -0.6328  0.1274
6.536e+09  -0.7921  0.5199  -0.02898  -0.0008047  0.02647  0.05645  -0.5608  0.3534
6.538e+09  -0.5451  0.8113  0.0236  -0.02201  -0.003106  0.001881  -0.4275  0.4902
6.539e+09  -0.2882  0.887  -0.02552  0.01454  0.01329  0.01233  -0.2992  0.5938
6.54e+09  0.0904  0.9929  -0.02172  -0.01648  -0.005854  0.03575  -0.05076  0.7069
6.541e+09  0.4229  0.8553  -0.02442  0.02724  -0.01227  0.0005102  0.1506  0.666
6.542e+09  0.6644  0.7079  0.0266  0.005454  -0.008495  0.03945  0.4214  0.5733
6.544e+09  0.8772  0.3566  -0.03608  0.02619  0.003312  -0.008669  0.5723  0.4152
6.545e+09  0.9791  0.07522  0.006544  0.02595  0.05967  0.06404  0.6794  0.1944
6.546e+09  0.931  -0.2902  0.02902  0.01221  -0.01262  0.03552  0.7312  -0.0451
6.548e+09  0.7324  -0.549  -0.005765  -0.02046  0.01665  0.004963  0.6444  -0.31
6.549e+09  0.4926  -0.8046  0.02028  -0.01646  0.02211  0.01162  0.5266  -0.5132
6.55e+09  0.1941  -0.9133  0.01198  0.01661  -0.04015  -0.01022  0.2815  -0.675
