# Hz S RI R 50
6.25e+09  0.2525  0.8046  0.004191  -0.01276  0.02928  -0.008603  0.1415  0.5107
6.251e+09  0.449  0.7245  -0.005942  0.01174  -0.008797  0.02252  0.3562  0.3871
6.252e+09  0.6862  0.5026  -0.04308  0.009242  -0.003081  -0.02656  0.5331  0.223
6.254e+09  0.8925  0.1719  0.01964  -0.02369  -0.01489  0.01292  0.6148  -0.0005245
6.255e+09  0.8419  -0.08501  -0.02057  -0.01922  -0.01187  0.001789  0.6024  -0.2417
6.256e+09  0.7619  -0.4553  -0.01649  0.005831  0.03292  0.00393  0.4543  -0.4636
6.258e+09  0.5854  -0.5812  -0.009518  0.02857  0.005569  0.0332  0.2767  -0.6254
6.259e+09  0.2957  -0.8411  -0.01839  -0.01848  0.03552  -0.07537  0.007081  -0.701
6.26e+09  0.06392  -0.7977  0.00273  -0.002173  0.02493  -0.009953  -0.2017  -0.6665
6.261e+09  -0.278  -0.8099  0.01646  0.01772  0.03584  -0.005584  -0.4592  -0.5237
6.262e+09  -0.585  -0.6374  -0.002469  0.01291  0.0448  -0.05656  -0.5913  -0.36
6.264e+09  -0.7102  -0.4144  -0.01614  -0.05071  0.004886  0.01392  -0.7186  -0.07819
6.265e+09  -0.8174  -0.1543  0.0009221  -0.001307  -0.03469  0.027  -0.7141  0.1605
6.266e+09  -0.8013  0.1258  0.02355  0.04248  -0.01509  -0.009917  -0.6102  0.4185
6.268e+09  -0.7516  0.3865  -0.03685  0.02081  -0.002563  0.05839  -0.412  0.5623
6.269e+09  -0.5698  0.614  -0.01457  -0.01043  0.04411  -0.007365  -0.2097  0.7271
6.27e+09  -0.2757  0.7746  -0.0214  0.004716  0.008391  0.03618  0.05323  0.7254
6.271e+09  0.03027  0.8448  -0.01063  0.008267  0.06435  -0.02547  0.3033  0.6937
6.272e+09  0.305  0.7342  0.00257  -0.02273  0.02363  -0.02619  0.5425  0.5414
6.274e+09  0.5408  0.633  0.02508  -0.006866  -0.01375  -0.03532  0.6854  0.3148
6.275e+09  0.7301  0.383  -0.01378  -0.01109  0.003071  0.001116  0.7654  0.04994
6.276e+09  0.844  0.09143  0.00126  -0.001225  -0.03142  0.011  0.7245  -0.2414
6.278e+09  0.8048  -0.1745  -0.01283  0.002248  0.01906  -0.0516  0.5827  -0.5145
6.279e+09  0.6581  -0.4184  0.007585  -0.03719  0.01327  0.006431  0.3872  -0.6699
6.28e+09  0.5345  -0.6359  0.02325  -0.004794  0.01139  0.01037  0.1754  -0.7502
6.281e+09  0.2565  -0.8321  0.005354  0.02047  -0.01728  -0.0338  -0.1139  -0.7852
6.282e+09  -0.02382  -0.7986  0.01375  -0.007088  -0.0375  0.04843  -0.3437  -0.7346
6.284e+09  -0.2805  -0.7741  -0.005751  -0.02715  0.01842  -0.02096  -0.6047  -0.5353
6.285e+09  -0.5926  -0.6007  0.03162  0.03423  -0.01265  0.02793  -0.7734  -0.2641
6.286e+09  -0.8432  -0.3298  -0.0256  0.007601  -0.01804  0.0007649  -0.7902  -0.05016
6.288e+09  -0.8261  -0.06156  -0.005716  -0.005376  -0.004423  0.03451  -0.7563  0.2933
6.289e+09  -0.8121  0.2535  0.007757  -0.00522  0.03063  0.01467  -0.6434  0.504
6.29e+09  -0.6511  0.5145  0.009938  0.01102  0.02728  -0.001119  -0.431  0.6778
6.291e+09  -0.4389  0.7346  -0.003235  -0.01424  -0.007486  0.03271  -0.1444  0.799
6.292e+09  -0.1938  0.8323  0.01113  -0.02924  -0.08255  -0.03132  0.1391  0.8001
6.294e+09  0.1242  0.845  0.0191  0.02374  -0.01477  0.05996  0.3877  0.7341
6.295e+09  0.3746  0.7389  -0.009278  0.005422  0.00552  -0.02174  0.6191  0.5155
6.296e+09  0.5737  0.5613  -0.0185  -0.00961  0.01775  0.03474  0.7635  0.3085
6.298e+09  0.7347  0.3503  0.009306  -0.003941  0.01659  -0.04268  0.826  -0.005902
6.299e+09  0.8544  -0.02508  -0.02491  0.004857  -0.0287  0.026  0.8086  -0.2984
6.3e+09  0.864  -0.312  -0.004786  0.02476  0.03147  0.01751  0.6356  -0.5058
6.301e+09  0.6616  -0.551  -0.007686  -0.00791  -0.008348  -0.05926  0.4309  -0.7087
6.302e+09  0.4471  -0.7813  -0.01238  0.01385  -0.007355  -0.06946  0.1372  -0.8381
6.304e+09  0.158  -0.8401  -0.002621  0.01056  -0.0421  0.05399  -0.1469  -0.8226
6.305e+09  -0.07754  -0.8366  -0.007381  0.02086  -0.002705  -0.02656  -0.42  -0.7777
6.306e+09  -0.4306  -0.7054  0.01344  0.02015  -0.05658  -0.03604  -0.658  -0.5606
6.308e+09  -0.6615  -0.4989  -0.003496  -0.01189  -0.009101  -0.02133  -0.8062  -0.2906
6.309e+09  -0.8257  -0.2563  -0.001681  -0.04583  -0.009419  0.03649  -0.8507  0.01987
6.31e+09  -0.8234  0.06855  0.001677  -0.003458  0.01816  -0.008738  -0.8267  0.293
6.311e+09  -0.8058  0.3614  0.02164  0.004568  -0.01668  -0.006142  -0.659  0.5628
6.312e+09  -0.5973  0.6285  -0.01788  -0.01909  0.003288  0.007021  -0.4522  0.7528
6.314e+09  -0.3781  0.7343  -0.01933  -0.01956  0.01102  -0.01924  -0.1779  0.8781
6.315e+09  -0.06535  0.8372  -0.002337  -0.01868  -0.004528  -0.01829  0.1575  0.8654
6.316e+09  0.2158  0.8646  0.008898  0.002056  0.01434  -0.02078  0.3856  0.7668
6.318e+09  0.5237  0.702  -0.009866  -0.01799  -0.0105  -0.0001604  0.7077  0.5681
6.319e+09  0.6796  0.487  -0.003828  -0.03267  0.02749  0.003953  0.8342  0.2996
6.32e+09  0.8002  0.2271  -0.007614  -0.006933  -0.01602  0.02206  0.9277  0.01292
6.321e+09  0.8884  -0.08324  -0.01241  -0.01292  -0.01957  -0.006389  0.8049  -0.2708
6.322e+09  0.7386  -0.3784  0.009432  -0.001371  -0.016  0.04245  0.716  -0.5745
6.324e+09  0.5884  -0.611  0.007986  -0.009601  -0.01566  0.03019  0.4801  -0.7437
6.325e+09  0.3141  -0.8163  -0.03782  -0.02431  -0.0004901  0.02624  0.1478  -0.913
6.326e+09  0.0256  -0.8219  -0.02101  0.01931  0.004147  0.04426  -0.1314  -0.9145
6.328e+09  -0.2881  -0.8063  -0.01739  0.0206  -0.003509  0.04355  -0.4213  -0.7933
6.329e+09  -0.5481  -0.672  0.009482  -0.009327  0.01376  0.04337  -0.6587  -0.6174
6.33e+09  -0.7435  -0.4448  0.006613  -0.03175  0.03064  -0.03868  -0.8338  -0.3556
6.331e+09  -0.8502  -0.1443  0.02178  0.002699  -0.0441  -0.01222  -0.9148  -0.01137
6.332e+09  -0.8407  0.2025  -0.01115  0.03299  -0.01096  0.04444  -0.9058  0.3175
6.334e+09  -0.7521  0.4413  -0.01362  -0.0364  0.01826  0.006037  -0.7049  0.5629
6.335e+09  -0.5542  0.7201  0.0001704  0.00684  -0.02196  -0.01243  -0.4967  0.7892
6.336e+09  -0.235  0.8265  -0.01031  -0.01509  0.004578  0.03172  -0.2065  0.8748
6.338e+09  0.06859  0.8851  -0.02482  -0.001847  0.04083  0.03881  0.1436  0.8565
6.339e+09  0.3082  0.8346  -0.006365  -0.005971  0.02394  -0.01698  0.4144  0.7797
6.34e+09  0.6689  0.6784  0.0002436  0.01224  -0.01036  0.01543  0.6523  0.6222
6.341e+09  0.8192  0.3596  -0.01231  -0.01105  0.009993  -0.01302  0.8381  0.3642
6.342e+09  0.8771  0.05075  0.0291  0.01645  -0.01297  0.0143  0.9311  0.05755
6.344e+09  0.8744  -0.2428  0.0159  -0.01245  -0.02151  -0.04891  0.8732  -0.2587
6.345e+09  0.7413  -0.5966  0.03232  -0.004458  -0.02473  0.008056  0.7605  -0.564
6.346e+09  0.5322  -0.6862  0.005066  -0.01611  -0.02751  0.01138  0.5136  -0.7888
6.348e+09  0.1811  -0.8648  0.002124  0.01644  0.01286  0.03551  0.2353  -0.9169
6.349e+09  -0.156  -0.9089  -0.02925  -0.0372  0.04061  -0.02824  -0.1237  -0.9363
6.35e+09  -0.4775  -0.8511  -0.02747  0.00735  0.01661  -0.02607  -0.4335  -0.8565
6.351e+09  -0.699  -0.6006  -0.03729  0.007722  0.0004427  0.04281  -0.6873  -0.607
6.352e+09  -0.8332  -0.2939  0.009922  -0.007515  -0.0006832  0.00118  -0.8561  -0.3803
6.354e+09  -0.8769  0.07071  -0.01493  0.01577  -0.009711  0.01319  -0.9021  -0.0514
6.355e+09  -0.8837  0.2923  0.009136  0.01421  0.01559  0.02952  -0.9147  0.2455
6.356e+09  -0.6766  0.5642  0.01418  0.02904  -0.03472  -0.02475  -0.7798  0.5565
6.358e+09  -0.3887  0.7979  -0.005963  0.006123  0.01366  -0.04568  -0.5323  0.7874
6.359e+09  -0.1556  0.8648  0.003062  0.001296  -0.007338  -0.02419  -0.2347  0.9322
6.36e+09  0.2206  0.8792  0.001234  -0.02955  0.006281  -0.0405  0.1203  0.9621
6.361e+09  0.4992  0.807  0.0271  0.02336  -0.02768  -0.02933  0.4248  0.8402
6.362e+09  0.6907  0.5382  0.01905  -0.007102  0.01485  0.03836  0.7013  0.6579
6.364e+09  0.8723  0.302  0.02125  0.006929  -0.01997  -0.03525  0.8771  0.3683
6.365e+09  0.9019  -0.1008  0.009865  -0.009182  0.01455  -0.06235  0.974  0.08528
6.366e+09  0.8258  -0.3561  0.03545  -0.02536  -0.01369  -0.01112  0.9121  -0.2343
6.368e+09  0.618  -0.5823  0.001375  -0.0001922  0.01796  -0.02233  0.7668  -0.5435
6.369e+09  0.376  -0.7824  -0.01184  -0.02538  -0.02482  0.008174  0.5297  -0.7835
6.37e+09  0.07665  -0.8677  0.01553  -0.0306  0.01743  0.04242  0.2127  -0.9298
6.371e+09  -0.2364  -0.8778  -0.06169  -0.03234  0.04052  0.03284  -0.06884  -0.9418
6.372e+09  -0.5028  -0.7099  0.01677  -0.01549  -0.04029  0.04035  -0.3973  -0.847
6.374e+09  -0.7412  -0.5081  0.00654  0.00759  0.01048  -0.002978  -0.6709  -0.6671
6.375e+09  -0.8589  -0.1815  0.004736  -0.02356  0.0142  0.01792  -0.8494  -0.3744
6.376e+09  -0.8695  0.06329  -0.01352  0.04366  0.0176  -0.02322  -0.9359  -0.08912
6.378e+09  -0.7594  0.4008  0.01309  -0.007993  0.03948  -0.001167  -0.8788  0.2177
6.379e+09  -0.588  0.6915  -0.007433  -0.01624  -0.0317  0.02268  -0.7748  0.5314
6.38e+09  -0.3036  0.8606  -0.03897  -0.009767  0.04505  0.01521  -0.5284  0.7623
6.381e+09  -0.03487  0.9146  -9.902e-05  0.03624  0.04537  0.006879  -0.2709  0.8853
6.382e+09  0.2558  0.8346  0.0002044  -0.01261  0.01771  0.0148  0.04017  0.976
6.384e+09  0.5548  0.7092  0.004471  -0.02495  -0.006922  0.04222  0.3845  0.8767
6.385e+09  0.7717  0.5001  0.01689  0.01651  -0.04633  0.001008  0.6722  0.7208
6.386e+09  0.8851  0.1624  0.01581  -0.01697  -0.005854  0.01385  0.8121  0.4269
6.388e+09  0.8789  -0.107  -0.01002  -0.002338  0.03367  0.02888  0.9039  0.1426
6.389e+09  0.7695  -0.4445  0.04872  0.008142  -0.04042  -0.006581  0.9705  -0.1925
6.39e+09  0.5673  -0.7114  -0.02724  -0.02283  0.0127  -0.001044  0.8118  -0.499
6.391e+09  0.2307  -0.8624  -0.00452  -0.01833  -0.006922  -0.01342  0.5104  -0.7155
6.392e+09  -0.03724  -0.8613  -0.02571  0.01335  0.01793  0.00414  0.2689  -0.8795
6.394e+09  -0.2887  -0.7944  -0.01552  -0.01796  0.02535  0.01442  -0.05608  -0.9419
6.395e+09  -0.6044  -0.6511  -0.02198  -0.002409  -0.02431  -0.0383  -0.3459  -0.8323
6.396e+09  -0.7814  -0.4207  -0.00773  -0.02199  0.03554  0.006952  -0.6059  -0.7395
6.398e+09  -0.8521  -0.125  -0.0268  -0.000459  0.01213  0.01743  -0.8036  -0.4307
6.399e+09  -0.8776  0.2032  0.01537  0.009077  0.05338  0.01244  -0.9562  -0.1181
6.4e+09  -0.7192  0.446  0.02188  0.0074  0.02684  -0.0174  -0.8599  0.1327
6.401e+09  -0.5729  0.6226  -0.03284  -0.02419  -0.02726  -0.0169  -0.7419  0.5119
6.402e+09  -0.2684  0.8241  0.009823  0.02164  0.02388  0.02995  -0.5705  0.7034
6.404e+09  0.03241  0.8605  -0.03533  0.03945  -0.03469  -0.01894  -0.35  0.8802
6.405e+09  0.345  0.8414  -0.03272  0.01218  0.007756  -0.003508  0.006701  0.9052
6.406e+09  0.6102  0.6694  0.01128  -0.007658  0.03796  0.02838  0.3269  0.8479
6.408e+09  0.8095  0.3866  0.003423  0.001384  0.01246  -0.02293  0.5412  0.6647
6.409e+09  0.8785  0.07711  -8.45e-06  0.03482  -0.004858  0.0464  0.8013  0.4087
6.41e+09  0.8725  -0.2622  0.02404  -0.01912  -0.01458  -0.02891  0.9057  0.157
6.411e+09  0.7756  -0.5437  0.007579  -0.004192  -0.01971  -0.005728  0.8987  -0.1079
6.412e+09  0.5462  -0.7293  -0.00757  -0.01985  -0.01941  -0.006271  0.7643  -0.4711
6.414e+09  0.2695  -0.8698  0.0415  -0.05108  0.01061  -0.004057  0.6218  -0.6385
6.415e+09  -0.09614  -0.8753  0.005354  -0.001503  -0.00291  -0.002337  0.3608  -0.8778
6.416e+09  -0.4374  -0.8143  -0.007283  0.01146  0.01035  -0.004928  0.009755  -0.8448
6.418e+09  -0.6833  -0.5988  -0.02417  -0.01041  -0.02733  -0.05783  -0.2689  -0.8281
6.419e+09  -0.8716  -0.3225  0.01032  0.03039  -0.01187  -0.01436  -0.535  -0.7621
6.42e+09  -0.8986  -0.04999  -0.007202  0.02912  -0.0029  -0.003981  -0.7719  -0.5084
6.421e+09  -0.8322  0.2693  0.01018  0.003964  -0.02122  -0.02552  -0.8499  -0.1619
6.422e+09  -0.732  0.5512  -0.0174  0.03221  0.01318  0.006731  -0.8674  0.1432
6.424e+09  -0.456  0.7766  0.007775  -0.03528  0.01713  -0.02777  -0.8014  0.4103
6.425e+09  -0.1868  0.9095  0.000608  -0.02489  -0.0199  0.01652  -0.5827  0.6808
6.426e+09  0.1788  0.9039  -0.03433  -0.03999  -0.04138  -0.03074  -0.3113  0.7908
6.428e+09  0.468  0.7848  0.02569  -0.004997  -0.008192  0.02371  -0.01813  0.9288
6.429e+09  0.6943  0.5692  -0.03269  -0.04371  0.003295  0.01423  0.2595  0.8066
6.43e+09  0.8763  0.2734  -0.01875  0.005184  -0.02468  -0.02724  0.507  0.7011
6.431e+09  0.9356  -0.06323  -0.005269  0.03057  0.04196  -0.02597  0.7363  0.4949
6.432e+09  0.8074  -0.3705  0.01289  0.01726  -0.02117  -0.02019  0.8326  0.2537
6.434e+09  0.6648  -0.6605  -0.004607  -0.002631  0.01806  -0.02523  0.8584  -0.1076
6.435e+09  0.4327  -0.8148  -0.0217  0.01773  -0.004972  0.03487  0.7279  -0.3382
6.436e+09  0.09477  -0.9194  -0.008908  -0.03922  0.0009417  0.006428  0.6172  -0.6743
6.438e+09  -0.1928  -0.9444  0.05543  -0.02725  0.01802  -0.03354  0.3613  -0.7757
6.439e+09  -0.5452  -0.7418  0.003228  -0.03065  0.02344  -0.04593  0.1113  -0.8726
6.44e+09  -0.7643  -0.5129  -0.02094  0.009555  -0.005147  -0.0251  -0.2513  -0.8157
6.441e+09  -0.8337  -0.1695  -0.01037  -0.03677  -0.006757  0.03596  -0.5196  -0.6287
6.442e+09  -0.875  0.1138  -0.01542  0.01291  -0.07403  -0.03936  -0.7248  -0.4361
6.444e+09  -0.7998  0.4076  0.04546  0.03068  0.005998  -0.03292  -0.8089  -0.1987
6.445e+09  -0.6081  0.6752  -0.006371  0.03119  -0.03232  0.03158  -0.853  0.08244
6.446e+09  -0.3566  0.8343  -0.03273  0.005137  0.03367  -0.00083  -0.7833  0.39
6.448e+09  -0.01744  0.9428  0.02824  0.004101  -0.02361  -0.02789  -0.5583  0.6126
6.449e+09  0.2846  0.8947  -0.03257  -0.01467  0.01011  -0.01601  -0.3534  0.7526
6.45e+09  0.6248  0.697  0.02717  -0.007007  0.01338  0.04557  -0.07723  0.7862
6.451e+09  0.8232  0.4077  -0.0002417  -0.03292  0.02713  0.0165  0.2286  0.7877
6.452e+09  0.9764  0.1402  -0.01691  0.00276  0.03941  0.03382  0.4834  0.724
6.454e+09  0.9012  -0.2637  -0.004863  -0.006168  0.03171  -0.01933  0.7158  0.4948
6.455e+09  0.7848  -0.524  -0.002421  -0.02783  0.01179  -0.007859  0.7924  0.2377
6.456e+09  0.5011  -0.7841  -0.01014  0.01263  0.01914  0.003807  0.8397  -0.04953
6.458e+09  0.2479  -0.9079  -0.04172  0.03078  0.0285  -0.009937  0.7173  -0.3531
6.459e+09  -0.1021  -0.9024  0.05549  -0.03591  0.0128  -0.0006889  0.5968  -0.5789
6.46e+09  -0.4315  -0.8365  0.02922  -0.007365  0.02046  -0.02813  0.3719  -0.7237
6.461e+09  -0.6621  -0.6407  -0.0294  -0.03196  0.03212  0.001239  0.08492  -0.7888
6.462e+09  -0.8744  -0.3147  0.01086  -0.005787  -0.0654  -0.01833  -0.2144  -0.7834
6.464e+09  -0.9786  0.0372  -0.04011  0.03233  -0.01713  0.002602  -0.5166  -0.6821
6.465e+09  -0.8644  0.3323  0.009408  0.02726  0.001332  0.0355  -0.6571  -0.4677
6.466e+09  -0.6719  0.5935  -0.01581  -0.00927  0.008118  -0.005145  -0.7742  -0.2376
6.468e+09  -0.4543  0.8528  0.01585  -0.007505  5.715e-05  -0.05088  -0.8007  0.05869
6.469e+09  -0.1649  0.9016  0.008035  0.01959  0.02883  -0.02956  -0.7494  0.3497
6.47e+09  0.2532  0.9455  0.006698  0.0005723  -0.04902  0.01424  -0.5899  0.5325
6.471e+09  0.5203  0.7526  0.001388  -0.01262  0.04861  0.02229  -0.3231  0.7692
6.472e+09  0.8243  0.5748  0.01902  -0.01362  0.03435  0.0119  -0.06612  0.796
6.474e+09  0.957  0.2414  -0.04605  0.01614  0.0009016  -0.02429  0.248  0.7494
6.475e+09  0.9105  -0.09216  -0.03291  0.0305  -0.008555  0.01171  0.4601  0.6537
6.476e+09  0.861  -0.5026  0.0213  -0.04748  0.01201  -0.0111  0.646  0.4312
6.478e+09  0.6094  -0.6978  -0.05558  0.02677  -0.03016  0.007596  0.6899  0.2245
6.479e+09  0.251  -0.8749  0.04066  0.02976  0.01383  -0.01027  0.8069  -0.06513
6.48e+09  0.002724  -0.892  0.02404  0.0249  -0.01411  -0.004031  0.7153  -0.3343
6.481e+09  -0.3737  -0.8796  0.0434  -0.01543  -0.01117  -0.003069  0.5561  -0.5848
6.482e+09  -0.6443  -0.6424  0.02398  0.02471  -0.01246  -0.01401  0.3379  -0.7209
6.484e+09  -0.8176  -0.3855  -0.05754  0.02415  -0.03389  0.009783  0.04282  -0.7536
6.485e+09  -0.9441  -0.05971  -0.02744  0.005834  0.02017  -0.03108  -0.1756  -0.752
6.486e+09  -0.8829  0.2427  -0.02878  0.01381  0.04089  0.02303  -0.5009  -0.5926
6.488e+09  -0.687  0.6173  -0.01878  0.04807  -0.03579  -0.003171  -0.6224  -0.408
6.489e+09  -0.4988  0.801  0.003606  -0.04089  -0.02738  -0.004768  -0.717  -0.1728
6.49e+09  -0.1431  0.9051  -0.03846  0.01503  -0.003286  0.05468  -0.7368  0.09902
6.491e+09  0.1675  0.8497  -0.02604  0.05162  -0.02161  -0.0344  -0.6588  0.3621
6.492e+09  0.5442  0.8254  0.004228  0.03623  0.0118  -0.02932  -0.5415  0.5717
6.494e+09  0.6824  0.5296  0.02825  0.009278  -0.03157  0.04618  -0.3132  0.711
6.495e+09  0.8726  0.198  -0.001263  0.01453  -0.02043  0.01105  -0.01448  0.8151
6.496e+09  0.9544  -0.07162  -0.001021  8.797e-06  0.04769  0.01705  0.2201  0.7732
6.498e+09  0.8496  -0.3938  -0.01328  0.01157  0.008101  0.01866  0.4459  0.618
6.499e+09  0.6152  -0.6721  0.005229  -0.01049  -0.01848  -0.005899  0.6383  0.4047
6.5e+09  0.3193  -0.8425  -0.00619  0.003126  -0.05436  0.003441  0.7942  0.1327
6.501e+09  -0.02888  -0.9033  0.003697  -0.006208  0.02656  -0.02778  0.7322  -0.1252
6.502e+09  -0.3013  -0.8381  0.0237  0.02411  -0.01827  0.003748  0.6522  -0.3639
6.504e+09  -0.5303  -0.6409  -0.02328  0.05081  0.004891  0.03163  0.4967  -0.5644
6.505e+09  -0.7632  -0.4056  0.01643  0.04306  0.04322  -0.01524  0.2818  -0.7176
6.506e+09  -0.877  -0.1178  0.003291  0.001286  0.01854  0.01987  0.03734  -0.7566
6.508e+09  -0.8579  0.2371  -0.02263  0.01317  0.02703  0.009465  -0.2545  -0.7049
6.509e+09  -0.6565  0.5182  -0.01156  -0.01145  0.03422  0.0564  -0.4435  -0.5656
6.51e+09  -0.4669  0.7477  0.01786  -0.02216  -0.03345  0.01806  -0.648  -0.3666
6.511e+09  -0.2244  0.8448  -0.01851  -0.02465  -0.03489  -0.04513  -0.7445  -0.112
6.512e+09  0.1431  0.8243  -0.0357  -0.02012  0.02251  0.02095  -0.7412  0.08412
6.514e+09  0.4177  0.7568  -0.006796  -0.001617  0.01276  -0.02941  -0.6373  0.399
6.515e+09  0.6085  0.4924  -0.0006465  0.007177  -0.05588  0.01761  -0.4967  0.5633
6.516e+09  0.8175  0.1655  -0.01437  -0.00602  -0.0372  0.01367  -0.2502  0.7
6.518e+09  0.8413  -0.01409  0.001663  -0.0006732  0.09365  0.02463  -0.008978  0.7332
6.519e+09  0.7304  -0.3426  0.01014  -0.0113  -0.02962  -0.02804  0.2772  0.6799
6.52e+09  0.5616  -0.6734  0.01635  -0.01471  0.03302  -0.02338  0.4973  0.5686
6.521e+09  0.3575  -0.7482  -0.01957  -0.02401  -0.0007721  -0.0311  0.6537  0.3423
6.522e+09  0.04369  -0.8217  -0.0202  0.04356  -0.024  0.03513  0.7477  0.1165
6.524e+09  -0.2422  -0.7709  -0.009541  0.03543  0.02702  -0.01396  0.6834  -0.168
6.525e+09  -0.5588  -0.5794  -0.0007676  0.02671  0.0188  0.01133  0.6075  -0.3736
6.526e+09  -0.7194  -0.3599  -0.02924  -0.02032  0.01363  0.01963  0.447  -0.5913
6.528e+09  -0.7712  -0.09931  0.01279  0.03167  0.0003231  -0.01061  0.1577  -0.6843
6.529e+09  -0.765  0.1781  0.02014  -0.006165  0.0598  0.01242  -0.0293  -0.6691
6.53e+09  -0.6019  0.4717  0.007991  -0.0008821  -0.01486  0.01158  -0.2927  -0.6662
6.531e+09  -0.4672  0.67  -0.02399  0.01153  -0.0388  0.02235  -0.4849  -0.4754
6.532e+09  -0.1693  0.751  -0.02118  -0.01401  0.0149  0.0271  -0.6357  -0.3029
6.534e+09  0.09723  0.6898  0.05228  0.0207  0.006838  -0.006581  -0.6313  -0.09373
6.535e+09  0.3712  0.6583  0.02037  -0.03176  -0.006831  0.008836  -0.6399  0.1065
6.536e+09  0.631  0.5062  -0.001184  0.03496  0.01599  0.03456  -0.5493  0.3064
6.538e+09  0.7267  0.2235  -0.01144  0.003873  0.04521  -0.03334  -0.4063  0.4747
6.539e+09  0.725  -0.03047  0.008914  0.04025  -0.001877  0.03023  -0.3005  0.5964
6.54e+09  0.6644  -0.2687  0.01198  -0.0182  0.0149  0.005254  -0.06678  0.6859
6.541e+09  0.5661  -0.5861  -0.02229  0.000733  0.02097  0.01379  0.1573  0.6873
6.542e+09  0.2939  -0.7167  0.002382  0.03637  -0.02279  -0.0079  0.3963  0.5949
6.544e+09  0.001394  -0.704  -0.01219  -0.01389  0.02948  -0.01737  0.6009  0.3902
6.545e+09  -0.2406  -0.669  0.01141  0.004508  -0.01941  -0.05078  0.6787  0.1544
6.546e+09  -0.4303  -0.5314  0.0127  -0.00638  0.02504  0.04475  0.7133  -0.08948
6.548e+09  -0.5862  -0.4302  -0.001416  0.005827  0.02056  0.01254  0.6745  -0.3608
6.549e+09  -0.7181  -0.1368  -0.003493  0.00502  0.009441  -0.01987  0.506  -0.5327
6.55e+09  -0.7072  0.2059  -0.02857  0.01437  -0.008473  -0.01656  0.2775  -0.7038
