# Hz S RI R 50
6.25e+09  -0.3283  0.7819  -0.05972  0.02957  0.05161  -0.02389  0.1897  0.4855
6.251e+09  -0.01082  0.8001  -0.005468  -0.01458  0.002817  -0.01208  0.3843  0.4286
6.252e+09  0.3484  0.7842  -0.002537  0.005043  -0.007294  0.0155  0.5595  0.2485
6.254e+09  0.54  0.602  -0.03037  0.02035  0.01161  -0.03991  0.5938  -0.002406
6.255e+09  0.7087  0.4185  0.02441  -0.02794  -0.006161  -0.01907  0.5914  -0.2318
6.256e+09  0.8456  0.2145  -0.001109  0.01743  0.03547  -0.01503  0.5129  -0.4546
6.258e+09  0.8872  -0.161  0.01132  -0.01502  0.006852  0.01132  0.2752  -0.5941
6.259e+09  0.7134  -0.4056  0.01965  -0.01105  0.05508  -0.0175  -0.001726  -0.6682
6.26e+09  0.5282  -0.6689  -0.01411  0.004769  -0.05851  -0.0047  -0.2065  -0.6512
6.261e+09  0.3582  -0.8118  -0.01094  0.009374  -0.004596  0.03744  -0.4215  -0.5298
6.262e+09  0.007069  -0.8242  0.01793  -0.02368  -0.01944  -0.02688  -0.6023  -0.3422
6.264e+09  -0.3582  -0.7889  0.008297  -0.007832  -0.007028  -0.01205  -0.7227  -0.1334
6.265e+09  -0.5808  -0.7083  0.04528  -0.04487  0.007557  -0.03558  -0.6748  0.1459
6.266e+09  -0.7763  -0.3554  -0.003172  -0.005228  -0.0318  -0.02134  -0.5984  0.391
6.268e+09  -0.829  -0.09969  0.006945  -0.01995  0.0108  0.02297  -0.4425  0.5769
6.269e+09  -0.8863  0.1634  -0.03714  0.007994  -0.008782  -0.007416  -0.1899  0.7175
6.27e+09  -0.7444  0.4575  0.05245  -0.0002894  0.02261  0.01707  0.05719  0.7319
6.271e+09  -0.5742  0.6372  -0.007488  -0.02775  0.01005  -0.03963  0.3068  0.6496
6.272e+09  -0.2357  0.7803  -0.01846  0.01878  0.006762  0.001989  0.5133  0.491
6.274e+09  -0.0232  0.8338  -0.01981  -0.01525  -0.06737  -0.01792  0.68  0.2931
6.275e+09  0.2814  0.6928  -0.01098  -0.004354  -0.00645  0.01347  0.7642  0.05919
6.276e+09  0.5293  0.6349  -0.01415  0.001297  -0.007335  0.02163  0.6933  -0.2376
6.278e+09  0.7072  0.3952  -0.01634  0.0008019  -0.0003135  -0.02721  0.6135  -0.4612
6.279e+09  0.8556  0.1047  -0.03593  0.002434  -0.001739  0.004337  0.4286  -0.6686
6.28e+09  0.8383  -0.199  0.001527  -0.009191  0.03776  -0.01357  0.1845  -0.7757
6.281e+09  0.7262  -0.4259  0.0001898  -0.009926  0.0001239  0.01025  -0.1102  -0.7746
6.282e+09  0.4759  -0.6895  -0.02016  -0.01294  0.03716  0.04054  -0.392  -0.6938
6.284e+09  0.2828  -0.7896  0.02004  -0.002371  0.02616  0.002263  -0.5636  -0.524
6.285e+09  -0.05859  -0.8078  -0.01319  -0.03572  0.04501  0.06435  -0.7469  -0.2805
6.286e+09  -0.3295  -0.7469  0.006201  0.01172  -0.02502  -0.06294  -0.8134  -0.01369
6.288e+09  -0.6114  -0.6107  0.005239  0.003049  0.01363  0.06152  -0.7234  0.2553
6.289e+09  -0.7941  -0.3766  -0.02452  -0.01549  -0.00941  0.004187  -0.6535  0.5256
6.29e+09  -0.7916  -0.1032  0.01054  -0.02291  0.00567  -0.001972  -0.426  0.6796
6.291e+09  -0.8166  0.2542  0.003677  -0.004409  0.0156  0.002815  -0.155  0.7883
6.292e+09  -0.8051  0.4578  -0.004683  -0.005911  -0.02277  0.01942  0.1313  0.7921
6.294e+09  -0.4255  0.6938  0.0162  -0.03768  0.005285  -0.007714  0.3823  0.7071
6.295e+09  -0.2479  0.7555  0.009146  -0.001177  -0.03959  0.03033  0.6367  0.5443
6.296e+09  0.08333  0.8531  0.01836  0.03194  -0.0004984  -0.04735  0.7856  0.3012
6.298e+09  0.3758  0.7705  0.01888  0.0006766  -0.03058  0.008353  0.8328  0.02675
6.299e+09  0.6097  0.5666  0.01796  0.01459  0.0143  0.009201  0.771  -0.3159
6.3e+09  0.7552  0.3394  -0.00593  0.007357  0.02334  -0.04196  0.6553  -0.5057
6.301e+09  0.8933  -0.006366  -0.01809  0.004081  -0.04342  0.006465  0.433  -0.713
6.302e+09  0.7831  -0.2478  0.002746  -0.01546  0.02639  0.0423  0.1277  -0.7927
6.304e+09  0.6925  -0.5182  0.01649  -0.01197  -0.005581  0.01546  -0.1234  -0.8063
6.305e+09  0.4697  -0.679  -0.01557  -0.01835  -0.01269  -0.05043  -0.4187  -0.735
6.306e+09  0.1801  -0.8628  -0.01188  -0.03755  -0.01675  -0.007034  -0.6431  -0.5359
6.308e+09  -0.1361  -0.859  0.009493  0.02183  -0.007032  -0.0215  -0.8026  -0.2906
6.309e+09  -0.4102  -0.7226  -0.02749  -0.008774  -0.05834  0.08491  -0.8822  0.01688
6.31e+09  -0.6492  -0.545  0.0216  -0.01308  0.0008817  0.04795  -0.803  0.2739
6.311e+09  -0.7607  -0.3044  -0.02282  -0.0121  -0.01024  -0.01153  -0.6709  0.539
6.312e+09  -0.8269  -0.04921  -0.05282  -0.01132  0.01883  -0.01381  -0.4394  0.7624
6.314e+09  -0.8412  0.2486  0.004144  0.01768  -0.01339  -0.01991  -0.1646  0.8599
6.315e+09  -0.6705  0.578  -0.01775  0.009267  -0.02407  -0.02918  0.134  0.8566
6.316e+09  -0.4244  0.7557  -0.002977  0.007007  -0.01637  0.002454  0.4305  0.7765
6.318e+09  -0.1412  0.8384  -0.01042  -0.02074  0.03024  0.03137  0.6378  0.5889
6.319e+09  0.1616  0.9151  0.008988  -0.003815  0.02911  0.00241  0.8092  0.3189
6.32e+09  0.4302  0.7566  -0.01916  -0.01244  0.0313  0.003778  0.9093  0.03628
6.321e+09  0.6491  0.4882  0.01631  0.03365  -0.07911  0.01126  0.8389  -0.2716
6.322e+09  0.8169  0.2823  0.02133  -0.01667  0.01387  0.008074  0.6627  -0.5373
6.324e+09  0.88  -0.07333  -0.01337  0.01192  0.02535  0.01145  0.4748  -0.7716
6.325e+09  0.7934  -0.31  -0.02524  0.03017  0.01241  -0.01928  0.1824  -0.8761
6.326e+09  0.661  -0.5541  0.02618  0.04547  -0.04728  0.02327  -0.1388  -0.8945
6.328e+09  0.3905  -0.774  -0.01027  -0.01505  0.02327  -0.02161  -0.4147  -0.7639
6.329e+09  0.1107  -0.8712  0.003435  0.0212  0.04505  0.01566  -0.6734  -0.603
6.33e+09  -0.2028  -0.8751  -0.01465  -0.03431  -0.01249  0.02791  -0.8548  -0.354
6.331e+09  -0.5063  -0.7549  -0.01368  -0.001322  0.005511  -0.04195  -0.9213  0.001395
6.332e+09  -0.7234  -0.5509  -0.03816  -0.004775  -0.0448  0.01025  -0.8425  0.3033
6.334e+09  -0.8299  -0.246  0.02188  -0.03879  -0.04592  -0.009166  -0.7269  0.5717
6.335e+09  -0.9332  0.0646  0.002388  0.01046  -0.0124  0.02622  -0.4826  0.7882
6.336e+09  -0.8053  0.3603  -0.03759  0.01358  0.006033  -0.008029  -0.2391  0.9203
6.338e+09  -0.5808  0.6455  -0.00359  -0.00586  -0.0377  -0.03297  0.1619  0.9089
6.339e+09  -0.3204  0.8373  0.008223  0.01755  -0.001474  -0.01966  0.4584  0.8238
6.34e+09  -0.02626  0.8924  0.003149  -0.01423  0.004845  -0.007142  0.6699  0.6369
6.341e+09  0.2768  0.8578  -0.005739  -0.001267  -0.02039  -0.03749  0.8365  0.3605
6.342e+09  0.5577  0.6742  -0.03154  -0.002057  0.06507  -0.01108  0.9561  0.05611
6.344e+09  0.7467  0.4761  -0.01597  0.01229  -0.01981  0.02637  0.8986  -0.2771
6.345e+09  0.83  0.1699  0.005082  -0.02371  0.0379  -0.01079  0.735  -0.575
6.346e+09  0.8827  -0.1334  -0.01065  -0.02835  -0.04798  -0.003602  0.516  -0.794
6.348e+09  0.782  -0.46  -0.01646  -0.02347  0.02287  0.01805  0.2056  -0.8843
6.349e+09  0.5517  -0.6854  -0.01005  0.007721  -0.01951  0.02125  -0.1249  -0.8916
6.35e+09  0.3108  -0.8915  0.005188  0.001514  0.02199  0.007771  -0.4331  -0.8154
6.351e+09  -0.0151  -0.8848  -0.03259  -0.04885  -0.04338  0.009435  -0.6807  -0.635
6.352e+09  -0.2579  -0.8558  0.01144  0.0165  0.03809  0.001736  -0.8531  -0.3931
6.354e+09  -0.6004  -0.7003  -0.02375  -0.01992  0.04339  -0.00979  -0.9294  -0.07361
6.355e+09  -0.7352  -0.3774  -0.03087  -0.0227  0.03266  0.01293  -0.8903  0.2462
6.356e+09  -0.9079  -0.0882  -0.01122  0.02043  0.03714  -0.01295  -0.7482  0.595
6.358e+09  -0.8969  0.1999  -0.01123  -0.01154  -0.02922  0.0271  -0.5235  0.8009
6.359e+09  -0.7144  0.4863  -0.03872  -0.02612  0.005233  -0.02417  -0.2302  0.9554
6.36e+09  -0.5289  0.743  -0.007689  0.03699  -0.003556  0.02855  0.0905  0.9304
6.361e+09  -0.2407  0.8832  0.01727  -0.002317  0.02518  -0.01868  0.404  0.8486
6.362e+09  0.05618  0.907  -0.02724  0.03548  -0.01276  -0.02649  0.6746  0.7045
6.364e+09  0.3759  0.8386  0.004011  0.01176  -0.008556  -0.02875  0.9079  0.3927
6.365e+09  0.6629  0.629  -0.02994  -0.01775  0.0171  0.01126  0.9425  0.08314
6.366e+09  0.7818  0.3778  0.01082  0.01602  0.006336  -0.01938  0.9321  -0.2122
6.368e+09  0.8819  0.05665  -0.01531  0.02313  0.02461  0.0192  0.7514  -0.5519
6.369e+09  0.8507  -0.2274  0.00579  0.005231  -0.02131  -0.009168  0.5857  -0.789
6.37e+09  0.7435  -0.5231  0.009113  0.003877  -0.009926  -0.02071  0.251  -0.9102
6.371e+09  0.5062  -0.7889  0.01078  0.02519  0.009262  -0.005687  -0.05689  -0.945
6.372e+09  0.1331  -0.8733  0.03698  -0.01085  0.004378  -0.02155  -0.3869  -0.862
6.374e+09  -0.1786  -0.8401  -0.01033  0.02114  0.012  0.002822  -0.6832  -0.6684
6.375e+09  -0.4046  -0.7913  -0.008175  -0.003603  0.01651  -0.03703  -0.8305  -0.443
6.376e+09  -0.6105  -0.5752  -0.005445  0.02926  -0.06858  0.02714  -0.9597  -0.1036
6.378e+09  -0.8426  -0.346  -0.02907  0.007629  -0.03057  0.03523  -0.9238  0.2769
6.379e+09  -0.8822  -0.06799  -0.01896  0.0491  0.005357  -0.03177  -0.7837  0.5311
6.38e+09  -0.8847  0.3063  0.04752  -0.03121  0.02687  0.02688  -0.5626  0.7656
6.381e+09  -0.7221  0.6064  0.01111  0.02559  -0.00466  -0.01624  -0.24  0.9016
6.382e+09  -0.4712  0.7236  0.0163  -0.02156  -0.05237  -0.02596  0.05231  0.9066
6.384e+09  -0.1351  0.9017  -0.04504  0.03252  0.02278  -0.009994  0.4005  0.8683
6.385e+09  0.1372  0.8763  0.005343  7.144e-05  -0.01309  0.01058  0.6394  0.6999
6.386e+09  0.4105  0.7875  -0.01116  -0.0176  -0.01501  0.0304  0.9302  0.4165
6.388e+09  0.674  0.5492  0.01692  0.003458  -0.0007373  0.03636  0.9352  0.1027
6.389e+09  0.8453  0.2912  0.004325  0.005105  0.02645  0.02104  0.9203  -0.2193
6.39e+09  0.9154  -0.02094  -0.003684  0.0452  -0.02386  0.002639  0.7834  -0.4789
6.391e+09  0.8362  -0.3229  -0.0373  -0.006938  -0.008268  0.04769  0.5561  -0.7666
6.392e+09  0.6865  -0.5672  0.02003  0.01805  0.02322  -0.005843  0.2563  -0.8872
6.394e+09  0.4887  -0.766  0.01098  -0.0001865  -0.03371  -0.0363  -0.05984  -0.9155
6.395e+09  0.1762  -0.91  -0.02801  -0.04245  0.01199  0.04107  -0.3734  -0.8205
6.396e+09  -0.1715  -0.8621  -0.002788  0.007417  0.01851  -0.02131  -0.6386  -0.6584
6.398e+09  -0.4646  -0.754  -0.006608  0.003444  0.001967  0.03854  -0.8433  -0.475
6.399e+09  -0.6986  -0.5698  0.05077  0.01905  -0.05756  -0.007963  -0.9318  -0.1396
6.4e+09  -0.8174  -0.294  0.01294  -0.003713  0.04863  -0.03949  -0.8827  0.1679
6.401e+09  -0.862  0.08958  0.01393  0.01815  -0.002052  -0.01567  -0.7882  0.478
6.402e+09  -0.8365  0.3398  -0.008862  -0.0006982  -0.04035  0.01936  -0.5411  0.724
6.404e+09  -0.6776  0.5954  -0.03063  -0.01286  -0.0292  0.02119  -0.3375  0.8622
6.405e+09  -0.4416  0.7544  0.01264  0.02676  0.02569  0.01891  0.002948  0.9379
6.406e+09  -0.06785  0.8823  -0.04626  -0.005624  -0.0263  -0.00113  0.3156  0.9121
6.408e+09  0.1912  0.8668  -0.01088  -0.003547  0.009782  0.05694  0.5623  0.7034
6.409e+09  0.4967  0.7398  -0.03439  -0.002758  -0.007036  -0.0138  0.7641  0.4567
6.41e+09  0.7206  0.5431  -0.006407  0.004775  -0.009324  -0.02265  0.891  0.1982
6.411e+09  0.8275  0.2886  -0.001962  0.002804  -0.01902  0.003169  0.9161  -0.1293
6.412e+09  0.8752  -0.06378  -0.001121  -0.04991  -0.02227  0.04282  0.7826  -0.4412
6.414e+09  0.8108  -0.3067  0.004391  -0.0163  0.005827  0.003123  0.5949  -0.6972
6.415e+09  0.6341  -0.6148  0.01414  0.02761  0.02585  0.03888  0.3426  -0.8725
6.416e+09  0.3758  -0.7839  0.008951  0.02472  -0.01445  -0.02608  0.01631  -0.921
6.418e+09  0.09395  -0.8988  -0.03979  0.02658  0.01313  0.04925  -0.278  -0.8261
6.419e+09  -0.1687  -0.8656  0.02282  -0.01478  -0.04613  0.019  -0.5518  -0.6808
6.42e+09  -0.4649  -0.7783  0.01864  0.0001711  -0.03052  0.01179  -0.7893  -0.456
6.421e+09  -0.7159  -0.537  -0.002654  -0.05203  0.006928  -0.0001032  -0.8723  -0.232
6.422e+09  -0.861  -0.2264  0.02517  0.04504  0.01947  -0.02948  -0.8812  0.1091
6.424e+09  -0.8941  0.07055  0.02823  -0.02835  -0.01165  -0.04198  -0.794  0.4213
6.425e+09  -0.7679  0.3882  0.01758  -0.01452  0.00574  -0.01088  -0.5939  0.6343
6.426e+09  -0.6596  0.6503  -0.007756  0.001351  0.0001484  0.05303  -0.331  0.8219
6.428e+09  -0.3575  0.7629  0.003231  -0.04436  -0.01547  -0.01045  -0.04565  0.8549
6.429e+09  -0.07238  0.8427  -0.007722  -0.0141  -0.02148  0.04799  0.2426  0.85
6.43e+09  0.2051  0.8933  0.01835  -0.02288  0.009486  -0.007937  0.5207  0.6805
6.431e+09  0.4787  0.7593  0.03867  0.01756  0.01417  -0.01971  0.7571  0.4865
6.432e+09  0.7548  0.5043  -0.03062  -0.02304  -0.008544  -0.02919  0.8823  0.1926
6.434e+09  0.8412  0.2511  -0.01342  0.01404  -0.02345  0.006321  0.8872  -0.04404
6.435e+09  0.8584  -0.091  0.002234  0.02039  -0.01837  -0.03466  0.7479  -0.3885
6.436e+09  0.8435  -0.3827  -0.0076  -0.0001678  0.02235  0.06494  0.6062  -0.5985
6.438e+09  0.6649  -0.6375  -0.009023  -0.0507  0.01692  0.03116  0.3181  -0.7915
6.439e+09  0.4008  -0.8294  -0.01262  -0.048  0.02035  0.009471  0.04362  -0.8564
6.44e+09  0.07908  -0.8444  0.001432  0.03617  -0.01735  -0.00539  -0.2403  -0.7957
6.441e+09  -0.2515  -0.891  -0.01077  -0.0498  0.03407  -0.07868  -0.5103  -0.7166
6.442e+09  -0.5113  -0.6992  0.04108  0.007278  0.05794  -0.003683  -0.7  -0.4443
6.444e+09  -0.6984  -0.5087  -0.002612  0.02507  -0.02101  -0.03425  -0.8202  -0.1801
6.445e+09  -0.8817  -0.2109  0.04557  -0.03746  0.01324  -0.001934  -0.8519  0.1072
6.446e+09  -0.8904  0.07148  0.02848  -0.01046  0.04921  0.04678  -0.7237  0.3572
6.448e+09  -0.8411  0.4243  0.01486  -0.004308  0.01434  0.006798  -0.5751  0.5982
6.449e+09  -0.6186  0.6366  -0.007763  0.05612  -0.01329  0.04179  -0.3421  0.7597
6.45e+09  -0.3534  0.8308  -0.02919  -0.01636  -0.00586  -0.02535  -0.03452  0.8479
6.451e+09  -0.09677  0.8746  0.01807  0.02175  -0.001067  -0.02545  0.211  0.7952
6.452e+09  0.2648  0.8563  -0.002724  0.02658  0.01763  0.00554  0.4694  0.6645
6.454e+09  0.5069  0.712  0.009411  0.001662  -0.0001434  -0.0234  0.6809  0.4509
6.455e+09  0.7856  0.4639  0.007235  0.04798  -0.02689  0.02729  0.7906  0.1556
6.456e+09  0.9232  0.2095  0.008612  -0.01194  0.02226  -0.02169  0.7991  -0.06332
6.458e+09  0.8494  -0.1212  0.015  0.01333  -0.008188  -0.02152  0.7574  -0.3269
6.459e+09  0.8392  -0.3972  0.04782  -0.01603  0.05983  -0.01063  0.5648  -0.573
6.46e+09  0.5937  -0.6519  -0.01132  0.08968  -0.01064  -0.0149  0.3633  -0.7317
6.461e+09  0.396  -0.8728  -0.007585  -0.04612  0.03233  -0.005314  0.06543  -0.8354
6.462e+09  0.04436  -0.9082  0.01704  0.009906  0.02126  -0.01826  -0.2549  -0.8014
6.464e+09  -0.2883  -0.8707  -0.003582  -0.02363  0.0004605  0.007001  -0.4617  -0.657
6.465e+09  -0.542  -0.714  0.0313  0.03116  -0.03146  0.008504  -0.6573  -0.4746
6.466e+09  -0.7582  -0.5046  0.03325  0.02154  0.01375  0.01583  -0.8292  -0.1982
6.468e+09  -0.8895  -0.2547  -0.01237  0.01948  -0.0184  0.01511  -0.8104  0.07822
6.469e+09  -0.9441  0.1313  -0.00992  -0.008186  0.01763  -0.003083  -0.7422  0.3543
6.47e+09  -0.8481  0.4546  -0.01416  0.01659  0.01607  0.003524  -0.5588  0.5283
6.471e+09  -0.601  0.7131  0.03962  0.0331  0.01318  -0.01804  -0.3025  0.7558
6.472e+09  -0.3524  0.8721  0.03374  0.03012  0.02613  -0.03494  -0.05862  0.7536
6.474e+09  -0.06929  0.9441  0.01501  -0.01544  -0.0007216  0.009397  0.2718  0.7399
6.475e+09  0.2896  0.8826  0.05831  -0.01019  0.04018  0.03383  0.4686  0.6999
6.476e+09  0.5954  0.7223  -0.003744  -0.01354  0.003604  0.01544  0.6861  0.4742
6.478e+09  0.8067  0.4271  -0.004153  0.02773  0.04476  -0.03441  0.7571  0.1809
6.479e+09  0.9048  0.2055  0.04557  0.03502  0.03903  0.006245  0.7618  -0.08609
6.48e+09  0.9061  -0.1448  -0.0009839  -0.02131  -0.006421  -0.01918  0.7306  -0.3445
6.481e+09  0.8621  -0.4831  -0.019  0.0211  -0.03225  -0.001892  0.5328  -0.5689
6.482e+09  0.6206  -0.7434  0.01577  -0.004301  0.02623  -0.01714  0.3476  -0.7192
6.484e+09  0.3214  -0.8688  0.008878  -0.01761  -0.0002796  0.009469  0.05921  -0.8164
6.485e+09  -0.007437  -0.9297  -0.005517  0.03119  -0.03977  0.008964  -0.1823  -0.6998
6.486e+09  -0.312  -0.8683  -0.01676  0.0317  0.008821  0.01528  -0.4479  -0.6393
6.488e+09  -0.6171  -0.7275  -0.01836  0.01023  0.02676  0.01869  -0.6546  -0.4075
6.489e+09  -0.8189  -0.5217  0.009746  0.009665  -0.01252  0.02326  -0.7498  -0.2066
6.49e+09  -0.9216  -0.1218  -0.007208  0.01587  0.02376  0.006442  -0.7647  0.06026
6.491e+09  -0.9338  0.1741  -0.01586  -0.02977  -0.003954  0.02708  -0.7086  0.3794
6.492e+09  -0.8038  0.4804  -0.02091  0.002164  -0.02378  0.03877  -0.4864  0.5669
6.494e+09  -0.5582  0.7927  0.001071  0.003652  -0.01693  -0.0159  -0.2355  0.7024
6.495e+09  -0.2437  0.8608  0.004457  0.04219  0.02606  0.001161  -0.02851  0.7395
6.496e+09  0.03857  0.9086  -0.05643  -0.02098  0.02866  -0.04361  0.197  0.7173
6.498e+09  0.326  0.8352  -0.02291  -0.01966  -0.02395  -0.02033  0.4594  0.5875
6.499e+09  0.6385  0.6718  0.02696  -0.0167  -0.002645  -0.05147  0.6268  0.3987
6.5e+09  0.8036  0.4724  -0.007824  0.01937  -0.01851  0.002182  0.7647  0.1659
6.501e+09  0.9325  0.178  -0.02945  -0.001933  -0.004603  -0.03398  0.7557  -0.09235
6.502e+09  0.9428  -0.1365  0.02771  0.001166  0.001429  0.01031  0.7032  -0.3466
6.504e+09  0.8188  -0.54  -0.01294  0.06867  0.01419  -0.01423  0.4982  -0.56
6.505e+09  0.5923  -0.7631  -0.0233  0.03724  0.008494  -0.007379  0.2892  -0.7515
6.506e+09  0.294  -0.9574  -0.005185  -0.0128  0.01165  0.03341  0.03526  -0.7502
6.508e+09  -0.09921  -0.9478  0.009323  0.02251  -0.02654  0.00795  -0.2388  -0.7024
6.509e+09  -0.3775  -0.8879  -0.007031  -0.0112  0.004949  -0.006383  -0.4749  -0.5895
6.51e+09  -0.6927  -0.6518  -0.01404  -0.002844  -0.07081  -0.002382  -0.6567  -0.3668
6.511e+09  -0.832  -0.3901  -0.003362  -0.01613  0.001447  0.02027  -0.7619  -0.1421
6.512e+09  -0.9426  -0.0985  -0.01805  0.004924  0.01813  -0.05935  -0.7698  0.1461
6.514e+09  -0.9664  0.227  -0.003617  -0.0208  0.02399  0.05083  -0.6616  0.3657
6.515e+09  -0.8425  0.5795  0.02162  0.04375  0.07646  -0.07044  -0.4723  0.5656
6.516e+09  -0.544  0.8304  0.001595  0.02999  -0.01135  -0.008233  -0.2184  0.7008
6.518e+09  -0.2196  0.9828  0.002285  0.04714  0.006349  0.01045  0.01084  0.7777
6.519e+09  0.1274  0.9747  -0.004119  0.0255  -0.003197  -0.02835  0.2445  0.6854
6.52e+09  0.429  0.8284  0.002059  -0.005515  0.01163  0.05691  0.4956  0.5764
6.521e+09  0.7184  0.6906  -0.03654  -0.007688  -0.002139  -0.0186  0.6502  0.3833
6.522e+09  0.9114  0.3571  0.008375  0.05266  -0.00198  -0.01113  0.7201  0.1123
6.524e+09  0.988  -0.01674  0.04166  -0.01454  -0.03922  -0.01366  0.6891  -0.1383
6.525e+09  0.8604  -0.3559  -0.03088  0.03086  -0.008535  0.01419  0.6123  -0.4062
6.526e+09  0.7667  -0.6213  0.03871  0.00751  0.02688  0.004476  0.4232  -0.5671
6.528e+09  0.4737  -0.8563  0.0175  -0.04568  0.03702  -0.04291  0.1866  -0.6601
6.529e+09  0.1189  -0.9762  0.004048  -0.002193  -0.03156  0.02909  -0.05832  -0.6938
6.53e+09  -0.2359  -0.9965  -0.04482  -0.03979  -0.07846  0.002722  -0.2896  -0.5991
6.531e+09  -0.4825  -0.878  0.004739  -0.009684  0.0548  -0.0501  -0.4304  -0.4817
6.532e+09  -0.7528  -0.5881  0.003404  -0.0229  -0.006518  -0.01201  -0.6062  -0.3067
6.534e+09  -0.9106  -0.2971  -0.005496  -0.03424  -0.03677  0.02468  -0.6485  -0.08491
6.535e+09  -0.9658  0.02757  -0.001231  0.01211  0.0269  0.004999  -0.6163  0.08433
6.536e+09  -0.9301  0.3729  0.007656  -0.04153  0.02644  -0.03143  -0.5524  0.2717
6.538e+09  -0.7078  0.6645  -0.005055  0.01351  0.03396  -0.03494  -0.4575  0.4794
6.539e+09  -0.4065  0.9559  -0.008933  0.0153  0.05936  -0.01137  -0.2674  0.6144
6.54e+09  -0.07156  0.9484  0.01835  -0.008222  -0.02453  -0.01973  -0.07074  0.67
6.541e+09  0.2733  0.8726  -0.008423  0.002679  -0.001993  0.04004  0.2108  0.6872
6.542e+09  0.5234  0.834  0.01374  0.001969  -0.0387  -0.009078  0.4127  0.5518
6.544e+09  0.7669  0.5212  0.008411  0.005916  -0.004825  -0.01676  0.6006  0.3834
6.545e+09  0.9424  0.2329  0.01471  0.01035  -0.01293  -0.02835  0.71  0.1626
6.546e+09  0.9933  -0.08987  0.004781  0.01554  -0.0233  -0.01201  0.7177  -0.08212
6.548e+09  0.8437  -0.4419  -0.003442  -0.02782  0.04535  0.002572  0.6663  -0.3106
6.549e+09  0.6557  -0.7578  -0.03201  0.002951  0.02664  -0.02985  0.5169  -0.5052
6.55e+09  0.3788  -0.8511  0.0159  -0.01182  0.04287  0.001981  0.2723  -0.6702
