# Hz S RI R 50
6.25e+09  -0.201  0.8983  -0.005883  0.01974  0.02457  -0.02471  0.1413  0.511
6.251e+09  0.1513  0.8707  0.006208  -0.01209  -0.02057  -0.001026  0.3511  0.4242
6.252e+09  0.4701  0.7561  0.01273  -0.03937  -0.02174  -0.003462  0.5167  0.2286
6.254e+09  0.672  0.5096  0.006037  0.01926  0.02166  0.06878  0.6284  0.004331
6.255e+09  0.7728  0.31  0.008149  5.116e-05  -0.0004233  0.02509  0.5918  -0.2164
6.256e+09  0.8184  -0.02173  0.01101  0.005628  0.01908  0.008337  0.4902  -0.4671
6.258e+09  0.7858  -0.3059  -0.01674  0.02428  0.03529  -0.05417  0.2473  -0.6102
6.259e+09  0.7095  -0.585  0.01036  0.00705  -0.01936  -0.002752  0.00209  -0.6556
6.26e+09  0.476  -0.7257  -0.0006589  0.005027  -0.01797  -0.02218  -0.1978  -0.6569
6.261e+09  0.1705  -0.8429  0.02421  -0.004974  0.02599  0.03284  -0.4352  -0.5752
6.262e+09  -0.1654  -0.7858  0.001354  -0.01124  -0.03701  0.03601  -0.6284  -0.3428
6.264e+09  -0.3949  -0.7742  0.004901  0.008813  0.02663  0.01242  -0.7045  -0.1166
6.265e+09  -0.6398  -0.5536  -0.003766  -0.0153  -0.02452  0.002475  -0.7086  0.1293
6.266e+09  -0.8126  -0.305  -0.01831  -0.009353  0.02346  0.02027  -0.6136  0.3864
6.268e+09  -0.8779  0.03294  0.0002061  -0.00994  -0.0006124  -0.01381  -0.4753  0.5809
6.269e+09  -0.7647  0.3365  -0.02111  -0.02226  -0.02169  -0.009438  -0.2087  0.7328
6.27e+09  -0.6663  0.5538  -0.03004  -0.001991  -0.01564  0.004543  0.03763  0.7359
6.271e+09  -0.3564  0.7341  0.005844  -0.02339  -0.03107  -0.007439  0.3137  0.7039
6.272e+09  -0.1282  0.8128  -0.003812  0.01529  -0.05545  0.07043  0.5711  0.5321
6.274e+09  0.1658  0.7928  -0.009459  -0.03135  0.01603  0.02971  0.6996  0.2831
6.275e+09  0.3922  0.7025  0.01126  0.01055  -0.05161  0.02965  0.745  0.05549
6.276e+09  0.6727  0.5832  0.01343  -0.006149  0.01792  0.02139  0.7204  -0.2175
6.278e+09  0.8209  0.2637  -0.008445  0.005032  -0.01462  -0.04661  0.5985  -0.4528
6.279e+09  0.8331  0.017  -0.006627  0.002218  -0.002333  0.008445  0.4079  -0.6674
6.28e+09  0.7758  -0.3604  0.01328  0.006418  0.01146  0.04127  0.1373  -0.777
6.281e+09  0.5853  -0.5682  -0.007587  0.01237  -0.003651  0.06317  -0.09281  -0.7614
6.282e+09  0.35  -0.7403  0.006949  0.002257  -0.01363  -0.02001  -0.3921  -0.705
6.284e+09  0.08388  -0.8048  0.001863  -0.001507  -0.06035  0.05111  -0.5698  -0.5304
6.285e+09  -0.2417  -0.7953  -0.006705  -0.002436  -0.02027  -0.03296  -0.7591  -0.3179
6.286e+09  -0.5043  -0.7222  -0.01052  -0.01085  0.01979  -0.009954  -0.7906  -0.01048
6.288e+09  -0.7134  -0.4823  0.01785  -0.006367  0.005944  -0.03723  -0.761  0.2554
6.289e+09  -0.7815  -0.2198  -0.004058  -0.004298  0.03216  -0.03818  -0.6021  0.4942
6.29e+09  -0.8124  0.05007  -5.328e-05  0.01551  0.02015  -0.01975  -0.4516  0.7021
6.291e+09  -0.749  0.3445  0.003062  -0.01489  -0.03942  0.0534  -0.139  0.8136
6.292e+09  -0.5762  0.5725  -0.009304  0.021  -0.04208  -0.003375  0.1233  0.7866
6.294e+09  -0.36  0.7766  -0.01839  -0.006589  -0.002619  0.01485  0.4164  0.6955
6.295e+09  -0.0554  0.8881  -0.006305  0.01677  -0.009749  0.002957  0.5921  0.5393
6.296e+09  0.2671  0.8046  0.0005072  -0.02734  0.02864  0.02338  0.7753  0.3137
6.298e+09  0.5035  0.6161  -0.006093  0.00855  -0.03169  -0.002361  0.8377  0.0001355
6.299e+09  0.69  0.4947  0.007673  -0.005326  -0.005507  0.05822  0.7745  -0.2659
6.3e+09  0.7629  0.2042  0.01206  0.00264  -0.07326  0.0234  0.6179  -0.5053
6.301e+09  0.8353  -0.1005  -0.01399  -0.02622  0.002558  -0.01677  0.4332  -0.7214
6.302e+09  0.7378  -0.3659  0.02852  0.008445  -0.02472  0.01037  0.1415  -0.8193
6.304e+09  0.5668  -0.6457  -0.01377  0.005239  -0.05544  0.02027  -0.1488  -0.8445
6.305e+09  0.3279  -0.7992  0.003748  0.02124  -0.02118  0.01266  -0.4347  -0.7217
6.306e+09  0.05944  -0.8368  -0.003082  -0.002473  0.0122  0.03692  -0.6302  -0.5763
6.308e+09  -0.2965  -0.8302  0.007008  -0.002934  -0.001918  0.04018  -0.8324  -0.2974
6.309e+09  -0.5259  -0.6521  0.001694  -0.009745  0.01614  -0.03018  -0.8614  -0.02637
6.31e+09  -0.7405  -0.4372  -0.02044  -0.01836  0.01043  -0.01943  -0.813  0.2761
6.311e+09  -0.8135  -0.1516  0.01053  -0.033  -0.006112  4.458e-06  -0.689  0.5649
6.312e+09  -0.8038  0.1803  -0.02533  0.0102  0.007715  0.02512  -0.436  0.7314
6.314e+09  -0.695  0.4458  0.0004091  0.001553  0.02302  -0.004804  -0.1579  0.875
6.315e+09  -0.5092  0.6549  -0.01033  0.05184  -0.00164  -0.01916  0.1673  0.8511
6.316e+09  -0.2642  0.8104  -0.02552  -0.003332  -0.02713  -0.03731  0.4098  0.7936
6.318e+09  0.03505  0.8869  -0.001163  -0.01393  0.01626  0.006408  0.6958  0.5726
6.319e+09  0.2797  0.8249  -0.03685  0.00679  0.0007842  -0.004416  0.8664  0.3036
6.32e+09  0.5685  0.5557  -0.003458  0.0094  -0.01323  0.01591  0.8845  0.02313
6.321e+09  0.7738  0.4061  0.02454  -0.01382  -0.01058  -0.02484  0.8559  -0.3065
6.322e+09  0.8409  0.09269  -0.006672  -0.001048  0.02709  -0.05926  0.6587  -0.5391
6.324e+09  0.8387  -0.2202  -0.02429  0.02198  -0.003805  -0.04371  0.4524  -0.7583
6.325e+09  0.7377  -0.4777  -0.0252  0.0002461  0.0007292  -0.006429  0.1521  -0.9056
6.326e+09  0.4718  -0.7367  0.01517  0.002661  0.01585  -0.01505  -0.1424  -0.8977
6.328e+09  0.2072  -0.8867  0.004818  0.02198  -0.004055  -0.02706  -0.4547  -0.7682
6.329e+09  -0.06569  -0.8555  -0.01051  0.01924  -0.04298  0.01509  -0.672  -0.6127
6.33e+09  -0.4446  -0.8029  0.02659  0.009542  -0.0196  0.001517  -0.858  -0.3931
6.331e+09  -0.6503  -0.6314  0.01493  0.005385  -0.0003106  0.02328  -0.9231  -0.03264
6.332e+09  -0.8293  -0.349  0.02216  -0.01018  0.03948  0.01911  -0.8758  0.3229
6.334e+09  -0.8603  -0.06285  -0.01937  0.001029  -0.01538  -0.01421  -0.715  0.5777
6.335e+09  -0.8722  0.2649  -0.01096  -0.01094  -0.02588  -0.02425  -0.4831  0.7999
6.336e+09  -0.7131  0.5436  0.01002  0.02261  0.004635  0.02294  -0.1931  0.909
6.338e+09  -0.4857  0.7065  0.01263  0.01268  -0.01881  0.00369  0.147  0.9126
6.339e+09  -0.1648  0.8641  0.01999  -0.003251  0.003091  -0.0166  0.4513  0.8319
6.34e+09  0.1191  0.8819  0.01723  0.01103  0.009197  0.01525  0.662  0.6293
6.341e+09  0.4184  0.6955  -0.008717  -0.008699  0.01964  -0.02285  0.8523  0.3934
6.342e+09  0.7095  0.641  0.002777  0.02078  0.009697  0.02801  0.9232  0.04365
6.344e+09  0.8202  0.2631  -0.01119  -0.01539  0.005897  0.03685  0.8594  -0.2839
6.345e+09  0.88  0.0229  -0.00962  -0.009833  -0.01826  0.01343  0.765  -0.5529
6.346e+09  0.8689  -0.2706  0.01783  0.01941  -0.003937  0.0433  0.5202  -0.7657
6.348e+09  0.6622  -0.5824  0.0008677  0.005663  -0.02878  0.001142  0.2226  -0.8845
6.349e+09  0.4212  -0.8203  0.003687  -0.02915  -0.02428  0.02002  -0.1304  -0.9353
6.35e+09  0.1388  -0.8903  -0.001714  -0.005154  -0.0326  -0.005106  -0.4135  -0.8392
6.351e+09  -0.1642  -0.9194  -0.03794  -0.03713  -0.03232  -0.008865  -0.6881  -0.6894
6.352e+09  -0.4882  -0.7417  -0.04111  0.02794  -0.001762  -0.01802  -0.8982  -0.3683
6.354e+09  -0.7086  -0.5421  0.02079  -0.01181  -0.05282  0.006187  -0.9362  -0.06829
6.355e+09  -0.8333  -0.2668  -0.01796  -0.01658  0.02552  -0.02106  -0.8851  0.2892
6.356e+09  -0.9146  0.06676  0.01015  0.02308  0.01546  0.03951  -0.7912  0.5706
6.358e+09  -0.8331  0.3783  0.003109  0.006282  -0.005208  -0.002053  -0.5388  0.7729
6.359e+09  -0.6011  0.6539  0.0001236  -0.007529  -0.03499  0.009868  -0.2055  0.9027
6.36e+09  -0.416  0.7907  0.003642  -0.03632  -0.009896  0.04101  0.1156  0.9312
6.361e+09  -0.06077  0.8675  -0.0123  0.01502  0.005116  -0.03386  0.4243  0.8681
6.362e+09  0.2239  0.8835  0.0304  -0.0004771  0.01419  -0.01708  0.7008  0.6589
6.364e+09  0.5287  0.7054  -0.02495  0.002169  -0.002975  0.0172  0.8714  0.381
6.365e+09  0.7677  0.4295  -0.002912  0.0341  -0.002179  0.01425  0.8933  0.06384
6.366e+09  0.8804  0.1785  -0.009382  -0.02076  0.02087  -0.0338  0.883  -0.2412
6.368e+09  0.9577  -0.1102  0.007452  -0.006197  -0.01073  -0.004463  0.7867  -0.5622
6.369e+09  0.7717  -0.3855  -0.02148  0.001599  -0.01809  0.004175  0.5093  -0.7836
6.37e+09  0.5838  -0.6848  -0.02463  -0.01117  0.01908  -0.004722  0.246  -0.9035
6.371e+09  0.3488  -0.824  0.004888  -0.03862  0.01872  -0.03637  -0.08143  -0.9386
6.372e+09  0.01316  -0.9084  0.0222  0.01454  0.05373  -0.05099  -0.4055  -0.8716
6.374e+09  -0.2758  -0.8802  0.05054  -0.008239  0.01467  -0.01122  -0.654  -0.6732
6.375e+09  -0.5551  -0.6745  -0.005996  -0.0224  0.03319  -0.01484  -0.8661  -0.3842
6.376e+09  -0.7889  -0.4391  -0.007123  0.01102  -0.02172  0.002559  -0.959  -0.09655
6.378e+09  -0.8609  -0.1709  0.01024  -0.001379  -0.02375  0.01519  -0.9412  0.2194
6.379e+09  -0.8851  0.1696  -0.01282  0.023  -0.008665  0.012  -0.7684  0.4976
6.38e+09  -0.7958  0.503  -0.003259  -0.01676  0.0466  -0.02576  -0.5929  0.7707
6.381e+09  -0.5576  0.6845  -0.01547  0.03161  -0.02352  -0.03086  -0.1977  0.9376
6.382e+09  -0.3029  0.8559  -0.01999  -0.01681  -0.03188  -0.02582  0.03026  0.9425
6.384e+09  -0.01298  0.92  0.03196  0.03597  0.0504  0.0009135  0.3976  0.8201
6.385e+09  0.3362  0.8356  -0.006734  0.01798  -0.01797  -0.008823  0.6631  0.6819
6.386e+09  0.5955  0.6806  -0.007211  -0.007696  0.01772  0.0094  0.8002  0.4391
6.388e+09  0.7811  0.4059  0.03765  -0.02195  0.0117  0.01693  0.9423  0.1112
6.389e+09  0.9099  0.13  -0.007733  0.01262  0.02858  -0.0008089  0.9058  -0.2243
6.39e+09  0.9204  -0.1757  -0.006841  -0.06406  -0.0351  0.01697  0.773  -0.5099
6.391e+09  0.7745  -0.4819  0.009402  -0.009592  0.003645  -0.02663  0.6044  -0.7376
6.392e+09  0.5878  -0.7051  0.001038  -0.007724  -0.052  0.029  0.2594  -0.8964
6.394e+09  0.3165  -0.8684  -0.004451  -0.02658  0.00994  -0.01109  -0.05236  -0.9141
6.395e+09  -0.04658  -0.8983  -0.04908  -0.004254  0.01237  0.04818  -0.3576  -0.8767
6.396e+09  -0.3355  -0.8487  0.01255  0.0385  -0.0277  -0.02916  -0.6152  -0.6896
6.398e+09  -0.6153  -0.6897  0.04953  0.001967  -0.01795  -0.01315  -0.8085  -0.4116
6.399e+09  -0.8573  -0.3766  -0.003441  -0.00735  -0.0925  0.02741  -0.9145  -0.1026
6.4e+09  -0.9212  -0.06286  -0.02493  0.03924  0.004377  0.01758  -0.8726  0.1912
6.401e+09  -0.8716  0.1887  -0.02479  -0.04618  0.02353  0.02989  -0.8215  0.506
6.402e+09  -0.7066  0.4793  0.05537  -0.02023  0.04753  0.0005852  -0.5913  0.6909
6.404e+09  -0.51  0.6926  0.02505  -0.01948  -0.05286  0.02604  -0.337  0.869
6.405e+09  -0.2346  0.836  -0.01106  0.03581  -0.01767  0.002514  0.03872  0.8962
6.406e+09  0.04484  0.8948  0.02242  0.02124  0.01326  0.03716  0.3239  0.8768
6.408e+09  0.3733  0.8046  0.007059  -0.005341  -0.0253  0.007939  0.6235  0.7075
6.409e+09  0.5978  0.5927  -0.004369  -0.008995  0.01308  0.00467  0.7389  0.485
6.41e+09  0.7966  0.3952  0.02829  -0.01093  -0.01917  -0.0227  0.8645  0.1597
6.411e+09  0.9053  0.07025  0.003287  0.0279  0.02758  -0.003979  0.8408  -0.1512
6.412e+09  0.8417  -0.2482  0.01227  -0.01505  -0.002186  0.003519  0.8068  -0.4481
6.414e+09  0.6811  -0.5256  0.03888  -0.002741  -0.01621  0.01639  0.6014  -0.7119
6.415e+09  0.5035  -0.7335  0.02449  -0.007286  -0.005495  -0.03338  0.2885  -0.8729
6.416e+09  0.2216  -0.8729  -0.01594  -0.002338  0.03629  0.01805  0.02393  -0.8661
6.418e+09  -0.08224  -0.8833  0.02609  0.03225  -0.001321  -0.0325  -0.3075  -0.865
6.419e+09  -0.3701  -0.838  -0.02498  -0.005113  -0.04366  -0.01168  -0.5363  -0.6921
6.42e+09  -0.6242  -0.6034  -0.0008421  0.02184  0.02346  -0.01654  -0.7618  -0.4743
6.421e+09  -0.8306  -0.336  0.002961  0.04492  0.02333  0.01167  -0.8251  -0.1825
6.422e+09  -0.892  -0.06711  0.01776  0.00728  -0.03604  -0.0347  -0.8877  0.1259
6.424e+09  -0.8069  0.2522  0.03493  -0.03585  -0.004038  -0.02042  -0.7892  0.411
6.425e+09  -0.7622  0.5169  -0.02431  -0.01584  0.006185  -0.02378  -0.6431  0.6692
6.426e+09  -0.5293  0.7112  0.001197  0.006917  0.01069  0.03907  -0.3562  0.82
6.428e+09  -0.2385  0.889  0.0125  -0.02053  0.0478  -0.002502  -0.06525  0.8763
6.429e+09  0.04287  0.8701  0.005771  0.02143  0.007734  -0.04707  0.2514  0.8209
6.43e+09  0.433  0.7858  -0.02376  0.01189  -0.01361  -0.001549  0.5049  0.7606
6.431e+09  0.7117  0.6223  0.00644  0.03361  -0.001978  0.06265  0.7163  0.4815
6.432e+09  0.8  0.364  -0.01275  -0.04175  -0.007316  0.02037  0.8371  0.2679
6.434e+09  0.8777  0.01402  0.004405  0.0006418  0.03363  -0.03125  0.8483  -0.06935
6.435e+09  0.8485  -0.2793  -0.02304  -0.04786  0.004932  0.008858  0.7546  -0.3727
6.436e+09  0.6781  -0.5247  -0.03391  0.003309  -0.03298  0.01729  0.5714  -0.6473
6.438e+09  0.5022  -0.7909  0.01585  0.02305  -0.004663  -0.05378  0.3743  -0.7718
6.439e+09  0.1948  -0.8802  -0.01532  -0.02659  0.06235  0.05573  0.07906  -0.8478
6.44e+09  -0.1544  -0.8833  -0.04296  -0.007409  -0.006929  -0.04684  -0.2211  -0.8014
6.441e+09  -0.3935  -0.7908  0.04467  0.00312  0.01234  -0.01123  -0.5021  -0.7032
6.442e+09  -0.7105  -0.6019  -0.0011  -0.008913  -0.01239  -0.0101  -0.7092  -0.4988
6.444e+09  -0.8023  -0.3605  -0.01817  -0.03815  0.00343  0.006152  -0.8843  -0.1977
6.445e+09  -0.8754  -0.06973  -0.007465  0.03267  -0.01896  -0.02028  -0.8561  0.06522
6.446e+09  -0.8787  0.2637  -0.03043  -0.001209  -0.03486  0.02685  -0.7496  0.3435
6.448e+09  -0.7152  0.5208  0.06512  -0.002762  0.05188  -0.004336  -0.5558  0.6235
6.449e+09  -0.5059  0.8141  -0.02702  0.01316  0.03802  -0.02027  -0.3551  0.7369
6.45e+09  -0.1586  0.9155  0.02883  -0.03184  -0.03257  -0.01598  -0.04547  0.8405
6.451e+09  0.1454  0.9369  -0.01009  -0.02256  0.02568  -0.02315  0.2299  0.8262
6.452e+09  0.4213  0.8237  0.02858  0.05407  -0.01719  0.0208  0.4758  0.6771
6.454e+09  0.6998  0.583  -0.01173  0.002437  0.01788  -0.02692  0.6691  0.4599
6.455e+09  0.8603  0.2769  -0.03472  -0.006495  -0.03096  -0.01522  0.7862  0.203
6.456e+09  0.8887  0.03072  0.04017  0.01634  -0.004183  0.02536  0.8516  -0.08207
6.458e+09  0.8527  -0.3049  0.002494  0.02705  -0.01845  -0.03275  0.7234  -0.2989
6.459e+09  0.7585  -0.5643  -0.0007754  -0.004835  0.0221  -0.008599  0.5785  -0.5717
6.46e+09  0.4709  -0.8222  -0.02469  0.001511  0.01171  -0.0131  0.3346  -0.7205
6.461e+09  0.1171  -0.9021  0.008004  0.0208  0.03142  -0.00572  0.09503  -0.7967
6.462e+09  -0.1509  -0.8823  -0.024  0.003687  0.06047  -0.02106  -0.2241  -0.7756
6.464e+09  -0.4485  -0.8246  0.033  0.03503  -0.004386  -0.02514  -0.465  -0.6732
6.465e+09  -0.6964  -0.6388  0.005094  0.01725  0.03072  -0.003489  -0.6413  -0.4298
6.466e+09  -0.8889  -0.3065  -0.01501  -0.0195  0.07852  -0.001037  -0.7696  -0.1822
6.468e+09  -0.9488  0.02086  -0.0008402  0.01414  -0.004373  0.02197  -0.8055  0.1376
6.469e+09  -0.7825  0.3268  -0.008224  -0.01447  0.003574  -0.005284  -0.7492  0.3489
6.47e+09  -0.6746  0.6511  0.01211  -0.002468  -0.02255  -0.03066  -0.5585  0.5629
6.471e+09  -0.4546  0.8164  -0.008209  -0.02745  0.01955  -0.03141  -0.3421  0.7387
6.472e+09  -0.123  0.9395  -0.0114  -0.04271  -0.01785  0.04542  -0.08806  0.7982
6.474e+09  0.1804  0.9134  0.01373  -0.02502  -0.001502  -0.019  0.2107  0.8113
6.475e+09  0.5099  0.814  -0.01229  -0.01035  -0.02351  -0.07994  0.4657  0.6374
6.476e+09  0.8131  0.5455  0.01024  0.02922  -0.03459  0.008629  0.6769  0.4663
6.478e+09  0.9155  0.2686  -0.01898  -0.005268  -0.006287  -0.001195  0.7568  0.1993
6.479e+09  0.9631  -0.03849  0.03312  -0.009386  0.01074  -0.013  0.7736  -0.07424
6.48e+09  0.8536  -0.3886  -0.007033  0.0006273  -0.03824  -0.01827  0.6693  -0.3549
6.481e+09  0.6648  -0.6894  0.02439  0.005932  -0.02233  0.02826  0.5151  -0.5521
6.482e+09  0.4052  -0.8418  0.003936  -0.02825  -0.01518  0.06967  0.3366  -0.753
6.484e+09  0.06935  -0.9524  0.007893  0.05514  0.04628  -0.0009367  0.06434  -0.7403
6.485e+09  -0.2132  -0.8886  -0.01989  -0.02835  0.03076  0.008278  -0.2275  -0.7392
6.486e+09  -0.4989  -0.8022  0.01817  0.004988  -0.02053  -0.006085  -0.4656  -0.6213
6.488e+09  -0.8113  -0.5427  -0.007507  0.007497  0.02227  -0.01658  -0.6644  -0.4526
6.489e+09  -0.9367  -0.2462  -0.02343  0.01407  0.03964  0.03908  -0.7352  -0.2036
6.49e+09  -0.9448  0.1322  0.02329  -0.03158  -0.06721  -0.02772  -0.7533  0.05841
6.491e+09  -0.8625  0.4061  0.01162  0.01639  0.03405  0.0332  -0.6761  0.3414
6.492e+09  -0.6552  0.7409  -0.01109  -0.05622  0.01906  -0.002902  -0.4863  0.5483
6.494e+09  -0.4065  0.8735  0.01695  -0.009054  -0.001817  -0.01274  -0.2798  0.6831
6.495e+09  -0.04512  0.9989  0.02525  -0.03604  0.04176  0.009029  -0.05922  0.7966
6.496e+09  0.2991  0.87  0.01022  -0.007873  -0.029  -0.04039  0.2155  0.7397
6.498e+09  0.5442  0.789  0.01138  0.02728  -0.03143  -0.006607  0.5051  0.6142
6.499e+09  0.8266  0.5256  -0.01555  -0.01816  -0.001186  0.03907  0.6393  0.3839
6.5e+09  0.9326  0.1578  0.004215  -0.001201  -0.01327  -0.01064  0.7772  0.1464
6.501e+09  0.968  -0.1338  -0.004092  0.008156  -0.006932  0.04705  0.7827  -0.07659
6.502e+09  0.899  -0.4764  -0.005402  0.01492  0.0592  0.02333  0.671  -0.359
6.504e+09  0.6279  -0.7553  -0.005839  -0.03534  -0.02065  -0.02915  0.4956  -0.5582
6.505e+09  0.346  -0.8716  0.01688  -0.008682  -0.03339  0.03662  0.2856  -0.7069
6.506e+09  0.01935  -0.9682  -0.01565  0.02169  -0.01817  -0.01419  0.01571  -0.7422
6.508e+09  -0.3158  -0.8596  0.01532  -0.004708  -0.01764  0.002023  -0.2518  -0.7225
6.509e+09  -0.6119  -0.7468  0.02014  0.003944  -0.04694  -0.02885  -0.501  -0.5873
6.51e+09  -0.8004  -0.4754  0.02187  0.005492  0.04027  0.03426  -0.682  -0.3953
6.511e+09  -0.9298  -0.1482  -0.01726  0.0138  0.00154  0.007974  -0.7591  -0.1364
6.512e+09  -0.9034  0.1695  0.02359  0.04226  0.05995  -0.02014  -0.7885  0.1118
6.514e+09  -0.8254  0.5436  -0.05892  -0.01705  0.01468  -0.0359  -0.6673  0.3906
6.515e+09  -0.5777  0.8357  -0.04243  0.02431  0.04168  0.02108  -0.4889  0.6284
6.516e+09  -0.2854  0.9278  -0.009215  -0.001787  0.01165  0.04171  -0.2514  0.745
6.518e+09  0.09252  0.9664  -0.004254  -0.006049  0.01356  0.04057  0.0007806  0.7584
6.519e+09  0.4418  0.873  0.01673  0.01178  0.0277  0.01343  0.2699  0.6959
6.52e+09  0.6888  0.6975  -0.02749  -0.01531  -0.002877  -0.01067  0.4517  0.575
6.521e+09  0.8306  0.4322  -0.04223  0.01362  0.01757  0.007904  0.6633  0.3111
6.522e+09  0.9557  0.06224  0.01169  0.01529  -0.001483  0.07592  0.7232  0.1073
6.524e+09  0.916  -0.2971  0.05103  0.01143  0.02567  -0.007572  0.7032  -0.1605
6.525e+09  0.7313  -0.553  0.02209  0.01618  -0.04841  -0.04311  0.6019  -0.3805
6.526e+09  0.5322  -0.8104  0.0187  0.031  -0.0212  -0.01986  0.4295  -0.5871
6.528e+09  0.1944  -0.9618  -0.02763  -0.001591  0.008938  0.03661  0.2062  -0.6798
6.529e+09  -0.1383  -0.968  0.03141  0.03632  0.01739  0.02276  -0.06469  -0.6993
6.53e+09  -0.4643  -0.8312  0.02929  0.007136  0.01047  0.01764  -0.2963  -0.6315
6.531e+09  -0.7259  -0.6248  -0.0174  -0.006521  0.02284  0.01315  -0.4772  -0.4361
6.532e+09  -0.9837  -0.3022  0.02057  0.01672  0.01339  0.02351  -0.5962  -0.276
6.534e+09  -0.9395  -0.02962  0.0003096  -0.0069  -0.009771  0.0266  -0.6171  -0.04935
6.535e+09  -0.8711  0.3983  0.02764  0.008091  0.03695  0.03294  -0.6406  0.1129
6.536e+09  -0.7788  0.669  -0.03044  0.03647  -0.005962  0.02111  -0.5788  0.3195
6.538e+09  -0.4233  0.8338  0.003539  0.00367  0.05244  0.005488  -0.4265  0.4847
6.539e+09  -0.09694  0.9337  -0.01664  -0.004359  -0.03099  0.002722  -0.2469  0.6003
6.54e+09  0.1973  0.9052  0.02988  0.0002606  -0.007942  -0.02151  -0.07955  0.6806
6.541e+09  0.5736  0.7993  -0.02104  -4.182e-05  0.007171  -0.0176  0.1858  0.676
6.542e+09  0.745  0.5285  -0.01652  -0.001914  0.03778  0.009033  0.4283  0.551
6.544e+09  0.9306  0.2347  -0.03417  -0.03085  0.0422  -0.01686  0.5903  0.3839
6.545e+09  0.9564  -0.1456  -0.003052  -0.0004183  0.01437  0.01171  0.6903  0.184
6.546e+09  0.8383  -0.4417  0.02061  0.0135  0.02927  0.02457  0.7148  -0.08517
6.548e+09  0.6389  -0.6601  -0.03946  0.001984  -0.006381  0.03199  0.6295  -0.305
6.549e+09  0.364  -0.8669  0.01983  0.02734  0.04252  -0.01835  0.5448  -0.5373
6.55e+09  -0.008113  -0.894  0.01808  -0.01053  -0.01286  0.0004105  0.267  -0.6577
