# Hz S RI R 50
6.25e+09  -0.3187  0.8248  0.008435  -0.02498  -0.03634  -0.01387  0.1936  0.4447
6.251e+09  -0.01758  0.8177  -0.02886  -0.03743  -0.02553  -0.01925  0.374  0.4931
6.252e+09  0.2452  0.8385  -0.02265  0.0129  0.02285  0.007986  0.5378  0.2726
6.254e+09  0.5202  0.6782  -0.0444  -0.009755  0.04304  0.03381  0.6187  0.01544
6.255e+09  0.7264  0.4136  -0.02439  0.02353  -0.01363  0.009316  0.5768  -0.2453
6.256e+09  0.8639  0.1849  0.01335  0.002562  0.01525  0.01385  0.4854  -0.4536
6.258e+09  0.9069  -0.05182  0.00493  -0.0186  0.005777  0.01737  0.302  -0.5802
6.259e+09  0.8083  -0.4262  0.01271  0.01275  0.01363  0.002077  0.05131  -0.6766
6.26e+09  0.5859  -0.6325  0.01307  0.0004126  0.01635  0.01856  -0.2312  -0.6412
6.261e+09  0.3439  -0.7845  -0.0138  0.04146  0.002367  -0.003737  -0.433  -0.5383
6.262e+09  0.0427  -0.7974  0.009173  -0.01019  0.008481  -0.03666  -0.59  -0.3385
6.264e+09  -0.3264  -0.7733  -0.01645  -0.006699  0.03568  0.01079  -0.6877  -0.1151
6.265e+09  -0.5212  -0.686  0.01036  -0.001416  0.01021  -0.00307  -0.7105  0.1513
6.266e+09  -0.7025  -0.4913  0.01453  0.01867  -0.03624  0.02199  -0.6365  0.388
6.268e+09  -0.7845  -0.1698  0.02918  0.02196  -0.0412  -0.02057  -0.4292  0.5872
6.269e+09  -0.8231  0.0903  -0.009759  -0.01805  0.01097  -0.02063  -0.204  0.7275
6.27e+09  -0.7322  0.3863  0.0009635  0.01664  -0.007906  0.04965  0.03484  0.7242
6.271e+09  -0.5868  0.6184  0.01417  0.005026  0.006377  -0.02263  0.3206  0.672
6.272e+09  -0.2416  0.7345  0.02501  0.02863  0.02408  0.03526  0.5699  0.509
6.274e+09  -0.01137  0.8403  0.01214  -0.02856  -0.003232  -0.006059  0.7317  0.3138
6.275e+09  0.2535  0.7411  -0.007287  -0.007924  -0.001633  0.00653  0.7658  0.02211
6.276e+09  0.5345  0.6644  0.001275  -0.004127  0.04151  -0.01387  0.7298  -0.2268
6.278e+09  0.7221  0.4444  -0.004144  -0.03134  -0.0009064  0.007697  0.6153  -0.4939
6.279e+09  0.8354  0.1221  0.00893  -0.001787  0.001495  -0.002302  0.4553  -0.6389
6.28e+09  0.8394  -0.2028  -0.006052  -0.03191  -0.01357  0.03385  0.1882  -0.7958
6.281e+09  0.7377  -0.4149  -0.005756  -0.009459  0.008116  -0.0158  -0.1112  -0.7807
6.282e+09  0.5422  -0.6765  0.0112  0.02606  0.007426  -0.04186  -0.3786  -0.7314
6.284e+09  0.2416  -0.7678  -0.02554  -0.0116  -0.006276  -0.04463  -0.5811  -0.553
6.285e+09  -0.05673  -0.7976  -0.005459  -0.01943  0.01612  0.01729  -0.7253  -0.2996
6.286e+09  -0.3109  -0.813  0.02963  -0.0006955  -0.01289  0.001241  -0.7959  -0.01444
6.288e+09  -0.5775  -0.6226  0.007732  -0.03205  -0.05456  -0.03417  -0.7679  0.231
6.289e+09  -0.7356  -0.4232  0.02452  -0.005231  0.008342  0.0003786  -0.6084  0.5098
6.29e+09  -0.8609  -0.1228  0.0116  0.02678  -0.036  -0.005836  -0.4248  0.6521
6.291e+09  -0.8423  0.1697  0.00597  -0.008473  -0.03881  0.005998  -0.1528  0.8298
6.292e+09  -0.6921  0.444  -0.04007  -0.03056  -0.03352  0.03917  0.1239  0.8003
6.294e+09  -0.5091  0.6403  -0.004078  0.01599  -0.03758  0.07385  0.4172  0.7352
6.295e+09  -0.2549  0.7354  -0.01995  -0.01626  0.02019  -0.02466  0.581  0.5066
6.296e+09  0.05181  0.8154  0.007545  0.008508  -0.02933  -0.01637  0.763  0.2821
6.298e+09  0.2902  0.7702  -0.01475  -0.002089  0.01565  -0.0379  0.847  0.01334
6.299e+09  0.5485  0.5709  -0.002855  0.03611  0.007638  0.0055  0.7782  -0.2769
6.3e+09  0.7271  0.4077  -0.01402  -0.006092  0.031  0.02597  0.6553  -0.5649
6.301e+09  0.8509  0.09711  0.008926  0.008337  0.01276  0.04318  0.4427  -0.7106
6.302e+09  0.7878  -0.2049  0.002834  0.003841  0.01327  -0.03477  0.1366  -0.8209
6.304e+09  0.7246  -0.4683  -0.009972  0.007056  0.02301  -0.008764  -0.1449  -0.8234
6.305e+09  0.5516  -0.6926  -0.002013  -0.01409  -0.006748  -0.01105  -0.4516  -0.7229
6.306e+09  0.2207  -0.8158  -0.00449  0.02084  -0.04303  0.0004612  -0.6427  -0.5544
6.308e+09  -0.05611  -0.8358  0.004036  0.01618  -0.001421  -0.033  -0.8345  -0.2985
6.309e+09  -0.3668  -0.7047  -0.004813  0.009234  0.01836  0.02164  -0.8375  0.003993
6.31e+09  -0.5695  -0.5403  0.01432  0.02423  0.05105  0.02637  -0.8147  0.279
6.311e+09  -0.7942  -0.336  0.03606  -0.001429  -0.01429  -0.002576  -0.6531  0.5499
6.312e+09  -0.806  -0.07145  0.02573  0.01826  0.01964  -0.00252  -0.4611  0.7636
6.314e+09  -0.8292  0.1748  -0.004302  0.009605  -0.00556  0.02416  -0.1508  0.8413
6.315e+09  -0.6923  0.5395  0.01333  0.02758  0.0001249  -0.005385  0.1359  0.8213
6.316e+09  -0.4835  0.6705  0.009064  -0.008313  0.05227  -0.02029  0.427  0.7915
6.318e+09  -0.1415  0.8437  -0.004516  -0.01925  0.0396  -0.05229  0.6726  0.5892
6.319e+09  0.1231  0.8298  -0.005468  -0.01292  -0.02437  -0.02116  0.8518  0.3148
6.32e+09  0.3606  0.7576  0.01912  0.01217  -0.02778  -0.001076  0.9085  0.001722
6.321e+09  0.6365  0.5873  -0.01317  0.01036  -0.03885  0.03697  0.8584  -0.2838
6.322e+09  0.839  0.2932  -0.0205  -0.002431  0.02586  0.006512  0.6966  -0.549
6.324e+09  0.8126  -0.002054  -1.961e-05  -0.00763  0.04518  0.00756  0.4566  -0.773
6.325e+09  0.8135  -0.2764  0.01689  -0.009326  -0.02823  -0.0001357  0.1665  -0.8871
6.326e+09  0.6893  -0.5283  -0.004785  -0.001572  -0.01051  0.001808  -0.1166  -0.8933
6.328e+09  0.4457  -0.7824  0.02966  0.0007743  -0.03034  -0.005482  -0.4507  -0.7889
6.329e+09  0.1557  -0.8237  0.007531  -0.006391  -0.01317  0.02173  -0.6766  -0.5677
6.33e+09  -0.1363  -0.7783  0.02215  -0.00667  -0.06028  -0.01553  -0.828  -0.3265
6.331e+09  -0.4536  -0.7309  0.0431  0.03732  0.01211  -0.008816  -0.9219  -0.02864
6.332e+09  -0.6482  -0.5542  -0.01167  0.02654  -0.0006411  -0.01373  -0.8293  0.2961
6.334e+09  -0.8703  -0.265  -0.01864  0.004034  0.01759  -0.004664  -0.71  0.5457
6.335e+09  -0.8501  0.07282  -0.002765  -0.01538  0.03304  -0.00865  -0.4641  0.7456
6.336e+09  -0.8431  0.3427  -0.02509  -0.0299  0.001967  0.004958  -0.2076  0.8821
6.338e+09  -0.6784  0.6069  -0.009081  0.005916  -0.0105  0.009122  0.114  0.9098
6.339e+09  -0.3814  0.7848  -0.03177  -0.0318  0.02183  -0.005956  0.4113  0.8196
6.34e+09  -0.09229  0.8826  -0.02681  -0.02989  -0.01348  0.009874  0.6884  0.5849
6.341e+09  0.1393  0.891  -0.02304  -0.03208  0.03174  0.01732  0.851  0.3754
6.342e+09  0.5126  0.7109  0.005456  -0.03191  -0.02284  -0.01995  0.9107  0.02442
6.344e+09  0.6947  0.5222  0.02016  0.02821  0.02348  0.002778  0.8784  -0.2959
6.345e+09  0.8609  0.229  0.02537  0.01762  0.03199  -0.01936  0.7663  -0.5535
6.346e+09  0.8544  -0.05627  -0.0007396  0.005162  0.04064  0.01773  0.502  -0.7593
6.348e+09  0.77  -0.3714  -0.003031  0.01699  -0.02228  0.01932  0.2385  -0.8954
6.349e+09  0.5839  -0.6091  -0.01122  -0.01063  -0.03788  0.01147  -0.1013  -0.9618
6.35e+09  0.3064  -0.8051  -0.003389  -0.009599  -0.06981  0.01957  -0.41  -0.829
6.351e+09  -0.006241  -0.8661  -0.0004549  0.02713  0.01233  -0.02895  -0.6585  -0.6456
6.352e+09  -0.2342  -0.9037  0.00476  0.02027  0.004472  -0.0247  -0.8893  -0.326
6.354e+09  -0.5282  -0.7056  -0.01751  -0.003522  0.005692  0.007596  -0.9536  -0.07739
6.355e+09  -0.724  -0.4595  0.01044  0.000181  -0.01784  0.006983  -0.913  0.2596
6.356e+09  -0.8713  -0.1868  -0.003084  0.002172  -0.0117  -0.01824  -0.7774  0.5635
6.358e+09  -0.8187  0.1289  0.01081  -0.009019  -0.03671  0.0255  -0.5506  0.7855
6.359e+09  -0.745  0.4628  0.004607  0.0007558  0.005318  -0.03052  -0.2468  0.9093
6.36e+09  -0.5856  0.6675  0.01104  0.01302  0.01567  -0.01336  0.08044  0.912
6.361e+09  -0.261  0.8186  0.02463  0.005788  -0.02667  0.02066  0.3739  0.8662
6.362e+09  0.04103  0.9159  0.01369  0.04783  -0.03698  0.02689  0.701  0.6959
6.364e+09  0.2832  0.8625  -0.005159  -0.007867  0.02209  0.003781  0.8295  0.3677
6.365e+09  0.5453  0.6815  -0.03266  0.02265  -0.009052  0.02029  0.9212  0.09313
6.366e+09  0.7643  0.4035  0.01439  0.00717  0.01076  -0.003869  0.9517  -0.2285
6.368e+09  0.9053  0.09735  0.003395  0.02155  0.04827  -0.0159  0.7768  -0.5792
6.369e+09  0.9371  -0.209  0.01729  0.01541  0.02621  0.01462  0.546  -0.7442
6.37e+09  0.7679  -0.5038  0.001906  -0.05101  -0.03398  0.0009609  0.2185  -0.9531
6.371e+09  0.5186  -0.7315  0.02241  0.02029  0.03397  0.000196  -0.08979  -0.9603
6.372e+09  0.1522  -0.8428  -0.008576  0.01446  0.002717  -0.00299  -0.4054  -0.9063
6.374e+09  -0.08737  -0.8532  -0.03273  0.005753  0.02798  0.006967  -0.6774  -0.6753
6.375e+09  -0.3583  -0.8005  0.04326  0.01175  0.01809  0.004161  -0.8142  -0.3929
6.376e+09  -0.6392  -0.6318  0.03058  -0.003952  -0.01281  0.001915  -0.9551  -0.1195
6.378e+09  -0.8327  -0.3628  0.0255  0.01741  -0.02281  -0.01523  -0.9091  0.2259
6.379e+09  -0.9365  -0.1081  -0.001544  0.005314  0.02921  0.02904  -0.802  0.5243
6.38e+09  -0.8382  0.23  -0.001233  -0.02605  -0.01315  -0.04012  -0.5899  0.7424
6.381e+09  -0.7033  0.5577  0.01317  -0.03544  0.005337  -0.009723  -0.2903  0.8484
6.382e+09  -0.5028  0.7012  -0.009869  -0.0007522  0.004282  -0.02289  0.09241  0.9235
6.384e+09  -0.2744  0.888  -0.01499  -0.006534  -0.04281  0.02323  0.3291  0.8723
6.385e+09  0.1706  0.8832  -0.007878  -0.03992  0.006678  0.005505  0.6662  0.6422
6.386e+09  0.4094  0.7829  -0.006695  0.000986  -0.03004  -0.006381  0.853  0.4268
6.388e+09  0.6661  0.6313  0.008545  0.00754  -0.01477  0.01306  0.9475  0.1095
6.389e+09  0.8364  0.3622  -0.005886  0.02745  0.04095  -0.007515  0.9262  -0.1852
6.39e+09  0.827  0.02074  -0.003942  -0.00781  0.005116  0.02388  0.8173  -0.4919
6.391e+09  0.8293  -0.2964  0.02794  0.002938  0.007625  -0.02682  0.5501  -0.7577
6.392e+09  0.7263  -0.6058  0.01045  0.03565  -0.002683  -0.01619  0.2918  -0.8596
6.394e+09  0.5115  -0.7661  0.0196  0.01571  0.05112  0.06436  -0.04272  -0.9341
6.395e+09  0.1771  -0.8581  -0.03044  0.01711  0.01129  -0.00165  -0.3394  -0.8815
6.396e+09  -0.1784  -0.9107  -0.0006692  -0.004535  0.03144  0.005757  -0.6032  -0.6909
6.398e+09  -0.4274  -0.786  -0.02845  -0.0007982  -0.0193  0.005955  -0.7968  -0.4553
6.399e+09  -0.6694  -0.6215  -0.04532  0.008593  -0.002184  -0.002353  -0.935  -0.1409
6.4e+09  -0.8212  -0.2983  -0.02229  -0.01425  -0.01624  -0.02065  -0.9093  0.1806
6.401e+09  -0.8787  0.008746  -0.006823  0.01391  -0.01448  0.00318  -0.8252  0.4483
6.402e+09  -0.8295  0.3324  0.02148  -0.004684  0.05797  -0.03013  -0.5762  0.6723
6.404e+09  -0.6762  0.5179  -0.07252  0.0173  -0.02225  0.03172  -0.3369  0.8758
6.405e+09  -0.4251  0.7527  0.00745  -0.022  -0.02213  -0.01912  -0.02055  0.9196
6.406e+09  -0.1369  0.9062  -0.01144  -0.02333  -0.003331  -0.0003935  0.3166  0.8609
6.408e+09  0.1936  0.9163  -0.01539  -0.008424  0.02348  0.01916  0.5571  0.7066
6.409e+09  0.4274  0.7559  0.0177  -0.03188  0.00838  0.02101  0.7271  0.4687
6.41e+09  0.7139  0.5666  -0.04291  -0.004488  -0.03097  0.002903  0.8487  0.1788
6.411e+09  0.8419  0.3035  0.006082  0.02022  0.006049  -0.03556  0.8746  -0.1143
6.412e+09  0.8579  -0.001787  0.03229  -0.001176  -0.009124  -0.007465  0.7977  -0.4275
6.414e+09  0.845  -0.3226  0.01353  -0.01655  -0.003662  0.0274  0.5909  -0.6536
6.415e+09  0.6531  -0.603  0.02428  -0.009174  -0.01255  0.03661  0.3235  -0.8323
6.416e+09  0.4063  -0.7523  0.02998  0.0521  -0.01785  0.02229  0.04292  -0.9335
6.418e+09  0.1572  -0.891  0.01475  0.02662  0.05331  0.0005919  -0.2514  -0.8709
6.419e+09  -0.1971  -0.8918  0.0009289  0.003661  -0.007264  -0.0008898  -0.4847  -0.6702
6.42e+09  -0.4359  -0.6706  0.009809  0.01645  -0.006541  -0.02726  -0.7426  -0.4966
6.421e+09  -0.7193  -0.5678  -0.02192  -0.007815  -0.00176  0.0002053  -0.8894  -0.1861
6.422e+09  -0.8089  -0.2658  0.04595  0.01819  0.03516  -0.01763  -0.8867  0.1923
6.424e+09  -0.8745  0.02635  0.03863  -0.007272  -0.008423  0.00688  -0.7825  0.4144
6.425e+09  -0.8795  0.3967  0.009131  0.0174  -0.02473  0.003358  -0.5829  0.6648
6.426e+09  -0.6595  0.6423  -0.01378  -0.005602  0.05083  -0.05031  -0.326  0.7868
6.428e+09  -0.4444  0.8008  0.006854  0.01838  -0.0017  -0.02126  -0.05502  0.8972
6.429e+09  -0.1105  0.8619  0.03892  -0.02009  0.03165  0.009819  0.27  0.8279
6.43e+09  0.1195  0.8829  0.02416  0.00565  -0.04047  -0.007017  0.5183  0.6876
6.431e+09  0.4598  0.7554  0.0125  0.002732  0.01742  -0.0279  0.7213  0.5026
6.432e+09  0.6736  0.5402  -0.003372  0.01882  -0.06602  -0.02799  0.8747  0.2198
6.434e+09  0.8382  0.2563  0.003128  -0.02069  0.01968  0.04482  0.8329  -0.06907
6.435e+09  0.8569  -0.03685  0.01608  0.01068  -0.004505  -0.0137  0.7465  -0.3714
6.436e+09  0.8133  -0.2868  -0.04307  -0.02459  -0.04302  0.01714  0.5741  -0.6383
6.438e+09  0.6775  -0.542  0.02278  -0.0401  -0.01597  -0.002063  0.3609  -0.7851
6.439e+09  0.3712  -0.7818  0.107  0.0009303  -0.03914  0.01852  0.02488  -0.8392
6.44e+09  0.09656  -0.8833  -0.04528  -0.01954  0.01002  0.004707  -0.2631  -0.8151
6.441e+09  -0.1947  -0.8295  0.004099  -0.002706  0.01955  -0.05413  -0.5065  -0.6919
6.442e+09  -0.4778  -0.7731  -0.002448  0.0477  0.01986  -0.03261  -0.7361  -0.4674
6.444e+09  -0.7003  -0.5021  0.03529  -0.0001957  -0.01064  -0.02825  -0.8052  -0.1851
6.445e+09  -0.8618  -0.2739  0.04392  0.07137  -0.006772  0.01384  -0.8179  0.07717
6.446e+09  -0.8816  0.08052  0.01754  -0.05159  0.03308  -0.01602  -0.8228  0.397
6.448e+09  -0.8754  0.3629  -0.02128  -0.03387  -0.01899  0.01493  -0.5859  0.6204
6.449e+09  -0.6219  0.6342  0.01513  0.01273  0.0009735  -0.04165  -0.3654  0.7467
6.45e+09  -0.399  0.7784  0.006149  -0.03824  0.0009847  -0.01244  -0.06678  0.8659
6.451e+09  -0.1327  0.921  -0.01926  0.02861  -0.002127  0.001038  0.2257  0.7993
6.452e+09  0.2383  0.8824  -0.02367  0.02053  -0.05907  0.01425  0.4967  0.7106
6.454e+09  0.4651  0.7806  -0.009859  -0.004139  -0.005124  0.03062  0.6903  0.4732
6.455e+09  0.775  0.5445  0.02049  0.01882  -0.014  0.005686  0.812  0.1749
6.456e+09  0.8407  0.232  -0.01887  -0.01923  0.004014  0.03603  0.8204  -0.05814
6.458e+09  0.8666  -0.02079  0.005971  -0.0007891  -0.006008  -0.02015  0.7229  -0.3808
6.459e+09  0.844  -0.3831  -0.005582  -0.01757  -0.005127  -0.01252  0.5816  -0.5711
6.46e+09  0.656  -0.6188  -0.01658  0.008264  0.00703  -0.0004814  0.3507  -0.7422
6.461e+09  0.4308  -0.816  0.01322  -0.01722  -0.006377  -0.02493  0.05723  -0.7828
6.462e+09  0.08906  -0.8877  -0.03488  -0.03023  0.01532  -0.02936  -0.2201  -0.7823
6.464e+09  -0.2012  -0.8854  -0.0624  0.04549  0.02163  0.005753  -0.4513  -0.6522
6.465e+09  -0.5293  -0.7402  0.03297  0.04765  -0.02751  -0.02798  -0.6745  -0.4459
6.466e+09  -0.7856  -0.5593  0.04246  -0.01579  0.02892  -0.03658  -0.7572  -0.2266
6.468e+09  -0.879  -0.2033  -0.01262  0.02883  0.02502  -0.0265  -0.801  0.08938
6.469e+09  -0.8562  0.07191  0.05595  -0.01655  0.01273  0.05755  -0.7625  0.3479
6.47e+09  -0.8113  0.3492  -0.003586  0.03412  0.004313  0.02986  -0.5455  0.6334
6.471e+09  -0.6745  0.6054  0.004622  0.04167  -0.02004  -0.03774  -0.3415  0.7431
6.472e+09  -0.4365  0.8114  0.006199  0.0155  0.01958  -0.01438  -0.04446  0.7616
6.474e+09  -0.1506  0.9512  0.002757  -0.01416  0.000183  0.02171  0.2138  0.7926
6.475e+09  0.2082  0.8855  0.02295  0.0124  0.003645  -0.003262  0.4538  0.6881
6.476e+09  0.5219  0.7518  -0.003333  0.01157  -0.001936  0.03906  0.6555  0.4253
6.478e+09  0.6856  0.5081  -0.05706  -0.01231  0.02851  0.02182  0.7402  0.1242
6.479e+09  0.8693  0.2458  0.02808  0.0123  0.04279  -0.008649  0.7758  -0.07016
6.48e+09  0.9784  -0.04191  0.002002  0.01327  -0.02996  -0.008621  0.671  -0.3452
6.481e+09  0.8479  -0.3972  -0.02479  0.03011  -0.05034  -0.01632  0.5461  -0.569
6.482e+09  0.6444  -0.6722  -0.008431  -0.0166  -0.007941  0.01389  0.2964  -0.7311
6.484e+09  0.4113  -0.8556  -0.02428  0.02353  0.02437  0.0123  0.07423  -0.8281
6.485e+09  0.06881  -0.9377  -0.001338  0.01767  0.004683  0.04079  -0.2144  -0.7268
6.486e+09  -0.2892  -0.8393  0.005835  -0.005951  0.02253  -0.0006307  -0.4388  -0.6148
6.488e+09  -0.5415  -0.7554  -0.0325  0.03678  0.01291  -0.006707  -0.6161  -0.3896
6.489e+09  -0.7731  -0.4912  0.007859  0.04526  0.03141  0.007949  -0.7264  -0.2165
6.49e+09  -0.925  -0.1846  -0.01899  0.02243  0.02272  -0.05571  -0.7637  0.08193
6.491e+09  -0.9146  0.1374  0.0213  0.001914  -0.0348  -0.02464  -0.7057  0.3093
6.492e+09  -0.857  0.3732  -0.006807  0.001521  -0.0008903  -0.0051  -0.55  0.5632
6.494e+09  -0.5738  0.7291  -0.01626  -0.03627  -0.02287  0.03769  -0.3113  0.7093
6.495e+09  -0.3605  0.8897  0.02627  -0.01009  0.00158  0.01918  -0.008892  0.7554
6.496e+09  -0.04364  0.9576  0.04618  -0.02164  -0.002168  0.05288  0.2098  0.7044
6.498e+09  0.3274  0.8675  0.01911  0.002721  0.02187  -0.005059  0.4676  0.6185
6.499e+09  0.6251  0.6994  -0.01905  0.009412  -0.02214  0.0118  0.6548  0.4237
6.5e+09  0.7747  0.5037  0.01493  -0.01517  -0.006883  0.04988  0.7794  0.1643
6.501e+09  0.8965  0.124  -0.007166  -0.03614  0.00297  0.03609  0.7553  -0.1132
6.502e+09  0.9532  -0.1404  -0.003812  0.007871  0.03457  -0.03588  0.7034  -0.3582
6.504e+09  0.8397  -0.456  0.003729  0.01582  -0.03401  0.008533  0.4666  -0.5325
6.505e+09  0.6483  -0.726  -0.02247  0.01141  -0.03484  -0.05235  0.2856  -0.7429
6.506e+09  0.3419  -0.9096  -0.02188  -0.002103  0.006255  -0.01066  0.03781  -0.7226
6.508e+09  0.0273  -0.9528  -0.00521  -0.03469  0.03786  -0.004783  -0.2443  -0.7376
6.509e+09  -0.2979  -0.8827  -0.03582  0.01607  -0.01256  0.002136  -0.4571  -0.5543
6.51e+09  -0.5671  -0.703  -0.02328  -0.01642  0.03387  0.03961  -0.6487  -0.3864
6.511e+09  -0.8563  -0.4692  -0.007067  0.02951  -0.000551  -0.01724  -0.7738  -0.1502
6.512e+09  -0.9447  -0.1954  -0.009551  -0.02839  -0.01991  0.0007521  -0.737  0.1176
6.514e+09  -0.9382  0.1898  0.02071  -0.02916  0.01311  0.0596  -0.6189  0.3769
6.515e+09  -0.7824  0.5354  0.005273  0.0244  0.04701  -0.001393  -0.4777  0.5474
6.516e+09  -0.5651  0.7452  -9.598e-06  0.009968  -0.002957  -0.004647  -0.2418  0.7433
6.518e+09  -0.309  0.9065  0.04733  0.003327  -0.05397  0.03181  0.0311  0.7341
6.519e+09  0.02551  0.9644  0.007858  0.03182  0.02381  0.001496  0.2889  0.7032
6.52e+09  0.3756  0.8909  0.05032  0.0386  0.009289  -0.0002631  0.4975  0.5731
6.521e+09  0.6624  0.7733  0.02231  -0.008443  -0.03729  -0.01447  0.6496  0.3438
6.522e+09  0.8526  0.4522  0.01016  -0.03982  0.002539  0.009084  0.7204  0.09035
6.524e+09  0.9372  0.1337  -0.02736  -0.0048  0.004126  0.08877  0.7279  -0.1721
6.525e+09  0.9437  -0.2777  -0.008483  -0.02302  0.06511  0.01432  0.6301  -0.367
6.526e+09  0.8213  -0.6029  0.01787  0.004763  0.00687  0.04972  0.412  -0.5472
6.528e+09  0.5539  -0.8218  -0.01235  -0.003185  0.02869  0.06122  0.1819  -0.6943
6.529e+09  0.2052  -0.9617  0.03575  0.01714  -0.004966  -0.02942  -0.03099  -0.7069
6.53e+09  -0.1325  -0.9968  -0.01283  -0.02662  0.01195  -0.01853  -0.307  -0.5897
6.531e+09  -0.4376  -0.9153  -0.02083  -0.02977  0.02079  0.00471  -0.4722  -0.4489
6.532e+09  -0.7272  -0.6372  0.01181  -0.01154  -0.02699  -0.009447  -0.6251  -0.2916
6.534e+09  -0.9101  -0.3651  -0.01326  -0.007004  -0.01122  -0.02756  -0.6076  -0.0657
6.535e+09  -0.9605  -0.04375  0.004571  0.01728  0.02346  0.02404  -0.6178  0.09571
6.536e+09  -0.9133  0.3624  0.01609  -0.0003448  -0.003367  0.0005432  -0.5776  0.2948
6.538e+09  -0.732  0.6062  -0.01074  -0.004076  -0.009273  -0.00856  -0.4334  0.4705
6.539e+09  -0.4408  0.8721  -0.00166  0.04978  0.01353  -0.00998  -0.2877  0.5953
6.54e+09  -0.1531  0.9776  0.0009421  0.01398  0.007228  -0.0392  -0.04171  0.6638
6.541e+09  0.2129  0.9612  -0.0007055  -0.00613  0.01311  0.05747  0.1759  0.6504
6.542e+09  0.5087  0.8024  0.002906  -0.01505  0.01699  0.002668  0.4338  0.5732
6.544e+09  0.7564  0.5943  -0.01935  0.01107  -0.003871  -0.008413  0.6317  0.3679
6.545e+09  0.9138  0.3131  0.01109  -0.02927  0.03349  0.01966  0.7145  0.1645
6.546e+09  1.012  -0.03092  0.01693  0.0007235  0.04654  -0.01123  0.7147  -0.1033
6.548e+09  0.9255  -0.3454  0.01196  -0.007783  -0.00706  0.0103  0.6607  -0.3127
6.549e+09  0.6998  -0.7006  0.001731  0.02353  -0.04363  0.03518  0.4699  -0.5551
6.55e+09  0.4176  -0.8889  -0.0312  -0.01704  0.05533  -0.0008018  0.2672  -0.7199
