# Hz S RI R 50
6.25e+09  0.06584  0.9114  -0.007288  -0.003805  0.01797  -0.0007936  0.1546  0.4881
6.251e+09  0.3083  0.8215  0.01032  0.005995  0.01284  0.06112  0.3695  0.4042
6.252e+09  0.6729  0.639  -0.02181  -0.00914  -0.05378  -0.007907  0.5539  0.2496
6.254e+09  0.7736  0.3748  0.01481  -0.006038  -0.04396  0.02128  0.6088  0.002339
6.255e+09  0.883  0.07691  -0.002101  -0.005341  0.0127  0.001822  0.5702  -0.1981
6.256e+09  0.8537  -0.2771  0.01505  0.005895  -0.0498  0.001698  0.4932  -0.4243
6.258e+09  0.7213  -0.4495  0.009114  0.01368  -0.017  0.02934  0.272  -0.6193
6.259e+09  0.4887  -0.7419  0.02395  0.00888  0.0594  0.03014  0.05558  -0.6873
6.26e+09  0.1598  -0.7883  -0.02744  0.01696  -0.007432  0.004251  -0.2428  -0.667
6.261e+09  -0.06348  -0.8688  0.007032  0.01208  -0.006056  -0.03901  -0.4186  -0.5372
6.262e+09  -0.3901  -0.7764  0.01733  -0.03699  -0.008098  0.03509  -0.6588  -0.3425
6.264e+09  -0.6156  -0.6135  -0.01245  -0.01136  0.05174  -0.02669  -0.7083  -0.1045
6.265e+09  -0.7748  -0.3383  0.04641  0.0191  -0.0589  0.009922  -0.6898  0.1445
6.266e+09  -0.8218  -0.0659  0.03071  -0.01839  -0.02431  -0.006842  -0.6019  0.3861
6.268e+09  -0.7928  0.2151  0.02127  0.009028  0.005202  0.005879  -0.4216  0.5834
6.269e+09  -0.6883  0.5126  0.007277  -0.02261  -0.02825  -0.01592  -0.2011  0.7383
6.27e+09  -0.4856  0.697  -0.04327  -0.01197  0.01804  -0.01511  0.04197  0.7418
6.271e+09  -0.1921  0.8295  -0.03751  -0.01043  0.02286  -0.05204  0.3372  0.6882
6.272e+09  0.1123  0.794  -0.01093  -0.02986  0.0122  0.01828  0.5729  0.5508
6.274e+09  0.4186  0.7965  0.003993  -0.04206  -0.001648  0.04387  0.6793  0.2874
6.275e+09  0.6446  0.5809  -0.01846  -0.02438  -0.01634  -0.05345  0.7674  0.04488
6.276e+09  0.787  0.2941  -0.01804  0.003933  -0.01635  0.0469  0.7157  -0.2278
6.278e+09  0.8296  -0.03636  -0.004186  0.01961  -0.0213  0.04549  0.6111  -0.4959
6.279e+09  0.8307  -0.3086  -0.004538  -0.003979  0.01159  -0.02163  0.4067  -0.6665
6.28e+09  0.6397  -0.501  -0.01515  -0.02541  -0.02056  -0.04487  0.1245  -0.7097
6.281e+09  0.3975  -0.7453  -0.01856  0.005708  0.004172  -0.03297  -0.1221  -0.7919
6.282e+09  0.07939  -0.8231  0.02795  0.005101  -0.01526  -0.004943  -0.3326  -0.6601
6.284e+09  -0.1683  -0.8236  -0.009084  0.02311  -0.01924  0.04532  -0.5915  -0.5028
6.285e+09  -0.432  -0.6911  -0.01924  0.003616  0.05519  0.0218  -0.7179  -0.2608
6.286e+09  -0.6135  -0.5621  0.01171  0.01107  -0.02461  0.03515  -0.7918  -0.01695
6.288e+09  -0.7969  -0.2498  0.01777  0.04944  0.01948  -0.004544  -0.7612  0.2732
6.289e+09  -0.8413  -0.00165  0.007719  0.02465  0.008733  0.003929  -0.6196  0.5124
6.29e+09  -0.7997  0.3244  0.01887  -0.01606  0.02122  0.02109  -0.4291  0.6891
6.291e+09  -0.606  0.5487  0.0157  -0.01555  -0.008352  -0.04789  -0.1451  0.7949
6.292e+09  -0.3878  0.7612  0.00083  -0.003818  0.0123  0.02395  0.1213  0.7712
6.294e+09  -0.09072  0.8106  -0.003659  -0.03595  -0.03198  0.06032  0.4  0.7139
6.295e+09  0.2205  0.8404  -0.02512  -0.002918  0.03269  0.004704  0.6259  0.5006
6.296e+09  0.4685  0.6853  -0.01246  0.001108  -0.01732  0.02015  0.7581  0.3053
6.298e+09  0.6938  0.4794  -0.01068  -0.02591  -0.00695  -0.00196  0.8312  0.01138
6.299e+09  0.8474  0.2074  -0.005255  -0.01574  -0.06402  -0.003469  0.7853  -0.2773
6.3e+09  0.8129  -0.0725  -0.01269  0.0002193  -0.01873  -0.01046  0.6894  -0.5193
6.301e+09  0.7742  -0.3872  0.0087  -0.02252  -0.02844  0.02799  0.368  -0.7357
6.302e+09  0.5817  -0.5846  0.007937  -0.001567  -0.005104  -0.006641  0.1713  -0.8428
6.304e+09  0.3628  -0.8204  -0.009015  -0.0184  -0.01031  0.002671  -0.132  -0.8256
6.305e+09  0.05063  -0.7953  -0.01808  -0.01995  0.0269  -0.002677  -0.4314  -0.7371
6.306e+09  -0.2552  -0.8167  -0.00612  0.01469  -0.0458  -0.01582  -0.6401  -0.5432
6.308e+09  -0.4767  -0.6606  -0.02691  -0.009153  0.0009553  0.0001091  -0.8381  -0.2958
6.309e+09  -0.7158  -0.4604  0.01169  -0.03522  0.002685  -0.007344  -0.8722  -0.0319
6.31e+09  -0.8536  -0.1566  -0.00674  0.03547  -0.07238  0.02478  -0.8158  0.2946
6.311e+09  -0.8342  0.1754  0.01756  0.03305  -0.04506  0.008096  -0.6717  0.5468
6.312e+09  -0.7442  0.3923  -0.01343  -0.0201  0.03351  -0.01857  -0.445  0.7591
6.314e+09  -0.5788  0.6171  0.007785  -0.005984  0.008494  -0.02945  -0.1642  0.8418
6.315e+09  -0.2499  0.831  -0.01756  0.0191  -0.006529  0.03654  0.1554  0.8671
6.316e+09  -0.0204  0.8554  0.01155  0.01681  0.03482  0.002132  0.3964  0.7495
6.318e+09  0.3711  0.7563  -0.003795  0.004945  0.02916  -0.02279  0.6924  0.6061
6.319e+09  0.5481  0.616  -0.02758  -0.01403  -0.01972  -0.04149  0.8538  0.3281
6.32e+09  0.7585  0.4531  0.009165  0.007908  -0.04721  -0.0009522  0.8831  0.02592
6.321e+09  0.8404  0.1219  -0.008551  -0.004462  -0.005388  0.003801  0.8429  -0.3174
6.322e+09  0.8339  -0.1586  0.02321  0.0132  -0.006266  0.07311  0.6947  -0.562
6.324e+09  0.7042  -0.4604  -0.02598  -0.005959  0.02349  0.02912  0.4377  -0.7549
6.325e+09  0.538  -0.6927  -0.0208  -0.001227  0.005172  0.02816  0.1679  -0.8718
6.326e+09  0.2136  -0.8698  -0.02804  0.01507  -0.03004  0.04141  -0.1117  -0.8938
6.328e+09  -0.09871  -0.8705  0.01006  -0.01679  0.04666  -0.008646  -0.4292  -0.8336
6.329e+09  -0.3079  -0.7918  -0.006896  0.007624  -0.01029  -0.01353  -0.6785  -0.6191
6.33e+09  -0.6175  -0.6304  -0.03787  0.03727  -0.02285  -0.04533  -0.866  -0.3105
6.331e+09  -0.7765  -0.3703  -0.01757  0.005174  -0.01167  -0.009006  -0.9285  0.00552
6.332e+09  -0.8383  -0.1078  -0.005061  -0.001063  -0.01802  0.0142  -0.8321  0.3091
6.334e+09  -0.8364  0.251  0.01274  0.01222  0.04653  0.046  -0.7187  0.5524
6.335e+09  -0.7257  0.5904  -0.006849  0.03545  0.04857  0.01446  -0.4497  0.7812
6.336e+09  -0.4506  0.7796  0.04426  0.0003836  0.02837  -0.04537  -0.1753  0.8957
6.338e+09  -0.1881  0.8181  0.01725  0.01663  -0.01075  -0.02033  0.1362  0.8935
6.339e+09  0.09497  0.8878  0.04109  -0.01947  0.0436  0.07062  0.4125  0.828
6.34e+09  0.4076  0.7813  -0.03867  -0.04946  0.01457  0.02119  0.6661  0.5856
6.341e+09  0.6859  0.5817  0.03508  -0.01082  0.01879  0.005096  0.8797  0.3815
6.342e+09  0.8327  0.281  0.02133  0.01914  0.02537  0.04146  0.9427  0.05384
6.344e+09  0.8762  -0.01103  0.02444  -0.0003705  0.0138  -0.02919  0.8763  -0.2429
6.345e+09  0.849  -0.2918  0.005401  0.01943  0.03228  0.02238  0.7719  -0.5529
6.346e+09  0.6735  -0.5729  0.00575  -0.00619  -0.03573  -0.02324  0.5321  -0.7745
6.348e+09  0.4298  -0.7686  0.02308  -0.02072  -0.004316  0.01664  0.2204  -0.8983
6.349e+09  0.1562  -0.884  -0.002428  -0.02859  -0.004482  0.004224  -0.1171  -0.9375
6.35e+09  -0.1875  -0.8386  0.007235  -0.02786  0.02168  0.01486  -0.4117  -0.8158
6.351e+09  -0.4753  -0.7225  0.02593  0.001744  -0.016  -0.01987  -0.6964  -0.6355
6.352e+09  -0.721  -0.5574  -0.007393  0.009921  -0.02116  -0.008719  -0.8752  -0.4022
6.354e+09  -0.8976  -0.2951  -0.004583  -0.001263  0.01253  0.0295  -0.9795  -0.02798
6.355e+09  -0.923  0.03539  0.02865  0.02989  0.04791  -0.01279  -0.9191  0.2707
6.356e+09  -0.8271  0.3674  -0.02959  0.02268  -0.03627  -0.01987  -0.7944  0.5293
6.358e+09  -0.6709  0.6667  -0.01589  0.006422  0.003436  0.01729  -0.5615  0.7953
6.359e+09  -0.3207  0.8213  0.00289  0.000366  -0.03964  0.009744  -0.2378  0.9022
6.36e+09  -0.06249  0.8785  0.03929  0.004659  0.01648  0.001782  0.1135  0.9377
6.361e+09  0.2334  0.8245  -0.01021  0.008663  0.04217  0.006708  0.386  0.844
6.362e+09  0.4958  0.7197  0.01297  -0.01321  0.01752  0.03903  0.6857  0.6411
6.364e+09  0.7887  0.4714  0.03778  -0.01377  -0.005935  0.008442  0.8686  0.396
6.365e+09  0.819  0.2235  0.02362  0.007693  -0.01761  0.0009628  0.9517  0.04021
6.366e+09  0.9379  -0.07697  0.05435  0.01685  -0.002302  -0.03612  0.8899  -0.2492
6.368e+09  0.8409  -0.4277  0.01448  -0.006335  0.03812  0.03552  0.7889  -0.543
6.369e+09  0.6018  -0.6878  0.002471  0.01134  0.02882  0.003415  0.5273  -0.7641
6.37e+09  0.3314  -0.8566  -0.006992  -0.0707  0.02031  0.005779  0.2275  -0.9282
6.371e+09  0.04876  -0.8898  0.01043  -0.009866  0.005824  0.01627  -0.06259  -0.893
6.372e+09  -0.2417  -0.8061  -0.02361  -0.01368  -0.004188  0.01769  -0.3995  -0.8478
6.374e+09  -0.5765  -0.7035  -0.007406  -0.01572  0.004324  -0.01663  -0.6751  -0.707
6.375e+09  -0.7667  -0.4495  -0.0132  -0.00907  0.03604  -0.02886  -0.839  -0.4288
6.376e+09  -0.8669  -0.1374  -0.0357  0.01307  0.05676  -0.00216  -0.9664  -0.08714
6.378e+09  -0.9189  0.1365  -0.0247  -0.00207  0.06287  0.01211  -0.9353  0.2371
6.379e+09  -0.7818  0.4317  -0.005816  -0.06529  0.01917  -0.01061  -0.793  0.5249
6.38e+09  -0.5748  0.6905  0.02534  0.04592  -0.04513  0.02638  -0.5148  0.7318
6.381e+09  -0.3082  0.8391  -0.005047  -0.004272  0.04608  -0.01827  -0.256  0.8873
6.382e+09  -0.01109  0.8787  -0.001575  0.00876  -0.01666  -0.03094  0.04367  0.9049
6.384e+09  0.3133  0.8787  -0.04432  0.01378  -0.01685  -0.02397  0.3707  0.8283
6.385e+09  0.6015  0.659  -0.02197  -0.01341  -0.006097  -0.01719  0.6546  0.6847
6.386e+09  0.82  0.4623  -0.008028  -0.004351  0.01664  -0.003706  0.8225  0.442
6.388e+09  0.8366  0.08249  0.01622  -0.01329  -0.03823  -0.0002174  0.979  0.1427
6.389e+09  0.8738  -0.2234  -0.01347  0.04024  0.001547  0.04181  0.9216  -0.1978
6.39e+09  0.7112  -0.4799  0.01887  -0.03507  -0.007277  0.03481  0.8147  -0.4647
6.391e+09  0.5028  -0.7505  -0.0243  0.01901  -0.01939  0.02438  0.5533  -0.7538
6.392e+09  0.2884  -0.8615  0.007731  0.01087  -0.06571  0.03878  0.2861  -0.8953
6.394e+09  -0.04754  -0.9007  -0.02294  -0.02675  -0.06823  0.001168  -0.0606  -0.9399
6.395e+09  -0.3363  -0.8165  0.02139  -0.01431  -0.02677  -0.01455  -0.3399  -0.8572
6.396e+09  -0.6651  -0.5992  -0.01465  0.01489  0.0301  -0.02039  -0.6345  -0.67
6.398e+09  -0.8083  -0.3606  -0.0007605  0.02193  -0.01874  -0.02886  -0.8127  -0.4642
6.399e+09  -0.8939  -0.07265  -0.01441  0.02264  0.04723  0.03031  -0.8934  -0.161
6.4e+09  -0.8757  0.2271  0.0291  0.02105  0.01292  0.004618  -0.9344  0.1864
6.401e+09  -0.7179  0.5063  -0.0265  -0.05439  0.01207  -0.02778  -0.8111  0.4949
6.402e+09  -0.4967  0.6803  -0.02249  -0.01447  0.02561  0.007361  -0.5888  0.7162
6.404e+09  -0.2176  0.8215  -0.06754  0.007466  -9.986e-06  -0.02988  -0.3152  0.8277
6.405e+09  0.05483  0.8717  -0.01918  -0.02962  0.0435  0.02465  -9.096e-05  0.924
6.406e+09  0.3885  0.8423  0.01638  -0.05009  0.008329  -0.02946  0.2821  0.9225
6.408e+09  0.6252  0.6694  -0.03246  -0.007939  -0.01872  -0.006105  0.6313  0.6999
6.409e+09  0.8234  0.4025  -0.01974  0.05184  -0.005226  -0.02791  0.7874  0.4911
6.41e+09  0.8702  0.0786  0.006367  -0.0006521  -0.02577  0.00735  0.8686  0.1799
6.411e+09  0.8991  -0.2218  -0.01936  0.01633  0.0367  -0.007254  0.9464  -0.06456
6.412e+09  0.6391  -0.5477  0.0225  0.008897  -0.04386  -0.01454  0.828  -0.4563
6.414e+09  0.4973  -0.7531  0.001403  0.01523  -0.01321  0.06755  0.605  -0.6491
6.415e+09  0.2457  -0.8484  0.01559  -0.01361  -0.02241  0.03421  0.3331  -0.8399
6.416e+09  -0.1498  -0.8833  -0.02932  -0.02602  0.009352  0.05725  0.03411  -0.8517
6.418e+09  -0.3808  -0.8353  0.03095  -0.03634  0.02812  -0.02396  -0.2704  -0.8748
6.419e+09  -0.6804  -0.6248  -0.0108  -0.01914  -0.01785  0.002361  -0.557  -0.7337
6.42e+09  -0.7815  -0.3098  0.01603  0.03018  -0.0243  -0.01129  -0.7431  -0.4314
6.421e+09  -0.9347  -0.004565  -0.02174  -0.02558  0.0231  0.03089  -0.8677  -0.1829
6.422e+09  -0.865  0.2513  0.02736  -0.01988  0.03508  -0.006906  -0.8772  0.09823
6.424e+09  -0.6953  0.5518  0.008385  0.02285  0.01785  0.0001769  -0.7872  0.394
6.425e+09  -0.4865  0.7383  0.00436  0.00432  -0.06836  0.008155  -0.5948  0.5741
6.426e+09  -0.1793  0.8933  -0.002771  0.004399  -0.03765  0.01855  -0.3468  0.828
6.428e+09  0.09405  0.8874  0.01511  -0.006068  -0.007839  0.02826  -0.09912  0.8698
6.429e+09  0.4961  0.8178  -0.01392  0.009658  0.03385  0.02682  0.265  0.8107
6.43e+09  0.6856  0.5888  -0.04143  -0.03179  0.04186  -0.005182  0.5341  0.7171
6.431e+09  0.8483  0.2969  -0.01961  0.005483  0.01845  -0.06035  0.718  0.4632
6.432e+09  0.9105  -0.01454  0.03846  -0.008465  0.03919  -0.02315  0.872  0.1945
6.434e+09  0.8504  -0.3302  -0.01886  -0.07338  -0.01668  0.02858  0.8529  -0.04139
6.435e+09  0.7054  -0.5768  -0.03299  -0.009107  0.01062  -0.002603  0.7633  -0.4102
6.436e+09  0.4343  -0.8084  0.006215  0.01137  0.006813  -0.02409  0.5871  -0.6338
6.438e+09  0.1546  -0.9215  -0.01109  0.04649  0.03802  -0.01218  0.358  -0.7406
6.439e+09  -0.165  -0.8979  -0.02618  0.00951  -0.08348  0.03943  0.05826  -0.8921
6.44e+09  -0.5122  -0.7669  -0.007787  0.03105  -0.002566  0.008317  -0.2029  -0.8196
6.441e+09  -0.7555  -0.5622  -0.01147  -0.02161  0.009563  -0.01193  -0.4945  -0.7585
6.442e+09  -0.9309  -0.3257  -0.0494  -0.00973  0.04479  0.03219  -0.7148  -0.4537
6.444e+09  -0.9205  0.07718  -0.01516  -0.03714  -0.007153  0.003377  -0.8681  -0.1772
6.445e+09  -0.8233  0.3302  0.00522  0.01695  -0.009097  0.0109  -0.8882  0.06893
6.446e+09  -0.6614  0.5865  0.005872  0.01475  0.03858  0.02292  -0.7204  0.3878
6.448e+09  -0.3935  0.8611  0.00765  0.008684  -0.02714  0.02408  -0.5725  0.5869
6.449e+09  -0.09042  0.9103  -0.03679  -0.0002488  0.02736  0.01711  -0.3456  0.7581
6.45e+09  0.2449  0.9121  0.01665  -0.04925  -0.03256  -0.006679  -0.0467  0.8349
6.451e+09  0.5779  0.7418  -0.02352  0.00108  0.0131  -0.009905  0.1708  0.8281
6.452e+09  0.7022  0.5178  0.02645  0.0144  0.009655  0.01163  0.4749  0.6688
6.454e+09  0.9342  0.2544  -0.01781  -0.02332  0.007695  -0.03616  0.7186  0.4725
6.455e+09  0.9084  -0.1049  0.0184  0.009592  0.014  0.02276  0.7888  0.1917
6.456e+09  0.8341  -0.4537  0.004933  -0.03471  0.01159  -0.01068  0.8445  -0.06776
6.458e+09  0.6515  -0.7211  -0.02606  0.03933  -0.003237  -0.007259  0.7438  -0.3477
6.459e+09  0.3674  -0.8525  0.0199  -0.01422  -0.0297  0.02483  0.5613  -0.6165
6.46e+09  0.03398  -0.9071  -0.02948  -0.05472  -0.002514  -0.03747  0.3385  -0.7165
6.461e+09  -0.2911  -0.9012  -0.05867  -0.0501  0.1063  -0.02453  0.03636  -0.8128
6.462e+09  -0.6197  -0.6947  0.04589  -0.06507  -0.009257  -1.86e-06  -0.1816  -0.771
6.464e+09  -0.8074  -0.4996  -0.02856  0.03813  0.01063  0.03657  -0.4695  -0.6775
6.465e+09  -0.94  -0.1595  -0.01083  -0.005723  -0.04559  -0.03125  -0.6677  -0.4388
6.466e+09  -0.9354  0.1954  -0.002262  0.0126  0.01967  0.0003997  -0.7863  -0.1815
6.468e+09  -0.7598  0.5007  -0.01294  -0.0295  -0.01365  0.02393  -0.7978  0.06934
6.469e+09  -0.5538  0.7477  -0.007084  -0.005021  0.01477  -0.03089  -0.7117  0.3155
6.47e+09  -0.3156  0.888  -0.01282  -0.03514  0.01933  0.01666  -0.5751  0.5685
6.471e+09  0.09434  0.9474  0.01425  -0.007528  0.007623  0.005669  -0.316  0.7103
6.472e+09  0.3933  0.8407  -0.01016  -0.01552  0.01841  -0.007699  -0.06101  0.7799
6.474e+09  0.6579  0.6831  0.02937  0.04267  0.02339  -0.02957  0.187  0.7875
6.475e+09  0.9108  0.3971  0.01707  -0.007326  0.02411  -0.04602  0.4604  0.6595
6.476e+09  0.938  0.09059  -0.003183  0.01401  -0.02325  -0.05798  0.6074  0.4497
6.478e+09  0.9223  -0.2664  0.01487  0.0254  0.0009509  0.03531  0.7643  0.2125
6.479e+09  0.8107  -0.5832  -0.007025  0.00036  -0.0003027  -0.03648  0.8078  -0.04627
6.48e+09  0.4946  -0.7782  -0.03898  -0.04246  0.02716  0.04245  0.6955  -0.3361
6.481e+09  0.2158  -0.9772  0.04875  0.01126  -0.01456  0.00826  0.5622  -0.5595
6.482e+09  -0.09589  -0.9434  -0.005922  0.007864  -0.01226  0.01433  0.3533  -0.7138
6.484e+09  -0.5017  -0.8061  0.04925  -0.01151  -0.04668  -0.02949  0.03664  -0.7738
6.485e+09  -0.7299  -0.6518  0.03279  -0.04409  -0.021  0.04249  -0.2145  -0.7397
6.486e+09  -0.927  -0.3137  -0.0005968  0.004837  -0.01304  -0.02801  -0.4773  -0.6154
6.488e+09  -0.9304  -0.0246  0.003554  0.005675  -0.01438  0.01215  -0.6788  -0.4214
6.489e+09  -0.8674  0.3751  0.01506  0.004811  -0.005174  -0.04572  -0.7443  -0.2053
6.49e+09  -0.7102  0.5878  0.008444  -0.006177  0.03125  0.01447  -0.7735  0.09077
6.491e+09  -0.4474  0.8898  0.01657  0.04297  -0.03988  -0.003185  -0.6667  0.3247
6.492e+09  -0.0627  0.9218  -0.02688  -0.00984  -0.04679  -0.04528  -0.5235  0.5435
6.494e+09  0.2517  0.9074  0.01742  0.0127  -0.02119  0.03371  -0.2951  0.7398
6.495e+09  0.541  0.7827  -0.01643  -0.01008  -0.02579  0.0165  -0.04922  0.747
6.496e+09  0.7754  0.5093  0.007314  -0.0172  -0.01956  0.009525  0.2046  0.7744
6.498e+09  0.8748  0.2315  -0.006315  -0.01171  0.04545  0.03096  0.4581  0.6429
6.499e+09  0.9327  -0.1371  -0.02945  0.005377  0.05168  -0.04192  0.6331  0.3615
6.5e+09  0.8337  -0.4277  0.01595  -0.03932  0.02513  -0.02229  0.709  0.1599
6.501e+09  0.676  -0.7231  -0.02225  -0.002105  0.02  0.007026  0.7633  -0.08811
6.502e+09  0.3774  -0.8747  0.009743  0.01907  0.0007002  -0.04306  0.6607  -0.3617
6.504e+09  -0.02013  -0.9908  0.02005  -0.0289  -0.04288  -0.04246  0.5249  -0.5613
6.505e+09  -0.2942  -0.935  0.07146  -0.01775  -0.01127  -0.002339  0.2957  -0.6851
6.506e+09  -0.6128  -0.6823  -0.02547  -0.04295  -0.03608  0.05883  -0.0004613  -0.7426
6.508e+09  -0.8186  -0.3936  0.005062  0.005524  0.02049  0.01336  -0.2475  -0.7073
6.509e+09  -0.9073  -0.08713  0.03282  -0.01795  -0.004796  -0.04064  -0.4446  -0.5818
6.51e+09  -0.8937  0.2078  0.02046  0.003144  0.01839  0.02565  -0.6376  -0.3478
6.511e+09  -0.7818  0.5787  -0.02047  0.01369  0.03205  -0.02546  -0.7224  -0.1492
6.512e+09  -0.5311  0.7447  0.02  0.008302  -0.03289  -0.03176  -0.7466  0.1076
6.514e+09  -0.2274  0.8405  -0.007596  0.0309  -0.01464  -0.02853  -0.6635  0.3588
6.515e+09  0.09675  0.9141  0.02219  0.01517  0.04852  -0.02418  -0.4936  0.5385
6.516e+09  0.4148  0.8494  0.002892  -0.006827  0.01595  -0.001733  -0.2253  0.7071
6.518e+09  0.6516  0.6289  -0.01596  0.01901  -0.02747  -0.02175  0.02375  0.7364
6.519e+09  0.8598  0.359  0.006274  0.0135  -0.0217  0.003513  0.2938  0.6998
6.52e+09  0.889  -0.04278  0.0106  -0.00319  -0.003131  -0.01632  0.4867  0.5874
6.521e+09  0.8508  -0.334  -0.004676  -0.0005364  0.01462  -0.04403  0.6343  0.3676
6.522e+09  0.7053  -0.5737  -0.03475  0.01856  -0.02752  0.03574  0.7492  0.1139
6.524e+09  0.3925  -0.8129  0.001204  -0.01079  0.009116  0.01991  0.7211  -0.1702
6.525e+09  0.112  -0.9395  -0.01085  0.002326  -0.01525  0.00635  0.609  -0.3771
6.526e+09  -0.204  -0.8818  -0.01712  -0.001654  -0.03134  -0.03352  0.452  -0.5507
6.528e+09  -0.5138  -0.7289  -0.003563  0.008588  0.02342  -0.0221  0.1828  -0.6826
6.529e+09  -0.7286  -0.4491  -0.03739  0.01999  0.003666  -0.005875  -0.05853  -0.6714
6.53e+09  -0.8455  -0.2149  -0.02931  -0.02258  0.009826  -0.03019  -0.2575  -0.6415
6.531e+09  -0.9  0.08246  0.01626  0.03637  0.04325  -0.003189  -0.4722  -0.5079
6.532e+09  -0.7097  0.4205  -0.005835  -0.01109  0.002933  -0.008018  -0.5855  -0.2848
6.534e+09  -0.5617  0.6755  -0.007172  -0.01545  0.07364  0.01553  -0.6277  -0.09941
6.535e+09  -0.2972  0.8561  0.008326  -0.008423  -0.05047  0.01065  -0.6124  0.1117
6.536e+09  0.03793  0.8489  -0.005945  -0.01358  0.02508  0.02104  -0.5948  0.2856
6.538e+09  0.304  0.8317  0.02069  -0.01927  -0.00156  -0.01485  -0.4375  0.4815
6.539e+09  0.6188  0.6024  -0.0002521  -0.02636  -0.001415  -0.0005511  -0.2939  0.6182
6.54e+09  0.7521  0.3997  -0.008503  0.02315  -0.02736  0.0354  -0.04087  0.678
6.541e+09  0.8441  0.101  0.009732  0.001615  -0.01595  0.01476  0.1686  0.6973
6.542e+09  0.8148  -0.2581  -0.02746  -0.001164  -0.03001  0.01182  0.419  0.6004
6.544e+09  0.7191  -0.5395  0.01516  0.02221  0.01047  -0.0265  0.6104  0.3674
6.545e+09  0.4153  -0.6981  -0.01111  -0.01034  -0.01938  -0.01825  0.6934  0.186
6.546e+09  0.1807  -0.7656  0.001983  0.0004273  0.04206  0.0258  0.7367  -0.1181
6.548e+09  -0.0826  -0.7922  -0.01267  0.004746  -0.004158  -0.009497  0.6704  -0.3118
6.549e+09  -0.4531  -0.775  0.001607  -0.004909  -0.01055  -0.01468  0.5331  -0.5135
6.55e+09  -0.6419  -0.5707  0.0116  0.00347  -0.01061  -0.03141  0.2885  -0.7244
