# Hz S RI R 50
6.25e+09  -0.7729  -0.1897  0.01825  0.0108  -0.06348  -0.03035  0.1698  0.5108
6.251e+09  -0.8587  0.09699  -0.004783  -0.006848  -0.04107  0.02592  0.3521  0.3854
6.252e+09  -0.7062  0.3988  -0.0004619  -0.01232  0.02129  0.02251  0.497  0.2427
6.254e+09  -0.508  0.6003  0.006119  -0.03876  0.01432  -0.03777  0.6142  0.03914
6.255e+09  -0.288  0.761  -0.02739  -0.005121  -0.01787  -0.01297  0.5854  -0.2178
6.256e+09  -0.01297  0.7939  -0.03037  -0.004502  0.02701  0.042  0.4746  -0.4481
6.258e+09  0.2558  0.8049  -0.007086  0.02693  -0.03384  0.06215  0.2585  -0.6153
6.259e+09  0.5123  0.6383  0.02405  -0.01478  0.01865  0.02784  0.02617  -0.6805
6.26e+09  0.6889  0.4339  0.02378  -0.003907  -0.0571  -0.01513  -0.2077  -0.6654
6.261e+09  0.8265  0.1261  0.01409  -0.03371  0.01948  -0.006492  -0.4268  -0.5579
6.262e+09  0.8005  -0.1146  -0.02351  0.02351  -0.009125  -0.04168  -0.6212  -0.3708
6.264e+09  0.6983  -0.4435  -0.01333  -0.006589  -0.005199  -0.01574  -0.7477  -0.08146
6.265e+09  0.5281  -0.6061  0.01069  0.02502  0.00323  -0.01924  -0.7003  0.1687
6.266e+09  0.262  -0.7074  0.02157  0.02686  -0.01794  0.01425  -0.6341  0.419
6.268e+09  0.04935  -0.7959  0.03584  0.002433  -0.03634  -0.0219  -0.4085  0.6056
6.269e+09  -0.3018  -0.7535  0.02578  0.02198  -0.03905  -0.003815  -0.2056  0.6832
6.27e+09  -0.4809  -0.6545  0.01358  0.0108  0.003505  0.01162  0.04999  0.7441
6.271e+09  -0.6714  -0.3422  -0.02049  -0.0081  0.01212  -0.008148  0.3066  0.661
6.272e+09  -0.7503  -0.1211  0.00501  -0.003205  -0.03682  0.01765  0.519  0.5535
6.274e+09  -0.8611  0.1628  0.003082  -0.02065  0.01518  -0.03713  0.6602  0.2734
6.275e+09  -0.6725  0.3956  -0.03313  -0.01698  -0.04411  0.01076  0.7423  0.04097
6.276e+09  -0.5141  0.6594  -0.005031  0.009196  0.00357  0.003724  0.7336  -0.2229
6.278e+09  -0.197  0.778  -0.04273  0.03077  0.01775  -0.03723  0.6238  -0.4815
6.279e+09  -0.03396  0.8028  -0.01454  0.01001  0.05144  -0.05173  0.423  -0.6562
6.28e+09  0.2806  0.7476  0.007951  -0.00229  -0.04202  0.008652  0.1569  -0.8197
6.281e+09  0.5116  0.6122  -0.001471  0.0143  -0.002583  -0.01144  -0.1218  -0.7893
6.282e+09  0.7088  0.4245  -0.01076  -0.01275  -0.04134  0.03814  -0.3603  -0.6902
6.284e+09  0.7925  0.1163  -0.01321  -0.02013  -0.04363  -0.03135  -0.577  -0.5339
6.285e+09  0.734  -0.1586  -0.004055  0.02729  0.01955  -0.03825  -0.7377  -0.2793
6.286e+09  0.6641  -0.4491  -9.428e-05  0.003267  -0.02352  -0.02431  -0.7909  0.02926
6.288e+09  0.4656  -0.665  0.0007282  0.03377  0.04233  -0.03409  -0.7591  0.2417
6.289e+09  0.2443  -0.7446  -0.009078  0.01111  -0.006297  0.01139  -0.6397  0.5152
6.29e+09  -0.0392  -0.7523  -0.01423  0.00241  -0.02065  -0.05388  -0.4151  0.7221
6.291e+09  -0.3042  -0.7085  0.02122  0.01718  -0.01636  0.03979  -0.1607  0.7964
6.292e+09  -0.5872  -0.5733  0.02033  -0.005615  -0.009475  -0.005493  0.1055  0.7942
6.294e+09  -0.7367  -0.3283  0.004217  0.002347  -0.02359  0.03871  0.3769  0.7143
6.295e+09  -0.7824  -0.1134  0.02227  0.01307  0.0674  -0.02103  0.6211  0.5487
6.296e+09  -0.813  0.1884  0.003638  -0.02507  0.01655  -0.005802  0.7803  0.3069
6.298e+09  -0.6344  0.4918  -0.04549  0.02816  0.03121  0.01475  0.8298  -0.01458
6.299e+09  -0.4748  0.651  0.02606  0.009757  -0.01881  0.02676  0.7589  -0.2574
6.3e+09  -0.1816  0.8271  -0.0009991  0.006546  0.0498  -0.001704  0.6267  -0.5285
6.301e+09  0.1047  0.7965  0.01433  -0.00261  -0.01045  -7.473e-05  0.431  -0.7233
6.302e+09  0.3538  0.7065  0.01452  0.015  0.03409  0.03311  0.147  -0.8185
6.304e+09  0.6053  0.5559  -0.01401  0.03475  0.02547  0.008329  -0.1317  -0.834
6.305e+09  0.7261  0.3281  -0.03572  0.02336  -0.02193  -0.03956  -0.4523  -0.7282
6.306e+09  0.8325  0.02012  -0.008221  -0.01497  0.03734  -0.003927  -0.6468  -0.5469
6.308e+09  0.7594  -0.2356  -0.006151  0.01123  0.0007877  -0.01147  -0.7823  -0.3274
6.309e+09  0.6287  -0.5002  0.006701  -0.002376  -0.001675  -0.06066  -0.8522  -0.03805
6.31e+09  0.4117  -0.7032  -0.001645  0.01242  0.01766  0.05518  -0.8294  0.3091
6.311e+09  0.187  -0.8013  0.03796  -0.009201  0.02239  -0.01655  -0.6612  0.5463
6.312e+09  -0.1353  -0.7629  -0.001894  0.003882  -0.01954  -0.03219  -0.454  0.7569
6.314e+09  -0.4201  -0.7316  -0.005671  -0.009103  -0.05814  0.0126  -0.1595  0.8432
6.315e+09  -0.6286  -0.5159  -0.0105  -0.01651  0.04649  -0.05995  0.1533  0.8388
6.316e+09  -0.8036  -0.2735  0.003908  -0.006671  -0.005348  -0.003203  0.4318  0.7581
6.318e+09  -0.7971  -0.05233  -0.01953  0.02959  -0.01092  0.03009  0.6806  0.5994
6.319e+09  -0.7633  0.3171  -0.01778  -0.006963  -0.02233  0.04378  0.8577  0.3346
6.32e+09  -0.6158  0.5558  0.01654  -0.03939  0.03271  -0.03275  0.9006  0.003502
6.321e+09  -0.3964  0.7635  0.02157  -0.0278  0.01246  0.0445  0.8471  -0.269
6.322e+09  -0.1063  0.89  -0.0154  0.02288  -0.01993  -0.03591  0.736  -0.5458
6.324e+09  0.2104  0.7873  0.008709  0.0296  0.00167  -0.01854  0.4714  -0.7725
6.325e+09  0.4915  0.7222  -0.04603  -0.01747  0.0171  -0.01611  0.1705  -0.9018
6.326e+09  0.6139  0.5011  -0.007817  -0.01555  0.02974  -0.05158  -0.1194  -0.8919
6.328e+09  0.7847  0.2049  -0.008672  -0.0135  -0.06219  -0.004562  -0.4113  -0.7734
6.329e+09  0.8867  -0.08116  -0.008397  -0.01293  0.02637  0.0155  -0.6936  -0.6061
6.33e+09  0.7488  -0.3813  0.02527  -0.03355  0.04064  -0.000216  -0.8424  -0.2846
6.331e+09  0.6026  -0.6579  -0.02257  -0.01524  0.02471  0.02189  -0.9034  0.009039
6.332e+09  0.3909  -0.7792  -0.0004106  0.00806  0.0009155  0.008563  -0.8681  0.3064
6.334e+09  0.03933  -0.7767  -0.0477  -0.005436  0.03098  0.002567  -0.7186  0.541
6.335e+09  -0.2875  -0.8254  -0.02851  -0.003585  -0.00801  -0.01395  -0.4646  0.7414
6.336e+09  -0.5367  -0.655  0.01378  0.01496  -0.01933  0.01105  -0.1999  0.9299
6.338e+09  -0.71  -0.439  0.000687  0.008993  0.03333  -0.02698  0.155  0.8989
6.339e+09  -0.8163  -0.1327  0.02485  0.03504  0.02298  0.04759  0.421  0.7952
6.34e+09  -0.8768  0.2023  0.03962  -0.01545  0.06895  0.004084  0.6642  0.6737
6.341e+09  -0.7408  0.4404  -0.008505  -0.01317  -0.01509  -0.03474  0.8625  0.3586
6.342e+09  -0.5069  0.6831  -0.002101  0.02722  -0.02638  -0.008671  0.9235  0.03473
6.344e+09  -0.2994  0.8157  0.005025  0.02061  -0.0468  0.05558  0.8911  -0.2731
6.345e+09  -0.009582  0.8469  0.001014  -0.02397  0.037  -0.0292  0.7432  -0.5698
6.346e+09  0.3002  0.7728  0.01547  -0.004883  0.01695  -0.0137  0.4987  -0.7975
6.348e+09  0.5705  0.6072  0.02548  0.01992  -0.04169  0.009257  0.2287  -0.9139
6.349e+09  0.7877  0.3532  0.0008943  0.00071  0.005368  0.005714  -0.09096  -0.9209
6.35e+09  0.8734  0.09262  0.009168  0.003161  0.007385  9.381e-05  -0.4091  -0.8155
6.351e+09  0.8349  -0.2251  0.01787  0.0131  -0.01788  0.01634  -0.6938  -0.6671
6.352e+09  0.6877  -0.5022  0.01159  0.01125  -0.03098  0.0108  -0.8609  -0.3795
6.354e+09  0.4562  -0.7573  0.003826  -0.007618  -0.0214  0.05999  -0.9244  -0.0486
6.355e+09  0.1757  -0.8056  0.02986  -0.007622  0.005753  -0.02816  -0.9144  0.2554
6.356e+09  -0.09098  -0.8217  -0.002995  0.02732  0.01061  0.02592  -0.7601  0.5523
6.358e+09  -0.381  -0.8055  -0.02045  0.01918  -0.01319  -0.003966  -0.539  0.8094
6.359e+09  -0.6353  -0.5831  0.03702  0.01031  -0.002999  -0.04402  -0.2334  0.9047
6.36e+09  -0.823  -0.2581  -0.03921  -0.03056  -0.0432  0.03206  0.09312  0.9333
6.361e+09  -0.8877  -0.0002624  -0.01322  -0.01119  -0.0171  -0.0292  0.4009  0.8466
6.362e+09  -0.7865  0.3475  0.01297  0.004862  -0.01446  -0.03825  0.6925  0.6766
6.364e+09  -0.7131  0.5457  -0.015  -0.04466  -0.007395  -0.03613  0.9319  0.4076
6.365e+09  -0.4122  0.766  -0.008858  -0.0116  -0.004459  0.03152  0.9595  0.08103
6.366e+09  -0.1427  0.8431  -0.008836  0.02269  -0.009002  0.004565  0.9431  -0.2489
6.368e+09  0.242  0.825  -0.00645  -0.009651  -0.01831  -0.0471  0.7877  -0.516
6.369e+09  0.5255  0.7679  -0.04689  0.01321  -0.02643  0.03869  0.5046  -0.7885
6.37e+09  0.6988  0.4941  0.02302  0.009457  0.01651  -0.009177  0.2404  -0.9071
6.371e+09  0.8639  0.2226  0.002063  -0.01415  -0.04285  -0.00735  -0.0987  -0.9309
6.372e+09  0.8527  -0.08502  -0.06127  0.02184  -0.01104  -0.0154  -0.4033  -0.8665
6.374e+09  0.8159  -0.3908  -0.03087  0.00414  -0.001435  -0.01978  -0.7007  -0.6292
6.375e+09  0.5828  -0.6308  -0.01598  -0.00846  -0.02977  -0.04756  -0.8216  -0.4174
6.376e+09  0.3445  -0.7926  0.01661  -0.02002  -0.008316  0.01469  -0.9587  -0.09665
6.378e+09  0.02164  -0.945  0.03825  -0.003858  -0.04532  -0.01427  -0.869  0.2431
6.379e+09  -0.2702  -0.7733  0.03514  -0.0183  0.01581  0.02425  -0.7845  0.5225
6.38e+09  -0.4977  -0.685  0.03055  0.005221  0.01545  0.01203  -0.5593  0.7547
6.381e+09  -0.7825  -0.3975  0.01147  0.009488  0.02538  -0.002132  -0.2612  0.9232
6.382e+09  -0.8709  -0.1367  -0.04769  0.01876  -0.01357  -0.0001648  0.07831  0.9513
6.384e+09  -0.8202  0.2012  0.01061  -0.003643  0.02399  0.001125  0.3676  0.8478
6.385e+09  -0.7138  0.4716  0.01363  -0.01772  0.06229  0.02486  0.6339  0.7081
6.386e+09  -0.5082  0.7054  0.00907  0.01109  0.03071  0.01251  0.8588  0.4078
6.388e+09  -0.2617  0.8337  0.0001902  0.02614  -0.008915  -0.0361  0.9352  0.1085
6.389e+09  0.07342  0.8726  0.009698  0.0269  0.02787  -0.01029  0.9109  -0.182
6.39e+09  0.3861  0.814  0.01912  -0.05417  0.01924  -0.02211  0.7913  -0.4845
6.391e+09  0.5984  0.633  0.02759  -0.02895  0.04198  0.00895  0.5471  -0.7257
6.392e+09  0.7873  0.3662  -0.007702  0.02205  0.003467  0.02155  0.243  -0.8645
6.394e+09  0.8792  0.06714  -0.02612  -0.0175  -0.01051  0.02867  -0.04197  -0.9192
6.395e+09  0.8466  -0.1702  0.01275  -0.0132  0.02246  -0.007262  -0.3713  -0.8179
6.396e+09  0.7224  -0.534  0.01061  0.01875  -0.01197  0.02355  -0.6198  -0.6689
6.398e+09  0.5031  -0.7443  0.01275  0.01916  0.01395  0.02889  -0.8135  -0.4406
6.399e+09  0.1839  -0.8763  0.04077  -0.02482  0.0135  0.00345  -0.941  -0.1521
6.4e+09  -0.1474  -0.8922  0.01688  0.01447  -0.001986  -0.05973  -0.9791  0.1977
6.401e+09  -0.386  -0.7603  -0.0128  0.007685  0.02316  -0.01437  -0.7778  0.4471
6.402e+09  -0.6456  -0.5654  -0.03399  -0.01406  -0.04191  -0.0632  -0.569  0.7324
6.404e+09  -0.8444  -0.2526  0.008069  -0.00699  0.01463  0.02819  -0.2724  0.8362
6.405e+09  -0.8771  -0.04222  0.000298  -0.003828  -0.008264  -0.02193  -0.02338  0.8764
6.406e+09  -0.8096  0.3393  0.04606  -0.002306  -0.01452  -0.05333  0.2807  0.8767
6.408e+09  -0.6694  0.5885  0.007199  0.02578  -0.02938  -0.001555  0.6102  0.6897
6.409e+09  -0.3689  0.7689  -0.00487  -0.002288  0.01816  0.00418  0.7976  0.4746
6.41e+09  -0.1149  0.8874  -0.04989  -0.004608  -0.01257  0.01929  0.9104  0.1198
6.411e+09  0.2223  0.8525  -0.01646  -0.02024  0.02601  -0.003241  0.8938  -0.1709
6.412e+09  0.4783  0.8071  -0.03116  -0.01657  0.03743  -0.05155  0.8025  -0.4356
6.414e+09  0.7175  0.5245  -0.03048  0.02515  0.01153  -0.02627  0.5732  -0.6895
6.415e+09  0.8344  0.23  -0.01579  0.0379  0.02624  0.04341  0.3178  -0.8339
6.416e+09  0.8893  -0.1388  -0.02683  -0.01946  -0.003457  0.04813  0.005735  -0.899
6.418e+09  0.8183  -0.3784  -0.02493  -0.02044  -0.01609  -0.01135  -0.2406  -0.8532
6.419e+09  0.6567  -0.5823  -0.009657  -0.05032  0.03527  -0.0225  -0.5123  -0.7183
6.42e+09  0.3805  -0.8364  -0.002485  0.01645  -0.008638  0.02273  -0.7347  -0.462
6.421e+09  0.01783  -0.8336  -0.0003141  0.03567  -0.05784  -0.02249  -0.8527  -0.2051
6.422e+09  -0.237  -0.853  -0.01937  -0.007472  -0.01385  -0.01491  -0.8795  0.0841
6.424e+09  -0.5725  -0.6439  -0.04412  0.02135  -0.01419  0.02884  -0.8021  0.3789
6.425e+09  -0.7266  -0.5063  0.003778  0.02712  -0.008566  -0.02083  -0.6294  0.6203
6.426e+09  -0.8915  -0.1652  -0.01767  0.002851  0.009182  -0.05844  -0.3517  0.7999
6.428e+09  -0.8509  0.1591  0.008975  -0.01634  0.005701  0.01458  -0.04677  0.8372
6.429e+09  -0.7489  0.4171  -0.04217  -0.01324  0.01255  -0.0003987  0.243  0.8519
6.43e+09  -0.6142  0.6147  -0.01956  0.00325  0.01121  -0.0009569  0.5217  0.7377
6.431e+09  -0.3183  0.8197  0.027  0.004072  0.01237  -0.05408  0.7091  0.44
6.432e+09  0.02439  0.8795  -0.02844  -0.001493  -0.05271  -0.004471  0.8414  0.2408
6.434e+09  0.2884  0.7706  -0.009973  -0.0004904  -0.01029  -0.0315  0.8707  -0.08773
6.435e+09  0.5558  0.6819  0.01266  -0.003118  -0.01426  0.04564  0.7622  -0.3979
6.436e+09  0.7313  0.4182  0.0001594  -0.01251  0.008673  0.01978  0.574  -0.6226
6.438e+09  0.7944  0.1409  0.009256  0.05554  0.03455  -0.01229  0.3805  -0.7919
6.439e+09  0.8089  -0.1813  -0.0001102  0.03005  -0.02616  0.01753  0.02769  -0.8424
6.44e+09  0.7078  -0.4662  0.03484  -0.01734  0.06695  -0.03357  -0.2276  -0.8158
6.441e+09  0.5479  -0.657  0.02976  0.01393  -0.007724  0.009834  -0.5262  -0.6763
6.442e+09  0.2554  -0.7988  -0.01759  -0.01642  -0.01795  -0.04797  -0.7208  -0.4634
6.444e+09  -0.05074  -0.8738  -0.003169  -0.05921  -0.003478  0.06921  -0.8231  -0.1995
6.445e+09  -0.3503  -0.7725  -0.009399  -0.01755  -0.01126  0.06679  -0.8402  0.05309
6.446e+09  -0.5843  -0.6242  0.02699  0.03204  -0.005366  -0.02337  -0.7501  0.3661
6.448e+09  -0.7542  -0.3813  -0.002232  0.0286  -0.00825  -0.0425  -0.6272  0.5846
6.449e+09  -0.9057  -0.1275  -0.01807  0.04926  -0.004163  -0.009013  -0.3566  0.7592
6.45e+09  -0.85  0.169  -0.0005893  -0.01136  -0.006436  0.045  -0.04022  0.8223
6.451e+09  -0.677  0.4859  0.008595  0.004767  0.01401  0.02186  0.2284  0.8447
6.452e+09  -0.4756  0.6504  0.02272  0.00713  -0.0174  -0.01799  0.4716  0.6564
6.454e+09  -0.2386  0.8426  -0.01491  -0.009381  -0.008263  -0.02478  0.7208  0.4754
6.455e+09  0.07051  0.8512  0.0017  -0.02578  -0.03655  -0.04666  0.7709  0.1691
6.456e+09  0.3379  0.788  0.02129  -0.05208  0.02393  -0.01285  0.8205  -0.07277
6.458e+09  0.646  0.5841  -0.05256  -0.0438  -0.006768  -0.003998  0.7165  -0.3275
6.459e+09  0.7808  0.3225  0.01465  0.02702  0.0108  -0.03253  0.5935  -0.6059
6.46e+09  0.8616  0.05884  0.03529  0.01778  -0.04506  0.03577  0.2979  -0.7374
6.461e+09  0.8217  -0.2001  -0.007396  -0.01808  -0.005919  0.02133  0.06276  -0.8275
6.462e+09  0.7361  -0.4419  -0.01824  -0.01229  -0.03064  0.0426  -0.2279  -0.7911
6.464e+09  0.4986  -0.6733  -0.02727  -0.02156  -0.0007368  0.0008064  -0.4722  -0.6716
6.465e+09  0.1821  -0.8116  0.008572  0.01229  -0.01064  0.03813  -0.6555  -0.4749
6.466e+09  -0.09256  -0.8254  0.03006  0.04417  0.04421  -0.001083  -0.7703  -0.2473
6.468e+09  -0.4016  -0.7767  0.0005883  0.001658  0.01581  0.009436  -0.8015  0.1189
6.469e+09  -0.6012  -0.6273  0.006634  0.02785  0.02435  0.007252  -0.7359  0.3281
6.47e+09  -0.7754  -0.3349  -0.0557  0.06074  0.02828  0.05933  -0.584  0.5524
6.471e+09  -0.8954  -0.05283  0.01365  -0.02319  0.03315  0.02259  -0.3484  0.7167
6.472e+09  -0.8032  0.2831  0.004293  -0.01913  -0.0272  0.01274  -0.06194  0.7832
6.474e+09  -0.6851  0.5048  0.004342  -0.01015  0.05815  -0.03562  0.2045  0.7582
6.475e+09  -0.3969  0.7642  0.01699  -0.0228  -0.02771  -0.01038  0.4533  0.694
6.476e+09  -0.1721  0.8308  0.0009242  -0.006655  0.008664  -0.003637  0.6189  0.4533
6.478e+09  0.09035  0.8221  -0.0511  -0.02818  -0.0156  -0.002758  0.7502  0.2146
6.479e+09  0.3983  0.7995  0.03532  0.02163  0.001322  -0.01034  0.7881  -0.09294
6.48e+09  0.6334  0.555  0.03149  0.005041  -0.01564  -0.05433  0.7721  -0.3482
6.481e+09  0.8007  0.2854  0.02649  -0.01177  0.005393  0.02922  0.5673  -0.5296
6.482e+09  0.8589  -0.001616  0.01604  0.007952  0.007185  -0.0009939  0.3592  -0.7071
6.484e+09  0.792  -0.2377  -0.03943  0.03588  0.02334  -0.03553  0.06246  -0.7361
6.485e+09  0.6661  -0.5215  -0.01466  0.02991  -0.0189  -0.007697  -0.2183  -0.7193
6.486e+09  0.4941  -0.7192  -0.002729  0.03247  -0.01833  -0.001114  -0.4463  -0.5927
6.488e+09  0.1518  -0.8305  0.01206  0.01809  -0.004095  -0.001384  -0.6593  -0.474
6.489e+09  -0.1529  -0.7975  0.01368  0.05028  -0.05208  -0.02082  -0.7604  -0.1881
6.49e+09  -0.4202  -0.6905  -0.02529  0.0129  0.03723  0.004892  -0.7571  0.08414
6.491e+09  -0.6488  -0.5923  0.01036  -0.0168  0.03829  -0.03919  -0.6691  0.3656
6.492e+09  -0.7962  -0.3281  0.008642  -0.0153  0.03245  0.03903  -0.5219  0.5976
6.494e+09  -0.8526  0.04503  0.03507  -0.03373  0.02874  -0.01811  -0.2946  0.7144
6.495e+09  -0.8663  0.3432  0.01128  0.05223  -0.02336  -0.0163  -0.06242  0.783
6.496e+09  -0.6648  0.5336  -0.004442  0.01861  0.0412  -0.03655  0.222  0.7326
6.498e+09  -0.4768  0.7537  -0.01045  0.01519  -0.05202  0.03947  0.4616  0.6236
6.499e+09  -0.1935  0.8617  0.004033  -0.01011  -0.0221  -0.02516  0.6233  0.4337
6.5e+09  0.1862  0.8311  -0.003484  0.01996  -0.06853  0.007809  0.7257  0.1108
6.501e+09  0.4428  0.7899  -0.0136  0.005812  -0.01471  0.08718  0.7535  -0.1093
6.502e+09  0.6791  0.5309  -0.01591  -0.01572  -0.006084  0.008637  0.6935  -0.3248
6.504e+09  0.8104  0.2715  -0.0141  -0.001414  -0.01904  0.0423  0.521  -0.5766
6.505e+09  0.8785  -0.00731  -0.01953  -0.004909  -0.01586  0.01219  0.2683  -0.728
6.506e+09  0.8472  -0.3243  0.01937  -0.02329  -0.005111  0.01228  0.03424  -0.7688
6.508e+09  0.7093  -0.5946  -0.02396  0.02133  0.001441  -0.009083  -0.2237  -0.7389
6.509e+09  0.4071  -0.7995  -0.01607  0.001779  0.02068  0.01049  -0.5139  -0.5798
6.51e+09  0.118  -0.8959  0.0001861  0.05489  -0.02695  -0.03219  -0.6401  -0.3965
6.511e+09  -0.1735  -0.8433  -0.02385  0.03345  -0.03445  0.01505  -0.7073  -0.0739
6.512e+09  -0.4842  -0.7411  0.02579  -0.03028  -0.01425  -0.0427  -0.7239  0.1578
6.514e+09  -0.7234  -0.5857  -0.01798  0.00207  0.003086  0.001018  -0.6349  0.3694
6.515e+09  -0.8852  -0.2798  -0.0005167  -0.00414  0.01985  -0.008423  -0.4732  0.6077
6.516e+09  -0.939  0.003956  -0.002579  -0.01922  -0.02816  0.01769  -0.2502  0.7006
6.518e+09  -0.8322  0.3723  -0.01689  0.005411  0.001156  0.02157  0.07489  0.7392
6.519e+09  -0.6964  0.6165  -0.02461  -0.0427  -0.01133  0.0121  0.2432  0.6681
6.52e+09  -0.4433  0.8069  0.02991  -0.001524  -0.004151  -0.01775  0.498  0.5513
6.521e+09  -0.1073  0.9048  0.006095  0.01587  0.001196  -0.008649  0.6449  0.3522
6.522e+09  0.2374  0.9025  0.01877  -0.0192  0.04229  -0.03137  0.7258  0.05634
6.524e+09  0.4818  0.7802  0.005816  0.01957  0.04525  0.01172  0.704  -0.1584
6.525e+09  0.8004  0.549  -0.0111  0.002644  0.01755  -0.02496  0.6058  -0.3848
6.526e+09  0.8797  0.226  0.01923  -0.0103  0.0741  -0.01017  0.4054  -0.6061
6.528e+09  0.8283  -0.05228  0.02882  0.05435  -0.05603  -0.05199  0.1936  -0.7159
6.529e+09  0.8459  -0.3809  0.007837  0.00109  0.002426  0.02085  -0.06038  -0.7181
6.53e+09  0.6782  -0.6668  -0.00277  -0.008049  -0.02173  0.01616  -0.3007  -0.644
6.531e+09  0.3868  -0.8407  0.003399  0.01746  0.0277  -0.04488  -0.4425  -0.4988
6.532e+09  0.06184  -0.9389  -0.005444  0.01971  0.0143  0.01047  -0.5743  -0.3017
6.534e+09  -0.2125  -0.9456  -0.0007533  -0.01376  -0.01985  0.02108  -0.6515  -0.08135
6.535e+09  -0.5362  -0.6918  -0.008077  -0.01547  -0.02126  -0.01499  -0.6185  0.1141
6.536e+09  -0.8315  -0.6049  -0.02394  0.0003801  -0.01813  0.01256  -0.5816  0.3074
6.538e+09  -0.9568  -0.1786  -0.004482  -0.003585  0.01217  -0.001907  -0.4878  0.4702
6.539e+09  -0.9167  0.1588  0.02865  0.004033  -0.01251  0.01892  -0.2621  0.6305
6.54e+09  -0.8771  0.4894  0.02811  0.00923  0.03266  0.01022  -0.05016  0.6681
6.541e+09  -0.64  0.7127  -0.005976  0.007631  0.005124  -0.04008  0.2011  0.6441
6.542e+09  -0.2978  0.8878  0.002679  -0.009959  -0.01289  0.001884  0.4322  0.5705
6.544e+09  -0.008763  0.9716  0.002213  0.01578  0.01224  0.05361  0.5794  0.3846
6.545e+09  0.3199  0.8765  -0.0007715  0.01924  -0.01887  0.02194  0.7312  0.1691
6.546e+09  0.6025  0.7716  -0.01743  -0.02421  -0.02929  -0.02493  0.704  -0.07048
6.548e+09  0.8518  0.4719  -0.02647  0.003201  0.06595  0.01218  0.6731  -0.2935
6.549e+09  0.9116  0.07062  0.01346  -0.004517  0.05529  -0.02826  0.5112  -0.5472
6.55e+09  0.9724  -0.2349  0.0175  0.01832  0.03111  -0.05043  0.3024  -0.6798
