# Hz S RI R 50
6.25e+09  0.007318  0.9599  0.003288  -0.01263  0.02086  -0.007163  0.1761  0.4821
6.251e+09  0.2868  0.8623  0.01211  -0.008422  0.01294  -0.0253  0.3895  0.3879
6.252e+09  0.5908  0.7214  0.009043  -0.001659  0.01172  -0.004059  0.5095  0.2307
6.254e+09  0.7823  0.4876  -0.02962  0.01785  -0.02694  -0.03638  0.6144  0.0235
6.255e+09  0.9254  0.2255  0.004097  -0.001892  0.02887  -0.0256  0.6121  -0.2608
6.256e+09  0.8842  -0.1671  -0.0197  0.04542  -0.02158  0.07247  0.4565  -0.4445
6.258e+09  0.8046  -0.4675  0.01479  0.0103  0.04588  -0.03122  0.2883  -0.5749
6.259e+09  0.5809  -0.6874  0.01431  -0.0008262  0.02565  0.01279  -0.01233  -0.6808
6.26e+09  0.2962  -0.8822  0.002351  0.01618  -0.02755  -0.009433  -0.2154  -0.6301
6.261e+09  -0.005841  -0.8859  -0.02425  -0.01936  0.02597  0.01074  -0.4661  -0.5253
6.262e+09  -0.3604  -0.8254  -0.01006  -0.01244  -0.01363  0.03205  -0.6047  -0.3588
6.264e+09  -0.6138  -0.7028  0.02532  -0.01304  0.00666  -0.002757  -0.7098  -0.1313
6.265e+09  -0.7617  -0.4387  0.006567  0.01013  0.01026  0.03425  -0.7203  0.1154
6.266e+09  -0.8468  -0.1604  -0.01756  0.001993  0.0154  0.003231  -0.601  0.4079
6.268e+09  -0.8914  0.1813  -0.01628  -0.02493  0.02106  0.06397  -0.4387  0.593
6.269e+09  -0.7826  0.4552  0.00538  -0.02261  0.04413  0.01532  -0.2049  0.6991
6.27e+09  -0.5696  0.6843  0.04137  -0.03384  -0.009906  -0.007027  0.0602  0.7418
6.271e+09  -0.3344  0.89  0.01082  -0.005606  -0.009202  0.03906  0.3021  0.6798
6.272e+09  -0.001851  0.9254  -0.01006  0.01693  0.001025  0.008909  0.5118  0.5356
6.274e+09  0.2999  0.8643  0.03701  -0.0197  -0.03219  -0.01131  0.712  0.2886
6.275e+09  0.6386  0.6775  0.01459  -0.02893  -0.02153  -0.04902  0.7661  0.009089
6.276e+09  0.8163  0.4272  -0.008445  -0.0216  -0.007064  0.01695  0.754  -0.237
6.278e+09  0.9305  0.1192  0.01022  -0.008901  0.002808  -0.02132  0.6041  -0.4751
6.279e+09  0.8331  -0.1643  0.01582  -0.01928  -0.004839  -0.008299  0.426  -0.65
6.28e+09  0.7515  -0.4164  0.01439  -0.01134  0.01708  0.01494  0.1572  -0.7582
6.281e+09  0.498  -0.7293  -0.01035  0.03302  -0.01323  0.01776  -0.0702  -0.7752
6.282e+09  0.2348  -0.826  -0.01835  0.02607  -0.01653  0.052  -0.3975  -0.7041
6.284e+09  -0.08309  -0.9236  0.01368  -0.01856  0.02087  -0.03183  -0.6126  -0.5265
6.285e+09  -0.3723  -0.8033  -0.01504  -0.004543  -0.006901  -0.01578  -0.7367  -0.2763
6.286e+09  -0.6444  -0.5856  0.00806  0.01054  0.02599  0.007724  -0.7851  -0.01315
6.288e+09  -0.8464  -0.3661  -0.001471  -0.02839  -0.08524  -0.008761  -0.7619  0.262
6.289e+09  -0.8756  -0.06332  0.02501  -0.01894  -0.01749  0.02354  -0.6555  0.4843
6.29e+09  -0.8816  0.2047  0.01804  -0.023  -0.01168  0.01501  -0.4022  0.6753
6.291e+09  -0.6775  0.5547  -0.02142  0.002835  -0.02082  0.05134  -0.1793  0.828
6.292e+09  -0.5224  0.7625  -0.005705  -0.01001  0.02539  -0.03657  0.1329  0.8059
6.294e+09  -0.1975  0.8711  0.0102  -0.0163  0.03847  0.004723  0.4474  0.7368
6.295e+09  0.09596  0.9161  0.0184  0.005841  0.00324  -0.03023  0.6183  0.5232
6.296e+09  0.4028  0.8424  -0.01949  -0.008536  -0.03937  0.01875  0.7839  0.3219
6.298e+09  0.6882  0.6788  -0.02709  0.02551  0.01073  -0.004291  0.8797  0.01874
6.299e+09  0.8306  0.3735  -0.03791  -0.004791  -0.01587  -0.003527  0.7889  -0.2977
6.3e+09  0.9076  0.05622  0.003524  0.02409  -0.02394  0.008806  0.6506  -0.5525
6.301e+09  0.8789  -0.2823  0.01627  -0.001292  -0.01219  0.00338  0.4228  -0.6935
6.302e+09  0.7339  -0.6415  -0.01529  0.01001  -0.01059  -0.02272  0.1567  -0.8043
6.304e+09  0.4407  -0.8296  0.02329  0.005286  -0.00608  0.02816  -0.158  -0.7928
6.305e+09  0.13  -0.8798  -0.01648  -0.03043  0.000989  0.01666  -0.4606  -0.7629
6.306e+09  -0.1656  -0.9566  -0.008341  -0.02361  -0.02097  -0.0004226  -0.6374  -0.564
6.308e+09  -0.4892  -0.8083  -0.0047  0.01325  -0.007312  0.009387  -0.794  -0.283
6.309e+09  -0.7715  -0.5661  -0.01926  -0.01676  -0.002507  0.066  -0.871  -0.0241
6.31e+09  -0.8854  -0.291  -0.01482  -0.0003297  -0.02477  -0.0452  -0.8334  0.3006
6.311e+09  -0.958  0.02314  -0.02438  0.01285  -0.005356  -0.02207  -0.6532  0.5518
6.312e+09  -0.8974  0.3438  0.02398  0.005658  -0.03271  -0.02172  -0.4381  0.7539
6.314e+09  -0.7555  0.635  -0.008841  0.02935  -0.02097  -0.02641  -0.1593  0.8786
6.315e+09  -0.4586  0.8808  -0.002093  0.01567  -0.003649  -0.02134  0.1386  0.855
6.316e+09  -0.09478  0.9758  -0.004263  0.009184  -0.01201  -0.009654  0.4431  0.7761
6.318e+09  0.2683  0.9379  0.003947  0.005559  -0.006546  0.003404  0.6583  0.5745
6.319e+09  0.5837  0.8385  0.008379  -0.002059  0.01385  0.03672  0.8074  0.3223
6.32e+09  0.8136  0.5662  -0.01541  0.0006362  0.001219  -0.01413  0.8959  0.003421
6.321e+09  0.9745  0.2017  0.02716  0.001111  -0.0316  0.0006079  0.8491  -0.2658
6.322e+09  0.9829  -0.1137  -0.01518  0.001821  0.02614  -0.02006  0.6666  -0.5671
6.324e+09  0.9533  -0.4575  -0.003061  0.009093  0.003858  -0.03213  0.4457  -0.7654
6.325e+09  0.6906  -0.7116  -0.01978  -0.00321  0.009111  0.006016  0.1378  -0.904
6.326e+09  0.333  -0.9181  0.005435  -0.005575  0.0166  -0.04658  -0.1303  -0.9045
6.328e+09  0.02402  -0.98  -0.007412  -0.01164  0.01012  -0.0513  -0.4211  -0.8016
6.329e+09  -0.3417  -0.9547  0.03517  -0.001072  0.04327  -0.0003228  -0.7065  -0.5962
6.33e+09  -0.6859  -0.774  0.02631  0.002934  -0.02717  -0.01562  -0.8196  -0.3699
6.331e+09  -0.8835  -0.4764  -0.009385  -0.04358  0.01936  0.03655  -0.9289  -0.06278
6.332e+09  -1.02  -0.1623  -0.001515  0.001849  -0.004613  -0.03016  -0.89  0.3087
6.334e+09  -1.043  0.2209  -0.008582  0.01682  0.01237  -0.009616  -0.7453  0.5466
6.335e+09  -0.8908  0.5691  0.01832  -0.004489  0.006183  -0.02296  -0.4909  0.7433
6.336e+09  -0.6683  0.8021  0.008962  0.01129  -0.05693  0.0186  -0.1572  0.8782
6.338e+09  -0.2799  1.041  0.0144  -0.01828  0.01583  0.08514  0.1689  0.9042
6.339e+09  0.06517  1.033  -0.007253  -0.01421  -0.02398  -0.01795  0.4272  0.8362
6.34e+09  0.4531  0.9594  -0.007689  -0.01501  -0.01027  -0.0007448  0.6712  0.6603
6.341e+09  0.6519  0.7427  0.01877  -0.02617  0.02468  0.01914  0.8505  0.3385
6.342e+09  0.9437  0.4024  -0.01002  -0.02315  0.01954  -0.004135  0.93  0.01221
6.344e+09  1.077  0.0539  0.007157  0.02918  -0.02382  -0.01218  0.8812  -0.2508
6.345e+09  0.9966  -0.3079  -0.007741  0.01284  0.001566  0.02072  0.741  -0.5709
6.346e+09  0.8139  -0.6385  0.02529  -0.01053  0.03347  0.03154  0.5142  -0.7821
6.348e+09  0.5228  -0.8612  -0.01113  -0.01313  0.02255  -0.004288  0.1878  -0.9118
6.349e+09  0.1772  -1.013  -0.001367  0.004977  0.0507  0.02432  -0.1114  -0.9121
6.35e+09  -0.1593  -1.055  0.01847  -0.02302  0.01088  0.02489  -0.4302  -0.8455
6.351e+09  -0.5115  -0.9037  0.00787  -0.0511  -0.04369  -0.01218  -0.7025  -0.6549
6.352e+09  -0.8558  -0.6991  0.01716  -0.04383  0.02892  -0.01589  -0.8687  -0.3253
6.354e+09  -1.016  -0.3341  -0.05354  0.01247  -0.006052  0.00707  -0.9236  -0.08144
6.355e+09  -1.073  0.07557  0.01106  0.01193  -0.00621  0.02156  -0.9038  0.3096
6.356e+09  -0.9976  0.3831  0.02831  0.006454  0.06099  2.982e-05  -0.762  0.5481
6.358e+09  -0.7639  0.7068  0.004275  -0.01496  -0.02149  0.01197  -0.5376  0.7644
6.359e+09  -0.4735  0.9034  -0.007302  -0.01206  -0.03537  -0.02045  -0.2329  0.9312
6.36e+09  -0.1144  1.016  -0.004628  -0.03504  -0.03114  0.02327  0.08906  0.9602
6.361e+09  0.2818  0.983  -0.01032  0.01002  -0.03477  -0.02746  0.4002  0.8566
6.362e+09  0.601  0.8387  -0.00302  0.01  -0.006969  -0.02712  0.7107  0.6967
6.364e+09  0.8709  0.5697  -0.01899  0.0335  -0.005448  0.0421  0.8463  0.3983
6.365e+09  0.983  0.2229  -0.006905  0.02145  -0.03719  -0.06128  0.9585  0.06844
6.366e+09  1.096  -0.1654  0.01434  0.03738  -0.0172  0.002304  0.9367  -0.2582
6.368e+09  0.8994  -0.4329  -0.007729  0.001229  0.007999  -0.02864  0.7622  -0.5324
6.369e+09  0.6756  -0.7879  -0.02023  0.01883  -0.03168  0.01037  0.5885  -0.7466
6.37e+09  0.4179  -0.9497  -0.00172  -0.03019  0.01261  -0.001701  0.2217  -0.898
6.371e+09  0.07283  -1.041  -0.01735  -0.01236  -0.009407  -0.02347  -0.05558  -0.973
6.372e+09  -0.3229  -0.984  0.004983  0.00956  0.02866  0.002286  -0.3589  -0.8464
6.374e+09  -0.6244  -0.7289  -0.002432  0.01457  -0.08107  -0.02798  -0.654  -0.6637
6.375e+09  -0.8774  -0.5397  0.007092  0.02286  -0.003583  0.01549  -0.8439  -0.4512
6.376e+09  -0.9664  -0.1643  0.01684  -0.04996  -0.01162  -0.03044  -0.9491  -0.1307
6.378e+09  -0.9738  0.1509  0.02758  -0.005089  0.01641  -0.009499  -0.931  0.2173
6.379e+09  -0.886  0.5345  0.0155  0.03274  -0.01933  -0.04508  -0.8024  0.5115
6.38e+09  -0.6412  0.7429  -0.01377  -0.02802  -0.008793  -0.01018  -0.5415  0.7497
6.381e+09  -0.3361  0.9429  0.01618  0.04146  -0.03003  0.03003  -0.2237  0.9477
6.382e+09  0.01071  1.033  -0.03506  -0.009479  -0.01536  -0.03681  0.03873  0.9054
6.384e+09  0.3599  0.9241  0.02742  3.87e-05  0.01638  -0.02968  0.3385  0.8683
6.385e+09  0.6753  0.7516  -0.02016  0.01315  -0.02244  -0.01142  0.6371  0.6823
6.386e+09  0.8958  0.4623  0.03342  -0.02228  -0.01542  0.03065  0.8087  0.3732
6.388e+09  0.9898  0.141  -0.006711  0.01336  -0.04094  -0.03836  0.9  0.1349
6.389e+09  0.9744  -0.1689  0.02581  0.03583  -0.03786  0.02684  0.91  -0.1655
6.39e+09  0.8555  -0.5527  0.005705  0.01788  0.009379  0.02645  0.7464  -0.5294
6.391e+09  0.5518  -0.7857  -0.02429  0.02496  0.01685  -0.0282  0.5462  -0.7236
6.392e+09  0.2809  -0.9607  -0.002508  0.02824  0.004469  -0.005015  0.3272  -0.9116
6.394e+09  -0.04368  -1.037  -0.01318  0.01878  -0.01106  -0.04473  -0.01599  -0.9269
6.395e+09  -0.3896  -0.9613  0.01206  0.01831  0.01909  0.007557  -0.3383  -0.8633
6.396e+09  -0.6894  -0.7426  -0.01972  -0.02978  0.02446  -0.05088  -0.6622  -0.7083
6.398e+09  -0.8741  -0.4331  -0.005826  -0.006659  0.04845  -0.02145  -0.8262  -0.5233
6.399e+09  -0.993  -0.1363  -0.02427  0.02014  0.01578  -0.03456  -0.8988  -0.1655
6.4e+09  -0.9372  0.2241  -0.0197  -0.02258  -0.0372  0.004873  -0.8915  0.1878
6.401e+09  -0.8329  0.5538  0.02504  -0.006575  0.01177  -0.009815  -0.8086  0.4677
6.402e+09  -0.5251  0.758  -0.05992  0.005607  0.069  -0.02869  -0.5865  0.6777
6.404e+09  -0.2785  0.9498  -0.009964  -0.004258  0.02493  0.03339  -0.2959  0.8715
6.405e+09  0.1142  0.9494  -0.0001904  0.02049  0.006034  0.01617  -0.01872  0.895
6.406e+09  0.3719  0.8706  -0.0557  -0.05819  0.001318  -0.01223  0.3531  0.9083
6.408e+09  0.712  0.628  0.05829  -0.007183  0.002818  0.0002915  0.5805  0.6921
6.409e+09  0.8825  0.3969  -0.001641  0.01191  0.01038  0.01845  0.7616  0.4554
6.41e+09  0.9653  0.07876  -0.007245  0.03189  0.002339  -0.009789  0.9119  0.1927
6.411e+09  0.9565  -0.2369  0.02601  -0.003229  -0.02753  -0.03999  0.9171  -0.1711
6.412e+09  0.7284  -0.6059  0.01861  0.004837  0.01506  -0.01633  0.8399  -0.465
6.414e+09  0.5253  -0.8202  -0.02493  0.02697  -0.01334  0.01725  0.5995  -0.7074
6.415e+09  0.2504  -0.9505  0.0352  0.02695  0.01252  0.02453  0.3105  -0.8146
6.416e+09  -0.1314  -0.9386  -0.01549  0.002397  0.006148  0.0002228  0.03307  -0.8693
6.418e+09  -0.4174  -0.8932  -0.01789  -0.0005419  0.02871  0.01167  -0.2589  -0.8614
6.419e+09  -0.7081  -0.6953  0.008372  -0.008709  -0.0331  0.002025  -0.5421  -0.7071
6.42e+09  -0.907  -0.3717  0.04295  0.0001587  0.01264  -0.0001532  -0.78  -0.5056
6.421e+09  -0.9265  -0.04133  0.004925  0.008663  9.608e-05  0.008669  -0.8948  -0.1831
6.422e+09  -0.9671  0.3014  -0.005133  0.04121  0.03601  0.02309  -0.8965  0.09406
6.424e+09  -0.763  0.6208  -0.01544  -0.05535  -0.01328  -0.05433  -0.7471  0.3751
6.425e+09  -0.5238  0.8476  -0.01792  -0.007812  0.008315  -0.01795  -0.6239  0.6695
6.426e+09  -0.231  0.9123  0.004244  -0.03354  0.01258  -0.02067  -0.3399  0.8419
6.428e+09  0.1462  0.9401  -0.004065  -0.006349  0.02402  -0.05665  -0.06039  0.8882
6.429e+09  0.4723  0.8754  0.01856  0.03279  -0.01785  -0.002968  0.2373  0.8433
6.43e+09  0.7374  0.6548  -0.03666  -0.01755  -0.05191  0.01114  0.5333  0.713
6.431e+09  0.923  0.3711  -0.01069  -0.03325  0.01685  -0.01409  0.74  0.5219
6.432e+09  1.013  0.01786  0.02174  0.004117  -0.007277  0.04653  0.8983  0.1829
6.434e+09  0.9482  -0.3328  0.02369  0.004757  0.04367  0.003516  0.8727  -0.06849
6.435e+09  0.7803  -0.6772  -0.01894  0.009794  0.005714  0.008497  0.7577  -0.3678
6.436e+09  0.4637  -0.8614  0.0421  -0.01324  0.07259  -0.01364  0.588  -0.6343
6.438e+09  0.1871  -0.9732  -0.01952  0.007432  0.004953  -0.002874  0.3565  -0.749
6.439e+09  -0.1719  -0.9938  -0.003682  0.008822  -0.01511  -0.0323  0.07736  -0.901
6.44e+09  -0.53  -0.8555  -0.01163  -0.01351  -0.0372  -0.03722  -0.2191  -0.8109
6.441e+09  -0.7728  -0.6617  0.00881  0.01756  0.02162  -0.01565  -0.4913  -0.6869
6.442e+09  -0.9392  -0.3201  0.01799  -0.02215  0.000134  -0.0233  -0.6823  -0.4797
6.444e+09  -1.034  0.05069  -0.01247  -0.02656  0.05788  -0.004461  -0.7979  -0.1858
6.445e+09  -0.9711  0.3615  0.05337  -0.008333  0.0452  -0.02737  -0.8071  0.09284
6.446e+09  -0.7472  0.6379  -0.03429  0.009817  0.009217  -0.02761  -0.7549  0.3792
6.448e+09  -0.4824  0.9151  -0.01928  -0.01799  0.03141  0.03302  -0.5998  0.6296
6.449e+09  -0.1074  0.9317  0.0006406  -0.02862  -0.005043  0.01013  -0.3045  0.7211
6.45e+09  0.1914  1.004  -0.02634  -0.002141  0.01607  -0.01979  -0.1003  0.8046
6.451e+09  0.6135  0.902  0.03913  -0.009585  0.01501  0.02291  0.216  0.7692
6.452e+09  0.8956  0.644  -0.02241  -0.02789  -0.01649  0.003483  0.493  0.6992
6.454e+09  1.049  0.2606  0.01424  0.001938  -0.02219  -0.03475  0.6887  0.4923
6.455e+09  1.056  -0.1138  -0.023  -0.03072  -0.03275  -0.02384  0.7605  0.2107
6.456e+09  0.9607  -0.4434  -0.02313  -0.01728  0.02007  0.002229  0.8332  -0.1059
6.458e+09  0.7807  -0.7683  -0.02435  -0.0009159  -0.00404  0.0299  0.7511  -0.3572
6.459e+09  0.4427  -0.97  -0.05201  0.01043  -0.03252  0.008981  0.5386  -0.582
6.46e+09  0.09095  -1.045  -0.01321  0.05343  0.04901  -0.04316  0.3922  -0.7445
6.461e+09  -0.2668  -1.068  0.01602  0.008351  0.01002  -0.04038  0.05223  -0.7931
6.462e+09  -0.6054  -0.8417  0.02219  0.01537  0.005342  -0.004316  -0.2231  -0.8435
6.464e+09  -0.8831  -0.59  -0.02701  -0.0003449  0.03452  0.03013  -0.4755  -0.6676
6.465e+09  -1.087  -0.2311  -0.02443  0.01765  0.02233  0.002186  -0.6665  -0.4487
6.466e+09  -1.069  0.2003  0.03477  0.01952  -0.01893  -0.03378  -0.8197  -0.1796
6.468e+09  -0.9402  0.5115  0.002298  0.0295  0.01389  0.03004  -0.8114  0.05317
6.469e+09  -0.6709  0.8171  0.01309  0.01604  0.01537  0.02561  -0.766  0.3251
6.47e+09  -0.3389  0.9985  -0.007688  0.03939  0.0007717  0.02634  -0.6053  0.5354
6.471e+09  0.02575  1.129  -0.01135  -0.02339  0.008106  -0.07458  -0.337  0.7417
6.472e+09  0.389  1.013  0.006691  -0.02951  -0.01653  -0.004426  -0.05776  0.8239
6.474e+09  0.7665  0.7773  -0.0005613  -0.01842  -0.01002  -0.03112  0.2093  0.7949
6.475e+09  0.9989  0.5284  -0.0387  0.02336  0.02777  0.03929  0.5039  0.6657
6.476e+09  1.035  0.1126  -0.02102  0.07463  -0.003357  -0.0395  0.6467  0.4625
6.478e+09  1.065  -0.3094  -0.007222  0.009284  0.01068  -0.02001  0.8149  0.1658
6.479e+09  0.9419  -0.6605  0.003492  0.02919  -0.004378  0.04701  0.8077  -0.08634
6.48e+09  0.6167  -0.9418  0.01267  -0.04699  0.008211  -0.02743  0.6958  -0.321
6.481e+09  0.2099  -1.061  -0.02408  -0.05551  -0.009244  -0.01207  0.5698  -0.5703
6.482e+09  -0.1285  -1.071  -0.03199  0.002009  -0.03027  0.00328  0.3328  -0.6852
6.484e+09  -0.5185  -0.9959  0.02302  -0.01414  0.02802  -0.02006  0.05022  -0.8
6.485e+09  -0.8481  -0.6953  0.02259  0.008877  0.005068  -0.02429  -0.2213  -0.7446
6.486e+09  -1.07  -0.4031  0.01227  -0.01378  0.004921  -0.0331  -0.4747  -0.6094
6.488e+09  -0.6843  0.5715  -0.01017  0.02787  -0.2826  -0.6701  -0.6331  -0.4311
6.489e+09  -1.072  0.3572  -0.01936  0.04023  -0.009858  0.03878  -0.7149  -0.1531
6.49e+09  -0.8125  0.7372  0.009456  0.02092  -0.05958  0.0182  -0.7634  0.07332
6.491e+09  -0.5233  1.017  -0.005313  -0.01368  -0.04335  0.009777  -0.6704  0.3353
6.492e+09  -0.09966  1.155  0.01035  -0.01179  -0.04392  0.02903  -0.5026  0.5663
6.494e+09  0.2174  1.207  -0.02017  0.01956  0.02099  0.0774  -0.2748  0.7158
6.495e+09  0.5982  0.86  -0.01158  0.003237  -0.003808  -0.009796  0.001473  0.7459
6.496e+09  0.9323  0.6351  -0.02063  -0.01588  0.0158  -0.01462  0.177  0.7777
6.498e+09  1.1  0.2699  -0.03795  0.01757  0.001953  -0.00469  0.4526  0.6106
6.499e+09  1.16  -0.1731  0.007432  0.01678  0.0532  0.01473  0.6052  0.4144
6.5e+09  1.144  0.06205  0.05661  -0.007514  -0.02121  0.004641  0.742  0.1345
6.501e+09  0.7982  -0.8389  -0.003885  0.02018  -0.008571  -0.0671  0.7612  -0.1164
6.502e+09  0.4522  -1.016  0.013  -0.004295  -0.03286  -0.03855  0.6615  -0.3991
6.504e+09  -0.007854  -1.086  -0.03408  -0.02294  -0.04711  0.02563  0.5209  -0.594
6.505e+09  -0.4085  -0.9554  -0.01228  -0.03525  -0.003884  -0.009274  0.2691  -0.7124
6.506e+09  -0.7729  -0.809  -0.02088  -0.02143  0.01359  0.01502  0.02835  -0.7815
6.508e+09  -1.033  -0.492  0.03663  -0.01266  -0.02679  -0.02198  -0.2582  -0.7051
6.509e+09  -1.073  -0.1121  -0.004437  -0.0103  -0.07646  0.01087  -0.5085  -0.5711
6.51e+09  -1.001  0.2102  0.01537  0.00624  -0.01894  0.007375  -0.682  -0.3862
6.511e+09  -0.8745  0.6309  0.01265  0.03601  -0.007113  -0.02535  -0.7539  -0.1367
6.512e+09  -0.5847  0.8551  0.02918  0.009089  0.02669  0.02098  -0.7235  0.1011
6.514e+09  -0.2046  1.045  -0.01047  -0.009702  -0.01347  0.04922  -0.6688  0.4002
6.515e+09  0.1074  1.055  -0.01743  -0.03289  -0.02977  0.04317  -0.4968  0.5947
6.516e+09  0.5681  0.9359  -0.008369  -0.002667  -0.0002187  0.02186  -0.2254  0.7017
6.518e+09  0.8198  0.7338  -0.04444  0.002654  0.0007705  0.01836  0.01009  0.7324
6.519e+09  0.9799  0.3482  -0.02381  -0.03628  0.004257  0.008759  0.2957  0.6825
6.52e+09  1.071  0.007724  -0.03075  -0.001242  -0.01485  -0.04424  0.4752  0.529
6.521e+09  0.9556  -0.431  -0.002643  -0.0441  -0.01805  -0.003776  0.661  0.3548
6.522e+09  0.7889  -0.7139  0.02029  0.02223  -0.01975  0.0468  0.7398  0.09837
6.524e+09  0.4584  -0.9089  0.01735  -0.004818  0.02142  0.001991  0.7254  -0.1551
6.525e+09  0.08199  -1.043  0.001382  -0.01066  -0.02291  -0.003823  0.6371  -0.4133
6.526e+09  -0.2776  -1.008  -0.006888  -0.005043  -0.01163  -0.001002  0.4241  -0.5499
6.528e+09  -0.5992  -0.8521  -0.0001348  0.02204  0.01265  -0.02916  0.1949  -0.7083
6.529e+09  -0.8625  -0.5534  -0.01016  0.007759  0.06451  -0.02373  -0.04842  -0.6842
6.53e+09  -0.9816  -0.1979  -0.04876  0.001531  -0.01588  -0.02208  -0.2977  -0.608
6.531e+09  -0.9974  0.1981  0.02921  0.002425  0.01994  0.005231  -0.4784  -0.4639
6.532e+09  -0.8916  0.5685  0.008712  -0.02404  -0.005448  -0.006771  -0.5496  -0.2948
6.534e+09  -0.6533  0.7821  -0.01356  -0.01312  -0.005656  0.04028  -0.6338  -0.07641
6.535e+09  -0.3627  0.9438  0.02346  -0.00309  0.01097  0.006298  -0.6376  0.1296
6.536e+09  0.07668  1.005  0.01901  -0.0109  -0.01094  0.05836  -0.5942  0.2896
6.538e+09  0.4121  0.9142  0.006514  0.003386  -0.004736  0.01315  -0.4179  0.4869
6.539e+09  0.7431  0.7292  0.01051  -0.004873  0.07733  0.006066  -0.2708  0.6217
6.54e+09  0.9344  0.4706  0.005669  -0.00191  0.02932  0.0168  -0.04852  0.7088
6.541e+09  0.9886  0.06933  -0.003179  0.002021  0.02064  0.04434  0.1875  0.6655
6.542e+09  0.9018  -0.2593  -0.003946  0.001647  0.0355  0.04125  0.4003  0.5731
6.544e+09  0.7361  -0.6158  -0.005736  -0.009226  -0.05157  -0.03668  0.5884  0.4192
6.545e+09  0.5166  -0.8131  -0.008507  0.01391  0.03477  -0.00537  0.7332  0.165
6.546e+09  0.1741  -0.9901  0.004194  0.01046  -0.02917  0.004827  0.7162  -0.07473
6.548e+09  -0.1646  -0.96  -0.03416  0.007069  -0.01833  -0.04906  0.6646  -0.2963
6.549e+09  -0.5005  -0.8117  -0.01596  -0.01244  -0.02369  -0.0156  0.5266  -0.5431
6.55e+09  -0.7174  -0.6002  -0.01614  -0.02483  -0.05191  0.0314  0.2813  -0.6806
6.551e+09  -0.8311  -0.369  0.0007344  -0.01938  0.01291  0.01285  0.02622  -0.7267
