# Hz S RI R 50
6.25e+09  0.4065  -0.901  0.006561  0.04038  0.0252  -0.01457  0.1609  0.4552
6.251e+09  0.04271  -0.9801  0.01746  0.02452  -0.0408  -0.006319  0.3726  0.3979
6.252e+09  -0.2444  -0.9487  -0.0173  -0.02334  0.01781  0.0165  0.5052  0.2509
6.254e+09  -0.6182  -0.7778  -0.0187  0.007198  -0.01339  0.01731  0.6204  0.03006
6.255e+09  -0.8339  -0.4756  -0.00783  -0.02412  0.02065  0.03546  0.5706  -0.2381
6.256e+09  -0.886  -0.177  0.01747  -0.02862  0.03038  0.009933  0.4616  -0.4331
6.258e+09  -0.9172  0.1952  -0.008017  0.02547  -0.05778  -0.04005  0.3012  -0.592
6.259e+09  -0.7786  0.4723  0.004575  0.02133  -0.01379  -0.02623  0.03003  -0.7044
6.26e+09  -0.5632  0.744  0.0003317  0.01289  -0.01932  0.06434  -0.2354  -0.6602
6.261e+09  -0.3109  0.914  -0.008787  0.009265  -0.02319  -0.02658  -0.4484  -0.5626
6.262e+09  0.03173  0.9715  -0.0153  -0.01896  -0.0491  -0.03283  -0.6016  -0.3576
6.264e+09  0.4053  0.824  0.02527  -0.01297  -0.003716  -0.023  -0.7614  -0.1174
6.265e+09  0.6742  0.6633  -0.002435  -0.02341  0.0169  0.05342  -0.7286  0.1597
6.266e+09  0.862  0.3411  -0.01491  0.001854  -0.0156  -0.02698  -0.5878  0.3726
6.268e+09  0.9411  0.05602  0.01419  -0.006656  -0.0517  -0.05642  -0.4327  0.5623
6.269e+09  0.8708  -0.2926  0.01585  0.0004926  0.009246  0.01918  -0.195  0.7277
6.27e+09  0.6851  -0.6429  -0.03256  -0.01677  0.01073  -0.03081  0.06662  0.7558
6.271e+09  0.4927  -0.8087  0.02082  -0.007216  0.0129  0.06414  0.3494  0.6458
6.272e+09  0.1498  -0.9029  -0.01371  -0.02009  0.01906  -0.03287  0.5087  0.5382
6.274e+09  -0.1736  -0.9276  0.02323  -0.03397  -0.06566  -0.07541  0.6971  0.3015
6.275e+09  -0.5333  -0.788  -0.01069  -0.01502  0.03668  0.005916  0.747  0.0377
6.276e+09  -0.723  -0.5977  0.002173  -0.001979  -0.01429  0.006397  0.7304  -0.2295
6.278e+09  -0.9078  -0.2809  -0.01098  0.02558  0.01063  -0.0326  0.6266  -0.4502
6.279e+09  -0.8987  0.09445  0.004794  -0.000357  -0.005647  0.06307  0.4305  -0.6665
6.28e+09  -0.8454  0.4494  0.003161  0.03293  -0.01468  0.01404  0.1347  -0.756
6.281e+09  -0.6057  0.6059  -0.006663  0.01101  0.05105  -0.02927  -0.1264  -0.7766
6.282e+09  -0.3913  0.8824  -0.02079  -0.02469  -0.02446  0.05573  -0.3913  -0.7171
6.284e+09  -0.0346  0.9381  0.01937  -0.01308  0.004909  0.009008  -0.6026  -0.5364
6.285e+09  0.294  0.9185  -0.003926  -0.01793  -0.01203  -0.01098  -0.7282  -0.2791
6.286e+09  0.5802  0.7395  -0.01015  0.01902  7.372e-05  -0.00289  -0.8092  -0.03872
6.288e+09  0.7819  0.4649  0.004429  0.01302  0.01228  0.003158  -0.7292  0.2569
6.289e+09  0.9142  0.1513  0.0459  0.01164  -0.0327  -0.01822  -0.5914  0.5427
6.29e+09  0.9015  -0.1435  -0.005895  -0.03941  -0.0448  -0.03044  -0.4354  0.7074
6.291e+09  0.8216  -0.5257  -0.01005  -0.01501  0.006413  0.005058  -0.1352  0.8109
6.292e+09  0.555  -0.7322  -0.01973  -0.01069  0.009741  0.04037  0.08907  0.824
6.294e+09  0.2967  -0.8561  0.007375  0.01063  -0.01829  0.007572  0.4043  0.7037
6.295e+09  -0.03791  -0.9219  0.03246  0.00853  0.01311  -0.01143  0.6071  0.4964
6.296e+09  -0.3245  -0.8822  -0.02499  -0.02545  -0.04957  0.01704  0.7597  0.2896
6.298e+09  -0.6381  -0.6245  0.02207  -0.02523  -0.02876  0.01698  0.8442  -0.01814
6.299e+09  -0.7872  -0.3774  -0.02481  0.01004  0.03026  0.008978  0.7625  -0.2773
6.3e+09  -0.9092  -0.05396  0.05117  -0.03181  -0.005761  -0.07596  0.6245  -0.5348
6.301e+09  -0.9275  0.2411  0.006318  0.002713  0.02697  0.02162  0.3906  -0.7283
6.302e+09  -0.7573  0.5379  0.02805  0.02508  0.01926  -0.009832  0.1565  -0.7958
6.304e+09  -0.55  0.8037  0.01284  0.01645  0.01611  -0.05304  -0.1621  -0.7993
6.305e+09  -0.2361  0.8826  0.006464  0.02566  -0.01093  -0.006541  -0.409  -0.7146
6.306e+09  0.1014  0.9175  -0.0008563  0.02615  0.01016  0.01691  -0.6631  -0.5384
6.308e+09  0.4328  0.8232  0.00667  0.02029  0.05416  -0.01701  -0.8239  -0.3021
6.309e+09  0.7138  0.5703  0.01679  0.01111  -0.02422  0.03073  -0.8347  -0.01282
6.31e+09  0.8683  0.343  -0.003269  -0.03208  0.0296  -0.03705  -0.8119  0.2419
6.311e+09  0.9585  0.02902  0.001108  -0.006451  0.001587  0.02298  -0.6533  0.5726
6.312e+09  0.8786  -0.2908  0.03275  0.01246  0.02152  0.00106  -0.4164  0.7425
6.314e+09  0.7404  -0.5362  -0.004065  0.00879  0.004609  -0.03903  -0.1572  0.8715
6.315e+09  0.4381  -0.8394  -0.04294  0.0015  -0.03944  0.01466  0.1486  0.8634
6.316e+09  0.1571  -0.9013  0.01453  0.005569  0.01204  0.0003037  0.4203  0.7877
6.318e+09  -0.2111  -0.9366  0.01974  -0.01226  0.01734  0.02115  0.6553  0.5889
6.319e+09  -0.514  -0.7609  0.003376  -0.01286  0.02474  -0.05194  0.8073  0.2852
6.32e+09  -0.7137  -0.5447  0.008667  -0.004107  0.01337  -0.03071  0.9142  0.01784
6.321e+09  -0.8784  -0.2251  0.01287  -0.00498  0.002916  0.04264  0.8627  -0.2956
6.322e+09  -0.9464  0.07082  -0.003855  -0.002588  0.03497  -0.001529  0.7114  -0.5874
6.324e+09  -0.8372  0.3952  0.02289  0.0002555  0.0464  0.02063  0.4388  -0.8042
6.325e+09  -0.6463  0.6917  -0.007785  0.01504  0.004042  -0.01846  0.1749  -0.8726
6.326e+09  -0.3427  0.8417  -0.002143  0.02738  -0.02361  0.005837  -0.1271  -0.9082
6.328e+09  -0.05475  0.937  0.01895  0.04528  -0.005407  0.006893  -0.465  -0.7967
6.329e+09  0.3411  0.8954  -0.02463  0.0007514  -0.01311  0.03711  -0.6736  -0.6331
6.33e+09  0.6057  0.7476  -0.01602  5.949e-05  0.05728  0.0004204  -0.8029  -0.3296
6.331e+09  0.8781  0.4556  -0.00449  0.02637  -0.06973  0.03633  -0.9089  -0.001115
6.332e+09  0.919  0.1408  -0.015  0.003993  -0.04737  -0.05595  -0.8731  0.2903
6.334e+09  0.9546  -0.2119  -0.02016  0.01654  -0.01629  0.01294  -0.7384  0.562
6.335e+09  0.8458  -0.4767  0.01804  -0.001428  -0.0206  -0.05297  -0.486  0.7854
6.336e+09  0.5902  -0.7419  -0.006737  0.001358  -0.01136  0.008038  -0.1744  0.914
6.338e+09  0.3046  -0.8878  -0.03572  0.0136  0.02199  -0.05532  0.1545  0.9026
6.339e+09  -0.07289  -0.9811  -0.007767  0.01344  -0.02419  -0.04553  0.4143  0.8132
6.34e+09  -0.3816  -0.8829  -0.02456  -0.00789  0.01769  0.04278  0.6631  0.6057
6.341e+09  -0.6745  -0.6768  0.0205  0.01767  -0.01087  -0.008025  0.8592  0.3635
6.342e+09  -0.8673  -0.4047  0.01009  -0.006024  -0.01807  0.0228  0.9236  0.05526
6.344e+09  -0.9528  -0.04171  0.02224  -0.0485  -0.02201  0.04642  0.9085  -0.2755
6.345e+09  -0.9295  0.2411  0.01375  -0.01387  0.01219  0.01293  0.734  -0.5452
6.346e+09  -0.7943  0.5638  0.01317  -0.004693  0.02059  0.006663  0.5087  -0.7954
6.348e+09  -0.4763  0.8049  0.008466  -0.006049  0.02516  -0.009723  0.1974  -0.9169
6.349e+09  -0.1815  0.8978  0.01164  -0.01818  -0.01985  0.04482  -0.1269  -0.9478
6.35e+09  0.1322  0.9428  -0.006198  0.02351  -0.003147  -0.01893  -0.4294  -0.8192
6.351e+09  0.4445  0.8585  0.01992  0.02698  0.02208  0.009208  -0.688  -0.6223
6.352e+09  0.7686  0.609  -0.003651  -0.002757  -0.0006481  -0.009213  -0.8484  -0.4267
6.354e+09  0.8657  0.2737  0.01988  -0.00825  -0.01375  0.00535  -0.9455  -0.04268
6.355e+09  1.005  -0.03063  -0.001402  0.005501  0.008139  -0.01182  -0.9025  0.2536
6.356e+09  0.9191  -0.4015  0.0198  0.02506  -0.02842  0.01503  -0.7758  0.5316
6.358e+09  0.7254  -0.7056  -0.0001594  -0.005404  -0.02829  -0.02891  -0.5297  0.7429
6.359e+09  0.4097  -0.9001  -0.0168  0.009765  -0.02297  0.007656  -0.2175  0.9073
6.36e+09  0.06956  -0.9921  -0.001248  -0.01095  0.02349  -0.02299  0.07459  0.9494
6.361e+09  -0.2711  -0.9605  0.006379  -0.002364  0.001924  0.03168  0.428  0.8359
6.362e+09  -0.5978  -0.7907  -0.02563  -0.00339  0.01324  -0.03945  0.6872  0.6414
6.364e+09  -0.8226  -0.5342  -0.04283  -0.03941  0.03631  0.06241  0.8746  0.3374
6.365e+09  -0.9645  -0.1833  -0.009235  -0.00422  -0.03264  -0.01522  0.9618  0.1075
6.366e+09  -0.9824  0.1758  -0.02927  0.02132  -0.009033  0.03736  0.9497  -0.2242
6.368e+09  -0.8699  0.4673  0.02935  -0.01927  -0.003311  -0.005997  0.8065  -0.5612
6.369e+09  -0.6319  0.7823  0.007138  0.001435  0.02996  0.01023  0.4825  -0.8143
6.37e+09  -0.3437  0.9757  -0.01116  -0.008586  0.0176  -0.02293  0.2695  -0.93
6.371e+09  0.04662  1  -0.02847  0.0101  -0.02926  0.01508  -0.04684  -0.9428
6.372e+09  0.4188  0.9182  0.01082  0.05752  0.009011  0.05585  -0.3713  -0.8568
6.374e+09  0.6717  0.7476  -0.01555  0.03261  0.009537  -0.02928  -0.68  -0.6915
6.375e+09  0.9226  0.4678  -0.01728  -0.02543  0.0353  -0.01755  -0.8601  -0.4022
6.376e+09  1.01  0.08272  -0.03616  -0.03337  0.04341  -0.01562  -0.9329  -0.1054
6.378e+09  0.9649  -0.306  -0.0005675  0.005248  0.02105  0.005814  -0.8965  0.2038
6.379e+09  0.8086  -0.6749  0.02752  0.01466  -0.002525  -0.003697  -0.8142  0.5042
6.38e+09  0.5117  -0.8935  0.03997  -0.0001484  0.004552  -0.009327  -0.5831  0.7411
6.381e+09  0.1443  -1.023  -0.006791  0.001596  0.01067  0.02996  -0.2387  0.8917
6.382e+09  -0.2146  -0.9906  -0.007335  0.01206  -0.01114  0.02313  0.02873  0.952
6.384e+09  -0.5686  -0.8321  -0.01579  0.01821  0.005943  0.01496  0.4088  0.81
6.385e+09  -0.8532  -0.5885  -0.004883  0.004067  0.004598  0.01156  0.6675  0.6999
6.386e+09  -0.9561  -0.2345  0.01179  0.009434  0.02056  0.04221  0.8018  0.4207
6.388e+09  -1.042  0.1471  -0.01434  -0.005405  -0.009741  -0.01743  0.9132  0.1183
6.389e+09  -0.9212  0.4661  -0.007828  -0.02705  -0.00508  -0.0337  0.8997  -0.1774
6.39e+09  -0.6968  0.8008  -0.002234  0.0007077  0.01336  0.02833  0.7852  -0.5347
6.391e+09  -0.4172  0.9857  0.01799  0.01062  -0.01504  -0.05339  0.5601  -0.7139
6.392e+09  0.001939  1.087  0.02118  -0.008572  -0.03203  -0.002801  0.263  -0.8992
6.394e+09  0.3278  1.065  -0.002786  -0.03935  -0.006512  -0.002252  -0.08557  -0.9297
6.395e+09  0.7062  0.8719  0.01934  -0.0173  0.02796  0.003906  -0.367  -0.8924
6.396e+09  0.9213  0.478  0.009892  0.01833  -0.01782  0.02361  -0.6111  -0.7064
6.398e+09  1.002  0.1138  0.01176  -0.01585  0.04112  0.0377  -0.8366  -0.3803
6.399e+09  1.007  -0.2779  -0.02725  0.01053  0.01882  -0.01582  -0.9446  -0.1108
6.4e+09  0.8207  -0.5847  0.03307  0.004032  0.02328  -0.03915  -0.8783  0.2264
6.401e+09  0.6205  -0.8755  0.001857  0.02438  0.0037  0.04506  -0.8023  0.4415
6.402e+09  0.2454  -1.115  0.02753  0.04211  0.02163  -0.01444  -0.5883  0.7002
6.404e+09  -0.1593  -1.105  -0.01321  -0.03602  0.03287  -0.03674  -0.3025  0.8459
6.405e+09  -0.5229  -0.8958  0.005081  -0.001124  -0.002986  -0.02667  -0.02988  0.9184
6.406e+09  -0.8416  -0.6969  -0.01144  -0.02607  0.0592  0.02745  0.2859  0.8971
6.408e+09  -1.027  -0.3402  0.01747  -0.02486  -0.007172  -0.02217  0.5823  0.6651
6.409e+09  -1.069  -0.005403  -0.02587  -0.01707  0.01916  -0.02423  0.7719  0.4614
6.41e+09  -0.9258  0.426  -0.01763  0.009259  0.02288  0.05657  0.8654  0.185
6.411e+09  -0.7282  0.7179  0.02545  -0.002732  0.006711  0.06457  0.9326  -0.1333
6.412e+09  -0.42  0.9698  -0.008032  0.01176  -0.0313  0.02347  0.8343  -0.4219
6.414e+09  -0.1317  1.109  0.002363  0.02287  0.01315  -0.008006  0.5813  -0.6463
6.415e+09  0.3377  0.9963  0.003692  -0.002292  -0.02927  -0.01212  0.3326  -0.7881
6.416e+09  0.6923  0.8531  0.02418  -0.002142  0.04577  -0.01129  0.02816  -0.9364
6.418e+09  0.9209  0.493  0.05843  0.006575  0.003865  0.04094  -0.2616  -0.8154
6.419e+09  1.057  0.1638  0.007448  -0.03643  -0.01672  -0.03901  -0.5711  -0.7236
6.42e+09  1.05  -0.1701  -0.008502  -0.03964  0.03102  0.005695  -0.712  -0.4972
6.421e+09  0.9146  -0.5524  0.004833  -0.02628  -0.01432  -0.0009861  -0.8649  -0.2077
6.422e+09  0.6333  -0.9025  -0.01167  -0.01597  -0.05599  0.01558  -0.8801  0.1137
6.424e+09  0.287  -0.9845  0.02071  0.01674  0.00981  0.01225  -0.7464  0.3476
6.425e+09  -0.06893  -0.986  -0.0293  -0.0006176  -0.01391  -0.0369  -0.5902  0.6587
6.426e+09  -0.494  -0.9301  0.005493  0.0001022  -0.001694  0.014  -0.3405  0.809
6.428e+09  -0.7622  -0.6877  -0.01878  -0.005733  -0.02386  0.01083  -0.1245  0.8873
6.429e+09  -0.9938  -0.3913  -0.01159  -0.0005567  0.000268  0.04928  0.2409  0.8715
6.43e+09  -1.119  -0.006807  -0.02418  -0.04041  -0.005128  -0.02224  0.5532  0.7468
6.431e+09  -0.9853  0.3613  -0.08854  0.00403  0.00587  0.04532  0.6983  0.4774
6.432e+09  -0.7825  0.6679  -0.01963  0.01214  0.03005  0.02262  0.7947  0.2181
6.434e+09  -0.4481  0.8926  -0.004777  0.01624  -0.03775  0.01705  0.8789  -0.09898
6.435e+09  -0.1265  1.009  -0.03387  -0.01677  -0.002098  0.03684  0.7879  -0.3665
6.436e+09  0.2413  0.959  0.02436  0.01181  -0.006061  -0.0106  0.5873  -0.5947
6.438e+09  0.6234  0.8193  -0.01448  -0.07526  0.009371  -0.01072  0.3158  -0.7742
6.439e+09  0.8611  0.5888  -0.0301  0.007749  0.01761  -0.01252  0.05999  -0.8381
6.44e+09  0.9406  0.2261  -0.003783  -0.01678  0.02149  0.03703  -0.249  -0.8212
6.441e+09  1.02  -0.1348  -0.006854  -0.004214  -0.000733  -0.03214  -0.5356  -0.6901
6.442e+09  0.944  -0.4552  -0.01284  0.04571  0.00346  -0.01638  -0.7319  -0.4941
6.444e+09  0.6658  -0.7685  -0.009824  -0.009362  0.06918  -0.005092  -0.8131  -0.1968
6.445e+09  0.3451  -0.9034  -0.001323  -0.03419  0.008331  -0.03772  -0.8608  0.09616
6.446e+09  0.01649  -0.9821  0.02386  0.02048  -0.002966  -0.02432  -0.7306  0.4153
6.448e+09  -0.3479  -0.9146  0.01507  0.01276  -0.01665  0.03637  -0.6255  0.5769
6.449e+09  -0.6411  -0.7368  0.01201  -0.05792  -0.001611  -0.02437  -0.3483  0.7607
6.45e+09  -0.9363  -0.459  -0.01787  -0.01691  -0.0156  -0.001532  -0.08181  0.8126
6.451e+09  -0.9444  -0.142  0.04161  -0.0002994  -0.02171  -0.006535  0.1999  0.7951
6.452e+09  -0.9668  0.2636  0.02896  0.007878  -0.0232  0.01492  0.4884  0.6379
6.454e+09  -0.815  0.5264  0.01567  0.0008369  0.02629  0.003426  0.6932  0.4618
6.455e+09  -0.6195  0.8226  0.01753  -0.009223  -0.01003  0.03635  0.8005  0.1788
6.456e+09  -0.2363  0.8981  -0.01845  0.005039  -0.01235  -0.001918  0.8176  -0.109
6.458e+09  0.127  0.9708  -0.02184  -0.005581  0.01969  0.007678  0.7439  -0.3171
6.459e+09  0.4246  0.7675  0.02912  0.0489  0.04557  -0.008175  0.5569  -0.589
6.46e+09  0.7026  0.6747  -0.01114  -0.04955  0.01804  -0.007516  0.3482  -0.7114
6.461e+09  0.8456  0.3904  0.005716  0.003556  0.003971  0.04496  0.08723  -0.8179
6.462e+09  0.9012  0.006069  -0.03805  0.01075  -0.01633  -0.0492  -0.2101  -0.7712
6.464e+09  0.848  -0.3473  -0.02833  -0.01902  0.006166  -0.03007  -0.4262  -0.6823
6.465e+09  0.7513  -0.5702  0.009957  -0.01108  0.02034  -0.003951  -0.6542  -0.4579
6.466e+09  0.5301  -0.8136  0.001049  0.00773  -0.001157  -0.006724  -0.7494  -0.2088
6.468e+09  0.189  -0.878  -0.04263  0.04418  -0.03168  0.008448  -0.78  0.09173
6.469e+09  -0.2117  -0.9254  -0.002008  0.0185  0.005961  0.04146  -0.7313  0.3347
6.47e+09  -0.4442  -0.7701  -0.0166  0.0142  0.02763  0.04043  -0.5612  0.5554
6.471e+09  -0.729  -0.5906  0.00628  -0.02531  0.03668  -0.003638  -0.3013  0.7598
6.472e+09  -0.8958  -0.2723  0.0261  0.05843  0.01072  -0.03423  -0.0746  0.7925
6.474e+09  -0.97  0.06056  0.009767  -0.01458  0.01521  0.0188  0.2163  0.7823
6.475e+09  -0.8522  0.3546  -0.009824  -0.02442  0.03382  0.03637  0.4461  0.6528
6.476e+09  -0.7078  0.6735  0.02388  0.02981  0.005252  -0.004377  0.6552  0.4635
6.478e+09  -0.4557  0.7957  -0.04474  0.002766  0.04007  -0.03083  0.764  0.2323
6.479e+09  -0.1122  0.9256  -0.02198  0.01715  -0.01468  -0.003538  0.7951  -0.1038
6.48e+09  0.1859  0.9133  0.02992  0.004585  -0.05761  -0.005283  0.6988  -0.3244
6.481e+09  0.5225  0.7483  -0.01058  0.02139  -0.04651  -0.01245  0.5111  -0.5584
6.482e+09  0.7125  0.5454  0.01547  0.01687  -0.02845  0.02791  0.3231  -0.6862
6.484e+09  0.8535  0.2306  -0.02603  0.0006105  -0.02057  -0.01283  0.04109  -0.7427
6.485e+09  0.9227  -0.06035  0.006217  -0.01693  0.02882  0.04202  -0.1931  -0.7453
6.486e+09  0.8595  -0.3314  0.05168  0.02013  0.02669  0.0238  -0.5081  -0.6489
6.488e+09  -0.007544  -0.9914  -0.03463  -0.03806  0.3268  0.6642  -0.651  -0.4331
6.489e+09  0.3962  -0.7731  0.003987  0.01221  -0.08559  0.008567  -0.7406  -0.2503
6.49e+09  0.1005  -0.9169  -0.009683  -0.02989  0.00611  -0.01062  -0.7658  0.08468
6.491e+09  -0.2693  -0.9069  -0.008967  0.03885  -0.0199  -0.01073  -0.6915  0.3875
6.492e+09  -0.543  -0.7479  -0.01282  -0.01079  -0.02925  0.006676  -0.5263  0.5521
6.494e+09  -0.8269  -0.4677  -0.01158  -0.0329  -0.0232  0.0915  -0.2909  0.7367
6.495e+09  -0.8248  -0.2042  0.004239  0.008917  -0.01842  0.01094  -0.04708  0.7582
6.496e+09  -0.9256  0.09821  -0.008096  0.01692  0.005332  0.01321  0.2211  0.7371
6.498e+09  -0.7838  0.4602  -0.04578  0.002542  -0.02695  0.05514  0.4933  0.5891
6.499e+09  -0.6249  0.7038  0.04467  0.01486  -0.01101  -0.03599  0.6874  0.4075
6.5e+09  -0.3062  1.268  0.02909  0.01103  0.00702  0.01706  0.7844  0.1617
6.501e+09  -0.06428  0.9138  -0.0391  0.002879  0.01551  0.02149  0.7641  -0.08953
6.502e+09  0.2781  0.8695  -0.04969  0.04187  -0.004178  0.02824  0.6817  -0.3792
6.504e+09  0.6016  0.7514  0.004895  -0.02996  -0.0183  0.005062  0.5486  -0.5668
6.505e+09  0.7765  0.4611  -0.02649  0.009732  0.03851  -0.007897  0.3065  -0.6865
6.506e+09  0.9131  0.1614  -0.006829  0.01022  0.002907  0.0052  0.0202  -0.7572
6.508e+09  0.9221  -0.1105  -0.02921  -0.03796  -0.04037  0.03805  -0.2664  -0.7081
6.509e+09  0.8011  -0.4222  -0.03214  -0.017  -0.01061  -0.01829  -0.4732  -0.5777
6.51e+09  0.604  -0.6785  -0.03271  -0.02091  -0.04484  0.06262  -0.6474  -0.3956
6.511e+09  0.359  -0.844  -0.003067  -0.02723  0.03618  -0.04425  -0.7472  -0.1579
6.512e+09  0.02495  -0.8866  -0.01834  -0.01522  -0.01866  0.05426  -0.7406  0.1703
6.514e+09  -0.375  -0.8687  0.006851  -0.009962  0.01004  0.01875  -0.6712  0.3969
6.515e+09  -0.5893  -0.7024  -0.001802  0.02488  0.02779  -0.01955  -0.4517  0.5805
6.516e+09  -0.7916  -0.4835  0.009677  -0.005081  -0.01843  0.05821  -0.2328  0.6957
6.518e+09  -0.9732  -0.2065  -0.007763  0.001087  -0.01869  0.02196  -0.0003783  0.7281
6.519e+09  -0.9128  0.2028  -0.004818  6.087e-05  0.01127  0.01798  0.2691  0.6968
6.52e+09  -0.851  0.4471  0.01757  0.0387  -0.01184  0.05856  0.512  0.5456
6.521e+09  -0.6263  0.7298  -0.02812  0.0006776  0.03293  -0.01176  0.6373  0.338
6.522e+09  -0.3258  0.9134  0.01372  -0.04157  0.002535  -0.01134  0.7334  0.09663
6.524e+09  0.01449  0.9306  -0.002535  0.005182  0.01796  0.004207  0.6815  -0.1657
6.525e+09  0.3261  0.8843  -0.0143  -0.01517  -0.001607  -0.03688  0.612  -0.3766
6.526e+09  0.6547  0.6641  -0.02129  -0.03585  0.01982  0.02396  0.439  -0.5647
6.528e+09  0.8285  0.4788  -0.01961  -0.009274  0.006675  -0.005457  0.2097  -0.683
6.529e+09  0.9721  0.1336  -0.01567  0.008526  0.0311  -0.03831  -0.02725  -0.6883
6.53e+09  0.9774  -0.2284  -0.003672  0.01414  -0.02896  0.03966  -0.2685  -0.5834
6.531e+09  0.851  -0.5163  0.01786  -0.004814  -0.03461  -0.0279  -0.4694  -0.4794
6.532e+09  0.5956  -0.762  0.005789  -0.007632  0.0417  0.05346  -0.6271  -0.282
6.534e+09  0.2605  -0.9634  0.02697  0.003693  0.01647  -0.04821  -0.6489  -0.06824
6.535e+09  -0.07093  -1.011  -0.01354  0.005052  -0.00232  0.02148  -0.6393  0.1127
6.536e+09  -0.4249  -0.9404  0.0118  -0.04773  -0.02888  0.01756  -0.5545  0.316
6.538e+09  -0.6855  -0.7281  -0.004927  0.009861  -0.003365  0.004175  -0.4384  0.4773
6.539e+09  -0.9741  -0.4216  -0.02954  -0.003695  0.008977  0.03094  -0.2621  0.6026
6.54e+09  -0.9759  -0.08044  -0.0141  0.01966  -0.01033  -0.02634  -0.06617  0.6396
6.541e+09  -0.9391  0.3379  0.009441  -0.007819  -0.007795  -0.000325  0.2153  0.6616
6.542e+09  -0.8166  0.6401  -0.01339  -0.02315  0.005334  0.03096  0.4067  0.5475
6.544e+09  -0.5406  0.86  -0.0001241  -0.02048  -0.009263  -0.01544  0.598  0.4153
6.545e+09  -0.2251  1.013  0.01376  -0.01838  -0.00097  0.03133  0.715  0.1691
6.546e+09  0.1263  1.081  0.006029  0.01037  -0.06079  -0.007741  0.7178  -0.08794
6.548e+09  0.5181  0.899  -0.0141  0.01348  -0.005657  -0.01158  0.6594  -0.321
6.549e+09  0.7854  0.6938  0.02202  -0.02347  0.02086  -0.0009279  0.4808  -0.5085
6.55e+09  0.945  0.328  -0.0139  -0.04259  -0.07441  -0.004508  0.3028  -0.6743
