# Hz S RI R 50
6.25e+09  0.6473  0.751  -0.01384  -0.002694  0.01993  0.03906  0.205  0.5069
6.251e+09  0.8781  0.5185  -0.0002115  -0.01193  0.05628  0.03205  0.3772  0.4301
6.252e+09  0.9582  0.1896  -0.04086  0.01658  0.01725  0.03471  0.5214  0.2546
6.254e+09  0.9727  -0.1193  0.01679  0.001935  -0.02277  -0.01659  0.613  0.01257
6.255e+09  0.8571  -0.5045  0.008359  0.0111  0.03009  0.007109  0.5754  -0.2255
6.256e+09  0.6616  -0.7262  -0.03554  -0.008121  0.009469  -0.0002472  0.5048  -0.4592
6.258e+09  0.3348  -0.929  0.009023  0.01706  0.03205  -0.01626  0.278  -0.5842
6.259e+09  -0.01631  -0.9779  0.004292  -0.01505  -0.01654  0.01343  0.00517  -0.6729
6.26e+09  -0.3828  -0.8342  0.01364  -0.01249  -0.03889  -0.0006751  -0.203  -0.6852
6.261e+09  -0.6256  -0.6914  -0.005429  -0.01015  -0.002689  0.0003201  -0.4284  -0.5294
6.262e+09  -0.8901  -0.482  -0.002822  0.02602  -0.04036  0.00359  -0.596  -0.3031
6.264e+09  -0.9424  -0.1519  0.007929  -0.02156  0.04187  -0.01998  -0.7122  -0.1191
6.265e+09  -0.9204  0.2127  -0.005642  -0.01396  -0.03774  0.01836  -0.7009  0.1267
6.266e+09  -0.8105  0.567  0.02675  -0.02517  -0.04532  -0.03702  -0.5939  0.4264
6.268e+09  -0.5373  0.7805  -0.02175  -0.01444  0.004041  -0.05348  -0.4166  0.5647
6.269e+09  -0.278  0.9301  -0.007721  0.00467  0.05038  -0.006885  -0.1483  0.7022
6.27e+09  0.1108  0.9603  0.01462  -0.01871  -0.0188  0.003483  0.07104  0.753
6.271e+09  0.4258  0.8343  0.0312  0.002963  0.01881  0.01693  0.3247  0.6673
6.272e+09  0.7371  0.653  0.03358  0.03094  -0.02984  -0.0149  0.5438  0.5134
6.274e+09  0.8538  0.3754  0.008968  0.03  -0.0274  -0.0483  0.6589  0.2892
6.275e+09  0.9907  0.05054  0.02918  0.01283  0.01645  -0.0248  0.7927  0.04908
6.276e+09  0.9058  -0.2796  0.03297  -0.02248  -0.001737  -0.03628  0.7485  -0.2269
6.278e+09  0.7551  -0.5396  0.006076  0.003829  0.03656  -0.006388  0.6082  -0.4589
6.279e+09  0.4707  -0.8336  0.001855  0.01683  0.01954  0.0002235  0.438  -0.6345
6.28e+09  0.1744  -0.9411  0.01618  0.01593  -0.0136  -0.02391  0.1707  -0.767
6.281e+09  -0.133  -0.9646  0.02198  0.01507  0.02196  0.001792  -0.1153  -0.7752
6.282e+09  -0.4634  -0.8559  -0.01042  -0.009198  -0.01691  -0.01194  -0.3983  -0.6925
6.284e+09  -0.735  -0.5988  0.00755  0.03153  0.03783  0.01173  -0.5726  -0.5112
6.285e+09  -0.907  -0.285  -0.0359  -0.02224  -0.06667  -0.008563  -0.7375  -0.3149
6.286e+09  -0.9475  0.05099  0.001716  0.01054  -0.08677  -0.01085  -0.8056  -0.0248
6.288e+09  -0.8642  0.3805  -0.02535  0.006415  0.04102  -0.01094  -0.7679  0.2538
6.289e+09  -0.6913  0.6579  -0.03872  -0.008357  -0.01062  0.006263  -0.6351  0.4949
6.29e+09  -0.4423  0.8491  0.002769  -0.03635  -0.01028  0.0569  -0.3972  0.701
6.291e+09  -0.1305  0.9851  -0.02467  0.04222  0.00196  0.00878  -0.1395  0.8035
6.292e+09  0.2101  0.9489  0.01588  0.004481  0.02885  0.009259  0.1494  0.8364
6.294e+09  0.5631  0.8377  -0.0233  -0.01673  -0.02232  -0.003231  0.4089  0.6981
6.295e+09  0.784  0.573  -0.01972  -0.02069  0.0511  0.07078  0.6164  0.5348
6.296e+09  0.9966  0.2282  -0.007232  -0.02868  0.03367  -0.02509  0.769  0.3036
6.298e+09  0.9425  -0.1407  0.0008839  -0.01423  0.007422  0.0134  0.8199  0.02601
6.299e+09  0.8984  -0.4546  -0.01938  0.01722  -0.02861  -0.02069  0.7728  -0.286
6.3e+09  0.6279  -0.7084  -0.01402  -0.0006505  0.001408  -0.02987  0.6517  -0.5341
6.301e+09  0.3904  -0.8704  -0.01486  -0.004658  -0.00404  -0.02889  0.4081  -0.7178
6.302e+09  0.05222  -0.9533  -0.01815  -0.01203  0.02882  0.004493  0.1645  -0.821
6.304e+09  -0.3139  -0.9644  -0.007261  0.03097  -0.02041  0.01714  -0.1536  -0.841
6.305e+09  -0.6008  -0.8076  -0.01314  0.008273  -0.03264  -0.0119  -0.4221  -0.762
6.306e+09  -0.8259  -0.5625  -0.008218  -0.01819  0.0427  0.009901  -0.6554  -0.5718
6.308e+09  -0.9875  -0.2435  -0.02818  0.0156  -0.01505  -0.04585  -0.7928  -0.328
6.309e+09  -0.9431  0.1382  -0.01104  -0.02558  0.01923  0.03734  -0.8464  0.002765
6.31e+09  -0.828  0.5172  -0.02058  0.0485  -0.01469  0.04484  -0.8305  0.2922
6.311e+09  -0.6274  0.7839  -0.04912  0.01616  0.009123  -0.01487  -0.6549  0.5685
6.312e+09  -0.3168  0.9154  0.009315  0.0002367  0.07154  -0.03079  -0.4584  0.7561
6.314e+09  0.01197  1.07  0.01824  -0.04644  0.03101  -0.003526  -0.1215  0.8634
6.315e+09  0.4145  0.9512  0.008269  0.01486  0.0252  -0.07534  0.1449  0.8411
6.316e+09  0.7155  0.7552  0.01382  0.03321  0.0002669  -0.009262  0.4248  0.7797
6.318e+09  0.9235  0.477  0.02583  0.007155  -0.05597  -0.01138  0.6383  0.5783
6.319e+09  1.065  0.1544  -0.004178  -0.001716  0.00541  0.03053  0.8114  0.2815
6.32e+09  0.9847  -0.2136  0.01884  -0.001342  0.04148  -0.02277  0.9013  6.118e-05
6.321e+09  0.8275  -0.5251  0.01073  -0.01828  0.03299  -0.0195  0.8277  -0.2908
6.322e+09  0.5872  -0.8437  0.01318  -0.006995  -0.01159  -0.01694  0.6856  -0.5596
6.324e+09  0.2685  -0.9979  -0.02578  -0.002061  0.0103  -0.01628  0.445  -0.7868
6.325e+09  -0.09508  -1.034  0.01742  0.01948  0.004367  0.0366  0.1857  -0.9211
6.326e+09  -0.3946  -0.8755  0.003101  0.0119  0.007538  -0.01184  -0.1279  -0.8939
6.328e+09  -0.7447  -0.7456  0.04395  0.003115  -0.006329  -0.008002  -0.4331  -0.7945
6.329e+09  -0.9705  -0.4257  0.01559  -0.001783  0.03291  -0.004632  -0.7013  -0.6153
6.33e+09  -1.019  -0.05403  -0.01421  0.02677  -0.03148  -0.005543  -0.8013  -0.3524
6.331e+09  -0.9947  0.2637  0.03771  0.01198  0.01193  0.007102  -0.9341  0.01813
6.332e+09  -0.8393  0.6688  0.01112  -0.01743  0.008766  0.01028  -0.851  0.2786
6.334e+09  -0.5938  0.9044  0.0228  -0.01462  -0.006633  0.01151  -0.6965  0.5851
6.335e+09  -0.1972  1.079  0.01615  -0.01482  -0.01964  -0.01019  -0.4899  0.7911
6.336e+09  0.1601  1.027  -0.001501  0.02644  -0.03418  0.02783  -0.1758  0.8853
6.338e+09  0.5279  0.9014  0.007556  0.002302  0.03777  -0.04016  0.08895  0.9507
6.339e+09  0.7909  0.7153  -0.0272  0.03435  -0.01128  -0.04172  0.452  0.8094
6.34e+09  1.049  0.3672  0.0362  0.006072  -0.04018  -0.01102  0.6995  0.5902
6.341e+09  1.081  0.02312  0.01189  -0.007558  0.007572  -0.02585  0.8569  0.3259
6.342e+09  1.018  -0.3957  0.03838  0.01778  0.03519  -0.005752  0.9398  0.0734
6.344e+09  0.8616  -0.7104  -0.01186  0.01188  -0.04787  -0.02088  0.907  -0.2446
6.345e+09  0.5517  -0.9804  0.009795  -0.03584  0.01862  -0.02541  0.7763  -0.5961
6.346e+09  0.1822  -1.1  0.008005  -0.02891  -0.02135  0.02341  0.5129  -0.7519
6.348e+09  -0.2474  -1.1  -0.01076  -0.001323  -0.02447  0.01135  0.1885  -0.9337
6.349e+09  -0.6255  -0.9934  0.01365  -0.003685  -0.04247  0.00922  -0.07896  -0.9631
6.35e+09  -0.9039  -0.691  0.01707  -0.01484  -0.05445  0.03628  -0.4182  -0.802
6.351e+09  -1.101  -0.3214  0.03163  0.002172  -0.03053  -0.0207  -0.7166  -0.6401
6.352e+09  -1.128  0.07017  -0.01382  -0.01235  -0.01454  -0.02546  -0.8476  -0.387
6.354e+09  -1.076  0.4266  -0.0007796  -0.003106  -0.008504  -0.01367  -0.9867  -0.03515
6.355e+09  -0.8701  0.8343  -0.00807  -0.01794  0.04365  0.01455  -0.9187  0.2514
6.356e+09  -0.4741  1.038  -0.0115  0.01592  0.01759  0.01364  -0.7371  0.5458
6.358e+09  -0.07113  1.148  -0.006678  0.0005998  -0.01184  0.02565  -0.5284  0.7796
6.359e+09  0.2849  1.102  0.005842  -0.0405  0.01737  0.003141  -0.2514  0.9254
6.36e+09  0.6795  0.9743  -0.04707  -0.04686  -0.05245  -0.0432  0.1384  0.9375
6.361e+09  0.9883  0.6397  -0.02429  -0.001465  -0.0162  -0.01192  0.3924  0.8609
6.362e+09  1.196  0.2724  -0.01422  0.01255  -0.03823  -0.03971  0.6653  0.6875
6.364e+09  1.218  -0.1193  0.02265  0.02735  -0.02513  0.01729  0.8739  0.3695
6.365e+09  1.106  -0.5833  0.02876  0.02289  0.02518  0.0355  0.9219  0.1095
6.366e+09  0.8577  -0.8432  0.002987  -0.01824  0.03547  -0.008663  0.9298  -0.26
6.368e+09  0.4405  -1.144  0.01688  -0.02127  0.01925  -0.00412  0.7745  -0.5802
6.369e+09  0.05175  -1.208  0.004516  0.02858  -0.07086  -0.01705  0.5806  -0.7705
6.37e+09  -0.3753  -1.136  0.05403  0.004251  -0.02582  0.02289  0.2514  -0.9449
6.371e+09  -0.7426  -0.9948  -0.001128  0.001774  -0.004714  -0.0521  -0.07142  -0.9296
6.372e+09  -1.078  -0.6781  -0.02109  -0.02342  -0.007383  -0.005979  -0.4245  -0.8797
6.374e+09  -1.203  -0.2309  0.03248  0.004985  -0.008247  0.01458  -0.7031  -0.6665
6.375e+09  -1.27  0.215  -0.0293  0.03907  0.009703  -0.01459  -0.7913  -0.4109
6.376e+09  -1.14  0.6187  -0.03454  -0.01698  0.02617  0.0006418  -0.9403  -0.09198
6.378e+09  -0.8376  1.001  0.01153  0.011  -0.0343  0.03964  -0.9306  0.2833
6.379e+09  -0.4505  1.153  0.03325  -0.02106  -0.008586  0.01082  -0.7534  0.5141
6.38e+09  0.02998  1.36  0.01114  0.01234  0.006132  -0.02847  -0.5396  0.7707
6.381e+09  0.4774  1.259  0.0001235  0.009638  -0.002155  -0.02239  -0.2893  0.941
6.382e+09  0.8677  1.018  -0.003714  0.003339  0.006446  -0.01436  0.0752  0.9248
6.384e+09  1.161  0.622  -0.002957  0.002195  0.01452  0.03374  0.3542  0.8445
6.385e+09  1.35  0.2251  0.02149  0.01936  0.01327  0.01999  0.664  0.6986
6.386e+09  1.352  -0.3165  0.008571  -0.001255  0.03267  0.02973  0.8343  0.4277
6.388e+09  1.176  -0.7246  0.004577  -0.00931  -0.006159  -0.04742  0.9263  0.1482
6.389e+09  0.8266  -1.129  -0.02776  0.00615  -0.01121  0.0192  0.9616  -0.1785
6.39e+09  0.3851  -1.419  0.01555  0.02716  0.0764  -0.009006  0.8119  -0.5255
6.391e+09  -0.1327  -1.448  -0.03157  0.05237  -0.004021  0.003977  0.5561  -0.7474
6.392e+09  -0.6554  -1.334  -0.002836  -0.01496  0.008267  0.02528  0.3085  -0.8633
6.394e+09  -1.019  -1.067  -0.02216  0.05162  0.0101  0.00857  0.01447  -0.9426
6.395e+09  -1.305  -0.6397  -0.03181  -0.03008  -0.03366  -0.008452  -0.3208  -0.8131
6.396e+09  -1.541  -0.122  0.0268  0.03281  -0.07252  -0.02583  -0.6015  -0.7208
6.398e+09  -1.445  0.4119  0.004496  -0.01711  -0.01941  0.01286  -0.7953  -0.4439
6.399e+09  -1.257  0.8532  0.03063  -0.001582  -0.02188  0.003416  -0.8787  -0.1218
6.4e+09  -0.8477  1.34  0.06531  0.04266  -0.02904  0.05558  -0.8765  0.1943
6.401e+09  -0.3714  1.561  0.00637  0.01746  -0.03135  -0.01821  -0.804  0.5231
6.402e+09  0.2537  1.534  0.002794  -0.01742  -0.006954  0.05182  -0.5513  0.7053
6.404e+09  0.792  1.443  0.01073  -0.007911  -0.01932  -0.005963  -0.3272  0.8652
6.405e+09  1.217  1.084  -0.002458  0.007499  -0.05077  0.02982  0.03955  0.8976
6.406e+09  1.574  0.6089  0.01348  0.01916  -0.05353  -0.003814  0.2823  0.8609
6.408e+09  1.706  0.04208  0.001909  0.01076  -0.02577  -0.001588  0.5949  0.6963
6.409e+09  1.649  -0.51  0.03546  -0.002153  -0.01047  -0.004745  0.8158  0.4217
6.41e+09  1.307  -1.082  0.02673  0.02059  -0.05017  -0.07014  0.9177  0.1402
6.411e+09  0.8824  -1.546  0.0097  0.005144  0.007552  0.002379  0.907  -0.1505
6.412e+09  0.3052  -1.751  -0.02932  0.03022  0.02097  -0.01654  0.7906  -0.4473
6.414e+09  -0.3229  -1.791  0.01471  -0.001618  -0.0443  0.009508  0.6141  -0.6865
6.415e+09  -0.9402  -1.568  -0.01914  -0.01626  -0.006655  0.04275  0.3578  -0.8369
6.416e+09  -1.549  -1.074  0.01143  -0.01165  -0.03969  -0.06421  0.05682  -0.919
6.418e+09  -1.891  -0.5109  0.00244  0.0263  -0.01849  0.03855  -0.2782  -0.8422
6.419e+09  -1.968  0.2057  0.03284  -0.01517  0.01934  0.01943  -0.5655  -0.7271
6.42e+09  -1.753  0.8781  -0.01133  -0.003755  0.01305  0.04812  -0.7453  -0.4399
6.421e+09  -1.396  1.444  -0.0157  -0.009779  -0.03667  0.03708  -0.8308  -0.1686
6.422e+09  -0.7872  1.845  -0.02506  -0.006187  -0.03116  0.03438  -0.8771  0.1194
6.424e+09  -0.05443  2.117  0.003283  0.003094  -0.01333  0.009156  -0.7511  0.426
6.425e+09  0.7193  2.079  0.02188  -0.004193  -0.02005  -0.01753  -0.5534  0.6517
6.426e+09  1.484  1.747  -0.0006872  0.04736  0.04693  0.04483  -0.3783  0.7736
6.428e+09  2.051  1.082  0.02249  -0.01754  -0.04344  -0.004351  -0.05299  0.8599
6.429e+09  2.306  0.362  0.009027  -0.01929  -0.05301  0.03618  0.2452  0.831
6.43e+09  2.318  -0.567  0.004946  -0.0527  -0.0277  0.03214  0.4978  0.6665
6.431e+09  2.038  -1.457  -0.02203  -0.00722  -0.0487  0.01025  0.7254  0.4525
6.432e+09  1.36  -2.075  -0.01376  0.03519  -0.04815  -0.02404  0.8285  0.2109
6.434e+09  0.5429  -2.504  -0.01888  0.03108  -0.003606  0.03632  0.8696  -0.1068
6.435e+09  -0.2911  -2.577  -0.03115  -0.0286  0.007405  0.03144  0.7172  -0.3421
6.436e+09  -1.245  -2.23  -0.01164  0.0317  0.04736  -0.01922  0.6301  -0.6364
6.438e+09  -2.144  -1.648  -0.02014  -0.002663  0.007629  -0.02297  0.3397  -0.7366
6.439e+09  -2.624  -0.8253  0.0104  0.0009477  -0.002878  -0.01583  0.05804  -0.8343
6.44e+09  -2.757  0.1804  0.06183  -0.01603  -0.01074  -0.04405  -0.2278  -0.8025
6.441e+09  -2.592  1.32  -0.01006  -0.02432  0.07843  -0.03215  -0.5007  -0.7151
6.442e+09  -2.067  2.231  -0.02596  -0.002089  -0.01515  -0.006369  -0.7529  -0.5274
6.444e+09  -1.093  2.753  -0.04895  -0.04014  -0.02913  -0.01754  -0.8537  -0.2574
6.445e+09  -0.01447  3.215  -0.02745  0.02216  -0.02214  0.03663  -0.809  0.07306
6.446e+09  1.197  2.959  -0.0001129  -0.02805  0.002907  0.03913  -0.7195  0.3742
6.448e+09  2.171  2.193  -0.02078  -0.0345  -0.01898  0.02214  -0.5946  0.5576
6.449e+09  2.999  1.27  -0.02568  -0.01393  0.007864  -0.0004208  -0.3408  0.76
6.45e+09  3.413  0.1484  0.002164  -0.02868  -0.00244  -0.03756  -0.04877  0.8446
6.451e+09  3.216  -1.141  0.04624  0.02346  0.03608  -0.02825  0.239  0.765
6.452e+09  2.54  -2.391  -0.003522  0.04483  0.04036  0.01267  0.4821  0.6724
6.454e+09  1.521  -3.23  -0.03801  -0.01337  0.02952  0.02665  0.6689  0.5039
6.455e+09  0.1935  -3.664  -0.003128  0.04008  -0.03614  0.004819  0.7606  0.2184
6.456e+09  -1.167  -3.419  -0.001857  0.07876  -0.05959  -0.07789  0.8782  -0.03598
6.458e+09  -2.372  -2.773  -0.03379  -0.01637  0.002302  -0.0004865  0.7315  -0.3582
6.459e+09  -3.351  -1.668  -0.0371  -0.03137  0.02522  0.0247  0.5499  -0.5473
6.46e+09  -3.759  -0.2841  -0.00555  -0.008876  -0.03225  0.08185  0.3577  -0.746
6.461e+09  -3.636  1.127  0.008274  0.05092  -0.04494  -0.0257  0.0456  -0.8782
6.462e+09  -2.891  2.588  -0.00893  0.03653  0.004892  0.123  -0.2096  -0.7958
6.464e+09  -1.867  3.469  -0.02627  0.004761  -0.05776  0.04056  -0.5201  -0.6444
6.465e+09  -0.3215  3.964  -0.004255  0.01298  -0.04331  -0.01757  -0.6862  -0.4532
6.466e+09  1.307  3.901  0.009764  -0.0001681  -0.08305  -0.03691  -0.8052  -0.2183
6.468e+09  2.687  3.065  -0.01209  -0.001843  -0.00683  0.01066  -0.7889  0.08602
6.469e+09  3.601  1.802  -0.02122  0.04753  0.06249  -0.08083  -0.7048  0.3535
6.47e+09  4.008  0.3868  0.008858  0.005929  0.159  0.06001  -0.5337  0.6131
6.471e+09  3.954  -1.11  -0.017  -0.03275  -0.02859  -0.06355  -0.2973  0.7356
6.472e+09  3.187  -2.677  -0.01254  0.04194  0.06029  -0.01461  -0.06495  0.7997
6.474e+09  2.02  -3.707  0.02485  0.006977  -0.005231  -0.0749  0.2468  0.7768
6.475e+09  0.3681  -4.128  -0.04136  -0.02106  0.005552  0.01373  0.4423  0.6231
6.476e+09  -1.204  -4.037  0.01517  -0.01174  -0.0219  -0.02119  0.6739  0.441
6.478e+09  -2.597  -3.302  0.01237  -0.005718  -0.01147  0.05321  0.801  0.1976
6.479e+09  -3.698  -2.046  0.004844  -0.0296  0.08878  0.07357  0.8205  -0.08848
6.48e+09  -4.141  -0.4024  0.04859  0.006578  -0.03498  -0.02775  0.7318  -0.3366
6.481e+09  -4.032  1.161  -0.03825  -0.02867  0.02648  0.03746  0.537  -0.5422
6.482e+09  -3.34  2.531  -0.04475  -0.03946  -0.07522  0.01515  0.3405  -0.7305
6.484e+09  -2.094  3.591  0.01744  -0.02431  -0.06424  0.08711  0.0371  -0.8064
6.485e+09  -0.5601  4.132  -0.01041  -0.02308  -0.08495  0.02947  -0.2172  -0.7394
6.486e+09  0.9761  3.936  -0.009503  -0.01821  -0.04072  0.01719  -0.4859  -0.6239
6.488e+09  2.878  2.824  0.01538  0.03899  -0.4698  -0.6322  -0.7075  -0.4525
6.489e+09  3.42  2.094  0.01275  0.02707  -0.1328  -0.05711  -0.7579  -0.1566
6.49e+09  4.004  0.8232  0.02601  0.002088  0.07652  -0.08672  -0.7799  0.08943
6.491e+09  4.024  -0.7026  0.02232  0.04411  0.02162  -0.02062  -0.6843  0.373
6.492e+09  3.443  -2.195  0.01924  -0.01109  -0.04553  0.04385  -0.5161  0.5433
6.494e+09  2.365  -3.341  -0.008328  0.02963  -0.0279  0.08815  -0.321  0.6853
6.495e+09  0.8687  -3.987  0.03828  0.001608  -0.02416  0.02752  -0.04023  0.7859
6.496e+09  -0.52  -3.983  -0.04686  0.01905  0.06323  -0.01566  0.2293  0.7305
6.498e+09  -2.006  -3.587  0.02153  -0.02378  0.04694  -0.02172  0.5119  0.5817
6.499e+09  -3.2  -2.41  -0.03283  0.006951  -0.03671  -0.00579  0.6594  0.4386
6.5e+09  -7.631  -0.3933  -0.01509  -0.02185  -0.1176  -0.1688  0.7857  0.1485
6.501e+09  -3.956  0.3519  0.01041  -0.02662  -0.05424  -0.007545  0.7634  -0.1183
6.502e+09  -3.586  1.821  -0.03509  0.02446  0.05911  -0.007063  0.6481  -0.3677
6.504e+09  -2.536  3.023  0.03176  -0.02861  0.02442  -0.008825  0.4884  -0.5868
6.505e+09  -1.384  3.812  -0.03215  -0.008633  0.02491  -0.01088  0.2836  -0.719
6.506e+09  0.1721  3.944  0.002934  0.0005121  -0.09863  0.07458  0.04242  -0.7677
6.508e+09  1.572  3.67  0.02519  0.006995  -0.09233  0.04251  -0.2411  -0.7294
6.509e+09  2.823  2.81  -0.002921  -0.02965  0.02168  0.01375  -0.4672  -0.6127
6.51e+09  3.709  1.603  0.006279  0.01793  -0.01134  0.01057  -0.6632  -0.4216
6.511e+09  4.042  0.1163  0.002567  -0.02989  -0.00989  0.07539  -0.745  -0.1248
6.512e+09  3.85  -1.368  -0.03557  -0.007585  0.08274  0.05685  -0.7502  0.1198
6.514e+09  2.99  -2.662  -0.01917  -0.01249  0.01204  -0.05676  -0.6484  0.3487
6.515e+09  1.752  -3.615  0.008702  0.004176  0.002947  0.0405  -0.4694  0.5586
6.516e+09  0.2997  -4.182  -0.01224  -0.002304  0.04339  0.02227  -0.2591  0.7148
6.518e+09  -1.188  -3.811  -0.02747  -0.01991  0.03963  -0.0014  0.03798  0.7388
6.519e+09  -2.571  -3.132  -0.008246  -0.02829  -0.06462  -0.1062  0.2563  0.7373
6.52e+09  -3.565  -1.899  -0.03612  -0.0012  -0.01005  -0.001471  0.5191  0.5607
6.521e+09  -4.028  -0.488  0.002941  -0.001133  -0.06521  0.01036  0.6437  0.3548
6.522e+09  -3.928  1.173  0.01436  -0.00432  -0.01413  -0.04074  0.7326  0.07312
6.524e+09  -3.168  2.526  -0.04669  -0.0251  0.05536  0.04302  0.7349  -0.1614
6.525e+09  -2.017  3.52  -0.003114  0.0124  0.03256  0.0106  0.6429  -0.3838
6.526e+09  -0.5488  3.992  0.003752  -0.003907  0.00641  0.06074  0.4144  -0.5498
6.528e+09  0.9695  3.868  0.0129  0.02065  -0.0008183  0.0318  0.2228  -0.6714
6.529e+09  2.414  3.293  -0.01477  0.005969  0.06002  -0.01791  -0.07877  -0.7022
6.53e+09  3.428  2.04  0.003207  0.003949  0.1022  -0.05572  -0.3112  -0.6228
6.531e+09  3.922  0.5252  -0.004812  0.04574  -0.003676  -0.01012  -0.5284  -0.5029
6.532e+09  3.799  -0.9483  -0.001933  -0.01097  -0.06593  -0.06859  -0.5658  -0.3098
6.534e+09  3.217  -2.243  -0.01508  -0.02817  0.006246  -0.03053  -0.6069  -0.0927
6.535e+09  2.119  -3.296  0.02226  -0.04309  -0.01526  0.03847  -0.6395  0.1191
6.536e+09  0.7599  -3.873  0.003286  0.0009481  -0.06392  -0.0241  -0.5698  0.3127
6.538e+09  -0.7506  -3.707  -0.01059  -0.003227  0.028  0.1059  -0.4314  0.4724
6.539e+09  -2.135  -3.139  -0.02132  -0.0119  0.02576  0.02728  -0.2691  0.5903
6.54e+09  -3.104  -2.136  -0.01024  -0.002691  -0.0541  0.02005  -0.08889  0.7044
6.541e+09  -3.629  -0.7213  -0.006084  -0.001993  -0.05207  -0.02885  0.1781  0.6736
6.542e+09  -3.573  0.5762  -0.01374  0.01051  -0.03005  -0.01243  0.4521  0.5738
6.544e+09  -3.02  1.863  -0.01689  -0.01009  -0.07023  0.01388  0.6184  0.4172
6.545e+09  -2.102  2.825  0.002345  0.007535  -0.06155  -0.02549  0.7079  0.1785
6.546e+09  -0.8647  3.356  0.01179  0.01321  0.04786  -0.00131  0.7182  -0.0961
6.548e+09  0.5382  3.31  0.002893  0.006376  -0.02774  -0.04129  0.6765  -0.3415
6.549e+09  1.654  2.832  -0.02152  0.008539  0.03085  -0.03253  0.5086  -0.5522
6.55e+09  2.546  2.048  -0.0009548  -0.0129  -0.007462  -0.007031  0.2877  -0.6726
6.551e+09  3.037  0.9033  -0.004165  0.00505  0.05507  -0.004826  0.06164  -0.7723
6.552e+09  3.141  -0.3254  -0.03577  -0.0126  -0.05127  -0.05463  -0.2279  -0.7152
6.554e+09  2.753  -1.398  0.03925  -0.03356  0.009241  -0.04306  -0.4397  -0.5879
6.555e+09  2.013  -2.216  -0.03406  0.03678  0.03762  -0.03016  -0.6651  -0.3918
