# Hz S RI R 50
6.25e+09  0.6588  0.7176  -0.0275  0.02915  -0.002222  0.004807  0.1856  0.4931
6.251e+09  0.9199  0.4292  -0.02027  -0.03453  -0.001664  -0.01076  0.339  0.3834
6.252e+09  0.9538  0.09697  -0.006431  0.00971  -0.01381  0.03506  0.5455  0.2008
6.254e+09  0.913  -0.2103  -0.04005  0.00117  -0.003281  0.01974  0.6178  0.02143
6.255e+09  0.7995  -0.5658  0.01645  0.0025  0.004401  0.03068  0.6166  -0.2013
6.256e+09  0.5711  -0.7868  -0.006237  0.01373  -0.006132  -0.009532  0.5002  -0.4738
6.258e+09  0.1941  -0.8758  -0.05056  0.04604  0.06849  0.03429  0.2674  -0.6051
6.259e+09  -0.09392  -0.9701  -0.0161  -0.03383  0.04573  -0.03497  0.04351  -0.6896
6.26e+09  -0.4306  -0.8808  0.03077  -0.02049  0.0117  -0.02117  -0.2361  -0.6463
6.261e+09  -0.6787  -0.7118  -0.001807  0.02075  -0.006523  -0.03378  -0.4669  -0.5691
6.262e+09  -0.8555  -0.415  0.01345  0.03128  0.01974  0.006662  -0.6272  -0.363
6.264e+09  -0.8817  0.01169  -0.01285  -0.03932  0.008356  0.03239  -0.7012  -0.1003
6.265e+09  -0.8992  0.2996  -0.01306  0.01982  -0.002227  0.002196  -0.6886  0.1687
6.266e+09  -0.8228  0.592  0.02439  -0.0009975  0.03251  0.05056  -0.6048  0.4329
6.268e+09  -0.4849  0.8513  -0.02027  -0.01222  -0.007278  -0.006129  -0.4037  0.5999
6.269e+09  -0.1462  0.9009  0.01123  -0.001608  0.01761  0.02528  -0.2062  0.7459
6.27e+09  0.1922  0.9951  0.0023  0.01406  0.01319  0.03919  0.08001  0.7283
6.271e+09  0.4975  0.8416  0.01095  -0.003935  0.01716  -0.03985  0.3142  0.6737
6.272e+09  0.7815  0.645  0.01586  -0.03167  -0.02973  0.01846  0.5345  0.533
6.274e+09  0.882  0.3236  0.0002596  0.01367  0.02195  -0.008537  0.6951  0.3314
6.275e+09  0.9625  -0.05846  -0.008174  -0.01971  0.01516  0.02142  0.7551  0.05748
6.276e+09  0.9411  -0.3923  0.002114  -0.03673  0.01923  0.00365  0.7441  -0.2324
6.278e+09  0.6873  -0.7264  0.002833  0.009315  -0.0003852  -0.03221  0.6497  -0.4815
6.279e+09  0.4175  -0.9355  0.0143  -0.003177  0.04492  0.005383  0.4394  -0.6632
6.28e+09  0.1173  -0.9281  -0.01914  -0.001394  -0.02328  0.0007868  0.1805  -0.7621
6.281e+09  -0.2321  -0.9561  -0.03089  -0.01131  -0.03206  -0.01055  -0.0825  -0.7737
6.282e+09  -0.5464  -0.7841  0.01788  0.009498  -0.02706  -0.05292  -0.395  -0.6939
6.284e+09  -0.7759  -0.5262  0.02045  -0.0008171  0.01146  -0.02956  -0.5823  -0.5222
6.285e+09  -0.9632  -0.2079  -0.01035  0.01211  0.02096  0.0149  -0.7537  -0.2971
6.286e+09  -0.9474  0.09674  -0.02328  -0.01745  0.01412  -0.0119  -0.7563  0.01037
6.288e+09  -0.7939  0.4242  -0.04021  0.01276  0.008593  0.04448  -0.7377  0.2337
6.289e+09  -0.6458  0.7531  -0.004621  -0.01423  -0.0106  0.05289  -0.6364  0.5154
6.29e+09  -0.3454  0.8944  -0.0166  0.007141  -0.01297  -0.02039  -0.3962  0.6924
6.291e+09  -0.02628  0.9734  0.02656  0.0129  -0.01688  0.01374  -0.1578  0.7831
6.292e+09  0.3153  0.8764  0.0245  -0.007477  0.0188  -0.04591  0.1871  0.7888
6.294e+09  0.6665  0.7677  -0.002548  0.01807  -0.02963  -0.03584  0.3941  0.6984
6.295e+09  0.8553  0.4677  -0.00982  0.03349  -0.02611  -0.01752  0.6357  0.5614
6.296e+09  0.9841  0.1168  0.0002407  -0.003475  -0.01789  -0.04921  0.746  0.2754
6.298e+09  0.9697  -0.1791  -0.01376  0.031  0.01913  0.03574  0.8495  -0.005789
6.299e+09  0.8356  -0.513  0.007603  0.005762  0.005758  -0.03341  0.8063  -0.2461
6.3e+09  0.5913  -0.7991  0.02255  -0.01117  0.005663  -0.009083  0.6375  -0.534
6.301e+09  0.2727  -0.9607  -0.005131  0.006112  -0.01235  -0.03008  0.4015  -0.7356
6.302e+09  -0.06938  -1.015  -0.008071  0.0113  -0.02079  0.0147  0.1194  -0.8263
6.304e+09  -0.4194  -0.8791  -0.02272  0.01675  -0.004068  -0.02808  -0.1689  -0.8269
6.305e+09  -0.701  -0.7234  0.0001928  0.006864  -0.03086  0.005556  -0.44  -0.7571
6.306e+09  -0.8391  -0.403  -0.01782  0.02744  0.04475  0.004484  -0.6576  -0.5641
6.308e+09  -1.006  -0.06845  -0.007463  -0.004905  0.01233  -0.04937  -0.7811  -0.3085
6.309e+09  -0.9431  0.2938  0.009741  0.01335  -0.02423  0.04958  -0.8479  -0.02358
6.31e+09  -0.7996  0.6454  -0.02492  0.01918  0.05257  0.001937  -0.8272  0.2867
6.311e+09  -0.5286  0.8467  0.03066  -0.0197  0.02432  0.01741  -0.6822  0.5749
6.312e+09  -0.1972  1.043  -0.007808  0.005112  0.009764  -0.01717  -0.4302  0.7319
6.314e+09  0.08633  1.027  0.02163  0.01428  0.02511  0.01242  -0.1857  0.8658
6.315e+09  0.4788  0.8907  -0.02901  0.04253  0.06173  -0.03853  0.1376  0.8876
6.316e+09  0.7693  0.678  0.01152  -0.006721  -0.0007924  -0.03152  0.4311  0.7618
6.318e+09  0.9762  0.3982  -0.02451  -0.01363  -0.01132  0.03515  0.6923  0.588
6.319e+09  1.007  0.00288  0.002032  -0.01089  0.007178  -0.05506  0.8223  0.2797
6.32e+09  0.9657  -0.3793  -0.03386  0.01731  -0.03851  0.006668  0.8601  0.01569
6.321e+09  0.7949  -0.6923  0.02983  0.01268  0.01689  0.008826  0.8533  -0.2797
6.322e+09  0.4871  -0.8957  -0.01506  -0.03954  -0.02613  0.021  0.7033  -0.5925
6.324e+09  0.1396  -0.9947  -0.03795  0.005653  -0.0252  -0.01316  0.4571  -0.7423
6.325e+09  -0.2017  -0.9909  -0.008308  -0.01742  0.02474  -0.004929  0.1673  -0.8801
6.326e+09  -0.57  -0.9127  0.01423  -0.004663  -0.01977  0.02213  -0.1356  -0.8467
6.328e+09  -0.8353  -0.6441  -0.001583  -0.04042  0.03605  -0.02723  -0.4472  -0.8031
6.329e+09  -1.008  -0.3112  0.0002475  0.003243  0.001697  0.03313  -0.6521  -0.5867
6.33e+09  -1.087  0.01823  -0.01838  0.004946  -0.003968  0.008841  -0.8303  -0.3344
6.331e+09  -1.009  0.4556  -0.01039  -0.01095  -0.02207  0.0162  -0.9385  -0.05165
6.332e+09  -0.7528  0.7662  0.0002942  0.001658  0.009504  -0.02923  -0.8667  0.2643
6.334e+09  -0.5286  0.9801  0.02267  0.001045  0.007874  0.008441  -0.7064  0.5839
6.335e+09  -0.04369  1.086  0.01082  -0.01757  -0.01578  0.03587  -0.5084  0.7792
6.336e+09  0.3147  1.008  -0.003306  -0.02765  0.01266  -0.01383  -0.1828  0.8785
6.338e+09  0.6262  0.8916  -0.008019  -0.004813  -0.01356  0.009317  0.1525  0.8955
6.339e+09  0.9456  0.571  -0.01308  -0.01214  -0.008855  0.01412  0.4182  0.799
6.34e+09  1.096  0.2567  -0.04209  0.04818  0.02183  0.02806  0.7077  0.6253
6.341e+09  1.095  -0.1533  -0.02425  -0.02305  0.02833  -0.004668  0.8515  0.3401
6.342e+09  0.9717  -0.5305  0.01715  0.02273  0.02233  0.009775  0.9211  0.0294
6.344e+09  0.7351  -0.8139  -0.001223  0.01229  0.004198  -0.01017  0.8741  -0.2884
6.345e+09  0.3852  -1.029  -0.009318  -0.008694  -0.009131  0.04026  0.7518  -0.5679
6.346e+09  -0.01338  -1.107  -0.008447  -0.02673  -0.01575  0.04853  0.4809  -0.7988
6.348e+09  -0.3742  -1.067  0.0001315  -0.007427  -0.00241  0.003375  0.1797  -0.883
6.349e+09  -0.7698  -0.8057  0.01631  0.04403  0.003131  -0.01117  -0.1418  -0.93
6.35e+09  -0.9576  -0.5572  0.02744  0.01097  0.01493  -0.001558  -0.4078  -0.8489
6.351e+09  -1.119  -0.1863  0.02107  -0.001181  -0.02016  -0.009078  -0.7026  -0.6416
6.352e+09  -1.1  0.2415  0.0001186  0.008206  -0.004648  0.0008607  -0.8798  -0.3688
6.354e+09  -0.9588  0.607  0.001614  0.03979  0.005479  -0.06315  -0.8825  -0.0342
6.355e+09  -0.728  0.9152  -0.02056  -0.01505  -0.01592  -0.06527  -0.8964  0.2552
6.356e+09  -0.3502  1.103  -0.03588  0.01158  -0.004968  0.06639  -0.7537  0.5662
6.358e+09  -0.0006771  1.184  0.02487  0.02243  -0.01914  -0.01164  -0.4932  0.7882
6.359e+09  0.4438  1.097  -0.01772  0.0003653  -0.01839  -0.04806  -0.2339  0.9275
6.36e+09  0.801  0.8084  -0.02545  -0.01007  0.02427  -0.005883  0.1368  0.9432
6.361e+09  1.124  0.5003  0.01753  -0.02712  0.03621  -0.01497  0.4044  0.8805
6.362e+09  1.257  0.1252  0.04187  0.01801  0.03261  -0.003947  0.6756  0.6446
6.364e+09  1.146  -0.3014  0.02391  0.01537  -0.01222  -0.03773  0.8933  0.3984
6.365e+09  1.021  -0.6792  0.01354  -0.006569  -0.01556  0.03492  0.9252  0.07257
6.366e+09  0.6855  -1.013  0.02405  0.02142  -0.01179  0.003679  0.9022  -0.2508
6.368e+09  0.2839  -1.193  -0.007587  -0.01092  -0.04041  0.0401  0.7568  -0.5368
6.369e+09  -0.1062  -1.216  -0.001615  0.03384  0.01253  -0.05862  0.5447  -0.7941
6.37e+09  -0.5294  -1.115  -0.003306  0.01884  0.02196  0.02703  0.2351  -0.9435
6.371e+09  -0.918  -0.8459  0.01082  0.0161  0.0004538  -0.0217  -0.1041  -0.9384
6.372e+09  -1.147  -0.4958  -0.005955  0.02575  0.03026  -0.002811  -0.3734  -0.8725
6.374e+09  -1.26  -0.07499  0.001026  0.002972  -0.007701  -0.01393  -0.6919  -0.6245
6.375e+09  -1.177  0.3945  -0.0002967  -0.01004  -0.002086  0.03859  -0.8648  -0.3742
6.376e+09  -1.064  0.8191  0.03528  -0.0177  0.008143  -0.001461  -0.9341  -0.12
6.378e+09  -0.6591  1.146  0.03849  -0.0006999  0.003634  -0.004263  -0.9365  0.2288
6.379e+09  -0.2399  1.244  0.004954  -0.03135  0.01767  -0.002762  -0.7669  0.5292
6.38e+09  0.223  1.299  0.03378  0.04218  -0.03765  0.01278  -0.5936  0.7245
6.381e+09  0.6405  1.158  -0.01018  0.01588  0.03415  -0.02234  -0.2612  0.9085
6.382e+09  1.016  0.8808  -0.01079  -0.01864  0.01833  -0.03403  0.07952  0.9451
6.384e+09  1.288  0.4975  -0.03382  0.0001929  0.01281  -0.01846  0.4038  0.8342
6.385e+09  1.421  0.003855  0.04507  -0.003145  -0.07431  -0.02059  0.6497  0.6882
6.386e+09  1.325  -0.5069  -0.01404  -0.009116  -0.02687  -0.0177  0.8534  0.4126
6.388e+09  1.02  -0.8784  -0.06149  -0.0156  -0.01259  0.04381  0.8906  0.1121
6.389e+09  0.6595  -1.276  -0.007794  0.01963  0.01542  -0.002179  0.9356  -0.1897
6.39e+09  0.1597  -1.416  0.03132  -0.0168  -0.02953  0.007195  0.7805  -0.5109
6.391e+09  -0.3677  -1.429  0.009983  0.001193  -0.0006056  -0.009454  0.536  -0.7186
6.392e+09  -0.8073  -1.256  0.009777  -0.007262  -0.06884  -0.01  0.31  -0.8856
6.394e+09  -1.203  -0.9064  -0.02035  0.009938  -0.005504  0.02994  -0.01666  -0.9533
6.395e+09  -1.436  -0.4303  0.03579  0.0256  0.02141  -0.001484  -0.3457  -0.8712
6.396e+09  -1.515  0.1565  -0.03484  0.01885  0.02024  0.03053  -0.6285  -0.727
6.398e+09  -1.405  0.6346  -0.02125  -0.01649  -0.01911  0.05446  -0.793  -0.466
6.399e+09  -1.124  1.098  -0.01488  -0.0001728  -0.02901  -0.01013  -0.9139  -0.1533
6.4e+09  -0.6633  1.395  0.03762  0.01134  -0.0306  0.0106  -0.8662  0.1376
6.401e+09  -0.1148  1.637  -0.03478  -0.0125  0.02059  0.03534  -0.8067  0.511
6.402e+09  0.3965  1.505  -0.04392  0.01245  0.0003464  -0.005101  -0.5435  0.6965
6.404e+09  0.9723  1.344  0.05081  0.05757  0.02552  0.01302  -0.3082  0.8754
6.405e+09  1.413  0.9242  -0.01445  -0.0001504  -0.004918  0.02521  0.0246  0.942
6.406e+09  1.652  0.3465  -0.04238  0.01974  0.0001965  -0.03077  0.3033  0.8577
6.408e+09  1.669  -0.2129  -0.01736  -0.03124  -0.01954  0.04647  0.5866  0.6908
6.409e+09  1.467  -0.9012  -0.02064  -0.0264  0.0282  0.01716  0.7562  0.4626
6.41e+09  1.157  -1.376  -0.02621  0.01533  0.01207  0.0133  0.8955  0.175
6.411e+09  0.5895  -1.753  -0.00109  -0.03559  0.01563  -0.03884  0.8719  -0.1718
6.412e+09  -0.05323  -1.866  0.02154  -0.01826  -0.007689  -0.02747  0.7751  -0.3926
6.414e+09  -0.7539  -1.742  -0.02823  -0.03256  -0.04464  0.0451  0.5859  -0.6965
6.415e+09  -1.328  -1.36  0.01752  0.009718  -0.03714  -0.00262  0.3062  -0.8452
6.416e+09  -1.788  -0.7941  -0.09104  0.02901  -0.02375  0.04343  0.0309  -0.9163
6.418e+09  -2.001  -0.1799  0.02891  0.01642  -0.02596  0.03358  -0.2795  -0.8821
6.419e+09  -1.886  0.6056  -0.00989  -0.03649  -0.01701  0.02927  -0.554  -0.685
6.42e+09  -1.695  1.286  -0.03244  0.01002  -0.0107  -0.03323  -0.7704  -0.5204
6.421e+09  -1.162  1.751  0.01639  0.003696  0.05403  0.001729  -0.8815  -0.1787
6.422e+09  -0.4007  2.121  -0.01064  -0.00414  -0.06067  0.03998  -0.8606  0.1341
6.424e+09  0.4429  2.185  -0.02864  -0.01135  0.02282  0.01591  -0.7875  0.3969
6.425e+09  1.123  1.992  -0.04472  0.03229  -0.01544  -0.006199  -0.6186  0.6267
6.426e+09  1.862  1.373  0.03398  0.00793  0.009416  -0.005972  -0.3419  0.8193
6.428e+09  2.255  0.669  -0.04442  0.006129  -0.05035  -0.001217  -0.01355  0.8494
6.429e+09  2.398  -0.1994  -0.01632  -0.00923  0.04856  -0.01792  0.2686  0.8421
6.43e+09  2.223  -1.1  0.04433  -0.01945  0.03355  0.04635  0.5419  0.6866
6.431e+09  1.693  -1.855  -0.01705  -0.0165  -0.01364  0.1161  0.758  0.5002
6.432e+09  0.931  -2.361  -0.02315  0.006435  0.009566  -0.01079  0.8104  0.2109
6.434e+09  -0.05884  -2.623  0.007244  0.0006923  -0.01296  0.05315  0.8573  -0.1002
6.435e+09  -1.058  -2.385  0.02363  0.01473  0.01873  -0.03333  0.7823  -0.3493
6.436e+09  -1.95  -1.908  0.009528  -0.01472  0.05068  -0.01037  0.6345  -0.6052
6.438e+09  -2.609  -1.054  0.02446  -0.01564  -0.02581  -0.02368  0.3671  -0.7494
6.439e+09  -2.804  -0.09379  -0.03396  -0.02615  -0.04396  -0.01208  0.02268  -0.9024
6.44e+09  -2.776  0.9951  -0.001598  0.05995  0.009513  -0.03618  -0.2339  -0.8338
6.441e+09  -2.161  1.94  -0.0334  0.02428  0.01328  0.008569  -0.5093  -0.6979
6.442e+09  -1.265  2.751  0.01217  0.03821  -0.06229  0.004576  -0.7322  -0.5129
6.444e+09  -0.2119  3.04  -0.02019  0.01417  -0.1045  0.02244  -0.8385  -0.1982
6.445e+09  0.9351  2.97  -0.03804  0.02716  -0.03544  -0.03255  -0.834  0.06826
6.446e+09  2.062  2.456  -0.001436  0.01603  0.03608  0.06991  -0.734  0.3551
6.448e+09  2.807  1.397  -0.006325  0.006283  0.08561  -0.06079  -0.6293  0.6051
6.449e+09  3.179  0.3175  0.005376  0.0002836  0.09188  -0.03535  -0.3599  0.8085
6.45e+09  3.147  -0.9262  0.01282  0.02245  0.02984  -0.04349  -0.006748  0.829
6.451e+09  2.57  -2.126  -0.0298  -0.01729  0.01427  -0.04301  0.2046  0.7844
6.452e+09  1.573  -2.95  -0.01189  0.02175  -0.0005818  -0.004833  0.481  0.6751
6.454e+09  0.3456  -3.38  0.0244  -0.008323  0.00565  0.1135  0.7205  0.4667
6.455e+09  -1.022  -3.21  0.02346  -0.02071  0.03143  0.01337  0.8099  0.1922
6.456e+09  -2.224  -2.68  0.02783  -0.0004447  -0.008613  0.05645  0.8035  -0.07577
6.458e+09  -3.05  -1.642  0.03558  -0.07269  0.01771  0.007109  0.7511  -0.354
6.459e+09  -3.445  -0.4481  -0.03021  0.02619  0.02355  0.0242  0.5907  -0.5261
6.46e+09  -3.427  0.9798  -0.02253  0.002022  0.01166  -0.01159  0.3725  -0.7548
6.461e+09  -2.719  2.122  0.02148  0.01134  -0.01466  0.01155  0.0647  -0.8188
6.462e+09  -1.772  3.067  -0.03154  -0.003118  0.05332  0.0438  -0.1246  -0.7683
6.464e+09  -0.4173  3.462  -0.02989  0.007218  -0.01712  -0.00725  -0.4993  -0.6315
6.465e+09  0.9123  3.336  0.0197  -5.144e-06  -0.05559  -0.0388  -0.6811  -0.4352
6.466e+09  2.07  2.75  0.01089  -0.01833  -0.06071  0.02933  -0.7663  -0.2017
6.468e+09  2.984  1.745  -0.04359  -0.001642  -0.05888  0.04532  -0.7799  0.0719
6.469e+09  3.389  0.527  0.01106  -0.008386  0.005926  0.0002232  -0.7586  0.341
6.47e+09  3.282  -0.8331  0.02819  -0.0381  0.002904  0.006452  -0.5717  0.586
6.471e+09  2.667  -2.04  0.005522  -0.004042  0.02991  -0.01691  -0.3557  0.7231
6.472e+09  1.885  -2.878  -0.02474  0.04653  0.03791  0.02623  -0.06801  0.7774
6.474e+09  0.6072  -3.413  -0.005998  0.007485  0.02526  0.02277  0.1915  0.7588
6.475e+09  -0.7115  -3.262  -0.0005351  0.02324  0.02956  -0.01302  0.4804  0.6227
6.476e+09  -1.818  -2.811  0.03582  0.03465  0.0002784  0.002341  0.6458  0.4603
6.478e+09  -2.778  -1.859  0.01716  -0.01975  -0.02079  -0.02465  0.7757  0.1699
6.479e+09  -3.214  -0.7224  -0.0139  0.007764  -0.01019  -0.007915  0.7887  -0.09275
6.48e+09  -3.27  0.5238  0.005771  -0.02203  -0.01036  0.04742  0.7107  -0.3571
6.481e+09  -2.852  1.658  -0.0383  -0.01128  0.05568  0.03923  0.5082  -0.5281
6.482e+09  -1.988  2.559  -0.01036  0.02518  -0.01705  0.001212  0.3217  -0.709
6.484e+09  -0.8489  3.092  -0.01679  -0.01034  0.04846  0.06131  0.06098  -0.783
6.485e+09  0.3123  3.208  0.01365  -0.02933  0.03116  -0.01737  -0.203  -0.7317
6.486e+09  1.411  2.957  0.01787  -0.02225  0.03076  -0.03205  -0.4405  -0.6322
6.488e+09  1.996  2.838  -0.03668  0.008956  0.6642  -0.09286  -0.6789  -0.4381
6.489e+09  2.904  1.112  -0.0004437  0.0123  0.01832  -0.002286  -0.7402  -0.217
6.49e+09  3.16  -0.0171  -0.01438  0.002003  -0.01701  0.1327  -0.7594  0.1119
6.491e+09  2.877  -1.203  0.02095  0.01999  -0.06954  -0.003789  -0.705  0.3408
6.492e+09  2.308  -2.181  -0.001617  -0.02212  -0.04379  -0.06732  -0.5072  0.5562
6.494e+09  1.421  -2.861  0.002313  -0.01143  -0.08034  -0.05129  -0.2889  0.7146
6.495e+09  0.2325  -3.149  0.0002718  -0.002869  0.02458  0.05142  -0.05215  0.7853
6.496e+09  -0.8885  -2.995  -0.01941  -0.01999  -0.0324  -0.02274  0.2191  0.7473
6.498e+09  -1.818  -2.469  -0.02158  -0.03852  -0.001595  -0.03132  0.4728  0.5796
6.499e+09  -2.649  -1.562  0.0144  -0.01188  -0.01468  -0.006029  0.6392  0.4196
6.5e+09  -5.988  -0.04804  -0.006162  0.04036  0.07972  -0.01193  0.7434  0.1827
6.501e+09  -2.997  0.6727  -0.003648  -0.01643  -0.02572  -0.01393  0.7056  -0.0904
6.502e+09  -2.545  1.739  0.01923  -0.01828  0.02742  0.02047  0.648  -0.3732
6.504e+09  -1.771  2.446  -0.009766  -0.03194  -0.01023  -0.05687  0.5292  -0.5825
6.505e+09  -0.7696  3.029  -0.004553  0.009298  0.04266  0.0214  0.2954  -0.6896
6.506e+09  0.3104  3.089  -0.0007744  -0.009588  -0.0746  0.06066  0.03065  -0.7431
6.508e+09  1.495  2.737  0.02198  -0.02898  -0.04091  0.008011  -0.2761  -0.7184
6.509e+09  2.387  1.917  0.01153  -0.004539  -0.03956  0.05733  -0.4822  -0.5871
6.51e+09  2.912  1.045  -0.009109  0.001254  0.0001583  -0.07693  -0.6391  -0.3823
6.511e+09  3.088  -0.057  -0.01172  0.01103  0.01948  0.0009025  -0.742  -0.1687
6.512e+09  2.871  -1.201  -0.03523  -0.005376  0.02758  0.01959  -0.7717  0.1379
6.514e+09  2.278  -2.199  0.01614  0.003962  0.005864  -0.06079  -0.6377  0.3937
6.515e+09  1.371  -2.9  0.006886  -0.02861  -0.01077  -0.04593  -0.4823  0.5642
6.516e+09  0.1499  -3.166  -0.04918  0.02065  -0.0131  0.01375  -0.2207  0.7214
6.518e+09  -0.9989  -3.054  -0.003337  0.0418  -0.01104  0.06927  0.03354  0.7859
6.519e+09  -2.112  -2.438  -0.009492  0.001046  -0.02676  0.05252  0.2895  0.7164
6.52e+09  -2.789  -1.574  0.006838  -0.006342  -0.001532  -0.007536  0.4868  0.5524
6.521e+09  -3.308  -0.3959  0.01372  0.001349  -0.04002  -0.03604  0.6536  0.3437
6.522e+09  -3.162  0.7998  -0.02383  0.007529  -0.05125  -0.02137  0.7303  0.09813
6.524e+09  -2.65  1.856  0.02504  -0.0359  -0.009028  -0.03979  0.6917  -0.174
6.525e+09  -1.799  2.786  -0.05808  0.0006511  0.03129  0.05068  0.5771  -0.3912
6.526e+09  -0.7022  3.261  -0.01447  -0.01101  0.004678  -0.03499  0.4134  -0.6078
6.528e+09  0.6537  3.267  0.008943  0.02044  -0.03033  -0.01576  0.194  -0.6679
6.529e+09  1.86  2.813  0.01324  -0.02291  0.009775  -0.04681  -0.0489  -0.6958
6.53e+09  2.813  1.993  0.04488  0.03383  -0.0792  -0.01402  -0.295  -0.638
6.531e+09  3.305  0.8557  0.01546  0.01701  -0.0273  -0.04428  -0.4893  -0.4613
6.532e+09  3.41  -0.4618  -0.009177  -0.01432  0.002425  -0.08623  -0.5655  -0.3039
6.534e+09  3.002  -1.679  0.03082  -0.02696  -0.01972  -0.03149  -0.6393  -0.07708
6.535e+09  2.111  -2.75  -0.002597  -0.01517  0.03176  -0.003161  -0.6469  0.09704
6.536e+09  0.9212  -3.349  -0.01699  -0.01176  0.07633  -0.03661  -0.5799  0.2859
6.538e+09  -0.368  -3.413  0.00863  0.009723  0.07635  0.009104  -0.4259  0.4811
6.539e+09  -1.637  -3.012  0.0041  -0.01386  -0.004469  0.009099  -0.2716  0.5998
6.54e+09  -2.633  -2.144  -0.01763  0.04156  0.04328  -0.0585  -0.05376  0.7062
6.541e+09  -3.241  -1.008  0.02906  -0.02057  0.01417  0.03188  0.1978  0.6693
6.542e+09  -3.525  0.2704  0.01231  0.01422  -0.01083  -0.07307  0.3926  0.5766
6.544e+09  -3.03  1.486  -0.01663  0.01175  -0.02552  -0.0263  0.5898  0.4073
6.545e+09  -2.253  2.543  -0.004082  0.007368  -0.008106  0.01687  0.7061  0.1523
6.546e+09  -1.074  3.17  -0.01915  -0.003771  0.03757  -0.003075  0.7012  -0.08592
6.548e+09  0.1811  3.353  0.01573  0.0271  0.02517  0.03192  0.6373  -0.2968
6.549e+09  1.354  2.998  0.02489  -0.005325  -0.005811  0.029  0.5221  -0.5177
6.55e+09  2.348  2.219  -0.003826  0.02807  -0.006094  0.009472  0.2721  -0.6842
6.551e+09  2.962  1.082  -0.01547  -9.326e-05  -0.002368  0.02923  0.01812  -0.7557
6.552e+09  3.145  -0.1212  -0.006852  0.01094  -0.06868  -0.03764  -0.23  -0.7012
6.554e+09  2.834  -1.215  -0.009432  -0.002904  -0.02989  0.04189  -0.4626  -0.6214
