# Hz S RI R 50
6.25e+09  0.5462  0.7711  -0.01971  -0.001256  0.02598  0.01596  0.161  0.489
6.251e+09  0.872  0.6118  0.01337  0.0441  0.007181  -0.008959  0.3871  0.4136
6.252e+09  0.9591  0.258  -0.007408  0.0125  0.005701  0.01896  0.5469  0.2218
6.254e+09  1.001  -0.1297  0.02189  0.01966  0.0477  0.02864  0.5868  0.03142
6.255e+09  0.9163  -0.4344  -0.02074  -0.04136  0.04759  0.02841  0.5641  -0.2415
6.256e+09  0.6292  -0.699  -0.01911  -0.003459  -0.05316  0.06129  0.4637  -0.4348
6.258e+09  0.3833  -0.9493  0.01096  0.04416  0.03434  -0.03429  0.3034  -0.6354
6.259e+09  0.04086  -0.9219  -0.01057  0.01517  0.004139  0.03505  0.04269  -0.6796
6.26e+09  -0.3008  -0.8996  0.02673  -0.007259  0.03002  -0.02902  -0.2138  -0.6567
6.261e+09  -0.6025  -0.7606  0.01361  0.009457  0.06995  -0.001858  -0.4421  -0.5405
6.262e+09  -0.8625  -0.5295  -0.011  -0.007143  -0.02523  0.06374  -0.6088  -0.3401
6.264e+09  -0.9699  -0.2509  0.04584  0.005743  -0.003062  -0.003847  -0.7058  -0.1035
6.265e+09  -0.9113  0.2174  0.02038  0.01214  0.02609  -0.007399  -0.7048  0.1466
6.266e+09  -0.7993  0.5105  -0.001381  -0.01348  -0.007853  0.002053  -0.6114  0.3635
6.268e+09  -0.5937  0.7776  0.03856  -0.01233  0.03145  -0.02687  -0.4388  0.6025
6.269e+09  -0.324  0.9312  0.03119  0.006086  -0.03423  -0.03189  -0.1908  0.7174
6.27e+09  0.008427  0.9643  -0.002419  -0.005696  -0.02855  0.03358  0.05039  0.7443
6.271e+09  0.3475  0.8459  -0.008624  0.004902  -0.02186  -0.04082  0.3182  0.6744
6.272e+09  0.628  0.7197  -0.0182  0.009165  -0.02828  -0.01262  0.5512  0.5482
6.274e+09  0.8362  0.4333  0.01628  -0.01467  -0.001007  -0.01402  0.6907  0.3071
6.275e+09  0.9419  0.07514  0.02302  -0.002799  0.006956  -0.02657  0.7736  0.04986
6.276e+09  0.947  -0.2224  0.01669  0.01105  0.009374  0.02182  0.7016  -0.2689
6.278e+09  0.7908  -0.5604  0.006844  0.01739  -0.03191  -0.03862  0.6338  -0.4499
6.279e+09  0.537  -0.7385  0.002127  0.01464  0.009791  0.001573  0.4102  -0.6353
6.28e+09  0.2714  -0.9073  0.01052  -0.0123  0.03265  -0.007736  0.1753  -0.778
6.281e+09  -0.06355  -0.947  -0.01366  0.009076  -0.003757  -0.007527  -0.09934  -0.7628
6.282e+09  -0.4399  -0.8483  -0.001603  -0.001359  0.008114  0.01353  -0.3514  -0.6791
6.284e+09  -0.7095  -0.6804  0.01391  0.0049  0.01731  0.02207  -0.5912  -0.5176
6.285e+09  -0.9509  -0.3179  0.01886  0.003754  0.0156  0.04867  -0.7311  -0.2837
6.286e+09  -0.9448  -0.002648  -0.06803  0.002676  -0.009503  -0.01653  -0.7758  -0.01483
6.288e+09  -0.921  0.2378  -0.001898  -0.02103  0.02893  0.008482  -0.7576  0.2621
6.289e+09  -0.7499  0.5813  0.01202  -0.009344  0.01429  -0.03032  -0.6248  0.5033
6.29e+09  -0.4938  0.7966  -0.003491  -0.01791  0.01418  -0.05566  -0.4285  0.6923
6.291e+09  -0.1796  0.9541  -0.03499  0.004068  0.01049  0.001283  -0.1627  0.7835
6.292e+09  0.1286  0.9409  0.01339  -0.03773  -0.03046  0.007734  0.1679  0.7992
6.294e+09  0.4664  0.887  -0.0153  -0.004806  0.01472  -0.01575  0.4101  0.716
6.295e+09  0.7273  0.6484  0.01915  -0.02366  0.02393  0.02577  0.6205  0.5441
6.296e+09  0.9093  0.2555  0.004745  -0.0213  -0.04237  0.001304  0.7421  0.3143
6.298e+09  0.956  -0.02966  -0.01309  -0.02398  0.01675  0.02614  0.8538  0.01744
6.299e+09  0.8682  -0.3943  0.01137  -0.02274  0.06696  -0.0137  0.7832  -0.2672
6.3e+09  0.696  -0.6501  0.002953  0.0008228  0.04493  0.02005  0.6307  -0.5608
6.301e+09  0.4598  -0.8574  -0.009661  0.01397  -0.02497  -0.02525  0.4342  -0.7164
6.302e+09  0.104  -1.012  0.01344  -0.001942  0.00263  -0.00968  0.1824  -0.8419
6.304e+09  -0.2446  -0.9595  -0.02446  0.01452  0.03235  0.01544  -0.1475  -0.8403
6.305e+09  -0.5857  -0.7723  -0.01648  -0.01372  -0.00318  -0.02685  -0.4322  -0.7296
6.306e+09  -0.7562  -0.5991  0.001497  0.01134  -0.0009743  0.03597  -0.6719  -0.5452
6.308e+09  -0.9337  -0.2378  -0.01769  0.02506  0.01302  -0.02478  -0.8032  -0.2761
6.309e+09  -0.9578  0.05998  -0.01127  0.02159  0.05803  -0.01007  -0.8557  0.01518
6.31e+09  -0.883  0.4597  0.005083  0.01036  -0.01809  -0.02245  -0.7955  0.2924
6.311e+09  -0.6726  0.6711  -0.001602  0.006589  -0.01629  0.04768  -0.6756  0.5569
6.312e+09  -0.3863  0.8932  -0.02151  0.01005  -0.003241  -0.00937  -0.4469  0.7396
6.314e+09  -0.07157  0.9814  0.02946  0.009354  -0.003247  0.01303  -0.1714  0.8726
6.315e+09  0.3  0.9768  -0.01062  -0.026  -0.004452  -0.0202  0.1392  0.85
6.316e+09  0.6334  0.7817  0.008413  0.006634  -0.008119  0.02064  0.4494  0.7636
6.318e+09  0.8628  0.5304  -0.01532  0.000255  0.00156  -0.01192  0.6845  0.567
6.319e+09  0.9894  0.1706  -0.003154  0.02135  0.01438  -0.01771  0.8063  0.304
6.32e+09  1.031  -0.1427  -0.02285  -0.01378  -0.009597  -0.0009336  0.9004  0.03665
6.321e+09  0.8963  -0.5051  0.02541  -0.0009062  0.02285  -0.008017  0.8379  -0.2904
6.322e+09  0.6227  -0.7634  -0.003579  -0.02658  0.00288  0.005221  0.7004  -0.55
6.324e+09  0.373  -0.9936  0.02024  0.01313  0.002513  -0.003445  0.4233  -0.7865
6.325e+09  -0.03168  -0.9831  -0.01638  0.002935  0.01631  0.04054  0.1668  -0.8928
6.326e+09  -0.4215  -0.9954  0.03227  0.01232  0.009182  0.03667  -0.1205  -0.8931
6.328e+09  -0.6799  -0.7996  0.04138  -0.008867  -0.01303  0.007  -0.4422  -0.7764
6.329e+09  -0.9125  -0.4904  0.003496  0.01034  0.006715  -0.0007993  -0.6942  -0.6017
6.33e+09  -1.044  -0.1337  -0.02388  -0.01542  0.01669  0.0324  -0.8442  -0.3454
6.331e+09  -1.052  0.2474  0.02804  0.006975  0.04114  0.01293  -0.901  -0.01903
6.332e+09  -0.8957  0.5657  -0.001254  -0.003329  -0.003181  0.01818  -0.8499  0.2669
6.334e+09  -0.6583  0.8383  0.01922  -0.008699  0.009352  0.03045  -0.7338  0.5394
6.335e+09  -0.273  1.046  -0.009337  -0.001468  0.002483  -0.02372  -0.4828  0.7737
6.336e+09  0.0734  1.088  0.01517  0.002526  0.04928  -0.009583  -0.2042  0.9416
6.338e+09  0.4752  0.9946  -0.00233  0.0002344  -0.01965  -0.00113  0.1765  0.9226
6.339e+09  0.7781  0.7468  0.003257  -0.01131  -0.04278  -0.002226  0.3898  0.7871
6.34e+09  0.9443  0.4714  -0.00176  -0.01397  -0.005991  -0.02396  0.6887  0.6205
6.341e+09  1.112  0.1062  -0.019  0.02455  -0.01239  -0.005148  0.8888  0.342
6.342e+09  1.107  -0.3074  -0.02057  -0.003011  0.001448  0.02365  0.9067  0.04279
6.344e+09  0.9144  -0.6562  -0.02784  -0.007342  0.006233  -0.01494  0.8707  -0.2509
6.345e+09  0.5713  -0.9334  0.00381  -0.006081  0.03178  -0.03651  0.7478  -0.561
6.346e+09  0.2373  -1.077  -0.01883  -0.01288  0.00907  -0.004662  0.5213  -0.7874
6.348e+09  -0.1994  -1.096  -0.006478  0.02856  -0.01747  -0.01416  0.2271  -0.878
6.349e+09  -0.5403  -0.9751  -0.01193  -0.003365  0.004857  -0.01892  -0.08414  -0.9473
6.35e+09  -0.8359  -0.7626  0.0046  0.004671  0.01092  -0.02663  -0.4325  -0.8667
6.351e+09  -1.076  -0.4439  0.00901  -0.01006  -0.01314  -0.03258  -0.7315  -0.6546
6.352e+09  -1.165  -0.04043  -0.02471  0.006811  -0.008616  0.01022  -0.8607  -0.3771
6.354e+09  -1.093  0.3745  1.162e-05  0.008983  0.005922  -0.0311  -0.9343  -0.07233
6.355e+09  -0.8659  0.7171  -0.03241  0.01716  0.001894  0.004008  -0.892  0.267
6.356e+09  -0.5544  0.9872  -0.003042  -0.007308  0.03041  -0.01257  -0.7446  0.5697
6.358e+09  -0.1825  1.139  -0.01015  0.00549  -0.04092  0.03506  -0.5144  0.7672
6.359e+09  0.2384  1.196  0.04774  0.001303  -0.02494  0.05896  -0.2685  0.9246
6.36e+09  0.6559  0.9915  0.03089  -0.02719  -0.05317  0.01236  0.06283  0.9348
6.361e+09  0.9077  0.741  0.007527  -0.0009116  0.01667  0.03362  0.4268  0.8683
6.362e+09  1.073  0.3391  -0.007568  0.01247  0.01768  0.002312  0.7031  0.69
6.364e+09  1.236  -0.05793  0.02674  -0.01546  -0.01048  -0.01985  0.8842  0.3435
6.365e+09  1.079  -0.4497  0.006035  0.007913  0.01064  -0.01569  0.9405  0.08993
6.366e+09  0.8669  -0.8308  -0.01288  -0.01556  -0.0151  -0.0002976  0.9063  -0.2391
6.368e+09  0.5947  -1.118  0.007488  -0.00254  -0.06238  0.000488  0.7648  -0.5655
6.369e+09  0.1697  -1.22  -0.005688  -0.04134  0.03248  -0.06804  0.5482  -0.8014
6.37e+09  -0.3121  -1.169  -0.01748  -0.005146  0.02978  -0.0007428  0.2532  -0.9352
6.371e+09  -0.6975  -1.083  0.02442  0.02091  -0.008355  0.02031  -0.07609  -0.9472
6.372e+09  -1.007  -0.7436  -0.002951  0.008069  0.01172  -0.02417  -0.3827  -0.8519
6.374e+09  -1.214  -0.3561  -0.004343  -0.02161  0.02678  -0.02829  -0.6607  -0.6853
6.375e+09  -1.25  0.09636  0.009325  -0.04047  -0.02737  0.004063  -0.8525  -0.4228
6.376e+09  -1.158  0.5347  0.00461  0.01031  0.02943  0.01443  -0.9507  -0.1024
6.378e+09  -0.8687  0.9546  -0.01552  -0.02465  0.03053  0.008301  -0.9411  0.2261
6.379e+09  -0.5543  1.167  -0.03104  -0.001664  0.0523  0.03624  -0.7829  0.5344
6.38e+09  -0.1332  1.327  0.01392  0.00666  -0.03036  0.02062  -0.5501  0.7908
6.381e+09  0.3716  1.282  -4.074e-05  0.01616  -0.01107  -0.007552  -0.2507  0.9509
6.382e+09  0.7811  1.105  -0.03063  0.03629  -0.01422  -0.01951  0.06001  0.9097
6.384e+09  1.107  0.6979  0.006041  -0.007148  0.01116  -0.04337  0.359  0.8632
6.385e+09  1.317  0.2426  0.04899  0.008261  -0.06209  -0.05284  0.6637  0.7025
6.386e+09  1.338  -0.1769  -0.007059  -0.04795  0.006882  -0.02012  0.8519  0.4212
6.388e+09  1.27  -0.6476  0.00398  0.01222  -0.00648  -0.004252  0.9341  0.1184
6.389e+09  0.9384  -1.11  -0.01902  -0.005939  0.0247  -0.003883  0.8801  -0.2056
6.39e+09  0.5022  -1.282  0.04689  -0.02809  0.007388  0.03962  0.775  -0.5033
6.391e+09  0.0481  -1.363  -0.01532  -0.002942  0.03988  0.002804  0.5784  -0.6916
6.392e+09  -0.493  -1.392  -0.01007  -0.001059  0.03909  -0.03847  0.2771  -0.8524
6.394e+09  -0.8901  -1.169  -0.01871  -0.01109  0.02517  -0.04747  -0.008871  -0.9421
6.395e+09  -1.293  -0.7235  -0.004299  0.02137  0.01089  -0.004729  -0.3294  -0.8534
6.396e+09  -1.436  -0.2877  0.03389  -0.06218  0.01509  0.00599  -0.6665  -0.6503
6.398e+09  -1.482  0.2544  -0.03661  -0.005767  -0.04686  -0.03838  -0.8052  -0.4727
6.399e+09  -1.328  0.6788  -0.009392  0.01446  -0.05319  0.01754  -0.9131  -0.1593
6.4e+09  -0.9685  1.152  -0.02345  -0.01952  0.01079  -0.05851  -0.8764  0.154
6.401e+09  -0.5073  1.491  0.002879  0.01922  0.02688  -0.01939  -0.7889  0.4636
6.402e+09  0.004717  1.554  0.01797  -0.03574  -0.02723  0.03783  -0.613  0.6938
6.404e+09  0.6121  1.448  0.002248  -0.006732  -0.06094  0.03295  -0.3147  0.8718
6.405e+09  1.06  1.263  -0.03356  -0.02914  0.04649  0.02802  0.007842  0.9852
6.406e+09  1.445  0.751  -0.0001125  0.04261  0.008774  0.02509  0.3574  0.8541
6.408e+09  1.668  0.1924  -0.009678  -0.02049  -0.0186  -0.006442  0.5628  0.6677
6.409e+09  1.625  -0.4351  -0.02535  -0.01401  -0.02058  0.0246  0.7593  0.4573
6.41e+09  1.424  -0.9675  0.03086  -0.01402  -0.02865  0.04831  0.9121  0.1675
6.411e+09  0.9546  -1.436  -0.000912  -0.007729  0.0107  -0.05056  0.9188  -0.1663
6.412e+09  0.4506  -1.705  0.002701  -0.02433  -0.009452  -0.003345  0.8274  -0.4236
6.414e+09  -0.1605  -1.777  -0.002212  0.04455  0.01015  0.01866  0.5734  -0.6449
6.415e+09  -0.8262  -1.68  -0.01247  -0.02294  -0.02009  0.03257  0.3567  -0.8392
6.416e+09  -1.341  -1.211  0.0002691  0.00432  0.00353  -0.007451  0.04479  -0.9109
6.418e+09  -1.766  -0.7019  0.006737  0.01531  -0.02455  0.02224  -0.2752  -0.8916
6.419e+09  -1.96  -0.06053  -0.03948  0.01057  0.008637  0.02946  -0.5624  -0.7056
6.42e+09  -1.882  0.6447  -0.0483  0.01406  0.04436  -0.03179  -0.7766  -0.4649
6.421e+09  -1.532  1.282  0.004503  0.01204  0.01689  -0.06823  -0.9152  -0.2089
6.422e+09  -1.029  1.797  -0.02132  -0.0519  -0.0222  0.003414  -0.8986  0.1393
6.424e+09  -0.3226  2.062  -0.03403  0.01105  -0.035  -0.007947  -0.8214  0.4192
6.425e+09  0.4256  2.043  -0.01248  -0.008922  0.01948  0.01338  -0.6454  0.6338
6.426e+09  1.172  1.839  -0.001976  0.01679  -0.008707  0.01021  -0.3626  0.7552
6.428e+09  1.762  1.319  -0.001731  -0.01289  0.02125  0.02383  -0.04859  0.8519
6.429e+09  2.234  0.5853  -0.001126  -0.003843  0.01987  -0.02284  0.2231  0.8738
6.43e+09  2.336  -0.2266  0.03933  0.0538  -0.001522  0.02342  0.5956  0.6526
6.431e+09  2.008  -1.122  0.02007  -0.0602  -0.01456  0.01759  0.7261  0.4892
6.432e+09  1.66  -1.784  -0.03933  -0.0009067  -0.03384  0.02881  0.8625  0.1676
6.434e+09  0.8586  -2.26  -0.01258  -5.545e-05  0.05774  -0.0206  0.8848  -0.1401
6.435e+09  0.001434  -2.518  -0.007887  -0.01156  0.03105  0.01488  0.7828  -0.4062
6.436e+09  -0.9695  -2.451  -0.01414  -0.02315  0.03079  -0.02729  0.6399  -0.638
6.438e+09  -1.78  -1.932  0.008676  -0.03304  0.02816  0.02247  0.2879  -0.8239
6.439e+09  -2.451  -1.188  0.01392  0.01816  -0.05162  -0.02379  0.0334  -0.8526
6.44e+09  -2.833  -0.2217  0.03781  0.02369  0.06845  -0.03865  -0.2215  -0.8212
6.441e+09  -2.693  0.7553  -0.03149  -0.003169  0.02972  -0.04716  -0.4743  -0.6825
6.442e+09  -2.292  1.771  -0.0324  -0.03765  0.0292  0.02913  -0.7171  -0.5202
6.444e+09  -1.438  2.534  -0.006328  -0.009358  0.1284  0.0425  -0.8084  -0.1507
6.445e+09  -0.3708  2.968  -0.0129  0.004824  -0.001099  0.03855  -0.8321  0.1108
6.446e+09  0.675  2.97  -0.04574  -0.01507  -0.007603  0.05716  -0.7384  0.3701
6.448e+09  1.761  2.552  0.02277  -0.02058  -0.1473  -0.02302  -0.5749  0.5841
6.449e+09  2.639  1.836  -0.009552  0.02221  0.04157  0.02172  -0.2954  0.7792
6.45e+09  3.138  0.7649  0.04838  -0.01904  0.0336  -0.08277  -0.07257  0.8163
6.451e+09  3.332  -0.4519  0.01239  -0.02657  0.03713  -0.0175  0.2008  0.8038
6.452e+09  2.972  -1.873  0.01919  -0.007388  -0.03512  -0.08949  0.4765  0.7042
6.454e+09  2.176  -2.837  0.02424  0.009949  0.1265  -0.03009  0.6524  0.4625
6.455e+09  0.951  -3.459  0.03692  0.02076  0.001491  0.07448  0.838  0.2043
6.456e+09  -0.4877  -3.66  -0.01094  0.02084  0.06644  -0.0388  0.8678  -0.1121
6.458e+09  -1.819  -3.272  -0.007152  0.01529  0.08218  0.07765  0.7083  -0.3708
6.459e+09  -2.973  -2.493  0.016  0.01208  -0.04312  0.03351  0.6157  -0.582
6.46e+09  -3.763  -1.095  -0.03506  0.001011  0.01429  -0.0373  0.3295  -0.7519
6.461e+09  -4.075  0.3801  -0.05184  -0.03746  0.08625  0.1181  0.1198  -0.8343
6.462e+09  -3.665  1.895  -0.0105  0.01572  0.08937  0.03344  -0.2151  -0.77
6.464e+09  -2.679  3.083  0.02974  0.01289  -0.04321  0.01622  -0.4933  -0.647
6.465e+09  -1.355  3.996  -0.03364  -0.02228  -0.004635  -0.06518  -0.6477  -0.4613
6.466e+09  0.2355  4.255  0.01326  0.01348  -0.0243  -0.03435  -0.7258  -0.1992
6.468e+09  1.939  3.947  -0.01899  -0.01885  0.07755  -0.01766  -0.8273  0.06686
6.469e+09  3.264  2.873  0.0004317  -0.01255  -0.02748  0.02407  -0.742  0.3404
6.47e+09  4.216  1.341  -0.001234  -0.005236  -0.01858  -0.01141  -0.5371  0.5641
6.471e+09  4.555  -0.2774  -0.01168  -0.001425  -0.1137  -0.04547  -0.3444  0.7336
6.472e+09  3.975  -2.09  0.01822  0.0157  -0.02238  0.02001  -0.05607  0.8128
6.474e+09  3.02  -3.522  0.03322  -0.02569  -0.008758  -0.08246  0.2248  0.7868
6.475e+09  1.494  -4.373  -0.03034  0.01527  0.09156  -0.04053  0.4228  0.6631
6.476e+09  -0.2585  -4.63  -0.03088  0.008222  -0.04919  0.0002866  0.6299  0.4196
6.478e+09  -2.092  -4.289  0.02038  0.008804  0.006315  0.04942  0.7711  0.1975
6.479e+09  -3.553  -3.135  0.0005779  -0.00785  -0.06251  0.04567  0.7835  -0.09013
6.48e+09  -4.514  -1.59  0.03425  -0.01441  -0.06223  0.02  0.7086  -0.3398
6.481e+09  -4.784  0.287  0.03779  0.02802  0.0002881  -0.04493  0.5179  -0.5344
6.482e+09  -4.355  2.172  -0.01492  0.06187  -0.02974  0.000121  0.327  -0.7334
6.484e+09  -3.225  3.646  0.009873  0.005248  0.02484  0.135  0.0479  -0.7368
6.485e+09  -1.584  4.682  0.05688  0.04123  0.05286  0.08964  -0.2202  -0.7823
6.486e+09  0.3204  4.861  0.002233  -0.002284  -0.07023  -0.02946  -0.4467  -0.6148
6.488e+09  2.515  3.755  0.01119  0.03505  0.4517  0.5478  -0.6596  -0.4175
6.489e+09  3.598  3.229  0.007083  -0.04006  -0.02397  0.08191  -0.7611  -0.1753
6.49e+09  4.588  1.572  -0.01387  -0.009224  0.1415  0.0008603  -0.7646  0.09626
6.491e+09  4.826  -0.2284  -0.01011  0.04014  0.01363  -0.06663  -0.7165  0.3429
6.492e+09  4.432  -2.114  -0.02119  -0.001838  0.08621  -0.01747  -0.5307  0.6036
6.494e+09  3.483  -3.606  0.01323  -0.001597  -0.1086  0.1411  -0.2965  0.6906
6.495e+09  1.68  -4.621  0.04161  -0.01886  0.01918  0.02554  -0.06183  0.7304
6.496e+09  -0.1598  -4.855  0.004661  0.01737  -0.02166  0.02276  0.2366  0.7011
6.498e+09  -2.04  -4.538  0.01753  0.01414  -0.05142  0.01842  0.4523  0.5817
6.499e+09  -3.594  -3.392  -0.04162  0.01579  0.04101  0.05474  0.6601  0.4418
6.5e+09  -9.107  -1.442  0.007962  -0.02203  -0.1599  0.07828  0.7258  0.1534
6.501e+09  -4.96  -0.05482  0.02708  -0.03509  -0.05541  0.03911  0.7499  -0.1332
6.502e+09  -4.557  1.824  0.03027  -0.008379  -0.05626  -0.054  0.6646  -0.3554
6.504e+09  -3.48  3.489  0.0394  0.04783  0.05964  -0.08614  0.4898  -0.5719
6.505e+09  -1.87  4.402  0.01729  0.03871  0.03928  -0.06234  0.2853  -0.713
6.506e+09  -0.03585  4.813  -0.004653  0.02932  -0.0966  -0.01842  0.01824  -0.7382
6.508e+09  1.811  4.5  0.009706  -0.002079  -0.04852  -0.004406  -0.2161  -0.6724
6.509e+09  3.338  3.429  0.0161  0.02157  0.05116  -0.03281  -0.4656  -0.5788
6.51e+09  4.443  1.974  -0.02086  -0.01442  0.03817  -0.03858  -0.6644  -0.3919
6.511e+09  4.831  0.2399  0.01047  0.01841  -0.02215  -0.07216  -0.7186  -0.1688
6.512e+09  4.514  -1.676  0.03482  -0.006167  0.02151  -0.04614  -0.7172  0.144
6.514e+09  3.615  -3.266  -0.03714  0.01305  0.0347  -0.09033  -0.6519  0.3975
6.515e+09  2.071  -4.369  -0.007895  0.003958  0.08751  0.06147  -0.5029  0.5729
6.516e+09  0.1834  -4.727  -0.000754  0.005144  -0.06483  -0.003056  -0.2646  0.7343
6.518e+09  -1.556  -4.531  -0.01349  -0.04903  -0.003839  0.02905  0.00858  0.7427
6.519e+09  -3.175  -3.564  0.04947  -0.02718  -0.09321  0.06932  0.2806  0.6519
6.52e+09  -4.064  -2.059  -0.05396  -0.004277  0.01308  0.03645  0.4899  0.5364
6.521e+09  -4.716  -0.2947  -0.004561  -0.01484  -0.08176  -0.0007626  0.6364  0.3559
6.522e+09  -4.315  1.472  -0.008253  -0.01588  0.01374  0.05545  0.7441  0.1109
6.524e+09  -3.424  3.058  -0.000786  -0.0007725  0.07058  -0.01946  0.7374  -0.1774
6.525e+09  -2.102  4.089  -0.009337  0.005459  0.03574  0.01991  0.5969  -0.4004
6.526e+09  -0.3124  4.574  -0.02906  -0.01602  0.01793  0.04512  0.4398  -0.5972
6.528e+09  1.398  4.18  0.01499  0.01063  -0.01146  0.01096  0.1914  -0.6598
6.529e+09  2.806  3.386  0.01943  0.02462  -0.08895  -0.02796  -0.03878  -0.6778
6.53e+09  3.774  2.001  0.025  -0.03301  -0.02214  0.07577  -0.297  -0.6114
6.531e+09  4.282  0.4096  -0.0363  -0.004602  -0.0124  -0.05235  -0.457  -0.4938
6.532e+09  3.987  -1.295  0.05914  -0.01445  -0.1581  0.008085  -0.5856  -0.3
6.534e+09  3.287  -2.578  0.007737  -0.004239  -0.04715  -0.02995  -0.619  -0.08461
6.535e+09  2.008  -3.534  -0.007514  0.005127  -0.006225  -0.02321  -0.5854  0.08535
6.536e+09  0.4525  -3.992  -0.02709  -0.02846  -0.04262  0.1044  -0.5796  0.2996
6.538e+09  -1.103  -3.786  -0.01395  0.002186  0.008248  0.0118  -0.43  0.4733
6.539e+09  -2.416  -3.165  -0.03746  0.02465  -0.03659  -0.008296  -0.2673  0.6473
6.54e+09  -3.238  -1.954  -0.0305  -0.0003359  0.04313  -0.01773  -0.0449  0.6903
6.541e+09  -3.741  -0.573  -0.007375  0.01003  -0.01986  0.03596  0.1803  0.6801
6.542e+09  -3.49  0.8578  -0.00683  0.01244  -0.02845  -0.03449  0.4741  0.5564
6.544e+09  -2.966  2.117  0.008427  0.008435  0.1248  -0.04062  0.5926  0.388
6.545e+09  -1.884  2.953  0.003142  -0.01775  0.00955  -0.0586  0.6994  0.155
6.546e+09  -0.6639  3.337  0.009908  0.01537  0.02964  0.06931  0.7033  -0.054
6.548e+09  0.6188  3.283  -0.008539  -0.01949  0.03867  -0.006703  0.6158  -0.3077
6.549e+09  1.774  2.77  -0.01163  -0.0006072  -0.06738  -0.1183  0.5142  -0.5321
6.55e+09  2.609  1.943  0.01055  0.01251  -0.03561  0.04206  0.2846  -0.7032
6.551e+09  3.002  0.8143  0.01025  0.0219  0.03645  -0.02891  0.0802  -0.7195
6.552e+09  3.01  -0.3652  0.01938  0.003077  -0.003356  -0.02912  -0.2452  -0.7117
6.554e+09  2.731  -1.39  0.009759  0.006511  0.05672  0.04741  -0.4514  -0.6362
6.555e+09  1.903  -2.232  -0.02491  -0.03176  -0.0274  0.005165  -0.6063  -0.3993
