# Hz S RI R 50
6.25e+09  0.06561  -0.8761  0.01246  -0.02412  0.001684  -0.01907  0.1707  0.4574
6.251e+09  -0.3055  -0.8902  -0.02673  -0.03211  0.03754  -0.02613  0.3702  0.4196
6.252e+09  -0.6007  -0.7449  -0.02372  -0.000404  -0.03077  -0.002099  0.5235  0.2548
6.254e+09  -0.7904  -0.522  0.0009141  0.008042  0.05162  -0.02312  0.583  0.01611
6.255e+09  -0.9022  -0.1825  0.01066  -0.01667  -0.02061  -0.01862  0.5952  -0.2158
6.256e+09  -0.8679  0.1369  -0.0239  0.007357  0.004075  0.001319  0.4431  -0.4273
6.258e+09  -0.7415  0.5567  -0.01107  -0.005525  -0.008871  -0.03976  0.2616  -0.6126
6.259e+09  -0.5724  0.6942  0.01662  -0.01093  0.05601  0.03448  0.01059  -0.698
6.26e+09  -0.3218  0.821  0.008554  -0.005884  0.03487  0.01024  -0.2234  -0.6709
6.261e+09  0.00293  0.9075  0.01179  0.01104  0.004301  0.02128  -0.4823  -0.5567
6.262e+09  0.3679  0.859  0.03687  -0.01262  -0.02552  0.02352  -0.6022  -0.3763
6.264e+09  0.6528  0.6427  0.01891  0.006649  -0.01924  0.004069  -0.7031  -0.1049
6.265e+09  0.81  0.3593  0.01363  -0.00467  -0.007409  -0.03832  -0.6906  0.1187
6.266e+09  0.9287  0.06407  0.004015  -0.01526  -0.008877  0.05919  -0.626  0.3884
6.268e+09  0.9071  -0.2121  0.01194  -0.01784  0.0469  -0.05985  -0.4317  0.5917
6.269e+09  0.7012  -0.5423  0.01814  -0.02106  0.01725  -0.009879  -0.2239  0.7045
6.27e+09  0.5035  -0.7437  -0.02691  0.02968  -0.03251  0.03405  0.06742  0.7484
6.271e+09  0.1252  -0.8696  -0.0002173  -0.004121  -0.03702  0.007121  0.2871  0.7046
6.272e+09  -0.1262  -0.9069  -0.02855  0.04216  -0.03842  0.008813  0.5601  0.5154
6.274e+09  -0.427  -0.7882  -0.01269  -0.0122  -0.04182  0.02618  0.6949  0.2992
6.275e+09  -0.6843  -0.6177  -0.01569  0.01024  0.04649  0.01755  0.7424  0.02567
6.276e+09  -0.8371  -0.2719  -0.004016  -0.04209  -0.00837  0.03095  0.7123  -0.1931
6.278e+09  -0.9195  0.06932  0.01092  -0.0008011  -0.006405  -0.06547  0.6106  -0.4273
6.279e+09  -0.8178  0.3183  -0.0103  -0.008547  -0.06252  0.01085  0.4596  -0.6509
6.28e+09  -0.65  0.6246  0.001398  -0.001036  -0.008117  0.004895  0.1599  -0.7722
6.281e+09  -0.4055  0.7902  0.009904  -0.02702  0.007255  0.0387  -0.0858  -0.7913
6.282e+09  -0.08407  0.8924  0.01717  -0.004939  0.03491  0.01948  -0.3532  -0.6756
6.284e+09  0.1916  0.8237  0.01656  0.01134  0.03449  0.03357  -0.5887  -0.5123
6.285e+09  0.5185  0.7311  0.004105  -0.01669  0.005555  0.004755  -0.757  -0.2871
6.286e+09  0.7169  0.4367  -0.01095  0.02375  0.04842  0.02289  -0.7815  0.001343
6.288e+09  0.9028  0.2061  0.02221  -0.0027  0.005344  0.03277  -0.7709  0.2394
6.289e+09  0.8967  -0.06934  -0.007221  0.005542  -0.04376  0.05349  -0.6278  0.5125
6.29e+09  0.844  -0.3881  -0.01249  -0.009083  -0.04319  0.01779  -0.4075  0.6909
6.291e+09  0.5782  -0.65  -0.0001999  0.005347  -0.01977  0.006686  -0.1415  0.7886
6.292e+09  0.3293  -0.8693  -0.03219  -0.01788  0.03101  0.02652  0.1104  0.8038
6.294e+09  -0.0422  -0.8714  0.009414  0.01729  -0.01639  0.001621  0.4034  0.7083
6.295e+09  -0.286  -0.8666  0.01928  -0.01849  0.02921  0.06058  0.6342  0.5333
6.296e+09  -0.5896  -0.6945  -0.03449  -0.01003  -0.01874  -0.02282  0.7651  0.3124
6.298e+09  -0.7598  -0.4356  0.01162  -0.01014  -0.04926  0.02877  0.821  -0.02289
6.299e+09  -0.9172  -0.1558  -0.02159  0.01216  -0.0245  -0.01697  0.778  -0.2898
6.3e+09  -0.9001  0.1046  -0.01486  -1.217e-05  -0.0001251  -0.03445  0.6381  -0.5175
6.301e+09  -0.7968  0.523  0.03092  -0.007119  0.03072  -0.0596  0.4331  -0.7096
6.302e+09  -0.5495  0.7245  -0.02814  0.01277  0.05556  -0.004612  0.1651  -0.8537
6.304e+09  -0.2637  0.8109  -0.001592  -0.0251  -0.03531  -0.03003  -0.1285  -0.8245
6.305e+09  0.005104  0.8721  -0.03392  0.002674  0.03112  0.008303  -0.4058  -0.7079
6.306e+09  0.336  0.8171  -0.01084  -0.008977  -0.04095  0.01116  -0.6526  -0.5505
6.308e+09  0.6133  0.6317  0.02778  0.01931  0.02193  -0.009198  -0.8062  -0.2959
6.309e+09  0.8177  0.3858  0.01334  -0.002695  0.02816  0.02005  -0.8493  -0.0292
6.31e+09  0.8826  0.05847  -0.01398  0.0142  -0.02863  0.009531  -0.8007  0.3034
6.311e+09  0.8958  -0.2459  -0.0001904  -0.0032  -0.01068  0.01668  -0.6777  0.555
6.312e+09  0.7454  -0.5328  0.01568  0.001847  -0.02306  -0.01307  -0.4681  0.6993
6.314e+09  0.4962  -0.7161  -0.008954  0.007272  -0.01837  0.04181  -0.1596  0.8616
6.315e+09  0.1728  -0.9088  0.01079  0.0173  0.0211  -0.0003226  0.1659  0.8586
6.316e+09  -0.1459  -0.9019  0.01184  0.01605  -0.05524  0.03621  0.4288  0.7409
6.318e+09  -0.459  -0.7844  -0.01192  -0.0275  -0.03611  0.009857  0.6887  0.5756
6.319e+09  -0.7117  -0.5392  -0.001555  0.01429  0.001305  -0.009707  0.8079  0.3144
6.32e+09  -0.8034  -0.3295  -0.04315  0.03036  0.03589  0.0269  0.8717  0.03051
6.321e+09  -0.8699  0.02903  -0.01278  0.003751  -0.0327  0.06018  0.833  -0.2914
6.322e+09  -0.8317  0.2865  -0.002838  0.02385  0.007475  -0.005135  0.6772  -0.5741
6.324e+09  -0.6379  0.5598  -0.02306  -0.01502  -0.004664  -0.02223  0.4494  -0.724
6.325e+09  -0.4112  0.8159  0.001198  0.008079  0.04625  0.01218  0.2196  -0.8868
6.326e+09  -0.1045  0.9214  0.02303  -0.01606  -0.02634  -0.04074  -0.1463  -0.8424
6.328e+09  0.1576  0.8642  0.009997  0.003558  -0.003684  0.0369  -0.47  -0.8181
6.329e+09  0.554  0.7508  0.0111  0.01385  -0.0412  0.03561  -0.6789  -0.5906
6.33e+09  0.7961  0.5156  -0.008019  0.005053  -0.01591  -0.01672  -0.8184  -0.3316
6.331e+09  0.9165  0.2713  -0.01228  -0.02212  0.0129  0.004868  -0.879  -0.003116
6.332e+09  0.8924  -0.1216  -0.001898  0.001439  0.03742  -0.03466  -0.835  0.2341
6.334e+09  0.8029  -0.4111  0.006209  0.01663  -0.01381  -0.02651  -0.684  0.5365
6.335e+09  0.605  -0.6697  0.01223  -0.01585  -0.01355  -0.0213  -0.4583  0.7551
6.336e+09  0.3306  -0.8777  -0.02671  0.03718  0.02791  0.004203  -0.2057  0.9205
6.338e+09  0.04761  -0.848  -0.04114  0.0009108  0.01776  -0.001528  0.1032  0.9258
6.339e+09  -0.2633  -0.8769  0.004444  0.01293  0.02428  -0.03978  0.426  0.8286
6.34e+09  -0.578  -0.7293  -0.008692  -0.005118  -0.007187  -0.04132  0.7156  0.6084
6.341e+09  -0.8073  -0.5089  0.01183  0.02427  -0.01147  0.01187  0.87  0.3556
6.342e+09  -0.9096  -0.1332  -0.0039  -0.0257  -0.0002839  -0.01432  0.9225  0.01385
6.344e+09  -0.9192  0.1786  -0.01855  -0.0241  0.005449  0.008339  0.9113  -0.2615
6.345e+09  -0.8083  0.4254  -0.01091  0.01722  0.003073  -0.003603  0.7612  -0.5618
6.346e+09  -0.561  0.7082  0.003039  0.004225  -0.03395  0.02421  0.5095  -0.7475
6.348e+09  -0.2697  0.8685  0.03299  0.003567  0.01219  0.02098  0.1791  -0.8843
6.349e+09  0.09433  0.925  -0.01398  -0.01857  -0.004974  -0.0003204  -0.08448  -0.9126
6.35e+09  0.3899  0.8611  -0.01526  -0.009112  0.03484  -0.01427  -0.4332  -0.8441
6.351e+09  0.6985  0.609  0.01082  -0.007918  -0.02074  0.01895  -0.6813  -0.6554
6.352e+09  0.8367  0.3709  -0.005251  -0.01062  0.009983  0.000336  -0.8684  -0.3845
6.354e+09  0.9272  -0.002881  -0.0185  0.03324  -0.001089  0.002291  -0.951  -0.05231
6.355e+09  0.8842  -0.3209  0.02175  0.05761  -0.007325  -0.02255  -0.9123  0.2683
6.356e+09  0.7185  -0.5591  -0.006554  -0.02994  -0.01736  -0.001489  -0.7301  0.587
6.358e+09  0.4706  -0.826  -0.04016  -0.005866  0.00426  -0.02197  -0.5097  0.7838
6.359e+09  0.1322  -0.9529  0.009668  -0.02435  -0.007132  -0.02791  -0.2254  0.905
6.36e+09  -0.1707  -0.9212  0.01538  -0.01252  0.02914  0.01783  0.1078  0.9463
6.361e+09  -0.5167  -0.7937  0.04078  0.01738  -0.01716  0.05954  0.3954  0.8572
6.362e+09  -0.73  -0.5904  0.03384  0.01184  0.05008  0.006772  0.6935  0.6726
6.364e+09  -0.9278  -0.3048  -0.002368  -0.0447  0.006779  -0.03505  0.8219  0.386
6.365e+09  -0.9374  0.1105  0.01293  0.007697  0.04248  -0.02596  0.9775  0.07789
6.366e+09  -0.8626  0.4056  -0.006915  -0.02242  0.01597  0.03962  0.9315  -0.2547
6.368e+09  -0.6722  0.6907  -0.01982  -0.0133  -0.02197  0.006822  0.756  -0.5625
6.369e+09  -0.3693  0.8763  -0.01144  -0.01578  -0.007188  0.008304  0.5192  -0.7896
6.37e+09  -0.05554  0.9187  -0.04458  0.01979  -0.02313  0.07003  0.2084  -0.942
6.371e+09  0.3037  0.9004  -0.01134  -0.02242  0.01398  0.02649  -0.09401  -0.9363
6.372e+09  0.5358  0.7334  0.01617  0.02511  0.0153  -0.009164  -0.432  -0.9012
6.374e+09  0.7876  0.5168  -0.02751  -0.05916  0.02465  -0.01821  -0.6369  -0.694
6.375e+09  0.9353  0.12  -0.005503  -0.01638  0.00215  -0.006745  -0.8803  -0.3946
6.376e+09  0.969  -0.1404  -0.00251  -0.02768  0.04185  0.03047  -0.955  -0.1094
6.378e+09  0.7836  -0.5193  0.0276  -0.03442  -0.001671  -0.02236  -0.9082  0.2156
6.379e+09  0.6117  -0.7807  -0.0003787  -0.001688  0.0002229  0.06803  -0.7833  0.5311
6.38e+09  0.2943  -0.9234  0.01034  -0.01506  -0.05705  -0.008491  -0.5818  0.7727
6.381e+09  -0.08793  -0.9863  0.01309  0.00182  0.007976  0.02896  -0.2537  0.9002
6.382e+09  -0.4165  -0.8705  -0.001991  -0.02471  0.03593  0.01092  0.03983  0.9304
6.384e+09  -0.7372  -0.6605  0.006291  -0.01223  0.04096  0.008355  0.3686  0.8793
6.385e+09  -0.8977  -0.3295  -0.004315  0.005604  0.01481  0.04801  0.6147  0.6468
6.386e+09  -0.9976  -0.02342  0.018  0.003183  0.006045  -0.02866  0.8247  0.444
6.388e+09  -0.8959  0.2809  -0.03567  0.00908  -0.0007204  -0.02249  0.9375  0.1099
6.389e+09  -0.7902  0.6514  0.006083  -0.001385  0.01316  -0.002402  0.8896  -0.1693
6.39e+09  -0.5146  0.8477  0.03095  -0.03329  0.01418  0.03714  0.8018  -0.5279
6.391e+09  -0.1056  0.9893  0.02428  -0.0002973  -0.04273  0.01877  0.5991  -0.6956
6.392e+09  0.2166  0.9895  -0.01604  -0.0001695  -0.03533  -0.03205  0.2651  -0.8917
6.394e+09  0.5584  0.8027  -0.01137  -0.005858  0.0228  0.03429  -0.01912  -0.9325
6.395e+09  0.8242  0.608  0.0117  -0.002686  0.004599  0.0451  -0.3591  -0.8858
6.396e+09  0.9659  0.1892  -0.02485  0.02129  0.04164  -0.01964  -0.6006  -0.6686
6.398e+09  1.005  -0.09557  0.01463  0.01149  -0.03663  0.004606  -0.8367  -0.4712
6.399e+09  0.8782  -0.4571  0.008041  -0.008763  -0.0226  0.05251  -0.8941  -0.1316
6.4e+09  0.6908  -0.7778  0.009335  -0.02772  -0.006043  -0.02765  -0.8843  0.158
6.401e+09  0.3044  -0.8955  0.03003  -0.02482  0.01169  0.01289  -0.8163  0.4748
6.402e+09  0.02267  -0.9532  -0.007521  0.01082  -0.009784  0.02084  -0.5478  0.7107
6.404e+09  -0.3828  -0.87  0.004324  0.01154  -0.03947  0.003944  -0.2909  0.8657
6.405e+09  -0.7005  -0.7138  0.001672  -0.04427  0.01439  0.07665  0.03059  0.9378
6.406e+09  -0.9297  -0.4778  0.002292  0.004489  0.02035  0.01259  0.3471  0.8634
6.408e+09  -1.014  -0.1304  0.03755  -0.0169  0.01518  -0.00602  0.6138  0.714
6.409e+09  -0.9717  0.2642  0.01969  -0.0366  0.01566  -0.002706  0.7673  0.4483
6.41e+09  -0.795  0.5429  -0.006928  -0.005676  0.01553  0.0371  0.9088  0.1356
6.411e+09  -0.5289  0.8428  0.07085  -0.02704  -0.05104  -0.05158  0.9359  -0.07828
6.412e+09  -0.1684  0.9495  -0.03497  0.02938  -0.03157  0.00619  0.7732  -0.4643
6.414e+09  0.1527  0.9703  0.01193  0.01447  -0.05726  -0.01642  0.625  -0.6787
6.415e+09  0.5004  0.8464  0.01598  0.02286  0.02144  0.02338  0.3479  -0.844
6.416e+09  0.7524  0.634  -0.004395  0.008303  0.003681  -0.0156  0.05644  -0.8945
6.418e+09  0.9831  0.2643  0.001564  -0.01985  0.04606  0.0355  -0.2682  -0.8519
6.419e+09  1.019  -0.02809  0.006755  -0.02195  0.02085  0.01789  -0.5229  -0.6654
6.42e+09  0.9255  -0.4484  0.04383  -0.01443  -0.007365  -0.02589  -0.7513  -0.4781
6.421e+09  0.7042  -0.7147  0.008337  0.06372  -0.02276  0.003099  -0.8565  -0.193
6.422e+09  0.3882  -0.9017  0.009751  -0.02424  0.02161  -0.04431  -0.8585  0.09737
6.424e+09  0.06714  -1.009  -0.01438  0.006483  0.001338  -0.007615  -0.7956  0.38
6.425e+09  -0.2644  -0.9666  -0.03437  5.944e-05  -0.02452  0.01662  -0.5572  0.6222
6.426e+09  -0.5951  -0.756  -0.005758  -0.01533  -0.003777  -0.009794  -0.3249  0.8066
6.428e+09  -0.8009  -0.4964  0.02052  0.03277  -0.02217  -0.06384  -0.002875  0.8877
6.429e+09  -0.9617  -0.1895  0.03199  0.01311  0.01408  0.005151  0.2345  0.8347
6.43e+09  -0.9594  0.1987  -0.05574  -0.005874  0.01021  -0.007018  0.5033  0.6444
6.431e+09  -0.8619  0.4862  0.03005  -0.04627  -0.008637  0.00817  0.709  0.5209
6.432e+09  -0.6134  0.7605  0.01591  0.003512  0.002935  0.01678  0.8809  0.2056
6.434e+09  -0.3138  0.9825  -0.02388  -0.04191  0.01353  -0.001487  0.8003  -0.1376
6.435e+09  0.04438  0.9762  -0.02224  -0.03104  0.03202  0.003335  0.7643  -0.3588
6.436e+09  0.4153  0.8943  0.02113  -0.02011  0.03302  -0.02228  0.5913  -0.6425
6.438e+09  0.6221  0.7053  0.02808  -0.03378  0.003535  0.002692  0.3476  -0.8059
6.439e+09  0.8171  0.4088  -0.02345  0.01163  -0.0009602  0.01184  0.05065  -0.905
6.44e+09  0.919  0.02455  0.03595  -0.01156  -0.02428  -0.02759  -0.2065  -0.8531
6.441e+09  0.8728  -0.2981  0.0545  -0.01971  -0.06121  -0.008453  -0.504  -0.674
6.442e+09  0.7799  -0.5785  0.01893  0.02624  0.02436  0.04296  -0.6965  -0.5034
6.444e+09  0.4957  -0.7841  -0.02183  -0.01985  0.03054  -0.02662  -0.8294  -0.2182
6.445e+09  0.1556  -0.9714  -0.03548  0.03338  -0.01658  0.01577  -0.8013  0.128
6.446e+09  -0.1549  -0.9567  -0.007923  0.02901  -0.007514  -0.0192  -0.8006  0.3595
6.448e+09  -0.4279  -0.7794  -0.004667  -0.03835  0.05696  -0.03894  -0.5819  0.6361
6.449e+09  -0.7189  -0.5887  -0.01478  -0.01661  -0.008534  -0.004824  -0.3265  0.7687
6.45e+09  -0.8671  -0.3034  -0.02102  0.002053  0.0008505  0.02  -0.04772  0.826
6.451e+09  -0.898  -0.04425  -0.0368  -0.001684  -0.02777  0.00493  0.2213  0.842
6.452e+09  -0.853  0.3451  0.02702  -0.006914  -0.005185  -0.02438  0.4679  0.6769
6.454e+09  -0.6247  0.5818  0.001618  -0.03535  0.04909  0.02298  0.7022  0.4498
6.455e+09  -0.3393  0.8562  -0.00223  0.003732  0.002754  0.002269  0.7925  0.2012
6.456e+09  -0.09551  0.9024  -0.02338  0.009213  -0.009491  0.03427  0.8017  -0.09649
6.458e+09  0.2179  0.879  -0.01678  -0.01915  -0.04481  0.01501  0.774  -0.383
6.459e+09  0.4851  0.7302  0.007722  -0.0336  0.04293  -0.04412  0.5501  -0.595
6.46e+09  0.7336  0.5212  -0.04269  -0.05158  0.0003222  -0.02456  0.3306  -0.7944
6.461e+09  0.9114  0.2104  0.01508  -0.009952  -0.01619  0.02762  0.05178  -0.7949
6.462e+09  0.8956  -0.139  0.0355  -0.02494  0.02131  -0.00173  -0.2082  -0.774
6.464e+09  0.8882  -0.4222  -0.01158  -0.0142  0.05184  0.02529  -0.4287  -0.6393
6.465e+09  0.6605  -0.6164  0.0009042  -0.0184  -0.01496  0.00645  -0.6399  -0.4563
6.466e+09  0.3104  -0.8046  0.006835  0.02796  0.0235  -0.01576  -0.8063  -0.1915
6.468e+09  0.06113  -0.8832  0.007109  0.02557  0.007858  -0.01635  -0.7898  0.1018
6.469e+09  -0.2783  -0.8182  -0.006455  0.03658  0.03997  -0.01424  -0.7423  0.3678
6.47e+09  -0.5248  -0.7273  -0.0004971  0.03305  0.00908  -0.02329  -0.5705  0.5562
6.471e+09  -0.7518  -0.441  -0.001574  -0.02159  -0.01952  0.01329  -0.3245  0.7175
6.472e+09  -0.8357  -0.1536  0.005271  0.009229  -0.03316  -0.005771  -0.07498  0.7918
6.474e+09  -0.8622  0.1329  -0.005241  0.05185  0.02502  -0.02502  0.2443  0.7471
6.475e+09  -0.7349  0.4834  0.0001771  -0.004161  0.01013  0.01369  0.4396  0.6429
6.476e+09  -0.5722  0.6639  0.009574  -0.02158  0.04063  0.01523  0.6297  0.4592
6.478e+09  -0.324  0.8746  0.006211  0.02661  -0.01327  0.01808  0.7363  0.1969
6.479e+09  0.02189  0.9068  0.03671  0.03026  0.01743  0.03211  0.8424  -0.05708
6.48e+09  0.2994  0.8125  0.01579  -0.008843  0.009675  -0.02181  0.7063  -0.3464
6.481e+09  0.5768  0.728  0.001664  -0.0144  -0.02914  0.04764  0.5358  -0.5691
6.482e+09  0.7518  0.4543  0.003952  0.001628  -0.02834  0.02031  0.3277  -0.747
6.484e+09  0.8765  0.1284  -0.006173  0.002483  0.04583  -0.01784  0.02557  -0.7825
6.485e+09  0.8589  -0.1877  0.03545  3.763e-05  -0.01895  -0.01223  -0.2403  -0.7668
6.486e+09  0.7394  -0.4722  0.001551  0.007854  -0.01304  -0.01892  -0.4605  -0.6496
6.488e+09  1.261  -0.5282  0.01363  -0.001374  -0.3958  -0.5618  -0.6149  -0.4552
6.489e+09  0.2736  -0.8447  0.04203  0.02525  0.002641  -0.02423  -0.7673  -0.222
6.49e+09  -0.02612  -0.9171  0.0009053  0.01865  -0.05981  0.002402  -0.7662  0.07104
6.491e+09  -0.3459  -0.8206  0.08332  0.0104  -0.01288  -0.04903  -0.7055  0.3321
6.492e+09  -0.651  -0.5883  -0.02044  -0.009238  -0.01602  -0.009251  -0.5504  0.5712
6.494e+09  -0.8271  -0.3845  -0.01807  0.03284  0.01552  0.04315  -0.2845  0.6589
6.495e+09  -0.8535  -0.09501  0.01701  -0.01531  0.02247  0.006392  -0.09125  0.7848
6.496e+09  -0.8457  0.2235  0.02483  -0.008776  0.01447  0.05101  0.2463  0.7107
6.498e+09  -0.7079  0.4715  -0.0005309  0.02875  -0.0003755  0.02705  0.479  0.6496
6.499e+09  -0.5494  0.7098  -0.02172  0.02215  -0.004388  0.05195  0.662  0.4296
6.5e+09  -0.1711  0.4759  0.003848  0.01087  -0.03066  0.0362  0.7669  0.1362
6.501e+09  0.07479  0.8482  0.02662  -0.0029  -0.02106  -0.01483  0.7657  -0.09203
6.502e+09  0.343  0.8153  -0.03425  0.007629  0.03567  0.002193  0.7016  -0.3715
6.504e+09  0.6327  0.6234  0.02394  0.03388  0.05402  0.0292  0.5139  -0.596
6.505e+09  0.7931  0.4391  -0.03044  -0.01393  -0.005152  0.0361  0.2629  -0.6981
6.506e+09  0.8887  0.1285  0.0006094  -0.01231  -0.05499  -0.008507  0.04877  -0.7764
6.508e+09  0.8652  -0.2502  -0.005563  -0.001718  -0.02941  -0.0003397  -0.2429  -0.7179
6.509e+09  0.7252  -0.5295  -0.01335  -0.004541  -0.0147  0.009772  -0.4856  -0.6041
6.51e+09  0.5545  -0.7116  0.01461  -0.02212  -0.03997  -0.04933  -0.6761  -0.361
6.511e+09  0.1501  -0.8892  -0.02005  -0.003142  -0.01363  -0.01087  -0.7403  -0.1848
6.512e+09  -0.08829  -0.8618  -0.008395  -0.01298  0.001485  -0.01703  -0.7524  0.1261
6.514e+09  -0.4354  -0.8216  -0.007726  -0.01213  0.01352  0.06469  -0.6827  0.3753
6.515e+09  -0.6754  -0.6648  0.04008  -0.008368  -0.03289  -0.02924  -0.4756  0.5703
6.516e+09  -0.8143  -0.3145  0.005661  -0.0103  0.005962  -0.01719  -0.2859  0.6846
6.518e+09  -0.9215  -0.05449  -0.01087  0.02195  -0.03188  -0.03734  -0.01116  0.7661
6.519e+09  -0.8636  0.2392  0.01456  0.008973  0.04796  -0.008962  0.259  0.674
6.52e+09  -0.7773  0.5236  -0.008757  -0.01741  0.01274  -0.009833  0.5053  0.568
6.521e+09  -0.5184  0.8011  -0.003609  0.001084  0.002431  0.01329  0.6672  0.3709
6.522e+09  -0.1968  0.8594  -0.03527  0.02968  0.04  0.0311  0.7155  0.124
6.524e+09  0.143  0.9299  0.0199  0.002551  -0.01888  0.004346  0.7026  -0.1506
6.525e+09  0.4251  0.8487  -0.004663  0.002185  0.05789  -0.01522  0.6112  -0.3712
6.526e+09  0.705  0.6019  -0.006651  0.01463  0.02032  0.01078  0.4577  -0.5688
6.528e+09  0.8445  0.3289  0.01287  -0.01099  -0.0114  0.0006283  0.195  -0.6851
6.529e+09  0.949  0.02574  0.007224  0.02316  0.103  0.02645  -0.05474  -0.6855
6.53e+09  0.9334  -0.3061  0.02685  -0.01045  -0.009365  0.02433  -0.2913  -0.6457
6.531e+09  0.7062  -0.5763  0.006893  0.01088  0.02909  0.02796  -0.4583  -0.5077
6.532e+09  0.5083  -0.8284  0.01405  0.002349  -0.01878  0.02962  -0.5881  -0.2504
6.534e+09  0.1313  -0.9946  0.03284  -0.01927  -0.01699  -0.02413  -0.6659  -0.08888
6.535e+09  -0.1744  -0.9719  0.005976  -0.0002904  -0.02913  -0.002283  -0.6164  0.113
6.536e+09  -0.4798  -0.8757  0.002271  -0.00286  -0.04854  0.008681  -0.5741  0.296
6.538e+09  -0.7752  -0.5813  0.01102  -0.02491  -0.007261  0.03711  -0.4334  0.4664
6.539e+09  -0.952  -0.3012  -0.03165  -0.00238  -0.03284  0.0198  -0.2549  0.6056
6.54e+09  -1.011  0.008424  -0.01301  -0.02234  0.01364  -0.001879  -0.05502  0.6883
6.541e+09  -0.9101  0.4014  -0.007167  0.01702  0.001304  0.01998  0.1796  0.6342
6.542e+09  -0.739  0.6819  0.02508  0.008628  -0.01023  0.004187  0.4171  0.5416
6.544e+09  -0.4059  0.8696  -0.01271  -0.04884  -0.05338  0.02162  0.5886  0.4135
6.545e+09  -0.06166  0.9457  0.001752  -0.004809  -0.01109  -0.0791  0.7182  0.1428
6.546e+09  0.2472  1  -0.01184  0.003494  -0.006882  -0.01214  0.7349  -0.07575
6.548e+09  0.5681  0.8198  -0.01611  0.007999  -0.01952  0.008203  0.6669  -0.352
6.549e+09  0.8549  0.591  -0.02146  0.001759  -0.005302  -0.01594  0.4689  -0.5473
6.55e+09  1.036  0.2447  0.01396  -0.02845  0.03286  -0.002909  0.2996  -0.6978
