# Hz S RI R 50
6.25e+09  0.07965  0.8941  0.01365  -0.0139  -0.06839  0.02174  0.1749  0.4739
6.251e+09  0.4366  0.7795  -0.008337  0.02183  -0.06667  -0.02755  0.3906  0.3757
6.252e+09  0.7081  0.6102  -0.02133  -0.01664  0.06574  0.01996  0.526  0.203
6.254e+09  0.8875  0.3135  -0.03609  0.01835  0.0303  -0.02428  0.589  0.02581
6.255e+09  0.965  -0.01438  0.01271  0.02532  0.01076  0.005842  0.5869  -0.2246
6.256e+09  0.8727  -0.2625  0.02305  -0.01664  -0.01837  -0.0009303  0.4541  -0.4549
6.258e+09  0.7149  -0.6522  0.02616  0.003083  -0.005319  -0.0139  0.3025  -0.6514
6.259e+09  0.5363  -0.7809  -0.008366  0.006463  -0.05656  0.01571  0.03216  -0.7182
6.26e+09  0.2116  -0.8996  -0.0228  0.008358  -0.01485  -0.01885  -0.2087  -0.6418
6.261e+09  -0.1482  -0.95  0.0123  0.01187  0.01815  -0.005174  -0.4607  -0.5161
6.262e+09  -0.4728  -0.7734  -0.003728  0.03054  0.09252  -0.02396  -0.6069  -0.3423
6.264e+09  -0.7183  -0.6207  0.01835  -0.03408  -0.06041  -0.03101  -0.7297  -0.1092
6.265e+09  -0.9355  -0.2902  -0.00833  0.02443  -0.03949  0.01858  -0.7309  0.149
6.266e+09  -0.8903  0.08232  -0.003203  -0.005806  -0.01298  -0.01929  -0.61  0.4173
6.268e+09  -0.8351  0.2802  0.004662  0.001731  -0.02054  0.0114  -0.4366  0.583
6.269e+09  -0.7427  0.6198  -0.00233  -0.008717  -0.003146  -0.05559  -0.2194  0.7297
6.27e+09  -0.4521  0.7867  -0.01622  -0.01392  0.01151  -0.06085  0.05637  0.7237
6.271e+09  -0.1038  0.8925  0.007217  0.01505  -0.01473  0.01203  0.3381  0.6849
6.272e+09  0.1837  0.8886  -0.01982  0.002755  0.04856  0.01334  0.5555  0.5248
6.274e+09  0.4595  0.7929  -0.005637  0.004724  -0.04655  0.03255  0.6923  0.3051
6.275e+09  0.7249  0.5149  -0.009599  -0.009066  0.005514  0.005572  0.7523  0.03666
6.276e+09  0.8315  0.2415  -0.01235  0.01641  0.02093  -0.006409  0.6994  -0.2147
6.278e+09  0.9042  -0.02457  -0.001876  -0.01288  0.02548  0.03201  0.6082  -0.4823
6.279e+09  0.8367  -0.3659  0.02502  0.01515  0.002054  -0.03464  0.4213  -0.6333
6.28e+09  0.6419  -0.6464  0.004656  0.0301  -0.001902  0.02837  0.1658  -0.7956
6.281e+09  0.3714  -0.8441  -0.03541  -0.02235  0.0266  -0.02  -0.1225  -0.7839
6.282e+09  0.04856  -0.9458  -0.02072  0.003423  0.04094  0.04844  -0.3751  -0.6956
6.284e+09  -0.2721  -0.9303  -0.01821  0.007173  -0.008496  -0.04422  -0.6229  -0.5117
6.285e+09  -0.587  -0.7535  0.01205  0.0006149  0.01167  -0.01475  -0.7534  -0.2778
6.286e+09  -0.7855  -0.4968  -0.02093  -0.02444  -0.007536  0.01981  -0.8164  -0.05058
6.288e+09  -0.89  -0.1943  0.004634  0.03628  0.01079  -0.007285  -0.7524  0.2459
6.289e+09  -0.9148  0.1188  -0.01195  0.01962  0.02513  0.002851  -0.6324  0.503
6.29e+09  -0.8878  0.3989  -0.01108  0.003099  -0.02138  0.01008  -0.4306  0.6946
6.291e+09  -0.6405  0.7097  0.004318  0.02278  -0.003227  0.02565  -0.142  0.7793
6.292e+09  -0.3411  0.8576  0.0133  -0.009078  0.02255  0.0196  0.12  0.7952
6.294e+09  -0.005079  0.9769  0.02366  0.002936  -0.008184  -0.006753  0.3883  0.7249
6.295e+09  0.2864  0.8694  -0.01649  -0.009993  -0.01685  0.0256  0.6313  0.5639
6.296e+09  0.5926  0.723  -0.01773  0.01096  0.1209  0.03015  0.8021  0.3115
6.298e+09  0.8241  0.514  0.03942  -0.03904  0.01675  -0.03167  0.8421  -0.005842
6.299e+09  0.9003  0.1547  -0.02029  0.0309  -0.01658  -0.02933  0.7953  -0.2915
6.3e+09  0.9053  -0.09297  0.004792  0.01205  0.0455  -0.0004353  0.6392  -0.544
6.301e+09  0.8632  -0.4668  -0.008045  -0.01581  0.0268  0.05082  0.3886  -0.7316
6.302e+09  0.669  -0.7597  0.01159  0.01973  4.455e-05  -0.05633  0.1481  -0.8071
6.304e+09  0.3478  -0.9222  -0.003028  -0.006355  -0.03844  0.04902  -0.1914  -0.825
6.305e+09  0.05109  -0.9809  0.0005354  -0.03571  0.000686  -0.05016  -0.4401  -0.711
6.306e+09  -0.354  -0.9127  0.01739  0.01115  -0.01298  0.0308  -0.6304  -0.5307
6.308e+09  -0.5973  -0.7739  -0.01795  7.966e-05  -0.05116  -0.001738  -0.8033  -0.2962
6.309e+09  -0.863  -0.4761  -0.0104  0.006985  0.01671  -0.02669  -0.9173  0.03792
6.31e+09  -1.009  -0.119  -0.007524  -0.02879  -0.02856  0.001297  -0.7996  0.2956
6.311e+09  -0.9156  0.2139  -0.01765  -0.02863  -0.02584  0.008155  -0.6449  0.5527
6.312e+09  -0.8594  0.5513  -0.01809  0.0558  0.01922  0.03819  -0.4378  0.7497
6.314e+09  -0.6171  0.7914  0.01289  0.01041  -0.0117  -0.01092  -0.161  0.8791
6.315e+09  -0.2708  0.9573  0.004639  0.01341  0.04197  0.02409  0.1472  0.8825
6.316e+09  0.1081  1.018  0.01423  -0.006093  0.03082  0.004525  0.4441  0.7575
6.318e+09  0.4238  0.9386  -0.01427  0.01222  0.01862  0.04916  0.6583  0.565
6.319e+09  0.7022  0.6862  0.01621  0.0002722  -0.004005  0.01579  0.8234  0.3022
6.32e+09  0.915  0.4531  0.007795  -0.01068  0.001122  -0.01909  0.9198  0.01607
6.321e+09  1.026  0.08995  -0.03376  0.008664  -0.03044  0.0283  0.8548  -0.2982
6.322e+09  0.98  -0.2814  -0.01638  -0.01574  -0.006594  -0.01328  0.6694  -0.529
6.324e+09  0.8713  -0.615  -0.002868  0.0007304  0.01064  0.02542  0.4511  -0.7582
6.325e+09  0.5918  -0.8865  0.01922  -0.0004176  0.01652  -0.02232  0.1913  -0.9134
6.326e+09  0.1861  -1.048  -0.006623  -0.01051  -0.01709  0.00289  -0.1456  -0.8754
6.328e+09  -0.1492  -1.064  -0.01651  0.02274  0.0229  -0.06119  -0.459  -0.8253
6.329e+09  -0.4956  -0.9419  -0.002194  -0.007894  -0.05498  0.01544  -0.6893  -0.6123
6.33e+09  -0.7688  -0.7171  0.01969  0.007857  -0.03191  0.03057  -0.8521  -0.3156
6.331e+09  -0.9784  -0.4304  -0.00424  -0.0205  -0.07829  0.02852  -0.9411  -0.04372
6.332e+09  -1.058  -0.09662  0.01842  -0.01267  -0.00238  -0.04003  -0.8737  0.2781
6.334e+09  -1.045  0.3425  -0.006955  0.001057  -0.003455  0.007816  -0.7189  0.5364
6.335e+09  -0.8976  0.6335  0.003617  -0.007249  0.01168  -0.03573  -0.4755  0.7832
6.336e+09  -0.5738  0.8943  0.003881  0.004842  0.02274  0.0167  -0.2065  0.9183
6.338e+09  -0.1867  1.049  -0.006567  -0.01376  0.03215  0.02424  0.1354  0.9207
6.339e+09  0.1871  1.099  -0.01031  0.01186  -0.03307  0.04315  0.4284  0.8073
6.34e+09  0.5391  0.9485  0.005166  -0.00471  0.006708  -0.0001883  0.6895  0.6158
6.341e+09  0.8871  0.6583  0.005875  0.008054  0.02697  -0.01365  0.8592  0.3863
6.342e+09  1.037  0.3871  -0.01873  0.01952  0.02653  0.005033  0.9624  0.05166
6.344e+09  1.128  -0.05199  0.01949  -0.01016  0.004986  0.009837  0.8989  -0.2893
6.345e+09  1.062  -0.4321  -0.02243  0.009223  0.01057  0.01596  0.7503  -0.5717
6.346e+09  0.8171  -0.7546  0.01591  -5.444e-05  0.006619  0.005463  0.5152  -0.7736
6.348e+09  0.5125  -1.007  -0.003001  0.02139  -0.0267  -0.0373  0.2367  -0.8956
6.349e+09  0.1704  -1.142  -0.01818  -0.03374  0.02111  0.03385  -0.1239  -0.9136
6.35e+09  -0.242  -1.118  0.01023  -0.006235  -0.03272  -0.04156  -0.4118  -0.8137
6.351e+09  -0.7046  -0.9924  -0.02255  -0.02097  0.03518  -0.05671  -0.7461  -0.6447
6.352e+09  -0.9778  -0.6731  0.007825  0.000472  0.01358  0.06718  -0.854  -0.3414
6.354e+09  -1.155  -0.3265  -0.02604  0.01474  -0.004155  0.03403  -0.9368  -0.06689
6.355e+09  -1.202  0.1124  -0.004432  0.01911  -0.06503  -0.02769  -0.9205  0.2429
6.356e+09  -1.055  0.544  -0.00383  0.021  -0.02088  -0.04075  -0.7637  0.5432
6.358e+09  -0.8588  0.89  0.003339  0.01412  -0.019  -0.0259  -0.5455  0.7828
6.359e+09  -0.5076  1.151  -0.0121  -0.001466  -0.001169  -0.03006  -0.241  0.9319
6.36e+09  -0.09827  1.23  0.002311  0.003222  -0.02045  0.03852  0.1321  0.9202
6.361e+09  0.366  1.187  0.007923  0.01791  0.01383  -0.003538  0.3959  0.8593
6.362e+09  0.7705  0.9666  -0.0227  0.01452  0.01174  0.004508  0.6793  0.6784
6.364e+09  0.9954  0.6731  0.02357  0.001302  -0.01873  0.01072  0.8816  0.3562
6.365e+09  1.228  0.2032  0.007109  0.02501  -0.004001  0.03672  0.9373  0.0705
6.366e+09  1.263  -0.2209  -0.01042  -0.03299  0.05245  0.03341  0.9288  -0.2573
6.368e+09  1.077  -0.6232  -0.03496  -0.025  0.01346  -0.001428  0.7885  -0.5829
6.369e+09  0.8252  -0.9931  -0.01302  -0.04008  0.07254  -0.01623  0.5613  -0.815
6.37e+09  0.4154  -1.228  -0.0178  -0.007653  0.006725  -0.02188  0.2586  -0.9218
6.371e+09  0.01787  -1.307  -0.008784  0.001315  0.02497  -0.03103  -0.07101  -0.9431
6.372e+09  -0.4528  -1.167  -0.01024  0.02051  -0.03669  -0.01762  -0.3912  -0.8778
6.374e+09  -0.9208  -0.9579  -0.02401  -0.01935  0.01591  0.05706  -0.6796  -0.7124
6.375e+09  -1.173  -0.5974  0.02812  -0.005716  -0.002435  0.001068  -0.8906  -0.4097
6.376e+09  -1.301  -0.156  -0.0003522  0.01573  0.02666  -0.03006  -0.9466  -0.09037
6.378e+09  -1.319  0.2978  0.007778  0.02711  -0.004883  0.02219  -0.9232  0.2373
6.379e+09  -1.119  0.7477  -0.01835  -0.02264  0.01799  0.006334  -0.8116  0.5593
6.38e+09  -0.7591  1.071  0.006438  -0.01691  0.02586  0.008581  -0.5632  0.7624
6.381e+09  -0.3212  1.331  0.005962  0.01096  0.005821  -0.02409  -0.2486  0.9042
6.382e+09  0.1801  1.33  0.004083  -0.03676  -0.02846  0.002883  0.07382  0.9749
6.384e+09  0.6749  1.228  0.001359  0.009848  -0.01171  0.01499  0.3894  0.8592
6.385e+09  0.9763  0.9668  0.002871  -0.01459  -0.02544  -0.001329  0.6027  0.6733
6.386e+09  1.252  0.5266  -0.007775  0.002266  -0.01276  -0.007886  0.7976  0.4288
6.388e+09  1.389  -0.01463  -0.05747  0.0005172  -0.01246  -0.02247  0.9187  0.1119
6.389e+09  1.341  -0.4637  0.001734  -0.02349  0.04065  0.007032  0.8945  -0.1785
6.39e+09  1.057  -0.9059  -0.01611  0.01551  0.01214  0.003291  0.8142  -0.5196
6.391e+09  0.6997  -1.206  -0.01425  -0.02142  0.02072  -0.00392  0.5656  -0.7269
6.392e+09  0.2139  -1.403  -0.007576  0.02936  0.01726  0.03084  0.2952  -0.8474
6.394e+09  -0.2524  -1.397  -0.01957  -0.03183  0.0008736  0.02364  0.02441  -0.9147
6.395e+09  -0.7762  -1.215  0.006436  0.02794  -0.01818  0.03144  -0.3333  -0.8913
6.396e+09  -1.175  -0.899  -0.003741  0.002417  0.0008656  -0.02918  -0.5395  -0.7033
6.398e+09  -1.414  -0.3939  0.01741  0.01046  -0.006756  -0.03337  -0.77  -0.4085
6.399e+09  -1.491  0.09959  0.0177  0.01002  0.01657  0.01271  -0.8774  -0.1509
6.4e+09  -1.394  0.5869  0.0385  0.005107  -0.01405  -0.01039  -0.9291  0.171
6.401e+09  -1.051  1.008  0.008678  0.04312  0.02277  -0.05024  -0.7848  0.5245
6.402e+09  -0.6421  1.31  -0.02802  -0.0055  -0.03665  0.005207  -0.6354  0.682
6.404e+09  -0.07951  1.472  -0.01713  0.03451  -0.007923  -0.01732  -0.3154  0.8686
6.405e+09  0.3827  1.42  0.006279  0.004271  0.04118  -0.04203  0.02043  0.9606
6.406e+09  0.8918  1.155  -0.02517  0.007477  0.02777  -0.02365  0.3365  0.8707
6.408e+09  1.252  0.8496  0.002807  -0.009627  0.02446  0.01931  0.5275  0.7071
6.409e+09  1.446  0.3165  -0.00824  -0.03573  0.009437  -0.02928  0.7874  0.4682
6.41e+09  1.471  -0.2416  0.04343  0.0006967  -0.006808  -0.04401  0.9126  0.1395
6.411e+09  1.297  -0.683  -0.04977  -0.04277  0.02094  -0.03922  0.9214  -0.152
6.412e+09  0.9729  -1.178  0.06266  0.01302  -0.01184  0.00882  0.7604  -0.4407
6.414e+09  0.5473  -1.379  -0.001928  0.0038  -0.03134  -0.01471  0.5968  -0.708
6.415e+09  0.02744  -1.463  -0.006716  0.006074  0.01151  -0.0269  0.348  -0.8424
6.416e+09  -0.5287  -1.426  0.02586  -0.01822  0.01111  0.0643  -0.009112  -0.8896
6.418e+09  -0.9959  -1.092  0.01026  -0.01328  0.02614  0.01456  -0.2654  -0.8711
6.419e+09  -1.263  -0.7045  0.02601  -0.005109  0.0001514  -0.0306  -0.5425  -0.6856
6.42e+09  -1.462  -0.2558  0.005631  0.006609  -0.011  0.002918  -0.7747  -0.482
6.421e+09  -1.507  0.373  -0.03624  -0.02226  0.03107  -0.01302  -0.8235  -0.2012
6.422e+09  -1.302  0.8572  0.002947  0.05715  -0.05033  -0.02627  -0.932  0.1503
6.424e+09  -0.9889  1.294  0.01164  -0.005986  0.005828  0.002347  -0.8054  0.4068
6.425e+09  -0.4409  1.522  -0.003004  -0.02784  0.02562  -0.02097  -0.5745  0.7016
6.426e+09  0.1574  1.593  -0.02074  -0.008238  -0.02536  0.0002493  -0.3732  0.8366
6.428e+09  0.6646  1.453  -0.002171  0.04318  0.0608  0.03731  -0.009401  0.8932
6.429e+09  1.21  1.14  0.03176  -0.01906  0.01511  -0.03  0.2919  0.8774
6.43e+09  1.488  0.7202  -0.0178  0.0008341  0.01543  0.01205  0.5298  0.7101
6.431e+09  1.663  0.1043  0.02632  0.01103  -0.02798  -0.009222  0.7085  0.4523
6.432e+09  1.554  -0.5199  -0.01291  -0.006644  -0.01046  0.02457  0.85  0.1844
6.434e+09  1.305  -1.038  -0.008981  0.007063  0.01802  0.02517  0.8741  -0.05608
6.435e+09  0.886  -1.418  0.02704  -0.02762  -0.06579  -0.02233  0.8263  -0.4272
6.436e+09  0.3074  -1.644  0.01446  -0.03994  -0.02606  0.004401  0.6258  -0.6165
6.438e+09  -0.2769  -1.645  -0.03662  0.04632  -0.01914  -0.01812  0.3402  -0.7358
6.439e+09  -0.8214  -1.46  0.03674  0.004081  -0.02349  0.02082  0.07026  -0.8706
6.44e+09  -1.344  -1.082  -0.002888  0.01825  0.004134  0.001676  -0.1918  -0.8005
6.441e+09  -1.678  -0.5629  0.03005  0.01497  -0.03166  0.04098  -0.5445  -0.6984
6.442e+09  -1.792  0.02895  0.008206  0.005482  -0.07493  0.04158  -0.7362  -0.4874
6.444e+09  -1.65  0.6617  -0.02737  -0.01189  0.01225  0.04167  -0.8043  -0.1914
6.445e+09  -1.339  1.203  -0.01135  0.0213  0.02887  0.006864  -0.8818  0.09301
6.446e+09  -0.8381  1.635  -0.001328  0.02752  -0.04827  0.007993  -0.7762  0.3379
6.448e+09  -0.2048  1.853  -0.001403  0.006697  0.09754  0.006622  -0.5985  0.6299
6.449e+09  0.4775  1.769  0.01183  0.006862  0.04825  -0.02524  -0.3442  0.7818
6.45e+09  1.09  1.513  -0.04122  0.004051  -0.01675  0.06741  -0.07997  0.7695
6.451e+09  1.616  1.071  0.03285  0.03295  -0.04386  -0.01102  0.1809  0.7739
6.452e+09  1.776  0.4983  0.01107  -0.01208  -0.03085  -0.02975  0.4893  0.669
6.454e+09  1.947  -0.2457  -0.0112  0.005293  -0.02658  -0.07872  0.6921  0.5033
6.455e+09  1.801  -0.9296  0.006669  -0.0117  0.01342  0.00428  0.8203  0.193
6.456e+09  1.349  -1.523  -0.004062  0.02003  -0.004423  -0.008823  0.799  -0.06655
6.458e+09  0.7384  -1.925  -0.02166  -0.02093  -0.02944  -0.005784  0.6862  -0.3606
6.459e+09  0.07688  -2.042  0.01008  0.003371  -0.01288  0.03634  0.5512  -0.5691
6.46e+09  -0.7566  -1.989  -0.05109  0.04767  0.05947  -0.01401  0.3681  -0.7433
6.461e+09  -1.367  -1.631  -0.01833  -0.01835  -0.009536  -0.03117  0.03517  -0.8411
6.462e+09  -1.925  -1.023  0.0502  -0.01194  0.01363  0.0276  -0.184  -0.7481
6.464e+09  -2.204  -0.2072  -0.006181  -0.005444  -0.07429  0.007274  -0.4938  -0.67
6.465e+09  -2.156  0.5477  -0.001026  0.04533  -0.02604  -0.02737  -0.6575  -0.4504
6.466e+09  -1.852  1.347  -0.02954  -0.02691  0.02556  0.03149  -0.8209  -0.1983
6.468e+09  -1.326  1.955  0.01932  0.0106  -0.005356  0.02761  -0.8022  0.07197
6.469e+09  -0.5293  2.291  -0.008866  0.03055  -0.01707  -0.05196  -0.6974  0.3598
6.47e+09  0.361  2.373  -0.026  -0.04589  -0.02783  0.04698  -0.5761  0.6075
6.471e+09  1.263  2.187  -0.01439  -0.008117  0.04089  0.04964  -0.3304  0.6915
6.472e+09  1.957  1.676  0.0362  -0.04062  -0.05203  0.00625  -0.05356  0.8226
6.474e+09  2.466  0.7766  -0.002804  0.01316  0.05558  0.006581  0.2396  0.7528
6.475e+09  2.646  -0.1487  -0.003722  0.01324  -0.07558  -0.06479  0.412  0.6322
6.476e+09  2.414  -1.192  -0.01268  0.004758  0.02305  -0.02958  0.6521  0.423
6.478e+09  1.868  -1.98  0.02226  -0.007181  0.01452  -0.03139  0.8013  0.1617
6.479e+09  1.079  -2.624  0.01192  0.02481  -0.03493  -0.04466  0.7925  -0.06863
6.48e+09  0.06403  -2.926  -0.03038  -0.03055  0.07862  0.01106  0.6947  -0.3472
6.481e+09  -1.197  -2.766  0.04169  0.01114  -0.002331  0.02507  0.5317  -0.597
6.482e+09  -2.161  -2.23  -0.03069  -0.05058  -0.05214  -0.01661  0.2874  -0.7393
6.484e+09  -2.872  -1.229  -0.0009394  0.03858  -0.02671  0.04202  0.05514  -0.8213
6.485e+09  -3.128  -0.108  -0.005809  0.005016  0.1024  0.004765  -0.2425  -0.7165
6.486e+09  -3.046  1.196  -0.01519  -0.03901  0.06235  0.05095  -0.4475  -0.6347
6.488e+09  -1.713  2.087  0.006304  -0.013  -0.6864  -0.2039  -0.6553  -0.4797
6.489e+09  -1.397  3.099  -0.01306  0.01136  -0.06036  0.005452  -0.7603  -0.1728
6.49e+09  -0.09308  3.495  -0.01996  -0.01286  -0.09466  -0.01621  -0.7648  0.09604
6.491e+09  1.239  3.346  -0.01291  0.06791  0.02068  -0.002606  -0.6752  0.3728
6.492e+09  2.485  2.55  0.02538  -0.03834  0.01794  0.0691  -0.4835  0.6118
6.494e+09  3.356  1.252  0.04144  -0.02298  -0.1137  -0.04383  -0.2925  0.6939
6.495e+09  3.699  -0.06945  0.01671  0.003091  -0.01409  -0.01193  -0.05906  0.7604
6.496e+09  3.399  -1.54  -0.005377  0.01161  0.01793  0.0204  0.2321  0.7578
6.498e+09  2.525  -2.754  -0.01607  -0.004745  -0.01828  0.003606  0.4737  0.6542
6.499e+09  1.244  -3.489  -0.009834  -0.01368  0.03202  -0.01381  0.6011  0.4501
6.5e+09  2.348  -5.923  -0.02826  0.008737  -0.1453  -0.1301  0.7539  0.1469
6.501e+09  -1.746  -3.393  0.0267  -3.32e-05  -0.0186  0.02639  0.7831  -0.1222
6.502e+09  -2.915  -2.296  0.003717  0.01303  -0.01461  -0.06313  0.6705  -0.3923
6.504e+09  -3.493  -0.9489  0.01509  0.03454  0.01974  -0.01416  0.523  -0.5754
6.505e+09  -3.547  0.4604  0.01488  0.0107  0.1006  -0.05261  0.3076  -0.7166
6.506e+09  -3.008  1.827  0.02348  0.04129  0.008353  0.008736  0.01393  -0.7481
6.508e+09  -2.066  2.81  -0.006463  -0.006806  0.02435  0.01345  -0.2277  -0.6956
6.509e+09  -0.7661  3.338  -0.007111  0.002425  0.03506  -0.03473  -0.4567  -0.5472
6.51e+09  0.5356  3.245  -0.01211  -0.03267  0.01639  -0.001252  -0.6295  -0.4061
6.511e+09  1.763  2.73  -0.01023  -0.02044  0.03647  0.04037  -0.7732  -0.1286
6.512e+09  2.619  1.861  -0.02525  -0.01015  0.04419  0.06671  -0.7611  0.1263
6.514e+09  3.015  0.6638  0.04372  0.03442  0.06626  0.008311  -0.6643  0.3668
6.515e+09  3.027  -0.5031  -0.02146  0.002471  0.04588  -0.03583  -0.4511  0.6273
6.516e+09  2.466  -1.47  -0.002901  0.03687  -0.008034  -0.07453  -0.2506  0.7369
6.518e+09  1.664  -2.32  -0.06632  -0.03261  -0.01396  -0.04695  0.03341  0.6791
6.519e+09  0.6772  -2.61  0.01279  0.01631  0.02762  -0.03754  0.2417  0.6971
6.52e+09  -0.352  -2.723  -0.02092  0.01899  0.00411  -0.02555  0.4352  0.5453
6.521e+09  -1.296  -2.347  -0.03179  -0.003507  0.01237  0.02548  0.6232  0.3539
6.522e+09  -1.96  -1.599  -0.02116  -0.01136  -0.03158  0.001044  0.7096  0.1099
6.524e+09  -2.45  -0.7411  -0.01803  -0.02729  0.01136  0.05797  0.7224  -0.1198
6.525e+09  -2.403  0.1557  0.01717  -0.0114  0.02046  -0.01203  0.601  -0.4134
6.526e+09  -2.124  1.002  -0.01393  -0.03188  -0.03489  0.02778  0.4263  -0.5488
6.528e+09  -1.646  1.714  0.01027  0.005344  0.0096  0.03136  0.1895  -0.6691
6.529e+09  -0.8521  2.049  0.01737  0.006923  -0.01022  0.003052  -0.05764  -0.7005
6.53e+09  -0.001592  2.236  -0.003522  -0.01824  0.02542  0.01598  -0.2784  -0.6304
6.531e+09  0.7297  2.029  0.05607  -0.01251  -0.001815  0.004742  -0.4783  -0.4822
6.532e+09  1.438  1.631  -0.006757  0.02276  0.01424  0.0325  -0.5991  -0.2988
6.534e+09  1.868  1.012  0.0181  0.005495  0.000234  0.002037  -0.6385  -0.08253
6.535e+09  2.055  0.1934  0.006416  -0.0348  0.0296  0.001752  -0.5934  0.09424
6.536e+09  1.943  -0.5257  -0.02007  0.002083  0.03161  -0.0295  -0.5702  0.2895
6.538e+09  1.603  -1.198  -0.0303  0.009007  -0.008155  0.01492  -0.4064  0.4818
6.539e+09  1.051  -1.548  -0.01718  -0.02659  0.0529  0.04222  -0.3209  0.6254
6.54e+09  0.4182  -1.903  0.007532  0.0478  0.03194  -0.0107  -0.051  0.6497
6.541e+09  -0.284  -1.82  -0.009544  -0.02814  -0.01579  0.02397  0.1621  0.674
6.542e+09  -0.9221  -1.612  -0.02086  -0.029  -0.005904  0.05236  0.3947  0.5658
6.544e+09  -1.343  -1.169  0.03034  -0.01793  -0.0322  0.005512  0.6221  0.376
6.545e+09  -1.638  -0.5805  0.003196  -0.0006335  -0.05271  -0.01212  0.6929  0.1595
6.546e+09  -1.69  0.05439  -0.04298  0.01165  -0.02433  -0.01564  0.7345  -0.08643
6.548e+09  -1.597  0.657  0.02145  0.04019  -0.03051  0.017  0.6037  -0.3223
6.549e+09  -1.199  1.165  0.005944  -0.007403  0.01199  -0.03685  0.5292  -0.5141
6.55e+09  -0.7539  1.525  0.008638  -0.02009  0.02559  -0.005237  0.3184  -0.679
6.551e+09  -0.1889  1.657  0.003443  0.02137  -0.05276  0.03032  0.00684  -0.8048
6.552e+09  0.5082  1.576  0.00871  -0.04855  -0.02707  -0.03884  -0.2349  -0.697
6.554e+09  0.9593  1.283  0.004366  0.03703  -0.00972  -0.01768  -0.4669  -0.5741
6.555e+09  1.322  0.8456  0.0429  0.032  -0.04943  0.01404  -0.6136  -0.4052
