# Hz S RI R 50
6.25e+09  0.1461  0.9306  -0.006779  -0.002763  -0.00325  -0.01375  0.1736  0.5
6.251e+09  0.4214  0.8759  -0.02531  0.007736  0.004782  0.01649  0.3812  0.4066
6.252e+09  0.7103  0.6687  -0.0171  -0.01965  0.04479  -0.02759  0.5303  0.2264
6.254e+09  0.809  0.3768  -0.003791  -0.005608  0.004647  -0.003602  0.6097  0.02314
6.255e+09  0.9022  0.09266  0.004162  0.02583  0.01202  -0.005919  0.5903  -0.2459
6.256e+09  0.8425  -0.2749  0.002892  -3.144e-05  -0.0008065  -0.0274  0.4775  -0.4456
6.258e+09  0.7472  -0.5549  -0.002913  0.02661  -0.02813  -0.02364  0.2693  -0.6001
6.259e+09  0.5301  -0.7721  0.03553  -0.008046  -0.01135  -0.01643  0.06681  -0.6854
6.26e+09  0.2813  -0.9487  -0.008126  -0.004061  0.03138  0.003415  -0.2005  -0.6691
6.261e+09  -0.118  -0.9536  -0.007706  0.028  -0.003434  0.01918  -0.4259  -0.5548
6.262e+09  -0.4139  -0.8723  -0.01925  0.0006693  0.01592  -0.01284  -0.6034  -0.3617
6.264e+09  -0.6426  -0.6145  -0.00842  0.004791  0.0583  -0.01845  -0.7119  -0.08261
6.265e+09  -0.849  -0.3297  0.003709  0.004856  -0.04949  -0.01647  -0.7076  0.1331
6.266e+09  -0.9429  -0.06217  0.008233  -0.0438  -0.01858  0.01003  -0.6168  0.4063
6.268e+09  -0.9006  0.2957  -0.004113  -0.006834  -0.001118  -0.01855  -0.4375  0.6152
6.269e+09  -0.7558  0.5361  -0.02174  0.03365  0.01054  -0.0431  -0.2009  0.7178
6.27e+09  -0.4583  0.7723  -0.007909  -0.008397  -0.03309  0.06716  0.0574  0.7586
6.271e+09  -0.1792  0.9086  -0.01171  -0.0221  0.04081  0.0282  0.3451  0.69
6.272e+09  0.1781  0.9054  0.001383  0.009204  0.01473  0.001106  0.5588  0.5473
6.274e+09  0.4253  0.8144  0.00755  -0.009858  -0.008071  -0.0011  0.672  0.3233
6.275e+09  0.6893  0.5568  0.005193  0.01125  -0.006205  0.005818  0.7674  0.04197
6.276e+09  0.8324  0.2815  0.009615  0.004513  -0.02581  0.007614  0.701  -0.2501
6.278e+09  0.9365  -0.007787  0.01438  -0.02362  0.002556  0.03644  0.6341  -0.4658
6.279e+09  0.8974  -0.2878  -0.00648  0.009617  0.02388  0.001513  0.438  -0.667
6.28e+09  0.7122  -0.6377  0.01287  0.01417  0.03092  0.005277  0.1539  -0.7605
6.281e+09  0.4458  -0.7963  0.001577  -0.01888  -0.01545  0.01602  -0.08829  -0.7814
6.282e+09  0.1402  -0.8825  -0.002036  0.02194  0.02335  0.04209  -0.3655  -0.6998
6.284e+09  -0.1786  -0.9573  -0.0183  0.02851  6.832e-05  -0.03002  -0.6099  -0.5362
6.285e+09  -0.454  -0.7321  0.006262  -0.03936  0.02734  -0.01225  -0.7469  -0.2764
6.286e+09  -0.6971  -0.6046  0.02265  -0.01011  0.01913  -0.002549  -0.7916  -0.01493
6.288e+09  -0.9302  -0.319  0.02882  -0.01995  0.005863  -0.005687  -0.7576  0.2769
6.289e+09  -0.9273  0.06872  0.03872  0.003189  -0.01835  0.01173  -0.6361  0.5336
6.29e+09  -0.8375  0.3753  -0.004924  0.02471  0.013  -0.01064  -0.4351  0.6861
6.291e+09  -0.7228  0.6697  0.01391  -0.01606  0.01397  0.03053  -0.1517  0.7656
6.292e+09  -0.5051  0.8433  0.01341  -0.005435  -0.02878  -0.01492  0.1141  0.7925
6.294e+09  -0.1169  0.9227  -0.02759  0.01632  0.02307  -0.01314  0.4116  0.7159
6.295e+09  0.2485  0.9149  -0.01302  -0.003856  0.05828  -0.02436  0.6392  0.5226
6.296e+09  0.548  0.8132  0.01973  -0.004082  0.03636  0.00864  0.7602  0.2843
6.298e+09  0.7606  0.5513  0.01891  0.01325  -0.02994  0.003522  0.841  0.002271
6.299e+09  0.9378  0.2343  0.03123  -0.0215  -0.03923  0.01028  0.7622  -0.293
6.3e+09  0.9782  -0.1138  0.014  -0.005867  0.006491  0.02158  0.6667  -0.4918
6.301e+09  0.9518  -0.4159  0.03513  -0.00755  -0.003946  -0.02418  0.4377  -0.7347
6.302e+09  0.6971  -0.7053  0.008174  0.01461  -0.05989  0.003973  0.1458  -0.8079
6.304e+09  0.4151  -0.8578  0.003769  -0.02561  0.0226  0.002358  -0.1265  -0.8404
6.305e+09  0.07938  -0.9543  -0.01098  0.008698  -0.01325  0.02005  -0.4452  -0.7561
6.306e+09  -0.2833  -0.9744  -0.008615  -0.04247  0.002533  -0.0009578  -0.6436  -0.5655
6.308e+09  -0.5786  -0.7346  -0.000378  0.03687  0.05018  -0.04523  -0.8048  -0.285
6.309e+09  -0.8062  -0.5685  -0.001204  -0.01249  -0.01198  -0.05879  -0.8412  -0.04467
6.31e+09  -0.9614  -0.2008  -0.01014  0.001114  -0.01414  -0.02504  -0.8234  0.264
6.311e+09  -0.9658  0.0918  -0.02094  -0.001033  0.01221  -0.005373  -0.6718  0.5374
6.312e+09  -0.8646  0.4355  -0.006521  0.01808  0.0004473  0.02209  -0.4422  0.7673
6.314e+09  -0.6513  0.7498  -0.01957  -0.02415  0.02727  0.001035  -0.173  0.8513
6.315e+09  -0.3285  0.9241  -0.02253  -0.00119  0.01446  -0.02745  0.1663  0.8323
6.316e+09  -0.007868  0.9943  0.002332  -0.007572  -0.0001223  0.03476  0.4194  0.7845
6.318e+09  0.3353  0.9601  -0.02345  -0.01282  0.04375  -0.002369  0.6576  0.5812
6.319e+09  0.6713  0.8019  -0.01085  0.001852  -0.05496  0.0008061  0.8042  0.2951
6.32e+09  0.8977  0.4843  -0.01063  -0.01693  0.01888  -0.01449  0.8553  0.01932
6.321e+09  0.9834  0.1478  -0.01503  -0.04556  0.000737  0.01894  0.8524  -0.277
6.322e+09  1.027  -0.1656  0.01672  0.01228  0.02911  0.01149  0.6848  -0.5492
6.324e+09  0.8804  -0.5431  0.01342  -0.006413  0.02543  0.05955  0.4768  -0.7578
6.325e+09  0.6605  -0.8147  -0.02779  -0.0223  0.03126  0.03978  0.1825  -0.8434
6.326e+09  0.3878  -1.029  -0.03227  0.003351  0.01848  0.01581  -0.1177  -0.8652
6.328e+09  -0.02397  -1.039  -0.0311  0.02874  -0.02339  -0.01743  -0.4291  -0.8042
6.329e+09  -0.4102  -0.9636  0.01284  0.003934  0.06331  0.032  -0.6588  -0.5792
6.33e+09  -0.723  -0.7737  -0.02397  -0.009885  -0.006809  -0.0146  -0.8652  -0.3243
6.331e+09  -0.9836  -0.4809  -0.03729  -0.001242  0.01246  -0.04409  -0.9005  -0.03871
6.332e+09  -1.086  -0.1457  -0.004081  0.01254  -0.01561  -0.007501  -0.8462  0.2685
6.334e+09  -1.049  0.3176  -0.005049  -0.02618  0.01806  -0.0279  -0.7195  0.5821
6.335e+09  -0.944  0.6228  0.004836  0.008251  -0.0003105  0.003156  -0.489  0.7653
6.336e+09  -0.6222  0.9159  0.01933  0.002068  -0.03672  0.03563  -0.168  0.8778
6.338e+09  -0.2492  1.067  0.01093  0.00217  -0.008206  -0.01793  0.1508  0.8835
6.339e+09  0.1081  1.135  0.003855  0.01982  -0.00468  -0.06299  0.4136  0.8262
6.34e+09  0.5154  0.9732  0.0266  0.01583  0.03782  0.0312  0.6533  0.5945
6.341e+09  0.8372  0.7645  -0.01315  0.01045  -0.001313  0.02544  0.8824  0.3563
6.342e+09  1.062  0.3735  -0.003168  0.05205  -0.03565  0.0009156  0.9334  0.02637
6.344e+09  1.132  0.06736  0.02032  -0.01828  0.01634  -0.02826  0.9095  -0.2812
6.345e+09  1.08  -0.3743  0.03757  0.005933  0.01897  0.001677  0.749  -0.5721
6.346e+09  0.9312  -0.7791  0.01724  0.001303  0.006891  -0.0189  0.5305  -0.7915
6.348e+09  0.5667  -0.9578  0.01087  -0.003504  -0.02735  -0.03437  0.2195  -0.9047
6.349e+09  0.1787  -1.146  -0.005582  -0.001328  -0.02793  -0.00454  -0.1251  -0.9639
6.35e+09  -0.2266  -1.183  -0.04805  -0.05202  -0.004408  -0.01678  -0.4151  -0.8445
6.351e+09  -0.6295  -1.021  -0.002068  -0.03162  0.02644  -0.04402  -0.6857  -0.6772
6.352e+09  -0.9195  -0.7085  -0.008793  -0.003811  0.03175  0.0359  -0.8966  -0.403
6.354e+09  -1.114  -0.3458  -0.02793  0.01834  -0.004895  0.000921  -0.9533  -0.07684
6.355e+09  -1.218  0.05645  0.01234  0.03278  -0.01571  0.03556  -0.9256  0.2664
6.356e+09  -1.139  0.4897  -0.003662  -0.01164  -0.01177  -0.03125  -0.7655  0.5647
6.358e+09  -0.8632  0.8346  0.02741  0.02152  0.0206  -0.04255  -0.5617  0.7893
6.359e+09  -0.5409  1.087  -0.01478  0.04297  -0.0249  -0.0211  -0.2384  0.9029
6.36e+09  -0.1228  1.218  -0.02343  -0.02227  -0.01657  -0.04198  0.08388  0.9433
6.361e+09  0.325  1.136  0.02314  0.01203  -0.01123  -0.02432  0.4005  0.8211
6.362e+09  0.7637  1.02  -0.018  -0.02235  -0.03703  0.00432  0.6893  0.6638
6.364e+09  1.087  0.6462  -0.02441  0.03335  0.05313  -0.0328  0.8767  0.3961
6.365e+09  1.24  0.2708  -0.01305  -0.01596  -0.007003  -0.03917  0.9895  0.08011
6.366e+09  1.238  -0.2056  0.0007828  -0.03674  0.005221  0.003576  0.9162  -0.2445
6.368e+09  1.092  -0.642  -0.007375  -0.007862  0.001629  0.006503  0.7837  -0.5741
6.369e+09  0.7795  -0.9822  -0.001433  -0.02649  -0.007675  0.01253  0.5448  -0.7741
6.37e+09  0.3949  -1.209  0.01696  -0.02812  0.02067  0.004194  0.1943  -0.9202
6.371e+09  0.02979  -1.313  -0.04192  -0.01225  0.009553  0.009857  -0.0701  -0.9582
6.372e+09  -0.4556  -1.221  0.01492  -0.007958  0.03067  0.02577  -0.4429  -0.8689
6.374e+09  -0.8789  -0.9233  0.02616  -0.0007872  0.04506  -0.004961  -0.6497  -0.6777
6.375e+09  -1.138  -0.6146  0.0204  -0.03432  -0.02664  -0.01434  -0.8671  -0.4478
6.376e+09  -1.302  -0.06514  -0.008688  0.02261  0.03718  -0.01172  -0.9366  -0.02969
6.378e+09  -1.284  0.3036  0.01619  0.02052  -0.0398  0.01353  -0.8956  0.2029
6.379e+09  -1.054  0.7257  -0.03659  0.001544  -0.004083  0.00146  -0.7788  0.5114
6.38e+09  -0.7503  1.082  -0.02417  -0.01196  -0.02152  0.04137  -0.5926  0.7647
6.381e+09  -0.3163  1.275  0.006062  -0.0009923  0.01616  -0.0009533  -0.2541  0.8822
6.382e+09  0.1188  1.307  -0.01155  -0.01585  -0.06646  0.005735  0.07099  0.9624
6.384e+09  0.5901  1.137  -0.01654  -0.02145  -0.01527  -0.01776  0.3581  0.8546
6.385e+09  0.931  0.8915  0.01797  -0.01871  -0.02598  0.05038  0.6684  0.7112
6.386e+09  1.228  0.4516  -0.01186  -0.01773  0.04806  -0.01872  0.8386  0.4225
6.388e+09  1.326  0.04726  -0.01654  0.04627  -0.02592  0.007875  0.9557  0.1112
6.389e+09  1.181  -0.4115  -0.003779  0.007943  0.01072  -0.04289  0.9053  -0.2043
6.39e+09  0.9926  -0.8792  0.02697  0.01865  -0.02984  -0.06328  0.785  -0.5001
6.391e+09  0.6591  -1.124  -0.0007746  -0.02896  0.04216  0.004256  0.5834  -0.7325
6.392e+09  0.1776  -1.306  0.02378  -0.03074  -0.008986  -0.03802  0.2566  -0.883
6.394e+09  -0.2456  -1.318  0.02346  -0.003001  -0.0004674  -0.03734  -0.006456  -0.9322
6.395e+09  -0.6629  -1.096  0.02502  -0.0347  -0.02829  -0.01284  -0.3238  -0.8464
6.396e+09  -1.04  -0.8062  0.003192  0.01456  0.02595  0.04256  -0.6176  -0.707
6.398e+09  -1.23  -0.3214  0.03623  0.01244  -0.03956  -0.02744  -0.7942  -0.4577
6.399e+09  -1.299  0.07958  0.01235  -0.0005914  0.05092  0.03173  -0.8913  -0.1117
6.4e+09  -1.197  0.5031  -0.01368  -0.02098  -0.02022  -0.01787  -0.9165  0.198
6.401e+09  -0.9254  0.9581  -0.001515  -0.01005  0.008354  -0.001832  -0.8053  0.4684
6.402e+09  -0.5241  1.168  0.01855  -0.02268  0.03174  0.01324  -0.6039  0.6976
6.404e+09  -0.08846  1.259  0.009652  0.007624  -0.02388  -0.009938  -0.312  0.8825
6.405e+09  0.2974  1.213  -0.01513  0.007847  0.01316  -0.009702  -0.00751  0.9313
6.406e+09  0.7474  1.072  -0.01786  -0.01188  0.02044  -0.03528  0.3317  0.8703
6.408e+09  1.099  0.7077  0.01855  -0.004603  0.04391  0.0305  0.5944  0.7196
6.409e+09  1.254  0.2838  0.04263  -0.02705  0.001403  -0.01598  0.7483  0.5112
6.41e+09  1.283  -0.12  -0.01893  0.007836  -0.03826  -0.04468  0.8679  0.1557
6.411e+09  1.132  -0.6447  -0.02065  0.002148  0.01592  0.009549  0.896  -0.1497
6.412e+09  0.9028  -0.9621  -0.04098  -0.009309  -0.02008  -0.04569  0.8197  -0.4294
6.414e+09  0.4134  -1.255  0.01343  0.003986  -0.004772  0.0233  0.6279  -0.6948
6.415e+09  0.01836  -1.26  0.0458  0.00699  -0.0585  -0.01413  0.3358  -0.822
6.416e+09  -0.3982  -1.2  0.02815  -0.001181  -0.01682  -0.004559  0.03732  -0.8499
6.418e+09  -0.7862  -1.005  -0.001065  -0.01364  -0.01741  -0.03839  -0.2455  -0.8732
6.419e+09  -1.137  -0.6175  0.01505  0.02185  0.02808  -0.03193  -0.532  -0.7109
6.42e+09  -1.334  -0.2047  -0.01345  -0.005176  -0.03171  -0.03779  -0.7983  -0.4464
6.421e+09  -1.297  0.2535  0.0007481  0.0178  0.00572  0.002063  -0.8369  -0.2226
6.422e+09  -1.156  0.6937  -0.03988  0.0321  0.01974  0.02875  -0.9122  0.1287
6.424e+09  -0.8293  0.9932  -0.02743  0.05358  -0.0454  -0.05023  -0.8224  0.4311
6.425e+09  -0.4502  1.253  0.04015  0.02708  0.01663  0.009185  -0.5822  0.6223
6.426e+09  0.03883  1.37  0.03283  0.02947  0.03913  -0.02403  -0.3321  0.835
6.428e+09  0.4964  1.174  0.05114  0.002112  0.01344  -0.002896  -0.04279  0.8772
6.429e+09  0.9024  1.003  -0.007358  -0.02355  -0.02211  -0.02297  0.2465  0.8144
6.43e+09  1.155  0.6174  -0.03971  0.006137  0.03321  0.01374  0.5018  0.7176
6.431e+09  1.354  0.17  0.004034  -0.01208  0.01579  -0.001556  0.7417  0.482
6.432e+09  1.344  -0.3348  0.006039  0.05025  -0.04389  0.02448  0.7748  0.2084
6.434e+09  1.161  -0.7662  0.02467  -0.005016  0.02952  -0.07684  0.871  -0.07242
6.435e+09  0.7727  -1.104  0.007172  0.02152  0.03849  -0.02234  0.7507  -0.3397
6.436e+09  0.2988  -1.374  -0.002571  -0.006903  0.0001613  -0.003852  0.5673  -0.596
6.438e+09  -0.1367  -1.428  0.03591  0.001203  0.003705  0.002795  0.3414  -0.806
6.439e+09  -0.6131  -1.246  -0.01026  -0.02497  0.04743  -0.01645  0.0321  -0.832
6.44e+09  -1.009  -1.014  -5.546e-06  -0.03897  0.04038  -0.01095  -0.2266  -0.8093
6.441e+09  -1.3  -0.5421  -0.002714  0.004453  -0.03985  0.02718  -0.5076  -0.7174
6.442e+09  -1.432  -0.1016  0.03964  -0.01901  0.05024  -0.006246  -0.7532  -0.4722
6.444e+09  -1.342  0.4826  -0.00621  -0.01006  0.02815  -0.03996  -0.8157  -0.1584
6.445e+09  -1.07  0.9016  0.01603  -0.01771  -0.04383  0.03146  -0.8282  0.06589
6.446e+09  -0.7322  1.202  0.02888  0.0405  -0.0159  -0.005165  -0.7874  0.3904
6.448e+09  -0.2448  1.459  -0.02004  -0.04357  -0.0441  0.03575  -0.5569  0.5884
6.449e+09  0.2555  1.415  0.00521  0.003331  0.0118  -0.05462  -0.3535  0.75
6.45e+09  0.7373  1.315  0.01999  -0.01034  -0.0314  0.0318  -0.04417  0.8714
6.451e+09  1.187  0.9399  -0.02411  0.01899  -0.04003  -0.03655  0.2264  0.7741
6.452e+09  1.411  0.4612  -0.02924  -0.02847  0.01719  4.911e-05  0.492  0.6893
6.454e+09  1.589  -0.04762  -0.01151  0.01872  -0.004918  -0.005842  0.6764  0.466
6.455e+09  1.367  -0.6056  0.006286  -0.03377  -0.009393  0.031  0.8141  0.2305
6.456e+09  1.06  -1.111  -0.02831  0.03373  -0.01222  0.01413  0.8497  -0.1018
6.458e+09  0.696  -1.474  0.002616  0.007648  -0.01352  0.01412  0.7115  -0.3612
6.459e+09  0.1271  -1.554  0.03582  -0.03695  0.03569  -0.02917  0.5654  -0.5292
6.46e+09  -0.4706  -1.547  0.03728  0.06036  -0.04114  -0.01934  0.3605  -0.7394
6.461e+09  -0.9853  -1.324  0.03526  -0.002219  -0.05202  0.002188  0.07294  -0.8711
6.462e+09  -1.385  -0.8622  -0.0005179  -0.01066  -0.02431  -0.007134  -0.2104  -0.7724
6.464e+09  -1.648  -0.2796  0.002997  -0.008264  -0.007523  0.007873  -0.4425  -0.635
6.465e+09  -1.58  0.2336  -0.01828  0.00797  -0.0411  0.01162  -0.6386  -0.4353
6.466e+09  -1.426  0.9106  -0.02264  -0.007161  0.03772  -0.0379  -0.7767  -0.2276
6.468e+09  -1.05  1.374  -0.03127  -0.03085  0.01772  0.01916  -0.8141  0.06958
6.469e+09  -0.5382  1.619  0.006998  0.01206  0.03817  -0.04942  -0.7435  0.3584
6.47e+09  0.08577  1.748  -0.02787  0.01841  -0.04432  -0.002971  -0.6117  0.5342
6.471e+09  0.7346  1.597  0.03606  -0.01363  -0.0165  -0.001804  -0.3103  0.7161
6.472e+09  1.3  1.208  0.02731  0.003004  -0.01469  0.05533  -0.0527  0.7742
6.474e+09  1.656  0.6743  0.01226  0.007742  0.01185  0.03168  0.1742  0.7693
6.475e+09  1.812  0.06343  0.004769  -0.01696  0.04265  -0.02886  0.4756  0.5831
6.476e+09  1.779  -0.5939  -0.02066  0.03145  -0.02571  0.01344  0.6947  0.4536
6.478e+09  1.399  -1.153  0.004451  -0.04046  0.01964  0.007188  0.7537  0.231
6.479e+09  0.8403  -1.686  -0.04922  0.04387  0.03552  0.05649  0.7871  -0.1069
6.48e+09  0.2173  -1.939  -0.03312  0.009483  -0.004015  0.02654  0.7128  -0.3397
6.481e+09  -0.5162  -1.887  0.007965  -0.03957  0.01073  -0.006197  0.5232  -0.5617
6.482e+09  -1.146  -1.477  -0.005665  -0.02197  -0.01926  0.03792  0.3291  -0.7002
6.484e+09  -1.639  -0.9927  0.02485  0.008943  -0.004463  -0.03157  0.02878  -0.7878
6.485e+09  -1.965  -0.3465  -0.01063  -0.0003187  0.04439  -0.04992  -0.2182  -0.7311
6.486e+09  -1.967  0.3551  -0.001119  -0.03515  -0.01084  -0.01137  -0.4539  -0.5991
6.488e+09  -1.17  1.602  0.01969  0.03765  -0.4902  -0.4921  -0.5906  -0.4226
6.489e+09  -1.153  1.689  0.009113  0.03132  0.01846  0.003382  -0.7349  -0.1802
6.49e+09  -0.4135  2.014  -0.04369  -0.0125  0.01415  -0.06986  -0.7363  0.07028
6.491e+09  0.3171  2.042  -0.03009  -0.01465  0.03365  -0.1041  -0.694  0.34
6.492e+09  1.108  1.781  -0.0004779  0.02375  0.05679  0.01293  -0.5377  0.5775
6.494e+09  1.592  1.334  -0.00923  -0.03344  -0.08746  0.0352  -0.3186  0.7151
6.495e+09  1.981  0.5835  0.03956  0.02557  0.03994  0.05636  -0.04372  0.7669
6.496e+09  2.069  -0.292  0.01713  0.04016  -0.04245  0.01836  0.1813  0.6953
6.498e+09  1.789  -1.034  0.02896  0.01682  0.03931  0.002682  0.4785  0.6163
6.499e+09  1.341  -1.591  -0.003672  0.01223  0.01833  -0.01899  0.6342  0.4008
6.5e+09  0.8065  -0.2303  -0.01798  0.01656  0.04592  -0.06053  0.6967  0.1528
6.501e+09  -0.1857  -2.092  -0.02987  -0.02274  0.03237  -0.009881  0.7127  -0.08846
6.502e+09  -0.9524  -1.848  -0.003321  -0.02962  -0.07647  0.04081  0.6577  -0.3489
6.504e+09  -1.522  -1.394  -0.01985  -0.00865  -0.004703  -0.06878  0.5298  -0.5516
6.505e+09  -1.918  -0.7015  0.003106  -9.878e-05  -0.02583  0.03082  0.2841  -0.7228
6.506e+09  -2.026  0.05516  0.001018  0.01926  -0.01843  0.03723  0.0278  -0.8088
6.508e+09  -1.792  0.8159  0.05629  0.007922  0.02977  0.002055  -0.2471  -0.7106
6.509e+09  -1.38  1.44  -0.02223  0.005237  0.008268  -0.0189  -0.503  -0.5672
6.51e+09  -0.6677  1.759  0.01548  0.004913  -0.01968  -0.007808  -0.6375  -0.3954
6.511e+09  -0.0145  1.931  -0.01767  0.004642  0.001808  0.008934  -0.7375  -0.1227
6.512e+09  0.7022  1.733  -0.01003  0.03462  -0.006795  -0.006912  -0.7376  0.1206
6.514e+09  1.304  1.355  0.0392  -0.01646  0.04329  -0.02881  -0.6656  0.3632
6.515e+09  1.634  0.7828  0.009328  0.03409  0.01642  -0.03528  -0.5007  0.5448
6.516e+09  1.859  0.09169  0.02639  -0.002663  0.03818  -0.03656  -0.2392  0.6885
6.518e+09  1.697  -0.5966  -0.04145  -0.01786  0.01706  0.01711  0.01664  0.7487
6.519e+09  1.41  -1.163  -0.06359  0.007703  -0.02429  0.02509  0.2816  0.6857
6.52e+09  0.8325  -1.562  -0.009628  -0.0318  0.002729  0.05017  0.4943  0.5755
6.521e+09  0.2727  -1.718  -0.02155  -0.01619  0.01332  -0.01709  0.6413  0.3438
6.522e+09  -0.4348  -1.671  -0.005021  -0.0236  0.001717  -0.01525  0.7578  0.1069
6.524e+09  -0.9694  -1.316  -0.002022  0.004362  -0.03275  0.02551  0.7264  -0.1721
6.525e+09  -1.39  -0.9018  -0.0068  -0.05511  -0.0165  0.0439  0.635  -0.3985
6.526e+09  -1.546  -0.2878  -0.01743  0.01333  -0.007532  0.006336  0.4244  -0.5857
6.528e+09  -1.567  0.2988  0.0103  0.02425  0.0183  -0.002199  0.2143  -0.6725
6.529e+09  -1.344  0.8252  0.008529  -0.01651  -0.001488  -0.06407  -0.06257  -0.7344
6.53e+09  -0.92  1.226  -0.01141  0.04619  0.04282  -0.006486  -0.3061  -0.6257
6.531e+09  -0.4292  1.473  0.004179  0.002342  -0.004688  0.04018  -0.4428  -0.4771
6.532e+09  0.1534  1.487  -0.02571  0.01536  0.03326  0.04698  -0.5754  -0.2706
6.534e+09  0.5764  1.371  -0.003293  0.004402  -0.03087  -0.03267  -0.6068  -0.05129
6.535e+09  1.101  1.017  0.005228  0.02576  -0.01984  0.008298  -0.6307  0.1046
6.536e+09  1.38  0.5569  0.002981  -0.02979  0.04621  0.001857  -0.5717  0.2896
6.538e+09  1.419  0.006556  -0.01844  0.004537  0.001272  0.004055  -0.4481  0.5107
6.539e+09  1.38  -0.4972  0.04736  -0.004754  -0.0002926  -0.003217  -0.2497  0.6179
6.54e+09  1.099  -0.8718  0.004778  0.05077  0.01372  -0.008085  -0.06613  0.6865
6.541e+09  0.6681  -1.189  -0.0169  -0.01227  0.005002  0.002437  0.1968  0.6987
6.542e+09  0.1588  -1.336  0.03007  0.0212  0.01177  -0.01201  0.3989  0.5966
6.544e+09  -0.3332  -1.291  0.009696  0.01158  -0.001282  0.06624  0.5963  0.3873
6.545e+09  -0.7352  -1.093  0.01643  -0.005357  0.04333  -0.02116  0.6815  0.1612
6.546e+09  -1.055  -0.707  -0.008146  0.0157  0.005601  0.004541  0.7184  -0.07854
6.548e+09  -1.307  -0.3587  -0.01499  -0.01306  0.01839  0.01196  0.6571  -0.3201
6.549e+09  -1.265  0.1332  0.01943  -0.01091  -0.02064  0.00849  0.478  -0.5548
6.55e+09  -1.132  0.5815  -0.03105  -0.01152  0.02634  0.0003975  0.2735  -0.6854
6.551e+09  -0.8273  0.8893  0.01326  -0.01989  -0.04233  -0.003407  0.01645  -0.7154
6.552e+09  -0.4405  1.231  -0.001748  0.02539  0.009555  0.03055  -0.2174  -0.7157
