# Hz S RI R 50
6.25e+09  0.5044  0.8957  -0.04202  -0.006225  -0.02056  0.03365  0.1481  0.4892
6.251e+09  0.7592  0.6104  -0.01419  -0.01479  -0.04448  0.001455  0.3804  0.4108
6.252e+09  0.9406  0.3027  0.01455  -0.02017  0.02262  -0.006591  0.5622  0.2156
6.254e+09  0.9597  -0.02161  -0.01188  0.02775  0.05729  -0.05375  0.6203  0.01249
6.255e+09  0.9494  -0.3264  0.007259  0.02382  0.02199  0.02163  0.5822  -0.2324
6.256e+09  0.7202  -0.6657  -0.02043  0.001743  -0.005726  0.01542  0.4731  -0.4353
6.258e+09  0.3919  -0.8634  0.01528  -0.004757  -0.06123  -0.004573  0.2677  -0.603
6.259e+09  0.1408  -0.928  -0.003451  0.01324  0.03222  -0.02412  0.04984  -0.66
6.26e+09  -0.2866  -0.9393  0.01384  -0.0003476  -0.02958  0.03196  -0.2144  -0.6493
6.261e+09  -0.52  -0.8155  0.003559  0.005595  -0.04418  -0.0002151  -0.4507  -0.5567
6.262e+09  -0.8106  -0.5184  0.001684  0.002775  -0.02837  -0.02946  -0.6546  -0.3178
6.264e+09  -0.918  -0.1772  0.007136  -0.0002995  0.03519  0.01641  -0.7169  -0.095
6.265e+09  -0.9394  0.01229  0.001113  0.03941  0.02292  0.01909  -0.7405  0.1713
6.266e+09  -0.8587  0.3869  0.02194  -0.001928  0.0001147  0.01211  -0.5623  0.4076
6.268e+09  -0.6943  0.7512  0.01982  0.005934  0.007902  0.03811  -0.4388  0.5974
6.269e+09  -0.3737  0.868  -0.008064  0.04014  0.05208  -0.02635  -0.2057  0.7374
6.27e+09  -0.01309  0.9977  0.0146  0.008418  0.009107  -0.05  0.06935  0.7757
6.271e+09  0.2702  0.9264  -0.00967  -0.008285  -0.03229  0.02555  0.3175  0.6683
6.272e+09  0.5952  0.7382  0.001025  -0.02256  -0.0369  0.02479  0.5502  0.4802
6.274e+09  0.8273  0.5038  -0.01112  0.004708  0.02863  0.01009  0.7056  0.3156
6.275e+09  0.9426  0.1864  0.003344  -0.01671  -0.02226  -0.009691  0.7417  0.02376
6.276e+09  0.8745  -0.1285  0.02616  0.02385  0.01235  -0.03147  0.7049  -0.2389
6.278e+09  0.8055  -0.4596  0.001904  -0.008172  0.07066  -0.01897  0.6121  -0.4315
6.279e+09  0.6323  -0.6931  -0.01527  -0.01521  -0.01868  0.03109  0.4061  -0.6594
6.28e+09  0.3519  -0.9115  0.02161  -0.007459  0.007107  0.03416  0.1536  -0.7892
6.281e+09  -0.02818  -0.9483  -0.01912  -0.00537  0.002159  -0.005015  -0.1138  -0.7883
6.282e+09  -0.3694  -0.9051  0.009905  0.03332  -0.01506  -0.02702  -0.3657  -0.689
6.284e+09  -0.6426  -0.6992  0.03097  -0.006447  0.01555  0.000149  -0.552  -0.5347
6.285e+09  -0.8316  -0.4741  -0.02997  0.0154  -0.02542  0.004008  -0.7169  -0.2925
6.286e+09  -0.9252  -0.1325  -0.01976  0.007129  -0.0281  0.02282  -0.8061  -0.03765
6.288e+09  -0.9205  0.2229  -0.004462  0.006955  -0.02572  -0.001291  -0.767  0.27
6.289e+09  -0.816  0.5435  0.002039  -0.03696  0.006363  0.006795  -0.61  0.4891
6.29e+09  -0.5648  0.7436  0.008578  0.001122  0.03041  0.01876  -0.4179  0.6957
6.291e+09  -0.2773  0.9258  0.01994  0.02431  0.02705  0.009813  -0.1537  0.7972
6.292e+09  0.04209  0.9734  0.02652  0.006189  -0.003915  -0.007727  0.147  0.7944
6.294e+09  0.4425  0.8899  -0.006238  -0.002499  0.03172  0.01067  0.3845  0.7
6.295e+09  0.6874  0.6886  -0.01323  0.004343  0.007129  -0.02614  0.6555  0.5399
6.296e+09  0.8411  0.385  0.01362  0.03543  0.00495  0.01495  0.7456  0.2826
6.298e+09  0.9237  0.05994  0.001351  0.003886  0.0338  -0.01689  0.8092  0.01178
6.299e+09  0.9339  -0.2099  -0.01178  0.01408  0.01265  -0.01809  0.7756  -0.2609
6.3e+09  0.7814  -0.5236  0.0004129  -0.01631  0.01882  -0.01091  0.6547  -0.5473
6.301e+09  0.5144  -0.8082  0.004391  0.003317  -0.02588  0.004186  0.4163  -0.7242
6.302e+09  0.1819  -0.9685  0.001477  0.002245  -0.01278  -0.001206  0.1724  -0.8364
6.304e+09  -0.1634  -0.9817  0.03417  -0.004873  -0.01094  -0.00101  -0.1288  -0.8459
6.305e+09  -0.4435  -0.8351  0.0006458  0.01035  0.03979  -0.02759  -0.3939  -0.7677
6.306e+09  -0.7212  -0.6322  0.00845  -0.01564  0.05069  0.002235  -0.6669  -0.535
6.308e+09  -0.9001  -0.354  0.0002035  -0.0139  0.03185  -0.00621  -0.7939  -0.3129
6.309e+09  -0.9387  0.009779  0.03838  0.004912  -0.02323  0.001794  -0.8802  -0.02315
6.31e+09  -0.8612  0.3185  0.007881  -0.03772  0.009346  0.001875  -0.8301  0.2929
6.311e+09  -0.7566  0.6306  -0.004255  0.007155  0.041  0.0216  -0.6326  0.5813
6.312e+09  -0.4881  0.8423  -0.01142  0.01319  0.007799  -0.03589  -0.4499  0.7608
6.314e+09  -0.1801  0.9642  -0.002054  -0.004015  -0.03493  0.03807  -0.1425  0.8408
6.315e+09  0.2587  0.9977  -0.01044  0.03039  -0.009142  -0.0592  0.1206  0.8582
6.316e+09  0.5374  0.8627  -0.01931  -0.004087  0.005245  -0.04451  0.4361  0.7679
6.318e+09  0.7743  0.6402  0.03442  -0.006564  0.0106  -0.005538  0.6479  0.5468
6.319e+09  0.9977  0.3151  0.01538  -0.02832  -0.01975  -0.009008  0.835  0.2982
6.32e+09  1.034  -0.07807  0.01873  0.007567  -0.01798  -0.01086  0.884  -0.01632
6.321e+09  0.9555  -0.3888  0.0002714  -0.003694  0.02482  -0.03447  0.8186  -0.2883
6.322e+09  0.7287  -0.7189  -0.005014  -0.003554  0.04385  -0.002316  0.6863  -0.5408
6.324e+09  0.4498  -0.9824  -0.01106  -0.003769  -0.01143  -0.005372  0.431  -0.7959
6.325e+09  0.11  -1.066  0.022  -0.02463  -0.01031  0.002863  0.1504  -0.8812
6.326e+09  -0.2363  -0.9613  0.02688  0.004107  -0.0272  -0.00577  -0.1375  -0.9026
6.328e+09  -0.6312  -0.8664  -0.001248  -0.01066  -0.02743  0.0445  -0.4304  -0.7876
6.329e+09  -0.9077  -0.6265  0.02604  0.00423  0.02651  -0.02172  -0.6892  -0.5864
6.33e+09  -1.06  -0.2203  0.01898  0.01964  -0.01254  0.07736  -0.8312  -0.3012
6.331e+09  -1.076  0.09773  0.01281  -0.01743  -0.002578  0.04971  -0.9314  -0.05789
6.332e+09  -0.9554  0.4723  -0.01239  -0.0102  0.01167  -0.002122  -0.8537  0.283
6.334e+09  -0.7407  0.7945  -0.01176  0.0286  -0.001145  0.04005  -0.7179  0.5585
6.335e+09  -0.3647  0.9708  -0.01658  0.006615  0.02743  -0.0348  -0.475  0.8006
6.336e+09  -0.06537  1.086  -0.02037  -0.0204  -0.02069  -0.03375  -0.2129  0.9302
6.338e+09  0.2863  0.9658  -0.02372  0.03629  -0.02099  0.0199  0.1665  0.9059
6.339e+09  0.6784  0.8533  -0.06245  0.0004442  -0.02288  0.004202  0.4233  0.8119
6.34e+09  0.9578  0.5147  0.0311  -0.00272  0.0133  -0.01666  0.6971  0.6306
6.341e+09  1.106  0.2295  0.01848  -0.03124  -0.006062  -0.02288  0.8801  0.3615
6.342e+09  1.078  -0.1708  -0.01633  0.003828  -0.002142  -0.01256  0.928  0.06403
6.344e+09  0.9309  -0.5703  -0.005242  0.04013  0.06449  0.05486  0.9154  -0.2605
6.345e+09  0.6612  -0.83  0.02165  -0.02964  0.01233  -0.007471  0.7656  -0.5568
6.346e+09  0.3615  -1.083  -0.03537  -0.01176  0.02514  0.03862  0.5017  -0.7844
6.348e+09  -0.01853  -1.133  -0.004818  0.001802  -0.02684  0.02629  0.1679  -0.9211
6.349e+09  -0.3481  -1.026  0.01835  0.003255  -0.001564  0.002782  -0.1056  -0.9225
6.35e+09  -0.7735  -0.8075  0.004946  0.01962  -0.02416  0.02378  -0.3848  -0.8429
6.351e+09  -0.9576  -0.5038  0.0005327  0.007041  0.01266  0.01295  -0.6732  -0.6497
6.352e+09  -1.125  -0.1027  -0.0282  -0.00296  0.02365  0.002242  -0.8908  -0.3846
6.354e+09  -1.097  0.2877  0.0193  -0.03996  0.01345  -0.005219  -0.9605  -0.04629
6.355e+09  -0.9801  0.6269  -0.01707  -0.01241  -0.02369  -0.0396  -0.9059  0.2494
6.356e+09  -0.6738  0.9434  -0.0211  0.0221  0.03186  0.04988  -0.7481  0.5721
6.358e+09  -0.3563  1.114  0.008588  0.0004139  -0.02925  -0.03935  -0.5309  0.7847
6.359e+09  0.1544  1.138  -0.004379  -0.002509  -0.01862  0.04263  -0.2357  0.9516
6.36e+09  0.4932  1.063  -0.01621  -0.002891  0.00385  0.009858  0.09996  0.9806
6.361e+09  0.8729  0.8071  -0.02615  -0.04352  0.01935  -0.007548  0.4179  0.8724
6.362e+09  1.058  0.4659  0.01577  0.01247  0.01061  0.001823  0.7044  0.7048
6.364e+09  1.212  0.07927  -0.003041  -0.008739  0.0008132  -0.01322  0.8356  0.4112
6.365e+09  1.119  -0.3281  -0.0242  0.01445  -0.02374  -0.05475  0.9648  0.08615
6.366e+09  0.9999  -0.7729  0.006456  -0.01871  -0.005353  -0.03275  0.9273  -0.2593
6.368e+09  0.707  -1.018  -0.007723  0.03979  -0.02481  0.04944  0.8055  -0.5378
6.369e+09  0.2599  -1.209  -0.01864  0.02847  -0.05267  -0.0125  0.5404  -0.7771
6.37e+09  -0.09114  -1.213  -0.002931  -0.002458  0.02668  -0.04151  0.2418  -0.9306
6.371e+09  -0.5494  -1.099  0.004268  -0.006366  -0.04397  -0.01502  -0.09722  -0.9712
6.372e+09  -0.9438  -0.7898  0.007967  -0.003757  -0.008781  0.01337  -0.3744  -0.8631
6.374e+09  -1.155  -0.4463  -0.002908  -0.04228  -0.001828  0.008162  -0.7163  -0.7037
6.375e+09  -1.237  -0.06074  -0.02122  0.006375  0.02582  -0.01724  -0.8424  -0.4079
6.376e+09  -1.194  0.4414  0.0137  -0.01906  0.001911  -0.01889  -0.9243  -0.08311
6.378e+09  -0.9926  0.8091  -0.03348  -0.0006877  -0.01555  -0.01202  -0.9406  0.2464
6.379e+09  -0.6359  1.095  -0.001137  -0.0551  0.03522  0.01541  -0.8098  0.563
6.38e+09  -0.2736  1.261  -0.013  0.02779  -0.007577  -0.009129  -0.5379  0.7635
6.381e+09  0.2286  1.291  -0.0304  -0.05234  0.001913  -0.02648  -0.2894  0.9254
6.382e+09  0.6397  1.116  -0.008999  -0.00596  0.01875  -7.189e-05  0.03866  0.9578
6.384e+09  1.023  0.8411  0.00318  0.012  0.03496  0.01481  0.3878  0.8523
6.385e+09  1.319  0.4489  -0.005743  0.02273  -0.01004  0.005147  0.6249  0.6935
6.386e+09  1.357  -0.05489  -0.01438  -0.03417  0.01866  0.04102  0.8203  0.4151
6.388e+09  1.277  -0.5353  0.003436  -0.003031  -0.008791  -0.03071  0.9313  0.1279
6.389e+09  1.039  -0.9305  -0.05342  -0.02972  0.03255  -0.01142  0.8858  -0.211
6.39e+09  0.6455  -1.278  -0.002804  0.0006319  0.01329  0.01713  0.8063  -0.5342
6.391e+09  0.1693  -1.424  -0.01642  -0.01303  0.01721  0.02372  0.6139  -0.7034
6.392e+09  -0.356  -1.34  -0.02905  0.03266  0.04309  0.003905  0.2943  -0.8663
6.394e+09  -0.7571  -1.206  -0.01929  0.02185  0.03002  0.02263  -0.02365  -0.9073
6.395e+09  -1.112  -0.8669  0.003947  -0.00182  -0.05529  0.02253  -0.3804  -0.8729
6.396e+09  -1.461  -0.4086  -0.004162  0.03887  0.001166  -0.01301  -0.5898  -0.716
6.398e+09  -1.486  0.05106  -0.01318  0.01889  0.04808  0.01418  -0.788  -0.423
6.399e+09  -1.404  0.5786  0.02088  0.003259  0.015  -0.04056  -0.9134  -0.1703
6.4e+09  -1.087  1.065  0.01199  0.002465  0.01613  0.01086  -0.9167  0.1426
6.401e+09  -0.7197  1.38  0.03346  0.02124  0.07399  0.06793  -0.7807  0.534
6.402e+09  -0.1309  1.547  0.001165  0.009666  0.006009  -0.01312  -0.5933  0.7056
6.404e+09  0.3779  1.567  -0.02292  -0.002734  0.03044  -0.003782  -0.2849  0.8365
6.405e+09  0.8968  1.286  0.01051  -0.05081  -0.04502  0.02271  -0.0297  0.9358
6.406e+09  1.351  0.9134  -0.01134  -0.0007723  -0.02041  0.03197  0.2941  0.8338
6.408e+09  1.569  0.3911  0.01315  0.0215  0.01604  -0.0324  0.5684  0.6893
6.409e+09  1.652  -0.1869  -0.004727  0.01838  -0.0166  0.005147  0.814  0.4574
6.41e+09  1.531  -0.7529  -0.01162  0.01704  -0.02019  -0.001041  0.8792  0.1402
6.411e+09  1.176  -1.296  0.02309  0.05831  0.01779  -0.0269  0.944  -0.1443
6.412e+09  0.5829  -1.633  -0.01011  0.006196  0.006093  -0.04628  0.7803  -0.3937
6.414e+09  0.03752  -1.719  -0.009497  -0.005134  0.02221  0.04269  0.6384  -0.6551
6.415e+09  -0.5682  -1.667  0.0008291  -0.03316  0.02247  0.02937  0.299  -0.8507
6.416e+09  -1.22  -1.407  -0.008733  -0.02529  -0.03259  -0.04921  0.02343  -0.8529
6.418e+09  -1.611  -0.9219  -0.015  0.01563  -0.02016  -0.08132  -0.2882  -0.8391
6.419e+09  -1.834  -0.2543  0.05586  0.02052  -0.03824  -0.00183  -0.5087  -0.7465
6.42e+09  -1.896  0.3992  0.01892  0.002128  -0.01065  0.03417  -0.731  -0.464
6.421e+09  -1.638  1.046  0.02077  -0.01463  0.0203  -0.03395  -0.849  -0.1736
6.422e+09  -1.165  1.549  -0.007918  0.02953  0.03572  -0.003263  -0.8835  0.1092
6.424e+09  -0.4948  1.969  -0.04555  0.006968  -0.03206  0.01411  -0.8178  0.424
6.425e+09  0.1723  2.063  0.02794  -0.01147  0.06042  -0.02157  -0.6184  0.6904
6.426e+09  0.8741  1.852  0.02919  0.02582  -0.03874  -0.02392  -0.3659  0.8188
6.428e+09  1.572  1.519  -0.0372  -0.07544  -0.02719  -0.005487  -0.007657  0.9101
6.429e+09  2.057  0.8572  0.0205  0.00296  -0.02488  -0.02389  0.2776  0.8347
6.43e+09  2.241  0.04011  0.02233  -0.03761  0.00794  -0.005567  0.4983  0.6814
6.431e+09  2.193  -0.7346  0.007428  0.001971  -0.02706  0.02261  0.6904  0.4448
6.432e+09  1.76  -1.474  -0.02626  0.0007086  -0.006187  -0.04789  0.8218  0.1892
6.434e+09  1.233  -2.047  -0.02736  -0.01277  0.004975  0.02543  0.8958  -0.09939
6.435e+09  0.3591  -2.374  0.006876  0.001329  -0.01648  -0.05614  0.7604  -0.3854
6.436e+09  -0.5135  -2.43  0.02457  -0.03387  -0.05205  -0.01541  0.5672  -0.6447
6.438e+09  -1.363  -2.126  0.02545  0.01378  -0.005984  0.03201  0.3651  -0.824
6.439e+09  -2.06  -1.479  0.02033  -0.01966  0.00837  0.04821  0.0508  -0.8888
6.44e+09  -2.518  -0.6521  -0.004916  0.006129  0.02002  0.02328  -0.196  -0.8086
6.441e+09  -2.621  0.2822  -0.003805  0.008205  0.04388  -0.04488  -0.5197  -0.7259
6.442e+09  -2.428  1.229  -0.02824  0.03918  0.0235  -0.03763  -0.7137  -0.5352
6.444e+09  -1.844  2.156  0.0152  0.01332  -0.01782  -0.0005077  -0.8084  -0.2146
6.445e+09  -0.9397  2.651  -0.001938  0.02152  -0.00467  -0.02634  -0.8073  0.1002
6.446e+09  0.06937  2.989  -0.01769  0.00647  0.05294  -0.09184  -0.7907  0.3469
6.448e+09  1.144  2.814  0.01238  -0.004886  -0.04634  -0.04711  -0.6093  0.6108
6.449e+09  2.095  2.243  -0.004496  0.03589  -0.008047  0.03697  -0.3788  0.7422
6.45e+09  2.925  1.382  0.001554  -0.01206  0.02703  -0.02418  -0.08032  0.8321
6.451e+09  3.216  0.1974  -0.02394  0.04157  0.04748  -0.01637  0.2348  0.8269
6.452e+09  3.168  -1.013  -0.007821  -0.07706  0.006474  0.03811  0.5056  0.7075
6.454e+09  2.706  -2.13  0.0004737  -0.003068  -0.02108  0.02217  0.713  0.4733
6.455e+09  1.804  -3.079  0.01294  0.02233  0.06249  -0.01188  0.7698  0.1779
6.456e+09  0.476  -3.462  -0.06404  0.04311  0.07046  -0.09032  0.8243  -0.05584
6.458e+09  -0.7481  -3.514  -0.02475  0.04894  -0.01546  -0.03877  0.7406  -0.3776
6.459e+09  -2.187  -3.05  0.01361  -0.02298  -0.06876  -0.03779  0.5676  -0.6085
6.46e+09  -3.308  -2.099  -0.02378  -0.01239  0.04992  0.02086  0.2843  -0.7382
6.461e+09  -3.845  -0.6988  -0.00524  0.008923  -0.0003666  -0.0525  0.05913  -0.7549
6.462e+09  -3.937  0.6566  -0.03195  -0.003915  -0.01872  -0.09949  -0.2102  -0.7673
6.464e+09  -3.536  2.204  -0.02864  0.02893  -0.08689  -0.06163  -0.4547  -0.6826
6.465e+09  -2.457  3.457  -0.03395  -0.02331  0.02585  0.007339  -0.6741  -0.4695
6.466e+09  -1.081  4.275  0.03313  -0.02121  -0.009735  -0.06487  -0.7511  -0.2372
6.468e+09  0.6516  4.394  0.04818  -0.01266  0.01596  0.05693  -0.8119  0.0984
6.469e+09  2.382  3.837  0.04548  -0.02888  0.088  -0.03919  -0.7225  0.3274
6.47e+09  3.651  2.708  -0.0009911  0.0266  0.06739  0.08474  -0.5736  0.5479
6.471e+09  4.753  1.348  0.02722  -0.001426  0.02252  0.03146  -0.3477  0.6803
6.472e+09  4.805  -0.6028  -0.01058  0.006198  -0.02014  0.008891  -0.05654  0.8215
6.474e+09  4.384  -2.514  0.006035  0.04212  -0.02018  0.07056  0.2197  0.7818
6.475e+09  3.013  -4.078  0.04512  -0.003646  -0.04452  0.004416  0.4168  0.6481
6.476e+09  1.44  -5.036  7.535e-05  -0.00691  -0.09354  0.07927  0.6107  0.4541
6.478e+09  -0.713  -5.36  -0.02443  -0.06477  0.04311  0.04812  0.7756  0.1661
6.479e+09  -2.701  -4.626  0.004143  0.002522  0.02097  -0.1073  0.75  -0.07224
6.48e+09  -4.321  -3.339  -0.01048  -0.05004  0.0826  0.129  0.6944  -0.3315
6.481e+09  -5.659  -1.453  -0.003817  -0.003392  -0.07933  0.02105  0.5442  -0.5554
6.482e+09  -5.732  0.91  -0.03668  -0.02702  0.03617  0.1006  0.3481  -0.7161
6.484e+09  -5.014  2.962  0.001363  -0.01638  -0.06743  -0.0224  0.1134  -0.7627
6.485e+09  -3.472  4.895  0.03543  0.0265  -0.1161  -0.05555  -0.1776  -0.7502
6.486e+09  -1.439  5.877  -0.03605  -0.00816  -0.08174  -0.08206  -0.4462  -0.6414
6.488e+09  0.3716  5.891  0.0213  -0.007622  0.2116  0.6409  -0.6504  -0.4341
6.489e+09  3.468  5.154  0.03346  -0.01201  -0.0098  0.0737  -0.7611  -0.2155
6.49e+09  5.173  3.461  0.03064  -0.0147  -0.0138  -0.009937  -0.765  0.05915
6.491e+09  6.189  1.284  0.003549  -0.01707  0.0343  -0.02675  -0.6534  0.3413
6.492e+09  6.306  -1.436  0.01254  0.02894  0.06715  -0.09  -0.5168  0.5964
6.494e+09  5.107  -3.576  0.005685  -0.002836  -0.06792  0.1517  -0.3135  0.6804
6.495e+09  3.418  -5.56  -0.02703  -0.004744  0.04537  0.1177  -0.04995  0.7682
6.496e+09  1.009  -6.353  0.04072  -0.05237  -0.1006  -0.01291  0.2173  0.7011
6.498e+09  -1.692  -6.383  -0.06633  0.006028  0.02844  -0.06511  0.4575  0.5696
6.499e+09  -4.061  -5.141  -0.005993  -0.003436  0.04135  -0.09679  0.6696  0.4704
6.5e+09  -7.398  2.971  0.0317  -0.009098  -0.004566  0.1368  0.7325  0.1712
6.501e+09  -6.535  -0.5171  0.01793  -0.008803  -0.02708  0.01764  0.7622  -0.1022
6.502e+09  -6.116  2.001  -0.01197  0.001155  0.08159  0.003615  0.6553  -0.3267
6.504e+09  -4.895  4.226  0.01462  -0.006703  0.04425  0.01968  0.5563  -0.541
6.505e+09  -2.838  5.785  -0.0598  -0.02384  0.02002  -0.03123  0.2606  -0.6751
6.506e+09  -0.1946  6.229  0.01132  -0.009548  -0.01031  0.05923  0.006049  -0.7619
6.508e+09  2.316  5.899  -0.009785  0.03999  0.1235  0.004636  -0.2738  -0.7113
6.509e+09  4.34  4.443  0.02887  -0.002758  0.07577  -0.06734  -0.4904  -0.5844
6.51e+09  5.691  2.39  0.01582  0.02249  -0.008457  0.1526  -0.6464  -0.4053
6.511e+09  6.15  0.004999  0.01037  -0.03312  -0.125  -0.06574  -0.7155  -0.1179
6.512e+09  5.613  -2.313  0.02655  -0.005202  -0.03669  0.01392  -0.7425  0.1479
6.514e+09  4.151  -4.265  0.01804  -0.009096  -0.0156  0.01861  -0.6865  0.4075
6.515e+09  2.146  -5.438  -0.009338  0.03512  0.008487  -0.03276  -0.4911  0.5496
6.516e+09  -0.09769  -5.724  -0.01831  -0.04905  0.07597  0.04633  -0.2263  0.7148
6.518e+09  -2.208  -5.216  0.0131  -0.01351  0.008983  -0.0514  -0.01963  0.7278
6.519e+09  -3.99  -3.777  -0.02435  0.01525  0.06528  -0.004335  0.2784  0.7101
6.52e+09  -5.027  -1.872  -0.03345  -0.02698  -0.01725  0.004983  0.4876  0.5703
6.521e+09  -5.354  0.1101  -0.008826  0.009019  0.1175  0.02956  0.6274  0.3565
6.522e+09  -4.743  2.111  -0.02853  -0.002066  0.07444  0.09722  0.737  0.05805
6.524e+09  -3.589  3.751  -0.02104  0.01668  -0.02783  -4.035e-05  0.7523  -0.1714
6.525e+09  -1.808  4.658  -0.00652  0.004983  -0.03499  -0.02421  0.6217  -0.414
6.526e+09  0.1332  4.832  0.01042  0.003148  0.002122  0.01589  0.4054  -0.5818
6.528e+09  1.897  4.441  0.00964  -0.01728  0.0308  0.07792  0.2  -0.7031
6.529e+09  3.309  3.203  0.04  -0.001509  0.07759  -0.02627  -0.03663  -0.7289
6.53e+09  4.257  1.815  0.003182  0.01893  -0.04802  -0.07571  -0.3066  -0.6133
6.531e+09  4.486  -0.001897  0.01698  -0.01599  0.005801  -0.06869  -0.4535  -0.4767
6.532e+09  3.915  -1.593  -0.01253  -0.03482  0.03372  -0.03157  -0.5753  -0.2956
6.534e+09  3.102  -2.992  0.01286  -0.02581  0.0162  0.04912  -0.6636  -0.08851
6.535e+09  1.741  -3.774  -0.02027  -0.02339  -0.05121  -0.03182  -0.5911  0.1481
6.536e+09  0.2091  -4.066  -0.02466  -0.01252  0.01606  0.0368  -0.5674  0.3221
6.538e+09  -1.296  -3.729  0.05693  -0.002461  0.005153  -0.01611  -0.4441  0.4783
6.539e+09  -2.44  -2.956  -0.005332  0.008919  -0.04811  0.05591  -0.2672  0.6078
6.54e+09  -3.331  -1.71  0.001905  0.03677  0.04836  -0.009161  -0.05519  0.6637
6.541e+09  -3.661  -0.3358  0.00372  0.004584  -0.0004763  -0.01035  0.1939  0.6552
6.542e+09  -3.447  0.9429  0.01722  0.005808  0.04609  0.07496  0.4123  0.5829
6.544e+09  -2.82  2.067  0.01268  0.009427  0.01223  0.07201  0.6076  0.4049
6.545e+09  -1.763  2.868  0.01846  0.04755  -0.02249  0.004473  0.7253  0.1964
6.546e+09  -0.6551  3.236  0.0248  -0.02416  -0.0103  0.01727  0.7235  -0.08343
6.548e+09  0.5866  3.268  0.03115  -0.009451  -0.03736  -0.03327  0.6871  -0.3141
6.549e+09  1.672  2.656  -0.03221  -0.02122  -0.04364  0.01764  0.4796  -0.5428
6.55e+09  2.488  1.852  -0.01291  0.02384  -0.07679  0.03876  0.3085  -0.6931
6.551e+09  2.864  0.8059  -0.01283  -0.01581  -0.05189  0.06343  0.04664  -0.7814
6.552e+09  2.957  -0.2865  0.02061  -0.001262  -0.00924  0.01883  -0.236  -0.7189
6.554e+09  2.633  -1.225  -0.01575  0.002009  0.008441  -0.0005538  -0.4421  -0.5685
