# Hz S RI R 50
6.25e+09  1.015  -0.2257  -0.005979  0.02328  0.06769  0.03843  0.1436  0.4666
6.251e+09  0.8282  -0.5609  0.002656  0.004037  0.05184  -0.004812  0.3527  0.4012
6.252e+09  0.6005  -0.817  0.01786  -0.005396  0.04734  0.02975  0.5519  0.2501
6.254e+09  0.2917  -0.949  0.03477  -0.01181  0.0347  -0.0269  0.6146  0.01685
6.255e+09  -0.1134  -0.9904  0.009931  -0.02488  -0.03828  0.006149  0.6297  -0.2501
6.256e+09  -0.4548  -0.9461  -0.02759  0.002091  -0.0004539  -0.01556  0.5029  -0.4229
6.258e+09  -0.7345  -0.7172  0.01952  0.006263  0.01571  0.017  0.2688  -0.6316
6.259e+09  -0.887  -0.4303  0.03206  -0.0002764  -0.01354  -0.02628  0.09347  -0.6931
6.26e+09  -0.9949  -0.04155  -0.004923  -0.004485  -0.01757  -0.01929  -0.1888  -0.6499
6.261e+09  -0.9465  0.3346  -0.06373  0.03671  0.03025  0.01409  -0.4765  -0.5525
6.262e+09  -0.7785  0.6382  0.009377  0.01583  -0.03236  0.01779  -0.6098  -0.3559
6.264e+09  -0.475  0.8174  -0.01939  0.006934  0.03756  -0.06008  -0.7171  -0.09166
6.265e+09  -0.1251  0.9833  -0.01838  0.0003551  -0.02161  0.02064  -0.6909  0.1905
6.266e+09  0.2125  0.9548  -0.01074  0.0006472  -0.02903  -0.001566  -0.6338  0.4047
6.268e+09  0.5568  0.8484  0.03087  -0.004217  -0.03367  -0.009189  -0.4112  0.6047
6.269e+09  0.8273  0.5707  0.0125  -0.002058  0.01235  -0.02049  -0.2103  0.6903
6.27e+09  0.9169  0.2709  -0.006483  0.005522  0.0287  0.002413  0.0717  0.7347
6.271e+09  0.9353  -0.07019  -0.003225  -0.003684  -0.0315  -0.0267  0.3143  0.6914
6.272e+09  0.8405  -0.446  0.01713  0.03857  -0.05591  0.02394  0.5673  0.5193
6.274e+09  0.6229  -0.6915  0.008409  -0.008063  -0.002604  0.08216  0.6376  0.2918
6.275e+09  0.3777  -0.9458  -0.005313  0.04519  -0.06036  0.03038  0.7742  0.02149
6.276e+09  0.03668  -1.019  -0.02024  -0.01217  0.01847  0.0479  0.7046  -0.2169
6.278e+09  -0.3629  -0.9376  0.009703  0.0342  -0.007723  -0.06534  0.6084  -0.4554
6.279e+09  -0.6466  -0.8102  0.007956  0.004051  -0.03377  0.04983  0.4301  -0.6633
6.28e+09  -0.8754  -0.4678  -0.006133  -0.00938  0.0783  -0.04112  0.1968  -0.7733
6.281e+09  -0.9209  -0.121  0.03346  0.01685  0.02397  0.03599  -0.09285  -0.7574
6.282e+09  -0.9552  0.1502  -0.03852  0.003698  -0.0191  0.03486  -0.3862  -0.7037
6.284e+09  -0.873  0.5291  0.007063  -0.00668  0.03686  0.01432  -0.6083  -0.5234
6.285e+09  -0.6255  0.7905  0.0197  -0.05899  0.002745  -0.02153  -0.723  -0.281
6.286e+09  -0.2506  0.9332  -0.01868  0.005062  0.05405  0.04016  -0.7743  -0.01016
6.288e+09  0.09004  0.9892  -0.0107  -0.02319  0.01142  -0.009092  -0.7948  0.2677
6.289e+09  0.4137  0.896  -0.01122  -0.03829  0.009797  -0.01428  -0.6301  0.4931
6.29e+09  0.7192  0.7222  0.01651  0.008045  0.0158  0.0002304  -0.3931  0.6659
6.291e+09  0.9426  0.3784  -0.01617  0.01692  0.05032  0.01695  -0.1341  0.7894
6.292e+09  1.032  0.03043  -0.00721  0.009029  -0.01092  -0.0262  0.1625  0.8281
6.294e+09  0.9267  -0.3518  -0.02025  -0.002557  -0.01724  -0.008601  0.3972  0.6983
6.295e+09  0.7908  -0.6371  0.001762  0.01102  -0.07145  0.02031  0.626  0.5058
6.296e+09  0.4826  -0.9086  -0.02242  0.01334  0.0303  -0.0117  0.7881  0.2965
6.298e+09  0.1408  -1.038  -0.006537  -0.007058  0.0376  0.01224  0.805  0.0161
6.299e+09  -0.1592  -0.9442  0.02153  0.005436  0.01033  0.03014  0.7738  -0.2805
6.3e+09  -0.4947  -0.8438  -0.03702  -0.02995  0.04066  0.02055  0.6529  -0.5302
6.301e+09  -0.7644  -0.6157  -0.01176  0.01438  -0.01448  0.007696  0.4396  -0.7233
6.302e+09  -0.9669  -0.3106  -0.01124  0.009629  -0.0007706  -0.01472  0.1532  -0.7984
6.304e+09  -0.9906  0.1239  -0.01542  -0.002032  -0.008661  -0.02118  -0.1265  -0.8261
6.305e+09  -0.8618  0.4036  0.03977  0.009848  0.007243  -0.01626  -0.4182  -0.7503
6.306e+09  -0.7338  0.7075  0.02085  -0.003167  0.01159  0.01834  -0.6389  -0.544
6.308e+09  -0.404  0.8977  -0.02152  0.006631  0.03228  0.02753  -0.7791  -0.3121
6.309e+09  -0.08553  1.032  -0.01834  0.02823  0.04818  0.0217  -0.843  0.004964
6.31e+09  0.2801  0.924  -0.01397  -0.01339  0.008365  -0.04306  -0.8328  0.3
6.311e+09  0.6892  0.8352  -0.009726  -0.02944  0.001502  -0.0429  -0.663  0.5504
6.312e+09  0.8718  0.5105  0.02136  0.003209  0.02127  -0.01716  -0.4296  0.7415
6.314e+09  0.9411  0.2103  -0.00966  -0.004018  -0.01876  -0.02312  -0.1448  0.8462
6.315e+09  0.9558  -0.1662  0.01529  -0.01132  -0.01793  -0.003239  0.1672  0.8568
6.316e+09  0.8873  -0.5159  -0.02943  0.01335  -0.002098  0.02731  0.4409  0.7493
6.318e+09  0.6575  -0.744  -0.02377  -0.02081  0.05272  -0.01608  0.6621  0.5926
6.319e+09  0.3073  -1.013  -0.004349  -0.008786  -0.009591  -0.01415  0.8512  0.349
6.32e+09  -0.01221  -1.044  -0.02328  0.01159  0.01702  -0.008847  0.8799  0.02717
6.321e+09  -0.365  -0.9703  -0.0229  -0.01417  -0.02962  -0.01425  0.8444  -0.3002
6.322e+09  -0.6944  -0.7672  -0.04061  0.03022  0.02247  -0.05024  0.6999  -0.5823
6.324e+09  -0.918  -0.4439  -0.0119  0.0005291  0.02397  -0.002531  0.471  -0.7768
6.325e+09  -0.9948  -0.1093  0.05783  0.02174  -0.01686  -0.009197  0.1524  -0.9211
6.326e+09  -0.9792  0.2459  0.01565  0.04997  0.02633  -0.01315  -0.136  -0.8601
6.328e+09  -0.8174  0.602  -0.01545  -0.01416  0.01861  0.03542  -0.4172  -0.7667
6.329e+09  -0.5673  0.7942  -0.01576  -0.006964  0.0662  0.0706  -0.6815  -0.5808
6.33e+09  -0.2278  0.9751  0.0117  -0.02107  0.004439  0.03959  -0.8491  -0.336
6.331e+09  0.09819  0.9494  -0.01455  -0.002513  0.01235  -0.03588  -0.9037  -0.04245
6.332e+09  0.5354  0.906  -0.004315  -0.0001421  -0.0384  0.0305  -0.8747  0.2608
6.334e+09  0.773  0.6994  0.02571  0.009773  -0.01027  -0.02692  -0.7274  0.5646
6.335e+09  0.9709  0.3104  0.008941  -0.02102  0.03228  -0.01263  -0.4928  0.7549
6.336e+09  1.014  0.04202  0.004716  -0.0365  -0.01802  0.02355  -0.1815  0.9087
6.338e+09  0.9671  -0.3748  -0.00907  0.0371  -0.02625  0.02542  0.1271  0.9243
6.339e+09  0.7553  -0.6864  0.01919  0.008228  0.009269  -0.01313  0.4009  0.8236
6.34e+09  0.4497  -0.9574  -0.01344  -0.01096  -0.006564  0.04053  0.7046  0.6484
6.341e+09  0.1372  -1.013  0.0442  0.01721  -0.01248  0.02684  0.8829  0.3711
6.342e+09  -0.2166  -1.072  -0.00809  0.007046  -0.005784  -0.01532  0.9365  0.06125
6.344e+09  -0.5808  -0.8964  0.02293  -0.01841  -0.0358  -0.009343  0.9006  -0.245
6.345e+09  -0.8598  -0.6172  -0.006529  0.003002  -0.02902  -0.02471  0.7038  -0.5238
6.346e+09  -1.043  -0.2858  0.02189  0.03814  -0.01558  0.03475  0.5083  -0.7722
6.348e+09  -1.017  0.1226  -0.04559  -0.01684  0.00061  -0.01055  0.2038  -0.895
6.349e+09  -0.9532  0.5439  -0.02676  0.02544  0.03947  -0.04006  -0.06629  -0.9203
6.35e+09  -0.7705  0.7616  0.0009472  0.008148  0.01659  0.009752  -0.4217  -0.8241
6.351e+09  -0.4137  0.9703  -0.001529  0.02435  0.02611  0.007162  -0.7284  -0.6443
6.352e+09  -0.05321  1.082  -0.01551  0.004518  0.04909  -0.02286  -0.8677  -0.358
6.354e+09  0.3732  1.066  0.0004225  0.003118  0.05609  -0.0238  -0.974  -0.07917
6.355e+09  0.7006  0.8324  0.01685  -0.00574  -0.009468  -0.01817  -0.9232  0.2422
6.356e+09  1.008  0.5053  -0.04223  0.02109  -0.01433  0.0247  -0.7704  0.5495
6.358e+09  1.115  0.1528  0.02036  0.02132  -0.005652  0.02388  -0.5422  0.7812
6.359e+09  1.091  -0.2497  0.02969  0.009825  0.03275  -0.01536  -0.2224  0.9103
6.36e+09  0.9396  -0.6056  -0.009147  -0.02345  -0.01961  0.001652  0.05687  0.9189
6.361e+09  0.68  -0.8991  0.002182  0.03554  0.003137  -0.00512  0.3761  0.9125
6.362e+09  0.3498  -1.103  0.01454  -0.01167  0.02493  -0.00013  0.6882  0.7061
6.364e+09  -0.07195  -1.085  0.01229  0.01437  -0.001692  0.01476  0.8484  0.4093
6.365e+09  -0.4699  -1.055  0.02468  0.01587  0.06504  -0.04776  0.9273  0.1142
6.366e+09  -0.8723  -0.7735  -0.00366  -0.02634  -0.01377  -0.02035  0.9444  -0.2654
6.368e+09  -1.069  -0.4316  -0.004023  -0.02477  0.001251  0.04705  0.8027  -0.5216
6.369e+09  -1.139  -0.04504  0.03529  -0.03784  0.00764  -0.05629  0.5427  -0.7862
6.37e+09  -1.117  0.3398  0.01791  0.0447  -0.02178  -0.01017  0.2658  -0.9153
6.371e+09  -0.9448  0.7476  -0.007008  0.008803  0.02821  0.03003  -0.04565  -0.9017
6.372e+09  -0.5503  0.9888  -0.01438  -0.019  0.01375  0.02517  -0.4135  -0.8428
6.374e+09  -0.2373  1.169  -0.02571  -0.02283  -0.0005555  0.0244  -0.6661  -0.6817
6.375e+09  0.2528  1.185  0.005874  -0.0221  -0.009282  -0.002949  -0.8229  -0.4403
6.376e+09  0.6718  1.001  0.01198  0.007972  -0.006338  0.02118  -0.938  -0.08962
6.378e+09  0.9772  0.7096  0.009564  -0.03611  0.01978  -0.03497  -0.9003  0.2083
6.379e+09  1.141  0.2807  -0.008289  0.03843  0.01136  -0.02274  -0.806  0.5167
6.38e+09  1.251  -0.1091  -0.009753  0.01535  -0.02874  -0.002228  -0.558  0.7607
6.381e+09  1.087  -0.5747  0.009884  -0.02594  -0.009511  0.03361  -0.254  0.9318
6.382e+09  0.8239  -0.9083  0.01911  -0.01463  0.04086  -0.00902  0.03542  0.9357
6.384e+09  0.4157  -1.177  0.01162  0.004759  0.03318  -0.03445  0.3596  0.8274
6.385e+09  -0.02376  -1.244  0.0003282  -0.03305  -0.02367  0.00719  0.606  0.6994
6.386e+09  -0.44  -1.177  -0.01846  -0.01988  0.001023  0.01338  0.8349  0.4354
6.388e+09  -0.8325  -0.9342  0.002194  0.02218  0.03197  0.01743  0.9571  0.07815
6.389e+09  -1.155  -0.5779  -0.007623  -0.005057  0.01808  0.02345  0.9053  -0.2001
6.39e+09  -1.273  -0.1392  0.004206  0.04801  -0.01567  0.04121  0.8166  -0.518
6.391e+09  -1.284  0.3399  -0.009924  0.01283  0.01012  -0.0007432  0.5797  -0.7699
6.392e+09  -1.083  0.6945  0.0006679  0.005154  0.02223  -0.006711  0.2958  -0.9099
6.394e+09  -0.7781  1.08  -0.06888  0.01199  0.007608  -0.02391  -0.03423  -0.9728
6.395e+09  -0.2956  1.242  0.02684  0.02867  0.02756  0.009705  -0.3778  -0.8749
6.396e+09  0.2149  1.354  -0.05357  -0.01291  0.01599  0.006538  -0.6112  -0.6878
6.398e+09  0.6346  1.135  0.004105  0.01595  -0.05515  0.006388  -0.8267  -0.3799
6.399e+09  1.019  0.9167  -0.01746  0.01535  -0.02028  0.0143  -0.8828  -0.1063
6.4e+09  1.351  0.4629  -0.01917  -0.02169  -0.01846  0.0008533  -0.8983  0.1783
6.401e+09  1.321  -0.07213  0.04854  0.05269  0.0239  0.03995  -0.7804  0.4633
6.402e+09  1.243  -0.5637  -0.03988  0.07243  -0.05284  0.003643  -0.5664  0.7014
6.404e+09  1.013  -0.9807  0.01027  -0.04732  -0.01499  0.09609  -0.3324  0.8727
6.405e+09  0.5739  -1.302  -0.0043  -0.02065  -0.02673  0.004315  -0.02626  0.9238
6.406e+09  0.07868  -1.438  0.03749  -0.01226  -0.007745  0.002487  0.2783  0.8638
6.408e+09  -0.452  -1.374  0.01177  -0.01078  -0.02439  0.03241  0.5415  0.6936
6.409e+09  -0.9455  -1.081  0.04046  -0.04328  0.003691  0.03278  0.7741  0.4998
6.41e+09  -1.252  -0.6382  0.02449  -0.01545  0.008519  -0.007767  0.9076  0.1775
6.411e+09  -1.407  -0.1089  -0.02525  -0.01416  0.01566  -0.03734  0.8535  -0.1046
6.412e+09  -1.35  0.4027  0.0005143  -0.002043  -0.0101  0.01525  0.8152  -0.4335
6.414e+09  -1.089  0.9257  -0.007245  -0.01586  0.02442  -0.01268  0.5749  -0.6676
6.415e+09  -0.7029  1.236  -0.01053  -0.01819  -0.03159  -0.01793  0.3528  -0.8153
6.416e+09  -0.2121  1.422  -0.01082  -0.0103  0.0296  -0.03346  0.0428  -0.8558
6.418e+09  0.3493  1.436  -0.02748  0.05676  0.01336  -0.01785  -0.2927  -0.8936
6.419e+09  0.8277  1.191  -0.02358  -0.04537  -0.03165  -0.01359  -0.5423  -0.7193
6.42e+09  1.226  0.8008  -0.006226  0.01782  -0.02973  -0.02127  -0.7586  -0.4477
6.421e+09  1.471  0.3016  -0.01064  -0.01321  0.01982  0.02788  -0.848  -0.196
6.422e+09  1.426  -0.1954  -0.008576  0.02449  0.02037  0.01093  -0.9105  0.1154
6.424e+09  1.241  -0.77  -0.004099  -0.03379  0.00679  -0.004427  -0.77  0.4273
6.425e+09  0.8509  -1.167  0.03942  0.04843  -0.001354  -0.01625  -0.5532  0.6838
6.426e+09  0.4158  -1.398  0.02894  0.001211  0.02854  0.04115  -0.3415  0.7724
6.428e+09  -0.1248  -1.433  -0.03287  -0.007907  0.002543  -0.03192  -0.04805  0.8885
6.429e+09  -0.6561  -1.306  0.02281  0.01675  0.02593  0.01018  0.273  0.8272
6.43e+09  -1.095  -0.9814  0.04362  -0.008086  -0.01991  0.01454  0.5287  0.7343
6.431e+09  -1.352  -0.4831  0.00448  0.03551  0.0685  -0.03388  0.7247  0.4435
6.432e+09  -1.457  0.04431  -0.006146  -0.05224  -0.005744  0.05066  0.8808  0.2263
6.434e+09  -1.342  0.5612  -0.001654  0.005091  0.03195  0.03477  0.8698  -0.09363
6.435e+09  -1.047  1.02  0.04087  0.01354  0.005607  0.04363  0.7834  -0.3637
6.436e+09  -0.5348  1.315  -0.007956  -0.01242  0.0142  -0.0251  0.622  -0.6333
6.438e+09  -0.00734  1.401  0.0188  0.02458  -0.0007106  0.04021  0.3375  -0.7801
6.439e+09  0.4416  1.291  -0.0309  -0.01535  0.01411  -0.02351  0.06634  -0.8204
6.44e+09  0.9204  1.036  -0.006916  -0.03982  -0.0394  -0.0257  -0.2375  -0.8496
6.441e+09  1.245  0.6864  0.02199  -0.01034  0.03451  -0.00631  -0.4653  -0.7094
6.442e+09  1.341  0.1829  0.02506  0.04563  0.01284  0.05253  -0.6901  -0.5103
6.444e+09  1.305  -0.3693  -0.00613  -0.02079  0.00476  0.02568  -0.8283  -0.2057
6.445e+09  1.079  -0.7786  -0.04802  -0.01653  -0.01381  -0.02118  -0.8956  0.1235
6.446e+09  0.7595  -1.166  -0.01075  -0.009917  -0.01758  0.0323  -0.7865  0.3726
6.448e+09  0.2999  -1.327  0.01612  -0.02339  -0.008373  -0.01003  -0.5879  0.5949
6.449e+09  -0.1731  -1.291  0.03137  0.008226  -0.003477  0.02612  -0.3247  0.8225
6.45e+09  -0.668  -1.113  0.02022  -0.006039  -0.01807  0.05013  -0.05276  0.8242
6.451e+09  -1.05  -0.7527  0.01826  0.02448  0.02685  -0.02016  0.2366  0.8087
6.452e+09  -1.205  -0.3793  -0.01832  0.006697  0.02841  0.02101  0.4985  0.6759
6.454e+09  -1.279  0.07163  -0.03554  -0.003545  -0.007363  -0.009825  0.6919  0.4717
6.455e+09  -1.19  0.519  -0.0194  -0.003437  -0.02125  -0.005371  0.8343  0.2046
6.456e+09  -0.887  0.8754  -0.01391  0.02036  0.00418  0.01155  0.842  -0.08124
6.458e+09  -0.5305  1.196  0.01341  -0.006189  -0.02412  0.03143  0.7647  -0.3358
6.459e+09  -0.08356  1.214  -0.02428  -0.01606  0.03361  0.02338  0.589  -0.6307
6.46e+09  0.3679  1.129  -0.01681  -0.01591  -0.02214  0.009553  0.3116  -0.7437
6.461e+09  0.7535  0.9349  0.04455  0.01895  -0.03043  0.02475  0.08414  -0.8545
6.462e+09  1.04  0.6516  0.005219  0.007607  -0.004926  -0.02888  -0.2254  -0.7668
6.464e+09  1.183  0.1806  0.01855  0.009678  -0.0001816  0.02376  -0.4688  -0.6514
6.465e+09  1.214  -0.2056  0.01939  -0.05961  0.01854  -0.04401  -0.6847  -0.4943
6.466e+09  0.9856  -0.6277  -0.02354  -0.01537  -0.02457  0.005791  -0.804  -0.2514
6.468e+09  0.7551  -0.9583  -0.02672  -0.004924  0.02386  0.03084  -0.8093  0.07549
6.469e+09  0.2985  -1.117  -0.032  0.003783  -0.02543  0.02387  -0.7238  0.366
6.47e+09  -0.02897  -1.136  0.01139  -0.007251  0.04106  -0.04265  -0.5362  0.6013
6.471e+09  -0.4434  -1.021  0.003762  -0.02187  -0.05186  0.05448  -0.3081  0.7154
6.472e+09  -0.8217  -0.821  -0.009304  0.009372  0.03823  -0.0119  -0.03127  0.8235
6.474e+09  -1.01  -0.4561  -0.0001851  0.04672  -0.02559  -0.01359  0.1778  0.7654
6.475e+09  -1.162  -0.05688  0.00125  0.03315  -0.0389  -0.05329  0.4726  0.6266
6.476e+09  -1.077  0.3208  -0.01255  -0.009439  0.02992  -0.00814  0.6348  0.4299
6.478e+09  -0.8663  0.6861  0.009292  0.03029  -0.0498  0.0002522  0.7273  0.2027
6.479e+09  -0.6412  0.9798  -0.01477  0.02858  -0.01208  0.03733  0.7946  -0.07944
6.48e+09  -0.2311  1.07  0.001584  0.0329  -0.06133  0.01442  0.7483  -0.3514
6.481e+09  0.1315  1.068  -0.01291  0.006324  -0.004976  -0.04265  0.5183  -0.5349
6.482e+09  0.5475  1.008  0.0008242  0.02905  -0.005672  0.02698  0.2966  -0.7231
6.484e+09  0.8233  0.7097  0.00783  -0.00887  -0.04178  -0.01293  0.09646  -0.8077
6.485e+09  1.04  0.3989  -0.0284  0.03605  -0.01681  -0.05014  -0.2232  -0.7667
6.486e+09  1.101  0.02471  0.001258  -0.01784  0.008551  -0.01  -0.454  -0.6516
6.488e+09  0.3147  -0.1366  -0.02185  -0.0009527  0.6043  -0.4934  -0.6235  -0.3883
6.489e+09  0.7916  -0.6976  0.000715  0.007514  -0.0126  0.01053  -0.7094  -0.2141
6.49e+09  0.5458  -0.909  0.003207  -0.02267  0.03726  -0.001377  -0.7952  0.08509
6.491e+09  0.08663  -1.103  -0.02977  -0.001708  -0.01072  0.06023  -0.6616  0.3614
6.492e+09  -0.2373  -1.038  -0.02635  0.006272  0.004855  0.01258  -0.5611  0.5583
6.494e+09  -0.6168  -1.04  -0.006784  0.01659  0.04385  -0.09207  -0.3051  0.7045
6.495e+09  -0.847  -0.6339  0.003324  0.02251  0.02451  -0.004301  -0.05725  0.7564
6.496e+09  -1.019  -0.2992  -0.01055  -0.01158  -0.01188  -0.03666  0.233  0.7312
6.498e+09  -1.049  0.08452  -0.007373  0.04134  -0.01954  0.01015  0.4697  0.614
6.499e+09  -0.9826  0.407  -0.01867  -0.02314  -0.03109  -0.04431  0.6722  0.4421
6.5e+09  -1.303  1.262  0.00444  -0.02504  0.05036  -0.01717  0.7374  0.1865
6.501e+09  -0.4403  1.028  0.006721  -0.008269  0.0084  -0.002933  0.7559  -0.1349
6.502e+09  -0.08128  1.047  0.02022  0.0144  -0.009699  -0.01759  0.6826  -0.3517
6.504e+09  0.2466  1.046  -0.02577  0.01051  0.05326  0.006382  0.4989  -0.5923
6.505e+09  0.6576  0.8762  -0.006189  -0.02427  -0.02352  -0.01406  0.2544  -0.7039
6.506e+09  0.8966  0.6369  -0.03989  -0.005427  -0.04725  -0.03587  0.02152  -0.7678
6.508e+09  1.025  0.2588  0.0242  0.006206  0.008557  -0.002213  -0.2892  -0.7245
6.509e+09  1.087  -0.1344  -0.04208  0.03868  -0.0368  0.07953  -0.4975  -0.6014
6.51e+09  0.9685  -0.4649  0.03891  0.005711  0.02448  0.04762  -0.6487  -0.3527
6.511e+09  0.763  -0.7825  0.006087  -0.02258  -0.0237  0.01403  -0.7598  -0.1314
6.512e+09  0.4418  -1.044  -0.007453  0.001581  0.01336  -0.03095  -0.7532  0.1427
6.514e+09  0.05253  -1.085  -0.02407  -0.01191  -0.0888  0.004752  -0.6465  0.3693
6.515e+09  -0.3316  -1.056  -0.01587  -0.0004485  -0.02351  0.03017  -0.498  0.5854
6.516e+09  -0.6463  -0.8872  -0.01755  -0.05932  -0.02912  -0.04598  -0.2492  0.6818
6.518e+09  -0.9229  -0.6238  -0.03164  -0.004227  0.02979  0.03126  0.003473  0.7384
6.519e+09  -1.144  -0.2767  -0.0005504  -0.01621  -0.08654  -0.01303  0.2962  0.6873
6.52e+09  -1.131  0.1625  0.0002555  -0.006308  -0.05218  -0.006023  0.4924  0.5857
6.521e+09  -0.9915  0.564  0.004943  -0.03769  -0.04767  -0.01827  0.6531  0.3479
6.522e+09  -0.7532  0.8952  -0.02368  0.0001543  -0.01658  0.01169  0.7588  0.05486
6.524e+09  -0.4179  1.058  -0.009596  0.01622  0.008956  0.023  0.7353  -0.1782
6.525e+09  0.01597  1.154  -0.02648  0.01937  -0.01666  0.003368  0.6384  -0.4112
6.526e+09  0.3953  1.088  -0.005662  0.006644  -0.004604  -0.03226  0.4424  -0.5853
6.528e+09  0.724  0.911  -0.01475  -0.03216  0.01498  -0.021  0.1967  -0.6801
6.529e+09  0.9976  0.5887  0.01001  0.007499  -0.01568  -0.01271  -0.03388  -0.6711
6.53e+09  1.173  0.1593  0.002597  -0.02111  -0.005262  0.02321  -0.3013  -0.5979
6.531e+09  1.172  -0.2667  0.02577  0.02557  0.01721  -0.05196  -0.4369  -0.5105
6.532e+09  1.034  -0.6554  -0.007492  0.02017  0.01847  -0.003447  -0.5838  -0.2938
6.534e+09  0.754  -0.9644  -0.03133  -0.008746  0.03562  0.01163  -0.6132  -0.05387
6.535e+09  0.3706  -1.157  -0.02932  0.008418  -0.04455  -0.002962  -0.6584  0.1096
6.536e+09  -0.08637  -1.212  0.01264  -0.02948  -0.01446  -0.01996  -0.5738  0.2722
6.538e+09  -0.4877  -1.137  0.009258  -0.004211  -0.05349  0.01085  -0.4512  0.4654
6.539e+09  -0.8733  -0.9148  -0.02964  -0.007922  0.02894  -0.03369  -0.2739  0.6137
6.54e+09  -1.142  -0.5663  -0.008088  0.02198  0.01438  -0.02347  -0.05614  0.6555
6.541e+09  -1.243  -0.07909  0.03369  -0.003087  0.008643  -0.03388  0.1865  0.6786
6.542e+09  -1.244  0.3066  0.02619  0.02051  0.03721  -0.04838  0.4036  0.5685
6.544e+09  -1.048  0.7463  -0.001439  -0.03696  0.01493  -0.004647  0.5868  0.4016
6.545e+09  -0.6787  1.144  -0.01779  0.01886  0.006888  -0.02154  0.725  0.1994
6.546e+09  -0.2668  1.328  -0.00727  -0.01227  0.02707  0.02338  0.7199  -0.08445
6.548e+09  0.1654  1.279  -0.00999  -0.009629  -0.002723  -0.02335  0.6555  -0.3284
6.549e+09  0.6351  1.147  -0.01049  -0.01861  0.05324  0.02302  0.5126  -0.5351
6.55e+09  0.9989  0.8693  0.01711  -0.002128  0.01044  0.04516  0.2804  -0.7158
6.551e+09  1.315  0.4839  0.01128  -0.00541  0.005474  -0.04688  0.02942  -0.7592
6.552e+09  1.417  -0.02751  -0.001588  0.01246  -0.02084  -0.05481  -0.2213  -0.69
