# Hz S RI R 50
6.25e+09  0.7289  -0.7204  0.005757  0.02011  0.02384  0.005759  0.1543  0.4538
6.251e+09  0.4301  -0.9509  -0.004265  -0.006409  -0.06432  -0.05161  0.3726  0.3775
6.252e+09  0.07362  -1.021  -0.00132  0.0007671  0.02367  0.01136  0.557  0.2343
6.254e+09  -0.2625  -0.9445  -0.01492  0.00141  -0.01685  0.04399  0.6093  0.0263
6.255e+09  -0.589  -0.7067  -0.004512  -0.004526  -0.02781  0.001493  0.5801  -0.22
6.256e+09  -0.8657  -0.5192  0.01113  0.01289  0.05227  -0.05753  0.488  -0.4477
6.258e+09  -0.9244  -0.1391  -0.008463  -0.01191  0.006414  -0.009105  0.2553  -0.634
6.259e+09  -1.007  0.1904  0.002033  0.01941  0.02266  -0.006345  0.001328  -0.6856
6.26e+09  -0.8758  0.5227  -0.003405  0.01373  -0.04393  0.03732  -0.2082  -0.6423
6.261e+09  -0.6205  0.7795  0.03635  -0.01299  0.01425  -0.0008106  -0.4577  -0.5113
6.262e+09  -0.2285  0.9247  -0.003669  -0.006939  -0.0143  0.01821  -0.6509  -0.3565
6.264e+09  0.09306  0.9467  0.03806  0.0009894  -0.01638  0.007696  -0.6784  -0.1152
6.265e+09  0.3402  0.8634  -0.03246  -0.005246  0.04779  0.002005  -0.7405  0.1572
6.266e+09  0.6972  0.6734  0.02854  0.005696  0.004179  -0.03426  -0.606  0.4172
6.268e+09  0.9107  0.4117  -0.001262  -0.002842  -0.02712  -0.02697  -0.4417  0.6168
6.269e+09  0.9714  -0.02798  0.01874  0.02645  -0.01319  -0.04397  -0.185  0.7173
6.27e+09  0.9334  -0.3586  0.02346  -0.007812  -0.009884  0.0305  0.04714  0.731
6.271e+09  0.7299  -0.6203  -0.02258  0.001693  -0.02168  0.01265  0.3315  0.6887
6.272e+09  0.5074  -0.8318  0.006462  0.003726  0.0156  0.00485  0.5517  0.5202
6.274e+09  0.1552  -0.9483  -0.001998  0.02705  -0.004167  0.01042  0.7226  0.3075
6.275e+09  -0.271  -0.9841  -0.005713  0.02961  0.03718  -0.01735  0.7403  0.02678
6.276e+09  -0.4912  -0.7865  0.001931  0.02127  -0.02749  0.04022  0.7065  -0.2215
6.278e+09  -0.7719  -0.5263  0.01649  -0.01106  -0.04893  0.01995  0.607  -0.4488
6.279e+09  -0.9183  -0.2539  -0.04112  -0.009544  -0.01925  0.01394  0.408  -0.6681
6.28e+09  -0.9465  0.118  0.002945  -0.0109  0.05432  0.01232  0.1779  -0.798
6.281e+09  -0.8639  0.4641  -0.02137  0.003269  -0.00713  0.004005  -0.07448  -0.7518
6.282e+09  -0.6979  0.6577  4.352e-05  -0.006992  0.01915  -0.0311  -0.3774  -0.7142
6.284e+09  -0.3355  0.9495  0.02311  0.02547  -0.03806  -0.01205  -0.5745  -0.5579
6.285e+09  -0.00644  0.9368  -0.02281  0.004739  0.01173  -0.0116  -0.711  -0.2851
6.286e+09  0.3183  0.9541  -0.02076  -0.0004797  -0.01824  -0.01987  -0.8235  -0.02144
6.288e+09  0.6204  0.7185  -0.008368  0.03782  -0.04311  0.0006751  -0.736  0.2552
6.289e+09  0.8594  0.442  0.01818  0.0007192  -0.002701  -0.0008081  -0.6387  0.4843
6.29e+09  1.008  0.1695  -0.01033  -0.02824  -5.414e-05  -0.002973  -0.4234  0.7063
6.291e+09  0.925  -0.2161  0.01262  0.02243  -0.02458  -0.006165  -0.1821  0.7859
6.292e+09  0.7704  -0.4752  -0.00342  0.02057  -0.04893  -0.01743  0.07274  0.8029
6.294e+09  0.5711  -0.724  -0.00218  -0.02551  0.02143  0.009985  0.4158  0.7321
6.295e+09  0.2456  -0.8791  0.0005362  0.02706  -0.009936  -0.02404  0.6226  0.5387
6.296e+09  -0.07014  -0.9865  0.0183  -0.005203  0.04233  -0.0322  0.7731  0.2831
6.298e+09  -0.3773  -0.8447  0.0156  -0.003619  0.02611  -0.01036  0.8401  0.006582
6.299e+09  -0.6759  -0.7089  -0.001383  2.798e-05  0.01399  -0.04364  0.7525  -0.2744
6.3e+09  -0.8291  -0.4027  0.01756  0.006739  -0.04571  -0.03791  0.6262  -0.5234
6.301e+09  -0.9948  -0.05925  -0.001861  0.02221  0.006385  -0.02899  0.4442  -0.6739
6.302e+09  -0.9264  0.2671  -0.01999  -0.01326  0.02376  -0.0001061  0.1357  -0.8453
6.304e+09  -0.7561  0.61  0.007405  0.007946  0.02148  0.003795  -0.1201  -0.8263
6.305e+09  -0.5423  0.8274  0.007768  -0.003133  0.03453  0.02107  -0.4295  -0.7262
6.306e+09  -0.1721  0.9456  -0.01542  -0.02153  0.02496  -0.0294  -0.6773  -0.592
6.308e+09  0.1286  0.978  -0.004888  0.00332  -0.02028  -0.04395  -0.804  -0.3252
6.309e+09  0.4906  0.8446  -0.00971  -0.001912  0.01137  0.02788  -0.8869  -0.02377
6.31e+09  0.7913  0.6116  0.01436  0.01822  -0.0481  0.01821  -0.8434  0.2713
6.311e+09  0.9062  0.2654  0.004259  -0.02094  -0.02241  -0.01439  -0.6829  0.5602
6.312e+09  0.9185  -0.03651  0.01401  7.679e-05  0.04758  -0.03835  -0.4404  0.776
6.314e+09  0.8647  -0.3859  0.008007  -0.004077  0.01618  0.01654  -0.1356  0.8654
6.315e+09  0.7054  -0.7021  -0.03836  -0.0261  0.002806  0.05674  0.1266  0.8882
6.316e+09  0.4434  -0.8435  0.04063  -0.01039  0.01713  0.01219  0.4297  0.7933
6.318e+09  0.1066  -0.9749  -0.03204  -0.04321  -0.04947  -0.008302  0.6791  0.5827
6.319e+09  -0.2243  -0.92  0.01859  -0.01672  -0.004097  0.04013  0.8648  0.3183
6.32e+09  -0.5628  -0.7832  0.02357  -0.01243  0.01917  -0.03189  0.8846  -0.02152
6.321e+09  -0.8051  -0.6113  0.01603  -0.01505  -0.000335  -0.007183  0.8402  -0.3052
6.322e+09  -0.9305  -0.2341  -7.783e-05  -0.01365  -0.006746  0.004054  0.676  -0.5375
6.324e+09  -0.974  0.1633  -0.02154  0.007667  -0.03292  -0.01875  0.4936  -0.7329
6.325e+09  -0.8357  0.4775  -0.0061  0.05386  0.00852  0.008197  0.121  -0.8787
6.326e+09  -0.6409  0.7432  0.01991  -0.03089  -0.04079  0.03343  -0.1629  -0.9015
6.328e+09  -0.4633  0.9031  0.001465  0.01568  -0.01055  0.04042  -0.416  -0.7841
6.329e+09  -0.03065  1.017  0.02163  -0.02262  0.01739  0.006458  -0.7101  -0.6169
6.33e+09  0.3494  0.9327  -0.008933  -0.000992  -0.01836  -0.000806  -0.8756  -0.3463
6.331e+09  0.6568  0.7514  0.006906  -0.03532  -0.03744  0.00218  -0.9197  -0.02826
6.332e+09  0.8465  0.4414  0.01984  0.008294  0.02544  0.007214  -0.854  0.2887
6.334e+09  0.9803  0.1103  -0.01262  -0.006349  -0.009023  -0.03934  -0.7369  0.5658
6.335e+09  0.9615  -0.2187  0.008425  0.01296  -0.004596  0.03078  -0.4496  0.7579
6.336e+09  0.8003  -0.5154  0.008627  -0.03008  -0.03189  0.02614  -0.2176  0.9102
6.338e+09  0.5433  -0.7992  0.01415  -0.005867  -0.02728  0.03627  0.1455  0.9357
6.339e+09  0.2567  -0.9604  -0.01762  -0.01056  -0.03886  -0.01289  0.4426  0.8056
6.34e+09  -0.1176  -0.9924  -0.01251  0.02223  0.03277  -0.02456  0.6725  0.65
6.341e+09  -0.4405  -0.9134  0.001948  -0.031  0.007947  0.01235  0.8637  0.3716
6.342e+09  -0.7308  -0.633  -0.02372  0.01583  -0.03649  -0.002673  0.9214  0.03245
6.344e+09  -0.9339  -0.3796  -0.01027  -0.00565  -0.0734  0.004902  0.8556  -0.2831
6.345e+09  -1.011  -0.02019  0.006859  -0.01213  -0.01385  0.0368  0.7733  -0.5915
6.346e+09  -0.9261  0.3288  -0.02413  0.008314  -0.01737  -0.05046  0.4917  -0.7595
6.348e+09  -0.7883  0.6489  0.002346  0.01457  0.01851  -0.03129  0.1966  -0.9233
6.349e+09  -0.5223  0.8794  -0.001939  0.01921  -0.01547  0.0114  -0.09827  -0.9119
6.35e+09  -0.1453  1.002  0.008834  -0.0396  0.05058  0.03164  -0.4205  -0.8446
6.351e+09  0.2401  0.98  0.02817  -0.007094  0.02397  -0.015  -0.6924  -0.6434
6.352e+09  0.5227  0.8517  0.01414  -0.006241  -0.02654  -0.02227  -0.8367  -0.3858
6.354e+09  0.8532  0.6123  -0.01449  -0.01365  -0.01231  -0.01956  -0.9539  -0.05695
6.355e+09  0.9639  0.2313  -0.01438  -0.008929  -0.01114  -0.02442  -0.9001  0.3051
6.356e+09  0.9743  -0.0732  0.009733  -0.01663  0.004957  0.004428  -0.7502  0.5298
6.358e+09  0.8789  -0.4058  0.02676  0.006878  0.003098  -0.007265  -0.5398  0.804
6.359e+09  0.7119  -0.7292  0.001825  0.04514  0.006056  -0.04661  -0.2331  0.9578
6.36e+09  0.3716  -0.9356  -0.01444  -0.01609  0.01779  -0.04771  0.08934  0.9346
6.361e+09  0.03829  -1.022  -0.01193  0.03618  0.03211  -0.03194  0.4056  0.8542
6.362e+09  -0.343  -0.9879  0.009447  0.01164  0.01457  -0.01927  0.6706  0.6831
6.364e+09  -0.6402  -0.7567  -0.002086  -0.05057  0.004173  -0.023  0.8536  0.4216
6.365e+09  -0.8921  -0.487  0.02984  0.002259  0.01371  0.02621  0.9585  0.09581
6.366e+09  -1.044  -0.1368  0.007177  0.008452  0.005318  -0.01168  0.9596  -0.306
6.368e+09  -1.013  0.2479  -0.01271  0.0004215  0.01309  0.02702  0.7551  -0.5394
6.369e+09  -0.9386  0.5941  -0.03277  0.00539  0.0008193  -0.02438  0.5049  -0.7742
6.37e+09  -0.6209  0.8736  -0.009326  -0.001458  0.006283  0.01838  0.294  -0.8984
6.371e+09  -0.2667  1.035  0.01263  -0.01263  0.03739  0.002849  -0.08287  -0.9205
6.372e+09  0.1044  1.067  0.009861  -0.04275  0.02863  0.002539  -0.4018  -0.8505
6.374e+09  0.4852  0.9175  -0.03215  0.006494  0.03802  0.0129  -0.6436  -0.6905
6.375e+09  0.789  0.7215  0.005795  -0.03642  0.02094  0.01453  -0.8539  -0.4382
6.376e+09  0.9803  0.4341  0.02317  -0.0002702  0.03807  0.007363  -0.9453  -0.1234
6.378e+09  1.049  -0.01601  -0.03165  0.01629  0.001795  -0.01445  -0.9329  0.2475
6.379e+09  1.044  -0.4208  0.004728  -0.005076  0.04343  0.02097  -0.8326  0.5159
6.38e+09  0.781  -0.7358  -0.05059  0.003023  -0.01846  0.03588  -0.5253  0.7755
6.381e+09  0.5006  -0.9945  0.03512  -0.02039  0.01932  -0.03834  -0.2709  0.9183
6.382e+09  0.1486  -1.046  0.02777  -0.02275  0.006837  -0.03516  0.08747  0.9512
6.384e+09  -0.3363  -1.099  -0.02286  -0.003857  -0.02497  0.01723  0.3833  0.8315
6.385e+09  -0.6936  -0.8649  0.001712  0.04104  -0.0571  -0.01846  0.6436  0.7001
6.386e+09  -0.9123  -0.6068  -0.01864  0.03436  0.02141  0.01463  0.8323  0.4472
6.388e+09  -1.096  -0.2117  -0.004346  -0.00705  -0.01919  0.0003514  0.9513  0.1393
6.389e+09  -1.086  0.2222  -0.01911  0.008842  -0.03224  -0.01844  0.9407  -0.169
6.39e+09  -0.9854  0.6055  0.02001  -0.07027  0.03354  0.03412  0.73  -0.5068
6.391e+09  -0.6209  0.9041  -0.01053  0.02119  -0.01146  0.003563  0.5478  -0.7398
6.392e+09  -0.3242  1.038  -0.0164  0.01199  0.001356  -0.04968  0.2904  -0.869
6.394e+09  0.0883  1.101  0.02584  -0.03241  -0.02984  0.02097  -0.0402  -0.9007
6.395e+09  0.3878  1.07  -0.009538  -0.0193  0.01607  0.03752  -0.3403  -0.8254
6.396e+09  0.7836  0.8047  -0.01899  0.03116  -0.02408  -0.01228  -0.6486  -0.6944
6.398e+09  1.051  0.5078  0.02227  -0.01879  -0.01427  -0.002965  -0.7988  -0.4098
6.399e+09  1.168  0.08503  -0.01573  -0.03869  0.003805  -0.01418  -0.9042  -0.1509
6.4e+09  1.066  -0.334  0.03887  0.01987  -0.01072  -3.077e-05  -0.9114  0.1819
6.401e+09  0.9087  -0.6871  -0.03681  -0.01052  -0.003689  0.03153  -0.803  0.5076
6.402e+09  0.4933  -1.03  0.01419  0.003102  -0.01006  -0.01224  -0.6081  0.7485
6.404e+09  0.183  -1.128  0.01785  0.01663  -0.007561  0.0135  -0.3336  0.8724
6.405e+09  -0.2082  -1.133  -0.006638  0.02353  -0.01773  -0.04799  0.003376  0.9445
6.406e+09  -0.5876  -0.9903  0.002454  -0.0108  -0.004141  0.0129  0.3315  0.8249
6.408e+09  -0.9937  -0.672  -0.03207  -0.0564  0.009947  0.002509  0.5778  0.7054
6.409e+09  -1.122  -0.2705  0.04203  -0.03418  0.02823  0.002016  0.7815  0.4521
6.41e+09  -1.187  0.1431  -0.009221  0.00466  -0.0005868  -0.004961  0.9297  0.1257
6.411e+09  -1.017  0.5895  -0.009664  0.01237  0.005085  0.009996  0.9129  -0.1346
6.412e+09  -0.7271  0.848  -0.03265  -0.01224  0.005658  0.01613  0.7752  -0.4395
6.414e+09  -0.3339  1.092  -0.0018  0.008663  -0.003897  -0.01314  0.5964  -0.6921
6.415e+09  0.04633  1.179  0.0008132  -0.04241  0.02551  -0.04707  0.3267  -0.835
6.416e+09  0.4931  1.061  -0.03771  0.02155  0.0196  -0.019  0.1013  -0.925
6.418e+09  0.8267  0.8422  -0.04092  0.03885  0.02779  -0.04312  -0.232  -0.815
6.419e+09  1.045  0.457  -0.02077  0.0428  0.002919  0.0492  -0.5463  -0.6914
6.42e+09  1.169  0.04673  -0.006479  -0.005097  -0.007933  -0.02115  -0.7899  -0.511
6.421e+09  1.114  -0.3907  -0.01191  -0.01635  0.03848  -0.03552  -0.8622  -0.1903
6.422e+09  0.9189  -0.7933  -0.01353  0.02562  -0.02145  -0.06193  -0.8105  0.1196
6.424e+09  0.5981  -1.054  -0.01464  0.00789  -0.02743  0.03535  -0.7934  0.3949
6.425e+09  0.1776  -1.121  0.04347  -0.007297  -3.743e-05  -0.03804  -0.6135  0.6109
6.426e+09  -0.2394  -1.082  -0.05081  -0.00437  0.03087  0.01579  -0.3612  0.7384
6.428e+09  -0.6189  -0.961  0.01557  0.01494  -0.006485  0.03222  -0.03635  0.8446
6.429e+09  -0.9713  -0.6913  -0.003514  0.01338  -0.02953  -0.0188  0.2819  0.8651
6.43e+09  -1.07  -0.2122  0.05777  0.02535  0.05235  -0.01264  0.5577  0.7501
6.431e+09  -1.126  0.1672  -0.02706  0.05257  -0.01923  0.001521  0.705  0.5088
6.432e+09  -0.9953  0.5674  0.005023  -0.02035  -0.03848  0.001079  0.82  0.1724
6.434e+09  -0.7096  0.917  0.02713  -0.0006042  0.05282  0.01555  0.8587  -0.06477
6.435e+09  -0.3706  1.068  -0.05667  -0.02011  -0.03573  0.05719  0.758  -0.3656
6.436e+09  0.1081  1.117  -0.02233  -0.02457  0.04694  -0.05002  0.5809  -0.5959
6.438e+09  0.4388  0.9994  -0.02113  0.01719  -0.02522  0.01163  0.3771  -0.7707
6.439e+09  0.8058  0.825  0.05149  0.02176  0.01911  0.004122  0.07975  -0.8455
6.44e+09  1.019  0.4694  0.02652  0.0563  -0.01146  0.06159  -0.237  -0.8059
6.441e+09  1.09  0.02143  0.00884  0.001665  -0.0539  0.0206  -0.51  -0.7086
6.442e+09  1.013  -0.3318  -0.00827  -0.01622  -0.02557  0.03158  -0.6936  -0.4675
6.444e+09  0.8549  -0.6663  0.04255  0.008049  -0.01769  -0.06203  -0.8399  -0.1698
6.445e+09  0.5696  -0.8846  0.02761  0.02237  0.01548  -0.01482  -0.8133  0.07559
6.446e+09  0.1657  -1.033  0.04304  -0.01539  0.04229  0.02976  -0.7593  0.3604
6.448e+09  -0.1583  -1.057  0.006166  0.007837  -0.004879  -0.01529  -0.6351  0.5879
6.449e+09  -0.5411  -0.8797  0.005513  -0.01801  0.003987  -0.02337  -0.3593  0.7746
6.45e+09  -0.8478  -0.6648  -0.05697  0.02372  -0.0003337  0.01623  -0.09295  0.8217
6.451e+09  -1.027  -0.2474  0.009977  -0.001803  -0.03444  0.00282  0.2537  0.8008
6.452e+09  -1.023  0.05696  -0.007621  0.01001  0.04273  -0.03792  0.5055  0.7016
6.454e+09  -0.9318  0.4692  -0.02221  -0.03279  -0.008975  -0.01583  0.6539  0.4739
6.455e+09  -0.7557  0.6991  -0.01058  -0.03489  -0.01462  -0.04754  0.8132  0.2432
6.456e+09  -0.4209  0.9151  -0.0161  -0.01897  -0.01567  0.03651  0.8707  -0.0478
6.458e+09  -0.07623  0.9974  -0.001696  0.01362  -0.00627  -0.02491  0.7727  -0.3602
6.459e+09  0.2569  1.018  -0.01325  0.02386  -0.05892  0.004756  0.5556  -0.5829
6.46e+09  0.6156  0.8154  0.00142  0.03753  -0.02077  -0.03049  0.3551  -0.7366
6.461e+09  0.8966  0.5147  -0.02002  -0.02543  -0.04264  -0.0226  0.07507  -0.8203
6.462e+09  0.9986  0.1798  -0.006775  -0.01397  0.02197  0.03646  -0.2409  -0.7627
6.464e+09  0.95  -0.1778  -0.01249  -0.006769  0.03681  -0.008177  -0.4357  -0.6737
6.465e+09  0.8542  -0.4987  -0.008351  0.02092  -0.03127  -0.008465  -0.6661  -0.4753
6.466e+09  0.6547  -0.7744  -0.001135  0.02323  -0.01855  -0.0609  -0.7922  -0.1851
6.468e+09  0.3475  -0.9146  0.009365  0.01639  0.02012  0.01263  -0.8291  0.0546
6.469e+09  -0.04709  -0.9934  0.04142  0.02237  -0.0268  -0.02701  -0.7223  0.3705
6.47e+09  -0.3645  -0.9196  0.004198  0.005342  -0.04313  -0.01971  -0.5245  0.5998
6.471e+09  -0.6159  -0.6994  -0.03269  -0.02315  -0.07035  0.04941  -0.348  0.7395
6.472e+09  -0.8585  -0.4538  -0.02872  0.004279  -0.009412  0.01355  -0.07563  0.8252
6.474e+09  -0.9694  -0.1323  0.008104  0.03521  -0.06257  -0.01169  0.2206  0.7494
6.475e+09  -0.9722  0.2075  -0.0121  0.01135  -0.02582  -0.003198  0.5063  0.6966
6.476e+09  -0.8293  0.5449  -0.01761  -0.01399  -0.008973  -0.01605  0.6657  0.4247
6.478e+09  -0.6083  0.7897  -0.02165  0.02106  -0.01564  -0.04349  0.7614  0.2037
6.479e+09  -0.2599  0.9176  0.02032  0.0009158  0.03595  -0.04171  0.7756  -0.08072
6.48e+09  0.1113  0.9234  0.0011  0.02901  0.07196  0.01989  0.7161  -0.3203
6.481e+09  0.3967  0.87  0.01129  0.01171  -0.05372  -0.02167  0.5313  -0.5706
6.482e+09  0.6687  0.6596  0.02227  -0.001911  -0.01188  -0.0371  0.3346  -0.7443
6.484e+09  0.8518  0.433  0.01056  0.00716  0.05812  0.008847  0.05208  -0.7958
6.485e+09  0.9698  0.04806  -0.002301  -0.01274  0.03657  0.03552  -0.1732  -0.7623
6.486e+09  0.8903  -0.3022  0.03035  -0.00399  0.04452  0.03292  -0.4745  -0.6228
6.488e+09  1.201  -0.05668  0.005505  0.06912  0.08012  0.7451  -0.666  -0.4364
6.489e+09  0.5304  -0.8657  -0.01335  -0.06421  0.003674  0.04362  -0.7623  -0.1582
6.49e+09  0.2465  -0.9134  0.004291  -0.003618  -0.01875  -0.01492  -0.7354  0.1352
6.491e+09  -0.161  -0.9678  -0.02291  -0.008314  0.01905  0.03144  -0.7055  0.3603
6.492e+09  -0.4101  -0.8473  0.009626  0.004354  0.001728  0.0282  -0.5175  0.5776
6.494e+09  -0.7493  -0.5425  -0.004722  -0.002169  0.09406  0.07065  -0.2702  0.696
6.495e+09  -0.8924  -0.3452  -0.001959  -0.02131  -0.05712  -0.01406  -0.02891  0.769
6.496e+09  -0.9143  0.02774  -0.02311  0.006729  0.004119  -0.001389  0.1888  0.7052
6.498e+09  -0.8982  0.2713  -0.02645  -0.008027  0.004602  0.005833  0.4777  0.5888
6.499e+09  -0.7165  0.5693  0.02592  0.02721  0.04405  0.01002  0.6734  0.4089
6.5e+09  -0.7735  0.3208  -0.03224  0.0009193  -0.01508  -0.01804  0.7395  0.1464
6.501e+09  -0.1818  0.9554  -0.01693  0.01017  -0.001411  -0.006576  0.7253  -0.112
6.502e+09  0.1638  0.9356  0.02411  0.006168  0.05308  0.02491  0.686  -0.3621
6.504e+09  0.4253  0.8848  -0.006688  -0.03417  0.0086  0.03048  0.5178  -0.6138
6.505e+09  0.7483  0.6048  -0.001913  -0.04773  -0.005411  0.04736  0.2981  -0.7032
6.506e+09  0.9104  0.3171  0.01685  -0.01143  0.004689  0.02644  0.001087  -0.7762
6.508e+09  0.9485  0.008896  0.01614  -0.003995  0.004673  -0.04176  -0.2353  -0.7106
6.509e+09  0.8529  -0.3104  -0.0248  0.01969  0.02532  -0.008654  -0.4878  -0.5906
6.51e+09  0.737  -0.6195  0.006112  0.03134  0.02752  -0.02224  -0.6334  -0.3725
6.511e+09  0.4465  -0.8029  -0.00314  0.01147  0.03069  -0.01231  -0.7297  -0.1269
6.512e+09  0.1222  -0.9243  -0.02556  -0.002064  0.0139  -0.03998  -0.7298  0.1343
6.514e+09  -0.2379  -0.9135  0.0007816  -0.006763  0.005996  -0.03269  -0.6828  0.3778
6.515e+09  -0.522  -0.8455  0.008171  -0.0136  0.002589  -0.01753  -0.4888  0.5624
6.516e+09  -0.7907  -0.5551  0.009219  -0.0168  -0.03945  0.01648  -0.2307  0.7143
6.518e+09  -0.9245  -0.3108  0.01739  0.004096  0.0119  0.04917  0.01068  0.7882
6.519e+09  -0.9897  0.05625  -0.00845  -0.01399  -0.01262  0.07545  0.2595  0.688
6.52e+09  -0.9232  0.3864  -0.00952  0.003661  -0.006353  0.02229  0.4843  0.5448
6.521e+09  -0.679  0.7213  -0.01561  -0.0254  -0.02382  -0.03401  0.6304  0.3477
6.522e+09  -0.4285  0.9196  0.004532  -0.001333  0.03651  -0.003274  0.7304  0.118
6.524e+09  -0.1234  0.9753  -0.009313  -0.0126  -0.02198  -0.06204  0.7347  -0.1726
6.525e+09  0.2693  0.99  0.004223  -0.01185  0.0002927  -0.02813  0.5848  -0.3794
6.526e+09  0.5736  0.8137  -0.004312  -0.02954  -0.002732  0.008319  0.4731  -0.5877
6.528e+09  0.8132  0.6283  6.59e-05  -0.0247  0.01576  0.02212  0.2182  -0.6811
6.529e+09  1.001  0.2642  0.008695  0.004625  0.01989  -0.04362  -0.06933  -0.7013
6.53e+09  1.002  -0.09723  0.0116  -0.0003995  0.007528  -0.0009554  -0.2844  -0.6296
6.531e+09  0.9129  -0.4789  0.008986  0.02253  -0.06021  0.004636  -0.48  -0.4618
6.532e+09  0.7556  -0.7281  0.02337  0.002761  -0.03126  0.007716  -0.5801  -0.2868
6.534e+09  0.4257  -0.936  0.02664  0.0147  0.009253  -0.01362  -0.6731  -0.07187
6.535e+09  0.07404  -1.026  0.01323  -0.0117  0.04349  -0.02326  -0.6348  0.1455
6.536e+09  -0.3529  -1.05  -0.001854  0.000203  -0.02047  -0.02152  -0.5741  0.2766
6.538e+09  -0.6505  -0.8013  -0.00554  0.0003356  -0.01567  -0.01951  -0.4606  0.4899
6.539e+09  -0.9038  -0.5804  -0.001695  -0.01058  0.00431  -0.002477  -0.2849  0.6148
6.54e+09  -1.079  -0.1688  -0.01225  -0.00834  -0.02651  0.01438  -0.07565  0.7107
6.541e+09  -1.044  0.1624  -0.01148  -0.01867  0.008392  -0.009822  0.1692  0.6719
6.542e+09  -0.9435  0.5592  -0.01355  0.03024  -0.01277  -0.004797  0.416  0.5668
6.544e+09  -0.7454  0.7793  0.01288  0.01274  0.009227  -0.02767  0.5688  0.4217
6.545e+09  -0.3758  1.038  -0.01915  -0.0206  0.02493  -0.05327  0.6953  0.1533
6.546e+09  -0.01254  1.151  -0.01272  -0.01072  0.04621  -0.0235  0.7555  -0.0888
6.548e+09  0.4209  1.047  -0.01204  -0.006731  -0.01243  0.01351  0.6618  -0.3413
6.549e+09  0.7591  0.8476  -0.01192  -0.00716  -0.02733  -0.02406  0.5154  -0.532
6.55e+09  0.9872  0.5002  0.002009  -0.02688  0.03791  -0.01052  0.2626  -0.6949
6.551e+09  1.069  0.1265  0.013  0.001972  0.02677  -0.01686  0.04367  -0.7741
