# Hz S RI R 50
6.25e+09  0.1982  0.8928  -2.367e-06  -0.000381  -0.0003907  -0.02303  0.1523  0.5037
6.251e+09  0.5005  0.8276  -0.02029  0.00278  -0.02155  0.03437  0.3934  0.3604
6.252e+09  0.7398  0.5595  0.01004  0.01051  0.007403  -0.03004  0.5114  0.2289
6.254e+09  0.8968  0.2735  -0.009984  0.005984  0.04949  0.003534  0.6131  0.01659
6.255e+09  0.9455  -0.01957  -0.01887  0.01362  0.004814  -0.03987  0.6245  -0.2042
6.256e+09  0.8662  -0.3861  0.00202  0.01276  0.01469  0.01634  0.4819  -0.4281
6.258e+09  0.6839  -0.6194  0.004553  0.008926  0.0146  -0.04656  0.2883  -0.6028
6.259e+09  0.4322  -0.8504  0.01295  -0.02113  -0.00738  -0.02576  0.01437  -0.6537
6.26e+09  0.1064  -0.9595  0.008335  0.01939  0.03355  0.03283  -0.2238  -0.6359
6.261e+09  -0.2322  -0.8829  0.02136  -0.02009  -0.03303  -0.02383  -0.4127  -0.5412
6.262e+09  -0.4999  -0.7896  0.02747  0.0161  0.02662  -0.03075  -0.5936  -0.3521
6.264e+09  -0.8052  -0.4789  0.04723  0.0164  -0.007906  0.004503  -0.703  -0.1155
6.265e+09  -0.8966  -0.1977  -0.02754  -0.04337  -0.003523  -0.06691  -0.7209  0.1632
6.266e+09  -0.9324  0.08743  -0.006276  -0.04175  -0.02318  0.01878  -0.5838  0.4231
6.268e+09  -0.8251  0.4242  0.00511  -0.006896  -0.01041  -0.005497  -0.4495  0.5908
6.269e+09  -0.6056  0.7175  0.01038  -0.00955  -0.002316  -0.02024  -0.1842  0.6897
6.27e+09  -0.3778  0.8804  0.001967  0.008222  -0.0584  -0.01297  0.07879  0.7198
6.271e+09  -0.03977  0.8993  0.004319  0.02679  -0.02424  -0.02681  0.3003  0.6952
6.272e+09  0.2806  0.9137  0.01708  -0.02135  0.02051  -0.002063  0.5403  0.5452
6.274e+09  0.5905  0.7522  0.04126  -0.007407  0.03722  0.01135  0.7013  0.2823
6.275e+09  0.8205  0.4595  0.0232  0.02802  -0.01498  -0.006241  0.7552  0.02279
6.276e+09  0.8831  0.2092  0.01321  0.00778  -0.003597  -0.009904  0.7265  -0.2352
6.278e+09  0.8913  -0.1993  -0.001482  -0.003583  -0.01047  0.005758  0.5891  -0.481
6.279e+09  0.7941  -0.4515  0.0007685  0.02234  -0.02415  -0.001446  0.4332  -0.6618
6.28e+09  0.6249  -0.7122  0.0154  0.02462  0.0174  0.00541  0.1551  -0.7422
6.281e+09  0.3236  -0.8087  0.00502  0.01974  -0.02311  -0.000152  -0.08249  -0.7291
6.282e+09  -0.02399  -0.9223  0.01286  -0.0008267  -0.043  0.04533  -0.3792  -0.678
6.284e+09  -0.3147  -0.863  -0.003943  0.04199  -0.02179  0.0296  -0.5743  -0.525
6.285e+09  -0.5822  -0.7023  -0.008132  -0.00893  -0.03377  0.02284  -0.7487  -0.2962
6.286e+09  -0.8419  -0.4906  0.002594  -0.01271  0.006148  -0.01198  -0.8122  -0.01778
6.288e+09  -0.9714  -0.1335  -0.01621  0.007217  -0.02298  0.00839  -0.7513  0.2801
6.289e+09  -0.98  0.2171  0.004311  0.008877  -0.01951  0.02779  -0.6191  0.5038
6.29e+09  -0.8232  0.4767  -0.01545  0.03253  0.05935  0.02554  -0.4003  0.6837
6.291e+09  -0.6077  0.6933  0.006654  0.01182  0.005281  0.01327  -0.1456  0.8045
6.292e+09  -0.2643  0.9021  -0.01515  -0.0006833  -0.01705  -0.01372  0.1448  0.7892
6.294e+09  0.02121  0.9214  -0.02377  -0.01479  0.01026  0.009064  0.4014  0.7318
6.295e+09  0.3722  0.8789  -0.00708  0.0227  -0.05498  -0.005035  0.5966  0.5466
6.296e+09  0.641  0.704  0.004553  -0.001206  -0.01422  -0.01526  0.7811  0.2714
6.298e+09  0.832  0.4119  -0.02738  0.009437  0.009652  0.009906  0.8648  -0.01965
6.299e+09  0.9812  0.09221  -0.01066  0.002578  -0.02706  0.04372  0.7832  -0.2439
6.3e+09  0.9105  -0.2152  0.03322  -0.0005749  -0.03181  0.009589  0.6297  -0.527
6.301e+09  0.8156  -0.5477  -0.008743  -0.002288  -0.02335  -0.01865  0.4294  -0.7395
6.302e+09  0.5719  -0.8143  0.007238  -0.01073  0.01038  0.007325  0.1481  -0.8032
6.304e+09  0.347  -0.9069  -0.004381  -0.004655  -0.07095  0.01305  -0.1475  -0.8335
6.305e+09  -0.08931  -0.9835  0.002316  0.01415  -0.02031  -0.009269  -0.4094  -0.7697
6.306e+09  -0.3964  -0.8994  0.02207  -0.007608  -0.0007221  0.02186  -0.6577  -0.5536
6.308e+09  -0.6943  -0.6975  0.0001532  -8.595e-05  0.03122  0.02582  -0.8037  -0.2979
6.309e+09  -0.9013  -0.395  -9.683e-05  -0.002534  0.002532  -0.06983  -0.8367  -0.01931
6.31e+09  -0.966  -0.07115  -0.02127  -0.0494  0.05102  -0.02541  -0.8283  0.2896
6.311e+09  -0.8631  0.2963  0.028  -0.01714  0.04143  0.00155  -0.6984  0.5127
6.312e+09  -0.7289  0.5722  -0.01899  -0.0255  0.008659  0.03773  -0.4616  0.7204
6.314e+09  -0.5771  0.8228  -0.03045  -0.01513  -0.0641  -0.04778  -0.1398  0.8595
6.315e+09  -0.2267  0.9978  -0.01467  -0.006962  0.01811  -0.002499  0.1509  0.8495
6.316e+09  0.1286  0.9684  -0.0368  -0.03379  -0.009702  -0.02886  0.3998  0.8006
6.318e+09  0.4463  0.8866  0.004523  0.004724  -0.003633  0.002469  0.6795  0.5663
6.319e+09  0.722  0.6641  0.004544  -0.007911  0.006023  -0.01768  0.8372  0.3368
6.32e+09  0.9172  0.3837  -0.0009554  0.02009  0.01473  0.04669  0.8835  0.03554
6.321e+09  1.017  -0.002635  -0.00267  0.0147  0.02569  -0.02835  0.8516  -0.2928
6.322e+09  0.9298  -0.3879  0.004423  -0.05279  0.01353  -0.03996  0.6924  -0.5388
6.324e+09  0.8134  -0.6101  -0.006697  0.0003982  -0.0245  -0.01792  0.4396  -0.7663
6.325e+09  0.4995  -0.8395  -0.01424  -0.01015  0.002741  0.01817  0.1545  -0.8923
6.326e+09  0.1682  -1.042  -0.01954  0.02843  0.001983  -0.0378  -0.1482  -0.8716
6.328e+09  -0.2082  -0.9515  0.02985  -0.01946  0.01178  0.001882  -0.4215  -0.7488
6.329e+09  -0.5912  -0.9341  0.002247  -0.001384  -0.0666  -0.02906  -0.6848  -0.6013
6.33e+09  -0.8157  -0.6608  0.001424  -0.002294  0.01017  0.01129  -0.8465  -0.3046
6.331e+09  -0.979  -0.3568  0.02004  -0.008822  -0.02317  0.01912  -0.9096  -0.02499
6.332e+09  -1.075  0.0295  -0.01568  -0.03506  -0.009079  -0.01281  -0.8916  0.2838
6.334e+09  -0.9644  0.398  0.01276  0.01931  -0.02747  -0.04477  -0.7347  0.5812
6.335e+09  -0.8603  0.7504  0.003868  -0.01912  0.0004498  -0.04592  -0.5033  0.7944
6.336e+09  -0.5046  0.9243  -0.01536  -0.01151  -0.03456  0.002693  -0.1925  0.8669
6.338e+09  -0.1571  1.048  -0.008265  0.004535  0.01855  0.04682  0.1333  0.9168
6.339e+09  0.2195  1.097  -0.02245  0.001053  0.005496  -0.04162  0.4409  0.8474
6.34e+09  0.593  0.9259  -0.003669  0.04095  -0.04558  -0.05143  0.6593  0.6247
6.341e+09  0.911  0.6505  -0.004831  -0.02024  -0.01476  -0.01577  0.8248  0.3513
6.342e+09  1.047  0.27  -0.01845  -0.01574  -0.03212  0.01384  0.9232  0.06741
6.344e+09  1.121  -0.09177  0.0303  0.004222  -0.002846  -0.009853  0.9391  -0.3005
6.345e+09  1.017  -0.5199  -0.01734  0.0005627  0.01583  -0.01422  0.7599  -0.5649
6.346e+09  0.7731  -0.7729  0.03295  0.01276  0.005636  -0.03701  0.5213  -0.7869
6.348e+09  0.4415  -1.033  0.02612  0.007899  -0.001638  -0.00468  0.2041  -0.9265
6.349e+09  0.07799  -1.151  -0.02255  0.02601  0.01236  0.01489  -0.1149  -0.8925
6.35e+09  -0.3611  -1.129  -0.007174  -0.03969  -0.01342  0.02415  -0.4389  -0.8556
6.351e+09  -0.7367  -0.9399  0.0007803  -0.01578  -0.0305  -0.01247  -0.7307  -0.6349
6.352e+09  -0.9689  -0.6588  -0.0002283  0.005393  0.04543  -0.005786  -0.8393  -0.391
6.354e+09  -1.131  -0.2536  -0.004475  0.01427  0.06602  -0.0305  -0.9218  -0.08287
6.355e+09  -1.181  0.1425  0.0001457  -0.02838  0.03474  0.01351  -0.8861  0.2921
6.356e+09  -1.068  0.589  -0.02144  -0.01028  0.02549  -0.01912  -0.7724  0.5805
6.358e+09  -0.7523  0.9338  0.01641  0.003356  0.03708  -0.03506  -0.531  0.7909
6.359e+09  -0.4487  1.171  0.01879  0.01826  -0.007752  -0.0363  -0.2569  0.9273
6.36e+09  0.03342  1.216  -0.0005914  0.01432  -0.03014  -0.0007734  0.1351  0.9321
6.361e+09  0.4454  1.127  0.008994  0.01667  0.01196  0.01414  0.4619  0.8805
6.362e+09  0.8031  0.922  -0.003401  0.0147  0.01618  0.02023  0.6637  0.669
6.364e+09  1.079  0.6405  0.01335  -0.006164  -0.03229  0.006914  0.8617  0.3988
6.365e+09  1.222  0.149  -0.01358  -0.01915  -0.03544  0.01066  0.9762  0.009885
6.366e+09  1.197  -0.2665  0.002862  0.02963  0.02803  0.0356  0.8987  -0.2493
6.368e+09  1.06  -0.6842  -0.004706  -0.005792  0.04819  -0.05321  0.7786  -0.5745
6.369e+09  0.7345  -1.002  0.02073  -0.002429  0.03375  -0.004139  0.5495  -0.7972
6.37e+09  0.3636  -1.258  0.02433  -0.0007576  0.006984  -0.05273  0.2401  -0.8813
6.371e+09  -0.1328  -1.326  0.00156  0.01185  0.01016  0.01911  -0.05593  -0.9319
6.372e+09  -0.5129  -1.178  -0.005952  0.02801  0.06194  -0.04789  -0.3664  -0.8537
6.374e+09  -0.9512  -0.8748  0.01286  0.002677  -0.01326  0.0004005  -0.661  -0.675
6.375e+09  -1.187  -0.5377  -0.01143  0.03005  -0.02895  -0.02465  -0.8222  -0.3993
6.376e+09  -1.314  -0.1218  0.02516  0.01084  -0.03843  0.03683  -0.9268  -0.08816
6.378e+09  -1.253  0.3891  0.0003704  -0.002713  -0.005298  0.0251  -0.9698  0.2218
6.379e+09  -1.054  0.7566  0.007138  0.01995  0.008587  0.008906  -0.765  0.4741
6.38e+09  -0.7358  1.097  -0.04533  0.05151  0.05864  0.0136  -0.507  0.7733
6.381e+09  -0.2963  1.282  0.04059  0.03324  -0.02592  0.005205  -0.23  0.9112
6.382e+09  0.1374  1.375  -0.002192  -0.03486  -0.001987  -0.02924  0.06777  0.9173
6.384e+09  0.6668  1.214  0.00101  -0.02005  0.01276  0.03929  0.4072  0.8586
6.385e+09  0.9954  0.9321  -0.00569  0.005825  -0.02453  -0.01635  0.6214  0.6952
6.386e+09  1.305  0.5038  0.008854  0.01013  0.01159  -0.004963  0.8127  0.4154
6.388e+09  1.387  0.03411  -0.006568  -0.001196  -0.01014  -0.0434  0.9235  0.1457
6.389e+09  1.345  -0.4759  -0.01656  0.03544  -0.02815  0.03975  0.9649  -0.2061
6.39e+09  1.104  -0.9558  -0.03642  -0.01365  -0.03143  0.005851  0.7806  -0.4649
6.391e+09  0.6966  -1.238  0.006277  0.03341  0.0213  0.02748  0.5829  -0.7305
6.392e+09  0.2278  -1.429  -0.03352  0.03154  -0.01167  -0.02372  0.2882  -0.8773
6.394e+09  -0.3171  -1.395  0.01605  -0.007305  0.01056  -0.06923  -0.03547  -0.9126
6.395e+09  -0.7759  -1.192  -0.01121  0.01982  -0.01776  -0.003944  -0.3378  -0.8441
6.396e+09  -1.143  -0.8938  0.003187  0.01026  0.03591  0.01353  -0.6021  -0.6976
6.398e+09  -1.454  -0.4204  0.004286  0.03907  0.03391  -0.009747  -0.8048  -0.4632
6.399e+09  -1.475  0.1258  -0.009514  -0.004158  0.03612  -0.004248  -0.89  -0.125
6.4e+09  -1.406  0.6276  0.007208  -0.007916  -0.006654  0.03196  -0.8777  0.1842
6.401e+09  -1.094  1.082  0.05458  0.01265  0.02555  0.02042  -0.7861  0.4889
6.402e+09  -0.6799  1.416  -0.01582  0.04712  0.03337  -0.01254  -0.5828  0.7118
6.404e+09  -0.1035  1.565  0.02158  -0.008458  -0.02631  0.03169  -0.3098  0.8541
6.405e+09  0.3655  1.431  -0.0488  0.0227  -0.02669  0.05452  0.03141  0.9291
6.406e+09  0.9078  1.262  -0.01631  0.03457  0.0102  -0.009663  0.3212  0.9095
6.408e+09  1.271  0.8753  -0.01368  -0.001845  0.03538  0.004774  0.5622  0.6912
6.409e+09  1.532  0.2796  -0.009799  -0.005332  -0.01285  -0.03648  0.8148  0.4307
6.41e+09  1.522  -0.244  -0.007497  -0.04309  0.02281  -0.05099  0.9192  0.1747
6.411e+09  1.406  -0.7369  -0.000648  -0.04209  0.007549  -0.01889  0.874  -0.1286
6.412e+09  1.046  -1.24  -0.01946  -0.007676  0.00632  0.01762  0.7844  -0.4515
6.414e+09  0.5688  -1.511  0.03973  -0.005515  0.02688  -0.002063  0.5928  -0.6825
6.415e+09  0.009456  -1.67  0.0009648  -0.005156  -0.008103  -0.009296  0.3395  -0.8282
6.416e+09  -0.5708  -1.533  -0.01938  0.008024  0.03948  -0.02498  -0.01103  -0.888
6.418e+09  -1.029  -1.296  0.004238  0.009302  0.04584  -0.01889  -0.2805  -0.8696
6.419e+09  -1.458  -0.7911  0.006842  0.03252  0.04891  -0.04644  -0.5379  -0.7207
6.42e+09  -1.611  -0.2566  0.001918  0.02456  0.03316  0.004563  -0.7881  -0.4563
6.421e+09  -1.637  0.3611  -0.03093  -0.004142  0.07412  -0.001741  -0.9262  -0.2215
6.422e+09  -1.427  0.877  0.03269  0.01366  0.0003737  0.0106  -0.898  0.1163
6.424e+09  -1.04  1.364  0.004103  0.03106  -0.001608  -0.006721  -0.7728  0.3844
6.425e+09  -0.4525  1.668  -0.02891  -0.01413  0.001663  -0.03426  -0.6016  0.6501
6.426e+09  0.156  1.748  -0.0134  0.0476  -0.04321  -0.01048  -0.3417  0.8
6.428e+09  0.7549  1.637  0.0003406  0.01578  0.02337  0.009748  -0.001103  0.8978
6.429e+09  1.304  1.274  -0.004925  0.01425  -0.02428  0.03332  0.3011  0.8559
6.43e+09  1.605  0.7462  -0.002342  -0.0195  -0.03162  0.06862  0.5331  0.7192
6.431e+09  1.824  0.1026  0.0177  -0.04984  -0.00587  0.01996  0.7482  0.4799
6.432e+09  1.792  -0.5564  -0.007741  0.005156  0.03079  -0.0228  0.8487  0.1724
6.434e+09  1.549  -1.093  0.01654  0.03068  0.01673  0.007857  0.8684  -0.1231
6.435e+09  1.011  -1.605  0.002852  0.001368  0.06736  -0.006642  0.827  -0.3702
6.436e+09  0.3588  -1.828  -0.009206  -0.01231  -0.02162  -0.03932  0.6113  -0.6296
6.438e+09  -0.3497  -1.904  -0.05403  -0.02523  0.01168  -0.02412  0.3478  -0.7735
6.439e+09  -1.024  -1.685  -0.01098  0.03323  0.02052  -0.01375  0.05436  -0.8593
6.44e+09  -1.531  -1.235  -0.02902  0.03755  0.04464  0.02539  -0.2341  -0.8244
6.441e+09  -1.872  -0.6664  -0.004494  -0.004004  0.02721  -0.02132  -0.5226  -0.6828
6.442e+09  -2.006  0.05677  -0.02343  0.03696  -0.003352  0.01116  -0.678  -0.5477
6.444e+09  -1.969  0.7188  -0.01479  0.02019  0.015  -0.02167  -0.7873  -0.2347
6.445e+09  -1.51  1.393  -0.01516  0.01497  0.03514  0.004105  -0.8321  0.09919
6.446e+09  -0.9056  1.973  0.02056  0.0367  -0.007908  0.01742  -0.7883  0.3467
6.448e+09  -0.2081  2.119  -0.03336  -0.01474  0.02144  0.03612  -0.6364  0.5864
6.449e+09  0.57  2.166  0.03801  -0.02505  -0.03977  -0.009532  -0.3805  0.7677
6.45e+09  1.233  1.788  -0.03744  0.03523  0.03554  0.005912  -0.08085  0.8235
6.451e+09  1.908  1.268  0.05919  -2.455e-05  0.01386  0.001892  0.2194  0.8084
6.452e+09  2.23  0.5024  -0.006207  0.03005  -0.07992  0.01851  0.4604  0.6661
6.454e+09  2.309  -0.2497  0.03262  0.003686  -0.04228  0.03949  0.728  0.4646
6.455e+09  2.134  -1.141  0.0086  0.007204  -0.07031  0.02085  0.8225  0.1932
6.456e+09  1.623  -1.796  0.05201  -0.03733  0.03118  -0.02162  0.8048  -0.008716
6.458e+09  0.9038  -2.343  -0.0456  -0.02111  -0.04049  -0.01509  0.7452  -0.3555
6.459e+09  -0.06051  -2.513  0.00306  -0.006231  -0.01281  0.02986  0.581  -0.6004
6.46e+09  -0.9544  -2.355  -0.02407  -0.05418  0.001105  0.04944  0.3447  -0.7387
6.461e+09  -1.801  -1.895  -0.01725  -0.02533  -0.01788  0.007229  0.04567  -0.8049
6.462e+09  -2.345  -1.182  -0.003488  -0.02654  0.0373  -0.02253  -0.1917  -0.7627
6.464e+09  -2.763  -0.2639  -0.04239  0.02399  -0.07223  -0.04366  -0.4526  -0.6863
6.465e+09  -2.659  0.7044  0.02064  0.0009214  0.02436  0.002098  -0.7182  -0.4569
6.466e+09  -2.381  1.66  0.02721  0.03783  -0.005848  0.009737  -0.7798  -0.1646
6.468e+09  -1.609  2.534  0.06757  0.008523  0.04708  0.00149  -0.8113  0.1009
6.469e+09  -0.6374  2.926  0.03907  0.01019  -0.03228  0.01731  -0.7231  0.344
6.47e+09  0.4388  3.044  0.0284  0.00695  0.04407  0.09666  -0.5463  0.5668
6.471e+09  1.66  2.786  -0.02892  0.02263  0.1004  0.03381  -0.3091  0.6823
6.472e+09  2.588  1.973  0.007956  -0.02458  -0.03233  0.09416  -0.06119  0.771
6.474e+09  3.257  1.07  -0.006305  0.01416  0.02456  0.01519  0.251  0.7827
6.475e+09  3.552  -0.257  -0.007346  -0.008273  0.07393  0.084  0.4798  0.6526
6.476e+09  3.326  -1.522  0.03454  -0.02833  0.0009813  0.008064  0.6516  0.4244
6.478e+09  2.526  -2.812  -0.00285  -0.007466  -0.05922  0.0005306  0.7675  0.2094
6.479e+09  1.378  -3.709  0.02265  -0.01764  0.003068  -0.01462  0.8344  -0.106
6.48e+09  -0.1106  -4.126  0.004165  0.01869  -0.02723  -0.1116  0.6718  -0.3703
6.481e+09  -1.638  -3.972  0.02882  -0.005657  0.00506  0.01871  0.5697  -0.5821
6.482e+09  -3.131  -3.169  0.03414  -0.02463  -0.1046  0.0544  0.3264  -0.7377
6.484e+09  -4.252  -1.808  -0.04656  0.02603  0.06029  -0.007045  0.1056  -0.7652
6.485e+09  -4.836  -0.06399  -0.03174  0.008057  -0.01106  -0.05022  -0.1865  -0.7665
6.486e+09  -4.688  1.884  0.0004764  -0.003688  0.0212  0.01529  -0.4601  -0.6124
6.488e+09  -3.993  4.24  -0.02284  0.03022  0.2993  0.692  -0.6706  -0.3839
6.489e+09  -2.02  5.124  0.02264  0.004434  0.0915  0.03601  -0.7363  -0.1739
6.49e+09  0.04179  5.789  0.0002728  -0.01823  -0.03624  0.06393  -0.8075  0.1109
6.491e+09  2.564  5.346  0.02788  0.002006  -0.04604  -0.01918  -0.6535  0.334
6.492e+09  4.788  4.06  -0.06823  -0.000902  0.04555  0.05289  -0.5207  0.6026
6.494e+09  6.333  1.796  -0.006787  -0.02916  0.08505  0.04807  -0.2791  0.7061
6.495e+09  6.545  -0.9593  0.007981  -0.0006731  -0.01026  0.07778  -0.03099  0.7927
6.496e+09  5.595  -3.802  0.0005372  -0.01265  0.01603  -0.03508  0.2301  0.7411
6.498e+09  3.554  -6.212  0.001313  -0.0299  -0.07437  -0.08269  0.4727  0.6135
6.499e+09  0.7088  -6.951  -0.02566  -0.01685  -0.01981  -0.08285  0.6378  0.4171
6.5e+09  2.228  -2.187  -0.03271  0.002834  -0.1423  -0.1593  0.7504  0.161
6.501e+09  -4.998  -4.87  -0.0138  -0.006813  0.07323  0.005164  0.7204  -0.1297
6.502e+09  -6.571  -2.214  0.03291  -0.03788  -0.01801  -0.02252  0.654  -0.3471
6.504e+09  -6.721  0.8844  -0.01419  -0.0007323  -0.03076  0.04158  0.4897  -0.5596
6.505e+09  -5.542  3.456  -0.0003457  -0.002891  -0.0856  -0.07715  0.2775  -0.7027
6.506e+09  -3.564  5.28  -0.005882  0.005868  0.03575  -0.0107  0.03445  -0.7914
6.508e+09  -0.819  5.966  -0.03661  -0.01022  -0.02678  0.08224  -0.2255  -0.7349
6.509e+09  1.435  5.676  0.03701  0.01546  -0.07718  -0.0429  -0.4798  -0.6216
6.51e+09  3.513  4.342  -0.00197  -0.02072  -0.02969  0.03747  -0.6556  -0.3628
6.511e+09  4.718  2.508  -0.01456  0.0005911  0.01029  -0.1433  -0.754  -0.1068
6.512e+09  4.985  0.4737  0.007018  -0.0408  0.006227  -0.04402  -0.7198  0.1424
6.514e+09  4.588  -1.409  -0.002413  -0.02067  0.07365  -0.01628  -0.6386  0.3708
6.515e+09  3.479  -2.935  0.008492  0.003987  -0.01258  0.02348  -0.442  0.5561
6.516e+09  2.02  -3.795  0.01593  0.0433  -0.03653  -0.03498  -0.2598  0.7268
6.518e+09  0.4193  -4.197  -0.03433  0.002812  0.06731  -0.07978  0.04177  0.7563
6.519e+09  -1.188  -3.846  0.009604  0.02708  0.07389  -0.005887  0.2549  0.683
6.52e+09  -2.36  -3.064  -0.008583  0.01332  -0.0003011  0.06549  0.4839  0.5794
6.521e+09  -3.255  -1.808  -0.01999  0.02236  0.05923  0.0716  0.6687  0.3465
6.522e+09  -3.43  -0.6256  -0.009864  -0.01161  0.007397  -0.04905  0.7407  0.08684
6.524e+09  -3.367  0.6788  0.0171  0.004956  -0.06322  0.0524  0.7186  -0.1602
6.525e+09  -2.766  1.831  0.0009729  -0.01292  -0.04106  0.06823  0.5868  -0.4007
6.526e+09  -1.814  2.599  -0.001157  0.01464  0.03094  0.006869  0.4037  -0.6127
6.528e+09  -0.7729  2.93  0.01912  0.007464  -0.004982  0.01667  0.2146  -0.6914
6.529e+09  0.47  2.949  0.01532  -0.01974  0.01632  -0.01116  -0.03537  -0.6926
6.53e+09  1.327  2.532  0.03943  -0.002228  0.05167  0.009426  -0.2746  -0.6312
6.531e+09  2.069  1.808  0.02339  -0.007389  0.02704  0.1061  -0.4859  -0.4403
6.532e+09  2.577  0.9023  0.01477  -0.01559  0.03388  -0.02954  -0.5849  -0.3134
6.534e+09  2.64  -0.117  0.001028  -0.001933  0.05538  -0.0207  -0.6464  -0.05997
6.535e+09  2.323  -1.018  0.03795  4.476e-05  -0.02  -0.01044  -0.5917  0.126
6.536e+09  1.841  -1.72  -0.0004041  -0.01577  0.007418  -0.01717  -0.5727  0.3134
6.538e+09  0.9887  -2.249  -0.02596  0.003247  -0.09279  -0.02719  -0.4728  0.4733
6.539e+09  0.1488  -2.418  -0.003447  -0.03928  -0.0223  -0.02528  -0.2822  0.6157
6.54e+09  -0.6773  -2.276  -0.003505  0.01185  -0.08444  0.006222  -0.05861  0.6871
6.541e+09  -1.373  -1.844  -0.03074  0.009174  -0.0155  -0.03687  0.2085  0.6722
6.542e+09  -1.836  -1.205  -0.02053  0.01847  0.0159  0.03787  0.4247  0.6137
6.544e+09  -2.157  -0.437  -0.05124  0.03035  0.05691  0.02125  0.5782  0.4109
6.545e+09  -2.112  0.3783  -0.01525  0.01099  -0.006318  0.04818  0.6936  0.221
6.546e+09  -1.829  1.134  0.03201  0.004472  -0.03911  -0.003839  0.752  -0.06386
6.548e+09  -1.291  1.563  -0.003599  0.01032  0.05798  0.02349  0.6151  -0.3482
6.549e+09  -0.7002  1.922  0.02073  0.01384  0.007028  0.02011  0.4763  -0.5405
6.55e+09  0.09052  2.068  -0.04163  -0.03709  -0.004596  -0.03431  0.3053  -0.6939
6.551e+09  0.7356  1.866  -0.01626  -0.001591  0.07043  0.003147  0.07858  -0.7051
6.552e+09  1.357  1.395  -0.01353  -0.0306  -0.01646  0.05808  -0.2357  -0.7142
6.554e+09  1.771  0.8205  0.0001773  0.02464  0.004308  -0.007621  -0.4704  -0.6243
