# Hz S RI R 50
6.25e+09  0.3362  0.8668  0.007892  -0.01038  -0.00636  0.03755  0.1739  0.4616
6.251e+09  0.5928  0.7024  -0.02851  0.02364  -0.04986  -0.004252  0.3993  0.39
6.252e+09  0.8196  0.4824  -0.03867  0.02082  -0.02001  0.04763  0.5696  0.2586
6.254e+09  0.9167  0.1609  0.01365  -0.008964  0.006851  -0.01109  0.6052  0.01906
6.255e+09  0.9518  -0.1655  0.006675  0.05172  -0.01445  -0.01553  0.5924  -0.224
6.256e+09  0.7807  -0.5104  -0.02257  -0.03786  0.005059  0.004426  0.4944  -0.448
6.258e+09  0.6172  -0.7853  0.02269  -0.009459  0.03245  -0.0389  0.2713  -0.6026
6.259e+09  0.3341  -0.9346  -0.007099  0.03476  0.02307  -0.02449  0.04261  -0.6827
6.26e+09  -0.03304  -1.012  0.01448  0.03357  -0.0607  0.00338  -0.1983  -0.6502
6.261e+09  -0.3399  -0.9066  0.01191  0.008651  -0.0138  0.009471  -0.4538  -0.5245
6.262e+09  -0.5944  -0.6499  0.0009121  -0.04459  -0.02193  0.04669  -0.6099  -0.3478
6.264e+09  -0.8406  -0.4249  0.01072  -0.03767  0.003954  -0.001102  -0.7064  -0.08391
6.265e+09  -0.9627  -0.06893  0.01494  0.005875  0.05799  0.007097  -0.7118  0.1297
6.266e+09  -0.8873  0.1984  -0.00832  0.0108  0.02581  0.01386  -0.6392  0.4189
6.268e+09  -0.8197  0.5248  -0.01688  -0.019  -0.04052  0.01601  -0.4326  0.5882
6.269e+09  -0.5406  0.6854  -0.007958  0.01509  -0.01802  0.03078  -0.1936  0.7091
6.27e+09  -0.2362  0.8243  -0.01712  -0.02105  -0.0393  -0.01045  0.08106  0.7188
6.271e+09  0.07621  0.9444  -0.02727  0.03465  -0.03615  0.04979  0.309  0.6421
6.272e+09  0.3962  0.8469  0.002169  0.01001  0.0209  0.0004786  0.5532  0.5281
6.274e+09  0.6737  0.5916  -0.02181  -0.02423  -0.0161  -0.02667  0.7097  0.2986
6.275e+09  0.8523  0.4338  -0.02127  -0.0402  -0.04852  -0.01704  0.735  0.07244
6.276e+09  0.9707  0.09838  -0.006373  -0.02978  0.006248  0.02765  0.7617  -0.22
6.278e+09  0.8701  -0.2778  -0.005861  -0.008429  -0.0009383  0.01909  0.6238  -0.4738
6.279e+09  0.7493  -0.5293  0.009534  0.005852  -0.03208  0.009177  0.4064  -0.665
6.28e+09  0.5741  -0.8024  0.02124  -0.005304  0.03944  -0.0005861  0.1259  -0.7395
6.281e+09  0.2127  -0.88  0.01205  0.000281  0.005259  -0.04882  -0.08967  -0.7468
6.282e+09  -0.1113  -0.9711  -0.006399  0.02557  0.06158  0.002298  -0.3663  -0.6691
6.284e+09  -0.4318  -0.822  0.02238  -0.001574  0.006618  -0.009409  -0.5954  -0.5316
6.285e+09  -0.6973  -0.5737  -0.003435  -0.04416  0.01672  -0.02354  -0.7464  -0.2792
6.286e+09  -0.8371  -0.3158  -0.009576  -0.01355  -0.02652  0.02491  -0.7803  -0.02732
6.288e+09  -0.9352  0.003083  -0.02431  -0.005729  0.001673  0.003955  -0.7349  0.2478
6.289e+09  -0.9112  0.3099  0.01982  0.008671  0.01277  0.01368  -0.6105  0.4975
6.29e+09  -0.7241  0.6018  0.01341  -0.01979  -0.02227  0.01689  -0.4121  0.7084
6.291e+09  -0.4034  0.8014  -0.006768  -0.0008195  -0.01827  -0.02485  -0.1321  0.7746
6.292e+09  -0.1277  0.936  -0.0145  -0.008582  -0.04515  -0.03448  0.1165  0.8004
6.294e+09  0.168  0.9694  -0.015  0.001589  -0.03496  0.01969  0.3949  0.7206
6.295e+09  0.5463  0.8087  -0.005455  -0.005641  -0.03872  -0.002545  0.605  0.5364
6.296e+09  0.7434  0.5618  0.01278  0.02063  0.02179  0.02358  0.8011  0.3034
6.298e+09  0.9262  0.2942  -0.01363  0.02325  0.01078  -0.02843  0.8268  -0.002762
6.299e+09  0.9566  -0.07371  -0.009802  0.007633  -0.01206  0.05278  0.7577  -0.2841
6.3e+09  0.8723  -0.3593  0.02078  -0.02961  -0.04549  -0.003772  0.6748  -0.5628
6.301e+09  0.7025  -0.5904  0.03216  0.01126  -0.03355  0.01398  0.4245  -0.7322
6.302e+09  0.4173  -0.8343  0.002755  -0.02332  0.01304  0.00753  0.156  -0.8463
6.304e+09  0.1118  -0.9792  -0.01279  -0.02627  -0.01184  -0.02706  -0.1475  -0.847
6.305e+09  -0.2236  -0.9853  0.007169  -0.01288  -0.03012  0.02144  -0.4137  -0.7156
6.306e+09  -0.5127  -0.8014  -0.007132  0.03457  -0.01567  0.03027  -0.621  -0.5436
6.308e+09  -0.8311  -0.5609  -0.02387  -0.01665  -0.04153  0.008918  -0.8262  -0.2908
6.309e+09  -0.9034  -0.2316  0.01343  -0.002731  -0.06097  -0.02689  -0.8786  0.02321
6.31e+09  -0.9487  0.1479  -0.004746  0.03566  -0.001376  0.006528  -0.8123  0.2969
6.311e+09  -0.874  0.3965  -0.002467  -0.03276  0.01062  0.02255  -0.6589  0.5356
6.312e+09  -0.6549  0.7445  -0.01183  -0.01663  -0.01596  -0.01989  -0.433  0.7531
6.314e+09  -0.3902  0.8832  -0.007628  0.0004889  0.01726  0.0089  -0.1758  0.8413
6.315e+09  -0.0512  0.9859  0.01582  0.009965  0.03854  -0.006634  0.1463  0.8722
6.316e+09  0.2879  0.9716  -0.01955  0.003692  -0.0493  -0.01439  0.4148  0.7543
6.318e+09  0.5685  0.7904  -0.00234  0.01378  0.009235  0.03677  0.6932  0.5635
6.319e+09  0.8648  0.5444  -0.01375  -0.0009352  -0.03182  0.007678  0.839  0.2962
6.32e+09  0.9611  0.1684  -0.004503  0.0164  0.01654  0.03245  0.8978  -0.02315
6.321e+09  0.9806  -0.1038  -0.007335  -0.01596  -0.02109  -0.0004662  0.8003  -0.3013
6.322e+09  0.8871  -0.4926  -0.002035  -0.02248  -0.00963  0.007928  0.7075  -0.5941
6.324e+09  0.6703  -0.7364  -0.01422  0.02549  0.01544  0.05488  0.4347  -0.7709
6.325e+09  0.3557  -0.9655  -0.006042  0.02611  -0.04573  -0.0217  0.1885  -0.8626
6.326e+09  -0.01401  -1.017  0.01918  0.04642  0.009977  -0.02563  -0.1242  -0.8878
6.328e+09  -0.3687  -1.024  -0.01329  -0.01785  0.02086  -0.02476  -0.4126  -0.7558
6.329e+09  -0.671  -0.8067  -0.04395  -0.01308  0.008901  0.01039  -0.6876  -0.592
6.33e+09  -0.9511  -0.5226  0.005436  -0.02599  -0.006195  -0.01202  -0.8582  -0.321
6.331e+09  -1.005  -0.1407  -6.412e-05  -0.00616  0.02418  -0.02217  -0.8998  -0.02759
6.332e+09  -1.069  0.2062  -0.02293  -0.003982  0.02809  0.006265  -0.8802  0.2696
6.334e+09  -0.8704  0.5726  -0.01259  0.01217  0.00221  -0.01829  -0.7052  0.5725
6.335e+09  -0.6189  0.8878  -0.02453  -0.03098  0.02996  0.04187  -0.5061  0.8012
6.336e+09  -0.3497  1.071  -0.006562  -0.0003604  0.0493  -0.04946  -0.2114  0.9174
6.338e+09  0.07104  1.046  -0.01568  -0.009271  -0.03087  0.00536  0.09206  0.951
6.339e+09  0.4293  0.9852  0.01684  -0.01194  -0.01895  0.006207  0.4688  0.8032
6.34e+09  0.7333  0.7515  -0.02111  -0.01187  0.01981  -0.05221  0.6949  0.6291
6.341e+09  0.9915  0.4917  0.01414  -0.02107  0.03587  0.04363  0.8419  0.3692
6.342e+09  1.083  0.1055  0.01092  0.02617  -0.04302  0.01441  0.9168  0.03284
6.344e+09  1.044  -0.2629  0.02854  0.01144  0.0232  -0.02157  0.8721  -0.2668
6.345e+09  0.8973  -0.6438  -0.03363  -0.01188  0.02882  -0.02382  0.7617  -0.59
6.346e+09  0.66  -0.8877  -0.01087  -0.02603  -0.002595  -0.03794  0.5153  -0.7704
6.348e+09  0.2201  -1.124  -0.02413  -0.01511  -0.02919  -0.009882  0.2102  -0.9391
6.349e+09  -0.09096  -1.104  0.03315  -0.01248  0.01583  -0.00937  -0.1193  -0.8954
6.35e+09  -0.4912  -1.019  0.004824  -0.04157  0.04619  0.02033  -0.4116  -0.8688
6.351e+09  -0.8315  -0.767  -0.00314  0.003766  0.004472  -0.01192  -0.6838  -0.6473
6.352e+09  -1.047  -0.4635  -0.01108  -0.009686  0.006958  0.01835  -0.8256  -0.3739
6.354e+09  -1.206  -0.07819  -0.03548  -0.004382  0.01193  0.03469  -0.9892  -0.06318
6.355e+09  -1.092  0.3308  0.01721  -0.01804  -0.02131  -0.01538  -0.8809  0.2787
6.356e+09  -0.8769  0.6865  -0.02913  -0.03542  -0.007905  -0.02695  -0.7712  0.5613
6.358e+09  -0.585  1.009  0.006292  -0.01629  0.027  0.02003  -0.545  0.7925
6.359e+09  -0.1911  1.161  -0.02483  -0.02275  0.002965  0.02939  -0.2591  0.921
6.36e+09  0.2479  1.179  0.03188  -0.01845  0.02081  -0.0001269  0.09087  0.9193
6.361e+09  0.5783  1.009  0.02048  0.003905  0.006277  0.04157  0.4221  0.8641
6.362e+09  0.9124  0.7162  0.01581  0.005782  -0.03995  0.003356  0.6645  0.6816
6.364e+09  1.044  0.4014  -0.008991  -0.004601  -0.01716  0.01185  0.8794  0.3445
6.365e+09  1.21  0.007885  0.03077  0.008789  -0.01595  -0.03842  0.9768  0.08172
6.366e+09  1.106  -0.4369  -0.0263  -0.004804  -0.004136  0.02713  0.9195  -0.2578
6.368e+09  0.9085  -0.7595  -0.005811  0.01465  -0.003756  0.03995  0.7811  -0.5318
6.369e+09  0.6173  -1.025  -0.001626  0.007566  -0.06712  -0.005282  0.5516  -0.7645
6.37e+09  0.198  -1.203  -0.03222  -0.02138  -0.0665  -0.0202  0.2245  -0.9326
6.371e+09  -0.2577  -1.213  0.03698  0.01594  0.01657  0.00911  -0.05418  -0.9543
6.372e+09  -0.6564  -1.072  -0.01011  0.04428  -0.007904  0.004546  -0.4107  -0.8933
6.374e+09  -0.9919  -0.7956  -0.007087  -0.001774  0.008382  -0.008988  -0.6787  -0.6503
6.375e+09  -1.202  -0.2893  0.02377  0.002557  0.001816  -0.04355  -0.8577  -0.396
6.376e+09  -1.292  0.08266  0.01207  0.02405  -0.02044  -0.01433  -0.897  -0.1045
6.378e+09  -1.189  0.5091  0.00701  -0.01823  -0.006336  0.03863  -0.9006  0.2356
6.379e+09  -0.9798  0.9363  0.004944  0.01408  -0.008333  -0.01081  -0.7722  0.5298
6.38e+09  -0.5915  1.161  -0.03523  0.005844  0.01622  0.01283  -0.5489  0.7554
6.381e+09  -0.1656  1.324  -0.0312  -0.01122  -0.02604  0.005404  -0.261  0.9081
6.382e+09  0.3374  1.302  0.01829  0.02764  -0.004937  -0.004295  0.03443  0.9366
6.384e+09  0.7282  1.053  -0.0001703  0.03457  0.00769  0.002873  0.3503  0.8806
6.385e+09  1.149  0.7938  0.004662  -0.007231  -0.02102  -0.04675  0.6351  0.7069
6.386e+09  1.35  0.3282  -0.01507  0.006276  0.01379  -0.00761  0.8943  0.4375
6.388e+09  1.35  -0.09005  -0.04012  -0.0303  0.02911  -0.02755  0.9531  0.1013
6.389e+09  1.171  -0.6464  -0.01866  -0.007414  0.01379  -0.04056  0.9258  -0.2102
6.39e+09  0.9696  -1.016  -0.002944  -0.03238  -0.02247  0.0001566  0.7844  -0.5105
6.391e+09  0.5458  -1.315  0.02496  0.004266  0.06546  0.0266  0.5501  -0.7029
6.392e+09  0.08275  -1.429  -0.02225  0.02789  -0.008076  0.03329  0.2775  -0.8472
6.394e+09  -0.3835  -1.386  -0.003062  0.002435  0.02738  -0.02307  -0.07153  -0.9015
6.395e+09  -0.838  -1.131  0.03094  -0.02105  -0.05576  0.0008478  -0.3504  -0.8453
6.396e+09  -1.218  -0.7438  -0.002785  -0.005267  0.001693  0.02822  -0.5826  -0.673
6.398e+09  -1.474  -0.2653  0.0254  0.03799  -0.01855  -0.01349  -0.7904  -0.4701
6.399e+09  -1.505  0.2415  -0.008657  -0.04795  0.0406  0.01881  -0.8765  -0.1584
6.4e+09  -1.347  0.6768  -0.04419  -0.007931  -0.01825  0.0473  -0.9134  0.1767
6.401e+09  -0.9806  1.16  0.0003846  -0.003361  -0.02108  -0.02482  -0.7623  0.4611
6.402e+09  -0.5093  1.448  0.009785  0.008449  -0.05544  -0.02136  -0.5265  0.7311
6.404e+09  -0.02885  1.552  -0.02552  0.01971  0.06734  0.01577  -0.3037  0.8665
6.405e+09  0.5067  1.398  0.008089  0.04469  -0.01747  0.02389  0.007594  0.8994
6.406e+09  1.002  1.184  -0.006874  0.0008722  0.008563  -0.01699  0.3452  0.8794
6.408e+09  1.434  0.8329  -0.001358  -0.01946  -0.001603  -0.001282  0.5399  0.7194
6.409e+09  1.637  0.2756  -0.06187  -0.01473  0.05868  0.01856  0.7845  0.4287
6.41e+09  1.593  -0.3829  0.0001476  -0.001932  -0.04252  0.02491  0.876  0.1524
6.411e+09  1.403  -0.8871  -0.01022  -0.01677  0.04543  0.05206  0.8708  -0.1512
6.412e+09  0.9963  -1.402  0.01196  -0.01057  -0.02605  -0.005883  0.7465  -0.4529
6.414e+09  0.5103  -1.584  0.04428  0.06138  -0.03321  0.03607  0.5715  -0.7344
6.415e+09  -0.07592  -1.729  0.007338  -0.005598  0.04897  -0.05165  0.321  -0.8316
6.416e+09  -0.7427  -1.554  -0.03148  -0.02681  0.0204  0.01567  0.03896  -0.9332
6.418e+09  -1.207  -1.22  0.02817  3.279e-05  0.03213  0.02409  -0.2858  -0.8912
6.419e+09  -1.605  -0.695  -0.00191  -0.02249  -0.03754  0.00829  -0.5372  -0.6803
6.42e+09  -1.771  -0.08564  -0.02671  0.02065  -0.01091  0.01506  -0.7734  -0.4724
6.421e+09  -1.725  0.5207  0.003574  -0.001242  0.007986  0.03131  -0.8658  -0.1931
6.422e+09  -1.459  1.081  -0.02893  -0.05867  -0.03337  0.0152  -0.8881  0.1272
6.424e+09  -0.9986  1.573  -0.001106  0.04113  -0.03922  -0.01792  -0.7543  0.3865
6.425e+09  -0.3489  1.894  0.0524  -0.008938  -0.01214  0.0346  -0.6001  0.63
6.426e+09  0.27  1.861  -0.002455  0.003032  0.01215  0.009377  -0.3804  0.8161
6.428e+09  0.9102  1.779  0.03399  -0.06401  0.03012  -0.0108  -0.06907  0.8839
6.429e+09  1.51  1.243  0.01443  -0.01629  0.052  -0.03282  0.2542  0.8935
6.43e+09  1.822  0.6015  -0.01381  -0.01207  0.07872  -0.05058  0.459  0.6708
6.431e+09  2.03  -0.03441  0.04271  0.009679  -0.03969  0.02278  0.7789  0.4989
6.432e+09  1.918  -0.7679  -0.03885  0.04212  0.006955  -0.005981  0.803  0.1719
6.434e+09  1.581  -1.479  0.01326  0.01274  0.01534  -0.007756  0.8536  -0.09326
6.435e+09  1.021  -1.922  0.006955  -0.04617  -0.02177  0.01994  0.7737  -0.368
6.436e+09  0.2623  -2.151  -0.03759  -0.01321  0.005787  -0.0383  0.6341  -0.6219
6.438e+09  -0.5043  -2.075  0.0381  0.009581  0.00568  -0.03539  0.3477  -0.7868
6.439e+09  -1.24  -1.863  0.04248  -0.0139  0.0645  -0.004735  0.06845  -0.8005
6.44e+09  -1.894  -1.296  -0.00235  -0.004674  0.02626  0.008369  -0.182  -0.7757
6.441e+09  -2.232  -0.5446  -0.02049  -0.03699  0.03414  -0.0314  -0.5379  -0.6858
6.442e+09  -2.31  0.2897  0.02017  -0.007625  -0.006077  0.01671  -0.6674  -0.4437
6.444e+09  -2.081  1.158  0.0259  0.03585  0.02561  -0.01179  -0.7916  -0.1829
6.445e+09  -1.607  1.794  -0.00983  -0.0129  -0.04506  0.02328  -0.8449  0.03579
6.446e+09  -0.9022  2.268  -0.03756  0.02259  -0.03007  0.009786  -0.7491  0.347
6.448e+09  0.06596  2.486  -0.02414  -0.01394  0.001499  -0.01438  -0.5948  0.585
6.449e+09  0.8257  2.392  0.02726  0.001272  0.02455  0.01268  -0.3621  0.753
6.45e+09  1.689  2.03  -0.005773  -0.007111  -0.02093  -0.007824  -0.03566  0.8027
6.451e+09  2.369  1.233  0.01265  -0.002833  0.02155  -0.00658  0.2341  0.7734
6.452e+09  2.669  0.3569  -0.01164  0.003712  -0.03547  -0.006649  0.443  0.718
6.454e+09  2.761  -0.6643  8.743e-05  0.03675  -0.01487  0.0696  0.7096  0.4958
6.455e+09  2.337  -1.719  0.01417  0.006727  -0.06924  0.02795  0.8379  0.1512
6.456e+09  1.698  -2.422  -0.01532  -0.003222  0.05236  -0.05481  0.8089  -0.08073
6.458e+09  0.7055  -2.925  0.02091  0.04698  0.02174  0.0144  0.7713  -0.3416
6.459e+09  -0.4057  -3.064  -0.05536  0.04125  0.1092  0.01994  0.5724  -0.5914
6.46e+09  -1.52  -2.807  0.007247  0.01553  0.0008861  0.04898  0.3526  -0.7282
6.461e+09  -2.483  -2.08  -0.002754  0.02492  0.03525  -0.02361  0.08273  -0.8039
6.462e+09  -3.016  -1.186  -0.02961  0.01456  -0.006928  0.1061  -0.213  -0.8339
6.464e+09  -3.357  0.09639  0.02441  -0.002989  0.0283  0.1085  -0.4655  -0.6768
6.465e+09  -3.252  1.388  0.00165  -0.01687  -0.003794  0.05951  -0.7133  -0.4598
6.466e+09  -2.654  2.379  -0.005581  -0.0006906  0.0826  -0.0161  -0.7458  -0.1888
6.468e+09  -1.628  3.34  -0.01844  -0.01116  0.01252  -0.09058  -0.8092  0.09937
6.469e+09  -0.4141  3.797  0.01905  -0.007287  -0.0004814  0.07827  -0.7741  0.3654
6.47e+09  1.077  3.838  -0.008155  0.02529  -0.0009432  0.09171  -0.5614  0.6209
6.471e+09  2.538  3.327  0.01632  0.0071  -0.03321  -0.03927  -0.3325  0.7566
6.472e+09  3.617  2.253  -0.03312  -0.0002151  0.03447  0.01167  -0.03751  0.7813
6.474e+09  4.292  0.6643  0.01446  0.001031  -0.1196  -0.08034  0.1891  0.7778
6.475e+09  4.589  -0.8079  0.006033  -0.01419  0.05052  -0.02912  0.4232  0.6402
6.476e+09  4.278  -2.496  0.02546  0.01383  -0.02281  -0.01024  0.6332  0.4428
6.478e+09  3.083  -4.075  -0.006854  0.02408  0.1094  0.1731  0.7751  0.1746
6.479e+09  1.355  -4.991  -0.02425  0.003545  0.03596  0.07357  0.8136  -0.06066
6.48e+09  -0.643  -5.469  -0.0144  -0.01996  0.1028  -0.01002  0.7201  -0.3632
6.481e+09  -2.741  -5.105  -0.008105  -0.03684  -0.02067  0.02011  0.5473  -0.5634
6.482e+09  -4.881  -3.955  -0.003503  0.01815  -0.02094  0.04723  0.3317  -0.6873
6.484e+09  -6.128  -1.804  -0.007173  0.01648  -0.0183  -0.1415  0.0764  -0.7984
6.485e+09  -6.767  0.9366  0.01668  0.02617  0.04104  -0.00285  -0.2037  -0.7696
6.486e+09  -6.239  3.545  -0.06096  0.05787  -0.1427  -0.002962  -0.4449  -0.6373
6.488e+09  -5.222  6.253  0.004755  0.01832  0.2285  0.7164  -0.714  -0.4015
6.489e+09  -2.092  7.84  -0.04227  0.02948  0.0002879  -0.05267  -0.7902  -0.1813
6.49e+09  1.55  8.659  -0.01481  0.02037  0.08939  0.03461  -0.7678  0.09746
6.491e+09  5.106  7.591  -0.03095  0.0002734  0.01307  -0.02501  -0.6842  0.3496
6.492e+09  8.418  4.894  0.005882  0.0086  0.09128  0.02256  -0.5232  0.5571
6.494e+09  10.2  0.797  0.01239  0.001372  -0.03296  0.1759  -0.3241  0.6959
6.495e+09  9.986  -3.892  0.05762  0.0234  -0.1379  -0.02631  0.0007493  0.7729
6.496e+09  7.748  -8.205  0.003054  -0.02011  0.07613  0.2176  0.2148  0.7439
6.498e+09  3.178  -11.34  -0.01592  0.01074  0.001638  -0.08683  0.4394  0.5949
6.499e+09  -2.561  -11.81  -0.00191  -0.01944  -0.08422  0.04293  0.6698  0.4156
6.5e+09  -14.29  0.2744  0.04782  -0.01595  -0.2974  -0.3095  0.7716  0.1883
6.501e+09  -10.98  -4.556  0.009872  -0.04528  -0.07214  -0.02926  0.7573  -0.09506
6.502e+09  -11.59  1.185  -0.04333  -0.01029  -0.08092  -0.1096  0.6555  -0.364
6.504e+09  -9.721  6.165  -0.04371  0.01555  0.007314  -0.1658  0.5211  -0.547
6.505e+09  -5.471  9.361  0.01184  0.02963  -0.1133  0.002174  0.2688  -0.7208
6.506e+09  -0.8814  10.33  -0.03039  0.03691  -0.02705  -0.05521  0.009707  -0.7522
6.508e+09  3.466  9.224  -0.007472  0.004654  -0.04345  -0.1161  -0.2252  -0.7104
6.509e+09  6.504  6.422  -0.0218  -0.01491  -0.001388  -0.02715  -0.5128  -0.5951
6.51e+09  7.919  3.012  0.01458  -0.01713  0.0002169  -0.06901  -0.6778  -0.3723
6.511e+09  7.924  -0.2691  -0.02147  -0.01003  0.0277  -0.003012  -0.7895  -0.124
6.512e+09  6.703  -3.366  0.01512  -0.02655  -0.07238  -0.02816  -0.7225  0.1394
6.514e+09  4.671  -5.361  0.03757  0.01551  -0.02453  -0.06176  -0.6813  0.3927
6.515e+09  2.08  -6.308  0.01  -0.03252  -0.03752  -0.04653  -0.5111  0.59
6.516e+09  -0.4592  -6.268  -0.0007665  -0.01092  -0.0807  0.06457  -0.2168  0.6734
6.518e+09  -2.695  -5.345  -0.007395  -0.02194  -0.06712  -0.06324  0.02597  0.7421
6.519e+09  -4.253  -3.706  0.002779  -0.008253  -0.05437  0.02514  0.2461  0.7238
6.52e+09  -5.039  -1.772  -0.05938  -0.01956  -0.04632  0.01957  0.4876  0.5924
6.521e+09  -5.042  0.1799  0.0107  -0.04078  -0.02763  0.001011  0.6527  0.3419
6.522e+09  -4.453  1.994  0.0161  -0.01489  -0.05231  0.09714  0.7283  0.09623
6.524e+09  -3.264  3.248  0.02946  -0.006058  0.006842  0.02658  0.7184  -0.1709
6.525e+09  -1.744  4.124  0.003154  0.006624  -0.027  0.01467  0.6621  -0.3804
6.526e+09  -0.1909  4.244  0.00262  -0.01669  0.04338  -0.01646  0.4261  -0.5417
6.528e+09  1.225  3.909  0.005547  -0.02103  0.136  -0.0126  0.2287  -0.6926
6.529e+09  2.46  3.087  -0.006493  -0.003791  0.04564  -0.07471  -0.07318  -0.6835
6.53e+09  3.326  1.833  0.01751  -0.006888  0.005131  -0.0001877  -0.2944  -0.6285
6.531e+09  3.738  0.5778  0.009769  -0.01601  0.05277  -0.01145  -0.4623  -0.4748
6.532e+09  3.588  -0.7701  -0.008215  0.0139  -0.06888  -0.001103  -0.5873  -0.295
6.534e+09  2.832  -1.956  0.02118  0.008927  -0.03508  -0.0239  -0.6198  -0.07064
6.535e+09  1.949  -2.774  -0.002888  -0.01307  -0.0634  0.05348  -0.6066  0.1133
6.536e+09  0.8458  -3.156  -0.01274  -0.02434  0.002351  0.002942  -0.5436  0.332
6.538e+09  -0.3326  -3.187  0.01393  0.01397  0.001333  -0.01214  -0.4251  0.5021
6.539e+09  -1.496  -2.698  -0.0004889  0.02766  -0.00371  -0.007431  -0.2803  0.5912
6.54e+09  -2.286  -1.956  0.02311  -0.007145  0.04874  -0.00783  -0.06462  0.685
6.541e+09  -2.66  -1.011  -0.009607  0.0004956  0.03716  0.08708  0.1995  0.6897
6.542e+09  -2.857  -0.0224  -0.04968  -0.01319  0.03867  0.00382  0.4085  0.5813
6.544e+09  -2.583  0.9705  -0.01417  0.0006777  0.08609  0.03768  0.6047  0.4047
6.545e+09  -2.024  1.789  -0.007234  -0.01223  0.000756  -0.03157  0.746  0.1679
6.546e+09  -1.268  2.365  0.005662  0.003282  0.02224  0.04516  0.696  -0.07306
6.548e+09  -0.2607  2.592  0.02311  -0.02248  0.04469  0.03376  0.6736  -0.3206
6.549e+09  0.6487  2.453  0.005787  -0.01097  -0.01056  0.06612  0.5029  -0.5421
6.55e+09  1.432  2.074  0.006113  -0.01407  0.01662  0.08668  0.3023  -0.6908
6.551e+09  2.011  1.373  0.02933  0.008119  -0.004626  0.04606  0.06238  -0.7601
6.552e+09  2.351  0.5836  0.01084  -0.002863  -0.01548  0.03462  -0.2654  -0.6993
6.554e+09  2.326  -0.2962  0.02776  -0.02344  -0.002607  0.001694  -0.4667  -0.6092
