# Hz S RI R 50
6.25e+09  0.4293  0.8565  0.00791  -0.0009728  0.05992  0.01323  0.1872  0.4724
6.251e+09  0.6966  0.6523  -0.01211  0.01825  -0.0475  0.000736  0.4106  0.4147
6.252e+09  0.8943  0.4021  -0.006314  0.007763  -0.01219  0.006566  0.545  0.2788
6.254e+09  0.9513  0.1389  0.01932  0.003862  0.03076  -0.002679  0.6197  0.01427
6.255e+09  0.8762  -0.2655  0.01083  0.03153  -0.05911  0.01456  0.592  -0.214
6.256e+09  0.7781  -0.6049  0.001646  0.00456  -0.009885  -0.03637  0.4661  -0.4614
6.258e+09  0.5266  -0.7792  0.006324  -0.02166  -0.0001478  -0.0224  0.2677  -0.6274
6.259e+09  0.2683  -0.9686  0.02735  -0.006811  -0.03956  0.02209  0.005523  -0.6632
6.26e+09  -0.1355  -0.9331  0.001203  -0.002977  -0.002879  -0.08472  -0.2267  -0.6479
6.261e+09  -0.4538  -0.8405  0.01876  -0.01608  -0.0222  -0.05702  -0.4273  -0.554
6.262e+09  -0.6659  -0.657  0.004521  -0.02502  -0.01285  -0.05706  -0.5885  -0.3487
6.264e+09  -0.877  -0.3546  -0.0197  -0.02468  0.01492  0.01956  -0.7068  -0.1103
6.265e+09  -0.9129  -0.0422  0.02965  0.0008382  0.02961  -0.004875  -0.7232  0.1401
6.266e+09  -0.888  0.355  -0.02226  -0.02492  -0.002507  0.01456  -0.6119  0.4032
6.268e+09  -0.7368  0.546  -0.01344  -0.01299  0.03948  0.01894  -0.4466  0.5916
6.269e+09  -0.4269  0.8472  0.001896  0.005041  0.01425  0.03826  -0.1923  0.699
6.27e+09  -0.1429  0.9048  0.03338  -0.01627  -0.02285  0.0429  0.06262  0.768
6.271e+09  0.1716  0.9787  0.006546  0.02664  0.0004301  0.05215  0.3224  0.6474
6.272e+09  0.5076  0.8408  0.00659  0.02278  -0.0408  -0.03284  0.5373  0.5433
6.274e+09  0.7612  0.5945  0.01429  0.01182  -0.0112  0.01661  0.6467  0.3101
6.275e+09  0.8635  0.2766  0.009128  -0.01177  -0.002025  0.002302  0.7967  0.05665
6.276e+09  0.9607  0.01732  -0.001251  -0.04147  0.008002  0.0004163  0.7355  -0.2753
6.278e+09  0.8611  -0.3299  0.02843  -0.003842  -0.03323  0.001765  0.5892  -0.4802
6.279e+09  0.6676  -0.682  -0.02679  -0.03157  0.03006  -0.02794  0.436  -0.6465
6.28e+09  0.4194  -0.8486  0.004046  -0.01302  -0.006196  -0.01427  0.1564  -0.7672
6.281e+09  0.07933  -0.9368  -0.004395  -0.01145  0.01915  -0.02928  -0.1156  -0.7671
6.282e+09  -0.2479  -0.9461  0.007703  -0.02306  -0.01116  0.01445  -0.3444  -0.709
6.284e+09  -0.5305  -0.7925  -0.03931  0.006741  0.002337  -0.02629  -0.6073  -0.5043
6.285e+09  -0.7541  -0.5866  0.003027  -0.003157  0.01195  0.07914  -0.7192  -0.2793
6.286e+09  -0.8683  -0.2706  -0.02341  0.003852  0.02166  0.02153  -0.8143  -0.02734
6.288e+09  -0.9267  0.1028  -0.009655  0.01752  0.02772  -0.02192  -0.7199  0.2584
6.289e+09  -0.8665  0.4273  -0.01157  -0.009993  -0.01934  -0.03173  -0.6144  0.5081
6.29e+09  -0.6375  0.7  0.02275  -0.01772  0.007197  -0.02275  -0.3883  0.6688
6.291e+09  -0.3773  0.8869  -0.004076  0.005682  -0.09755  0.0337  -0.1656  0.7901
6.292e+09  -0.07604  0.9065  -0.007977  -0.002313  -0.02063  -0.008136  0.1384  0.7768
6.294e+09  0.2679  0.9159  0.03496  -0.00675  -0.02952  0.03126  0.4011  0.73
6.295e+09  0.5497  0.7685  -0.01326  0.01697  0.01731  0.04911  0.6193  0.5561
6.296e+09  0.8404  0.5174  0.006475  0.005459  -0.06101  -0.009214  0.7952  0.268
6.298e+09  0.9353  0.1672  0.02331  0.01086  0.05231  0.04478  0.8352  -0.00999
6.299e+09  0.972  -0.1359  -0.009999  0.02147  -0.02055  -0.003713  0.7505  -0.2513
6.3e+09  0.8275  -0.4952  0.0002159  -0.02192  -0.04027  0.02834  0.6664  -0.5291
6.301e+09  0.6666  -0.7052  0.003508  -0.01079  0.01631  0.04089  0.4209  -0.743
6.302e+09  0.3261  -0.9386  0.009  -9.868e-05  0.03059  -0.02224  0.1716  -0.859
6.304e+09  -0.02017  -0.9452  0.007745  -0.01037  -0.01843  0.009639  -0.1363  -0.8482
6.305e+09  -0.3267  -0.8623  0.008684  -0.004271  -0.004079  0.0294  -0.4416  -0.7481
6.306e+09  -0.6648  -0.7451  -0.0006092  -0.01571  -0.01305  -0.02851  -0.6359  -0.5586
6.308e+09  -0.8361  -0.4531  0.009094  -0.02238  0.05935  -0.008008  -0.8169  -0.2836
6.309e+09  -0.9712  -0.1162  0.03246  -0.0294  -0.01269  0.02025  -0.8385  -0.002736
6.31e+09  -1.003  0.2164  -0.03083  -0.04343  -0.05733  0.02607  -0.819  0.2903
6.311e+09  -0.809  0.5234  0.01053  -0.005792  0.03018  -0.001097  -0.6403  0.5365
6.312e+09  -0.5556  0.7969  0.02767  -0.01341  -0.01599  0.0019  -0.4462  0.7725
6.314e+09  -0.3075  0.9415  0.007049  0.004725  0.0175  0.02893  -0.1991  0.8314
6.315e+09  0.01261  0.975  -0.007872  -0.0008164  0.003827  -0.003615  0.1736  0.8589
6.316e+09  0.3728  0.921  0.02663  0.01062  -0.01516  -0.04013  0.4218  0.7542
6.318e+09  0.6929  0.7469  -0.01854  0.003185  -0.02363  0.04224  0.6515  0.5626
6.319e+09  0.9105  0.4205  0.01944  0.0142  0.008362  0.01885  0.8424  0.3275
6.32e+09  0.9696  0.0432  -0.03716  -0.002749  -0.04482  0.01595  0.8993  -0.009379
6.321e+09  1.004  -0.2421  0.02469  0.008214  -0.01055  -0.01246  0.8337  -0.2718
6.322e+09  0.8221  -0.635  0.02332  0.002432  0.05586  0.007103  0.6984  -0.5891
6.324e+09  0.5579  -0.8428  0.0167  -0.002675  0.003586  -0.02813  0.441  -0.772
6.325e+09  0.215  -0.9676  0.005546  0.01647  0.0199  0.04477  0.1978  -0.915
6.326e+09  -0.1486  -1.015  0.01501  0.01885  -0.004969  0.001445  -0.1467  -0.8753
6.328e+09  -0.492  -0.8991  0.01282  0.0159  -0.001031  -0.01817  -0.4531  -0.7866
6.329e+09  -0.766  -0.7201  -0.02133  -0.02925  -0.00515  0.03497  -0.664  -0.5754
6.33e+09  -0.986  -0.4317  0.01873  -0.0305  -0.05309  0.07132  -0.8415  -0.2857
6.331e+09  -1.071  0.00688  -0.003347  0.03736  -0.05979  -0.01691  -0.9525  -0.004356
6.332e+09  -1.028  0.3203  -0.004076  -0.01088  -9.592e-05  0.004248  -0.8807  0.3191
6.334e+09  -0.8204  0.7086  -0.004321  -0.003316  -0.006428  0.01493  -0.7088  0.5908
6.335e+09  -0.5343  0.9308  0.0102  -0.01418  -0.007348  0.0001915  -0.5301  0.7919
6.336e+09  -0.1924  1.055  -0.01194  -0.003845  0.03584  0.01445  -0.2071  0.8759
6.338e+09  0.2009  1.04  0.00683  -0.01797  -0.01878  -0.02319  0.1178  0.9247
6.339e+09  0.5403  0.9601  0.0237  0.01562  -0.002437  -0.01123  0.4044  0.8058
6.34e+09  0.8565  0.7377  0.01164  0.02826  -0.01782  -0.04969  0.6739  0.6294
6.341e+09  1.08  0.4222  0.03206  0.02348  0.001881  -0.02473  0.8344  0.3622
6.342e+09  1.053  -0.01137  -0.001047  0.02603  0.01739  -0.0102  0.9029  0.01557
6.344e+09  1.061  -0.4385  -0.01121  0.0004447  0.0385  -0.003796  0.885  -0.2539
6.345e+09  0.8372  -0.7039  -0.02497  -0.04872  0.01151  0.02285  0.737  -0.5618
6.346e+09  0.5403  -0.9834  -0.02116  0.008173  0.05151  0.03284  0.5335  -0.7457
6.348e+09  0.1466  -1.128  0.01664  -0.03638  -0.01998  -0.0152  0.2358  -0.9695
6.349e+09  -0.232  -1.097  0.00143  0.003336  -0.02769  -0.003429  -0.09829  -0.916
6.35e+09  -0.6249  -0.9303  0.03141  0.01554  0.01023  0.03758  -0.3838  -0.8383
6.351e+09  -0.9372  -0.6589  -0.01254  -0.008001  0.02237  0.02579  -0.6947  -0.6291
6.352e+09  -1.078  -0.2318  -0.01641  -0.05802  0.007656  -0.01022  -0.8647  -0.3631
6.354e+09  -1.155  0.1075  0.02225  -0.02482  -0.0138  -0.00282  -0.9264  -0.0702
6.355e+09  -1.015  0.5177  0.01648  0.004492  0.004843  0.01797  -0.8951  0.2382
6.356e+09  -0.8607  0.8183  0.0231  -0.001457  -0.02004  0.03841  -0.7519  0.5186
6.358e+09  -0.5007  1.064  0.01182  -0.01038  0.002182  -0.04869  -0.4894  0.7902
6.359e+09  -0.08221  1.201  -0.009887  -0.02528  0.01434  0.02792  -0.2629  0.9438
6.36e+09  0.3087  1.139  0.01379  0.0267  0.06421  0.01812  0.08347  0.9404
6.361e+09  0.7055  0.8751  -0.01187  -0.007542  -0.0413  -0.02806  0.4181  0.8759
6.362e+09  0.9828  0.7075  0.001896  -0.00566  0.04426  0.009306  0.6786  0.6948
6.364e+09  1.167  0.3225  0.0361  0.007496  -0.01234  0.04213  0.8959  0.3998
6.365e+09  1.21  -0.1148  -0.02055  -0.006121  0.005795  -0.001694  0.9213  0.07767
6.366e+09  1.077  -0.5787  -0.01408  -0.001975  0.03863  0.03568  0.9255  -0.2848
6.368e+09  0.8188  -0.94  0.003189  -0.02498  -0.002661  -0.008491  0.7461  -0.5407
6.369e+09  0.451  -1.137  0.002553  -0.02283  -0.01335  -0.009639  0.5691  -0.7907
6.37e+09  0.0001959  -1.2  -0.008464  -0.02471  0.03896  0.02923  0.2076  -0.9444
6.371e+09  -0.4139  -1.197  -0.008975  0.03279  0.01306  0.04477  -0.07948  -0.9671
6.372e+09  -0.7526  -0.9616  0.008273  -0.006999  0.01037  0.003718  -0.431  -0.8528
6.374e+09  -1.107  -0.6272  0.02075  -0.01106  -0.02422  -0.01271  -0.6346  -0.6715
6.375e+09  -1.258  -0.2214  0.02706  0.01755  -0.04043  0.01051  -0.8589  -0.3673
6.376e+09  -1.202  0.1812  0.0178  -0.005885  -0.007317  0.005315  -0.9168  -0.07545
6.378e+09  -1.126  0.6269  -0.02238  0.001447  0.01775  -0.01823  -0.9097  0.2279
6.379e+09  -0.8055  1.026  -0.01305  -0.03846  0.000633  0.03477  -0.7689  0.5421
6.38e+09  -0.4488  1.254  -0.02038  -0.01701  -0.02055  0.04135  -0.5862  0.7783
6.381e+09  0.02243  1.297  -0.02324  -0.02315  -0.03469  -0.008989  -0.2598  0.929
6.382e+09  0.4564  1.205  -0.02554  -0.002425  0.01555  -0.001027  0.09057  0.9014
6.384e+09  0.8893  0.9829  0.02721  -0.02809  0.02055  -0.01164  0.3932  0.8818
6.385e+09  1.172  0.6494  0.05396  0.007964  -0.03844  -0.01438  0.6265  0.6418
6.386e+09  1.357  0.1943  -0.02069  0.02083  -0.009044  0.04381  0.8352  0.4496
6.388e+09  1.276  -0.3285  -0.07883  -0.007411  -0.02951  0.02694  0.9331  0.08481
6.389e+09  1.1  -0.7784  -0.02747  -0.00193  -0.0145  -0.05155  0.9288  -0.2066
6.39e+09  0.8273  -1.141  0.02504  0.008341  0.04439  -0.03152  0.7894  -0.5304
6.391e+09  0.422  -1.331  -0.00273  0.02292  0.0227  -0.01497  0.576  -0.7935
6.392e+09  -0.09231  -1.396  -0.009966  -0.03981  0.0005964  -0.0009899  0.2529  -0.8889
6.394e+09  -0.5967  -1.29  -0.0266  -0.01462  -0.02098  0.003344  -0.01771  -0.8929
6.395e+09  -0.9601  -1.041  0.006106  -0.005344  -0.01145  0.0224  -0.3797  -0.8676
6.396e+09  -1.306  -0.6414  -0.02743  -0.004521  -0.02779  -0.008533  -0.6136  -0.6952
6.398e+09  -1.498  -0.09118  -0.03513  0.0269  0.01181  0.03462  -0.7848  -0.408
6.399e+09  -1.449  0.4493  0.01254  -0.01373  0.02931  0.04038  -0.8947  -0.1533
6.4e+09  -1.253  0.8691  -0.04855  0.0005106  0.007831  0.01196  -0.912  0.1571
6.401e+09  -0.8381  1.283  -0.0134  0.02942  0.009276  -0.03837  -0.8062  0.47
6.402e+09  -0.2944  1.534  0.01003  0.00822  -0.02308  -0.01611  -0.5667  0.7009
6.404e+09  0.2333  1.503  0.03959  -0.01577  0.006129  -0.0256  -0.2446  0.8502
6.405e+09  0.7593  1.397  0.009929  -0.0354  -0.02991  0.0476  -0.02553  0.9282
6.406e+09  1.124  1.083  -0.01076  0.02679  0.007293  -0.04045  0.282  0.8145
6.408e+09  1.49  0.5431  -0.0002427  0.009813  0.006596  -0.0004897  0.5787  0.751
6.409e+09  1.627  0.02905  0.02475  0.003423  0.03655  0.03149  0.8068  0.4455
6.41e+09  1.584  -0.526  0.06988  -0.01746  -0.01028  -0.001121  0.883  0.2067
6.411e+09  1.292  -1.096  -0.02545  -0.002584  0.009628  -0.06152  0.9042  -0.1275
6.412e+09  0.7805  -1.503  0.04008  -0.05016  0.006856  0.00921  0.7645  -0.4158
6.414e+09  0.2827  -1.652  -0.009147  -0.0149  0.001246  0.02173  0.6259  -0.6472
6.415e+09  -0.2843  -1.725  -0.0175  -0.0194  -0.007253  0.02065  0.3069  -0.8518
6.416e+09  -0.8837  -1.561  0.01137  0.003266  -0.009175  0.00595  0.06026  -0.8726
6.418e+09  -1.394  -1.1  -0.002288  -0.01157  -0.0239  0.0061  -0.2741  -0.8326
6.419e+09  -1.688  -0.5794  -0.04348  0.002441  -0.003231  -0.02619  -0.5328  -0.6717
6.42e+09  -1.833  0.05686  0.01715  -0.009672  -0.01693  0.04606  -0.7566  -0.5048
6.421e+09  -1.7  0.7019  -0.02175  0.02016  0.05899  0.03933  -0.9172  -0.177
6.422e+09  -1.363  1.328  -0.005478  0.0008249  -0.01277  -0.01923  -0.85  0.1457
6.424e+09  -0.8597  1.79  -0.008023  -0.03489  0.04795  0.02289  -0.7886  0.4137
6.425e+09  -0.1399  1.917  -0.01968  0.01175  0.02976  -0.001979  -0.5971  0.6417
6.426e+09  0.5087  1.89  -0.0003768  -0.006723  0.00421  0.04108  -0.37  0.8081
6.428e+09  1.154  1.667  0.01338  0.01808  -0.03245  0.01769  -0.009232  0.8795
6.429e+09  1.743  1.055  0.01765  0.01433  0.02164  0.0004635  0.2246  0.8689
6.43e+09  2.033  0.4801  0.006684  -0.004848  0.01221  -0.01348  0.5291  0.6573
6.431e+09  2.129  -0.3055  -0.006835  0.02705  -0.02162  0.003812  0.6961  0.4783
6.432e+09  1.892  -1.01  -0.003217  0.01371  -0.006382  -0.0005734  0.8286  0.2296
6.434e+09  1.371  -1.742  -0.01401  0.0284  -0.04164  0.01679  0.8614  -0.1372
6.435e+09  0.8017  -2.089  0.006221  0.04265  -0.01186  0.01873  0.7598  -0.3638
6.436e+09  0.005849  -2.199  -0.00329  0.02548  0.02071  -0.07475  0.6021  -0.6719
6.438e+09  -0.8589  -2.183  -0.01391  -0.04079  0.06335  -0.02424  0.3281  -0.8122
6.439e+09  -1.64  -1.786  -0.009087  -0.02293  -0.04321  -0.02576  0.07093  -0.8597
6.44e+09  -2.195  -1.123  -0.00545  -0.01071  -0.01753  0.03371  -0.2018  -0.8527
6.441e+09  -2.391  -0.2686  0.005841  0.04  0.06108  -0.04316  -0.4384  -0.7295
6.442e+09  -2.364  0.6943  0.01689  0.009132  -0.00471  -0.02116  -0.7216  -0.5018
6.444e+09  -2.166  1.545  -0.02297  0.002535  0.06159  -0.06241  -0.818  -0.2421
6.445e+09  -1.374  2.21  0.0211  0.0189  0.01093  -0.006139  -0.8376  0.06755
6.446e+09  -0.6087  2.577  0.04379  -0.007518  -0.03108  0.029  -0.7656  0.3499
6.448e+09  0.3928  2.693  -0.02224  -0.02208  -0.006491  0.04094  -0.5808  0.6217
6.449e+09  1.374  2.462  -0.01768  -0.0189  -0.01152  -0.05292  -0.3517  0.8124
6.45e+09  2.172  1.851  -0.01207  0.0147  -0.006946  0.03307  -0.06311  0.8422
6.451e+09  2.737  0.894  0.004948  -0.002726  -0.05939  0.0174  0.1876  0.7939
6.452e+09  2.963  -0.08476  -0.02717  -0.001296  0.01341  -0.01595  0.4867  0.6612
6.454e+09  2.759  -1.182  -0.000412  -0.02405  -0.09412  -0.03191  0.6489  0.4859
6.455e+09  2.196  -2.258  -0.001002  0.05152  -0.004032  0.002579  0.7899  0.2165
6.456e+09  1.287  -3.01  0.005649  -0.02123  0.01337  0.1107  0.7996  -0.07924
6.458e+09  0.1746  -3.339  0.007692  0.003595  -0.006166  -0.001754  0.7235  -0.3568
6.459e+09  -1.101  -3.261  -0.02269  -0.009413  0.05246  -0.01513  0.6037  -0.586
6.46e+09  -2.192  -2.719  0.01001  -0.04541  0.0006237  -0.04236  0.3464  -0.7404
6.461e+09  -3.134  -1.869  0.006276  0.001762  0.07531  0.01941  0.07358  -0.8138
6.462e+09  -3.505  -0.5693  -0.008035  0.00322  0.06995  0.04426  -0.1955  -0.7409
6.464e+09  -3.72  0.8048  -0.02193  -0.03049  -0.003664  -0.02426  -0.4796  -0.6377
6.465e+09  -3.225  2.209  -0.02212  0.006594  -0.01732  0.02545  -0.6505  -0.5084
6.466e+09  -2.287  3.306  0.02375  -0.03206  -0.04275  -0.007255  -0.7917  -0.1857
6.468e+09  -0.8274  4.061  -0.005905  0.0558  0.006389  -0.06842  -0.814  0.04202
6.469e+09  0.662  4.186  0.0009201  -0.001413  0.03856  -0.04174  -0.7217  0.325
6.47e+09  2.239  3.953  0.01885  -0.03803  -0.07327  -0.01662  -0.539  0.5846
6.471e+09  3.65  2.771  -0.0301  0.02636  0.009607  -0.04571  -0.3213  0.7486
6.472e+09  4.553  1.372  0.02973  0.03302  0.104  -0.01601  -0.08099  0.8163
6.474e+09  4.849  -0.3898  -0.01303  -0.02285  0.01373  0.161  0.1713  0.7541
6.475e+09  4.63  -2.255  0.01239  0.006223  -0.04116  -0.05473  0.4503  0.6175
6.476e+09  3.462  -3.977  -0.01804  0.009815  -0.04358  -0.1485  0.6373  0.4093
6.478e+09  1.851  -5.085  0.01457  0.02616  -0.07273  -0.03805  0.7634  0.1941
6.479e+09  -0.4034  -5.703  0.007417  0.01166  0.03802  0.03904  0.8004  -0.07468
6.48e+09  -2.521  -5.358  -0.01598  -0.003948  -0.09453  -0.04059  0.7121  -0.3339
6.481e+09  -4.644  -4.148  0.03854  0.03354  -0.1123  0.1566  0.5458  -0.5981
6.482e+09  -6.028  -2.151  0.02291  -0.04522  -0.05042  -0.07115  0.3024  -0.7569
6.484e+09  -6.758  0.5082  -0.005721  0.01877  -0.1536  -0.07827  0.06159  -0.8009
6.485e+09  -6.395  3.068  -0.01027  0.03197  0.1141  0.039  -0.2141  -0.7583
6.486e+09  -4.837  5.704  -0.0055  -0.02121  0.01748  0.05289  -0.45  -0.6106
6.488e+09  -3.173  7.089  -0.02902  0.001941  -0.3503  0.487  -0.6764  -0.4441
6.489e+09  0.9299  7.981  0.009503  0.01305  0.1083  0.04322  -0.7446  -0.1599
6.49e+09  4.217  7.194  -0.005564  0.002303  -0.08329  -0.04179  -0.7628  0.1181
6.491e+09  6.954  5.085  -0.001522  0.002684  -0.06349  0.02651  -0.6759  0.3528
6.492e+09  8.798  1.725  0.0282  0.02924  -0.06343  -0.03136  -0.5332  0.5504
6.494e+09  8.889  -2.103  0.02417  0.04485  -0.03771  -0.02996  -0.3084  0.7515
6.495e+09  7.352  -5.823  0.006716  0.03768  -0.07871  -0.06906  -0.04694  0.7922
6.496e+09  4.136  -8.706  0.01146  -0.005132  -0.03102  -0.1295  0.2541  0.7594
6.498e+09  0.1834  -9.885  -0.02079  -0.006639  -0.09157  0.1377  0.4507  0.5869
6.499e+09  -4.207  -9.213  -0.01594  -0.0002559  -0.1335  -0.125  0.6172  0.3708
6.5e+09  -8.413  2.985  0.009341  0.04322  -0.3491  -0.1127  0.7626  0.1519
6.501e+09  -9.827  -2.327  -0.002226  0.009814  -0.00249  -0.01854  0.7559  -0.1171
6.502e+09  -9.749  2.023  -0.0161  0.006117  -0.09333  0.04625  0.6672  -0.3355
6.504e+09  -7.622  5.781  -0.01387  0.01504  -0.08774  0.1625  0.5436  -0.5635
6.505e+09  -4.446  8.434  -0.005963  -0.01473  0.04175  0.153  0.2852  -0.7047
6.506e+09  -0.3045  9.218  -0.02033  0.02126  -0.05828  -0.04559  -0.01215  -0.7429
6.508e+09  3.372  8.155  -0.01621  -0.0145  -0.05861  0.1111  -0.2408  -0.7041
6.509e+09  6.248  5.83  -0.00356  -0.001943  0.1153  0.06717  -0.4781  -0.5933
6.51e+09  7.722  2.601  -0.03217  0.005352  -0.08199  0.0998  -0.6442  -0.4266
6.511e+09  7.848  -0.6736  -0.01755  -0.03059  -0.03287  0.03234  -0.7237  -0.158
6.512e+09  6.592  -3.599  -0.03571  -0.02004  0.0196  0.04626  -0.7473  0.1161
6.514e+09  4.438  -5.661  -0.00885  -0.01929  -0.1295  -0.0664  -0.629  0.3548
6.515e+09  1.964  -6.811  -0.003013  -0.04988  0.06099  -0.03869  -0.4906  0.5627
6.516e+09  -1.017  -6.571  0.006782  0.04578  0.06349  -0.03547  -0.2476  0.6774
6.518e+09  -3.119  -5.623  -0.01427  0.001544  -0.0212  0.08843  0.03295  0.7561
6.519e+09  -4.844  -3.675  -0.04194  -0.02019  -0.0138  -0.04538  0.2727  0.7219
6.52e+09  -5.569  -1.585  0.03056  -0.002382  0.02259  0.03852  0.4962  0.5518
6.521e+09  -5.594  0.6492  -0.00645  0.01644  -0.0749  0.07444  0.6543  0.3319
6.522e+09  -4.722  2.655  0.02033  0.004185  0.01018  0.1006  0.7389  0.08331
6.524e+09  -3.272  4.02  0.04186  -0.008498  0.05084  0.07102  0.7145  -0.1899
6.525e+09  -1.435  4.783  -0.005295  -0.002956  -0.08217  0.0006532  0.5883  -0.3946
6.526e+09  0.4207  4.752  0.01864  -0.009998  0.04438  0.02921  0.4022  -0.5671
6.528e+09  2.116  4.144  0.05709  0.02769  -0.05816  0.03819  0.1759  -0.6789
6.529e+09  3.338  3.097  0.03673  0.005751  -0.02688  0.01693  -0.06417  -0.7424
6.53e+09  3.971  1.532  -0.008643  0.00257  0.03184  0.006508  -0.2684  -0.6238
6.531e+09  4.181  -0.05708  0.00758  0.009258  0.1239  3.976e-05  -0.4435  -0.4911
6.532e+09  3.765  -1.574  0.003721  -0.01128  0.04061  -0.02628  -0.5834  -0.2946
6.534e+09  2.829  -2.66  -0.01214  0.0264  0.03868  0.02368  -0.6376  -0.09739
6.535e+09  1.652  -3.443  0.03381  -0.04244  -0.004155  0.01483  -0.6324  0.09159
6.536e+09  0.3381  -3.732  -0.0005987  0.04027  -0.01948  0.02373  -0.5755  0.3511
6.538e+09  -1.024  -3.447  0.03859  -0.004091  0.03758  0.002229  -0.4659  0.4678
6.539e+09  -2.174  -2.664  -0.04184  0.00203  0.01994  0.03028  -0.2508  0.6078
6.54e+09  -2.883  -1.757  -0.01157  0.009914  0.05369  0.003147  -0.02555  0.7081
6.541e+09  -3.205  -0.5368  0.017  0.00911  -0.01828  0.04464  0.2105  0.6493
6.542e+09  -3.147  0.6348  -0.03589  -0.01069  0.04752  0.04053  0.4358  0.5747
6.544e+09  -2.643  1.67  0.0111  -0.008417  -0.02001  0.03134  0.6012  0.3972
6.545e+09  -1.811  2.481  0.001872  0.01138  0.0166  0.01611  0.6803  0.1934
6.546e+09  -0.805  2.879  -0.003766  0.01702  -0.05131  0.01243  0.7207  -0.1056
6.548e+09  0.2336  2.843  -0.00704  0.006777  0.06588  0.007904  0.6332  -0.3326
6.549e+09  1.288  2.559  0.01733  -0.008621  0.03919  -0.004803  0.511  -0.5493
6.55e+09  2.04  1.929  -0.04101  -0.03638  0.0192  -0.07533  0.2726  -0.6898
6.551e+09  2.489  0.9125  0.01752  0.03175  -0.003127  0.01883  0.0522  -0.7096
6.552e+09  2.692  -0.002629  0.0115  0.004282  0.02536  0.03785  -0.2343  -0.7054
6.554e+09  2.411  -0.8087  -0.0008535  -0.007395  -0.05374  0.009856  -0.4421  -0.5852
6.555e+09  1.941  -1.671  -0.02471  0.008737  0.0318  0.01283  -0.6664  -0.3906
