# Hz S RI R 50
6.25e+09  0.01327  0.9676  0.01339  -0.008714  -0.006722  -0.01151  0.1384  0.469
6.251e+09  0.305  0.8919  0.01534  0.002607  0.01273  0.01124  0.3929  0.3724
6.252e+09  0.6017  0.7195  -0.01358  -0.006361  -0.03976  -0.003022  0.5338  0.2207
6.254e+09  0.8006  0.502  -0.009578  0.02324  0.0167  -0.04114  0.587  -0.01479
6.255e+09  0.8724  0.1128  0.007322  0.01599  0.05309  0.0188  0.5804  -0.1854
6.256e+09  0.8568  -0.09233  -0.02743  -0.01363  -0.01615  0.01824  0.4708  -0.4188
6.258e+09  0.79  -0.5254  -0.003124  -0.01214  -0.04272  0.02585  0.2625  -0.6116
6.259e+09  0.6072  -0.6869  -0.02137  -0.00687  -0.004603  0.01417  0.001513  -0.6854
6.26e+09  0.2938  -0.859  -0.02493  -0.0196  0.06393  0.01575  -0.2251  -0.6679
6.261e+09  0.0008714  -0.9178  -0.01441  -0.006884  -0.001479  0.02385  -0.4388  -0.5449
6.262e+09  -0.3562  -0.8722  0.01904  0.01249  0.01664  -0.05283  -0.6457  -0.3693
6.264e+09  -0.634  -0.7015  -0.006754  -0.0191  -0.01895  0.004798  -0.6718  -0.1324
6.265e+09  -0.8017  -0.4211  0.01325  -0.005524  0.08088  0.009913  -0.7089  0.1281
6.266e+09  -0.9083  -0.09941  0.02646  -0.00922  0.0152  0.01484  -0.6018  0.4265
6.268e+09  -0.8343  0.1625  -0.02494  -0.01347  -0.005596  0.0001252  -0.3874  0.5892
6.269e+09  -0.78  0.4995  0.02526  -0.005263  0.05771  -0.000448  -0.1851  0.7088
6.27e+09  -0.5114  0.729  0.00183  0.01577  0.005546  -0.04224  0.06809  0.7676
6.271e+09  -0.1956  0.9219  0.02616  0.01128  -0.03564  0.01049  0.3394  0.6468
6.272e+09  0.0798  0.8933  0.009456  -0.01493  0.0022  0.0212  0.5414  0.5158
6.274e+09  0.408  0.8242  0.008547  -0.006553  0.00458  -0.02669  0.7145  0.3136
6.275e+09  0.6335  0.6049  -0.01176  -0.0101  -0.000736  0.02299  0.7564  0.02749
6.276e+09  0.8215  0.3854  0.008127  -0.0004875  -0.01757  0.08163  0.6917  -0.2241
6.278e+09  0.9089  0.09031  0.01448  0.03469  0.03456  0.02111  0.6021  -0.4528
6.279e+09  0.8834  -0.2829  -0.01764  -0.009617  0.006587  0.007878  0.4319  -0.6147
6.28e+09  0.7641  -0.4764  -0.00046  -0.02062  -0.03989  -0.03311  0.1578  -0.7536
6.281e+09  0.4858  -0.7196  -0.000693  0.006939  0.02687  -0.007864  -0.1009  -0.7822
6.282e+09  0.2303  -0.8998  0.0247  0.004561  0.01644  0.02177  -0.3761  -0.6799
6.284e+09  -0.09994  -0.8943  0.01541  -0.008685  0.007574  0.03003  -0.6018  -0.542
6.285e+09  -0.4323  -0.8028  0.01001  0.0316  -0.01291  1.11e-05  -0.7544  -0.2764
6.286e+09  -0.6993  -0.6152  -0.007402  0.01955  -0.06185  0.02235  -0.8057  -0.03034
6.288e+09  -0.8421  -0.3376  0.0002696  0.007875  -0.02922  -0.01258  -0.7595  0.3039
6.289e+09  -0.9402  -0.03609  0.03476  -0.009565  -0.02824  -0.06971  -0.6298  0.5019
6.29e+09  -0.8592  0.2946  0.01361  0.002615  0.03541  0.022  -0.4244  0.6767
6.291e+09  -0.7424  0.571  -0.006337  0.01766  -0.004704  0.007487  -0.1574  0.8024
6.292e+09  -0.4718  0.7963  -0.03137  -0.003819  -0.008029  0.01873  0.1307  0.7869
6.294e+09  -0.2207  0.8756  -0.01906  0.01039  -0.03022  -0.02594  0.3935  0.7284
6.295e+09  0.1638  0.9585  0.01302  -0.02474  0.02322  0.00895  0.6268  0.5198
6.296e+09  0.4262  0.8395  -0.01972  -0.01278  0.01766  0.02015  0.7665  0.2814
6.298e+09  0.718  0.6352  -0.007056  -0.0244  -0.008674  -0.000712  0.8317  0.0324
6.299e+09  0.8769  0.3674  -0.01026  -0.01303  -0.00426  -0.009509  0.7913  -0.2967
6.3e+09  0.9326  -0.03859  0.01444  -0.02155  0.01447  -0.02111  0.6845  -0.5222
6.301e+09  0.9316  -0.3287  -0.007276  -0.01236  0.01949  -0.009005  0.4621  -0.7243
6.302e+09  0.7236  -0.6535  0.02237  0.02202  -0.01298  -0.03529  0.1673  -0.8521
6.304e+09  0.4181  -0.8141  0.01511  0.006426  -0.05062  -0.005905  -0.1431  -0.8421
6.305e+09  0.1165  -0.9485  0.00241  0.02288  0.003592  0.005172  -0.4372  -0.7288
6.306e+09  -0.2246  -0.9108  -0.01023  -0.01878  0.006812  -0.006689  -0.6393  -0.5462
6.308e+09  -0.5019  -0.8279  0.006143  -0.01476  0.01462  0.01451  -0.8216  -0.314
6.309e+09  -0.7973  -0.5407  0.01465  0.04008  -0.02672  0.00165  -0.8759  -0.02932
6.31e+09  -0.8858  -0.2737  -0.01041  -0.03575  -0.0167  0.02489  -0.8014  0.3211
6.311e+09  -1.008  0.03376  0.02721  -0.01419  0.01091  -4.422e-05  -0.6604  0.535
6.312e+09  -0.9726  0.4138  0.03587  0.004129  0.002162  0.01535  -0.425  0.7552
6.314e+09  -0.7505  0.6663  0.04551  0.007689  0.01405  0.006441  -0.1466  0.8698
6.315e+09  -0.4427  0.8704  -0.001417  -0.006565  0.0008541  -0.008576  0.1526  0.8317
6.316e+09  -0.03698  1.01  0.03154  -0.02058  -0.02789  -0.03349  0.4516  0.7855
6.318e+09  0.285  0.9595  0.0319  -0.003025  -0.01366  0.005574  0.6918  0.5915
6.319e+09  0.5659  0.8275  0.03626  -0.01609  0.05407  -0.0156  0.8196  0.3067
6.32e+09  0.8623  0.5429  0.02561  0.01415  0.03859  -0.0463  0.8972  0.0229
6.321e+09  0.9929  0.2378  0.003681  -0.007032  0.05935  0.06889  0.8852  -0.2941
6.322e+09  1.025  -0.1327  0.002884  -0.006262  0.02128  -0.00931  0.7148  -0.5691
6.324e+09  0.941  -0.4611  0.004984  0.02388  -0.02348  -0.01389  0.4699  -0.7662
6.325e+09  0.6836  -0.7394  -0.01215  0.01598  0.01938  -0.006143  0.1924  -0.8702
6.326e+09  0.3717  -0.9397  -0.01154  0.005022  -0.01075  0.01815  -0.1444  -0.9094
6.328e+09  0.01282  -1.062  0.01805  -0.01628  -0.003554  0.02424  -0.4304  -0.7926
6.329e+09  -0.3619  -0.9923  0.006996  -0.009774  0.02588  -0.03173  -0.6838  -0.5843
6.33e+09  -0.7054  -0.8392  -0.001016  -0.01611  -0.01958  0.01579  -0.8472  -0.3124
6.331e+09  -0.9305  -0.5518  -0.03401  0.02473  0.03602  -0.04817  -0.8997  -0.02706
6.332e+09  -1.103  -0.179  -0.02723  0.02448  0.01319  0.0004955  -0.8391  0.3311
6.334e+09  -1.026  0.2193  -0.01042  -0.01967  0.009567  -0.02591  -0.707  0.5669
6.335e+09  -0.8402  0.595  0.02163  0.01376  -0.01668  0.0009465  -0.4623  0.7937
6.336e+09  -0.6096  0.866  -0.03883  0.00429  -0.03126  -0.0008599  -0.2214  0.9013
6.338e+09  -0.3149  1.033  -0.0008791  0.03046  -0.07035  0.0463  0.1472  0.9336
6.339e+09  0.1066  1.109  -0.00788  0.01797  -0.03459  -0.0006194  0.44  0.8194
6.34e+09  0.4693  0.9871  -0.02534  0.02481  0.01286  0.04868  0.6691  0.6408
6.341e+09  0.7637  0.7606  -0.003131  0.00448  0.01387  0.03648  0.8649  0.3558
6.342e+09  1.062  0.4397  0.02648  -0.01197  -0.005909  -0.0253  0.9592  0.0305
6.344e+09  1.135  0.03208  -0.007951  0.003419  0.01911  -0.02112  0.8804  -0.2651
6.345e+09  1.072  -0.3807  -0.02557  0.01469  -0.06055  -0.00591  0.7292  -0.5891
6.346e+09  0.8515  -0.7202  -0.0006619  -0.01671  0.002469  0.01496  0.519  -0.775
6.348e+09  0.6066  -0.9633  -0.0007659  0.01854  0.01214  -0.02858  0.1679  -0.8831
6.349e+09  0.1453  -1.132  0.02935  -0.0114  0.04169  0.03287  -0.0812  -0.919
6.35e+09  -0.2089  -1.107  -0.01775  0.02238  -0.01974  -0.005365  -0.4366  -0.8511
6.351e+09  -0.589  -0.9872  -0.003884  -0.01643  -0.01679  -0.03363  -0.6763  -0.6375
6.352e+09  -0.9266  -0.6678  -0.003574  0.01434  -0.04146  -0.0108  -0.8532  -0.3757
6.354e+09  -1.064  -0.344  -0.01569  -0.004208  -0.00299  0.007494  -0.9339  -0.04833
6.355e+09  -1.129  0.08477  0.01039  0.02462  -0.007802  -0.02024  -0.9021  0.2354
6.356e+09  -1.03  0.5002  0.02724  -0.0324  0.05574  0.002353  -0.7782  0.5461
6.358e+09  -0.7648  0.7515  0.003499  -0.001883  0.0344  0.02797  -0.5332  0.7954
6.359e+09  -0.4592  1.006  0.01731  0.02121  -0.02637  -0.0585  -0.2162  0.9045
6.36e+09  -0.07936  1.14  0.0171  0.01295  -0.01022  -0.006413  0.123  0.939
6.361e+09  0.3309  1.083  -0.005985  -0.02935  -0.007479  0.02421  0.4146  0.867
6.362e+09  0.6603  0.8851  -0.01092  -0.0003407  0.005049  -0.0008966  0.7361  0.6587
6.364e+09  0.9535  0.5882  0.03613  -0.01395  -0.003947  -0.01641  0.8661  0.3657
6.365e+09  1.124  0.2184  0.01633  -0.02919  0.01964  0.009378  0.9461  0.0921
6.366e+09  1.115  -0.1723  -0.004696  -0.004785  0.003943  0.02862  0.9194  -0.2725
6.368e+09  0.9573  -0.5766  0.006471  -0.0008271  -0.04821  -0.04064  0.7723  -0.5517
6.369e+09  0.7222  -0.883  0.01445  0.01479  -0.02721  0.009818  0.5415  -0.7698
6.37e+09  0.3552  -1.044  -0.001531  -0.001095  0.04088  0.01056  0.2183  -0.9303
6.371e+09  -0.004461  -1.124  0.003918  -0.003512  0.02238  0.009026  -0.06127  -0.9621
6.372e+09  -0.4093  -1.012  -0.0246  -0.02734  0.02489  -0.01502  -0.3728  -0.8401
6.374e+09  -0.7545  -0.8135  -0.02643  -0.01102  -0.01504  0.00685  -0.6814  -0.7023
6.375e+09  -1.018  -0.5305  0.01639  0.02977  -0.0161  -0.009922  -0.8472  -0.4022
6.376e+09  -1.111  -0.1324  0.05401  0.01656  -0.01435  -0.0005595  -0.9764  -0.07859
6.378e+09  -1.074  0.2531  -0.03034  0.01703  0.002368  0.048  -0.9362  0.2903
6.379e+09  -0.9218  0.6417  0.01198  0.02735  0.02977  0.02443  -0.7727  0.54
6.38e+09  -0.6469  0.8891  0.009989  -0.005149  -0.03124  -0.03767  -0.5772  0.7286
6.381e+09  -0.2972  1.059  0.02099  -0.02782  0.01419  0.01844  -0.242  0.9266
6.382e+09  0.07641  1.101  -0.008599  -0.008735  -0.04526  0.02537  0.00232  0.9291
6.384e+09  0.457  1.002  0.03582  0.02454  0.004445  0.006384  0.3656  0.8642
6.385e+09  0.8031  0.7782  0.02436  0.02459  0.02082  -0.0352  0.6056  0.665
6.386e+09  1.008  0.4218  0.01041  0.07857  0.01747  -0.02732  0.841  0.4539
6.388e+09  1.098  0.1064  -0.001467  0.009921  0.009211  -0.001014  0.9038  0.1059
6.389e+09  1.031  -0.3777  0.002793  0.001668  -0.04957  -0.006408  0.9079  -0.2086
6.39e+09  0.8925  -0.6686  0.009072  -0.03584  -0.05615  0.02368  0.7828  -0.4827
6.391e+09  0.5681  -0.8825  -0.01358  0.01124  0.0009228  -0.02899  0.5188  -0.7191
6.392e+09  0.2293  -1.058  0.01023  0.001138  0.008684  0.007914  0.2833  -0.9051
6.394e+09  -0.158  -1.024  -0.02447  -0.008962  -0.03764  -0.03923  -0.01051  -0.9411
6.395e+09  -0.5604  -0.9686  -0.02246  0.02337  0.03124  0.03645  -0.2985  -0.8336
6.396e+09  -0.8549  -0.6943  -0.01354  -0.02847  0.009552  -0.01191  -0.6298  -0.7157
6.398e+09  -0.9934  -0.3623  0.0355  -0.0522  0.02247  0.006612  -0.7989  -0.4889
6.399e+09  -1.025  -0.01265  -0.00148  -0.005785  -0.0103  0.001445  -0.9486  -0.1325
6.4e+09  -1.042  0.3452  0.002487  0.03448  -0.0006165  -0.03113  -0.8853  0.2313
6.401e+09  -0.8276  0.677  0.002141  0.03673  -0.005652  -0.04503  -0.8305  0.4816
6.402e+09  -0.5059  0.8696  0.03729  -0.03266  -0.004564  0.003686  -0.652  0.723
6.404e+09  -0.2249  0.9794  0.004499  0.00849  0.03117  0.0419  -0.3269  0.834
6.405e+09  0.1822  1.044  0.008501  -7.961e-05  0.03192  -0.02502  0.01486  0.9127
6.406e+09  0.5601  0.8875  0.03998  0.01545  -7.652e-05  0.03468  0.343  0.9068
6.408e+09  0.8077  0.6707  0.06074  0.01247  0.04076  0.02708  0.5746  0.7183
6.409e+09  1.006  0.3725  -0.02308  0.007413  -0.03921  -0.04138  0.7987  0.4906
6.41e+09  1.031  -0.02817  0.03789  -0.006049  -0.001274  0.04133  0.8785  0.1931
6.411e+09  1.01  -0.3484  -0.007411  0.005139  0.007574  -0.0382  0.9002  -0.158
6.412e+09  0.7978  -0.7058  -0.001873  0.03502  0.07506  -0.006232  0.8397  -0.4227
6.414e+09  0.4797  -0.928  -0.002904  0.01257  -0.01527  0.001306  0.5446  -0.6632
6.415e+09  0.1526  -1.035  0.03704  0.01943  0.03696  0.01088  0.3519  -0.8372
6.416e+09  -0.2207  -1.057  0.01447  0.04309  0.03747  -0.02455  0.02847  -0.8771
6.418e+09  -0.5563  -0.9021  0.003221  0.04303  0.004576  -0.008205  -0.2371  -0.8887
6.419e+09  -0.8655  -0.6481  0.01281  0.00726  -0.001237  0.009459  -0.5574  -0.6856
6.42e+09  -1.015  -0.3444  -0.0018  -0.03  0.01714  -0.001272  -0.7439  -0.4425
6.421e+09  -1.037  0.03429  0.01106  0.0226  0.02902  -0.02932  -0.8881  -0.1892
6.422e+09  -0.9505  0.4559  -0.01741  0.02268  0.06065  -0.01696  -0.8575  0.1145
6.424e+09  -0.7956  0.7705  -0.01384  -0.01076  0.009994  -0.009004  -0.8073  0.4217
6.425e+09  -0.4802  0.9852  0.03563  -0.0336  -0.02659  0.02941  -0.5692  0.6457
6.426e+09  -0.07198  1.075  -0.04248  0.01064  0.03323  -0.01773  -0.3785  0.8268
6.428e+09  0.2294  1.028  -0.006922  0.005997  -0.02368  0.02986  -0.05864  0.8942
6.429e+09  0.6196  0.8518  0.004648  0.01041  -0.03326  -0.0153  0.2459  0.8336
6.43e+09  0.8892  0.6031  0.02802  -0.03701  0.01253  -0.0005802  0.5229  0.6956
6.431e+09  1.029  0.2698  0.001676  0.03169  0.01406  0.009084  0.727  0.473
6.432e+09  1.094  -0.1508  0.03116  -0.02348  -0.009653  0.03535  0.8763  0.2394
6.434e+09  0.988  -0.4585  -0.006346  -0.006003  -0.05477  0.002717  0.8562  -0.1003
6.435e+09  0.7375  -0.7751  0.008629  -0.0005169  -0.02693  -0.006027  0.7773  -0.3296
6.436e+09  0.4357  -1.013  0.0002791  0.01473  0.03191  -0.02323  0.5999  -0.6142
6.438e+09  0.04829  -1.051  0.05419  0.0001388  -0.01964  0.03671  0.3419  -0.7972
6.439e+09  -0.3208  -1.009  0.02892  -0.01283  0.0191  -0.02002  0.05529  -0.8143
6.44e+09  -0.7062  -0.8866  0.02673  -0.005244  -0.004841  0.06841  -0.2316  -0.811
6.441e+09  -0.9822  -0.5668  0.009425  -0.011  -0.04214  0.01875  -0.4735  -0.702
6.442e+09  -1.1  -0.2792  0.03941  0.05953  -0.007369  -0.03632  -0.7222  -0.4357
6.444e+09  -1.057  0.1857  0.03113  -0.04517  0.03884  -0.01255  -0.8395  -0.2387
6.445e+09  -0.9817  0.5512  0.001945  -0.006975  -0.00441  -0.003863  -0.8313  0.09373
6.446e+09  -0.7225  0.8257  0.04972  -0.02188  -0.01786  0.01019  -0.7568  0.3474
6.448e+09  -0.4171  1.103  0.01431  0.002148  0.002074  0.03063  -0.6064  0.5956
6.449e+09  0.03557  1.138  0.0297  0.01389  -0.01537  0.02265  -0.3079  0.7317
6.45e+09  0.4201  1.035  -0.01555  -0.01476  -0.04342  0.03961  -0.06786  0.8259
6.451e+09  0.7496  0.8225  -0.008258  -0.01531  -0.04553  0.01415  0.2305  0.8083
6.452e+09  1.03  0.5467  -0.002451  0.002664  0.01153  -0.07363  0.4923  0.6982
6.454e+09  1.147  0.1593  0.0124  -0.01598  -0.04718  -0.01603  0.6848  0.4501
6.455e+09  1.127  -0.2471  0.01538  -0.01679  0.00613  -0.004904  0.7598  0.2077
6.456e+09  0.9729  -0.6793  -0.00664  0.002971  -0.03158  -0.01464  0.8493  -0.08617
6.458e+09  0.6906  -0.932  -0.005246  -0.01397  0.004095  -0.001317  0.7082  -0.3532
6.459e+09  0.28  -1.135  0.02781  0.03583  0.02764  -0.01696  0.5765  -0.5779
6.46e+09  -0.07769  -1.204  -0.01995  -0.01599  -0.01073  -0.03235  0.3481  -0.7883
6.461e+09  -0.4799  -1.081  -0.01833  0.04704  0.003098  0.02728  0.1312  -0.865
6.462e+09  -0.8265  -0.8286  -0.01929  0.0174  -0.01123  -0.006794  -0.2224  -0.8135
6.464e+09  -1.069  -0.4628  0.0176  -0.03461  0.02657  -0.01644  -0.4781  -0.6841
6.465e+09  -1.188  -0.05083  -0.04284  0.04518  -0.04257  -0.04166  -0.6618  -0.4909
6.466e+09  -1.096  0.2954  -0.03741  0.001908  0.0125  -0.01336  -0.7771  -0.2219
6.468e+09  -0.9933  0.6561  -0.001262  -0.02816  0.002264  0.006245  -0.7566  0.1187
6.469e+09  -0.6304  1.06  -0.05579  0.01013  -0.01836  0.03499  -0.6989  0.3722
6.47e+09  -0.209  1.209  0.005641  0.01444  -0.02448  -0.002141  -0.567  0.5613
6.471e+09  0.2318  1.178  -0.0205  0.007914  -0.01451  -0.04032  -0.3572  0.6899
6.472e+09  0.6728  1.066  0.006492  -0.005266  -0.01483  0.0008868  -0.08926  0.7756
6.474e+09  0.9906  0.7684  0.01119  0.02862  0.02118  -0.04853  0.2023  0.8006
6.475e+09  1.141  0.376  0.02451  0.02695  -0.05042  0.02385  0.5046  0.6503
6.476e+09  1.274  -0.06472  0.02837  0.0004609  -0.01167  0.03934  0.6536  0.4705
6.478e+09  1.148  -0.5184  0.007917  -0.03042  0.002436  -0.009974  0.7532  0.2081
6.479e+09  0.9406  -0.9315  0.02637  0.01843  -0.0438  -0.01665  0.7733  -0.08231
6.48e+09  0.4607  -1.128  0.004823  0.004333  -0.02144  -0.02239  0.6958  -0.3141
6.481e+09  0.04696  -1.286  -0.01894  0.00724  0.0003732  -0.0245  0.5707  -0.5475
6.482e+09  -0.3724  -1.207  -0.00638  -0.01118  -0.03777  -0.02382  0.3356  -0.716
6.484e+09  -0.8942  -1.021  -0.01262  -0.04255  -0.0444  0.02066  -0.008707  -0.7956
6.485e+09  -1.021  -0.6452  -0.02657  0.004854  0.007793  0.003198  -0.2083  -0.7501
6.486e+09  -1.225  -0.1801  0.01529  0.0005  -0.05166  -0.005372  -0.4525  -0.6608
6.488e+09  -1.532  -0.3868  -0.003997  0.002985  -0.2367  0.699  -0.6711  -0.4685
6.489e+09  -1.071  0.7553  0.01707  -0.01675  0.01284  0.002804  -0.7307  -0.195
6.49e+09  -0.7359  1.013  -0.01602  -0.01654  -0.02655  0.007095  -0.7711  0.07264
6.491e+09  -0.3367  1.228  0.00569  -0.03047  0.007594  0.003652  -0.6628  0.394
6.492e+09  0.1415  1.232  -0.008352  0.00097  0.02919  -0.03979  -0.555  0.5495
6.494e+09  0.6512  1.262  0.0082  0.01329  0.102  -0.0463  -0.3585  0.7062
6.495e+09  0.9589  0.8407  -0.008583  0.0113  -0.06423  -0.02961  -0.02748  0.783
6.496e+09  1.16  0.4914  -0.01939  -0.03708  0.01223  0.03091  0.2407  0.7073
6.498e+09  1.253  -0.01183  -0.01469  0.01392  -0.01979  0.02408  0.4623  0.6499
6.499e+09  1.177  -0.4704  -0.02114  -0.01646  0.01342  0.04288  0.6547  0.4287
6.5e+09  1.305  -0.17  0.01477  -0.004167  -0.04622  0.004268  0.7576  0.1726
6.501e+09  0.5476  -1.162  0.008679  0.007845  -0.04061  -0.0134  0.7697  -0.1301
6.502e+09  0.1405  -1.253  -0.01629  0.006563  -0.0005126  0.06046  0.6782  -0.3801
6.504e+09  -0.4068  -1.182  0.04197  0.02702  0.03217  0.03109  0.5254  -0.4904
6.505e+09  -0.7485  -1.033  -0.01944  0.02338  -0.02727  -0.05752  0.2915  -0.6985
6.506e+09  -1.09  -0.7054  0.008898  0.01707  0.01345  0.006802  0.01197  -0.7935
6.508e+09  -1.257  -0.2803  -0.003571  0.01036  -0.008672  -0.01744  -0.2598  -0.7474
6.509e+09  -1.243  0.2501  0.003974  -0.01703  -0.007209  -0.02261  -0.4281  -0.5952
6.51e+09  -1.079  0.6714  0.05114  0.002994  0.0729  -0.03307  -0.6684  -0.3399
6.511e+09  -0.7893  0.8991  0.01118  0.01807  0.008489  0.001151  -0.7635  -0.135
6.512e+09  -0.3476  1.208  0.000205  0.006335  0.03401  0.006554  -0.7592  0.1221
6.514e+09  0.1191  1.254  -0.02621  -0.0101  -0.02761  -0.007793  -0.6191  0.41
6.515e+09  0.5497  1.113  -0.01463  0.03415  0.04151  -0.01046  -0.4669  0.5937
6.516e+09  0.8604  0.7985  0.001398  0.04292  0.02921  -0.04421  -0.2547  0.6676
6.518e+09  1.06  0.4299  -0.0118  -0.04961  0.0006323  -0.01645  0.01803  0.715
6.519e+09  1.166  0.01459  0.02029  -0.009938  -0.02749  0.0225  0.305  0.7359
6.52e+09  1.154  -0.4183  0.05448  0.01555  0.06704  -0.002507  0.4871  0.5672
6.521e+09  0.8207  -0.7544  0.01196  -0.04466  -0.01677  -0.01846  0.6455  0.3438
6.522e+09  0.5395  -0.9992  0.006914  0.008321  -0.02941  0.0005281  0.7471  0.1018
6.524e+09  0.0999  -1.132  -0.004056  -0.004937  -0.01462  -0.03458  0.7535  -0.131
6.525e+09  -0.2638  -1.143  -0.01488  -0.002523  -0.01505  0.001046  0.5972  -0.3752
6.526e+09  -0.6352  -0.9415  -0.006358  -0.002439  -0.002044  -0.03066  0.4476  -0.5664
6.528e+09  -0.956  -0.6702  0.01227  -0.01784  0.03688  0.02626  0.157  -0.7262
6.529e+09  -1.104  -0.2208  0.02102  -0.01644  -0.01758  -0.008289  -0.06328  -0.683
6.53e+09  -1.108  0.1821  0.03991  -0.02085  0.05048  0.02842  -0.3193  -0.634
6.531e+09  -0.9617  0.5427  -0.02413  0.002821  -0.013  -0.001766  -0.4477  -0.5009
6.532e+09  -0.6557  0.7958  -0.003582  -0.01637  -0.004948  -0.002227  -0.6006  -0.3115
6.534e+09  -0.3359  1.078  -0.004747  -0.00171  0.02373  -0.01531  -0.6252  -0.07443
6.535e+09  0.03204  1.073  -0.004004  -0.02733  0.01568  -0.002186  -0.6203  0.1368
6.536e+09  0.3981  1.018  0.03144  0.02347  0.006892  0.02869  -0.54  0.3092
6.538e+09  0.7301  0.7504  0.03974  0.02709  0.03949  -0.001183  -0.4264  0.4971
6.539e+09  0.9335  0.4697  0.03331  -0.002001  -0.01981  -0.008141  -0.2752  0.6042
6.54e+09  1.075  0.05692  -0.02572  0.01149  -0.0291  -0.06451  -0.06116  0.6576
6.541e+09  0.9701  -0.3035  0.02405  -0.02484  0.01949  -0.02275  0.168  0.6697
6.542e+09  0.7744  -0.63  0.01844  -0.02245  0.03794  -0.007321  0.3962  0.5594
6.544e+09  0.5765  -0.914  -0.05328  -0.006188  -0.01904  0.05279  0.5905  0.3727
6.545e+09  0.1935  -0.9944  0.03976  0.00384  -0.01891  -0.03206  0.7186  0.164
6.546e+09  -0.1492  -1.013  -0.01336  -0.01961  0.002609  0.03479  0.7379  -0.06298
6.548e+09  -0.5414  -0.884  0.02768  0.03381  0.008697  0.04899  0.662  -0.3537
6.549e+09  -0.7861  -0.6718  0.005916  -0.01511  -0.01682  -0.00695  0.5065  -0.5606
6.55e+09  -0.8955  -0.2742  -0.02537  0.005607  0.01924  -0.01059  0.28  -0.6698
6.551e+09  -1.03  0.06355  -0.009077  0.01482  -0.02297  0.008362  0.02523  -0.72
6.552e+09  -0.886  0.3777  -0.04032  0.03002  -0.02581  0.01924  -0.2561  -0.7104
