# Hz S RI R 50
6.25e+09  1.051  -0.07525  0.0009876  -0.03504  -0.03368  -0.03598  0.1585  0.5059
6.251e+09  0.9933  -0.465  -0.04123  0.01017  -0.03395  -0.01442  0.3968  0.4239
6.252e+09  0.7476  -0.7343  -0.02275  -0.02141  -0.01451  -0.02558  0.498  0.2395
6.254e+09  0.4485  -0.9176  0.01077  -0.03699  0.04514  0.03952  0.6408  0.001639
6.255e+09  0.05254  -1.02  0.002659  -0.01231  -0.006867  -0.002142  0.6074  -0.1885
6.256e+09  -0.2815  -0.9526  -0.03501  -0.01028  -0.01458  -0.06238  0.4779  -0.4744
6.258e+09  -0.6224  -0.7984  0.0218  -0.02484  -0.01726  -0.003706  0.3115  -0.6045
6.259e+09  -0.8697  -0.5198  -0.02702  -0.02047  0.06749  -0.02347  0.08052  -0.6925
6.26e+09  -0.9923  -0.1825  0.001765  -0.005537  0.02873  0.006687  -0.2036  -0.6568
6.261e+09  -1.011  0.207  -0.01795  -0.002633  -0.0596  -0.01945  -0.4319  -0.5554
6.262e+09  -0.8758  0.5025  -0.0002932  0.02341  0.03043  -0.004723  -0.5837  -0.3467
6.264e+09  -0.5782  0.8073  0.003939  0.02294  0.08286  0.01016  -0.7144  -0.09982
6.265e+09  -0.3007  0.9548  -0.004544  -0.002465  -0.01082  0.01569  -0.6927  0.1657
6.266e+09  0.1027  1.047  -0.006565  -0.007706  -0.003377  -0.01616  -0.6228  0.422
6.268e+09  0.3761  0.8932  0.02255  -0.01031  0.01662  -0.07085  -0.4326  0.608
6.269e+09  0.7167  0.7213  0.01475  -0.02356  -0.03832  -0.02255  -0.1892  0.6999
6.27e+09  0.8718  0.396  0.02806  0.01259  0.03528  0.01685  0.04817  0.7276
6.271e+09  1.012  0.05351  -0.02063  -0.02314  0.04289  -0.02549  0.3335  0.6827
6.272e+09  0.9621  -0.258  -0.02427  -0.006025  0.03615  -0.008173  0.5302  0.5108
6.274e+09  0.8041  -0.6004  -0.03569  -0.0361  0.00831  0.0001893  0.6695  0.2908
6.275e+09  0.5363  -0.8266  0.007489  -0.001157  0.04241  -0.004119  0.7728  0.01283
6.276e+09  0.2187  -0.982  0.01263  -0.003666  0.02807  0.01508  0.7318  -0.2098
6.278e+09  -0.1273  -0.945  -0.01498  0.006935  -0.005815  0.07431  0.6088  -0.4822
6.279e+09  -0.525  -0.874  -0.0249  -0.01779  0.03167  -0.04673  0.4283  -0.6902
6.28e+09  -0.7746  -0.6246  0.002977  0.0001477  0.01226  0.04353  0.1529  -0.7385
6.281e+09  -0.9422  -0.3412  -0.01993  0.003418  -0.01412  0.08736  -0.08616  -0.7514
6.282e+09  -1.019  0.06911  0.006345  -0.003215  -0.01694  0.03349  -0.364  -0.684
6.284e+09  -0.906  0.333  0.01686  0.007953  -0.01966  0.03067  -0.586  -0.5118
6.285e+09  -0.6689  0.7153  -0.01267  -0.01713  -0.04777  0.007596  -0.7379  -0.2739
6.286e+09  -0.4237  0.9123  -0.02097  0.01937  -0.03365  0.02244  -0.8014  -0.05533
6.288e+09  -0.0133  1.032  0.007212  0.0003122  -0.01075  -0.04262  -0.7572  0.2324
6.289e+09  0.2741  0.9127  -0.02403  0.01018  0.02389  0.001152  -0.6454  0.4778
6.29e+09  0.5941  0.7999  -0.008865  0.00329  0.002991  -0.01188  -0.4152  0.6831
6.291e+09  0.8575  0.5316  0.02224  0.02935  -0.003467  0.0521  -0.1533  0.7754
6.292e+09  0.9891  0.1701  -0.01267  0.008702  6.201e-05  0.0704  0.1326  0.8198
6.294e+09  0.9615  -0.1518  -0.01895  -0.01378  -0.04099  -0.03149  0.4056  0.7028
6.295e+09  0.8742  -0.5105  -0.001662  0.004894  0.003135  0.02144  0.6066  0.5327
6.296e+09  0.6553  -0.7632  0.002529  -0.002552  -0.0461  0.02861  0.773  0.2696
6.298e+09  0.3319  -0.9658  -0.02294  0.003792  0.01062  0.007004  0.8317  0.03047
6.299e+09  -0.05832  -0.9976  -0.01395  0.005394  0.02448  0.003114  0.8215  -0.2628
6.3e+09  -0.397  -0.9194  -0.004598  -0.00354  0.01105  0.03797  0.6418  -0.5424
6.301e+09  -0.6973  -0.7717  -0.02258  0.02308  -0.04781  0.03641  0.447  -0.7289
6.302e+09  -0.9044  -0.4149  -0.006757  0.01003  -0.01808  0.07319  0.1385  -0.8156
6.304e+09  -1.028  -0.0665  -0.01259  0.01755  -0.005564  0.001135  -0.1658  -0.8363
6.305e+09  -0.9496  0.2241  0.02071  -0.009447  -0.0483  -0.04112  -0.4259  -0.7608
6.306e+09  -0.8509  0.6615  -0.02527  0.0001117  0.01787  -0.02456  -0.6512  -0.5608
6.308e+09  -0.5461  0.8451  -0.001819  -0.06407  -0.01626  0.00234  -0.8122  -0.2952
6.309e+09  -0.2213  0.9821  0.0101  -0.01035  0.04264  0.02904  -0.8758  -0.02416
6.31e+09  0.07452  1.017  0.03081  0.01696  0.000349  -0.01188  -0.8194  0.2432
6.311e+09  0.5028  0.8747  0.02811  -0.01108  -0.02181  -0.01157  -0.6804  0.5526
6.312e+09  0.7504  0.6764  0.02167  0.02546  -0.03662  -0.01731  -0.4556  0.7615
6.314e+09  1.019  0.3655  0.002787  0.006395  0.01319  0.01845  -0.1374  0.8685
6.315e+09  0.9942  0.02858  0.01014  -0.01306  0.00913  0.01269  0.1623  0.8651
6.316e+09  0.9702  -0.369  -0.002392  0.03558  -0.02521  -0.04999  0.4387  0.7615
6.318e+09  0.7903  -0.66  -0.01349  0.0203  0.01438  0.04093  0.6609  0.5816
6.319e+09  0.5012  -0.9121  0.003957  0.002321  -0.00943  -0.0205  0.8296  0.2892
6.32e+09  0.1356  -1.005  0.02387  0.04309  0.0476  0.03805  0.8813  7.789e-05
6.321e+09  -0.2721  -1.059  -0.003637  -0.01526  0.0255  -0.0136  0.8158  -0.3087
6.322e+09  -0.5673  -0.8517  0.03006  -0.02638  0.0008059  0.01384  0.7016  -0.5646
6.324e+09  -0.8206  -0.5883  0.001544  0.04362  0.06873  0.01201  0.4936  -0.7634
6.325e+09  -1.012  -0.2072  -0.01782  -0.01172  -0.0003586  0.000539  0.1801  -0.8522
6.326e+09  -1.046  0.0702  -0.003666  0.0009829  -0.05145  0.01096  -0.1774  -0.9052
6.328e+09  -0.9436  0.4681  -0.006215  0.04539  0.01797  0.009943  -0.4212  -0.7882
6.329e+09  -0.7043  0.7356  0.0003645  0.01933  -0.03661  0.03964  -0.7042  -0.5551
6.33e+09  -0.4655  0.96  0.009188  -0.007373  -0.01477  -0.02599  -0.8655  -0.352
6.331e+09  0.02176  1.063  0.02033  -0.009784  -0.0176  -0.02916  -0.8888  -0.02211
6.332e+09  0.2614  0.9995  -0.03792  -0.003069  -0.02601  0.009544  -0.8826  0.2863
6.334e+09  0.6729  0.7955  -0.008249  -0.02777  -0.01472  0.06219  -0.7308  0.5203
6.335e+09  0.9237  0.5852  0.02349  0.002114  0.04336  -0.001295  -0.4887  0.775
6.336e+09  1.052  0.2315  -0.004616  -0.005837  0.01529  0.005192  -0.1844  0.9062
6.338e+09  1.077  -0.2132  -0.02371  0.01134  -0.02309  -0.03142  0.1043  0.9059
6.339e+09  0.8829  -0.5654  -0.01979  0.00553  -0.02297  -0.005338  0.3985  0.8198
6.34e+09  0.6943  -0.8064  -0.01848  -0.01264  -0.06778  0.02153  0.6585  0.629
6.341e+09  0.2874  -1.037  0.008372  -0.01933  0.0159  -0.002098  0.8711  0.3756
6.342e+09  -0.03846  -1.038  -0.004931  0.0111  0.02441  0.02455  0.915  0.01431
6.344e+09  -0.4111  -0.9687  0.01165  0.002781  0.009717  -0.001032  0.8739  -0.2675
6.345e+09  -0.7981  -0.7399  -0.01881  0.005015  0.04778  -0.005639  0.7265  -0.5516
6.346e+09  -0.9656  -0.418  0.01634  -0.01461  -0.01488  -0.008493  0.4838  -0.7731
6.348e+09  -1.098  -0.09686  -0.03092  -0.01404  0.004793  -0.01394  0.2016  -0.9139
6.349e+09  -1.08  0.3055  -0.01393  0.04383  -0.02748  -0.007181  -0.1366  -0.9475
6.35e+09  -0.9048  0.6744  -0.01364  -0.01095  -0.04647  0.02023  -0.421  -0.8448
6.351e+09  -0.5879  0.8978  -0.0114  -0.03443  -0.000628  0.02846  -0.6739  -0.6207
6.352e+09  -0.228  1.089  0.002642  0.04305  0.01966  0.02536  -0.8276  -0.3399
6.354e+09  0.1573  1.133  -0.01367  -0.01185  0.01108  -0.04175  -0.9697  -0.02997
6.355e+09  0.5455  0.9771  0.00768  0.02773  -0.01246  0.02543  -0.9143  0.254
6.356e+09  0.878  0.758  0.007306  -0.01818  0.01009  -0.02689  -0.741  0.5526
6.358e+09  1.102  0.376  0.009306  -0.02951  0.03371  0.02334  -0.5258  0.792
6.359e+09  1.167  -0.08665  -0.04901  0.03518  -0.03427  0.00467  -0.2136  0.9078
6.36e+09  1.07  -0.4556  0.02291  -0.009614  0.0202  -0.02789  0.1117  0.947
6.361e+09  0.828  -0.7481  0.02221  -0.002423  0.004282  -0.02288  0.423  0.875
6.362e+09  0.5012  -1.071  0.01211  -0.01151  0.02079  0.01038  0.6449  0.6496
6.364e+09  0.06449  -1.102  0.00622  0.0004331  0.009472  -0.02747  0.8865  0.4073
6.365e+09  -0.3047  -1.14  -0.008507  0.03987  0.05338  -0.0112  0.9286  0.09486
6.366e+09  -0.6342  -0.9043  -0.02536  0.01593  0.03456  0.02334  0.9334  -0.2639
6.368e+09  -0.9802  -0.6692  0.009914  0.01334  0.0002723  -0.007833  0.7794  -0.5565
6.369e+09  -1.144  -0.2744  -0.05642  -0.0122  0.0004228  0.05115  0.5818  -0.7879
6.37e+09  -1.141  0.1299  0.004619  -0.0252  -0.0073  -0.05751  0.2415  -0.9284
6.371e+09  -1.025  0.6174  -0.007817  -0.04294  -0.007687  -0.01622  -0.07017  -0.9461
6.372e+09  -0.7628  0.9309  -0.01114  -0.004561  0.04002  -0.02064  -0.3955  -0.8785
6.374e+09  -0.4301  1.151  -0.01368  0.04294  -0.01833  -0.0129  -0.6424  -0.6666
6.375e+09  0.01653  1.246  -0.02675  -0.04078  0.006484  0.005347  -0.8856  -0.4089
6.376e+09  0.4541  1.128  0.004776  -0.01328  0.05237  -0.01373  -0.9667  -0.07155
6.378e+09  0.8709  0.915  0.00515  0.004764  -0.01219  -0.0356  -0.8932  0.2446
6.379e+09  1.091  0.5589  -0.02253  0.003491  -0.003399  -0.017  -0.796  0.5305
6.38e+09  1.21  0.1113  -0.02405  -0.006954  -0.02086  -0.009447  -0.5609  0.7563
6.381e+09  1.255  -0.2861  0.003997  -0.05397  -0.009778  -0.005013  -0.2793  0.8919
6.382e+09  1.039  -0.747  0.02906  0.04458  -0.05742  -0.0223  0.03176  0.9482
6.384e+09  0.6902  -1.077  0.01777  0.01598  -0.0003968  0.01442  0.3799  0.8216
6.385e+09  0.2837  -1.289  -0.01044  -0.04306  -0.0272  -0.03218  0.649  0.703
6.386e+09  -0.1729  -1.273  0.001897  -0.003697  0.01047  -0.03118  0.7943  0.44
6.388e+09  -0.6923  -1.094  0.01586  0.0206  0.009941  -0.0549  0.8912  0.1287
6.389e+09  -1.044  -0.8351  0.02047  -0.009255  0.02643  -0.001763  0.909  -0.1915
6.39e+09  -1.266  -0.4115  -0.004561  0.03661  0.02437  0.02539  0.765  -0.5046
6.391e+09  -1.298  0.07555  0.0231  -0.01115  -0.007834  0.05924  0.5471  -0.7089
6.392e+09  -1.225  0.5729  -0.004394  -0.01005  0.02014  -0.02557  0.3226  -0.8937
6.394e+09  -0.9714  0.9891  0.008796  -0.003757  0.01544  0.01945  -0.02119  -0.8874
6.395e+09  -0.4984  1.213  -0.04398  -0.02044  0.01756  -0.003855  -0.3616  -0.8242
6.396e+09  -0.03526  1.446  0.004845  0.01201  -0.001367  0.04869  -0.6101  -0.7084
6.398e+09  0.4296  1.4  -0.00994  -0.02819  -0.008152  -0.06766  -0.846  -0.4625
6.399e+09  0.8766  1.117  0.03082  0.009739  0.00359  -0.01602  -0.9251  -0.1161
6.4e+09  1.202  0.7649  -0.0199  -0.01378  0.003874  -0.003534  -0.8727  0.1658
6.401e+09  1.376  0.2162  -0.03974  0.005634  -0.04469  -0.01828  -0.7904  0.4703
6.402e+09  1.396  -0.3536  -0.03049  0.007364  -0.02853  -0.01713  -0.5573  0.7021
6.404e+09  1.188  -0.8101  -0.007993  0.002447  -0.001955  -0.005458  -0.2952  0.8522
6.405e+09  0.8843  -1.236  -0.004279  0.004055  0.01121  -0.03963  0.007793  0.9104
6.406e+09  0.3255  -1.473  -0.02251  -0.01152  0.03864  0.02152  0.2829  0.8457
6.408e+09  -0.1814  -1.471  0.02081  -0.01591  0.009188  -0.002382  0.6105  0.7193
6.409e+09  -0.7236  -1.299  -0.03938  0.01037  0.02871  -0.01848  0.7831  0.4605
6.41e+09  -1.182  -0.9377  -0.04812  -0.02001  0.04496  0.008156  0.8361  0.1227
6.411e+09  -1.435  -0.445  -0.04165  0.02784  -0.0001042  -0.02498  0.9011  -0.1626
6.412e+09  -1.554  0.1392  0.00731  0.009654  0.02853  0.01325  0.8105  -0.4754
6.414e+09  -1.378  0.6973  0.01847  0.002501  0.02486  0.03839  0.6153  -0.7012
6.415e+09  -1.052  1.152  -0.03205  -0.02509  0.01394  -0.01271  0.3417  -0.8719
6.416e+09  -0.5224  1.512  -0.02988  0.02607  -0.02255  0.003335  0.006864  -0.8791
6.418e+09  0.03576  1.572  -0.02017  0.01623  -0.02628  0.01235  -0.2985  -0.8545
6.419e+09  0.68  1.473  -0.006562  -0.008318  -0.02276  0.001078  -0.545  -0.7292
6.42e+09  1.131  1.178  0.01149  -0.006681  -0.009127  0.01952  -0.7534  -0.4053
6.421e+09  1.384  0.5901  0.008079  0.01796  -0.07652  0.02278  -0.8306  -0.1708
6.422e+09  1.544  0.01015  -0.02177  -0.02899  -0.008183  0.04805  -0.8724  0.1129
6.424e+09  1.483  -0.5257  0.0006092  0.04628  0.003241  0.03544  -0.7371  0.3969
6.425e+09  1.218  -1.063  0.009118  -0.02494  0.004273  -0.01162  -0.6011  0.6579
6.426e+09  0.7241  -1.407  -0.01107  0.01252  0.004977  -0.01535  -0.334  0.8081
6.428e+09  0.09398  -1.589  -0.01741  0.03472  -0.0005799  0.06325  -0.04068  0.8735
6.429e+09  -0.4741  -1.506  0.02427  0.03828  -0.05155  0.00987  0.2053  0.823
6.43e+09  -1.045  -1.162  -0.03667  -0.02127  0.007125  0.01212  0.4927  0.758
6.431e+09  -1.329  -0.7495  0.03401  -0.0009975  0.01863  0.03653  0.7735  0.5383
6.432e+09  -1.575  -0.1852  0.03484  0.03075  0.02929  0.05885  0.8305  0.2419
6.434e+09  -1.505  0.3571  -0.02598  -0.01604  -0.01281  -0.0366  0.8096  -0.05888
6.435e+09  -1.243  0.8767  0.01135  0.01792  -0.005666  -0.04281  0.8543  -0.3851
6.436e+09  -0.8936  1.34  0.0297  -0.02233  -0.003464  0.01635  0.5725  -0.6109
6.438e+09  -0.3409  1.519  0.04192  -0.02956  0.04133  0.01467  0.3406  -0.781
6.439e+09  0.2575  1.492  -0.004135  0.01314  -0.0312  -0.03054  0.09289  -0.8043
6.44e+09  0.8036  1.327  0.04795  0.03176  0.01697  -0.0245  -0.2372  -0.8454
6.441e+09  1.22  0.9299  0.02985  0.0115  0.03518  -0.00784  -0.4834  -0.6526
6.442e+09  1.462  0.3244  -0.03234  0.01883  -0.03149  0.03109  -0.6917  -0.487
6.444e+09  1.475  -0.1664  -0.01547  -0.02245  -0.004903  -0.01814  -0.8205  -0.2097
6.445e+09  1.281  -0.6959  0.002497  0.02913  0.001422  -0.03019  -0.8081  0.000652
6.446e+09  0.9727  -1.107  -0.01897  0.0203  0.005673  0.009279  -0.741  0.3763
6.448e+09  0.5292  -1.305  -0.001891  -0.006374  0.05031  -0.02172  -0.6203  0.5984
6.449e+09  -0.02044  -1.411  0.006558  0.02872  -0.007482  0.006195  -0.3031  0.7479
6.45e+09  -0.535  -1.282  -0.004558  0.04286  0.0762  -0.03716  -0.06324  0.8266
6.451e+09  -0.9695  -1.01  -0.009416  0.01217  -0.01895  -0.06258  0.2446  0.7718
6.452e+09  -1.254  -0.5741  0.03493  -0.06096  0.02238  -0.003843  0.4787  0.6604
6.454e+09  -1.353  -0.06065  -0.003535  0.00078  0.002335  -0.05655  0.6763  0.4626
6.455e+09  -1.245  0.3829  -0.01175  0.01063  0.006521  0.03652  0.8547  0.1968
6.456e+09  -1.072  0.8043  -0.01518  0.01879  -0.05507  0.02214  0.8016  -0.06888
6.458e+09  -0.6733  1.142  0.02415  0.03121  0.01281  0.04497  0.7558  -0.3529
6.459e+09  -0.2288  1.352  -0.009793  -0.04281  -0.03065  0.01902  0.5654  -0.5577
6.46e+09  0.2565  1.293  -0.004773  -0.05054  -0.02711  -0.01868  0.3744  -0.7751
6.461e+09  0.6999  1.045  -0.02625  0.02925  -0.04648  -0.01647  0.06497  -0.8327
6.462e+09  1.061  0.7983  -0.02711  0.0602  -0.002231  -0.03022  -0.2331  -0.7845
6.464e+09  1.259  0.4  -0.03132  0.02029  0.02091  0.07227  -0.4735  -0.6973
6.465e+09  1.297  -0.1378  -0.04311  0.0436  -0.04247  -0.02732  -0.6946  -0.4297
6.466e+09  1.12  -0.5169  0.01428  0.02962  -0.02891  -0.01245  -0.7823  -0.2811
6.468e+09  0.9117  -0.8937  -0.005726  0.06265  0.01827  0.003686  -0.8191  0.07499
6.469e+09  0.4921  -1.16  -0.008961  -0.01727  0.04407  0.002893  -0.6978  0.3635
6.47e+09  0.02457  -1.2  -0.01436  -0.01932  -0.04325  -0.0397  -0.5594  0.5695
6.471e+09  -0.3624  -1.158  -0.01132  -0.004707  -0.04545  0.0451  -0.2987  0.7852
6.472e+09  -0.7384  -0.9961  -0.03027  -0.03454  -0.01998  -0.02461  -0.06273  0.783
6.474e+09  -1.099  -0.6456  -0.009773  0.01061  -0.02482  -0.01279  0.1866  0.7498
6.475e+09  -1.173  -0.1635  0.009126  -0.01991  0.025  -0.01294  0.4849  0.6384
6.476e+09  -1.164  0.1621  0.02621  -0.01742  -0.03817  0.001639  0.6748  0.4278
6.478e+09  -1.027  0.6116  0.02627  0.02163  -0.008869  0.002656  0.7835  0.183
6.479e+09  -0.779  0.9751  0.006924  0.007057  -0.004074  0.01817  0.7592  -0.08302
6.48e+09  -0.3436  1.1  -0.01731  -0.00145  0.03115  -0.001082  0.7574  -0.3572
6.481e+09  0.0249  1.172  -0.01498  0.04293  0.04983  0.04015  0.5246  -0.554
6.482e+09  0.4614  1.072  0.02633  0.03226  0.004466  -0.014  0.3318  -0.7328
6.484e+09  0.7998  0.9262  0.008257  0.01214  -0.006001  0.02939  0.0945  -0.782
6.485e+09  1.042  0.5452  -0.007976  0.0271  -0.003712  0.03412  -0.1774  -0.7625
6.486e+09  1.201  0.09826  0.01904  -0.007354  0.02753  -0.008161  -0.4081  -0.5962
6.488e+09  1.597  0.2838  -0.01727  -0.004692  -0.5564  0.458  -0.6473  -0.434
6.489e+09  0.9492  -0.6372  0.009379  -0.006987  0.01977  0.05315  -0.783  -0.1647
6.49e+09  0.691  -0.9219  0.06449  0.004287  0.02985  -0.006259  -0.7621  0.1147
6.491e+09  0.2686  -1.161  -0.02219  -0.05013  0.04627  0.03989  -0.6926  0.3436
6.492e+09  -0.1351  -1.208  0.01266  0.0003237  0.004734  -0.06066  -0.5027  0.5569
6.494e+09  -0.5199  -0.9079  -0.01056  0.02523  0.1006  -0.08744  -0.2785  0.7461
6.495e+09  -0.8573  -0.8003  -0.05055  -0.04478  0.03293  -0.001092  -0.06377  0.7781
6.496e+09  -1.097  -0.4187  0.00195  0.0296  0.06956  -0.03528  0.2183  0.7491
6.498e+09  -1.113  -0.04015  -0.04741  -0.005386  0.03177  0.02197  0.4723  0.6243
6.499e+09  -1.1  0.3854  0.01157  0.01172  0.0005847  -0.0443  0.6685  0.405
6.5e+09  -0.6009  1.441  0.02487  -0.0008284  -0.03384  -0.04427  0.7529  0.1568
6.501e+09  -0.6173  0.9739  -0.01303  0.01282  0.02384  0.04464  0.7534  -0.08529
6.502e+09  -0.2417  1.157  -0.03035  0.01604  -0.0539  -0.003424  0.6947  -0.3449
6.504e+09  0.1824  1.081  -0.01216  0.0372  0.01201  0.01775  0.5248  -0.5913
6.505e+09  0.598  0.9719  0.007196  0.02821  0.03616  0.03373  0.2745  -0.7366
6.506e+09  0.8802  0.7507  0.003314  -0.006334  -0.00839  0.01171  0.01667  -0.7644
6.508e+09  1.113  0.3813  -0.02175  -0.02446  0.03919  -0.006837  -0.2383  -0.7465
6.509e+09  1.156  0.02045  0.02727  0.004928  0.01445  0.0507  -0.4769  -0.601
6.51e+09  1.07  -0.4298  -0.0218  -0.03085  -0.02095  -0.04987  -0.6442  -0.4209
6.511e+09  0.8734  -0.7116  0.003502  -0.02638  -0.03154  0.03275  -0.755  -0.1239
6.512e+09  0.5466  -1.006  -0.0006989  0.002842  -0.01379  -0.04378  -0.7149  0.124
6.514e+09  0.1393  -1.12  0.003795  0.03229  -0.02393  -0.01075  -0.6213  0.3709
6.515e+09  -0.2572  -1.149  -0.02182  0.01138  -0.002778  -0.01923  -0.468  0.6041
6.516e+09  -0.6473  -1.03  0.01338  -0.02016  0.01226  -0.01963  -0.2484  0.7167
6.518e+09  -0.9409  -0.7125  0.006253  -0.0009768  0.01625  0.006055  -0.02556  0.7212
6.519e+09  -1.178  -0.3473  0.0006707  0.02113  -0.0232  0.005313  0.2621  0.6777
6.52e+09  -1.214  0.03139  -0.01581  -0.004797  -0.06666  -0.01689  0.5165  0.5846
6.521e+09  -1.113  0.4553  -0.0135  -0.01864  0.0148  0.02127  0.6909  0.3437
6.522e+09  -0.8714  0.8685  0.01049  0.02323  -0.0264  0.0237  0.7256  0.08096
6.524e+09  -0.5259  1.069  -0.003531  0.007079  0.02276  -0.003991  0.6935  -0.1667
6.525e+09  -0.07927  1.23  -0.01534  -0.01734  -0.0006405  0.06199  0.6028  -0.3951
6.526e+09  0.3475  1.181  0.02298  0.004498  -0.01021  0.02386  0.441  -0.5655
6.528e+09  0.6997  0.9877  0.01579  -0.02191  0.00986  0.01137  0.1855  -0.6932
6.529e+09  1.073  0.6367  0.03123  0.01539  0.004455  -0.007499  -0.05281  -0.6968
6.53e+09  1.234  0.2922  -0.01498  -0.01583  0.001725  0.01581  -0.2831  -0.6254
6.531e+09  1.231  -0.1681  0.04379  0.01912  -0.0003719  -0.02065  -0.4543  -0.4712
6.532e+09  1.086  -0.5745  0.01702  -0.01302  0.005582  -0.01202  -0.5753  -0.2757
6.534e+09  0.8658  -0.9417  0.005464  -0.008147  0.01178  -0.04512  -0.6262  -0.07159
6.535e+09  0.416  -1.184  -0.00886  -0.02411  -0.005096  0.03505  -0.6278  0.1434
6.536e+09  -0.03149  -1.316  -0.01827  0.02671  0.001807  -0.02269  -0.5644  0.3009
6.538e+09  -0.454  -1.222  -0.001274  -0.0129  -0.07718  -0.02771  -0.4345  0.4343
6.539e+09  -0.8534  -1.011  0.01356  0.033  -0.004898  0.01718  -0.2596  0.6561
6.54e+09  -1.192  -0.6696  -0.002806  0.01098  -0.03273  0.00322  -0.0296  0.6725
6.541e+09  -1.363  -0.2027  -0.01404  -0.02601  0.03308  -0.05483  0.1468  0.6551
6.542e+09  -1.34  0.3245  0.03372  -0.01902  0.03725  -0.04575  0.4034  0.581
6.544e+09  -1.106  0.8345  -0.008189  -0.002791  0.03946  0.01243  0.5899  0.3661
6.545e+09  -0.894  1.075  -0.00769  0.01243  0.02513  -0.01382  0.693  0.1801
6.546e+09  -0.4375  1.367  -0.03411  0.01736  0.01773  -0.03304  0.713  -0.0497
6.548e+09  0.1041  1.4  -0.03007  -0.001858  -0.06706  -0.009356  0.6511  -0.3273
6.549e+09  0.6006  1.245  -0.006437  -0.01348  -0.01767  0.03863  0.5169  -0.5427
6.55e+09  1.018  0.9914  0.02232  -0.03802  0.0307  0.006836  0.3047  -0.6673
6.551e+09  1.378  0.5652  0.003433  -0.008552  -0.02451  -0.01149  0.05511  -0.7369
6.552e+09  1.43  -0.01051  -0.001636  0.02773  0.03199  0.01126  -0.2398  -0.7239
