# Hz S RI R 50
6.25e+09  0.2512  0.9022  6.275e-05  0.01445  0.03788  -0.009868  0.1277  0.4906
6.251e+09  0.5999  0.759  -0.03024  -0.01878  0.02305  -0.01368  0.3789  0.4169
6.252e+09  0.7485  0.5569  -0.01461  0.009637  0.01542  0.08864  0.5567  0.2413
6.254e+09  0.9025  0.2306  -0.0105  -0.01881  0.03927  -0.04517  0.6215  0.02617
6.255e+09  0.9053  -0.1171  -0.01839  -0.01923  0.04968  -0.01988  0.568  -0.2313
6.256e+09  0.8354  -0.429  0.05151  -0.00756  -0.06285  0.0009783  0.4354  -0.432
6.258e+09  0.6782  -0.6916  0.006837  0.01793  0.01827  -0.01854  0.2614  -0.6376
6.259e+09  0.3613  -0.8785  0.0008456  -0.03217  -0.02719  -0.008338  0.01491  -0.7063
6.26e+09  0.06842  -0.9489  0.0138  -0.008867  0.006106  0.07577  -0.22  -0.6698
6.261e+09  -0.2771  -0.9117  -0.003171  -0.003106  0.01774  -0.002427  -0.4448  -0.5667
6.262e+09  -0.5797  -0.6644  0.000266  0.003601  -0.02295  0.02667  -0.6064  -0.3813
6.264e+09  -0.7757  -0.5057  -0.01912  -0.001449  0.0214  -0.02179  -0.6908  -0.09551
6.265e+09  -0.9396  -0.1751  0.01082  0.002413  -0.001117  0.04814  -0.6975  0.1564
6.266e+09  -0.9206  0.1482  -0.004509  -0.0257  0.05436  0.0461  -0.6175  0.4082
6.268e+09  -0.797  0.4473  -0.008895  0.006996  0.01096  -0.006496  -0.454  0.6164
6.269e+09  -0.6012  0.7224  0.002962  0.01133  0.02356  -0.01152  -0.1901  0.7183
6.27e+09  -0.2818  0.8474  -0.0001405  -0.00742  0.01287  -0.04806  0.05107  0.7173
6.271e+09  -0.01006  0.9064  0.01489  -0.02179  0.02284  0.02523  0.3221  0.6898
6.272e+09  0.3564  0.8967  -0.02573  -0.004875  0.003321  -0.01869  0.5935  0.5262
6.274e+09  0.5794  0.6958  0.00812  -0.007507  0.03068  0.03881  0.705  0.2716
6.275e+09  0.8157  0.4571  -0.006282  -0.002768  -0.0101  0.04166  0.7592  0.02953
6.276e+09  0.9074  0.2167  0.01697  -0.03254  -0.00958  -0.01668  0.7334  -0.2096
6.278e+09  0.9271  -0.1821  -0.01451  -0.02659  0.08634  -0.0578  0.6114  -0.4672
6.279e+09  0.8243  -0.4906  0.02286  0.02132  0.02178  0.006149  0.4483  -0.6655
6.28e+09  0.5909  -0.686  -0.01942  -0.02984  0.005161  -0.02316  0.1957  -0.7268
6.281e+09  0.3049  -0.9014  0.005208  -0.003339  0.06051  0.0457  -0.1289  -0.7771
6.282e+09  0.02213  -0.9247  0.007532  0.007976  -0.0602  -0.01154  -0.3558  -0.7027
6.284e+09  -0.3756  -0.8499  0.02999  -0.005744  0.02707  -0.009419  -0.5849  -0.54
6.285e+09  -0.6521  -0.7056  0.01367  0.006697  -0.03211  0.07682  -0.7308  -0.2737
6.286e+09  -0.8346  -0.4633  0.005032  0.0215  0.01133  -0.02219  -0.8161  -0.04973
6.288e+09  -0.9301  -0.0716  0.004159  -0.008656  -0.02991  -0.02666  -0.7777  0.2451
6.289e+09  -0.9127  0.1951  -0.03251  0.04184  -0.0127  0.00665  -0.6192  0.5135
6.29e+09  -0.7917  0.5085  -0.01076  -0.007535  0.001202  -0.06509  -0.3905  0.6809
6.291e+09  -0.5608  0.7763  0.01818  -0.004483  0.001529  -0.01524  -0.1718  0.7963
6.292e+09  -0.2451  0.8886  -0.001538  -0.02635  0.02395  0.005768  0.1265  0.8064
6.294e+09  0.1114  0.9634  0.03285  -0.03336  -0.02158  -0.03438  0.3998  0.7001
6.295e+09  0.412  0.8596  -0.01976  0.005454  -0.03424  0.03115  0.6171  0.5745
6.296e+09  0.6847  0.647  -0.005666  0.008518  -0.02419  -0.07849  0.7733  0.2937
6.298e+09  0.866  0.4  -0.0009915  -0.01127  -0.0282  -0.007139  0.8478  0.0136
6.299e+09  0.9813  0.0888  0.006488  0.01052  0.006467  -0.004888  0.7734  -0.2609
6.3e+09  0.9045  -0.2839  0.008334  -0.02784  0.04436  0.02532  0.666  -0.5568
6.301e+09  0.7924  -0.5387  0.02517  -0.02191  -0.01639  -0.04958  0.4172  -0.7001
6.302e+09  0.4944  -0.8388  0.002562  -0.001368  -0.01766  -0.00417  0.132  -0.8331
6.304e+09  0.1986  -0.9075  0.0134  0.02558  0.0232  -0.01725  -0.1685  -0.8452
6.305e+09  -0.1324  -1.013  0.01387  0.02887  0.01605  -0.04209  -0.3734  -0.7346
6.306e+09  -0.4943  -0.8483  0.02762  0.005654  0.02136  0.005911  -0.6455  -0.5696
6.308e+09  -0.7352  -0.6169  0.0233  0.0001298  0.001495  0.01455  -0.7942  -0.2958
6.309e+09  -0.9259  -0.3293  -0.005807  0.01046  -0.001849  0.004584  -0.8909  0.01006
6.31e+09  -1.001  -0.02041  0.01272  -0.01855  -0.01333  0.01539  -0.8095  0.2891
6.311e+09  -0.912  0.3738  -0.01534  -0.01102  0.03194  -0.0234  -0.6579  0.5958
6.312e+09  -0.7217  0.6131  -0.01537  0.01449  -0.02082  -0.01422  -0.4386  0.7591
6.314e+09  -0.4811  0.8545  0.008776  0.001438  0.02819  -0.05276  -0.1625  0.8861
6.315e+09  -0.1522  0.9933  0.05018  0.009343  0.02073  -0.0522  0.1519  0.8797
6.316e+09  0.1841  0.9746  0.01277  0.02044  0.007196  0.026  0.4738  0.81
6.318e+09  0.5219  0.8651  -0.01812  -0.01061  0.01113  -0.03915  0.6655  0.568
6.319e+09  0.7262  0.6734  -0.02914  0.01756  0.04073  -0.03509  0.8292  0.2988
6.32e+09  0.9029  0.2982  -0.01218  -0.003656  0.01091  0.03799  0.883  0.03969
6.321e+09  1.01  -0.07666  -0.03216  -0.04686  -0.06301  -0.01817  0.8525  -0.2922
6.322e+09  0.9363  -0.4068  0.02354  -0.01728  0.03264  -0.006922  0.687  -0.5581
6.324e+09  0.7339  -0.7296  0.008767  0.02504  -0.02786  0.01211  0.4406  -0.7677
6.325e+09  0.4674  -0.8905  -0.004138  0.02524  -0.03655  0.05373  0.1539  -0.8829
6.326e+09  0.1568  -1.017  -0.001033  0.0002308  -0.03821  0.01253  -0.1261  -0.8881
6.328e+09  -0.2936  -1.026  0.001191  -0.01109  0.02626  -0.02935  -0.3996  -0.7803
6.329e+09  -0.5793  -0.8765  -0.02302  -0.003102  0.03913  -0.01217  -0.6969  -0.5868
6.33e+09  -0.7971  -0.629  0.04028  -0.02142  -0.02166  -0.01539  -0.8215  -0.3299
6.331e+09  -1.017  -0.3064  -0.003445  0.01811  0.005011  -0.0002232  -0.9117  -0.03146
6.332e+09  -1.056  0.08103  -0.02299  -0.02438  0.05126  -0.001491  -0.8948  0.2639
6.334e+09  -0.9781  0.4734  -0.006231  -0.006271  0.02469  -0.01953  -0.7589  0.5556
6.335e+09  -0.7869  0.765  -0.01771  0.01896  0.01828  0.009949  -0.4521  0.7676
6.336e+09  -0.3947  1.004  -0.003915  0.01532  -0.006167  0.01244  -0.1897  0.9038
6.338e+09  -0.05098  1.077  -0.002383  0.004552  0.01256  0.05354  0.1707  0.9104
6.339e+09  0.3358  1.054  0.01515  -0.007557  -0.02527  -0.02479  0.4068  0.7758
6.34e+09  0.6473  0.8497  -0.00405  0.01324  0.001  -0.03716  0.6923  0.6289
6.341e+09  0.9121  0.6213  -0.005188  -0.01625  -0.02695  -0.04382  0.8055  0.3311
6.342e+09  1.058  0.2099  0.02007  -0.003564  0.005704  -0.009422  0.9137  0.04318
6.344e+09  1.105  -0.1712  0.03903  -0.03739  -0.01682  0.02117  0.8705  -0.2764
6.345e+09  1.014  -0.5474  0.002611  -0.01149  -0.009704  0.01653  0.7633  -0.5739
6.346e+09  0.7703  -0.8783  -0.04651  0.01198  0.01807  -0.02246  0.5087  -0.779
6.348e+09  0.4112  -1.038  -0.03028  -0.02665  -0.03571  -0.01381  0.2456  -0.8992
6.349e+09  -0.01276  -1.13  0.02496  -0.007804  -0.003933  -0.0208  -0.1196  -0.9078
6.35e+09  -0.3865  -1.082  -0.002856  0.001067  -0.01171  -0.0007646  -0.4221  -0.8714
6.351e+09  -0.7531  -0.831  0.02437  -0.004537  0.008547  0.04701  -0.7002  -0.6359
6.352e+09  -0.9663  -0.5523  -0.01481  0.001929  0.00896  0.008738  -0.867  -0.4003
6.354e+09  -1.106  -0.1513  -0.02392  0.01281  0.01111  -0.004544  -0.9684  -0.09438
6.355e+09  -1.184  0.2486  4.029e-06  -0.05016  0.001146  0.04546  -0.8996  0.2575
6.356e+09  -0.96  0.6604  -0.009862  -0.009645  0.02675  0.02483  -0.7854  0.547
6.358e+09  -0.7247  0.9421  0.01132  0.009855  0.01495  0.0316  -0.5342  0.7612
6.359e+09  -0.3233  1.149  0.03471  0.00728  -0.0705  -0.004872  -0.2122  0.9919
6.36e+09  0.06754  1.186  -0.004793  -0.01655  0.009173  0.00197  0.04955  0.9346
6.361e+09  0.4476  1.095  -0.001453  -0.006642  0.02208  0.00444  0.4372  0.8946
6.362e+09  0.864  0.8504  0.004345  -0.01873  0.01972  0.009288  0.6829  0.6375
6.364e+09  1.137  0.5272  -0.02751  -0.002151  -0.02489  -0.06499  0.8981  0.4224
6.365e+09  1.212  0.06659  -0.01705  -0.02064  0.007606  -0.009068  0.9663  0.07803
6.366e+09  1.232  -0.2953  -0.003833  0.007154  0.04835  0.01974  0.9389  -0.2472
6.368e+09  1.028  -0.6816  0.007521  0.001677  0.001173  0.02065  0.7701  -0.5416
6.369e+09  0.7051  -1.047  -0.0007359  -0.008195  0.01602  0.04283  0.5635  -0.79
6.37e+09  0.3365  -1.208  -0.02724  0.02271  0.01757  0.01455  0.2879  -0.9287
6.371e+09  -0.1881  -1.261  0.02087  0.01312  -0.02353  0.00508  -0.09488  -0.9416
6.372e+09  -0.547  -1.15  0.02695  -0.02389  -0.02548  0.00695  -0.4263  -0.858
6.374e+09  -1.011  -0.8644  -0.04464  -0.03528  0.01066  0.002001  -0.6617  -0.699
6.375e+09  -1.218  -0.4914  0.04162  0.03669  -0.02226  -0.06124  -0.8434  -0.4031
6.376e+09  -1.245  -0.06159  -0.0229  0.004795  0.001183  -0.0415  -0.9255  -0.0799
6.378e+09  -1.242  0.481  0.01597  -0.005725  0.0241  0.009513  -0.9326  0.2273
6.379e+09  -1.006  0.8503  0.0286  0.01742  0.001867  -0.03897  -0.7928  0.5083
6.38e+09  -0.71  1.157  0.01889  -0.01625  -0.04064  0.02719  -0.5794  0.7729
6.381e+09  -0.2731  1.305  0.0328  -0.02905  -0.001011  -0.002835  -0.2541  0.8933
6.382e+09  0.1956  1.326  -0.03104  0.01565  0.002524  0.007959  0.05061  0.9303
6.384e+09  0.6376  1.171  0.001226  0.007982  0.003396  -0.001838  0.3577  0.8642
6.385e+09  1.111  0.8859  -0.03084  -0.04488  -0.03282  0.007879  0.6434  0.6511
6.386e+09  1.306  0.4616  -0.0161  -0.002403  0.02171  0.02401  0.8352  0.4275
6.388e+09  1.364  -0.04321  0.02581  0.007878  0.009592  -0.04672  0.9545  0.1501
6.389e+09  1.292  -0.5526  0.02361  -0.01748  0.01884  0.0108  0.9133  -0.1893
6.39e+09  1.085  -0.9529  0.01718  0.003715  0.01878  0.01873  0.7702  -0.5168
6.391e+09  0.6714  -1.29  -0.009434  -0.007781  -0.03002  0.009277  0.5729  -0.7282
6.392e+09  0.1461  -1.442  -0.03899  0.01534  -0.007174  0.01634  0.2803  -0.8994
6.394e+09  -0.3175  -1.343  0.01812  -0.03914  -0.005257  0.005101  -0.02938  -0.9364
6.395e+09  -0.76  -1.242  -0.003742  -0.02621  0.01545  -0.02673  -0.3613  -0.8618
6.396e+09  -1.159  -0.9756  0.02091  -0.02816  -0.03452  0.02313  -0.6426  -0.6627
6.398e+09  -1.443  -0.4406  -0.04959  -0.01586  0.02852  0.02161  -0.8451  -0.445
6.399e+09  -1.537  0.1501  -0.01582  0.007144  -0.002635  -0.06518  -0.9072  -0.1807
6.4e+09  -1.393  0.6406  0.01461  -0.005358  0.008125  0.01328  -0.9207  0.1835
6.401e+09  -1.099  1.124  0.03506  0.03155  0.03681  0.02006  -0.8229  0.4629
6.402e+09  -0.6981  1.434  -0.01605  -0.03903  0.07093  0.03334  -0.6083  0.6648
6.404e+09  -0.06893  1.563  -0.0028  -0.006738  -0.02928  0.02945  -0.3177  0.8291
6.405e+09  0.5091  1.513  0.001442  0.01593  -0.03829  0.02004  -0.01629  0.9717
6.406e+09  0.9658  1.203  -0.01757  -0.002942  -0.01628  0.001696  0.3575  0.8489
6.408e+09  1.375  0.9241  -0.0004707  0.02227  0.006125  -0.01812  0.5686  0.7308
6.409e+09  1.564  0.3076  0.007537  0.01565  0.004473  -0.04767  0.7809  0.4673
6.41e+09  1.619  -0.2696  -0.03881  0.012  -0.01122  -0.01045  0.8815  0.2038
6.411e+09  1.45  -0.8066  0.006687  -0.04894  0.004503  -0.01283  0.9439  -0.1111
6.412e+09  1.066  -1.255  -0.02137  -0.01748  0.02934  0.001383  0.7899  -0.4682
6.414e+09  0.4482  -1.608  -0.003282  0.004733  0.013  -0.01679  0.6068  -0.6901
6.415e+09  -0.03627  -1.665  0.03381  -0.01318  -0.02342  -0.02798  0.2928  -0.8565
6.416e+09  -0.5989  -1.579  -0.004694  -0.02144  0.02988  -0.01689  0.02359  -0.8944
6.418e+09  -1.109  -1.266  -0.01222  0.008127  0.0119  0.01369  -0.2749  -0.8371
6.419e+09  -1.474  -0.7828  0.03529  -0.003193  -0.01367  0.05382  -0.5301  -0.7993
6.42e+09  -1.68  -0.1948  0.008362  0.01914  0.01309  -0.01866  -0.7556  -0.4577
6.421e+09  -1.689  0.3818  -0.01287  -0.04033  -0.007123  -0.002475  -0.8943  -0.2318
6.422e+09  -1.492  1.02  -0.005975  0.01195  -0.03618  0.02568  -0.9118  0.1244
6.424e+09  -1.051  1.445  -0.02862  0.0254  -0.04351  -0.01281  -0.7819  0.3933
6.425e+09  -0.4649  1.781  -0.004957  0.02334  0.01294  -0.00534  -0.5878  0.6315
6.426e+09  0.1565  1.786  -0.04712  -0.002249  0.05997  -0.0228  -0.3754  0.836
6.428e+09  0.7859  1.633  0.01184  0.01015  0.02972  -0.01336  -0.02375  0.8628
6.429e+09  1.362  1.326  0.01675  0.01876  0.03075  -0.02863  0.2645  0.8042
6.43e+09  1.65  0.7712  -0.01144  0.01809  0.003151  0.03537  0.503  0.716
6.431e+09  1.929  0.07848  0.04118  0.03054  0.003055  0.001804  0.7151  0.4827
6.432e+09  1.794  -0.5954  -0.01529  0.01734  0.009415  -0.04404  0.8864  0.2333
6.434e+09  1.558  -1.224  -0.02032  -0.02369  -9.002e-05  0.04089  0.8842  -0.1051
6.435e+09  1.05  -1.682  0.0007512  -0.03431  -0.0155  -0.003118  0.7702  -0.3647
6.436e+09  0.3075  -2.012  0.01442  -0.006091  0.0147  -0.02897  0.6538  -0.6035
6.438e+09  -0.3727  -2.018  -0.03998  0.04292  -0.05376  -0.05264  0.3916  -0.8205
6.439e+09  -1.101  -1.772  -0.00997  0.01279  -0.01388  0.04551  0.08099  -0.8977
6.44e+09  -1.663  -1.297  0.01652  -0.004137  0.02584  -0.02973  -0.2226  -0.7875
6.441e+09  -2.054  -0.6257  0.05082  0.04464  -0.05109  0.007581  -0.4898  -0.6958
6.442e+09  -2.124  0.1266  -0.01862  0.01314  0.03688  -0.01581  -0.6768  -0.5007
6.444e+09  -2.034  0.873  -0.01742  0.01058  0.02566  0.03849  -0.8183  -0.1995
6.445e+09  -1.59  1.536  0.006382  0.000415  0.06275  0.004899  -0.8442  0.1028
6.446e+09  -0.9358  2.104  -0.05839  -0.00995  -0.03927  -0.0877  -0.7637  0.403
6.448e+09  -0.1449  2.316  0.02436  0.002594  0.02014  -0.004628  -0.559  0.5959
6.449e+09  0.6803  2.26  0.05532  -0.03905  0.02446  -0.03118  -0.3821  0.7808
6.45e+09  1.449  1.943  0.02504  -0.01054  -0.03761  -0.01512  -0.03639  0.8353
6.451e+09  2.022  1.304  -0.01441  0.02911  0.03114  -0.04243  0.2164  0.8446
6.452e+09  2.461  0.4696  0.01318  0.00364  0.01138  0.02451  0.5118  0.6593
6.454e+09  2.509  -0.3728  0.01158  -0.03975  0.07081  -0.05964  0.6775  0.4857
6.455e+09  2.242  -1.313  -0.01752  -0.001267  0.02723  0.006106  0.799  0.2134
6.456e+09  1.671  -2.052  -0.02849  0.00286  -0.02134  -0.04498  0.8191  -0.1033
6.458e+09  0.8798  -2.509  -0.05172  -0.01611  -0.007471  -0.04458  0.7075  -0.3438
6.459e+09  -0.1496  -2.791  -0.007927  -0.02681  0.08487  -0.01711  0.5705  -0.5733
6.46e+09  -1.148  -2.584  0.0488  -0.0411  0.02762  -0.0346  0.31  -0.7559
6.461e+09  -2.002  -2.109  0.007166  -0.04887  0.0263  -0.03155  0.06767  -0.8299
6.462e+09  -2.65  -1.38  0.008192  -0.02151  0.06686  -0.04448  -0.277  -0.7641
6.464e+09  -3.027  -0.3408  0.01464  -0.003542  -0.03623  0.01842  -0.4616  -0.6366
6.465e+09  -2.998  0.8566  0.01622  0.05191  -0.09965  -0.03739  -0.6184  -0.4642
6.466e+09  -2.561  1.963  0.0472  0.005066  -0.06437  0.06365  -0.7561  -0.172
6.468e+09  -1.731  2.795  -0.004953  -0.005146  0.0005331  0.03474  -0.7382  0.05106
6.469e+09  -0.5714  3.252  0.02749  -0.04179  0.01472  0.02036  -0.734  0.3586
6.47e+09  0.6128  3.39  -0.03293  0.03686  0.03886  0.04316  -0.631  0.5861
6.471e+09  1.925  3.217  0.01988  -0.02489  0.04742  -0.02747  -0.3475  0.7102
6.472e+09  2.941  2.321  0.002267  0.00597  0.06698  -0.04026  -0.04158  0.7875
6.474e+09  3.783  1.084  0.01858  0.0114  -0.1068  0.0029  0.2345  0.7292
6.475e+09  3.993  -0.4321  0.02674  0.01474  -0.03953  0.01095  0.5118  0.6717
6.476e+09  3.706  -1.766  0.008686  0.01528  0.04  -0.0653  0.6413  0.4414
6.478e+09  2.915  -3.164  -0.002447  -6.675e-06  0.122  -0.0769  0.7647  0.1942
6.479e+09  1.604  -4.386  0.02617  0.03161  -0.04625  0.05216  0.7843  -0.1153
6.48e+09  -0.03388  -4.863  -0.02539  -0.02689  0.0455  0.06922  0.7251  -0.3852
6.481e+09  -1.979  -4.464  -0.01614  0.03441  -0.05662  -0.07572  0.5649  -0.5205
6.482e+09  -3.863  -3.65  0.02939  -0.02816  -0.0533  0.06584  0.2999  -0.7417
6.484e+09  -5.093  -2.082  0.004639  0.01762  -0.003996  -0.05911  0.05368  -0.7791
6.485e+09  -5.883  -0.008325  -0.01812  -0.01914  -0.02097  -0.01408  -0.2368  -0.7736
6.486e+09  -5.575  2.438  -0.01164  0.02543  -0.1562  -0.04395  -0.4684  -0.6351
6.488e+09  -4.087  5.318  -0.0005457  0.04044  0.5254  -0.5768  -0.6212  -0.3809
6.489e+09  -2.48  6.444  0.02007  -0.04473  0.0346  -0.1373  -0.7392  -0.1884
6.49e+09  0.4054  7.347  -0.01204  0.05493  0.08305  -0.0072  -0.7659  0.08646
6.491e+09  3.505  6.908  -0.01662  0.004437  0.08406  0.03997  -0.6988  0.3405
6.492e+09  6.371  5.164  0.006065  0.02437  -0.04789  -0.1046  -0.5272  0.5849
6.494e+09  8.394  2.058  0.0252  0.02342  0.001026  -0.1385  -0.2939  0.7158
6.495e+09  8.822  -1.823  0.029  -0.03562  0.07221  0.01888  -0.05108  0.782
6.496e+09  7.477  -5.975  -0.01671  0.01018  -0.02333  -0.02083  0.1955  0.7267
6.498e+09  4.15  -8.887  0.04489  -0.001484  0.06859  0.02035  0.4376  0.6146
6.499e+09  -0.4822  -10.09  -0.02848  -0.004534  0.03084  -0.07838  0.6588  0.4123
6.5e+09  -0.7937  -0.2742  -0.01351  -0.04537  0.1669  0.05189  0.7651  0.1209
6.501e+09  -8.415  -5.45  -0.01051  0.002248  -0.0876  0.03285  0.7625  -0.1109
6.502e+09  -9.778  -1.014  0.02187  0.002449  -0.01255  -0.04517  0.6504  -0.3586
6.504e+09  -8.763  3.489  0.04792  0.02306  0.01746  -0.01268  0.495  -0.5872
6.505e+09  -6.232  6.565  -0.01444  -0.03504  -0.1239  0.03367  0.2232  -0.6808
6.506e+09  -2.535  8.042  -0.01742  0.02063  -0.04674  0.06656  0.02474  -0.7514
6.508e+09  0.9826  7.961  0.01458  0.002777  0.03994  0.003678  -0.2419  -0.7049
6.509e+09  4.001  6.493  0.02395  -0.001695  0.04974  -0.01724  -0.4559  -0.5974
6.51e+09  5.896  3.96  -0.01587  0.009991  8.497e-05  0.01196  -0.6984  -0.4082
6.511e+09  6.564  1.255  0.01314  0.02033  0.02297  0.01365  -0.7493  -0.09399
6.512e+09  6.127  -1.309  0.03567  -0.009166  -0.005742  -0.07026  -0.7403  0.133
6.514e+09  4.828  -3.499  0.03995  -0.04526  0.04153  0.0624  -0.6136  0.3816
6.515e+09  3.048  -4.71  -0.02795  -0.003471  -0.09184  -0.05163  -0.497  0.5642
6.516e+09  1.009  -5.22  -0.02028  -0.002952  0.00314  -0.06202  -0.2572  0.725
6.518e+09  -1.083  -4.844  -0.00022  -0.01256  0.005287  -0.03267  -0.01186  0.7388
6.519e+09  -2.593  -3.893  0.009832  0.007486  -0.03544  -0.01909  0.2818  0.6771
6.52e+09  -3.824  -2.631  0.02548  -0.008009  -0.01122  -0.02216  0.5145  0.5539
6.521e+09  -4.163  -0.9954  -0.004372  -0.06497  0.01974  0.07207  0.6408  0.3732
6.522e+09  -4.105  0.6179  -0.02629  0.01692  -0.02957  -0.08072  0.7217  0.1088
6.524e+09  -3.439  1.879  0.002931  -0.02511  0.05154  -0.07118  0.7104  -0.19
6.525e+09  -2.384  2.991  0.0004733  0.006524  0.04599  -0.01789  0.6268  -0.3591
6.526e+09  -1.204  3.54  0.006893  -0.01984  -0.01514  -0.008411  0.4241  -0.586
6.528e+09  0.1177  3.581  -0.02137  0.03356  -0.05939  0.01322  0.1471  -0.6713
6.529e+09  1.401  3.094  0.01261  0.04163  -0.02083  0.02168  -0.06721  -0.667
6.53e+09  2.324  2.334  -0.02212  0.001675  -0.02513  0.001468  -0.3098  -0.584
6.531e+09  2.9  1.177  0.01231  0.006046  0.04884  -0.02795  -0.4574  -0.4713
6.532e+09  3.096  0.112  -0.00297  -0.006759  0.006981  -0.03164  -0.6054  -0.3149
6.534e+09  2.911  -0.9135  -0.02352  -0.04891  0.02429  -0.005636  -0.627  -0.04769
6.535e+09  2.229  -1.892  -0.01837  0.005266  0.01836  0.02439  -0.6162  0.117
6.536e+09  1.439  -2.495  -0.0173  -0.02292  -0.00764  -0.01722  -0.5664  0.3174
6.538e+09  0.4941  -2.733  0.005829  -0.01194  -0.01843  0.03832  -0.468  0.5002
6.539e+09  -0.5274  -2.656  -0.01381  0.009195  -0.01485  0.04266  -0.2279  0.584
6.54e+09  -1.47  -2.227  -0.026  -0.004147  -0.01927  0.04622  -0.04781  0.6741
6.541e+09  -2.042  -1.521  -0.0003829  0.03089  0.04544  -0.01079  0.2127  0.6693
6.542e+09  -2.394  -0.5778  0.01338  0.01807  0.02408  -0.01075  0.423  0.5865
6.544e+09  -2.481  0.1834  -0.02553  -0.01244  -0.03736  -0.05189  0.587  0.3932
6.545e+09  -2.198  1.046  -0.01249  0.008859  -0.02788  0.01026  0.6893  0.1578
6.546e+09  -1.616  1.607  0.003793  0.0001775  -0.03633  -0.03886  0.7227  -0.1381
6.548e+09  -0.9438  2.152  0.00111  0.004842  0.05539  0.04715  0.6568  -0.3309
6.549e+09  -0.138  2.242  -0.01838  -0.01939  0.02677  -0.0409  0.5315  -0.5346
6.55e+09  0.7197  2.095  -0.007646  0.01947  -0.01778  0.01311  0.261  -0.7054
6.551e+09  1.376  1.663  0.03043  0.007547  0.019  -0.05614  0.03928  -0.7641
6.552e+09  1.842  1.067  0.02428  0.02465  0.02045  0.03132  -0.2578  -0.7142
6.554e+09  2.089  0.3935  -0.02025  -0.005797  0.01551  -0.03174  -0.4504  -0.6148
6.555e+09  2.024  -0.3687  -0.02252  -0.01905  -0.01407  -0.03231  -0.6158  -0.3692
