# Hz S RI R 50
6.25e+09  1.033  0.1825  -0.02407  0.01074  -0.06587  0.01031  0.162  0.5137
6.251e+09  1.016  -0.2328  0.004186  -0.0329  0.05663  0.0125  0.3598  0.4196
6.252e+09  0.7897  -0.6004  -0.001375  -0.0332  -0.03614  -0.04923  0.5481  0.2504
6.254e+09  0.5794  -0.8543  -0.007743  -0.007379  0.004776  -0.008512  0.6167  -0.0194
6.255e+09  0.2742  -1.001  0.007578  -0.01871  0.01192  -0.0186  0.6099  -0.1916
6.256e+09  -0.003138  -1  -0.003492  -0.01524  0.05865  0.005338  0.476  -0.426
6.258e+09  -0.4457  -0.8844  -0.005616  0.01341  6.825e-05  0.02722  0.2544  -0.619
6.259e+09  -0.7122  -0.6957  0.003873  0.0148  0.008068  -0.02729  0.0587  -0.6738
6.26e+09  -0.9801  -0.3587  -0.02121  0.01944  -0.005097  -0.00589  -0.1889  -0.6526
6.261e+09  -1.04  -0.05734  0.008639  0.0059  0.01064  -0.04191  -0.4309  -0.529
6.262e+09  -0.9425  0.3112  0.005142  0.01716  0.03038  0.005073  -0.6274  -0.3453
6.264e+09  -0.8538  0.6756  0.009138  0.008709  0.01969  -0.07303  -0.6633  -0.08554
6.265e+09  -0.5402  0.8949  0.005259  -0.03559  -0.0274  0.04939  -0.6732  0.1733
6.266e+09  -0.1805  0.9857  0.01956  0.03498  0.03229  -0.03719  -0.6452  0.4359
6.268e+09  0.1509  0.9883  0.0116  0.01003  0.006201  0.01668  -0.4281  0.5537
6.269e+09  0.5383  0.874  -0.01001  0.01336  -0.01563  0.03088  -0.1573  0.7175
6.27e+09  0.7447  0.6164  -0.0112  0.02088  -0.01093  -0.01935  0.05816  0.7558
6.271e+09  0.9376  0.2537  -0.0006086  0.0009748  -0.01131  -0.01735  0.3588  0.6388
6.272e+09  1.002  -0.09564  -0.001707  0.03136  0.06955  0.02445  0.5597  0.5109
6.274e+09  0.8933  -0.4311  -0.01825  0.003512  -0.02582  -0.05155  0.6938  0.2834
6.275e+09  0.703  -0.6629  -0.00561  -0.0009021  -0.02225  0.01921  0.7462  0.02903
6.276e+09  0.4394  -0.8773  -0.007035  -0.02801  0.00523  0.03157  0.7518  -0.2375
6.278e+09  0.0207  -1.016  0.002149  -0.02049  -0.06  0.00627  0.6276  -0.4769
6.279e+09  -0.3063  -0.9427  0.003534  -0.008865  0.01322  0.01298  0.403  -0.6254
6.28e+09  -0.5845  -0.774  -0.003943  -0.003267  -0.02047  -0.0885  0.1511  -0.768
6.281e+09  -0.816  -0.4925  0.0355  0.007301  0.01241  0.001861  -0.1265  -0.7573
6.282e+09  -1.023  -0.2325  -0.01398  -0.01876  -0.03179  0.02243  -0.3799  -0.6924
6.284e+09  -0.9835  0.1747  -0.02368  -0.0009482  -0.0165  0.02156  -0.5632  -0.5095
6.285e+09  -0.8535  0.4726  0.009081  0.007951  -0.008681  0.01327  -0.7399  -0.2874
6.286e+09  -0.6079  0.8153  0.008861  -0.009134  -0.01171  0.01984  -0.8055  -0.02823
6.288e+09  -0.3065  0.9737  0.009081  -0.004821  0.008452  -0.06643  -0.7399  0.2559
6.289e+09  0.06717  1.012  -0.007755  -0.001334  0.02829  0.0629  -0.6476  0.4948
6.29e+09  0.4188  0.9238  -0.02241  0.001939  0.02175  -0.01995  -0.4058  0.6655
6.291e+09  0.7258  0.7211  0.01832  -0.007077  -0.0003403  3.326e-05  -0.1582  0.8116
6.292e+09  0.9314  0.3972  0.0139  -0.03074  0.007267  0.05237  0.1137  0.8271
6.294e+09  1.043  0.07228  -0.002194  -0.0003178  0.009285  -0.01277  0.4  0.6925
6.295e+09  0.9187  -0.2919  -0.003228  -0.01831  0.018  0.004369  0.6363  0.5101
6.296e+09  0.8311  -0.6282  0.0142  0.0009216  0.01871  -0.007228  0.7487  0.3002
6.298e+09  0.5328  -0.89  -0.02514  -0.01146  0.01633  -0.008197  0.8281  0.02068
6.299e+09  0.1964  -1.009  0.005273  0.005951  -0.008219  -0.008191  0.7631  -0.2773
6.3e+09  -0.211  -0.9838  -0.0464  -0.02145  -0.03743  -0.01831  0.6714  -0.4981
6.301e+09  -0.4938  -0.8707  -0.006771  0.001323  0.01191  0.02197  0.4344  -0.7186
6.302e+09  -0.7718  -0.6455  -0.01157  0.008176  -0.02224  -0.02526  0.1344  -0.7951
6.304e+09  -1.021  -0.3735  0.00246  0.01766  -0.01476  0.03032  -0.1459  -0.8539
6.305e+09  -1.038  0.04701  0.02396  -0.0008333  0.04318  0.01192  -0.3726  -0.7417
6.306e+09  -0.9254  0.3833  -0.02801  0.01479  -0.0118  -0.02589  -0.6633  -0.5959
6.308e+09  -0.6916  0.695  0.004634  -0.0002577  -0.02482  0.02554  -0.7936  -0.2865
6.309e+09  -0.4274  0.9399  -0.009606  0.001439  0.03788  -0.01669  -0.8451  0.01143
6.31e+09  -0.1076  1.052  0.002764  -0.0028  0.002043  -0.0421  -0.7684  0.2788
6.311e+09  0.3255  1.009  0.008931  0.00331  0.03455  -0.008144  -0.6537  0.5689
6.312e+09  0.6047  0.8373  0.0338  -0.004625  -0.01379  0.06028  -0.4313  0.743
6.314e+09  0.8754  0.5868  0.01923  0.0209  0.007857  0.01485  -0.1718  0.8473
6.315e+09  0.9998  0.2752  0.0009208  0.02676  -0.05717  -0.01145  0.1512  0.8484
6.316e+09  1.076  -0.09817  0.009693  -0.01378  0.04178  -0.01382  0.4195  0.7837
6.318e+09  0.9156  -0.5092  0.007208  -0.009699  -0.02081  0.05891  0.6804  0.5629
6.319e+09  0.679  -0.7714  -0.009715  0.02968  -0.01258  -0.01399  0.8278  0.3426
6.32e+09  0.3556  -0.9957  -0.0203  0.01542  -0.009757  0.0237  0.8876  0.06178
6.321e+09  -0.00312  -1.061  -0.032  0.03148  -0.04371  -0.02829  0.8249  -0.2887
6.322e+09  -0.3902  -0.9786  0.01944  -0.0204  0.007203  0.03164  0.6786  -0.5567
6.324e+09  -0.6736  -0.8103  -0.0009049  -0.001658  -0.007115  -0.0552  0.463  -0.7716
6.325e+09  -0.9641  -0.4743  0.006304  0.03459  -0.0271  -0.007274  0.1862  -0.8678
6.326e+09  -1.079  -0.09464  0.02554  -0.01679  -0.003133  0.02942  -0.1196  -0.891
6.328e+09  -1.057  0.2308  -0.005242  0.02333  0.0121  -0.01247  -0.4238  -0.7718
6.329e+09  -0.8827  0.5651  -0.0175  0.004741  -0.04113  0.01658  -0.6782  -0.6219
6.33e+09  -0.6548  0.9045  0.002656  -0.03779  0.003151  -0.02697  -0.8289  -0.3182
6.331e+09  -0.2488  1.022  0.0161  -0.008793  0.0168  0.001488  -0.8807  -0.02824
6.332e+09  0.08394  1.094  0.002528  -0.01897  -0.01031  0.02879  -0.909  0.2657
6.334e+09  0.5006  0.9623  0.01907  -0.001281  -0.01638  0.04463  -0.7389  0.5625
6.335e+09  0.7561  0.7313  -0.02207  0.009539  0.01022  0.004018  -0.4948  0.7944
6.336e+09  1.01  0.4708  0.01916  -0.001106  -0.004612  -0.04929  -0.1479  0.8653
6.338e+09  1.083  0.01643  -0.02756  0.0006924  0.006732  -0.03397  0.09798  0.9175
6.339e+09  1.007  -0.3087  -0.004811  -0.01207  0.02789  0.00682  0.4539  0.8169
6.34e+09  0.861  -0.6695  -0.02545  -0.008835  -0.01768  -0.006722  0.691  0.6144
6.341e+09  0.5813  -0.9486  -0.0119  0.01835  -0.008684  0.06001  0.8879  0.3418
6.342e+09  0.2335  -1.078  -0.02148  -0.01462  -0.004973  -0.02056  0.9483  0.05463
6.344e+09  -0.184  -1.075  -0.003562  0.007744  -0.06977  -0.05196  0.8968  -0.2619
6.345e+09  -0.5717  -0.9509  0.007922  0.02915  0.0432  0.01389  0.7406  -0.5793
6.346e+09  -0.9121  -0.7088  -0.003484  -0.03661  0.003258  0.04757  0.4944  -0.7672
6.348e+09  -1.022  -0.3209  -0.001983  0.01215  -0.01632  0.008666  0.1679  -0.913
6.349e+09  -1.15  0.05422  0.005351  -0.02841  0.01028  -0.008495  -0.111  -0.9327
6.35e+09  -1.028  0.4561  -0.002806  0.02846  0.04322  0.03025  -0.4167  -0.8386
6.351e+09  -0.8075  0.7937  0.02252  0.01025  -6.396e-05  0.02556  -0.6799  -0.6267
6.352e+09  -0.5113  1.046  -0.01618  -0.01114  -0.02888  -0.02698  -0.9219  -0.3572
6.354e+09  -0.07759  1.141  0.02278  -0.01756  0.02731  0.02797  -0.9731  -0.02323
6.355e+09  0.287  1.123  -0.01248  -0.0311  0.03967  0.02674  -0.9146  0.2698
6.356e+09  0.6393  0.9252  0.03771  0.0007196  -0.01874  0.03538  -0.7704  0.5818
6.358e+09  0.9881  0.6572  0.03201  0.02877  -0.03756  -0.002774  -0.5668  0.7979
6.359e+09  1.112  0.2667  -0.01436  0.01435  0.04372  -0.05171  -0.1944  0.9303
6.36e+09  1.2  -0.1691  0.02624  -0.006569  -0.04034  0.02497  0.07742  0.9709
6.361e+09  1.019  -0.5837  -0.03754  -0.03914  -0.01877  -0.004951  0.4358  0.8586
6.362e+09  0.7518  -0.8834  0.02408  -0.03017  -0.03948  0.05899  0.7076  0.6804
6.364e+09  0.4037  -1.094  -0.01478  -0.05126  0.0149  -0.02986  0.8512  0.3971
6.365e+09  -0.04011  -1.18  0.008449  -0.01308  0.001945  -0.002375  0.9518  0.07685
6.366e+09  -0.432  -1.127  -0.005618  -0.01047  -0.02179  -0.01027  0.9083  -0.246
6.368e+09  -0.8032  -0.8964  -0.008507  -0.01909  0.006666  0.0009525  0.7765  -0.5382
6.369e+09  -1.073  -0.6194  -0.006641  0.01354  -0.01661  0.0001176  0.5347  -0.7583
6.37e+09  -1.243  -0.1173  -0.001365  0.01804  -0.01646  -0.03753  0.2563  -0.942
6.371e+09  -1.142  0.2614  0.01129  0.01886  0.02229  -0.03875  -0.1004  -0.9363
6.372e+09  -1.016  0.6568  -0.03626  -0.02678  0.01371  -0.02774  -0.4151  -0.8417
6.374e+09  -0.6881  1.017  -0.00773  -0.01034  0.01124  -0.03544  -0.6873  -0.7117
6.375e+09  -0.35  1.212  0.0105  0.01195  0.0347  -0.04362  -0.8339  -0.3892
6.376e+09  0.1237  1.278  0.004727  0.03308  -0.01819  -0.008341  -0.9756  -0.1186
6.378e+09  0.5664  1.132  -0.01154  -0.009563  0.01756  0.001884  -0.9247  0.2506
6.379e+09  0.9783  0.8736  0.02585  -0.009254  0.0004266  -0.02438  -0.8043  0.4862
6.38e+09  1.214  0.4638  0.02464  -0.0001212  0.0156  0.008587  -0.5742  0.7398
6.381e+09  1.324  0.02524  -0.05654  -0.02913  0.01337  0.007774  -0.2534  0.9225
6.382e+09  1.26  -0.4927  0.02702  0.02516  0.02904  0.04332  0.04665  0.984
6.384e+09  0.9929  -0.8764  0.001543  -0.01222  0.04971  0.03705  0.3822  0.8682
6.385e+09  0.6205  -1.159  0.01127  0.02307  0.02757  0.03574  0.6518  0.6857
6.386e+09  0.1666  -1.363  0.01397  -0.02994  0.01526  0.05  0.8411  0.4156
6.388e+09  -0.3556  -1.339  0.02515  0.01239  0.0173  0.01731  0.8424  0.1241
6.389e+09  -0.753  -1.169  -0.02221  -0.03857  -0.006567  0.03518  0.9124  -0.1978
6.39e+09  -1.141  -0.7559  0.003037  -0.008805  0.0584  -0.008015  0.776  -0.5156
6.391e+09  -1.294  -0.2764  0.00891  0.02175  0.01175  -0.002364  0.5781  -0.7368
6.392e+09  -1.399  0.2984  0.0314  0.007414  -0.01485  -0.05268  0.298  -0.9225
6.394e+09  -1.271  0.7045  0.01833  0.02987  0.09255  0.004597  -0.0307  -0.9132
6.395e+09  -0.9434  1.066  -0.03999  0.001687  0.00988  -0.07578  -0.3573  -0.8518
6.396e+09  -0.5759  1.369  -0.01863  0.006291  -0.02445  0.0397  -0.617  -0.6804
6.398e+09  -0.02026  1.451  -0.01687  -0.002744  -0.005544  0.04087  -0.8369  -0.4545
6.399e+09  0.4978  1.452  -0.02456  -0.004155  0.0388  -0.00464  -0.9259  -0.1567
6.4e+09  1.01  1.154  0.02654  0.009074  0.03706  0.005712  -0.912  0.1378
6.401e+09  1.374  0.6874  -0.009881  0.01911  -0.002236  0.00172  -0.8096  0.494
6.402e+09  1.582  0.1634  -0.01239  -0.007167  0.01259  0.06394  -0.5998  0.6821
6.404e+09  1.512  -0.4122  0.04481  -0.0179  0.01671  0.02302  -0.3039  0.9097
6.405e+09  1.263  -0.9776  0.02656  -0.02063  0.01269  -0.03704  -0.01201  0.9424
6.406e+09  0.8496  -1.404  0.0424  -0.006886  -0.02252  -0.03307  0.3548  0.8796
6.408e+09  0.2262  -1.63  0.02616  0.009487  -0.05842  -0.02461  0.5666  0.7266
6.409e+09  -0.3662  -1.613  -0.005256  -0.05125  -0.008337  0.007301  0.7479  0.5138
6.41e+09  -0.901  -1.354  -0.002044  0.03051  0.01534  0.01189  0.895  0.1256
6.411e+09  -1.374  -0.9379  0.03062  -0.02159  0.06308  0.01925  0.8975  -0.1677
6.412e+09  -1.63  -0.3463  -0.00415  0.05734  0.01125  0.03357  0.8186  -0.4604
6.414e+09  -1.691  0.2459  0.01172  -0.02109  0.0008844  0.02005  0.601  -0.7003
6.415e+09  -1.494  0.9388  -0.02066  0.004685  0.04323  0.04546  0.3175  -0.8358
6.416e+09  -1.04  1.349  0.03624  0.009678  -0.02394  -0.06506  0.06624  -0.9044
6.418e+09  -0.4633  1.655  0.00964  0.005376  0.05848  0.03213  -0.3008  -0.8894
6.419e+09  0.1465  1.759  0.008439  0.02356  -0.004755  0.001498  -0.5393  -0.7284
6.42e+09  0.8332  1.551  0.01907  -0.01308  -0.007411  0.03771  -0.723  -0.4578
6.421e+09  1.324  1.184  0.0405  -0.01549  0.02975  -0.02998  -0.8572  -0.1995
6.422e+09  1.676  0.5978  0.02891  0.006084  0.01733  0.02621  -0.8839  0.111
6.424e+09  1.837  -0.1166  -0.001417  0.05891  0.05817  -0.003298  -0.7495  0.3577
6.425e+09  1.638  -0.7885  -0.01384  0.02447  -0.01094  0.008967  -0.5865  0.6423
6.426e+09  1.191  -1.338  0.01191  0.02071  -0.02324  -0.02323  -0.3669  0.848
6.428e+09  0.64  -1.687  -0.009376  -0.009737  0.05196  -0.02876  -0.07759  0.8804
6.429e+09  -0.0002108  -1.78  -0.01992  -0.02528  -0.04063  -0.02358  0.2304  0.8575
6.43e+09  -0.7134  -1.71  -0.007703  0.001508  0.004896  0.002092  0.5018  0.6664
6.431e+09  -1.288  -1.261  -0.02053  0.001232  -0.04694  -0.004726  0.713  0.4502
6.432e+09  -1.688  -0.6519  0.009994  0.0009328  0.009873  -0.04383  0.8495  0.2084
6.434e+09  -1.799  -0.007707  -0.04274  0.03088  0.05215  0.002395  0.8579  -0.08249
6.435e+09  -1.678  0.6572  -0.01857  0.02182  -0.007883  -0.05852  0.7913  -0.3946
6.436e+09  -1.349  1.255  0.04016  -0.001763  0.04027  0.02746  0.5618  -0.6189
6.438e+09  -0.7942  1.646  -0.03202  -0.003117  -0.001305  -0.0139  0.3623  -0.7858
6.439e+09  -0.1342  1.739  0.004843  -0.05895  0.0004425  -0.00542  0.1006  -0.8811
6.44e+09  0.532  1.677  0.02969  0.01795  -0.002131  0.03081  -0.2565  -0.7819
6.441e+09  1.109  1.304  0.06517  -0.0217  0.05566  0.03009  -0.4461  -0.6955
6.442e+09  1.524  0.827  -0.04946  -0.01734  -0.07522  0.01786  -0.6936  -0.4626
6.444e+09  1.745  0.1858  0.03014  0.02813  -0.07821  0.00829  -0.7951  -0.1798
6.445e+09  1.621  -0.4348  0.0523  0.02364  -0.0132  0.03397  -0.8485  0.06274
6.446e+09  1.349  -0.9836  -0.01284  0.004156  -0.0004732  -0.01409  -0.6958  0.3674
6.448e+09  0.9162  -1.367  0.0007182  0.01148  0.007867  0.02099  -0.5786  0.6201
6.449e+09  0.274  -1.586  -0.002806  -0.009752  0.04766  0.01552  -0.3428  0.7609
6.45e+09  -0.2958  -1.636  0.006237  0.03468  -0.04605  0.005077  -0.0886  0.8151
6.451e+09  -0.8162  -1.359  0.01  -0.02915  0.04296  0.03912  0.2344  0.8264
6.452e+09  -1.238  -0.9432  -0.02699  -0.01523  -0.06312  0.01752  0.5114  0.6864
6.454e+09  -1.536  -0.4476  0.01332  0.003326  -0.002137  0.00947  0.7207  0.4906
6.455e+09  -1.564  0.159  0.002638  0.00238  -0.01618  -0.01782  0.7334  0.1751
6.456e+09  -1.425  0.7175  -0.06562  -0.04305  0.04309  0.02469  0.8215  -0.1166
6.458e+09  -1.051  1.097  0.03557  -0.003896  -0.01598  -0.0251  0.686  -0.3033
6.459e+09  -0.4756  1.487  0.01676  0.01586  -0.03117  0.01876  0.5744  -0.5276
6.46e+09  -0.07411  1.58  -0.0005665  0.004867  -0.01365  0.02187  0.3503  -0.7499
6.461e+09  0.5366  1.378  -0.01735  0.02418  -0.01219  -0.03261  0.06148  -0.7931
6.462e+09  0.9571  1.123  0.01714  0.003544  0.02186  -0.01623  -0.1936  -0.7513
6.464e+09  1.345  0.6233  0.0008429  0.03132  0.02649  0.02062  -0.4698  -0.6944
6.465e+09  1.458  0.1426  0.002777  0.03701  0.0006135  0.04895  -0.6913  -0.4369
6.466e+09  1.376  -0.3683  -0.009195  -0.0264  0.01587  0.02593  -0.8066  -0.2025
6.468e+09  1.21  -0.8232  0.02073  -0.01826  -0.01478  0.06618  -0.8089  0.06097
6.469e+09  0.7795  -1.174  0.0009788  -0.04034  0.06262  0.04002  -0.7235  0.3776
6.47e+09  0.3191  -1.418  0.0068  0.0297  0.007146  0.0112  -0.5272  0.5974
6.471e+09  -0.228  -1.389  0.02203  0.02112  -0.01922  0.03896  -0.358  0.6654
6.472e+09  -0.6859  -1.264  -0.009364  0.0009184  -0.04183  0.0001218  -0.02576  0.7895
6.474e+09  -1.04  -0.8906  0.04223  -0.0348  0.04913  0.05387  0.2104  0.7704
6.475e+09  -1.315  -0.4014  -0.02613  -0.02681  0.007515  -0.03164  0.4776  0.6235
6.476e+09  -1.33  0.02968  0.02826  -0.01566  -0.06154  0.00545  0.682  0.4332
6.478e+09  -1.275  0.4722  -0.03156  -0.02288  0.04831  0.01118  0.7735  0.1564
6.479e+09  -1.046  0.9045  -0.005842  0.004794  0.04635  -0.02599  0.7963  -0.09461
6.48e+09  -0.6016  1.211  -0.02008  -0.02021  -0.05309  0.01065  0.7371  -0.3286
6.481e+09  -0.1791  1.34  -8.84e-05  -0.03382  -4.835e-05  -0.003619  0.5862  -0.5757
6.482e+09  0.3615  1.3  -0.01766  0.00429  0.02439  -0.00207  0.3266  -0.7312
6.484e+09  0.7207  1.081  0.02691  0.02703  0.04731  0.02375  0.05807  -0.7598
6.485e+09  1.062  0.7387  0.005395  0.01323  -0.01667  -0.04406  -0.197  -0.7294
6.486e+09  1.235  0.3  0.02715  0.0007145  -0.03113  -0.01529  -0.5033  -0.627
6.488e+09  0.7697  0.4227  -0.01412  -0.03082  0.6681  -0.2488  -0.5993  -0.423
6.489e+09  1.171  -0.5451  0.01677  0.05388  -0.05676  0.00731  -0.7577  -0.2339
6.49e+09  0.853  -0.9036  -0.009849  -3.508e-05  -0.002703  -0.01786  -0.7537  0.0846
6.491e+09  0.4824  -1.159  -0.02383  -0.04575  0.003886  -0.01615  -0.7173  0.3037
6.492e+09  0.03934  -1.307  -0.002132  -0.01506  -0.0166  -0.006111  -0.5012  0.5912
6.494e+09  -0.3663  -1.342  0.01513  0.007677  -0.01047  -0.1553  -0.32  0.6987
6.495e+09  -0.7373  -0.9664  -0.03175  -0.02325  0.03058  0.01527  -0.04049  0.7998
6.496e+09  -1.071  -0.6314  -0.008344  0.01637  -0.005871  -0.02198  0.2345  0.7684
6.498e+09  -1.271  -0.2342  -0.008996  0.003495  -0.02774  0.07986  0.4946  0.5918
6.499e+09  -1.242  0.236  0.02437  0.000365  0.004102  -0.02492  0.6112  0.394
6.5e+09  -0.1232  0.3715  0.003401  0.06451  -0.03461  -0.08761  0.7444  0.1623
6.501e+09  -0.8338  1.001  0.004206  -0.01425  -0.01579  0.0001339  0.754  -0.09135
6.502e+09  -0.4075  1.192  0.02046  0.02576  -0.008889  0.02508  0.6488  -0.3932
6.504e+09  -0.01243  1.211  -0.04619  -0.01925  -0.0128  -0.05174  0.494  -0.5881
6.505e+09  0.4694  1.189  0.01486  -0.0222  -0.03809  0.001569  0.2234  -0.73
6.506e+09  0.8319  0.9749  0.01834  -0.00114  -0.01  -0.01482  0.04353  -0.7804
6.508e+09  1.125  0.5752  0.0007905  -0.02045  -0.02037  0.0204  -0.2408  -0.7111
6.509e+09  1.3  0.1467  0.005793  -0.0003193  -0.04647  -0.02001  -0.5003  -0.5752
6.51e+09  1.211  -0.3065  0.02556  -0.01743  0.04498  -0.009852  -0.6825  -0.4059
6.511e+09  1.031  -0.7276  -0.006826  0.01986  0.001894  0.01396  -0.7678  -0.1162
6.512e+09  0.7583  -1.053  0.02723  -0.03477  0.007722  -0.05761  -0.7456  0.1403
6.514e+09  0.3611  -1.257  0.003394  -0.003609  -0.01221  -0.007283  -0.6476  0.3506
6.515e+09  -0.1192  -1.321  -0.008921  -0.02334  0.03899  -0.02199  -0.4936  0.544
6.516e+09  -0.5469  -1.173  0.01665  0.02848  -0.02923  -0.01838  -0.2664  0.7205
6.518e+09  -0.934  -0.9176  0.0209  -0.03161  -0.06019  -0.01945  0.01486  0.7016
6.519e+09  -1.172  -0.5134  -0.002729  0.01512  0.03852  0.01553  0.2886  0.6719
6.52e+09  -1.302  -0.103  -0.01769  -0.006274  0.007834  -0.04631  0.5202  0.547
6.521e+09  -1.319  0.4065  -0.02423  -0.005885  0.02811  0.0571  0.612  0.3871
6.522e+09  -1.106  0.8367  0.03032  0.00739  -0.004089  0.02332  0.7091  0.09604
6.524e+09  -0.7103  1.176  -0.04605  -0.005064  0.07376  -0.01765  0.7872  -0.1822
6.525e+09  -0.2746  1.33  0.001264  0.0006151  0.03365  -0.04763  0.6037  -0.3799
6.526e+09  0.2309  1.333  -6.994e-05  -0.0178  0.04993  0.005012  0.4408  -0.5426
6.528e+09  0.6474  1.214  0.008546  0.008928  -0.02281  0.0379  0.2107  -0.6959
6.529e+09  1.023  0.9007  -0.007439  0.009275  -0.01661  -0.03418  -0.05991  -0.7109
6.53e+09  1.279  0.4967  0.04401  0.0005557  0.02137  -0.005532  -0.2642  -0.6186
6.531e+09  1.449  0.04189  0.01391  0.002644  -0.03034  0.04093  -0.4635  -0.4527
6.532e+09  1.359  -0.4975  0.01428  0.007875  0.006241  0.007567  -0.5995  -0.3042
6.534e+09  1.119  -0.9366  -0.04733  -0.02121  0.01153  0.04024  -0.6253  -0.06143
6.535e+09  0.657  -1.293  -0.005924  -0.001054  0.01329  -0.02233  -0.6614  0.1633
6.536e+09  0.2214  -1.498  0.00953  0.003117  0.0007483  0.02816  -0.5646  0.3029
6.538e+09  -0.3315  -1.439  -0.0009345  -0.002325  -0.003999  -0.03321  -0.4547  0.4407
6.539e+09  -0.837  -1.274  -0.01674  0.01428  -0.03863  0.002168  -0.2556  0.6313
6.54e+09  -1.239  -0.8527  0.0007199  -0.02288  -0.01213  0.01985  -0.06316  0.6761
6.541e+09  -1.449  -0.3941  -0.04508  -0.0173  0.04715  0.02687  0.2073  0.6944
6.542e+09  -1.497  0.1848  -0.004879  0.008888  -0.01632  0.02817  0.4105  0.5892
6.544e+09  -1.407  0.6413  -0.008589  0.0112  -0.01294  -0.01087  0.5747  0.4313
6.545e+09  -1.071  1.147  -0.006481  0.006465  0.0399  -0.02951  0.73  0.1656
6.546e+09  -0.5603  1.539  0.006857  0.003543  0.0466  -0.02514  0.7282  -0.09929
6.548e+09  -0.0318  1.671  0.006612  -0.01261  0.03196  -0.03714  0.6824  -0.336
6.549e+09  0.563  1.528  -0.03523  -0.008727  -0.04438  -0.01024  0.4897  -0.5454
6.55e+09  1.04  1.228  -0.005522  -0.02774  -0.01532  -0.01125  0.2904  -0.7108
6.551e+09  1.472  0.7011  0.02288  -0.0004371  0.03894  0.02045  0.04021  -0.7295
6.552e+09  1.689  0.1834  0.01328  0.01724  0.02405  0.01151  -0.2447  -0.7237
6.554e+09  1.613  -0.4643  -0.0359  -0.02383  0.02744  0.004276  -0.4523  -0.6355
