# Hz S RI R 50
6.25e+09  0.9889  0.05103  -0.004185  -0.007623  -0.02044  -0.04116  0.1556  0.5104
6.251e+09  0.9233  -0.3076  0.01943  -0.02174  0.04774  0.02421  0.3857  0.3989
6.252e+09  0.7587  -0.6165  -0.01292  -0.008628  -0.001757  -0.02013  0.5205  0.2436
6.254e+09  0.4407  -0.9066  0.002321  0.01839  0.02313  0.01635  0.5767  0.009879
6.255e+09  0.1476  -1.032  -0.002983  0.007301  0.0002061  0.001968  0.614  -0.2498
6.256e+09  -0.2272  -0.9883  0.008119  -0.01662  -0.04247  0.008661  0.484  -0.4568
6.258e+09  -0.6106  -0.8523  -0.0005958  0.01008  0.02935  0.00824  0.2437  -0.6343
6.259e+09  -0.8485  -0.5919  0.004757  -0.004724  0.04195  0.02182  0.03615  -0.7066
6.26e+09  -0.9668  -0.2612  0.005721  8.302e-05  0.01487  -0.001073  -0.2033  -0.6418
6.261e+09  -0.973  0.03042  0.02138  -0.007842  0.05509  -0.0672  -0.4426  -0.5555
6.262e+09  -0.9131  0.4481  -0.009455  0.01115  0.007232  -0.01445  -0.628  -0.3523
6.264e+09  -0.719  0.7208  -0.003911  0.01494  -0.003786  -0.04062  -0.713  -0.1223
6.265e+09  -0.3558  0.9246  0.03359  -0.02914  -0.02951  -0.02424  -0.7217  0.1919
6.266e+09  -0.01557  1.023  0.006948  -0.006623  -0.03187  -0.03777  -0.6067  0.399
6.268e+09  0.3795  0.9551  -0.02214  -0.01254  -0.03037  -0.02046  -0.4086  0.6026
6.269e+09  0.6849  0.791  -0.01359  -8.845e-05  0.027  -0.02788  -0.1856  0.7038
6.27e+09  0.8929  0.4841  -0.01808  -0.02065  -0.01223  -0.03122  0.06433  0.7124
6.271e+09  0.9922  0.1265  0.001791  0.02141  -0.009454  0.03891  0.3042  0.6854
6.272e+09  0.9896  -0.1895  0.007146  0.03226  -0.01128  -0.0449  0.5505  0.5242
6.274e+09  0.8684  -0.5251  -0.01157  -0.04284  0.005776  0.04739  0.6795  0.3247
6.275e+09  0.5727  -0.7772  0.04574  -0.01736  0.03295  -0.00791  0.7884  0.003944
6.276e+09  0.3091  -0.9434  0.02722  -0.0008152  0.02641  0.01183  0.7059  -0.2127
6.278e+09  -0.1072  -0.967  0.02084  -0.01882  -0.003811  0.03967  0.6404  -0.426
6.279e+09  -0.4294  -0.9133  0.01291  0.04878  0.01229  -0.01333  0.4126  -0.6522
6.28e+09  -0.7749  -0.6665  -0.008641  -0.01139  0.01718  -0.0515  0.1948  -0.7686
6.281e+09  -0.9354  -0.3538  -0.007102  0.01943  0.01353  -0.03482  -0.1167  -0.7827
6.282e+09  -0.995  -0.02987  -0.01749  0.009505  -0.004943  0.03376  -0.3989  -0.6649
6.284e+09  -0.92  0.3272  -0.01127  0.0182  0.03382  0.01737  -0.5745  -0.5065
6.285e+09  -0.7283  0.6791  0.0377  -0.002591  -0.058  0.01644  -0.7254  -0.2913
6.286e+09  -0.4785  0.8579  0.01017  0.003176  -0.01758  -0.01276  -0.8011  0.01318
6.288e+09  -0.1294  0.9943  -0.001571  0.0009703  -0.02383  0.01815  -0.7539  0.2251
6.289e+09  0.2369  0.927  0.01428  -0.002516  0.04018  0.02028  -0.5962  0.5272
6.29e+09  0.5567  0.8044  0.02459  0.01445  -0.03398  -0.01018  -0.4018  0.6912
6.291e+09  0.8129  0.6336  -0.002985  -0.00837  -0.03584  0.005606  -0.1614  0.8226
6.292e+09  0.9536  0.2652  -0.003291  0.02031  -0.04263  -0.03969  0.1164  0.7807
6.294e+09  1.013  -0.09113  0.04245  0.01566  0.03761  0.008851  0.4097  0.6874
6.295e+09  0.9206  -0.4325  0.001623  0.002239  -0.007435  0.03831  0.6572  0.5368
6.296e+09  0.7044  -0.7336  0.02781  -9.896e-05  0.01465  0.01866  0.7588  0.3095
6.298e+09  0.3873  -0.947  0.04857  0.01931  -0.01001  0.02076  0.8409  -0.01954
6.299e+09  0.05528  -1.004  0.0225  -0.007623  -0.01757  -0.003843  0.7892  -0.2849
6.3e+09  -0.2956  -0.9898  0.006625  -0.006839  -0.03041  0.008189  0.673  -0.5408
6.301e+09  -0.6333  -0.8175  -0.01209  0.02496  0.006307  -0.03042  0.4289  -0.7377
6.302e+09  -0.8759  -0.5178  -0.005281  -0.00786  0.01133  -0.01919  0.1804  -0.811
6.304e+09  -0.927  -0.1911  -0.009875  0.02451  -0.002472  0.01052  -0.1528  -0.8624
6.305e+09  -0.9793  0.1682  -0.01248  0.0003362  -0.06538  -0.01767  -0.4139  -0.7371
6.306e+09  -0.8504  0.5723  0.001934  0.01205  0.0077  0.05077  -0.67  -0.5491
6.308e+09  -0.5595  0.7745  -0.01251  0.003179  0.0562  -0.007248  -0.8008  -0.315
6.309e+09  -0.3117  0.9649  0.02553  -0.001877  0.0353  0.003744  -0.8645  -0.00889
6.31e+09  0.0847  1.014  0.03732  -0.02164  0.02706  -0.02576  -0.823  0.2897
6.311e+09  0.4191  0.9461  0.0007457  0.00515  -0.006083  -0.003774  -0.6674  0.5258
6.312e+09  0.7278  0.7204  -0.001466  -0.006689  -0.008155  0.04156  -0.426  0.7783
6.314e+09  0.8962  0.4591  0.01823  -0.001649  -0.006836  -0.08202  -0.1696  0.8529
6.315e+09  1.047  0.0656  -0.02766  -0.006446  0.01256  0.04661  0.1481  0.8548
6.316e+09  0.9763  -0.2922  -0.01596  -0.01904  5.187e-05  0.02415  0.4446  0.7957
6.318e+09  0.8274  -0.621  -0.01095  0.02293  0.03234  -0.06202  0.6902  0.6038
6.319e+09  0.5484  -0.8712  0.01779  0.008986  -0.0533  0.02016  0.8334  0.3015
6.32e+09  0.1658  -1.046  -0.01925  0.005939  0.002271  0.01553  0.891  -0.006159
6.321e+09  -0.1464  -1.068  -0.02098  0.0289  0.01849  0.03773  0.8098  -0.2933
6.322e+09  -0.5284  -0.9096  -0.02479  -0.003814  -0.001554  0.04672  0.6999  -0.567
6.324e+09  -0.7627  -0.6808  -0.02705  0.01529  -0.01936  0.01123  0.4494  -0.7701
6.325e+09  -1.007  -0.3316  0.001479  0.01208  0.02808  0.02243  0.1672  -0.9061
6.326e+09  -1.063  -0.02187  -0.01161  -0.01429  -2.26e-05  0.05188  -0.1712  -0.8893
6.328e+09  -0.9789  0.3877  -0.004359  0.007403  0.009229  0.009137  -0.4233  -0.7936
6.329e+09  -0.8064  0.6837  -0.03294  0.003953  0.01091  -0.02614  -0.6666  -0.5689
6.33e+09  -0.4614  0.9268  -0.02699  -0.002832  0.01244  0.02817  -0.8565  -0.2959
6.331e+09  -0.0538  1.024  -0.02682  0.007567  -0.0153  0.009447  -0.9189  -0.0131
6.332e+09  0.2688  1.046  0.004919  -0.02097  -0.001422  -0.04272  -0.8566  0.2771
6.334e+09  0.5926  0.8734  -0.01189  0.02867  0.0001073  -0.04898  -0.7138  0.5934
6.335e+09  0.9228  0.5916  -0.0143  -0.01671  -0.03833  -0.01892  -0.503  0.7706
6.336e+09  1.078  0.2236  -0.01378  -0.06416  0.01482  -0.02066  -0.223  0.9007
6.338e+09  1.075  -0.1067  0.003904  -0.002756  0.02197  -0.03414  0.1425  0.9213
6.339e+09  0.996  -0.507  0.02727  0.009934  -0.004443  0.02274  0.4156  0.8276
6.34e+09  0.6957  -0.7679  0.03442  -0.01259  0.01944  0.02302  0.6876  0.6258
6.341e+09  0.3633  -1.056  -0.01011  0.001329  0.009291  0.01869  0.8818  0.3233
6.342e+09  0.03699  -1.106  -0.03271  0.01091  0.05124  -0.01257  0.925  0.02458
6.344e+09  -0.3749  -1.012  -0.02454  -0.006734  -0.008549  0.008005  0.8997  -0.277
6.345e+09  -0.7235  -0.8575  0.02254  -0.01274  0.00874  -0.07244  0.7604  -0.5226
6.346e+09  -0.957  -0.5754  -0.01116  0.0129  0.007191  0.03451  0.5105  -0.7748
6.348e+09  -1.094  -0.1683  0.01202  0.0282  0.0382  -0.01207  0.2387  -0.8872
6.349e+09  -1.086  0.2192  -0.0002502  0.01787  -0.03587  -0.0148  -0.08592  -0.925
6.35e+09  -0.8559  0.5735  0.02041  -0.005976  -0.04848  -0.0009366  -0.4678  -0.8457
6.351e+09  -0.6554  0.8954  -0.03884  -0.01006  0.003113  -0.003627  -0.6722  -0.6134
6.352e+09  -0.3227  1.092  -0.003946  -0.02406  -0.01366  -0.001834  -0.8734  -0.3658
6.354e+09  0.09659  1.073  0.01074  -0.001566  0.01285  0.03177  -0.9728  -0.06322
6.355e+09  0.4736  1.021  -0.002139  0.04054  -0.01398  0.01278  -0.9235  0.2826
6.356e+09  0.8088  0.7366  0.02123  0.04712  0.004047  -0.009302  -0.7939  0.5264
6.358e+09  1.04  0.4743  -0.01144  0.04703  -0.05449  0.02543  -0.5168  0.7793
6.359e+09  1.128  0.03434  0.008775  0.02876  0.001142  -0.04403  -0.2615  0.958
6.36e+09  1.108  -0.3392  -0.01389  -0.002138  -0.02406  -0.005693  0.1094  0.9517
6.361e+09  0.9169  -0.7397  -0.03355  -0.00493  0.04868  -0.002432  0.3918  0.827
6.362e+09  0.5795  -1.013  0.01615  0.01156  -0.01611  0.04591  0.6847  0.6869
6.364e+09  0.1868  -1.141  0.004933  -0.01359  0.02666  0.008061  0.8671  0.3787
6.365e+09  -0.2325  -1.147  -0.03283  0.01513  -0.03552  -0.0394  0.9492  0.05043
6.366e+09  -0.5973  -0.9999  0.01046  -0.005524  -0.0005883  0.02905  0.9162  -0.2631
6.368e+09  -0.9857  -0.7023  -0.02598  0.01894  0.003013  -0.02619  0.7989  -0.5624
6.369e+09  -1.153  -0.3658  0.003357  0.01754  0.05041  -0.02819  0.5855  -0.7607
6.37e+09  -1.19  0.06566  0.01774  0.002806  -0.01831  -0.034  0.2658  -0.9246
6.371e+09  -1.108  0.4451  0.004478  -0.01289  -0.02587  -0.02361  -0.09452  -0.9313
6.372e+09  -0.8443  0.8103  0.03095  0.01362  -0.005666  -0.01019  -0.399  -0.8071
6.374e+09  -0.4763  1.086  -0.02052  -0.01288  0.009672  -0.02033  -0.7436  -0.6194
6.375e+09  -0.08433  1.224  0.006236  -0.05027  -0.006126  0.01315  -0.8438  -0.3921
6.376e+09  0.3685  1.229  -0.0014  -0.001295  0.02239  0.02468  -0.9327  -0.08441
6.378e+09  0.7614  0.9652  0.01654  -0.002987  -0.05369  -0.01134  -0.9215  0.2468
6.379e+09  1.068  0.6261  0.004109  0.0214  0.04826  -0.001359  -0.7944  0.5237
6.38e+09  1.231  0.2352  0.01678  0.008894  -0.06081  -0.009237  -0.5891  0.794
6.381e+09  1.246  -0.233  0.03367  -0.05322  0.006162  -0.07456  -0.2659  0.8607
6.382e+09  1.082  -0.6602  0.001883  0.01057  0.001461  -0.02828  0.07005  0.9191
6.384e+09  0.8223  -1.053  0.05252  -0.003353  -0.00265  0.002075  0.3619  0.8701
6.385e+09  0.4142  -1.257  -0.006449  0.02507  0.01771  -0.0032  0.6621  0.7214
6.386e+09  -0.0885  -1.363  0.003022  -0.03412  -0.0412  -0.03839  0.8572  0.4362
6.388e+09  -0.5691  -1.15  -0.02384  -0.01991  -0.0385  0.002014  0.9249  0.1319
6.389e+09  -0.9225  -0.9395  0.01329  -0.002949  -0.05187  0.009772  0.9398  -0.1829
6.39e+09  -1.213  -0.5257  0.01859  0.03674  -0.04193  -0.03105  0.7994  -0.5017
6.391e+09  -1.396  -0.04284  -0.01169  0.04985  0.03774  0.02993  0.6005  -0.7592
6.392e+09  -1.283  0.4219  -0.01148  0.01926  0.01988  0.01802  0.2771  -0.9
6.394e+09  -1.07  0.8935  0.02458  -0.0191  0.02215  -0.003208  -0.005897  -0.9494
6.395e+09  -0.652  1.194  0.006477  -0.006455  -0.0332  0.03447  -0.3091  -0.8503
6.396e+09  -0.2307  1.393  -0.00556  -0.02453  -0.003019  0.004304  -0.6204  -0.7113
6.398e+09  0.2482  1.408  -0.03369  0.027  -0.02947  -0.01377  -0.7824  -0.4233
6.399e+09  0.7678  1.291  -0.02763  0.03576  0.01513  -0.04084  -0.8835  -0.1764
6.4e+09  1.186  0.8206  -0.01341  -0.01858  0.03193  0.007589  -0.8994  0.1252
6.401e+09  1.501  0.264  0.0522  -0.03148  0.03871  -0.003481  -0.801  0.4932
6.402e+09  1.542  -0.2563  0.01674  0.0134  -0.04806  0.0294  -0.5714  0.7429
6.404e+09  1.258  -0.7361  -0.03862  0.004859  0.03007  -0.01814  -0.2985  0.8026
6.405e+09  1.022  -1.07  -0.04823  0.008  -0.03125  0.009145  0.03227  0.8959
6.406e+09  0.498  -1.412  0.01959  0.003917  0.01559  0.03259  0.2907  0.8857
6.408e+09  -0.002062  -1.567  0.001401  -0.01231  0.003895  -0.006543  0.5734  0.7185
6.409e+09  -0.5974  -1.436  -0.01328  -0.02405  0.02019  0.01572  0.7962  0.4843
6.41e+09  -1.184  -1.098  -0.01792  -0.02226  -0.03485  0.04087  0.874  0.1508
6.411e+09  -1.505  -0.5685  -0.001516  -0.01943  -0.01501  -0.01186  0.9117  -0.1261
6.412e+09  -1.647  -0.02398  -0.001453  0.03727  0.003931  -0.01518  0.7863  -0.4135
6.414e+09  -1.485  0.5875  -0.02213  -0.03819  0.005364  0.01625  0.6027  -0.6376
6.415e+09  -1.164  1.086  -0.02213  -0.01658  -0.001443  0.001912  0.3642  -0.9072
6.416e+09  -0.6616  1.495  -0.06246  -0.007048  -0.02687  -0.02199  0.0542  -0.9021
6.418e+09  -0.07691  1.6  0.01079  0.03108  0.03939  -0.02627  -0.3274  -0.8425
6.419e+09  0.5145  1.574  0.0326  -0.0113  0.004069  0.04104  -0.5898  -0.7083
6.42e+09  1.095  1.283  0.04775  -0.01973  -0.002589  -0.04089  -0.7578  -0.4391
6.421e+09  1.474  0.7564  0.02432  -0.03618  0.0291  0.00337  -0.8668  -0.1551
6.422e+09  1.674  0.1886  0.012  0.00898  -0.0317  -0.04264  -0.8655  0.1432
6.424e+09  1.608  -0.4729  -0.0199  -0.03585  0.05601  -0.08467  -0.7809  0.3531
6.425e+09  1.31  -0.9929  -0.03369  0.02263  -0.02355  0.02782  -0.6203  0.6763
6.426e+09  0.891  -1.451  -0.0413  -0.06089  0.03231  -0.02034  -0.3544  0.8037
6.428e+09  0.2667  -1.64  -0.03888  -0.03535  0.02143  0.00293  -0.07478  0.8425
6.429e+09  -0.3483  -1.626  0.01666  -0.003422  0.03052  -0.02205  0.226  0.8212
6.43e+09  -0.9365  -1.383  -0.02569  -0.007116  0.006997  0.01213  0.4778  0.6627
6.431e+09  -1.357  -0.9869  -0.004234  0.01459  0.02679  0.02816  0.766  0.4694
6.432e+09  -1.585  -0.3996  -0.04615  -0.02508  0.008197  -0.01539  0.8865  0.199
6.434e+09  -1.628  0.2561  -0.00046  0.01183  -0.03854  -0.03072  0.8882  -0.08995
6.435e+09  -1.386  0.846  0.05605  -0.03472  -0.02799  -0.0579  0.8017  -0.3818
6.436e+09  -0.9777  1.312  0.008613  -0.026  0.03431  -0.01087  0.612  -0.6185
6.438e+09  -0.4347  1.584  -0.02875  0.03311  0.01138  -0.01382  0.335  -0.7795
6.439e+09  0.1776  1.65  0.008019  -0.01237  -0.01567  0.04477  0.01779  -0.8389
6.44e+09  0.74  1.404  0.04613  0.01313  0.0401  0.01722  -0.2565  -0.8268
6.441e+09  1.186  1.023  0.006627  0.05734  -0.0009092  -0.01438  -0.4871  -0.666
6.442e+09  1.488  0.4971  -0.008441  -0.0667  -0.001082  0.009432  -0.7008  -0.4746
6.444e+09  1.609  -0.07093  -0.005811  0.01836  0.004229  -0.02715  -0.8197  -0.1837
6.445e+09  1.397  -0.6609  0.01522  -0.02658  -0.02387  0.005063  -0.8826  0.07534
6.446e+09  1.074  -1.1  0.03295  -0.0113  0.01075  -0.0147  -0.7658  0.3271
6.448e+09  0.6941  -1.356  0.001235  -0.04101  -0.04732  -0.005833  -0.5918  0.591
6.449e+09  0.08595  -1.516  0.02882  -0.05728  0.0427  -0.003286  -0.3077  0.7717
6.45e+09  -0.4466  -1.369  0.02305  -0.03608  0.0251  0.01149  -0.02705  0.8112
6.451e+09  -0.9617  -1.135  0.02573  0.03296  0.03534  -0.01369  0.1445  0.8012
6.452e+09  -1.233  -0.7438  -0.01117  0.003367  0.0004522  -0.001849  0.4918  0.7088
6.454e+09  -1.435  -0.1875  0.0001464  -0.005771  0.05271  -0.001615  0.6538  0.4561
6.455e+09  -1.394  0.3244  -0.01629  0.01208  -0.002748  0.002363  0.7496  0.1793
6.456e+09  -1.137  0.8081  0.01769  0.04118  0.001691  0.01805  0.7786  -0.0982
6.458e+09  -0.8218  1.156  0.01667  0.01785  0.0111  -0.002107  0.7782  -0.3615
6.459e+09  -0.3673  1.322  -0.0008725  0.01978  0.01994  0.009589  0.5803  -0.6073
6.46e+09  0.1917  1.378  -0.02562  -0.02112  0.01991  0.02208  0.3331  -0.7516
6.461e+09  0.6692  1.269  -0.01809  -0.001117  -0.002409  0.0525  0.09232  -0.8148
6.462e+09  1.051  0.8582  0.006722  0.01166  -0.02845  0.01451  -0.1798  -0.7995
6.464e+09  1.299  0.4474  0.001788  -0.03035  0.01525  0.04239  -0.3961  -0.6886
6.465e+09  1.318  0.02349  0.0163  0.009603  -0.00766  -0.005653  -0.6628  -0.4285
6.466e+09  1.164  -0.5182  0.0384  -0.03119  -0.00643  -0.02632  -0.7623  -0.2121
6.468e+09  0.953  -0.9123  -0.003947  0.003865  0.03189  9.882e-05  -0.7981  0.08142
6.469e+09  0.5537  -1.153  0.01668  0.004277  0.03758  -0.0125  -0.7122  0.3613
6.47e+09  0.1818  -1.34  -0.01738  0.001132  0.03444  -0.006937  -0.5304  0.5571
6.471e+09  -0.3364  -1.193  0.002691  0.05192  -0.03626  -0.03596  -0.3217  0.6951
6.472e+09  -0.736  -1.037  0.01124  0.006364  -0.05523  0.003863  -0.001371  0.8161
6.474e+09  -1.072  -0.7313  0.02559  -0.008505  -0.01109  -0.03399  0.2112  0.7445
6.475e+09  -1.288  -0.3167  0.002366  -0.01975  -0.01111  0.004552  0.4402  0.6412
6.476e+09  -1.244  0.2027  0.03708  0.02357  0.0464  0.009311  0.6712  0.4764
6.478e+09  -1.118  0.5491  0.01919  0.01239  0.02699  -0.0262  0.7829  0.1949
6.479e+09  -0.8092  0.9273  0.01174  0.03054  -0.006141  -0.02963  0.7975  -0.06572
6.48e+09  -0.4118  1.194  -0.01513  0.06461  -0.0261  -0.04697  0.7318  -0.343
6.481e+09  -0.04882  1.217  0.01728  0.04918  -0.001452  -0.007321  0.5353  -0.5802
6.482e+09  0.4369  1.169  0.003358  0.01719  -0.001284  -0.01078  0.3385  -0.7278
6.484e+09  0.7565  0.9009  0.005898  -0.01406  -0.01864  0.00454  0.04064  -0.8026
6.485e+09  1.042  0.5717  -0.01216  0.006325  -0.02665  -0.003773  -0.2183  -0.752
6.486e+09  1.18  0.1839  0.001557  0.006636  0.04856  -0.03822  -0.4695  -0.6151
6.488e+09  1.575  0.3496  0.02943  -0.02724  -0.09926  -0.7091  -0.5828  -0.4456
6.489e+09  0.9875  -0.6833  -0.01877  0.009233  -0.003575  0.02869  -0.77  -0.2109
6.49e+09  0.6822  -0.9738  0.04502  0.001956  0.001196  -0.03873  -0.7711  0.1058
6.491e+09  0.3743  -1.147  -0.01356  -0.0108  -0.03346  -0.01849  -0.6846  0.3433
6.492e+09  -0.07717  -1.192  -0.005679  -0.01596  -0.004376  0.03303  -0.5119  0.579
6.494e+09  -0.4715  -0.9424  0.01804  -0.03642  0.1132  0.08497  -0.2913  0.7203
6.495e+09  -0.789  -0.8526  -0.034  0.03419  -0.01403  0.04909  -0.06848  0.7442
6.496e+09  -1.107  -0.4735  0.01278  0.02602  -0.006265  0.01382  0.2326  0.791
6.498e+09  -1.167  -0.06808  -0.01589  0.006268  -0.0139  -0.04544  0.4373  0.6422
6.499e+09  -1.163  0.2888  -0.000492  0.01768  -0.01213  -0.001888  0.619  0.4077
6.5e+09  -0.5085  1.54  -0.005814  0.01001  0.02042  0.01525  0.7842  0.1644
6.501e+09  -0.6624  0.9584  0.008328  0.01578  -0.03291  0.03509  0.7784  -0.1166
6.502e+09  -0.3037  1.16  0.03348  0.001438  -0.04505  -0.05617  0.6465  -0.3722
6.504e+09  0.1492  1.205  0.003522  0.02616  0.01818  0.002396  0.5143  -0.5492
6.505e+09  0.5292  1.075  0.01009  -0.01655  -0.04691  -0.03977  0.2947  -0.6971
6.506e+09  0.8481  0.8029  -0.004861  -0.001257  0.007249  -0.0461  0.05624  -0.7417
6.508e+09  1.119  0.4558  0.02779  -0.00169  0.05247  -0.007912  -0.2477  -0.7309
6.509e+09  1.229  0.09837  0.007231  0.0001759  -0.02782  -0.01686  -0.4905  -0.5822
6.51e+09  1.137  -0.4058  0.007951  -0.001246  0.0002038  -0.01668  -0.6427  -0.3603
6.511e+09  0.8978  -0.767  -0.008671  -0.013  -0.001405  -0.02524  -0.7692  -0.1472
6.512e+09  0.5707  -1.02  -0.05519  -0.009686  0.009988  -0.0002942  -0.7354  0.1163
6.514e+09  0.203  -1.147  -0.004008  0.02588  0.02317  -0.01537  -0.6589  0.3856
6.515e+09  -0.1843  -1.155  -0.007964  -0.03631  0.0308  -0.00475  -0.4368  0.5924
6.516e+09  -0.6115  -1.053  0.02937  0.0003482  -0.02574  -0.0394  -0.2505  0.7202
6.518e+09  -0.9747  -0.8142  -0.0352  0.006279  -0.01204  -0.0134  0.04628  0.7569
6.519e+09  -1.136  -0.4074  -0.009246  -0.03751  -0.003274  -0.002865  0.2537  0.6863
6.52e+09  -1.258  0.01128  -0.01631  -0.01406  -0.01803  -0.06433  0.4765  0.5567
6.521e+09  -1.173  0.4307  0.002714  -0.03753  -0.005381  0.02516  0.6404  0.3481
6.522e+09  -0.91  0.7964  -0.0193  -0.004878  -0.001814  0.05853  0.7698  0.06287
6.524e+09  -0.6095  1.121  -0.00442  0.02352  0.04248  0.01073  0.7033  -0.1722
6.525e+09  -0.2226  1.231  0.01205  -0.009172  0.06302  0.05666  0.5827  -0.4083
6.526e+09  0.2956  1.224  -0.01948  0.01932  -0.02853  0.03959  0.4453  -0.5539
6.528e+09  0.6633  1.035  0.02027  0.05052  0.0376  0.01974  0.2137  -0.6911
6.529e+09  1.051  0.7709  0.006809  -0.01606  0.04106  0.0008172  -0.05404  -0.7094
6.53e+09  1.234  0.3732  -0.01556  -0.01361  -0.009204  0.01209  -0.2584  -0.5974
6.531e+09  1.321  -0.1176  -0.02743  0.002696  -0.01825  0.03773  -0.4711  -0.4707
6.532e+09  1.188  -0.6168  -0.01437  -0.001884  -0.06601  -0.02852  -0.6305  -0.2988
6.534e+09  0.9943  -0.9638  0.01371  0.0106  -0.01556  -0.01803  -0.637  -0.09313
6.535e+09  0.5653  -1.27  -0.02462  0.01431  0.01614  0.06553  -0.6144  0.1362
6.536e+09  0.07218  -1.297  0.01241  0.0009032  0.032  -0.01931  -0.5631  0.2884
6.538e+09  -0.4465  -1.32  -0.003107  -0.007175  0.008309  -0.0184  -0.462  0.4272
6.539e+09  -0.8703  -1.082  0.009167  0.001213  -0.006267  0.008115  -0.2517  0.5941
6.54e+09  -1.222  -0.7679  0.003123  -0.008682  -0.00159  -0.04353  -0.04884  0.6861
6.541e+09  -1.397  -0.2293  0.03351  -0.0003058  -0.01456  0.001358  0.22  0.657
6.542e+09  -1.415  0.2262  0.01677  -0.004261  -0.04564  -0.002699  0.3998  0.5995
6.544e+09  -1.245  0.7211  0.0004854  0.02298  -0.003502  -0.005453  0.5983  0.4001
6.545e+09  -0.8546  1.152  -0.01999  -0.02322  0.06702  -0.01046  0.7291  0.1719
6.546e+09  -0.4046  1.388  0.03427  -0.009198  0.008096  -0.004911  0.7104  -0.0632
6.548e+09  0.08559  1.465  0.008381  -0.01846  0.0001638  0.03641  0.6697  -0.3282
6.549e+09  0.5986  1.368  -0.000682  0.0007382  0.01698  0.01929  0.5231  -0.5556
6.55e+09  1.086  1.041  -0.01036  0.003531  -0.009072  0.02127  0.2645  -0.6646
6.551e+09  1.429  0.603  0.01108  0.007354  -0.06211  0.0376  0.01217  -0.7069
6.552e+09  1.531  0.1276  -0.001328  -0.04095  -0.01105  -0.05652  -0.2482  -0.7125
