# Hz S RI R 50
6.25e+09  0.1354  0.9116  -0.01298  0.009554  -0.01487  0.03227  0.1497  0.4788
6.251e+09  0.4226  0.8593  -0.009236  -0.03738  0.03308  0.006265  0.3704  0.3864
6.252e+09  0.7189  0.6616  -0.02821  -0.003009  -0.04352  0.004343  0.5257  0.2385
6.254e+09  0.8947  0.271  0.02127  -0.03474  0.03363  0.05362  0.5953  0.02825
6.255e+09  0.9344  0.01724  -0.01949  -0.01248  -0.01554  0.009958  0.5736  -0.2456
6.256e+09  0.8537  -0.2826  0.007051  0.00186  0.01016  -0.003588  0.4494  -0.4175
6.258e+09  0.7308  -0.6112  -0.003077  0.02039  -0.02693  0.02251  0.3166  -0.5912
6.259e+09  0.5026  -0.7785  0.02046  -0.001638  0.01865  -0.06862  0.02844  -0.6781
6.26e+09  0.151  -0.8897  0.02334  -0.006118  -0.01188  0.02229  -0.233  -0.654
6.261e+09  -0.1916  -0.918  -0.002515  0.01122  0.02563  0.01763  -0.4305  -0.524
6.262e+09  -0.4279  -0.8158  -0.006877  -0.001543  -0.003277  -0.02574  -0.6014  -0.3553
6.264e+09  -0.7261  -0.6372  0.01227  0.002284  -0.07979  0.02099  -0.695  -0.105
6.265e+09  -0.8616  -0.3264  0.01548  0.02218  -0.02312  -0.04124  -0.6856  0.1754
6.266e+09  -0.9136  -0.01065  -0.00754  0.009266  -0.02502  -0.04509  -0.6199  0.3679
6.268e+09  -0.8704  0.2741  0.01272  -0.009493  -0.0476  -0.0162  -0.4258  0.578
6.269e+09  -0.6857  0.5552  0.01362  -0.01256  -0.02034  0.1077  -0.1757  0.6979
6.27e+09  -0.4818  0.76  0.0241  0.003018  -0.001841  -0.03113  0.05425  0.7564
6.271e+09  -0.162  0.9283  -0.0124  0.02415  0.004141  -0.02414  0.3436  0.6792
6.272e+09  0.1736  0.9192  0.02445  -0.005969  0.01902  0.03739  0.5258  0.5124
6.274e+09  0.4368  0.7769  -0.0006872  -0.02502  -0.02184  -0.03069  0.6889  0.2622
6.275e+09  0.7401  0.579  -0.02105  0.0005402  -0.02399  -0.02647  0.7486  0.06118
6.276e+09  0.8281  0.3302  0.0003041  0.02517  -0.002075  -0.006014  0.7397  -0.2137
6.278e+09  0.9719  0.0007352  -0.002789  0.0006859  -0.006501  0.01957  0.6159  -0.4922
6.279e+09  0.8811  -0.3499  -0.008192  -0.003279  0.001464  -0.05682  0.4192  -0.6757
6.28e+09  0.734  -0.6853  -0.003189  -0.006144  -0.0235  -0.05281  0.1751  -0.7698
6.281e+09  0.4171  -0.8192  -0.01096  -0.01381  0.01993  -0.03065  -0.1302  -0.7603
6.282e+09  0.08768  -0.8689  0.007869  -0.006218  -0.03865  0.01439  -0.3581  -0.6868
6.284e+09  -0.2293  -0.8864  0.004361  0.0216  0.005201  -0.03906  -0.6059  -0.5121
6.285e+09  -0.5224  -0.8053  -0.002382  0.03399  0.01582  -0.01745  -0.7335  -0.28
6.286e+09  -0.7483  -0.5357  0.007685  0.01016  -0.01885  -0.03892  -0.7728  -0.03437
6.288e+09  -0.8842  -0.2621  0.0208  -0.02082  -0.006394  0.03705  -0.7543  0.255
6.289e+09  -0.9292  0.05974  0.0009721  0.02993  0.03402  -0.03077  -0.6241  0.5137
6.29e+09  -0.8333  0.4018  0.006012  0.01333  -0.06213  -0.006142  -0.4231  0.7055
6.291e+09  -0.6469  0.6971  -0.0007626  -0.01022  0.01838  0.02607  -0.1375  0.7777
6.292e+09  -0.4146  0.8915  -0.02555  -0.009158  -0.01823  0.05443  0.148  0.8078
6.294e+09  -0.09137  0.9629  0.01055  0.01094  0.01063  -0.02436  0.3813  0.7551
6.295e+09  0.2378  0.944  0.01911  -0.01229  0.02886  0.006216  0.6368  0.5257
6.296e+09  0.5482  0.8366  0.01402  0.01856  0.008214  0.004231  0.7574  0.3079
6.298e+09  0.8447  0.5261  -0.0174  0.01994  -0.00839  0.01404  0.8275  0.04687
6.299e+09  0.9894  0.2273  -0.01888  0.01223  0.02534  -0.0004136  0.7708  -0.2681
6.3e+09  0.9346  -0.08045  -0.04171  -0.0323  -0.009545  -0.01427  0.645  -0.5199
6.301e+09  0.8963  -0.4076  -0.02788  0.006871  -0.05213  -0.008442  0.406  -0.7183
6.302e+09  0.6921  -0.698  -0.0115  -0.0126  -0.03392  0.0129  0.1223  -0.8018
6.304e+09  0.2979  -0.8914  0.00451  0.006543  0.007351  -0.007791  -0.126  -0.8596
6.305e+09  0.04804  -0.9275  0.02597  -0.01103  -0.02499  -0.009255  -0.4334  -0.7559
6.306e+09  -0.3368  -0.9226  0.02197  -0.01035  -0.014  0.004001  -0.6599  -0.569
6.308e+09  -0.5669  -0.7912  -0.008251  -0.004355  -0.004766  -0.007805  -0.811  -0.2963
6.309e+09  -0.8446  -0.5261  0.01846  0.03038  -0.01288  0.04622  -0.8692  -0.004394
6.31e+09  -0.9556  -0.1356  -0.03385  0.01073  -0.0005527  0.0008185  -0.8294  0.2777
6.311e+09  -0.9466  0.1658  0.02082  0.008351  -0.005028  -0.03536  -0.6451  0.5538
6.312e+09  -0.8686  0.4564  -0.01168  -0.01108  -0.06178  -0.01653  -0.4536  0.7747
6.314e+09  -0.5964  0.8174  0.008135  -0.002515  0.01484  -0.009703  -0.1485  0.8533
6.315e+09  -0.339  0.945  0.01216  0.005928  -0.03348  -0.02819  0.1434  0.8661
6.316e+09  0.05826  1.05  0.006167  0.02228  0.0338  -0.06594  0.4332  0.7371
6.318e+09  0.3825  0.9612  0.009252  0.04945  -0.009898  0.00761  0.6655  0.5673
6.319e+09  0.6417  0.7428  -0.0003428  -0.006239  0.04043  -0.01231  0.8362  0.3157
6.32e+09  0.9015  0.5349  -0.04537  -0.007203  -0.009896  -0.04187  0.8942  0.0355
6.321e+09  1.025  0.1357  0.007476  0.001276  0.01772  -0.02333  0.8658  -0.2982
6.322e+09  1.005  -0.2273  -0.03049  -0.002119  -0.02038  0.02619  0.7033  -0.5353
6.324e+09  0.893  -0.6344  0.009655  -0.004473  0.003368  -0.02726  0.458  -0.7327
6.325e+09  0.6273  -0.8704  0.02759  -0.0003362  -0.006571  -0.0234  0.1741  -0.9135
6.326e+09  0.3207  -0.9513  0.01655  0.02592  0.005864  -0.01547  -0.1716  -0.8769
6.328e+09  -0.09498  -1.035  0.02032  0.009403  0.007554  0.004441  -0.4511  -0.78
6.329e+09  -0.4585  -0.9579  -0.02585  0.01348  0.0244  -0.05515  -0.6681  -0.6169
6.33e+09  -0.7772  -0.745  0.03202  -0.01357  0.07972  -0.01922  -0.8003  -0.3224
6.331e+09  -1.005  -0.4139  -0.01865  0.005313  -0.01516  0.02729  -0.8924  -0.003213
6.332e+09  -1.039  -0.07462  -0.01813  0.01561  0.03276  -0.01087  -0.8932  0.3
6.334e+09  -1.018  0.3188  -0.01936  0.006471  0.02006  0.06078  -0.7081  0.5709
6.335e+09  -0.9058  0.6586  0.00998  -0.006887  -0.01112  -0.0002458  -0.5262  0.8132
6.336e+09  -0.61  0.9298  0.02342  0.007626  0.03887  -0.01682  -0.21  0.902
6.338e+09  -0.2457  1.114  -0.0121  0.002616  0.0004797  0.005969  0.1134  0.8967
6.339e+09  0.1034  1.109  0.01894  -0.02333  -0.02862  0.01241  0.4413  0.8444
6.34e+09  0.5521  1.01  0.05368  -0.01904  0.02345  0.001915  0.6923  0.6384
6.341e+09  0.8219  0.707  0.03324  0.0237  0.01284  0.01076  0.8647  0.3476
6.342e+09  1.072  0.3923  -0.001299  -0.03029  -0.02597  -0.007485  0.9468  0.03876
6.344e+09  1.146  -0.0104  0.01103  -0.00471  -0.04159  0.01911  0.8879  -0.298
6.345e+09  1.066  -0.3555  -0.008547  -0.01113  0.01327  -0.007556  0.7336  -0.5814
6.346e+09  0.8909  -0.7582  -0.01564  0.04973  0.04144  -0.007023  0.5253  -0.7846
6.348e+09  0.6116  -1.004  0.02585  0.000884  0.002132  0.002718  0.2095  -0.8752
6.349e+09  0.1221  -1.132  0.02279  0.008489  0.06497  -0.009551  -0.1073  -0.9342
6.35e+09  -0.2213  -1.154  -0.02777  0.006558  0.03452  0.01111  -0.4483  -0.7999
6.351e+09  -0.5785  -1.068  -0.0201  -0.02377  0.0553  0.01676  -0.6924  -0.66
6.352e+09  -0.96  -0.7088  0.005776  0.003118  -0.01426  -0.04893  -0.8808  -0.426
6.354e+09  -1.107  -0.3282  0.02466  0.02346  -0.02751  0.006088  -0.9236  -0.04128
6.355e+09  -1.216  0.09913  -0.0017  0.01572  -0.02841  -0.03166  -0.9265  0.226
6.356e+09  -1.075  0.5495  -0.01895  -0.0156  -0.007854  -0.01023  -0.7372  0.5464
6.358e+09  -0.8759  0.841  0.004255  -0.002027  -0.02906  0.01675  -0.5113  0.764
6.359e+09  -0.5017  1.124  -0.03834  -0.05269  0.02311  0.03543  -0.2245  0.9167
6.36e+09  -0.08584  1.223  -0.01298  -0.02167  -0.006866  -0.01125  0.1106  0.9471
6.361e+09  0.3762  1.233  -0.02753  -0.036  0.06279  0.007385  0.4088  0.8643
6.362e+09  0.7701  0.9636  0.03071  0.01424  -0.0392  -0.004288  0.6449  0.6695
6.364e+09  1.077  0.6521  -0.009483  0.02425  -0.001252  -0.009498  0.8635  0.437
6.365e+09  1.255  0.2222  -0.00213  -0.01688  0.003058  -0.00402  0.9459  0.04329
6.366e+09  1.236  -0.1906  0.004788  -0.004345  0.01283  -0.006641  0.9225  -0.2609
6.368e+09  1.066  -0.6188  0.0102  -0.02836  -0.04897  -0.0525  0.7765  -0.5576
6.369e+09  0.758  -0.995  0.02327  0.01633  0.06411  0.001539  0.534  -0.8142
6.37e+09  0.4385  -1.153  -0.01763  -0.01495  -0.01021  0.008806  0.2454  -0.9264
6.371e+09  -0.05616  -1.294  0.01562  -0.004203  0.02281  0.01972  -0.1084  -0.9016
6.372e+09  -0.4982  -1.194  -0.02219  0.007828  -0.03422  -0.0393  -0.3623  -0.8424
6.374e+09  -0.8951  -1.001  0.02707  0.01398  -0.02933  0.03909  -0.7109  -0.683
6.375e+09  -1.167  -0.5816  -0.01888  0.001844  -0.001329  -0.004825  -0.8594  -0.41
6.376e+09  -1.294  -0.121  -0.05914  0.005961  -0.01001  0.01755  -0.9953  -0.1021
6.378e+09  -1.283  0.3122  0.003219  0.01467  0.008944  0.01662  -0.9286  0.2306
6.379e+09  -1.09  0.7634  -0.009774  0.01322  0.009648  -0.04469  -0.7576  0.5552
6.38e+09  -0.7952  1.074  0.007511  0.0384  -0.009766  -0.01064  -0.5757  0.7854
6.381e+09  -0.3183  1.339  -0.01054  0.009924  -0.006274  -0.0003363  -0.2494  0.9274
6.382e+09  0.1635  1.424  0.00771  -0.04617  0.02592  0.04533  0.04823  0.9287
6.384e+09  0.6245  1.252  -0.001023  -0.007291  0.008339  -0.01103  0.3504  0.8432
6.385e+09  0.9966  0.8606  0.01572  -0.01009  -0.03371  0.0425  0.6432  0.6983
6.386e+09  1.271  0.4858  0.01413  0.01753  0.0004938  0.04041  0.8299  0.4195
6.388e+09  1.422  0.04099  0.005474  0.01493  0.006754  0.03037  0.8974  0.08633
6.389e+09  1.293  -0.4711  0.04894  -0.01052  -0.03428  -0.03729  0.8996  -0.1653
6.39e+09  1.062  -0.8711  0.03254  -0.02173  -0.001682  -0.004099  0.8327  -0.4845
6.391e+09  0.6273  -1.26  0.01399  -0.007323  0.01116  0.002241  0.5811  -0.7617
6.392e+09  0.2187  -1.386  0.01445  -0.02062  -0.004202  -0.01103  0.282  -0.8757
6.394e+09  -0.2853  -1.372  -0.0609  0.004822  -0.009335  0.001194  -0.01933  -0.9264
6.395e+09  -0.7758  -1.232  0.002576  0.04226  -0.05752  0.00102  -0.3542  -0.8451
6.396e+09  -1.131  -0.8624  0.008915  -0.0273  -0.00947  0.004597  -0.6184  -0.6672
6.398e+09  -1.347  -0.3563  -0.0001495  0.03675  -0.008191  -0.03052  -0.7976  -0.4496
6.399e+09  -1.426  0.1092  -0.002226  0.04327  -0.0002699  0.006319  -0.9115  -0.1494
6.4e+09  -1.272  0.5597  -0.004174  0.02869  0.03252  -0.01807  -0.8885  0.1746
6.401e+09  -0.979  1.012  -0.02201  0.02325  -0.01603  -0.05668  -0.7631  0.4838
6.402e+09  -0.5496  1.253  0.01289  -0.0474  0.03301  -0.05594  -0.6007  0.7292
6.404e+09  -0.07031  1.387  -0.0003174  0.0255  0.02629  0.009204  -0.2965  0.8659
6.405e+09  0.409  1.368  0.02097  0.02133  -0.01835  -0.002552  0.03759  0.9383
6.406e+09  0.8376  1.094  -0.05472  0.001451  0.03156  0.03355  0.2797  0.8605
6.408e+09  1.177  0.8074  0.02755  -0.05134  0.03527  0.02109  0.6045  0.664
6.409e+09  1.392  0.3326  0.01237  -0.0386  -0.01231  -0.005608  0.8001  0.4755
6.41e+09  1.385  -0.1805  -0.02151  -0.04953  -0.02902  0.001169  0.9123  0.121
6.411e+09  1.27  -0.672  0.01341  -0.005278  -0.05577  0.01905  0.8837  -0.09219
6.412e+09  0.8755  -1.071  -0.04045  0.05602  -0.0263  0.001644  0.7576  -0.4338
6.414e+09  0.4871  -1.287  -0.006157  0.02602  -0.00659  0.01148  0.5978  -0.7355
6.415e+09  -0.004083  -1.413  0.004227  -0.04262  0.003485  0.02134  0.3409  -0.8577
6.416e+09  -0.4595  -1.319  -0.01514  0.01403  -0.03708  0.01366  0.05048  -0.862
6.418e+09  -0.9291  -1.058  0.05334  0.01179  0.01968  0.01119  -0.2702  -0.8222
6.419e+09  -1.22  -0.7403  0.0177  0.006987  0.0273  0.003953  -0.5522  -0.6708
6.42e+09  -1.44  -0.221  -0.01458  -0.02406  0.01169  -0.04674  -0.7332  -0.4894
6.421e+09  -1.431  0.2719  -0.00337  -0.03072  -0.03379  0.005124  -0.8357  -0.1736
6.422e+09  -1.213  0.7628  -0.03529  -0.007536  -0.03454  -0.0119  -0.8299  0.107
6.424e+09  -0.9278  1.158  -0.008245  0.03359  -0.0189  -0.008933  -0.7895  0.4232
6.425e+09  -0.4607  1.405  0.03509  0.007417  0.04658  0.0149  -0.615  0.6638
6.426e+09  0.1013  1.5  -0.05748  0.001404  -0.03408  -0.07796  -0.3085  0.7946
6.428e+09  0.5889  1.378  0.01683  0.02077  0.01607  0.05787  -0.03417  0.8715
6.429e+09  1.062  1.053  0.0495  0.008297  0.0226  0.01619  0.209  0.7998
6.43e+09  1.345  0.6614  -0.006405  0.01019  0.01155  0.02684  0.5423  0.6922
6.431e+09  1.534  0.1138  0.008885  -0.03777  -0.0005262  0.03481  0.727  0.4611
6.432e+09  1.488  -0.4323  0.03704  -0.007881  -0.04607  -0.02953  0.8212  0.2347
6.434e+09  1.218  -0.8912  -0.003382  -0.01308  0.003624  -0.0149  0.8801  -0.06224
6.435e+09  0.8137  -1.353  0.0104  0.009309  0.006837  0.0009527  0.7848  -0.4385
6.436e+09  0.3421  -1.534  0.02819  0.004119  0.04901  -0.05242  0.5913  -0.6247
6.438e+09  -0.1561  -1.518  -0.04118  -0.008094  -0.06415  0.001074  0.3575  -0.7743
6.439e+09  -0.7221  -1.374  0.003265  0.005397  0.002929  -0.02121  0.05896  -0.9093
6.44e+09  -1.197  -0.9953  0.006913  0.014  0.01562  0.0112  -0.2184  -0.8463
6.441e+09  -1.495  -0.5564  -0.007399  -0.002624  -0.0172  0.04512  -0.4794  -0.6783
6.442e+09  -1.608  0.07207  -0.006698  -0.007797  0.04942  0.08455  -0.7523  -0.4797
6.444e+09  -1.52  0.52  0.0424  0.04356  -0.01963  0.005981  -0.8125  -0.2296
6.445e+09  -1.275  1.073  0.02614  0.02326  0.004456  -0.02307  -0.8502  0.08537
6.446e+09  -0.8561  1.44  0.05163  0.03105  0.005351  -0.01786  -0.7415  0.3653
6.448e+09  -0.2158  1.678  -0.01315  0.03401  0.02019  0.05311  -0.6416  0.5846
6.449e+09  0.4062  1.659  0.03257  0.03943  -0.04521  -0.001637  -0.3532  0.7857
6.45e+09  0.9811  1.442  0.008811  0.001554  0.021  -0.02964  -0.09292  0.8496
6.451e+09  1.34  0.9764  -0.0179  0.004784  -0.005833  0.002047  0.204  0.8041
6.452e+09  1.653  0.5001  0.01348  0.00724  -0.00553  -0.01864  0.4936  0.6731
6.454e+09  1.769  -0.1292  0.002005  0.0005205  0.02397  -0.03281  0.669  0.4601
6.455e+09  1.62  -0.7774  -0.02509  0.02107  0.03282  -0.001563  0.7789  0.203
6.456e+09  1.164  -1.345  -0.04499  0.05523  -0.01014  0.04137  0.8558  -0.1038
6.458e+09  0.6451  -1.661  0.03823  -0.03921  0.06325  0.0344  0.7303  -0.3589
6.459e+09  -0.005073  -1.791  0.02987  0.01635  -0.02683  0.03646  0.5587  -0.5754
6.46e+09  -0.641  -1.773  0.002354  -0.02032  -0.02852  -0.06841  0.3406  -0.7477
6.461e+09  -1.207  -1.42  -0.006174  5.713e-05  -0.04144  -0.02194  0.1044  -0.8547
6.462e+09  -1.641  -0.9566  -0.01244  0.02623  0.06252  -0.04415  -0.2116  -0.8569
6.464e+09  -1.879  -0.2148  0.02936  -0.0479  0.03394  0.01584  -0.4524  -0.6707
6.465e+09  -1.972  0.4814  0.009128  0.01278  0.009293  0.005841  -0.6601  -0.4577
6.466e+09  -1.574  1.094  0.01507  -0.01361  0.02794  0.009036  -0.7752  -0.1893
6.468e+09  -1.158  1.687  -0.01397  0.006288  -0.0155  -0.05984  -0.8257  0.07475
6.469e+09  -0.4945  1.958  0.01369  0.0169  -0.01309  0.005109  -0.7006  0.3189
6.47e+09  0.2676  2.104  0.006734  0.0435  -0.03361  -0.02376  -0.5222  0.5485
6.471e+09  1.036  1.89  0.00171  -0.0017  0.01011  -0.05773  -0.3011  0.7525
6.472e+09  1.63  1.379  -0.04619  0.02236  0.0005375  -0.003268  -0.09028  0.8075
6.474e+09  2.052  0.7075  0.01841  -0.0261  -0.01487  -0.0019  0.2523  0.7401
6.475e+09  2.194  -0.1528  0.03047  -0.01098  0.01526  0.03696  0.4713  0.6479
6.476e+09  2.056  -0.9719  0.03332  0.008108  0.008625  0.002875  0.6346  0.4686
6.478e+09  1.625  -1.648  -0.02294  -0.004671  -0.01909  0.009773  0.7484  0.2107
6.479e+09  0.8963  -2.185  0.01257  -0.01203  -0.008859  0.04797  0.7693  -0.06967
6.48e+09  0.1014  -2.411  0.01419  -0.01428  0.0392  -0.01401  0.686  -0.3539
6.481e+09  -0.8985  -2.267  0.01261  -0.02739  0.05674  -0.02403  0.5023  -0.5527
6.482e+09  -1.681  -1.817  0.0005585  -0.01463  0.01402  -0.05748  0.2842  -0.6999
6.484e+09  -2.303  -1.163  -0.01906  0.02324  0.06807  0.06441  0.04973  -0.8346
6.485e+09  -2.596  -0.1429  0.005878  -0.01564  -0.005845  0.005103  -0.2257  -0.7308
6.486e+09  -2.513  0.7822  -0.007833  0.02355  0.02028  -0.005075  -0.4508  -0.6522
6.488e+09  -2.703  1.386  -0.02476  -0.008134  -0.2965  0.6738  -0.6613  -0.4654
6.489e+09  -1.28  2.388  0.008665  0.01008  -0.0405  -0.06451  -0.7335  -0.1966
6.49e+09  -0.2029  2.744  0.03917  0.04234  0.02296  0.0158  -0.7654  0.08926
6.491e+09  0.8187  2.573  0.001121  0.02151  0.08212  -0.003553  -0.6753  0.3279
6.492e+09  1.677  2.103  -0.01238  0.04095  -0.01192  0.0519  -0.5422  0.5616
6.494e+09  2.381  1.346  0.0405  0.01752  0.1109  -0.02843  -0.2993  0.6777
6.495e+09  2.774  0.282  -0.00313  0.02618  -0.04057  0.01438  -0.07876  0.7418
6.496e+09  2.682  -0.809  0.02122  -0.02207  0.03736  0.02294  0.2379  0.6952
6.498e+09  2.171  -1.775  -0.01893  -0.03633  -0.002206  -0.06452  0.4864  0.564
6.499e+09  1.261  -2.467  0.01636  0.003763  -0.0281  -0.01787  0.6198  0.4159
6.5e+09  -0.02338  -0.2993  -0.01737  -0.01779  0.0172  -0.06273  0.7587  0.1478
6.501e+09  -0.8579  -2.675  0.012  0.02079  0.01637  -0.03336  0.7333  -0.1008
6.502e+09  -1.757  -2.101  0.001322  0.01544  -0.006101  -0.008831  0.6472  -0.3001
6.504e+09  -2.473  -1.233  0.02268  -0.02668  0.02559  0.01549  0.4845  -0.6032
6.505e+09  -2.738  -0.2217  -0.006076  0.01044  -0.03181  -0.04065  0.3149  -0.7096
6.506e+09  -2.62  0.8661  -0.01942  0.01131  -0.003483  -0.003611  0.006303  -0.7862
6.508e+09  -1.996  1.742  -0.01442  0.01628  0.004777  -0.009873  -0.2387  -0.7031
6.509e+09  -1.215  2.366  0.004807  0.005657  -0.009589  0.005393  -0.4994  -0.6384
6.51e+09  -0.2629  2.582  0.0315  -0.01202  -0.02546  0.03225  -0.61  -0.3885
6.511e+09  0.7741  2.368  3.62e-05  0.01365  0.0179  -0.01473  -0.7248  -0.1384
6.512e+09  1.604  1.894  0.002319  -0.03639  0.02101  -0.03297  -0.7181  0.1261
6.514e+09  2.129  1.138  -0.004635  0.02053  -0.004077  0.000573  -0.629  0.3962
6.515e+09  2.355  0.2273  0.01467  0.02263  -0.03468  0.04756  -0.4761  0.6199
6.516e+09  2.267  -0.6168  -0.0176  -0.01036  0.06307  -0.003001  -0.2568  0.7162
6.518e+09  1.819  -1.416  -0.04657  0.002113  0.03675  -0.01151  0.007062  0.7373
6.519e+09  1.124  -2.057  -0.01259  -0.03498  -0.0184  0.002433  0.2748  0.6983
6.52e+09  0.2852  -2.162  -0.003716  0.02997  0.0253  -0.05027  0.5042  0.5325
6.521e+09  -0.4956  -2.122  -0.03727  -0.01627  -0.06116  0.06767  0.6636  0.3684
6.522e+09  -1.191  -1.77  0.0252  -0.02499  -0.03664  -0.04124  0.7767  0.1112
6.524e+09  -1.692  -1.102  -0.01068  -0.02716  0.07518  0.01384  0.7303  -0.1769
6.525e+09  -2.02  -0.3694  -0.005611  0.00347  -0.0004037  0.00257  0.6144  -0.3982
6.526e+09  -1.896  0.2807  0.00141  -0.01357  -0.03299  -0.02656  0.4018  -0.5942
6.528e+09  -1.766  0.9236  -0.01435  -0.0153  0.003647  0.002045  0.2105  -0.6469
6.529e+09  -1.217  1.512  -0.0563  -0.02284  0.02511  -0.04486  -0.04972  -0.701
6.53e+09  -0.5896  1.843  0.005535  -0.001631  0.02477  -0.0023  -0.3175  -0.5982
6.531e+09  0.1248  1.869  -0.003507  0.0169  0.04363  0.05685  -0.4716  -0.4651
6.532e+09  0.7613  1.618  0.03025  0.002296  0.04061  -0.03237  -0.5988  -0.3053
6.534e+09  1.312  1.223  0.02555  -0.01101  -0.01757  -0.001236  -0.6276  -0.08373
6.535e+09  1.611  0.6699  0.01131  -0.03238  -0.06591  -0.02814  -0.6409  0.1304
6.536e+09  1.711  0.0286  -0.01756  -0.01194  0.005385  -0.06193  -0.5367  0.298
6.538e+09  1.644  -0.5657  0.0211  -0.03587  0.006879  -0.04019  -0.4449  0.4518
6.539e+09  1.249  -1.106  0.01064  -0.01247  -0.03759  0.01462  -0.2573  0.6324
6.54e+09  0.7733  -1.449  -0.0215  0.0001514  0.04162  0.006095  -0.03165  0.7037
6.541e+09  0.1628  -1.597  -0.0117  0.005825  0.008209  -0.0229  0.1485  0.6694
6.542e+09  -0.3766  -1.57  0.03708  -0.04724  0.00178  0.02827  0.409  0.5694
6.544e+09  -0.8297  -1.265  0.004063  0.03278  -0.02167  -0.02714  0.5959  0.4037
6.545e+09  -1.23  -0.8789  0.01427  -0.009831  0.04605  -0.01253  0.7269  0.1821
6.546e+09  -1.474  -0.3723  0.01295  0.0279  0.03233  0.02983  0.7047  -0.07118
6.548e+09  -1.457  0.2059  0.03612  0.007381  -0.03222  -0.02067  0.6431  -0.3239
6.549e+09  -1.355  0.6799  0.00637  0.02018  0.033  0.01083  0.4793  -0.5642
6.55e+09  -0.9846  1.082  0.01286  0.01122  0.01696  -0.03255  0.291  -0.6867
6.551e+09  -0.5235  1.388  0.009705  -0.01703  0.01375  -0.03768  0.0314  -0.7624
6.552e+09  -0.04496  1.443  -0.003299  0.01884  0.001136  0.04768  -0.2501  -0.734
6.554e+09  0.5275  1.342  0.01001  0.02244  -0.05798  -0.02132  -0.4602  -0.5851
