# Hz S RI R 50
6.25e+09  0.1547  0.9258  -0.01936  0.02017  0.03298  0.04648  0.1094  0.4786
6.251e+09  0.3892  0.8663  0.01753  -0.01816  0.01883  -0.03362  0.3515  0.3751
6.252e+09  0.7349  0.5734  0.004126  -0.01053  -0.005727  -0.01856  0.5307  0.2431
6.254e+09  0.8769  0.3522  -0.01798  0.01321  -0.04289  0.00639  0.6406  0.007679
6.255e+09  0.9673  0.05548  -0.01646  -0.005415  0.01877  0.006733  0.6178  -0.2116
6.256e+09  0.8699  -0.2498  -0.00672  -0.01393  -0.0402  -0.003618  0.4679  -0.4539
6.258e+09  0.6855  -0.5608  0.001335  -0.00286  0.03456  -0.01553  0.2665  -0.6105
6.259e+09  0.48  -0.7991  0.0167  -0.001971  -0.004136  -0.04634  0.0276  -0.687
6.26e+09  0.1883  -0.9032  -0.002552  -0.01279  0.01414  -0.004797  -0.1946  -0.6755
6.261e+09  -0.1425  -0.9102  0.003137  0.01082  -0.0007578  0.01586  -0.4725  -0.5772
6.262e+09  -0.4903  -0.7933  0.02293  -0.009372  -0.05508  -0.0369  -0.5959  -0.3704
6.264e+09  -0.6703  -0.583  -0.001923  0.0246  0.004773  -0.02051  -0.6891  -0.1038
6.265e+09  -0.8538  -0.2529  0.001611  0.01613  0.001369  0.06907  -0.7231  0.1565
6.266e+09  -0.954  0.04564  -0.02533  -0.01508  -0.01178  -0.0395  -0.5991  0.3958
6.268e+09  -0.8975  0.3282  -0.01015  0.007981  0.005002  -0.04502  -0.4381  0.5792
6.269e+09  -0.6877  0.6358  -0.018  -0.01402  0.04073  0.02277  -0.197  0.6958
6.27e+09  -0.4395  0.8184  -0.00263  -0.01039  -0.01656  0.03877  0.0489  0.7386
6.271e+09  -0.1522  0.9101  0.03999  -0.01903  0.01029  0.08062  0.3484  0.6719
6.272e+09  0.1834  0.9088  0.01102  -0.007818  -0.01523  0.006172  0.5693  0.5072
6.274e+09  0.506  0.7637  -0.01281  -0.004071  -0.03935  0.02914  0.7293  0.2791
6.275e+09  0.759  0.5657  -0.002236  -0.01728  -0.03408  0.003402  0.7554  0.05799
6.276e+09  0.8755  0.2163  0.0111  0.002555  -0.06298  -0.0567  0.7175  -0.2167
6.278e+09  0.887  -0.06592  -0.03866  -0.007401  -0.06139  -0.005708  0.6404  -0.5032
6.279e+09  0.7722  -0.3983  -0.02433  -0.01195  -0.04293  0.009929  0.3924  -0.6803
6.28e+09  0.6817  -0.6924  -0.007616  -0.01683  0.007509  0.03749  0.1887  -0.7583
6.281e+09  0.3913  -0.8896  -0.01102  -0.0002793  -0.001286  0.02076  -0.1146  -0.7855
6.282e+09  0.04922  -0.9067  -0.008393  0.03957  0.03943  0.02094  -0.3988  -0.6666
6.284e+09  -0.2176  -0.8921  0.02782  -0.02127  -0.05225  0.006361  -0.5836  -0.5126
6.285e+09  -0.5794  -0.7304  0.01836  -0.008247  0.03947  0.06365  -0.7494  -0.2907
6.286e+09  -0.7352  -0.5692  0.02363  -0.00403  0.01253  -0.0298  -0.7873  -0.03369
6.288e+09  -0.9206  -0.2412  -0.007631  -0.005949  -0.04961  -0.003313  -0.7631  0.2573
6.289e+09  -0.9748  0.06049  -0.0129  -0.005722  0.02146  0.01217  -0.6375  0.4763
6.29e+09  -0.7903  0.3964  0.003212  -0.01777  0.02209  0.05331  -0.4156  0.7145
6.291e+09  -0.738  0.6487  0.01745  -0.01475  -0.0006503  -0.003932  -0.1657  0.827
6.292e+09  -0.3754  0.9201  0.03158  -0.007062  -0.006149  -0.00415  0.1489  0.8319
6.294e+09  -0.01742  0.9251  0.02292  -0.02028  0.003495  -0.003164  0.3704  0.7108
6.295e+09  0.2778  0.9276  0.001372  -0.001746  -0.01877  -0.01263  0.6311  0.5466
6.296e+09  0.5523  0.6837  -0.005284  0.01403  -0.03168  -0.022  0.7558  0.2942
6.298e+09  0.7786  0.4927  0.01881  -0.008306  0.0204  0.01044  0.8546  0.009522
6.299e+09  0.9409  0.1648  0.002787  0.03437  -0.001655  -0.001286  0.7918  -0.2738
6.3e+09  0.9313  -0.1129  0.003009  -0.01117  0.0559  0.009  0.6605  -0.5332
6.301e+09  0.8024  -0.4715  0.01236  -0.001662  -0.0266  0.009099  0.4215  -0.727
6.302e+09  0.6607  -0.7474  -0.0004303  0.02843  0.0006399  0.03947  0.174  -0.8201
6.304e+09  0.3308  -0.8853  0.0001282  0.01057  -0.01511  -0.02395  -0.1647  -0.8497
6.305e+09  0.06517  -0.9345  -0.01627  0.01437  -0.0113  0.02121  -0.4177  -0.7556
6.306e+09  -0.3146  -0.8957  -0.0501  -0.01366  -0.02029  0.05106  -0.643  -0.6253
6.308e+09  -0.5874  -0.7231  -0.003874  -0.02435  -0.03947  -0.02607  -0.8247  -0.3066
6.309e+09  -0.8295  -0.4468  -0.007692  -0.02927  0.0221  0.008252  -0.8856  -0.004429
6.31e+09  -0.9383  -0.2047  -0.002255  0.009298  0.01104  -0.006262  -0.7869  0.3166
6.311e+09  -0.987  0.2213  0.04835  -0.003089  0.002998  0.04054  -0.636  0.5294
6.312e+09  -0.8375  0.5513  0.02179  0.009263  -0.004033  0.04314  -0.4486  0.7429
6.314e+09  -0.636  0.8247  -0.01454  -0.0111  0.005622  -0.02469  -0.12  0.8672
6.315e+09  -0.3248  0.9354  -0.002191  0.0142  -0.02183  -0.02936  0.1402  0.8542
6.316e+09  0.03182  1.014  0.006175  -0.02542  -0.02902  -0.003123  0.4385  0.8063
6.318e+09  0.4351  0.8873  -0.0128  0.004646  -0.01335  -0.05633  0.674  0.583
6.319e+09  0.6837  0.7615  -0.02153  -0.01152  0.002879  -0.01451  0.8081  0.3119
6.32e+09  0.8735  0.4772  0.004063  -0.007019  -0.01787  0.02569  0.8772  -0.02474
6.321e+09  1.026  0.1194  0.002077  -0.03457  -0.01932  -0.0107  0.8621  -0.2804
6.322e+09  1.008  -0.2707  0.006256  0.008277  -0.06369  0.01083  0.683  -0.5595
6.324e+09  0.8114  -0.6282  -0.0159  -0.003921  -0.004095  -0.01854  0.4664  -0.7417
6.325e+09  0.5824  -0.8258  -0.01148  0.007003  0.0187  0.03546  0.1488  -0.8861
6.326e+09  0.2921  -0.9737  0.01006  0.0016  0.01854  0.00974  -0.1375  -0.9001
6.328e+09  -0.09688  -1.063  -0.01331  -0.01628  0.003992  0.006758  -0.4511  -0.7558
6.329e+09  -0.4994  -0.9779  -0.01487  -0.005795  -0.007393  -0.04655  -0.6748  -0.5745
6.33e+09  -0.7342  -0.7453  0.0002975  -0.005278  0.01471  -0.01594  -0.8554  -0.2945
6.331e+09  -1.016  -0.4268  0.002392  -0.003274  -0.02429  0.01272  -0.926  -0.04748
6.332e+09  -1.084  -0.06151  0.001423  -0.03108  0.008329  0.01545  -0.8612  0.2939
6.334e+09  -1.023  0.2955  -0.006967  0.0203  -0.05813  0.01388  -0.7209  0.5789
6.335e+09  -0.8584  0.6151  -0.004896  -0.01476  -0.01041  0.02194  -0.4715  0.7842
6.336e+09  -0.5975  0.9592  -0.04484  -0.02426  0.01065  0.04027  -0.1802  0.9111
6.338e+09  -0.229  1.061  0.02221  -0.02544  0.03097  0.01317  0.1405  0.9396
6.339e+09  0.185  1.055  -0.004951  -0.03559  0.02159  -0.002432  0.4302  0.7905
6.34e+09  0.5937  0.9171  -0.02878  0.01245  0.01447  0.03477  0.6839  0.6112
6.341e+09  0.8807  0.7458  -0.00432  0.0569  0.002368  -0.04254  0.8498  0.3825
6.342e+09  1.068  0.4421  -0.005827  -0.0002367  0.02166  -0.01958  0.9117  0.06955
6.344e+09  1.177  0.04393  0.02413  0.0248  -0.01745  -0.06733  0.8758  -0.257
6.345e+09  1.063  -0.4355  0.01549  0.004038  -0.02501  0.01215  0.7268  -0.5894
6.346e+09  0.8514  -0.7663  0.0156  -0.00086  0.01842  -0.004896  0.503  -0.8194
6.348e+09  0.535  -0.9921  0.006169  0.006441  0.009475  0.02614  0.2007  -0.8948
6.349e+09  0.1275  -1.167  -0.006541  0.05017  -0.02282  0.03317  -0.1094  -0.888
6.35e+09  -0.2559  -1.146  0.004285  -0.02505  0.05559  0.01581  -0.4178  -0.8433
6.351e+09  -0.6181  -1.008  0.01849  -0.01002  0.001244  0.01304  -0.638  -0.6612
6.352e+09  -0.968  -0.7157  -0.01029  0.01188  0.01213  0.01061  -0.8513  -0.3746
6.354e+09  -1.154  -0.312  -0.01509  0.009195  -0.04041  -0.01008  -0.9337  -0.08527
6.355e+09  -1.193  0.05231  -0.01591  0.01424  -0.002507  0.009183  -0.9124  0.2241
6.356e+09  -1.092  0.479  0.009519  -0.002709  -0.03794  0.01009  -0.7448  0.5282
6.358e+09  -0.884  0.8323  0.01291  0.006503  -0.01914  0.02912  -0.5037  0.7773
6.359e+09  -0.4935  1.088  0.001563  0.002574  -0.01498  0.02771  -0.2354  0.9324
6.36e+09  -0.08154  1.223  0.008355  -0.001227  0.0115  0.06471  0.1084  0.9478
6.361e+09  0.3634  1.184  0.009835  -0.02273  0.001299  0.01226  0.4078  0.8765
6.362e+09  0.7578  0.9567  0.01095  0.03512  0.02177  -0.007223  0.668  0.6858
6.364e+09  1.086  0.6157  -0.01035  0.02368  0.004917  0.006078  0.9083  0.4142
6.365e+09  1.218  0.2241  -0.01787  -0.01555  0.006682  0.007246  0.9391  0.09117
6.366e+09  1.272  -0.2314  -0.01641  0.001943  -0.01683  -0.05053  0.9611  -0.2326
6.368e+09  1.039  -0.6054  -0.003277  -0.02236  0.007379  0.005241  0.7668  -0.5207
6.369e+09  0.8254  -0.9793  0.01469  -0.0008571  0.02726  -0.001649  0.5399  -0.7728
6.37e+09  0.4205  -1.244  0.01226  0.008396  -0.00819  0.004943  0.2311  -0.9073
6.371e+09  -0.02113  -1.267  -0.01441  -0.00189  0.02693  -0.003866  -0.08917  -0.9451
6.372e+09  -0.4882  -1.164  -0.02594  0.01974  -0.02733  -0.02388  -0.3737  -0.8563
6.374e+09  -0.9176  -0.9459  0.01799  0.008435  -0.02094  -0.04152  -0.6976  -0.6918
6.375e+09  -1.184  -0.5965  -0.01878  -0.01016  -0.003143  -0.03889  -0.8308  -0.4183
6.376e+09  -1.288  -0.1818  -0.006928  -0.01025  -0.02854  0.02072  -0.9301  -0.1051
6.378e+09  -1.288  0.3307  0.01498  -0.008019  -0.004275  -0.0002212  -0.8811  0.2102
6.379e+09  -1.107  0.7628  0.001056  -0.01382  0.03307  -0.02524  -0.7875  0.5323
6.38e+09  -0.7973  1.102  0.04185  0.04279  -0.002278  0.02526  -0.5399  0.7539
6.381e+09  -0.3492  1.301  0.006087  0.01574  0.009324  -0.007854  -0.2186  0.8816
6.382e+09  0.1354  1.395  0.004474  -0.01545  0.001241  0.02013  0.08702  0.9548
6.384e+09  0.5721  1.253  0.02172  0.03426  -0.01267  -0.02953  0.35  0.8486
6.385e+09  1.052  0.9241  0.01304  0.003943  -0.02734  -0.002417  0.6382  0.7243
6.386e+09  1.251  0.53  0.03208  -0.02665  0.04114  0.0205  0.7886  0.4274
6.388e+09  1.358  0.07473  0.001175  0.01584  0.05327  0.04305  0.9159  0.1778
6.389e+09  1.322  -0.457  -0.02896  0.002566  -0.009242  -0.04397  0.9163  -0.2145
6.39e+09  1.021  -0.8847  0.02882  -0.01009  0.004694  -0.02286  0.7692  -0.5388
6.391e+09  0.7105  -1.194  0.007294  -0.04794  0.009473  0.06813  0.5401  -0.7182
6.392e+09  0.2196  -1.429  -0.01977  -0.01468  0.03218  -0.04073  0.2957  -0.8982
6.394e+09  -0.2823  -1.41  -0.005411  0.01879  0.01466  -0.06767  -0.01031  -0.9438
6.395e+09  -0.7613  -1.173  0.0147  -0.005874  0.03965  -0.00371  -0.3251  -0.8529
6.396e+09  -1.135  -0.8487  -0.02182  0.03346  0.02905  -0.039  -0.5831  -0.6898
6.398e+09  -1.385  -0.4379  0.009973  0.02634  0.03027  -0.003271  -0.7924  -0.4176
6.399e+09  -1.431  0.06823  -0.008304  0.002881  0.02269  0.01693  -0.9197  -0.1337
6.4e+09  -1.345  0.5167  0.005503  0.0645  0.05512  -0.0268  -0.8656  0.2012
6.401e+09  -1.028  0.9873  0.002442  -0.008721  -0.005808  -0.05285  -0.7901  0.4872
6.402e+09  -0.6089  1.274  0.007243  -0.00294  0.03851  -0.006112  -0.5917  0.7156
6.404e+09  -0.1091  1.445  0.02426  -0.0252  0.04184  -0.00602  -0.3441  0.8545
6.405e+09  0.4293  1.403  -0.008303  0.01493  -0.03094  -0.01813  2.916e-05  0.9873
6.406e+09  0.9271  1.195  -0.00921  0.01566  0.01374  -0.0006848  0.3054  0.8508
6.408e+09  1.21  0.743  -0.01156  -0.05747  0.01766  -0.03244  0.6172  0.6592
6.409e+09  1.428  0.3254  0.01643  0.02118  0.01983  0.01265  0.8026  0.4555
6.41e+09  1.471  -0.241  -0.0003672  0.01581  -0.00136  0.01899  0.8763  0.1786
6.411e+09  1.31  -0.6893  -0.01026  -0.02243  -0.01257  0.01297  0.8746  -0.1784
6.412e+09  0.9801  -1.123  0.005273  0.005291  -0.06894  -0.03029  0.8165  -0.4189
6.414e+09  0.5748  -1.365  0.03212  0.006796  0.03469  -0.001381  0.601  -0.6873
6.415e+09  0.04359  -1.484  0.02193  0.03812  0.03574  0.004463  0.3099  -0.8465
6.416e+09  -0.4787  -1.399  0.02998  0.009091  0.001505  0.03224  0.0001417  -0.8997
6.418e+09  -0.9978  -1.136  0.04092  0.02836  0.0004636  0.006287  -0.2524  -0.8686
6.419e+09  -1.296  -0.7533  0.03886  0.00168  -0.01403  0.01284  -0.5829  -0.6927
6.42e+09  -1.521  -0.209  -0.01585  0.006661  0.006235  0.03327  -0.7816  -0.4739
6.421e+09  -1.421  0.3624  -0.01067  -0.03322  0.02453  -0.006151  -0.8414  -0.2394
6.422e+09  -1.299  0.7822  0.01201  0.01748  -0.02747  0.0217  -0.8811  0.1116
6.424e+09  -0.936  1.25  0.04834  -0.0004974  -0.01174  0.05069  -0.7885  0.386
6.425e+09  -0.4266  1.485  0.01649  -0.007286  0.003507  0.01534  -0.6196  0.644
6.426e+09  0.0669  1.529  0.006113  0.01204  -0.01558  0.02346  -0.3535  0.7683
6.428e+09  0.6254  1.398  0.034  0.01428  0.01724  0.0172  -0.03332  0.8788
6.429e+09  1.067  1.12  0.02247  0.006165  -0.02399  0.05929  0.2291  0.8514
6.43e+09  1.421  0.6663  0.02594  0.007632  -0.002015  -0.0001167  0.5386  0.667
6.431e+09  1.599  0.1085  -0.02146  -0.02864  0.02619  -0.0111  0.6937  0.4677
6.432e+09  1.583  -0.5082  -0.0101  0.05231  -0.03036  -0.03595  0.8505  0.2138
6.434e+09  1.296  -0.9946  -0.00102  -0.02574  -0.000843  -0.005666  0.8823  -0.08218
6.435e+09  0.8338  -1.393  0.03539  -0.02793  -0.02616  0.002478  0.772  -0.3666
6.436e+09  0.325  -1.572  -0.0324  -0.006561  0.02073  0.00932  0.5847  -0.6067
6.438e+09  -0.2454  -1.645  0.01294  0.002557  0.03392  0.04353  0.3905  -0.7662
6.439e+09  -0.863  -1.42  0.006344  0.04501  0.01459  -0.04182  0.08412  -0.8659
6.44e+09  -1.328  -1.07  0.0262  0.01  0.02657  0.0199  -0.2155  -0.8752
6.441e+09  -1.617  -0.6048  0.03611  -0.01768  -0.0329  -0.003098  -0.4839  -0.6934
6.442e+09  -1.705  0.04336  0.03553  0.01466  -0.00453  0.004043  -0.7026  -0.5239
6.444e+09  -1.652  0.6342  -0.02231  0.05616  -0.02465  0.02973  -0.764  -0.1952
6.445e+09  -1.28  1.158  -0.0345  -0.009087  -0.02867  0.02974  -0.8633  0.02566
6.446e+09  -0.7231  1.579  0.01899  0.04319  0.04062  -0.0234  -0.804  0.3731
6.448e+09  -0.1885  1.786  -0.02604  -0.03956  0.003609  0.001009  -0.6021  0.5734
6.449e+09  0.4595  1.718  -0.03922  -0.01622  -0.007273  0.00114  -0.338  0.7864
6.45e+09  1.026  1.534  0.006876  -0.03199  -0.01692  0.009158  -0.09174  0.8899
6.451e+09  1.515  1.016  0.0156  0.02342  0.04189  0.02999  0.1972  0.7535
6.452e+09  1.784  0.4695  -0.02181  -0.001031  0.02207  -0.006292  0.468  0.6586
6.454e+09  1.892  -0.2293  -0.009645  0.02165  -0.02491  -0.06372  0.6829  0.4798
6.455e+09  1.716  -0.8399  0.01834  -0.0367  -0.01145  0.02167  0.8071  0.213
6.456e+09  1.349  -1.342  0.003804  0.03099  -0.03636  0.00756  0.8601  -0.07177
6.458e+09  0.6548  -1.792  -0.02998  -0.008309  0.04075  0.009647  0.7317  -0.3396
6.459e+09  0.0138  -1.927  -0.05217  0.004032  0.07867  0.01351  0.5722  -0.5864
6.46e+09  -0.7384  -1.918  0.0257  0.008631  0.05178  -0.03444  0.357  -0.7901
6.461e+09  -1.358  -1.522  0.03648  -0.01264  -0.006105  0.003157  0.07659  -0.8548
6.462e+09  -1.833  -0.948  0.01665  -0.007114  -0.01465  -0.006349  -0.2124  -0.7879
6.464e+09  -2.095  -0.2864  0.004216  0.01565  0.0007614  -0.02161  -0.4909  -0.6423
6.465e+09  -2.056  0.5862  0.03024  0.005734  -0.03152  -0.003043  -0.636  -0.4365
6.466e+09  -1.776  1.274  0.02048  0.02151  -0.04859  -0.05535  -0.7716  -0.2048
6.468e+09  -1.278  1.905  -0.0009319  -0.01028  0.001173  -0.04584  -0.7871  0.08677
6.469e+09  -0.4808  2.265  0.02332  -0.02367  -0.05285  0.03252  -0.7123  0.3603
6.47e+09  0.3631  2.244  0.03798  0.01718  0.03292  -0.009837  -0.5669  0.5984
6.471e+09  1.177  2.087  0.01854  -0.004464  -0.02561  0.004448  -0.2977  0.7669
6.472e+09  1.905  1.53  -0.04773  0.07478  0.01918  -0.015  -0.0512  0.7604
6.474e+09  2.357  0.7164  -0.02647  -0.01665  -0.04988  -0.004758  0.2124  0.7205
6.475e+09  2.485  -0.1317  0.01748  -0.02327  -0.02447  -0.02413  0.498  0.6438
6.476e+09  2.331  -1.105  0.003447  -0.003048  0.02571  -0.003574  0.6162  0.4537
6.478e+09  1.735  -1.904  0.001895  -0.01126  -0.007852  0.009756  0.7549  0.1388
6.479e+09  0.9727  -2.437  0.01041  0.00943  0.01271  -0.01514  0.7897  -0.08141
6.48e+09  -0.001819  -2.73  -0.004375  0.01771  -0.01463  0.0662  0.6871  -0.3598
6.481e+09  -1.08  -2.668  0.004935  -0.01172  0.003093  -0.03803  0.5175  -0.5747
6.482e+09  -1.912  -1.954  -0.01937  -0.01026  -0.03061  -0.05082  0.3153  -0.7227
6.484e+09  -2.608  -1.166  0.06791  -0.03206  0.07423  0.05643  0.0638  -0.7823
6.485e+09  -3.003  -0.1351  0.008668  0.0009074  0.06957  0.001178  -0.1947  -0.7151
6.486e+09  -2.819  1.039  -0.005911  -0.01255  0.003307  -0.02872  -0.4479  -0.6594
6.488e+09  -2.558  2.775  -0.01942  0.03007  0.2639  0.7226  -0.6143  -0.3985
6.489e+09  -1.305  2.831  0.006798  -0.02312  -0.03653  -0.05126  -0.7829  -0.2141
6.49e+09  -0.1692  3.225  -0.01083  0.007656  0.0818  0.02054  -0.7811  0.0762
6.491e+09  1.09  3.079  -0.01148  0.007474  0.001153  -0.001567  -0.6505  0.3486
6.492e+09  2.239  2.381  -0.0225  -0.007737  -0.006629  -0.04511  -0.5043  0.5685
6.494e+09  3.157  1.316  0.0201  -0.003433  0.001047  0.09875  -0.2812  0.6943
6.495e+09  3.328  0.03175  0.02834  -0.03526  0.01372  -0.01412  -0.05376  0.7539
6.496e+09  3.098  -1.258  -0.02153  0.0197  -0.01581  -0.05338  0.2307  0.7374
6.498e+09  2.44  -2.408  0.02687  -0.006995  0.0348  0.04089  0.4371  0.6297
6.499e+09  1.287  -3.14  0.0233  -0.02928  0.08022  0.0273  0.6499  0.4562
6.5e+09  -3.1  -3.992  0.005623  0.01085  0.0595  -0.01863  0.7762  0.1846
6.501e+09  -1.456  -3.073  0.009699  0.0281  -0.04559  -0.05076  0.761  -0.09488
6.502e+09  -2.437  -2.228  0.01116  0.02494  -0.04245  -0.008668  0.6613  -0.3458
6.504e+09  -3.066  -1.129  -0.02731  0.01246  0.05082  -0.009913  0.498  -0.5813
6.505e+09  -3.32  0.2716  0.00787  0.004157  -0.01721  0.01316  0.2944  -0.6924
6.506e+09  -2.906  1.421  -0.009463  0.01234  -0.009149  -0.01717  0.01969  -0.7425
6.508e+09  -2.009  2.454  -0.003262  -0.02083  -0.03762  -0.01199  -0.2576  -0.7346
6.509e+09  -0.9829  2.93  -0.01668  0.02311  -0.02055  -0.01316  -0.4951  -0.5746
6.51e+09  0.2439  3.026  0.01357  0.02379  -0.05319  0.02517  -0.6561  -0.3911
6.511e+09  1.38  2.678  -0.03497  -0.007266  0.02907  0.01225  -0.7384  -0.1516
6.512e+09  2.228  1.841  0.01186  -0.002672  0.01451  -0.01778  -0.7506  0.1294
6.514e+09  2.648  0.9233  -0.005172  -0.02268  0.03978  -0.02435  -0.6337  0.392
6.515e+09  2.775  -0.2411  0.01258  -0.02376  0.01144  -0.01003  -0.5278  0.591
6.516e+09  2.489  -1.217  0.02449  0.0006368  0.01858  -0.02176  -0.2472  0.6879
6.518e+09  1.778  -1.934  -0.00641  0.006108  0.01526  -0.01092  0.05178  0.7282
6.519e+09  0.8976  -2.462  -0.0202  0.003867  0.01886  -0.007387  0.2463  0.7037
6.52e+09  -0.128  -2.523  -0.02627  -0.002375  -0.09288  -0.0548  0.5425  0.5622
6.521e+09  -0.9791  -2.211  0.01073  -0.004168  -0.01392  -0.02408  0.646  0.3532
6.522e+09  -1.721  -1.704  0.02377  -0.002178  -0.01427  -0.0365  0.6985  0.1059
6.524e+09  -2.19  -0.8755  0.02542  0.007219  -0.02255  -0.101  0.7401  -0.1701
6.525e+09  -2.272  -0.07934  -0.01176  0.008166  -0.00952  0.002549  0.6225  -0.407
6.526e+09  -2.097  0.7232  -0.01021  -0.01089  -0.02675  0.02476  0.4477  -0.5986
6.528e+09  -1.622  1.38  0.007447  0.02497  0.01018  0.07929  0.198  -0.7093
6.529e+09  -0.9855  1.812  -0.03953  -0.007915  0.03393  0.02116  -0.03627  -0.7099
6.53e+09  -0.2436  2.084  -0.02496  0.02925  0.03633  -0.005688  -0.2724  -0.6141
6.531e+09  0.5047  1.979  0.008711  0.0249  0.0156  -0.06327  -0.5142  -0.4681
6.532e+09  1.12  1.632  0.02338  -0.009005  0.004517  0.01984  -0.6177  -0.3079
6.534e+09  1.663  1.096  0.05031  0.02003  -0.0654  0.01046  -0.6477  -0.08641
6.535e+09  1.855  0.406  -0.0004945  -0.01391  0.009621  0.01975  -0.6051  0.09213
6.536e+09  1.831  -0.2557  -0.02152  -0.01397  0.004815  0.01156  -0.5914  0.3204
6.538e+09  1.598  -0.945  -0.005456  -0.006035  0.01842  -0.03886  -0.4453  0.443
6.539e+09  1.122  -1.39  0.02029  0.006722  -0.01016  0.03321  -0.2663  0.6096
6.54e+09  0.5156  -1.718  0.01667  -0.01416  0.03414  -0.02405  -0.01872  0.7191
6.541e+09  -0.1396  -1.687  0.0005459  0.0028  -0.02385  0.01795  0.17  0.6563
6.542e+09  -0.7305  -1.593  -0.03452  -0.02142  0.05661  -0.001391  0.4133  0.5766
6.544e+09  -1.239  -1.194  0.006621  -0.006601  -0.04334  -0.01118  0.6039  0.4218
6.545e+09  -1.547  -0.7116  0.004362  0.01259  0.01472  -0.01181  0.7376  0.1707
6.546e+09  -1.668  -0.08112  0.0388  0.03208  0.0457  0.02329  0.7221  -0.06758
6.548e+09  -1.561  0.4817  0.003584  0.006331  0.05998  0.07799  0.6569  -0.3315
6.549e+09  -1.334  0.9502  -0.01403  -0.007528  -0.023  0.02578  0.4923  -0.5197
6.55e+09  -0.8449  1.349  0.01733  0.02811  -0.04055  0.01984  0.2879  -0.6699
6.551e+09  -0.2425  1.543  -0.001405  -0.007231  0.07569  -0.02541  0.03385  -0.7433
6.552e+09  0.247  1.554  0.02066  -0.003854  -0.04872  0.02391  -0.2055  -0.7111
6.554e+09  0.8105  1.314  0.01003  0.02872  0.001887  0.005418  -0.4489  -0.6099
