# Hz S RI R 50
6.25e+09  0.1574  0.9391  -0.01507  -0.01494  0.01485  0.01819  0.1872  0.4602
6.251e+09  0.4748  0.8676  -0.01867  -0.01352  -0.01984  0.001942  0.3993  0.4232
6.252e+09  0.7423  0.5872  0.005588  -0.02597  0.007354  -0.0004529  0.561  0.2752
6.254e+09  0.9053  0.2874  0.01809  0.03246  0.02719  0.03272  0.572  0.007056
6.255e+09  0.9381  -0.04887  -0.01522  -0.004573  -0.03139  -0.03707  0.5902  -0.2509
6.256e+09  0.8733  -0.3653  -0.01655  0.0255  0.01372  0.001055  0.4978  -0.4441
6.258e+09  0.6732  -0.6765  0.003453  -0.002027  -0.005993  -0.001298  0.282  -0.5949
6.259e+09  0.3956  -0.8269  -0.002488  -0.001681  -0.007181  0.04962  0.02691  -0.7032
6.26e+09  0.1087  -0.9217  -0.01747  2.384e-05  -0.02613  -0.01623  -0.235  -0.6777
6.261e+09  -0.1706  -0.937  -0.01768  -0.006075  -0.01077  -0.002957  -0.4502  -0.529
6.262e+09  -0.5853  -0.7494  -0.01265  -0.02617  -0.01318  0.06942  -0.6296  -0.3531
6.264e+09  -0.7274  -0.5304  0.01153  -0.04464  0.1077  -0.04635  -0.7267  -0.07954
6.265e+09  -0.9185  -0.2564  -0.01322  -0.0009741  0.01169  -0.02852  -0.7118  0.1644
6.266e+09  -0.9257  0.07331  0.007384  -0.008512  0.01387  -0.05453  -0.6181  0.3869
6.268e+09  -0.8225  0.4025  -0.002304  -0.00822  -0.01883  0.03478  -0.4424  0.5722
6.269e+09  -0.5984  0.6245  -0.01887  0.02568  0.02859  0.03274  -0.1968  0.7014
6.27e+09  -0.3887  0.8609  -0.002527  -0.01884  0.04542  -0.002398  0.06892  0.7504
6.271e+09  -0.03477  1.022  0.007541  -0.007936  -0.02241  0.06264  0.3434  0.6621
6.272e+09  0.2272  0.907  -0.002959  -0.001537  0.01328  0.01796  0.5264  0.5236
6.274e+09  0.4967  0.7046  -0.02963  -0.006003  -0.0515  0.0007522  0.6698  0.3244
6.275e+09  0.7611  0.5314  0.03258  -0.02581  -0.002769  0.005462  0.7557  0.05386
6.276e+09  0.9113  0.2768  -0.0009545  -0.03957  -0.02807  -0.02151  0.7065  -0.2034
6.278e+09  0.9196  -0.1214  0.0146  -0.02161  0.07383  -0.05641  0.6137  -0.4639
6.279e+09  0.8537  -0.4774  -0.02967  -0.001698  -0.01758  0.01244  0.4126  -0.6514
6.28e+09  0.6074  -0.6129  0.03589  -0.01998  0.007132  -0.01651  0.1643  -0.7739
6.281e+09  0.3855  -0.8133  -0.004458  -0.02112  -0.01441  0.0276  -0.07242  -0.7764
6.282e+09  0.03344  -0.8804  -0.004617  0.02208  -0.004299  -0.02469  -0.3221  -0.6554
6.284e+09  -0.2877  -0.8816  0.00352  0.01184  -0.004332  -0.02291  -0.6083  -0.5301
6.285e+09  -0.5536  -0.7092  -0.00213  0.002824  -0.008761  0.007925  -0.7214  -0.2834
6.286e+09  -0.8014  -0.4555  0.009945  -0.0004285  0.0318  0.0926  -0.7765  -0.04046
6.288e+09  -0.9395  -0.1703  0.00748  -0.000699  0.02276  -0.005183  -0.7444  0.2263
6.289e+09  -0.9222  0.1946  0.0001704  0.01265  -0.0003599  0.04143  -0.6315  0.5178
6.29e+09  -0.8442  0.5101  0.01519  0.002183  0.03835  -0.06044  -0.4102  0.7054
6.291e+09  -0.6206  0.7718  -0.02043  0.0144  -0.04699  0.006301  -0.1632  0.7856
6.292e+09  -0.281  0.8684  -0.01459  0.03378  0.03238  -0.02572  0.1378  0.8039
6.294e+09  0.03327  0.9252  0.003213  0.02908  -0.1012  0.05373  0.3854  0.7338
6.295e+09  0.3157  0.8996  0.03507  0.03179  0.02608  -0.008216  0.6486  0.5278
6.296e+09  0.5751  0.7029  0.009064  0.01142  0.05368  0.02407  0.8045  0.2624
6.298e+09  0.7867  0.4457  0.01923  -0.01395  -0.01765  -0.01017  0.829  0.006169
6.299e+09  0.8757  0.152  -0.00358  0.01741  -0.02314  0.03378  0.7841  -0.2881
6.3e+09  0.9341  -0.1869  0.0003491  -0.000538  0.002255  -0.003531  0.6837  -0.509
6.301e+09  0.7848  -0.55  -0.0008877  0.02038  0.0232  -0.06375  0.4229  -0.7078
6.302e+09  0.5876  -0.7762  0.003074  0.001678  -0.01243  -0.037  0.1612  -0.8187
6.304e+09  0.2546  -0.8745  0.00256  -0.006348  -0.007399  0.001815  -0.157  -0.8795
6.305e+09  -0.09452  -0.9574  -0.01968  -0.03565  0.01283  -0.03164  -0.4235  -0.7284
6.306e+09  -0.3765  -0.9256  -0.01057  0.002466  0.02397  -0.008568  -0.6194  -0.5401
6.308e+09  -0.6731  -0.666  0.003094  0.000183  0.02811  0.03095  -0.8065  -0.2731
6.309e+09  -0.896  -0.3862  0.006914  -0.01736  -0.002281  -0.04065  -0.8835  -0.000472
6.31e+09  -0.9718  -0.1062  -0.01464  -0.00715  0.05995  -0.01117  -0.8205  0.2941
6.311e+09  -1.008  0.2666  0.001036  0.0354  0.03818  0.0514  -0.6463  0.5626
6.312e+09  -0.8335  0.5596  0.005101  0.01073  0.0247  -0.02838  -0.4617  0.7275
6.314e+09  -0.6455  0.8252  0.02411  0.0008559  0.01926  -0.03223  -0.1651  0.8893
6.315e+09  -0.23  0.9446  0.01698  -0.01037  0.01284  0.02606  0.1149  0.894
6.316e+09  0.1127  1.016  0.002782  -0.001637  0.03254  -0.01525  0.4608  0.766
6.318e+09  0.4587  0.8882  -0.02425  9.928e-05  -0.03501  -0.05815  0.6789  0.5816
6.319e+09  0.7049  0.7058  0.01508  0.001483  0.03292  -0.01009  0.8094  0.337
6.32e+09  0.9574  0.3703  0.008188  0.02965  -0.06667  -0.01694  0.8864  0.009958
6.321e+09  1.027  0.05911  0.007295  0.00699  -0.02714  -0.02838  0.847  -0.3024
6.322e+09  0.9445  -0.3216  0.002185  -0.001346  -0.0199  -0.01593  0.6785  -0.5687
6.324e+09  0.7946  -0.5956  -0.03024  -0.01214  -0.003787  0.002137  0.4365  -0.7528
6.325e+09  0.5327  -0.9086  -0.02765  0.005815  -0.0125  -0.01215  0.15  -0.8721
6.326e+09  0.1932  -1.036  -0.007138  0.02189  0.04701  2.137e-05  -0.1476  -0.867
6.328e+09  -0.1115  -1.009  0.009203  -0.0101  -0.03259  0.02873  -0.4328  -0.757
6.329e+09  -0.5064  -0.9196  0.01045  0.03053  -0.02453  -0.01146  -0.7112  -0.6125
6.33e+09  -0.7946  -0.7244  -0.01764  0.007646  -0.011  -0.008933  -0.81  -0.3097
6.331e+09  -1.016  -0.3627  0.03461  -0.01675  -0.01053  0.04221  -0.8876  -0.02173
6.332e+09  -1.046  0.04045  0.002469  -0.0279  -0.03242  -0.01769  -0.8557  0.2897
6.334e+09  -0.9751  0.395  0.01522  -0.009523  -0.0006419  0.03761  -0.6525  0.5708
6.335e+09  -0.808  0.7508  0.005369  0.007739  -0.04279  0.005075  -0.5102  0.7944
6.336e+09  -0.5312  0.9875  0.05695  -0.01295  0.004447  0.05115  -0.1704  0.9169
6.338e+09  -0.1308  1.101  0.02231  0.02671  0.008421  0.01594  0.1106  0.9146
6.339e+09  0.2588  1.083  -0.01725  -0.03241  0.03247  -0.01875  0.4231  0.7993
6.34e+09  0.5927  0.9529  -0.008059  -0.02766  0.00304  0.0009107  0.7202  0.6119
6.341e+09  0.8962  0.678  0.01836  0.01773  0.003802  -0.007763  0.8323  0.3248
6.342e+09  1.071  0.346  -0.001797  0.0309  -0.009897  0.01881  0.9159  0.08796
6.344e+09  1.124  -0.1164  -0.005342  0.01264  0.04449  0.03361  0.8622  -0.27
6.345e+09  1.018  -0.5049  0.01926  0.02126  -0.04302  -0.01634  0.7087  -0.5837
6.346e+09  0.8018  -0.835  -0.02491  -0.001893  -0.002561  -0.0006786  0.5121  -0.8123
6.348e+09  0.4764  -1.004  -0.003039  0.01094  0.01701  0.02215  0.2121  -0.951
6.349e+09  0.03464  -1.139  -0.007356  0.00714  0.007967  -0.0004503  -0.1261  -0.9505
6.35e+09  -0.3599  -1.147  -0.001024  0.001054  0.03031  -0.005266  -0.4331  -0.8254
6.351e+09  -0.7098  -0.9284  -0.04549  0.03317  0.0002727  -0.008719  -0.6619  -0.6356
6.352e+09  -0.9611  -0.6737  0.01598  -0.00894  0.03362  0.003486  -0.8501  -0.3506
6.354e+09  -1.14  -0.3141  0.004384  0.0347  -0.008517  -0.01391  -0.9528  -0.06327
6.355e+09  -1.168  0.1632  -0.026  0.01914  0.01249  -0.02544  -0.901  0.2717
6.356e+09  -1.029  0.6282  0.007935  0.02481  -0.0292  0.003032  -0.7473  0.5646
6.358e+09  -0.7886  0.8874  0.003662  -0.02896  0.02104  0.0025  -0.5078  0.7704
6.359e+09  -0.4366  1.113  -0.0241  0.008918  -0.005057  0.005318  -0.2354  0.9099
6.36e+09  0.03067  1.199  0.06142  -0.006299  0.003918  -0.03822  0.1175  0.9437
6.361e+09  0.3531  1.126  -0.005252  -0.006906  0.01953  -0.006907  0.405  0.8367
6.362e+09  0.771  0.9711  0.01444  0.0146  -0.002222  -0.03898  0.6466  0.6342
6.364e+09  1.123  0.6162  0.02619  0.01438  -0.0266  0.01386  0.8548  0.4041
6.365e+09  1.199  0.1611  -0.02917  0.01039  0.01694  0.02099  0.9597  0.07093
6.366e+09  1.245  -0.2744  0.01141  -0.03058  0.01124  -0.01429  0.9303  -0.2838
6.368e+09  1.069  -0.635  0.04027  0.02486  -0.01141  0.02449  0.796  -0.5582
6.369e+09  0.7778  -1.028  0.0126  0.004552  -0.02799  -0.0007833  0.5343  -0.76
6.37e+09  0.3793  -1.209  -0.03628  -0.03215  0.03324  -0.001426  0.2442  -0.9411
6.371e+09  -0.08833  -1.288  0.006108  0.002654  0.0006124  -0.02831  -0.04634  -0.9476
6.372e+09  -0.5349  -1.168  0.02261  -0.0001165  0.0113  0.02399  -0.4172  -0.8329
6.374e+09  -0.9162  -0.8949  0.008759  -0.04352  0.03731  0.02511  -0.693  -0.6862
6.375e+09  -1.22  -0.5454  -0.02013  -0.03188  -0.01498  0.04677  -0.8862  -0.4254
6.376e+09  -1.32  -0.1241  -0.006232  -0.01132  0.02098  0.007177  -0.9799  -0.08102
6.378e+09  -1.346  0.3152  0.0057  -0.0122  0.01124  0.0464  -0.9213  0.2172
6.379e+09  -1.125  0.8315  0.0261  -0.02358  -0.03415  0.03604  -0.7827  0.5308
6.38e+09  -0.7652  1.119  0.008694  0.005519  0.03137  0.02641  -0.5495  0.7521
6.381e+09  -0.3268  1.314  -0.04303  0.03366  0.004673  0.0127  -0.2478  0.941
6.382e+09  0.1974  1.346  -0.01601  -0.003927  0.03941  0.01447  0.07067  0.9009
6.384e+09  0.6406  1.254  0.04393  -0.03295  -0.001377  -0.006318  0.3556  0.8555
6.385e+09  1.032  0.9274  -0.0368  -0.02215  -0.04566  -0.04791  0.6202  0.6532
6.386e+09  1.284  0.4958  -0.01142  0.01172  -0.03848  -0.006153  0.8535  0.4128
6.388e+09  1.377  -0.008636  0.03266  -0.0003899  -0.0625  0.0295  0.9239  0.1242
6.389e+09  1.323  -0.4328  0.001299  -0.01475  -0.01189  0.04152  0.9092  -0.1907
6.39e+09  1.087  -0.9056  0.016  0.009612  0.01738  -0.008185  0.7911  -0.4986
6.391e+09  0.7053  -1.282  0.01027  0.02647  -0.01369  0.01678  0.5398  -0.6827
6.392e+09  0.1901  -1.443  0.007455  0.02635  0.006704  -0.03857  0.2579  -0.9089
6.394e+09  -0.2879  -1.432  -0.004078  -0.003639  -0.00715  0.02956  -0.03592  -0.9165
6.395e+09  -0.7994  -1.263  -0.01123  0.02774  0.02872  -0.001353  -0.3786  -0.891
6.396e+09  -1.206  -0.9425  -0.006511  -0.009154  0.01306  -0.02334  -0.5735  -0.712
6.398e+09  -1.405  -0.4807  -0.02709  0.0001051  -0.02028  -0.01584  -0.7943  -0.4735
6.399e+09  -1.518  0.112  -0.01599  -0.01638  -0.00115  -8.872e-05  -0.8693  -0.1704
6.4e+09  -1.401  0.5838  -0.00231  0.005645  -0.01138  -0.01694  -0.898  0.1528
6.401e+09  -1.069  1.079  -0.006836  0.004399  -0.002647  -0.004701  -0.8373  0.4967
6.402e+09  -0.6407  1.324  -0.03173  0.03768  0.01321  -0.03355  -0.5812  0.7001
6.404e+09  -0.1417  1.497  0.005287  -0.01304  -0.02714  -0.02182  -0.3259  0.9206
6.405e+09  0.4176  1.443  -0.00552  -0.01326  -0.01347  0.002876  0.04565  0.9466
6.406e+09  0.8931  1.266  0.02633  -0.01059  0.02594  0.01436  0.2788  0.8739
6.408e+09  1.237  0.8627  -0.002596  -0.05371  -0.02977  0.03573  0.6125  0.7023
6.409e+09  1.557  0.3212  -0.04525  -0.01991  -0.02182  -0.01898  0.8093  0.4587
6.41e+09  1.546  -0.1801  -0.01803  -0.004018  0.01449  0.01836  0.883  0.1641
6.411e+09  1.398  -0.7182  0.02703  0.01116  -0.01106  -0.009479  0.9144  -0.1336
6.412e+09  1.038  -1.174  0.03566  -0.03131  -0.02592  -0.009885  0.7555  -0.4068
6.414e+09  0.6213  -1.52  0.02269  -0.008828  -0.008863  0.04678  0.5627  -0.6582
6.415e+09  0.03948  -1.626  0.004166  0.03303  0.009166  0.05187  0.3298  -0.8628
6.416e+09  -0.5573  -1.474  0.02364  -0.03952  0.01176  0.02531  -0.00881  -0.8622
6.418e+09  -1.084  -1.268  -0.02024  -0.09194  0.02495  0.001968  -0.267  -0.829
6.419e+09  -1.451  -0.8202  -0.03042  -0.002878  -0.003294  -0.01402  -0.5289  -0.6699
6.42e+09  -1.65  -0.2822  0.01148  -0.02633  0.04633  -0.02782  -0.7499  -0.4823
6.421e+09  -1.638  0.3726  0.01075  -0.06075  0.01671  0.02843  -0.8811  -0.2028
6.422e+09  -1.421  0.8833  -0.01738  -0.01828  0.01796  -0.007418  -0.8839  0.1202
6.424e+09  -0.9834  1.424  -0.03072  -0.004928  -0.04073  -0.03241  -0.7908  0.4011
6.425e+09  -0.5203  1.629  0.01962  -0.03834  0.0006784  -0.06523  -0.6274  0.6309
6.426e+09  0.1357  1.761  -0.0279  -0.04474  0.006654  0.0184  -0.3547  0.8531
6.428e+09  0.7755  1.575  -0.02226  0.01203  -0.01172  0.004174  -0.04222  0.8787
6.429e+09  1.267  1.275  0.02243  -0.05688  -0.0008764  -0.04751  0.2373  0.8628
6.43e+09  1.609  0.698  -0.05154  -0.01276  -0.01889  -0.03385  0.5011  0.7173
6.431e+09  1.736  0.1122  -0.03983  -0.01537  0.02962  0.03303  0.6566  0.4703
6.432e+09  1.739  -0.4862  0.03892  0.01388  -0.01837  -0.01641  0.8385  0.1481
6.434e+09  1.414  -1.096  -0.02876  0.02956  -0.004498  -0.0146  0.8632  -0.1003
6.435e+09  0.9265  -1.583  0.01583  0.02103  -0.0118  -0.01355  0.7941  -0.3755
6.436e+09  0.4108  -1.836  0.01622  -0.02754  0.03928  0.006261  0.5894  -0.6493
6.438e+09  -0.2866  -1.843  0.06767  0.003421  0.06472  -0.02649  0.3399  -0.7731
6.439e+09  -0.9552  -1.614  0.007903  -0.00752  -0.01214  0.002476  0.07294  -0.8772
6.44e+09  -1.48  -1.184  -0.005628  -0.0133  -0.005334  0.01287  -0.2031  -0.8203
6.441e+09  -1.906  -0.6164  -0.03213  -0.0182  -0.003884  -0.0472  -0.4695  -0.6888
6.442e+09  -1.989  0.01878  0.002231  0.02037  0.003955  -0.001194  -0.7191  -0.4578
6.444e+09  -1.84  0.7265  -0.03058  0.0165  0.03141  0.008474  -0.7991  -0.1987
6.445e+09  -1.514  1.419  -0.03054  0.02175  0.03083  0.0326  -0.8468  0.1088
6.446e+09  -0.8884  1.804  -0.05489  -0.01205  0.01428  0.09433  -0.7683  0.3582
6.448e+09  -0.2153  2.105  -0.0466  0.005069  -0.01991  0.05784  -0.5759  0.6163
6.449e+09  0.5473  2.041  0.02908  -0.02275  -0.08275  0.05103  -0.3036  0.7758
6.45e+09  1.244  1.794  -0.03874  -0.01255  0.03901  -0.04477  -0.08733  0.8956
6.451e+09  1.825  1.175  -0.02783  0.0178  0.02783  0.01463  0.2348  0.8416
6.452e+09  2.168  0.5432  -0.02876  -0.01539  0.03317  0.05365  0.505  0.721
6.454e+09  2.234  -0.2404  0.01418  -0.01878  -0.006134  0.007283  0.6483  0.4544
6.455e+09  2.007  -1.068  -0.01415  -0.00729  -0.01495  -0.01185  0.7888  0.1848
6.456e+09  1.595  -1.794  -0.02954  -0.0005031  -0.0007657  -0.01558  0.8237  -0.08082
6.458e+09  0.8111  -2.2  0.005957  0.009994  -0.01438  -0.01535  0.7394  -0.3737
6.459e+09  0.005063  -2.365  0.00521  0.02265  0.05243  -0.05245  0.5845  -0.6286
6.46e+09  -0.8715  -2.403  -0.02149  -0.02173  -0.01512  -0.03578  0.3434  -0.7248
6.461e+09  -1.697  -1.953  0.02552  -0.0173  0.03467  0.006455  0.003669  -0.7932
6.462e+09  -2.307  -1.168  0.004073  -0.02782  0.047  -0.01159  -0.2518  -0.7759
6.464e+09  -2.596  -0.2659  -0.01125  -0.01843  0.003437  -0.03152  -0.485  -0.6951
6.465e+09  -2.644  0.6487  -0.003835  -0.001062  0.0229  -0.07841  -0.6467  -0.4415
6.466e+09  -2.336  1.543  0.03739  -0.001373  0.03059  0.01478  -0.8139  -0.2566
6.468e+09  -1.582  2.335  0.003129  -0.00747  -0.04452  -0.02373  -0.7941  0.1151
6.469e+09  -0.6635  2.904  -0.007857  -0.008829  0.01163  -0.06785  -0.742  0.3321
6.47e+09  0.4746  2.965  0.01914  0.009737  0.006163  -0.01533  -0.5535  0.6001
6.471e+09  1.673  2.7  -0.01198  -0.0157  -0.04364  -0.2004  -0.3082  0.7491
6.472e+09  2.506  1.976  -0.02503  -0.009666  -0.007473  0.03953  -0.0488  0.7969
6.474e+09  3.039  1.003  0.01549  0.003852  0.06378  -0.01463  0.2159  0.737
6.475e+09  3.322  -0.2204  -0.001483  -0.02362  0.008301  0.0137  0.4273  0.6267
6.476e+09  3.172  -1.466  -0.01012  -0.01722  0.006515  0.01957  0.6698  0.4626
6.478e+09  2.453  -2.668  -0.01489  0.004748  0.02358  -0.07555  0.7901  0.216
6.479e+09  1.299  -3.497  -0.01384  0.04332  -0.01264  0.0306  0.7911  -0.09776
6.48e+09  -0.09837  -3.717  0.003769  0.0156  0.04722  -0.08704  0.7101  -0.3678
6.481e+09  -1.525  -3.655  0.02042  0.02084  -0.001429  0.09957  0.5742  -0.5821
6.482e+09  -2.933  -2.858  0.01502  0.003272  -0.0544  0.008055  0.3196  -0.7222
6.484e+09  -3.956  -1.733  0.006976  0.00434  0.04692  -0.06437  0.06438  -0.7395
6.485e+09  -4.365  0.006773  0.02073  0.02373  0.0321  0.005906  -0.2105  -0.7471
6.486e+09  -4.162  1.739  0.02855  -0.05959  0.04687  0.07178  -0.4901  -0.6026
6.488e+09  -3.718  2.682  0.02932  0.01042  -0.5396  0.4656  -0.6699  -0.4433
6.489e+09  -1.843  4.593  -0.0048  0.03071  0.03209  -0.1095  -0.766  -0.1765
6.49e+09  0.1344  5.147  -0.01055  0.04535  0.01672  0.06656  -0.7762  0.09099
6.491e+09  2.339  4.958  -0.0166  -0.04532  0.03156  -0.02104  -0.653  0.3508
6.492e+09  4.025  3.646  -0.01456  0.04075  0.04445  -0.01294  -0.5118  0.5635
6.494e+09  5.541  1.709  -0.01872  0.008975  0.1653  -0.1795  -0.3281  0.7206
6.495e+09  5.806  -0.7002  -0.03494  0.01334  -0.0346  0.02694  -0.03916  0.7449
6.496e+09  5.069  -3.068  -0.009067  -0.00391  -0.01168  0.0185  0.2381  0.7469
6.498e+09  3.296  -5.035  -0.00314  0.004565  0.08923  -0.009753  0.4638  0.6236
6.499e+09  0.8625  -6.074  -0.02509  -0.0239  -0.007206  0.08938  0.6335  0.3839
6.5e+09  1.982  -1.581  -0.004912  0.006262  0.1159  0.1439  0.7731  0.2023
6.501e+09  -4.157  -4.544  -0.03249  0.008389  0.001625  -0.05305  0.7405  -0.09353
6.502e+09  -5.497  -2.348  -0.03696  0.05102  -0.1129  0.05584  0.6641  -0.3637
6.504e+09  -5.908  0.01966  -0.02821  -0.01896  -0.01745  -0.05177  0.4748  -0.5545
6.505e+09  -5.198  2.682  -0.03848  0.000168  -0.06203  0.000944  0.2676  -0.6942
6.506e+09  -3.509  4.383  0.006114  -0.02294  -0.0348  0.002607  0.02787  -0.7915
6.508e+09  -1.375  5.256  0.01687  0.001076  0.004275  -0.0782  -0.2549  -0.7387
6.509e+09  0.8036  5.155  0.04393  0.01045  -0.01737  -0.0261  -0.4973  -0.5935
6.51e+09  2.641  4.296  -0.02734  -0.01941  0.06286  0.0359  -0.6393  -0.3659
6.511e+09  3.904  2.831  -0.005697  -0.0422  -0.1099  -0.02449  -0.7208  -0.1801
6.512e+09  4.389  0.9872  -0.002811  0.01837  0.03404  0.02726  -0.7328  0.1149
6.514e+09  4.317  -0.7366  0.02449  0.002237  -0.00706  0.06524  -0.6342  0.3748
6.515e+09  3.506  -2.343  0.009648  0.0128  -0.03983  0.04047  -0.4989  0.6041
6.516e+09  2.302  -3.358  0.002697  -0.01264  0.06215  -0.008323  -0.2521  0.6661
6.518e+09  0.8652  -3.756  -0.0004404  -0.03296  -0.006561  -0.03039  0.008004  0.7322
6.519e+09  -0.6234  -3.684  0.02855  -0.05299  0.01461  -0.01251  0.2781  0.739
6.52e+09  -1.882  -2.989  0.007423  -0.02223  0.07046  0.03344  0.4885  0.5768
6.521e+09  -2.729  -2.079  0.02463  -0.007503  -0.00216  -0.01644  0.6765  0.4154
6.522e+09  -3.231  -0.905  -0.01669  0.03075  -0.029  -0.05796  0.7637  0.06354
6.524e+09  -3.257  0.3774  -0.03108  0.0058  -0.02795  -0.04728  0.7063  -0.194
6.525e+09  -2.786  1.44  -0.05075  -0.01783  0.01238  -0.007597  0.6063  -0.4082
6.526e+09  -1.972  2.308  0.01894  0.003997  0.02378  -0.003082  0.4091  -0.6019
6.528e+09  -0.9776  2.826  0.02691  0.01418  0.1001  -0.008631  0.1781  -0.6893
6.529e+09  0.1264  2.827  -0.05874  0.03751  -0.02883  0.07429  -0.06382  -0.6999
6.53e+09  1.088  2.522  -0.008669  0.02686  0.04433  -0.04646  -0.2828  -0.6263
6.531e+09  1.871  1.97  0.01068  0.02245  0.03343  -0.02167  -0.5009  -0.4826
6.532e+09  2.32  1.122  0.01837  -0.00671  -0.04805  -0.01868  -0.5644  -0.2963
6.534e+09  2.483  0.1998  -0.02518  -0.0159  -0.01337  -0.03662  -0.646  -0.06356
6.535e+09  2.36  -0.6921  -0.01258  -0.01482  0.02046  0.03671  -0.6265  0.1041
6.536e+09  1.926  -1.455  -0.00355  -0.004722  -0.02324  0.04132  -0.5669  0.3278
6.538e+09  1.206  -2.048  0.02584  3.078e-05  -0.0371  0.06158  -0.4463  0.4858
6.539e+09  0.4343  -2.26  -0.01167  -7.411e-05  0.04704  -0.01187  -0.2871  0.6224
6.54e+09  -0.4202  -2.217  0.004839  -0.01246  0.03793  0.01847  -0.04966  0.6807
6.541e+09  -1.16  -1.867  0.001349  0.0008295  0.038  0.02465  0.1839  0.6756
6.542e+09  -1.69  -1.324  -0.02232  -0.03618  0.01548  -0.005923  0.4198  0.5539
6.544e+09  -2.031  -0.6178  0.03119  0.01294  0.0322  -0.03089  0.6197  0.3747
6.545e+09  -2.084  0.1298  -0.01786  -0.006546  -0.00526  0.04913  0.6876  0.1706
6.546e+09  -1.838  0.8358  0.01774  0.02724  -0.008194  -0.02985  0.7138  -0.03947
6.548e+09  -1.364  1.383  -0.01838  -0.01447  -0.002405  -0.05645  0.6668  -0.3292
6.549e+09  -0.8027  1.793  -0.0363  0.02249  0.01422  -0.003421  0.4838  -0.5488
6.55e+09  -0.1139  1.976  0.005859  0.004249  0.03134  -0.03276  0.3061  -0.6762
6.551e+09  0.5407  1.835  -0.0321  -0.03081  0.007456  -0.009674  0.02223  -0.7212
6.552e+09  1.162  1.519  -0.008063  -0.008782  0.02624  -0.01237  -0.1954  -0.6783
6.554e+09  1.613  0.9609  0.004988  -0.01706  0.002864  0.0186  -0.4243  -0.6087
