# Hz S RI R 50
6.25e+09  0.9586  0.4773  0.00566  0.02003  0.02418  0.04018  0.18  0.4926
6.251e+09  1.006  0.07981  0.01823  -0.02967  -0.06138  -0.0009622  0.392  0.4414
6.252e+09  0.9231  -0.2114  -0.03084  0.04371  -0.0174  -0.002374  0.5306  0.2245
6.254e+09  0.8148  -0.6215  0.02011  0.0002959  -0.01904  -0.001612  0.6194  0.02554
6.255e+09  0.5766  -0.8751  0.0008302  -0.02848  -0.0009834  0.02732  0.5993  -0.2679
6.256e+09  0.2563  -1.02  0.02437  -0.01611  -0.05793  -0.002872  0.512  -0.4697
6.258e+09  -0.1314  -1  -0.01116  -0.01853  0.005493  0.02627  0.2895  -0.599
6.259e+09  -0.4804  -0.8672  0.003446  0.02506  0.02979  0.01549  0.05354  -0.671
6.26e+09  -0.7515  -0.6137  -0.01299  0.0162  -0.06556  0.02784  -0.2377  -0.6841
6.261e+09  -0.9653  -0.3475  -0.01138  0.006967  0.0001554  0.03417  -0.4507  -0.539
6.262e+09  -1.001  -0.03497  -0.01284  0.005702  0.01746  -0.006826  -0.6328  -0.3602
6.264e+09  -0.8933  0.3911  -0.01051  0.02525  -0.03412  0.0131  -0.7043  -0.1128
6.265e+09  -0.7129  0.6577  0.0188  0.01401  -0.01171  -0.01892  -0.6766  0.1578
6.266e+09  -0.396  0.9172  -0.00296  0.003924  0.0501  0.01551  -0.6287  0.3894
6.268e+09  -0.1259  0.9601  -0.01941  0.01835  0.005283  -0.02753  -0.4098  0.5932
6.269e+09  0.3115  0.9705  -0.00538  0.009612  -0.01382  0.04573  -0.1892  0.7033
6.27e+09  0.6085  0.7966  -0.02166  0.02739  0.01422  -0.006326  0.05713  0.7256
6.271e+09  0.7895  0.5296  0.02135  0.001659  -0.006264  -0.004048  0.3104  0.6781
6.272e+09  0.9141  0.2717  -0.02368  0.02236  -0.02176  0.02832  0.5209  0.5141
6.274e+09  0.9617  -0.09589  0.01036  -0.03416  0.06724  -0.04734  0.7143  0.3047
6.275e+09  0.8503  -0.4745  -0.01278  -0.001452  -0.02693  0.05109  0.7619  0.03883
6.276e+09  0.6571  -0.768  0.003625  0.03479  0.02484  0.03237  0.7334  -0.2253
6.278e+09  0.4107  -0.8957  0.01135  -0.005594  0.01635  0.01329  0.5927  -0.4784
6.279e+09  0.06481  -1.015  0.02068  0.009859  -0.02765  -0.02778  0.4047  -0.6759
6.28e+09  -0.377  -0.8975  -0.001222  -0.00815  -0.0711  0.001825  0.2013  -0.7553
6.281e+09  -0.6278  -0.782  -0.01233  0.004285  -0.03227  -0.01388  -0.1183  -0.7631
6.282e+09  -0.8523  -0.4936  -0.01276  0.01237  -0.0148  0.05324  -0.3595  -0.6616
6.284e+09  -0.9449  -0.1667  0.0134  0.01372  -0.03977  -0.00967  -0.5986  -0.5146
6.285e+09  -1.005  0.2012  0.02703  -0.003307  0.001898  -0.01972  -0.7068  -0.2579
6.286e+09  -0.833  0.5104  0.01492  0.003318  0.01333  -0.03152  -0.7855  0.01079
6.288e+09  -0.5575  0.7711  -0.03429  -0.00565  -0.00605  0.04357  -0.7628  0.2851
6.289e+09  -0.248  0.9706  -0.01732  0.01385  -0.02372  -0.001804  -0.63  0.5116
6.29e+09  0.06235  1.012  -0.01587  0.02834  -0.02402  -0.04353  -0.4151  0.6769
6.291e+09  0.4594  0.9105  0.00406  -0.007632  -0.06643  0.04085  -0.1186  0.7753
6.292e+09  0.7261  0.7375  0.01284  -0.006373  0.0254  0.04744  0.1013  0.81
6.294e+09  0.9661  0.3807  0.03282  -0.001148  -0.02782  -0.004118  0.3816  0.7072
6.295e+09  0.9971  0.03472  0.002355  0.01382  0.04602  -0.003972  0.6566  0.5544
6.296e+09  0.9284  -0.3309  0.008762  -0.01234  -0.0003382  -0.08442  0.7425  0.3052
6.298e+09  0.7885  -0.6492  0.006448  0.00917  0.03754  -0.003974  0.8466  -0.01847
6.299e+09  0.5199  -0.8448  -0.01796  -0.002503  0.01801  0.007827  0.7329  -0.3001
6.3e+09  0.1467  -1.055  0.01242  -0.03345  -0.02335  0.02719  0.6285  -0.5438
6.301e+09  -0.2073  -0.9951  0.002231  -0.006877  0.0036  -0.02318  0.4136  -0.7043
6.302e+09  -0.4976  -0.8465  -0.01098  -0.01063  -0.05248  0.02453  0.1475  -0.8508
6.304e+09  -0.8013  -0.6168  0.01443  -0.008302  0.01245  -0.00491  -0.1212  -0.8613
6.305e+09  -1.004  -0.3314  0.004307  -0.01024  0.003318  -0.006949  -0.4131  -0.7607
6.306e+09  -1.061  0.03427  0.01866  0.008041  0.0008558  0.01256  -0.6842  -0.5644
6.308e+09  -0.8858  0.3958  -0.03338  -0.002252  0.01548  0.0299  -0.7726  -0.281
6.309e+09  -0.7626  0.7291  0.004001  -0.01575  0.02471  0.04413  -0.851  -0.009182
6.31e+09  -0.4694  0.9357  -0.01703  0.003423  0.03851  0.0293  -0.8252  0.2988
6.311e+09  -0.07538  1.045  -0.009749  0.001474  -0.05417  0.0231  -0.661  0.5824
6.312e+09  0.255  0.9789  0.01353  -0.005696  -0.003867  0.001659  -0.4591  0.7294
6.314e+09  0.6181  0.8375  -0.00826  0.0005155  -0.01266  -0.005627  -0.1466  0.8404
6.315e+09  0.8495  0.5686  -0.0001686  -0.01067  0.01282  0.02827  0.1189  0.8708
6.316e+09  0.9168  0.2316  -0.003788  -0.004687  -0.02  -0.0002643  0.4627  0.7671
6.318e+09  1.029  -0.1402  -0.01105  -0.0056  0.02503  -0.06442  0.6668  0.5633
6.319e+09  0.895  -0.5226  0.02205  -0.01884  0.003735  0.05787  0.8618  0.3199
6.32e+09  0.7235  -0.7467  0.002785  -0.00485  -0.04719  0.003189  0.8875  0.03532
6.321e+09  0.3503  -0.9706  0.0009227  -0.02417  -0.01614  -0.04589  0.8744  -0.2927
6.322e+09  0.01106  -1.059  -0.01187  -0.002953  -0.01531  -0.01471  0.6757  -0.5579
6.324e+09  -0.3697  -1.034  -0.0177  0.01373  -0.03375  0.005607  0.4467  -0.8063
6.325e+09  -0.7266  -0.8102  -0.02065  -0.02158  0.01747  0.003498  0.1719  -0.8711
6.326e+09  -0.9163  -0.5343  -0.01583  0.005834  0.02083  -0.002383  -0.1062  -0.9204
6.328e+09  -1.08  -0.1914  -0.02177  -0.006703  -0.00813  0.009682  -0.4447  -0.7918
6.329e+09  -1.041  0.2477  -0.03693  0.02368  -0.01921  0.04042  -0.6568  -0.5891
6.33e+09  -0.9269  0.6254  -0.005494  -0.01605  0.04309  -0.00218  -0.8338  -0.3304
6.331e+09  -0.6834  0.8566  0.01236  -0.0205  0.005004  -0.007757  -0.9267  -0.008514
6.332e+09  -0.2974  0.993  0.01852  -3.689e-05  0.04194  0.02897  -0.8549  0.2677
6.334e+09  0.08321  1.069  0.004357  -0.008286  -0.06665  0.04128  -0.7129  0.5767
6.335e+09  0.4388  1.002  0.03562  -0.02528  -0.02877  -0.05308  -0.4755  0.7749
6.336e+09  0.7602  0.7942  0.01204  0.009649  -0.04292  0.04642  -0.1973  0.8929
6.338e+09  0.9827  0.4284  -0.003033  -0.006876  0.02065  -0.01701  0.1157  0.9054
6.339e+09  1.048  0.03926  0.01339  -0.02468  -0.004049  -0.007512  0.4541  0.8132
6.34e+09  1.062  -0.3046  0.007759  0.007961  0.005054  -0.0455  0.6833  0.6263
6.341e+09  0.8891  -0.6579  0.01592  -0.007797  0.01234  -0.01079  0.8563  0.3823
6.342e+09  0.5942  -0.9539  -0.01545  0.02659  0.0257  -0.004253  0.944  0.01574
6.344e+09  0.2029  -1.087  0.008643  0.001481  0.004291  -0.02511  0.8889  -0.2634
6.345e+09  -0.1236  -1.117  -0.01932  0.0206  -0.01256  -0.04137  0.7493  -0.6021
6.346e+09  -0.5585  -1.013  0.01327  -0.009286  -0.01355  -0.01313  0.5097  -0.7692
6.348e+09  -0.8984  -0.7339  -0.04106  0.02233  0.0106  0.02334  0.2127  -0.9272
6.349e+09  -1.013  -0.3306  -0.02925  -0.01507  0.03963  -0.04646  -0.08323  -0.9338
6.35e+09  -1.102  0.00867  -0.01532  -0.003606  -0.01342  0.004348  -0.4162  -0.8027
6.351e+09  -1.061  0.3853  0.01972  -0.04497  -0.016  -0.05793  -0.6635  -0.6691
6.352e+09  -0.8623  0.7702  -0.000985  -0.01087  -0.01889  -0.03686  -0.8735  -0.3943
6.354e+09  -0.5544  1.04  -0.02258  -0.02758  -0.01238  0.04998  -0.939  -0.03485
6.355e+09  -0.1299  1.128  0.02289  -0.0213  -2.825e-05  -0.02022  -0.8947  0.2561
6.356e+09  0.3105  1.103  -0.03552  0.02325  0.00867  0.01191  -0.7355  0.5618
6.358e+09  0.6907  1.005  -0.01904  0.009516  -0.001021  -0.01221  -0.5598  0.8039
6.359e+09  0.9391  0.6955  -0.04259  -0.02086  -0.04029  0.004552  -0.2437  0.9324
6.36e+09  1.167  0.2882  -0.03366  -0.01361  -0.002459  0.01322  0.09183  0.9416
6.361e+09  1.196  -0.1393  0.01874  -0.01194  -0.02111  0.0133  0.4053  0.9026
6.362e+09  1.095  -0.5527  0.0008701  -0.008137  0.04885  -0.06543  0.6614  0.6359
6.364e+09  0.8323  -0.921  0.0007959  0.02271  -0.01381  0.03164  0.8662  0.3684
6.365e+09  0.4961  -1.062  0.003485  -0.01475  -0.0264  -0.005722  0.9279  0.06479
6.366e+09  0.02726  -1.166  -0.03013  -0.01472  -0.0216  0.01548  0.9283  -0.2498
6.368e+09  -0.3982  -1.118  -0.01703  -0.01874  0.002906  0.06854  0.7647  -0.5314
6.369e+09  -0.7574  -0.9895  0.03327  -0.005951  -0.01947  -0.0061  0.5302  -0.774
6.37e+09  -1.027  -0.6212  0.01462  -0.0411  -0.02102  0.006868  0.2503  -0.9502
6.371e+09  -1.21  -0.2308  -0.002863  0.001389  0.01472  -0.009877  -0.05321  -0.9833
6.372e+09  -1.24  0.2444  0.02414  -0.01542  0.02487  -0.01526  -0.4181  -0.8349
6.374e+09  -1.109  0.6227  0.01381  0.01969  0.00509  0.003004  -0.6735  -0.6593
6.375e+09  -0.8023  0.9894  0.01384  0.002607  0.005241  0.01795  -0.8884  -0.4046
6.376e+09  -0.4294  1.255  -0.01033  -0.04908  0.006894  -0.018  -0.9181  -0.06322
6.378e+09  0.01371  1.326  0.0207  -0.02834  -0.02922  0.001923  -0.9065  0.2119
6.379e+09  0.5406  1.268  -0.03451  -0.02585  0.02631  -0.04133  -0.7822  0.5126
6.38e+09  0.9195  0.9358  -0.02685  -0.01496  0.02621  -0.04845  -0.5155  0.7385
6.381e+09  1.223  0.6034  -0.0103  -0.02435  0.05427  -0.02415  -0.2368  0.8884
6.382e+09  1.327  0.09677  -0.01344  -0.006793  -0.00254  -0.02029  0.04855  0.9512
6.384e+09  1.332  -0.3699  0.03131  -0.05312  0.0035  0.04322  0.363  0.9097
6.385e+09  1.115  -0.7923  0.02496  0.01064  0.01429  0.03735  0.6335  0.6792
6.386e+09  0.8091  -1.156  0.002687  -0.02802  0.009281  0.03122  0.8294  0.3787
6.388e+09  0.292  -1.368  -0.0006184  -0.02044  -0.0365  -0.01323  0.8681  0.134
6.389e+09  -0.1674  -1.455  -0.01087  0.04237  0.05361  0.0329  0.8855  -0.1909
6.39e+09  -0.7452  -1.254  -0.01413  0.002993  -0.01173  0.003461  0.7619  -0.5274
6.391e+09  -1.152  -0.921  0.03349  -0.02674  0.01711  0.02019  0.5586  -0.7625
6.392e+09  -1.4  -0.4725  0.01628  0.02459  -0.004429  0.01616  0.2968  -0.891
6.394e+09  -1.465  -0.06735  0.0007212  0.0326  0.004492  0.015  -0.03814  -0.9105
6.395e+09  -1.382  0.5453  -0.006419  -0.003524  -0.01651  0.01337  -0.3258  -0.8396
6.396e+09  -1.094  1.035  -0.01182  0.008206  -0.03683  -0.003434  -0.5793  -0.6551
6.398e+09  -0.7388  1.342  0.03197  0.02954  0.007011  0.003858  -0.8306  -0.4484
6.399e+09  -0.2366  1.584  0.02767  -0.01288  0.01018  0.02651  -0.893  -0.102
6.4e+09  0.3792  1.539  -0.08799  -0.04335  0.04433  -0.01917  -0.9075  0.1676
6.401e+09  0.8719  1.362  -0.03555  -0.005941  0.001688  0.01093  -0.787  0.4249
6.402e+09  1.3  0.9279  -0.001146  0.003666  -0.006704  0.03597  -0.5328  0.716
6.404e+09  1.606  0.3561  0.005848  0.001288  0.004732  -0.022  -0.3276  0.8915
6.405e+09  1.696  -0.2388  -0.01227  -0.02317  0.0462  0.003745  -0.03473  0.9366
6.406e+09  1.519  -0.7688  0.03928  -0.0114  0.06752  0.01025  0.3401  0.907
6.408e+09  1.142  -1.394  -0.009092  0.02156  0.04745  -0.009541  0.5648  0.7049
6.409e+09  0.5913  -1.685  0.01839  0.00839  -0.001535  0.04001  0.8164  0.4724
6.41e+09  -0.1158  -1.75  0.01975  0.01727  0.01878  -0.008476  0.8823  0.2013
6.411e+09  -0.7928  -1.652  -0.007448  -0.0144  0.002175  -0.003169  0.8853  -0.1475
6.412e+09  -1.401  -1.287  0.0167  -0.01527  -0.01108  -0.0122  0.8073  -0.4658
6.414e+09  -1.759  -0.7268  -0.007307  0.02725  -0.01969  0.07316  0.5574  -0.6933
6.415e+09  -1.923  -0.01931  -0.03381  0.05174  0.04225  -0.0172  0.3303  -0.803
6.416e+09  -1.828  0.724  0.01839  -0.001729  -0.007731  -0.02426  0.0472  -0.8965
6.418e+09  -1.395  1.323  -0.02004  -0.02699  0.01458  0.07808  -0.2803  -0.85
6.419e+09  -0.8485  1.794  0.04474  -0.01376  0.008641  0.03562  -0.5321  -0.6937
6.42e+09  -0.1663  2.108  -0.03284  -0.03812  -0.00556  0.009452  -0.7082  -0.5089
6.421e+09  0.6362  1.941  0.0002135  0.02892  -0.0001981  0.01502  -0.8674  -0.1588
6.422e+09  1.378  1.585  0.05249  0.01364  -0.06707  -0.006825  -0.8459  0.1216
6.424e+09  1.867  1.028  -0.02899  0.03123  -0.0003136  -0.004279  -0.7656  0.3716
6.425e+09  2.174  0.2966  0.0235  0.01512  0.01665  -0.001121  -0.5486  0.6184
6.426e+09  2.184  -0.5704  0.02148  -0.024  0.01861  0.01  -0.3139  0.814
6.428e+09  1.785  -1.36  0.03636  0.02702  0.04047  0.06419  -0.05295  0.8618
6.429e+09  1.142  -1.898  -0.02311  0.03682  0.01451  0.0247  0.2827  0.813
6.43e+09  0.3503  -2.258  -0.008933  0.05091  -0.005417  0.02053  0.5334  0.6824
6.431e+09  -0.5801  -2.203  0.009  0.0009705  0.03182  -0.01557  0.6863  0.4522
6.432e+09  -1.336  -1.836  0.0399  -0.009657  0.04258  -0.04065  0.8304  0.1733
6.434e+09  -1.945  -1.235  -0.04172  -0.01983  0.003098  -0.007319  0.8688  -0.09829
6.435e+09  -2.254  -0.3557  0.02463  -0.001908  0.07445  0.03206  0.792  -0.4092
6.436e+09  -2.158  0.5069  0.003583  0.01736  -0.008909  0.05972  0.6201  -0.62
6.438e+09  -1.872  1.375  -0.001987  -0.05553  -0.007954  -0.02815  0.3326  -0.7637
6.439e+09  -1.339  1.848  -0.0147  0.05008  0.00924  -0.02511  0.05379  -0.8582
6.44e+09  -0.4242  2.25  -0.04095  0.03273  -0.06222  0.004313  -0.2263  -0.8085
6.441e+09  0.446  2.234  0.006153  0.009986  -0.001096  -0.0008127  -0.4633  -0.6798
6.442e+09  1.339  1.882  -3.65e-05  -0.009374  -0.00925  0.0008721  -0.749  -0.4899
6.444e+09  1.887  1.314  0.002205  0.02887  0.05327  -0.06179  -0.8497  -0.1829
6.445e+09  2.238  0.4374  -0.000186  -0.01791  0.02938  0.01326  -0.8498  0.07697
6.446e+09  2.238  -0.3842  0.007585  0.03659  -0.02718  -0.03245  -0.7587  0.3334
6.448e+09  1.918  -1.131  0.003203  0.00589  0.01957  0.01183  -0.6087  0.5758
6.449e+09  1.348  -1.737  0.03029  0.009913  0.02333  0.003096  -0.3498  0.772
6.45e+09  0.5138  -2.13  -0.02107  0.01408  0.0387  -0.01903  -0.09119  0.8168
6.451e+09  -0.2637  -2.137  0.03774  0.02932  -0.008641  0.01101  0.2455  0.8012
6.452e+09  -1.079  -1.917  -0.02649  0.05946  0.02258  -0.01543  0.4527  0.6759
6.454e+09  -1.641  -1.365  -0.01913  -0.003028  0.001405  -0.03246  0.6866  0.46
6.455e+09  -1.946  -0.6484  0.03399  -0.01222  -0.002926  0.02736  0.8325  0.2131
6.456e+09  -2.059  0.1188  -0.02654  -0.02327  0.0125  -0.02637  0.9167  -0.06554
6.458e+09  -1.883  0.9283  0.02008  0.00768  -0.01102  -0.007618  0.745  -0.382
6.459e+09  -1.473  1.545  0.0005702  0.02142  -0.008205  -0.03616  0.5798  -0.6116
6.46e+09  -0.7333  1.869  -0.008752  -0.01159  0.005212  0.006753  0.3155  -0.7688
6.461e+09  -0.004544  1.933  0.01347  -0.001718  -0.03077  -0.0005332  0.01878  -0.7742
6.462e+09  0.718  1.851  -0.03848  -0.0122  -0.01772  -0.007696  -0.2248  -0.751
6.464e+09  1.29  1.482  0.04702  0.001949  0.04394  -0.01183  -0.4464  -0.6444
6.465e+09  1.752  0.8312  0.006168  0.02654  0.03788  0.04282  -0.633  -0.4243
6.466e+09  1.865  0.1378  0.003688  -0.03203  -0.01316  0.008669  -0.7651  -0.2368
6.468e+09  1.786  -0.4986  -0.006082  -0.02949  -0.01344  -0.0117  -0.8109  0.05653
6.469e+09  1.453  -1.168  -0.002003  0.001865  0.05409  -0.01369  -0.7198  0.3553
6.47e+09  0.9942  -1.596  0.01609  0.01678  -0.01218  -0.05039  -0.5741  0.5737
6.471e+09  0.3203  -1.822  0.01875  -0.03174  0.02432  0.0243  -0.3402  0.7113
6.472e+09  -0.3229  -1.807  -0.02597  -0.004226  -0.01191  -0.01955  -0.07784  0.8275
6.474e+09  -0.958  -1.526  -0.0164  0.01892  0.00409  -0.003171  0.2156  0.7743
6.475e+09  -1.416  -1.107  -0.003582  0.0254  0.02128  0.005378  0.4488  0.6278
6.476e+09  -1.696  -0.5295  0.009132  0.03377  -0.002548  -0.03663  0.6948  0.456
6.478e+09  -1.726  0.09739  0.01382  -0.004914  -0.04101  0.01484  0.7683  0.1797
6.479e+09  -1.577  0.7392  0.01703  -0.02637  0.03414  -0.03721  0.7509  -0.08506
6.48e+09  -1.191  1.207  0.01427  -0.0587  0.0008278  -0.03473  0.6748  -0.3761
6.481e+09  -0.6935  1.619  0.01925  -0.01735  0.0004297  -0.03114  0.5468  -0.5787
6.482e+09  -0.117  1.725  0.02546  0.01155  0.01209  -0.01  0.312  -0.7013
6.484e+09  0.5548  1.553  0.004586  -0.002922  -0.0084  0.02321  0.06429  -0.7934
6.485e+09  1.06  1.284  -0.008178  0.007292  0.04071  -0.001077  -0.2059  -0.7155
6.486e+09  1.37  0.7913  0.01049  -0.03058  0.05014  -0.000927  -0.4772  -0.6332
6.488e+09  1.045  0.752  -0.0004677  -0.008509  -0.7597  0.06858  -0.6387  -0.4207
6.489e+09  1.576  -0.2769  -0.00408  -0.008377  0.02246  0.04065  -0.7718  -0.1526
6.49e+09  1.313  -0.8394  0.00141  -0.001828  -0.03453  -0.01329  -0.7932  0.1039
6.491e+09  0.9457  -1.29  0.01727  -0.01236  0.01239  -0.00202  -0.7091  0.354
6.492e+09  0.5266  -1.521  -0.0003296  -0.01122  0.01046  0.01306  -0.5361  0.5475
6.494e+09  -0.08314  -1.669  -0.0118  -0.01268  -0.07584  -0.1579  -0.3093  0.6764
6.495e+09  -0.6267  -1.5  -0.004692  0.001184  -0.03369  -0.007497  -0.0701  0.7918
6.496e+09  -1.103  -1.179  0.01815  0.001978  -0.006169  -0.03135  0.2292  0.7303
6.498e+09  -1.424  -0.7016  -0.001952  -0.0314  0.0377  0.03442  0.4693  0.5909
6.499e+09  -1.606  -0.1074  0.03045  -0.005098  0.04152  0.03308  0.6468  0.4272
6.5e+09  -2.773  1.043  0.007192  0.009371  0.03732  -0.05996  0.7853  0.1292
6.501e+09  -1.308  0.8941  -0.0137  0.01318  -0.02318  -0.0008575  0.7613  -0.1079
6.502e+09  -0.8659  1.38  0.01078  0.02412  -0.01137  0.01063  0.6904  -0.3503
6.504e+09  -0.3482  1.568  -0.01857  0.03254  0.005622  -0.0001153  0.5409  -0.5577
6.505e+09  0.1964  1.622  -0.0362  -0.01687  -0.06686  0.0581  0.3045  -0.6658
6.506e+09  0.7613  1.424  -0.005795  -0.009413  0.006423  -0.02289  0.02782  -0.7745
6.508e+09  1.189  1.069  -0.02437  -0.01402  -0.03114  -0.01287  -0.3165  -0.7139
6.509e+09  1.539  0.5341  0.006087  0.009445  -0.008137  -0.01624  -0.4412  -0.5589
6.51e+09  1.636  -0.007054  0.003138  0.00381  -0.007866  -0.006255  -0.647  -0.3958
6.511e+09  1.456  -0.5701  -0.0039  0.04082  0.03146  -0.009038  -0.7271  -0.1485
6.512e+09  1.244  -1.092  -0.02681  -0.00645  -0.03111  -0.002677  -0.7577  0.1592
6.514e+09  0.7845  -1.428  0.005031  0.03437  0.005804  -0.02129  -0.6748  0.3932
6.515e+09  0.2834  -1.678  0.003729  -0.01275  0.01455  0.01862  -0.4694  0.5901
6.516e+09  -0.4196  -1.639  -0.001742  -0.0215  0.0009426  -0.003517  -0.2297  0.7272
6.518e+09  -0.9168  -1.4  -0.01524  0.01518  0.01393  -0.001788  0.03144  0.7403
6.519e+09  -1.36  -1.028  0.01083  0.03587  -0.01438  -0.01522  0.2911  0.709
6.52e+09  -1.673  -0.504  0.01885  -0.002447  -0.01086  -0.01706  0.4993  0.5623
6.521e+09  -1.691  0.1425  1.236e-05  0.01045  0.05108  -0.02025  0.6283  0.3351
6.522e+09  -1.535  0.7565  -0.02313  0.0234  -0.02426  -0.03746  0.7315  0.07494
6.524e+09  -1.196  1.307  -0.01987  0.01852  -0.007284  0.02872  0.71  -0.1717
6.525e+09  -0.6782  1.562  -0.002514  0.009387  0.007247  0.003154  0.5895  -0.3985
6.526e+09  -0.08322  1.777  0.006132  0.002577  0.0205  0.0376  0.4413  -0.5649
6.528e+09  0.5616  1.692  0.01713  0.01551  0.006085  0.02704  0.2201  -0.6454
6.529e+09  1.167  1.422  0.003845  0.0301  -0.01589  0.01123  -0.08102  -0.7093
6.53e+09  1.575  0.9303  -0.01411  0.02421  -0.007927  0.03278  -0.3187  -0.6219
6.531e+09  1.737  0.2687  0.004736  -0.003767  -0.001347  -0.01297  -0.4881  -0.4757
6.532e+09  1.851  -0.3611  0.01973  -0.02519  -0.04971  -0.04039  -0.5919  -0.2984
6.534e+09  1.596  -0.9969  0.01146  -0.02317  0.01315  -0.02316  -0.6413  -0.04924
6.535e+09  1.163  -1.509  -0.008186  -0.02395  -0.04564  -0.01101  -0.6163  0.1156
6.536e+09  0.5443  -1.885  -0.0009416  -0.01135  -0.03416  -0.02899  -0.5669  0.3244
6.538e+09  -0.1319  -1.914  -0.006761  -0.002103  -0.04023  0.03305  -0.4703  0.4645
6.539e+09  -0.8562  -1.744  -0.01478  0.02741  0.04388  -0.01057  -0.2853  0.5727
6.54e+09  -1.478  -1.306  -0.007176  0.02015  0.02772  -0.01075  -0.06699  0.6895
6.541e+09  -1.892  -0.7061  0.008571  -0.003292  0.05691  0.01914  0.2074  0.6668
6.542e+09  -2.056  -0.02409  -0.0184  -0.009926  0.05508  0.02923  0.3992  0.5584
6.544e+09  -1.969  0.72  0.01943  -0.009369  0.01182  0.004161  0.5946  0.412
6.545e+09  -1.572  1.336  0.01789  0.02398  0.1009  -0.074  0.7  0.1678
6.546e+09  -0.9031  1.92  -0.02101  0.009147  -0.0169  -0.005402  0.7252  -0.08923
6.548e+09  -0.1942  2.121  -0.009424  0.0254  0.03226  0.03255  0.662  -0.3195
6.549e+09  0.5568  2.058  0.0189  -0.01287  0.008141  -0.01966  0.5025  -0.5418
6.55e+09  1.346  1.731  0.02659  -0.03134  0.004352  0.02838  0.2943  -0.6721
6.551e+09  1.89  1.121  -0.01497  0.01135  0.04627  0.002263  0.02794  -0.7228
6.552e+09  2.232  0.3784  -0.013  0.02077  0.01387  -0.05024  -0.2077  -0.7485
6.554e+09  2.185  -0.4728  0.05786  0.002745  0.01817  0.04631  -0.4077  -0.5681
