# Hz S RI R 50
6.25e+09  0.09259  0.9141  -0.01535  -0.009338  0.04516  0.01056  0.1568  0.5055
6.251e+09  0.4169  0.8526  -0.0292  0.02499  -0.03221  0.009845  0.3917  0.4104
6.252e+09  0.6408  0.6312  -0.004543  -0.01792  0.005722  -0.01997  0.5248  0.2663
6.254e+09  0.8473  0.4382  -0.02371  -0.01091  0.06775  0.03375  0.6029  0.04182
6.255e+09  0.9739  0.08355  0.02609  -0.01848  0.04218  -0.001897  0.5854  -0.2641
6.256e+09  0.9045  -0.24  0.00357  -0.000803  -0.02754  0.01484  0.4648  -0.4105
6.258e+09  0.7488  -0.5596  0.01162  0.004784  0.008978  0.007206  0.2686  -0.6287
6.259e+09  0.5173  -0.7778  0.01059  -0.03397  0.07358  -0.006361  0.02779  -0.6825
6.26e+09  0.2073  -0.8868  0.03837  -0.01975  -0.009278  0.04126  -0.231  -0.6675
6.261e+09  -0.1332  -0.8983  0.004404  0.02987  0.02561  -0.005616  -0.413  -0.5131
6.262e+09  -0.4098  -0.816  0.009724  -0.02774  0.01982  -0.05118  -0.594  -0.3632
6.264e+09  -0.6718  -0.6311  0.0003032  -0.001313  -0.002957  -0.01094  -0.6878  -0.07556
6.265e+09  -0.8297  -0.3883  0.008606  0.02908  -0.007895  -0.009058  -0.6854  0.1722
6.266e+09  -0.8864  -0.09114  -0.03739  0.01551  0.004824  -0.01324  -0.6143  0.4311
6.268e+09  -0.8645  0.2827  0.003757  0.03867  -0.01375  -0.01442  -0.4349  0.5996
6.269e+09  -0.75  0.5753  -0.001283  0.008485  -0.01451  -0.008586  -0.1895  0.7191
6.27e+09  -0.5111  0.7673  -0.006938  -0.01444  -0.01004  -0.02358  0.09552  0.7774
6.271e+09  -0.2239  0.9043  -0.01148  0.04517  0.03947  0.01871  0.3221  0.6761
6.272e+09  0.1672  0.8897  -0.01012  -0.0347  -0.004323  0.01889  0.5691  0.5256
6.274e+09  0.4461  0.7453  -0.03047  -0.01854  0.04948  -0.01494  0.6857  0.3468
6.275e+09  0.6361  0.6243  -0.05835  -0.009348  -0.03616  0.02703  0.7719  0.08502
6.276e+09  0.8344  0.363  -0.02688  -0.02262  -0.008365  -0.01072  0.7194  -0.2256
6.278e+09  0.9031  0.0339  0.01369  0.005843  0.03158  0.006251  0.6396  -0.4683
6.279e+09  0.8409  -0.2621  0.01365  0.01696  0.03799  0.04695  0.4086  -0.685
6.28e+09  0.7405  -0.5644  -0.005846  0.01071  0.02868  -0.003749  0.1202  -0.7623
6.281e+09  0.4526  -0.7905  0.02404  0.004083  -0.02029  -0.007154  -0.1058  -0.7555
6.282e+09  0.1899  -0.9209  0.001373  -0.01616  0.03782  0.02808  -0.3479  -0.6869
6.284e+09  -0.1427  -0.8796  0.006554  -0.005185  -0.03816  -0.04617  -0.5946  -0.5388
6.285e+09  -0.4838  -0.7953  0.009434  -0.02667  -0.006497  -0.01855  -0.7439  -0.3258
6.286e+09  -0.6928  -0.5627  -0.008806  -0.022  -0.03685  0.00738  -0.8114  -0.01247
6.288e+09  -0.8302  -0.2496  -0.009775  0.003699  -0.04696  0.01459  -0.7483  0.2777
6.289e+09  -0.9146  -0.02281  -0.01285  0.007815  -0.00848  -0.01082  -0.6374  0.5076
6.29e+09  -0.8477  0.3451  0.02523  -0.01955  0.002257  -0.008736  -0.4445  0.697
6.291e+09  -0.7079  0.5928  0.005912  -0.0006703  -0.01461  -0.01783  -0.1831  0.8014
6.292e+09  -0.5118  0.8165  -0.007998  0.01163  0.01604  -0.004269  0.1259  0.7986
6.294e+09  -0.1165  0.932  -0.005089  0.02608  -0.01069  -0.003068  0.3957  0.7066
6.295e+09  0.2286  0.9114  -0.01051  0.04628  -0.01743  -0.02109  0.639  0.5307
6.296e+09  0.5165  0.7681  0.001946  0.02114  -0.000473  0.01459  0.7799  0.2602
6.298e+09  0.7463  0.5645  -0.03761  0.008259  -0.001655  -0.02131  0.8387  0.006745
6.299e+09  0.8994  0.2584  -0.007325  -0.005896  -0.0006092  -0.007888  0.7676  -0.2503
6.3e+09  0.9524  -0.0874  0.01024  -0.006701  0.007084  0.02585  0.6667  -0.539
6.301e+09  0.8425  -0.3954  -0.01519  -0.03317  0.03865  0.0442  0.4401  -0.7265
6.302e+09  0.6743  -0.6642  -0.008012  -0.03105  -0.01004  0.007316  0.1058  -0.817
6.304e+09  0.4073  -0.8571  -0.0003242  -0.003256  -0.03134  0.006649  -0.1318  -0.8093
6.305e+09  0.1294  -0.9525  -0.002058  -0.008261  0.01471  0.0463  -0.4088  -0.7299
6.306e+09  -0.2745  -0.9212  -0.0189  -0.006616  -0.01964  0.02153  -0.6229  -0.5677
6.308e+09  -0.5622  -0.81  0.01913  -0.02321  -0.01533  0.01423  -0.7771  -0.2914
6.309e+09  -0.7868  -0.5666  -0.00109  0.006416  -0.0292  0.03079  -0.8329  0.02012
6.31e+09  -0.9746  -0.2239  -0.02447  0.00227  -0.01068  0.01852  -0.7808  0.2522
6.311e+09  -0.9913  0.1404  0.02723  0.004044  0.01014  0.02365  -0.6347  0.5651
6.312e+09  -0.8944  0.4182  0.03537  0.01321  -0.002357  0.01711  -0.4327  0.7718
6.314e+09  -0.7078  0.7744  0.02877  0.006393  -0.001004  -0.004738  -0.1588  0.8603
6.315e+09  -0.3781  0.9396  -0.01468  0.00373  -0.01085  0.04175  0.125  0.8679
6.316e+09  0.003406  1.01  0.01781  0.001202  -0.04112  0.03616  0.4455  0.776
6.318e+09  0.3164  0.9384  -0.009072  0.005648  0.03164  0.0144  0.6672  0.6025
6.319e+09  0.6201  0.7549  -0.01842  -0.001457  -0.005848  0.04733  0.8189  0.3442
6.32e+09  0.8998  0.534  -0.05939  0.005753  -0.006666  0.03479  0.8753  0.02173
6.321e+09  1.052  0.1959  -0.02925  0.001147  0.01148  -0.01202  0.8357  -0.2855
6.322e+09  1.043  -0.1876  0.0314  0.01118  0.01993  -0.01413  0.6898  -0.558
6.324e+09  0.8687  -0.5382  -0.0452  -0.004652  0.00638  0.004845  0.4949  -0.7623
6.325e+09  0.6827  -0.7953  -0.005595  0.006143  -0.005526  0.01468  0.1665  -0.8755
6.326e+09  0.3046  -0.9733  0.02938  -0.0248  0.008934  0.02171  -0.1394  -0.8863
6.328e+09  -0.05854  -1.035  0.01234  0.006017  -0.02418  0.01412  -0.4099  -0.7933
6.329e+09  -0.3788  -0.9826  0.004369  -0.005393  0.01179  0.04391  -0.6733  -0.6209
6.33e+09  -0.7273  -0.808  -0.01803  -0.01045  0.007992  0.02713  -0.8528  -0.3453
6.331e+09  -0.9808  -0.4578  0.008163  -0.01025  0.009607  0.05431  -0.9066  -0.04394
6.332e+09  -1.068  -0.08282  -0.004482  0.001103  0.007624  0.0222  -0.8533  0.2881
6.334e+09  -1.059  0.238  -0.01862  -0.01355  -0.07182  -0.004367  -0.7108  0.5795
6.335e+09  -0.9151  0.6229  -0.006167  -0.0265  -0.005719  0.02042  -0.4792  0.8118
6.336e+09  -0.6522  0.9422  0.008746  -0.02178  0.01116  0.01139  -0.1878  0.8992
6.338e+09  -0.2868  1.046  -0.002295  0.0007615  0.02389  -0.04166  0.1105  0.9276
6.339e+09  0.1921  1.168  -0.02386  -0.009779  0.002293  0.009079  0.404  0.8306
6.34e+09  0.5507  0.9972  0.02638  0.02561  -0.02287  -0.02092  0.6731  0.6314
6.341e+09  0.8246  0.7355  -0.004652  0.003586  0.006316  0.02456  0.8687  0.3185
6.342e+09  1.041  0.3806  0.02514  -0.01209  -0.02521  -0.0205  0.9132  0.04127
6.344e+09  1.132  0.02822  -0.04438  0.02512  -0.03552  -0.008634  0.883  -0.2981
6.345e+09  1.108  -0.4253  -0.0199  -0.003457  0.01259  -0.00256  0.7563  -0.566
6.346e+09  0.9364  -0.7016  0.006244  -0.008301  0.00254  -0.04463  0.5267  -0.8277
6.348e+09  0.5488  -1.004  -0.01284  0.01033  -0.003594  -0.004431  0.2204  -0.9192
6.349e+09  0.2351  -1.126  0.02242  0.02013  -0.000719  0.01031  -0.1083  -0.9637
6.35e+09  -0.2367  -1.162  -0.01774  0.006076  0.04013  0.0556  -0.3889  -0.8557
6.351e+09  -0.6202  -1.033  -0.01158  0.0354  -0.03626  0.01294  -0.6272  -0.681
6.352e+09  -0.9319  -0.714  0.001165  0.00251  0.05351  0.02223  -0.8578  -0.4079
6.354e+09  -1.109  -0.3486  1.154e-05  -0.02391  -0.003958  -0.01591  -0.9505  -0.04778
6.355e+09  -1.234  0.09457  -0.01215  0.02298  -0.03594  0.01489  -0.916  0.278
6.356e+09  -1.11  0.4533  0.03302  0.006386  -0.0002174  -0.03588  -0.7468  0.5578
6.358e+09  -0.8148  0.8994  0.006722  -0.01181  0.02444  0.0178  -0.5417  0.7809
6.359e+09  -0.5118  1.091  0.01198  -0.01004  -0.01895  0.03204  -0.2281  0.932
6.36e+09  -0.1008  1.165  0.01014  0.0128  0.02679  -0.001305  0.1029  0.9625
6.361e+09  0.3605  1.178  -0.01177  -0.0006388  -0.01403  -0.02135  0.3913  0.8257
6.362e+09  0.7639  0.9289  0.0002856  0.000352  0.04049  -0.02302  0.6541  0.6787
6.364e+09  1.078  0.6407  0.01268  -0.01674  0.0494  -0.02496  0.8623  0.3769
6.365e+09  1.241  0.2354  0.001658  -0.01962  -0.01364  -0.03541  0.9571  0.1002
6.366e+09  1.253  -0.2123  0.001841  0.01185  -0.006825  0.03312  0.9407  -0.25
6.368e+09  1.123  -0.6715  0.02965  -0.001625  -0.0008113  -0.01653  0.775  -0.5734
6.369e+09  0.8029  -0.9878  0.001251  -0.04175  0.04498  0.02565  0.5506  -0.7731
6.37e+09  0.382  -1.202  -0.004959  0.03298  -0.03513  -0.04525  0.2626  -0.9213
6.371e+09  -0.02758  -1.226  0.03058  0.01704  0.0176  -0.001613  -0.05467  -0.9653
6.372e+09  -0.471  -1.115  -0.0181  0.01332  -0.009615  0.02152  -0.42  -0.8915
6.374e+09  -0.8972  -0.9516  0.01768  0.03877  0.02709  -0.04202  -0.6654  -0.6682
6.375e+09  -1.129  -0.5739  0.004593  -0.008054  -0.008568  0.0226  -0.8508  -0.3835
6.376e+09  -1.31  -0.1411  0.03109  -0.01201  0.02967  0.002368  -0.9468  -0.08893
6.378e+09  -1.23  0.3266  -0.02296  0.0299  -0.008731  -0.02183  -0.9826  0.2057
6.379e+09  -1.053  0.7299  -0.02387  0.02091  -0.01757  -0.01521  -0.7691  0.5398
6.38e+09  -0.6785  1.062  -0.009203  -0.008022  -0.01604  -0.05005  -0.5725  0.7466
6.381e+09  -0.3178  1.232  0.02044  -0.01914  0.03586  -0.06258  -0.2368  0.9069
6.382e+09  0.1316  1.239  -0.03118  -0.0002989  -0.01673  0.00453  0.04551  0.9417
6.384e+09  0.5879  1.121  0.007713  -0.02812  0.02147  -0.03919  0.3655  0.8582
6.385e+09  0.9978  0.8544  0.03086  -0.01057  -0.02126  -0.002195  0.6553  0.6393
6.386e+09  1.205  0.4525  0.03123  -0.01105  -0.008309  -0.005344  0.812  0.4144
6.388e+09  1.282  -0.01799  0.01418  0.01408  -0.02157  0.03965  0.9761  0.08368
6.389e+09  1.193  -0.4939  0.03273  -0.01598  0.01143  0.02027  0.8966  -0.2226
6.39e+09  0.9209  -0.8636  0.0235  0.02218  -0.02472  0.02272  0.7599  -0.526
6.391e+09  0.6779  -1.142  0.008205  -0.02371  0.03565  0.0007122  0.5597  -0.7443
6.392e+09  0.1475  -1.284  -0.0304  -0.03783  0.0221  -0.02387  0.2341  -0.8934
6.394e+09  -0.3079  -1.267  -0.02519  0.03339  -0.03129  0.0403  -0.05192  -0.9165
6.395e+09  -0.6563  -1.098  0.04917  0.01203  -0.01678  -0.02038  -0.3335  -0.8861
6.396e+09  -1.021  -0.7631  -0.009035  -0.03182  0.01446  0.005947  -0.6433  -0.71
6.398e+09  -1.226  -0.3963  0.005385  -0.04555  -0.003689  0.01613  -0.7825  -0.4003
6.399e+09  -1.325  0.06618  -0.01347  0.009922  -0.01984  0.008754  -0.9331  -0.1059
6.4e+09  -1.215  0.5078  -0.04664  -0.01396  0.01197  -0.02594  -0.8657  0.1823
6.401e+09  -0.9028  0.8905  0.003661  2.891e-05  0.008345  -0.009222  -0.8207  0.472
6.402e+09  -0.5138  1.19  -0.01121  0.01381  -0.004778  -0.03584  -0.6207  0.7287
6.404e+09  -0.152  1.233  -0.01997  0.03746  -0.008588  0.01368  -0.2611  0.8703
6.405e+09  0.3165  1.247  0.02934  0.02194  -0.01306  -0.01899  -0.0134  0.9305
6.406e+09  0.7307  1.037  -0.01658  0.03233  -0.0327  0.0119  0.2737  0.8609
6.408e+09  1.106  0.7127  0.003514  -0.01699  -0.005077  0.03657  0.5686  0.727
6.409e+09  1.207  0.2928  0.009242  0.0006083  -0.00992  0.03801  0.788  0.4439
6.41e+09  1.274  -0.111  0.004281  -0.009676  -0.01398  -0.04046  0.9407  0.193
6.411e+09  1.134  -0.6422  0.02015  -0.02695  -0.04353  -0.03207  0.8961  -0.09763
6.412e+09  0.8604  -0.9669  0.009914  -0.002345  0.01431  0.01335  0.8468  -0.4196
6.414e+09  0.4656  -1.175  0.003911  0.01152  -0.004249  0.04228  0.6076  -0.6808
6.415e+09  0.03968  -1.242  -0.0493  -0.005432  -0.01782  0.00985  0.3312  -0.8152
6.416e+09  -0.4637  -1.182  -0.008486  -0.01205  -0.03414  -0.0124  0.006875  -0.8814
6.418e+09  -0.7691  -0.9623  0.01966  0.02158  0.03264  -0.004679  -0.284  -0.8837
6.419e+09  -1.084  -0.5969  -0.007864  -0.01205  0.004145  -0.05112  -0.4927  -0.6717
6.42e+09  -1.251  -0.2201  0.0272  -0.01916  0.008827  -0.01432  -0.7571  -0.4616
6.421e+09  -1.2  0.2857  0.03136  -0.01485  0.0242  0.02088  -0.9139  -0.2082
6.422e+09  -1.081  0.6778  0.01829  -0.01018  0.009217  0.02672  -0.8569  0.1353
6.424e+09  -0.8284  0.9871  0.0002279  -0.005685  0.01513  0.03513  -0.787  0.4235
6.425e+09  -0.4331  1.268  0.06125  0.005124  -0.05504  -0.02665  -0.612  0.6396
6.426e+09  0.05866  1.274  -0.04572  -0.08707  -0.02196  0.01826  -0.3571  0.7886
6.428e+09  0.4995  1.188  -0.009684  0.04085  0.0005008  0.01049  -0.0665  0.8255
6.429e+09  0.9131  0.9961  -0.001119  0.0467  -0.01232  0.02275  0.255  0.8822
6.43e+09  1.192  0.6347  0.01075  0.0414  0.01542  -0.04509  0.5256  0.7251
6.431e+09  1.325  0.1654  0.01125  0.002539  -0.06043  -0.05085  0.7133  0.4778
6.432e+09  1.302  -0.3587  0.01229  -0.01675  -0.0271  0.04642  0.8233  0.2289
6.434e+09  1.123  -0.7498  -0.04249  0.03126  -0.01589  0.01371  0.8909  -0.09632
6.435e+09  0.7906  -1.078  -0.02215  0.005124  0.036  0.01408  0.7835  -0.3465
6.436e+09  0.3419  -1.285  -0.02708  -0.03756  0.002474  0.0306  0.5492  -0.6399
6.438e+09  -0.1349  -1.369  0.01437  0.03755  0.01181  -0.0428  0.2958  -0.8
6.439e+09  -0.5684  -1.253  0.03595  0.03459  -0.007852  -0.006588  0.0588  -0.839
6.44e+09  -0.9688  -0.9885  -0.02131  -0.00835  0.03624  -0.01032  -0.2628  -0.8791
6.441e+09  -1.266  -0.5636  -0.02743  0.01206  0.003821  0.01123  -0.5263  -0.7075
6.442e+09  -1.367  -0.04566  0.005848  0.03454  0.00612  -0.04133  -0.7297  -0.481
6.444e+09  -1.301  0.4051  0.02637  0.06343  0.02052  0.04849  -0.824  -0.2411
6.445e+09  -1.117  0.8479  0.006719  -0.009224  0.01219  -0.03336  -0.8898  0.1336
6.446e+09  -0.6859  1.186  0.008301  -0.005293  0.04163  0.01395  -0.8149  0.3809
6.448e+09  -0.2662  1.386  -0.03036  -0.07666  -0.03075  -0.04539  -0.5799  0.5811
6.449e+09  0.2444  1.398  -0.06084  -0.01925  -0.004215  0.02285  -0.3743  0.7492
6.45e+09  0.7046  1.211  -0.0003705  -0.03135  0.03567  -0.01285  -0.07549  0.846
6.451e+09  1.101  0.8968  -0.0631  0.03321  0.02859  -0.0304  0.2319  0.8142
6.452e+09  1.346  0.5156  -0.02532  0.01334  0.01292  0.003736  0.5324  0.6601
6.454e+09  1.467  -0.021  -0.0008475  0.02764  -0.04575  0.005664  0.6568  0.4454
6.455e+09  1.39  -0.5795  0.01234  0.009006  -0.01778  0.01671  0.7906  0.2229
6.456e+09  1.009  -1.028  0.01431  0.02395  0.007769  0.02268  0.8278  -0.04025
6.458e+09  0.6596  -1.356  -0.02557  0.02606  -0.03084  -0.008677  0.7997  -0.3631
6.459e+09  0.1301  -1.484  0.05102  0.0139  -0.0001498  -0.02691  0.5772  -0.5922
6.46e+09  -0.4055  -1.508  -0.009253  0.004165  -0.03723  -0.01339  0.3496  -0.7311
6.461e+09  -0.978  -1.264  0.009927  0.01191  -0.04026  0.01783  0.07008  -0.8331
6.462e+09  -1.305  -0.8291  0.004155  0.01625  0.01618  0.01485  -0.1666  -0.8031
6.464e+09  -1.523  -0.2569  0.02302  0.0205  0.02729  -0.0606  -0.4171  -0.6892
6.465e+09  -1.557  0.2635  0.001595  -0.002517  -0.0482  0.009816  -0.6532  -0.4617
6.466e+09  -1.397  0.8246  0.03593  -0.0458  0.06304  0.01009  -0.7892  -0.1868
6.468e+09  -1.03  1.275  -0.005364  0.009243  -0.001242  0.07866  -0.8347  0.08223
6.469e+09  -0.496  1.586  0.001077  -0.03108  0.01946  -0.003524  -0.7452  0.3397
6.47e+09  0.05747  1.664  0.007321  -0.0132  0.03119  0.1298  -0.6102  0.5488
6.471e+09  0.6534  1.552  -0.01351  -0.05813  -0.04602  -0.01002  -0.331  0.7199
6.472e+09  1.258  1.254  -0.001458  0.008607  0.01103  -0.0006599  -0.07572  0.8081
6.474e+09  1.635  0.7077  0.02103  0.007566  0.0543  0.01258  0.2288  0.7701
6.475e+09  1.731  0.1133  -0.0482  0.009109  0.08215  -0.002607  0.4587  0.6202
6.476e+09  1.636  -0.5383  -0.008909  0.0452  0.0291  -0.03407  0.6812  0.421
6.478e+09  1.362  -1.118  -0.02613  0.03596  0.01885  0.05226  0.7306  0.1707
6.479e+09  0.8797  -1.614  -0.03616  0.05217  -0.0579  0.007876  0.7621  -0.07203
6.48e+09  0.2541  -1.785  0.001544  -0.0105  0.02165  0.03364  0.6791  -0.3307
6.481e+09  -0.4375  -1.757  -0.01477  0.0144  -0.01424  0.05836  0.5137  -0.5869
6.482e+09  -1.102  -1.465  0.02166  0.02981  -0.01461  0.01137  0.2745  -0.6881
6.484e+09  -1.564  -1.005  -0.0294  -0.02805  -0.008668  0.03109  0.06195  -0.7753
6.485e+09  -1.873  -0.4144  -0.02123  0.003205  -0.01625  0.02361  -0.1887  -0.7623
6.486e+09  -1.871  0.3474  -0.004639  -0.007605  -0.006832  -0.0482  -0.4619  -0.6309
6.488e+09  -1.002  0.6423  -0.02316  -0.00342  0.5692  0.4999  -0.6442  -0.4108
6.489e+09  -1.168  1.538  -0.01613  -0.009521  -0.02905  0.03206  -0.7648  -0.1776
6.49e+09  -0.4943  1.854  0.01055  -0.02103  0.03377  -0.05552  -0.753  0.07392
6.491e+09  0.2213  1.921  -0.02877  0.02342  0.05543  -0.02941  -0.6853  0.3602
6.492e+09  0.9263  1.678  0.002906  -0.0269  0.005922  -0.08088  -0.4981  0.5451
6.494e+09  1.546  1.188  0.02327  -0.01393  -0.07427  0.0851  -0.2984  0.7187
6.495e+09  1.847  0.6135  -0.02273  0.03142  0.02263  0.009505  -0.02027  0.7748
6.496e+09  1.849  -0.1406  0.03224  -0.006511  0.006763  -0.0606  0.228  0.7486
6.498e+09  1.76  -0.8835  0.002335  -0.0319  -0.007004  -0.02509  0.4936  0.6073
6.499e+09  1.294  -1.424  -0.001189  -0.006714  -0.02363  -0.07323  0.6712  0.4119
6.5e+09  2.166  -2.425  0.01428  0.01632  0.09115  0.002535  0.7574  0.1616
6.501e+09  0.001426  -1.924  -0.02788  0.01583  -0.02755  0.02504  0.726  -0.1088
6.502e+09  -0.769  -1.793  -0.009381  -0.01817  0.04638  0.03326  0.7057  -0.373
6.504e+09  -1.312  -1.305  -0.0296  0.03345  0.004716  0.007599  0.5247  -0.5702
6.505e+09  -1.792  -0.7386  -0.01909  -0.04282  -0.0176  -0.00863  0.2678  -0.7406
6.506e+09  -1.881  0.01758  -0.00952  0.02905  0.03713  -0.01383  0.0314  -0.7507
6.508e+09  -1.728  0.607  -0.01667  0.02614  0.01405  -0.02394  -0.2507  -0.6979
6.509e+09  -1.354  1.26  0.01226  0.0113  0.02051  0.07061  -0.5223  -0.6199
6.51e+09  -0.7477  1.686  -0.03063  -0.0002005  0.03657  0.06574  -0.6668  -0.3875
6.511e+09  -0.09036  1.805  -0.0232  -0.04874  -0.05348  0.04388  -0.7383  -0.1222
6.512e+09  0.5177  1.728  0.03298  -0.01086  0.04756  -0.009363  -0.7136  0.1546
6.514e+09  1.148  1.357  -0.00557  0.02997  -0.01107  0.004756  -0.6771  0.366
6.515e+09  1.575  0.7931  0.04375  -0.04028  0.03724  -0.0106  -0.4827  0.5466
6.516e+09  1.729  0.2326  -0.006544  0.004348  -0.01874  -0.05799  -0.2531  0.7573
6.518e+09  1.648  -0.4739  0.02465  -0.04287  0.007014  0.03005  0.0325  0.7115
6.519e+09  1.314  -1.052  0.01496  -0.0272  0.01613  0.001868  0.2602  0.6845
6.52e+09  0.8778  -1.386  -0.0333  -0.0006864  0.02709  -0.01743  0.4921  0.5568
6.521e+09  0.3493  -1.614  -0.01235  0.02377  -0.01083  0.09024  0.6333  0.3521
6.522e+09  -0.2436  -1.617  -3.1e-05  -0.01164  -0.01483  0.03847  0.7567  0.09197
6.524e+09  -0.8139  -1.372  0.005895  -0.00657  0.001171  0.05424  0.7307  -0.1601
6.525e+09  -1.301  -0.9596  -0.01356  0.004973  0.04425  -0.02098  0.5883  -0.3905
6.526e+09  -1.42  -0.39  -0.02482  0.01043  -0.01101  -0.02388  0.4392  -0.589
6.528e+09  -1.548  0.181  0.005049  0.002135  -0.01824  -0.03686  0.1806  -0.6764
6.529e+09  -1.368  0.6894  -0.00829  0.01568  -0.03974  0.05476  -0.03063  -0.7117
6.53e+09  -1.016  1.06  0.01283  0.01482  -0.01019  0.0241  -0.2784  -0.6094
6.531e+09  -0.4884  1.358  -0.01158  0.005618  -0.03309  -0.02602  -0.482  -0.4998
6.532e+09  -0.009227  1.498  -0.006709  -0.01319  -0.002895  -0.008268  -0.5887  -0.288
6.534e+09  0.5663  1.305  0.02248  -0.02405  -0.05506  0.03289  -0.6702  -0.09372
6.535e+09  0.9628  1.058  -0.0063  -0.04022  -0.05526  0.04022  -0.5791  0.1107
6.536e+09  1.25  0.6344  0.01192  -0.009097  -0.04292  0.01782  -0.5825  0.2994
6.538e+09  1.377  0.1276  0.02641  0.03263  -0.03723  0.0301  -0.4303  0.4756
6.539e+09  1.306  -0.3398  0.04346  -0.008721  -0.02825  0.0007141  -0.3153  0.6273
6.54e+09  1.126  -0.7481  -0.04059  -0.009384  0.05217  0.01749  -0.07199  0.6974
6.541e+09  0.7381  -1.139  -0.02747  0.001914  -0.05318  -0.003079  0.2001  0.6592
6.542e+09  0.2559  -1.259  -0.02998  0.004197  0.04793  0.02231  0.42  0.5585
6.544e+09  -0.222  -1.234  0.02762  0.01435  -0.02615  -0.068  0.6076  0.3889
6.545e+09  -0.6435  -1.114  -0.02089  0.003968  0.01435  0.03351  0.6497  0.2061
6.546e+09  -0.9771  -0.8741  0.01848  -0.01238  0.04953  0.01547  0.727  -0.09228
6.548e+09  -1.231  -0.3676  -0.003837  -0.01067  0.02867  -0.004378  0.6736  -0.3362
6.549e+09  -1.205  0.0314  -0.01959  -0.004861  -0.03491  0.03206  0.5172  -0.5344
6.55e+09  -1.111  0.4767  0.01687  0.006784  0.02566  -0.01101  0.2925  -0.6834
6.551e+09  -0.8685  0.8779  -0.008546  -0.01568  0.0051  0.007799  0.03088  -0.7248
6.552e+09  -0.5657  1.111  0.01888  -0.0152  -0.02818  0.04521  -0.1986  -0.7053
6.554e+09  -0.06121  1.193  -0.01878  0.02605  0.03503  0.002176  -0.4578  -0.6148
