# Hz S RI R 50
6.25e+09  -0.09288  -0.8689  0.005826  0.03196  -0.03216  -0.007645  0.1622  0.4828
6.251e+09  -0.3975  -0.8508  0.0008854  0.0009086  0.03112  0.03197  0.3559  0.427
6.252e+09  -0.6205  -0.6179  0.04186  0.02128  0.00453  0.02402  0.4878  0.2345
6.254e+09  -0.8596  -0.3778  0.01134  0.02354  0.02282  0.001909  0.6301  0.02558
6.255e+09  -0.9211  -0.07189  -0.01223  -0.01946  0.01344  -0.01724  0.5631  -0.195
6.256e+09  -0.8597  0.282  0.02153  0.05394  -0.01257  0.03852  0.5021  -0.4193
6.258e+09  -0.6291  0.5678  -0.005466  0.01121  -0.02703  0.01715  0.2976  -0.6286
6.259e+09  -0.4607  0.7672  -0.02383  0.01739  0.006095  0.004854  0.04299  -0.7255
6.26e+09  -0.1542  0.9697  -0.02101  0.006539  0.04764  0.003074  -0.2337  -0.6517
6.261e+09  0.1422  0.9226  0.008781  -0.007366  -0.005323  0.02941  -0.4408  -0.5658
6.262e+09  0.454  0.8067  0.00592  0.01445  0.005516  -0.0234  -0.633  -0.3014
6.264e+09  0.692  0.4799  0.01434  -0.001654  -0.02284  0.00318  -0.7318  -0.08751
6.265e+09  0.8524  0.2757  0.002578  -0.000411  0.005999  -0.00967  -0.725  0.14
6.266e+09  0.8325  -0.05125  -0.002164  -0.01418  0.01475  0.06034  -0.6161  0.4026
6.268e+09  0.806  -0.3704  0.01241  0.02644  0.02483  0.03184  -0.4416  0.6093
6.269e+09  0.6369  -0.6626  -0.03585  0.001948  0.05213  0.0388  -0.2314  0.7077
6.27e+09  0.3598  -0.7627  -0.00311  0.02378  0.03058  -0.02741  0.05168  0.7152
6.271e+09  0.04201  -0.9366  -0.02969  -0.009027  0.0375  -0.04633  0.3352  0.6912
6.272e+09  -0.2498  -0.8483  -0.001734  -0.00663  -0.02119  0.02546  0.5438  0.5171
6.274e+09  -0.5684  -0.673  0.004644  -0.005534  -0.003115  -0.04435  0.6848  0.3038
6.275e+09  -0.6908  -0.4743  -0.01749  -0.001168  0.06904  -0.04227  0.7372  0.05054
6.276e+09  -0.8825  -0.1753  -0.007235  0.004426  -0.01392  -0.03125  0.7229  -0.2286
6.278e+09  -0.9232  0.1314  0.01613  -0.004919  -0.0001075  0.03479  0.6075  -0.4619
6.279e+09  -0.7668  0.4376  -0.0009348  0.01455  -0.005788  -0.007906  0.3885  -0.6536
6.28e+09  -0.5454  0.7078  0.006168  0.004316  -0.01064  0.009344  0.1754  -0.7565
6.281e+09  -0.2931  0.8326  -0.0432  0.008103  -0.04473  0.08421  -0.1227  -0.7849
6.282e+09  -0.02461  0.8659  0.01424  0.003201  0.003641  0.02743  -0.3603  -0.6632
6.284e+09  0.3173  0.8582  -0.06052  -0.0002175  -0.000389  0.03711  -0.5898  -0.5633
6.285e+09  0.5677  0.6927  -0.002639  -0.007378  0.002083  0.009  -0.7153  -0.2786
6.286e+09  0.7549  0.4168  -0.02142  0.005998  0.01513  -0.003597  -0.7587  -0.01996
6.288e+09  0.9304  0.05918  7.186e-05  -0.003881  0.001664  -0.01205  -0.7784  0.2667
6.289e+09  0.8642  -0.2159  -0.02284  -0.01307  0.03314  -0.03616  -0.6216  0.5143
6.29e+09  0.748  -0.5196  0.0108  -0.01605  0.009541  0.0304  -0.4087  0.6941
6.291e+09  0.451  -0.7443  0.001943  0.008122  0.0109  0.01733  -0.1289  0.771
6.292e+09  0.2411  -0.8741  -0.03405  -0.02815  -0.07253  -0.02207  0.1255  0.7982
6.294e+09  -0.0636  -0.8977  0.02319  -0.01268  0.03121  -0.02949  0.3873  0.6779
6.295e+09  -0.4021  -0.7791  -0.01611  0.006386  0.005653  -0.02865  0.634  0.5402
6.296e+09  -0.6641  -0.5743  0.02549  0.01312  0.006428  0.0004983  0.7699  0.2706
6.298e+09  -0.8538  -0.3152  -0.01339  -0.01286  0.002412  0.02545  0.836  0.01383
6.299e+09  -0.8626  0.01458  0.02356  -0.0108  -0.0299  0.03225  0.7921  -0.2707
6.3e+09  -0.855  0.2897  0.02088  -0.01545  -0.02582  0.002879  0.6312  -0.5069
6.301e+09  -0.6877  0.6049  -0.0189  0.007032  -0.04813  0.04768  0.4397  -0.725
6.302e+09  -0.4376  0.7738  0.01155  0.01474  -0.0338  -0.006511  0.1566  -0.8333
6.304e+09  -0.122  0.94  0.001381  0.02475  0.03417  -0.02841  -0.1212  -0.8789
6.305e+09  0.1544  0.8549  0.01729  -0.01575  -0.002592  0.007912  -0.3976  -0.7374
6.306e+09  0.4496  0.7983  -0.02778  -0.01855  -0.02254  0.002837  -0.6442  -0.5309
6.308e+09  0.6787  0.5117  -0.002314  -0.005205  0.02639  -0.01454  -0.8026  -0.2782
6.309e+09  0.8341  0.2918  -0.01657  0.005207  0.03314  0.01781  -0.848  -0.02935
6.31e+09  0.9243  -0.07992  0.006567  -0.01731  -0.01845  0.007813  -0.8202  0.2799
6.311e+09  0.7959  -0.3206  0.02236  -0.03549  0.01914  0.03451  -0.6355  0.5791
6.312e+09  0.5846  -0.6408  0.01091  -0.00323  0.01272  -0.04965  -0.4217  0.7602
6.314e+09  0.3631  -0.798  0.001799  -0.0401  0.03268  -0.0007792  -0.1629  0.8447
6.315e+09  0.09694  -0.9156  0.02847  -0.01823  0.005759  -0.02785  0.1361  0.8723
6.316e+09  -0.1473  -0.8176  0.03006  -0.03795  0.03278  0.002559  0.4219  0.7653
6.318e+09  -0.5323  -0.7237  0.02853  0.02297  0.01197  0.06773  0.6781  0.5669
6.319e+09  -0.7471  -0.496  -0.007223  0.01803  -0.04976  0.01299  0.8241  0.2997
6.32e+09  -0.8612  -0.1886  -0.007147  -0.01088  -0.0323  -0.03424  0.8755  -0.01496
6.321e+09  -0.9033  0.08666  -0.003179  0.01704  -0.02309  -0.02326  0.8497  -0.2942
6.322e+09  -0.7617  0.3991  -0.006578  -0.0348  -0.02412  0.0243  0.7258  -0.6013
6.324e+09  -0.5761  0.683  0.01737  0.0273  0.03814  0.02147  0.4651  -0.7811
6.325e+09  -0.2892  0.8409  0.01735  -0.01367  -0.002636  0.02242  0.1534  -0.877
6.326e+09  -0.00265  0.8508  -0.001155  0.01434  0.002003  0.004657  -0.1324  -0.8715
6.328e+09  0.3186  0.8826  -0.00146  -0.00684  -0.008891  -0.01011  -0.4393  -0.7718
6.329e+09  0.5389  0.6972  -0.00135  -0.006529  -0.01024  -0.03033  -0.7108  -0.6091
6.33e+09  0.8146  0.438  0.01262  -0.01705  0.0006803  0.04431  -0.8272  -0.3271
6.331e+09  0.8791  0.1715  -0.008114  -0.001661  -0.009553  -0.001618  -0.9145  -0.02789
6.332e+09  0.9041  -0.1626  -0.001714  -0.04053  -0.01316  -0.03587  -0.8503  0.2901
6.334e+09  0.7845  -0.4787  -0.04475  -0.02252  -0.03761  -0.01909  -0.7036  0.5965
6.335e+09  0.5519  -0.7282  0.007024  -0.01073  -0.01562  0.004012  -0.4871  0.8088
6.336e+09  0.2146  -0.9294  0.005217  0.01787  -0.05361  0.00326  -0.2097  0.9045
6.338e+09  -0.08875  -0.9468  -0.01595  -0.02151  -0.005815  -0.03796  0.1351  0.8917
6.339e+09  -0.4246  -0.8129  0.02497  -0.03021  0.0341  -0.0008104  0.4372  0.8221
6.34e+09  -0.6809  -0.6321  -0.006357  -0.001593  0.01121  -0.0158  0.6693  0.6222
6.341e+09  -0.8473  -0.351  0.01468  -0.01023  -0.008636  0.02251  0.861  0.3322
6.342e+09  -0.8905  -0.05825  0.01337  0.01556  -0.001418  -0.0108  0.9618  0.02877
6.344e+09  -0.9003  0.2638  0.007352  -0.01797  -0.003522  -0.01721  0.8718  -0.254
6.345e+09  -0.7102  0.54  -0.02849  -0.01146  -0.00337  0.05227  0.7181  -0.5569
6.346e+09  -0.4298  0.8042  0.02863  -0.01212  0.003217  0.0126  0.5067  -0.8216
6.348e+09  -0.1812  0.9123  0.009409  -0.01141  -0.03282  -0.02478  0.1748  -0.8915
6.349e+09  0.1676  0.8626  0.004493  -0.004774  0.006066  0.03584  -0.1075  -0.9347
6.35e+09  0.5361  0.782  0.01306  0.01247  -0.01301  -0.02473  -0.4711  -0.8259
6.351e+09  0.7769  0.5613  0.0001362  0.001888  -0.01277  0.01586  -0.6692  -0.6332
6.352e+09  0.8623  0.2992  -0.0138  -0.01116  0.004108  -0.001187  -0.8409  -0.3871
6.354e+09  0.9168  -0.009908  0.004755  -0.009932  0.003617  0.009099  -0.9017  -0.0402
6.355e+09  0.8417  -0.3617  0.00645  0.01736  0.04304  0.01357  -0.9294  0.2645
6.356e+09  0.636  -0.6227  -0.00907  -0.04393  -0.01999  -0.003048  -0.7881  0.5279
6.358e+09  0.3546  -0.8539  0.01078  0.001649  -0.05214  -0.04205  -0.5317  0.7831
6.359e+09  0.04263  -0.9261  0.04757  -0.004331  0.02744  0.03421  -0.2158  0.9046
6.36e+09  -0.2748  -0.9395  0.02317  -0.006474  -0.04731  -0.007495  0.09679  0.9597
6.361e+09  -0.5701  -0.6964  0.02093  -0.0007446  -0.03854  -0.006766  0.3845  0.8544
6.362e+09  -0.787  -0.4798  0.0007475  -0.03265  -0.01928  -0.02449  0.6336  0.6707
6.364e+09  -0.8879  -0.1943  0.00183  -0.02234  0.000207  0.02352  0.8641  0.3596
6.365e+09  -0.9378  0.2094  0.01621  -0.0134  -0.005399  -0.008099  0.9611  0.07173
6.366e+09  -0.7964  0.4849  0.0139  0.01296  -0.02647  0.0006963  0.9328  -0.243
6.368e+09  -0.5686  0.7168  0.009825  -0.02577  -0.04501  -0.01371  0.7723  -0.5739
6.369e+09  -0.3332  0.9046  0.0103  -0.03672  -0.01529  -0.02685  0.5348  -0.7893
6.37e+09  0.01299  0.9471  0.00418  -0.02134  0.01236  0.001772  0.2173  -0.902
6.371e+09  0.3892  0.8234  0.006854  0.003297  0.03788  0.01546  -0.1332  -0.9175
6.372e+09  0.6507  0.64  -0.0006288  0.01568  0.02455  -0.01999  -0.4234  -0.8721
6.374e+09  0.8664  0.4068  0.003674  -0.006698  0.01611  0.02403  -0.6563  -0.679
6.375e+09  0.9427  0.01297  0.003756  -0.02238  0.0007036  0.0126  -0.8525  -0.4187
6.376e+09  0.9017  -0.3237  0.0137  -0.00233  -0.04727  -0.03047  -0.9272  -0.04139
6.378e+09  0.7343  -0.6069  -0.01438  0.02174  -0.05787  -0.01746  -0.9033  0.212
6.379e+09  0.53  -0.8646  0.01691  0.01244  -0.002345  -0.004574  -0.7579  0.5647
6.38e+09  0.1922  -1.002  0.01923  -0.02306  0.03127  -0.01691  -0.5512  0.8064
6.381e+09  -0.2164  -0.9422  0.0004441  0.0218  0.004315  -0.03172  -0.2097  0.9167
6.382e+09  -0.5437  -0.8346  -0.01892  0.02812  0.00435  0.0122  0.1005  0.9233
6.384e+09  -0.7968  -0.5793  -0.01523  -0.04703  -0.01296  -0.008132  0.3898  0.8586
6.385e+09  -0.912  -0.2382  0.001622  -0.01438  0.00723  0.01328  0.62  0.6964
6.386e+09  -0.9628  0.1194  -0.01451  0.002803  0.02278  -0.0005706  0.8088  0.4596
6.388e+09  -0.8424  0.4297  0.02656  -0.0008769  -0.01878  0.01708  0.9403  0.1331
6.389e+09  -0.6664  0.6899  -0.01899  0.001429  -0.03318  -0.02464  0.8723  -0.186
6.39e+09  -0.3419  0.9019  0.02902  0.01864  0.009321  0.01445  0.7868  -0.5414
6.391e+09  -0.03802  0.9896  0.002656  0.06607  0.005059  -0.03668  0.537  -0.6945
6.392e+09  0.2961  0.876  0.01678  -0.01038  -0.003779  -0.02238  0.2887  -0.8764
6.394e+09  0.6434  0.729  -0.01028  0.006165  0.06346  -0.02425  -0.03427  -0.9156
6.395e+09  0.8075  0.4951  0.002231  -0.001824  -0.02184  -0.007471  -0.3201  -0.9072
6.396e+09  1.01  0.1614  -0.02742  -0.04931  0.02036  0.06954  -0.5947  -0.7367
6.398e+09  0.9847  -0.2055  0.0227  -0.006148  0.035  0.01404  -0.8231  -0.4629
6.399e+09  0.8536  -0.5135  -0.01799  -0.02324  -0.05504  0.007568  -0.9118  -0.1482
6.4e+09  0.5804  -0.766  -0.03482  -0.004653  -0.02044  0.01341  -0.8941  0.1604
6.401e+09  0.2171  -1.013  0.01494  -0.05878  0.02133  -0.03673  -0.7892  0.4863
6.402e+09  -0.1517  -0.9596  -0.03448  0.01333  0.006946  -0.05156  -0.6152  0.7127
6.404e+09  -0.4652  -0.8191  0.02223  -0.0268  0.006362  -0.02625  -0.2919  0.8517
6.405e+09  -0.7444  -0.658  -0.01644  0.0279  0.009713  0.01351  -0.01634  0.8927
6.406e+09  -0.9347  -0.2982  0.05602  0.01908  0.00849  -0.03124  0.3173  0.8715
6.408e+09  -0.926  0.03409  0.01722  0.04225  0.004823  0.04519  0.5996  0.7209
6.409e+09  -0.8931  0.3758  -0.05504  -0.04378  0.05666  0.02936  0.8376  0.4545
6.41e+09  -0.7087  0.6324  -0.005957  0.008809  0.04605  0.01753  0.9132  0.1773
6.411e+09  -0.4946  0.8618  -0.04023  -0.0002122  -0.0227  -0.004426  0.859  -0.1519
6.412e+09  -0.1642  0.9902  -0.002385  -0.004105  -0.01871  -0.003298  0.7999  -0.4702
6.414e+09  0.2326  0.9508  -0.04824  -0.01024  -0.03171  0.01818  0.6103  -0.6507
6.415e+09  0.5903  0.7922  0.0007782  0.03081  -0.00551  -0.005855  0.3102  -0.8454
6.416e+09  0.8333  0.5178  0.005191  0.03482  0.01789  -0.08103  0.01761  -0.856
6.418e+09  0.9469  0.1563  -0.007516  -0.00591  -0.02587  0.07265  -0.2419  -0.8536
6.419e+09  0.9804  -0.1384  0.007412  -0.01268  -0.03212  -0.006313  -0.5223  -0.7145
6.42e+09  0.8285  -0.4771  0.01418  -0.01107  -0.04262  -0.0184  -0.7601  -0.4611
6.421e+09  0.6125  -0.7244  -0.009162  -0.05047  -0.03862  0.0002419  -0.8623  -0.187
6.422e+09  0.3447  -0.8783  0.02644  0.001279  -0.0246  0.02671  -0.8865  0.1452
6.424e+09  -0.03459  -0.9419  -0.02368  -0.007864  -0.01462  0.01779  -0.7873  0.3546
6.425e+09  -0.3431  -0.8484  -0.03745  -0.02402  0.01504  0.0202  -0.6073  0.6457
6.426e+09  -0.6863  -0.7191  0.02684  -0.03045  -0.01383  -0.005382  -0.3558  0.8144
6.428e+09  -0.8626  -0.4189  0.06604  0.02924  -0.01276  -0.0006087  -0.05839  0.8466
6.429e+09  -0.9462  -0.0861  -0.01202  0.004158  -0.02015  -0.01786  0.2292  0.8209
6.43e+09  -0.8771  0.2281  0.002156  -0.03352  0.002156  -0.02355  0.556  0.6845
6.431e+09  -0.7556  0.5903  0.08831  0.03366  -0.008211  0.0122  0.724  0.524
6.432e+09  -0.5603  0.7647  -0.007627  0.01246  -0.04182  -0.02265  0.857  0.2098
6.434e+09  -0.2024  0.955  0.01774  0.01359  -0.02985  -0.01073  0.8366  -0.1077
6.435e+09  0.1155  0.9445  0.01696  -0.01239  2.134e-05  0.05194  0.8163  -0.3978
6.436e+09  0.4342  0.8027  0.01895  0.02749  -0.03056  0.04587  0.6386  -0.6151
6.438e+09  0.7301  0.6465  0.03577  -0.000595  -0.04579  0.01653  0.3287  -0.7823
6.439e+09  0.8878  0.3026  -0.005529  -0.006052  -0.07604  -0.0155  0.07177  -0.8666
6.44e+09  0.8991  0.03717  -0.04498  0.0255  0.002326  -0.02084  -0.2543  -0.7805
6.441e+09  0.8671  -0.3056  0.0001026  0.02552  -0.007846  0.02254  -0.5279  -0.7215
6.442e+09  0.6796  -0.6312  0.03339  0.04758  0.008157  -0.019  -0.7115  -0.464
6.444e+09  0.3776  -0.8062  0.01831  0.008166  -0.02025  -0.01006  -0.8245  -0.2346
6.445e+09  0.1139  -0.9468  0.03148  -0.005189  0.02308  0.02063  -0.8905  0.08152
6.446e+09  -0.2091  -0.8926  -0.02317  -0.006972  -0.002887  -0.04214  -0.756  0.3764
6.448e+09  -0.4667  -0.7315  -0.006847  -0.01584  -0.008071  -0.03797  -0.6082  0.5899
6.449e+09  -0.7411  -0.5315  0.02342  0.009475  0.002201  -0.01585  -0.3513  0.7912
6.45e+09  -0.9164  -0.2575  0.008507  -0.004829  -0.07585  0.0002336  -0.1264  0.8266
6.451e+09  -0.9123  0.1115  0.01211  -0.01118  -0.03693  0.01979  0.253  0.854
6.452e+09  -0.8514  0.3557  -0.03012  -0.01814  0.001323  0.006875  0.5032  0.6844
6.454e+09  -0.6314  0.6213  0.003294  -0.01532  -0.04045  0.002656  0.6396  0.4273
6.455e+09  -0.3971  0.8386  0.04508  -0.006037  0.0295  -0.001239  0.8205  0.2346
6.456e+09  -0.03678  0.9267  0.02314  0.03321  0.05452  0.02098  0.7946  -0.1078
6.458e+09  0.2938  0.8215  -0.009717  -0.01098  -0.01719  0.01681  0.7531  -0.301
6.459e+09  0.5307  0.673  -0.03716  -0.01125  -0.02145  0.01236  0.5986  -0.6243
6.46e+09  0.7516  0.4786  -0.0339  -0.004767  0.03711  -0.07167  0.3714  -0.7631
6.461e+09  0.8611  0.1829  -0.02294  -0.001217  0.03531  -0.02296  0.06726  -0.8315
6.462e+09  0.9128  -0.1608  0.02269  -0.01464  -0.042  -0.03527  -0.2256  -0.818
6.464e+09  0.8128  -0.4007  0.009373  0.04743  0.02131  -0.01065  -0.4841  -0.6711
6.465e+09  0.5462  -0.7265  0.03396  -0.007748  -0.006458  0.04487  -0.6667  -0.4571
6.466e+09  0.3358  -0.7795  -0.00567  -0.01359  -0.009978  0.01399  -0.7961  -0.176
6.468e+09  0.04162  -0.8735  -0.007025  0.02657  -0.006286  -0.0166  -0.7926  0.07208
6.469e+09  -0.3595  -0.794  -0.01304  0.01383  0.08529  0.008133  -0.7074  0.3237
6.47e+09  -0.5802  -0.7166  0.02131  0.01015  0.05724  -0.03339  -0.5452  0.5595
6.471e+09  -0.7857  -0.4706  -0.05858  -0.04439  -0.02915  -0.01826  -0.2956  0.7616
6.472e+09  -0.8353  -0.1102  -0.01354  -0.006415  -0.01149  -0.006162  -0.02995  0.8205
6.474e+09  -0.8452  0.1713  -0.03617  -0.01007  0.02582  -0.03633  0.2179  0.7507
6.475e+09  -0.7278  0.4583  -0.0198  0.06926  -0.02918  0.00998  0.4905  0.6449
6.476e+09  -0.607  0.7494  -0.006324  0.04135  0.003241  0.02107  0.7173  0.4218
6.478e+09  -0.2385  0.8006  0.02028  -0.06249  -0.07139  -0.02139  0.7606  0.1849
6.479e+09  0.04398  0.8738  0.03005  0.02358  -0.01226  0.04665  0.8151  -0.07497
6.48e+09  0.3393  0.7483  0.0221  0.04898  0.01572  -0.006425  0.6827  -0.3608
6.481e+09  0.6019  0.6316  -0.007521  -0.05294  -0.01368  -0.01622  0.5432  -0.5854
6.482e+09  0.8348  0.4177  0.02813  0.01921  -0.03073  -0.006649  0.3201  -0.7165
6.484e+09  0.8903  0.09743  -0.01976  0.009187  0.05624  0.005863  0.04458  -0.8091
6.485e+09  0.8862  -0.2642  -0.03037  -0.02083  0.01495  -0.02944  -0.2111  -0.7795
6.486e+09  0.7293  -0.4759  -0.006663  0.01526  -0.01216  0.005879  -0.4537  -0.6518
6.488e+09  -0.164  -0.3779  0.02308  0.009936  -0.7048  -0.2708  -0.6831  -0.446
6.489e+09  0.223  -0.7932  0.01733  -0.02748  -0.01822  -0.01664  -0.7401  -0.189
6.49e+09  -0.06822  -0.9077  -0.009102  -0.01839  0.02801  0.006289  -0.7966  0.08194
6.491e+09  -0.3373  -0.8075  0.03903  0.00585  0.001572  0.01573  -0.6881  0.3847
6.492e+09  -0.6538  -0.5928  0.01433  -0.01587  0.03333  0.02672  -0.5395  0.5538
6.494e+09  -0.8052  -0.529  0.004981  0.01733  -0.1078  -0.03517  -0.3149  0.6852
6.495e+09  -0.8692  -0.003884  0.006753  -0.02538  -0.03044  -0.004604  -0.0319  0.7788
6.496e+09  -0.8347  0.1516  0.01395  0.02249  -0.01592  -0.03157  0.2512  0.7624
6.498e+09  -0.7183  0.5206  -0.02236  -0.01379  -0.008655  0.003091  0.4522  0.6189
6.499e+09  -0.4974  0.7402  -0.01902  -0.03577  -0.02896  -0.008403  0.68  0.4251
6.5e+09  -0.01314  0.5599  0.01884  -0.06296  -0.01148  0.02808  0.7359  0.1867
6.501e+09  0.0857  0.8842  -0.003851  -0.0296  -0.05435  0.01092  0.7465  -0.1111
6.502e+09  0.3743  0.8353  -0.01569  -0.008885  -0.001911  -0.03336  0.6718  -0.346
6.504e+09  0.6278  0.5903  0.02562  -0.02016  -0.04118  0.04655  0.5267  -0.5398
6.505e+09  0.7977  0.3563  0.01311  0.0201  0.08656  0.04175  0.3135  -0.7326
6.506e+09  0.89  0.02058  -0.004121  0.0275  -0.05254  0.01394  0.02245  -0.7776
6.508e+09  0.89  -0.2624  0.01331  -0.02973  -0.007827  -0.0002021  -0.2421  -0.7294
6.509e+09  0.7083  -0.551  -0.01364  0.005434  0.008219  -0.02735  -0.4554  -0.5967
6.51e+09  0.4437  -0.7511  0.006754  0.002236  0.02697  0.06352  -0.6342  -0.4056
6.511e+09  0.1941  -0.8669  0.001428  -9.086e-05  -0.05071  -0.01865  -0.7608  -0.1301
6.512e+09  -0.1306  -0.9477  0.01291  0.02443  -0.02306  0.05131  -0.748  0.114
6.514e+09  -0.3744  -0.8446  0.009535  0.002059  0.04193  0.0217  -0.6721  0.3706
6.515e+09  -0.6506  -0.6031  -0.0006206  0.04406  0.01185  -0.009148  -0.5063  0.5953
6.516e+09  -0.8663  -0.3617  0.0122  -0.01662  -0.04535  0.003581  -0.2097  0.6862
6.518e+09  -0.8762  -0.04205  0.00582  -0.008913  0.03711  0.001715  0.0582  0.7426
6.519e+09  -0.8833  0.2653  -0.03134  -0.009634  0.01787  0.0119  0.2554  0.7105
6.52e+09  -0.6656  0.5583  -0.00993  0.05573  0.008443  0.04756  0.5293  0.5866
6.521e+09  -0.4477  0.7179  0.007225  -0.01331  -0.02156  -0.04887  0.6459  0.2983
6.522e+09  -0.1307  0.8986  -0.01619  -0.004506  -0.02657  0.03093  0.7145  0.1158
6.524e+09  0.1831  0.8904  -0.01465  -0.02005  -0.0485  0.03268  0.7145  -0.1693
6.525e+09  0.4954  0.8212  -0.034  -0.003785  -0.02675  0.03129  0.6144  -0.4286
6.526e+09  0.7078  0.6138  0.005479  -0.01956  -0.01892  -0.03353  0.4563  -0.5367
6.528e+09  0.9325  0.3366  -0.02358  0.01391  0.001975  -0.009804  0.2087  -0.6803
6.529e+09  0.9754  -0.04642  0.01255  -0.03523  0.0397  0.03378  -0.04526  -0.6967
6.53e+09  0.8412  -0.4149  -0.005956  -0.004876  0.03719  0.007682  -0.2999  -0.6455
6.531e+09  0.6444  -0.5945  -0.0103  -0.04355  -0.02204  0.009061  -0.4827  -0.4958
6.532e+09  0.4395  -0.8316  0.01638  0.003751  0.01238  -0.02611  -0.6061  -0.2997
6.534e+09  0.2134  -0.9227  0.01399  0.004693  -0.04736  -0.05375  -0.6528  -0.09844
6.535e+09  -0.2247  -0.9318  -0.02688  -0.009239  0.01225  0.01472  -0.5918  0.1259
6.536e+09  -0.5854  -0.8378  0.01573  0.007253  0.009294  -0.008996  -0.5577  0.2941
6.538e+09  -0.8058  -0.569  -0.02611  -0.03447  0.002192  -0.03936  -0.4702  0.4696
6.539e+09  -0.9234  -0.2692  -0.002474  0.005417  -0.03193  -0.001213  -0.2486  0.5923
6.54e+09  -1.008  0.07062  0.009093  -0.01937  0.03677  0.01126  -0.06194  0.6338
6.541e+09  -0.9078  0.4095  0.03428  -0.009942  0.03801  -0.01512  0.1784  0.6621
6.542e+09  -0.6893  0.6676  0.000763  -0.02637  -0.05391  -0.02586  0.4128  0.5469
6.544e+09  -0.3679  0.9252  0.01107  0.004366  -0.01473  0.00969  0.5933  0.3489
6.545e+09  -0.1246  0.9757  -0.002205  -0.01774  0.002294  0.0191  0.6994  0.1695
6.546e+09  0.3237  0.9802  0.01794  -0.03303  -0.0222  0.005928  0.7152  -0.09036
6.548e+09  0.6438  0.7762  -0.004953  0.01228  -0.008858  0.05282  0.6448  -0.363
6.549e+09  0.945  0.5524  -0.007067  -0.01523  0.00898  -0.01426  0.4883  -0.5208
6.55e+09  0.9988  0.2522  -0.0137  0.01764  -0.0008244  0.001298  0.2878  -0.6999
