# Hz S RI R 50
6.25e+09  0.1593  0.9645  -0.01976  0.02416  -0.005191  0.01282  0.148  0.4711
6.251e+09  0.4477  0.7886  0.01746  -0.01196  -0.00276  0.02732  0.3572  0.4191
6.252e+09  0.7097  0.6301  -0.02546  0.003501  0.009021  -0.01896  0.5272  0.2428
6.254e+09  0.8987  0.2747  -0.03515  -0.03793  -0.0036  0.0138  0.5932  0.05426
6.255e+09  0.9528  -0.01048  0.003914  0.01321  0.002513  -0.02014  0.6112  -0.2336
6.256e+09  0.8679  -0.3748  -0.01469  -0.007188  -0.0632  0.02749  0.4982  -0.48
6.258e+09  0.6641  -0.6303  0.003941  0.006819  -0.006274  0.005527  0.2811  -0.5621
6.259e+09  0.4062  -0.806  0.02085  0.001379  0.04418  0.01005  0.04507  -0.6861
6.26e+09  0.07412  -0.9608  0.0009261  0.03434  0.0154  -0.01009  -0.2049  -0.6216
6.261e+09  -0.2176  -0.8831  -0.01582  -0.01119  -0.02723  -0.005036  -0.4439  -0.5202
6.262e+09  -0.4906  -0.7709  0.01742  0.001779  0.02906  -0.0352  -0.6037  -0.3527
6.264e+09  -0.6951  -0.5753  -0.0006674  0.0118  0.06662  -0.00463  -0.7267  -0.1354
6.265e+09  -0.8649  -0.2513  -0.02881  -0.03037  0.01673  -0.0008903  -0.7112  0.1763
6.266e+09  -0.9553  0.0724  -0.009159  0.002659  0.02706  -0.0039  -0.6131  0.3677
6.268e+09  -0.8358  0.3022  0.01122  -0.006915  0.002442  0.06314  -0.4144  0.5583
6.269e+09  -0.6555  0.6075  0.00188  -0.004988  -0.01952  0.02433  -0.202  0.7294
6.27e+09  -0.4168  0.881  0.005427  -0.02748  -0.001824  -0.05239  0.08045  0.7161
6.271e+09  -0.04355  0.9292  0.01346  0.01155  0.00172  -0.0005719  0.3228  0.6822
6.272e+09  0.2268  0.8451  0.009311  -0.01313  -0.04376  -0.0241  0.5409  0.5041
6.274e+09  0.4943  0.7571  -0.04494  0.02806  0.03839  -0.01054  0.6902  0.325
6.275e+09  0.8018  0.5799  -0.003653  0.01835  0.003888  0.02759  0.7601  0.06032
6.276e+09  0.8909  0.2538  -0.003843  -0.004094  0.003926  -0.04899  0.749  -0.2226
6.278e+09  0.9561  -0.1392  -0.003378  0.01609  0.02085  0.0133  0.6105  -0.4641
6.279e+09  0.8612  -0.3829  -0.005099  -0.01869  0.01082  -0.05769  0.4361  -0.6436
6.28e+09  0.6767  -0.6707  0.01153  -0.02841  0.01629  -0.01115  0.1528  -0.7594
6.281e+09  0.384  -0.819  -0.005716  -0.009725  -0.04119  -0.01943  -0.1291  -0.7538
6.282e+09  0.09168  -0.9093  -0.0235  -0.01402  -0.002775  -0.00367  -0.3677  -0.7083
6.284e+09  -0.2733  -0.9267  -0.02147  -0.02038  0.0398  0.01835  -0.6067  -0.4934
6.285e+09  -0.5795  -0.7092  0.0291  -0.02391  -0.0004588  -0.02747  -0.7478  -0.2564
6.286e+09  -0.7821  -0.506  0.0005231  0.01021  -0.03085  0.006159  -0.803  -0.01141
6.288e+09  -0.9104  -0.2167  -0.007076  0.002009  0.04639  0.0184  -0.7941  0.2511
6.289e+09  -0.9492  0.1249  -0.01187  -0.0002464  -0.0424  -0.007765  -0.6412  0.5049
6.29e+09  -0.8772  0.4758  -0.03621  -0.005414  0.01772  -0.01635  -0.402  0.6732
6.291e+09  -0.6556  0.6966  0.01665  -0.009026  0.01677  0.04026  -0.1305  0.7785
6.292e+09  -0.3476  0.9157  0.02225  0.02426  0.02601  0.02469  0.1589  0.8112
6.294e+09  -0.0234  0.963  0.01441  0.005796  0.02719  -0.02183  0.3932  0.7216
6.295e+09  0.3027  0.881  0.01074  -0.01122  0.001055  0.05359  0.6056  0.5396
6.296e+09  0.5945  0.7205  -0.01908  0.009752  0.02283  0.01561  0.7297  0.2714
6.298e+09  0.845  0.4693  -0.00883  -0.003218  0.02781  -0.01275  0.8393  -0.03841
6.299e+09  0.9696  0.1846  0.009495  -0.005938  -0.01162  -0.01703  0.7916  -0.2524
6.3e+09  0.9055  -0.1789  0.01709  -0.002808  -0.03317  -0.0007557  0.672  -0.5591
6.301e+09  0.7849  -0.5066  0.0239  -0.01908  -0.02163  -0.009206  0.3853  -0.7079
6.302e+09  0.5973  -0.7022  0.00591  0.01828  0.02504  -0.0201  0.1317  -0.7989
6.304e+09  0.262  -0.9303  -0.001631  -0.002601  0.06387  0.03173  -0.1418  -0.8259
6.305e+09  -0.07521  -0.9675  -0.02247  -0.02079  0.02047  -0.01683  -0.4278  -0.7551
6.306e+09  -0.3648  -0.8861  0.01173  0.001402  -0.04547  -0.04652  -0.6236  -0.5514
6.308e+09  -0.6639  -0.7656  -0.02124  -0.01424  0.008964  -0.007349  -0.8096  -0.3003
6.309e+09  -0.8681  -0.444  -0.003486  -0.03383  -0.05374  -0.008428  -0.8666  -0.0304
6.31e+09  -1.006  -0.116  0.00996  -0.01022  -0.03849  0.02127  -0.7962  0.2784
6.311e+09  -0.9599  0.1836  -0.009437  -0.021  -0.000292  0.0195  -0.6589  0.5564
6.312e+09  -0.7868  0.578  -0.01008  -0.0007105  -0.03184  -0.03068  -0.4477  0.7427
6.314e+09  -0.5857  0.8104  -0.01187  -0.009304  -0.02676  -0.09287  -0.1663  0.8412
6.315e+09  -0.2492  0.9589  -0.00921  -0.0101  0.01808  -0.008985  0.1707  0.8746
6.316e+09  0.08468  0.9798  -0.02491  -0.00026  -0.03048  0.02508  0.4113  0.7866
6.318e+09  0.4401  0.9111  0.01289  -0.003383  0.01881  -0.03537  0.6759  0.5691
6.319e+09  0.734  0.6629  0.01337  0.02619  0.01745  0.03105  0.8223  0.3167
6.32e+09  0.9227  0.3733  0.01888  -0.001042  0.03545  0.06362  0.8884  0.02811
6.321e+09  1.028  0.01765  -0.002365  0.01049  -0.0003147  -0.004379  0.8103  -0.2804
6.322e+09  0.9822  -0.2747  0.01098  0.004942  0.01772  0.07456  0.6986  -0.5657
6.324e+09  0.8012  -0.6294  0.01358  -0.01455  -0.006224  -0.02906  0.4578  -0.7751
6.325e+09  0.493  -0.8775  -0.02113  0.002108  0.007005  0.00385  0.1767  -0.8674
6.326e+09  0.1853  -1.015  -0.006755  0.01002  0.008725  -0.04181  -0.1478  -0.889
6.328e+09  -0.1282  -1.1  0.04617  -0.01891  -0.02975  -0.01207  -0.439  -0.7577
6.329e+09  -0.4928  -0.9408  0.01345  -0.0291  -0.03145  -0.002814  -0.6864  -0.57
6.33e+09  -0.7807  -0.7218  0.002712  -0.005921  0.03341  0.02133  -0.8461  -0.3102
6.331e+09  -1.029  -0.3863  0.03301  0.02617  0.04981  0.01244  -0.9049  -0.01403
6.332e+09  -1.105  0.02259  -0.0101  0.01222  -0.02947  0.004732  -0.9024  0.2642
6.334e+09  -1.03  0.4051  0.0277  0.02202  0.01343  -0.07436  -0.7476  0.5555
6.335e+09  -0.8121  0.7066  0.04398  0.01986  -0.005319  0.008894  -0.4858  0.7797
6.336e+09  -0.533  0.8971  0.005792  0.01424  -0.07045  0.01175  -0.1897  0.8514
6.338e+09  -0.1714  1.095  -0.009946  0.01073  -0.02681  0.01657  0.1373  0.9013
6.339e+09  0.2292  1.054  0.00441  0.01094  0.009637  0.006447  0.4275  0.8217
6.34e+09  0.5879  0.9619  0.006717  0.03771  -0.01627  0.01377  0.701  0.654
6.341e+09  0.8877  0.7091  -0.0216  -0.01775  0.01028  -0.02074  0.8318  0.3791
6.342e+09  1.102  0.3021  0.01012  -0.02672  -0.01022  -0.005794  0.935  0.01972
6.344e+09  1.114  -0.1002  -0.01343  -0.02863  0.0177  0.002176  0.8877  -0.2714
6.345e+09  1.013  -0.4604  0.02282  -0.02862  -0.0002927  -0.02047  0.7411  -0.5542
6.346e+09  0.832  -0.8688  0.0005619  0.00548  -0.01858  0.0147  0.5273  -0.7508
6.348e+09  0.494  -1.052  0.01548  0.01296  -0.0446  -0.04183  0.2088  -0.8942
6.349e+09  0.07836  -1.153  -0.00263  0.01685  -0.04645  -0.02532  -0.1011  -0.9143
6.35e+09  -0.3112  -1.159  -0.009279  0.005835  -0.0326  -0.02976  -0.4333  -0.835
6.351e+09  -0.6493  -0.9484  0.0005933  -0.02733  0.01434  0.01653  -0.6758  -0.6827
6.352e+09  -1.014  -0.6563  0.01004  -0.01766  -0.04343  0.03636  -0.8609  -0.3882
6.354e+09  -1.197  -0.3132  -0.01413  -0.0114  -0.0006216  0.0429  -0.9707  -0.05986
6.355e+09  -1.173  0.1152  0.0322  -0.0006328  0.0002588  0.05855  -0.9177  0.258
6.356e+09  -1.062  0.5661  -0.01729  0.00733  0.03609  -0.02372  -0.7501  0.5369
6.358e+09  -0.7982  0.8898  0.01924  0.05279  -0.006042  -0.004663  -0.512  0.7955
6.359e+09  -0.4175  1.111  -0.03871  -0.004982  0.014  -0.03206  -0.2328  0.8668
6.36e+09  0.0128  1.243  0.02579  0.001152  -0.02475  -0.01658  0.07909  0.9404
6.361e+09  0.4122  1.143  -0.0003513  0.02541  -0.06732  -0.005146  0.3909  0.8328
6.362e+09  0.8289  0.95  -0.01181  0.03006  0.02  0.02553  0.6657  0.7013
6.364e+09  1.098  0.5866  0.01795  0.0215  -0.0165  0.01712  0.8718  0.404
6.365e+09  1.2  0.1913  -0.006185  -0.000628  0.05009  -0.03519  0.947  0.04259
6.366e+09  1.234  -0.2214  -0.03739  -0.01931  0.03723  -0.05751  0.8882  -0.2402
6.368e+09  1.037  -0.6932  0.0221  -0.01836  -0.03554  -0.0009861  0.7533  -0.5752
6.369e+09  0.7687  -0.9939  -0.01133  -0.02821  0.05775  0.02602  0.5316  -0.7278
6.37e+09  0.3235  -1.211  0.005301  0.007106  0.02994  -0.01863  0.2292  -0.9008
6.371e+09  -0.04198  -1.263  0.005226  -0.01325  0.02675  -0.02651  -0.08354  -0.9666
6.372e+09  -0.5256  -1.183  0.02975  0.04155  0.04907  0.05047  -0.4043  -0.8938
6.374e+09  -0.9653  -0.9139  0.02233  -0.005512  0.01411  -0.01452  -0.6766  -0.6533
6.375e+09  -1.218  -0.5736  0.01138  0.02666  0.02291  0.009932  -0.8595  -0.4049
6.376e+09  -1.297  -0.1302  -0.01481  -0.04059  0.01203  0.04518  -0.9211  -0.1093
6.378e+09  -1.243  0.3702  0.03315  0.008456  0.009287  -0.00606  -0.8878  0.2518
6.379e+09  -1.083  0.8223  -0.01639  -0.008731  -0.06811  0.02231  -0.811  0.5458
6.38e+09  -0.7845  1.114  -0.001832  -0.003158  -0.01954  -0.01852  -0.5644  0.7386
6.381e+09  -0.3328  1.342  -0.01245  -0.006634  0.01733  -0.03715  -0.2708  0.8495
6.382e+09  0.1543  1.392  0.008521  -0.02973  -0.02279  0.03524  0.02885  0.8963
6.384e+09  0.6288  1.218  0.01147  -0.01392  0.0152  -0.03611  0.3271  0.8058
6.385e+09  1.041  0.9605  -0.02952  0.04655  0.0005306  0.002428  0.6383  0.6472
6.386e+09  1.308  0.5418  -0.001771  0.01925  -0.01369  0.02966  0.8339  0.4153
6.388e+09  1.402  0.02145  -0.0002197  0.04371  0.003875  -0.04257  0.912  0.1031
6.389e+09  1.323  -0.448  0.01205  0.01607  -0.05518  0.01804  0.9138  -0.2274
6.39e+09  1.088  -0.9029  0.009759  -0.008613  0.07528  -0.005299  0.8048  -0.5325
6.391e+09  0.6679  -1.195  0.02994  0.01115  0.01286  -0.01484  0.5619  -0.7738
6.392e+09  0.2304  -1.446  0.01846  0.02522  -0.007965  0.01603  0.2846  -0.9052
6.394e+09  -0.2769  -1.427  -0.03052  -0.01932  0.04774  -0.01147  -0.04909  -0.8726
6.395e+09  -0.7544  -1.257  -0.01008  -0.03235  0.007376  -0.03961  -0.2964  -0.844
6.396e+09  -1.195  -0.8928  -0.02162  0.01173  0.03758  0.02656  -0.66  -0.6762
6.398e+09  -1.401  -0.449  -0.01849  -0.01653  0.008234  0.006312  -0.8377  -0.445
6.399e+09  -1.453  0.06958  -0.02373  -0.02476  -0.01633  -0.02344  -0.9082  -0.1546
6.4e+09  -1.331  0.61  0.03174  -0.003573  0.005781  -0.03976  -0.8734  0.1783
6.401e+09  -1.039  1.059  0.02664  0.01188  0.02438  -0.04777  -0.8538  0.5001
6.402e+09  -0.6556  1.303  -0.03751  0.007822  -0.01164  0.05028  -0.5555  0.7101
6.404e+09  -0.08655  1.498  -0.01493  -0.04888  0.01998  0.02113  -0.3088  0.8633
6.405e+09  0.3802  1.478  0.04972  -0.05553  0.02851  0.01901  0.01783  0.9154
6.406e+09  0.9358  1.257  -0.006262  -0.03258  -0.0409  0.01209  0.3092  0.8418
6.408e+09  1.262  0.784  -0.01985  0.06809  0.04855  0.01485  0.6257  0.7177
6.409e+09  1.534  0.3087  -0.03894  0.004524  -0.01437  -0.016  0.7822  0.5361
6.41e+09  1.513  -0.2222  0.04322  0.03746  0.02281  -0.04219  0.8929  0.1703
6.411e+09  1.408  -0.733  0.02421  -0.04933  0.01693  0.009482  0.9133  -0.1564
6.412e+09  1.043  -1.201  0.01198  -0.007489  -0.003031  0.005601  0.8004  -0.491
6.414e+09  0.5574  -1.462  0.02586  -0.03896  0.05481  -0.01538  0.6267  -0.6715
6.415e+09  -0.01113  -1.539  -0.03706  -0.01375  0.008253  -0.00554  0.3267  -0.813
6.416e+09  -0.5301  -1.522  -0.04436  0.0493  -0.009149  -0.02572  0.007057  -0.8913
6.418e+09  -1.044  -1.2  0.02595  -0.01071  -0.002538  0.009721  -0.277  -0.8472
6.419e+09  -1.378  -0.7763  -0.01386  0.05222  -0.02276  -0.01419  -0.5905  -0.7318
6.42e+09  -1.655  -0.2315  0.01248  -0.03101  -0.02008  0.002857  -0.7657  -0.4645
6.421e+09  -1.606  0.3546  -0.01401  0.005043  -0.007024  0.03533  -0.8841  -0.2356
6.422e+09  -1.436  0.9216  0.0007886  -0.02189  0.005871  0.03358  -0.8798  0.1485
6.424e+09  -0.9999  1.328  0.006677  0.0196  0.02424  -0.0301  -0.7914  0.3471
6.425e+09  -0.4752  1.559  0.0188  -0.03387  0.0364  -0.0147  -0.5961  0.6499
6.426e+09  0.12  1.712  0.006819  -0.0107  -0.02234  0.05474  -0.3261  0.7753
6.428e+09  0.6684  1.522  0.02103  -0.02467  -0.05058  0.004189  -0.08549  0.9293
6.429e+09  1.246  1.197  -0.05103  0.02534  -0.02662  0.02048  0.2403  0.8387
6.43e+09  1.633  0.7127  -0.08769  0.01615  0.007524  0.008328  0.4947  0.7068
6.431e+09  1.804  0.03882  -0.04573  0.01416  -0.02141  -0.02142  0.7487  0.4958
6.432e+09  1.732  -0.5403  0.008119  0.01538  0.05095  -0.01272  0.8065  0.2231
6.434e+09  1.438  -1.074  0.02226  -0.001106  -0.005873  -0.04456  0.8674  -0.05866
6.435e+09  0.9828  -1.549  0.009877  -0.02492  -0.01384  0.001601  0.7791  -0.3712
6.436e+09  0.3675  -1.746  0.01419  -0.006761  0.005328  0.01878  0.6142  -0.6225
6.438e+09  -0.2971  -1.825  0.05015  -0.007413  0.006217  -0.004431  0.3411  -0.7905
6.439e+09  -0.9545  -1.585  -0.03491  0.004892  -0.02274  -0.0406  0.04272  -0.8588
6.44e+09  -1.482  -1.218  -0.01754  -0.007467  0.03336  0.05162  -0.2429  -0.8066
6.441e+09  -1.784  -0.634  0.009956  0.01826  -0.04348  -0.001355  -0.5277  -0.7144
6.442e+09  -1.938  0.05435  -0.004283  -0.01389  -0.02458  0.02137  -0.6728  -0.493
6.444e+09  -1.795  0.7229  -0.03715  0.007455  0.05034  -0.02691  -0.8073  -0.2133
6.445e+09  -1.404  1.356  -0.006716  0.001029  0.007148  0.01643  -0.8043  0.07985
6.446e+09  -0.9207  1.794  -0.01158  0.01242  0.006767  -0.0344  -0.7401  0.3835
6.448e+09  -0.2714  1.996  0.04875  -0.05779  -0.02734  0.0158  -0.6378  0.5934
6.449e+09  0.5536  1.992  0.01598  0.008559  0.001606  0.0167  -0.33  0.768
6.45e+09  1.227  1.711  -0.02152  -0.03263  0.0511  -0.08484  -0.08463  0.8154
6.451e+09  1.733  1.203  0.007947  -0.005981  -0.008283  0.02031  0.2086  0.7854
6.452e+09  2.052  0.5073  0.001044  0.001803  -0.03389  0.006328  0.4746  0.6972
6.454e+09  2.138  -0.2115  0.007902  -0.06189  -0.004146  0.001468  0.6346  0.4833
6.455e+09  1.917  -1.089  -0.00262  0.01489  0.02489  -0.03293  0.8215  0.1697
6.456e+09  1.431  -1.736  0.0281  0.009242  0.03701  0.05081  0.8262  -0.06596
6.458e+09  0.7568  -2.126  0.05307  0.02739  0.01428  0.004419  0.7602  -0.3375
6.459e+09  -0.03296  -2.387  -0.001085  -0.01906  0.002798  0.05647  0.5298  -0.5283
6.46e+09  -0.8837  -2.211  -0.01474  -0.03389  -0.02618  0.01044  0.3307  -0.7416
6.461e+09  -1.59  -1.804  -0.03297  0.008011  0.01309  -0.02493  0.03005  -0.8035
6.462e+09  -2.145  -1.072  -0.006805  -0.02282  -0.02167  0.03092  -0.2059  -0.7967
6.464e+09  -2.457  -0.2726  0.01388  -0.005529  0.02545  0.03496  -0.5124  -0.6596
6.465e+09  -2.465  0.7143  0.000666  0.01865  -0.007199  -0.07099  -0.6612  -0.4668
6.466e+09  -2.087  1.487  -0.02323  0.01802  -0.0102  0.01719  -0.7446  -0.2123
6.468e+09  -1.479  2.228  -0.00634  0.02799  -0.09216  0.003622  -0.789  0.06488
6.469e+09  -0.5745  2.728  -0.006051  0.006029  -0.03033  -0.003875  -0.707  0.3498
6.47e+09  0.4328  2.842  0.01788  -0.001627  0.04228  -0.02856  -0.5668  0.5663
6.471e+09  1.499  2.59  0.01242  -0.01138  0.08071  -0.03201  -0.3403  0.7067
6.472e+09  2.321  1.917  -0.001226  -0.04251  0.03926  0.01475  -0.05926  0.8233
6.474e+09  2.922  0.8065  -0.02013  -0.01605  0.04552  0.03976  0.2305  0.7547
6.475e+09  3.141  -0.2615  0.02179  0.0114  -0.01689  0.04976  0.4974  0.617
6.476e+09  2.928  -1.445  0.001642  -0.02018  -0.02451  0.05676  0.5993  0.4082
6.478e+09  2.256  -2.434  -0.0004426  0.009147  0.03495  -0.02851  0.7599  0.1931
6.479e+09  1.24  -3.296  0.05946  0.00998  0.06062  0.05332  0.8403  -0.07277
6.48e+09  -0.05461  -3.596  0.009068  -0.02298  -0.01087  -0.05161  0.667  -0.3114
6.481e+09  -1.481  -3.407  -0.004229  -0.01716  0.1229  -0.04101  0.5347  -0.5447
6.482e+09  -2.702  -2.724  0.01387  -0.02791  0.01637  0.02796  0.3261  -0.7012
6.484e+09  -3.653  -1.532  0.006371  -0.01878  -0.03553  0.04035  0.05253  -0.759
6.485e+09  -4.05  -0.03433  0.01291  0.002004  0.002844  0.007581  -0.1891  -0.7213
6.486e+09  -3.945  1.542  -0.002279  -0.04191  -0.02633  -0.0007436  -0.461  -0.627
6.488e+09  -2.563  3.54  -0.03282  0.01397  -0.7781  -0.06751  -0.6322  -0.4346
6.489e+09  -1.739  4.211  -0.03545  0.01983  -0.03796  -0.06813  -0.7294  -0.2004
6.49e+09  0.104  4.762  -0.02748  -0.03611  0.0523  -0.005678  -0.7487  0.1028
6.491e+09  1.928  4.331  0.01135  -0.005507  0.01707  -0.05165  -0.6397  0.3206
6.492e+09  3.739  3.3  -0.002499  0.02467  -0.009069  -0.02367  -0.5453  0.5656
6.494e+09  4.742  1.766  -0.01481  -0.03941  -0.05109  -0.07295  -0.299  0.7204
6.495e+09  5.199  -0.6052  0.0249  0.0252  0.007741  -0.02768  -0.02425  0.7759
6.496e+09  4.598  -2.643  0.01435  -0.01477  0.08429  0.06253  0.2151  0.7449
6.498e+09  3.241  -4.414  -0.01615  -0.02519  0.005293  -0.03714  0.4343  0.5972
6.499e+09  1.052  -5.398  0.0009671  0.002602  0.04982  -0.01173  0.6378  0.4082
6.5e+09  -1.211  -0.2625  -0.0186  -0.02954  -0.001054  0.08139  0.7358  0.1686
6.501e+09  -3.309  -4.251  0.01907  0.02266  0.0525  -0.02452  0.762  -0.1041
6.502e+09  -4.717  -2.391  0.01159  0.03518  0.002318  -0.0461  0.6695  -0.3491
6.504e+09  -5.192  -0.3303  -0.002547  -0.02893  -0.04337  -0.03104  0.5027  -0.6076
6.505e+09  -4.668  2.015  -0.02275  -0.008899  -0.05255  0.007772  0.2769  -0.7227
6.506e+09  -3.399  3.557  -0.0107  -0.02275  0.006852  -0.109  0.05427  -0.7946
6.508e+09  -1.793  4.441  -0.05902  -0.009603  -0.01615  -0.0243  -0.2522  -0.689
6.509e+09  0.2854  4.614  0.01088  -0.003422  0.1096  0.0002717  -0.4889  -0.5934
6.51e+09  1.94  4.035  0.0341  -0.001542  0.04749  0.01186  -0.6565  -0.3898
6.511e+09  3.236  2.906  -0.0145  -0.02654  0.03471  0.06996  -0.7607  -0.1154
6.512e+09  3.968  1.268  -0.01796  0.0185  -0.05318  0.01641  -0.7398  0.1418
6.514e+09  4.058  -0.3437  -0.006137  -0.003945  -0.02812  0.03348  -0.6203  0.3407
6.515e+09  3.443  -1.756  -0.01287  -0.01421  0.03385  0.03127  -0.4649  0.5671
6.516e+09  2.456  -2.795  0.004718  -0.03706  -0.009412  -0.001572  -0.2594  0.7229
6.518e+09  1.156  -3.363  0.018  -0.03183  0.05396  0.03942  -0.003398  0.7548
6.519e+09  -0.2561  -3.436  0.01205  0.01817  0.02853  0.006642  0.2638  0.707
6.52e+09  -1.461  -3.02  0.02951  -0.009113  -0.07557  -0.04589  0.4814  0.5767
6.521e+09  -2.44  -2.183  -0.0138  -0.01643  -0.0188  -0.02825  0.6458  0.3813
6.522e+09  -2.897  -1.158  0.01387  -0.003821  0.002287  -0.008527  0.6953  0.09465
6.524e+09  -3.112  -0.04694  -0.007905  -0.009497  0.01817  -0.01827  0.7205  -0.1076
6.525e+09  -2.672  1.039  -0.04218  -0.00772  0.05466  -0.002564  0.6263  -0.3718
6.526e+09  -2.052  1.999  0.001179  -0.03616  0.003804  -0.0467  0.4264  -0.5669
6.528e+09  -1.131  2.529  -0.009147  0.01823  0.06322  0.02159  0.2007  -0.7251
6.529e+09  -0.1943  2.675  -0.02321  0.001509  0.04699  -0.01508  -0.06893  -0.7252
6.53e+09  0.7086  2.523  -0.01054  0.0399  0.01999  -0.01274  -0.2909  -0.6175
6.531e+09  1.579  1.968  0.01118  0.008067  0.03581  0.002107  -0.4642  -0.4752
6.532e+09  2.11  1.291  -0.01236  0.01208  -0.02788  -0.04671  -0.5824  -0.2793
6.534e+09  2.336  0.4477  -0.003987  -0.0002659  0.05572  -0.05252  -0.6275  -0.09535
6.535e+09  2.316  -0.4446  -0.01716  -0.01618  0.0505  -0.05214  -0.6315  0.08253
6.536e+09  1.891  -1.256  0.00221  0.00502  -0.03582  -0.008826  -0.5868  0.2795
6.538e+09  1.379  -1.827  -0.02632  -0.0141  -0.06033  0.05875  -0.4447  0.4787
6.539e+09  0.6459  -2.087  -0.005379  0.001656  -0.03137  0.007568  -0.2803  0.5632
6.54e+09  -0.1555  -2.129  0.021  -0.005564  -0.001745  -0.03611  -0.05182  0.6566
6.541e+09  -0.9193  -1.961  0.000837  0.03251  -0.008112  0.01324  0.1739  0.6866
6.542e+09  -1.464  -1.373  0.003729  -0.01386  -0.003987  0.06198  0.3905  0.5759
6.544e+09  -1.862  -0.7412  -0.003333  0.05454  0.02483  -0.03379  0.5845  0.4062
6.545e+09  -1.992  -0.06289  0.01266  -0.03488  0.02256  0.008932  0.6851  0.172
6.546e+09  -1.844  0.6693  -0.01499  -0.0008051  -0.01518  0.01041  0.6816  -0.08043
6.548e+09  -1.464  1.23  0.02352  0.0009846  0.015  0.06535  0.6563  -0.3281
6.549e+09  -0.9956  1.664  -0.002502  0.03256  0.0261  0.02453  0.4902  -0.5621
6.55e+09  -0.2432  1.895  -0.01659  0.003632  0.01176  0.009205  0.3179  -0.694
6.551e+09  0.3773  1.786  -0.0009071  -0.002677  -0.06893  0.005643  0.04563  -0.695
6.552e+09  0.9527  1.535  0.01439  -0.03417  0.02172  -0.01684  -0.2117  -0.7186
6.554e+09  1.396  1.053  0.009385  -0.03192  -0.07303  0.01514  -0.4241  -0.5995
