# Hz S RI R 50
6.25e+09  0.6394  0.7715  0.01175  -0.01816  0.03263  -0.007496  0.1466  0.4674
6.251e+09  0.8485  0.4812  0.007458  -0.007942  0.01432  0.02758  0.3745  0.4264
6.252e+09  1.022  0.1336  -0.02518  -0.0004703  -0.01241  0.003668  0.5503  0.2606
6.254e+09  0.9722  -0.1478  0.03245  -0.003742  0.001679  -0.00263  0.6334  -0.01694
6.255e+09  0.8408  -0.566  0.0198  -0.01675  0.03783  0.003958  0.6005  -0.2193
6.256e+09  0.6582  -0.8087  -0.002922  -0.02385  0.04192  0.02709  0.48  -0.4392
6.258e+09  0.3145  -0.9055  0.02546  0.02521  0.06812  0.01514  0.2895  -0.6021
6.259e+09  -0.05794  -1.035  0.007675  -0.01082  -0.009281  0.0033  0.07668  -0.673
6.26e+09  -0.342  -0.8755  0.02416  -0.006448  0.02154  -0.04824  -0.2072  -0.6868
6.261e+09  -0.6461  -0.7296  0.00772  0.02272  -0.01709  0.01749  -0.4357  -0.5421
6.262e+09  -0.8938  -0.3961  -0.005936  -0.003164  -0.02055  0.07633  -0.5998  -0.368
6.264e+09  -0.9352  -0.1086  0.008844  0.003292  -0.03469  0.01024  -0.7536  -0.1008
6.265e+09  -0.899  0.3033  0.02111  -0.01446  0.02038  -0.04065  -0.7051  0.152
6.266e+09  -0.764  0.5658  0.04183  -0.003693  0.01337  0.009693  -0.6172  0.399
6.268e+09  -0.5348  0.8342  -0.01214  -0.02769  0.01778  0.03545  -0.4103  0.6092
6.269e+09  -0.2094  0.9222  -0.01511  0.01216  -0.05638  -0.04466  -0.169  0.7155
6.27e+09  0.0947  0.9737  0.01087  -0.005228  0.05424  -0.01565  0.09373  0.7754
6.271e+09  0.4273  0.8237  0.002259  0.02874  0.002853  0.06285  0.3117  0.6837
6.272e+09  0.733  0.6738  -0.001651  -0.03438  0.01837  0.04941  0.521  0.5239
6.274e+09  0.8827  0.355  0.005241  -0.01207  -0.007892  -0.01252  0.7187  0.2843
6.275e+09  0.9877  0.03691  0.02245  0.006068  -0.01695  0.01437  0.7285  0.05064
6.276e+09  0.9379  -0.2845  -0.01214  0.01072  0.0151  0.005271  0.7178  -0.231
6.278e+09  0.7531  -0.649  -0.009819  -0.01177  -0.03631  -0.04634  0.6173  -0.4809
6.279e+09  0.4861  -0.8586  -0.01056  -0.01641  -0.02367  -0.03294  0.3843  -0.6588
6.28e+09  0.1408  -0.9788  0.03414  0.02024  -0.03286  0.0007148  0.1847  -0.7299
6.281e+09  -0.2332  -0.9353  0.0009207  0.02877  0.006388  -0.02097  -0.09063  -0.796
6.282e+09  -0.4776  -0.8425  -0.01803  0.01407  0.05339  0.02663  -0.3717  -0.6821
6.284e+09  -0.7928  -0.5947  0.003087  0.003673  0.02151  -0.01015  -0.5892  -0.587
6.285e+09  -0.9704  -0.3052  -0.02062  -0.02029  0.0372  -0.005335  -0.7274  -0.2914
6.286e+09  -1  0.05155  0.006808  -0.01607  -0.002638  0.04313  -0.8013  -0.009651
6.288e+09  -0.8875  0.3621  0.005497  0.01214  0.005223  0.009739  -0.7584  0.2903
6.289e+09  -0.6833  0.6502  -0.009391  0.004797  0.018  -0.01179  -0.6249  0.4962
6.29e+09  -0.4061  0.9026  0.003432  0.004212  0.02665  -0.0049  -0.4079  0.6686
6.291e+09  -0.06447  0.9627  -0.02069  -0.009374  0.007682  0.04126  -0.1492  0.8031
6.292e+09  0.3143  0.9507  -0.01443  0.007673  0.01357  -0.02003  0.1278  0.792
6.294e+09  0.5707  0.7986  0.03089  0.0009411  0.03562  0.005962  0.3906  0.6943
6.295e+09  0.817  0.5084  -0.008665  0.01752  -0.01915  -0.0196  0.6168  0.5234
6.296e+09  0.9644  0.1825  -0.004531  0.01911  0.02703  -0.06939  0.7582  0.27
6.298e+09  0.973  -0.1158  -0.02211  0.0154  0.005409  -0.008397  0.8162  0.02731
6.299e+09  0.8993  -0.5093  -0.004675  -0.01383  -0.02901  0.0268  0.7846  -0.2791
6.3e+09  0.6328  -0.7191  0.009623  -0.01652  -0.02291  0.02706  0.6203  -0.5066
6.301e+09  0.3365  -0.9382  -0.0427  0.002696  0.006427  -0.0503  0.4296  -0.6982
6.302e+09  -0.02616  -0.9743  0.02839  0.02368  0.05578  0.06472  0.1621  -0.8446
6.304e+09  -0.3355  -0.9327  -0.01647  0.001132  -0.03228  0.01139  -0.1383  -0.8107
6.305e+09  -0.6762  -0.7499  0.01772  0.03193  0.01178  0.03023  -0.4422  -0.7248
6.306e+09  -0.8536  -0.5057  -0.001798  0.006515  -0.05309  0.01003  -0.6582  -0.549
6.308e+09  -0.9992  -0.1164  -0.000895  -0.01542  0.01225  -0.0252  -0.8102  -0.282
6.309e+09  -1.014  0.2195  0.01676  -0.01231  0.02559  -0.01975  -0.8815  -0.02261
6.31e+09  -0.8862  0.4956  0.009043  0.005635  -0.06098  -0.01167  -0.7839  0.2642
6.311e+09  -0.6395  0.8334  0.02837  -0.01226  0.006446  0.02543  -0.6856  0.521
6.312e+09  -0.2769  0.9204  0.009752  -0.01534  0.005719  -0.002661  -0.4212  0.7563
6.314e+09  0.1135  0.9924  0.01266  0.004987  0.05513  -0.01731  -0.1386  0.8255
6.315e+09  0.4161  0.9671  0.007529  -0.009776  -0.008601  -0.0296  0.1322  0.8781
6.316e+09  0.6883  0.7163  0.001876  0.009894  0.007042  0.01978  0.4329  0.7935
6.318e+09  0.9187  0.4675  0.02085  0.002763  0.03922  -0.0005973  0.6548  0.5457
6.319e+09  1.019  0.0971  -0.01468  -0.02489  -0.02307  -0.0306  0.8164  0.316
6.32e+09  1.03  -0.2819  0.04928  -0.02014  -0.00165  -0.04108  0.878  -0.001601
6.321e+09  0.8617  -0.6219  -0.001125  -0.002519  -0.06891  -0.02589  0.8318  -0.2793
6.322e+09  0.6181  -0.8378  -0.01854  -0.02737  -0.0003324  -0.03907  0.6548  -0.5391
6.324e+09  0.2334  -1.053  0.005716  -0.01053  0.02105  -0.0369  0.4592  -0.7705
6.325e+09  -0.1771  -1.03  -0.01116  -0.009856  0.01262  -0.02576  0.2274  -0.8922
6.326e+09  -0.5123  -0.9038  0.004601  -0.02354  -0.004979  -0.04118  -0.1837  -0.9093
6.328e+09  -0.7774  -0.6913  0.004804  0.0209  0.01961  0.01347  -0.4191  -0.7731
6.329e+09  -0.9678  -0.39  -0.03424  0.01454  0.006298  0.03027  -0.6649  -0.6036
6.33e+09  -1.098  -0.05745  -0.01389  0.03184  0.008579  -0.03139  -0.831  -0.3535
6.331e+09  -1.04  0.4022  0.01119  0.02042  0.03141  -0.05585  -0.9027  -0.007465
6.332e+09  -0.7923  0.5962  0.02396  0.02123  -0.03697  -0.03157  -0.8485  0.2738
6.334e+09  -0.496  0.9185  0.00156  -0.02915  -0.01206  0.02144  -0.7352  0.5394
6.335e+09  -0.1647  1.044  0.02257  0.0006615  0.006401  -0.03502  -0.4769  0.7947
6.336e+09  0.1772  1.036  -0.04398  -0.01347  0.05854  0.005968  -0.1863  0.8737
6.338e+09  0.5278  0.9361  -0.004355  -0.01622  0.04213  0.004795  0.1412  0.8969
6.339e+09  0.841  0.7017  0.004628  0.01799  0.000434  -0.006376  0.4163  0.8298
6.34e+09  1.033  0.3378  0.004289  -0.001065  -0.05409  -0.019  0.6736  0.6299
6.341e+09  1.104  -0.07659  -0.009491  0.01385  -0.02735  -0.02182  0.8481  0.3648
6.342e+09  1.017  -0.4446  -0.02375  0.002132  -0.0313  -0.001192  0.9423  0.04304
6.344e+09  0.8186  -0.76  -0.006595  -0.05278  -0.02719  -0.01769  0.8565  -0.2443
6.345e+09  0.4854  -0.9677  -0.003012  -0.006105  -0.01273  -0.03447  0.7366  -0.5851
6.346e+09  0.08407  -1.137  0.02995  0.03468  0.01016  -0.01841  0.5079  -0.7809
6.348e+09  -0.2574  -1.066  -0.005003  0.01128  -0.06256  -0.004725  0.2416  -0.9199
6.349e+09  -0.6368  -0.9097  -0.008095  -0.0002688  0.01079  0.03188  -0.1328  -0.9149
6.35e+09  -0.947  -0.607  0.01826  0.01014  -0.004698  0.02276  -0.4687  -0.8257
6.351e+09  -1.087  -0.3472  0.01131  0.01033  -0.0008133  0.00533  -0.6742  -0.659
6.352e+09  -1.143  0.1506  0.003587  -0.006244  0.02223  0.03484  -0.9111  -0.3584
6.354e+09  -1.042  0.5075  0.01618  0.03039  -0.007436  0.03068  -0.9042  -0.05582
6.355e+09  -0.7394  0.8097  -0.02255  -0.0246  0.01262  -0.04337  -0.873  0.2642
6.356e+09  -0.4589  1.099  -0.02674  0.03142  -0.01796  -0.00812  -0.7365  0.512
6.358e+09  -0.0676  1.16  -0.007915  -0.0003127  0.01469  -0.0426  -0.5241  0.8087
6.359e+09  0.3483  1.138  -0.009967  0.009082  -0.007676  -0.03245  -0.2411  0.9492
6.36e+09  0.7611  0.9496  0.03914  0.01857  0.007099  0.01005  0.09771  0.9163
6.361e+09  0.9775  0.6202  -0.009256  0.03095  -0.0116  0.03414  0.3775  0.8879
6.362e+09  1.166  0.2478  -0.005626  -0.0002431  -0.05719  0.04222  0.7221  0.6867
6.364e+09  1.153  -0.2018  -0.02514  0.0006277  -0.0185  0.01835  0.8774  0.3765
6.365e+09  1.039  -0.5954  -0.04612  0.01579  0.03428  0.008178  0.9637  0.04469
6.366e+09  0.7748  -0.9179  0.004592  -0.004092  0.01602  0.02688  0.9371  -0.2541
6.368e+09  0.4128  -1.167  -0.01839  0.008056  -0.0158  -0.03381  0.7223  -0.5348
6.369e+09  -0.04001  -1.203  -0.002138  -0.005662  -0.0373  0.01894  0.5516  -0.7649
6.37e+09  -0.4122  -1.103  -0.01624  -0.009371  0.007449  -0.03368  0.2242  -0.9333
6.371e+09  -0.8296  -0.9277  0.01963  0.02356  0.03314  0.02296  -0.1192  -0.9215
6.372e+09  -1.121  -0.6443  0.0002168  0.008151  -0.01764  0.01891  -0.3621  -0.9042
6.374e+09  -1.249  -0.1492  0.04272  -0.04071  0.04359  0.0312  -0.6664  -0.6752
6.375e+09  -1.212  0.2695  -0.01136  0.007115  -0.009336  0.002938  -0.8571  -0.4186
6.376e+09  -1.088  0.6848  -0.004024  0.007666  0.01614  -0.03055  -0.9164  -0.1268
6.378e+09  -0.7232  0.9676  -0.02273  -0.01157  -0.04253  0.01691  -0.9428  0.2156
6.379e+09  -0.3604  1.244  -0.06049  -0.0005301  0.01251  0.003645  -0.7839  0.5013
6.38e+09  0.1004  1.324  0.02911  -0.0236  0.01592  0.002303  -0.5521  0.7512
6.381e+09  0.5801  1.202  0.002635  -0.005214  -0.0365  0.01261  -0.2592  0.8587
6.382e+09  0.9479  0.9424  -0.005007  -0.009595  0.0218  0.02038  0.07775  0.9318
6.384e+09  1.219  0.5831  -0.02354  0.001684  0.01563  0.01564  0.333  0.8421
6.385e+09  1.339  0.1233  -0.01638  0.05702  -0.01495  0.02031  0.6584  0.7012
6.386e+09  1.344  -0.355  -0.03897  0.01347  0.02348  0.03435  0.8296  0.4458
6.388e+09  1.069  -0.8081  0.007296  0.007111  -0.01615  0.02618  0.9058  0.09981
6.389e+09  0.7841  -1.157  0.007138  0.01898  -0.01805  -0.00432  0.8976  -0.1942
6.39e+09  0.3744  -1.382  0.01718  0.004382  -0.04935  0.04782  0.7524  -0.5091
6.391e+09  -0.1752  -1.453  -0.02963  0.01381  0.03396  0.007356  0.5586  -0.7176
6.392e+09  -0.6052  -1.283  -0.0136  -0.04394  0.0006093  -0.01508  0.3105  -0.8859
6.394e+09  -1.038  -1.01  -0.02197  -0.01314  -0.007283  -0.0305  -0.01794  -0.9303
6.395e+09  -1.39  -0.5517  -8.762e-06  -0.007026  0.06056  -0.04112  -0.3633  -0.8676
6.396e+09  -1.496  -0.02622  0.007241  0.0006615  0.01206  -0.004204  -0.5938  -0.6793
6.398e+09  -1.489  0.4905  0.02333  -0.04049  -0.00143  0.0152  -0.8206  -0.4265
6.399e+09  -1.239  0.9198  -0.02255  -0.009484  0.01368  0.01538  -0.9202  -0.1463
6.4e+09  -0.855  1.305  0.01168  0.007061  0.01323  0.01897  -0.8758  0.1477
6.401e+09  -0.312  1.57  0.04629  -0.00648  0.03874  -0.02876  -0.7748  0.439
6.402e+09  0.2577  1.546  -0.01917  -0.0009429  -0.03626  0.01264  -0.5794  0.7032
6.404e+09  0.7806  1.373  -0.02175  -0.01929  0.002188  0.007819  -0.279  0.892
6.405e+09  1.229  1.031  -0.004522  0.03122  -0.05431  -0.02027  0.005501  0.9058
6.406e+09  1.569  0.5712  0.03301  -0.0142  -0.02142  -0.01804  0.3323  0.8739
6.408e+09  1.663  -0.0317  0.002238  0.03009  -0.06756  0.02854  0.6027  0.6719
6.409e+09  1.595  -0.679  -0.06182  -0.0005011  -0.02047  0.005853  0.7632  0.4735
6.41e+09  1.268  -1.175  0.0234  0.01833  -0.0301  0.00458  0.9023  0.1559
6.411e+09  0.8449  -1.657  -0.01774  0.01158  -0.01395  -0.01505  0.8853  -0.1553
6.412e+09  0.207  -1.779  0.00559  0.05958  -0.02376  -0.02072  0.7956  -0.4238
6.414e+09  -0.5146  -1.727  0.02332  -0.0004275  -0.05131  -0.03904  0.6221  -0.707
6.415e+09  -1.073  -1.499  0.03191  0.02836  -0.03222  -0.0174  0.2838  -0.8161
6.416e+09  -1.629  -1.015  0.01889  -0.04144  -0.0146  0.01748  0.01449  -0.9417
6.418e+09  -1.893  -0.445  -0.02314  -0.01468  -0.04793  -0.03929  -0.3385  -0.8095
6.419e+09  -2.007  0.3014  -0.02059  0.03826  -0.01181  -0.04097  -0.5662  -0.7309
6.42e+09  -1.8  1.015  0.01386  0.005258  -0.05537  -0.01128  -0.7247  -0.4566
6.421e+09  -1.355  1.625  -0.01611  0.03203  0.03287  0.008084  -0.8524  -0.1677
6.422e+09  -0.6934  1.955  0.01058  0.009282  -0.09464  -0.0003242  -0.8939  0.09145
6.424e+09  0.01657  2.116  -0.01357  0.02977  -0.001959  -0.0006368  -0.7774  0.4005
6.425e+09  0.8811  1.979  -0.03906  0.02996  -0.0755  0.009404  -0.6115  0.6668
6.426e+09  1.549  1.611  -0.006824  0.01712  0.031  -0.04683  -0.3567  0.8033
6.428e+09  2.044  0.9529  -0.03274  0.004757  0.008668  -0.01387  -0.08213  0.8821
6.429e+09  2.322  0.1758  0.006908  -0.02882  0.02542  0.07236  0.212  0.806
6.43e+09  2.269  -0.7658  0.01634  -0.02722  -0.006718  0.008037  0.5081  0.7069
6.431e+09  1.951  -1.567  0.03049  -0.0111  -0.00931  -0.01037  0.7502  0.54
6.432e+09  1.295  -2.131  -0.01552  0.04455  0.04388  0.08148  0.8327  0.1954
6.434e+09  0.4156  -2.587  -0.009247  0.01539  0.0792  -0.06099  0.8915  -0.06726
6.435e+09  -0.5985  -2.511  0.02435  0.01599  -0.005127  0.004793  0.8256  -0.3699
6.436e+09  -1.543  -2.254  0.03438  -0.01396  0.01657  0.007328  0.5702  -0.5877
6.438e+09  -2.317  -1.516  -0.008553  0.02225  -0.01716  -0.0674  0.3505  -0.7839
6.439e+09  -2.725  -0.64  -0.01261  0.02034  -0.07129  -0.0277  0.05032  -0.852
6.44e+09  -2.792  0.3771  -0.0131  -0.006618  0.02392  -0.01847  -0.218  -0.7969
6.441e+09  -2.516  1.485  -0.007073  -0.01489  0.05695  -0.02454  -0.51  -0.6738
6.442e+09  -1.858  2.32  -0.002127  0.02516  -0.001539  -0.05969  -0.6787  -0.5127
6.444e+09  -0.8244  3.004  0.01392  0.02368  -0.01408  0.06011  -0.8427  -0.235
6.445e+09  0.3015  3.067  -0.01286  0.004142  -0.02224  -0.05558  -0.8321  0.08568
6.446e+09  1.492  2.83  -0.01697  0.0163  -0.001641  -0.04073  -0.7443  0.3573
6.448e+09  2.463  2.039  0.02513  0.03855  0.03155  0.04452  -0.5818  0.5924
6.449e+09  3.138  0.9477  -0.007874  -0.02976  -0.08713  -0.05104  -0.3762  0.7604
6.45e+09  3.331  -0.2481  -0.005762  -0.03088  0.0485  0.04903  -0.07935  0.7687
6.451e+09  3.082  -1.588  0.04418  0.009975  -0.02836  0.0518  0.2055  0.7734
6.452e+09  2.186  -2.624  -0.03817  -0.03478  0.09617  -0.008311  0.5051  0.6631
6.454e+09  1.194  -3.344  0.006029  0.003729  0.04709  -0.05618  0.7051  0.4721
6.455e+09  -0.08854  -3.563  -0.04921  0.03356  0.0287  0.0309  0.7617  0.2391
6.456e+09  -1.581  -3.325  -0.006058  0.02546  -0.03409  0.03048  0.8196  -0.08947
6.458e+09  -2.72  -2.416  0.02144  -0.01182  -0.02379  0.04371  0.7889  -0.344
6.459e+09  -3.5  -1.325  -0.01043  0.005336  -0.01485  -0.04052  0.559  -0.5813
6.46e+09  -3.696  0.1738  0.02261  0.007046  -0.02035  -0.02463  0.38  -0.7264
6.461e+09  -3.373  1.596  0.05552  -0.0206  0.03468  -0.02764  0.05376  -0.8534
6.462e+09  -2.529  2.874  0.01252  0.00226  -0.05898  -0.003743  -0.2275  -0.7549
6.464e+09  -1.366  3.503  0.006391  -0.008837  0.03094  -0.02154  -0.4561  -0.6914
6.465e+09  0.1046  3.915  -0.009022  -0.008602  0.06491  -0.02518  -0.6486  -0.4535
6.466e+09  1.632  3.498  0.06133  0.01733  -0.06447  0.0257  -0.8191  -0.1786
6.468e+09  2.909  2.66  0.004466  -0.03478  0.006837  -0.003638  -0.7829  0.08587
6.469e+09  3.665  1.401  0.03721  -0.02288  0.006641  0.0187  -0.7693  0.3567
6.47e+09  3.957  -0.07228  0.0195  0.01078  0.04237  0.01536  -0.5598  0.5109
6.471e+09  3.612  -1.556  0.03243  -0.004196  -0.02598  0.009677  -0.3066  0.6905
6.472e+09  2.735  -2.798  -0.03233  -0.01617  -0.03692  -0.08918  -0.07412  0.7891
6.474e+09  1.442  -3.568  0.04125  -0.01958  0.002806  -0.02423  0.1845  0.7418
6.475e+09  -0.06432  -3.839  0.009136  0.04101  -0.007856  -0.09454  0.4641  0.6357
6.476e+09  -1.533  -3.586  0.01137  -0.0008881  0.07046  -0.0092  0.6333  0.4296
6.478e+09  -2.825  -2.778  0.003649  0.02508  0.01137  -0.0316  0.7576  0.1879
6.479e+09  -3.593  -1.539  -0.0383  0.0105  0.0196  -0.03642  0.777  -0.06452
6.48e+09  -3.889  -0.0531  -0.004386  -0.02851  0.01246  -0.01797  0.7396  -0.3549
6.481e+09  -3.581  1.416  -0.0289  0.04221  -0.06188  -0.003365  0.4871  -0.5765
6.482e+09  -2.802  2.561  -0.04149  -0.005885  -0.05059  0.04994  0.2887  -0.6957
6.484e+09  -1.564  3.504  -0.0115  0.03808  -0.004366  -0.008114  0.06279  -0.7536
6.485e+09  -0.1938  3.796  0.004678  0.01603  0.02517  0.05185  -0.2243  -0.7806
6.486e+09  1.094  3.564  -0.02314  -0.02446  0.01274  0.1271  -0.449  -0.6256
6.488e+09  3.098  2.979  0.03565  0.01831  -0.4778  -0.5708  -0.642  -0.4267
6.489e+09  3.299  1.813  0.0128  0.0125  0.01133  -0.03168  -0.7382  -0.1851
6.49e+09  3.749  0.507  -0.01045  -0.03405  -0.004063  -0.07069  -0.7335  0.1115
6.491e+09  3.601  -0.9102  0.03827  0.005803  0.01588  -0.05635  -0.7085  0.3123
6.492e+09  2.945  -2.183  -0.02276  -0.03385  -0.0007783  -0.03482  -0.5335  0.5392
6.494e+09  1.908  -3.107  0.01448  -0.01123  0.05818  0.07882  -0.3289  0.7149
6.495e+09  0.6654  -3.588  0.01072  -0.008353  -0.07148  0.02891  -0.003278  0.7499
6.496e+09  -0.694  -3.642  0.01939  -0.04692  0.005454  0.0142  0.2286  0.7351
6.498e+09  -1.97  -3.115  -0.01754  0.01897  0.01726  -0.01445  0.4726  0.6914
6.499e+09  -2.909  -2.183  -0.03092  -0.003066  -0.02587  0.03239  0.6278  0.3519
6.5e+09  -4.929  2.286  0.01114  -0.04187  -0.09282  -0.05409  0.7863  0.1357
6.501e+09  -3.644  0.5065  0.04551  -0.02616  0.02278  -0.07401  0.7869  -0.07473
6.502e+09  -3.229  1.804  0.01208  0.01534  -0.007947  0.00993  0.6857  -0.3655
6.504e+09  -2.241  2.835  0.03307  0.01269  -0.006451  -0.0372  0.4981  -0.5514
6.505e+09  -1.158  3.435  -0.03559  -0.01469  0.02788  0.01119  0.2952  -0.7188
6.506e+09  0.1586  3.663  -0.00829  0.03151  -0.0837  -0.03568  -0.003116  -0.7318
6.508e+09  1.534  3.288  0.06873  0.01299  -0.02612  -0.006693  -0.2333  -0.7108
6.509e+09  2.686  2.465  0.03171  -0.05654  0.07646  -0.06843  -0.4814  -0.5668
6.51e+09  3.393  1.303  0.006158  -0.03215  -0.005603  -0.06189  -0.6581  -0.3834
6.511e+09  3.642  0.07936  0.02802  0.003863  -0.006991  0.02898  -0.7225  -0.1043
6.512e+09  3.414  -1.248  -0.02874  -0.005156  -0.03981  -0.00235  -0.7072  0.1143
6.514e+09  2.726  -2.509  -0.009152  0.02601  -0.05134  -0.0394  -0.6713  0.3051
6.515e+09  1.664  -3.406  -0.0164  -0.00789  0.0283  -0.04461  -0.4933  0.5929
6.516e+09  0.1565  -3.757  0.007062  -0.02343  0.03036  -0.1108  -0.2386  0.7027
6.518e+09  -1.151  -3.599  -0.006665  0.004524  0.007609  0.0184  -0.001804  0.7676
6.519e+09  -2.436  -2.83  0.01573  0.03272  -0.04541  -0.06393  0.2609  0.6948
6.52e+09  -3.328  -1.826  -0.01456  -0.001388  -0.05286  0.03453  0.4664  0.5864
6.521e+09  -3.779  -0.4729  -0.02047  -0.02044  -0.04001  0.0547  0.6609  0.3758
6.522e+09  -3.683  0.9532  -0.005634  0.02413  -0.07527  -0.02208  0.7632  0.06222
6.524e+09  -3.04  2.335  0.0005847  -0.04867  -0.09996  -0.01547  0.6943  -0.1525
6.525e+09  -1.982  3.272  -0.02141  0.0136  -0.04792  0.07101  0.6185  -0.4023
6.526e+09  -0.505  3.767  0.0008586  -0.02057  0.005063  0.0309  0.4176  -0.5526
6.528e+09  0.8918  3.694  -0.03379  -0.003026  0.074  -0.01478  0.1583  -0.7264
6.529e+09  2.203  3.141  0.02746  0.001341  0.0256  -0.08927  -0.06707  -0.681
6.53e+09  3.183  2.034  0.01053  0.02072  -0.1034  -0.01169  -0.3121  -0.6229
6.531e+09  3.777  0.6885  0.009898  0.03066  -0.04769  -0.01822  -0.4728  -0.4805
6.532e+09  3.836  -0.7236  0.03894  -0.006049  0.05661  0.004613  -0.5898  -0.2979
6.534e+09  3.172  -2.108  0.02058  -0.02186  -0.0471  -0.06115  -0.644  -0.05647
6.535e+09  2.112  -3.073  -0.04012  -0.0173  -0.0472  0.058  -0.6588  0.08973
6.536e+09  0.7958  -3.677  -0.02676  -0.002216  -0.03916  0.05112  -0.5533  0.3011
6.538e+09  -0.6273  -3.609  0.007846  0.001028  0.01922  0.04351  -0.4479  0.5071
6.539e+09  -1.967  -3.176  0.02391  0.008013  0.01384  -0.02406  -0.2868  0.6331
6.54e+09  -2.95  -2.171  0.03673  -0.002743  -0.05063  0.06306  -0.05021  0.6912
6.541e+09  -3.484  -0.7975  0.01056  0.0596  -0.0243  0.07993  0.1768  0.6654
6.542e+09  -3.491  0.5769  -0.01387  0.03693  -0.01279  0.0523  0.4394  0.5579
6.544e+09  -2.996  1.806  0.007586  0.001071  0.0201  -0.002038  0.5838  0.4081
6.545e+09  -2.086  2.761  0.01635  0.01918  0.01835  -0.04543  0.6838  0.1895
6.546e+09  -0.934  3.27  0.0328  -0.03301  0.0474  0.04268  0.7137  -0.1043
6.548e+09  0.3683  3.398  -0.01075  -0.003461  0.001274  -0.006263  0.6808  -0.3526
6.549e+09  1.63  2.903  0.004354  -0.02236  -0.01131  0.01436  0.4815  -0.5425
6.55e+09  2.548  2.11  -0.003414  -0.01227  -0.02014  -0.06697  0.2887  -0.7107
6.551e+09  3.104  1.017  -0.0243  0.02472  0.04621  0.002274  0.02296  -0.7226
6.552e+09  3.179  -0.1988  -0.003557  0.02397  -0.005018  -0.004321  -0.2421  -0.7353
6.554e+09  2.793  -1.365  -0.009997  -0.03545  0.04531  0.04144  -0.4601  -0.5904
6.555e+09  2.089  -2.248  -0.01069  0.01484  -0.01156  0.02209  -0.6483  -0.4083
