# Hz S RI R 50
6.25e+09  0.07761  0.9425  -0.01349  -0.003664  0.03978  -0.03186  0.1344  0.4689
6.251e+09  0.3497  0.8394  -0.04433  0.01794  -0.01573  0.02087  0.387  0.4248
6.252e+09  0.6335  0.7145  0.02022  0.006956  -0.03477  -0.04018  0.5305  0.2189
6.254e+09  0.8582  0.3892  -0.003707  0.02913  0.03999  -0.01203  0.623  0.01688
6.255e+09  0.8832  0.1058  -0.01749  0.007298  0.02777  0.02526  0.5747  -0.2082
6.256e+09  0.8913  -0.2399  0.0001413  -0.02238  0.03967  0.04404  0.4495  -0.4405
6.258e+09  0.8003  -0.4891  -0.01225  -0.01986  -0.02491  0.0504  0.2748  -0.5741
6.259e+09  0.4929  -0.6871  0.04342  -0.0007667  0.02115  -0.06779  0.03037  -0.6991
6.26e+09  0.2479  -0.9287  -0.01991  -0.009243  0.02228  -0.0219  -0.2208  -0.6618
6.261e+09  -0.03969  -0.907  0.005639  -0.004121  -0.01849  0.02035  -0.4302  -0.5677
6.262e+09  -0.403  -0.8628  -0.01181  -0.001881  -0.01469  0.01233  -0.611  -0.368
6.264e+09  -0.5718  -0.6694  -0.02414  0.002871  0.03637  0.0191  -0.7114  -0.08617
6.265e+09  -0.8722  -0.3519  -0.005902  0.008034  0.02719  0.0213  -0.7152  0.1525
6.266e+09  -0.8705  -0.04461  0.02486  -0.006915  -0.02072  -0.02965  -0.6141  0.3798
6.268e+09  -0.8885  0.25  -0.02465  -0.02164  0.02721  -0.02315  -0.4357  0.6145
6.269e+09  -0.7357  0.5465  -0.005595  -0.0009063  -0.0441  -0.01555  -0.1665  0.7108
6.27e+09  -0.5277  0.7356  -0.000845  -0.01169  0.02133  -0.01789  0.08702  0.7246
6.271e+09  -0.1727  0.8655  0.001163  -0.04383  0.0009165  0.01564  0.3357  0.6625
6.272e+09  0.1418  0.8817  0.02016  0.02873  -0.02496  0.0317  0.5442  0.5352
6.274e+09  0.4248  0.8138  0.01073  0.01226  -0.04558  -0.01678  0.6878  0.2982
6.275e+09  0.6167  0.5981  0.004635  -0.0426  0.08247  -0.07064  0.7441  0.05804
6.276e+09  0.8237  0.2952  -0.01412  -0.0297  -0.01821  -0.0031  0.7284  -0.2356
6.278e+09  0.9387  0.06663  -0.00839  0.02226  -0.007422  0.02583  0.6322  -0.4343
6.279e+09  0.8778  -0.2419  0.007516  -0.004989  0.0186  -0.01132  0.4512  -0.6502
6.28e+09  0.694  -0.572  0.001358  0.01812  -0.02074  -0.01284  0.1663  -0.7775
6.281e+09  0.4555  -0.7368  0.02627  0.01589  0.008614  0.01977  -0.117  -0.731
6.282e+09  0.1766  -0.916  -0.01921  -0.01643  -0.009992  -0.01096  -0.381  -0.7036
6.284e+09  -0.1632  -0.9112  0.0232  0.001918  0.02342  0.03122  -0.5837  -0.5046
6.285e+09  -0.4833  -0.812  -0.002857  0.02179  -0.004751  0.02358  -0.7206  -0.2946
6.286e+09  -0.6825  -0.582  -0.01914  -0.0002034  0.008667  -0.003997  -0.799  0.01596
6.288e+09  -0.9096  -0.324  0.005091  0.01416  0.00206  0.06231  -0.7596  0.2395
6.289e+09  -0.9418  -0.01108  -0.0178  -0.01479  0.002261  -0.004209  -0.5869  0.5244
6.29e+09  -0.8713  0.3052  -0.002389  0.0207  0.04153  0.008994  -0.4322  0.6828
6.291e+09  -0.7024  0.5942  0.01594  0.01421  0.03366  0.005638  -0.1573  0.8205
6.292e+09  -0.4747  0.7857  -0.01355  -0.02037  -0.009787  0.02118  0.1187  0.7879
6.294e+09  -0.1784  0.9229  -0.002625  -0.003652  0.02041  -0.006019  0.4059  0.715
6.295e+09  0.1814  0.8983  0.006215  -0.002639  0.01931  0.009343  0.6202  0.559
6.296e+09  0.5177  0.7783  0.00889  0.006921  -0.02879  0.02166  0.7666  0.3041
6.298e+09  0.7284  0.6013  0.01025  -0.009462  -0.01896  0.01477  0.8274  -0.003049
6.299e+09  0.8928  0.3469  0.01305  -0.005023  0.03175  -0.01355  0.7971  -0.2842
6.3e+09  0.9881  -0.07416  0.002393  0.009839  -0.0205  0.04552  0.6177  -0.5393
6.301e+09  0.8931  -0.4266  0.008344  0.02802  0.0007689  -0.009201  0.438  -0.7075
6.302e+09  0.6668  -0.6661  -0.01465  0.01316  -0.01915  -0.07577  0.1589  -0.8269
6.304e+09  0.4913  -0.8173  0.01253  -0.006967  0.01528  -0.008798  -0.1153  -0.8014
6.305e+09  0.07386  -1  -0.001526  0.00207  -0.009123  -0.005375  -0.4201  -0.7429
6.306e+09  -0.2453  -0.9274  0.01667  0.008507  -0.01865  0.01392  -0.6685  -0.5333
6.308e+09  -0.5887  -0.7836  0.0159  5.561e-05  -0.009854  0.05416  -0.7794  -0.313
6.309e+09  -0.7324  -0.6098  0.01237  0.02561  -0.02866  0.001344  -0.8581  0.02242
6.31e+09  -0.9417  -0.2574  0.01028  0.01034  -0.02637  -0.02306  -0.7904  0.2781
6.311e+09  -0.9359  0.1157  -0.03418  -0.02487  -0.03397  -0.009574  -0.6367  0.5869
6.312e+09  -0.929  0.4588  0.01592  0.01964  -0.009901  -0.01159  -0.4154  0.7534
6.314e+09  -0.6826  0.7232  0.008722  -0.003624  -0.04963  -0.02419  -0.1205  0.8745
6.315e+09  -0.4214  0.9085  -0.002219  0.01272  0.0123  0.02569  0.1076  0.8768
6.316e+09  -0.043  0.9004  -0.01282  0.01649  0.005411  -0.03843  0.4189  0.764
6.318e+09  0.2904  0.9629  -0.001912  -0.009976  0.02625  0.01691  0.6507  0.5982
6.319e+09  0.6289  0.811  0.002381  0.0001783  0.02914  -0.005645  0.7963  0.2668
6.32e+09  0.8442  0.5262  0.01753  0.004949  0.01226  0.04916  0.896  0.01088
6.321e+09  0.9943  0.2038  0.007722  -0.001951  -0.009577  0.03593  0.8567  -0.3114
6.322e+09  1.017  -0.1732  -0.009908  0.008959  0.05359  -0.01138  0.6731  -0.5574
6.324e+09  0.9498  -0.461  -0.02167  -0.01368  0.03875  0.00517  0.4648  -0.7647
6.325e+09  0.7006  -0.8035  -0.02654  0.02736  0.02662  -0.05259  0.1559  -0.8948
6.326e+09  0.3086  -0.972  -0.009414  0.0321  -0.02365  0.001758  -0.1319  -0.909
6.328e+09  0.012  -1.054  0.005968  0.01869  0.008527  -0.0094  -0.4181  -0.7936
6.329e+09  -0.372  -0.9748  -0.001249  -0.0128  -0.005567  0.009596  -0.7  -0.6257
6.33e+09  -0.6981  -0.819  0.01402  -0.02813  0.02583  0.02281  -0.8193  -0.3366
6.331e+09  -0.9306  -0.4773  -0.02604  -0.004279  -0.02234  0.03287  -0.8973  -0.03021
6.332e+09  -1.093  -0.09548  0.001403  -0.008385  -0.02796  -0.008037  -0.8759  0.2958
6.334e+09  -1.094  0.283  -0.006797  0.01296  0.03483  -0.007559  -0.6983  0.541
6.335e+09  -0.8948  0.6356  -0.0009714  0.02053  0.001773  -0.00214  -0.5101  0.7488
6.336e+09  -0.6843  0.8683  0.02286  0.02196  -0.02401  0.03288  -0.204  0.8843
6.338e+09  -0.2768  1.069  -0.01081  -0.01091  0.008421  0.04976  0.1154  0.9203
6.339e+09  0.1082  1.093  -0.01106  0.02523  -0.04142  0.01133  0.4489  0.8145
6.34e+09  0.5196  0.9889  -0.006351  0.004111  -0.01522  0.01569  0.6615  0.6241
6.341e+09  0.8503  0.7203  0.004822  -0.002877  0.02487  0.04285  0.8635  0.3405
6.342e+09  1.055  0.4577  0.00837  0.01046  0.01053  -0.01038  0.9153  0.04059
6.344e+09  1.134  0.04716  0.008506  0.017  -0.009419  0.021  0.8969  -0.2896
6.345e+09  1.105  -0.3867  -0.003716  0.02322  0.04387  0.01897  0.7546  -0.5672
6.346e+09  0.8365  -0.6509  -0.04845  -0.01567  0.03797  0.01988  0.4667  -0.7894
6.348e+09  0.5917  -0.9689  0.001287  -0.02092  -0.02793  0.03515  0.1888  -0.9233
6.349e+09  0.2038  -1.156  -0.0006457  -0.006876  0.02449  0.001661  -0.1094  -0.9206
6.35e+09  -0.2526  -1.136  0.02868  0.004292  -0.05386  0.02247  -0.4408  -0.8337
6.351e+09  -0.5813  -0.9893  -0.01009  0.01558  0.02432  0.01617  -0.6594  -0.6858
6.352e+09  -0.9268  -0.7088  0.004452  -0.01837  0.04371  0.01264  -0.8391  -0.3558
6.354e+09  -1.097  -0.3361  0.06089  -0.01709  -0.01662  0.01984  -0.9246  -0.06311
6.355e+09  -1.216  0.07604  -0.02969  -0.01036  -0.0007072  -0.0506  -0.8816  0.266
6.356e+09  -1.091  0.4896  0.005062  -0.02685  0.06539  -0.0275  -0.7359  0.5609
6.358e+09  -0.8039  0.838  -0.001717  -0.01174  -0.007345  -0.01067  -0.5094  0.8062
6.359e+09  -0.526  1.082  0.004286  -0.003328  -0.02381  -0.03086  -0.2262  0.9237
6.36e+09  -0.0705  1.216  -0.00813  0.01068  -0.01821  -0.01461  0.1044  0.9216
6.361e+09  0.374  1.179  -0.01658  -0.006085  -0.02651  -0.001399  0.3878  0.8634
6.362e+09  0.7521  0.9733  0.006099  6.899e-05  -0.01583  0.01706  0.6877  0.6902
6.364e+09  0.9781  0.6819  0.0153  0.02052  -0.02185  0.01538  0.8683  0.3806
6.365e+09  1.23  0.2311  -0.04144  -0.01651  0.007982  -0.02301  0.9473  0.08635
6.366e+09  1.197  -0.1687  -0.004895  -0.01531  0.01037  0.01408  0.9094  -0.2375
6.368e+09  1.056  -0.6146  -0.005636  -0.0348  -0.02881  -0.01482  0.7459  -0.5489
6.369e+09  0.776  -0.9417  0.03572  0.01337  0.04604  -0.03569  0.5451  -0.8072
6.37e+09  0.3715  -1.155  -0.02755  0.01532  0.07333  -0.001608  0.2604  -0.9211
6.371e+09  -0.07432  -1.215  -0.04081  -0.005287  -0.003564  0.04421  -0.1075  -0.9748
6.372e+09  -0.4743  -1.133  0.005005  -0.02214  0.002044  -0.006052  -0.4303  -0.84
6.374e+09  -0.8614  -0.9391  0.01762  0.02323  -0.03248  -0.003722  -0.6499  -0.6749
6.375e+09  -1.115  -0.5356  0.03073  -0.0292  -0.004233  -0.008424  -0.8656  -0.3601
6.376e+09  -1.2  -0.1582  -0.01573  -0.00321  -0.04482  0.02795  -0.9402  -0.08326
6.378e+09  -1.156  0.2933  -0.0243  -0.05651  -0.006209  -0.05084  -0.9205  0.2686
6.379e+09  -0.9735  0.6968  0.003742  0.004121  0.03505  0.04286  -0.7901  0.5299
6.38e+09  -0.6445  0.9848  -0.004552  0.002283  0.006402  0.01839  -0.5365  0.7463
6.381e+09  -0.2678  1.143  -0.02604  -0.01385  -0.01419  -0.006247  -0.2504  0.9188
6.382e+09  0.1883  1.203  0.007944  -0.007684  0.02522  0.032  0.05026  0.9484
6.384e+09  0.5716  1.091  -0.02933  -0.01703  -0.00968  -0.03016  0.3976  0.862
6.385e+09  0.92  0.8464  0.02254  -0.01833  -0.01845  -0.0356  0.6705  0.6651
6.386e+09  1.156  0.4736  -0.02197  0.004495  -0.03833  -0.02117  0.8702  0.4639
6.388e+09  1.204  -0.01635  -0.005212  -0.003145  -0.01141  0.03708  0.8833  0.1312
6.389e+09  1.102  -0.3663  0.02851  -0.009935  -0.000735  0.002314  0.9231  -0.2073
6.39e+09  0.9596  -0.7079  0.01374  -0.02631  -0.07226  -0.01921  0.7878  -0.4377
6.391e+09  0.616  -1.026  -0.02276  0.04392  0.02493  -0.002237  0.6065  -0.7048
6.392e+09  0.2364  -1.202  -0.01985  0.03762  -0.02756  -0.004925  0.2984  -0.8831
6.394e+09  -0.1888  -1.2  -0.0189  -0.01039  -0.02414  -0.01332  -0.003583  -0.937
6.395e+09  -0.6082  -1.035  0.008245  -0.01981  0.02843  0.02903  -0.3648  -0.8908
6.396e+09  -0.9444  -0.7075  0.01341  -0.01803  -0.05764  0.0005418  -0.6467  -0.6545
6.398e+09  -1.152  -0.3397  0.02354  -0.03008  -0.01571  -0.01734  -0.7964  -0.4696
6.399e+09  -1.233  0.04078  0.01938  0.01337  -0.007268  0.01701  -0.8482  -0.1334
6.4e+09  -1.093  0.4347  0.03566  -0.0173  -0.01349  -0.005461  -0.9095  0.1803
6.401e+09  -0.8815  0.7925  0.01042  -0.01991  -0.01249  0.02323  -0.786  0.4389
6.402e+09  -0.5223  1.077  0.01463  0.003444  0.01508  -0.05237  -0.5782  0.7222
6.404e+09  -0.1118  1.18  0.04587  -0.02105  -0.0356  0.01761  -0.3048  0.8517
6.405e+09  0.291  1.115  -0.002339  0.008284  -0.0243  -0.0245  -0.01461  0.8975
6.406e+09  0.683  0.9922  0.032  -0.05123  -0.01977  0.04288  0.3052  0.8883
6.408e+09  1.014  0.6568  -0.0221  0.02486  0.0477  -2.11e-05  0.5745  0.6997
6.409e+09  1.123  0.2931  -0.03899  0.01527  -0.01673  -0.01326  0.794  0.4445
6.41e+09  1.178  -0.1391  0.001499  0.003891  -0.03017  -0.01818  0.9184  0.2002
6.411e+09  1.027  -0.5003  -0.0101  -0.03828  0.01042  0.01432  0.8943  -0.1473
6.412e+09  0.8779  -0.8202  0.002726  -0.01222  -0.002396  0.02209  0.7854  -0.4186
6.414e+09  0.4884  -1.092  0.02043  0.02765  0.01514  0.008751  0.5843  -0.6688
6.415e+09  0.07695  -1.142  -0.01021  0.05695  -0.03666  -0.0278  0.3075  -0.8361
6.416e+09  -0.3436  -1.11  -0.007016  -0.02029  0.04907  0.02755  0.04426  -0.8886
6.418e+09  -0.6598  -0.9241  0.02326  -0.03783  -0.04311  0.01304  -0.3111  -0.8471
6.419e+09  -0.9995  -0.6467  0.03067  0.008811  0.003205  0.03137  -0.5729  -0.6784
6.42e+09  -1.164  -0.2445  0.01403  -0.002995  0.05551  0.02475  -0.7447  -0.4562
6.421e+09  -1.19  0.1753  -0.0286  0.05161  -0.02597  0.02135  -0.8422  -0.2023
6.422e+09  -1.034  0.5955  0.02074  0.01159  -0.03317  -0.03823  -0.8477  0.1457
6.424e+09  -0.8038  0.8815  0.02724  -0.02363  0.01374  -0.02414  -0.7577  0.4393
6.425e+09  -0.4201  1.113  -0.03724  -0.005875  0.01853  -0.005295  -0.5835  0.6214
6.426e+09  -0.002853  1.192  -0.0001607  -0.02357  -0.05317  0.01626  -0.3607  0.8341
6.428e+09  0.3898  1.11  -0.02752  -0.02425  0.01987  -0.04272  -0.05063  0.8869
6.429e+09  0.7753  0.9333  -0.01641  -0.008843  0.02745  0.06301  0.2556  0.8172
6.43e+09  1.037  0.6276  0.01049  -0.04056  -0.02306  0.02262  0.5101  0.7337
6.431e+09  1.18  0.2066  0.009533  0.05392  0.05346  -0.02474  0.7467  0.4812
6.432e+09  1.248  -0.242  -0.004202  0.006434  0.005691  -0.02158  0.8526  0.1886
6.434e+09  1.042  -0.6466  -0.0165  -0.01547  0.051  -0.005808  0.8636  -0.05625
6.435e+09  0.7412  -0.9923  -0.02238  -0.04836  -0.00322  -0.003541  0.7491  -0.3682
6.436e+09  0.416  -1.155  0.03847  0.02569  0.031  -0.01703  0.6089  -0.5732
6.438e+09  -0.05107  -1.225  -0.02089  0.0192  -0.03241  0.006699  0.3721  -0.7581
6.439e+09  -0.467  -1.148  -0.04065  0.02264  3.658e-05  0.02571  0.08112  -0.7964
6.44e+09  -0.8192  -0.9355  0.0195  0.01175  -0.002079  0.03816  -0.2155  -0.8202
6.441e+09  -1.102  -0.5739  0.0227  -0.00453  -0.03088  0.01575  -0.5071  -0.723
6.442e+09  -1.272  -0.0869  0.03132  0.01442  -0.01369  -0.02493  -0.7291  -0.4698
6.444e+09  -1.202  0.3118  -0.002003  -0.05757  0.03526  -0.01126  -0.8696  -0.1974
6.445e+09  -1.012  0.7343  0.03938  -0.005263  -0.0244  -0.03702  -0.8196  0.0787
6.446e+09  -0.723  1.076  -0.01383  0.001263  -0.0001114  0.011  -0.7526  0.4001
6.448e+09  -0.3333  1.193  0.009799  -0.03878  -0.03444  -0.02002  -0.558  0.6186
6.449e+09  0.0968  1.28  0.003225  0.0391  -0.03877  0.002263  -0.3253  0.8026
6.45e+09  0.6049  1.135  0.05365  -0.04966  0.01807  -0.02433  -0.06246  0.8293
6.451e+09  0.8902  0.8515  0.01722  0.01181  0.01047  -0.0296  0.2073  0.8315
6.452e+09  1.23  0.467  0.003372  0.004056  0.006439  -0.03131  0.4744  0.6932
6.454e+09  1.329  0.0002502  -0.0188  -0.0439  0.0008469  -0.01774  0.731  0.4815
6.455e+09  1.267  -0.434  -0.03467  0.01309  0.008768  -0.01663  0.7801  0.1861
6.456e+09  1.062  -0.8198  0.03983  -0.01069  -0.0139  0.04579  0.7737  -0.08753
6.458e+09  0.6211  -1.165  -0.0215  -0.01227  -0.02421  -0.005066  0.7284  -0.3065
6.459e+09  0.1867  -1.357  -0.02294  0.01547  -0.0007875  0.00571  0.5863  -0.6013
6.46e+09  -0.2787  -1.282  -0.01893  -0.0261  -0.005443  -0.01333  0.312  -0.7471
6.461e+09  -0.7785  -1.15  -0.01561  0.02984  -0.00865  0.008764  0.08941  -0.827
6.462e+09  -1.1  -0.8062  -0.02186  -0.01103  -0.002004  -0.01581  -0.2501  -0.8136
6.464e+09  -1.344  -0.3537  -0.007481  0.01067  -0.02289  -0.007227  -0.4383  -0.6611
6.465e+09  -1.438  0.1301  -0.03638  0.02372  0.012  -0.0655  -0.6497  -0.453
6.466e+09  -1.315  0.6491  0.0153  -0.0005408  -0.002458  -0.03943  -0.7737  -0.1856
6.468e+09  -0.9428  1.071  -0.01337  -0.01045  0.06989  0.05612  -0.7935  0.04508
6.469e+09  -0.607  1.322  -0.04775  0.003545  -0.01396  -0.02233  -0.6929  0.3923
6.47e+09  -0.05315  1.408  0.02512  0.01616  -0.009024  0.0008853  -0.5274  0.5831
6.471e+09  0.5051  1.332  0.005445  0.02949  -0.005414  -0.004284  -0.3285  0.7194
6.472e+09  0.9856  1.17  0.02903  0.03021  -0.031  0.05196  -0.01574  0.826
6.474e+09  1.277  0.701  0.01627  -0.02109  -0.01494  0.04384  0.2007  0.7576
6.475e+09  1.523  0.2047  -0.01347  0.007338  -0.0227  0.0272  0.4165  0.6763
6.476e+09  1.402  -0.3084  -0.001974  0.006678  0.03174  0.03562  0.6331  0.4337
6.478e+09  1.235  -0.8187  -0.01498  0.01126  -0.03422  -0.03906  0.7911  0.1519
6.479e+09  0.8677  -1.242  -0.01369  -0.02696  -6.696e-05  0.05253  0.749  -0.1125
6.48e+09  0.3559  -1.481  0.002637  0.01594  0.04748  -0.008848  0.6385  -0.3387
6.481e+09  -0.1761  -1.478  -0.03601  -0.01856  -0.03058  -0.01209  0.5799  -0.5623
6.482e+09  -0.8105  -1.361  0.01756  -0.0006706  -0.003902  -0.01519  0.3076  -0.7048
6.484e+09  -1.129  -1.023  0.009037  -0.003278  0.01284  -0.004394  0.0515  -0.7402
6.485e+09  -1.468  -0.5041  -0.02621  0.02275  0.01293  0.02596  -0.2143  -0.7294
6.486e+09  -1.548  0.06326  -0.01894  -0.05691  0.006606  -0.03088  -0.4658  -0.6385
6.488e+09  -1.248  1.323  -0.007443  -0.01321  -0.4765  0.512  -0.6495  -0.4239
6.489e+09  -1.133  1.087  0.05868  -0.05618  -0.009648  -0.0182  -0.7439  -0.2119
6.49e+09  -0.6337  1.408  -0.000874  0.04448  0.002492  0.01724  -0.7997  0.07842
6.491e+09  -0.0386  1.623  -0.009373  -0.01153  0.04814  0.0183  -0.6756  0.3523
6.492e+09  0.5042  1.488  0.01711  -0.0286  -0.04339  -0.01831  -0.5002  0.5609
6.494e+09  1.136  1.247  -0.01328  -0.03997  0.07349  -0.1314  -0.2949  0.7021
6.495e+09  1.394  0.7457  0.01554  -0.009249  -0.03362  -0.02019  -0.05902  0.7162
6.496e+09  1.584  0.181  0.01148  0.03627  -0.02191  0.01107  0.2396  0.7122
6.498e+09  1.563  -0.4032  0.01672  0.02252  -0.06909  -0.03441  0.4518  0.5846
6.499e+09  1.269  -0.899  -0.005214  0.05062  0.01302  0.01201  0.5877  0.3803
6.5e+09  0.06115  -2.293  -0.0194  -0.03058  0.04242  -0.01348  0.7531  0.1789
6.501e+09  0.2627  -1.54  -0.01352  0.01267  0.006892  -0.04043  0.7654  -0.1188
6.502e+09  -0.2816  -1.523  0.01943  0.01573  0.001604  0.01676  0.6511  -0.3434
6.504e+09  -0.8835  -1.259  -0.004855  -0.02787  0.03762  0.04905  0.5156  -0.5671
6.505e+09  -1.256  -0.8658  0.008288  0.001576  -0.01494  -0.04291  0.2684  -0.6968
6.506e+09  -1.541  -0.3512  0.01679  0.000133  0.01669  -0.0248  0.007092  -0.7257
6.508e+09  -1.542  0.2331  0.0122  0.01552  -0.0358  0.01811  -0.2449  -0.7295
6.509e+09  -1.349  0.7649  -0.002067  0.007016  -0.01112  0.0119  -0.4975  -0.5875
6.51e+09  -0.9694  1.168  0.0103  -0.01358  -0.01143  0.009641  -0.68  -0.3734
6.511e+09  -0.5186  1.418  0.02188  -0.01037  -0.001179  -0.01231  -0.7266  -0.1705
6.512e+09  0.04408  1.466  0.03295  0.006235  0.02159  0.0339  -0.7407  0.1149
6.514e+09  0.6249  1.334  -0.02115  -0.01763  -0.01212  -0.03953  -0.663  0.4108
6.515e+09  1.112  1.041  -0.0184  0.01448  -0.01994  0.03769  -0.4812  0.5837
6.516e+09  1.336  0.5272  0.03193  0.0194  0.05437  0.005413  -0.2157  0.7001
6.518e+09  1.414  0.03791  -0.01482  -0.004938  0.03276  -0.05364  0.06965  0.7667
6.519e+09  1.337  -0.4825  -0.03734  0.02727  -0.03289  0.06265  0.2614  0.6863
6.52e+09  1.061  -0.8975  0.01781  0.006325  0.01326  -0.006219  0.5004  0.5283
6.521e+09  0.6222  -1.137  0.05297  0.02556  0.03541  0.02037  0.6562  0.3548
6.522e+09  0.1527  -1.343  -0.02196  0.005347  0.05016  -0.05186  0.7105  0.07205
6.524e+09  -0.2991  -1.317  -0.01017  -0.04364  -0.01156  0.01417  0.7011  -0.1676
6.525e+09  -0.779  -1.032  -0.002617  -0.009324  0.01068  -0.003778  0.6022  -0.3892
6.526e+09  -1.1  -0.7068  -0.03218  -0.03952  -0.007908  0.02064  0.4499  -0.5905
6.528e+09  -1.289  -0.2412  0.01596  0.01086  0.07777  0.00489  0.2001  -0.7061
6.529e+09  -1.258  0.2218  -0.0002671  -0.004572  0.01979  0.01858  -0.04911  -0.6977
6.53e+09  -1.153  0.6505  0.01291  0.007689  -0.01339  -0.001909  -0.3063  -0.6549
6.531e+09  -0.8025  1.013  0.01549  0.04699  0.01333  0.00201  -0.4742  -0.4711
6.532e+09  -0.3017  1.225  0.02883  -0.03122  0.04638  -0.03852  -0.6257  -0.3187
6.534e+09  0.07896  1.214  0.00784  -0.0186  0.09392  0.01079  -0.6571  -0.1026
6.535e+09  0.4798  1.136  -0.005162  -0.02183  -0.02254  0.01313  -0.6391  0.1502
6.536e+09  0.8935  0.8843  -0.01292  -0.04475  -0.01624  -0.05353  -0.5482  0.3064
6.538e+09  1.126  0.4871  -0.02076  0.007566  -0.00193  -0.0218  -0.4616  0.4536
6.539e+09  1.145  0.0525  0.04223  0.003577  -0.003074  0.03303  -0.2747  0.6031
6.54e+09  1.127  -0.3719  -0.005639  0.00516  -0.002744  -0.001613  -0.06025  0.6734
6.541e+09  0.8748  -0.7524  -0.01725  0.01015  -0.0002421  0.008359  0.1809  0.651
6.542e+09  0.5997  -1.037  -0.006459  -0.005337  -0.005647  0.02485  0.4543  0.5853
6.544e+09  0.1457  -1.176  0.0148  0.00204  -0.0206  0.003619  0.5812  0.4048
6.545e+09  -0.2565  -1.137  0.002942  0.01355  0.003513  -0.02625  0.7119  0.1579
6.546e+09  -0.6923  -0.9549  0.006143  0.01604  0.03357  0.02029  0.6928  -0.05985
6.548e+09  -0.9106  -0.6596  0.02974  0.01869  0.00852  -0.003756  0.6428  -0.3294
6.549e+09  -1.062  -0.2898  0.008327  -0.009753  -0.008946  0.006476  0.4973  -0.5163
6.55e+09  -1.081  0.1574  -0.01938  0.02278  -0.001428  -0.02566  0.2689  -0.6894
6.551e+09  -0.9483  0.4387  -0.01737  -0.005476  0.02475  0.02083  0.02916  -0.75
6.552e+09  -0.7305  0.7439  -0.001375  0.008921  -0.0002815  -0.01891  -0.1986  -0.6975
