# Hz S RI R 50
6.25e+09  0.1442  0.9781  0.004133  0.02247  0.01821  0.005844  0.179  0.4497
6.251e+09  0.4  0.9129  0.01464  -0.0275  0.01168  0.01275  0.4022  0.3997
6.252e+09  0.6388  0.657  0.01632  -0.008024  0.02043  -0.006331  0.573  0.2019
6.254e+09  0.8189  0.3764  0.02071  0.03726  0.02368  0.002678  0.6214  0.01399
6.255e+09  0.895  0.107  -0.009932  0.02731  0.008454  -0.01636  0.5891  -0.2315
6.256e+09  0.9268  -0.304  -0.02302  0.01399  -0.01151  -0.03845  0.4758  -0.4575
6.258e+09  0.7224  -0.5779  -0.02868  0.005184  0.02871  0.0395  0.3029  -0.6127
6.259e+09  0.5061  -0.7397  -0.01643  0.03783  -0.04301  -0.01196  0.06255  -0.6773
6.26e+09  0.1925  -0.9373  0.0414  0.02715  0.03875  -0.007198  -0.2207  -0.6458
6.261e+09  -0.1219  -0.921  0.02413  -0.03874  0.004886  -0.008173  -0.4582  -0.5353
6.262e+09  -0.4396  -0.8053  0.005461  -0.004391  -0.01929  -0.02102  -0.6367  -0.3322
6.264e+09  -0.6582  -0.6365  0.03464  -0.005882  0.009583  -0.03185  -0.7099  -0.1136
6.265e+09  -0.8837  -0.3441  -0.0008663  0.01552  -0.02182  0.0564  -0.6937  0.1449
6.266e+09  -0.9128  -0.0006629  0.02111  0.002039  -0.02944  0.02734  -0.6417  0.4016
6.268e+09  -0.8845  0.306  0.01129  0.01785  -0.02252  -0.009703  -0.4237  0.6141
6.269e+09  -0.7118  0.5531  -0.01734  0.008152  -0.009112  -0.04918  -0.1998  0.7046
6.27e+09  -0.4383  0.7637  -0.003044  -0.0175  -0.04797  0.0262  0.08663  0.7707
6.271e+09  -0.1827  0.8486  -0.006168  0.01928  0.04535  -0.02977  0.3279  0.6664
6.272e+09  0.1867  0.9109  0.006374  0.02146  -0.0275  0.03402  0.5179  0.5153
6.274e+09  0.437  0.7496  -0.03468  0.02163  -0.006718  -0.005419  0.7007  0.319
6.275e+09  0.7256  0.5594  0.001455  -0.02026  0.02977  -0.01154  0.7417  0.03034
6.276e+09  0.8582  0.3159  0.06592  0.0261  -0.0296  -0.03167  0.7509  -0.2122
6.278e+09  0.9656  -0.02061  0.02031  0.01404  -0.02533  -0.02561  0.6032  -0.4551
6.279e+09  0.8676  -0.305  0.02337  0.002139  0.03292  0.05656  0.3919  -0.6792
6.28e+09  0.6821  -0.6162  0.01621  -0.008999  0.03205  0.05337  0.1445  -0.7591
6.281e+09  0.3849  -0.7979  0.01997  -0.02403  -0.06057  -0.006413  -0.1238  -0.7689
6.282e+09  0.1137  -0.9204  -0.01708  0.001285  -0.0177  0.01581  -0.3888  -0.6926
6.284e+09  -0.1597  -0.8881  0.01368  0.008206  -0.0509  0.03076  -0.6193  -0.5584
6.285e+09  -0.4961  -0.7235  -0.0007215  0.01081  0.01748  -0.01149  -0.712  -0.2538
6.286e+09  -0.724  -0.6007  -0.001806  0.01967  -0.03959  0.009501  -0.7864  -0.01239
6.288e+09  -0.929  -0.3046  0.000618  -0.0125  -0.03739  0.002423  -0.7535  0.2359
6.289e+09  -0.9723  0.04325  0.0155  0.007853  0.02582  -0.05674  -0.622  0.5122
6.29e+09  -0.899  0.3573  -0.009486  -0.0066  0.04217  0.02043  -0.4015  0.6785
6.291e+09  -0.7578  0.6799  -0.002978  -0.02242  -0.01334  0.01263  -0.1622  0.7973
6.292e+09  -0.4342  0.8506  0.03341  0.03287  -0.03978  -0.002802  0.1076  0.8191
6.294e+09  -0.08525  0.9465  0.007294  0.0264  -0.01114  -0.0238  0.4015  0.7275
6.295e+09  0.184  0.8972  0.0008106  -0.001719  0.01145  0.0312  0.6445  0.5678
6.296e+09  0.5588  0.7594  -0.02517  -0.003067  -0.009054  0.04128  0.784  0.2862
6.298e+09  0.7624  0.5403  -0.02553  0.006856  0.0005254  0.0291  0.8138  -0.01559
6.299e+09  0.8976  0.2055  -0.02158  0.0075  0.009335  -0.02476  0.7814  -0.2741
6.3e+09  0.9176  -0.1001  0.006936  -0.01371  0.0001534  0.02455  0.671  -0.529
6.301e+09  0.8259  -0.4273  0.005794  0.03036  -0.01432  -0.009943  0.4259  -0.7074
6.302e+09  0.6625  -0.7128  0.00976  0.009255  0.01264  0.02458  0.1684  -0.8173
6.304e+09  0.3514  -0.8581  0.01997  -0.03376  -0.02746  -0.009844  -0.151  -0.8503
6.305e+09  0.04069  -0.9333  0.01787  -0.03406  -0.03307  0.0056  -0.4278  -0.7231
6.306e+09  -0.2663  -0.8993  0.01842  0.00115  0.01246  -0.0223  -0.6773  -0.5314
6.308e+09  -0.5571  -0.748  -0.001859  -0.02393  0.009543  -0.009762  -0.7945  -0.2974
6.309e+09  -0.8657  -0.5452  0.0004229  -0.001388  -0.03809  -0.007506  -0.8742  -0.04944
6.31e+09  -0.905  -0.2225  0.002087  -0.004235  -0.006396  0.005248  -0.8131  0.2768
6.311e+09  -0.9942  0.1858  0.01228  -0.01608  0.002815  0.01111  -0.6421  0.5328
6.312e+09  -0.8986  0.4761  0.02266  -0.01868  -0.04221  0.02792  -0.4438  0.7484
6.314e+09  -0.6774  0.7047  -0.009152  -0.005979  -0.009845  0.006641  -0.1096  0.8296
6.315e+09  -0.3771  0.9551  -0.03641  -0.01764  0.004451  -0.003576  0.1569  0.8398
6.316e+09  0.01572  0.9924  0.009341  0.01777  0.02306  -0.01487  0.4175  0.7851
6.318e+09  0.3482  0.9205  0.01238  -0.0007794  0.007721  -0.04153  0.6548  0.595
6.319e+09  0.6358  0.7483  0.0002311  0.0175  0.04295  0.0101  0.8286  0.3183
6.32e+09  0.8822  0.4876  -0.01904  -0.02733  0.008037  0.02099  0.8622  0.009126
6.321e+09  1.028  0.1547  -0.006204  -0.001342  -0.03163  -0.05039  0.8293  -0.2785
6.322e+09  0.9789  -0.219  -0.001554  0.02409  -0.009701  -0.03616  0.6744  -0.5845
6.324e+09  0.8675  -0.5202  -0.03671  0.02033  0.03373  0.04821  0.4461  -0.7596
6.325e+09  0.66  -0.8509  -0.01651  0.00248  0.0513  -0.01328  0.199  -0.8563
6.326e+09  0.3442  -1.006  0.02702  0.01119  -0.003443  0.04257  -0.1328  -0.8739
6.328e+09  -0.07922  -1.049  -0.01319  -0.004093  0.01518  -0.04445  -0.4174  -0.8115
6.329e+09  -0.4216  -0.9557  0.01487  0.02137  -0.006568  -0.005656  -0.6993  -0.6053
6.33e+09  -0.7393  -0.7636  0.02431  -0.006534  0.0396  -0.04428  -0.825  -0.3531
6.331e+09  -0.9586  -0.3948  0.01158  0.03534  0.05436  -0.006018  -0.8705  -0.03497
6.332e+09  -1.049  -0.08896  0.01753  0.0275  -0.07275  0.001394  -0.8802  0.3051
6.334e+09  -1.056  0.2909  -0.003711  0.00291  0.01104  -0.03571  -0.7437  0.5315
6.335e+09  -0.9287  0.6402  0.006728  0.03001  -0.00924  0.01492  -0.4564  0.7747
6.336e+09  -0.619  0.9356  0.008391  -0.02179  0.01603  0.01129  -0.1878  0.8985
6.338e+09  -0.2302  1.078  -0.001456  0.01212  -0.03907  -0.003441  0.1232  0.9052
6.339e+09  0.1405  1.108  0.005152  -0.01988  -0.002019  0.05073  0.4308  0.8046
6.34e+09  0.5312  0.9716  0.02216  -0.0184  -0.02388  0.02717  0.6831  0.632
6.341e+09  0.8261  0.7993  0.02046  -0.01358  0.003579  0.01735  0.8657  0.3566
6.342e+09  1.022  0.4463  -0.009367  0.03188  0.02476  -0.04315  0.9387  0.05814
6.344e+09  1.115  0.04305  -0.02451  -0.0009967  -0.01711  -0.03033  0.9046  -0.2629
6.345e+09  1.11  -0.4314  0.00385  0.0188  0.007476  -0.007367  0.7539  -0.559
6.346e+09  0.8906  -0.7361  -0.04377  -0.01149  0.0118  -0.00665  0.5299  -0.7771
6.348e+09  0.55  -1.008  0.01627  -0.0173  -0.005832  0.01987  0.2216  -0.9049
6.349e+09  0.1872  -1.142  -0.02115  -0.02106  0.008819  0.009512  -0.1394  -0.896
6.35e+09  -0.2163  -1.134  0.01209  0.04285  -0.009078  -0.01981  -0.4069  -0.8714
6.351e+09  -0.5967  -0.9847  0.01151  -0.01432  0.01024  0.01112  -0.7056  -0.6849
6.352e+09  -0.9416  -0.7957  -0.04123  0.03034  -0.02522  0.0139  -0.8488  -0.3879
6.354e+09  -1.095  -0.3228  0.0218  0.01875  -0.02944  -0.02538  -0.9552  -0.09005
6.355e+09  -1.244  0.1098  0.01912  0.01559  -0.002774  -0.009958  -0.8981  0.2495
6.356e+09  -1.05  0.523  -0.0151  -0.01747  -0.0002294  0.006311  -0.7577  0.5711
6.358e+09  -0.8754  0.9099  0.009861  0.008827  -0.01242  -0.01699  -0.5447  0.8103
6.359e+09  -0.5391  1.118  0.001219  0.02706  -0.02383  0.0445  -0.2594  0.9448
6.36e+09  -0.08066  1.222  -0.00647  -0.02267  -0.02097  0.0188  0.04982  0.9421
6.361e+09  0.3332  1.192  -0.009611  -0.02632  -0.0001575  -0.006142  0.4334  0.8366
6.362e+09  0.741  0.982  -0.01228  0.001657  0.01073  0.01664  0.656  0.6534
6.364e+09  1.039  0.6496  -0.005306  0.007561  -0.02401  0.01315  0.9084  0.4084
6.365e+09  1.223  0.215  -0.04  -0.02088  -0.00052  0.01984  0.9274  0.05809
6.366e+09  1.277  -0.2192  -0.02444  -0.01026  0.01924  4.37e-05  0.9378  -0.2586
6.368e+09  1.119  -0.6062  0.005482  -0.01189  -0.01941  0.02111  0.768  -0.5279
6.369e+09  0.8273  -0.9853  -0.01407  -0.004332  -0.003498  -0.03908  0.5509  -0.764
6.37e+09  0.419  -1.258  -0.0143  -0.04865  0.007674  0.008711  0.2286  -0.9145
6.371e+09  -0.03156  -1.266  0.007955  0.01055  0.03772  0.05314  -0.06377  -0.9381
6.372e+09  -0.453  -1.211  0.01871  -0.04904  0.00894  -0.004753  -0.3987  -0.8664
6.374e+09  -0.8965  -0.94  -0.002783  -0.004609  0.01418  0.02323  -0.6419  -0.6522
6.375e+09  -1.132  -0.5972  -0.007554  -0.01375  0.02817  0.02412  -0.8519  -0.3964
6.376e+09  -1.299  -0.116  0.003452  -0.007644  0.03604  -0.01188  -0.9172  -0.07871
6.378e+09  -1.283  0.3324  0.01582  -0.01321  0.005725  -0.01694  -0.9062  0.2248
6.379e+09  -1.083  0.7557  0.01237  -0.001687  0.008745  0.004522  -0.818  0.5476
6.38e+09  -0.7689  1.089  -0.006068  -0.006638  0.01791  -0.0006493  -0.5471  0.7206
6.381e+09  -0.3487  1.273  0.04332  0.0005899  0.03856  0.03455  -0.2508  0.8921
6.382e+09  0.1913  1.274  -0.02472  -0.02409  0.02454  -0.003627  0.08666  0.9376
6.384e+09  0.5761  1.182  0.03235  0.003996  -0.01657  -0.02005  0.3427  0.8942
6.385e+09  1.018  0.8772  0.01425  -0.07157  0.0124  -0.02401  0.6188  0.6849
6.386e+09  1.224  0.4911  -0.03312  0.03283  0.001283  0.01921  0.8432  0.4596
6.388e+09  1.313  0.03761  -0.003841  0.01442  -0.03659  -0.005933  0.9278  0.09787
6.389e+09  1.236  -0.4319  0.01878  -0.03176  -0.002557  -0.009859  0.8684  -0.1951
6.39e+09  1.068  -0.8731  -0.02694  -0.0172  0.004347  -0.01494  0.8058  -0.56
6.391e+09  0.7237  -1.145  -0.02804  -0.03643  -0.01222  -0.00356  0.5828  -0.7326
6.392e+09  0.1727  -1.283  -0.01052  -0.02575  -0.00858  -0.01092  0.2893  -0.8921
6.394e+09  -0.2994  -1.322  0.03342  0.00491  -0.01266  0.02686  -0.04748  -0.9028
6.395e+09  -0.7166  -1.159  0.02646  -0.001164  0.01686  0.01058  -0.3292  -0.8772
6.396e+09  -1.119  -0.8017  0.02043  0.008464  0.02103  -0.02798  -0.6145  -0.6515
6.398e+09  -1.294  -0.3837  0.01884  -0.00988  -0.02381  -0.0188  -0.8194  -0.4234
6.399e+09  -1.305  0.09496  0.01912  -0.01203  -0.02547  -0.01745  -0.926  -0.1537
6.4e+09  -1.265  0.5645  0.0112  -0.01824  0.01287  0.003845  -0.9113  0.1651
6.401e+09  -0.9291  0.9534  0.00345  -0.03381  -0.02503  -0.0005543  -0.8032  0.4766
6.402e+09  -0.5834  1.254  -0.00677  0.02647  -0.003952  -0.007207  -0.5772  0.7476
6.404e+09  -0.07757  1.341  0.01849  0.02526  0.03851  0.01853  -0.3091  0.8339
6.405e+09  0.4031  1.332  0.01838  -0.01176  -0.0172  0.05527  0.01313  0.9067
6.406e+09  0.8543  1.119  0.007315  0.03332  0.02929  0.02416  0.3256  0.8045
6.408e+09  1.097  0.6921  -0.03042  0.003792  0.03373  0.01559  0.5587  0.7095
6.409e+09  1.366  0.2779  0.004027  -0.03243  -0.01317  0.05048  0.793  0.4562
6.41e+09  1.36  -0.1793  -0.01074  -0.02723  0.01303  -0.06447  0.9348  0.182
6.411e+09  1.181  -0.6624  -0.01923  -0.008546  -0.02742  0.03284  0.8938  -0.1402
6.412e+09  0.9339  -1.03  -0.02817  0.01245  0.01614  -0.008657  0.7861  -0.4449
6.414e+09  0.462  -1.292  -0.02293  0.0007331  0.01018  0.03054  0.6173  -0.6738
6.415e+09  -0.03184  -1.362  0.02073  -0.00837  -0.006797  0.01872  0.3654  -0.8377
6.416e+09  -0.4889  -1.242  -0.007339  0.001293  0.005663  0.01501  0.05925  -0.909
6.418e+09  -0.8227  -1.049  -0.04446  -0.004912  -0.002902  0.007131  -0.2619  -0.8682
6.419e+09  -1.16  -0.6497  -0.0535  0.04704  -0.0009886  -0.0381  -0.5779  -0.7415
6.42e+09  -1.368  -0.2816  0.03499  0.008662  0.01639  0.02112  -0.7739  -0.5163
6.421e+09  -1.346  0.2575  0.004219  0.02848  -0.03823  -0.009329  -0.8367  -0.1705
6.422e+09  -1.22  0.7243  -0.05737  0.01359  0.004889  0.05352  -0.8767  0.0971
6.424e+09  -0.8432  1.095  -0.02085  0.00593  -0.01799  -0.02443  -0.782  0.4258
6.425e+09  -0.4647  1.354  0.0266  -0.00464  0.003718  -0.004365  -0.5994  0.6161
6.426e+09  0.09028  1.382  0.03835  -0.0201  -0.01353  0.02195  -0.3277  0.8101
6.428e+09  0.5677  1.275  -0.002835  -0.008095  -0.004243  -0.05236  -0.07221  0.8668
6.429e+09  0.989  1.06  -0.01988  -0.006272  0.0341  0.03865  0.2534  0.8559
6.43e+09  1.276  0.6431  -0.05693  -0.01538  0.01956  0.003998  0.5371  0.6626
6.431e+09  1.42  0.138  0.01997  -0.02354  0.02529  -0.01912  0.6862  0.4912
6.432e+09  1.431  -0.4142  0.0486  0.01591  0.0129  -0.01693  0.8325  0.2023
6.434e+09  1.149  -0.7977  -0.0166  -0.003184  -0.02922  0.01432  0.884  -0.09088
6.435e+09  0.8308  -1.189  -0.008263  -0.003069  0.02021  0.009953  0.7552  -0.382
6.436e+09  0.3314  -1.333  -0.004217  0.01174  0.05615  -0.02189  0.61  -0.621
6.438e+09  -0.1811  -1.391  0.01584  -0.01386  -0.04845  0.0004411  0.3423  -0.7579
6.439e+09  -0.7241  -1.297  -0.007673  0.02748  -0.01626  0.04213  0.112  -0.7911
6.44e+09  -1.141  -1.003  0.01545  0.07164  -0.007367  0.0198  -0.2096  -0.8747
6.441e+09  -1.413  -0.5131  0.005595  -0.01036  -0.00332  -0.01232  -0.5089  -0.6473
6.442e+09  -1.509  0.001074  -0.01173  -0.02717  0.01953  0.01228  -0.702  -0.5343
6.444e+09  -1.423  0.5266  -0.02081  -0.01231  0.02596  0.004082  -0.7656  -0.1645
6.445e+09  -1.138  0.9794  0.0004354  0.005693  0.07101  -0.0124  -0.8344  0.07128
6.446e+09  -0.7484  1.339  -0.005981  -0.02349  0.02577  -0.03694  -0.7079  0.3613
6.448e+09  -0.2163  1.545  0.00688  -0.01851  -0.01427  0.01653  -0.5985  0.6531
6.449e+09  0.3474  1.499  -0.007174  -0.009002  0.02368  0.05316  -0.3722  0.7652
6.45e+09  0.8573  1.369  -0.04809  -0.02012  0.005225  0.05988  -0.04212  0.8566
6.451e+09  1.253  0.9629  -0.008814  -0.02069  -0.004118  0.01223  0.24  0.8029
6.452e+09  1.579  0.462  0.0312  -0.01904  0.02023  -0.01702  0.51  0.6777
6.454e+09  1.58  -0.1004  0.001142  0.0379  -0.06276  0.008454  0.6525  0.4817
6.455e+09  1.485  -0.7155  0.004834  0.02882  0.02613  0.03761  0.8121  0.1947
6.456e+09  1.173  -1.213  0.02171  0.01607  -0.008487  -0.03548  0.8254  -0.1057
6.458e+09  0.7045  -1.553  0.008954  0.006234  0.003776  0.009789  0.7227  -0.3005
6.459e+09  0.08482  -1.712  0.02872  0.008842  -0.05897  -0.01876  0.558  -0.6091
6.46e+09  -0.5316  -1.612  -0.003305  -0.03107  -0.03884  -0.01026  0.3377  -0.735
6.461e+09  -1.062  -1.384  -0.04829  -0.002596  0.0236  0.01522  0.07996  -0.7974
6.462e+09  -1.53  -0.893  -0.02608  -0.0264  -0.05596  0.02536  -0.2106  -0.7731
6.464e+09  -1.758  -0.3093  -0.009342  0.005888  -0.03533  -0.03982  -0.4121  -0.628
6.465e+09  -1.746  0.3264  -0.04511  -0.003416  0.03562  0.0557  -0.6715  -0.4166
6.466e+09  -1.524  0.9834  -0.02176  0.02332  -0.04556  -0.01363  -0.7754  -0.1883
6.468e+09  -1.044  1.561  -0.006709  0.01274  0.01043  0.01197  -0.7949  0.09961
6.469e+09  -0.4664  1.801  -0.0192  0.03056  0.01792  -0.03571  -0.7373  0.3552
6.47e+09  0.222  1.861  0.002011  0.008639  -0.0374  -0.03117  -0.5651  0.5797
6.471e+09  0.9085  1.689  0.007566  0.01576  0.001474  0.0349  -0.3225  0.7599
6.472e+09  1.506  1.293  0.005841  0.06264  -0.03029  -0.004071  -0.04233  0.8165
6.474e+09  1.864  0.6673  0.04242  0.008169  -0.02595  0.0104  0.2449  0.7416
6.475e+09  2.022  0.006733  -0.00781  -0.01678  -0.01261  -0.001075  0.4581  0.6654
6.476e+09  1.964  -0.7227  0.0003372  0.0566  -0.03418  0.02322  0.6232  0.4459
6.478e+09  1.491  -1.421  0.004408  0.007865  0.05205  -0.02372  0.8139  0.2257
6.479e+09  0.9318  -1.899  -0.007056  0.01074  0.03203  0.007686  0.7763  -0.05553
6.48e+09  0.1384  -2.108  0.01315  -0.03523  0.01005  0.04366  0.699  -0.352
6.481e+09  -0.6239  -2.065  0.01474  0.02311  -0.007786  -0.01486  0.514  -0.5904
6.482e+09  -1.323  -1.668  0.03224  0.0498  0.001159  -0.07426  0.2979  -0.6774
6.484e+09  -1.957  -0.9768  0.009623  -0.01306  -0.04983  -0.02543  0.0505  -0.7962
6.485e+09  -2.172  -0.2385  -0.0317  0.02331  0.05548  -0.01093  -0.2274  -0.7227
6.486e+09  -2.199  0.5758  -0.00508  0.004061  -0.04235  0.06254  -0.4542  -0.6089
6.488e+09  -1.506  0.6982  0.04238  -0.005616  0.4293  0.5734  -0.6396  -0.4049
6.489e+09  -1.189  1.913  0.008697  0.01883  0.006245  -0.03308  -0.7704  -0.2175
6.49e+09  -0.2981  2.267  0.03003  0.04137  0.04329  0.01627  -0.7495  0.1015
6.491e+09  0.5477  2.285  -0.01405  0.06068  -0.07488  -0.01066  -0.6681  0.3405
6.492e+09  1.399  1.888  0.0004031  -0.007833  -0.01298  -0.06018  -0.5598  0.5959
6.494e+09  2.062  1.211  -0.001876  0.02175  0.009628  0.069  -0.2922  0.6723
6.495e+09  2.3  0.4565  0.03621  0.0326  -0.01031  0.04577  -0.07758  0.7842
6.496e+09  2.374  -0.4966  -0.00145  -0.02524  0.0212  -0.01015  0.2804  0.7393
6.498e+09  2.001  -1.327  0.003757  -0.02009  -0.001731  0.009977  0.5118  0.6196
6.499e+09  1.283  -2.03  0.01866  0.003273  0.02316  -0.03036  0.6505  0.4371
6.5e+09  2.467  -2.014  0.007209  0.01474  -0.04098  0.01089  0.7522  0.1569
6.501e+09  -0.4538  -2.313  0.02011  0.001934  0.04729  -0.02464  0.7888  -0.1324
6.502e+09  -1.273  -1.92  -0.007645  0.06953  -0.03068  -0.03992  0.6825  -0.3504
6.504e+09  -2.013  -1.308  -0.007533  -0.01616  0.02802  0.01611  0.5228  -0.5827
6.505e+09  -2.29  -0.5232  -0.009116  0.00355  -0.009793  -0.09193  0.3154  -0.7166
6.506e+09  -2.275  0.4441  0.01491  -0.002076  0.0205  -0.04651  0.0134  -0.8109
6.508e+09  -1.938  1.28  -0.007323  0.005304  -0.04093  0.01099  -0.2032  -0.7384
6.509e+09  -1.28  1.82  0.04729  -0.003935  0.0339  -0.003578  -0.4513  -0.5889
6.51e+09  -0.5183  2.174  0.02557  0.003075  -0.04422  0.0425  -0.6522  -0.3783
6.511e+09  0.3497  2.151  -0.0356  -0.00951  0.03639  0.02714  -0.7631  -0.1281
6.512e+09  1.137  1.77  0.01723  -0.0003298  0.02083  -0.0368  -0.739  0.1274
6.514e+09  1.655  1.265  -0.02033  -0.008797  0.01093  0.0102  -0.6426  0.304
6.515e+09  2.071  0.4882  -0.004207  0.01795  0.03481  -0.03626  -0.4792  0.568
6.516e+09  2.061  -0.1481  0.04593  -0.01458  0.02719  -0.00726  -0.2578  0.6879
6.518e+09  1.798  -1.01  0.01738  0.02003  -0.06144  -0.0007049  0.01515  0.7716
6.519e+09  1.246  -1.583  -0.001006  -0.02094  -0.05382  0.02927  0.2633  0.6978
6.52e+09  0.6301  -1.85  0.02228  -0.01985  -0.01472  0.001289  0.4968  0.5624
6.521e+09  -0.1217  -1.888  -0.001644  0.01158  0.01889  0.01718  0.6726  0.3348
6.522e+09  -0.7538  -1.772  0.002177  -0.02754  -0.06774  0.01645  0.7283  0.09091
6.524e+09  -1.298  -1.357  -0.01313  0.00415  -0.009829  0.01032  0.7426  -0.1688
6.525e+09  -1.679  -0.7187  0.04049  0.00974  0.04314  0.0376  0.6631  -0.3941
6.526e+09  -1.802  -0.03306  -0.01054  0.01635  -0.01015  0.002167  0.4428  -0.5744
6.528e+09  -1.647  0.5635  0.01822  0.009734  -0.0117  -0.01764  0.1851  -0.7006
6.529e+09  -1.294  1.137  0.01042  -0.003545  0.05454  -0.01311  -0.05791  -0.7034
6.53e+09  -0.7204  1.527  -0.02545  0.006083  0.04922  0.02641  -0.286  -0.6308
6.531e+09  -0.1835  1.686  -0.02038  -0.02084  0.01971  -0.02725  -0.4782  -0.4831
6.532e+09  0.4406  1.615  -0.01427  -0.04639  0.03755  -0.01102  -0.5971  -0.2649
6.534e+09  0.9966  1.427  -0.01674  -0.006093  -0.005391  0.01335  -0.659  -0.0615
6.535e+09  1.383  0.8463  0.008241  -0.01518  0.004061  0.01192  -0.5733  0.1325
6.536e+09  1.584  0.3155  0.02888  0.01035  -0.01028  -0.03121  -0.5606  0.2981
6.538e+09  1.535  -0.2136  -0.00891  -0.01278  0.003272  0.01041  -0.44  0.4779
6.539e+09  1.318  -0.7956  -0.02673  -0.008974  -0.0337  0.06087  -0.2969  0.6289
6.54e+09  0.9691  -1.164  -0.02068  0.01892  -0.01876  -0.02103  -0.01571  0.6911
6.541e+09  0.4575  -1.373  0.02055  0.02437  -0.007919  -0.01619  0.1412  0.6827
6.542e+09  -0.117  -1.455  -0.008173  0.01117  -0.0032  0.01197  0.3992  0.6046
6.544e+09  -0.6332  -1.301  0.007859  0.0153  0.003428  -0.02389  0.5917  0.3811
6.545e+09  -0.9719  -0.9973  0.01638  -0.02637  -0.02088  -0.01257  0.6851  0.1784
6.546e+09  -1.281  -0.5772  -0.02318  0.0005324  0.01935  0.03639  0.7351  -0.07554
6.548e+09  -1.37  -0.1147  0.01613  0.01238  -0.006408  -0.002064  0.6436  -0.3487
6.549e+09  -1.328  0.465  -0.01083  -0.0006724  -0.02588  -0.04105  0.5118  -0.5261
6.55e+09  -1.124  0.8028  0.01256  0.01045  -0.004463  0.01165  0.305  -0.6569
6.551e+09  -0.7087  1.125  -0.01846  -0.00607  -0.01685  0.04029  0.0312  -0.6981
6.552e+09  -0.251  1.338  -0.006083  -0.009641  0.001261  -0.03068  -0.2011  -0.6635
6.554e+09  0.2255  1.271  -0.01096  0.03216  -0.01818  -0.01864  -0.4417  -0.5944
