# Hz S RI R 50
6.25e+09  0.6765  0.8112  0.0001516  -0.01833  0.08418  0.01819  0.1565  0.4654
6.251e+09  0.8037  0.6303  0.004496  -0.00577  0.006894  -0.01025  0.3759  0.4251
6.252e+09  0.9101  0.1476  -0.01406  0.03401  -0.05315  0.01461  0.5075  0.2366
6.254e+09  0.9977  -0.09823  7.515e-05  -0.02973  -0.02239  -0.005345  0.6437  0.03578
6.255e+09  0.8651  -0.4739  -0.005794  0.01198  0.01073  -0.03157  0.62  -0.2239
6.256e+09  0.6146  -0.7123  0.00712  0.009397  0.05528  0.01397  0.4875  -0.4766
6.258e+09  0.3081  -0.932  0.0127  0.009153  0.02905  -0.03433  0.282  -0.5809
6.259e+09  -0.01092  -0.9335  -0.0192  0.003496  -0.01442  -0.01733  0.002917  -0.6545
6.26e+09  -0.3585  -0.9372  0.009936  0.01183  0.02986  0.01662  -0.2066  -0.6483
6.261e+09  -0.6011  -0.7341  0.01671  -0.01557  0.03455  -0.004458  -0.4925  -0.5548
6.262e+09  -0.8362  -0.4522  0.01027  -0.01899  0.01898  0.01095  -0.619  -0.3564
6.264e+09  -0.9625  -0.1962  0.006325  0.0007375  -0.002931  -0.01757  -0.7542  -0.1061
6.265e+09  -0.9269  0.1666  0.03258  0.01916  0.002909  -0.0386  -0.6943  0.1378
6.266e+09  -0.8573  0.4936  -0.001156  -0.0002613  0.002007  -0.03136  -0.6249  0.4013
6.268e+09  -0.6004  0.7298  -0.01071  -0.003482  0.03561  -0.05346  -0.4134  0.5821
6.269e+09  -0.3287  0.9383  -0.04122  0.01442  -0.03914  -0.0156  -0.1993  0.7084
6.27e+09  0.04595  0.9829  -0.01854  0.008319  0.01574  -0.03401  0.09957  0.7176
6.271e+09  0.4022  0.8394  -0.02489  0.004682  -0.0224  -0.0002947  0.3298  0.6615
6.272e+09  0.6197  0.6484  0.000823  -0.0159  0.01537  0.03079  0.5469  0.5139
6.274e+09  0.8661  0.3922  -0.01868  -0.001322  -0.01776  0.04771  0.6814  0.3186
6.275e+09  0.9404  0.1058  -0.008757  0.00347  -0.02517  0.02542  0.7547  0.05511
6.276e+09  0.9353  -0.2702  0.004586  0.005646  0.06213  0.05025  0.7128  -0.2214
6.278e+09  0.7466  -0.5482  -0.03018  -0.01248  -0.01828  0.001628  0.6417  -0.4848
6.279e+09  0.4983  -0.8093  0.007331  0.01402  0.02446  0.01535  0.4313  -0.6174
6.28e+09  0.1725  -0.8979  -0.03716  -0.01541  0.02878  -0.03996  0.1543  -0.7726
6.281e+09  -0.1073  -0.9533  0.001075  -0.03968  0.02854  0.04441  -0.08049  -0.7726
6.282e+09  -0.4757  -0.8523  -0.006244  -0.01186  -0.03824  -0.07221  -0.3476  -0.6736
6.284e+09  -0.7283  -0.6801  -0.02103  -0.005946  0.008556  0.02898  -0.5887  -0.5232
6.285e+09  -0.8709  -0.3482  -0.01346  0.01  -0.01372  0.04271  -0.7264  -0.2933
6.286e+09  -0.9347  -0.009615  -0.003477  -0.008089  0.004379  -0.028  -0.7917  -0.01539
6.288e+09  -0.9139  0.393  -0.007147  0.009677  0.0376  0.03153  -0.7501  0.2441
6.289e+09  -0.7586  0.6399  -0.01801  0.002983  -0.01829  0.003559  -0.6078  0.4925
6.29e+09  -0.4437  0.8167  0.01075  0.02976  -0.009133  -0.05432  -0.4342  0.6676
6.291e+09  -0.1913  0.9926  -0.0212  0.01401  0.02543  -0.02283  -0.1568  0.7948
6.292e+09  0.2042  0.983  0.01307  -0.02608  -0.01921  0.01572  0.1224  0.757
6.294e+09  0.4875  0.8071  0.0007621  0.03002  -0.01989  0.01234  0.4061  0.7181
6.295e+09  0.7856  0.634  0.008859  -0.003157  -0.03944  0.04743  0.6  0.5276
6.296e+09  0.9048  0.296  -0.02311  -0.04195  0.04025  0.01012  0.7623  0.29
6.298e+09  0.997  -0.04693  0.003719  -0.002924  -0.003332  -0.0401  0.8436  0.02094
6.299e+09  0.9319  -0.3762  -0.01081  0.01416  0.01475  0.01525  0.8024  -0.2517
6.3e+09  0.7025  -0.7287  -0.01061  0.001587  0.009828  -0.0341  0.6565  -0.5358
6.301e+09  0.386  -0.8779  0.003115  0.03789  0.01604  0.02368  0.4491  -0.7205
6.302e+09  0.1148  -0.9326  0.01645  0.01001  0.016  -0.0284  0.1426  -0.8267
6.304e+09  -0.2305  -0.9943  0.002168  -0.0193  -0.003322  -0.04674  -0.1666  -0.8462
6.305e+09  -0.5943  -0.7657  -0.01401  -0.01305  0.008077  -0.03907  -0.4248  -0.7585
6.306e+09  -0.8196  -0.523  -0.01556  -0.02789  0.01248  -0.04344  -0.637  -0.5815
6.308e+09  -0.943  -0.2336  0.0097  0.004694  0.009048  -0.01301  -0.7847  -0.2991
6.309e+09  -0.9722  0.1255  -0.00485  0.01665  -0.00777  0.04915  -0.8467  0.005164
6.31e+09  -0.9336  0.4529  -0.009927  0.01164  0.05262  0.004313  -0.7895  0.2829
6.311e+09  -0.683  0.734  -0.02007  0.02904  0.03279  -0.02583  -0.6647  0.5609
6.312e+09  -0.3714  0.8984  -0.01267  0.01698  0.04112  0.01737  -0.4028  0.7468
6.314e+09  -0.01484  1.002  -0.03821  0.002168  -0.01002  0.03224  -0.1693  0.8691
6.315e+09  0.3847  0.964  0.009196  0.003188  0.04787  0.004385  0.152  0.8828
6.316e+09  0.7065  0.8086  0.02439  -0.02975  0.01588  0.0285  0.435  0.7819
6.318e+09  0.9645  0.4827  -0.005671  0.004489  0.000684  0.01415  0.6803  0.5736
6.319e+09  1.024  0.2054  0.02361  0.01435  -0.01181  -0.009639  0.8192  0.3524
6.32e+09  0.9865  -0.2075  0.02097  0.01254  -0.01401  -0.04626  0.8686  0.02952
6.321e+09  0.9025  -0.5472  -0.01809  -0.01324  0.0133  0.003218  0.8546  -0.2853
6.322e+09  0.6888  -0.845  -0.01262  0.01033  0.07086  4.934e-05  0.6976  -0.5841
6.324e+09  0.2988  -0.9631  -0.02352  0.008029  -0.015  -0.01107  0.4587  -0.7841
6.325e+09  -0.1033  -1.053  -0.02493  0.01508  0.03181  -0.03307  0.1796  -0.8796
6.326e+09  -0.3885  -1.026  -0.01575  -0.006939  0.004645  0.006096  -0.1443  -0.8792
6.328e+09  -0.7373  -0.7478  0.04266  0.0003312  0.003126  -0.0008681  -0.4383  -0.7981
6.329e+09  -0.9282  -0.4616  -0.01189  -0.006876  0.06468  -0.06932  -0.6986  -0.592
6.33e+09  -1.07  -0.06976  -0.006215  -0.007923  0.009286  -0.03272  -0.8666  -0.3356
6.331e+09  -1.045  0.2197  0.03129  -0.004013  0.004316  -0.03297  -0.9192  -0.03062
6.332e+09  -0.8715  0.6474  -0.01511  0.003124  -0.05757  -0.01026  -0.8497  0.2841
6.334e+09  -0.6271  0.8764  0.001088  -0.014  -0.02912  -0.03676  -0.7182  0.5629
6.335e+09  -0.2692  0.9937  0.0274  -0.0196  -0.02297  0.04817  -0.5008  0.8071
6.336e+09  0.08615  1.084  -0.03754  -0.01495  -0.02409  -0.002914  -0.1763  0.9119
6.338e+09  0.53  0.9732  -0.02424  -0.01738  -0.01452  0.001741  0.1384  0.9058
6.339e+09  0.78  0.7788  0.03527  -0.002974  0.02607  -0.002475  0.3899  0.8236
6.34e+09  1.031  0.4132  -0.02738  -0.005892  0.0844  0.008696  0.6874  0.6223
6.341e+09  1.119  0.03338  -0.02769  -0.03444  0.02123  0.003879  0.8337  0.3591
6.342e+09  1.019  -0.3644  -0.02079  0.02343  0.001639  0.03927  0.9418  0.03558
6.344e+09  0.8423  -0.6862  -0.004555  -0.00208  -0.02024  -0.0004668  0.8789  -0.274
6.345e+09  0.5334  -0.9747  0.008359  0.0396  -0.0324  -0.006119  0.7629  -0.5701
6.346e+09  0.2237  -1.095  -0.0109  0.008169  -0.03739  -0.04229  0.5128  -0.7918
6.348e+09  -0.2392  -1.104  0.03782  0.03181  0.03007  -0.01988  0.2063  -0.9188
6.349e+09  -0.5485  -0.9462  -0.04151  0.02501  0.01003  -0.007268  -0.09981  -0.9107
6.35e+09  -0.8876  -0.763  0.03737  -0.0005956  -0.0827  -0.005606  -0.442  -0.8594
6.351e+09  -1.07  -0.371  -0.01681  0.02787  -0.006875  0.009568  -0.7191  -0.6746
6.352e+09  -1.158  0.004184  0.03855  0.007531  -0.06968  -0.01848  -0.8697  -0.3806
6.354e+09  -1.044  0.4098  -0.0001422  -0.007533  0.02431  0.02013  -0.9813  -0.06868
6.355e+09  -0.8601  0.7933  -0.002047  -0.01826  0.06087  -0.03415  -0.9269  0.2824
6.356e+09  -0.5449  1.009  0.0228  0.02284  -0.00165  -0.02773  -0.7624  0.5411
6.358e+09  -0.1558  1.151  0.03937  0.01925  0.01098  0.01743  -0.5232  0.8079
6.359e+09  0.2959  1.182  0.01463  -0.07053  0.01028  0.03889  -0.2123  0.925
6.36e+09  0.6845  0.9432  0.005942  -0.01183  -0.0266  0.02423  0.0746  0.952
6.361e+09  0.955  0.6603  -0.03497  0.01145  0.0002434  -0.07361  0.3937  0.8286
6.362e+09  1.157  0.3268  0.01675  0.005774  0.007258  0.01018  0.6838  0.6568
6.364e+09  1.193  -0.09053  -0.0247  -0.03434  0.004698  -0.02538  0.8387  0.3464
6.365e+09  1.126  -0.5136  0.06594  -0.0001647  -0.002992  -0.008998  0.9475  0.06569
6.366e+09  0.8814  -0.8876  0.0008767  -0.05073  0.02843  0.06205  0.8974  -0.2644
6.368e+09  0.5421  -1.114  -0.01271  -0.0127  -0.005626  0.001191  0.7722  -0.5445
6.369e+09  0.1627  -1.213  0.03584  0.006886  0.01704  0.02424  0.5408  -0.7829
6.37e+09  -0.2998  -1.159  -0.03488  0.004433  0.08428  0.01678  0.2643  -0.9256
6.371e+09  -0.7265  -1.021  0.007352  -0.004789  0.04291  -0.001996  -0.07078  -0.9473
6.372e+09  -0.9937  -0.6884  0.01587  0.004832  0.02553  -0.02317  -0.3641  -0.8438
6.374e+09  -1.206  -0.297  -0.0167  -0.004081  0.01135  -0.01599  -0.6673  -0.7108
6.375e+09  -1.286  0.1577  0.0151  0.009334  -0.01377  0.03195  -0.8691  -0.3975
6.376e+09  -1.154  0.6113  0.01366  -0.02156  -0.02661  0.02293  -0.9392  -0.1063
6.378e+09  -0.8387  0.9302  0.02061  -0.01912  0.01921  0.03694  -0.905  0.2488
6.379e+09  -0.5064  1.18  0.01799  -0.03633  0.03567  0.06576  -0.7741  0.5092
6.38e+09  -0.06859  1.338  -0.008373  0.00205  -0.01534  0.005227  -0.5551  0.7386
6.381e+09  0.4092  1.242  0.02395  -0.004165  0.06105  0.00323  -0.2828  0.8678
6.382e+09  0.8151  1.05  -0.01974  0.01253  0.01709  0.003777  0.04285  0.94
6.384e+09  1.17  0.6502  -0.003371  0.04693  -0.01545  -0.01571  0.3398  0.8295
6.385e+09  1.31  0.2681  0.02106  0.02292  -0.008814  -0.03018  0.6637  0.6926
6.386e+09  1.339  -0.2681  -0.03911  0.01577  -0.01674  0.02232  0.8405  0.4154
6.388e+09  1.208  -0.6553  0.03465  0.04083  -0.009738  0.05244  0.9083  0.1043
6.389e+09  0.8831  -1.119  -0.01969  0.01594  0.0004732  -0.03452  0.9088  -0.1695
6.39e+09  0.4488  -1.35  -0.0227  0.03424  -0.01668  0.002626  0.8075  -0.5069
6.391e+09  0.02247  -1.403  -0.04206  -0.03638  0.0143  0.03905  0.6048  -0.7249
6.392e+09  -0.547  -1.335  0.01782  -0.0125  -0.002568  0.01026  0.2649  -0.8696
6.394e+09  -0.9914  -1.061  -0.009554  0.01515  0.02809  0.01228  -0.06158  -0.9652
6.395e+09  -1.291  -0.6619  -0.02729  -0.01389  0.002634  -0.04105  -0.3563  -0.8509
6.396e+09  -1.459  -0.2007  -0.01529  -0.01721  -0.03497  0.01125  -0.5866  -0.6813
6.398e+09  -1.461  0.2422  -0.02939  0.01733  -0.0295  0.003809  -0.7921  -0.4358
6.399e+09  -1.276  0.7894  -0.01135  0.01371  -0.004592  0.01434  -0.9488  -0.1454
6.4e+09  -0.9827  1.283  0.01095  -0.02397  -0.01231  0.009995  -0.9272  0.1638
6.401e+09  -0.4519  1.516  -0.02654  0.0173  0.002409  0.007469  -0.7862  0.4963
6.402e+09  0.144  1.558  0.05399  -0.0488  -0.02669  -0.01648  -0.5695  0.7329
6.404e+09  0.6282  1.513  -0.00242  -0.02551  -0.04934  -0.02798  -0.3515  0.8865
6.405e+09  1.205  1.109  0.007145  0.01468  0.03932  -0.01462  0.003289  0.9083
6.406e+09  1.469  0.707  0.01878  0.01485  0.0466  -0.001261  0.3438  0.8645
6.408e+09  1.677  0.1702  0.001959  0.005141  -0.02781  -0.02192  0.6127  0.7104
6.409e+09  1.636  -0.5066  0.02531  0.01063  0.003098  -0.0276  0.7767  0.453
6.41e+09  1.421  -0.9969  0.02936  -0.004292  0.02979  0.005974  0.8696  0.1595
6.411e+09  0.9311  -1.424  -0.04789  -0.06438  -0.00116  -0.0137  0.9149  -0.09138
6.412e+09  0.3679  -1.836  -0.013  0.02075  -0.02508  -0.01156  0.7228  -0.4411
6.414e+09  -0.302  -1.818  0.03061  -0.05248  0.04063  -0.001515  0.6167  -0.6448
6.415e+09  -0.9039  -1.658  -0.02596  -0.0443  -0.01094  -0.02494  0.3461  -0.8462
6.416e+09  -1.438  -1.235  0.01796  0.03118  0.009363  -0.02476  0.05006  -0.9135
6.418e+09  -1.81  -0.6259  0.01351  -0.02176  -0.07555  -0.005917  -0.2431  -0.8317
6.419e+09  -1.957  0.06466  0.03906  0.002566  -0.02456  -0.03518  -0.4973  -0.7188
6.42e+09  -1.853  0.7461  0.001159  0.01086  0.01437  0.009446  -0.7395  -0.4868
6.421e+09  -1.463  1.414  0.04609  0.004916  0.01274  0.006993  -0.8992  -0.1527
6.422e+09  -0.9466  1.843  -0.001073  0.02032  0.01409  -0.007804  -0.8769  0.1332
6.424e+09  -0.1777  1.997  0.04794  0.01315  -0.01461  0.004613  -0.7923  0.4182
6.425e+09  0.5524  2.028  0.05071  0.000185  0.01306  0.01607  -0.6418  0.6652
6.426e+09  1.32  1.725  0.02629  0.01185  0.007268  0.04476  -0.3185  0.7984
6.428e+09  1.888  1.145  -8.702e-05  -0.02658  -0.05116  0.03157  -0.07967  0.8789
6.429e+09  2.21  0.4957  0.02602  -0.007369  0.04375  0.02052  0.2344  0.8121
6.43e+09  2.248  -0.3363  0.03543  -0.02908  -0.05084  0.01253  0.5596  0.6859
6.431e+09  2.046  -1.254  0.001108  0.02671  0.03963  0.06921  0.6652  0.5074
6.432e+09  1.503  -1.89  0.01649  -0.02245  0.03214  -0.03862  0.805  0.1831
6.434e+09  0.718  -2.397  0.0415  -0.02915  -0.01158  -0.03992  0.8494  -0.05677
6.435e+09  -0.1282  -2.532  -0.05125  -0.0004465  -0.003999  -0.00626  0.7805  -0.3781
6.436e+09  -1.137  -2.36  -0.01306  -0.0008343  -0.03375  -0.03462  0.5946  -0.6067
6.438e+09  -1.981  -1.846  -0.01009  -0.001858  -0.01204  0.01118  0.3707  -0.7946
6.439e+09  -2.464  -1.016  -0.01999  -0.001262  -0.001307  -0.005288  0.09403  -0.8902
6.44e+09  -2.837  -0.07583  -0.01599  -0.01686  -0.01399  0.02835  -0.2446  -0.78
6.441e+09  -2.586  1.033  0.01788  -0.038  0.03727  0.02817  -0.5446  -0.7105
6.442e+09  -2.103  1.943  0.02334  0.02993  0.01679  0.04621  -0.6618  -0.4884
6.444e+09  -1.333  2.678  -0.01302  -0.04783  0.02507  -0.01155  -0.8349  -0.2084
6.445e+09  -0.2423  3.067  -0.04437  0.03961  0.02972  -0.07783  -0.8176  0.07724
6.446e+09  0.9232  2.957  -0.001602  0.01967  -0.03133  0.01073  -0.7663  0.4026
6.448e+09  1.999  2.472  -0.01385  -0.02229  0.06546  -0.0413  -0.5778  0.6148
6.449e+09  2.823  1.64  0.003935  0.03129  0.015  -0.03873  -0.3789  0.7639
6.45e+09  3.194  0.4507  0.04218  -0.01949  0.06653  0.008658  -0.06523  0.8004
6.451e+09  3.273  -0.7966  0.02102  -0.03172  0.1174  0.04994  0.238  0.7761
6.452e+09  2.851  -2.032  0.007436  0.01584  -0.08793  -0.06912  0.4625  0.6804
6.454e+09  1.824  -2.99  0.0003676  0.02153  0.009631  -0.07779  0.667  0.4562
6.455e+09  0.5785  -3.513  -0.01778  0.03666  0.01934  -0.01637  0.8195  0.2006
6.456e+09  -0.8039  -3.588  -0.01637  -0.02469  -0.1295  0.06247  0.7933  -0.07588
6.458e+09  -2.138  -3.094  0.01377  0.003766  0.00744  0.03947  0.7293  -0.3205
6.459e+09  -3.258  -2.074  0.006305  0.02714  -0.02793  -0.08769  0.593  -0.5681
6.46e+09  -3.851  -0.8286  -0.00315  -0.01712  0.02334  -0.04605  0.3314  -0.7768
6.461e+09  -3.772  0.839  -0.001583  -0.008842  -0.01971  -0.004289  0.0514  -0.8305
6.462e+09  -3.32  2.236  0.009206  -0.01601  -0.08981  0.02188  -0.2216  -0.8164
6.464e+09  -2.215  3.375  0.009006  -0.0127  0.0508  -0.06217  -0.4478  -0.7179
6.465e+09  -0.8003  4.082  0.03859  -0.005452  0.03679  0.04981  -0.7067  -0.4353
6.466e+09  0.7569  4.062  0.006212  0.02129  0.06259  -0.08161  -0.77  -0.2063
6.468e+09  2.218  3.585  0.0369  0.01087  -0.000722  -0.01312  -0.7871  0.08892
6.469e+09  3.479  2.354  -0.01338  0.004127  0.006524  0.05473  -0.7282  0.3535
6.47e+09  4.256  0.9121  -0.04226  -0.01491  -0.02676  -0.04133  -0.5568  0.5699
6.471e+09  4.327  -0.802  0.04071  0.03245  0.07717  0.006112  -0.3302  0.701
6.472e+09  3.631  -2.295  0.04266  -0.01864  -0.03446  -0.07066  -0.05443  0.7845
6.474e+09  2.53  -3.646  -0.02351  -0.03714  0.05957  0.04447  0.2472  0.782
6.475e+09  0.9113  -4.396  0.009618  -0.01092  0.02599  0.04614  0.526  0.6216
6.476e+09  -0.692  -4.377  0.03304  -0.002568  0.06029  -0.02908  0.6661  0.4474
6.478e+09  -2.37  -3.754  -0.000127  -0.03433  0.02094  0.03983  0.7792  0.1518
6.479e+09  -3.681  -2.621  -0.02087  -0.003015  -0.01237  -0.09975  0.7564  -0.09445
6.48e+09  -4.397  -1.027  0.03556  -0.0128  -0.02116  0.007554  0.7374  -0.3221
6.481e+09  -4.501  0.651  -0.008275  -0.02928  0.1143  -0.02153  0.5243  -0.6034
6.482e+09  -3.878  2.406  -0.01635  -0.02997  -0.002513  -0.06703  0.3532  -0.7427
6.484e+09  -2.695  3.546  -0.06827  -0.01436  -0.04747  0.04807  0.07948  -0.7471
6.485e+09  -1.097  4.353  -0.01274  -0.02186  -0.02398  -0.007066  -0.2032  -0.7347
6.486e+09  0.6405  4.48  -0.008888  -0.00588  0.03799  0.08934  -0.467  -0.6123
6.488e+09  2.437  4.595  -0.01889  -0.02591  0.4347  -0.5705  -0.6126  -0.4166
6.489e+09  3.554  2.708  0.01508  -0.02698  -0.01859  0.08827  -0.8098  -0.1946
6.49e+09  4.247  1.155  0.01901  0.00165  0.07038  0.06196  -0.7376  0.1147
6.491e+09  4.399  -0.4907  0.007311  -0.01574  -0.04048  0.01208  -0.6838  0.3391
6.492e+09  3.94  -2.117  0.04009  0.02694  -0.03216  -0.0262  -0.4888  0.5683
6.494e+09  2.901  -3.338  0.001609  0.06222  0.1023  -0.0436  -0.3098  0.7284
6.495e+09  1.375  -4.255  0.02677  0.02281  0.03128  -0.04001  -0.07756  0.74
6.496e+09  -0.403  -4.416  -0.007466  -0.01154  -0.0853  0.006378  0.2326  0.7564
6.498e+09  -2.056  -4.037  0.009485  -0.003008  -0.04868  0.0832  0.459  0.6404
6.499e+09  -3.303  -2.936  -0.009348  0.01991  0.004217  0.04273  0.6705  0.3829
6.5e+09  -0.6589  0.8352  -0.01749  0.02258  0.05826  -0.1511  0.7577  0.1454
6.501e+09  -4.494  0.1679  -0.009815  -0.03962  -0.06845  0.02084  0.772  -0.1031
6.502e+09  -4.057  1.904  0.002844  -0.03029  -0.04623  -0.06146  0.6436  -0.3853
6.504e+09  -3.046  3.28  0.02944  0.002073  -0.02866  0.07773  0.4906  -0.5921
6.505e+09  -1.6  4.147  0.005788  -0.009835  -0.002653  0.005841  0.2792  -0.6916
6.506e+09  -0.01823  4.368  0.007658  -0.0006071  0.05629  0.06558  -0.005438  -0.7819
6.508e+09  1.694  4.111  0.01237  -0.02534  0.0417  0.02562  -0.2037  -0.6958
6.509e+09  3.218  3.208  -0.0451  0.002903  0.06713  0.02456  -0.5027  -0.6239
6.51e+09  4.024  1.775  -0.00467  0.01559  0.03106  -0.01909  -0.6888  -0.3518
6.511e+09  4.502  0.01951  0.02097  0.009949  -0.0004173  -0.01107  -0.7731  -0.1073
6.512e+09  4.212  -1.524  0.01444  -0.001931  0.07917  -0.04053  -0.8029  0.1357
6.514e+09  3.326  -2.934  -0.01304  -0.006594  -0.04022  0.02559  -0.6531  0.3688
6.515e+09  1.83  -4.01  -0.01548  -0.002299  -0.02371  0.02996  -0.4943  0.5853
6.516e+09  0.3205  -4.32  0.02006  0.002026  0.02295  -0.1146  -0.2439  0.6997
6.518e+09  -1.396  -4.195  0.03555  0.02114  -0.01523  -0.01289  0.01254  0.7621
6.519e+09  -2.917  -3.369  0.01856  -0.00261  -0.02677  0.02635  0.276  0.712
6.52e+09  -3.905  -1.993  0.0103  -0.03442  0.01216  0.05829  0.4885  0.5445
6.521e+09  -4.359  -0.3837  -0.01349  -0.0362  0.087  0.04095  0.6821  0.335
6.522e+09  -4.211  1.331  0.03864  0.03553  -0.09799  0.0237  0.7373  0.1083
6.524e+09  -3.345  2.729  0.02742  -0.02588  -0.07756  0.03556  0.715  -0.1882
6.525e+09  -2.044  3.821  -0.009785  0.01465  0.03807  -0.0578  0.6478  -0.3659
6.526e+09  -0.3913  4.305  -0.01158  0.01564  0.0515  0.07542  0.4368  -0.5596
6.528e+09  1.306  4.115  0.02916  0.0005581  -0.02053  0.04888  0.2082  -0.7047
6.529e+09  2.656  3.27  0.005382  -0.01896  0.1139  -0.03793  -0.04714  -0.7236
6.53e+09  3.572  2.106  -0.007036  0.0134  0.03014  -0.03861  -0.2938  -0.6147
6.531e+09  4.142  0.5076  0.03298  0.004646  -0.03979  -0.03003  -0.4461  -0.4739
6.532e+09  4.054  -1.042  0.01635  -0.003325  -0.03312  0.01245  -0.5909  -0.2947
6.534e+09  3.311  -2.573  0.01177  0.02078  -0.0108  -0.004538  -0.6031  -0.07522
6.535e+09  2.065  -3.504  0.01832  0.02082  -0.01172  0.02691  -0.6185  0.06107
6.536e+09  0.4843  -3.988  -0.004503  -0.007452  0.007196  -0.01173  -0.5434  0.2907
6.538e+09  -0.9843  -3.752  0.02014  -0.002786  -0.06615  0.04198  -0.4656  0.4817
6.539e+09  -2.204  -3.181  0.01765  0.007545  0.003616  0.01537  -0.2647  0.6033
6.54e+09  -3.291  -2.062  -0.01268  0.02861  -0.02481  0.001574  -0.05469  0.6757
6.541e+09  -3.641  -0.6075  -0.02245  0.003577  -0.05142  -0.02521  0.1951  0.6947
6.542e+09  -3.583  0.8177  -0.01277  0.005589  0.006429  -0.03091  0.3909  0.5651
6.544e+09  -2.955  1.956  -0.01202  0.03905  -0.03916  -0.08768  0.6042  0.3913
6.545e+09  -1.955  2.968  -0.01613  0.03013  -0.01012  0.02262  0.6844  0.1724
6.546e+09  -0.7517  3.334  -0.03308  0.006908  0.08211  -0.02236  0.7247  -0.08293
6.548e+09  0.5047  3.369  8.563e-06  -0.005711  0.008905  -0.03565  0.6593  -0.3331
6.549e+09  1.732  2.847  -0.02404  -0.02243  -0.01478  -0.04605  0.5082  -0.5349
6.55e+09  2.585  1.958  0.009867  0.001172  0.04344  -0.01182  0.2898  -0.6686
6.551e+09  3.051  0.8678  -0.003353  -0.008005  -0.02821  0.06509  0.02211  -0.7406
6.552e+09  3.094  -0.3002  0.001352  0.02741  0.01796  0.009572  -0.1987  -0.6744
6.554e+09  2.721  -1.412  0.04689  0.02519  -0.01297  -0.02908  -0.4495  -0.5952
6.555e+09  1.955  -2.259  -0.01614  0.0255  -0.04356  0.05074  -0.6501  -0.3872
