# Hz S RI R 50
6.25e+09  0.7872  -0.667  0.001105  -0.01782  0.001217  0.01996  0.1615  0.477
6.251e+09  0.4741  -0.8984  -0.007405  0.01176  -0.02771  0.01938  0.3484  0.4185
6.252e+09  0.1265  -0.9413  -0.003212  0.01747  0.02153  0.005512  0.5318  0.2343
6.254e+09  -0.1579  -0.9666  -0.002056  0.003483  0.05861  0.02058  0.6253  0.03435
6.255e+09  -0.5365  -0.848  -0.005173  -0.006046  0.03607  0.02555  0.609  -0.203
6.256e+09  -0.8206  -0.5525  -8.101e-05  0.01701  0.03012  0.05408  0.4627  -0.4297
6.258e+09  -0.956  -0.2402  -0.009668  -0.02186  -0.05184  0.006262  0.2836  -0.5872
6.259e+09  -0.9525  0.1225  0.0255  0.01216  -0.0469  0.02344  0.0195  -0.682
6.26e+09  -0.8608  0.4047  0.01444  -0.0408  -0.01809  -0.01496  -0.2149  -0.6579
6.261e+09  -0.6758  0.782  -0.005428  0.0127  0.01154  -0.03421  -0.4243  -0.5506
6.262e+09  -0.348  0.9003  0.01576  -0.02294  0.0132  0.001004  -0.6363  -0.3715
6.264e+09  0.01878  0.9982  -0.001236  -0.01249  -0.00271  0.01593  -0.7251  -0.1112
6.265e+09  0.3235  0.9697  -0.006277  -0.02046  0.01158  0.03554  -0.7349  0.1381
6.266e+09  0.6404  0.7366  -0.02611  -0.0122  0.01158  -0.00717  -0.616  0.4104
6.268e+09  0.8348  0.4667  0.01142  0.004838  0.005987  0.01451  -0.418  0.5895
6.269e+09  1.06  0.1364  -0.01748  0.0187  -0.005666  -0.0184  -0.2016  0.7063
6.27e+09  0.9567  -0.2426  -0.002677  -0.004818  0.003716  0.01165  0.04805  0.7164
6.271e+09  0.7806  -0.53  -0.0007572  0.0002885  -0.01881  -0.0004186  0.3043  0.6607
6.272e+09  0.5199  -0.8177  -0.02035  -0.006684  -0.03537  0.05843  0.5132  0.5123
6.274e+09  0.2114  -0.9529  0.002925  0.0001339  -0.02438  -0.006992  0.699  0.3121
6.275e+09  -0.05834  -0.9836  0.008952  0.03723  0.00573  0.01359  0.7561  0.06284
6.276e+09  -0.4496  -0.8541  0.02411  0.01995  -0.04004  -0.01396  0.6978  -0.2589
6.278e+09  -0.7061  -0.6426  -0.008948  0.008037  -0.01823  -0.03224  0.6007  -0.4604
6.279e+09  -0.9053  -0.3274  0.02004  0.001719  0.02553  0.0255  0.3921  -0.653
6.28e+09  -0.964  0.01205  -0.004288  -0.01887  -0.006616  0.021  0.1664  -0.7421
6.281e+09  -0.91  0.2971  -0.007346  -0.02033  -0.007497  -0.05946  -0.09772  -0.7976
6.282e+09  -0.7709  0.6654  -0.02684  -0.02382  0.03223  -0.007513  -0.3665  -0.7068
6.284e+09  -0.4492  0.8387  -0.0189  -0.02653  -0.02519  -0.05523  -0.6219  -0.5212
6.285e+09  -0.1338  0.9826  -0.005014  -0.01631  -0.02146  0.04877  -0.7085  -0.2889
6.286e+09  0.2481  0.9297  0.001857  -0.003747  0.008755  0.003098  -0.7891  0.01474
6.288e+09  0.4955  0.7978  -0.002419  0.02739  0.02518  0.02037  -0.7452  0.2376
6.289e+09  0.7786  0.5265  0.0269  -0.0006028  -0.03699  0.0007033  -0.618  0.496
6.29e+09  0.9243  0.2028  0.006691  0.003883  0.01251  0.02502  -0.4609  0.71
6.291e+09  0.9633  -0.1274  -0.02773  -0.01588  -0.004404  0.03289  -0.1556  0.8123
6.292e+09  0.863  -0.4259  0.00576  0.02463  0.02298  0.04648  0.1126  0.8124
6.294e+09  0.6611  -0.6876  0.0003618  -0.008883  0.01564  -0.0377  0.4103  0.7207
6.295e+09  0.3755  -0.905  0.007569  -0.01293  0.03347  0.04114  0.6195  0.5219
6.296e+09  0.04022  -1.022  -0.02345  -0.00183  -0.02452  0.04592  0.7625  0.2934
6.298e+09  -0.2989  -0.9115  -0.01464  -0.01173  -0.01428  0.002534  0.8404  0.03076
6.299e+09  -0.6208  -0.7808  0.03069  0.003671  0.02278  -0.02772  0.7893  -0.2914
6.3e+09  -0.8592  -0.4671  -0.02148  -0.01154  -0.009029  0.004389  0.628  -0.5276
6.301e+09  -0.9543  -0.1009  0.0142  -0.01727  0.01713  0.02844  0.4056  -0.7208
6.302e+09  -0.9665  0.2381  -0.00269  -0.01618  -0.03643  0.0303  0.1292  -0.8297
6.304e+09  -0.7825  0.478  -0.0209  0.002345  -0.01198  0.01423  -0.134  -0.8146
6.305e+09  -0.5554  0.7982  -0.006181  0.00614  0.01406  -0.007021  -0.4228  -0.7103
6.306e+09  -0.275  0.9335  -0.002838  -0.001926  0.01305  -0.002473  -0.6555  -0.5396
6.308e+09  0.1152  0.9828  0.008151  -0.01525  0.02374  -0.04048  -0.8232  -0.2947
6.309e+09  0.3779  0.8835  0.03682  0.017  -0.008944  0.03154  -0.8604  -0.005372
6.31e+09  0.6872  0.7239  0.0001806  0.00965  -0.0624  -0.01878  -0.7834  0.3007
6.311e+09  0.8912  0.3937  -0.03351  -0.01788  -0.005888  0.03184  -0.6683  0.5325
6.312e+09  0.9901  0.06188  0.006628  -0.01704  -0.02653  -0.04832  -0.4424  0.7555
6.314e+09  0.9403  -0.2711  0.02265  -0.04131  0.0174  -0.01629  -0.1558  0.879
6.315e+09  0.8071  -0.6653  0.005184  0.01741  0.002592  -0.02817  0.1241  0.89
6.316e+09  0.5422  -0.793  0.02386  0.01438  -0.02254  -0.0191  0.4231  0.7609
6.318e+09  0.1509  -0.9709  0.01818  0.005417  0.03369  -0.002883  0.6507  0.5515
6.319e+09  -0.1642  -0.9712  -0.01268  0.01478  -0.03069  -0.01197  0.8589  0.3417
6.32e+09  -0.5542  -0.823  -0.01536  -0.004879  0.02588  0.01441  0.8992  -0.006722
6.321e+09  -0.7488  -0.6118  -0.006968  -0.01486  0.03462  0.02942  0.8781  -0.3173
6.322e+09  -0.9151  -0.3126  0.03476  -0.01115  0.04136  0.007069  0.7191  -0.5619
6.324e+09  -0.9115  0.0388  0.03324  0.002385  -0.01942  -0.01005  0.4605  -0.7909
6.325e+09  -0.8706  0.3777  -0.004452  0.001106  -0.03724  -0.02661  0.1672  -0.8525
6.326e+09  -0.7205  0.7145  0.001384  0.01327  -0.01875  -0.001251  -0.1719  -0.8988
6.328e+09  -0.4239  0.9203  -0.0193  0.01736  -0.006919  0.02992  -0.4235  -0.7761
6.329e+09  -0.04167  0.9663  -0.02078  -0.01628  0.02257  0.03107  -0.6875  -0.6234
6.33e+09  0.236  0.979  0.02915  0.01044  -0.004478  -0.01584  -0.8511  -0.3147
6.331e+09  0.6105  0.8189  -0.006936  -0.0174  -0.0008711  -0.006441  -0.9064  -0.03493
6.332e+09  0.8298  0.511  -0.0269  -0.0005732  -0.02789  0.001768  -0.9017  0.2952
6.334e+09  0.9401  0.1602  -0.02283  -0.004325  -0.03437  0.02246  -0.7438  0.5611
6.335e+09  0.9971  -0.1553  -0.001867  -0.0001135  0.006654  0.04403  -0.5013  0.7994
6.336e+09  0.8305  -0.5104  0.001375  0.02108  -0.004728  -0.0217  -0.1955  0.898
6.338e+09  0.6457  -0.7569  -0.0196  0.007746  -0.01239  0.02455  0.1475  0.9148
6.339e+09  0.3495  -0.9021  0.01163  0.02343  -0.02773  -0.02323  0.4337  0.7871
6.34e+09  -0.02332  -1.014  0.02174  0.0016  -0.0363  0.004444  0.6888  0.6363
6.341e+09  -0.375  -0.9473  0.004428  -0.02366  0.02551  -0.007412  0.8291  0.3451
6.342e+09  -0.6629  -0.7805  0.004851  -0.004829  -0.01631  0.04704  0.91  0.0442
6.344e+09  -0.9056  -0.4518  0.003402  0.01293  0.01249  -0.02964  0.8712  -0.2574
6.345e+09  -1.015  -0.1536  -0.007488  -0.01103  0.006329  -0.04367  0.7417  -0.5739
6.346e+09  -0.9518  0.2245  -0.01499  0.0033  0.01439  0.004491  0.5222  -0.7761
6.348e+09  -0.8044  0.547  -0.001869  -0.0221  -0.0177  -0.01184  0.2188  -0.9047
6.349e+09  -0.543  0.8538  -0.007171  0.01466  0.006005  -0.005153  -0.117  -0.9291
6.35e+09  -0.207  0.996  -0.01624  0.004857  -0.007556  -0.004456  -0.4409  -0.8557
6.351e+09  0.1187  1.011  -0.03649  -0.01277  -0.02001  0.01422  -0.6963  -0.6351
6.352e+09  0.5316  0.8862  0.006553  0.002523  -0.004185  0.01938  -0.8227  -0.3713
6.354e+09  0.7568  0.6552  0.02718  -0.01283  0.008849  0.003162  -0.9553  -0.03581
6.355e+09  0.9645  0.3526  -0.01115  0.003247  0.03215  0.04036  -0.9239  0.2465
6.356e+09  1.032  0.02918  -0.01112  -0.0007054  0.01201  -0.01906  -0.7404  0.5706
6.358e+09  0.9665  -0.3324  0.01034  0.02421  -0.01034  -0.01017  -0.5311  0.7554
6.359e+09  0.835  -0.671  -0.01019  -0.02091  0.004532  -0.01105  -0.2395  0.9303
6.36e+09  0.5252  -0.9268  -0.003107  -0.003763  -0.02661  0.005298  0.1215  0.9578
6.361e+09  0.1364  -1.041  0.007496  0.01464  0.02201  -0.02825  0.4086  0.8758
6.362e+09  -0.2695  -0.9841  0.02205  0.016  -0.01646  -0.0249  0.6752  0.7209
6.364e+09  -0.5569  -0.8735  0.03535  -0.04573  0.02683  -0.03963  0.8829  0.3717
6.365e+09  -0.9017  -0.5749  0.03141  0.01652  0.02315  0.01321  0.9324  0.06256
6.366e+09  -1.002  -0.1785  -0.00486  -0.0119  0.006038  0.03488  0.8953  -0.2657
6.368e+09  -1.006  0.1257  -0.02294  0.01079  0.04486  0.01284  0.8335  -0.5825
6.369e+09  -0.9766  0.5388  -0.02872  -0.004335  0.01803  0.01443  0.5548  -0.8168
6.37e+09  -0.709  0.8282  -0.03174  -0.02197  0.02275  -0.01627  0.2838  -0.9134
6.371e+09  -0.3276  0.9965  -0.001677  -0.03154  0.0006212  0.01582  -0.1167  -0.9213
6.372e+09  0.04566  1.059  -0.02964  -0.003785  -0.03593  0.006402  -0.3712  -0.8588
6.374e+09  0.3952  0.9507  -0.008019  0.05139  -0.004681  -0.003874  -0.6467  -0.6857
6.375e+09  0.741  0.832  0.002167  -0.005233  0.0009762  -0.01582  -0.847  -0.4013
6.376e+09  1.026  0.5036  0.02784  -0.02308  -0.01613  -0.03165  -0.9569  -0.04831
6.378e+09  1.081  0.05435  0.02844  0.01071  -0.00657  0.01361  -0.9316  0.2782
6.379e+09  1.068  -0.2827  -0.003602  -0.01862  -0.02654  -0.06749  -0.7995  0.5309
6.38e+09  0.9028  -0.6196  0.0099  -0.01127  -0.01289  0.0003642  -0.5447  0.7192
6.381e+09  0.5882  -0.9087  0.008159  -0.02269  -0.01546  -0.01711  -0.257  0.8841
6.382e+09  0.242  -1.128  -0.01447  0.001134  0.02015  -0.04623  0.03223  0.9354
6.384e+09  -0.2625  -1.115  -0.02216  0.05249  -0.02545  0.03715  0.3712  0.8679
6.385e+09  -0.6141  -0.9911  0.006132  0.009601  0.008071  -0.01975  0.6704  0.6795
6.386e+09  -0.8714  -0.7053  -0.02788  -0.04182  0.01186  -0.001249  0.8904  0.4465
6.388e+09  -1.118  -0.331  -0.007484  0.02386  0.02609  0.01465  0.893  0.1375
6.389e+09  -1.15  0.07933  -0.02187  0.03942  -0.03534  0.006459  0.9284  -0.1882
6.39e+09  -1.031  0.4815  0.01465  -0.004081  0.006341  0.03047  0.7776  -0.5174
6.391e+09  -0.8126  0.8458  -0.01986  -0.004866  -0.008239  0.002907  0.5901  -0.7275
6.392e+09  -0.4427  1.065  -0.04076  0.0275  0.01452  0.009104  0.3144  -0.8505
6.394e+09  -0.04188  1.162  0.011  0.01262  0.01607  -0.01251  -0.05426  -0.9081
6.395e+09  0.3572  1.103  -0.01491  -0.009702  0.01494  -0.002912  -0.3408  -0.8441
6.396e+09  0.7768  0.8656  0.01745  0.006785  0.04708  -0.0351  -0.6157  -0.7141
6.398e+09  0.9911  0.5059  -0.004357  -0.03047  -0.01217  -0.01254  -0.8029  -0.3799
6.399e+09  1.187  0.1209  -0.00399  0.008498  -0.02997  0.001131  -0.9095  -0.1272
6.4e+09  1.096  -0.269  0.01173  0.006788  0.0004435  -0.003133  -0.945  0.1866
6.401e+09  1.006  -0.6605  0.01493  0.02918  -0.004275  0.02727  -0.7693  0.4946
6.402e+09  0.7364  -0.9725  -0.02813  -0.02064  0.01902  -0.03891  -0.5768  0.7294
6.404e+09  0.2995  -1.109  -0.01376  -0.01565  0.03615  0.007894  -0.2956  0.8718
6.405e+09  -0.1278  -1.183  0.03573  0.006772  -0.02094  0.005607  -0.005707  0.8865
6.406e+09  -0.5378  -1.046  0.02078  -0.0003647  0.003355  0.03513  0.2612  0.8571
6.408e+09  -0.9243  -0.7724  0.0253  -0.01575  -0.005233  -0.02619  0.5765  0.6846
6.409e+09  -1.129  -0.3405  -0.04415  -0.01825  -0.04203  0.02359  0.8  0.4733
6.41e+09  -1.227  0.1098  -0.01814  -0.03393  0.008943  -0.01311  0.8824  0.1432
6.411e+09  -1.098  0.5335  0.005119  -0.01329  0.02127  0.03656  0.8508  -0.1415
6.412e+09  -0.809  0.8808  -0.0002795  -0.01238  0.01833  0.003997  0.817  -0.4352
6.414e+09  -0.4886  1.106  0.006658  -0.02384  -0.01179  -0.0061  0.6077  -0.675
6.415e+09  -0.008537  1.216  -0.006334  0.04213  -0.003635  0.007055  0.3323  -0.8325
6.416e+09  0.3916  1.145  0.03553  0.02089  -0.02228  -0.02956  0.04967  -0.8984
6.418e+09  0.7704  0.8951  0.01099  0.03031  -0.01518  -0.01698  -0.2959  -0.8824
6.419e+09  1.01  0.5499  0.002937  -0.0354  -0.04712  -0.001894  -0.5228  -0.6772
6.42e+09  1.193  0.0852  -0.006466  0.005454  -0.04338  -0.001144  -0.7194  -0.436
6.421e+09  1.186  -0.3265  0.03572  0.02416  -0.03318  -0.03963  -0.8267  -0.1187
6.422e+09  1.001  -0.6741  0.01398  0.01525  0.005838  0.02422  -0.8502  0.1404
6.424e+09  0.5982  -1.015  0.02649  -0.02992  0.06413  0.03221  -0.7943  0.4254
6.425e+09  0.2824  -1.128  -0.01302  -0.04795  -0.04232  0.009497  -0.6061  0.6525
6.426e+09  -0.2196  -1.19  0.03432  0.03677  0.03872  0.02372  -0.3269  0.8545
6.428e+09  -0.6036  -0.9838  -0.001721  -0.02229  -0.003554  0.001457  -0.0702  0.9393
6.429e+09  -0.8944  -0.7094  -0.0197  -0.006159  -0.007841  0.006725  0.2579  0.8705
6.43e+09  -1.068  -0.3269  0.02773  -0.02162  0.02703  0.01512  0.5388  0.6985
6.431e+09  -1.199  0.0719  0.001125  -0.01501  0.004627  -0.01967  0.725  0.4801
6.432e+09  -1.022  0.5267  0.04989  0.03405  -0.03293  0.008864  0.86  0.2229
6.434e+09  -0.8137  0.8501  -0.01206  0.04295  -0.03142  -0.006418  0.8342  -0.1081
6.435e+09  -0.4164  1.08  0.00868  0.02366  -0.01946  0.018  0.7586  -0.3453
6.436e+09  -0.0201  1.164  -0.02431  0.0188  0.008269  -0.03352  0.6445  -0.6208
6.438e+09  0.4058  1.077  0.01087  0.02048  0.01132  0.05753  0.3329  -0.8071
6.439e+09  0.7416  0.8273  0.01628  -0.01387  0.03922  0.0162  0.09297  -0.8136
6.44e+09  0.9802  0.5025  -0.008104  0.002221  0.03125  0.01884  -0.2009  -0.8376
6.441e+09  1.135  0.1522  -0.01811  -0.001983  -0.01362  -0.01601  -0.4853  -0.6763
6.442e+09  1.07  -0.2646  0.01872  0.011  -0.0002692  0.005435  -0.7092  -0.4725
6.444e+09  0.9167  -0.6423  -0.002682  0.03035  0.04277  -0.02791  -0.8514  -0.2229
6.445e+09  0.5847  -0.8915  -0.009469  0.02532  0.003945  0.04025  -0.849  0.09196
6.446e+09  0.2343  -1.042  0.05013  0.01804  0.006839  -0.00936  -0.7096  0.3245
6.448e+09  -0.1226  -1.106  -0.04873  -0.02895  -0.0009076  0.02042  -0.6309  0.6213
6.449e+09  -0.4662  -0.9429  -0.03816  -0.03017  0.002329  0.01174  -0.3354  0.7788
6.45e+09  -0.7737  -0.7157  -0.02157  0.003268  0.01738  0.008223  -0.02778  0.855
6.451e+09  -1.037  -0.3382  0.01939  0.03288  -0.02656  0.02082  0.2299  0.788
6.452e+09  -1.072  0.04871  -0.03374  -0.01913  0.01702  0.02592  0.5025  0.6804
6.454e+09  -0.9291  0.3638  -0.03027  -0.004174  0.03129  -0.01204  0.7228  0.5113
6.455e+09  -0.7808  0.7221  -0.04079  -0.001052  0.006718  -0.008754  0.7997  0.173
6.456e+09  -0.5137  0.9303  -0.01541  0.01013  -0.001167  0.02944  0.7717  -0.0651
6.458e+09  -0.1355  1.024  0.004678  0.001735  -0.02809  -0.005633  0.7706  -0.3279
6.459e+09  0.2642  1.063  -0.006249  0.02549  0.03467  0.05046  0.5341  -0.5728
6.46e+09  0.603  0.8767  0.03864  0.01073  0.04445  0.01854  0.3878  -0.7635
6.461e+09  0.8688  0.5944  -0.002391  -0.03291  0.001407  0.02636  0.04866  -0.8107
6.462e+09  1.026  0.253  -0.01692  -0.0245  -0.03022  -0.0124  -0.2304  -0.8095
6.464e+09  0.9801  -0.1642  -0.01122  0.004261  0.03136  -0.01597  -0.5039  -0.658
6.465e+09  0.8712  -0.4745  -0.009324  -0.0234  0.0004831  0.02439  -0.697  -0.4806
6.466e+09  0.6791  -0.7484  -0.004469  0.05331  0.03919  -0.02069  -0.7783  -0.208
6.468e+09  0.3619  -0.9491  0.02738  -0.03819  -0.02728  0.01885  -0.77  0.04658
6.469e+09  -0.002719  -1.035  -0.03374  0.005399  0.00536  0.002863  -0.7455  0.3773
6.47e+09  -0.312  -0.9478  0.01502  0.006166  -0.01702  0.01504  -0.58  0.5706
6.471e+09  -0.6124  -0.7455  -0.02048  -0.02127  -0.01066  -0.06592  -0.3167  0.7069
6.472e+09  -0.9023  -0.519  -0.01951  -0.00272  0.0001262  0.005094  -0.03658  0.797
6.474e+09  -0.9892  -0.1148  -0.03591  0.02229  0.01707  -0.006811  0.2245  0.7605
6.475e+09  -0.9597  0.2299  0.01716  -0.03764  -0.02236  -0.004475  0.4491  0.6341
6.476e+09  -0.8588  0.4383  -0.03753  -0.04039  -0.01565  0.02317  0.6635  0.3961
6.478e+09  -0.6278  0.7778  0.005201  0.04317  0.01345  -0.01801  0.7392  0.1619
6.479e+09  -0.2674  0.9501  0.006926  0.0154  0.04528  -0.01077  0.7828  -0.08726
6.48e+09  0.09678  0.956  -0.01499  0.01475  0.05667  -0.01567  0.6967  -0.3069
6.481e+09  0.4175  0.8576  0.01533  0.001429  0.01593  -0.001109  0.5368  -0.5754
6.482e+09  0.6626  0.7059  -0.004799  0.007337  -0.01053  -0.01853  0.3318  -0.7397
6.484e+09  0.8718  0.452  -0.02638  -0.03257  0.07927  -0.03438  0.02231  -0.8267
6.485e+09  0.9618  0.09068  0.001602  -0.0001617  0.01431  -0.04794  -0.2556  -0.7125
6.486e+09  0.9544  -0.2294  -0.02195  -0.03968  0.008986  0.02149  -0.4637  -0.5711
6.488e+09  0.1429  -0.8362  -0.02409  0.04876  0.7264  0.04522  -0.6254  -0.4681
6.489e+09  0.5783  -0.7887  0.02503  -0.01581  0.01567  -0.0321  -0.7438  -0.197
6.49e+09  0.254  -0.9519  0.01887  -0.01981  -0.01455  0.01913  -0.7844  0.08624
6.491e+09  -0.09974  -1.003  -0.02433  -0.02001  0.01393  -0.02629  -0.6838  0.3365
6.492e+09  -0.4219  -0.8156  0.01312  -0.009983  0.005154  -0.02262  -0.4903  0.5577
6.494e+09  -0.7683  -0.6764  0.05443  0.006715  -0.1105  -0.08546  -0.3016  0.6959
6.495e+09  -0.8347  -0.3732  0.005546  0.009355  -0.06423  -0.008512  -0.06574  0.7401
6.496e+09  -0.9253  -0.05207  -0.02027  0.003385  0.0266  -0.001487  0.2141  0.7615
6.498e+09  -0.9294  0.2911  0.026  0.01636  -0.006339  -0.01494  0.4377  0.5938
6.499e+09  -0.7036  0.5495  -0.01032  0.01024  0.0289  -0.01006  0.6475  0.4522
6.5e+09  -0.5004  1.359  -0.0424  -0.02172  0.05993  0.01036  0.7482  0.176
6.501e+09  -0.1433  0.9269  0.03452  0.00609  0.02087  0.02335  0.7314  -0.1293
6.502e+09  0.1339  0.9369  0.02578  -0.01377  0.02863  -0.005413  0.6805  -0.3375
6.504e+09  0.4696  0.8481  -0.01036  -0.003444  0.03764  -0.02326  0.5017  -0.5823
6.505e+09  0.7331  0.6774  -0.01246  0.03349  0.02734  -0.0401  0.2938  -0.7502
6.506e+09  0.9332  0.3563  -0.02241  0.009638  0.02282  0.01616  0.04803  -0.7792
6.508e+09  0.9966  0.05542  0.04154  0.03386  0.07672  -0.06265  -0.2348  -0.7299
6.509e+09  0.9144  -0.3107  -0.01408  0.0462  0.05571  -0.02195  -0.4598  -0.62
6.51e+09  0.7649  -0.5846  -0.0206  -0.0524  -0.005501  0.02347  -0.6523  -0.4301
6.511e+09  0.4887  -0.8716  0.007698  -0.0007749  0.04212  -0.04265  -0.7374  -0.1138
6.512e+09  0.2098  -0.9761  0.009324  0.002932  0.001094  -0.03331  -0.7873  0.1806
6.514e+09  -0.2266  -0.9933  0.03497  0.01324  0.001125  -0.05501  -0.6393  0.3933
6.515e+09  -0.5245  -0.8325  -0.001665  -0.01463  0.03706  -0.00597  -0.4662  0.5781
6.516e+09  -0.7465  -0.5993  0.006319  0.01265  0.02551  0.005057  -0.2393  0.7094
6.518e+09  -0.898  -0.2679  -0.005416  -0.001881  0.006977  0.02471  0.02834  0.7467
6.519e+09  -1.019  -0.05238  0.01057  -0.04188  -0.001898  -0.02824  0.2863  0.7215
6.52e+09  -0.9261  0.3664  -0.008903  -0.031  -0.04189  -0.04153  0.4695  0.541
6.521e+09  -0.7764  0.6361  -0.0415  0.01355  -0.01068  0.05114  0.6574  0.3645
6.522e+09  -0.4503  0.9057  0.01747  0.02121  0.01575  0.01066  0.7199  0.07961
6.524e+09  -0.1331  1.031  -0.004967  0.01153  -0.02723  0.02613  0.7265  -0.1755
6.525e+09  0.2165  0.9927  -0.007837  0.04741  0.01827  -0.03103  0.6468  -0.3931
6.526e+09  0.578  0.9007  0.01316  -0.001809  -0.004495  -0.04724  0.4413  -0.5878
6.528e+09  0.8057  0.6499  -0.009668  -0.001837  0.01881  -0.008967  0.2133  -0.6988
6.529e+09  0.9769  0.2829  -0.009073  0.02232  0.01513  0.008922  -0.04038  -0.6927
6.53e+09  1.021  -0.015  0.009529  -0.02715  -0.01869  -0.0164  -0.2984  -0.6094
6.531e+09  0.9597  -0.4396  0.01192  0.01576  -0.02339  0.02267  -0.495  -0.4373
6.532e+09  0.7652  -0.7462  0.02329  0.03345  -0.01235  -0.03114  -0.5734  -0.3024
6.534e+09  0.4481  -0.9652  -0.01517  0.00748  0.05135  0.04444  -0.6539  -0.1021
6.535e+09  0.04878  -1.049  0.01659  -0.01301  0.05089  0.03672  -0.6558  0.1008
6.536e+09  -0.2811  -1.045  0.01057  0.003297  -0.01169  0.0324  -0.5533  0.2984
6.538e+09  -0.6752  -0.8299  -0.026  -0.01759  0.03754  0.06627  -0.4354  0.4984
6.539e+09  -0.9117  -0.6192  0.009669  0.0111  0.007579  0.009848  -0.2531  0.6331
6.54e+09  -1.054  -0.2166  -0.02496  -0.01707  0.02528  -0.00184  -0.03443  0.6343
6.541e+09  -1.085  0.1023  -0.02053  -0.03613  -0.01413  -0.02231  0.1456  0.6498
6.542e+09  -1.001  0.548  0.008374  0.05817  -0.001476  0.04176  0.4136  0.5598
6.544e+09  -0.7318  0.8484  -0.008336  -0.03577  -0.006205  -0.0003175  0.5927  0.392
6.545e+09  -0.394  1.028  -0.02958  2.026e-05  -0.01471  0.01872  0.6938  0.1849
6.546e+09  0.01317  1.119  -0.01985  -0.005536  0.01036  -0.03683  0.718  -0.07427
6.548e+09  0.3852  1.089  0.0332  0.005863  0.03337  0.005063  0.6605  -0.2983
6.549e+09  0.7612  0.8918  -0.00733  -0.01374  -0.02068  -0.002839  0.5198  -0.5041
6.55e+09  1.012  0.5511  0.03367  0.004079  -0.03775  -0.04117  0.3149  -0.693
6.551e+09  1.133  0.1125  -0.02096  -0.0358  -0.07002  0.04944  0.05263  -0.7564
