# Hz S RI R 50
6.25e+09  0.7166  0.7181  0.02568  0.02022  -0.02196  0.01499  0.1849  0.5087
6.251e+09  0.9668  0.4057  -0.01626  0.006185  -0.01483  -0.01488  0.3818  0.4159
6.252e+09  1.005  0.0001823  -0.01011  -0.01893  -0.03086  0.03809  0.5547  0.236
6.254e+09  0.9394  -0.2901  -0.004282  -0.001276  -0.02694  0.01556  0.6106  0.0005762
6.255e+09  0.7956  -0.6456  0.0154  0.001665  0.001078  0.0136  0.6054  -0.1962
6.256e+09  0.5134  -0.8074  0.01892  -0.007615  0.04014  0.0221  0.4701  -0.4345
6.258e+09  0.1867  -0.9266  0.01443  0.002821  0.04828  0.003551  0.2696  -0.5681
6.259e+09  -0.1899  -1.004  -0.01749  -0.01356  -0.003145  0.02437  0.03961  -0.6981
6.26e+09  -0.4779  -0.8837  -0.02428  -0.01155  -0.01514  -0.03209  -0.2144  -0.6525
6.261e+09  -0.7786  -0.6277  0.01085  0.05263  -0.01176  -0.03306  -0.4364  -0.5531
6.262e+09  -0.8694  -0.3336  -0.02429  -0.006267  0.008474  -0.05669  -0.6182  -0.3572
6.264e+09  -0.9567  0.02746  -0.01695  -0.0306  0.01934  0.0134  -0.6935  -0.1429
6.265e+09  -0.8927  0.3195  -0.01354  -0.03284  0.02332  0.006236  -0.7194  0.1641
6.266e+09  -0.7517  0.6259  -2.073e-06  -0.01622  -0.01739  -0.04827  -0.6436  0.3909
6.268e+09  -0.4366  0.8409  -0.03382  -0.01178  0.01676  -0.02869  -0.4253  0.603
6.269e+09  -0.05374  0.9997  -0.0298  0.03344  -0.02529  -0.03652  -0.2125  0.6967
6.27e+09  0.1864  0.9563  0.004346  0.006352  -0.0379  -0.03595  0.04778  0.758
6.271e+09  0.5447  0.8213  0.01915  0.01842  0.0537  0.01257  0.3193  0.6676
6.272e+09  0.7936  0.5625  -0.001489  -0.02236  -0.004616  -0.01315  0.5193  0.5159
6.274e+09  0.9354  0.1801  -0.01771  0.00697  0.01237  0.04684  0.6832  0.3016
6.275e+09  0.9652  -0.1225  -0.0001842  -0.02573  -0.04724  0.02548  0.7592  0.01924
6.276e+09  0.8208  -0.4165  -0.006307  0.01847  -0.005755  0.01358  0.7053  -0.2216
6.278e+09  0.7178  -0.6844  0.0513  0.01047  -0.03525  -0.05733  0.6305  -0.4562
6.279e+09  0.3803  -0.9238  -0.007554  0.0258  0.01658  0.04071  0.4377  -0.6149
6.28e+09  0.07494  -0.9501  -0.02617  0.02767  -0.001821  -0.01672  0.1646  -0.7757
6.281e+09  -0.281  -0.9428  -0.01412  -0.005234  -0.001969  0.02352  -0.0904  -0.7687
6.282e+09  -0.6443  -0.7421  0.01057  0.005447  0.01306  0.05285  -0.3758  -0.7033
6.284e+09  -0.8652  -0.5112  0.009523  0.03146  0.05722  0.01297  -0.5948  -0.5448
6.285e+09  -1.027  -0.1825  -0.01299  -0.001915  0.03568  -0.025  -0.7384  -0.292
6.286e+09  -0.9386  0.1407  -0.005137  0.02355  -0.01846  -0.05476  -0.7799  -0.009293
6.288e+09  -0.8146  0.4813  0.02553  0.01008  0.02135  0.04956  -0.7723  0.2836
6.289e+09  -0.5893  0.7913  -0.0102  -0.007634  -0.0236  -0.02236  -0.6168  0.4758
6.29e+09  -0.3044  0.9237  0.01462  -0.03367  -0.002413  -0.000895  -0.4389  0.6975
6.291e+09  0.1088  1.007  -0.005453  0.004827  0.001723  0.03788  -0.1663  0.7655
6.292e+09  0.3428  0.9342  -0.006065  -0.04577  -0.03014  0.03113  0.1499  0.8102
6.294e+09  0.6841  0.6998  -0.02327  -0.01164  0.01494  0.07931  0.3834  0.6686
6.295e+09  0.8074  0.3907  -0.001997  0.01225  0.05751  -0.02509  0.6363  0.4986
6.296e+09  0.9443  0.1465  0.009139  0.01908  -0.02947  -0.01798  0.7688  0.2895
6.298e+09  0.9627  -0.2307  -0.002125  0.01474  0.04089  -0.08891  0.8538  0.02224
6.299e+09  0.8141  -0.541  -0.002393  0.01685  -0.001357  -0.04957  0.766  -0.272
6.3e+09  0.5753  -0.8094  -0.007617  0.01409  0.0235  0.01973  0.5971  -0.5264
6.301e+09  0.2053  -0.9565  -0.002423  0.005136  0.04032  -0.007811  0.4089  -0.725
6.302e+09  -0.09612  -0.978  0.02565  0.01788  -0.006162  0.03337  0.1719  -0.7981
6.304e+09  -0.4661  -0.8824  0.00848  -0.00636  0.04315  -0.006819  -0.1331  -0.849
6.305e+09  -0.7674  -0.6905  -0.0007764  0.009683  -0.03038  0.006005  -0.4169  -0.7483
6.306e+09  -0.9388  -0.4074  -0.005439  0.01841  0.04467  0.001678  -0.6703  -0.574
6.308e+09  -0.9624  -0.01072  -0.01899  0.005862  -0.02771  -0.03311  -0.809  -0.2912
6.309e+09  -0.9502  0.2966  0.03075  -0.022  -0.03583  -0.03216  -0.8845  -0.02761
6.31e+09  -0.7824  0.6645  0.02016  -0.02524  0.01011  -0.0118  -0.8441  0.2493
6.311e+09  -0.502  0.883  -0.01432  0.01021  0.02163  0.01065  -0.6716  0.5535
6.312e+09  -0.1354  0.9659  0.001817  -0.0381  -0.01132  0.007545  -0.4399  0.7349
6.314e+09  0.1555  1.033  0.02321  0.02425  0.006256  0.01823  -0.1351  0.8776
6.315e+09  0.5209  0.8153  -0.01261  0.003934  -0.0433  -0.009764  0.1792  0.8682
6.316e+09  0.7656  0.6139  -0.02627  0.02034  -0.02231  0.02218  0.4059  0.7572
6.318e+09  0.9876  0.2894  -0.002502  -0.01038  -0.01311  0.01113  0.6538  0.5639
6.319e+09  1.024  -0.05508  0.001733  -0.02668  0.03646  -0.05009  0.7984  0.3275
6.32e+09  1.021  -0.3847  -0.006664  0.01906  -0.04379  0.04425  0.8758  0.01401
6.321e+09  0.7482  -0.7287  0.02945  0.01482  0.001906  0.009521  0.8361  -0.2908
6.322e+09  0.4656  -0.9001  -0.003331  0.02276  0.03563  -0.03055  0.6825  -0.5275
6.324e+09  0.09975  -1.008  -0.01248  -0.001949  0.03403  0.03122  0.4423  -0.7553
6.325e+09  -0.277  -1.026  -0.0259  0.0103  -0.01033  -0.0324  0.1884  -0.8774
6.326e+09  -0.6336  -0.868  0.001851  0.01168  0.01565  0.004291  -0.1136  -0.8766
6.328e+09  -0.878  -0.5811  -0.02007  -0.004918  0.01045  0.0004082  -0.443  -0.7687
6.329e+09  -1.031  -0.2934  -0.01689  0.00393  -0.0003691  -0.000156  -0.6911  -0.6281
6.33e+09  -1.103  0.07803  0.01354  -0.003671  -0.01045  -0.04525  -0.8342  -0.3616
6.331e+09  -0.9487  0.4051  0.0008634  -0.005279  0.006538  -0.005397  -0.9204  -0.052
6.332e+09  -0.7168  0.8123  0.0002045  -0.02706  -0.02183  -0.02644  -0.8792  0.2644
6.334e+09  -0.439  0.9548  -0.007482  -0.01933  0.03854  -0.02414  -0.7208  0.5736
6.335e+09  0.002949  1.074  0.02428  -0.001142  0.01348  0.02162  -0.4801  0.7736
6.336e+09  0.3181  1.064  0.009882  0.009746  -0.005273  -0.02131  -0.21  0.8945
6.338e+09  0.671  0.8526  -0.01384  0.004138  0.01537  -0.03339  0.1044  0.8897
6.339e+09  0.9672  0.5591  -0.003715  -0.002448  0.02664  -0.00844  0.4467  0.7713
6.34e+09  1.093  0.232  -0.012  0.0004074  -0.005997  -0.02133  0.664  0.6507
6.341e+09  1.104  -0.1611  -0.0451  -0.03045  0.01745  0.005067  0.873  0.3521
6.342e+09  0.9487  -0.5497  -0.0003794  -0.01007  -0.05627  -0.01286  0.9491  0.03055
6.344e+09  0.6799  -0.8792  -0.01398  -0.03516  -0.01112  0.02685  0.8816  -0.2607
6.345e+09  0.3868  -1.075  0.007152  -0.02087  0.02459  -0.01276  0.7152  -0.5831
6.346e+09  -0.03795  -1.128  -0.01941  0.01168  0.02704  0.01752  0.5024  -0.7844
6.348e+09  -0.4058  -1.041  0.01764  -0.02195  0.06304  -0.01304  0.2058  -0.8829
6.349e+09  -0.7624  -0.7807  0.01993  0.01296  0.01956  -0.0177  -0.1272  -0.9219
6.35e+09  -1.052  -0.4885  0.003254  -0.009612  -0.036  -0.03189  -0.4249  -0.7903
6.351e+09  -1.176  -0.1402  0.009187  -0.01416  -0.005099  -0.04506  -0.7129  -0.6457
6.352e+09  -1.132  0.3046  -0.006394  0.01232  0.01218  0.01984  -0.8823  -0.392
6.354e+09  -0.9742  0.6386  0.009113  0.02839  -0.02186  -0.05283  -0.9552  -0.06296
6.355e+09  -0.7022  0.9732  0.0002014  -0.001083  -0.009265  0.03239  -0.948  0.2694
6.356e+09  -0.2421  1.105  -0.01711  -0.012  -0.005983  0.02777  -0.7499  0.5616
6.358e+09  0.1245  1.17  -0.02368  -0.0001971  -0.001448  0.05089  -0.5259  0.8275
6.359e+09  0.5332  1.073  -0.003067  -0.02686  -0.03701  -0.0127  -0.2219  0.928
6.36e+09  0.8838  0.799  -0.02658  0.02465  0.01852  -0.04084  0.09579  0.9451
6.361e+09  1.111  0.4647  0.01412  -0.01779  -0.02269  -0.009425  0.3954  0.8373
6.362e+09  1.152  0.01391  -0.03842  -0.01782  -0.01111  -0.009945  0.7006  0.6333
6.364e+09  1.131  -0.3871  0.008991  0.0314  -0.01912  -0.03707  0.8463  0.3608
6.365e+09  0.9329  -0.7993  0.01506  -0.01003  -0.02409  -0.01594  0.9688  0.08679
6.366e+09  0.651  -0.9955  0.02049  0.02728  -0.0293  0.04129  0.9113  -0.2494
6.368e+09  0.2324  -1.184  -0.005987  -0.009675  0.02987  -0.04706  0.7498  -0.5304
6.369e+09  -0.2089  -1.224  -0.01036  -0.01356  -0.008046  0.005949  0.5346  -0.7984
6.37e+09  -0.5983  -1.073  -0.01375  0.01983  -0.02864  0.03008  0.2239  -0.9312
6.371e+09  -0.9292  -0.8322  0.02692  0.02108  -0.003468  0.02502  -0.05094  -0.9593
6.372e+09  -1.201  -0.465  0.01632  -0.006598  -0.009508  0.01784  -0.4032  -0.8725
6.374e+09  -1.234  -0.03437  0.0033  -0.01604  0.01327  -0.002995  -0.6639  -0.6828
6.375e+09  -1.13  0.4513  0.002948  0.009365  -0.05043  0.01292  -0.8669  -0.416
6.376e+09  -0.943  0.854  -0.0055  -0.05342  -0.01138  0.04206  -0.9192  -0.1055
6.378e+09  -0.6026  1.176  -0.05706  -0.007799  0.03201  -0.05406  -0.9257  0.229
6.379e+09  -0.1926  1.284  -0.03697  -0.007464  -0.02676  -0.01933  -0.759  0.5256
6.38e+09  0.2753  1.323  -0.02068  -0.01322  -0.0183  -0.005526  -0.566  0.7688
6.381e+09  0.7246  1.107  0.01956  0.02777  0.0126  0.005935  -0.2566  0.9202
6.382e+09  1.056  0.8357  -0.02999  -0.01859  0.03756  -0.0163  0.06342  0.9496
6.384e+09  1.353  0.3774  -0.01541  -0.001308  0.02808  0.003595  0.3418  0.8777
6.385e+09  1.41  -0.09607  0.03557  0.01503  0.01886  -0.03145  0.655  0.6476
6.386e+09  1.258  -0.5366  0.01373  -0.01799  0.01595  -0.02288  0.8379  0.4044
6.388e+09  1.042  -0.9765  -0.00764  0.03498  -0.002343  -0.02622  0.953  0.09969
6.389e+09  0.6022  -1.304  0.0203  0.0006582  -0.0141  -0.0373  0.8904  -0.2055
6.39e+09  0.1286  -1.424  -0.008603  0.01481  -0.07161  -0.02919  0.7983  -0.4769
6.391e+09  -0.4531  -1.38  0.03217  0.01289  -0.002164  -0.001257  0.5543  -0.7114
6.392e+09  -0.8638  -1.181  0.0501  -0.003539  0.04111  -0.001246  0.2879  -0.8837
6.394e+09  -1.273  -0.7598  -0.01794  -0.03737  -0.04179  -0.01274  -0.04594  -0.9355
6.395e+09  -1.444  -0.3386  -0.01149  0.04933  0.008038  0.01345  -0.356  -0.8647
6.396e+09  -1.519  0.1835  -0.008109  0.03084  -0.03501  0.02103  -0.5947  -0.6552
6.398e+09  -1.378  0.6789  -0.005802  -0.0159  -0.004262  0.03373  -0.8272  -0.4732
6.399e+09  -1.083  1.171  -0.04775  0.06356  0.01837  0.05076  -0.8882  -0.1141
6.4e+09  -0.5823  1.524  0.03032  -0.0003695  0.02394  -0.01306  -0.8516  0.2032
6.401e+09  -0.06975  1.627  -0.0006256  0.01216  1.512e-05  -0.003337  -0.7824  0.4882
6.402e+09  0.5253  1.478  0.02007  -0.02226  -0.05922  0.02827  -0.6076  0.6922
6.404e+09  0.9849  1.276  0.0185  -0.006615  -0.01143  -0.0163  -0.2927  0.8804
6.405e+09  1.481  0.8221  0.002694  0.006629  -0.03881  -0.006569  0.01848  0.913
6.406e+09  1.65  0.2597  -0.004735  0.00519  0.002397  -0.01544  0.3542  0.8669
6.408e+09  1.737  -0.3594  -0.00288  0.0001831  -0.0111  -0.09211  0.609  0.6811
6.409e+09  1.448  -0.9491  -0.01786  -0.0152  0.00358  -0.01753  0.7941  0.4906
6.41e+09  1.107  -1.486  -0.02482  -0.01148  0.0225  0.0006063  0.9473  0.1804
6.411e+09  0.493  -1.753  -0.01627  0.01684  0.009505  0.01064  0.932  -0.1184
6.412e+09  -0.1793  -1.877  0.01545  -0.03148  0.04697  0.03075  0.7791  -0.4725
6.414e+09  -0.8665  -1.683  -0.01364  -0.01378  -0.03029  -0.08249  0.5946  -0.6955
6.415e+09  -1.416  -1.296  0.05412  -0.04073  -0.02559  -0.02034  0.2996  -0.8092
6.416e+09  -1.771  -0.7058  0.02462  0.004594  0.01499  0.01594  0.06122  -0.896
6.418e+09  -2.072  0.004301  -0.01623  0.03346  -0.03847  0.03302  -0.2623  -0.8458
6.419e+09  -1.925  0.7158  -0.05816  -0.06774  -0.0228  0.04512  -0.585  -0.7228
6.42e+09  -1.519  1.346  0.01032  -0.02353  -0.002678  0.01398  -0.7535  -0.4261
6.421e+09  -0.9931  1.862  -0.0372  -0.002629  0.02869  -0.02372  -0.8372  -0.1658
6.422e+09  -0.2806  2.148  0.04381  -0.02199  -0.05333  0.00408  -0.8447  0.1458
6.424e+09  0.5603  2.153  -0.05043  -0.0254  -0.008242  -0.005042  -0.7883  0.3997
6.425e+09  1.322  1.859  -0.02705  0.01017  -0.02088  -0.03668  -0.5959  0.6339
6.426e+09  1.934  1.208  -0.002071  0.02678  -0.02202  0.01178  -0.3663  0.8074
6.428e+09  2.322  0.4788  0.006333  -0.0491  0.01072  -0.009515  -0.06823  0.8624
6.429e+09  2.368  -0.44  -0.008318  0.002211  0.02402  0.03451  0.2387  0.8508
6.43e+09  2.084  -1.286  -0.007889  -0.02426  0.0255  -0.008007  0.5201  0.6943
6.431e+09  1.518  -2.037  0.01769  0.003035  0.05747  -0.0373  0.711  0.4978
6.432e+09  0.6991  -2.506  0.01901  -0.02763  0.01051  0.02521  0.8592  0.2015
6.434e+09  -0.2682  -2.648  -0.008986  -0.009696  0.01177  0.01861  0.8299  -0.1123
6.435e+09  -1.263  -2.289  0.0339  -0.04093  0.008048  0.01825  0.7768  -0.3543
6.436e+09  -2.141  -1.776  0.02884  0.000122  -0.008063  0.009461  0.5623  -0.6058
6.438e+09  -2.693  -0.8374  0.01053  -0.002934  -0.02397  0.08082  0.3434  -0.7622
6.439e+09  -2.861  0.1979  -0.05267  -0.02577  -0.01868  -0.01606  0.08674  -0.8662
6.44e+09  -2.572  1.218  -0.01058  -0.00139  0.0227  -0.01938  -0.21  -0.8166
6.441e+09  -2.005  2.179  0.02803  -0.02143  -0.03548  -0.01078  -0.5194  -0.7139
6.442e+09  -1.002  2.802  0.01471  -0.006044  -0.01737  -0.005433  -0.694  -0.4771
6.444e+09  0.1887  3.031  0.03038  -0.03564  -0.01915  0.05842  -0.8367  -0.2005
6.445e+09  1.323  2.779  0.01963  -0.001361  -0.01402  0.05192  -0.8314  0.0224
6.446e+09  2.292  2.16  0.02981  -0.0107  0.005385  0.01183  -0.7681  0.3405
6.448e+09  2.995  1.13  -0.04497  -0.001951  0.007894  -0.02133  -0.5991  0.5667
6.449e+09  3.168  -0.0806  -0.02915  -0.001988  0.004397  -0.01839  -0.3645  0.7636
6.45e+09  2.989  -1.291  0.01344  -0.00317  -0.04824  -0.03032  -0.05838  0.8484
6.451e+09  2.259  -2.399  -0.01529  -0.02164  0.02298  0.006857  0.1939  0.7882
6.452e+09  1.147  -3.006  0.02237  0.008386  0.03217  0.006904  0.4616  0.6711
6.454e+09  -0.04318  -3.357  0.007053  -0.01268  0.06007  0.01899  0.6755  0.4453
6.455e+09  -1.35  -3.048  -0.011  -0.03615  -0.06075  -0.03881  0.7935  0.2539
6.456e+09  -2.407  -2.308  -0.01076  -0.01852  0.003809  -0.0151  0.8025  -0.07636
6.458e+09  -3.128  -1.339  0.00476  -0.01783  -0.002424  0.01552  0.766  -0.3573
6.459e+09  -3.32  0.03579  -0.001729  -0.03513  -0.05298  0.03007  0.5883  -0.6134
6.46e+09  -3.101  1.282  -0.02679  -0.01154  0.02946  -0.0615  0.3273  -0.754
6.461e+09  -2.379  2.4  -0.005959  -0.009446  -0.03914  0.0001104  0.1305  -0.8262
6.462e+09  -1.299  3.089  -0.02858  0.005668  0.01039  0.001441  -0.2768  -0.7905
6.464e+09  -0.03775  3.382  -0.01635  0.02545  0.01086  0.02407  -0.5438  -0.62
6.465e+09  1.244  3.078  0.0333  -0.0248  -0.002906  -0.01636  -0.683  -0.4767
6.466e+09  2.264  2.379  -0.03001  -0.01313  0.01517  0.004126  -0.7819  -0.205
6.468e+09  2.984  1.34  -0.003646  -0.03392  0.02263  -0.006182  -0.7955  0.06773
6.469e+09  3.286  0.09318  -0.01553  0.01791  0.01626  0.0007223  -0.7452  0.3222
6.47e+09  3.032  -1.048  0.02269  0.01399  -0.03781  5.278e-06  -0.5447  0.6173
6.471e+09  2.537  -2.17  -0.03484  -0.004936  0.04743  0.02756  -0.3257  0.7425
6.472e+09  1.45  -2.815  0.04865  -0.04351  -0.02606  0.05577  -0.1103  0.7963
6.474e+09  0.2895  -3.179  -0.03511  -0.01429  0.02287  0.03377  0.19  0.7395
6.475e+09  -0.909  -2.987  -0.02556  -0.03307  0.0704  -0.01762  0.4374  0.6099
6.476e+09  -1.99  -2.438  -0.04607  0.0334  -0.05768  0.005591  0.6183  0.4169
6.478e+09  -2.589  -1.523  -0.001764  0.0357  0.01762  0.007299  0.7705  0.1833
6.479e+09  -3.04  -0.46  0.0008537  0.01404  0.03729  0.04416  0.8043  -0.09158
6.48e+09  -2.885  0.7592  0.01802  -0.02871  -0.0319  0.01562  0.6946  -0.349
6.481e+09  -2.5  1.687  -0.01788  -0.002302  0.1025  0.04621  0.5091  -0.5494
6.482e+09  -1.715  2.5  0.006793  0.001089  -0.002759  -0.02848  0.3111  -0.7016
6.484e+09  -0.5534  2.884  -0.01601  0.01183  0.05711  -0.03534  0.06243  -0.7552
6.485e+09  0.4585  2.946  0.01766  -0.02625  -0.05404  -0.02248  -0.2044  -0.7297
6.486e+09  1.462  2.486  0.000879  -0.02709  0.1116  0.01509  -0.447  -0.6053
6.488e+09  2.108  2.535  -0.04057  -0.0008867  -0.4143  -0.6424  -0.6349  -0.4414
6.489e+09  2.778  0.796  -0.01089  0.01136  -0.001  0.06286  -0.7429  -0.165
6.49e+09  2.846  -0.2575  -0.004433  0.04178  0.01228  0.05521  -0.7213  0.1037
6.491e+09  2.654  -1.202  -0.001479  0.02968  -0.05036  0.04116  -0.7037  0.3499
6.492e+09  1.938  -2.063  -0.02552  0.01439  0.008763  0.008838  -0.5436  0.5738
6.494e+09  1.186  -2.719  0.005111  0.02766  -0.08629  0.1329  -0.2816  0.6933
6.495e+09  0.05292  -2.858  0.01249  0.005627  -0.04986  -0.00186  -0.02678  0.778
6.496e+09  -0.9761  -2.653  0.02109  0.03024  0.03056  0.004483  0.2158  0.7607
6.498e+09  -1.903  -2.179  0.005672  0.009835  -0.02121  0.0412  0.4885  0.5871
6.499e+09  -2.461  -1.361  -0.009765  -0.02564  0.004941  -0.06971  0.6716  0.401
6.5e+09  -5.483  -0.3733  -0.009774  0.04314  0.02337  -0.03003  0.7346  0.1624
6.501e+09  -2.641  0.7495  -0.00429  0.009573  0.008745  0.01325  0.7383  -0.1051
6.502e+09  -2.305  1.702  -0.008139  0.007115  0.08058  -0.05577  0.7057  -0.3914
6.504e+09  -1.574  2.369  0.03994  -0.01055  0.008497  -0.0395  0.5377  -0.5659
6.505e+09  -0.6163  2.775  0.0001461  0.003984  -0.01468  0.04981  0.302  -0.6946
6.506e+09  0.4553  2.809  -0.001512  -0.03789  0.1699  -0.02538  -0.006671  -0.778
6.508e+09  1.349  2.434  -0.03  -0.01871  0.04493  -0.02498  -0.2456  -0.7145
6.509e+09  2.141  1.743  0.02148  0.00291  0.0495  0.03107  -0.4983  -0.615
6.51e+09  2.669  0.845  0.002059  0.01392  -0.0003742  -0.01516  -0.6346  -0.3356
6.511e+09  2.819  -0.1881  0.02955  -0.004463  -0.01763  0.05808  -0.7677  -0.1526
6.512e+09  2.549  -1.143  0.02148  0.02819  0.05979  -0.00632  -0.7258  0.1072
6.514e+09  2.063  -2.059  -0.01932  0.0351  -0.07009  0.0007975  -0.6755  0.3462
6.515e+09  1.147  -2.678  0.001591  -0.03969  0.01539  0.05149  -0.4512  0.5945
6.516e+09  0.02878  -2.895  0.0133  0.02712  0.03327  -0.0643  -0.2213  0.6744
6.518e+09  -1.001  -2.87  -0.003516  0.01902  -0.02942  -0.004353  -0.008644  0.7725
6.519e+09  -1.926  -2.333  0.003188  -0.03509  -0.04079  -0.08146  0.2459  0.6892
6.52e+09  -2.657  -1.415  0.01069  0.01647  -0.05853  -0.0191  0.5064  0.5443
6.521e+09  -2.922  -0.3862  -0.04145  0.03002  -0.04348  -0.02832  0.6774  0.3385
6.522e+09  -2.93  0.6863  0.03194  -0.01471  0.01469  0.01557  0.7051  0.1027
6.524e+09  -2.393  1.808  0.008624  0.01522  0.07219  0.04476  0.7406  -0.1691
6.525e+09  -1.692  2.575  -0.01184  -0.001382  -0.005555  0.006135  0.6111  -0.4312
6.526e+09  -0.6696  3.01  0.01424  0.03468  0.06006  -0.033  0.4329  -0.5647
6.528e+09  0.5192  3.068  0.01081  0.02357  -0.005584  0.02084  0.2028  -0.6845
6.529e+09  1.667  2.62  0.03884  -0.007595  -0.03888  -0.03109  -0.06614  -0.6699
6.53e+09  2.515  1.874  -0.001156  -0.008323  0.07032  0.08362  -0.2721  -0.5808
6.531e+09  3.09  0.8223  0.01442  0.02999  -0.08798  0.04741  -0.4887  -0.4656
6.532e+09  3.189  -0.4316  0.02419  0.02848  0.03599  -0.0521  -0.5606  -0.2765
6.534e+09  2.852  -1.525  0.04052  -0.0301  -0.02365  -0.1046  -0.6461  -0.05511
6.535e+09  1.907  -2.526  0.004352  0.01208  -0.04576  -0.02779  -0.6558  0.08262
6.536e+09  0.8766  -3.032  0.01278  -0.03008  -0.05622  -0.08713  -0.5559  0.3019
6.538e+09  -0.283  -3.277  0.008199  0.0137  0.06052  0.08932  -0.4475  0.473
6.539e+09  -1.483  -2.968  0.04897  0.001395  0.05407  0.03366  -0.26  0.5972
6.54e+09  -2.474  -2.078  0.004831  0.01779  -0.05173  0.0516  -0.03264  0.6468
6.541e+09  -3.092  -1.009  -0.01481  -0.0388  -0.03555  0.02552  0.1591  0.6644
6.542e+09  -3.263  0.1953  0.007372  0.005046  -0.005159  -0.02341  0.4352  0.5956
6.544e+09  -2.982  1.466  -0.03054  0.02758  0.02538  0.04587  0.6119  0.3856
6.545e+09  -2.182  2.44  0.04295  0.02957  0.02044  -0.06812  0.7259  0.1398
6.546e+09  -1.142  3.044  0.02043  0.0249  0.04589  0.01005  0.715  -0.08462
6.548e+09  0.1163  3.214  -0.0006717  -0.002788  -0.1274  -0.002082  0.6619  -0.3554
6.549e+09  1.337  2.962  -0.02099  -0.006617  -0.007569  -0.05209  0.4884  -0.5269
6.55e+09  2.242  2.128  0.001608  -0.01845  0.04317  0.08646  0.3061  -0.6759
6.551e+09  2.858  1.151  0.01086  0.0298  0.002153  0.03886  0.05264  -0.7346
6.552e+09  3.019  0.04189  -0.04262  0.01862  -0.05656  0.01509  -0.202  -0.7076
6.554e+09  2.894  -1.175  -0.04278  0.02071  -0.05406  0.002136  -0.4864  -0.5927
6.555e+09  2.172  -2.12  -0.003007  -0.02694  0.04305  0.03117  -0.6224  -0.3818
