# Hz S RI R 50
6.25e+09  -0.0224  0.9157  0.009189  -0.008647  -0.02324  0.01708  0.148  0.4653
6.251e+09  0.3055  0.8512  -0.003504  -0.002312  0.007499  -0.03964  0.3905  0.3994
6.252e+09  0.6043  0.715  0.005265  -0.02017  0.03413  0.04841  0.5227  0.2571
6.254e+09  0.8268  0.4837  -0.007347  0.009307  0.03226  -0.03432  0.6013  -0.01759
6.255e+09  0.8671  0.1614  0.02175  -0.03969  0.02434  0.05183  0.5769  -0.2264
6.256e+09  0.8878  -0.187  0.001716  0.001408  -0.008945  0.003044  0.462  -0.4602
6.258e+09  0.7665  -0.5162  0.009925  0.01763  -0.06618  -0.0485  0.2658  -0.5959
6.259e+09  0.5875  -0.6914  0.0333  0.01494  -0.04358  -0.05191  0.05681  -0.6896
6.26e+09  0.3355  -0.8525  0.04404  0.003211  0.01531  0.003541  -0.1928  -0.6689
6.261e+09  0.03811  -0.9245  0.008112  -0.02432  0.02526  -0.07007  -0.4355  -0.532
6.262e+09  -0.3299  -0.8374  0.01052  -0.03161  -0.03358  0.005741  -0.5892  -0.3758
6.264e+09  -0.6458  -0.6572  0.002532  -0.02861  0.06848  0.06829  -0.7342  -0.1176
6.265e+09  -0.8196  -0.3876  0.05176  -0.007647  -0.01879  -0.05046  -0.6919  0.1324
6.266e+09  -0.8749  -0.1447  0.009459  -0.03616  -0.01118  0.01328  -0.5947  0.3648
6.268e+09  -0.8676  0.2051  -0.02  0.001737  0.05757  -0.002889  -0.4642  0.6033
6.269e+09  -0.7793  0.4708  -0.002975  -0.009325  -0.07917  0.01442  -0.2015  0.688
6.27e+09  -0.5607  0.7181  0.01649  -0.005539  -0.01743  0.02601  0.05194  0.7633
6.271e+09  -0.2896  0.8939  0.004869  -0.01487  0.01588  0.02049  0.3193  0.6858
6.272e+09  0.03422  0.9441  0.008294  0.004802  -0.01645  -0.03103  0.5289  0.4868
6.274e+09  0.3638  0.836  0.01018  0.02921  0.008214  0.02878  0.6999  0.3209
6.275e+09  0.6509  0.6404  0.03854  -0.009152  0.04188  -0.02067  0.7963  0.05621
6.276e+09  0.8503  0.4222  0.02275  -0.006527  0.04476  0.03015  0.7225  -0.2308
6.278e+09  0.8479  0.09782  0.02723  0.008952  -0.02777  -0.01491  0.6067  -0.4627
6.279e+09  0.8361  -0.2136  0.02402  0.01906  -0.01554  -0.01942  0.4197  -0.6566
6.28e+09  0.7768  -0.5574  0.0187  -0.01074  -0.02774  0.02625  0.1512  -0.7784
6.281e+09  0.5078  -0.7523  -0.01256  -0.02211  0.01612  -0.02327  -0.1278  -0.7797
6.282e+09  0.1927  -0.8953  0.0134  0.0174  -0.03286  -0.04343  -0.3665  -0.6657
6.284e+09  -0.08737  -0.865  0.02478  -0.006958  -0.006437  0.03488  -0.5645  -0.5059
6.285e+09  -0.4208  -0.8393  0.01234  0.03255  -0.02442  -0.03684  -0.7681  -0.283
6.286e+09  -0.6371  -0.6302  0.005181  0.01261  -0.0104  -0.02223  -0.7685  -0.0372
6.288e+09  -0.8326  -0.3355  -0.01532  -0.00981  0.04281  -0.0433  -0.7576  0.2723
6.289e+09  -0.9905  -0.04925  0.02259  0.00181  0.0008482  -0.03735  -0.6229  0.4922
6.29e+09  -0.946  0.2739  0.007301  -0.004122  0.01456  0.06764  -0.4149  0.6996
6.291e+09  -0.7426  0.5883  0.003718  0.00731  0.007784  -0.001854  -0.1513  0.7946
6.292e+09  -0.4811  0.7832  -0.01167  -0.001572  0.009742  -0.02804  0.1431  0.7861
6.294e+09  -0.1923  0.9158  0.001389  0.00762  0.03167  0.01232  0.391  0.7167
6.295e+09  0.1436  0.8962  -0.05262  -0.007387  -0.01202  0.01701  0.6366  0.5233
6.296e+09  0.4742  0.8226  -0.02191  -0.005264  -0.008317  0.001686  0.7699  0.2841
6.298e+09  0.7342  0.5911  -0.00407  -0.008625  -0.04107  -0.00427  0.8227  -0.003106
6.299e+09  0.9056  0.3417  0.00925  -0.04432  0.01222  0.002361  0.7846  -0.2857
6.3e+09  0.9383  -0.02153  -0.01845  0.026  0.03241  0.04202  0.6629  -0.5108
6.301e+09  0.9043  -0.2727  0.00974  -0.002215  0.009765  0.04019  0.3956  -0.6997
6.302e+09  0.7575  -0.6299  0.01384  0.03567  0.004291  0.005092  0.141  -0.8193
6.304e+09  0.4602  -0.8351  0.01433  -0.003305  -0.006286  -0.0452  -0.1518  -0.8465
6.305e+09  0.1621  -0.982  0.01731  0.01505  0.0009257  0.007395  -0.4627  -0.7691
6.306e+09  -0.1511  -0.9388  -0.0125  0.007034  -0.0428  -0.0006217  -0.6327  -0.5083
6.308e+09  -0.5394  -0.8449  0.007139  0.001632  0.0205  0.0238  -0.8247  -0.3188
6.309e+09  -0.788  -0.6168  -0.008758  -0.03891  -0.02694  0.00824  -0.8662  -0.01807
6.31e+09  -0.9931  -0.311  -0.005953  -0.0006736  -0.003335  -0.01924  -0.7915  0.2695
6.311e+09  -0.97  0.08264  0.02372  0.004771  0.0251  -0.04148  -0.632  0.5377
6.312e+09  -0.9075  0.3817  0.003302  -0.05497  0.02818  0.02008  -0.4112  0.7477
6.314e+09  -0.7057  0.667  0.0007784  -0.02682  0.006609  0.03992  -0.1705  0.8653
6.315e+09  -0.48  0.9189  -0.01962  0.01371  0.001587  0.004673  0.1467  0.8857
6.316e+09  -0.0698  1.027  0.001715  -0.022  0.005628  0.01484  0.4295  0.739
6.318e+09  0.2443  1.004  -0.006642  -0.02733  0.06903  -0.01427  0.6421  0.5851
6.319e+09  0.5938  0.8086  0.002412  0.00635  0.01271  0.0001618  0.7888  0.3221
6.32e+09  0.8424  0.5508  -0.003175  -0.007028  0.01346  -0.03071  0.885  0.009446
6.321e+09  0.9869  0.2133  0.009824  0.001614  0.07269  -0.008115  0.8243  -0.302
6.322e+09  1.067  -0.1346  0.01406  0.01001  0.01452  0.01742  0.6642  -0.5408
6.324e+09  0.965  -0.5113  -0.01359  -0.003012  -0.01095  -0.02517  0.4567  -0.7685
6.325e+09  0.6877  -0.764  -0.03329  0.01267  -0.004219  -0.0732  0.176  -0.8984
6.326e+09  0.3631  -0.9291  -0.01632  0.03932  -0.001972  0.02262  -0.1236  -0.924
6.328e+09  0.009936  -1.104  0.03813  0.02405  0.006192  -0.005294  -0.4577  -0.8162
6.329e+09  -0.3674  -0.9668  -0.02272  0.01193  -0.008137  0.00369  -0.6951  -0.5845
6.33e+09  -0.6696  -0.7916  0.006496  -0.009161  0.03635  -0.007931  -0.8538  -0.3477
6.331e+09  -0.9479  -0.5717  0.04316  -0.007738  0.01851  0.03032  -0.93  -0.02416
6.332e+09  -1.018  -0.1588  0.006097  -0.02152  0.02091  -0.002833  -0.8952  0.2709
6.334e+09  -1.029  0.2865  -0.01559  0.004559  -0.02367  -0.009391  -0.7078  0.5711
6.335e+09  -0.8851  0.6492  0.001111  -0.0366  0.0168  0.0375  -0.4946  0.7801
6.336e+09  -0.6576  0.8146  0.005576  -0.002256  -0.05778  0.001732  -0.1648  0.9268
6.338e+09  -0.3219  1.033  0.03414  0.005577  -0.0102  -0.009557  0.1609  0.9398
6.339e+09  0.1114  1.084  0.007176  -0.04733  0.02143  0.004733  0.3972  0.833
6.34e+09  0.4369  0.9465  0.005961  -0.0354  -0.04006  -0.01392  0.6682  0.6206
6.341e+09  0.795  0.7597  0.003668  -0.0124  0.01406  0.04406  0.8736  0.3422
6.342e+09  1.04  0.4298  -0.004974  -0.01436  0.05301  -0.01905  0.9216  0.05268
6.344e+09  1.111  0.05455  0.02212  -0.03649  0.003866  0.04848  0.8963  -0.2915
6.345e+09  1.035  -0.3749  0.02172  -0.01149  0.03061  -0.03616  0.7541  -0.56
6.346e+09  0.8897  -0.6888  -0.01231  0.03387  0.059  -0.03064  0.5448  -0.785
6.348e+09  0.5472  -0.9516  -0.01664  -0.0006123  0.001894  -0.009186  0.2366  -0.9313
6.349e+09  0.2019  -1.081  0.04205  -0.0002856  -0.01311  -0.04482  -0.06422  -0.9064
6.35e+09  -0.1992  -1.075  0.00333  0.02203  -0.03898  -0.007126  -0.4343  -0.8561
6.351e+09  -0.6023  -0.9955  0.03103  0.01127  0.01696  -0.03483  -0.6789  -0.6719
6.352e+09  -0.8764  -0.6839  0.0005674  -0.007892  -0.003063  -0.02306  -0.8574  -0.3619
6.354e+09  -1.037  -0.3779  -0.01111  -0.01467  -0.033  0.005658  -0.9463  -0.05307
6.355e+09  -1.116  0.05873  -0.0002865  -0.04727  -0.02695  -1.314e-05  -0.9177  0.2558
6.356e+09  -1.052  0.4268  -0.009965  0.007732  0.01504  -0.005867  -0.7836  0.5868
6.358e+09  -0.8059  0.7698  0.03297  0.01092  -0.0194  0.03706  -0.5043  0.7842
6.359e+09  -0.4336  1.026  0.01312  0.008533  -0.02501  0.0125  -0.2191  0.8967
6.36e+09  -0.08759  1.103  0.01303  -0.01053  0.04919  0.001865  0.1079  0.9279
6.361e+09  0.2754  1.072  -0.02472  -0.03272  -0.01484  0.06445  0.4436  0.8253
6.362e+09  0.6374  0.8689  -0.01485  0.01156  0.01483  -0.03042  0.6936  0.6523
6.364e+09  0.9476  0.62  -0.02497  -0.02128  -0.01085  -0.01415  0.854  0.4011
6.365e+09  1.113  0.2353  -0.01316  -0.004278  0.0284  0.03812  0.9668  0.0577
6.366e+09  1.077  -0.1415  0.01497  0.0042  -0.04067  0.006273  0.9149  -0.2346
6.368e+09  0.9814  -0.5103  0.01293  0.05502  0.003526  -0.01415  0.7613  -0.5563
6.369e+09  0.6949  -0.7864  -0.01791  0.001959  0.01198  -0.006432  0.5239  -0.7566
6.37e+09  0.3481  -1.021  -0.02414  0.0112  -0.02792  -0.04929  0.2671  -0.8901
6.371e+09  -0.0005212  -1.11  -0.005485  -0.01846  -0.01232  0.05915  -0.1429  -0.9254
6.372e+09  -0.4162  -1.035  -0.01284  0.03284  -0.002286  -0.03373  -0.3888  -0.8954
6.374e+09  -0.7102  -0.8389  0.01626  -0.009175  -0.005329  -0.01474  -0.6437  -0.6827
6.375e+09  -0.9947  -0.5014  0.005109  -0.02105  -0.01706  -0.03207  -0.8553  -0.4145
6.376e+09  -1.076  -0.09704  -0.003303  0.03228  0.02118  -0.007741  -0.9384  -0.09229
6.378e+09  -1.042  0.2348  0.01237  -0.005734  -0.04356  0.05071  -0.908  0.2464
6.379e+09  -0.8961  0.5923  0.001159  -0.0388  0.0064  -0.0006317  -0.7832  0.508
6.38e+09  -0.6667  0.852  -0.01883  -0.0113  -0.02289  -0.01873  -0.5652  0.7074
6.381e+09  -0.3089  1.038  0.004506  -0.01021  0.03214  -0.05071  -0.2818  0.8963
6.382e+09  0.06124  1.044  0.01246  -0.01919  0.02944  -0.03631  0.09551  0.9095
6.384e+09  0.4508  0.9468  -0.003285  0.02478  -0.02743  0.03353  0.3428  0.8449
6.385e+09  0.7389  0.7786  0.0218  0.001596  -0.001035  -0.03165  0.6249  0.6286
6.386e+09  0.9989  0.4666  -0.01479  0.003693  0.01132  0.08486  0.7852  0.4469
6.388e+09  1.072  0.09814  -0.04915  0.01107  -0.02963  0.03745  0.9089  0.1443
6.389e+09  1.005  -0.3104  -0.02939  0.03655  0.01985  0.02492  0.9048  -0.1887
6.39e+09  0.9211  -0.632  -0.01795  -0.0006008  -0.008244  -0.008787  0.7814  -0.4827
6.391e+09  0.5824  -0.9184  0.02413  -0.003182  0.009404  0.04941  0.5351  -0.7322
6.392e+09  0.2567  -1.026  0.01285  -0.02614  0.03127  0.02105  0.292  -0.8839
6.394e+09  -0.102  -1.108  -0.00845  0.06412  -0.004284  -0.03898  -0.01899  -0.9339
6.395e+09  -0.4997  -1.038  0.01043  0.02914  0.002235  0.02226  -0.344  -0.869
6.396e+09  -0.7941  -0.7284  0.0144  -0.04043  -0.02745  0.03064  -0.6352  -0.7151
6.398e+09  -0.9846  -0.4793  -0.02526  0.02725  0.04738  0.04737  -0.8279  -0.479
6.399e+09  -1.043  -0.05399  -0.01078  -0.03281  -0.0284  -0.009153  -0.9183  -0.1461
6.4e+09  -1.004  0.3228  0.02654  0.02608  -0.0127  -0.003784  -0.9151  0.193
6.401e+09  -0.7714  0.6678  0.0005264  0.03642  -0.01125  -0.02938  -0.786  0.4989
6.402e+09  -0.5246  0.9244  -0.07193  -0.02923  0.02977  -0.04461  -0.6444  0.7329
6.404e+09  -0.1615  1.06  -0.0163  0.004186  -0.004131  -0.01412  -0.3351  0.8205
6.405e+09  0.2252  0.9918  0.01908  -0.00936  0.03677  0.01073  0.03736  0.9323
6.406e+09  0.5137  0.9368  0.01107  0.005307  -0.02811  0.01277  0.2957  0.8566
6.408e+09  0.7621  0.6432  -0.01423  0.01173  0.02284  -0.01296  0.5936  0.7363
6.409e+09  0.9845  0.3383  -0.0009706  0.0145  -0.02912  -0.01384  0.7672  0.4429
6.41e+09  1.033  0.01182  -0.006917  -0.004198  0.04612  -0.02624  0.9014  0.188
6.411e+09  1.005  -0.3784  0.03323  0.0377  0.008145  0.006678  0.92  -0.1349
6.412e+09  0.8171  -0.6877  -0.002324  -0.03597  0.00333  -0.04631  0.7893  -0.474
6.414e+09  0.5201  -0.901  0.02966  0.0003546  0.01797  -0.06292  0.6267  -0.686
6.415e+09  0.1296  -1.039  -0.005055  -0.00656  0.05193  0.04573  0.3428  -0.818
6.416e+09  -0.2273  -1.035  -0.03523  -0.00648  0.007897  -0.02056  -0.02733  -0.889
6.418e+09  -0.5422  -0.9189  -0.01696  -0.01721  0.0287  0.02396  -0.2913  -0.862
6.419e+09  -0.8385  -0.6677  -0.007709  -0.01266  0.04691  -0.004915  -0.5466  -0.6937
6.42e+09  -0.9803  -0.3729  0.01457  -0.01357  0.0105  0.001832  -0.6946  -0.5004
6.421e+09  -1.031  0.02297  -0.02137  -0.04261  -0.06037  0.01286  -0.8694  -0.1755
6.422e+09  -1.01  0.387  -0.01109  0.0165  -0.003119  -0.006656  -0.8685  0.1108
6.424e+09  -0.7809  0.6745  0.006234  -0.0134  -0.0005396  0.00239  -0.7845  0.4092
6.425e+09  -0.4651  0.9419  0.0265  0.01323  -0.01647  -0.0121  -0.59  0.6571
6.426e+09  -0.1092  1.016  0.03369  -0.005306  -0.03353  -0.05735  -0.3699  0.7845
6.428e+09  0.2437  0.9891  -0.03026  -0.02945  -0.005504  0.02773  -0.07966  0.8488
6.429e+09  0.6128  0.8619  -0.004241  0.0142  0.03891  -0.02981  0.2098  0.8028
6.43e+09  0.8828  0.6016  0.01139  0.01658  0.001876  -0.02909  0.497  0.6937
6.431e+09  1.04  0.2771  0.002829  0.0188  -0.02507  -0.02802  0.7261  0.5063
6.432e+09  1.076  -0.08712  -0.05407  0.0272  0.009915  0.007513  0.8409  0.1969
6.434e+09  0.9382  -0.4418  0.02033  -0.02376  -0.02473  0.005868  0.8703  -0.09265
6.435e+09  0.7505  -0.7719  -0.0123  -0.001313  -0.03329  0.01633  0.7484  -0.3566
6.436e+09  0.4585  -0.9737  -0.01631  0.005261  -0.004379  0.01326  0.6156  -0.5842
6.438e+09  0.1148  -1.119  -0.02271  -0.02619  -0.03952  -0.02214  0.3689  -0.7467
6.439e+09  -0.328  -1.068  0.01876  0.005526  0.02062  -0.02199  0.0961  -0.8549
6.44e+09  -0.6248  -0.8961  -0.002231  -0.006788  -0.02743  0.05498  -0.2533  -0.8421
6.441e+09  -0.9118  -0.5752  0.0197  -0.008105  0.01455  -0.02361  -0.4875  -0.6907
6.442e+09  -1.058  -0.2566  0.02522  -0.002572  -0.003161  0.01749  -0.6873  -0.4869
6.444e+09  -1.147  0.1471  0.01813  0.02739  -0.01912  -0.047  -0.801  -0.2433
6.445e+09  -0.9967  0.5227  -0.02853  -0.02425  -0.001494  0.02263  -0.8552  0.0884
6.446e+09  -0.7462  0.7903  -0.01514  0.004862  0.005703  0.01406  -0.7575  0.3629
6.448e+09  -0.3768  1.049  0.02384  0.01983  -0.02268  0.05833  -0.5969  0.573
6.449e+09  -0.02984  1.035  -0.03949  -0.01145  0.0002543  -0.008091  -0.3337  0.762
6.45e+09  0.3676  1.059  0.01602  0.001776  -0.03539  0.007209  -0.05638  0.8448
6.451e+09  0.7182  0.8538  -0.01348  0.007109  -0.005416  0.0387  0.2153  0.7889
6.452e+09  0.9923  0.6182  0.002738  -0.03012  0.001983  -0.01153  0.4631  0.6325
6.454e+09  1.1  0.2601  0.003394  0.0003473  0.01218  0.03676  0.6605  0.4604
6.455e+09  1.139  -0.2189  -0.01965  -0.03582  0.05541  0.01152  0.8046  0.2238
6.456e+09  0.9961  -0.5837  -0.009518  0.03864  0.02982  -0.02234  0.8315  -0.04794
6.458e+09  0.697  -0.9101  -0.06935  -0.02312  0.008453  -0.008133  0.7191  -0.3798
6.459e+09  0.3119  -1.054  -0.01632  -0.00862  -0.01385  -0.01019  0.5952  -0.6277
6.46e+09  -0.04474  -1.155  -0.009576  0.008925  -0.003917  -0.01279  0.3623  -0.7373
6.461e+09  -0.5069  -1.045  -0.006024  -0.01935  -0.01492  -0.009316  0.05195  -0.8354
6.462e+09  -0.8653  -0.8223  -0.02248  -0.01656  -0.0543  0.01646  -0.211  -0.7827
6.464e+09  -0.9874  -0.5171  0.008644  -0.01717  -0.02825  -0.008981  -0.4778  -0.6497
6.465e+09  -1.184  -0.1093  -0.004905  -0.003046  0.0195  -0.02043  -0.6741  -0.4817
6.466e+09  -1.125  0.2841  -0.01711  0.02932  -0.0229  0.07152  -0.7761  -0.1963
6.468e+09  -0.9745  0.7433  0.01575  -0.01427  -0.007475  0.01885  -0.8019  0.09941
6.469e+09  -0.5707  1.018  0.004041  0.02282  -0.03953  -0.02927  -0.7242  0.3333
6.47e+09  -0.2574  1.201  -0.02066  -0.03514  0.005293  -0.02353  -0.5238  0.5187
6.471e+09  0.1934  1.189  -0.01049  -0.02198  0.009755  0.002697  -0.3298  0.7127
6.472e+09  0.5998  1.043  0.06601  0.005336  -0.01611  -0.03021  -0.04852  0.7909
6.474e+09  0.9182  0.7369  -0.003693  -0.01118  0.0215  0.004339  0.2006  0.7082
6.475e+09  1.116  0.3902  -0.008221  0.01158  -0.02256  -0.01974  0.4651  0.6544
6.476e+09  1.24  -0.04529  0.0392  0.03072  -0.01149  -0.02024  0.6798  0.4381
6.478e+09  1.149  -0.4937  0.02498  0.04078  0.03003  0.03504  0.7709  0.1798
6.479e+09  0.8376  -0.8468  0.01551  -0.01101  -0.01554  0.004103  0.7778  -0.07774
6.48e+09  0.551  -1.121  0.004756  -0.004339  0.02173  -0.01287  0.7019  -0.2997
6.481e+09  0.07369  -1.253  0.00779  0.008765  0.002778  0.009013  0.5317  -0.5654
6.482e+09  -0.3476  -1.176  0.05696  0.03157  0.002386  -0.01154  0.3179  -0.7071
6.484e+09  -0.7631  -0.9976  0.023  0.006365  0.01672  -0.01227  0.05948  -0.7668
6.485e+09  -1.074  -0.6692  -0.005458  -0.02116  -0.003549  -0.02372  -0.2345  -0.7205
6.486e+09  -1.218  -0.2376  -0.02735  -0.02906  -0.03596  -0.03992  -0.4331  -0.6329
6.488e+09  -0.5796  -0.2071  -0.01844  0.03946  -0.2389  -0.7238  -0.6446  -0.4459
6.489e+09  -1.081  0.6597  -0.006575  0.01349  -0.003692  0.04764  -0.7578  -0.2038
6.49e+09  -0.8066  0.9778  0.01405  0.03325  -0.01412  0.01861  -0.7686  0.08805
6.491e+09  -0.3766  1.205  0.007868  -0.01632  -0.03934  0.01582  -0.641  0.3442
6.492e+09  0.1246  1.248  0.01793  0.006326  0.03232  0.005646  -0.516  0.5408
6.494e+09  0.5864  1.037  -0.009076  0.004582  0.1281  0.09797  -0.2952  0.7055
6.495e+09  0.8969  0.8363  -0.01624  0.04331  0.02419  -0.01783  0.007732  0.7801
6.496e+09  1.058  0.4555  -0.02013  0.016  0.01021  -0.01866  0.2312  0.7172
6.498e+09  1.221  0.01613  -0.0113  0.02201  -0.007611  -0.03448  0.469  0.5896
6.499e+09  1.158  -0.4217  -0.024  0.0001811  0.003348  -0.009597  0.6426  0.3919
6.5e+09  1.689  -1.078  0.01781  -0.004155  0.01585  -0.04548  0.7132  0.1187
6.501e+09  0.6365  -1.054  0.007298  0.0009797  0.04976  0.003434  0.7798  -0.1026
6.502e+09  0.1546  -1.259  -0.02181  0.004762  -0.03541  0.004177  0.706  -0.3354
6.504e+09  -0.319  -1.186  0.0309  -0.001733  0.009306  0.01025  0.5218  -0.5935
6.505e+09  -0.6758  -0.9895  0.02086  -0.01241  -0.003323  -0.004752  0.326  -0.7375
6.506e+09  -1.009  -0.7037  0.001072  0.02064  0.01271  0.02712  0.0089  -0.7489
6.508e+09  -1.151  -0.2409  -0.006851  -0.01282  0.03248  0.01698  -0.2474  -0.7402
6.509e+09  -1.172  0.2562  0.01298  0.04119  -0.001298  -0.03847  -0.4962  -0.5864
6.51e+09  -1.052  0.5686  0.01848  0.01158  -0.01635  0.008533  -0.6486  -0.3888
6.511e+09  -0.7513  0.9429  0.005218  -0.0004952  -0.01353  0.03161  -0.7331  -0.146
6.512e+09  -0.3656  1.105  0.006534  -0.005019  0.01067  0.01534  -0.7744  0.1279
6.514e+09  0.04948  1.201  0.03741  -0.02341  0.0002783  0.006516  -0.6791  0.4048
6.515e+09  0.4446  1.046  0.02535  -0.009807  0.02146  -0.02535  -0.5142  0.5687
6.516e+09  0.8171  0.82  0.01268  -0.03439  -0.01719  -0.009176  -0.2431  0.7119
6.518e+09  1.081  0.4632  0.003296  0.02121  0.02895  0.01364  0.02904  0.7389
6.519e+09  1.187  0.1001  -0.01792  -0.007928  -0.02586  0.01095  0.3039  0.712
6.52e+09  1.059  -0.3699  0.008841  0.04276  0.02877  -0.008848  0.5001  0.5513
6.521e+09  0.9101  -0.7175  0.01397  0.001616  -0.03198  0.03879  0.671  0.3537
6.522e+09  0.5986  -1.003  -0.004256  0.025  -0.006472  -0.04324  0.7092  0.06079
6.524e+09  0.1869  -1.14  0.007195  -0.01765  -0.02313  -0.03312  0.7232  -0.1822
6.525e+09  -0.2194  -1.061  0.002058  -0.02788  0.02341  -0.01846  0.6432  -0.3984
6.526e+09  -0.5809  -0.9255  -0.004759  -0.01543  0.000125  0.05073  0.4063  -0.602
6.528e+09  -0.8646  -0.6764  0.00986  0.02292  -0.00518  0.006778  0.185  -0.6874
6.529e+09  -1.085  -0.3642  -0.01203  -0.01004  0.001303  0.01746  -0.06495  -0.7028
6.53e+09  -1.13  0.07118  -0.006042  0.007762  -0.01901  -0.0003513  -0.2754  -0.6148
6.531e+09  -0.9669  0.4988  0.002407  0.01785  -0.01686  0.01441  -0.4606  -0.4649
6.532e+09  -0.7706  0.8112  -0.00468  0.0102  0.01845  0.01772  -0.6005  -0.3185
6.534e+09  -0.4477  0.9685  -0.001033  -0.009344  0.01766  0.008572  -0.6337  -0.08298
6.535e+09  0.01141  1.026  0.01334  -0.0004236  0.004285  -0.02602  -0.6337  0.0901
6.536e+09  0.3826  1.006  -0.0008049  -0.009224  -0.02387  -0.03216  -0.5638  0.3086
6.538e+09  0.7202  0.8007  -0.002332  0.001343  0.0485  -0.04441  -0.4574  0.4813
6.539e+09  0.9251  0.4793  -0.02733  0.02948  -0.01556  -0.01639  -0.2638  0.6275
6.54e+09  1.072  0.1837  -0.02292  -0.03176  0.02443  0.03796  -0.07651  0.6867
6.541e+09  0.9594  -0.1793  -0.03224  -0.02594  -0.02987  0.004081  0.189  0.6634
6.542e+09  0.8429  -0.595  0.01305  -0.0373  -0.06303  -0.005125  0.4074  0.5588
6.544e+09  0.5762  -0.8242  0.02373  0.01945  -0.01877  0.04259  0.561  0.3821
6.545e+09  0.2589  -0.986  0.01844  0.01246  -0.02466  0.05269  0.6878  0.1846
6.546e+09  -0.1432  -1.007  0.02124  -0.003697  0.02881  -0.01929  0.7224  -0.08805
6.548e+09  -0.4411  -0.9035  -0.002966  -0.01801  -0.03286  0.0002524  0.6681  -0.313
6.549e+09  -0.7083  -0.6451  0.0001581  0.01575  0.01751  0.01822  0.4779  -0.5295
6.55e+09  -0.9378  -0.3404  -0.005066  0.005656  -0.006248  -0.004538  0.2757  -0.6499
6.551e+09  -0.9564  0.06299  -0.03754  -0.02649  0.02383  -0.0143  0.0372  -0.7523
