# Hz S RI R 50
6.25e+09  0.08789  1  0.01377  -0.0138  -0.06492  0.0252  0.1665  0.4675
6.251e+09  0.4461  0.8895  0.0292  -0.008541  0.009158  -0.01391  0.3524  0.4282
6.252e+09  0.7087  0.631  -0.03434  -0.005436  -0.04437  0.04056  0.5403  0.2694
6.254e+09  0.8512  0.3976  -0.005824  -0.008998  -0.04744  0.003795  0.6051  0.0417
6.255e+09  0.8804  0.05468  -0.00458  -0.0156  0.02244  0.004501  0.575  -0.253
6.256e+09  0.8857  -0.2807  -0.004403  0.0142  -0.04355  0.041  0.4516  -0.4606
6.258e+09  0.7136  -0.5437  0.002751  0.01742  0.03938  0.0178  0.2605  -0.5969
6.259e+09  0.5389  -0.7754  -0.02819  0.01146  0.01823  0.01143  0.0535  -0.6789
6.26e+09  0.1624  -0.8836  0.008561  0.004583  0.02147  0.02038  -0.1962  -0.6685
6.261e+09  -0.1056  -0.87  -0.0335  0.01933  -0.04056  0.006677  -0.4327  -0.5535
6.262e+09  -0.4576  -0.8409  -0.001076  -0.004573  0.007729  -0.01358  -0.6071  -0.3592
6.264e+09  -0.6783  -0.5916  -0.01697  0.006618  -0.02173  -0.001119  -0.7243  -0.08605
6.265e+09  -0.799  -0.3359  0.002381  -0.04304  -0.01518  -0.007385  -0.7019  0.1234
6.266e+09  -0.9096  -0.0002274  0.004482  -0.01134  -0.03136  0.00994  -0.5849  0.4125
6.268e+09  -0.7969  0.2991  0.008676  -0.01327  0.01664  -0.04033  -0.388  0.591
6.269e+09  -0.6731  0.6151  -0.02001  0.02488  -0.02415  -0.01416  -0.206  0.6756
6.27e+09  -0.4211  0.8042  0.01584  -0.01722  -0.02008  0.00507  0.0577  0.7667
6.271e+09  -0.1901  0.8408  0.006256  0.01425  0.02008  0.04681  0.3482  0.6857
6.272e+09  0.1551  0.9331  -0.03765  0.02293  0.008956  -0.02371  0.5206  0.5088
6.274e+09  0.5015  0.769  0.004482  -0.0005631  0.04712  -0.0217  0.6615  0.3065
6.275e+09  0.7178  0.6104  -0.02278  -0.01303  -0.02526  0.06527  0.7515  0.04195
6.276e+09  0.8768  0.311  -0.01941  0.007446  -0.04781  0.03923  0.7277  -0.2018
6.278e+09  0.8957  0.007621  0.009381  -0.003406  -0.07318  0.04976  0.6159  -0.462
6.279e+09  0.8275  -0.2729  -0.01134  0.01235  0.04609  -0.001443  0.3833  -0.6638
6.28e+09  0.6564  -0.6593  -0.0134  0.023  -0.02672  0.04321  0.186  -0.7777
6.281e+09  0.4261  -0.8333  0.02644  0.01634  0.0387  0.01807  -0.108  -0.789
6.282e+09  0.1107  -0.9067  0.01265  -0.04771  -0.02229  0.02391  -0.3568  -0.7078
6.284e+09  -0.1982  -0.875  -0.01127  0.01347  0.01336  -0.03224  -0.5763  -0.4852
6.285e+09  -0.5121  -0.7977  0.003593  0.005534  0.0003895  -0.00731  -0.7217  -0.2818
6.286e+09  -0.7922  -0.5497  -0.004019  -0.01494  0.01108  0.002259  -0.7819  -0.002952
6.288e+09  -0.8651  -0.2723  0.02107  -0.004778  -0.00339  -0.01649  -0.7651  0.2355
6.289e+09  -0.8795  0.08678  -0.003986  -0.007883  -0.03478  0.0006984  -0.6002  0.5449
6.29e+09  -0.8572  0.4426  -0.02451  0.0233  -0.02137  0.08326  -0.411  0.6671
6.291e+09  -0.677  0.567  -0.03357  -0.007409  0.007412  -0.05486  -0.1441  0.779
6.292e+09  -0.3724  0.8566  0.0009962  0.01361  -0.02791  0.02379  0.1484  0.7985
6.294e+09  -0.09598  0.9244  -0.02161  0.01467  0.005946  -0.0245  0.3676  0.735
6.295e+09  0.2778  0.9484  0.02164  0.008371  -0.01545  -0.01193  0.6401  0.5231
6.296e+09  0.5726  0.7617  -0.005098  -0.018  0.02205  0.01101  0.7788  0.2585
6.298e+09  0.7977  0.529  0.001066  -0.005706  -0.01638  0.0115  0.8319  0.01535
6.299e+09  0.9463  0.2357  -0.01641  0.01045  -0.03709  -0.01397  0.8212  -0.251
6.3e+09  0.9644  -0.1312  0.02111  0.002421  -0.00227  0.04604  0.6446  -0.5367
6.301e+09  0.8567  -0.3312  0.0243  0.01979  0.07  -0.0158  0.4043  -0.75
6.302e+09  0.6421  -0.708  -0.0006743  0.03602  -0.02895  -0.0144  0.1615  -0.8305
6.304e+09  0.3673  -0.8726  0.01095  -0.01256  -0.005136  0.01829  -0.1582  -0.8631
6.305e+09  0.04386  -0.9498  0.000731  0.01711  -0.007239  0.01831  -0.4063  -0.7414
6.306e+09  -0.2249  -0.873  -0.005256  -0.003392  -0.003862  0.01275  -0.6592  -0.5567
6.308e+09  -0.6129  -0.7625  0.03639  -0.0114  0.01388  -0.0046  -0.8363  -0.2807
6.309e+09  -0.7948  -0.4994  -0.02093  -0.001474  -0.003971  -0.01312  -0.8404  -0.01671
6.31e+09  -0.9909  -0.2067  -0.01434  0.001909  0.0184  0.007443  -0.848  0.2722
6.311e+09  -1.034  0.1627  0.009471  -0.008965  0.01377  -0.003749  -0.6744  0.5648
6.312e+09  -0.8181  0.5252  0.01678  0.01268  0.01847  0.002458  -0.4812  0.7703
6.314e+09  -0.6133  0.7923  0.009894  0.01542  -0.02799  0.009081  -0.1518  0.8836
6.315e+09  -0.3217  0.9222  0.00445  -0.02514  0.01766  0.01747  0.1517  0.8688
6.316e+09  0.03547  0.9994  0.003005  0.01188  0.01646  -0.02712  0.4294  0.7813
6.318e+09  0.2905  0.9028  -0.01696  0.0131  0.01554  0.004324  0.6795  0.5713
6.319e+09  0.643  0.7215  0.03965  0.01225  -0.03165  0.03682  0.8113  0.3407
6.32e+09  0.8638  0.4954  -0.00889  -0.01051  0.01498  -0.03731  0.8806  0.02321
6.321e+09  1.001  0.1784  -0.02665  -0.01418  -0.004419  0.01551  0.8358  -0.2705
6.322e+09  1.027  -0.1423  -0.02652  0.003711  -0.04063  -0.01882  0.7025  -0.5692
6.324e+09  0.9186  -0.5528  0.02582  0.01058  0.02326  -0.0478  0.4574  -0.7635
6.325e+09  0.6148  -0.8048  0.02253  0.02328  -0.03833  -0.01181  0.1587  -0.8794
6.326e+09  0.3022  -0.9785  -0.008908  0.005282  -0.0267  -0.0002771  -0.1563  -0.8971
6.328e+09  -0.05986  -1.037  0.01731  0.02742  -0.01684  -0.0128  -0.4075  -0.7749
6.329e+09  -0.4357  -0.9736  -0.02083  0.02099  0.001817  0.01797  -0.6917  -0.5999
6.33e+09  -0.7474  -0.7949  -0.01258  0.0365  -0.00199  0.0737  -0.8446  -0.3688
6.331e+09  -0.9786  -0.4202  0.006314  0.03689  0.01611  -0.0228  -0.9271  -0.01426
6.332e+09  -1.135  -0.09324  -0.0236  0.003932  0.0217  -0.01545  -0.8923  0.2858
6.334e+09  -1.057  0.3278  0.001575  0.01703  -0.01007  0.001184  -0.7388  0.546
6.335e+09  -0.8868  0.6571  -0.0009074  -0.006591  0.03248  -0.01602  -0.4774  0.8234
6.336e+09  -0.6073  0.8859  0.01119  -0.01907  -0.02338  -0.002522  -0.202  0.8898
6.338e+09  -0.2522  1.085  -0.03711  0.006815  -0.006487  -0.0244  0.1371  0.9349
6.339e+09  0.1156  1.064  -0.02481  0.005032  -0.02303  -0.02317  0.4482  0.8158
6.34e+09  0.5164  1.011  0.007704  -0.006886  0.01895  0.03197  0.6996  0.6059
6.341e+09  0.865  0.7391  -0.006398  -0.007716  0.007998  0.003535  0.8537  0.3713
6.342e+09  1.103  0.3815  0.01082  0.00862  0.04745  -0.03579  0.9486  0.0473
6.344e+09  1.139  -0.01979  -0.007442  0.007929  0.01295  -0.002637  0.8808  -0.2257
6.345e+09  1.094  -0.4022  0.01085  0.002924  0.03164  -0.009638  0.7445  -0.5711
6.346e+09  0.8561  -0.7577  -0.03446  0.001803  -0.008326  -0.02725  0.4929  -0.8077
6.348e+09  0.589  -1.015  -0.001688  -0.01789  0.01312  0.01769  0.1711  -0.8976
6.349e+09  0.1631  -1.19  0.03261  -0.01027  0.0516  0.03212  -0.132  -0.9455
6.35e+09  -0.201  -1.138  -0.0497  0.004354  0.01355  -0.03028  -0.421  -0.8257
6.351e+09  -0.6644  -0.9703  0.03507  -0.02856  -0.003655  0.02569  -0.6667  -0.6739
6.352e+09  -0.9592  -0.7093  0.04252  -0.009072  -0.001668  -0.0822  -0.8672  -0.4164
6.354e+09  -1.117  -0.3292  0.003651  -0.00151  -0.01046  -0.03097  -0.9326  -0.05784
6.355e+09  -1.202  0.07618  0.01177  -0.001165  -0.04313  0.01211  -0.9218  0.2697
6.356e+09  -1.126  0.4781  -0.0134  0.004084  -0.002029  -0.02482  -0.7944  0.5839
6.358e+09  -0.8622  0.8646  0.02135  0.01006  -0.01394  0.04036  -0.5033  0.7925
6.359e+09  -0.5451  1.122  -0.01891  0.005501  -0.0107  0.01474  -0.1965  0.924
6.36e+09  -0.1  1.269  0.02446  0.03123  0.02273  0.003877  0.1042  0.9393
6.361e+09  0.3768  1.226  0.00411  0.02471  -0.037  -0.01357  0.4149  0.8482
6.362e+09  0.713  0.9916  -0.002588  -0.02029  0.01072  -0.0277  0.6562  0.6852
6.364e+09  1.098  0.6854  -0.01886  0.02414  0.04736  0.03685  0.8862  0.397
6.365e+09  1.181  0.2266  -0.01189  -0.00895  -0.01485  -0.006305  0.9421  0.04769
6.366e+09  1.249  -0.1935  -0.03549  -0.03279  0.01823  -0.01384  0.9249  -0.2777
6.368e+09  1.054  -0.6225  0.0253  0.03343  0.01904  -0.02858  0.8005  -0.5234
6.369e+09  0.7428  -0.98  0.008528  -0.01913  0.008317  0.05594  0.5514  -0.7803
6.37e+09  0.4271  -1.227  -0.02536  0.06426  -0.03189  -0.01213  0.2573  -0.9432
6.371e+09  -0.05734  -1.301  -0.01439  -0.01327  -0.01248  -0.01126  -0.07092  -0.9412
6.372e+09  -0.4862  -1.179  0.01401  0.02407  -0.02144  0.04044  -0.382  -0.8839
6.374e+09  -0.9119  -0.9735  -0.01478  0.002263  -0.02839  -0.02399  -0.668  -0.6433
6.375e+09  -1.163  -0.5999  -0.003772  -0.01979  -0.003732  0.001223  -0.8779  -0.4103
6.376e+09  -1.274  -0.1681  -0.001355  0.01631  0.0003682  -0.04626  -0.9168  -0.08951
6.378e+09  -1.293  0.3487  0.03581  0.03115  -0.05628  0.009762  -0.9208  0.2319
6.379e+09  -1.113  0.7495  -0.02227  0.04245  0.03917  -0.003821  -0.8061  0.5465
6.38e+09  -0.7086  1.07  0.0314  -0.01163  0.01516  0.01751  -0.5946  0.723
6.381e+09  -0.3047  1.27  0.03228  0.008576  0.001928  0.03302  -0.2379  0.8682
6.382e+09  0.1587  1.369  -0.00973  0.007964  -0.01364  0.002133  0.04148  0.9154
6.384e+09  0.5906  1.208  -0.0001677  0.01997  -0.01915  -0.01274  0.3731  0.8801
6.385e+09  0.951  0.8907  0.03401  0.01202  0.00855  -0.001082  0.6932  0.6717
6.386e+09  1.212  0.4899  0.02698  -0.003239  -0.01132  0.06792  0.8743  0.4228
6.388e+09  1.347  0.07906  -0.03679  -0.001147  0.003084  0.007133  0.9444  0.09142
6.389e+09  1.259  -0.4541  0.01961  -0.003184  0.01383  -0.004513  0.9342  -0.1982
6.39e+09  1.035  -0.8791  0.0009084  -0.02509  0.009114  -0.03424  0.8014  -0.4985
6.391e+09  0.6202  -1.175  -9.076e-05  0.01501  -0.02461  -0.005653  0.5452  -0.7575
6.392e+09  0.2161  -1.365  0.00934  0.01139  0.0163  0.02472  0.2679  -0.8701
6.394e+09  -0.3305  -1.402  0.0418  0.03188  -0.01901  -0.007745  -0.05498  -0.9317
6.395e+09  -0.6951  -1.131  0.0244  0.008026  -0.02419  -0.008146  -0.3519  -0.8534
6.396e+09  -1.091  -0.8454  0.006416  0.008798  0.01535  -0.03254  -0.6014  -0.6766
6.398e+09  -1.308  -0.4409  -0.01229  -0.0007338  0.02594  0.04418  -0.8309  -0.4203
6.399e+09  -1.337  0.05714  -0.000565  0.04004  0.004497  -0.039  -0.9037  -0.1633
6.4e+09  -1.298  0.56  0.03379  -0.0109  -0.02467  -0.01299  -0.8783  0.1481
6.401e+09  -0.9553  0.9902  -0.02195  -7.157e-05  -0.0378  0.00852  -0.7935  0.4692
6.402e+09  -0.5719  1.209  0.01808  -0.0208  0.004917  -0.06839  -0.587  0.6838
6.404e+09  -0.1036  1.369  0.006226  0.05207  0.03227  -0.03831  -0.2797  0.8501
6.405e+09  0.3859  1.306  0.007128  0.03906  -0.01504  -0.008029  0.0201  0.9494
6.406e+09  0.8195  1.091  -0.02031  0.002103  -0.05258  -0.03015  0.3254  0.9001
6.408e+09  1.143  0.7736  0.04252  -0.02671  -0.01571  -0.009297  0.5714  0.7115
6.409e+09  1.334  0.3026  0.002355  0.02624  -0.07096  0.01157  0.8126  0.4749
6.41e+09  1.33  -0.161  -0.01571  0.01271  0.003214  0.0259  0.9068  0.1508
6.411e+09  1.222  -0.662  -0.03557  0.05355  -0.02268  0.01  0.9453  -0.1457
6.412e+09  0.9303  -1.055  -0.03717  -0.03151  -0.01521  0.001266  0.7691  -0.4315
6.414e+09  0.4979  -1.331  0.009364  0.0508  0.04148  -0.04472  0.6215  -0.6867
6.415e+09  0.02994  -1.392  -0.02165  0.006299  0.01583  0.004942  0.3412  -0.8149
6.416e+09  -0.478  -1.338  0.01642  -0.003556  0.01163  -0.03318  -0.0002761  -0.9181
6.418e+09  -0.8933  -1.056  0.03564  -0.01638  -0.03293  0.04004  -0.2904  -0.8754
6.419e+09  -1.246  -0.6915  -0.01984  -0.02795  -0.01173  0.007748  -0.5206  -0.7136
6.42e+09  -1.445  -0.1986  -0.04094  -0.008021  0.04232  0.02222  -0.799  -0.4837
6.421e+09  -1.372  0.2805  0.00802  -0.02447  -0.002031  -0.01653  -0.9003  -0.2137
6.422e+09  -1.184  0.7735  -0.02481  -0.01126  -0.03481  -0.02322  -0.8761  0.1112
6.424e+09  -0.9013  1.179  -0.0008644  0.006745  0.04528  0.0187  -0.7706  0.3568
6.425e+09  -0.4384  1.339  0.0145  0.004861  -0.02297  -0.004092  -0.5849  0.6463
6.426e+09  0.1211  1.421  0.003598  -0.003159  -0.01092  -0.002151  -0.3187  0.7813
6.428e+09  0.6343  1.335  -0.01424  -0.02274  0.02619  -0.03353  -0.02733  0.8984
6.429e+09  1.038  1.053  0.04564  -0.03058  0.01458  -0.06692  0.273  0.834
6.43e+09  1.28  0.607  0.01124  0.005921  -0.02156  0.01118  0.5  0.669
6.431e+09  1.508  0.1285  0.02109  -0.04182  0.0229  -0.0359  0.7345  0.5203
6.432e+09  1.421  -0.3976  -0.01956  -0.01684  0.001564  0.02262  0.8585  0.2326
6.434e+09  1.275  -0.877  0.0454  0.01456  0.01321  0.02336  0.8385  -0.104
6.435e+09  0.819  -1.294  0.006418  0.02779  -0.04563  -0.04921  0.7307  -0.3477
6.436e+09  0.2969  -1.514  -0.009817  -0.01271  0.01244  -0.01191  0.6496  -0.607
6.438e+09  -0.2181  -1.523  0.04643  0.06311  0.03994  -0.03101  0.3378  -0.7861
6.439e+09  -0.674  -1.328  0.04898  -0.03655  -0.01285  0.008111  0.02874  -0.8304
6.44e+09  -1.147  -1.025  -0.04072  -0.00169  0.05072  0.01292  -0.2104  -0.8177
6.441e+09  -1.458  -0.5278  0.02999  -0.04214  -0.007548  0.005777  -0.4756  -0.6591
6.442e+09  -1.55  -0.01684  0.01757  0.002867  0.004093  -0.03232  -0.7105  -0.4637
6.444e+09  -1.441  0.5711  -0.004571  -0.01342  0.04817  0.02065  -0.8331  -0.2523
6.445e+09  -1.179  1.102  -0.0222  0.008526  -0.02055  -0.05443  -0.8544  0.07815
6.446e+09  -0.7747  1.443  0.01721  0.02541  0.03513  0.01659  -0.7226  0.3357
6.448e+09  -0.2658  1.58  -0.02719  -0.01136  0.0193  -0.02511  -0.5929  0.5625
6.449e+09  0.38  1.618  -0.004423  0.01564  0.01578  0.009877  -0.3925  0.7692
6.45e+09  0.9133  1.372  0.03574  -0.01995  0.01873  0.06714  -0.06927  0.8317
6.451e+09  1.376  1.009  0.02405  -0.01811  0.002558  -0.01883  0.147  0.776
6.452e+09  1.611  0.4492  -0.02593  -0.004726  0.004918  -0.003706  0.5164  0.6691
6.454e+09  1.711  -0.1484  -0.007469  0.02334  0.02528  0.005394  0.695  0.4925
6.455e+09  1.508  -0.7239  -0.0193  -0.03619  -0.0385  -0.02033  0.8055  0.2073
6.456e+09  1.208  -1.236  0.02995  -0.01271  -0.004709  0.003148  0.8064  -0.05955
6.458e+09  0.6679  -1.626  -0.01057  -0.02591  -0.004624  -0.03212  0.7582  -0.3529
6.459e+09  0.05042  -1.79  0.01539  0.006155  -0.005238  -0.01739  0.5996  -0.5953
6.46e+09  -0.5575  -1.662  -0.01985  -0.02699  -0.02424  0.02792  0.3073  -0.7668
6.461e+09  -1.154  -1.429  -0.004292  0.02915  0.03998  -0.01573  0.08572  -0.8655
6.462e+09  -1.61  -0.8288  -0.01055  -0.01506  0.04063  0.01687  -0.2091  -0.8068
6.464e+09  -1.76  -0.2294  -0.01407  0.01343  -0.05605  -0.02187  -0.4982  -0.6601
6.465e+09  -1.825  0.3619  -0.005721  -0.003034  -0.002428  -0.03371  -0.6773  -0.4586
6.466e+09  -1.599  1.08  -0.03326  -0.001935  0.01256  0.004714  -0.7578  -0.1948
6.468e+09  -1.108  1.531  0.02328  0.006214  0.02399  0.05667  -0.774  0.06893
6.469e+09  -0.5236  1.896  -0.04325  -0.001269  0.03185  0.0526  -0.764  0.3447
6.47e+09  0.2548  1.972  0.0126  -0.04149  0.01471  -0.04847  -0.5196  0.5717
6.471e+09  0.9402  1.707  0.01306  0.002809  0.04976  -0.0487  -0.2802  0.7192
6.472e+09  1.534  1.383  -0.02552  -0.03742  0.08051  -0.01612  -0.08941  0.8186
6.474e+09  1.927  0.7095  -0.01343  -0.01087  -0.0003437  -0.006611  0.2636  0.7555
6.475e+09  2.131  -0.07086  -0.008242  -0.005355  -0.03269  -0.01445  0.4593  0.6748
6.476e+09  1.965  -0.8038  0.001035  0.02245  0.05622  -0.003422  0.6326  0.4381
6.478e+09  1.57  -1.555  0.02151  -0.02247  0.05982  -0.05991  0.8226  0.1839
6.479e+09  0.85  -2.023  0.01788  0.02444  0.03645  0.02957  0.8044  -0.05391
6.48e+09  0.05677  -2.253  -0.01083  -0.006999  0.07483  0.01779  0.6861  -0.3277
6.481e+09  -0.7549  -2.151  0.009635  0.0291  0.01743  -0.008286  0.526  -0.5643
6.482e+09  -1.499  -1.762  0.001964  -0.02409  0.006954  -0.0173  0.3082  -0.6821
6.484e+09  -2.152  -1.053  0.002596  -0.005527  0.01119  -0.05829  0.06319  -0.7843
6.485e+09  -2.346  -0.1117  -0.01295  -0.01554  -0.005925  -0.01631  -0.1852  -0.7628
6.486e+09  -2.371  0.6572  0.007265  0.00177  0.0103  0.02705  -0.4767  -0.6297
6.488e+09  -2.176  0.8233  -0.0261  0.005899  -0.3562  0.6244  -0.6809  -0.4619
6.489e+09  -1.175  2.108  -0.01378  0.01752  -0.02445  0.01448  -0.7225  -0.1853
6.49e+09  -0.2995  2.452  0.01984  0.04816  -0.005031  0.02948  -0.816  0.04311
6.491e+09  0.6514  2.493  -0.008154  0.02242  -0.07005  -0.003093  -0.6856  0.3744
6.492e+09  1.518  2.071  -0.007649  0.02032  -0.02864  -0.0585  -0.5219  0.5854
6.494e+09  2.296  1.454  0.01664  0.0313  0.1095  -0.04805  -0.2776  0.7287
6.495e+09  2.551  0.2751  -0.02186  0.0002611  0.03409  -0.01344  -0.02227  0.778
6.496e+09  2.477  -0.6364  0.02046  -0.03484  -0.003451  -0.07916  0.2716  0.7643
6.498e+09  2.056  -1.593  -0.05432  0.01936  -0.006917  -0.0613  0.4474  0.6223
6.499e+09  1.328  -2.233  0.01673  0.01078  0.007346  -0.02062  0.6223  0.3808
6.5e+09  -0.9429  -4.358  0.03386  0.001963  -0.0381  0.01013  0.7186  0.1651
6.501e+09  -0.6349  -2.46  -0.02189  -0.01503  -0.005929  0.009379  0.781  -0.0999
6.502e+09  -1.508  -2.062  0.03433  -0.03101  -0.0254  0.03278  0.6848  -0.3442
6.504e+09  -2.171  -1.244  -0.004429  0.01135  0.01145  -0.01489  0.4994  -0.5689
6.505e+09  -2.488  -0.2961  0.03446  0.01954  -0.04453  -0.06386  0.2776  -0.6986
6.506e+09  -2.372  0.6136  -0.02396  0.005822  -0.003287  -8.109e-05  0.009148  -0.7547
6.508e+09  -1.979  1.501  -0.01323  -0.01326  0.02175  -0.02656  -0.2525  -0.7236
6.509e+09  -1.286  2.131  -0.001632  -0.02061  -0.009111  0.006167  -0.4728  -0.6018
6.51e+09  -0.4122  2.386  -0.04026  0.03709  -0.02024  -0.01694  -0.6519  -0.332
6.511e+09  0.5461  2.248  -0.01231  -0.04292  0.001946  -0.04031  -0.6928  -0.1659
6.512e+09  1.363  1.871  0.0174  0.0009569  0.002428  -0.02008  -0.7506  0.1344
6.514e+09  1.901  1.227  0.002018  -0.002038  0.002201  -0.03164  -0.6257  0.4012
6.515e+09  2.209  0.4538  -0.01613  0.02315  0.04637  -0.008047  -0.4822  0.5997
6.516e+09  2.124  -0.3737  0.003095  0.03816  -0.02687  0.03354  -0.2218  0.6655
6.518e+09  1.893  -1.17  0.0006568  -0.009173  0.0103  0.01597  0.005812  0.7307
6.519e+09  1.22  -1.737  -0.01061  -0.03973  0.049  -0.0004988  0.2705  0.7099
6.52e+09  0.4979  -2.049  0.01923  -0.02131  -0.0379  -0.02437  0.4821  0.5561
6.521e+09  -0.2915  -2.083  0.009265  0.03674  -0.01059  0.001785  0.656  0.3291
6.522e+09  -1.041  -1.761  -0.009183  -0.02979  -0.006173  -0.02094  0.7434  0.1123
6.524e+09  -1.543  -1.23  -0.006882  -0.006987  -0.0105  -0.01449  0.7148  -0.1278
6.525e+09  -1.92  -0.6524  0.01663  -0.01669  -0.01543  0.006412  0.6301  -0.4033
6.526e+09  -1.906  0.1617  0.00384  0.007091  -0.00785  0.02084  0.4481  -0.5675
6.528e+09  -1.815  0.7556  -0.01403  -0.002651  -0.01864  0.02048  0.1838  -0.7035
6.529e+09  -1.269  1.341  0.009219  -0.03236  -0.02104  -0.06926  -0.0463  -0.7248
6.53e+09  -0.7139  1.656  -0.03252  0.01526  0.02922  0.01213  -0.3013  -0.6134
6.531e+09  -0.07532  1.763  -0.000341  -0.01347  -0.0003199  0.05591  -0.5014  -0.4617
6.532e+09  0.617  1.567  0.03334  0.005203  0.002165  -0.02396  -0.5931  -0.2959
6.534e+09  1.072  1.298  0.01416  -0.004347  -0.009277  -0.03059  -0.6421  -0.07543
6.535e+09  1.441  0.8186  0.0116  -0.01686  -0.0394  0.01578  -0.6029  0.1132
6.536e+09  1.69  0.2361  0.005089  -0.02702  0.006851  -0.0007572  -0.5682  0.3417
6.538e+09  1.665  -0.4125  -0.02315  -0.002524  -0.02956  -0.02173  -0.4584  0.4652
6.539e+09  1.349  -0.8941  0.02144  0.009377  0.01609  -0.009655  -0.2668  0.5848
6.54e+09  0.8554  -1.314  0.02425  -0.004078  -0.02854  0.003462  -0.04856  0.6925
6.541e+09  0.3449  -1.554  -0.004895  0.01514  -0.007704  0.03416  0.1941  0.6793
6.542e+09  -0.2102  -1.5  0.03425  -0.009434  0.0359  -0.002748  0.427  0.5625
6.544e+09  -0.6561  -1.348  -0.008662  -0.0006083  0.03925  0.03265  0.6108  0.3771
6.545e+09  -1.158  -0.9703  -0.00309  0.02871  -0.01734  -0.001125  0.6951  0.1874
6.546e+09  -1.434  -0.5109  -0.002114  0.01424  0.02199  0.001649  0.7186  -0.05717
6.548e+09  -1.456  0.02639  -0.02732  -0.01916  0.01865  0.03159  0.6582  -0.3454
6.549e+09  -1.396  0.5481  -0.01159  -0.002855  0.02807  -0.05878  0.4751  -0.5606
6.55e+09  -1.035  1.029  0.005712  0.005502  0.03844  -0.006764  0.3013  -0.6716
6.551e+09  -0.6149  1.264  -0.01848  -0.01336  0.00457  0.00769  0.02989  -0.7436
6.552e+09  -0.2156  1.406  0.005674  0.0119  0.00649  0.01047  -0.202  -0.6955
6.554e+09  0.4443  1.311  -0.0005487  -0.01716  0.03441  -0.01541  -0.4923  -0.6077
