# Hz S RI R 50
6.25e+09  0.06284  0.9621  -0.008732  -0.02953  0.03613  0.06028  0.1361  0.4841
6.251e+09  0.2968  0.8469  -0.01471  -0.01055  0.03363  0.005319  0.3892  0.4024
6.252e+09  0.6078  0.7092  -0.00575  0.01945  0.01978  0.01588  0.5388  0.2137
6.254e+09  0.8469  0.442  0.04423  0.007129  0.01265  0.04125  0.652  0.04506
6.255e+09  0.8938  0.08715  -0.01303  -0.008097  0.05063  -0.05947  0.6277  -0.2238
6.256e+09  0.8545  -0.1916  -0.0101  -0.01304  0.002785  0.009737  0.4523  -0.4029
6.258e+09  0.7857  -0.4631  -0.0164  -0.002251  0.01235  0.01883  0.2641  -0.6125
6.259e+09  0.5456  -0.7243  -0.007048  -0.002175  -0.02619  -0.03384  0.04457  -0.6753
6.26e+09  0.2444  -0.8866  0.01056  -0.01758  0.002012  -0.02894  -0.2061  -0.6906
6.261e+09  -0.03412  -0.9631  0.00316  0.01569  0.005074  -0.01407  -0.4225  -0.5362
6.262e+09  -0.3335  -0.8446  -0.006584  0.02109  0.03056  0.05458  -0.6375  -0.354
6.264e+09  -0.631  -0.5861  0.007489  -0.003293  -0.02055  0.0007005  -0.7291  -0.1534
6.265e+09  -0.8338  -0.4017  -0.02749  0.0005608  0.05116  -0.002866  -0.709  0.1138
6.266e+09  -0.8666  -0.0965  0.03737  0.01909  -0.02155  -0.001683  -0.6138  0.3792
6.268e+09  -0.9783  0.1754  0.02277  -0.004189  0.02642  -0.009109  -0.4657  0.59
6.269e+09  -0.7264  0.5359  -0.03583  -0.01251  0.03289  -0.009461  -0.2081  0.7083
6.27e+09  -0.5351  0.753  0.002155  -0.02544  0.0147  -0.04597  0.05935  0.7603
6.271e+09  -0.2067  0.9437  0.02754  0.01258  -0.01919  -0.05114  0.3318  0.6789
6.272e+09  0.07612  0.9185  -0.00741  0.01341  -0.004562  -0.01691  0.5586  0.5106
6.274e+09  0.4059  0.8678  -0.01194  0.00563  -0.004601  -0.000434  0.6872  0.3034
6.275e+09  0.7198  0.6806  -0.02952  0.02571  -0.01863  0.03979  0.7937  0.01047
6.276e+09  0.8256  0.4069  -0.01537  -0.0003076  -0.04398  0.004748  0.733  -0.2177
6.278e+09  0.8918  0.0878  -0.003913  -0.009477  0.00278  0.009732  0.607  -0.4845
6.279e+09  0.8335  -0.2441  0.01698  0.007701  0.01003  0.01671  0.427  -0.6431
6.28e+09  0.7539  -0.5553  -0.03081  0.0204  -0.04873  0.01712  0.1725  -0.7396
6.281e+09  0.4981  -0.752  0.009211  0.0296  0.04687  -0.02044  -0.08294  -0.7434
6.282e+09  0.2187  -0.898  0.003283  -0.01615  0.02893  0.00466  -0.3659  -0.6791
6.284e+09  -0.06365  -0.9171  0.03103  0.0179  -0.01829  0.03453  -0.6089  -0.493
6.285e+09  -0.4159  -0.7506  0.01267  0.01461  -0.07925  0.05436  -0.7396  -0.2766
6.286e+09  -0.665  -0.6527  0.03199  0.0009483  -0.02011  -0.01236  -0.7864  -0.01834
6.288e+09  -0.8859  -0.325  0.02154  0.001613  0.001794  0.03943  -0.763  0.2922
6.289e+09  -0.9397  -0.04825  0.00727  -0.00198  -0.02637  0.03122  -0.6557  0.5078
6.29e+09  -0.9282  0.2952  0.01002  0.003196  -0.03385  0.01522  -0.4442  0.6985
6.291e+09  -0.7316  0.5818  -0.02427  0.01882  0.06211  -0.02014  -0.113  0.7974
6.292e+09  -0.4909  0.7893  0.0003583  0.01648  -0.00199  0.03056  0.1391  0.7893
6.294e+09  -0.2338  0.9236  -0.01866  0.004726  -0.06102  -0.02869  0.385  0.7086
6.295e+09  0.1244  0.8968  -0.02971  -0.00741  -0.05809  -0.001921  0.6106  0.5431
6.296e+09  0.4601  0.7711  -0.01808  -0.03328  -0.03135  -0.01436  0.7643  0.2703
6.298e+09  0.7014  0.6391  -0.004415  -0.03332  -0.01253  0.006406  0.8488  -0.003108
6.299e+09  0.8297  0.378  -0.02477  0.007628  -0.008739  -0.004422  0.7608  -0.2706
6.3e+09  0.9369  -0.0125  0.008798  0.01662  -0.05707  0.02489  0.6293  -0.5405
6.301e+09  0.8982  -0.3416  0.009353  -0.006549  0.03509  0.01183  0.401  -0.7264
6.302e+09  0.709  -0.6391  0.002675  0.006112  -0.008332  0.0177  0.1499  -0.8171
6.304e+09  0.4596  -0.8267  0.03493  0.04914  0.009755  0.003439  -0.09897  -0.8318
6.305e+09  0.1196  -0.933  0.008174  0.01728  0.02065  0.03038  -0.4356  -0.7497
6.306e+09  -0.2295  -0.9393  0.02795  0.008401  0.007748  0.0296  -0.6603  -0.5442
6.308e+09  -0.5635  -0.8391  0.007962  -0.0001385  -0.002328  -0.0118  -0.7967  -0.3224
6.309e+09  -0.7844  -0.5715  -0.008013  0.03533  0.008423  0.02919  -0.8544  -0.008329
6.31e+09  -0.9044  -0.2881  -0.004316  -0.02621  0.05244  0.04765  -0.8048  0.2805
6.311e+09  -1.011  0.06503  -0.01408  0.01066  -0.012  -0.03745  -0.7044  0.5443
6.312e+09  -0.9468  0.4314  0.01874  0.01572  -0.03949  -0.0004451  -0.4552  0.7531
6.314e+09  -0.7448  0.7092  -0.0164  0.02105  0.02661  -0.003765  -0.1623  0.8489
6.315e+09  -0.3711  0.9902  0.01632  0.014  -0.0418  0.03448  0.1411  0.8525
6.316e+09  -0.0893  1.028  -0.01395  0.006182  0.01341  -0.009738  0.4419  0.7508
6.318e+09  0.3297  0.9044  -0.0042  0.01038  0.02684  -0.01483  0.6956  0.5647
6.319e+09  0.5762  0.837  -0.001088  0.01483  -0.04997  -0.02129  0.8556  0.288
6.32e+09  0.8166  0.5459  0.02345  0.02058  -0.01519  0.009034  0.8976  0.001622
6.321e+09  0.9539  0.2119  -0.02244  0.01998  0.01428  0.008453  0.841  -0.3055
6.322e+09  0.9854  -0.08291  -0.01886  -0.009857  -0.0102  0.05425  0.677  -0.553
6.324e+09  0.9344  -0.4939  0.01354  -0.001798  0.0217  0.009716  0.454  -0.7641
6.325e+09  0.713  -0.7927  0.02669  0.02309  0.0245  -0.05507  0.1704  -0.8878
6.326e+09  0.3947  -0.9618  -0.002261  -0.01143  -0.02935  0.02806  -0.1095  -0.9252
6.328e+09  0.0598  -1.044  0.0209  -0.005596  0.05876  0.01135  -0.4424  -0.7837
6.329e+09  -0.3588  -1.001  -0.00899  -0.0213  -0.04338  -0.013  -0.6779  -0.5815
6.33e+09  -0.6809  -0.8324  0.01172  -0.006678  -0.03318  -0.01392  -0.8312  -0.3191
6.331e+09  -0.9583  -0.5071  -0.01452  -0.009872  -0.00707  -0.006888  -0.9226  -0.04727
6.332e+09  -1.091  -0.1334  -0.02303  -0.007138  0.01457  -0.01678  -0.9043  0.3046
6.334e+09  -1.089  0.2768  0.0128  0.006472  0.007371  -0.02336  -0.7119  0.5797
6.335e+09  -0.8981  0.5805  -0.03971  0.02244  -0.009426  -0.004018  -0.4995  0.7779
6.336e+09  -0.6648  0.9206  -0.01866  0.01929  0.01126  0.004366  -0.1853  0.8932
6.338e+09  -0.3187  1.051  -0.005692  -0.01147  0.008247  0.03212  0.1143  0.9133
6.339e+09  0.04636  1.038  -0.03039  -0.01491  -0.02938  0.01531  0.4169  0.8034
6.34e+09  0.4392  0.9755  -0.002111  -0.003612  0.0009861  -0.008054  0.6886  0.5958
6.341e+09  0.8163  0.7587  0.00702  -0.03171  0.004691  0.02172  0.857  0.3824
6.342e+09  1.074  0.4276  -0.01365  0.009283  0.05178  0.02983  0.9034  0.04121
6.344e+09  1.119  0.06367  0.02549  0.005702  -0.04898  -0.03026  0.8658  -0.2385
6.345e+09  1.067  -0.3358  0.01445  -0.01494  -0.003567  -0.0138  0.7523  -0.5499
6.346e+09  0.86  -0.7398  -0.0282  0.01105  0.02157  -6.713e-05  0.5221  -0.7841
6.348e+09  0.6204  -0.9751  0.02533  -0.01287  0.01154  0.0004447  0.2181  -0.9307
6.349e+09  0.2016  -1.114  -0.0221  -0.0171  -0.009056  0.007896  -0.1355  -0.8985
6.35e+09  -0.223  -1.109  -0.03262  -0.00786  0.002827  0.03268  -0.4226  -0.8327
6.351e+09  -0.5773  -0.9676  0.0002042  -0.01237  0.03331  0.002429  -0.6838  -0.6797
6.352e+09  -0.8708  -0.6892  -0.02506  0.01757  0.0101  -0.003997  -0.882  -0.3815
6.354e+09  -1.092  -0.3638  -0.04663  0.01854  -0.02065  0.01632  -0.9311  -0.06528
6.355e+09  -1.179  0.1019  0.01337  0.02482  -0.01799  0.01751  -0.9134  0.286
6.356e+09  -1.073  0.4176  0.02606  -0.0006756  -0.02986  -0.02663  -0.7754  0.5704
6.358e+09  -0.8173  0.8161  -0.02633  -0.0002316  0.04299  -0.02985  -0.5624  0.7922
6.359e+09  -0.4697  1.04  0.03535  0.007735  0.003735  0.003091  -0.2311  0.9002
6.36e+09  -0.0844  1.171  -0.001778  -0.008505  0.03362  0.01216  0.08128  0.9265
6.361e+09  0.323  1.129  0.01821  0.01539  0.01835  -0.01745  0.4188  0.8727
6.362e+09  0.6977  0.9329  -0.01311  0.03279  -0.003445  0.01686  0.6605  0.6495
6.364e+09  0.9891  0.6488  -0.02354  -0.04745  0.003499  0.0001679  0.8874  0.3747
6.365e+09  1.163  0.2612  0.008318  -0.05012  -0.04275  0.006504  0.9371  0.113
6.366e+09  1.158  -0.1679  -0.006638  0.01429  -0.05414  -0.02395  0.9157  -0.2595
6.368e+09  1.069  -0.5524  -0.006436  0.001686  0.01258  0.01532  0.7809  -0.5442
6.369e+09  0.7304  -0.9104  -0.007887  0.0004214  0.002698  -0.01848  0.5096  -0.7922
6.37e+09  0.3477  -1.062  0.02232  0.007469  -0.01557  0.02141  0.238  -0.9108
6.371e+09  -0.02513  -1.18  0.04335  -0.03182  0.01847  0.02845  -0.1283  -0.9264
6.372e+09  -0.444  -1.085  -0.002173  0.01617  -0.02713  -0.02027  -0.4084  -0.8542
6.374e+09  -0.8048  -0.833  0.01972  0.02101  -0.06074  0.03188  -0.6548  -0.6433
6.375e+09  -1.012  -0.5074  0.02429  -0.01035  -0.05208  0.02207  -0.8862  -0.3847
6.376e+09  -1.169  -0.1446  -0.004896  -0.02944  -0.02169  -0.04973  -0.9178  -0.1107
6.378e+09  -1.152  0.2834  -0.01239  0.02314  0.01272  0.006366  -0.9296  0.2289
6.379e+09  -0.9079  0.645  0.00669  0.003266  0.0367  -0.04735  -0.7957  0.55
6.38e+09  -0.6309  0.9267  0.006815  0.03205  -0.03504  0.0231  -0.5269  0.7527
6.381e+09  -0.2869  1.109  -0.04933  -0.0007029  -0.02735  0.03284  -0.2307  0.9061
6.382e+09  0.1298  1.121  -0.007287  0.02413  -0.005853  0.02106  0.05903  0.9335
6.384e+09  0.5131  1.014  0.01312  0.04074  -0.02153  0.04667  0.3647  0.8687
6.385e+09  0.8187  0.7731  -0.03384  0.02936  0.01378  0.02481  0.6452  0.6956
6.386e+09  1.021  0.4564  -0.004488  0.01095  -0.008052  -0.003323  0.8279  0.4224
6.388e+09  1.099  0.07965  0.03257  0.0253  0.01273  0.01215  0.9302  0.1238
6.389e+09  1.017  -0.3058  -0.003098  0.003992  -0.01988  0.02608  0.9215  -0.1944
6.39e+09  0.9116  -0.6795  -0.002629  -0.0003952  -0.01931  0.02492  0.7986  -0.5301
6.391e+09  0.5667  -1.015  0.03828  -0.0004117  -0.0002281  0.01919  0.5902  -0.7472
6.392e+09  0.2254  -1.083  0.01887  -0.00746  0.02192  0.01127  0.2971  -0.8763
6.394e+09  -0.2153  -1.103  -0.0251  -0.01655  -0.02635  -0.01471  -0.04327  -0.9057
6.395e+09  -0.5433  -0.9977  0.01452  0.02553  -0.04236  -0.03421  -0.323  -0.885
6.396e+09  -0.7728  -0.7312  -0.008497  -0.02932  -0.008734  0.05789  -0.5925  -0.7112
6.398e+09  -1.068  -0.4106  0.0183  -0.02827  0.01012  -0.007991  -0.8144  -0.4309
6.399e+09  -1.141  -0.018  0.0091  0.0161  0.03431  0.03103  -0.9424  -0.1595
6.4e+09  -1.064  0.3911  -0.02164  0.04708  0.003752  0.004065  -0.8913  0.186
6.401e+09  -0.8384  0.6931  0.02082  -0.003814  0.00662  -0.01118  -0.8049  0.4855
6.402e+09  -0.5061  0.9395  -0.0077  -0.03599  -0.02139  0.003318  -0.5885  0.7078
6.404e+09  -0.1485  1.077  0.001141  -0.007735  0.009633  -0.003062  -0.3284  0.8816
6.405e+09  0.2099  0.9925  0.02788  0.008873  0.04807  0.01955  -0.03279  0.9082
6.406e+09  0.5545  0.8752  0.01168  -0.02452  0.009933  -0.006876  0.3198  0.857
6.408e+09  0.857  0.6739  0.0006533  -0.002785  0.0004826  0.0314  0.5383  0.7033
6.409e+09  1.018  0.2791  -0.004285  -0.007545  0.04006  0.01315  0.7638  0.4727
6.41e+09  1.108  -0.03114  0.01261  -0.0151  -0.007866  0.06886  0.9147  0.167
6.411e+09  0.9912  -0.4196  -0.003996  0.03113  -0.01919  0.06027  0.9081  -0.1188
6.412e+09  0.8176  -0.7515  -0.02025  0.01261  -0.001287  -0.03337  0.7985  -0.4524
6.414e+09  0.5281  -0.9892  0.008938  -0.00152  -0.01199  0.04621  0.6006  -0.6274
6.415e+09  0.1393  -1.077  -0.02643  -0.004348  0.03537  -0.0244  0.3254  -0.8522
6.416e+09  -0.2973  -1.094  0.02644  0.02683  -0.015  0.006796  0.04015  -0.8692
6.418e+09  -0.6404  -0.879  0.02968  -0.02855  -0.002263  -0.05642  -0.2529  -0.8593
6.419e+09  -0.9013  -0.6372  -0.004577  0.009916  -0.03234  -0.05695  -0.5572  -0.7069
6.42e+09  -1.101  -0.2866  0.01835  0.006364  0.01441  -0.02387  -0.788  -0.4768
6.421e+09  -1.054  0.1055  -0.004544  0.008621  -0.004302  -0.009462  -0.8415  -0.2176
6.422e+09  -0.9919  0.4994  -0.001307  0.03664  -0.003667  -0.005048  -0.9632  0.1406
6.424e+09  -0.7976  0.7555  -0.006663  0.001812  0.02721  0.04518  -0.7285  0.3659
6.425e+09  -0.4291  1.013  0.03136  0.02515  0.02166  0.001608  -0.5947  0.6589
6.426e+09  -0.1144  1.102  0.05246  -0.006457  0.03267  -0.04632  -0.3357  0.794
6.428e+09  0.3067  1.053  -0.01707  -0.006751  0.01421  -0.02092  0.001896  0.8815
6.429e+09  0.6178  0.9471  0.02994  0.02071  -0.00105  -0.001943  0.2177  0.8579
6.43e+09  0.9717  0.6303  0.02646  -0.004157  0.0524  0.002837  0.493  0.7019
6.431e+09  1.092  0.2463  -0.009393  0.02477  -0.006275  -0.07752  0.6705  0.5071
6.432e+09  1.093  -0.1353  0.02674  -0.03296  0.02351  -0.03862  0.8447  0.1688
6.434e+09  1.034  -0.5096  0.03149  0.006118  -0.01171  0.03891  0.8808  -0.07331
6.435e+09  0.7726  -0.8431  -0.02072  -0.009405  0.02755  -0.006636  0.7809  -0.379
6.436e+09  0.4004  -1.023  0.007026  -0.01554  -0.03275  0.02837  0.5824  -0.5959
6.438e+09  -0.008305  -1.151  0.003614  -0.02401  0.003521  -0.01015  0.3358  -0.7443
6.439e+09  -0.3418  -1.116  0.03483  -0.03023  0.0009991  -0.05055  0.07484  -0.8765
6.44e+09  -0.7011  -0.881  0.05311  0.01435  -0.02429  -0.0364  -0.2013  -0.8692
6.441e+09  -0.9546  -0.6225  0.0286  -0.01574  0.01402  0.000743  -0.5119  -0.7429
6.442e+09  -1.037  -0.1928  0.03374  -0.02514  -0.03262  0.02226  -0.6819  -0.4591
6.444e+09  -1.141  0.1868  -0.01686  -0.0264  0.004215  0.01731  -0.7887  -0.2099
6.445e+09  -0.966  0.6442  -0.04708  -0.01929  -0.0003471  0.02534  -0.8073  0.07535
6.446e+09  -0.6951  0.9022  0.01931  0.06965  -0.01515  -0.008758  -0.7895  0.3837
6.448e+09  -0.3968  1.064  0.02041  -0.04162  -0.04187  0.03317  -0.5948  0.6097
6.449e+09  0.07935  1.171  0.03557  -0.02061  -0.009519  0.01892  -0.3529  0.7593
6.45e+09  0.4509  1.089  0.01851  -0.0008242  -0.02778  -0.008918  -0.007859  0.8723
6.451e+09  0.7793  0.8625  -0.000436  0.009702  -0.02062  0.01094  0.1981  0.8404
6.452e+09  1.006  0.5388  -0.02261  0.02405  -0.009614  0.03929  0.4954  0.676
6.454e+09  1.204  0.1571  0.004154  -0.03129  -0.02532  0.0161  0.6723  0.482
6.455e+09  1.152  -0.3045  0.02289  -0.02847  0.001191  -0.004762  0.8278  0.238
6.456e+09  0.9769  -0.7243  -0.06624  0.01696  -0.03807  0.005274  0.8014  -0.06109
6.458e+09  0.6766  -1.038  0.01811  -0.01416  0.00594  0.01406  0.7753  -0.3634
6.459e+09  0.3397  -1.202  0.002244  -0.004583  -0.03185  0.02894  0.5703  -0.5901
6.46e+09  -0.1343  -1.275  -0.01493  -0.02457  -0.04107  0.05182  0.3115  -0.7327
6.461e+09  -0.5426  -1.095  0.02017  -0.01174  -0.04984  0.02033  0.08558  -0.8027
6.462e+09  -0.8985  -0.8425  -0.03532  0.02055  0.002821  -0.00282  -0.1954  -0.8354
6.464e+09  -1.184  -0.449  -0.01564  -0.03168  -0.01572  -0.03169  -0.46  -0.6699
6.465e+09  -1.197  0.005223  -0.01692  -0.02603  0.01906  0.01289  -0.6688  -0.4586
6.466e+09  -1.185  0.4702  0.03585  -0.002291  0.03079  -0.03031  -0.7713  -0.1762
6.468e+09  -0.9686  0.8049  0.008749  0.01942  0.004987  -0.02456  -0.8189  0.08028
6.469e+09  -0.6039  1.113  0.003477  -0.03371  0.0238  0.01978  -0.6902  0.3614
6.47e+09  -0.1652  1.264  -0.0006956  0.005502  -0.07402  -0.05994  -0.5646  0.5694
6.471e+09  0.2406  1.234  0.03937  -0.01309  -0.05634  -0.03751  -0.3209  0.6976
6.472e+09  0.6728  1.072  0.02886  -0.0374  0.005022  -0.03411  -0.04264  0.7914
6.474e+09  1.081  0.7287  -0.002523  -0.0287  -0.007872  0.02941  0.1962  0.7618
6.475e+09  1.253  0.3211  0.005709  0.06625  0.01308  0.009616  0.4191  0.6061
6.476e+09  1.287  -0.1861  -0.00252  0.04878  0.007325  0.01124  0.6487  0.4298
6.478e+09  1.199  -0.583  -0.005072  0.007726  -0.01934  -0.02204  0.7409  0.2371
6.479e+09  0.8311  -0.979  -0.07178  0.004203  -0.05332  -0.006152  0.7995  -0.05617
6.48e+09  0.5116  -1.272  -0.02709  -0.0003849  -0.004181  -0.05641  0.7138  -0.3106
6.481e+09  0.00559  -1.328  0.01184  -0.02413  -0.02324  -0.03318  0.5579  -0.5603
6.482e+09  -0.434  -1.274  0.00747  0.006887  -0.01849  -0.04351  0.2911  -0.6938
6.484e+09  -0.8694  -0.9876  -0.01773  0.003047  -0.03614  0.02698  0.07487  -0.7975
6.485e+09  -1.24  -0.5662  0.009812  0.003197  0.01987  0.01448  -0.2461  -0.739
6.486e+09  -1.288  -0.1273  0.009658  0.05352  0.01256  0.0145  -0.4989  -0.6526
6.488e+09  -1.88  0.7708  0.01006  0.02628  0.6721  0.3146  -0.5995  -0.4137
6.489e+09  -1.092  0.8205  0.02163  0.004482  -0.05576  -0.02187  -0.736  -0.2026
6.49e+09  -0.7203  1.152  -0.02754  0.03609  0.0002747  0.005373  -0.7584  0.09953
6.491e+09  -0.2856  1.389  -0.01985  -0.01452  -0.01593  0.02169  -0.6766  0.3622
6.492e+09  0.2321  1.352  -0.006337  -0.01397  0.02684  -0.04914  -0.5277  0.5402
6.494e+09  0.7221  1.068  -0.02472  -0.01876  -0.1272  0.07199  -0.2937  0.7078
6.495e+09  1.087  0.8362  -0.002264  0.01066  -0.003777  -0.03068  -0.03805  0.7737
6.496e+09  1.255  0.3173  -0.002266  0.0129  0.00234  0.02865  0.2292  0.7914
6.498e+09  1.363  -0.1866  -0.01117  0.08485  0.03164  0.01167  0.4695  0.6628
6.499e+09  1.199  -0.5673  0.003817  -0.02836  -0.0663  0.0138  0.6752  0.4133
6.5e+09  1.666  -1.475  -0.02119  0.01265  -0.04202  -0.03407  0.7351  0.1982
6.501e+09  0.4498  -1.249  -0.00503  -0.001853  -0.001554  0.03925  0.7363  -0.1045
6.502e+09  -0.04049  -1.306  -0.006037  -0.03605  -0.004412  0.01469  0.6976  -0.3521
6.504e+09  -0.5309  -1.282  0.01128  0.008787  -0.03521  0.01443  0.5012  -0.567
6.505e+09  -0.8919  -0.882  -0.01136  -0.03986  0.01282  -0.02501  0.2968  -0.7007
6.506e+09  -1.162  -0.5527  0.01312  -0.02142  -0.02253  -0.02843  0.02425  -0.795
6.508e+09  -1.292  -0.06998  -0.03  0.0272  -0.02042  -0.01276  -0.2605  -0.7225
6.509e+09  -1.234  0.3816  0.0005569  0.01838  8.338e-05  -0.03434  -0.4821  -0.5928
6.51e+09  -1.014  0.7716  -0.007053  0.00169  0.03744  0.0362  -0.6628  -0.3687
6.511e+09  -0.6581  1.089  0.02445  0.0434  0.01969  0.06322  -0.7581  -0.1322
6.512e+09  -0.2735  1.217  0.01137  0.02989  -0.009735  0.0363  -0.7129  0.1472
6.514e+09  0.2475  1.211  0.002401  -0.02  0.004692  0.0016  -0.6737  0.3883
6.515e+09  0.7094  1.068  -0.001077  0.0005144  0.0008808  0.02055  -0.4616  0.5978
6.516e+09  1.006  0.7339  -0.01641  -0.007304  0.06436  -0.01661  -0.2511  0.6897
6.518e+09  1.257  0.3249  0.026  -0.0441  -0.001892  -0.04361  0.03621  0.7418
6.519e+09  1.301  -0.1025  0.05493  0.02817  0.008863  -0.007678  0.258  0.6906
6.52e+09  1.14  -0.5513  0.01452  -0.05039  -0.03565  -0.01158  0.4785  0.5411
6.521e+09  0.7742  -0.9394  -0.01767  -0.006029  -0.003063  0.01241  0.6513  0.3318
6.522e+09  0.4301  -1.103  -0.02626  -0.02351  -0.04627  -0.0007786  0.737  0.1201
6.524e+09  0.01238  -1.189  0.005633  0.05062  0.01868  -0.05349  0.7022  -0.1797
6.525e+09  -0.3753  -1.106  0.01079  -0.009328  0.003253  -0.04937  0.5847  -0.3846
6.526e+09  -0.8274  -0.8985  -0.01685  -0.01915  0.05417  -0.003414  0.3907  -0.5662
6.528e+09  -1.035  -0.5107  0.0133  0.01006  -0.004661  0.01247  0.1942  -0.7023
6.529e+09  -1.18  -0.1073  -0.03906  0.0002665  0.02233  0.02983  -0.0536  -0.6568
6.53e+09  -1.151  0.3269  0.001953  0.002012  0.008812  -0.02902  -0.264  -0.6042
6.531e+09  -0.9316  0.6596  0.0156  0.01802  -0.008613  -0.0248  -0.473  -0.47
6.532e+09  -0.5974  0.9685  0.01021  0.004287  -0.01469  -0.008827  -0.5973  -0.2891
6.534e+09  -0.2773  1.074  3.939e-05  0.0006512  -0.01637  0.007484  -0.6518  -0.1334
6.535e+09  0.2045  1.115  -0.003957  0.03244  -0.006679  -0.002336  -0.6355  0.1437
6.536e+09  0.5854  0.9461  -0.01439  -0.03085  -0.05107  0.0573  -0.5451  0.3058
6.538e+09  0.8134  0.6917  -0.007636  -0.00691  -0.01881  0.0007855  -0.4613  0.493
6.539e+09  1.038  0.3067  -0.01961  -0.01545  -0.03193  -0.0004006  -0.2579  0.6123
6.54e+09  1.08  -0.08988  -0.02484  0.006852  -0.07628  -0.06953  -0.01374  0.6973
6.541e+09  1.007  -0.4533  -0.01325  -0.03769  0.04632  -0.03976  0.1781  0.6697
6.542e+09  0.7777  -0.7321  0.02472  -0.03948  0.01075  -0.02996  0.3903  0.582
6.544e+09  0.431  -0.8937  0.003625  0.02311  0.01571  0.002918  0.6195  0.3835
6.545e+09  0.03818  -1.006  -0.002192  0.005885  0.01379  0.0002773  0.6876  0.1769
6.546e+09  -0.3218  -0.9987  0.02889  -0.01691  -0.002441  0.03373  0.7362  -0.0664
6.548e+09  -0.6497  -0.8626  -0.01758  0.01487  0.006989  0.0005058  0.627  -0.3478
6.549e+09  -0.8549  -0.5387  -0.01409  -0.02837  0.01896  0.04368  0.5131  -0.5456
6.55e+09  -1.002  -0.1794  0.03461  -0.01169  -0.03216  -0.0008429  0.3084  -0.6927
6.551e+09  -0.9804  0.1588  -0.0009705  0.01127  0.03162  -0.0415  0.05188  -0.727
