# Hz S RI R 50
6.25e+09  0.3325  -0.8848  0.005819  0.02187  0.01209  0.05321  0.1571  0.4672
6.251e+09  -0.03395  -0.9989  0.05085  0.03292  0.0147  -0.02854  0.3794  0.4254
6.252e+09  -0.4184  -0.9129  0.02707  0.002815  0.0005105  0.03057  0.512  0.2366
6.254e+09  -0.6803  -0.743  -0.002061  0.01039  0.004925  0.01477  0.6018  0.005007
6.255e+09  -0.8703  -0.4065  0.04575  -0.01996  0.0004203  0.0231  0.5655  -0.2335
6.256e+09  -0.9367  -0.05795  0.004765  -0.05245  -0.004694  0.03336  0.4666  -0.4291
6.258e+09  -0.8843  0.2778  0.001475  0.002955  0.02057  0.007039  0.2813  -0.6069
6.259e+09  -0.7806  0.6078  0.01293  0.02023  -0.003851  0.03931  0.05545  -0.667
6.26e+09  -0.5273  0.791  -0.0237  -0.007419  0.0426  0.01599  -0.2306  -0.6185
6.261e+09  -0.1946  0.8717  0.009331  -0.007286  0.01102  0.03816  -0.4276  -0.5464
6.262e+09  0.1655  0.9556  0.0077  0.01153  0.008879  -0.04561  -0.6124  -0.3565
6.264e+09  0.4631  0.7978  0.007333  -0.02318  -0.02613  0.01915  -0.715  -0.1025
6.265e+09  0.7896  0.5381  -0.01903  0.01386  -0.05496  -0.006596  -0.6949  0.1542
6.266e+09  0.9076  0.3435  -0.01188  0.003126  0.006705  0.0154  -0.5806  0.398
6.268e+09  0.9011  -0.06464  0.008096  -0.02721  -0.001862  -0.02242  -0.4199  0.6173
6.269e+09  0.9013  -0.389  -0.01004  -0.01835  0.03596  0.01031  -0.1701  0.7202
6.27e+09  0.699  -0.6443  -0.02469  0.00933  -0.0002093  0.04151  0.03278  0.7674
6.271e+09  0.4294  -0.8343  -0.01353  -0.003412  0.0128  -0.0151  0.3459  0.6918
6.272e+09  0.08669  -0.9587  0.007122  -0.007759  0.01524  -0.02227  0.5536  0.5532
6.274e+09  -0.2897  -0.9223  -0.007127  -0.02186  -0.03317  0.02599  0.686  0.3085
6.275e+09  -0.5169  -0.7096  0.04078  -0.06222  0.01046  0.03551  0.7577  0.06031
6.276e+09  -0.7901  -0.4714  -0.009516  -0.00538  -0.002814  0.03026  0.6852  -0.2202
6.278e+09  -0.8961  -0.1919  0.007882  0.02461  -0.03962  -0.009934  0.6269  -0.4429
6.279e+09  -0.9617  0.108  -0.01483  -0.004126  -0.001007  -0.01823  0.4269  -0.6467
6.28e+09  -0.828  0.4585  0.007005  -0.009897  0.05045  0.003085  0.1728  -0.7448
6.281e+09  -0.6577  0.6981  0.007242  0.008033  0.0004963  -0.03729  -0.1107  -0.7541
6.282e+09  -0.3016  0.864  0.001056  0.04724  -0.05199  -0.04263  -0.3621  -0.6906
6.284e+09  0.04424  0.9021  0.004568  0.01382  0.005146  0.03959  -0.5893  -0.5085
6.285e+09  0.3662  0.7833  -0.008161  0.01094  -0.01193  0.01703  -0.7634  -0.2799
6.286e+09  0.6273  0.7617  -0.007069  0.02322  -0.03261  0.04399  -0.8308  0.02105
6.288e+09  0.8267  0.4241  0.04121  0.02253  0.02558  -0.06001  -0.7588  0.263
6.289e+09  0.9265  0.1419  0.001431  0.01444  -0.008122  0.04025  -0.6209  0.5211
6.29e+09  0.8807  -0.2683  -0.01889  0.003026  -0.01832  -0.003182  -0.424  0.6954
6.291e+09  0.7857  -0.5868  0.0002881  0.006582  0.01361  0.005632  -0.1374  0.8191
6.292e+09  0.5116  -0.7521  0.02564  0.01172  0.00665  0.02906  0.1317  0.8085
6.294e+09  0.2331  -0.9004  0.003194  0.02305  -0.003721  0.01903  0.3932  0.7119
6.295e+09  -0.116  -0.9732  -0.0228  0.02534  0.005731  0.003783  0.6122  0.5271
6.296e+09  -0.4329  -0.8505  0.0103  -0.01097  0.06709  0.0334  0.7712  0.2814
6.298e+09  -0.7001  -0.607  -0.01466  -0.006261  -0.002643  0.02167  0.8278  -0.0003697
6.299e+09  -0.8592  -0.3388  0.002415  -0.02339  -0.01253  -0.01435  0.7762  -0.2869
6.3e+09  -0.9203  -0.02888  0.003806  -0.02245  -0.02704  0.03267  0.6518  -0.4972
6.301e+09  -0.8689  0.2804  0.01257  0.0124  -0.03856  -0.000115  0.4479  -0.722
6.302e+09  -0.7218  0.6346  0.01107  0.01428  0.04562  0.0109  0.1503  -0.8165
6.304e+09  -0.4617  0.7881  0.04828  0.006906  0.02952  -0.03879  -0.1616  -0.8718
6.305e+09  -0.1971  0.9068  -0.01375  -0.003452  0.02607  0.02108  -0.3959  -0.7024
6.306e+09  0.1724  0.8785  0.02697  0.01259  -0.01903  0.01535  -0.6673  -0.5573
6.308e+09  0.5319  0.7694  0.01691  -0.01125  -0.02635  0.024  -0.7918  -0.3067
6.309e+09  0.7158  0.604  0.02023  0.01617  -0.02453  -0.01421  -0.8726  -0.01348
6.31e+09  0.8634  0.3026  0.0106  0.001997  -0.04163  0.008985  -0.8006  0.2808
6.311e+09  0.9256  -0.05953  -0.009568  0.03582  -0.002034  -0.009201  -0.6523  0.5199
6.312e+09  0.8354  -0.3531  -0.00611  -0.009402  0.05936  0.01237  -0.439  0.7625
6.314e+09  0.618  -0.6965  -0.04216  0.03467  0.0166  0.0008645  -0.1341  0.8527
6.315e+09  0.3643  -0.8453  -0.02408  0.0195  -0.04228  0.02823  0.1374  0.8874
6.316e+09  0.06208  -0.9124  -0.02168  0.003991  0.01223  -0.07491  0.419  0.7724
6.318e+09  -0.2589  -0.8351  0.02387  0.007297  -0.03806  -0.02468  0.6748  0.5779
6.319e+09  -0.5708  -0.7396  -0.01801  0.01532  0.06293  -0.03476  0.8162  0.3287
6.32e+09  -0.7977  -0.4783  0.01078  -0.00703  -0.02364  0.03941  0.8928  0.02655
6.321e+09  -0.9713  -0.182  0.01746  0.02051  0.03169  0.006276  0.823  -0.273
6.322e+09  -0.8786  0.1517  -0.01865  -0.0127  0.03022  -0.05742  0.6979  -0.5829
6.324e+09  -0.7872  0.4513  -0.01262  0.01798  -0.03676  -0.004606  0.4483  -0.7591
6.325e+09  -0.584  0.6793  0.03435  0.00956  -0.0173  0.01691  0.1745  -0.8882
6.326e+09  -0.2938  0.9074  -0.004834  0.01134  0.02825  -0.006942  -0.1675  -0.8922
6.328e+09  0.02483  0.9581  0.01712  0.01615  -0.02747  0.05428  -0.4364  -0.7789
6.329e+09  0.3367  0.9033  -0.01108  -0.03155  -0.01244  -0.01865  -0.7064  -0.5982
6.33e+09  0.6332  0.6899  -0.01436  0.0164  0.03939  0.0565  -0.8554  -0.3443
6.331e+09  0.8217  0.4188  0.001961  0.02288  0.008525  -0.05423  -0.9171  -0.0405
6.332e+09  0.9505  0.09845  -0.02801  -0.01356  -0.03133  -0.0009325  -0.8958  0.2484
6.334e+09  0.9102  -0.2122  -0.007247  -0.003459  0.0008583  0.01099  -0.7191  0.6263
6.335e+09  0.733  -0.5288  0.01498  0.002231  0.04516  -0.01571  -0.4887  0.7894
6.336e+09  0.5211  -0.7709  0.01023  0.05895  -0.02801  0.01479  -0.1481  0.8838
6.338e+09  0.2668  -0.9508  -0.02028  -0.004167  -0.004342  0.01209  0.1301  0.8929
6.339e+09  -0.07259  -0.9529  -0.006839  -0.007913  0.04113  -0.004605  0.3938  0.854
6.34e+09  -0.481  -0.8186  0.0229  0.005166  -0.03385  0.009182  0.7025  0.623
6.341e+09  -0.6886  -0.584  -0.0341  0.00408  0.02243  -0.01348  0.8504  0.3653
6.342e+09  -0.8575  -0.3293  -0.01233  -0.00538  -0.02443  -0.02798  0.924  0.06416
6.344e+09  -0.9237  0.009748  -0.004179  0.01186  0.01112  0.009844  0.8696  -0.3088
6.345e+09  -0.9046  0.3896  -0.01159  0.007649  -0.06149  -0.01699  0.7423  -0.5589
6.346e+09  -0.7156  0.592  -0.03324  -0.02996  -0.0324  0.02357  0.5188  -0.7552
6.348e+09  -0.489  0.8393  -0.004055  0.00486  -0.0002299  -0.02702  0.1784  -0.8968
6.349e+09  -0.126  0.9948  0.01099  -0.01934  -0.0201  -0.008159  -0.08555  -0.9314
6.35e+09  0.2625  0.9454  -0.02818  -0.005832  -0.006316  0.0422  -0.4226  -0.85
6.351e+09  0.5301  0.8387  0.01066  0.01127  -0.01544  -0.003002  -0.6681  -0.6412
6.352e+09  0.7712  0.5436  0.001168  0.02076  -0.00408  0.017  -0.8717  -0.3723
6.354e+09  0.9877  0.2252  -0.03029  0.003671  -0.03978  0.005715  -0.9145  -0.01544
6.355e+09  0.908  -0.09216  0.001965  0.008328  -0.02781  -0.004633  -0.88  0.2845
6.356e+09  0.8851  -0.4397  -0.006718  0.003453  -0.02758  0.002288  -0.7322  0.5838
6.358e+09  0.672  -0.7041  0.01263  0.005151  0.0181  -0.04225  -0.5619  0.7905
6.359e+09  0.3761  -0.8808  0.004036  0.01911  -0.01304  -0.02003  -0.2062  0.9341
6.36e+09  -0.03589  -0.9789  0.05112  0.02849  -0.04162  0.008343  0.08573  0.9723
6.361e+09  -0.3478  -0.9158  0.002826  -0.0112  -0.03749  0.02388  0.4231  0.8532
6.362e+09  -0.6544  -0.8102  -0.02969  0.02963  0.01593  0.03966  0.6763  0.6634
6.364e+09  -0.8895  -0.4709  -0.01032  -0.0005774  -0.01977  -0.01051  0.8509  0.3929
6.365e+09  -0.9448  -0.1434  -0.03226  0.01962  -0.01614  -0.04609  0.9244  0.0683
6.366e+09  -0.9611  0.2483  -0.006251  0.0008468  0.01395  -0.01623  0.9051  -0.2321
6.368e+09  -0.7711  0.57  -0.0001391  -0.001428  -0.03851  0.01162  0.8095  -0.5252
6.369e+09  -0.5864  0.8279  0.01433  -0.0009154  -0.00267  -0.01457  0.5223  -0.8027
6.37e+09  -0.2157  0.916  -0.01295  0.01549  0.02658  0.02702  0.2413  -0.9191
6.371e+09  0.1375  0.9584  0.0246  0.04489  -0.001992  0.01903  -0.08113  -0.925
6.372e+09  0.4572  0.8631  0.01165  0.009765  -0.02577  -0.02305  -0.3809  -0.8459
6.374e+09  0.7646  0.6755  0.02229  -0.01809  0.04671  0.02626  -0.6845  -0.6748
6.375e+09  0.936  0.2979  -0.02372  -0.01523  -0.02192  0.009928  -0.8563  -0.4117
6.376e+09  1.035  -0.001381  -0.02521  0.02652  0.02007  0.0001045  -0.9317  -0.1101
6.378e+09  0.9302  -0.3718  -0.009215  0.01806  0.01351  -0.07425  -0.9516  0.2195
6.379e+09  0.7831  -0.7319  0.005268  0.00822  0.009218  -0.009629  -0.7505  0.5388
6.38e+09  0.4487  -0.9333  0.02213  0.02254  0.02221  0.001264  -0.5229  0.7573
6.381e+09  0.1289  -1.003  0.03409  0.01483  0.0004455  0.04325  -0.2918  0.8843
6.382e+09  -0.2513  -0.968  -0.01263  -0.01445  0.02111  -0.02576  0.03289  0.9381
6.384e+09  -0.5989  -0.8217  0.02557  0.03668  0.03937  0.02107  0.3806  0.8322
6.385e+09  -0.9045  -0.5477  -0.0245  -0.005074  -0.01138  -0.02397  0.6735  0.6789
6.386e+09  -0.9697  -0.2271  -0.01687  -0.002346  -0.02666  -0.058  0.8207  0.4329
6.388e+09  -0.9822  0.1223  0.001899  0.02216  0.008759  -0.003365  0.9471  0.09355
6.389e+09  -0.867  0.5221  0.005514  -0.001902  0.02439  -0.009174  0.9338  -0.215
6.39e+09  -0.6594  0.8139  0.03649  0.02211  -0.05031  0.01418  0.7724  -0.525
6.391e+09  -0.2925  1.011  -0.01719  0.02886  -0.0007557  0.03133  0.5631  -0.7721
6.392e+09  0.08362  0.9904  0.0003914  0.01952  0.003717  0.0483  0.2979  -0.8651
6.394e+09  0.388  0.9056  -0.03394  -0.01962  -0.000264  -0.04681  -0.02933  -0.9083
6.395e+09  0.7456  0.7256  -0.02047  -0.01968  0.0199  -0.006122  -0.3289  -0.8533
6.396e+09  0.8956  0.4547  0.04898  0.01895  0.05827  -0.006055  -0.5993  -0.6423
6.398e+09  0.9889  0.08505  -0.02756  -0.005731  0.00708  -0.04837  -0.787  -0.4409
6.399e+09  0.9836  -0.2676  0.02116  -0.01274  0.04798  0.02441  -0.8963  -0.09519
6.4e+09  0.8229  -0.6388  0.01016  0.01596  0.02674  -0.004565  -0.9358  0.1826
6.401e+09  0.5106  -0.9144  0.01062  -0.02366  -0.01879  0.04333  -0.8105  0.444
6.402e+09  0.2127  -0.9811  -0.01475  -0.02471  -0.02278  0.0005917  -0.5489  0.7533
6.404e+09  -0.2003  -1.024  -0.01725  0.02586  0.02965  -0.007421  -0.3006  0.8646
6.405e+09  -0.5469  -0.885  0.006826  0.01233  0.009427  -0.005234  0.02364  0.9146
6.406e+09  -0.8175  -0.641  0.007559  -0.007794  -5.031e-05  8.525e-06  0.2966  0.8686
6.408e+09  -0.9967  -0.3013  -0.03039  -0.00585  -0.006724  0.02809  0.5825  0.6526
6.409e+09  -1.023  0.06539  -0.008584  -0.03529  0.007603  -0.04557  0.769  0.4572
6.41e+09  -0.9525  0.456  -0.01354  -0.008888  -0.01426  -0.01004  0.8927  0.1709
6.411e+09  -0.697  0.7676  0.01721  0.01033  0.03497  0.02018  0.9137  -0.1252
6.412e+09  -0.4088  0.9496  -0.01294  0.04051  -0.007485  0.02802  0.8058  -0.4397
6.414e+09  -0.01114  1.04  -0.03291  0.001879  -0.01624  -0.001514  0.5713  -0.6875
6.415e+09  0.3714  0.9972  0.004285  0.002407  0.003686  -0.0126  0.3161  -0.8397
6.416e+09  0.7582  0.7673  0.03544  -0.009828  -0.0007185  -0.05667  0.01228  -0.8719
6.418e+09  0.8945  0.5151  0.01205  -0.009925  0.03909  -0.02948  -0.2342  -0.8347
6.419e+09  1.024  0.06313  0.007049  -0.03259  -0.009615  -0.02099  -0.5894  -0.6962
6.42e+09  1.011  -0.2459  -0.03823  -0.003296  0.005731  0.05696  -0.7695  -0.4728
6.421e+09  0.8736  -0.6613  0.02955  -0.06427  0.04455  0.03626  -0.8323  -0.1849
6.422e+09  0.5703  -0.8787  -0.01098  0.0537  -0.02689  0.02928  -0.9034  0.09399
6.424e+09  0.1565  -1.003  -0.01787  -0.01745  0.03239  -0.01404  -0.7775  0.4074
6.425e+09  -0.1922  -1.015  0.01124  -0.02099  -0.04456  0.01199  -0.6038  0.6752
6.426e+09  -0.4954  -0.9316  0.03417  0.01999  0.04337  0.02281  -0.3133  0.8122
6.428e+09  -0.8305  -0.6604  0.006797  0.02603  -0.00401  -0.01748  -0.06796  0.8724
6.429e+09  -0.9624  -0.325  -0.01808  0.00283  -0.03391  -0.01218  0.2784  0.8165
6.43e+09  -1.045  0.07501  -0.01151  6.33e-05  0.01008  -0.02076  0.4904  0.7056
6.431e+09  -0.9089  0.4228  0.001489  0.001448  0.02708  -0.03298  0.7111  0.4946
6.432e+09  -0.7202  0.7315  0.03274  -0.0311  0.01404  -0.04138  0.8152  0.2505
6.434e+09  -0.4053  0.915  0.0213  0.003411  0.007052  0.01853  0.8689  -0.05718
6.435e+09  -0.08429  1.038  0.001774  0.03538  0.02288  -0.01233  0.808  -0.4012
6.436e+09  0.2973  0.9342  -0.003068  -0.01432  0.01782  -0.03289  0.5849  -0.6034
6.438e+09  0.589  0.7899  0.012  -0.005991  -0.008676  0.005326  0.3446  -0.8151
6.439e+09  0.8826  0.5435  -0.01228  -0.02885  -0.02347  0.05614  0.04002  -0.8661
6.44e+09  1.015  0.2071  -0.01572  -0.03161  -0.007576  0.03153  -0.2612  -0.8447
6.441e+09  0.9996  -0.185  -0.03724  0.04982  -0.02839  -0.009166  -0.478  -0.7052
6.442e+09  0.8746  -0.537  -0.01261  0.05131  -0.05144  0.01225  -0.7369  -0.5139
6.444e+09  0.6021  -0.7303  0.007593  -0.04957  -0.03439  0.01766  -0.8578  -0.2438
6.445e+09  0.3062  -0.928  -0.02021  0.02881  -0.03101  0.03893  -0.8498  0.05698
6.446e+09  -0.039  -1.025  0.01454  0.01776  -0.005202  0.02336  -0.7552  0.3823
6.448e+09  -0.3482  -0.8734  -0.01732  -0.009309  0.01289  -0.003987  -0.5901  0.6088
6.449e+09  -0.6678  -0.7102  -0.007707  0.03431  -0.03634  -0.004584  -0.3313  0.7784
6.45e+09  -0.8964  -0.4295  -0.03026  0.00891  -0.0377  -0.02071  -0.1117  0.8646
6.451e+09  -0.9292  -0.01912  -0.0319  0.01252  -0.02139  -0.03323  0.2077  0.7685
6.452e+09  -0.9615  0.2623  0.009255  0.03368  -0.01308  0.001279  0.501  0.693
6.454e+09  -0.7917  0.5788  0.005055  -0.02531  -0.02231  0.02493  0.6452  0.4741
6.455e+09  -0.5716  0.8087  0.002394  0.01733  -0.01443  0.01231  0.7771  0.1748
6.456e+09  -0.2484  0.948  0.008031  0.01899  0.04343  -0.006156  0.8385  -0.09594
6.458e+09  0.1127  0.9242  -0.0004087  0.02319  -0.02599  -0.001172  0.8274  -0.3452
6.459e+09  0.4374  0.7719  -0.00778  0.02306  -0.003568  -0.009511  0.5193  -0.5846
6.46e+09  0.7081  0.5727  -0.007008  -0.005515  -0.004066  -0.0004751  0.3064  -0.7018
6.461e+09  0.9234  0.3376  -0.008747  -0.06096  -0.02329  0.0198  0.06357  -0.8077
6.462e+09  0.9047  -0.003249  -0.01458  0.01059  0.01383  0.01067  -0.2127  -0.8139
6.464e+09  0.8534  -0.3747  -0.004335  0.007669  -0.01035  0.007174  -0.4177  -0.6554
6.465e+09  0.6995  -0.6001  -0.0308  0.009459  -0.003657  0.0118  -0.739  -0.4745
6.466e+09  0.4684  -0.814  -0.0133  -0.02789  -0.003476  -0.04559  -0.7909  -0.2379
6.468e+09  0.1547  -0.9389  0.002108  -0.01714  -0.04683  0.02991  -0.7823  0.07327
6.469e+09  -0.1077  -0.9056  0.02153  -0.002722  -0.01894  -0.02248  -0.733  0.3211
6.47e+09  -0.5589  -0.7942  -0.03463  0.03293  0.007243  -0.0191  -0.5747  0.579
6.471e+09  -0.7577  -0.5448  -0.02171  -0.009931  -0.005125  0.002934  -0.3176  0.7198
6.472e+09  -0.8696  -0.2282  -0.02467  -0.001425  -0.02275  -0.0238  -0.03911  0.7953
6.474e+09  -0.9167  0.0589  -0.03267  -0.001366  -0.009625  -0.01002  0.2274  0.7229
6.475e+09  -0.8784  0.3988  -0.01032  -0.04094  0.006543  0.03582  0.4305  0.6553
6.476e+09  -0.6478  0.6417  -0.01292  0.02048  0.03697  -0.002205  0.6556  0.4457
6.478e+09  -0.3306  0.7901  0.01712  0.01376  -0.008746  0.01173  0.7029  0.2119
6.479e+09  -0.1019  0.8898  -0.008108  0.03154  -0.0278  -0.01066  0.7663  -0.05022
6.48e+09  0.236  0.8732  -0.02235  -0.0007436  0.05611  -0.017  0.6862  -0.3559
6.481e+09  0.5272  0.7259  0.01972  -0.01631  0.04169  0.03626  0.561  -0.538
6.482e+09  0.7669  0.4665  0.0109  -0.00207  0.001876  -0.03092  0.3447  -0.6938
6.484e+09  0.8625  0.1869  0.01568  0.00712  0.002231  0.02117  0.02475  -0.7784
6.485e+09  0.9419  -0.05313  0.02861  0.0004969  0.002757  0.02952  -0.2031  -0.7287
6.486e+09  0.8262  -0.46  0.01513  0.03425  0.03667  -0.01782  -0.4416  -0.6356
6.488e+09  0.07235  -1.136  -0.01156  -0.01805  0.3808  -0.61  -0.6393  -0.4098
6.489e+09  0.4147  -0.8379  -0.004924  0.01783  -0.01541  -0.05168  -0.7392  -0.2065
6.49e+09  0.06406  -0.9418  0.02175  0.01307  -0.03767  -0.03183  -0.7392  0.0999
6.491e+09  -0.2642  -0.7829  0.01545  -0.02488  -0.009929  0.00125  -0.6829  0.3306
6.492e+09  -0.581  -0.6691  -0.01769  -0.007578  -0.02251  -0.01262  -0.5102  0.5336
6.494e+09  -0.8376  -0.4172  0.009377  -0.01954  0.03636  -0.04673  -0.277  0.7299
6.495e+09  -0.8725  -0.2156  0.009977  -0.01966  0.02587  -0.02499  -0.04681  0.7544
6.496e+09  -0.864  0.06371  0.02922  -0.04984  0.002743  -0.004952  0.1722  0.7317
6.498e+09  -0.748  0.4238  -0.01229  0.0006973  0.01822  -0.0222  0.4721  0.624
6.499e+09  -0.5921  0.6593  -0.01072  -0.007256  0.02056  -0.01097  0.63  0.4095
6.5e+09  -0.1945  1.263  0.009435  0.01375  0.04506  0.01812  0.7715  0.155
6.501e+09  -0.007281  0.9489  -0.0002653  -0.01037  -0.01512  0.01673  0.7523  -0.116
6.502e+09  0.2659  0.8476  -0.001572  0.02825  0.03692  0.02812  0.6669  -0.3606
6.504e+09  0.5629  0.7179  -0.01691  0.02387  -0.00424  0.02265  0.5291  -0.5864
6.505e+09  0.7835  0.4377  0.005584  0.00394  0.001091  0.01144  0.3156  -0.7139
6.506e+09  0.9194  0.1655  0.01235  -0.008698  -0.004746  0.04739  0.01934  -0.7398
6.508e+09  0.8817  -0.1129  -0.01699  -0.03648  0.02089  -0.03716  -0.2854  -0.709
6.509e+09  0.7546  -0.4794  0.04285  0.02304  0.08528  -0.04004  -0.5058  -0.6229
6.51e+09  0.5888  -0.703  -0.022  0.009036  0.04304  -0.01172  -0.6746  -0.4188
6.511e+09  0.31  -0.9071  0.004535  -0.03257  -0.002541  -0.04063  -0.7732  -0.1494
6.512e+09  -0.02586  -0.8984  -0.01548  0.01854  -0.009482  -0.1047  -0.7259  0.1056
6.514e+09  -0.323  -0.8995  0.01181  -0.0004328  0.01572  0.03318  -0.6304  0.3948
6.515e+09  -0.6252  -0.6961  0.06274  -0.009081  0.001417  0.003509  -0.4607  0.5741
6.516e+09  -0.8152  -0.4455  0.008318  -0.01104  0.04362  0.06501  -0.2789  0.7047
6.518e+09  -0.9452  -0.1463  0.0222  0.01431  0.01335  0.01166  -0.0122  0.7067
6.519e+09  -0.9444  0.2175  -0.02992  0.003716  0.02153  -0.0282  0.2489  0.695
6.52e+09  -0.7848  0.4419  -0.022  -0.05504  0.02406  0.02767  0.5215  0.5492
6.521e+09  -0.6096  0.7711  -0.0306  0.01125  -0.03179  0.02834  0.6657  0.3215
6.522e+09  -0.2851  0.8984  0.007754  0.02671  0.06714  0.02238  0.6954  0.09604
6.524e+09  0.08458  0.992  0.01222  -0.03571  -0.02192  0.01196  0.7012  -0.1767
6.525e+09  0.3827  0.8523  -0.009095  -0.0117  -0.002311  -0.04128  0.5792  -0.3974
6.526e+09  0.6356  0.7007  -0.009752  -0.002928  -0.02148  -0.03956  0.4695  -0.572
6.528e+09  0.857  0.4656  0.03353  0.05292  0.01856  -0.02106  0.2054  -0.6871
6.529e+09  0.9879  0.07524  0.01189  0.0061  -0.04043  0.03826  -0.04727  -0.7093
6.53e+09  0.9894  -0.2482  0.02073  0.01862  0.04963  -0.08795  -0.3159  -0.613
6.531e+09  0.8187  -0.5429  -0.006518  -0.01504  0.06289  -0.03032  -0.4375  -0.5074
6.532e+09  0.5805  -0.7841  -0.02672  0.01404  -0.01548  -0.01371  -0.574  -0.2892
6.534e+09  0.3024  -0.9616  0.0189  -0.008908  -0.05246  -0.007031  -0.6794  -0.08566
6.535e+09  -0.1404  -1.007  -0.006654  0.006146  0.02427  -0.02881  -0.6071  0.1305
6.536e+09  -0.4127  -0.8996  -0.009598  0.01082  0.02135  0.01571  -0.5556  0.301
6.538e+09  -0.7755  -0.6884  -0.003844  -0.0009832  -0.0218  -0.03155  -0.43  0.5018
6.539e+09  -0.9413  -0.3736  -0.00583  -0.02012  -0.05194  -0.02861  -0.2528  0.5946
6.54e+09  -1.004  -0.04796  0.01804  0.006998  0.01076  0.06733  -0.07345  0.6974
6.541e+09  -1.031  0.2645  0.00687  -0.004709  -0.03748  0.004369  0.2078  0.6869
6.542e+09  -0.7966  0.649  -0.001843  0.02506  0.04635  0.00752  0.4226  0.5804
6.544e+09  -0.4927  0.8441  -0.0052  0.01198  0.002436  -0.009021  0.6187  0.4126
6.545e+09  -0.1614  1.01  0.01057  -0.005353  -0.003653  -0.04481  0.6824  0.1673
6.546e+09  0.1793  0.9983  -0.001651  -0.007812  0.0006311  -0.006398  0.6998  -0.0975
6.548e+09  0.5248  0.9358  0.003069  -0.01826  -0.04652  0.0002604  0.6704  -0.3367
6.549e+09  0.7984  0.5857  0.022  0.006206  0.01295  0.04251  0.4993  -0.532
6.55e+09  0.9897  0.3191  0.01455  -0.006888  -0.01452  -0.0151  0.2864  -0.6949
6.551e+09  1.084  -0.01584  -0.01016  0.02003  -0.06528  -0.03306  0.0348  -0.7615
