# Hz S RI R 50
6.25e+09  0.1648  0.9677  0.0196  -0.01115  0.01896  -0.04149  0.1513  0.4762
6.251e+09  0.5463  0.7845  -0.01332  0.003541  0.04753  -0.006818  0.3427  0.4098
6.252e+09  0.7898  0.5433  -0.007458  0.01895  0.01516  -0.0251  0.515  0.2582
6.254e+09  0.9014  0.2417  -0.00537  -0.008744  -0.03352  -0.006298  0.644  0.0412
6.255e+09  0.925  -0.09749  -0.01301  -0.007437  0.06598  0.03142  0.5848  -0.2165
6.256e+09  0.8475  -0.3831  0.005671  0.02324  0.04763  -0.01277  0.4676  -0.4657
6.258e+09  0.6952  -0.6587  0.005308  -0.009482  -0.009253  -0.02185  0.2743  -0.6225
6.259e+09  0.3901  -0.8844  -0.006251  -0.02128  -0.003577  -0.0187  0.06849  -0.6756
6.26e+09  0.09832  -0.9628  -0.004615  0.02927  0.08104  0.01129  -0.2034  -0.6464
6.261e+09  -0.2233  -0.8716  0.0004291  -0.01895  -0.03717  -0.008322  -0.4208  -0.5459
6.262e+09  -0.5471  -0.7063  -0.0126  0.02813  0.02961  -0.01953  -0.6429  -0.3521
6.264e+09  -0.8011  -0.4813  0.0002985  -0.009961  0.03802  0.00125  -0.7192  -0.1248
6.265e+09  -0.8347  -0.2084  0.01995  0.007568  0.01343  -0.02249  -0.6991  0.1741
6.266e+09  -0.9215  0.13  0.009955  -0.009873  -0.03112  0.009023  -0.6091  0.3903
6.268e+09  -0.8233  0.3636  0.00352  -0.001745  0.04132  -0.06552  -0.4367  0.582
6.269e+09  -0.6261  0.7028  -0.02758  -0.04118  0.08461  0.04991  -0.1596  0.7067
6.27e+09  -0.3575  0.8658  0.01232  -0.006094  0.03714  -0.03799  0.06756  0.7341
6.271e+09  -0.0471  0.9218  -0.001389  0.001271  0.006901  0.03675  0.3481  0.6818
6.272e+09  0.2714  0.9083  -0.01158  0.003236  -0.04435  0.02619  0.5327  0.5459
6.274e+09  0.5752  0.7146  0.04969  -0.02474  0.03751  -0.01092  0.7054  0.2829
6.275e+09  0.7945  0.474  -0.01861  0.002098  -0.01195  0.009859  0.7564  0.05317
6.276e+09  0.9135  0.1893  -0.01707  0.04123  0.0569  0.0393  0.6977  -0.207
6.278e+09  0.9072  -0.1589  -0.01488  0.001905  0.009556  0.03536  0.6413  -0.4462
6.279e+09  0.7619  -0.4556  0.04687  0.02064  0.02003  0.006398  0.4138  -0.6206
6.28e+09  0.5916  -0.6774  -0.005055  0.01309  0.004775  -0.0176  0.1759  -0.7381
6.281e+09  0.3177  -0.8921  0.01402  -0.001782  -0.002191  0.03068  -0.132  -0.7709
6.282e+09  0.01334  -0.9178  0.02335  -0.01119  -0.02835  -0.002592  -0.3642  -0.6795
6.284e+09  -0.3097  -0.8692  -0.01305  0.01526  0.04319  -0.01675  -0.6162  -0.4917
6.285e+09  -0.6476  -0.7304  -0.002209  -0.01692  -0.02341  -0.0248  -0.7296  -0.2929
6.286e+09  -0.8064  -0.448  0.00177  0.003923  -0.003801  -0.02866  -0.7713  -0.03575
6.288e+09  -0.8977  -0.13  0.02369  0.002124  -0.02486  -0.04891  -0.7385  0.2497
6.289e+09  -0.8831  0.1926  0.01086  0.01995  0.03852  0.05431  -0.6289  0.4791
6.29e+09  -0.7873  0.5024  -0.02551  -0.01681  -0.01976  -0.007916  -0.4362  0.681
6.291e+09  -0.5698  0.7078  -0.004823  -0.00298  -0.019  0.04493  -0.1471  0.75
6.292e+09  -0.2988  0.8973  0.01032  0.004264  0.03866  -0.02194  0.1491  0.806
6.294e+09  0.07387  0.9073  0.001862  -0.002852  -0.01521  0.004095  0.3999  0.718
6.295e+09  0.3817  0.8363  -0.003873  -0.008837  0.002283  0.0121  0.6207  0.5322
6.296e+09  0.6422  0.7253  0.02606  -0.01201  -0.01838  0.009809  0.7596  0.3119
6.298e+09  0.8345  0.4264  0.02151  -0.01502  0.02534  0.01038  0.8462  0.007516
6.299e+09  0.9198  0.08506  0.02083  -0.01838  0.004551  -0.02963  0.7844  -0.2768
6.3e+09  0.9897  -0.1735  0.02454  0.001892  -0.01356  0.007401  0.6347  -0.5333
6.301e+09  0.7914  -0.5316  -0.009147  0.01031  0.01543  -0.02416  0.4204  -0.717
6.302e+09  0.5731  -0.761  0.009389  0.02323  0.008872  -0.01963  0.1444  -0.8483
6.304e+09  0.2189  -0.941  0.006128  0.02554  -0.01193  0.03323  -0.162  -0.8408
6.305e+09  -0.07063  -0.9398  -0.0006183  -0.01084  -0.04069  -0.02344  -0.4149  -0.735
6.306e+09  -0.4027  -0.8955  0.00875  -0.01316  -0.008788  0.003161  -0.6571  -0.5557
6.308e+09  -0.7075  -0.6386  -0.001071  -0.02997  -0.004455  -0.0223  -0.8028  -0.2959
6.309e+09  -0.9224  -0.3472  0.006208  -0.007395  -0.01494  -0.002795  -0.8686  0.02609
6.31e+09  -1.007  -0.04021  0.008737  0.009364  0.03319  -0.01619  -0.8315  0.3144
6.311e+09  -0.9364  0.2851  -0.02079  -0.003179  0.01524  0.02844  -0.6499  0.5237
6.312e+09  -0.7358  0.5771  -0.01097  -0.007695  0.03459  -0.03589  -0.459  0.7637
6.314e+09  -0.5422  0.8477  -0.025  -0.0001878  0.019  0.03094  -0.1639  0.8339
6.315e+09  -0.1816  0.9823  -0.02495  0.007197  -0.03621  -0.0001683  0.1691  0.8676
6.316e+09  0.1949  0.9697  0.004864  -0.03501  -0.00423  0.003145  0.4464  0.7417
6.318e+09  0.5281  0.8847  0.02305  0.02944  -0.04302  -0.01631  0.6498  0.5961
6.319e+09  0.7708  0.6501  0.004331  0.002738  -0.01576  0.005395  0.8499  0.3246
6.32e+09  0.9162  0.3668  -0.02954  -0.04429  -0.01716  -0.002114  0.9062  -0.007364
6.321e+09  0.9948  -0.002553  0.01426  0.005468  -0.02133  0.02233  0.8329  -0.2887
6.322e+09  0.9003  -0.3399  0.001211  0.01139  -0.008412  -0.0009951  0.6786  -0.562
6.324e+09  0.755  -0.6484  -0.002415  -0.001976  -0.01632  -0.03303  0.4674  -0.7987
6.325e+09  0.4974  -0.8846  0.007951  0.0162  0.02387  0.009456  0.1695  -0.8628
6.326e+09  0.1773  -0.9952  0.01868  0.01959  0.03094  0.04368  -0.1404  -0.8979
6.328e+09  -0.2452  -1.04  -0.003157  -0.02463  -0.02452  0.02847  -0.4245  -0.8051
6.329e+09  -0.4775  -0.8964  -0.001463  -0.02336  0.02566  -0.009909  -0.676  -0.6005
6.33e+09  -0.8327  -0.6089  0.004894  -0.024  -0.05294  0.02648  -0.8586  -0.3383
6.331e+09  -1.039  -0.2817  -0.001247  0.0407  0.001273  -0.005537  -0.9405  -0.04603
6.332e+09  -1.041  0.08931  -0.006846  0.009411  -0.03004  -0.03222  -0.8535  0.3018
6.334e+09  -1.016  0.4282  -0.02886  0.002876  -0.02273  0.000512  -0.6992  0.5692
6.335e+09  -0.7541  0.7133  -0.02683  -0.004713  0.03926  -0.02599  -0.4806  0.7855
6.336e+09  -0.4314  0.9638  -0.01715  0.008397  0.005312  -0.01341  -0.1884  0.8895
6.338e+09  -0.08144  1.116  0.02376  0.01886  0.001934  0.01857  0.1082  0.9242
6.339e+09  0.2717  1.112  -0.01591  0.002311  -0.01155  0.0134  0.435  0.82
6.34e+09  0.6359  0.8731  -0.02435  0.006721  -0.01658  0.0001411  0.6793  0.6502
6.341e+09  0.8844  0.6202  0.008242  -0.003385  0.01759  0.03016  0.8432  0.3463
6.342e+09  1.111  0.2968  -0.02369  0.03099  0.02925  0.012  0.9296  0.04252
6.344e+09  1.082  -0.1093  -0.02547  -0.02099  -0.01098  -0.003742  0.8758  -0.2414
6.345e+09  1.049  -0.4588  -0.02296  -0.0323  0.01977  -0.01474  0.7818  -0.5415
6.346e+09  0.7311  -0.8517  0.003485  0.01047  0.05883  -0.0333  0.5184  -0.7931
6.348e+09  0.4271  -1.058  0.009895  0.008025  0.01201  -0.002038  0.2277  -0.9211
6.349e+09  0.02848  -1.156  -0.03114  0.002456  0.01172  -0.00626  -0.103  -0.9384
6.35e+09  -0.3674  -1.08  -0.02501  0.008348  -0.01334  -0.003066  -0.438  -0.8265
6.351e+09  -0.7022  -0.9112  -0.03442  -0.03783  0.06738  0.00291  -0.6945  -0.6855
6.352e+09  -1.011  -0.5996  0.008934  -0.03432  0.03036  0.02111  -0.8567  -0.3657
6.354e+09  -1.172  -0.1978  -0.007119  0.05309  -0.03687  -0.0133  -0.9384  -0.04222
6.355e+09  -1.107  0.1811  -0.01002  0.007637  0.007614  0.01563  -0.943  0.2744
6.356e+09  -1.015  0.594  0.002101  0.02209  0.01447  -0.001312  -0.823  0.5747
6.358e+09  -0.7842  0.9447  -0.03308  -0.02114  -0.01523  0.01426  -0.5212  0.7931
6.359e+09  -0.4063  1.104  0.05016  0.003799  0.01021  -0.01641  -0.2704  0.916
6.36e+09  0.01661  1.158  -0.001284  -0.01325  -0.02377  -0.0008909  0.078  0.9299
6.361e+09  0.4364  1.107  -0.003608  -0.01921  0.02905  -0.01902  0.4047  0.8594
6.362e+09  0.8432  0.8875  0.03032  -0.001237  0.01515  0.0155  0.6754  0.6555
6.364e+09  1.091  0.5979  0.02071  -0.03412  -0.0008109  -0.04603  0.8282  0.4026
6.365e+09  1.214  0.138  -0.0138  -0.00114  0.007172  0.06897  0.9173  0.05941
6.366e+09  1.182  -0.3087  0.01933  0.03018  -0.002514  -0.02106  0.9241  -0.249
6.368e+09  0.9806  -0.7279  0.01531  -0.001014  -0.01808  -0.01523  0.8033  -0.5667
6.369e+09  0.7627  -1.022  -0.03342  -0.01543  0.04796  -0.02299  0.5704  -0.7911
6.37e+09  0.3374  -1.188  -0.0722  -0.001315  -0.009935  0.001505  0.2466  -0.9236
6.371e+09  -0.09358  -1.265  0.009382  0.02452  -0.04598  0.004865  -0.09598  -0.9514
6.372e+09  -0.5706  -1.167  -0.0002823  0.01719  0.03395  0.009358  -0.3586  -0.859
6.374e+09  -0.9055  -0.8946  -0.004514  -0.03722  0.007187  -0.06677  -0.6726  -0.6652
6.375e+09  -1.206  -0.4985  -0.02545  -0.004791  -0.06619  -0.03192  -0.8958  -0.4091
6.376e+09  -1.309  -0.06044  0.009339  0.005547  0.01545  -0.01155  -0.8855  -0.08433
6.378e+09  -1.187  0.3948  0.03623  -0.002645  -0.00925  -0.003589  -0.8962  0.2622
6.379e+09  -1.03  0.7953  -0.003668  0.01893  0.008943  0.01315  -0.7672  0.5253
6.38e+09  -0.7213  1.123  -0.01862  -0.02843  -0.004197  -0.00608  -0.5592  0.7565
6.381e+09  -0.2438  1.347  -0.03748  0.02283  0.0365  -0.01851  -0.2343  0.9011
6.382e+09  0.1867  1.344  0.04514  -0.01137  -0.005733  0.01602  0.07276  0.9678
6.384e+09  0.6755  1.184  -0.04026  -0.004605  -0.02302  0.0004993  0.3759  0.894
6.385e+09  1.052  0.8994  0.01016  0.02767  0.0235  -0.06874  0.6357  0.715
6.386e+09  1.297  0.4534  -0.03978  -0.008293  -0.02905  0.06417  0.8249  0.4627
6.388e+09  1.38  -0.03031  -0.02952  -0.00707  0.003784  -0.02591  0.9187  0.1471
6.389e+09  1.325  -0.4948  0.03063  -0.03749  0.08263  -0.03226  0.9173  -0.2426
6.39e+09  1.065  -0.9187  -0.02234  0.02317  0.0392  -0.01895  0.7654  -0.5138
6.391e+09  0.7262  -1.232  0.01144  0.02762  -0.01417  0.05056  0.5765  -0.6879
6.392e+09  0.2087  -1.461  -0.009487  -0.03076  -0.008118  0.003654  0.2463  -0.8919
6.394e+09  -0.3319  -1.455  -0.03967  -0.007051  -0.00233  0.05648  -0.05399  -0.9041
6.395e+09  -0.8161  -1.285  0.02007  0.01409  0.01627  -0.001664  -0.3601  -0.8371
6.396e+09  -1.147  -0.9053  -0.002948  -0.04653  0.005832  0.003609  -0.6373  -0.7022
6.398e+09  -1.453  -0.4365  0.01398  -0.002387  0.0218  0.001442  -0.8294  -0.4196
6.399e+09  -1.525  0.06694  0.01769  0.03538  0.004624  0.0215  -0.8962  -0.1182
6.4e+09  -1.4  0.6927  -0.0004568  0.001178  -0.01285  -0.04884  -0.9014  0.1868
6.401e+09  -1.07  1.03  0.007066  -0.037  -0.04564  -0.01701  -0.8049  0.4762
6.402e+09  -0.6405  1.345  0.04105  -0.02995  -0.04775  -0.03547  -0.5747  0.7025
6.404e+09  -0.1227  1.54  -0.02131  -0.005403  -0.01225  -0.006855  -0.3323  0.87
6.405e+09  0.411  1.537  0.0121  0.01018  0.02151  0.002934  0.01363  0.9453
6.406e+09  0.9642  1.253  -0.01154  -0.006339  0.0191  -0.01153  0.3083  0.8513
6.408e+09  1.321  0.8258  -0.03718  -0.02921  0.02189  0.01491  0.594  0.6837
6.409e+09  1.505  0.3468  -0.02934  0.02029  0.01161  -0.04452  0.7773  0.4514
6.41e+09  1.561  -0.2344  -0.006162  -0.01075  0.05486  -0.01945  0.8614  0.1701
6.411e+09  1.425  -0.7777  0.04128  0.0273  -0.01212  0.0008915  0.9161  -0.203
6.412e+09  1.06  -1.274  -0.04969  0.01075  0.02847  -0.003977  0.8025  -0.4933
6.414e+09  0.6308  -1.58  0.03608  0.02674  -0.03747  0.0218  0.588  -0.6646
6.415e+09  -0.01859  -1.643  -0.003776  0.007583  -3.651e-05  0.001149  0.3595  -0.8235
6.416e+09  -0.5345  -1.549  -0.0557  0.02841  -0.01994  0.01885  0.02014  -0.8902
6.418e+09  -1.072  -1.316  -0.01866  0.02873  -0.02179  -0.02207  -0.2908  -0.8187
6.419e+09  -1.413  -0.8086  -0.02448  -0.006136  0.01374  0.01372  -0.5264  -0.6864
6.42e+09  -1.695  -0.2507  -0.04072  0.004304  0.003039  -0.02878  -0.7344  -0.495
6.421e+09  -1.722  0.4001  0.005537  0.01547  0.06497  0.0006769  -0.8859  -0.1799
6.422e+09  -1.492  0.967  0.01483  -0.001537  -0.04405  0.064  -0.8846  0.1126
6.424e+09  -1.059  1.399  -0.0009487  0.03004  0.0538  0.01743  -0.7766  0.4044
6.425e+09  -0.4772  1.689  -0.009869  0.004049  0.02452  0.04095  -0.6059  0.659
6.426e+09  0.133  1.753  0.003471  -0.01702  0.01875  -0.03057  -0.3194  0.8457
6.428e+09  0.841  1.629  -0.006505  -0.01968  -0.00696  0.03343  -0.0416  0.8749
6.429e+09  1.269  1.301  0.01414  -0.02219  -0.0164  -0.007455  0.2392  0.8387
6.43e+09  1.685  0.7006  0.05779  -0.005386  -0.006676  -0.05871  0.5418  0.6833
6.431e+09  1.842  0.1412  -0.02736  -0.01874  -0.01118  0.02099  0.7411  0.498
6.432e+09  1.778  -0.5513  0.01421  0.01504  -0.01408  0.0437  0.7897  0.2299
6.434e+09  1.49  -1.156  -0.005174  -0.01241  -0.07187  -0.0129  0.8664  -0.1355
6.435e+09  0.995  -1.604  -0.007444  -0.02855  0.002303  0.04746  0.8318  -0.3452
6.436e+09  0.3668  -1.896  0.01851  -0.01051  -0.01195  0.0007144  0.6063  -0.6309
6.438e+09  -0.3036  -1.979  -0.01455  -0.01612  0.0268  0.0332  0.3888  -0.7821
6.439e+09  -1.001  -1.74  0.007318  -0.01727  0.01308  -0.02688  0.04978  -0.8414
6.44e+09  -1.59  -1.305  -0.01852  0.06446  -0.02831  -0.0316  -0.2607  -0.8203
6.441e+09  -1.932  -0.6591  -0.03171  -0.0467  0.02845  -0.03992  -0.505  -0.6683
6.442e+09  -2.045  0.03569  0.04008  0.01521  -0.01795  0.06495  -0.7029  -0.4696
6.444e+09  -1.966  0.7892  0.0115  -0.006744  -0.0143  0.02824  -0.8183  -0.1561
6.445e+09  -1.534  1.552  0.02206  0.0006694  -0.01316  -0.005011  -0.8792  0.08252
6.446e+09  -0.9741  1.961  -0.003906  -0.006705  0.009669  0.01974  -0.7829  0.3882
6.448e+09  -0.2243  2.181  0.01802  0.02879  0.01817  0.04323  -0.5937  0.575
6.449e+09  0.5745  2.127  0.01611  -0.0125  0.02218  -0.007168  -0.3586  0.789
6.45e+09  1.342  1.874  -0.01879  0.0296  -0.04244  0.002383  -0.08059  0.8028
6.451e+09  1.897  1.234  0.02292  -0.02886  0.0416  0.07464  0.2135  0.7337
6.452e+09  2.294  0.5262  -0.004322  0.01663  0.0546  -0.02889  0.4863  0.6595
6.454e+09  2.32  -0.3637  -0.00691  0.02334  0.01915  0.004805  0.6743  0.4811
6.455e+09  2.139  -1.161  -0.01852  0.01791  -0.00222  0.005968  0.8418  0.2187
6.456e+09  1.689  -1.835  -0.00388  0.01495  0.01354  -0.02191  0.8347  -0.08881
6.458e+09  0.9094  -2.442  0.02208  0.0004471  0.008372  0.06576  0.7332  -0.3716
6.459e+09  -0.06238  -2.664  -0.03482  0.01191  0.03575  -0.0228  0.5782  -0.5399
6.46e+09  -1.001  -2.456  0.002223  -0.001075  0.007969  -0.01947  0.3721  -0.7431
6.461e+09  -1.748  -1.996  -0.01571  -0.03352  0.007428  -0.004894  0.032  -0.8221
6.462e+09  -2.482  -1.266  -0.0317  0.002679  0.02767  -0.02684  -0.2451  -0.8015
6.464e+09  -2.865  -0.3252  -0.03026  -0.005783  0.02006  -0.03345  -0.4824  -0.654
6.465e+09  -2.782  0.6683  -0.01576  0.0064  0.008447  -0.04825  -0.6555  -0.4603
6.466e+09  -2.522  1.731  0.02623  -0.01521  0.04171  0.02642  -0.7698  -0.1932
6.468e+09  -1.681  2.575  -0.01978  -0.007508  0.04756  -0.03529  -0.8342  0.0674
6.469e+09  -0.7043  3.106  -0.02657  0.003191  0.02952  -0.02728  -0.7074  0.3166
6.47e+09  0.5622  3.216  0.01373  -0.04452  -0.0325  -0.02481  -0.5676  0.544
6.471e+09  1.73  2.945  0.01399  -0.0191  -0.00475  -0.03904  -0.3451  0.7553
6.472e+09  2.737  2.261  -0.004575  -0.001296  -0.01071  -0.04544  -0.03764  0.8261
6.474e+09  3.443  1.117  0.008846  0.01734  -0.01552  -0.007593  0.2282  0.7254
6.475e+09  3.771  -0.2548  0.005455  0.02594  -0.04693  -0.00388  0.4494  0.6104
6.476e+09  3.45  -1.634  0.01461  -0.00192  -0.03348  0.006041  0.6828  0.4065
6.478e+09  2.677  -2.956  0.04757  0.03268  0.04215  -0.0733  0.7586  0.1902
6.479e+09  1.471  -3.861  -0.03225  0.01409  0.07392  0.05387  0.8125  -0.1193
6.48e+09  -0.004071  -4.259  0.01513  0.007608  0.07143  0.09543  0.718  -0.3227
6.481e+09  -1.733  -4.23  0.0434  -0.0008344  0.04588  -0.0279  0.5749  -0.563
6.482e+09  -3.332  -3.477  -0.01482  -0.03458  -0.06845  0.01069  0.3082  -0.7106
6.484e+09  -4.493  -1.96  0.04237  -0.04072  0.1031  -0.006265  0.0569  -0.7979
6.485e+09  -5.105  0.04015  0.03151  0.00209  0.04763  -0.05198  -0.2308  -0.7742
6.486e+09  -4.973  2.01  0.04244  0.01755  -0.06373  -0.047  -0.4332  -0.6358
6.488e+09  -4.16  3.262  0.01126  -0.02744  -0.6196  0.5102  -0.6236  -0.4173
6.489e+09  -2.167  5.429  0.02426  -0.01301  -0.03925  0.01402  -0.745  -0.1727
6.49e+09  0.1203  6.162  -0.02501  0.01974  0.06536  0.05196  -0.756  0.1123
6.491e+09  2.85  5.976  -0.02076  0.009  0.1074  0.01253  -0.7401  0.332
6.492e+09  5.389  4.379  0.04496  0.01175  0.007024  -0.1127  -0.5781  0.5294
6.494e+09  7.03  1.989  0.01459  0.006329  0.03184  -0.08568  -0.287  0.7203
6.495e+09  7.316  -1.22  0.01205  0.02921  0.0136  -0.02563  -0.0535  0.7383
6.496e+09  6.208  -4.432  -0.03488  0.003046  0.02151  -0.06655  0.2235  0.748
6.498e+09  3.763  -6.819  0.04751  0.02079  -0.04267  0.07616  0.4586  0.6207
6.499e+09  0.4031  -8.079  -0.0329  -0.009013  0.01338  -0.05402  0.6075  0.4348
6.5e+09  2.045  -2.031  0.03331  0.0008541  0.01067  -0.04445  0.7424  0.1806
6.501e+09  -6.281  -5.172  -0.072  -0.02168  -0.04499  -0.02473  0.7196  -0.1167
6.502e+09  -7.688  -1.987  -0.04693  0.04622  0.008382  -0.0971  0.7121  -0.3487
6.504e+09  -7.616  1.592  -0.02468  -0.006071  -0.01674  -0.1163  0.5212  -0.5703
6.505e+09  -5.894  4.468  0.02045  0.02887  0.01012  0.0004222  0.2759  -0.6968
6.506e+09  -3.295  6.115  -0.02238  0.03482  0.03513  -0.006123  0.03864  -0.7845
6.508e+09  -0.4961  6.726  0.01789  -0.01876  -0.005842  0.02592  -0.283  -0.6989
6.509e+09  2.18  5.889  -0.01382  0.022  0.06985  -0.0507  -0.5137  -0.5816
6.51e+09  4.21  4.293  -0.04398  -0.02612  0.004376  0.02511  -0.6431  -0.404
6.511e+09  5.285  2.213  0.0115  -0.01351  0.05719  0.01136  -0.7418  -0.137
6.512e+09  5.449  -0.01449  0.0066  -0.01812  0.02535  -0.04517  -0.7239  0.1051
6.514e+09  4.766  -2.003  -0.02138  -0.01691  0.03855  -0.03022  -0.6647  0.3729
6.515e+09  3.407  -3.41  -0.02269  0.008412  0.05793  0.07902  -0.4737  0.5722
6.516e+09  1.744  -4.354  0.008719  0.006404  -0.06378  4.293e-05  -0.2583  0.703
6.518e+09  0.0003386  -4.494  -0.000743  0.02154  0.05  -0.03397  0.01048  0.7433
6.519e+09  -1.622  -3.912  -0.009772  -0.01035  -0.006335  0.09674  0.2676  0.7388
6.52e+09  -2.826  -3.018  0.0004468  -0.03137  0.03473  0.04632  0.5263  0.5697
6.521e+09  -3.547  -1.565  -0.01046  0.01431  0.02621  0.05723  0.6446  0.3449
6.522e+09  -3.738  -0.1801  -0.004417  -0.006799  -0.08096  0.02139  0.724  0.1004
6.524e+09  -3.353  1.123  -0.006108  0.009028  -0.01581  -0.09677  0.7686  -0.1676
6.525e+09  -2.677  2.243  -0.00571  -0.03925  0.04524  0.0398  0.6171  -0.394
6.526e+09  -1.524  2.959  0.007552  -0.0004776  0.009243  -0.01064  0.4313  -0.5905
6.528e+09  -0.4144  3.199  -0.00846  0.003813  0.01142  -0.02978  0.1672  -0.706
6.529e+09  0.7477  3.006  -0.003956  -0.01642  0.02012  -0.08104  -0.07042  -0.694
6.53e+09  1.739  2.493  0.0002726  0.01485  0.01565  -0.03571  -0.2592  -0.6522
6.531e+09  2.415  1.658  -0.005898  0.0466  0.0161  -0.02211  -0.4581  -0.4416
6.532e+09  2.789  0.6088  0.03432  0.03348  0.004025  -0.03607  -0.5939  -0.3017
6.534e+09  2.725  -0.4117  0.002929  -0.01214  -0.048  -0.06624  -0.6231  -0.08821
6.535e+09  2.365  -1.202  0.02654  -0.0222  -0.06285  -0.1193  -0.6829  0.1232
6.536e+09  1.678  -2.006  -0.01925  -0.01497  -0.02467  -0.009265  -0.5573  0.3114
6.538e+09  0.8468  -2.446  -0.02007  -0.01215  -0.08492  0.02341  -0.4233  0.4809
6.539e+09  -0.07128  -2.499  -0.003521  -0.02497  0.03042  -0.03811  -0.248  0.635
6.54e+09  -0.8985  -2.243  -0.0003702  0.01453  -0.02453  -0.02146  -0.0406  0.703
6.541e+09  -1.649  -1.725  0.02172  0.01264  -0.009583  -0.02027  0.2211  0.6595
6.542e+09  -2.091  -1.039  0.004258  0.01798  0.002292  -0.008203  0.4238  0.5607
6.544e+09  -2.335  -0.2586  -0.002291  -0.01598  0.07531  -0.03894  0.5801  0.3905
6.545e+09  -2.167  0.6109  0.001332  0.009757  0.01338  -0.07787  0.7217  0.1662
6.546e+09  -1.818  1.274  0.001834  0.01003  0.05078  -0.02079  0.7347  -0.0594
6.548e+09  -1.207  1.822  0.008234  -0.02756  -0.01096  0.03155  0.6676  -0.3346
6.549e+09  -0.5246  2.065  0.004883  -0.007339  0.03628  -0.01256  0.522  -0.5174
6.55e+09  0.2781  2.094  -0.01005  -0.03976  0.003389  0.07216  0.2796  -0.6698
6.551e+09  0.9381  1.87  -0.0261  0.001231  0.01427  -0.003925  0.04424  -0.7711
6.552e+09  1.54  1.357  0.02607  0.01384  -0.04379  0.02246  -0.196  -0.6773
6.554e+09  1.91  0.69  -0.01629  0.002785  0.012  0.01288  -0.4361  -0.578
6.555e+09  1.934  -0.06679  0.009824  -0.004448  -0.001638  0.03827  -0.6446  -0.3872
