# Hz S RI R 50
6.25e+09  0.5111  0.7735  -0.00272  -0.02792  -0.002734  0.03213  0.1774  0.4737
6.251e+09  0.7677  0.5557  0.00609  -0.01548  -0.0008335  0.05728  0.3684  0.4073
6.252e+09  0.9312  0.2319  0.01828  -0.02589  0.01935  0.01315  0.5537  0.2179
6.254e+09  0.9525  -0.08834  0.001845  -0.007554  -0.0006465  -0.02783  0.6037  -0.001396
6.255e+09  0.8791  -0.4322  0.01624  -0.02427  -0.01115  0.03566  0.576  -0.2373
6.256e+09  0.697  -0.7214  0.00185  -0.01294  0.03139  0.008817  0.4634  -0.4512
6.258e+09  0.3759  -0.8805  0.02944  -0.02192  0.003892  -0.0145  0.3139  -0.628
6.259e+09  0.08293  -0.9602  0.01183  -0.003458  0.005104  0.034  0.03458  -0.6888
6.26e+09  -0.2683  -0.8456  0.004497  0.02058  -0.03543  0.04413  -0.2096  -0.6567
6.261e+09  -0.5558  -0.697  0.009442  -0.02404  -0.06883  -0.02371  -0.4578  -0.5375
6.262e+09  -0.8293  -0.5713  -0.0001868  -0.02123  0.04323  -0.0005502  -0.6106  -0.3616
6.264e+09  -0.9985  -0.2277  0.01631  0.008603  -0.005686  0.04445  -0.6833  -0.1248
6.265e+09  -0.9031  0.1617  -0.005362  -0.004563  0.03367  -0.04183  -0.6883  0.1332
6.266e+09  -0.831  0.452  0.005104  0.03409  -0.003091  -0.0001352  -0.604  0.3793
6.268e+09  -0.6562  0.754  -0.0157  -0.02209  0.001746  -0.01944  -0.4597  0.6128
6.269e+09  -0.3704  0.8465  0.01284  -0.009629  0.01422  -0.00689  -0.2131  0.7359
6.27e+09  -0.02913  0.9337  0.01726  0.0003016  0.02697  -0.0304  0.08537  0.6941
6.271e+09  0.3092  0.9081  -0.02474  0.002863  0.02566  0.000915  0.3648  0.6785
6.272e+09  0.6034  0.7179  -0.002241  0.01653  0.06408  0.01186  0.5204  0.5271
6.274e+09  0.8391  0.4983  0.001041  0.02341  0.03469  -0.006713  0.6813  0.3121
6.275e+09  0.9519  0.1455  0.008478  0.0002344  -0.001454  -0.03835  0.7663  0.02728
6.276e+09  0.9548  -0.1825  0.00986  -0.002915  0.01764  0.02997  0.6971  -0.2245
6.278e+09  0.7789  -0.5208  0.0002227  -0.02005  0.01431  -0.01166  0.5966  -0.4572
6.279e+09  0.5919  -0.704  -0.01834  -0.0007938  0.01865  0.009205  0.4346  -0.6657
6.28e+09  0.3208  -0.9255  -0.005712  -0.03896  -0.01375  0.02805  0.1728  -0.7446
6.281e+09  -0.04984  -0.9583  0.002661  -0.02254  -0.06493  0.008998  -0.09857  -0.794
6.282e+09  -0.4193  -0.8919  0.001028  -0.01211  -0.001376  0.004974  -0.3663  -0.7072
6.284e+09  -0.6032  -0.6682  0.001679  0.005206  0.01979  0.04676  -0.6188  -0.5189
6.285e+09  -0.9071  -0.4445  0.04846  -0.003602  0.007527  -0.02192  -0.7284  -0.2941
6.286e+09  -0.973  -0.05147  0.008867  -0.003561  0.02224  -0.04681  -0.8226  -0.03909
6.288e+09  -0.9248  0.2712  0.00593  -0.01601  -0.00802  -0.02685  -0.7589  0.2794
6.289e+09  -0.8184  0.5519  0.03988  -0.002053  -0.07851  -0.006147  -0.6168  0.5457
6.29e+09  -0.5245  0.7805  0.03029  -0.0183  0.007792  0.01184  -0.454  0.697
6.291e+09  -0.2183  0.9664  0.03205  -0.03665  0.0252  -0.03774  -0.1642  0.7944
6.292e+09  0.1493  0.9893  0.02386  0.002643  -0.0007062  0.01588  0.136  0.8117
6.294e+09  0.4193  0.8542  0.01826  -0.005355  -0.01405  0.04461  0.4094  0.7065
6.295e+09  0.7119  0.6553  0.0212  -0.01377  0.06608  -0.009607  0.6346  0.5353
6.296e+09  0.8837  0.3456  -0.003781  -0.01529  -0.02582  -0.01998  0.7467  0.2912
6.298e+09  0.9517  -0.0268  0.0214  -0.005408  -0.07556  -0.0167  0.821  0.00998
6.299e+09  0.8849  -0.3275  -0.007661  0.01204  0.01406  0.004909  0.7887  -0.2514
6.3e+09  0.7479  -0.6426  0.008683  -0.01637  0.01741  0.02911  0.6563  -0.5339
6.301e+09  0.4816  -0.8998  -0.006714  -0.02723  0.0199  0.008528  0.4652  -0.7103
6.302e+09  0.1347  -0.9521  0.01554  0.001927  -0.01222  -0.01816  0.159  -0.8217
6.304e+09  -0.17  -0.9814  0.02287  -0.006286  -0.0151  -0.05041  -0.1435  -0.8339
6.305e+09  -0.5511  -0.8101  0.02311  0.02053  0.01021  0.009628  -0.3975  -0.7632
6.306e+09  -0.7988  -0.59  -0.02851  -0.001574  0.01456  0.01672  -0.6245  -0.5917
6.308e+09  -0.9584  -0.2577  0.003717  -0.01074  0.0008966  0.04294  -0.81  -0.3161
6.309e+09  -1.023  0.02622  -0.003959  0.03525  -0.02933  -0.03898  -0.8653  -0.03096
6.31e+09  -0.9389  0.3759  0.01314  -0.008442  -0.03451  -0.02873  -0.8082  0.2901
6.311e+09  -0.6985  0.6914  -0.006173  -0.02455  -0.002846  0.01294  -0.6634  0.5761
6.312e+09  -0.4392  0.8903  0.0263  -0.009341  -0.06396  0.002418  -0.4239  0.7816
6.314e+09  -0.0655  0.9962  -0.04876  -0.01018  -0.03211  -0.01643  -0.1604  0.8744
6.315e+09  0.3069  1.005  -0.02407  0.01012  0.01177  0.01622  0.1309  0.8612
6.316e+09  0.57  0.8171  0.01178  -0.01847  -0.03845  -0.01831  0.4359  0.7468
6.318e+09  0.8533  0.5381  -0.009198  0.03677  0.02986  0.03164  0.6614  0.5534
6.319e+09  0.9662  0.2665  0.01803  -0.007707  -0.004408  0.02768  0.8237  0.3293
6.32e+09  1.07  -0.1347  0.02202  -0.03969  -0.01002  -0.003039  0.8792  -0.0164
6.321e+09  0.9582  -0.5099  0.005288  0.005962  0.02048  -0.04193  0.8466  -0.2836
6.322e+09  0.6926  -0.7466  0.004893  -0.002735  0.04059  -0.02742  0.7144  -0.5639
6.324e+09  0.449  -0.9235  0.03778  0.01482  -0.02626  0.02247  0.473  -0.7671
6.325e+09  0.0002659  -1.017  0.0004238  -0.005069  0.01937  0.05757  0.1802  -0.8853
6.326e+09  -0.3024  -1.009  -0.01022  0.008241  0.02584  0.04019  -0.174  -0.8761
6.328e+09  -0.6476  -0.7901  0.01168  -0.006739  -0.004804  0.003509  -0.4064  -0.8009
6.329e+09  -0.8884  -0.5251  0.0086  -0.01418  -0.02774  0.0038  -0.6932  -0.6006
6.33e+09  -0.9881  -0.1517  -0.02841  0.02876  0.01294  -0.03126  -0.8443  -0.3073
6.331e+09  -1.011  0.1685  -0.007703  -0.02493  0.02763  -0.0165  -0.9064  -0.03506
6.332e+09  -0.8917  0.5398  0.003516  0.04724  -0.03488  -0.02192  -0.8671  0.2828
6.334e+09  -0.6781  0.8164  -0.003257  -0.01398  0.03072  -0.01378  -0.7021  0.5493
6.335e+09  -0.3026  1.028  0.0108  0.01793  0.03289  -0.03878  -0.4807  0.7727
6.336e+09  0.04235  1.076  -0.02935  -0.001335  -0.01805  -0.01076  -0.2085  0.9186
6.338e+09  0.4328  1.011  0.007762  0.01148  -0.02255  -0.0215  0.09693  0.8821
6.339e+09  0.7107  0.8014  -0.01443  0.01781  0.002878  0.03663  0.464  0.8125
6.34e+09  0.9765  0.4926  0.01178  0.009243  0.002464  0.02708  0.685  0.6296
6.341e+09  1.115  0.09228  0.02616  -0.008176  0.0207  -0.0134  0.8855  0.3232
6.342e+09  1.07  -0.232  -0.01964  0.03271  -0.03803  0.00481  0.9446  0.02412
6.344e+09  0.9317  -0.6283  0.0003192  0.01047  0.01668  0.03118  0.8861  -0.3016
6.345e+09  0.6132  -0.88  0.01967  -0.02046  -0.0175  -0.04183  0.7238  -0.5506
6.346e+09  0.2893  -1.082  -0.01947  -0.01799  -0.01863  0.04172  0.4883  -0.81
6.348e+09  -0.09408  -1.151  0.06644  0.0247  0.007897  -0.0005029  0.1988  -0.9014
6.349e+09  -0.4772  -0.9913  0.009362  0.02133  -0.008841  0.03296  -0.08296  -0.8974
6.35e+09  -0.8402  -0.7621  -0.02753  -0.0004608  -0.04029  0.011  -0.3958  -0.8712
6.351e+09  -1.072  -0.4391  0.003846  -0.01162  0.007255  0.02017  -0.6953  -0.6514
6.352e+09  -1.173  -0.001899  -0.01211  -0.03594  0.006798  -0.03567  -0.897  -0.3767
6.354e+09  -1.074  0.3465  -0.04316  0.0173  -0.005749  -0.005429  -0.9641  -0.102
6.355e+09  -0.9436  0.7244  0.005688  0.003987  0.02541  0.003561  -0.9311  0.2822
6.356e+09  -0.6027  0.9629  -0.02076  -0.009245  0.03627  -0.009276  -0.7734  0.5846
6.358e+09  -0.2504  1.139  -0.008833  0.02742  -0.01552  0.008489  -0.5341  0.7663
6.359e+09  0.178  1.117  -0.01913  0.02049  0.01383  -0.01568  -0.2421  0.9049
6.36e+09  0.5637  1.059  -0.03317  0.02101  -0.0232  0.01235  0.1033  0.9215
6.361e+09  0.9245  0.7886  -0.0146  -0.0105  -0.01228  0.03377  0.4192  0.8905
6.362e+09  1.125  0.3965  -0.02782  -0.02285  -0.005966  0.001618  0.6902  0.6548
6.364e+09  1.154  0.003357  0.01621  0.02573  -0.002122  0.003293  0.8576  0.4038
6.365e+09  1.067  -0.438  0.007492  -0.01758  0.01701  0.04997  0.9721  0.08495
6.366e+09  0.9446  -0.7788  0.01122  0.0107  0.0295  0.02041  0.9153  -0.2781
6.368e+09  0.5868  -1.065  0.008039  -0.01179  -0.009202  0.03337  0.733  -0.5697
6.369e+09  0.2176  -1.184  -0.0148  0.01721  -0.02372  0.005228  0.5482  -0.78
6.37e+09  -0.2456  -1.215  -0.02367  -0.009264  -0.004544  0.006833  0.2076  -0.9322
6.371e+09  -0.6745  -1.06  -0.003725  -0.02043  0.05059  -0.0189  -0.1134  -0.9327
6.372e+09  -1.012  -0.7609  -0.02697  -0.02504  -0.001092  -0.04577  -0.3926  -0.8682
6.374e+09  -1.202  -0.3561  -0.006879  -0.03235  -0.05578  0.007464  -0.6795  -0.7016
6.375e+09  -1.245  0.09986  0.008014  0.04902  0.02427  0.01563  -0.8895  -0.398
6.376e+09  -1.206  0.4478  -0.02759  0.0007538  0.01541  0.04018  -0.9622  -0.08354
6.378e+09  -0.9652  0.8623  -0.01383  -0.01987  0.02473  0.01379  -0.9149  0.2497
6.379e+09  -0.608  1.183  0.03079  0.03474  -0.01796  -0.0213  -0.7826  0.497
6.38e+09  -0.1597  1.35  0.003905  0.03473  -0.03895  0.003015  -0.5559  0.7759
6.381e+09  0.3181  1.315  -0.01951  -0.00441  -0.02159  0.03721  -0.2643  0.8742
6.382e+09  0.7059  1.117  -0.03559  0.003814  -0.05892  0.0002123  0.03475  0.9257
6.384e+09  1.092  0.7596  -0.01707  -9.782e-05  0.009262  0.0005172  0.4227  0.8319
6.385e+09  1.263  0.361  0.0008466  0.004062  0.002511  -0.001177  0.5752  0.6813
6.386e+09  1.384  -0.1497  -0.02143  0.008891  -0.0184  -0.02751  0.8726  0.428
6.388e+09  1.231  -0.5752  0.001774  0.01776  0.002168  -0.02936  0.8779  0.1038
6.389e+09  0.9559  -0.9868  -0.0002112  0.02944  0.04326  -0.0338  0.8792  -0.1929
6.39e+09  0.5676  -1.247  -0.002166  0.005309  -0.04424  0.01055  0.7493  -0.5168
6.391e+09  0.08464  -1.354  -0.008476  0.04146  0.01018  -0.02983  0.5405  -0.7228
6.392e+09  -0.3731  -1.356  -0.04439  0.006146  -0.001316  -0.02302  0.2817  -0.8613
6.394e+09  -0.8679  -1.159  -0.008231  -0.04192  0.02927  -0.01563  -0.02801  -0.9148
6.395e+09  -1.261  -0.7962  0.0005113  0.009828  0.0221  -0.01907  -0.3367  -0.8501
6.396e+09  -1.409  -0.3765  -0.01888  -0.009875  -0.006538  0.06995  -0.6136  -0.708
6.398e+09  -1.461  0.1291  0.0165  0.0213  0.00662  -0.02995  -0.7686  -0.4382
6.399e+09  -1.322  0.6882  -0.007897  -0.03553  -0.006261  -0.03346  -0.9233  -0.1194
6.4e+09  -1.046  1.18  0.02979  0.01274  0.01646  -0.008173  -0.9401  0.2142
6.401e+09  -0.5793  1.407  0.01863  0.00509  0.03495  0.04443  -0.7986  0.4774
6.402e+09  -0.07499  1.555  -0.04069  0.02822  -0.01978  -0.03064  -0.5859  0.7161
6.404e+09  0.5385  1.533  0.04485  0.008172  0.02815  -0.02852  -0.3313  0.8722
6.405e+09  1.045  1.232  0.002542  -0.005472  0.07578  0.02885  -0.01136  0.8983
6.406e+09  1.403  0.8088  -0.03384  -0.006422  0.01831  0.01708  0.2946  0.9164
6.408e+09  1.658  0.2707  -0.02687  0.0261  -0.002643  -0.0212  0.5917  0.6828
6.409e+09  1.674  -0.3116  -0.01962  0.04659  0.0166  -0.04818  0.7738  0.4713
6.41e+09  1.461  -0.9288  0.00444  -0.05426  0.03113  -0.01042  0.9478  0.1564
6.411e+09  1.062  -1.332  0.04843  0.006767  -0.01502  -0.03108  0.8754  -0.1153
6.412e+09  0.556  -1.666  0.009044  -0.00941  0.0167  -0.02937  0.8107  -0.4865
6.414e+09  -0.1268  -1.824  -0.03738  0.04019  0.0186  -0.009679  0.611  -0.6543
6.415e+09  -0.7763  -1.639  0.018  0.006086  0.02541  0.04402  0.311  -0.8162
6.416e+09  -1.317  -1.247  -0.01181  -0.05709  -0.03972  -0.01749  0.02802  -0.8647
6.418e+09  -1.709  -0.8  0.02303  -0.005573  0.001069  0.005693  -0.2789  -0.8924
6.419e+09  -1.884  -0.1027  -0.01136  -0.01548  -0.02054  -0.01024  -0.5303  -0.7011
6.42e+09  -1.919  0.5866  0.02929  0.003971  -0.007384  0.02499  -0.7737  -0.4772
6.421e+09  -1.566  1.196  -0.06493  0.02948  0.0733  0.06241  -0.8666  -0.2074
6.422e+09  -1.056  1.727  0.001188  -0.01878  0.05578  0.03383  -0.8679  0.1476
6.424e+09  -0.362  2.034  -0.003106  0.0294  -0.02451  0.007455  -0.8188  0.431
6.425e+09  0.3525  2.064  0.02237  0.002594  0.00183  0.03091  -0.6345  0.6282
6.426e+09  1.105  1.798  0.0004861  -0.003705  0.0346  0.0166  -0.3565  0.8346
6.428e+09  1.678  1.346  -0.05156  -0.0333  -0.04849  -0.002562  -0.08151  0.8299
6.429e+09  2.088  0.6793  -0.002065  0.004922  -0.006957  -0.02328  0.2419  0.866
6.43e+09  2.311  -0.1421  0.01546  0.02822  -0.01032  -0.02858  0.5301  0.72
6.431e+09  2.09  -0.9401  0.0005921  -0.00544  -0.03019  -0.0406  0.7208  0.4956
6.432e+09  1.655  -1.642  -0.0001883  -0.005922  -0.006754  0.008799  0.8272  0.2535
6.434e+09  0.9502  -2.142  0.02019  -0.01195  0.01834  0.1073  0.878  -0.007951
6.435e+09  0.05889  -2.439  0.02679  -0.02618  -0.1014  0.04486  0.7745  -0.3614
6.436e+09  -0.8097  -2.399  -0.06153  0.003388  0.07872  0.02141  0.6059  -0.6327
6.438e+09  -1.622  -2.036  0.008544  0.02526  0.04655  0.01498  0.3231  -0.8071
6.439e+09  -2.323  -1.332  -6.932e-05  -0.004247  0.02841  -0.04948  0.05499  -0.9021
6.44e+09  -2.704  -0.3739  -0.04196  -0.02163  -0.01728  -0.006193  -0.2186  -0.8478
6.441e+09  -2.702  0.6377  -0.04002  -0.04221  0.0375  0.002185  -0.4936  -0.6834
6.442e+09  -2.371  1.513  -0.002204  -0.04995  -0.008036  -0.0454  -0.6961  -0.4645
6.444e+09  -1.664  2.353  -0.005624  -0.009643  -0.006521  0.002771  -0.8205  -0.1958
6.445e+09  -0.6671  2.887  -0.009223  0.01422  0.05641  0.00175  -0.859  0.0439
6.446e+09  0.4109  3.012  0.002783  0.0002628  -0.01559  -0.01647  -0.7444  0.3843
6.448e+09  1.527  2.733  0.003985  -0.002195  0.02323  0.008102  -0.5953  0.6199
6.449e+09  2.411  1.941  -0.01044  -0.009365  -0.01324  -0.02506  -0.3739  0.7593
6.45e+09  3.04  0.9092  0.001114  0.02565  -0.02103  0.01369  -0.05971  0.7957
6.451e+09  3.291  -0.2534  0.005605  -0.006883  0.04766  -0.008934  0.2332  0.8274
6.452e+09  3.037  -1.474  0.01682  -0.02041  0.03769  0.001612  0.4953  0.6917
6.454e+09  2.423  -2.552  -0.01159  -0.02968  0.04517  -0.1162  0.6761  0.4635
6.455e+09  1.222  -3.285  -0.01401  0.03726  0.01914  -0.03078  0.7839  0.2245
6.456e+09  -0.06194  -3.649  -0.00505  -0.0351  -0.01849  -0.03114  0.8632  -0.1302
6.458e+09  -1.491  -3.427  0.01705  0.01381  0.03611  0.02643  0.7475  -0.3669
6.459e+09  -2.755  -2.685  -0.01311  -0.03277  -0.01455  -0.06348  0.5856  -0.5492
6.46e+09  -3.528  -1.546  0.009696  0.03015  -0.04622  0.02451  0.3552  -0.7177
6.461e+09  -3.974  -0.06926  0.01256  0.05316  0.01137  0.0309  0.04133  -0.8208
6.462e+09  -3.794  1.394  -0.014  -0.01956  0.05552  0.03994  -0.2171  -0.7683
6.464e+09  -3.018  2.765  0.01105  0.006126  -0.05413  -0.05122  -0.4755  -0.6742
6.465e+09  -1.76  3.773  -0.03229  0.02506  0.007567  0.01585  -0.7115  -0.4875
6.466e+09  -0.04926  4.367  -0.01151  -0.005833  0.01319  0.03788  -0.8231  -0.2185
6.468e+09  1.483  4.152  -0.03064  0.03508  0.002684  0.02652  -0.7961  0.08724
6.469e+09  3.053  3.256  0.03588  -0.009458  -0.012  0.02641  -0.7016  0.3304
6.47e+09  4.177  1.976  0.03056  0.03081  0.0814  -0.07465  -0.5911  0.5544
6.471e+09  4.581  0.2254  0.02793  0.03315  -0.01294  0.1009  -0.3022  0.7287
6.472e+09  4.456  -1.577  -0.001307  0.0111  0.05209  -0.08832  -0.0861  0.8483
6.474e+09  3.556  -3.22  -0.009929  0.01845  -0.01278  -0.07463  0.1922  0.7711
6.475e+09  2.009  -4.424  0.01059  0.03554  -0.03897  -0.06636  0.4659  0.6333
6.476e+09  0.1864  -4.872  -0.007703  0.01889  0.05209  -0.0267  0.6556  0.4312
6.478e+09  -1.729  -4.653  0.001726  0.02533  -0.1455  -0.08973  0.7488  0.2475
6.479e+09  -3.41  -3.677  -0.01728  -0.002279  0.02545  -0.04476  0.7889  -0.08815
6.48e+09  -4.509  -1.996  0.01305  0.0009625  -0.07928  0.01307  0.7063  -0.3419
6.481e+09  -5.063  -0.1113  -0.009332  0.01312  -0.02191  -0.1096  0.5217  -0.5444
6.482e+09  -4.725  1.865  0.01719  0.01403  -0.0878  -0.02737  0.3682  -0.6573
6.484e+09  -3.815  3.653  0.01647  -0.005603  0.009476  0.1116  0.07177  -0.7836
6.485e+09  -2.166  4.744  -0.04475  -0.02545  0.02579  0.107  -0.2019  -0.7838
6.486e+09  -0.1367  5.269  0.04765  0.005447  -0.07697  0.08904  -0.4083  -0.6127
6.488e+09  1.809  5.608  0.009981  0.01264  0.5742  -0.526  -0.6084  -0.4197
6.489e+09  3.69  3.952  0.022  -0.007708  0.006854  -0.001108  -0.7366  -0.1788
6.49e+09  4.812  2.219  -0.0187  -0.02834  -0.02434  0.02337  -0.7478  0.04504
6.491e+09  5.3  0.1247  -0.005842  -0.004081  0.03668  0.04436  -0.7178  0.3263
6.492e+09  4.994  -1.974  -0.01081  0.01646  0.002586  -0.02522  -0.5364  0.593
6.494e+09  4.006  -3.564  -0.0008161  -0.007769  0.09547  -0.07217  -0.309  0.7296
6.495e+09  2.151  -4.948  -0.032  0.01618  0.02212  -0.04514  -0.02049  0.7891
6.496e+09  0.1641  -5.312  0.004651  -0.01426  -0.007464  -0.1273  0.209  0.7322
6.498e+09  -1.88  -5.166  -0.01236  -0.01688  -0.002459  0.02879  0.4882  0.6368
6.499e+09  -3.715  -3.904  -0.008917  0.02271  0.008995  -0.07308  0.6211  0.4253
6.5e+09  -0.06592  -0.7114  0.008713  0.0008616  -0.06749  -0.02284  0.7436  0.1626
6.501e+09  -5.364  -0.1637  0.02817  0.01349  -0.07515  -0.04381  0.7945  -0.08914
6.502e+09  -5.03  1.968  -0.04143  -0.02673  0.02925  0.026  0.6504  -0.3281
6.504e+09  -3.724  3.671  -0.008337  -0.01389  -0.01882  -0.07387  0.511  -0.5775
6.505e+09  -2.244  4.812  0.009197  -0.01107  -0.08787  0.1071  0.2696  -0.745
6.506e+09  -0.01483  5.277  0.02916  -0.00233  0.01135  0.04163  0.02236  -0.7438
6.508e+09  1.889  4.983  0.02231  -0.02397  0.009245  0.1294  -0.2245  -0.7395
6.509e+09  3.629  3.783  0.0343  -0.03025  -0.03752  0.08515  -0.4797  -0.5853
6.51e+09  4.826  2.212  -0.005904  0.01974  -0.0002823  -0.0818  -0.6588  -0.3557
6.511e+09  5.303  0.0312  -0.01743  0.003527  0.1051  0.05025  -0.7264  -0.1302
6.512e+09  4.929  -1.916  0.02049  0.006761  0.03105  -0.03712  -0.7203  0.1246
6.514e+09  3.689  -3.467  0.01122  -0.007758  -0.004652  0.01856  -0.6676  0.3729
6.515e+09  2.045  -4.71  0.0135  0.04991  -0.02269  0.09425  -0.4772  0.5579
6.516e+09  0.1549  -5.152  -0.001719  -0.003796  0.01007  -0.08844  -0.2331  0.6823
6.518e+09  -1.793  -4.754  -0.004671  -0.0317  0.04242  0.06595  -0.02384  0.7599
6.519e+09  -3.403  -3.623  0.003285  -0.01551  -0.03127  0.01281  0.274  0.6902
6.52e+09  -4.483  -2.04  -0.008059  0.006881  -0.01961  0.05873  0.4926  0.5242
6.521e+09  -4.921  -0.06201  0.006545  0.008221  -0.04694  -0.06246  0.6306  0.3662
6.522e+09  -4.637  1.719  0.005094  -0.02912  -0.02382  -0.01199  0.7492  0.1016
6.524e+09  -3.451  3.315  -0.0302  -0.001254  -0.04823  -0.09047  0.7525  -0.1754
6.525e+09  -1.984  4.367  -0.0389  0.01144  0.01597  0.03195  0.6356  -0.4111
6.526e+09  -0.1788  4.588  -0.01749  0.005874  -0.04305  -0.02916  0.4369  -0.5986
6.528e+09  1.564  4.322  0.002626  -0.001772  0.05012  -0.05178  0.1805  -0.7026
6.529e+09  3.042  3.37  0.009389  -0.01897  0.05914  -0.03044  -0.0388  -0.6983
6.53e+09  4.015  1.983  0.002164  0.01751  0.03067  0.0005231  -0.3032  -0.5879
6.531e+09  4.38  0.287  0.0032  0.02633  0.03187  0.01262  -0.4946  -0.4906
6.532e+09  4.018  -1.444  0.01446  -0.001235  0.009189  0.02309  -0.5996  -0.3228
6.534e+09  3.159  -2.812  -0.003258  -0.007642  0.02692  -0.1244  -0.617  -0.09651
6.535e+09  1.83  -3.763  -0.003766  0.002924  0.03456  -0.05414  -0.6487  0.1628
6.536e+09  0.3323  -4.047  -0.01354  -0.008135  0.001998  0.007013  -0.5594  0.2867
6.538e+09  -1.177  -3.797  -0.0159  -0.002412  0.04444  0.003672  -0.44  0.4527
6.539e+09  -2.422  -3.052  -0.03888  0.01235  -0.02942  0.03929  -0.2739  0.6252
6.54e+09  -3.273  -1.859  0.02392  -0.02869  -0.02137  0.01196  -0.07437  0.6614
6.541e+09  -3.712  -0.4598  0.005477  0.03573  0.06103  -0.02059  0.1758  0.6699
6.542e+09  -3.491  0.8921  -0.02483  -0.02582  0.08716  -0.01937  0.4201  0.5435
6.544e+09  -2.908  2.067  -0.008938  0.009832  0.004422  0.0315  0.6052  0.4149
6.545e+09  -1.9  2.867  -0.01249  -0.01737  -0.01306  -0.02547  0.7045  0.164
6.546e+09  -0.6415  3.336  0.01695  0.0001209  0.02241  -0.005835  0.7377  -0.1043
6.548e+09  0.585  3.245  0.02279  0.007256  -0.02174  -0.07619  0.6325  -0.317
6.549e+09  1.74  2.72  0.004351  0.01769  -0.05298  -0.08234  0.5277  -0.5235
6.55e+09  2.572  1.855  -0.02758  -0.004404  -0.04139  -0.04502  0.3022  -0.7093
6.551e+09  3.009  0.8019  0.01268  0.007612  0.03711  0.05065  0.05745  -0.7297
6.552e+09  3.001  -0.3336  0.006623  0.02619  -0.01365  -1.153e-05  -0.2116  -0.7366
6.554e+09  2.629  -1.326  -0.02213  0.0004698  -0.04255  -0.006581  -0.4379  -0.6042
