# Hz S RI R 50
6.25e+09  0.06132  0.9564  0.04457  -0.01119  0.001412  -0.002485  0.1425  0.4994
6.251e+09  0.4266  0.8487  0.004312  0.005112  0.01824  -0.01135  0.3891  0.3625
6.252e+09  0.651  0.6363  0.01707  -0.002801  -0.01999  0.0144  0.5685  0.2464
6.254e+09  0.8401  0.3747  0.02418  0.04069  0.02896  0.02171  0.6021  0.03286
6.255e+09  0.9237  0.08036  0.0117  0.03021  0.009212  -0.01841  0.5757  -0.2622
6.256e+09  0.8784  -0.2531  0.02617  -0.04963  0.03578  0.001434  0.4928  -0.4381
6.258e+09  0.7084  -0.5578  0.03224  -0.02047  -0.003097  -0.04879  0.2752  -0.6093
6.259e+09  0.5844  -0.7517  0.02215  0.004156  0.02397  0.04556  -0.01353  -0.6595
6.26e+09  0.2125  -0.8712  -0.02204  0.005314  0.02322  0.02255  -0.2343  -0.6307
6.261e+09  -0.06045  -0.9055  0.005323  0.02255  -0.01087  -0.01587  -0.4453  -0.5418
6.262e+09  -0.4657  -0.8185  0.01529  0.01402  0.03091  0.08673  -0.6173  -0.333
6.264e+09  -0.6679  -0.5909  -0.01721  0.02235  -0.02492  0.04934  -0.6728  -0.09364
6.265e+09  -0.8534  -0.3296  -0.002249  0.004506  0.04632  0.04993  -0.6953  0.1353
6.266e+09  -0.9692  -0.05073  0.005265  0.001243  -0.008185  0.03277  -0.6392  0.38
6.268e+09  -0.895  0.2526  -0.0004798  -0.01091  0.01129  -0.02681  -0.4164  0.5848
6.269e+09  -0.769  0.5056  0.02365  0.009241  0.008631  0.002254  -0.2152  0.676
6.27e+09  -0.4812  0.8381  -0.02342  -0.003643  0.02986  0.06949  0.08037  0.7494
6.271e+09  -0.2399  0.8475  0.001981  -0.0208  0.04627  0.01612  0.3568  0.705
6.272e+09  0.08478  0.8585  0.01212  0.01479  0.03199  -0.06457  0.5331  0.5015
6.274e+09  0.4459  0.7788  0.04058  -0.01904  -0.01042  0.0307  0.6917  0.3162
6.275e+09  0.7304  0.6464  0.007823  0.008947  0.04181  0.02625  0.7574  0.07872
6.276e+09  0.846  0.3322  0.02072  0.009439  -0.01421  -0.03688  0.7601  -0.196
6.278e+09  0.9556  0.03676  0.03046  0.006313  0.02203  -0.01324  0.5874  -0.4845
6.279e+09  0.8657  -0.3084  0.02263  0.02619  0.00171  -0.01619  0.3987  -0.6769
6.28e+09  0.7485  -0.5855  -0.01484  0.01801  -0.0173  -0.06479  0.1409  -0.7293
6.281e+09  0.4914  -0.7701  0.01354  -0.004522  0.01062  -0.002579  -0.07124  -0.7598
6.282e+09  0.1376  -0.9291  0.02002  -0.0186  -0.01838  0.02019  -0.3582  -0.6969
6.284e+09  -0.1559  -0.8412  -0.02528  0.02949  -0.0001087  -0.04329  -0.6003  -0.5094
6.285e+09  -0.4381  -0.8758  0.002736  -0.01913  -0.01275  -0.06296  -0.727  -0.3127
6.286e+09  -0.7113  -0.6251  0.01219  -0.02644  -0.02166  -0.0353  -0.8385  -0.02253
6.288e+09  -0.926  -0.3208  0.01222  0.01182  0.0573  0.03859  -0.7745  0.2296
6.289e+09  -0.95  0.05815  0.01103  0.04179  -0.01314  -0.03823  -0.6181  0.4895
6.29e+09  -0.8857  0.3806  0.003105  -0.01158  -0.03329  0.01597  -0.4236  0.6793
6.291e+09  -0.7346  0.6459  -0.00682  -0.01482  -0.008384  0.03562  -0.1484  0.7975
6.292e+09  -0.4611  0.83  -0.03113  -0.02403  -0.006955  0.02418  0.1588  0.813
6.294e+09  -0.09711  0.9074  0.01553  0.03453  0.002893  -0.01678  0.3974  0.705
6.295e+09  0.1893  0.9495  -0.02385  0.0163  -0.01714  -0.02056  0.6214  0.5369
6.296e+09  0.5333  0.8347  0.0228  -0.009714  0.004242  0.02887  0.7518  0.232
6.298e+09  0.7788  0.5417  -0.01119  0.003227  -2.043e-05  -0.02324  0.8137  0.006175
6.299e+09  0.9478  0.2797  0.009598  -0.002841  -0.00881  0.007073  0.7696  -0.28
6.3e+09  0.9762  -0.08215  0.02701  -0.003957  0.04884  0.01435  0.643  -0.5673
6.301e+09  0.8752  -0.3957  0.01222  -0.00504  0.04461  0.03772  0.4402  -0.7503
6.302e+09  0.7016  -0.6763  0.006627  -0.01855  -0.01626  0.05641  0.173  -0.8107
6.304e+09  0.4446  -0.8961  -0.01914  0.004337  0.0128  0.00764  -0.1418  -0.8192
6.305e+09  0.08277  -0.9749  0.004262  -0.004986  0.01149  0.008693  -0.4728  -0.7436
6.306e+09  -0.1936  -0.8866  -0.00184  -0.0004782  -0.001315  -0.02294  -0.6251  -0.5852
6.308e+09  -0.5535  -0.7697  -0.006751  -0.03033  0.00606  -0.01258  -0.8079  -0.2941
6.309e+09  -0.8063  -0.5366  0.01594  -0.01348  0.01784  0.006787  -0.872  -0.001166
6.31e+09  -1.01  -0.2804  0.002375  0.004896  -0.01991  -0.01953  -0.8283  0.3167
6.311e+09  -0.9597  0.1103  -0.01059  0.004562  -0.02863  -0.05917  -0.651  0.5392
6.312e+09  -0.862  0.4584  -0.01772  -0.01721  0.03345  -0.0424  -0.4288  0.745
6.314e+09  -0.6749  0.7276  0.00161  0.01932  0.009999  0.02884  -0.195  0.8648
6.315e+09  -0.3428  0.9386  -0.04859  0.01873  -0.008809  -0.07438  0.152  0.8671
6.316e+09  -0.03673  1.03  0.008678  0.03068  0.02199  -0.0239  0.4494  0.7613
6.318e+09  0.2929  1.008  -0.01547  0.051  -0.00494  -0.02281  0.6615  0.5641
6.319e+09  0.6305  0.7643  -0.04472  0.005461  0.002443  -0.004461  0.8054  0.2899
6.32e+09  0.9  0.5555  -0.01644  -0.009355  -0.01866  -0.02032  0.9022  0.03066
6.321e+09  1.015  0.1692  -0.008214  -0.004746  -0.03697  -0.0002576  0.8548  -0.2877
6.322e+09  1.035  -0.1928  0.02822  -0.001278  -0.01038  0.03394  0.6886  -0.5528
6.324e+09  0.8979  -0.487  -0.013  0.011  0.00187  0.0407  0.491  -0.768
6.325e+09  0.672  -0.7857  0.0251  -0.0003394  -0.05215  -0.05119  0.1339  -0.8862
6.326e+09  0.3771  -0.9882  0.03094  -0.01577  -0.03421  -0.01572  -0.1651  -0.8763
6.328e+09  -0.00608  -1.058  -0.01059  0.009205  0.01928  0.007289  -0.4213  -0.7721
6.329e+09  -0.3473  -1.045  -0.001223  0.01731  -0.01843  -0.03212  -0.6424  -0.5895
6.33e+09  -0.6837  -0.7812  0.00724  0.04813  0.06802  0.0356  -0.8331  -0.3131
6.331e+09  -0.9459  -0.5081  -0.007559  0.03559  0.02958  -0.01548  -0.9394  0.003252
6.332e+09  -1.071  -0.09273  -0.008905  -0.02092  -0.01111  0.001638  -0.8622  0.2817
6.334e+09  -1.094  0.2842  0.009114  0.03097  -0.04017  -0.01847  -0.6885  0.5517
6.335e+09  -0.9306  0.6782  -0.02018  0.002518  -0.0001547  -0.03826  -0.4806  0.7991
6.336e+09  -0.6362  0.9235  0.02705  0.01714  0.0432  0.03426  -0.1676  0.8778
6.338e+09  -0.2798  1.105  0.01126  -0.007002  0.004145  -0.05342  0.09994  0.9175
6.339e+09  0.1682  1.093  -0.006153  -0.004051  -0.03133  0.0258  0.4528  0.8287
6.34e+09  0.4531  0.9982  0.01132  -0.02581  -0.03272  -0.02269  0.6551  0.6038
6.341e+09  0.8534  0.7414  -0.01581  -0.01255  -0.03752  -0.005455  0.8651  0.3666
6.342e+09  1.039  0.4696  -0.009847  -0.02848  0.002475  -0.02889  0.954  0.03467
6.344e+09  1.117  0.09397  -0.0006031  -0.008555  -0.008814  0.0008507  0.871  -0.2838
6.345e+09  1.072  -0.3829  0.0379  0.006984  0.06109  -0.01126  0.7462  -0.5816
6.346e+09  0.9043  -0.7283  0.01079  0.007046  0.02895  -0.02594  0.5078  -0.7607
6.348e+09  0.5848  -0.9938  -0.04723  0.003796  -0.02926  -0.0346  0.23  -0.9174
6.349e+09  0.2356  -1.178  0.0178  -0.01081  -0.01565  -0.008262  -0.1113  -0.9553
6.35e+09  -0.2222  -1.134  0.002981  0.006204  -0.03476  -0.03446  -0.3811  -0.85
6.351e+09  -0.6763  -1.021  0.02945  -0.01484  -0.00922  -0.005135  -0.7211  -0.6362
6.352e+09  -0.8975  -0.7158  -0.006093  0.00835  -0.009843  0.007056  -0.8478  -0.3661
6.354e+09  -1.176  -0.3691  -0.005067  0.01302  -0.01273  0.03317  -0.938  -0.04977
6.355e+09  -1.21  0.02859  -0.02672  -0.007277  0.05009  -0.02541  -0.9015  0.28
6.356e+09  -1.119  0.5343  0.006456  -0.007434  0.001186  -0.04175  -0.7862  0.5333
6.358e+09  -0.8506  0.8768  -0.0002224  0.03169  0.007257  -0.01947  -0.502  0.8044
6.359e+09  -0.5314  1.102  0.0367  -0.01422  -0.004474  0.03523  -0.2709  0.9595
6.36e+09  -0.07323  1.252  0.004068  -0.0273  -0.003738  -0.05063  0.08932  0.9647
6.361e+09  0.3592  1.233  -0.006086  -0.03196  -0.03593  -0.03192  0.4453  0.8619
6.362e+09  0.7234  0.9837  0.02869  -0.01149  0.002633  0.003116  0.6976  0.6684
6.364e+09  1.073  0.6453  0.03461  0.02509  0.01923  -0.02357  0.8488  0.4142
6.365e+09  1.182  0.211  -0.03051  0.01962  0.002087  -0.008437  0.9336  0.08826
6.366e+09  1.189  -0.1962  -0.00381  -0.002561  0.02691  -0.016  0.9152  -0.2519
6.368e+09  1.089  -0.6098  -0.01963  -0.07049  0.01693  -0.04541  0.7776  -0.5513
6.369e+09  0.7719  -0.9308  -0.01123  -0.005164  -0.01  0.02177  0.5673  -0.7734
6.37e+09  0.4438  -1.203  0.009978  0.0155  -0.002165  -0.0142  0.2528  -0.9449
6.371e+09  -0.03812  -1.287  -0.0009739  -0.01187  -0.04531  0.01814  -0.08186  -0.9568
6.372e+09  -0.5047  -1.177  -0.03584  -0.006805  0.03679  0.01574  -0.3969  -0.8649
6.374e+09  -0.8963  -0.861  -0.01524  -0.009984  0.004246  -0.0156  -0.6459  -0.6824
6.375e+09  -1.121  -0.5697  -0.02793  0.003242  -0.02379  0.0364  -0.844  -0.3921
6.376e+09  -1.263  -0.1192  -0.001532  0.03406  0.00184  0.01924  -0.908  -0.07979
6.378e+09  -1.223  0.3281  -0.00868  -0.01792  0.01523  -0.03886  -0.9043  0.2507
6.379e+09  -1.079  0.7376  0.02146  -0.009188  -0.03372  -0.03862  -0.7794  0.5208
6.38e+09  -0.7027  1.049  0.007045  -0.02009  -0.004528  -0.04179  -0.5715  0.7486
6.381e+09  -0.338  1.241  -0.03193  0.02701  0.01347  0.02658  -0.2838  0.8918
6.382e+09  0.1688  1.269  0.01248  -0.01772  0.02115  -0.01961  0.06879  0.9487
6.384e+09  0.5723  1.156  0.002892  -0.003299  -0.01435  -0.01093  0.3743  0.8625
6.385e+09  0.9182  0.8226  0.001556  0.02745  -0.04654  0.05522  0.6431  0.6432
6.386e+09  1.173  0.4703  -0.04679  -0.01049  0.06179  -0.01519  0.8174  0.4161
6.388e+09  1.265  -0.002301  -0.01048  -0.02474  0.01469  0.001768  0.933  0.09414
6.389e+09  1.212  -0.4383  0.01244  0.04809  -0.02562  -0.01924  0.9079  -0.2071
6.39e+09  0.9563  -0.8385  0.04043  0.004918  -0.008619  0.004677  0.7232  -0.5117
6.391e+09  0.5891  -1.092  -0.007199  -0.03296  -0.00798  0.02057  0.5637  -0.7539
6.392e+09  0.2062  -1.248  -0.02988  -0.04062  0.008029  -0.05094  0.28  -0.8734
6.394e+09  -0.2432  -1.211  0.006699  0.02587  0.01907  -0.007098  -0.03453  -0.9132
6.395e+09  -0.6327  -1.018  0.006029  -0.004669  -0.003739  -0.01967  -0.336  -0.8506
6.396e+09  -0.9937  -0.7563  -0.04749  -0.01987  0.02626  0.03531  -0.626  -0.6973
6.398e+09  -1.206  -0.3582  0.01007  -0.02041  -0.001301  0.002122  -0.7857  -0.4652
6.399e+09  -1.267  0.1168  -0.01605  0.007243  -0.006866  -0.03636  -0.9323  -0.1469
6.4e+09  -1.162  0.5538  -0.01333  0.004594  -0.01571  0.02274  -0.9436  0.1416
6.401e+09  -0.9067  0.892  -0.03679  -0.01887  -0.01271  -0.02008  -0.7725  0.4715
6.402e+09  -0.557  1.087  -0.005469  0.008863  0.002948  -0.00565  -0.5867  0.7247
6.404e+09  -0.1458  1.213  0.01051  -0.004696  0.01517  0.01845  -0.2835  0.8921
6.405e+09  0.3174  1.21  -0.007921  0.04725  0.006792  0.001573  0.01106  0.9828
6.406e+09  0.7811  0.9831  -0.03558  0.001629  -0.003381  0.002674  0.3012  0.8474
6.408e+09  1.049  0.6725  -0.003432  0.02269  -0.01491  0.01531  0.5984  0.6782
6.409e+09  1.224  0.2532  -0.05539  0.0008425  -0.001101  -0.0129  0.7889  0.4459
6.41e+09  1.277  -0.1299  -0.01525  -0.02845  -0.009495  -0.02175  0.8973  0.1867
6.411e+09  1.122  -0.5436  -0.003701  -0.02678  -0.01969  0.01519  0.8692  -0.1318
6.412e+09  0.8221  -0.9442  -0.01033  0.001038  0.01307  0.03068  0.759  -0.4037
6.414e+09  0.475  -1.078  0.001315  -0.02945  -0.01343  -0.005418  0.573  -0.7229
6.415e+09  0.04527  -1.251  -0.0004795  -0.01053  0.05744  0.006685  0.3469  -0.7913
6.416e+09  -0.3692  -1.24  -0.0183  0.01466  -0.0001642  -0.001395  0.0464  -0.9197
6.418e+09  -0.7939  -0.9771  -0.0395  -0.03828  0.005885  -0.03386  -0.3083  -0.8429
6.419e+09  -1.087  -0.6482  -0.03223  0.009284  0.05431  0.005753  -0.5626  -0.7145
6.42e+09  -1.268  -0.2691  0.0495  -0.03395  0.008544  -0.009573  -0.693  -0.5086
6.421e+09  -1.228  0.2109  0.02182  -0.008748  0.004816  0.04335  -0.8636  -0.2041
6.422e+09  -1.122  0.6387  0.02707  -0.03055  0.03709  0.05628  -0.8455  0.1188
6.424e+09  -0.7936  1.007  -0.02598  0.009166  0.04066  0.03532  -0.7851  0.4205
6.425e+09  -0.3958  1.182  -0.05544  0.01408  -0.005169  0.04212  -0.5966  0.6431
6.426e+09  -0.01127  1.281  0.01953  0.01621  -0.006872  -0.02378  -0.3556  0.7398
6.428e+09  0.4716  1.153  0.008662  -0.01678  -0.04704  0.009044  -0.08522  0.8766
6.429e+09  0.833  0.9621  -0.009179  0.006017  -0.003902  -0.02551  0.2561  0.8332
6.43e+09  1.146  0.6382  0.02658  0.02771  0.004283  -0.001929  0.5258  0.7201
6.431e+09  1.277  0.1656  0.02621  -0.003366  0.04956  0.03046  0.6976  0.4715
6.432e+09  1.288  -0.309  -0.006504  -0.02016  -0.04536  0.02086  0.8476  0.2069
6.434e+09  1.07  -0.7309  0.01979  0.03182  -0.01735  -0.007726  0.8537  -0.05791
6.435e+09  0.8274  -1.017  -0.004717  0.03565  -0.03722  -0.03453  0.8283  -0.4259
6.436e+09  0.3387  -1.237  -0.04947  0.01268  -0.01235  0.008614  0.5855  -0.5759
6.438e+09  -0.1416  -1.338  -0.01328  -0.007886  -0.03052  -0.0397  0.3571  -0.7801
6.439e+09  -0.5557  -1.224  0.006058  -0.006208  -0.003885  -0.02375  0.08839  -0.8609
6.44e+09  -0.9899  -0.9463  -0.004343  -0.03758  -0.04077  0.03986  -0.2008  -0.7866
6.441e+09  -1.234  -0.5422  0.002351  0.009763  -0.0106  0.03901  -0.4674  -0.6683
6.442e+09  -1.318  -0.1009  -0.05633  0.04331  -0.01075  -0.03644  -0.7381  -0.4417
6.444e+09  -1.267  0.3615  0.01749  -0.03273  -0.04682  0.02666  -0.8258  -0.2323
6.445e+09  -1.079  0.8539  -0.0158  -0.0003459  -0.02231  0.0251  -0.7941  0.05228
6.446e+09  -0.738  1.214  0.02542  0.02192  0.02547  -0.0453  -0.7661  0.3704
6.448e+09  -0.3196  1.316  -0.004798  -0.03469  -0.002485  -0.002563  -0.589  0.604
6.449e+09  0.1953  1.39  -0.01955  -0.04202  0.0439  -0.01197  -0.3149  0.7752
6.45e+09  0.694  1.211  0.023  -0.04063  0.0204  0.02213  -0.07956  0.8225
6.451e+09  1.057  0.8458  -0.04291  0.06373  -0.04132  0.03983  0.2045  0.8306
6.452e+09  1.338  0.4855  0.004635  -0.01818  -0.07961  -0.02576  0.5115  0.687
6.454e+09  1.394  -0.05734  0.01552  -0.02478  0.05377  -0.04124  0.6768  0.4338
6.455e+09  1.374  -0.5102  0.01003  0.003879  -0.008349  0.0168  0.8414  0.1886
6.456e+09  1.104  -0.9963  -0.02062  -0.005052  0.009514  -0.06351  0.8307  -0.06845
6.458e+09  0.6579  -1.311  0.0007273  0.02479  0.01662  -0.03491  0.7118  -0.3256
6.459e+09  0.1905  -1.466  0.04317  0.003104  0.02597  -0.01126  0.5546  -0.5483
6.46e+09  -0.407  -1.445  -0.0426  0.02845  0.01965  0.02071  0.3636  -0.749
6.461e+09  -0.8929  -1.219  -0.02194  -0.01016  -0.04297  0.02167  0.0717  -0.8163
6.462e+09  -1.276  -0.8965  0.001231  0.03086  0.002549  0.004431  -0.2342  -0.8215
6.464e+09  -1.484  -0.3774  0.02736  0.005135  -0.002516  0.003586  -0.459  -0.6842
6.465e+09  -1.536  0.1919  0.01408  -0.02026  -0.04089  0.0402  -0.6794  -0.453
6.466e+09  -1.35  0.7225  -0.01235  -0.01407  -0.04399  0.0419  -0.797  -0.2351
6.468e+09  -1.059  1.179  0.01295  -0.01816  0.01137  -0.05027  -0.7696  0.09237
6.469e+09  -0.5284  1.479  -0.01322  0.03183  -0.034  0.02951  -0.7505  0.3189
6.47e+09  0.04895  1.596  0.02038  -0.01945  0.08315  0.001722  -0.5483  0.5631
6.471e+09  0.6157  1.55  0.03307  0.02478  -0.02554  0.02137  -0.2863  0.6932
6.472e+09  1.147  1.204  0.01368  -0.0269  0.01231  0.02271  -0.06572  0.8053
6.474e+09  1.506  0.7431  -0.01189  -0.007336  -0.007401  0.0005807  0.2026  0.7698
6.475e+09  1.608  0.1365  -0.04261  0.009486  -0.01513  0.01995  0.5002  0.6307
6.476e+09  1.609  -0.5054  0.007859  0.01042  0.01717  0.006023  0.6722  0.4299
6.478e+09  1.255  -1.024  0.02911  -0.01878  -0.02333  0.000994  0.7671  0.1868
6.479e+09  0.8628  -1.488  -0.008285  -0.009422  -0.03085  -0.02335  0.7883  -0.07143
6.48e+09  0.2586  -1.719  0.006326  -0.02244  0.04943  0.03627  0.7236  -0.3097
6.481e+09  -0.3677  -1.685  -0.00913  0.02179  -0.01938  -0.002036  0.5177  -0.5567
6.482e+09  -0.9998  -1.445  0.0379  0.0383  0.02088  0.01335  0.2822  -0.6939
6.484e+09  -1.45  -1.005  -0.01476  0.01554  -0.04489  -0.03309  0.08647  -0.7649
6.485e+09  -1.756  -0.3839  -0.01259  -0.03633  -0.01165  -0.02991  -0.2224  -0.7417
6.486e+09  -1.725  0.1916  0.02266  -0.004431  0.002046  -0.006767  -0.4284  -0.6381
6.488e+09  -1.32  1.545  -0.008404  0.04142  0.283  0.6367  -0.6429  -0.4097
6.489e+09  -1.093  1.487  0.01802  0.01741  0.01987  0.04588  -0.7408  -0.2039
6.49e+09  -0.5221  1.729  0.01168  0.01775  -0.04082  -0.006333  -0.7762  0.07894
6.491e+09  0.1992  1.808  -0.001954  0.01147  -0.02065  -0.02552  -0.65  0.3686
6.492e+09  0.8096  1.624  0.01549  -0.02209  -0.004968  -0.003628  -0.561  0.557
6.494e+09  1.354  1.309  0.00781  0.009199  0.08194  0.1291  -0.3377  0.6932
6.495e+09  1.763  0.6504  -0.007776  -0.006766  -0.05626  0.007866  -0.02501  0.7805
6.496e+09  1.853  -0.09383  -0.03272  0.01472  -0.08489  0.02446  0.2408  0.7619
6.498e+09  1.691  -0.6958  0.04212  -0.005073  -0.06488  -0.03278  0.4702  0.6522
6.499e+09  1.33  -1.33  -0.01073  -0.007083  0.03517  0.02173  0.6852  0.4335
6.5e+09  1.437  -0.3573  0.01466  0.0009029  -0.01269  -0.1356  0.7378  0.1619
6.501e+09  0.02803  -1.78  0.01484  0.03192  -0.07363  0.008323  0.7851  -0.1066
6.502e+09  -0.6133  -1.732  -0.04206  0.02471  0.009978  0.04784  0.6423  -0.3564
6.504e+09  -1.238  -1.353  0.00649  0.005085  0.03125  -0.0175  0.4708  -0.5723
6.505e+09  -1.657  -0.7937  -0.01475  -0.03132  -0.01114  -0.005905  0.2671  -0.6847
6.506e+09  -1.762  -0.1212  -0.016  0.02518  0.05243  0.01452  0.03522  -0.7241
6.508e+09  -1.716  0.518  -0.02448  0.01938  -0.02618  0.06721  -0.2312  -0.7391
6.509e+09  -1.412  1.112  -0.01352  -0.03415  0.01057  -0.01157  -0.4473  -0.6122
6.51e+09  -0.8996  1.557  -0.03231  0.0006726  -0.0327  -0.03602  -0.6665  -0.4129
6.511e+09  -0.207  1.685  -0.02404  0.002887  0.02943  -0.03757  -0.766  -0.1723
6.512e+09  0.3944  1.643  -0.02573  -0.004513  0.0444  0.007528  -0.755  0.1205
6.514e+09  0.9917  1.327  -0.0003049  0.005231  -0.006678  -0.06591  -0.7064  0.3604
6.515e+09  1.406  0.9145  0.03939  -0.03142  0.07807  -0.0204  -0.5047  0.615
6.516e+09  1.608  0.3088  -0.02319  -0.02782  -0.02719  0.02226  -0.2335  0.7212
6.518e+09  1.591  -0.2655  0.0272  -0.005728  0.01832  -0.01284  0.007134  0.7349
6.519e+09  1.348  -0.8365  -0.009123  -0.007774  0.02392  -0.0332  0.2898  0.6724
6.52e+09  0.9027  -1.247  0.02361  0.02734  -0.006476  -0.01175  0.5208  0.5432
6.521e+09  0.3797  -1.481  -0.006429  0.003604  -0.001381  0.03313  0.6449  0.3621
6.522e+09  -0.2116  -1.527  -0.01327  0.02736  0.003909  0.001572  0.7459  0.07286
6.524e+09  -0.6819  -1.322  -0.02366  0.006556  -0.0315  -0.01569  0.7232  -0.1588
6.525e+09  -1.188  -1.04  -0.001625  0.03094  0.03752  -0.01106  0.6148  -0.402
6.526e+09  -1.343  -0.5139  0.0003105  0.03785  0.01496  0.06692  0.4209  -0.5837
6.528e+09  -1.488  0.04907  -0.005766  0.0288  0.02659  -0.0009273  0.2056  -0.7119
6.529e+09  -1.326  0.5609  0.001029  0.01607  0.03142  -0.02988  -0.03817  -0.6855
6.53e+09  -1.051  1.004  -0.0006386  0.01177  0.0247  -0.0057  -0.3269  -0.5965
6.531e+09  -0.6604  1.225  0.03898  -0.001292  0.01923  0.006429  -0.4918  -0.4919
6.532e+09  -0.08958  1.369  -0.032  -0.01439  -0.01004  0.05483  -0.5722  -0.2888
6.534e+09  0.4436  1.356  -0.001735  0.03123  -0.01512  0.03139  -0.6313  -0.08553
6.535e+09  0.854  1.114  -0.02788  -0.004883  -0.004938  0.02521  -0.6182  0.13
6.536e+09  1.127  0.7433  -0.01611  0.0164  -0.01659  -0.007165  -0.5223  0.2828
6.538e+09  1.302  0.2568  -0.02671  0.02313  0.007963  -0.02382  -0.4218  0.4553
6.539e+09  1.264  -0.1796  -0.02167  -0.02104  -0.02678  -0.01505  -0.2898  0.5885
6.54e+09  1.138  -0.6721  0.007086  -0.03657  -0.01272  0.02256  -0.03988  0.6841
6.541e+09  0.7714  -0.9626  9.783e-05  0.0007666  -0.003342  -0.01617  0.1904  0.6727
6.542e+09  0.4115  -1.221  0.008604  0.003834  0.02868  0.04078  0.4055  0.5682
6.544e+09  -0.1664  -1.255  -0.005516  -0.02825  -0.00854  0.06062  0.6067  0.3919
6.545e+09  -0.5372  -1.102  -0.01934  -0.004937  -0.009809  0.06713  0.6992  0.1651
6.546e+09  -0.9109  -0.8476  0.009123  0.02317  -0.0007878  -0.04398  0.7052  -0.05912
6.548e+09  -1.095  -0.4367  -0.01308  0.003621  -0.02383  0.029  0.6742  -0.2829
6.549e+09  -1.195  -0.03955  0.01997  0.02391  0.03725  -0.01783  0.52  -0.5335
6.55e+09  -1.09  0.3591  0.009122  0.00911  -0.04909  -0.008152  0.3343  -0.6988
6.551e+09  -0.9368  0.7028  -0.01974  0.01389  -0.01159  -0.05855  0.02613  -0.7645
6.552e+09  -0.5812  1.08  0.02206  -0.01288  0.05027  0.008686  -0.2213  -0.71
