# Hz S RI R 50
6.25e+09  1.018  -0.3146  0.01023  -0.00133  -0.06041  -0.05642  0.1778  0.4867
6.251e+09  0.8512  -0.6127  -0.02053  0.01631  0.008701  -0.03209  0.3473  0.449
6.252e+09  0.5591  -0.8208  0.03451  -0.01965  -0.03127  0.02648  0.5287  0.2606
6.254e+09  0.2151  -0.96  -0.02074  -0.02515  0.0241  0.03197  0.6015  -0.00114
6.255e+09  -0.1595  -0.9624  0.005394  -0.01322  0.01918  0.008414  0.5941  -0.1739
6.256e+09  -0.5103  -0.9346  0.02751  0.021  0.02362  -0.03124  0.499  -0.4655
6.258e+09  -0.7842  -0.6364  -0.0144  0.01026  0.01401  -0.03925  0.2678  -0.6097
6.259e+09  -0.9481  -0.2866  -0.003006  0.0242  0.04178  -0.009695  -0.002849  -0.6823
6.26e+09  -1.006  0.002104  -0.008333  0.01056  0.01246  -0.004689  -0.2006  -0.679
6.261e+09  -0.9452  0.3877  0.01015  0.003011  -0.01707  0.04362  -0.442  -0.5435
6.262e+09  -0.7433  0.7002  -0.009637  -0.01689  0.002206  0.00442  -0.6147  -0.3603
6.264e+09  -0.3935  0.9088  0.03484  -0.02574  -0.08468  -0.03178  -0.7051  -0.08436
6.265e+09  -0.0819  0.9932  0.01848  0.01053  -0.006635  -0.01582  -0.7194  0.1557
6.266e+09  0.2864  1.007  -0.01179  0.026  0.02385  0.02823  -0.5824  0.3965
6.268e+09  0.6295  0.7745  4.7e-05  0.02349  -0.01038  0.02672  -0.4199  0.5639
6.269e+09  0.8509  0.5516  -0.01886  0.001997  0.009081  0.01798  -0.2048  0.7081
6.27e+09  0.9808  0.2555  0.04539  0.009085  0.02333  0.04262  0.0306  0.7473
6.271e+09  1.034  -0.1389  0.01201  -0.01138  -0.03662  -0.0132  0.3228  0.6816
6.272e+09  0.8771  -0.5068  -0.03781  -0.02345  -0.05176  -0.02992  0.5343  0.5531
6.274e+09  0.5884  -0.7709  0.01073  -0.005518  -0.0003026  -0.01359  0.7018  0.309
6.275e+09  0.3248  -0.9393  -0.001954  -0.007549  0.01614  0.01321  0.7386  0.01332
6.276e+09  -0.08976  -0.9687  -0.01582  -0.01232  -0.04281  0.03371  0.733  -0.2148
6.278e+09  -0.4179  -0.9301  -0.01871  0.03178  -0.01472  0.005855  0.6181  -0.4588
6.279e+09  -0.6852  -0.6474  0.0116  0.001257  -0.05909  -0.03988  0.4112  -0.6422
6.28e+09  -0.931  -0.4078  0.006601  0.0153  0.02047  -0.006356  0.1559  -0.7478
6.281e+09  -1.023  -0.06023  0.0069  0.008299  -0.05847  -0.006673  -0.124  -0.7792
6.282e+09  -0.9553  0.3027  0.01122  -0.02506  -0.01451  -0.03437  -0.358  -0.6694
6.284e+09  -0.7322  0.5971  0.009545  -0.006402  0.02506  0.0746  -0.6072  -0.5035
6.285e+09  -0.5149  0.8322  -0.03057  0.003124  -0.03108  0.069  -0.729  -0.2771
6.286e+09  -0.1709  0.9888  -0.01983  0.04444  0.02408  -0.05527  -0.8111  -0.03449
6.288e+09  0.1291  0.9945  0.01234  0.009529  0.01256  0.005438  -0.7571  0.2758
6.289e+09  0.5235  0.8232  -0.007958  0.008756  0.003526  -0.04571  -0.6204  0.4738
6.29e+09  0.7669  0.6547  0.01143  -0.01411  0.01652  0.03681  -0.4252  0.677
6.291e+09  0.9611  0.315  -0.0166  0.007253  0.01074  0.03091  -0.1469  0.7757
6.292e+09  0.9493  -0.04459  -0.01412  0.03989  -0.05978  -0.002322  0.1063  0.7912
6.294e+09  0.9037  -0.3661  -0.002548  0.01944  -0.004084  0.01259  0.3916  0.7201
6.295e+09  0.7284  -0.7333  -0.01647  0.009411  -0.005959  -0.02146  0.6392  0.5278
6.296e+09  0.4506  -0.9174  -0.02802  -0.01934  0.02002  -0.01658  0.7977  0.3258
6.298e+09  0.08034  -0.975  -0.01374  -0.008861  0.03249  -0.02071  0.8229  0.02111
6.299e+09  -0.2303  -0.9427  -0.0004979  0.01157  -0.04551  0.01153  0.7884  -0.2685
6.3e+09  -0.621  -0.7512  0.02499  -0.007335  -0.05822  -0.02217  0.6585  -0.5305
6.301e+09  -0.804  -0.4718  0.01202  0.00589  -0.006883  -0.02956  0.4342  -0.7239
6.302e+09  -1.007  -0.1546  0.01196  -0.003902  -0.0005304  0.009787  0.1779  -0.8281
6.304e+09  -0.9704  0.1678  0.004815  0.009892  0.01115  -0.01494  -0.1384  -0.8726
6.305e+09  -0.8564  0.5053  0.02262  0.003598  0.02916  -0.01521  -0.4263  -0.6977
6.306e+09  -0.6237  0.7552  0.04224  -0.01982  0.01194  -0.04543  -0.6301  -0.5198
6.308e+09  -0.3627  1.017  0.0104  0.02654  0.05834  0.027  -0.7915  -0.3104
6.309e+09  0.06252  0.9532  -0.03258  0.02249  0.04746  -0.009047  -0.8581  -0.01753
6.31e+09  0.3958  0.8861  0.028  2.613e-05  -0.006791  0.0001262  -0.8256  0.321
6.311e+09  0.711  0.7433  -0.003884  0.00712  0.02711  -0.01831  -0.6542  0.5491
6.312e+09  0.8763  0.4504  -0.01205  -0.007248  0.01237  -0.05817  -0.4277  0.7855
6.314e+09  0.972  0.09091  0.01657  0.04074  -0.01985  0.03267  -0.1702  0.8446
6.315e+09  0.9371  -0.2295  -0.03731  -0.002945  -0.0008002  -0.03495  0.1584  0.8388
6.316e+09  0.8263  -0.5458  -0.007944  0.01588  0.03769  -0.01686  0.4304  0.7479
6.318e+09  0.5717  -0.784  0.003875  0.0207  0.02978  0.009137  0.6739  0.5464
6.319e+09  0.2236  -0.9516  0.002726  -0.009827  0.05136  -0.02499  0.8001  0.3219
6.32e+09  -0.1853  -1.028  -0.01897  0.007423  -0.01005  0.02624  0.9166  0.006956
6.321e+09  -0.5011  -0.9075  -0.01138  -0.01004  -0.02232  0.05578  0.8432  -0.3169
6.322e+09  -0.7436  -0.6709  -0.01532  0.0007329  -0.04235  -0.03806  0.6867  -0.5956
6.324e+09  -0.9792  -0.3831  0.02538  -0.02993  -0.005318  0.004831  0.4396  -0.7777
6.325e+09  -1.016  0.03264  -0.008773  0.008715  -0.006958  -0.02245  0.1862  -0.9069
6.326e+09  -0.9234  0.3641  0.0001776  -0.02112  -0.02684  0.0115  -0.1372  -0.8806
6.328e+09  -0.8187  0.6855  0.03323  -0.006897  -0.01288  -0.02777  -0.4325  -0.7888
6.329e+09  -0.5003  0.933  0.0039  0.02605  -0.0149  0.02245  -0.7202  -0.5891
6.33e+09  -0.1544  1.042  -0.005962  -0.004385  0.01087  -0.00668  -0.8518  -0.3586
6.331e+09  0.2366  0.9722  -0.01918  0.02589  -0.05821  0.02636  -0.8934  -0.04323
6.332e+09  0.6359  0.8852  0.01212  0.02434  -0.0202  0.0376  -0.9132  0.2828
6.334e+09  0.818  0.6171  -0.04123  0.0004735  0.01232  0.006814  -0.7342  0.538
6.335e+09  0.9956  0.2865  0.01598  -0.0232  -0.01824  0.01813  -0.4666  0.7998
6.336e+09  1.083  -0.1147  -0.03157  0.003576  0.00144  -0.02112  -0.2142  0.8916
6.338e+09  0.957  -0.4908  0.001342  -0.005554  -0.03165  -0.02463  0.1137  0.8916
6.339e+09  0.7914  -0.7364  0.006643  0.02121  -0.009589  0.0005792  0.424  0.8145
6.34e+09  0.4054  -0.9591  0.000115  0.04348  -0.003856  0.02134  0.6708  0.6292
6.341e+09  0.01862  -1.034  0.02773  0.01347  0.03644  -0.02004  0.8879  0.3641
6.342e+09  -0.3367  -0.9873  -0.01882  -0.007622  0.01461  -0.0043  0.9149  0.04254
6.344e+09  -0.7016  -0.8148  -0.001543  -0.02092  0.009347  0.02177  0.8827  -0.2395
6.345e+09  -0.9374  -0.5698  0.01421  -0.007234  -4.231e-05  -0.007792  0.7476  -0.5719
6.346e+09  -1.07  -0.1849  0.01912  0.00188  -0.01975  -0.005848  0.4894  -0.781
6.348e+09  -0.9941  0.2057  0.04295  -0.0255  -0.01246  0.01923  0.1999  -0.8808
6.349e+09  -0.8818  0.6134  -0.007086  0.03898  -0.03189  0.04016  -0.1297  -0.9251
6.35e+09  -0.6626  0.8821  -0.0671  -0.0555  0.01805  0.01077  -0.4139  -0.8212
6.351e+09  -0.35  1.034  0.004908  -0.002401  0.04226  -0.006001  -0.6533  -0.6122
6.352e+09  0.04163  1.065  -0.003071  0.003739  -0.02152  0.02485  -0.8238  -0.3287
6.354e+09  0.461  0.9987  -0.003014  0.01856  0.01886  -0.01908  -0.9248  -0.04129
6.355e+09  0.7668  0.7597  0.01629  0.00476  0.06125  0.004587  -0.9038  0.3057
6.356e+09  0.9898  0.4248  0.02178  0.03261  0.006264  0.004504  -0.733  0.5701
6.358e+09  1.091  0.06001  -0.009946  -0.01403  0.02463  -0.01275  -0.5045  0.7737
6.359e+09  1.048  -0.3128  -0.02697  -0.0129  0.02046  0.01008  -0.213  0.8954
6.36e+09  0.8491  -0.6725  -0.0009889  -0.0316  -0.02122  -0.04816  0.102  0.9595
6.361e+09  0.5777  -0.9676  0.06042  0.01781  0.0106  -0.0003317  0.4107  0.8496
6.362e+09  0.2025  -1.101  0.02493  -0.02164  -0.05279  0.001624  0.6781  0.6576
6.364e+09  -0.1631  -1.126  0.01637  0.009986  0.0154  -0.009037  0.8706  0.391
6.365e+09  -0.5213  -0.9503  -0.004969  -0.05208  0.01092  0.02823  0.9488  0.04708
6.366e+09  -0.8688  -0.6617  -0.01044  -0.003291  0.0419  0.0063  0.9441  -0.2425
6.368e+09  -1.099  -0.2992  -0.02039  0.02989  0.01205  0.00877  0.7467  -0.5851
6.369e+09  -1.122  0.04101  0.03218  -0.02663  -0.01341  -0.0001128  0.5364  -0.7859
6.37e+09  -1.071  0.451  0.003965  -0.02832  -0.01477  -0.007523  0.262  -0.9377
6.371e+09  -0.8289  0.7976  -0.005842  0.009596  -0.06952  -0.000988  -0.09002  -0.9764
6.372e+09  -0.4782  1.086  0.008995  -0.03684  0.006773  0.00723  -0.4252  -0.8563
6.374e+09  -0.05505  1.197  -0.02265  0.009115  -0.04799  0.005374  -0.6473  -0.6578
6.375e+09  0.3724  1.13  -0.002288  0.01669  0.009726  0.02501  -0.8334  -0.4119
6.376e+09  0.7163  0.9193  0.003114  -0.00325  0.004127  -0.002912  -0.9289  -0.09206
6.378e+09  1.016  0.6568  -0.007004  -0.003589  0.008958  0.0003454  -0.9345  0.2
6.379e+09  1.167  0.2158  0.02941  0.01387  0.002741  -0.02604  -0.7219  0.5265
6.38e+09  1.213  -0.2765  0.02576  -0.02487  -0.0003736  0.02563  -0.5522  0.7729
6.381e+09  1.058  -0.6505  0.01259  -0.001334  -0.02403  -0.03889  -0.275  0.8613
6.382e+09  0.7285  -0.945  -0.05196  -0.01626  -0.005907  0.007128  0.09077  0.9678
6.384e+09  0.3334  -1.164  0.03871  -0.0003574  -0.01526  -0.01745  0.3778  0.8914
6.385e+09  -0.07442  -1.242  -0.0156  -0.04244  0.03057  -0.01119  0.622  0.661
6.386e+09  -0.5669  -1.065  0.0219  0.008503  0.01067  -0.02481  0.7935  0.3936
6.388e+09  -0.8911  -0.846  0.002228  0.02437  -0.007805  0.002631  0.9286  0.1189
6.389e+09  -1.144  -0.4405  -0.01035  -0.001239  0.01529  0.03117  0.9005  -0.2034
6.39e+09  -1.3  -0.03014  0.004099  -0.02844  -0.04798  -0.02136  0.7818  -0.5462
6.391e+09  -1.207  0.4251  -0.004271  0.005092  0.01285  0.01576  0.6013  -0.6963
6.392e+09  -0.9678  0.8537  -0.01825  -0.007877  0.01607  -0.03126  0.3467  -0.869
6.394e+09  -0.6076  1.128  -0.02661  0.03103  0.02656  0.007171  -0.009864  -0.911
6.395e+09  -0.1125  1.273  0.003091  0.04084  0.05635  0.04315  -0.3358  -0.8597
6.396e+09  0.2824  1.318  -0.03339  -0.02879  -0.003079  0.01575  -0.619  -0.7092
6.398e+09  0.7545  1.104  0.0009269  0.02161  -0.005912  -0.007838  -0.7914  -0.4567
6.399e+09  1.114  0.7915  0.00777  -0.005268  -0.007306  -0.003352  -0.9143  -0.1433
6.4e+09  1.374  0.3427  0.01824  -0.01827  0.0429  0.0006057  -0.9392  0.1924
6.401e+09  1.345  -0.1936  -0.004551  0.04562  0.003218  0.02068  -0.7446  0.5129
6.402e+09  1.186  -0.6519  0.00195  -0.004246  -0.00071  0.01828  -0.6095  0.6992
6.404e+09  0.8682  -1.101  0.0001844  -0.02814  0.01248  -0.007286  -0.349  0.8561
6.405e+09  0.4129  -1.285  0.01374  0.02812  3.383e-05  0.07152  -0.0214  0.9195
6.406e+09  -0.1083  -1.345  0.02485  0.02428  -0.04914  0.04695  0.3217  0.898
6.408e+09  -0.5664  -1.314  -0.002908  -0.005051  0.002675  -0.008324  0.5859  0.6926
6.409e+09  -1.005  -0.953  0.01129  0.0008503  -0.0168  0.03862  0.7794  0.4731
6.41e+09  -1.295  -0.529  0.01288  0.02754  0.03115  -0.003102  0.874  0.1737
6.411e+09  -1.379  0.05771  -0.05908  -0.02064  -0.01753  -0.0162  0.9281  -0.09808
6.412e+09  -1.313  0.4888  0.02224  -0.02618  -0.004998  0.03219  0.7995  -0.4356
6.414e+09  -0.9857  0.9303  -0.01052  -0.02336  -0.01357  -0.09205  0.5939  -0.7008
6.415e+09  -0.6781  1.269  -0.01415  -0.005154  0.02074  -0.04336  0.3319  -0.8559
6.416e+09  -0.09524  1.386  -0.009204  -0.008757  -0.007896  -0.03634  -0.0114  -0.9463
6.418e+09  0.4711  1.363  0.007298  -0.03045  0.01815  0.05621  -0.2485  -0.8476
6.419e+09  0.9295  1.085  -0.06055  0.002144  0.0233  0.01902  -0.5528  -0.6874
6.42e+09  1.237  0.6904  0.06202  -0.009741  -0.0008945  -0.03469  -0.7569  -0.4446
6.421e+09  1.41  0.129  -0.01763  -0.02898  0.03697  0.008145  -0.8834  -0.1579
6.422e+09  1.354  -0.3743  0.008148  0.06256  0.0473  -0.02227  -0.8528  0.08616
6.424e+09  1.206  -0.8701  0.001386  0.005213  0.004359  -0.06948  -0.7957  0.3994
6.425e+09  0.7576  -1.197  0.04816  0.01804  -0.01768  0.03094  -0.6044  0.6099
6.426e+09  0.3036  -1.389  -0.001682  0.006408  -0.01468  -0.05054  -0.398  0.83
6.428e+09  -0.2279  -1.372  0.0003673  -0.002115  -0.01204  0.03949  -0.08728  0.8604
6.429e+09  -0.6986  -1.194  -0.006523  -0.01477  -0.02013  0.005953  0.2441  0.8217
6.43e+09  -1.105  -0.8042  -0.01174  -0.03241  -0.001093  -0.03102  0.4578  0.7191
6.431e+09  -1.311  -0.3597  -1.133e-05  0.005807  -0.02752  -0.006994  0.7068  0.4792
6.432e+09  -1.365  0.1625  -0.02851  -0.0001221  0.01596  -0.0322  0.8348  0.2021
6.434e+09  -1.239  0.7014  0.03123  -0.03785  0.007119  0.009667  0.8734  -0.1444
6.435e+09  -0.8775  1.077  0.006225  -0.01215  -0.003661  -0.002989  0.7493  -0.3885
6.436e+09  -0.4621  1.241  -0.02771  -0.01063  0.01489  -0.001356  0.6126  -0.5988
6.438e+09  0.073  1.341  -0.0352  -0.05267  0.02104  0.01506  0.3454  -0.8165
6.439e+09  0.5282  1.277  -0.01544  0.02854  -0.02965  -0.03141  0.09104  -0.8653
6.44e+09  0.9582  0.9838  0.04064  -0.009427  -0.01173  0.02524  -0.2223  -0.8441
6.441e+09  1.249  0.5267  -0.04557  -0.03025  0.01357  -0.005091  -0.4645  -0.7134
6.442e+09  1.314  0.02911  0.01435  0.02658  0.02363  0.002982  -0.7271  -0.4673
6.444e+09  1.259  -0.371  0.01039  0.02627  -0.04629  0.004728  -0.8674  -0.2213
6.445e+09  0.967  -0.8532  0.04478  0.02815  0.01153  -0.01492  -0.8396  0.08229
6.446e+09  0.6571  -1.139  0.01156  0.03504  0.01929  -0.0383  -0.7898  0.377
6.448e+09  0.1873  -1.194  0.03482  -0.01806  -0.02333  0.032  -0.5816  0.5817
6.449e+09  -0.238  -1.185  0.006621  0.008229  0.04324  0.03779  -0.3929  0.7831
6.45e+09  -0.6552  -1.078  0.006064  -0.03281  -0.0571  -0.008045  -0.03111  0.8953
6.451e+09  -0.9758  -0.7605  -0.01984  -0.02279  -0.006882  -0.005814  0.2703  0.8285
6.452e+09  -1.172  -0.2589  0.002662  -0.004052  -0.0219  0.09997  0.4546  0.7116
6.454e+09  -1.223  0.1102  0.03667  -0.01232  -0.03468  -0.01095  0.7111  0.527
6.455e+09  -1.064  0.5983  0.02076  0.04491  -0.01669  -0.007606  0.7795  0.241
6.456e+09  -0.7506  0.9077  0.01721  0.02348  -0.01059  -0.004525  0.815  -0.06831
6.458e+09  -0.4678  1.131  0.02014  -0.0285  0.008338  0.01736  0.7747  -0.3631
6.459e+09  -0.01483  1.21  -0.0009403  0.00867  -0.01893  -0.06715  0.5899  -0.5652
6.46e+09  0.4269  1.066  0.03442  0.07543  -0.01444  -0.03734  0.3557  -0.747
6.461e+09  0.7861  0.9007  -0.01348  0.03218  0.03353  0.01781  0.06483  -0.7991
6.462e+09  0.9975  0.4701  0.01675  -0.03102  0.02771  -0.01786  -0.2052  -0.7646
6.464e+09  1.12  0.1635  -0.004573  0.005438  -0.05954  -0.02909  -0.4358  -0.6346
6.465e+09  1.163  -0.2232  -0.01655  -0.002225  0.02457  -0.03348  -0.6814  -0.465
6.466e+09  0.926  -0.6469  0.04134  0.02068  -0.03623  -0.004401  -0.7538  -0.1993
6.468e+09  0.618  -0.9432  -0.007751  -0.04023  0.01422  -0.01064  -0.7797  0.09467
6.469e+09  0.2554  -1.137  -0.009597  0.01231  0.008775  0.03161  -0.7293  0.3291
6.47e+09  -0.1655  -1.155  -0.007468  -0.001261  -0.02582  -0.03494  -0.5609  0.577
6.471e+09  -0.4975  -0.9783  -0.03354  0.02591  0.01838  -0.01505  -0.3344  0.6705
6.472e+09  -0.8632  -0.7359  -0.02024  0.007263  -0.01218  0.001422  -0.04438  0.8208
6.474e+09  -1.079  -0.4499  0.009175  -0.002978  0.02293  0.006302  0.2032  0.7653
6.475e+09  -1.092  -0.01561  -0.003289  0.007581  0.04427  0.03466  0.4725  0.6236
6.476e+09  -1.058  0.3646  0.02117  0.01628  0.00193  -0.003194  0.6744  0.4324
6.478e+09  -0.8333  0.6962  -0.02271  -0.0172  -0.0103  -0.02666  0.7389  0.1953
6.479e+09  -0.5201  0.9538  0.01937  -0.02161  -0.02251  0.01576  0.7238  -0.09455
6.48e+09  -0.209  1.072  0.01949  -0.04297  -0.02146  0.04139  0.7022  -0.3288
6.481e+09  0.1903  1.057  -0.009967  0.007613  -0.04561  0.007905  0.554  -0.5457
6.482e+09  0.5659  0.8997  0.01331  -0.01258  -0.001185  0.03506  0.3363  -0.7029
6.484e+09  0.8594  0.6848  -0.04058  -0.03559  0.02213  0.04863  0.06607  -0.7674
6.485e+09  1.008  0.3381  0.01272  0.01139  0.03744  0.006997  -0.2176  -0.7836
6.486e+09  1.056  -0.009378  -0.01112  0.009223  0.05366  -0.02597  -0.4881  -0.6319
6.488e+09  0.3477  -0.04382  0.005993  0.01335  -0.7616  0.1151  -0.6477  -0.4199
6.489e+09  0.7787  -0.6714  -0.02734  -0.001833  -0.007262  0.02777  -0.7808  -0.1873
6.49e+09  0.437  -0.925  -0.01974  0.02908  -0.006199  0.04115  -0.7827  0.07218
6.491e+09  0.08946  -1.104  0.01499  0.02088  -0.03682  3.191e-05  -0.6827  0.3283
6.492e+09  -0.2211  -1.062  -0.002068  0.02155  0.002261  0.03067  -0.4877  0.5712
6.494e+09  -0.6312  -0.9998  0.01877  -0.01206  -0.06346  -0.07219  -0.339  0.7175
6.495e+09  -0.8185  -0.6354  -0.01387  -0.002053  0.006523  0.01022  -0.06977  0.7481
6.496e+09  -1.021  -0.2515  -0.02424  -0.03735  -0.03327  -0.003285  0.1921  0.7356
6.498e+09  -1.03  0.07751  0.009797  -0.02888  -0.005956  -0.002054  0.4459  0.6367
6.499e+09  -0.9883  0.4705  -0.02477  0.001226  -0.003944  -0.00933  0.6095  0.3834
6.5e+09  -0.1519  0.3172  0.003179  0.00861  -0.03283  -0.02602  0.7494  0.2232
6.501e+09  -0.4269  0.9817  0.01845  0.01184  0.009001  0.03321  0.7714  -0.1058
6.502e+09  -0.06568  1.068  0.01568  0.01907  -0.01997  -0.02927  0.6572  -0.3484
6.504e+09  0.2981  1.027  0.0159  -0.01399  -0.007768  -0.006008  0.5005  -0.5427
6.505e+09  0.6459  0.8216  -0.004533  0.006584  -0.01288  0.006941  0.2925  -0.7137
6.506e+09  0.8902  0.5449  -0.0146  0.0006807  0.023  0.02418  0.0006344  -0.7046
6.508e+09  1.077  0.207  0.003382  -0.01368  0.008023  -0.01736  -0.2649  -0.7088
6.509e+09  1.022  -0.1531  0.01172  0.003049  -0.0622  -0.01116  -0.4756  -0.5684
6.51e+09  0.9374  -0.5229  -0.05327  0.002585  -0.04262  -0.03011  -0.6339  -0.3693
6.511e+09  0.7194  -0.7859  0.008592  -0.01403  -0.01153  0.004716  -0.7307  -0.1316
6.512e+09  0.3973  -0.9555  0.02154  -0.01776  -0.0103  -0.01879  -0.7182  0.1176
6.514e+09  -0.03261  -1.087  -0.01465  0.0112  -0.005214  -0.01219  -0.6796  0.3465
6.515e+09  -0.3496  -1.02  -0.04584  -0.02312  -0.002955  0.02012  -0.4284  0.6353
6.516e+09  -0.7048  -0.8446  -0.009008  -9.191e-05  0.01161  -0.004788  -0.2518  0.7264
6.518e+09  -0.8647  -0.5384  -0.01399  0.009664  0.002492  0.04215  0.03561  0.741
6.519e+09  -1.101  -0.2289  -0.009439  -0.005158  0.02482  -0.01534  0.2769  0.7171
6.52e+09  -1.099  0.2253  0.006311  -0.02775  -0.01545  0.03434  0.4751  0.5681
6.521e+09  -0.9321  0.5543  0.0003265  0.00112  -0.03468  -0.009585  0.6539  0.3767
6.522e+09  -0.6832  0.798  0.008287  -0.04122  0.008507  0.05108  0.743  0.07423
6.524e+09  -0.3062  1.045  0.02843  0.02643  0.03044  0.01519  0.7049  -0.1398
6.525e+09  0.06967  1.164  0.01514  0.01837  0.006838  0.02099  0.637  -0.3552
6.526e+09  0.4284  1.046  0.003854  0.01133  0.02798  -0.0142  0.4456  -0.56
6.528e+09  0.8015  0.8255  0.02073  -0.0003879  -0.02101  0.0206  0.2058  -0.7094
6.529e+09  1.08  0.555  -0.02072  -0.03137  0.03724  0.0187  -0.05524  -0.6701
6.53e+09  1.114  0.1771  0.03018  0.0222  0.02246  0.03233  -0.2795  -0.6363
6.531e+09  1.096  -0.2676  0.01245  -0.04613  0.01644  -0.0253  -0.4727  -0.4645
6.532e+09  0.9931  -0.6807  0.004655  0.01972  -0.04297  -0.01806  -0.6112  -0.2875
6.534e+09  0.6657  -0.9906  0.004357  0.01905  -0.0468  -0.04496  -0.6394  -0.1105
6.535e+09  0.2881  -1.157  0.00841  -0.0204  -0.01515  -0.03314  -0.6436  0.1397
6.536e+09  -0.1503  -1.216  0.004183  0.005904  0.009974  -0.05104  -0.5866  0.3266
6.538e+09  -0.5366  -1.137  0.004864  -0.01876  0.01489  0.06741  -0.4396  0.4479
6.539e+09  -0.8716  -0.8101  -0.01606  0.01254  -0.0171  -0.02502  -0.2734  0.6232
6.54e+09  -1.157  -0.4804  0.01501  0.01303  -0.03767  0.004066  -0.03662  0.6544
6.541e+09  -1.224  0.01326  0.03008  0.01151  -0.01751  0.006175  0.1772  0.6719
6.542e+09  -1.171  0.4347  0.02503  -0.02627  -0.02595  0.02063  0.4403  0.5516
6.544e+09  -0.9338  0.7725  0.01379  -0.0147  0.01522  -0.007697  0.5989  0.3792
6.545e+09  -0.6222  1.078  0.0153  0.001792  0.03985  0.02833  0.7236  0.2028
6.546e+09  -0.2042  1.206  -0.003835  0.009359  0.03112  -0.005083  0.7067  -0.09152
6.548e+09  0.2179  1.245  0.001925  0.009449  -0.01976  -0.01108  0.6528  -0.3306
6.549e+09  0.7537  1.114  0.01952  0.02377  -0.009771  -0.0234  0.5138  -0.5115
6.55e+09  1.015  0.8151  0.04417  -0.001756  0.004491  0.02319  0.2869  -0.7109
6.551e+09  1.2  0.4343  0.02219  0.006448  -0.01471  0.02158  0.0196  -0.779
