# Hz S RI R 50
6.25e+09  0.8745  0.5756  0.02506  0.007356  0.01974  -0.01067  0.1732  0.4739
6.251e+09  0.9674  0.2023  0.0008922  0.02198  -0.02129  0.03832  0.36  0.3857
6.252e+09  0.9821  -0.1753  -0.003691  -0.01487  -0.005451  -0.02011  0.5323  0.2731
6.254e+09  0.8702  -0.4451  0.02835  -0.002645  -0.009644  -0.03323  0.5884  0.03475
6.255e+09  0.6682  -0.8354  -0.04523  0.009072  0.02925  -0.03156  0.6215  -0.2649
6.256e+09  0.3391  -0.9234  0.0311  -0.01102  -0.0268  0.006006  0.4783  -0.474
6.258e+09  0.01888  -0.9924  0.01847  0.0163  -0.03679  0.0454  0.2707  -0.5986
6.259e+09  -0.3221  -0.8762  -0.02698  0.005543  0.02773  -0.02391  0.03083  -0.6619
6.26e+09  -0.6461  -0.6993  0.006269  -0.04118  -0.02296  0.00425  -0.253  -0.6721
6.261e+09  -0.8305  -0.4426  0.001837  0.01361  0.02346  0.006262  -0.4448  -0.5394
6.262e+09  -0.9532  -0.1357  -0.04435  -0.01624  0.009324  -0.003704  -0.6083  -0.3321
6.264e+09  -0.9569  0.2307  0.01265  -0.004648  -0.007007  -0.066  -0.7135  -0.101
6.265e+09  -0.8645  0.5952  -0.005043  0.003433  -0.002263  0.006497  -0.7244  0.1506
6.266e+09  -0.575  0.782  -0.02148  -0.002029  0.03675  0.01518  -0.6071  0.4312
6.268e+09  -0.2327  0.872  -0.006872  -0.008984  -0.01685  -0.0219  -0.4348  0.5944
6.269e+09  0.1434  1.006  0.01542  0.02885  -0.002041  -0.0172  -0.2107  0.7111
6.27e+09  0.3996  0.9075  0.006841  0.0005832  0.0447  -0.01659  0.05566  0.7804
6.271e+09  0.7265  0.6968  0.003185  -0.002866  0.01485  -0.01506  0.3516  0.6969
6.272e+09  0.9088  0.3691  0.01927  -0.01203  0.0171  -0.01832  0.5724  0.5517
6.274e+09  0.9427  0.01785  0.0114  -0.008887  0.03062  0.06975  0.6775  0.269
6.275e+09  0.9413  -0.2845  -0.006603  0.008256  0.01744  -0.01661  0.7715  0.06089
6.276e+09  0.7174  -0.6351  0.01752  -0.02433  -0.003385  -0.03114  0.711  -0.2127
6.278e+09  0.478  -0.8232  0.04152  0.01326  0.01256  -0.01973  0.6161  -0.4748
6.279e+09  0.1766  -0.9328  -0.01447  0.02307  -0.03726  0.03888  0.3765  -0.6382
6.28e+09  -0.1948  -0.9814  0.009449  0.0007772  0.03254  -0.002387  0.1703  -0.7775
6.281e+09  -0.4825  -0.8755  -0.0518  0.01939  -0.01718  -0.004652  -0.1178  -0.797
6.282e+09  -0.7461  -0.6204  0.004835  0.02114  -0.02145  0.01304  -0.351  -0.6921
6.284e+09  -0.9609  -0.2869  -0.003335  -0.03469  -0.004673  0.01994  -0.5812  -0.519
6.285e+09  -0.9156  0.06207  -0.02428  -0.02912  -0.02008  0.01642  -0.7278  -0.3046
6.286e+09  -0.9609  0.3886  -0.01557  0.01487  -0.002688  -0.01835  -0.8005  -0.01344
6.288e+09  -0.7252  0.6638  0.003904  0.02392  0.01818  0.05736  -0.7493  0.2468
6.289e+09  -0.4198  0.9711  -0.02938  -0.01595  0.02197  -0.009987  -0.6504  0.4642
6.29e+09  -0.07214  1.014  -0.0009923  0.01725  0.005119  -0.01659  -0.4284  0.6969
6.291e+09  0.2197  1.008  0.001536  -0.003943  -0.03192  0.01717  -0.173  0.8013
6.292e+09  0.551  0.8208  -0.005486  0.02685  -0.00676  0.05611  0.1451  0.7984
6.294e+09  0.8247  0.5525  -0.019  -0.01141  0.05317  -0.005164  0.3898  0.7498
6.295e+09  0.9148  0.2281  0.006511  -0.001754  -0.02164  0.005599  0.6274  0.559
6.296e+09  0.9511  -0.1473  0.05268  0.003843  -0.003244  0.01857  0.7653  0.2895
6.298e+09  0.8257  -0.4968  0.008295  -0.008643  -0.0177  -0.01599  0.8466  0.003495
6.299e+09  0.6835  -0.7482  0.002475  -0.005695  0.01167  0.01815  0.7762  -0.3065
6.3e+09  0.3765  -0.9095  -0.009794  -0.007117  -0.01616  0.02087  0.6427  -0.5078
6.301e+09  -0.02378  -0.9824  -0.01462  -0.0227  -3.449e-05  -0.006384  0.4324  -0.7069
6.302e+09  -0.3663  -0.966  0.03825  -0.02082  -0.05361  0.01533  0.182  -0.8399
6.304e+09  -0.6897  -0.7174  -0.01459  0.005421  0.02976  -0.005791  -0.1694  -0.8113
6.305e+09  -0.924  -0.4742  0.006625  -0.002939  0.007387  -0.05667  -0.4159  -0.7215
6.306e+09  -1.01  -0.167  0.002348  -0.01895  0.001449  0.03826  -0.6667  -0.5842
6.308e+09  -0.9674  0.271  0.0173  0.01607  0.01054  0.01165  -0.804  -0.2907
6.309e+09  -0.8909  0.5572  -0.003201  0.004376  -0.02815  0.03461  -0.8621  -0.0238
6.31e+09  -0.5774  0.7747  0.008316  -0.0241  0.03824  0.0129  -0.8141  0.2754
6.311e+09  -0.2342  1.007  -0.01988  -0.0008049  -0.02213  -0.005518  -0.6445  0.5557
6.312e+09  0.09642  1.052  0.009229  -0.001184  -0.02848  0.02226  -0.4543  0.7799
6.314e+09  0.4145  0.9876  -0.009922  0.03147  0.03446  -0.0002905  -0.1761  0.8919
6.315e+09  0.8081  0.7122  1.546e-05  -0.01135  -0.005541  0.02241  0.1566  0.8599
6.316e+09  0.9059  0.427  0.01612  -0.001661  -0.007551  -0.02144  0.4004  0.7483
6.318e+09  1.062  0.06657  0.004435  -0.007626  -0.0007921  0.003  0.671  0.5815
6.319e+09  0.9574  -0.296  0.02799  -0.0006441  -0.01055  0.004212  0.8345  0.3191
6.32e+09  0.8144  -0.6727  0.00189  -0.02969  -0.04395  0.03006  0.8508  0.02369
6.321e+09  0.5558  -0.8599  -0.04307  0.01955  0.0001154  0.02047  0.8287  -0.3225
6.322e+09  0.1951  -1.07  -0.01155  -0.01575  0.01371  -0.0247  0.7167  -0.5855
6.324e+09  -0.1371  -1.073  -0.02235  -0.01458  -0.01882  -0.00536  0.4998  -0.7641
6.325e+09  -0.4557  -0.9433  0.01524  0.02645  0.0006916  -0.04234  0.1793  -0.898
6.326e+09  -0.7869  -0.6511  0.0239  0.0163  -0.01966  -0.002685  -0.1408  -0.9199
6.328e+09  -1.005  -0.319  -0.01047  0.00191  0.03811  -0.01072  -0.43  -0.8178
6.329e+09  -1.078  0.007192  -0.001268  -0.00407  -0.009334  0.008754  -0.6789  -0.6078
6.33e+09  -0.9325  0.3923  0.003092  -0.01901  0.02084  0.007768  -0.8276  -0.3318
6.331e+09  -0.845  0.743  0.01219  -0.03856  0.001329  -0.04912  -0.8909  -0.02002
6.332e+09  -0.4713  0.9691  0.01852  -0.0046  0.04392  -0.0351  -0.882  0.2878
6.334e+09  -0.08838  1.102  0.004153  0.006054  0.03165  -0.005688  -0.7037  0.5551
6.335e+09  0.3183  1.071  0.02208  -0.0474  0.0003953  0.02164  -0.4823  0.778
6.336e+09  0.6495  0.8913  0.0175  -0.003889  0.03566  0.003703  -0.1789  0.9177
6.338e+09  0.9337  0.6333  -0.01075  -0.001726  0.001339  -0.002647  0.1537  0.9053
6.339e+09  1.076  0.2533  0.002013  -0.02402  -0.02823  -0.02774  0.403  0.8294
6.34e+09  1.086  -0.1129  0.01767  -0.01435  0.01995  -0.01478  0.676  0.6025
6.341e+09  0.9469  -0.4597  0.03559  -0.03829  -0.02193  -0.0254  0.8544  0.3535
6.342e+09  0.722  -0.7498  0.009026  0.001684  -0.03612  0.04598  0.9202  0.03087
6.344e+09  0.3969  -1.053  0.006664  0.009762  0.009659  -0.01894  0.8803  -0.271
6.345e+09  0.0671  -1.158  0.02573  0.004308  -0.01079  0.003849  0.7325  -0.5668
6.346e+09  -0.3438  -1.093  0.01839  -0.01886  -0.03803  -0.01126  0.5185  -0.7563
6.348e+09  -0.7212  -0.8624  0.01795  0.002707  -0.002583  -0.02424  0.2525  -0.8855
6.349e+09  -0.9742  -0.5955  -0.009374  -0.0149  -0.01409  -0.02742  -0.1255  -0.9481
6.35e+09  -1.145  -0.21  0.003384  -0.01599  0.0107  -0.002272  -0.4275  -0.8475
6.351e+09  -1.19  0.2475  0.007885  -0.00406  -0.04768  0.01087  -0.7067  -0.6463
6.352e+09  -0.9947  0.5722  0.035  0.04657  -0.01543  -0.01062  -0.8465  -0.3727
6.354e+09  -0.7526  0.9264  0.003945  -0.02325  -0.01477  0.04261  -0.9725  -0.08301
6.355e+09  -0.3819  1.09  0.01649  0.01475  0.01204  -0.03772  -0.926  0.2623
6.356e+09  0.01738  1.099  0.01656  0.01594  0.02642  -0.007696  -0.7451  0.5581
6.358e+09  0.4019  1.056  -0.0001513  0.03315  -0.005898  0.02538  -0.533  0.7693
6.359e+09  0.8024  0.9389  0.00633  0.02402  -0.006452  0.02181  -0.2289  0.9117
6.36e+09  1.051  0.5239  0.004381  0.007794  -0.01488  0.01498  0.07955  0.9363
6.361e+09  1.166  0.1567  0.03419  0.007424  -0.01125  -0.01581  0.4255  0.8654
6.362e+09  1.197  -0.2858  -0.003523  0.005219  -0.03015  0.03092  0.6922  0.6396
6.364e+09  1.001  -0.7083  0.01431  -0.01877  -0.0003541  -0.01649  0.8419  0.3833
6.365e+09  0.6989  -1.005  -0.02281  -0.007311  0.004085  -0.03773  0.9541  0.08661
6.366e+09  0.3011  -1.179  -0.001096  -0.0061  -0.03002  0.007571  0.9162  -0.2503
6.368e+09  -0.09959  -1.176  -0.0004835  -0.01464  -0.008437  0.01108  0.7641  -0.5492
6.369e+09  -0.494  -1.116  0.008186  -0.02149  0.01479  -0.003622  0.5635  -0.8151
6.37e+09  -0.9114  -0.84  0.008957  -0.01307  -0.04153  0.007909  0.1957  -0.9036
6.371e+09  -1.174  -0.5435  -0.01461  -0.02616  -0.005511  0.005299  -0.09771  -0.9244
6.372e+09  -1.199  -0.0106  -0.05534  -0.02041  0.02583  -0.03923  -0.3764  -0.8536
6.374e+09  -1.227  0.4017  -0.01619  0.05987  -0.0389  0.01531  -0.6894  -0.6634
6.375e+09  -1.034  0.8032  0.01817  -0.02293  0.008554  -0.02873  -0.8577  -0.4134
6.376e+09  -0.6747  1.101  0.01863  0.01759  -0.01576  0.04358  -0.9564  -0.1046
6.378e+09  -0.2602  1.243  0.02994  0.01206  0.0225  0.02096  -0.947  0.233
6.379e+09  0.2348  1.272  0.02125  0.0009717  0.01339  -0.01383  -0.7873  0.5046
6.38e+09  0.6571  1.174  0.0175  -0.01662  -0.003428  -0.04754  -0.5367  0.7979
6.381e+09  1.002  0.849  -0.02669  -0.02206  -0.06815  -0.08089  -0.2742  0.9106
6.382e+09  1.28  0.4464  -0.005803  -0.027  0.0159  -0.02353  0.03013  0.93
6.384e+09  1.381  -0.06307  0.001793  -0.01577  0.03624  0.005353  0.3621  0.8858
6.385e+09  1.309  -0.5256  -0.002812  -0.02519  -0.0164  -0.01836  0.6189  0.6505
6.386e+09  1.005  -1.004  -0.02313  0.02052  -0.02311  0.02847  0.8642  0.4244
6.388e+09  0.6178  -1.25  -0.03665  -0.03077  0.02832  -0.05221  0.9464  0.1442
6.389e+09  0.1254  -1.487  0.01504  -0.03757  -0.04483  -0.02645  0.9308  -0.2251
6.39e+09  -0.3565  -1.415  0.007406  -0.00779  0.01862  0.05411  0.7876  -0.4658
6.391e+09  -0.8619  -1.235  0.01185  -0.001497  -0.04112  0.009035  0.5696  -0.7735
6.392e+09  -1.25  -0.8768  -0.01065  -0.01465  -0.01482  -0.04374  0.2931  -0.8919
6.394e+09  -1.44  -0.3618  0.00578  0.01094  -0.006401  -0.007437  -0.0259  -0.9296
6.395e+09  -1.516  0.1102  -0.01959  0.004636  0.01049  0.01129  -0.3341  -0.8347
6.396e+09  -1.401  0.7322  -0.02598  0.02343  0.011  0.02402  -0.5987  -0.6919
6.398e+09  -1.095  1.192  -0.01693  -0.005461  0.02793  0.0156  -0.7831  -0.4074
6.399e+09  -0.5283  1.532  0.01468  -0.03026  0.006244  -0.0331  -0.9493  -0.1656
6.4e+09  -0.000387  1.687  0.001574  0.01779  -0.02352  0.01031  -0.898  0.1832
6.401e+09  0.5526  1.573  0.04708  -0.0508  -0.01748  0.005301  -0.8426  0.4278
6.402e+09  1.129  1.276  -0.03332  -0.01148  0.04013  -0.02326  -0.598  0.7214
6.404e+09  1.505  0.7908  0.004094  -0.0373  0.02754  0.05514  -0.3393  0.8638
6.405e+09  1.662  0.1922  0.03815  0.002246  0.01039  -0.01403  -0.01285  0.903
6.406e+09  1.73  -0.4051  -0.05093  -0.05791  -0.0396  -0.03205  0.356  0.8484
6.408e+09  1.467  -0.9761  -0.01471  0.02919  0.001314  0.008178  0.5856  0.7161
6.409e+09  1.014  -1.461  0.03141  -0.04201  -0.02069  0.01423  0.8109  0.4882
6.41e+09  0.4731  -1.811  -0.03302  0.03438  0.01569  0.01573  0.91  0.1785
6.411e+09  -0.236  -1.907  0.002338  -0.01376  0.03636  -0.01417  0.9289  -0.1744
6.412e+09  -0.9211  -1.696  -0.01592  -0.02911  0.02289  0.03285  0.7563  -0.4414
6.414e+09  -1.523  -1.181  0.01164  0.0003194  0.0135  -0.001865  0.5802  -0.6935
6.415e+09  -1.93  -0.6164  -0.02416  -0.001869  0.0003636  0.01001  0.3479  -0.8716
6.416e+09  -2.077  0.163  -0.01251  -0.01954  0.01258  0.04746  0.02947  -0.8787
6.418e+09  -1.837  0.848  0.006838  -0.01485  -0.03509  -0.01401  -0.2828  -0.8256
6.419e+09  -1.458  1.505  0.001711  0.004607  -0.01005  -0.03341  -0.5471  -0.7098
6.42e+09  -0.8048  1.93  -0.04597  0.007166  0.02734  -0.001925  -0.7352  -0.4611
6.421e+09  -0.01035  2.119  -0.001236  0.00859  -0.01081  0.03184  -0.8399  -0.2174
6.422e+09  0.7461  2  0.03526  -0.04003  -0.05424  -0.03311  -0.8904  0.1001
6.424e+09  1.521  1.67  -0.02316  0.07225  0.005915  -0.02512  -0.8069  0.4217
6.425e+09  2.052  0.9933  0.05427  -0.0178  0.02558  -0.02465  -0.5966  0.6312
6.426e+09  2.321  0.2129  -0.007281  -0.02726  0.05471  0.006263  -0.3681  0.8013
6.428e+09  2.248  -0.7204  -0.01113  0.003225  0.01418  0.03494  -0.03887  0.8663
6.429e+09  1.775  -1.516  0.03723  -0.006875  0.003365  -0.01706  0.2451  0.8419
6.43e+09  1.155  -2.123  0.03248  0.02678  0.02427  0.02863  0.5288  0.7054
6.431e+09  0.3366  -2.449  -0.02571  0.009252  0.05227  -0.007195  0.7257  0.4728
6.432e+09  -0.6644  -2.334  0.02616  -0.02707  -0.004052  0.005486  0.866  0.2004
6.434e+09  -1.548  -1.981  0.04902  0.0002979  0.01135  -0.044  0.8908  -0.08626
6.435e+09  -2.19  -1.321  -0.0162  -0.01031  0.03878  0.01199  0.7969  -0.3826
6.436e+09  -2.521  -0.3007  0.002469  -0.01567  -0.01578  0.09055  0.6473  -0.6217
6.438e+09  -2.511  0.6667  -0.02967  -0.002059  -0.03145  0.01815  0.3583  -0.7416
6.439e+09  -2.062  1.608  0.0404  0.02394  -0.000513  -0.04943  0.01506  -0.863
6.44e+09  -1.35  2.226  -0.01693  0.006808  0.02036  -0.05562  -0.2194  -0.8037
6.441e+09  -0.3969  2.591  -0.01833  -0.02856  -0.03138  0.005675  -0.4746  -0.6722
6.442e+09  0.6039  2.584  0.00335  -0.03927  -0.004189  0.004825  -0.6628  -0.5115
6.444e+09  1.514  2.124  -0.01583  -0.00107  -0.0374  -0.01689  -0.8009  -0.1926
6.445e+09  2.238  1.355  -0.04876  0.01151  0.06059  -0.005926  -0.8106  0.05895
6.446e+09  2.633  0.4366  0.02541  0.003045  0.007176  -0.03829  -0.7796  0.2917
6.448e+09  2.576  -0.5496  -0.03854  -0.02101  -0.05529  0.002373  -0.5916  0.61
6.449e+09  2.128  -1.547  -0.02049  -0.01235  -0.02458  -0.03436  -0.3952  0.763
6.45e+09  1.325  -2.214  -0.006122  0.01257  -0.05391  -0.02145  -0.08385  0.867
6.451e+09  0.48  -2.488  0.0447  0.01666  -0.03644  0.02339  0.2482  0.8085
6.452e+09  -0.5258  -2.539  -0.01724  -3.666e-05  -0.001644  -0.0303  0.4667  0.6707
6.454e+09  -1.417  -2.138  -0.005536  -0.0123  -0.02048  0.01558  0.6397  0.4684
6.455e+09  -2.064  -1.432  0.008389  -0.01258  -0.01734  0.006336  0.8275  0.2118
6.456e+09  -2.469  -0.5119  -0.04643  -0.01289  -0.004728  -0.0107  0.82  -0.07569
6.458e+09  -2.471  0.4817  -0.02691  -0.003147  -0.08663  -0.0197  0.7325  -0.3453
6.459e+09  -2.093  1.285  -0.003536  0.01646  -0.03396  -0.01003  0.5839  -0.5601
6.46e+09  -1.423  1.94  -0.009999  0.03437  0.02414  -0.009551  0.3043  -0.7927
6.461e+09  -0.6085  2.357  0.03495  -0.01215  -0.01751  -6.982e-05  0.09774  -0.8021
6.462e+09  0.2505  2.351  0.0143  0.07363  -0.03511  -0.001243  -0.202  -0.8033
6.464e+09  1.137  2.101  0.04956  -0.01231  -0.0002724  -0.009654  -0.4622  -0.6689
6.465e+09  1.812  1.45  -0.001245  -0.0466  0.02438  0.002743  -0.6626  -0.4367
6.466e+09  2.177  0.7485  -0.04633  0.03323  -0.02366  0.0647  -0.7329  -0.2088
6.468e+09  2.311  -0.1284  -0.03403  0.05341  -0.01094  -0.01639  -0.8045  0.1111
6.469e+09  2.117  -0.8591  0.02039  0.03152  0.06997  0.01061  -0.7118  0.3406
6.47e+09  1.618  -1.599  0.04495  -0.007665  0.02826  -0.01505  -0.5675  0.5764
6.471e+09  0.8644  -1.995  0.0562  0.01209  -0.0213  -0.04568  -0.3132  0.7433
6.472e+09  0.1129  -2.18  -0.01077  0.0133  -0.03042  -0.02938  -0.02028  0.7864
6.474e+09  -0.6904  -2.047  0.002121  0.04845  -0.0393  -0.06863  0.2147  0.7514
6.475e+09  -1.386  -1.681  0.03798  -0.002157  0.04063  0.009522  0.4573  0.589
6.476e+09  -1.94  -0.991  0.01865  0.002545  0.01178  0.01073  0.692  0.4293
6.478e+09  -2.109  -0.311  0.01731  0.01628  0.01292  -0.007367  0.7413  0.1614
6.479e+09  -2.097  0.5123  -0.04253  0.01582  -0.005929  0.02081  0.7507  -0.0814
6.48e+09  -1.74  1.199  0.01768  0.02795  -0.02588  -0.0219  0.7016  -0.2956
6.481e+09  -1.15  1.716  0.02675  -0.002322  -0.02195  -0.007625  0.5522  -0.5543
6.482e+09  -0.4824  1.968  0.01061  0.002551  -0.04247  -0.02071  0.3385  -0.6976
6.484e+09  0.3194  2.034  0.01503  0.004064  -0.0797  0.02503  0.03423  -0.805
6.485e+09  0.9634  1.778  -0.007896  0.0008482  -0.02951  -0.0011  -0.2133  -0.7396
6.486e+09  1.51  1.353  -0.005547  0.02243  0.07172  -0.0222  -0.426  -0.5889
6.488e+09  2.579  0.5099  -0.002077  0.02994  0.5806  0.3784  -0.6005  -0.372
6.489e+09  1.99  -0.08625  -0.0247  0.0001353  0.06122  -0.009782  -0.7522  -0.19
6.49e+09  1.845  -0.7555  -0.00819  -0.003103  0.0004046  -0.05253  -0.7254  0.08155
6.491e+09  1.416  -1.298  0.01379  -0.05174  0.01957  -0.006103  -0.6957  0.3535
6.492e+09  0.8774  -1.743  0.06042  -0.01961  -0.0154  0.04485  -0.5116  0.5588
6.494e+09  0.08812  -1.993  0.01456  -0.02063  -0.09449  0.1008  -0.3356  0.6948
6.495e+09  -0.5127  -1.908  0.02093  -0.01505  -0.01673  -0.01765  -0.04052  0.7335
6.496e+09  -1.1  -1.609  0.01768  0.008297  0.05597  0.06429  0.2184  0.7211
6.498e+09  -1.632  -1.076  -0.02425  0.01364  -0.02487  -0.02642  0.4546  0.6607
6.499e+09  -1.864  -0.4212  0.014  -0.002915  -0.001467  -0.1003  0.5964  0.4015
6.5e+09  -0.947  -1.289  -0.02379  0.01194  -0.05057  0.01936  0.7389  0.1928
6.501e+09  -1.692  0.9771  -0.01228  0.03016  -0.04378  0.001259  0.7439  -0.1085
6.502e+09  -1.229  1.428  -0.03156  -0.002813  -0.02369  0.01894  0.6891  -0.3548
6.504e+09  -0.681  1.815  0.01559  0.007258  -0.03206  0.06289  0.512  -0.5821
6.505e+09  0.002255  1.935  -0.00264  -0.007799  -4.394e-05  0.01739  0.3107  -0.7089
6.506e+09  0.68  1.82  0.02967  -0.02111  -0.001694  -0.02204  0.03233  -0.7749
6.508e+09  1.268  1.464  -0.01532  0.02202  0.0133  0.009105  -0.2352  -0.7105
6.509e+09  1.704  0.925  0.008671  0.01469  -0.02237  0.001164  -0.4621  -0.5799
6.51e+09  1.884  0.2681  0.01898  -0.01483  -0.07255  -0.009722  -0.6532  -0.3643
6.511e+09  1.866  -0.4882  0.002619  0.003247  -0.016  -0.03505  -0.707  -0.1297
6.512e+09  1.659  -1.038  -0.01447  -0.01306  0.07907  0.03985  -0.7529  0.09893
6.514e+09  1.163  -1.63  -0.008328  -0.002291  -0.07257  0.01563  -0.6959  0.3538
6.515e+09  0.5098  -1.946  0.007697  -0.01695  0.03003  0.01701  -0.4892  0.5924
6.516e+09  -0.1825  -2.063  0.02288  0.02454  -0.02163  -0.03065  -0.2135  0.7218
6.518e+09  -0.9132  -1.792  0.008531  -0.00959  0.006682  -0.02526  -0.008831  0.7802
6.519e+09  -1.488  -1.355  0.01643  -0.00188  0.004404  0.03635  0.2893  0.6709
6.52e+09  -1.867  -0.7973  -0.01104  0.01813  0.01726  -0.06183  0.4706  0.5633
6.521e+09  -2.067  0.005627  0.02232  -0.005184  -0.02025  -0.04934  0.7034  0.3402
6.522e+09  -1.988  0.7243  -0.006364  -0.005013  0.006627  0.02554  0.7564  0.06783
6.524e+09  -1.565  1.362  -0.002992  -0.04325  0.04193  -0.007722  0.7523  -0.1777
6.525e+09  -1.131  1.894  0.00126  0.03102  -0.03015  0.02347  0.6058  -0.3696
6.526e+09  -0.309  2.123  0.02172  -0.006423  0.007918  -0.01838  0.4326  -0.5502
6.528e+09  0.4579  2.152  -0.03914  0.01846  0.03508  0.006859  0.175  -0.6765
6.529e+09  1.228  1.709  0.02004  0.009506  0.01911  -0.03654  -0.04145  -0.6997
6.53e+09  1.795  1.3  0.02373  -0.01889  -0.002059  0.03541  -0.2673  -0.6085
6.531e+09  2.186  0.5335  -0.002076  0.01339  0.01458  0.0204  -0.4721  -0.4894
6.532e+09  2.285  -0.2891  0.002889  0.005873  -0.01768  0.02548  -0.5885  -0.2777
6.534e+09  2.01  -1.109  0.04718  -0.01083  -0.03457  0.07049  -0.6242  -0.08239
6.535e+09  1.476  -1.778  -0.007111  -0.02673  -0.02374  0.01017  -0.6273  0.1283
6.536e+09  0.7442  -2.269  0.002502  0.01492  0.01211  0.02311  -0.5941  0.2886
6.538e+09  -0.08993  -2.404  0.000278  -0.02061  -0.006288  -0.08493  -0.4632  0.4964
6.539e+09  -0.9911  -2.243  0.004185  -0.002313  0.0007306  -0.03949  -0.2805  0.6006
6.54e+09  -1.765  -1.761  -0.02235  0.009295  0.06703  0.01025  -0.0582  0.6814
6.541e+09  -2.19  -1.001  -0.01654  0.00324  -0.01893  0.009234  0.1905  0.6837
6.542e+09  -2.482  -0.04085  -0.01591  0.03872  0.02287  -0.0118  0.4171  0.5201
6.544e+09  -2.377  0.8617  0.006447  0.0155  0.08787  -0.0264  0.6043  0.4004
6.545e+09  -1.871  1.675  0.01122  0.003855  0.02299  -0.07178  0.7346  0.21
6.546e+09  -1.101  2.229  0.02092  -0.00709  0.01078  -0.03143  0.7127  -0.1006
6.548e+09  -0.2537  2.49  -0.01013  0.01551  -0.01108  -0.01106  0.6449  -0.3217
6.549e+09  0.7492  2.506  -0.009607  0.002978  0.02433  -0.02054  0.5545  -0.56
6.55e+09  1.647  1.937  -0.006043  -0.02368  0.03458  0.01184  0.2761  -0.6684
6.551e+09  2.243  1.367  -0.01573  0.01672  0.04785  0.02461  0.03869  -0.7242
6.552e+09  2.584  0.3652  0.001911  -0.002643  0.02103  -0.02551  -0.238  -0.683
6.554e+09  2.571  -0.6619  -0.007619  0.00824  -0.002285  0.0467  -0.4739  -0.6133
