# Hz S RI R 50
6.25e+09  0.8849  -0.4673  0.02109  0.006545  0.01815  -0.01762  0.1556  0.471
6.251e+09  0.6347  -0.8127  -0.02681  -0.02359  -0.02089  0.03492  0.3615  0.3948
6.252e+09  0.3384  -0.9623  0.05133  -0.013  -0.04282  -0.02304  0.5651  0.2512
6.254e+09  -0.04755  -0.9502  -0.01976  -0.02666  -0.03137  -0.005467  0.6133  0.003873
6.255e+09  -0.3889  -0.9476  0.03058  0.01552  -0.03508  0.02743  0.5756  -0.2478
6.256e+09  -0.7039  -0.7113  0.02102  0.003184  -0.005135  -0.01183  0.4842  -0.4479
6.258e+09  -0.8982  -0.3839  0.003973  0.01946  0.01936  -0.0152  0.2719  -0.585
6.259e+09  -1.003  -0.07004  0.003745  -0.01899  -0.00792  -0.01653  0.04804  -0.6466
6.26e+09  -0.9402  0.2987  -0.01852  0.003487  0.0268  0.0461  -0.2602  -0.6418
6.261e+09  -0.7906  0.6349  -0.02385  0.02322  -0.04279  -0.008958  -0.4427  -0.5558
6.262e+09  -0.5124  0.8671  0.02629  0.01383  -0.04522  -0.03253  -0.6367  -0.3238
6.264e+09  -0.1837  0.9504  5.346e-05  -0.01606  0.06358  0.05116  -0.7413  -0.09791
6.265e+09  0.229  0.9992  0.007288  0.003387  -0.02009  -0.02674  -0.7082  0.1656
6.266e+09  0.5274  0.8759  0.0239  -0.01706  -0.03936  -0.04512  -0.6175  0.3812
6.268e+09  0.805  0.5962  -0.0011  -0.01412  -0.02373  0.01271  -0.4446  0.6086
6.269e+09  0.9142  0.3596  -0.008683  -0.01234  0.001152  0.002266  -0.2003  0.7239
6.27e+09  0.9646  -0.1106  0.008439  -0.01124  -0.04084  -0.0235  0.07421  0.7032
6.271e+09  0.8855  -0.4434  0.01276  -0.009242  -0.01412  0.02144  0.2851  0.6948
6.272e+09  0.7264  -0.676  0.03335  -0.01085  -0.01214  0.02311  0.5273  0.529
6.274e+09  0.3992  -0.9435  -0.0007286  0.00375  0.01917  -0.01201  0.691  0.2812
6.275e+09  0.09986  -1.014  -0.008312  0.01113  -0.03189  -0.006149  0.7584  0.05156
6.276e+09  -0.2985  -0.9535  0.02075  -0.007052  -0.0344  -0.03032  0.7275  -0.2226
6.278e+09  -0.642  -0.7928  0.004417  -0.01406  -0.004534  -0.01617  0.6018  -0.4704
6.279e+09  -0.855  -0.4439  -0.01442  -0.000529  -0.019  -0.01928  0.3888  -0.6287
6.28e+09  -1.015  -0.209  -0.01417  0.03352  0.02953  -0.002757  0.1375  -0.7716
6.281e+09  -0.9417  0.1902  0.003072  0.03069  -0.0221  0.0631  -0.1101  -0.7828
6.282e+09  -0.8609  0.534  0.004591  0.0185  -0.02447  0.03148  -0.3913  -0.6835
6.284e+09  -0.6064  0.753  0.006334  0.00217  -0.02105  0.03755  -0.5765  -0.5307
6.285e+09  -0.2621  0.8656  -0.01076  -0.0001003  -0.03259  0.01483  -0.7485  -0.3184
6.286e+09  0.0686  0.976  -0.005144  0.02764  0.02194  -0.03535  -0.7915  -0.01839
6.288e+09  0.3977  0.9439  -0.03435  -0.01145  0.007611  0.01745  -0.7575  0.257
6.289e+09  0.6895  0.6789  -0.02905  0.007124  -0.02068  0.0399  -0.6279  0.5136
6.29e+09  0.8993  0.399  0.002317  -0.01777  -0.01659  -0.005036  -0.3938  0.6758
6.291e+09  0.9461  0.06277  0.007197  -0.0009052  -0.02014  -0.005293  -0.1545  0.7977
6.292e+09  0.9812  -0.2769  0.01378  0.01433  0.01309  0.01009  0.1328  0.8068
6.294e+09  0.7521  -0.6238  -0.01482  0.02119  -0.007842  -0.004612  0.3942  0.7152
6.295e+09  0.5234  -0.8734  -0.01193  0.004347  0.01001  -0.03054  0.615  0.5265
6.296e+09  0.1723  -0.9541  0.01054  -0.003754  -0.0315  -0.04349  0.7567  0.2841
6.298e+09  -0.2053  -0.9303  -0.009871  0.01534  -0.0008736  -0.01707  0.8376  0.02787
6.299e+09  -0.5052  -0.8209  -0.008018  0.02498  0.01538  -0.000721  0.7918  -0.296
6.3e+09  -0.7769  -0.5745  0.01016  0.003483  0.04361  0.02055  0.6393  -0.5472
6.301e+09  -0.945  -0.3305  0.01072  0.0003207  -0.01595  0.03931  0.4242  -0.7401
6.302e+09  -1.001  -0.03247  -0.02602  0.01117  0.02756  -0.03315  0.1365  -0.8341
6.304e+09  -0.8849  0.3758  -0.007407  -0.001937  -0.01892  0.02798  -0.1383  -0.8331
6.305e+09  -0.7035  0.6722  -0.01134  0.0221  0.008759  0.04731  -0.4366  -0.7622
6.306e+09  -0.4545  0.862  -0.02185  0.01526  -0.0004325  -0.01199  -0.6245  -0.5418
6.308e+09  -0.05609  0.946  -0.008046  -0.01182  0.01008  -0.04335  -0.7975  -0.2917
6.309e+09  0.2856  0.9318  -0.003417  0.02079  0.007433  0.029  -0.8378  -0.0204
6.31e+09  0.6138  0.7976  -0.01483  0.04877  0.008416  0.00748  -0.8262  0.2991
6.311e+09  0.8271  0.5468  0.01168  -0.007685  -0.01102  0.0279  -0.6653  0.5607
6.312e+09  0.9627  0.1746  -0.03931  0.005594  -0.001238  0.01024  -0.4475  0.7752
6.314e+09  0.985  -0.1341  -0.005985  0.01159  0.01868  -0.01102  -0.1739  0.8605
6.315e+09  0.8654  -0.4763  -0.006956  0.007785  0.05208  0.02283  0.1508  0.8635
6.316e+09  0.63  -0.7546  -0.008763  0.01114  0.01464  0.02159  0.4239  0.7837
6.318e+09  0.3178  -0.8557  -0.01456  0.006048  0.04926  0.03032  0.6702  0.6048
6.319e+09  -0.02124  -0.9941  0.003785  0.02072  0.0424  -0.01605  0.8159  0.3258
6.32e+09  -0.367  -0.8955  0.0007371  -0.009504  -0.05585  0.03954  0.9051  0.02994
6.321e+09  -0.6661  -0.7696  0.003551  0.009215  0.01435  -0.02493  0.8518  -0.2671
6.322e+09  -0.8893  -0.4156  0.01489  -0.01208  -0.04902  -0.02137  0.6883  -0.5505
6.324e+09  -1.011  -0.1381  0.03007  0.01055  0.01927  0.0395  0.4767  -0.7671
6.325e+09  -0.9258  0.2631  -0.01167  -0.01559  -0.009006  -0.01834  0.1601  -0.9019
6.326e+09  -0.8472  0.5361  -0.005314  -0.01163  0.01914  0.05574  -0.1679  -0.8943
6.328e+09  -0.5574  0.8382  0.0006931  -0.00837  0.05741  0.01637  -0.441  -0.8145
6.329e+09  -0.2442  0.9351  0.004085  0.01725  -0.0004363  -0.02835  -0.686  -0.5598
6.33e+09  0.111  1.023  0.006322  -0.01871  -0.03122  0.02164  -0.8495  -0.32
6.331e+09  0.4624  0.9208  0.01606  -0.01344  0.08301  0.03438  -0.9041  -0.0567
6.332e+09  0.7528  0.7133  0.000687  0.003231  0.02154  -0.006752  -0.8887  0.2768
6.334e+09  0.993  0.3478  -0.00416  0.02822  0.004316  0.03761  -0.7366  0.5682
6.335e+09  0.9992  0.02582  0.02168  0.006758  0.01893  0.01341  -0.5029  0.7669
6.336e+09  0.9611  -0.3884  0.0196  -0.01796  0.04333  -0.006518  -0.2438  0.8897
6.338e+09  0.7402  -0.7037  0.03385  0.002508  -0.01778  0.005685  0.1267  0.9131
6.339e+09  0.4649  -0.9143  -0.004111  -0.01712  -0.0003101  0.02521  0.4271  0.8309
6.34e+09  0.1393  -1.031  0.006309  0.002772  0.04074  0.0423  0.681  0.626
6.341e+09  -0.2382  -1.029  -0.01388  0.02369  -0.05375  -0.05493  0.8542  0.348
6.342e+09  -0.564  -0.8766  0.002254  0.03352  0.03108  0.03421  0.9642  0.03007
6.344e+09  -0.7932  -0.6052  0.01158  0.01451  0.0378  0.04931  0.8929  -0.2592
6.345e+09  -1.029  -0.2376  0.007446  0.01204  0.04027  0.01409  0.7609  -0.5752
6.346e+09  -1.043  0.07783  0.02695  0.0244  -0.003003  -0.01817  0.5215  -0.7653
6.348e+09  -0.923  0.4703  0.0397  0.01736  0.01311  0.02771  0.1973  -0.9094
6.349e+09  -0.7555  0.7619  0.008738  -0.02981  0.02881  0.04435  -0.09387  -0.9069
6.35e+09  -0.4326  0.9793  0.004635  -0.01385  0.001299  0.01933  -0.4415  -0.8343
6.351e+09  -0.07515  1.022  -0.02393  -0.001771  -0.001312  0.05168  -0.6731  -0.6166
6.352e+09  0.3563  0.9444  -0.03228  -0.003177  -0.06889  -0.02311  -0.8778  -0.3614
6.354e+09  0.6608  0.8185  0.01281  0.005258  -0.005707  -0.06745  -0.9407  -0.04038
6.355e+09  0.8958  0.5136  -0.01609  0.02463  -0.06304  -0.01832  -0.9231  0.2854
6.356e+09  1.053  0.1471  -0.04537  0.042  -0.02562  0.04073  -0.7459  0.5766
6.358e+09  1.029  -0.1983  0.03661  0.01041  0.03925  -0.02742  -0.5541  0.769
6.359e+09  0.9178  -0.5859  -0.04058  -0.002816  -0.04524  0.01909  -0.2451  0.904
6.36e+09  0.6218  -0.83  -0.01115  0.01505  0.0006178  -0.03384  0.08668  0.9335
6.361e+09  0.3256  -1.011  0.004866  0.001031  0.04299  0.03754  0.4098  0.8725
6.362e+09  -0.07626  -1.011  0.00254  -0.01281  0.006725  0.003678  0.6552  0.6616
6.364e+09  -0.4938  -0.9845  0.01042  0.0464  0.02618  -0.05097  0.8224  0.4294
6.365e+09  -0.7938  -0.7649  -0.01471  0.002434  0.005117  -0.07032  0.9549  0.06108
6.366e+09  -0.998  -0.4205  -0.007804  0.02292  0.03643  -0.0413  0.9393  -0.2541
6.368e+09  -1.118  -0.03709  -0.01655  -0.04125  -0.05683  0.03637  0.7995  -0.567
6.369e+09  -1.042  0.348  0.01694  -0.004382  0.0009428  -0.02376  0.5291  -0.7572
6.37e+09  -0.8261  0.6786  0.03138  -0.02614  0.01744  0.02085  0.1924  -0.8871
6.371e+09  -0.523  0.9783  -0.02421  0.007587  0.03389  0.02912  -0.05015  -0.9418
6.372e+09  -0.1881  1.017  0.01931  -0.009018  0.0287  -0.03423  -0.3928  -0.8549
6.374e+09  0.2544  1.085  0.0193  -0.02328  0.002822  -0.0008412  -0.6684  -0.659
6.375e+09  0.5923  0.9389  0.003248  0.006324  0.008398  0.0358  -0.8342  -0.3849
6.376e+09  0.9224  0.673  0.01979  0.008966  0.02236  -0.04169  -0.9609  -0.1207
6.378e+09  1.082  0.3146  0.007225  0.01421  -0.03868  0.01984  -0.941  0.2795
6.379e+09  1.122  -0.1165  0.01348  -0.02185  0.01158  0.01182  -0.7961  0.5123
6.38e+09  1.03  -0.5223  0.05935  -0.006827  -0.00932  0.01669  -0.5996  0.7187
6.381e+09  0.8011  -0.8518  0.04545  -0.02869  0.02075  -0.004614  -0.2698  0.8949
6.382e+09  0.4254  -1.039  -0.01569  0.01661  0.005506  -0.03425  0.06109  0.9376
6.384e+09  0.009067  -1.23  -0.0494  0.0006334  -0.03933  0.01114  0.4188  0.8456
6.385e+09  -0.4067  -1.108  0.008907  0.002618  0.02013  -0.04149  0.6698  0.6892
6.386e+09  -0.8566  -0.848  -0.008113  -0.01937  0.0358  -0.004544  0.8277  0.4435
6.388e+09  -1.061  -0.5365  0.01691  0.02877  -0.03794  -0.03455  0.9775  0.09581
6.389e+09  -1.156  -0.112  0.00108  0.02554  0.005407  0.009256  0.9343  -0.2365
6.39e+09  -1.122  0.3292  -0.0404  -0.0432  0.02461  -0.05577  0.7502  -0.5202
6.391e+09  -0.9288  0.7789  0.03132  -0.04858  0.01517  -0.03613  0.581  -0.747
6.392e+09  -0.5968  1.063  0.01946  -0.04139  0.001628  -0.0009843  0.2895  -0.8834
6.394e+09  -0.2778  1.18  -0.008931  0.007543  -0.0315  0.03513  -0.03984  -0.9473
6.395e+09  0.1323  1.192  -0.003669  0.002031  -0.006412  0.01768  -0.2973  -0.8577
6.396e+09  0.5703  1.078  0.01533  -0.00723  -0.007481  0.04945  -0.6337  -0.668
6.398e+09  0.8966  0.7542  0.002754  0.004385  -0.01294  0.01229  -0.7921  -0.4051
6.399e+09  1.144  0.4071  0.002082  -0.0008381  0.04401  0.01906  -0.8999  -0.1798
6.4e+09  1.285  -0.01672  -0.01313  -0.00835  0.05857  0.04744  -0.8872  0.1573
6.401e+09  1.142  -0.458  0.02027  0.01007  0.005981  -0.03849  -0.8144  0.4822
6.402e+09  0.8772  -0.8902  0.008812  0.01494  0.01464  0.001026  -0.603  0.6855
6.404e+09  0.4852  -1.173  -0.009242  -0.007727  0.01233  -0.004436  -0.3245  0.8913
6.405e+09  0.02464  -1.268  -0.04083  -0.01201  -0.02305  0.005002  0.05675  0.9317
6.406e+09  -0.3835  -1.191  0.001924  -0.01119  0.0513  0.004532  0.2706  0.842
6.408e+09  -0.816  -0.9496  -0.03823  -0.009987  0.0006221  0.007014  0.5936  0.6658
6.409e+09  -1.089  -0.6463  0.01024  0.03125  -0.06288  0.004357  0.7806  0.482
6.41e+09  -1.246  -0.1267  0.00221  -0.002507  0.03476  0.0505  0.8975  0.1967
6.411e+09  -1.238  0.3564  -0.01744  -0.002989  0.002782  0.01824  0.9379  -0.1284
6.412e+09  -1.015  0.7647  -0.01362  -0.01681  0.006165  -0.0182  0.8199  -0.4757
6.414e+09  -0.6777  1.07  -0.0006614  -0.02475  0.008534  0.02872  0.592  -0.7228
6.415e+09  -0.2033  1.247  -0.05142  -0.03293  -0.004051  -0.01661  0.3094  -0.8181
6.416e+09  0.2148  1.263  0.0249  0.007114  0.03241  0.01664  -0.03317  -0.9058
6.418e+09  0.7116  1.06  -0.01033  0.01987  -0.002423  0.01211  -0.2793  -0.8305
6.419e+09  0.9773  0.7473  0.01095  0.01483  -0.02498  -0.03256  -0.5334  -0.6935
6.42e+09  1.175  0.3077  -0.04517  0.03061  0.008202  -0.01583  -0.7544  -0.4939
6.421e+09  1.296  -0.1596  -0.01977  0.00551  0.05119  0.04666  -0.8971  -0.1517
6.422e+09  1.088  -0.6202  -0.007937  0.01037  -0.02052  0.03149  -0.905  0.1012
6.424e+09  0.8246  -0.962  -0.03257  0.005417  -0.01776  -0.01919  -0.7976  0.3589
6.425e+09  0.4271  -1.226  -0.02003  -0.002688  0.05177  -0.002402  -0.6098  0.6253
6.426e+09  -0.06046  -1.229  -0.01762  0.035  0.006906  -0.01459  -0.3461  0.7776
6.428e+09  -0.521  -1.161  0.04296  -0.04948  0.01997  0.009373  -0.06944  0.8852
6.429e+09  -0.9376  -0.8867  0.02888  -0.02432  -0.01089  -0.04192  0.2475  0.8387
6.43e+09  -1.162  -0.4672  0.03141  -0.01817  -0.02962  0.03707  0.544  0.7326
6.431e+09  -1.188  -0.02685  0.01705  -0.0197  -0.002419  0.02607  0.7245  0.4985
6.432e+09  -1.103  0.3978  0.01292  0.02881  -0.02865  -0.007714  0.8377  0.2174
6.434e+09  -0.9661  0.8009  0.01657  0.02343  -0.005607  0.05214  0.8582  -0.1024
6.435e+09  -0.5886  1.037  0.0008259  -0.004315  0.006888  -0.003481  0.7356  -0.3508
6.436e+09  -0.182  1.234  -0.01472  0.007824  0.01573  0.02566  0.5803  -0.6335
6.438e+09  0.2664  1.176  -0.02844  -0.04201  0.01166  0.03449  0.3747  -0.7918
6.439e+09  0.7094  1.002  0.03788  0.05833  -0.04604  0.04764  0.05285  -0.8514
6.44e+09  0.9959  0.6543  0.02672  0.01771  5.347e-05  -0.00732  -0.2493  -0.8864
6.441e+09  1.115  0.2788  -0.0007673  -0.03974  0.002711  -0.02651  -0.4736  -0.6933
6.442e+09  1.174  -0.2032  -0.04001  -0.03514  0.01571  0.0246  -0.6946  -0.5155
6.444e+09  1.01  -0.5716  0.0005871  -0.008906  -0.02273  0.02032  -0.8498  -0.2144
6.445e+09  0.8018  -0.8667  -0.05875  -0.02035  0.0008387  0.03011  -0.8469  0.08242
6.446e+09  0.3442  -1.028  -0.002946  -0.02257  -0.02443  -0.01808  -0.7605  0.347
6.448e+09  -0.09712  -1.148  0.00854  0.03447  0.01268  -0.06121  -0.5625  0.6033
6.449e+09  -0.4844  -1.027  0.006658  0.01938  -0.03411  0.01461  -0.3792  0.7649
6.45e+09  -0.8023  -0.8374  -0.008003  -0.01555  -0.03262  -0.05218  -0.07561  0.7916
6.451e+09  -0.9471  -0.4742  -0.03512  -0.01678  0.03381  0.06289  0.2795  0.8116
6.452e+09  -1.065  -0.08125  0.03527  -0.002904  0.04729  0.00425  0.5214  0.6762
6.454e+09  -1.112  0.2733  -0.05686  0.009872  0.04834  -0.02492  0.6797  0.435
6.455e+09  -0.8728  0.6981  0.03477  0.005756  0.008248  -0.0562  0.7994  0.2252
6.456e+09  -0.6136  0.9217  -0.04809  0.02973  -0.01576  0.003036  0.8314  -0.09265
6.458e+09  -0.2161  1.092  0.007694  -0.002477  -0.01495  -0.01545  0.6888  -0.3505
6.459e+09  0.1578  1.149  -0.02473  0.01377  0.03392  -0.01775  0.6083  -0.6073
6.46e+09  0.5867  0.9182  -0.002784  -0.0117  0.04644  -0.01588  0.3447  -0.7295
6.461e+09  0.8502  0.726  0.01447  -0.008141  0.03375  0.0152  0.06272  -0.8226
6.462e+09  0.9951  0.3701  0.008766  -0.0174  0.07095  0.03319  -0.2054  -0.8638
6.464e+09  1.064  -0.02274  0.01548  0.02306  0.03502  -0.03031  -0.4572  -0.6537
6.465e+09  1.02  -0.3507  0.05604  0.0134  -0.04336  0.04118  -0.6572  -0.4757
6.466e+09  0.7878  -0.7026  -0.01073  0.01891  0.01266  0.01408  -0.8348  -0.1892
6.468e+09  0.4891  -0.9871  -0.0157  -0.05773  0.03371  -0.01758  -0.8023  0.09492
6.469e+09  0.1056  -1.048  0.0145  -0.02649  0.01823  0.04055  -0.7132  0.3951
6.47e+09  -0.2311  -1.037  0.01274  0.03406  -0.02164  0.02333  -0.5921  0.6038
6.471e+09  -0.626  -0.8489  -0.005206  0.01351  -0.02836  0.01871  -0.3354  0.7198
6.472e+09  -0.8818  -0.6075  -0.01826  0.06324  0.03194  -0.01163  -0.05392  0.8012
6.474e+09  -1.012  -0.2165  0.01393  -0.009798  -0.04403  0.009236  0.2057  0.7811
6.475e+09  -1.043  0.1572  -0.02874  -0.006425  -0.007714  -0.004768  0.4763  0.6841
6.476e+09  -0.8831  0.4739  0.01885  0.008392  -0.01535  -0.00423  0.6342  0.4573
6.478e+09  -0.7093  0.7664  -0.0001751  -0.002274  -0.01156  -0.02333  0.7243  0.218
6.479e+09  -0.3494  0.947  -0.00447  0.0002082  0.005825  -0.01568  0.7816  -0.08756
6.48e+09  -0.02171  0.9732  -0.01449  -0.01476  -0.02424  -0.02452  0.7322  -0.3308
6.481e+09  0.3065  1.002  0.03213  -0.008734  0.02447  -0.02449  0.5858  -0.5747
6.482e+09  0.578  0.7563  0.0303  0.03489  0.06147  0.00828  0.2282  -0.7121
6.484e+09  0.8768  0.5371  0.01313  0.02434  0.04736  0.02479  0.05218  -0.7761
6.485e+09  0.9873  0.1197  -0.009146  0.03124  0.08662  -0.0155  -0.2191  -0.8031
6.486e+09  0.9914  -0.1625  0.008478  -0.01829  -0.01183  0.01137  -0.4403  -0.6357
6.488e+09  1.348  0.01158  0.01935  0.02885  0.7368  0.07913  -0.636  -0.4022
6.489e+09  0.6427  -0.7859  0.02609  -0.00412  0.01021  -0.06909  -0.7369  -0.1885
6.49e+09  0.3756  -0.9845  0.01161  -0.01377  -0.03411  -0.002515  -0.756  0.1171
6.491e+09  -0.06771  -0.9639  -0.01503  -0.03555  -0.01095  5.471e-05  -0.7292  0.303
6.492e+09  -0.3659  -0.9271  -0.01132  -0.00721  0.01311  -0.02887  -0.5417  0.5517
6.494e+09  -0.7075  -0.6578  0.002672  -0.02683  -0.1488  -0.065  -0.3105  0.6944
6.495e+09  -0.8637  -0.4442  0.01598  0.003405  0.01471  -0.01242  -0.02614  0.7849
6.496e+09  -0.967  -0.1788  0.03599  0.01658  -0.003317  -0.01462  0.2236  0.7526
6.498e+09  -0.9827  0.1922  -0.002527  -0.03597  -0.03739  -0.02498  0.4603  0.6064
6.499e+09  -0.8183  0.5464  -0.006057  0.06336  -0.02103  -0.05471  0.6253  0.3907
6.5e+09  -0.2969  1.406  -0.00788  0.03342  -0.05164  0.04309  0.7507  0.19
6.501e+09  -0.2887  0.9317  -0.02821  -0.003838  -0.02909  -0.06549  0.7326  -0.1027
6.502e+09  0.1065  1.009  0.00146  0.01828  0.01398  0.008229  0.6892  -0.3724
6.504e+09  0.3453  0.9246  -0.03773  0.02138  0.01784  0.01194  0.5319  -0.5213
6.505e+09  0.6638  0.7125  0.03117  0.04679  0.02353  -0.002859  0.3116  -0.7093
6.506e+09  0.8631  0.4589  0.006516  0.02353  -0.01855  -0.06982  0.02664  -0.7088
6.508e+09  0.9776  0.08612  -0.001877  -0.001962  -0.004476  -0.04795  -0.2329  -0.7254
6.509e+09  0.9894  -0.2669  0.01333  0.01709  -0.02084  -0.001011  -0.4884  -0.6121
6.51e+09  0.7968  -0.5634  -0.02128  -0.02373  0.002472  -0.02374  -0.676  -0.398
6.511e+09  0.5996  -0.7725  -0.002494  -0.01722  0.00978  -0.03886  -0.7609  -0.1422
6.512e+09  0.2582  -0.9936  -0.01298  0.01468  0.0113  0.02071  -0.7692  0.1152
6.514e+09  -0.1505  -0.9678  -0.0103  0.01137  -0.00196  0.01895  -0.6716  0.3585
6.515e+09  -0.4824  -0.9406  -0.006681  0.01165  0.004558  -0.02081  -0.4809  0.5785
6.516e+09  -0.7775  -0.69  -0.01172  0.01791  -0.01752  0.02369  -0.2695  0.684
6.518e+09  -0.9216  -0.4238  0.005904  0.03189  0.001174  -0.01818  -0.02233  0.7801
6.519e+09  -1.034  -0.06808  -0.03046  0.01676  0.031  -0.01145  0.2895  0.7242
6.52e+09  -1.028  0.3279  0.0006187  0.00307  0.05249  -0.03212  0.4787  0.5541
6.521e+09  -0.8327  0.6055  -0.02945  -0.04374  0.003842  -0.005633  0.6638  0.3361
6.522e+09  -0.5781  0.9075  0.04208  0.04482  -0.005345  0.01913  0.733  0.08926
6.524e+09  -0.198  1.056  -0.03013  -0.009412  -0.03842  -0.03288  0.7188  -0.1887
6.525e+09  0.2007  0.9939  0.01409  0.02662  0.003187  -0.001922  0.606  -0.4172
6.526e+09  0.5546  0.9243  -0.01929  -0.03655  0.006394  -0.04167  0.4375  -0.5811
6.528e+09  0.78  0.6511  -0.001014  0.008301  -0.04433  -0.005037  0.2107  -0.6988
6.529e+09  1.007  0.3938  -0.01606  0.03235  -0.001779  -0.03525  -0.02148  -0.7034
6.53e+09  1.073  -0.01484  0.01285  0.008685  -0.007758  -0.0293  -0.2718  -0.6072
6.531e+09  0.9987  -0.4181  0.04062  -0.03211  0.03447  -0.06459  -0.4766  -0.4844
6.532e+09  0.8268  -0.7038  0.05104  0.01603  -0.0412  0.01144  -0.5691  -0.2771
6.534e+09  0.5369  -0.9491  -0.03646  0.007543  0.01546  -0.04682  -0.6504  -0.08086
6.535e+09  0.1539  -1.105  0.01409  -0.006555  0.003673  0.006979  -0.6291  0.08478
6.536e+09  -0.2669  -1.07  -0.007916  -0.005162  0.001612  0.02543  -0.5481  0.2903
6.538e+09  -0.5972  -0.9408  0.01024  -0.01966  0.006449  -0.02693  -0.4283  0.5106
6.539e+09  -0.9342  -0.7032  0.007698  0.01963  0.0276  0.00931  -0.2606  0.6037
6.54e+09  -1.064  -0.3397  0.001219  -0.01243  0.05828  0.006378  -0.07539  0.6892
6.541e+09  -1.12  0.08101  -0.008347  -0.03459  0.03585  -0.02147  0.2061  0.6707
6.542e+09  -1.052  0.4671  0.02137  -0.01568  0.01633  0.02344  0.4013  0.583
6.544e+09  -0.8173  0.8398  -0.03698  -0.03235  0.04797  0.004642  0.5509  0.4012
6.545e+09  -0.5032  1.001  -0.005386  -0.01786  -0.01266  0.01987  0.6853  0.1996
6.546e+09  -0.0768  1.168  -0.00914  -0.01709  0.02006  0.01336  0.7268  -0.05007
6.548e+09  0.372  1.11  -0.001107  -0.02847  -0.02125  -0.04858  0.6407  -0.2969
6.549e+09  0.7163  0.9324  -0.00779  -0.01865  -0.01913  -0.06307  0.5161  -0.5571
6.55e+09  1.007  0.6353  0.02144  -0.009435  -0.03755  -0.04873  0.3046  -0.6882
6.551e+09  1.178  0.2482  0.007579  -0.01527  0.02308  -0.01301  0.02814  -0.742
6.552e+09  1.197  -0.208  -0.003398  -0.01478  -0.004871  -0.01364  -0.2092  -0.6811
