# Hz S RI R 50
6.25e+09  -0.04843  0.9286  -0.01675  -0.01497  -0.02969  -0.04548  0.1498  0.4867
6.251e+09  0.2875  0.853  0.01164  -0.002405  0.01376  0.0594  0.3741  0.4044
6.252e+09  0.5712  0.7445  0.007462  -0.02606  0.02181  -0.01168  0.5341  0.2355
6.254e+09  0.7966  0.4859  0.009915  0.03031  0.01785  0.02263  0.5901  -0.002519
6.255e+09  0.8889  0.1726  0.03101  -0.02186  0.04277  -0.06338  0.5933  -0.1943
6.256e+09  0.8995  -0.1598  0.0101  0.0008095  0.03106  0.02267  0.4549  -0.4572
6.258e+09  0.7854  -0.4729  -0.007539  -0.03379  0.05156  -0.01676  0.3047  -0.5725
6.259e+09  0.6133  -0.7103  0.03713  0.02149  -0.003413  0.003453  0.04247  -0.6726
6.26e+09  0.2812  -0.8057  0.003594  0.008153  -0.01062  -0.02876  -0.1826  -0.6594
6.261e+09  0.02017  -0.9158  -0.003776  -0.002122  0.007685  0.03929  -0.4629  -0.5405
6.262e+09  -0.2354  -0.9011  -0.003251  -0.0006208  -0.01434  -0.04057  -0.6381  -0.3367
6.264e+09  -0.649  -0.7065  -0.0122  0.02349  0.04916  0.007695  -0.7208  -0.1156
6.265e+09  -0.7846  -0.441  0.02516  0.01995  -0.04883  -0.02123  -0.7057  0.166
6.266e+09  -0.8768  -0.152  0.009901  0.007502  -0.005056  0.01354  -0.6232  0.395
6.268e+09  -0.8887  0.184  -0.007916  0.0008975  -5.588e-05  0.016  -0.4231  0.5954
6.269e+09  -0.7642  0.5439  0.01862  0.0004354  0.0177  -0.01439  -0.2045  0.7169
6.27e+09  -0.5831  0.7683  -0.01001  0.01884  0.03402  -0.03717  0.0768  0.7416
6.271e+09  -0.2889  0.9213  0.01051  0.00709  -0.01026  0.04703  0.3137  0.6668
6.272e+09  0.02763  0.8815  0.02165  -0.002416  0.04991  0.01521  0.5395  0.5283
6.274e+09  0.3413  0.8195  0.001876  -0.009167  -0.0511  -0.03256  0.6504  0.3225
6.275e+09  0.6367  0.6989  0.03721  0.01153  -0.03364  -0.001693  0.7546  0.01974
6.276e+09  0.7935  0.3778  0.001094  0.003893  0.01151  0.009103  0.7011  -0.2457
6.278e+09  1.01  0.06418  0.006616  -0.01011  0.01152  0.0683  0.6132  -0.4636
6.279e+09  0.8394  -0.2287  -0.01124  -0.01582  -0.02173  -0.03796  0.4479  -0.6385
6.28e+09  0.7385  -0.5136  -0.004382  0.003434  0.01729  -0.002385  0.152  -0.7542
6.281e+09  0.5321  -0.7962  0.0111  0.006395  0.01891  0.02091  -0.09021  -0.7671
6.282e+09  0.2558  -0.9465  0.008817  0.001539  -0.004896  -0.03969  -0.3854  -0.7021
6.284e+09  -0.05251  -0.9211  0.01439  -0.03101  -0.02328  -0.02275  -0.588  -0.5528
6.285e+09  -0.4221  -0.8188  0.004722  -0.03514  0.03049  0.02344  -0.7413  -0.3135
6.286e+09  -0.7152  -0.662  -0.006497  -0.0117  0.02029  0.0378  -0.802  -0.01133
6.288e+09  -0.8694  -0.3744  0.007122  0.02129  0.01018  0.038  -0.7498  0.2519
6.289e+09  -0.9136  -0.08535  0.008887  -0.004101  -0.02946  -0.03434  -0.6226  0.528
6.29e+09  -0.9323  0.3017  0.001292  0.006136  0.04527  0.00726  -0.405  0.6823
6.291e+09  -0.7228  0.5717  0.03163  -0.02027  -0.01499  -0.01368  -0.1416  0.7749
6.292e+09  -0.5083  0.7936  -0.003311  -0.007138  0.0056  0.03184  0.09555  0.8057
6.294e+09  -0.1707  0.9079  -0.007368  0.03094  0.009565  0.0209  0.3894  0.7017
6.295e+09  0.1577  0.8975  -0.01614  -0.01316  0.01404  0.01764  0.6043  0.5287
6.296e+09  0.4768  0.8335  -0.0009117  0.02498  -0.01297  -0.02588  0.7938  0.2973
6.298e+09  0.6798  0.6351  0.03826  -0.03576  0.005713  -0.06669  0.8144  0.03196
6.299e+09  0.8876  0.3419  -0.01771  -0.01944  0.04925  -0.01411  0.7907  -0.29
6.3e+09  0.9225  -0.0004111  -0.01675  0.0009171  -0.02812  0.04802  0.636  -0.5429
6.301e+09  0.8621  -0.3274  -0.03133  0.01215  0.00297  -0.005692  0.4608  -0.7414
6.302e+09  0.702  -0.591  -0.01268  0.02262  0.004409  -0.04091  0.1349  -0.8268
6.304e+09  0.5016  -0.8436  0.03145  -0.004227  0.0144  0.01382  -0.1349  -0.8539
6.305e+09  0.1511  -0.9941  -0.01354  -0.02197  -0.03737  0.02712  -0.4158  -0.7561
6.306e+09  -0.1816  -0.9403  0.0136  -0.04421  0.02714  0.04256  -0.6488  -0.5773
6.308e+09  -0.5087  -0.8167  -0.02371  -0.006527  0.0219  0.005557  -0.8117  -0.2966
6.309e+09  -0.7402  -0.6145  -0.01022  -0.006854  -0.01877  -0.05314  -0.8732  -0.0381
6.31e+09  -0.8683  -0.3004  0.02843  0.008945  -0.03271  -0.05149  -0.7938  0.301
6.311e+09  -0.9235  0.01742  -0.00725  -0.0125  0.005721  -0.03615  -0.6506  0.5879
6.312e+09  -0.8899  0.3773  -0.0009719  -0.01704  0.01767  -0.03665  -0.4203  0.7528
6.314e+09  -0.6865  0.6755  -0.001378  -0.02118  0.01847  -0.03129  -0.1382  0.886
6.315e+09  -0.4082  0.892  0.001479  0.01431  -0.02681  -0.0109  0.1103  0.8602
6.316e+09  -0.09519  1.002  0.01673  0.002783  -0.05091  0.0382  0.4459  0.7984
6.318e+09  0.247  0.9381  -0.01191  0.005331  -0.05171  0.0278  0.6759  0.5757
6.319e+09  0.564  0.8053  0.03041  -0.02235  -0.03577  -0.01225  0.81  0.3207
6.32e+09  0.8547  0.5242  0.01219  -0.009512  0.0006339  -0.009182  0.8563  0.02185
6.321e+09  1.001  0.2024  0.0149  0.037  -0.02907  -0.05411  0.8456  -0.2927
6.322e+09  1.034  -0.1346  0.02279  0.02588  -0.03352  0.03022  0.6842  -0.5623
6.324e+09  0.8679  -0.5027  -0.03209  -0.006971  0.0001029  0.0009202  0.5084  -0.7785
6.325e+09  0.7071  -0.8069  -0.0138  0.01937  -0.01041  -0.0003262  0.1835  -0.8689
6.326e+09  0.3177  -0.9354  -0.002145  0.02461  -0.01817  0.03135  -0.1638  -0.8952
6.328e+09  -0.009001  -1.051  -0.006576  0.02682  0.01538  -0.01068  -0.427  -0.7906
6.329e+09  -0.3302  -0.9804  -0.02911  -0.02743  -0.005246  -0.02178  -0.6648  -0.5832
6.33e+09  -0.6973  -0.8166  0.02472  -0.02694  -0.0529  -0.0602  -0.8528  -0.3338
6.331e+09  -0.8823  -0.5322  0.05786  -0.00977  -0.03397  -0.006523  -0.919  -0.04952
6.332e+09  -1.054  -0.1448  0.002453  0.006802  -0.008222  -0.004663  -0.8799  0.2731
6.334e+09  -1.033  0.2167  0.005623  -0.01719  0.01717  0.03656  -0.7073  0.5926
6.335e+09  -0.8855  0.554  -0.007365  0.02531  -0.008508  -0.005478  -0.497  0.789
6.336e+09  -0.6615  0.8442  -0.01959  -0.021  -0.02749  -0.002657  -0.1942  0.9202
6.338e+09  -0.3115  1.029  0.0168  0.01465  0.04019  0.02661  0.1507  0.92
6.339e+09  0.1051  1.078  -0.03876  0.01531  -0.01535  0.0281  0.4411  0.7877
6.34e+09  0.4836  0.9822  -0.01222  0.02307  -0.04504  0.02025  0.6838  0.6023
6.341e+09  0.8039  0.793  -0.01501  -0.0005882  -0.01134  -0.06148  0.8455  0.3805
6.342e+09  0.9952  0.4537  -0.03108  -0.00632  0.006053  -0.02441  0.9183  0.05445
6.344e+09  1.102  0.1394  0.003846  -0.02922  0.03343  -0.02003  0.8534  -0.2559
6.345e+09  1.002  -0.3524  -0.02439  0.0007324  0.0453  0.04645  0.7273  -0.578
6.346e+09  0.8287  -0.6699  -0.01142  -0.02455  -0.02367  -0.01519  0.4723  -0.763
6.348e+09  0.5291  -0.93  -0.01438  0.02046  0.03382  0.01334  0.2128  -0.9084
6.349e+09  0.1606  -1.074  -0.007502  0.04378  0.01893  -0.01019  -0.1374  -0.9105
6.35e+09  -0.2075  -1.075  0.01228  0.03577  -0.01955  -0.02623  -0.4231  -0.872
6.351e+09  -0.5354  -0.976  0.01092  -0.01402  -0.05622  -0.01403  -0.6976  -0.6798
6.352e+09  -0.8431  -0.7053  0.02497  -0.01255  0.0362  -0.003675  -0.8934  -0.4026
6.354e+09  -1.075  -0.326  -0.02201  -0.007517  -0.001367  0.01764  -0.9808  -0.06753
6.355e+09  -1.07  0.0442  0.003046  0.001385  0.03147  0.005045  -0.9185  0.276
6.356e+09  -1.032  0.4655  0.003834  0.03061  0.02963  -0.03895  -0.778  0.5729
6.358e+09  -0.7267  0.7578  -0.01409  0.006283  0.003553  -0.03567  -0.5138  0.8089
6.359e+09  -0.4604  0.987  -0.01633  -0.02238  0.01345  0.009481  -0.2349  0.9201
6.36e+09  -0.08138  1.127  0.001829  -0.01022  0.01504  0.006174  0.07662  0.9381
6.361e+09  0.3263  1.021  0.004407  -0.004613  0.01054  -0.00546  0.4214  0.8542
6.362e+09  0.6621  0.8979  -0.02409  0.02853  -0.01204  0.02413  0.6648  0.6594
6.364e+09  0.8963  0.5711  -0.006789  -0.02761  -0.005214  -0.01675  0.8441  0.3848
6.365e+09  1.1  0.2051  0.02929  0.01139  0.0002621  -0.002037  0.924  0.06504
6.366e+09  1.066  -0.1787  -0.03292  0.01448  0.004297  -0.001317  0.916  -0.2548
6.368e+09  0.9098  -0.5087  0.001651  -0.01463  -0.01999  -0.02133  0.799  -0.5731
6.369e+09  0.7223  -0.805  0.00404  -0.005059  0.03022  0.03994  0.5346  -0.7805
6.37e+09  0.3659  -1.032  -0.05193  0.04623  0.01249  0.011  0.2503  -0.9411
6.371e+09  -0.0154  -1.047  0.0005427  -0.02803  0.06858  0.004977  -0.1028  -0.9575
6.372e+09  -0.3496  -0.971  -0.01035  -0.01115  -0.02569  0.008789  -0.3739  -0.8651
6.374e+09  -0.6942  -0.8467  0.01625  0.00093  0.002757  0.03501  -0.6846  -0.6515
6.375e+09  -0.9021  -0.4997  -0.04356  0.03144  -0.0475  -0.0003727  -0.8745  -0.4021
6.376e+09  -1  -0.1587  -0.0109  -0.003483  -0.02527  0.005299  -0.9622  -0.07153
6.378e+09  -1.048  0.224  0.00501  0.01959  0.04236  -0.006189  -0.8895  0.2358
6.379e+09  -0.9063  0.5836  -0.02478  -0.009668  0.01718  -0.002101  -0.796  0.564
6.38e+09  -0.6451  0.8817  0.009104  0.006218  -0.03493  -0.02698  -0.5608  0.7525
6.381e+09  -0.3108  1.013  0.001658  0.006459  -0.019  -0.06771  -0.2264  0.9112
6.382e+09  0.05888  1.063  -0.02401  0.001084  -0.006927  0.03996  0.04906  0.9081
6.384e+09  0.4524  0.9433  0.00572  -0.01678  0.04995  0.02769  0.3813  0.8661
6.385e+09  0.7261  0.7342  0.03376  -0.02929  0.01057  -0.02424  0.6736  0.6639
6.386e+09  0.9645  0.4397  -0.01216  0.007412  -0.01793  -0.008066  0.8603  0.4017
6.388e+09  1.016  0.08693  0.002248  0.004773  -0.04689  0.01864  0.936  0.1209
6.389e+09  1.022  -0.2578  0.03655  -0.01274  0.0381  0.04438  0.8893  -0.2327
6.39e+09  0.8336  -0.6162  0.01679  0.01691  0.012  -0.01343  0.7705  -0.488
6.391e+09  0.5416  -0.8538  0.02583  0.000257  0.02238  0.02216  0.5868  -0.7243
6.392e+09  0.2357  -1.004  0.01642  0.01937  -0.01406  0.001608  0.2882  -0.9022
6.394e+09  -0.1335  -1.04  0.007125  0.01026  0.02426  -0.008977  -0.008375  -0.9204
6.395e+09  -0.5067  -0.9246  0.005109  -0.0185  -0.04132  0.01692  -0.3441  -0.8416
6.396e+09  -0.748  -0.7372  -0.02536  0.001794  -0.01126  -0.004703  -0.5901  -0.6933
6.398e+09  -0.9052  -0.4096  -0.008043  0.006497  0.02027  -0.02592  -0.7932  -0.4209
6.399e+09  -1.029  -0.04848  0.008217  -0.02142  0.0067  0.0012  -0.9296  -0.1397
6.4e+09  -0.9779  0.2741  -0.008184  0.01179  0.0004962  -0.01779  -0.9174  0.1688
6.401e+09  -0.7876  0.581  -0.009607  0.04798  0.06113  0.00972  -0.7811  0.4901
6.402e+09  -0.5953  0.8446  0.004972  0.02309  0.002352  -0.02016  -0.559  0.7482
6.404e+09  -0.2097  1.014  -0.04666  -0.05268  0.01214  -0.01758  -0.2595  0.9135
6.405e+09  0.1666  1.001  0.002866  -0.007633  0.01065  -0.01814  0.02712  0.929
6.406e+09  0.469  0.8638  0.01877  0.006386  -0.005881  -0.0009266  0.3092  0.8372
6.408e+09  0.7422  0.6626  0.04676  0.008181  0.03299  0.00271  0.6127  0.6908
6.409e+09  0.9518  0.3686  -0.001536  0.01025  -0.06355  -0.06171  0.8265  0.4843
6.41e+09  1.041  0.02219  0.0211  0.04653  4.623e-05  0.02119  0.8803  0.1454
6.411e+09  0.9064  -0.332  0.005878  -0.03351  -0.02159  0.04759  0.9254  -0.1562
6.412e+09  0.7445  -0.6378  0.01347  -0.01488  0.009797  -0.02825  0.8339  -0.4108
6.414e+09  0.543  -0.8963  -0.01916  0.05372  0.02831  0.01547  0.5935  -0.6878
6.415e+09  0.2239  -1.008  -0.004919  0.002072  -0.02535  -0.001953  0.3392  -0.8318
6.416e+09  -0.1646  -0.9885  0.03313  0.01996  0.04125  -0.001501  0.0323  -0.9548
6.418e+09  -0.5285  -0.8633  0.04146  0.002443  0.007911  0.01588  -0.2855  -0.8557
6.419e+09  -0.7969  -0.66  0.006014  0.01774  0.03321  -0.02134  -0.5666  -0.6867
6.42e+09  -0.9672  -0.3528  -0.0208  -0.03822  0.006391  0.02023  -0.7641  -0.4539
6.421e+09  -1.026  -0.01592  0.032  0.02039  0.00747  -0.001816  -0.8864  -0.1893
6.422e+09  -0.9725  0.3488  0.01824  -0.001876  -0.02892  -0.01039  -0.8487  0.1264
6.424e+09  -0.7544  0.695  -0.0121  0.007148  -0.04763  0.008519  -0.7783  0.3918
6.425e+09  -0.4419  0.8957  -0.04131  0.005318  0.00717  -0.0131  -0.6485  0.6364
6.426e+09  -0.101  0.9998  -0.02895  0.07156  0.01766  0.01091  -0.4196  0.8408
6.428e+09  0.2001  1.008  0.03675  0.02949  0.01956  0.01838  -0.08823  0.8813
6.429e+09  0.5733  0.8845  0.004973  0.02902  -0.02676  -0.0253  0.2229  0.8811
6.43e+09  0.8385  0.6929  -0.01061  0.05242  -0.04075  0.0304  0.5221  0.7039
6.431e+09  0.9377  0.2653  0.01018  0.004457  0.01445  -0.02871  0.7101  0.5116
6.432e+09  1.059  -0.09036  -0.01236  -0.03299  -0.02047  0.00981  0.8438  0.2176
6.434e+09  0.9501  -0.4666  0.02901  -0.0115  0.02604  -0.0006561  0.8618  -0.09737
6.435e+09  0.8153  -0.6843  -9.846e-05  0.007793  0.02334  -0.04031  0.747  -0.3823
6.436e+09  0.4554  -0.9423  0.002227  -0.01799  0.01541  0.04932  0.6332  -0.6465
6.438e+09  0.1121  -1.068  0.02776  -0.01569  -0.01702  -0.004274  0.3717  -0.7916
6.439e+09  -0.2236  -1.014  -0.03321  0.04183  -0.00828  0.0141  0.04456  -0.8752
6.44e+09  -0.6309  -0.9491  0.02222  -0.007514  0.0245  0.00457  -0.2071  -0.8686
6.441e+09  -0.8451  -0.5896  -0.006933  0.04715  -0.0154  0.04409  -0.4847  -0.6924
6.442e+09  -1.043  -0.2751  0.02358  -0.00906  -0.05354  -0.001013  -0.6967  -0.4693
6.444e+09  -1.112  0.0676  -0.007323  -0.005492  0.05048  -0.00739  -0.834  -0.2002
6.445e+09  -0.9026  0.4592  0.00312  0.01707  0.0302  0.014  -0.8043  0.05906
6.446e+09  -0.7645  0.732  0.029  -0.001776  -0.03204  -0.006624  -0.7517  0.3069
6.448e+09  -0.442  0.9964  0.02388  0.006269  -0.008452  0.0317  -0.5664  0.6173
6.449e+09  -0.05046  1.055  -0.02431  -0.04767  0.02417  0.03963  -0.3408  0.7813
6.45e+09  0.331  1.073  0.02008  -0.006238  -0.02029  -0.02836  -0.03856  0.8157
6.451e+09  0.6803  0.8586  0.02398  -0.0004434  -0.07034  0.006422  0.2419  0.8028
6.452e+09  0.9109  0.5947  0.01977  -0.02179  0.0671  0.0644  0.4584  0.6202
6.454e+09  1.046  0.2399  0.01805  -0.02466  -0.006027  -0.00632  0.6822  0.4387
6.455e+09  1.108  -0.2011  -0.02859  0.02442  -0.04326  0.004651  0.8062  0.1991
6.456e+09  0.9877  -0.5285  0.003638  -0.03542  0.02327  -0.03514  0.8385  -0.1039
6.458e+09  0.6807  -0.8505  -0.004926  0.03786  0.007421  -0.0009757  0.7204  -0.3747
6.459e+09  0.3768  -1.053  -0.04878  -0.005061  -0.04332  -0.007404  0.5813  -0.6052
6.46e+09  -0.0006442  -1.139  -0.01133  0.01966  -0.02192  0.04026  0.3487  -0.7353
6.461e+09  -0.4083  -1.041  -0.03838  -0.003407  -0.01548  0.000838  0.06983  -0.8136
6.462e+09  -0.7891  -0.8291  0.05371  -0.01618  0.006384  0.008601  -0.2237  -0.8299
6.464e+09  -0.9955  -0.5289  0.006559  -0.01597  -0.03034  -0.03722  -0.4749  -0.6528
6.465e+09  -1.115  -0.1216  0.01217  -0.04583  -0.005438  0.02093  -0.6667  -0.4367
6.466e+09  -1.113  0.2483  -0.0183  0.01931  -0.01775  -0.03943  -0.74  -0.1426
6.468e+09  -0.983  0.6258  -0.02145  -0.02106  -0.01197  -0.004349  -0.792  0.07758
6.469e+09  -0.6334  0.9324  -0.003487  -0.02157  -0.02592  -0.02892  -0.7554  0.3468
6.47e+09  -0.2914  1.096  0.05305  0.02156  0.06019  -0.05292  -0.5609  0.562
6.471e+09  0.17  1.145  0.01597  0.05231  -0.007564  0.005089  -0.3232  0.7778
6.472e+09  0.4777  1.05  -0.01304  0.02071  0.005651  0.007179  -0.06541  0.7122
6.474e+09  0.8145  0.7807  0.03441  0.01608  -0.00226  0.02124  0.2171  0.7661
6.475e+09  1.085  0.395  -0.01599  0.008872  0.02101  0.01453  0.4527  0.6396
6.476e+09  1.182  -0.03125  0.03285  -0.02553  0.03006  0.006384  0.6553  0.4634
6.478e+09  1.114  -0.3607  0.0166  -0.03941  0.0127  0.03053  0.7463  0.1804
6.479e+09  0.9384  -0.8039  -0.01088  -0.01612  -0.04507  -0.004658  0.7908  -0.1073
6.48e+09  0.5576  -0.9713  -0.05023  0.03409  -0.04301  0.03293  0.6772  -0.3746
6.481e+09  0.1741  -1.199  0.02771  -0.05454  -0.01916  0.04678  0.5531  -0.5614
6.482e+09  -0.2988  -1.145  0.009254  0.01709  0.005339  -0.00408  0.3232  -0.7254
6.484e+09  -0.6363  -0.9885  0.02207  0.01519  -0.0001422  0.008551  0.05439  -0.7733
6.485e+09  -0.9915  -0.6513  -0.0296  0.01616  0.04421  0.007912  -0.2232  -0.7783
6.486e+09  -1.139  -0.2925  -0.009296  0.03958  -0.05569  -0.02671  -0.4958  -0.6049
6.488e+09  -1.873  0.05804  0.0128  0.005741  -0.7099  -0.141  -0.6472  -0.4468
6.489e+09  -1.082  0.6001  0.04028  0.02673  -0.005013  0.02283  -0.7502  -0.1541
6.49e+09  -0.7975  0.8842  0.0173  0.0371  -0.03773  -0.001175  -0.7957  0.1176
6.491e+09  -0.3881  1.097  -0.02826  -0.002789  -0.02144  0.0268  -0.7357  0.319
6.492e+09  0.03622  1.208  -0.002862  0.0249  -0.02933  -0.00621  -0.5311  0.5661
6.494e+09  0.3783  1.102  0.01064  0.03925  -0.07745  -0.06873  -0.2651  0.6897
6.495e+09  0.7478  0.826  -0.02551  -0.01568  -0.008475  -0.01274  -0.01924  0.7611
6.496e+09  1.088  0.5228  0.05582  -0.01373  0.01969  0.0213  0.2273  0.7304
6.498e+09  1.136  0.1228  0.0009052  -0.001451  0.02279  0.04705  0.4211  0.6465
6.499e+09  1.129  -0.2845  -0.01523  -0.009195  0.01462  0.0008456  0.6827  0.3967
6.5e+09  0.6111  -0.05622  0.01388  0.03673  0.02113  0.0211  0.7484  0.1963
6.501e+09  0.6544  -1.002  0.0001104  0.0339  0.03514  -0.01974  0.7725  -0.1133
6.502e+09  0.2192  -1.144  0.02714  -0.00707  0.0227  0.001499  0.6641  -0.3386
6.504e+09  -0.2301  -1.147  0.00763  0.01454  -0.008458  -0.03469  0.4607  -0.5843
6.505e+09  -0.5656  -1.042  -0.0123  0.01765  -0.001258  -0.04664  0.2562  -0.7034
6.506e+09  -0.9403  -0.743  0.02765  0.006659  -0.02096  0.02018  0.005902  -0.753
6.508e+09  -1.124  -0.3593  0.03717  -0.02019  0.04218  0.01878  -0.2548  -0.7257
6.509e+09  -1.139  0.06053  0.009721  0.003834  0.01591  0.02677  -0.4601  -0.5852
6.51e+09  -1.072  0.5151  0.005711  0.009269  0.01878  0.01482  -0.6476  -0.3742
6.511e+09  -0.8299  0.7976  0.03272  -0.01473  -0.02078  0.04126  -0.7743  -0.1276
6.512e+09  -0.4465  1.052  -0.01069  -0.04427  -0.03142  0.02101  -0.729  0.1219
6.514e+09  -0.06668  1.204  0.03759  -0.005901  0.02384  0.01531  -0.625  0.3818
6.515e+09  0.2768  1.144  -0.002833  -0.01777  0.0506  -0.03774  -0.4605  0.592
6.516e+09  0.7178  0.8229  -0.0004474  0.02389  -0.02626  -0.02583  -0.2361  0.7208
6.518e+09  1.022  0.5801  -0.0295  -0.02318  -0.008437  -0.0295  0.01991  0.7812
6.519e+09  1.089  0.2195  -0.01448  -0.009692  0.009499  -0.04543  0.2612  0.7274
6.52e+09  1.118  -0.2794  -0.01959  0.03355  0.02106  -0.01936  0.5165  0.564
6.521e+09  0.9358  -0.6518  0.02214  0.01569  -0.02065  -0.04367  0.6771  0.3504
6.522e+09  0.6282  -0.8683  0.03528  0.0008089  0.02825  -0.03942  0.7536  0.08459
6.524e+09  0.3123  -1.004  0.01831  -0.004794  0.007817  -0.03192  0.72  -0.1715
6.525e+09  -0.09701  -1.068  0.0274  -0.01521  0.008734  0.03409  0.6261  -0.4044
6.526e+09  -0.508  -0.9838  -0.01758  0.007652  0.02637  -0.05413  0.4405  -0.5809
6.528e+09  -0.8195  -0.7222  0.03495  0.03701  -0.02542  0.005616  0.2077  -0.6698
6.529e+09  -1.032  -0.3791  -0.0007438  -0.02626  0.02433  0.06027  -0.05293  -0.7077
6.53e+09  -1.057  0.009004  -0.02732  0.00803  -0.003451  0.0744  -0.2938  -0.6351
6.531e+09  -0.9714  0.375  -0.003131  -0.003281  0.006049  0.02506  -0.4878  -0.4549
6.532e+09  -0.7953  0.7151  0.007408  -0.01322  0.0458  0.01395  -0.5771  -0.2973
6.534e+09  -0.4452  0.8997  -0.01364  -0.009921  -0.002094  0.009625  -0.598  -0.09864
6.535e+09  -0.122  1.036  0.009574  -0.006744  0.05247  0.01616  -0.6306  0.1014
6.536e+09  0.2529  0.9734  0.02221  -0.02171  0.04909  0.04219  -0.5488  0.2912
6.538e+09  0.596  0.8266  -0.003147  0.00159  -0.06841  -0.0204  -0.4286  0.4602
6.539e+09  0.7931  0.6313  0.03186  -0.00755  -0.01702  -0.01027  -0.2275  0.5968
6.54e+09  0.9258  0.1721  -0.007194  0.01934  0.04555  0.009263  -0.04981  0.6897
6.541e+09  1.036  -0.1013  -0.02576  -0.01962  -0.03477  -0.02272  0.2283  0.6818
6.542e+09  0.8896  -0.4406  -0.007265  -0.04053  0.01677  0.05317  0.3882  0.6039
6.544e+09  0.6411  -0.8065  0.009551  -0.004178  -0.001449  -0.005076  0.569  0.3724
6.545e+09  0.336  -0.9286  0.0307  -0.0128  0.008303  -0.001058  0.6799  0.1481
6.546e+09  -0.00938  -0.9432  -0.0004301  -0.01599  -0.05164  0.02662  0.7129  -0.08495
6.548e+09  -0.3925  -0.8778  0.0211  -0.00938  0.01378  -0.03298  0.6446  -0.3108
6.549e+09  -0.6432  -0.7461  0.007988  0.001058  0.01836  0.02708  0.5235  -0.5398
6.55e+09  -0.8478  -0.428  0.02794  0.02517  0.004751  0.09234  0.2802  -0.697
6.551e+09  -0.9303  -0.1299  0.02591  0.0141  0.009914  0.04006  0.06026  -0.7073
6.552e+09  -0.9355  0.2499  0.01615  0.001921  0.01871  -0.02285  -0.238  -0.7405
