# Hz S RI R 50
6.25e+09  -0.04346  0.9519  0.02382  0.002115  0.002013  -0.04936  0.1378  0.4734
6.251e+09  0.3273  0.8539  0.03233  -0.01937  -0.04793  0.003332  0.3354  0.4231
6.252e+09  0.5903  0.7383  -0.01495  0.02062  0.0268  -0.03348  0.5067  0.2394
6.254e+09  0.7796  0.449  -0.001409  -0.03039  0.02722  0.0006596  0.6169  -0.004017
6.255e+09  0.8796  0.1697  0.006008  0.005867  0.02466  0.007065  0.5912  -0.22
6.256e+09  0.9019  -0.1121  0.02152  -0.005892  0.0222  -0.0157  0.4834  -0.4442
6.258e+09  0.8069  -0.4763  0.002083  0.01709  -0.001754  0.01565  0.3087  -0.5923
6.259e+09  0.5505  -0.7253  0.02086  -0.007079  0.06182  0.0166  0.04394  -0.678
6.26e+09  0.3063  -0.8571  -0.004337  -0.007453  -0.00226  -0.01368  -0.1903  -0.6738
6.261e+09  0.007612  -0.8971  0.0004777  -0.003524  0.01844  0.007093  -0.4214  -0.5374
6.262e+09  -0.289  -0.8646  0.02755  0.03392  0.01052  -0.0602  -0.6442  -0.3326
6.264e+09  -0.6435  -0.6986  -0.01997  0.0107  0.02096  0.01214  -0.7147  -0.1045
6.265e+09  -0.7963  -0.4461  0.03369  0.01337  0.03715  -0.02474  -0.7236  0.1664
6.266e+09  -0.858  -0.191  -0.03631  -0.02497  -0.01537  0.01317  -0.6102  0.4124
6.268e+09  -0.9406  0.2611  0.01108  -0.01755  0.03687  0.006145  -0.4403  0.6243
6.269e+09  -0.7458  0.4917  -0.0009113  -0.01297  -0.01108  0.007674  -0.1784  0.7076
6.27e+09  -0.506  0.6833  0.0103  0.02846  0.05171  0.04388  0.04757  0.7608
6.271e+09  -0.2675  0.8643  0.03195  -0.005029  0.01406  0.01194  0.3285  0.6736
6.272e+09  0.007274  0.8898  0.001882  0.04064  -0.01284  -0.02986  0.565  0.5418
6.274e+09  0.3481  0.8476  0.01486  0.01004  0.01922  0.02013  0.7061  0.2853
6.275e+09  0.644  0.6678  -0.02059  -0.003281  -0.01276  0.01687  0.7778  0.06058
6.276e+09  0.7836  0.4398  -0.03539  -0.002947  0.03095  0.0388  0.7784  -0.1946
6.278e+09  0.8585  0.1819  -0.02301  -0.009774  0.009424  0.02481  0.5852  -0.4476
6.279e+09  0.8659  -0.1871  0.006681  0.004776  0.01738  -0.0445  0.395  -0.6556
6.28e+09  0.7763  -0.5098  0.02371  0.008561  0.008058  -0.02717  0.1472  -0.7683
6.281e+09  0.5023  -0.72  -0.000103  -0.001618  0.02092  -0.01386  -0.1275  -0.764
6.282e+09  0.2183  -0.8858  -0.05335  -0.02143  0.0179  -0.03331  -0.3538  -0.7169
6.284e+09  -0.07758  -0.8861  -0.01723  0.005676  -0.01247  -0.02338  -0.5969  -0.4781
6.285e+09  -0.3468  -0.8232  -0.00216  0.0001402  0.01052  0.004506  -0.7465  -0.2919
6.286e+09  -0.6477  -0.6653  -0.001596  -0.002945  -0.001579  -0.007803  -0.8017  -0.01494
6.288e+09  -0.7825  -0.3382  0.006879  0.005911  -0.02781  -0.04427  -0.7646  0.2766
6.289e+09  -0.8796  -0.09968  -0.02599  0.02476  0.01687  0.0342  -0.6197  0.5052
6.29e+09  -0.8653  0.241  -0.008272  0.01759  -0.04626  0.006784  -0.4254  0.6751
6.291e+09  -0.744  0.5577  -0.005022  -0.0149  0.00103  0.01312  -0.1572  0.7926
6.292e+09  -0.514  0.7639  -0.04323  0.007945  0.03707  0.003702  0.1113  0.8115
6.294e+09  -0.2271  0.9438  -0.01736  0.03901  0.01501  -0.05863  0.4049  0.7001
6.295e+09  0.07014  0.9181  0.0288  0.02708  -0.08253  0.001468  0.6226  0.5453
6.296e+09  0.4221  0.85  -0.002551  0.0118  -0.01974  -0.0064  0.798  0.3
6.298e+09  0.6739  0.5877  0.007982  0.01961  -0.04595  0.01677  0.812  0.008405
6.299e+09  0.8283  0.3829  0.01646  0.004621  -0.0226  0.003603  0.7782  -0.2834
6.3e+09  0.9519  -0.008533  -0.004403  -0.007621  0.0341  -0.04083  0.6348  -0.5181
6.301e+09  0.8743  -0.2691  -0.0209  -0.006104  -0.007306  0.02407  0.4289  -0.7242
6.302e+09  0.7177  -0.579  -0.046  0.0147  -0.03789  -0.01269  0.1519  -0.8192
6.304e+09  0.4706  -0.7784  0.007732  0.0003476  0.0147  -0.0205  -0.1289  -0.8132
6.305e+09  0.1767  -0.924  -0.009676  0.01616  0.0148  -0.002334  -0.4099  -0.7441
6.306e+09  -0.1866  -0.9607  0.00797  -0.001161  0.02651  -0.01391  -0.6759  -0.5672
6.308e+09  -0.5153  -0.788  0.003177  0.005159  -0.02162  -0.001341  -0.7963  -0.289
6.309e+09  -0.6976  -0.5722  -0.01531  -0.005756  -0.03032  -0.007012  -0.8879  -0.004124
6.31e+09  -0.8985  -0.3075  0.004118  -0.01645  -0.02762  0.0148  -0.8188  0.2753
6.311e+09  -0.9864  0.0248  -0.006279  -0.01148  -0.003987  -0.01367  -0.6678  0.533
6.312e+09  -0.8791  0.333  -0.01013  -0.01144  0.02341  -0.01726  -0.4532  0.7818
6.314e+09  -0.744  0.6225  0.02062  -0.003525  -0.0297  -0.007857  -0.1615  0.8695
6.315e+09  -0.4492  0.8892  -0.01069  -0.007495  -0.02434  -0.0354  0.1201  0.8678
6.316e+09  -0.1164  1.019  -0.003751  -0.01551  0.01689  -0.01649  0.4832  0.7586
6.318e+09  0.2744  0.9602  -0.002641  -0.03025  0.02617  -0.02612  0.688  0.5644
6.319e+09  0.5213  0.8607  0.007563  0.002892  0.03833  0.04413  0.8193  0.3219
6.32e+09  0.8009  0.5669  -0.01247  -0.001201  0.0118  0.02647  0.8747  0.03585
6.321e+09  0.9633  0.256  0.0156  0.03341  0.009641  -0.01385  0.836  -0.3112
6.322e+09  1.013  -0.09559  0.008563  -0.008835  -0.01908  0.01911  0.6809  -0.5621
6.324e+09  0.9133  -0.4577  0.003167  0.007426  -0.02533  -0.01352  0.4431  -0.7633
6.325e+09  0.6448  -0.7216  0.01034  -0.03185  0.007429  -0.001794  0.1472  -0.8897
6.326e+09  0.3578  -0.9789  -0.02776  0.008783  0.01297  -0.02638  -0.1499  -0.8724
6.328e+09  0.02793  -0.9654  -0.01654  0.001406  -0.02782  0.03335  -0.4383  -0.7583
6.329e+09  -0.3304  -0.9386  0.002827  0.009731  0.01788  0.05412  -0.6892  -0.5858
6.33e+09  -0.6636  -0.7417  -0.009443  0.01621  0.02169  -0.03142  -0.8302  -0.3295
6.331e+09  -0.8695  -0.5287  -0.01536  0.0187  0.02414  -0.02223  -0.9156  -0.01787
6.332e+09  -1.046  -0.1781  -0.04286  0.001648  0.0004007  0.0263  -0.8819  0.2991
6.334e+09  -1.03  0.2033  -0.04929  0.008777  0.0004229  -0.00481  -0.7304  0.5737
6.335e+09  -0.8401  0.5614  0.01857  -0.004901  -0.01225  -0.003326  -0.4432  0.7792
6.336e+09  -0.5986  0.8106  0.008177  0.001593  -0.00257  -0.01906  -0.1915  0.912
6.338e+09  -0.2987  0.9824  0.00592  -0.006737  -0.02777  0.02848  0.1525  0.911
6.339e+09  0.06767  1.027  -0.01352  0.002868  -0.03254  0.01376  0.4715  0.8379
6.34e+09  0.4288  0.9398  -0.0192  -0.002093  -0.005487  0.01116  0.6584  0.6429
6.341e+09  0.7322  0.6776  0.01079  0.005955  0.007288  0.05875  0.8347  0.3755
6.342e+09  0.9261  0.4258  -0.006041  -1.801e-05  0.03067  -0.03015  0.9014  0.09004
6.344e+09  1.056  0.08911  -0.01867  -0.006838  0.003536  0.01539  0.9066  -0.2612
6.345e+09  0.9949  -0.2752  -0.0332  0.00216  -0.01746  -0.03662  0.7409  -0.5642
6.346e+09  0.8189  -0.6448  0.02596  0.01393  0.05636  0.009174  0.5055  -0.7721
6.348e+09  0.542  -0.8718  0.01894  0.005502  0.0004341  0.0068  0.2099  -0.867
6.349e+09  0.2126  -0.9727  -0.002741  0.02538  -0.01829  -0.0337  -0.1112  -0.9166
6.35e+09  -0.1488  -1.059  0.003133  -0.02955  0.02273  0.009169  -0.3972  -0.8479
6.351e+09  -0.4839  -0.9161  0.001336  0.003564  0.003897  -0.01866  -0.7195  -0.6387
6.352e+09  -0.7954  -0.6655  -0.01808  -0.01178  0.02068  -0.0266  -0.8439  -0.3894
6.354e+09  -1.02  -0.3246  -0.003425  0.03249  0.006548  -0.04048  -0.9183  -0.01433
6.355e+09  -1.052  0.0723  -0.004926  -0.009809  -0.03049  0.03135  -0.9227  0.2886
6.356e+09  -0.9596  0.4188  -0.01794  -0.02341  0.01847  -0.02415  -0.7159  0.5531
6.358e+09  -0.7248  0.7362  0.01541  -0.009727  -0.03857  0.001795  -0.5485  0.7564
6.359e+09  -0.4101  0.9428  -0.01561  0.001497  -0.03437  -0.01246  -0.2175  0.9235
6.36e+09  -0.1363  1.028  -0.01291  0.01402  0.05279  -0.009172  0.0834  0.9204
6.361e+09  0.2472  0.9797  -0.03299  -0.006481  -0.0006006  -0.000491  0.4545  0.8455
6.362e+09  0.5662  0.8507  0.02277  0.01642  -0.006373  -0.01112  0.6956  0.6654
6.364e+09  0.8178  0.5987  -0.01648  0.002632  0.009041  0.03865  0.8533  0.3575
6.365e+09  0.9599  0.2781  0.0409  0.004123  -0.06678  0.03967  0.9038  0.04715
6.366e+09  0.9942  -0.09621  -0.029  0.01261  -0.02  -0.005219  0.9182  -0.2639
6.368e+09  0.9092  -0.4125  0.008572  -0.001547  -0.02605  0.02097  0.7647  -0.5681
6.369e+09  0.6723  -0.7196  0.006109  0.01942  0.004752  -0.006024  0.5226  -0.7337
6.37e+09  0.3826  -0.9283  0.01193  0.01875  0.01952  0.0102  0.2473  -0.9327
6.371e+09  0.03059  -1.037  0.03244  -0.014  -0.01984  0.01477  -0.06735  -0.9623
6.372e+09  -0.3398  -0.9264  0.04092  0.03165  0.051  0.01399  -0.4005  -0.8839
6.374e+09  -0.6128  -0.8218  -0.007523  -0.0005074  -0.03127  -0.003447  -0.6631  -0.6276
6.375e+09  -0.8754  -0.5568  -0.009328  0.05056  0.01953  0.004307  -0.8653  -0.4242
6.376e+09  -0.9701  -0.1629  -0.01088  0.01194  0.04534  0.02419  -0.9432  -0.07696
6.378e+09  -0.9605  0.1727  0.008353  0.02026  -0.03088  -0.02426  -0.9582  0.2235
6.379e+09  -0.8637  0.485  0.01305  0.001441  0.0034  0.0006534  -0.8389  0.5164
6.38e+09  -0.6159  0.7708  0.01042  0.0003646  -0.01984  0.01379  -0.5479  0.7326
6.381e+09  -0.3164  0.9415  -0.0001333  0.02631  0.01823  -0.02015  -0.281  0.9179
6.382e+09  -0.01777  1.012  -0.01017  -0.01305  0.01734  0.03865  0.03302  0.9126
6.384e+09  0.3516  0.9192  -0.01235  0.02713  -0.03687  -0.004167  0.3647  0.9159
6.385e+09  0.722  0.7716  -0.003588  -0.008574  -0.007649  0.02862  0.6446  0.6342
6.386e+09  0.8815  0.4853  0.02316  0.01633  -0.02905  0.05934  0.8636  0.4478
6.388e+09  0.9948  0.1241  0.004681  0.05255  -0.0005409  -0.003669  0.9436  0.0913
6.389e+09  1.001  -0.1995  0.0508  0.003543  0.05171  -0.008605  0.8687  -0.24
6.39e+09  0.8404  -0.5116  0.01876  0.01472  0.007558  -0.009102  0.8472  -0.5371
6.391e+09  0.5926  -0.7723  -0.04721  -0.003298  0.02602  0.002073  0.532  -0.7745
6.392e+09  0.3022  -0.9287  0.01484  0.05165  -0.007419  0.01511  0.3088  -0.8842
6.394e+09  -0.01152  -1.015  -0.03405  0.02106  0.01665  -0.0168  -0.01346  -0.962
6.395e+09  -0.4215  -0.8814  0.03607  0.004354  -0.01975  0.03905  -0.2962  -0.8724
6.396e+09  -0.6671  -0.6993  -0.02787  -0.006341  -0.01875  -0.003762  -0.595  -0.6395
6.398e+09  -0.8768  -0.4661  -0.003808  0.002286  -0.04265  0.01128  -0.7731  -0.423
6.399e+09  -0.9943  -0.09545  -0.004737  -0.01337  0.02738  0.01628  -0.8937  -0.1499
6.4e+09  -0.9814  0.1707  0.005984  -0.03673  0.007852  -0.02139  -0.8973  0.1458
6.401e+09  -0.8297  0.5138  0.01179  -0.008677  0.01615  0.02205  -0.7895  0.4758
6.402e+09  -0.5843  0.8141  -0.0002694  -0.01459  -0.01492  -0.01247  -0.5731  0.7019
6.404e+09  -0.2331  0.9577  0.0319  -0.0143  -0.001785  0.03777  -0.3286  0.809
6.405e+09  0.06054  0.9065  0.004424  -0.03478  -0.0219  -0.02252  -0.01032  0.9
6.406e+09  0.3996  0.831  0.02615  0.02667  0.009782  0.03628  0.319  0.8286
6.408e+09  0.6353  0.6771  -0.02884  -0.002643  -0.007411  -0.01084  0.5978  0.708
6.409e+09  0.8787  0.4208  -0.001128  0.001263  -0.002571  0.01538  0.7927  0.4793
6.41e+09  0.9624  0.07458  0.003537  -0.07946  0.01802  -0.009661  0.9033  0.1406
6.411e+09  0.9123  -0.2376  -0.01871  0.01709  0.0337  0.0093  0.8742  -0.1118
6.412e+09  0.7933  -0.5426  -0.03796  0.008008  0.04623  -0.0228  0.8001  -0.4527
6.414e+09  0.5564  -0.7441  0.006989  0.01551  0.04493  -0.03372  0.5822  -0.6695
6.415e+09  0.2688  -0.9507  0.00307  -0.03822  0.0388  0.007776  0.314  -0.8486
6.416e+09  -0.07384  -0.9528  0.005043  -0.08608  -0.04295  0.01152  0.03779  -0.8576
6.418e+09  -0.4284  -0.8634  -0.01703  -0.02768  -0.04003  -0.03061  -0.3231  -0.8265
6.419e+09  -0.6935  -0.684  -0.03452  0.04337  0.02191  -0.02584  -0.5287  -0.7679
6.42e+09  -0.9411  -0.3575  -0.004179  0.021  -0.018  0.02386  -0.7607  -0.5058
6.421e+09  -0.9417  -0.04192  0.01662  -0.01106  0.007835  0.003442  -0.8568  -0.182
6.422e+09  -0.9299  0.2755  -0.01909  0.04421  0.04366  -0.0007835  -0.891  0.1076
6.424e+09  -0.7871  0.5638  0.01837  0.05605  -0.01033  0.004323  -0.7971  0.4306
6.425e+09  -0.5366  0.8615  -0.01778  -0.01227  0.02345  -0.001926  -0.6279  0.6664
6.426e+09  -0.2056  0.9862  -0.0242  0.02576  0.0315  0.005936  -0.3349  0.8071
6.428e+09  0.1525  1.021  -0.02928  0.001632  -0.05137  -0.01852  -0.02095  0.8706
6.429e+09  0.4316  0.8007  -0.0376  0.02067  0.02616  -0.05101  0.2406  0.8545
6.43e+09  0.71  0.6398  -0.008993  0.03161  -0.01242  0.01357  0.5289  0.6842
6.431e+09  0.8959  0.3716  0.004241  -0.002939  -0.002449  -0.01045  0.7409  0.562
6.432e+09  0.956  0.04938  -0.01443  0.004379  0.001167  -0.01889  0.8207  0.23
6.434e+09  0.9143  -0.2999  0.01689  0.04862  0.02199  -0.02454  0.8459  -0.08233
6.435e+09  0.7699  -0.6413  -0.03854  0.03322  -0.05415  -0.00393  0.742  -0.3661
6.436e+09  0.4507  -0.8398  0.01092  -0.02781  0.004499  -0.01533  0.5848  -0.6509
6.438e+09  0.1887  -0.947  0.0006909  0.0351  0.02835  0.02644  0.3656  -0.776
6.439e+09  -0.1375  -0.9843  -0.01678  -0.03426  -0.003696  -0.03469  0.01693  -0.8404
6.44e+09  -0.5104  -0.8753  -0.04863  0.01783  -0.000488  0.003484  -0.3044  -0.8641
6.441e+09  -0.7372  -0.6738  -0.01535  -0.02139  0.01607  0.008109  -0.4857  -0.7041
6.442e+09  -0.9029  -0.3264  -0.01772  -0.03405  -0.03594  -0.03079  -0.7405  -0.4769
6.444e+09  -0.9802  0.04379  -0.01612  0.00262  0.0313  0.002567  -0.8053  -0.1823
6.445e+09  -0.9996  0.3382  0.01221  0.01447  0.02548  -0.03462  -0.8437  0.06417
6.446e+09  -0.7475  0.6671  -0.004327  0.03405  -0.07221  -0.007772  -0.7887  0.3657
6.448e+09  -0.4953  0.9076  -0.006578  0.009902  0.02983  -0.0305  -0.6122  0.5714
6.449e+09  -0.1436  0.9768  -0.0112  -0.05652  0.01046  0.05139  -0.3245  0.787
6.45e+09  0.2753  1.03  -0.02807  0.02179  0.02559  -0.03211  -0.05017  0.8301
6.451e+09  0.5618  0.841  -0.005204  -0.04475  0.01274  -0.01803  0.1902  0.8623
6.452e+09  0.8225  0.6578  -0.009032  0.04668  -0.01122  0.06624  0.4916  0.7006
6.454e+09  0.9996  0.2789  0.01477  0.006596  -0.03916  -0.01832  0.7111  0.4389
6.455e+09  1.007  -0.124  -0.01308  0.04505  0.04198  -0.005883  0.784  0.2524
6.456e+09  0.9014  -0.4175  0.01432  0.05338  0.03028  0.03884  0.8379  -0.08244
6.458e+09  0.7565  -0.7127  -0.003131  -0.03243  -0.01544  -0.02847  0.7121  -0.3534
6.459e+09  0.4733  -0.9305  0.006247  0.0006458  -0.01329  0.05617  0.5363  -0.6048
6.46e+09  0.08297  -1.005  -0.02073  0.009452  -0.03313  -0.01697  0.3393  -0.7291
6.461e+09  -0.274  -0.9979  -0.008203  -0.005638  -0.00307  -0.02029  0.06914  -0.8366
6.462e+09  -0.601  -0.835  0.01772  0.006918  -0.01861  0.009622  -0.1923  -0.7555
6.464e+09  -0.8769  -0.5675  0.0304  -0.01525  0.02674  -0.04174  -0.4275  -0.6872
6.465e+09  -1.041  -0.2662  0.01033  0.03503  0.008372  -0.03224  -0.671  -0.4132
6.466e+09  -1.066  0.1639  0.02304  0.00299  -0.03562  -0.01568  -0.7744  -0.1827
6.468e+09  -0.941  0.5256  -0.00633  -0.01292  0.04244  -0.05317  -0.8026  0.08036
6.469e+09  -0.6787  0.7994  -0.006174  -0.0286  0.03071  0.003746  -0.7272  0.3483
6.47e+09  -0.3293  1.027  0.008975  0.01576  -0.01143  0.008907  -0.5819  0.5837
6.471e+09  0.01127  1.056  0.005469  -0.04458  -0.02419  0.0204  -0.3184  0.7248
6.472e+09  0.3206  1.032  -0.02364  -0.0138  -0.005036  -0.0533  -0.05737  0.8327
6.474e+09  0.7222  0.7638  -0.06666  0.05565  -0.03271  -0.01324  0.1796  0.7798
6.475e+09  0.9508  0.5397  0.01564  0.02246  0.02209  0.00605  0.4509  0.6315
6.476e+09  1.094  0.17  -0.02781  0.02554  -0.004931  0.001317  0.5956  0.4858
6.478e+09  1.07  -0.2706  0.009545  0.04624  -0.004011  0.0119  0.7429  0.1811
6.479e+09  0.9101  -0.6419  0.008324  -0.007334  -0.00652  0.02245  0.7725  -0.08967
6.48e+09  0.6402  -0.9233  0.004034  -0.02456  0.0135  0.01384  0.682  -0.3316
6.481e+09  0.2729  -1.063  0.004989  0.03527  0.0148  0.004511  0.5258  -0.5586
6.482e+09  -0.1364  -1.034  -0.008592  0.01117  -0.01987  -0.01835  0.3389  -0.6896
6.484e+09  -0.4824  -1.016  0.02472  0.007704  -0.01788  -0.02777  0.06699  -0.8133
6.485e+09  -0.7534  -0.7415  -0.03229  -0.08051  0.008503  0.03018  -0.1896  -0.706
6.486e+09  -1.052  -0.3829  0.01171  -0.004478  -0.005889  0.03772  -0.4845  -0.6353
6.488e+09  -0.846  -0.7454  0.006532  -0.009003  0.7068  -0.0244  -0.6419  -0.4301
6.489e+09  -1.016  0.3494  -0.005856  0.0038  -0.01908  -0.03885  -0.7897  -0.1941
6.49e+09  -0.8208  0.7075  -0.01413  -0.02153  0.03318  0.009957  -0.7758  0.06456
6.491e+09  -0.5402  0.9659  0.001993  -0.01094  -0.05268  -0.02913  -0.7188  0.3252
6.492e+09  -0.1774  1.092  -0.01607  -0.02393  -0.03269  0.03139  -0.5396  0.5678
6.494e+09  0.3511  1.101  0.01274  0.02137  -0.08452  -0.101  -0.2682  0.7302
6.495e+09  0.6262  0.9044  -0.0005715  -0.03205  0.02955  0.01938  -0.02352  0.7739
6.496e+09  0.847  0.65  0.03222  -0.00958  -0.01878  0.01461  0.2465  0.7425
6.498e+09  1.056  0.3051  0.02306  0.002121  -0.04086  -0.01172  0.4407  0.6247
6.499e+09  1.129  -0.0702  -0.003975  0.003425  0.02176  -0.0039  0.6495  0.4169
6.5e+09  0.4882  -0.6515  -0.009762  0.02173  0.00594  0.01458  0.7208  0.1533
6.501e+09  0.7574  -0.8004  0.008907  -0.03693  -0.01169  -0.04027  0.7683  -0.115
6.502e+09  0.3935  -0.9921  -0.0006662  0.007609  -0.02506  -0.01035  0.6682  -0.358
6.504e+09  0.02809  -1.082  0.0003199  -0.02315  -0.03973  -0.01631  0.5349  -0.5787
6.505e+09  -0.3666  -1.054  0.006927  -0.01656  -0.03235  -0.02215  0.2578  -0.7132
6.506e+09  -0.6953  -0.884  -0.01869  -0.02281  0.01766  0.02032  0.01813  -0.7242
6.508e+09  -0.9348  -0.4896  -0.02667  0.000215  0.006032  0.02796  -0.2484  -0.6998
6.509e+09  -1.054  -0.188  0.03244  -0.01097  -0.01532  -0.04338  -0.5064  -0.5875
6.51e+09  -1.024  0.2513  0.02294  -0.0139  -0.01723  -0.004032  -0.7127  -0.3465
6.511e+09  -0.8982  0.6163  -0.003509  -0.004826  0.006086  0.01219  -0.7582  -0.1316
6.512e+09  -0.6147  0.9293  -0.01041  -0.01297  0.01447  -0.002205  -0.7442  0.1269
6.514e+09  -0.2473  1.003  0.03315  -0.01133  0.02157  -0.0006526  -0.6663  0.3621
6.515e+09  0.1368  1.071  -0.004176  0.007087  0.003086  0.03017  -0.4546  0.5843
6.516e+09  0.515  0.9276  0.005158  -0.01587  -0.002876  -0.05302  -0.2201  0.7533
6.518e+09  0.7724  0.7297  0.02471  -0.03327  -0.01496  -0.04045  0.05285  0.7386
6.519e+09  0.9584  0.4273  0.03403  0.02568  0.0105  -0.001441  0.2696  0.7103
6.52e+09  1.071  -0.003968  -0.008198  -0.02962  0.02472  -0.01646  0.5158  0.5451
6.521e+09  0.9901  -0.3939  0.04027  -0.007879  -0.01034  0.0427  0.6688  0.374
6.522e+09  0.79  -0.7058  -0.02346  -0.007231  0.001123  0.04445  0.7197  0.05752
6.524e+09  0.4276  -0.8869  -0.01444  -0.01178  -0.0363  -0.005048  0.7105  -0.1608
6.525e+09  0.1305  -1.024  -0.006513  -0.01973  -0.01003  -0.05452  0.6184  -0.4114
6.526e+09  -0.2344  -1.067  -0.01427  -0.02871  0.03718  0.002136  0.4008  -0.6009
6.528e+09  -0.5654  -0.8236  -0.004469  -0.04107  -0.03862  0.03698  0.1746  -0.6937
6.529e+09  -0.8371  -0.5463  -0.02236  0.01201  -0.005901  -0.01111  -0.0567  -0.7
6.53e+09  -0.964  -0.2354  -0.00779  0.01985  0.01269  -0.01823  -0.2553  -0.6201
6.531e+09  -1.014  0.1299  0.005447  -0.022  0.006612  -0.004339  -0.4799  -0.492
6.532e+09  -0.862  0.4577  0.04583  -0.02612  0.01163  -0.08049  -0.6213  -0.2597
6.534e+09  -0.6442  0.7226  0.004333  0.008931  -0.03565  0.004242  -0.5998  -0.07821
6.535e+09  -0.3159  0.9174  0.01258  0.02335  0.003702  -0.0005752  -0.6024  0.1169
6.536e+09  -0.01739  0.9707  -0.03023  -0.001624  -0.0102  -0.005545  -0.5889  0.2815
6.538e+09  0.3844  0.8399  0.02485  -0.001872  -0.01952  -0.02549  -0.4579  0.5073
6.539e+09  0.6723  0.7153  -0.006059  0.0367  0.01409  -0.02338  -0.2796  0.608
6.54e+09  0.8462  0.4338  -0.01839  -0.003272  0.03228  0.01732  -0.09376  0.6958
6.541e+09  0.9556  0.1042  -0.009805  -0.01944  -0.01516  0.008256  0.1612  0.6465
6.542e+09  0.9776  -0.1748  0.009559  0.001457  -0.0456  -0.07921  0.4237  0.6069
6.544e+09  0.7517  -0.5069  0.04118  -0.01056  -0.01851  -0.02422  0.5903  0.3848
6.545e+09  0.5147  -0.7611  -0.0007203  0.026  -0.03176  -0.018  0.7196  0.1662
6.546e+09  0.2278  -0.9279  0.003933  0.02605  0.00647  -0.01514  0.6832  -0.06412
6.548e+09  -0.1266  -0.9076  0.0322  -0.03484  0.005771  -0.05121  0.6364  -0.2908
6.549e+09  -0.4341  -0.8067  -0.002827  -0.0009075  0.05127  0.02838  0.4986  -0.5142
6.55e+09  -0.6672  -0.6101  -0.02451  0.003779  -0.02888  0.00239  0.2823  -0.7034
6.551e+09  -0.8571  -0.2766  0.001436  0.001056  0.006354  0.02143  0.01844  -0.7676
