# Hz S RI R 50
6.25e+09  0.01887  0.9041  -0.02953  -0.004253  -0.008587  -0.007605  0.1529  0.4802
6.251e+09  0.2605  0.9091  -4.61e-05  0.02646  -0.01637  -0.02553  0.3741  0.3771
6.252e+09  0.6368  0.6751  -0.0009449  0.005399  -0.0005032  -0.0007961  0.535  0.246
6.254e+09  0.8623  0.4436  0.005903  -0.01617  -0.02211  -0.0004144  0.6018  0.04787
6.255e+09  0.8914  0.1593  0.0003468  0.04709  0.07262  -0.008345  0.595  -0.225
6.256e+09  0.8632  -0.1616  -0.001661  -0.009842  0.01292  -0.03744  0.4542  -0.4596
6.258e+09  0.8536  -0.4968  0.01053  0.02657  -0.01166  0.006218  0.2866  -0.6201
6.259e+09  0.5374  -0.7029  0.003281  -0.02127  -0.002535  -0.02297  0.02432  -0.6811
6.26e+09  0.2836  -0.8646  0.001915  0.02359  -0.04476  -0.01794  -0.2936  -0.6712
6.261e+09  -0.0008978  -0.9143  0.01232  -0.04239  0.02146  -0.02765  -0.4355  -0.5194
6.262e+09  -0.2943  -0.8224  0.02654  -0.05336  0.0004946  0.03747  -0.6006  -0.3835
6.264e+09  -0.6436  -0.6809  -0.01676  0.004495  -0.02101  0.009575  -0.7403  -0.1341
6.265e+09  -0.7948  -0.4367  0.02047  -0.02993  0.02985  0.07541  -0.6837  0.1599
6.266e+09  -0.94  -0.1204  0.03057  -0.004298  -0.03376  -0.004471  -0.6084  0.4193
6.268e+09  -0.9291  0.1873  0.003934  0.004776  0.001975  0.02477  -0.4205  0.6272
6.269e+09  -0.7511  0.4633  0.03059  -0.01252  0.06486  0.02998  -0.1689  0.7012
6.27e+09  -0.5577  0.6857  0.007201  0.02037  -0.001563  0.02417  0.05857  0.7326
6.271e+09  -0.2833  0.8523  0.02766  0.008459  -0.03439  -0.0319  0.3164  0.6659
6.272e+09  0.05231  0.8939  -0.02075  0.004874  0.03576  0.01036  0.5475  0.5491
6.274e+09  0.362  0.8376  0.03391  0.01707  -0.002581  -0.002207  0.7032  0.2722
6.275e+09  0.6421  0.6665  -0.01756  0.007006  -0.00734  0.05518  0.7543  0.05948
6.276e+09  0.7706  0.348  0.0231  -0.01506  0.04602  0.008624  0.7738  -0.2121
6.278e+09  0.8766  0.107  0.0085  0.01814  0.003872  -0.002367  0.637  -0.4693
6.279e+09  0.8706  -0.2438  0.01571  -0.001678  -0.02313  -0.01512  0.4079  -0.6433
6.28e+09  0.7288  -0.5135  0.008798  0.02342  -0.02043  -0.03707  0.1446  -0.7631
6.281e+09  0.5198  -0.7236  -0.03086  -0.01107  -0.001684  -0.01378  -0.1117  -0.7654
6.282e+09  0.2273  -0.8866  -0.01193  0.008693  0.01746  0.01769  -0.3698  -0.6975
6.284e+09  -0.07333  -0.9308  0.01421  0.002457  0.02829  0.003677  -0.6139  -0.5276
6.285e+09  -0.3674  -0.8064  0.02607  -0.01911  0.02802  -0.007595  -0.7433  -0.3181
6.286e+09  -0.6665  -0.6259  0.007055  -0.007046  -0.0204  0.02501  -0.8269  0.009885
6.288e+09  -0.8738  -0.3658  0.01205  -0.03748  0.004216  0.007778  -0.7436  0.2477
6.289e+09  -0.9237  -0.02682  -0.02144  -0.01997  -0.01943  -0.02851  -0.6358  0.518
6.29e+09  -0.8865  0.2168  0.01563  -0.03665  -0.003134  -0.03853  -0.4202  0.7061
6.291e+09  -0.6954  0.54  -0.03395  0.006659  -0.001524  0.008612  -0.1297  0.8055
6.292e+09  -0.4583  0.8063  -0.003141  0.02106  -0.07239  -0.02444  0.1201  0.7818
6.294e+09  -0.2335  0.9288  0.01531  -0.001417  0.01298  0.002824  0.4086  0.7207
6.295e+09  0.07628  0.9428  -0.0109  -0.01993  -0.0282  -0.003617  0.5856  0.5447
6.296e+09  0.4689  0.833  -0.006706  -0.0166  0.03559  -0.008106  0.7633  0.2898
6.298e+09  0.7172  0.5647  0.01601  -0.005764  -0.02162  -0.005868  0.8272  0.01264
6.299e+09  0.907  0.3784  0.01284  -0.0118  0.05272  -0.03608  0.768  -0.2727
6.3e+09  0.917  0.02694  0.009986  -0.01287  -0.02014  -0.025  0.6557  -0.5387
6.301e+09  0.9033  -0.2661  0.0139  0.006154  -0.003389  -0.001078  0.4175  -0.7167
6.302e+09  0.7517  -0.5722  -0.02142  0.02109  0.018  -0.06603  0.1536  -0.8075
6.304e+09  0.4121  -0.8389  -0.02476  -0.001603  -0.001354  -0.02438  -0.136  -0.8398
6.305e+09  0.1332  -0.9072  0.02272  -0.03158  -0.04489  0.01148  -0.4363  -0.7285
6.306e+09  -0.1879  -0.9399  -0.02022  -0.01087  0.003204  0.01031  -0.6377  -0.5282
6.308e+09  -0.5036  -0.8078  -0.002303  -0.025  0.03689  0.0192  -0.7606  -0.3153
6.309e+09  -0.7663  -0.592  -0.01409  0.00545  -0.02191  -0.01347  -0.8578  -0.02305
6.31e+09  -0.9068  -0.2668  0.02594  0.007866  -0.01872  0.05964  -0.8  0.288
6.311e+09  -0.954  0.01227  -0.008197  -0.009895  0.007932  -0.002784  -0.6761  0.5355
6.312e+09  -0.8482  0.3945  -0.007068  0.007347  -0.0244  -0.02133  -0.4572  0.7063
6.314e+09  -0.6862  0.7373  -0.01914  -0.003724  0.0537  -0.03013  -0.175  0.8435
6.315e+09  -0.4202  0.8707  -0.03262  0.02312  -0.01362  0.004926  0.1202  0.8816
6.316e+09  -0.074  0.9897  0.002753  -0.009962  0.02569  0.006785  0.4402  0.7455
6.318e+09  0.2571  0.9615  0.02558  0.02244  -0.04373  -0.03095  0.6651  0.5979
6.319e+09  0.577  0.7776  0.0006067  -0.01331  -0.03206  0.02902  0.8392  0.3167
6.32e+09  0.8074  0.5512  -0.02017  0.0003907  -0.0237  0.04708  0.8559  0.05571
6.321e+09  1.019  0.2438  -0.001275  -0.01518  0.02729  0.02473  0.825  -0.3099
6.322e+09  0.9448  -0.1238  -0.009956  -0.009392  -0.02878  0.005862  0.6858  -0.588
6.324e+09  0.861  -0.4563  -0.002112  -0.02625  -0.001365  -0.0304  0.4514  -0.7622
6.325e+09  0.7063  -0.7743  0.02308  -0.006905  0.05441  -0.01406  0.1617  -0.8584
6.326e+09  0.3746  -0.9719  0.01536  0.002413  0.01941  0.04887  -0.1493  -0.9141
6.328e+09  0.03269  -1.043  -0.02826  -0.00489  0.0808  0.03506  -0.423  -0.7793
6.329e+09  -0.3618  -0.975  0.005307  0.006542  -0.00957  0.004589  -0.68  -0.5987
6.33e+09  -0.6582  -0.7601  -0.01337  -0.006554  -0.006783  0.03224  -0.8326  -0.346
6.331e+09  -0.9142  -0.5139  0.02066  -0.008769  -0.01676  0.01011  -0.8912  -0.02002
6.332e+09  -0.9797  -0.1679  0.002651  -0.005021  0.01402  0.002679  -0.8627  0.297
6.334e+09  -1.026  0.2262  -0.02898  -0.01903  -0.01863  -0.02617  -0.738  0.5188
6.335e+09  -0.9163  0.559  0.0106  -0.006695  -0.04984  -0.03696  -0.4979  0.8076
6.336e+09  -0.6291  0.8819  0.02111  0.001056  -0.04756  0.04184  -0.213  0.8868
6.338e+09  -0.3058  1.004  0.0114  -0.0165  -0.0435  0.03538  0.1258  0.9202
6.339e+09  0.05758  1.066  0.03575  -0.0389  -0.0005021  0.001176  0.4414  0.7957
6.34e+09  0.4547  0.945  -0.0007535  -0.01175  0.04751  -0.01634  0.6922  0.6194
6.341e+09  0.8133  0.7089  -0.008104  -0.01908  0.003948  -0.009628  0.8505  0.363
6.342e+09  0.9685  0.4567  0.02322  -0.002402  0.02197  0.01095  0.909  0.04876
6.344e+09  1.035  0.04955  0.01128  -0.02156  -0.003974  0.01554  0.8914  -0.2748
6.345e+09  0.9752  -0.3439  0.003316  -0.01119  -0.02237  -0.0003129  0.7918  -0.5774
6.346e+09  0.8194  -0.7042  0.03466  -0.01192  0.02168  0.01204  0.5308  -0.7889
6.348e+09  0.547  -0.9294  -0.008374  0.02587  -0.03093  0.002621  0.2456  -0.9116
6.349e+09  0.1437  -1.066  -0.02794  0.03056  0.04995  -0.03528  -0.1293  -0.9181
6.35e+09  -0.1786  -1.104  0.01445  0.02428  0.02514  -0.02811  -0.4105  -0.8439
6.351e+09  -0.5506  -0.9222  -0.001741  -0.00402  0.005994  -0.03513  -0.6713  -0.6396
6.352e+09  -0.8165  -0.6824  -0.01176  -0.0124  -0.01686  0.03472  -0.8636  -0.3939
6.354e+09  -1.031  -0.2762  0.005943  -0.03287  -0.01806  0.04061  -0.9108  -0.05129
6.355e+09  -1.062  -0.01479  0.004924  0.02781  0.0329  0.03006  -0.9146  0.2823
6.356e+09  -1.003  0.4105  -0.008039  -0.002582  0.02731  0.02852  -0.7719  0.566
6.358e+09  -0.7521  0.7563  -0.00267  -0.01409  -0.04191  0.03938  -0.5823  0.7692
6.359e+09  -0.4699  0.9501  0.02034  0.01092  0.02992  0.07428  -0.2146  0.9084
6.36e+09  -0.08655  1.046  -0.002943  0.04054  0.02581  0.004043  0.09911  0.9826
6.361e+09  0.2915  1.011  0.00385  -0.007818  0.04427  0.004858  0.4155  0.8678
6.362e+09  0.5877  0.8444  -0.02878  -0.02887  -0.01719  0.0151  0.7156  0.6586
6.364e+09  0.8481  0.5786  -0.01569  0.03276  0.005564  -0.000349  0.8493  0.3892
6.365e+09  0.9651  0.2092  0.009197  0.008953  0.01348  -0.02731  0.9368  0.08752
6.366e+09  1.031  -0.1483  -0.005538  0.02923  0.004863  0.01697  0.8748  -0.2498
6.368e+09  0.9264  -0.5188  0.01057  0.03144  -0.01086  -0.02514  0.7382  -0.5667
6.369e+09  0.7232  -0.7722  0.01662  -0.03391  -0.05033  -0.0003926  0.5471  -0.7745
6.37e+09  0.3872  -0.9785  0.01534  -0.0255  -0.01025  0.01229  0.2714  -0.9262
6.371e+09  0.03345  -1.069  -0.02836  0.03023  -0.002225  0.03303  -0.0611  -0.9623
6.372e+09  -0.3215  -1.009  -0.01773  -0.03773  0.01098  0.02758  -0.4534  -0.8397
6.374e+09  -0.657  -0.7939  -0.01164  -0.00382  0.02388  0.02229  -0.6633  -0.6814
6.375e+09  -0.9144  -0.5078  0.00618  0.01022  -0.03522  -0.02062  -0.8449  -0.4568
6.376e+09  -1.042  -0.1712  -0.02272  0.00982  -0.00281  -0.04126  -0.9673  -0.06135
6.378e+09  -0.9891  0.2401  0.04438  -0.01037  -9.315e-06  0.01077  -0.9625  0.2425
6.379e+09  -0.8816  0.4984  -0.0009391  0.02346  0.02396  -0.01825  -0.7685  0.5272
6.38e+09  -0.5998  0.852  -0.01742  0.002157  0.002775  0.018  -0.5618  0.7959
6.381e+09  -0.3342  0.9806  -0.03377  0.003376  -0.01129  -0.02259  -0.2554  0.8978
6.382e+09  0.05378  1.037  0.02913  0.002108  0.01563  0.002653  0.07544  0.9293
6.384e+09  0.3773  1.002  0.005944  0.01626  -0.01514  -0.01917  0.3469  0.8395
6.385e+09  0.7116  0.7284  -0.000617  0.01101  -0.03017  0.004599  0.6444  0.6634
6.386e+09  0.8916  0.4722  0.04489  0.01093  0.01788  -0.03508  0.8475  0.3895
6.388e+09  1.004  0.1308  -0.007233  0.02354  -0.01647  -0.004665  0.9219  0.09768
6.389e+09  1.032  -0.2746  0.02033  -0.02298  -0.0741  0.02127  0.9234  -0.1914
6.39e+09  0.8139  -0.5866  0.007439  0.02557  0.02341  -0.006511  0.8041  -0.4929
6.391e+09  0.6667  -0.8417  0.001683  0.02433  -0.007701  -0.03686  0.5803  -0.6937
6.392e+09  0.2669  -0.9801  -0.02472  0.004285  0.04488  -0.002491  0.2829  -0.8915
6.394e+09  -0.08591  -1.034  0.01402  0.01715  -0.02869  -0.002883  -0.01337  -0.9374
6.395e+09  -0.3994  -0.918  -0.004652  0.04303  -0.02529  -0.009561  -0.3455  -0.8146
6.396e+09  -0.7947  -0.6932  -0.006585  -0.00189  0.004455  -0.01256  -0.6382  -0.6762
6.398e+09  -0.9203  -0.4063  0.02609  0.002636  -0.008355  -0.004965  -0.8272  -0.3968
6.399e+09  -1.013  -0.07118  0.01729  0.01108  0.03171  0.001284  -0.9476  -0.1299
6.4e+09  -0.9765  0.2506  0.02712  0.03813  -0.04267  -0.04648  -0.9453  0.1579
6.401e+09  -0.8399  0.5734  0.003626  0.066  0.01939  -0.07248  -0.7977  0.4927
6.402e+09  -0.5764  0.8369  -0.007736  0.003413  0.03365  0.02453  -0.5693  0.6875
6.404e+09  -0.2841  0.9461  0.005752  0.05643  0.003671  -0.0832  -0.3286  0.9007
6.405e+09  0.1188  0.9634  0.01918  -0.00755  -0.02573  0.007575  0.01545  0.9088
6.406e+09  0.4581  0.8774  -0.01166  -0.04741  0.01104  -0.02493  0.2717  0.8828
6.408e+09  0.7305  0.677  0.03597  0.003705  0.01156  -0.05202  0.6086  0.7148
6.409e+09  0.9428  0.3772  -0.01115  0.004866  -0.05356  -0.04734  0.802  0.4989
6.41e+09  0.9827  -0.01836  0.01666  -0.0005947  0.04816  0.002599  0.8753  0.1862
6.411e+09  0.9643  -0.3049  -0.004312  0.05062  5.118e-05  -0.00296  0.8597  -0.1274
6.412e+09  0.7941  -0.606  0.001817  -0.02647  0.01832  -0.02016  0.7819  -0.431
6.414e+09  0.5936  -0.8547  -0.06228  0.001434  -0.009679  -0.0121  0.6398  -0.6909
6.415e+09  0.2189  -1.001  0.01073  0.02819  0.03703  0.02044  0.3105  -0.8403
6.416e+09  -0.1397  -0.9985  0.03045  -0.01456  0.0117  -0.04111  -0.03115  -0.886
6.418e+09  -0.4924  -0.8669  -0.007983  -0.005724  0.002499  -0.01098  -0.2911  -0.8235
6.419e+09  -0.7147  -0.664  0.005622  -0.02071  0.005394  -0.03612  -0.5475  -0.7187
6.42e+09  -0.9017  -0.3794  0.0151  0.02051  0.03808  0.04915  -0.7519  -0.4531
6.421e+09  -1.009  -0.01919  0.01674  -0.00426  0.01714  0.02448  -0.8728  -0.2059
6.422e+09  -0.9626  0.3025  -0.01959  -0.05194  0.02542  -0.03664  -0.8532  0.1239
6.424e+09  -0.7251  0.7  -0.006502  0.01906  -0.008327  0.04156  -0.8098  0.3888
6.425e+09  -0.4783  0.8625  0.02795  -0.01054  -0.01956  0.02092  -0.6275  0.6421
6.426e+09  -0.1555  1.001  0.03068  0.0107  -0.004599  -0.0232  -0.3283  0.8118
6.428e+09  0.1391  1.047  -0.0429  0.01458  0.02614  0.0232  -0.02495  0.8916
6.429e+09  0.5356  0.8527  0.0004059  0.001514  -0.003594  0.01962  0.2336  0.8149
6.43e+09  0.7641  0.6146  0.01303  0.006242  -0.008311  0.008576  0.5143  0.7148
6.431e+09  1.003  0.3209  -0.01863  0.02081  -0.007434  0.01636  0.7046  0.4636
6.432e+09  1.012  -0.04423  0.009596  -0.02782  -0.03336  0.03767  0.8857  0.2001
6.434e+09  0.9431  -0.3275  -0.03046  0.005496  0.02924  0.0008988  0.8714  -0.09508
6.435e+09  0.7396  -0.7476  -0.02891  0.01218  -0.04688  -0.02228  0.7993  -0.3695
6.436e+09  0.4732  -0.8824  0.009079  0.05748  -0.02859  0.01506  0.5771  -0.626
6.438e+09  0.1923  -1.007  0.02764  -0.01216  0.01051  0.03708  0.3536  -0.8083
6.439e+09  -0.2172  -0.9864  0.03796  -0.03603  -0.01918  0.008602  0.05916  -0.8778
6.44e+09  -0.5549  -0.8583  0.05495  -0.01442  -0.00846  -0.0004991  -0.2417  -0.8506
6.441e+09  -0.8129  -0.6157  -0.03809  0.03849  -0.01159  -0.007868  -0.473  -0.7031
6.442e+09  -1.016  -0.3273  -0.005646  0.002466  -0.02357  0.00211  -0.7312  -0.4613
6.444e+09  -1.04  0.06429  -0.0278  -0.01254  -0.003467  -0.01518  -0.8537  -0.2071
6.445e+09  -0.9788  0.4174  0.03053  -0.008498  0.01649  0.02607  -0.8802  0.07068
6.446e+09  -0.737  0.76  0.01467  -0.04082  0.005974  -0.005866  -0.7601  0.326
6.448e+09  -0.4317  0.9502  -0.008033  0.00333  -0.01766  0.0226  -0.5428  0.6153
6.449e+09  -0.1348  1.071  -0.01059  0.001342  -0.02226  0.006523  -0.3002  0.8141
6.45e+09  0.2991  1.018  0.001661  -0.02339  0.006273  -0.01646  -0.06032  0.8274
6.451e+09  0.6062  0.9113  -0.01419  0.003812  -0.04381  -0.0357  0.2251  0.7783
6.452e+09  0.8621  0.5807  0.01384  -0.02089  -0.01982  0.02199  0.5207  0.6448
6.454e+09  1.05  0.2524  0.004957  -0.004833  0.003782  0.02351  0.6985  0.4857
6.455e+09  1.061  -0.1952  0.05073  0.01458  -0.02521  0.0213  0.7933  0.2324
6.456e+09  0.9594  -0.4866  -3.517e-05  0.01729  0.02341  -0.0141  0.8073  -0.04436
6.458e+09  0.7001  -0.7712  -0.02355  0.0001097  -0.005441  0.00255  0.7624  -0.3356
6.459e+09  0.433  -0.987  0.01798  -0.006847  -0.04171  0.03288  0.571  -0.6116
6.46e+09  0.03159  -1.111  0.0006263  -0.01144  -0.02443  -0.00653  0.3332  -0.7436
6.461e+09  -0.3457  -0.9835  0.003142  -0.01055  -0.007481  0.06624  0.1329  -0.8505
6.462e+09  -0.7023  -0.8539  -0.0369  -0.02278  -0.01782  0.04139  -0.2636  -0.7695
6.464e+09  -0.9335  -0.5688  0.03076  0.02255  0.004117  -0.005934  -0.4767  -0.6909
6.465e+09  -1.03  -0.152  -0.001922  -0.04728  -0.01732  -0.009161  -0.6463  -0.4525
6.466e+09  -1.09  0.204  0.001034  0.01104  0.0459  0.02836  -0.7829  -0.2054
6.468e+09  -0.9479  0.5754  -0.01309  -0.02373  0.02206  -0.04162  -0.7864  0.09279
6.469e+09  -0.6935  0.8738  0.007254  0.004602  -0.0323  -0.03941  -0.7353  0.3628
6.47e+09  -0.3146  1  -0.01528  0.003937  0.02047  0.02553  -0.5686  0.5919
6.471e+09  0.06857  1.143  0.01261  -0.01465  -0.02627  -0.01254  -0.3662  0.7093
6.472e+09  0.4365  1.058  0.02905  0.02932  -0.01317  0.02261  -0.07237  0.8165
6.474e+09  0.7921  0.7096  -0.0158  -0.01383  0.04085  -0.02226  0.2231  0.8022
6.475e+09  1.041  0.417  0.009736  -0.01655  -0.0006072  0.0348  0.4612  0.6439
6.476e+09  1.139  0.1063  0.02084  -0.002281  0.04412  -0.02911  0.6669  0.428
6.478e+09  1.076  -0.4073  -0.01812  -0.005858  0.0543  -0.02444  0.7251  0.1757
6.479e+09  0.9231  -0.663  0.03056  0.006066  -0.009013  0.00659  0.7169  -0.05637
6.48e+09  0.6126  -0.9694  0.008774  0.01373  0.0423  0.01953  0.6867  -0.3841
6.481e+09  0.2695  -1.135  0.01081  -0.03168  -0.02619  0.02612  0.5495  -0.5791
6.482e+09  -0.1589  -1.126  4.752e-05  -0.02175  -0.04459  -0.009752  0.3297  -0.7187
6.484e+09  -0.6271  -0.9632  0.002465  0.02439  -0.03969  0.04508  0.05788  -0.809
6.485e+09  -0.8989  -0.7467  0.02826  0.05124  0.006034  -0.005733  -0.2113  -0.7429
6.486e+09  -1.133  -0.3182  -0.004898  -0.02114  -0.0282  0.03194  -0.4741  -0.6039
6.488e+09  -0.4786  -0.2866  0.03708  0.03467  0.6941  0.2424  -0.6584  -0.4025
6.489e+09  -1.031  0.5352  0.038  0.01676  -0.0393  -0.01919  -0.7739  -0.1797
6.49e+09  -0.7705  0.7754  0.006554  0.002729  -0.02624  0.05052  -0.7746  0.1164
6.491e+09  -0.4844  1.044  0.004378  0.02311  -0.01092  -0.03311  -0.7235  0.3424
6.492e+09  -0.09299  1.189  0.004849  -0.03629  0.0003417  -0.01261  -0.5103  0.5495
6.494e+09  0.372  0.9988  0.02559  0.04207  -0.05884  0.03631  -0.2866  0.7338
6.495e+09  0.6625  0.8882  -0.01991  -0.03582  -0.0578  -0.05174  -0.03209  0.7491
6.496e+09  0.9386  0.5753  0.002032  -0.01012  0.009396  0.02313  0.2162  0.7408
6.498e+09  1.156  0.1668  0.04022  -0.02246  0.008941  -0.004914  0.4802  0.5823
6.499e+09  1.093  -0.195  -0.02547  0.03173  0.03133  -0.02856  0.6248  0.3926
6.5e+09  0.3307  -0.3905  -0.04246  -0.01695  0.06617  -0.04572  0.7393  0.1302
6.501e+09  0.6548  -0.9326  -0.05169  0.0189  -0.01507  0.0032  0.7792  -0.08045
6.502e+09  0.346  -1.073  0.0008112  -0.00624  -0.00959  -0.02034  0.6511  -0.3618
6.504e+09  -0.005954  -1.094  0.009716  -0.0008983  0.02702  -0.03154  0.4873  -0.5555
6.505e+09  -0.499  -1.024  0.01388  0.0263  0.0461  0.006293  0.2784  -0.7384
6.506e+09  -0.8125  -0.7458  0.01207  -0.03526  -0.01222  0.03015  -0.007076  -0.7556
6.508e+09  -1.048  -0.4672  -0.02909  -0.008493  0.02924  0.01704  -0.2615  -0.7188
6.509e+09  -1.111  0.02507  0.0003372  -0.006968  0.06161  -0.02099  -0.4922  -0.5759
6.51e+09  -1.027  0.4043  0.002183  -0.01834  -0.03897  0.03336  -0.6282  -0.3801
6.511e+09  -0.8449  0.7563  -0.01081  0.04571  -0.005054  -0.0112  -0.7364  -0.16
6.512e+09  -0.5331  0.982  0.002079  -0.01248  -0.008081  0.01551  -0.7148  0.1863
6.514e+09  -0.1165  1.127  -0.02369  0.01051  -0.03084  0.0245  -0.6542  0.3867
6.515e+09  0.1924  1.081  0.01688  0.03555  -0.03298  0.004386  -0.5068  0.6079
6.516e+09  0.6477  0.8873  -0.02361  0.004111  -0.02776  0.02424  -0.2278  0.6852
6.518e+09  0.9472  0.6258  -0.0001548  0.01527  -0.01819  -0.005749  0.002857  0.7259
6.519e+09  1.051  0.2705  -0.008178  -0.008994  -0.04029  0.001637  0.2552  0.6888
6.52e+09  1.057  -0.125  -0.01661  0.006385  -0.04456  0.05422  0.479  0.5154
6.521e+09  0.9669  -0.5019  0.008592  0.0007011  -0.04671  -0.01965  0.6691  0.3653
6.522e+09  0.7334  -0.8227  -0.01142  -0.01091  0.0003446  -0.02014  0.7326  0.08812
6.524e+09  0.329  -1.022  0.02547  -0.02606  -0.007896  0.04293  0.7212  -0.1806
6.525e+09  -0.02091  -1.048  -0.002996  -0.0253  -0.03846  0.02415  0.5901  -0.379
6.526e+09  -0.3567  -0.9985  0.02856  -0.007701  -0.0001734  0.00746  0.4111  -0.5706
6.528e+09  -0.6955  -0.7677  0.01369  0.03391  0.04006  -0.01272  0.1849  -0.6559
6.529e+09  -0.8822  -0.5127  0.02061  0.005767  -0.03444  -0.006469  -0.05194  -0.7492
6.53e+09  -0.9695  -0.08238  -0.004807  0.008569  -0.008784  0.01432  -0.3154  -0.6538
6.531e+09  -1.004  0.2585  -0.02798  0.00339  0.0354  -0.02017  -0.4375  -0.5087
6.532e+09  -0.8803  0.6016  -0.0371  0.02598  0.01479  0.01309  -0.5836  -0.2911
6.534e+09  -0.5709  0.81  -0.01854  -0.00179  -0.004394  -0.02847  -0.6202  -0.06501
6.535e+09  -0.2231  0.9971  0.007015  0.004675  0.05338  0.02328  -0.6286  0.1215
6.536e+09  0.1518  1.003  -0.01824  -0.01976  -0.03114  0.008815  -0.5401  0.2898
6.538e+09  0.4641  0.8704  -0.04706  0.007048  0.01368  -0.03117  -0.4756  0.4667
6.539e+09  0.8129  0.6194  0.01866  0.000104  0.04273  -0.001069  -0.2712  0.612
6.54e+09  0.8894  0.3451  -0.009854  0.009772  -0.02221  -0.003447  -0.06914  0.6753
6.541e+09  1.02  0.0326  0.02876  0.008739  0.01831  -0.02866  0.195  0.6542
6.542e+09  0.8148  -0.3656  -0.006681  -0.02714  0.01237  0.03391  0.4098  0.5527
6.544e+09  0.6852  -0.7042  -0.0002216  0.01915  0.043  -0.01772  0.5895  0.4201
6.545e+09  0.5131  -0.8434  0.001792  -0.01022  -0.03327  0.01055  0.7079  0.1766
6.546e+09  0.136  -0.9716  -0.01468  -0.02342  -0.03242  -0.03888  0.7259  -0.0469
6.548e+09  -0.2826  -0.8997  -0.007238  0.0111  0.04812  0.04657  0.6409  -0.3071
6.549e+09  -0.5262  -0.8095  -0.02541  -0.02846  0.01099  -0.003241  0.5369  -0.5393
6.55e+09  -0.7843  -0.4828  0.0001974  -0.02056  -0.02025  -0.04454  0.2893  -0.6908
6.551e+09  -0.899  -0.2187  -0.01633  -0.01919  0.0005212  -0.004338  0.01878  -0.7483
