# Hz S RI R 50
6.25e+09  0.09214  0.9098  0.03866  -0.02521  0.01087  -0.01775  0.17  0.4768
6.251e+09  0.3957  0.8788  -0.01593  -0.02134  -0.004891  0.01046  0.392  0.3978
6.252e+09  0.6618  0.6892  -0.00177  -0.005889  0.001755  0.01352  0.5426  0.247
6.254e+09  0.8464  0.4022  -0.001134  0.02139  -0.003652  0.002094  0.6305  0.009761
6.255e+09  0.9226  0.1066  0.03455  -0.01026  0.0005666  0.05172  0.6131  -0.2168
6.256e+09  0.8791  -0.3402  -0.001804  -0.0225  0.01065  0.05426  0.4811  -0.447
6.258e+09  0.7153  -0.5794  -0.003407  0.02211  0.02335  -0.04254  0.3339  -0.6031
6.259e+09  0.4794  -0.7545  -0.005805  0.003171  -0.02698  0.03598  0.03724  -0.675
6.26e+09  0.2144  -0.8637  -0.003965  -0.01408  0.02483  -0.05029  -0.1942  -0.6731
6.261e+09  -0.1165  -0.9368  -0.01887  -0.003097  -0.007322  -0.007608  -0.4456  -0.5311
6.262e+09  -0.4519  -0.8391  0.003307  -0.002868  -0.02602  -0.01241  -0.6292  -0.3444
6.264e+09  -0.6456  -0.6192  0.02971  0.001767  0.002544  0.02583  -0.7155  -0.09412
6.265e+09  -0.8847  -0.3341  -0.01004  0.005475  -0.007644  -0.006136  -0.6998  0.1631
6.266e+09  -0.9307  -0.06863  0.003653  -0.02751  -0.01081  0.01362  -0.6222  0.3962
6.268e+09  -0.902  0.2988  0.01612  0.03249  -0.03565  -0.03043  -0.4265  0.6039
6.269e+09  -0.6412  0.5655  -0.02414  0.01433  -0.07593  -0.0444  -0.188  0.7226
6.27e+09  -0.4782  0.7956  -0.0298  -0.03764  0.01638  0.003354  0.06743  0.7509
6.271e+09  -0.1733  0.9205  -0.009241  -0.02419  0.01799  -0.01604  0.302  0.6752
6.272e+09  0.1046  0.9094  -0.003382  -0.001325  0.02439  -0.008215  0.5639  0.5294
6.274e+09  0.479  0.8247  0.01206  0.01483  -0.02868  0.05121  0.6761  0.3155
6.275e+09  0.7315  0.6196  -0.02669  -0.003043  0.008793  0.04982  0.7877  0.03938
6.276e+09  0.8889  0.3231  -0.01306  0.01212  -0.01468  0.02525  0.7241  -0.2422
6.278e+09  0.9234  -0.01153  0.0198  -0.00702  -0.02294  -0.03246  0.6025  -0.4821
6.279e+09  0.863  -0.2839  -0.009004  0.02075  -0.04061  -0.01654  0.4155  -0.6655
6.28e+09  0.7443  -0.5594  -0.01101  -0.01814  -0.0174  -0.02139  0.1426  -0.7568
6.281e+09  0.4311  -0.8078  -0.01957  0.02595  -0.01445  0.0627  -0.106  -0.7835
6.282e+09  0.1161  -0.9358  -0.0376  -0.006886  -0.08689  -0.03876  -0.4014  -0.7082
6.284e+09  -0.183  -0.9082  0.00302  0.002068  -0.0463  0.003404  -0.605  -0.511
6.285e+09  -0.4881  -0.777  0.003627  0.003683  -0.02329  0.04954  -0.7353  -0.3155
6.286e+09  -0.7319  -0.5918  -0.0009514  0.01579  7.33e-05  -0.01598  -0.8197  0.0002977
6.288e+09  -0.9491  -0.3474  -0.01454  0.009652  -0.02767  0.0029  -0.7676  0.2599
6.289e+09  -0.9386  0.04101  0.01765  -0.007518  -0.03508  -0.005354  -0.6299  0.4833
6.29e+09  -0.8385  0.384  0.01083  0.005563  0.01884  0.03865  -0.4127  0.6894
6.291e+09  -0.729  0.6342  -0.01695  0.01606  -0.04513  0.01561  -0.1512  0.7653
6.292e+09  -0.3863  0.8201  0.0358  0.008668  0.009148  0.02475  0.1183  0.8053
6.294e+09  -0.1711  0.9618  0.008844  -0.02282  -0.01473  -0.00763  0.3815  0.7266
6.295e+09  0.2071  0.9061  -0.006066  -0.02227  -0.002394  -0.03307  0.6393  0.5095
6.296e+09  0.5413  0.7807  -0.001235  0.01378  -0.02682  -0.008336  0.7995  0.2956
6.298e+09  0.82  0.5208  -0.02359  -0.02802  -0.04057  -0.01045  0.8442  0.03905
6.299e+09  0.9169  0.2881  0.00142  -0.002501  -0.01963  -0.0003229  0.7737  -0.2892
6.3e+09  0.9503  -0.06419  -0.002675  0.005934  -0.01305  0.04227  0.622  -0.5241
6.301e+09  0.8153  -0.3616  0.01992  -0.016  0.008252  0.02176  0.4439  -0.7343
6.302e+09  0.6716  -0.6761  -0.04047  -0.00865  0.04179  0.004563  0.1687  -0.7996
6.304e+09  0.4157  -0.9094  0.01046  0.01341  0.003127  0.03362  -0.1874  -0.8382
6.305e+09  0.06474  -0.9814  0.02411  0.006661  -0.01326  -0.005006  -0.4189  -0.7458
6.306e+09  -0.2605  -0.9551  -0.004404  0.01889  -0.02122  -0.05677  -0.6395  -0.5753
6.308e+09  -0.5877  -0.7682  -0.009721  0.02814  0.02605  -0.03945  -0.8054  -0.2855
6.309e+09  -0.8081  -0.5282  0.008962  -0.02121  -0.02778  -0.01891  -0.8795  -0.0002422
6.31e+09  -0.9681  -0.2345  -0.02023  0.02692  0.01096  0.03064  -0.8268  0.269
6.311e+09  -1.003  0.1451  -0.01571  -0.00297  0.004047  -0.006976  -0.6741  0.5543
6.312e+09  -0.8434  0.4586  0.01427  -0.02068  -0.02671  -0.01481  -0.4668  0.7557
6.314e+09  -0.6768  0.7558  -0.01689  -0.01413  -0.005247  -0.0005132  -0.1556  0.852
6.315e+09  -0.3481  0.8868  -0.01529  -0.006223  0.0139  0.001117  0.1438  0.856
6.316e+09  -0.02457  1.024  0.000586  0.0008644  0.007674  -0.04388  0.4239  0.7642
6.318e+09  0.3375  0.9639  0.01104  0.0115  0.01732  0.01307  0.6785  0.5641
6.319e+09  0.6691  0.7759  0.002709  0.009964  0.02527  0.0155  0.8103  0.2985
6.32e+09  0.8617  0.5176  -0.0378  0.04211  0.0501  -0.008892  0.8722  0.01912
6.321e+09  1.003  0.11  -0.01823  -0.00817  -0.0047  -0.02663  0.8398  -0.2697
6.322e+09  1.008  -0.1993  -0.005304  -0.02764  0.004909  -0.0202  0.6668  -0.553
6.324e+09  0.8947  -0.5327  -0.008846  0.002755  -0.005641  0.001904  0.4557  -0.7964
6.325e+09  0.6664  -0.7838  0.009021  -0.008517  -0.009853  -0.01627  0.1654  -0.8731
6.326e+09  0.3439  -0.9798  0.006754  0.01321  0.01618  -0.001185  -0.1457  -0.91
6.328e+09  -0.05852  -1.059  0.01208  0.0008695  0.007994  -0.04987  -0.4415  -0.798
6.329e+09  -0.4061  -0.959  0.00256  -0.009608  -0.008018  0.03934  -0.714  -0.6059
6.33e+09  -0.7175  -0.7576  0.01227  0.005306  -0.01181  -0.009695  -0.8137  -0.3194
6.331e+09  -0.989  -0.451  0.008682  -0.006718  -0.02728  0.00919  -0.9169  -0.03994
6.332e+09  -1.073  -0.1371  0.00239  -0.02796  0.04584  0.04064  -0.8302  0.2643
6.334e+09  -1.095  0.3488  0.01144  0.01653  -0.03734  -0.01709  -0.7364  0.5542
6.335e+09  -0.8892  0.5987  -0.02083  0.01042  0.01192  0.0273  -0.5087  0.7837
6.336e+09  -0.6072  0.9074  0.01667  -0.0018  0.009858  0.01916  -0.2031  0.8959
6.338e+09  -0.2485  1.072  0.02116  0.009977  -0.01632  -0.01938  0.1355  0.8972
6.339e+09  0.09436  1.11  -0.01071  -0.02415  0.01023  0.06524  0.4165  0.8479
6.34e+09  0.5201  1.001  -0.01486  0.01673  0.01206  -0.05557  0.6859  0.6093
6.341e+09  0.8297  0.751  0.02304  -0.02839  -0.01625  -0.0115  0.8547  0.336
6.342e+09  1.064  0.4426  -0.00397  -0.009331  0.002195  0.005164  0.9311  -0.003809
6.344e+09  1.13  0.06713  0.02494  0.0009285  -0.02783  0.005369  0.9008  -0.2665
6.345e+09  1.057  -0.3895  -0.01311  0.001387  0.03611  -0.007274  0.7409  -0.5298
6.346e+09  0.8815  -0.7453  0.008964  0.04109  -0.00772  0.01051  0.526  -0.7723
6.348e+09  0.5397  -0.9925  -0.004114  -0.03357  -0.01615  0.007315  0.196  -0.897
6.349e+09  0.213  -1.177  0.004261  0.02969  0.03814  0.006141  -0.1422  -0.9545
6.35e+09  -0.2284  -1.131  0.01821  0.02403  0.03118  -0.01279  -0.4465  -0.8776
6.351e+09  -0.6259  -0.9961  -0.007372  0.0116  -0.03458  -0.01839  -0.674  -0.6755
6.352e+09  -1.009  -0.7268  0.01213  0.01499  -0.0347  -0.003893  -0.8447  -0.3871
6.354e+09  -1.16  -0.3576  0.01428  -0.02101  -0.02262  -0.007084  -0.9459  -0.04965
6.355e+09  -1.227  0.09052  0.007166  -0.002042  -0.03296  0.004286  -0.9024  0.2758
6.356e+09  -1.113  0.4828  0.0193  -0.03198  -0.04228  -0.01382  -0.7881  0.5645
6.358e+09  -0.8817  0.8854  0.02168  0.01033  0.02992  -0.02905  -0.541  0.7971
6.359e+09  -0.4836  1.097  -0.001973  -0.03558  -0.02846  -0.002244  -0.224  0.9378
6.36e+09  -0.08951  1.219  -0.01669  -0.02432  -0.01955  0.01184  0.1063  0.9767
6.361e+09  0.3494  1.177  0.005643  0.02359  -0.04161  -0.05514  0.4112  0.8863
6.362e+09  0.7603  1.013  0.009564  -0.01605  -0.01198  -0.03188  0.6792  0.6615
6.364e+09  1.043  0.6125  0.01561  -0.01029  -0.02184  0.02869  0.8756  0.3367
6.365e+09  1.247  0.2047  0.02358  -0.01116  -0.05872  0.02792  0.9418  0.0696
6.366e+09  1.203  -0.1782  -0.01845  -0.01731  -0.009749  0.03595  0.8977  -0.2461
6.368e+09  1.115  -0.6574  0.02252  0.05752  -0.0217  -0.01048  0.7447  -0.5793
6.369e+09  0.8058  -0.9548  -0.03548  -0.01431  0.04746  -0.01627  0.5699  -0.7824
6.37e+09  0.4503  -1.184  0.00952  0.05064  -0.007828  0.005207  0.2413  -0.9322
6.371e+09  -0.02709  -1.252  0.01048  -0.0002134  0.01884  0.04275  -0.07055  -0.9463
6.372e+09  -0.4924  -1.209  -0.000224  -0.009754  -0.008851  0.02862  -0.4041  -0.8876
6.374e+09  -0.8562  -0.9437  -0.007008  -0.01723  -0.02601  -0.01177  -0.6897  -0.6839
6.375e+09  -1.163  -0.5596  0.03696  -0.02122  0.01383  -0.009135  -0.8877  -0.4208
6.376e+09  -1.268  -0.1754  -0.03246  -0.02051  0.01296  0.03562  -0.9498  -0.1012
6.378e+09  -1.269  0.3297  -0.01152  0.004497  0.004582  -0.03717  -0.9597  0.2345
6.379e+09  -1.1  0.7645  0.0316  0.009393  -0.01335  -0.01314  -0.7718  0.4926
6.38e+09  -0.704  1.057  -0.02177  0.000652  -0.03994  0.02304  -0.5774  0.7574
6.381e+09  -0.3249  1.245  -0.01512  0.02316  0.04088  -0.001465  -0.268  0.9124
6.382e+09  0.2295  1.358  0.003282  0.004155  -0.04175  0.04725  0.05648  0.9473
6.384e+09  0.6417  1.178  -0.01944  -0.006695  -0.0005938  -0.05432  0.3726  0.8359
6.385e+09  0.9446  0.8843  0.01343  0.0283  -0.004333  -0.02103  0.6527  0.6934
6.386e+09  1.223  0.4835  -0.01755  -0.03346  -0.03558  -0.05763  0.8286  0.3981
6.388e+09  1.347  -0.0006098  0.01574  0.005219  0.04702  -0.03173  0.9632  0.119
6.389e+09  1.243  -0.4186  -0.007642  0.0116  -0.01359  0.04116  0.8878  -0.2035
6.39e+09  1.029  -0.8123  -0.001003  -0.02526  0.01497  -0.02258  0.81  -0.4938
6.391e+09  0.6411  -1.169  0.01571  -0.003743  -0.01672  0.01937  0.5814  -0.7352
6.392e+09  0.1589  -1.357  -0.0006617  -0.0002787  0.02284  0.01383  0.2954  -0.9214
6.394e+09  -0.2741  -1.307  0.005106  0.06224  -0.004449  0.05547  -0.0505  -0.9382
6.395e+09  -0.7012  -1.15  -0.0344  0.05407  0.0005701  0.03074  -0.3629  -0.8498
6.396e+09  -1.068  -0.772  -0.01503  -0.02323  -0.005561  0.005469  -0.5635  -0.6714
6.398e+09  -1.297  -0.3305  0.04536  0.008358  -0.007216  -0.006186  -0.7811  -0.4501
6.399e+09  -1.312  0.08239  -0.03606  0.0041  0.003268  0.01461  -0.9033  -0.111
6.4e+09  -1.199  0.4983  -0.03168  -0.02925  0.02738  0.03143  -0.8759  0.1701
6.401e+09  -0.8981  0.9542  0.01061  -0.006423  0.03147  0.01277  -0.8117  0.5115
6.402e+09  -0.4932  1.24  0.0117  -0.03823  0.04813  0.02801  -0.572  0.6957
6.404e+09  -0.1386  1.293  -0.01352  -0.05986  0.02467  0.005824  -0.3261  0.845
6.405e+09  0.3615  1.26  0.06372  -0.004101  0.02254  0.007736  -0.04225  0.9292
6.406e+09  0.7352  1.106  -0.02953  -0.03554  0.03309  -0.05192  0.2917  0.8829
6.408e+09  1.114  0.8066  -0.05345  -0.02804  -0.007957  -0.02156  0.5487  0.7085
6.409e+09  1.293  0.27  0.08253  -0.0008986  0.02224  0.01614  0.7782  0.4329
6.41e+09  1.348  -0.07463  -0.03165  0.0156  0.004631  0.006784  0.8449  0.1612
6.411e+09  1.168  -0.5752  -0.03354  0.005681  0.02555  -0.001486  0.9058  -0.1722
6.412e+09  0.9083  -0.9642  0.02527  -0.02121  -0.009556  0.0294  0.8355  -0.454
6.414e+09  0.482  -1.226  0.03212  -0.0206  -0.02675  0.01484  0.611  -0.6618
6.415e+09  0.0206  -1.291  -0.03673  -0.01124  0.02851  -0.02127  0.3186  -0.8519
6.416e+09  -0.3916  -1.261  -0.002608  0.00217  0.0008143  -0.04673  0.004408  -0.8876
6.418e+09  -0.8346  -1.015  0.02445  -0.001116  0.0007428  0.003991  -0.2981  -0.9049
6.419e+09  -1.139  -0.7068  -0.002798  -0.01354  0.03464  -0.03248  -0.5634  -0.6971
6.42e+09  -1.37  -0.2116  -0.001726  0.006812  0.0131  0.04558  -0.7321  -0.4365
6.421e+09  -1.351  0.2587  -0.001079  -0.02219  -0.06264  -0.002553  -0.8662  -0.2046
6.422e+09  -1.198  0.722  0.01653  0.04797  0.005322  -0.02373  -0.8969  0.09587
6.424e+09  -0.7998  1.078  -0.01512  -0.003433  0.06092  -0.02454  -0.7806  0.4039
6.425e+09  -0.3944  1.324  0.008599  -0.007949  0.02491  -0.008702  -0.5873  0.656
6.426e+09  0.06654  1.357  0.0008846  0.03483  -0.02286  -0.01253  -0.3432  0.7828
6.428e+09  0.5638  1.275  0.018  -0.03442  0.02206  -0.01228  -0.08078  0.8776
6.429e+09  0.9461  0.9812  -0.02183  -0.04029  0.01746  0.0402  0.2798  0.854
6.43e+09  1.237  0.6424  0.008379  0.004167  -0.01094  0.005442  0.5105  0.7102
6.431e+09  1.402  0.1704  -0.03636  -0.02176  0.002054  -0.02281  0.7363  0.5023
6.432e+09  1.4  -0.3958  -0.05864  0.02738  0.02538  -0.002554  0.8358  0.2166
6.434e+09  1.101  -0.8074  -0.01767  0.02101  0.04474  -0.03398  0.8807  -0.1064
6.435e+09  0.8283  -1.229  0.01568  -0.03248  0.002345  -0.0366  0.8059  -0.3842
6.436e+09  0.3438  -1.396  0.02872  -0.004047  -0.06132  -0.04364  0.6626  -0.6328
6.438e+09  -0.198  -1.439  -0.01935  0.02293  -0.004389  0.01861  0.3451  -0.7861
6.439e+09  -0.6324  -1.222  0.02837  -0.01148  0.003626  0.0126  0.07748  -0.8916
6.44e+09  -1.067  -0.9909  0.01753  -0.02395  0.03675  0.01308  -0.2566  -0.8262
6.441e+09  -1.354  -0.5141  -0.03764  0.0005028  -0.03415  -0.02172  -0.4988  -0.7272
6.442e+09  -1.498  -0.005412  -0.01152  0.04214  -0.04395  -0.01314  -0.7033  -0.4837
6.444e+09  -1.437  0.5372  0.03998  0.00569  -0.009796  -0.01713  -0.8384  -0.2066
6.445e+09  -1.129  0.9726  0.01542  -0.03708  -0.02165  0.0124  -0.8357  0.04457
6.446e+09  -0.7431  1.304  -0.0235  -0.01132  0.01526  -0.01288  -0.7811  0.333
6.448e+09  -0.2744  1.5  -0.01437  0.03494  0.02622  -0.04023  -0.6078  0.5776
6.449e+09  0.2808  1.484  -0.01576  0.005819  0.0217  -0.001353  -0.3342  0.7799
6.45e+09  0.807  1.282  -0.01948  -0.03784  0.01171  0.007341  -0.04593  0.8403
6.451e+09  1.188  0.9158  -0.003678  0.02263  0.01486  -0.03436  0.1638  0.8047
6.452e+09  1.526  0.4082  -0.03252  -0.006016  0.01282  -0.03035  0.5132  0.7045
6.454e+09  1.513  -0.09148  -0.006282  0.03089  -0.06553  0.05013  0.6472  0.4595
6.455e+09  1.462  -0.6935  -0.006137  -0.02026  -0.04182  0.004433  0.8292  0.2152
6.456e+09  1.133  -1.119  -0.01768  0.02779  -0.01523  -0.01812  0.7984  -0.1283
6.458e+09  0.7002  -1.489  -0.03022  0.01926  -0.03062  0.04115  0.7051  -0.342
6.459e+09  0.05522  -1.622  -0.02048  -0.01046  -0.03177  0.0552  0.5771  -0.61
6.46e+09  -0.4895  -1.602  -0.06064  -0.001356  -0.001705  0.02027  0.3569  -0.7972
6.461e+09  -1.036  -1.297  -0.01415  0.02437  0.06705  0.01416  0.1154  -0.8524
6.462e+09  -1.461  -0.8541  -0.04542  -0.001135  0.01909  -0.02709  -0.1919  -0.7883
6.464e+09  -1.693  -0.2792  -0.005645  -0.008  -0.08275  0.07256  -0.4628  -0.6253
6.465e+09  -1.714  0.2708  -0.02923  0.01579  0.04685  -0.04907  -0.6913  -0.4396
6.466e+09  -1.533  0.8877  -0.03895  0.03083  -0.003335  0.0123  -0.8034  -0.2136
6.468e+09  -1.051  1.401  -0.03889  0.01393  -0.04454  -0.02885  -0.7849  0.08023
6.469e+09  -0.4818  1.789  0.03635  -0.003461  0.01188  0.07855  -0.6807  0.382
6.47e+09  0.1811  1.805  -0.01792  0.03956  0.05835  0.0681  -0.5772  0.5587
6.471e+09  0.8066  1.672  -0.01333  0.05619  0.02647  -0.06036  -0.3347  0.6971
6.472e+09  1.4  1.269  0.04078  -0.001038  -0.01576  0.006192  -0.1076  0.7844
6.474e+09  1.78  0.7288  0.01718  0.002578  0.01975  0.02922  0.2309  0.746
6.475e+09  1.938  0.0544  -0.02262  0.005192  -0.02745  -0.01382  0.4624  0.6175
6.476e+09  1.821  -0.7418  0.03587  0.03764  -0.04748  -0.006286  0.6709  0.4586
6.478e+09  1.443  -1.361  0.01861  0.005039  -0.01979  0.01586  0.7781  0.2331
6.479e+09  0.8957  -1.795  0.007889  -0.04207  0.01372  -0.03755  0.8164  -0.111
6.48e+09  0.1213  -1.963  0.06223  0.03453  0.01756  -0.00293  0.6581  -0.3062
6.481e+09  -0.6584  -1.908  -0.01191  -0.01655  -0.0171  0.03625  0.5569  -0.5315
6.482e+09  -1.297  -1.62  -0.004299  -0.006795  0.01988  0.002135  0.301  -0.7144
6.484e+09  -1.747  -1.012  0.04018  0.001146  0.02191  -0.0259  0.1173  -0.7935
6.485e+09  -2.049  -0.2615  -0.00505  -0.04159  0.02312  -0.0535  -0.2494  -0.7168
6.486e+09  -2.093  0.4725  0.03948  0.001247  -0.01079  0.004607  -0.466  -0.6389
6.488e+09  -2.243  1.805  -0.01903  -0.01078  -0.6088  -0.3032  -0.6056  -0.4768
6.489e+09  -1.17  1.771  0.02093  -0.009538  0.01221  -0.01294  -0.7536  -0.1744
6.49e+09  -0.4014  2.101  -0.003091  0.03824  0.01954  -0.02868  -0.8087  0.07693
6.491e+09  0.3822  2.16  -0.02361  0.02013  0.06637  0.01507  -0.6317  0.3485
6.492e+09  1.204  1.886  -0.03071  0.02913  0.008324  -0.04023  -0.4982  0.5694
6.494e+09  1.883  1.119  0.01904  0.01347  -0.08845  0.08289  -0.3236  0.6926
6.495e+09  2.112  0.438  0.006815  -0.03357  0.0286  -0.02244  -0.009471  0.752
6.496e+09  2.192  -0.3922  0.02094  -0.004293  0.03645  0.008809  0.2406  0.7561
6.498e+09  1.908  -1.158  0.01842  0.01801  -0.08404  -0.02157  0.5053  0.6165
6.499e+09  1.283  -1.822  -0.03856  0.03268  -0.002421  0.01255  0.6392  0.4335
6.5e+09  -1.426  -1.879  -0.04159  0.04023  -0.0808  -0.06863  0.7476  0.1673
6.501e+09  -0.3737  -2.12  -0.02003  -0.01621  0.00599  0.01335  0.7702  -0.08817
6.502e+09  -1.129  -1.905  -0.01277  -0.003902  -0.001106  0.01396  0.695  -0.3543
6.504e+09  -1.716  -1.35  0.009412  0.02344  0.01586  0.01875  0.5123  -0.5775
6.505e+09  -2.11  -0.5388  -0.02031  -0.01999  -0.0115  0.01623  0.2685  -0.7482
6.506e+09  -2.131  0.3272  -0.01609  0.02185  -0.02465  -0.014  0.0314  -0.8017
6.508e+09  -1.937  1.026  -0.03476  0.04159  0.02314  -0.00177  -0.2211  -0.7116
6.509e+09  -1.364  1.602  0.00261  -0.01638  0.01086  0.0004546  -0.4902  -0.5743
6.51e+09  -0.6421  2.008  -0.01379  -0.03601  0.04616  0.008016  -0.6612  -0.3796
6.511e+09  0.1838  2.081  0.01843  -0.02222  -0.01415  -0.009924  -0.7404  -0.105
6.512e+09  0.8967  1.794  -0.003257  0.03229  -0.002811  0.01673  -0.7441  0.1277
6.514e+09  1.486  1.299  -0.008766  0.0105  0.01392  0.0005937  -0.6198  0.3868
6.515e+09  1.836  0.6189  0.0158  0.003919  0.04446  -0.009085  -0.4593  0.581
6.516e+09  1.911  -0.06727  0.01782  -0.005229  0.04284  0.04291  -0.2186  0.6688
6.518e+09  1.835  -0.8327  0.003294  0.003436  -0.01096  0.03168  0.02504  0.7545
6.519e+09  1.354  -1.33  0.007213  0.01076  0.01665  -0.006593  0.2607  0.6799
6.52e+09  0.7189  -1.685  0.01368  -0.01231  -0.02785  -0.04253  0.5196  0.528
6.521e+09  0.01783  -1.803  0.00567  -0.01273  0.007249  1.726e-05  0.6624  0.372
6.522e+09  -0.6007  -1.702  0.03869  -0.05166  0.03006  0.01288  0.7277  0.1115
6.524e+09  -1.125  -1.279  -0.03829  -0.01152  -0.02506  0.003757  0.734  -0.1776
6.525e+09  -1.565  -0.7671  -0.02567  0.007577  0.0009319  0.02632  0.6111  -0.3879
6.526e+09  -1.742  -0.1704  -0.01876  -0.01981  0.04131  0.038  0.3846  -0.5689
6.528e+09  -1.607  0.4796  0.002889  0.01706  -0.08303  0.008966  0.1783  -0.7167
6.529e+09  -1.292  1.026  -0.01128  0.00636  0.001383  0.008724  -0.02572  -0.7036
6.53e+09  -0.9042  1.409  0.0006927  0.01168  0.04909  0.03695  -0.3154  -0.6185
6.531e+09  -0.3647  1.591  -0.00144  -0.02874  0.007672  -0.02851  -0.5158  -0.48
6.532e+09  0.287  1.553  0.01097  -0.01379  -0.01736  0.008557  -0.5616  -0.2916
6.534e+09  0.7933  1.361  0.01421  0.01306  -0.006623  -0.006383  -0.6583  -0.08286
6.535e+09  1.254  0.9466  -0.0388  -0.02599  0.08327  -0.00392  -0.6308  0.1553
6.536e+09  1.45  0.4629  0.02511  0.03375  0.0195  -0.05244  -0.5518  0.3014
6.538e+09  1.492  -0.1367  -0.00465  -0.06761  -0.04101  0.03909  -0.4222  0.5086
6.539e+09  1.292  -0.6343  -0.01021  0.0137  0.02015  0.0003692  -0.2651  0.6307
6.54e+09  1.038  -1.064  0.02332  0.02748  -0.00289  -0.02784  -0.0729  0.6888
6.541e+09  0.5127  -1.347  0.009432  -0.0248  0.03257  0.01456  0.1908  0.6704
6.542e+09  0.08081  -1.395  -0.04013  -0.05882  -0.004932  0.03433  0.411  0.542
6.544e+09  -0.4719  -1.382  -0.009259  0.007897  0.02606  0.01164  0.5862  0.358
6.545e+09  -0.9077  -1.022  -0.02916  -0.0111  0.04214  -0.0271  0.6793  0.2017
6.546e+09  -1.17  -0.6658  -0.02327  -0.009732  -0.02428  -0.006388  0.6687  -0.04734
6.548e+09  -1.336  -0.1625  0.004128  0.006265  -0.02038  -0.0212  0.6374  -0.319
6.549e+09  -1.292  0.2596  0.03011  0.01343  -0.003626  -0.03508  0.5108  -0.5131
6.55e+09  -1.108  0.743  -0.00781  0.01345  0.06074  -0.006523  0.2773  -0.7003
6.551e+09  -0.7909  1.091  -0.0289  -0.0136  0.004575  -0.01854  0.06436  -0.748
6.552e+09  -0.3531  1.243  -0.02505  0.01483  -0.01477  -0.02925  -0.2188  -0.6816
6.554e+09  0.1148  1.293  0.0302  0.02607  -0.01302  -0.001047  -0.4608  -0.6318
