# Hz S RI R 50
6.25e+09  0.3524  0.8814  -0.02562  -0.04191  -0.03218  0.02637  0.1616  0.4701
6.251e+09  0.6504  0.6964  -0.01415  -0.002944  -0.001426  0.04955  0.3342  0.384
6.252e+09  0.838  0.4923  -0.001346  0.03522  -0.02959  0.02207  0.5081  0.2458
6.254e+09  0.9482  0.1616  -0.01677  0.0269  0.0862  0.05066  0.6059  -0.001814
6.255e+09  0.9421  -0.2101  -0.02479  0.001536  -0.03015  -0.01737  0.5713  -0.2192
6.256e+09  0.7685  -0.4442  9.759e-05  -0.01152  -0.01623  0.04287  0.4695  -0.4587
6.258e+09  0.5554  -0.7345  -0.003115  -0.004067  -0.02071  0.01018  0.3014  -0.5927
6.259e+09  0.2749  -0.9271  0.009247  -0.01908  -0.01617  -0.004816  0.06249  -0.6988
6.26e+09  -0.06951  -0.8707  0.01056  0.01146  -0.01897  0.01485  -0.223  -0.6528
6.261e+09  -0.4114  -0.8337  -0.0003192  4.81e-05  -0.0646  -0.003169  -0.4504  -0.5291
6.262e+09  -0.7097  -0.6989  -0.007505  -0.01088  -0.03287  -0.01527  -0.607  -0.3525
6.264e+09  -0.8721  -0.3873  0.01004  -0.002378  0.0351  0.02265  -0.7272  -0.08627
6.265e+09  -0.8898  -0.04668  -0.002616  -0.001468  -0.009291  0.00744  -0.68  0.1503
6.266e+09  -0.9276  0.2335  -0.02204  0.0459  -0.01072  0.001522  -0.6056  0.4094
6.268e+09  -0.7238  0.5828  -0.01042  0.002292  -0.03886  -0.03794  -0.4258  0.6083
6.269e+09  -0.5553  0.7601  0.003854  0.03262  0.02501  -0.02202  -0.2053  0.7062
6.27e+09  -0.2118  0.8821  0.01719  0.005643  -0.0154  0.06261  0.06432  0.789
6.271e+09  0.07286  0.902  0.02869  -0.005816  0.05179  0.02738  0.329  0.6821
6.272e+09  0.4548  0.8464  -0.0152  -0.0297  0.02971  0.0287  0.5262  0.4943
6.274e+09  0.6557  0.6262  -0.02199  -0.004995  -0.01063  -0.04458  0.6973  0.2841
6.275e+09  0.8646  0.3491  0.003213  7.72e-06  -0.02929  -0.01963  0.7498  0.006006
6.276e+09  0.9353  0.001268  -0.02962  -0.01435  0.03217  0.006409  0.7464  -0.2085
6.278e+09  0.828  -0.3136  -0.02808  -0.001031  -0.001505  -0.04087  0.6167  -0.474
6.279e+09  0.6718  -0.5821  -0.00444  -0.01263  -0.04  -0.04275  0.4007  -0.6522
6.28e+09  0.4189  -0.8167  0.0383  0.01599  -0.004515  0.008588  0.1572  -0.7451
6.281e+09  0.1358  -0.9324  0.006505  -0.01069  0.05158  0.02743  -0.1047  -0.7625
6.282e+09  -0.1473  -0.9241  0.001226  -0.03131  -5.828e-05  0.01114  -0.3902  -0.7044
6.284e+09  -0.4793  -0.8535  -0.00554  -0.01019  -0.00491  -0.02859  -0.5884  -0.5281
6.285e+09  -0.7003  -0.5621  0.02106  -0.02761  -0.02085  -0.0493  -0.7499  -0.2732
6.286e+09  -0.9137  -0.3266  0.002461  -0.01504  -0.03335  -0.02987  -0.8023  0.003518
6.288e+09  -0.8964  0.05557  -0.02091  0.03106  -0.00667  0.02107  -0.7701  0.2622
6.289e+09  -0.8277  0.3968  0.01189  -0.009867  0.01503  -0.0304  -0.6353  0.5277
6.29e+09  -0.6824  0.5919  -0.009903  0.01746  0.03613  -0.02063  -0.4282  0.713
6.291e+09  -0.4383  0.7785  -0.01697  -0.005011  -0.002668  -0.01356  -0.1954  0.7694
6.292e+09  -0.1762  0.9002  -0.03939  -0.009538  0.05169  0.01324  0.1056  0.8341
6.294e+09  0.2209  0.8931  0.002199  0.01545  0.03838  -0.01573  0.374  0.7111
6.295e+09  0.5905  0.8426  0.02238  -0.01903  0.03723  0.04825  0.6252  0.5267
6.296e+09  0.7825  0.583  -0.00357  -0.0425  -0.01854  -0.01081  0.7619  0.2957
6.298e+09  0.9151  0.2201  0.01265  0.003289  0.04332  -0.07355  0.8338  0.005583
6.299e+09  0.9157  -0.06995  -0.02973  -0.00827  -0.03715  0.02723  0.7786  -0.2588
6.3e+09  0.9122  -0.3879  0.02294  0.02294  -0.07087  0.02722  0.6536  -0.5346
6.301e+09  0.667  -0.7058  -0.008298  0.02471  -0.02103  -0.01323  0.3911  -0.7556
6.302e+09  0.4114  -0.899  0.007893  -0.02359  0.02923  0.035  0.1623  -0.8487
6.304e+09  0.02881  -0.9698  0.02848  0.01505  0.0152  -0.01371  -0.1491  -0.8381
6.305e+09  -0.2845  -0.9492  -0.01489  -0.009375  0.01178  0.01192  -0.4111  -0.7476
6.306e+09  -0.6142  -0.81  -0.01805  0.005271  -0.01011  -0.01311  -0.6628  -0.56
6.308e+09  -0.8243  -0.5592  -0.003643  0.03139  0.0001779  0.01658  -0.7793  -0.2943
6.309e+09  -0.9719  -0.1991  0.01203  -0.009993  -0.03178  -0.001901  -0.8719  -0.01823
6.31e+09  -0.919  0.1669  0.01175  -0.003764  0.02432  0.03212  -0.8428  0.2909
6.311e+09  -0.8619  0.4437  0.02508  -0.01452  0.01281  0.01903  -0.6586  0.5369
6.312e+09  -0.6479  0.7373  -0.02126  -0.02403  0.05089  0.01223  -0.3919  0.7415
6.314e+09  -0.3616  0.9101  -0.003807  0.01601  -0.04709  -0.03495  -0.2003  0.834
6.315e+09  -0.03028  0.9858  -0.01595  0.009709  -0.1034  -0.03944  0.1242  0.8325
6.316e+09  0.3252  0.941  0.04784  0.003658  -0.01759  0.03683  0.4522  0.7618
6.318e+09  0.6354  0.7202  -0.003611  -0.009287  0.03385  0.02784  0.6549  0.5764
6.319e+09  0.8402  0.5128  -0.0178  -0.004138  -0.01955  -0.005392  0.8472  0.3586
6.32e+09  1.046  0.1942  0.01768  0.04091  -0.04469  0.0005359  0.8703  0.05234
6.321e+09  0.9839  -0.2005  0.01897  -0.004349  0.04308  -0.004792  0.8151  -0.2607
6.322e+09  0.8599  -0.5426  -0.01294  0.0009833  -0.02552  0.02325  0.6731  -0.5552
6.324e+09  0.5994  -0.7329  0.007368  0.02231  -0.01131  0.001775  0.4839  -0.7582
6.325e+09  0.3033  -0.9904  0.009817  -0.0517  -0.04146  0.0217  0.17  -0.8912
6.326e+09  -0.06619  -1.026  0.01409  -0.01949  0.04222  -0.01883  -0.16  -0.8768
6.328e+09  -0.3684  -0.948  0.004016  -0.00358  -0.004902  0.01072  -0.4682  -0.7885
6.329e+09  -0.7556  -0.7794  0.003862  -0.02274  0.007758  -0.01808  -0.703  -0.6122
6.33e+09  -0.9638  -0.467  -0.009676  -0.004376  0.05366  0.02114  -0.819  -0.3231
6.331e+09  -1.048  -0.1416  -0.0151  -0.000649  -0.006234  0.02143  -0.9184  -0.02375
6.332e+09  -1.04  0.2853  -0.01494  -0.003277  0.03436  -0.006933  -0.8558  0.31
6.334e+09  -0.8879  0.6259  -0.01031  0.007401  -0.03196  -0.04516  -0.7115  0.5303
6.335e+09  -0.5887  0.9195  -0.03361  -0.02502  -0.008506  -0.03492  -0.492  0.7799
6.336e+09  -0.2873  1.053  0.01669  -0.01353  0.007757  0.02452  -0.169  0.8823
6.338e+09  0.0853  1.076  0.01165  -0.01035  -0.006111  0.009039  0.1041  0.9368
6.339e+09  0.4782  0.936  0.005345  -0.01945  0.03085  -0.008546  0.4174  0.8029
6.34e+09  0.7939  0.756  0.02545  -0.005606  0.06095  -0.01709  0.6653  0.573
6.341e+09  0.9753  0.4519  0.003216  0.01678  0.005055  0.03957  0.8545  0.3666
6.342e+09  1.101  0.08871  -0.003337  -0.007192  0.008913  0.0526  0.9475  0.05887
6.344e+09  1.058  -0.3316  -0.03279  0.007891  -0.01995  0.007963  0.8759  -0.2645
6.345e+09  0.8898  -0.7245  -0.01617  -0.02396  0.009357  -0.06931  0.7352  -0.5572
6.346e+09  0.6494  -0.8776  0.01134  -0.01584  0.003144  -0.00762  0.5079  -0.7817
6.348e+09  0.2526  -1.112  -0.02677  -0.02533  0.01972  -0.03224  0.1812  -0.9179
6.349e+09  -0.1265  -1.099  -0.02345  0.002128  0.07574  0.00872  -0.1119  -0.9349
6.35e+09  -0.5665  -0.9853  0.02733  0.02537  -0.0175  -0.04355  -0.4092  -0.8615
6.351e+09  -0.8436  -0.7653  -0.06093  0.0113  0.03539  0.001783  -0.6874  -0.613
6.352e+09  -1.032  -0.3714  -0.03298  -0.008576  -0.002696  -0.008682  -0.891  -0.3589
6.354e+09  -1.143  0.01774  -0.002677  -0.01497  0.002041  0.03484  -0.9134  -0.07165
6.355e+09  -1.094  0.4082  -0.01888  -0.01423  0.007722  -0.02033  -0.9252  0.2494
6.356e+09  -0.8497  0.7674  -0.006968  -0.04177  -0.02952  -0.0164  -0.755  0.585
6.358e+09  -0.571  0.9969  -0.002353  0.0352  0.02975  0.02571  -0.5034  0.7706
6.359e+09  -0.1654  1.165  -0.0008606  0.02773  -0.002932  -0.002291  -0.2208  0.9151
6.36e+09  0.2636  1.164  0.01547  0.01907  0.03253  -0.008358  0.07534  0.9465
6.361e+09  0.6041  1.027  -0.004048  0.001495  -0.01506  0.01681  0.4259  0.8146
6.362e+09  0.9186  0.7081  0.02188  0.01141  -0.06122  0.01743  0.6637  0.6501
6.364e+09  1.114  0.3573  0.01574  0.006576  0.02177  -0.02139  0.835  0.4384
6.365e+09  1.222  -0.03811  -0.02517  0.002285  -0.005822  -0.006076  0.9552  0.09191
6.366e+09  1.133  -0.492  0.005442  -0.006525  -0.0215  -0.02294  0.8683  -0.2463
6.368e+09  0.913  -0.8429  -0.02121  0.004176  -0.01421  -0.04122  0.7205  -0.5607
6.369e+09  0.5397  -1.102  -0.01046  0.01217  0.009644  -0.005039  0.5379  -0.7986
6.37e+09  0.09086  -1.228  0.01789  -0.03147  -0.00076  -0.03209  0.2182  -0.9029
6.371e+09  -0.3327  -1.222  -0.01165  0.02128  0.0314  0.0504  -0.06807  -0.9518
6.372e+09  -0.708  -0.9565  0.001542  -0.03955  0.0384  -0.04328  -0.3948  -0.9084
6.374e+09  -1.087  -0.7034  0.00435  -0.005713  -0.02798  0.005624  -0.662  -0.6918
6.375e+09  -1.259  -0.3073  -0.03266  0.01128  0.05518  -0.03588  -0.8841  -0.4065
6.376e+09  -1.262  0.1429  0.012  0.005219  0.008855  0.03989  -0.9485  -0.07899
6.378e+09  -1.127  0.5609  -0.02707  -0.007755  -0.01714  -0.05074  -0.9073  0.2394
6.379e+09  -0.8653  0.937  -0.007754  -0.009331  0.03828  0.02335  -0.8188  0.504
6.38e+09  -0.5047  1.15  0.02167  0.06284  0.01291  -0.06067  -0.5286  0.7674
6.381e+09  -0.08252  1.295  -0.009126  0.011  0.01252  -0.01303  -0.2403  0.9471
6.382e+09  0.4264  1.279  -0.02323  0.02879  -0.01061  -0.02118  0.04746  0.9411
6.384e+09  0.8726  1.085  0.01882  -0.007707  -0.03433  -0.02754  0.4053  0.8689
6.385e+09  1.15  0.7228  0.006665  0.002167  0.02097  0.008952  0.6619  0.6676
6.386e+09  1.352  0.3015  0.02671  0.00218  -0.005833  -0.00649  0.863  0.4228
6.388e+09  1.367  -0.1918  0.03189  0.004695  0.002648  -0.03457  0.9416  0.09464
6.389e+09  1.232  -0.6728  -0.01111  -0.006111  0.005054  0.0411  0.8949  -0.1889
6.39e+09  0.8808  -1.094  -0.01275  -0.06385  0.03657  -0.0346  0.8286  -0.4788
6.391e+09  0.5184  -1.316  -0.01032  -0.02508  0.007437  0.03154  0.5324  -0.7222
6.392e+09  0.005148  -1.446  -0.01183  -0.009199  -0.02849  -0.01518  0.2443  -0.8852
6.394e+09  -0.4625  -1.357  -0.001507  0.001313  0.01883  0.00839  -0.03013  -0.896
6.395e+09  -0.9972  -1.089  0.02686  -0.01437  -0.02011  -0.009069  -0.3649  -0.8554
6.396e+09  -1.283  -0.6943  -0.0329  -0.006842  0.02206  -0.03721  -0.601  -0.7453
6.398e+09  -1.529  -0.2742  -0.02067  -0.03791  -0.00774  -0.005403  -0.8117  -0.4374
6.399e+09  -1.475  0.3141  -0.03885  -0.01573  0.04207  -0.004597  -0.8985  -0.1132
6.4e+09  -1.209  0.8254  0.02373  0.02494  -0.02603  -0.00151  -0.8686  0.1596
6.401e+09  -0.9045  1.21  -0.01633  -0.01394  -0.007825  -0.01596  -0.7995  0.4608
6.402e+09  -0.5014  1.421  -0.01964  0.008619  0.003044  0.0144  -0.5766  0.6808
6.404e+09  0.08337  1.53  -0.006752  0.01  0.01516  0.02044  -0.3261  0.8821
6.405e+09  0.6181  1.4  0.02381  0.02393  0.009162  -0.005508  -0.008672  0.8887
6.406e+09  1.108  1.191  -0.02117  0.0124  -0.02845  -0.002177  0.3003  0.8633
6.408e+09  1.472  0.6812  0.02659  0.01433  -0.03018  0.01784  0.6125  0.6898
6.409e+09  1.681  0.1846  -0.04293  -0.0194  -0.001075  0.005088  0.7856  0.4809
6.41e+09  1.564  -0.3977  -0.008223  -0.004617  0.01172  -0.06998  0.9408  0.1709
6.411e+09  1.337  -1.002  -0.00502  0.05355  0.02974  -0.02137  0.8847  -0.1058
6.412e+09  0.948  -1.402  -0.002435  -0.02686  -0.01425  -0.02107  0.791  -0.4353
6.414e+09  0.4049  -1.682  -0.01451  -0.004853  -0.00045  0.02163  0.5838  -0.6662
6.415e+09  -0.2084  -1.715  -0.003576  0.005755  -0.0201  -0.02219  0.3583  -0.8
6.416e+09  -0.7835  -1.502  -0.002926  0.02971  0.017  -0.05271  0.01953  -0.9056
6.418e+09  -1.291  -1.206  0.007452  0.01068  -0.02379  -0.05909  -0.2934  -0.8556
6.419e+09  -1.632  -0.6566  0.002665  0.02895  0.05027  0.00722  -0.5673  -0.6935
6.42e+09  -1.817  -0.06366  -0.01938  0.02312  0.001283  -0.05718  -0.7359  -0.4032
6.421e+09  -1.737  0.6131  0.003998  0.02733  0.04133  0.005154  -0.8949  -0.1572
6.422e+09  -1.462  1.19  0.02389  -0.0175  0.01229  0.03774  -0.8993  0.07343
6.424e+09  -0.969  1.636  0.03534  0.03253  -0.01179  0.005464  -0.8316  0.4379
6.425e+09  -0.3197  1.901  0.01269  -0.003939  0.0325  0.04198  -0.6026  0.626
6.426e+09  0.4115  1.937  -0.05837  0.02829  0.01619  -0.07821  -0.335  0.8615
6.428e+09  1.041  1.717  -0.09778  0.01357  -0.04912  -0.007385  -0.01634  0.856
6.429e+09  1.561  1.185  -0.03822  -0.06436  0.07242  -0.006648  0.2902  0.8904
6.43e+09  1.936  0.5953  0.01541  0.03221  0.02808  0.03769  0.5429  0.6916
6.431e+09  2.119  -0.1686  -0.001584  -0.03057  -0.02205  -0.03201  0.7009  0.5064
6.432e+09  1.874  -0.8425  -0.01111  0.03145  -0.021  0.01428  0.8452  0.258
6.434e+09  1.503  -1.514  -0.008555  -0.01689  -0.004293  -0.009699  0.8628  -0.07369
6.435e+09  0.9151  -1.938  0.01006  0.02789  -0.03877  0.08  0.7865  -0.3937
6.436e+09  0.1059  -2.272  0.006502  0.009966  0.04049  -0.03579  0.597  -0.5785
6.438e+09  -0.6592  -2.181  -0.007959  -0.01167  0.08091  -0.004813  0.3305  -0.7824
6.439e+09  -1.433  -1.831  0.003327  0.01873  -0.01401  0.06513  0.06915  -0.8247
6.44e+09  -1.974  -1.174  0.02286  -0.0128  0.01615  0.04697  -0.2423  -0.7873
6.441e+09  -2.316  -0.4642  -0.008427  0.008053  0.05297  -0.0105  -0.4724  -0.721
6.442e+09  -2.34  0.4021  0.02198  -0.002078  0.02769  0.0109  -0.7423  -0.4737
6.444e+09  -2.104  1.239  0.007081  -0.02126  -0.001358  0.02225  -0.8566  -0.2467
6.445e+09  -1.606  1.968  0.005765  0.03144  -0.02735  0.08328  -0.8365  0.05842
6.446e+09  -0.7657  2.423  -0.01773  -0.01581  0.01445  0.02059  -0.698  0.358
6.448e+09  0.1294  2.67  0.004847  -0.02482  -0.03316  0.001105  -0.5862  0.5899
6.449e+09  1.047  2.412  0.05822  -0.007785  -0.036  0.002286  -0.3707  0.7337
6.45e+09  1.89  2.029  0.01737  -0.009161  0.002352  -0.0015  -0.06269  0.8198
6.451e+09  2.583  1.196  0.01709  -0.007406  0.02616  0.02345  0.2175  0.8419
6.452e+09  2.899  0.148  -0.003791  -0.01976  0.02743  -0.05845  0.4624  0.6768
6.454e+09  2.829  -0.828  0.002277  -0.01915  -0.003453  -0.003184  0.6484  0.3983
6.455e+09  2.386  -1.813  -0.03687  -0.02807  -0.0008476  0.007112  0.8073  0.214
6.456e+09  1.501  -2.642  -0.01699  -0.04184  0.06521  -0.03711  0.8074  -0.06263
6.458e+09  0.5709  -3.016  0.02363  -0.004616  -0.04682  -0.008958  0.7066  -0.3813
6.459e+09  -0.6156  -3.08  -0.004766  -0.01879  0.04263  -0.002042  0.603  -0.5675
6.46e+09  -1.683  -2.76  -0.009883  0.009408  0.0469  -0.01446  0.3981  -0.703
6.461e+09  -2.645  -2.065  0.02083  -0.03078  -0.1197  -0.03475  0.05194  -0.8106
6.462e+09  -3.292  -0.96  -0.07207  -0.0262  0.0247  0.01544  -0.2217  -0.8139
6.464e+09  -3.525  0.2207  0.002398  0.02554  0.003752  0.01498  -0.4458  -0.6719
6.465e+09  -3.327  1.619  0.02139  0.001572  0.03056  -0.08895  -0.6257  -0.4434
6.466e+09  -2.522  2.856  0.02537  -0.01673  -0.04353  -0.07229  -0.8289  -0.2271
6.468e+09  -1.459  3.601  -0.008552  -0.002515  -0.06961  0.06278  -0.815  0.08739
6.469e+09  0.04436  4.014  0.02632  0.00749  0.00543  -0.002787  -0.7291  0.3099
6.47e+09  1.449  3.894  0.006062  -0.009884  0.07703  -0.06747  -0.5561  0.6098
6.471e+09  2.863  3.202  -0.01615  0.001273  0.008221  0.1419  -0.3673  0.7254
6.472e+09  4.006  1.896  0.006801  0.01941  -0.1805  -0.05307  -0.06604  0.8209
6.474e+09  4.673  0.3844  -0.001748  0.01007  0.1029  -0.05846  0.2204  0.7909
6.475e+09  4.599  -1.258  -0.01139  -0.03164  -0.1134  0.08636  0.4904  0.6386
6.476e+09  4.021  -3.129  0.04842  -0.04176  0.007773  -0.0809  0.6551  0.471
6.478e+09  2.718  -4.604  0.04571  0.005265  0.1856  -0.09541  0.7594  0.1932
6.479e+09  0.9207  -5.506  -0.01687  -0.008616  0.07557  -0.05597  0.7938  -0.0957
6.48e+09  -1.407  -5.585  -0.02807  0.01195  0.1021  0.05027  0.6815  -0.3294
6.481e+09  -3.38  -4.884  0.01525  0.01843  -0.07307  -0.03064  0.5826  -0.5858
6.482e+09  -5.242  -3.38  -0.01676  -0.05153  -0.02374  0.01466  0.3338  -0.7202
6.484e+09  -6.443  -1.197  0.01688  0.003644  -0.06334  -0.04896  0.04198  -0.8158
6.485e+09  -6.749  1.568  0.00486  0.02605  -0.1117  -0.05014  -0.2237  -0.7463
6.486e+09  -6.03  4.346  0.02855  0.004286  -0.01954  -0.01046  -0.4603  -0.6108
6.488e+09  -4.096  7.402  -0.0317  0.01187  0.6958  -0.2247  -0.6094  -0.4059
6.489e+09  -0.9542  8.074  0.002819  -0.04058  -0.06356  0.02497  -0.7446  -0.1689
6.49e+09  2.258  8.361  -0.01312  0.01618  -0.1437  -0.07639  -0.7475  0.07346
6.491e+09  6.105  6.906  -0.01003  0.00374  0.04963  0.0955  -0.6639  0.3458
6.492e+09  8.813  3.964  0.01382  0.01108  -0.0627  0.0006566  -0.5583  0.5433
6.494e+09  10.31  -0.2187  0.006979  0.03654  -0.04456  -0.0831  -0.3209  0.7261
6.495e+09  9.413  -4.844  -0.004944  0.0167  -0.02979  0.01814  0.01689  0.7467
6.496e+09  6.368  -9.07  0.02412  -0.02774  -0.0759  0.004087  0.2518  0.6838
6.498e+09  1.935  -11.14  0.02719  0.02842  0.1109  0.04613  0.4663  0.6145
6.499e+09  -3.433  -11.05  -0.01191  -0.01681  0.08612  0.1038  0.663  0.4127
6.5e+09  2.681  -5.438  0.02214  -0.03908  -0.04993  0.03464  0.7305  0.1985
6.501e+09  -10.96  -3.687  -0.01891  -0.01058  -0.05314  -0.1871  0.7369  -0.0796
6.502e+09  -11.37  1.819  0.01927  -0.03766  0.2039  -0.1148  0.6524  -0.3238
6.504e+09  -9.124  6.41  -0.0101  0.0007436  -0.08343  0.04149  0.4831  -0.5831
6.505e+09  -4.985  9.355  -0.02321  0.00418  0.08375  -0.014  0.2822  -0.662
6.506e+09  -0.4708  10.16  0.004927  -0.007068  0.005803  0.1201  0.03466  -0.7765
6.508e+09  3.667  8.941  0.003181  0.01336  0.07616  0.01311  -0.2613  -0.706
6.509e+09  6.645  6.194  0.001259  0.02329  0.05213  0.01645  -0.5135  -0.5862
6.51e+09  8.368  2.715  0.005438  0.01811  -0.001994  0.0008234  -0.6515  -0.3857
6.511e+09  8.244  -0.8758  -0.01139  0.01552  -0.08607  0.05496  -0.7658  -0.1104
6.512e+09  6.772  -3.656  -0.002082  -0.004757  0.04862  -0.0264  -0.7636  0.1072
6.514e+09  4.575  -5.824  0.004784  0.02043  -0.114  0.01123  -0.6218  0.3516
6.515e+09  1.799  -6.704  -0.02801  -0.04916  0.03945  -0.0555  -0.49  0.5673
6.516e+09  -0.7657  -6.463  0.01759  0.01842  0.03753  0.05983  -0.2341  0.716
6.518e+09  -3  -5.344  -0.0215  0.002663  -0.04794  0.01996  0.006565  0.7462
6.519e+09  -4.506  -3.712  -0.002417  -0.01127  -0.02262  0.05785  0.2541  0.7336
6.52e+09  -5.404  -1.678  0.01445  0.01396  0.04599  0.0518  0.4686  0.5531
6.521e+09  -5.344  0.5651  -0.01933  -0.03558  0.05428  0.04999  0.6745  0.3478
6.522e+09  -4.498  2.364  -0.005693  0.0006258  0.0898  -0.06271  0.7331  0.1056
6.524e+09  -3.209  3.73  -0.009789  -0.008857  -0.01514  0.02746  0.7607  -0.1764
6.525e+09  -1.591  4.424  0.003539  0.01167  -0.006495  0.0002372  0.5808  -0.4023
6.526e+09  0.1674  4.587  -0.02872  -0.001399  0.02855  -0.03766  0.4216  -0.5588
6.528e+09  1.681  4.016  0.01426  0.003792  -0.02262  0.005242  0.1966  -0.7211
6.529e+09  2.935  2.937  -0.02448  0.03728  0.0359  0.01661  -0.05945  -0.6881
6.53e+09  3.664  1.634  0.008925  -0.0002251  0.01738  0.01838  -0.2854  -0.6088
6.531e+09  3.916  0.221  -0.01778  -0.004956  -0.00647  0.03776  -0.4481  -0.501
6.532e+09  3.667  -1.131  -0.04874  -0.001413  0.02974  -0.06473  -0.5334  -0.31
6.534e+09  2.856  -2.317  0.005275  -0.02474  0.04995  -0.09062  -0.6399  -0.07975
6.535e+09  1.799  -3.093  -0.003574  -0.06629  0.06162  -0.002827  -0.657  0.0978
6.536e+09  0.4919  -3.387  0.008488  -0.01651  -0.04912  -0.01515  -0.5888  0.2895
6.538e+09  -0.6435  -3.249  -0.04292  -0.06048  0.01268  -0.0184  -0.477  0.4839
6.539e+09  -1.85  -2.74  -0.03567  0.01945  0.03742  -0.001414  -0.2601  0.5953
6.54e+09  -2.599  -1.92  0.01139  0.01674  0.0007835  0.01013  -0.02143  0.6818
6.541e+09  -2.999  -0.8244  -0.002598  0.02042  0.005574  0.04739  0.1878  0.6374
6.542e+09  -2.998  0.3052  0.003175  0.006782  -0.00965  0.009255  0.4268  0.5898
6.544e+09  -2.627  1.34  -0.02471  0.009702  0.03727  -0.02524  0.5709  0.4049
6.545e+09  -1.934  2.1  0.0375  -0.002099  -0.04354  0.0387  0.713  0.2175
6.546e+09  -1.033  2.595  -0.01843  -0.02574  -0.02105  -0.03672  0.714  -0.08588
6.548e+09  -0.08438  2.753  0.004891  0.009071  0.06037  -0.0397  0.6324  -0.3338
6.549e+09  0.9513  2.487  -0.01448  -0.007703  0.009542  -0.009393  0.5317  -0.545
6.55e+09  1.672  1.892  -0.01537  0.01909  0.01534  0.03355  0.2644  -0.6551
6.551e+09  2.255  1.225  0.002116  -0.003468  -0.04135  0.0428  0.03336  -0.7338
6.552e+09  2.51  0.339  -0.006558  0.0002641  0.007841  0.0006292  -0.2367  -0.7209
6.554e+09  2.459  -0.538  0.02588  -0.01019  -0.03311  -0.006148  -0.4427  -0.6245
6.555e+09  2.035  -1.315  0.00672  -0.008677  -0.007185  0.001448  -0.6326  -0.3892
