# Hz S RI R 50
6.25e+09  0.4463  0.863  0.005974  0.00359  0.01302  -0.05688  0.1662  0.502
6.251e+09  0.7386  0.6233  0.02864  -0.01574  0.02666  -0.0006292  0.3665  0.4318
6.252e+09  0.8917  0.3944  -0.007784  -0.01861  0.04436  -0.008053  0.568  0.245
6.254e+09  0.9668  -0.0002178  -0.03423  0.02313  -0.02416  0.05484  0.6255  0.03142
6.255e+09  0.8707  -0.3613  -0.006671  0.003368  0.03537  -0.002105  0.5908  -0.2566
6.256e+09  0.6907  -0.5938  0.02868  0.004841  -0.01111  0.002384  0.4837  -0.4365
6.258e+09  0.5148  -0.8452  0.0143  -0.007808  -0.01841  0.005285  0.295  -0.5942
6.259e+09  0.1407  -0.9435  0.00417  0.01366  -0.07198  0.03175  0.06457  -0.6885
6.26e+09  -0.1665  -0.9505  0.00391  -0.01282  0.05247  -0.00472  -0.2221  -0.6679
6.261e+09  -0.5192  -0.8508  0.002731  -0.01163  -0.0283  0.03549  -0.4606  -0.5548
6.262e+09  -0.7402  -0.585  -0.03619  -0.02741  0.02685  0.002226  -0.5911  -0.3947
6.264e+09  -0.9147  -0.291  -0.003199  -0.005066  0.003788  0.03722  -0.6733  -0.1173
6.265e+09  -1.005  0.01889  0.003688  0.01886  -0.02854  -0.06188  -0.7211  0.1097
6.266e+09  -0.8735  0.3423  0.01526  -0.01799  -0.001455  0.02023  -0.587  0.4151
6.268e+09  -0.6837  0.6486  -0.04471  0.03834  -0.02423  0.04025  -0.3993  0.6223
6.269e+09  -0.4014  0.8743  -0.008613  0.01047  -0.0268  0.03966  -0.1719  0.7023
6.27e+09  -0.07578  0.8889  -0.03443  0.01282  -0.01987  -0.01753  0.0734  0.754
6.271e+09  0.1997  0.8951  -0.01765  -0.01295  -0.01266  0.002762  0.3427  0.7199
6.272e+09  0.583  0.7191  0.01087  0.004546  0.01701  0.05239  0.5285  0.5183
6.274e+09  0.7407  0.5636  0.006421  -0.01652  -0.07772  -0.003811  0.7239  0.3329
6.275e+09  0.9303  0.1996  0.006656  0.01245  0.02858  0.01198  0.7698  -0.003547
6.276e+09  0.9668  -0.08553  -0.004336  0.0006036  0.004124  0.03513  0.7173  -0.2315
6.278e+09  0.8349  -0.4536  0.01387  0.0182  -0.04299  -0.0577  0.6095  -0.4278
6.279e+09  0.6482  -0.6909  0.01299  -0.0269  0.02542  -0.004846  0.4332  -0.6493
6.28e+09  0.3602  -0.8474  -0.03483  0.01563  -0.02515  -0.04427  0.1678  -0.75
6.281e+09  0.0212  -0.9847  0.01973  0.02414  0.01524  0.006504  -0.1198  -0.7754
6.282e+09  -0.2418  -0.9192  0.0191  -0.001508  -0.01464  0.01311  -0.3726  -0.7083
6.284e+09  -0.5797  -0.7442  -0.02403  -0.02933  0.002181  0.006349  -0.6176  -0.5304
6.285e+09  -0.7879  -0.5183  0.03664  0.008205  -0.04347  0.0103  -0.7618  -0.3116
6.286e+09  -0.9385  -0.1689  0.001972  0.007474  -0.06383  0.02887  -0.8323  -0.02165
6.288e+09  -0.9528  0.1314  -0.006035  0.008425  0.0006631  0.01053  -0.7474  0.2692
6.289e+09  -0.8131  0.4712  0.001548  -0.02405  0.04984  -0.01335  -0.6128  0.5281
6.29e+09  -0.5709  0.6759  0.03405  -0.02831  0.03467  -0.006592  -0.4342  0.6879
6.291e+09  -0.3466  0.9517  0.05019  -0.01789  -0.009949  0.02392  -0.1343  0.7752
6.292e+09  0.06235  0.9511  0.0006964  -0.0127  0.0258  -0.02005  0.1468  0.8201
6.294e+09  0.3548  0.9004  0.01117  -0.008874  0.0262  -0.002856  0.3833  0.7133
6.295e+09  0.6624  0.696  -0.0144  0.01222  -0.002958  0.006532  0.6272  0.5265
6.296e+09  0.8993  0.4025  0.01674  0.006205  -0.01635  0.02682  0.7688  0.2739
6.298e+09  0.9326  0.1436  -0.02836  -0.01592  0.02547  -0.008191  0.7923  0.004665
6.299e+09  0.9268  -0.2465  -0.01118  0.03198  -0.007879  -0.0377  0.747  -0.2771
6.3e+09  0.7903  -0.5377  0.006689  0.02183  0.03764  -0.005703  0.6556  -0.5116
6.301e+09  0.5938  -0.7455  -0.003468  0.03142  0.01538  0.0344  0.4297  -0.7478
6.302e+09  0.255  -0.9696  0.001403  0.0157  -0.002043  -0.02658  0.1454  -0.8529
6.304e+09  -0.1316  -0.9884  -0.02034  -0.01377  0.02261  0.04132  -0.1664  -0.8351
6.305e+09  -0.4347  -0.8877  -0.005719  -0.01044  0.006831  -0.01129  -0.4244  -0.761
6.306e+09  -0.678  -0.7004  0.0212  0.01625  -0.02838  0.04233  -0.6534  -0.5879
6.308e+09  -0.9183  -0.4125  -0.0003453  -0.005331  -0.06747  -0.004153  -0.8279  -0.2782
6.309e+09  -0.961  -0.1011  0.006085  0.007055  -0.04968  0.04158  -0.8661  0.0142
6.31e+09  -0.9132  0.297  -0.03441  -0.04447  -0.006635  0.04577  -0.8277  0.3085
6.311e+09  -0.8134  0.6351  -0.03401  0.001719  0.01712  -0.03911  -0.6614  0.5607
6.312e+09  -0.4949  0.8793  0.006131  -0.02193  -0.009755  -0.007993  -0.4395  0.7316
6.314e+09  -0.241  1.016  -0.008412  0.01569  -0.03166  -0.0302  -0.1566  0.8352
6.315e+09  0.158  0.967  -0.005777  -0.003236  0.02776  0.004027  0.1113  0.884
6.316e+09  0.4712  0.8966  -0.04325  -0.01609  -0.02233  -0.001153  0.4268  0.761
6.318e+09  0.7454  0.7202  -0.01754  0.0351  -0.02083  -0.02009  0.6662  0.583
6.319e+09  0.9843  0.3583  -0.001414  -0.001738  -0.01731  -0.01586  0.827  0.2703
6.32e+09  0.9796  0.05074  0.02269  -0.003439  0.04919  -0.04142  0.9283  0.01978
6.321e+09  0.9742  -0.3383  0.004031  0.01122  0.00527  -0.07795  0.8369  -0.2829
6.322e+09  0.7523  -0.6553  -0.002187  0.002288  -0.01325  0.01552  0.7048  -0.5746
6.324e+09  0.4907  -0.8897  0.02541  -0.0429  -0.03099  -0.03795  0.4265  -0.7697
6.325e+09  0.1715  -1.016  -0.007324  0.01051  0.0234  -0.06185  0.1851  -0.8808
6.326e+09  -0.1705  -1.032  0.001875  -0.004304  0.03223  0.01737  -0.1161  -0.8909
6.328e+09  -0.5441  -0.8546  0.01326  0.007003  0.003393  -0.03871  -0.414  -0.8021
6.329e+09  -0.8558  -0.6373  0.02855  -0.01503  0.0382  -0.03653  -0.6832  -0.6161
6.33e+09  -1.001  -0.2881  0.003749  0.03358  -0.01806  -0.00276  -0.8458  -0.3453
6.331e+09  -1.035  0.02585  -0.01027  -0.008671  0.01285  -0.03003  -0.8749  -0.03835
6.332e+09  -0.9438  0.4014  0.01285  0.01253  -0.00789  -0.02589  -0.8611  0.2716
6.334e+09  -0.7474  0.7351  0.0082  -0.01317  -0.04073  0.005357  -0.7004  0.5423
6.335e+09  -0.4588  0.9535  -0.01047  -0.001515  -0.01464  -0.006823  -0.4655  0.8151
6.336e+09  -0.1022  1.063  0.008612  0.00511  -0.01091  0.01751  -0.2232  0.8737
6.338e+09  0.2494  1.11  -0.01318  -0.01434  0.009808  -0.006259  0.1251  0.9302
6.339e+09  0.6117  0.8499  0.03047  -0.008641  0.004211  0.01243  0.4259  0.8234
6.34e+09  0.9089  0.6227  -0.02978  -0.01769  0.03917  0.01892  0.6755  0.6175
6.341e+09  1.092  0.2447  0.01181  -0.003479  0.02006  -0.007282  0.8344  0.3606
6.342e+09  1.064  -0.08332  -0.004414  0.00476  -0.01128  0.03361  0.9409  0.04116
6.344e+09  0.9995  -0.4888  0.02081  0.01117  0.0614  0.04205  0.9422  -0.2757
6.345e+09  0.7018  -0.7954  -0.02428  -0.02541  -0.02731  -0.001475  0.7551  -0.5655
6.346e+09  0.4141  -1.056  0.02553  0.01035  0.01398  -0.008582  0.5632  -0.781
6.348e+09  0.05366  -1.157  0.02982  -0.02792  0.01867  -0.003163  0.2064  -0.8714
6.349e+09  -0.4124  -1.088  -0.01282  -0.01455  -0.006899  -0.01413  -0.1212  -0.9251
6.35e+09  -0.7053  -0.9108  0.02065  0.008496  -0.009047  0.01167  -0.4322  -0.8463
6.351e+09  -0.9589  -0.6014  -0.005395  0.005824  0.03024  0.05851  -0.6751  -0.6571
6.352e+09  -1.074  -0.1571  0.00261  -0.01937  0.01291  0.02315  -0.8591  -0.4013
6.354e+09  -1.166  0.1458  0.02507  0.005855  -0.006209  -0.008829  -0.9337  -0.04813
6.355e+09  -0.939  0.572  0.003195  -0.01531  0.002958  -0.01423  -0.9262  0.2756
6.356e+09  -0.7277  0.9117  0.009104  0.03558  0.03138  0.006542  -0.7857  0.6082
6.358e+09  -0.3974  1.106  -0.01348  0.02473  -0.02366  -0.03037  -0.5361  0.7753
6.359e+09  0.03415  1.168  0.03536  0.01305  -0.01813  0.004021  -0.2116  0.916
6.36e+09  0.4779  1.136  -0.0162  0.0108  0.007013  0.008169  0.09415  0.9205
6.361e+09  0.8019  0.8851  0.01322  0.003749  -0.009825  -0.05129  0.4041  0.856
6.362e+09  1.057  0.5657  -0.005101  -0.02222  0.005109  -0.01103  0.6737  0.6451
6.364e+09  1.213  0.1453  -0.01633  0.02255  -0.0837  -0.00229  0.8632  0.4029
6.365e+09  1.179  -0.3025  0.001928  0.01269  0.03751  0.0303  0.9257  0.04866
6.366e+09  1.013  -0.7491  -0.0106  -0.008375  0.06307  -0.03956  0.901  -0.2298
6.368e+09  0.7148  -1.008  -0.006811  -0.001194  0.01876  0.04664  0.8121  -0.5367
6.369e+09  0.3328  -1.155  -0.01081  -0.00116  0.01263  0.05024  0.5529  -0.787
6.37e+09  -0.07062  -1.254  -0.006879  -0.01657  -0.01806  -0.007451  0.2408  -0.9165
6.371e+09  -0.5185  -1.102  0.002573  0.01579  0.0112  0.01464  -0.08551  -0.8992
6.372e+09  -0.8665  -0.9397  0.006195  0.01934  0.008926  0.01753  -0.3831  -0.8701
6.374e+09  -1.134  -0.5601  -0.03261  -0.006033  0.01738  0.01482  -0.645  -0.7106
6.375e+09  -1.229  -0.1035  -0.001231  0.0006737  0.03625  0.03037  -0.8842  -0.4375
6.376e+09  -1.213  0.3176  -0.01305  -0.02952  0.01675  -0.01942  -0.9393  -0.09724
6.378e+09  -1.04  0.7095  -0.002906  -0.001026  0.01509  -0.03583  -0.8897  0.2391
6.379e+09  -0.7048  1.057  0.001752  0.01471  -0.01287  0.01717  -0.7841  0.51
6.38e+09  -0.3464  1.287  -0.004767  0.001743  0.00691  -0.02409  -0.5662  0.7544
6.381e+09  0.1641  1.294  0.0112  0.01616  0.01758  -0.02107  -0.219  0.9074
6.382e+09  0.5693  1.16  -0.01869  -0.00524  -0.02013  0.002406  0.05531  0.9609
6.384e+09  0.9842  0.9181  0.04044  -0.01798  0.02718  0.03258  0.389  0.8749
6.385e+09  1.268  0.5316  0.02461  0.008537  0.01138  0.01019  0.67  0.6405
6.386e+09  1.296  0.06459  -0.02513  -0.01354  0.02917  0.001964  0.8186  0.4269
6.388e+09  1.317  -0.4199  -0.01157  0.02545  -0.01516  0.04974  0.945  0.07495
6.389e+09  1.103  -0.8153  -0.003655  -0.02051  0.005611  0.04123  0.9178  -0.1951
6.39e+09  0.727  -1.191  0.01205  0.005947  -0.008426  0.006334  0.7855  -0.4782
6.391e+09  0.371  -1.357  -0.01313  0.01191  0.009652  -0.02276  0.5714  -0.7368
6.392e+09  -0.2657  -1.371  0.03547  -0.02517  0.02929  0.003553  0.2846  -0.8926
6.394e+09  -0.7086  -1.266  0.01526  0.03428  0.06394  -0.01458  -0.02383  -0.9235
6.395e+09  -1.091  -0.9917  -0.04296  -0.009549  0.01784  -0.01286  -0.3497  -0.8599
6.396e+09  -1.379  -0.4767  3.992e-06  -0.0269  -0.03219  0.003794  -0.5727  -0.6543
6.398e+09  -1.482  -0.01567  -0.04461  -0.01359  -0.03372  -0.0218  -0.809  -0.4244
6.399e+09  -1.479  0.536  0.008472  -0.02513  -0.01858  -0.07511  -0.9249  -0.1398
6.4e+09  -1.191  1.008  -0.009784  -0.02474  0.009034  -0.02296  -0.9212  0.1751
6.401e+09  -0.7154  1.346  -0.0008266  -0.01139  -0.03284  0.0019  -0.837  0.457
6.402e+09  -0.2104  1.575  0.008111  0.001135  0.003291  0.005834  -0.5959  0.7049
6.404e+09  0.3028  1.516  0.001776  0.001456  0.0002802  0.0158  -0.3066  0.8515
6.405e+09  0.8538  1.322  0.02581  0.02277  -0.01119  0.004349  0.0286  0.92
6.406e+09  1.263  0.9686  0.01927  0.001118  -0.01604  0.007137  0.2946  0.8747
6.408e+09  1.548  0.5022  -0.002103  0.02161  0.02523  0.007307  0.5712  0.6281
6.409e+09  1.646  -0.06773  0.001779  -0.01719  -0.02719  0.04848  0.752  0.4396
6.41e+09  1.489  -0.6109  0.03994  -0.0595  -0.02169  0.05543  0.9028  0.1458
6.411e+09  1.24  -1.14  0.00665  -0.03334  0.08095  -0.01774  0.9094  -0.1468
6.412e+09  0.7212  -1.524  0.0382  -0.01966  0.02772  0.009794  0.8279  -0.4214
6.414e+09  0.1756  -1.697  -0.001996  0.0176  -0.03359  0.01038  0.5746  -0.6654
6.415e+09  -0.4371  -1.679  0.001341  -0.003638  -0.01186  0.03054  0.3521  -0.7999
6.416e+09  -1.066  -1.433  -0.01126  -0.0319  0.03791  -0.07157  0.0527  -0.8997
6.418e+09  -1.48  -1.061  0.04144  0.03222  0.02862  -0.01398  -0.2704  -0.8132
6.419e+09  -1.842  -0.5067  -0.002228  0.02428  -0.01784  -0.02728  -0.5262  -0.7339
6.42e+09  -1.857  0.2518  -0.008259  0.000593  -0.009292  0.04441  -0.7693  -0.4903
6.421e+09  -1.722  0.9402  -0.01063  0.0136  -0.01225  0.0238  -0.8883  -0.2431
6.422e+09  -1.257  1.46  0.0005499  -0.0137  0.04995  0.06045  -0.886  0.1103
6.424e+09  -0.6733  1.892  -0.004683  -0.01147  0.001323  0.02836  -0.7897  0.3863
6.425e+09  -0.01516  2.021  -0.01567  0.004454  0.03346  0.01576  -0.5869  0.6579
6.426e+09  0.7364  1.936  0.05204  -0.009269  0.006051  -0.008864  -0.3186  0.8018
6.428e+09  1.407  1.54  0.04902  0.02589  0.03038  0.008418  -0.07203  0.8814
6.429e+09  1.891  1.002  0.001441  -0.03802  -0.03318  0.0736  0.2319  0.8687
6.43e+09  2.116  0.1833  -0.01442  -0.03367  0.008815  -0.02618  0.5334  0.7549
6.431e+09  2.151  -0.5329  0.005817  -0.05417  -0.0007614  0.003814  0.7124  0.5175
6.432e+09  1.909  -1.262  0.05495  -0.03323  -0.02158  0.008349  0.8495  0.1866
6.434e+09  1.318  -1.92  0.01183  -0.007277  0.004547  0.05704  0.8765  -0.08152
6.435e+09  0.598  -2.279  -0.001658  -0.0391  -0.03969  -0.0008258  0.8249  -0.3687
6.436e+09  -0.26  -2.337  -0.02002  -0.04636  -0.02932  0.01239  0.6213  -0.6191
6.438e+09  -1.148  -2.073  -0.006732  0.02178  0.02607  0.009495  0.366  -0.8051
6.439e+09  -1.831  -1.645  -0.02686  -0.05464  0.07881  -0.04855  0.06849  -0.8582
6.44e+09  -2.345  -0.8847  -0.03476  -0.01328  0.04704  0.001007  -0.2403  -0.8351
6.441e+09  -2.577  0.03286  -0.002155  0.0005491  0.03174  -0.05404  -0.5103  -0.6985
6.442e+09  -2.441  0.9526  0.001387  -0.03086  -0.02043  -0.0001974  -0.6991  -0.458
6.444e+09  -1.907  1.917  0.01166  0.004357  -0.04251  0.08371  -0.8144  -0.1897
6.445e+09  -1.21  2.479  -0.0005617  -0.0122  0.03755  0.02433  -0.8255  0.1197
6.446e+09  -0.1952  2.838  -0.006604  -0.04671  -0.0244  -0.03523  -0.7798  0.372
6.448e+09  0.8874  2.802  0.02743  -0.05267  -0.02143  -0.01614  -0.585  0.6253
6.449e+09  1.78  2.303  0.03432  -0.03421  -0.0467  0.01997  -0.371  0.7706
6.45e+09  2.523  1.534  -0.03218  0.01081  0.03487  0.04753  -0.07163  0.822
6.451e+09  2.982  0.544  -0.002628  0.04003  -0.001734  0.05908  0.2797  0.8486
6.452e+09  3.069  -0.5685  -0.009644  -0.032  0.03659  -0.03892  0.5009  0.6808
6.454e+09  2.788  -1.686  -0.006119  -0.01878  -0.006385  -0.03393  0.6675  0.4404
6.455e+09  1.969  -2.643  0.01342  -0.01858  0.159  -0.008495  0.8217  0.1907
6.456e+09  0.8144  -3.311  -0.01789  -0.01834  -0.05292  -0.03727  0.8103  -0.0624
6.458e+09  -0.3186  -3.515  0.01193  -0.02347  0.04168  0.02854  0.7161  -0.3395
6.459e+09  -1.591  -3.198  -0.02955  -0.01045  -0.05884  0.008404  0.5556  -0.5202
6.46e+09  -2.76  -2.437  0.02503  0.007403  0.03037  -0.0006157  0.3369  -0.765
6.461e+09  -3.527  -1.295  -0.01678  -0.02484  -0.006875  -0.05616  0.06965  -0.7696
6.462e+09  -3.833  0.1896  0.01012  -0.005632  -0.09473  -0.02864  -0.2293  -0.7861
6.464e+09  -3.589  1.537  -0.04544  0.02729  -0.06524  0.004304  -0.476  -0.6127
6.465e+09  -2.901  2.865  -0.006003  -0.03369  -0.04269  -0.1105  -0.6507  -0.4675
6.466e+09  -1.72  3.942  0.01804  -0.03638  -0.004525  -0.008549  -0.7855  -0.2013
6.468e+09  -0.1415  4.327  -0.0157  -0.01192  -0.04065  0.02776  -0.7818  0.08956
6.469e+09  1.596  4.172  -0.05368  0.007624  -0.01222  -0.01031  -0.7009  0.3354
6.47e+09  3.003  3.369  0.03637  -0.003601  -0.008147  0.04645  -0.5716  0.5576
6.471e+09  4.313  2.018  -0.002057  0.0003995  0.04393  -0.01335  -0.3503  0.7426
6.472e+09  4.967  0.2842  -0.02239  -0.006204  0.04822  0.06638  -0.059  0.7786
6.474e+09  4.83  -1.64  -0.01364  -0.03208  0.0149  0.1018  0.1972  0.7906
6.475e+09  3.996  -3.505  -0.01605  -0.0053  -0.007088  -0.04162  0.4605  0.6201
6.476e+09  2.455  -4.746  -0.01818  -0.02978  0.1141  0.005668  0.6672  0.4219
6.478e+09  0.4592  -5.51  -0.02366  -0.03343  -0.04773  -0.1196  0.7815  0.2161
6.479e+09  -1.861  -5.363  -0.01404  0.01582  0.1128  0.002212  0.8236  -0.06286
6.48e+09  -3.759  -4.467  -0.01047  0.01582  0.105  0.08288  0.7306  -0.3271
6.481e+09  -5.329  -2.636  -0.002129  -0.05584  0.06285  -0.05304  0.5478  -0.562
6.482e+09  -6.077  -0.4136  -0.02802  -0.01998  -0.1677  -0.05541  0.3011  -0.6981
6.484e+09  -5.987  2.199  -0.0003583  -0.01223  0.137  -0.06405  0.05077  -0.824
6.485e+09  -4.696  4.342  0.02004  -0.007503  0.02112  -0.04683  -0.2287  -0.7192
6.486e+09  -2.74  6.098  0.01078  0.02437  -0.04748  -0.08383  -0.4715  -0.6204
6.488e+09  0.4973  6.313  0.01931  0.01008  0.6664  0.2915  -0.622  -0.4021
6.489e+09  2.532  6.636  0.02128  0.02046  -0.1437  0.1602  -0.7819  -0.1607
6.49e+09  5.021  4.995  -0.04334  0.01156  0.1341  0.1212  -0.7464  0.08154
6.491e+09  6.772  2.589  0.02209  0.01691  -0.04765  -0.07448  -0.6948  0.3723
6.492e+09  7.49  -0.4254  0.01446  -8.409e-05  -0.01495  0.03665  -0.5169  0.5797
6.494e+09  6.722  -3.517  0.007597  -0.009228  -0.03238  0.1123  -0.3237  0.7118
6.495e+09  4.791  -6.018  -0.003787  0.02327  -0.0003075  -0.07485  -0.04473  0.7684
6.496e+09  1.973  -7.492  0.01785  0.0131  -0.05163  0.01423  0.2001  0.7313
6.498e+09  -1.175  -7.761  -0.002831  -0.01168  0.07689  0.01283  0.4949  0.6003
6.499e+09  -4.356  -6.544  -0.01259  0.004258  0.03686  0.06881  0.6904  0.401
6.5e+09  -13.41  -1.791  0.004311  -0.01409  0.07739  0.004967  0.7395  0.1491
6.501e+09  -7.766  -1.208  0.02437  0.01726  0.02945  0.05367  0.7489  -0.09223
6.502e+09  -7.584  2.196  0.0001304  -0.05068  -0.09112  -0.05602  0.6535  -0.3249
6.504e+09  -6.042  4.744  0.01163  0.0326  0.003715  -0.1584  0.4768  -0.5547
6.505e+09  -3.418  6.914  -0.01975  0.008857  -0.07772  -0.04047  0.3173  -0.7191
6.506e+09  -0.2915  7.538  -0.0117  -0.01278  0.0944  -0.1202  0.004452  -0.774
6.508e+09  2.768  6.931  0.001556  0.01167  -0.0886  -0.07511  -0.2495  -0.7333
6.509e+09  5.16  5.149  -0.0453  -0.001514  -0.1233  0.04079  -0.4903  -0.5737
6.51e+09  6.592  2.768  0.01945  0.03543  0.01573  -0.04983  -0.6498  -0.3751
6.511e+09  6.919  -0.3099  -0.02526  0.01103  0.07643  -0.03746  -0.7359  -0.1165
6.512e+09  6.071  -2.899  0.005423  -0.005748  -0.00235  0.03697  -0.734  0.09394
6.514e+09  4.346  -4.801  -0.02722  -0.01221  0.06005  -0.04649  -0.6238  0.3783
6.515e+09  2.099  -6.012  0.02231  -0.003019  -0.09588  -0.02864  -0.4623  0.5708
6.516e+09  -0.5711  -6.195  0.02543  0.004612  0.08479  -0.03687  -0.2451  0.716
6.518e+09  -2.77  -5.522  -0.03002  0.003806  0.03915  0.06633  0.005737  0.7313
6.519e+09  -4.531  -3.877  0.01247  -0.02674  -0.002654  0.02048  0.2686  0.6614
6.52e+09  -5.457  -1.687  -0.04456  -0.04805  -0.04206  -0.0561  0.5068  0.5566
6.521e+09  -5.475  0.4198  -0.0167  -0.002209  -0.02463  0.08745  0.6736  0.3249
6.522e+09  -4.804  2.609  -0.01996  -0.01455  0.0009636  -0.1012  0.7648  0.1337
6.524e+09  -3.431  4.049  -0.02812  -0.009773  0.06009  0.03581  0.7185  -0.1643
6.525e+09  -1.674  4.943  0.01329  -0.02463  0.06018  -0.002573  0.6469  -0.359
6.526e+09  0.2787  4.862  0.0005285  0.03254  -0.03057  0.09805  0.4172  -0.5694
6.528e+09  2.108  4.291  0.02419  0.02272  0.007502  0.02898  0.152  -0.7082
6.529e+09  3.477  3.074  0.0167  0.02387  0.02495  -0.03992  -0.05619  -0.6955
6.53e+09  4.213  1.474  -0.002901  0.02414  -0.08503  -0.009163  -0.2745  -0.6238
6.531e+09  4.425  -0.1214  -0.01478  -0.001383  0.02195  -0.0006375  -0.4379  -0.4753
6.532e+09  3.854  -1.683  -0.003442  -0.002444  -0.01572  0.02556  -0.5943  -0.3085
6.534e+09  2.905  -2.918  0.01617  -0.04802  0.07054  -0.06464  -0.6459  -0.08411
6.535e+09  1.676  -3.733  0.01628  -0.004237  -0.008885  -0.04603  -0.6326  0.128
6.536e+09  0.09671  -3.861  0.01654  0.01013  -0.003884  -0.002264  -0.5799  0.2998
6.538e+09  -1.33  -3.564  -0.01506  -0.009974  -0.009368  -0.008438  -0.4579  0.472
6.539e+09  -2.461  -2.792  -0.005656  -0.01891  0.04182  -0.002389  -0.264  0.6018
6.54e+09  -3.211  -1.697  -0.01586  -0.009208  0.01085  -0.03804  -0.01554  0.6932
6.541e+09  -3.572  -0.4124  -0.02204  -0.00158  -0.0008857  5.987e-05  0.1795  0.6633
6.542e+09  -3.246  0.9128  -0.00393  -0.005754  -0.01175  0.01193  0.4124  0.555
6.544e+09  -2.647  1.919  0.008829  -0.01696  -0.004031  0.004806  0.594  0.381
6.545e+09  -1.82  2.687  0.005446  -0.01246  -0.0136  -0.05909  0.7333  0.1518
6.546e+09  -0.6455  3.123  0.004085  -0.01652  0.0247  -0.0005576  0.7305  -0.08854
6.548e+09  0.5454  2.978  0.02366  -0.009061  0.00943  -0.03634  0.7116  -0.3047
6.549e+09  1.499  2.632  0.02334  -0.02675  0.04209  -0.05425  0.4847  -0.5126
6.55e+09  2.315  1.839  0.02826  0.01854  0.01488  -0.008139  0.2695  -0.676
6.551e+09  2.721  0.8479  0.01636  0.00713  0.03998  0.06398  0.02198  -0.7268
6.552e+09  2.762  -0.1881  -0.002211  0.008491  0.01398  -0.02139  -0.2043  -0.7214
6.554e+09  2.447  -1.26  -0.009016  -0.03048  0.01962  -0.01572  -0.4802  -0.5973
