# Hz S RI R 50
6.25e+09  0.307  0.9027  -0.0346  0.02573  0.03259  0.01963  0.1272  0.456
6.251e+09  0.5841  0.7838  0.01187  0.002242  -0.0189  -0.005569  0.394  0.3689
6.252e+09  0.8791  0.5257  0.03135  -0.03723  -0.02915  -0.0006698  0.5452  0.2276
6.254e+09  0.9053  0.2019  0.02122  0.004366  0.04908  0.02519  0.6298  0.00627
6.255e+09  0.9231  -0.08879  0.01053  -0.01872  0.01775  -0.001687  0.608  -0.2214
6.256e+09  0.7564  -0.453  0.02629  -0.03269  0.05737  0.01216  0.4437  -0.4339
6.258e+09  0.6007  -0.7526  -0.004134  -0.02529  -0.006643  -0.01631  0.266  -0.6114
6.259e+09  0.2946  -0.9458  -0.00838  -0.01412  0.02604  0.000903  0.07721  -0.6817
6.26e+09  0.01319  -0.9368  -0.009756  -0.02899  0.006804  0.04821  -0.2124  -0.6629
6.261e+09  -0.3673  -0.8893  0.01883  -0.01133  -0.04863  -0.01331  -0.4233  -0.5166
6.262e+09  -0.5718  -0.7132  -0.03068  0.008068  0.02698  -0.05253  -0.633  -0.3532
6.264e+09  -0.8372  -0.468  -0.01741  0.002639  -0.04815  -0.003046  -0.6889  -0.1023
6.265e+09  -0.9573  -0.151  -0.03564  0.006061  -0.01451  0.01504  -0.6828  0.127
6.266e+09  -0.9124  0.2267  0.00763  0.01908  0.01941  0.01175  -0.5914  0.3523
6.268e+09  -0.7892  0.5019  -0.000377  -0.02689  0.02538  -0.01152  -0.4433  0.575
6.269e+09  -0.516  0.7208  -0.005962  -0.0231  0.02939  -0.05007  -0.1856  0.691
6.27e+09  -0.2996  0.857  0.01275  0.03141  -0.006345  0.001389  0.06797  0.7432
6.271e+09  0.02137  0.9419  0.01195  0.03712  -0.04718  0.01238  0.3408  0.666
6.272e+09  0.3942  0.8411  0.001322  -0.02915  0.01939  -0.02729  0.5295  0.5029
6.274e+09  0.6787  0.7024  -0.007834  -0.009776  -0.004611  0.004722  0.6776  0.3019
6.275e+09  0.8759  0.4159  -0.006152  0.02257  0.002171  0.03047  0.7818  0.00185
6.276e+09  0.9225  0.09814  -0.02163  0.01444  -0.004709  -0.01616  0.7322  -0.2125
6.278e+09  0.8975  -0.227  0.0147  0.02294  -0.007545  -0.01756  0.6287  -0.4397
6.279e+09  0.7999  -0.5277  0.007549  0.0223  0.01237  -0.01694  0.4209  -0.64
6.28e+09  0.5396  -0.762  0.01575  0.01289  0.04696  -0.01194  0.1532  -0.7468
6.281e+09  0.2842  -0.8432  0.02845  -0.004061  -0.01554  -0.01348  -0.1037  -0.7559
6.282e+09  -0.1528  -0.9071  0.01521  0.01344  0.003782  -0.03173  -0.3552  -0.6471
6.284e+09  -0.3898  -0.8885  -0.009184  -0.01003  0.02284  -0.01535  -0.6028  -0.5249
6.285e+09  -0.6547  -0.6476  0.004971  -0.00142  -0.06212  0.05343  -0.768  -0.3017
6.286e+09  -0.8435  -0.3184  -0.002796  -0.0182  -0.004996  0.01099  -0.8102  -0.005088
6.288e+09  -0.8927  -0.04506  -0.0118  -0.02333  -0.0486  -0.007048  -0.7774  0.2829
6.289e+09  -0.8931  0.2821  -0.0006986  0.03173  0.02395  0.001236  -0.6094  0.4996
6.29e+09  -0.7918  0.6307  -0.03209  -0.002655  -0.004196  -0.04609  -0.4085  0.6848
6.291e+09  -0.4777  0.7796  0.01657  0.02043  0.02052  0.006083  -0.1398  0.8275
6.292e+09  -0.1741  0.9691  -0.01554  -0.02626  -0.03445  -0.03015  0.1319  0.796
6.294e+09  0.1226  0.9464  -0.004385  -0.02525  0.06412  0.03985  0.4214  0.688
6.295e+09  0.4629  0.8085  0.02695  -0.01374  0.01958  0.02949  0.6224  0.5396
6.296e+09  0.7106  0.583  0.01687  0.01176  0.01195  -0.002582  0.7659  0.2722
6.298e+09  0.9462  0.3465  -0.02147  -0.01586  0.03225  0.06674  0.829  0.04207
6.299e+09  0.944  0.006447  0.01502  -0.009893  0.004262  -0.02745  0.7792  -0.2752
6.3e+09  0.9085  -0.3329  0.01783  0.01238  0.009135  0.00581  0.6509  -0.5376
6.301e+09  0.6726  -0.6419  0.01686  -0.01262  -0.02073  0.01636  0.3932  -0.7196
6.302e+09  0.4855  -0.87  -0.0002243  -0.003844  0.03343  0.005335  0.1753  -0.847
6.304e+09  0.1473  -0.9573  -0.004919  0.005428  -0.004094  0.05706  -0.1478  -0.8412
6.305e+09  -0.1703  -0.95  0.005525  -0.004546  -0.02663  0.03955  -0.4142  -0.7324
6.306e+09  -0.497  -0.8016  0.007739  0.01212  -0.01391  0.0278  -0.6454  -0.5293
6.308e+09  -0.7834  -0.5417  -0.005372  0.007954  -0.05534  0.04237  -0.8052  -0.3004
6.309e+09  -0.9145  -0.3172  0.0216  0.01332  0.02677  0.04141  -0.8955  -0.0198
6.31e+09  -0.9941  0.07222  -0.02811  0.002994  -0.009439  -0.01417  -0.7914  0.3223
6.311e+09  -0.885  0.3322  0.02299  -0.008912  0.03817  0.01339  -0.6867  0.5696
6.312e+09  -0.7144  0.6889  -0.04468  0.01095  0.04912  0.004795  -0.4249  0.7513
6.314e+09  -0.4281  0.915  -0.003807  0.02462  -0.03442  0.01931  -0.1611  0.853
6.315e+09  -0.03684  1.013  0.01623  0.02463  0.03057  -0.05552  0.1262  0.8687
6.316e+09  0.3178  0.9698  -0.004959  -0.01227  0.03653  0.05485  0.4533  0.7624
6.318e+09  0.5474  0.8694  0.008433  0.005742  -0.01335  0.02514  0.6702  0.5867
6.319e+09  0.8388  0.5867  0.005096  -0.006804  0.03238  0.04054  0.832  0.3322
6.32e+09  1.019  0.2842  -0.0199  0.03245  0.01174  0.02665  0.8811  0.01387
6.321e+09  1.04  -0.1286  -0.007024  0.00363  0.03574  0.01096  0.8725  -0.293
6.322e+09  0.8959  -0.4707  0.009529  -0.005022  0.01392  -0.006099  0.694  -0.5578
6.324e+09  0.6494  -0.7378  -0.01452  0.01258  -0.01762  -0.01839  0.4481  -0.777
6.325e+09  0.3677  -0.9697  0.01255  -0.01047  0.007359  -0.006148  0.1699  -0.8756
6.326e+09  0.05031  -1.013  -0.008683  0.01778  0.04132  -0.05781  -0.1559  -0.8767
6.328e+09  -0.3373  -0.9928  0.02922  -0.009546  -0.02445  -0.02301  -0.447  -0.7667
6.329e+09  -0.6366  -0.7846  -0.002193  -0.02369  0.01924  -0.01304  -0.6893  -0.5998
6.33e+09  -0.8558  -0.5769  0.01563  -0.003998  -0.02346  0.004124  -0.8263  -0.3469
6.331e+09  -1.028  -0.2127  0.02532  0.02201  -0.03233  0.0534  -0.902  -0.01753
6.332e+09  -1.046  0.1817  0.02656  0.01243  0.01565  0.02041  -0.8316  0.2931
6.334e+09  -0.9551  0.5308  -0.03076  -0.01487  -0.01453  -0.007979  -0.7245  0.6028
6.335e+09  -0.6464  0.8007  -0.01091  0.02132  0.00795  -0.04452  -0.4681  0.7554
6.336e+09  -0.3349  0.9927  0.01699  -0.001235  0.0326  0.003404  -0.1897  0.9127
6.338e+09  0.02759  1.094  -0.01533  0.02064  -0.008745  -0.03376  0.1391  0.9134
6.339e+09  0.392  1.003  0.03575  0.00744  0.01756  0.02985  0.4308  0.8062
6.34e+09  0.7269  0.8327  0.004504  0.01096  0.02862  -0.04996  0.7088  0.6292
6.341e+09  0.9273  0.5577  0.03731  0.004716  0.0312  -0.02327  0.8658  0.368
6.342e+09  1.065  0.09755  0.01191  0.04477  -0.005156  0.001775  0.9195  0.009887
6.344e+09  1.1  -0.2605  -0.003205  0.02964  0.0006597  -0.0369  0.8935  -0.2618
6.345e+09  0.9441  -0.5975  -0.005408  0.006847  -0.002764  0.05031  0.7134  -0.5692
6.346e+09  0.666  -0.886  -0.02422  0.02301  0.02047  -0.005449  0.5016  -0.789
6.348e+09  0.3095  -1.042  0.006156  -0.02082  0.0007284  0.007265  0.2166  -0.8849
6.349e+09  -0.1147  -1.162  0.01195  0.01196  -0.0005803  -0.03667  -0.09375  -0.9454
6.35e+09  -0.4858  -0.9955  -0.0006822  0.01679  0.02987  0.01459  -0.4154  -0.8067
6.351e+09  -0.8356  -0.7573  0.0234  0.01055  0.002891  0.02702  -0.689  -0.6603
6.352e+09  -1.084  -0.4543  0.01758  0.00169  0.02424  -0.02874  -0.8582  -0.3742
6.354e+09  -1.156  -0.08251  -0.01775  -0.02446  -0.01084  0.003753  -0.9801  -0.03618
6.355e+09  -1.082  0.3833  0.00985  0.008103  -0.03832  -0.02046  -0.8903  0.241
6.356e+09  -0.9167  0.6917  -0.05971  -0.0217  0.02302  0.01008  -0.7442  0.5576
6.358e+09  -0.653  1.002  -0.02516  0.02718  0.04072  0.03784  -0.5265  0.7883
6.359e+09  -0.2591  1.132  0.01464  0.02454  0.02592  -0.02386  -0.2453  0.8493
6.36e+09  0.1984  1.186  0.003004  0.02684  -0.004743  -0.01263  0.1161  0.9352
6.361e+09  0.5795  1.108  -0.03426  0.004128  0.02744  -0.05691  0.4125  0.8666
6.362e+09  0.8801  0.7927  0.02436  -0.008148  -0.02352  -0.02791  0.6354  0.6712
6.364e+09  1.103  0.4589  -0.03321  0.01061  -0.006955  -0.03162  0.8579  0.3762
6.365e+09  1.156  0.04636  0.02593  0.01182  0.005404  0.01153  0.9439  0.08194
6.366e+09  1.159  -0.3966  -0.04593  -0.04587  0.02884  -0.01575  0.9202  -0.2689
6.368e+09  0.9237  -0.7594  -0.03581  -0.03898  0.004012  0.02529  0.7371  -0.5308
6.369e+09  0.6495  -1.095  -0.01006  0.007023  -0.01356  0.02577  0.5336  -0.7764
6.37e+09  0.2087  -1.243  0.01837  0.03874  0.005003  0.04104  0.2207  -0.9146
6.371e+09  -0.2533  -1.195  -0.02621  0.0392  0.01338  -0.02797  -0.06995  -0.9516
6.372e+09  -0.6563  -1.09  0.02879  0.007687  0.01364  0.04231  -0.397  -0.8974
6.374e+09  -0.9864  -0.7907  -0.0004732  0.01349  0.02301  0.02174  -0.6357  -0.6334
6.375e+09  -1.197  -0.4273  0.004131  0.009024  -0.04249  -0.01994  -0.8474  -0.4073
6.376e+09  -1.28  0.05735  -0.03824  0.0163  0.01344  0.0186  -0.9324  -0.08917
6.378e+09  -1.202  0.4804  -0.005445  0.03097  -0.02201  -0.0202  -0.9181  0.2304
6.379e+09  -0.9963  0.8585  0.01934  0.0088  0.03625  -0.002105  -0.7531  0.5147
6.38e+09  -0.6085  1.181  -0.003475  -0.02078  0.03758  0.0004215  -0.5594  0.7814
6.381e+09  -0.1909  1.275  -0.01666  0.0272  0.008313  -0.01727  -0.2229  0.9104
6.382e+09  0.3324  1.3  0.004851  0.00912  -0.007598  0.01942  0.08988  0.9718
6.384e+09  0.8254  1.079  0.07186  -0.008789  -0.02459  0.01233  0.3958  0.862
6.385e+09  1.093  0.8125  -0.001975  0.00161  0.005682  -0.0001538  0.6468  0.6898
6.386e+09  1.343  0.3914  0.03337  0.02321  0.008352  -0.00825  0.8537  0.3887
6.388e+09  1.361  -0.1446  -0.01234  0.02461  0.01066  0.005258  0.897  0.1172
6.389e+09  1.245  -0.6083  0.01536  -0.03732  -0.05845  0.05785  0.9339  -0.2482
6.39e+09  0.9967  -1.035  0.01175  0.006983  0.006848  -0.02957  0.7944  -0.4834
6.391e+09  0.6249  -1.27  0.03673  -0.01934  0.02722  0.008046  0.5588  -0.7394
6.392e+09  0.1024  -1.411  -0.02122  0.003434  -0.03147  0.002739  0.3033  -0.8869
6.394e+09  -0.3341  -1.376  0.02046  0.0356  -0.01866  -0.02225  -0.0257  -0.9189
6.395e+09  -0.8559  -1.128  0.03129  -0.002123  0.06165  -0.01515  -0.4209  -0.893
6.396e+09  -1.237  -0.7812  -0.008858  0.00953  0.01754  -0.01171  -0.6121  -0.7217
6.398e+09  -1.454  -0.3714  -0.001253  -0.004421  0.04049  -0.02999  -0.8092  -0.4211
6.399e+09  -1.51  0.1857  0.04503  -0.007454  -0.001887  0.06004  -0.9375  -0.1442
6.4e+09  -1.337  0.7218  0.003486  -0.005981  -0.002441  0.03944  -0.9423  0.1701
6.401e+09  -1.036  1.139  -0.01008  0.006793  0.01803  0.02589  -0.8128  0.4697
6.402e+09  -0.5637  1.419  0.04592  0.03643  0.03986  0.008694  -0.591  0.6741
6.404e+09  -0.02953  1.548  0.05996  -0.004718  0.05863  0.04777  -0.3234  0.9209
6.405e+09  0.5153  1.467  -0.01558  0.01851  -0.01552  -0.01017  0.0345  0.9151
6.406e+09  1.064  1.217  -0.03835  -0.05691  0.02206  0.0008344  0.267  0.8605
6.408e+09  1.387  0.7116  0.01088  -0.01037  0.001732  -0.02132  0.5582  0.7218
6.409e+09  1.573  0.2007  0.02561  -0.03739  0.05053  0.01934  0.8072  0.4427
6.41e+09  1.587  -0.3046  0.05186  -0.007723  0.03884  0.06262  0.8971  0.2033
6.411e+09  1.415  -0.8598  0.004401  0.03933  0.01844  -0.01594  0.8748  -0.1087
6.412e+09  1.022  -1.289  0.01821  0.02469  0.02404  0.008354  0.7883  -0.4437
6.414e+09  0.4775  -1.577  -0.02694  -0.01427  0.02393  -0.05698  0.5892  -0.6675
6.415e+09  -0.06052  -1.697  0.006138  0.03925  -0.05255  -0.000363  0.3058  -0.8379
6.416e+09  -0.7057  -1.602  0.01176  -0.05842  0.03148  0.01954  0.07409  -0.8942
6.418e+09  -1.203  -1.224  -0.00334  -0.02131  -0.04149  -0.02986  -0.2539  -0.8596
6.419e+09  -1.6  -0.7853  -0.04046  -0.00268  0.05807  0.011  -0.5542  -0.6857
6.42e+09  -1.821  -0.1333  7.258e-05  0.01035  -0.002862  -0.02872  -0.7364  -0.4829
6.421e+09  -1.718  0.4329  0.0344  -0.04796  1.019e-05  -0.01617  -0.9302  -0.2032
6.422e+09  -1.46  1.064  -0.0214  -0.00196  -0.03514  0.02389  -0.8874  0.07922
6.424e+09  -1.047  1.551  -4.759e-05  0.008281  -0.01219  -0.01764  -0.803  0.4248
6.425e+09  -0.403  1.862  -0.01897  0.02436  0.06787  -0.05795  -0.5947  0.6581
6.426e+09  0.2586  1.912  0.007423  -0.0001156  -0.03566  0.004469  -0.318  0.8406
6.428e+09  0.9149  1.717  -0.01035  -0.03205  0.0009448  -0.03844  -0.009794  0.8836
6.429e+09  1.496  1.261  -0.006456  -0.02891  0.004093  -0.0204  0.2532  0.8137
6.43e+09  1.821  0.7129  0.04614  -0.031  -0.01074  0.0105  0.5469  0.7036
6.431e+09  2.033  -0.04073  0.0396  -0.007088  -0.0425  -0.03976  0.7513  0.5053
6.432e+09  1.958  -0.7166  0.03474  0.01405  -0.0215  -0.01417  0.8632  0.2055
6.434e+09  1.501  -1.391  -0.00904  -0.01813  0.00554  0.005337  0.8679  -0.0849
6.435e+09  0.9734  -1.855  0.02255  -0.006985  0.01925  -0.02597  0.7741  -0.3667
6.436e+09  0.284  -2.115  -0.01796  -0.008008  -0.001513  -0.04242  0.6101  -0.6213
6.438e+09  -0.484  -2.156  0.006672  0.006803  -0.04504  -0.01697  0.3307  -0.8027
6.439e+09  -1.215  -1.818  0.03214  -0.02691  0.0209  0.006417  0.1204  -0.913
6.44e+09  -1.82  -1.276  -0.01242  0.006522  0.01268  0.0006845  -0.2391  -0.8567
6.441e+09  -2.185  -0.5755  -0.02243  -0.001077  -0.0222  -0.05286  -0.5056  -0.6711
6.442e+09  -2.283  0.2189  0.0175  0.02194  -0.009318  0.02885  -0.6666  -0.4804
6.444e+09  -2.088  1.051  0.0008373  0.02635  -0.01024  0.05588  -0.8413  -0.178
6.445e+09  -1.598  1.747  0.00162  -0.0319  0.06105  -0.00147  -0.8501  0.08505
6.446e+09  -0.9293  2.253  -0.02265  -0.02864  -0.02488  -0.08941  -0.7535  0.3453
6.448e+09  -0.04779  2.411  -0.008588  -0.0133  0.06615  0.04373  -0.6031  0.6196
6.449e+09  0.7893  2.419  0.05114  -0.005327  -0.03976  0.02604  -0.3618  0.7809
6.45e+09  1.581  1.912  -0.008032  -0.04636  -0.01171  0.009157  -0.01676  0.8228
6.451e+09  2.24  1.323  0.04025  -0.01449  0.005761  0.0158  0.2584  0.7702
6.452e+09  2.561  0.3931  -0.03402  0.004718  -0.02977  -0.01132  0.5283  0.6844
6.454e+09  2.747  -0.6134  -0.009106  -0.05892  -0.03636  -0.009117  0.6788  0.4264
6.455e+09  2.352  -1.496  0.01977  0.04927  -0.01365  0.009742  0.7922  0.2178
6.456e+09  1.629  -2.299  -0.0274  -0.01435  0.03037  0.04441  0.8123  -0.07226
6.458e+09  0.8376  -2.837  0.03283  0.05204  -0.02282  -0.02996  0.7316  -0.3226
6.459e+09  -0.2241  -3.012  0.01166  -0.01021  0.07316  0.0299  0.5724  -0.6033
6.46e+09  -1.382  -2.804  0.008126  0.01154  -0.01962  0.02529  0.3371  -0.7696
6.461e+09  -2.38  -2.164  0.03309  0.006194  -0.006214  -0.01457  0.06457  -0.8352
6.462e+09  -3.087  -1.133  0.0122  -0.005639  -0.04788  -0.009849  -0.2261  -0.7779
6.464e+09  -3.384  0.01119  0.01526  -0.0075  -0.04378  0.02098  -0.4189  -0.6507
6.465e+09  -3.225  1.135  -0.0005431  -0.00199  0.09438  -0.02242  -0.6736  -0.4402
6.466e+09  -2.645  2.269  0.003307  0.03193  0.0127  -0.02909  -0.7646  -0.1766
6.468e+09  -1.695  3.25  -0.01437  -0.01381  -0.002204  0.03093  -0.7393  0.05569
6.469e+09  -0.4302  3.754  -0.003322  -0.01153  0.01202  -0.001417  -0.7155  0.3643
6.47e+09  0.8558  3.682  0.01672  -0.0005034  -0.05112  0.1284  -0.5338  0.5596
6.471e+09  2.304  3.345  -0.02049  0.0206  -0.02496  -0.04347  -0.3322  0.7362
6.472e+09  3.537  2.272  0.005398  -0.009654  0.08281  -0.03568  -0.007143  0.7521
6.474e+09  4.229  0.8513  -0.06118  -0.01396  0.1517  -0.03095  0.225  0.7606
6.475e+09  4.394  -0.5899  0.04068  -0.03527  -0.02285  -0.08908  0.4474  0.6289
6.476e+09  4.207  -2.35  0.005598  0.01334  -0.03348  -0.01339  0.6426  0.4629
6.478e+09  3.035  -3.897  -0.003381  -0.04379  0.05811  -0.001372  0.7663  0.1826
6.479e+09  1.5  -5.019  0.03547  0.005236  0.06981  -0.0876  0.792  -0.08866
6.48e+09  -0.6872  -5.191  -0.04306  -0.05292  -0.0068  0.01051  0.7247  -0.3264
6.481e+09  -2.512  -5.014  0.01914  -0.009244  0.03537  0.09643  0.5641  -0.5358
6.482e+09  -4.537  -3.918  -0.03708  -0.009909  0.006694  0.06995  0.2749  -0.6825
6.484e+09  -6.016  -2.007  -0.01349  0.0118  -0.09514  -0.003681  0.05167  -0.7656
6.485e+09  -6.633  0.5406  -0.006401  -0.007984  0.2669  0.03922  -0.1935  -0.772
6.486e+09  -6.324  3.117  0.02579  0.003396  -0.2074  -0.007361  -0.4542  -0.6064
6.488e+09  -4.396  6.289  -0.02959  -0.005662  -0.7063  0.3842  -0.6294  -0.4211
6.489e+09  -2.383  7.587  0.006803  0.04278  0.01124  -0.02205  -0.7131  -0.1791
6.49e+09  1.105  8.391  0.005893  0.008598  -0.007576  0.05194  -0.7614  0.0496
6.491e+09  4.754  7.701  0.02097  0.0153  0.09788  0.00159  -0.6865  0.3517
6.492e+09  7.992  5.27  -0.0004536  0.01783  0.07279  -0.06314  -0.5147  0.5512
6.494e+09  10.1  1.407  0.01267  0.02607  0.1888  -0.1531  -0.3119  0.7258
6.495e+09  10.27  -3.492  -0.006291  -0.007587  0.1204  0.0121  -0.02052  0.7457
6.496e+09  7.827  -7.887  0.001296  -0.01094  -0.03195  0.1251  0.2153  0.7227
6.498e+09  3.591  -11.22  0.04621  0.0109  -0.05648  -0.01418  0.4628  0.6455
6.499e+09  -1.946  -11.7  -0.006691  -0.002226  -0.00477  -0.06111  0.6504  0.4164
6.5e+09  -11.54  -20.22  -0.009508  -0.0335  -0.1743  0.01211  0.742  0.2064
6.501e+09  -10.94  -5.014  -0.005867  0.007771  0.01645  0.02785  0.7052  -0.09099
6.502e+09  -11.55  0.7159  -0.00895  0.02851  0.003  0.1898  0.6475  -0.4008
6.504e+09  -9.59  5.651  0.01728  -0.004257  0.07967  0.04636  0.4812  -0.5538
6.505e+09  -6.03  8.996  -0.004335  0.03339  0.05505  0.06166  0.3312  -0.6885
6.506e+09  -1.196  10.04  -0.001044  0.0122  0.09158  0.05425  0.02547  -0.7664
6.508e+09  2.95  8.953  0.004963  -0.008878  0.07359  0.05772  -0.1878  -0.6848
6.509e+09  6.066  6.541  -0.0222  0.00144  -0.05988  -0.03038  -0.5051  -0.5659
6.51e+09  7.625  3.151  -0.0259  0.03869  -0.0744  0.0283  -0.6514  -0.3958
6.511e+09  7.816  -0.217  0.02413  -0.01516  0.1259  -0.004746  -0.7396  -0.1205
6.512e+09  6.633  -3.041  0.04493  -0.009355  -0.09712  0.005269  -0.7023  0.142
6.514e+09  4.712  -5.072  0.01851  -0.0002835  -0.02849  -0.07728  -0.6132  0.3708
6.515e+09  2.347  -5.955  0.02852  0.0128  0.02337  0.07649  -0.4726  0.5695
6.516e+09  -0.2071  -6.097  -0.004764  0.02626  0.1141  -0.03522  -0.2495  0.6969
6.518e+09  -2.384  -5.229  0.01103  -0.05095  -0.04125  0.0005932  0.04481  0.7038
6.519e+09  -3.977  -3.83  0.02391  -0.007304  0.006941  0.04085  0.2724  0.7234
6.52e+09  -4.75  -1.989  0.033  -0.01558  -0.007763  0.005351  0.5033  0.5471
6.521e+09  -4.931  -0.09491  -0.00387  -0.01668  0.02293  0.03001  0.6752  0.375
6.522e+09  -4.409  1.661  0.008958  0.009441  0.002793  0.05836  0.7226  0.1065
6.524e+09  -3.339  3.034  -0.003397  0.02135  -0.01926  -0.006993  0.7092  -0.1781
6.525e+09  -1.936  3.824  0.01618  0.01772  0.0128  0.02209  0.6023  -0.3989
6.526e+09  -0.3754  4.122  -0.00355  -0.04109  0.0388  0.01267  0.4138  -0.5905
6.528e+09  1.054  3.776  -0.003862  0.0006158  0.02616  -0.00865  0.2139  -0.7024
6.529e+09  2.316  3.115  0.00221  0.04413  -0.02941  0.02007  -0.04901  -0.65
6.53e+09  3.168  1.878  0.01418  0.01265  0.07823  -0.05451  -0.2658  -0.6296
6.531e+09  3.531  0.6592  -0.005355  0.01314  0.014  -0.1006  -0.4842  -0.4674
6.532e+09  3.44  -0.5126  0.02649  0.002612  -0.01079  -0.02206  -0.586  -0.2931
6.534e+09  2.854  -1.78  0.02143  -0.01426  -0.02073  -0.03806  -0.6614  -0.08394
6.535e+09  2.027  -2.541  -0.01651  -0.005248  -0.007914  -0.04321  -0.6331  0.1213
6.536e+09  0.9372  -3.033  0.01966  -0.01521  0.02134  0.006679  -0.5833  0.3049
6.538e+09  -0.1849  -3.078  0.02119  -0.007462  0.03433  0.01223  -0.4581  0.5135
6.539e+09  -1.305  -2.717  -0.02308  -0.01644  -0.02626  0.05335  -0.2964  0.6192
6.54e+09  -2.097  -2.078  0.004379  0.01654  -0.08314  0.07666  -0.05561  0.6751
6.541e+09  -2.563  -1.128  -0.008479  -0.002808  0.02794  -0.005805  0.2079  0.6655
6.542e+09  -2.772  -0.1427  -0.0006068  -0.001769  -0.07447  0.01098  0.4023  0.5905
6.544e+09  -2.569  0.8764  -0.002107  0.02022  0.05824  0.09056  0.5857  0.4309
6.545e+09  -2.108  1.587  0.0592  -0.01364  -0.01999  -0.01216  0.7043  0.1667
6.546e+09  -1.325  2.245  -0.01142  -0.02  0.01074  -0.002907  0.7255  -0.129
6.548e+09  -0.4369  2.474  -0.003721  -0.01326  0.005192  -0.01096  0.6689  -0.3382
6.549e+09  0.4715  2.439  0.003764  -0.01638  0.01748  -0.02236  0.4881  -0.51
6.55e+09  1.251  2.038  0.005119  -0.01672  0.002129  -0.05469  0.2843  -0.7021
6.551e+09  1.833  1.481  0.002545  0.03778  -0.06351  0.007736  0.01044  -0.7313
6.552e+09  2.238  0.6828  0.000427  -0.007176  -0.00503  -0.03213  -0.2482  -0.6864
6.554e+09  2.282  -0.1983  0.003743  -0.02038  0.008451  -0.02098  -0.4895  -0.5861
6.555e+09  2.079  -0.9517  0.027  0.003929  0.01627  -0.0205  -0.6238  -0.3872
