# Hz S RI R 50
6.25e+09  0.8211  0.5656  -0.02282  0.004599  0.03821  0.04518  0.1412  0.4871
6.251e+09  0.9976  0.2769  -0.004491  0.02501  0.03701  0.01984  0.3717  0.4134
6.252e+09  0.9461  -0.08572  0.007068  0.01944  0.004838  -0.04222  0.5419  0.2499
6.254e+09  0.8858  -0.4296  -0.02915  0.01052  -0.02184  -0.00369  0.6019  0.02168
6.255e+09  0.7035  -0.7584  -0.001165  0.002209  -0.04403  -0.00649  0.5868  -0.2125
6.256e+09  0.3645  -0.9287  -0.0005042  0.01175  0.004098  0.01043  0.4576  -0.4467
6.258e+09  0.05587  -0.9561  0.02213  0.04626  0.05994  -0.0286  0.3399  -0.6085
6.259e+09  -0.2884  -0.9696  -0.003241  0.01299  0.03593  0.01573  0.04275  -0.6459
6.26e+09  -0.6024  -0.8209  -0.002059  0.03029  0.02695  -0.01707  -0.2297  -0.6427
6.261e+09  -0.8532  -0.5219  0.01249  -0.02136  0.02137  0.02545  -0.43  -0.5726
6.262e+09  -1.012  -0.166  -0.003416  0.01586  -0.0219  0.01415  -0.6256  -0.3721
6.264e+09  -0.9927  0.1596  -0.006634  0.009705  -0.04514  -0.01086  -0.7071  -0.1285
6.265e+09  -0.8203  0.4814  0.006352  0.02543  0.01313  0.001703  -0.6995  0.184
6.266e+09  -0.5932  0.8009  0.006007  0.01144  -0.07222  0.003723  -0.616  0.3781
6.268e+09  -0.2811  0.9332  -0.01493  -0.01209  0.04154  0.0443  -0.431  0.593
6.269e+09  -0.006872  0.9932  -0.007462  -0.05288  -0.009088  0.006199  -0.1897  0.7089
6.27e+09  0.434  0.8966  -0.003185  -0.01242  0.01863  -0.003366  0.0633  0.7144
6.271e+09  0.7136  0.6824  -0.002401  -0.003346  0.001336  0.0313  0.3523  0.6844
6.272e+09  0.9347  0.4523  0.01801  -0.01379  -0.01794  -0.03222  0.5317  0.5333
6.274e+09  0.9959  0.04649  -0.000139  0.01705  0.02836  -0.02882  0.7049  0.3074
6.275e+09  0.9175  -0.264  -0.007745  -0.03429  0.03202  0.004229  0.7862  0.04741
6.276e+09  0.7698  -0.6156  -0.01316  -0.001804  -0.01506  -0.0006644  0.7286  -0.2202
6.278e+09  0.5785  -0.7895  0.01434  0.01648  -0.06447  -0.02622  0.6162  -0.4441
6.279e+09  0.178  -0.9786  0.01753  -0.005601  0.02343  -0.0349  0.3942  -0.6719
6.28e+09  -0.1664  -0.9484  -0.03299  0.004639  0.006185  -0.03134  0.1594  -0.7703
6.281e+09  -0.4901  -0.8433  0.02185  0.04357  -0.03631  0.002374  -0.1105  -0.7876
6.282e+09  -0.7181  -0.6238  -0.004245  -0.02316  -0.005435  -0.01886  -0.3699  -0.7028
6.284e+09  -0.8995  -0.2449  0.01086  0.006608  -0.03682  0.04759  -0.5913  -0.4878
6.285e+09  -0.9624  -0.05112  0.007072  -0.001558  0.02403  -0.04649  -0.7179  -0.2718
6.286e+09  -0.9114  0.3576  -0.008578  -0.01624  -0.02401  0.03238  -0.8142  0.02757
6.288e+09  -0.7518  0.6824  0.003983  -0.0211  0.0125  -0.00385  -0.7829  0.2646
6.289e+09  -0.4733  0.858  0.004739  0.02848  -0.01815  0.02472  -0.641  0.5014
6.29e+09  -0.1663  0.9788  0.03196  0.0109  -0.01331  -0.03516  -0.4151  0.729
6.291e+09  0.2054  0.9604  0.01414  -0.006974  -0.06725  0.026  -0.119  0.7979
6.292e+09  0.5114  0.8545  0.01838  0.01932  -0.001521  0.004047  0.1472  0.8018
6.294e+09  0.7934  0.5817  0.01383  0.03006  0.005112  0.03743  0.3782  0.7317
6.295e+09  0.967  0.2607  -0.0007983  -0.01908  -0.004703  -0.0005365  0.6019  0.5165
6.296e+09  0.9644  -0.09168  0.01661  0.01174  -0.04137  0.005538  0.7928  0.2824
6.298e+09  0.8548  -0.4259  -0.005209  -0.02268  -0.03734  0.001583  0.8164  0.02595
6.299e+09  0.6696  -0.7078  -0.03983  0.007356  0.02146  -0.05268  0.8031  -0.2903
6.3e+09  0.4234  -0.9305  0.002287  -0.003293  0.03061  0.04205  0.6299  -0.5483
6.301e+09  0.04448  -0.9867  0.02646  -0.02372  -0.08802  0.005059  0.4614  -0.7197
6.302e+09  -0.2984  -0.9999  0.0008981  0.01641  -0.06716  -0.01873  0.1801  -0.8251
6.304e+09  -0.559  -0.7691  -0.009925  0.01012  -0.005161  0.01814  -0.131  -0.8394
6.305e+09  -0.8682  -0.4979  0.001926  0.006267  -0.005283  0.02675  -0.4537  -0.7097
6.306e+09  -0.9729  -0.2283  -0.002982  -0.003744  0.01742  -0.01378  -0.6682  -0.5647
6.308e+09  -0.9931  0.1914  0.01085  -0.01774  0.02519  0.03361  -0.8033  -0.3074
6.309e+09  -0.9129  0.5034  -0.00973  -0.03178  -0.02396  -0.005927  -0.8674  0.008635
6.31e+09  -0.6883  0.8164  -0.02441  0.03385  -0.005595  -0.01711  -0.819  0.289
6.311e+09  -0.3087  0.9919  0.01282  -0.01398  0.02484  -0.01047  -0.6762  0.5792
6.312e+09  0.07339  0.9924  0.0002043  0.01633  0.01416  0.02091  -0.4338  0.7452
6.314e+09  0.4098  0.8965  -0.01244  0.0212  -0.01205  -0.005488  -0.16  0.8595
6.315e+09  0.7141  0.7742  0.0223  -0.008649  -0.04169  0.01167  0.1486  0.8961
6.316e+09  0.9004  0.465  -0.001003  -0.01985  -0.007313  -0.03861  0.4363  0.7605
6.318e+09  0.987  0.1562  0.01128  0.003549  -0.01977  -0.006624  0.6818  0.5445
6.319e+09  1.042  -0.2789  0.002231  0.0194  -0.02106  0.0679  0.8134  0.2942
6.32e+09  0.876  -0.5988  0.02065  -0.0009078  0.04554  -0.0209  0.8701  0.04864
6.321e+09  0.5737  -0.8912  0.01951  0.00565  0.0001029  0.00746  0.8433  -0.2866
6.322e+09  0.2948  -0.9938  0.007916  0.02438  -0.06128  -0.01292  0.7171  -0.5713
6.324e+09  -0.149  -1.06  0.002844  0.01229  0.02081  0.04731  0.4253  -0.7609
6.325e+09  -0.5186  -0.9106  -0.01244  0.02685  -0.04815  0.01808  0.1717  -0.9034
6.326e+09  -0.7747  -0.708  -0.009055  0.01943  0.03214  0.01031  -0.1171  -0.8862
6.328e+09  -1.023  -0.4041  0.007671  -0.01561  -0.0453  0.004266  -0.4186  -0.7875
6.329e+09  -1.062  -0.009552  -0.01813  0.02064  -0.01808  0.05317  -0.6705  -0.5778
6.33e+09  -1.034  0.3599  0.01924  -0.001626  0.02681  0.02797  -0.8069  -0.3143
6.331e+09  -0.7743  0.6846  -0.001783  -0.04217  -0.01788  0.02107  -0.9036  -0.04773
6.332e+09  -0.5588  0.9222  0.01855  -0.01331  0.007951  0.001985  -0.8464  0.2817
6.334e+09  -0.2372  1.1  -0.01171  0.01395  0.01264  0.01408  -0.749  0.5897
6.335e+09  0.2172  1.088  0.01842  -0.01185  0.04535  -0.01609  -0.5276  0.7798
6.336e+09  0.6118  0.9805  0.01359  -0.003922  0.01892  0.001453  -0.2132  0.8829
6.338e+09  0.8869  0.6359  0.004282  0.0006555  -0.00273  0.006601  0.1046  0.9547
6.339e+09  1.064  0.3545  -0.003779  -0.01428  0.01277  0.02603  0.4065  0.8462
6.34e+09  1.067  0.02115  -0.01631  -0.0187  0.02378  -0.0297  0.709  0.6153
6.341e+09  0.9975  -0.4244  -0.03315  -0.02472  -0.01608  -0.01896  0.8761  0.342
6.342e+09  0.7939  -0.7493  -0.003707  -0.00804  -0.00836  -0.04363  0.9578  0.03917
6.344e+09  0.5154  -1.003  -0.01713  -0.03164  -0.01932  -0.0297  0.8867  -0.2619
6.345e+09  0.08215  -1.099  -0.03189  -0.03626  -0.008565  -0.009416  0.751  -0.5688
6.346e+09  -0.2651  -1.065  -0.02259  0.007904  0.01873  0.03265  0.4953  -0.7634
6.348e+09  -0.6788  -0.8931  0.01291  0.00296  -0.01892  -0.0009916  0.2321  -0.9263
6.349e+09  -0.9531  -0.6443  0.02891  0.006479  0.01472  -0.02343  -0.09234  -0.9556
6.35e+09  -1.096  -0.3013  0.0007256  -0.02195  -0.008907  -0.00397  -0.4276  -0.8233
6.351e+09  -1.185  0.1005  0.001646  -0.01218  0.008519  -0.03547  -0.6861  -0.6707
6.352e+09  -1.066  0.5216  -0.01786  0.02406  0.02122  0.004269  -0.8476  -0.3451
6.354e+09  -0.7439  0.8615  0.02899  -0.03468  -0.005969  -0.005309  -0.9568  -0.05551
6.355e+09  -0.4426  1.071  -0.05886  0.02886  0.01177  -0.000109  -0.8871  0.2784
6.356e+09  -0.002512  1.163  0.01598  -0.02831  0.03629  -0.01186  -0.7497  0.5303
6.358e+09  0.388  1.095  0.01851  -0.0001638  0.02725  -0.00866  -0.5341  0.7687
6.359e+09  0.7395  0.8941  0.02412  -0.003131  0.01758  0.004284  -0.2035  0.9824
6.36e+09  1.032  0.5818  0.02177  0.01035  0.01962  -0.01633  0.04718  0.9575
6.361e+09  1.229  0.1891  0.008522  -0.001396  0.01679  -0.03259  0.4035  0.8664
6.362e+09  1.177  -0.2124  -0.04518  -0.005155  0.02349  0.003293  0.7083  0.6467
6.364e+09  1.007  -0.5923  0.0007845  -0.003216  0.07083  0.0594  0.8514  0.438
6.365e+09  0.7721  -0.9837  -0.0181  -0.04022  0.008749  -0.008781  0.9806  0.1005
6.366e+09  0.4319  -1.161  -0.02834  -0.04044  0.01201  0.009696  0.8953  -0.2108
6.368e+09  -0.0432  -1.215  -0.004457  -0.04344  0.0001083  -0.005435  0.774  -0.5207
6.369e+09  -0.4758  -1.177  0.006167  0.006945  0.03301  0.01234  0.5491  -0.7586
6.37e+09  -0.8541  -0.9343  0.001758  -0.004286  -0.004427  -0.03954  0.2292  -0.9064
6.371e+09  -1.176  -0.5358  0.002034  -0.02323  0.02274  -0.006982  -0.0913  -0.9645
6.372e+09  -1.228  -0.1237  -0.008551  0.02308  0.01513  0.007057  -0.3773  -0.879
6.374e+09  -1.28  0.3244  -0.04991  -0.03814  -0.005456  -0.004529  -0.7012  -0.6606
6.375e+09  -1.101  0.7683  0.000421  -0.02847  0.01915  -0.01271  -0.8598  -0.438
6.376e+09  -0.7541  1.005  -0.04031  0.0273  -0.01282  0.005759  -0.9641  -0.07314
6.378e+09  -0.3096  1.304  -0.02816  -0.01673  -0.04605  0.01382  -0.8776  0.2536
6.379e+09  0.1518  1.341  -0.01952  -0.02135  0.0005628  -0.003712  -0.7321  0.5659
6.38e+09  0.6089  1.172  0.00999  -0.02277  -0.005505  0.033  -0.5795  0.7492
6.381e+09  0.9429  0.9577  -0.03406  -0.01415  0.02801  -0.05843  -0.2352  0.9018
6.382e+09  1.272  0.5107  -0.005777  -0.01732  -0.002947  0.04349  0.09837  0.9267
6.384e+09  1.353  0.009911  0.01821  -2.188e-05  0.01652  0.01056  0.355  0.8522
6.385e+09  1.25  -0.4833  0.005291  0.02131  0.07027  0.02561  0.6262  0.7069
6.386e+09  1.105  -0.9294  -0.02133  -0.07559  -0.005264  0.001692  0.8295  0.4245
6.388e+09  0.6942  -1.262  0.0442  -0.05448  -0.008539  -0.03468  0.9155  0.1546
6.389e+09  0.2447  -1.433  -0.0338  -0.04731  -0.006235  -0.009139  0.8853  -0.171
6.39e+09  -0.3244  -1.441  -0.03181  -0.01145  -0.008212  -0.003956  0.7928  -0.5315
6.391e+09  -0.7351  -1.254  0.001905  -0.04732  -0.01388  -0.03541  0.5621  -0.7547
6.392e+09  -1.155  -0.8872  -0.02423  -0.006525  0.01708  -0.003575  0.2889  -0.8634
6.394e+09  -1.448  -0.508  0.0179  0.0197  0.05288  -0.01339  -0.01557  -0.9162
6.395e+09  -1.534  0.1264  -0.02997  -0.03003  -0.02733  -0.0304  -0.3343  -0.8692
6.396e+09  -1.351  0.6175  0.02073  0.007132  0.03503  -0.04261  -0.591  -0.667
6.398e+09  -1.108  1.033  -0.03792  -0.03291  0.0164  0.0285  -0.7965  -0.3976
6.399e+09  -0.6923  1.431  -0.03799  -0.007351  0.02162  -0.0226  -0.8998  -0.1503
6.4e+09  -0.2149  1.545  0.001724  -0.01537  0.005348  -0.01605  -0.8941  0.1473
6.401e+09  0.3866  1.57  -0.004368  -0.03822  0.01681  0.004752  -0.7799  0.4975
6.402e+09  0.9007  1.317  0.004534  -0.001644  -0.004901  0.03881  -0.5899  0.7121
6.404e+09  1.38  0.9177  -0.001861  0.002454  -0.02261  0.03122  -0.2849  0.8699
6.405e+09  1.705  0.3081  -0.003897  -0.06246  0.06437  -0.006787  0.004485  0.9309
6.406e+09  1.737  -0.3329  -0.001171  0.02005  0.02763  0.01448  0.3154  0.8844
6.408e+09  1.514  -0.7727  0.004669  0.01638  0.07027  0.05311  0.6048  0.7098
6.409e+09  1.16  -1.375  -0.0103  0.03765  -0.00121  0.01371  0.7631  0.4497
6.41e+09  0.6256  -1.768  -0.01268  -0.003916  0.008684  -0.01691  0.9475  0.1691
6.411e+09  -0.05364  -1.906  0.002646  -0.06911  -0.01824  0.007484  0.9103  -0.1235
6.412e+09  -0.7858  -1.716  -0.0307  0.04486  -0.004221  -0.0203  0.7608  -0.4409
6.414e+09  -1.422  -1.391  0.006608  0.01456  -0.01596  0.008398  0.6109  -0.6943
6.415e+09  -1.782  -0.8042  0.01934  0.02556  -0.01157  0.02157  0.3821  -0.8237
6.416e+09  -2.006  -0.1192  0.008638  -0.02393  0.02301  -0.03005  0.0204  -0.8824
6.418e+09  -1.965  0.6508  0.03144  -0.04116  0.02438  0.03583  -0.2688  -0.8409
6.419e+09  -1.583  1.309  0.01489  0.003266  0.03107  0.01524  -0.5657  -0.7321
6.42e+09  -1.035  1.919  -0.006513  0.006449  -0.05707  -0.03346  -0.7498  -0.4448
6.421e+09  -0.2907  2.128  0.01389  -0.0421  -0.02139  0.03383  -0.8805  -0.1919
6.422e+09  0.5823  2.11  -0.008727  -0.002422  0.04398  0.06512  -0.8671  0.07842
6.424e+09  1.305  1.792  -0.02591  0.01494  0.01726  0.0265  -0.8116  0.4008
6.425e+09  1.935  1.164  0.009757  -9.137e-05  -0.02424  0.03569  -0.5645  0.6441
6.426e+09  2.336  0.3961  0.04746  0.01313  0.008699  0.04237  -0.3467  0.7789
6.428e+09  2.247  -0.4756  -0.0279  -0.006429  -0.0455  0.002347  -0.06809  0.871
6.429e+09  2.076  -1.39  0.01097  0.0281  -0.02328  0.02227  0.2851  0.8713
6.43e+09  1.4  -2.025  -0.03182  0.01853  -0.0073  0.03244  0.5776  0.7234
6.431e+09  0.5166  -2.429  -0.02183  -0.00895  0.03957  0.003741  0.7464  0.4956
6.432e+09  -0.3909  -2.475  0.005376  -0.008098  0.009327  0.002026  0.8287  0.2517
6.434e+09  -1.328  -2.169  0.001513  0.03273  -0.03829  -0.01177  0.797  -0.09262
6.435e+09  -2.109  -1.537  -0.01158  0.01995  0.01207  0.008513  0.7927  -0.4122
6.436e+09  -2.523  -0.6493  -0.04522  0.03043  0.008353  0.06917  0.6489  -0.5847
6.438e+09  -2.647  0.4326  0.02812  -0.02389  0.01408  -0.0146  0.3604  -0.8227
6.439e+09  -2.311  1.36  -0.0101  -0.05102  -0.000161  0.0109  0.02452  -0.807
6.44e+09  -1.673  2.03  0.05088  0.02183  0.006926  -0.04423  -0.2712  -0.8436
6.441e+09  -0.6678  2.65  -0.04536  0.04862  -0.005232  0.004875  -0.558  -0.6814
6.442e+09  0.4269  2.761  0.001285  -0.02696  -0.01433  -0.03062  -0.6982  -0.5008
6.444e+09  1.387  2.454  0.01024  -0.02273  0.01169  -0.04633  -0.8225  -0.2329
6.445e+09  2.212  1.794  -0.02676  -0.02428  0.02923  0.008597  -0.8758  0.07539
6.446e+09  2.597  0.752  0.01507  0.008286  0.01697  -0.04865  -0.7832  0.3692
6.448e+09  2.725  -0.3397  0.06066  -0.02465  0.07678  -0.01972  -0.5929  0.6135
6.449e+09  2.453  -1.372  -0.06473  0.0516  0.04559  0.02093  -0.391  0.7791
6.45e+09  1.735  -2.186  -0.0005142  0.01046  0.01369  -0.03027  -0.04993  0.8184
6.451e+09  0.7274  -2.596  -0.03751  -0.009781  -0.09423  -0.001516  0.2316  0.8053
6.452e+09  -0.2489  -2.757  -0.0351  -0.02022  -0.012  -0.01661  0.4798  0.695
6.454e+09  -1.266  -2.416  -0.01514  -0.006499  0.002791  0.01275  0.6054  0.4799
6.455e+09  -2.131  -1.791  -0.01085  0.02013  0.07231  0.06323  0.8156  0.1907
6.456e+09  -2.578  -0.8797  -0.005361  0.01195  0.01147  0.01296  0.8553  -0.137
6.458e+09  -2.67  0.1418  0.00341  0.01122  -0.001012  0.02875  0.7429  -0.368
6.459e+09  -2.431  1.116  0.008976  0.0152  -0.01313  -0.02228  0.5856  -0.5888
6.46e+09  -1.793  1.939  -0.04608  -0.04183  -0.02021  0.006237  0.3278  -0.7147
6.461e+09  -0.8986  2.477  0.03062  -0.00538  -0.07516  -0.02057  0.0696  -0.8111
6.462e+09  0.06006  2.559  0.0001824  0.02952  0.0007027  -0.008207  -0.2665  -0.7717
6.464e+09  1.01  2.335  -0.0005469  -0.01982  -0.02008  0.0005339  -0.4609  -0.6799
6.465e+09  1.72  1.834  -0.001325  -0.003202  -0.0113  0.02079  -0.6503  -0.4429
6.466e+09  2.271  0.9935  -0.03252  -0.02746  -0.0207  -0.04105  -0.7531  -0.1637
6.468e+09  2.463  0.1047  0.02392  0.01326  -0.06728  0.008723  -0.7877  0.05416
6.469e+09  2.346  -0.8066  -0.003326  -0.03274  -0.03471  0.03669  -0.731  0.3188
6.47e+09  1.867  -1.604  0.01325  0.02346  0.04178  0.07404  -0.5346  0.5604
6.471e+09  1.123  -2.156  -0.03828  -5.737e-05  0.02207  -0.04173  -0.3255  0.7504
6.472e+09  0.263  -2.354  0.02867  -0.0496  0.01613  -0.01618  -0.07051  0.794
6.474e+09  -0.5435  -2.265  -0.006611  -0.02823  -0.01068  -0.02935  0.2543  0.7429
6.475e+09  -1.414  -1.836  0.03584  0.0152  -0.03826  0.002876  0.4639  0.6298
6.476e+09  -1.863  -1.285  -0.0289  0.003189  -0.01202  -0.02011  0.6334  0.4226
6.478e+09  -2.228  -0.4999  0.006991  0.01507  0.02251  -0.005218  0.7411  0.2337
6.479e+09  -2.271  0.3692  0.01475  -0.05369  0.04142  0.04758  0.7482  -0.1074
6.48e+09  -1.919  1.209  -0.0144  -0.003029  0.01425  0.0005901  0.7129  -0.3734
6.481e+09  -1.338  1.712  -0.005216  0.003727  0.01038  -0.05249  0.5466  -0.5524
6.482e+09  -0.6496  2.083  0.01276  -0.00376  -0.04549  -0.01969  0.3216  -0.7315
6.484e+09  0.2077  2.156  -0.04244  0.01903  -0.007189  -0.01375  0.02131  -0.776
6.485e+09  0.9768  1.961  -0.008008  -0.0288  -0.003308  -0.05698  -0.2061  -0.7259
6.486e+09  1.533  1.508  -0.02887  -0.01911  0.01153  -0.03934  -0.4297  -0.6114
6.488e+09  2.627  0.7472  -0.007953  0.03392  0.604  -0.2742  -0.6415  -0.3963
6.489e+09  2.091  0.05537  0.0131  -0.02687  -0.004403  0.04489  -0.7433  -0.1753
6.49e+09  2.071  -0.669  0.0263  0.006695  0.1093  0.01296  -0.7831  0.1336
6.491e+09  1.612  -1.296  0.01724  0.01302  -0.00137  0.06676  -0.73  0.3902
6.492e+09  1.058  -1.776  -0.04038  0.0179  0.02441  0.05316  -0.5005  0.53
6.494e+09  0.2488  -2.094  -0.001883  -0.001366  -0.03139  -0.1014  -0.3688  0.71
6.495e+09  -0.3931  -2.036  -0.008048  0.02126  0.07248  0.02826  -0.02754  0.7675
6.496e+09  -1.15  -1.807  0.0004412  -0.01858  -0.0326  0.01594  0.2539  0.7389
6.498e+09  -1.616  -1.198  0.01067  -0.02156  0.02542  -0.05447  0.4987  0.6081
6.499e+09  -2.022  -0.5623  0.02211  0.05376  -0.00819  -0.01022  0.6259  0.4185
6.5e+09  -2.959  1.881  0.01597  -0.003748  0.04074  -0.1096  0.7661  0.1493
6.501e+09  -1.857  0.8689  -0.01201  -0.02448  -0.04453  0.02979  0.8012  -0.1149
6.502e+09  -1.421  1.498  0.03646  -0.03258  -0.01994  -0.003196  0.6757  -0.3469
6.504e+09  -0.7938  1.904  0.01429  0.01077  -0.03359  0.037  0.5436  -0.5674
6.505e+09  -0.1568  2.026  -0.01058  -0.01788  0.0297  0.02641  0.278  -0.6725
6.506e+09  0.6203  1.985  -0.02435  -0.01289  0.01122  -0.0215  0.02049  -0.7759
6.508e+09  1.289  1.639  -0.002319  -0.02084  0.0405  0.006321  -0.2372  -0.6897
6.509e+09  1.845  1.064  -0.002531  0.02836  0.006828  -0.02296  -0.5117  -0.5668
6.51e+09  2.063  0.3621  -0.02329  -0.01178  -0.01469  0.02766  -0.6929  -0.4035
6.511e+09  2.053  -0.416  0.0008494  0.01528  -0.008298  -0.06426  -0.7298  -0.1339
6.512e+09  1.789  -1.098  0.01985  -0.006753  -0.01473  -0.05078  -0.7379  0.151
6.514e+09  1.256  -1.673  0.03419  -0.01547  0.005416  -0.05509  -0.6234  0.3888
6.515e+09  0.6831  -2.042  -0.007938  -0.004296  0.018  -0.03094  -0.438  0.5962
6.516e+09  -0.1164  -2.109  -0.02201  0.01534  -0.08342  -0.04284  -0.235  0.7245
6.518e+09  -0.8899  -1.981  0.01754  -0.0236  0.01229  0.001678  0.03089  0.7288
6.519e+09  -1.541  -1.499  -0.02433  -0.03112  -0.01552  -0.01494  0.2586  0.6867
6.52e+09  -2.037  -0.9146  -0.008733  -0.02509  0.07702  -0.006437  0.4852  0.5711
6.521e+09  -2.188  -0.09753  0.01858  0.006446  -0.02844  0.00585  0.6544  0.336
6.522e+09  -2.156  0.7427  -0.0004366  0.007482  0.001047  -0.01228  0.7081  0.1125
6.524e+09  -1.7  1.413  -0.03805  -0.0133  0.005858  -0.03264  0.7177  -0.156
6.525e+09  -1.139  1.983  0.003233  -0.0008961  0.004847  0.01114  0.5899  -0.3922
6.526e+09  -0.3426  2.275  -0.01665  -0.0137  0.02052  -0.03581  0.4345  -0.6009
6.528e+09  0.4718  2.265  -0.004266  -0.008219  -0.01657  0.05964  0.1783  -0.6935
6.529e+09  1.257  1.987  -0.0196  0.02033  0.02963  0.08772  -0.06541  -0.7059
6.53e+09  1.928  1.413  -0.008502  0.02102  0.03251  0.03737  -0.2729  -0.6195
6.531e+09  2.402  0.6778  0.04025  -0.0144  -0.0097  -0.03039  -0.4878  -0.4598
6.532e+09  2.399  -0.3332  0.005667  0.01795  -0.01139  0.009363  -0.5943  -0.2857
6.534e+09  2.188  -1.21  0.01307  0.006304  0.005733  -0.04782  -0.6324  -0.0982
6.535e+09  1.572  -1.889  0.01288  -0.01238  -0.0208  0.03052  -0.6152  0.1732
6.536e+09  0.8788  -2.296  0.008167  0.01479  -0.01234  -0.02615  -0.5797  0.3343
6.538e+09  -0.08424  -2.52  0.006134  -0.01404  -0.02884  0.00964  -0.4301  0.4884
6.539e+09  -0.9813  -2.355  -0.007822  0.01579  -0.01285  0.04671  -0.3032  0.6091
6.54e+09  -1.857  -1.78  -0.01225  -0.02123  -0.00502  0.04463  -0.06066  0.6892
6.541e+09  -2.431  -1.011  0.001271  0.02215  0.02909  0.02018  0.2025  0.6579
6.542e+09  -2.66  0.007604  -0.005763  -0.01151  -0.04894  0.01392  0.3907  0.5433
6.544e+09  -2.521  0.9308  0.02687  0.02074  -0.004547  -0.0079  0.6148  0.417
6.545e+09  -2.042  1.778  -0.01885  -0.02139  -0.04613  0.05449  0.6707  0.175
6.546e+09  -1.15  2.351  0.02915  -0.0006227  0.006283  -0.07205  0.7189  -0.09552
6.548e+09  -0.1609  2.702  -0.03303  0.03596  0.0002827  -0.02771  0.6503  -0.3322
6.549e+09  0.8178  2.619  0.01668  -0.005396  -0.03957  -0.04065  0.5125  -0.5182
6.55e+09  1.725  2.025  0.01436  -0.01301  -0.07061  0.06167  0.2938  -0.6675
6.551e+09  2.346  1.33  0.02585  -0.01699  -0.05374  -0.001974  0.02868  -0.7758
6.552e+09  2.719  0.2788  0.002396  -0.01115  -0.001587  0.02516  -0.2726  -0.7257
6.554e+09  2.581  -0.7057  -0.02333  -0.002339  -0.03452  0.02957  -0.4999  -0.5754
