# Hz S RI R 50
6.25e+09  0.9995  0.3276  -0.006356  -0.003965  0.078  0.04426  0.1621  0.5086
6.251e+09  1.029  -0.03811  -0.008439  0.0004571  -0.01447  -0.0146  0.4013  0.4239
6.252e+09  0.9396  -0.3452  0.01507  0.007887  0.03408  -0.02799  0.5097  0.2375
6.254e+09  0.7632  -0.6599  0.01161  0.01484  0.03807  0.001273  0.6301  0.009269
6.255e+09  0.3934  -0.9443  -0.01307  0.03148  0.06244  -0.05668  0.6245  -0.2301
6.256e+09  0.06721  -1.035  -0.01183  0.03043  0.005108  -0.0002409  0.4385  -0.432
6.258e+09  -0.2456  -0.9281  -0.00571  -0.02966  -0.01194  0.004633  0.2611  -0.6259
6.259e+09  -0.5875  -0.8236  0.006285  -0.001193  -0.002925  -0.003099  0.03347  -0.7009
6.26e+09  -0.8397  -0.5644  -0.008056  -0.0223  -0.02491  0.007248  -0.2337  -0.6525
6.261e+09  -0.9572  -0.2078  0.02523  0.03158  0.04705  0.0268  -0.4547  -0.5247
6.262e+09  -0.9807  0.1407  0.0004789  0.01402  0.01936  0.04023  -0.59  -0.3366
6.264e+09  -0.8817  0.4799  -0.001928  -0.02231  0.01167  0.03319  -0.6978  -0.1253
6.265e+09  -0.6391  0.7148  -0.001789  -0.003566  0.002388  -0.01742  -0.7355  0.1533
6.266e+09  -0.37  0.9128  0.001928  -0.01262  0.007246  -0.03847  -0.6265  0.3958
6.268e+09  -0.02092  0.9519  -0.01122  0.0243  -0.05344  0.02955  -0.4169  0.5876
6.269e+09  0.3613  0.9172  -0.007103  -0.03291  0.03551  0.0203  -0.1826  0.7269
6.27e+09  0.6338  0.7632  0.03669  0.0247  0.02565  0.008763  0.05796  0.7398
6.271e+09  0.9092  0.3897  -0.007414  0.007765  0.01067  0.09131  0.3064  0.6948
6.272e+09  0.971  0.1657  0.01242  0.006787  0.02288  -0.0432  0.5556  0.5098
6.274e+09  0.9455  -0.2494  0.0258  -0.01564  -0.01154  -0.0135  0.7148  0.3099
6.275e+09  0.849  -0.5411  -0.006139  0.01458  -0.04757  -0.02244  0.7693  0.02682
6.276e+09  0.6323  -0.802  -0.004579  0.0009935  0.04567  0.03049  0.7035  -0.2249
6.278e+09  0.2648  -1  -0.01695  0.00739  -0.05521  -0.006253  0.63  -0.4568
6.279e+09  -0.1002  -1.006  -0.006719  -0.003302  -0.006852  0.01457  0.4194  -0.618
6.28e+09  -0.4082  -0.9276  0.003161  -0.01699  0.0249  -0.06177  0.1368  -0.7355
6.281e+09  -0.7463  -0.674  0.006541  -0.01053  0.03297  -0.004601  -0.1083  -0.7834
6.282e+09  -0.9257  -0.443  -0.01232  0.001845  0.02721  -0.02905  -0.3629  -0.6846
6.284e+09  -0.9668  -0.03205  0.005903  0.00815  0.0009791  0.01705  -0.5653  -0.5086
6.285e+09  -0.902  0.346  -0.005611  0.001799  0.001207  -0.01826  -0.7339  -0.3083
6.286e+09  -0.7457  0.6429  0.0091  -0.03401  -0.03698  0.0192  -0.7867  -0.0076
6.288e+09  -0.4851  0.8474  0.04164  -0.02424  0.01089  0.007481  -0.7679  0.2993
6.289e+09  -0.1242  1.005  0.009883  -0.00639  -0.000793  -0.02858  -0.5999  0.5202
6.29e+09  0.2055  0.9645  -0.00233  -0.0007482  0.03535  -0.002108  -0.4106  0.6891
6.291e+09  0.4911  0.8202  -0.006537  0.01637  -0.02307  -0.03551  -0.1598  0.7666
6.292e+09  0.8262  0.6197  0.006403  -0.004578  0.04724  6.599e-05  0.1203  0.8249
6.294e+09  0.9908  0.2799  0.03893  0.009334  0.03048  0.01717  0.4001  0.7295
6.295e+09  0.9799  -0.1485  -0.01363  -0.0124  -0.004027  -0.03176  0.6275  0.5484
6.296e+09  0.9176  -0.3661  0.03605  -0.02577  0.001737  0.04576  0.8111  0.2915
6.298e+09  0.7356  -0.7039  -0.009227  0.04642  0.0176  -0.002099  0.8099  0.0196
6.299e+09  0.3574  -0.9358  0.00612  0.002699  0.02742  0.005464  0.7908  -0.2783
6.3e+09  0.04433  -0.9689  0.00751  -0.02892  -0.01889  0.02205  0.6641  -0.5304
6.301e+09  -0.334  -0.9786  -0.0002686  -0.03242  0.01363  0.01901  0.4131  -0.7197
6.302e+09  -0.6606  -0.8086  -0.003707  0.008278  -0.03577  -0.02933  0.145  -0.8693
6.304e+09  -0.9037  -0.537  0.01438  0.02115  0.02787  0.008008  -0.1406  -0.8553
6.305e+09  -0.9702  -0.1972  0.0009098  -0.01302  0.005506  0.005496  -0.4354  -0.7434
6.306e+09  -1.015  0.1171  -0.02899  -0.03585  -0.02577  -0.003065  -0.6641  -0.5563
6.308e+09  -0.8563  0.524  0.02828  0.009071  0.04736  0.02618  -0.7904  -0.3244
6.309e+09  -0.6399  0.7986  0.02985  -0.0154  0.05638  0.01855  -0.8702  -0.0165
6.31e+09  -0.3306  0.9827  -0.02622  -0.02202  -0.01639  -0.004528  -0.8253  0.2679
6.311e+09  0.02663  1.023  -0.04154  -0.004284  -0.04231  -0.005812  -0.6663  0.5521
6.312e+09  0.4247  0.956  -0.001962  -0.03464  -0.07985  -0.03666  -0.4481  0.766
6.314e+09  0.7022  0.7401  -0.005827  0.0227  0.0224  -0.02276  -0.1615  0.86
6.315e+09  0.908  0.4566  0.01827  -0.01856  -0.00542  0.03454  0.1321  0.8446
6.316e+09  0.9913  0.1104  0.0124  0.001855  0.01864  -0.03053  0.4386  0.7495
6.318e+09  0.9949  -0.2657  -0.02176  -0.01331  -0.008871  -0.04983  0.6599  0.5856
6.319e+09  0.9042  -0.6162  -0.008149  -0.009631  0.04143  -0.001231  0.818  0.3274
6.32e+09  0.5597  -0.8629  -0.03653  -0.01392  -0.01999  0.0142  0.8632  0.007349
6.321e+09  0.2428  -1.028  -0.007339  -0.004038  -0.02132  -0.003613  0.8492  -0.2855
6.322e+09  -0.113  -1.067  -0.02271  -0.02106  0.04523  0.003038  0.6821  -0.5471
6.324e+09  -0.4834  -0.9883  -0.02241  -0.003454  0.02397  0.03219  0.4817  -0.7659
6.325e+09  -0.7145  -0.7015  0.01805  0.009015  0.02135  0.02208  0.1827  -0.8898
6.326e+09  -1.021  -0.4232  -0.005038  -0.01212  -0.01298  0.006043  -0.1159  -0.894
6.328e+09  -1.043  -0.01801  0.01282  -0.03941  0.04364  0.04803  -0.4498  -0.7961
6.329e+09  -1.069  0.3847  0.01325  -0.009803  0.008963  -0.00667  -0.6821  -0.5931
6.33e+09  -0.8207  0.7281  -0.0002531  0.01464  -0.01875  0.04358  -0.8304  -0.3148
6.331e+09  -0.5206  0.8827  0.008518  -0.002441  0.009946  0.02729  -0.8902  -0.01565
6.332e+09  -0.2134  1.059  0.007466  0.01473  -0.002456  0.02197  -0.8903  0.2752
6.334e+09  0.2462  1.079  -0.0372  -0.01698  -0.02569  0.02928  -0.6891  0.5635
6.335e+09  0.5784  0.9372  -0.00566  0.007956  0.03563  -0.008269  -0.5136  0.7631
6.336e+09  0.903  0.6601  -0.0291  -0.007391  -0.01009  0.0004467  -0.1721  0.9442
6.338e+09  1.024  0.3115  0.02408  -0.02165  0.005149  0.01953  0.1273  0.897
6.339e+09  1.105  -0.06554  0.02011  0.005625  0.02492  0.04109  0.423  0.7995
6.34e+09  0.9659  -0.4456  0.01643  -0.00323  -0.002148  -0.02734  0.6732  0.6254
6.341e+09  0.7713  -0.7589  0.01902  -0.007603  0.02767  0.007708  0.8489  0.3562
6.342e+09  0.4541  -1.049  0.01505  0.03499  -0.0467  -0.02759  0.9357  0.03718
6.344e+09  0.1013  -1.104  0.009281  -0.02699  -0.03136  0.01304  0.8787  -0.2685
6.345e+09  -0.3418  -1.05  -0.006785  -0.02036  -0.006508  -0.01782  0.7406  -0.5657
6.346e+09  -0.6591  -0.886  -0.00372  0.003141  -0.002151  0.02036  0.5341  -0.7722
6.348e+09  -0.9855  -0.6185  -0.02269  -0.02397  0.02096  -0.00118  0.2325  -0.9258
6.349e+09  -1.092  -0.1956  -0.08024  0.02379  0.006374  -0.03387  -0.1281  -0.9351
6.35e+09  -1.13  0.1842  -0.02012  -0.005303  0.005583  0.00474  -0.4171  -0.8236
6.351e+09  -0.98  0.5641  -0.0005566  0.00242  0.05398  -0.04472  -0.6605  -0.6517
6.352e+09  -0.721  0.8879  0.02044  -0.008262  -0.02781  0.03423  -0.8542  -0.3929
6.354e+09  -0.3746  1.038  -0.03332  0.01804  0.02969  -0.01653  -0.9484  -0.09359
6.355e+09  -0.04334  1.133  0.02046  0.01915  0.03157  0.004261  -0.9512  0.2598
6.356e+09  0.4423  1.054  -0.01223  0.009231  -0.02707  -0.005087  -0.7607  0.5626
6.358e+09  0.7701  0.8877  0.01589  0.007588  -0.01523  -0.01411  -0.5375  0.7981
6.359e+09  1.052  0.564  -0.00449  0.01622  0.04858  -0.0072  -0.2507  0.9533
6.36e+09  1.132  0.1308  0.001766  0.01484  -0.01525  0.01714  0.07558  0.9372
6.361e+09  1.142  -0.3059  0.01148  0.005194  0.008636  -0.01483  0.4091  0.8917
6.362e+09  0.9746  -0.715  0.0505  -0.0171  0.03796  -0.02772  0.6548  0.6503
6.364e+09  0.6459  -0.9549  -0.02001  -0.01515  0.04884  -0.0222  0.8495  0.3947
6.365e+09  0.3  -1.205  0.005872  0.02872  -0.0435  0.01572  0.9504  0.09234
6.366e+09  -0.07674  -1.202  0.01173  0.004123  -0.03283  0.04577  0.9068  -0.2716
6.368e+09  -0.5599  -1.088  0.01138  -0.008657  0.04714  -0.02611  0.7659  -0.5755
6.369e+09  -0.883  -0.8384  -0.02768  -0.01806  0.006226  -0.02881  0.5491  -0.7685
6.37e+09  -1.139  -0.4107  -0.01708  0.008377  0.004865  0.0402  0.2437  -0.9009
6.371e+09  -1.228  -0.04097  0.02435  -0.02742  0.001786  -0.01861  -0.0657  -0.945
6.372e+09  -1.176  0.4145  0.000632  -0.01526  -0.0078  -0.03449  -0.3623  -0.8541
6.374e+09  -1.012  0.7745  0.03417  0.02101  0.01392  -0.006157  -0.6547  -0.682
6.375e+09  -0.6136  1.136  0.02232  -0.02309  -0.01101  -0.01319  -0.8688  -0.4
6.376e+09  -0.1837  1.325  -0.0009469  -0.03313  -0.01933  -0.02481  -0.9468  -0.0775
6.378e+09  0.2467  1.243  0.03344  -0.01692  0.01476  -0.03572  -0.9323  0.2146
6.379e+09  0.71  1.117  0.03973  -0.0008776  0.01922  0.005128  -0.7602  0.5072
6.38e+09  1.053  0.8208  0.0297  0.009983  0.004686  -0.02036  -0.5552  0.7767
6.381e+09  1.32  0.392  -0.01221  0.003877  -0.009024  0.006824  -0.2641  0.9114
6.382e+09  1.412  -0.1135  0.03255  -0.008453  -0.01053  0.01969  0.05805  0.9607
6.384e+09  1.207  -0.6011  0.03275  -0.001266  -0.02026  0.007193  0.3709  0.8724
6.385e+09  0.965  -1.009  -0.01889  -0.0169  -0.01299  -0.02828  0.6383  0.7098
6.386e+09  0.5285  -1.257  0.05641  -0.009681  -0.006271  -0.01048  0.8304  0.4068
6.388e+09  0.04148  -1.43  0.004423  0.05623  0.01622  -0.000416  0.9524  0.1019
6.389e+09  -0.4694  -1.38  0.0319  -0.01301  -0.05963  -0.02203  0.8892  -0.2151
6.39e+09  -0.9091  -1.137  0.06851  0.002556  0.02365  -0.01269  0.7746  -0.5075
6.391e+09  -1.211  -0.7135  0.005797  -0.03681  -0.008288  0.0311  0.5634  -0.7471
6.392e+09  -1.434  -0.1752  0.01407  0.02199  -0.02526  0.01757  0.3241  -0.857
6.394e+09  -1.41  0.3636  0.005564  0.01638  0.04386  -0.026  -0.0127  -0.9181
6.395e+09  -1.292  0.8346  0.02455  0.0434  -0.02556  0.05818  -0.3296  -0.8498
6.396e+09  -0.8971  1.266  0.02086  0.02256  -0.001061  -0.007149  -0.6268  -0.6986
6.398e+09  -0.3696  1.512  -0.02238  -0.009384  -0.03483  0.02525  -0.7918  -0.4693
6.399e+09  0.1355  1.506  0.0539  0.01569  -0.02691  0.004384  -0.9384  -0.1724
6.4e+09  0.6274  1.415  0.01136  -0.01188  -0.01385  0.01633  -0.9271  0.1809
6.401e+09  1.123  1.107  -0.01064  -0.01246  0.01605  0.02197  -0.792  0.5038
6.402e+09  1.465  0.6483  0.05048  -0.02243  0.03148  -0.0356  -0.5812  0.7448
6.404e+09  1.629  0.04108  0.01019  0.01439  -0.006868  0.01619  -0.3303  0.8592
6.405e+09  1.484  -0.5987  -0.0322  -0.0213  -0.0374  -0.03179  0.03142  0.9924
6.406e+09  1.28  -1.121  0.02193  0.03202  -0.0468  -0.003069  0.3312  0.8722
6.408e+09  0.7332  -1.523  0.00465  0.001194  0.02785  -0.05832  0.579  0.694
6.409e+09  0.1901  -1.716  -0.03662  0.02733  -0.06138  -0.02824  0.786  0.4101
6.41e+09  -0.4618  -1.745  0.02895  0.00723  0.03003  -0.03279  0.8966  0.1388
6.411e+09  -1.056  -1.435  -0.01737  -0.02158  -0.04058  0.01446  0.9534  -0.1485
6.412e+09  -1.521  -0.9215  -0.01091  0.04613  0.03598  0.04594  0.812  -0.4198
6.414e+09  -1.859  -0.3096  0.005709  -0.000734  0.00835  -0.002388  0.5616  -0.7183
6.415e+09  -1.791  0.3958  -0.01697  0.009858  -0.02571  0.07929  0.3251  -0.7941
6.416e+09  -1.582  1.042  -0.04152  0.04662  0.004835  0.01202  0.02735  -0.9074
6.418e+09  -1.118  1.543  -0.004614  -0.01242  0.01978  0.03932  -0.2803  -0.8557
6.419e+09  -0.4106  1.878  -0.01285  0.002745  -0.03589  0.04386  -0.5776  -0.6865
6.42e+09  0.2852  1.962  0.01726  -0.01222  -0.004011  0.005723  -0.7729  -0.4567
6.421e+09  0.9425  1.695  -0.02099  -0.01231  -0.001714  0.02265  -0.8992  -0.2064
6.422e+09  1.594  1.212  -0.01344  0.02311  0.03133  -0.03355  -0.8495  0.111
6.424e+09  1.945  0.4956  -0.03731  -0.006832  0.04755  -0.01514  -0.7678  0.4168
6.425e+09  2.049  -0.2271  0.008391  0.04926  0.005652  -0.04382  -0.5884  0.6488
6.426e+09  1.823  -0.9489  0.002296  0.009528  -0.02968  -0.0175  -0.3609  0.7603
6.428e+09  1.274  -1.558  -0.01924  0.01714  -0.04051  -0.0653  -0.07765  0.8575
6.429e+09  0.6691  -1.965  0.01211  0.005279  -0.03493  0.06982  0.2826  0.8398
6.43e+09  -0.1906  -2.065  0.04442  -0.01172  0.01229  -0.02777  0.5208  0.6779
6.431e+09  -0.9366  -1.913  0.0001065  0.01787  -0.03214  -0.02433  0.7334  0.4775
6.432e+09  -1.582  -1.367  0.00341  -0.03734  0.02596  -0.007145  0.8368  0.1889
6.434e+09  -2.044  -0.6736  -0.02429  0.02843  0.02197  -0.007406  0.8457  -0.1199
6.435e+09  -2.096  0.08293  0.06901  -0.01008  0.01108  0.02461  0.7709  -0.3853
6.436e+09  -1.911  0.8691  -0.03891  -0.02058  -0.03317  -0.002849  0.5753  -0.576
6.438e+09  -1.405  1.552  0.003615  -0.005014  0.0108  -0.009306  0.3409  -0.8209
6.439e+09  -0.7164  1.953  0.03368  -0.03268  0.03793  0.009448  0.07997  -0.8479
6.44e+09  -0.005099  2.081  0.02943  0.01832  0.008238  -0.04683  -0.1792  -0.8041
6.441e+09  0.7962  1.864  -0.0008274  0.01631  0.01222  -1.104e-05  -0.488  -0.6791
6.442e+09  1.429  1.402  0.03668  0.03264  0.01694  0.01122  -0.7297  -0.4837
6.444e+09  1.868  0.8553  0.03479  0.01623  -0.01327  0.01472  -0.8114  -0.222
6.445e+09  1.99  0.07631  0.02969  -0.002146  0.0921  0.0644  -0.842  0.08915
6.446e+09  1.941  -0.7095  0.02098  0.001853  0.01569  -0.09705  -0.7878  0.3675
6.448e+09  1.468  -1.296  -0.0233  -0.02882  0.06666  0.001987  -0.5674  0.6393
6.449e+09  0.8693  -1.776  0.02168  0.0358  -0.01096  -0.007401  -0.3668  0.7574
6.45e+09  0.1071  -2.017  -0.05564  0.06252  0.0457  -0.02788  -0.09716  0.8453
6.451e+09  -0.5258  -1.835  0.01973  0.05366  -0.00278  0.03138  0.177  0.764
6.452e+09  -1.194  -1.49  -0.02132  0.01142  -0.002244  0.004967  0.4849  0.629
6.454e+09  -1.664  -0.9605  0.0421  0.02639  0.01054  0.02094  0.7556  0.4757
6.455e+09  -1.836  -0.2508  -0.002616  -0.02322  -0.01107  -0.02873  0.7815  0.1792
6.456e+09  -1.863  0.4146  0.03698  0.01979  0.03285  0.09718  0.8138  -0.0781
6.458e+09  -1.591  1.01  -0.02452  0.02748  0.0002043  -0.005981  0.7358  -0.3538
6.459e+09  -0.9908  1.452  0.02741  0.02068  -0.03346  0.006479  0.5674  -0.5795
6.46e+09  -0.3651  1.766  -0.01647  0.03826  -0.04305  0.02855  0.3474  -0.7121
6.461e+09  0.2862  1.745  -0.005439  -0.03153  0.0237  0.0132  0.02414  -0.8084
6.462e+09  0.8952  1.564  0.05295  -0.02495  -0.03826  -0.03632  -0.2187  -0.8057
6.464e+09  1.329  1.119  -0.02496  0.02104  0.01311  0.02371  -0.4403  -0.6739
6.465e+09  1.6  0.5696  -0.02684  0.0167  0.01197  -0.03344  -0.6346  -0.4649
6.466e+09  1.663  -0.1016  0.01251  -0.04102  -0.02287  0.008845  -0.8086  -0.2121
6.468e+09  1.521  -0.6693  -0.03514  -0.01167  0.005505  -0.0191  -0.8058  0.0928
6.469e+09  1.191  -1.215  0.02355  0.02857  -0.03485  0.04729  -0.7095  0.3335
6.47e+09  0.6448  -1.513  -0.01595  -0.01799  0.02183  0.006008  -0.566  0.5867
6.471e+09  0.07697  -1.648  0.01467  0.001507  0.03063  -0.01081  -0.3498  0.7373
6.472e+09  -0.4478  -1.517  -0.01912  -0.0205  0.09503  0.01566  -0.08787  0.8202
6.474e+09  -1.031  -1.289  -0.004225  0.01909  -0.01872  -0.01501  0.1734  0.7772
6.475e+09  -1.353  -0.7888  0.008819  -0.004692  0.04657  -0.04332  0.4925  0.6468
6.476e+09  -1.597  -0.28  -0.03648  -0.03662  0.006516  0.003202  0.6983  0.4234
6.478e+09  -1.507  0.3337  0.0005939  -0.006169  0.004261  0.01493  0.7676  0.2014
6.479e+09  -1.301  0.8073  -0.01013  0.05182  0.005157  0.05214  0.7614  -0.09393
6.48e+09  -0.9309  1.251  -0.007739  -0.01341  -0.0351  -0.03255  0.6767  -0.2907
6.481e+09  -0.3928  1.501  0.01766  0.008781  -0.02006  0.04327  0.5774  -0.5271
6.482e+09  0.1092  1.54  0.005252  0.01578  0.01594  0.01077  0.3007  -0.7353
6.484e+09  0.5899  1.376  0.00621  0.02912  -0.01894  -0.02866  0.05969  -0.7731
6.485e+09  1.097  1.11  -0.02192  0.01272  -0.02964  0.02939  -0.2268  -0.7691
6.486e+09  1.377  0.5941  -0.009767  0.01072  -0.0419  0.01404  -0.4335  -0.6008
6.488e+09  1.125  0.6981  -0.01156  -0.01115  0.6258  -0.3804  -0.6776  -0.416
6.489e+09  1.413  -0.377  -0.006226  -0.02991  -0.002575  -0.04526  -0.7891  -0.1532
6.49e+09  1.221  -0.8863  0.0005982  0.01277  0.03515  0.03173  -0.7784  0.1023
6.491e+09  0.726  -1.245  0.01999  0.02198  -0.04797  -0.01855  -0.6796  0.3298
6.492e+09  0.2754  -1.455  0.02013  0.001604  0.01113  -0.01175  -0.5191  0.5247
6.494e+09  -0.1575  -1.452  0.0321  0.01035  -0.05747  -0.1291  -0.2947  0.7264
6.495e+09  -0.7744  -1.233  -0.004346  0.009974  0.01736  -0.007786  -0.07478  0.7987
6.496e+09  -1.071  -0.8995  0.0291  0.008643  -0.01358  -0.01643  0.2056  0.7411
6.498e+09  -1.345  -0.501  0.01204  0.02562  0.06526  0.05019  0.433  0.64
6.499e+09  -1.444  0.01924  -0.00801  -0.01987  -0.004872  0.01367  0.6298  0.4338
6.5e+09  -2.579  0.7409  -0.008344  0.005825  0.04138  -0.0255  0.7611  0.1464
6.501e+09  -1.103  0.95  0.03395  0.01694  -0.01199  -0.009042  0.7426  -0.08567
6.502e+09  -0.6211  1.288  0.01267  0.03961  -0.004593  -0.003298  0.6886  -0.3834
6.504e+09  -0.184  1.436  -0.002843  0.006688  -0.007082  0.00522  0.5243  -0.59
6.505e+09  0.295  1.409  -0.006731  0.02879  -0.01297  -0.01773  0.2455  -0.6945
6.506e+09  0.8338  1.231  -0.01768  0.02121  -0.02241  -0.00581  0.005899  -0.7825
6.508e+09  1.12  0.8398  0.03285  0.01548  -0.007422  -0.03419  -0.2754  -0.7261
6.509e+09  1.394  0.433  -0.04545  -0.01975  -0.03825  -0.0205  -0.4713  -0.6002
6.51e+09  1.46  -0.179  0.04213  -0.01854  -0.06477  -0.01486  -0.6455  -0.3851
6.511e+09  1.267  -0.6004  0.01695  0.01212  0.04069  0.04484  -0.7225  -0.1769
6.512e+09  1.08  -1.038  0.0167  -0.01172  -0.02676  0.01255  -0.7395  0.137
6.514e+09  0.6305  -1.387  0.01905  0.02813  -0.0003757  0.01402  -0.6263  0.3948
6.515e+09  0.1126  -1.473  -0.01251  -0.02688  0.00315  0.01131  -0.4559  0.5522
6.516e+09  -0.4237  -1.432  -0.03226  0.0295  -0.03649  -0.04601  -0.2202  0.7294
6.518e+09  -0.8791  -1.131  0.01578  0.002098  0.007854  -0.000454  0.007304  0.7135
6.519e+09  -1.266  -0.8169  -0.04733  0.01243  0.04484  -0.01611  0.2603  0.7115
6.52e+09  -1.498  -0.3108  0.0111  -0.01792  0.0678  0.06306  0.52  0.5534
6.521e+09  -1.509  0.2073  0.0274  -0.01291  0.02143  0.04256  0.655  0.3409
6.522e+09  -1.414  0.7294  0.006833  -0.03536  0.04945  -0.01307  0.7561  0.07478
6.524e+09  -0.991  1.194  -0.007402  0.01759  -0.01851  -0.003578  0.7227  -0.1934
6.525e+09  -0.5292  1.441  0.01668  0.006269  0.02016  -0.008612  0.6188  -0.4265
6.526e+09  0.06827  1.603  0.02051  -0.007391  -0.02363  0.005142  0.45  -0.5739
6.528e+09  0.6049  1.506  -0.01269  0.02191  -0.007721  0.02252  0.2162  -0.6729
6.529e+09  1.092  1.23  0.01061  -0.0008674  0.06188  0.008996  -0.05854  -0.691
6.53e+09  1.48  0.7944  0.03255  0.0007041  0.02173  -0.01362  -0.2499  -0.6048
6.531e+09  1.644  0.1406  0.004545  -0.008318  0.009122  -0.0866  -0.4941  -0.4959
6.532e+09  1.644  -0.3623  -0.0162  -0.01749  0.05033  0.01418  -0.5938  -0.2743
6.534e+09  1.388  -0.9519  -0.0008846  0.009376  -0.06288  -0.01921  -0.6434  -0.04017
6.535e+09  0.9633  -1.401  0.03438  0.02162  -0.006217  0.1019  -0.6335  0.1082
6.536e+09  0.3423  -1.641  0.002875  -0.01908  -0.002938  0.04912  -0.6071  0.3099
6.538e+09  -0.2443  -1.71  -0.005167  0.0003654  0.05343  -0.008151  -0.4798  0.4329
6.539e+09  -0.8283  -1.591  -0.01974  -0.0005225  -0.006081  -0.03514  -0.2809  0.6477
6.54e+09  -1.368  -1.129  0.004908  -0.004039  0.04953  0.0568  -0.04051  0.6635
6.541e+09  -1.697  -0.5861  0.001661  0.0214  -0.0289  -0.00826  0.2053  0.6782
6.542e+09  -1.857  0.04568  -0.02443  -0.01315  0.04621  -0.008336  0.4219  0.5596
6.544e+09  -1.727  0.6715  0.002006  0.009013  -0.001778  0.01753  0.5833  0.3887
6.545e+09  -1.356  1.297  -0.0002831  0.01067  0.01136  0.02198  0.7005  0.1766
6.546e+09  -0.8026  1.679  -0.01562  0.03405  -0.006498  0.003059  0.741  -0.08528
6.548e+09  -0.1435  1.957  0.0001075  -0.009945  -0.00449  -0.01126  0.6889  -0.3143
6.549e+09  0.5421  1.811  0.01188  -0.003146  -0.0395  0.04895  0.5094  -0.5585
6.55e+09  1.216  1.564  -0.02177  -0.002569  0.0185  -0.0338  0.2669  -0.6708
6.551e+09  1.661  0.9688  -0.002742  0.00143  0.04345  0.06074  0.06398  -0.758
6.552e+09  1.92  0.2968  -0.0009069  -0.03187  0.01687  -0.006242  -0.2034  -0.7134
6.554e+09  1.943  -0.3251  -0.03215  0.01378  -0.04037  0.003981  -0.4698  -0.5943
