# Hz S RI R 50
6.25e+09  -0.7473  0.4037  -0.00245  -0.0003185  -0.008411  -0.02035  0.1558  0.5145
6.251e+09  -0.6074  0.6077  -0.01674  -0.00172  0.01304  0.01667  0.3748  0.4295
6.252e+09  -0.313  0.7471  0.02407  -0.008453  0.03698  -0.001065  0.5181  0.2401
6.254e+09  0.04392  0.815  -0.01679  0.01153  0.04752  0.01947  0.6238  -0.0015
6.255e+09  0.2552  0.8074  -0.0136  0.01851  -0.0644  -0.007313  0.5799  -0.1989
6.256e+09  0.4316  0.6515  -0.008592  -0.007153  -0.03613  -0.01118  0.4894  -0.4812
6.258e+09  0.7042  0.4056  0.01981  0.002575  0.07091  -0.05811  0.3075  -0.5842
6.259e+09  0.8281  0.1736  0.01136  -0.01781  -0.01834  -0.006298  0.06612  -0.696
6.26e+09  0.8596  -0.1281  -0.004738  -0.008585  -0.05528  0.03346  -0.2125  -0.6474
6.261e+09  0.6957  -0.4079  0.02666  -0.00119  -0.006525  0.0625  -0.4265  -0.5033
6.262e+09  0.5456  -0.5951  0.01706  -0.02265  0.001378  0.007468  -0.6516  -0.3699
6.264e+09  0.2513  -0.7784  0.02446  -0.01145  0.04643  -0.01449  -0.7256  -0.1197
6.265e+09  0.03161  -0.8823  -0.02902  -0.01126  -0.05294  -0.04028  -0.6726  0.1714
6.266e+09  -0.2896  -0.768  -0.02583  0.00979  0.02929  -0.006992  -0.6324  0.3583
6.268e+09  -0.5541  -0.6709  -0.01801  0.01159  -0.0358  -0.02029  -0.4423  0.5829
6.269e+09  -0.7388  -0.434  0.03183  0.00938  0.003465  -0.01607  -0.2114  0.7585
6.27e+09  -0.8098  -0.1442  -0.0123  0.02449  0.001315  0.004935  0.04498  0.7387
6.271e+09  -0.7924  0.1724  -0.01537  -0.01138  -0.02127  -0.0673  0.2991  0.6685
6.272e+09  -0.771  0.3582  0.009287  0.02597  -0.04037  0.04836  0.5455  0.5033
6.274e+09  -0.5073  0.6101  -0.008028  -0.01195  -0.03137  0.09258  0.6953  0.2888
6.275e+09  -0.2673  0.8155  0.008401  -0.006768  0.02474  0.03797  0.7452  0.02504
6.276e+09  -0.006068  0.8096  -0.01252  -0.01214  -0.0213  -0.05395  0.7216  -0.2287
6.278e+09  0.2576  0.783  -0.009862  0.01383  -0.007273  0.03321  0.6025  -0.4478
6.279e+09  0.5775  0.6547  -0.009874  0.0008284  0.01378  0.004705  0.4162  -0.6012
6.28e+09  0.7678  0.4153  -0.005847  0.009501  -0.007845  0.03778  0.1245  -0.7251
6.281e+09  0.7757  0.1185  -0.03136  -0.003841  0.009835  -0.01407  -0.1074  -0.7583
6.282e+09  0.7754  -0.1243  0.008498  0.0004716  0.02206  0.01789  -0.3379  -0.7027
6.284e+09  0.6921  -0.3841  -0.008345  0.004796  -0.02474  -0.02047  -0.5943  -0.5333
6.285e+09  0.5434  -0.597  -0.008246  0.000114  -0.00617  0.02626  -0.7297  -0.2984
6.286e+09  0.2737  -0.7807  0.004346  0.01183  -0.00282  0.02241  -0.8025  -0.05009
6.288e+09  -0.007045  -0.8867  -0.0005182  -0.06079  0.01747  -0.02617  -0.7193  0.2471
6.289e+09  -0.272  -0.7354  0.007113  0.004516  -0.005312  0.0157  -0.6554  0.4623
6.29e+09  -0.5372  -0.5983  -0.01418  -0.006962  -0.01004  -0.01037  -0.4417  0.6677
6.291e+09  -0.7005  -0.3682  0.001344  0.0233  0.02093  -0.01056  -0.1426  0.7874
6.292e+09  -0.8254  -0.1623  0.02294  0.001563  0.02885  -0.002026  0.11  0.7858
6.294e+09  -0.8123  0.2443  -0.0007424  0.009068  -0.02322  -0.01595  0.4094  0.729
6.295e+09  -0.7167  0.4583  -0.01896  -0.01132  -0.02891  -0.04222  0.5873  0.5541
6.296e+09  -0.4884  0.679  -0.01185  -0.01967  0.01733  -0.003342  0.7701  0.2735
6.298e+09  -0.2268  0.7899  -0.01725  -0.01693  -0.0004464  0.02159  0.8284  0.0295
6.299e+09  0.031  0.7837  0.009411  0.01774  0.02884  0.02976  0.7744  -0.2761
6.3e+09  0.3479  0.775  0.006084  0.02745  0.005824  -0.02734  0.6471  -0.5164
6.301e+09  0.5676  0.6234  0.02389  -0.0163  0.02102  -0.03082  0.4333  -0.7083
6.302e+09  0.7415  0.3666  -0.01057  -0.03074  0.02203  0.02107  0.1323  -0.8114
6.304e+09  0.8616  0.1317  -0.0004063  -0.01331  -0.02608  0.003129  -0.1084  -0.8054
6.305e+09  0.7562  -0.1913  0.02224  -0.001601  -0.03209  -0.02431  -0.408  -0.75
6.306e+09  0.6356  -0.4573  -0.02001  -0.002393  -0.01543  -0.01997  -0.6368  -0.54
6.308e+09  0.4689  -0.679  0.0221  -0.00828  0.02759  9.69e-05  -0.7853  -0.3223
6.309e+09  0.2405  -0.7965  0.01195  -0.0007485  0.02834  -0.0184  -0.8727  -0.01188
6.31e+09  -0.06015  -0.7701  -0.006924  0.01055  0.02873  -0.003355  -0.8093  0.2784
6.311e+09  -0.3754  -0.7134  -0.02382  -0.0004313  0.004096  0.02065  -0.6488  0.5367
6.312e+09  -0.5957  -0.5941  0.005715  0.01526  -0.01638  0.03485  -0.4601  0.7526
6.314e+09  -0.7696  -0.3356  -0.009481  -0.01067  -0.01268  -0.04154  -0.1594  0.8504
6.315e+09  -0.8765  -0.03522  -0.001665  0.02694  0.024  -0.0265  0.1309  0.8414
6.316e+09  -0.7987  0.1791  0.02275  0.02975  0.01246  0.0254  0.4004  0.7575
6.318e+09  -0.6648  0.4528  -0.02665  0.01796  0.0221  -0.02407  0.691  0.5598
6.319e+09  -0.4682  0.7237  0.01202  0.03126  -0.01986  0.03092  0.8128  0.3257
6.32e+09  -0.1863  0.7953  0.0175  -0.01275  0.07429  -0.01212  0.8825  -0.001123
6.321e+09  0.08289  0.8317  0.009261  -0.03098  -0.02384  0.002502  0.827  -0.2714
6.322e+09  0.3713  0.7425  -0.0252  0.006193  -0.006162  0.01386  0.7035  -0.5761
6.324e+09  0.6398  0.5768  0.00806  -0.006266  -0.02623  -0.03265  0.445  -0.7684
6.325e+09  0.7895  0.3102  -0.007718  0.01392  0.05008  0.03925  0.1665  -0.8777
6.326e+09  0.8293  -0.0181  -0.03734  0.008624  0.01528  -0.004578  -0.1431  -0.9169
6.328e+09  0.8666  -0.3159  0.01146  -0.01904  -0.01503  -0.05637  -0.3866  -0.774
6.329e+09  0.6814  -0.5823  0.002348  0.001138  -0.01019  -0.004083  -0.6801  -0.5991
6.33e+09  0.4229  -0.729  -0.006374  -0.000974  -0.0192  -0.003376  -0.8351  -0.3258
6.331e+09  0.1859  -0.8259  0.01933  -0.02045  -0.009192  0.004095  -0.9081  -0.03593
6.332e+09  -0.1437  -0.8308  -0.001998  0.002173  -0.007619  -0.01763  -0.8901  0.2939
6.334e+09  -0.4279  -0.7677  0.02114  0.003036  -0.01145  0.01118  -0.7127  0.5297
6.335e+09  -0.7094  -0.5112  -0.01068  -0.01125  0.009227  0.03134  -0.4938  0.7615
6.336e+09  -0.7981  -0.2855  -0.01834  -0.01405  0.00634  0.006614  -0.2054  0.8904
6.338e+09  -0.8673  0.06811  0.004821  0.03024  0.03414  0.03988  0.1137  0.8783
6.339e+09  -0.7822  0.3615  -0.002201  -0.02458  -0.009679  -0.053  0.4019  0.8072
6.34e+09  -0.633  0.5753  -0.00493  -0.001046  -0.02606  0.005554  0.6677  0.6127
6.341e+09  -0.3385  0.8038  0.02851  0.009355  0.006601  0.005322  0.8295  0.3434
6.342e+09  -0.06777  0.8329  0.003269  0.01798  0.04546  0.04243  0.9215  0.05871
6.344e+09  0.244  0.8351  0.001075  -0.01621  -0.03082  -0.01489  0.8957  -0.2517
6.345e+09  0.4888  0.7043  0.02901  0.0278  -0.01875  -0.01317  0.7179  -0.5647
6.346e+09  0.7464  0.4538  -0.01696  0.02199  0.04503  0.002769  0.512  -0.7665
6.348e+09  0.8608  0.1829  0.004562  0.01139  0.004539  -0.002984  0.2288  -0.8973
6.349e+09  0.8327  -0.1117  0.01072  -0.01717  -0.01462  -0.004813  -0.1148  -0.9288
6.35e+09  0.7472  -0.4041  0.03454  0.0262  -0.008485  -0.003506  -0.428  -0.8558
6.351e+09  0.6002  -0.6741  -0.01644  0.02769  -0.01612  -0.01468  -0.6793  -0.6535
6.352e+09  0.2829  -0.8217  0.02893  -0.0005969  0.01576  0.005862  -0.839  -0.3853
6.354e+09  0.05486  -0.8679  -0.009061  -0.0014  -0.003766  -0.02265  -0.9124  -0.02439
6.355e+09  -0.2981  -0.8014  0.01544  0.0295  -0.0143  0.04513  -0.8877  0.2466
6.356e+09  -0.484  -0.6455  0.002182  0.01291  0.03615  -0.002894  -0.7822  0.5658
6.358e+09  -0.7243  -0.4169  -0.016  0.0008888  0.0296  0.04877  -0.5034  0.7492
6.359e+09  -0.8819  -0.1476  -0.02084  0.04226  -0.04173  0.002836  -0.2435  0.9182
6.36e+09  -0.8912  0.175  0.03369  0.02248  -0.04467  0.01631  0.09312  0.9577
6.361e+09  -0.7736  0.4501  0.02423  0.001542  0.01142  -0.02269  0.4277  0.9158
6.362e+09  -0.5502  0.7312  0.02478  0.01525  -0.006597  0.01208  0.6873  0.6039
6.364e+09  -0.2701  0.8795  -0.00698  -0.04904  -0.001438  0.03126  0.8693  0.3711
6.365e+09  0.0894  0.8823  0.04146  0.04756  0.0107  0.003236  0.9358  0.06484
6.366e+09  0.3571  0.7754  0.01419  -0.009366  0.03516  0.006806  0.9125  -0.258
6.368e+09  0.535  0.6333  -0.02015  -0.02442  -0.01153  -0.006551  0.7701  -0.5387
6.369e+09  0.8443  0.3371  0.0378  0.003123  -0.01517  0.006482  0.5302  -0.7798
6.37e+09  0.861  0.08275  0.008724  0.002353  0.01074  0.01933  0.2522  -0.8932
6.371e+09  0.8455  -0.1915  0.03555  0.000859  -0.02458  0.04388  -0.07544  -0.9628
6.372e+09  0.702  -0.571  -0.0009546  -0.01402  -0.03669  0.01237  -0.3872  -0.8405
6.374e+09  0.4951  -0.7556  -0.004579  -0.005505  0.05814  0.008251  -0.6394  -0.6298
6.375e+09  0.1906  -0.8497  0.004414  -0.006647  0.02403  -0.02386  -0.8531  -0.4198
6.376e+09  -0.1557  -0.9033  0.01527  -0.004442  -0.01744  0.001799  -0.9546  -0.1108
6.378e+09  -0.4104  -0.7974  0.02101  0.05385  -0.02212  0.03025  -0.8952  0.202
6.379e+09  -0.6868  -0.573  0.02288  0.0365  -0.005464  -0.004836  -0.7736  0.4849
6.38e+09  -0.8022  -0.3351  -0.03401  0.01563  -0.00763  -0.03778  -0.5741  0.7708
6.381e+09  -0.8737  -0.0336  -0.002053  0.006463  -0.01981  -0.02344  -0.2178  0.9316
6.382e+09  -0.8701  0.3115  -0.002021  -0.05101  -0.04731  -0.01541  0.06338  0.9641
6.384e+09  -0.7066  0.5599  0.007263  0.005167  0.005834  0.01472  0.3495  0.8548
6.385e+09  -0.4657  0.7587  0.03354  -0.002234  0.002844  -0.03911  0.6488  0.6993
6.386e+09  -0.1057  0.9552  4.985e-05  0.006805  0.02889  -0.02719  0.8202  0.4129
6.388e+09  0.1548  0.8601  0.01886  -0.008843  -0.04418  0.06165  0.9249  0.09862
6.389e+09  0.4528  0.7215  -0.01864  0.02142  0.03359  0.03682  0.877  -0.2138
6.39e+09  0.7435  0.5326  -0.03746  0.02902  0.04745  -0.04176  0.7707  -0.5168
6.391e+09  0.8143  0.2065  -0.01335  -0.01562  0.01452  -0.05577  0.5612  -0.7221
6.392e+09  0.8439  -0.0464  -0.01131  -0.001036  0.01394  -0.01832  0.3044  -0.878
6.394e+09  0.7893  -0.3452  0.004375  -0.01896  -0.02328  -0.005214  -0.0485  -0.8888
6.395e+09  0.668  -0.5901  -0.006545  0.009394  -0.02091  0.04445  -0.3223  -0.843
6.396e+09  0.4006  -0.7818  -0.0389  0.01578  0.05361  0.04353  -0.5998  -0.7361
6.398e+09  0.08888  -0.9005  0.003308  0.03118  0.06369  -0.0101  -0.8312  -0.4441
6.399e+09  -0.1542  -0.8326  -0.00492  -0.01646  -0.02745  -0.01052  -0.9082  -0.1968
6.4e+09  -0.4883  -0.6902  0.04186  -0.04744  -0.0534  -0.02272  -0.8957  0.1475
6.401e+09  -0.7033  -0.4982  -0.02132  0.009405  -0.01555  0.01021  -0.7786  0.4709
6.402e+09  -0.8079  -0.2485  0.01598  0.01756  -0.0177  -0.03493  -0.5739  0.6368
6.404e+09  -0.8831  0.07114  -0.00697  0.0102  0.0007133  0.0099  -0.3374  0.8581
6.405e+09  -0.786  0.3795  0.02819  0.01076  0.01401  0.01432  0.008744  0.9029
6.406e+09  -0.661  0.6053  -0.01785  0.005085  0.03938  -0.03717  0.2984  0.8588
6.408e+09  -0.2935  0.7851  0.04677  0.02545  -0.003162  0.01127  0.5918  0.7395
6.409e+09  -0.05865  0.8811  0.01981  0.005195  -0.02767  0.01449  0.7737  0.4448
6.41e+09  0.2366  0.7898  0.02346  -0.05228  -0.05936  0.01469  0.8828  0.1843
6.411e+09  0.4636  0.6469  0.008534  -0.01994  -0.01942  -0.01576  0.871  -0.1955
6.412e+09  0.7565  0.4167  0.01118  0.01564  0.02549  -0.0392  0.8107  -0.4333
6.414e+09  0.7905  0.1893  -0.0163  0.01442  0.01193  0.01993  0.6154  -0.6693
6.415e+09  0.8947  -0.1397  -0.05762  0.03151  -0.02379  -0.0105  0.3185  -0.8124
6.416e+09  0.7592  -0.3963  0.0746  0.01646  -0.01615  0.007792  -0.005015  -0.8923
6.418e+09  0.5883  -0.6704  0.02627  0.03865  -0.02862  0.0134  -0.3211  -0.8368
6.419e+09  0.2934  -0.7894  -0.007131  -0.01699  -0.02194  -0.0008261  -0.5931  -0.7155
6.42e+09  0.06331  -0.8473  -0.03114  -0.03038  0.002882  0.03789  -0.774  -0.4644
6.421e+09  -0.2793  -0.8526  -0.009938  0.05131  -0.00443  -0.02257  -0.8677  -0.2076
6.422e+09  -0.5842  -0.7066  0.02101  -0.01119  -0.01602  -0.009335  -0.8927  0.1317
6.424e+09  -0.7569  -0.4746  -0.01218  -0.0279  -0.003443  -0.004658  -0.8136  0.3815
6.425e+09  -0.8331  -0.1446  0.01525  0.02868  -0.02607  0.03067  -0.6098  0.6155
6.426e+09  -0.8443  0.1554  0.01827  0.05894  -0.0167  -0.0436  -0.3317  0.851
6.428e+09  -0.7851  0.4789  -0.0247  -0.02416  0.03464  -0.04943  -0.07655  0.9439
6.429e+09  -0.5627  0.6523  0.007535  -0.05642  0.006441  -0.01312  0.2103  0.8873
6.43e+09  -0.3181  0.7962  0.0284  0.06457  -0.02453  -0.006805  0.4884  0.6813
6.431e+09  0.04954  0.8701  0.01217  -0.02037  0.01755  -0.0064  0.7255  0.5328
6.432e+09  0.3465  0.8611  0.02894  -0.03455  -0.01242  -0.02852  0.842  0.2104
6.434e+09  0.5788  0.6272  -0.003879  -0.01244  -0.02094  -0.01146  0.9085  -0.09349
6.435e+09  0.7588  0.4132  -0.008404  0.03745  0.01547  -0.03434  0.7978  -0.402
6.436e+09  0.8728  0.1539  -0.003417  -0.05207  0.01892  0.01419  0.5775  -0.5924
6.438e+09  0.8483  -0.1716  -0.01813  0.0212  -0.0523  7.479e-05  0.3448  -0.7443
6.439e+09  0.7497  -0.4171  -0.005299  -0.05487  0.02842  -0.007017  0.06376  -0.8754
6.44e+09  0.575  -0.6989  -0.01864  0.01937  -0.03141  0.04886  -0.2164  -0.7965
6.441e+09  0.2696  -0.7791  0.02161  0.01639  0.0003602  0.01453  -0.4936  -0.648
6.442e+09  -0.06068  -0.8441  -0.01135  0.01643  0.01579  0.03843  -0.7328  -0.4893
6.444e+09  -0.3545  -0.806  -0.06863  -0.05071  -0.01457  -0.005963  -0.8188  -0.227
6.445e+09  -0.6079  -0.6363  -0.02726  -0.03504  -0.0203  0.01357  -0.8442  0.1187
6.446e+09  -0.784  -0.4091  0.003911  -0.0172  0.01212  0.02278  -0.733  0.3529
6.448e+09  -0.8582  -0.09708  -0.01356  0.03835  -0.01241  0.02766  -0.5968  0.6267
6.449e+09  -0.8217  0.1286  0.04655  -0.01482  0.01289  0.006172  -0.3288  0.7191
6.45e+09  -0.7516  0.4643  -0.01217  0.03147  -0.008058  -0.004284  -0.05005  0.8308
6.451e+09  -0.5262  0.7313  -0.01734  0.0175  0.01999  -0.01798  0.1799  0.8115
6.452e+09  -0.2232  0.8491  0.006885  -0.01957  0.01028  -0.05142  0.4633  0.6858
6.454e+09  0.06018  0.8767  0.04874  0.02798  0.04144  0.002562  0.6844  0.4557
6.455e+09  0.3313  0.7924  0.0251  -0.00328  0.02665  0.01444  0.7904  0.1935
6.456e+09  0.5954  0.6175  0.006872  0.002645  -0.0275  0.03274  0.8412  -0.02776
6.458e+09  0.7911  0.3989  -0.0629  -0.01971  -0.04093  0.009963  0.7457  -0.3567
6.459e+09  0.8441  0.1106  -0.04669  0.02966  -0.02801  0.02243  0.5961  -0.5933
6.46e+09  0.8198  -0.1945  -0.01231  -0.03255  0.02597  -0.01268  0.3276  -0.7573
6.461e+09  0.7693  -0.4594  0.07482  -0.003048  0.01313  0.02367  0.05248  -0.8601
6.462e+09  0.5315  -0.687  0.006004  0.0267  -0.008536  -0.0101  -0.2283  -0.7606
6.464e+09  0.2615  -0.8297  0.03777  0.03838  -0.01357  -0.04915  -0.4484  -0.6681
6.465e+09  -0.06291  -0.8813  0.03381  -0.01278  0.01689  -0.009575  -0.6313  -0.4659
6.466e+09  -0.3601  -0.8052  -0.04519  -0.01876  -0.007853  0.02647  -0.7698  -0.2154
6.468e+09  -0.5558  -0.6  -0.01386  -0.007063  -0.02521  0.008375  -0.7669  0.03529
6.469e+09  -0.7394  -0.3909  0.03014  0.01297  0.002679  -0.01487  -0.7269  0.2828
6.47e+09  -0.8457  -0.05309  0.02794  0.02012  0.02474  0.01774  -0.5856  0.5807
6.471e+09  -0.7953  0.2013  -0.02429  0.02863  -0.02793  -0.006162  -0.3651  0.7212
6.472e+09  -0.6771  0.4392  -0.01582  -0.03719  0.02217  -0.03207  -0.04537  0.7838
6.474e+09  -0.464  0.7011  0.08818  0.02791  -0.02634  -0.04589  0.26  0.7391
6.475e+09  -0.1783  0.81  0.0006086  0.03674  0.02352  -0.009766  0.4645  0.6324
6.476e+09  0.07529  0.9022  -0.02613  0.04153  0.01389  0.006111  0.6533  0.4191
6.478e+09  0.3707  0.7925  0.01213  -0.02511  -0.01216  0.01409  0.7872  0.1884
6.479e+09  0.6031  0.6333  0.02798  -0.03571  -0.04068  -0.06121  0.7694  -0.04257
6.48e+09  0.7729  0.4251  0.02141  -0.02728  0.03565  5.269e-05  0.7263  -0.3393
6.481e+09  0.8675  0.05493  0.003848  -0.02131  0.002471  0.03449  0.5085  -0.5694
6.482e+09  0.8078  -0.2136  -0.04189  -0.02474  0.01638  0.05303  0.3279  -0.6865
6.484e+09  0.7245  -0.5353  0.007052  0.02139  0.02796  -0.02934  0.07994  -0.7538
6.485e+09  0.4983  -0.676  0.004862  -0.007895  0.00117  -0.07552  -0.2141  -0.7103
6.486e+09  0.2725  -0.9138  0.02555  0.02409  -0.002735  -0.01562  -0.4744  -0.6235
6.488e+09  -0.1234  -0.9043  -0.0334  0.0179  0.01216  -0.02307  -0.645  -0.4152
6.489e+09  -0.3499  -0.8276  -0.04384  0.02712  0.02979  0.01179  -0.752  -0.1877
6.49e+09  -0.5847  -0.6497  0.03235  0.00683  -0.0174  -0.01597  -0.7266  0.08468
6.491e+09  -0.8541  -0.3839  0.006853  0.03633  -0.001245  -0.01354  -0.7288  0.3102
6.492e+09  -0.8394  -0.05102  0.01261  0.01095  0.0009754  0.0325  -0.5423  0.5892
6.494e+09  -0.8829  0.2075  0.02484  -0.03562  0.01778  -0.04091  -0.3156  0.6931
6.495e+09  -0.675  0.4973  -0.005748  -0.03475  0.009418  0.001381  -0.04758  0.772
6.496e+09  -0.5243  0.7248  -0.01277  -0.02571  0.002812  -0.009915  0.2297  0.7202
6.498e+09  -0.2546  0.8392  0.01131  0.002387  -0.007519  0.01358  0.5078  0.6094
6.499e+09  0.03465  0.9013  0.03581  -0.03534  0.03626  -0.007714  0.6418  0.3994
6.5e+09  0.411  0.7526  -0.01708  -0.004319  0.01098  -0.01815  0.7596  0.1755
6.501e+09  0.6687  0.5925  0.002035  -0.01552  -0.08116  -0.04357  0.737  -0.1012
6.502e+09  0.7662  0.3835  0.01374  -0.0103  -0.01035  0.03128  0.6669  -0.3391
6.504e+09  0.8779  0.06363  0.007342  0.01752  0.00104  0.002886  0.5039  -0.5661
6.505e+09  0.8944  -0.3027  0.01308  0.01324  -0.007412  -0.04357  0.2548  -0.7416
6.506e+09  0.7378  -0.5202  0.01277  -0.03477  0.009085  0.02839  -0.01798  -0.7649
6.508e+09  0.4878  -0.7611  0.006482  -0.01622  0.04632  0.02294  -0.22  -0.6906
6.509e+09  0.2014  -0.8746  -0.02407  0.0178  0.02803  0.006721  -0.4859  -0.6144
6.51e+09  -0.1276  -0.926  0.01719  -0.01358  -0.0104  -0.02745  -0.6705  -0.3731
6.511e+09  -0.4578  -0.8254  0.0115  -0.007802  -0.01437  -0.02698  -0.7369  -0.179
6.512e+09  -0.7285  -0.6991  0.007814  0.003067  -0.0194  0.0003749  -0.7177  0.1493
6.514e+09  -0.8847  -0.3083  -0.001895  -0.02993  -0.008365  0.01125  -0.6698  0.3851
6.515e+09  -0.8897  -0.04604  0.03197  -0.01112  -0.04509  0.007956  -0.4746  0.5744
6.516e+09  -0.8804  0.3188  0.001426  -0.003884  0.01164  -0.0144  -0.2314  0.7362
6.518e+09  -0.7166  0.5376  0.01295  0.003238  -0.006636  0.01571  0.03956  0.7418
6.519e+09  -0.4744  0.7715  0.006317  0.02744  -0.01124  0.004497  0.2883  0.6661
6.52e+09  -0.1656  0.9045  0.01976  0.02165  -0.01613  0.0646  0.5035  0.5292
6.521e+09  0.1765  0.9633  -0.0305  0.04107  -0.05283  0.008653  0.6264  0.3709
6.522e+09  0.4615  0.7853  -0.004885  3.806e-05  0.02504  -0.02303  0.7477  0.08043
6.524e+09  0.7242  0.5934  0.0159  0.02185  -0.01926  0.01187  0.7037  -0.1136
6.525e+09  0.8567  0.3189  0.009643  -0.005102  0.02796  0.02333  0.6104  -0.3599
6.526e+09  0.9478  0.02487  -0.01264  0.02995  0.01412  -0.04903  0.4182  -0.5641
6.528e+09  0.898  -0.3659  0.05056  0.008783  0.006329  0.002357  0.1955  -0.6799
6.529e+09  0.7292  -0.6178  0.002887  0.009423  0.04248  0.04264  -0.03742  -0.7147
6.53e+09  0.4741  -0.8178  -0.008738  0.02112  -0.01867  0.03717  -0.2366  -0.6272
6.531e+09  0.1735  -0.9199  -0.04467  -0.02233  0.007076  -0.01583  -0.4455  -0.499
6.532e+09  -0.182  -0.9562  -0.002596  -0.005614  0.007863  -0.01761  -0.5686  -0.2765
6.534e+09  -0.5208  -0.7816  -0.01604  -0.013  -0.004249  0.05315  -0.6372  -0.1012
6.535e+09  -0.7773  -0.567  0.002657  -0.03227  0.02465  0.006567  -0.6513  0.09969
6.536e+09  -0.9154  -0.2831  0.01804  0.02481  0.02628  -0.009674  -0.5723  0.3235
6.538e+09  -0.9367  0.04757  -0.007781  0.02102  0.05252  -0.04173  -0.4153  0.4711
6.539e+09  -0.8896  0.4405  0.004106  -0.04082  -0.04926  0.01248  -0.2317  0.6016
6.54e+09  -0.6514  0.6656  -0.01402  0.03002  -0.03907  0.02161  -0.01682  0.6957
6.541e+09  -0.3935  0.8845  0.01312  -0.0004785  -0.007598  0.03072  0.1722  0.6975
6.542e+09  -0.09996  0.98  -0.01494  -0.01409  -0.01943  -0.004151  0.4041  0.5523
6.544e+09  0.307  0.9106  0.02726  0.03059  0.01312  -0.03062  0.5747  0.4014
6.545e+09  0.5529  0.7722  -0.02583  0.03215  -0.01112  0.01965  0.711  0.1596
6.546e+09  0.8735  0.4879  -0.01114  -0.01807  0.01744  -0.002488  0.7177  -0.05534
6.548e+09  0.936  0.2389  0.01775  -0.01673  0.04246  0.009971  0.6484  -0.3186
6.549e+09  0.9206  -0.1432  0.0002848  0.004873  0.02268  -0.07902  0.4562  -0.5217
6.55e+09  0.7916  -0.4714  -0.01047  0.01987  0.009321  0.009007  0.293  -0.6572
