# Hz S RI R 50
6.25e+09  -0.7472  0.114  -0.00696  -0.0318  0.006602  -0.02369  0.1716  0.4489
6.251e+09  -0.6857  0.3881  -0.01203  -0.009999  0.02822  0.05744  0.3501  0.3841
6.252e+09  -0.5256  0.6444  0.0292  -0.01158  -0.0246  0.0138  0.5077  0.2701
6.254e+09  -0.2699  0.7338  -0.005827  0.02774  0.001482  -0.007716  0.6236  0.01167
6.255e+09  -0.002504  0.8356  -0.01166  -0.01222  -0.01884  0.05237  0.6139  -0.2209
6.256e+09  0.2975  0.7717  0.01157  -0.007267  0.01392  0.01869  0.4345  -0.4811
6.258e+09  0.4997  0.5932  0.04063  0.02877  -0.05726  0.03932  0.2707  -0.5879
6.259e+09  0.7487  0.4101  0.03203  -0.01327  0.000908  0.02101  0.02058  -0.6897
6.26e+09  0.7776  0.106  -0.0188  -0.01343  0.008073  0.06308  -0.2195  -0.6495
6.261e+09  0.7471  -0.1671  -0.01733  0.003111  -0.008248  0.0424  -0.4239  -0.5846
6.262e+09  0.676  -0.4356  0.01843  -0.02642  -0.01189  -0.07168  -0.603  -0.3254
6.264e+09  0.4575  -0.64  0.009321  0.03054  -0.0003796  -0.007388  -0.719  -0.1219
6.265e+09  0.3042  -0.782  -0.008888  -0.02693  -0.002302  0.001705  -0.7241  0.1167
6.266e+09  -0.0135  -0.8202  0.0009279  0.004508  0.04257  0.0656  -0.5627  0.3815
6.268e+09  -0.3159  -0.7744  0.02325  0.01007  0.011  0.02398  -0.4369  0.5713
6.269e+09  -0.525  -0.5545  -0.01604  0.04672  0.01648  0.03457  -0.1929  0.6888
6.27e+09  -0.7437  -0.3608  0.005518  0.003354  0.03288  0.05142  0.04822  0.7453
6.271e+09  -0.8541  -0.09148  0.003445  -0.01139  -0.01247  -0.02126  0.3145  0.6824
6.272e+09  -0.7808  0.218  -0.01431  -0.03167  0.01108  0.0002422  0.5223  0.4885
6.274e+09  -0.6869  0.4695  0.01267  -0.03525  -0.02916  -0.03681  0.6652  0.2917
6.275e+09  -0.4936  0.6495  0.01088  0.00398  -0.05429  0.01502  0.7326  0.03704
6.276e+09  -0.2543  0.8611  -0.0005522  0.008476  0.03739  -0.07125  0.7153  -0.2154
6.278e+09  0.07946  0.8095  -0.01045  -0.0157  0.05557  0.02558  0.5734  -0.4788
6.279e+09  0.3833  0.7222  0.005294  0.0006002  -0.02433  -0.03103  0.3785  -0.6371
6.28e+09  0.513  0.5549  -0.00768  -0.002234  -0.01008  0.04107  0.1811  -0.7271
6.281e+09  0.7072  0.3178  0.00791  -0.001509  -0.01714  0.02948  -0.1023  -0.7581
6.282e+09  0.8366  0.04168  0.004546  -0.05052  0.00331  -0.01271  -0.3706  -0.7075
6.284e+09  0.7412  -0.2294  -0.0005396  0.01472  0.005616  -0.02842  -0.6091  -0.5222
6.285e+09  0.623  -0.4841  0.02528  0.03461  0.003134  -0.01781  -0.7382  -0.305
6.286e+09  0.4492  -0.64  -0.003931  0.007394  -0.02431  0.01377  -0.7848  -0.05244
6.288e+09  0.2189  -0.8059  -0.03576  0.04041  0.02159  0.02874  -0.7193  0.2607
6.289e+09  -0.01692  -0.8141  -0.0006167  -0.004999  -0.01348  0.008512  -0.5963  0.508
6.29e+09  -0.3448  -0.7499  0.003058  0.007058  0.02852  0.01454  -0.4167  0.6866
6.291e+09  -0.5773  -0.5984  0.02365  -0.008657  0.04148  0.01932  -0.1513  0.8056
6.292e+09  -0.7475  -0.3029  -0.003255  -0.008033  -0.03181  0.01354  0.1541  0.7865
6.294e+09  -0.7982  -0.06529  0.004573  0.009855  -0.01065  -0.02196  0.4219  0.6982
6.295e+09  -0.7828  0.1843  0.01878  -0.02718  0.01832  0.008525  0.6239  0.5685
6.296e+09  -0.6253  0.5314  -0.01901  -0.01648  0.009427  -0.03125  0.7678  0.2775
6.298e+09  -0.3944  0.7329  0.005267  0.01031  0.04051  0.03766  0.8087  0.03396
6.299e+09  -0.2018  0.8125  -0.0255  -0.01852  0.0454  -0.006598  0.7832  -0.261
6.3e+09  0.1105  0.8385  -0.03036  0.01042  0.03229  0.02666  0.6713  -0.5473
6.301e+09  0.395  0.7112  -0.01689  -0.00187  0.01032  0.02325  0.4302  -0.717
6.302e+09  0.5932  0.5498  0.007903  0.004647  -0.02406  -0.01767  0.157  -0.847
6.304e+09  0.735  0.2934  0.001818  0.01652  0.01996  -0.01162  -0.1628  -0.8608
6.305e+09  0.828  -0.04488  -0.004075  -0.03444  -0.02968  -0.01652  -0.4265  -0.7216
6.306e+09  0.8061  -0.2441  -0.02592  -0.01721  -0.002276  -0.006233  -0.6097  -0.5676
6.308e+09  0.5989  -0.495  0.02397  -0.02015  0.06305  -0.009675  -0.7762  -0.292
6.309e+09  0.4055  -0.7125  0.03038  -0.01851  -0.02453  -0.04756  -0.8216  -0.03318
6.31e+09  0.1347  -0.7821  0.02151  -0.01437  0.01493  0.009104  -0.8276  0.2661
6.311e+09  -0.1299  -0.8268  -0.007241  0.01979  0.0489  0.05261  -0.656  0.5174
6.312e+09  -0.4372  -0.6626  -0.02354  0.01598  -0.0102  -0.004401  -0.4556  0.7547
6.314e+09  -0.6011  -0.5311  -0.00947  0.005231  -0.01262  0.01284  -0.1654  0.8529
6.315e+09  -0.7256  -0.2795  0.01051  -0.02029  0.02527  0.0117  0.1246  0.8383
6.316e+09  -0.8044  0.03583  0.02031  -0.007005  0.01702  -0.0213  0.4367  0.7886
6.318e+09  -0.7816  0.3246  0.02584  0.01152  0.002374  0.06394  0.687  0.5776
6.319e+09  -0.6143  0.565  0.007827  0.003206  0.03611  0.01858  0.8225  0.3244
6.32e+09  -0.3618  0.7295  -0.002472  0.0009801  -0.01204  0.04388  0.8934  -0.005197
6.321e+09  -0.06274  0.7959  0.01246  0.001057  0.04651  -0.05013  0.8406  -0.2631
6.322e+09  0.229  0.8057  -0.002162  -0.007495  0.01873  0.04205  0.6892  -0.5669
6.324e+09  0.4718  0.6858  0.0009993  0.0008841  0.02197  -0.03207  0.4679  -0.7658
6.325e+09  0.6697  0.4748  -0.04084  -0.0056  -0.008113  -0.0431  0.1686  -0.8666
6.326e+09  0.778  0.1825  0.03535  -0.01316  0.04306  0.06076  -0.136  -0.8768
6.328e+09  0.815  -0.06082  0.02106  0.02732  0.01984  -0.03722  -0.4238  -0.8133
6.329e+09  0.7454  -0.3529  -0.02942  -0.004624  0.009131  -0.0142  -0.6661  -0.5755
6.33e+09  0.5723  -0.6094  0.03763  0.0144  0.03603  0.001369  -0.825  -0.3353
6.331e+09  0.3757  -0.7158  -0.006873  0.0199  -0.01799  -0.01421  -0.901  -0.04345
6.332e+09  0.06971  -0.8387  0.008001  -0.001199  0.002595  -0.04757  -0.8827  0.2935
6.334e+09  -0.2282  -0.8336  0.02299  0.03461  0.02104  0.02267  -0.7574  0.5461
6.335e+09  -0.4961  -0.6335  -0.01512  -0.01628  0.02803  0.001243  -0.4788  0.7845
6.336e+09  -0.7384  -0.4335  -0.03825  0.001655  0.01112  -0.006467  -0.1998  0.8922
6.338e+09  -0.8281  -0.1349  -0.01996  0.03243  -0.04154  -0.002444  0.08856  0.8949
6.339e+09  -0.8229  0.08386  -0.03027  0.001376  -0.08747  0.01824  0.4185  0.8062
6.34e+09  -0.7343  0.4257  0.01742  -0.03431  -0.01049  0.02145  0.6956  0.599
6.341e+09  -0.5545  0.6536  0.005881  -0.004165  -0.04813  -0.04741  0.8583  0.3589
6.342e+09  -0.2975  0.8241  0.02586  -0.03375  0.008016  0.008099  0.9567  0.04855
6.344e+09  0.04859  0.8109  0.01416  -0.0219  -0.003826  -0.006869  0.9071  -0.2672
6.345e+09  0.3019  0.8103  0.01682  0.02656  0.03676  0.02021  0.731  -0.5487
6.346e+09  0.534  0.6182  0.004847  0.005888  -0.02301  -0.01972  0.5212  -0.7963
6.348e+09  0.7461  0.4367  0.002761  0.02934  0.009816  0.02792  0.2136  -0.9146
6.349e+09  0.8475  0.06716  -0.03375  0.01627  -0.02433  -0.01831  -0.1079  -0.8991
6.35e+09  0.8066  -0.2089  -0.000596  0.02702  0.01862  -0.006475  -0.4071  -0.8481
6.351e+09  0.7455  -0.4661  -0.01131  0.008667  -0.004153  0.008799  -0.6745  -0.6521
6.352e+09  0.4805  -0.7291  -0.002722  0.0008092  -0.05465  0.02693  -0.8578  -0.3814
6.354e+09  0.2324  -0.8375  -0.02353  0.01316  -0.0024  0.002648  -0.9308  -0.06718
6.355e+09  -0.06985  -0.8788  0.006179  -0.004253  -0.001598  -0.01042  -0.9221  0.2905
6.356e+09  -0.4114  -0.795  0.02242  0.009968  0.006062  0.02552  -0.7664  0.5645
6.358e+09  -0.6415  -0.6153  0.02256  -0.000883  -0.02486  0.01115  -0.5641  0.7773
6.359e+09  -0.8127  -0.3536  -0.01832  0.001101  0.02336  0.02664  -0.2211  0.9383
6.36e+09  -0.8591  -0.05664  -0.01807  -0.0242  -0.01637  0.01151  0.09369  0.9874
6.361e+09  -0.845  0.2983  -0.0128  0.03788  -0.00885  0.01496  0.3984  0.8482
6.362e+09  -0.7106  0.557  -0.01754  0.01135  0.01002  -0.03085  0.6809  0.6343
6.364e+09  -0.4802  0.7443  0.02557  0.008688  -0.006116  0.04505  0.8227  0.4154
6.365e+09  -0.1435  0.8375  -0.01843  0.03763  -0.0196  0.03524  0.9064  0.1283
6.366e+09  0.2064  0.8309  0.0109  -0.01066  0.02413  0.02986  0.9188  -0.2166
6.368e+09  0.4005  0.702  0.01232  0.04506  0.00408  -0.01685  0.7934  -0.5297
6.369e+09  0.6756  0.5599  -0.04981  0.02301  -0.01215  0.02054  0.5448  -0.8243
6.37e+09  0.8369  0.3204  -0.009122  -0.01186  0.01355  -0.01924  0.2333  -0.9014
6.371e+09  0.9182  -0.02614  0.01327  -0.01166  0.00205  0.01924  -0.08523  -0.9534
6.372e+09  0.8761  -0.3022  -0.009927  -0.02117  -0.03986  0.01497  -0.3968  -0.8706
6.374e+09  0.6214  -0.6041  0.01412  0.006312  0.01746  0.02528  -0.6671  -0.6653
6.375e+09  0.4345  -0.817  -0.005664  -0.009061  0.05929  -0.001233  -0.8725  -0.3934
6.376e+09  0.08804  -0.8755  -0.007163  -0.02772  0.0367  -0.009006  -0.8921  -0.1056
6.378e+09  -0.2269  -0.8865  -0.001025  0.01458  -0.0002409  0.01358  -0.9425  0.2418
6.379e+09  -0.4888  -0.6887  -0.0155  -0.007689  0.0142  0.01028  -0.7469  0.502
6.38e+09  -0.7242  -0.4835  -0.05505  -0.02302  -0.006185  -0.006701  -0.5651  0.7731
6.381e+09  -0.8301  -0.182  0.001548  -0.03081  0.02136  0.004697  -0.2914  0.9259
6.382e+09  -0.8735  0.09567  0.01546  -0.01128  0.01339  0.06082  0.06614  0.9468
6.384e+09  -0.7606  0.4355  -0.02354  -0.0188  0.01885  -0.0212  0.3277  0.8378
6.385e+09  -0.5924  0.6326  0.0187  -0.005231  -0.01307  -0.0377  0.6159  0.6522
6.386e+09  -0.2916  0.7857  -0.005763  -0.01144  -0.005269  -0.0137  0.8574  0.4554
6.388e+09  -0.05963  0.9033  -0.01254  0.02076  -0.07133  -0.01059  0.8999  0.1163
6.389e+09  0.2763  0.8521  0.0124  -0.01686  0.0392  -0.01439  0.9378  -0.2097
6.39e+09  0.5651  0.6595  0.004225  0.008281  0.02652  -0.02037  0.7597  -0.4769
6.391e+09  0.7964  0.43  -0.02293  -0.02339  -0.04519  -0.05119  0.5585  -0.6816
6.392e+09  0.8713  0.1567  0.004162  -0.002848  0.01305  0.01516  0.2935  -0.8372
6.394e+09  0.8838  -0.1169  -0.03104  -0.03837  -0.01764  0.007715  -0.06977  -0.8875
6.395e+09  0.7579  -0.4617  0.04332  0.0212  0.01456  -0.02213  -0.3042  -0.89
6.396e+09  0.5668  -0.7155  0.005544  -0.01443  0.02096  -0.008799  -0.6014  -0.6936
6.398e+09  0.2897  -0.8037  0.01073  -0.01917  0.03137  -0.05454  -0.7875  -0.4423
6.399e+09  -0.04396  -0.8815  -0.0227  0.01412  0.002377  0.009353  -0.9126  -0.1352
6.4e+09  -0.3366  -0.841  -0.007154  -0.0484  0.008149  0.0241  -0.8905  0.1592
6.401e+09  -0.6137  -0.6247  -0.02564  -0.003881  -0.01147  0.01518  -0.7915  0.4501
6.402e+09  -0.8198  -0.4283  -0.01604  0.01138  -0.01904  -0.007096  -0.5897  0.7025
6.404e+09  -0.8726  -0.05714  0.03024  -0.0201  -0.001387  -0.002525  -0.3523  0.9071
6.405e+09  -0.8479  0.2168  -0.003807  -0.01562  0.01177  -0.008843  0.01034  0.8734
6.406e+09  -0.6788  0.5117  0.02507  -0.02566  0.02372  -0.03406  0.3576  0.8347
6.408e+09  -0.4848  0.7474  -0.008961  -0.04246  -0.0235  -0.0003568  0.5965  0.738
6.409e+09  -0.1962  0.8472  -0.01772  -0.02551  0.02175  -0.0271  0.7636  0.4784
6.41e+09  0.1161  0.8305  -0.02205  -0.003089  -0.0669  0.01842  0.8685  0.1751
6.411e+09  0.4037  0.7672  -0.01099  -0.03252  0.008877  0.04121  0.902  -0.1057
6.412e+09  0.6709  0.6089  -0.005628  0.01078  0.02056  -0.003151  0.8024  -0.4356
6.414e+09  0.7861  0.3288  0.001531  -0.06376  0.04319  -0.02163  0.6127  -0.6754
6.415e+09  0.9017  0.05627  -0.01982  0.01903  0.005287  0.04088  0.332  -0.8499
6.416e+09  0.7976  -0.2342  -0.002712  0.03071  0.0007577  -0.0306  0.06142  -0.8522
6.418e+09  0.6739  -0.5017  -0.02685  -0.04331  -0.01032  -0.01001  -0.2218  -0.8393
6.419e+09  0.4446  -0.7468  0.0002363  -8.242e-05  -0.01829  -0.03908  -0.5241  -0.7193
6.42e+09  0.2195  -0.8178  -0.03225  0.001252  0.02882  -0.006724  -0.7319  -0.4764
6.421e+09  -0.1396  -0.858  0.01019  -0.0121  0.007111  -0.01792  -0.8745  -0.202
6.422e+09  -0.442  -0.7408  0.01795  0.001773  -3.175e-05  -0.009678  -0.8909  0.0648
6.424e+09  -0.6558  -0.5575  0.01195  -0.03386  0.0248  0.03131  -0.7755  0.4527
6.425e+09  -0.7956  -0.2773  0.003017  0.05059  -0.0182  -0.05764  -0.5913  0.6151
6.426e+09  -0.903  0.01702  -0.01543  0.01104  0.02855  -0.02419  -0.3185  0.7802
6.428e+09  -0.7752  0.3096  5.533e-05  -0.03703  0.05539  0.01544  -0.04057  0.9148
6.429e+09  -0.6597  0.5758  -0.00949  -0.01943  -0.004962  0.05068  0.2453  0.8466
6.43e+09  -0.4636  0.7278  -0.002509  -0.00656  -0.05184  0.000601  0.5318  0.6851
6.431e+09  -0.1437  0.899  -0.05518  0.0136  0.07091  -0.01554  0.7149  0.4656
6.432e+09  0.1811  0.8736  -0.02565  0.01749  -0.01511  -0.003652  0.8644  0.184
6.434e+09  0.3926  0.7092  0.0111  0.03556  0.01503  -0.02148  0.8321  -0.07694
6.435e+09  0.6389  0.5299  0.01681  -0.01242  -0.003686  -0.01226  0.8255  -0.3371
6.436e+09  0.8701  0.2711  0.01217  0.009919  0.03143  -0.0191  0.5835  -0.6295
6.438e+09  0.8664  -0.03174  -0.01455  0.01086  -0.003723  0.0118  0.3651  -0.7796
6.439e+09  0.8149  -0.3358  0.01626  0.03759  -0.02997  0.03652  0.07375  -0.8235
6.44e+09  0.609  -0.5507  0.001029  -0.01002  -0.03713  0.0135  -0.245  -0.8371
6.441e+09  0.4001  -0.7411  -0.01893  0.02709  0.01874  -0.02249  -0.5053  -0.7178
6.442e+09  0.1273  -0.8826  -0.02093  0.0203  -0.01435  -0.009798  -0.6993  -0.4718
6.444e+09  -0.2283  -0.8209  0.005605  -0.002296  0.01116  0.002993  -0.8101  -0.2303
6.445e+09  -0.4344  -0.7539  0.001075  -0.01694  -0.04308  0.01118  -0.8636  0.05752
6.446e+09  -0.7264  -0.5122  -0.03217  0.0158  0.02066  -0.01904  -0.7675  0.371
6.448e+09  -0.7523  -0.2881  0.03428  -0.02748  0.04028  -0.002165  -0.5801  0.6152
6.449e+09  -0.8548  0.07934  0.04402  -0.001494  -0.04377  0.0068  -0.3824  0.7634
6.45e+09  -0.7816  0.3175  -0.05186  -0.01805  -0.03325  9.248e-05  -0.04197  0.8064
6.451e+09  -0.6056  0.6132  -0.001427  -0.01278  -0.02077  -0.00387  0.2369  0.7756
6.452e+09  -0.3899  0.7479  -0.0323  0.01644  -0.03407  -0.07001  0.4658  0.6244
6.454e+09  -0.07684  0.7856  0.001834  -0.03599  0.05164  0.01165  0.6668  0.4813
6.455e+09  0.1747  0.8247  0.0135  0.01732  -0.02164  -0.01183  0.8334  0.1951
6.456e+09  0.4951  0.6974  -0.04223  -0.005056  0.04125  0.02759  0.7549  -0.1216
6.458e+09  0.7005  0.5356  0.01249  -0.01428  0.004656  0.01045  0.7501  -0.3628
6.459e+09  0.8442  0.1828  -0.02629  -0.02225  -0.01881  0.0101  0.5889  -0.5772
6.46e+09  0.8635  -0.06171  0.0445  -0.05699  0.02529  -0.005364  0.3794  -0.732
6.461e+09  0.77  -0.3619  0.009334  0.01547  -0.05873  0.0381  0.0446  -0.7838
6.462e+09  0.6319  -0.6106  -0.0101  -0.01066  -0.03106  0.01469  -0.2361  -0.759
6.464e+09  0.3199  -0.8242  0.008685  -0.01697  -0.02852  0.04552  -0.4718  -0.6762
6.465e+09  0.01448  -0.8359  -0.009289  0.0006141  -0.02211  0.02718  -0.6648  -0.472
6.466e+09  -0.1889  -0.8703  0.02092  0.0031  -0.02628  -0.0106  -0.7482  -0.1803
6.468e+09  -0.4757  -0.6795  0.008797  0.02368  0.002243  -0.02106  -0.8358  0.08927
6.469e+09  -0.7356  -0.5019  0.01877  -0.01345  0.03729  0.01996  -0.7479  0.3125
6.47e+09  -0.802  -0.2072  0.02047  0.002619  0.04613  0.00739  -0.5442  0.5893
6.471e+09  -0.8898  0.112  -0.01673  -0.008081  -0.002405  0.05078  -0.3385  0.7111
6.472e+09  -0.7612  0.3693  -0.01378  0.02697  0.05221  0.05181  -0.01572  0.81
6.474e+09  -0.5895  0.6039  -0.006161  0.04394  -0.01566  0.05144  0.2203  0.7763
6.475e+09  -0.3374  0.7849  -0.04143  -0.01533  0.05793  -0.0007243  0.473  0.6468
6.476e+09  0.0141  0.8809  0.003168  0.01516  0.01647  -0.005096  0.6875  0.4625
6.478e+09  0.1886  0.7767  -0.005766  -0.001076  0.0179  0.008861  0.7695  0.1744
6.479e+09  0.5304  0.7206  -0.01823  0.01951  0.02625  0.008824  0.7556  -0.05311
6.48e+09  0.697  0.4707  -0.04094  0.01228  0.003574  0.03049  0.7286  -0.3519
6.481e+09  0.8163  0.1841  -0.04356  -0.01079  -0.01964  0.004699  0.5699  -0.5337
6.482e+09  0.8871  -0.04091  -0.03116  -0.002303  -0.007339  0.00708  0.3356  -0.7051
6.484e+09  0.7741  -0.4358  -0.004491  0.04481  -0.01369  0.01151  0.07563  -0.7622
6.485e+09  0.5643  -0.6204  0.006132  -0.02065  -0.01965  0.02353  -0.212  -0.7353
6.486e+09  0.3304  -0.807  -0.02457  -0.004872  0.02688  -0.004453  -0.4555  -0.6366
6.488e+09  0.06097  -0.8249  -0.04732  -0.02148  -0.04645  -0.005554  -0.6472  -0.4453
6.489e+09  -0.2172  -0.833  -0.003976  0.01402  -0.008322  -0.02127  -0.7188  -0.2007
6.49e+09  -0.5313  -0.7259  -0.03156  -0.02902  -0.05411  0.01222  -0.782  0.1068
6.491e+09  -0.7422  -0.4686  -0.01242  0.04004  0.04316  -0.0003593  -0.6923  0.3628
6.492e+09  -0.833  -0.2089  0.03035  0.02501  0.01168  0.02852  -0.5377  0.5563
6.494e+09  -0.8584  0.1024  -0.006854  -0.0142  0.02114  0.05015  -0.2875  0.7105
6.495e+09  -0.7509  0.3866  0.02911  0.01968  0.02161  0.0006123  0.0117  0.7613
6.496e+09  -0.5659  0.6228  0.01311  0.007697  -0.008745  -0.007861  0.2382  0.7512
6.498e+09  -0.3079  0.8154  -0.01528  -0.004874  -0.01506  -0.01657  0.4862  0.6326
6.499e+09  0.0464  0.8988  0.004284  -0.007685  -0.01295  -0.03365  0.6218  0.3812
6.5e+09  0.2648  0.8241  0.05491  0.00535  -0.04507  0.01563  0.7391  0.162
6.501e+09  0.5414  0.6826  -0.005609  0.009423  -0.04118  -0.003398  0.7639  -0.07546
6.502e+09  0.7606  0.4649  -0.004879  -0.01159  0.01817  0.03924  0.6442  -0.3608
6.504e+09  0.8862  0.1444  0.02026  -0.05041  -0.006978  0.04749  0.5029  -0.5798
6.505e+09  0.8493  -0.1333  0.02911  0.02965  0.02782  -0.003743  0.2712  -0.724
6.506e+09  0.7032  -0.45  0.003961  -0.003422  -0.01138  -0.01507  0.02491  -0.7793
6.508e+09  0.5826  -0.5955  -0.004797  -0.02062  0.008347  -0.02153  -0.2461  -0.7393
6.509e+09  0.3259  -0.8555  -0.03688  0.00145  0.01296  -0.006327  -0.4156  -0.6113
6.51e+09  -0.003797  -0.9134  0.04652  -0.01577  -0.04031  -0.0161  -0.6484  -0.3951
6.511e+09  -0.3371  -0.8595  -0.01084  -0.005269  -0.02589  -0.04551  -0.711  -0.09871
6.512e+09  -0.5859  -0.6933  0.009047  -0.01378  0.03823  0.0204  -0.7279  0.1207
6.514e+09  -0.7948  -0.4712  0.01995  0.03236  0.03952  -0.01895  -0.632  0.3984
6.515e+09  -0.9251  -0.162  0.01108  0.01304  -0.001904  -0.002556  -0.4781  0.5889
6.516e+09  -0.8696  0.174  -0.01433  -0.01827  0.009336  0.0373  -0.2234  0.6853
6.518e+09  -0.7751  0.4387  0.04194  -0.03728  0.06209  -0.007112  0.03282  0.7352
6.519e+09  -0.574  0.7366  0.004164  0.0006074  0.00727  -0.005886  0.2764  0.6894
6.52e+09  -0.2888  0.8359  0.00618  -0.001677  0.01938  0.02428  0.5042  0.5662
6.521e+09  0.04762  0.8831  0.0119  0.007855  -0.02622  -0.01121  0.6502  0.3123
6.522e+09  0.2987  0.8448  -0.01407  -0.009671  0.006793  0.0124  0.7122  0.1346
6.524e+09  0.5977  0.6825  0.006127  -0.002252  -0.004827  0.02359  0.6967  -0.1558
6.525e+09  0.8296  0.4673  -0.006984  -0.006162  -0.0003695  0.004654  0.5972  -0.4266
6.526e+09  0.9041  0.137  0.005143  -0.005515  -0.03881  0.006473  0.4384  -0.5435
6.528e+09  0.9007  -0.1928  0.001872  -0.007077  0.002152  0.01797  0.2042  -0.682
6.529e+09  0.7621  -0.5041  -0.01193  -0.004831  0.006454  0.00512  -0.04925  -0.6966
6.53e+09  0.611  -0.7259  -0.001727  0.01392  -0.006448  0.00412  -0.2582  -0.6257
6.531e+09  0.2609  -0.9313  0.001974  0.009752  0.001537  -0.002952  -0.4668  -0.4765
6.532e+09  -0.05914  -0.9768  0.00869  -0.04047  -0.03127  -0.002978  -0.585  -0.2925
6.534e+09  -0.4201  -0.8457  -0.01001  0.013  0.0255  0.09281  -0.6226  -0.06087
6.535e+09  -0.6636  -0.6285  -0.0131  -0.001249  -0.06163  0.01364  -0.6064  0.1476
6.536e+09  -0.8071  -0.4081  0.005445  -0.01324  0.00217  0.03518  -0.5879  0.2816
6.538e+09  -0.9404  -0.08487  0.0124  0.009548  0.03374  0.0157  -0.4058  0.4646
6.539e+09  -0.8801  0.3029  0.01373  0.01442  0.02246  0.006792  -0.2858  0.6029
6.54e+09  -0.7493  0.5727  -0.009445  0.006072  0.002615  -0.0132  -0.06728  0.676
6.541e+09  -0.5095  0.8104  0.002008  -0.0283  -0.02801  -0.009088  0.2  0.6621
6.542e+09  -0.1847  0.9392  6.168e-05  -0.03002  -0.02716  -0.008684  0.3971  0.5547
6.544e+09  0.1494  0.9685  0.008132  0.02395  0.01303  -0.02807  0.5757  0.3994
6.545e+09  0.4446  0.8235  -0.02623  -0.001631  0.02736  0.007847  0.6856  0.1619
6.546e+09  0.7495  0.596  -0.0303  0.04304  -0.0006467  -0.03722  0.7059  -0.07945
6.548e+09  0.8816  0.3687  0.007708  0.01831  0.03532  0.02382  0.6825  -0.319
6.549e+09  0.9894  0.03801  -0.01405  0.00485  0.02193  -0.03415  0.5036  -0.54
6.55e+09  0.9005  -0.3188  -0.01199  0.03668  0.007624  0.001405  0.2504  -0.6589
