# Hz S RI R 50
6.25e+09  -0.4107  0.7058  -0.02292  0.0001121  -0.05889  0.01737  0.1451  0.4839
6.251e+09  -0.08144  0.8718  -0.01927  0.007612  -0.04637  -0.002361  0.3448  0.4172
6.252e+09  0.1765  0.7924  -0.006631  0.01657  0.004132  0.06598  0.5322  0.2409
6.254e+09  0.4623  0.7805  -0.02124  0.02457  -0.007378  -0.01424  0.5762  0.01228
6.255e+09  0.6847  0.4945  -0.009771  0.0003144  0.05767  -0.006637  0.6006  -0.2048
6.256e+09  0.7842  0.3131  -0.007526  -0.02358  -0.01196  0.007448  0.4875  -0.4564
6.258e+09  0.8295  -0.05365  -0.0007163  0.02662  0.01228  0.03852  0.2993  -0.6133
6.259e+09  0.7498  -0.2904  0.02364  0.00433  -0.05182  -0.0009636  0.05279  -0.6674
6.26e+09  0.6255  -0.572  0.005135  -0.02282  -0.04141  0.04333  -0.2124  -0.6574
6.261e+09  0.4141  -0.7699  0.003506  0.00602  -0.01399  -0.04977  -0.4221  -0.5287
6.262e+09  0.1307  -0.8393  -0.01106  0.01799  0.04821  -0.067  -0.567  -0.3583
6.264e+09  -0.2023  -0.7742  -0.02372  -0.004231  0.002726  -0.02522  -0.6935  -0.09955
6.265e+09  -0.4777  -0.6968  -0.007565  0.002724  -0.01012  -0.01887  -0.6992  0.142
6.266e+09  -0.6673  -0.52  0.005357  0.00431  0.0652  -0.01272  -0.6169  0.4256
6.268e+09  -0.7855  -0.2664  0.009994  -0.01726  -0.001286  0.03901  -0.431  0.5939
6.269e+09  -0.8433  0.07508  0.01293  0.0231  0.01625  -0.04227  -0.1866  0.7027
6.27e+09  -0.7399  0.381  0.003388  -0.004123  0.002822  -0.02316  0.06351  0.765
6.271e+09  -0.5856  0.644  -0.01129  -0.01011  0.008517  -0.04117  0.3163  0.6873
6.272e+09  -0.3125  0.7644  -0.02476  0.006527  -0.005524  0.01442  0.5413  0.5231
6.274e+09  -0.05719  0.7573  -0.01626  -0.01368  0.00278  0.03176  0.6977  0.2762
6.275e+09  0.2165  0.7817  0.01417  -0.01335  0.0382  -0.01781  0.7643  0.03902
6.276e+09  0.4664  0.6732  0.04635  0.001452  -0.01003  0.03975  0.7359  -0.2113
6.278e+09  0.6977  0.5049  -0.01675  0.02297  -0.02558  0.01652  0.6104  -0.4438
6.279e+09  0.7887  0.2103  0.01195  -0.01454  -0.009625  -0.01133  0.4251  -0.6313
6.28e+09  0.8175  -0.0521  -0.01794  0.01934  0.02922  0.0003406  0.1524  -0.7384
6.281e+09  0.6616  -0.3588  0.01777  -0.0122  0.05179  0.0361  -0.1207  -0.7796
6.282e+09  0.6602  -0.6163  -0.002495  -0.00608  -0.03341  0.03765  -0.3706  -0.7007
6.284e+09  0.3264  -0.773  0.01249  -0.02033  0.04278  0.05499  -0.5896  -0.5385
6.285e+09  0.08192  -0.823  0.03385  -0.0301  0.0008632  0.01061  -0.7175  -0.2651
6.286e+09  -0.2307  -0.8174  0.01456  0.01364  -0.001729  0.0138  -0.8159  -0.01883
6.288e+09  -0.4726  -0.722  0.02801  -0.003435  0.01723  0.00871  -0.7619  0.2446
6.289e+09  -0.7354  -0.4776  0.01999  0.03009  0.001959  -0.02289  -0.6279  0.5074
6.29e+09  -0.8361  -0.2078  -0.009151  -0.03963  -0.002187  0.02391  -0.3721  0.6555
6.291e+09  -0.7978  0.03235  -0.02206  0.0306  0.05336  0.02921  -0.1384  0.815
6.292e+09  -0.7368  0.3594  -0.007505  -0.01877  -0.06807  -0.01323  0.1322  0.7974
6.294e+09  -0.5321  0.5617  -0.01596  -0.03092  0.03425  0.05611  0.4003  0.711
6.295e+09  -0.312  0.759  0.008988  0.01126  0.04045  0.03361  0.6064  0.5498
6.296e+09  -0.05101  0.8488  -0.0193  -0.0001555  -0.01963  0.04156  0.7541  0.3091
6.298e+09  0.2438  0.8198  0.03138  -0.02659  0.02624  -0.02428  0.8323  -0.001514
6.299e+09  0.4726  0.634  0.001413  -0.03662  -0.006524  0.01287  0.7927  -0.2633
6.3e+09  0.7041  0.4484  0.01999  0.001079  0.009892  -0.007119  0.6274  -0.5325
6.301e+09  0.8596  0.2059  0.01398  -0.004082  0.01432  0.05761  0.416  -0.7169
6.302e+09  0.818  -0.1808  0.003734  0.02171  -0.01547  -0.01078  0.149  -0.817
6.304e+09  0.6678  -0.3918  -0.004186  0.0158  0.01854  -0.01444  -0.1114  -0.8381
6.305e+09  0.5356  -0.6047  -0.01197  0.01554  0.03335  -0.01176  -0.3914  -0.7707
6.306e+09  0.281  -0.7609  -0.01453  0.03842  0.01672  0.01937  -0.6691  -0.5502
6.308e+09  -0.03087  -0.8743  0.02643  0.02499  0.02273  -0.01581  -0.7824  -0.2878
6.309e+09  -0.2249  -0.7385  -0.02761  0.01798  0.00428  0.05782  -0.8781  -0.007131
6.31e+09  -0.4962  -0.6138  -0.009509  0.008777  -0.04947  0.04412  -0.8005  0.2696
6.311e+09  -0.7679  -0.4045  -0.008799  0.008952  0.01814  -0.02933  -0.6804  0.4956
6.312e+09  -0.7761  -0.1505  0.009184  -0.001494  -0.02312  0.03666  -0.4306  0.7445
6.314e+09  -0.793  0.1443  -0.02752  0.01707  0.04141  0.02846  -0.1534  0.8613
6.315e+09  -0.7127  0.3773  0.00721  -0.004669  -0.009366  -0.03766  0.1325  0.8602
6.316e+09  -0.563  0.6582  0.003762  0.006978  -0.006831  -0.0201  0.4374  0.7796
6.318e+09  -0.2978  0.7893  0.03186  -0.0175  -0.02154  -0.03536  0.6773  0.6114
6.319e+09  0.06404  0.8149  -0.0152  0.0137  0.002816  -0.01487  0.8389  0.3004
6.32e+09  0.314  0.8046  -0.01774  -0.0157  -0.04578  0.02054  0.8946  0.02835
6.321e+09  0.5814  0.6332  0.03527  0.02932  -0.04703  -0.01628  0.8384  -0.2735
6.322e+09  0.7457  0.3975  -0.008715  -0.04215  -0.001841  0.0134  0.6604  -0.5443
6.324e+09  0.8837  0.06845  -0.01373  0.0005102  -0.007611  0.02005  0.4748  -0.7571
6.325e+09  0.7902  -0.2172  0.01004  -0.001819  0.0003602  0.0112  0.1522  -0.8833
6.326e+09  0.7361  -0.4876  -0.002571  0.02929  0.004559  -0.004088  -0.1323  -0.8692
6.328e+09  0.537  -0.6934  0.01758  0.0005527  -0.06575  0.01595  -0.4336  -0.7806
6.329e+09  0.2313  -0.8115  0.01923  -0.01374  -0.004455  0.04591  -0.6732  -0.6226
6.33e+09  -0.05845  -0.8843  -0.01197  -0.01123  0.004493  -0.02614  -0.8373  -0.3174
6.331e+09  -0.363  -0.7493  -0.02731  0.00401  0.05634  0.01008  -0.9015  -0.05578
6.332e+09  -0.6552  -0.597  0.0156  0.003813  0.006985  0.008697  -0.8833  0.2763
6.334e+09  -0.786  -0.3537  0.005635  0.0001115  0.03528  -0.004602  -0.7429  0.5907
6.335e+09  -0.8606  -0.06214  0.006029  -0.02684  -0.0403  0.009679  -0.4537  0.7509
6.336e+09  -0.8641  0.2599  -0.0009234  0.03632  -0.01027  0.01205  -0.1828  0.8889
6.338e+09  -0.6248  0.5274  0.01067  -0.01434  -0.01034  0.0222  0.1322  0.8941
6.339e+09  -0.4838  0.7124  -0.005073  -0.006536  -0.001625  0.02427  0.425  0.8235
6.34e+09  -0.1961  0.9097  -0.01424  0.02796  -0.027  -0.05569  0.6975  0.6228
6.341e+09  0.1425  0.8817  -0.0247  -0.001922  -0.009457  0.01344  0.8638  0.3519
6.342e+09  0.4476  0.778  0.01666  0.01645  0.01231  -0.0343  0.9306  0.05366
6.344e+09  0.6314  0.5389  0.03344  0.02596  0.0474  -0.03371  0.8707  -0.2942
6.345e+09  0.7625  0.3287  -0.01112  0.02284  0.0302  -0.008269  0.7583  -0.5454
6.346e+09  0.8684  -0.0523  -0.0007121  -0.002799  -0.0008293  0.05441  0.5038  -0.8297
6.348e+09  0.8092  -0.2569  0.007799  -0.006299  -0.009735  0.02493  0.2061  -0.8967
6.349e+09  0.6842  -0.5757  -0.01808  0.006127  0.00554  0.03359  -0.1173  -0.9441
6.35e+09  0.4214  -0.7634  -0.003733  -0.005855  -0.007928  0.004781  -0.4138  -0.847
6.351e+09  0.1215  -0.9372  0.00249  0.007671  0.0156  -0.006737  -0.6745  -0.6535
6.352e+09  -0.1695  -0.8868  -0.005145  -0.005433  -0.01641  -0.03499  -0.8111  -0.3935
6.354e+09  -0.4299  -0.7294  -0.00898  0.001755  0.02069  -0.002636  -0.9423  -0.05419
6.355e+09  -0.6832  -0.5363  -0.01309  -0.0126  0.03087  -0.03246  -0.9109  0.2356
6.356e+09  -0.8456  -0.2554  -0.006071  -0.05664  0.04526  0.03579  -0.7551  0.5684
6.358e+09  -0.8492  0.06258  -0.004726  -0.03162  -0.0245  -0.03659  -0.4972  0.7825
6.359e+09  -0.7979  0.347  -0.0009506  -0.02396  -0.02499  -0.006953  -0.253  0.9056
6.36e+09  -0.591  0.5987  -0.02009  -0.008715  -0.02225  0.01657  0.118  0.9523
6.361e+09  -0.4324  0.8218  0.01623  -0.0007611  -0.002599  0.01844  0.421  0.8717
6.362e+09  -0.05136  0.8764  -0.01136  -0.0095  -0.01096  0.001286  0.6732  0.6676
6.364e+09  0.2131  0.8581  0.004809  0.004562  -0.0004296  0.06111  0.8646  0.364
6.365e+09  0.4982  0.7314  -0.01266  -0.03228  -0.02648  -0.02045  0.9408  0.1108
6.366e+09  0.7099  0.4605  -0.01954  -0.0003896  -0.003537  0.0006417  0.8948  -0.2352
6.368e+09  0.8879  0.1806  0.0178  -0.00049  0.007157  -0.03811  0.7742  -0.5414
6.369e+09  0.8542  -0.1348  0.0005341  0.03294  -0.002325  0.01141  0.5033  -0.7401
6.37e+09  0.8212  -0.4098  -0.01568  -0.007781  -0.02409  0.004393  0.2366  -0.9034
6.371e+09  0.6057  -0.6132  -0.008392  0.0007649  -0.004013  0.004079  -0.08925  -0.9641
6.372e+09  0.3757  -0.7917  -0.01787  0.004545  0.02933  -0.00178  -0.3636  -0.8536
6.374e+09  0.03042  -0.8998  0.01328  0.003513  0.03694  -0.01346  -0.6668  -0.6452
6.375e+09  -0.296  -0.8289  0.02267  0.02081  0.01535  0.009162  -0.8571  -0.3832
6.376e+09  -0.5589  -0.7384  -0.0003173  -0.000623  -0.02018  0.008812  -0.9625  -0.06673
6.378e+09  -0.7654  -0.3918  -0.008667  -0.01462  0.01105  -0.0291  -0.8987  0.2326
6.379e+09  -0.862  -0.2027  0.03536  0.002371  -0.02843  0.008057  -0.7923  0.5087
6.38e+09  -0.8809  0.1505  0.0106  0.01314  0.01735  0.03046  -0.5355  0.7519
6.381e+09  -0.7959  0.4296  -0.02345  0.02978  0.0383  0.04492  -0.2443  0.8744
6.382e+09  -0.5865  0.6823  -0.007945  -0.03717  0.001518  0.03538  0.03161  0.9009
6.384e+09  -0.3073  0.8332  0.01419  -0.00521  -0.01014  0.01799  0.3849  0.8861
6.385e+09  0.01181  0.9524  0.02252  0.002118  0.01206  0.02585  0.65  0.7018
6.386e+09  0.2899  0.8304  0.02865  0.00742  -0.02403  0.005565  0.8137  0.4323
6.388e+09  0.611  0.6729  -0.0005804  -0.02917  -0.006278  -0.01306  0.9357  0.09412
6.389e+09  0.8001  0.3797  -0.02639  -0.008385  0.01962  0.04285  0.9576  -0.2052
6.39e+09  0.8772  0.08493  0.05039  0.01898  0.008425  0.006866  0.7815  -0.5026
6.391e+09  0.9025  -0.2175  0.01363  0.02029  0.01229  -0.005047  0.5978  -0.7347
6.392e+09  0.7444  -0.438  0.005879  0.008014  -0.04971  -0.02978  0.2827  -0.8861
6.394e+09  0.5532  -0.7186  -0.02793  0.06916  0.02449  0.0437  -0.03324  -0.9026
6.395e+09  0.2728  -0.8569  -0.02805  0.03958  0.02168  -0.04246  -0.3043  -0.8886
6.396e+09  -0.02333  -0.8726  0.003153  0.008564  -0.01308  0.0004849  -0.6174  -0.6782
6.398e+09  -0.3776  -0.8158  0.05146  0.01658  -0.00187  0.009156  -0.8153  -0.4304
6.399e+09  -0.5702  -0.6236  0.007777  -0.03243  -0.009814  -0.01256  -0.8884  -0.1649
6.4e+09  -0.796  -0.4179  0.05869  -0.03542  -0.02967  0.01864  -0.8626  0.1979
6.401e+09  -0.892  -0.1416  -0.004636  0.04933  0.002051  -0.01338  -0.8018  0.454
6.402e+09  -0.8635  0.2054  -0.01755  0.01477  0.01048  0.03357  -0.6043  0.7019
6.404e+09  -0.7167  0.4578  -0.06626  -0.03293  0.005672  0.02587  -0.2526  0.8376
6.405e+09  -0.5211  0.7082  -0.0001647  0.01354  -0.01441  -0.04784  -0.02256  0.9269
6.406e+09  -0.2518  0.8601  -0.0004526  -0.006066  0.02477  -0.03922  0.3276  0.8416
6.408e+09  0.03861  0.8365  0.03117  -0.05289  0.009385  -0.01749  0.5654  0.7448
6.409e+09  0.3599  0.7689  -0.05491  0.01673  0.0145  0.02548  0.7695  0.4672
6.41e+09  0.6163  0.5763  -0.006474  0.03916  -0.01892  -0.03991  0.8933  0.1894
6.411e+09  0.7984  0.4179  0.04119  -0.02861  0.03148  0.001223  0.8674  -0.1804
6.412e+09  0.8569  0.1015  0.00817  0.01428  0.0188  -0.01925  0.8008  -0.4152
6.414e+09  0.8381  -0.228  -0.05175  0.0113  0.03223  0.03885  0.6201  -0.6776
6.415e+09  0.7051  -0.5194  0.004052  -0.005899  -0.005059  0.002924  0.3287  -0.8095
6.416e+09  0.541  -0.7181  0.01387  -0.01825  -0.008138  0.01054  0.05314  -0.9011
6.418e+09  0.1835  -0.8073  0.02755  -0.03172  -0.00392  0.01024  -0.2863  -0.8668
6.419e+09  -0.0534  -0.8761  -0.005697  -0.01838  0.01351  -0.00841  -0.5379  -0.7375
6.42e+09  -0.3976  -0.8053  -0.04733  -0.0007117  0.0037  -0.01338  -0.7403  -0.4783
6.421e+09  -0.6183  -0.6408  0.02303  -0.01647  0.03926  -0.04321  -0.8784  -0.2439
6.422e+09  -0.7538  -0.3888  -0.01448  0.03582  -0.01263  0.03082  -0.8822  0.07512
6.424e+09  -0.9167  -0.06055  0.002933  -0.007605  -0.002145  -0.06487  -0.7979  0.4048
6.425e+09  -0.8637  0.1964  -0.03363  0.01556  0.02718  -0.02407  -0.5397  0.6785
6.426e+09  -0.7232  0.5132  0.006794  -0.007416  -0.02687  -0.0002743  -0.3948  0.7818
6.428e+09  -0.4752  0.6864  -0.02524  -0.009437  -0.0003704  0.05545  -0.0373  0.8315
6.429e+09  -0.1915  0.8837  0.004667  0.006654  -0.01023  -0.02722  0.2332  0.7684
6.43e+09  0.06715  0.8735  -0.02708  -0.03162  0.02407  0.0175  0.511  0.6876
6.431e+09  0.3686  0.7939  0.01174  -0.01664  0.05574  -0.01182  0.682  0.4598
6.432e+09  0.5915  0.6233  0.004585  0.009419  0.007008  0.004283  0.8374  0.2431
6.434e+09  0.8323  0.3608  0.01813  0.0002711  0.008015  0.08666  0.8572  -0.1033
6.435e+09  0.8611  0.06307  0.0009432  0.009937  0.03723  0.03788  0.6998  -0.3573
6.436e+09  0.8026  -0.2583  -0.02224  0.02943  0.01985  0.02175  0.5974  -0.6001
6.438e+09  0.7124  -0.5485  0.01698  0.03207  -0.005648  -0.01603  0.3379  -0.766
6.439e+09  0.4628  -0.7588  -0.0001613  0.0258  0.07383  -0.08029  0.07456  -0.8836
6.44e+09  0.2335  -0.8603  -0.01542  0.02842  -0.02246  -0.01264  -0.2154  -0.8139
6.441e+09  -0.08472  -0.9114  0.01331  -0.04003  -0.04495  -0.02327  -0.4556  -0.6912
6.442e+09  -0.4244  -0.8072  -0.02869  -0.04235  -0.04678  -0.007267  -0.7064  -0.4551
6.444e+09  -0.6602  -0.5826  0.008455  -0.001057  0.02892  -0.05131  -0.8349  -0.2191
6.445e+09  -0.7587  -0.3683  0.004704  0.02721  0.02653  -0.0007942  -0.8474  0.07548
6.446e+09  -0.8642  -0.08004  0.003259  0.001174  -0.004558  0.04222  -0.7915  0.2924
6.448e+09  -0.8225  0.3074  0.02311  -0.03126  0.002862  0.0111  -0.5839  0.5794
6.449e+09  -0.6893  0.5402  -0.0002063  -0.02696  0.03654  0.02598  -0.333  0.7869
6.45e+09  -0.5154  0.7327  0.04695  -0.006571  -0.003304  0.00464  -0.09501  0.8446
6.451e+09  -0.1916  0.8347  -0.008903  0.02433  0.02894  -0.03159  0.2259  0.7889
6.452e+09  0.1093  0.9221  0.01452  0.001825  -0.008976  0.06728  0.4771  0.6766
6.454e+09  0.4197  0.7715  -0.01012  0.009594  -0.000105  0.02454  0.6739  0.4385
6.455e+09  0.7048  0.5689  0.03193  0.02225  -0.03735  -0.01159  0.8164  0.2181
6.456e+09  0.8571  0.3589  -0.01783  0.01144  -0.008499  0.05223  0.8211  -0.1007
6.458e+09  0.918  0.04916  -0.02252  0.01635  -0.003084  0.0166  0.7054  -0.329
6.459e+09  0.859  -0.305  -0.01551  -0.0138  -0.02737  -0.02325  0.5899  -0.6023
6.46e+09  0.7122  -0.5176  -0.0273  0.01443  -0.04824  0.01411  0.371  -0.7755
6.461e+09  0.4572  -0.7021  0.03099  -0.02237  0.03615  -0.01366  0.03535  -0.7957
6.462e+09  0.1631  -0.8894  0.05915  -0.05922  -0.01926  -0.01322  -0.233  -0.8053
6.464e+09  -0.1367  -0.9095  0.02014  -0.002328  -0.01035  0.006905  -0.4587  -0.6732
6.465e+09  -0.4395  -0.7678  0.006319  -0.01663  0.05126  0.004815  -0.6799  -0.4513
6.466e+09  -0.6657  -0.5959  0.01087  -0.02872  -0.0001411  0.01865  -0.7757  -0.2028
6.468e+09  -0.8299  -0.3612  0.03434  0.01611  -0.04013  0.001368  -0.7739  0.02035
6.469e+09  -0.8935  -0.0001102  -0.008752  0.003178  0.04133  -0.007786  -0.7308  0.355
6.47e+09  -0.8295  0.2498  0.01299  -0.0218  -0.003375  0.01644  -0.58  0.5653
6.471e+09  -0.6938  0.5318  -0.03408  -0.004923  0.008926  0.03498  -0.3269  0.7533
6.472e+09  -0.5004  0.7655  -0.003377  0.02179  0.01089  -0.00598  -0.0836  0.7749
6.474e+09  -0.1061  0.8901  0.06246  0.02175  -0.04325  -0.03148  0.2173  0.7792
6.475e+09  0.1595  0.8757  0.02128  0.01778  0.05748  0.01189  0.4838  0.6608
6.476e+09  0.4408  0.7634  -0.005828  0.008902  -0.02204  -0.006341  0.6453  0.4415
6.478e+09  0.627  0.6008  -0.003539  0.002009  -0.0287  0.02448  0.7471  0.2013
6.479e+09  0.8122  0.3252  -0.02548  -0.01418  0.02098  -0.04333  0.743  -0.07312
6.48e+09  0.9062  0.02901  0.01122  -0.002369  -0.03065  -0.03479  0.6914  -0.3403
6.481e+09  0.8806  -0.3366  -0.008407  0.01187  -0.02321  0.01844  0.51  -0.564
6.482e+09  0.723  -0.6198  -0.001884  -0.01177  -0.003273  0.006918  0.3024  -0.7133
6.484e+09  0.4081  -0.7986  0.00251  0.0003956  -0.002676  -0.02157  0.05859  -0.7767
6.485e+09  0.1378  -0.8374  0.01596  -0.008638  0.01599  0.01914  -0.2175  -0.7633
6.486e+09  -0.1322  -0.9306  0.001362  0.007568  -0.02685  -0.03366  -0.4278  -0.5984
6.488e+09  -0.4169  -0.7947  -0.04363  -0.01588  -0.03465  0.007823  -0.6437  -0.494
6.489e+09  -0.7486  -0.5404  -0.05936  0.03466  -0.01704  0.0007413  -0.804  -0.2087
6.49e+09  -0.8308  -0.2727  -0.01205  -0.02669  -0.01583  0.01443  -0.7558  0.1063
6.491e+09  -0.9125  -0.0322  0.01288  -0.04583  -0.0006796  0.02342  -0.6953  0.3704
6.492e+09  -0.8237  0.3556  0.01037  -0.00522  0.02152  -0.004386  -0.513  0.55
6.494e+09  -0.7136  0.6167  -0.01484  -0.01473  -0.0801  -0.02515  -0.2879  0.7025
6.495e+09  -0.5062  0.8232  -0.008239  0.03385  -0.02242  -0.01245  -0.04983  0.7772
6.496e+09  -0.149  0.9719  0.0006669  0.0186  -0.02653  -0.01566  0.2161  0.6959
6.498e+09  0.2002  0.9244  0.009582  0.01752  0.04665  0.03598  0.4756  0.5853
6.499e+09  0.4585  0.7591  -0.03352  0.03524  -0.02907  0.0003982  0.6694  0.4205
6.5e+09  0.7194  0.5584  -0.04579  -0.03242  -0.03061  0.02901  0.7195  0.1457
6.501e+09  0.8833  0.3604  -0.001609  -0.01008  0.01728  -0.04271  0.7399  -0.1373
6.502e+09  0.9366  -0.07886  -0.00415  -0.02792  -0.01189  0.005488  0.6489  -0.3613
6.504e+09  0.9051  -0.3342  -0.01041  0.01114  -0.05407  -0.0408  0.5022  -0.5404
6.505e+09  0.6828  -0.6596  0.02597  0.02112  -0.05423  0.04346  0.2913  -0.717
6.506e+09  0.4422  -0.7998  0.02341  0.002694  0.02449  -0.00354  0.01066  -0.7324
6.508e+09  0.1253  -0.9516  -0.05549  0.009529  0.02658  0.01117  -0.2771  -0.7184
6.509e+09  -0.2129  -0.9213  0.002448  0.01346  0.005551  -0.02179  -0.4595  -0.5472
6.51e+09  -0.5573  -0.8075  -0.01504  -0.01233  -0.03968  0.009016  -0.6601  -0.4279
6.511e+09  -0.7554  -0.5865  -0.00122  -0.01991  -0.002365  0.0008379  -0.7257  -0.1269
6.512e+09  -0.9271  -0.2135  -0.018  0.04552  -0.002081  0.05706  -0.7483  0.1323
6.514e+09  -0.9175  0.1091  -0.0125  0.01325  0.02606  -0.04721  -0.6501  0.3345
6.515e+09  -0.9046  0.3637  -0.01063  0.024  0.05932  0.02071  -0.5137  0.5805
6.516e+09  -0.6615  0.724  0.01264  -0.02099  -0.03845  0.009784  -0.2256  0.7141
6.518e+09  -0.3783  0.9105  -0.03023  0.02537  0.001555  0.03438  0.02607  0.7521
6.519e+09  -0.0315  0.9885  0.01443  0.01159  0.01516  -0.02251  0.2459  0.6896
6.52e+09  0.323  0.966  -0.01684  0.0004073  -0.0003775  -0.06885  0.4994  0.5628
6.521e+09  0.5668  0.8069  -0.008957  0.01818  -0.05861  0.00466  0.6797  0.3338
6.522e+09  0.8941  0.5689  0.0383  0.01417  -0.02979  -0.004769  0.7283  0.1227
6.524e+09  0.9096  0.2169  0.01517  0.008129  0.0397  -0.03062  0.7091  -0.1586
6.525e+09  0.9527  -0.08169  -0.01214  0.01198  0.002367  -0.001352  0.632  -0.4082
6.526e+09  0.8148  -0.406  0.02206  0.002905  -0.005101  0.05676  0.4503  -0.538
6.528e+09  0.6176  -0.7516  0.00116  0.002697  -0.009255  0.01568  0.2174  -0.6937
6.529e+09  0.3574  -0.89  -0.004294  -0.04536  0.008577  -0.01014  -0.06254  -0.7134
6.53e+09  0.006002  -0.9356  0.002383  0.001969  -0.01808  0.043  -0.2714  -0.6135
6.531e+09  -0.3298  -0.9428  0.03051  -0.01604  -0.01824  -0.02917  -0.4555  -0.4945
6.532e+09  -0.6615  -0.7421  0.005549  -0.001415  0.03055  0.03666  -0.5913  -0.2668
6.534e+09  -0.7707  -0.5384  -0.007586  -0.00233  0.004824  -0.01672  -0.636  -0.09378
6.535e+09  -0.9925  -0.1796  0.008872  0.006626  0.0002129  -0.001449  -0.5844  0.1301
6.536e+09  -0.9748  0.2141  0.009961  0.0153  0.002987  0.04311  -0.5678  0.2883
6.538e+09  -0.8562  0.5372  0.003499  -0.01833  0.0183  0.001861  -0.4375  0.4599
6.539e+09  -0.6186  0.7953  0.007831  -0.05493  0.0001784  0.00626  -0.2474  0.6015
6.54e+09  -0.255  0.8683  0.011  0.03859  -0.05116  0.004432  -0.0411  0.684
6.541e+09  0.07653  0.9434  0.04153  -0.01133  -0.01612  -0.01195  0.2103  0.6988
6.542e+09  0.4191  0.9072  0.01408  -0.008118  0.02698  -0.02404  0.4267  0.5646
6.544e+09  0.6599  0.6808  0.009671  0.012  -0.00537  0.05121  0.5958  0.3803
6.545e+09  0.9156  0.3986  0.003599  0.005414  0.03204  -0.006687  0.7036  0.154
6.546e+09  0.983  0.04908  0.004274  0.02963  -0.01646  -0.038  0.7308  -0.08253
6.548e+09  0.9351  -0.2368  -0.0196  -0.02643  0.002343  0.001943  0.6559  -0.3435
6.549e+09  0.7781  -0.5886  0.02122  0.01062  0.05366  -0.04239  0.4565  -0.5508
6.55e+09  0.5769  -0.8224  0.01084  0.009914  0.004147  -0.005223  0.2918  -0.6567
