# Hz S RI R 50
6.25e+09  -0.3451  0.7773  -0.01314  -0.006749  -0.04378  0.08645  0.1445  0.4595
6.251e+09  -0.1077  0.8737  -0.009793  -0.001119  -0.0574  0.02133  0.3429  0.4002
6.252e+09  0.3012  0.8749  -0.007465  0.02391  -0.01064  -0.009755  0.5345  0.2575
6.254e+09  0.5099  0.6397  -0.02715  0.0233  -0.04173  -0.009863  0.6113  0.009849
6.255e+09  0.6793  0.4462  -0.02826  0.01345  0.0007398  -0.01417  0.5856  -0.221
6.256e+09  0.8398  0.1993  -0.025  -0.01498  -0.01154  -0.0158  0.4769  -0.4835
6.258e+09  0.8554  -0.07973  -0.04127  -0.01613  -0.04206  0.02621  0.2818  -0.5972
6.259e+09  0.755  -0.4472  0.009377  0.01844  0.04146  -0.04181  0.05601  -0.6897
6.26e+09  0.6001  -0.5864  -0.02465  -0.0009176  -0.00923  -0.04878  -0.2471  -0.6644
6.261e+09  0.3393  -0.7615  -0.009092  0.00185  0.01275  -0.01254  -0.4156  -0.5421
6.262e+09  0.048  -0.8526  -0.03444  0.003418  -0.008358  -0.03832  -0.6214  -0.3355
6.264e+09  -0.2526  -0.7888  0.02171  -0.006619  0.009767  0.03459  -0.7148  -0.1188
6.265e+09  -0.5079  -0.6807  0.007314  0.02247  0.0007394  -0.01545  -0.6842  0.1372
6.266e+09  -0.6988  -0.4429  0.005922  -0.01062  -0.01853  0.03109  -0.6364  0.3703
6.268e+09  -0.7484  -0.1958  0.0003896  0.0004055  -0.01304  -0.01439  -0.3857  0.5901
6.269e+09  -0.8835  0.05609  -0.01809  0.01093  -0.02436  0.004491  -0.1926  0.6991
6.27e+09  -0.7268  0.4245  0.004562  -0.0461  0.03123  0.03162  0.03226  0.7434
6.271e+09  -0.5866  0.5655  -0.002156  0.01041  -0.02804  0.01913  0.3424  0.671
6.272e+09  -0.307  0.7334  0.0009343  -0.00164  0.02667  -0.03801  0.5508  0.5329
6.274e+09  -0.01004  0.8126  -0.003811  -0.005585  0.003253  0.04823  0.6946  0.2615
6.275e+09  0.1592  0.7692  0.003886  -0.009227  -0.06797  -0.03186  0.7851  0.01546
6.276e+09  0.4917  0.6831  -0.02556  0.03774  0.04247  0.01267  0.7368  -0.1898
6.278e+09  0.6777  0.4311  -0.0122  -0.00771  0.005431  0.01179  0.6362  -0.4476
6.279e+09  0.8135  0.193  -0.005047  -0.01317  0.02091  -0.007993  0.4116  -0.6389
6.28e+09  0.8542  -0.1183  -0.02839  0.002505  0.005178  0.02584  0.1763  -0.7754
6.281e+09  0.6907  -0.3738  -0.0007548  -0.01269  -0.04065  -0.03403  -0.1046  -0.7557
6.282e+09  0.5649  -0.5989  -0.006612  0.01514  -0.008261  -0.01919  -0.3889  -0.7001
6.284e+09  0.304  -0.7723  -0.01747  0.005363  -0.01562  -0.03238  -0.5845  -0.5292
6.285e+09  0.0111  -0.8478  -0.01225  0.02213  0.003757  -0.02881  -0.7479  -0.2883
6.286e+09  -0.2991  -0.8152  0.005157  0.003836  0.02747  -0.01777  -0.7968  -0.03908
6.288e+09  -0.5319  -0.6505  -0.01198  -0.03983  -0.02031  0.01689  -0.7591  0.2382
6.289e+09  -0.6596  -0.427  -0.01376  0.01045  0.03972  0.0165  -0.62  0.4766
6.29e+09  -0.8149  -0.1161  -0.022  -0.003462  0.01543  0.02643  -0.4061  0.6809
6.291e+09  -0.8106  0.09837  -0.001907  -0.01803  -0.0063  0.006559  -0.1274  0.7711
6.292e+09  -0.7485  0.3918  0.01149  0.01204  0.02514  -0.01351  0.1148  0.8096
6.294e+09  -0.5596  0.5868  0.01276  0.009594  -0.02471  -0.01029  0.3852  0.7096
6.295e+09  -0.3225  0.7131  -0.01732  -0.02323  0.02967  0.0009596  0.6287  0.5462
6.296e+09  0.01183  0.8808  -0.009282  0.01447  -0.0394  0.025  0.7468  0.2981
6.298e+09  0.2796  0.8036  -0.0006454  0.02298  0.001989  -0.02806  0.8289  0.03941
6.299e+09  0.567  0.6224  -0.02177  0.006682  0.01017  -0.01974  0.7774  -0.2802
6.3e+09  0.7366  0.3595  -0.02464  0.009862  -0.04407  0.03774  0.6406  -0.5454
6.301e+09  0.8571  0.08069  -0.0137  -0.004908  0.001613  -0.009553  0.4285  -0.7171
6.302e+09  0.8507  -0.1571  -0.01606  -0.01188  -0.0214  -0.008355  0.1403  -0.7886
6.304e+09  0.7381  -0.4423  -0.006795  -0.02253  -0.01133  -0.02153  -0.1042  -0.8661
6.305e+09  0.5026  -0.6451  0.01635  -0.002113  -0.02103  -0.003187  -0.3962  -0.7302
6.306e+09  0.3102  -0.7709  0.0005248  0.03027  -0.02268  -0.006526  -0.6325  -0.5759
6.308e+09  -0.05368  -0.8884  -0.03478  -0.008396  0.03101  0.008759  -0.7811  -0.3105
6.309e+09  -0.2955  -0.7595  0.004404  -0.0215  -0.02018  -0.02161  -0.8467  -0.03498
6.31e+09  -0.5739  -0.6313  -0.005972  0.003413  0.007723  0.03723  -0.8015  0.2751
6.311e+09  -0.7581  -0.3584  -0.009867  0.01796  0.06933  -0.007906  -0.6726  0.5549
6.312e+09  -0.8331  -0.1033  -0.007172  0.008707  -0.01651  0.01939  -0.454  0.7518
6.314e+09  -0.8074  0.2035  -0.01566  -0.02135  0.01562  -0.007919  -0.1911  0.8632
6.315e+09  -0.7051  0.4256  0.01843  -0.007079  0.03759  0.0127  0.1496  0.8374
6.316e+09  -0.4883  0.7027  -0.001637  -0.02126  -0.0001029  -0.002739  0.4253  0.7595
6.318e+09  -0.1987  0.8227  0.005832  -0.01829  -0.007503  -0.01263  0.6859  0.5948
6.319e+09  0.0828  0.8345  -0.004246  -0.0286  0.0139  -0.01959  0.8063  0.3312
6.32e+09  0.3872  0.7704  -0.01969  0.03395  -0.03262  -0.01905  0.8675  -0.02188
6.321e+09  0.5792  0.6012  -0.003269  -0.02866  -0.02868  -0.01822  0.8465  -0.2582
6.322e+09  0.8253  0.3237  -0.01814  -0.003259  -0.01374  -0.01866  0.7391  -0.5573
6.324e+09  0.8662  0.07535  -0.03173  -0.007804  0.03548  0.02394  0.4677  -0.7696
6.325e+09  0.8217  -0.2619  0.009946  -0.0122  -0.01129  -0.02013  0.1935  -0.8587
6.326e+09  0.6575  -0.4936  0.03488  0.003747  -0.03737  -0.03584  -0.1473  -0.8856
6.328e+09  0.4717  -0.7348  -0.0104  0.009173  -0.001655  0.001491  -0.4096  -0.7855
6.329e+09  0.2011  -0.83  -0.0008288  0.005443  -0.0363  0.01603  -0.667  -0.6131
6.33e+09  -0.1181  -0.8564  0.02763  -0.01713  -0.01454  0.02422  -0.8426  -0.3151
6.331e+09  -0.4058  -0.7464  0.007826  0.006645  0.04136  0.02891  -0.8976  -0.04837
6.332e+09  -0.6812  -0.5897  0.03298  0.03158  0.04941  0.02014  -0.8593  0.265
6.334e+09  -0.7684  -0.291  0.01531  0.0006306  0.01292  0.04713  -0.6918  0.5815
6.335e+09  -0.9009  0.02855  -0.009699  0.007582  0.02675  0.0176  -0.4245  0.77
6.336e+09  -0.8345  0.2953  0.02582  0.01525  0.03781  0.01145  -0.1631  0.8986
6.338e+09  -0.6255  0.5618  -0.006973  0.01956  -0.005947  0.001577  0.1156  0.8692
6.339e+09  -0.4472  0.7662  -0.03653  -0.04322  -0.03865  0.04088  0.4281  0.8225
6.34e+09  -0.1066  0.852  -0.04463  -0.01961  0.01475  -0.02045  0.6735  0.5883
6.341e+09  0.1929  0.9253  -0.001966  0.001684  0.01592  -0.02356  0.882  0.3613
6.342e+09  0.4139  0.7346  0.0243  -0.003653  -0.02134  -0.0773  0.9278  0.08938
6.344e+09  0.7155  0.5056  0.0483  0.02859  -0.001124  0.01374  0.8846  -0.2844
6.345e+09  0.8796  0.2759  0.002252  0.008607  0.004435  -0.01523  0.7471  -0.537
6.346e+09  0.9014  -0.05924  0.0002595  -0.01834  -0.02832  -0.01795  0.5155  -0.7548
6.348e+09  0.7711  -0.4015  0.005226  -0.005001  -0.04946  0.02201  0.2021  -0.8926
6.349e+09  0.6302  -0.6303  -0.008  0.002061  0.02614  0.001501  -0.09594  -0.901
6.35e+09  0.3693  -0.7947  -0.02035  -0.01603  -0.008439  -0.008959  -0.4005  -0.8182
6.351e+09  0.03649  -0.8389  0.006119  -0.004087  0.05765  -0.003567  -0.6563  -0.6382
6.352e+09  -0.2488  -0.8429  0.01916  0.02903  0.02963  0.04057  -0.8879  -0.3772
6.354e+09  -0.5256  -0.6701  -0.008245  -0.0103  0.07349  -0.01309  -0.9317  -0.08421
6.355e+09  -0.7476  -0.5161  -0.01892  0.05224  0.03291  0.03698  -0.8884  0.2343
6.356e+09  -0.8265  -0.1926  0.009286  -0.002191  -0.001878  -0.005969  -0.7526  0.5761
6.358e+09  -0.9304  0.1454  -0.007737  0.003215  -0.0108  0.008408  -0.5087  0.7761
6.359e+09  -0.8054  0.3882  0.01344  -0.008009  0.01472  -0.04108  -0.2462  0.9362
6.36e+09  -0.6277  0.6843  0.01371  -0.007104  0.007833  0.02925  0.08739  0.909
6.361e+09  -0.3338  0.8095  0.01568  -0.009028  0.01414  0.008735  0.4305  0.8448
6.362e+09  -0.01022  0.9124  0.00384  0.002445  0.005527  0.01966  0.6771  0.6513
6.364e+09  0.3072  0.8672  -0.00668  -0.01037  0.01164  -0.005731  0.8418  0.4147
6.365e+09  0.6041  0.6869  -0.003226  -0.01362  -0.04224  -0.01054  0.9538  0.04078
6.366e+09  0.7051  0.4495  -0.005959  0.02772  -0.04605  -0.01524  0.9101  -0.2207
6.368e+09  0.8864  0.1081  0.001003  0.02304  0.003486  -0.02324  0.769  -0.5623
6.369e+09  0.8666  -0.1584  0.008119  -0.0361  -0.02289  0.01298  0.5828  -0.7236
6.37e+09  0.7468  -0.4186  -0.01769  0.00247  -0.005576  0.001334  0.2237  -0.8835
6.371e+09  0.6326  -0.6776  -0.0167  0.05526  -0.0006297  0.05002  -0.08727  -0.9599
6.372e+09  0.265  -0.8138  -0.009127  -0.01246  0.02002  0.02103  -0.3775  -0.8327
6.374e+09  -0.05234  -0.905  -0.02569  -0.02728  0.02481  0.04482  -0.6673  -0.669
6.375e+09  -0.3451  -0.8207  -0.004538  0.02621  -0.01091  -0.008264  -0.8716  -0.4088
6.376e+09  -0.5928  -0.6687  0.0002281  0.01518  0.04907  -0.02795  -0.93  -0.09042
6.378e+09  -0.7455  -0.3789  0.01971  0.0009095  -0.02948  0.02007  -0.9138  0.2158
6.379e+09  -0.8788  -0.1125  0.008429  -0.01368  0.04506  -0.026  -0.7509  0.5406
6.38e+09  -0.9015  0.1731  -0.03143  -0.01359  -0.007226  0.02064  -0.5234  0.7397
6.381e+09  -0.7561  0.4936  -0.01798  -0.03089  0.005018  -0.01121  -0.2367  0.8995
6.382e+09  -0.548  0.7157  0.03324  -0.01746  0.02245  0.008572  0.04631  0.9452
6.384e+09  -0.2942  0.8879  -0.009755  0.02438  -0.01139  -0.01491  0.3473  0.8585
6.385e+09  0.03491  0.8922  0.02115  0.02824  0.03469  -0.02883  0.6064  0.6677
6.386e+09  0.3608  0.8452  -0.005967  0.004446  0.004976  0.0475  0.8273  0.4765
6.388e+09  0.6112  0.6372  0.0006582  0.0316  0.0186  -0.009719  0.8731  0.1193
6.389e+09  0.8213  0.4274  -0.01252  0.001719  0.0143  0.006048  0.9286  -0.191
6.39e+09  0.8846  0.09563  0.03566  -0.0116  -0.01682  0.06318  0.774  -0.4867
6.391e+09  0.9145  -0.2372  0.01527  -0.02177  -0.01363  0.005461  0.6027  -0.774
6.392e+09  0.7295  -0.5141  0.03024  -0.02027  0.02818  -0.05667  0.2858  -0.8779
6.394e+09  0.4884  -0.7472  -0.02577  0.03506  0.02193  0.008139  -0.06225  -0.9275
6.395e+09  0.2773  -0.8666  0.0346  0.009199  -0.02  -0.03647  -0.3261  -0.8497
6.396e+09  -0.04528  -0.8868  -0.007119  -0.01757  -0.04097  0.01445  -0.6188  -0.7078
6.398e+09  -0.3836  -0.7536  -0.01059  -0.01663  -0.04545  -0.0311  -0.7729  -0.4098
6.399e+09  -0.6455  -0.5919  0.02215  0.01282  -0.002373  0.006465  -0.8751  -0.1137
6.4e+09  -0.8431  -0.3695  -0.01913  0.01192  0.01952  0.03759  -0.8556  0.1909
6.401e+09  -0.8638  -0.06354  0.04015  -0.01142  -0.003173  0.0141  -0.7996  0.5028
6.402e+09  -0.883  0.2676  -0.04241  -0.02669  0.006002  -0.04126  -0.5955  0.6766
6.404e+09  -0.671  0.5113  0.04035  0.02639  -0.0247  -0.0349  -0.3418  0.8795
6.405e+09  -0.4911  0.7658  -0.02621  -0.02552  -0.01084  -0.002789  0.008189  0.9611
6.406e+09  -0.1798  0.8732  -0.0365  -0.006414  0.01996  0.05793  0.2975  0.8111
6.408e+09  0.07023  0.8464  -0.03579  0.002111  -0.01924  -0.01012  0.6154  0.7196
6.409e+09  0.44  0.7681  0.01301  -0.002888  -0.0309  -0.002859  0.7738  0.4453
6.41e+09  0.6725  0.6206  0.008968  0.02144  -0.04523  0.01309  0.9123  0.15
6.411e+09  0.7684  0.323  -0.008119  0.007604  -0.0001684  0.02495  0.8675  -0.1624
6.412e+09  0.8919  0.028  0.005885  -0.02918  0.04414  -0.05307  0.7914  -0.4519
6.414e+09  0.8508  -0.2728  -0.02004  -0.0276  0.03625  -0.01715  0.5677  -0.6588
6.415e+09  0.7003  -0.531  0.02321  -0.02625  0.03626  -0.009069  0.3552  -0.8732
6.416e+09  0.4649  -0.7272  -0.03231  0.01163  -0.02286  5.471e-05  0.03742  -0.9242
6.418e+09  0.1318  -0.8604  0.01534  -0.02653  -0.01634  0.01024  -0.2897  -0.8566
6.419e+09  -0.1431  -0.8654  -0.009043  0.01263  -0.003853  0.007519  -0.541  -0.6843
6.42e+09  -0.3933  -0.7569  0.005882  0.01544  0.005033  -0.009318  -0.7707  -0.4086
6.421e+09  -0.6781  -0.5404  0.01245  -0.02397  -0.01085  0.003507  -0.848  -0.1837
6.422e+09  -0.7989  -0.331  0.01764  -0.009453  0.0169  -0.04759  -0.8373  0.0876
6.424e+09  -0.8976  -0.0713  -0.01579  -0.004314  0.05317  0.02033  -0.8119  0.3962
6.425e+09  -0.8295  0.2426  0.007883  -0.02398  -0.02449  -0.00859  -0.5951  0.5993
6.426e+09  -0.6708  0.5537  -0.01566  0.01454  -0.01931  -0.01688  -0.3229  0.7685
6.428e+09  -0.4752  0.7203  0.01185  -0.01037  0.00434  -0.007526  -0.04671  0.8733
6.429e+09  -0.1186  0.8948  0.001489  0.0347  0.02322  0.02054  0.2404  0.8059
6.43e+09  0.1927  0.8768  0.01918  0.01346  0.01329  -0.0155  0.5361  0.7068
6.431e+09  0.4299  0.7653  0.01296  0.04722  0.04768  0.003515  0.7451  0.4898
6.432e+09  0.6831  0.5714  0.02553  -0.02848  -0.01523  0.002306  0.8828  0.2341
6.434e+09  0.8302  0.3157  -0.03038  0.00725  -0.02873  0.007307  0.8343  -0.04259
6.435e+09  0.8471  0.01938  -0.001729  -0.01188  0.002393  -0.002965  0.7545  -0.4063
6.436e+09  0.8512  -0.2237  -0.02906  -0.03233  0.0165  0.04548  0.624  -0.627
6.438e+09  0.6475  -0.5839  0.01131  -0.004682  -0.07648  -0.04426  0.3473  -0.7815
6.439e+09  0.4215  -0.7717  0.0002516  -0.002053  -0.006929  0.05757  0.04929  -0.8527
6.44e+09  0.1296  -0.9052  -0.02519  -0.0578  -0.006926  -0.007754  -0.2067  -0.7877
6.441e+09  -0.1505  -0.8329  0.01952  0.03931  0.04779  -0.012  -0.5423  -0.6347
6.442e+09  -0.419  -0.7248  0.01326  -0.002223  -0.001037  -0.02161  -0.6762  -0.4478
6.444e+09  -0.7045  -0.5757  -0.005426  -0.01319  0.00994  -0.0006395  -0.8713  -0.194
6.445e+09  -0.8069  -0.3107  0.05605  -0.01511  0.003791  -0.05237  -0.8564  0.07902
6.446e+09  -0.8837  -0.009243  -0.03189  0.002032  -0.02034  -0.04269  -0.7865  0.3782
6.448e+09  -0.8224  0.3147  0.03242  0.04867  0.0287  -0.04149  -0.5382  0.59
6.449e+09  -0.7064  0.5631  0.02726  0.01573  0.0003098  0.03315  -0.3601  0.6987
6.45e+09  -0.3885  0.7862  0.02029  -0.0159  -0.01435  0.02252  -0.057  0.8287
6.451e+09  -0.1262  0.833  -0.02815  -0.0255  0.05219  0.04211  0.1957  0.8096
6.452e+09  0.1553  0.8468  0.008904  0.002569  -0.009784  -0.02577  0.4175  0.6672
6.454e+09  0.4825  0.7797  0.007715  -0.01819  0.04746  -0.002672  0.6712  0.4702
6.455e+09  0.6537  0.5208  -0.0004145  0.03337  -0.01168  0.02168  0.7751  0.1941
6.456e+09  0.836  0.2797  -0.01692  0.02656  -0.02359  -0.03618  0.8505  -0.05963
6.458e+09  0.889  0.009322  0.06709  0.01143  -0.02521  -0.02204  0.7582  -0.3812
6.459e+09  0.7806  -0.3018  -0.003862  0.06378  -0.02689  0.01462  0.5688  -0.5498
6.46e+09  0.6338  -0.5767  0.03646  -0.007888  -0.01766  0.0003734  0.3411  -0.7328
6.461e+09  0.4235  -0.772  -0.0254  0.04256  0.008022  0.005322  0.07464  -0.8364
6.462e+09  0.1326  -0.8926  0.03578  0.003745  -0.04382  -0.04735  -0.205  -0.7648
6.464e+09  -0.1416  -0.9391  0.003095  0.0003828  -0.0302  0.04559  -0.4583  -0.6721
6.465e+09  -0.4621  -0.7752  -0.01649  0.04904  0.02392  0.04602  -0.6751  -0.4442
6.466e+09  -0.655  -0.5424  -0.007801  -0.04061  0.03244  -0.01282  -0.801  -0.2082
6.468e+09  -0.7912  -0.3169  0.001748  0.008473  -0.06005  -0.06676  -0.8214  0.08858
6.469e+09  -0.9473  0.02193  -0.02181  0.01113  0.0126  0.02243  -0.6852  0.3872
6.47e+09  -0.8329  0.3598  -0.0267  -0.02205  -0.007313  -0.01393  -0.5581  0.5565
6.471e+09  -0.6686  0.622  -0.04146  -0.003488  0.05399  0.02165  -0.3371  0.7433
6.472e+09  -0.4249  0.8606  -0.02662  0.0119  -0.01049  0.02785  -0.08556  0.7947
6.474e+09  -0.0564  0.9041  -0.02414  -0.05736  -0.06183  0.0276  0.2099  0.7931
6.475e+09  0.2075  0.8794  -0.0275  -0.007995  -0.005477  0.01668  0.4212  0.6546
6.476e+09  0.4675  0.7873  -0.02476  -0.02727  0.03824  -0.02751  0.6196  0.4776
6.478e+09  0.7112  0.5452  -0.06827  0.001018  -0.00601  -0.009786  0.7953  0.1906
6.479e+09  0.8635  0.2523  0.01284  0.004779  -0.07168  0.04302  0.7955  -0.0802
6.48e+09  0.9327  0.006519  -0.02848  0.03855  0.03016  0.03047  0.7231  -0.3631
6.481e+09  0.8704  -0.3533  -0.009254  -0.01639  0.001175  0.01109  0.5272  -0.555
6.482e+09  0.6546  -0.6503  0.02826  0.05477  0.01339  0.05118  0.3263  -0.7403
6.484e+09  0.3709  -0.7822  -0.03095  -0.008773  0.05288  -0.04334  0.03838  -0.7582
6.485e+09  0.0889  -0.9176  -0.01857  0.009995  0.001653  -0.01979  -0.1735  -0.7443
6.486e+09  -0.2026  -0.8975  -0.009509  0.00233  0.03362  0.007287  -0.4615  -0.6002
6.488e+09  -0.4981  -0.7469  -0.007591  -0.01533  0.002045  -0.02327  -0.6323  -0.4528
6.489e+09  -0.7165  -0.5431  -0.02587  0.01895  -0.01516  -0.002255  -0.7225  -0.1735
6.49e+09  -0.8564  -0.2876  0.005008  -0.01072  -0.0314  -0.02705  -0.7434  0.08748
6.491e+09  -0.949  0.06252  -0.06804  0.005688  -0.04181  0.02  -0.6676  0.3219
6.492e+09  -0.8731  0.3768  0.02831  -0.01098  0.01085  0.04271  -0.5268  0.5856
6.494e+09  -0.6648  0.6209  0.004749  0.01464  -0.05043  0.02364  -0.3181  0.7214
6.495e+09  -0.4149  0.8561  0.02127  0.02473  -0.04473  -0.06501  -0.03899  0.7455
6.496e+09  -0.05911  0.9546  0.01072  -0.001247  0.01414  -0.01017  0.1924  0.7453
6.498e+09  0.2585  0.8753  0.03234  0.008541  -0.0002589  0.01392  0.5135  0.6276
6.499e+09  0.5272  0.7652  -0.02876  0.01673  0.01705  0.01709  0.623  0.4045
6.5e+09  0.7492  0.5186  0.006105  0.001055  0.01988  -0.04837  0.745  0.1689
6.501e+09  0.8723  0.2246  0.02497  0.01145  0.01553  -0.02633  0.7637  -0.08989
6.502e+09  0.9872  -0.08299  -0.008308  0.04543  0.04287  0.02532  0.6998  -0.3271
6.504e+09  0.8625  -0.4189  0.004194  0.0181  0.0009165  -0.006017  0.5022  -0.5863
6.505e+09  0.6336  -0.7488  0.005328  0.006552  0.007572  0.04505  0.2747  -0.7047
6.506e+09  0.3927  -0.8442  -0.03922  0.02092  -0.005816  0.01513  0.04054  -0.7854
6.508e+09  0.0503  -0.9164  -0.01486  0.01406  0.04014  0.02255  -0.2448  -0.7602
6.509e+09  -0.2758  -0.9047  -0.05324  0.04087  0.002323  0.06003  -0.4721  -0.572
6.51e+09  -0.5684  -0.7447  -0.01071  0.00896  -0.02458  -0.01856  -0.6532  -0.4215
6.511e+09  -0.7707  -0.4779  -0.01688  0.003594  0.03234  0.04223  -0.7359  -0.1703
6.512e+09  -0.9854  -0.1318  0.007593  0.03159  0.04893  -0.007079  -0.7337  0.1156
6.514e+09  -0.9528  0.1071  -0.01197  0.008768  -0.001732  0.04882  -0.6456  0.3844
6.515e+09  -0.8194  0.4536  -0.01041  0.0135  0.0008383  0.06277  -0.4391  0.5722
6.516e+09  -0.6642  0.7224  -0.01492  0.006148  0.02994  -0.01265  -0.2481  0.727
6.518e+09  -0.3343  0.884  -0.01388  0.02861  -0.032  0.005557  0.0187  0.7529
6.519e+09  -0.01007  0.9624  0.03276  -0.003699  -0.01873  0.01074  0.2599  0.6934
6.52e+09  0.2773  0.9275  -0.008293  0.04079  0.03865  -0.02992  0.5311  0.5678
6.521e+09  0.6181  0.7381  -0.009172  -0.006161  0.01897  -0.03492  0.6607  0.3565
6.522e+09  0.8319  0.484  0.007132  -0.01438  -0.01364  0.01521  0.7311  0.08354
6.524e+09  0.9835  0.1301  0.00222  -0.0128  -0.007176  -0.01219  0.7373  -0.1663
6.525e+09  0.9626  -0.2465  -0.006094  0.02185  0.06205  -0.004056  0.5972  -0.4073
6.526e+09  0.8503  -0.5355  -0.01344  -0.01521  0.0077  0.03928  0.3996  -0.5902
6.528e+09  0.6345  -0.7419  0.005718  0.0145  -0.02425  0.03808  0.1949  -0.713
6.529e+09  0.3004  -1.013  -0.01929  0.02177  -0.0207  -0.001616  -0.03183  -0.6832
6.53e+09  -0.1237  -0.991  0.03493  0.01224  0.04132  -0.01521  -0.262  -0.6353
6.531e+09  -0.4328  -0.9112  0.001468  0.02242  -0.04163  0.01895  -0.4883  -0.493
6.532e+09  -0.6539  -0.7031  -0.00252  0.01421  -0.02215  -0.02418  -0.5656  -0.2783
6.534e+09  -0.9267  -0.3641  -0.02045  -0.003518  -0.03294  0.03783  -0.6434  -0.08598
6.535e+09  -0.9799  -0.1118  -0.04565  -0.00545  0.04337  -0.03185  -0.5898  0.1241
6.536e+09  -0.9085  0.2778  -0.02189  0.01086  -0.009307  -0.01014  -0.5427  0.309
6.538e+09  -0.793  0.5925  0.004326  -0.02653  0.07135  -0.02239  -0.4368  0.4557
6.539e+09  -0.5233  0.7662  0.01512  0.02696  -0.006555  -0.02932  -0.289  0.5835
6.54e+09  -0.2555  0.9621  0.01769  0.009386  0.07172  0.01468  -0.0498  0.6564
6.541e+09  0.08644  0.9774  0.01018  0.04005  0.02979  -0.008738  0.1761  0.7
6.542e+09  0.4942  0.8102  -0.002019  0.01412  0.006525  -0.002116  0.3949  0.5486
6.544e+09  0.7535  0.6373  0.02938  -0.004341  0.02239  0.05214  0.6049  0.3844
6.545e+09  0.8734  0.3103  0.00174  -0.00257  -0.004261  -0.01642  0.6954  0.1887
6.546e+09  0.9563  0.03087  -0.004121  -0.002976  -0.05588  -0.01539  0.7422  -0.08688
6.548e+09  0.9077  -0.3448  0.01698  -0.01463  -0.01233  0.004948  0.6759  -0.3335
6.549e+09  0.757  -0.589  -0.01339  -0.002234  0.0498  -0.04147  0.4896  -0.5141
6.55e+09  0.497  -0.7928  -0.008723  -0.008792  0.003433  -0.07923  0.2906  -0.6635
