# Hz S RI R 50
6.25e+09  -0.4321  0.7505  0.008625  0.00986  0.05442  -0.009921  0.1562  0.495
6.251e+09  -0.1171  0.8436  0.005779  0.0009271  -0.02318  -0.04028  0.355  0.4004
6.252e+09  0.232  0.8496  -0.02472  -0.02826  -0.01399  -0.008382  0.5075  0.2351
6.254e+09  0.4233  0.7077  0.003073  0.002042  0.006244  -0.007643  0.6225  0.0199
6.255e+09  0.6939  0.5407  -0.01971  -0.006222  0.01247  -0.01997  0.5832  -0.2495
6.256e+09  0.7705  0.3065  -0.0006155  0.02735  -0.01236  -0.004042  0.4489  -0.4398
6.258e+09  0.8591  0.01917  0.009414  0.01108  -0.04033  0.01493  0.2828  -0.5512
6.259e+09  0.7684  -0.3441  -0.04321  0.02987  0.004088  -0.0111  0.04518  -0.671
6.26e+09  0.656  -0.6  -0.01415  -0.03166  0.0909  0.003952  -0.2034  -0.6923
6.261e+09  0.4017  -0.7229  0.02083  -0.002532  0.008938  -0.07552  -0.4152  -0.5303
6.262e+09  0.1375  -0.8678  1.975e-07  0.01766  0.01267  -0.01823  -0.5871  -0.3215
6.264e+09  -0.1697  -0.798  0.01799  -0.02135  -0.03512  -0.03832  -0.6928  -0.08001
6.265e+09  -0.4212  -0.7284  0.021  -0.01806  0.01704  -0.09596  -0.7317  0.1544
6.266e+09  -0.5551  -0.5462  -0.01481  -0.006382  -0.01728  0.05478  -0.6188  0.3779
6.268e+09  -0.7961  -0.2237  -0.02153  0.01872  -0.005927  0.03513  -0.4217  0.5726
6.269e+09  -0.8077  0.06072  -0.01224  0.01052  0.0008133  -0.004588  -0.2056  0.719
6.27e+09  -0.8189  0.3031  0.002335  -0.01489  -0.03161  -0.01489  0.03982  0.7433
6.271e+09  -0.5648  0.5225  -0.01043  -0.01532  -0.01235  -0.1132  0.3067  0.6747
6.272e+09  -0.3673  0.745  0.01543  -0.01158  -0.004351  0.02376  0.5696  0.5089
6.274e+09  -0.1233  0.8425  -0.003079  0.004859  0.03136  0.02503  0.6871  0.2918
6.275e+09  0.199  0.8016  0.006114  0.007991  0.0402  -0.02564  0.7547  0.07005
6.276e+09  0.4508  0.6818  -0.005856  -0.002822  -0.001073  -0.0245  0.7101  -0.2395
6.278e+09  0.6624  0.4929  0.001482  0.0175  -0.0015  -0.04385  0.6201  -0.4738
6.279e+09  0.7326  0.2581  0.02005  0.06394  -0.006668  0.01491  0.3853  -0.6516
6.28e+09  0.8528  -0.04954  -0.002167  -0.03174  -0.003865  0.04529  0.171  -0.7525
6.281e+09  0.7884  -0.4241  -0.01018  0.02632  -0.06462  -0.001597  -0.09487  -0.7755
6.282e+09  0.623  -0.5843  -0.004726  0.01761  0.0149  0.02032  -0.3615  -0.6997
6.284e+09  0.4471  -0.7171  -0.01455  0.001254  0.02171  0.004867  -0.5901  -0.5012
6.285e+09  0.07201  -0.8426  -0.03766  -0.01542  0.007919  0.01932  -0.7349  -0.283
6.286e+09  -0.1071  -0.785  -0.001079  0.0177  -0.001859  -0.03605  -0.7837  -0.03104
6.288e+09  -0.3931  -0.6803  -0.003888  0.01215  -0.03439  -0.05095  -0.746  0.2577
6.289e+09  -0.6776  -0.4825  -0.007996  0.002636  -0.01155  0.01315  -0.6072  0.5014
6.29e+09  -0.8062  -0.1928  0.01445  0.001631  0.01026  0.02254  -0.4277  0.6841
6.291e+09  -0.8571  0.06033  0.01378  -0.01438  -0.0268  -0.0006503  -0.1569  0.7848
6.292e+09  -0.7688  0.3316  0.006021  -0.02174  0.01623  -0.01839  0.137  0.797
6.294e+09  -0.55  0.6057  0.009706  -0.01303  -0.007668  -0.004318  0.3899  0.7542
6.295e+09  -0.3255  0.7426  -0.001473  0.02325  -0.06294  0.01258  0.6423  0.5258
6.296e+09  -0.08251  0.7779  0.005029  -0.01519  0.01359  -0.00325  0.7584  0.2872
6.298e+09  0.2231  0.7709  -0.01175  0.009049  -0.005237  0.05379  0.8232  0.0004617
6.299e+09  0.4832  0.6672  -0.001837  -0.01595  0.03996  -0.00463  0.7946  -0.2823
6.3e+09  0.6615  0.4908  -0.02619  -0.02412  -0.001066  -0.004468  0.6631  -0.5388
6.301e+09  0.8116  0.1976  0.003153  0.01798  -0.06886  0.04324  0.4582  -0.6942
6.302e+09  0.7688  -0.0987  -0.01517  -0.03217  0.02232  -0.00575  0.1467  -0.8331
6.304e+09  0.7806  -0.3607  0.002442  0.02864  -0.0198  -0.01939  -0.1335  -0.8422
6.305e+09  0.5985  -0.6246  0.03337  0.007839  0.03092  -0.03028  -0.4282  -0.7087
6.306e+09  0.2959  -0.7858  0.03475  -0.001962  0.0379  -0.06481  -0.6328  -0.5309
6.308e+09  0.02814  -0.8504  -0.02263  -0.02114  -0.0074  -0.007245  -0.7833  -0.2673
6.309e+09  -0.2756  -0.8109  -0.01268  -0.001908  -0.04715  -0.04293  -0.861  0.003859
6.31e+09  -0.554  -0.6297  -0.0172  -0.01225  0.01508  0.009198  -0.804  0.2979
6.311e+09  -0.691  -0.4044  0.02107  -0.003364  0.009261  0.01664  -0.6658  0.5347
6.312e+09  -0.8415  -0.1517  -0.01079  -0.01444  0.002584  -0.02278  -0.4465  0.7123
6.314e+09  -0.8096  0.1051  0.008204  0.02508  -0.01706  -0.005948  -0.1517  0.8543
6.315e+09  -0.7199  0.4429  -0.01846  0.01333  -0.01836  0.02568  0.1782  0.8582
6.316e+09  -0.5734  0.6617  -0.02751  0.02427  0.004731  -0.02049  0.3838  0.7561
6.318e+09  -0.3139  0.8146  0.0006303  -0.007533  0.03655  0.03843  0.6543  0.5712
6.319e+09  0.002412  0.788  0.0008089  -0.004229  0.05525  0.02207  0.829  0.3191
6.32e+09  0.298  0.827  -0.01163  -0.0008107  -0.008166  0.04734  0.9038  0.006443
6.321e+09  0.5668  0.6433  -0.0005953  -0.01858  -0.005973  0.009994  0.8379  -0.2663
6.322e+09  0.7362  0.4374  -0.00644  0.01156  0.06194  0.01157  0.6796  -0.5703
6.324e+09  0.8394  0.1063  -0.02558  -0.01945  0.003727  -0.01132  0.4467  -0.7621
6.325e+09  0.8395  -0.2001  -0.03759  0.004331  0.000154  0.01359  0.1664  -0.9001
6.326e+09  0.6821  -0.4751  -0.01364  0.0191  0.0272  0.03333  -0.1426  -0.8705
6.328e+09  0.5294  -0.6768  0.02552  -0.02278  -0.02148  -0.01986  -0.4162  -0.7915
6.329e+09  0.2905  -0.8106  4.159e-05  -0.01774  0.01994  0.00567  -0.6681  -0.5943
6.33e+09  -0.0417  -0.816  -0.005601  -0.00175  0.02754  -0.004634  -0.7888  -0.3368
6.331e+09  -0.3912  -0.8241  -0.03425  0.009302  -0.03466  -0.02387  -0.9003  -0.01816
6.332e+09  -0.5665  -0.6035  0.01465  0.02702  0.03075  0.03295  -0.8705  0.2679
6.334e+09  -0.7593  -0.3582  -0.01184  0.0155  -0.0001019  0.03506  -0.6802  0.5469
6.335e+09  -0.8735  -0.09891  0.01104  0.01655  -0.01686  0.002359  -0.486  0.755
6.336e+09  -0.808  0.2481  0.02452  0.006593  -0.01007  -0.007442  -0.1513  0.8929
6.338e+09  -0.7211  0.5415  0.04489  0.01336  0.04591  -0.07605  0.141  0.8932
6.339e+09  -0.4726  0.7047  0.03482  0.001732  0.002468  -0.01446  0.449  0.8135
6.34e+09  -0.2163  0.8505  -0.0004748  0.01396  0.005912  0.009597  0.7077  0.664
6.341e+09  0.08593  0.8801  -0.02183  0.001043  0.0261  0.02203  0.866  0.3435
6.342e+09  0.3941  0.7928  -0.00384  0.02542  0.002864  -0.03835  0.9169  0.06399
6.344e+09  0.6086  0.5556  0.007946  -0.02842  0.03048  0.0106  0.8961  -0.2895
6.345e+09  0.7964  0.3255  -0.02297  0.01813  -0.01897  -0.008397  0.7548  -0.5706
6.346e+09  0.8855  -0.01891  -0.001341  -0.04985  0.04322  0.02282  0.5236  -0.7915
6.348e+09  0.8237  -0.2921  0.006399  -0.04319  0.04391  -0.03454  0.1957  -0.8845
6.349e+09  0.6777  -0.5377  1.288e-05  0.006986  0.04516  0.0122  -0.1061  -0.8992
6.35e+09  0.4371  -0.7282  0.007192  0.01801  -0.005265  0.006853  -0.4029  -0.8544
6.351e+09  0.1714  -0.8975  0.01978  -0.02384  -0.03216  0.000732  -0.6918  -0.6559
6.352e+09  -0.1516  -0.8577  -0.001003  -0.01805  -0.008634  -0.03465  -0.8642  -0.405
6.354e+09  -0.4602  -0.745  -0.01344  0.003041  -0.01718  -0.0008906  -0.9101  -0.08316
6.355e+09  -0.6981  -0.5516  -0.02631  -0.01734  0.001987  -0.04106  -0.9242  0.2626
6.356e+09  -0.8745  -0.2592  0.001815  0.02223  -0.01181  0.02756  -0.7795  0.5586
6.358e+09  -0.8572  0.05194  0.04638  0.01886  0.001497  -0.04856  -0.5004  0.7718
6.359e+09  -0.7903  0.3471  0.01787  0.005015  0.02201  -0.09158  -0.1851  0.9135
6.36e+09  -0.6887  0.6158  -0.005874  0.02897  -0.0005631  -0.00867  0.05552  0.9281
6.361e+09  -0.3576  0.7873  0.01664  -0.01403  -0.0009129  0.02128  0.4103  0.8422
6.362e+09  -0.07967  0.8773  -0.01374  -0.02611  0.008078  -0.0031  0.6662  0.6275
6.364e+09  0.2495  0.8374  -0.02737  -0.02554  0.01422  -0.01829  0.8509  0.384
6.365e+09  0.5162  0.6983  0.0315  -0.02007  0.009199  0.01  0.8998  0.06392
6.366e+09  0.6889  0.5222  0.0003281  0.01639  0.00187  0.02899  0.9147  -0.2296
6.368e+09  0.8629  0.1999  0.05065  -0.01666  -0.01667  0.01502  0.7916  -0.5846
6.369e+09  0.8608  -0.1001  0.002441  -0.0086  -0.002912  0.02842  0.4985  -0.7537
6.37e+09  0.7705  -0.3611  0.01822  0.005076  0.02509  -0.008393  0.225  -0.9125
6.371e+09  0.6328  -0.617  -0.0184  -0.001791  0.01549  0.008995  -0.1165  -0.9448
6.372e+09  0.3408  -0.7889  -0.004343  -0.005742  -0.03585  0.01366  -0.4346  -0.8421
6.374e+09  0.06227  -0.8677  -0.01161  -0.03794  0.01047  -0.0001546  -0.6649  -0.702
6.375e+09  -0.2935  -0.853  0.003451  0.03269  -0.01955  -0.02861  -0.8156  -0.4152
6.376e+09  -0.5455  -0.751  0.006332  -0.005269  0.02122  -0.002667  -0.9513  -0.08658
6.378e+09  -0.7142  -0.4268  -0.02217  0.002479  -0.0145  0.03299  -0.9407  0.2225
6.379e+09  -0.8675  -0.1484  -0.01273  0.03391  0.02528  -0.008176  -0.7906  0.553
6.38e+09  -0.8522  0.1325  0.01259  0.01921  0.004601  -0.009984  -0.5313  0.7041
6.381e+09  -0.7956  0.3795  -0.01152  0.001032  0.04301  -0.003965  -0.2337  0.8876
6.382e+09  -0.5853  0.7113  -0.006906  -0.009418  -0.02252  -0.01511  0.04005  0.9522
6.384e+09  -0.3065  0.8389  0.002406  -0.005558  0.01811  0.01958  0.3463  0.8543
6.385e+09  0.0128  0.8416  0.03765  0.03031  -0.01139  0.008517  0.6  0.6479
6.386e+09  0.3223  0.8384  0.008803  -0.0003177  -0.01718  -0.0007307  0.8281  0.4625
6.388e+09  0.5864  0.6738  -0.07412  0.01507  -0.006157  -0.005556  0.8932  0.1293
6.389e+09  0.7925  0.4381  0.04606  -0.04035  -0.02383  -0.04759  0.8993  -0.1764
6.39e+09  0.9078  0.1624  0.0257  0.01126  -0.02699  -0.01852  0.7458  -0.4847
6.391e+09  0.8522  -0.1419  -0.03625  -0.004181  0.04469  0.009113  0.552  -0.7373
6.392e+09  0.7892  -0.4793  -0.01367  -0.04584  -0.002748  -0.03995  0.2723  -0.8761
6.394e+09  0.5613  -0.7492  0.04107  0.008291  -0.009886  -0.0008802  -0.002255  -0.9121
6.395e+09  0.281  -0.8352  0.00689  -0.002817  -0.04214  -0.01571  -0.3798  -0.8333
6.396e+09  -0.05204  -0.9071  0.02993  -0.02403  0.01499  -0.03249  -0.6035  -0.6908
6.398e+09  -0.3586  -0.7922  0.02302  0.009273  -0.02857  -0.007677  -0.8106  -0.4385
6.399e+09  -0.5912  -0.6353  -0.02777  -0.0205  0.01152  0.0178  -0.8906  -0.1541
6.4e+09  -0.8457  -0.4297  0.00244  -0.03364  -0.01753  0.02684  -0.8842  0.1523
6.401e+09  -0.8601  -0.138  0.0212  0.02116  0.01917  -0.008629  -0.7682  0.45
6.402e+09  -0.8907  0.205  -0.005589  0.006327  0.00275  -0.02351  -0.5832  0.7059
6.404e+09  -0.7266  0.4728  -0.02686  -0.05931  0.02213  -0.009839  -0.3046  0.8478
6.405e+09  -0.5983  0.6956  0.02109  -0.005688  0.01647  0.04346  0.002594  0.9257
6.406e+09  -0.2534  0.7892  -0.0167  -0.009744  -0.0009817  -0.00245  0.3169  0.8778
6.408e+09  0.0761  0.8446  0.009667  0.01399  0.002735  -0.05263  0.5845  0.688
6.409e+09  0.3294  0.8262  0.0485  -0.03019  -0.01167  -0.005139  0.808  0.469
6.41e+09  0.5981  0.6044  -0.02981  0.01407  -0.02946  -0.01632  0.8959  0.2163
6.411e+09  0.7891  0.3729  0.005619  0.009317  0.01974  -0.02614  0.8661  -0.1381
6.412e+09  0.8519  0.1285  -0.001546  -0.01124  0.02906  0.05488  0.8037  -0.4522
6.414e+09  0.8413  -0.1765  0.005891  -0.06291  -0.03772  0.02866  0.593  -0.6801
6.415e+09  0.7141  -0.484  0.002549  0.01032  -0.003474  -0.01845  0.3532  -0.7986
6.416e+09  0.5208  -0.7101  -0.02245  -0.03225  0.004278  -0.01937  0.04899  -0.8973
6.418e+09  0.2396  -0.8636  -0.0385  0.01149  -0.003394  0.01943  -0.2727  -0.8542
6.419e+09  -0.08413  -0.9223  -0.008108  0.009263  0.009571  0.01467  -0.5586  -0.7117
6.42e+09  -0.362  -0.7979  0.03857  0.02275  -0.000357  -0.009367  -0.7916  -0.4302
6.421e+09  -0.5583  -0.6043  -0.007296  -0.02923  0.003321  -0.004987  -0.8741  -0.2053
6.422e+09  -0.7664  -0.3607  0.01219  0.009195  0.07044  0.03858  -0.9045  0.08059
6.424e+09  -0.8858  -0.08362  0.02492  0.01836  0.03776  -0.01852  -0.7923  0.363
6.425e+09  -0.8305  0.259  -0.006508  -0.0349  -0.007141  -0.04569  -0.5702  0.6248
6.426e+09  -0.7136  0.5528  0.02565  0.01109  0.01351  0.02535  -0.3542  0.8043
6.428e+09  -0.5187  0.6687  0.01241  0.01182  -0.02081  0.01843  -0.03087  0.8519
6.429e+09  -0.1956  0.8761  -0.007369  -0.004364  0.01857  -0.001702  0.2862  0.8427
6.43e+09  0.07805  0.915  -0.01085  0.004575  -0.03051  -0.003362  0.5133  0.6988
6.431e+09  0.3651  0.7808  0.04929  0.02373  0.03313  0.0117  0.6968  0.4776
6.432e+09  0.627  0.6102  0.0116  -0.01475  -0.01382  0.00979  0.8408  0.1855
6.434e+09  0.8091  0.3632  -0.0052  -0.01447  0.01017  -0.005314  0.8726  -0.06888
6.435e+09  0.911  0.07717  -0.006051  0.02304  -0.009832  0.01978  0.7538  -0.4116
6.436e+09  0.8399  -0.2678  -0.01025  -0.02919  -0.001375  0.04921  0.6325  -0.6212
6.438e+09  0.6732  -0.5155  0.01419  -0.005585  0.04379  -0.002025  0.3729  -0.7727
6.439e+09  0.4773  -0.6845  -0.01209  -0.03493  0.00134  0.01768  0.06463  -0.885
6.44e+09  0.2215  -0.7986  -0.04326  0.002502  -0.004094  -0.009446  -0.2023  -0.8534
6.441e+09  -0.0742  -0.8794  -0.01688  0.01522  -0.01639  -0.01116  -0.4953  -0.7161
6.442e+09  -0.3731  -0.7666  -0.01048  -0.02227  0.03416  0.0146  -0.7183  -0.4601
6.444e+09  -0.6005  -0.6002  -0.04404  0.03873  -0.0255  0.000753  -0.8113  -0.2388
6.445e+09  -0.7797  -0.3826  0.001013  -0.01168  -0.006259  0.0622  -0.8187  0.05015
6.446e+09  -0.8557  -0.06057  -0.06006  0.01077  0.01887  -0.01348  -0.749  0.3595
6.448e+09  -0.8224  0.2501  -0.02028  -0.008684  0.01579  -0.01923  -0.6118  0.5859
6.449e+09  -0.7446  0.532  -0.003686  -0.00247  0.04978  -0.04749  -0.3119  0.7627
6.45e+09  -0.4738  0.7579  0.01465  -0.02929  0.0006693  0.004554  -0.06058  0.8359
6.451e+09  -0.2155  0.8634  -0.03733  -0.03745  0.01743  -0.006076  0.2357  0.782
6.452e+09  0.12  0.8897  0.03913  -0.002938  0.00523  0.01231  0.4849  0.683
6.454e+09  0.4131  0.8191  -0.007892  0.01693  0.02203  0.03993  0.6378  0.4855
6.455e+09  0.6436  0.5824  -0.0116  -0.01636  0.009318  -0.02195  0.7876  0.1992
6.456e+09  0.8308  0.3392  0.03892  -0.01883  0.02531  0.01546  0.8098  -0.09653
6.458e+09  0.8526  0.023  0.03551  0.03684  -0.01645  0.05595  0.7341  -0.3799
6.459e+09  0.8535  -0.2335  0.01596  0.008212  0.02911  -0.02938  0.6378  -0.5591
6.46e+09  0.671  -0.5398  0.01237  -0.00224  0.02411  -0.01429  0.3236  -0.7434
6.461e+09  0.5283  -0.6911  0.03144  -0.0376  -0.008124  0.01748  0.04274  -0.8002
6.462e+09  0.2043  -0.89  0.004512  0.04339  0.06543  -0.01166  -0.2245  -0.7919
6.464e+09  -0.1217  -0.8547  -0.009175  -0.03123  0.0472  0.05452  -0.4716  -0.6564
6.465e+09  -0.4303  -0.764  -0.01677  0.006723  0.005538  0.035  -0.671  -0.4266
6.466e+09  -0.6164  -0.5796  -0.005762  0.03393  0.04183  0.009203  -0.7977  -0.2219
6.468e+09  -0.8691  -0.3569  0.008607  0.007273  0.09218  -0.008025  -0.8259  0.04402
6.469e+09  -0.895  -0.02533  -0.02606  -0.01604  0.00912  0.02717  -0.6879  0.389
6.47e+09  -0.8584  0.2414  0.03225  -0.0007309  -0.02446  -0.01153  -0.569  0.5424
6.471e+09  -0.7262  0.5075  0.02611  0.02472  0.03184  0.02472  -0.3176  0.7017
6.472e+09  -0.5012  0.7521  0.01012  -0.01352  -0.007196  0.002996  -0.05996  0.7912
6.474e+09  -0.1711  0.8588  0.01754  -0.01088  -0.01687  -0.009662  0.2374  0.7937
6.475e+09  0.1295  0.8638  0.01744  0.003124  0.04325  0.01455  0.456  0.6542
6.476e+09  0.3702  0.8214  -0.008767  -0.007352  -0.04081  0.03454  0.6657  0.4292
6.478e+09  0.6915  0.5636  -0.002719  -0.01381  0.04132  0.02766  0.7969  0.2307
6.479e+09  0.8389  0.3476  0.03392  0.005033  0.05421  0.04016  0.7758  -0.05938
6.48e+09  0.8787  0.03731  -0.03208  0.02681  0.06541  -0.03245  0.7185  -0.3213
6.481e+09  0.8534  -0.3239  -0.03217  -0.02118  -0.02965  0.01974  0.5171  -0.5674
6.482e+09  0.724  -0.5429  -0.008805  -0.005656  -0.03513  0.03643  0.3369  -0.6843
6.484e+09  0.4387  -0.8215  -0.005021  -0.004842  0.01699  0.04851  0.04183  -0.7414
6.485e+09  0.1349  -0.8599  0.009853  -0.03504  0.03416  0.01197  -0.242  -0.7515
6.486e+09  -0.1816  -0.9015  -0.01208  0.009578  -0.008308  0.05729  -0.4451  -0.6306
6.488e+09  -0.4591  -0.7987  -0.01164  -0.007608  -0.01569  0.04932  -0.6356  -0.4444
6.489e+09  -0.6939  -0.6392  -0.01337  0.007555  0.02704  0.03239  -0.7304  -0.1846
6.49e+09  -0.8702  -0.3246  0.01183  0.01715  0.03402  -0.01041  -0.7872  0.09532
6.491e+09  -0.9453  -0.03392  0.01388  -0.01656  0.04141  0.03592  -0.6823  0.2985
6.492e+09  -0.9041  0.3819  -0.04412  -0.02237  0.002534  -0.01824  -0.5498  0.5562
6.494e+09  -0.6671  0.5923  -0.01812  0.04091  -0.01687  0.04398  -0.3048  0.7006
6.495e+09  -0.4611  0.8008  -0.02001  -0.02715  -0.006787  -0.02457  -0.03197  0.7535
6.496e+09  -0.1701  0.8944  0.06271  0.02359  -0.02835  -0.02711  0.2224  0.7283
6.498e+09  0.1712  0.8634  0.00304  0.06461  -0.05083  -0.01915  0.4601  0.6094
6.499e+09  0.4256  0.8074  -0.0178  0.04412  -0.03636  0.0181  0.6543  0.4433
6.5e+09  0.7063  0.5902  0.05099  0.02675  0.05666  -0.04026  0.7439  0.1947
6.501e+09  0.8916  0.3702  -0.02384  -0.004444  0.03159  0.01339  0.7383  -0.1326
6.502e+09  0.8962  -0.003404  0.02507  -0.006465  -0.0008612  -0.009693  0.7311  -0.3485
6.504e+09  0.8662  -0.3355  -0.006501  0.01227  -0.01695  0.02224  0.4978  -0.5332
6.505e+09  0.7054  -0.6488  -0.004493  -0.0276  0.05027  -0.00589  0.2895  -0.6961
6.506e+09  0.4583  -0.8105  -0.01711  -0.03916  0.0008377  -0.06709  0.01948  -0.7297
6.508e+09  0.1092  -0.9511  0.01082  -0.0139  -0.004461  0.007351  -0.2613  -0.7193
6.509e+09  -0.2538  -0.9308  0.02655  -0.001035  -0.004911  0.02047  -0.4778  -0.5746
6.51e+09  -0.5184  -0.8212  -0.03531  -0.008653  -0.01462  0.01098  -0.6245  -0.3543
6.511e+09  -0.7625  -0.567  0.007684  -0.006569  -0.00383  -0.01498  -0.7435  -0.1339
6.512e+09  -0.9021  -0.2314  -0.02867  0.04288  0.0001309  -0.04494  -0.7015  0.115
6.514e+09  -0.9608  0.05736  -0.01174  0.008772  0.01011  0.02347  -0.7  0.3822
6.515e+09  -0.8954  0.4114  0.0009506  -0.02698  -0.007748  0.02146  -0.4577  0.5575
6.516e+09  -0.6656  0.6929  -0.01717  -0.02031  -0.0002556  0.01036  -0.2372  0.711
6.518e+09  -0.3786  0.8952  -0.01531  -0.01959  -0.05019  -0.02614  0.01354  0.768
6.519e+09  -0.07072  0.9338  0.01345  -0.03583  0.001656  -0.03127  0.2641  0.7143
6.52e+09  0.2453  0.9339  -0.0006486  -0.001484  0.006146  0.01251  0.4811  0.5669
6.521e+09  0.5707  0.8031  -0.02515  0.02062  0.03067  -0.007414  0.629  0.3202
6.522e+09  0.762  0.5281  -0.02954  0.04828  0.00739  -0.004671  0.7487  0.07937
6.524e+09  0.97  0.2116  0.008441  -0.02164  0.04496  -0.02657  0.7208  -0.1693
6.525e+09  0.9828  -0.09729  0.01658  0.01678  -0.0177  0.02271  0.5724  -0.3806
6.526e+09  0.8884  -0.4469  -0.03194  0.02671  0.01503  0.01058  0.402  -0.5639
6.528e+09  0.6369  -0.6571  -0.01603  0.008102  -0.002649  -0.01991  0.2072  -0.6829
6.529e+09  0.3963  -0.9547  0.001109  -0.01099  -0.0006439  0.07906  -0.08168  -0.7157
6.53e+09  0.0829  -1.038  -0.006733  -0.006196  -0.01293  0.006257  -0.2672  -0.6178
6.531e+09  -0.2645  -0.9137  -0.006515  -0.01783  0.02835  -0.02907  -0.4775  -0.4722
6.532e+09  -0.6193  -0.7452  -0.006109  0.00732  0.02528  0.003832  -0.5742  -0.2949
6.534e+09  -0.8189  -0.473  0.02884  -0.001633  0.02758  -0.05017  -0.6489  -0.08009
6.535e+09  -0.9642  -0.1556  -0.001088  0.01201  -0.01734  -0.0001038  -0.5954  0.09791
6.536e+09  -0.9653  0.2037  -0.001896  -0.01537  -0.02754  -0.02395  -0.5628  0.3265
6.538e+09  -0.8549  0.472  0.02557  -0.01666  0.01964  0.02754  -0.4409  0.4875
6.539e+09  -0.615  0.7674  0.01208  0.02465  -0.02253  -0.0003331  -0.3038  0.5789
6.54e+09  -0.3425  0.9261  0.01008  -0.001132  0.01849  -0.02833  -0.07139  0.6914
6.541e+09  0.05736  0.9534  0.02178  0.008521  0.02015  -0.01708  0.2049  0.6713
6.542e+09  0.3683  0.8944  0.0227  0.008907  0.01562  -0.04296  0.3727  0.5695
6.544e+09  0.6372  0.7415  0.02331  -0.01877  0.01015  0.01957  0.5748  0.439
6.545e+09  0.8795  0.4598  0.02753  -0.002219  0.04945  -0.02367  0.6593  0.181
6.546e+09  0.9653  0.0594  0.01697  0.004105  0.02084  -0.01435  0.721  -0.07497
6.548e+09  0.9494  -0.2539  0.02575  0.0119  0.018  -0.005486  0.6451  -0.3475
6.549e+09  0.8004  -0.5831  -0.02038  -0.009355  -0.07349  -0.08808  0.5319  -0.5282
6.55e+09  0.5688  -0.7772  0.03181  -0.01669  -0.06696  -0.002448  0.2754  -0.694
