# Hz S RI R 50
6.25e+09  -0.3901  0.7547  -0.00518  -0.02187  -0.02175  -0.01044  0.1309  0.4531
6.251e+09  -0.1164  0.8771  0.008582  -0.01442  0.01386  -0.004955  0.3542  0.3978
6.252e+09  0.1757  0.8326  0.005013  -0.001982  0.009947  0.03292  0.5341  0.2136
6.254e+09  0.4117  0.7305  0.02605  0.008205  0.02809  -0.02421  0.6281  -0.001059
6.255e+09  0.6895  0.5322  0.03598  0.01984  -0.02196  -0.03501  0.6154  -0.2283
6.256e+09  0.8215  0.3028  -0.01996  0.02878  0.02229  -0.03494  0.4575  -0.4231
6.258e+09  0.8235  -0.03971  0.01417  -0.006464  0.06499  -0.02023  0.2814  -0.5594
6.259e+09  0.8124  -0.2586  0.01101  0.008287  0.03611  -0.03906  0.01557  -0.662
6.26e+09  0.6142  -0.5501  0.00798  -0.008743  0.03363  0.009403  -0.2517  -0.6358
6.261e+09  0.4001  -0.7201  0.03719  0.02838  -0.02982  0.005218  -0.4061  -0.5134
6.262e+09  0.09722  -0.8129  -0.006656  0.0243  -0.03238  -0.01065  -0.6182  -0.3763
6.264e+09  -0.1272  -0.8197  0.01723  -0.03238  -0.02961  -0.0403  -0.7161  -0.143
6.265e+09  -0.4243  -0.6898  -0.007412  0.002384  -0.01458  -0.04631  -0.718  0.1246
6.266e+09  -0.7057  -0.5579  -0.01202  -0.04317  0.006884  -0.02328  -0.5766  0.4101
6.268e+09  -0.7969  -0.2356  -0.007615  -0.002494  -0.03402  0.02139  -0.4062  0.6062
6.269e+09  -0.8387  0.03797  0.01908  0.02282  -0.009842  0.01679  -0.1909  0.735
6.27e+09  -0.7399  0.3224  0.004719  0.003703  -0.03583  0.04497  0.04483  0.7734
6.271e+09  -0.5849  0.5727  0.01026  0.008176  0.0146  0.02645  0.3566  0.677
6.272e+09  -0.3709  0.718  -0.04173  0.01679  0.007583  0.0189  0.5408  0.5309
6.274e+09  -0.139  0.7799  0.01544  0.04632  0.002001  -0.01535  0.6902  0.3131
6.275e+09  0.166  0.8109  -0.001512  -0.02076  -0.002674  0.04638  0.7766  0.06461
6.276e+09  0.4787  0.7478  0.007871  0.008069  0.03281  0.03129  0.7313  -0.2138
6.278e+09  0.6247  0.5151  0.002683  -0.002797  0.02805  -0.006955  0.6562  -0.4804
6.279e+09  0.8271  0.2278  0.004462  0.03372  -0.0373  -0.02909  0.3878  -0.6118
6.28e+09  0.8491  -0.04593  0.02189  -0.007144  0.009529  0.02831  0.1588  -0.7629
6.281e+09  0.7755  -0.3112  -0.03609  -0.01231  -0.001098  0.01893  -0.1272  -0.7741
6.282e+09  0.587  -0.5517  0.01711  0.01722  -0.01541  0.01295  -0.3494  -0.6932
6.284e+09  0.4147  -0.725  0.007987  0.02441  -0.02762  -0.01269  -0.5846  -0.5331
6.285e+09  0.1454  -0.8248  -0.001011  0.02318  -0.03505  -0.01331  -0.72  -0.2969
6.286e+09  -0.2427  -0.7908  -0.0109  0.005294  -0.01814  0.05611  -0.7837  -0.06833
6.288e+09  -0.4797  -0.6742  -0.008267  -0.04592  0.01985  0.008619  -0.7308  0.2397
6.289e+09  -0.6407  -0.5154  0.01064  -0.018  0.004246  0.07212  -0.6482  0.5008
6.29e+09  -0.7891  -0.2487  0.02224  0.0268  -0.03466  -0.006474  -0.447  0.6391
6.291e+09  -0.8354  0.06071  0.006568  -0.01497  -0.01242  0.00824  -0.1691  0.7977
6.292e+09  -0.7235  0.3115  0.001124  0.001169  -0.0322  0.008841  0.1581  0.7624
6.294e+09  -0.628  0.5432  -0.01163  0.01745  0.04584  0.03581  0.3714  0.7173
6.295e+09  -0.3784  0.7312  0.0142  0.02988  -0.003584  -0.006383  0.6117  0.5296
6.296e+09  -0.06893  0.8127  -0.01727  -0.004072  0.0317  -0.0174  0.7737  0.2951
6.298e+09  0.2683  0.7953  0.02221  0.04377  0.01379  0.03244  0.7996  -0.01274
6.299e+09  0.4998  0.6735  -0.02604  -0.01214  -0.03261  0.01387  0.7656  -0.2396
6.3e+09  0.6689  0.4169  -0.004583  -0.02009  -0.01108  -0.03127  0.627  -0.5452
6.301e+09  0.8078  0.131  0.01352  -0.02611  -0.01063  0.03357  0.4271  -0.7
6.302e+09  0.8039  -0.1093  0.02  -0.005539  0.001001  0.004849  0.1601  -0.8243
6.304e+09  0.7099  -0.3979  0.01059  0.02719  -0.04617  -0.03516  -0.1362  -0.8572
6.305e+09  0.577  -0.6072  0.03077  0.01648  -0.03116  0.04895  -0.4064  -0.7656
6.306e+09  0.3033  -0.7309  -0.001424  -0.02389  0.02348  0.05713  -0.6365  -0.5704
6.308e+09  0.007963  -0.8441  -0.01046  0.004601  0.05017  0.02545  -0.8025  -0.2992
6.309e+09  -0.2716  -0.7928  -0.0005476  0.005359  0.014  0.01192  -0.8711  0.002453
6.31e+09  -0.5214  -0.5996  -0.03357  -0.00413  -0.05141  0.02555  -0.808  0.2768
6.311e+09  -0.7546  -0.4077  -0.03007  0.005306  -0.03265  0.04127  -0.6759  0.5645
6.312e+09  -0.7941  -0.195  0.004581  0.01941  0.0001426  -0.02492  -0.4554  0.7718
6.314e+09  -0.8314  0.1283  0.007261  0.01713  -0.005645  -0.01671  -0.1712  0.8351
6.315e+09  -0.7201  0.4226  -0.03749  -0.00911  0.01695  -0.00982  0.1766  0.886
6.316e+09  -0.571  0.6145  -0.01487  -0.006483  0.04142  0.03267  0.4114  0.7702
6.318e+09  -0.3187  0.8015  0.02845  0.0181  -0.008754  0.01519  0.6559  0.6051
6.319e+09  0.02294  0.9157  0.01625  0.01511  -0.01068  -0.02764  0.8137  0.303
6.32e+09  0.2677  0.8219  0.04077  0.0001851  0.03389  0.0234  0.8679  0.004296
6.321e+09  0.5727  0.6089  -0.002908  0.02509  -0.0006404  0.03276  0.8485  -0.2837
6.322e+09  0.7425  0.3888  -0.02117  0.01071  -0.02062  0.05151  0.6874  -0.5353
6.324e+09  0.8282  0.09673  0.01849  0.002408  0.01245  -0.007585  0.4355  -0.7163
6.325e+09  0.808  -0.165  -0.02712  -0.01462  -0.004541  -0.01839  0.2225  -0.8571
6.326e+09  0.6874  -0.4693  0.01024  -0.01227  0.003463  -0.02241  -0.131  -0.8728
6.328e+09  0.4756  -0.6735  0.01061  -0.0004317  0.0004465  0.04687  -0.4338  -0.7746
6.329e+09  0.2393  -0.8347  0.03333  -0.02135  -0.02336  -0.02881  -0.661  -0.5755
6.33e+09  -0.06584  -0.8465  -0.03834  -0.01728  0.01022  0.03379  -0.8232  -0.3382
6.331e+09  -0.3263  -0.8012  -0.005381  -0.02103  0.01014  -0.05702  -0.9168  -0.01029
6.332e+09  -0.5705  -0.6819  0.009178  -0.01338  -0.02592  -0.02288  -0.8831  0.2531
6.334e+09  -0.7678  -0.4289  -0.009284  -0.01801  0.04972  0.03215  -0.6774  0.5846
6.335e+09  -0.8805  -0.06132  0.004712  -0.004916  -0.04128  0.003997  -0.5037  0.7788
6.336e+09  -0.8271  0.2303  -0.0065  -0.002441  -0.02625  0.02807  -0.1897  0.8705
6.338e+09  -0.7135  0.5026  0.009992  -0.01659  -0.004801  -0.01919  0.1432  0.9247
6.339e+09  -0.4541  0.7477  -0.001384  -0.02908  0.01541  0.00335  0.4219  0.8117
6.34e+09  -0.1901  0.8673  0.01663  -0.005253  -0.03422  0.05518  0.6835  0.6095
6.341e+09  0.09719  0.9154  -0.0005425  -0.04183  -0.02513  0.008044  0.8642  0.3654
6.342e+09  0.4019  0.7612  0.02325  -0.003989  0.02822  -0.002775  0.9211  0.04891
6.344e+09  0.633  0.5683  0.01487  -0.002488  -0.004858  0.01291  0.8736  -0.2773
6.345e+09  0.8019  0.3528  0.03492  -0.001122  -0.001464  -0.0147  0.7494  -0.5755
6.346e+09  0.8323  0.04636  -0.009667  -0.05278  -0.01537  0.005483  0.5097  -0.7901
6.348e+09  0.8058  -0.288  -0.05137  -0.003344  0.02925  -0.02895  0.187  -0.9082
6.349e+09  0.6485  -0.513  0.003172  -0.001286  0.02497  -0.04518  -0.1229  -0.9156
6.35e+09  0.4275  -0.745  -0.02854  0.02516  -0.004316  0.02945  -0.433  -0.8363
6.351e+09  0.1842  -0.8433  -0.01161  -0.009066  0.02022  0.01643  -0.6838  -0.5862
6.352e+09  -0.1891  -0.8335  -0.01929  0.026  0.03306  0.006982  -0.8488  -0.4089
6.354e+09  -0.4691  -0.8052  0.01853  -0.001385  0.01346  0.04135  -0.948  -0.001034
6.355e+09  -0.7324  -0.6008  -0.03202  0.02681  0.03695  0.02177  -0.872  0.2723
6.356e+09  -0.8219  -0.2228  0.04604  0.01294  0.03803  0.03533  -0.7566  0.564
6.358e+09  -0.8537  0.01911  0.02638  0.007107  -0.0005884  -0.0319  -0.4691  0.7721
6.359e+09  -0.8058  0.3586  0.01964  -0.01275  0.02562  0.01271  -0.228  0.9402
6.36e+09  -0.6342  0.6005  -0.005259  -0.01543  0.009619  0.01038  0.1106  0.9369
6.361e+09  -0.4162  0.7838  -0.0009855  -0.0219  0.01695  -0.007709  0.4288  0.8322
6.362e+09  -0.1208  0.8672  -0.02629  0.001154  -0.0001329  -0.02773  0.7003  0.6689
6.364e+09  0.192  0.8569  -0.03104  0.02042  0.0418  0.0006818  0.8423  0.4163
6.365e+09  0.4848  0.7373  -0.0287  -0.006417  0.006829  -0.01517  0.9429  0.0845
6.366e+09  0.7626  0.5379  -0.01001  -0.009609  -0.03156  0.02919  0.8903  -0.2418
6.368e+09  0.8414  0.185  -0.009781  0.007988  0.02141  0.02036  0.7624  -0.5406
6.369e+09  0.8862  -0.07348  -0.009834  0.005096  0.002408  -0.02796  0.5339  -0.7465
6.37e+09  0.8098  -0.3768  0.03646  0.01281  0.01433  -0.01921  0.2691  -0.8755
6.371e+09  0.6153  -0.6584  -0.03452  0.0007566  0.03827  -0.01385  -0.06397  -0.931
6.372e+09  0.3704  -0.781  -0.02283  0.0001834  -0.02149  -0.02962  -0.3863  -0.8776
6.374e+09  0.08707  -0.9102  0.01808  -0.007469  0.02283  -0.01802  -0.7079  -0.6448
6.375e+09  -0.2493  -0.8406  0.003508  0.001881  0.02728  -0.03552  -0.8328  -0.415
6.376e+09  -0.5479  -0.7208  0.006023  -0.01754  0.009191  0.0169  -0.9651  -0.06002
6.378e+09  -0.7562  -0.4302  0.009708  -0.01164  0.004222  0.01534  -0.9362  0.2552
6.379e+09  -0.8376  -0.1919  -0.02173  0.01977  -0.005955  0.00107  -0.7909  0.5181
6.38e+09  -0.8587  0.133  0.02119  0.02334  0.009849  0.0213  -0.5468  0.7452
6.381e+09  -0.7705  0.4214  0.02962  -0.008501  -0.01572  -0.05406  -0.2415  0.9646
6.382e+09  -0.6086  0.6775  0.02061  -0.01848  0.007144  -0.00396  0.03991  0.9458
6.384e+09  -0.3476  0.8535  0.02678  -0.02768  -0.01434  0.008244  0.397  0.8681
6.385e+09  -0.03841  0.8721  -0.01542  0.01185  -0.03685  0.005764  0.6324  0.6459
6.386e+09  0.266  0.8257  -0.00294  -0.001786  0.0112  -0.0003216  0.8577  0.4354
6.388e+09  0.6043  0.6733  -0.06673  0.007331  -0.01355  -0.001262  0.916  0.1311
6.389e+09  0.7296  0.4743  -0.02982  0.008482  0.03806  0.0006725  0.9157  -0.2338
6.39e+09  0.8619  0.1443  0.01198  0.01894  0.0256  0.04228  0.7439  -0.4945
6.391e+09  0.8681  -0.15  -0.006844  0.02583  0.01738  0.03219  0.5571  -0.6989
6.392e+09  0.7585  -0.4841  -0.03902  0.0247  -0.01876  0.0412  0.2591  -0.8474
6.394e+09  0.5532  -0.7201  0.01869  -0.005924  0.006545  0.03085  -0.01441  -0.8589
6.395e+09  0.2931  -0.8116  -0.004747  -0.05485  0.001399  0.002906  -0.373  -0.8246
6.396e+09  -0.02236  -0.9016  0.01099  -0.02918  0.01768  -0.04586  -0.6216  -0.6951
6.398e+09  -0.3207  -0.8595  -0.02477  -0.04752  0.04365  -0.05903  -0.8236  -0.4372
6.399e+09  -0.6209  -0.6424  -0.01394  0.02335  -0.01175  -0.03781  -0.9467  -0.1079
6.4e+09  -0.8055  -0.4607  -0.01501  -0.00915  0.03268  -0.03521  -0.8546  0.1268
6.401e+09  -0.8644  -0.1348  -0.006757  0.00655  -0.04027  0.0292  -0.8095  0.4929
6.402e+09  -0.8638  0.1893  0.04137  0.01121  0.007356  -0.004888  -0.5683  0.6965
6.404e+09  -0.7765  0.4495  0.02905  0.006211  0.02172  0.0226  -0.3016  0.8494
6.405e+09  -0.5517  0.6998  -0.002095  0.02327  0.004804  0.02133  0.01537  0.9306
6.406e+09  -0.2416  0.8252  -0.02593  0.01651  0.03443  0.004996  0.3306  0.8083
6.408e+09  0.1082  0.8569  -0.05293  0.01041  -0.03307  -0.02851  0.5844  0.6865
6.409e+09  0.3068  0.7986  0.03652  -0.001213  0.01124  -0.01394  0.7819  0.469
6.41e+09  0.6129  0.6237  -0.02871  0.04107  -0.002756  -0.05363  0.9238  0.1805
6.411e+09  0.7871  0.4379  0.008314  -0.00202  -0.008796  0.006068  0.9297  -0.172
6.412e+09  0.8557  0.1017  0.00929  -0.002299  0.03636  -0.006205  0.7614  -0.3923
6.414e+09  0.835  -0.2311  0.002475  0.02918  0.000534  -0.03915  0.6039  -0.6434
6.415e+09  0.7146  -0.5383  -0.01469  -0.01678  -0.006817  -0.02191  0.3447  -0.8399
6.416e+09  0.4822  -0.6941  -0.04478  -0.05028  0.09498  -0.002284  0.04972  -0.8852
6.418e+09  0.2548  -0.8852  0.02028  -0.04242  0.02919  -0.005408  -0.2932  -0.8521
6.419e+09  -0.05586  -0.9145  -0.0318  0.01498  -0.0261  -0.0265  -0.5435  -0.7054
6.42e+09  -0.3793  -0.7774  0.008676  0.03886  0.01926  0.001076  -0.741  -0.4536
6.421e+09  -0.6824  -0.6794  -0.01896  -0.02168  0.01304  0.01451  -0.8306  -0.2125
6.422e+09  -0.7656  -0.3588  -0.004835  0.01547  -0.01956  -0.01102  -0.8676  0.1005
6.424e+09  -0.8613  -0.1052  -0.01799  -0.03429  -0.0123  0.062  -0.7787  0.3805
6.425e+09  -0.8707  0.2574  -0.03145  -0.02902  0.05211  0.0203  -0.6257  0.6481
6.426e+09  -0.7102  0.5569  0.006849  -0.01172  0.0526  0.006095  -0.3601  0.8106
6.428e+09  -0.5247  0.6882  -0.01606  0.02073  -0.04642  -0.01219  -0.009599  0.8352
6.429e+09  -0.2509  0.8369  -0.03515  0.04308  -0.01324  -0.0186  0.2457  0.8741
6.43e+09  0.07721  0.902  0.0003181  0.003773  0.004881  0.01147  0.5196  0.696
6.431e+09  0.3742  0.7446  -0.02307  -0.0007874  0.04817  0.02369  0.7053  0.5115
6.432e+09  0.6015  0.5922  -0.03517  0.0119  0.05265  -0.027  0.8235  0.2199
6.434e+09  0.7992  0.3753  -0.0145  0.009512  -0.03365  0.01381  0.8852  -0.1083
6.435e+09  0.8357  0.07804  0.02227  -0.01831  0.05506  -0.05901  0.794  -0.343
6.436e+09  0.8569  -0.2658  -0.01462  0.01252  0.02135  -0.01269  0.5964  -0.628
6.438e+09  0.6984  -0.5264  0.005315  -0.02026  -0.03079  0.03384  0.3259  -0.807
6.439e+09  0.5025  -0.7646  0.01536  -0.01071  -0.02712  0.01133  0.05424  -0.8513
6.44e+09  0.2586  -0.832  -0.02782  -0.05902  -0.01368  0.004325  -0.2473  -0.8179
6.441e+09  -0.09767  -0.8672  -0.04583  0.03854  0.01569  -0.004019  -0.4591  -0.6853
6.442e+09  -0.3974  -0.7627  -0.008318  0.001945  -0.05017  -0.009824  -0.723  -0.5186
6.444e+09  -0.6286  -0.5904  -0.01367  -0.02941  0.001744  0.007087  -0.7756  -0.206
6.445e+09  -0.8031  -0.3441  0.02358  0.004048  0.009273  0.01214  -0.8511  0.06805
6.446e+09  -0.8815  0.004327  -0.004272  0.003208  -0.006608  0.006061  -0.7701  0.3712
6.448e+09  -0.8304  0.2633  0.008903  -0.007761  0.02747  -0.0371  -0.6319  0.59
6.449e+09  -0.6963  0.5111  -0.035  0.005721  0.0007643  -0.004693  -0.3043  0.7364
6.45e+09  -0.4971  0.6754  0.01864  -0.002026  0.04563  -0.009972  -0.07852  0.8237
6.451e+09  -0.2136  0.8526  0.0008514  0.01155  -0.0237  0.0005456  0.239  0.819
6.452e+09  0.09323  0.9133  0.01718  0.002625  0.03641  0.01127  0.5095  0.6639
6.454e+09  0.4437  0.8107  0.008517  0.009619  -0.001746  0.001757  0.6398  0.4947
6.455e+09  0.6345  0.583  0.0322  -0.01254  0.01376  0.01964  0.7836  0.1401
6.456e+09  0.7555  0.3489  0.0001867  0.007748  -0.01956  0.0319  0.8305  -0.07281
6.458e+09  0.9186  0.005227  0.01404  -0.009992  0.007486  -0.02396  0.7505  -0.3411
6.459e+09  0.835  -0.258  -0.01924  -0.01022  0.002071  -0.04761  0.6121  -0.5998
6.46e+09  0.7148  -0.522  0.005033  -0.008266  -0.01851  0.01425  0.3432  -0.7245
6.461e+09  0.5026  -0.7439  -0.04057  0.007847  0.05012  -0.07538  0.09326  -0.8005
6.462e+09  0.1315  -0.8982  -0.0001397  0.05755  0.02718  0.01585  -0.1778  -0.7953
6.464e+09  -0.1087  -0.8768  -0.005663  -0.00614  0.004116  -0.00673  -0.4282  -0.6511
6.465e+09  -0.433  -0.771  -0.02626  0.07799  -0.02031  -0.01588  -0.6365  -0.4463
6.466e+09  -0.7068  -0.6151  -0.01467  0.01803  0.03429  -0.03359  -0.7894  -0.2413
6.468e+09  -0.8521  -0.349  -0.009248  -0.02193  0.002133  0.03011  -0.7863  0.08584
6.469e+09  -0.9107  -0.1012  -0.04495  -0.01792  0.009918  0.0365  -0.7352  0.3661
6.47e+09  -0.8823  0.2144  0.01471  -0.003287  -0.02271  -0.03061  -0.5675  0.5904
6.471e+09  -0.7219  0.5433  0.03351  0.002061  -0.03582  -0.03548  -0.3482  0.7448
6.472e+09  -0.4249  0.7423  0.05002  -0.01355  -0.03252  -0.01626  -0.0929  0.8243
6.474e+09  -0.1715  0.8835  -0.004359  0.03387  -0.01508  -0.03232  0.1949  0.772
6.475e+09  0.1393  0.9189  0.01358  0.0003819  0.05754  -0.01867  0.4752  0.6723
6.476e+09  0.3893  0.835  0.001904  -0.02209  -0.06856  -0.01281  0.6249  0.4392
6.478e+09  0.7287  0.6754  0.01885  -0.008022  -0.01013  0.01831  0.7696  0.1911
6.479e+09  0.8677  0.3896  0.002963  0.02587  -0.0272  0.0004357  0.7879  -0.06035
6.48e+09  0.906  0.1082  -0.0515  0.02111  0.01459  -0.02009  0.6709  -0.3105
6.481e+09  0.8467  -0.2173  -0.00516  0.01513  0.01764  0.02781  0.5625  -0.6007
6.482e+09  0.6999  -0.6165  -0.001973  -0.001624  0.02315  -0.02064  0.3089  -0.698
6.484e+09  0.4382  -0.8039  -0.003687  0.02053  0.06627  -0.007859  0.0736  -0.7392
6.485e+09  0.1889  -0.8811  0.002407  0.04827  0.01659  -0.002901  -0.1831  -0.7524
6.486e+09  -0.1547  -0.8684  0.03405  -0.001832  -0.008624  0.0006384  -0.4629  -0.6036
6.488e+09  -0.4398  -0.8379  -0.04144  0.01042  -0.003475  -0.01254  -0.6367  -0.4798
6.489e+09  -0.6953  -0.598  0.01629  0.01665  0.06239  -0.004796  -0.7827  -0.166
6.49e+09  -0.8509  -0.3335  -0.02936  -0.0006781  0.002041  0.05191  -0.7389  0.06395
6.491e+09  -0.8907  0.03168  -0.01117  -0.002855  0.0136  0.02424  -0.6672  0.3179
6.492e+09  -0.8637  0.3544  0.01563  -0.008101  -0.01159  -0.007605  -0.5859  0.5087
6.494e+09  -0.6498  0.5875  -0.006512  -0.01075  -0.004551  0.0004208  -0.2907  0.6766
6.495e+09  -0.488  0.8177  -0.0006743  -0.001999  -0.01747  -0.01917  -0.06321  0.76
6.496e+09  -0.1034  0.8571  0.01001  0.001025  0.04686  -0.003278  0.1857  0.7334
6.498e+09  0.1399  0.9377  -0.02544  0.002118  0.01787  -0.01751  0.4607  0.6293
6.499e+09  0.4982  0.8731  -0.03874  -0.001911  0.03158  -0.02223  0.6423  0.4227
6.5e+09  0.7214  0.579  0.03354  -0.02405  -0.0005468  -0.01213  0.7779  0.187
6.501e+09  0.8881  0.2695  0.001917  0.06289  -0.002568  -0.01254  0.7353  -0.09325
6.502e+09  0.9468  -0.01119  -0.007136  -0.01626  -0.001785  -0.05714  0.671  -0.3549
6.504e+09  0.8724  -0.2969  -0.03489  -0.01701  -0.002796  -0.02054  0.489  -0.5617
6.505e+09  0.6862  -0.6187  -0.0425  -0.04229  0.04985  0.0533  0.2869  -0.7237
6.506e+09  0.4505  -0.7937  -0.00976  0.002619  -0.04402  -0.01296  0.02443  -0.7642
6.508e+09  0.1355  -0.9789  -0.03169  0.03841  -0.01184  0.0139  -0.2432  -0.7276
6.509e+09  -0.1352  -0.8974  0.02792  0.01176  -0.02428  0.01415  -0.4668  -0.609
6.51e+09  -0.4817  -0.7741  0.02483  -0.02009  0.001042  0.02237  -0.6233  -0.3852
6.511e+09  -0.755  -0.5959  0.03735  -0.03436  -0.03658  0.03102  -0.7434  -0.1041
6.512e+09  -0.9275  -0.2502  0.01341  -0.01061  -0.04493  0.007784  -0.7424  0.118
6.514e+09  -0.9115  0.07031  0.00306  -0.0101  -0.02512  0.004756  -0.6554  0.375
6.515e+09  -0.7797  0.3904  -0.005205  -0.01251  -0.0215  0.05118  -0.4576  0.5642
6.516e+09  -0.6908  0.6926  -0.01233  0.01831  0.01493  -0.07741  -0.2409  0.7058
6.518e+09  -0.419  0.8467  -0.02005  0.01261  -0.05015  -0.01653  -0.001903  0.7693
6.519e+09  -0.07144  0.9429  -0.02226  -0.006133  0.01106  0.002579  0.2625  0.6707
6.52e+09  0.2628  0.9194  -0.002991  0.009988  -0.009652  -0.02231  0.5064  0.5656
6.521e+09  0.5565  0.7864  -0.04556  0.01798  0.018  -0.009534  0.6709  0.3462
6.522e+09  0.8075  0.5296  0.02259  0.001994  0.02514  0.03712  0.7136  0.1006
6.524e+09  0.9442  0.218  0.01349  -0.01129  -0.03525  -0.009703  0.6956  -0.1762
6.525e+09  0.9655  -0.1362  0.0143  0.008382  0.0381  -0.01276  0.5977  -0.4138
6.526e+09  0.8349  -0.4162  0.04005  -0.03002  -0.01962  -0.02543  0.4367  -0.5919
6.528e+09  0.642  -0.7337  -0.02226  -0.01674  -0.01357  -0.01921  0.1907  -0.6794
6.529e+09  0.3772  -0.8612  0.002803  0.01663  -0.08089  -0.02256  -0.05197  -0.7006
6.53e+09  0.04951  -0.9554  -0.0142  0.02307  0.03437  -0.003168  -0.3302  -0.6451
6.531e+09  -0.2971  -0.9257  -0.005639  -0.005127  0.01126  0.005096  -0.4619  -0.4351
6.532e+09  -0.5795  -0.7606  -0.02343  -0.01996  0.01862  0.04186  -0.6044  -0.2791
6.534e+09  -0.7448  -0.4529  -0.01179  0.01878  0.03548  -0.01623  -0.6389  -0.07025
6.535e+09  -0.9737  -0.1392  -0.004421  0.01497  0.01245  0.03748  -0.6312  0.1008
6.536e+09  -0.9738  0.1826  0.01241  -0.01396  -0.03448  -0.01136  -0.5768  0.2979
6.538e+09  -0.8904  0.5055  -0.0174  0.0115  0.003764  0.01716  -0.4674  0.4469
6.539e+09  -0.5895  0.7474  0.003021  0.005195  0.02814  -0.02225  -0.2734  0.6023
6.54e+09  -0.2971  0.9105  0.01608  0.0009233  -0.003182  -0.01162  -0.03412  0.6882
6.541e+09  0.05726  0.9479  -0.00563  -0.01543  -0.02208  0.01228  0.187  0.6582
6.542e+09  0.3416  0.8934  -0.0145  -0.01676  0.0326  -0.0285  0.4068  0.5875
6.544e+09  0.6791  0.7117  -0.0175  -0.02825  0.02607  0.0211  0.6325  0.4166
6.545e+09  0.8386  0.4207  -0.00926  -0.00359  -0.01965  -0.04084  0.7208  0.1825
6.546e+09  0.9719  0.1137  0.03834  -0.01128  -0.02806  0.008662  0.7338  -0.04872
6.548e+09  0.9427  -0.2471  -0.01236  0.02097  -0.04104  0.01896  0.6451  -0.3297
6.549e+09  0.7523  -0.5695  -0.01668  0.04999  0.03024  -0.00839  0.5536  -0.5747
6.55e+09  0.5724  -0.7997  0.02378  0.005195  0.0016  -0.01613  0.308  -0.6895
