# Hz S RI R 50
6.25e+09  -0.3712  0.7972  -0.0004539  -0.01305  -0.03136  0.03364  0.1638  0.4614
6.251e+09  -0.1019  0.9036  -0.01081  -0.007849  -0.01711  0.001226  0.3814  0.3892
6.252e+09  0.1661  0.8743  -0.02336  0.009874  -0.00559  0.007153  0.5448  0.2308
6.254e+09  0.4951  0.7486  -0.0381  -0.01645  0.03746  -0.029  0.602  0.006263
6.255e+09  0.653  0.4854  -0.02444  0.005151  0.02295  -0.01685  0.577  -0.2688
6.256e+09  0.8342  0.3121  0.00817  0.04134  -0.04816  -0.01552  0.4789  -0.457
6.258e+09  0.8506  -0.0652  -0.001834  0.004528  0.04129  -0.02863  0.2633  -0.6219
6.259e+09  0.7308  -0.3416  0.01299  -0.01786  0.03321  -0.02725  0.03036  -0.6807
6.26e+09  0.6263  -0.6335  -0.0076  -0.01741  0.005258  0.01353  -0.2135  -0.6539
6.261e+09  0.3878  -0.7699  -0.02186  -0.006267  0.0573  0.01727  -0.4787  -0.5526
6.262e+09  0.08497  -0.813  0.01345  -0.0193  -0.01795  2.745e-05  -0.5819  -0.3705
6.264e+09  -0.2418  -0.8627  0.0003637  0.009208  -0.01483  0.02929  -0.7179  -0.07416
6.265e+09  -0.4805  -0.6306  -0.005116  -0.02352  -0.04284  -0.005617  -0.7045  0.1408
6.266e+09  -0.6734  -0.5135  -0.004989  0.005515  0.01058  0.01299  -0.6119  0.4156
6.268e+09  -0.7789  -0.2107  -0.01954  0.01381  -0.04517  -0.1187  -0.4287  0.6115
6.269e+09  -0.8673  0.03141  0.01058  0.01738  0.03618  -0.0159  -0.2161  0.7254
6.27e+09  -0.727  0.3569  -0.01583  -0.0173  0.01096  -0.04268  0.07357  0.7373
6.271e+09  -0.6209  0.5578  0.01439  0.0149  -0.01607  -0.04399  0.329  0.6625
6.272e+09  -0.2882  0.735  -0.01372  0.01465  0.01464  -0.01063  0.5215  0.5162
6.274e+09  -0.05305  0.8261  -0.03502  -0.01204  -0.04051  -0.01768  0.6773  0.3031
6.275e+09  0.2544  0.8137  -0.016  -0.009231  -0.02035  0.01307  0.7826  0.04635
6.276e+09  0.4572  0.7179  0.002956  -0.0296  0.002038  0.04832  0.6976  -0.2108
6.278e+09  0.6723  0.4538  -0.01965  0.01195  0.05779  -0.007263  0.5929  -0.4807
6.279e+09  0.8312  0.224  -0.03707  -0.02685  0.03485  0.04143  0.4029  -0.6434
6.28e+09  0.868  -0.08883  -0.0004734  0.02231  0.01708  0.01387  0.1357  -0.7457
6.281e+09  0.7201  -0.3469  -0.02911  0.04008  -0.01433  -0.01377  -0.1137  -0.7888
6.282e+09  0.5949  -0.5667  -0.01101  -0.01226  -0.02364  -0.03476  -0.3332  -0.6794
6.284e+09  0.3309  -0.7488  0.01638  0.01305  0.06197  -0.01755  -0.5976  -0.5437
6.285e+09  0.09028  -0.8499  0.009215  -0.01448  0.001728  -0.02765  -0.7361  -0.2754
6.286e+09  -0.2485  -0.7992  -0.0342  -0.01966  -0.03726  0.003269  -0.7815  -0.04585
6.288e+09  -0.4717  -0.6739  0.003366  -0.006838  -0.01539  0.03619  -0.7438  0.2797
6.289e+09  -0.6941  -0.4283  -0.01485  -0.03556  0.01143  0.05267  -0.6203  0.4787
6.29e+09  -0.7975  -0.1751  0.04366  -0.01112  -0.04403  0.04161  -0.4047  0.6778
6.291e+09  -0.8139  0.0819  -0.00861  0.00205  0.01568  -0.004416  -0.167  0.7786
6.292e+09  -0.7842  0.3736  -0.01996  -0.009986  0.02881  0.005525  0.1211  0.7935
6.294e+09  -0.5746  0.6242  -0.01317  -0.03134  -0.02819  0.02063  0.408  0.7087
6.295e+09  -0.3459  0.7999  -0.02158  -0.02766  -0.05494  -0.02284  0.609  0.5329
6.296e+09  -0.045  0.8308  -0.007124  -0.006051  0.01173  0.01265  0.7546  0.304
6.298e+09  0.2505  0.7781  -0.001941  0.008842  -0.05011  -0.00911  0.8061  0.01812
6.299e+09  0.5283  0.6427  -0.0187  0.003796  -0.0131  -0.005819  0.7903  -0.2795
6.3e+09  0.69  0.4184  -0.001203  -0.01803  -0.004918  0.02319  0.6467  -0.5288
6.301e+09  0.8123  0.1411  -0.02059  -0.005613  0.02858  -0.03078  0.437  -0.6872
6.302e+09  0.836  -0.1668  0.005888  -0.0115  0.05394  0.03423  0.1528  -0.8065
6.304e+09  0.7242  -0.4152  -0.02427  -0.002321  -0.03573  0.0396  -0.1353  -0.8359
6.305e+09  0.4853  -0.6301  0.02452  0.02713  0.003203  0.02458  -0.4114  -0.7349
6.306e+09  0.2446  -0.7869  -0.009488  -0.0022  0.01892  -0.02958  -0.6824  -0.5597
6.308e+09  0.01189  -0.8384  -0.007342  -0.007899  -0.01095  -0.03651  -0.7678  -0.2877
6.309e+09  -0.2939  -0.7722  0.01864  0.02762  0.01133  0.02865  -0.8463  -0.01591
6.31e+09  -0.5293  -0.5862  -0.001951  -0.0002487  -0.02844  0.02421  -0.7888  0.2945
6.311e+09  -0.7647  -0.3985  -0.00847  -0.01247  -0.02559  -0.02991  -0.6712  0.511
6.312e+09  -0.8138  -0.1873  -0.02371  -0.01682  0.02563  0.05155  -0.4454  0.7071
6.314e+09  -0.8057  0.23  -0.001387  0.005546  0.0004165  0.01464  -0.1541  0.8469
6.315e+09  -0.7069  0.4634  0.02946  0.006354  -0.02652  -0.01291  0.1788  0.8828
6.316e+09  -0.5298  0.6744  0.03564  -0.03749  0.02246  -0.01921  0.4064  0.7651
6.318e+09  -0.2837  0.7791  0.006718  -0.006046  0.02441  -0.03093  0.6466  0.5799
6.319e+09  0.1035  0.866  0.01808  0.01661  0.01771  0.01734  0.8284  0.3208
6.32e+09  0.3374  0.7964  0.008178  0.02167  -0.02546  -0.03285  0.8728  0.01214
6.321e+09  0.5941  0.5914  0.009484  -0.02878  -0.01847  0.0008017  0.8644  -0.2753
6.322e+09  0.8314  0.4055  -0.02037  -0.01623  0.03946  0.03623  0.6938  -0.5651
6.324e+09  0.859  0.09128  0.004997  0.008437  0.04288  0.001289  0.4509  -0.766
6.325e+09  0.7955  -0.2259  -0.0212  -0.01692  -0.008246  -0.0183  0.1716  -0.8552
6.326e+09  0.726  -0.434  -0.01417  0.00114  0.01849  -0.04255  -0.1237  -0.9138
6.328e+09  0.4658  -0.7121  -0.004321  -0.01739  0.01261  -0.002863  -0.4572  -0.7842
6.329e+09  0.2121  -0.8304  0.01245  -0.01325  0.000392  -0.002679  -0.6855  -0.5473
6.33e+09  -0.08478  -0.7833  0.01205  0.03302  -0.01841  -0.03539  -0.8278  -0.3415
6.331e+09  -0.3939  -0.7578  0.01935  0.002435  -0.004071  0.001927  -0.9075  -0.04051
6.332e+09  -0.6782  -0.601  0.005588  0.0006424  -0.04174  0.0395  -0.8622  0.3014
6.334e+09  -0.7769  -0.3206  -0.03392  0.04206  0.01808  -0.01642  -0.7208  0.5452
6.335e+09  -0.8576  -0.03238  0.02259  0.02146  -0.05228  0.005319  -0.5122  0.7547
6.336e+09  -0.7757  0.2097  -0.03068  -0.01262  -0.01631  -0.04359  -0.1793  0.8901
6.338e+09  -0.6463  0.5203  -0.02828  -0.005892  -0.03607  0.01039  0.1206  0.9182
6.339e+09  -0.5127  0.7287  0.006425  -0.007915  -0.0196  -0.01382  0.4421  0.7993
6.34e+09  -0.1317  0.8507  -0.006347  -0.02678  0.04709  -0.007539  0.6776  0.6365
6.341e+09  0.1755  0.8834  -0.02505  -0.003323  -0.007613  -0.02722  0.8275  0.3833
6.342e+09  0.4642  0.7574  0.01202  -0.002804  0.02688  0.03438  0.9016  0.04762
6.344e+09  0.6784  0.5982  0.037  -0.04857  0.0346  0.01054  0.878  -0.2665
6.345e+09  0.7756  0.3272  -0.03004  -0.009821  -0.03288  0.02622  0.7217  -0.5714
6.346e+09  0.8374  -0.003103  0.01733  -0.004359  0.05731  0.05049  0.4994  -0.7986
6.348e+09  0.8689  -0.3491  -0.002794  0.02746  -0.01856  0.01387  0.2418  -0.9309
6.349e+09  0.6308  -0.5649  0.01564  0.01077  0.007079  -0.01702  -0.07595  -0.9094
6.35e+09  0.3823  -0.7854  -0.003797  0.008186  0.007659  -0.0203  -0.4388  -0.7911
6.351e+09  0.108  -0.8694  0.005574  -0.03094  -0.02754  0.02752  -0.6628  -0.6419
6.352e+09  -0.2164  -0.8445  -0.001587  -0.005959  0.03402  -0.01149  -0.8544  -0.3544
6.354e+09  -0.4951  -0.6751  -0.0006728  -0.01974  0.0234  -0.005235  -0.925  -0.06096
6.355e+09  -0.7263  -0.4893  -0.004197  0.004852  -0.02087  -0.01294  -0.8412  0.2993
6.356e+09  -0.8299  -0.2533  0.009084  -0.0004367  -0.02042  -0.02994  -0.7528  0.5448
6.358e+09  -0.8411  0.1168  -0.02234  0.04779  -0.01582  -0.007786  -0.518  0.7538
6.359e+09  -0.8559  0.3652  0.005663  0.02627  0.016  -0.01835  -0.2314  0.8915
6.36e+09  -0.5504  0.6337  -0.02878  0.01283  -0.003364  0.03658  0.1284  0.9467
6.361e+09  -0.3028  0.8696  -0.01474  0.00174  0.03261  -0.01655  0.3997  0.844
6.362e+09  -0.03049  0.8743  -0.01717  -0.00534  -0.008451  -0.03826  0.6865  0.6831
6.364e+09  0.2743  0.8432  -0.01182  -0.01277  -0.05697  0.0493  0.8677  0.3569
6.365e+09  0.5047  0.7109  0.05653  -0.00781  0.007036  0.01864  0.9631  0.06796
6.366e+09  0.7481  0.4702  0.03081  0.0084  0.00634  0.004263  0.8964  -0.2452
6.368e+09  0.9063  0.1896  0.01658  -0.02308  0.01231  0.01336  0.7492  -0.5446
6.369e+09  0.871  -0.1505  0.01669  0.0004622  0.0154  0.009254  0.5373  -0.7438
6.37e+09  0.774  -0.431  -0.009991  -0.01582  -0.0668  0.006049  0.2528  -0.9602
6.371e+09  0.5902  -0.6772  0.002338  0.008289  -0.02507  -0.007547  -0.06323  -0.9596
6.372e+09  0.2652  -0.8223  -0.01037  -0.04045  0.04176  -0.005113  -0.3994  -0.8681
6.374e+09  0.006571  -0.8622  0.004129  -0.01453  0.02127  -0.02315  -0.6706  -0.6639
6.375e+09  -0.3495  -0.8238  0.007501  -0.002989  0.0031  0.01469  -0.8461  -0.3959
6.376e+09  -0.5858  -0.6721  -0.000204  -0.003054  -0.01  0.04904  -0.9689  -0.09957
6.378e+09  -0.7614  -0.4462  -0.0001426  0.007061  0.009942  0.005989  -0.9098  0.2306
6.379e+09  -0.8676  -0.1709  0.005457  0.05075  0.02231  0.02134  -0.7879  0.5368
6.38e+09  -0.8765  0.2196  -0.0396  0.007813  0.009915  0.02624  -0.5475  0.7525
6.381e+09  -0.7484  0.4377  -0.002199  -0.002956  -0.01425  -0.01278  -0.2451  0.905
6.382e+09  -0.5864  0.6952  0.04025  0.005818  0.004879  -0.005625  0.036  0.9376
6.384e+09  -0.2635  0.8705  -0.04001  0.002838  0.003461  0.0283  0.3924  0.8536
6.385e+09  0.01053  0.905  -0.03554  0.04969  0.03949  0.0002724  0.6345  0.7187
6.386e+09  0.3597  0.7639  0.01263  0.0275  -0.05077  0.05477  0.8138  0.4733
6.388e+09  0.6136  0.6808  -0.07858  0.00742  -0.007166  0.02138  0.8878  0.09966
6.389e+09  0.7872  0.4056  -0.0003463  0.006141  -0.00904  0.03007  0.9214  -0.2027
6.39e+09  0.91  0.1073  -0.03264  -0.02554  -0.04818  -0.009382  0.7974  -0.5108
6.391e+09  0.867  -0.2304  0.02428  -0.05195  0.002931  -0.0164  0.5753  -0.6891
6.392e+09  0.7216  -0.5103  0.01094  -0.004625  0.0344  0.00981  0.2798  -0.8999
6.394e+09  0.5382  -0.763  0.002302  0.0121  0.02143  -0.006344  -0.01625  -0.9336
6.395e+09  0.2808  -0.8819  -0.02556  0.03187  -0.01707  0.04482  -0.3694  -0.8707
6.396e+09  -0.1061  -0.9277  -0.01403  -0.03982  -0.01622  -0.0165  -0.6088  -0.6687
6.398e+09  -0.3464  -0.8115  0.0118  0.01272  -0.03489  -0.02583  -0.7838  -0.38
6.399e+09  -0.6318  -0.6146  -0.009933  0.00773  -0.02059  0.04345  -0.8892  -0.08005
6.4e+09  -0.815  -0.3791  0.03779  0.006426  -0.0311  0.02871  -0.9094  0.1806
6.401e+09  -0.8842  -0.08728  -0.02926  0.0265  0.01417  0.01146  -0.7731  0.4274
6.402e+09  -0.8736  0.2794  0.01752  -0.039  0.04501  -0.02488  -0.5835  0.7182
6.404e+09  -0.6893  0.5165  -0.01217  -0.0235  -0.02349  -0.001401  -0.3359  0.8547
6.405e+09  -0.4757  0.7477  0.01088  -0.04908  0.03449  -0.009678  0.02969  0.9367
6.406e+09  -0.2093  0.8303  0.03823  -0.03848  0.01285  0.02165  0.2993  0.8798
6.408e+09  0.07933  0.8696  0.01073  0.03174  -0.001888  0.003635  0.6215  0.6802
6.409e+09  0.3782  0.8069  0.00114  0.0009948  0.002027  0.01273  0.7863  0.4885
6.41e+09  0.6299  0.6541  0.01172  0.02963  -0.003095  -0.05914  0.8735  0.1679
6.411e+09  0.8377  0.3947  0.01491  0.03931  0.01099  -0.004504  0.8726  -0.1337
6.412e+09  0.8641  0.06828  0.0009917  0.03007  -0.01894  -0.002177  0.8193  -0.4609
6.414e+09  0.8337  -0.2701  -0.02646  -0.03553  -0.02746  0.003723  0.6361  -0.6479
6.415e+09  0.6665  -0.4901  0.007895  -0.03385  0.02797  -0.002398  0.3361  -0.8653
6.416e+09  0.543  -0.7439  0.01738  -0.01182  -0.01229  0.03281  0.04414  -0.9036
6.418e+09  0.2068  -0.8639  -0.02683  -0.04256  -0.008569  -0.01193  -0.294  -0.8474
6.419e+09  -0.1395  -0.8697  0.03085  0.01547  0.01841  0.006849  -0.5697  -0.7184
6.42e+09  -0.4045  -0.8037  0.01924  0.002267  -0.0421  -0.035  -0.7116  -0.4494
6.421e+09  -0.6676  -0.6261  0.01068  -0.002252  -0.008088  -0.01381  -0.8649  -0.2216
6.422e+09  -0.7766  -0.3369  -0.006438  0.01822  0.01149  -0.02341  -0.879  0.1128
6.424e+09  -0.903  -0.04238  -0.01436  -0.01486  -0.0187  0.01507  -0.774  0.4133
6.425e+09  -0.8301  0.2439  0.01695  0.02623  -0.0554  -0.01582  -0.57  0.6178
6.426e+09  -0.6843  0.5068  -0.01136  -0.03391  0.03049  -0.02657  -0.3022  0.8084
6.428e+09  -0.4479  0.7355  0.02864  -0.008565  0.007876  -0.02394  -0.0402  0.891
6.429e+09  -0.1607  0.889  0.06232  -0.03741  0.01343  0.04485  0.2205  0.8525
6.43e+09  0.106  0.8878  -0.04549  0.01246  0.009577  -0.0255  0.5282  0.6875
6.431e+09  0.3961  0.7323  -0.004549  0.02411  -0.01371  -0.02898  0.7131  0.4963
6.432e+09  0.6159  0.5832  0.0189  -0.001822  -0.02684  0.04485  0.793  0.2557
6.434e+09  0.8273  0.3369  0.03247  -0.008442  0.007646  0.0187  0.8965  -0.1167
6.435e+09  0.8694  0.01499  -0.006962  0.001554  -0.01472  0.01929  0.698  -0.3651
6.436e+09  0.9069  -0.2542  0.04327  -0.004787  0.03385  -0.01428  0.6443  -0.5831
6.438e+09  0.6514  -0.4899  -0.002028  0.009707  0.001066  -0.06077  0.3405  -0.7501
6.439e+09  0.4368  -0.7566  0.005829  0.03158  -0.02113  -0.001307  0.09936  -0.8355
6.44e+09  0.1766  -0.8809  -0.02948  -0.0204  0.04047  -0.04193  -0.1803  -0.8297
6.441e+09  -0.1062  -0.8505  0.01623  -0.01565  -0.03053  -0.006879  -0.5082  -0.7134
6.442e+09  -0.4225  -0.7408  -0.009586  0.01408  -0.02612  -0.01488  -0.6295  -0.5344
6.444e+09  -0.6544  -0.6086  -0.01508  -0.01446  0.03169  0.00649  -0.8539  -0.231
6.445e+09  -0.8283  -0.3304  0.009312  0.02433  0.01705  -0.05615  -0.8397  0.05643
6.446e+09  -0.8872  0.003508  -0.00602  -0.01522  -0.03646  -0.001257  -0.7502  0.3696
6.448e+09  -0.7986  0.2762  0.02515  0.03194  0.03678  0.01615  -0.5678  0.6074
6.449e+09  -0.6638  0.5714  -0.004209  -0.0201  -0.02114  0.05221  -0.348  0.7361
6.45e+09  -0.4569  0.805  -0.006133  -0.03567  -0.01032  0.0006455  -0.07507  0.8478
6.451e+09  -0.1507  0.8671  0.006094  -0.007105  -0.008276  0.001436  0.1992  0.7916
6.452e+09  0.1548  0.8794  0.007125  -0.03016  -0.027  -0.0006545  0.4886  0.6987
6.454e+09  0.4655  0.7926  0.01658  0.02503  0.02168  -0.07684  0.641  0.4602
6.455e+09  0.6872  0.5788  0.0004423  0.01307  0.02663  0.005295  0.773  0.184
6.456e+09  0.8283  0.3029  0.03531  -0.0592  -0.01875  -0.03725  0.8068  -0.05068
6.458e+09  0.9619  0.007677  0.002821  0.01173  -0.02818  -0.02102  0.7282  -0.3183
6.459e+09  0.8536  -0.2974  -0.02033  0.03663  -0.006685  -0.004538  0.5042  -0.5742
6.46e+09  0.6937  -0.5506  0.01857  0.005566  -0.01522  -0.04907  0.3675  -0.7412
6.461e+09  0.449  -0.8025  -0.007569  0.02655  -0.01531  0.02636  0.06959  -0.8042
6.462e+09  0.14  -0.8566  0.01021  -0.0321  -0.05823  0.004867  -0.1928  -0.7943
6.464e+09  -0.1681  -0.8591  -0.01587  0.00471  0.04246  -0.003155  -0.44  -0.6616
6.465e+09  -0.3742  -0.7538  0.01862  -0.0275  0.0156  0.009355  -0.63  -0.5064
6.466e+09  -0.7182  -0.5403  -0.01055  0.003106  -0.01854  0.01737  -0.7591  -0.1779
6.468e+09  -0.8171  -0.247  -0.02462  0.01385  0.05227  0.006684  -0.7954  0.09263
6.469e+09  -0.913  -0.001743  -0.03894  -0.01682  0.008321  0.04321  -0.6871  0.317
6.47e+09  -0.8033  0.2998  -0.01548  0.01407  -0.04393  -0.01136  -0.5563  0.5432
6.471e+09  -0.6747  0.5736  0.006715  0.02112  -0.01298  0.0008239  -0.3202  0.7038
6.472e+09  -0.4871  0.7887  0.01695  0.03148  0.01498  -0.01015  -0.06296  0.7885
6.474e+09  -0.1312  0.8337  0.02908  -0.01039  -0.003492  -0.01166  0.1809  0.7718
6.475e+09  0.1142  0.9082  -0.005967  0.02759  0.0318  0.05258  0.491  0.6206
6.476e+09  0.4275  0.8105  -0.006427  0.02289  -0.01939  -0.03072  0.6381  0.4026
6.478e+09  0.6856  0.584  0.02516  -0.02955  0.0176  -0.001394  0.7102  0.1681
6.479e+09  0.8986  0.2972  -0.007785  0.01562  0.05726  0.001267  0.7165  -0.055
6.48e+09  0.9464  -0.0286  -0.002491  0.03336  0.00939  -0.004672  0.7069  -0.322
6.481e+09  0.849  -0.2959  -0.02431  0.006326  0.05511  -0.008068  0.509  -0.5602
6.482e+09  0.7033  -0.5901  0.05446  0.02246  0.0317  -0.01615  0.3129  -0.7239
6.484e+09  0.422  -0.7954  -0.01325  7.893e-05  -0.008062  -0.02301  0.06918  -0.8152
6.485e+09  0.1194  -0.9169  -0.02164  0.02319  0.04068  0.03024  -0.2085  -0.7561
6.486e+09  -0.2046  -0.9034  0.005462  -0.00415  -0.00901  -0.02462  -0.4686  -0.6028
6.488e+09  -0.4586  -0.7807  -0.04198  0.03194  -0.02084  -0.02323  -0.644  -0.4114
6.489e+09  -0.725  -0.5769  -0.02804  -0.05197  0.0262  -0.05863  -0.7396  -0.2152
6.49e+09  -0.8667  -0.2951  -0.02159  0.002198  0.01634  0.03487  -0.762  0.09239
6.491e+09  -0.935  0.02542  0.01966  0.001718  0.008163  -0.02621  -0.7182  0.3453
6.492e+09  -0.8424  0.3589  0.007565  -0.02021  -0.0007762  0.00258  -0.5095  0.5475
6.494e+09  -0.6633  0.6523  -0.02994  0.02069  -0.001518  0.005621  -0.2501  0.7367
6.495e+09  -0.3889  0.8296  -0.001093  0.02163  -0.002051  -0.03286  -0.03549  0.7648
6.496e+09  -0.09547  0.9053  -0.0188  0.001321  0.008306  -0.01323  0.2713  0.7196
6.498e+09  0.2896  0.8968  0.0007036  -0.01072  0.01699  0.0008228  0.4484  0.5773
6.499e+09  0.5402  0.8011  -0.00224  -0.0005848  -0.007677  0.01768  0.6497  0.4184
6.5e+09  0.7348  0.4992  -0.03266  -0.008156  -0.006943  -0.03235  0.7567  0.1795
6.501e+09  0.9153  0.2823  -0.01696  0.01858  0.02201  -0.02382  0.7387  -0.1251
6.502e+09  0.9027  -0.04792  0.02779  0.01932  -0.04309  0.02743  0.6856  -0.3331
6.504e+09  0.8715  -0.3282  -0.02519  -0.01478  -0.02485  -0.03108  0.4923  -0.6009
6.505e+09  0.6717  -0.6514  0.01731  -0.003282  0.001201  -0.008867  0.2527  -0.7216
6.506e+09  0.4147  -0.8272  0.0318  -0.02116  -0.05103  0.05627  0.01132  -0.7482
6.508e+09  0.06436  -0.9306  0.005793  0.02145  0.004029  -0.03531  -0.2301  -0.7017
6.509e+09  -0.2196  -0.92  -0.007094  0.009172  -0.02743  0.01927  -0.4621  -0.5349
6.51e+09  -0.5305  -0.793  -0.01366  0.01719  0.09089  -0.003323  -0.6118  -0.3711
6.511e+09  -0.7684  -0.5327  0.01076  0.02208  -0.001803  0.006197  -0.7236  -0.1575
6.512e+09  -0.9556  -0.2473  -0.02677  0.001237  -0.03864  0.0246  -0.7449  0.1393
6.514e+09  -0.9677  0.1465  -0.01312  0.01358  0.01443  -0.0002123  -0.651  0.3815
6.515e+09  -0.8211  0.3803  -0.01922  0.01536  -0.0151  -0.06991  -0.4495  0.5665
6.516e+09  -0.6735  0.7212  0.008596  -0.03237  -0.007234  -0.05993  -0.2054  0.7377
6.518e+09  -0.3669  0.88  0.002838  0.04914  -0.01119  -0.04172  0.032  0.7474
6.519e+09  -0.08217  1.005  -0.02133  0.007681  0.03258  0.004465  0.2534  0.6929
6.52e+09  0.3525  0.9078  -0.003942  0.01068  0.01503  0.01041  0.5028  0.5512
6.521e+09  0.5624  0.7132  -0.02586  -0.009367  0.05015  -0.01504  0.6411  0.3582
6.522e+09  0.8507  0.5427  0.03887  0.04925  0.003809  -0.0126  0.7128  0.09868
6.524e+09  0.939  0.1836  -0.01029  -0.02598  0.0005248  -0.03067  0.6718  -0.1471
6.525e+09  0.9826  -0.1404  -0.02602  -0.01855  -0.06077  0.002205  0.5836  -0.3953
6.526e+09  0.8481  -0.5138  -0.03426  -0.01952  -0.01255  -0.02236  0.4557  -0.5687
6.528e+09  0.6314  -0.7533  -0.03459  -0.02414  0.02532  -0.05057  0.2052  -0.6892
6.529e+09  0.3153  -0.909  0.0409  0.0105  0.02457  -0.03838  -0.04555  -0.7026
6.53e+09  -0.01077  -0.9805  -0.009117  -0.01434  -0.05602  0.0708  -0.2784  -0.6057
6.531e+09  -0.3841  -0.894  0.03538  -0.007449  -0.01695  -0.02155  -0.4544  -0.4758
6.532e+09  -0.6853  -0.7372  -0.04111  -0.002545  -0.01351  0.01089  -0.6158  -0.281
6.534e+09  -0.8647  -0.4489  0.03158  0.02046  0.05987  0.01955  -0.6578  -0.07488
6.535e+09  -0.9904  -0.1036  0.02001  -0.0003639  -0.01875  -0.05702  -0.5975  0.1138
6.536e+09  -0.9407  0.2321  0.02266  0.01069  -0.02633  0.003002  -0.5573  0.303
6.538e+09  -0.8245  0.528  -0.02431  0.02855  0.02562  0.02704  -0.469  0.4841
6.539e+09  -0.5823  0.8004  0.02236  -0.006689  -0.01361  0.008986  -0.277  0.5904
6.54e+09  -0.2725  0.98  0.03462  -0.003853  0.06151  0.02394  -0.09327  0.696
6.541e+09  0.0816  1.008  0.01539  0.02994  0.006161  0.02065  0.1681  0.655
6.542e+09  0.3782  0.9043  0.008791  0.01116  0.04172  -0.00892  0.3657  0.5823
6.544e+09  0.7138  0.6808  -0.001291  -0.03079  0.01541  0.02759  0.5926  0.3516
6.545e+09  0.8598  0.3676  0.002989  0.02459  -0.04611  0.04099  0.7135  0.2089
6.546e+09  1.009  0.04948  -0.008534  0.01064  0.01973  -0.03382  0.7361  -0.08775
6.548e+09  0.9264  -0.2862  0.05595  0.01022  0.01089  -0.0141  0.668  -0.3091
6.549e+09  0.7208  -0.6135  0.001869  -0.01487  -0.05569  0.02786  0.5127  -0.5152
6.55e+09  0.4647  -0.8016  -0.01622  0.03908  -0.03237  -0.04998  0.2886  -0.6569
