# Hz S RI R 50
6.25e+09  -0.4205  0.7513  0.02048  -0.001475  -0.02606  0.02493  0.1223  0.4532
6.251e+09  -0.1347  0.8369  -0.0191  -0.008651  -0.01165  -0.006324  0.3658  0.374
6.252e+09  0.1257  0.8021  -0.01596  0.009762  0.01324  0.04193  0.5432  0.2467
6.254e+09  0.4777  0.6956  0.02465  -0.0001732  0.01843  -0.02252  0.6033  0.01874
6.255e+09  0.6712  0.5018  -0.02068  0.02753  -0.0184  0.01287  0.5924  -0.2461
6.256e+09  0.8127  0.2514  -0.0165  0.02471  0.02988  0.04922  0.4996  -0.4496
6.258e+09  0.8024  -0.03861  -0.01102  -0.01552  -0.05241  -0.06185  0.2591  -0.6053
6.259e+09  0.7724  -0.3407  0.004207  0.003764  -0.01685  -0.0473  0.05888  -0.7031
6.26e+09  0.658  -0.5526  -0.01388  0.01425  -0.01831  -0.005532  -0.2228  -0.6525
6.261e+09  0.4288  -0.6874  -0.01992  -0.0286  0.05405  -0.0369  -0.4198  -0.5673
6.262e+09  0.1169  -0.8267  0.02229  -0.007449  0.01592  -0.04229  -0.6075  -0.3778
6.264e+09  -0.212  -0.816  0.01119  0.0001239  -0.004338  -0.0123  -0.6759  -0.1219
6.265e+09  -0.3984  -0.6881  -0.04475  -0.043  -0.004078  0.006903  -0.7194  0.1504
6.266e+09  -0.5928  -0.5368  -0.03602  -0.03915  -0.00511  0.02234  -0.6432  0.4038
6.268e+09  -0.7468  -0.2289  -0.001293  0.01548  -0.08102  0.01302  -0.438  0.6136
6.269e+09  -0.874  0.04339  0.01311  -0.01809  0.001715  0.05407  -0.223  0.7109
6.27e+09  -0.748  0.316  -0.002926  0.02239  0.04533  0.01192  0.08014  0.7255
6.271e+09  -0.6231  0.5436  -0.01151  0.02453  -0.044  -0.0003643  0.2698  0.6516
6.272e+09  -0.3583  0.766  -0.03566  0.02607  0.01064  -0.04129  0.5426  0.5009
6.274e+09  -0.1469  0.8317  -0.0161  -0.005297  -0.002161  -0.07518  0.7018  0.316
6.275e+09  0.1785  0.7914  0.009857  0.01229  0.00477  -0.04251  0.7424  0.04954
6.276e+09  0.452  0.7181  -0.04765  -0.005904  0.03658  0.04188  0.7331  -0.2453
6.278e+09  0.6405  0.5145  -0.005898  0.004794  -0.004794  -0.07494  0.5865  -0.4563
6.279e+09  0.7595  0.2866  -0.004159  0.01945  0.01011  -0.009666  0.3841  -0.619
6.28e+09  0.8298  -0.06225  0.003022  -0.0001128  0.04132  0.01432  0.169  -0.7442
6.281e+09  0.7904  -0.343  0.005557  0.00903  -0.01319  -0.003377  -0.092  -0.7738
6.282e+09  0.6382  -0.5221  0.009062  0.02749  0.01908  -0.0114  -0.389  -0.6827
6.284e+09  0.395  -0.7269  -0.0007861  0.01025  0.07481  0.006865  -0.6023  -0.5043
6.285e+09  0.09876  -0.8459  -0.01884  -0.002666  0.04143  -0.009738  -0.7042  -0.2988
6.286e+09  -0.2083  -0.7971  -0.000901  -0.005065  0.01397  0.008833  -0.7725  0.007183
6.288e+09  -0.4707  -0.6579  0.03731  -0.009827  0.01219  -0.03044  -0.7801  0.2622
6.289e+09  -0.5875  -0.4905  -0.008183  -0.01125  -0.03376  0.005576  -0.6195  0.5161
6.29e+09  -0.8491  -0.2169  0.03397  0.00304  0.06617  -0.03667  -0.3909  0.6887
6.291e+09  -0.7863  0.07884  -0.00533  -0.01149  0.03272  -0.06336  -0.1407  0.7809
6.292e+09  -0.7413  0.392  -0.001781  -0.02146  -0.01524  -0.03968  0.1227  0.832
6.294e+09  -0.5502  0.5888  0.02866  -0.02438  0.02483  -0.000917  0.3956  0.6742
6.295e+09  -0.3731  0.7625  0.001692  0.01505  -0.0003207  0.02944  0.6343  0.5347
6.296e+09  -0.1058  0.8152  -0.006183  0.000261  -0.002975  0.006003  0.7607  0.3001
6.298e+09  0.1699  0.7858  -0.02335  0.003217  -0.01518  -0.04817  0.8196  -0.01614
6.299e+09  0.4619  0.6771  -0.02213  0.002397  0.002661  -0.04122  0.7963  -0.261
6.3e+09  0.7103  0.4235  0.006905  0.01087  0.02975  9.638e-05  0.6245  -0.5084
6.301e+09  0.8464  0.1902  -0.00328  -0.03125  -0.03017  0.01444  0.4286  -0.7222
6.302e+09  0.883  -0.06919  -0.02021  -0.004448  -0.02894  0.02239  0.1865  -0.858
6.304e+09  0.7334  -0.3688  0.01166  0.001237  0.0227  -0.00476  -0.1378  -0.8144
6.305e+09  0.5065  -0.6068  -0.05657  -0.00942  -0.01029  0.02115  -0.4004  -0.7349
6.306e+09  0.3092  -0.7185  0.01473  0.01736  -0.01386  0.01832  -0.6274  -0.543
6.308e+09  -0.02129  -0.7791  -0.01692  0.01735  -0.04127  -0.006156  -0.7952  -0.2897
6.309e+09  -0.3288  -0.7534  0.01151  -0.0119  0.03856  0.02934  -0.8839  -0.02593
6.31e+09  -0.5168  -0.6768  -0.008163  0.009381  -0.006607  -0.02422  -0.823  0.2723
6.311e+09  -0.7043  -0.3916  -0.01201  -0.01467  -0.01025  -0.02174  -0.6989  0.5302
6.312e+09  -0.8151  -0.1763  0.007164  -0.000831  0.07726  -0.05757  -0.4655  0.7431
6.314e+09  -0.8034  0.1338  0.02101  0.03231  -0.01645  -0.03664  -0.1879  0.8268
6.315e+09  -0.7327  0.3879  0.03226  0.03655  -0.007378  -0.01883  0.119  0.9031
6.316e+09  -0.5131  0.6094  0.008493  -0.01136  -0.00978  0.05362  0.448  0.7605
6.318e+09  -0.3118  0.8503  -0.02583  0.001132  0.02301  0.001486  0.6852  0.5834
6.319e+09  -0.05301  0.8276  -0.009999  0.005141  -0.009632  -0.0005954  0.8135  0.2646
6.32e+09  0.2907  0.7977  0.006431  0.01437  0.004641  -0.0271  0.861  -0.002972
6.321e+09  0.5674  0.6102  0.00565  0.008831  0.003901  -0.01149  0.8187  -0.275
6.322e+09  0.7468  0.3884  -0.004164  -0.009143  -0.00671  -0.009668  0.7018  -0.5565
6.324e+09  0.8689  0.1272  0.00954  -0.01675  0.06933  0.01758  0.4679  -0.7452
6.325e+09  0.878  -0.2003  -0.0267  0.03072  -0.0605  0.03028  0.1799  -0.8724
6.326e+09  0.7157  -0.4393  0.01881  -0.02303  -0.01756  -0.02172  -0.1483  -0.8848
6.328e+09  0.5299  -0.6851  0.03525  0.01679  -0.0242  -0.0165  -0.3817  -0.7936
6.329e+09  0.2851  -0.8053  -0.01058  0.0199  0.02253  -0.002135  -0.6647  -0.6021
6.33e+09  -0.06296  -0.8538  -0.02726  -0.0464  -0.01799  -0.007013  -0.8438  -0.3688
6.331e+09  -0.3319  -0.8098  -0.0116  0.0007912  -0.03037  -0.01646  -0.9166  -0.01081
6.332e+09  -0.5937  -0.5557  0.02467  0.002598  0.001671  0.02434  -0.8456  0.2909
6.334e+09  -0.7582  -0.4093  -0.01417  -0.006481  -0.007674  -0.008018  -0.7044  0.5318
6.335e+09  -0.8609  -0.1281  0.00833  -0.005215  0.005421  0.0001622  -0.4726  0.7617
6.336e+09  -0.8182  0.2682  -0.001881  0.01598  -0.07364  0.07045  -0.1964  0.8919
6.338e+09  -0.7099  0.5044  -0.01902  -0.0126  -0.05032  -0.01685  0.1192  0.9525
6.339e+09  -0.4752  0.6888  -0.02145  -0.007372  0.04397  0.008389  0.4625  0.8062
6.34e+09  -0.1991  0.8956  0.0006169  -0.0002953  0.01618  0.01175  0.6859  0.6107
6.341e+09  0.148  0.8396  -0.004501  0.01493  0.05887  0.02556  0.8705  0.3744
6.342e+09  0.374  0.7984  -0.004403  -0.003282  -0.03093  0.01849  0.8796  0.05248
6.344e+09  0.6742  0.5859  0.01234  -0.01654  0.02338  0.009695  0.8532  -0.3225
6.345e+09  0.831  0.3374  0.007696  -0.02628  0.02967  0.009432  0.7357  -0.5671
6.346e+09  0.8871  0.02932  -0.02377  -0.001697  0.01454  -0.03384  0.4869  -0.7726
6.348e+09  0.8786  -0.2969  -0.01554  0.04118  -0.05068  0.02236  0.2372  -0.9245
6.349e+09  0.6438  -0.5372  -0.03643  0.005269  -0.008557  -0.01193  -0.1052  -0.9244
6.35e+09  0.482  -0.7353  0.008568  -0.00126  0.001479  0.02247  -0.4566  -0.8219
6.351e+09  0.1479  -0.9151  0.0135  0.002604  0.006762  -0.03815  -0.6533  -0.6224
6.352e+09  -0.1908  -0.866  -0.006148  -0.004395  -0.003897  -0.04531  -0.8769  -0.3878
6.354e+09  -0.4446  -0.753  -0.0007196  -0.02456  0.02181  0.002826  -0.9132  -0.06553
6.355e+09  -0.6558  -0.5623  -0.0336  0.009182  0.06489  -0.06286  -0.8909  0.2286
6.356e+09  -0.8341  -0.2599  -0.02377  0.03064  -0.003823  -0.008649  -0.749  0.5493
6.358e+09  -0.8768  0.07826  -0.01669  0.006159  0.004115  0.02552  -0.5334  0.7833
6.359e+09  -0.8416  0.3361  0.01004  0.01346  -0.00585  -0.004446  -0.2509  0.9079
6.36e+09  -0.6723  0.6052  -0.02017  -0.0037  -0.0107  0.01921  0.1093  0.9544
6.361e+09  -0.427  0.7529  0.004211  0.00924  0.005773  0.01658  0.396  0.8308
6.362e+09  -0.0782  0.9045  0.002209  0.005099  -0.01473  -0.03036  0.6458  0.6605
6.364e+09  0.1963  0.8622  -0.02536  -0.007728  0.02414  -0.004711  0.8649  0.3903
6.365e+09  0.5055  0.7307  0.01883  -0.01977  0.008596  -0.01824  0.9319  0.08947
6.366e+09  0.7169  0.4887  -0.0005809  -0.03136  -0.009565  0.03535  0.9172  -0.2495
6.368e+09  0.8558  0.2339  0.03596  -0.01048  0.01419  0.01186  0.7662  -0.5145
6.369e+09  0.8802  -0.09514  0.02193  -0.0154  0.04299  -0.004697  0.5479  -0.7781
6.37e+09  0.7905  -0.4046  -0.02685  0.01209  -0.01421  0.0206  0.2304  -0.9002
6.371e+09  0.5623  -0.6077  0.03343  0.02639  0.0315  0.01053  -0.07615  -0.9466
6.372e+09  0.3582  -0.8432  0.03982  0.006941  -0.04212  0.01743  -0.4035  -0.8972
6.374e+09  0.03877  -0.9168  0.02196  0.02105  -0.02926  0.01303  -0.6896  -0.6597
6.375e+09  -0.2729  -0.8686  0.009125  0.008485  0.003095  0.02867  -0.8631  -0.4188
6.376e+09  -0.5538  -0.7176  0.01626  0.008902  0.02123  -0.01024  -0.9534  -0.04765
6.378e+09  -0.7318  -0.5004  0.01665  -0.008824  -0.02111  0.0698  -0.8875  0.2132
6.379e+09  -0.8571  -0.1668  -0.03659  0.002542  -8.272e-05  -0.06005  -0.7934  0.5056
6.38e+09  -0.8548  0.1196  0.02241  0.002779  0.007672  -0.01103  -0.5608  0.7501
6.381e+09  -0.7669  0.4271  0.05178  -0.02031  0.04268  0.0006422  -0.2634  0.9058
6.382e+09  -0.619  0.6672  -0.02053  0.01957  0.003087  0.01662  0.06006  0.9381
6.384e+09  -0.262  0.8728  0.03927  0.02203  -0.05837  -0.0003743  0.3269  0.8386
6.385e+09  -0.04503  0.8727  0.02494  0.02127  -0.03224  0.01818  0.6236  0.6684
6.386e+09  0.3087  0.8612  0.0009225  0.04073  0.009424  -0.04978  0.8337  0.4101
6.388e+09  0.5696  0.6826  0.01206  0.02671  -0.02695  0.00855  0.9025  0.1504
6.389e+09  0.7623  0.4285  -0.05542  -0.02103  0.02677  -0.02176  0.8913  -0.2305
6.39e+09  0.8736  0.1671  0.02231  0.0338  0.04418  0.03429  0.813  -0.4969
6.391e+09  0.9269  -0.1603  0.06859  -0.002007  0.01421  0.04424  0.5821  -0.7286
6.392e+09  0.7711  -0.4421  0.03649  0.006023  -0.0304  -0.01108  0.3026  -0.8769
6.394e+09  0.5886  -0.7227  0.01776  -0.02888  0.02935  0.03929  -0.01039  -0.9389
6.395e+09  0.316  -0.7893  0.06745  -0.009805  -0.00464  0.01421  -0.3513  -0.8871
6.396e+09  -0.02339  -0.8503  0.001985  -0.006174  0.03639  0.0006248  -0.5987  -0.7274
6.398e+09  -0.3128  -0.8588  0.0114  -0.03663  0.00115  -0.04253  -0.8168  -0.4522
6.399e+09  -0.5903  -0.6232  0.004945  0.01817  0.04673  -0.04516  -0.8741  -0.1043
6.4e+09  -0.7837  -0.4197  0.01503  -0.009026  -0.04849  -0.01729  -0.885  0.1632
6.401e+09  -0.8938  -0.1275  -0.01221  0.01037  0.009861  -0.09185  -0.7991  0.4927
6.402e+09  -0.8176  0.2658  0.01475  -0.01983  -0.009227  -0.03479  -0.6217  0.7285
6.404e+09  -0.7531  0.4367  0.008091  0.02529  -0.03702  0.03309  -0.3161  0.9111
6.405e+09  -0.5173  0.6594  0.008593  -0.02304  0.008772  0.03529  0.01195  0.9186
6.406e+09  -0.2768  0.8303  -0.007173  0.02522  0.009939  0.02528  0.267  0.8542
6.408e+09  0.03544  0.9074  -0.01365  0.008507  0.01818  -0.02294  0.5697  0.7159
6.409e+09  0.3715  0.8049  0.007999  -0.003871  0.009005  -0.02001  0.7792  0.4992
6.41e+09  0.6305  0.6824  -0.01677  0.00716  -0.003353  0.01197  0.9188  0.17
6.411e+09  0.8417  0.3604  0.02416  0.01336  -0.0416  -0.007782  0.8936  -0.1548
6.412e+09  0.8666  0.1116  0.003164  0.008601  0.01122  0.01735  0.8076  -0.4148
6.414e+09  0.8558  -0.24  -0.04251  0.01572  -0.007809  0.002369  0.6103  -0.6483
6.415e+09  0.7387  -0.4763  0.01704  -0.02762  0.01368  0.02666  0.3181  -0.8178
6.416e+09  0.4833  -0.6628  -0.05765  -0.009176  0.00439  -0.02354  0.03953  -0.9067
6.418e+09  0.2647  -0.7935  0.04331  -0.03153  0.02544  0.03008  -0.2661  -0.8691
6.419e+09  -0.00363  -0.8746  0.01666  -0.004804  -0.02507  -0.01077  -0.5658  -0.72
6.42e+09  -0.3548  -0.7557  0.01294  -0.01419  0.02368  0.03038  -0.7667  -0.4753
6.421e+09  -0.6117  -0.6156  -0.004104  -0.04275  0.02601  0.04756  -0.8565  -0.1939
6.422e+09  -0.8054  -0.3504  0.0006457  -0.01439  0.01876  -0.011  -0.882  0.131
6.424e+09  -0.8979  -0.05454  -0.02835  -0.0435  -0.01478  0.03795  -0.7672  0.3965
6.425e+09  -0.8238  0.2116  -0.03216  -0.0009295  -0.01009  -0.06541  -0.6404  0.6147
6.426e+09  -0.7248  0.4865  -0.0341  -0.007099  -0.0251  0.04333  -0.2866  0.829
6.428e+09  -0.508  0.7108  -0.005796  0.009048  0.02192  -0.006753  -0.06865  0.834
6.429e+09  -0.2024  0.843  -0.00228  0.02283  -0.02824  0.02346  0.2292  0.8009
6.43e+09  0.1222  0.9557  -0.008507  -0.01304  0.01851  0.00031  0.497  0.6879
6.431e+09  0.4224  0.8445  -0.006858  0.01411  -0.02463  0.03721  0.7102  0.4625
6.432e+09  0.6111  0.6189  -0.003907  -0.02116  -0.0129  0.01643  0.8074  0.224
6.434e+09  0.8012  0.3861  -0.0163  0.005876  0.03504  0.04707  0.8119  -0.08738
6.435e+09  0.8145  0.0695  0.006136  0.01947  0.00591  0.01375  0.7413  -0.3542
6.436e+09  0.8546  -0.1942  -0.007547  0.03734  -0.02577  0.03838  0.6075  -0.6391
6.438e+09  0.7021  -0.5053  -0.01719  0.002457  -0.04503  0.004204  0.3739  -0.8052
6.439e+09  0.5096  -0.6937  0.00644  -0.007257  -0.01515  -0.02257  0.05998  -0.8729
6.44e+09  0.1951  -0.8599  0.01616  -0.02763  -0.04131  0.01591  -0.2193  -0.7925
6.441e+09  -0.1065  -0.8888  0.01604  0.03335  0.01034  -0.009867  -0.4606  -0.7129
6.442e+09  -0.4099  -0.7948  0.008473  -0.0354  0.01123  -0.005763  -0.7291  -0.5157
6.444e+09  -0.5967  -0.6529  -0.02648  0.05485  -0.01405  0.03433  -0.8719  -0.2523
6.445e+09  -0.7961  -0.3711  -0.01616  0.005004  0.01914  0.03876  -0.8327  0.0198
6.446e+09  -0.8282  -0.07931  0.01506  -0.01666  0.02966  0.04226  -0.7298  0.3817
6.448e+09  -0.882  0.2266  0.01797  0.0426  0.03626  -0.006754  -0.5758  0.5849
6.449e+09  -0.6889  0.5592  -0.003415  -0.00526  -0.004973  0.05053  -0.3066  0.7233
6.45e+09  -0.485  0.7518  0.007449  0.001888  0.03605  -0.03234  -0.1219  0.8398
6.451e+09  -0.2373  0.8421  0.02715  -0.01138  0.01909  0.01781  0.2419  0.817
6.452e+09  0.1264  0.9054  0.03194  -0.05061  0.02087  -0.01966  0.4803  0.6902
6.454e+09  0.3628  0.7698  -0.01531  -0.01195  -0.009373  -0.006233  0.6684  0.484
6.455e+09  0.669  0.5721  0.01973  -0.05256  -0.05419  0.04035  0.7946  0.1946
6.456e+09  0.8384  0.3582  0.03233  0.01809  -0.0441  -0.01304  0.8235  -0.01735
6.458e+09  0.8879  0.04063  -0.02081  0.02089  -0.01932  0.00711  0.7629  -0.3672
6.459e+09  0.8731  -0.2637  -0.02187  0.0519  -0.02381  -0.0434  0.5772  -0.6017
6.46e+09  0.7262  -0.5242  0.007335  0.001135  0.05077  -0.0003904  0.3357  -0.6753
6.461e+09  0.4483  -0.7044  0.03742  -0.02837  0.007058  -0.02431  0.09062  -0.7961
6.462e+09  0.1843  -0.8863  -0.01665  0.01871  -0.04655  0.02628  -0.1986  -0.7299
6.464e+09  -0.1596  -0.8642  0.004012  0.00259  -0.04046  -0.03622  -0.4326  -0.5925
6.465e+09  -0.3651  -0.8215  -0.003491  -0.02694  0.04545  -0.005926  -0.6607  -0.448
6.466e+09  -0.6252  -0.6329  0.01781  0.01022  -0.03116  -0.03361  -0.7606  -0.1934
6.468e+09  -0.8528  -0.3322  -0.006818  0.02366  -0.03791  -0.06448  -0.833  0.06806
6.469e+09  -0.9133  -0.0397  -0.07354  -0.02689  0.03292  -0.02492  -0.7141  0.3563
6.47e+09  -0.8415  0.2567  -0.02259  0.01913  -0.01466  -0.03796  -0.6024  0.5614
6.471e+09  -0.695  0.5591  0.03423  0.02236  -0.03326  0.02082  -0.3436  0.7006
6.472e+09  -0.492  0.7556  0.02969  -0.02161  -0.01886  0.003061  -0.07676  0.7716
6.474e+09  -0.186  0.9196  -0.001855  -0.01003  -0.03269  0.02764  0.2016  0.7482
6.475e+09  0.1405  0.839  -0.03446  -0.004344  0.008032  0.0008216  0.461  0.6479
6.476e+09  0.4035  0.7686  0.01213  -0.01985  0.03279  0.006336  0.6388  0.403
6.478e+09  0.6724  0.5466  0.04045  0.02176  -0.06404  0.03812  0.7729  0.1979
6.479e+09  0.863  0.3563  0.003007  0.008147  0.03762  -0.02271  0.7837  -0.09704
6.48e+09  0.8728  -0.005764  0.01455  -0.04036  -0.05091  -0.0162  0.7139  -0.3635
6.481e+09  0.8504  -0.2762  -0.01455  -0.0123  0.02702  0.002451  0.5475  -0.5623
6.482e+09  0.7158  -0.5738  0.0207  -0.00658  -0.03  -0.03059  0.3244  -0.7123
6.484e+09  0.4271  -0.754  0.02468  0.002385  -0.001844  -0.01212  0.09791  -0.7687
6.485e+09  0.1723  -0.8689  0.008036  -0.0279  -0.02097  0.01567  -0.2127  -0.7274
6.486e+09  -0.1258  -0.8749  -0.02309  0.02733  0.01839  -0.05222  -0.4565  -0.6415
6.488e+09  -0.4309  -0.8199  0.05032  0.01862  0.008571  -0.004215  -0.6296  -0.4174
6.489e+09  -0.6978  -0.551  -0.01529  0.03805  -0.02366  -0.0228  -0.7374  -0.1856
6.49e+09  -0.8432  -0.2981  -0.01921  0.01172  -0.01818  -0.05402  -0.8104  0.07308
6.491e+09  -0.9043  0.00236  0.04284  0.0009987  0.02375  -0.00998  -0.6875  0.3614
6.492e+09  -0.885  0.2908  -0.05601  -0.001168  0.03312  0.01023  -0.5143  0.5621
6.494e+09  -0.6685  0.5913  -0.001779  -0.01776  -0.05398  0.003808  -0.3243  0.6503
6.495e+09  -0.473  0.7855  -0.008048  0.01414  0.0131  0.03142  -0.01143  0.7744
6.496e+09  -0.1407  0.8718  0.004489  -0.01087  0.01327  0.04622  0.1964  0.7662
6.498e+09  0.1557  0.9117  0.02108  -0.01647  0.01015  0.007056  0.4331  0.6414
6.499e+09  0.4689  0.8168  0.03295  0.04008  -0.02383  -0.0367  0.6641  0.3886
6.5e+09  0.7127  0.6298  -0.01413  -0.01788  -0.02974  0.05898  0.7391  0.1942
6.501e+09  0.8849  0.3026  0.008226  -0.02488  -0.003257  -0.02504  0.7527  -0.1185
6.502e+09  0.899  0.04772  -0.01157  0.01658  0.02999  0.001371  0.6984  -0.3983
6.504e+09  0.8876  -0.3367  0.01628  -0.02434  -0.02271  0.0348  0.4911  -0.5623
6.505e+09  0.7126  -0.5929  -0.02603  0.006537  0.007937  -0.01355  0.2964  -0.706
6.506e+09  0.4236  -0.8339  -0.005851  0.009257  -0.02406  0.05486  0.02199  -0.7556
6.508e+09  0.08231  -0.9175  0.04334  0.01468  0.0554  0.0128  -0.224  -0.7332
6.509e+09  -0.2124  -0.9048  0.0002721  -0.002752  -0.02257  0.02098  -0.4679  -0.5562
6.51e+09  -0.5405  -0.7897  -0.02711  -0.001401  0.01458  -0.01959  -0.6553  -0.3824
6.511e+09  -0.6961  -0.5509  -0.00534  -0.003094  0.009405  -0.02487  -0.7287  -0.1233
6.512e+09  -0.9108  -0.3261  -0.05186  0.002777  3.53e-05  0.01352  -0.7876  0.08984
6.514e+09  -0.9459  0.0564  -0.01585  -0.006302  -0.02322  0.01285  -0.6411  0.3943
6.515e+09  -0.8654  0.3825  0.007695  -0.004674  0.0276  0.06748  -0.4725  0.5524
6.516e+09  -0.6241  0.6651  0.02726  0.02033  0.006824  -0.01463  -0.2412  0.7059
6.518e+09  -0.4443  0.8499  -0.01795  0.01501  0.01033  -0.004651  0.008167  0.7624
6.519e+09  -0.132  0.9503  -0.01153  -0.03565  0.01655  -0.01701  0.2617  0.7165
6.52e+09  0.2762  0.9447  -0.02538  0.03089  -0.0005588  0.03341  0.4983  0.5617
6.521e+09  0.5661  0.7577  0.02735  -0.02014  0.03461  -0.001001  0.653  0.3587
6.522e+09  0.7857  0.5399  0.003782  0.02679  0.02457  0.03774  0.747  0.09663
6.524e+09  0.9933  0.2525  -0.0201  0.01553  0.009269  0.03397  0.7125  -0.1561
6.525e+09  0.9587  -0.08038  -0.01836  0.01452  0.006952  0.008617  0.5955  -0.3667
6.526e+09  0.8548  -0.4392  -0.02226  0.004485  -0.03636  -0.008592  0.4707  -0.5599
6.528e+09  0.6551  -0.7656  -0.0101  0.01359  0.005281  0.03919  0.217  -0.677
6.529e+09  0.3548  -0.8494  0.009628  0.00565  0.05749  0.01851  -0.01613  -0.6715
6.53e+09  0.01237  -0.9923  0.01338  0.02308  0.02041  -0.03767  -0.2445  -0.6122
6.531e+09  -0.3262  -0.9073  0.004412  0.03073  0.004791  0.01062  -0.4575  -0.4552
6.532e+09  -0.6015  -0.7529  -0.002785  -0.004171  0.001646  0.002147  -0.5767  -0.274
6.534e+09  -0.8429  -0.4942  -0.00389  0.005274  0.03051  -0.007527  -0.6249  -0.09234
6.535e+09  -0.9651  -0.2165  0.007081  0.01504  0.01164  -0.01967  -0.5701  0.09289
6.536e+09  -0.9618  0.2051  -0.01704  -0.01135  -0.00618  -0.04996  -0.5417  0.3092
6.538e+09  -0.8314  0.4758  0.009462  0.003907  0.03872  -0.03715  -0.4326  0.4364
6.539e+09  -0.622  0.7395  0.0182  -0.00444  0.06623  0.05174  -0.2782  0.6127
6.54e+09  -0.2728  0.9748  0.03178  0.006804  0.02262  -0.03221  -0.06336  0.6777
6.541e+09  0.06669  0.9992  0.01099  0.003472  -0.03312  -0.03103  0.1659  0.6604
6.542e+09  0.3658  0.8791  0.01496  0.01593  0.03099  0.04914  0.4054  0.5528
6.544e+09  0.6316  0.6853  0.006947  -0.02254  0.003801  0.02538  0.5693  0.4047
6.545e+09  0.858  0.4297  0.0214  0.007429  1.689e-05  0.02795  0.6728  0.1745
6.546e+09  0.9091  0.1495  -0.03147  0.01054  0.01886  -0.003287  0.7192  -0.08142
6.548e+09  0.947  -0.198  0.03564  0.006806  -0.01465  0.01236  0.6666  -0.2991
6.549e+09  0.7825  -0.514  0.03148  -0.009971  -0.02371  -0.04226  0.512  -0.5274
6.55e+09  0.5429  -0.7558  -0.01815  -0.01187  0.007907  0.03402  0.2949  -0.681
