# Hz S RI R 50
6.25e+09  -0.7202  0.4747  0.01261  -0.01142  -0.01675  0.04377  0.1915  0.4834
6.251e+09  -0.4841  0.6824  -0.01095  0.002038  0.02595  0.02438  0.3443  0.4045
6.252e+09  -0.268  0.8037  0.03406  -0.007838  0.0184  0.02571  0.5262  0.2677
6.254e+09  0.09306  0.8142  0.003902  -0.008611  0.02491  0.03669  0.651  0.06367
6.255e+09  0.3365  0.7601  -0.008772  0.009243  0.02825  -0.01698  0.5785  -0.1908
6.256e+09  0.6196  0.5653  -0.008457  -0.002362  0.001444  0.01627  0.462  -0.4377
6.258e+09  0.7645  0.3343  -0.03284  0.01256  -0.001829  0.0212  0.2818  -0.6099
6.259e+09  0.8521  0.08385  -0.007767  0.01219  -0.0003969  -0.03869  0.05162  -0.6758
6.26e+09  0.7995  -0.2245  0.002137  0.01881  -0.02196  -0.03105  -0.2321  -0.6425
6.261e+09  0.6806  -0.4825  0.0208  0.006624  0.005181  0.02791  -0.4255  -0.5555
6.262e+09  0.4604  -0.6553  -0.008524  0.02105  -0.02296  -0.004299  -0.6002  -0.3644
6.264e+09  0.1672  -0.7978  0.001882  0.002885  0.01547  -0.00981  -0.6818  -0.1452
6.265e+09  -0.04792  -0.885  0.02007  0.02826  -0.04864  -0.007825  -0.7066  0.1439
6.266e+09  -0.3044  -0.7621  -0.01467  -0.003894  -0.002608  0.00718  -0.6274  0.3922
6.268e+09  -0.5552  -0.5314  0.04618  0.01238  -0.0122  0.02089  -0.4266  0.6139
6.269e+09  -0.7587  -0.3777  0.02644  -0.00231  -0.0252  -0.01946  -0.1995  0.6942
6.27e+09  -0.802  -0.07184  0.04172  0.0007211  0.06047  -0.03593  0.06057  0.7269
6.271e+09  -0.7964  0.2343  0.01956  0.02044  -0.02741  0.05715  0.3053  0.662
6.272e+09  -0.7017  0.4624  0.01144  0.0009497  -0.004955  0.03566  0.5506  0.5095
6.274e+09  -0.4794  0.6999  0.01178  0.003233  0.0427  0.1208  0.665  0.2707
6.275e+09  -0.2337  0.7846  0.01582  0.03102  -0.005679  0.01215  0.7328  0.0621
6.276e+09  0.07869  0.8713  -0.02724  0.02041  0.0247  -0.02554  0.6914  -0.2277
6.278e+09  0.3746  0.7564  -0.02496  -0.004936  -0.02873  -0.009266  0.6088  -0.46
6.279e+09  0.6196  0.5902  0.001519  0.004419  0.02009  -0.05047  0.4287  -0.6257
6.28e+09  0.7324  0.3422  -0.003654  -0.0002128  0.04185  -0.01996  0.1849  -0.7359
6.281e+09  0.8234  0.06621  0.001542  0.005595  0.08598  -0.009243  -0.104  -0.7407
6.282e+09  0.8283  -0.2148  -0.02038  -0.03187  -0.01478  0.0006913  -0.3768  -0.6801
6.284e+09  0.7002  -0.5117  0.02317  0.01321  -0.009484  -0.004749  -0.5456  -0.5045
6.285e+09  0.4429  -0.6494  -0.0133  -0.007753  -0.02521  0.001196  -0.7172  -0.3176
6.286e+09  0.1895  -0.7886  0.01566  0.00735  -0.009274  0.01679  -0.7645  -0.03231
6.288e+09  -0.1328  -0.8338  0.0004818  -0.03565  -0.001072  0.008784  -0.7443  0.2581
6.289e+09  -0.4114  -0.7604  0.02392  -0.01228  -0.03799  0.01611  -0.6382  0.4915
6.29e+09  -0.6239  -0.5087  0.00737  0.01513  0.0155  0.0003389  -0.4187  0.6896
6.291e+09  -0.7857  -0.3162  -0.02582  0.01704  -0.003407  -0.01042  -0.1661  0.7704
6.292e+09  -0.8174  -0.03967  -0.007953  -0.006968  -0.0181  0.02698  0.1094  0.8104
6.294e+09  -0.8243  0.2732  0.01826  0.001232  0.09053  0.004234  0.4102  0.6995
6.295e+09  -0.6621  0.5306  -0.01964  -0.002184  -0.01743  -0.001283  0.6232  0.5369
6.296e+09  -0.4536  0.7132  0.01624  0.01743  0.03176  -0.01506  0.7584  0.3296
6.298e+09  -0.1709  0.7917  -0.004187  -0.008684  0.004783  0.06808  0.8236  0.009372
6.299e+09  0.1634  0.7972  0.007939  0.02011  -0.003585  0.01977  0.7841  -0.2798
6.3e+09  0.3697  0.7413  -0.00528  0.03521  -0.006745  -0.01119  0.6311  -0.5665
6.301e+09  0.6575  0.523  -0.004209  -0.009546  -0.01258  -0.02607  0.4442  -0.704
6.302e+09  0.8001  0.2766  0.001191  0.002362  -0.001262  0.004234  0.1702  -0.8091
6.304e+09  0.8689  0.03653  0.0435  -0.009834  -0.01273  0.0008832  -0.1317  -0.854
6.305e+09  0.7953  -0.2664  0.007454  -0.006463  0.01396  0.008808  -0.3743  -0.7376
6.306e+09  0.5889  -0.4994  0.0151  -0.0156  0.007933  0.0139  -0.636  -0.5608
6.308e+09  0.3897  -0.7461  -0.003889  -0.007234  -0.01979  -0.02262  -0.7852  -0.3263
6.309e+09  0.1092  -0.8153  0.00522  -0.02381  -0.01773  0.01047  -0.861  0.0009907
6.31e+09  -0.1438  -0.829  9.288e-05  0.01346  0.03791  -0.033  -0.811  0.2783
6.311e+09  -0.4521  -0.7121  0.004858  -0.01156  -0.01125  -0.02963  -0.6587  0.5293
6.312e+09  -0.6683  -0.5437  -0.02889  0.008502  -0.03397  0.04533  -0.4629  0.7519
6.314e+09  -0.8186  -0.2495  -0.01261  0.01093  -0.02325  -0.02427  -0.1844  0.8669
6.315e+09  -0.7915  0.02447  0.02599  0.03105  -0.05469  0.01521  0.1398  0.8612
6.316e+09  -0.7748  0.3099  0.009345  -0.02917  -0.03557  0.005449  0.415  0.7493
6.318e+09  -0.6259  0.6089  0.008867  0.02853  -0.04327  0.001216  0.6613  0.6081
6.319e+09  -0.3806  0.7638  -0.02187  0.01432  -0.03585  0.04471  0.8  0.3033
6.32e+09  -0.1227  0.8305  -0.04035  -0.02264  -0.009903  -0.05546  0.9327  0.03736
6.321e+09  0.2016  0.788  0.01034  0.006694  -0.02318  0.04175  0.83  -0.2911
6.322e+09  0.4869  0.7357  -0.006048  0.006757  -0.008017  0.05399  0.6443  -0.6208
6.324e+09  0.6884  0.4816  0.01196  0.02063  0.01236  0.01365  0.4541  -0.7398
6.325e+09  0.8357  0.2479  0.008841  0.002137  0.02533  0.007258  0.1831  -0.8734
6.326e+09  0.8491  -0.05125  0.005698  -0.009977  -0.019  -0.01976  -0.1231  -0.8915
6.328e+09  0.7792  -0.3513  0.01482  -0.01764  -0.0156  -0.004983  -0.4447  -0.785
6.329e+09  0.5979  -0.6401  0.01311  0.004716  0.001194  -0.04254  -0.6595  -0.5664
6.33e+09  0.3367  -0.8047  -0.0009372  -0.01334  0.008712  -0.002417  -0.8419  -0.3649
6.331e+09  0.03266  -0.8058  -0.01915  0.008557  0.01358  -0.02839  -0.902  -0.0219
6.332e+09  -0.2468  -0.8447  0.01376  -0.01455  -0.01466  -0.002854  -0.8574  0.2654
6.334e+09  -0.5203  -0.6824  0.009251  -0.03644  0.02105  0.00793  -0.7339  0.5631
6.335e+09  -0.7408  -0.4646  0.004879  0.01963  -0.003911  -0.04708  -0.4649  0.7573
6.336e+09  -0.8522  -0.226  0.01867  -0.0006106  -0.02456  -0.02861  -0.2096  0.8622
6.338e+09  -0.8864  0.06493  -0.0148  0.02373  -0.001447  0.04755  0.1182  0.944
6.339e+09  -0.7644  0.4435  0.003383  -0.0005792  -0.04771  -0.02947  0.4715  0.8442
6.34e+09  -0.5985  0.6742  0.01416  0.02531  -0.005101  -0.007277  0.6768  0.6494
6.341e+09  -0.2881  0.8048  0.03963  0.01371  0.0344  -0.03091  0.8731  0.3721
6.342e+09  0.003672  0.8599  0.03395  -0.007633  -0.04213  -0.01572  0.8986  0.01538
6.344e+09  0.264  0.7986  -0.007911  0.03928  -0.03204  0.02789  0.9005  -0.2802
6.345e+09  0.5592  0.6602  0.006975  0.008618  0.02321  -0.02902  0.7507  -0.5593
6.346e+09  0.7929  0.4188  -0.009273  0.001171  0.01499  -0.007786  0.5011  -0.7568
6.348e+09  0.862  0.0614  -0.01252  0.02106  -0.005465  0.008086  0.2384  -0.8879
6.349e+09  0.8373  -0.2229  -0.01445  -0.01102  0.02663  0.03868  -0.1275  -0.938
6.35e+09  0.7715  -0.478  -0.02754  0.003072  -0.02161  -0.02526  -0.3819  -0.8346
6.351e+09  0.4816  -0.7016  0.004384  0.01393  0.001178  0.03345  -0.6779  -0.6434
6.352e+09  0.238  -0.8456  -0.01172  0.01716  -0.01712  -0.02991  -0.8633  -0.3574
6.354e+09  -0.07502  -0.8736  0.03737  0.007337  -0.02897  0.02134  -0.9435  -0.09275
6.355e+09  -0.3674  -0.7739  0.002994  -0.04728  -0.0415  -0.04442  -0.9008  0.2407
6.356e+09  -0.591  -0.6011  0.01231  -0.001994  -0.01505  0.006085  -0.7635  0.5263
6.358e+09  -0.7927  -0.3922  -0.01856  0.01372  -0.001608  -0.01647  -0.5284  0.786
6.359e+09  -0.8885  -0.04053  -0.01522  -0.01204  0.03244  0.02429  -0.2141  0.9139
6.36e+09  -0.8469  0.2122  0.006481  0.0201  -0.04295  0.005926  0.1354  0.9045
6.361e+09  -0.7504  0.5328  -3.646e-05  -0.01722  -0.00532  -0.008932  0.4196  0.7915
6.362e+09  -0.4279  0.7322  0.01697  0.01955  -0.003736  0.009045  0.6325  0.6439
6.364e+09  -0.1907  0.8591  -0.002666  0.003598  0.003038  0.005865  0.8646  0.3795
6.365e+09  0.1219  0.8255  0.03452  0.02122  4.23e-05  0.003199  0.9498  0.07102
6.366e+09  0.4125  0.7591  -0.007671  0.004433  -0.004895  0.0215  0.886  -0.2508
6.368e+09  0.6702  0.5076  0.04558  0.02469  0.02191  0.02744  0.7756  -0.5467
6.369e+09  0.8033  0.3007  -0.01049  -0.007168  0.05162  -0.005073  0.5463  -0.7954
6.37e+09  0.8957  0.01897  0.01917  -0.0006129  0.05451  0.03233  0.2691  -0.9062
6.371e+09  0.8231  -0.3029  0.01264  -0.03654  -0.01247  -0.04758  -0.1101  -0.9563
6.372e+09  0.6412  -0.569  -0.03738  0.00777  0.05429  -0.05235  -0.387  -0.833
6.374e+09  0.4197  -0.8257  0.002758  -0.0009835  0.02108  -0.02342  -0.6469  -0.6761
6.375e+09  0.1115  -0.8506  0.03648  0.01875  0.02638  -0.01879  -0.8647  -0.368
6.376e+09  -0.225  -0.9104  0.04598  0.02618  0.007063  -0.01402  -0.9558  -0.04802
6.378e+09  -0.4804  -0.7322  0.00151  0.005205  0.0009437  0.04793  -0.8913  0.2393
6.379e+09  -0.7219  -0.5438  0.01974  0.04564  0.001893  -0.03045  -0.8117  0.5671
6.38e+09  -0.8277  -0.2164  0.01621  0.03772  0.01887  -0.0143  -0.5806  0.7432
6.381e+09  -0.8774  0.03627  0.009442  -0.004194  0.02448  0.002707  -0.263  0.9085
6.382e+09  -0.8366  0.3414  0.01411  -0.01444  -0.02958  -0.01858  0.08568  0.9346
6.384e+09  -0.6337  0.5944  -0.009904  -0.04352  -0.0424  -0.002468  0.3658  0.8957
6.385e+09  -0.3808  0.8041  -0.03241  0.003446  0.0637  0.01362  0.6481  0.629
6.386e+09  -0.0986  0.8492  0.02369  -0.007033  0.00487  -0.02756  0.8112  0.4214
6.388e+09  0.2797  0.8948  -0.02961  0.01853  0.00837  0.0004555  0.9192  0.1274
6.389e+09  0.4936  0.7191  0.01081  0.02909  0.007808  -0.005827  0.9318  -0.1593
6.39e+09  0.7087  0.4905  -0.004456  -0.04365  -0.01415  -0.008878  0.7929  -0.5157
6.391e+09  0.8451  0.213  0.001451  -0.005253  -0.01373  -0.06586  0.5517  -0.7761
6.392e+09  0.9088  -0.1212  -0.001606  -0.003538  -0.01844  -0.02751  0.241  -0.8737
6.394e+09  0.8107  -0.3992  0.007414  -0.005023  0.03875  -0.01229  -0.03078  -0.8782
6.395e+09  0.6288  -0.6529  -0.02966  0.004754  -0.005293  -0.01042  -0.289  -0.8344
6.396e+09  0.3584  -0.9052  0.009556  0.04545  0.008163  -0.01058  -0.5905  -0.6837
6.398e+09  0.04665  -0.9287  -0.01708  0.0004891  0.02485  -6.872e-05  -0.7784  -0.4672
6.399e+09  -0.2678  -0.8252  -0.0009643  -0.02202  0.01096  -0.01149  -0.8711  -0.1296
6.4e+09  -0.5563  -0.6962  -0.006181  -0.01804  -0.02802  0.01763  -0.9039  0.1775
6.401e+09  -0.7622  -0.4438  -0.0262  0.02661  0.001202  0.01485  -0.7982  0.4828
6.402e+09  -0.867  -0.09592  0.009957  -0.05292  -0.04139  -0.004389  -0.6309  0.7136
6.404e+09  -0.8141  0.124  0.01627  -0.01125  0.01034  -0.0003307  -0.3057  0.8613
6.405e+09  -0.7728  0.4109  -0.05632  0.009127  0.02009  0.007926  0.04686  0.8972
6.406e+09  -0.5832  0.6488  -0.02307  0.03627  0.003415  -0.003096  0.3111  0.8702
6.408e+09  -0.2478  0.8381  0.02229  0.008596  0.003839  0.01157  0.6152  0.7246
6.409e+09  0.00749  0.8532  0.008033  0.007893  -0.01169  -0.01776  0.7859  0.4435
6.41e+09  0.3116  0.8238  -0.03801  -0.01484  0.002866  -0.01166  0.9029  0.2225
6.411e+09  0.5808  0.7027  -0.0101  0.01248  -0.0147  0.03337  0.9428  -0.116
6.412e+09  0.7474  0.4162  -0.01804  0.009694  0.009309  -0.00223  0.7499  -0.4491
6.414e+09  0.8667  0.1619  -0.0499  -0.04022  0.07388  0.04034  0.5878  -0.6803
6.415e+09  0.8386  -0.1694  -0.002863  0.01984  0.003534  -0.02486  0.3775  -0.8275
6.416e+09  0.7575  -0.4995  0.02857  -0.01051  0.01738  0.0004617  0.0005128  -0.9166
6.418e+09  0.5281  -0.7317  0.003171  -0.01349  0.03241  -0.04186  -0.2895  -0.8587
6.419e+09  0.2828  -0.8181  0.01498  -0.01673  -0.0456  -0.02423  -0.5949  -0.7234
6.42e+09  -0.007711  -0.8718  0.05635  0.004001  0.05158  -0.009754  -0.7336  -0.4564
6.421e+09  -0.3525  -0.8241  0.009379  0.000493  -0.006694  0.002698  -0.8806  -0.1985
6.422e+09  -0.6558  -0.6929  0.04691  0.008346  -0.03881  0.01689  -0.9345  0.1081
6.424e+09  -0.789  -0.3886  0.03959  0.02226  -0.00204  0.002888  -0.7733  0.4223
6.425e+09  -0.8537  -0.1115  -0.02317  0.01323  -0.02788  0.01344  -0.6021  0.634
6.426e+09  -0.8894  0.2138  0.02834  -0.01356  0.007777  -0.006906  -0.3208  0.8176
6.428e+09  -0.7351  0.5074  -0.009185  -0.006776  0.03461  0.04474  -0.04895  0.8922
6.429e+09  -0.5185  0.6925  0.04361  -0.001647  0.003423  -0.05514  0.2602  0.8312
6.43e+09  -0.2399  0.8405  -0.03981  -0.01104  0.004027  0.03058  0.517  0.7041
6.431e+09  0.07291  0.8595  0.01208  -0.02927  -0.01138  0.008332  0.6818  0.5563
6.432e+09  0.3369  0.801  0.03032  0.02118  -0.02903  -0.05677  0.8637  0.2336
6.434e+09  0.6172  0.665  -0.006601  -0.02298  -0.018  0.0107  0.8735  -0.08426
6.435e+09  0.7678  0.3504  0.04231  0.005517  -0.01863  -0.01217  0.7272  -0.4289
6.436e+09  0.8423  0.06642  -0.07034  0.02132  0.003633  0.01275  0.5508  -0.6266
6.438e+09  0.8623  -0.2657  0.00606  -0.05066  -0.004434  0.01925  0.3631  -0.7757
6.439e+09  0.7262  -0.4889  -0.03488  -0.01486  -0.03193  -0.00491  0.05673  -0.8241
6.44e+09  0.4538  -0.6984  -0.03803  -0.01579  0.02889  -0.009029  -0.2189  -0.8216
6.441e+09  0.2477  -0.8465  -0.004783  -0.01233  0.04145  -0.02291  -0.4603  -0.7015
6.442e+09  -0.136  -0.8756  -0.009388  -0.007422  -0.009503  0.005748  -0.6948  -0.4738
6.444e+09  -0.3739  -0.7611  -0.007333  0.002963  -0.01075  0.03775  -0.8136  -0.192
6.445e+09  -0.6402  -0.6223  -0.0005018  0.01827  0.03007  -0.01649  -0.879  0.07893
6.446e+09  -0.8555  -0.355  0.02422  -0.006772  -0.02134  0.02618  -0.7805  0.3445
6.448e+09  -0.8372  -0.06156  0.04159  0.02115  -0.03198  -0.04628  -0.5741  0.5766
6.449e+09  -0.816  0.2153  -0.01202  -0.02517  -0.01516  -0.02531  -0.3087  0.7815
6.45e+09  -0.7007  0.5004  0.00257  -0.01307  -0.04834  -0.02043  -0.04081  0.8149
6.451e+09  -0.4961  0.7388  0.01901  -0.007539  -0.002456  -0.005698  0.2162  0.8194
6.452e+09  -0.1772  0.8829  -0.02256  -0.008267  -0.004959  -0.02335  0.4771  0.6752
6.454e+09  0.08096  0.8408  0.00203  0.003087  0.03327  0.03265  0.6404  0.504
6.455e+09  0.4169  0.7784  -0.004543  -0.03559  -0.03592  -0.02015  0.8122  0.1999
6.456e+09  0.6418  0.6268  -0.07245  0.03028  -0.03568  0.05979  0.795  -0.08849
6.458e+09  0.818  0.3495  0.002748  0.0006984  -0.02646  0.01901  0.763  -0.3293
6.459e+09  0.8101  0.07188  0.02823  0.0257  -0.01221  -0.0177  0.5667  -0.5923
6.46e+09  0.8622  -0.2398  -0.0005978  0.01675  -0.04243  -0.02976  0.3347  -0.7669
6.461e+09  0.7576  -0.4948  -0.02162  0.07279  -0.0259  -0.0123  0.05894  -0.7874
6.462e+09  0.468  -0.7332  0.01855  0.0442  -0.01256  0.03614  -0.2112  -0.8262
6.464e+09  0.1556  -0.8349  0.01407  -0.0166  -0.006982  -0.03596  -0.4623  -0.6634
6.465e+09  -0.08244  -0.8423  0.009903  -0.002027  -0.02261  0.04048  -0.6807  -0.4403
6.466e+09  -0.3604  -0.7587  0.02323  -0.01073  -0.005162  -0.009265  -0.773  -0.1934
6.468e+09  -0.5944  -0.6201  0.001074  0.01095  -0.0079  0.01335  -0.8105  0.09411
6.469e+09  -0.8114  -0.3417  -0.01185  0.009696  -0.01645  0.01234  -0.7151  0.323
6.47e+09  -0.8728  -0.05944  0.02803  -0.02318  -0.01854  0.05007  -0.5565  0.5641
6.471e+09  -0.8569  0.229  -0.02473  -0.004363  -0.004196  0.007402  -0.3309  0.7236
6.472e+09  -0.7201  0.5581  -0.003706  -0.04374  0.0187  0.03004  -0.06588  0.8166
6.474e+09  -0.5026  0.7196  -0.01396  0.01254  -0.01036  0.006886  0.1964  0.7594
6.475e+09  -0.1726  0.868  -0.01069  -0.0005804  0.0383  -0.01565  0.4491  0.6195
6.476e+09  0.08337  0.8944  0.009456  0.02782  -0.003562  -0.005443  0.6323  0.4235
6.478e+09  0.3817  0.772  0.06297  0.002249  0.0506  -2.086e-05  0.7462  0.1695
6.479e+09  0.6283  0.5779  0.004051  0.01273  0.01553  0.007829  0.7595  -0.05745
6.48e+09  0.8412  0.3443  -0.0008546  -0.02118  -0.01093  0.003358  0.6705  -0.3342
6.481e+09  0.9122  0.02294  -0.01676  -0.04422  0.03047  0.02101  0.5017  -0.5328
6.482e+09  0.8062  -0.2981  -0.009583  -0.01766  -0.003688  0.01823  0.3375  -0.7036
6.484e+09  0.7449  -0.5199  -0.01575  0.01257  -0.05692  -0.02312  0.06897  -0.7681
6.485e+09  0.485  -0.7806  0.005095  -0.01114  0.03366  -0.02753  -0.2042  -0.8004
6.486e+09  0.1604  -0.8244  -0.02966  -0.007051  -0.001756  -0.06159  -0.4899  -0.6306
6.488e+09  -0.09659  -0.8695  -0.01255  -0.03783  0.01694  0.0174  -0.6096  -0.4068
6.489e+09  -0.373  -0.7586  -0.01681  0.01204  0.003125  0.008285  -0.7385  -0.1453
6.49e+09  -0.6812  -0.5743  -0.01605  0.0002568  -0.01483  -0.04242  -0.7724  0.06517
6.491e+09  -0.779  -0.369  -0.0235  -0.02115  0.02948  0.01946  -0.6789  0.372
6.492e+09  -0.8961  -0.0208  -0.02935  0.006567  0.001922  -0.01102  -0.5249  0.5409
6.494e+09  -0.8451  0.2916  -0.01071  0.01223  0.003205  0.04622  -0.2986  0.6707
6.495e+09  -0.6449  0.5824  -0.009114  -0.01133  0.03921  -0.009005  -0.00646  0.7725
6.496e+09  -0.4707  0.774  -0.02691  0.0312  0.002106  -0.07604  0.2439  0.7168
6.498e+09  -0.1526  0.8462  0.01869  0.0008755  0.0285  -0.01103  0.4353  0.6142
6.499e+09  0.1403  0.9178  -0.01681  -0.004113  0.03153  0.0153  0.6422  0.3993
6.5e+09  0.4724  0.8087  -0.04495  -0.01464  0.006715  0.05249  0.721  0.1621
6.501e+09  0.706  0.5994  -0.01308  0.02266  -0.02801  0.01901  0.7215  -0.1307
6.502e+09  0.8891  0.2814  0.01202  0.02974  0.06653  -0.005702  0.6662  -0.3377
6.504e+09  0.9164  -0.03246  0.00726  -0.03005  -0.007739  -0.01222  0.5166  -0.5408
6.505e+09  0.8381  -0.3569  0.00305  0.006563  -0.02356  0.005002  0.2762  -0.7009
6.506e+09  0.7135  -0.5678  0.01239  0.02496  -0.009076  0.009275  0.005225  -0.7636
6.508e+09  0.5062  -0.7699  -0.009538  0.06177  -0.01382  0.009263  -0.2429  -0.7146
6.509e+09  0.1631  -0.9436  0.000816  0.003982  -0.00462  0.003382  -0.457  -0.5934
6.51e+09  -0.1675  -0.9089  0.02389  -0.01996  -0.02592  -0.05624  -0.6258  -0.3972
6.511e+09  -0.5044  -0.8312  0.02203  -0.01487  -0.002717  0.02612  -0.7414  -0.1404
6.512e+09  -0.7099  -0.6078  -0.01347  -0.01723  -0.005455  0.02052  -0.7308  0.1325
6.514e+09  -0.8518  -0.2772  -0.002423  -0.01622  0.02252  0.03347  -0.632  0.3553
6.515e+09  -0.9256  0.03781  -0.03398  -0.01512  -0.02996  0.06096  -0.4603  0.5764
6.516e+09  -0.8465  0.3179  0.02264  0.02645  0.01343  0.004207  -0.2051  0.686
6.518e+09  -0.7476  0.6154  0.004991  0.009664  0.02607  0.02938  0.05264  0.7321
6.519e+09  -0.4452  0.8636  0.009296  -0.02141  0.005379  0.003612  0.3101  0.7024
6.52e+09  -0.07328  0.8711  0.03029  0.02935  -0.01796  -0.03201  0.4602  0.5516
6.521e+09  0.183  0.9023  -0.001374  0.02578  -0.01302  -0.004572  0.6137  0.3813
6.522e+09  0.508  0.8312  0.003267  0.0001366  -0.0308  -0.02157  0.7508  0.1083
6.524e+09  0.7553  0.5683  0.02746  -0.003294  0.0458  -0.01818  0.7107  -0.1409
6.525e+09  0.9092  0.2851  0.00826  0.02734  0.01388  -0.01772  0.6077  -0.3754
6.526e+09  0.9846  -0.1074  0.02261  0.02413  0.006751  -0.02853  0.4441  -0.5927
6.528e+09  0.9163  -0.3598  0.02255  0.01919  -0.017  0.0184  0.1707  -0.6682
6.529e+09  0.6663  -0.6358  0.02948  -0.02  0.01935  -0.009607  -0.07635  -0.7041
6.53e+09  0.3588  -0.8331  -0.01434  0.01692  0.01643  0.00308  -0.2645  -0.6333
6.531e+09  0.08468  -0.9091  -0.02519  -0.02605  0.002495  0.03862  -0.4489  -0.464
6.532e+09  -0.1913  -0.9064  -0.01726  -0.00667  0.0003361  -0.05741  -0.6104  -0.3034
6.534e+09  -0.5803  -0.7394  -0.03821  0.01426  0.005809  -0.01171  -0.6462  -0.08354
6.535e+09  -0.8552  -0.5719  0.003863  0.02709  -0.02145  -0.003973  -0.6239  0.1227
6.536e+09  -0.9438  -0.2396  -0.00898  0.01003  0.007038  0.003145  -0.5856  0.3064
6.538e+09  -0.9461  0.1114  0.003613  0.03836  0.003454  -0.01361  -0.4181  0.5043
6.539e+09  -0.8748  0.4348  0.009043  0.01423  0.06148  -0.0269  -0.2712  0.5951
6.54e+09  -0.6301  0.6962  -0.02159  0.008786  0.007824  -0.06747  -0.07948  0.7092
6.541e+09  -0.3539  0.9072  0.01515  -0.04715  0.008123  -0.05365  0.1605  0.6699
6.542e+09  -0.02986  0.9413  -0.00544  -0.01153  0.002788  -0.003186  0.4073  0.5695
6.544e+09  0.2867  0.9144  -0.01115  -0.04459  -0.04561  0.03909  0.5711  0.39
6.545e+09  0.6078  0.7563  -0.03751  -0.02723  0.04053  0.01188  0.6626  0.1728
6.546e+09  0.8881  0.5299  -0.02119  0.01442  -0.03655  -0.01203  0.7328  -0.08255
6.548e+09  0.9155  0.189  -0.001942  -0.01677  -0.006619  -0.0195  0.6528  -0.3034
6.549e+09  0.9371  -0.2151  -0.02523  0.01547  0.03914  0.003309  0.4998  -0.5364
