# Hz S RI R 50
6.25e+09  -0.3841  0.7091  -0.01561  -0.02037  -0.01989  -0.0385  0.1785  0.4904
6.251e+09  -0.1317  0.8433  0.005389  0.01227  0.03294  0.02738  0.3493  0.3898
6.252e+09  0.179  0.814  -0.00266  -0.02593  0.0004923  -0.06454  0.5253  0.2425
6.254e+09  0.4918  0.7227  -0.01549  0.02042  0.0514  0.05111  0.5598  0.04097
6.255e+09  0.7229  0.4702  -0.01185  -0.01183  -0.02428  0.03457  0.5924  -0.2102
6.256e+09  0.8361  0.2828  -0.03555  0.0109  0.02606  -0.03246  0.4587  -0.4317
6.258e+09  0.8594  0.005937  -0.02636  -0.004635  -0.02135  -0.03432  0.2935  -0.5923
6.259e+09  0.7524  -0.3087  0.0007156  -0.02955  0.04873  -0.02185  0.04553  -0.6737
6.26e+09  0.6105  -0.6397  -0.03034  -0.01303  -0.0164  -0.001669  -0.2175  -0.6867
6.261e+09  0.3841  -0.8241  0.03272  -0.0221  0.03892  -0.02139  -0.4189  -0.5366
6.262e+09  0.07207  -0.8746  -0.008115  -0.008234  0.01022  0.01414  -0.6272  -0.3416
6.264e+09  -0.221  -0.8204  0.01278  0.01449  0.01103  -0.02593  -0.7361  -0.1205
6.265e+09  -0.4248  -0.6705  0.03581  -0.01822  -0.06123  -0.01279  -0.7352  0.1324
6.266e+09  -0.6509  -0.4683  -0.007289  0.00269  0.03094  -0.03476  -0.59  0.3941
6.268e+09  -0.8114  -0.235  0.007543  -0.009346  0.06186  0.01383  -0.4361  0.6043
6.269e+09  -0.8316  0.104  0.0185  -0.0005941  -0.04834  -0.02884  -0.1527  0.6725
6.27e+09  -0.7381  0.3666  0.004671  -0.001068  0.002342  0.03876  0.06647  0.735
6.271e+09  -0.6655  0.5961  0.008334  -0.01893  -0.005766  0.03914  0.3279  0.6697
6.272e+09  -0.3393  0.7109  0.008434  0.01179  -0.01994  0.0332  0.5508  0.5005
6.274e+09  -0.09322  0.8126  -0.00578  0.01775  0.05381  -0.007173  0.6872  0.2861
6.275e+09  0.2144  0.7995  0.008347  0.01312  0.03149  -0.03922  0.7545  0.02467
6.276e+09  0.4842  0.7003  -0.02741  -0.0112  -0.009496  0.02407  0.7267  -0.1723
6.278e+09  0.6747  0.4286  -0.01921  0.009354  -0.0241  -0.01127  0.5639  -0.4703
6.279e+09  0.8317  0.2255  -0.001116  -0.01391  0.006018  -0.00848  0.3882  -0.6483
6.28e+09  0.8338  -0.1184  0.01004  0.009579  0.01815  -0.01612  0.1536  -0.7716
6.281e+09  0.7445  -0.3985  0.02199  0.01076  -0.009323  -0.02453  -0.126  -0.7643
6.282e+09  0.5731  -0.595  0.01898  0.005574  -0.03536  -0.02053  -0.3475  -0.6951
6.284e+09  0.2807  -0.8003  -0.02221  -0.0004802  0.02538  -0.022  -0.5991  -0.5094
6.285e+09  0.07172  -0.8045  -0.003926  -0.02808  0.0353  -0.008336  -0.7402  -0.2685
6.286e+09  -0.2657  -0.823  -0.006084  0.01809  -0.01121  -0.01876  -0.7581  -0.00811
6.288e+09  -0.5349  -0.6991  0.007798  0.01795  0.02392  0.00965  -0.7456  0.2864
6.289e+09  -0.7037  -0.4575  -0.0064  0.001135  0.01406  0.04116  -0.6127  0.5321
6.29e+09  -0.7872  -0.1885  -0.01006  -0.01862  -0.02151  0.0633  -0.4446  0.6648
6.291e+09  -0.8116  0.1032  0.01093  -0.001584  -0.05124  -0.03972  -0.1615  0.8022
6.292e+09  -0.7042  0.3683  -0.007071  -0.02627  -0.003351  -0.02092  0.1213  0.8344
6.294e+09  -0.578  0.6065  0.02456  -0.0004097  0.02535  0.02007  0.3706  0.7106
6.295e+09  -0.3304  0.7508  -0.02659  0.02759  0.01344  0.01458  0.6192  0.5561
6.296e+09  -0.02152  0.8427  0.002173  -0.01223  0.0172  -0.02556  0.773  0.2663
6.298e+09  0.236  0.7947  -0.01402  -0.005652  0.04233  0.01802  0.8179  0.02281
6.299e+09  0.5163  0.595  -0.006286  0.002045  0.01993  0.02591  0.7913  -0.2754
6.3e+09  0.7646  0.4817  -0.01684  0.008241  0.05776  0.02521  0.6286  -0.5276
6.301e+09  0.8161  0.1508  -0.01543  -0.01191  0.05429  -0.000797  0.408  -0.6975
6.302e+09  0.8272  -0.126  0.01362  0.01875  -0.0004675  -0.01474  0.1592  -0.8305
6.304e+09  0.6799  -0.4044  0.01804  0.02363  -0.01831  -0.0243  -0.1695  -0.8277
6.305e+09  0.4894  -0.6436  7.195e-05  -0.004422  0.03608  -0.01375  -0.401  -0.7412
6.306e+09  0.2987  -0.8389  0.01045  -0.005844  -0.06988  -0.007622  -0.6473  -0.6001
6.308e+09  0.01522  -0.86  0.02537  0.01347  -0.03655  0.01454  -0.7973  -0.3251
6.309e+09  -0.2744  -0.8319  -0.001388  -0.0269  -0.02352  -0.002723  -0.8657  -0.05717
6.31e+09  -0.5475  -0.6686  0.023  -0.002541  -0.04039  -0.03083  -0.8026  0.2809
6.311e+09  -0.7535  -0.44  -0.01311  -0.02139  0.008319  0.01235  -0.6441  0.5469
6.312e+09  -0.8102  -0.1382  -0.01586  -0.01201  -0.06242  -0.01479  -0.4146  0.718
6.314e+09  -0.7894  0.1403  -0.008451  -0.008911  -0.006757  -0.01496  -0.1586  0.8618
6.315e+09  -0.7274  0.4912  -0.00649  0.008506  0.03034  -0.03265  0.1428  0.8422
6.316e+09  -0.5555  0.642  -0.01858  0.01285  0.03696  0.05228  0.4137  0.7771
6.318e+09  -0.2324  0.8158  -0.01097  0.01714  -0.009735  0.03389  0.6451  0.5776
6.319e+09  0.02224  0.8342  -0.0006014  -0.0239  0.09136  -0.03756  0.8236  0.3054
6.32e+09  0.3185  0.7681  0.027  -0.007124  0.01762  -0.01961  0.8727  0.02501
6.321e+09  0.5588  0.6301  -0.01861  -0.01307  0.03038  -0.006749  0.8164  -0.2812
6.322e+09  0.8257  0.3822  0.00245  -0.03327  -0.03313  -0.03833  0.6852  -0.559
6.324e+09  0.8576  0.0406  0.008141  0.01767  -0.000923  -0.001408  0.4436  -0.784
6.325e+09  0.8253  -0.1872  -0.005211  -0.02581  0.006738  -0.02881  0.154  -0.8701
6.326e+09  0.7541  -0.4813  -0.02637  0.0226  -0.002728  -0.01588  -0.1397  -0.881
6.328e+09  0.5362  -0.6625  -0.03106  0.01264  0.01998  0.01061  -0.4422  -0.7986
6.329e+09  0.2016  -0.8511  0.0538  -0.0121  0.01045  0.02621  -0.6811  -0.6259
6.33e+09  -0.03542  -0.8745  -0.005261  0.02338  -0.007919  0.007729  -0.8681  -0.372
6.331e+09  -0.3868  -0.7924  0.0125  -0.007073  -0.02974  0.01954  -0.8829  -0.01688
6.332e+09  -0.639  -0.6036  0.01553  -0.007931  0.02847  -0.002154  -0.8559  0.2744
6.334e+09  -0.8197  -0.3023  -0.007333  -0.01116  0.05112  -0.04941  -0.7499  0.5468
6.335e+09  -0.8962  -0.01418  -0.0103  0.01491  -0.04462  -0.05168  -0.4876  0.7922
6.336e+09  -0.7942  0.281  -0.009343  -0.01965  -0.03536  0.001864  -0.1586  0.8872
6.338e+09  -0.6909  0.5393  0.0273  0.01675  0.01051  0.03363  0.1231  0.8867
6.339e+09  -0.4065  0.778  -0.01921  -0.01579  -0.0488  0.04902  0.3884  0.8101
6.34e+09  -0.1424  0.8506  -0.01975  0.002429  -0.04739  -0.03234  0.6871  0.6377
6.341e+09  0.1499  0.817  0.01236  -0.001649  -0.0454  -0.03291  0.8413  0.3456
6.342e+09  0.4223  0.7752  0.001383  0.01857  -0.002608  -0.02339  0.8972  0.0539
6.344e+09  0.6735  0.561  -0.003023  -0.04093  0.0478  0.01575  0.8893  -0.2705
6.345e+09  0.8554  0.2949  0.02516  -0.02654  0.01379  0.01798  0.7271  -0.5275
6.346e+09  0.8968  -0.02852  -0.03188  0.01698  0.008113  0.009009  0.4941  -0.7595
6.348e+09  0.8501  -0.298  0.03144  -0.006905  -0.03349  0.01063  0.2081  -0.8786
6.349e+09  0.6133  -0.5895  -0.0143  0.03444  0.03432  -0.002551  -0.1502  -0.9161
6.35e+09  0.4004  -0.7693  0.05228  -0.03065  0.01976  0.02361  -0.42  -0.8293
6.351e+09  0.1215  -0.8961  0.04627  0.03686  -0.03825  0.02888  -0.7032  -0.6449
6.352e+09  -0.1821  -0.8889  -0.01681  -0.01031  0.03111  -0.04489  -0.8443  -0.3855
6.354e+09  -0.4715  -0.727  0.02227  -0.01594  -0.03718  0.005556  -0.9319  -0.04095
6.355e+09  -0.7271  -0.5162  -0.008613  -0.005564  0.01402  -0.004282  -0.9148  0.2227
6.356e+09  -0.8585  -0.2862  0.02556  0.0394  0.02682  0.001311  -0.7894  0.5623
6.358e+09  -0.8811  0.09308  -0.001287  -0.01125  0.004286  -0.01842  -0.5395  0.8067
6.359e+09  -0.8215  0.3838  -0.0414  0.005774  -0.002961  0.01542  -0.242  0.9355
6.36e+09  -0.62  0.6162  -0.008508  0.0001831  0.008693  -0.0139  0.1195  0.9482
6.361e+09  -0.3588  0.7869  0.003901  -0.002652  0.03942  0.04334  0.3708  0.8306
6.362e+09  -0.07271  0.893  0.0238  -0.03505  0.02535  -0.02992  0.7059  0.6405
6.364e+09  0.2795  0.8467  -0.01337  0.03419  0.0137  0.008835  0.8748  0.3855
6.365e+09  0.554  0.6978  -0.01243  -0.03324  0.06629  0.004917  0.929  0.08363
6.366e+09  0.7178  0.5045  -0.04764  -0.001652  -0.03484  0.02208  0.8894  -0.2561
6.368e+09  0.8364  0.1284  -0.003041  0.02194  -0.02227  0.003295  0.8018  -0.555
6.369e+09  0.9024  -0.1393  0.02162  -0.02097  0.008177  0.01582  0.5863  -0.7604
6.37e+09  0.754  -0.4575  0.009858  0.02462  0.01431  0.0509  0.2873  -0.8893
6.371e+09  0.565  -0.6478  -0.01124  -0.01526  -0.03399  0.02519  -0.05725  -0.9451
6.372e+09  0.3327  -0.8445  0.02056  0.02451  -0.01781  -0.03931  -0.3854  -0.8884
6.374e+09  0.03502  -0.8969  -0.01217  0.02431  -0.04711  -0.04007  -0.6358  -0.6496
6.375e+09  -0.2979  -0.8612  -0.02898  -0.005788  -0.02056  -0.0397  -0.8233  -0.4193
6.376e+09  -0.5306  -0.654  -0.02356  -0.02814  0.02045  -0.05591  -0.9531  -0.1052
6.378e+09  -0.776  -0.4343  0.05247  0.01155  0.02607  0.003651  -0.9208  0.2239
6.379e+09  -0.9437  -0.1594  0.03172  0.01156  -0.01085  -0.0008861  -0.7957  0.5191
6.38e+09  -0.8841  0.1373  -0.004372  0.02362  0.00468  0.02925  -0.5294  0.7448
6.381e+09  -0.7563  0.4791  0.04235  0.002084  -0.01597  0.00152  -0.2768  0.882
6.382e+09  -0.5311  0.7034  0.01291  -0.01647  0.003558  -0.05328  0.05954  0.9141
6.384e+09  -0.3023  0.8452  -0.02275  0.01564  -0.0239  0.006933  0.3308  0.8632
6.385e+09  0.03619  0.8558  0.01146  0.0277  0.003816  0.01621  0.59  0.6769
6.386e+09  0.2761  0.8519  0.03428  0.01616  -0.0006019  -0.03389  0.8031  0.455
6.388e+09  0.6045  0.6621  0.03026  -0.002884  -0.01343  -0.00821  0.8937  0.07065
6.389e+09  0.8012  0.432  -0.006298  0.02082  -0.03513  -0.03574  0.8741  -0.1811
6.39e+09  0.895  0.128  0.007735  -0.01301  0.004837  -0.007309  0.79  -0.4878
6.391e+09  0.8667  -0.1579  0.01481  -0.01439  0.02446  0.01266  0.5753  -0.7275
6.392e+09  0.7603  -0.4976  0.02848  -0.004054  0.01094  0.03849  0.2706  -0.8685
6.394e+09  0.499  -0.7904  0.01988  -0.03695  -0.04044  0.02155  -0.008158  -0.8873
6.395e+09  0.2616  -0.8713  0.01134  -0.003733  0.004156  -0.03486  -0.3391  -0.8212
6.396e+09  -0.03418  -0.9189  0.02042  0.00396  0.003034  -0.01926  -0.6139  -0.6984
6.398e+09  -0.3468  -0.8034  -0.01378  -0.03002  0.008098  -0.03479  -0.7672  -0.4159
6.399e+09  -0.6635  -0.7167  -0.01761  -0.004123  -0.005797  0.02766  -0.9005  -0.14
6.4e+09  -0.7945  -0.3829  0.008986  0.001688  0.0079  0.01552  -0.8824  0.1778
6.401e+09  -0.9218  -0.07214  -0.05053  -0.006052  0.04001  0.0146  -0.7891  0.4908
6.402e+09  -0.8839  0.225  -0.0003266  -0.02098  0.04045  -0.02814  -0.5855  0.6847
6.404e+09  -0.7131  0.5194  0.01058  0.01509  0.006577  -0.008039  -0.3628  0.9038
6.405e+09  -0.4928  0.7572  0.0004207  0.001294  -0.03424  -0.009039  0.01009  0.9651
6.406e+09  -0.1974  0.8739  0.04876  0.01934  -0.02517  -0.06438  0.3276  0.8609
6.408e+09  0.06344  0.8908  0.01747  -0.009618  0.01879  0.02888  0.5789  0.6969
6.409e+09  0.3547  0.8189  0.02448  0.01279  -0.01434  -0.01592  0.7962  0.4424
6.41e+09  0.6187  0.6124  0.01474  0.03914  -0.05009  0.02266  0.9145  0.1656
6.411e+09  0.7612  0.3897  0.004052  0.006591  0.022  -0.03767  0.9037  -0.1399
6.412e+09  0.8829  0.06076  -0.02627  0.006245  -0.04937  0.03777  0.829  -0.4186
6.414e+09  0.8241  -0.2258  0.02747  -0.02387  0.004977  0.02108  0.6193  -0.6283
6.415e+09  0.6856  -0.4994  -0.05806  0.02107  0.005667  0.01777  0.349  -0.8285
6.416e+09  0.4301  -0.7057  -0.02046  -0.02976  0.001417  -0.01648  0.01074  -0.8763
6.418e+09  0.2424  -0.8377  0.0202  -0.006456  0.01711  -0.003314  -0.2741  -0.8164
6.419e+09  -0.1124  -0.8786  -0.004101  0.01469  -0.03362  0.01325  -0.5363  -0.6954
6.42e+09  -0.3875  -0.8403  4.633e-05  0.009496  0.03074  0.02373  -0.7479  -0.4621
6.421e+09  -0.6156  -0.5848  -0.03217  -0.02372  -0.007479  0.06158  -0.8828  -0.225
6.422e+09  -0.8173  -0.3291  0.03481  0.004246  0.04  0.01159  -0.8911  0.1482
6.424e+09  -0.9059  0.01403  0.005522  0.03526  -0.003562  -0.002903  -0.7481  0.3723
6.425e+09  -0.7688  0.2282  -0.03237  0.03293  -0.01393  -0.05689  -0.594  0.6415
6.426e+09  -0.7071  0.5105  0.02669  -0.02624  -0.01459  -0.003107  -0.3396  0.7692
6.428e+09  -0.4477  0.7209  -0.02057  0.01373  0.007247  -0.01427  -0.06951  0.8739
6.429e+09  -0.2525  0.8963  -0.0351  -0.01965  -0.02134  -0.03601  0.2278  0.8091
6.43e+09  0.1604  0.903  -0.01533  -0.009654  0.01076  -0.008377  0.5105  0.7421
6.431e+09  0.3554  0.802  -0.001364  0.0173  0.05179  0.02634  0.7271  0.4667
6.432e+09  0.6691  0.6151  0.03756  -0.01572  0.08558  -0.004149  0.8447  0.201
6.434e+09  0.7829  0.3068  0.01007  -0.0255  0.004998  0.007302  0.8177  -0.1102
6.435e+09  0.9006  0.02613  0.03846  -0.04708  -0.04117  -0.01794  0.7819  -0.373
6.436e+09  0.8525  -0.2494  0.0362  -0.04174  -0.008305  -0.03241  0.6053  -0.6645
6.438e+09  0.7094  -0.5494  -0.01147  0.007128  -0.03186  0.03729  0.3522  -0.7547
6.439e+09  0.4264  -0.7227  0.008301  0.0001606  -0.05423  -0.01665  0.07809  -0.8311
6.44e+09  0.167  -0.834  -0.04461  0.03698  -0.02097  -0.04942  -0.2566  -0.7953
6.441e+09  -0.1486  -0.9424  0.03935  -0.01374  0.03495  0.02446  -0.5097  -0.6663
6.442e+09  -0.3984  -0.7609  0.02912  -0.02833  0.04941  -0.01043  -0.7095  -0.5015
6.444e+09  -0.6464  -0.5621  -0.0006746  0.01769  -0.01505  0.03564  -0.8068  -0.2652
6.445e+09  -0.8  -0.2933  0.007902  0.02032  -0.04132  -0.004396  -0.8288  0.06693
6.446e+09  -0.891  -0.06207  0.0106  -0.0111  -0.01513  -0.009558  -0.7295  0.4105
6.448e+09  -0.7821  0.3183  0.05884  -0.03884  -0.02889  0.01374  -0.606  0.6161
6.449e+09  -0.6775  0.5479  -0.003777  0.007269  -0.06931  -0.01252  -0.3028  0.7273
6.45e+09  -0.453  0.7336  0.0166  0.04412  -0.01243  -0.0001919  -0.05777  0.8297
6.451e+09  -0.1859  0.8809  -0.01793  -0.004568  0.0354  -0.04843  0.2098  0.7403
6.452e+09  0.1567  0.9014  0.01748  -0.006029  0.01446  0.06313  0.4836  0.6738
6.454e+09  0.4417  0.7735  0.0216  -0.003667  0.01287  -0.0246  0.6852  0.4717
6.455e+09  0.6782  0.5582  0.02639  0.007704  0.01661  0.04404  0.7877  0.2074
6.456e+09  0.8255  0.3137  0.006186  0.01503  -0.01194  -0.07895  0.8214  -0.1008
6.458e+09  0.9054  -0.009226  -0.01963  -0.002036  0.07445  -0.02764  0.7234  -0.3302
6.459e+09  0.8503  -0.3293  0.009059  0.008597  -0.005143  0.05778  0.5671  -0.6056
6.46e+09  0.6944  -0.5247  0.001493  -0.04242  0.008849  0.01113  0.2926  -0.7408
6.461e+09  0.436  -0.7948  -0.01446  0.004488  0.006863  -0.009558  0.04958  -0.81
6.462e+09  0.1227  -0.8691  -0.0009445  -0.0193  0.00989  -0.02305  -0.2101  -0.7592
6.464e+09  -0.1713  -0.9302  -0.03431  0.008513  0.05939  0.003649  -0.4577  -0.6454
6.465e+09  -0.4377  -0.7812  -0.02833  -0.07807  0.001828  0.02546  -0.6522  -0.4207
6.466e+09  -0.7098  -0.5822  0.009608  -0.03486  -0.01775  -0.04214  -0.8172  -0.1675
6.468e+09  -0.8436  -0.3704  -0.03875  -0.008161  -0.08434  -0.07272  -0.7868  8.539e-05
6.469e+09  -0.9352  -0.003585  0.02215  0.01092  0.02474  -0.007125  -0.7404  0.3331
6.47e+09  -0.8636  0.3047  0.01272  0.00219  0.04564  0.01188  -0.5409  0.5588
6.471e+09  -0.6723  0.573  -0.001507  0.01819  -0.00326  0.01956  -0.3911  0.6822
6.472e+09  -0.4793  0.7996  0.02292  0.01906  -0.007315  -0.03063  -0.02191  0.7612
6.474e+09  -0.1904  0.862  0.0151  -0.002069  -0.006071  0.06371  0.2046  0.7729
6.475e+09  0.1606  0.9272  -0.0207  -0.01594  0.005162  0.000948  0.4456  0.6239
6.476e+09  0.4845  0.7437  0.02207  0.04731  0.009732  -0.008962  0.6938  0.4365
6.478e+09  0.707  0.6055  0.00994  -0.002712  0.01403  -0.01657  0.757  0.1651
6.479e+09  0.8442  0.3537  -0.0007608  -0.02053  0.02778  0.01992  0.7658  -0.04532
6.48e+09  0.8987  0.008526  -0.01179  -0.01369  0.002497  -0.006516  0.7127  -0.3401
6.481e+09  0.8321  -0.3376  0.01652  0.01158  0.004544  -0.007954  0.5474  -0.5463
6.482e+09  0.7325  -0.6317  0.009468  0.05116  -0.0193  0.0429  0.3117  -0.7344
6.484e+09  0.4718  -0.8138  -0.008286  -0.01278  0.0141  -0.03233  0.06957  -0.8235
6.485e+09  0.1351  -0.874  0.02921  -0.03739  0.0001346  0.01955  -0.1779  -0.7521
6.486e+09  -0.1719  -0.9147  0.03804  0.01971  -0.002651  -0.02888  -0.4283  -0.6043
6.488e+09  -0.4368  -0.7554  0.01413  -0.001045  -0.006196  0.04556  -0.6553  -0.4274
6.489e+09  -0.684  -0.5994  -0.0386  -0.003826  -0.02077  0.00399  -0.7571  -0.1892
6.49e+09  -0.8355  -0.2921  0.02314  0.0205  0.0257  -0.02201  -0.7489  0.06867
6.491e+09  -0.9251  0.003052  -0.003097  0.02783  0.02882  -0.06589  -0.689  0.3391
6.492e+09  -0.8809  0.3702  0.008599  0.008216  -0.002523  -0.003763  -0.519  0.526
6.494e+09  -0.6684  0.6236  0.01618  0.04226  0.004233  -0.01249  -0.3067  0.6917
6.495e+09  -0.4412  0.845  0.01497  0.00765  -0.02023  0.005896  -0.05052  0.7516
6.496e+09  -0.1493  0.9001  0.01869  -0.04988  0.01839  -0.007206  0.1733  0.7475
6.498e+09  0.1762  0.8852  -0.02283  -0.00958  -0.002458  0.01663  0.4605  0.573
6.499e+09  0.4882  0.8004  0.002851  -0.01529  -0.02124  -0.003864  0.6486  0.4487
6.5e+09  0.7054  0.5935  0.00234  -0.02356  0.01476  -0.05127  0.7782  0.1609
6.501e+09  0.918  0.2248  0.01669  0.00832  -0.002413  -0.0228  0.7489  -0.1286
6.502e+09  0.9898  -0.03087  -0.02553  0.02409  -0.02845  0.01482  0.6583  -0.3634
6.504e+09  0.8905  -0.3631  0.003949  -0.006751  0.03294  -0.00408  0.4519  -0.5802
6.505e+09  0.7074  -0.646  0.02924  -0.04019  0.01632  -0.01692  0.2937  -0.6802
6.506e+09  0.3832  -0.8729  -0.04131  0.02767  -0.004814  0.0466  0.03752  -0.7776
6.508e+09  0.06453  -0.9234  -0.01798  -0.00208  -0.01059  -0.002603  -0.2636  -0.7158
6.509e+09  -0.2159  -0.9513  0.006455  -0.007025  -0.06977  -0.02329  -0.4843  -0.5757
6.51e+09  -0.5413  -0.7441  0.008385  -0.02963  -0.000159  0.01926  -0.6538  -0.3911
6.511e+09  -0.8273  -0.5904  -0.02446  0.008137  0.01457  0.04396  -0.7489  -0.1294
6.512e+09  -0.8918  -0.2258  0.0116  0.01863  -0.002452  -0.006363  -0.7499  0.1101
6.514e+09  -0.9771  0.08484  0.001906  0.0123  -0.004321  0.02213  -0.6762  0.3795
6.515e+09  -0.8517  0.4356  -0.01472  0.01812  -0.01569  -0.01237  -0.4864  0.5794
6.516e+09  -0.6159  0.6576  -0.04276  -0.04435  -0.04443  0.01699  -0.2518  0.712
6.518e+09  -0.3905  0.8409  -0.01231  0.03546  -0.004118  0.002119  0.001553  0.7181
6.519e+09  -0.09425  0.978  0.00257  0.00257  -0.03443  -0.001457  0.2399  0.6667
6.52e+09  0.2703  0.9151  -0.03146  -0.03438  0.01312  -0.05064  0.471  0.5238
6.521e+09  0.6286  0.7597  -0.0003637  -0.02374  0.0398  -0.01074  0.6359  0.3526
6.522e+09  0.8852  0.5184  -0.003939  -0.01185  0.01375  -0.03335  0.7144  0.04467
6.524e+09  0.9473  0.2064  0.01594  0.006691  0.00377  -0.004069  0.6997  -0.1448
6.525e+09  0.9526  -0.09876  0.01188  0.02204  -0.01942  0.02939  0.6028  -0.3989
6.526e+09  0.8446  -0.4565  -0.0005485  -0.02369  -0.009486  0.0004878  0.4174  -0.57
6.528e+09  0.5956  -0.7925  0.003291  0.05509  0.003518  0.006876  0.2294  -0.6466
6.529e+09  0.3386  -0.9299  0.0149  -0.01175  0.012  0.03188  -0.06238  -0.6845
6.53e+09  0.008561  -0.9415  0.007167  -0.01982  -0.03837  -0.01681  -0.2675  -0.6181
6.531e+09  -0.3506  -0.9176  -0.01213  0.051  0.001271  -0.02343  -0.4753  -0.4861
6.532e+09  -0.6916  -0.7153  0.02802  0.02741  -0.03443  -0.01263  -0.5818  -0.2912
6.534e+09  -0.8315  -0.4662  0.0458  0.009485  -0.004866  -0.01331  -0.6316  -0.04739
6.535e+09  -1.013  -0.1372  0.001199  -0.02116  0.02666  -0.01516  -0.6231  0.1079
6.536e+09  -0.9712  0.1363  0.002375  -0.03692  0.007143  -0.08203  -0.5605  0.2743
6.538e+09  -0.7514  0.5495  -0.003536  0.01915  0.01464  0.03612  -0.4135  0.4378
6.539e+09  -0.5767  0.7494  0.01709  0.02179  -0.02654  0.04382  -0.2718  0.6388
6.54e+09  -0.2426  0.8986  -0.006937  0.01303  0.067  0.0004158  -0.04659  0.7126
6.541e+09  0.08831  0.9538  0.01756  0.03971  0.02758  -0.0335  0.1596  0.6514
6.542e+09  0.4113  0.8551  0.02129  -0.01862  6.431e-05  -0.05595  0.3831  0.5701
6.544e+09  0.7168  0.6608  -0.01313  0.01138  -0.03924  0.03511  0.5987  0.4014
6.545e+09  0.8647  0.4165  0.0205  -0.06  0.04056  0.03468  0.7351  0.1394
6.546e+09  0.9909  0.09594  0.001199  -0.004156  0.03117  0.06791  0.7061  -0.07944
6.548e+09  0.9035  -0.2888  0.001189  -0.02869  0.0369  -0.02497  0.6384  -0.3043
6.549e+09  0.7813  -0.6041  -0.02452  -0.01669  0.00545  0.01493  0.4963  -0.5412
6.55e+09  0.5827  -0.8038  -0.00411  -0.001803  0.06232  0.01626  0.303  -0.6991
6.551e+09  0.2563  -0.8944  0.02975  -0.01351  0.03171  0.01029  0.005451  -0.7448
