# Hz S RI R 50
6.25e+09  -0.612  0.5226  0.001971  -0.002335  0.0008304  0.007842  0.1421  0.4868
6.251e+09  -0.4358  0.7859  0.01092  0.006545  0.04215  0.03825  0.3838  0.4225
6.252e+09  -0.1202  0.8709  -0.00269  -0.002466  -0.0345  -0.02555  0.5192  0.242
6.254e+09  0.1608  0.8023  -0.0128  -0.01264  0.02592  0.041  0.5878  0.03078
6.255e+09  0.3949  0.7013  -0.03057  0.002449  -0.0109  0.02676  0.5885  -0.2556
6.256e+09  0.7164  0.5299  -0.02616  0.01466  0.04771  0.008262  0.5086  -0.4233
6.258e+09  0.7744  0.2482  -0.01992  -0.01298  -0.05125  0.04069  0.2555  -0.6143
6.259e+09  0.8312  -0.02197  0.03197  0.01704  0.0789  0.08245  0.03879  -0.6472
6.26e+09  0.7563  -0.3491  0.0003485  0.009423  0.01642  0.004188  -0.2029  -0.6754
6.261e+09  0.6049  -0.5822  -0.005008  0.003217  -0.01576  -0.007065  -0.4493  -0.5633
6.262e+09  0.3752  -0.7169  0.02366  0.01081  0.01269  -0.09218  -0.6215  -0.3646
6.264e+09  0.09356  -0.8547  0.01956  0.02804  0.006518  -0.03732  -0.7105  -0.1122
6.265e+09  -0.1353  -0.7504  -0.01743  0.009808  -0.02625  0.04253  -0.7062  0.175
6.266e+09  -0.476  -0.6775  0.04349  0.002404  0.03934  0.003987  -0.637  0.4047
6.268e+09  -0.689  -0.5711  -0.01342  0.02384  -0.06512  -0.02411  -0.4048  0.5828
6.269e+09  -0.8381  -0.2143  -0.0008376  0.02653  0.04121  0.0121  -0.2281  0.7241
6.27e+09  -0.8323  0.09591  -0.000871  0.00657  -0.0004886  -0.009386  0.007443  0.7721
6.271e+09  -0.7509  0.2873  -0.01694  0.02363  0.03449  0.02376  0.3313  0.6338
6.272e+09  -0.5485  0.5892  -0.01043  -0.02321  -0.02151  -0.005751  0.5637  0.5418
6.274e+09  -0.344  0.7205  0.01196  -0.0008466  -0.009968  -0.02579  0.6724  0.2867
6.275e+09  -0.1088  0.8538  0.02532  -0.02244  -0.04345  -0.01369  0.7404  0.0817
6.276e+09  0.1763  0.8583  0.009438  0.01424  0.009596  -0.01225  0.7463  -0.2348
6.278e+09  0.4586  0.6684  -0.004343  -0.03053  -0.03595  -0.03503  0.6451  -0.455
6.279e+09  0.6092  0.48  -0.006096  0.03358  -0.02319  -0.0313  0.4081  -0.6425
6.28e+09  0.8112  0.2431  0.007825  -0.03101  -0.05342  0.03542  0.1524  -0.7714
6.281e+09  0.8254  -0.03109  -0.005639  0.03045  -0.01474  -0.004826  -0.1054  -0.7804
6.282e+09  0.811  -0.3767  0.01255  -0.0008604  0.05144  -0.02273  -0.3804  -0.7037
6.284e+09  0.5719  -0.581  -0.001317  0.04135  0.003964  -0.03209  -0.5943  -0.5112
6.285e+09  0.3584  -0.7654  0.003053  -0.00922  -0.003491  0.0003131  -0.7221  -0.2822
6.286e+09  0.07899  -0.7587  0.03037  -0.008665  0.008789  0.04765  -0.8124  -0.008917
6.288e+09  -0.1984  -0.7991  0.01092  0.002683  0.04499  -0.02573  -0.7527  0.2275
6.289e+09  -0.4725  -0.6451  -0.004684  0.001446  -0.004004  0.0007768  -0.631  0.5241
6.29e+09  -0.6826  -0.4478  -0.02201  0.02138  -0.005139  -0.03145  -0.4295  0.6737
6.291e+09  -0.841  -0.2008  0.01742  0.004501  0.009852  0.00991  -0.1628  0.7488
6.292e+09  -0.8726  0.1346  -0.01098  -0.004687  0.02251  -0.01549  0.1327  0.7957
6.294e+09  -0.7853  0.3267  -0.007891  0.02994  -0.08603  0.005614  0.3606  0.7021
6.295e+09  -0.563  0.598  0.02228  -0.02836  0.01332  -0.01083  0.6118  0.544
6.296e+09  -0.3605  0.731  -0.001688  0.001442  0.02206  -0.05031  0.7698  0.2696
6.298e+09  -0.08775  0.8616  0.008525  -0.0003005  0.003097  -0.07069  0.8193  0.002656
6.299e+09  0.2847  0.7445  0.02633  0.02003  0.02322  -0.01967  0.794  -0.2765
6.3e+09  0.4673  0.6677  0.00206  0.01056  0.03031  0.00879  0.6447  -0.499
6.301e+09  0.6918  0.4615  0.02837  0.003871  -0.0279  0.02588  0.4293  -0.7258
6.302e+09  0.76  0.1952  0.008631  -0.01654  0.006394  -0.003529  0.1481  -0.8315
6.304e+09  0.8061  -0.08416  0.02076  -0.009563  0.01775  -0.03265  -0.1091  -0.8083
6.305e+09  0.6816  -0.4015  -0.004725  0.004322  -0.006901  -0.005247  -0.3924  -0.736
6.306e+09  0.578  -0.6016  0.01201  0.02014  0.00442  -0.02664  -0.6511  -0.5555
6.308e+09  0.2864  -0.7982  0.01317  -0.01572  -0.02406  0.01035  -0.7837  -0.3365
6.309e+09  0.03988  -0.8413  -0.003342  0.002494  0.0356  -0.002608  -0.8341  -0.0005357
6.31e+09  -0.2414  -0.7849  0.01621  0.004845  0.06519  -0.0217  -0.8207  0.2838
6.311e+09  -0.5054  -0.6868  0.0006243  0.01819  -0.01498  -0.004178  -0.687  0.5529
6.312e+09  -0.6918  -0.4447  0.004755  0.004055  -0.02848  -0.02142  -0.4408  0.7543
6.314e+09  -0.802  -0.1409  0.006786  0.0418  -0.03396  -0.06387  -0.1542  0.8745
6.315e+09  -0.7977  0.1283  -0.03474  0.04352  0.04287  -0.005848  0.1527  0.8608
6.316e+09  -0.7365  0.4055  0.007451  0.004202  0.001495  0.05358  0.4408  0.7669
6.318e+09  -0.5144  0.6721  -0.02228  0.005843  -0.0549  0.01658  0.6855  0.6038
6.319e+09  -0.3151  0.8301  -0.02378  0.02344  0.02272  0.0418  0.853  0.3083
6.32e+09  0.07086  0.8755  -0.01648  -0.00353  -0.01565  0.024  0.8944  0.004001
6.321e+09  0.2786  0.7496  0.02255  0.01021  -0.01929  0.01404  0.8049  -0.2829
6.322e+09  0.5504  0.646  -0.002778  0.03305  -0.02124  0.01012  0.711  -0.5591
6.324e+09  0.7354  0.4048  0.02559  0.03124  0.03018  0.0001342  0.4871  -0.7801
6.325e+09  0.8437  0.1174  0.00458  0.02432  -0.07341  -0.003115  0.1991  -0.8887
6.326e+09  0.8441  -0.1582  -0.01136  -0.006562  0.02154  -0.02774  -0.1124  -0.897
6.328e+09  0.7106  -0.4454  0.006757  0.019  0.03741  -0.01704  -0.4104  -0.7791
6.329e+09  0.4874  -0.6853  0.003041  -0.02284  0.01721  0.01684  -0.6947  -0.5939
6.33e+09  0.2156  -0.7829  -0.01628  -0.001141  0.005804  -0.02445  -0.8461  -0.3431
6.331e+09  -0.081  -0.8358  0.01901  -0.02677  -0.04081  0.03832  -0.8997  -0.01704
6.332e+09  -0.3773  -0.7485  -0.001177  0.02501  0.007884  -0.02971  -0.8528  0.3169
6.334e+09  -0.5299  -0.6289  0.01346  0.004411  -0.02213  0.008431  -0.7176  0.5671
6.335e+09  -0.7748  -0.3503  0.001241  0.009472  0.02131  -0.03569  -0.4789  0.751
6.336e+09  -0.8204  -0.09193  -0.02616  0.04005  -0.01609  0.02523  -0.1729  0.8984
6.338e+09  -0.8472  0.2087  -0.04176  -0.01752  0.001196  -0.01642  0.08739  0.8919
6.339e+09  -0.7272  0.5108  0.02279  -0.005296  0.01473  0.005744  0.4075  0.8059
6.34e+09  -0.4808  0.751  -0.005722  -0.02512  0.01741  0.04314  0.658  0.6247
6.341e+09  -0.2204  0.8533  0.009089  0.001987  0.01922  0.02191  0.8578  0.3575
6.342e+09  0.1788  0.8551  -0.01488  0.0375  -0.008261  -0.01289  0.9119  0.02945
6.344e+09  0.3849  0.7774  -0.008363  -0.008745  0.01751  0.006837  0.8879  -0.2491
6.345e+09  0.6394  0.6184  0.0006352  0.0218  -0.01027  -0.02067  0.7698  -0.5446
6.346e+09  0.8488  0.374  -0.01308  0.01078  0.02364  -0.007583  0.518  -0.7565
6.348e+09  0.82  0.02569  -0.01006  -0.002831  0.07536  -0.008723  0.2119  -0.8936
6.349e+09  0.8583  -0.2825  0.01047  0.0001824  -0.002087  -0.0001794  -0.1062  -0.9338
6.35e+09  0.6523  -0.5441  -0.007719  -0.008277  0.007425  -0.01215  -0.3839  -0.8626
6.351e+09  0.4372  -0.77  -0.004896  -0.01068  0.03255  -0.00603  -0.6712  -0.6688
6.352e+09  0.1256  -0.8804  0.02441  0.03035  -0.01039  0.0184  -0.8461  -0.3643
6.354e+09  -0.1874  -0.9047  0.01125  -0.005713  -0.02143  -0.01702  -0.9384  -0.06427
6.355e+09  -0.4707  -0.7482  -0.02782  -0.005566  -0.005442  0.01799  -0.9075  0.2625
6.356e+09  -0.6678  -0.4949  -0.006963  0.01108  0.005961  0.005373  -0.7281  0.5579
6.358e+09  -0.8505  -0.2551  0.01537  0.04774  0.009258  -0.01067  -0.5498  0.7891
6.359e+09  -0.8565  0.01991  0.009345  -0.0004234  0.05972  0.01761  -0.2619  0.9226
6.36e+09  -0.8615  0.3635  0.01156  0.03014  0.01668  0.01357  0.1096  0.9321
6.361e+09  -0.5971  0.6147  0.01979  0.005591  0.01643  0.003665  0.399  0.8258
6.362e+09  -0.3817  0.762  0.006046  -0.03089  -0.008244  -0.0477  0.6377  0.6553
6.364e+09  -0.08492  0.9157  -0.01293  0.01378  0.01473  0.008665  0.8262  0.4378
6.365e+09  0.1961  0.8464  0.02431  0.004269  0.02994  0.01742  0.9718  0.0598
6.366e+09  0.5243  0.7325  0.04278  0.00429  0.01116  -0.03909  0.8807  -0.2254
6.368e+09  0.7416  0.4816  0.01257  -0.01008  -0.001985  -0.002908  0.7614  -0.5468
6.369e+09  0.863  0.1629  -0.002883  -0.006499  -0.03269  0.01299  0.5732  -0.765
6.37e+09  0.8733  -0.09709  0.003406  -0.03262  0.004788  -0.008904  0.2742  -0.8992
6.371e+09  0.7712  -0.4253  -0.004355  -0.001361  0.01043  0.01207  -0.09567  -0.9445
6.372e+09  0.6128  -0.6664  0.002306  -0.006234  0.01149  0.007007  -0.4019  -0.8762
6.374e+09  0.3283  -0.8261  0.008784  -0.002431  -0.02996  -0.04945  -0.6526  -0.6914
6.375e+09  0.008032  -0.8906  -0.02468  -0.0111  0.01993  -0.00798  -0.8558  -0.3956
6.376e+09  -0.2663  -0.8272  -0.01466  0.01222  0.00286  -0.01497  -0.9721  -0.06933
6.378e+09  -0.5784  -0.6698  0.005623  -0.01522  0.01607  0.011  -0.8844  0.2168
6.379e+09  -0.7486  -0.4675  0.007539  0.009868  0.009991  -0.02137  -0.7798  0.5019
6.38e+09  -0.8935  -0.1671  0.01137  -0.01581  0.002024  0.03563  -0.5483  0.7796
6.381e+09  -0.8571  0.1521  0.01231  -0.02218  -0.01653  -0.02145  -0.2824  0.9374
6.382e+09  -0.7469  0.4003  0.009971  -0.004472  0.007138  -0.009395  0.0671  0.9082
6.384e+09  -0.5922  0.6932  0.01647  0.02258  0.02385  -0.002416  0.3619  0.8581
6.385e+09  -0.251  0.8567  -0.007568  0.002501  -0.03212  -0.00755  0.6628  0.7383
6.386e+09  -0.008162  0.8976  -0.009982  0.03666  0.01157  0.007053  0.8531  0.4311
6.388e+09  0.315  0.8543  -0.002701  -0.02768  0.003665  0.000239  0.9438  0.1404
6.389e+09  0.5648  0.6501  0.002197  -0.003021  0.0003388  -0.01017  0.8899  -0.1967
6.39e+09  0.8153  0.3865  0.004968  0.01159  0.02354  0.004497  0.7707  -0.4826
6.391e+09  0.8726  0.1702  -0.0366  0.01371  -0.0151  -0.02105  0.5624  -0.6943
6.392e+09  0.8854  -0.2033  0.01538  0.007281  -0.03674  0.03633  0.2366  -0.8414
6.394e+09  0.7346  -0.4562  0.02174  -0.01579  -0.03868  -0.03812  -0.003263  -0.9476
6.395e+09  0.5216  -0.7218  0.002114  -0.02249  -0.06017  0.04139  -0.3042  -0.8247
6.396e+09  0.3073  -0.8994  -0.009791  -0.03238  -0.00347  0.01905  -0.6107  -0.6558
6.398e+09  -0.1141  -0.8892  0.002539  -0.02635  -0.01223  0.01749  -0.8019  -0.4441
6.399e+09  -0.3391  -0.8369  -0.02643  -0.006457  0.01494  0.01875  -0.9211  -0.1457
6.4e+09  -0.6559  -0.5923  -0.004426  -0.04423  0.03269  -0.07184  -0.8767  0.1722
6.401e+09  -0.7508  -0.315  -0.02612  0.01736  0.02311  0.01662  -0.8069  0.4591
6.402e+09  -0.8638  -0.09146  -0.01218  -0.01815  0.007643  -0.009816  -0.5625  0.6765
6.404e+09  -0.8222  0.1972  0.01726  0.006283  0.02007  0.02599  -0.2991  0.8827
6.405e+09  -0.7651  0.523  -0.05083  0.007902  -0.01708  -0.01905  -0.05318  0.9373
6.406e+09  -0.4925  0.6955  -0.008282  0.003759  -2.076e-05  -0.01014  0.3035  0.8907
6.408e+09  -0.198  0.8219  0.01069  0.003755  0.00228  0.04273  0.5678  0.6663
6.409e+09  0.1091  0.8788  -0.02155  -0.01111  0.04957  0.006405  0.7973  0.445
6.41e+09  0.3917  0.8042  0.0007413  0.01219  -0.0218  -0.02242  0.8825  0.1986
6.411e+09  0.6412  0.5999  0.0008221  -0.004392  -0.04285  -0.04693  0.8834  -0.09862
6.412e+09  0.8077  0.341  -0.0195  -0.005473  0.04092  0.02306  0.7975  -0.3872
6.414e+09  0.8807  0.08395  0.001381  -0.02848  0.03261  -0.006937  0.5855  -0.7168
6.415e+09  0.8299  -0.2645  -0.02574  -0.04146  -0.0133  0.02223  0.314  -0.8462
6.416e+09  0.725  -0.5126  -0.01608  0.002  -0.04536  -0.03498  -0.001769  -0.8683
6.418e+09  0.4734  -0.7312  0.01048  0.0105  0.03232  0.005073  -0.2514  -0.8417
6.419e+09  0.2143  -0.874  -0.03597  -0.04351  -0.03373  -0.0009102  -0.5432  -0.7153
6.42e+09  -0.1281  -0.8399  -0.01733  -0.01084  0.000553  0.04072  -0.7513  -0.5071
6.421e+09  -0.3716  -0.769  -0.01036  0.006768  0.03485  0.01596  -0.8647  -0.1886
6.422e+09  -0.6535  -0.5813  -0.008556  -0.01355  0.008918  0.01086  -0.8746  0.09437
6.424e+09  -0.8091  -0.2988  -0.0159  -0.004016  -0.02352  -0.02455  -0.798  0.4382
6.425e+09  -0.8808  -0.03386  0.009379  -0.02071  -0.009155  -0.0418  -0.67  0.6364
6.426e+09  -0.8342  0.2864  0.02227  -0.005717  0.01971  -0.0351  -0.3729  0.7918
6.428e+09  -0.6923  0.5832  -0.02563  0.02974  -0.0508  -0.07415  -0.04157  0.8874
6.429e+09  -0.5045  0.7499  0.008631  -0.02793  0.02409  -0.03417  0.255  0.8792
6.43e+09  -0.1828  0.8767  0.0042  0.01499  0.02006  -0.0102  0.4901  0.6889
6.431e+09  0.102  0.8897  -0.01113  -0.01401  -0.01391  -0.01004  0.7465  0.5334
6.432e+09  0.4387  0.7718  0.003693  0.02038  0.05062  -0.05383  0.85  0.1952
6.434e+09  0.644  0.5429  0.05313  -0.002372  -0.04459  0.01728  0.8957  -0.07277
6.435e+09  0.8016  0.2646  -0.0177  0.04209  0.01062  0.01763  0.7778  -0.3928
6.436e+09  0.8966  -0.03629  -0.02068  -0.01759  0.03822  -0.005886  0.5618  -0.6165
6.438e+09  0.8593  -0.2879  0.02245  -0.007096  -0.01444  0.001107  0.3762  -0.739
6.439e+09  0.7035  -0.5621  0.006743  0.007729  -0.01392  0.002548  0.04558  -0.83
6.44e+09  0.3947  -0.7289  0.01193  -0.03304  0.01031  -0.0236  -0.2428  -0.8535
6.441e+09  0.1299  -0.8087  -0.01614  0.004699  0.02965  0.02446  -0.4583  -0.6952
6.442e+09  -0.208  -0.8513  -0.04333  -0.004899  -0.02484  0.002311  -0.6559  -0.4726
6.444e+09  -0.4537  -0.7431  -0.006621  -0.008808  -0.03035  0.01224  -0.8394  -0.2486
6.445e+09  -0.6484  -0.5632  0.03486  -0.001459  -0.008636  0.007305  -0.8637  0.09635
6.446e+09  -0.8807  -0.2727  0.04087  -0.008262  -0.04269  -0.03316  -0.7884  0.376
6.448e+09  -0.9201  0.008018  -0.03209  -0.03249  -8.548e-05  -0.05832  -0.6028  0.5755
6.449e+09  -0.7965  0.3025  -0.002909  -0.02506  0.05432  -0.005986  -0.3482  0.7758
6.45e+09  -0.6945  0.5572  0.01015  0.01905  0.02035  0.02482  -0.07565  0.8654
6.451e+09  -0.4312  0.7525  0.003828  -0.03853  0.008488  0.005454  0.2387  0.7766
6.452e+09  -0.1462  0.8612  -0.03363  0.01564  0.01115  -0.01014  0.4691  0.6514
6.454e+09  0.1319  0.8166  -0.02308  -0.005024  0.02312  0.00634  0.6988  0.4914
6.455e+09  0.474  0.7726  -0.02163  -0.03677  -0.01627  -0.04512  0.8064  0.242
6.456e+09  0.6486  0.4684  -0.003712  -0.005684  -0.000403  -0.004747  0.8474  -0.03764
6.458e+09  0.7763  0.3206  0.02517  0.02023  -0.03944  -0.04557  0.7352  -0.2863
6.459e+09  0.8516  -0.03472  0.01229  -0.06081  0.001644  0.005758  0.5538  -0.5958
6.46e+09  0.8776  -0.2655  0.005464  0.01037  0.009884  0.022  0.3575  -0.7168
6.461e+09  0.6619  -0.5845  -0.006377  -0.02234  0.02034  -0.03493  0.01837  -0.8193
6.462e+09  0.4297  -0.7661  0.02256  -0.01292  -0.03881  0.02169  -0.1896  -0.7883
6.464e+09  0.1151  -0.8699  0.02617  0.01066  -0.0008265  0.02712  -0.4537  -0.6398
6.465e+09  -0.1679  -0.8782  0.000246  -0.002942  0.03947  0.04221  -0.6858  -0.4491
6.466e+09  -0.491  -0.7694  0.03766  0.01523  -0.002588  -0.03163  -0.7653  -0.2047
6.468e+09  -0.6829  -0.5481  0.01818  0.0199  -0.02186  -0.04753  -0.7959  0.09344
6.469e+09  -0.857  -0.2658  0.005071  -0.02382  -0.009523  -0.005872  -0.7382  0.3413
6.47e+09  -0.8596  -0.009051  -0.0008023  -0.0214  -0.01204  -0.05369  -0.5692  0.5722
6.471e+09  -0.8631  0.3071  -0.03408  -0.01054  0.004907  -0.00624  -0.3588  0.7485
6.472e+09  -0.6499  0.5522  -0.007908  -0.02957  0.0198  0.02882  -0.02664  0.8049
6.474e+09  -0.4719  0.7913  -0.003774  -0.002484  -0.01953  -0.05148  0.2493  0.7514
6.475e+09  -0.174  0.8768  -0.01254  0.06071  0.01446  0.0232  0.5105  0.6417
6.476e+09  0.2174  0.8796  0.01442  -0.05329  -0.03892  0.003556  0.612  0.4939
6.478e+09  0.4909  0.7872  0.002594  0.0007332  -0.01175  -0.0334  0.745  0.185
6.479e+09  0.7041  0.5436  0.01001  -0.002087  0.02095  0.03053  0.829  -0.0564
6.48e+09  0.8319  0.2154  0.008089  0.006149  0.02232  -0.004377  0.6987  -0.3268
6.481e+09  0.9115  -0.0801  -0.002791  -0.02723  0.003805  0.006494  0.5577  -0.5439
6.482e+09  0.8231  -0.3031  0.02837  -0.005134  0.01143  0.006136  0.2978  -0.7202
6.484e+09  0.6503  -0.5943  0.002586  -0.02685  -0.03335  0.01913  0.04316  -0.7657
6.485e+09  0.421  -0.7893  -0.0009291  0.01616  0.0007029  -0.03768  -0.2258  -0.7283
6.486e+09  0.1218  -0.8826  -0.001713  0.02159  -0.01415  -0.02034  -0.4634  -0.6562
6.488e+09  -0.1977  -0.8502  -0.02084  -0.01577  -0.01218  -0.01339  -0.6384  -0.3703
6.489e+09  -0.4855  -0.7081  0.0272  0.02145  -0.01877  0.01013  -0.7577  -0.1833
6.49e+09  -0.7482  -0.528  0.01302  0.05158  -0.01746  0.009576  -0.7954  0.0702
6.491e+09  -0.8331  -0.2236  -0.02712  -0.02667  -0.03433  -0.0156  -0.6849  0.3283
6.492e+09  -0.8909  0.06919  -0.004394  -0.001717  -0.01022  0.02454  -0.5165  0.5916
6.494e+09  -0.9066  0.3502  0.01153  0.01735  -0.01975  -0.008508  -0.2837  0.6925
6.495e+09  -0.706  0.634  -0.03685  0.006925  -0.004126  -0.02056  -0.06128  0.7425
6.496e+09  -0.4322  0.7983  -0.001428  -0.0237  0.03288  0.0563  0.2139  0.743
6.498e+09  -0.09735  0.9131  0.0427  -0.02881  -0.04448  0.0245  0.4545  0.6081
6.499e+09  0.2404  0.8703  0.01221  -0.02539  0.004733  -0.004764  0.6459  0.3946
6.5e+09  0.498  0.7152  -0.001722  -0.001747  0.02554  0.01262  0.7613  0.1553
6.501e+09  0.7647  0.544  -0.007431  -0.003337  0.06391  0.02396  0.7705  -0.07716
6.502e+09  0.8467  0.2233  -0.01776  0.04031  0.01997  -0.06055  0.6383  -0.3463
6.504e+09  0.9034  -0.08426  -0.02713  -0.01022  0.0003909  0.01743  0.5052  -0.5699
6.505e+09  0.8286  -0.3794  0.02369  -0.03672  -0.03887  -0.02191  0.2914  -0.6755
6.506e+09  0.6713  -0.6565  -0.01741  -0.01043  0.007304  0.01496  0.005215  -0.7303
6.508e+09  0.402  -0.7994  -0.004257  -0.004245  0.04842  0.01352  -0.2597  -0.765
6.509e+09  0.07853  -0.911  -0.001912  -0.005174  -0.01529  0.01932  -0.4927  -0.5865
6.51e+09  -0.2265  -0.8358  -0.01784  -0.003362  -0.00651  0.01866  -0.6587  -0.3994
6.511e+09  -0.5347  -0.7519  -0.0169  0.004458  -0.04254  0.008131  -0.7279  -0.1339
6.512e+09  -0.7749  -0.5156  0.01095  0.01553  0.008964  0.02277  -0.7503  0.105
6.514e+09  -0.9363  -0.2164  -0.01995  -0.003833  -0.002229  0.03401  -0.6608  0.3701
6.515e+09  -0.9765  0.06399  0.02944  -0.01286  0.007139  0.003717  -0.4905  0.5729
6.516e+09  -0.7941  0.4583  -0.01675  -0.001313  -0.02899  -0.01168  -0.2476  0.7175
6.518e+09  -0.6689  0.6687  0.007835  -0.006579  -0.01626  -0.01767  -0.003476  0.739
6.519e+09  -0.3816  0.855  0.03215  -0.03504  -0.01482  0.001791  0.2852  0.7003
6.52e+09  0.008871  0.9408  -0.01077  -0.01291  0.003917  0.02363  0.4781  0.5595
6.521e+09  0.2581  0.8424  -0.004006  0.01825  0.04702  -0.03784  0.6381  0.3347
6.522e+09  0.5746  0.797  -0.01268  -0.007956  0.007154  0.03428  0.7152  0.1259
6.524e+09  0.8406  0.5012  -0.01515  -0.02322  -0.0006656  -0.02124  0.7073  -0.184
6.525e+09  0.9384  0.1993  0.01183  -0.02443  0.01291  0.01957  0.5627  -0.4066
6.526e+09  0.9872  -0.1428  0.009235  0.0007205  0.02217  0.04635  0.4524  -0.554
6.528e+09  0.8753  -0.4228  0.007894  0.03568  -0.01928  -0.00925  0.2307  -0.7219
6.529e+09  0.6486  -0.6899  -0.03585  0.00262  -0.003339  0.01571  -0.06504  -0.7128
6.53e+09  0.3103  -0.9519  -0.02176  -0.01358  0.02736  -0.01594  -0.2765  -0.6075
6.531e+09  -0.01129  -0.9102  -0.01332  0.01915  0.02573  -0.04248  -0.472  -0.468
6.532e+09  -0.3491  -0.9113  0.02253  0.006918  -0.02356  -0.03898  -0.5781  -0.2794
6.534e+09  -0.6155  -0.7611  -0.004957  -0.01327  0.004083  0.03019  -0.5973  -0.09599
6.535e+09  -0.8862  -0.4686  -0.03666  -0.0257  0.0849  0.02521  -0.6305  0.1372
6.536e+09  -0.9456  -0.1917  0.03073  -0.01635  0.002333  -0.00696  -0.5786  0.3161
6.538e+09  -0.9142  0.2461  -0.0005111  0.01063  -0.01261  0.03923  -0.4542  0.4502
6.539e+09  -0.7714  0.5042  0.03434  -0.01929  0.001151  0.02414  -0.2721  0.5849
6.54e+09  -0.5858  0.7842  0.01734  0.01223  -0.03063  0.003316  -0.05827  0.6866
6.541e+09  -0.2598  0.9386  -0.02581  0.009908  -0.01309  0.03011  0.1603  0.6775
6.542e+09  0.0226  0.9416  -0.02798  0.007099  0.02543  0.003168  0.4007  0.5759
6.544e+09  0.3828  0.8743  -0.01954  -0.01999  -0.03888  -0.02124  0.6283  0.4099
6.545e+09  0.7182  0.6973  -0.01126  0.003312  0.002161  0.001556  0.6951  0.1381
6.546e+09  0.902  0.4131  0.02158  0.0008319  0.03012  0.02368  0.7391  -0.09567
6.548e+09  0.9369  0.08451  0.00764  0.009007  -0.0221  -0.02815  0.6557  -0.3141
6.549e+09  0.9314  -0.256  0.01778  0.006865  0.005854  -0.04607  0.5402  -0.5362
6.55e+09  0.7773  -0.5782  0.006468  0.01468  0.03942  -0.03201  0.2984  -0.6618
