# Hz S RI R 50
6.25e+09  -0.6518  0.5233  -0.01419  0.01861  -0.001957  0.0549  0.1565  0.4686
6.251e+09  -0.418  0.7071  -0.02343  -0.02673  0.05291  0.01277  0.4088  0.3634
6.252e+09  -0.1482  0.8492  0.03438  -0.009082  -0.01573  -0.001102  0.5242  0.2545
6.254e+09  0.2025  0.7981  -0.03725  0.01726  0.001641  0.023  0.6047  0.02961
6.255e+09  0.3986  0.7219  0.01998  0.002886  0.04076  0.01303  0.5713  -0.2607
6.256e+09  0.694  0.5352  0.009671  0.01845  0.04433  -0.0007914  0.4704  -0.4285
6.258e+09  0.8156  0.2791  0.03326  -0.007582  -0.01327  -0.002325  0.2978  -0.6139
6.259e+09  0.7888  -0.02218  0.03435  -0.01697  -0.009635  0.009232  0.04334  -0.6706
6.26e+09  0.7681  -0.2698  0.02896  0.02197  0.01257  0.05435  -0.2172  -0.66
6.261e+09  0.6821  -0.558  0.03425  0.01139  0.006679  0.04555  -0.4471  -0.5166
6.262e+09  0.4212  -0.6918  -0.001727  0.001205  0.04262  -0.03075  -0.619  -0.3585
6.264e+09  0.1079  -0.8304  -0.007548  -0.01791  0.00349  -0.007623  -0.7146  -0.1277
6.265e+09  -0.1502  -0.8149  -0.01364  -0.001948  -0.03814  -0.0302  -0.6896  0.1387
6.266e+09  -0.4407  -0.7271  0.01117  0.003075  -0.02033  -0.02669  -0.6085  0.4081
6.268e+09  -0.6732  -0.4986  -0.003793  0.01019  0.03172  -0.04253  -0.4331  0.6267
6.269e+09  -0.8708  -0.2602  0.0156  -0.004261  0.04851  0.0108  -0.2088  0.7196
6.27e+09  -0.8525  -0.00244  -0.003377  0.01981  0.07  0.04716  0.02965  0.7072
6.271e+09  -0.7876  0.2867  -0.02972  0.01113  -0.02996  -0.02245  0.3035  0.6571
6.272e+09  -0.6517  0.5503  0.01892  -0.004604  -0.03053  0.05321  0.5525  0.5521
6.274e+09  -0.4046  0.7181  0.002623  0.007035  0.01711  -0.01228  0.6823  0.2814
6.275e+09  -0.1  0.7842  -0.0168  0.03084  -0.007391  0.02144  0.7763  0.06352
6.276e+09  0.1754  0.7725  0.005593  0.01893  -0.02071  0.003839  0.7092  -0.2102
6.278e+09  0.405  0.6952  -0.0197  -0.01783  0.03568  -0.02166  0.584  -0.4546
6.279e+09  0.6619  0.4875  0.0005608  0.01952  0.0148  -0.03398  0.4153  -0.6589
6.28e+09  0.8559  0.2528  -0.04683  -0.002782  -0.01324  0.008845  0.1753  -0.733
6.281e+09  0.8286  -0.1058  -0.008553  -0.002758  -0.01157  0.08688  -0.1152  -0.8063
6.282e+09  0.7376  -0.2802  -0.01174  0.002565  0.04903  0.003412  -0.3773  -0.6961
6.284e+09  0.5651  -0.5969  0.007758  -0.003693  -0.0136  0.03941  -0.5899  -0.4904
6.285e+09  0.3852  -0.7615  0.003252  -0.003038  -0.02714  0.05571  -0.7505  -0.2917
6.286e+09  0.06444  -0.8634  0.03208  0.01125  -0.05787  -0.03525  -0.7995  -0.01226
6.288e+09  -0.1853  -0.7774  0.005001  0.02598  0.001384  -0.004391  -0.7506  0.2465
6.289e+09  -0.4572  -0.6715  0.02226  -0.001737  0.03175  -0.01709  -0.6241  0.5254
6.29e+09  -0.6751  -0.4779  -0.02793  -0.004545  0.01204  -0.02613  -0.4134  0.7073
6.291e+09  -0.8247  -0.2027  -0.006852  -0.001184  0.01969  -0.004133  -0.1565  0.8018
6.292e+09  -0.8338  0.1186  -0.02047  -0.01225  -0.02568  0.0239  0.1362  0.817
6.294e+09  -0.7313  0.3363  0.007354  -0.009196  -0.03677  0.04988  0.3963  0.7238
6.295e+09  -0.5877  0.5924  -0.01354  -0.02527  -0.01666  0.006709  0.6245  0.5359
6.296e+09  -0.3367  0.8051  -0.0127  0.001269  -0.02738  -0.053  0.7477  0.3055
6.298e+09  -0.08769  0.838  0.006517  0.01153  -0.01012  -0.01298  0.8208  0.01796
6.299e+09  0.1788  0.7925  0.02078  0.002101  -0.04022  0.02233  0.7754  -0.2755
6.3e+09  0.4763  0.6771  -0.002129  0.001895  -0.007301  -0.007028  0.6218  -0.5737
6.301e+09  0.6999  0.435  0.02789  -0.003088  0.00639  -0.03926  0.401  -0.7514
6.302e+09  0.7863  0.1972  0.02464  0.02157  0.007684  0.01552  0.1643  -0.8362
6.304e+09  0.8449  -0.09066  0.01894  -0.0005872  -0.05451  0.01309  -0.1315  -0.8426
6.305e+09  0.7087  -0.3579  0.00825  0.008746  0.04418  -0.003212  -0.4297  -0.7134
6.306e+09  0.5432  -0.6247  0.0005212  0.008328  -0.05709  -0.03008  -0.6397  -0.5201
6.308e+09  0.2962  -0.8172  -0.01767  0.001135  0.03303  0.002332  -0.7904  -0.2895
6.309e+09  0.07554  -0.8673  0.01036  0.00351  -0.02365  0.001125  -0.865  -0.00559
6.31e+09  -0.2416  -0.7603  -0.01657  -0.01561  0.03064  0.001308  -0.8311  0.3018
6.311e+09  -0.4716  -0.6998  -0.01132  -0.00977  -0.00529  -0.01973  -0.674  0.5469
6.312e+09  -0.677  -0.4308  -0.005175  0.01865  -0.01165  -0.01467  -0.4511  0.7355
6.314e+09  -0.8153  -0.1329  -0.0002038  0.01926  0.02914  0.01408  -0.1341  0.8593
6.315e+09  -0.8761  0.1193  -0.01082  -0.02209  -0.01538  0.01085  0.1488  0.8897
6.316e+09  -0.7294  0.3864  -0.007065  -0.02284  0.02551  0.02194  0.4476  0.7446
6.318e+09  -0.6089  0.6211  -0.01466  -0.0299  -0.002486  0.02161  0.6359  0.609
6.319e+09  -0.2865  0.7865  -0.008203  -0.003706  -0.06642  0.007775  0.8053  0.3002
6.32e+09  -0.02756  0.8324  0.01137  -0.02447  -0.01105  0.00525  0.9183  0.02831
6.321e+09  0.3028  0.7434  -0.03101  -0.01918  0.02846  0.03689  0.8413  -0.3096
6.322e+09  0.4987  0.6123  0.01576  0.00481  -0.01726  0.04211  0.6738  -0.5666
6.324e+09  0.7315  0.3972  0.02504  0.001427  -0.04993  -0.005953  0.4843  -0.736
6.325e+09  0.8021  0.129  -0.001045  0.03609  -0.002876  -0.01463  0.2151  -0.8688
6.326e+09  0.8384  -0.1755  -0.02621  0.0008152  0.0468  0.0213  -0.1224  -0.8903
6.328e+09  0.7366  -0.4762  -0.001646  0.001231  0.0002658  0.05191  -0.3948  -0.8063
6.329e+09  0.4533  -0.6308  0.003345  0.01607  -0.01455  -0.05798  -0.6633  -0.5568
6.33e+09  0.3  -0.8172  -0.0008553  0.02877  0.03357  0.02542  -0.8114  -0.3088
6.331e+09  -0.04998  -0.8744  0.02088  0.03432  0.009763  -0.002093  -0.8835  -0.05395
6.332e+09  -0.3196  -0.842  0.0002581  -0.008353  -0.02026  -0.0007627  -0.8541  0.2806
6.334e+09  -0.6329  -0.6383  -0.01672  0.01416  -0.03095  -0.009924  -0.7188  0.5983
6.335e+09  -0.7642  -0.423  -0.03782  -0.01401  0.03699  0.006671  -0.4379  0.7817
6.336e+09  -0.8013  -0.08894  -0.01688  0.007202  -0.02782  0.02341  -0.199  0.9105
6.338e+09  -0.8079  0.1513  -0.00962  -0.008998  -0.02923  -0.003876  0.1353  0.9225
6.339e+09  -0.7472  0.4785  0.02394  -0.006436  0.0179  0.008677  0.4465  0.8231
6.34e+09  -0.4859  0.7128  0.004336  -0.02696  0.03191  0.02578  0.6772  0.6409
6.341e+09  -0.1995  0.8825  -0.004213  -0.02807  -0.0003099  0.0259  0.8514  0.3368
6.342e+09  0.1001  0.904  -0.03393  -0.01671  -0.02347  0.02271  0.9426  0.04876
6.344e+09  0.4229  0.7523  -0.007909  0.007631  -0.01964  0.03508  0.8823  -0.2959
6.345e+09  0.6199  0.5918  -0.00677  -0.007463  -0.005302  0.003139  0.7335  -0.5821
6.346e+09  0.7806  0.3238  0.02477  -0.02112  -0.004844  0.00838  0.4739  -0.8133
6.348e+09  0.8224  0.07664  0.01987  -0.01059  0.02266  0.001123  0.2315  -0.8938
6.349e+09  0.8926  -0.2538  0.01117  -0.003351  0.0196  -0.006809  -0.08371  -0.9245
6.35e+09  0.6541  -0.5453  -0.01216  0.001906  -0.05873  0.01856  -0.4088  -0.819
6.351e+09  0.4392  -0.724  -0.01968  0.004744  0.0235  0.00499  -0.6853  -0.6576
6.352e+09  0.09073  -0.867  0.02856  0.02155  0.03519  0.007825  -0.8557  -0.3847
6.354e+09  -0.1337  -0.8835  -0.006157  -0.009266  -0.01428  0.0228  -0.9155  -0.05826
6.355e+09  -0.4746  -0.7135  0.009796  0.02468  -0.006069  -0.02467  -0.8983  0.2442
6.356e+09  -0.6939  -0.5451  0.01907  0.007102  -0.02852  0.003729  -0.7768  0.5179
6.358e+09  -0.8705  -0.2845  0.04088  0.01049  0.008363  -0.005443  -0.5205  0.7739
6.359e+09  -0.8514  0.0434  -0.04072  0.02293  -0.0296  0.0556  -0.2784  0.9091
6.36e+09  -0.822  0.3462  -0.03066  0.02014  -0.05579  0.01873  0.08459  0.9626
6.361e+09  -0.6487  0.6052  0.04054  -0.004641  -0.04508  -0.005711  0.386  0.8528
6.362e+09  -0.4011  0.8096  0.01315  0.03523  -0.02777  0.01166  0.6869  0.6738
6.364e+09  -0.1204  0.8662  0.01432  0.004776  0.00782  -0.008278  0.88  0.4045
6.365e+09  0.2571  0.8547  -0.02151  -0.002754  -0.02108  -0.03872  0.9346  0.08392
6.366e+09  0.4634  0.7197  0.0007761  -0.04413  0.017  0.03556  0.9191  -0.2718
6.368e+09  0.7622  0.4943  0.003668  -0.01702  0.02051  0.04338  0.7993  -0.584
6.369e+09  0.8449  0.2502  -0.01839  -0.00298  0.0123  0.03967  0.5619  -0.7832
6.37e+09  0.8889  -0.06804  -0.04252  -0.02705  0.007309  0.02739  0.2125  -0.8819
6.371e+09  0.8008  -0.3922  -0.02793  0.04463  0.01514  0.01058  -0.06529  -0.9273
6.372e+09  0.6436  -0.6712  -0.04336  0.02588  0.0367  0.03186  -0.409  -0.8405
6.374e+09  0.3208  -0.8133  0.008914  -0.01508  -0.0135  -0.03201  -0.6294  -0.693
6.375e+09  0.0281  -0.8873  0.03334  -0.02026  0.03523  -0.01479  -0.8255  -0.3891
6.376e+09  -0.2647  -0.8162  0.03268  -0.01354  -0.02724  -0.0004694  -0.9256  -0.1119
6.378e+09  -0.5896  -0.7437  0.01358  -0.02667  -0.0359  -0.0108  -0.9329  0.2371
6.379e+09  -0.7247  -0.4391  0.01882  -0.01291  0.006482  0.02111  -0.762  0.4844
6.38e+09  -0.8698  -0.1787  -0.03206  -0.02675  -0.03712  -0.02404  -0.593  0.7708
6.381e+09  -0.8312  0.1798  -0.004027  0.006891  -0.05046  -0.003946  -0.2725  0.8971
6.382e+09  -0.7388  0.4207  0.04652  -0.01995  -0.05083  -0.03895  0.06123  0.9388
6.384e+09  -0.5371  0.6531  0.02604  -0.0207  0.03679  -0.005887  0.3801  0.8639
6.385e+09  -0.3362  0.825  -0.0146  0.01483  0.02998  -0.007865  0.636  0.6924
6.386e+09  0.002095  0.9247  0.03399  0.0138  0.01131  0.01674  0.8482  0.417
6.388e+09  0.2754  0.7962  -0.00625  -0.02873  0.0319  -0.02903  0.891  0.134
6.389e+09  0.5811  0.6467  0.02363  0.04462  0.004608  -0.04858  0.891  -0.1738
6.39e+09  0.7536  0.4149  0.01339  0.009567  -0.00884  0.01415  0.7997  -0.5027
6.391e+09  0.8509  0.1599  0.02632  -0.05385  -0.01194  -0.01379  0.5324  -0.7049
6.392e+09  0.8944  -0.1493  0.01211  -0.05124  -0.006942  0.01418  0.2899  -0.9006
6.394e+09  0.7284  -0.4912  -0.01939  0.04488  -0.01705  -0.0008821  -0.03655  -0.931
6.395e+09  0.5105  -0.7021  0.006187  -0.001871  -0.03958  0.02154  -0.3873  -0.8586
6.396e+09  0.2494  -0.8747  0.01177  0.003911  0.03304  0.004772  -0.6156  -0.7156
6.398e+09  -0.03228  -0.8799  0.009234  -0.0168  0.006937  -0.0221  -0.8006  -0.4405
6.399e+09  -0.377  -0.7871  -0.005674  0.04367  -0.0131  -0.002607  -0.8759  -0.1667
6.4e+09  -0.5935  -0.6453  -0.02444  -0.01988  0.01496  0.0434  -0.8577  0.1661
6.401e+09  -0.8237  -0.383  0.01966  -0.02477  -0.02449  0.03082  -0.7869  0.514
6.402e+09  -0.8442  -0.1246  -0.006041  0.01626  -0.002079  -0.0468  -0.6022  0.7532
6.404e+09  -0.8522  0.1961  0.005182  -0.0461  0.03532  -0.05152  -0.3334  0.8146
6.405e+09  -0.7167  0.4819  0.03552  0.008685  0.009658  0.006824  0.03924  0.9108
6.406e+09  -0.5456  0.6762  0.02186  0.02896  -0.003654  -0.01031  0.2885  0.8826
6.408e+09  -0.1699  0.8361  -0.01739  -0.0138  -0.03136  -0.01736  0.5579  0.7408
6.409e+09  0.08228  0.9157  -0.01361  -0.02156  0.00399  -0.02232  0.7764  0.4677
6.41e+09  0.3927  0.776  -0.01612  -0.0002088  0.02797  -0.01268  0.8824  0.204
6.411e+09  0.6322  0.5928  -0.04148  0.01632  -0.03624  0.01375  0.9189  -0.1211
6.412e+09  0.7723  0.3436  0.03472  -0.0001891  -0.01048  -0.0469  0.8061  -0.4426
6.414e+09  0.8759  0.1456  -0.03216  -0.05793  -0.01828  0.0334  0.603  -0.676
6.415e+09  0.8121  -0.2841  -0.02761  -0.04054  -0.04098  0.00087  0.2976  -0.8127
6.416e+09  0.7272  -0.5747  0.0487  -0.01034  0.01175  0.02578  0.05622  -0.8767
6.418e+09  0.5045  -0.7377  -0.02542  -0.002304  0.05298  -0.02229  -0.2553  -0.8498
6.419e+09  0.2113  -0.8856  0.03954  -0.04  0.01493  -0.03297  -0.5442  -0.7008
6.42e+09  -0.09166  -0.8506  0.06615  0.03018  0.0006641  0.01859  -0.7585  -0.5168
6.421e+09  -0.4078  -0.7332  -0.007498  -0.01886  0.002218  0.01957  -0.8397  -0.2202
6.422e+09  -0.6257  -0.5821  -0.0109  0.02333  -0.01382  0.007237  -0.8831  0.1407
6.424e+09  -0.7726  -0.3521  0.00473  -0.006417  -0.03078  0.003965  -0.7934  0.3858
6.425e+09  -0.8796  -0.007791  0.0007011  0.03276  -0.01065  -0.02424  -0.6108  0.6651
6.426e+09  -0.7814  0.2922  -0.007949  -0.03868  0.02346  -0.03188  -0.3175  0.7502
6.428e+09  -0.693  0.5394  -0.02677  -0.01156  0.02229  -0.07645  -0.05857  0.8703
6.429e+09  -0.4991  0.7235  0.004457  0.01924  -0.06071  0.01176  0.2483  0.8136
6.43e+09  -0.1864  0.8862  -0.05556  -0.007597  -0.02955  -0.03309  0.5201  0.6676
6.431e+09  0.1195  0.8522  0.02162  -0.02009  -0.006952  -0.009129  0.6889  0.4973
6.432e+09  0.4266  0.7597  -0.003399  -0.007683  -0.02981  -0.00333  0.8912  0.2216
6.434e+09  0.6689  0.5419  -0.004597  0.01355  0.01394  -0.02838  0.8979  -0.132
6.435e+09  0.8728  0.3293  0.0179  -0.02234  0.01416  0.03306  0.7927  -0.3792
6.436e+09  0.8733  0.05435  0.009751  0.04246  0.02162  0.03467  0.6306  -0.6018
6.438e+09  0.8295  -0.3056  0.01501  0.004341  -0.01508  0.01008  0.3419  -0.7844
6.439e+09  0.6826  -0.53  -0.02475  -0.01217  0.007093  -2.446e-05  0.04238  -0.9
6.44e+09  0.4439  -0.7237  -0.01697  0.0569  0.007299  -0.01824  -0.2448  -0.7749
6.441e+09  0.1667  -0.8691  0.002274  -0.04494  -0.01474  -0.03756  -0.4817  -0.694
6.442e+09  -0.1229  -0.8607  -0.01113  -0.05524  0.05197  0.03322  -0.7239  -0.4616
6.444e+09  -0.4457  -0.7457  -0.01773  0.03601  0.006893  -0.03762  -0.835  -0.2148
6.445e+09  -0.6586  -0.4967  0.006254  -0.01255  -0.03949  0.007503  -0.8486  0.05827
6.446e+09  -0.8178  -0.2923  0.01087  0.04207  0.04785  0.003665  -0.7558  0.3802
6.448e+09  -0.8582  0.01176  -0.05606  -0.02427  -0.007351  0.02521  -0.6088  0.5826
6.449e+09  -0.8016  0.3272  -0.03875  0.006524  0.04703  0.02823  -0.3315  0.7362
6.45e+09  -0.6873  0.5533  -0.01101  -0.01287  -0.0622  -0.003903  -0.07675  0.8588
6.451e+09  -0.4446  0.7783  0.05647  0.01708  -0.02416  -0.06712  0.2304  0.8218
6.452e+09  -0.1427  0.8513  -0.03178  0.03863  -0.01472  -0.01266  0.4757  0.6801
6.454e+09  0.1848  0.8295  -0.03248  -0.007427  0.02306  0.003686  0.6644  0.496
6.455e+09  0.409  0.7601  -0.01652  -0.01094  0.009923  -0.001908  0.8047  0.2161
6.456e+09  0.6112  0.6124  0.01902  0.01406  0.04798  0.01534  0.8225  -0.09104
6.458e+09  0.8068  0.3062  0.01934  -0.008547  0.008561  0.035  0.7247  -0.3592
6.459e+09  0.8582  -0.02493  0.005707  -0.07561  -0.02272  0.01814  0.5784  -0.565
6.46e+09  0.8086  -0.2677  -0.01243  -0.0146  -0.03141  0.007612  0.3298  -0.7803
6.461e+09  0.6737  -0.5405  -0.002952  -0.03518  0.001361  0.03409  0.08236  -0.8211
6.462e+09  0.4457  -0.7063  0.02922  0.01734  -0.02433  0.02706  -0.271  -0.769
6.464e+09  0.09798  -0.8129  -0.04584  -0.004667  -0.0004043  -0.0457  -0.4839  -0.6898
6.465e+09  -0.1946  -0.8861  0.02808  -0.003787  0.02993  -0.005058  -0.6729  -0.4037
6.466e+09  -0.4143  -0.7504  -0.002644  0.00991  0.0218  -0.01647  -0.7984  -0.1366
6.468e+09  -0.6926  -0.5682  0.03566  0.05808  -0.005217  -0.01635  -0.8068  0.08625
6.469e+09  -0.852  -0.2832  -0.01981  -0.004956  0.03116  -0.02737  -0.71  0.3286
6.47e+09  -0.869  -0.002514  -0.006709  -0.01661  -0.009238  -0.02595  -0.5465  0.5731
6.471e+09  -0.7669  0.2924  -0.006338  0.0008689  0.006802  -0.0207  -0.3391  0.6944
6.472e+09  -0.6552  0.6087  0.01941  -0.03897  0.03666  -0.02644  -0.07411  0.7584
6.474e+09  -0.4216  0.7789  0.02437  0.01969  0.03671  -0.03228  0.1571  0.757
6.475e+09  -0.1916  0.8495  0.03062  0.0101  -0.02894  0.000945  0.4689  0.6468
6.476e+09  0.1945  0.8916  -0.02922  0.01912  -0.03387  0.01103  0.6129  0.4263
6.478e+09  0.506  0.7696  0.03016  0.01839  0.009641  0.01415  0.7786  0.2222
6.479e+09  0.6891  0.5979  -0.02187  -0.01836  -0.00865  0.009511  0.7909  -0.0765
6.48e+09  0.8156  0.2991  -0.01963  -0.01233  0.0314  0.01535  0.718  -0.4036
6.481e+09  0.8666  -0.03831  0.001575  -0.01289  -0.02596  -0.04107  0.5939  -0.5627
6.482e+09  0.8138  -0.3089  -0.006407  -0.02802  0.02974  -0.01553  0.3423  -0.691
6.484e+09  0.6179  -0.6  0.02143  -0.03959  0.0637  0.01585  0.0688  -0.7706
6.485e+09  0.3924  -0.7723  -0.03067  -0.02174  0.05839  -0.008813  -0.1824  -0.7141
6.486e+09  0.07905  -0.9  -0.0004115  -0.01551  -0.02069  -0.02794  -0.484  -0.5976
6.488e+09  -0.1707  -0.8666  -0.04112  -0.008255  -0.02536  -0.01066  -0.6764  -0.4158
6.489e+09  -0.5118  -0.752  0.001012  0.005102  -0.04315  0.03003  -0.7561  -0.1832
6.49e+09  -0.6854  -0.5105  0.0007882  -0.01132  0.0272  0.003267  -0.8041  0.0815
6.491e+09  -0.8586  -0.3014  -0.001631  -0.00374  0.01853  0.03614  -0.6937  0.3582
6.492e+09  -0.9401  0.07083  -0.0258  0.03707  -0.02419  0.03005  -0.5253  0.5431
6.494e+09  -0.8688  0.3763  -0.02528  -0.005408  0.02407  0.01883  -0.3039  0.7071
6.495e+09  -0.6616  0.576  0.003985  -0.00527  0.03691  0.008199  -0.02014  0.7364
6.496e+09  -0.368  0.7867  -0.01445  -0.01554  -0.007667  -0.002523  0.2273  0.7177
6.498e+09  -0.1208  0.9142  -0.0007883  0.02683  0.01662  0.007344  0.448  0.6367
6.499e+09  0.171  0.8464  -0.005225  0.02534  -0.02162  -0.01399  0.6377  0.3996
6.5e+09  0.5307  0.7681  0.003376  0.002724  0.009461  0.01303  0.7361  0.1508
6.501e+09  0.7522  0.5587  0.0004749  0.0248  -0.001811  0.004319  0.7324  -0.1031
6.502e+09  0.8751  0.2059  0.014  -0.004544  -0.001681  -0.03498  0.6475  -0.3794
6.504e+09  0.9423  -0.06016  0.001302  -0.0074  -0.009305  -0.01888  0.4815  -0.6144
6.505e+09  0.8282  -0.3977  -0.02538  -0.053  -0.03632  -0.007589  0.2894  -0.714
6.506e+09  0.6303  -0.6128  -0.02353  -0.02007  -0.03528  0.0205  0.04796  -0.7415
6.508e+09  0.3947  -0.8292  -0.02167  -0.006868  -0.01683  -0.002496  -0.2449  -0.7226
6.509e+09  0.0616  -0.9244  -0.02047  0.01373  0.01032  0.01941  -0.4962  -0.6167
6.51e+09  -0.2137  -0.8586  -0.03402  0.01454  0.03502  -0.0555  -0.6656  -0.4025
6.511e+09  -0.5361  -0.7199  -0.003828  0.008734  -0.05271  0.03065  -0.7565  -0.1429
6.512e+09  -0.7857  -0.4932  0.04611  -0.02611  0.03751  0.0159  -0.7682  0.1388
6.514e+09  -0.9145  -0.2439  -0.02044  0.002321  -0.04982  0.0158  -0.6761  0.3792
6.515e+09  -0.9897  0.08652  0.0335  0.01019  0.0428  -0.02463  -0.4755  0.5948
6.516e+09  -0.8782  0.4394  0.006202  0.02914  0.004711  -0.003504  -0.29  0.671
6.518e+09  -0.6413  0.6347  0.01366  0.0518  -0.0003431  -0.05246  0.03629  0.7333
6.519e+09  -0.4129  0.8333  -0.03968  -0.03865  -0.03804  0.05412  0.3003  0.6831
6.52e+09  -0.07889  0.9605  0.02979  -0.007629  0.02567  -0.02991  0.4799  0.5606
6.521e+09  0.3122  0.8867  -0.0121  -0.008356  -0.0431  -0.006027  0.6809  0.3246
6.522e+09  0.5841  0.7909  -0.005788  0.01712  0.02255  0.01963  0.7638  0.105
6.524e+09  0.832  0.5016  -0.02246  -0.01841  -0.01008  -0.03479  0.692  -0.2026
6.525e+09  0.9355  0.2167  0.001561  -0.006769  -0.003407  -0.01749  0.5873  -0.3922
6.526e+09  0.9892  -0.1219  0.01773  0.0106  -0.03373  -0.02395  0.4149  -0.5799
6.528e+09  0.8177  -0.4424  -0.03033  -0.006638  -0.02163  -0.002408  0.1927  -0.6634
6.529e+09  0.6788  -0.7377  -0.04366  0.0168  -0.04883  0.01926  -0.0353  -0.7185
6.53e+09  0.3468  -0.8888  -0.01108  -0.01824  0.009452  -0.02936  -0.2737  -0.5863
6.531e+09  -0.01536  -0.9723  -0.009765  -0.02321  -0.03435  -0.009593  -0.4898  -0.4247
6.532e+09  -0.3453  -0.9519  -0.01645  0.005838  0.03611  -0.02989  -0.6134  -0.3046
6.534e+09  -0.6456  -0.7625  -0.0003614  -0.008942  0.0126  0.03792  -0.6107  -0.1075
6.535e+09  -0.8791  -0.4965  0.001698  -0.02105  -0.05207  -0.03826  -0.6522  0.129
6.536e+09  -0.9598  -0.1309  -0.0121  -0.03493  -0.02672  -0.05101  -0.5651  0.2931
6.538e+09  -0.9148  0.2385  0.04023  0.01073  0.01268  0.03108  -0.471  0.4812
6.539e+09  -0.857  0.476  0.00127  0.01133  0.0106  -0.0037  -0.2685  0.6057
6.54e+09  -0.5836  0.7824  -0.007655  0.000336  -0.04429  0.01388  -0.06678  0.681
6.541e+09  -0.2543  0.8625  -0.007714  0.00739  0.01794  -0.005836  0.1962  0.6805
6.542e+09  0.1032  0.9479  0.01136  -0.007546  0.06436  0.01525  0.4294  0.545
6.544e+09  0.3549  0.8294  0.005995  -0.03122  -0.03473  -0.014  0.6034  0.3967
6.545e+09  0.6769  0.7335  -0.01165  -0.02453  -0.01448  -0.02047  0.6787  0.2042
6.546e+09  0.8833  0.4463  0.03368  -0.02366  0.04715  0.01574  0.7348  -0.08038
6.548e+09  0.9269  0.1055  -0.005719  -0.002443  -0.01083  -0.02314  0.6349  -0.3415
6.549e+09  0.9264  -0.2627  -0.01983  0.01035  -0.01453  0.02645  0.5321  -0.4993
6.55e+09  0.8274  -0.5665  0.02696  -0.005764  -0.01283  -0.03033  0.2874  -0.6899
