# Hz S RI R 50
6.25e+09  -0.4219  0.7986  -0.01243  -0.009735  -0.03066  -0.08304  0.1709  0.4695
6.251e+09  -0.1609  0.8195  -0.006442  0.006222  0.04483  -0.002012  0.3789  0.4335
6.252e+09  0.2444  0.8393  -0.04018  0.005229  -0.01351  0.003589  0.5184  0.2655
6.254e+09  0.4405  0.7015  0.005468  0.01781  0.005208  0.01525  0.6149  -0.0001987
6.255e+09  0.6741  0.4624  0.003531  -0.02249  0.05837  0.06715  0.5777  -0.2092
6.256e+09  0.8369  0.2038  0.01104  -0.008241  -0.001824  0.02082  0.5024  -0.4323
6.258e+09  0.8406  -0.03398  0.01559  -0.01244  0.05537  -0.0896  0.2678  -0.5795
6.259e+09  0.7905  -0.2456  -0.01228  0.004525  0.002873  -0.02893  0.0599  -0.6553
6.26e+09  0.5632  -0.5714  5.377e-05  0.002601  -0.007575  0.007749  -0.1672  -0.672
6.261e+09  0.3875  -0.7267  -0.01401  0.006806  0.01961  0.01419  -0.4542  -0.5741
6.262e+09  0.1578  -0.8582  0.01339  0.007839  0.01902  -0.04901  -0.6087  -0.3537
6.264e+09  -0.2146  -0.7968  -0.007311  0.01628  0.01596  0.04207  -0.7063  -0.1249
6.265e+09  -0.4822  -0.6968  0.01478  0.01232  -0.01189  -0.04244  -0.6834  0.1512
6.266e+09  -0.6601  -0.484  0.0315  0.03079  0.02244  -0.02064  -0.5976  0.3846
6.268e+09  -0.798  -0.196  -0.02615  -0.006142  -0.02728  -0.06195  -0.4454  0.6058
6.269e+09  -0.7958  0.04917  -0.004499  0.01073  -0.00646  0.01158  -0.1696  0.6856
6.27e+09  -0.7664  0.2906  0.007735  0.003592  -0.009855  0.04617  0.05373  0.7309
6.271e+09  -0.6109  0.598  0.01393  -0.01792  -0.03852  0.05943  0.267  0.6536
6.272e+09  -0.3583  0.7623  0.001733  0.00678  -0.03453  -0.05136  0.5215  0.5236
6.274e+09  -0.1381  0.8441  -0.01245  0.01072  -0.006849  0.004544  0.6789  0.3086
6.275e+09  0.2293  0.8139  0.001621  7.823e-05  -0.002231  0.04642  0.7107  0.03616
6.276e+09  0.4314  0.6542  0.007059  0.001684  0.02843  0.02975  0.7605  -0.2143
6.278e+09  0.7187  0.4863  0.01607  0.005606  -0.02106  0.01524  0.6039  -0.4434
6.279e+09  0.8197  0.2256  -0.02851  0.01045  -0.02162  -0.01664  0.4443  -0.6547
6.28e+09  0.783  -0.04211  -0.0001161  -0.01373  0.03308  -0.002542  0.197  -0.7554
6.281e+09  0.7748  -0.3667  -0.02762  0.004161  -0.0195  -0.01177  -0.102  -0.7431
6.282e+09  0.582  -0.5478  0.0008166  -0.02772  -0.02203  -0.01419  -0.3647  -0.6895
6.284e+09  0.3721  -0.7254  -0.007125  0.02754  -0.03635  0.01775  -0.5966  -0.5247
6.285e+09  0.03239  -0.8494  -0.007483  0.01175  -0.01842  0.05035  -0.7261  -0.2871
6.286e+09  -0.2386  -0.7629  0.01161  0.02447  -0.004996  0.001576  -0.7805  0.002825
6.288e+09  -0.4446  -0.6338  0.01269  0.008693  0.02757  0.01974  -0.7397  0.2525
6.289e+09  -0.659  -0.4887  -0.01596  -0.01142  -0.007226  -0.03133  -0.6173  0.4793
6.29e+09  -0.7893  -0.2022  -0.01004  -0.02143  -0.0163  0.01659  -0.4167  0.6886
6.291e+09  -0.8307  0.1236  0.008509  -0.01306  0.02686  -0.02777  -0.1543  0.8126
6.292e+09  -0.7414  0.3701  -0.01326  0.001449  -0.00169  0.004598  0.1225  0.8022
6.294e+09  -0.5655  0.6353  -0.006909  0.008469  0.01572  0.05026  0.3876  0.7043
6.295e+09  -0.3128  0.8113  -0.006239  -0.02108  0.03015  -0.01119  0.6439  0.5395
6.296e+09  -0.07884  0.8278  0.002559  0.01609  -0.01771  0.04871  0.7651  0.2951
6.298e+09  0.2461  0.7958  -0.01271  0.03182  0.03382  0.005846  0.8487  0.02995
6.299e+09  0.5419  0.681  0.02314  -0.007331  -0.0233  -0.05059  0.7883  -0.2746
6.3e+09  0.6791  0.4714  -0.01171  -0.007435  -0.009022  0.02693  0.6729  -0.5387
6.301e+09  0.7814  0.1475  -0.01735  0.0001157  0.07175  -0.01583  0.4479  -0.7144
6.302e+09  0.8602  -0.12  0.01139  0.0004226  -0.02097  -0.03058  0.1357  -0.8054
6.304e+09  0.7075  -0.3902  -0.02193  -0.01653  -0.002991  -0.03444  -0.1626  -0.8416
6.305e+09  0.5722  -0.6262  0.003428  0.02403  0.01524  -0.03053  -0.4038  -0.7378
6.306e+09  0.2595  -0.7792  -0.0581  0.005449  0.01377  0.01874  -0.6647  -0.5738
6.308e+09  0.01244  -0.8368  0.0001081  -0.01063  -0.03062  -0.01147  -0.8068  -0.2856
6.309e+09  -0.2972  -0.7883  -0.01675  0.03037  -0.01146  -0.0007929  -0.8517  -0.04599
6.31e+09  -0.5106  -0.6647  -0.01762  0.007023  -0.03666  0.004013  -0.8178  0.3083
6.311e+09  -0.7466  -0.4067  0.03041  -0.01748  -0.04587  0.001249  -0.6553  0.56
6.312e+09  -0.855  -0.1526  -0.007185  0.001341  0.000397  0.01193  -0.4559  0.7564
6.314e+09  -0.8312  0.1741  -0.01771  0.0223  -0.03238  -0.01918  -0.1527  0.8696
6.315e+09  -0.6847  0.4728  0.002315  0.003441  -0.01335  -0.01803  0.1362  0.8277
6.316e+09  -0.5458  0.6759  -0.01421  -0.01527  -0.06473  -0.02762  0.458  0.819
6.318e+09  -0.2606  0.782  -0.006032  -0.001867  -0.04892  -0.01176  0.6552  0.5739
6.319e+09  -0.005664  0.8401  -0.01623  0.007407  0.009958  0.008114  0.7741  0.3324
6.32e+09  0.3172  0.8143  0.006284  -0.03139  -0.02403  -0.00283  0.8616  0.04822
6.321e+09  0.5226  0.6206  0.01459  0.008868  -0.02665  -0.02928  0.8059  -0.2907
6.322e+09  0.8188  0.3853  0.03038  -0.03287  0.03266  -0.01448  0.6966  -0.554
6.324e+09  0.8632  0.1413  -0.04462  0.002092  -0.02949  -0.007559  0.4807  -0.7476
6.325e+09  0.843  -0.2312  0.01602  0.01381  0.007026  0.02485  0.1737  -0.8228
6.326e+09  0.7192  -0.5205  0.01549  -0.0107  0.05032  0.03485  -0.1327  -0.916
6.328e+09  0.4569  -0.6627  0.00336  0.001008  0.008749  -0.03067  -0.4435  -0.8008
6.329e+09  0.2158  -0.811  -0.001805  -0.03432  0.03507  -0.02841  -0.6743  -0.5883
6.33e+09  -0.1022  -0.8816  0.01992  -0.01982  0.02889  -0.006808  -0.861  -0.3278
6.331e+09  -0.3561  -0.806  0.01708  0.006304  -0.01221  -0.0228  -0.8894  -0.04271
6.332e+09  -0.584  -0.5626  -0.01707  0.01017  0.0259  -0.01852  -0.8465  0.2874
6.334e+09  -0.773  -0.3526  -0.02301  0.01129  -0.01093  -0.0003186  -0.742  0.5797
6.335e+09  -0.8277  -0.03637  0.0261  0.004037  -0.004591  0.004731  -0.4976  0.7444
6.336e+09  -0.8191  0.223  -0.03099  -0.002584  -0.01134  -0.0358  -0.1848  0.8625
6.338e+09  -0.7143  0.5148  0.01825  0.01521  -0.01933  0.02027  0.1429  0.9078
6.339e+09  -0.4686  0.7049  0.001989  0.0009972  -0.009618  0.02241  0.4268  0.807
6.34e+09  -0.1764  0.8454  -0.006932  0.004764  -0.02231  -0.01147  0.7196  0.6303
6.341e+09  0.1386  0.8589  0.06916  0.009423  -0.01766  0.01917  0.8321  0.3742
6.342e+09  0.4408  0.7433  0.005448  -0.01964  -0.003263  -0.02158  0.898  0.02663
6.344e+09  0.6517  0.5912  -0.02072  -0.008159  0.03605  0.02645  0.8693  -0.2901
6.345e+09  0.7982  0.3465  0.01371  0.006584  -0.007442  -0.03845  0.7344  -0.5371
6.346e+09  0.8855  -0.05114  -0.007399  0.0238  -0.001902  0.01196  0.4944  -0.7551
6.348e+09  0.8024  -0.3277  -0.01505  0.01584  -0.003962  0.05441  0.2284  -0.9382
6.349e+09  0.6947  -0.5803  -0.02582  0.008042  0.001026  0.009335  -0.1306  -0.9354
6.35e+09  0.4442  -0.7595  -0.004518  -0.01633  0.01213  -0.02093  -0.4293  -0.8344
6.351e+09  0.1606  -0.8529  -0.0012  -0.04904  0.04174  0.002355  -0.6905  -0.6295
6.352e+09  -0.1618  -0.8901  -0.001759  -0.006777  0.02125  -0.007075  -0.8658  -0.374
6.354e+09  -0.4644  -0.7199  0.0137  -0.0247  -0.01726  -0.005493  -0.9847  -0.04238
6.355e+09  -0.7329  -0.5186  -0.01151  -0.005638  0.007492  0.01227  -0.884  0.2669
6.356e+09  -0.8889  -0.22  -0.004984  -0.01879  0.02138  -0.01977  -0.7504  0.5664
6.358e+09  -0.8798  0.05109  0.006591  0.001375  -0.003203  -0.04171  -0.5422  0.7648
6.359e+09  -0.83  0.3615  0.008635  -0.02544  0.03581  0.02152  -0.2213  0.9436
6.36e+09  -0.6388  0.5929  -0.02407  0.0007845  -0.01608  0.02188  0.1011  0.9511
6.361e+09  -0.3573  0.7812  0.03598  -0.01171  0.03911  0.05142  0.4024  0.8252
6.362e+09  -0.08492  0.8704  -0.0004224  0.01496  -0.0337  -0.02558  0.661  0.6494
6.364e+09  0.2831  0.8615  0.0313  0.007412  0.01474  -0.002373  0.8645  0.3882
6.365e+09  0.535  0.7294  0.0008168  -0.0193  -0.0004128  -0.03561  0.9195  0.0868
6.366e+09  0.7357  0.4588  0.02008  -0.006434  -0.0133  0.02262  0.9222  -0.2612
6.368e+09  0.9185  0.1738  0.03974  0.04088  -0.004092  -0.03287  0.758  -0.4588
6.369e+09  0.9189  -0.1296  0.03292  0.005958  0.01261  0.01967  0.5299  -0.7719
6.37e+09  0.7875  -0.3772  -0.00897  0.04564  -0.03895  0.02514  0.2293  -0.9556
6.371e+09  0.5866  -0.6388  -0.006309  0.01361  -0.01667  0.006381  -0.05279  -0.9583
6.372e+09  0.2925  -0.8417  0.01853  0.00232  -0.005403  -0.02003  -0.3884  -0.8904
6.374e+09  0.008228  -0.9254  -0.008802  -0.01912  0.01164  -0.01293  -0.6769  -0.6435
6.375e+09  -0.2705  -0.8092  -0.01631  0.007045  0.01118  -0.05098  -0.864  -0.4291
6.376e+09  -0.56  -0.6622  -0.0004819  -0.01741  0.0248  0.02817  -0.8976  -0.08637
6.378e+09  -0.7604  -0.441  0.006605  -0.0004247  -0.01482  -0.003505  -0.8918  0.2427
6.379e+09  -0.8834  -0.1125  0.01044  -0.01449  -0.04517  -0.01949  -0.8081  0.4948
6.38e+09  -0.8831  0.1036  -0.01471  0.02239  -0.01737  -0.01944  -0.5671  0.769
6.381e+09  -0.7752  0.4305  -0.01831  -0.009956  0.02012  0.03968  -0.2858  0.9221
6.382e+09  -0.5683  0.6615  0.02127  -0.03025  0.01073  0.01341  0.06858  0.92
6.384e+09  -0.2781  0.8678  -0.01036  0.03486  0.0328  -0.0441  0.3394  0.869
6.385e+09  -0.02093  0.8421  -0.03047  0.01763  0.009452  0.009743  0.5916  0.6915
6.386e+09  0.3719  0.8051  -0.02551  -0.003131  -0.02066  0.05582  0.8249  0.4439
6.388e+09  0.5748  0.6454  0.003953  -0.0243  0.0131  -0.01521  0.8936  0.1196
6.389e+09  0.8395  0.4928  -0.001378  0.006993  -0.01132  -0.006496  0.8874  -0.2038
6.39e+09  0.9014  0.06517  -0.01795  0.01875  -0.01608  0.02948  0.8236  -0.4981
6.391e+09  0.8497  -0.2526  0.0001704  0.007306  0.006955  0.0204  0.5275  -0.7356
6.392e+09  0.7372  -0.4648  -0.02268  -0.005595  0.04769  -0.03378  0.2494  -0.8654
6.394e+09  0.57  -0.7163  0.01254  0.02706  -0.01624  0.006879  3.546e-06  -0.9069
6.395e+09  0.2252  -0.8371  -0.02929  0.04076  0.0003878  -0.005399  -0.3397  -0.8886
6.396e+09  -0.05828  -0.8758  0.03539  0.03871  -0.03364  0.04066  -0.6131  -0.6856
6.398e+09  -0.362  -0.8143  0.01588  -0.01365  0.0186  -0.02208  -0.7793  -0.4396
6.399e+09  -0.6584  -0.6569  0.05748  0.01523  0.03098  0.0065  -0.9016  -0.1689
6.4e+09  -0.7911  -0.4104  0.02896  0.03609  0.004549  -0.04024  -0.9165  0.148
6.401e+09  -0.8698  -0.1134  -0.004255  0.001699  -0.01321  -0.003481  -0.8196  0.5074
6.402e+09  -0.8276  0.1954  0.04088  0.01465  0.02185  -0.0388  -0.5602  0.6465
6.404e+09  -0.7373  0.5435  -0.01251  0.01586  0.00312  0.001495  -0.3129  0.8523
6.405e+09  -0.4888  0.6841  0.001778  0.01888  -0.0351  0.05041  0.005781  0.8686
6.406e+09  -0.2531  0.8671  -0.03444  0.005202  -0.006948  -0.004313  0.3111  0.852
6.408e+09  0.03656  0.8832  -0.007783  0.03065  -0.01094  -0.03656  0.5239  0.7146
6.409e+09  0.3699  0.7658  -0.02078  0.03489  -0.005942  0.03056  0.796  0.4527
6.41e+09  0.633  0.6417  0.02851  -0.003308  -0.02656  -0.006989  0.8898  0.1401
6.411e+09  0.7978  0.357  -0.05848  -0.02289  0.001339  -0.006653  0.8985  -0.1393
6.412e+09  0.9181  0.06459  -0.01097  -0.007309  0.01874  0.03716  0.7846  -0.4382
6.414e+09  0.8504  -0.2575  -0.002699  0.03053  -0.02596  -0.001582  0.6205  -0.6687
6.415e+09  0.6877  -0.5063  -0.00182  -0.001621  0.02817  -0.01517  0.3768  -0.8216
6.416e+09  0.5318  -0.704  0.01309  -0.006514  -0.01579  -0.03153  0.04304  -0.8756
6.418e+09  0.2172  -0.8694  -0.03546  0.01717  0.00196  0.03206  -0.28  -0.8277
6.419e+09  -0.08244  -0.8834  -0.01593  0.02849  0.04526  0.02284  -0.5357  -0.6974
6.42e+09  -0.3817  -0.7397  -0.001421  0.01513  -0.07601  -0.001079  -0.7551  -0.4912
6.421e+09  -0.6602  -0.557  0.01532  -0.01844  -0.04749  -0.02674  -0.8538  -0.2563
6.422e+09  -0.8337  -0.3324  -0.0001748  -0.01088  0.05747  -0.01723  -0.8857  0.1167
6.424e+09  -0.8741  -0.03977  -0.03617  0.007859  -0.03594  0.03286  -0.7712  0.3805
6.425e+09  -0.805  0.2608  -0.0217  -0.02501  0.01956  0.01147  -0.5886  0.6658
6.426e+09  -0.7176  0.5364  0.03568  0.0301  0.03611  -0.02263  -0.3784  0.8066
6.428e+09  -0.4449  0.7373  0.02973  0.01401  0.009323  -0.0192  -0.02818  0.8233
6.429e+09  -0.1814  0.9028  -0.01249  -0.003695  -0.02795  -0.02847  0.2263  0.8374
6.43e+09  0.03478  0.8465  -0.02195  0.04137  0.0421  -0.02934  0.521  0.7127
6.431e+09  0.3807  0.7978  0.0347  -0.008461  0.01461  0.007064  0.7099  0.5421
6.432e+09  0.6717  0.6065  -0.01822  -0.0366  -0.01962  -0.01211  0.8729  0.235
6.434e+09  0.8039  0.3619  0.05898  -0.02505  -0.04996  -0.01897  0.8412  -0.07053
6.435e+09  0.9217  0.05182  0.003097  0.04307  -0.03393  0.003255  0.7885  -0.3659
6.436e+09  0.8181  -0.2404  -0.03982  -0.02471  0.0243  -0.009346  0.568  -0.6875
6.438e+09  0.7247  -0.5594  -0.005246  -0.02247  -0.04353  0.002385  0.3482  -0.7795
6.439e+09  0.4801  -0.7774  0.04881  0.0004306  -0.02698  -0.03931  0.07647  -0.853
6.44e+09  0.1658  -0.8571  -0.01544  -0.03335  -0.006248  -0.004951  -0.2742  -0.8613
6.441e+09  -0.09881  -0.8538  0.05658  -0.02717  -0.03385  -0.05619  -0.5058  -0.6685
6.442e+09  -0.4549  -0.772  -0.01136  0.007742  0.01987  0.007707  -0.708  -0.4737
6.444e+09  -0.6748  -0.5975  -0.03107  0.01122  -0.00451  -0.004836  -0.8375  -0.22
6.445e+09  -0.7736  -0.3618  -0.02768  -0.02158  0.0162  -0.01402  -0.831  0.06177
6.446e+09  -0.9071  -0.04894  -0.03268  -0.03918  0.03597  -0.02231  -0.7799  0.3351
6.448e+09  -0.8409  0.2726  0.01248  -0.02399  -0.004665  -0.0279  -0.6383  0.5311
6.449e+09  -0.6569  0.557  -0.01767  0.003469  0.005881  -0.04529  -0.3428  0.7669
6.45e+09  -0.4528  0.7725  -0.04724  0.01589  -0.00291  0.0382  -0.06385  0.8294
6.451e+09  -0.1723  0.8728  0.02683  -0.004508  -0.04846  0.04278  0.2511  0.8207
6.452e+09  0.1216  0.8499  -0.02713  0.01597  0.007523  -0.03752  0.4521  0.6623
6.454e+09  0.4544  0.7856  0.01458  0.01513  -0.02446  -0.0165  0.6954  0.5135
6.455e+09  0.6621  0.5312  -0.01995  0.04866  0.008168  0.05354  0.8153  0.1997
6.456e+09  0.88  0.3779  0.0138  -0.03307  0.04513  0.00772  0.8043  -0.08545
6.458e+09  0.8957  0.01582  -0.008489  -0.0266  0.001801  -0.007766  0.792  -0.3525
6.459e+09  0.8718  -0.2778  -0.02715  0.004367  -0.0001176  -0.001921  0.5642  -0.5855
6.46e+09  0.6897  -0.6099  -0.004798  -0.04513  0.06102  -0.02101  0.3663  -0.7792
6.461e+09  0.435  -0.78  -0.01904  -0.01678  0.03054  -0.03942  0.06837  -0.7866
6.462e+09  0.1372  -0.8804  0.01397  -0.01735  0.02634  -0.01589  -0.2061  -0.798
6.464e+09  -0.1239  -0.8697  0.04683  -0.03823  -0.001107  -0.01335  -0.5037  -0.7137
6.465e+09  -0.4147  -0.7515  -0.01765  0.008291  -0.04729  -0.02832  -0.7013  -0.4675
6.466e+09  -0.7506  -0.598  0.02724  -0.003645  0.01654  -0.02294  -0.7767  -0.2235
6.468e+09  -0.8796  -0.311  0.01613  -0.01863  -0.01194  -0.02807  -0.788  0.08333
6.469e+09  -0.8761  -0.02085  -0.004901  0.05003  0.03324  0.0003265  -0.7082  0.3575
6.47e+09  -0.8548  0.311  -0.002322  -0.005182  0.004834  -0.009704  -0.5682  0.5804
6.471e+09  -0.6775  0.554  0.01664  -0.02612  -0.03324  -0.00468  -0.3521  0.7284
6.472e+09  -0.4  0.7644  -0.0292  0.03807  0.03275  -0.01227  -0.08568  0.7518
6.474e+09  -0.1769  0.9177  -0.002597  -0.01343  -0.04874  0.02561  0.2452  0.7595
6.475e+09  0.1525  0.8817  0.01677  -0.008772  -0.02631  -0.0006135  0.4577  0.667
6.476e+09  0.4299  0.7869  0.02701  0.000697  -0.01578  0.01206  0.6475  0.4728
6.478e+09  0.689  0.5725  -0.03262  0.005454  -0.003782  0.0289  0.7309  0.2125
6.479e+09  0.8071  0.3373  0.02042  0.004681  -0.009628  0.007246  0.7746  -0.08631
6.48e+09  0.8552  -0.01682  0.03767  -0.05536  -0.04004  0.01605  0.6406  -0.3547
6.481e+09  0.7999  -0.3094  0.02498  -0.01048  0.03282  0.03379  0.5915  -0.5473
6.482e+09  0.6607  -0.631  -0.002848  -0.05705  0.002015  -0.006914  0.3401  -0.7374
6.484e+09  0.4103  -0.8171  -0.007623  -0.03156  -0.03588  -0.01504  0.08146  -0.7939
6.485e+09  0.1641  -0.8715  -0.03245  -0.008803  0.04779  0.01125  -0.1937  -0.7176
6.486e+09  -0.1457  -0.8818  0.04129  -0.0188  0.009732  -0.005994  -0.4667  -0.6191
6.488e+09  -0.47  -0.7848  -0.022  0.01213  -0.0002408  -0.01237  -0.6991  -0.4647
6.489e+09  -0.7758  -0.5938  -0.02285  0.01003  -0.02715  0.02548  -0.8029  -0.1784
6.49e+09  -0.8356  -0.3209  -0.02108  -0.04873  -0.06126  0.0113  -0.7356  0.08491
6.491e+09  -0.9357  0.01894  -0.008653  -0.02969  -0.008424  0.001659  -0.7051  0.3581
6.492e+09  -0.8623  0.357  0.01013  0.01184  0.02696  0.01657  -0.5172  0.5537
6.494e+09  -0.7171  0.5809  -0.02127  0.03359  -0.02348  0.0476  -0.3006  0.6868
6.495e+09  -0.4195  0.8598  -0.01471  -0.009001  -0.0144  -0.04676  -0.06424  0.7518
6.496e+09  -0.153  0.9538  -0.004095  -0.004417  0.007799  0.0504  0.2333  0.7456
6.498e+09  0.1947  0.9229  -0.01587  -0.009091  -0.004832  -0.01398  0.4436  0.6043
6.499e+09  0.4573  0.787  -0.01834  0.05483  -0.005201  -0.004067  0.6249  0.4401
6.5e+09  0.7431  0.5542  -0.002136  -0.007315  0.01101  -0.0005155  0.7309  0.161
6.501e+09  0.8888  0.2847  -0.004331  -0.008904  -0.03657  -0.01384  0.7717  -0.1102
6.502e+09  0.9373  -0.03221  -0.0271  -0.03104  -0.009106  -0.001773  0.6902  -0.3439
6.504e+09  0.832  -0.4039  -0.01644  0.01701  0.0132  -0.0366  0.5247  -0.5625
6.505e+09  0.6616  -0.5986  0.004342  0.03758  -0.03623  -0.02106  0.2317  -0.6831
6.506e+09  0.3853  -0.8636  -0.0149  0.006829  -0.002496  -0.0003857  -0.0007818  -0.7374
6.508e+09  0.1009  -0.9524  -0.02316  0.02452  0.02509  0.02498  -0.2361  -0.6986
6.509e+09  -0.2211  -0.8858  -0.0006459  0.007161  0.0007398  -0.01334  -0.4695  -0.5877
6.51e+09  -0.5418  -0.827  -0.008648  0.004097  -0.01876  0.02092  -0.64  -0.4182
6.511e+09  -0.789  -0.5573  -0.01592  -0.03296  -0.0573  0.02233  -0.7364  -0.1301
6.512e+09  -0.8996  -0.2452  0.0008821  0.009395  0.01758  0.005978  -0.7442  0.1295
6.514e+09  -0.9466  0.07734  -0.02058  -0.003035  0.02751  -0.0354  -0.6198  0.3436
6.515e+09  -0.8361  0.4331  0.02982  0.02243  0.01669  -0.02929  -0.4627  0.5647
6.516e+09  -0.7044  0.6723  -0.02106  0.0001714  0.004613  0.001676  -0.2563  0.7545
6.518e+09  -0.4139  0.9272  0.00109  0.0314  -0.02162  -0.01762  -0.01846  0.7298
6.519e+09  -0.07125  0.963  -0.03379  -0.03209  0.006818  -0.003094  0.3006  0.6633
6.52e+09  0.2949  0.8817  0.01656  -0.05628  -0.01398  0.04272  0.4935  0.5287
6.521e+09  0.6168  0.7418  -0.007855  -0.01146  -0.001749  -0.03321  0.682  0.3657
6.522e+09  0.8246  0.5344  -0.01647  -0.02075  0.01897  -0.0443  0.7332  0.08138
6.524e+09  0.9359  0.1853  -0.01533  -0.01157  0.008386  0.005411  0.68  -0.1287
6.525e+09  0.9742  -0.1936  0.01687  0.007977  -0.02388  -0.02514  0.6037  -0.4012
6.526e+09  0.8712  -0.5235  0.0009645  -0.02731  -0.0284  -0.01754  0.3945  -0.5574
6.528e+09  0.6167  -0.7467  -0.008477  0.01163  0.01532  0.01796  0.1962  -0.651
6.529e+09  0.3169  -0.925  0.003096  0.02435  -0.00394  -0.03057  -0.04095  -0.6835
6.53e+09  -0.02262  -0.9776  -0.001403  -0.003191  0.007109  -0.07743  -0.277  -0.5997
6.531e+09  -0.3319  -0.9012  0.0003876  -0.01011  0.004592  -0.01998  -0.4599  -0.4414
6.532e+09  -0.6367  -0.7759  -0.04986  -0.01767  -0.02864  0.02021  -0.562  -0.2761
6.534e+09  -0.8959  -0.4141  0.01963  0.01574  0.0001175  -0.0005276  -0.6268  -0.08974
6.535e+09  -0.9811  -0.1324  -0.00229  -0.03086  -0.02105  0.01726  -0.6586  0.09448
6.536e+09  -0.9654  0.1982  0.0202  0.0154  0.003859  0.002321  -0.5568  0.3089
6.538e+09  -0.8656  0.5388  -0.008634  -0.01873  0.02889  0.01695  -0.4125  0.4839
6.539e+09  -0.6125  0.7129  -0.001219  0.01939  0.01239  -0.005491  -0.2763  0.6202
6.54e+09  -0.2626  0.9118  0.01442  0.01686  0.05625  -0.02605  -0.06948  0.7153
6.541e+09  0.04923  0.9828  0.01356  -0.0005295  0.01496  -0.004014  0.1775  0.6425
6.542e+09  0.3722  0.9115  0.01962  0.01141  0.03827  -0.007412  0.3538  0.5391
6.544e+09  0.6296  0.6977  0.003219  0.04286  0.03053  -0.03378  0.5819  0.377
6.545e+09  0.8931  0.3935  -0.02811  -0.00559  -0.04208  0.006506  0.6736  0.1409
6.546e+09  0.973  0.0357  -0.009822  0.01011  0.02003  -0.02684  0.7038  -0.08074
6.548e+09  0.8755  -0.2531  0.03527  -0.02497  0.02184  0.02752  0.6456  -0.2936
6.549e+09  0.7661  -0.5662  0.03402  0.008631  0.01941  -0.03621  0.5079  -0.4935
