# Hz S RI R 50
6.25e+09  -0.3889  0.7955  -0.01506  -0.003224  -0.04271  0.03603  0.168  0.4926
6.251e+09  -0.105  0.925  -0.0135  -0.03119  -0.04147  0.04825  0.3511  0.3861
6.252e+09  0.1609  0.8467  -0.007053  -0.007318  0.0612  -0.009577  0.5197  0.2292
6.254e+09  0.4859  0.6914  0.0148  0.01767  -0.01593  0.0906  0.6453  0.0229
6.255e+09  0.6881  0.5102  0.01161  0.0004894  0.03037  -0.04531  0.6034  -0.2021
6.256e+09  0.8083  0.224  -0.0168  -0.03106  -0.02054  -0.05516  0.4742  -0.4673
6.258e+09  0.8076  -0.0404  -0.008585  -0.01345  -0.01068  0.02799  0.2537  -0.5868
6.259e+09  0.7776  -0.3114  -0.003975  0.03902  0.03932  0.007073  0.0344  -0.6926
6.26e+09  0.5878  -0.6941  -0.01243  0.03358  -0.02421  0.01419  -0.2053  -0.6766
6.261e+09  0.3197  -0.6897  0.0361  0.03538  0.005703  -0.05312  -0.4334  -0.5379
6.262e+09  0.06673  -0.8438  -0.01575  -0.01381  0.002892  0.05187  -0.6061  -0.3627
6.264e+09  -0.2335  -0.8291  0.01716  0.02461  -0.009206  -0.02  -0.6678  -0.1205
6.265e+09  -0.5024  -0.7346  -0.003117  -0.0004108  0.01629  0.0244  -0.7029  0.161
6.266e+09  -0.7073  -0.4459  0.008666  -0.02578  0.02722  -0.01107  -0.5961  0.4053
6.268e+09  -0.8091  -0.2201  0.02698  -0.03612  -0.002014  -0.01534  -0.4501  0.6087
6.269e+09  -0.8263  0.05334  0.005368  -0.03652  0.06146  0.03299  -0.2072  0.7031
6.27e+09  -0.7657  0.3757  0.01078  0.04945  0.04605  0.003648  0.07499  0.7417
6.271e+09  -0.5591  0.5755  0.01425  -0.04126  -0.01167  -0.01997  0.325  0.6686
6.272e+09  -0.3415  0.743  -0.0008887  0.006589  0.03636  -0.003593  0.5325  0.5176
6.274e+09  -0.08546  0.8314  0.01217  0.01616  -0.01453  0.003683  0.6693  0.2894
6.275e+09  0.2274  0.8129  -0.01753  0.02704  -0.04999  -0.002668  0.7443  0.04681
6.276e+09  0.4439  0.7383  0.0009634  -0.003515  0.04448  -0.06127  0.6919  -0.2037
6.278e+09  0.6421  0.4547  0.003801  0.0007991  0.02753  0.0597  0.5859  -0.4723
6.279e+09  0.7718  0.1443  0.04721  -0.02699  -0.001741  -0.06485  0.4254  -0.6442
6.28e+09  0.8518  -0.06806  -0.01248  -0.03381  -0.01147  -0.05663  0.1368  -0.7619
6.281e+09  0.7496  -0.3917  -0.007361  -0.003298  -0.009107  -0.008384  -0.1251  -0.7603
6.282e+09  0.5499  -0.605  0.02333  0.004604  0.002177  -0.02799  -0.3767  -0.6804
6.284e+09  0.3646  -0.7423  0.008891  -0.002154  -0.0372  0.04965  -0.5974  -0.5209
6.285e+09  0.05357  -0.8712  -0.0172  0.01515  -0.03927  0.0006562  -0.716  -0.3064
6.286e+09  -0.2555  -0.8109  0.002785  0.00114  -0.0249  0.05095  -0.8219  -0.01402
6.288e+09  -0.4672  -0.7331  -0.02487  -0.0007822  0.02034  -0.03606  -0.7555  0.2693
6.289e+09  -0.7104  -0.4387  0.03522  0.02316  -0.001923  0.02433  -0.6165  0.5036
6.29e+09  -0.8634  -0.2072  -0.02552  -0.03275  0.01376  0.02187  -0.4054  0.6976
6.291e+09  -0.8127  0.1498  0.001143  -0.003159  0.0457  -0.02498  -0.1478  0.7814
6.292e+09  -0.6871  0.4111  0.001714  -0.003954  -0.02357  -0.01905  0.1322  0.7577
6.294e+09  -0.5989  0.6224  -0.01373  -0.01548  0.05893  0.006389  0.3905  0.7411
6.295e+09  -0.2711  0.7951  0.0189  -0.02434  0.04642  -0.02318  0.6281  0.5313
6.296e+09  -0.006876  0.8725  -0.007039  0.008817  -0.06819  0.03884  0.7486  0.2944
6.298e+09  0.3071  0.8169  0.01039  0.0146  0.0137  -0.001643  0.8371  0.02874
6.299e+09  0.5332  0.6286  0.003102  0.0161  -0.03533  0.02555  0.7849  -0.3006
6.3e+09  0.726  0.465  -0.004998  -0.01548  0.05106  -0.03918  0.6458  -0.5261
6.301e+09  0.8456  0.1169  0.005036  0.007979  0.01716  0.01149  0.4196  -0.7364
6.302e+09  0.8275  -0.1796  -0.02252  -0.01947  0.03562  -0.04248  0.1474  -0.8136
6.304e+09  0.7301  -0.4  0.0324  -0.01247  -0.04116  0.01517  -0.1607  -0.8209
6.305e+09  0.4839  -0.6609  -0.01908  0.01027  -0.0108  -0.03921  -0.4046  -0.7378
6.306e+09  0.257  -0.7936  -0.006501  -0.001863  0.003399  0.0002165  -0.6318  -0.5392
6.308e+09  -0.01672  -0.8681  0.002711  0.02912  -0.06252  -0.02741  -0.814  -0.2936
6.309e+09  -0.3619  -0.8129  0.0187  8.339e-05  0.01862  0.003556  -0.87  -0.02805
6.31e+09  -0.5582  -0.6526  -0.0002052  0.01244  -0.01878  -0.02149  -0.8281  0.2439
6.311e+09  -0.7399  -0.4212  0.0116  0.008507  -0.02004  0.002281  -0.6463  0.5449
6.312e+09  -0.7918  -0.1307  -0.005671  -0.03788  -0.007763  -0.0174  -0.4767  0.7378
6.314e+09  -0.847  0.1599  -0.008144  -0.001741  -0.03005  0.0541  -0.1751  0.8462
6.315e+09  -0.6916  0.4745  0.01888  -0.02333  0.009378  0.04998  0.1256  0.8832
6.316e+09  -0.5307  0.6641  -0.02879  -0.005844  0.01216  0.0154  0.4082  0.7748
6.318e+09  -0.2401  0.7692  0.03531  -0.01853  0.002957  -0.01007  0.6923  0.5712
6.319e+09  0.03847  0.8819  0.003985  -0.00512  0.009941  0.003555  0.8243  0.3124
6.32e+09  0.3063  0.7573  0.005058  0.02088  -0.04668  -0.01595  0.8864  -0.01229
6.321e+09  0.5811  0.6375  -0.003379  -0.01373  -0.01421  0.04226  0.8437  -0.2857
6.322e+09  0.7866  0.3578  0.01347  0.01203  -0.01369  -0.06395  0.7001  -0.561
6.324e+09  0.8317  0.06999  -0.01561  0.01747  0.03129  0.03753  0.4605  -0.7407
6.325e+09  0.8103  -0.2721  -0.06047  0.001666  0.00837  -0.02728  0.155  -0.8871
6.326e+09  0.7393  -0.4767  0.03275  0.0337  0.006181  0.005656  -0.1011  -0.8807
6.328e+09  0.4588  -0.7313  -0.0176  -0.02038  0.03522  -0.009602  -0.4352  -0.7577
6.329e+09  0.1789  -0.8042  -0.00405  -0.01553  0.02646  -0.03731  -0.6686  -0.5898
6.33e+09  -0.08687  -0.8773  -0.004569  0.01679  8.681e-06  8.659e-05  -0.8303  -0.3251
6.331e+09  -0.3624  -0.7614  -0.01804  -0.03799  -0.03828  -0.02314  -0.9163  -0.04649
6.332e+09  -0.6192  -0.6125  -0.02262  -0.01302  -0.008973  -0.006183  -0.8468  0.2708
6.334e+09  -0.795  -0.3347  0.0079  -0.003419  -0.02188  0.006384  -0.7053  0.5744
6.335e+09  -0.8693  -0.0343  -0.01363  8.952e-05  0.004372  0.001727  -0.4978  0.8012
6.336e+09  -0.8399  0.2679  -0.009145  -0.007128  -0.03726  -0.02526  -0.157  0.8387
6.338e+09  -0.6439  0.5431  -0.00748  0.009601  0.01166  -0.01268  0.1102  0.9422
6.339e+09  -0.4668  0.7508  -0.02008  -0.003712  0.0009564  0.02769  0.4491  0.8215
6.34e+09  -0.1633  0.8267  0.01632  -0.00439  -0.03207  -0.01251  0.6353  0.6438
6.341e+09  0.1721  0.8608  -0.02576  -0.004064  0.01329  0.0009705  0.8787  0.336
6.342e+09  0.4252  0.7363  -0.00244  -0.03701  0.01112  -0.02073  0.9076  0.04623
6.344e+09  0.7035  0.5645  0.005537  -0.008559  -0.0003966  0.01719  0.8902  -0.2703
6.345e+09  0.7884  0.2956  0.0252  -0.04314  -0.05392  -0.02967  0.7133  -0.5526
6.346e+09  0.8353  -0.03815  0.0102  0.04374  0.02429  -0.01694  0.5215  -0.7541
6.348e+09  0.7963  -0.3552  -0.00965  0.01157  -0.02173  0.02128  0.197  -0.9461
6.349e+09  0.6759  -0.5756  -0.00375  0.007965  0.02393  0.007999  -0.07256  -0.8943
6.35e+09  0.3898  -0.8644  0.03226  -0.01643  -0.01988  -0.02846  -0.4168  -0.8497
6.351e+09  0.109  -0.8554  -0.0442  -0.02177  -0.02156  -0.01137  -0.6375  -0.6625
6.352e+09  -0.2253  -0.8528  -0.00908  -0.004102  -0.01447  -0.02749  -0.8853  -0.3546
6.354e+09  -0.5023  -0.7294  0.02234  -0.02554  0.007833  0.0825  -0.9444  -0.04511
6.355e+09  -0.7461  -0.5551  0.007095  -0.01692  -0.009916  0.02414  -0.9139  0.2421
6.356e+09  -0.8185  -0.2237  -0.02498  0.00707  0.04014  -0.01081  -0.7614  0.5741
6.358e+09  -0.8677  0.09006  -0.001627  -0.009444  0.02621  -0.02344  -0.5143  0.7654
6.359e+09  -0.7731  0.4141  0.001631  0.01074  0.008174  -0.0381  -0.2382  0.9082
6.36e+09  -0.5494  0.6519  -0.01814  -0.02024  0.01876  0.005989  0.05112  0.9256
6.361e+09  -0.3215  0.8265  0.03246  0.008829  -0.003759  0.0485  0.4119  0.8589
6.362e+09  -0.05274  0.9038  0.02929  0.02565  0.02062  0.002694  0.712  0.6317
6.364e+09  0.2574  0.8831  -0.005745  0.01661  -0.02431  0.00761  0.8734  0.3935
6.365e+09  0.508  0.6938  -0.001382  -0.005569  -0.03003  -0.009861  0.9443  0.1105
6.366e+09  0.7307  0.4561  -0.0003266  -0.02191  -0.000121  0.01452  0.9458  -0.2217
6.368e+09  0.8952  0.1697  0.005708  0.008827  -0.0001485  0.008762  0.7491  -0.5755
6.369e+09  0.8963  -0.09287  0.005467  0.008601  -0.03006  -0.00499  0.5788  -0.7592
6.37e+09  0.7906  -0.4247  -0.001319  0.01088  -0.01739  -0.02392  0.2542  -0.8922
6.371e+09  0.5984  -0.6812  0.009193  0.02519  0.03007  -0.003127  -0.07303  -0.9465
6.372e+09  0.3025  -0.7985  0.0221  0.003636  -0.01037  -0.01091  -0.4007  -0.8509
6.374e+09  -0.02688  -0.888  0.0009327  -0.007008  0.02615  0.01723  -0.6666  -0.6679
6.375e+09  -0.3304  -0.8595  -0.0134  -0.007935  0.02249  0.02713  -0.823  -0.4318
6.376e+09  -0.5841  -0.6628  0.0121  0.01508  -0.01486  -0.01256  -0.9372  -0.09412
6.378e+09  -0.7853  -0.418  -0.03261  -0.05231  0.01162  0.03629  -0.9163  0.1758
6.379e+09  -0.9136  -0.1353  -0.01887  -0.02971  0.02165  -0.009771  -0.7652  0.5223
6.38e+09  -0.8756  0.1817  0.02332  -0.002244  0.02335  0.004942  -0.5634  0.7269
6.381e+09  -0.7748  0.471  0.05073  -0.01961  -0.01405  0.002008  -0.2199  0.8891
6.382e+09  -0.5792  0.7372  -0.01149  0.02376  -0.03233  0.008293  -0.0005368  0.9506
6.384e+09  -0.2581  0.815  -0.07554  -0.03531  0.02188  0.01861  0.3522  0.8626
6.385e+09  -0.001069  0.8951  0.0169  -0.006182  0.04836  0.004516  0.6154  0.6238
6.386e+09  0.3878  0.8345  -0.01999  -0.04547  0.02561  -0.00425  0.8261  0.416
6.388e+09  0.5053  0.7035  -0.01104  0.01733  0.006785  0.0009668  0.878  0.1133
6.389e+09  0.775  0.4321  0.009133  -0.02354  0.01957  0.006507  0.9183  -0.1562
6.39e+09  0.8568  0.1233  -0.008405  0.01511  -0.01384  0.01625  0.7769  -0.5267
6.391e+09  0.8545  -0.1611  0.01813  -0.01401  0.003092  0.01208  0.6164  -0.7664
6.392e+09  0.7414  -0.5265  0.02686  0.02233  -0.0276  -0.04482  0.3252  -0.9117
6.394e+09  0.5716  -0.677  -0.02635  0.003442  -0.0323  -0.01301  -0.03155  -0.9131
6.395e+09  0.2365  -0.8455  -0.01323  -0.01619  -0.0246  0.0185  -0.3245  -0.8497
6.396e+09  -0.1114  -0.9011  -0.01282  -0.02023  0.0187  -0.01857  -0.6205  -0.6786
6.398e+09  -0.4202  -0.8046  -0.01226  -0.02631  -0.02933  0.004973  -0.849  -0.4229
6.399e+09  -0.6595  -0.6427  -0.02354  0.005702  0.02597  -0.02898  -0.919  -0.1313
6.4e+09  -0.807  -0.4156  -0.005555  -0.01583  0.01635  -0.01167  -0.8491  0.1592
6.401e+09  -0.8786  -0.09289  0.02187  -0.02713  -0.02015  -0.03066  -0.7732  0.4626
6.402e+09  -0.8601  0.2341  -0.0314  0.01368  -0.08624  -0.01281  -0.5532  0.7269
6.404e+09  -0.73  0.5019  -0.01977  0.00638  0.005936  -0.02422  -0.288  0.8464
6.405e+09  -0.4968  0.7411  0.002227  0.006401  -0.02371  -0.004622  0.01845  0.8774
6.406e+09  -0.1804  0.8851  -0.01029  0.01513  0.01894  0.04223  0.3012  0.8316
6.408e+09  0.1004  0.8799  -0.003294  0.005462  -0.04598  0.03085  0.5915  0.6999
6.409e+09  0.4219  0.775  0.01825  0.002055  0.02299  -0.02203  0.7798  0.4806
6.41e+09  0.6125  0.6003  0.008898  -0.01407  -0.01389  0.0302  0.8925  0.1774
6.411e+09  0.8217  0.3648  0.01915  -0.005459  0.04961  -0.01703  0.8746  -0.1602
6.412e+09  0.9325  0.03347  -0.042  -0.02346  -0.004511  -0.01797  0.7777  -0.4176
6.414e+09  0.8487  -0.2734  -0.003436  -0.003238  0.001999  0.001042  0.6237  -0.6405
6.415e+09  0.742  -0.4921  -0.02113  -0.03014  0.02673  -0.03768  0.3028  -0.8032
6.416e+09  0.4906  -0.7443  -0.01701  -0.01945  -0.006602  -0.04304  0.03132  -0.8937
6.418e+09  0.2391  -0.8146  -0.006016  -0.002839  0.02731  0.008851  -0.3055  -0.8363
6.419e+09  -0.1416  -0.8829  0.006947  0.02415  -0.007657  0.02076  -0.5436  -0.7023
6.42e+09  -0.3994  -0.7996  0.01889  0.01379  -0.05874  0.01659  -0.7379  -0.4868
6.421e+09  -0.6497  -0.5863  0.001174  0.04291  0.05162  -0.003638  -0.8379  -0.2081
6.422e+09  -0.7486  -0.3508  0.006735  -0.03667  -0.03435  0.04954  -0.8642  0.1462
6.424e+09  -0.8504  -0.05692  0.003543  0.01154  0.08068  -0.05092  -0.7789  0.3729
6.425e+09  -0.823  0.1877  -0.03143  0.02771  -0.004335  -0.03847  -0.598  0.6002
6.426e+09  -0.6927  0.5194  0.008677  0.007128  0.01341  -0.0056  -0.368  0.8264
6.428e+09  -0.4711  0.7001  0.01643  -0.02346  0.02775  0.0318  -0.04516  0.8388
6.429e+09  -0.2186  0.813  -0.03767  0.02042  -0.03451  0.00227  0.251  0.8224
6.43e+09  0.1088  0.8868  -0.01902  -0.0001088  -0.003127  0.004745  0.522  0.6696
6.431e+09  0.4041  0.7577  -0.01824  -0.006061  0.00214  -0.04645  0.6952  0.4827
6.432e+09  0.6874  0.5557  -0.01971  -0.02485  0.05753  -0.003838  0.8615  0.2523
6.434e+09  0.7892  0.342  -0.02751  -0.0004267  0.04163  0.03569  0.8675  -0.07842
6.435e+09  0.8863  0.06802  -0.02176  -0.0132  0.03885  -0.05953  0.8057  -0.3749
6.436e+09  0.8663  -0.3063  -0.004037  -0.0455  -0.03877  -0.01165  0.5972  -0.6253
6.438e+09  0.723  -0.5066  -0.00582  -0.01621  -0.0217  -0.04254  0.3784  -0.8032
6.439e+09  0.5146  -0.785  -0.04622  0.04628  -0.009316  0.005623  0.06998  -0.8623
6.44e+09  0.1777  -0.8517  0.00554  0.03657  0.02849  0.03067  -0.2316  -0.8174
6.441e+09  -0.1196  -0.8674  0.02558  0.009724  0.0171  0.01774  -0.4878  -0.6648
6.442e+09  -0.4333  -0.7662  -0.01655  -0.04646  0.004582  -0.003347  -0.7215  -0.4984
6.444e+09  -0.6969  -0.5692  -0.02234  0.02993  -0.005411  0.03681  -0.8175  -0.2015
6.445e+09  -0.8506  -0.3469  0.03041  0.01009  0.002657  -0.0264  -0.8322  0.05946
6.446e+09  -0.8695  -0.08045  -0.01039  -0.01307  0.01942  0.01035  -0.7514  0.3481
6.448e+09  -0.8137  0.2864  -0.01451  -0.04377  0.02783  -0.001009  -0.5744  0.6043
6.449e+09  -0.7465  0.571  -0.04935  0.02819  0.05035  0.01155  -0.3857  0.7364
6.45e+09  -0.4353  0.8219  0.04461  -0.01613  -0.007785  -0.013  -0.05433  0.8446
6.451e+09  -0.1946  0.8463  -0.06127  -0.01244  0.03693  -0.02604  0.1883  0.7971
6.452e+09  0.1058  0.7947  -0.01557  0.0484  -0.02922  -0.00847  0.4291  0.7312
6.454e+09  0.4592  0.8084  0.0189  -0.05833  0.04048  -0.01988  0.6192  0.4281
6.455e+09  0.6826  0.5802  -0.02164  -0.02969  0.02422  0.005339  0.8069  0.1824
6.456e+09  0.879  0.3534  -0.03392  -0.01674  0.03617  0.01302  0.8192  -0.1281
6.458e+09  0.9276  0.04559  0.004413  0.0102  0.009652  -0.03654  0.7246  -0.3603
6.459e+09  0.8229  -0.3031  0.05082  -0.002626  -0.002502  0.01766  0.5935  -0.58
6.46e+09  0.7  -0.5707  -0.01052  0.0006756  0.0462  -0.01606  0.3276  -0.7244
6.461e+09  0.4957  -0.8002  0.01196  0.01192  -0.01896  0.002522  0.08518  -0.8598
6.462e+09  0.1273  -0.8836  -0.003146  -0.03235  -0.02567  -0.004977  -0.2404  -0.8013
6.464e+09  -0.1294  -0.8249  0.03569  -0.01351  0.03562  -0.05277  -0.4709  -0.6395
6.465e+09  -0.3715  -0.7856  0.03349  -0.02029  -0.03626  -0.008935  -0.6453  -0.4796
6.466e+09  -0.6404  -0.5849  -0.009448  -0.008322  0.00672  0.02831  -0.7589  -0.1868
6.468e+09  -0.8781  -0.2442  -0.003874  0.03258  0.01206  -0.01235  -0.7862  0.07183
6.469e+09  -0.9003  -0.02697  0.02306  -0.01586  -0.001439  0.03819  -0.7486  0.313
6.47e+09  -0.8586  0.3169  -0.03109  -0.02942  0.03341  0.02869  -0.5631  0.5527
6.471e+09  -0.6562  0.6048  -0.006922  -0.01429  -0.05535  -0.01959  -0.344  0.7169
6.472e+09  -0.3837  0.7949  -0.007637  -0.0009873  -0.00808  -0.01069  -0.0463  0.7439
6.474e+09  -0.134  0.9142  -0.01758  0.003503  -0.01762  0.003187  0.1882  0.7576
6.475e+09  0.1717  0.9012  -0.03846  -0.03551  -0.01615  0.01724  0.4261  0.6779
6.476e+09  0.4312  0.785  -0.0184  -0.00755  0.01915  -0.004314  0.6282  0.473
6.478e+09  0.7462  0.6242  -0.02362  0.03511  0.02349  0.01575  0.7849  0.1502
6.479e+09  0.8786  0.3273  0.02356  -0.02699  -0.01979  -0.02869  0.8015  -0.08301
6.48e+09  0.8968  -0.01605  0.01489  -0.03689  -0.01769  0.03122  0.7028  -0.331
6.481e+09  0.8553  -0.3375  0.001279  -0.01975  0.04169  -0.01349  0.5606  -0.5806
6.482e+09  0.6596  -0.6048  0.0002707  0.02517  -0.0189  -0.01969  0.3098  -0.7168
6.484e+09  0.397  -0.8185  -0.00362  0.01737  0.04436  0.02889  0.1008  -0.7201
6.485e+09  0.1167  -0.8856  0.0409  -0.02907  0.01496  0.0473  -0.2092  -0.723
6.486e+09  -0.2046  -0.9082  -0.02954  0.0005742  -0.02944  -0.007784  -0.451  -0.6469
6.488e+09  -0.5058  -0.7754  0.002844  -0.01247  0.01621  -0.004848  -0.6342  -0.4111
6.489e+09  -0.8053  -0.5096  0.01543  -0.02441  -0.01151  -0.01198  -0.7407  -0.1973
6.49e+09  -0.8496  -0.2324  -0.02019  -0.02279  0.03675  0.01859  -0.7558  0.06095
6.491e+09  -0.8989  0.0715  0.01343  -0.0009151  -0.03035  0.009367  -0.6845  0.3177
6.492e+09  -0.8878  0.341  -0.006682  -0.008423  0.01019  0.008872  -0.5709  0.5699
6.494e+09  -0.6693  0.6409  -0.003224  0.01005  -0.03759  -0.02087  -0.2788  0.685
6.495e+09  -0.4215  0.8144  -0.01539  -0.01372  0.03758  0.005268  -0.04016  0.7665
6.496e+09  -0.1158  0.9388  -0.03347  0.03349  -0.007593  0.03444  0.2357  0.6969
6.498e+09  0.2333  0.8564  -0.008996  -0.003588  0.02902  0.02761  0.4718  0.5852
6.499e+09  0.5039  0.7812  0.01666  -0.03158  0.0123  0.004869  0.6189  0.399
6.5e+09  0.7519  0.5692  -0.01266  0.02291  0.02125  0.02894  0.7514  0.1569
6.501e+09  0.9021  0.2545  0.02567  0.02733  -0.004889  0.05015  0.7316  -0.1105
6.502e+09  0.9231  -0.0824  0.01062  -0.01083  -0.01264  0.0004434  0.6463  -0.328
6.504e+09  0.8335  -0.3566  -0.005895  0.05191  -0.02959  0.01065  0.5282  -0.5195
6.505e+09  0.6769  -0.6378  0.01586  0.009497  0.006568  0.008056  0.3251  -0.6988
6.506e+09  0.4356  -0.835  0.03214  0.008852  0.0001085  -0.01141  0.04868  -0.7614
6.508e+09  0.08483  -1.004  -0.02752  -0.04439  0.01123  0.009677  -0.273  -0.7135
6.509e+09  -0.2707  -0.8791  -0.008406  0.001402  -0.007751  0.004605  -0.5113  -0.6101
6.51e+09  -0.4929  -0.7922  -0.003151  0.04045  -0.006645  -0.02049  -0.6204  -0.4241
6.511e+09  -0.7931  -0.5205  0.02004  -0.01271  -0.005487  0.01248  -0.7309  -0.1303
6.512e+09  -0.9647  -0.1975  0.009916  0.008671  0.02736  0.02227  -0.7748  0.1328
6.514e+09  -0.8966  0.1  -0.01227  0.003134  0.03801  0.004825  -0.699  0.4039
6.515e+09  -0.8691  0.4462  0.0238  0.01805  0.002412  -0.02803  -0.5212  0.5664
6.516e+09  -0.6267  0.6966  0.02787  0.01612  -0.00829  0.01428  -0.2381  0.7135
6.518e+09  -0.351  0.8937  -0.05437  0.01579  0.01391  -0.02742  -0.01885  0.7273
6.519e+09  -0.05238  0.9714  -0.02038  0.006089  -0.02248  -0.03186  0.2861  0.6874
6.52e+09  0.2737  0.8853  -0.02321  -0.02229  0.01337  0.005925  0.5055  0.5407
6.521e+09  0.5912  0.7683  -0.0205  0.02187  0.0005046  0.005678  0.6342  0.3631
6.522e+09  0.8188  0.5468  -0.02394  -0.01478  0.03063  -0.02213  0.7  0.08132
6.524e+09  0.9615  0.1758  -0.02882  0.02739  -0.05382  -0.002116  0.766  -0.1665
6.525e+09  0.9548  -0.1226  -0.007074  -0.002358  -0.01969  0.01844  0.609  -0.4159
6.526e+09  0.8319  -0.4818  -0.03263  0.04852  -0.02367  -0.02957  0.4098  -0.5445
6.528e+09  0.6171  -0.7923  0.03237  0.02431  0.006943  -0.007132  0.1917  -0.6969
6.529e+09  0.3661  -0.934  -0.005828  -0.02664  -0.002233  0.03989  -0.05052  -0.692
6.53e+09  -0.05111  -0.9371  -0.01989  -0.0027  0.001511  0.06501  -0.2778  -0.6022
6.531e+09  -0.3776  -0.8885  -0.0651  0.01471  -0.0188  0.003637  -0.4654  -0.4613
6.532e+09  -0.6739  -0.7106  0.01939  0.008654  0.01521  0.03423  -0.571  -0.2649
6.534e+09  -0.8746  -0.4354  0.02525  -0.02319  0.02148  -0.05283  -0.6214  -0.05027
6.535e+09  -0.9358  -0.06248  0.03838  -0.02491  -0.04006  -0.04524  -0.6508  0.1118
6.536e+09  -0.9371  0.2113  -0.001182  0.01948  -0.01932  0.00572  -0.5548  0.3107
6.538e+09  -0.8169  0.5571  0.0005755  -0.03237  -0.0258  -0.04144  -0.4281  0.4608
6.539e+09  -0.5797  0.8136  0.01099  -0.02296  -0.01802  -0.008864  -0.2771  0.6228
6.54e+09  -0.2516  0.8945  0.02556  -0.02511  0.03289  0.02382  -0.07121  0.6866
6.541e+09  0.0808  0.9642  0.00929  -0.00388  0.001868  -0.02142  0.1831  0.6469
6.542e+09  0.3989  0.9039  0.04226  -0.02042  -0.03518  -0.001345  0.3914  0.6087
6.544e+09  0.6876  0.6645  0.0003572  -0.01643  0.01844  -0.02855  0.5783  0.4111
6.545e+09  0.9316  0.3927  -0.01391  0.009354  -0.008754  0.01478  0.7163  0.2048
6.546e+09  0.9415  0.05123  0.02297  0.004279  0.0347  -0.03212  0.7018  -0.05815
6.548e+09  0.9433  -0.3102  -0.001256  0.01935  -0.01382  -0.0009578  0.6395  -0.3079
6.549e+09  0.7309  -0.5618  0.0237  0.02794  -0.006582  -0.002403  0.5273  -0.5506
6.55e+09  0.5128  -0.8397  -0.01544  0.007593  0.00991  0.02166  0.2518  -0.6709
