# Hz S RI R 50
6.25e+09  -0.3306  0.7799  0.006801  0.007441  -0.04108  -0.002695  0.1843  0.4675
6.251e+09  -0.02449  0.8404  0.01853  -0.02627  -0.05888  0.02995  0.391  0.4222
6.252e+09  0.3013  0.838  -0.02658  -0.005384  -0.04388  0.02502  0.5285  0.2848
6.254e+09  0.4927  0.6581  0.005194  0.003111  -0.04079  -0.03567  0.5971  0.02815
6.255e+09  0.6859  0.4679  0.02012  -0.02195  0.04763  -0.01963  0.5879  -0.2516
6.256e+09  0.8307  0.2351  0.04239  0.0002881  0.004477  0.02658  0.4717  -0.4196
6.258e+09  0.8768  -0.1422  -0.01457  -0.01994  0.01334  0.03577  0.2621  -0.5737
6.259e+09  0.7985  -0.4708  -0.029  0.004042  -0.0153  0.02937  0.07043  -0.6246
6.26e+09  0.5818  -0.6429  -0.009938  -0.0003937  0.0004407  -0.002381  -0.2231  -0.6603
6.261e+09  0.3264  -0.7626  0.004545  0.02137  0.02158  -0.02508  -0.451  -0.5511
6.262e+09  0.01159  -0.7968  0.01618  0.01276  -0.02851  0.01046  -0.6319  -0.3458
6.264e+09  -0.2894  -0.7624  -0.01356  0.007382  0.01959  0.004583  -0.7409  -0.1551
6.265e+09  -0.5596  -0.605  -0.005459  0.009701  -0.02784  -0.02035  -0.6915  0.1492
6.266e+09  -0.6999  -0.4242  -0.004976  -0.008191  0.01684  -0.02917  -0.6143  0.4034
6.268e+09  -0.781  -0.1588  0.007714  -0.04434  0.03199  -0.03835  -0.4478  0.5906
6.269e+09  -0.8227  0.1003  0.0258  0.002667  0.02965  -0.002882  -0.1791  0.7088
6.27e+09  -0.7003  0.4118  -0.004872  0.01081  0.02137  0.06078  0.039  0.7307
6.271e+09  -0.568  0.6169  -0.009528  0.01987  -0.01842  0.03152  0.334  0.6434
6.272e+09  -0.2357  0.7705  -0.00952  0.001988  -0.02704  -0.03388  0.5215  0.5434
6.274e+09  -0.05117  0.8308  0.008875  0.0023  -0.0004853  0.007685  0.6858  0.3045
6.275e+09  0.317  0.7142  0.02824  -0.008077  -0.04567  -0.01046  0.7308  0.06632
6.276e+09  0.5549  0.5652  0.02453  0.001184  -0.01658  0.01801  0.7297  -0.203
6.278e+09  0.7066  0.4268  -0.02184  0.03943  -0.05219  0.01138  0.613  -0.4615
6.279e+09  0.8141  0.1184  0.007501  -0.002569  0.04807  0.0358  0.3635  -0.6728
6.28e+09  0.7536  -0.1984  -0.01714  -0.02133  -0.01216  0.0159  0.1757  -0.7514
6.281e+09  0.7555  -0.4064  -0.011  -0.01348  -0.04319  0.03564  -0.09488  -0.7598
6.282e+09  0.5637  -0.6254  -0.007659  -0.01367  0.004242  0.003605  -0.3503  -0.6707
6.284e+09  0.3107  -0.7464  0.0441  -0.01053  -0.01382  -0.0567  -0.6268  -0.5001
6.285e+09  0.01633  -0.8142  0.02683  -0.0199  -0.05001  -0.0295  -0.7649  -0.2901
6.286e+09  -0.3306  -0.7469  -0.004107  0.0257  0.01434  -0.009404  -0.8003  -0.03475
6.288e+09  -0.5666  -0.6386  -0.01255  -0.006721  0.02978  -0.03032  -0.7528  0.2577
6.289e+09  -0.7385  -0.3804  -0.04806  -0.02481  -0.02793  -0.04084  -0.6293  0.4937
6.29e+09  -0.8484  -0.1453  0.001596  0.02906  0.0553  -0.001934  -0.431  0.721
6.291e+09  -0.8107  0.1551  0.01409  -0.02114  0.02728  0.02419  -0.15  0.818
6.292e+09  -0.7153  0.3931  0.02808  -0.01566  0.03598  -0.02508  0.1222  0.7749
6.294e+09  -0.5387  0.6911  -0.0188  -0.0001459  -0.03458  -0.02253  0.3392  0.7095
6.295e+09  -0.266  0.7945  -0.02575  -0.0119  -0.007773  -0.06159  0.6226  0.5325
6.296e+09  0.0736  0.8631  0.01677  0.03856  -0.005852  0.0742  0.7878  0.3005
6.298e+09  0.3007  0.7476  -0.00826  0.02951  0.0176  -0.007556  0.8479  0.008921
6.299e+09  0.5986  0.6282  0.001047  -0.02703  0.01522  -0.00522  0.8114  -0.2819
6.3e+09  0.7278  0.3767  0.006738  -0.02115  0.01756  -0.01607  0.665  -0.484
6.301e+09  0.831  0.04643  0.01664  -0.00724  -0.02243  0.04482  0.4251  -0.717
6.302e+09  0.8083  -0.2111  -0.01337  0.01215  0.01262  0.009674  0.1627  -0.7999
6.304e+09  0.6635  -0.4722  -0.02446  0.02602  -0.02536  0.05644  -0.1348  -0.839
6.305e+09  0.456  -0.6624  0.00353  0.02838  0.03026  -0.03322  -0.4007  -0.7352
6.306e+09  0.2123  -0.833  0.001724  -0.01536  0.06368  0.007867  -0.6505  -0.5689
6.308e+09  -0.1187  -0.8639  -0.0112  0.02365  0.02436  0.0007871  -0.7745  -0.3278
6.309e+09  -0.366  -0.7308  -0.01355  -0.007872  -0.01213  0.04246  -0.8619  -0.03955
6.31e+09  -0.6164  -0.5387  -0.02123  0.02859  -0.02535  0.002229  -0.793  0.3167
6.311e+09  -0.6923  -0.3321  0.006704  -0.03167  0.04923  -0.03246  -0.6701  0.5713
6.312e+09  -0.8026  -0.05716  -0.02134  -0.007702  0.0008962  -0.0131  -0.453  0.7549
6.314e+09  -0.7953  0.2441  -0.03552  0.02153  0.05568  0.00575  -0.1833  0.8501
6.315e+09  -0.6475  0.5134  0.01131  0.01145  -0.03451  0.007243  0.1242  0.8287
6.316e+09  -0.4286  0.6663  -0.005469  -0.0007837  -0.03305  0.03127  0.4399  0.7941
6.318e+09  -0.1876  0.8614  -0.002274  -0.007273  -0.03593  -0.02208  0.6728  0.5459
6.319e+09  0.1417  0.8142  -0.021  -0.002262  -0.01295  0.0293  0.8283  0.3008
6.32e+09  0.4211  0.7809  0.03443  -0.01939  0.01577  -0.00581  0.8746  0.04113
6.321e+09  0.6729  0.5284  0.0001506  -0.005945  -0.01186  -0.03101  0.8253  -0.2886
6.322e+09  0.7942  0.2772  0.01628  0.002109  -0.02138  -0.02398  0.6923  -0.5555
6.324e+09  0.8513  0.002113  -0.01314  0.01467  0.02788  -0.006202  0.4646  -0.759
6.325e+09  0.8043  -0.3383  0.005286  -0.01704  0.01762  -0.003374  0.1841  -0.8905
6.326e+09  0.6446  -0.5698  0.02095  -0.02967  -0.001129  0.02656  -0.1326  -0.8847
6.328e+09  0.4203  -0.7286  -0.02047  -0.0001193  0.007374  0.05534  -0.4118  -0.8036
6.329e+09  0.1224  -0.8348  -0.01765  0.002967  -0.05109  -0.003576  -0.6788  -0.5904
6.33e+09  -0.1594  -0.8712  -0.009649  0.0002327  0.01818  -0.01143  -0.8417  -0.3569
6.331e+09  -0.4427  -0.7592  0.01078  -0.003284  0.003436  0.02708  -0.8796  -0.0156
6.332e+09  -0.6691  -0.5217  0.002192  0.007991  0.01053  0.004535  -0.8314  0.2525
6.334e+09  -0.896  -0.2996  -0.009285  0.02687  -0.01361  -0.01628  -0.7257  0.5788
6.335e+09  -0.8532  0.00662  -0.02242  -0.01929  -0.01732  -0.06653  -0.5114  0.7629
6.336e+09  -0.7861  0.3064  -0.01523  -0.004942  -0.01345  -0.06901  -0.2205  0.8879
6.338e+09  -0.6819  0.6522  0.01619  -0.00358  -0.02819  0.0218  0.1229  0.8946
6.339e+09  -0.374  0.753  0.01186  0.02123  -0.03297  0.01383  0.4075  0.8332
6.34e+09  -0.0655  0.8878  0.005037  -0.03282  -0.009142  -0.02697  0.6709  0.5912
6.341e+09  0.2246  0.8524  0.004943  -0.02156  0.0009643  0.01073  0.8686  0.3796
6.342e+09  0.5255  0.698  0.01983  -0.03855  -0.0182  -0.00653  0.915  0.02622
6.344e+09  0.7503  0.5211  -0.01992  0.01817  -0.008539  -0.02589  0.9006  -0.2283
6.345e+09  0.784  0.2468  0.03428  -0.02304  -0.02726  0.01845  0.7424  -0.5805
6.346e+09  0.8952  -0.08604  0.01653  -0.01758  -0.02148  0.02696  0.4907  -0.7816
6.348e+09  0.7637  -0.3955  -0.003089  -0.01982  0.007128  -0.03308  0.2127  -0.9545
6.349e+09  0.6146  -0.6301  -0.003489  -0.01954  0.02198  0.004215  -0.08957  -0.9466
6.35e+09  0.3606  -0.7856  0.01794  -0.03788  0.001493  0.009059  -0.4458  -0.8424
6.351e+09  0.08856  -0.8554  -0.001897  -0.005998  -0.009389  -0.005207  -0.6994  -0.6409
6.352e+09  -0.2747  -0.814  0.005596  -0.01435  -0.001953  -0.003721  -0.8359  -0.3482
6.354e+09  -0.5597  -0.6759  0.01729  -0.02735  0.0004565  0.009225  -0.9415  -0.05553
6.355e+09  -0.7471  -0.4273  0.005527  -0.02399  0.01453  -0.01056  -0.9118  0.2342
6.356e+09  -0.899  -0.2041  -0.003673  0.005746  -0.00863  -0.01033  -0.7521  0.5101
6.358e+09  -0.8723  0.1405  0.0211  0.01506  0.008181  0.01023  -0.522  0.8024
6.359e+09  -0.761  0.4128  0.01878  0.02629  -0.07845  -0.02813  -0.2249  0.9039
6.36e+09  -0.5834  0.669  -0.004538  0.005621  0.05704  0.01332  0.05057  0.9902
6.361e+09  -0.2764  0.8221  0.003824  0.006364  0.006882  0.03266  0.3715  0.836
6.362e+09  0.0539  0.8753  -0.001381  -0.005445  0.01254  -0.007571  0.6751  0.6336
6.364e+09  0.3274  0.8602  -0.05291  -0.01245  0.01963  0.0373  0.8865  0.4014
6.365e+09  0.5727  0.6391  0.02018  -0.01482  -0.03732  0.02912  0.9335  0.1007
6.366e+09  0.8342  0.3563  -0.02391  -0.02588  -0.006789  0.00607  0.9252  -0.2677
6.368e+09  0.8835  0.09805  -0.03627  -0.01175  0.0005078  -0.008806  0.753  -0.5797
6.369e+09  0.8801  -0.1825  -0.005497  0.002876  -0.01997  0.007538  0.554  -0.7929
6.37e+09  0.756  -0.5237  0.03622  -0.02499  -0.03043  0.01228  0.2407  -0.8934
6.371e+09  0.5352  -0.6929  -0.02271  -0.02565  -0.009172  0.0169  -0.0519  -0.9905
6.372e+09  0.2789  -0.8887  0.006151  0.0128  0.01919  -0.01643  -0.4133  -0.8342
6.374e+09  -0.08187  -0.8846  0.03588  0.02169  0.07911  0.02949  -0.643  -0.6759
6.375e+09  -0.3987  -0.8118  0.04763  0.003003  -0.07325  0.02632  -0.8689  -0.4226
6.376e+09  -0.6047  -0.614  0.02334  -0.006831  0.00547  -0.02847  -0.9234  -0.06907
6.378e+09  -0.842  -0.3709  -0.04271  -0.01415  0.005006  0.003819  -0.9206  0.24
6.379e+09  -0.882  -0.09048  0.001005  0.0311  -0.06233  -0.01042  -0.7813  0.5193
6.38e+09  -0.8229  0.2456  -0.01256  0.001341  0.04454  0.0272  -0.5407  0.764
6.381e+09  -0.7191  0.5256  0.0009776  -0.0219  0.02029  -0.001959  -0.2493  0.8777
6.382e+09  -0.5183  0.8054  -0.03424  0.01998  -0.002154  0.01047  0.09922  0.9385
6.384e+09  -0.2483  0.9127  -0.01114  0.03049  -0.01827  0.005845  0.3803  0.8481
6.385e+09  0.117  0.8903  -0.03396  -0.005261  -0.0013  0.03043  0.5983  0.6919
6.386e+09  0.4076  0.7174  -0.039  0.002704  0.02043  0.002825  0.8255  0.421
6.388e+09  0.6131  0.6376  0.004413  0.01286  -0.008649  -0.02982  0.919  0.1482
6.389e+09  0.8368  0.3649  0.01191  -0.03101  -0.03485  0.006981  0.9169  -0.1998
6.39e+09  0.9324  0.002021  -0.001958  -0.01133  0.01003  -0.01611  0.7929  -0.5147
6.391e+09  0.8358  -0.2568  0.01706  -0.01318  -0.01176  0.008601  0.5767  -0.735
6.392e+09  0.7314  -0.5397  0.02152  0.004968  0.0078  -0.03369  0.234  -0.865
6.394e+09  0.5127  -0.7431  0.03078  -0.02635  -0.04077  -0.006492  -0.01509  -0.9543
6.395e+09  0.1726  -0.8368  -0.01272  0.005427  0.02268  -0.01809  -0.3385  -0.8871
6.396e+09  -0.1232  -0.8834  0.019  -0.03478  0.03879  0.02509  -0.6152  -0.724
6.398e+09  -0.4454  -0.749  -0.01482  -0.02845  0.03437  -0.0166  -0.7696  -0.4202
6.399e+09  -0.6923  -0.5837  0.03674  0.0199  0.02562  0.005468  -0.8718  -0.126
6.4e+09  -0.8723  -0.299  -0.03385  -0.03255  0.02114  -0.01969  -0.8629  0.1289
6.401e+09  -0.9056  -0.01  -0.02975  0.00847  -0.01571  0.02624  -0.7982  0.5315
6.402e+09  -0.8544  0.319  -0.04163  -0.01617  -0.02592  -0.00572  -0.5938  0.7413
6.404e+09  -0.6827  0.5439  0.01859  -0.02845  -0.04129  0.02652  -0.326  0.8401
6.405e+09  -0.4083  0.745  0.01128  0.01573  0.02692  -0.01203  -0.02343  0.9565
6.406e+09  -0.1437  0.8899  0.02308  0.01596  -0.02057  0.02582  0.2963  0.8536
6.408e+09  0.1654  0.8467  -0.0235  -0.01556  0.03577  -0.03026  0.6026  0.719
6.409e+09  0.4195  0.7703  0.02433  -0.05182  -0.009995  0.03483  0.7535  0.46
6.41e+09  0.6826  0.5765  -0.01741  -0.005112  0.02847  -0.07757  0.9155  0.1603
6.411e+09  0.833  0.3541  -0.02256  0.04101  -0.02703  -0.002312  0.8302  -0.1144
6.412e+09  0.8497  -0.02097  0.009769  -0.0365  0.003829  0.01449  0.7768  -0.4603
6.414e+09  0.846  -0.3427  0.02494  -0.003531  0.005488  -0.03414  0.5987  -0.6547
6.415e+09  0.6513  -0.5638  -0.01459  -0.004671  0.008934  0.01845  0.3581  -0.8087
6.416e+09  0.4435  -0.7406  0.03057  0.0001652  0.000917  0.01767  0.01786  -0.8681
6.418e+09  0.1318  -0.8343  -0.006666  -0.005909  0.005762  0.07155  -0.3151  -0.8186
6.419e+09  -0.1844  -0.8928  -0.005759  0.001347  -0.004067  -0.004845  -0.6012  -0.7054
6.42e+09  -0.4631  -0.7828  0.02233  0.02496  -0.01244  -0.04337  -0.7961  -0.4775
6.421e+09  -0.7247  -0.546  0.01219  0.02187  -0.0078  -0.00883  -0.8616  -0.1687
6.422e+09  -0.803  -0.3003  -0.003258  -0.01101  -0.005349  -0.02407  -0.8394  0.1299
6.424e+09  -0.8677  -0.02354  -0.05593  0.01882  -0.009416  0.05998  -0.7921  0.4073
6.425e+09  -0.7905  0.3508  -0.01049  0.01809  -0.02094  -0.00238  -0.5881  0.6836
6.426e+09  -0.6436  0.5679  -0.01637  0.03136  0.004431  0.01268  -0.328  0.7957
6.428e+09  -0.454  0.759  0.01377  0.003027  -0.01771  0.002491  -0.06082  0.8841
6.429e+09  -0.1066  0.8619  -0.008301  0.01521  -0.002803  -0.01546  0.2668  0.8437
6.43e+09  0.1746  0.8299  -0.009857  -0.006958  0.03242  -0.02226  0.4889  0.7011
6.431e+09  0.5139  0.7329  0.03024  0.0374  0.05598  0.003894  0.7294  0.523
6.432e+09  0.6671  0.5363  -0.04688  -0.04981  -0.0485  0.02944  0.8452  0.2063
6.434e+09  0.8502  0.2381  -0.01254  0.02078  -0.01961  0.02839  0.8366  -0.1358
6.435e+09  0.9228  -0.05713  -0.02453  -0.02851  -0.002724  -0.03362  0.7585  -0.4086
6.436e+09  0.7465  -0.3864  -0.02301  -0.0009025  0.06614  -0.02034  0.5794  -0.6448
6.438e+09  0.6749  -0.5831  0.02568  -0.03017  -0.01047  -0.022  0.4149  -0.7312
6.439e+09  0.418  -0.7994  -0.009984  -0.01948  0.01373  0.01613  0.05539  -0.8572
6.44e+09  0.04167  -0.8765  -0.007477  -0.02623  0.01989  -0.0354  -0.23  -0.8113
6.441e+09  -0.2254  -0.8838  -0.00652  -0.05378  0.002744  -0.01535  -0.5232  -0.6715
6.442e+09  -0.4565  -0.7268  -0.05915  -0.004386  0.02648  0.02184  -0.7184  -0.4859
6.444e+09  -0.6891  -0.5195  -0.03106  -0.008321  -0.01552  0.04361  -0.79  -0.252
6.445e+09  -0.869  -0.2775  0.01542  -0.01308  -3.876e-05  -0.06051  -0.8561  0.05363
6.446e+09  -0.9241  0.02759  -0.0004117  -0.003081  -0.003263  0.004852  -0.7648  0.3824
6.448e+09  -0.7799  0.3623  0.002876  -0.07139  -0.02557  0.02216  -0.6052  0.5714
6.449e+09  -0.6051  0.578  0.03081  0.05216  -0.02055  -0.03992  -0.3534  0.7629
6.45e+09  -0.4099  0.7551  -0.005733  -0.02543  -0.005106  0.0274  -0.1072  0.817
6.451e+09  -0.1586  0.9139  -0.005428  -0.00244  0.01436  -0.04046  0.1974  0.7748
6.452e+09  0.2289  0.8828  0.01514  0.06178  -0.01051  0.009997  0.4907  0.6777
6.454e+09  0.4922  0.7843  0.07281  -0.007987  0.02416  -0.008205  0.685  0.4621
6.455e+09  0.7552  0.5458  -0.02926  0.02176  0.03138  -0.03641  0.7696  0.2585
6.456e+09  0.8411  0.2525  -0.02216  0.03691  -0.0122  0.00998  0.7941  -0.06857
6.458e+09  0.8972  -0.009449  0.02698  0.0363  -0.01005  -0.02088  0.8088  -0.3251
6.459e+09  0.8111  -0.3436  -0.001968  0.06888  -3.752e-05  0.02878  0.5525  -0.577
6.46e+09  0.6277  -0.6689  0.0007646  0.01542  -0.05137  0.003248  0.356  -0.7578
6.461e+09  0.4409  -0.8227  0.0007388  -0.04233  0.02089  0.01139  0.07854  -0.8148
6.462e+09  0.1105  -0.8765  -0.03148  0.001944  0.005157  0.00761  -0.1896  -0.8524
6.464e+09  -0.2336  -0.8821  -0.008945  -0.02409  0.006971  -0.00571  -0.5242  -0.6812
6.465e+09  -0.4993  -0.7615  0.006983  0.006192  0.03094  -0.01585  -0.5952  -0.4332
6.466e+09  -0.787  -0.5477  -0.02069  0.01511  0.0009726  -0.0005902  -0.7561  -0.2446
6.468e+09  -0.8786  -0.2401  0.02377  -0.01825  -0.02878  -0.002329  -0.7853  0.09056
6.469e+09  -0.9367  0.08869  -0.01624  -0.04737  0.05857  0.06181  -0.7293  0.3302
6.47e+09  -0.836  0.4343  0.01651  -0.0062  -0.02804  0.0337  -0.5679  0.6142
6.471e+09  -0.608  0.6742  -0.05311  -0.02824  0.01462  -0.01309  -0.3075  0.7264
6.472e+09  -0.3457  0.8795  -0.006515  0.001181  -0.006027  0.003392  -0.06611  0.7635
6.474e+09  -0.1017  0.8812  0.00662  -0.01426  0.005706  -0.0101  0.2159  0.7622
6.475e+09  0.2186  0.9064  -0.01017  0.00142  -0.01631  0.003289  0.4388  0.6512
6.476e+09  0.5066  0.7686  0.01182  -0.01375  -0.00734  -0.0009244  0.6528  0.4921
6.478e+09  0.7781  0.5557  0.01147  0.002653  0.04371  -0.03128  0.7423  0.2052
6.479e+09  0.9158  0.2506  -0.01922  -0.02084  0.03987  0.01886  0.7744  -0.06267
6.48e+09  0.9299  -0.1223  0.002002  -0.05502  0.01658  -0.006938  0.6827  -0.295
6.481e+09  0.7964  -0.4338  0.00282  0.01157  -0.00125  0.008672  0.5312  -0.6093
6.482e+09  0.6264  -0.6541  0.05694  -0.01589  -0.007403  -0.003954  0.329  -0.6725
6.484e+09  0.312  -0.8194  -0.01925  -0.00359  -0.008206  -0.02652  0.04677  -0.7588
6.485e+09  0.08976  -0.9056  -0.01655  -0.007965  -0.009824  -0.01072  -0.2267  -0.7784
6.486e+09  -0.2764  -0.8978  -0.02656  -0.005082  0.0157  -0.007241  -0.4711  -0.6554
6.488e+09  -0.5656  -0.7466  -0.006867  -0.01034  0.00761  0.04293  -0.6598  -0.4475
6.489e+09  -0.8421  -0.5224  0.00514  -0.005017  0.02247  0.05258  -0.7644  -0.1673
6.49e+09  -0.8854  -0.1734  0.0006743  -0.01587  -0.01551  -0.02848  -0.7361  0.05035
6.491e+09  -0.8981  0.1227  -0.03508  -0.02491  0.02273  -0.03268  -0.6692  0.3367
6.492e+09  -0.8354  0.4728  0.02536  0.04228  -0.04359  -0.01454  -0.5102  0.5479
6.494e+09  -0.632  0.706  -0.007799  -0.0007554  -0.01405  0.05984  -0.3306  0.6825
6.495e+09  -0.3265  0.8596  -0.002763  0.01175  0.04265  0.03306  -0.08091  0.7789
6.496e+09  -0.01098  0.9408  -0.01011  0.003479  0.002141  -0.02647  0.2349  0.7597
6.498e+09  0.3175  0.8565  -0.004853  -0.02885  -0.00797  -0.03217  0.4614  0.5807
6.499e+09  0.5846  0.7563  -0.01796  -0.009359  0.004757  0.05953  0.6761  0.3775
6.5e+09  0.8183  0.4405  -0.007237  -0.01175  0.01696  0.003587  0.7474  0.1569
6.501e+09  0.9316  0.2373  0.002542  -0.009532  -0.04001  0.00406  0.756  -0.09699
6.502e+09  0.948  -0.1177  0.002719  -0.03903  0.005096  0.00479  0.6592  -0.3297
6.504e+09  0.8228  -0.4353  0.0008627  -0.003712  0.01593  0.00241  0.4939  -0.5644
6.505e+09  0.6467  -0.7472  0.06265  -0.02554  -0.003681  -0.001633  0.3064  -0.7296
6.506e+09  0.3795  -0.8934  0.003448  0.01338  0.04865  0.05515  0.04649  -0.7971
6.508e+09  -0.02102  -0.9477  -0.01252  0.02166  -0.003961  0.008418  -0.2394  -0.7519
6.509e+09  -0.355  -0.8992  -0.009366  -0.00137  0.01035  0.04719  -0.5013  -0.6023
6.51e+09  -0.6271  -0.751  -0.007878  0.0422  0.01195  -0.03523  -0.6289  -0.3644
6.511e+09  -0.879  -0.4454  0.02128  0.04693  0.03858  -0.04462  -0.7781  -0.1383
6.512e+09  -0.922  -0.03128  -0.03556  -0.003044  -0.01236  -0.01203  -0.7154  0.117
6.514e+09  -0.9605  0.2729  0.006668  0.006109  -0.033  -0.04874  -0.66  0.3644
6.515e+09  -0.785  0.5151  -0.00841  -0.01273  -0.008631  0.01811  -0.4568  0.5988
6.516e+09  -0.6031  0.7576  -0.005136  0.007673  -0.008123  -0.04286  -0.2843  0.7003
6.518e+09  -0.3005  0.9019  0.04664  0.01635  0.02435  0.06274  0.02509  0.7347
6.519e+09  0.05799  0.9432  0.01469  -0.0111  0.0477  -0.01513  0.2631  0.6393
6.52e+09  0.3714  0.9018  -0.02756  -0.02505  0.0121  0.02565  0.446  0.5938
6.521e+09  0.6693  0.6882  0.02669  0.02279  -0.02968  -0.031  0.6541  0.3731
6.522e+09  0.8322  0.4216  0.007827  -0.03968  0.02248  0.01472  0.7528  0.07246
6.524e+09  0.9531  0.06961  0.01702  -0.009376  0.0664  -0.0005902  0.7115  -0.1578
6.525e+09  0.9503  -0.2789  0.03181  0.006738  0.001897  0.02846  0.6251  -0.3795
6.526e+09  0.7761  -0.5547  -0.006554  0.01935  0.03411  0.007422  0.4075  -0.5674
6.528e+09  0.5057  -0.7891  0.0234  0.001069  0.03958  0.03921  0.1822  -0.6921
6.529e+09  0.17  -0.9713  -0.01256  0.002483  -0.02147  -0.01751  -0.06133  -0.674
6.53e+09  -0.1552  -0.9863  0.007551  -0.01855  0.02844  -0.001853  -0.2736  -0.5994
6.531e+09  -0.4484  -0.9067  4.045e-05  0.02296  0.01141  0.02089  -0.4548  -0.4677
6.532e+09  -0.6909  -0.6811  0.02427  0.01152  -0.01162  0.04613  -0.5889  -0.3232
6.534e+09  -0.922  -0.3481  -0.0216  -0.04647  0.04736  0.01514  -0.6434  -0.09324
6.535e+09  -0.9746  0.03866  -0.005045  -0.02271  0.02618  0.04545  -0.601  0.08007
6.536e+09  -0.8933  0.2717  -0.02293  -0.009249  0.05069  0.0366  -0.5445  0.3247
6.538e+09  -0.7444  0.6154  -0.01365  0.02885  0.02521  -0.007302  -0.4193  0.4773
6.539e+09  -0.4752  0.849  0.04313  -0.01678  -0.0008108  -0.001796  -0.2605  0.6308
6.54e+09  -0.1605  1.008  0.03564  0.01645  0.01919  0.01351  -0.04362  0.6379
6.541e+09  0.205  0.9636  -0.01602  0.02682  0.01785  0.02947  0.1809  0.6636
6.542e+09  0.5081  0.8285  -0.007261  -0.003047  0.0326  -0.00847  0.4202  0.5494
6.544e+09  0.7596  0.6183  -0.002226  -0.01395  0.04009  -0.03181  0.5869  0.391
6.545e+09  0.9147  0.3027  -0.00359  0.01011  0.001742  0.003629  0.6862  0.18
6.546e+09  0.9834  -0.04902  -0.04105  0.02861  0.02176  0.03842  0.7005  -0.02783
6.548e+09  0.9102  -0.4068  -0.02958  -0.02623  0.0008405  -0.0218  0.6568  -0.3237
6.549e+09  0.7205  -0.6674  -0.00319  -0.003738  -0.05257  -0.0002345  0.5062  -0.5407
6.55e+09  0.4215  -0.8939  -0.02288  0.03135  0.006831  0.008482  0.2896  -0.6708
