# Hz S RI R 50
6.25e+09  0.7786  -0.2543  0.01486  0.01196  0.02528  0.02579  0.1411  0.4492
6.251e+09  0.7106  -0.4681  -0.02364  0.003336  -0.03928  0.001181  0.3733  0.3837
6.252e+09  0.4493  -0.684  0.03272  0.01027  0.009562  -0.04461  0.5582  0.2413
6.254e+09  0.1808  -0.7984  0.009577  0.01596  0.001552  0.02661  0.5905  0.001448
6.255e+09  -0.106  -0.8172  0.0003116  -0.02436  0.05138  0.02922  0.6039  -0.2414
6.256e+09  -0.3551  -0.712  -0.01163  0.01403  -0.07475  0.03275  0.4709  -0.4493
6.258e+09  -0.6432  -0.4897  0.03187  0.0143  0.03117  -0.01694  0.2639  -0.5955
6.259e+09  -0.7506  -0.2424  -0.03877  0.006144  0.009914  0.02399  0.06022  -0.6559
6.26e+09  -0.7734  0.05503  0.0008639  -0.0123  -0.02241  -0.000667  -0.1928  -0.6729
6.261e+09  -0.6844  0.3399  -0.002735  -0.001259  -0.01385  -0.03673  -0.4398  -0.5693
6.262e+09  -0.5126  0.5757  0.03488  0.01765  0.01398  -0.03177  -0.597  -0.3357
6.264e+09  -0.3682  0.7387  -0.02933  -0.01294  0.02738  0.01619  -0.7021  -0.1113
6.265e+09  -0.0666  0.7686  -0.02306  -0.01859  0.04706  -0.04242  -0.7083  0.1869
6.266e+09  0.254  0.7228  -0.001775  0.0398  0.03037  0.006624  -0.5956  0.3467
6.268e+09  0.4287  0.6399  -0.008343  -0.003901  -0.005939  -0.04927  -0.4243  0.5643
6.269e+09  0.6739  0.3834  -0.01005  -0.002925  -0.01599  0.03374  -0.1955  0.7
6.27e+09  0.7984  0.1008  -0.01721  0.03566  0.02989  -0.02575  0.05918  0.711
6.271e+09  0.8151  -0.1419  0.0002925  0.005197  -0.05269  0.007902  0.3438  0.6445
6.272e+09  0.6661  -0.4276  0.005426  0.01024  0.01533  -0.01722  0.5173  0.5209
6.274e+09  0.4484  -0.638  0.006163  -0.02275  0.00775  -0.000955  0.6873  0.3078
6.275e+09  0.2569  -0.7251  -0.01399  0.02071  -0.001788  0.02304  0.7324  0.05016
6.276e+09  -0.02589  -0.7768  -0.01707  -0.01587  -0.0173  -0.01306  0.7213  -0.2351
6.278e+09  -0.3447  -0.714  0.04768  -0.02107  0.02358  0.05351  0.5867  -0.425
6.279e+09  -0.5014  -0.6282  0.01899  -0.0065  -0.02917  -0.02238  0.4204  -0.6231
6.28e+09  -0.7078  -0.2707  0.01279  0.004026  -0.001935  0.02285  0.1655  -0.768
6.281e+09  -0.8016  -0.07648  0.01526  0.03678  -0.005319  0.01632  -0.1075  -0.784
6.282e+09  -0.7273  0.2626  -0.02469  0.00844  -0.02344  0.001014  -0.4046  -0.6926
6.284e+09  -0.6607  0.5463  -0.02377  0.007171  0.0008334  0.05332  -0.6131  -0.5438
6.285e+09  -0.3633  0.7358  -0.01424  0.01753  -0.02129  0.01676  -0.7038  -0.2951
6.286e+09  -0.1161  0.8058  0.00136  0.01631  0.02789  -0.001544  -0.8117  -0.02497
6.288e+09  0.1821  0.8082  -0.001409  -0.02598  -0.007339  -0.02816  -0.7456  0.2482
6.289e+09  0.4098  0.6761  0.02396  -0.01624  0.02549  -0.02237  -0.6118  0.4694
6.29e+09  0.6876  0.4846  -0.008703  0.003786  0.0007429  -0.03783  -0.4239  0.6846
6.291e+09  0.7964  0.2135  0.04087  0.01407  0.01556  -0.007697  -0.1741  0.7911
6.292e+09  0.7902  -0.07186  0.00389  0.01309  0.01546  -0.007272  0.1258  0.7752
6.294e+09  0.6993  -0.3259  0.008567  -0.01764  0.0439  0.02149  0.367  0.7212
6.295e+09  0.5252  -0.6668  0.02091  0.01263  -0.01962  0.02367  0.5984  0.5478
6.296e+09  0.2867  -0.7472  0.01534  -0.005651  0.009328  0.03191  0.7319  0.2694
6.298e+09  0.08148  -0.8036  0.009764  0.01554  -0.01323  0.01436  0.8162  0.005934
6.299e+09  -0.2756  -0.78  0.01918  -0.02166  0.006701  -0.01914  0.7908  -0.2564
6.3e+09  -0.5596  -0.6058  0.008735  -0.01899  -0.0271  0.01779  0.6303  -0.561
6.301e+09  -0.7152  -0.3353  0.01097  0.0007903  0.03111  0.02267  0.4196  -0.7139
6.302e+09  -0.8194  -0.08234  -0.01777  -0.003986  -0.04546  0.01453  0.1545  -0.8183
6.304e+09  -0.8161  0.2027  0.007255  0.003002  -0.02312  -0.04171  -0.1513  -0.8326
6.305e+09  -0.7173  0.4202  -0.005391  0.01108  0.001256  0.05736  -0.4304  -0.7427
6.306e+09  -0.4642  0.638  0.01106  0.02618  -0.0532  0.007313  -0.6316  -0.5537
6.308e+09  -0.2062  0.7723  0.04246  0.003261  0.007454  -0.04108  -0.7866  -0.2746
6.309e+09  0.0734  0.8126  0.03486  0.0006501  -0.003468  0.01971  -0.8469  0.003451
6.31e+09  0.3854  0.7711  0.04792  -0.01631  0.03439  -0.03159  -0.7802  0.2869
6.311e+09  0.6035  0.5279  -0.003914  -0.01962  -0.01371  -0.0278  -0.6696  0.5785
6.312e+09  0.7434  0.2657  -0.01483  -0.02493  0.04047  0.01193  -0.4493  0.7241
6.314e+09  0.7647  0.03912  -0.01516  -0.005066  -0.001687  -0.03786  -0.1635  0.8309
6.315e+09  0.7704  -0.2888  0.007236  -0.02294  0.01023  -0.01973  0.1463  0.8567
6.316e+09  0.5932  -0.5941  0.0226  0.03571  -0.01971  0.02167  0.4384  0.7599
6.318e+09  0.3817  -0.6916  0.004187  -0.003084  0.03143  0.01854  0.6793  0.5447
6.319e+09  0.11  -0.7883  -0.01604  -0.009918  -0.008769  0.01728  0.819  0.326
6.32e+09  -0.1927  -0.7939  0.01225  -0.001515  -0.00288  0.005661  0.8834  0.05445
6.321e+09  -0.4648  -0.6542  0.04009  -0.004603  0.05713  0.01365  0.8633  -0.3095
6.322e+09  -0.6423  -0.4858  0.001244  0.01902  0.004487  -0.01576  0.7021  -0.5659
6.324e+09  -0.8005  -0.1988  0.01081  0.01022  0.00405  -0.06285  0.4329  -0.7617
6.325e+09  -0.7713  0.08569  0.007789  -0.01197  0.01832  -0.007115  0.1655  -0.883
6.326e+09  -0.7268  0.3627  0.01371  -0.01595  0.004267  -0.02118  -0.1641  -0.8803
6.328e+09  -0.5277  0.5814  -0.007998  0.01221  -0.008088  0.007949  -0.4512  -0.8107
6.329e+09  -0.2613  0.787  -0.005347  0.007786  -0.02684  0.03803  -0.6763  -0.5803
6.33e+09  -0.01567  0.8344  0.003452  0.02056  -0.06838  -0.01467  -0.8553  -0.3232
6.331e+09  0.2983  0.7713  -0.02757  0.02804  0.01108  -0.02427  -0.9169  -0.02785
6.332e+09  0.5307  0.6069  -0.03845  -0.004913  -0.02244  0.02567  -0.8255  0.2694
6.334e+09  0.7208  0.4081  0.005373  0.02449  0.00826  0.01109  -0.7392  0.5855
6.335e+09  0.8551  0.06294  0.02646  -0.01459  -0.001356  0.01241  -0.5024  0.7583
6.336e+09  0.8109  -0.1794  0.02405  0.003895  -0.007271  0.03778  -0.2176  0.9078
6.338e+09  0.6624  -0.4935  0.008183  0.01089  0.0358  -0.06477  0.09242  0.9195
6.339e+09  0.4951  -0.6782  -0.0169  -0.01731  0.004394  -0.05032  0.3931  0.8335
6.34e+09  0.1769  -0.7978  -0.01829  -0.04604  -0.02483  -0.01899  0.6702  0.594
6.341e+09  -0.1395  -0.8266  0.009276  -0.01151  -0.03098  0.04854  0.8681  0.3582
6.342e+09  -0.4463  -0.7365  -0.01351  0.0418  -0.02085  0.01638  0.9218  0.03075
6.344e+09  -0.6245  -0.5173  -0.01782  0.01058  0.0004922  -0.01335  0.893  -0.2758
6.345e+09  -0.7469  -0.2617  -0.005593  0.004245  -0.0126  -0.0139  0.7261  -0.5117
6.346e+09  -0.8274  0.01991  -0.01714  -0.01887  -0.04571  0.02059  0.5297  -0.779
6.348e+09  -0.7098  0.3378  0.01041  0.009476  0.03318  0.03563  0.2219  -0.9141
6.349e+09  -0.588  0.5631  0.01465  0.002329  0.01685  0.01191  -0.1121  -0.9142
6.35e+09  -0.3442  0.7731  0.01767  -0.00967  0.03473  0.02946  -0.4351  -0.8468
6.351e+09  -0.1017  0.8237  -0.03602  -0.009173  -0.01346  0.02829  -0.6471  -0.636
6.352e+09  0.2345  0.7586  0.01265  -0.01732  0.02169  0.01683  -0.8692  -0.4083
6.354e+09  0.4688  0.7073  -0.002583  -0.008055  0.03531  -0.04233  -0.9002  -0.04711
6.355e+09  0.6598  0.4449  0.001243  0.001245  -0.03204  -0.02295  -0.9046  0.2519
6.356e+09  0.7866  0.1478  0.01184  -0.01729  0.02882  0.02006  -0.7497  0.5433
6.358e+09  0.7913  -0.1528  -0.02014  0.003887  0.02917  -0.01516  -0.5313  0.7861
6.359e+09  0.7113  -0.3709  0.01357  0.006993  0.05932  0.01892  -0.2269  0.9134
6.36e+09  0.5246  -0.6579  0.01147  -0.02105  -0.00732  -0.0009301  0.1185  0.9549
6.361e+09  0.3043  -0.7788  0.005359  0.02122  -0.02674  -0.02577  0.4135  0.8295
6.362e+09  -0.02664  -0.8087  0.001403  0.01694  0.006189  0.02743  0.6951  0.6497
6.364e+09  -0.3075  -0.7954  -0.04429  0.009111  0.03714  -0.01787  0.8421  0.3938
6.365e+09  -0.5441  -0.5862  0.02294  -0.01431  0.01378  0.05966  0.9164  0.07033
6.366e+09  -0.762  -0.3772  0.003089  -0.0117  0.008041  0.0139  0.8833  -0.2887
6.368e+09  -0.8498  -0.1022  0.06396  -0.008127  0.0267  -0.02906  0.8084  -0.5365
6.369e+09  -0.8228  0.2237  0.01022  0.00476  0.002074  -0.01889  0.5467  -0.8134
6.37e+09  -0.6664  0.5299  -0.008114  -0.03123  0.005995  -0.01692  0.2777  -0.9352
6.371e+09  -0.3818  0.7264  -0.01188  0.03225  -0.03725  -0.01557  -0.06988  -0.927
6.372e+09  -0.1404  0.8079  -0.04107  0.00609  0.01044  0.01406  -0.3902  -0.859
6.374e+09  0.1733  0.8058  -0.02822  -0.01633  -0.02011  0.002804  -0.6616  -0.6835
6.375e+09  0.4233  0.6915  -0.02838  -0.001305  -0.01318  -0.02834  -0.8424  -0.4181
6.376e+09  0.6553  0.4723  0.03925  0.01651  -0.0142  0.05013  -0.8843  -0.1072
6.378e+09  0.8225  0.2302  0.01542  0.01477  -0.01878  0.002408  -0.8851  0.2331
6.379e+09  0.8233  -0.08748  -0.001018  -0.01848  0.001704  -0.03207  -0.7592  0.5194
6.38e+09  0.7305  -0.3779  -0.006473  0.04645  0.01848  0.01349  -0.5853  0.76
6.381e+09  0.5761  -0.606  0.04023  0.008429  -0.03045  -0.005202  -0.2881  0.9001
6.382e+09  0.3263  -0.7752  -0.002152  -0.03371  0.02959  0.01102  0.06148  0.9006
6.384e+09  -0.009068  -0.8343  -0.001356  0.01213  -0.01744  0.02496  0.3966  0.8658
6.385e+09  -0.3128  -0.8001  -0.01542  -0.005689  -0.02028  0.02938  0.6457  0.6739
6.386e+09  -0.5564  -0.6429  0.04006  0.02865  -0.01303  -0.009511  0.8486  0.4418
6.388e+09  -0.7893  -0.3762  0.0168  0.0006489  -0.01565  0.0137  0.8774  0.127
6.389e+09  -0.8337  -0.0781  0.04035  0.01065  -0.01267  0.006252  0.9333  -0.2031
6.39e+09  -0.7824  0.2584  -0.01531  0.01864  0.01712  0.003142  0.7779  -0.4829
6.391e+09  -0.6728  0.5285  -0.005151  0.02922  0.00398  -0.01153  0.541  -0.7364
6.392e+09  -0.4058  0.7174  0.01752  -0.02786  -0.01013  -0.002952  0.287  -0.8935
6.394e+09  -0.1517  0.8625  0.001326  -0.01269  0.04665  -0.02925  -0.06003  -0.9208
6.395e+09  0.1999  0.8386  -0.0002394  -0.02488  -0.005908  0.05327  -0.3486  -0.9098
6.396e+09  0.4566  0.703  0.005845  0.02073  0.02281  -0.003209  -0.5953  -0.6518
6.398e+09  0.6882  0.4853  -0.02148  -0.01891  -0.01872  -0.03367  -0.7817  -0.4057
6.399e+09  0.7764  0.1632  0.02091  0.05512  -0.02875  -0.05254  -0.8907  -0.1534
6.4e+09  0.8186  -0.1421  0.022  -0.0004859  0.03123  -0.01468  -0.9021  0.1381
6.401e+09  0.7626  -0.3273  -0.0179  -0.02352  0.006108  -0.05292  -0.8279  0.484
6.402e+09  0.561  -0.6097  -0.005185  -0.03361  -0.01059  0.009917  -0.5747  0.7499
6.404e+09  0.2672  -0.7443  0.00277  0.01188  0.03493  -0.06323  -0.3037  0.8709
6.405e+09  -0.04006  -0.8494  0.03831  -0.03029  -0.01174  0.03232  -0.03176  0.8897
6.406e+09  -0.2819  -0.8281  0.02214  0.01278  -0.01636  -0.06563  0.3082  0.8508
6.408e+09  -0.5665  -0.614  -0.07258  0.0159  0.04056  0.003951  0.573  0.7137
6.409e+09  -0.7316  -0.3736  -0.006643  -0.01609  0.008713  -0.005616  0.7549  0.4567
6.41e+09  -0.8713  -0.07522  0.02799  -0.007713  -0.04792  0.01245  0.8429  0.1613
6.411e+09  -0.8362  0.2592  0.0006876  -0.009381  0.002631  -0.0002277  0.8822  -0.1415
6.412e+09  -0.7207  0.5162  0.006298  -0.04542  -0.02054  -0.004496  0.7587  -0.4311
6.414e+09  -0.4578  0.7471  0.001309  -0.01923  -0.005133  -0.01845  0.5712  -0.6505
6.415e+09  -0.1314  0.8707  0.02378  0.003747  0.00883  0.03665  0.3301  -0.8265
6.416e+09  0.1499  0.8438  -0.008939  0.02619  -0.005183  -0.04992  0.06125  -0.9021
6.418e+09  0.4459  0.6791  -0.002579  0.01678  0.03401  -0.01489  -0.2645  -0.86
6.419e+09  0.6814  0.5635  0.009725  0.007488  -0.043  -0.05188  -0.5168  -0.6612
6.42e+09  0.8346  0.212  -0.005255  -0.06286  -0.01563  0.06312  -0.7259  -0.4659
6.421e+09  0.8207  -0.08337  -0.01701  -0.007879  0.03448  -0.005215  -0.8509  -0.1413
6.422e+09  0.7631  -0.3801  -0.009913  -0.03651  0.009522  0.01562  -0.9108  0.1259
6.424e+09  0.5989  -0.664  -0.0101  -0.01142  -0.02006  -0.02261  -0.8188  0.4036
6.425e+09  0.2862  -0.7694  0.02601  0.007564  -0.01067  0.03109  -0.6429  0.6149
6.426e+09  0.01792  -0.8962  0.01391  0.02317  -0.008203  -0.01266  -0.3676  0.8088
6.428e+09  -0.3347  -0.7605  -0.03104  -0.0495  0.002458  0.002045  -0.02612  0.8737
6.429e+09  -0.5628  -0.6295  -0.03403  0.01274  -0.02408  8.738e-05  0.247  0.8653
6.43e+09  -0.7682  -0.3964  0.01414  0.01214  -0.02869  0.007524  0.5187  0.7323
6.431e+09  -0.8782  -0.07563  -0.02477  0.01372  0.02468  0.002903  0.703  0.4745
6.432e+09  -0.7813  0.2027  0.01909  -0.01992  0.02639  -0.01554  0.8584  0.2168
6.434e+09  -0.6514  0.5239  0.03003  -0.011  -0.02492  -0.01161  0.8708  -0.1046
6.435e+09  -0.417  0.7464  -0.01262  0.002566  -0.02668  0.009056  0.7889  -0.3714
6.436e+09  -0.1502  0.8416  0.01816  -0.02305  -0.03172  -0.01317  0.5527  -0.629
6.438e+09  0.1662  0.7908  0.02543  -0.01209  -0.001032  -0.03998  0.3345  -0.7969
6.439e+09  0.4855  0.6622  -0.01434  0.02174  0.0201  -0.003862  0.05234  -0.855
6.44e+09  0.6685  0.4808  0.02608  -0.01168  -0.04211  0.01413  -0.2241  -0.8227
6.441e+09  0.8434  0.2242  -0.03622  -0.01852  -0.02491  0.02357  -0.4891  -0.7361
6.442e+09  0.7963  -0.1049  -0.01909  -0.0176  0.00661  -0.005763  -0.7241  -0.5095
6.444e+09  0.7101  -0.3594  -0.006751  0.01634  0.01711  0.009166  -0.8105  -0.227
6.445e+09  0.5455  -0.6577  -0.005006  -0.03308  -0.02624  -0.009584  -0.8376  0.09769
6.446e+09  0.3038  -0.7403  -0.009715  -0.05126  -0.0308  0.01345  -0.7527  0.3921
6.448e+09  -0.0214  -0.8698  0.02968  -0.04556  0.00612  0.002304  -0.5687  0.6037
6.449e+09  -0.2656  -0.8069  -0.002667  0.05261  -0.02596  -0.02732  -0.3649  0.765
6.45e+09  -0.5276  -0.6252  0.02368  -0.00735  0.02935  0.0007962  -0.04877  0.8392
6.451e+09  -0.754  -0.374  0.01839  0.02499  0.02223  0.007625  0.2079  0.778
6.452e+09  -0.8141  -0.1137  -0.03629  0.02518  -0.001652  0.03068  0.4582  0.6918
6.454e+09  -0.8008  0.2011  -0.01935  -0.01271  0.007315  0.01637  0.6388  0.5019
6.455e+09  -0.6223  0.4281  -0.04519  -0.04023  -0.004691  0.02129  0.8044  0.2054
6.456e+09  -0.4481  0.6381  -0.01151  -0.03064  0.008898  0.02125  0.8089  -0.0575
6.458e+09  -0.2595  0.8085  0.02497  0.01175  -0.04701  -0.01197  0.7519  -0.3444
6.459e+09  0.08089  0.7901  -0.005658  -0.001216  -0.005127  -0.02295  0.5729  -0.591
6.46e+09  0.3633  0.7451  -0.002644  0.02134  -0.03134  0.03297  0.331  -0.7291
6.461e+09  0.6071  0.5272  -0.03034  -0.005204  0.03304  -0.01549  0.1236  -0.778
6.462e+09  0.7934  0.2326  0.02565  -0.01478  0.01786  -0.002465  -0.2438  -0.7685
6.464e+09  0.7864  -0.04382  0.0192  0.01746  0.01702  0.06072  -0.4925  -0.677
6.465e+09  0.7242  -0.2852  -0.01616  -0.002556  0.02706  -0.005862  -0.6551  -0.47
6.466e+09  0.5091  -0.5666  0.009426  0.003777  0.06203  -0.03066  -0.8148  -0.1728
6.468e+09  0.3902  -0.7201  -0.03058  -0.04557  -0.03176  -0.009129  -0.7654  0.03849
6.469e+09  0.1327  -0.7652  -0.008352  -0.003908  -0.01859  -0.01452  -0.709  0.3259
6.47e+09  -0.154  -0.7868  -0.001844  -0.03364  -0.0041  -0.05808  -0.5623  0.5878
6.471e+09  -0.4407  -0.6868  0.01791  0.04574  -0.07135  0.0054  -0.2964  0.7022
6.472e+09  -0.6584  -0.4252  -0.03538  -0.04437  0.02381  0.01633  -0.09813  0.774
6.474e+09  -0.8274  -0.1866  -0.01536  0.001441  -0.03071  -0.01349  0.1844  0.7396
6.475e+09  -0.8412  0.0854  0.01602  0.01379  0.001319  -0.04045  0.4867  0.6678
6.476e+09  -0.7181  0.3922  0.008877  0.009714  0.01534  -0.004338  0.6785  0.4338
6.478e+09  -0.5218  0.5622  -0.009896  0.007104  0.02517  -0.001027  0.756  0.2292
6.479e+09  -0.2905  0.7544  -0.01819  -0.01359  -0.007689  0.001338  0.7923  -0.05401
6.48e+09  0.006395  0.838  -0.04312  0.03098  -0.01507  -0.02818  0.7476  -0.3353
6.481e+09  0.21  0.7074  0.001488  -0.00306  0.01016  0.0221  0.5409  -0.5605
6.482e+09  0.4842  0.594  0.01358  0.04839  0.003029  -0.0253  0.3482  -0.7207
6.484e+09  0.6957  0.4218  -0.00109  0.009688  -0.01005  0.02151  0.0297  -0.7322
6.485e+09  0.8042  0.119  0.01989  -0.06331  0.008301  -0.05115  -0.1999  -0.7404
6.486e+09  0.6774  -0.1396  -0.0018  0.006169  -0.04489  0.0042  -0.415  -0.6707
6.488e+09  0.6675  -0.4095  0.02749  -0.02834  0.01017  0.03952  -0.6281  -0.4356
6.489e+09  0.4685  -0.6711  0.03575  -0.01202  0.05069  -0.001813  -0.7429  -0.1606
6.49e+09  0.2279  -0.7648  -0.0245  -0.035  -0.004953  0.01973  -0.7541  0.06442
6.491e+09  -0.03922  -0.7889  0.04285  9.922e-05  -0.03128  0.01751  -0.6769  0.3615
6.492e+09  -0.362  -0.702  0.0141  0.01953  -0.01751  -0.04707  -0.5404  0.543
6.494e+09  -0.5715  -0.5241  -0.03677  0.00624  0.01381  -0.03955  -0.3119  0.7004
6.495e+09  -0.7427  -0.3668  0.01441  0.005533  0.0009165  0.04301  -0.0194  0.7531
6.496e+09  -0.8136  -0.06791  0.02581  -0.0198  0.01207  -0.01161  0.2096  0.7834
6.498e+09  -0.7447  0.2558  0.004128  0.007408  0.02106  -0.01301  0.4637  0.6134
6.499e+09  -0.6544  0.4189  -0.002073  0.007741  0.03214  -0.01822  0.6422  0.4183
6.5e+09  -0.3924  0.6554  -0.0426  0.02747  -0.01083  0.001637  0.7184  0.1912
6.501e+09  -0.1724  0.8313  0.001342  0.02281  -0.004621  0.04234  0.757  -0.07399
6.502e+09  0.1047  0.7637  -0.004206  0.03018  -0.02829  -0.01863  0.6659  -0.3739
6.504e+09  0.3897  0.6801  0.01099  -0.00626  -0.01784  -0.001354  0.5244  -0.5643
6.505e+09  0.5874  0.5629  0.0008717  -0.01136  0.04291  -0.01958  0.2983  -0.7061
6.506e+09  0.7293  0.2696  -0.00113  -0.01666  -0.01558  0.02877  0.01201  -0.7474
6.508e+09  0.8615  0.02912  -0.02999  -0.004956  -0.01438  -0.01543  -0.2663  -0.7179
6.509e+09  0.787  -0.2428  -0.0455  -0.004031  0.03593  0.03521  -0.4442  -0.5678
6.51e+09  0.6162  -0.5068  -0.01006  0.0228  -0.01336  -0.02972  -0.6491  -0.3362
6.511e+09  0.3913  -0.765  -0.00402  -0.02876  -0.03587  -0.01249  -0.7315  -0.1472
6.512e+09  0.1313  -0.7937  -0.01176  -0.02961  0.01709  0.00869  -0.7264  0.1337
6.514e+09  -0.1639  -0.8502  0.01779  0.04686  0.009315  -0.05612  -0.6614  0.3628
6.515e+09  -0.4653  -0.726  -0.01782  -0.01968  0.03443  0.02601  -0.4642  0.5912
6.516e+09  -0.6351  -0.51  0.01062  -0.0165  -0.0102  -0.03402  -0.2807  0.7151
6.518e+09  -0.7793  -0.2352  0.02007  0.01077  -0.01069  0.00496  0.01089  0.7499
6.519e+09  -0.8308  0.0604  -0.02015  -0.01988  0.02437  0.006965  0.317  0.7095
6.52e+09  -0.8  0.3223  -0.02497  0.007105  -0.009209  -0.02965  0.4476  0.5103
6.521e+09  -0.6217  0.5578  -0.01498  0.01767  -0.01508  0.03534  0.6335  0.3778
6.522e+09  -0.4013  0.7327  -0.0368  -0.02209  0.02018  0.006635  0.7643  0.1014
6.524e+09  -0.1164  0.8489  0.01406  0.02908  -0.0292  0.02823  0.6969  -0.1638
6.525e+09  0.1869  0.8364  0.02253  0.02186  -0.02482  0.02133  0.6266  -0.381
6.526e+09  0.4063  0.6989  0.008398  -0.01425  -0.01856  0.03557  0.4282  -0.5492
6.528e+09  0.7163  0.4373  0.01948  -0.001638  0.002114  0.01814  0.1796  -0.6864
6.529e+09  0.8301  0.2138  0.0207  0.01586  0.01371  0.001716  -0.04431  -0.6676
6.53e+09  0.8627  -0.1146  0.005143  0.007573  0.06336  -0.06242  -0.2725  -0.6451
6.531e+09  0.7697  -0.3739  0.005837  -0.02951  0.05403  0.02757  -0.4814  -0.4592
6.532e+09  0.5793  -0.6031  -0.004012  -0.01529  -0.04991  0.01743  -0.5779  -0.32
6.534e+09  0.3049  -0.7993  -0.01418  0.02499  0.04841  0.04383  -0.6193  -0.09167
6.535e+09  0.01603  -0.8859  0.004037  0.03408  -0.007921  0.03156  -0.6114  0.09764
6.536e+09  -0.3309  -0.774  0.01021  -0.00127  -0.007671  -0.009794  -0.5711  0.3106
6.538e+09  -0.5613  -0.6569  -0.006616  0.02047  -0.03672  -0.02568  -0.4805  0.484
6.539e+09  -0.7967  -0.4579  -0.01688  0.05734  -0.001336  -0.03445  -0.2702  0.5836
6.54e+09  -0.8855  -0.134  -0.009872  -0.05388  -0.008053  -0.03057  -0.04126  0.6791
6.541e+09  -0.867  0.249  0.002892  -0.01829  0.01676  0.01013  0.2285  0.6653
6.542e+09  -0.7548  0.47  -0.009658  -0.01498  0.02429  0.04826  0.4434  0.5676
6.544e+09  -0.5432  0.6599  0.004051  -0.006663  -0.03928  0.03308  0.5683  0.4303
6.545e+09  -0.2538  0.8526  -0.0007422  -0.0195  -0.01585  -0.03297  0.6548  0.1916
6.546e+09  0.03718  0.8725  -0.02908  -0.03737  0.01485  -0.0194  0.7362  -0.1043
6.548e+09  0.3645  0.8227  0.01574  -0.006526  -0.02215  -0.004057  0.6564  -0.3496
6.549e+09  0.6079  0.6999  0.005197  -0.01124  0.01607  0.01596  0.4786  -0.5397
6.55e+09  0.8669  0.3933  0.02685  0.002615  0.0569  -0.008414  0.2667  -0.6703
