# Hz S RI R 50
6.25e+09  -0.4166  0.793  -0.001964  -0.01456  0.03054  0.03622  0.1699  0.4141
6.251e+09  -0.121  0.8486  -0.003003  -0.01542  -0.07017  0.02826  0.3608  0.3908
6.252e+09  0.1587  0.8253  0.01229  -0.03424  0.003345  -0.0661  0.5061  0.2481
6.254e+09  0.4655  0.6956  0.003541  0.007568  -0.0224  0.01548  0.6083  0.008808
6.255e+09  0.68  0.5369  -0.003103  -0.01067  0.03481  -0.02307  0.6109  -0.1841
6.256e+09  0.8311  0.2678  -0.01846  -0.01825  -0.01938  -0.02248  0.4717  -0.4264
6.258e+09  0.7834  -0.009334  -0.005547  0.005105  0.01441  0.01805  0.2827  -0.6043
6.259e+09  0.7634  -0.342  -0.003364  -0.001053  0.03377  0.06322  0.05517  -0.6837
6.26e+09  0.6336  -0.5737  -0.0361  -0.003815  -0.01362  0.01247  -0.2399  -0.6557
6.261e+09  0.4078  -0.7904  0.01723  0.0007787  -0.002371  -0.04781  -0.4484  -0.5496
6.262e+09  0.1196  -0.7953  0.001457  0.007714  -0.04507  -0.0642  -0.6332  -0.3522
6.264e+09  -0.1379  -0.8106  -0.002645  -0.001241  -0.03361  0.001056  -0.6951  -0.1096
6.265e+09  -0.3876  -0.6678  -0.02635  -0.01336  0.009299  -0.006779  -0.6794  0.1278
6.266e+09  -0.7103  -0.5181  0.01317  0.00831  0.01998  0.04201  -0.6361  0.4275
6.268e+09  -0.8065  -0.2284  -0.0008601  0.005015  -0.02978  0.01404  -0.4567  0.6195
6.269e+09  -0.8293  0.0308  0.003822  0.0075  -0.03953  0.009547  -0.1838  0.6624
6.27e+09  -0.7824  0.3271  0.006146  0.0258  0.02928  -0.004719  0.03546  0.7364
6.271e+09  -0.5932  0.6231  -0.004641  -0.02762  -0.01986  -0.008367  0.3072  0.7233
6.272e+09  -0.3677  0.7675  0.0132  0.01858  0.05799  0.03886  0.5536  0.5194
6.274e+09  -0.09224  0.8385  0.006917  0.03275  0.02969  0.01822  0.6922  0.3152
6.275e+09  0.2085  0.7997  -0.002998  -0.01755  -0.01885  0.01235  0.7434  0.03971
6.276e+09  0.465  0.7222  -0.00853  -0.03768  0.01667  -0.004019  0.7417  -0.1858
6.278e+09  0.6591  0.5066  -0.02795  -0.02103  -0.03532  -0.008111  0.618  -0.4397
6.279e+09  0.7807  0.1828  -0.0239  0.004474  0.03127  0.0458  0.4291  -0.6475
6.28e+09  0.8369  -0.0009432  -0.008288  -0.01477  0.07686  -0.01023  0.149  -0.7513
6.281e+09  0.7658  -0.3404  -0.02079  0.007837  0.002899  -0.05419  -0.1248  -0.7819
6.282e+09  0.6191  -0.6112  -0.006385  0.01601  0.04148  0.03272  -0.3584  -0.6561
6.284e+09  0.4073  -0.7288  0.0002965  -0.02661  0.03602  0.06826  -0.5828  -0.5221
6.285e+09  0.07872  -0.8334  0.003125  0.01394  -0.01002  -0.0379  -0.7531  -0.27
6.286e+09  -0.2744  -0.835  -0.007979  0.02589  0.01835  -0.07049  -0.8154  -0.04333
6.288e+09  -0.4391  -0.7124  -0.004239  -0.02877  -0.0403  0.005322  -0.7612  0.2353
6.289e+09  -0.6463  -0.495  0.001344  -0.01478  0.01302  0.01593  -0.6334  0.4918
6.29e+09  -0.8074  -0.2726  0.05979  -0.008317  -0.009379  0.02285  -0.3891  0.6981
6.291e+09  -0.8392  0.05989  0.01403  -0.006279  -0.0193  -0.004506  -0.1138  0.7745
6.292e+09  -0.815  0.3462  0.01381  0.0143  0.008592  0.0404  0.1022  0.8054
6.294e+09  -0.5774  0.6024  0.006141  -0.01833  0.01961  -0.03089  0.4019  0.7223
6.295e+09  -0.3223  0.742  -0.004725  0.03387  -0.002719  0.01402  0.6455  0.5311
6.296e+09  -0.04125  0.8878  -0.004719  -0.007715  -0.0502  0.001994  0.7802  0.3078
6.298e+09  0.2095  0.7933  -0.0253  0.01819  0.007108  0.04265  0.836  -0.004218
6.299e+09  0.466  0.6688  0.01528  0.04997  -0.01051  0.02001  0.7784  -0.2603
6.3e+09  0.7433  0.456  0.02021  0.01305  -0.02418  -0.03561  0.6192  -0.5413
6.301e+09  0.7651  0.1527  0.0004214  0.008349  0.006796  0.004795  0.4184  -0.7147
6.302e+09  0.8034  -0.09034  0.03174  0.004947  0.006458  -0.0161  0.1345  -0.8117
6.304e+09  0.7718  -0.3764  -0.006782  -0.01106  -0.009207  0.01098  -0.1386  -0.8466
6.305e+09  0.5612  -0.6352  0.005621  0.01273  0.006906  -0.005926  -0.4108  -0.7555
6.306e+09  0.3417  -0.766  0.01968  0.05126  -0.0001013  -0.03798  -0.6319  -0.5579
6.308e+09  0.0104  -0.857  0.003687  -0.01189  -0.002037  -0.05667  -0.7475  -0.2861
6.309e+09  -0.2505  -0.8192  -0.001774  0.001735  -0.009695  -0.0372  -0.8682  0.03181
6.31e+09  -0.5657  -0.6877  0.01305  -0.003845  0.001158  0.001512  -0.7893  0.2685
6.311e+09  -0.7251  -0.425  -0.004593  -0.01358  0.006106  0.01965  -0.6807  0.5295
6.312e+09  -0.8409  -0.1784  0.007706  0.01287  0.07833  -0.01989  -0.4402  0.7629
6.314e+09  -0.8056  0.1842  -0.0184  0.03715  0.01499  0.05677  -0.1483  0.8597
6.315e+09  -0.7351  0.4337  0.002133  0.01071  -0.03408  -0.008804  0.1192  0.8551
6.316e+09  -0.5431  0.6629  0.02244  0.03401  0.003433  0.03876  0.421  0.7884
6.318e+09  -0.3157  0.8261  -0.02958  0.006666  0.01226  -0.002782  0.6302  0.5594
6.319e+09  0.03309  0.8442  -0.03147  -0.005361  0.05095  0.02779  0.8128  0.3152
6.32e+09  0.3296  0.788  -0.01158  0.009943  -0.01251  -0.04173  0.8806  0.03809
6.321e+09  0.5838  0.6706  0.01061  0.01706  0.0136  -0.03347  0.8355  -0.3322
6.322e+09  0.7875  0.3787  -0.01381  0.00393  0.006142  0.03699  0.6891  -0.5438
6.324e+09  0.8405  0.1453  0.004686  0.007678  0.0128  0.01983  0.4585  -0.7942
6.325e+09  0.8235  -0.2031  -0.01306  -0.03394  0.0382  -0.03402  0.1856  -0.8354
6.326e+09  0.7224  -0.4536  -0.009385  -0.01388  -0.02355  0.009201  -0.1629  -0.8824
6.328e+09  0.4775  -0.6564  -0.0184  -0.001837  0.01332  -0.002473  -0.4568  -0.805
6.329e+09  0.2949  -0.829  -0.03416  -0.02056  -0.04498  -0.04219  -0.6759  -0.6011
6.33e+09  -0.06046  -0.8363  0.02348  0.008738  -0.04239  -0.04562  -0.8519  -0.3468
6.331e+09  -0.3777  -0.7863  0.0193  0.01773  0.005223  -0.03291  -0.909  -0.06472
6.332e+09  -0.6036  -0.6128  0.006038  0.02374  0.03086  -0.007643  -0.8865  0.2588
6.334e+09  -0.7827  -0.3609  -0.007098  -0.004745  0.004386  0.02633  -0.7327  0.5578
6.335e+09  -0.827  -0.05362  0.0008294  0.009275  -0.01922  0.03039  -0.4969  0.7951
6.336e+09  -0.832  0.2374  0.0384  0.001409  -0.005711  -0.02009  -0.165  0.9057
6.338e+09  -0.6901  0.4979  -0.01956  -0.002625  0.04559  -0.03208  0.1027  0.9354
6.339e+09  -0.495  0.7189  0.003915  0.01483  -0.01657  -0.01039  0.4216  0.8224
6.34e+09  -0.1759  0.8916  0.02127  0.0001533  0.02821  0.0095  0.6864  0.6512
6.341e+09  0.1061  0.9101  -0.006944  -0.002141  -0.003298  0.05332  0.8428  0.3789
6.342e+09  0.4188  0.8047  -0.01113  0.01595  0.02511  0.01365  0.9204  0.0311
6.344e+09  0.6543  0.5803  -0.02677  -0.02153  -0.02626  0.0006708  0.911  -0.2797
6.345e+09  0.7821  0.3114  0.02391  -0.0002008  -0.003663  0.01301  0.7806  -0.5789
6.346e+09  0.8227  0.04436  -0.01713  0.01967  -0.02411  -0.04008  0.5398  -0.8014
6.348e+09  0.8091  -0.2849  -0.004586  -0.0331  0.004879  0.0003952  0.2455  -0.8989
6.349e+09  0.6574  -0.5757  0.02217  -0.004726  0.03431  -0.01384  -0.08848  -0.9331
6.35e+09  0.426  -0.7282  -0.008925  0.0555  -0.03718  -0.007308  -0.4132  -0.854
6.351e+09  0.1409  -0.8721  -0.05405  0.01858  -0.01294  -0.01978  -0.6949  -0.6397
6.352e+09  -0.1951  -0.8455  0.003655  -0.01725  0.07019  0.02933  -0.8727  -0.4065
6.354e+09  -0.4633  -0.7603  -0.01719  0.002555  -0.02126  0.01282  -0.9153  -0.027
6.355e+09  -0.7124  -0.5431  -0.02269  -0.0171  -0.03386  0.02695  -0.882  0.2428
6.356e+09  -0.8417  -0.2529  0.02294  0.005825  0.01985  0.0151  -0.7861  0.5883
6.358e+09  -0.8906  0.04746  0.003199  -0.02646  0.0121  -0.04157  -0.531  0.7629
6.359e+09  -0.8132  0.2954  0.01382  0.01116  -0.0405  0.01836  -0.2361  0.9079
6.36e+09  -0.6327  0.5902  -0.01259  -0.02421  -0.01207  -0.006394  0.08674  0.9067
6.361e+09  -0.3831  0.846  -0.03478  -0.01456  0.05574  0.02748  0.3731  0.8522
6.362e+09  -0.07558  0.8836  -0.03397  -0.002112  -0.06225  -0.005724  0.6614  0.6712
6.364e+09  0.1988  0.8421  -0.04132  -0.02031  0.01429  0.05788  0.8539  0.3636
6.365e+09  0.5041  0.7216  0.006995  -0.005347  -0.01865  -0.007642  0.9494  0.0493
6.366e+09  0.7281  0.4932  -0.002918  -0.002399  0.03025  0.003004  0.9447  -0.263
6.368e+09  0.9156  0.1741  -0.007494  -0.0005259  0.004962  -0.002919  0.7773  -0.5516
6.369e+09  0.8619  -0.09693  -0.00939  -0.01266  -0.06551  0.02516  0.5621  -0.7425
6.37e+09  0.8348  -0.3402  0.01665  0.006777  -0.02939  0.02253  0.2484  -0.925
6.371e+09  0.6174  -0.6267  -0.03696  0.03681  0.02483  -0.01822  -0.05139  -0.9349
6.372e+09  0.3292  -0.8268  -0.02937  -0.01222  -0.02454  -0.01669  -0.4004  -0.8775
6.374e+09  -0.00626  -0.8779  0.02759  0.04026  -0.03726  0.02737  -0.6604  -0.6682
6.375e+09  -0.2507  -0.8553  -0.008882  0.01147  0.03182  0.004212  -0.8665  -0.4331
6.376e+09  -0.5187  -0.6823  0.01826  -0.01067  -0.02188  -0.006629  -0.9579  -0.06785
6.378e+09  -0.7311  -0.4791  0.01428  0.01212  -0.02588  -0.01367  -0.9116  0.2673
6.379e+09  -0.8259  -0.1644  0.001782  0.008338  0.03647  0.01438  -0.7675  0.5421
6.38e+09  -0.8818  0.109  -0.005666  -0.004395  0.01059  -0.02494  -0.5171  0.7456
6.381e+09  -0.8291  0.4854  -0.008553  -0.003309  0.004302  0.03049  -0.2597  0.8787
6.382e+09  -0.579  0.627  0.01413  0.007239  -0.02354  -0.004527  0.09767  0.9437
6.384e+09  -0.2766  0.8324  0.004343  -0.01481  -0.008084  -0.01275  0.4061  0.847
6.385e+09  0.01222  0.9186  0.007909  -0.01165  -0.01227  0.0274  0.6275  0.7165
6.386e+09  0.305  0.864  0.03477  -0.005872  0.03616  0.007758  0.8215  0.4365
6.388e+09  0.6192  0.686  -0.003109  0.01318  0.006953  0.03635  0.9186  0.09151
6.389e+09  0.7711  0.4326  -0.02157  -0.003728  -0.008296  -0.04  0.932  -0.1912
6.39e+09  0.8209  0.1579  0.006121  0.01059  -0.0277  0.0006387  0.8021  -0.5265
6.391e+09  0.8666  -0.1503  -0.0199  -0.01813  -0.002723  -0.03977  0.5612  -0.7218
6.392e+09  0.812  -0.494  -0.02391  0.02274  -0.01959  -0.0437  0.2681  -0.8689
6.394e+09  0.524  -0.6826  0.02598  0.009508  0.0229  -0.02632  -0.07898  -0.9416
6.395e+09  0.3042  -0.8215  -0.006405  0.02029  -0.000437  0.003712  -0.3373  -0.8568
6.396e+09  -0.05457  -0.943  0.0006926  -0.003781  0.003905  0.01221  -0.6267  -0.6586
6.398e+09  -0.3246  -0.822  0.02981  -0.003518  -0.04417  -0.03202  -0.7849  -0.4011
6.399e+09  -0.6106  -0.6498  0.01674  0.01707  -0.01851  -0.01018  -0.8996  -0.1632
6.4e+09  -0.8173  -0.4157  -0.005342  0.004671  -0.00618  0.01539  -0.9005  0.1887
6.401e+09  -0.8898  -0.1365  0.01546  -0.01106  0.02266  -0.01501  -0.786  0.4383
6.402e+09  -0.8702  0.1195  -0.01274  0.04686  -0.009466  -0.00533  -0.5649  0.6956
6.404e+09  -0.7105  0.4357  -0.005795  0.01069  0.03002  -0.02861  -0.2791  0.8375
6.405e+09  -0.5223  0.6657  0.02601  0.02466  -0.007893  0.0249  -0.0221  0.8905
6.406e+09  -0.1991  0.8791  0.02665  -0.01802  -0.0148  -0.0494  0.3536  0.8644
6.408e+09  0.04586  0.8582  0.02962  -0.01567  0.01524  -0.01711  0.5606  0.632
6.409e+09  0.364  0.8257  -0.03358  0.006712  0.01705  0.03085  0.76  0.4814
6.41e+09  0.6364  0.6309  -0.008895  -0.008807  -0.004909  -0.06484  0.873  0.1404
6.411e+09  0.7593  0.3721  -0.05982  -0.02168  0.03096  0.03101  0.8305  -0.1293
6.412e+09  0.896  0.1121  0.01591  -0.01588  -0.03312  -0.01633  0.8051  -0.4768
6.414e+09  0.8534  -0.2112  -0.02681  -0.01765  -0.02335  -0.05477  0.561  -0.7372
6.415e+09  0.7379  -0.4734  -0.009014  0.01787  0.009302  -0.03204  0.3227  -0.8469
6.416e+09  0.5008  -0.7155  0.01537  -0.01927  -0.02883  -0.004544  0.05068  -0.915
6.418e+09  0.2311  -0.8088  0.01042  0.003055  -0.01718  0.00833  -0.2906  -0.8565
6.419e+09  -0.08928  -0.8839  -0.01369  -0.03482  0.02788  0.0299  -0.5342  -0.7372
6.42e+09  -0.3274  -0.7916  0.005726  -0.03959  -0.01308  -0.03024  -0.7589  -0.5052
6.421e+09  -0.5894  -0.5851  -0.03974  -0.007137  -0.000438  0.07949  -0.8351  -0.1882
6.422e+09  -0.8246  -0.3717  0.03648  -0.02108  -0.01105  -0.02039  -0.8859  0.1174
6.424e+09  -0.8561  -0.08912  -0.04626  -0.02143  0.01741  0.05093  -0.8013  0.3989
6.425e+09  -0.8318  0.2614  0.03548  -0.004507  -0.02926  0.006856  -0.5952  0.6655
6.426e+09  -0.7167  0.5188  -0.03933  -0.0004997  -0.03704  -0.02087  -0.3297  0.7792
6.428e+09  -0.4953  0.7396  0.03981  0.02885  0.01153  -0.004648  -0.01122  0.9101
6.429e+09  -0.2022  0.8773  -0.02994  0.005138  0.01434  -0.02425  0.2529  0.8457
6.43e+09  0.0463  0.8571  0.0002099  0.0258  0.04057  0.03776  0.5298  0.7044
6.431e+09  0.3582  0.8162  0.04326  0.03241  -0.03755  -0.0214  0.6853  0.4217
6.432e+09  0.6687  0.6663  -0.006343  0.01078  -0.009762  0.01371  0.8074  0.291
6.434e+09  0.7762  0.3212  0.01293  -0.0118  -0.01922  0.02059  0.8203  -0.07023
6.435e+09  0.8505  0.1045  -0.007353  0.06596  0.04243  0.0171  0.7597  -0.3903
6.436e+09  0.8383  -0.2387  -0.0116  0.007052  0.03804  -0.002265  0.652  -0.6053
6.438e+09  0.7176  -0.5207  0.001465  -0.01995  -0.01427  -0.07084  0.3482  -0.754
6.439e+09  0.4576  -0.7496  0.02875  0.04019  -0.04717  0.0005548  0.07695  -0.8026
6.44e+09  0.2356  -0.8716  -0.0003968  0.03179  0.01185  -0.006249  -0.2365  -0.8164
6.441e+09  -0.1504  -0.8792  -0.01153  -0.0002623  -0.02973  0.0254  -0.5206  -0.6859
6.442e+09  -0.3915  -0.7552  0.01357  -0.008155  0.01189  -0.01021  -0.7678  -0.4812
6.444e+09  -0.661  -0.6623  0.03611  0.002585  -0.01563  0.006013  -0.8035  -0.2214
6.445e+09  -0.7802  -0.3293  -0.008305  -0.01761  0.03894  0.0279  -0.8366  0.06519
6.446e+09  -0.8417  -0.06456  -0.01292  -0.01359  -0.001119  0.06409  -0.7494  0.3483
6.448e+09  -0.8325  0.2582  -0.000445  -0.003938  0.05868  0.01426  -0.5824  0.5912
6.449e+09  -0.6635  0.533  0.01311  0.00215  0.005853  0.01486  -0.3418  0.7475
6.45e+09  -0.4292  0.719  -0.01917  -0.002161  -0.001622  -0.01116  -0.04921  0.779
6.451e+09  -0.1722  0.8487  -0.006953  0.008446  -0.009712  0.03734  0.2134  0.7816
6.452e+09  0.07899  0.8618  0.001444  0.003254  -0.006339  0.01505  0.4882  0.7043
6.454e+09  0.4014  0.7638  0.005459  -0.01959  0.03887  -0.02392  0.6698  0.4639
6.455e+09  0.604  0.6291  -0.03221  0.08107  -0.0289  0.044  0.7788  0.2083
6.456e+09  0.841  0.2995  -0.0004991  -0.03021  0.008979  0.01184  0.807  -0.06861
6.458e+09  0.8832  0.05401  0.008181  0.02277  0.03636  -0.005598  0.8412  -0.3088
6.459e+09  0.8812  -0.3067  -0.002286  -0.04864  0.02745  -0.0008877  0.5408  -0.5643
6.46e+09  0.7155  -0.5462  0.0002086  -0.02981  0.01043  -0.03544  0.3063  -0.7532
6.461e+09  0.4689  -0.7331  -0.01836  0.04526  0.006405  -0.02946  0.03656  -0.8235
6.462e+09  0.1897  -0.8986  -0.0212  0.006735  -0.0181  0.006015  -0.1738  -0.7996
6.464e+09  -0.1697  -0.8998  0.006766  -0.04571  0.0354  -0.007154  -0.4722  -0.6668
6.465e+09  -0.4139  -0.8082  0.02258  -0.01303  0.01461  -0.002426  -0.7135  -0.4201
6.466e+09  -0.6589  -0.6442  -0.01996  -0.01167  -0.02873  0.04951  -0.7753  -0.1927
6.468e+09  -0.8262  -0.3204  -0.0128  0.001766  0.02421  0.01007  -0.8337  0.126
6.469e+09  -0.9148  -0.02397  -0.02191  -0.004539  0.02462  -0.03385  -0.7087  0.3518
6.47e+09  -0.8392  0.2821  0.01047  -0.01648  0.03353  -0.01188  -0.5583  0.5331
6.471e+09  -0.6973  0.5682  0.01932  -0.02981  0.001703  0.02313  -0.3572  0.7329
6.472e+09  -0.4944  0.7957  0.002521  0.008174  -0.04802  -0.08011  -0.09979  0.8194
6.474e+09  -0.1667  0.908  -0.02902  -0.01236  -0.05958  -0.03278  0.2304  0.7604
6.475e+09  0.1188  0.8963  -0.01023  -0.003591  -0.01471  -0.02146  0.4409  0.6576
6.476e+09  0.4443  0.8142  0.06234  -0.01461  -0.007235  0.04448  0.6601  0.4008
6.478e+09  0.705  0.5996  -0.00614  -0.01849  0.02962  0.02379  0.7358  0.1861
6.479e+09  0.891  0.3634  -0.02131  0.001923  0.01908  0.02031  0.8107  -0.06563
6.48e+09  0.8927  -0.03668  -0.01645  -0.0124  0.02428  0.01311  0.7106  -0.298
6.481e+09  0.8421  -0.2684  0.003394  0.009227  -0.01615  -0.04405  0.5233  -0.5552
6.482e+09  0.6513  -0.5972  0.01655  -0.02707  -0.02189  0.001046  0.3088  -0.709
6.484e+09  0.4423  -0.8112  0.01094  -0.03105  0.02956  0.004268  0.03194  -0.7515
6.485e+09  0.176  -0.881  -0.00346  -0.0269  -0.001045  -0.008493  -0.1767  -0.7449
6.486e+09  -0.1235  -0.9066  0.01776  -0.03171  0.007412  0.01981  -0.4456  -0.6213
6.488e+09  -0.392  -0.7747  -0.006028  0.004383  -0.0002068  -0.03946  -0.659  -0.4571
6.489e+09  -0.6737  -0.5932  0.02017  -0.003887  -0.01031  -0.06302  -0.7344  -0.2004
6.49e+09  -0.8796  -0.3625  -0.01528  -0.02356  -0.0009781  -0.02835  -0.7727  0.103
6.491e+09  -0.9321  0.03163  -0.00144  -0.04288  0.02982  0.01946  -0.685  0.3786
6.492e+09  -0.8224  0.2959  0.00339  -0.002142  0.002129  -0.04095  -0.5263  0.5689
6.494e+09  -0.6388  0.5382  0.02559  -0.01025  -0.04952  0.04502  -0.3131  0.6806
6.495e+09  -0.4644  0.8242  -0.01527  0.01853  -0.003556  0.01261  -0.02668  0.7524
6.496e+09  -0.1879  0.9131  -0.001499  0.006352  -0.05025  -0.0297  0.2047  0.7504
6.498e+09  0.175  0.9118  -0.0204  0.003358  0.05792  -0.02529  0.429  0.5998
6.499e+09  0.4969  0.8  0.01165  0.003469  -0.02539  -0.03974  0.6256  0.4147
6.5e+09  0.7069  0.5778  -0.02268  0.036  0.0172  0.01307  0.7873  0.1669
6.501e+09  0.8839  0.3011  -0.01412  -0.001489  -0.01153  0.0003194  0.7693  -0.1156
6.502e+09  0.9857  -0.0452  0.01941  -0.000301  -0.002879  -0.02697  0.6694  -0.3563
6.504e+09  0.8575  -0.3268  -0.01162  0.02471  0.001865  -0.004659  0.522  -0.5692
6.505e+09  0.6591  -0.6194  -0.01309  -0.01355  -0.003244  -0.01562  0.2523  -0.7272
6.506e+09  0.4357  -0.8623  0.0107  -0.02751  -0.0002479  -0.01622  0.03404  -0.7666
6.508e+09  0.1271  -0.8897  -0.01199  -0.03308  -0.03591  0.0021  -0.2692  -0.7304
6.509e+09  -0.2078  -0.9787  0.007515  -0.01293  -0.01195  -0.05211  -0.4769  -0.5962
6.51e+09  -0.5428  -0.7618  0.05219  0.02624  -0.02688  0.01462  -0.6459  -0.3616
6.511e+09  -0.7923  -0.5921  -0.005686  -0.0007642  0.0278  -0.02408  -0.71  -0.1533
6.512e+09  -0.9606  -0.2235  -0.009018  -0.01314  -0.01977  -0.006297  -0.7513  0.1666
6.514e+09  -0.9497  0.05813  -0.02341  0.005236  0.04371  -0.00555  -0.6219  0.3612
6.515e+09  -0.8916  0.4237  0.02063  -0.02374  -0.01086  0.005847  -0.4754  0.5681
6.516e+09  -0.7586  0.5893  -0.03448  0.01736  0.02067  -0.02699  -0.232  0.6862
6.518e+09  -0.3616  0.8654  0.006442  -0.01053  0.05016  0.06227  0.02926  0.7181
6.519e+09  -0.07451  0.9837  0.01412  0.01314  -0.0001545  0.00936  0.2719  0.7139
6.52e+09  0.25  0.907  0.01339  0.01288  0.002727  0.02844  0.5041  0.5751
6.521e+09  0.5706  0.7779  0.02486  -0.02164  -0.03953  0.01492  0.6468  0.3763
6.522e+09  0.7967  0.5414  0.01746  -0.04398  0.005753  0.002006  0.7261  0.09774
6.524e+09  0.9137  0.2556  -0.00379  0.01987  -0.03862  -0.02861  0.7113  -0.1501
6.525e+09  0.9376  -0.1455  -0.008698  -0.02609  0.01888  0.02151  0.5778  -0.3644
6.526e+09  0.8694  -0.4535  0.02091  0.01796  -0.03314  0.01013  0.4375  -0.5803
6.528e+09  0.6801  -0.7183  -0.01502  0.0209  -0.0127  0.001866  0.1777  -0.6952
6.529e+09  0.3391  -0.9411  0.01098  -0.005609  -0.01756  0.0305  -0.06805  -0.7024
6.53e+09  0.03178  -0.9935  -0.007529  0.01894  -0.03371  0.04183  -0.2945  -0.6284
6.531e+09  -0.3068  -0.8985  0.0315  -0.004983  0.004895  -0.01157  -0.5006  -0.4686
6.532e+09  -0.638  -0.7604  0.0299  -0.0107  0.01782  0.07017  -0.5744  -0.2847
6.534e+09  -0.837  -0.4905  -0.01938  -0.006748  -0.02727  0.0089  -0.6323  -0.09253
6.535e+09  -0.9668  -0.1721  0.01103  -0.004385  -0.01372  -0.03201  -0.6223  0.1214
6.536e+09  -0.9948  0.2392  -0.004919  -0.01928  -0.007337  -0.008913  -0.5737  0.3125
6.538e+09  -0.8379  0.4788  0.03688  0.00577  -0.05632  0.03439  -0.4629  0.4702
6.539e+09  -0.653  0.81  -0.01305  0.02939  -0.0185  -0.01551  -0.279  0.6028
6.54e+09  -0.3206  0.954  -0.005152  0.007653  -0.02756  0.0241  -0.04228  0.6658
6.541e+09  0.04538  0.997  0.0004709  0.03012  -0.05009  0.003253  0.1946  0.6705
6.542e+09  0.3791  0.8859  -0.005736  -0.02434  -0.004396  -0.04028  0.3927  0.5625
6.544e+09  0.6758  0.7045  0.001271  -0.02193  -0.02284  -0.02707  0.5503  0.4265
6.545e+09  0.8241  0.3955  0.01561  -0.01534  0.0062  0.006371  0.7263  0.1889
6.546e+09  0.906  0.1291  -0.0107  -0.01782  -0.01746  0.01076  0.7063  -0.07862
6.548e+09  0.9352  -0.2388  -0.0073  0.004229  -0.0199  0.03399  0.6225  -0.2984
6.549e+09  0.781  -0.5299  -0.04825  0.006657  0.03775  -0.02123  0.5161  -0.5549
6.55e+09  0.5503  -0.7607  0.001049  -0.004531  0.04143  0.01275  0.2848  -0.6971
