# Hz S RI R 50
6.25e+09  0.7831  -0.006541  0.001254  -0.007848  -0.01596  0.003874  0.1313  0.4841
6.251e+09  0.7965  -0.2899  0.001288  -0.007171  -0.02298  -0.05001  0.3597  0.4102
6.252e+09  0.5954  -0.5043  -0.001273  0.008393  -0.04194  -0.05108  0.5203  0.2347
6.254e+09  0.3875  -0.7608  0.004975  -0.007803  0.05021  0.03333  0.5914  0.0009313
6.255e+09  0.05048  -0.8708  0.02786  0.01968  0.0102  -0.01641  0.5712  -0.2337
6.256e+09  -0.2573  -0.7451  0.001701  0.0007709  0.00218  -0.02112  0.4523  -0.4637
6.258e+09  -0.4629  -0.6552  -0.04383  -0.00769  -0.0302  -0.02919  0.2555  -0.6171
6.259e+09  -0.6271  -0.456  0.009332  0.01458  0.01281  0.02613  0.01296  -0.6972
6.26e+09  -0.7733  -0.1942  0.008413  -0.01026  0.02745  -0.004152  -0.2165  -0.6124
6.261e+09  -0.8553  0.09415  -0.01096  -0.02345  0.0136  0.0362  -0.432  -0.5391
6.262e+09  -0.7059  0.4156  0.02488  -0.00864  -0.05914  -0.03509  -0.6496  -0.3376
6.264e+09  -0.5344  0.6236  -0.05426  0.01778  0.02806  0.0003832  -0.7155  -0.09748
6.265e+09  -0.2684  0.7266  -0.003518  -0.004933  -0.003084  -0.02443  -0.6966  0.1458
6.266e+09  -0.04866  0.7818  0.00238  -0.004984  0.01891  -0.02759  -0.6263  0.3884
6.268e+09  0.3555  0.7066  0.02051  -0.01359  0.03502  -0.01139  -0.4341  0.6051
6.269e+09  0.5463  0.5334  0.00492  0.01328  0.01574  0.01239  -0.1854  0.717
6.27e+09  0.6622  0.3824  0.02392  0.02  0.01974  -0.03722  0.07443  0.7533
6.271e+09  0.8214  0.1114  -0.003335  0.007579  0.02289  0.01018  0.3173  0.6881
6.272e+09  0.7425  -0.2187  -0.03338  -0.01653  -0.001277  -0.0287  0.5388  0.5376
6.274e+09  0.6094  -0.4694  -0.003859  -0.0001898  0.003274  0.00985  0.6908  0.3003
6.275e+09  0.4763  -0.6473  -0.01384  0.01217  0.007031  -0.03603  0.7277  0.04139
6.276e+09  0.1517  -0.7958  0.01758  -0.005991  -0.02781  -0.04406  0.7246  -0.2016
6.278e+09  -0.1339  -0.7521  0.0002593  0.0003772  -0.01794  0.005111  0.6203  -0.4409
6.279e+09  -0.4323  -0.7433  0.01047  0.008313  -0.05664  0.03637  0.4167  -0.6341
6.28e+09  -0.6164  -0.4859  -0.008238  -0.005266  0.07596  0.03003  0.167  -0.766
6.281e+09  -0.7947  -0.2631  0.001129  -0.02441  -0.02674  -0.001829  -0.07418  -0.7533
6.282e+09  -0.8087  0.02466  -0.01114  -0.02308  0.005656  -0.03158  -0.3713  -0.6932
6.284e+09  -0.7946  0.2963  0.01111  0.0176  -0.0259  0.01478  -0.6032  -0.4993
6.285e+09  -0.5681  0.5389  0.0445  0.0164  -0.04869  -0.01791  -0.725  -0.2751
6.286e+09  -0.3382  0.7049  0.02036  0.0216  -0.01765  -0.008536  -0.8103  -0.01851
6.288e+09  -0.01177  0.7893  0.002025  -0.01658  -0.02786  0.01115  -0.7802  0.2531
6.289e+09  0.2314  0.8119  0.001343  0.01089  0.01222  0.006471  -0.6362  0.4818
6.29e+09  0.4914  0.6453  -0.006274  -0.02457  0.04075  0.012  -0.4104  0.7143
6.291e+09  0.7167  0.4431  -0.03795  -0.02464  0.01271  -0.01099  -0.1424  0.8036
6.292e+09  0.7782  0.1616  -0.003899  0.001595  -0.05738  0.02537  0.1443  0.7977
6.294e+09  0.7893  -0.1198  0.014  0.01063  -0.0003097  -0.01042  0.4026  0.7167
6.295e+09  0.6899  -0.4755  -0.002351  0.009935  -0.03098  -0.02343  0.6156  0.5446
6.296e+09  0.5347  -0.6058  -0.01346  -0.01972  0.0261  0.01086  0.7609  0.2947
6.298e+09  0.2228  -0.8037  -0.02045  -0.01129  -0.02588  0.01609  0.8511  0.02258
6.299e+09  -0.04828  -0.8543  0.003481  0.008846  0.02858  0.02041  0.7688  -0.2549
6.3e+09  -0.3201  -0.6904  -0.01695  0.002889  -0.003895  0.04299  0.6366  -0.5165
6.301e+09  -0.5988  -0.615  0.02175  0.009104  -0.01694  0.01036  0.4515  -0.7262
6.302e+09  -0.7614  -0.3863  0.01822  -0.009527  0.02428  -0.0236  0.1455  -0.8154
6.304e+09  -0.8337  -0.05291  -0.01768  0.01175  0.04888  -0.01388  -0.1381  -0.8391
6.305e+09  -0.7608  0.267  -0.0147  -0.0242  -0.0466  0.01928  -0.4089  -0.7679
6.306e+09  -0.6446  0.5264  -0.01709  0.01979  -0.02289  -0.0385  -0.6268  -0.5627
6.308e+09  -0.3772  0.6721  -0.02662  0.001797  0.03224  0.0003376  -0.7923  -0.309
6.309e+09  -0.1661  0.7775  0.0216  -0.02043  0.00586  -0.000935  -0.8514  -0.01681
6.31e+09  0.1646  0.7888  0.02237  0.0143  -0.02427  0.03984  -0.7816  0.2966
6.311e+09  0.4322  0.7031  0.00909  -0.03577  0.0353  0.04894  -0.682  0.5521
6.312e+09  0.6223  0.4956  0.0006799  -0.001658  -0.0171  0.06686  -0.4857  0.7521
6.314e+09  0.7526  0.2165  -0.02527  0.01027  -0.03341  0.01493  -0.1805  0.8764
6.315e+09  0.8953  -0.08856  0.01716  0.02673  -0.008182  0.01864  0.1309  0.8819
6.316e+09  0.7439  -0.3703  0.002213  0.02102  0.009853  0.002548  0.4163  0.7503
6.318e+09  0.5359  -0.6153  -0.00194  -0.00256  -0.05368  0.008578  0.6623  0.5625
6.319e+09  0.2847  -0.7467  -0.006618  -0.01277  0.008342  -0.01358  0.8161  0.3415
6.32e+09  0.01419  -0.826  0.03731  -0.008769  0.05679  -0.03121  0.8649  0.03184
6.321e+09  -0.2507  -0.7713  0.0412  -0.0004395  -0.04338  0.006926  0.8548  -0.2746
6.322e+09  -0.5056  -0.6364  0.001898  0.02154  -0.03278  -0.002193  0.6948  -0.5415
6.324e+09  -0.7214  -0.4213  0.03385  -0.001656  0.01607  0.02185  0.4561  -0.7889
6.325e+09  -0.8217  -0.1756  -0.01043  -0.009047  0.02198  -0.0133  0.1557  -0.8997
6.326e+09  -0.8268  0.1612  -0.003148  0.007921  -0.04839  0.01443  -0.1476  -0.9057
6.328e+09  -0.6586  0.4349  -0.0225  0.003037  0.02844  -0.003888  -0.4069  -0.8082
6.329e+09  -0.5256  0.6299  0.01836  -0.02087  0.03924  -0.02371  -0.6758  -0.5773
6.33e+09  -0.2479  0.7446  -0.008359  0.01257  0.04019  -0.01628  -0.8208  -0.3603
6.331e+09  0.08417  0.8756  0.007267  0.009499  0.008896  0.02447  -0.8877  -0.03225
6.332e+09  0.3558  0.7299  0.01769  -0.007905  -0.06267  0.003929  -0.8254  0.26
6.334e+09  0.6093  0.6074  0.01443  -0.02135  -0.01955  -0.02294  -0.7164  0.5433
6.335e+09  0.7902  0.3404  -0.01437  0.005152  0.0102  0.06041  -0.4924  0.7838
6.336e+09  0.7819  0.05497  -0.02018  -0.02874  0.03443  -0.00683  -0.2065  0.9153
6.338e+09  0.7319  -0.3104  -0.02704  0.008698  -0.0316  -0.01317  0.1143  0.9274
6.339e+09  0.6338  -0.5222  0.01175  -0.01087  0.00712  -0.0205  0.4465  0.8316
6.34e+09  0.3698  -0.7425  -0.01475  0.01342  -0.03773  0.006596  0.6924  0.6214
6.341e+09  0.1594  -0.8364  0.01635  0.01152  -0.0433  0.02043  0.8715  0.3491
6.342e+09  -0.1732  -0.7777  0.0387  0.02531  0.02877  -0.02427  0.9308  0.01998
6.344e+09  -0.4823  -0.7051  -0.01468  0.02099  0.04098  0.04148  0.8935  -0.2558
6.345e+09  -0.6757  -0.4755  -0.003322  -0.009691  0.01672  0.008411  0.7477  -0.5867
6.346e+09  -0.8398  -0.2685  0.01216  0.002916  -0.04367  0.02303  0.499  -0.7577
6.348e+09  -0.826  0.07331  -0.03986  -0.006772  -0.05645  -0.006635  0.2133  -0.8928
6.349e+09  -0.7413  0.3971  -0.003299  -0.02586  -0.02429  0.007658  -0.09417  -0.9295
6.35e+09  -0.6086  0.6143  0.02477  0.007314  -0.02122  -0.02868  -0.371  -0.8032
6.351e+09  -0.3067  0.7658  -0.003029  -0.0139  -0.01953  0.05963  -0.6687  -0.6582
6.352e+09  0.04993  0.8171  0.05503  0.03457  0.02909  -0.01311  -0.849  -0.4103
6.354e+09  0.2869  0.761  -0.01073  0.01249  0.007938  -0.0004294  -0.94  -0.08834
6.355e+09  0.5326  0.6025  0.02291  0.04689  0.01995  -0.004486  -0.9139  0.2906
6.356e+09  0.6911  0.4346  -0.0092  -0.009724  -0.01273  0.005703  -0.7831  0.5363
6.358e+09  0.8016  0.1299  0.01242  0.0178  -0.007445  -0.002282  -0.5658  0.7594
6.359e+09  0.8049  -0.1893  -0.02098  -0.04174  -0.03262  -0.03446  -0.2339  0.9256
6.36e+09  0.6802  -0.4019  0.01852  -0.01668  -0.02099  0.04111  0.1132  0.9199
6.361e+09  0.5063  -0.6469  -0.01231  0.02022  0.01797  0.01138  0.4331  0.8372
6.362e+09  0.1764  -0.7609  0.01828  0.001604  -0.03107  0.01662  0.707  0.6713
6.364e+09  -0.05878  -0.8083  0.0379  -0.02845  0.02364  0.04646  0.8187  0.3817
6.365e+09  -0.3732  -0.7322  0.01492  0.01741  0.04804  0.008231  0.9369  0.07652
6.366e+09  -0.611  -0.5505  0.006193  -0.003057  0.01189  0.005053  0.9174  -0.2401
6.368e+09  -0.7943  -0.2806  -0.00214  -0.02616  -0.01778  -0.01084  0.7361  -0.556
6.369e+09  -0.8206  -0.009608  -0.01399  0.01305  0.05876  -0.005849  0.536  -0.7803
6.37e+09  -0.7656  0.3297  0.02568  0.01433  0.01844  -0.01084  0.2309  -0.9206
6.371e+09  -0.6476  0.5363  0.01528  -0.006493  0.002087  0.009374  -0.05706  -0.9419
6.372e+09  -0.3156  0.7253  -0.004725  -0.003851  0.02417  -0.01312  -0.383  -0.8696
6.374e+09  -0.04818  0.8651  -0.002158  0.007238  -0.003561  -0.007293  -0.6454  -0.6898
6.375e+09  0.2341  0.8431  -0.02099  -0.006554  0.04814  0.01128  -0.8652  -0.4514
6.376e+09  0.5118  0.653  0.0441  -0.02346  0.01095  0.0125  -0.9223  -0.05054
6.378e+09  0.7  0.4269  -0.03453  0.0238  -0.01734  -0.01113  -0.8735  0.2408
6.379e+09  0.8051  0.1463  -0.005074  0.02945  0.006618  -0.01589  -0.7825  0.5152
6.38e+09  0.7866  -0.1337  -0.003679  0.01059  -0.009441  0.04997  -0.5444  0.7467
6.381e+09  0.7056  -0.4663  0.02196  0.03031  -0.02805  0.003495  -0.2676  0.8835
6.382e+09  0.4671  -0.6641  0.002605  0.01177  -0.000835  -0.02633  0.08135  0.9434
6.384e+09  0.1801  -0.8644  0.03275  0.018  -0.02116  0.02013  0.3975  0.8342
6.385e+09  -0.06183  -0.7967  -0.004448  -0.02843  0.01018  -0.005132  0.6319  0.6862
6.386e+09  -0.3943  -0.7333  0.01134  0.02391  -0.0219  0.007338  0.8572  0.4512
6.388e+09  -0.638  -0.5171  -0.01135  -0.01468  0.02195  0.03914  0.8834  0.1018
6.389e+09  -0.7873  -0.2819  -0.03287  0.009259  -0.02975  -0.003129  0.9015  -0.1893
6.39e+09  -0.8239  0.01383  0.009159  0.0247  -0.03098  0.02023  0.8253  -0.5048
6.391e+09  -0.8175  0.3042  -0.03487  0.0005233  0.006319  -0.01168  0.5988  -0.758
6.392e+09  -0.584  0.5644  -0.003627  0.008841  0.003229  -0.0238  0.2735  -0.8692
6.394e+09  -0.3995  0.76  -0.01509  -0.02573  0.02665  0.02923  -0.07416  -0.9398
6.395e+09  -0.1106  0.7912  -0.01693  -0.03807  -0.02695  0.003012  -0.358  -0.8549
6.396e+09  0.2064  0.8443  -0.0145  0.0132  -0.02584  -0.01549  -0.5719  -0.6964
6.398e+09  0.4669  0.727  -0.04094  0.02252  0.008456  0.002827  -0.7973  -0.4108
6.399e+09  0.7441  0.502  -0.02237  -0.005603  0.02528  -0.001949  -0.886  -0.1687
6.4e+09  0.8048  0.1425  0.03291  -0.02545  -0.00499  -0.01223  -0.9027  0.1394
6.401e+09  0.8641  -0.05797  0.01027  -0.04613  0.003207  0.04391  -0.8156  0.484
6.402e+09  0.7257  -0.4633  0.01348  -0.01302  2.375e-05  0.004632  -0.6098  0.705
6.404e+09  0.575  -0.6992  -0.03533  0.02164  -0.02424  -0.02217  -0.3157  0.8513
6.405e+09  0.2104  -0.8489  -0.04368  0.01404  0.04993  -0.01127  0.009427  0.9346
6.406e+09  -0.061  -0.8276  -0.01066  -8.831e-05  0.02022  0.005683  0.3068  0.905
6.408e+09  -0.3678  -0.7705  -0.01986  -0.008503  0.01619  0.01083  0.5387  0.645
6.409e+09  -0.6224  -0.5926  -0.0004782  -0.00119  0.03117  0.00865  0.7669  0.4448
6.41e+09  -0.7859  -0.3263  0.008682  0.03024  0.01135  0.002183  0.8846  0.1538
6.411e+09  -0.8518  -0.003253  -0.01556  -0.03681  0.01629  0.03075  0.9069  -0.1136
6.412e+09  -0.8365  0.2846  0.01482  0.03699  -0.003025  -0.02574  0.818  -0.4398
6.414e+09  -0.6521  0.5959  -0.05651  -0.003231  -0.005558  -0.001398  0.6347  -0.6936
6.415e+09  -0.3869  0.7072  0.02168  -0.008434  0.006069  -0.01811  0.3316  -0.8188
6.416e+09  -0.1277  0.8435  -0.003963  0.01483  -0.03343  -0.02006  -0.01797  -0.8701
6.418e+09  0.2157  0.8362  0.03733  0.01771  0.01437  -0.007736  -0.2868  -0.858
6.419e+09  0.5113  0.6261  -0.02153  -0.02532  0.007395  -0.006916  -0.5541  -0.7438
6.42e+09  0.7441  0.3959  -0.03546  0.02077  -0.00673  0.05392  -0.7414  -0.4582
6.421e+09  0.8648  0.1361  0.006481  0.02537  0.02471  0.006855  -0.884  -0.162
6.422e+09  0.8308  -0.1306  0.01435  0.05919  0.03331  -0.02382  -0.8817  0.1431
6.424e+09  0.6757  -0.4745  0.01775  -0.00854  -0.01595  -0.01581  -0.7754  0.3763
6.425e+09  0.4534  -0.6978  0.04952  0.04485  -0.03031  -0.01722  -0.6368  0.6475
6.426e+09  0.1675  -0.8195  0.05277  -0.03281  -0.003336  0.03387  -0.3287  0.7895
6.428e+09  -0.1377  -0.8136  0.006249  0.04246  0.02123  0.02625  -0.01381  0.8481
6.429e+09  -0.4099  -0.7296  0.0322  -0.002457  -0.03459  -0.00202  0.2381  0.7971
6.43e+09  -0.6399  -0.5664  0.01192  0.05461  0.07559  -0.03986  0.5287  0.6893
6.431e+09  -0.7851  -0.2583  0.009509  0.08499  0.03269  -0.0653  0.6949  0.4541
6.432e+09  -0.8727  0.0313  0.005479  0.01268  -0.01542  0.004913  0.8847  0.2267
6.434e+09  -0.7765  0.3496  0.007659  -0.008057  -0.06058  -0.0372  0.8699  -0.05616
6.435e+09  -0.5914  0.6227  0.02068  -0.01825  0.007349  0.04078  0.7833  -0.3897
6.436e+09  -0.3725  0.7668  -0.02064  0.02883  -0.02745  0.02034  0.6235  -0.6124
6.438e+09  -0.0201  0.822  0.01216  -0.02661  -0.0191  0.06429  0.3428  -0.7482
6.439e+09  0.2717  0.7834  0.03072  0.009327  -0.05504  0.01501  0.06984  -0.8316
6.44e+09  0.5377  0.6617  0.006255  0.006222  0.01747  0.007375  -0.2331  -0.8583
6.441e+09  0.7497  0.3862  0.01368  0.0267  -0.01645  -0.0003692  -0.5083  -0.6789
6.442e+09  0.7539  0.09973  0.004581  0.01811  0.05441  0.005003  -0.718  -0.4474
6.444e+09  0.8468  -0.1796  -0.01616  -0.002114  0.02299  0.03278  -0.8048  -0.2151
6.445e+09  0.6602  -0.3981  -0.05063  0.02029  -0.02812  0.008929  -0.8212  0.06715
6.446e+09  0.4271  -0.7035  -0.003812  -0.02744  0.02107  -0.005673  -0.7748  0.3675
6.448e+09  0.2141  -0.7705  -0.005263  0.01938  -0.01714  0.007283  -0.6001  0.5711
6.449e+09  -0.1254  -0.7657  0.01529  0.0447  -6.04e-05  -0.05795  -0.3652  0.8025
6.45e+09  -0.4159  -0.702  -0.01348  -0.02372  -0.04911  0.01369  -0.09838  0.8347
6.451e+09  -0.6624  -0.5791  0.01312  -0.004035  -0.0441  0.03074  0.2559  0.7823
6.452e+09  -0.7691  -0.2639  -0.02054  0.02993  0.02447  -0.006531  0.4786  0.6375
6.454e+09  -0.7986  0.004028  -0.009699  0.01584  0.02957  -0.00166  0.6552  0.4609
6.455e+09  -0.748  0.3397  0.006599  0.008466  0.009895  -0.03729  0.8237  0.1924
6.456e+09  -0.5545  0.5973  -0.03508  -0.023  -0.01858  -0.01377  0.7986  -0.08884
6.458e+09  -0.3272  0.6852  -0.0234  0.01227  -0.0374  0.001043  0.76  -0.3316
6.459e+09  -0.08309  0.8707  -0.001462  0.03941  0.01047  -0.01318  0.5851  -0.5523
6.46e+09  0.2573  0.7402  -0.006718  -0.03342  0.0341  0.03955  0.3739  -0.72
6.461e+09  0.51  0.6495  0.001007  -0.02501  0.0242  0.03989  0.09699  -0.8041
6.462e+09  0.7183  0.4277  -0.02982  0.03285  0.05588  -0.001372  -0.2128  -0.8186
6.464e+09  0.7649  0.1197  -0.02477  -0.002794  0.0163  -0.04899  -0.4395  -0.6616
6.465e+09  0.8044  -0.1917  0.0005837  -0.009799  -0.003471  0.006024  -0.6398  -0.4663
6.466e+09  0.6299  -0.3972  -0.02017  -0.02721  -0.000461  -0.03519  -0.8166  -0.2157
6.468e+09  0.535  -0.6688  0.02015  0.006717  -0.004146  -0.02479  -0.8202  0.03696
6.469e+09  0.1906  -0.7529  -0.00859  -0.002038  0.05625  -0.01116  -0.7662  0.3124
6.47e+09  -0.02295  -0.7697  -0.01368  -0.01328  -0.009716  -0.03594  -0.5745  0.5899
6.471e+09  -0.31  -0.735  0.02358  0.02152  0.02799  -0.0314  -0.3068  0.7023
6.472e+09  -0.5386  -0.5022  -0.005838  0.01515  0.01532  0.0239  -0.045  0.8145
6.474e+09  -0.7587  -0.2912  0.03458  0.03013  0.01641  -0.05746  0.2118  0.7205
6.475e+09  -0.8275  -0.02468  0.02898  0.02515  -0.007728  0.004494  0.4483  0.6486
6.476e+09  -0.755  0.1816  -0.0436  0.009395  -0.04027  0.03473  0.6572  0.3895
6.478e+09  -0.6052  0.5547  -0.045  -0.01585  -0.009432  0.03347  0.745  0.1656
6.479e+09  -0.3995  0.6981  0.003426  -0.0418  0.00556  0.03232  0.7944  -0.08377
6.48e+09  -0.1105  0.7545  -0.0004227  -0.01489  0.01107  -0.003087  0.6983  -0.3503
6.481e+09  0.1552  0.7795  -0.003783  -0.003771  -0.02695  0.02646  0.5112  -0.5199
6.482e+09  0.4174  0.6725  -0.002375  0.02488  -0.03735  0.06044  0.3195  -0.7072
6.484e+09  0.6317  0.4735  0.00809  0.02814  0.03032  -0.001687  0.04028  -0.7799
6.485e+09  0.7391  0.2347  -0.02423  -0.01168  0.0141  -0.001726  -0.2209  -0.749
6.486e+09  0.7803  -0.007786  0.0006907  0.009392  -0.02618  0.03502  -0.4787  -0.6524
6.488e+09  0.7727  -0.3444  0.03643  0.008571  -0.007161  0.0001221  -0.6347  -0.4236
6.489e+09  0.5703  -0.5915  0.02513  -0.01272  -0.01177  0.03925  -0.7241  -0.1488
6.49e+09  0.3423  -0.6843  0.006074  -0.0008247  -0.01097  -0.03  -0.7191  0.069
6.491e+09  0.05457  -0.7832  0.002209  0.00942  -0.01851  -0.005258  -0.6687  0.3454
6.492e+09  -0.2066  -0.7689  -0.02064  -0.004088  0.04024  0.01723  -0.4953  0.57
6.494e+09  -0.4091  -0.6422  -0.01455  0.04002  -0.03156  0.01975  -0.2923  0.7259
6.495e+09  -0.6975  -0.4194  0.001917  -0.01348  0.009975  0.06282  -0.0541  0.7477
6.496e+09  -0.7943  -0.2176  0.03488  0.009768  -0.01124  0.02166  0.205  0.7433
6.498e+09  -0.7804  0.07171  0.01912  -0.02584  -0.02639  -0.03843  0.4684  0.6018
6.499e+09  -0.6861  0.384  0.03112  0.02713  0.02043  -6.957e-05  0.6535  0.4069
6.5e+09  -0.527  0.6255  0.03779  -0.006562  -0.003345  -0.02331  0.7375  0.1611
6.501e+09  -0.2376  0.7464  0.00188  -5.92e-05  0.02471  -0.05362  0.795  -0.1386
6.502e+09  0.02378  0.7815  0.008964  0.02087  0.02896  0.055  0.6664  -0.3966
6.504e+09  0.2331  0.7091  0.03018  -0.01256  0.01986  0.03535  0.4813  -0.5873
6.505e+09  0.5449  0.5788  0.006682  -0.00387  0.0162  -0.006433  0.2926  -0.7478
6.506e+09  0.6765  0.3734  0.02105  0.0008631  0.01902  0.02029  0.01399  -0.7774
6.508e+09  0.8188  0.1014  -0.02462  0.0005388  0.01116  0.01535  -0.2761  -0.6799
6.509e+09  0.7662  -0.1779  0.003866  -0.01332  -0.007121  -0.01935  -0.4558  -0.5407
6.51e+09  0.726  -0.4227  0.00674  0.01908  -0.01676  -0.008787  -0.6586  -0.3839
6.511e+09  0.4421  -0.6166  -0.08157  0.01406  0.02716  0.002693  -0.6989  -0.1339
6.512e+09  0.2221  -0.7484  0.01119  -0.009577  0.0115  -0.005295  -0.7497  0.1179
6.514e+09  -0.07397  -0.7724  -0.002625  0.01357  -0.003356  0.04884  -0.6683  0.3369
6.515e+09  -0.3609  -0.7514  -0.002328  0.01053  -0.01596  0.007016  -0.5025  0.535
6.516e+09  -0.5413  -0.5897  -0.001469  -0.0547  -0.01391  0.01393  -0.2746  0.7117
6.518e+09  -0.7053  -0.3027  -0.03967  -0.01529  -0.03885  -0.005394  0.01046  0.7558
6.519e+09  -0.851  -0.05621  -0.01039  0.007856  -0.00593  0.04033  0.272  0.6761
6.52e+09  -0.7818  0.2169  -0.01809  0.03843  -0.01274  0.02939  0.4779  0.5729
6.521e+09  -0.639  0.4824  0.02904  0.01102  0.02771  -0.001063  0.6008  0.3254
6.522e+09  -0.4981  0.7073  -0.02619  -0.01429  -0.02682  0.01651  0.746  0.1078
6.524e+09  -0.1398  0.7686  0.01621  -0.0145  -0.001379  0.004436  0.722  -0.1503
6.525e+09  0.1442  0.8243  -0.02292  0.009574  -0.002057  0.01814  0.5623  -0.3961
6.526e+09  0.4314  0.7441  -0.003235  -0.01626  0.03281  0.03842  0.4158  -0.5696
6.528e+09  0.6458  0.5915  0.005911  0.007255  -0.03665  0.007731  0.1987  -0.696
6.529e+09  0.7454  0.3047  -0.03773  -0.006688  0.05085  0.005619  -0.03654  -0.6789
6.53e+09  0.8503  0.006008  0.03875  -0.03467  -0.02761  -0.004305  -0.2335  -0.6156
6.531e+09  0.7531  -0.3462  -0.00341  0.02913  -0.01921  0.0346  -0.4495  -0.466
6.532e+09  0.6576  -0.596  0.001773  0.0171  0.02933  -0.04075  -0.5898  -0.3034
6.534e+09  0.4293  -0.7299  -0.01159  -0.02344  -0.006182  -0.001027  -0.6343  -0.06424
6.535e+09  0.133  -0.8651  0.01923  0.0168  -0.05608  -0.04196  -0.6247  0.1101
6.536e+09  -0.1617  -0.826  0.000758  -0.004052  0.02113  0.0444  -0.5556  0.2833
6.538e+09  -0.4404  -0.7025  -0.04363  0.00962  -0.01517  -0.006109  -0.4059  0.4705
6.539e+09  -0.683  -0.527  -0.005803  0.01412  -0.002108  -0.02931  -0.2764  0.5902
6.54e+09  -0.8025  -0.246  0.01764  0.002431  -0.02057  -0.00133  -0.05469  0.6806
6.541e+09  -0.867  0.0655  -0.01126  -0.01332  -0.03379  0.06489  0.205  0.6765
6.542e+09  -0.7571  0.3636  -0.0118  -0.004858  0.04967  0.05385  0.4012  0.5471
6.544e+09  -0.5825  0.6762  -0.02291  -0.02339  0.03832  -0.05814  0.5579  0.4045
6.545e+09  -0.3225  0.7828  4.052e-06  -0.01235  -0.03303  0.01492  0.698  0.1924
6.546e+09  -0.06173  0.8862  -0.01095  -0.03082  0.03876  -0.008551  0.7395  -0.05509
6.548e+09  0.2788  0.7801  -0.03438  0.01225  -0.05503  0.04749  0.6247  -0.3035
6.549e+09  0.5474  0.6419  -0.03601  -0.005651  -0.04124  0.01478  0.5051  -0.4973
6.55e+09  0.7831  0.4677  0.02829  0.00815  0.03154  0.01293  0.2727  -0.6655
