# Hz S RI R 50
6.25e+09  -0.6239  0.6232  -0.02051  -0.009432  -0.01717  0.01599  0.1762  0.4849
6.251e+09  -0.312  0.824  0.03096  0.01727  -0.0124  -0.001064  0.3428  0.3812
6.252e+09  -0.04374  0.847  -0.005618  -0.01709  0.03617  0.009914  0.5327  0.2317
6.254e+09  0.2238  0.8457  -0.0104  0.0009583  0.02512  -0.01615  0.6441  0.02602
6.255e+09  0.4685  0.6998  0.01499  0.009125  0.01056  0.009916  0.5817  -0.189
6.256e+09  0.6803  0.4556  0.01169  0.02111  -0.04125  -0.01243  0.4633  -0.4676
6.258e+09  0.8515  0.1499  0.01866  0.02926  -0.006897  0.01168  0.3057  -0.6173
6.259e+09  0.8081  -0.1176  -0.00887  -0.001716  -0.007694  0.009023  0.08543  -0.6872
6.26e+09  0.7998  -0.3503  0.00625  -0.01328  0.001068  -0.03183  -0.2425  -0.6664
6.261e+09  0.5184  -0.6384  0.00108  0.007039  -0.03933  -0.01686  -0.4589  -0.5226
6.262e+09  0.3492  -0.7663  0.03417  0.04159  -0.02224  0.005591  -0.6026  -0.3511
6.264e+09  0.1262  -0.8203  0.0007884  0.02107  0.04539  -0.06687  -0.68  -0.1195
6.265e+09  -0.2344  -0.8224  0.004014  -0.0141  0.0205  -0.06689  -0.6806  0.1616
6.266e+09  -0.5169  -0.6528  0.01146  -0.003008  -0.007114  0.01737  -0.6255  0.3893
6.268e+09  -0.7525  -0.4542  0.01681  -0.008794  0.009518  -0.02516  -0.4413  0.5646
6.269e+09  -0.7904  -0.1617  -0.01438  -0.04263  -0.05635  -0.003834  -0.192  0.7227
6.27e+09  -0.8448  0.06872  0.002714  -0.001772  0.01532  -0.03139  0.05198  0.7168
6.271e+09  -0.7812  0.3678  0.03286  0.003951  -0.02197  0.02849  0.3164  0.6821
6.272e+09  -0.5721  0.6202  -0.001278  -0.01157  0.003141  0.009307  0.5288  0.4975
6.274e+09  -0.3186  0.7333  0.02512  -0.02103  0.02069  0.004609  0.7004  0.2889
6.275e+09  -0.04917  0.8218  0.03361  -0.018  0.02861  -0.01693  0.7701  0.05489
6.276e+09  0.2101  0.7365  -0.01668  0.01413  -0.009258  0.008979  0.7355  -0.2505
6.278e+09  0.4332  0.6384  -0.01344  -0.01697  0.003796  0.01261  0.5945  -0.4239
6.279e+09  0.7407  0.4407  0.004463  0.009931  0.01865  -0.05574  0.4067  -0.6542
6.28e+09  0.7595  0.1795  -0.01185  0.01194  -0.0293  0.03306  0.1428  -0.7649
6.281e+09  0.7827  -0.1141  0.01948  0.02539  0.008101  0.01028  -0.1027  -0.7833
6.282e+09  0.7837  -0.3906  -0.01619  -0.007846  -0.05133  -0.01522  -0.3721  -0.6706
6.284e+09  0.6017  -0.649  -0.008165  0.02894  -0.0327  0.03499  -0.5655  -0.5438
6.285e+09  0.2941  -0.7163  -0.00452  -3.383e-05  -0.06609  0.04982  -0.7027  -0.3035
6.286e+09  0.03069  -0.8205  0.02344  0.006563  -0.03805  -0.01894  -0.7861  -0.01687
6.288e+09  -0.2142  -0.8005  -0.01264  -0.0118  -0.03654  -0.02363  -0.7824  0.2635
6.289e+09  -0.4972  -0.5929  0.02329  0.02417  -0.0361  -0.06206  -0.6366  0.5008
6.29e+09  -0.7286  -0.4002  -0.01405  0.006046  0.02124  0.02928  -0.407  0.6822
6.291e+09  -0.8673  -0.1593  0.02948  -0.0278  0.01171  -0.02583  -0.1534  0.7506
6.292e+09  -0.808  0.126  0.01116  -0.009473  -0.04666  -0.007589  0.1094  0.794
6.294e+09  -0.7097  0.3683  0.002943  0.0009802  0.0183  -0.04161  0.3743  0.7114
6.295e+09  -0.4747  0.6577  0.01875  -0.01566  -0.006691  0.02356  0.6242  0.5314
6.296e+09  -0.2735  0.8534  -0.01014  0.006745  -0.008526  0.01364  0.7413  0.2791
6.298e+09  -0.05255  0.8625  0.007202  0.01123  0.03425  -0.02099  0.7801  0.02316
6.299e+09  0.2929  0.7822  0.009803  0.009378  0.03261  0.03358  0.783  -0.2733
6.3e+09  0.527  0.547  -0.00931  -0.02303  -0.04702  -0.07211  0.6576  -0.5043
6.301e+09  0.7332  0.4012  -0.02432  -0.03348  0.01981  -0.03746  0.4307  -0.7205
6.302e+09  0.7843  0.1196  0.009166  0.000498  0.02984  -0.06552  0.1601  -0.8647
6.304e+09  0.8358  -0.1629  -0.00785  0.02829  -0.01664  -0.00735  -0.1343  -0.7983
6.305e+09  0.6717  -0.4659  -0.01879  0.01834  0.00897  -0.01661  -0.4147  -0.7363
6.306e+09  0.4667  -0.6515  -0.01132  0.002571  -0.02543  -0.03381  -0.6427  -0.5541
6.308e+09  0.2603  -0.7855  -0.02177  0.01991  0.01244  0.06076  -0.7907  -0.2814
6.309e+09  -0.02201  -0.7989  -0.0168  -0.008807  -0.0193  0.01413  -0.8489  -0.004384
6.31e+09  -0.37  -0.7965  -0.007411  0.03708  -0.02367  0.02484  -0.8058  0.2997
6.311e+09  -0.5735  -0.6254  0.01506  -0.0328  -0.03591  0.04516  -0.6809  0.5286
6.312e+09  -0.7371  -0.3485  0.02076  0.004325  -0.03351  -0.01755  -0.4572  0.7373
6.314e+09  -0.8533  -0.1194  -0.01405  0.006128  0.02138  0.03748  -0.1449  0.8394
6.315e+09  -0.8464  0.1806  -0.01073  -0.02193  -0.04191  -0.05215  0.1463  0.8588
6.316e+09  -0.7025  0.5121  -0.03011  0.03103  0.01677  -0.0108  0.4441  0.7602
6.318e+09  -0.4653  0.6606  -0.0113  -0.01113  0.03327  0.04474  0.6794  0.5874
6.319e+09  -0.2383  0.794  -0.009008  -0.02453  -0.03428  0.00267  0.825  0.3112
6.32e+09  0.01305  0.8491  -0.01556  -0.01788  -0.01632  0.02996  0.8688  -0.01608
6.321e+09  0.3159  0.7803  0.02147  0.01956  -0.017  -0.02691  0.8764  -0.2764
6.322e+09  0.6036  0.584  -0.0004545  -0.008286  -0.01984  -0.03247  0.6838  -0.5333
6.324e+09  0.8103  0.3305  0.03645  -0.004534  0.01066  -0.005237  0.4548  -0.8001
6.325e+09  0.8216  0.0396  0.006914  0.009255  -0.01214  0.007023  0.1629  -0.8705
6.326e+09  0.8363  -0.25  0.002399  -0.03469  -0.01121  -0.004379  -0.1174  -0.8893
6.328e+09  0.6754  -0.5136  0.004114  -0.008705  0.00918  0.02645  -0.4491  -0.8043
6.329e+09  0.503  -0.7098  -0.005563  -0.02456  -0.00514  0.008262  -0.6943  -0.5962
6.33e+09  0.1937  -0.7821  -0.0004062  -0.002838  -0.02456  0.02384  -0.8484  -0.3407
6.331e+09  -0.1008  -0.817  -0.02775  0.02228  -0.0002087  0.03542  -0.9254  -0.0106
6.332e+09  -0.4747  -0.6947  0.00085  -0.01025  0.05282  -0.02197  -0.8695  0.3004
6.334e+09  -0.6613  -0.5718  0.01312  0.00718  0.02342  0.01935  -0.7334  0.5318
6.335e+09  -0.7985  -0.3059  -0.01978  -0.02219  -0.02671  0.05392  -0.4843  0.8032
6.336e+09  -0.8572  -0.007529  -0.00154  -0.005917  0.04741  -0.03736  -0.1954  0.8781
6.338e+09  -0.8243  0.3052  -0.001214  -0.008764  0.04584  0.00635  0.09399  0.9344
6.339e+09  -0.7274  0.5603  0.01475  0.0044  0.02543  0.01545  0.4207  0.8137
6.34e+09  -0.3706  0.7434  0.03927  -0.02995  -0.02866  0.007115  0.6834  0.6111
6.341e+09  -0.1493  0.8236  -0.01836  -0.02349  -0.01746  0.03433  0.8291  0.3832
6.342e+09  0.1366  0.8492  0.01872  0.008372  -0.03967  0.004261  0.9333  0.03823
6.344e+09  0.4412  0.7032  0.01501  0.00693  -0.04587  0.02135  0.909  -0.2599
6.345e+09  0.6515  0.5023  -0.005949  0.03671  0.006358  0.02203  0.7322  -0.5732
6.346e+09  0.8378  0.2783  0.009094  -0.01807  -0.0189  0.04178  0.4896  -0.7823
6.348e+09  0.8362  -0.07479  0.02143  -0.005561  -0.01273  -0.0148  0.2352  -0.8682
6.349e+09  0.7953  -0.3535  0.00857  0.008029  -0.005502  0.001099  -0.1099  -0.9587
6.35e+09  0.5886  -0.6171  0.002587  -0.00725  0.003963  0.04664  -0.4398  -0.8455
6.351e+09  0.3781  -0.7899  0.01028  -0.02115  0.01123  0.004185  -0.6845  -0.6566
6.352e+09  0.08529  -0.8712  -0.0131  0.008535  0.01731  0.01295  -0.8494  -0.3696
6.354e+09  -0.2609  -0.849  -0.0141  -0.0301  0.01432  0.0269  -0.9649  -0.07559
6.355e+09  -0.5178  -0.6939  0.03957  -0.004706  0.03121  -0.008806  -0.9203  0.2114
6.356e+09  -0.7188  -0.5028  0.00702  -0.01584  0.002913  0.006167  -0.8069  0.5978
6.358e+09  -0.8428  -0.1773  -0.01858  -0.007442  -0.03204  0.02718  -0.5143  0.7518
6.359e+09  -0.9119  0.1669  0.02384  0.02575  -0.02343  -0.01419  -0.2422  0.919
6.36e+09  -0.7812  0.4142  -0.0006556  -0.01381  -0.005557  0.0166  0.1113  0.9099
6.361e+09  -0.5793  0.6686  -0.02173  -0.004803  -0.04585  -0.002602  0.3964  0.9131
6.362e+09  -0.3369  0.8  -0.02198  -0.02785  -0.005608  0.03312  0.6736  0.6288
6.364e+09  -0.01192  0.8864  -0.02535  -0.03491  0.01401  0.005769  0.8356  0.4214
6.365e+09  0.2667  0.8279  0.006736  0.01697  -0.007932  -0.005495  0.9201  0.09676
6.366e+09  0.6177  0.672  0.009251  -0.007443  0.0235  -0.01315  0.9376  -0.2849
6.368e+09  0.766  0.4342  0.01842  0.02238  -0.01917  -0.005856  0.7657  -0.533
6.369e+09  0.8531  0.1467  0.03403  -0.009743  0.0373  -0.03333  0.5411  -0.7675
6.37e+09  0.8324  -0.2284  -0.006233  0.007111  -0.03421  -0.008531  0.2676  -0.9309
6.371e+09  0.7793  -0.4283  -0.0203  0.04112  -0.04342  -0.04748  -0.08741  -0.9381
6.372e+09  0.5758  -0.675  0.02391  -0.01293  0.0126  0.02704  -0.4561  -0.8543
6.374e+09  0.2756  -0.8583  -0.009965  -0.03501  0.01265  0.006623  -0.6692  -0.6569
6.375e+09  -0.03756  -0.9079  0.01454  -0.002531  -0.007202  -0.01775  -0.819  -0.3969
6.376e+09  -0.3676  -0.8455  -0.001845  -0.01796  0.01751  0.001348  -0.9184  -0.08777
6.378e+09  -0.5966  -0.6868  0.001383  0.02963  -0.05983  -0.008551  -0.9334  0.2224
6.379e+09  -0.7857  -0.4198  -0.004427  0.01148  -0.005355  -0.02869  -0.79  0.5389
6.38e+09  -0.8924  -0.08142  -0.02241  0.01509  -0.006659  0.0235  -0.5627  0.7321
6.381e+09  -0.8422  0.2162  -0.00586  -0.009957  0.0195  0.0007692  -0.2881  0.8912
6.382e+09  -0.7182  0.453  0.005665  -0.003363  0.01633  -0.03163  0.04222  0.9466
6.384e+09  -0.5107  0.7472  0.01773  -0.03186  0.04893  0.01518  0.3695  0.8484
6.385e+09  -0.2622  0.8196  0.005065  -0.05701  -0.02568  0.02946  0.6433  0.6414
6.386e+09  0.0835  0.9042  0.008682  0.006761  0.001369  -0.02205  0.833  0.4338
6.388e+09  0.3816  0.7838  -0.01365  -0.0142  -0.005484  -0.00714  0.9191  0.07827
6.389e+09  0.6446  0.6114  -0.01515  0.01686  0.004562  0.00762  0.9087  -0.1415
6.39e+09  0.8263  0.3454  -0.03937  -0.008363  -0.03638  -0.03344  0.7505  -0.5218
6.391e+09  0.8614  0.0129  -0.02315  -0.008398  -0.01711  -0.03321  0.5591  -0.7102
6.392e+09  0.8002  -0.2414  -0.009988  0.08977  -0.01441  0.03799  0.2988  -0.8972
6.394e+09  0.6498  -0.5585  -0.02842  -0.01979  0.0228  0.01831  -0.02759  -0.8989
6.395e+09  0.5082  -0.7134  0.009976  0.02316  0.03654  0.02571  -0.346  -0.8393
6.396e+09  0.1998  -0.8941  -0.0009002  0.01201  -0.02904  -0.02183  -0.6145  -0.6843
6.398e+09  -0.1175  -0.882  -0.03733  0.0008021  -0.01881  0.03521  -0.8054  -0.4393
6.399e+09  -0.4118  -0.7597  -0.01237  0.01585  0.006637  0.009065  -0.9303  -0.1249
6.4e+09  -0.6681  -0.5897  -0.01118  -0.006037  0.005445  -0.001195  -0.8699  0.1718
6.401e+09  -0.8053  -0.2938  0.009579  -0.02418  0.008257  0.009442  -0.7476  0.4757
6.402e+09  -0.8701  -0.04213  -0.04492  -0.01271  0.001181  -0.03348  -0.5661  0.7256
6.404e+09  -0.814  0.2921  0.07163  0.002624  0.02182  0.01483  -0.2867  0.9144
6.405e+09  -0.6798  0.5525  0.04364  0.01604  -0.06631  0.02363  -0.01492  0.914
6.406e+09  -0.447  0.7315  -0.004931  0.02974  -0.01595  0.03516  0.2842  0.8799
6.408e+09  -0.1587  0.8697  -0.01156  -0.02743  -0.002084  -0.02126  0.5824  0.6683
6.409e+09  0.1369  0.8364  0.02775  0.00224  0.001687  -0.0005319  0.8037  0.4286
6.41e+09  0.4458  0.7475  0.05737  0.02287  -0.07323  0.008105  0.942  0.1819
6.411e+09  0.6484  0.572  -0.03198  0.006137  0.04272  -0.01588  0.884  -0.1252
6.412e+09  0.812  0.3166  -0.0333  -0.01748  0.01209  -0.02349  0.8003  -0.4278
6.414e+09  0.8984  -0.02885  0.001895  0.003621  -0.005188  0.01045  0.599  -0.6667
6.415e+09  0.8266  -0.2996  0.01595  0.04418  0.01766  0.0663  0.3283  -0.8283
6.416e+09  0.644  -0.575  -0.003979  0.006313  0.02161  -0.006019  0.03392  -0.8805
6.418e+09  0.4653  -0.7857  -0.03054  -0.004796  -0.0005804  0.03135  -0.3197  -0.8606
6.419e+09  0.1374  -0.9194  0.00402  0.009523  -0.006179  -0.00285  -0.5773  -0.6929
6.42e+09  -0.2076  -0.8334  0.00859  -0.02393  0.03852  0.01791  -0.7569  -0.452
6.421e+09  -0.4461  -0.6961  -0.034  0.01573  0.07522  -0.02459  -0.8727  -0.2226
6.422e+09  -0.7023  -0.5632  -0.006711  0.003781  0.02671  0.05053  -0.9189  0.1339
6.424e+09  -0.8933  -0.2944  -0.01228  0.005002  0.009212  0.04478  -0.8258  0.3712
6.425e+09  -0.8774  0.05302  -0.005062  -0.02911  -0.03257  -0.01551  -0.6102  0.6208
6.426e+09  -0.8232  0.3592  0.03221  0.01419  -0.03039  0.01474  -0.3209  0.8363
6.428e+09  -0.6448  0.5896  -0.003091  -0.001916  0.01701  0.01947  -0.07594  0.8655
6.429e+09  -0.4228  0.7912  -0.01016  0.03298  -0.003451  -0.01782  0.2945  0.8253
6.43e+09  -0.1042  0.8832  0.04075  -0.02767  -0.02847  0.01169  0.4828  0.7122
6.431e+09  0.1575  0.8812  0.01981  0.00595  -0.006443  -0.04623  0.739  0.4801
6.432e+09  0.4881  0.7519  0.01395  -0.008145  0.02789  0.04684  0.818  0.2016
6.434e+09  0.6933  0.4885  0.01598  0.01821  -0.01308  -0.0001877  0.8555  -0.06713
6.435e+09  0.8167  0.2895  0.03057  -0.04293  -0.02619  -0.0202  0.7616  -0.3641
6.436e+09  0.8993  -0.04377  -0.00113  -0.02415  -0.003293  0.02252  0.5876  -0.645
6.438e+09  0.7982  -0.3537  0.03557  0.01858  -0.009385  0.01709  0.357  -0.7663
6.439e+09  0.5799  -0.5898  0.01904  0.01506  0.005122  0.03664  0.04642  -0.8758
6.44e+09  0.3877  -0.7315  0.02952  -0.01006  0.008481  -0.00348  -0.2463  -0.79
6.441e+09  0.1165  -0.8502  -0.02671  -0.004774  -0.003127  0.002285  -0.4863  -0.6545
6.442e+09  -0.2113  -0.8567  0.0009428  -0.02531  0.02063  0.02479  -0.6747  -0.4814
6.444e+09  -0.4964  -0.7608  -0.05398  -0.00972  0.032  0.04607  -0.7985  -0.2304
6.445e+09  -0.6988  -0.5061  0.003939  0.002398  0.05265  -0.0237  -0.8312  0.0698
6.446e+09  -0.8032  -0.2707  -0.0314  0.01465  -0.01878  -0.01056  -0.7516  0.3327
6.448e+09  -0.9124  0.04795  -0.00328  0.004881  -0.01089  0.006567  -0.6505  0.5858
6.449e+09  -0.8239  0.4005  -0.03649  -0.002236  0.02465  -0.01817  -0.3584  0.7193
6.45e+09  -0.6439  0.6407  -0.01248  0.03836  -0.04398  0.01045  -0.00772  0.8
6.451e+09  -0.4023  0.761  -0.008148  0.03564  0.01657  -0.06262  0.2166  0.8502
6.452e+09  -0.06446  0.9065  0.006584  0.01297  0.02165  -0.02974  0.4377  0.6782
6.454e+09  0.2525  0.8258  -0.01432  0.01767  0.06377  -0.03286  0.6295  0.4819
6.455e+09  0.5482  0.7214  -0.03866  0.0182  0.01523  -0.01272  0.8009  0.1961
6.456e+09  0.6708  0.5174  0.001568  -0.009102  -0.0238  0.03442  0.7879  -0.05674
6.458e+09  0.8424  0.1929  0.008237  0.04665  0.002983  -0.01941  0.7537  -0.3622
6.459e+09  0.889  -0.04589  0.001301  -0.006955  -0.009163  -0.03288  0.578  -0.6143
6.46e+09  0.8012  -0.3218  -0.01262  0.0578  -0.04697  0.01477  0.3082  -0.7539
6.461e+09  0.5956  -0.5969  -0.006606  0.0141  0.009601  0.001885  0.07867  -0.8004
6.462e+09  0.3365  -0.7691  0.001852  -0.009398  -0.03613  -0.01681  -0.2145  -0.7693
6.464e+09  0.06543  -0.8943  -0.01827  0.01321  -0.01367  0.03102  -0.4867  -0.6324
6.465e+09  -0.2361  -0.8905  -0.01863  -0.03058  0.0183  0.0261  -0.7133  -0.4338
6.466e+09  -0.5481  -0.7146  -0.01791  0.007924  -0.02749  0.009013  -0.7847  -0.2312
6.468e+09  -0.7194  -0.5483  0.002979  -0.009684  0.02549  0.03293  -0.786  0.08864
6.469e+09  -0.8378  -0.2741  0.0279  -0.05213  0.06472  -0.05006  -0.7625  0.3468
6.47e+09  -0.8865  0.1049  -0.02681  -0.03748  -0.02578  0.02762  -0.5883  0.5614
6.471e+09  -0.7967  0.3607  -0.06179  -0.004366  0.002043  -0.03318  -0.3797  0.6715
6.472e+09  -0.6221  0.626  0.0208  0.0173  -0.02952  0.03985  -0.05762  0.8161
6.474e+09  -0.3668  0.7821  -0.02203  -0.008676  -0.001269  -0.02806  0.1924  0.7686
6.475e+09  -0.05552  0.9341  0.01696  0.003311  -0.02469  0.01108  0.4808  0.6374
6.476e+09  0.2321  0.866  -0.014  0.0408  0.01308  0.0245  0.6109  0.4613
6.478e+09  0.5308  0.7148  -0.05045  0.01346  0.009759  -0.03133  0.7672  0.1539
6.479e+09  0.7122  0.4849  -0.007382  -0.01477  0.00815  0.04254  0.8066  -0.06895
6.48e+09  0.8858  0.2568  0.03373  0.02555  -0.02791  0.0218  0.7507  -0.3529
6.481e+09  0.9288  -0.07971  -0.03098  -0.009545  0.04308  -0.01887  0.5745  -0.6001
6.482e+09  0.7647  -0.3827  -0.02786  -0.0008148  -0.03984  0.02843  0.3069  -0.6973
6.484e+09  0.5672  -0.6565  0.02674  -0.04368  0.01786  -0.04416  0.04471  -0.81
6.485e+09  0.3486  -0.8015  0.001725  -0.01463  -0.04108  0.01731  -0.1991  -0.7325
6.486e+09  0.1201  -0.9055  0.02646  -0.001992  0.02738  -0.0297  -0.4226  -0.6162
6.488e+09  -0.2046  -0.8268  -0.01402  -0.02767  -0.00167  0.02173  -0.6122  -0.429
6.489e+09  -0.5635  -0.7116  -0.02048  0.03631  -0.02513  0.0009157  -0.745  -0.1645
6.49e+09  -0.7061  -0.4991  -0.03118  -0.01938  0.02383  -0.02667  -0.7563  0.1039
6.491e+09  -0.8411  -0.1833  -0.02625  -0.04022  0.01043  -0.05117  -0.6849  0.312
6.492e+09  -0.8605  0.0963  0.01646  -0.02871  -0.01491  0.00888  -0.5001  0.5208
6.494e+09  -0.8117  0.4017  -0.01263  0.01726  -0.02019  0.003369  -0.3039  0.69
6.495e+09  -0.6401  0.6875  0.01878  0.01802  0.02259  0.01694  -0.06502  0.7986
6.496e+09  -0.3597  0.8231  0.004834  -0.00216  -0.005394  -0.0603  0.2531  0.7455
6.498e+09  -0.03763  0.9177  0.01411  0.01991  0.0342  0.01219  0.4656  0.6301
6.499e+09  0.2847  0.9059  0.004974  0.0326  -0.008955  0.004714  0.6247  0.4288
6.5e+09  0.5687  0.7229  -0.02752  -0.03515  0.02927  -0.0193  0.7458  0.1906
6.501e+09  0.7578  0.4964  -0.04922  0.04581  -0.01807  0.01329  0.7328  -0.1108
6.502e+09  0.8578  0.1992  -0.001381  0.001051  -0.04867  -0.01996  0.7058  -0.3536
6.504e+09  0.8646  -0.145  -0.0152  -0.01922  0.002322  0.009402  0.5384  -0.5741
6.505e+09  0.8057  -0.4237  0.02599  0.01856  0.02442  0.01385  0.3008  -0.6834
6.506e+09  0.5192  -0.7178  0.0144  -0.00208  -0.01142  -0.03559  -0.01594  -0.7647
6.508e+09  0.2924  -0.8304  0.00791  -0.008536  0.02258  -0.04784  -0.2298  -0.6601
6.509e+09  0.01945  -0.9254  0.001203  -0.004196  -0.007651  0.01865  -0.4549  -0.5776
6.51e+09  -0.3395  -0.9169  0.002854  -0.004291  0.005624  -0.02728  -0.6277  -0.3717
6.511e+09  -0.5675  -0.748  0.009537  -0.0007447  -0.01548  -0.01205  -0.773  -0.1307
6.512e+09  -0.7985  -0.4431  -0.01466  0.01319  -0.005475  0.008562  -0.7589  0.1494
6.514e+09  -0.8856  -0.1772  -0.03146  -0.008994  -0.005415  -0.02314  -0.625  0.4049
6.515e+09  -0.931  0.1063  -0.04888  -0.01743  -0.002104  0.04507  -0.4911  0.5712
6.516e+09  -0.8011  0.4532  -0.0206  -0.01353  0.02683  0.02703  -0.2721  0.6972
6.518e+09  -0.6185  0.7302  -0.02578  0.05367  0.008056  0.01102  0.006279  0.749
6.519e+09  -0.2941  0.8996  -0.01203  0.03543  0.009892  0.06031  0.2636  0.7126
6.52e+09  -0.03841  0.9718  0.03497  -0.01009  -0.02334  0.07401  0.504  0.5692
6.521e+09  0.3187  0.9274  -0.02256  0.02701  -0.002251  -0.06733  0.6237  0.3375
6.522e+09  0.6445  0.703  0.005931  0.009414  0.01274  0.002929  0.7036  0.133
6.524e+09  0.8773  0.4406  0.02992  0.01374  -0.03064  -0.008071  0.7049  -0.1646
6.525e+09  0.9066  0.1168  0.0147  -0.03249  -0.01744  -0.0143  0.5859  -0.3747
6.526e+09  0.932  -0.1301  0.02973  0.0263  0.04129  -0.002204  0.4086  -0.5623
6.528e+09  0.8286  -0.5364  -0.009094  -0.009692  0.03057  0.01677  0.207  -0.6972
6.529e+09  0.6043  -0.7699  0.0417  -0.01484  0.003721  -0.01541  -0.02325  -0.6658
6.53e+09  0.2624  -0.9305  -0.01284  0.02919  -0.02251  -0.02457  -0.2738  -0.6186
6.531e+09  -0.1138  -0.9726  0.01654  -0.007809  -0.007594  -0.05538  -0.4797  -0.473
6.532e+09  -0.3863  -0.8772  0.005367  -0.003875  -0.01935  -0.03781  -0.5705  -0.3293
6.534e+09  -0.7038  -0.705  -0.009551  -0.01598  0.02896  0.02164  -0.6582  -0.07114
6.535e+09  -0.8578  -0.3911  0.01117  0.01727  -0.03177  -0.03692  -0.6141  0.08617
6.536e+09  -0.9866  -0.08443  0.02992  0.005681  -0.002494  -0.01716  -0.564  0.3213
6.538e+09  -0.9252  0.2651  0.01357  0.0192  -0.04141  -0.0436  -0.4797  0.4925
6.539e+09  -0.8361  0.553  0.003381  -0.006416  -0.0008423  0.006033  -0.2831  0.6035
6.54e+09  -0.542  0.8437  -0.01058  0.006026  -0.005977  -0.003264  -0.03742  0.6898
6.541e+09  -0.2318  0.9284  -0.0003232  -0.007743  -0.02484  -0.03605  0.1734  0.6526
6.542e+09  0.1475  0.9626  -0.00535  -0.002295  0.01437  -0.04385  0.3934  0.5809
6.544e+09  0.5044  0.8538  -0.03937  0.007218  -0.02338  0.0174  0.6117  0.3965
6.545e+09  0.7445  0.6515  -0.01101  0.01268  0.03117  -0.01068  0.7187  0.1758
6.546e+09  0.8648  0.3444  -0.03237  -0.0214  0.05594  -0.01597  0.738  -0.07276
6.548e+09  1.031  -0.007498  -0.0156  -0.005205  -0.002212  0.008955  0.5892  -0.3389
6.549e+09  0.9395  -0.2894  0.02118  -0.00674  0.02627  -0.003403  0.531  -0.5336
6.55e+09  0.7664  -0.5758  -0.01566  -0.03513  0.006855  -0.01145  0.2664  -0.6714
