# Hz S RI R 50
6.25e+09  -0.3836  0.7748  0.01137  -0.02678  -0.07547  0.05062  0.1472  0.4838
6.251e+09  -0.09419  0.8131  0.006775  -0.02115  -0.03232  -0.001112  0.3447  0.3924
6.252e+09  0.2196  0.8331  -0.0133  0.02378  -0.00432  0.03789  0.5236  0.201
6.254e+09  0.4645  0.7836  -0.02912  0.03907  -0.05096  -0.01404  0.6294  0.0178
6.255e+09  0.7184  0.5132  0.01734  -0.007218  0.03507  0.0202  0.601  -0.2203
6.256e+09  0.8221  0.2196  0.02856  0.00117  -0.02619  -0.02485  0.4559  -0.4231
6.258e+09  0.848  -0.02406  0.009983  0.02551  -0.02546  0.02881  0.2826  -0.5994
6.259e+09  0.7413  -0.3315  0.02523  -0.00406  0.006436  -0.01085  0.04322  -0.6744
6.26e+09  0.579  -0.5546  -0.01708  0.003993  0.01955  -0.01392  -0.1914  -0.6318
6.261e+09  0.357  -0.7275  0.0005989  0.01287  -0.001573  -0.005383  -0.4518  -0.545
6.262e+09  0.1329  -0.7926  -0.03769  -0.01155  -0.005781  0.0006689  -0.6133  -0.3646
6.264e+09  -0.2416  -0.8831  0.003024  0.02058  -0.07568  0.005389  -0.7143  -0.09014
6.265e+09  -0.462  -0.6664  -0.009841  -0.01405  0.01935  -0.006647  -0.7046  0.1771
6.266e+09  -0.6606  -0.427  0.02503  -0.02688  0.05074  0.04241  -0.5934  0.4062
6.268e+09  -0.8055  -0.2705  0.03075  -0.02505  -0.02204  -0.01859  -0.4432  0.6136
6.269e+09  -0.8982  0.003012  0.02923  0.01134  -0.06601  0.061  -0.1923  0.7169
6.27e+09  -0.7514  0.3141  -0.009007  0.03642  -0.001136  0.02627  0.0743  0.7337
6.271e+09  -0.6036  0.592  -0.01647  0.004308  -0.0268  -0.009827  0.343  0.6784
6.272e+09  -0.415  0.7479  -0.02342  0.009637  0.03382  -0.013  0.5461  0.5376
6.274e+09  -0.1022  0.8476  0.01774  0.006719  -0.009343  -0.006127  0.6586  0.3354
6.275e+09  0.1984  0.8303  0.004554  0.01995  0.003246  0.01255  0.7583  0.03444
6.276e+09  0.4386  0.6352  -0.018  -0.004354  -0.01046  -0.008009  0.7313  -0.1927
6.278e+09  0.7328  0.5069  -0.0112  0.002161  -0.0027  -0.058  0.6015  -0.4575
6.279e+09  0.7571  0.1855  -0.001012  0.02536  -0.03455  0.0553  0.4259  -0.6717
6.28e+09  0.799  -0.05408  -0.006583  0.01102  -0.01687  0.03018  0.1665  -0.7316
6.281e+09  0.7929  -0.3552  -0.0131  0.004524  0.03799  0.1038  -0.1048  -0.7936
6.282e+09  0.6057  -0.563  -0.006272  -0.02264  -0.004525  0.02059  -0.3873  -0.6914
6.284e+09  0.3447  -0.742  0.02959  -0.002073  -0.002609  -0.0321  -0.5885  -0.5451
6.285e+09  0.09168  -0.8358  -0.004791  0.007066  0.0361  0.002614  -0.7273  -0.2906
6.286e+09  -0.2164  -0.8018  0.03038  0.01557  -0.01158  -0.02463  -0.7827  -0.03152
6.288e+09  -0.4582  -0.6757  -0.03465  0.008963  0.02147  0.06768  -0.7464  0.2707
6.289e+09  -0.6612  -0.4631  -0.04731  0.01024  -0.01642  -0.03193  -0.6173  0.5127
6.29e+09  -0.8537  -0.2267  -0.005803  0.04144  0.009418  0.01165  -0.4175  0.6907
6.291e+09  -0.8349  0.05003  0.01082  0.02792  0.02331  0.006068  -0.1496  0.7935
6.292e+09  -0.7122  0.3761  -0.008439  -0.01414  0.002449  0.009485  0.1357  0.7971
6.294e+09  -0.582  0.5958  0.01021  -0.01368  0.03268  -0.002856  0.3735  0.7013
6.295e+09  -0.3405  0.7787  0.02837  -0.02741  0.0002896  -0.02197  0.6088  0.5129
6.296e+09  -0.06896  0.7862  -0.00546  0.03038  0.03499  -0.01075  0.7532  0.2829
6.298e+09  0.2405  0.7961  0.001467  -0.03057  -0.02455  0.03181  0.8284  0.02287
6.299e+09  0.4244  0.6415  -0.007286  -0.03401  -0.05692  -0.00119  0.8004  -0.2752
6.3e+09  0.6867  0.4642  0.02105  -0.02115  -0.01823  0.00466  0.6274  -0.5247
6.301e+09  0.7954  0.1849  0.001544  0.01186  -0.007976  0.02484  0.4237  -0.7226
6.302e+09  0.8023  -0.05675  0.01383  -0.002473  0.04747  0.01433  0.1858  -0.8388
6.304e+09  0.7279  -0.4223  0.02254  -0.01349  -0.04179  0.02975  -0.1336  -0.8281
6.305e+09  0.5655  -0.6506  -0.01351  0.04948  -0.0178  -0.06235  -0.4284  -0.7378
6.306e+09  0.3175  -0.7833  0.02039  -0.008767  0.002699  0.01128  -0.6573  -0.5513
6.308e+09  0.05009  -0.8447  0.002466  0.007636  -0.004373  0.009981  -0.798  -0.3064
6.309e+09  -0.3141  -0.8383  -0.02518  -0.01884  -0.02976  -0.01789  -0.8501  -0.03659
6.31e+09  -0.5348  -0.6723  -0.006846  -0.002083  0.0324  -0.06916  -0.8057  0.3057
6.311e+09  -0.7239  -0.4539  0.03041  0.002519  0.03551  -0.0444  -0.6633  0.541
6.312e+09  -0.8119  -0.1748  0.003013  0.002989  -0.0582  -0.01286  -0.4446  0.7319
6.314e+09  -0.8574  0.1463  0.03062  -0.004422  0.03063  0.01005  -0.1507  0.8404
6.315e+09  -0.7441  0.4328  -0.0333  0.005556  -0.01799  -0.009968  0.1669  0.8638
6.316e+09  -0.5207  0.6503  0.0004428  0.006224  -0.03844  0.01401  0.4252  0.7991
6.318e+09  -0.2285  0.8039  -0.001601  -0.003514  -0.02044  -0.02799  0.6799  0.575
6.319e+09  0.04136  0.836  0.02963  -0.01939  0.01023  -0.05016  0.8176  0.2934
6.32e+09  0.2865  0.7977  0.02425  0.00885  0.03551  0.01208  0.8731  0.01304
6.321e+09  0.5767  0.6323  -0.004524  -0.006428  -0.04088  0.0002183  0.8041  -0.3137
6.322e+09  0.7871  0.3528  -0.005984  -0.00459  -0.02577  0.01225  0.72  -0.5655
6.324e+09  0.8626  0.1017  0.01773  -0.00978  -0.04493  -0.02304  0.4324  -0.7506
6.325e+09  0.8328  -0.1911  -0.01235  0.01072  -0.0115  -0.0213  0.1919  -0.8754
6.326e+09  0.77  -0.4595  -0.02645  0.01331  0.002433  -0.02201  -0.1215  -0.8543
6.328e+09  0.4966  -0.6313  0.01959  0.05451  -0.03001  -0.04134  -0.4031  -0.8107
6.329e+09  0.2213  -0.8046  0.002383  -0.006247  -0.004403  0.02552  -0.6873  -0.6019
6.33e+09  -0.07864  -0.8601  -0.003108  0.01072  0.01753  0.01847  -0.835  -0.3364
6.331e+09  -0.3455  -0.8086  0.01843  0.02838  -0.006687  -0.03529  -0.9031  -0.04216
6.332e+09  -0.602  -0.5915  0.02929  -0.01118  0.02537  -0.005576  -0.834  0.2723
6.334e+09  -0.7494  -0.3158  -0.006757  -0.0158  0.006776  -0.01507  -0.7227  0.5546
6.335e+09  -0.9073  -0.07758  0.007594  0.004676  0.02537  -0.00971  -0.495  0.7558
6.336e+09  -0.8468  0.2499  0.01054  -0.03823  0.09506  -0.01657  -0.1942  0.8951
6.338e+09  -0.7076  0.5408  0.01066  0.008709  -0.0302  -0.03811  0.1139  0.9229
6.339e+09  -0.4737  0.744  -0.004903  0.03009  0.03341  -0.02925  0.4123  0.8222
6.34e+09  -0.1348  0.8365  -0.03501  0.0026  0.0016  -0.009415  0.6489  0.6449
6.341e+09  0.1597  0.869  -0.007039  0.002956  -0.0173  -0.01354  0.8824  0.3525
6.342e+09  0.3977  0.721  -6.462e-05  -0.01761  -0.01961  0.02748  0.9267  0.03751
6.344e+09  0.6716  0.5781  0.02891  -0.02973  0.05814  0.0003043  0.904  -0.2899
6.345e+09  0.7803  0.307  -0.003933  0.02079  -0.02008  0.009367  0.7467  -0.522
6.346e+09  0.8687  -0.05026  0.01273  -0.007312  -0.03565  -0.02159  0.4878  -0.7791
6.348e+09  0.8069  -0.2992  -0.03864  -0.01152  -0.05364  -0.01171  0.2277  -0.9249
6.349e+09  0.655  -0.5753  -0.01798  0.006621  -0.03076  -0.01812  -0.1125  -0.9216
6.35e+09  0.4115  -0.7631  -0.01426  0.01497  0.04415  0.007428  -0.4148  -0.8482
6.351e+09  0.06688  -0.9237  -0.03198  0.01565  -0.05675  -0.01192  -0.6474  -0.6487
6.352e+09  -0.1358  -0.9167  0.01139  0.004261  0.003322  -0.01758  -0.8546  -0.3848
6.354e+09  -0.477  -0.7191  -0.03603  -0.02315  -0.03134  -0.003783  -0.9306  -0.08886
6.355e+09  -0.7285  -0.5431  0.006874  0.03104  -0.007274  0.002631  -0.8969  0.2369
6.356e+09  -0.8032  -0.3057  -0.002717  0.03024  -0.05303  -0.03136  -0.7868  0.5628
6.358e+09  -0.8972  0.0587  0.007268  0.01505  0.01915  0.002722  -0.5219  0.795
6.359e+09  -0.7988  0.3643  0.005082  -0.04653  0.01704  0.04834  -0.2368  0.8896
6.36e+09  -0.6177  0.6269  -0.03312  -0.009695  -0.002891  0.02124  0.08614  0.9275
6.361e+09  -0.3983  0.8188  -0.01739  0.008673  -0.03625  0.02417  0.3853  0.8511
6.362e+09  -0.05414  0.8789  0.0271  -0.02712  0.008749  0.02469  0.7059  0.655
6.364e+09  0.2678  0.815  0.03452  -0.002849  -0.047  0.01102  0.8734  0.4032
6.365e+09  0.5286  0.6667  -0.04291  0.003778  -0.03351  -0.02294  0.9202  0.06258
6.366e+09  0.7102  0.4598  0.012  0.03952  -0.0007014  -0.01703  0.9028  -0.2679
6.368e+09  0.8545  0.268  0.02872  0.0131  0.01287  0.001584  0.7937  -0.5596
6.369e+09  0.8473  -0.05199  0.0218  0.01236  0.01151  0.001696  0.5336  -0.7959
6.37e+09  0.7623  -0.4398  -0.02814  -0.007901  0.06514  0.008122  0.2497  -0.9578
6.371e+09  0.6385  -0.6276  -0.01842  0.02452  -0.03984  -0.002826  -0.06123  -0.9286
6.372e+09  0.3389  -0.8656  0.003032  -0.03045  -0.07764  0.02686  -0.3901  -0.8664
6.374e+09  0.05417  -0.8877  0.0161  -0.00516  -0.003021  0.03547  -0.662  -0.6482
6.375e+09  -0.2978  -0.8526  -0.002146  -0.006763  0.03937  -0.01534  -0.8415  -0.4018
6.376e+09  -0.5627  -0.7061  0.003552  0.01886  -0.008622  0.02386  -0.9286  -0.07807
6.378e+09  -0.7495  -0.4759  -0.0233  -0.0204  0.02375  0.00552  -0.9214  0.2431
6.379e+09  -0.8748  -0.177  0.02078  -0.006415  -0.05932  -0.023  -0.7984  0.5032
6.38e+09  -0.8989  0.1352  -0.02788  -0.006888  -0.02283  0.001996  -0.5733  0.7502
6.381e+09  -0.7687  0.4491  -0.02678  -0.0125  0.0247  -0.04564  -0.2996  0.9204
6.382e+09  -0.5592  0.6724  -0.001843  0.05495  0.04073  -0.008843  0.07293  0.9523
6.384e+09  -0.3539  0.8081  0.03265  -0.04358  0.002589  -0.01701  0.3626  0.8487
6.385e+09  0.02137  0.9055  0.0009498  -0.008336  -0.01374  0.00797  0.6269  0.664
6.386e+09  0.3603  0.8276  0.02856  -0.01904  0.01609  -0.02525  0.8508  0.4202
6.388e+09  0.6256  0.6604  0.005397  0.008269  -0.0302  0.03017  0.9251  0.1336
6.389e+09  0.7963  0.3964  0.002744  -0.007584  0.004319  -0.0019  0.8887  -0.2005
6.39e+09  0.8712  0.1905  0.04134  -0.05251  0.0374  -0.03823  0.7703  -0.4535
6.391e+09  0.8952  -0.1854  -0.00507  -0.02338  -0.002856  0.01721  0.5376  -0.7207
6.392e+09  0.7773  -0.5054  -0.04639  -0.03018  -0.0181  0.01103  0.2981  -0.9118
6.394e+09  0.5516  -0.6712  -0.01075  -0.01709  -0.01088  0.009954  0.01949  -0.9484
6.395e+09  0.2288  -0.819  0.007169  0.02173  -0.00457  0.03214  -0.3308  -0.8499
6.396e+09  -0.03352  -0.8814  0.02931  0.001241  -0.01274  0.01498  -0.61  -0.6991
6.398e+09  -0.3386  -0.8578  -0.008219  0.01784  0.02516  -0.002142  -0.7791  -0.4642
6.399e+09  -0.6199  -0.6724  0.0137  0.0005516  -0.03366  0.03644  -0.8895  -0.1207
6.4e+09  -0.7704  -0.4237  0.003122  -0.03621  -0.03138  0.03012  -0.9139  0.1491
6.401e+09  -0.9145  -0.1226  0.03374  0.002299  0.01699  -0.04185  -0.7983  0.4361
6.402e+09  -0.8024  0.1977  0.01793  0.001534  -0.0007982  0.01636  -0.5888  0.6905
6.404e+09  -0.7129  0.5112  -0.003307  0.01595  0.05133  0.003102  -0.3239  0.856
6.405e+09  -0.5148  0.7083  -0.0009048  0.03739  0.007998  0.01182  -0.008369  0.8534
6.406e+09  -0.2302  0.8229  -0.03011  0.04589  0.06213  -0.01334  0.2721  0.8912
6.408e+09  0.1001  0.8826  -0.04673  0.001888  -0.01258  -0.04218  0.5628  0.6924
6.409e+09  0.3158  0.7971  0.0186  -0.002818  0.03974  0.01634  0.7954  0.4541
6.41e+09  0.6309  0.6548  0.007203  0.002219  0.01798  0.01575  0.8769  0.1658
6.411e+09  0.7892  0.3843  0.01626  -0.02223  -0.06316  -0.04643  0.9047  -0.1344
6.412e+09  0.873  0.09611  -0.01383  0.02304  -0.01118  0.03296  0.7784  -0.4215
6.414e+09  0.8725  -0.2203  -0.03446  0.03933  -0.02844  -0.01736  0.6015  -0.6659
6.415e+09  0.7253  -0.5199  0.02365  -0.01507  -0.01417  0.007796  0.3153  -0.8229
6.416e+09  0.5224  -0.6883  0.04175  0.04489  -0.008495  0.03373  0.03413  -0.8833
6.418e+09  0.2223  -0.8316  0.02923  -0.008389  -0.01329  0.007522  -0.2439  -0.8676
6.419e+09  -0.08369  -0.8955  0.002798  0.03496  0.04044  0.03154  -0.5534  -0.6894
6.42e+09  -0.3817  -0.7607  -0.003497  0.002155  -0.06367  -0.0122  -0.7844  -0.4457
6.421e+09  -0.6481  -0.6501  0.02318  -0.007729  0.006367  -0.01776  -0.8407  -0.2326
6.422e+09  -0.8043  -0.3398  0.008145  -0.01623  0.007137  0.005782  -0.887  0.06944
6.424e+09  -0.8784  -0.07459  -0.05249  0.003814  0.01322  0.0002741  -0.7518  0.3912
6.425e+09  -0.9017  0.2543  0.007038  -0.02298  -0.02147  0.0003584  -0.6057  0.6499
6.426e+09  -0.7151  0.5477  0.01234  0.007055  0.04601  -0.03526  -0.337  0.7867
6.428e+09  -0.4987  0.7598  0.00768  -0.01014  0.05153  -0.0274  -0.03814  0.9177
6.429e+09  -0.169  0.8598  0.03293  0.0172  -0.02067  0.005467  0.2652  0.8445
6.43e+09  0.06377  0.8852  0.04011  -0.001585  0.02246  0.008783  0.5243  0.6904
6.431e+09  0.4094  0.8473  0.02672  0.03137  0.00942  -0.01911  0.7534  0.4794
6.432e+09  0.6341  0.6004  -0.01401  0.02727  -0.03381  -0.01213  0.8136  0.2029
6.434e+09  0.7831  0.334  0.006333  -0.007113  -0.04442  0.0947  0.8093  -0.1007
6.435e+09  0.8674  0.04824  -0.04365  -0.008149  -0.07171  0.009385  0.7719  -0.3563
6.436e+09  0.8161  -0.2389  0.03486  -0.004997  0.02528  -0.04936  0.6008  -0.6108
6.438e+09  0.7307  -0.5396  -0.03411  0.06147  0.0342  -0.04284  0.3084  -0.7794
6.439e+09  0.4881  -0.7193  0.01055  0.02358  0.03148  0.03507  0.06591  -0.8513
6.44e+09  0.1957  -0.8346  -0.003924  0.02556  -0.01618  -0.01306  -0.2029  -0.8433
6.441e+09  -0.09296  -0.86  0.01927  0.01097  0.003024  -0.02068  -0.4631  -0.6794
6.442e+09  -0.4019  -0.7755  0.02634  0.06268  0.01372  -0.04674  -0.6886  -0.4604
6.444e+09  -0.6412  -0.6357  0.001551  0.009387  0.01449  -0.007716  -0.8231  -0.2041
6.445e+09  -0.8006  -0.3566  -0.02001  0.01879  -0.007877  -0.01667  -0.8652  0.07395
6.446e+09  -0.9058  -0.03895  -0.03175  0.01028  -0.01024  -0.05627  -0.7559  0.3822
6.448e+09  -0.879  0.2464  -0.02708  0.001059  -0.03442  -0.003875  -0.6333  0.5927
6.449e+09  -0.74  0.5403  -0.003392  0.03043  -0.04515  0.02859  -0.3604  0.7344
6.45e+09  -0.473  0.7835  -0.03304  -0.01099  0.03995  -0.009965  -0.1119  0.7904
6.451e+09  -0.1479  0.8681  -0.01181  0.0005566  -0.01016  0.02007  0.2392  0.8244
6.452e+09  0.1202  0.8623  -0.03396  0.02749  0.03922  0.02555  0.4811  0.7043
6.454e+09  0.4257  0.7512  0.01796  0.04404  -0.009876  0.04764  0.6798  0.4993
6.455e+09  0.6993  0.5668  -0.01079  -0.007446  -0.0156  0.04016  0.8067  0.2059
6.456e+09  0.8522  0.3278  0.008989  0.0003227  -0.005818  -0.02641  0.8013  -0.06978
6.458e+09  0.9064  -0.01165  0.005323  0.003008  0.02266  0.0164  0.7262  -0.3112
6.459e+09  0.8903  -0.3071  0.04789  -0.01784  0.04762  0.00978  0.5804  -0.5198
6.46e+09  0.69  -0.5428  0.006977  0.02903  -0.03262  -0.05204  0.3596  -0.7413
6.461e+09  0.4337  -0.7127  -0.01852  0.03415  -0.06906  0.04483  0.04632  -0.8181
6.462e+09  0.1259  -0.8848  0.00287  0.02402  0.02371  -0.0001548  -0.2029  -0.7994
6.464e+09  -0.1066  -0.8972  0.02146  -0.02553  0.01089  0.02566  -0.4726  -0.663
6.465e+09  -0.4523  -0.7933  -0.01562  0.0348  -0.008201  -0.03245  -0.6643  -0.5086
6.466e+09  -0.6843  -0.5682  0.0005549  -0.0184  0.004675  -0.02259  -0.7631  -0.234
6.468e+09  -0.8881  -0.3317  -0.02413  0.01733  -0.007834  0.008875  -0.7968  0.0716
6.469e+09  -0.9066  -0.05445  -0.03286  -0.001518  0.02815  0.03297  -0.682  0.3445
6.47e+09  -0.8797  0.3081  0.006858  -0.04575  0.01258  -0.02943  -0.5807  0.5668
6.471e+09  -0.684  0.5626  0.0138  -0.04386  -0.005723  0.05925  -0.3134  0.7365
6.472e+09  -0.4943  0.7693  -0.04738  0.03941  -0.008934  0.02618  -0.04956  0.8115
6.474e+09  -0.1131  0.8638  0.04112  0.0303  0.01146  0.03262  0.1957  0.7943
6.475e+09  0.1418  0.8826  -0.02325  0.01966  -0.05233  -0.01047  0.4327  0.6802
6.476e+09  0.4856  0.8012  -0.03416  0.03001  -0.02211  0.01871  0.6344  0.4447
6.478e+09  0.6773  0.5859  0.005555  0.03067  -0.0237  0.00732  0.7761  0.1536
6.479e+09  0.8815  0.339  -0.01337  -0.01896  0.01473  -0.009053  0.7773  -0.04046
6.48e+09  0.9144  -0.05421  -0.02833  -0.01945  -0.03655  0.01859  0.6988  -0.3439
6.481e+09  0.8112  -0.3187  -0.00413  0.01476  0.0305  -0.02436  0.521  -0.6031
6.482e+09  0.6753  -0.6108  -0.01082  -0.004312  -0.02368  -0.02371  0.3458  -0.7044
6.484e+09  0.43  -0.7732  -0.03792  -9.326e-07  -0.03351  -0.05163  0.06188  -0.7774
6.485e+09  0.1598  -0.9188  -0.00481  -0.02091  0.02678  -0.01028  -0.1865  -0.7316
6.486e+09  -0.1848  -0.9567  -0.009059  0.00195  0.004752  -0.000585  -0.4693  -0.6385
6.488e+09  -0.4374  -0.7776  0.006142  -0.02641  -0.01985  -0.02025  -0.6633  -0.3929
6.489e+09  -0.7894  -0.604  0.02979  -0.02394  -0.0005172  -0.01022  -0.737  -0.1734
6.49e+09  -0.8527  -0.2671  -0.008105  0.0213  0.02805  0.03192  -0.7666  0.06961
6.491e+09  -0.9046  0.02958  -0.04098  0.01657  0.01161  -0.01728  -0.7008  0.3172
6.492e+09  -0.846  0.245  0.002532  -0.01769  -0.01263  -0.008365  -0.5753  0.5476
6.494e+09  -0.6676  0.6361  0.001334  -0.04277  0.05078  -0.01498  -0.3347  0.6482
6.495e+09  -0.4307  0.7997  0.01455  -0.02633  0.02533  0.006531  -0.02899  0.7649
6.496e+09  -0.1394  0.9235  -0.009654  -0.02522  -0.02975  -0.04292  0.2312  0.7556
6.498e+09  0.1434  0.8698  0.01537  -0.04229  -0.03127  -0.02326  0.4655  0.6023
6.499e+09  0.4679  0.7542  0.001723  0.0276  -0.003523  0.03602  0.6258  0.3857
6.5e+09  0.7326  0.5947  0.00815  -0.008105  0.0149  0.001412  0.7618  0.1465
6.501e+09  0.8791  0.2834  0.00662  -0.01321  -0.02408  0.00813  0.7599  -0.1219
6.502e+09  0.9039  -0.006567  -0.02364  -0.0007203  -0.0141  0.02711  0.6582  -0.3393
6.504e+09  0.9058  -0.361  0.003816  0.02291  0.0503  -0.009396  0.4962  -0.5464
6.505e+09  0.7142  -0.7025  -0.0004149  0.04135  -0.02414  0.04687  0.2518  -0.7325
6.506e+09  0.3903  -0.8725  -0.0007207  -0.01049  -0.009132  0.001179  0.02014  -0.7687
6.508e+09  0.1381  -0.944  0.008248  0.009312  -0.03879  -0.04659  -0.2416  -0.7256
6.509e+09  -0.1949  -0.9593  0.01854  0.01058  0.03257  -0.01712  -0.4859  -0.5711
6.51e+09  -0.5257  -0.7783  0.01626  0.02633  0.0444  0.07683  -0.6715  -0.3914
6.511e+09  -0.7595  -0.5685  0.0007818  0.0133  -0.02108  -0.02259  -0.7583  -0.101
6.512e+09  -0.9246  -0.2529  -0.007612  -0.01192  0.03516  -0.006756  -0.7272  0.08905
6.514e+09  -0.9707  0.06774  0.01776  -0.004231  0.02731  0.03823  -0.6972  0.3677
6.515e+09  -0.8678  0.4297  0.01078  -0.005777  0.04131  -0.005829  -0.4755  0.5979
6.516e+09  -0.6663  0.6852  0.0008767  -0.006731  0.0487  0.02179  -0.2617  0.7059
6.518e+09  -0.3583  0.843  -0.006334  0.02339  0.05185  -0.009645  0.006476  0.7594
6.519e+09  -0.028  0.9699  0.003332  -0.008817  0.009022  -0.03783  0.2642  0.7088
6.52e+09  0.2657  0.9165  -0.001493  -0.01829  0.009246  -0.01761  0.4826  0.5568
6.521e+09  0.6131  0.7405  0.01219  0.02691  -0.02346  -0.06311  0.6611  0.3247
6.522e+09  0.7973  0.5742  -0.01185  0.01794  0.03537  0.03857  0.7297  0.08265
6.524e+09  0.9655  0.288  -0.02091  -0.0413  0.001135  -0.01359  0.6829  -0.1777
6.525e+09  0.9639  -0.1454  5.615e-07  -0.006952  -0.01632  0.03492  0.6395  -0.4096
6.526e+09  0.809  -0.4702  -0.00819  0.0009999  -0.03089  -0.009716  0.4133  -0.5648
6.528e+09  0.6431  -0.7363  0.02456  0.01356  -0.0318  0.0005164  0.2191  -0.6922
6.529e+09  0.3277  -0.8653  -0.03585  0.03541  -0.0414  0.0262  -0.06117  -0.6877
6.53e+09  -0.005038  -0.9538  0.02665  0.02403  -0.01925  5.272e-06  -0.273  -0.6337
6.531e+09  -0.2909  -0.9734  0.003621  0.01095  0.00981  0.0007494  -0.4659  -0.464
6.532e+09  -0.6511  -0.7371  0.04053  -0.007255  0.005274  -0.02325  -0.584  -0.285
6.534e+09  -0.8855  -0.4942  -0.0337  0.01771  0.01909  0.06125  -0.6127  -0.08286
6.535e+09  -1.063  -0.1281  0.006463  -0.01947  0.02163  0.0007013  -0.5959  0.0948
6.536e+09  -0.982  0.1781  -0.02109  0.01725  0.03323  0.01111  -0.5391  0.3398
6.538e+09  -0.812  0.5298  0.02217  0.01342  -0.0545  -0.01313  -0.4593  0.4941
6.539e+09  -0.5618  0.7847  -0.01569  -0.002715  -0.001454  0.02801  -0.2607  0.598
6.54e+09  -0.2639  0.9232  -0.01512  -0.001222  0.01159  0.04204  -0.09979  0.6693
6.541e+09  0.05023  0.987  0.04705  0.01146  -0.02984  0.000233  0.1584  0.6649
6.542e+09  0.3586  0.9017  -0.02627  0.02316  0.02252  -0.002022  0.4265  0.5936
6.544e+09  0.686  0.6792  -0.03082  0.01333  -0.04182  0.01535  0.5724  0.3956
6.545e+09  0.8621  0.4127  -0.01947  0.02329  -0.01223  -0.01269  0.6826  0.1516
6.546e+09  0.9337  0.1317  0.001012  -0.02896  0.01894  0.003006  0.73  -0.06313
6.548e+09  0.9987  -0.3112  -0.01732  -0.01733  0.04631  0.02115  0.6292  -0.3089
6.549e+09  0.814  -0.5855  0.01015  -0.0314  7.503e-05  0.0443  0.5222  -0.5377
6.55e+09  0.5267  -0.7945  -0.02489  -0.03152  -0.008697  0.005123  0.2951  -0.6685
