# Hz S RI R 50
6.25e+09  -0.759  0.249  -0.01086  0.002443  -0.01147  -0.001263  0.1533  0.4637
6.251e+09  -0.5747  0.5194  -0.01343  0.00709  0.01443  0.01886  0.3666  0.4054
6.252e+09  -0.4093  0.7419  -0.008173  0.04669  0.003994  -0.01885  0.5127  0.2402
6.254e+09  -0.1724  0.8281  -0.02279  0.02092  0.005724  0.01718  0.5934  0.001454
6.255e+09  0.1283  0.855  0.01038  0.0206  0.06238  0.03626  0.594  -0.2229
6.256e+09  0.4325  0.7365  -0.008133  -0.007185  0.07119  0.0003245  0.4875  -0.4074
6.258e+09  0.6028  0.5195  -0.004553  -0.01431  0.0003194  0.07745  0.2961  -0.5948
6.259e+09  0.7911  0.3562  0.003477  -0.02756  0.04143  -0.02487  0.02125  -0.6775
6.26e+09  0.8197  0.02063  -0.005956  -0.02303  -0.04766  0.02077  -0.2115  -0.6563
6.261e+09  0.763  -0.2706  -0.001592  -0.03911  0.0201  0.03343  -0.4554  -0.5392
6.262e+09  0.6566  -0.5092  0.03207  0.01018  0.0118  -0.05161  -0.622  -0.3506
6.264e+09  0.4043  -0.7334  -0.02102  -0.007258  -0.0009244  0.01444  -0.725  -0.1054
6.265e+09  0.1786  -0.791  0.004248  0.03037  -0.04223  -0.0376  -0.7029  0.1595
6.266e+09  -0.1492  -0.7688  -0.02535  -0.002819  0.02943  -0.003577  -0.6056  0.3767
6.268e+09  -0.4222  -0.7209  -0.0158  0.02007  -0.012  0.007717  -0.4344  0.6258
6.269e+09  -0.5949  -0.5516  -0.001325  0.01715  0.02063  -0.01093  -0.2257  0.704
6.27e+09  -0.7527  -0.2622  0.006627  -0.00165  0.02227  0.007559  0.06307  0.7204
6.271e+09  -0.808  0.0005691  0.007092  -0.008944  0.04121  0.02582  0.3177  0.6764
6.272e+09  -0.7556  0.2813  -0.004809  -0.03801  0.009964  0.03335  0.5517  0.523
6.274e+09  -0.6395  0.5066  -0.01396  -0.001362  0.03309  0.0034  0.6827  0.3019
6.275e+09  -0.4127  0.6667  -0.01655  0.01106  0.01402  -0.01696  0.7342  0.07378
6.276e+09  -0.1329  0.7425  0.01982  -0.009313  0.0001516  0.01846  0.7602  -0.1966
6.278e+09  0.1778  0.7545  -0.01044  0.004734  0.005761  0.01476  0.6057  -0.4524
6.279e+09  0.4358  0.7215  -0.004951  -0.02978  -0.02443  -0.00698  0.4124  -0.6598
6.28e+09  0.6528  0.4818  0.01909  0.01828  0.0005379  0.04383  0.1593  -0.7667
6.281e+09  0.8023  0.2687  0.01341  -0.000123  -0.03927  -0.01987  -0.1011  -0.7736
6.282e+09  0.8343  0.03325  -0.01335  0.007427  0.001089  0.01891  -0.3381  -0.707
6.284e+09  0.7353  -0.3116  0.002902  -0.00506  0.0006896  -0.004373  -0.5875  -0.5108
6.285e+09  0.6012  -0.5581  0.009926  0.004043  -0.03993  0.009415  -0.6935  -0.2803
6.286e+09  0.4275  -0.7397  0.00256  -0.02228  0.05007  -0.02064  -0.7655  -0.02029
6.288e+09  0.1053  -0.8492  0.01529  -0.004988  0.03333  -0.00407  -0.7651  0.2816
6.289e+09  -0.183  -0.7906  -0.007657  -0.0296  -0.03748  -0.02297  -0.6261  0.4906
6.29e+09  -0.4772  -0.7095  0.04767  -0.01743  0.01053  0.02187  -0.4205  0.7055
6.291e+09  -0.6717  -0.5166  -0.01699  -0.02938  -0.06104  0.02467  -0.1434  0.7637
6.292e+09  -0.794  -0.2649  0.003359  0.005396  -0.01239  0.01279  0.1277  0.8025
6.294e+09  -0.8073  0.02475  -0.003637  0.01276  0.02018  0.03007  0.419  0.7338
6.295e+09  -0.7851  0.2701  0.01408  -0.01839  -0.003151  -0.006173  0.6279  0.5297
6.296e+09  -0.6089  0.6035  0.01229  0.001645  -0.01355  0.04903  0.7668  0.2909
6.298e+09  -0.3523  0.6579  0.03569  0.009926  -0.02861  0.02618  0.8346  0.02342
6.299e+09  -0.07557  0.817  0.003591  -0.02161  0.002573  0.02052  0.7813  -0.2904
6.3e+09  0.1832  0.8549  -0.01208  -0.01985  -0.02319  -0.02186  0.6486  -0.5007
6.301e+09  0.4491  0.7004  0.003936  0.002335  -0.004573  0.004717  0.4226  -0.7444
6.302e+09  0.6903  0.4388  0.005556  -0.02492  0.001384  0.03565  0.1823  -0.841
6.304e+09  0.7713  0.2464  -0.03868  -0.0138  0.006043  0.0228  -0.1384  -0.8003
6.305e+09  0.815  -0.02576  0.0089  0.02309  -0.01656  -0.01193  -0.4174  -0.7371
6.306e+09  0.709  -0.3107  0.0173  0.01178  0.03629  -0.01683  -0.625  -0.5306
6.308e+09  0.5814  -0.5732  0.0006388  -0.03014  0.005399  -0.04  -0.8065  -0.3082
6.309e+09  0.3792  -0.7515  -0.02596  -0.006469  0.008173  0.0208  -0.874  -0.02257
6.31e+09  0.1008  -0.8115  -0.001751  0.002178  0.002817  -0.01456  -0.7769  0.2784
6.311e+09  -0.2387  -0.8088  0.004414  0.02869  0.0327  0.01663  -0.6628  0.5522
6.312e+09  -0.4857  -0.7055  -0.01663  -0.02  0.01058  0.03364  -0.442  0.7877
6.314e+09  -0.704  -0.4411  -0.003249  0.02802  0.01801  -0.03334  -0.1443  0.8473
6.315e+09  -0.8097  -0.2063  -0.004902  -0.03126  -0.01134  -0.08806  0.1747  0.8475
6.316e+09  -0.858  0.07886  0.000195  0.0202  0.002574  0.007883  0.4073  0.7598
6.318e+09  -0.7621  0.3978  0.008307  0.01918  -0.01124  -0.005623  0.669  0.5718
6.319e+09  -0.5234  0.6092  0.01632  -0.01494  -0.05394  0.03678  0.8177  0.3264
6.32e+09  -0.2996  0.8211  -0.00579  -0.02454  0.05122  0.006696  0.9124  0.04903
6.321e+09  -0.02013  0.8039  0.02488  -0.006551  -0.05357  -0.003935  0.8554  -0.3196
6.322e+09  0.2415  0.772  0.008959  0.002447  0.06013  -0.01508  0.7104  -0.583
6.324e+09  0.5173  0.6619  0.01135  0.03396  0.02047  0.01015  0.4669  -0.7704
6.325e+09  0.7862  0.4274  -0.03639  -0.01325  -0.05278  0.03816  0.175  -0.8817
6.326e+09  0.8252  0.1607  -0.01308  -0.006757  -0.02267  -0.01741  -0.1721  -0.8814
6.328e+09  0.8728  -0.1272  -0.01692  -0.04649  -0.002384  -0.02156  -0.4092  -0.7818
6.329e+09  0.6984  -0.4322  -0.02334  -0.004912  -0.00245  0.009053  -0.6548  -0.5945
6.33e+09  0.5277  -0.6358  -0.04767  -0.02303  0.02488  0.02022  -0.8374  -0.3412
6.331e+09  0.2752  -0.7863  -0.02273  -0.006866  0.02231  0.04163  -0.9016  -0.03017
6.332e+09  -0.00899  -0.8715  0.006353  0.007539  -0.02151  -0.0245  -0.8546  0.2471
6.334e+09  -0.3246  -0.8096  0.02206  -0.01312  0.0256  0.005129  -0.7396  0.5414
6.335e+09  -0.5917  -0.604  -0.004301  0.02199  -0.04715  -0.04639  -0.483  0.7689
6.336e+09  -0.7818  -0.3805  -0.008509  -0.02046  -0.002689  0.001201  -0.1818  0.9068
6.338e+09  -0.8515  -0.1202  0.00232  0.01578  0.04477  0.01802  0.1162  0.8853
6.339e+09  -0.7943  0.2132  -0.002459  0.001343  -0.01115  0.006885  0.4151  0.8323
6.34e+09  -0.7506  0.4911  -0.002881  -0.0211  -0.0006567  0.005939  0.6402  0.609
6.341e+09  -0.4761  0.7189  0.03176  -0.002026  -0.02473  0.01748  0.8322  0.364
6.342e+09  -0.2022  0.8469  -0.00892  0.00593  0.008023  0.01368  0.9136  0.06875
6.344e+09  0.07065  0.8723  0.01757  0.021  0.03544  0.01554  0.8863  -0.2709
6.345e+09  0.4019  0.7293  0.007499  0.02335  0.004361  0.02391  0.7232  -0.5417
6.346e+09  0.5988  0.5402  0.03051  -0.02315  -0.006573  0.008705  0.5402  -0.7775
6.348e+09  0.7861  0.3358  0.01549  -0.02027  0.02978  -0.01223  0.2198  -0.8894
6.349e+09  0.8478  0.0264  -0.002938  0.03226  -0.01313  0.04142  -0.1073  -0.9385
6.35e+09  0.8234  -0.2962  -0.01105  -0.0491  0.06897  -0.03878  -0.4427  -0.8722
6.351e+09  0.6967  -0.5751  0.02351  0.009813  0.0006254  0.03492  -0.6814  -0.6499
6.352e+09  0.5239  -0.7782  -0.006041  0.03674  0.03137  -0.00517  -0.8539  -0.4144
6.354e+09  0.1274  -0.8708  -0.01881  -0.02086  -0.01693  0.009202  -0.9345  -0.05692
6.355e+09  -0.1826  -0.8433  0.02746  0.01154  0.02985  -0.01904  -0.918  0.2731
6.356e+09  -0.4197  -0.7362  0.03393  0.0124  0.007755  0.06156  -0.7499  0.5534
6.358e+09  -0.6951  -0.5428  -0.002074  -0.01878  0.01289  -0.04576  -0.5083  0.7816
6.359e+09  -0.8034  -0.2479  0.005715  0.0007844  0.0116  0.0006506  -0.2181  0.9288
6.36e+09  -0.8886  0.03836  -0.002869  0.006529  0.04277  -0.04123  0.08661  0.9533
6.361e+09  -0.8195  0.3714  0.0003866  -0.01522  0.02611  0.019  0.41  0.8452
6.362e+09  -0.646  0.6251  0.01942  -0.008528  0.001466  0.01756  0.698  0.6547
6.364e+09  -0.4024  0.811  -0.01081  -0.01897  0.03246  0.04059  0.819  0.3702
6.365e+09  -0.06413  0.8416  0.009192  -0.03034  0.04321  -6.179e-05  0.924  0.04923
6.366e+09  0.2517  0.8394  0.001101  0.0174  -0.001454  0.01717  0.9298  -0.2262
6.368e+09  0.5191  0.7138  0.02997  -0.02529  -0.0144  -0.01301  0.7612  -0.5676
6.369e+09  0.7095  0.4975  0.01489  0.02306  0.01002  -0.02824  0.523  -0.7803
6.37e+09  0.8314  0.2399  0.01561  0.01359  -0.01227  0.01063  0.2572  -0.9015
6.371e+09  0.8863  -0.1482  0.02078  0.01973  0.0167  0.032  -0.07458  -0.945
6.372e+09  0.7638  -0.407  0.008512  0.02192  -0.01313  0.0003732  -0.4142  -0.8488
6.374e+09  0.5414  -0.6477  0.005034  0.03082  -0.002824  0.00744  -0.6671  -0.6951
6.375e+09  0.3432  -0.7895  -0.01493  0.02096  0.01249  -0.01869  -0.8466  -0.3839
6.376e+09  0.001826  -0.8295  -0.01586  -0.0003037  -0.01332  -0.03441  -0.9011  -0.1112
6.378e+09  -0.253  -0.8256  -0.002725  -0.0124  0.01991  -0.02945  -0.9075  0.1701
6.379e+09  -0.5548  -0.6899  0.03953  0.01932  -0.002053  0.04009  -0.8024  0.5435
6.38e+09  -0.7772  -0.3963  -0.03559  0.0002938  -0.001309  0.009703  -0.5705  0.7271
6.381e+09  -0.919  -0.1462  0.002237  -0.01925  0.02645  -0.03211  -0.2795  0.8925
6.382e+09  -0.8637  0.1474  0.009989  0.01546  0.02259  -0.04609  0.085  0.9328
6.384e+09  -0.7416  0.4674  0.04158  0.002022  -0.01897  0.007994  0.369  0.862
6.385e+09  -0.5031  0.6813  -0.02944  -0.01371  -0.03506  -0.03106  0.6147  0.6739
6.386e+09  -0.2836  0.834  0.02669  -0.01624  -0.008272  0.03068  0.8056  0.3944
6.388e+09  0.02902  0.9329  -0.009447  -0.02817  -0.05581  0.04509  0.9348  0.0779
6.389e+09  0.3647  0.8216  0.01545  -0.01047  0.004384  -0.009778  0.9266  -0.1711
6.39e+09  0.6042  0.6401  -0.01524  -0.002378  0.009267  -0.0495  0.7834  -0.5138
6.391e+09  0.8228  0.3743  -0.01803  -0.03094  0.02982  -0.003172  0.5285  -0.752
6.392e+09  0.8879  0.08504  0.02748  -0.05165  -0.01741  -0.008421  0.2747  -0.8823
6.394e+09  0.8682  -0.2156  0.02893  0.02004  0.03252  -0.01426  -0.0203  -0.9191
6.395e+09  0.7077  -0.5072  0.0469  -0.02371  0.06241  -0.01801  -0.2705  -0.8669
6.396e+09  0.4932  -0.7418  0.03721  -0.004315  0.03259  -0.02393  -0.6442  -0.6941
6.398e+09  0.2181  -0.8825  0.03542  0.007806  0.0355  -0.06394  -0.802  -0.4364
6.399e+09  -0.1172  -0.9037  0.01454  -0.01011  -0.02286  -0.01771  -0.8999  -0.1189
6.4e+09  -0.3746  -0.8003  0.01609  -0.02826  0.01473  0.01957  -0.8706  0.1469
6.401e+09  -0.6311  -0.6334  0.0393  -0.03665  -0.01645  0.02221  -0.8071  0.4933
6.402e+09  -0.7872  -0.3069  0.06452  0.03101  -0.00517  0.079  -0.6013  0.7455
6.404e+09  -0.8721  -0.02886  0.01689  0.00754  0.01306  -0.01511  -0.3436  0.8228
6.405e+09  -0.8103  0.2754  -0.01157  0.01387  -0.022  -0.004567  0.02657  0.9017
6.406e+09  -0.6858  0.5584  0.004825  -0.003016  -0.0009299  -0.02598  0.3292  0.8631
6.408e+09  -0.4866  0.7134  0.01966  0.02745  0.0304  0.01454  0.5811  0.6963
6.409e+09  -0.2008  0.8868  -0.02399  -0.04714  0.004351  -0.03334  0.7541  0.4752
6.41e+09  0.1743  0.8422  -0.02409  -0.01054  0.05398  -0.01931  0.8871  0.1719
6.411e+09  0.4169  0.7709  -0.002272  -0.00201  -0.001508  -0.03146  0.8837  -0.1314
6.412e+09  0.6746  0.5265  -0.03263  0.002874  0.004364  -0.05033  0.8073  -0.448
6.414e+09  0.7922  0.2921  0.03135  -0.006813  0.003372  0.03032  0.6254  -0.6644
6.415e+09  0.9189  0.01002  -0.0428  0.05375  0.0007613  -0.0003821  0.2839  -0.8298
6.416e+09  0.8219  -0.3139  0.03106  -0.02919  -0.06347  -0.008948  0.04094  -0.9091
6.418e+09  0.6283  -0.5688  -0.005518  0.0002915  0.01539  -0.01128  -0.2309  -0.84
6.419e+09  0.3664  -0.7968  -0.007793  0.002061  0.04171  0.001048  -0.5616  -0.6733
6.42e+09  0.09248  -0.8785  -0.06014  -0.03281  0.005186  -0.02882  -0.7443  -0.4746
6.421e+09  -0.1698  -0.8789  -0.005379  -0.002567  -0.0155  -0.01454  -0.8612  -0.1711
6.422e+09  -0.4898  -0.7534  -0.0005879  -0.02451  -0.03261  -0.03094  -0.9037  0.07041
6.424e+09  -0.665  -0.5622  0.0188  0.01384  0.01999  -0.0033  -0.794  0.396
6.425e+09  -0.8318  -0.2144  0.01048  -0.03831  0.003176  -0.001096  -0.5308  0.604
6.426e+09  -0.89  0.0626  -0.01181  0.03219  0.001388  -0.02303  -0.4025  0.8058
6.428e+09  -0.7943  0.3709  -0.01313  0.0149  0.01132  -0.005457  -0.07026  0.885
6.429e+09  -0.5715  0.5755  -0.005861  0.009112  -0.006849  0.009316  0.2343  0.8334
6.43e+09  -0.3117  0.7715  -0.01792  -0.02617  -0.01765  -0.001455  0.5238  0.7334
6.431e+09  -0.07761  0.8577  0.008318  0.02896  0.02061  0.006921  0.6793  0.4678
6.432e+09  0.2166  0.8354  0.08406  0.02415  -0.02324  -0.02513  0.8118  0.2068
6.434e+09  0.4704  0.7088  0.03296  -0.04041  -0.05311  0.01539  0.8874  -0.09395
6.435e+09  0.709  0.4654  0.02001  0.007598  -0.03541  0.001528  0.7386  -0.3504
6.436e+09  0.8083  0.1984  -0.009322  0.02227  0.001205  0.01406  0.5447  -0.5947
6.438e+09  0.8765  -0.06537  0.01454  0.0371  0.02499  0.0009753  0.3317  -0.7553
6.439e+09  0.7673  -0.3241  0.01125  0.03622  0.05118  -0.01763  0.09094  -0.8515
6.44e+09  0.5938  -0.6471  -0.01956  0.02055  -0.01287  0.003745  -0.2179  -0.8514
6.441e+09  0.3677  -0.7854  -0.01714  -0.0009763  -0.08222  -0.01606  -0.4715  -0.6762
6.442e+09  0.01927  -0.9073  0.0101  0.03997  -0.02947  -0.01179  -0.699  -0.4652
6.444e+09  -0.2002  -0.8327  0.001088  -0.03421  0.01193  0.01659  -0.8207  -0.2111
6.445e+09  -0.5099  -0.6874  0.03177  0.01809  0.02129  -0.009674  -0.8354  0.06004
6.446e+09  -0.7115  -0.4574  -0.01956  0.005762  -0.003742  0.03337  -0.756  0.3527
6.448e+09  -0.8101  -0.1961  0.01506  0.01062  0.02575  -0.009807  -0.5892  0.6164
6.449e+09  -0.9048  0.08515  -0.01264  0.005533  0.0175  0.0005403  -0.3514  0.7695
6.45e+09  -0.7092  0.3904  -0.01018  -0.00916  -0.01318  0.0201  -0.08893  0.825
6.451e+09  -0.5954  0.5822  0.005846  -0.005352  0.007022  0.05485  0.2254  0.8224
6.452e+09  -0.3066  0.7898  0.01268  -0.04695  0.01035  0.0336  0.5099  0.6944
6.454e+09  -0.06833  0.8984  -0.02583  0.003468  -0.01041  -0.03279  0.6645  0.4696
6.455e+09  0.2605  0.7844  0.02857  -0.04343  0.01307  -0.004022  0.7694  0.1848
6.456e+09  0.5  0.7161  0.02535  -0.02669  0.03471  0.008008  0.7903  -0.09863
6.458e+09  0.7767  0.4601  0.01371  0.03531  0.01181  0.0122  0.77  -0.313
6.459e+09  0.8486  0.2282  0.01041  0.03616  -0.01578  0.01083  0.5926  -0.59
6.46e+09  0.851  -0.1085  -0.02469  -0.03722  -0.01028  -0.008977  0.3566  -0.7538
6.461e+09  0.7785  -0.451  -0.008443  0.001284  -0.006066  0.02456  0.07598  -0.8131
6.462e+09  0.5511  -0.5994  -0.004482  0.01681  0.01361  0.006016  -0.1993  -0.7627
6.464e+09  0.3147  -0.8129  0.02184  0.01555  0.0168  -0.001503  -0.4695  -0.6349
6.465e+09  0.02156  -0.8603  0.01314  0.007061  -0.0111  -0.01815  -0.6447  -0.4695
6.466e+09  -0.2953  -0.8009  0.02071  0.002228  -0.01677  -0.01183  -0.7894  -0.2039
6.468e+09  -0.583  -0.6541  0.007639  -0.01429  0.04165  -0.03426  -0.8139  0.05342
6.469e+09  -0.7352  -0.4427  -0.001297  0.05293  -0.02306  0.0005758  -0.7457  0.343
6.47e+09  -0.8188  -0.1722  -0.001881  0.002204  -0.0363  0.02432  -0.5625  0.5396
6.471e+09  -0.8648  0.138  0.02866  -0.02017  -0.01864  -0.04345  -0.311  0.7601
6.472e+09  -0.7638  0.4472  0.02749  0.009619  -0.001095  -0.02636  -0.08917  0.7518
6.474e+09  -0.5929  0.6354  0.01995  -0.02932  -0.01244  0.02957  0.2028  0.7668
6.475e+09  -0.3135  0.8141  0.03203  0.01061  0.01517  -0.01957  0.4712  0.6285
6.476e+09  -0.01315  0.8333  -0.019  0.01967  -0.01702  0.0004446  0.6534  0.4229
6.478e+09  0.2552  0.7827  0.009283  0.008096  0.00758  -0.02694  0.7496  0.1854
6.479e+09  0.5401  0.6797  -0.02227  -0.02017  0.006974  0.01292  0.7481  -0.07565
6.48e+09  0.7497  0.4057  -0.03452  0.001905  -0.009257  0.01934  0.6936  -0.3575
6.481e+09  0.8603  0.1238  0.004251  -0.01374  0.01493  0.02266  0.579  -0.5581
6.482e+09  0.8281  -0.1106  -0.001024  -0.02495  0.05043  0.005951  0.2986  -0.7108
6.484e+09  0.7953  -0.4433  -0.004554  -0.05628  0.001917  -0.05019  0.1043  -0.8319
6.485e+09  0.5627  -0.6935  0.003657  0.04304  -0.007926  0.001675  -0.1924  -0.7437
6.486e+09  0.3018  -0.8277  0.01598  0.03033  -0.02871  0.001743  -0.4477  -0.5889
6.488e+09  -0.03401  -0.8732  0.01593  -0.002096  -0.01354  0.01976  -0.6567  -0.437
6.489e+09  -0.2536  -0.8411  0.009263  -0.002187  0.02787  -0.03249  -0.7365  -0.1576
6.49e+09  -0.5422  -0.6743  -0.02273  -0.02037  0.07604  -0.04193  -0.7912  0.0934
6.491e+09  -0.7845  -0.3773  0.0023  0.01606  0.009636  0.04183  -0.7205  0.3346
6.492e+09  -0.8926  -0.1558  0.01575  0.007538  0.0168  -0.01704  -0.5506  0.5148
6.494e+09  -0.8882  0.1356  0.02133  -0.004303  0.01798  0.01242  -0.2985  0.6736
6.495e+09  -0.7777  0.454  0.0226  -0.0262  0.004831  0.03207  -0.05834  0.749
6.496e+09  -0.5833  0.7131  -0.03458  -0.01004  0.009412  -0.01592  0.2391  0.7032
6.498e+09  -0.2915  0.827  0.02053  0.04146  -0.006032  -0.007212  0.5046  0.6072
6.499e+09  0.004697  0.8914  0.001711  0.005992  0.02516  0.03129  0.6834  0.3833
6.5e+09  0.315  0.8095  0.0196  -0.02238  0.01962  0.006638  0.7494  0.1761
6.501e+09  0.5949  0.6423  -0.002127  -0.008343  -0.01377  -0.01511  0.7239  -0.09841
6.502e+09  0.7514  0.4053  0.01199  0.004842  -0.0005498  -0.004177  0.6777  -0.3302
6.504e+09  0.8847  0.1345  -0.008441  -0.01106  -0.04128  -0.08435  0.5455  -0.5743
6.505e+09  0.8594  -0.1857  -0.002623  0.02188  0.01036  0.01162  0.2828  -0.6985
6.506e+09  0.7708  -0.4527  0.04091  -0.01678  -0.006217  0.05091  0.009688  -0.7377
6.508e+09  0.58  -0.7136  -0.0005186  0.01133  -0.00622  0.008076  -0.2595  -0.6926
6.509e+09  0.2546  -0.8675  0.004268  0.0004652  0.03267  0.0277  -0.4999  -0.566
6.51e+09  -0.04165  -0.8656  0.002825  0.005086  0.01964  -0.007095  -0.6375  -0.4012
6.511e+09  -0.3418  -0.8149  0.007745  0.001113  0.03446  -0.02103  -0.7283  -0.1484
6.512e+09  -0.6298  -0.6806  0.02416  0.001853  -0.01432  0.006144  -0.7276  0.1229
6.514e+09  -0.8428  -0.4529  0.002909  0.00241  0.0377  -0.003494  -0.6649  0.3551
6.515e+09  -0.9091  -0.1394  -0.02525  -0.03058  -0.001659  -0.02208  -0.4978  0.5856
6.516e+09  -0.8159  0.2209  0.03768  -0.02714  -0.0267  -0.007736  -0.2617  0.7024
6.518e+09  -0.7713  0.4832  -0.009388  -0.006665  -0.005754  0.007827  0.02902  0.7755
6.519e+09  -0.578  0.7401  0.001448  -0.00187  0.002747  -0.03486  0.2448  0.6617
6.52e+09  -0.2517  0.8817  0.0231  -0.03854  -0.02992  0.01508  0.5047  0.5493
6.521e+09  0.04377  0.9229  0.02692  -0.002327  -0.02212  0.008719  0.5893  0.3865
6.522e+09  0.3878  0.8532  0.01713  0.00561  0.02324  0.01411  0.7347  0.09666
6.524e+09  0.6239  0.6335  -0.01127  -0.02273  0.02695  0.02143  0.7028  -0.1788
6.525e+09  0.8576  0.4161  0.04426  0.04243  0.007436  -0.06187  0.5763  -0.404
6.526e+09  0.9454  0.08661  -0.02263  -0.003379  0.0286  -0.02893  0.4168  -0.5826
6.528e+09  0.8933  -0.2089  -0.03506  0.007706  0.01455  -0.01428  0.1995  -0.6859
6.529e+09  0.7625  -0.603  0.001394  0.01395  -0.03571  0.02783  -0.01897  -0.7037
6.53e+09  0.4929  -0.7981  -0.0006202  0.008914  -0.01313  -0.03892  -0.314  -0.6588
6.531e+09  0.2318  -0.9478  0.02903  -0.018  -0.01174  -0.02428  -0.4631  -0.473
6.532e+09  -0.1105  -1.018  0.005655  -0.001259  -0.004889  -0.01569  -0.6038  -0.2955
6.534e+09  -0.4706  -0.8693  0.01044  0.04145  -0.03115  -0.01062  -0.6397  -0.1085
6.535e+09  -0.6818  -0.6397  -0.002157  -0.02009  -0.02942  0.01338  -0.5962  0.1011
6.536e+09  -0.9179  -0.3553  -0.03632  -0.03322  0.03071  -0.0001096  -0.5594  0.2978
6.538e+09  -1.009  -0.03366  0.02143  -0.01659  -0.02452  -0.007197  -0.4473  0.4881
6.539e+09  -0.8834  0.3339  0.02717  0.02322  0.05676  -0.05702  -0.2806  0.6036
6.54e+09  -0.7565  0.6116  0.001432  0.008658  0.02471  0.02715  -0.0374  0.6527
6.541e+09  -0.4906  0.8357  -0.03513  -0.02735  -0.0233  -0.05801  0.1817  0.6799
6.542e+09  -0.1897  0.917  -0.001062  0.01545  0.001501  0.0578  0.4312  0.5618
6.544e+09  0.164  0.8981  0.0121  -0.00463  -0.01386  -0.02528  0.5696  0.4222
6.545e+09  0.4656  0.8406  0.007518  0.01173  0.08308  0.009442  0.686  0.1743
6.546e+09  0.7907  0.6245  -0.00359  -0.01352  -0.0003  0.01974  0.7211  -0.05629
6.548e+09  0.9368  0.3137  0.01473  0.01422  -0.01865  -0.008947  0.6702  -0.3025
6.549e+09  0.9044  -0.01502  0.01858  0.00213  0.01046  -0.004558  0.5179  -0.5276
6.55e+09  0.9677  -0.3534  -0.01665  -0.03629  -0.04308  -0.003133  0.2941  -0.6543
