# Hz S RI R 50
6.25e+09  0.8169  0.3446  -0.0159  -0.007602  0.0007407  -0.001885  0.1798  0.4456
6.251e+09  0.8636  -0.03272  -0.01278  0.01374  0.08702  -0.01874  0.3973  0.3997
6.252e+09  0.7688  -0.2641  -0.01759  0.02135  0.05662  0.04144  0.5276  0.2346
6.254e+09  0.6766  -0.4888  0.01023  0.001486  0.04915  -0.0481  0.6225  0.03858
6.255e+09  0.4211  -0.7088  -0.001082  -0.02426  -0.01653  0.03738  0.5747  -0.2235
6.256e+09  0.1076  -0.8617  -0.002305  -0.00974  -0.08007  -0.04178  0.464  -0.4418
6.258e+09  -0.1686  -0.7814  0.01717  0.0086  0.02216  0.0267  0.288  -0.6069
6.259e+09  -0.4236  -0.6487  0.01023  0.02882  -0.009315  -0.02087  0.06546  -0.6701
6.26e+09  -0.7242  -0.4502  0.009277  -0.01257  -0.02879  0.002745  -0.1853  -0.709
6.261e+09  -0.7947  -0.223  -0.01905  0.0313  -0.001865  0.04037  -0.4629  -0.526
6.262e+09  -0.8538  0.08425  0.005814  -0.006468  0.01526  0.02777  -0.6059  -0.3632
6.264e+09  -0.6888  0.4035  0.02223  0.0141  0.007891  -0.01534  -0.6992  -0.09942
6.265e+09  -0.5005  0.6137  -0.01309  0.007853  -0.009202  0.03033  -0.7152  0.1419
6.266e+09  -0.2931  0.733  0.02096  0.00953  0.003967  -0.00446  -0.6083  0.4184
6.268e+09  -0.01293  0.812  0.02217  0.01623  -0.03517  0.02586  -0.469  0.5911
6.269e+09  0.3434  0.7911  -0.01263  0.01692  -0.0118  0.05977  -0.2223  0.7484
6.27e+09  0.4958  0.6318  -0.01635  -0.022  -0.02155  0.01868  0.07205  0.716
6.271e+09  0.718  0.3641  -0.006546  0.01312  -0.0002367  0.03309  0.3442  0.6672
6.272e+09  0.7759  0.09467  -0.009322  0.00938  0.001891  -0.0311  0.5508  0.5461
6.274e+09  0.8312  -0.1978  0.01645  0.01456  0.03798  -0.01656  0.6797  0.2937
6.275e+09  0.6522  -0.4293  -0.006962  0.02009  0.02006  -0.02127  0.7449  0.02961
6.276e+09  0.5275  -0.6513  -0.02224  -0.01128  0.0315  -0.01277  0.7116  -0.2238
6.278e+09  0.222  -0.7728  0.009706  4.137e-05  -0.01934  -0.02405  0.5941  -0.4815
6.279e+09  -0.08993  -0.7454  -0.009745  0.006614  0.02212  -0.03314  0.4194  -0.6168
6.28e+09  -0.3548  -0.7591  0.02189  -0.01254  -0.05055  0.01872  0.1729  -0.7368
6.281e+09  -0.6128  -0.5886  -0.02237  -0.005216  0.02854  0.008275  -0.0605  -0.7616
6.282e+09  -0.7322  -0.3038  0.02734  0.0116  0.02875  0.01858  -0.3734  -0.6949
6.284e+09  -0.8614  0.01916  -0.01914  0.003774  -0.03072  -0.02211  -0.6111  -0.5185
6.285e+09  -0.7778  0.2387  -0.005658  -0.01828  0.01699  -0.04486  -0.7056  -0.3242
6.286e+09  -0.5969  0.4737  -0.01645  0.01238  0.01074  -0.01188  -0.8225  -0.0159
6.288e+09  -0.3834  0.7353  0.003364  -0.004251  -0.0486  0.02518  -0.771  0.2466
6.289e+09  -0.09884  0.8283  0.01771  -0.009714  -0.01848  -0.03148  -0.6398  0.5141
6.29e+09  0.1423  0.7494  -0.002288  0.01681  -0.02902  0.04931  -0.4384  0.6786
6.291e+09  0.4858  0.6669  0.01491  0.000627  -0.04906  -0.0531  -0.1731  0.7908
6.292e+09  0.6673  0.4664  -0.0004638  0.03937  -0.01056  -0.03936  0.1148  0.8077
6.294e+09  0.7507  0.2319  0.02324  -0.0001207  0.01548  0.0567  0.3785  0.7165
6.295e+09  0.806  -0.06568  0.009772  0.02023  0.003996  -0.04756  0.6416  0.5345
6.296e+09  0.7389  -0.3739  -0.01126  0.0002497  -0.02042  -0.00431  0.7882  0.2948
6.298e+09  0.5868  -0.5632  -0.006945  0.0007964  -0.01378  -0.01968  0.8159  0.03362
6.299e+09  0.3021  -0.7611  0.01275  0.004637  0.001694  -0.04758  0.752  -0.2667
6.3e+09  -0.05593  -0.7855  -0.006695  0.0146  -0.004478  -0.06787  0.6726  -0.514
6.301e+09  -0.2855  -0.8089  -0.007378  0.03128  0.01186  -0.04347  0.4406  -0.7146
6.302e+09  -0.582  -0.6624  0.001382  0.006832  0.04518  0.005238  0.1403  -0.832
6.304e+09  -0.6984  -0.3947  -0.02227  0.009237  -0.03213  -0.0228  -0.1679  -0.8132
6.305e+09  -0.7629  -0.1187  0.01147  0.00279  0.003991  -0.02832  -0.4401  -0.733
6.306e+09  -0.8309  0.1963  -0.01492  0.008875  -0.01255  -0.01507  -0.6611  -0.5295
6.308e+09  -0.6494  0.4946  0.01619  -0.004306  0.004277  -0.01198  -0.8191  -0.3085
6.309e+09  -0.4464  0.5863  -0.01014  -0.01909  0.02071  -0.012  -0.8754  -0.002097
6.31e+09  -0.2254  0.7584  -0.00279  -0.0008031  -0.02134  0.02622  -0.8335  0.2955
6.311e+09  0.04587  0.7615  -0.009422  -0.0002405  0.02744  -0.01493  -0.6708  0.5352
6.312e+09  0.3739  0.728  0.02144  0.02225  -0.04483  0.03525  -0.4676  0.7602
6.314e+09  0.5544  0.5115  -0.03182  0.008792  -0.01043  0.02118  -0.1589  0.8571
6.315e+09  0.7998  0.3464  -0.00961  0.001228  -0.001968  -0.03646  0.1339  0.8614
6.316e+09  0.7935  -0.01598  -0.008011  0.01287  -0.006429  0.0001721  0.4557  0.7815
6.318e+09  0.7695  -0.235  -0.01343  -0.01579  0.01417  0.01694  0.6727  0.5487
6.319e+09  0.6656  -0.5545  0.02675  0.007913  -0.01908  -0.002079  0.8085  0.3017
6.32e+09  0.4187  -0.7503  0.002189  0.00188  -0.04596  0.01099  0.8803  -0.006349
6.321e+09  0.1375  -0.8508  0.01017  0.0007018  0.04133  -0.007022  0.8294  -0.2792
6.322e+09  -0.1235  -0.8032  -0.02972  0.003215  -0.01617  0.0139  0.6737  -0.521
6.324e+09  -0.4707  -0.7155  -0.02156  -0.003708  0.007171  0.02776  0.4504  -0.7796
6.325e+09  -0.6658  -0.4774  -0.01468  -0.001745  0.03493  -0.007427  0.1614  -0.8983
6.326e+09  -0.7916  -0.2329  -0.006864  -0.02553  -0.0469  0.04572  -0.1214  -0.8621
6.328e+09  -0.8602  0.09213  -0.007584  -0.009371  0.06206  -0.0008047  -0.4544  -0.7951
6.329e+09  -0.7466  0.3541  -0.001936  -0.02185  0.03142  -0.003821  -0.7214  -0.5937
6.33e+09  -0.5781  0.5976  0.03298  0.008497  -0.005791  -0.004369  -0.8265  -0.3102
6.331e+09  -0.3363  0.8126  -0.01702  -0.009084  -0.02623  -0.0201  -0.8776  -0.03432
6.332e+09  -0.04772  0.8338  -0.002269  -0.008902  0.01881  -0.003085  -0.859  0.2732
6.334e+09  0.2871  0.7761  0.02684  0.02018  0.02425  0.05454  -0.7509  0.5869
6.335e+09  0.553  0.6391  -0.02633  0.003436  0.01174  -0.00915  -0.496  0.7382
6.336e+09  0.7475  0.3752  0.01104  0.03527  0.0003186  -0.06569  -0.2107  0.8753
6.338e+09  0.8216  0.1261  0.03244  0.008143  -0.02851  0.0131  0.1002  0.9273
6.339e+09  0.8065  -0.1858  -0.01255  -0.02586  -0.01166  -0.0005825  0.4421  0.8073
6.34e+09  0.7266  -0.4637  0.01874  0.01584  -0.05907  0.01383  0.7203  0.6257
6.341e+09  0.523  -0.6919  0.01353  -0.007558  -0.03953  -0.002706  0.8192  0.3472
6.342e+09  0.2487  -0.8208  -0.005683  -0.01801  -0.0226  0.01233  0.9396  0.05514
6.344e+09  -0.09304  -0.8535  0.02698  0.04327  0.01033  0.03509  0.9012  -0.276
6.345e+09  -0.3838  -0.7875  -0.01963  0.01439  0.05358  -0.003286  0.7491  -0.5754
6.346e+09  -0.605  -0.5492  -0.02355  0.003364  -0.01884  -0.002827  0.4953  -0.7615
6.348e+09  -0.7951  -0.2847  -0.02755  0.04383  0.02689  0.006806  0.2127  -0.9089
6.349e+09  -0.8582  0.0006497  -0.01102  0.02601  -0.004998  0.02521  -0.1111  -0.9198
6.35e+09  -0.7568  0.2876  -0.004955  -0.003773  -0.001771  0.01146  -0.4006  -0.8477
6.351e+09  -0.6474  0.5463  -0.007708  0.01093  0.0364  -9.801e-05  -0.7147  -0.6364
6.352e+09  -0.3916  0.7096  0.005285  -0.008196  -0.02305  -0.01775  -0.8353  -0.3922
6.354e+09  -0.1408  0.8225  0.009495  -0.005252  0.01597  -0.005992  -0.9297  -0.0616
6.355e+09  0.1907  0.8199  0.01128  -0.01685  -0.002843  -0.01911  -0.8967  0.2575
6.356e+09  0.4342  0.7081  0.00369  -0.003313  0.005186  -0.001625  -0.7293  0.5584
6.358e+09  0.6767  0.5036  -0.01553  -0.01352  -0.01762  0.003626  -0.5341  0.7811
6.359e+09  0.7994  0.2134  0.04613  -0.0007091  -0.006399  -0.000442  -0.2231  0.9491
6.36e+09  0.8396  -0.07514  -0.02189  0.03357  -0.01114  0.007928  0.1226  0.9454
6.361e+09  0.7343  -0.3254  -0.024  0.0004514  0.02956  0.001193  0.4269  0.8085
6.362e+09  0.5881  -0.6155  -0.0362  0.02552  -0.01312  -0.0285  0.7019  0.662
6.364e+09  0.3121  -0.8314  -0.02113  0.02337  -0.003454  0.02745  0.8287  0.3989
6.365e+09  -0.01834  -0.8378  -0.002004  0.0003807  0.01771  -0.001312  0.9151  0.1121
6.366e+09  -0.2898  -0.8  0.00194  0.03506  0.006564  0.03826  0.9258  -0.2494
6.368e+09  -0.5401  -0.6539  0.03886  0.004926  -0.02612  0.005179  0.7716  -0.5358
6.369e+09  -0.6928  -0.3749  0.04177  0.046  0.02039  -0.02031  0.5341  -0.764
6.37e+09  -0.8325  -0.1364  0.002616  0.0135  0.02686  0.007923  0.2548  -0.8544
6.371e+09  -0.8198  0.2051  -0.04379  -0.0005669  0.006157  -0.01373  -0.09974  -0.9475
6.372e+09  -0.6581  0.4838  -0.007619  -0.001972  0.01806  0.03048  -0.4336  -0.8598
6.374e+09  -0.5142  0.6641  0.02231  -0.01966  -0.02113  -0.03082  -0.6805  -0.6802
6.375e+09  -0.2411  0.8239  -0.006471  -0.02374  -0.03964  0.004187  -0.8688  -0.4007
6.376e+09  0.1178  0.8341  0.04313  0.01263  0.01088  0.01858  -0.9425  -0.1074
6.378e+09  0.3482  0.7501  0.03516  -0.003588  -0.01814  0.03642  -0.8635  0.2299
6.379e+09  0.6077  0.5674  0.005088  0.03123  -0.03185  0.01907  -0.7901  0.5392
6.38e+09  0.7921  0.2866  -0.04229  0.01296  0.003195  -0.04518  -0.5553  0.7782
6.381e+09  0.8256  -0.02297  0.005048  -0.003957  -0.02852  -0.01136  -0.2557  0.8645
6.382e+09  0.8003  -0.2998  0.00125  -0.004197  -0.02438  0.03768  0.0475  0.9433
6.384e+09  0.5918  -0.5883  -0.01036  0.02489  -0.002354  -0.03015  0.3875  0.8922
6.385e+09  0.3462  -0.7376  -0.009936  -0.004253  0.001085  -0.017  0.5922  0.7299
6.386e+09  0.04389  -0.8064  -0.006542  -0.02544  -0.02467  -0.01802  0.8489  0.4022
6.388e+09  -0.2462  -0.8246  0.004179  0.02958  -0.003556  0.005474  0.9395  0.1138
6.389e+09  -0.5357  -0.6649  -0.009542  -0.01265  0.0356  0.01997  0.8997  -0.2189
6.39e+09  -0.7044  -0.4815  -0.01126  -0.0416  -0.03604  -0.01223  0.8285  -0.45
6.391e+09  -0.8763  -0.1381  -0.004456  -0.0322  -0.02191  -0.04295  0.5617  -0.7145
6.392e+09  -0.8578  0.1433  -0.003607  0.01345  0.02499  -0.006766  0.2634  -0.9229
6.394e+09  -0.7235  0.49  0.003715  0.0406  0.02264  0.02016  -0.03531  -0.982
6.395e+09  -0.5675  0.6665  0.008263  0.009512  0.03025  -0.01326  -0.3215  -0.8165
6.396e+09  -0.2342  0.8276  0.02075  -0.006187  -0.02416  -0.02677  -0.5721  -0.6408
6.398e+09  0.06846  0.8657  0.01637  -0.01131  -0.02738  -0.01026  -0.8587  -0.4856
6.399e+09  0.3866  0.7622  -0.009895  -0.02059  0.001617  -0.03062  -0.933  -0.1354
6.4e+09  0.6665  0.5018  -0.006272  0.01038  -0.01252  0.01583  -0.8966  0.1351
6.401e+09  0.7539  0.3623  0.007832  0.00918  -0.005136  0.03839  -0.8351  0.4762
6.402e+09  0.8103  0.008342  0.03343  -0.04097  0.008529  0.01915  -0.6099  0.6854
6.404e+09  0.7436  -0.2816  -0.005717  0.01716  -0.0488  -0.03641  -0.3068  0.8613
6.405e+09  0.6601  -0.5154  -0.03635  0.009131  0.02129  0.0115  0.003555  0.9086
6.406e+09  0.4416  -0.696  0.02387  0.04104  -0.01838  0.0004623  0.304  0.8832
6.408e+09  0.1244  -0.8392  -0.01573  0.002838  -0.002479  0.04484  0.5679  0.6995
6.409e+09  -0.1953  -0.8612  -0.01886  0.01723  -0.02825  0.006378  0.7563  0.4408
6.41e+09  -0.4495  -0.6912  -0.008277  0.01526  0.01526  0.0317  0.8437  0.1372
6.411e+09  -0.6707  -0.4795  -0.03528  -0.02351  -0.04279  -0.008911  0.8777  -0.09648
6.412e+09  -0.8442  -0.1846  0.05046  -0.02731  0.01538  -0.002136  0.7919  -0.4271
6.414e+09  -0.8531  0.1444  0.01959  0.009802  0.05845  0.0383  0.5893  -0.6775
6.415e+09  -0.7436  0.3963  -0.037  -0.01296  0.02285  -0.00933  0.3174  -0.806
6.416e+09  -0.533  0.6674  0.001238  -0.01366  -0.001686  0.02486  0.04267  -0.8766
6.418e+09  -0.2718  0.8134  -0.01151  0.02821  -0.03147  -0.005504  -0.2604  -0.8713
6.419e+09  0.03509  0.8581  0.007164  0.02681  -0.04755  -0.0008088  -0.5514  -0.7055
6.42e+09  0.4183  0.8216  0.02631  -0.002569  0.0001617  -0.008006  -0.7586  -0.4717
6.421e+09  0.624  0.5679  -0.02073  -0.03213  0.04855  0.008604  -0.8986  -0.1649
6.422e+09  0.8557  0.3235  -0.01565  -0.007415  -0.03516  -0.02185  -0.9021  0.1153
6.424e+09  0.8607  -0.02083  -0.02227  -0.0351  0.005401  -0.002431  -0.752  0.3833
6.425e+09  0.7754  -0.3573  -0.02834  -0.0295  0.02722  -5.588e-05  -0.6168  0.7057
6.426e+09  0.611  -0.5855  -0.02845  0.02415  0.01771  -0.02493  -0.3729  0.8209
6.428e+09  0.3562  -0.8095  0.01059  -0.008855  -0.05159  0.02771  -0.002893  0.8841
6.429e+09  0.08006  -0.8593  -0.03705  -0.001762  -0.01732  0.007243  0.2017  0.8327
6.43e+09  -0.2531  -0.7974  0.01992  0.01796  -0.005071  0.03437  0.5041  0.6811
6.431e+09  -0.5633  -0.6674  -0.014  -0.03202  0.0116  0.004071  0.7264  0.4497
6.432e+09  -0.7078  -0.414  0.01516  -0.01207  0.009822  0.002133  0.8181  0.1949
6.434e+09  -0.792  -0.09547  -0.03303  0.01434  0.03949  -0.01734  0.9023  -0.08032
6.435e+09  -0.8262  0.1884  -0.02726  0.0383  -0.00414  -0.03823  0.7773  -0.367
6.436e+09  -0.7061  0.5331  0.0309  0.01412  0.009906  0.00721  0.5635  -0.6199
6.438e+09  -0.4196  0.7034  0.02022  0.04709  0.0281  0.01427  0.3712  -0.7457
6.439e+09  -0.1285  0.8402  -0.02979  -0.02234  0.04153  0.01675  0.04733  -0.856
6.44e+09  0.1669  0.8805  0.004336  0.01745  -0.02792  0.05792  -0.2486  -0.8367
6.441e+09  0.4207  0.7244  0.0406  0.03911  -0.02913  -0.0126  -0.515  -0.6654
6.442e+09  0.7333  0.5587  -0.01294  0.02564  -0.005706  0.02669  -0.684  -0.4961
6.444e+09  0.8076  0.1974  0.0116  0.001211  0.05032  0.0002547  -0.8096  -0.2415
6.445e+09  0.8083  -0.1154  0.01276  -0.01801  -0.04261  0.01819  -0.8639  0.0677
6.446e+09  0.7162  -0.3561  0.02653  -0.00249  -0.04378  0.009875  -0.7739  0.4008
6.448e+09  0.5377  -0.6296  0.007762  -0.05753  -0.002878  0.03244  -0.5936  0.5613
6.449e+09  0.2893  -0.7344  0.01913  -0.02134  -0.02914  -0.04563  -0.3324  0.7517
6.45e+09  -0.07976  -0.853  -0.007293  -0.01296  -0.005574  0.01002  -0.03598  0.8221
6.451e+09  -0.3545  -0.739  -0.0114  -0.01983  0.03049  0.0175  0.2327  0.8393
6.452e+09  -0.5484  -0.5659  0.01819  0.05172  -0.06673  -0.00596  0.5074  0.6666
6.454e+09  -0.7037  -0.3533  -0.009912  0.01968  -0.0252  0.01532  0.6716  0.4492
6.455e+09  -0.8465  0.0005472  -0.02853  -0.0261  0.01848  0.04083  0.8158  0.1454
6.456e+09  -0.7914  0.2351  -0.04608  0.0002392  -0.01059  -0.005609  0.846  -0.07763
6.458e+09  -0.6075  0.543  0.0033  -0.04099  0.03484  -0.004714  0.7485  -0.3576
6.459e+09  -0.4025  0.7392  0.03546  -0.03255  -0.05236  -0.03832  0.5272  -0.6343
6.46e+09  -0.1114  0.829  -0.01006  0.01575  -0.02401  0.02866  0.3493  -0.6977
6.461e+09  0.1863  0.7516  0.02161  0.02169  0.007203  -0.003259  0.04525  -0.8064
6.462e+09  0.4631  0.6406  -0.001597  0.0294  0.02864  0.04755  -0.2177  -0.7847
6.464e+09  0.6539  0.4276  0.06404  -0.007283  0.02271  0.03484  -0.4714  -0.7385
6.465e+09  0.7329  0.1415  0.05146  0.07861  0.01148  -0.002227  -0.632  -0.4474
6.466e+09  0.7687  -0.112  -0.01151  0.003603  0.003017  -0.04453  -0.7918  -0.2069
6.468e+09  0.6557  -0.373  0.03463  -0.02345  -0.00463  0.02798  -0.7775  0.08017
6.469e+09  0.4669  -0.5664  0.004679  0.02416  0.001594  -0.04255  -0.6915  0.3477
6.47e+09  0.2822  -0.7457  -0.01018  -0.01131  -0.008078  -0.008912  -0.5606  0.5476
6.471e+09  0.002379  -0.7694  -0.004468  -0.0288  -0.05583  0.03491  -0.3281  0.6948
6.472e+09  -0.3049  -0.743  0.02344  -0.02721  0.001111  -0.01192  -0.08055  0.7972
6.474e+09  -0.5429  -0.5313  0.006644  0.01259  -0.004201  0.02515  0.2125  0.7693
6.475e+09  -0.7372  -0.2614  -0.03121  0.04267  -0.02194  0.01125  0.4596  0.6687
6.476e+09  -0.8149  -0.06077  0.01766  -0.01689  -0.03793  -0.006426  0.6165  0.4204
6.478e+09  -0.7429  0.2186  -0.004154  0.01203  0.007244  -0.003145  0.7389  0.2233
6.479e+09  -0.6345  0.5069  0.03639  0.02951  -0.00977  -0.01899  0.7686  -0.0259
6.48e+09  -0.4063  0.6844  -0.004191  0.004238  0.03947  0.01853  0.7287  -0.3476
6.481e+09  -0.191  0.7795  -0.006378  -0.02187  -0.008517  -0.04216  0.5903  -0.4973
6.482e+09  0.1248  0.7662  -0.005137  -0.005618  -0.002088  -0.01989  0.3452  -0.6926
6.484e+09  0.3934  0.6738  -0.006026  -0.004332  0.03055  0.04802  0.07236  -0.7448
6.485e+09  0.6089  0.4897  0.0008571  0.00331  -0.04326  -0.001699  -0.241  -0.7418
6.486e+09  0.7622  0.2205  -0.02152  0.01211  0.02861  -0.03929  -0.4805  -0.6211
6.488e+09  0.7695  -0.04156  -0.01687  -0.01598  0.008257  -0.002361  -0.6414  -0.4684
6.489e+09  0.7013  -0.3165  -0.003536  -0.04179  -0.02831  -0.009351  -0.7937  -0.1821
6.49e+09  0.5187  -0.5758  -0.001056  -0.02726  -0.04837  -0.02899  -0.7952  0.09063
6.491e+09  0.3067  -0.7202  0.009873  0.02998  0.01019  0.0197  -0.6825  0.3611
6.492e+09  0.05696  -0.8283  -0.04636  0.003878  0.06419  0.002798  -0.5209  0.5447
6.494e+09  -0.2902  -0.7575  -0.01289  -0.008928  0.0195  0.008149  -0.3354  0.7238
6.495e+09  -0.4646  -0.5981  -0.009584  0.003102  -0.02186  0.03801  -0.02612  0.7813
6.496e+09  -0.6712  -0.3795  0.01933  0.003301  -0.05247  -0.02637  0.2409  0.7757
6.498e+09  -0.7424  -0.04199  -0.01768  0.00705  -0.01267  0.01991  0.4673  0.5964
6.499e+09  -0.7089  0.1502  -0.004154  -0.009702  0.006639  0.03205  0.6268  0.4129
6.5e+09  -0.6798  0.4046  -0.03304  -0.03738  -0.004383  -0.009863  0.7571  0.1427
6.501e+09  -0.4258  0.6338  -0.01205  -0.01962  0.005673  -0.01373  0.7776  -0.1133
6.502e+09  -0.2005  0.7338  0.007737  -0.008221  -0.04065  -0.04622  0.6427  -0.3401
6.504e+09  0.01525  0.7816  0.02198  0.008678  -0.001405  0.02909  0.5493  -0.5759
6.505e+09  0.2673  0.7069  0.01124  -0.02639  -0.01057  0.01289  0.2576  -0.6933
6.506e+09  0.5365  0.5466  0.02297  -0.01864  -0.009324  -0.02245  0.06177  -0.7438
6.508e+09  0.6954  0.3458  -0.01592  0.007713  0.008995  0.02275  -0.2147  -0.7273
6.509e+09  0.7607  0.05204  0.03417  0.005856  0.000134  0.02552  -0.4714  -0.5762
6.51e+09  0.7438  -0.2415  0.004275  -0.04056  0.0103  -0.01328  -0.6877  -0.4275
6.511e+09  0.5915  -0.3933  0.02805  0.001292  -0.002777  0.04386  -0.6955  -0.1357
6.512e+09  0.3672  -0.6435  0.006706  -0.01413  0.01362  0.01946  -0.7377  0.09998
6.514e+09  0.1289  -0.733  -0.01613  -0.01016  0.0101  -0.03073  -0.6222  0.3663
6.515e+09  -0.1473  -0.7476  -0.01853  -0.01872  -0.003629  -0.0005234  -0.451  0.5862
6.516e+09  -0.3384  -0.6527  0.02122  0.008712  -0.01556  -0.01923  -0.2758  0.7251
6.518e+09  -0.5795  -0.5166  0.01049  -0.01667  -0.0001309  -0.02538  -0.008236  0.7393
6.519e+09  -0.7205  -0.2586  0.005237  0.02084  -0.000801  0.03223  0.2973  0.6933
6.52e+09  -0.8134  0.017  0.05362  0.02386  0.01954  -0.02492  0.4793  0.5687
6.521e+09  -0.7213  0.3214  -0.004843  0.03641  0.0455  -0.04643  0.6446  0.3785
6.522e+09  -0.5942  0.5036  0.009282  -0.00947  0.0187  0.006647  0.7125  0.09953
6.524e+09  -0.3528  0.7389  0.04411  0.03042  -0.007235  0.02076  0.7116  -0.1265
6.525e+09  -0.07954  0.7862  -0.01304  -0.00804  0.02728  0.03935  0.5943  -0.3576
6.526e+09  0.1734  0.8415  0.006922  0.001968  0.002323  0.0001754  0.4303  -0.5853
6.528e+09  0.4508  0.6427  0.007561  0.04286  -0.03637  0.01064  0.1896  -0.6714
6.529e+09  0.6661  0.458  0.01868  0.02305  -0.01822  -0.01224  -0.06608  -0.7068
6.53e+09  0.7655  0.2026  0.01155  -0.01884  0.005201  0.005877  -0.2849  -0.6613
6.531e+09  0.7784  -0.09125  0.01235  -0.0008248  -0.02845  -0.009092  -0.4273  -0.4851
6.532e+09  0.7007  -0.3758  -0.01236  0.001285  -0.03009  -0.01153  -0.5944  -0.2981
6.534e+09  0.5438  -0.6183  -0.03068  0.007444  -0.05127  0.01857  -0.612  -0.07729
6.535e+09  0.3509  -0.7689  -0.01351  -0.01121  -0.02136  -0.0277  -0.6492  0.08913
6.536e+09  0.04745  -0.7891  0.01089  -0.02292  0.02238  0.01305  -0.554  0.2807
6.538e+09  -0.2717  -0.8242  -0.00854  0.04141  -0.02684  0.02675  -0.4329  0.465
6.539e+09  -0.523  -0.672  0.03292  0.004844  0.008924  0.01725  -0.305  0.6457
6.54e+09  -0.7034  -0.4411  -0.0253  0.01504  0.0106  -0.03856  -0.03931  0.6716
6.541e+09  -0.8635  -0.1311  -0.01629  0.01083  0.01569  -0.01225  0.2079  0.6527
6.542e+09  -0.8142  0.2118  -0.002664  -0.02497  0.03116  -0.01101  0.4159  0.5553
6.544e+09  -0.6821  0.4569  0.003788  -0.008552  0.01314  -0.01197  0.5826  0.4308
6.545e+09  -0.5148  0.6703  0.01017  -0.0169  0.02257  -0.008911  0.6785  0.131
6.546e+09  -0.2139  0.8026  0.03348  -0.03383  0.009474  0.002774  0.7381  -0.09759
6.548e+09  0.01457  0.8854  -0.01239  0.03369  -0.006543  -0.002128  0.6349  -0.3431
6.549e+09  0.3362  0.7905  0.01914  0.007014  -0.008695  -0.005714  0.4769  -0.5336
