# Hz S RI R 50
6.25e+09  -0.7729  -0.3174  0.009924  -0.02168  -0.01578  0.03731  0.1373  0.4986
6.251e+09  -0.781  -0.04684  0.00422  -0.03572  0.01779  -0.02906  0.3481  0.3956
6.252e+09  -0.7428  0.3096  0.009166  0.004271  -0.01061  -0.01327  0.49  0.2185
6.254e+09  -0.5796  0.5421  -0.01233  0.01667  -0.008401  0.004066  0.5842  0.03188
6.255e+09  -0.4184  0.7235  -0.007712  0.02413  0.02912  -0.02973  0.6002  -0.2537
6.256e+09  -0.2228  0.7585  -0.02317  0.01209  0.08179  -0.01432  0.4634  -0.4404
6.258e+09  0.1051  0.8213  0.01347  -0.008128  0.03886  -0.01683  0.257  -0.6054
6.259e+09  0.409  0.7066  0.005081  -0.01067  0.08548  0.01771  0.04874  -0.6538
6.26e+09  0.653  0.4989  -0.00575  0.009  -0.002647  0.04496  -0.2078  -0.6615
6.261e+09  0.7554  0.2959  -0.007655  0.04268  -0.03018  -0.04037  -0.4529  -0.5592
6.262e+09  0.8038  -0.02383  -0.03128  -0.01206  0.04337  0.009432  -0.6061  -0.3456
6.264e+09  0.7134  -0.3145  0.02698  0.00967  0.02591  -0.03975  -0.7116  -0.07977
6.265e+09  0.6567  -0.5267  -0.01575  -0.007909  0.04141  0.0341  -0.707  0.1499
6.266e+09  0.3869  -0.7185  -0.008908  -0.01035  0.01948  0.01631  -0.6073  0.4028
6.268e+09  0.1148  -0.8234  -0.01991  -0.01303  -0.03123  -0.02303  -0.4793  0.5724
6.269e+09  -0.1632  -0.8029  0.02712  -0.009188  -0.01625  0.07289  -0.2117  0.6938
6.27e+09  -0.4138  -0.6875  -0.00137  0.009745  -0.005995  0.01783  0.05865  0.7129
6.271e+09  -0.6798  -0.5042  -0.02795  0.0291  -0.02577  0.02275  0.3115  0.6751
6.272e+09  -0.7476  -0.2929  -0.01475  -0.02451  0.04431  -0.02049  0.5533  0.4959
6.274e+09  -0.7721  0.01316  -0.02284  -0.03215  -0.024  0.02182  0.6636  0.3164
6.275e+09  -0.7969  0.3167  0.0006414  -0.01006  -0.06415  0.0125  0.7677  0.06724
6.276e+09  -0.6081  0.5178  -0.003336  -0.02492  0.01909  0.003241  0.7388  -0.2409
6.278e+09  -0.3824  0.741  -0.004156  -0.009577  -0.009255  0.05985  0.6205  -0.4462
6.279e+09  -0.1213  0.7899  -0.02258  0.004605  0.04952  0.006226  0.4287  -0.6664
6.28e+09  0.231  0.8075  0.01258  -0.02419  0.0006188  0.04007  0.1635  -0.7555
6.281e+09  0.5062  0.6742  0.005754  -0.004401  -0.02143  -0.04096  -0.06145  -0.7716
6.282e+09  0.6954  0.4264  0.03598  -0.0179  0.02882  0.02423  -0.3887  -0.6593
6.284e+09  0.7952  0.2241  0.01919  -0.004238  0.005731  0.02646  -0.5714  -0.5577
6.285e+09  0.7983  -0.08309  0.005003  -0.004962  0.009574  0.04281  -0.7459  -0.2957
6.286e+09  0.7469  -0.3216  0.007965  0.001339  -0.02853  -0.003735  -0.8063  -0.02377
6.288e+09  0.5347  -0.58  0.004404  -0.03528  0.007169  0.006277  -0.7473  0.2204
6.289e+09  0.2745  -0.7741  0.001473  0.005951  -0.04765  0.06774  -0.6068  0.527
6.29e+09  0.04373  -0.7464  0.01986  -0.002906  -0.01978  -0.00789  -0.4362  0.6925
6.291e+09  -0.2534  -0.7625  -0.02289  0.007906  0.01227  0.03285  -0.1521  0.7945
6.292e+09  -0.4663  -0.653  -0.01824  -0.0153  -0.02208  0.03127  0.129  0.8017
6.294e+09  -0.703  -0.3968  -0.002333  0.01955  0.02504  0.009362  0.378  0.7293
6.295e+09  -0.7584  -0.1759  -0.0123  0.0006961  0.02838  0.02786  0.6057  0.5053
6.296e+09  -0.7533  0.1138  -0.02175  0.01404  0.0493  0.02471  0.7923  0.3033
6.298e+09  -0.7096  0.3745  -0.0003251  -0.0244  0.01273  -0.02382  0.8042  0.04928
6.299e+09  -0.52  0.6499  0.01735  -0.02911  0.03101  -0.005288  0.7838  -0.2707
6.3e+09  -0.3157  0.807  0.01045  0.01573  -0.01108  -0.02085  0.6239  -0.5306
6.301e+09  0.04232  0.815  -0.01717  -0.02281  0.03844  -0.02731  0.4257  -0.6831
6.302e+09  0.2444  0.7938  -0.007822  0.03007  0.04119  0.01592  0.1812  -0.7865
6.304e+09  0.5014  0.5872  -0.02147  0.02224  -0.001283  -0.02375  -0.1393  -0.8151
6.305e+09  0.67  0.4138  -0.01467  0.009041  -0.01022  -0.009169  -0.4288  -0.7465
6.306e+09  0.8178  0.156  -0.0111  0.03264  0.04266  -0.007979  -0.62  -0.5348
6.308e+09  0.8029  -0.1761  0.0103  -0.007208  0.009058  -0.01777  -0.7689  -0.2723
6.309e+09  0.6161  -0.4572  -0.004252  -0.008834  0.0005392  -0.04772  -0.8479  -0.03188
6.31e+09  0.5291  -0.6296  0.01082  -0.0253  -0.03039  -0.02285  -0.8071  0.3029
6.311e+09  0.2248  -0.7993  0.005986  0.03836  -0.02902  -0.02499  -0.6593  0.5487
6.312e+09  -0.06184  -0.818  -0.01456  -0.03783  -0.01763  0.004524  -0.4282  0.76
6.314e+09  -0.3621  -0.7629  -0.001217  0.03321  -0.007776  -0.02566  -0.1318  0.8752
6.315e+09  -0.5398  -0.5947  -0.02377  0.005009  0.01713  -0.05062  0.1683  0.8557
6.316e+09  -0.7026  -0.3463  0.02268  -0.005246  -0.0316  0.02158  0.4196  0.7365
6.318e+09  -0.8598  -0.109  -0.02902  0.005406  -0.0005265  -0.002452  0.6674  0.561
6.319e+09  -0.7967  0.2041  -0.0007947  -0.007218  0.04545  0.02949  0.7994  0.2558
6.32e+09  -0.6659  0.4513  0.005391  0.002993  0.01152  -0.01593  0.8971  0.01983
6.321e+09  -0.4544  0.6803  -0.02896  -0.01328  -0.01081  -0.04641  0.842  -0.3134
6.322e+09  -0.1361  0.7983  -0.003916  0.0008329  0.01131  -0.06079  0.6996  -0.5365
6.324e+09  0.1278  0.8275  -0.02185  -0.003761  0.02468  -0.03722  0.4561  -0.7614
6.325e+09  0.3631  0.7739  0.0224  -0.0007524  -0.03085  -0.01209  0.1686  -0.8805
6.326e+09  0.624  0.5425  -0.007293  0.0001505  -0.002394  0.01035  -0.1536  -0.8915
6.328e+09  0.8021  0.325  -0.02148  -0.04442  -0.01081  -0.001667  -0.439  -0.7796
6.329e+09  0.8231  0.06401  -0.004316  0.01442  0.01362  0.001057  -0.6692  -0.5764
6.33e+09  0.8538  -0.3253  0.01766  -0.004746  0.01947  -0.01143  -0.8211  -0.353
6.331e+09  0.6455  -0.5291  -0.008058  -0.01416  -0.005766  -0.02038  -0.8863  -0.05484
6.332e+09  0.4771  -0.707  0.01532  -0.02314  0.02282  0.02161  -0.8678  0.2868
6.334e+09  0.1456  -0.8089  0.003497  -0.01167  0.0004308  0.01705  -0.696  0.5552
6.335e+09  -0.1592  -0.8143  -0.03026  0.02769  -0.0007138  0.01689  -0.4722  0.7991
6.336e+09  -0.4622  -0.6669  -0.01781  0.009387  -0.06527  -0.01117  -0.2127  0.9029
6.338e+09  -0.6288  -0.513  -0.01044  0.0308  0.02146  -0.02686  0.1201  0.8855
6.339e+09  -0.8348  -0.248  0.01364  0.02018  0.04613  -0.03989  0.3986  0.814
6.34e+09  -0.8431  0.04402  -0.01247  -0.01473  0.02392  -0.01268  0.6653  0.6188
6.341e+09  -0.8101  0.3504  -0.01048  -0.00774  -0.003711  -0.01775  0.8622  0.3794
6.342e+09  -0.6106  0.5787  -0.006748  0.04731  -0.03131  0.03927  0.9127  0.03666
6.344e+09  -0.3187  0.8015  0.04128  0.004739  -0.03784  -0.002608  0.9099  -0.2536
6.345e+09  -0.05648  0.8538  0.004806  -0.008267  -0.0138  -0.004149  0.7567  -0.5633
6.346e+09  0.2098  0.7922  -0.006982  0.01806  -0.02222  0.03371  0.5303  -0.7595
6.348e+09  0.5116  0.6612  -0.01088  -0.02755  -0.0174  0.009623  0.216  -0.8797
6.349e+09  0.7194  0.4498  -0.0284  0.04554  -0.01092  -0.04962  -0.101  -0.923
6.35e+09  0.834  0.1964  -0.002621  -0.005394  0.01619  0.02084  -0.424  -0.83
6.351e+09  0.8483  -0.1601  0.03024  -0.01849  0.01539  0.007461  -0.7135  -0.6435
6.352e+09  0.7139  -0.426  0.03098  -0.0006948  0.04738  0.02482  -0.8632  -0.3784
6.354e+09  0.5073  -0.6594  0.03092  0.03669  0.008407  -0.05661  -0.9535  -0.08091
6.355e+09  0.2544  -0.7851  0.02661  -0.01362  -0.0213  -0.03035  -0.8845  0.2599
6.356e+09  -0.04647  -0.8969  -0.01763  -0.01912  0.01598  -0.03165  -0.7559  0.5455
6.358e+09  -0.3016  -0.7893  0.02471  -0.0006132  0.02747  -0.02299  -0.5216  0.7468
6.359e+09  -0.5535  -0.6137  0.03679  -0.01685  -0.00879  -6.835e-05  -0.2271  0.9072
6.36e+09  -0.7668  -0.3931  -0.01396  0.01403  -0.02416  -0.01217  0.09268  0.9381
6.361e+09  -0.9147  -0.08408  -0.04161  0.01403  0.008157  0.01809  0.3988  0.8477
6.362e+09  -0.8313  0.2376  -0.02208  -0.009953  0.02064  0.01492  0.6592  0.6395
6.364e+09  -0.7269  0.475  -0.01837  -0.04399  -0.006852  -0.02706  0.8719  0.4075
6.365e+09  -0.4711  0.7304  0.006044  0.01062  -0.0145  0.01261  0.898  0.04075
6.366e+09  -0.1911  0.8362  0.003759  -0.02353  0.001686  0.008768  0.9379  -0.2346
6.368e+09  0.133  0.7944  -0.009585  0.002515  -0.01185  0.01391  0.7868  -0.5229
6.369e+09  0.4401  0.7345  0.01775  -0.01814  -0.01568  0.01428  0.5432  -0.7863
6.37e+09  0.7081  0.5662  0.02636  -0.007255  0.01452  -0.03593  0.2594  -0.9012
6.371e+09  0.8069  0.2669  0.03644  -0.00532  -0.006725  0.01523  -0.07119  -0.9329
6.372e+09  0.8496  -0.01081  0.01068  0.009193  -0.02346  0.00429  -0.377  -0.8339
6.374e+09  0.8023  -0.3025  -0.02367  -0.01803  0.01046  -0.005093  -0.6609  -0.6478
6.375e+09  0.6329  -0.5291  0.04069  -0.02573  -0.03879  0.01355  -0.8492  -0.4382
6.376e+09  0.3876  -0.7714  -0.0005748  0.0272  0.02175  -0.01228  -0.9199  -0.1287
6.378e+09  0.1262  -0.88  -0.009807  -0.0004894  -0.03227  0.03193  -0.9062  0.2579
6.379e+09  -0.2123  -0.8452  -0.008828  -0.008656  -0.01009  -0.03482  -0.7617  0.5218
6.38e+09  -0.5027  -0.7252  0.01956  -0.002949  0.02582  0.01675  -0.5698  0.779
6.381e+09  -0.7231  -0.4821  0.02809  0.02482  0.02324  -0.02953  -0.2697  0.9212
6.382e+09  -0.8581  -0.2255  -0.001741  0.04825  -0.05029  0.01625  0.08907  0.9137
6.384e+09  -0.8589  0.06329  0.004696  0.01842  -0.03865  0.05459  0.3673  0.8585
6.385e+09  -0.7813  0.3963  0.02023  0.007006  0.008841  -0.002567  0.6544  0.7012
6.386e+09  -0.5369  0.6611  0.01569  -0.0024  -0.01142  -0.01208  0.8183  0.4394
6.388e+09  -0.2981  0.8285  0.0188  0.03299  -0.02088  0.02065  0.868  0.1186
6.389e+09  -0.01898  0.8793  0.01109  0.01676  -0.009435  -0.016  0.9039  -0.1944
6.39e+09  0.2729  0.8371  0.01951  -0.001842  0.0226  -0.007999  0.7664  -0.5123
6.391e+09  0.5441  0.7051  0.004393  0.03155  0.004588  0.01193  0.6076  -0.7169
6.392e+09  0.7401  0.4484  -0.002946  -0.03064  0.03555  0.02225  0.3272  -0.9093
6.394e+09  0.8392  0.1347  0.02755  -0.05643  -0.002721  0.005036  -0.0345  -0.9502
6.395e+09  0.8816  -0.1755  -0.01177  0.01616  0.03246  -0.06868  -0.36  -0.8624
6.396e+09  0.7514  -0.4707  0.0142  0.06631  -0.02071  -0.05369  -0.5629  -0.6875
6.398e+09  0.5367  -0.6731  0.02661  -0.02646  -0.002083  0.02041  -0.7668  -0.401
6.399e+09  0.2433  -0.8474  0.01437  -0.0314  -0.0177  0.0001714  -0.8596  -0.1421
6.4e+09  -0.05547  -0.8622  -0.01809  0.02116  -0.03181  0.01879  -0.8888  0.1483
6.401e+09  -0.3816  -0.719  0.01343  0.002067  0.009367  0.01794  -0.7652  0.4731
6.402e+09  -0.5975  -0.6153  0.02638  0.04692  0.04321  -0.02031  -0.5995  0.7067
6.404e+09  -0.7149  -0.3648  -0.002656  -0.04538  0.0249  0.01304  -0.3269  0.8645
6.405e+09  -0.8249  -0.08162  0.005146  0.01928  0.0362  0.01974  0.02721  0.8729
6.406e+09  -0.7701  0.2334  0.02208  0.02018  0.03277  0.005178  0.3487  0.8777
6.408e+09  -0.6915  0.4999  0.01574  -0.006468  0.0147  0.009029  0.5901  0.6733
6.409e+09  -0.4824  0.7174  0.00508  0.00592  0.0122  -0.02848  0.7755  0.4338
6.41e+09  -0.1619  0.8202  -0.01999  0.006751  -0.03059  0.01698  0.8938  0.1585
6.411e+09  0.1153  0.8814  -0.02238  -0.001113  0.02409  0.01943  0.8727  -0.1617
6.412e+09  0.3851  0.738  -0.001545  0.05539  0.0208  0.005253  0.784  -0.4306
6.414e+09  0.6827  0.5342  -0.02938  0.01891  0.04228  0.05174  0.5826  -0.6659
6.415e+09  0.8021  0.2822  0.02172  0.03235  0.005408  -0.008557  0.289  -0.8585
6.416e+09  0.8397  -0.06974  -0.02455  0.01352  0.01903  -0.01494  0.02304  -0.9261
6.418e+09  0.8134  -0.3496  -0.0284  -0.007447  0.03737  -0.02799  -0.3005  -0.8687
6.419e+09  0.6211  -0.5659  -0.005448  0.0156  -0.04223  -0.01433  -0.5399  -0.7196
6.42e+09  0.4522  -0.7595  -0.01417  -0.03861  -0.0004719  -0.002523  -0.7535  -0.4685
6.421e+09  0.1207  -0.9001  -0.0126  0.04048  -0.01542  0.01635  -0.8922  -0.1766
6.422e+09  -0.1648  -0.8133  0.05334  0.05729  -0.02723  -0.03963  -0.9377  0.1098
6.424e+09  -0.5291  -0.7354  0.008911  -0.05603  0.0342  -0.0158  -0.7601  0.3722
6.425e+09  -0.6775  -0.5658  -0.009159  0.03599  0.03899  0.01461  -0.6192  0.6559
6.426e+09  -0.7984  -0.2326  0.03037  -0.009272  -0.008527  -0.03839  -0.3229  0.783
6.428e+09  -0.8514  -0.0008464  0.004962  0.01756  -0.02171  0.001063  -0.07107  0.8322
6.429e+09  -0.8405  0.3583  -0.01173  -0.05277  -0.007184  0.003777  0.2189  0.8262
6.43e+09  -0.6482  0.634  -0.001878  0.03232  0.02473  0.02214  0.5057  0.6437
6.431e+09  -0.4063  0.7506  -0.0007566  -0.01949  -0.0463  0.02701  0.6765  0.4895
6.432e+09  -0.03491  0.8382  -0.007619  0.02945  -0.03834  0.01648  0.8389  0.1765
6.434e+09  0.2048  0.8076  -0.04796  -0.01117  -0.03959  0.01677  0.8634  -0.1088
6.435e+09  0.4695  0.6794  0.01248  -0.02716  0.01186  0.01011  0.7737  -0.404
6.436e+09  0.6854  0.4549  -0.02278  0.01153  -0.01786  -0.000688  0.5971  -0.6071
6.438e+09  0.7945  0.181  0.03272  -0.00492  -0.01289  0.01719  0.3638  -0.8219
6.439e+09  0.8022  -0.1245  -0.01351  -0.02438  0.03765  0.005142  0.09862  -0.8401
6.44e+09  0.728  -0.3864  -0.02379  -0.0195  0.007126  -0.03775  -0.245  -0.8306
6.441e+09  0.5765  -0.5923  0.02163  -0.01397  -0.01074  -0.007576  -0.4495  -0.69
6.442e+09  0.3242  -0.7811  0.005489  0.02662  -0.0007364  0.002524  -0.7343  -0.4488
6.444e+09  0.03119  -0.8729  0.003346  0.0235  -0.002328  -0.01741  -0.8607  -0.2108
6.445e+09  -0.2562  -0.7904  0.03128  0.02805  0.0003097  -0.006741  -0.8373  0.1024
6.446e+09  -0.5477  -0.6905  0.01335  -0.03404  -0.01713  -0.02617  -0.8077  0.3691
6.448e+09  -0.7806  -0.3851  0.006309  -0.03833  0.006467  0.0153  -0.5859  0.5692
6.449e+09  -0.8392  -0.1315  -0.04824  -0.02735  0.00142  0.02876  -0.3666  0.769
6.45e+09  -0.8208  0.1396  -0.003705  0.02873  0.01413  0.006834  -0.06447  0.7998
6.451e+09  -0.7052  0.4084  0.02047  -0.05068  -0.01117  -0.04529  0.1678  0.7907
6.452e+09  -0.5243  0.6803  0.0196  -0.03219  0.001743  -0.04592  0.456  0.6539
6.454e+09  -0.2726  0.8137  0.01961  0.02038  0.007545  -0.002246  0.7102  0.4678
6.455e+09  0.02653  0.8175  0.01836  0.03331  -0.001876  0.004014  0.7784  0.1857
6.456e+09  0.3439  0.7474  -0.007124  -0.03199  -0.05631  0.002606  0.8506  -0.0915
6.458e+09  0.5465  0.585  0.03239  -0.01163  0.01105  -0.05538  0.7348  -0.3272
6.459e+09  0.7613  0.3532  0.01435  0.00395  -0.02683  -0.02856  0.595  -0.553
6.46e+09  0.8416  0.09116  -0.006769  0.0253  0.0225  -0.006431  0.3587  -0.7153
6.461e+09  0.8451  -0.2072  0.01561  0.04149  -0.02228  -0.01759  0.08047  -0.8527
6.462e+09  0.7304  -0.3987  -0.0007314  -0.02747  -0.01221  -0.0009825  -0.245  -0.8014
6.464e+09  0.5321  -0.6866  -0.05025  0.0236  -0.05761  0.002956  -0.4588  -0.6395
6.465e+09  0.2805  -0.8553  0.008722  -0.03873  0.02253  -0.01178  -0.6698  -0.4598
6.466e+09  -0.03238  -0.8121  0.05551  -0.004266  -0.01344  -0.02104  -0.7899  -0.2136
6.468e+09  -0.3921  -0.8237  -0.01843  -0.0294  -0.01851  -0.03897  -0.7664  0.05741
6.469e+09  -0.5385  -0.5976  -0.01008  -0.01564  0.002173  0.02354  -0.7145  0.3583
6.47e+09  -0.7633  -0.362  0.04675  -0.008585  -0.005477  0.05283  -0.5598  0.5538
6.471e+09  -0.8741  -0.1316  0.04309  -0.003205  -0.0778  -0.03769  -0.3154  0.7339
6.472e+09  -0.8198  0.1818  0.04434  0.01985  -0.02653  0.006277  -0.07921  0.7489
6.474e+09  -0.6615  0.4402  0.0375  0.0282  0.03461  -0.01797  0.183  0.7649
6.475e+09  -0.5215  0.7521  0.01605  -0.02813  -0.001571  -0.09864  0.4657  0.6656
6.476e+09  -0.2576  0.836  0.032  0.03304  -0.047  -0.0002624  0.6226  0.4324
6.478e+09  0.02699  0.8237  0.02237  0.03614  0.01344  -0.009137  0.7383  0.2462
6.479e+09  0.3592  0.7689  0.01557  -0.01709  -0.02993  -0.07493  0.7138  -0.07371
6.48e+09  0.5729  0.583  -0.02242  0.005134  -0.043  0.02658  0.7231  -0.3355
6.481e+09  0.7731  0.3346  -0.003335  0.01649  -0.0009389  0.05297  0.5489  -0.5574
6.482e+09  0.8074  0.05524  -0.01113  0.004483  0.008428  -0.0008176  0.3219  -0.7074
6.484e+09  0.8071  -0.2116  -0.02956  -0.007419  0.02951  0.0198  0.06624  -0.811
6.485e+09  0.6927  -0.5067  -0.03269  0.001479  0.00831  0.06099  -0.2187  -0.7357
6.486e+09  0.4978  -0.6885  -0.005114  0.05521  0.0152  0.01209  -0.444  -0.6223
6.488e+09  0.2055  -0.791  -0.02075  0.02468  0.00567  -0.05994  -0.6514  -0.4038
6.489e+09  -0.02908  -0.8543  0.002853  -0.004045  0.02183  -0.05422  -0.7588  -0.2055
6.49e+09  -0.3262  -0.737  -0.004366  0.003051  0.02299  -0.04204  -0.7597  0.0686
6.491e+09  -0.5987  -0.5478  -0.0138  -0.03508  -0.001835  -0.03947  -0.6906  0.3533
6.492e+09  -0.771  -0.2971  0.03188  7.648e-05  0.006659  0.0603  -0.5013  0.5605
6.494e+09  -0.8677  -0.05442  0.03816  -0.003667  -0.003538  -0.01432  -0.2834  0.6952
6.495e+09  -0.8104  0.2484  0.001764  -0.008566  0.0004082  -0.04502  -0.01512  0.7729
6.496e+09  -0.6886  0.494  0.01978  0.0003947  -0.004148  -0.04646  0.2225  0.7191
6.498e+09  -0.482  0.681  -0.03004  0.0004242  0.01612  0.01367  0.4566  0.6091
6.499e+09  -0.2057  0.8681  -0.00819  0.0206  0.004333  -0.007797  0.655  0.3941
6.5e+09  0.1222  0.8775  -0.006578  -0.001893  -0.01189  0.01986  0.7421  0.1555
6.501e+09  0.4059  0.7436  -0.01788  0.01661  -0.01899  -0.05889  0.7154  -0.06891
6.502e+09  0.6488  0.5458  -0.004395  0.003788  -0.02665  0.01353  0.6382  -0.4163
6.504e+09  0.8067  0.3215  0.01352  -0.01348  0.007828  0.03362  0.5074  -0.5523
6.505e+09  0.8168  0.02274  -0.01006  0.008038  -0.0263  -0.02458  0.3032  -0.7273
6.506e+09  0.8301  -0.2523  0.01262  -0.01895  -0.03828  -0.00125  0.005724  -0.757
6.508e+09  0.6929  -0.5535  -0.02333  0.0175  0.03786  0.01081  -0.2297  -0.7456
6.509e+09  0.4093  -0.7269  0.01927  0.031  -0.008933  -0.01547  -0.4712  -0.5815
6.51e+09  0.1635  -0.8585  -0.006382  -0.01716  0.01517  -0.05066  -0.6638  -0.367
6.511e+09  -0.08664  -0.8835  -0.04758  -0.02941  -0.0002071  0.02581  -0.7172  -0.1485
6.512e+09  -0.4454  -0.7803  -0.01055  -0.03558  -0.02005  0.01843  -0.7221  0.1429
6.514e+09  -0.667  -0.5903  0.007166  -0.01866  0.0299  0.03201  -0.6354  0.4001
6.515e+09  -0.8756  -0.2908  0.003904  -0.01529  -0.01774  -0.0307  -0.4538  0.5842
6.516e+09  -0.8837  0.0137  -0.01673  -0.0009323  -0.0228  -0.007317  -0.2223  0.6595
6.518e+09  -0.8464  0.3573  0.01645  0.004895  -0.02814  -0.003095  0.02353  0.7471
6.519e+09  -0.6983  0.5786  0.01737  -0.03208  -0.01215  -0.05837  0.2705  0.7122
6.52e+09  -0.4718  0.7354  0.003204  -0.04611  0.01894  -0.01836  0.5119  0.5647
6.521e+09  -0.1731  0.8797  -0.02963  -0.04636  0.03474  -0.0395  0.6407  0.3321
6.522e+09  0.1567  0.8766  0.02411  0.03946  -0.00836  0.01145  0.7116  0.1157
6.524e+09  0.4985  0.7601  -0.01757  0.0002748  0.01462  0.008176  0.6724  -0.1194
6.525e+09  0.6627  0.5976  -0.01039  0.001208  -0.02933  0.009677  0.6271  -0.4225
6.526e+09  0.8575  0.3317  -0.0345  -0.005458  -0.03896  -0.03768  0.4372  -0.5888
6.528e+09  0.8884  -0.02557  -0.007182  0.003481  0.03264  0.004841  0.2141  -0.6904
6.529e+09  0.8269  -0.3605  0.01778  -0.006419  0.04192  -0.03018  -0.04817  -0.7011
6.53e+09  0.6675  -0.5799  0.008325  -0.007592  -0.01235  -0.02101  -0.282  -0.6245
6.531e+09  0.4474  -0.8368  0.02698  0.008187  -0.02753  -0.04858  -0.4641  -0.4703
6.532e+09  0.1335  -0.9237  0.001343  -0.01504  -0.02053  -0.01652  -0.565  -0.289
6.534e+09  -0.2214  -0.8701  0.01725  -0.004439  -0.03181  0.01898  -0.654  -0.09963
6.535e+09  -0.4729  -0.7649  -0.00928  0.02074  -0.01564  0.002902  -0.5905  0.1274
6.536e+09  -0.7807  -0.5952  -0.01245  -0.0004527  0.007858  0.03452  -0.5727  0.3054
6.538e+09  -0.9254  -0.2499  0.02133  0.01241  0.01873  -0.004005  -0.4236  0.4482
6.539e+09  -0.8778  0.07425  -0.01308  -0.02624  -0.01083  0.02509  -0.3168  0.6069
6.54e+09  -0.8598  0.4074  -0.002653  0.01685  0.02122  0.007145  -0.06958  0.6838
6.541e+09  -0.6666  0.699  -0.02061  -0.004395  -0.03302  -0.00701  0.1998  0.6623
6.542e+09  -0.4141  0.888  -0.01692  0.007542  0.0849  -0.005835  0.4104  0.5604
6.544e+09  -0.08371  0.9387  0.01274  0.01121  0.01579  -0.05543  0.5633  0.4265
6.545e+09  0.3302  0.9149  -0.005659  0.008914  0.03266  0.02125  0.7227  0.1925
6.546e+09  0.5606  0.747  0.008019  0.03558  0.002354  -0.03739  0.7614  -0.05404
6.548e+09  0.7501  0.4713  -0.01494  0.01374  0.03567  -0.03067  0.6561  -0.3306
6.549e+09  0.9675  0.204  0.005208  0.002095  0.0002386  -0.004001  0.4853  -0.5359
6.55e+09  0.9526  -0.1544  -0.016  -0.01982  0.005284  0.02239  0.3066  -0.6797
