# Hz S RI R 50
6.25e+09  -0.6504  0.553  -0.002786  -0.003351  -0.007555  -0.05057  0.1327  0.4776
6.251e+09  -0.4321  0.6953  0.03607  0.0006395  -0.001847  0.02773  0.3461  0.3977
6.252e+09  -0.1552  0.8451  0.00268  0.002056  -0.03386  0.04013  0.5401  0.2785
6.254e+09  0.1358  0.8267  -0.009202  0.01509  -0.008101  -0.01359  0.5839  0.03192
6.255e+09  0.4092  0.7222  -0.01364  0.02328  -0.04619  -0.03168  0.5999  -0.2064
6.256e+09  0.585  0.5521  0.01085  0.01486  -0.05193  -0.06357  0.4986  -0.4493
6.258e+09  0.8309  0.2258  0.01176  -0.0288  -0.01523  0.01981  0.3067  -0.592
6.259e+09  0.8598  0.02009  0.03197  -0.006375  -0.04724  0.001307  0.04871  -0.6759
6.26e+09  0.7891  -0.3454  -0.03769  0.004075  -0.004991  -0.01901  -0.1833  -0.6621
6.261e+09  0.6459  -0.583  0.007709  0.01061  -0.01197  -0.004905  -0.4157  -0.5544
6.262e+09  0.4123  -0.6786  -0.02662  0.0006039  -0.03442  -0.02381  -0.6019  -0.3448
6.264e+09  0.1757  -0.8187  -0.01936  -0.01112  0.04352  -0.02058  -0.6853  -0.06721
6.265e+09  -0.1273  -0.7399  0.01519  0.01157  -0.007682  -0.03286  -0.6914  0.1543
6.266e+09  -0.4224  -0.7468  0.01228  -0.03382  0.01646  -0.02095  -0.6424  0.3833
6.268e+09  -0.6613  -0.5367  -0.01146  0.0226  -0.01602  -0.02123  -0.4543  0.5808
6.269e+09  -0.7675  -0.2362  0.01705  0.01496  0.01463  -0.005745  -0.2294  0.7002
6.27e+09  -0.8105  0.02016  -0.01574  -0.02476  -0.03084  -0.02346  0.07456  0.7434
6.271e+09  -0.7629  0.3522  0.02004  -0.003032  -0.04206  0.03045  0.3218  0.6864
6.272e+09  -0.5478  0.5461  -0.03122  -0.008278  -0.008693  0.008851  0.5141  0.5369
6.274e+09  -0.4162  0.7203  0.003436  -0.01395  -0.0318  -0.02737  0.6959  0.3424
6.275e+09  -0.1442  0.8486  -0.01358  0.0408  -0.03209  0.01488  0.7986  0.02978
6.276e+09  0.147  0.8183  -0.0007154  0.01376  -0.03163  -0.02006  0.7335  -0.1981
6.278e+09  0.446  0.674  0.003172  -0.000195  -0.02939  0.01171  0.6416  -0.474
6.279e+09  0.6921  0.514  -0.008313  -0.03007  0.003526  0.01793  0.4208  -0.6152
6.28e+09  0.8167  0.2534  -0.0008828  0.04198  -0.001739  -0.007796  0.1828  -0.7385
6.281e+09  0.8187  -0.05794  8.806e-05  0.007502  -0.01614  -0.05638  -0.07381  -0.7677
6.282e+09  0.729  -0.3133  -0.02782  0.02072  0.01544  0.0006992  -0.3686  -0.6817
6.284e+09  0.608  -0.5017  -0.005504  0.008381  -0.00882  -0.01858  -0.6048  -0.5154
6.285e+09  0.3855  -0.6949  0.04209  -0.009602  -0.009953  0.02336  -0.7601  -0.2863
6.286e+09  0.0474  -0.8146  -0.01295  0.005022  0.02872  0.03241  -0.7898  -0.01215
6.288e+09  -0.2157  -0.7743  0.01708  0.008351  -0.003435  -0.008271  -0.7591  0.2645
6.289e+09  -0.4933  -0.6785  -0.001249  0.01098  -0.0381  -0.06065  -0.5989  0.4964
6.29e+09  -0.6659  -0.5441  0.02536  0.01164  0.01817  0.02429  -0.428  0.7101
6.291e+09  -0.7503  -0.2737  -0.004559  0.01988  0.008061  0.04071  -0.1656  0.8189
6.292e+09  -0.8297  0.05298  -0.01776  0.01591  0.01721  -0.002669  0.1409  0.7973
6.294e+09  -0.7547  0.3325  -0.004718  -0.01159  -0.0185  -0.0383  0.3801  0.7158
6.295e+09  -0.5897  0.6277  0.006347  0.0145  -0.009729  -0.01822  0.607  0.5314
6.296e+09  -0.3199  0.7746  -0.02099  -5.755e-05  -0.001306  -0.03176  0.7711  0.2635
6.298e+09  -0.08144  0.7852  -0.005513  -0.02436  0.02811  0.02659  0.8093  0.02723
6.299e+09  0.2505  0.7619  0.002948  -0.02906  -0.009124  0.04915  0.78  -0.2404
6.3e+09  0.5206  0.6814  0.001338  -0.008977  -0.03233  0.0148  0.6535  -0.5386
6.301e+09  0.7199  0.5004  0.0007666  0.002214  0.001813  0.05399  0.442  -0.7219
6.302e+09  0.7697  0.1526  0.001159  -0.003165  0.01103  0.07868  0.1924  -0.8228
6.304e+09  0.8421  -0.07422  0.002929  0.0245  -0.05107  -0.04661  -0.1326  -0.8416
6.305e+09  0.7473  -0.3915  -0.02964  0.01088  -0.0381  0.000871  -0.4064  -0.7306
6.306e+09  0.561  -0.5326  -0.002918  0.008266  -0.001736  -0.007554  -0.6428  -0.552
6.308e+09  0.3345  -0.7602  0.02169  -0.01945  -0.0469  0.02246  -0.7877  -0.2899
6.309e+09  0.002805  -0.8404  -0.01196  0.005343  -0.02256  0.004265  -0.8527  0.007344
6.31e+09  -0.2951  -0.797  -0.01161  0.00733  0.02283  0.00647  -0.8145  0.3201
6.311e+09  -0.4564  -0.6836  -0.008432  0.00935  -0.02055  -0.004105  -0.6708  0.54
6.312e+09  -0.6811  -0.5036  -0.0043  -0.04717  -0.008015  -0.01197  -0.4408  0.7413
6.314e+09  -0.806  -0.1839  0.01313  -0.02136  -0.01623  -0.01414  -0.1904  0.8553
6.315e+09  -0.888  0.1318  0.0089  0.008952  0.00161  -0.02983  0.1314  0.8441
6.316e+09  -0.7491  0.3729  -0.01733  -0.009495  -0.001566  -0.007083  0.4546  0.7415
6.318e+09  -0.5961  0.6494  0.0284  -0.01671  0.01402  -0.06155  0.6648  0.5328
6.319e+09  -0.2937  0.7559  0.00192  0.03484  -0.004724  0.01464  0.8131  0.3104
6.32e+09  -0.02371  0.8703  -0.0218  0.02468  -0.0248  0.02869  0.8774  0.008198
6.321e+09  0.2406  0.8283  -0.01764  -0.006649  0.000112  0.01456  0.7929  -0.2931
6.322e+09  0.5542  0.6346  -0.01415  -0.008577  -0.02745  0.009643  0.7001  -0.5577
6.324e+09  0.7293  0.421  -0.003512  0.003103  0.04539  -0.0417  0.459  -0.7664
6.325e+09  0.8736  0.1451  0.01975  -0.006953  0.007545  -0.01154  0.1853  -0.8584
6.326e+09  0.8077  -0.2518  0.02315  -0.008916  0.02552  0.02855  -0.1163  -0.9143
6.328e+09  0.7168  -0.4264  0.002646  -0.008184  0.001229  0.0132  -0.4257  -0.8038
6.329e+09  0.5223  -0.6191  -0.006344  -0.0183  -0.04671  -0.02326  -0.6743  -0.6099
6.33e+09  0.2645  -0.7882  -0.01287  0.03216  0.008717  -0.0082  -0.8597  -0.3321
6.331e+09  -0.08878  -0.8378  0.01478  -0.02135  -0.03472  0.02564  -0.903  -0.03223
6.332e+09  -0.3391  -0.7632  0.003332  0.004641  -0.007121  0.01258  -0.8461  0.2882
6.334e+09  -0.5761  -0.6667  -0.00399  0.00514  -0.0389  0.03388  -0.7204  0.5449
6.335e+09  -0.7598  -0.3898  -0.003333  0.00823  0.01758  -0.04386  -0.4921  0.8079
6.336e+09  -0.9059  -0.09616  0.02789  0.00658  -0.0007407  0.02029  -0.1793  0.8724
6.338e+09  -0.8515  0.1507  0.02948  0.006619  0.03307  -0.01646  0.1206  0.9284
6.339e+09  -0.7586  0.5058  0.008048  -0.01433  0.02739  0.012  0.4443  0.8148
6.34e+09  -0.5296  0.6796  -0.02315  -0.002119  0.006766  0.01565  0.6568  0.6233
6.341e+09  -0.1989  0.8665  0.01877  -0.01223  -0.01803  -0.03189  0.8689  0.4011
6.342e+09  0.05156  0.837  -0.0009859  -0.02714  -0.04486  -0.003813  0.9178  0.06435
6.344e+09  0.3865  0.7965  -0.002026  0.01867  0.002913  0.02142  0.892  -0.2727
6.345e+09  0.6314  0.5687  -0.009417  -0.002449  0.08013  -0.03363  0.7846  -0.5278
6.346e+09  0.7924  0.3405  -0.009074  -0.03212  -0.02099  0.003391  0.4927  -0.7873
6.348e+09  0.9087  0.05666  0.009472  0.03021  -0.01809  -0.003012  0.2139  -0.9026
6.349e+09  0.8397  -0.272  0.005874  -0.0321  -0.008972  -0.05127  -0.1457  -0.9226
6.35e+09  0.6777  -0.5173  -0.01268  0.006102  -0.007373  -0.04452  -0.4122  -0.835
6.351e+09  0.4517  -0.7427  0.007082  0.02571  -0.03349  -0.0141  -0.6786  -0.6413
6.352e+09  0.1488  -0.8268  0.006352  -0.004654  0.003789  0.009926  -0.8237  -0.3833
6.354e+09  -0.1554  -0.8004  -0.0296  -0.02681  -0.003106  -0.02465  -0.9329  -0.0781
6.355e+09  -0.4642  -0.7873  0.009762  -0.004415  0.04874  -0.001761  -0.9144  0.2818
6.356e+09  -0.6543  -0.5592  -0.02743  0.001551  -0.01841  -0.004444  -0.7707  0.5369
6.358e+09  -0.8389  -0.2753  0.001754  0.02352  -0.01633  0.05596  -0.5387  0.7931
6.359e+09  -0.8913  0.06345  -0.02229  0.01751  0.00653  -0.0378  -0.2391  0.8792
6.36e+09  -0.8354  0.3778  0.02799  -0.003316  0.001441  -0.03334  0.09903  0.915
6.361e+09  -0.5993  0.6301  0.009436  -0.007372  0.02604  -0.009608  0.4032  0.8585
6.362e+09  -0.3577  0.7772  0.006218  -0.005098  -0.02089  -0.02363  0.6645  0.6237
6.364e+09  -0.09479  0.8676  -0.01343  0.02228  -0.04495  -0.02038  0.8449  0.3843
6.365e+09  0.1873  0.8496  0.004838  -0.01233  0.03025  -0.0184  0.9252  0.0192
6.366e+09  0.5051  0.7049  -0.01233  0.01234  -0.05785  -0.01153  0.9107  -0.1849
6.368e+09  0.7258  0.5232  -0.02462  0.04414  0.006132  -0.02406  0.7521  -0.5186
6.369e+09  0.8958  0.2745  -0.02777  0.002072  -0.01066  -0.0186  0.5659  -0.7601
6.37e+09  0.8786  -0.08757  -0.0006663  -0.01204  0.04984  0.01784  0.2426  -0.9007
6.371e+09  0.7962  -0.3893  0.005267  0.007812  0.03131  -0.01732  -0.06682  -0.9397
6.372e+09  0.5844  -0.6661  0.01525  0.01706  0.01016  0.01301  -0.3668  -0.8798
6.374e+09  0.3283  -0.7988  -0.03542  -0.02117  -0.02457  -0.009135  -0.6632  -0.6819
6.375e+09  0.04833  -0.89  -0.01207  0.0007009  0.05448  -0.02023  -0.8442  -0.4569
6.376e+09  -0.2605  -0.8415  -0.0323  -0.01059  -0.05945  0.006807  -0.9558  -0.1239
6.378e+09  -0.5429  -0.7262  -0.02112  0.01102  -0.006187  0.01854  -0.9076  0.2298
6.379e+09  -0.7617  -0.4531  0.005224  0.01158  -0.02527  0.02726  -0.7482  0.5093
6.38e+09  -0.8979  -0.1768  -0.009507  -0.01814  0.05736  0.04012  -0.5645  0.7425
6.381e+09  -0.8203  0.1683  0.01679  -0.05833  0.02762  -0.01653  -0.2375  0.9013
6.382e+09  -0.7408  0.4576  0.01019  0.02428  0.002198  0.02217  0.0374  0.9577
6.384e+09  -0.6051  0.6406  -0.01825  -0.0167  -0.005288  0.01735  0.3951  0.8523
6.385e+09  -0.3281  0.8911  -0.006361  -0.001801  -0.01458  -0.02508  0.6331  0.6829
6.386e+09  -0.04521  0.8523  0.03156  0.008709  0.02999  0.02944  0.8342  0.3896
6.388e+09  0.3151  0.808  0.001613  0.02737  -0.01005  0.08447  0.9232  0.1227
6.389e+09  0.5417  0.6826  0.01378  -0.01149  -0.01448  -0.009872  0.9233  -0.2149
6.39e+09  0.759  0.4287  -0.05679  0.001883  0.011  -0.01498  0.7647  -0.5145
6.391e+09  0.8545  0.1188  -0.01595  0.02119  -0.02439  -0.005586  0.5829  -0.7173
6.392e+09  0.8692  -0.1912  -0.01211  -0.004002  0.03554  -0.0008146  0.2877  -0.8374
6.394e+09  0.7409  -0.502  0.01748  -0.005683  -0.008667  -0.00304  -0.05295  -0.9046
6.395e+09  0.5591  -0.6879  -0.001075  -0.01264  0.007824  0.002831  -0.3307  -0.8626
6.396e+09  0.2766  -0.8777  -0.0175  -0.01851  -0.04354  0.008239  -0.611  -0.6608
6.398e+09  -0.07138  -0.9127  -0.01851  -0.004674  0.005631  -0.01264  -0.8082  -0.5089
6.399e+09  -0.3857  -0.8314  -0.05059  -0.002983  0.03067  0.00312  -0.9215  -0.1438
6.4e+09  -0.668  -0.6314  0.00879  0.02216  0.03316  0.01377  -0.868  0.1811
6.401e+09  -0.7894  -0.412  -0.005551  0.004757  -0.03417  0.0458  -0.7961  0.4843
6.402e+09  -0.8514  -0.07041  0.01978  -0.02492  0.01047  -0.02089  -0.5441  0.7217
6.404e+09  -0.802  0.2246  0.0161  0.007367  -0.02079  0.02332  -0.3312  0.8714
6.405e+09  -0.7006  0.4896  -0.01704  0.01547  -0.008574  -0.0171  0.02007  0.8639
6.406e+09  -0.4968  0.7719  -9.577e-05  0.006334  -0.06256  -0.003786  0.2723  0.8583
6.408e+09  -0.1896  0.8853  -0.007244  -0.001023  -0.025  0.03667  0.6165  0.6955
6.409e+09  0.1243  0.8701  0.04009  0.0009036  -0.01718  0.03623  0.7826  0.4747
6.41e+09  0.3305  0.8024  0.02877  -0.0149  -0.05392  0.06064  0.8374  0.1717
6.411e+09  0.6081  0.6425  0.01264  0.01858  -0.01526  0.0009262  0.8661  -0.132
6.412e+09  0.7973  0.3725  0.03715  -0.004399  0.03325  -0.005612  0.8034  -0.4451
6.414e+09  0.8479  0.01982  0.025  -0.00271  -0.01732  0.003948  0.6142  -0.6446
6.415e+09  0.8123  -0.2454  -0.0368  -0.007728  0.01503  0.01275  0.3898  -0.8715
6.416e+09  0.7169  -0.537  0.0256  -0.04186  0.04336  0.01666  0.05315  -0.9064
6.418e+09  0.4959  -0.7149  -0.04156  -0.0181  -0.04112  0.03092  -0.2733  -0.8984
6.419e+09  0.1936  -0.8351  0.009207  0.03845  0.02671  -0.005842  -0.5084  -0.7143
6.42e+09  -0.1718  -0.9102  0.008954  -0.0173  0.003422  0.05854  -0.7345  -0.4845
6.421e+09  -0.3659  -0.7858  -0.0345  -0.008409  0.02297  -0.0008361  -0.8734  -0.1755
6.422e+09  -0.6906  -0.6231  0.0115  0.04129  0.02037  -0.00626  -0.8673  0.1171
6.424e+09  -0.7711  -0.3676  -0.02245  -0.01914  0.03144  -0.07555  -0.8009  0.3907
6.425e+09  -0.8369  0.01284  0.0002428  -0.01218  -0.01638  0.02166  -0.5858  0.6399
6.426e+09  -0.8548  0.2966  0.05006  0.03453  -0.02444  -0.03486  -0.3283  0.8031
6.428e+09  -0.6855  0.5079  0.01829  -0.01764  0.04228  0.02294  -0.04591  0.8824
6.429e+09  -0.4628  0.7082  -0.005473  -0.01082  -0.007563  0.007513  0.2389  0.8522
6.43e+09  -0.1623  0.8418  9.663e-05  0.005362  -0.0396  -0.03246  0.4799  0.7191
6.431e+09  0.151  0.855  -0.03773  -0.00319  0.05037  0.05118  0.6886  0.4738
6.432e+09  0.4468  0.7492  0.01697  0.009889  0.0251  -0.01503  0.8358  0.2358
6.434e+09  0.6665  0.5319  -0.0108  0.0087  0.0004139  0.02269  0.9214  -0.1184
6.435e+09  0.7931  0.3693  -0.01956  -0.02638  -0.0306  0.0007016  0.7702  -0.3388
6.436e+09  0.8956  0.04134  -0.01132  -0.04863  0.01805  0.007804  0.6242  -0.5918
6.438e+09  0.8138  -0.323  -0.03375  0.02202  0.04089  -0.01544  0.3928  -0.8189
6.439e+09  0.6968  -0.528  -0.07327  0.01334  0.01303  0.0638  0.08131  -0.8458
6.44e+09  0.452  -0.7567  -0.03935  0.0318  -0.006389  0.007386  -0.1772  -0.8221
6.441e+09  0.1897  -0.8547  -0.02546  0.02891  -0.05196  -0.06507  -0.4975  -0.6704
6.442e+09  -0.1531  -0.8795  -0.006458  -0.02505  0.0005696  0.04284  -0.672  -0.4659
6.444e+09  -0.4184  -0.7475  0.005541  0.004787  0.01942  -0.01043  -0.817  -0.2124
6.445e+09  -0.6989  -0.5574  -0.0105  -0.001807  0.01176  0.01719  -0.8402  0.07764
6.446e+09  -0.8007  -0.2942  0.01534  0.04209  0.001581  0.02097  -0.7493  0.3733
6.448e+09  -0.8715  0.04521  0.006425  -0.01936  0.0006959  0.02017  -0.5586  0.6132
6.449e+09  -0.8161  0.3071  -0.02551  -0.004144  0.0515  -0.01044  -0.3378  0.7644
6.45e+09  -0.7319  0.6094  -0.02064  -0.009069  -0.02624  0.0297  -0.05432  0.8512
6.451e+09  -0.4451  0.7098  -0.001145  -0.02062  -0.05035  -0.05881  0.2272  0.8075
6.452e+09  -0.1896  0.8443  0.004521  0.01906  0.007383  0.03658  0.4331  0.679
6.454e+09  0.1586  0.7844  0.0192  -0.01487  -0.005524  -0.08687  0.6809  0.5206
6.455e+09  0.4902  0.7289  -0.01271  -0.02667  -0.009216  0.002875  0.8046  0.204
6.456e+09  0.623  0.5595  0.002785  0.002936  -0.02557  -0.02582  0.7867  -0.07744
6.458e+09  0.783  0.2653  -0.02641  -0.02577  -0.01109  0.0373  0.7342  -0.3719
6.459e+09  0.9  0.01874  -0.02664  0.04629  -0.02177  -0.009588  0.5412  -0.5823
6.46e+09  0.8781  -0.2998  0.01766  -0.01975  -0.01672  -0.01188  0.3541  -0.7516
6.461e+09  0.6985  -0.5872  -0.02544  0.002265  0.004295  0.01517  0.07972  -0.7765
6.462e+09  0.4606  -0.7212  -0.001661  -0.007281  -0.04327  -0.01577  -0.2258  -0.7906
6.464e+09  0.1669  -0.8521  0.01912  -0.0257  -0.02867  0.0138  -0.4814  -0.6504
6.465e+09  -0.1402  -0.8551  0.0409  -0.0141  0.01431  -0.01579  -0.6681  -0.475
6.466e+09  -0.3983  -0.7052  -0.008387  -0.02787  -0.03269  -0.004273  -0.8335  -0.2008
6.468e+09  -0.6957  -0.5283  0.005465  0.01473  0.02432  0.02597  -0.8  0.0592
6.469e+09  -0.825  -0.2421  0.0585  0.02949  -0.02398  -0.00644  -0.7396  0.3461
6.47e+09  -0.8928  0.01593  -0.02994  -0.02691  -0.006873  0.02726  -0.5849  0.5768
6.471e+09  -0.8403  0.3593  0.03674  -0.025  0.02211  -0.02855  -0.33  0.6879
6.472e+09  -0.7077  0.5538  -0.01652  0.04124  -0.03556  0.004193  -0.07836  0.7637
6.474e+09  -0.3963  0.7632  0.005031  -0.03882  0.01711  -0.02822  0.1818  0.7503
6.475e+09  -0.1173  0.8595  0.02644  0.01512  -0.007447  0.001508  0.4399  0.5911
6.476e+09  0.1613  0.8794  -0.003658  0.01456  -0.006497  -0.03906  0.6374  0.4226
6.478e+09  0.4566  0.7289  -0.004496  0.009353  0.03614  0.05747  0.7431  0.1783
6.479e+09  0.6803  0.5374  0.0197  0.01552  -0.05202  0.03478  0.7966  -0.08807
6.48e+09  0.8375  0.277  0.009389  -0.01606  -0.03591  -0.02306  0.6817  -0.31
6.481e+09  0.8584  -0.02811  -0.02187  0.02223  0.006073  0.006758  0.5251  -0.5271
6.482e+09  0.7869  -0.2952  -0.00874  0.001668  -0.0266  -0.01571  0.3404  -0.7388
6.484e+09  0.6592  -0.539  -0.0258  0.02082  0.04625  0.03049  0.06554  -0.7931
6.485e+09  0.4135  -0.8114  0.01583  -0.02133  0.02195  -0.06288  -0.1816  -0.7505
6.486e+09  0.126  -0.8495  -0.00359  -0.003909  0.02719  -0.002194  -0.4865  -0.6239
6.488e+09  -0.2047  -0.8982  0.007163  0.01794  -0.007436  0.04033  -0.62  -0.4204
6.489e+09  -0.496  -0.767  0.01068  0.01258  0.01256  -0.02015  -0.7736  -0.2049
6.49e+09  -0.7206  -0.511  -0.04507  0.003102  -0.01329  0.01246  -0.7445  0.1056
6.491e+09  -0.8767  -0.2811  0.007145  -0.03472  -0.02607  0.01812  -0.7028  0.3622
6.492e+09  -0.9074  0.06978  0.04048  -0.002989  -0.01226  0.03775  -0.4892  0.5589
6.494e+09  -0.8531  0.3832  0.01921  0.01751  0.05504  0.02545  -0.301  0.6806
6.495e+09  -0.6729  0.6247  -0.01131  0.02542  -0.02346  -0.000502  -0.06586  0.7891
6.496e+09  -0.4242  0.7841  0.01611  -0.01375  0.03529  -0.01966  0.2484  0.7183
6.498e+09  -0.1089  0.8568  0.02432  0.01359  0.01325  -0.01508  0.4791  0.5716
6.499e+09  0.1773  0.8475  0.01616  -0.003566  -0.009179  0.003432  0.6374  0.4258
6.5e+09  0.5156  0.7672  -0.002438  0.04656  -0.0207  0.03359  0.7747  0.1373
6.501e+09  0.7409  0.5424  0.008745  0.008798  0.01464  0.01599  0.7331  -0.14
6.502e+09  0.869  0.3013  -0.0619  0.02425  0.01092  0.03676  0.6605  -0.3579
6.504e+09  0.9288  -0.01048  -0.02602  0.02473  0.02842  0.004848  0.4911  -0.5483
6.505e+09  0.8431  -0.3734  -0.02438  0.01304  -0.02009  0.007855  0.3019  -0.705
6.506e+09  0.6998  -0.6417  0.01986  -0.0241  0.07622  0.01559  -0.001189  -0.7253
6.508e+09  0.424  -0.8335  0.04552  0.03494  -0.003354  -0.05088  -0.2281  -0.723
6.509e+09  0.1119  -0.9  0.03978  0.03973  0.02787  0.004537  -0.465  -0.5975
6.51e+09  -0.2223  -0.9055  -0.01098  -0.01463  0.01004  0.005155  -0.6436  -0.3942
6.511e+09  -0.4796  -0.7369  -0.01999  0.01397  0.0006519  -0.04593  -0.7512  -0.1324
6.512e+09  -0.7735  -0.4486  -0.009696  0.02814  -0.04867  -0.005923  -0.7695  0.1293
6.514e+09  -0.9116  -0.1944  -0.02144  -0.004405  0.02648  0.02075  -0.6175  0.3623
6.515e+09  -0.8941  0.08116  -0.02501  0.02113  0.004805  0.02891  -0.4841  0.5479
6.516e+09  -0.8099  0.385  -0.01439  -0.009821  -0.03403  -0.007511  -0.251  0.6804
6.518e+09  -0.6576  0.6733  -0.0279  -0.01304  -0.007313  -0.02763  -0.008107  0.7681
6.519e+09  -0.3922  0.8644  0.01047  0.04084  0.01567  0.01096  0.2784  0.7095
6.52e+09  -0.07614  0.9295  -0.005202  0.02891  -0.01707  0.02935  0.4953  0.5534
6.521e+09  0.2966  0.914  -0.006952  0.02134  -0.001777  0.01801  0.6618  0.3556
6.522e+09  0.5681  0.7374  0.01905  -0.004924  -0.04226  0.006127  0.7291  0.09187
6.524e+09  0.7885  0.5339  0.0105  -0.004181  0.00818  0.03117  0.7274  -0.1612
6.525e+09  0.9003  0.1963  -0.01596  -0.01139  0.04506  0.0135  0.6251  -0.3864
6.526e+09  0.9602  -0.06563  0.0218  0.005617  -0.01001  0.013  0.4418  -0.5632
6.528e+09  0.8822  -0.486  0.008281  0.001506  0.01649  0.01518  0.1884  -0.6784
6.529e+09  0.6452  -0.7643  0.02376  0.01318  -0.02029  -0.002103  -0.05462  -0.6905
6.53e+09  0.3444  -0.9501  0.007498  0.009114  -0.04062  0.02292  -0.2953  -0.6271
6.531e+09  0.01608  -0.9692  -0.02414  0.01718  -0.05803  -0.03066  -0.4723  -0.4611
6.532e+09  -0.3086  -0.8723  0.02326  0.01212  0.006039  -0.0233  -0.6129  -0.2886
6.534e+09  -0.6331  -0.7281  -0.04152  0.0378  0.009498  -0.009092  -0.6446  -0.09975
6.535e+09  -0.8434  -0.5299  -0.008204  0.01755  -0.03988  -0.001048  -0.5801  0.1374
6.536e+09  -0.9398  -0.1646  -0.02415  0.01129  -0.004809  -0.0007519  -0.5726  0.3025
6.538e+09  -1.003  0.1779  -0.002559  -0.01872  0.01427  0.007194  -0.4514  0.5038
6.539e+09  -0.7974  0.4624  -0.01694  0.0127  -0.03198  -0.01695  -0.2593  0.5704
6.54e+09  -0.5913  0.7465  -0.0007795  0.003682  -0.04541  0.02496  -0.08158  0.6744
6.541e+09  -0.3316  0.9236  0.002786  -0.00845  -0.01555  -0.06726  0.1753  0.6795
6.542e+09  0.05583  0.9839  -0.01391  -0.002294  -0.004373  -0.002654  0.4023  0.5793
6.544e+09  0.3598  0.8346  -0.01257  -0.002672  -0.02149  0.04985  0.5727  0.4042
6.545e+09  0.7282  0.6957  0.04441  0.03265  -0.04926  0.01039  0.7076  0.1738
6.546e+09  0.8842  0.3892  0.009244  0.01436  0.002024  0.01678  0.6897  -0.07897
6.548e+09  0.9418  0.1414  0.007887  0.001539  0.003131  0.04568  0.6394  -0.2994
6.549e+09  0.909  -0.2018  0.01799  -0.007688  0.01655  0.01981  0.4972  -0.5151
6.55e+09  0.7097  -0.593  -0.02959  0.006797  -0.02757  0.04164  0.2869  -0.6556
