# Hz S RI R 50
6.25e+09  -0.3676  0.7403  0.02129  -0.008581  -0.023  0.03672  0.1542  0.4773
6.251e+09  -0.06646  0.8478  0.02446  0.01078  0.03692  0.02201  0.3624  0.4411
6.252e+09  0.1421  0.8613  -0.007677  0.004418  -0.05155  0.02322  0.5008  0.227
6.254e+09  0.5053  0.7398  -0.02056  0.0004011  0.01177  -0.00935  0.6217  0.009861
6.255e+09  0.636  0.4617  0.01116  -0.00576  -0.01728  -0.02706  0.5775  -0.2287
6.256e+09  0.7847  0.2577  0.007703  -0.004308  -0.06413  -0.003142  0.478  -0.4086
6.258e+09  0.8727  -0.07182  0.01687  0.03138  -0.04041  -0.02174  0.2647  -0.5825
6.259e+09  0.8106  -0.354  -0.0417  0.02464  -0.0293  -0.008254  0.05981  -0.6539
6.26e+09  0.5953  -0.5703  0.01929  -0.002159  0.02065  -0.01981  -0.2186  -0.6647
6.261e+09  0.3682  -0.7676  0.01995  0.03548  -0.0954  -0.01993  -0.4484  -0.5175
6.262e+09  0.03568  -0.8072  -0.008046  -0.000321  0.02408  0.0007008  -0.6313  -0.3574
6.264e+09  -0.202  -0.8661  -0.0114  -0.03084  0.006792  -0.04669  -0.7413  -0.1353
6.265e+09  -0.4609  -0.7189  0.03095  0.01095  0.02493  -0.01882  -0.7133  0.1586
6.266e+09  -0.6908  -0.4819  -0.01019  0.02452  -0.02221  0.01948  -0.6184  0.3956
6.268e+09  -0.7805  -0.2317  -0.005357  0.01416  0.01496  -0.005295  -0.4345  0.6155
6.269e+09  -0.8643  0.08234  -0.009752  0.0007932  0.05727  0.02515  -0.2076  0.7304
6.27e+09  -0.7832  0.3655  0.01211  -0.04692  -0.02874  -0.01046  0.0625  0.7124
6.271e+09  -0.6362  0.5805  0.003209  -0.0005097  -0.03749  0.00915  0.3221  0.6505
6.272e+09  -0.3872  0.7245  0.02395  -0.008145  0.04928  -0.003511  0.5125  0.5326
6.274e+09  -0.05848  0.8002  0.01069  0.002089  0.05316  0.03145  0.6988  0.3313
6.275e+09  0.1509  0.7701  -0.009115  0.0001391  -0.01726  -0.03247  0.7327  0.04526
6.276e+09  0.4393  0.718  0.01911  0.02357  -0.01844  -0.0336  0.7261  -0.2436
6.278e+09  0.6491  0.4942  0.009098  0.006494  0.07501  0.007219  0.6153  -0.4672
6.279e+09  0.8108  0.2083  -0.007604  -0.018  0.06209  -0.04094  0.4142  -0.6579
6.28e+09  0.8035  -0.04552  -0.0006559  -0.001708  -0.01747  0.0398  0.1708  -0.7397
6.281e+09  0.7501  -0.3425  -0.001906  0.008285  -0.04302  0.02794  -0.09431  -0.766
6.282e+09  0.5885  -0.5731  -0.006018  0.01937  -0.01471  0.00449  -0.3353  -0.6634
6.284e+09  0.3505  -0.7567  -0.01676  0.007374  0.03313  -0.1093  -0.5658  -0.4977
6.285e+09  0.09024  -0.8767  0.02024  -0.002496  0.04598  -0.04558  -0.7646  -0.3044
6.286e+09  -0.2397  -0.7962  0.02121  0.009853  -0.005895  0.004365  -0.8106  -0.03911
6.288e+09  -0.4992  -0.673  -0.01616  0.004899  0.03343  -0.01955  -0.7509  0.2805
6.289e+09  -0.6948  -0.4781  -0.007145  0.03013  0.05487  -0.006956  -0.6039  0.5132
6.29e+09  -0.779  -0.2029  -0.004254  -0.007629  0.02795  -0.022  -0.4059  0.7064
6.291e+09  -0.8115  0.1115  0.01512  -0.01281  0.004433  0.01811  -0.1769  0.7963
6.292e+09  -0.7365  0.3514  -0.04522  -0.013  0.01147  -0.01736  0.07822  0.83
6.294e+09  -0.5561  0.6094  0.006159  -0.01703  -0.03374  0.001139  0.4102  0.6693
6.295e+09  -0.3319  0.7764  -0.00735  0.003416  -0.04245  -0.009401  0.6109  0.5454
6.296e+09  -0.07754  0.8252  -0.02683  -0.0183  -0.004276  -0.03564  0.7809  0.2744
6.298e+09  0.2418  0.7936  0.01941  0.007746  -0.02316  0.04946  0.827  -0.005911
6.299e+09  0.4906  0.618  0.01542  0.01274  0.001872  0.03173  0.7597  -0.2622
6.3e+09  0.7018  0.4417  -0.01833  -0.01777  -0.01059  0.01559  0.639  -0.5296
6.301e+09  0.7899  0.1767  -0.009441  -0.005407  0.01663  0.01104  0.4415  -0.7205
6.302e+09  0.8381  -0.07916  0.005562  -0.0176  -0.0346  -0.03608  0.1701  -0.8154
6.304e+09  0.7259  -0.3721  0.01539  -0.001585  0.01712  -0.01395  -0.1385  -0.8504
6.305e+09  0.5416  -0.6511  -0.007815  0.005794  0.04718  0.02195  -0.4079  -0.7378
6.306e+09  0.2785  -0.7516  -0.008523  -0.00783  -0.0009132  0.008475  -0.6644  -0.5694
6.308e+09  0.01158  -0.8531  0.008582  -0.03967  -0.03518  0.01137  -0.81  -0.3036
6.309e+09  -0.3099  -0.8343  0.0217  0.01661  -0.01387  0.01618  -0.8795  0.0203
6.31e+09  -0.4875  -0.6559  -0.02361  0.01316  0.01204  -0.02208  -0.8203  0.2973
6.311e+09  -0.7618  -0.4303  -0.01063  -0.05388  -0.05069  0.02955  -0.6712  0.5591
6.312e+09  -0.7973  -0.1252  0.01495  0.04114  0.03197  -0.01745  -0.4463  0.7412
6.314e+09  -0.8459  0.1452  0.02004  -0.01372  -0.05222  0.02323  -0.1464  0.8642
6.315e+09  -0.7537  0.4426  -0.01427  -0.003035  0.03865  0.01554  0.12  0.8439
6.316e+09  -0.5495  0.614  -0.01693  0.01352  -0.008012  0.01213  0.4605  0.7854
6.318e+09  -0.284  0.8215  0.01138  0.04342  0.03891  -0.02244  0.6755  0.608
6.319e+09  0.0273  0.8899  -0.008095  0.00586  -0.00568  0.01661  0.8292  0.3048
6.32e+09  0.2939  0.7587  -0.01232  0.004864  0.002044  -0.02964  0.8908  0.03699
6.321e+09  0.5764  0.6112  0.0218  0.03062  0.00929  -0.01538  0.8475  -0.2856
6.322e+09  0.7331  0.4085  0.004552  -0.01014  -0.01805  0.02674  0.6949  -0.551
6.324e+09  0.8285  0.1097  0.003842  0.004925  -0.01376  -0.02981  0.4739  -0.7857
6.325e+09  0.805  -0.2399  0.01583  0.01061  0.02729  0.02892  0.1746  -0.8877
6.326e+09  0.6717  -0.4442  -0.01586  -0.02175  0.02299  -0.0216  -0.0867  -0.8812
6.328e+09  0.5309  -0.6566  0.03778  0.002859  -0.0134  -0.0369  -0.4454  -0.8057
6.329e+09  0.2512  -0.8673  -0.00358  -0.02927  -0.03795  0.02854  -0.6669  -0.6073
6.33e+09  -0.0627  -0.862  -0.01794  -0.03473  0.03832  0.02736  -0.8463  -0.301
6.331e+09  -0.3498  -0.7142  0.01675  -0.02906  -0.03665  0.04728  -0.8913  -0.008402
6.332e+09  -0.6251  -0.5933  0.02737  0.0202  -0.04868  0.004416  -0.8465  0.2793
6.334e+09  -0.7777  -0.3387  -0.002391  0.008513  0.04541  0.04802  -0.7284  0.5481
6.335e+09  -0.8201  -0.03671  -0.01002  -0.003999  -0.01491  0.0006251  -0.5055  0.7593
6.336e+09  -0.8937  0.2342  0.0008601  0.02605  0.04374  -0.004298  -0.212  0.9025
6.338e+09  -0.6958  0.5139  -0.004349  0.01487  0.002766  0.02319  0.1328  0.8912
6.339e+09  -0.4507  0.7019  0.01646  -0.02232  -0.003432  0.01961  0.417  0.8125
6.34e+09  -0.2009  0.9144  0.005128  0.02905  0.04279  0.03768  0.6862  0.6308
6.341e+09  0.1467  0.9072  -0.0496  -0.01679  0.005759  -0.01395  0.878  0.3842
6.342e+09  0.4033  0.77  -0.01363  -0.007538  0.01332  0.04098  0.9192  0.05428
6.344e+09  0.7045  0.5378  -0.01205  -0.008289  -0.02223  -0.02943  0.8784  -0.2907
6.345e+09  0.848  0.3247  0.004165  -0.01581  0.04108  0.01277  0.7878  -0.5877
6.346e+09  0.8843  0.04923  0.000602  0.002405  0.03113  -0.02813  0.4788  -0.7899
6.348e+09  0.8031  -0.3053  -0.01392  -0.01952  -0.03077  -0.01393  0.1853  -0.9078
6.349e+09  0.6962  -0.5775  -0.01265  0.001718  -0.01342  -0.01961  -0.1119  -0.9558
6.35e+09  0.3848  -0.7761  -0.0006771  0.019  0.0333  -0.02118  -0.4098  -0.8355
6.351e+09  0.1556  -0.8801  0.000701  0.01743  0.02289  0.02337  -0.6386  -0.6544
6.352e+09  -0.2005  -0.8357  0.02803  0.006324  0.0001293  -0.022  -0.8619  -0.3651
6.354e+09  -0.419  -0.7643  0.003935  -0.03641  -0.01948  -0.008228  -0.9553  -0.03077
6.355e+09  -0.7436  -0.5564  0.00715  0.02321  -0.003592  -0.004394  -0.8995  0.2339
6.356e+09  -0.8681  -0.2341  -0.02134  0.009042  -0.02522  -0.03956  -0.7671  0.5385
6.358e+09  -0.8557  0.07187  -0.01706  0.0252  -0.01155  0.004389  -0.5211  0.813
6.359e+09  -0.7797  0.3237  -0.001901  0.004337  -0.02087  -0.01275  -0.2175  0.9549
6.36e+09  -0.6386  0.6265  -0.0177  -0.03011  -0.003025  0.01913  0.09894  0.9293
6.361e+09  -0.3904  0.8069  -0.004892  -0.003511  -0.003002  0.02898  0.4295  0.8233
6.362e+09  -0.0967  0.8655  0.02673  0.02157  -0.004712  0.009259  0.6586  0.6589
6.364e+09  0.2409  0.9148  -0.0245  -0.01604  0.01212  -0.01311  0.8756  0.3375
6.365e+09  0.5024  0.7237  0.02004  -0.01329  -0.02494  0.03521  0.9298  0.0773
6.366e+09  0.7401  0.5062  0.03421  0.01702  0.01473  0.05683  0.9462  -0.238
6.368e+09  0.8537  0.2561  0.02375  0.03714  -0.01247  -0.004808  0.8226  -0.556
6.369e+09  0.8123  -0.08202  0.03361  0.01751  0.02254  -0.003095  0.5613  -0.7886
6.37e+09  0.8245  -0.4033  0.003526  0.009273  0.01081  -0.03487  0.2457  -0.9276
6.371e+09  0.6152  -0.6889  0.00309  -0.0003027  -0.001266  0.00398  -0.09945  -0.9556
6.372e+09  0.3348  -0.7936  -0.02061  -0.02859  0.0184  -0.005758  -0.3766  -0.8518
6.374e+09  0.02985  -0.8443  -0.02951  -0.03091  0.001853  -0.007041  -0.6713  -0.6336
6.375e+09  -0.2697  -0.8139  -0.003783  -0.01131  0.002138  -0.007416  -0.8895  -0.3968
6.376e+09  -0.5247  -0.7035  0.009587  0.01228  -0.02741  -0.03603  -0.9654  -0.116
6.378e+09  -0.7336  -0.4837  0.01683  -0.008011  -0.01281  -0.01654  -0.8979  0.2458
6.379e+09  -0.8158  -0.1635  0.007105  0.001025  0.0209  -0.02902  -0.779  0.5079
6.38e+09  -0.8869  0.2005  0.0207  0.0101  0.07033  -0.03707  -0.5271  0.768
6.381e+09  -0.794  0.4427  0.008917  0.008845  -0.004415  0.01393  -0.2849  0.9024
6.382e+09  -0.5801  0.7326  -0.0001236  0.02439  -0.01019  0.01528  0.07403  0.9524
6.384e+09  -0.3117  0.8116  -0.03714  0.01993  0.02837  -0.004163  0.3487  0.8674
6.385e+09  0.01516  0.8601  -0.007395  0.001178  -0.06362  0.02559  0.6464  0.6817
6.386e+09  0.3597  0.8329  -0.01294  0.03269  -0.02902  0.003031  0.8637  0.4123
6.388e+09  0.6025  0.662  -0.02068  -0.03978  0.003554  0.03816  0.9097  0.1061
6.389e+09  0.8096  0.4536  -0.01991  0.005473  -0.009511  0.003915  0.9194  -0.242
6.39e+09  0.8501  0.1313  0.002792  0.005004  0.02284  0.03573  0.773  -0.5295
6.391e+09  0.8819  -0.2266  0.02086  0.01805  0.0657  -0.00899  0.568  -0.689
6.392e+09  0.7794  -0.4464  0.01915  0.0137  0.01873  0.005095  0.3204  -0.9166
6.394e+09  0.5346  -0.6981  0.01257  -0.01031  0.02277  0.04388  -0.02813  -0.9291
6.395e+09  0.2262  -0.8637  0.004283  0.01936  0.03111  0.01134  -0.3617  -0.8556
6.396e+09  -0.03558  -0.9281  -0.0245  0.009243  0.0008653  -0.01022  -0.5959  -0.6853
6.398e+09  -0.3236  -0.8304  0.03376  0.01185  0.01298  -0.001783  -0.8056  -0.497
6.399e+09  -0.5809  -0.6597  -0.004358  -0.00501  -0.03577  -0.01571  -0.8997  -0.1123
6.4e+09  -0.782  -0.4384  -0.005893  0.01861  0.02891  0.003545  -0.912  0.1893
6.401e+09  -0.8609  -0.09524  -0.003141  -0.05196  0.08653  0.02918  -0.816  0.4837
6.402e+09  -0.9201  0.259  0.0477  -0.002529  -0.005341  0.009981  -0.5781  0.7061
6.404e+09  -0.7735  0.481  0.03374  -0.005486  -0.01413  -0.01493  -0.3103  0.8483
6.405e+09  -0.4962  0.7181  0.01961  -0.001625  0.002967  0.03686  0.002231  0.9583
6.406e+09  -0.2648  0.8399  -0.007468  -0.02535  -0.01626  0.02051  0.2601  0.8361
6.408e+09  0.04562  0.8843  0.0341  -0.02239  -0.006604  -0.001351  0.5875  0.7169
6.409e+09  0.3593  0.8309  0.007586  0.008073  -0.007559  -0.002594  0.7811  0.4486
6.41e+09  0.6326  0.6289  -0.05502  0.01947  -0.05308  0.02092  0.8607  0.1598
6.411e+09  0.7811  0.403  -0.05475  0.05819  0.0005819  -0.0165  0.8833  -0.1175
6.412e+09  0.8717  0.09288  -0.008851  -0.0006384  -0.02007  -0.007691  0.7979  -0.4427
6.414e+09  0.8825  -0.1778  0.03524  -0.001974  0.02009  -0.01002  0.6096  -0.6359
6.415e+09  0.6933  -0.429  -0.01588  -0.04245  -0.03085  -0.03266  0.3371  -0.8275
6.416e+09  0.5015  -0.7331  -0.03389  0.02671  -0.008561  0.03256  0.03109  -0.8452
6.418e+09  0.2372  -0.8496  -0.02365  0.003002  0.02239  -0.001279  -0.2304  -0.8254
6.419e+09  -0.1089  -0.8486  -0.02717  -0.07637  0.01408  -0.03624  -0.5419  -0.6634
6.42e+09  -0.405  -0.8348  0.03518  0.03266  0.003837  0.002543  -0.7628  -0.4628
6.421e+09  -0.6157  -0.6276  0.02146  -0.002954  0.01898  0.006545  -0.8855  -0.2122
6.422e+09  -0.7573  -0.3816  0.01463  -0.02754  -0.0223  -0.01616  -0.8969  0.09736
6.424e+09  -0.852  -0.1108  0.02163  0.0356  0.01293  0.02736  -0.7623  0.3812
6.425e+09  -0.8424  0.2491  -0.07761  -0.02398  -0.02384  0.01273  -0.5784  0.6292
6.426e+09  -0.7139  0.5066  -0.01193  0.0299  0.03202  -0.01659  -0.3655  0.8082
6.428e+09  -0.5069  0.7261  -0.003236  -0.05186  0.01759  -0.03662  -0.06941  0.8728
6.429e+09  -0.2747  0.8498  0.04915  -0.01154  -0.03686  -0.01069  0.2703  0.7999
6.43e+09  0.1291  0.8919  -0.05074  0.008873  -0.018  0.05479  0.4803  0.7075
6.431e+09  0.4119  0.8061  0.04244  0.01622  0.009896  -0.02028  0.6861  0.4941
6.432e+09  0.6623  0.6043  0.02251  -0.01771  -0.01954  -0.01323  0.8646  0.1608
6.434e+09  0.7843  0.319  -0.01759  0.003537  0.008181  0.01183  0.8366  -0.1377
6.435e+09  0.8579  0.06368  -0.03944  0.007767  0.01697  0.0207  0.7641  -0.3595
6.436e+09  0.8748  -0.2164  -0.02031  -0.007232  -0.02218  -0.01856  0.6044  -0.6558
6.438e+09  0.7737  -0.5299  -0.006293  0.01642  -0.003072  -0.01252  0.3643  -0.8105
6.439e+09  0.5094  -0.7748  -0.03745  0.02913  -0.009567  0.02338  0.08021  -0.8751
6.44e+09  0.182  -0.8788  0.01167  0.01679  0.01093  0.02455  -0.1964  -0.7918
6.441e+09  -0.08886  -0.9021  0.01441  0.009247  -0.04047  0.041  -0.5016  -0.7001
6.442e+09  -0.3939  -0.8156  -0.008773  -0.02474  -0.01267  -0.02182  -0.7313  -0.4791
6.444e+09  -0.6364  -0.6323  0.009951  0.02021  0.003146  0.03295  -0.8063  -0.2157
6.445e+09  -0.8038  -0.3406  0.01888  -0.01227  -0.02971  0.01144  -0.8671  0.08193
6.446e+09  -0.8889  -0.07179  0.0195  -0.02171  -0.03948  0.01866  -0.7782  0.335
6.448e+09  -0.8205  0.2721  0.007568  0.012  -0.02882  -0.01218  -0.5946  0.6002
6.449e+09  -0.6584  0.5573  -0.0435  -0.01894  -0.03928  -0.0001046  -0.356  0.7307
6.45e+09  -0.4709  0.7344  -0.03086  0.01557  0.03561  -0.01021  -0.06215  0.8311
6.451e+09  -0.1911  0.8908  0.04693  0.002591  -0.03813  0.002291  0.2183  0.838
6.452e+09  0.06728  0.8962  0.02555  0.01149  -0.03291  0.02992  0.4802  0.6591
6.454e+09  0.4093  0.7969  0.002338  -0.02537  -0.02877  0.01814  0.7129  0.4822
6.455e+09  0.6382  0.599  0.03084  0.006577  -0.02869  0.005617  0.7668  0.2094
6.456e+09  0.7577  0.3117  -0.01907  0.02174  -0.005132  -0.017  0.8524  -0.07275
6.458e+09  0.9063  0.06414  -0.01627  0.02324  -0.03499  0.001799  0.729  -0.3518
6.459e+09  0.8049  -0.2404  -0.02608  0.02727  0.03362  0.001406  0.5915  -0.5934
6.46e+09  0.7244  -0.5863  0.009379  -0.02508  -0.01053  -0.004225  0.3641  -0.7485
6.461e+09  0.5278  -0.7432  -0.01747  0.008088  -0.002603  0.005319  0.1235  -0.801
6.462e+09  0.1718  -0.8796  0.02146  -0.005274  -0.02815  0.02526  -0.2248  -0.7602
6.464e+09  -0.1723  -0.8794  -0.002799  -0.01428  -0.03145  0.001366  -0.4745  -0.6591
6.465e+09  -0.4117  -0.7713  -0.00154  0.01442  0.005228  -0.002727  -0.6674  -0.4126
6.466e+09  -0.6514  -0.5765  0.01743  0.003013  0.002194  0.01519  -0.7426  -0.1826
6.468e+09  -0.8222  -0.3431  -0.0001388  0.0004699  0.07756  -0.002373  -0.8072  0.08134
6.469e+09  -0.938  0.008429  0.0239  0.05024  -0.006067  -0.02819  -0.7475  0.3679
6.47e+09  -0.8462  0.2793  0.06508  -0.002342  0.006778  0.03114  -0.5708  0.5825
6.471e+09  -0.7139  0.524  -0.005294  -0.004577  0.005098  -0.00696  -0.3161  0.7159
6.472e+09  -0.4847  0.7611  -0.007448  0.0168  0.01365  -0.004099  -0.05687  0.7606
6.474e+09  -0.2213  0.9148  0.04898  0.01104  -0.006558  -0.0137  0.2486  0.7589
6.475e+09  0.1283  0.911  0.01311  -0.05275  0.05005  -0.05702  0.4587  0.6367
6.476e+09  0.4485  0.8465  -0.00421  -0.003357  -0.04775  0.01047  0.6341  0.4641
6.478e+09  0.689  0.5548  0.006211  0.02904  -0.03027  -0.03428  0.7162  0.2219
6.479e+09  0.8151  0.3165  0.04743  0.03516  0.01588  0.01596  0.761  -0.0785
6.48e+09  0.9122  -0.04356  0.03444  0.05465  -0.01193  -0.008468  0.7221  -0.3557
6.481e+09  0.8865  -0.3038  0.01446  0.003972  -0.03664  -0.01327  0.5449  -0.5571
6.482e+09  0.7017  -0.6113  0.002494  -0.01445  0.02317  0.00319  0.3301  -0.7081
6.484e+09  0.4129  -0.816  0.01682  -0.005294  -0.0328  0.04324  0.06502  -0.729
6.485e+09  0.1041  -0.8965  -0.02504  -0.004476  0.007214  0.007486  -0.2234  -0.7709
6.486e+09  -0.2303  -0.871  -0.02632  -0.00775  -0.005998  -0.04357  -0.4429  -0.6391
6.488e+09  -0.5238  -0.7798  0.03298  -0.008969  -0.02099  -0.02945  -0.6329  -0.425
6.489e+09  -0.7489  -0.5787  0.01788  0.005775  -0.02421  -0.02407  -0.73  -0.1988
6.49e+09  -0.8798  -0.2452  -0.001455  -0.02169  0.03226  -0.07898  -0.7741  0.03609
6.491e+09  -0.8794  -0.026  0.005825  0.02553  -0.01498  0.01756  -0.6713  0.3241
6.492e+09  -0.8635  0.3074  -0.01961  0.03973  0.03086  -0.001033  -0.5175  0.5702
6.494e+09  -0.6358  0.6292  0.01867  -0.02234  -0.02466  0.04549  -0.2681  0.7211
6.495e+09  -0.4168  0.8285  -0.003156  0.02241  0.03908  0.001673  -0.01601  0.7733
6.496e+09  -0.1321  0.8842  0.02552  0.000908  -0.08043  -0.02451  0.2218  0.7081
6.498e+09  0.1706  0.8766  -0.01657  0.02376  -0.004177  0.008582  0.4724  0.5927
6.499e+09  0.4857  0.7622  -0.01206  0.03222  -0.02502  0.02576  0.6015  0.3867
6.5e+09  0.7435  0.5647  0.02186  -0.006986  0.01582  -0.0298  0.7676  0.1689
6.501e+09  0.8713  0.289  0.0127  -0.03078  0.004881  -0.02039  0.7509  -0.06639
6.502e+09  0.9093  -0.0437  -0.03023  -0.0146  -0.002181  -0.003214  0.6476  -0.4011
6.504e+09  0.8382  -0.3647  -0.01502  -0.01441  0.003581  0.02646  0.5074  -0.5625
6.505e+09  0.7352  -0.6703  -0.001952  -0.006638  -0.06733  0.03317  0.2885  -0.706
6.506e+09  0.4887  -0.8315  0.02839  0.0004791  0.001475  -0.006357  0.02289  -0.7505
6.508e+09  0.1168  -0.9447  -0.02004  0.02099  0.00044  -0.04348  -0.2176  -0.6912
6.509e+09  -0.2554  -0.8885  -0.03375  0.03373  0.03425  0.004138  -0.4838  -0.6084
6.51e+09  -0.5184  -0.7919  0.02099  -0.009522  0.005545  -0.04444  -0.6561  -0.3881
6.511e+09  -0.7646  -0.5144  0.002162  -0.0184  -0.00939  0.01133  -0.7491  -0.1471
6.512e+09  -0.8566  -0.2336  0.0004073  -0.01429  0.02057  0.004137  -0.7668  0.1349
6.514e+09  -1.01  0.03371  0.001768  0.03797  0.02014  0.04518  -0.6405  0.379
6.515e+09  -0.8143  0.4423  0.004281  -0.029  0.01816  0.03873  -0.4482  0.5795
6.516e+09  -0.685  0.6535  0.0236  -0.01363  -0.04422  -0.0003193  -0.2383  0.6698
6.518e+09  -0.4228  0.838  -0.0202  -0.01521  0.02998  0.01026  0.03787  0.741
6.519e+09  -0.08523  0.9403  -0.03737  -0.005723  0.009187  -0.01251  0.262  0.6897
6.52e+09  0.2951  0.9109  -0.034  -0.01298  0.01259  0.01948  0.451  0.5553
6.521e+09  0.5791  0.7489  0.01663  -0.004368  -0.01295  0.0006962  0.6652  0.3466
6.522e+09  0.8456  0.5499  0.0494  -0.01307  -0.01284  -0.0005824  0.6952  0.08151
6.524e+09  0.9213  0.1971  0.0185  0.01162  0.02413  0.03113  0.6938  -0.168
6.525e+09  0.9659  -0.07331  0.00437  0.008579  -0.04547  0.05709  0.5939  -0.403
6.526e+09  0.8408  -0.4608  -0.01395  -0.02336  -0.005211  0.02739  0.4564  -0.5765
6.528e+09  0.6368  -0.7262  0.01614  0.0288  0.02652  -0.000803  0.1966  -0.6705
6.529e+09  0.362  -0.9011  0.01506  8.908e-05  0.006161  -0.03364  -0.06802  -0.6991
6.53e+09  -0.00167  -0.9311  0.01265  -0.01827  0.04583  0.0253  -0.306  -0.5946
6.531e+09  -0.3436  -0.8813  0.01802  0.009959  0.02173  -0.01636  -0.4847  -0.4556
6.532e+09  -0.6129  -0.7197  0.01275  0.003384  -0.02664  -0.007003  -0.5715  -0.3117
6.534e+09  -0.8021  -0.4827  0.007129  0.01746  0.003381  -0.03463  -0.6216  -0.1002
6.535e+09  -0.9463  -0.1257  -0.006858  -0.02238  -0.02006  0.06055  -0.6114  0.04572
6.536e+09  -0.9799  0.1807  -0.03217  0.003534  0.03251  -0.04349  -0.5612  0.3182
6.538e+09  -0.8766  0.5265  -0.01351  0.002499  -0.008444  0.008009  -0.4575  0.4833
6.539e+09  -0.6227  0.7567  0.006677  -0.005476  -0.02693  -0.01147  -0.2713  0.6035
6.54e+09  -0.2757  0.9418  0.01565  -0.003141  -0.01453  0.0338  -0.0439  0.6804
6.541e+09  0.015  0.9063  0.03776  -0.01978  -0.01184  0.00729  0.1873  0.687
6.542e+09  0.3883  0.8844  0.004313  -0.009033  -0.01596  -0.001599  0.4038  0.5833
6.544e+09  0.7249  0.6986  -0.03127  0.02074  0.01896  -0.01792  0.5962  0.4115
6.545e+09  0.8526  0.397  0.002251  0.02109  -0.02953  -0.05542  0.6913  0.2091
6.546e+09  1.014  0.1356  0.007245  -0.02232  0.0121  0.01341  0.7074  -0.05907
6.548e+09  0.9705  -0.2712  0.004765  -0.02149  0.06529  0.02537  0.6332  -0.3448
6.549e+09  0.7801  -0.5934  0.03459  0.01068  -0.005079  -0.06748  0.5026  -0.5323
6.55e+09  0.5408  -0.8035  0.006473  -0.02178  -0.02427  -0.0274  0.2924  -0.6593
