# Hz S RI R 50
6.25e+09  -0.441  0.774  0.006511  -0.00377  0.0162  0.006223  0.137  0.5006
6.251e+09  -0.1692  0.8793  0.03197  0.04779  -0.03411  0.000328  0.3653  0.4131
6.252e+09  0.1508  0.8525  -0.0137  0.00297  0.01849  0.007119  0.5307  0.2494
6.254e+09  0.4325  0.7335  -0.04081  -0.002175  -0.02745  0.05739  0.5937  0.02018
6.255e+09  0.6896  0.6036  0.01004  -0.02875  0.05436  0.02421  0.584  -0.2218
6.256e+09  0.7662  0.2628  -0.003642  0.03202  0.01445  0.0129  0.4742  -0.4305
6.258e+09  0.8553  -0.05089  0.007344  -0.04931  0.005057  -0.01069  0.2843  -0.573
6.259e+09  0.763  -0.3299  0.002243  0.02457  0.03593  0.02132  0.05178  -0.7092
6.26e+09  0.6234  -0.5289  0.01768  -0.02308  -0.007544  -0.02514  -0.2423  -0.6596
6.261e+09  0.4123  -0.6985  -0.004922  -0.0393  0.01095  -0.0116  -0.4462  -0.5215
6.262e+09  0.1274  -0.8584  0.002314  0.01008  -0.1003  0.03322  -0.6051  -0.3541
6.264e+09  -0.1746  -0.7901  -0.006061  -0.01621  -0.002393  -0.03339  -0.7005  -0.1747
6.265e+09  -0.4762  -0.7  0.006297  0.01459  -0.004297  -0.009733  -0.6658  0.1701
6.266e+09  -0.6283  -0.5026  -0.01163  -0.02813  -0.0125  -0.006152  -0.6385  0.3636
6.268e+09  -0.7828  -0.2125  -0.01749  0.02409  0.00922  -0.008201  -0.4264  0.5743
6.269e+09  -0.8199  0.02318  0.01432  0.008195  0.005322  0.02372  -0.2172  0.6791
6.27e+09  -0.806  0.2753  -0.02469  0.01843  -0.05184  -0.03814  0.03906  0.7204
6.271e+09  -0.6584  0.5343  -0.02351  -0.02167  0.003616  -0.009319  0.3405  0.6499
6.272e+09  -0.3492  0.7078  -0.006902  -0.006087  -0.03133  0.0053  0.5572  0.4929
6.274e+09  -0.1711  0.8355  -0.01763  0.002054  0.01301  -0.0222  0.6791  0.2869
6.275e+09  0.194  0.8389  -0.01372  -0.03047  0.08556  0.03054  0.7738  0.05152
6.276e+09  0.4816  0.7219  0.0201  -0.01996  0.02977  0.002742  0.6977  -0.2241
6.278e+09  0.6002  0.4833  0.01378  -0.008024  0.008354  0.009365  0.5938  -0.4919
6.279e+09  0.777  0.2533  -0.01345  -0.009348  -0.03867  0.005358  0.4094  -0.6493
6.28e+09  0.8283  0.000447  0.008642  0.02404  -0.04575  0.03524  0.1837  -0.7648
6.281e+09  0.7773  -0.282  0.01629  4.275e-05  0.07057  -0.0183  -0.1208  -0.7835
6.282e+09  0.6179  -0.6194  -0.02876  0.03216  0.009576  -0.06747  -0.3515  -0.7159
6.284e+09  0.3712  -0.7231  -0.02533  -0.002528  0.01386  0.001789  -0.595  -0.5148
6.285e+09  0.07096  -0.8378  0.00691  0.007682  -0.009223  0.002654  -0.705  -0.2957
6.286e+09  -0.1721  -0.7814  0.02952  -0.01725  0.06663  -0.01795  -0.8082  -0.02802
6.288e+09  -0.4189  -0.7141  -0.01062  0.009465  0.04031  -0.009976  -0.7594  0.2924
6.289e+09  -0.7021  -0.4695  0.02412  0.02391  -0.03875  -0.003253  -0.6421  0.5034
6.29e+09  -0.7372  -0.1674  -0.01033  -0.04075  -0.02459  -0.03337  -0.3991  0.6849
6.291e+09  -0.8293  0.02561  -0.00136  -0.0198  0.01457  -0.02392  -0.1874  0.7653
6.292e+09  -0.7546  0.3412  0.0008712  -0.01684  -0.01178  0.02174  0.1415  0.8036
6.294e+09  -0.6197  0.6065  0.02371  0.009217  -0.01443  -0.01787  0.4194  0.7153
6.295e+09  -0.3282  0.7442  0.001454  -0.001097  0.007164  0.06665  0.6157  0.5665
6.296e+09  -0.04062  0.8271  -0.005578  0.005878  -0.003099  -0.003085  0.7568  0.3046
6.298e+09  0.214  0.8061  0.002852  0.0004006  0.03405  0.03899  0.8401  0.01435
6.299e+09  0.5596  0.7189  -0.01751  -0.003124  0.004648  -0.02237  0.8027  -0.2603
6.3e+09  0.6439  0.4353  -0.02524  0.005127  -0.0468  0.01619  0.6389  -0.5276
6.301e+09  0.7938  0.1273  0.02233  -0.005896  0.005011  0.02696  0.427  -0.7437
6.302e+09  0.8335  -0.02182  -0.009188  0.01719  -0.005412  -0.02437  0.1389  -0.8276
6.304e+09  0.7187  -0.4325  0.004767  0.009285  0.01882  -0.0009994  -0.1446  -0.8383
6.305e+09  0.5495  -0.5918  0.004964  0.01295  0.001522  -0.01285  -0.4669  -0.7613
6.306e+09  0.3225  -0.8281  0.01798  0.01063  -0.0308  0.0437  -0.6845  -0.5666
6.308e+09  0.06853  -0.8499  0.008581  -0.02368  -0.03019  0.01062  -0.7829  -0.3001
6.309e+09  -0.2386  -0.8095  -0.001527  -0.004203  0.008336  -0.007166  -0.8353  -0.04923
6.31e+09  -0.5015  -0.6326  -0.01044  -0.01028  -0.01821  0.05582  -0.8105  0.2838
6.311e+09  -0.7397  -0.4461  -0.01246  -0.02877  -0.01576  -0.01996  -0.6827  0.5398
6.312e+09  -0.8149  -0.1457  -0.01345  -0.03513  -0.0148  0.03101  -0.4572  0.7496
6.314e+09  -0.8116  0.1123  -0.0245  -0.003296  0.01242  -0.01321  -0.1853  0.8581
6.315e+09  -0.6944  0.3989  0.005895  0.0008101  -0.01178  -0.01144  0.148  0.8588
6.316e+09  -0.5356  0.658  -0.0008101  -0.006329  0.03016  0.008525  0.4487  0.7337
6.318e+09  -0.3019  0.7653  0.003033  0.04797  0.04403  0.03185  0.6879  0.5719
6.319e+09  -0.01358  0.8594  0.01944  -0.02055  -0.03795  -0.004531  0.8626  0.307
6.32e+09  0.3182  0.8263  0.01885  -0.02093  0.03723  0.00591  0.8972  0.01483
6.321e+09  0.5936  0.6506  0.02495  -0.02255  -0.02091  -0.01616  0.8602  -0.3034
6.322e+09  0.7482  0.4453  -0.02151  0.01952  0.03376  0.02968  0.6947  -0.5559
6.324e+09  0.8366  0.08751  -0.01274  -0.03505  -0.0079  -0.06278  0.4752  -0.7944
6.325e+09  0.8397  -0.1098  -0.01628  0.00504  -0.04409  -0.01923  0.1947  -0.8692
6.326e+09  0.7131  -0.4544  -0.0193  0.01854  -0.06664  -0.009667  -0.1545  -0.8649
6.328e+09  0.5225  -0.697  0.03844  0.01662  -0.002036  -0.05257  -0.4349  -0.7822
6.329e+09  0.252  -0.8257  -0.004604  0.0347  0.02128  0.03352  -0.6911  -0.618
6.33e+09  -0.05309  -0.8588  0.008194  -0.007365  -0.002392  0.01879  -0.8153  -0.3066
6.331e+09  -0.3649  -0.7952  -0.0216  0.01011  0.03  -0.00891  -0.9276  -0.00674
6.332e+09  -0.6074  -0.6243  -0.009258  -0.0305  -0.03135  0.00647  -0.862  0.2528
6.334e+09  -0.8227  -0.3952  0.01573  0.001329  0.03278  0.005416  -0.6899  0.5482
6.335e+09  -0.8895  -0.05345  -0.001709  -0.02968  -0.02567  0.00755  -0.4795  0.7898
6.336e+09  -0.8712  0.2314  0.04419  -0.007851  0.01544  0.002871  -0.1988  0.9274
6.338e+09  -0.7448  0.5027  0.01689  -0.01127  0.01499  -0.02271  0.1597  0.9099
6.339e+09  -0.4818  0.7223  0.001786  -0.02425  -0.01013  0.00411  0.3979  0.8211
6.34e+09  -0.2123  0.8905  -0.01055  0.01396  6.095e-05  -0.01753  0.6654  0.5974
6.341e+09  0.1289  0.9099  -0.01878  0.005186  0.0378  0.04742  0.8566  0.3936
6.342e+09  0.3815  0.7715  -0.01229  -0.03243  0.01484  -0.008137  0.9379  0.05113
6.344e+09  0.6795  0.5772  0.01218  -0.01215  -0.0002388  -0.02567  0.882  -0.2609
6.345e+09  0.7858  0.2867  0.003436  -0.01558  0.06849  0.002488  0.7599  -0.578
6.346e+09  0.8664  0.01711  0.01844  -0.02464  0.04655  -0.02227  0.5085  -0.8306
6.348e+09  0.8212  -0.304  -0.02432  0.02239  -0.02962  -0.0004344  0.1796  -0.894
6.349e+09  0.6424  -0.5663  -0.0009881  -0.01227  -0.02219  -0.01609  -0.1651  -0.9332
6.35e+09  0.4294  -0.7689  -0.01403  0.03454  0.009739  0.0441  -0.4202  -0.8488
6.351e+09  0.142  -0.8682  -0.001636  -0.02809  -0.01052  0.0002049  -0.6669  -0.6296
6.352e+09  -0.1712  -0.8162  0.02039  0.01669  0.0306  0.003171  -0.8241  -0.3986
6.354e+09  -0.4952  -0.7416  -0.02084  0.02303  0.009606  0.02434  -0.9589  -0.07749
6.355e+09  -0.6582  -0.5792  0.007669  -0.01329  -0.05046  0.0206  -0.8902  0.2735
6.356e+09  -0.8289  -0.2976  -0.03525  -0.01738  -0.04322  0.02764  -0.7496  0.5285
6.358e+09  -0.838  0.02222  4.641e-05  0.01457  0.0255  -0.002235  -0.5469  0.7677
6.359e+09  -0.8263  0.3636  0.01513  -0.007309  0.01445  0.007675  -0.2349  0.8963
6.36e+09  -0.6255  0.5974  -0.006463  0.02664  -0.05612  0.01407  0.09825  0.9367
6.361e+09  -0.3923  0.7973  0.008461  -0.01701  0.01448  0.04755  0.3951  0.8678
6.362e+09  -0.1067  0.8564  -0.0231  -0.001712  0.03605  0.01862  0.6621  0.6589
6.364e+09  0.2211  0.8579  0.006237  -0.005107  -0.02525  -0.03095  0.8769  0.3968
6.365e+09  0.5133  0.7387  0.006189  0.01278  -0.03202  -0.008473  0.9727  0.09014
6.366e+09  0.7299  0.4624  0.03174  -0.0239  0.04589  0.03816  0.9112  -0.262
6.368e+09  0.8535  0.219  -0.02648  -0.06912  -0.0342  -0.04577  0.7594  -0.5738
6.369e+09  0.8961  -0.08882  0.008192  -0.006177  -0.007402  -0.02379  0.5561  -0.7338
6.37e+09  0.8104  -0.3951  0.004094  -0.01991  0.00475  -0.00686  0.2428  -0.905
6.371e+09  0.6354  -0.6551  0.03707  -0.03072  -0.03709  0.02632  -0.05372  -0.9901
6.372e+09  0.377  -0.8332  0.0128  -0.01065  0.02013  0.02702  -0.4194  -0.8754
6.374e+09  0.08878  -0.8652  -0.001099  0.01117  0.01076  0.03391  -0.6745  -0.6925
6.375e+09  -0.2418  -0.8406  0.01836  0.0263  0.03093  -0.03844  -0.8335  -0.4016
6.376e+09  -0.5537  -0.7347  -0.01196  0.01038  -0.0355  0.03436  -0.9533  -0.04866
6.378e+09  -0.7317  -0.5237  0.01248  -0.02896  0.007807  0.0558  -0.9274  0.2037
6.379e+09  -0.8989  -0.2028  -0.01719  0.009901  -0.03159  -0.001651  -0.7292  0.53
6.38e+09  -0.8561  0.1368  -0.002505  0.0009645  0.001451  -0.0418  -0.5696  0.775
6.381e+09  -0.7884  0.4474  0.001901  0.03582  0.01281  0.02554  -0.2625  0.882
6.382e+09  -0.6016  0.6721  -0.01604  0.004975  0.002206  0.02594  0.08351  0.9386
6.384e+09  -0.3461  0.7837  0.005437  0.02818  -0.003017  0.008211  0.367  0.8252
6.385e+09  0.0187  0.8798  -0.01364  0.0042  0.006679  -0.01542  0.6309  0.6897
6.386e+09  0.3311  0.8526  -0.01981  0.007154  -0.002513  0.01354  0.8495  0.4571
6.388e+09  0.5909  0.6532  -0.03638  -0.02075  0.005694  0.01242  0.9028  0.1379
6.389e+09  0.7919  0.4123  -0.00238  -0.02272  -0.01448  0.01394  0.9027  -0.2045
6.39e+09  0.8806  0.1583  0.0178  0.02461  0.01083  -0.02227  0.768  -0.4773
6.391e+09  0.8698  -0.1485  -0.02739  -0.04736  0.03322  -0.04675  0.5704  -0.75
6.392e+09  0.7404  -0.4749  -0.008326  -0.04317  -0.01592  -0.03424  0.3031  -0.8417
6.394e+09  0.4971  -0.6812  0.007071  0.009509  0.01341  -0.003663  -0.03415  -0.8824
6.395e+09  0.2544  -0.86  -0.02525  -0.04065  0.01154  0.03846  -0.3341  -0.8694
6.396e+09  0.02775  -0.8971  -0.03037  0.01204  -0.02529  -0.01187  -0.5592  -0.6955
6.398e+09  -0.3428  -0.8459  0.06196  -0.005286  0.01295  -0.02828  -0.8081  -0.4543
6.399e+09  -0.5904  -0.6765  -0.02353  0.02944  -0.01233  0.01219  -0.9095  -0.1675
6.4e+09  -0.8271  -0.4232  -0.01447  0.04276  -0.03358  -0.02086  -0.9245  0.1488
6.401e+09  -0.8493  -0.07188  0.01032  0.003645  -0.02541  -0.07124  -0.7644  0.5131
6.402e+09  -0.8595  0.2024  -0.004088  -0.01447  -0.01173  0.00271  -0.5947  0.731
6.404e+09  -0.7202  0.4719  0.01103  0.03328  -0.008977  -0.003823  -0.3363  0.9035
6.405e+09  -0.5532  0.664  -0.0005709  0.001122  -0.02343  0.02982  0.0286  0.8883
6.406e+09  -0.2364  0.8383  -0.03296  -0.03316  -0.00841  -0.004546  0.3333  0.8555
6.408e+09  0.05071  0.8896  -0.02038  -0.009627  -0.01342  -0.03652  0.578  0.7329
6.409e+09  0.3741  0.7997  0.01766  0.02222  0.05467  0.00755  0.7845  0.4902
6.41e+09  0.624  0.6426  0.03385  -0.01368  0.01104  -0.003582  0.8823  0.1979
6.411e+09  0.7519  0.3543  0.01326  0.04615  0.02154  0.02417  0.8943  -0.1564
6.412e+09  0.8684  0.07492  -0.01471  -0.03368  -0.009368  0.02568  0.76  -0.4155
6.414e+09  0.849  -0.2402  -0.0224  -0.06837  0.01221  -0.05481  0.6079  -0.7102
6.415e+09  0.7277  -0.4302  0.01087  0.008702  -0.02397  0.01721  0.3892  -0.789
6.416e+09  0.4979  -0.7174  0.009511  0.00397  0.03318  -0.005968  0.01593  -0.9191
6.418e+09  0.299  -0.827  -0.008831  -0.008396  -0.007902  0.003749  -0.2495  -0.8339
6.419e+09  -0.01584  -0.8715  -0.006  0.03066  0.0497  0.03473  -0.5795  -0.7037
6.42e+09  -0.3603  -0.8075  -0.02901  0.03045  0.006708  0.05017  -0.7112  -0.4727
6.421e+09  -0.5987  -0.6273  0.005508  0.002848  0.01095  -0.01152  -0.8364  -0.226
6.422e+09  -0.7746  -0.3447  0.02858  0.007567  0.02244  -0.0001957  -0.8819  0.1066
6.424e+09  -0.8475  -0.0744  0.02191  -0.014  0.01171  0.003426  -0.7691  0.3714
6.425e+09  -0.8432  0.2161  0.02306  -0.02409  0.02416  -0.02501  -0.6122  0.613
6.426e+09  -0.6655  0.5066  -0.004887  -0.031  0.08014  -0.0308  -0.3289  0.7751
6.428e+09  -0.4593  0.7337  -0.0007915  -0.01815  0.03261  -0.01913  -0.06436  0.8851
6.429e+09  -0.204  0.8741  -0.003847  -0.001225  -0.004605  0.0002013  0.2151  0.835
6.43e+09  0.09694  0.9035  -0.004399  -0.02486  -0.04369  -0.01835  0.5613  0.7459
6.431e+09  0.3669  0.7874  0.02357  0.01645  -0.006943  -0.02247  0.7207  0.5103
6.432e+09  0.6261  0.6064  -0.03371  -0.02956  -0.01747  -0.016  0.8803  0.1931
6.434e+09  0.8177  0.3611  -0.03421  -0.02607  0.02823  0.002883  0.7854  -0.09254
6.435e+09  0.8716  0.05673  -0.01298  -0.02443  0.03191  -0.03625  0.7866  -0.3534
6.436e+09  0.8617  -0.3035  -0.00214  0.03036  -0.01321  -0.06704  0.5425  -0.6266
6.438e+09  0.6949  -0.5508  0.01582  -0.02856  -0.01738  -0.007366  0.3659  -0.7663
6.439e+09  0.4987  -0.7219  -0.04262  -0.01514  0.02499  -0.005501  0.07999  -0.888
6.44e+09  0.2651  -0.821  0.01473  -0.01868  0.03303  -0.008454  -0.2105  -0.8211
6.441e+09  -0.1237  -0.832  0.01024  0.01519  -0.0008925  0.004719  -0.5135  -0.7136
6.442e+09  -0.4052  -0.7912  0.004978  -0.01872  0.02401  0.02763  -0.7711  -0.4902
6.444e+09  -0.5884  -0.6179  0.01025  0.008237  0.005833  0.02868  -0.8077  -0.169
6.445e+09  -0.8279  -0.3609  -0.002162  -0.03049  0.002592  0.01152  -0.8125  0.04114
6.446e+09  -0.8747  -0.03024  -0.03681  0.03008  -0.009146  0.01845  -0.7598  0.3214
6.448e+09  -0.8406  0.2591  -0.03309  -0.02551  0.01015  0.003768  -0.5579  0.6114
6.449e+09  -0.688  0.5238  0.01699  0.01652  -0.04336  -0.00121  -0.3992  0.7884
6.45e+09  -0.4432  0.7494  -0.02073  -0.02787  0.03071  -0.006788  -0.05699  0.819
6.451e+09  -0.1848  0.9035  -0.01994  0.02631  -0.01673  0.02557  0.2091  0.8127
6.452e+09  0.1179  0.9017  0.02714  -0.03675  -0.03983  -0.02673  0.4891  0.7247
6.454e+09  0.4491  0.7389  -0.02944  0.01425  -0.04511  0.04896  0.6489  0.4689
6.455e+09  0.6823  0.6347  0.0149  -0.03958  0.009524  0.005873  0.797  0.2241
6.456e+09  0.8264  0.3912  0.03418  -0.04196  -0.004924  -0.006193  0.8317  -0.07389
6.458e+09  0.9254  0.03698  -0.006316  -0.03595  -0.008038  -0.006957  0.7324  -0.405
6.459e+09  0.8686  -0.2204  -0.02147  -0.02274  -0.01106  -0.02266  0.5685  -0.5859
6.46e+09  0.6548  -0.5591  -0.04395  0.03014  -0.03593  -0.03728  0.3372  -0.7838
6.461e+09  0.506  -0.7657  0.009126  -0.02254  0.006488  0.03428  0.05829  -0.774
6.462e+09  0.2121  -0.8701  -0.006051  0.01216  0.008945  0.008069  -0.2088  -0.7376
6.464e+09  -0.116  -0.8373  0.00185  -0.04112  0.01709  0.0628  -0.4936  -0.6957
6.465e+09  -0.4323  -0.7923  -0.004838  0.0001573  0.03221  -0.01258  -0.6668  -0.4416
6.466e+09  -0.6361  -0.6058  -0.07533  -0.01881  -0.001843  0.01282  -0.7851  -0.1524
6.468e+09  -0.7808  -0.353  -0.001478  0.02589  -0.008509  -0.03341  -0.8231  0.04839
6.469e+09  -0.8906  -0.08768  -0.01957  0.03268  0.01256  -0.01908  -0.7118  0.3647
6.47e+09  -0.8339  0.2617  0.0259  -0.02935  -0.03722  0.02084  -0.5994  0.5939
6.471e+09  -0.7448  0.574  -0.001598  0.01372  -0.02012  0.003727  -0.3358  0.7099
6.472e+09  -0.4983  0.7637  -0.01484  0.0005387  0.01192  0.00483  -0.09755  0.8366
6.474e+09  -0.1445  0.9193  -0.01077  -1.825e-05  0.03954  0.006262  0.1907  0.7513
6.475e+09  0.0918  0.8935  -0.0447  -0.02541  0.02845  0.03054  0.465  0.6386
6.476e+09  0.4367  0.7561  -0.02218  0.03346  0.00327  0.02069  0.6173  0.4617
6.478e+09  0.6308  0.6361  -0.02313  -0.0184  -0.01802  0.007762  0.7588  0.2044
6.479e+09  0.8079  0.35  -0.01419  -0.03118  -0.002257  0.02828  0.782  -0.08834
6.48e+09  0.9551  0.01141  0.06318  -0.007558  -0.008928  0.02778  0.6589  -0.3582
6.481e+09  0.8677  -0.2971  -0.002934  0.01653  0.04755  -0.02787  0.5234  -0.5885
6.482e+09  0.7083  -0.5672  0.05375  -0.01977  0.00642  -0.0403  0.3179  -0.7161
6.484e+09  0.4594  -0.7571  0.001229  0.01676  0.03137  -0.01744  0.07754  -0.8152
6.485e+09  0.191  -0.9051  -0.0272  -0.03768  0.00124  -0.02292  -0.2492  -0.7143
6.486e+09  -0.1962  -0.8985  -0.003611  0.00115  0.004755  0.03065  -0.448  -0.5926
6.488e+09  -0.4473  -0.796  0.002018  0.03766  -0.007542  0.02558  -0.6117  -0.4276
6.489e+09  -0.6598  -0.6265  0.008173  -0.02305  0.02559  0.004464  -0.7919  -0.1899
6.49e+09  -0.8547  -0.3221  -0.02334  -0.00334  0.0437  -0.01204  -0.75  0.1165
6.491e+09  -0.8904  -0.007124  -0.01975  -0.01268  0.03779  0.04293  -0.6968  0.3568
6.492e+09  -0.8366  0.2964  -0.02926  -0.003685  0.02175  -0.02756  -0.4936  0.5731
6.494e+09  -0.6501  0.5202  -0.005269  0.004037  -0.03347  0.01378  -0.3041  0.7083
6.495e+09  -0.4343  0.7861  0.005313  0.02827  0.0191  0.03512  -0.0546  0.7207
6.496e+09  -0.1722  0.886  0.01401  -0.03987  -0.05582  -0.001088  0.2273  0.7443
6.498e+09  0.1953  0.9084  0.0165  0.01207  0.03259  -0.01115  0.4739  0.6269
6.499e+09  0.4773  0.8187  -0.00841  0.009029  0.01591  0.02629  0.6481  0.4182
6.5e+09  0.7068  0.5885  0.01252  -0.01519  0.01002  0.01989  0.7701  0.1758
6.501e+09  0.9095  0.3196  -0.0431  0.01076  0.007295  -0.005392  0.7473  -0.07505
6.502e+09  0.9384  0.0103  -0.006097  0.01412  -0.008014  -0.01785  0.6437  -0.3635
6.504e+09  0.8597  -0.3645  -0.03001  -0.007825  0.008946  -0.02932  0.5368  -0.5573
6.505e+09  0.7098  -0.6197  0.007997  -0.001633  -0.01346  -0.0307  0.2625  -0.7133
6.506e+09  0.4334  -0.891  -0.02766  0.0007061  -0.03011  0.04966  0.05115  -0.7795
6.508e+09  0.1047  -0.9607  -0.01337  -0.02538  -0.01902  0.0001732  -0.2592  -0.7316
6.509e+09  -0.1887  -0.9208  -0.001467  -0.009343  0.0177  0.0009445  -0.4781  -0.5777
6.51e+09  -0.4958  -0.8412  0.002197  -0.07078  0.000431  0.01616  -0.6999  -0.3933
6.511e+09  -0.7396  -0.5318  -0.01063  0.01362  0.06208  -0.01629  -0.7377  -0.1441
6.512e+09  -0.864  -0.2706  0.02173  0.02266  0.02704  -0.000742  -0.7807  0.1428
6.514e+09  -0.9981  0.04921  0.01688  -0.0326  0.07206  -0.02029  -0.6641  0.3983
6.515e+09  -0.8798  0.3871  0.01352  -0.009185  -0.002976  0.03884  -0.4633  0.5233
6.516e+09  -0.6875  0.689  -0.02453  -0.01398  0.01689  0.007408  -0.2174  0.6974
6.518e+09  -0.3662  0.8844  0.008443  -0.00171  0.02804  -0.01605  0.001596  0.7677
6.519e+09  -0.108  0.9021  -0.00525  -0.04316  0.01028  0.05031  0.2988  0.7002
6.52e+09  0.2452  0.9227  0.003815  0.03903  -0.05434  0.02615  0.4926  0.5329
6.521e+09  0.5398  0.7377  -0.0083  -0.02632  -0.05644  -0.02904  0.6432  0.3228
6.522e+09  0.7818  0.5874  -0.009693  -0.03542  0.01864  0.02504  0.7256  0.06038
6.524e+09  0.9009  0.2433  0.01986  -0.02634  0.003633  -0.04301  0.7179  -0.1686
6.525e+09  0.9501  -0.08809  0.02528  0.007979  0.04766  -0.05469  0.6028  -0.3982
6.526e+09  0.7767  -0.4098  0.01812  -0.02884  0.0008181  -0.01704  0.4142  -0.5568
6.528e+09  0.6204  -0.7161  0.008572  0.002073  -0.01361  -0.02037  0.2028  -0.6657
6.529e+09  0.3711  -0.9064  0.0255  -0.04654  0.003943  -0.003981  -0.02023  -0.7192
6.53e+09  0.02868  -0.97  0.01034  0.01925  0.00252  0.0007862  -0.2614  -0.6446
6.531e+09  -0.3364  -0.9274  0.008033  0.0261  -0.05282  -0.01929  -0.4435  -0.4747
6.532e+09  -0.6183  -0.7156  -0.002565  -0.01098  -0.04032  -0.03853  -0.606  -0.2993
6.534e+09  -0.8828  -0.4733  -0.0198  -0.02142  -0.02356  0.03794  -0.605  -0.1009
6.535e+09  -0.9395  -0.1937  -0.01035  0.003052  0.01416  -0.03326  -0.6466  0.09664
6.536e+09  -0.9571  0.171  -0.02152  -0.02411  0.000636  0.04533  -0.5413  0.2728
6.538e+09  -0.8327  0.486  0.02165  0.01738  -0.0184  0.08588  -0.4193  0.4788
6.539e+09  -0.6154  0.75  -0.01748  0.005466  -0.02177  -0.05334  -0.2262  0.6201
6.54e+09  -0.2708  0.8792  -0.03291  0.0109  -0.02179  0.007128  -0.06283  0.6748
6.541e+09  0.07137  0.9788  -0.01358  -0.02944  -0.02281  0.03319  0.1794  0.6611
6.542e+09  0.3285  0.8915  0.02235  0.0001124  -0.01278  -0.003956  0.4202  0.5523
6.544e+09  0.66  0.6963  -0.03346  -0.01575  -0.006148  0.03833  0.6023  0.3815
6.545e+09  0.8992  0.43  -0.006659  -0.004322  0.009703  -0.01547  0.7137  0.1774
6.546e+09  0.9273  0.1458  0.007035  0.005489  0.006469  -0.04804  0.7104  -0.07417
6.548e+09  0.9575  -0.201  0.008621  0.04242  -0.005119  0.01568  0.6301  -0.3523
6.549e+09  0.8044  -0.5118  0.01365  -0.01154  -0.01447  -0.007908  0.4843  -0.4987
6.55e+09  0.5786  -0.781  1.489e-06  0.02685  0.00629  -0.02888  0.2791  -0.6722
