# Hz S RI R 50
6.25e+09  -0.383  0.7879  0.02013  -0.0008377  -0.01146  0.0329  0.1742  0.4783
6.251e+09  -0.09949  0.837  -0.03522  -0.01451  0.0246  -5.733e-05  0.3903  0.4188
6.252e+09  0.1398  0.8421  -0.01677  -0.0246  -0.08225  -0.02886  0.5257  0.2777
6.254e+09  0.4237  0.7864  0.01143  0.02028  -0.009082  0.00984  0.5891  -0.01086
6.255e+09  0.6314  0.5506  0.0004113  0.00811  0.0479  -0.01075  0.5951  -0.2304
6.256e+09  0.7915  0.2429  0.02379  -0.01238  0.02944  -0.03517  0.4672  -0.4466
6.258e+09  0.8423  -0.05635  -0.01482  -0.01833  0.005871  0.03796  0.2551  -0.5741
6.259e+09  0.768  -0.3272  -0.02615  0.002022  0.0136  0.0005925  0.07005  -0.6845
6.26e+09  0.5952  -0.5173  0.0004404  -0.001069  -0.004996  -0.0147  -0.1817  -0.653
6.261e+09  0.4324  -0.7174  0.00193  0.006354  -0.01669  0.01326  -0.4383  -0.5238
6.262e+09  0.1432  -0.8552  0.007097  0.01692  0.06003  0.01952  -0.6225  -0.3443
6.264e+09  -0.1978  -0.7764  -0.003872  0.003023  0.05331  0.01175  -0.7447  -0.1114
6.265e+09  -0.4433  -0.769  8.408e-05  -0.001278  0.01735  0.009319  -0.7023  0.1594
6.266e+09  -0.6568  -0.4989  -0.01345  0.02131  0.02888  -0.02277  -0.6  0.3867
6.268e+09  -0.7797  -0.2556  0.0003464  -0.02459  -0.04664  0.01885  -0.4433  0.581
6.269e+09  -0.8058  -0.01702  -0.01765  0.002767  0.01075  0.01799  -0.2116  0.7068
6.27e+09  -0.7179  0.2895  -0.006189  -0.007065  0.008242  0.05316  0.0575  0.7591
6.271e+09  -0.6326  0.5812  -0.002626  0.01625  0.001705  -0.0159  0.3282  0.6598
6.272e+09  -0.394  0.7121  -0.0001792  0.02434  -0.03316  0.01361  0.5511  0.5139
6.274e+09  -0.08714  0.7968  -0.02209  -0.004197  -0.01061  -0.001676  0.7079  0.2938
6.275e+09  0.2072  0.7798  0.004549  -0.001124  0.06613  -0.0007921  0.7359  0.05152
6.276e+09  0.448  0.6859  -0.01541  -0.0173  0.03665  0.01288  0.7271  -0.2059
6.278e+09  0.6774  0.5035  0.02172  -0.007981  -0.01527  0.03078  0.6117  -0.4758
6.279e+09  0.8213  0.2074  -0.01557  -0.001525  -0.01013  0.005696  0.4092  -0.666
6.28e+09  0.8065  -0.01622  0.01643  0.005592  0.02232  -0.001685  0.1557  -0.7514
6.281e+09  0.7591  -0.3079  -0.01149  0.0007712  -0.01258  -0.02852  -0.1329  -0.7955
6.282e+09  0.6145  -0.5307  -0.02778  -0.02905  -0.01349  -0.05383  -0.3725  -0.6797
6.284e+09  0.3758  -0.7295  0.003544  -0.02913  -0.05314  -0.01387  -0.5911  -0.4923
6.285e+09  0.1449  -0.822  0.001698  -0.006853  -0.009296  -0.009497  -0.704  -0.2942
6.286e+09  -0.198  -0.7729  -0.01265  -0.01057  -0.03064  0.0382  -0.7789  -0.01226
6.288e+09  -0.4704  -0.6968  -0.0002865  -0.003201  0.07978  -0.01496  -0.7508  0.2581
6.289e+09  -0.7214  -0.4538  0.001763  0.004101  0.01199  -0.00652  -0.6301  0.484
6.29e+09  -0.8085  -0.2419  -0.007905  -0.001004  0.03055  -0.01255  -0.4094  0.6802
6.291e+09  -0.8104  0.07881  -0.01054  0.02138  -0.02269  0.003444  -0.1533  0.7805
6.292e+09  -0.7694  0.3919  0.008202  -0.008302  -0.008111  -0.02193  0.1338  0.8109
6.294e+09  -0.5232  0.6364  0.005092  0.01265  0.002667  -0.03021  0.3826  0.6929
6.295e+09  -0.3343  0.7797  0.03222  0.01128  -0.02141  0.03349  0.6323  0.5382
6.296e+09  -0.046  0.8544  -0.003579  0.01057  0.03456  0.03378  0.775  0.2722
6.298e+09  0.2434  0.7523  0.0154  -0.01421  0.02507  -0.000209  0.8369  0.01561
6.299e+09  0.4892  0.6556  -0.001294  -0.00762  -0.009765  0.02542  0.7651  -0.2897
6.3e+09  0.6681  0.4298  0.0396  0.02133  -0.01101  0.003428  0.6141  -0.5379
6.301e+09  0.8967  0.1669  0.01096  -0.0001959  -0.01587  -0.01582  0.4193  -0.7133
6.302e+09  0.8346  -0.1435  0.02434  0.005184  -0.0121  -0.01332  0.1181  -0.8138
6.304e+09  0.682  -0.3854  -0.004302  -0.0135  0.004006  0.005512  -0.1376  -0.8456
6.305e+09  0.5832  -0.5869  -0.01269  0.014  0.03874  0.001254  -0.4288  -0.7388
6.306e+09  0.3061  -0.7794  0.01551  0.03155  0.007729  -0.0102  -0.6338  -0.5541
6.308e+09  0.06562  -0.867  0.03961  -0.01102  0.008508  -0.007947  -0.7899  -0.294
6.309e+09  -0.2703  -0.7814  0.01548  -0.001788  0.01226  -0.02206  -0.8352  -0.0343
6.31e+09  -0.5065  -0.6141  -0.02829  0.01491  0.04657  -0.0118  -0.8057  0.2973
6.311e+09  -0.7136  -0.445  0.004867  0.01085  -0.0009045  -0.01891  -0.6583  0.5338
6.312e+09  -0.7704  -0.1312  -0.01892  -0.02545  0.02338  -0.02883  -0.4546  0.7402
6.314e+09  -0.8506  0.1382  0.01168  -0.006233  -0.003593  0.01645  -0.1467  0.8314
6.315e+09  -0.7067  0.3758  -0.001326  0.02967  0.05098  0.007694  0.1337  0.86
6.316e+09  -0.5234  0.7068  -0.003963  -0.005141  0.02834  -0.02675  0.4485  0.7796
6.318e+09  -0.3097  0.7799  0.01166  -0.02732  0.02038  -0.01672  0.6459  0.593
6.319e+09  -0.01149  0.903  -0.003605  -0.01283  0.01682  0.04345  0.8214  0.3146
6.32e+09  0.3057  0.7637  0.009186  0.01701  0.05625  0.01891  0.9203  0.003427
6.321e+09  0.5337  0.6585  -0.01636  0.03551  0.02686  -0.0633  0.8591  -0.2656
6.322e+09  0.7238  0.4354  -0.0121  0.01487  0.004263  -0.01184  0.6744  -0.5691
6.324e+09  0.8889  0.1381  -0.008054  0.02018  -0.02806  0.008139  0.4721  -0.7674
6.325e+09  0.8147  -0.1938  0.01669  0.008097  0.02493  0.05923  0.2071  -0.8698
6.326e+09  0.6705  -0.4  -0.02855  -0.006717  -0.02358  0.05003  -0.1417  -0.8813
6.328e+09  0.4953  -0.7063  -0.006571  0.0008947  0.0234  -0.03635  -0.4432  -0.8043
6.329e+09  0.2514  -0.8269  -0.03054  0.02504  -0.009394  -0.01138  -0.6577  -0.6003
6.33e+09  -0.04521  -0.8463  -0.02568  0.01702  -0.0329  0.04102  -0.8613  -0.3247
6.331e+09  -0.3582  -0.7907  0.02883  -0.03608  -0.007133  0.02154  -0.9122  -0.03806
6.332e+09  -0.6144  -0.5789  0.004278  -0.01221  -0.01539  0.02626  -0.8524  0.2722
6.334e+09  -0.8168  -0.3336  -0.02465  0.01215  -0.01562  -0.01709  -0.7275  0.587
6.335e+09  -0.8738  0.01257  -0.04082  0.04145  0.02939  -0.01304  -0.4899  0.7736
6.336e+09  -0.8588  0.2292  -0.01697  0.008729  0.02373  0.03682  -0.1816  0.8957
6.338e+09  -0.6335  0.5092  0.01234  -0.03225  -0.006759  0.005138  0.1124  0.8876
6.339e+09  -0.4462  0.7214  0.02118  0.002722  0.02444  -0.02994  0.3987  0.8117
6.34e+09  -0.1752  0.8419  -0.02009  -0.01658  -0.007551  -0.01731  0.6875  0.6462
6.341e+09  0.1236  0.8633  -0.02288  0.003242  -0.006827  0.01318  0.8359  0.3707
6.342e+09  0.4297  0.7444  8.014e-05  -0.008352  -0.04371  0.001097  0.9379  0.05272
6.344e+09  0.6374  0.5584  -0.005372  -0.02603  -0.03856  -0.006784  0.9131  -0.2719
6.345e+09  0.8236  0.2751  -0.004706  -0.01302  -0.03806  0.01903  0.7222  -0.5676
6.346e+09  0.8745  0.04939  0.01124  0.006855  -0.02352  -0.01246  0.5246  -0.7979
6.348e+09  0.7904  -0.2628  0.007671  -0.01869  0.01158  -0.006293  0.2153  -0.9171
6.349e+09  0.6664  -0.5916  0.01218  0.003935  -0.03592  0.02659  -0.1177  -0.925
6.35e+09  0.4189  -0.7538  -0.006734  -0.04765  -0.02259  0.004401  -0.4026  -0.8409
6.351e+09  0.1253  -0.8667  -0.0172  -0.02263  0.03099  -0.06058  -0.6887  -0.608
6.352e+09  -0.1468  -0.853  -0.007421  -0.02066  0.02583  -0.04153  -0.8563  -0.3868
6.354e+09  -0.4582  -0.7504  -0.0001556  -0.00154  -0.01912  0.02326  -0.9208  -0.07845
6.355e+09  -0.6816  -0.5442  0.01838  -0.03248  -0.02071  -0.02614  -0.9255  0.2635
6.356e+09  -0.8596  -0.272  -0.03179  0.01056  0.0664  0.02322  -0.7456  0.5457
6.358e+09  -0.8723  0.09719  -0.02185  0.001455  -0.02487  0.0559  -0.5299  0.7625
6.359e+09  -0.8253  0.3788  0.03536  0.02754  -0.01976  0.0023  -0.2081  0.9295
6.36e+09  -0.6836  0.5887  -0.01729  0.004604  -0.0157  0.008323  0.1011  0.9697
6.361e+09  -0.3706  0.8126  -0.03465  0.01815  -0.000807  -0.02791  0.3898  0.8764
6.362e+09  -0.04515  0.8956  -0.006347  0.01567  -0.0251  0.004681  0.6245  0.6652
6.364e+09  0.2206  0.8665  0.003019  -0.008725  -0.03145  -0.01755  0.8334  0.386
6.365e+09  0.4571  0.7132  -0.0168  -0.01845  0.01505  -0.001128  0.9222  0.06951
6.366e+09  0.7889  0.5097  -0.01718  0.03426  -0.03685  0.00681  0.88  -0.2558
6.368e+09  0.8703  0.1938  0.01118  0.02641  -0.01798  0.01103  0.7565  -0.539
6.369e+09  0.9059  -0.05496  0.0333  -0.02806  0.03775  -0.02045  0.505  -0.7355
6.37e+09  0.8086  -0.3605  -0.01585  0.00378  -0.05401  -0.01522  0.2368  -0.9114
6.371e+09  0.6268  -0.7021  -0.006118  -0.05667  -0.01961  0.02245  -0.08039  -0.9579
6.372e+09  0.3368  -0.8119  0.03115  0.04022  0.08651  -0.008102  -0.4015  -0.8669
6.374e+09  0.02248  -0.8931  -0.02556  -0.009713  0.0229  -0.02875  -0.6431  -0.6497
6.375e+09  -0.2377  -0.8827  2.039e-05  0.04312  -0.02812  -0.01877  -0.8262  -0.3857
6.376e+09  -0.5683  -0.7643  -0.02346  -0.00962  -0.02153  -0.02022  -0.9251  -0.08117
6.378e+09  -0.7493  -0.4342  -0.003531  -0.007431  0.0471  0.01772  -0.8919  0.2275
6.379e+09  -0.8655  -0.1676  0.008497  -0.01409  -0.01947  -0.0217  -0.8072  0.5189
6.38e+09  -0.9445  0.1366  0.01369  0.02948  0.018  -0.03384  -0.5395  0.7798
6.381e+09  -0.8163  0.4437  -0.02884  -0.01666  0.009769  0.01905  -0.2458  0.9173
6.382e+09  -0.5554  0.6684  -0.03843  -0.02744  0.01422  -0.04523  0.0848  0.9536
6.384e+09  -0.3717  0.8615  0.03167  0.03402  0.03034  -0.02159  0.3868  0.8639
6.385e+09  0.001544  0.8914  -0.01327  0.006513  -0.0002515  -0.003474  0.6368  0.6739
6.386e+09  0.3509  0.828  0.01901  -0.02324  -0.01706  -0.01505  0.8012  0.4842
6.388e+09  0.5779  0.6997  -0.03267  0.01882  -0.00558  0.01739  0.9664  0.1315
6.389e+09  0.7699  0.4461  0.01385  -0.04268  -0.03915  0.04008  0.8998  -0.1904
6.39e+09  0.8601  0.1785  -0.007228  -0.02383  -0.01794  0.0341  0.7767  -0.4954
6.391e+09  0.9479  -0.1767  -0.01004  0.01968  0.002468  0.03719  0.5929  -0.7222
6.392e+09  0.7403  -0.4524  -0.02323  0.001404  0.03148  0.003283  0.2905  -0.8738
6.394e+09  0.5943  -0.677  0.008065  -0.01872  0.02307  0.00759  -0.04768  -0.9494
6.395e+09  0.2721  -0.8469  -0.02926  -0.03255  -0.02379  0.009667  -0.3481  -0.8537
6.396e+09  -0.007583  -0.9026  -0.03126  -0.006871  -0.02582  -0.02718  -0.5908  -0.703
6.398e+09  -0.3631  -0.8392  -0.04481  -0.01197  0.02568  -0.03595  -0.8064  -0.4609
6.399e+09  -0.5828  -0.647  -0.03177  0.02472  -0.009591  0.003896  -0.8996  -0.1405
6.4e+09  -0.8009  -0.3836  0.004938  0.02671  -0.006506  0.02429  -0.8708  0.1969
6.401e+09  -0.8917  -0.1071  -0.02165  0.005052  -0.04661  2.949e-06  -0.7942  0.4431
6.402e+09  -0.813  0.1871  -0.001897  0.01872  0.01626  -0.02206  -0.5712  0.7505
6.404e+09  -0.7465  0.4664  -0.04245  0.006978  0.01475  0.03744  -0.3222  0.8462
6.405e+09  -0.4914  0.7529  0.01194  -0.04523  0.001864  0.005459  -0.01071  0.8831
6.406e+09  -0.2115  0.8222  0.01757  -0.012  0.01187  -0.01997  0.2914  0.8167
6.408e+09  0.004738  0.8758  -0.01184  -0.005451  0.01219  0.004686  0.5216  0.7129
6.409e+09  0.3228  0.7512  -0.01716  0.003854  0.02044  0.003582  0.7882  0.5282
6.41e+09  0.65  0.6018  -0.0602  0.04045  0.001206  -0.002763  0.8804  0.1587
6.411e+09  0.7689  0.3971  0.02405  -0.06799  -0.01965  0.01313  0.8533  -0.1546
6.412e+09  0.865  0.1202  0.008491  0.02925  0.01452  0.01499  0.7826  -0.4004
6.414e+09  0.9004  -0.1892  0.0216  0.0004315  0.01332  -0.0506  0.5679  -0.6689
6.415e+09  0.767  -0.4729  -0.007782  0.00764  0.02863  -0.00463  0.342  -0.8194
6.416e+09  0.5195  -0.7457  0.03568  -0.01462  0.02746  -0.01039  -0.008286  -0.9046
6.418e+09  0.2604  -0.9148  -0.01534  0.02757  -0.04477  0.001668  -0.2961  -0.8646
6.419e+09  -0.01743  -0.9338  -0.002552  0.01711  0.02897  -0.001986  -0.5437  -0.6882
6.42e+09  -0.4041  -0.7807  -0.05821  -0.008306  0.01066  0.01184  -0.7454  -0.5041
6.421e+09  -0.599  -0.6263  0.004597  -0.03372  0.02693  -0.02808  -0.8308  -0.2353
6.422e+09  -0.7764  -0.3754  -0.001425  -0.0626  0.01948  0.01313  -0.8793  0.1354
6.424e+09  -0.8779  -0.08358  -0.05875  0.01176  0.002619  0.004047  -0.7814  0.4452
6.425e+09  -0.8472  0.2179  0.01606  0.04374  -0.003761  0.03944  -0.6244  0.6444
6.426e+09  -0.7457  0.501  -0.009459  0.01708  0.0151  0.02176  -0.3776  0.8228
6.428e+09  -0.4811  0.7547  0.01711  -0.03553  0.02398  0.05499  -0.04295  0.8588
6.429e+09  -0.2251  0.8587  -0.03289  0.009469  0.01049  -0.02215  0.2065  0.8468
6.43e+09  0.06161  0.9074  0.001535  -0.01877  -0.07599  0.005025  0.5187  0.743
6.431e+09  0.4072  0.7854  -0.0008942  0.02119  0.00392  0.03213  0.7172  0.4464
6.432e+09  0.641  0.6233  0.006715  -0.00626  -0.01215  0.01001  0.8408  0.1607
6.434e+09  0.7827  0.3403  9.96e-05  0.021  -0.01892  -0.003762  0.8619  -0.1296
6.435e+09  0.8703  0.06252  -0.009979  -0.03372  -0.02907  -0.001206  0.8008  -0.389
6.436e+09  0.8995  -0.2249  0.02341  -0.006732  0.0008777  -0.04905  0.5704  -0.6367
6.438e+09  0.6667  -0.563  -0.02188  -0.005641  -0.01303  -0.02291  0.3565  -0.7468
6.439e+09  0.5286  -0.7076  -0.004161  0.01903  0.00229  -0.02486  0.107  -0.8452
6.44e+09  0.2191  -0.9232  -0.006337  -0.03088  0.0188  0.04144  -0.2465  -0.7929
6.441e+09  -0.09829  -0.8666  0.01632  0.009642  0.02272  0.02611  -0.4969  -0.6567
6.442e+09  -0.4097  -0.7857  -0.007791  0.005761  0.05363  -0.01499  -0.6935  -0.4879
6.444e+09  -0.613  -0.5944  -0.003674  0.02443  0.03987  0.03891  -0.764  -0.2282
6.445e+09  -0.7923  -0.3682  -0.004566  0.04815  -0.02965  0.02214  -0.8515  0.09104
6.446e+09  -0.8503  -0.06795  0.03052  -0.01027  -0.01695  0.02837  -0.759  0.3195
6.448e+09  -0.8684  0.2028  0.03591  -0.02531  0.02245  -0.01152  -0.5637  0.6435
6.449e+09  -0.7238  0.532  0.02635  0.02997  -0.03328  0.01051  -0.3584  0.7511
6.45e+09  -0.4374  0.6713  -0.005527  0.03407  0.001752  -0.04278  -0.06022  0.847
6.451e+09  -0.1836  0.8575  -0.001189  -0.009404  -0.004608  -0.01387  0.2114  0.8035
6.452e+09  0.07676  0.8932  -0.009487  -0.01042  0.03848  0.02558  0.4565  0.645
6.454e+09  0.3833  0.7689  -0.002209  -0.03033  -0.007713  0.03123  0.7044  0.5204
6.455e+09  0.6747  0.6034  0.03273  -0.03921  0.05753  0.02626  0.7319  0.2296
6.456e+09  0.8201  0.3741  -0.02808  -0.009382  0.005998  0.03381  0.8084  -0.05291
6.458e+09  0.9277  0.03887  0.02482  0.03615  0.02751  0.007837  0.7383  -0.3038
6.459e+09  0.8059  -0.2847  0.004795  0.02899  0.02621  -0.00794  0.5613  -0.5934
6.46e+09  0.7134  -0.511  -0.008494  -0.01218  -0.04347  -0.009926  0.3238  -0.7411
6.461e+09  0.5091  -0.7712  -0.009224  0.03679  -0.001641  -0.01887  0.07748  -0.8129
6.462e+09  0.1817  -0.8653  0.01087  0.06384  0.0006923  -0.0344  -0.202  -0.786
6.464e+09  -0.103  -0.9394  0.02442  0.009567  0.02882  0.06062  -0.4357  -0.6533
6.465e+09  -0.4166  -0.8194  -0.01618  0.02586  -0.05736  0.009678  -0.6878  -0.5217
6.466e+09  -0.673  -0.6072  0.02668  0.04494  -0.002354  -0.01897  -0.7637  -0.212
6.468e+09  -0.9003  -0.3115  -0.03871  -0.00801  0.008866  0.01659  -0.8155  0.06392
6.469e+09  -0.9158  -0.04752  0.01144  0.007005  -0.06434  0.04584  -0.7002  0.3545
6.47e+09  -0.8381  0.2792  0.02127  0.03864  0.007651  -0.01892  -0.5417  0.5302
6.471e+09  -0.7067  0.5798  0.007263  -0.01032  0.02657  0.03824  -0.3528  0.7193
6.472e+09  -0.5304  0.699  0.02234  0.0308  0.0043  0.0004097  -0.05495  0.7646
6.474e+09  -0.1528  0.8665  0.001252  -0.04969  0.008343  0.00528  0.2108  0.6868
6.475e+09  0.113  0.9299  0.0118  -0.01204  -0.0428  -0.008126  0.4596  0.6522
6.476e+09  0.4344  0.7851  -0.02688  -0.03998  0.05179  0.02557  0.6419  0.4517
6.478e+09  0.7048  0.6063  -0.03655  -0.02817  -0.009628  0.008201  0.7579  0.1759
6.479e+09  0.8874  0.3261  0.007166  0.008776  -0.04177  -0.007546  0.7727  -0.1031
6.48e+09  0.8744  0.02907  0.008402  0.004196  0.0406  -0.04286  0.6804  -0.3639
6.481e+09  0.9042  -0.307  0.03085  -0.02078  -0.03471  -0.0337  0.5639  -0.5817
6.482e+09  0.7368  -0.5473  -0.03704  0.003541  0.004738  0.007325  0.352  -0.7263
6.484e+09  0.4892  -0.777  0.03766  0.03922  -0.02456  0.01228  0.06505  -0.7636
6.485e+09  0.1577  -0.9078  -0.003333  0.01142  -0.03188  -0.01809  -0.2257  -0.7222
6.486e+09  -0.08762  -0.8778  -0.00507  -0.01645  -0.01192  0.04435  -0.4665  -0.6201
6.488e+09  -0.4534  -0.7781  0.009072  0.03622  -0.02823  0.01787  -0.6831  -0.4575
6.489e+09  -0.6531  -0.5614  0.02422  -0.03084  -0.0543  0.0171  -0.7518  -0.1799
6.49e+09  -0.8458  -0.2735  -0.04076  0.0306  -0.02094  0.02658  -0.7655  0.09903
6.491e+09  -0.8838  -0.05474  0.007581  -0.003097  0.04344  0.01755  -0.7246  0.3333
6.492e+09  -0.886  0.3599  -0.001016  -0.04816  -0.01474  -0.003167  -0.5204  0.5712
6.494e+09  -0.6347  0.6083  -0.04022  -0.01443  -0.003207  0.001384  -0.2504  0.6849
6.495e+09  -0.4671  0.8055  0.005039  0.0008845  -0.004896  0.002501  -0.01691  0.788
6.496e+09  -0.1017  0.8838  -0.001597  0.009466  0.01741  0.002207  0.2164  0.7336
6.498e+09  0.1501  0.8951  -0.009634  -5.154e-05  -0.06925  -0.01364  0.4669  0.6079
6.499e+09  0.4761  0.7886  0.01729  0.007972  -0.0005518  0.04904  0.6067  0.4303
6.5e+09  0.7151  0.602  -0.01339  -0.03359  0.002616  0.01787  0.7207  0.1601
6.501e+09  0.9161  0.3073  -0.003511  -0.02016  0.001537  -0.03672  0.7488  -0.1251
6.502e+09  0.9431  0.004854  -0.01593  0.02076  -0.004267  0.01534  0.664  -0.3767
6.504e+09  0.8485  -0.3603  0.02238  0.01426  0.04067  -0.009844  0.5341  -0.5592
6.505e+09  0.6951  -0.6465  0.0009724  -0.02419  1.171e-05  0.00524  0.2899  -0.7528
6.506e+09  0.4371  -0.7934  0.009979  -0.007665  0.02681  0.0006477  0.04722  -0.7572
6.508e+09  0.09821  -0.9378  -0.02026  0.02516  -0.01625  -0.0557  -0.2449  -0.7
6.509e+09  -0.2317  -0.9495  0.02574  -0.02886  0.08451  -0.002929  -0.4742  -0.5806
6.51e+09  -0.5158  -0.7256  0.001449  0.007656  -0.0008867  0.009811  -0.6876  -0.3835
6.511e+09  -0.7666  -0.5504  -0.04854  -0.008615  0.02522  0.005787  -0.7776  -0.1363
6.512e+09  -0.8724  -0.254  -0.01053  0.007137  0.02704  0.0248  -0.7456  0.1444
6.514e+09  -0.9428  0.1046  0.005166  0.009181  -0.02113  -0.005258  -0.6454  0.3836
6.515e+09  -0.9024  0.3388  -0.006823  0.0313  -0.004179  0.01239  -0.4509  0.5836
6.516e+09  -0.696  0.6898  -0.01294  0.009102  0.01294  -0.00744  -0.2202  0.7067
6.518e+09  -0.4479  0.8995  -0.01064  -0.02079  0.02149  0.01184  0.03046  0.7309
6.519e+09  -0.09444  0.9562  -0.02462  0.009167  -0.08361  0.007662  0.2876  0.6766
6.52e+09  0.2269  0.9521  -0.02865  0.01122  0.01453  -0.00846  0.4553  0.5392
6.521e+09  0.5409  0.7368  -0.02532  -0.02558  -0.03227  -0.005282  0.6581  0.3718
6.522e+09  0.7838  0.5493  0.002912  0.0201  0.01926  -0.02713  0.6994  0.05881
6.524e+09  0.9436  0.1923  0.01432  -0.03789  0.02373  0.04589  0.7145  -0.1326
6.525e+09  0.8766  -0.04732  -0.01311  -0.0425  0.009002  -0.01062  0.6468  -0.3907
6.526e+09  0.8635  -0.4729  0.001653  0.01546  -0.01091  -0.006892  0.4291  -0.6175
6.528e+09  0.6573  -0.6655  -0.009747  0.04434  0.0244  0.0826  0.2009  -0.6689
6.529e+09  0.3951  -0.9043  0.02547  0.0107  0.04291  0.02192  -0.03101  -0.6981
6.53e+09  0.04095  -0.9641  -0.004141  0.01745  -0.02423  -0.005271  -0.2599  -0.6114
6.531e+09  -0.3343  -0.9219  -0.01455  0.006582  0.001711  0.00305  -0.4692  -0.4885
6.532e+09  -0.6024  -0.7544  -0.01832  -0.021  -0.01112  0.005882  -0.5886  -0.2557
6.534e+09  -0.8408  -0.4647  -0.01247  0.00934  -0.0181  -0.04161  -0.6239  -0.08079
6.535e+09  -0.9861  -0.1547  -0.01094  -0.01793  0.003942  -0.0164  -0.6136  0.1153
6.536e+09  -0.9827  0.1271  -0.01789  0.008908  0.04984  0.001641  -0.5519  0.3161
6.538e+09  -0.8384  0.4462  0.01848  -0.004447  -0.01424  0.02091  -0.4459  0.4792
6.539e+09  -0.6202  0.7563  -0.00701  -0.01154  -0.00534  0.01804  -0.2748  0.6231
6.54e+09  -0.3102  0.9372  0.007308  0.05431  0.02315  0.05628  -0.06358  0.6977
6.541e+09  0.04475  0.9995  0.007259  -0.02099  -0.03619  -0.001338  0.179  0.6653
6.542e+09  0.3479  0.9102  -0.01352  -0.02492  -0.03232  -0.01106  0.3838  0.5944
6.544e+09  0.6739  0.7093  0.02248  -0.01277  -0.02889  0.01315  0.6018  0.4168
6.545e+09  0.8065  0.3988  0.02314  0.006494  -0.04633  0.06609  0.7055  0.1796
6.546e+09  0.9916  0.08738  0.002863  -0.03128  -0.01307  0.02351  0.7007  -0.08146
6.548e+09  0.9531  -0.2455  -0.007507  -0.02622  7.043e-05  -0.03708  0.6673  -0.3259
6.549e+09  0.8063  -0.5173  -0.0245  -0.026  0.04386  0.03217  0.5312  -0.5576
6.55e+09  0.5255  -0.7838  -0.03122  0.01497  0.006508  -0.04764  0.2768  -0.6966
