# Hz S RI R 50
6.25e+09  -0.1452  0.8811  0.01436  0.005706  0.0043  0.03749  0.1188  0.5044
6.251e+09  0.148  0.8752  -0.04194  0.03154  0.005299  0.04829  0.3939  0.3999
6.252e+09  0.4516  0.7792  0.04161  0.01572  -0.0004348  0.02359  0.5199  0.2472
6.254e+09  0.6415  0.5469  -0.01027  0.02249  -0.0599  -0.02334  0.6078  0.02406
6.255e+09  0.7454  0.2808  -0.02002  -0.01646  -0.06393  0.03398  0.5847  -0.2275
6.256e+09  0.8411  -0.04924  -0.01084  -0.01137  0.0063  0.06027  0.4578  -0.4542
6.258e+09  0.7701  -0.3326  -0.01779  0.03061  0.01971  -0.06242  0.3275  -0.6075
6.259e+09  0.6387  -0.549  -0.02157  -0.01674  -0.03163  0.008774  0.004591  -0.696
6.26e+09  0.3743  -0.699  -0.00403  -0.01279  0.02301  -0.0004755  -0.2051  -0.6495
6.261e+09  0.1278  -0.8545  0.02015  0.0526  0.003181  0.00129  -0.4467  -0.5552
6.262e+09  -0.1976  -0.8966  0.0002638  -0.007913  0.0142  0.0343  -0.6032  -0.3484
6.264e+09  -0.481  -0.7403  -0.009943  -0.01792  -0.03637  0.0122  -0.6963  -0.1075
6.265e+09  -0.633  -0.4744  0.005222  -0.03228  0.03747  -0.01299  -0.6863  0.1373
6.266e+09  -0.855  -0.2273  0.02859  -0.01365  0.01913  -0.005446  -0.5996  0.4007
6.268e+09  -0.8643  0.09431  -0.007504  -0.0001249  0.02406  -0.001359  -0.4287  0.6356
6.269e+09  -0.7326  0.3531  -0.04425  -0.00719  -0.01079  0.03793  -0.1627  0.7415
6.27e+09  -0.5637  0.5727  -0.0107  -0.0002578  -0.001262  -0.02311  0.07313  0.7304
6.271e+09  -0.4061  0.7348  0.02661  -0.02471  0.03932  -0.0402  0.3366  0.6818
6.272e+09  -0.08731  0.8316  0.02051  -0.005565  0.05839  0.03429  0.5216  0.5281
6.274e+09  0.2308  0.7931  0.03056  -0.02027  0.05401  0.03052  0.6703  0.2817
6.275e+09  0.4656  0.7121  0.009841  -0.008495  -0.01215  0.001377  0.7523  0.06665
6.276e+09  0.7037  0.4243  0.02181  0.00589  -0.001024  -0.07034  0.7192  -0.2198
6.278e+09  0.8186  0.2281  0.03403  0.01091  0.05394  -0.01773  0.571  -0.4805
6.279e+09  0.8135  -0.1075  -0.0311  0.01115  0.01263  0.0147  0.3989  -0.6521
6.28e+09  0.7285  -0.3251  -0.01617  -0.008511  0.006449  -0.03638  0.1752  -0.7613
6.281e+09  0.5516  -0.603  0.0008867  -0.01151  0.0186  0.064  -0.1149  -0.7702
6.282e+09  0.3683  -0.7206  0.03229  0.02847  -0.0006782  0.01518  -0.3518  -0.7057
6.284e+09  0.09347  -0.837  -0.00132  0.02015  -0.01848  -0.003767  -0.6128  -0.4986
6.285e+09  -0.2984  -0.807  0.05149  -0.01382  0.03454  -0.01216  -0.7222  -0.2951
6.286e+09  -0.4594  -0.6885  -0.02646  -0.02232  -0.07129  -0.007708  -0.7945  -0.03604
6.288e+09  -0.6899  -0.4444  -0.005967  0.0179  -0.001285  0.06961  -0.7557  0.2463
6.289e+09  -0.7717  -0.2129  0.002605  -0.01076  0.02037  -0.03105  -0.5936  0.4941
6.29e+09  -0.8172  0.08209  0.02335  0.004493  0.03343  -0.0521  -0.3961  0.7003
6.291e+09  -0.7585  0.3567  0.01154  -0.02932  -0.03424  -0.009561  -0.1373  0.7664
6.292e+09  -0.5117  0.6524  -0.01416  -0.005146  -0.0117  0.01789  0.1219  0.7791
6.294e+09  -0.3201  0.7751  -0.003712  0.03923  0.02278  0.03998  0.4054  0.723
6.295e+09  -0.03094  0.8192  0.004648  0.007138  -0.01733  0.02891  0.625  0.5196
6.296e+09  0.2448  0.7947  0.0004288  -0.01469  0.02635  -0.01326  0.7584  0.2838
6.298e+09  0.5333  0.6425  0.009962  0.01568  -0.007693  0.01375  0.8391  0.01179
6.299e+09  0.6998  0.4439  -0.02562  0.002552  0.005134  -0.03387  0.7611  -0.2617
6.3e+09  0.8319  0.1129  0.0009383  -0.007666  0.004252  0.01585  0.6656  -0.5199
6.301e+09  0.8338  -0.1013  0.003957  -0.00484  0.004914  -0.01961  0.4419  -0.7421
6.302e+09  0.6884  -0.3959  0.01926  0.009698  -0.003203  -0.01105  0.1786  -0.8535
6.304e+09  0.4958  -0.6609  -0.00864  -0.03817  0.0122  -0.01746  -0.1384  -0.8358
6.305e+09  0.2676  -0.7605  0.03187  -0.01728  -0.0253  -0.004842  -0.4299  -0.7582
6.306e+09  0.006678  -0.8334  0.004934  0.00959  -0.03989  -0.01399  -0.6306  -0.5657
6.308e+09  -0.3281  -0.7652  0.02667  0.01039  0.0344  -0.003508  -0.7894  -0.2894
6.309e+09  -0.5309  -0.5951  0.004037  0.01501  0.03666  0.02587  -0.868  -0.00807
6.31e+09  -0.7567  -0.3804  0.006144  0.007188  -0.01309  -0.02371  -0.8118  0.2575
6.311e+09  -0.834  -0.1457  0.00765  -0.02271  0.04169  -0.01794  -0.66  0.557
6.312e+09  -0.8743  0.1595  0.004448  0.0006939  0.03317  0.02508  -0.4429  0.7818
6.314e+09  -0.7426  0.4202  -0.01027  -0.005906  0.03531  0.007559  -0.1536  0.8728
6.315e+09  -0.4756  0.6521  0.025  0.005685  -0.01387  0.01846  0.1482  0.8524
6.316e+09  -0.2828  0.7666  0.01206  0.01394  -0.01355  0.002761  0.4132  0.768
6.318e+09  0.09313  0.8168  -0.004897  0.001746  -0.00196  -0.02222  0.6519  0.5802
6.319e+09  0.3433  0.7728  0.006739  -0.01227  0.02046  0.01647  0.7958  0.3366
6.32e+09  0.6251  0.5688  -0.01434  -0.02342  -0.05389  -0.02315  0.884  0.02651
6.321e+09  0.7192  0.3278  0.002779  0.005982  0.04106  0.01148  0.8081  -0.2655
6.322e+09  0.8225  0.02218  -0.005436  -0.02256  0.03968  -0.03741  0.6818  -0.5419
6.324e+09  0.8069  -0.2512  -0.01158  -0.00792  -0.02236  0.0374  0.4603  -0.7336
6.325e+09  0.688  -0.5226  -0.02464  0.02109  -0.03263  -0.01006  0.2062  -0.8944
6.326e+09  0.4328  -0.6828  -0.002402  -0.008424  0.008101  0.01015  -0.1361  -0.8745
6.328e+09  0.1783  -0.8902  0.03311  0.02419  -0.0114  0.04314  -0.4608  -0.8158
6.329e+09  -0.1541  -0.8555  -0.02474  -0.005898  -0.001738  -0.001835  -0.6749  -0.6049
6.33e+09  -0.4095  -0.7336  0.01297  0.002199  -0.01883  -0.0007353  -0.8453  -0.3528
6.331e+09  -0.6827  -0.6323  -0.004348  0.004922  0.00717  -0.0009456  -0.9198  0.004023
6.332e+09  -0.8046  -0.2842  -0.00438  -0.01864  -0.001006  0.0004862  -0.8497  0.2679
6.334e+09  -0.8572  -0.03534  0.02792  -0.01558  -0.005708  -0.004698  -0.7159  0.5497
6.335e+09  -0.8096  0.2386  0.003312  0.02303  0.006864  -0.0208  -0.4643  0.7428
6.336e+09  -0.6101  0.5579  0.0141  -0.01084  0.01722  0.01437  -0.176  0.891
6.338e+09  -0.4447  0.845  -0.01341  0.00679  0.01595  -0.04645  0.1566  0.9346
6.339e+09  -0.1303  0.8144  0.03692  -0.004527  0.02454  -0.01511  0.4557  0.836
6.34e+09  0.1281  0.8464  0.01936  0.01105  0.02026  0.00495  0.658  0.6405
6.341e+09  0.5183  0.7009  -0.008771  0.0002741  -0.002028  0.007411  0.8711  0.3914
6.342e+09  0.7067  0.535  0.0009798  -0.01407  -0.002771  -0.0441  0.9308  0.03454
6.344e+09  0.8223  0.2318  -0.002864  -0.0313  0.0163  0.03182  0.8664  -0.2657
6.345e+09  0.9054  -0.01691  -0.01678  0.01341  0.00181  -0.00175  0.7336  -0.5307
6.346e+09  0.8666  -0.3658  -0.02043  0.002465  0.008347  0.008946  0.4772  -0.7667
6.348e+09  0.6204  -0.637  0.002065  -0.003016  -0.0204  0.01407  0.2106  -0.8813
6.349e+09  0.4102  -0.7469  0.01587  -0.006866  -0.01082  0.03405  -0.07421  -0.9285
6.35e+09  0.05913  -0.8941  -0.0109  -0.0322  -0.03489  0.009863  -0.4049  -0.8506
6.351e+09  -0.2169  -0.8847  0.01206  0.01331  -0.007448  0.04535  -0.6758  -0.6458
6.352e+09  -0.5449  -0.71  0.0329  0.03263  0.004555  -0.02028  -0.8431  -0.3696
6.354e+09  -0.7417  -0.477  -0.004266  0.00189  0.004704  0.03913  -0.9355  -0.07831
6.355e+09  -0.8727  -0.1913  -0.01542  0.0005622  -0.02262  -0.03006  -0.8856  0.2467
6.356e+09  -0.8686  0.118  0.02355  0.002846  -0.05359  0.02593  -0.7581  0.5666
6.358e+09  -0.7763  0.3759  0.004695  -0.004863  0.03604  0.01238  -0.5202  0.7625
6.359e+09  -0.6412  0.659  -0.01452  0.02465  0.01362  0.01013  -0.2086  0.8932
6.36e+09  -0.3627  0.8091  -0.009667  1.955e-05  0.004212  -0.005309  0.09411  0.9062
6.361e+09  -0.03157  0.8302  -0.01724  0.00591  -0.008951  -0.01595  0.3888  0.8487
6.362e+09  0.3039  0.8625  0.02262  -0.03168  -0.02915  -0.04992  0.6556  0.7025
6.364e+09  0.5797  0.6862  0.004243  -0.03761  0.01893  0.02427  0.8258  0.397
6.365e+09  0.7559  0.4346  0.01272  0.01496  0.01869  -0.005107  0.9173  0.04754
6.366e+09  0.8572  0.1548  -0.008263  -0.006176  -0.012  -0.007242  0.9109  -0.2452
6.368e+09  0.876  -0.1126  0.03808  -0.03502  0.02887  -0.01457  0.7723  -0.5349
6.369e+09  0.7448  -0.4422  -0.003579  -0.01547  0.03648  -0.01909  0.5173  -0.8097
6.37e+09  0.5488  -0.6883  0.03166  0.03898  -0.03574  0.0198  0.2738  -0.8457
6.371e+09  0.2954  -0.8776  0.01088  0.005173  -0.002847  -0.04074  -0.09471  -0.9871
6.372e+09  -0.0351  -0.9  -0.002027  0.03941  0.01522  -0.001941  -0.4124  -0.8762
6.374e+09  -0.3442  -0.8749  0.01541  -0.01787  0.005685  -0.04259  -0.6636  -0.669
6.375e+09  -0.6251  -0.6928  -0.02973  -0.02709  0.02943  -0.001625  -0.8395  -0.4009
6.376e+09  -0.7614  -0.412  0.03485  0.01466  -0.06742  0.0704  -0.9329  -0.09582
6.378e+09  -0.822  -0.1347  0.00756  -0.008794  0.02044  -0.04509  -0.8992  0.1588
6.379e+09  -0.8829  0.1202  0.003787  -0.001413  -0.05047  0.03274  -0.8013  0.5424
6.38e+09  -0.7459  0.487  0.04951  0.01401  -0.01899  0.04898  -0.5395  0.7426
6.381e+09  -0.5176  0.7133  -0.0268  0.001407  -0.01151  -0.0134  -0.2868  0.8782
6.382e+09  -0.2314  0.8179  0.0159  -0.007472  -0.03054  0.006699  0.085  0.9179
6.384e+09  0.01443  0.89  0.008063  0.02534  0.004094  -0.01592  0.3628  0.8376
6.385e+09  0.3773  0.7927  -0.01879  -0.02711  0.01515  0.02311  0.6104  0.7234
6.386e+09  0.6418  0.586  0.03756  -0.03456  0.02424  5.039e-05  0.8536  0.3942
6.388e+09  0.8095  0.3826  -0.013  0.01374  -0.02608  -0.004861  0.9167  0.06161
6.389e+09  0.8606  0.05843  0.03404  0.01019  -0.04134  -0.02714  0.9084  -0.1959
6.39e+09  0.8376  -0.2145  0.005218  -0.00326  -0.007092  -0.009242  0.7452  -0.5472
6.391e+09  0.7134  -0.5273  -0.03627  -0.04268  0.03194  -0.01987  0.5985  -0.7452
6.392e+09  0.5327  -0.7446  0.02376  0.006217  0.00787  0.02215  0.3088  -0.8955
6.394e+09  0.206  -0.9331  0.004921  0.006325  -0.02229  0.03737  -0.01716  -0.9377
6.395e+09  -0.1231  -0.9202  0.04066  0.004101  -0.01951  -0.02664  -0.3759  -0.8338
6.396e+09  -0.3994  -0.8268  0.006845  0.003654  0.005437  0.00449  -0.611  -0.7156
6.398e+09  -0.6155  -0.6143  -0.007761  0.005026  0.07778  -0.002615  -0.8022  -0.4637
6.399e+09  -0.8181  -0.389  -0.03355  -0.03264  -0.03881  0.007245  -0.9385  -0.1629
6.4e+09  -0.8607  -0.07323  -0.004562  0.002637  -0.009186  0.02844  -0.8528  0.1777
6.401e+09  -0.8527  0.2581  0.01819  -0.0009874  -0.03437  0.004454  -0.7442  0.4399
6.402e+09  -0.7121  0.5193  0.02108  0.003913  0.01888  -0.01212  -0.6042  0.7187
6.404e+09  -0.4763  0.7482  0.02313  0.02711  -0.008087  -0.05834  -0.3232  0.8713
6.405e+09  -0.2032  0.8622  0.02057  -0.04828  -0.00184  -0.01477  -0.01216  0.921
6.406e+09  0.09311  0.7931  -0.004988  -0.02933  -0.002798  -0.008722  0.3233  0.8323
6.408e+09  0.3621  0.7908  -0.02197  -0.01697  -0.03931  -0.03262  0.5792  0.7027
6.409e+09  0.606  0.5846  -0.03378  0.01549  0.06196  -0.0166  0.7482  0.4984
6.41e+09  0.7864  0.3436  0.01275  -0.01481  -0.01091  -0.0009443  0.8804  0.1144
6.411e+09  0.859  0.04659  0.001588  -0.0107  -0.0459  -0.003482  0.8524  -0.1663
6.412e+09  0.8639  -0.271  0.03832  -0.07457  -0.01642  0.001321  0.7615  -0.4292
6.414e+09  0.753  -0.5281  -0.01948  -0.004591  -0.005905  -0.01095  0.6021  -0.6903
6.415e+09  0.4615  -0.7727  0.004341  -0.005568  -0.00834  0.009712  0.3782  -0.8231
6.416e+09  0.2142  -0.8713  -0.002966  -0.000922  0.01373  -0.01991  0.02516  -0.8909
6.418e+09  -0.09245  -0.8515  0.03221  0.006096  -0.02913  0.01242  -0.2865  -0.8282
6.419e+09  -0.4619  -0.8388  -0.005285  0.04955  0.00306  0.001544  -0.5135  -0.6843
6.42e+09  -0.7022  -0.5981  -0.03098  -0.05371  0.01096  0.01848  -0.7386  -0.5227
6.421e+09  -0.8168  -0.34  0.04634  -0.02404  -0.03453  -0.005282  -0.8712  -0.2132
6.422e+09  -0.8535  -0.03499  -0.01199  -0.01372  -0.04837  0.01161  -0.8417  0.1037
6.424e+09  -0.8548  0.291  0.009164  -0.03792  0.03508  0.005276  -0.7849  0.3882
6.425e+09  -0.6993  0.625  -0.02555  -0.02265  -0.03272  -0.02314  -0.5351  0.6126
6.426e+09  -0.46  0.8163  0.0008465  -0.02335  -0.03533  -0.009267  -0.3592  0.8012
6.428e+09  -0.1609  0.8195  0.007774  -0.004552  -0.01783  0.04713  -0.03951  0.8305
6.429e+09  0.1213  0.8411  -0.004267  0.003287  0.03899  -0.0005093  0.2541  0.8468
6.43e+09  0.4605  0.7581  0.01695  -0.0211  -0.002678  0.006055  0.5535  0.6346
6.431e+09  0.7111  0.5361  -0.002585  0.00711  -0.02951  -0.003731  0.7644  0.5091
6.432e+09  0.8748  0.2671  0.005601  -0.02801  0.02095  0.0172  0.8593  0.2309
6.434e+09  0.8674  0.04679  -0.04903  -0.03013  -0.03538  -0.04877  0.8503  -0.114
6.435e+09  0.8158  -0.2883  -0.0131  0.04346  -0.02932  -0.01376  0.7694  -0.3628
6.436e+09  0.7321  -0.617  -0.0006238  0.03995  -0.03647  0.01034  0.582  -0.628
6.438e+09  0.4625  -0.7967  -0.007827  0.01129  0.02167  0.0181  0.3504  -0.7393
6.439e+09  0.1657  -0.8996  -0.07564  -0.03452  -0.02257  0.04846  0.07968  -0.894
6.44e+09  -0.1494  -0.8643  0.0242  0.003766  0.009619  -0.02695  -0.2294  -0.8454
6.441e+09  -0.5535  -0.7353  -0.01624  0.03269  -0.03901  -0.007614  -0.4787  -0.7001
6.442e+09  -0.689  -0.5662  -0.0422  0.0007032  0.04303  -0.01107  -0.6553  -0.4661
6.444e+09  -0.9041  -0.2827  -0.002388  0.02322  0.03472  0.005375  -0.8134  -0.248
6.445e+09  -0.8553  0.03518  -0.02697  0.02733  -0.03014  -0.03948  -0.8568  0.07319
6.446e+09  -0.8668  0.3468  0.02982  0.02209  -0.01831  0.01349  -0.7493  0.3306
6.448e+09  -0.6725  0.5838  -0.02654  0.03555  0.01598  0.03724  -0.6446  0.6258
6.449e+09  -0.4336  0.7806  -0.0495  -0.01163  -0.05365  -0.03258  -0.3656  0.7376
6.45e+09  -0.1152  0.9171  -0.007411  0.003845  -0.008666  -0.004113  -0.03583  0.8254
6.451e+09  0.2041  0.9302  0.007326  -0.01694  -0.01374  0.004678  0.2088  0.7968
6.452e+09  0.5669  0.7802  0.03578  0.0146  -0.02898  0.03929  0.4944  0.7016
6.454e+09  0.7273  0.5627  0.03765  -0.02681  0.04383  -0.03371  0.6564  0.4662
6.455e+09  0.8531  0.282  -0.01019  0.01207  0.02415  -0.01044  0.809  0.2007
6.456e+09  0.9553  -0.08065  -0.01019  -0.03752  0.03116  0.007416  0.8337  -0.08683
6.458e+09  0.8882  -0.3901  -0.01467  0.02321  0.02327  0.04162  0.7131  -0.3418
6.459e+09  0.7043  -0.6318  0.01661  -0.01266  -0.0167  -0.02559  0.5472  -0.5729
6.46e+09  0.3922  -0.8105  -7.059e-05  -0.0173  -0.0006627  0.02793  0.3563  -0.781
6.461e+09  0.1093  -0.9095  0.01477  0.005145  0.02169  0.00433  0.04678  -0.8483
6.462e+09  -0.2134  -0.8118  0.04211  0.05022  0.03449  0.008685  -0.2515  -0.7808
6.464e+09  -0.5091  -0.7822  -0.0002066  0.02275  -0.000461  -0.0385  -0.4469  -0.6747
6.465e+09  -0.7668  -0.5151  0.01178  0.002  0.009391  0.04594  -0.6682  -0.4487
6.466e+09  -0.895  -0.2599  -0.04874  0.007368  0.01981  0.005435  -0.7781  -0.2189
6.468e+09  -1  0.09794  0.01363  0.01035  0.01197  0.02768  -0.8176  0.07874
6.469e+09  -0.8854  0.3681  -0.002469  0.005336  -0.02554  0.06455  -0.7077  0.3671
6.47e+09  -0.6362  0.6973  0.01619  -0.02393  0.03774  -0.06256  -0.5694  0.5901
6.471e+09  -0.4022  0.8523  -0.005834  0.01894  0.03592  0.01812  -0.2984  0.7062
6.472e+09  -0.07336  0.9242  -0.02168  -0.01002  0.04303  0.01485  -0.07676  0.8004
6.474e+09  0.2896  0.9159  0.01913  0.01599  -0.02911  -0.01627  0.2535  0.7763
6.475e+09  0.5662  0.7395  0.006406  0.03582  0.01866  0.01186  0.4657  0.6651
6.476e+09  0.7351  0.5593  -0.007181  0.01114  0.008509  -0.0164  0.6407  0.4658
6.478e+09  0.8813  0.2615  0.0007486  0.02542  0.006915  -0.002112  0.7974  0.1694
6.479e+09  0.9386  -0.1131  -0.03076  0.01973  0.002567  -0.0204  0.7843  -0.08997
6.48e+09  0.8173  -0.4326  -0.003875  0.03342  0.04335  0.006844  0.6948  -0.3612
6.481e+09  0.6063  -0.6871  0.02354  0.01159  0.0176  -0.005269  0.5368  -0.5355
6.482e+09  0.3216  -0.901  -0.02515  0.008894  -0.07152  0.02409  0.3496  -0.7227
6.484e+09  -0.0146  -0.9757  -0.04071  -0.05579  0.02936  0.01429  0.02769  -0.7776
6.485e+09  -0.3169  -0.9228  0.007903  0.02679  -0.0412  -0.03258  -0.2017  -0.7406
6.486e+09  -0.6013  -0.709  0.02155  0.002517  0.02503  -0.02679  -0.4199  -0.6291
6.488e+09  -0.8293  -0.4983  0.01228  0.04886  -0.004197  0.006011  -0.6265  -0.4583
6.489e+09  -0.989  -0.1874  -0.0004107  -0.01813  0.01322  -0.01449  -0.7489  -0.186
6.49e+09  -0.9381  0.0454  0.0188  -0.001772  0.009891  -0.006577  -0.76  0.08086
6.491e+09  -0.8114  0.499  -0.01409  -0.03478  0.009981  -0.007981  -0.7075  0.3227
6.492e+09  -0.5773  0.7682  -0.01501  -0.01651  0.03424  0.0448  -0.5364  0.5831
6.494e+09  -0.3081  0.9065  -0.004758  0.0005887  0.0181  0.004563  -0.2964  0.719
6.495e+09  0.03985  0.9364  -0.02434  -0.07995  0.03469  -0.04709  -0.026  0.7618
6.496e+09  0.3807  0.8794  -0.003496  0.008821  -0.01015  -0.02606  0.2396  0.7456
6.498e+09  0.6307  0.6937  -0.01906  -0.02401  0.03317  -0.03523  0.4903  0.6071
6.499e+09  0.8406  0.439  -0.02081  -0.009934  -0.0449  -0.04798  0.6442  0.4136
6.5e+09  0.9266  0.1182  -0.02328  0.01242  -0.01625  0.008906  0.717  0.1559
6.501e+09  0.9159  -0.2306  0.01286  -0.002772  -0.02057  0.01092  0.7804  -0.07214
6.502e+09  0.836  -0.5381  -0.02518  -0.01849  0.006306  0.01332  0.6665  -0.3293
6.504e+09  0.6043  -0.8073  -0.0008482  0.02561  -0.01476  -0.0321  0.5  -0.6067
6.505e+09  0.2349  -0.9318  -0.01899  0.01502  -0.02727  -0.03762  0.2965  -0.7022
6.506e+09  -0.1095  -0.9663  -0.01368  -0.002112  0.06036  0.06364  0.03436  -0.7474
6.508e+09  -0.3995  -0.8788  -0.01836  -0.004585  -0.01438  0.007553  -0.2637  -0.7228
6.509e+09  -0.7017  -0.6619  -0.009869  3.702e-05  0.01124  0.02217  -0.4528  -0.5612
6.51e+09  -0.9024  -0.3614  0.01838  -0.008191  -0.02192  0.04761  -0.649  -0.3621
6.511e+09  -0.9518  -0.01493  -0.004412  -0.05275  -0.01075  0.04203  -0.7012  -0.1472
6.512e+09  -0.9462  0.2706  -0.03446  -0.01162  0.03195  -0.01629  -0.7218  0.1217
6.514e+09  -0.785  0.6196  -0.01557  0.03376  -0.008646  -0.04201  -0.6807  0.377
6.515e+09  -0.4722  0.8381  0.008029  -0.004378  0.04636  -0.00841  -0.4946  0.5801
6.516e+09  -0.1678  0.9052  0.006568  0.01906  -0.01663  0.0006848  -0.2246  0.6878
6.518e+09  0.1466  0.9883  0.007228  -0.004185  -0.02664  -0.03793  0.03892  0.6966
6.519e+09  0.486  0.8926  0.005604  0.02416  0.003819  0.009889  0.2726  0.6799
6.52e+09  0.7456  0.6039  0.03204  -0.009215  0.03002  -0.001643  0.4912  0.5669
6.521e+09  0.9071  0.3236  -0.03622  -0.01493  -0.007617  -0.02793  0.6096  0.3403
6.522e+09  0.9609  0.01516  0.001208  0.02626  0.05893  0.02398  0.7234  0.1524
6.524e+09  0.8708  -0.3854  0.01084  0.01826  0.02225  0.0002111  0.6945  -0.1569
6.525e+09  0.65  -0.6412  0.04794  -0.01968  0.0001583  0.03777  0.6191  -0.4047
6.526e+09  0.4141  -0.861  0.01782  -0.02935  0.01142  -0.01661  0.4623  -0.5424
6.528e+09  0.05809  -0.9967  -0.02532  -0.01245  -0.01539  0.01716  0.1935  -0.6777
6.529e+09  -0.2484  -0.9386  0.02607  0.02937  0.01581  -0.01592  -0.06284  -0.7032
6.53e+09  -0.5605  -0.8087  0.01627  -0.004193  0.001765  0.005795  -0.3  -0.6248
6.531e+09  -0.8384  -0.5872  0.008377  -0.01278  -0.02294  0.02169  -0.4658  -0.4955
6.532e+09  -1.009  -0.2435  0.01186  0.01876  0.007323  0.001392  -0.5607  -0.3026
6.534e+09  -0.9755  0.08288  -0.004121  0.0144  -0.03034  -0.01186  -0.6439  -0.07405
6.535e+09  -0.8369  0.4252  -0.01876  -0.004698  -0.02069  0.0004512  -0.5925  0.1084
6.536e+09  -0.5954  0.7332  0.009941  0.00841  -0.02381  -3.23e-05  -0.5338  0.2595
6.538e+09  -0.3278  0.869  0.003481  0.02322  0.01432  -0.008399  -0.4542  0.4704
6.539e+09  0.01903  0.9477  0.01797  -0.01868  0.02322  -0.007922  -0.2695  0.6273
6.54e+09  0.3134  0.9088  0.003873  -0.02056  0.01201  0.03707  -0.06235  0.6765
6.541e+09  0.5555  0.7334  0.01179  0.0005835  0.01789  -0.0275  0.2007  0.6718
6.542e+09  0.8664  0.4185  0.008903  0.009346  -0.01355  -0.05337  0.4141  0.5647
6.544e+09  0.8999  0.1594  -0.0002296  -0.02058  -0.02163  -0.007942  0.6209  0.421
6.545e+09  0.8683  -0.2378  0.01228  0.01307  0.00801  -0.01598  0.7061  0.1647
6.546e+09  0.7697  -0.4911  0.01511  -0.01686  0.03286  -0.01737  0.7323  -0.075
6.548e+09  0.5167  -0.8065  0.01286  0.007187  -0.01707  -0.003499  0.6629  -0.3359
6.549e+09  0.2387  -0.8803  8.564e-05  0.01014  0.01388  -0.02956  0.4758  -0.5408
6.55e+09  -0.01222  -0.8631  0.01035  -0.008082  0.0214  -0.008569  0.3157  -0.6565
