# Hz S RI R 50
6.25e+09  -0.4317  0.7404  0.01367  0.001708  -0.03284  0.02522  0.1353  0.4892
6.251e+09  -0.1146  0.7965  0.0007943  -0.01418  -0.01649  -0.02201  0.4093  0.3869
6.252e+09  0.21  0.8784  -0.02354  0.001793  0.001263  -0.03133  0.4984  0.23
6.254e+09  0.4325  0.7116  0.01293  0.01152  0.0408  0.003847  0.5837  -0.009271
6.255e+09  0.6703  0.5121  -0.01383  -0.01323  -0.02391  0.01068  0.6027  -0.2477
6.256e+09  0.7917  0.253  0.01086  -0.02065  -0.01526  0.0197  0.4813  -0.4156
6.258e+09  0.8578  -0.04018  0.009221  -0.01426  -0.02098  0.07912  0.2927  -0.6106
6.259e+09  0.7458  -0.3028  -0.008669  0.01156  -0.006072  -0.03403  0.05982  -0.686
6.26e+09  0.6577  -0.5566  -0.01117  -0.0202  0.01229  0.01698  -0.2226  -0.6699
6.261e+09  0.386  -0.7355  0.01873  0.02621  0.05479  0.02083  -0.4497  -0.527
6.262e+09  0.1401  -0.8715  -0.01523  0.01527  -0.007897  -0.04001  -0.6436  -0.3421
6.264e+09  -0.1281  -0.7891  -0.009624  -0.004261  0.01687  0.03262  -0.6941  -0.114
6.265e+09  -0.4642  -0.7475  0.01772  -0.04968  -0.0005424  -0.005462  -0.7104  0.1711
6.266e+09  -0.6601  -0.49  -0.02048  0.06038  0.001774  -0.05193  -0.5923  0.3942
6.268e+09  -0.7753  -0.2556  0.01349  -0.03469  0.07453  0.04357  -0.4367  0.5947
6.269e+09  -0.8296  0.04381  -0.0143  -0.01625  0.008975  0.01625  -0.1637  0.6938
6.27e+09  -0.7375  0.2987  0.01021  -0.02026  -0.006906  0.06655  0.1172  0.7155
6.271e+09  -0.6226  0.5575  -0.01442  0.01441  0.02423  0.01982  0.3283  0.6756
6.272e+09  -0.3934  0.7152  -0.006483  0.02697  0.02956  -0.003052  0.5522  0.5075
6.274e+09  -0.1242  0.8734  0.0168  -0.006577  -0.02479  -0.01391  0.7122  0.296
6.275e+09  0.2039  0.7493  0.008503  -0.01446  0.08457  -0.01153  0.7424  0.07557
6.276e+09  0.4378  0.6897  0.01451  0.02765  -0.013  -0.03704  0.7331  -0.2224
6.278e+09  0.6871  0.5316  -0.01272  0.0106  0.05344  -0.05062  0.6155  -0.4669
6.279e+09  0.7574  0.2352  0.004513  0.02078  0.06435  -0.03224  0.4411  -0.6588
6.28e+09  0.8572  -0.02814  0.008974  -0.02615  -0.01548  0.00365  0.1492  -0.7859
6.281e+09  0.7561  -0.3209  0.01779  0.01287  0.02217  -0.06254  -0.08362  -0.7655
6.282e+09  0.604  -0.5951  -0.007131  -0.005056  0.02818  0.009222  -0.3593  -0.6794
6.284e+09  0.3251  -0.7468  -0.008362  -0.002885  -0.001342  0.03125  -0.5884  -0.5037
6.285e+09  0.07327  -0.8609  0.004008  -0.01762  0.04714  -0.01664  -0.7206  -0.2799
6.286e+09  -0.1728  -0.7903  -0.03557  0.02765  -0.007194  -0.005932  -0.7602  -0.01219
6.288e+09  -0.4731  -0.6756  -0.01113  0.001838  -0.04527  0.02226  -0.7486  0.2646
6.289e+09  -0.6871  -0.5347  -0.0132  0.001765  0.01963  0.01544  -0.608  0.5102
6.29e+09  -0.8216  -0.2045  0.01909  -0.0067  -0.009958  0.04394  -0.4012  0.6835
6.291e+09  -0.8139  0.0659  -0.004642  -0.03224  0.02592  -0.02552  -0.1878  0.7847
6.292e+09  -0.7645  0.3611  -0.006228  0.001158  -0.06351  -0.01698  0.1383  0.804
6.294e+09  -0.5799  0.5642  0.01472  -0.01232  -0.01442  0.01763  0.3926  0.7175
6.295e+09  -0.3541  0.7784  0.009032  -0.02148  0.02165  0.006317  0.6316  0.5332
6.296e+09  -0.06414  0.8624  -0.005046  0.01043  -0.04855  0.01649  0.7611  0.3083
6.298e+09  0.2157  0.8431  0.005511  -0.01225  -0.0004852  0.01811  0.8278  0.02821
6.299e+09  0.487  0.7104  0.006923  0.01293  0.02275  0.005946  0.7609  -0.2916
6.3e+09  0.7255  0.4278  -0.01139  -0.001123  -0.01624  0.02692  0.6412  -0.5433
6.301e+09  0.8058  0.2159  0.005822  -0.01648  -0.04424  -0.03426  0.4107  -0.7123
6.302e+09  0.8211  -0.1548  0.0002311  -0.001215  -0.006199  -0.01683  0.165  -0.8101
6.304e+09  0.7031  -0.4076  0.05095  0.01719  0.03296  -0.02743  -0.1192  -0.8331
6.305e+09  0.5394  -0.6625  -0.001463  0.0215  0.01528  0.06702  -0.4058  -0.724
6.306e+09  0.2805  -0.75  0.006893  0.01233  0.02392  0.009517  -0.6265  -0.5304
6.308e+09  0.02359  -0.8088  -0.01666  0.004912  -0.01297  0.001782  -0.7926  -0.2884
6.309e+09  -0.322  -0.8064  0.02618  -0.03659  0.01717  -0.02757  -0.8652  0.01885
6.31e+09  -0.5326  -0.6494  0.04115  0.02526  -0.001638  0.02753  -0.8034  0.2802
6.311e+09  -0.7401  -0.4659  -0.006226  0.005565  0.01546  0.01103  -0.6686  0.561
6.312e+09  -0.8231  -0.1659  -0.007208  0.001826  0.01615  0.003701  -0.4408  0.7428
6.314e+09  -0.843  0.1415  0.003483  0.02303  -0.006417  0.0258  -0.1595  0.8671
6.315e+09  -0.7377  0.4069  0.01653  -0.02487  0.02497  -0.01484  0.1448  0.8779
6.316e+09  -0.5323  0.6643  0.003988  0.007661  -0.04534  0.03797  0.3991  0.7685
6.318e+09  -0.2989  0.7499  -0.005298  0.006854  0.01288  -0.001466  0.6615  0.5737
6.319e+09  -0.006304  0.8671  -0.01398  0.0294  -0.02031  -0.04171  0.823  0.3105
6.32e+09  0.289  0.7702  0.01254  0.004581  -0.02094  0.01034  0.8879  -0.01636
6.321e+09  0.5011  0.598  0.02295  -0.01263  -0.006286  -0.01646  0.8828  -0.3004
6.322e+09  0.768  0.35  0.002713  0.0004437  0.03918  0.04027  0.6678  -0.5657
6.324e+09  0.847  0.1233  -0.008193  -0.009993  0.001325  0.03132  0.4823  -0.7877
6.325e+09  0.8257  -0.1788  -0.01329  -0.0151  0.03667  -0.03337  0.152  -0.866
6.326e+09  0.7525  -0.4538  -0.0238  -0.01414  0.05684  -0.00156  -0.1423  -0.8919
6.328e+09  0.5056  -0.6451  0.02001  0.003195  0.009747  -0.01941  -0.4049  -0.7981
6.329e+09  0.2255  -0.7266  -0.01245  -0.02093  0.02407  0.06083  -0.6799  -0.5641
6.33e+09  -0.02455  -0.8732  0.005945  0.0005176  0.01169  -0.03322  -0.8556  -0.3182
6.331e+09  -0.3425  -0.7845  -0.006955  0.0318  -0.006668  -0.01677  -0.9553  -0.01524
6.332e+09  -0.6081  -0.6424  -0.05119  0.01131  -0.005907  -0.02021  -0.861  0.2549
6.334e+09  -0.8169  -0.3484  -0.01668  -0.01191  0.02747  -0.002626  -0.7079  0.5498
6.335e+09  -0.8667  -0.08661  -0.01346  -0.001898  0.06666  0.00961  -0.4853  0.7736
6.336e+09  -0.8133  0.2113  0.01384  -0.04205  -0.01784  -0.01707  -0.2058  0.9019
6.338e+09  -0.691  0.5301  0.01007  0.02341  0.01181  0.02266  0.1399  0.8953
6.339e+09  -0.495  0.719  -0.01396  0.03569  -0.01649  0.0144  0.4194  0.8033
6.34e+09  -0.1791  0.8439  0.02029  0.0178  -0.02178  -0.01459  0.6715  0.6033
6.341e+09  0.08993  0.8547  0.02591  -0.01065  -0.038  0.01047  0.8394  0.3744
6.342e+09  0.3875  0.7389  -0.001563  0.02475  0.04517  0.03422  0.8935  0.0217
6.344e+09  0.6061  0.579  -0.01821  0.04618  0.01387  0.01844  0.8756  -0.2689
6.345e+09  0.7868  0.2734  -0.00979  0.01618  0.01224  0.004886  0.7365  -0.5406
6.346e+09  0.9213  -0.009899  0.01077  0.02895  -0.02087  -0.02508  0.523  -0.789
6.348e+09  0.8481  -0.258  0.01891  0.01843  -0.0358  0.05048  0.2335  -0.9271
6.349e+09  0.6418  -0.5102  -0.00726  0.05954  -0.001488  0.01763  -0.09554  -0.954
6.35e+09  0.3937  -0.7504  0.02236  -0.004169  -0.01474  0.01194  -0.4257  -0.8506
6.351e+09  0.1129  -0.8907  -0.002171  -0.001584  -0.01496  -0.001599  -0.6738  -0.6463
6.352e+09  -0.183  -0.8579  -0.002581  -0.007017  0.01035  0.01802  -0.8919  -0.3532
6.354e+09  -0.511  -0.7566  0.003158  0.02189  -0.02221  0.004475  -0.9506  -0.0541
6.355e+09  -0.7286  -0.5829  0.01014  0.01771  -0.03154  -0.01109  -0.8847  0.2218
6.356e+09  -0.8575  -0.2556  -0.001676  0.02509  0.02897  0.01211  -0.7825  0.5828
6.358e+09  -0.8674  0.02932  -0.03561  0.03589  0.01032  -0.009315  -0.5384  0.7304
6.359e+09  -0.8216  0.3834  -0.02015  0.01855  0.04727  0.01601  -0.2644  0.9003
6.36e+09  -0.6491  0.578  -0.008067  0.01045  0.007261  -0.03806  0.1071  0.9086
6.361e+09  -0.418  0.7763  -0.006323  0.002704  -0.07419  -0.05114  0.4111  0.848
6.362e+09  -0.09087  0.8934  0.0004967  0.004452  0.01944  0.003345  0.6588  0.6641
6.364e+09  0.2426  0.8604  -0.0229  0.02876  -0.04079  0.01066  0.8415  0.4186
6.365e+09  0.5026  0.7568  -0.001223  0.01684  0.003284  0.03201  0.9396  0.07395
6.366e+09  0.7551  0.4569  -0.006683  -0.03669  0.0652  -0.01531  0.8671  -0.276
6.368e+09  0.8549  0.2271  0.009117  0.04894  0.02473  -0.02042  0.7896  -0.5633
6.369e+09  0.8694  -0.08706  0.007592  0.0163  0.02553  -0.04806  0.546  -0.728
6.37e+09  0.7933  -0.3933  0.02829  0.02107  0.01031  -0.02786  0.2737  -0.9046
6.371e+09  0.6128  -0.6744  0.01068  -0.0266  0.0405  -0.01454  -0.06488  -1.002
6.372e+09  0.3587  -0.8244  -0.04175  -0.009377  0.0183  -0.007519  -0.403  -0.8912
6.374e+09  0.07908  -0.8705  0.02052  -0.01746  -0.07275  0.02734  -0.6647  -0.6881
6.375e+09  -0.2572  -0.8677  -0.01558  -0.001858  0.03806  0.01436  -0.8592  -0.4495
6.376e+09  -0.5268  -0.7554  0.02118  0.02152  0.01843  -0.008011  -0.9577  -0.1155
6.378e+09  -0.7356  -0.4839  0.012  0.01679  0.009033  0.03609  -0.9311  0.2022
6.379e+09  -0.9065  -0.2078  -0.01417  -0.04732  -0.03937  0.01537  -0.8051  0.5094
6.38e+09  -0.8801  0.1971  -0.01598  0.004216  0.05289  -0.01965  -0.5467  0.8172
6.381e+09  -0.7932  0.4538  -0.04568  0.006995  0.01183  0.01159  -0.2617  0.8864
6.382e+09  -0.5572  0.7007  -0.009966  0.01022  -0.00939  0.02205  0.04856  0.926
6.384e+09  -0.3261  0.8831  0.02417  -0.02462  0.02816  0.006272  0.3547  0.8515
6.385e+09  -0.006074  0.9165  0.02878  0.01439  -0.01945  -0.02484  0.6673  0.6813
6.386e+09  0.3067  0.8493  -0.0279  -0.02266  -0.01069  0.02609  0.8004  0.4214
6.388e+09  0.5975  0.7204  -0.01666  0.005784  0.01154  -0.03048  0.9428  0.113
6.389e+09  0.7913  0.4002  0.04414  -0.007887  0.007227  -0.01296  0.8959  -0.237
6.39e+09  0.9021  0.1133  -0.01183  0.006065  0.01981  0.03829  0.7741  -0.5214
6.391e+09  0.8718  -0.1751  0.002476  -0.007501  -0.01505  -0.02681  0.5861  -0.7112
6.392e+09  0.753  -0.4691  -0.0283  -0.02422  -0.007959  -0.02471  0.2537  -0.8617
6.394e+09  0.5887  -0.6633  -0.05171  -0.009852  0.0129  -0.02891  -0.04121  -0.8835
6.395e+09  0.2266  -0.919  0.006909  0.01065  0.009818  -0.03956  -0.3355  -0.8725
6.396e+09  -0.02836  -0.8588  -0.04482  0.02107  0.0282  0.02776  -0.6158  -0.718
6.398e+09  -0.3447  -0.8272  0.01268  -0.02703  -0.04617  0.02454  -0.7911  -0.4437
6.399e+09  -0.6423  -0.6652  0.003757  -0.0126  0.04297  -0.03621  -0.9011  -0.1682
6.4e+09  -0.7716  -0.347  -0.007515  0.008748  0.01182  0.01034  -0.9272  0.1656
6.401e+09  -0.8659  -0.09168  0.03994  -0.01014  0.003942  -0.03289  -0.7728  0.4807
6.402e+09  -0.8614  0.17  0.03875  -0.01138  0.03422  0.01405  -0.5144  0.7439
6.404e+09  -0.7822  0.5091  -0.01303  -0.04135  0.07929  0.04253  -0.3035  0.8572
6.405e+09  -0.5214  0.7431  0.01702  -0.01875  0.03087  -0.01898  -0.04926  0.9414
6.406e+09  -0.2594  0.8331  -0.007065  -0.01222  -0.008838  0.02976  0.3499  0.8475
6.408e+09  0.07367  0.8727  0.009346  0.0142  0.04037  0.004979  0.586  0.7406
6.409e+09  0.343  0.8081  0.003875  0.02199  0.06178  -0.03402  0.7679  0.4633
6.41e+09  0.6392  0.6033  0.004345  0.01651  0.004359  0.006794  0.8963  0.1809
6.411e+09  0.7646  0.3795  0.01657  0.003253  -0.01477  -0.001719  0.9023  -0.1654
6.412e+09  0.8446  0.1103  0.003102  -0.01023  -0.0009382  -0.01425  0.7956  -0.4655
6.414e+09  0.8102  -0.194  -0.006205  0.01765  -0.01015  0.04786  0.6024  -0.6618
6.415e+09  0.7136  -0.4814  -0.001756  0.02136  -0.02493  0.003815  0.3281  -0.8735
6.416e+09  0.4744  -0.6814  -0.01002  0.01502  0.003208  -0.03383  0.00477  -0.8698
6.418e+09  0.2151  -0.8426  -0.03446  -0.01925  0.01288  -0.0003564  -0.2413  -0.8863
6.419e+09  -0.07768  -0.8797  -0.016  0.02884  -0.003872  0.03175  -0.5944  -0.6922
6.42e+09  -0.3791  -0.8005  0.0413  -0.01663  0.02617  -0.03932  -0.7861  -0.5304
6.421e+09  -0.6277  -0.6168  -0.01643  -0.03154  -0.004867  0.02186  -0.8437  -0.1923
6.422e+09  -0.7871  -0.3925  0.03668  -0.01313  0.06803  0.004794  -0.8901  0.1349
6.424e+09  -0.8466  -0.06227  -0.008862  0.0223  0.001251  -0.009053  -0.7962  0.4245
6.425e+09  -0.8152  0.2238  0.03696  -0.04698  0.05007  -0.01844  -0.6456  0.6274
6.426e+09  -0.7352  0.4959  0.001208  -0.03513  -0.02316  0.005749  -0.3509  0.7992
6.428e+09  -0.4634  0.7292  0.01686  0.02348  0.01294  0.01762  -0.07634  0.8832
6.429e+09  -0.2465  0.8611  -0.01874  0.005431  0.01121  -0.01093  0.2145  0.8345
6.43e+09  0.08545  0.8624  0.0318  0.01193  -0.06282  0.00029  0.5533  0.7144
6.431e+09  0.343  0.7555  0.0001078  -0.002015  -0.03838  -0.02344  0.6711  0.5015
6.432e+09  0.6111  0.6081  -0.00673  -0.00729  0.02497  0.03343  0.8302  0.2073
6.434e+09  0.7659  0.3346  -0.005525  -0.00155  0.06057  -0.02512  0.8306  -0.06353
6.435e+09  0.8428  0.07095  -0.01541  -0.009624  0.04408  0.006491  0.741  -0.3406
6.436e+09  0.8277  -0.2312  0.001777  -0.02508  -0.02748  -0.03346  0.5798  -0.6107
6.438e+09  0.7652  -0.5132  -0.04377  0.02693  0.008801  -0.03381  0.4006  -0.7993
6.439e+09  0.5184  -0.7489  0.04032  -0.001342  0.02858  -0.01419  0.0856  -0.8696
6.44e+09  0.1825  -0.8564  0.02804  0.01421  0.007265  -0.0329  -0.2121  -0.8563
6.441e+09  -0.07103  -0.8941  0.02391  -0.0279  -0.007  0.04193  -0.4798  -0.7291
6.442e+09  -0.4055  -0.7514  0.02372  0.02631  0.004708  -0.03902  -0.6807  -0.4747
6.444e+09  -0.668  -0.5767  -0.008927  0.04187  0.01818  -0.01196  -0.7863  -0.2449
6.445e+09  -0.8134  -0.3817  0.0109  0.003659  -0.03721  0.02582  -0.8279  0.07854
6.446e+09  -0.8756  -0.08692  0.03554  -0.02426  0.02418  -0.002817  -0.7298  0.3291
6.448e+09  -0.8332  0.241  -0.01654  0.0329  0.02171  0.0008315  -0.5529  0.6278
6.449e+09  -0.6979  0.5345  0.005042  -0.03035  -0.05299  -0.01482  -0.3978  0.7097
6.45e+09  -0.5072  0.7071  0.0005359  -0.02536  -0.02871  -0.03303  -0.1032  0.8305
6.451e+09  -0.2333  0.8743  -0.01663  0.02979  0.0667  -0.01667  0.222  0.7804
6.452e+09  0.1421  0.8881  -0.004753  0.02154  -0.01407  0.01605  0.4712  0.6692
6.454e+09  0.4044  0.7988  0.000101  -0.03826  -0.00804  -0.009947  0.6628  0.5284
6.455e+09  0.6908  0.518  0.009938  0.01656  0.006133  -0.02564  0.8189  0.2151
6.456e+09  0.8187  0.3212  0.008635  -0.01792  -0.004672  -0.04753  0.8006  -0.06811
6.458e+09  0.8699  0.05062  0.008885  -0.01417  0.01177  0.05399  0.7267  -0.2958
6.459e+09  0.8421  -0.2938  0.02268  -0.02264  -0.00124  0.05773  0.5582  -0.5679
6.46e+09  0.7537  -0.5035  0.04188  0.007791  -0.03464  -0.01764  0.2951  -0.7035
6.461e+09  0.4523  -0.7623  -0.0466  0.0232  0.03326  -0.06346  0.07371  -0.7954
6.462e+09  0.2054  -0.8669  0.01716  -0.01135  0.06195  0.05584  -0.2179  -0.7364
6.464e+09  -0.1115  -0.9276  0.02351  -0.03059  -0.0167  0.002677  -0.4723  -0.6691
6.465e+09  -0.4349  -0.7919  0.01988  -0.02585  0.006009  0.01243  -0.6611  -0.4401
6.466e+09  -0.6203  -0.598  -0.002799  0.02409  -0.01177  -0.05363  -0.784  -0.2258
6.468e+09  -0.8373  -0.328  0.04798  -0.06689  0.01819  -0.004485  -0.8125  0.08945
6.469e+09  -0.9345  -0.01476  0.03116  -0.02034  0.007916  -0.01797  -0.7526  0.3196
6.47e+09  -0.8624  0.2275  -0.005483  -0.01596  -0.03409  -0.03416  -0.5688  0.5431
6.471e+09  -0.6882  0.5573  -0.01793  0.005473  -0.02897  0.02413  -0.3431  0.716
6.472e+09  -0.4873  0.7698  0.001272  0.001665  0.01344  -0.03175  -0.07754  0.8048
6.474e+09  -0.2274  0.9617  -0.00981  0.005964  -0.04417  0.03409  0.1707  0.7358
6.475e+09  0.0969  0.8661  0.01094  -0.04565  -0.008118  0.031  0.4813  0.6134
6.476e+09  0.3919  0.7461  -0.009703  0.04172  -0.02728  -0.008269  0.5909  0.4294
6.478e+09  0.6905  0.5808  0.04568  -0.05437  -0.01454  -0.01548  0.7549  0.171
6.479e+09  0.8694  0.3572  0.0191  0.008327  0.03895  0.02099  0.7846  -0.08599
6.48e+09  0.8889  0.01084  -0.003405  -0.0257  0.003441  -0.02187  0.7156  -0.3046
6.481e+09  0.8799  -0.3003  -0.009106  0.03955  0.01786  0.021  0.5645  -0.5596
6.482e+09  0.7019  -0.5836  0.006377  0.01789  0.000562  -0.06937  0.2933  -0.707
6.484e+09  0.4509  -0.7016  0.01117  -0.02827  0.002535  0.008502  0.05154  -0.7515
6.485e+09  0.1371  -0.9256  -0.01258  0.02087  -0.05729  -0.003412  -0.2056  -0.753
6.486e+09  -0.1974  -0.8766  -0.03056  0.004322  0.0105  0.01905  -0.5042  -0.6562
6.488e+09  -0.4592  -0.8041  -0.03722  0.02303  -0.0007437  0.03543  -0.6774  -0.4688
6.489e+09  -0.6828  -0.6033  0.01407  0.01745  -0.02858  -0.01245  -0.7665  -0.2093
6.49e+09  -0.8031  -0.3332  -0.0109  -0.02687  0.003524  0.02059  -0.7369  0.06584
6.491e+09  -0.9015  -0.03695  0.02373  -0.004897  -0.0409  0.03352  -0.6518  0.3552
6.492e+09  -0.8561  0.3382  -0.03409  0.0008466  -0.0276  0.02028  -0.5913  0.5643
6.494e+09  -0.7121  0.5986  -0.0229  0.04449  0.01924  -0.04012  -0.3038  0.6994
6.495e+09  -0.4797  0.8456  -0.05408  0.01677  0.008856  0.001883  -0.04128  0.7218
6.496e+09  -0.1202  0.8776  -0.01947  -0.006532  -0.0315  0.01525  0.1679  0.7536
6.498e+09  0.1793  0.8892  0.01945  0.01969  -0.003271  -0.02211  0.4468  0.5822
6.499e+09  0.487  0.7668  -0.007273  0.007936  0.02374  0.001701  0.6411  0.4454
6.5e+09  0.7185  0.5715  -0.01539  -0.01222  0.01099  -0.01269  0.7707  0.1474
6.501e+09  0.8761  0.2796  0.04723  -0.001538  0.004674  0.005938  0.7475  -0.08228
6.502e+09  0.9163  -0.03393  -0.0005639  -0.000339  0.04797  -0.006855  0.6644  -0.3329
6.504e+09  0.8736  -0.3308  0.007546  -0.01385  0.01411  0.02078  0.437  -0.5731
6.505e+09  0.7472  -0.6245  -0.01026  -0.02545  0.01148  0.02297  0.2455  -0.6667
6.506e+09  0.4059  -0.8175  0.02167  0.02381  -0.00877  0.01766  0.04106  -0.7448
6.508e+09  0.1463  -0.9249  -0.05234  -0.0293  0.0156  -0.02334  -0.2669  -0.7059
6.509e+09  -0.2228  -0.9383  0.01559  0.0107  -0.03351  -0.05067  -0.4573  -0.5774
6.51e+09  -0.5393  -0.8147  0.01902  0.03962  -0.0131  0.006988  -0.6203  -0.4184
6.511e+09  -0.7504  -0.5579  -0.002842  0.01464  -0.04694  -0.005468  -0.7248  -0.1211
6.512e+09  -0.89  -0.2771  -0.02547  -0.0174  0.02746  -0.06044  -0.7414  0.09943
6.514e+09  -0.926  0.1171  -0.008388  -0.0356  -0.01533  0.01141  -0.6451  0.3635
6.515e+09  -0.8859  0.3782  -0.003293  -0.004859  0.02686  -0.01325  -0.5079  0.5702
6.516e+09  -0.6932  0.6841  0.01087  -0.005405  -0.01121  -0.001429  -0.2595  0.6991
6.518e+09  -0.3855  0.8417  0.03253  -0.03459  0.005773  0.02062  0.005018  0.7475
6.519e+09  -0.0562  0.9374  0.02076  0.02193  -0.0189  0.05594  0.2642  0.6952
6.52e+09  0.2513  0.8897  0.0008204  0.00314  0.02239  0.05724  0.4979  0.5353
6.521e+09  0.5202  0.8284  -0.006708  -0.01413  -0.03053  0.002149  0.6338  0.388
6.522e+09  0.7759  0.5402  0.01099  0.003557  0.008884  0.004089  0.7356  0.09776
6.524e+09  0.9548  0.1987  -0.004735  -0.00297  0.003288  0.03061  0.6797  -0.1684
6.525e+09  1.033  -0.06464  -0.01248  -0.004771  0.01198  -0.06335  0.6238  -0.404
6.526e+09  0.8503  -0.4111  0.01283  -0.01077  0.05874  0.02039  0.4331  -0.5454
6.528e+09  0.66  -0.7371  -0.002959  -0.01014  0.04025  0.01948  0.2006  -0.6664
6.529e+09  0.3815  -0.8613  -0.001365  -0.01953  0.007714  0.01102  -0.03567  -0.7315
6.53e+09  0.04665  -1.004  0.007079  -0.02374  0.03614  -0.03595  -0.3208  -0.6096
6.531e+09  -0.2806  -0.8548  -0.00831  -0.004878  0.03988  -0.03348  -0.4695  -0.4662
6.532e+09  -0.7084  -0.7887  -0.02348  -0.02421  -0.0121  0.008907  -0.6105  -0.2887
6.534e+09  -0.8735  -0.4926  -0.005679  -0.008707  -0.02573  -0.001028  -0.6193  -0.09481
6.535e+09  -0.9013  -0.1808  0.03285  0.007585  -0.01393  0.03455  -0.661  0.1356
6.536e+09  -0.9522  0.1665  -0.01697  -0.05635  -0.02014  -0.003321  -0.5359  0.313
6.538e+09  -0.8062  0.5514  0.007974  -0.02685  -0.0194  0.02146  -0.4484  0.4718
6.539e+09  -0.6408  0.7353  0.02865  -0.02517  0.03466  0.0036  -0.2816  0.6136
6.54e+09  -0.2957  0.9753  -0.01014  0.01977  -0.02157  -0.02425  -0.08058  0.6634
6.541e+09  0.06475  0.991  0.01309  -0.002563  0.00958  0.01716  0.189  0.6561
6.542e+09  0.3707  0.8912  -0.001225  0.0005373  -0.003708  -0.01382  0.4098  0.5857
6.544e+09  0.6549  0.767  0.007743  0.03008  -0.01195  0.01337  0.5843  0.4234
6.545e+09  0.853  0.4659  4.721e-06  0.009688  -0.004198  -0.02941  0.6713  0.1727
6.546e+09  0.9463  0.1268  0.000151  -0.01481  0.00282  -0.02486  0.7134  -0.05755
6.548e+09  0.955  -0.2502  0.01463  -0.01907  0.01416  -0.01123  0.684  -0.3433
6.549e+09  0.8501  -0.5509  0.01717  0.007669  -0.03829  0.02899  0.5161  -0.5057
6.55e+09  0.5389  -0.7715  0.01625  0.005577  0.002922  -0.03762  0.2716  -0.6789
6.551e+09  0.2429  -0.9445  0.007224  -0.01401  0.01233  0.03929  0.04982  -0.7135
