# Hz S RI R 50
6.25e+09  -0.3437  0.7381  -0.01152  0.02197  -0.02083  0.0499  0.1802  0.5029
6.251e+09  -0.06987  0.8471  0.008143  0.01213  -0.001874  0.0554  0.362  0.3973
6.252e+09  0.2243  0.8716  0.0206  -0.001922  0.01829  -0.01393  0.5448  0.2284
6.254e+09  0.5615  0.7251  0.003337  -0.01049  -0.008821  -0.04133  0.5879  0.01592
6.255e+09  0.6499  0.4817  0.01973  -0.001625  0.04955  -0.03891  0.558  -0.2316
6.256e+09  0.8377  0.2336  -0.0145  -0.028  -0.005025  -0.02883  0.4902  -0.4533
6.258e+09  0.8591  -0.1025  0.007626  -0.006161  0.04844  0.007454  0.276  -0.5932
6.259e+09  0.759  -0.4183  -0.005654  -0.005935  0.02097  -0.0423  0.0908  -0.6749
6.26e+09  0.6128  -0.6031  0.008096  -0.01116  0.03136  -0.01554  -0.2046  -0.6512
6.261e+09  0.3566  -0.8219  0.008818  -0.00941  -0.0127  0.01712  -0.4326  -0.5044
6.262e+09  0.05955  -0.8013  0.02904  0.003552  0.04815  -0.007323  -0.616  -0.3584
6.264e+09  -0.2662  -0.7919  -0.005929  0.01025  0.05702  -0.008588  -0.7063  -0.1237
6.265e+09  -0.5278  -0.6948  0.01462  0.00169  0.01545  0.06673  -0.6912  0.158
6.266e+09  -0.7443  -0.4595  0.004043  0.009378  0.03472  0.01525  -0.5851  0.3885
6.268e+09  -0.8189  -0.2037  -0.005527  -0.006845  0.01849  0.00708  -0.4543  0.6163
6.269e+09  -0.8096  0.1396  -0.01095  0.01764  0.01705  -0.03086  -0.1966  0.7091
6.27e+09  -0.7397  0.4136  -0.003383  0.01495  -0.0549  0.03388  0.05595  0.7148
6.271e+09  -0.5844  0.6164  0.001087  0.01869  -0.01115  -0.005716  0.3101  0.6651
6.272e+09  -0.2953  0.7476  -0.02546  -0.00486  0.01707  0.03708  0.5333  0.5119
6.274e+09  -0.05967  0.8484  0.007546  -0.00516  0.02152  -0.014  0.6694  0.3303
6.275e+09  0.1974  0.8464  0.01159  -0.005811  -0.0153  0.03382  0.7756  0.03959
6.276e+09  0.4748  0.7043  -0.01325  0.01104  -0.0239  -0.06305  0.7488  -0.2194
6.278e+09  0.6946  0.4482  0.01868  0.01607  -0.03314  0.0826  0.6136  -0.4427
6.279e+09  0.8225  0.1778  -0.008008  0.03081  0.00701  0.01206  0.3996  -0.6522
6.28e+09  0.8638  -0.139  -0.0001517  0.001423  -0.0127  -0.05608  0.1751  -0.7736
6.281e+09  0.7264  -0.4804  -0.03486  0.0064  0.01415  -0.004311  -0.07644  -0.7645
6.282e+09  0.6122  -0.5468  0.005888  -0.01698  0.0111  0.03184  -0.3581  -0.6863
6.284e+09  0.2999  -0.8129  0.009284  0.0006955  -0.01167  0.03666  -0.5748  -0.5333
6.285e+09  0.0245  -0.8316  0.002728  0.00139  0.01833  -0.006592  -0.7082  -0.3161
6.286e+09  -0.275  -0.7759  -0.02563  -0.008979  0.01881  -0.05988  -0.7782  -0.03216
6.288e+09  -0.5051  -0.6147  0.02279  0.01103  -0.01787  -0.02385  -0.7391  0.2434
6.289e+09  -0.6943  -0.4184  0.02082  0.02094  0.004965  -0.003181  -0.6351  0.4993
6.29e+09  -0.8458  -0.1781  -0.01489  -0.02877  -0.04004  -0.009849  -0.4051  0.6588
6.291e+09  -0.8375  0.1545  -0.02733  -0.0008238  0.004373  -0.02807  -0.1642  0.7751
6.292e+09  -0.7218  0.427  0.01885  -0.001442  -0.04365  0.043  0.1176  0.8246
6.294e+09  -0.5299  0.6766  -0.02114  0.0293  0.02497  -0.05412  0.3941  0.7132
6.295e+09  -0.274  0.768  0.02728  -0.01045  0.04366  0.01201  0.6195  0.5211
6.296e+09  0.0001393  0.8349  0.02919  -0.03245  -0.01066  0.01419  0.7535  0.3239
6.298e+09  0.3175  0.8013  0.007925  -0.01741  -0.02457  -0.01862  0.8339  0.03964
6.299e+09  0.5752  0.63  -0.01362  0.04007  -0.02399  -0.02174  0.8037  -0.2566
6.3e+09  0.7285  0.3537  0.01912  -0.01846  0.04566  -0.03306  0.6417  -0.5252
6.301e+09  0.7786  0.08534  0.0002592  -0.02509  0.05523  0.03832  0.4251  -0.7234
6.302e+09  0.7736  -0.09409  -0.0369  0.01176  0.01843  -0.0009643  0.1572  -0.8433
6.304e+09  0.6904  -0.452  -0.01816  0.0051  -0.04004  -0.01106  -0.1164  -0.8557
6.305e+09  0.4634  -0.6457  0.008663  0.01052  0.03508  -0.02097  -0.4182  -0.7564
6.306e+09  0.2051  -0.7788  -0.0133  0.0007993  0.01309  -0.001456  -0.6553  -0.5746
6.308e+09  -0.06546  -0.8088  -0.0006223  -0.02259  -0.02822  -0.01277  -0.8037  -0.2864
6.309e+09  -0.3377  -0.7018  -0.04802  -0.02254  -0.02289  0.01998  -0.8412  0.01999
6.31e+09  -0.5687  -0.5835  0.0333  -0.01757  0.003164  0.02254  -0.7982  0.2692
6.311e+09  -0.725  -0.3542  -0.007733  0.01052  -0.03272  -0.02302  -0.6658  0.582
6.312e+09  -0.8852  -0.1119  0.00636  0.03008  -0.05708  0.03916  -0.4454  0.7324
6.314e+09  -0.8357  0.207  0.002163  3.147e-05  0.01469  0.01351  -0.121  0.8387
6.315e+09  -0.7  0.4446  0.01696  -0.009045  0.004074  -0.04407  0.1261  0.8802
6.316e+09  -0.4834  0.7049  0.03194  0.05576  0.04451  -0.02217  0.4035  0.7692
6.318e+09  -0.2025  0.8328  0.02985  0.008383  0.02825  -0.03799  0.6958  0.5564
6.319e+09  0.09963  0.8071  -0.0006813  0.0009118  0.04473  -0.02248  0.83  0.3337
6.32e+09  0.3761  0.7735  -0.01956  0.03291  -0.03362  0.01967  0.8872  0.01912
6.321e+09  0.6302  0.6006  0.007452  -0.004249  -0.04019  -0.04594  0.8073  -0.27
6.322e+09  0.7875  0.3229  0.006654  -0.002868  0.009254  0.01171  0.703  -0.5879
6.324e+09  0.9071  0.09669  0.01696  0.01495  0.0003783  0.006063  0.4598  -0.7771
6.325e+09  0.7976  -0.3043  0.004573  -0.01347  0.004894  -0.000785  0.1921  -0.8769
6.326e+09  0.6805  -0.5549  -0.01299  -0.003972  -0.02181  -0.005087  -0.1089  -0.8652
6.328e+09  0.4525  -0.7166  -0.004857  0.01544  0.03176  0.01409  -0.4173  -0.7876
6.329e+09  0.1741  -0.8404  -0.03217  -0.01377  -0.0408  0.005242  -0.6995  -0.5927
6.33e+09  -0.09395  -0.8304  -0.03567  -0.005714  0.004873  -0.05109  -0.8658  -0.3141
6.331e+09  -0.4739  -0.7346  0.02915  -0.01123  0.01547  -0.01151  -0.9365  -0.03739
6.332e+09  -0.6834  -0.5699  -0.02259  -0.01941  0.01289  -0.001088  -0.8514  0.2885
6.334e+09  -0.791  -0.3303  -4.621e-05  -0.006474  0.01359  0.00274  -0.7226  0.5544
6.335e+09  -0.906  -0.001505  -0.003064  -0.01123  0.04989  -0.02802  -0.4822  0.7549
6.336e+09  -0.8129  0.3212  0.01294  0.04651  -0.02312  0.01365  -0.1903  0.8619
6.338e+09  -0.6785  0.5557  0.01009  -0.006385  0.002059  0.006401  0.117  0.8944
6.339e+09  -0.4217  0.773  -0.01023  0.02952  -0.001814  -0.004042  0.4049  0.8112
6.34e+09  -0.1344  0.8448  -0.00918  -0.004937  0.02144  0.01619  0.7104  0.6314
6.341e+09  0.1869  0.8653  -0.01309  -0.01374  -0.03213  0.02754  0.8678  0.3603
6.342e+09  0.4291  0.7914  0.05341  0.001352  0.01853  0.01769  0.9134  0.02356
6.344e+09  0.7283  0.5071  -0.004166  0.01746  -0.0467  0.01183  0.8663  -0.2535
6.345e+09  0.8628  0.2551  0.01115  0.01308  0.01977  -0.02001  0.7533  -0.5452
6.346e+09  0.8697  -0.05027  0.007092  0.000862  -0.009847  0.03476  0.486  -0.7627
6.348e+09  0.7605  -0.3785  0.01653  -0.01802  0.01138  -0.02607  0.2461  -0.9453
6.349e+09  0.6302  -0.6321  0.003626  0.02554  -0.007143  0.006013  -0.1297  -0.9154
6.35e+09  0.3663  -0.8624  0.004291  -0.005862  -0.0107  0.02475  -0.4246  -0.8521
6.351e+09  0.08377  -0.8869  -0.01635  0.01041  -0.03218  0.03147  -0.6878  -0.649
6.352e+09  -0.2664  -0.8995  0.01662  0.004956  0.01406  -0.01183  -0.8584  -0.3799
6.354e+09  -0.5262  -0.7255  0.003197  -0.01749  0.02615  0.0153  -0.9478  -0.07183
6.355e+09  -0.6952  -0.463  -0.008816  -0.02367  0.01577  0.03378  -0.8744  0.2484
6.356e+09  -0.8687  -0.2014  -0.01655  0.0009933  -0.002298  -0.01553  -0.7422  0.5751
6.358e+09  -0.8808  0.09883  0.00741  0.007317  -0.03113  0.03458  -0.5336  0.8385
6.359e+09  -0.7852  0.3949  -0.003808  0.02382  -0.008091  0.005657  -0.2071  0.937
6.36e+09  -0.5903  0.6112  0.01185  0.02793  -0.007015  -0.00772  0.08215  0.9416
6.361e+09  -0.3184  0.8257  0.01227  0.03227  -0.00634  0.002371  0.4235  0.8284
6.362e+09  -0.05266  0.8576  -0.02391  -0.04293  0.009128  -0.02965  0.6591  0.7044
6.364e+09  0.2801  0.8473  -0.01248  -0.04189  0.01066  0.0006517  0.8754  0.3649
6.365e+09  0.5464  0.702  -0.02385  0.01317  0.04177  0.03098  0.9519  0.08376
6.366e+09  0.8029  0.4752  -0.01081  -0.05075  0.006583  -0.04277  0.9336  -0.2658
6.368e+09  0.9109  0.1368  -0.05583  0.04279  -0.01114  -0.01036  0.7814  -0.5739
6.369e+09  0.8763  -0.1749  0.008328  0.02863  0.006568  0.0178  0.576  -0.7711
6.37e+09  0.834  -0.4403  0.02462  -0.02681  0.01704  -0.05168  0.2499  -0.895
6.371e+09  0.4812  -0.6877  -0.004239  0.0009338  0.01544  -0.01575  -0.06826  -0.9055
6.372e+09  0.3225  -0.8334  -0.001413  -0.008542  0.03546  -0.009906  -0.414  -0.8926
6.374e+09  -0.03807  -0.853  -0.00977  0.01355  0.01065  -0.002319  -0.6882  -0.6453
6.375e+09  -0.2923  -0.7805  -0.005453  0.008391  0.0178  0.007258  -0.8469  -0.4248
6.376e+09  -0.6137  -0.6297  -0.01556  -0.01155  0.02512  0.01357  -0.9551  -0.09268
6.378e+09  -0.7939  -0.4063  -0.0187  -0.03058  -0.01889  0.01624  -0.9393  0.2166
6.379e+09  -0.9139  -0.159  -0.01678  0.004658  0.01956  0.03089  -0.7896  0.5473
6.38e+09  -0.8914  0.1532  -0.02746  -0.009881  0.001678  0.0205  -0.5591  0.7589
6.381e+09  -0.7269  0.4976  -0.007665  0.02299  0.04138  -0.01473  -0.2939  0.896
6.382e+09  -0.5778  0.6913  -0.02079  0.01824  -0.05356  0.02375  0.05428  0.9315
6.384e+09  -0.2511  0.8787  -0.04268  0.02518  -0.0105  0.02805  0.3809  0.9038
6.385e+09  0.0828  0.894  -0.01451  -0.0188  0.01881  0.01975  0.6741  0.6984
6.386e+09  0.3564  0.8104  -0.05258  0.01103  0.008882  -0.02505  0.8227  0.4092
6.388e+09  0.6766  0.6173  0.006941  0.03942  0.01696  -0.01135  0.919  0.1535
6.389e+09  0.8313  0.3473  0.01218  0.001308  0.001749  -0.009725  0.9037  -0.1804
6.39e+09  0.8932  0.06754  -0.02366  0.03997  -0.00601  -0.0009029  0.7811  -0.4768
6.391e+09  0.875  -0.2267  0.01277  0.027  0.0119  -0.01641  0.6132  -0.735
6.392e+09  0.7538  -0.484  0.01378  -0.001243  -0.05459  0.04775  0.2989  -0.8823
6.394e+09  0.5111  -0.7075  0.01904  0.02039  0.01496  0.02712  -0.02638  -0.8993
6.395e+09  0.2399  -0.8965  -0.01175  0.004765  0.02363  0.01999  -0.3225  -0.8967
6.396e+09  -0.1261  -0.8795  0.002939  -0.00509  0.0001268  0.01157  -0.6104  -0.6947
6.398e+09  -0.3947  -0.761  0.01258  0.03745  0.008672  -0.06658  -0.8175  -0.4422
6.399e+09  -0.6183  -0.6518  0.00219  0.02071  -0.005432  -0.02467  -0.9225  -0.1323
6.4e+09  -0.8471  -0.3515  0.005924  -0.03026  -0.03998  0.001096  -0.9097  0.2156
6.401e+09  -0.9033  -0.06546  0.007255  0.009597  -0.01889  -0.04602  -0.7878  0.4369
6.402e+09  -0.8274  0.2542  0.02201  -0.02698  -0.00169  -0.01497  -0.5865  0.6996
6.404e+09  -0.6969  0.5051  -0.00585  0.02474  0.03356  0.01611  -0.2872  0.8803
6.405e+09  -0.4848  0.7618  -0.01662  -0.0219  0.005084  -0.007748  0.001671  0.8807
6.406e+09  -0.1819  0.9147  0.0045  0.01712  -0.02132  -0.01099  0.3062  0.8919
6.408e+09  0.1585  0.8763  0.006158  0.04812  0.02206  0.05556  0.5701  0.699
6.409e+09  0.436  0.7898  -0.006679  -0.03079  0.03408  -0.05382  0.7693  0.4284
6.41e+09  0.6367  0.578  0.01541  0.03497  0.04561  0.0187  0.8496  0.1673
6.411e+09  0.8874  0.3325  -0.01127  -0.01207  0.0009327  0.001485  0.8661  -0.1631
6.412e+09  0.8584  0.07085  0.004927  -0.01378  0.01256  -0.02805  0.7945  -0.3949
6.414e+09  0.8204  -0.2671  -0.01167  -0.008552  0.01817  0.0304  0.5788  -0.6643
6.415e+09  0.741  -0.5247  0.03321  0.001497  -0.007069  -0.009343  0.3691  -0.8277
6.416e+09  0.4689  -0.7386  0.01398  0.003908  0.0131  0.001505  0.02034  -0.8803
6.418e+09  0.183  -0.8754  0.01552  -0.03186  -0.02078  -0.02828  -0.2726  -0.8591
6.419e+09  -0.1593  -0.8494  -0.03278  -0.004578  0.02729  -0.01022  -0.5905  -0.6806
6.42e+09  -0.4523  -0.7819  -0.007615  0.01423  0.01529  0.02325  -0.7572  -0.4163
6.421e+09  -0.6494  -0.5567  0.01885  0.01181  -0.02369  0.0303  -0.8645  -0.1938
6.422e+09  -0.796  -0.2859  0.009633  0.0649  -0.01062  -0.02331  -0.8917  0.07342
6.424e+09  -0.9324  -0.0527  -0.001232  0.02568  -0.03357  -0.01637  -0.7986  0.4052
6.425e+09  -0.7898  0.2846  -0.0006488  -0.007823  -0.05714  -0.02638  -0.599  0.6444
6.426e+09  -0.68  0.5558  -0.03037  -0.002317  0.0286  0.008589  -0.3648  0.8283
6.428e+09  -0.4149  0.7512  -0.0126  -0.004531  0.01604  0.0008282  -0.06054  0.8389
6.429e+09  -0.1651  0.8855  0.03001  0.01147  -0.03314  -0.006055  0.2508  0.8263
6.43e+09  0.1789  0.9151  0.0139  0.02099  -0.04324  0.009551  0.5158  0.689
6.431e+09  0.4647  0.7734  0.03806  -0.01892  -0.01552  -0.02343  0.7139  0.499
6.432e+09  0.6893  0.5612  -0.009822  0.0009836  -0.01712  0.0409  0.8638  0.2497
6.434e+09  0.8749  0.2823  -0.0498  0.009758  -0.007758  -0.03324  0.8505  -0.06673
6.435e+09  0.8583  -0.01902  0.001067  -0.00982  -0.01256  -0.005979  0.7521  -0.3485
6.436e+09  0.8657  -0.2987  -0.008825  -0.01287  0.01228  0.007939  0.6196  -0.5929
6.438e+09  0.7182  -0.5597  -0.02212  -0.001897  -0.007318  -0.03711  0.3562  -0.7686
6.439e+09  0.4226  -0.7285  -0.007914  0.009818  0.03385  0.00197  0.06438  -0.8336
6.44e+09  0.153  -0.8669  0.01139  -0.01134  -0.03682  -0.02976  -0.2582  -0.8024
6.441e+09  -0.1374  -0.8432  0.0184  0.006369  0.005424  -0.01851  -0.5076  -0.688
6.442e+09  -0.4136  -0.7493  -0.0173  0.002564  0.03573  0.00761  -0.7223  -0.4428
6.444e+09  -0.717  -0.5857  0.02526  0.03187  -0.02111  -0.03219  -0.8299  -0.1891
6.445e+09  -0.8581  -0.2662  0.00928  0.004141  -0.01588  0.0004896  -0.8171  0.06075
6.446e+09  -0.9088  0.08136  0.006834  0.03026  0.004727  0.06514  -0.7547  0.3755
6.448e+09  -0.7961  0.32  0.01411  0.03401  -0.03451  0.0326  -0.6178  0.6806
6.449e+09  -0.6562  0.6321  -0.05382  -0.02106  -0.01843  0.002542  -0.3984  0.7735
6.45e+09  -0.4404  0.8005  0.08263  -0.01674  0.009723  -0.01318  -0.08372  0.821
6.451e+09  -0.1341  0.9316  -0.001626  0.004513  -0.02557  0.009969  0.1721  0.8429
6.452e+09  0.2304  0.9154  0.008228  -0.01549  -0.07077  -0.01447  0.4626  0.7295
6.454e+09  0.4554  0.7859  0.03628  -0.007227  -0.05529  -0.04293  0.6486  0.5091
6.455e+09  0.7223  0.5722  -0.0355  -0.007571  -0.002413  0.04073  0.818  0.1999
6.456e+09  0.8374  0.2782  -0.007242  0.01584  -0.0352  -0.01352  0.8527  -0.05801
6.458e+09  0.8629  -0.004971  0.04421  0.03402  0.02101  -0.09413  0.7781  -0.3176
6.459e+09  0.858  -0.3994  0.008855  -0.006883  -0.03139  0.005409  0.5735  -0.5903
6.46e+09  0.6501  -0.588  0.0528  -0.04956  -0.02342  -0.01183  0.3604  -0.7618
6.461e+09  0.3581  -0.759  0.04007  -0.003639  0.03271  0.01001  0.06284  -0.8309
6.462e+09  0.121  -0.8695  -0.06108  -0.04507  -0.01964  -0.0498  -0.2208  -0.782
6.464e+09  -0.1767  -0.9117  0.02664  0.02246  0.007845  -0.03287  -0.4316  -0.6829
6.465e+09  -0.4965  -0.7583  0.01752  -0.02707  0.05775  0.02194  -0.629  -0.4567
6.466e+09  -0.6946  -0.5372  0.004893  0.01262  0.01929  -0.05871  -0.7671  -0.2144
6.468e+09  -0.8111  -0.2257  0.001006  -0.006901  -0.001953  0.01002  -0.8063  0.07274
6.469e+09  -0.8634  0.004315  -0.009317  0.01068  -0.02721  -0.0278  -0.7635  0.3366
6.47e+09  -0.8262  0.37  -0.02904  -0.02591  0.05488  -0.01345  -0.5384  0.5793
6.471e+09  -0.7048  0.6158  0.003536  -0.0221  0.03249  -0.03231  -0.3126  0.7321
6.472e+09  -0.4086  0.7743  0.005549  0.002782  0.002904  0.03811  -0.05355  0.8163
6.474e+09  -0.104  0.9351  0.01168  -0.005515  -3.089e-05  -0.03149  0.2067  0.7619
6.475e+09  0.1845  0.843  0.02092  -0.02639  0.03679  -0.02449  0.4548  0.6279
6.476e+09  0.4769  0.7482  0.01514  0.007684  0.01423  0.001638  0.6829  0.4829
6.478e+09  0.71  0.5712  -0.001543  -0.01424  -0.05432  0.01595  0.7554  0.2009
6.479e+09  0.873  0.235  0.0322  0.01686  -0.03447  0.01553  0.762  -0.05621
6.48e+09  0.8944  -0.06657  -0.01424  0.03275  0.04064  0.04818  0.7063  -0.3439
6.481e+09  0.8546  -0.2702  0.02758  0.004162  -0.009113  -0.006467  0.5278  -0.5625
6.482e+09  0.6592  -0.6146  -0.02312  -0.02936  -0.01295  0.004103  0.2868  -0.7058
6.484e+09  0.4014  -0.7934  -0.01369  0.01934  0.02801  0.04529  0.04593  -0.7534
6.485e+09  0.07387  -0.9261  -0.003026  0.03983  -0.009806  0.01801  -0.198  -0.7218
6.486e+09  -0.1495  -0.9198  -0.02405  0.01763  0.004169  -0.02783  -0.4302  -0.622
6.488e+09  -0.528  -0.7843  0.03129  -0.0439  -0.04941  0.03411  -0.6618  -0.4236
6.489e+09  -0.7251  -0.5559  0.04186  0.03053  0.0001345  0.011  -0.7648  -0.1742
6.49e+09  -0.8736  -0.2719  0.0177  0.03401  -0.008715  0.01892  -0.765  0.07915
6.491e+09  -0.9638  0.08611  0.02754  -0.006357  0.003385  0.006962  -0.6689  0.3638
6.492e+09  -0.903  0.4181  -0.0139  -0.001857  -0.02193  0.003384  -0.4791  0.5472
6.494e+09  -0.6509  0.6754  -0.01994  -0.01528  -0.05652  -0.0349  -0.2697  0.7042
6.495e+09  -0.3819  0.8107  0.006115  -0.003815  0.01613  -0.01075  -0.06539  0.789
6.496e+09  -0.1065  0.9474  -0.02458  0.007179  -0.00403  -0.009425  0.191  0.7272
6.498e+09  0.2423  0.8944  -0.002227  -0.01323  -0.02295  0.01415  0.3919  0.5954
6.499e+09  0.5254  0.7578  0.003126  0.01791  -0.09426  -0.01023  0.6547  0.4027
6.5e+09  0.7687  0.5098  -0.001937  -0.02604  -0.01601  0.04266  0.7464  0.1729
6.501e+09  0.8785  0.2614  -0.01393  -0.01403  0.03285  -0.0336  0.7262  -0.0945
6.502e+09  0.9531  -0.06676  0.03713  0.01747  -0.03872  0.05613  0.68  -0.3754
6.504e+09  0.8377  -0.4293  0.005379  -0.02591  -0.02746  -0.003344  0.4555  -0.5599
6.505e+09  0.6253  -0.6793  -0.01945  0.01136  0.02729  0.009132  0.3071  -0.7524
6.506e+09  0.3758  -0.8987  0.002901  0.01308  0.04742  0.02756  0.03759  -0.7407
6.508e+09  0.03982  -0.9653  0.007327  -0.0003335  -0.01666  0.001783  -0.1958  -0.6919
6.509e+09  -0.2923  -0.9263  0.03894  0.02235  0.0206  0.02127  -0.4837  -0.5873
6.51e+09  -0.5793  -0.7469  0.01178  -0.0006736  -0.009391  0.01422  -0.6678  -0.4157
6.511e+09  -0.7998  -0.4547  -0.0005751  0.02016  0.002538  0.03728  -0.7638  -0.1588
6.512e+09  -0.9261  -0.1997  0.01928  0.01131  -0.06262  -0.01282  -0.7201  0.1228
6.514e+09  -0.9388  0.1414  -0.003534  -0.03392  0.003888  -0.003093  -0.6456  0.3596
6.515e+09  -0.8396  0.4783  -0.01937  0.05087  -0.001444  -0.02239  -0.4872  0.5809
6.516e+09  -0.649  0.6964  0.0001851  0.00974  0.04678  -0.001747  -0.2274  0.6722
6.518e+09  -0.3031  0.8786  0.009586  0.01341  -0.00479  0.02093  0.006921  0.7356
6.519e+09  -0.02859  0.984  0.002302  0.004849  0.03106  0.03988  0.2274  0.6359
6.52e+09  0.3365  0.8402  0.02337  0.04178  -0.019  0.005479  0.485  0.5401
6.521e+09  0.602  0.7303  0.01179  0.0101  0.04753  0.01609  0.6497  0.3332
6.522e+09  0.8784  0.4843  -0.0005529  -0.0002632  0.0405  0.003079  0.7023  0.08269
6.524e+09  0.9551  0.191  -0.0007906  -0.02456  0.003128  0.06989  0.7156  -0.1663
6.525e+09  0.9752  -0.2355  -0.006069  0.01355  -0.004024  0.002033  0.5823  -0.4157
6.526e+09  0.8267  -0.4791  0.006173  -0.003841  0.05299  0.01127  0.4451  -0.5991
6.528e+09  0.5831  -0.758  -0.002652  0.01253  0.05739  0.01998  0.2048  -0.6816
6.529e+09  0.2411  -0.9144  0.01726  0.003441  -0.03151  0.05577  -0.02278  -0.7155
6.53e+09  -0.02416  -0.9839  -0.01881  -0.01209  -0.008125  -0.01895  -0.2607  -0.6385
6.531e+09  -0.4259  -0.9306  -0.02885  0.01635  0.04196  0.03297  -0.4667  -0.4866
6.532e+09  -0.7078  -0.6817  0.02599  0.006965  0.008298  0.01227  -0.6232  -0.3021
6.534e+09  -0.8904  -0.3885  -0.009495  -0.01975  0.02411  -0.03056  -0.6414  -0.05833
6.535e+09  -0.9933  -0.0716  -0.003824  -0.02299  0.003988  0.06119  -0.6087  0.06622
6.536e+09  -0.9631  0.258  0.013  0.03684  0.03487  0.03783  -0.5726  0.2876
6.538e+09  -0.7879  0.6084  -0.01072  -0.02156  0.01686  -0.01267  -0.4297  0.4645
6.539e+09  -0.4844  0.8647  0.02814  -0.0175  0.04912  -0.004788  -0.2535  0.6252
6.54e+09  -0.1956  0.9691  -0.006743  0.01082  0.003084  -0.06777  -0.06493  0.6578
6.541e+09  0.1349  0.9166  -0.02274  0.006074  -0.01864  0.003518  0.1727  0.639
6.542e+09  0.4425  0.8371  -0.007474  0.005778  0.01185  -0.03352  0.4263  0.5896
6.544e+09  0.7894  0.5955  0.01624  -0.006434  -0.005401  -0.009732  0.5995  0.3947
6.545e+09  0.9159  0.357  0.01257  -0.00498  0.007855  -0.03538  0.7027  0.1978
6.546e+09  1.001  -0.006598  0.03266  0.001728  -0.0008119  0.006946  0.7373  -0.07452
6.548e+09  0.9095  -0.391  0.02614  0.0087  -0.03764  -0.02424  0.6582  -0.3097
6.549e+09  0.7604  -0.6388  0.02378  -0.005413  -0.02359  0.03351  0.5251  -0.5493
6.55e+09  0.4796  -0.8228  0.003284  0.03565  -0.009948  0.003065  0.2977  -0.68
