# Hz S RI R 50
6.25e+09  -0.8169  0.05615  -0.01285  -0.01806  0.0004248  -0.02455  0.1589  0.4793
6.251e+09  -0.7128  0.2981  -0.01498  0.02502  -0.06232  -0.00501  0.366  0.419
6.252e+09  -0.5906  0.5849  0.01873  -0.00765  -0.04237  -0.0108  0.5502  0.286
6.254e+09  -0.4091  0.6911  0.01854  0.006663  -0.03357  0.025  0.6108  0.02044
6.255e+09  -0.1576  0.7495  0.01279  0.0234  0.0474  0.007139  0.6002  -0.2339
6.256e+09  0.1491  0.8225  0.02099  0.01556  -0.005705  -0.01629  0.4776  -0.4551
6.258e+09  0.4155  0.6816  -0.00695  0.02404  0.01971  -0.05579  0.302  -0.5982
6.259e+09  0.646  0.5185  -0.03106  -0.02022  -0.03378  -0.03553  0.05568  -0.6729
6.26e+09  0.7884  0.2199  -0.023  -0.006114  0.004061  0.00447  -0.2196  -0.6533
6.261e+09  0.8163  0.02573  0.01099  0.003439  0.01945  0.007961  -0.4391  -0.5375
6.262e+09  0.7998  -0.2874  0.02196  0.006802  0.04247  0.02136  -0.6235  -0.3432
6.264e+09  0.5628  -0.5453  -0.004049  -0.01376  -0.03013  0.01793  -0.6775  -0.09355
6.265e+09  0.3783  -0.7066  -0.02018  0.01898  0.001031  -0.07447  -0.7028  0.1461
6.266e+09  0.1274  -0.8377  -0.01853  0.009583  -0.07208  -0.0005407  -0.5893  0.3895
6.268e+09  -0.2096  -0.7765  0.02393  -0.018  0.02399  -0.02451  -0.4123  0.5985
6.269e+09  -0.4403  -0.6956  -0.01206  -0.008228  0.01075  0.03408  -0.2056  0.6918
6.27e+09  -0.6131  -0.5495  0.00352  0.008614  0.07562  -0.001917  0.0499  0.738
6.271e+09  -0.7913  -0.2799  0.003548  0.02413  -0.02398  0.06357  0.3123  0.681
6.272e+09  -0.8309  0.012  0.02541  -0.009361  0.06653  0.01114  0.5561  0.5237
6.274e+09  -0.7757  0.3219  -0.02553  0.009499  -0.01579  0.001614  0.7029  0.3048
6.275e+09  -0.5713  0.5462  0.03228  -0.003475  -0.005945  0.01228  0.7525  0.05558
6.276e+09  -0.4198  0.6811  0.003695  0.02167  0.02685  0.04723  0.7456  -0.2292
6.278e+09  -0.06521  0.7935  -0.001858  -0.002258  -0.03159  0.02255  0.6366  -0.4716
6.279e+09  0.1632  0.7598  -0.01701  0.00398  0.03331  0.003953  0.4132  -0.6258
6.28e+09  0.4689  0.674  0.03239  0.003746  -0.02016  0.02969  0.1816  -0.761
6.281e+09  0.6204  0.4335  -0.009293  -0.004287  -0.01336  -0.0294  -0.1044  -0.7606
6.282e+09  0.7858  0.231  -0.01664  0.01546  0.05235  -0.02916  -0.3582  -0.6668
6.284e+09  0.7154  -0.09141  -0.00326  -0.02404  -0.07519  -0.1025  -0.5543  -0.5006
6.285e+09  0.7307  -0.3096  -0.02059  0.01832  0.01186  -0.02286  -0.7321  -0.2755
6.286e+09  0.5757  -0.5277  0.01911  0.006337  0.07042  -0.02098  -0.8049  0.0165
6.288e+09  0.3474  -0.7469  0.02188  -0.01712  0.0009221  -0.04051  -0.7496  0.2569
6.289e+09  0.1389  -0.8115  0.0319  -0.009378  0.007064  -0.008723  -0.6329  0.5263
6.29e+09  -0.2096  -0.7981  -0.02249  -0.001929  -0.009803  0.01735  -0.4266  0.6816
6.291e+09  -0.4497  -0.6532  -0.03188  0.001584  0.02008  0.02494  -0.1495  0.7813
6.292e+09  -0.6475  -0.4767  -0.0163  -0.01115  -0.003819  0.02315  0.1478  0.8184
6.294e+09  -0.7678  -0.1835  0.01032  -0.02495  -0.003153  -0.001941  0.3797  0.7238
6.295e+09  -0.8448  0.04969  -0.04133  0.006789  -0.02303  0.005422  0.6136  0.5527
6.296e+09  -0.743  0.3584  0.008026  -0.01697  -0.0008749  -0.02168  0.7634  0.3034
6.298e+09  -0.5052  0.5784  -0.001184  0.01157  -0.03505  -0.00375  0.8032  0.01854
6.299e+09  -0.287  0.7135  -0.005913  0.01003  -0.02681  -0.008353  0.8092  -0.2589
6.3e+09  -0.04836  0.7724  0.004351  -0.03921  -0.003167  -0.02455  0.6511  -0.5197
6.301e+09  0.2434  0.7855  -0.02005  0.0118  -0.01432  0.03112  0.4392  -0.7084
6.302e+09  0.5207  0.5331  -0.008134  0.01898  0.04814  0.03784  0.1512  -0.8466
6.304e+09  0.7065  0.4295  0.005703  0.03518  -0.01313  0.007331  -0.1356  -0.8413
6.305e+09  0.8302  0.157  -0.01314  0.00945  -0.0002408  0.01939  -0.4045  -0.7313
6.306e+09  0.7697  -0.09991  -0.02903  0.02176  -0.0101  0.009079  -0.6462  -0.5494
6.308e+09  0.6835  -0.3769  0.01389  0.008585  0.01187  0.001604  -0.8097  -0.3127
6.309e+09  0.4919  -0.6309  -0.02083  0.01228  -0.02544  -0.02223  -0.8481  -0.01562
6.31e+09  0.3163  -0.7542  -0.01127  -0.004743  -0.0136  -0.009202  -0.8388  0.264
6.311e+09  0.01898  -0.8544  -0.02186  0.02658  -0.04019  -0.01118  -0.6636  0.5321
6.312e+09  -0.3037  -0.7688  0.006524  0.003105  0.0429  -0.003516  -0.4635  0.7614
6.314e+09  -0.5521  -0.6107  0.02028  0.008697  -0.02469  -0.006404  -0.1648  0.8578
6.315e+09  -0.7441  -0.4167  -0.02191  -0.01456  0.02021  -0.009292  0.1563  0.8252
6.316e+09  -0.7912  -0.106  0.0154  0.0007481  0.0484  0.02069  0.4194  0.7512
6.318e+09  -0.8331  0.2041  -0.0194  -0.008675  0.03148  -0.06388  0.6781  0.5887
6.319e+09  -0.6813  0.461  0.03002  -0.02659  0.03447  0.0518  0.8152  0.3231
6.32e+09  -0.4644  0.6178  -0.01614  -0.002752  -0.01143  -0.01802  0.8604  0.01719
6.321e+09  -0.2417  0.7622  -0.01716  0.02624  -0.02209  0.01172  0.8282  -0.2961
6.322e+09  0.04821  0.8036  -0.01934  -0.02976  -0.005972  -0.00514  0.6765  -0.5537
6.324e+09  0.3378  0.7656  -0.004864  0.02627  0.01109  -0.00101  0.4672  -0.7684
6.325e+09  0.5575  0.6281  0.02259  0.006804  -0.0321  -0.003076  0.2225  -0.8755
6.326e+09  0.7247  0.3884  0.02139  -0.007933  0.003404  -0.008676  -0.1581  -0.8629
6.328e+09  0.8395  0.08558  -0.008675  0.01319  0.02485  -0.04385  -0.4248  -0.8518
6.329e+09  0.865  -0.2189  0.00465  0.02817  0.007021  -0.03871  -0.6512  -0.5965
6.33e+09  0.7147  -0.4849  0.01312  0.03367  0.01405  -0.02797  -0.8517  -0.3571
6.331e+09  0.449  -0.7086  -0.02464  -0.02611  -0.006638  -0.0218  -0.8948  -0.01333
6.332e+09  0.1992  -0.7841  -0.01543  0.02367  -0.008136  0.04383  -0.8547  0.3058
6.334e+09  -0.1088  -0.8468  -0.007733  -0.004764  -0.02095  -0.03857  -0.7451  0.5584
6.335e+09  -0.3832  -0.7465  -0.02076  -0.01581  0.01685  -0.02234  -0.4891  0.8026
6.336e+09  -0.6592  -0.6329  0.001175  -0.01157  -0.0004965  -0.007687  -0.2069  0.8791
6.338e+09  -0.806  -0.305  -0.02342  0.006353  -0.02169  -0.01324  0.1244  0.9072
6.339e+09  -0.8482  -0.07085  0.01039  -0.05196  0.002629  0.01806  0.4354  0.8284
6.34e+09  -0.7848  0.2892  -0.00713  -0.01503  0.03687  0.0007628  0.6927  0.6304
6.341e+09  -0.7157  0.4907  0.02599  -0.01968  -0.01314  -0.03323  0.8476  0.3529
6.342e+09  -0.4205  0.7165  0.008606  -0.006976  -0.02333  -0.01947  0.9158  0.06389
6.344e+09  -0.1735  0.8379  0.03005  0.03097  0.01944  0.005468  0.8932  -0.2535
6.345e+09  0.1693  0.8329  -0.005885  -0.03538  -0.0414  0.05742  0.7584  -0.5886
6.346e+09  0.4854  0.6935  0.03068  -0.02042  0.02609  -0.04983  0.4808  -0.767
6.348e+09  0.6802  0.5047  -0.01169  0.02063  0.005905  -0.006373  0.1837  -0.9309
6.349e+09  0.8376  0.2284  0.0007588  0.02351  -0.007821  -0.01758  -0.0893  -0.9342
6.35e+09  0.8682  -0.04753  0.03021  0.004886  -0.003894  -0.04481  -0.4069  -0.8465
6.351e+09  0.7979  -0.3848  -0.02392  0.00149  0.01941  -0.01814  -0.6547  -0.663
6.352e+09  0.6214  -0.6255  0.001652  -0.0159  -0.01484  -0.04266  -0.876  -0.3413
6.354e+09  0.3227  -0.7686  -0.02205  0.003592  0.01011  -0.04926  -0.939  -0.07222
6.355e+09  0.06956  -0.8742  -0.005929  0.007277  0.01441  -0.0291  -0.8662  0.2607
6.356e+09  -0.3018  -0.8208  -0.008417  -0.006553  -0.0234  0.02744  -0.7731  0.5175
6.358e+09  -0.5068  -0.7342  0.02885  -0.004192  -0.01799  -0.007056  -0.5414  0.7691
6.359e+09  -0.7009  -0.4249  0.01629  0.0008403  0.008813  -0.01494  -0.2209  0.9282
6.36e+09  -0.8107  -0.1918  -0.002778  0.02486  -0.04613  -0.01058  0.07569  0.9362
6.361e+09  -0.8464  0.1471  -0.01537  -0.003963  -0.05148  0.005419  0.4024  0.8879
6.362e+09  -0.7253  0.4192  0.01299  0.02448  0.02452  0.02679  0.6688  0.6597
6.364e+09  -0.5825  0.6827  0.0001343  0.005936  0.03292  -0.02715  0.835  0.3691
6.365e+09  -0.2526  0.7856  0.02026  -0.002367  0.01037  0.02079  0.8975  0.0606
6.366e+09  -0.01045  0.8988  0.02793  0.0003578  0.005487  0.01272  0.9373  -0.2105
6.368e+09  0.2941  0.7827  -0.03459  -0.006349  0.03912  0.03738  0.8003  -0.5166
6.369e+09  0.5726  0.6603  0.01464  -0.001111  -0.001907  -0.02216  0.5655  -0.7802
6.37e+09  0.7129  0.3974  -0.03375  0.03367  -0.04317  0.006451  0.2182  -0.9143
6.371e+09  0.9015  0.1237  -0.04333  -0.02417  -0.02568  0.02646  -0.07985  -0.9234
6.372e+09  0.8096  -0.227  0.02138  -0.0002342  -0.009679  0.01647  -0.3818  -0.8692
6.374e+09  0.7118  -0.5221  -0.02186  -0.0294  0.00296  -0.05307  -0.6683  -0.6644
6.375e+09  0.5006  -0.6813  0.009209  -0.01468  -0.0338  0.05367  -0.8545  -0.3981
6.376e+09  0.256  -0.8477  -0.001493  -0.04081  -0.01155  -0.02187  -0.9343  -0.1186
6.378e+09  -0.07274  -0.8743  0.006108  -0.009877  0.02204  0.02132  -0.9422  0.2403
6.379e+09  -0.4134  -0.8496  -0.003135  0.02261  0.0009398  0.04662  -0.7611  0.5448
6.38e+09  -0.6406  -0.5985  -0.02599  0.05053  -0.009786  0.01477  -0.5247  0.7569
6.381e+09  -0.8161  -0.3397  -0.01071  0.05776  -0.0133  0.04724  -0.3125  0.8766
6.382e+09  -0.8934  0.003135  0.004419  0.01863  -0.01306  -0.01686  0.08313  0.945
6.384e+09  -0.8574  0.3042  -0.02019  -0.01565  0.003571  -0.04932  0.3816  0.8683
6.385e+09  -0.7071  0.5456  0.04054  0.003062  0.0001647  -0.006992  0.6199  0.6872
6.386e+09  -0.4761  0.7337  0.02042  -0.008623  -0.02125  -0.01853  0.8341  0.4356
6.388e+09  -0.08394  0.8778  0.0218  0.01124  0.02956  0.03544  0.9403  0.1374
6.389e+09  0.1685  0.8421  0.01216  0.03799  -0.01356  0.05416  0.9052  -0.206
6.39e+09  0.4631  0.7888  -0.04072  -0.01086  0.0134  -0.005227  0.8218  -0.5026
6.391e+09  0.7115  0.5124  0.02728  0.014  -0.0158  -0.008076  0.5629  -0.6919
6.392e+09  0.8461  0.2284  0.02279  0.003309  -0.008017  -0.01649  0.2996  -0.8697
6.394e+09  0.905  -0.05301  -0.02307  0.04326  0.02282  0.004878  -0.03025  -0.8808
6.395e+09  0.798  -0.3045  -0.02789  0.008397  0.02445  0.01036  -0.3098  -0.8509
6.396e+09  0.6252  -0.6165  -0.05866  0.0004858  0.01612  0.00433  -0.5728  -0.7004
6.398e+09  0.3985  -0.807  0.00414  -0.03845  0.04921  0.01455  -0.7782  -0.4419
6.399e+09  0.04826  -0.8977  0.04264  -0.0139  -0.02081  0.02023  -0.9015  -0.1384
6.4e+09  -0.2548  -0.8191  0.002817  -0.005987  0.002839  0.01546  -0.8855  0.135
6.401e+09  -0.4632  -0.6512  0.01256  0.03137  -0.0007311  0.04039  -0.7915  0.4457
6.402e+09  -0.7447  -0.4641  -0.01568  0.01937  0.01609  -0.01509  -0.5861  0.69
6.404e+09  -0.8516  -0.1884  -0.02446  0.0324  -0.00156  0.0228  -0.339  0.8826
6.405e+09  -0.9091  0.09491  0.01536  -0.01397  0.03796  0.00488  0.009932  0.9028
6.406e+09  -0.8254  0.3926  0.002133  0.01139  0.03452  -0.04303  0.2807  0.8651
6.408e+09  -0.5778  0.6493  -0.04979  0.005369  -0.02504  -0.01986  0.5967  0.7121
6.409e+09  -0.3112  0.8352  0.005471  -0.02725  0.01717  0.008939  0.8302  0.4655
6.41e+09  -0.0401  0.8792  0.03717  0.05355  -0.01517  0.0323  0.8787  0.1885
6.411e+09  0.2687  0.8007  0.008382  0.0002686  -0.004741  0.009391  0.9143  -0.1611
6.412e+09  0.5153  0.6587  0.02423  -0.02299  -0.04043  -0.01  0.8112  -0.4565
6.414e+09  0.7058  0.4255  -0.01813  -0.02928  -0.01499  -0.02487  0.5881  -0.6536
6.415e+09  0.9126  0.1522  -0.01787  -0.008212  -0.004926  0.0149  0.3564  -0.8299
6.416e+09  0.8613  -0.1408  -0.01602  -0.008626  0.009373  -0.02028  -0.003865  -0.8533
6.418e+09  0.7385  -0.4223  0.004188  0.009104  -0.003917  0.001372  -0.2732  -0.8797
6.419e+09  0.5718  -0.6494  -0.0151  -0.01536  -0.02107  -0.02181  -0.5389  -0.7324
6.42e+09  0.2756  -0.8217  0.02295  0.03034  0.01276  -0.05952  -0.7873  -0.4821
6.421e+09  -0.04955  -0.8991  -0.01105  0.0001347  0.02639  0.02306  -0.8826  -0.2206
6.422e+09  -0.3439  -0.7758  0.01774  0.01349  -0.01252  -0.01604  -0.8562  0.08835
6.424e+09  -0.5828  -0.6572  0.0003965  -0.005904  -0.01663  0.01594  -0.7323  0.3777
6.425e+09  -0.7561  -0.3827  0.005033  -0.02604  -0.02585  0.01979  -0.6062  0.6149
6.426e+09  -0.8649  -0.124  -0.01405  -0.001086  0.05616  0.03405  -0.3082  0.7799
6.428e+09  -0.8359  0.203  0.01933  0.02054  -0.004004  -0.008838  -0.03792  0.8631
6.429e+09  -0.6931  0.4936  0.01276  0.03581  -0.003214  -0.0006174  0.2255  0.8226
6.43e+09  -0.5363  0.6581  0.0423  -0.02447  -0.007461  -0.02717  0.5313  0.6931
6.431e+09  -0.1803  0.8231  -0.000846  0.01822  -0.006801  -0.008602  0.7098  0.4598
6.432e+09  0.06286  0.8396  -0.0219  -0.02127  0.03347  0.01314  0.8427  0.1843
6.434e+09  0.3566  0.7519  0.03295  0.002632  0.008905  -0.009964  0.8767  -0.08972
6.435e+09  0.6203  0.6528  -0.01262  0.01992  -0.008264  0.01445  0.7721  -0.3824
6.436e+09  0.7967  0.3355  -0.008096  -0.002989  -0.0173  0.02905  0.5734  -0.6079
6.438e+09  0.8867  0.01628  0.001733  0.01824  0.01975  0.005069  0.3465  -0.7862
6.439e+09  0.839  -0.2408  -0.02814  -0.01285  -0.007085  -0.05879  0.08497  -0.8582
6.44e+09  0.693  -0.4422  0.0111  0.02543  -0.01624  0.02742  -0.2247  -0.8248
6.441e+09  0.4275  -0.7401  -0.02365  -0.0124  0.01501  -0.007719  -0.4682  -0.679
6.442e+09  0.1867  -0.8654  -0.05867  -0.0005353  0.01251  0.033  -0.7463  -0.4831
6.444e+09  -0.1318  -0.8374  -0.01611  0.004606  0.02186  -0.02463  -0.8257  -0.2307
6.445e+09  -0.3661  -0.6815  -0.008799  -0.009295  0.02374  -0.03067  -0.8703  0.1107
6.446e+09  -0.5944  -0.5845  -0.01054  -0.06635  -0.01488  -0.0214  -0.7176  0.3895
6.448e+09  -0.7815  -0.3346  0.0005019  -0.005698  0.01024  -0.04891  -0.5879  0.5937
6.449e+09  -0.8831  -0.01615  0.01021  0.008438  -0.003881  0.01394  -0.4088  0.7203
6.45e+09  -0.8454  0.2594  -0.03094  -0.01681  -0.02459  0.008368  -0.09383  0.8592
6.451e+09  -0.689  0.5691  0.02306  0.02299  -0.02597  0.03682  0.2219  0.7881
6.452e+09  -0.4927  0.755  -0.04085  0.01537  -0.006075  0.01386  0.4902  0.6941
6.454e+09  -0.138  0.8493  0.008151  -0.02437  0.01144  0.0001549  0.6217  0.454
6.455e+09  0.1383  0.8152  -0.02694  -0.004103  0.01526  -0.02124  0.7893  0.213
6.456e+09  0.3978  0.8056  0.018  -0.006252  -0.01633  0.03986  0.8411  -0.09341
6.458e+09  0.6814  0.546  -0.007279  0.01268  -0.01878  -0.001897  0.7235  -0.3426
6.459e+09  0.8658  0.2895  0.0207  0.02914  -0.03271  -0.03477  0.6042  -0.5693
6.46e+09  0.8137  -0.04726  -0.009121  0.01107  0.0307  -0.0006534  0.3987  -0.7677
6.461e+09  0.7924  -0.2482  -0.02361  0.005769  -0.008971  -0.03239  0.04031  -0.8111
6.462e+09  0.6443  -0.544  -0.04429  0.04563  0.04768  0.02999  -0.2101  -0.7442
6.464e+09  0.4551  -0.7447  0.003451  -0.0707  0.001842  0.007956  -0.4063  -0.6502
6.465e+09  0.129  -0.7834  0.03846  0.01357  -0.06148  0.001719  -0.6498  -0.4301
6.466e+09  -0.1921  -0.8426  0.0006365  -0.02799  0.03057  0.009004  -0.7847  -0.183
6.468e+09  -0.413  -0.688  -0.01737  0.008238  0.02353  -0.005575  -0.7712  0.0966
6.469e+09  -0.6204  -0.5392  0.02255  -0.02065  -0.02473  -0.009033  -0.689  0.3435
6.47e+09  -0.8016  -0.3318  0.06233  -0.005461  0.004149  0.03009  -0.5877  0.5297
6.471e+09  -0.841  0.02857  -0.02274  -0.005845  0.0223  0.03646  -0.3361  0.7296
6.472e+09  -0.7825  0.2999  0.03062  -0.03814  -0.05421  -0.002791  -0.06842  0.7695
6.474e+09  -0.6276  0.577  0.0009294  0.01532  0.02211  -0.0349  0.2109  0.7437
6.475e+09  -0.3639  0.7648  -0.03584  0.02077  -0.002197  -0.00631  0.4848  0.6363
6.476e+09  -0.1825  0.8545  -0.001731  -0.02223  -0.03064  -0.031  0.6619  0.4493
6.478e+09  0.1721  0.8341  0.04724  -0.004372  0.06491  0.007252  0.7806  0.2133
6.479e+09  0.3943  0.772  -0.01047  -0.01172  0.004192  -0.02117  0.7353  -0.05897
6.48e+09  0.6763  0.529  -0.00681  -0.01478  -0.007895  0.03334  0.709  -0.3576
6.481e+09  0.8176  0.2531  -0.02983  -0.01141  -0.004033  0.008518  0.5408  -0.5178
6.482e+09  0.8677  0.01277  0.00121  0.0001594  0.03245  -0.04116  0.3345  -0.7422
6.484e+09  0.8295  -0.3329  -0.01553  -0.02504  -0.009637  0.01374  0.04576  -0.8064
6.485e+09  0.6382  -0.5863  0.009439  -0.01449  0.04621  -0.03614  -0.2298  -0.7257
6.486e+09  0.3862  -0.753  -0.01034  0.01326  -0.01477  -0.01319  -0.4247  -0.6353
6.488e+09  0.1416  -0.8346  0.005105  0.02672  0.02174  -0.04518  -0.6276  -0.438
6.489e+09  -0.2221  -0.8216  0.03797  0.035  -0.005306  0.03227  -0.7623  -0.1933
6.49e+09  -0.4472  -0.6629  0.01024  0.02948  0.06134  -0.01091  -0.7774  0.109
6.491e+09  -0.6988  -0.541  0.03275  -0.001201  -0.002657  -0.004908  -0.754  0.3618
6.492e+09  -0.8421  -0.2799  0.04513  0.01083  0.007784  -0.0731  -0.5364  0.5718
6.494e+09  -0.8  0.05408  0.00818  0.001987  -0.02576  0.0179  -0.2694  0.7003
6.495e+09  -0.815  0.3792  0.007886  -0.002977  0.008187  0.02236  -0.06214  0.7545
6.496e+09  -0.6632  0.5966  -0.06142  0.03904  -0.009604  0.02839  0.2343  0.7535
6.498e+09  -0.3362  0.8307  -0.0122  0.001455  0.0247  0.02888  0.4468  0.6141
6.499e+09  -0.07151  0.8383  0.01103  -0.01496  0.07012  0.01017  0.6519  0.4062
6.5e+09  0.1769  0.8428  0.02351  -0.02322  0.004283  -0.009493  0.7178  0.1321
6.501e+09  0.4249  0.7572  0.02343  -0.02708  -0.05076  -0.0446  0.7703  -0.119
6.502e+09  0.7262  0.5494  -0.0134  -0.006111  0.06488  0.01446  0.6471  -0.3748
6.504e+09  0.828  0.2056  0.02034  -0.00662  -0.01975  0.04577  0.533  -0.5649
6.505e+09  0.8992  -0.07531  0.01041  -0.007979  0.04584  -0.04776  0.2823  -0.7314
6.506e+09  0.8122  -0.3104  -0.009928  0.04299  0.04999  0.01711  0.05978  -0.781
6.508e+09  0.6145  -0.574  -0.01847  0.005217  0.01095  0.006219  -0.2565  -0.717
6.509e+09  0.3798  -0.8031  0.01897  0.00291  0.01866  0.0296  -0.4508  -0.6375
6.51e+09  0.07481  -0.9345  0.01202  0.04552  0.04531  0.02194  -0.6459  -0.402
6.511e+09  -0.2272  -0.8629  0.004745  -0.0044  0.009278  -0.04265  -0.6663  -0.1159
6.512e+09  -0.5313  -0.7068  -0.001871  -0.01007  0.0315  -0.0003869  -0.7731  0.1365
6.514e+09  -0.7092  -0.4641  -0.0124  0.04099  -0.01013  -0.001629  -0.6659  0.3804
6.515e+09  -0.8639  -0.2512  -0.01632  0.05174  -0.01451  -0.01748  -0.49  0.5881
6.516e+09  -0.8822  0.1034  -0.01295  -0.04779  0.003246  -0.02726  -0.2376  0.6903
6.518e+09  -0.8499  0.4036  -0.002614  0.01148  0.01185  0.009745  0.053  0.7178
6.519e+09  -0.6019  0.6139  -0.01326  -0.01744  -0.01275  0.01396  0.2883  0.7145
6.52e+09  -0.3522  0.8133  0.009357  0.009481  -0.002106  -0.0212  0.4803  0.5568
6.521e+09  -0.06126  0.9415  -0.008843  0.02206  -0.0215  0.01662  0.6426  0.354
6.522e+09  0.2693  0.8435  -0.009656  0.02806  -0.03281  0.02019  0.7557  0.08819
6.524e+09  0.5837  0.7306  -0.04535  -0.002363  0.01723  0.02264  0.7204  -0.1537
6.525e+09  0.7541  0.4625  -0.02375  -0.02016  -0.009709  0.06523  0.5995  -0.3752
6.526e+09  0.9364  0.1693  -0.00402  0.02494  0.01686  -0.02918  0.3999  -0.5406
6.528e+09  0.9266  -0.1094  -0.007851  0.03085  0.01284  -0.004974  0.2305  -0.7076
6.529e+09  0.8112  -0.389  0.005816  0.02836  -0.008925  0.003976  -0.07213  -0.6847
6.53e+09  0.6406  -0.7207  0.01324  0.0129  -0.001256  -0.03822  -0.2892  -0.5933
6.531e+09  0.3441  -0.9027  -0.01189  -0.008023  0.03553  -0.04894  -0.5086  -0.4955
6.532e+09  -0.004693  -0.9909  -0.01376  0.001717  -0.00362  -0.01625  -0.5763  -0.3101
6.534e+09  -0.374  -0.8391  0.01573  -0.01666  0.01653  -0.0006049  -0.6533  -0.08574
6.535e+09  -0.5802  -0.7078  0.0188  -0.01823  -0.04507  0.002495  -0.6554  0.09188
6.536e+09  -0.827  -0.4581  0.01669  -0.02469  -0.02075  0.002861  -0.5663  0.3146
6.538e+09  -0.9165  -0.1265  -0.0252  -0.02044  0.02412  -0.01114  -0.4252  0.4984
6.539e+09  -0.9377  0.2055  0.02178  -0.02542  -0.05543  -0.02184  -0.284  0.6159
6.54e+09  -0.8229  0.5474  0.005351  -0.01285  -0.04782  0.002226  -0.04564  0.695
6.541e+09  -0.5529  0.7582  -0.001751  0.03118  0.06717  -0.01323  0.1643  0.644
6.542e+09  -0.2291  0.87  -0.02512  -0.008224  -0.04133  -0.006267  0.4241  0.5807
6.544e+09  0.05321  0.9394  0.03805  -0.005575  -0.05011  0.0001494  0.5761  0.3826
6.545e+09  0.3986  0.9019  -0.005279  -0.01102  -0.03392  0.0108  0.726  0.1355
6.546e+09  0.6304  0.7203  0.008118  0.01953  0.03738  -0.02563  0.709  -0.07127
6.548e+09  0.8464  0.4011  -0.004676  0.02708  -0.00281  0.0317  0.6546  -0.3135
6.549e+09  0.9413  0.08496  -0.002643  -0.01224  0.001633  0.01519  0.5024  -0.5661
6.55e+09  0.8786  -0.2579  -0.00551  0.01207  0.02603  -0.05036  0.2828  -0.6448
