# Hz S RI R 50
6.25e+09  -0.4339  0.7704  0.02345  0.01667  -0.002187  0.01447  0.1583  0.444
6.251e+09  -0.1765  0.8503  -0.01423  -0.002314  -0.03081  0.004673  0.3336  0.3965
6.252e+09  0.1655  0.8075  -0.02784  -0.03126  0.02549  0.0633  0.548  0.2493
6.254e+09  0.418  0.7028  0.01987  0.01267  -0.005941  0.00294  0.5664  0.01154
6.255e+09  0.6526  0.5143  -0.008826  0.01263  0.01086  0.002143  0.5829  -0.2058
6.256e+09  0.8181  0.2834  -0.005156  0.01962  0.01151  0.01705  0.4659  -0.4372
6.258e+09  0.842  -0.02185  0.005302  -0.00281  -0.0271  0.03353  0.3094  -0.5854
6.259e+09  0.7527  -0.2562  -0.003531  -0.009075  -0.01823  -0.02238  0.03104  -0.6736
6.26e+09  0.6244  -0.5124  -0.02253  -0.009552  0.006234  0.0499  -0.2259  -0.6554
6.261e+09  0.397  -0.7298  -0.007849  0.02453  -0.01991  -0.02134  -0.4312  -0.4954
6.262e+09  0.1234  -0.7936  -0.03084  -0.02892  0.03531  -0.0617  -0.5697  -0.3821
6.264e+09  -0.1964  -0.8096  -0.01357  -0.009415  0.03012  -0.02056  -0.7183  -0.08959
6.265e+09  -0.4399  -0.721  -0.001257  -0.01237  -0.02519  0.02047  -0.6993  0.1815
6.266e+09  -0.656  -0.513  -0.003519  0.01006  -0.0192  0.003133  -0.6082  0.388
6.268e+09  -0.7915  -0.2207  -0.01988  -0.01025  -0.01801  0.03492  -0.4193  0.5796
6.269e+09  -0.8939  0.02444  0.003499  -0.03251  -0.04493  0.03816  -0.1979  0.7118
6.27e+09  -0.7625  0.3134  0.01561  0.01143  -0.02896  -0.04014  0.07984  0.7458
6.271e+09  -0.6376  0.5432  0.01279  -0.03868  -0.01517  0.007192  0.3249  0.6677
6.272e+09  -0.3738  0.7556  0.03961  -0.05143  0.04314  0.08012  0.5556  0.5261
6.274e+09  -0.1262  0.8148  0.009425  -0.005468  -0.01373  -0.0004924  0.7006  0.3428
6.275e+09  0.187  0.8267  0.00418  -0.02679  -0.02546  -0.02719  0.7635  0.06357
6.276e+09  0.4322  0.698  0.02246  0.001305  0.01582  0.05029  0.7195  -0.2555
6.278e+09  0.6984  0.4933  -0.006848  0.005538  -0.03097  -0.026  0.6156  -0.4295
6.279e+09  0.7915  0.237  0.003135  -0.01701  -0.02188  0.0282  0.435  -0.6401
6.28e+09  0.7979  -0.1006  -0.002709  0.002231  0.04613  -0.02674  0.1652  -0.7542
6.281e+09  0.7533  -0.3267  0.03647  0.01016  0.06216  -0.01231  -0.1287  -0.8211
6.282e+09  0.6284  -0.5514  0.02424  0.008569  0.01468  -0.03222  -0.3652  -0.6696
6.284e+09  0.3899  -0.7416  0.005343  -0.001851  0.002044  -0.006928  -0.5755  -0.5258
6.285e+09  0.07733  -0.8815  -0.04292  0.02111  -0.05554  -0.04596  -0.7601  -0.2555
6.286e+09  -0.1821  -0.7655  0.006668  0.01874  -0.02996  0.02242  -0.8278  -0.03147
6.288e+09  -0.4953  -0.6856  0.001585  0.03148  0.00887  -0.003586  -0.7432  0.2583
6.289e+09  -0.6619  -0.4777  0.02305  -0.04257  -0.05032  -0.03265  -0.6148  0.5066
6.29e+09  -0.8119  -0.2626  0.004656  -0.0006828  -0.004637  0.02102  -0.4098  0.7021
6.291e+09  -0.8136  0.0623  -0.009113  0.03343  0.02661  -0.02499  -0.1612  0.7658
6.292e+09  -0.769  0.336  -0.01073  -0.005836  0.003674  -0.008207  0.1695  0.8255
6.294e+09  -0.5619  0.5902  0.002346  0.004638  0.0249  0.01767  0.3986  0.7094
6.295e+09  -0.3028  0.7144  0.04477  0.01632  -0.01899  0.01413  0.6075  0.5439
6.296e+09  -0.07995  0.8547  -0.005494  -0.002774  0.02953  0.008862  0.7619  0.3049
6.298e+09  0.2053  0.7799  -0.0039  0.02613  -0.02759  -0.002803  0.8008  0.01682
6.299e+09  0.4685  0.6366  0.004587  -0.01695  0.01348  -0.003122  0.8101  -0.2754
6.3e+09  0.6943  0.4754  -0.02022  -0.01344  -0.02582  -0.02806  0.6385  -0.5256
6.301e+09  0.8028  0.1384  -0.001536  -0.005045  -0.01011  0.03525  0.4147  -0.7156
6.302e+09  0.8465  -0.08376  -0.001744  -0.004072  0.01211  -0.004493  0.1602  -0.8371
6.304e+09  0.7439  -0.3522  0.005834  -0.01748  -0.0386  -0.01448  -0.1509  -0.8502
6.305e+09  0.5788  -0.6393  -0.001973  -0.001874  0.0106  0.0006109  -0.4045  -0.7293
6.306e+09  0.2987  -0.7691  -0.03305  0.02775  0.01548  0.05456  -0.6494  -0.5684
6.308e+09  0.03786  -0.8236  -0.01383  -0.002596  -0.01147  0.01628  -0.7802  -0.284
6.309e+09  -0.262  -0.7704  -0.04144  -0.03165  -0.01621  -0.004874  -0.8548  -0.04144
6.31e+09  -0.5122  -0.679  0.006932  0.001483  0.002932  0.01026  -0.811  0.2858
6.311e+09  -0.7053  -0.4802  0.007162  -0.005865  0.001278  -0.0603  -0.663  0.5474
6.312e+09  -0.8484  -0.1604  0.0204  0.009955  0.01754  0.0113  -0.4586  0.7352
6.314e+09  -0.8348  0.1532  0.01204  0.009472  0.02933  -0.04777  -0.2055  0.8566
6.315e+09  -0.7038  0.4238  0.005833  -0.02133  0.006261  -0.003466  0.1175  0.8437
6.316e+09  -0.5683  0.6165  0.003328  -0.01267  -0.03393  0.04313  0.4111  0.7682
6.318e+09  -0.3339  0.7888  -0.006799  -0.002679  -0.01507  -0.01386  0.6796  0.5734
6.319e+09  0.03726  0.8246  0.00813  -0.002276  -0.0429  -0.02498  0.8153  0.3003
6.32e+09  0.2526  0.7989  -0.02598  0.01269  0.006723  0.01668  0.8899  0.01229
6.321e+09  0.5318  0.6578  -0.01145  0.01059  -0.01447  -0.04242  0.8445  -0.2753
6.322e+09  0.7174  0.4014  0.01943  -0.001446  -0.02643  -0.001273  0.6671  -0.5739
6.324e+09  0.9087  0.08017  -0.009832  0.01805  0.009824  0.005781  0.4465  -0.7574
6.325e+09  0.858  -0.1917  -0.02426  -0.004987  0.005415  -0.03295  0.1754  -0.9077
6.326e+09  0.642  -0.444  -0.01009  -0.0356  0.04859  0.008537  -0.1638  -0.9037
6.328e+09  0.5021  -0.6779  -0.01169  -0.04638  0.03789  0.06886  -0.396  -0.7749
6.329e+09  0.3015  -0.8223  -0.00854  0.001322  0.006721  0.0172  -0.6871  -0.5816
6.33e+09  -0.0162  -0.8498  0.02087  0.0264  -0.0138  -0.02538  -0.8538  -0.3727
6.331e+09  -0.3636  -0.7698  -0.008945  -0.03082  0.01696  -0.01069  -0.8748  -0.005267
6.332e+09  -0.6227  -0.6438  0.03244  -0.01796  0.0008412  -0.01574  -0.8273  0.267
6.334e+09  -0.7516  -0.3823  -0.002572  0.02438  0.00596  0.04097  -0.7507  0.5898
6.335e+09  -0.8376  -0.09047  0.01317  -0.006502  -0.04401  -0.01024  -0.5181  0.8084
6.336e+09  -0.8411  0.2636  -0.002852  -0.005971  -0.02607  0.04706  -0.1988  0.8559
6.338e+09  -0.66  0.5112  -0.00372  -0.02511  -0.07489  -0.01371  0.1256  0.8883
6.339e+09  -0.4693  0.7575  0.01236  -0.004125  -0.02194  -0.03345  0.4155  0.7755
6.34e+09  -0.1877  0.8724  -0.005676  -0.005697  0.01496  0.01434  0.6835  0.6083
6.341e+09  0.1133  0.8633  0.01896  -0.02367  -0.03252  -0.06498  0.843  0.3696
6.342e+09  0.3799  0.8022  0.00542  -0.03817  0.03648  0.01353  0.9385  0.06334
6.344e+09  0.6782  0.5588  0.01817  0.003223  -0.01403  -0.01209  0.9063  -0.2772
6.345e+09  0.8265  0.3359  -0.002508  -0.00597  -0.02022  0.03062  0.7662  -0.5452
6.346e+09  0.8436  0.00569  0.01753  0.01034  -0.006295  0.01656  0.493  -0.7714
6.348e+09  0.8554  -0.2546  -0.01878  -0.001462  0.03583  0.01322  0.2229  -0.9162
6.349e+09  0.6727  -0.5712  -0.02299  -0.05415  -0.0004975  0.002344  -0.1216  -0.9125
6.35e+09  0.4334  -0.7131  0.03172  -0.06794  0.003009  -0.01178  -0.4244  -0.8291
6.351e+09  0.1339  -0.8822  -0.02827  0.03052  -0.01845  0.02796  -0.7206  -0.6248
6.352e+09  -0.153  -0.8383  0.008034  0.0005255  -0.007142  0.005475  -0.8577  -0.3513
6.354e+09  -0.4741  -0.768  -0.022  -0.01342  0.03887  -0.01066  -0.895  -0.06597
6.355e+09  -0.6484  -0.5297  0.0166  -0.03338  -0.02058  -0.01184  -0.9123  0.258
6.356e+09  -0.8115  -0.2858  -0.003984  -0.01896  -0.002598  0.05037  -0.757  0.5771
6.358e+09  -0.858  0.03812  -0.002741  -0.001555  -0.01932  -0.01609  -0.5671  0.8136
6.359e+09  -0.8176  0.3062  -0.00951  -0.006047  0.0002203  -0.02539  -0.2144  0.9025
6.36e+09  -0.6193  0.5697  0.03356  0.01692  0.01439  0.04134  0.06663  0.9534
6.361e+09  -0.371  0.7967  0.03686  -0.03089  0.00313  0.0002061  0.4191  0.818
6.362e+09  -0.08433  0.9373  -0.004633  0.04161  0.01018  0.003837  0.6821  0.6275
6.364e+09  0.232  0.8779  0.01815  -0.008257  0.0122  0.006285  0.8802  0.4075
6.365e+09  0.4682  0.7479  0.005864  -0.003796  -0.02363  0.02  0.9417  0.07521
6.366e+09  0.7305  0.4965  -0.02208  -0.01353  0.01607  0.01919  0.8842  -0.2698
6.368e+09  0.8422  0.2277  0.0245  0.02097  -0.02463  0.02581  0.7706  -0.5653
6.369e+09  0.9007  -0.1028  -0.01799  -0.00836  -0.01762  -0.01271  0.548  -0.782
6.37e+09  0.8043  -0.4123  0.01022  -0.01246  -0.02378  -0.02982  0.2439  -0.9127
6.371e+09  0.6397  -0.6631  -0.002146  0.02263  0.03457  0.01743  -0.04675  -0.8995
6.372e+09  0.3472  -0.7889  0.0147  0.0006065  0.0008879  -0.02599  -0.4235  -0.8884
6.374e+09  0.04316  -0.9422  -0.01195  0.006633  -0.0213  -0.02625  -0.6989  -0.6664
6.375e+09  -0.2819  -0.8634  -0.002901  0.03311  0.06288  -0.02423  -0.8121  -0.4109
6.376e+09  -0.5232  -0.7252  0.01  0.007692  0.00456  0.003002  -0.9322  -0.1599
6.378e+09  -0.7397  -0.5097  0.001957  0.01506  -0.008355  0.004595  -0.9187  0.1962
6.379e+09  -0.8188  -0.1594  -0.005108  0.03723  -0.02691  -0.01875  -0.747  0.4796
6.38e+09  -0.8724  0.1437  -0.0219  0.005102  0.02536  -0.002106  -0.5813  0.7414
6.381e+09  -0.7723  0.4072  0.03072  -0.009133  -0.01272  -0.02987  -0.2539  0.8958
6.382e+09  -0.5823  0.6814  0.01247  -0.06027  -0.003473  0.0338  0.05192  0.8911
6.384e+09  -0.3245  0.7643  0.03332  0.006516  0.006471  0.0357  0.4039  0.8551
6.385e+09  -0.004673  0.9081  0.01208  0.04084  -0.005402  -0.0246  0.6717  0.7137
6.386e+09  0.3303  0.8337  0.01622  -0.01185  0.02311  -0.02806  0.8185  0.3892
6.388e+09  0.5727  0.6783  -0.03285  -0.004336  0.01727  -0.005386  0.9287  0.1202
6.389e+09  0.7382  0.4381  -0.01332  0.006258  -0.01702  -0.006177  0.8881  -0.1847
6.39e+09  0.9139  0.1843  0.009211  0.005879  -0.01825  0.04236  0.8486  -0.4998
6.391e+09  0.9047  -0.1363  -0.01568  -0.003479  -0.03135  0.02862  0.5795  -0.7035
6.392e+09  0.7365  -0.4687  0.01156  0.02665  -0.04551  0.04017  0.275  -0.8701
6.394e+09  0.6079  -0.6645  0.007637  -0.006089  0.008313  -0.03556  -0.06921  -0.9233
6.395e+09  0.2878  -0.82  -0.01707  -0.01339  0.001557  0.01426  -0.3405  -0.8512
6.396e+09  0.01622  -0.9115  -0.04032  0.006523  -0.02294  -0.01129  -0.6346  -0.6486
6.398e+09  -0.3168  -0.8298  0.01645  -0.03578  -0.02405  0.0396  -0.7947  -0.4078
6.399e+09  -0.5978  -0.6497  0.003147  0.005006  -0.01075  -0.01004  -0.9156  -0.1448
6.4e+09  -0.8471  -0.3952  -0.05195  0.004925  -0.06732  -0.001571  -0.8529  0.17
6.401e+09  -0.8886  -0.1511  -0.007339  -0.009257  -0.02188  -0.0157  -0.8277  0.4674
6.402e+09  -0.8565  0.2381  0.002169  0.001638  0.02488  -0.001058  -0.6114  0.6605
6.404e+09  -0.7084  0.4758  -0.01794  0.03051  -0.02325  -0.04886  -0.3107  0.9149
6.405e+09  -0.4757  0.7343  -0.01736  -0.01076  -0.03109  -0.02683  0.02275  0.9111
6.406e+09  -0.2695  0.8338  0.0148  0.02217  -0.01897  -0.01989  0.3278  0.8457
6.408e+09  0.08044  0.8609  0.03173  0.001935  0.02065  0.007425  0.588  0.6789
6.409e+09  0.3322  0.8219  -0.0383  0.01601  -0.01014  0.02059  0.7693  0.4573
6.41e+09  0.5833  0.6479  0.01635  0.01519  0.0136  0.02084  0.8863  0.1753
6.411e+09  0.7501  0.4112  0.03014  0.00342  0.01309  0.02678  0.9237  -0.1571
6.412e+09  0.8808  0.0711  0.007919  -0.005088  -0.01783  0.02053  0.7752  -0.4112
6.414e+09  0.8526  -0.1677  0.01917  0.03778  0.02374  -0.02119  0.5959  -0.6768
6.415e+09  0.8136  -0.4981  0.02457  -0.06625  0.009298  0.005372  0.3667  -0.7998
6.416e+09  0.5218  -0.7286  0.01745  0.04386  0.01262  0.003368  0.04708  -0.8777
6.418e+09  0.2272  -0.8738  0.004328  0.01906  0.0377  0.04027  -0.2706  -0.8431
6.419e+09  -0.04945  -0.9195  -0.01533  -0.004623  0.004444  -0.01357  -0.4985  -0.6994
6.42e+09  -0.3361  -0.8135  0.02383  -0.006764  0.003756  -0.02649  -0.7747  -0.4892
6.421e+09  -0.6217  -0.639  0.02281  0.008648  0.004122  0.003201  -0.8381  -0.1765
6.422e+09  -0.8102  -0.388  -0.00761  -0.04038  0.003423  -0.006295  -0.842  0.08607
6.424e+09  -0.902  -0.06528  -0.006743  0.02885  0.02585  0.007029  -0.8322  0.3928
6.425e+09  -0.8791  0.2163  -0.001002  0.008998  0.005216  -0.04595  -0.593  0.6622
6.426e+09  -0.705  0.5579  0.06066  0.03728  -0.02273  0.02024  -0.34  0.8514
6.428e+09  -0.4992  0.7037  -0.02792  -0.01644  -0.01857  0.03652  -0.04562  0.8455
6.429e+09  -0.2325  0.8767  -0.01013  -0.02083  0.007346  0.0005975  0.2191  0.8597
6.43e+09  0.1223  0.8557  -0.02454  0.02056  -0.006914  -0.03475  0.5321  0.657
6.431e+09  0.3692  0.736  0.01706  0.001113  0.03188  -0.01125  0.7637  0.4896
6.432e+09  0.6321  0.6313  -0.02595  0.02276  0.002604  0.02913  0.8431  0.2119
6.434e+09  0.7786  0.3357  0.0246  0.004969  0.02844  0.0314  0.8861  -0.1185
6.435e+09  0.8876  0.06845  -0.005374  -0.02095  -0.0533  0.006694  0.7967  -0.4129
6.436e+09  0.8589  -0.2306  -0.01508  -0.04291  0.019  -0.0002274  0.636  -0.5656
6.438e+09  0.7024  -0.5209  0.03157  0.00446  0.00226  0.04272  0.3878  -0.7596
6.439e+09  0.4789  -0.7009  -0.01558  0.02264  0.02266  -0.01213  0.09161  -0.8567
6.44e+09  0.1518  -0.8657  0.03861  -0.01748  0.03317  0.01809  -0.2135  -0.8668
6.441e+09  -0.05817  -0.819  0.02148  0.01968  0.02765  -0.00945  -0.4798  -0.6812
6.442e+09  -0.3906  -0.8227  0.002933  -0.01916  0.06544  -0.0008684  -0.683  -0.4539
6.444e+09  -0.6138  -0.6131  0.0249  -0.000762  -0.02902  -0.01225  -0.8012  -0.2087
6.445e+09  -0.8262  -0.3127  0.03231  -0.03084  -0.04128  0.05729  -0.8454  0.1008
6.446e+09  -0.8485  -0.05084  0.02601  0.003668  -0.003391  0.0249  -0.7715  0.3446
6.448e+09  -0.8462  0.2622  0.00179  0.02769  -0.01033  -0.01864  -0.599  0.6031
6.449e+09  -0.7126  0.4989  -0.003356  -0.01837  0.004399  0.02059  -0.3837  0.7474
6.45e+09  -0.471  0.7526  0.02441  0.0006895  -0.02437  0.0151  -0.1124  0.8104
6.451e+09  -0.1906  0.8743  0.0297  -0.05361  -0.01092  0.05174  0.2236  0.7984
6.452e+09  0.136  0.8624  -0.006148  -0.03484  -0.03115  0.02199  0.4514  0.6682
6.454e+09  0.4073  0.7959  -0.02958  0.01889  0.002159  0.004347  0.659  0.4232
6.455e+09  0.5733  0.6146  -0.02728  0.02262  -0.05614  -0.03652  0.8206  0.2046
6.456e+09  0.8063  0.3718  0.01214  -0.05134  -0.002339  0.02485  0.8524  -0.06915
6.458e+09  0.8811  0.06035  -0.01864  0.05199  0.04266  -0.00476  0.7372  -0.344
6.459e+09  0.8184  -0.2101  0.009733  -0.03561  0.01235  0.0141  0.5767  -0.558
6.46e+09  0.7241  -0.5171  -0.009043  -0.004339  0.01232  -0.0001138  0.3233  -0.6755
6.461e+09  0.4883  -0.7591  -0.01039  -0.005221  0.003476  0.01727  0.03733  -0.7713
6.462e+09  0.1766  -0.8929  0.003212  -0.0288  -0.04378  0.02568  -0.1906  -0.7462
6.464e+09  -0.1015  -0.8817  0.009614  -0.02748  -0.03152  -0.008733  -0.4547  -0.6569
6.465e+09  -0.4346  -0.7106  -0.01456  -0.007261  0.004998  0.0004784  -0.664  -0.4705
6.466e+09  -0.6667  -0.5788  -0.0321  0.03986  0.01086  -0.009876  -0.7629  -0.1866
6.468e+09  -0.8446  -0.3343  0.009245  -0.005856  0.0084  0.01625  -0.8019  0.06791
6.469e+09  -0.9039  -0.01903  0.003188  0.001055  -0.004831  -0.05132  -0.7479  0.339
6.47e+09  -0.8434  0.2484  -0.08041  0.01373  -0.03692  -0.009756  -0.5657  0.5544
6.471e+09  -0.6954  0.5811  -0.005615  -0.04212  -0.04726  0.01734  -0.3348  0.6847
6.472e+09  -0.4495  0.7638  -0.0423  0.01045  0.007332  0.008315  -0.09132  0.811
6.474e+09  -0.1638  0.8671  -0.04345  0.0228  -0.04448  0.02742  0.2138  0.7737
6.475e+09  0.1776  0.902  -0.01492  0.001287  0.01354  -0.006549  0.441  0.6281
6.476e+09  0.4129  0.7654  -0.003911  0.002388  -0.01637  0.01521  0.6392  0.404
6.478e+09  0.666  0.5978  -0.01526  0.006821  -0.01204  0.01909  0.7521  0.1966
6.479e+09  0.8198  0.3132  0.01415  -0.009523  0.02089  -0.0086  0.7619  -0.03747
6.48e+09  0.9366  0.06005  -0.03642  0.02567  0.07393  0.005884  0.673  -0.354
6.481e+09  0.9029  -0.3045  0.00392  -0.01997  -0.003977  0.01087  0.5509  -0.5727
6.482e+09  0.6774  -0.5925  0.009685  0.02661  0.03553  -0.01071  0.3511  -0.6398
6.484e+09  0.4934  -0.8128  -0.03653  -0.00773  0.002466  0.002427  0.01294  -0.7218
6.485e+09  0.1869  -0.8803  0.01083  -0.03112  -0.0239  0.01778  -0.1946  -0.7221
6.486e+09  -0.1529  -0.8745  -0.0331  -0.02296  0.02142  -0.01916  -0.4483  -0.6611
6.488e+09  -0.4642  -0.7816  0.0006674  0.03897  0.0541  0.016  -0.612  -0.4365
6.489e+09  -0.706  -0.6104  -0.008277  0.002724  0.02179  0.027  -0.7328  -0.1504
6.49e+09  -0.8552  -0.3416  0.034  -0.007768  0.01017  -0.01105  -0.7677  0.08555
6.491e+09  -0.9607  -0.02247  0.009903  0.02444  -0.03266  0.08414  -0.6905  0.3717
6.492e+09  -0.8483  0.31  -0.008158  2.164e-05  -0.01846  -0.04315  -0.4921  0.5623
6.494e+09  -0.6824  0.5957  -0.001283  -0.0165  0.02765  0.02641  -0.3163  0.6884
6.495e+09  -0.4532  0.7832  -0.02653  -0.002842  0.01405  0.002133  -0.0009477  0.7758
6.496e+09  -0.1485  0.9098  0.009957  0.02822  -0.004179  0.02333  0.25  0.7496
6.498e+09  0.141  0.9458  -0.01401  0.01057  -0.01051  -0.02301  0.44  0.622
6.499e+09  0.4833  0.8052  -0.01841  0.0101  -0.04179  -0.00373  0.6107  0.4021
6.5e+09  0.6678  0.5729  -0.05528  -0.01776  -0.002569  0.01733  0.7558  0.1506
6.501e+09  0.8618  0.2867  0.005962  -0.01192  -0.005723  -0.00426  0.7386  -0.1369
6.502e+09  0.9722  0.03723  0.004551  -0.03726  -0.01883  -0.006602  0.646  -0.3862
6.504e+09  0.892  -0.3611  -0.005892  -0.0005114  -0.05143  0.0199  0.4781  -0.5758
6.505e+09  0.7374  -0.6233  0.04741  0.02544  0.001135  -0.01086  0.3117  -0.6976
6.506e+09  0.4439  -0.8169  0.006856  0.03852  -0.001522  0.01878  0.008068  -0.7473
6.508e+09  0.196  -0.9092  0.01885  -0.004011  -0.001027  -0.003497  -0.2584  -0.7271
6.509e+09  -0.1708  -0.9032  -0.002428  -0.015  0.04055  -0.006984  -0.4772  -0.5614
6.51e+09  -0.5241  -0.8297  -0.01062  0.01222  0.009311  -0.009792  -0.6365  -0.3772
6.511e+09  -0.7692  -0.619  -0.01879  0.000422  0.02178  -0.005265  -0.7314  -0.1704
6.512e+09  -0.8803  -0.2376  0.007829  0.01679  -0.03675  -0.01289  -0.7197  0.1791
6.514e+09  -0.9452  0.03388  -0.01337  0.02088  0.01882  -0.03835  -0.6431  0.3575
6.515e+09  -0.8781  0.3726  0.01751  0.01664  0.01722  0.01414  -0.4672  0.6069
6.516e+09  -0.6363  0.6144  0.009343  0.02872  0.02543  0.03191  -0.227  0.681
6.518e+09  -0.4289  0.8286  -0.03605  0.00923  0.005041  -0.0185  -0.006503  0.755
6.519e+09  -0.06783  0.971  -0.00665  -0.002494  -0.06416  -0.0156  0.271  0.6744
6.52e+09  0.3157  0.9295  0.02719  -0.001174  -0.01484  -0.009138  0.4988  0.5563
6.521e+09  0.5675  0.7909  -0.02339  -0.02686  0.01092  0.0635  0.6845  0.3641
6.522e+09  0.7531  0.5567  -0.0225  0.01828  0.00639  0.01217  0.7249  0.1094
6.524e+09  0.9532  0.2233  -0.02146  -0.009124  -0.006597  0.008454  0.695  -0.1387
6.525e+09  0.9634  -0.1309  -0.01419  0.02966  0.04432  -0.005541  0.6172  -0.4156
6.526e+09  0.8702  -0.4379  0.01608  0.01649  0.021  -0.02179  0.425  -0.5542
6.528e+09  0.6706  -0.6976  0.0129  -0.0005876  -0.02967  0.004983  0.1732  -0.6789
6.529e+09  0.356  -0.8764  0.001406  0.03612  0.02273  -0.02853  -0.05288  -0.6873
6.53e+09  0.1189  -1.013  -0.01336  0.001681  0.0387  -0.02685  -0.301  -0.6342
6.531e+09  -0.3638  -0.9147  -0.01108  -0.007863  0.01999  0.02457  -0.4918  -0.4805
6.532e+09  -0.6429  -0.8097  -0.009267  0.006189  0.00731  0.02072  -0.5545  -0.3068
6.534e+09  -0.8722  -0.4987  0.006997  0.007126  -0.04075  -0.04261  -0.6421  -0.1043
6.535e+09  -1.002  -0.1421  -0.02264  -0.01872  -0.01943  -0.000546  -0.6406  0.1199
6.536e+09  -0.965  0.1754  -0.03221  0.02033  0.0158  -0.02264  -0.5527  0.3419
6.538e+09  -0.7812  0.5034  0.008446  0.0024  -0.03123  -0.08459  -0.4217  0.466
6.539e+09  -0.6544  0.7873  -0.002363  0.003348  0.01544  0.03524  -0.2615  0.5871
6.54e+09  -0.2812  0.9144  0.01926  0.03572  0.009079  0.007735  -0.02568  0.6594
6.541e+09  0.06112  0.9595  -0.01428  0.01955  -0.008273  -0.04081  0.1822  0.6577
6.542e+09  0.3698  0.8975  0.02867  -0.02419  -0.02453  0.02859  0.3968  0.5802
6.544e+09  0.6144  0.6932  -0.007188  0.003667  0.04128  0.001123  0.5793  0.4028
6.545e+09  0.8711  0.4484  -0.007846  -0.001625  0.001667  -0.04534  0.6935  0.1979
6.546e+09  0.9522  0.08492  -0.008102  -0.01988  -0.01558  -0.01982  0.7403  -0.08695
6.548e+09  0.9479  -0.2312  0.01626  0.002431  -0.004035  -0.005482  0.6651  -0.295
6.549e+09  0.8164  -0.547  0.01756  0.01664  0.002493  -0.02787  0.4996  -0.5036
6.55e+09  0.5583  -0.816  -0.0139  0.006108  0.01639  -0.02533  0.3103  -0.6776
