# Hz S RI R 50
6.25e+09  -0.748  0.2441  0.02634  0.007323  0.03526  0.002661  0.1169  0.5035
6.251e+09  -0.611  0.5225  -0.01729  0.01955  -0.01439  0.03204  0.3852  0.3992
6.252e+09  -0.4665  0.7338  -0.01919  -0.01001  -0.03458  -0.03994  0.5066  0.2366
6.254e+09  -0.0962  0.7936  0.02388  0.002997  -0.03613  0.03102  0.5941  0.01714
6.255e+09  0.1577  0.7957  -0.008379  -0.002115  0.006736  -0.03838  0.597  -0.2211
6.256e+09  0.3993  0.7411  0.00905  0.02352  -0.004859  -0.0382  0.4624  -0.4367
6.258e+09  0.6038  0.5072  -0.008173  -0.004539  0.03974  0.01286  0.2735  -0.5918
6.259e+09  0.7374  0.2713  0.01693  -0.007116  0.05017  -0.0406  0.03  -0.6584
6.26e+09  0.8141  -0.02355  -0.01572  0.004479  0.03181  -0.02492  -0.2073  -0.65
6.261e+09  0.777  -0.2562  -0.01302  -0.00543  -0.02131  -0.02283  -0.4475  -0.5127
6.262e+09  0.6095  -0.6121  0.01484  -0.03951  0.0003588  -0.01647  -0.612  -0.3512
6.264e+09  0.3529  -0.7426  0.02146  -0.0002214  -0.03828  -0.002023  -0.6992  -0.1161
6.265e+09  0.1417  -0.8274  -0.02826  0.004089  -0.03435  0.001712  -0.68  0.1419
6.266e+09  -0.1407  -0.7787  -0.02108  -0.01339  0.03567  0.01532  -0.6315  0.4238
6.268e+09  -0.4075  -0.7365  0.008753  0.01879  -0.003732  -0.01039  -0.4266  0.585
6.269e+09  -0.6282  -0.4703  -0.004612  0.02614  0.03075  0.02398  -0.2209  0.6763
6.27e+09  -0.7927  -0.2721  0.01427  -0.00237  -0.02609  -0.0144  0.05963  0.7295
6.271e+09  -0.8138  0.008833  -0.04071  -0.01438  -0.03388  0.01402  0.2969  0.6751
6.272e+09  -0.7543  0.333  0.01985  -0.01381  -0.01319  0.006242  0.5431  0.529
6.274e+09  -0.62  0.5506  0.003522  -0.006727  0.03321  0.00214  0.6685  0.2845
6.275e+09  -0.4062  0.784  -0.01979  -0.01452  0.0176  -0.02065  0.7694  0.04686
6.276e+09  -0.1181  0.7898  0.01496  -0.01949  -0.004284  -0.04941  0.7479  -0.2269
6.278e+09  0.1615  0.8239  -0.002664  0.0004906  0.03872  0.01208  0.5835  -0.4422
6.279e+09  0.4111  0.6771  0.01359  -0.0001908  -0.01479  -0.005832  0.4274  -0.6503
6.28e+09  0.6449  0.5505  -0.03185  -0.004798  -0.01519  -0.04216  0.1734  -0.7036
6.281e+09  0.7503  0.247  -0.01351  -0.01838  0.04726  0.04492  -0.1453  -0.777
6.282e+09  0.8431  0.002974  0.003929  0.007448  -0.03539  0.008139  -0.3866  -0.6729
6.284e+09  0.7876  -0.2881  -0.02916  -0.02084  -0.005664  0.03289  -0.5583  -0.5352
6.285e+09  0.5814  -0.5004  -0.02202  -0.003957  0.02963  -0.04691  -0.7275  -0.2613
6.286e+09  0.3499  -0.7908  -0.003118  0.01453  -0.03164  0.002994  -0.8031  -0.04866
6.288e+09  0.07174  -0.8289  -0.01704  -0.01227  -0.02812  -0.006006  -0.7788  0.2439
6.289e+09  -0.1773  -0.7997  0.0001953  0.02241  -0.06715  -0.01638  -0.6567  0.4882
6.29e+09  -0.4438  -0.7059  0.01119  -0.01536  -0.01047  0.01902  -0.4126  0.6984
6.291e+09  -0.6518  -0.5033  -0.009067  0.01941  0.02713  0.001717  -0.1394  0.7884
6.292e+09  -0.7563  -0.2623  0.002152  0.02137  0.02286  0.02898  0.08723  0.7892
6.294e+09  -0.8104  0.02984  -0.001855  0.006197  0.05378  -0.03258  0.3823  0.6898
6.295e+09  -0.7585  0.359  -0.002085  0.004488  -0.01921  -0.03647  0.6185  0.5376
6.296e+09  -0.5657  0.604  -0.01737  -0.01955  -0.05685  0.003952  0.7424  0.2788
6.298e+09  -0.315  0.7534  -0.008803  0.02399  -0.009013  0.05129  0.8091  -0.009115
6.299e+09  -0.03539  0.7991  0.01444  -0.019  0.02574  0.005979  0.7508  -0.2786
6.3e+09  0.2459  0.7615  -0.01805  -0.001393  0.01678  0.002636  0.6818  -0.5136
6.301e+09  0.4634  0.6777  -0.03758  -0.01215  -0.02355  0.008922  0.4174  -0.7344
6.302e+09  0.7077  0.4432  0.01043  -0.008198  0.04838  0.01528  0.1306  -0.8346
6.304e+09  0.7553  0.1871  0.02724  0.00384  -0.01394  -0.003143  -0.123  -0.8251
6.305e+09  0.7614  -0.089  0.009734  -0.0002742  0.005918  0.03684  -0.4057  -0.7647
6.306e+09  0.7622  -0.3649  0.003247  0.006111  -0.00999  -0.004017  -0.6194  -0.5534
6.308e+09  0.6202  -0.6131  -0.02554  -0.01951  0.03151  0.006458  -0.7968  -0.2699
6.309e+09  0.2801  -0.7467  0.006903  -0.001173  -0.03753  -0.02182  -0.8248  0.006227
6.31e+09  0.07145  -0.8164  -0.009175  0.02553  0.024  -0.004677  -0.8279  0.2779
6.311e+09  -0.2351  -0.8193  0.0004797  0.00728  -0.01316  0.01666  -0.673  0.5472
6.312e+09  -0.5061  -0.6177  -0.01885  -0.04018  0.01989  0.001208  -0.4286  0.7653
6.314e+09  -0.6787  -0.4294  -0.01976  0.01539  0.0355  0.01013  -0.1794  0.8523
6.315e+09  -0.8065  -0.1532  -0.01951  0.004041  0.01703  -0.00102  0.1355  0.8481
6.316e+09  -0.836  0.1459  0.00186  -0.001145  0.03963  0.03076  0.4328  0.7414
6.318e+09  -0.7014  0.4039  0.0055  -0.005139  -0.03713  -0.03267  0.676  0.5936
6.319e+09  -0.5712  0.6304  -0.02204  -0.02625  -0.04612  -0.05056  0.8415  0.3143
6.32e+09  -0.2999  0.7722  0.01067  -0.04014  0.008003  -0.0772  0.8893  0.04046
6.321e+09  -0.01197  0.827  -0.004442  -0.008249  0.02129  -0.002344  0.821  -0.3
6.322e+09  0.2615  0.7697  -0.02637  -0.006727  -0.01746  0.02209  0.6958  -0.5471
6.324e+09  0.5265  0.6412  -0.002113  -0.01636  0.005772  -0.01712  0.4577  -0.7607
6.325e+09  0.7216  0.4209  -0.001352  0.003613  -0.01337  -0.01618  0.1772  -0.8596
6.326e+09  0.8515  0.1078  -0.01058  0.006384  0.02737  0.06927  -0.1243  -0.8886
6.328e+09  0.8305  -0.1433  0.00688  0.02405  0.04935  -0.002368  -0.4523  -0.7775
6.329e+09  0.6807  -0.4374  -0.01648  0.01612  -0.0164  -0.006777  -0.7085  -0.615
6.33e+09  0.4906  -0.6731  0.003374  -0.01039  -0.0004814  -0.02447  -0.8226  -0.3559
6.331e+09  0.2652  -0.851  0.01223  -0.01349  0.02208  0.02674  -0.9057  -0.02195
6.332e+09  -0.05172  -0.8664  0.004305  -0.02703  -0.001213  -0.005662  -0.8635  0.269
6.334e+09  -0.3718  -0.7289  0.01996  0.01221  -0.01178  0.02286  -0.7033  0.5701
6.335e+09  -0.5965  -0.6012  -0.03558  -0.01354  -0.0871  -0.01087  -0.4956  0.7637
6.336e+09  -0.7564  -0.3715  0.03172  0.002998  0.02223  0.05113  -0.2323  0.9031
6.338e+09  -0.8425  -0.04508  -0.04471  0.006612  -0.01978  0.01347  0.124  0.8988
6.339e+09  -0.8222  0.1557  -0.02305  0.02154  -0.06556  0.003123  0.408  0.7916
6.34e+09  -0.7133  0.5092  -0.01733  -0.0178  -0.01478  -0.01573  0.7089  0.6362
6.341e+09  -0.4599  0.722  0.0212  0.01513  -0.01019  0.01935  0.8416  0.3688
6.342e+09  -0.1763  0.8386  -3.328e-06  0.0544  0.006426  0.01088  0.9316  0.03972
6.344e+09  0.1225  0.8498  -0.01119  0.01343  0.01866  0.009414  0.899  -0.2755
6.345e+09  0.3833  0.7787  -0.002869  0.002378  0.02297  -0.02094  0.7376  -0.5495
6.346e+09  0.5878  0.5804  -0.006606  0.009548  0.03157  0.01437  0.5266  -0.7826
6.348e+09  0.8442  0.3057  0.001573  0.02278  -0.02456  0.01529  0.2006  -0.936
6.349e+09  0.8554  0.01034  0.007384  0.004178  0.01298  0.02745  -0.1199  -0.9439
6.35e+09  0.8165  -0.2982  0.03106  -0.009024  -0.05898  -0.02301  -0.383  -0.8137
6.351e+09  0.6735  -0.5608  0.01277  0.002271  0.02325  0.04175  -0.653  -0.6578
6.352e+09  0.3737  -0.767  -0.03108  -0.00354  0.0626  0.02221  -0.8854  -0.3526
6.354e+09  0.1324  -0.8259  -0.03618  0.001809  0.02924  -0.003678  -0.9401  -0.08086
6.355e+09  -0.1827  -0.8879  -0.01315  -0.01833  0.02567  0.01962  -0.9113  0.2709
6.356e+09  -0.479  -0.7361  -0.02643  -0.02582  -0.01334  -0.002296  -0.7371  0.5524
6.358e+09  -0.6952  -0.5234  -0.03734  -0.004056  -0.01681  0.02089  -0.5167  0.815
6.359e+09  -0.831  -0.2346  0.01743  0.03756  0.007292  0.02082  -0.2494  0.9124
6.36e+09  -0.8693  0.06014  -0.005644  -0.0178  -0.02007  -0.04637  0.09155  0.939
6.361e+09  -0.8279  0.4047  0.03972  0.02715  -0.02614  0.02955  0.4241  0.8118
6.362e+09  -0.6009  0.607  0.001902  -0.008466  -0.03117  -0.03902  0.6733  0.6835
6.364e+09  -0.4057  0.7851  0.009892  -0.03087  0.01532  0.04411  0.8511  0.383
6.365e+09  -0.07632  0.857  0.0009301  -0.001096  0.03612  -0.01614  0.888  0.06806
6.366e+09  0.2375  0.8063  0.00224  -0.0209  0.04762  0.001017  0.9445  -0.2519
6.368e+09  0.4903  0.7018  0.01238  -0.01985  0.04019  -0.03789  0.7808  -0.5472
6.369e+09  0.7247  0.4737  -0.002898  -0.01261  -0.0326  0.01625  0.5674  -0.7517
6.37e+09  0.8856  0.1586  0.002359  0.03165  -0.04287  -0.05081  0.2299  -0.9087
6.371e+09  0.8762  -0.1197  -0.003408  -0.03477  -0.002478  0.004346  -0.07233  -0.9513
6.372e+09  0.7475  -0.3988  0.00982  0.02171  -0.005993  -0.0116  -0.4441  -0.9027
6.374e+09  0.5424  -0.6421  0.009014  -0.001386  0.02169  0.004691  -0.7159  -0.667
6.375e+09  0.2874  -0.8313  -0.00243  0.01206  0.03072  0.0166  -0.8768  -0.3904
6.376e+09  0.03253  -0.8751  0.003934  0.03996  0.02447  -0.00606  -0.932  -0.1182
6.378e+09  -0.3343  -0.824  0.003811  0.01973  0.009918  -0.05054  -0.8895  0.2165
6.379e+09  -0.5709  -0.6619  -0.01671  0.02494  -0.006738  0.062  -0.7865  0.5054
6.38e+09  -0.7903  -0.3851  0.001185  -0.01932  0.02697  0.001683  -0.5356  0.7649
6.381e+09  -0.8736  -0.1381  0.04087  -0.02047  0.02425  -0.01938  -0.2485  0.9047
6.382e+09  -0.8635  0.1423  -0.002552  0.009579  0.02106  -0.03906  0.03011  0.925
6.384e+09  -0.7844  0.4374  0.01161  0.008342  -0.03333  -0.008371  0.3738  0.8115
6.385e+09  -0.5496  0.7198  0.01515  0.006803  0.02137  0.01096  0.6296  0.6473
6.386e+09  -0.2429  0.8205  0.007921  -0.005917  0.02276  0.004092  0.8019  0.4163
6.388e+09  0.05366  0.881  -0.043  -0.03463  0.0202  0.01925  0.9387  0.1619
6.389e+09  0.375  0.7706  0.02379  -0.01953  0.0364  0.03001  0.9044  -0.192
6.39e+09  0.6044  0.5854  -0.0004203  -0.02598  0.01918  -0.005461  0.8143  -0.5098
6.391e+09  0.8202  0.3338  -0.01883  -0.00297  0.01994  0.01878  0.5687  -0.7603
6.392e+09  0.9069  0.04792  0.01342  -0.02618  -0.01322  -0.007999  0.284  -0.8569
6.394e+09  0.8837  -0.2248  -0.003142  -0.01529  0.02279  -0.02073  -0.04847  -0.9353
6.395e+09  0.7051  -0.5603  0.02423  -0.0008042  0.02228  0.00682  -0.3494  -0.854
6.396e+09  0.4899  -0.7295  -0.03317  -0.01993  0.03874  -0.005647  -0.6197  -0.684
6.398e+09  0.1891  -0.8632  -0.0845  0.01682  -0.02465  0.008977  -0.8186  -0.4656
6.399e+09  -0.153  -0.8377  -0.03966  0.0006961  0.005155  -0.01096  -0.8931  -0.1391
6.4e+09  -0.426  -0.7901  -0.04011  0.0263  -0.02849  0.007103  -0.8922  0.1654
6.401e+09  -0.6508  -0.5893  0.005909  -0.00886  -0.02192  0.01119  -0.812  0.4851
6.402e+09  -0.8228  -0.2784  0.003271  -0.01112  0.01344  -0.03118  -0.6269  0.6834
6.404e+09  -0.9274  -0.02109  0.003488  0.00201  -0.02986  -0.0575  -0.3081  0.8417
6.405e+09  -0.7669  0.2903  0.01616  -0.005355  0.0213  -0.01344  0.02521  0.9236
6.406e+09  -0.6293  0.5964  0.01765  0.04398  0.003932  -0.0139  0.3069  0.8508
6.408e+09  -0.4127  0.7702  -0.02818  0.01787  0.003552  -0.02377  0.549  0.732
6.409e+09  -0.1338  0.8408  -0.003218  -0.0009689  0.006687  -0.003017  0.7327  0.4882
6.41e+09  0.1438  0.8577  -0.02079  0.01605  -0.003563  -0.03577  0.8798  0.1809
6.411e+09  0.4989  0.7555  -0.01048  0.03414  -0.03732  -0.01628  0.8664  -0.1327
6.412e+09  0.7152  0.5639  -0.001889  0.01896  0.03779  -0.008608  0.7818  -0.4393
6.414e+09  0.8056  0.2536  -0.01826  0.02673  2.261e-05  0.009856  0.58  -0.6825
6.415e+09  0.8508  -0.07863  -0.018  -0.004306  -0.03089  0.02354  0.3322  -0.8395
6.416e+09  0.811  -0.2969  0.01939  0.02467  -0.0477  -0.00391  0.07923  -0.9298
6.418e+09  0.663  -0.5522  -0.0495  0.02109  0.02622  -0.05276  -0.2671  -0.8408
6.419e+09  0.3667  -0.7736  0.01797  0.001446  0.0511  0.03051  -0.5429  -0.6969
6.42e+09  0.1033  -0.8641  0.02748  -0.02404  0.04544  -0.008858  -0.7686  -0.46
6.421e+09  -0.2442  -0.8734  0.04282  -0.02363  0.02499  -0.02172  -0.8416  -0.205
6.422e+09  -0.5007  -0.7218  0.003705  0.04712  0.01438  -0.007862  -0.8732  0.08746
6.424e+09  -0.7509  -0.4874  0.02352  0.01948  0.03227  0.01003  -0.764  0.4622
6.425e+09  -0.8514  -0.2068  -0.05135  -0.02098  0.01234  -0.03073  -0.5449  0.5994
6.426e+09  -0.8961  0.03914  -0.01089  -0.006434  -0.02899  0.01648  -0.3245  0.8569
6.428e+09  -0.7689  0.364  0.00221  -0.04076  -0.02505  -0.04262  -0.06117  0.8252
6.429e+09  -0.637  0.5958  0.003643  -0.02053  0.006658  0.031  0.2537  0.865
6.43e+09  -0.3546  0.8469  0.006069  -0.0009915  -0.0302  -0.000693  0.5312  0.7341
6.431e+09  -0.08108  0.8341  0.03395  -0.03104  0.00743  -0.02238  0.7366  0.4367
6.432e+09  0.2607  0.814  -0.04029  -0.009273  0.01145  0.02197  0.8547  0.2198
6.434e+09  0.5109  0.6832  -0.01478  0.0418  0.002696  0.01176  0.8734  -0.07162
6.435e+09  0.7268  0.5293  0.009992  0.02935  0.05033  0.01297  0.7944  -0.3954
6.436e+09  0.8188  0.1974  -0.03763  0.004036  0.01158  0.004483  0.6029  -0.6021
6.438e+09  0.7737  -0.09503  -0.005989  0.0104  -0.02797  0.01161  0.3581  -0.7782
6.439e+09  0.7478  -0.3659  -0.01779  0.03551  0.007537  -0.007711  0.09841  -0.8472
6.44e+09  0.622  -0.661  -0.01274  -0.02735  0.02949  -0.01516  -0.2026  -0.8092
6.441e+09  0.3105  -0.8401  0.02341  0.004289  -0.005709  0.001143  -0.4564  -0.7099
6.442e+09  0.04356  -0.9155  -0.04382  0.01487  0.0358  -0.002129  -0.673  -0.5112
6.444e+09  -0.2242  -0.8273  -0.02657  -0.0386  0.02396  -0.06781  -0.8423  -0.2315
6.445e+09  -0.4935  -0.6941  -0.0004114  0.002964  0.02687  0.005546  -0.874  0.09002
6.446e+09  -0.7525  -0.4293  0.04479  0.006426  -0.04186  6.639e-05  -0.7577  0.3559
6.448e+09  -0.8533  -0.1839  0.01824  0.01351  -0.001944  -0.06323  -0.595  0.5815
6.449e+09  -0.837  0.1713  -0.03199  -0.009446  -0.0221  -0.0307  -0.3525  0.7708
6.45e+09  -0.7329  0.4252  -0.04998  -0.006888  -0.009753  -0.003743  -0.07638  0.837
6.451e+09  -0.5647  0.6688  0.03539  -0.02729  0.0131  0.03639  0.1373  0.7975
6.452e+09  -0.3401  0.7706  -0.01595  -0.0341  -0.03633  -0.0381  0.449  0.6992
6.454e+09  0.02172  0.8286  0.004333  0.02359  0.04238  0.01478  0.7108  0.4934
6.455e+09  0.2156  0.8461  0.01676  -0.02442  -0.009284  0.0003495  0.7832  0.2619
6.456e+09  0.5015  0.6699  -0.001944  0.008879  0.02516  0.03333  0.8395  -0.04008
6.458e+09  0.7035  0.4185  0.002848  0.05131  0.007306  -0.05459  0.738  -0.3032
6.459e+09  0.8388  0.1722  0.006798  -0.02061  -0.007158  0.01321  0.5827  -0.6015
6.46e+09  0.8953  -0.0779  0.02211  -0.01141  -0.03434  -0.01274  0.3687  -0.7243
6.461e+09  0.7642  -0.4597  -0.05154  0.002895  -0.004347  0.00925  0.05642  -0.8265
6.462e+09  0.597  -0.6517  -0.0409  0.006387  0.002229  0.02411  -0.2357  -0.8391
6.464e+09  0.3383  -0.8066  -0.01598  0.02163  -0.003417  0.01149  -0.4804  -0.6651
6.465e+09  0.01023  -0.8952  -0.01928  0.01985  0.02873  0.02613  -0.6497  -0.421
6.466e+09  -0.2391  -0.795  -0.01427  -0.02164  -0.006009  0.02134  -0.7869  -0.2163
6.468e+09  -0.5581  -0.6837  -0.00175  -0.03558  -0.03336  -0.04745  -0.7771  0.06997
6.469e+09  -0.789  -0.4442  -0.04111  -0.02299  0.007297  -0.04644  -0.7551  0.3433
6.47e+09  -0.8574  -0.1574  -0.03095  0.02292  0.03401  -0.01735  -0.6097  0.5817
6.471e+09  -0.8251  0.1573  0.02201  0.02043  0.01501  0.009875  -0.3162  0.7428
6.472e+09  -0.7539  0.4145  -0.0453  0.0002142  -0.0572  -0.01273  -0.06549  0.7485
6.474e+09  -0.564  0.67  0.009403  0.0005443  0.03714  0.02755  0.2078  0.7914
6.475e+09  -0.3131  0.864  0.01771  0.007072  0.0109  -0.01429  0.4247  0.6272
6.476e+09  0.01262  0.8766  -0.007953  -0.03789  -0.009427  0.01791  0.6748  0.4617
6.478e+09  0.2447  0.7717  0.01424  -0.02102  -0.03857  0.004467  0.7827  0.1762
6.479e+09  0.5491  0.7143  -0.000707  -0.03272  -0.03406  0.04388  0.762  -0.04659
6.48e+09  0.7152  0.4176  0.05024  0.006056  0.01729  -0.01315  0.717  -0.3163
6.481e+09  0.8261  0.1355  0.01607  0.009455  -0.05478  0.003662  0.5593  -0.5423
6.482e+09  0.8509  -0.1791  0.0006674  0.04454  0.03608  0.03558  0.2737  -0.7246
6.484e+09  0.7371  -0.4478  -0.01471  0.003604  0.03873  -0.0109  0.07308  -0.7756
6.485e+09  0.5315  -0.6287  -0.006144  0.006428  0.005232  0.02682  -0.2215  -0.7538
6.486e+09  0.3173  -0.826  0.04093  -0.06158  -0.02817  0.007231  -0.4275  -0.6077
6.488e+09  -0.03478  -0.8923  0.04482  0.004615  0.02782  -0.02135  -0.6533  -0.4423
6.489e+09  -0.3543  -0.8625  0.003122  -0.009458  0.006865  -0.02987  -0.7519  -0.2017
6.49e+09  -0.5775  -0.6524  -0.01506  0.00763  -0.03563  0.009043  -0.7332  0.09418
6.491e+09  -0.781  -0.4516  -0.03786  -0.06322  -0.004019  0.02693  -0.6903  0.3293
6.492e+09  -0.8644  -0.1466  -0.02097  -0.0274  0.006363  0.007071  -0.5454  0.5886
6.494e+09  -0.8505  0.167  -0.01251  -0.03066  0.03156  0.03212  -0.3067  0.696
6.495e+09  -0.7843  0.4866  0.008744  0.02948  -0.01951  0.01903  -0.03385  0.7937
6.496e+09  -0.5569  0.6649  0.03029  -0.01054  0.04198  -0.02094  0.2188  0.7729
6.498e+09  -0.2773  0.8943  -0.06045  -0.03201  -0.006233  0.005851  0.4333  0.612
6.499e+09  0.08885  0.8978  -0.02967  0.01056  0.008328  0.07047  0.6022  0.3905
6.5e+09  0.3614  0.829  0.02735  -0.005092  -0.0001561  -0.03163  0.739  0.1851
6.501e+09  0.5604  0.7111  0.02815  -0.003301  -0.01128  0.000169  0.7563  -0.06632
6.502e+09  0.803  0.4372  -0.03154  0.02415  0.01286  -0.01437  0.6643  -0.357
6.504e+09  0.9061  0.1016  0.00563  -0.002526  -0.004609  -0.04511  0.4902  -0.5471
6.505e+09  0.88  -0.1837  -0.01874  -0.03025  0.05897  0.01885  0.289  -0.7077
6.506e+09  0.761  -0.481  0.001287  0.02353  -0.0007382  0.006044  0.03002  -0.7274
6.508e+09  0.5837  -0.6649  0.006947  0.01008  0.007819  0.03479  -0.1895  -0.7153
6.509e+09  0.232  -0.8862  0.03589  -0.02143  0.03264  -0.01517  -0.4838  -0.5988
6.51e+09  -0.06728  -0.8783  0.00675  0.01828  -0.005997  -0.0007847  -0.636  -0.4181
6.511e+09  -0.3354  -0.8474  0.04917  -0.007502  0.04008  0.002562  -0.7335  -0.1267
6.512e+09  -0.648  -0.6614  0.02291  -0.01251  0.000858  -0.0216  -0.7623  0.1095
6.514e+09  -0.707  -0.389  0.006354  0.03553  -0.03745  -0.06205  -0.6327  0.3843
6.515e+09  -0.8766  -0.1206  -0.004844  -0.000374  0.01397  0.008275  -0.4499  0.5911
6.516e+09  -0.9189  0.1732  -0.02326  -0.04005  0.01912  0.04038  -0.2294  0.6978
6.518e+09  -0.7258  0.5402  -0.01025  0.006328  0.02186  -0.005478  0.00423  0.7254
6.519e+09  -0.5551  0.7429  0.005677  -0.003026  -0.008134  0.01652  0.2811  0.6879
6.52e+09  -0.2292  0.8909  -0.03482  -0.02242  -0.003581  -0.01615  0.4759  0.5767
6.521e+09  0.08318  0.9244  -0.002557  -0.03778  0.007537  0.007123  0.685  0.3333
6.522e+09  0.441  0.8512  0.004879  0.03063  0.01526  -0.01911  0.7001  0.05445
6.524e+09  0.6512  0.6343  0.0008875  0.02998  0.01651  0.009326  0.7019  -0.1807
6.525e+09  0.8333  0.3822  0.01442  0.01555  0.0429  -0.004586  0.602  -0.3914
6.526e+09  0.9175  0.05711  0.005474  0.0116  0.008531  -0.02492  0.4271  -0.5689
6.528e+09  0.8904  -0.2877  -0.01259  -0.04056  -0.07126  0.01932  0.223  -0.6913
6.529e+09  0.7581  -0.503  0.03852  0.01119  -0.0202  -0.00571  -0.0408  -0.6701
6.53e+09  0.4783  -0.8102  0.002434  0.02287  0.0686  0.03588  -0.2912  -0.6366
6.531e+09  0.2106  -0.9087  -0.003717  -0.002035  -0.04568  -0.01234  -0.511  -0.475
6.532e+09  -0.1285  -0.916  -0.005421  -0.01552  0.03295  -0.04208  -0.5947  -0.2699
6.534e+09  -0.4379  -0.8378  -0.02222  0.01741  -0.0374  0.002626  -0.6795  -0.06437
6.535e+09  -0.7638  -0.5915  -0.03325  0.01484  0.02729  0.01145  -0.6063  0.1236
6.536e+09  -0.86  -0.3251  0.0002799  0.03219  0.003936  0.006447  -0.5664  0.2956
6.538e+09  -0.9374  -0.01323  -0.009368  0.009254  -0.01019  0.01572  -0.4645  0.4898
6.539e+09  -0.9203  0.3286  0.004786  0.01131  0.0116  -0.026  -0.3035  0.6269
6.54e+09  -0.7162  0.5623  -0.03212  0.03475  0.02145  -0.01207  -0.06535  0.6283
6.541e+09  -0.4397  0.7915  -0.01311  0.02262  -0.0103  0.0343  0.1958  0.6674
6.542e+09  -0.1202  0.8903  0.009522  -0.02278  -0.06058  -0.03248  0.3662  0.5758
6.544e+09  0.1597  0.9965  0.006422  -0.0148  -0.03448  -0.06201  0.5773  0.4002
6.545e+09  0.5137  0.7859  0.007949  0.01805  -0.06397  -0.00258  0.7339  0.1551
6.546e+09  0.7684  0.6322  0.01089  -0.006289  0.007477  0.03104  0.745  -0.09416
6.548e+09  0.8721  0.2951  -0.004037  -0.03645  -0.04793  0.04201  0.6646  -0.2943
6.549e+09  0.9548  0.009153  0.01773  0.02088  0.02671  -0.03857  0.5021  -0.5601
6.55e+09  0.9108  -0.3584  -0.0002198  -0.008725  0.008148  -0.001469  0.296  -0.6741
