# Hz S RI R 50
6.25e+09  -0.3927  0.7372  -0.01821  0.01238  -0.0149  0.01997  0.183  0.4546
6.251e+09  -0.1637  0.8407  -0.006992  0.01712  0.008067  0.02221  0.3562  0.4043
6.252e+09  0.1604  0.827  0.0003695  -0.001189  0.01507  0.01449  0.4991  0.1886
6.254e+09  0.3934  0.7525  0.02444  0.008432  -0.006222  -0.02493  0.5946  -0.0002104
6.255e+09  0.6847  0.5371  0.004123  -0.0003213  0.03392  -0.02426  0.5784  -0.2173
6.256e+09  0.8083  0.2912  0.00574  0.00476  0.009084  -0.05532  0.4701  -0.4252
6.258e+09  0.7963  -0.01679  0.04386  -0.02474  0.006444  -0.0007567  0.2546  -0.6165
6.259e+09  0.7712  -0.3178  0.01109  -0.01589  -0.01689  0.02394  0.02392  -0.7008
6.26e+09  0.6127  -0.5542  0.02284  -0.04215  -0.008951  0.01406  -0.2053  -0.6612
6.261e+09  0.4035  -0.7258  8.307e-05  -0.001541  0.01799  0.009219  -0.4524  -0.5507
6.262e+09  0.09788  -0.8759  0.04841  -0.02142  -0.002113  0.08787  -0.5924  -0.363
6.264e+09  -0.1395  -0.8164  -0.02847  -0.001377  -0.017  -0.009909  -0.7149  -0.1086
6.265e+09  -0.4339  -0.6829  -0.03549  -0.005913  -0.007335  0.02941  -0.7212  0.1334
6.266e+09  -0.6396  -0.4959  -0.0111  -0.01378  -0.0327  0.02866  -0.6043  0.4151
6.268e+09  -0.8248  -0.2262  -0.003247  0.01174  0.03911  -0.03694  -0.431  0.5729
6.269e+09  -0.836  0.05517  0.008519  0.0003937  0.02801  -0.01628  -0.1935  0.7086
6.27e+09  -0.8054  0.3257  -0.006874  -0.002008  0.01259  0.04799  0.07446  0.7283
6.271e+09  -0.5761  0.5527  0.006657  -0.009756  0.03077  0.01802  0.3118  0.681
6.272e+09  -0.3188  0.764  -0.02509  -0.006644  0.04766  -0.0007576  0.5274  0.5123
6.274e+09  -0.1043  0.8335  -0.01261  -0.01332  0.0345  0.02758  0.6812  0.2892
6.275e+09  0.2578  0.8073  -0.0158  0.02145  -0.04417  0.01902  0.7674  0.04612
6.276e+09  0.5091  0.7024  -0.02882  0.04279  0.01632  0.008587  0.699  -0.2159
6.278e+09  0.6623  0.4672  -0.01043  0.0002021  -0.009854  0.01989  0.6116  -0.4791
6.279e+09  0.7891  0.2381  0.0161  -0.01726  0.02316  -0.01757  0.4043  -0.6808
6.28e+09  0.8044  -0.09247  0.03186  0.00983  -0.02617  0.03215  0.1756  -0.7593
6.281e+09  0.7994  -0.3843  0.006783  0.0185  -0.04704  -0.02263  -0.1058  -0.7622
6.282e+09  0.5829  -0.5539  -0.02127  -0.02308  -0.04524  -0.03585  -0.3759  -0.7076
6.284e+09  0.38  -0.7457  0.01194  -0.02979  -0.02498  0.009642  -0.5773  -0.5308
6.285e+09  0.08774  -0.8335  -0.008524  0.01246  0.05519  0.03133  -0.7348  -0.2794
6.286e+09  -0.1779  -0.7689  0.02244  -0.03253  -0.001309  -0.01818  -0.783  -0.02872
6.288e+09  -0.4265  -0.6937  0.01329  0.005628  -0.001084  -0.001604  -0.7527  0.2792
6.289e+09  -0.6545  -0.4876  -0.01833  0.01615  -0.05224  -0.02617  -0.6207  0.5034
6.29e+09  -0.8043  -0.2308  0.02228  0.01058  -0.0005512  0.002896  -0.4192  0.6893
6.291e+09  -0.8438  0.06055  0.01039  -0.009236  0.02948  0.03516  -0.1891  0.7895
6.292e+09  -0.7077  0.4543  -0.004851  -0.003094  0.02667  0.02984  0.1038  0.7893
6.294e+09  -0.5513  0.5896  0.01463  -0.0009583  0.006308  -0.01199  0.3677  0.7098
6.295e+09  -0.3068  0.7993  -0.002168  -0.006608  0.009834  0.04094  0.6493  0.5152
6.296e+09  -0.07537  0.8225  0.000425  0.00457  -0.0198  0.01229  0.7537  0.2818
6.298e+09  0.1945  0.8252  0.009059  -0.01777  0.01636  0.04692  0.7926  0.03356
6.299e+09  0.4667  0.6663  0.006654  -0.02088  -0.04687  -0.002011  0.7488  -0.2925
6.3e+09  0.7538  0.4925  -0.006933  -0.03045  -0.005002  -0.02336  0.6414  -0.5328
6.301e+09  0.8423  0.1621  -0.004344  -0.002207  0.02535  0.03501  0.4454  -0.7177
6.302e+09  0.7881  -0.07312  -0.02894  0.006796  -0.04618  0.002442  0.1424  -0.8166
6.304e+09  0.7209  -0.4018  0.002923  -0.004256  -0.0265  0.01137  -0.1393  -0.8134
6.305e+09  0.562  -0.5898  0.02247  -0.006062  -0.01004  0.0056  -0.4033  -0.756
6.306e+09  0.3221  -0.7443  0.001364  -0.008162  -0.003154  0.1079  -0.6407  -0.5692
6.308e+09  0.04077  -0.8518  -0.02353  -0.01838  -0.0207  0.03874  -0.8016  -0.2838
6.309e+09  -0.2489  -0.8157  -0.006347  -0.005421  0.05337  0.0005604  -0.8494  -0.01742
6.31e+09  -0.5012  -0.5711  -0.03909  0.007991  -0.02718  -0.02494  -0.8327  0.2668
6.311e+09  -0.7268  -0.4755  -0.01256  -0.04249  -0.01246  -0.003423  -0.6513  0.5164
6.312e+09  -0.8448  -0.1656  -0.02697  0.01181  0.02496  0.01086  -0.4505  0.7573
6.314e+09  -0.8216  0.1761  0.007621  -0.04614  0.04809  -0.01884  -0.1606  0.8492
6.315e+09  -0.6889  0.4002  0.00323  -0.01212  -0.01905  0.01035  0.1536  0.8585
6.316e+09  -0.5367  0.6481  -0.007378  0.01414  -0.00697  0.01633  0.4436  0.736
6.318e+09  -0.2989  0.7574  -0.006583  0.006132  -0.01039  0.01792  0.7002  0.5693
6.319e+09  0.06156  0.8232  0.02158  -0.04283  -0.03079  0.01433  0.8372  0.3171
6.32e+09  0.2885  0.8008  -0.007313  -0.01251  0.02377  0.02834  0.8862  0.02437
6.321e+09  0.5534  0.6225  0.02355  -0.01361  -0.03199  0.04129  0.8624  -0.2871
6.322e+09  0.7372  0.4151  0.01885  -0.02803  -0.01194  0.009058  0.6973  -0.5797
6.324e+09  0.831  0.1157  0.01733  -0.004385  -0.006998  0.05003  0.4617  -0.7522
6.325e+09  0.8295  -0.2152  -0.002388  -0.01953  0.0008101  0.001994  0.1686  -0.8686
6.326e+09  0.7065  -0.4856  0.02431  0.04009  0.03657  -0.01017  -0.1298  -0.8597
6.328e+09  0.5346  -0.7199  0.003989  0.01657  -0.05002  0.06385  -0.4301  -0.7872
6.329e+09  0.1748  -0.8158  -0.01299  0.01398  -0.02571  0.01455  -0.6761  -0.6143
6.33e+09  -0.04071  -0.8725  -0.009826  -0.0213  0.01113  -0.0495  -0.8827  -0.3439
6.331e+09  -0.3916  -0.8048  -0.00198  0.003523  0.03191  0.0215  -0.8557  -0.02232
6.332e+09  -0.6254  -0.5996  0.02658  0.005845  0.0254  -0.01943  -0.874  0.2651
6.334e+09  -0.73  -0.3736  0.01822  0.0125  -0.03593  -0.008786  -0.7071  0.5874
6.335e+09  -0.8731  -0.06628  -0.01534  -0.01997  -0.005568  -0.03727  -0.4657  0.7904
6.336e+09  -0.8161  0.2048  -0.01268  0.006507  -0.009777  0.01066  -0.1773  0.8775
6.338e+09  -0.6633  0.5428  -0.002859  -0.01728  0.001971  0.06227  0.09276  0.898
6.339e+09  -0.4768  0.7382  -0.01567  -0.01703  -0.02554  -0.04235  0.4686  0.8083
6.34e+09  -0.2225  0.8079  0.017  -0.02262  0.03898  -0.02517  0.6752  0.6256
6.341e+09  0.1261  0.854  0.01142  8.05e-05  0.003412  0.01797  0.8696  0.368
6.342e+09  0.4304  0.7591  -0.01865  0.00937  -0.0001605  0.01576  0.9202  0.02154
6.344e+09  0.6765  0.5484  -0.01921  0.01317  0.01291  0.04877  0.8731  -0.276
6.345e+09  0.8221  0.2611  0.04754  0.01774  0.01533  0.03185  0.7343  -0.5673
6.346e+09  0.894  -0.01205  -0.01835  -0.01775  -0.002004  0.02639  0.5249  -0.7556
6.348e+09  0.8011  -0.2851  0.002598  0.0274  0.009114  0.02755  0.2363  -0.8728
6.349e+09  0.7252  -0.5803  -0.0009602  -0.0103  0.0105  0.002879  -0.1115  -0.8895
6.35e+09  0.4539  -0.7698  -0.006887  -0.01829  0.03715  0.03783  -0.4452  -0.8307
6.351e+09  0.1239  -0.8423  -0.02211  -0.01773  -0.03308  -0.02234  -0.6749  -0.6547
6.352e+09  -0.2163  -0.8796  -0.02466  -0.02498  -0.004975  -0.05227  -0.8636  -0.3752
6.354e+09  -0.4673  -0.7879  0.01278  0.0009511  -0.01788  -0.02058  -0.9502  -0.05347
6.355e+09  -0.6856  -0.5512  0.0209  -0.03271  -0.01167  0.03589  -0.9139  0.2722
6.356e+09  -0.8292  -0.3087  0.003209  -0.01982  0.01953  0.03356  -0.7312  0.5254
6.358e+09  -0.8634  0.06056  -0.002642  0.01405  0.004212  -0.02346  -0.5765  0.788
6.359e+09  -0.8289  0.3599  -0.008894  0.006566  -0.006243  -0.03389  -0.2584  0.9503
6.36e+09  -0.5922  0.6346  0.0171  0.01077  0.000422  -0.00149  0.1073  0.9372
6.361e+09  -0.3846  0.8139  -0.01198  0.01  -0.03933  0.0106  0.417  0.888
6.362e+09  -0.122  0.8786  0.01651  0.00213  0.02172  0.03278  0.6841  0.655
6.364e+09  0.2046  0.8228  0.02028  0.02294  -0.01103  -0.03165  0.9159  0.3622
6.365e+09  0.5336  0.7084  0.01024  0.01203  -0.03299  0.03261  0.945  0.08387
6.366e+09  0.7337  0.5453  -0.01519  -0.02079  -0.007136  0.01257  0.9026  -0.2395
6.368e+09  0.8268  0.2701  0.03271  0.01724  -0.0003801  0.01954  0.7658  -0.5193
6.369e+09  0.8696  -0.1023  -0.04762  0.01231  -0.001319  0.01742  0.5326  -0.7451
6.37e+09  0.7449  -0.4249  -0.01362  -0.001264  -0.02198  -0.03401  0.2331  -0.9066
6.371e+09  0.5901  -0.6097  -0.004891  0.004449  0.01033  -0.01618  -0.09211  -0.9434
6.372e+09  0.3978  -0.8474  0.01865  -0.01621  -0.05031  -0.05257  -0.375  -0.8353
6.374e+09  0.06211  -0.8365  -0.01252  0.0301  0.02767  -0.0402  -0.6677  -0.6627
6.375e+09  -0.2744  -0.8198  -0.01539  0.05506  0.01839  0.031  -0.8703  -0.4112
6.376e+09  -0.5153  -0.6923  0.01493  0.004711  -0.01893  0.0388  -0.9177  -0.101
6.378e+09  -0.7707  -0.4551  0.04525  0.01104  -0.03199  0.04461  -0.8979  0.2582
6.379e+09  -0.9454  -0.1484  -0.01387  -0.01794  -0.012  0.007147  -0.7759  0.4951
6.38e+09  -0.8115  0.1786  0.05762  0.01295  -0.002139  -0.0532  -0.576  0.8249
6.381e+09  -0.7429  0.465  0.05033  0.006661  0.004898  -0.006603  -0.2551  0.8597
6.382e+09  -0.5902  0.6998  -0.004239  -0.02066  -0.01159  -0.05688  0.02365  0.9386
6.384e+09  -0.2411  0.8836  0.04116  -0.03582  -0.02478  -0.0316  0.373  0.8752
6.385e+09  0.00132  0.8698  -0.01227  0.00226  -0.04401  0.03441  0.6469  0.6899
6.386e+09  0.3107  0.8466  0.01079  0.01618  -0.001001  0.02742  0.8172  0.4448
6.388e+09  0.6198  0.6758  -0.01174  -0.0003682  -0.002237  -0.002164  0.9204  0.08939
6.389e+09  0.7991  0.4227  0.001678  -0.007561  0.009327  0.07408  0.9023  -0.1925
6.39e+09  0.8951  0.1566  0.05667  0.01135  0.05801  0.0191  0.7519  -0.5657
6.391e+09  0.8047  -0.1597  -3.124e-05  -0.01883  -0.01799  0.015  0.59  -0.7246
6.392e+09  0.7993  -0.4796  -0.002332  -0.01868  -0.008254  0.03683  0.3058  -0.9014
6.394e+09  0.5527  -0.6783  0.01647  -0.02094  0.03674  0.03416  -0.01641  -0.9392
6.395e+09  0.2477  -0.8624  0.01086  0.06236  0.005514  -0.03016  -0.3231  -0.8633
6.396e+09  -0.02662  -0.9036  -0.02097  0.001409  0.00741  -0.05155  -0.6228  -0.6864
6.398e+09  -0.3172  -0.8136  -0.01544  -0.005276  -0.01335  -0.01587  -0.8421  -0.4266
6.399e+09  -0.6032  -0.6502  -0.01695  -0.004242  -0.04361  0.02597  -0.8999  -0.1303
6.4e+09  -0.7957  -0.4147  0.01423  0.006749  -0.01255  0.04902  -0.882  0.1297
6.401e+09  -0.8835  -0.1124  0.01776  -0.03034  -0.02042  -0.04369  -0.7907  0.4878
6.402e+09  -0.8605  0.1876  0.002101  -0.02904  -0.05146  0.01381  -0.6147  0.6732
6.404e+09  -0.7119  0.5421  -0.01702  0.02115  0.0007412  0.02567  -0.3299  0.8585
6.405e+09  -0.5941  0.6739  0.02315  0.03854  -0.005642  -0.01562  -0.02193  0.9413
6.406e+09  -0.2241  0.8499  -0.0002142  0.03512  -0.01851  -0.02335  0.3156  0.8442
6.408e+09  0.06528  0.8452  -0.01176  0.05664  0.01902  -0.01214  0.5412  0.695
6.409e+09  0.3563  0.8591  -0.01085  0.01473  0.00163  -0.005755  0.7318  0.481
6.41e+09  0.6207  0.6303  0.004273  0.01796  0.01351  0.009026  0.912  0.1815
6.411e+09  0.7956  0.3731  -0.008796  -0.007859  0.01817  0.01622  0.9283  -0.1365
6.412e+09  0.8868  0.09016  -0.01162  0.02592  -0.04378  -0.003552  0.7986  -0.4315
6.414e+09  0.8387  -0.2404  0.02188  -0.0002526  0.02155  -0.01537  0.6109  -0.6608
6.415e+09  0.6906  -0.5079  0.0356  0.01724  -0.002702  0.02212  0.3136  -0.8203
6.416e+09  0.469  -0.7175  -0.03618  -0.01101  -0.01382  -0.009284  0.04237  -0.8459
6.418e+09  0.2025  -0.8754  0.02931  -0.002727  -0.04982  -0.01647  -0.28  -0.8504
6.419e+09  -0.09534  -0.9237  0.02958  -0.009981  -0.00784  -0.006035  -0.5505  -0.6784
6.42e+09  -0.3317  -0.8341  0.01119  -0.003766  -0.0186  0.02  -0.75  -0.4989
6.421e+09  -0.6095  -0.6576  0.03588  0.01707  0.00676  0.0255  -0.9  -0.1812
6.422e+09  -0.8326  -0.3609  0.03462  0.02087  -0.05851  -0.02639  -0.8217  0.07185
6.424e+09  -0.8848  -0.1008  -0.06086  -0.01806  0.01133  -0.03295  -0.781  0.4184
6.425e+09  -0.8148  0.2151  0.0204  -0.007548  -0.01072  0.004117  -0.5834  0.6155
6.426e+09  -0.7146  0.5043  -0.00487  0.03044  0.01189  0.02247  -0.377  0.7963
6.428e+09  -0.4509  0.7635  0.005479  0.01714  -0.01528  -0.003477  -0.09147  0.8467
6.429e+09  -0.1523  0.8085  -0.005373  -0.05947  0.02342  -0.01483  0.2006  0.8056
6.43e+09  0.0814  0.881  0.0006436  0.04277  0.02195  0.01896  0.5257  0.7248
6.431e+09  0.3535  0.8213  -0.0233  -0.02922  -0.01455  0.04636  0.7171  0.5049
6.432e+09  0.6074  0.6026  -0.04829  -0.01522  0.02934  0.03287  0.805  0.1987
6.434e+09  0.7898  0.3543  -0.03328  -0.05368  0.02032  0.037  0.8455  -0.05097
6.435e+09  0.9076  0.06145  0.01021  -0.0174  -0.02899  -0.02938  0.747  -0.3491
6.436e+09  0.8852  -0.2535  -0.03032  0.01942  0.03445  0.003769  0.6095  -0.5805
6.438e+09  0.7265  -0.4984  -0.001448  -0.001807  0.05678  0.02087  0.3858  -0.782
6.439e+09  0.5005  -0.7428  -0.01981  0.04095  0.03562  0.02838  0.1052  -0.8557
6.44e+09  0.1745  -0.8144  -0.01112  -0.04689  0.004117  -0.01913  -0.2502  -0.8321
6.441e+09  -0.1069  -0.8833  -0.01186  -0.01051  -0.01668  0.06815  -0.4649  -0.6971
6.442e+09  -0.4097  -0.8143  0.01557  0.0483  0.002208  -0.02167  -0.7088  -0.482
6.444e+09  -0.6904  -0.6072  -0.0312  0.006877  -0.02252  0.03427  -0.8245  -0.2636
6.445e+09  -0.8119  -0.3591  0.01248  -0.00195  0.02851  0.01898  -0.8596  0.04269
6.446e+09  -0.8807  -0.03904  0.01281  0.04769  -0.001228  -0.005682  -0.7538  0.3369
6.448e+09  -0.8338  0.2517  -0.02205  0.005651  0.02061  0.04439  -0.5846  0.6119
6.449e+09  -0.6522  0.543  0.008575  -0.04354  -0.02559  -0.02477  -0.3295  0.7406
6.45e+09  -0.4587  0.7531  0.02078  0.001785  0.01672  -0.01237  -0.07514  0.8142
6.451e+09  -0.159  0.8617  -0.04028  -0.0343  0.001808  -0.0136  0.2317  0.809
6.452e+09  0.06805  0.9037  -0.002377  0.02136  -0.01825  0.00995  0.4677  0.6825
6.454e+09  0.4514  0.7884  -0.01617  -0.005383  0.03196  -0.02292  0.657  0.4782
6.455e+09  0.6218  0.5973  0.008239  -0.04907  0.00567  0.01577  0.8237  0.2196
6.456e+09  0.8253  0.3171  0.008569  -0.0279  0.03998  0.02831  0.8156  -0.05801
6.458e+09  0.862  0.0754  0.007065  0.01113  0.0143  -0.02019  0.7549  -0.3411
6.459e+09  0.8342  -0.2756  0.02626  -0.01956  -0.03409  -0.0129  0.5549  -0.5719
6.46e+09  0.6932  -0.5958  0.001579  -0.01797  0.01238  -0.009018  0.3132  -0.7707
6.461e+09  0.4828  -0.7963  -0.03353  0.01775  -0.03456  -0.02645  0.05251  -0.8031
6.462e+09  0.1976  -0.8879  -0.02838  0.009677  0.02689  -0.04939  -0.207  -0.7911
6.464e+09  -0.1128  -0.846  -0.02634  -0.008445  -0.01511  0.05533  -0.4093  -0.6806
6.465e+09  -0.4507  -0.8123  0.04576  -0.02018  -0.01951  -0.00412  -0.6283  -0.4845
6.466e+09  -0.658  -0.5973  0.03038  0.01617  -0.00202  -0.005623  -0.769  -0.2105
6.468e+09  -0.8317  -0.3511  0.008964  -0.0005953  0.05664  -0.01999  -0.8149  0.0497
6.469e+09  -0.9522  0.008363  0.009577  -0.03122  0.00169  0.01023  -0.7318  0.3295
6.47e+09  -0.8772  0.2899  0.002904  0.0009813  0.0282  -0.002966  -0.5552  0.5851
6.471e+09  -0.7422  0.544  -0.003168  -0.001813  -0.008244  -0.01773  -0.3209  0.6987
6.472e+09  -0.4657  0.7793  -0.05133  -0.008303  -0.008757  0.0144  -0.04276  0.7722
6.474e+09  -0.1786  0.9451  -0.001907  -0.001092  0.01754  0.0171  0.194  0.7745
6.475e+09  0.1703  0.9048  -0.03373  -0.002043  0.02718  0.02953  0.4584  0.6499
6.476e+09  0.4042  0.7928  0.02365  0.003998  -0.003235  -0.03756  0.6513  0.4435
6.478e+09  0.6621  0.6167  0.02856  -0.02295  0.02081  0.04659  0.701  0.1638
6.479e+09  0.8409  0.3485  -0.01324  -0.0141  -0.005094  -0.03912  0.8293  -0.05886
6.48e+09  0.8984  0.05344  0.02421  -0.002124  -0.03414  0.0134  0.6999  -0.335
6.481e+09  0.8665  -0.2778  -0.07  0.0008135  -0.009557  -0.01543  0.5579  -0.5587
6.482e+09  0.7172  -0.5852  0.03149  0.002071  0.003018  0.01861  0.2955  -0.6968
6.484e+09  0.4413  -0.7841  -0.02482  -0.009639  0.04918  0.03451  0.02939  -0.7871
6.485e+09  0.1486  -0.9056  0.001344  -0.02465  0.01634  0.01005  -0.1792  -0.7524
6.486e+09  -0.1197  -0.9025  0.002081  0.01774  -0.001322  0.02733  -0.4992  -0.6684
6.488e+09  -0.4418  -0.8038  -0.05063  0.02294  -0.03874  -0.04972  -0.6525  -0.4477
6.489e+09  -0.681  -0.5611  0.01679  -0.01728  0.02068  -0.003658  -0.7338  -0.1749
6.49e+09  -0.8555  -0.3366  -0.0216  -0.03598  0.00631  -0.03125  -0.681  0.06629
6.491e+09  -0.9116  0.0263  0.01582  0.05203  0.04876  -0.006908  -0.6991  0.3194
6.492e+09  -0.829  0.3235  0.05556  -0.03537  0.002045  0.01148  -0.5338  0.5438
6.494e+09  -0.6817  0.6116  -0.009584  0.02568  -0.01977  0.02204  -0.3142  0.6504
6.495e+09  -0.458  0.8192  -0.0265  0.02551  0.00579  0.03323  -0.03686  0.7601
6.496e+09  -0.1322  0.904  -0.00614  0.02611  0.0372  0.03244  0.2344  0.7025
6.498e+09  0.2126  0.8933  0.02051  0.02458  -0.005234  -0.01721  0.4423  0.605
6.499e+09  0.4998  0.8301  0.02849  -0.01314  0.005096  -0.02192  0.6703  0.3857
6.5e+09  0.7579  0.5553  -0.01751  -0.02883  -0.03177  -0.03883  0.7193  0.1581
6.501e+09  0.882  0.3192  -0.02919  -0.0007505  0.0002764  0.001329  0.7533  -0.1142
6.502e+09  0.9328  -0.0402  0.01218  0.00356  0.004848  0.01832  0.6658  -0.3392
6.504e+09  0.8641  -0.3005  -0.01314  0.002206  -0.001333  -0.0106  0.491  -0.5648
6.505e+09  0.7006  -0.6176  0.0001342  0.02849  -0.01597  -0.02339  0.2916  -0.7258
6.506e+09  0.4017  -0.8646  0.02465  0.003753  0.01582  0.001842  0.02682  -0.7758
6.508e+09  0.1241  -0.8999  -0.01486  0.03286  0.007453  0.03303  -0.2406  -0.7103
6.509e+09  -0.1763  -0.9166  -0.006081  -0.00719  0.02311  -0.01097  -0.4822  -0.6232
6.51e+09  -0.5626  -0.7812  0.0003332  -0.01757  0.01521  0.03513  -0.671  -0.3964
6.511e+09  -0.7646  -0.5863  0.001896  -0.001357  0.0171  -0.02596  -0.768  -0.1283
6.512e+09  -0.942  -0.2908  -0.007874  -0.002008  -0.02632  0.02695  -0.7441  0.1394
6.514e+09  -0.9596  0.07121  -0.01374  -0.02689  0.004884  -0.02017  -0.6251  0.3658
6.515e+09  -0.8921  0.3501  0.00179  -0.02723  0.0108  0.04625  -0.4527  0.572
6.516e+09  -0.7456  0.6605  0.01968  -0.01108  -0.05624  -0.02804  -0.2506  0.714
6.518e+09  -0.4198  0.8758  0.02387  -0.002072  -0.02041  0.007003  0.0333  0.7648
6.519e+09  -0.1034  0.9782  0.003865  0.006513  -0.03211  -0.01812  0.2901  0.7109
6.52e+09  0.2714  0.9491  0.0002598  -0.005246  0.01762  0.0162  0.5265  0.5397
6.521e+09  0.6037  0.8291  -0.0004094  0.02015  0.002901  0.03226  0.6598  0.3569
6.522e+09  0.8112  0.5142  0.01333  -0.01086  -0.009031  0.0227  0.7421  0.1267
6.524e+09  0.9843  0.1788  -0.01671  0.02387  -0.009086  0.03215  0.7035  -0.1432
6.525e+09  0.9515  -0.1232  0.004829  -0.03613  -0.009008  0.01205  0.6102  -0.3937
6.526e+09  0.8533  -0.4745  0.03781  -0.03955  0.01429  0.02145  0.4515  -0.5904
6.528e+09  0.6503  -0.7034  -0.009029  0.03267  -0.01561  -0.01259  0.2202  -0.6631
6.529e+09  0.3393  -0.9434  -0.004072  0.01583  -0.01675  9.58e-05  -0.05953  -0.6707
6.53e+09  0.03378  -0.987  0.02781  0.03212  -0.03177  0.006327  -0.3033  -0.6327
6.531e+09  -0.2937  -0.9383  0.01981  0.03045  0.01418  -0.007095  -0.4503  -0.4732
6.532e+09  -0.5939  -0.7504  -0.01523  0.009394  0.00196  -0.007971  -0.5917  -0.3164
6.534e+09  -0.7964  -0.5242  0.01055  -0.0516  -0.03617  0.02266  -0.6159  -0.07928
6.535e+09  -0.9454  -0.1662  -0.02736  0.02214  0.02158  0.04962  -0.6215  0.1322
6.536e+09  -1.034  0.2279  0.03688  -0.007738  0.01851  -0.02139  -0.544  0.3129
6.538e+09  -0.7919  0.5222  0.009851  0.02528  -0.04135  -0.01896  -0.4488  0.4632
6.539e+09  -0.602  0.7776  -0.004808  -0.02413  0.03096  0.003932  -0.2343  0.5987
6.54e+09  -0.25  0.8674  0.04458  -0.01217  0.01745  -0.02008  -0.06646  0.6961
6.541e+09  0.07762  0.9788  -0.0138  -0.04445  0.001906  0.006382  0.1792  0.6883
6.542e+09  0.3706  0.9303  0.001176  0.01678  -0.01872  -0.03397  0.3954  0.5913
6.544e+09  0.691  0.6697  0.01862  0.002965  0.01278  -0.02917  0.6047  0.3927
6.545e+09  0.8416  0.4274  -0.0288  0.002149  -0.03367  -0.03376  0.7046  0.1909
6.546e+09  0.9858  0.1046  -0.001415  -0.01911  0.009123  -0.005284  0.7042  -0.06839
6.548e+09  0.9052  -0.2372  -0.03031  0.01775  0.0298  -0.0233  0.6348  -0.3148
6.549e+09  0.8016  -0.5404  -0.005519  -0.01472  0.05545  0.03208  0.5278  -0.5424
6.55e+09  0.5377  -0.8084  0.0007928  -0.008276  0.04278  -0.02285  0.2862  -0.6644
