# Hz S RI R 50
6.25e+09  0.4487  0.6863  0.0335  0.01131  0.003136  -0.004939  0.1771  0.4765
6.251e+09  0.6596  0.5822  -0.02068  0.0214  0.003317  0.02188  0.3524  0.4121
6.252e+09  0.8277  0.2304  -0.0473  -0.04363  -0.0262  0.02209  0.5394  0.2434
6.254e+09  0.8256  -0.06553  -0.002008  0.004407  -0.00634  0.02704  0.6289  0.03452
6.255e+09  0.7868  -0.335  -0.02711  0.01049  0.01649  0.00249  0.56  -0.2243
6.256e+09  0.6415  -0.6224  0.008864  0.01611  -0.0274  -0.01085  0.4713  -0.4442
6.258e+09  0.3522  -0.7774  -0.006871  -0.003325  0.02708  0.02309  0.2946  -0.5987
6.259e+09  0.1139  -0.8073  -0.01772  -0.01947  0.008986  0.005002  0.06638  -0.6698
6.26e+09  -0.1877  -0.8412  0.0006185  -0.01665  0.06213  0.04274  -0.2066  -0.6754
6.261e+09  -0.4494  -0.7083  0.02267  0.01771  -0.04209  0.1017  -0.4319  -0.5582
6.262e+09  -0.6807  -0.4843  0.007435  -0.001279  0.01905  -0.03146  -0.6482  -0.3623
6.264e+09  -0.7686  -0.181  0.01531  -0.01731  -0.03639  0.001088  -0.6872  -0.1189
6.265e+09  -0.8527  0.09519  0.0249  0.001234  0.01845  0.005888  -0.7083  0.1653
6.266e+09  -0.7952  0.3031  0.02314  -0.01243  -0.01498  0.0457  -0.6029  0.4137
6.268e+09  -0.5697  0.6213  -9.702e-05  -0.01727  -0.01695  0.02124  -0.4343  0.6091
6.269e+09  -0.3373  0.7544  -0.03058  0.01362  -0.01167  -0.053  -0.2032  0.7031
6.27e+09  -0.04723  0.8148  0.02049  0.01414  0.01104  0.05906  0.07745  0.7302
6.271e+09  0.2796  0.7786  -0.01899  0.0001768  0.05528  0.01317  0.3279  0.6567
6.272e+09  0.5024  0.6447  0.01925  -0.01153  0.02539  -0.002685  0.5414  0.528
6.274e+09  0.6579  0.4242  0.005855  -0.002303  -0.06737  -0.003484  0.6865  0.2868
6.275e+09  0.7655  0.1779  -0.01797  -0.02638  0.05194  0.007831  0.7605  0.02109
6.276e+09  0.8647  -0.1164  -0.04374  -0.002974  0.007607  0.02134  0.7028  -0.2179
6.278e+09  0.7108  -0.4177  -0.004483  -8.111e-05  0.006745  -0.04992  0.5994  -0.4632
6.279e+09  0.5027  -0.641  0.004936  -0.02117  0.01036  0.01596  0.3928  -0.6464
6.28e+09  0.2562  -0.805  -0.008178  0.01796  -0.002316  0.04171  0.1805  -0.7615
6.281e+09  -0.04873  -0.8332  0.01266  -0.02821  0.02879  -0.01523  -0.1053  -0.7847
6.282e+09  -0.3312  -0.8143  0.007642  -0.01701  0.003596  0.009437  -0.3717  -0.6922
6.284e+09  -0.6066  -0.5892  0.03577  -0.006481  0.003652  -0.044  -0.6163  -0.519
6.285e+09  -0.6945  -0.3475  0.001429  -0.01035  -0.009331  0.02802  -0.7324  -0.3044
6.286e+09  -0.8222  0.01598  0.00517  -0.01838  0.03821  -0.05884  -0.8365  -0.04103
6.288e+09  -0.7809  0.1906  0.004783  0.002569  -0.04411  -0.04969  -0.7696  0.2334
6.289e+09  -0.6776  0.4407  -0.002816  -0.005465  -0.01333  0.01817  -0.606  0.5033
6.29e+09  -0.474  0.6775  0.004923  -0.00908  0.03118  -0.02632  -0.4379  0.7043
6.291e+09  -0.2155  0.8089  0.008389  -0.01172  0.02225  -0.0008967  -0.1442  0.7888
6.292e+09  0.09479  0.8254  0.02513  0.009778  0.008111  -6.673e-05  0.1483  0.8239
6.294e+09  0.3778  0.7518  0.006886  -0.0182  -0.02126  -0.01286  0.3848  0.7213
6.295e+09  0.5504  0.573  0.00035  0.02568  0.001702  0.03551  0.6281  0.5386
6.296e+09  0.7585  0.2757  0.003103  -0.004003  0.02531  0.04267  0.7816  0.2813
6.298e+09  0.848  0.02513  -0.01093  0.01371  0.008982  0.04499  0.7972  -0.002038
6.299e+09  0.7644  -0.2331  0.008563  -0.01606  0.006002  -0.01744  0.7805  -0.2886
6.3e+09  0.5809  -0.5612  -0.02474  -0.01595  -0.007004  0.007014  0.6605  -0.546
6.301e+09  0.4099  -0.7227  0.01319  0.006036  0.0359  0.0148  0.4086  -0.7038
6.302e+09  0.1465  -0.8329  -0.01495  -0.01266  0.006695  -0.0008727  0.1171  -0.8297
6.304e+09  -0.1911  -0.7518  0.01081  0.006386  0.001591  -0.006083  -0.1127  -0.8269
6.305e+09  -0.4386  -0.6923  0.004961  0.01571  0.0318  0.01635  -0.4022  -0.7465
6.306e+09  -0.654  -0.5411  -0.004676  0.02068  0.0195  -1.511e-05  -0.6595  -0.5595
6.308e+09  -0.7609  -0.2369  0.005216  0.03027  0.008777  -0.001495  -0.7864  -0.2818
6.309e+09  -0.8595  0.08099  0.01445  -0.005309  -0.01937  -0.009324  -0.865  -0.02394
6.31e+09  -0.7701  0.3249  -0.009431  -0.004498  0.02608  -0.009267  -0.7988  0.2952
6.311e+09  -0.5775  0.6001  0.009597  -0.0003357  0.003043  -0.001411  -0.6368  0.5627
6.312e+09  -0.3316  0.779  0.02015  0.007126  0.01304  0.04358  -0.4212  0.7223
6.314e+09  0.0146  0.8635  -0.008874  0.01255  -0.0007471  -0.01647  -0.1386  0.8501
6.315e+09  0.2084  0.8233  0.003648  -0.002621  -0.01058  0.04585  0.121  0.8793
6.316e+09  0.5171  0.6495  0.04072  0.007936  -0.005154  -0.04716  0.4367  0.7877
6.318e+09  0.672  0.4248  -0.03867  -0.01815  -0.02868  -0.03907  0.6606  0.5486
6.319e+09  0.8269  0.1807  0.04561  -0.01161  0.01488  0.05274  0.8151  0.339
6.32e+09  0.8671  -0.1179  0.01727  -0.02811  -0.03306  -0.05053  0.8893  0.003206
6.321e+09  0.7758  -0.4154  -0.006555  0.01895  0.02595  -0.006474  0.8396  -0.2934
6.322e+09  0.5314  -0.6502  0.007645  7.264e-05  -0.02548  -0.009149  0.6953  -0.5735
6.324e+09  0.2346  -0.7916  -0.02072  -0.007209  0.005017  -0.02705  0.4694  -0.7738
6.325e+09  -0.01652  -0.8489  -0.01442  -0.004347  -0.01888  -0.005054  0.1881  -0.8611
6.326e+09  -0.3094  -0.8261  0.01515  -0.02213  0.0213  0.04146  -0.171  -0.8811
6.328e+09  -0.5707  -0.646  -0.01465  0.009499  0.03199  -0.02416  -0.4072  -0.7761
6.329e+09  -0.7949  -0.4337  -0.03947  0.02701  0.1153  -0.05836  -0.6436  -0.5423
6.33e+09  -0.8533  -0.1007  0.0169  0.00168  0.007279  -0.0446  -0.8483  -0.3361
6.331e+09  -0.8416  0.2284  0.002322  -0.02956  0.01818  -0.0017  -0.891  -0.04615
6.332e+09  -0.7003  0.5112  -0.02256  0.007735  0.004505  -0.01624  -0.8766  0.2754
6.334e+09  -0.4808  0.7013  0.01488  0.02387  -0.03039  -0.02674  -0.725  0.5985
6.335e+09  -0.2201  0.8133  0.001141  0.003879  0.007946  0.000435  -0.4622  0.7645
6.336e+09  0.1286  0.8786  0.00828  0.001451  -0.02351  0.001081  -0.1743  0.9067
6.338e+09  0.4169  0.8282  -0.005552  0.004144  -0.01473  -0.03703  0.09893  0.9176
6.339e+09  0.6222  0.597  -0.01186  -0.02991  0.04531  0.005499  0.3988  0.8166
6.34e+09  0.8268  0.3234  -0.02937  -0.001654  -0.0322  0.0202  0.6921  0.6467
6.341e+09  0.8831  0.01235  0.007947  0.01605  0.03777  -0.01544  0.8527  0.3823
6.342e+09  0.8346  -0.2525  0.001783  -0.01126  0.006782  0.01687  0.9522  0.03849
6.344e+09  0.663  -0.5398  0.01281  0.02116  -0.01528  0.01391  0.8786  -0.2762
6.345e+09  0.4612  -0.7304  -0.01251  0.001026  0.02008  -0.0134  0.7128  -0.5371
6.346e+09  0.1098  -0.8363  0.01396  0.02853  -0.008368  -0.03267  0.507  -0.7913
6.348e+09  -0.1934  -0.8264  0.03163  0.01994  -0.0499  0.01116  0.2012  -0.9312
6.349e+09  -0.4441  -0.754  -0.03297  0.01041  0.002206  0.002364  -0.1301  -0.937
6.35e+09  -0.7132  -0.5465  -0.02347  0.002137  0.0003059  -0.02095  -0.4044  -0.8259
6.351e+09  -0.8595  -0.2618  -0.0008621  -0.02663  -0.02191  0.004359  -0.7163  -0.6403
6.352e+09  -0.8592  0.1042  -0.01361  -0.01581  -0.007651  0.0008153  -0.8347  -0.3562
6.354e+09  -0.8038  0.3672  0.009981  -0.004409  -0.02256  0.01703  -0.9377  -0.03461
6.355e+09  -0.5454  0.6237  0.02753  -0.006116  -0.02514  -0.002299  -0.8958  0.2825
6.356e+09  -0.3525  0.7982  0.0194  -0.04474  0.04635  0.00516  -0.7327  0.5554
6.358e+09  -0.01633  0.8401  -0.01719  -0.0157  0.04892  0.01399  -0.5552  0.8093
6.359e+09  0.2626  0.8372  -0.009229  0.002433  -0.05988  0.00795  -0.2178  0.9209
6.36e+09  0.5371  0.7102  -0.001468  -0.005051  0.01754  0.01801  0.06409  0.9667
6.361e+09  0.7308  0.454  -0.01025  0.02472  0.009577  -0.01324  0.3904  0.8299
6.362e+09  0.8757  0.1868  -0.007484  0.02  0.01248  0.0525  0.6836  0.6988
6.364e+09  0.8244  -0.08677  0.02886  -0.01095  0.01504  -0.005439  0.8567  0.3942
6.365e+09  0.7817  -0.4097  0.01449  -0.009541  0.006432  -0.01412  0.9291  0.04508
6.366e+09  0.5371  -0.6878  -5.554e-05  0.01182  -0.0246  -0.0187  0.9482  -0.2298
6.368e+09  0.2958  -0.8157  0.01155  -0.009064  0.02297  0.002535  0.7581  -0.5347
6.369e+09  0.005833  -0.8242  -0.01984  -0.01198  0.01159  -0.009404  0.5564  -0.77
6.37e+09  -0.2853  -0.8262  0.03421  -0.007545  -0.02008  0.02302  0.2497  -0.8722
6.371e+09  -0.5896  -0.6671  0.04103  0.005623  0.001063  0.04705  -0.06946  -0.9663
6.372e+09  -0.82  -0.414  -0.0002474  -0.007158  -0.01651  0.02655  -0.3746  -0.8431
6.374e+09  -0.8762  -0.1226  0.005691  -0.02374  -0.02295  -0.02172  -0.6806  -0.6697
6.375e+09  -0.8453  0.1862  0.01941  0.03189  -0.01036  0.008883  -0.8314  -0.3946
6.376e+09  -0.753  0.4651  0.04663  0.004759  -0.04968  -0.0105  -0.9017  -0.0741
6.378e+09  -0.5222  0.6936  -0.006298  -0.02425  0.02906  -0.008499  -0.8692  0.2343
6.379e+09  -0.2351  0.8272  0.004489  -0.01929  -0.03513  0.02534  -0.7366  0.5426
6.38e+09  0.07067  0.8995  -0.0194  -0.02038  -0.01582  -0.02673  -0.547  0.7511
6.381e+09  0.3782  0.7804  -0.03257  0.01378  0.02874  -0.003983  -0.2607  0.8903
6.382e+09  0.6016  0.6497  -0.02007  -0.004077  0.03183  0.02405  0.04882  0.9226
6.384e+09  0.7493  0.3288  0.008372  0.001433  -0.05419  0.007443  0.3599  0.8688
6.385e+09  0.8517  0.06278  -0.04165  -0.02736  0.01068  -0.006941  0.6441  0.6428
6.386e+09  0.858  -0.2387  0.02004  0.009659  0.02592  -0.04855  0.8615  0.4353
6.388e+09  0.667  -0.5714  0.02507  -0.05237  0.0249  0.03055  0.9216  0.1297
6.389e+09  0.4733  -0.7056  -0.05965  -0.05286  0.04322  0.02558  0.9254  -0.1825
6.39e+09  0.1427  -0.8652  0.02569  0.02381  0.02219  0.01478  0.7825  -0.4551
6.391e+09  -0.1602  -0.8673  0.008497  -0.006083  0.01466  0.009709  0.5576  -0.6668
6.392e+09  -0.4404  -0.7323  0.00361  -0.03945  -0.008331  -0.02612  0.295  -0.8861
6.394e+09  -0.6454  -0.554  -0.005743  -0.02182  0.01958  0.006788  0.009662  -0.877
6.395e+09  -0.8361  -0.2531  0.02397  -0.02982  0.01962  0.03957  -0.3476  -0.8297
6.396e+09  -0.7923  0.04013  0.0218  0.0145  0.03412  -0.02223  -0.6034  -0.69
6.398e+09  -0.8041  0.2877  0.04012  0.002224  -0.002381  0.0391  -0.787  -0.451
6.399e+09  -0.6525  0.5331  0.000742  0.01817  -0.007189  0.0214  -0.9125  -0.1835
6.4e+09  -0.358  0.7582  -0.007119  0.03659  0.01031  0.01764  -0.9125  0.1855
6.401e+09  -0.1341  0.8863  -0.01532  -0.006012  0.01808  -0.006726  -0.7528  0.4857
6.402e+09  0.1547  0.8054  0.01909  -0.01882  0.03546  0.006781  -0.5707  0.7276
6.404e+09  0.4583  0.708  0.02385  0.06783  0.05676  0.01552  -0.317  0.8683
6.405e+09  0.6753  0.5408  -0.01575  0.002908  0.02021  -0.04289  0.006989  0.9375
6.406e+09  0.8624  0.2101  0.008956  -0.005942  -0.004664  0.0316  0.3384  0.8813
6.408e+09  0.8646  -0.09311  -0.01598  0.008539  -0.0003237  -0.05059  0.6133  0.7004
6.409e+09  0.7773  -0.3604  0.005319  0.003471  -0.04096  -0.01926  0.7794  0.4979
6.41e+09  0.6531  -0.6299  0.001157  -0.001656  -0.04042  0.01354  0.9099  0.2074
6.411e+09  0.3511  -0.8135  -0.01817  0.008029  -0.008471  0.04185  0.8988  -0.1344
6.412e+09  0.03755  -0.8546  -0.002953  0.0754  0.02784  0.006406  0.7991  -0.4469
6.414e+09  -0.3048  -0.8357  0.001332  -0.0189  -0.04048  0.007825  0.6188  -0.634
6.415e+09  -0.6139  -0.6755  0.02639  0.02483  -0.04721  0.01271  0.3559  -0.7903
6.416e+09  -0.7593  -0.4089  0.04633  -0.01058  -0.03777  0.05997  -0.01603  -0.9063
6.418e+09  -0.8383  -0.1267  -0.0183  0.02942  0.02695  -0.03058  -0.2478  -0.832
6.419e+09  -0.8619  0.1646  0.043  0.02654  0.02988  0.06349  -0.5013  -0.7071
6.42e+09  -0.7621  0.4592  0.01563  0.01454  -0.01306  -0.02253  -0.7456  -0.4611
6.421e+09  -0.5643  0.7252  -0.03432  0.03098  -0.0283  -0.01097  -0.8605  -0.1922
6.422e+09  -0.2831  0.9016  0.003074  0.01177  0.005061  -0.01386  -0.8378  0.1325
6.424e+09  0.07161  0.8681  0.005461  0.03545  0.003299  0.008823  -0.786  0.3995
6.425e+09  0.3983  0.7744  -0.0453  0.01814  0.0135  -0.01092  -0.6097  0.6169
6.426e+09  0.6991  0.6023  0.01383  -0.03354  -0.01698  0.0125  -0.3402  0.8241
6.428e+09  0.8162  0.3363  -0.01764  0.02854  -0.001954  0.0499  -0.04404  0.8921
6.429e+09  0.8955  0.007743  -0.001508  -0.01693  -0.02875  0.002425  0.2419  0.8355
6.43e+09  0.8533  -0.299  0.01675  -0.009674  0.02265  -0.004143  0.5002  0.7244
6.431e+09  0.6594  -0.5466  -0.04831  0.01815  0.0104  0.009974  0.6654  0.5113
6.432e+09  0.4596  -0.7981  0.03421  0.0177  0.01904  0.04009  0.8483  0.2228
6.434e+09  0.1242  -0.907  0.001045  -0.02377  0.02893  -0.02178  0.8586  -0.09654
6.435e+09  -0.2536  -0.8459  0.007174  -0.01247  -0.001251  0.0291  0.8  -0.3516
6.436e+09  -0.545  -0.7553  0.02275  -0.04922  0.02291  -0.04621  0.6249  -0.6214
6.438e+09  -0.697  -0.4922  0.04018  0.001499  -0.02103  -0.01867  0.3595  -0.7902
6.439e+09  -0.875  -0.2143  -0.01349  0.05571  -0.02477  0.000132  0.06587  -0.8338
6.44e+09  -0.9529  0.1043  -0.01381  -0.01511  0.01319  -0.00262  -0.2435  -0.8464
6.441e+09  -0.7458  0.4022  -0.003263  -0.04947  -0.02306  -0.01392  -0.4859  -0.6924
6.442e+09  -0.551  0.7364  -0.04061  0.004004  0.006561  0.03464  -0.6664  -0.4565
6.444e+09  -0.3071  0.8415  0.00808  0.03693  -0.01142  0.0992  -0.7929  -0.1998
6.445e+09  0.06273  0.8974  0.04709  0.06437  0.07786  -0.02967  -0.8248  0.1134
6.446e+09  0.361  0.8049  0.01743  -0.0221  0.01618  0.03971  -0.7732  0.3615
6.448e+09  0.636  0.6501  -0.03972  0.001574  -0.002722  0.03953  -0.5772  0.5908
6.449e+09  0.8264  0.3682  -0.01224  -0.01135  0.03035  -0.0006319  -0.3378  0.8131
6.45e+09  0.949  0.04503  -7.448e-05  -0.01392  0.02273  0.0003624  -0.09263  0.8068
6.451e+09  0.871  -0.2492  -0.04524  0.0001945  -0.04282  -0.005613  0.2142  0.7927
6.452e+09  0.7077  -0.5361  -0.02666  -0.009401  0.02248  -0.04691  0.4588  0.6906
6.454e+09  0.4207  -0.7832  0.03115  0.02901  -0.02732  0.01233  0.675  0.4725
6.455e+09  0.1046  -0.876  -0.01618  -0.01048  0.01059  0.02336  0.7777  0.1786
6.456e+09  -0.2184  -0.8522  -0.003126  0.008624  -0.03005  0.01872  0.8079  -0.06647
6.458e+09  -0.5273  -0.7422  0.01023  -0.02228  -0.03388  0.003844  0.7989  -0.3412
6.459e+09  -0.7494  -0.4385  -0.02175  0.01314  0.005852  0.03565  0.5709  -0.5877
6.46e+09  -0.8656  -0.1578  -0.005503  0.03417  -0.0068  0.02995  0.3384  -0.7103
6.461e+09  -0.859  0.1329  0.03161  -0.03517  0.03858  0.01754  0.07411  -0.7907
6.462e+09  -0.8245  0.4834  0.04435  0.002481  -0.01821  0.07422  -0.2371  -0.7729
6.464e+09  -0.5418  0.691  -0.01525  0.04114  0.04168  -0.0386  -0.4566  -0.6254
6.465e+09  -0.2421  0.8371  0.06117  0.01986  0.02904  0.03567  -0.6792  -0.4492
6.466e+09  0.07934  0.9009  0.02449  0.002153  -0.03941  0.01202  -0.7564  -0.2196
6.468e+09  0.394  0.8016  0.01816  0.02368  -0.01566  0.03381  -0.7262  0.03029
6.469e+09  0.6752  0.5778  -0.032  0.01921  -0.001681  0.05304  -0.6914  0.3656
6.47e+09  0.7595  0.351  -0.004695  0.01303  -0.01479  0.04479  -0.5408  0.5519
6.471e+09  0.8922  -0.02289  0.03249  0.04283  0.006025  -0.0131  -0.3468  0.6943
6.472e+09  0.7985  -0.2904  -0.01711  0.0171  -0.007666  -0.02514  -0.09556  0.7806
6.474e+09  0.6142  -0.6064  0.0377  -0.02141  0.01986  -0.02738  0.1616  0.7754
6.475e+09  0.3305  -0.7774  0.04109  0.02479  0.03205  -0.05712  0.4487  0.6724
6.476e+09  0.04232  -0.9264  0.04359  -0.01047  -0.005939  0.02801  0.6311  0.4207
6.478e+09  -0.2435  -0.8349  -0.01166  0.00475  -0.008316  0.03731  0.7728  0.2077
6.479e+09  -0.574  -0.6104  -0.009058  -0.03552  0.006427  0.03225  0.7863  -0.1097
6.48e+09  -0.7435  -0.3639  -0.005682  0.02507  0.04861  -0.004836  0.7494  -0.3203
6.481e+09  -0.8216  -0.1154  0.01385  -0.01632  0.03585  -0.0138  0.5739  -0.5717
6.482e+09  -0.7933  0.2042  0.01264  0.01645  0.005086  -0.0179  0.3083  -0.6863
6.484e+09  -0.6934  0.4824  -0.01422  -0.01181  -0.01533  -0.005279  0.05667  -0.7932
6.485e+09  -0.4729  0.6332  -0.002507  -0.02177  -0.003271  0.005719  -0.1943  -0.7629
6.486e+09  -0.1791  0.8034  0.04538  -0.0265  0.005735  0.02891  -0.4522  -0.5975
6.488e+09  0.1113  0.8383  0.01698  0.002481  -0.01161  0.03351  -0.5927  -0.4466
6.489e+09  0.445  0.6942  -0.01334  0.002655  -0.01242  -0.03379  -0.7428  -0.2248
6.49e+09  0.664  0.4398  0.01356  0.007596  -0.00331  0.02226  -0.7816  0.07482
6.491e+09  0.8082  0.2112  -0.01865  0.02298  -0.005174  -0.04311  -0.7054  0.3503
6.492e+09  0.8183  -0.08462  0.01108  0.02909  0.004985  0.02017  -0.5463  0.5631
6.494e+09  0.7383  -0.3449  0.0152  -0.02548  0.04494  0.01623  -0.2796  0.7085
6.495e+09  0.529  -0.5572  -0.006053  0.0319  -0.005763  0.01741  -0.04746  0.7624
6.496e+09  0.297  -0.7329  0.00851  0.02862  0.04887  0.007053  0.2641  0.721
6.498e+09  0.03147  -0.8015  0.05093  -0.02124  -0.007246  -0.02924  0.4593  0.5818
6.499e+09  -0.2786  -0.737  -0.004354  -0.01715  -0.03351  0.03664  0.685  0.4208
6.5e+09  -0.5562  -0.5762  0.04605  0.01071  0.008935  -0.0134  0.7435  0.1628
6.501e+09  -0.6712  -0.3035  -0.01837  0.01433  0.01115  -0.02806  0.7067  -0.09449
6.502e+09  -0.7328  -0.01617  -0.004656  -0.01558  -0.03647  0.03964  0.672  -0.3317
6.504e+09  -0.7174  0.2316  0.004428  -0.02305  -0.02054  0.03223  0.5141  -0.567
6.505e+09  -0.6211  0.4832  -0.03989  0.0235  -0.0006039  -0.0163  0.268  -0.6773
6.506e+09  -0.378  0.6086  0.0008991  0.01931  -0.01478  0.004153  0.0253  -0.7734
6.508e+09  -0.1074  0.7576  0.0254  -0.005691  -0.007212  -0.006186  -0.2333  -0.714
6.509e+09  0.1352  0.7649  -0.00484  0.01712  -0.005618  -0.03416  -0.463  -0.5708
6.51e+09  0.3532  0.6227  -0.01153  0.01568  0.0146  0.00309  -0.6839  -0.407
6.511e+09  0.6429  0.4708  0.001318  -0.02134  0.006289  0.00779  -0.7237  -0.1562
6.512e+09  0.6849  0.225  0.01907  0.01398  -0.02582  0.005876  -0.746  0.1345
6.514e+09  0.7289  -0.04697  0.002608  0.01246  -0.02937  -0.02124  -0.6309  0.3795
6.515e+09  0.5828  -0.3206  0.04895  0.004939  0.02984  0.0151  -0.4925  0.6027
6.516e+09  0.5031  -0.5536  -0.0006714  0.0201  0.01593  -0.01169  -0.2319  0.7069
6.518e+09  0.2895  -0.7252  -0.01747  0.004832  -0.004242  0.05361  0.003322  0.7406
6.519e+09  0.02565  -0.793  0.002641  -0.0248  0.002143  -0.06176  0.2644  0.6656
6.52e+09  -0.2546  -0.6144  -0.001862  0.02012  -0.01166  -0.04201  0.5017  0.5336
6.521e+09  -0.5017  -0.5769  -0.01071  -0.009251  0.03093  -0.02163  0.6416  0.3756
6.522e+09  -0.6668  -0.327  0.0006792  -0.02158  -0.002055  -0.001159  0.6867  0.1401
6.524e+09  -0.7442  -0.03512  -0.01697  0.02041  -0.04405  0.008439  0.7342  -0.1328
6.525e+09  -0.6903  0.1989  -0.0008054  0.03915  0.00431  -0.01038  0.5649  -0.3629
6.526e+09  -0.5968  0.4498  -0.004272  0.008549  0.00444  -0.001041  0.4247  -0.5687
6.528e+09  -0.3727  0.6186  -0.0006965  0.0001767  -0.03018  0.02369  0.2128  -0.6622
6.529e+09  -0.146  0.7135  0.002615  0.006679  0.01244  0.01537  -0.01956  -0.6969
6.53e+09  0.1484  0.7384  -0.02864  -0.0323  0.0117  0.0027  -0.3112  -0.5951
6.531e+09  0.385  0.5983  0.02335  0.006849  -0.0009793  -0.003211  -0.4724  -0.4722
6.532e+09  0.5199  0.4502  0.006009  0.01605  -0.007087  0.05477  -0.5688  -0.3266
6.534e+09  0.7346  0.2115  0.01441  -0.01918  0.01945  0.007629  -0.6344  -0.09126
6.535e+09  0.7272  -0.05978  -0.008843  0.01794  -0.04965  -0.01703  -0.6283  0.1468
6.536e+09  0.6698  -0.2668  -0.01914  -0.03576  0.03376  -0.05496  -0.5576  0.3616
6.538e+09  0.4646  -0.517  -0.003315  0.001919  -0.0459  0.009722  -0.4537  0.4356
6.539e+09  0.2261  -0.685  -0.01909  -0.03139  0.006659  0.04285  -0.2334  0.6085
6.54e+09  0.003694  -0.7293  -0.001115  0.0009975  0.03508  -0.04863  -0.08066  0.6761
6.541e+09  -0.2054  -0.7199  -0.02251  0.03929  -0.03498  -0.0371  0.169  0.6862
6.542e+09  -0.4551  -0.592  0.01706  -0.01776  0.0009378  0.001753  0.3846  0.5822
6.544e+09  -0.6393  -0.3609  -0.001363  0.02389  0.02821  0.007654  0.5817  0.3795
6.545e+09  -0.7386  -0.0592  -0.002527  -0.004231  -0.03049  -0.009574  0.7073  0.1491
6.546e+09  -0.7091  0.196  0.02577  -0.01419  -0.001372  -0.03436  0.7178  -0.07293
6.548e+09  -0.6419  0.4505  0.009547  -0.01862  0.03589  -0.03663  0.6317  -0.3121
6.549e+09  -0.4646  0.5841  -0.01484  -0.005514  0.04211  -0.004814  0.5043  -0.5385
6.55e+09  -0.2007  0.7428  0.004398  -0.01197  0.001285  -0.02225  0.3004  -0.6791
