# Hz S RI R 50
6.25e+09  0.6807  0.4156  -0.01815  -0.01463  0.0242  0.01398  0.1471  0.4911
6.251e+09  0.8794  0.1616  -0.01911  0.009721  0.004831  -0.09707  0.3675  0.3827
6.252e+09  0.7974  -0.1113  -0.01278  -0.02489  0.02902  -0.001178  0.5373  0.2275
6.254e+09  0.6906  -0.3592  0.02632  0.03793  0.01344  -0.01822  0.6011  0.007645
6.255e+09  0.5522  -0.6466  -0.005492  -0.007938  -0.02395  -0.03053  0.6028  -0.2436
6.256e+09  0.2335  -0.793  -0.009872  0.001463  -0.01222  0.02633  0.4673  -0.4228
6.258e+09  -0.05353  -0.8152  0.02311  -0.02451  -0.01597  -0.008571  0.2724  -0.601
6.259e+09  -0.3863  -0.7456  -0.01834  -0.00637  0.02559  0.03626  0.0405  -0.6546
6.26e+09  -0.5802  -0.6063  0.02193  0.03812  0.01172  -0.03484  -0.223  -0.6515
6.261e+09  -0.7728  -0.379  0.0402  -0.02314  -0.007862  0.01841  -0.4619  -0.5611
6.262e+09  -0.8277  -0.03605  -0.03781  -0.01963  0.02418  0.01648  -0.591  -0.3233
6.264e+09  -0.812  0.2509  -0.01057  0.0415  0.01496  -0.02047  -0.6732  -0.1048
6.265e+09  -0.639  0.4597  -0.02544  -0.03507  -0.03021  -0.02035  -0.7016  0.1511
6.266e+09  -0.4318  0.7229  0.0001366  -0.00287  -0.02064  -0.06046  -0.5977  0.3961
6.268e+09  -0.1827  0.7906  0.02106  -0.001654  0.02396  0.01339  -0.4277  0.5896
6.269e+09  0.1465  0.7884  -0.02789  0.00545  0.01906  0.01324  -0.2038  0.7011
6.27e+09  0.3592  0.7658  -0.01434  -0.02014  -0.001788  -0.02537  0.07659  0.7584
6.271e+09  0.6325  0.4794  0.005061  0.02328  -0.01298  -0.05171  0.3102  0.689
6.272e+09  0.7145  0.259  0.02169  0.02886  -0.01068  0.0118  0.5429  0.5468
6.274e+09  0.862  -0.06212  -0.02159  0.002972  0.0175  0.01995  0.696  0.3177
6.275e+09  0.7443  -0.2479  -0.002853  0.0007434  0.02587  -0.005905  0.7163  0.03685
6.276e+09  0.6398  -0.5403  0.01236  0.005885  0.03213  -0.001139  0.7235  -0.2413
6.278e+09  0.3673  -0.7367  -0.01042  0.04171  -0.01759  0.007217  0.6186  -0.4538
6.279e+09  0.05861  -0.7897  0.01446  -0.001885  -0.01337  -0.004255  0.3854  -0.6439
6.28e+09  -0.2104  -0.8554  -0.01626  -0.0263  0.06032  0.03551  0.1689  -0.7504
6.281e+09  -0.5049  -0.6568  -0.02057  -0.01672  -0.02345  -0.04565  -0.1173  -0.7516
6.282e+09  -0.7346  -0.4483  0.0425  -0.0005431  -0.0453  -0.04976  -0.374  -0.6892
6.284e+09  -0.8485  -0.1493  0.009737  0.02501  0.004213  0.01644  -0.542  -0.5217
6.285e+09  -0.7954  0.1315  -0.0009801  0.02533  -0.01694  -0.01731  -0.7658  -0.2893
6.286e+09  -0.7542  0.3514  0.001157  -0.01485  0.01997  0.05763  -0.8226  -0.01333
6.288e+09  -0.5571  0.6124  0.001591  0.01728  0.01476  0.0169  -0.7624  0.2403
6.289e+09  -0.282  0.8129  0.003766  -0.03205  -0.02715  -0.01763  -0.6601  0.5043
6.29e+09  0.03822  0.7887  0.0008804  0.0121  -0.005346  -0.02121  -0.4045  0.6799
6.291e+09  0.3031  0.7826  0.009681  -0.02433  0.01613  -0.03932  -0.1432  0.7864
6.292e+09  0.5073  0.6125  0.008909  -0.01197  -0.03008  0.001033  0.1444  0.8155
6.294e+09  0.7554  0.397  0.01749  -0.03127  -0.004414  -0.01323  0.3862  0.7263
6.295e+09  0.8637  0.05915  -0.003237  0.006975  -0.003938  -0.018  0.609  0.5662
6.296e+09  0.795  -0.1909  -0.008495  -0.01373  0.00415  -0.01913  0.7733  0.2793
6.298e+09  0.6459  -0.4365  -0.004962  0.01997  0.02021  0.01852  0.7989  0.02153
6.299e+09  0.4819  -0.6919  -0.02511  -0.00167  0.03069  -0.007767  0.8141  -0.2399
6.3e+09  0.1848  -0.8131  -0.02192  -0.001787  0.001318  0.05279  0.6291  -0.5105
6.301e+09  -0.06132  -0.7935  -0.02358  0.01147  0.01875  -0.01827  0.3791  -0.7087
6.302e+09  -0.3656  -0.7086  -0.001369  0.01088  -0.01021  0.01791  0.1387  -0.793
6.304e+09  -0.6782  -0.5647  0.004287  -0.01487  -0.02618  -0.003422  -0.1482  -0.8244
6.305e+09  -0.7964  -0.2708  0.009605  0.00369  -0.04657  -0.01049  -0.4039  -0.7179
6.306e+09  -0.8251  0.005835  0.01487  -0.01666  0.03148  -0.01212  -0.6538  -0.5807
6.308e+09  -0.7915  0.2444  -0.02166  -0.01767  -0.03515  -0.03043  -0.8008  -0.2988
6.309e+09  -0.6371  0.4738  -0.01228  0.02725  0.005326  0.04328  -0.8623  -0.01149
6.31e+09  -0.3674  0.7285  0.02913  -0.009584  0.01649  -0.003411  -0.8153  0.2868
6.311e+09  -0.1182  0.8156  0.008703  0.00556  -0.02819  0.02498  -0.6577  0.5659
6.312e+09  0.2059  0.8152  0.005486  -0.03254  -0.01914  -0.01158  -0.4075  0.7543
6.314e+09  0.49  0.6859  -0.01327  -0.03324  0.02845  -0.001875  -0.1721  0.856
6.315e+09  0.7113  0.4823  -0.02001  0.000751  0.008341  -0.0473  0.1657  0.8599
6.316e+09  0.8655  0.1883  -0.002596  0.009875  0.01492  0.0192  0.4096  0.755
6.318e+09  0.7895  -0.1248  0.003232  0.004304  0.09485  0.02171  0.6789  0.5611
6.319e+09  0.7254  -0.3768  0.001425  -0.02957  0.01207  -0.008038  0.8504  0.3166
6.32e+09  0.5925  -0.6293  -0.004647  0.013  0.007278  -0.03281  0.9065  0.02976
6.321e+09  0.3136  -0.7951  0.005986  0.01946  0.003595  -0.02061  0.8291  -0.2815
6.322e+09  0.03373  -0.8326  -0.01888  0.01003  -0.02733  0.0219  0.6756  -0.5577
6.324e+09  -0.3129  -0.838  -0.001165  0.008885  -0.01354  0.005343  0.4584  -0.7583
6.325e+09  -0.5343  -0.6356  0.02565  0.002347  -0.02474  -0.02542  0.153  -0.8804
6.326e+09  -0.7467  -0.3952  4.531e-06  -0.01209  0.01774  -0.01135  -0.1539  -0.9126
6.328e+09  -0.8478  -0.09472  -0.02205  -0.004518  0.02133  0.01551  -0.4325  -0.7705
6.329e+09  -0.8489  0.1435  0.04499  -0.006198  0.01933  0.03123  -0.6585  -0.6089
6.33e+09  -0.6788  0.4243  0.02519  0.01634  -0.001788  0.04257  -0.8412  -0.3288
6.331e+09  -0.486  0.6809  -0.009007  0.03311  0.0362  0.005664  -0.9152  0.006197
6.332e+09  -0.2111  0.8516  0.008887  -0.03452  -0.01227  0.004581  -0.9049  0.2711
6.334e+09  0.1046  0.8412  0.006098  -0.008052  0.005475  0.001474  -0.7141  0.5821
6.335e+09  0.3642  0.7559  -0.0077  -0.001378  -0.02561  0.03158  -0.4809  0.7723
6.336e+09  0.6357  0.5713  -0.003326  0.003128  -0.004022  0.01188  -0.2059  0.8861
6.338e+09  0.8077  0.3286  -0.02346  0.00589  0.01489  0.01051  0.1025  0.8932
6.339e+09  0.8612  -0.007481  -0.001996  -0.006173  0.01548  0.0223  0.4343  0.846
6.34e+09  0.8113  -0.3295  0.001926  -0.01203  -0.017  0.004459  0.7047  0.6282
6.341e+09  0.6578  -0.5364  0.04028  0.02359  0.06583  0.008209  0.8818  0.3547
6.342e+09  0.389  -0.7807  -0.01384  0.01498  -0.002601  -0.02362  0.8896  0.0299
6.344e+09  0.1079  -0.8348  -0.02804  -0.02444  0.01183  0.02607  0.9049  -0.2966
6.345e+09  -0.1943  -0.8051  -0.01306  -0.01367  0.09468  0.04235  0.7233  -0.5243
6.346e+09  -0.4574  -0.7113  -0.03255  0.02103  -0.03788  -0.0005471  0.4827  -0.7908
6.348e+09  -0.7174  -0.4821  0.007968  0.002659  0.03693  -5.007e-05  0.2025  -0.9117
6.349e+09  -0.8019  -0.2465  0.04083  0.0131  0.01543  -0.005109  -0.1218  -0.9457
6.35e+09  -0.84  0.08406  -0.0009908  -0.009798  -0.03439  -0.006921  -0.4273  -0.8527
6.351e+09  -0.7515  0.3676  0.003424  -0.001979  -0.01531  0.0163  -0.6407  -0.6333
6.352e+09  -0.5758  0.6075  -0.009746  0.02934  -0.01646  0.007623  -0.8533  -0.3851
6.354e+09  -0.3398  0.7307  0.01072  0.01535  0.01339  -0.02155  -0.9316  -0.06267
6.355e+09  0.01051  0.8298  -0.01698  0.003408  0.05494  0.02925  -0.9133  0.2666
6.356e+09  0.2859  0.8092  -0.003412  -0.03484  -0.001578  0.04686  -0.7375  0.5678
6.358e+09  0.5517  0.6859  -0.04089  0.003861  0.03101  -0.02479  -0.5284  0.7867
6.359e+09  0.7269  0.4181  0.0002208  -0.02815  0.01439  0.01527  -0.213  0.9301
6.36e+09  0.8345  0.1599  0.02066  0.01761  -0.02728  -0.007974  0.0792  0.955
6.361e+09  0.8047  -0.1502  0.01886  0.01514  0.03084  -0.01191  0.4564  0.8925
6.362e+09  0.6966  -0.4917  -0.004381  -0.00683  0.00105  0.02142  0.7184  0.6674
6.364e+09  0.5403  -0.6614  -0.02488  -0.001235  0.01714  0.02059  0.8686  0.3947
6.365e+09  0.2164  -0.7941  0.008037  -0.004344  0.009818  0.01433  0.9644  0.05096
6.366e+09  -0.09503  -0.809  -0.003878  -0.01486  0.02451  -0.002555  0.8967  -0.2558
6.368e+09  -0.4059  -0.7822  -0.048  -0.03211  0.01248  0.009274  0.7981  -0.5286
6.369e+09  -0.6142  -0.5429  0.01633  0.02727  0.02147  -0.0002202  0.5922  -0.7447
6.37e+09  -0.7826  -0.3253  0.01149  0.0262  0.01417  -0.009815  0.2275  -0.8777
6.371e+09  -0.8349  0.01337  0.0248  -0.01339  -0.01566  0.0001894  -0.04885  -0.8843
6.372e+09  -0.7506  0.2523  0.01938  0.00676  0.006408  -0.02232  -0.4073  -0.8311
6.374e+09  -0.6371  0.5726  -0.02883  -0.01005  0.01778  -0.02663  -0.6669  -0.6913
6.375e+09  -0.3974  0.703  -0.004798  0.02392  -0.04442  0.01821  -0.8874  -0.4122
6.376e+09  -0.1151  0.8263  0.004595  0.02381  0.04333  -0.01518  -0.9401  -0.1099
6.378e+09  0.1357  0.8609  -0.04144  -0.001083  -0.03033  0.05474  -0.8763  0.2132
6.379e+09  0.4597  0.6955  0.01874  -0.04876  0.01376  0.03643  -0.7697  0.5336
6.38e+09  0.6901  0.5034  -0.02975  0.01139  -0.01314  -0.01814  -0.5168  0.7401
6.381e+09  0.819  0.2186  -0.03015  -0.01106  0.002028  -0.02432  -0.2562  0.8932
6.382e+09  0.8432  -0.07002  -0.003247  0.01682  0.03873  0.01912  0.03908  0.9112
6.384e+09  0.7258  -0.3609  -0.03241  0.01455  -0.007524  -0.01172  0.3659  0.8855
6.385e+09  0.5612  -0.628  0.03571  -0.002913  -0.01871  0.008769  0.639  0.6746
6.386e+09  0.272  -0.8115  -0.001385  -0.01134  0.0299  0.01563  0.8056  0.406
6.388e+09  0.009275  -0.8312  -0.01279  0.04708  0.03  0.006778  0.9323  0.08714
6.389e+09  -0.3525  -0.7857  -0.01875  0.0008293  0.01657  -0.0177  0.8892  -0.1959
6.39e+09  -0.5565  -0.5997  -0.01489  0.01878  0.03446  -0.01436  0.8025  -0.5102
6.391e+09  -0.7602  -0.3993  -0.009653  0.01631  -0.01327  -0.04779  0.532  -0.7622
6.392e+09  -0.8741  -0.04857  0.01384  0.008548  0.0006187  0.01988  0.2975  -0.8397
6.394e+09  -0.8258  0.2126  -0.001172  -0.03108  -0.03722  -0.003823  -0.03328  -0.933
6.395e+09  -0.713  0.5137  -0.05453  -0.02313  -0.02593  0.006901  -0.3126  -0.8325
6.396e+09  -0.4598  0.7471  0.003968  -0.000625  0.0141  0.02349  -0.6455  -0.6908
6.398e+09  -0.1935  0.8455  -0.002211  0.02054  0.00077  0.0261  -0.784  -0.4003
6.399e+09  0.1478  0.8382  -0.004463  0.01019  -0.009084  -0.0133  -0.8874  -0.1115
6.4e+09  0.4222  0.6902  -0.007251  -0.006627  0.001884  0.02581  -0.8822  0.1755
6.401e+09  0.6799  0.496  0.007541  0.0322  -0.03805  0.02636  -0.8001  0.4633
6.402e+09  0.7843  0.2685  -0.01587  0.009577  -0.05495  0.006903  -0.6505  0.7
6.404e+09  0.8632  -0.02274  0.02132  0.005024  0.01998  -0.04919  -0.3217  0.872
6.405e+09  0.8058  -0.3141  -0.0126  0.004608  0.01607  0.01335  -0.05294  0.9369
6.406e+09  0.6321  -0.5777  -0.03079  0.0227  0.006732  -0.03244  0.3262  0.8799
6.408e+09  0.3676  -0.7788  -0.008699  0.0006192  -0.05052  0.0158  0.5784  0.726
6.409e+09  0.08579  -0.8482  0.04398  0.01148  0.01638  0.01017  0.7642  0.4264
6.41e+09  -0.2755  -0.7871  0.01232  -0.01399  0.001636  -0.02262  0.8478  0.1469
6.411e+09  -0.5324  -0.6891  0.002042  0.003831  0.03792  0.01454  0.944  -0.1408
6.412e+09  -0.7526  -0.4773  0.02295  0.01578  0.01159  -0.01431  0.7662  -0.4443
6.414e+09  -0.8306  -0.133  0.004694  -0.003051  0.01542  -0.02155  0.5722  -0.6872
6.415e+09  -0.8462  0.1818  -0.038  0.001847  0.03226  -0.02176  0.2929  -0.854
6.416e+09  -0.7447  0.5107  -0.002747  -0.004191  0.01065  -0.06151  0.03292  -0.9383
6.418e+09  -0.4937  0.6655  0.01972  0.009  -0.04874  0.008211  -0.2574  -0.8636
6.419e+09  -0.2028  0.8479  0.000304  -0.005504  -0.00518  -0.008624  -0.6082  -0.7165
6.42e+09  0.1272  0.8929  -0.02664  0.001741  0.02197  -0.02213  -0.7368  -0.4298
6.421e+09  0.4042  0.7859  0.02613  0.0446  -0.04419  0.02599  -0.7985  -0.1813
6.422e+09  0.6557  0.5877  -0.03021  -0.001692  0.01084  0.021  -0.8773  0.1053
6.424e+09  0.8451  0.2678  -0.04204  0.001913  -0.0001003  0.00193  -0.7761  0.4298
6.425e+09  0.8807  -0.05964  -0.01787  0.01343  0.03047  0.004074  -0.5851  0.6479
6.426e+09  0.8359  -0.3625  -0.01683  0.00578  -0.02195  -0.02109  -0.3292  0.8583
6.428e+09  0.5943  -0.6369  0.01111  0.0007501  0.0248  0.01295  -0.0474  0.888
6.429e+09  0.2899  -0.806  -0.0266  -0.01433  -0.06981  -0.003473  0.2612  0.7942
6.43e+09  -0.02175  -0.8687  0.002129  0.01105  0.00073  -0.02118  0.4972  0.6557
6.431e+09  -0.349  -0.7806  0.03504  0.01867  -0.01022  0.01708  0.7294  0.4798
6.432e+09  -0.5914  -0.5861  0.03868  -0.01346  -0.02224  0.001306  0.83  0.19
6.434e+09  -0.7858  -0.3829  0.02809  -0.01325  0.004045  0.01954  0.8365  -0.06658
6.435e+09  -0.8861  -0.07989  0.006941  0.007728  0.000629  -0.01937  0.7791  -0.3682
6.436e+09  -0.8508  0.2392  -0.04645  -0.003118  0.04065  -0.008682  0.6416  -0.6146
6.438e+09  -0.6383  0.5567  0.001478  0.05043  -0.008928  0.002218  0.3408  -0.7765
6.439e+09  -0.391  0.7327  -0.002597  0.03849  0.02394  -0.02106  0.07181  -0.8336
6.44e+09  -0.1239  0.8607  -0.01136  -0.008669  -0.0003823  0.005959  -0.1809  -0.8105
6.441e+09  0.21  0.8263  0.01846  -0.03565  -0.02176  -0.01361  -0.4758  -0.6431
6.442e+09  0.4866  0.6815  -0.01465  -0.01659  0.04711  0.08722  -0.6383  -0.4549
6.444e+09  0.7074  0.4306  -0.02492  -0.01365  0.0313  0.01877  -0.8318  -0.2592
6.445e+09  0.8384  0.1963  -0.003297  0.02827  0.01042  -0.03065  -0.8201  0.08498
6.446e+09  0.7866  -0.08341  0.01296  -0.02547  0.01558  0.02302  -0.7208  0.3478
6.448e+09  0.7504  -0.3965  0.02787  -0.02546  0.01505  5.606e-05  -0.5921  0.5799
6.449e+09  0.5249  -0.7066  0.0298  -0.01609  -0.01547  0.01718  -0.3348  0.7686
6.45e+09  0.2682  -0.7955  0.01366  -0.03606  -0.006475  -0.0002371  -0.08829  0.8313
6.451e+09  -0.09596  -0.8437  -0.02591  0.008341  -0.02054  0.01655  0.2101  0.7948
6.452e+09  -0.3726  -0.7286  0.012  0.004237  0.02907  -0.03009  0.4907  0.6784
6.454e+09  -0.5847  -0.5873  -0.00227  0.02509  0.06658  -0.008217  0.7101  0.4826
6.455e+09  -0.8404  -0.2731  0.003355  0.01471  0.02143  0.0002237  0.7911  0.2013
6.456e+09  -0.8507  -0.01981  0.01034  0.01395  0.02725  0.0271  0.8132  -0.05457
6.458e+09  -0.7673  0.2968  -0.01068  0.01943  -0.03716  0.008805  0.7623  -0.3755
6.459e+09  -0.5835  0.5857  -0.04079  0.0001438  -0.02276  -0.001119  0.5949  -0.6318
6.46e+09  -0.3307  0.744  -0.01727  -0.01555  0.006861  -0.02339  0.3565  -0.757
6.461e+09  -0.06538  0.7759  -0.02253  0.006367  0.0443  -0.05095  0.08079  -0.8051
6.462e+09  0.2351  0.8085  -0.002777  0.02427  -0.01143  -0.01458  -0.2422  -0.7561
6.464e+09  0.5384  0.6599  -0.02098  0.007419  0.0007435  -0.01025  -0.4813  -0.6614
6.465e+09  0.7207  0.3951  -0.03064  0.01963  0.02148  -0.0125  -0.6803  -0.4799
6.466e+09  0.7679  0.1591  0.008681  0.02025  0.009295  0.03251  -0.7895  -0.1888
6.468e+09  0.7605  -0.1883  0.03612  -0.01371  -0.05982  -0.001989  -0.7803  0.06553
6.469e+09  0.688  -0.5043  -0.008472  0.01555  -0.01404  -0.002642  -0.7009  0.3476
6.47e+09  0.4385  -0.599  -0.02832  0.0159  -0.02081  -0.04857  -0.6156  0.562
6.471e+09  0.1693  -0.7778  -0.04558  -0.03692  0.03071  -0.006107  -0.3378  0.714
6.472e+09  -0.1117  -0.7736  0.002343  -0.01566  -0.02716  0.001612  -0.08826  0.8129
6.474e+09  -0.391  -0.6318  -0.04346  0.01796  0.026  0.01539  0.2378  0.73
6.475e+09  -0.6364  -0.5138  0.02664  0.004579  0.01402  0.05705  0.4879  0.6334
6.476e+09  -0.749  -0.2322  -0.01064  -0.02552  0.01667  -0.05249  0.6513  0.4243
6.478e+09  -0.7571  0.06354  0.02564  0.005509  0.05093  -0.03424  0.7587  0.1572
6.479e+09  -0.6908  0.3513  0.02134  -0.003582  -0.003371  0.02187  0.7603  -0.1135
6.48e+09  -0.5929  0.5506  0.0007034  -0.009777  -0.007738  -0.03114  0.7336  -0.3731
6.481e+09  -0.3653  0.6592  -0.03179  0.03975  0.001146  -0.02842  0.5375  -0.5245
6.482e+09  -0.03673  0.7783  0.02464  -0.03347  0.03415  0.007546  0.328  -0.6864
6.484e+09  0.251  0.6717  -0.01397  0.04671  -0.04283  -0.008454  0.02838  -0.7612
6.485e+09  0.5201  0.6136  0.03923  -0.009022  -0.008633  0.03963  -0.2241  -0.7694
6.486e+09  0.7404  0.3578  0.07838  -0.04016  0.03125  0.02032  -0.4155  -0.6096
6.488e+09  0.7313  0.136  0.01017  -0.003441  -0.01173  0.05239  -0.6449  -0.4428
6.489e+09  0.7273  -0.1504  0.01999  0.01441  -0.005751  0.002641  -0.7798  -0.1797
6.49e+09  0.6468  -0.4234  -0.001316  -0.05941  0.04268  0.03845  -0.7483  0.07987
6.491e+09  0.5016  -0.5771  0.03916  -0.04251  -0.0567  0.01091  -0.6635  0.3667
6.492e+09  0.2044  -0.657  -0.0253  -0.02439  -0.03168  -0.0009323  -0.5234  0.5543
6.494e+09  -0.05755  -0.7455  -0.0326  -0.03363  0.008796  -0.01325  -0.3332  0.7001
6.495e+09  -0.2941  -0.6472  -0.001296  0.02518  0.004447  -0.006988  -0.03144  0.7957
6.496e+09  -0.5382  -0.5152  -0.005855  -0.005834  -0.05035  -0.04654  0.2533  0.7412
6.498e+09  -0.6657  -0.3276  0.02283  0.01163  0.002785  0.02269  0.4801  0.6182
6.499e+09  -0.7408  -0.01061  -0.03081  -0.02759  0.02627  0.003007  0.6608  0.4057
6.5e+09  -0.7613  0.223  -0.02485  -0.004017  -0.05226  0.04147  0.7661  0.1868
6.501e+09  -0.5876  0.4918  -0.01099  0.02838  0.005104  -0.003325  0.7579  -0.07511
6.502e+09  -0.4404  0.6639  -0.003608  0.02083  -0.01824  -0.004403  0.6621  -0.3602
6.504e+09  -0.0649  0.768  -0.01968  -0.01975  -0.009063  -0.009811  0.5189  -0.5674
6.505e+09  0.1591  0.768  -0.003621  0.01097  -0.003846  0.008591  0.3048  -0.7232
6.506e+09  0.3612  0.6239  0.01314  0.01965  -0.0285  0.01772  0.07039  -0.7568
6.508e+09  0.5778  0.3826  0.006733  0.002934  -0.04985  -0.008665  -0.2316  -0.7067
6.509e+09  0.6952  0.2269  -0.007012  0.02293  -0.01246  -0.03758  -0.4903  -0.6313
6.51e+09  0.782  -0.03883  0.00364  -0.02656  0.02783  0.02292  -0.6755  -0.3802
6.511e+09  0.7408  -0.316  -0.003323  -0.001053  0.01044  -0.0186  -0.7635  -0.1346
6.512e+09  0.5162  -0.5563  0.005453  -0.01201  0.06008  0.03506  -0.7907  0.113
6.514e+09  0.2926  -0.7074  0.01742  0.005907  0.0005854  0.01163  -0.6385  0.3521
6.515e+09  -0.008824  -0.7913  -0.01652  -0.02305  -0.01272  0.005032  -0.5229  0.622
6.516e+09  -0.1931  -0.7205  -0.01131  0.008603  -0.01242  -0.0106  -0.2251  0.6914
6.518e+09  -0.4779  -0.5853  0.01321  -0.004716  -0.01522  0.003694  0.03554  0.7257
6.519e+09  -0.6595  -0.3862  0.03821  0.02027  -0.01593  0.007368  0.2232  0.6638
6.52e+09  -0.7396  -0.1094  0.02854  0.01333  0.05168  -0.003742  0.4866  0.5536
6.521e+09  -0.7373  0.1724  -0.006887  0.02253  0.005387  0.05536  0.6153  0.3292
6.522e+09  -0.6457  0.3788  0.003414  -0.01091  0.02875  -0.03311  0.7038  0.1155
6.524e+09  -0.5115  0.5951  0.002948  0.01162  0.02651  -0.07004  0.7051  -0.1301
6.525e+09  -0.2198  0.8104  -0.02522  -0.003861  0.01425  -0.00285  0.6112  -0.4061
6.526e+09  0.09003  0.7438  -0.03337  -0.0185  -0.03165  -0.001503  0.4105  -0.5521
6.528e+09  0.3619  0.7324  -0.02707  -0.01926  -0.05935  -0.009281  0.2161  -0.6762
6.529e+09  0.6058  0.5641  -0.03654  -0.001043  -0.03434  0.02651  -0.08069  -0.6889
6.53e+09  0.721  0.2878  -0.006421  -0.01817  -0.01158  0.014  -0.3052  -0.6411
6.531e+09  0.7737  0.06059  0.03716  -0.01552  0.009703  0.01051  -0.4917  -0.4998
6.532e+09  0.7628  -0.2983  -0.02489  0.0377  -0.02079  0.03063  -0.5942  -0.2827
6.534e+09  0.5965  -0.464  -0.01368  0.02737  -0.01322  0.02016  -0.6411  -0.067
6.535e+09  0.4105  -0.6759  0.0009185  -0.007069  0.03197  0.007393  -0.5843  0.118
6.536e+09  0.1734  -0.7871  -0.01306  0.01274  0.000192  0.01979  -0.5853  0.3155
6.538e+09  -0.08866  -0.8406  -0.01232  -0.01237  0.01322  -0.002868  -0.4545  0.488
6.539e+09  -0.4082  -0.6615  0.01432  0.001781  0.02423  0.02109  -0.2612  0.6454
6.54e+09  -0.6348  -0.4636  0.01783  0.01273  0.003854  0.02305  -0.05226  0.6836
6.541e+09  -0.8097  -0.1976  -0.0299  0.01907  0.009137  -0.002151  0.2046  0.659
6.542e+09  -0.817  0.0763  0.01353  0.02055  -0.01639  0.02459  0.4056  0.6076
6.544e+09  -0.7096  0.3255  0.002481  0.02628  -0.06577  0.002119  0.5934  0.3884
6.545e+09  -0.5878  0.5711  -0.03478  0.008542  0.02911  0.005891  0.7185  0.1764
6.546e+09  -0.3391  0.7339  -0.01202  0.02548  0.0008304  -0.01553  0.7151  -0.0722
6.548e+09  -0.05319  0.8046  0.01547  0.03058  0.004855  0.03168  0.6452  -0.3392
6.549e+09  0.2541  0.8228  -0.02509  0.01519  -0.06137  0.05588  0.4827  -0.5485
6.55e+09  0.5328  0.6642  -0.03432  0.002754  -0.01592  0.01362  0.3103  -0.6712
