# Hz S RI R 50
6.25e+09  -0.4332  0.7748  0.006507  0.007698  -0.07948  0.009344  0.1764  0.4579
6.251e+09  -0.1076  0.8974  -0.008637  0.02885  0.02382  0.05762  0.3959  0.3916
6.252e+09  0.1692  0.8808  0.0004991  -0.01437  -0.06306  0.01886  0.5056  0.2463
6.254e+09  0.4532  0.6718  0.03907  -0.0127  0.04063  0.0005622  0.5926  0.01469
6.255e+09  0.6701  0.5063  -0.001927  -0.003396  0.02138  0.02994  0.5848  -0.2496
6.256e+09  0.7976  0.2403  -0.03581  0.001438  -0.01682  -0.04002  0.4781  -0.4305
6.258e+09  0.8732  -0.06746  -0.005793  -0.02362  0.02056  0.044  0.2793  -0.629
6.259e+09  0.7593  -0.326  0.0103  -0.0326  -0.0006848  -0.04186  0.0471  -0.6706
6.26e+09  0.6469  -0.5654  -0.002592  0.0151  0.01479  -0.001297  -0.2531  -0.6462
6.261e+09  0.419  -0.7693  0.006383  0.03517  -0.01044  -0.03308  -0.4403  -0.5647
6.262e+09  0.1023  -0.8249  -0.03114  0.01389  -0.01939  -0.02276  -0.5982  -0.3519
6.264e+09  -0.1502  -0.83  0.007272  -0.0001902  0.07551  0.01549  -0.6851  -0.1097
6.265e+09  -0.3925  -0.6625  0.02317  -0.01616  -0.02594  -0.03779  -0.7252  0.1525
6.266e+09  -0.6283  -0.5338  -0.0144  0.001233  -0.03476  0.02788  -0.6128  0.3771
6.268e+09  -0.8197  -0.2655  -0.003786  -0.03052  0.05376  -0.04316  -0.423  0.5634
6.269e+09  -0.8487  0.02204  -0.02328  -0.007944  -0.007336  -0.006021  -0.1728  0.721
6.27e+09  -0.7837  0.3706  -0.02604  0.02621  -0.01955  0.02478  0.05872  0.741
6.271e+09  -0.6272  0.5297  -0.01467  -0.001143  -0.00266  -0.05038  0.3472  0.6256
6.272e+09  -0.3532  0.7527  -0.01036  -0.02865  -0.02169  -0.01541  0.5371  0.5213
6.274e+09  -0.1473  0.8051  0.01712  0.01063  0.04993  -0.05891  0.6843  0.3041
6.275e+09  0.1292  0.7985  0.009282  -0.007319  0.01877  0.02085  0.7763  0.05611
6.276e+09  0.4182  0.7149  -0.0214  0.02537  -0.03663  0.01273  0.7041  -0.2351
6.278e+09  0.6649  0.4776  -0.01263  -0.004329  0.06067  0.02978  0.6201  -0.446
6.279e+09  0.8413  0.236  0.0315  -0.01284  -0.07138  0.03557  0.4114  -0.6786
6.28e+09  0.8655  -0.02627  -0.001798  0.02584  -0.003111  -0.01938  0.1915  -0.783
6.281e+09  0.7363  -0.3816  -0.005937  -0.02746  0.03966  -0.001342  -0.0937  -0.7456
6.282e+09  0.5885  -0.5747  -0.009115  -0.004693  -0.03099  0.05351  -0.3728  -0.6998
6.284e+09  0.3195  -0.7284  -0.01688  0.003344  -0.02606  -0.05454  -0.5722  -0.5165
6.285e+09  0.1062  -0.7791  0.008159  0.009603  -0.007415  -0.03553  -0.7173  -0.2749
6.286e+09  -0.2031  -0.8494  -0.01576  -0.01844  -0.00022  -0.01157  -0.7793  -0.004888
6.288e+09  -0.4556  -0.6914  0.01756  0.0008925  0.01695  -0.04256  -0.7355  0.2359
6.289e+09  -0.651  -0.4986  -0.00105  -0.02304  0.04853  -0.02148  -0.6353  0.4485
6.29e+09  -0.8957  -0.2347  0.02727  0.02199  -0.04046  -0.0649  -0.4295  0.6838
6.291e+09  -0.798  0.07351  0.01246  -0.03371  -0.04631  0.05861  -0.1756  0.795
6.292e+09  -0.7648  0.3319  0.01338  0.0381  -0.03919  -0.04223  0.1421  0.8064
6.294e+09  -0.5841  0.6474  0.01138  0.01155  0.03415  0.02286  0.4093  0.7074
6.295e+09  -0.3063  0.7827  -0.01016  0.006353  0.01381  0.0105  0.6015  0.5387
6.296e+09  -0.08238  0.7823  0.02789  -0.03831  0.06275  -0.0003121  0.7387  0.2859
6.298e+09  0.2203  0.8235  0.00626  0.008349  -0.01595  0.02057  0.8243  0.01922
6.299e+09  0.5364  0.6475  -0.03082  -0.03766  0.004728  0.05034  0.7512  -0.2683
6.3e+09  0.7459  0.4266  -0.02507  -0.02299  0.01748  0.03972  0.6392  -0.5152
6.301e+09  0.8124  0.1747  0.01951  0.007048  -0.006027  -0.04617  0.4341  -0.7419
6.302e+09  0.7698  -0.1025  -0.02313  0.001372  -0.05872  0.004507  0.1643  -0.8222
6.304e+09  0.7582  -0.3865  -0.01288  0.01447  0.01966  -0.02693  -0.1143  -0.8324
6.305e+09  0.566  -0.6403  -0.01172  -0.01344  0.04191  -0.00904  -0.4151  -0.7443
6.306e+09  0.2496  -0.7554  0.02495  0.008048  -0.03541  0.01207  -0.6474  -0.559
6.308e+09  0.004509  -0.8772  -0.004829  0.01013  -0.00901  0.05518  -0.799  -0.315
6.309e+09  -0.2494  -0.7544  -0.005436  0.01178  0.03145  -0.05355  -0.8309  -0.01972
6.31e+09  -0.5119  -0.6352  0.0002174  -0.02514  -0.0003446  -0.02632  -0.8134  0.3043
6.311e+09  -0.7738  -0.4503  0.0089  -0.002836  0.04305  -0.06561  -0.6221  0.5207
6.312e+09  -0.8618  -0.1257  -0.01497  0.006961  -0.0273  0.02315  -0.4483  0.742
6.314e+09  -0.8047  0.08799  0.001171  -0.01607  -0.007665  -0.02282  -0.1571  0.8456
6.315e+09  -0.7329  0.3782  -0.01009  -0.003582  0.01669  -0.01955  0.1434  0.8622
6.316e+09  -0.5461  0.6604  -0.00715  0.007356  0.03574  0.03658  0.4406  0.7509
6.318e+09  -0.2708  0.7858  0.001499  0.00705  -0.01256  -0.03455  0.6337  0.617
6.319e+09  0.003303  0.8827  0.009785  -0.02616  -0.05587  0.04519  0.8455  0.3105
6.32e+09  0.314  0.748  0.009121  -0.005813  0.01282  -0.02491  0.8973  0.01283
6.321e+09  0.5629  0.6276  -0.009475  -0.00622  0.02983  -0.002262  0.8551  -0.2785
6.322e+09  0.7756  0.4274  -0.02086  -0.0296  -0.01449  -0.01135  0.6831  -0.5738
6.324e+09  0.8689  0.07401  0.02627  0.002241  0.02362  0.002295  0.4513  -0.754
6.325e+09  0.8727  -0.2095  0.04063  -0.03153  0.04462  -0.02508  0.1738  -0.8916
6.326e+09  0.727  -0.5087  -0.007018  0.011  0.02795  -0.03154  -0.1473  -0.9166
6.328e+09  0.4861  -0.6835  -0.01088  0.001  -0.00368  0.02519  -0.4487  -0.7804
6.329e+09  0.2215  -0.8385  -0.0009952  -0.02985  0.03027  0.03303  -0.6551  -0.6171
6.33e+09  -0.04546  -0.845  0.01303  -0.01042  -0.04844  -0.00774  -0.8239  -0.3199
6.331e+09  -0.3916  -0.7451  -0.01123  -0.03193  -0.04465  -0.008338  -0.8918  -0.02982
6.332e+09  -0.6329  -0.5792  0.007715  -0.01191  -0.0265  -0.01035  -0.8676  0.2731
6.334e+09  -0.7804  -0.3419  0.01028  0.01727  -0.008197  -0.009122  -0.7158  0.5613
6.335e+09  -0.8652  -0.05526  0.03066  0.02232  -0.02302  0.01787  -0.4727  0.7478
6.336e+09  -0.782  0.2667  -0.004163  0.01498  0.02111  0.01495  -0.1719  0.8891
6.338e+09  -0.6729  0.5065  0.01497  -0.02009  0.05671  -0.06195  0.0988  0.8893
6.339e+09  -0.4926  0.7324  -0.002042  0.01063  -0.01427  -0.02107  0.4025  0.818
6.34e+09  -0.1781  0.8433  -0.005428  -0.03319  0.009818  -0.03462  0.6818  0.5968
6.341e+09  0.07512  0.8465  -0.04792  0.02601  0.01579  0.004607  0.8475  0.353
6.342e+09  0.4125  0.7308  0.003041  0.03927  -0.0182  0.03667  0.9282  0.04554
6.344e+09  0.6618  0.6058  -0.01402  -0.001828  0.0229  0.03955  0.8886  -0.2854
6.345e+09  0.845  0.3195  0.006858  0.02593  0.006628  0.04017  0.7451  -0.5589
6.346e+09  0.885  0.02279  0.01604  -0.03648  -0.03436  -0.007609  0.5084  -0.7919
6.348e+09  0.7916  -0.2859  0.03017  -0.02749  5.241e-05  -0.004154  0.1818  -0.8999
6.349e+09  0.6416  -0.5717  0.007474  0.01054  0.0211  0.01408  -0.1224  -0.9025
6.35e+09  0.4832  -0.8118  -0.01603  -0.02107  -0.02699  0.04973  -0.4045  -0.8268
6.351e+09  0.1361  -0.8539  -0.04007  0.01781  0.01306  0.0125  -0.6322  -0.6508
6.352e+09  -0.1853  -0.8775  0.04165  0.04285  -0.01723  0.0031  -0.8704  -0.386
6.354e+09  -0.5158  -0.7416  -0.004125  0.01971  0.00468  -0.03032  -0.9046  -0.06267
6.355e+09  -0.7198  -0.5025  -0.02838  0.001883  -0.0007234  3.06e-05  -0.916  0.2705
6.356e+09  -0.8518  -0.2475  0.003634  0.001346  -0.02451  -0.01742  -0.7707  0.5421
6.358e+09  -0.8923  0.07227  0.02459  -0.02275  0.03324  -0.01693  -0.5492  0.7492
6.359e+09  -0.7943  0.3826  -0.01671  0.0009869  -0.05083  -0.003803  -0.26  0.8814
6.36e+09  -0.6411  0.6156  -0.01423  0.03537  -0.03267  0.006273  0.09589  0.9546
6.361e+09  -0.4063  0.7826  0.01026  -0.005736  -0.01084  -0.01814  0.4352  0.8581
6.362e+09  -0.08287  0.8771  0.02265  0.01802  -0.001557  -0.07786  0.6732  0.6983
6.364e+09  0.2073  0.884  0.01244  -0.01677  -0.001321  -0.06826  0.8525  0.3785
6.365e+09  0.5303  0.7095  -0.04564  0.01498  0.002901  -0.001801  0.9583  0.06599
6.366e+09  0.7214  0.522  -0.02929  0.01123  -0.003728  -0.04688  0.8784  -0.2542
6.368e+09  0.8574  0.2002  0.02902  -0.03483  -0.02942  0.008224  0.7546  -0.5566
6.369e+09  0.8793  -0.05439  0.01179  -0.003854  -0.02358  -0.01045  0.5476  -0.7992
6.37e+09  0.7911  -0.3896  -0.02541  0.01037  -0.06156  -0.03047  0.2399  -0.8894
6.371e+09  0.6167  -0.6361  -0.0529  -0.01447  -0.02991  0.03556  -0.08985  -0.9064
6.372e+09  0.3308  -0.8148  -0.003775  -0.007802  0.0004201  0.06044  -0.4046  -0.836
6.374e+09  0.05775  -0.8563  -0.04014  -0.009852  0.01996  -0.01915  -0.6895  -0.6822
6.375e+09  -0.2713  -0.8177  -0.03857  0.01636  -0.00971  0.008172  -0.8063  -0.3787
6.376e+09  -0.5804  -0.7096  -0.01867  0.01952  -0.03986  -0.03419  -0.9149  -0.06155
6.378e+09  -0.7493  -0.4584  0.004748  -0.02791  0.01951  -0.02324  -0.9079  0.1697
6.379e+09  -0.8674  -0.2212  0.006517  -0.006884  -0.0649  -0.02163  -0.7983  0.5347
6.38e+09  -0.8854  0.1211  0.02197  -0.008484  0.007078  -0.0005824  -0.5854  0.7083
6.381e+09  -0.8221  0.4325  0.02352  0.02054  0.02022  -0.01497  -0.2595  0.9085
6.382e+09  -0.565  0.6537  0.01563  9.597e-05  0.02226  0.01737  0.08155  0.9207
6.384e+09  -0.308  0.8307  0.01867  -0.03333  0.0386  -0.01415  0.4098  0.8778
6.385e+09  0.0157  0.8899  -0.01884  -0.004079  0.03097  0.01273  0.6374  0.707
6.386e+09  0.3348  0.8281  -0.006554  -0.02241  -0.005972  0.03803  0.8349  0.4371
6.388e+09  0.5468  0.7153  0.04746  0.0123  -0.03333  0.009034  0.9081  0.07808
6.389e+09  0.7421  0.4108  -0.02786  0.01776  -0.00787  0.02582  0.8788  -0.2117
6.39e+09  0.876  0.1407  0.006349  0.03206  -0.0005642  0.03166  0.7723  -0.4805
6.391e+09  0.8538  -0.1867  0.04454  0.02075  -0.006873  -0.01619  0.5345  -0.7143
6.392e+09  0.8166  -0.4161  0.0046  0.02319  -0.01762  0.0106  0.2698  -0.8881
6.394e+09  0.5285  -0.7037  -0.02606  -0.01091  -0.0149  0.0107  -0.01532  -0.9449
6.395e+09  0.2882  -0.8289  0.008725  0.001133  0.01435  -0.009883  -0.3361  -0.8335
6.396e+09  -0.05433  -0.8578  -0.00646  0.03253  0.03947  -0.03306  -0.6098  -0.6652
6.398e+09  -0.3326  -0.7866  -0.009251  -0.02614  -0.03431  0.0382  -0.7646  -0.4515
6.399e+09  -0.5632  -0.6324  -0.02762  -0.002414  -0.005402  0.005404  -0.9455  -0.1578
6.4e+09  -0.8253  -0.3863  -0.002424  0.02039  0.03029  0.03681  -0.8662  0.1357
6.401e+09  -0.88  -0.07816  0.02455  -0.03186  -0.0005331  -0.03519  -0.7596  0.524
6.402e+09  -0.8566  0.2383  -0.02566  0.002713  0.01427  0.0296  -0.5986  0.6674
6.404e+09  -0.8035  0.5052  0.01516  -0.03517  -0.006998  0.01507  -0.2578  0.8863
6.405e+09  -0.5338  0.7753  -0.01633  -0.007676  0.005239  -0.003481  0.02742  0.941
6.406e+09  -0.2939  0.8261  0.007936  -0.01574  -0.01276  -0.001474  0.3762  0.8677
6.408e+09  0.08608  0.9246  0.03281  0.002071  0.02275  -0.02274  0.5332  0.6799
6.409e+09  0.355  0.8221  -0.009108  -0.02852  -0.00881  0.01117  0.7586  0.4887
6.41e+09  0.6051  0.6272  0.01353  0.01954  0.02803  0.01357  0.8944  0.1617
6.411e+09  0.785  0.4109  0.007229  -0.04212  0.005709  -0.03005  0.9278  -0.1427
6.412e+09  0.942  0.109  -0.007913  0.02266  -0.02015  -0.02569  0.7749  -0.4416
6.414e+09  0.857  -0.2092  0.01631  -0.04303  -0.001454  -0.004588  0.5794  -0.6734
6.415e+09  0.7389  -0.4814  0.03238  -0.02006  -0.01324  -0.01303  0.3552  -0.8485
6.416e+09  0.5009  -0.7121  0.02031  -0.01795  -0.02929  -0.03977  0.07174  -0.9251
6.418e+09  0.1903  -0.8412  0.03621  0.03668  0.003945  0.02562  -0.2498  -0.857
6.419e+09  -0.0656  -0.8818  0.02979  -0.04207  0.01897  -0.007998  -0.542  -0.7395
6.42e+09  -0.4014  -0.7333  0.01661  0.04056  0.01908  0.03657  -0.7352  -0.4218
6.421e+09  -0.6341  -0.6105  0.01868  0.02013  -0.04473  -0.02071  -0.8506  -0.2335
6.422e+09  -0.7742  -0.3594  0.03948  -0.0008151  -0.002111  -0.01805  -0.8796  0.1424
6.424e+09  -0.8631  -0.05798  -0.004161  0.003174  0.009687  0.03098  -0.8081  0.3732
6.425e+09  -0.8399  0.1867  0.009225  -0.002388  0.003977  -0.005161  -0.5909  0.663
6.426e+09  -0.719  0.518  -0.02121  -0.0005499  0.03463  0.006833  -0.3163  0.8062
6.428e+09  -0.4675  0.7259  -0.003851  0.02372  0.04257  -0.02318  -0.04533  0.8687
6.429e+09  -0.1925  0.8673  -0.00765  -0.05072  0.04663  -0.0275  0.2404  0.7643
6.43e+09  0.138  0.8901  -0.0226  -0.03982  0.02843  -0.00503  0.5172  0.6851
6.431e+09  0.3654  0.7563  -0.05069  -0.05379  -0.01403  0.01553  0.7341  0.4745
6.432e+09  0.6913  0.5813  0.04004  0.003871  0.002837  0.00999  0.8146  0.2212
6.434e+09  0.8241  0.3384  0.01017  -0.02122  -0.02513  0.009019  0.8516  -0.1164
6.435e+09  0.8584  0.07704  0.03397  0.01487  0.03391  0.01365  0.7563  -0.3154
6.436e+09  0.8569  -0.3086  0.01918  0.02799  -0.01197  -0.01382  0.5943  -0.5865
6.438e+09  0.6634  -0.5094  -0.01106  -0.02247  -0.0265  0.01247  0.3614  -0.7857
6.439e+09  0.4444  -0.755  -0.004177  -0.01479  0.01739  -0.01532  0.06643  -0.8221
6.44e+09  0.1751  -0.8482  0.05221  0.01212  -0.02537  0.02261  -0.2295  -0.8188
6.441e+09  -0.1071  -0.8709  -0.03183  0.01461  0.008968  0.02346  -0.4557  -0.7065
6.442e+09  -0.4107  -0.8305  -0.01421  -0.04876  -0.01224  -0.007656  -0.7342  -0.4889
6.444e+09  -0.684  -0.6403  0.01057  -0.04257  -0.02007  0.002592  -0.8212  -0.2509
6.445e+09  -0.8175  -0.3274  -0.02158  0.03884  -0.02488  0.0108  -0.8015  0.03419
6.446e+09  -0.8552  -0.03648  0.01871  -0.02338  -0.003763  0.03132  -0.7655  0.3519
6.448e+09  -0.8483  0.2464  0.01487  -0.001021  0.001951  -0.03962  -0.5492  0.5882
6.449e+09  -0.7135  0.4562  0.02583  -0.001989  0.003758  0.007261  -0.3207  0.7769
6.45e+09  -0.5349  0.6968  0.01698  -0.02502  -0.01549  0.01966  -0.06881  0.895
6.451e+09  -0.2021  0.8647  -0.01271  0.04601  -0.01365  -0.03283  0.2363  0.7874
6.452e+09  0.1564  0.8855  -0.0007959  -0.02383  0.07454  -0.002417  0.5008  0.7045
6.454e+09  0.3809  0.8447  0.008976  -0.00294  -0.02794  -0.02232  0.7127  0.4399
6.455e+09  0.654  0.568  -0.03068  0.01178  -0.01524  0.03007  0.7867  0.1722
6.456e+09  0.849  0.3203  -0.02701  0.002358  -0.0003539  -0.01267  0.8072  -0.01642
6.458e+09  0.9203  0.04595  0.009348  0.01566  0.008469  -0.01017  0.7068  -0.336
6.459e+09  0.8645  -0.3062  0.0008163  0.01497  -0.003381  -0.009797  0.5957  -0.5724
6.46e+09  0.6834  -0.534  -0.02897  -0.007586  0.04069  0.04589  0.4014  -0.7145
6.461e+09  0.4407  -0.7046  0.0133  -0.0267  -0.03031  -0.0459  0.08025  -0.792
6.462e+09  0.1721  -0.9258  0.03555  0.04115  -0.05927  -0.03972  -0.2416  -0.7992
6.464e+09  -0.1277  -0.8826  0.01888  0.01477  0.009337  -0.02175  -0.4446  -0.6582
6.465e+09  -0.427  -0.8188  0.001838  0.01411  0.003266  -0.01849  -0.6748  -0.4749
6.466e+09  -0.654  -0.573  -0.006619  -0.03273  -0.001337  0.0137  -0.7221  -0.2206
6.468e+09  -0.8641  -0.3008  0.004488  -0.00235  -0.001544  0.01836  -0.7877  0.0862
6.469e+09  -0.8483  -0.007897  0.007043  -0.0259  -0.01752  0.04543  -0.7072  0.312
6.47e+09  -0.7806  0.287  0.001809  0.01486  -0.03588  -0.009345  -0.5754  0.5329
6.471e+09  -0.7113  0.4944  -0.03366  0.05705  0.007066  0.00593  -0.3228  0.701
6.472e+09  -0.4419  0.7399  0.003827  -0.00235  -0.003844  -0.01827  -0.05011  0.7839
6.474e+09  -0.1811  0.8785  -0.007973  -0.04385  -0.03645  0.03735  0.2113  0.7592
6.475e+09  0.1222  0.9145  0.009684  0.0111  -0.001078  0.004221  0.4646  0.6237
6.476e+09  0.4438  0.7644  0.01071  0.01362  0.001847  -0.04515  0.6712  0.4289
6.478e+09  0.6708  0.5388  0.028  -0.03002  0.007744  0.02983  0.7499  0.2353
6.479e+09  0.8205  0.2753  -0.01546  0.01078  -0.00313  0.001861  0.7769  -0.04037
6.48e+09  0.898  0.02968  -0.01792  0.01486  0.01678  0.002065  0.7248  -0.3208
6.481e+09  0.8626  -0.2959  -0.03397  0.01017  0.04323  -0.02512  0.5865  -0.5683
6.482e+09  0.6834  -0.5869  -0.02167  -0.003424  -0.03242  0.001085  0.3095  -0.7301
6.484e+09  0.4463  -0.8048  0.0113  0.02459  0.0006104  -0.03114  0.07979  -0.7704
6.485e+09  0.1813  -0.8754  0.04837  -0.03869  -0.06611  0.03188  -0.1833  -0.7456
6.486e+09  -0.1846  -0.9351  0.03734  0.007136  -0.03965  -0.004378  -0.4574  -0.6221
6.488e+09  -0.48  -0.7676  -0.006155  -0.004917  0.008261  0.05467  -0.6296  -0.3928
6.489e+09  -0.6795  -0.5587  0.02621  0.005833  -0.01685  -0.01398  -0.761  -0.2194
6.49e+09  -0.7925  -0.3501  -0.02665  -0.02373  -0.03178  0.02614  -0.7519  0.06045
6.491e+09  -0.898  -0.006664  -0.01543  0.0194  -0.0626  0.01072  -0.6326  0.3651
6.492e+09  -0.9015  0.3336  -0.002484  -0.01801  0.03409  0.02371  -0.5322  0.5932
6.494e+09  -0.7383  0.6349  0.006126  0.02523  0.0115  0.04197  -0.3239  0.664
6.495e+09  -0.4947  0.8054  -0.008112  -0.02538  -0.03419  0.02131  -0.02895  0.7781
6.496e+09  -0.1518  0.9203  0.02431  0.01951  0.05055  0.01077  0.2529  0.7142
6.498e+09  0.2218  0.8759  0.01002  -0.0008757  -0.01233  -0.008845  0.4517  0.5965
6.499e+09  0.4912  0.7948  0.02369  -0.004629  0.01688  0.008801  0.6282  0.4434
6.5e+09  0.7559  0.5361  -0.009634  0.0004656  -0.01171  -0.004469  0.7765  0.1664
6.501e+09  0.8824  0.3036  0.01913  -0.01883  -0.01005  -0.02803  0.7546  -0.1437
6.502e+09  0.9458  -0.07242  0.0189  0.04522  -0.03289  -0.01916  0.6753  -0.3227
6.504e+09  0.8328  -0.3271  -0.01869  -0.01642  0.02546  -0.007306  0.5072  -0.616
6.505e+09  0.6643  -0.6345  -0.01905  0.01432  -0.001709  -0.01427  0.285  -0.7146
6.506e+09  0.4551  -0.7786  0.01196  0.03228  -0.02117  0.03897  0.02955  -0.7529
6.508e+09  0.04686  -0.9099  0.01499  -0.01006  -0.03503  -0.002035  -0.2705  -0.727
6.509e+09  -0.1704  -0.9031  0.0364  0.006648  0.014  0.06053  -0.4653  -0.5846
6.51e+09  -0.4985  -0.782  -0.0471  -0.0232  -0.02663  0.009344  -0.629  -0.3943
6.511e+09  -0.7515  -0.5488  -0.01424  0.0251  -0.0262  -0.02893  -0.7569  -0.1382
6.512e+09  -0.8978  -0.3224  -0.002797  -0.0009827  -0.002528  0.03302  -0.7535  0.1157
6.514e+09  -0.9696  0.106  -0.02218  -0.02454  -0.008989  0.003285  -0.6273  0.3839
6.515e+09  -0.8656  0.4364  -0.01815  -0.01544  0.001083  0.04229  -0.4619  0.5939
6.516e+09  -0.6723  0.7066  -0.05233  0.000809  -0.04004  0.01025  -0.2596  0.6934
6.518e+09  -0.3886  0.9028  -0.02322  0.003628  0.036  -0.01464  -0.01561  0.7789
6.519e+09  -0.08436  0.9588  -0.02918  -0.02985  -0.04048  -0.01348  0.2658  0.7321
6.52e+09  0.269  0.9157  0.01643  0.008003  0.01256  -0.03754  0.4455  0.5523
6.521e+09  0.5717  0.7576  -0.04275  0.007169  0.01935  0.01252  0.6558  0.3808
6.522e+09  0.8274  0.4587  0.00463  0.008088  -0.01634  -0.01377  0.712  0.11
6.524e+09  0.9086  0.231  -0.03672  -0.003456  -0.05089  0.07701  0.6903  -0.1415
6.525e+09  0.9717  -0.1005  -0.03488  0.02455  0.02021  -0.01767  0.5775  -0.4067
6.526e+09  0.889  -0.4055  0.006293  -0.01327  -0.03242  0.001443  0.4153  -0.5486
6.528e+09  0.6291  -0.7293  -0.01219  -0.02057  0.01297  -0.00842  0.2187  -0.7045
6.529e+09  0.3581  -0.9502  0.03467  0.01762  -0.0217  -0.04054  -0.03406  -0.6786
6.53e+09  -0.006732  -0.9414  -0.0111  0.002709  -0.004982  -0.008451  -0.2833  -0.642
6.531e+09  -0.378  -0.8732  0.006917  -0.00319  -0.04381  0.01953  -0.4506  -0.4354
6.532e+09  -0.6628  -0.7516  -0.01602  -0.01878  0.01972  0.01561  -0.6117  -0.2998
6.534e+09  -0.8719  -0.5214  0.001018  -0.0196  -0.00512  0.04336  -0.6155  -0.1022
6.535e+09  -0.954  -0.1478  -0.0179  0.01509  0.01781  -0.01947  -0.6302  0.1125
6.536e+09  -0.9475  0.2188  0.000798  -0.009059  0.05374  -0.01865  -0.5352  0.2982
6.538e+09  -0.8175  0.4967  -0.003681  0.03457  0.0124  0.03776  -0.4643  0.4688
6.539e+09  -0.5769  0.808  -0.0206  0.00246  -0.04018  0.02052  -0.285  0.6308
6.54e+09  -0.2896  0.9056  -0.01965  -0.02804  -0.004652  0.0396  -0.04313  0.6975
6.541e+09  0.05733  0.9772  -0.02668  -0.003837  0.03545  0.01341  0.1969  0.6635
6.542e+09  0.3642  0.9545  0.0005607  -0.02037  0.02995  0.02117  0.413  0.5676
6.544e+09  0.6767  0.676  -0.02197  0.008689  0.04338  -0.01627  0.5952  0.4074
6.545e+09  0.833  0.4347  -0.002801  -3.943e-05  -0.005596  0.003033  0.7265  0.1764
6.546e+09  0.9778  0.1163  0.01843  -0.01327  0.005249  0.01119  0.7487  -0.07004
6.548e+09  0.9718  -0.2631  0.01202  0.02437  0.03414  0.0179  0.6458  -0.3395
6.549e+09  0.7787  -0.6288  0.01546  0.01958  -0.001983  0.01324  0.5344  -0.5047
6.55e+09  0.5841  -0.7807  0.01926  0.009728  -2.092e-05  0.016  0.3117  -0.6914
