# Hz S RI R 50
6.25e+09  -0.2922  0.8167  0.01563  0.005046  -0.004787  -0.02938  0.1622  0.4542
6.251e+09  0.1148  0.8217  -0.0182  -0.01657  -0.009081  -0.04913  0.3763  0.4179
6.252e+09  0.3788  0.7465  -0.005924  0.03586  -0.002511  -0.0135  0.533  0.2038
6.254e+09  0.5634  0.6074  0.002811  0.006531  -0.02571  0.01972  0.6098  0.05201
6.255e+09  0.8373  0.3731  0.01488  0.01949  0.08024  -0.008916  0.6025  -0.2363
6.256e+09  0.9202  0.03673  -0.004916  0.02513  -0.002062  -0.02031  0.4825  -0.4747
6.258e+09  0.8073  -0.2542  0.00553  0.0207  -0.03765  0.09128  0.2989  -0.6092
6.259e+09  0.6646  -0.5211  0.02318  -0.003233  0.03131  -0.04401  0.02375  -0.6906
6.26e+09  0.441  -0.6518  -0.01492  0.0004304  -0.03873  -0.02222  -0.1986  -0.6898
6.261e+09  0.1492  -0.8627  -0.01405  -0.01119  0.0211  0.01012  -0.4263  -0.5535
6.262e+09  -0.06865  -0.8489  0.01611  0.02178  0.002669  -0.006168  -0.615  -0.3722
6.264e+09  -0.3983  -0.7082  0.01011  0.008172  0.01487  -0.03862  -0.6658  -0.1203
6.265e+09  -0.6216  -0.5007  -0.001767  -0.0181  -0.04547  -0.03849  -0.6899  0.1386
6.266e+09  -0.7878  -0.328  -0.004812  -0.005258  0.00513  -0.008508  -0.618  0.3875
6.268e+09  -0.8137  -0.008669  0.00113  0.00938  0.05243  0.004558  -0.4215  0.5947
6.269e+09  -0.7804  0.2413  0.0182  -0.03803  -0.05122  -0.007967  -0.1863  0.7055
6.27e+09  -0.6248  0.5257  -0.01417  0.04399  0.002744  0.0477  0.0718  0.7387
6.271e+09  -0.4248  0.7462  -0.007888  -0.006516  0.005673  0.004271  0.3211  0.6653
6.272e+09  -0.1435  0.8015  0.01798  -0.02254  0.02724  -0.03046  0.5227  0.5157
6.274e+09  0.1048  0.8152  0.01382  -0.01618  0.05795  -0.005476  0.6801  0.3047
6.275e+09  0.3624  0.6922  0.03342  -0.008276  -0.01084  0.05573  0.7629  0.03307
6.276e+09  0.6225  0.5578  0.03383  -0.04228  0.01183  0.01049  0.7269  -0.2372
6.278e+09  0.7992  0.2524  0.01923  -0.01669  0.004837  0.02769  0.5667  -0.4841
6.279e+09  0.8087  -0.0461  -0.01468  0.02165  -0.003403  0.0439  0.3702  -0.6349
6.28e+09  0.7714  -0.2832  0.0404  -0.0219  -0.02642  -0.0426  0.1577  -0.7606
6.281e+09  0.6524  -0.5483  -0.02939  0.02343  -0.01764  -0.07496  -0.1105  -0.7559
6.282e+09  0.4497  -0.7942  -0.01838  0.004082  -0.02419  0.02931  -0.3645  -0.6859
6.284e+09  0.1576  -0.7842  0.005539  0.01739  0.003247  0.02961  -0.5819  -0.5036
6.285e+09  -0.1444  -0.8763  -0.01754  -0.01448  0.01944  -0.03538  -0.7396  -0.2969
6.286e+09  -0.4143  -0.6965  0.02201  -0.005882  0.04568  0.005555  -0.8001  -0.00608
6.288e+09  -0.6475  -0.5029  0.00101  0.00515  -0.006827  -0.03856  -0.7576  0.2529
6.289e+09  -0.7795  -0.2489  -0.01519  -0.000962  -0.01743  0.00312  -0.6291  0.4878
6.29e+09  -0.8511  0.02325  -0.02516  0.01333  0.04025  0.02695  -0.4318  0.6795
6.291e+09  -0.8166  0.3268  -0.004418  -0.005335  0.04261  0.05537  -0.1857  0.7946
6.292e+09  -0.5784  0.5537  -0.01174  0.004438  0.02811  -0.02201  0.1459  0.7959
6.294e+09  -0.4418  0.7961  0.01082  0.007814  0.06092  0.0654  0.396  0.7525
6.295e+09  -0.07327  0.8264  -0.028  0.007962  -0.03106  0.02593  0.6314  0.5426
6.296e+09  0.1937  0.8495  0.0277  0.02501  -0.04276  -0.02218  0.7938  0.3028
6.298e+09  0.4621  0.6745  0.006267  -0.001344  0.02106  0.04155  0.8051  0.01656
6.299e+09  0.676  0.4841  -0.007842  0.01874  0.001584  0.04615  0.7646  -0.2369
6.3e+09  0.8197  0.2385  0.0217  -0.02273  -0.01783  0.01176  0.6385  -0.4987
6.301e+09  0.8311  -0.0451  -0.02259  -0.01934  0.004259  -0.01092  0.3885  -0.6943
6.302e+09  0.7045  -0.3747  0.01332  0.01263  0.05902  0.06187  0.1657  -0.8358
6.304e+09  0.6141  -0.4973  -0.0006962  0.02113  0.01565  0.06276  -0.1252  -0.8104
6.305e+09  0.3355  -0.785  0.02577  0.01807  0.03142  -0.02147  -0.4292  -0.7267
6.306e+09  0.05314  -0.7851  0.0001712  -0.02288  -0.008242  0.01975  -0.6571  -0.5721
6.308e+09  -0.2297  -0.801  -0.01775  -0.008738  -0.008007  0.0243  -0.7491  -0.3326
6.309e+09  -0.4973  -0.6661  0.006676  -0.003273  -0.003623  -0.04132  -0.8889  -0.0378
6.31e+09  -0.6993  -0.4549  -0.005505  -0.03927  0.01928  0.01793  -0.8088  0.2982
6.311e+09  -0.8004  -0.1585  0.001217  -0.02328  -0.003751  0.005693  -0.6793  0.5635
6.312e+09  -0.8282  0.05044  -0.01974  0.01119  -0.02056  -0.02273  -0.4241  0.7305
6.314e+09  -0.7686  0.449  -0.007641  -0.005638  0.03544  0.03714  -0.1714  0.8539
6.315e+09  -0.5588  0.6373  0.01829  0.001147  0.00215  0.05991  0.09562  0.8649
6.316e+09  -0.3913  0.8068  -0.006216  0.009472  -0.0007089  -0.01206  0.392  0.7382
6.318e+09  -0.04161  0.8458  0.002597  0.01294  -0.001476  0.01646  0.6507  0.6016
6.319e+09  0.2537  0.8224  0.0217  -0.008947  -0.02644  0.03713  0.8431  0.3252
6.32e+09  0.4994  0.6474  -0.01304  -0.007469  -0.02338  0.02102  0.8826  0.0154
6.321e+09  0.7299  0.4398  0.01678  -0.01941  0.009991  0.006882  0.7925  -0.2764
6.322e+09  0.8464  0.09628  -0.02093  -0.02989  0.02674  0.0122  0.7006  -0.5729
6.324e+09  0.8315  -0.1651  -0.01467  0.002579  0.01832  -0.00434  0.4361  -0.7612
6.325e+09  0.754  -0.4216  -0.00315  0.01138  -0.01725  -0.008838  0.1765  -0.9056
6.326e+09  0.5288  -0.6374  -0.03538  -0.01957  -0.02632  0.04001  -0.1641  -0.8799
6.328e+09  0.3035  -0.8285  0.002056  -0.004541  0.02849  -0.03149  -0.4572  -0.8012
6.329e+09  -0.01115  -0.8909  0.03863  0.0488  -0.008554  -0.03688  -0.655  -0.5943
6.33e+09  -0.3117  -0.7463  -0.002077  -0.00713  -0.04396  -0.004794  -0.8408  -0.3236
6.331e+09  -0.5832  -0.6548  0.002414  0.006254  -0.01061  0.01995  -0.8851  -0.04288
6.332e+09  -0.7862  -0.355  -0.01039  -0.001289  0.02474  0.007928  -0.8259  0.2548
6.334e+09  -0.8951  -0.08183  -0.008374  0.05665  -0.03886  -0.002203  -0.7224  0.5844
6.335e+09  -0.8814  0.2425  0.01634  0.01865  0.01605  0.03534  -0.538  0.7628
6.336e+09  -0.7323  0.5141  -0.01234  -0.03752  -0.0576  0.05602  -0.2041  0.9093
6.338e+09  -0.4978  0.7716  0.01194  0.009201  0.02738  -0.01321  0.1268  0.8739
6.339e+09  -0.2084  0.8801  0.03271  -0.01226  -0.0274  0.01405  0.4394  0.8397
6.34e+09  0.1042  0.8865  0.02446  0.001568  0.03707  0.0114  0.6745  0.628
6.341e+09  0.4176  0.8023  0.0122  -0.004702  0.007821  -0.02626  0.8222  0.3507
6.342e+09  0.6378  0.6388  0.04211  0.02423  -0.02695  0.02026  0.9194  0.06756
6.344e+09  0.8476  0.3555  0.003507  -0.004863  -0.01073  -0.02475  0.8675  -0.2945
6.345e+09  0.8549  0.0584  -0.02288  0.007947  0.05097  0.003238  0.7326  -0.5218
6.346e+09  0.8304  -0.2519  0.002975  -0.02353  -0.04512  0.0181  0.48  -0.7768
6.348e+09  0.681  -0.5481  0.01295  0.006415  0.003183  -0.004687  0.2043  -0.9344
6.349e+09  0.443  -0.7497  0.03582  -0.006973  0.04805  0.02485  -0.138  -0.9266
6.35e+09  0.1728  -0.8501  -0.01448  -0.01149  0.003052  -0.03345  -0.4117  -0.8384
6.351e+09  -0.1702  -0.8962  -0.01007  0.01431  -0.01224  0.01664  -0.6848  -0.6343
6.352e+09  -0.4566  -0.7989  0.01062  -0.01691  0.04544  -0.003391  -0.8909  -0.361
6.354e+09  -0.7096  -0.5873  -0.006891  -0.01042  0.0311  0.07123  -0.9145  -0.04875
6.355e+09  -0.8513  -0.3334  0.00812  -0.01061  -0.01109  0.01186  -0.9373  0.2686
6.356e+09  -0.9261  0.004405  -0.02186  -0.04743  0.001374  0.02787  -0.7575  0.5739
6.358e+09  -0.7755  0.315  0.005881  0.008923  -0.001476  -0.02878  -0.5572  0.794
6.359e+09  -0.6527  0.563  0.005197  -0.009153  0.01124  0.01958  -0.2446  0.9124
6.36e+09  -0.4153  0.7596  -0.01679  -0.003527  -0.04584  0.007489  0.08971  0.9103
6.361e+09  -0.1579  0.8508  0.01076  0.01194  -0.008472  -0.005867  0.4092  0.8873
6.362e+09  0.2364  0.8799  0.03165  -0.0262  0.0182  0.05429  0.639  0.6744
6.364e+09  0.4575  0.7178  -0.009939  -0.02837  -0.02617  -0.002888  0.8752  0.3965
6.365e+09  0.747  0.4857  0.02292  0.008364  -0.06977  0.0007459  0.9421  0.1037
6.366e+09  0.8438  0.2803  -0.01623  -0.0296  -0.008649  0.0008367  0.9022  -0.2146
6.368e+09  0.9463  -0.05999  -0.003816  -0.003884  0.05116  0.05205  0.7684  -0.5382
6.369e+09  0.8456  -0.3529  -0.007145  0.03226  0.005165  -0.006299  0.525  -0.7597
6.37e+09  0.6397  -0.594  -0.02778  -0.0183  0.02608  -0.01422  0.2561  -0.8916
6.371e+09  0.3901  -0.8632  0.002401  -0.03118  -0.03407  0.002013  -0.1139  -0.9263
6.372e+09  0.09311  -0.9226  0.01469  0.0358  0.02033  -0.01314  -0.3676  -0.8928
6.374e+09  -0.2785  -0.8304  -0.0058  0.01688  0.01268  0.01109  -0.6575  -0.6711
6.375e+09  -0.4533  -0.7246  -0.02942  0.04314  0.06381  0.01699  -0.8651  -0.3958
6.376e+09  -0.7536  -0.463  -0.001749  0.01275  -0.03118  -0.04052  -0.9402  -0.07959
6.378e+09  -0.8752  -0.2501  0.005491  0.005465  -0.004188  -0.04119  -0.8951  0.2368
6.379e+09  -0.8671  0.07435  0.01458  0.008769  -0.04478  -0.02124  -0.7891  0.5008
6.38e+09  -0.7963  0.4074  -0.01097  0.004726  -0.04636  -0.02959  -0.547  0.7715
6.381e+09  -0.6047  0.6914  0.02664  -0.02981  0.006903  -0.003087  -0.2689  0.8765
6.382e+09  -0.3677  0.8372  0.004389  0.01468  -0.01321  -0.008051  0.05045  0.9652
6.384e+09  -0.05647  0.9164  -0.02373  0.02862  -0.004949  -0.004194  0.3812  0.8832
6.385e+09  0.241  0.8601  -0.004213  0.01936  -0.03012  -0.02596  0.6466  0.6726
6.386e+09  0.5392  0.7239  -0.0303  0.002295  -0.04296  -0.01825  0.852  0.3864
6.388e+09  0.7385  0.4863  0.03384  -0.009631  -0.01557  0.03442  0.8999  0.112
6.389e+09  0.8674  0.2226  -0.01477  -0.0334  -0.04631  0.03911  0.8841  -0.179
6.39e+09  0.8813  -0.1512  0.00874  -0.005466  0.02439  0.009573  0.7537  -0.4802
6.391e+09  0.7666  -0.3586  0.02538  -0.03602  0.002286  0.02458  0.596  -0.7236
6.392e+09  0.5546  -0.6357  0.02166  0.01661  -0.01481  -0.01319  0.2746  -0.8805
6.394e+09  0.3695  -0.8684  -0.007921  0.0223  -0.03306  -0.02284  -0.03472  -0.9127
6.395e+09  -0.01784  -0.8481  0.01023  -0.02817  0.02935  -0.02393  -0.387  -0.8595
6.396e+09  -0.311  -0.8527  -0.04122  0.008021  -0.02796  -0.03105  -0.5809  -0.6826
6.398e+09  -0.5822  -0.7065  -0.005655  -0.01795  0.01019  -0.01245  -0.792  -0.4688
6.399e+09  -0.7347  -0.4045  0.016  0.03717  -0.004947  -0.02612  -0.9005  -0.1344
6.4e+09  -0.8807  -0.1565  -0.008723  -0.004399  -0.02529  0.01469  -0.8908  0.2179
6.401e+09  -0.8394  0.152  0.01073  0.00374  -0.007465  0.03214  -0.8044  0.5038
6.402e+09  -0.7523  0.4832  -0.009843  -0.009443  0.006171  0.001831  -0.5951  0.7331
6.404e+09  -0.566  0.7088  0.017  0.008656  0.01499  0.007781  -0.2918  0.8631
6.405e+09  -0.3264  0.8222  0.01829  -0.000228  0.04831  0.0135  0.02414  0.9269
6.406e+09  -0.02346  0.8819  -0.02595  -0.0008462  -0.02867  0.01807  0.2715  0.9038
6.408e+09  0.308  0.7775  -0.005892  -0.02875  0.03327  0.03014  0.576  0.6976
6.409e+09  0.5521  0.7347  -0.01371  0.01558  -0.001412  0.0132  0.7768  0.4697
6.41e+09  0.7563  0.4521  -0.01042  -0.0001818  0.01027  -0.009885  0.8862  0.1755
6.411e+09  0.8712  0.1491  0.04713  -0.009939  -0.03347  0.01507  0.8884  -0.1495
6.412e+09  0.8379  -0.2551  -0.01347  0.03268  -0.02561  -0.03512  0.8116  -0.4199
6.414e+09  0.7338  -0.4541  0.02158  0.05241  0.04631  -0.002286  0.5937  -0.682
6.415e+09  0.5487  -0.7287  0.03454  -0.006934  0.01125  -0.05473  0.2873  -0.8144
6.416e+09  0.2911  -0.8474  -0.01066  0.006777  -0.001371  -0.04381  0.07617  -0.9438
6.418e+09  -0.006015  -0.8773  -0.06691  -0.043  -0.001196  0.001693  -0.2522  -0.8201
6.419e+09  -0.2545  -0.8431  0.03207  0.01124  0.03742  0.03533  -0.5386  -0.6503
6.42e+09  -0.5851  -0.6557  -0.005734  -0.04799  0.02682  0.02444  -0.764  -0.4692
6.421e+09  -0.7691  -0.4372  -0.01767  0.05513  0.03533  -0.0001995  -0.8671  -0.2058
6.422e+09  -0.8821  -0.08842  0.007854  0.01133  -0.006111  -0.02248  -0.9036  0.1431
6.424e+09  -0.8946  0.1552  -0.003781  -0.01872  -0.004744  0.006257  -0.8011  0.4078
6.425e+09  -0.7307  0.5055  -0.00663  0.02765  -0.0006565  0.0005181  -0.5731  0.6202
6.426e+09  -0.5163  0.7212  -0.01821  -0.009871  0.01278  -0.01731  -0.3608  0.7985
6.428e+09  -0.2775  0.865  -0.0243  0.03379  0.009417  -0.01907  -0.08647  0.863
6.429e+09  0.03823  0.8626  0.00467  0.02179  -0.006989  0.01111  0.2956  0.8615
6.43e+09  0.3072  0.8121  0.01707  -0.05262  0.002743  -0.06468  0.5256  0.6483
6.431e+09  0.6075  0.6768  0.03565  0.000564  0.001885  -0.06105  0.7235  0.5116
6.432e+09  0.807  0.3868  0.00237  -0.01764  -0.005748  -0.01307  0.8568  0.2006
6.434e+09  0.9448  0.1118  -0.0007069  0.009722  0.002867  0.03791  0.8768  -0.06292
6.435e+09  0.8299  -0.2675  0.01601  -0.003357  -0.04416  0.01087  0.7608  -0.3926
6.436e+09  0.7952  -0.5136  0.03432  -0.01023  0.003318  -0.001202  0.5774  -0.5819
6.438e+09  0.5124  -0.7685  0.01418  -0.01854  -0.04967  0.007616  0.3326  -0.7241
6.439e+09  0.2408  -0.8015  -0.003884  0.009536  0.0305  -0.05593  0.1112  -0.8034
6.44e+09  0.01013  -0.899  0.02403  -0.009525  0.01166  -0.007875  -0.2151  -0.8447
6.441e+09  -0.3566  -0.8023  0.01733  0.01506  0.01176  0.018  -0.4979  -0.7081
6.442e+09  -0.6556  -0.6749  -0.01047  -0.03829  -0.001863  0.01634  -0.7027  -0.5039
6.444e+09  -0.8169  -0.3582  0.01115  0.01645  0.006648  0.008593  -0.8497  -0.22
6.445e+09  -0.8856  -0.07623  0.03457  -0.04242  0.028  -0.01607  -0.8229  0.1182
6.446e+09  -0.888  0.2445  0.04723  7.462e-05  -0.05853  0.004006  -0.7357  0.355
6.448e+09  -0.7106  0.519  -0.003076  0.01819  -0.01267  0.01717  -0.5569  0.5936
6.449e+09  -0.4918  0.6993  -0.01366  -0.00472  -0.04394  -0.02933  -0.3791  0.7728
6.45e+09  -0.2226  0.8876  0.0126  0.01382  -0.02499  -0.02064  -0.0278  0.8429
6.451e+09  0.04702  0.9057  -0.0142  0.01557  0.01474  -0.04641  0.1973  0.7848
6.452e+09  0.3942  0.7957  0.001847  -0.003769  -0.02696  -0.03702  0.4824  0.6983
6.454e+09  0.6868  0.6207  -0.03177  -0.01053  -0.04811  0.0005863  0.7067  0.4792
6.455e+09  0.8227  0.3958  -0.03123  0.008445  -0.01894  0.08036  0.8187  0.2127
6.456e+09  0.8871  0.1217  -0.01593  0.0019  -0.002601  -0.01858  0.8027  -0.08103
6.458e+09  0.8962  -0.233  0.007163  0.01102  0.03146  -0.01528  0.7413  -0.3555
6.459e+09  0.7182  -0.5098  0.04147  -0.008897  -0.01759  0.02653  0.5708  -0.5321
6.46e+09  0.52  -0.7864  -0.06253  -0.003782  -0.02661  -0.008207  0.3113  -0.7937
6.461e+09  0.1897  -0.8034  0.01497  -0.03005  -0.008902  -0.04768  0.09683  -0.812
6.462e+09  -0.08875  -0.8809  0.0001573  -0.006722  -0.01125  0.01462  -0.2405  -0.8013
6.464e+09  -0.4192  -0.8092  0.0144  0.006523  0.01078  -0.03086  -0.4436  -0.6974
6.465e+09  -0.6571  -0.6095  -0.02449  0.03149  0.0006083  0.007958  -0.75  -0.44
6.466e+09  -0.7971  -0.3698  -0.01737  0.005153  -0.02423  -0.07148  -0.8301  -0.1539
6.468e+09  -0.9347  -0.06459  -0.003349  -0.003002  0.03899  -0.01145  -0.8032  0.1091
6.469e+09  -0.9104  0.2698  0.03132  -0.005034  -0.03068  -0.01546  -0.7133  0.3339
6.47e+09  -0.7326  0.5751  -0.0185  0.009672  0.01561  0.03272  -0.5523  0.5846
6.471e+09  -0.4566  0.7774  0.01381  0.05526  0.01848  -0.03104  -0.3399  0.7515
6.472e+09  -0.2272  0.8985  0.003077  0.00135  -0.02605  0.01946  -0.09276  0.7791
6.474e+09  0.1534  0.9508  -0.007584  0.0225  0.001152  -0.03601  0.2195  0.7661
6.475e+09  0.4266  0.8169  -0.008103  0.004453  0.02981  -0.004652  0.4776  0.6029
6.476e+09  0.7288  0.6675  0.009002  0.02385  0.007493  0.007987  0.6763  0.4689
6.478e+09  0.8871  0.3244  0.03681  -0.01847  -0.02526  0.03075  0.7755  0.1865
6.479e+09  0.9278  0.04306  -0.01831  -0.02095  -0.02506  -0.02121  0.7876  -0.07014
6.48e+09  0.9001  -0.2837  -0.007  0.02169  -0.02759  0.04169  0.7205  -0.36
6.481e+09  0.7652  -0.6232  -0.01033  0.00358  0.02013  0.03699  0.551  -0.5814
6.482e+09  0.4327  -0.7857  -0.008134  -0.002154  0.03784  -0.02378  0.3202  -0.6566
6.484e+09  0.1586  -0.8989  -0.004043  -0.01603  -0.02802  -0.03219  0.05139  -0.7459
6.485e+09  -0.1612  -0.9232  0.02419  -0.0138  -0.03279  0.01181  -0.2446  -0.714
6.486e+09  -0.4962  -0.8186  -0.01044  0.005485  -0.03152  0.0008204  -0.4096  -0.6037
6.488e+09  -0.7024  -0.5922  0.0002954  -0.008747  -0.005021  0.004812  -0.6328  -0.3917
6.489e+09  -0.8639  -0.2851  0.01038  -0.03715  0.04373  -0.02604  -0.7545  -0.1576
6.49e+09  -0.9087  -0.007633  0.02068  0.05451  -0.0349  -0.06876  -0.7466  0.09118
6.491e+09  -0.8197  0.3459  -0.02329  0.03413  -0.02097  -0.04135  -0.681  0.35
6.492e+09  -0.7  0.5717  -0.01916  -0.02431  -0.02315  0.05343  -0.4718  0.5585
6.494e+09  -0.4578  0.8276  0.01361  0.009212  0.01151  0.03595  -0.2959  0.7063
6.495e+09  -0.1232  0.9073  -0.02549  0.009376  -0.02287  0.00399  -0.03946  0.7936
6.496e+09  0.1865  0.9488  -0.002868  0.05201  0.02544  0.05261  0.2202  0.7663
6.498e+09  0.5155  0.7855  -0.0248  0.003245  0.03218  -0.001766  0.4689  0.5974
6.499e+09  0.7244  0.5683  0.0224  0.001073  -0.02556  -0.02984  0.6375  0.4205
6.5e+09  0.931  0.2437  0.03159  -0.03823  0.001679  0.04135  0.7643  0.1436
6.501e+09  0.9243  -0.05699  0.02894  -0.01411  0.02468  0.0131  0.7744  -0.1153
6.502e+09  0.863  -0.4068  -0.008619  0.001874  -0.001625  -0.002605  0.7001  -0.3424
6.504e+09  0.6762  -0.6087  -0.03273  0.0501  -0.00546  0.01472  0.5382  -0.545
6.505e+09  0.4006  -0.8849  -0.008364  0.05512  -0.007673  -0.0305  0.2716  -0.7212
6.506e+09  0.03753  -0.9486  0.005112  -0.04637  0.05133  -0.006837  0.04423  -0.7636
6.508e+09  -0.3132  -0.9685  -0.002053  -0.01548  0.04857  -0.03606  -0.2068  -0.7177
6.509e+09  -0.5857  -0.7644  0.002036  0.009587  0.0285  0.04655  -0.4945  -0.5728
6.51e+09  -0.7666  -0.5187  -0.03276  0.003897  -0.08405  0.05091  -0.6575  -0.4121
6.511e+09  -0.8963  -0.2061  -0.03679  -0.001635  0.01501  -0.006563  -0.7291  -0.1549
6.512e+09  -0.9605  0.1204  -0.0117  0.04461  0.03739  0.03414  -0.7372  0.1637
6.514e+09  -0.91  0.4219  0.04268  0.03239  0.001674  0.002664  -0.6728  0.3734
6.515e+09  -0.6326  0.6859  -0.0004093  -0.00279  0.005876  -0.02438  -0.4622  0.5577
6.516e+09  -0.3859  0.8891  -0.011  -0.006461  -6.379e-05  -0.0604  -0.2499  0.7048
6.518e+09  0.006861  0.9471  -0.01263  0.00668  -0.0002978  0.00584  0.0158  0.7223
6.519e+09  0.2731  0.9849  -0.03317  -0.009519  -7.755e-06  0.03448  0.2444  0.6644
6.52e+09  0.6228  0.7746  0.02884  0.03025  0.004107  -0.04006  0.5094  0.5148
6.521e+09  0.8819  0.4396  -0.05039  0.0293  0.02941  -0.01008  0.6449  0.3402
6.522e+09  0.9577  0.1862  0.008204  0.04487  -0.02981  0.008932  0.7308  0.05356
6.524e+09  0.9378  -0.1816  0.009816  -0.01368  0.04952  0.01943  0.7286  -0.1757
6.525e+09  0.8404  -0.5145  -0.02992  0.0129  0.03386  -0.02631  0.6258  -0.3944
6.526e+09  0.5768  -0.7779  -0.009226  -0.004281  -0.04467  -0.05451  0.4057  -0.5824
6.528e+09  0.2947  -0.9344  -0.03117  0.01508  0.04449  0.02322  0.1769  -0.6377
6.529e+09  -0.09044  -0.939  0.04187  -0.03709  0.02909  0.000634  -0.03243  -0.7004
6.53e+09  -0.3748  -0.9212  0.006039  -0.03519  0.005581  0.0001494  -0.2712  -0.6242
6.531e+09  -0.7193  -0.6359  0.02449  -0.02263  0.0197  -0.008974  -0.4494  -0.5222
6.532e+09  -0.7905  -0.4114  0.01103  0.04111  0.005859  0.03794  -0.5906  -0.2975
6.534e+09  -0.9553  -0.08881  0.01183  0.004533  -0.03062  -0.00336  -0.6336  -0.09921
6.535e+09  -0.9303  0.2624  0.02929  0.01241  0.0006309  0.003351  -0.6344  0.09663
6.536e+09  -0.7781  0.6168  0.0001418  -0.005303  -0.04335  -0.008796  -0.5733  0.2923
6.538e+09  -0.5239  0.8078  -0.02586  0.0157  0.02407  -0.02252  -0.4371  0.4923
6.539e+09  -0.2868  0.9198  0.005424  -0.07088  -0.0261  -0.03953  -0.2822  0.5981
6.54e+09  0.1306  1.005  0.03565  0.006291  0.01861  -0.02153  -0.04765  0.6656
6.541e+09  0.4529  0.8089  0.02412  -0.006433  -0.002469  -0.01775  0.1931  0.67
6.542e+09  0.743  0.6619  -0.00227  0.06544  -0.01522  0.03286  0.4338  0.5506
6.544e+09  0.9287  0.2866  -0.02492  -0.005341  0.03967  0.01491  0.6175  0.4396
6.545e+09  0.9572  -0.007271  0.03885  0.007034  -0.002239  0.01091  0.6976  0.1748
6.546e+09  0.9114  -0.3178  -0.007494  0.03477  0.04365  0.006902  0.7345  -0.08587
6.548e+09  0.7529  -0.648  -0.004949  0.01302  0.03719  0.02536  0.7036  -0.316
6.549e+09  0.3971  -0.8128  0.00581  0.003898  0.04681  -0.03735  0.5236  -0.5244
6.55e+09  0.1331  -1.01  -0.005935  0.01827  0.06492  0.01941  0.2617  -0.6414
