# Hz S RI R 50
6.25e+09  -0.4138  0.7855  0.004144  -0.00487  -0.05206  0.03624  0.1484  0.4757
6.251e+09  -0.1755  0.821  -0.02284  -0.02628  0.02339  -0.03354  0.3661  0.409
6.252e+09  0.1887  0.8596  0.0008709  -0.002267  0.03271  0.0008617  0.5273  0.2617
6.254e+09  0.4758  0.6953  -0.00194  -0.02577  0.00966  0.001623  0.5945  -0.01093
6.255e+09  0.6161  0.5363  0.01362  -0.002625  0.02911  -0.01194  0.582  -0.2527
6.256e+09  0.8138  0.2677  0.01815  -0.02035  -0.04749  0.01074  0.4798  -0.4476
6.258e+09  0.874  -0.08803  -0.008307  0.03319  0.01214  0.008169  0.2761  -0.5973
6.259e+09  0.7926  -0.3066  -0.01604  -0.003959  -0.01328  0.01438  0.02686  -0.6587
6.26e+09  0.6358  -0.5314  0.007012  0.004031  -0.02076  -0.03227  -0.1995  -0.6574
6.261e+09  0.3718  -0.7329  -0.03179  -0.01894  -0.001004  -0.02875  -0.4428  -0.523
6.262e+09  0.1183  -0.8071  0.0321  0.01322  -0.009584  -0.01996  -0.5949  -0.3672
6.264e+09  -0.1797  -0.7814  0.008072  -0.01898  -0.0533  0.03146  -0.7141  -0.07533
6.265e+09  -0.4568  -0.6631  -0.003489  -0.01329  -0.02717  -0.001296  -0.6789  0.1249
6.266e+09  -0.625  -0.5281  0.004174  -0.07877  0.03405  0.009182  -0.5966  0.4122
6.268e+09  -0.7465  -0.3113  -0.01242  0.01352  -0.03072  0.000876  -0.4286  0.5971
6.269e+09  -0.8104  0.01458  -0.005875  -0.0006886  -0.0004901  -0.01144  -0.1967  0.6784
6.27e+09  -0.7477  0.3415  0.02461  -0.02491  0.0125  0.01205  0.05748  0.7279
6.271e+09  -0.5733  0.5413  -0.01543  -0.01903  0.02923  0.01526  0.3125  0.7027
6.272e+09  -0.4179  0.7316  -0.02656  -0.01533  -0.00871  0.01416  0.5006  0.5113
6.274e+09  -0.09064  0.8419  0.01109  0.006194  -0.01561  0.02471  0.6393  0.318
6.275e+09  0.1736  0.8107  -0.01971  0.02394  -0.00358  -0.03599  0.7345  0.02313
6.276e+09  0.4409  0.6822  -0.01223  -0.01032  0.01552  0.05712  0.7316  -0.1856
6.278e+09  0.6927  0.5038  -0.01947  -0.0008202  0.01383  -0.01915  0.6072  -0.4626
6.279e+09  0.7491  0.2865  -0.006914  -0.0156  0.002797  0.02828  0.4437  -0.6587
6.28e+09  0.7895  -0.03581  -0.005525  -0.02938  -0.005495  0.01566  0.1605  -0.7548
6.281e+09  0.7729  -0.3853  0.04182  -0.01827  -0.05322  -0.0009129  -0.1075  -0.7841
6.282e+09  0.6139  -0.5784  -0.02765  0.02389  0.03397  0.05747  -0.362  -0.663
6.284e+09  0.3775  -0.7322  0.0131  0.009079  -0.02916  0.002276  -0.5907  -0.5421
6.285e+09  0.09979  -0.8003  -0.003743  0.01277  0.008042  -0.01185  -0.7384  -0.2701
6.286e+09  -0.2261  -0.8089  -0.0252  0.01051  -0.04055  0.01172  -0.7776  -0.04063
6.288e+09  -0.4672  -0.6776  0.003687  0.02605  0.01674  -0.03998  -0.7647  0.2581
6.289e+09  -0.6821  -0.5241  0.001417  0.01974  -0.02301  -0.04422  -0.5892  0.5003
6.29e+09  -0.7791  -0.2759  0.003251  -0.01826  0.01198  -0.05118  -0.4321  0.7142
6.291e+09  -0.8952  0.06761  0.02551  0.01928  -0.006823  -0.04624  -0.1629  0.8014
6.292e+09  -0.7392  0.3369  0.0308  -0.01609  -0.02124  -0.03904  0.1033  0.8121
6.294e+09  -0.5785  0.5619  0.008404  0.003014  -0.02959  -0.03143  0.3802  0.7357
6.295e+09  -0.2944  0.7342  0.01256  -0.004342  -0.02883  -0.03388  0.6205  0.5525
6.296e+09  -0.07721  0.8265  0.01229  -0.01496  0.005391  -0.01235  0.7766  0.2987
6.298e+09  0.2212  0.8066  0.0219  -0.01564  0.01231  -0.02143  0.813  0.03998
6.299e+09  0.5028  0.6473  -0.01786  0.005311  -0.02971  0.007064  0.7787  -0.273
6.3e+09  0.7194  0.4659  -0.001056  0.000605  -0.02797  -0.006741  0.6323  -0.5365
6.301e+09  0.7978  0.2164  -0.02944  -0.01615  -0.02848  0.004992  0.4642  -0.6991
6.302e+09  0.8335  -0.1183  0.003293  -0.001224  -0.04326  -0.008733  0.1693  -0.8078
6.304e+09  0.7757  -0.3512  0.001691  -0.01203  -0.00974  0.01912  -0.134  -0.8622
6.305e+09  0.5745  -0.6372  -0.01441  -0.00246  0.05258  -0.03647  -0.4367  -0.7515
6.306e+09  0.3308  -0.7758  0.0236  0.01084  0.03411  0.00296  -0.6356  -0.5152
6.308e+09  0.04215  -0.8518  0.01829  -0.01605  -0.009375  0.06571  -0.803  -0.2768
6.309e+09  -0.2741  -0.762  0.01451  0.02151  -0.03102  0.03677  -0.8267  0.03698
6.31e+09  -0.5511  -0.6753  -0.009601  0.01275  -6.394e-05  -0.002483  -0.8223  0.2918
6.311e+09  -0.6846  -0.4021  0.01072  -0.001601  -0.02895  -0.05549  -0.6571  0.5442
6.312e+09  -0.8414  -0.1681  0.013  0.01244  -0.02466  -0.01694  -0.4361  0.7424
6.314e+09  -0.8313  0.1075  -0.01711  0.004091  -0.02931  0.01855  -0.172  0.8671
6.315e+09  -0.7035  0.4247  0.001677  0.02223  -0.02103  -0.01851  0.1583  0.849
6.316e+09  -0.5668  0.6304  7.071e-05  0.01348  0.0006681  -0.04366  0.4199  0.7683
6.318e+09  -0.3006  0.7947  -0.01027  0.0103  -0.01396  -0.01812  0.6593  0.5699
6.319e+09  0.06029  0.8494  -0.03401  0.03819  -0.023  0.0182  0.8375  0.3265
6.32e+09  0.3354  0.7728  -0.01159  -0.01469  0.002428  0.03627  0.894  0.006881
6.321e+09  0.5372  0.623  0.004118  -0.01863  0.05352  -0.01364  0.8428  -0.278
6.322e+09  0.7291  0.4226  0.02256  0.0162  -0.02056  -0.02357  0.6805  -0.5359
6.324e+09  0.863  0.1455  0.01781  -0.003692  0.02653  -0.02099  0.4823  -0.7839
6.325e+09  0.8096  -0.1784  0.01267  -0.02092  -0.008633  -0.01537  0.1819  -0.8928
6.326e+09  0.7188  -0.4581  0.0124  0.02461  -0.06002  0.02304  -0.1397  -0.8767
6.328e+09  0.4764  -0.6783  0.02627  -0.002576  0.002468  -0.02121  -0.445  -0.8172
6.329e+09  0.2377  -0.8169  -0.03057  0.007873  0.05476  0.007997  -0.6783  -0.5714
6.33e+09  -0.05734  -0.8373  -0.03527  0.01574  -0.03517  -0.00423  -0.8031  -0.3361
6.331e+09  -0.333  -0.7934  0.01819  0.01531  0.008076  0.01859  -0.8559  -0.04751
6.332e+09  -0.5844  -0.6277  0.005469  0.02772  -0.05777  0.01152  -0.8758  0.2889
6.334e+09  -0.8086  -0.3708  -0.01455  0.0003638  -0.01115  -0.024  -0.7313  0.5638
6.335e+09  -0.8217  -0.09673  -0.009048  -0.01172  0.008113  0.04479  -0.47  0.7734
6.336e+09  -0.8478  0.2181  0.02361  0.00172  -0.0197  -0.007198  -0.1744  0.8905
6.338e+09  -0.7519  0.4793  -0.02722  0.03963  0.0007321  -0.01742  0.1192  0.8841
6.339e+09  -0.5315  0.7592  0.01127  0.008263  -0.01158  0.0287  0.461  0.8232
6.34e+09  -0.2423  0.8718  -0.02017  0.005662  0.01049  0.02032  0.6762  0.6158
6.341e+09  0.07708  0.8536  -0.008115  0.01665  0.001948  0.01444  0.8534  0.3529
6.342e+09  0.4461  0.7241  0.006698  -0.009841  0.02234  -0.0199  0.8978  0.04584
6.344e+09  0.6611  0.5279  -0.02348  0.001255  -0.01783  -0.0001026  0.8571  -0.2563
6.345e+09  0.803  0.2973  -0.007894  -0.01095  -0.02553  0.02967  0.7239  -0.5718
6.346e+09  0.9291  0.05432  0.01202  0.006574  -0.01904  0.04978  0.5105  -0.7829
6.348e+09  0.843  -0.2672  0.00606  0.01133  0.003136  0.02056  0.2213  -0.9038
6.349e+09  0.6702  -0.5851  -0.006169  -0.01578  0.008329  0.002231  -0.07616  -0.9542
6.35e+09  0.4101  -0.7718  -0.04245  0.009628  -0.009032  0.02823  -0.4011  -0.8393
6.351e+09  0.1363  -0.8764  0.001125  -0.02472  -0.01554  0.03625  -0.6683  -0.667
6.352e+09  -0.1656  -0.9227  0.0321  0.01813  -0.01137  0.01192  -0.8324  -0.382
6.354e+09  -0.4245  -0.7304  0.00168  -0.01669  0.006737  -0.002847  -0.9651  -0.06487
6.355e+09  -0.6868  -0.5289  -0.00429  0.007004  -0.006477  -0.0332  -0.9243  0.2475
6.356e+09  -0.8636  -0.2711  0.001278  0.01922  0.01088  -0.007973  -0.7532  0.5508
6.358e+09  -0.8756  0.05759  -0.02369  0.002587  0.04428  -0.01866  -0.4813  0.7528
6.359e+09  -0.8176  0.3807  -0.01697  -0.0423  -0.04251  0.01694  -0.2522  0.9109
6.36e+09  -0.6476  0.5899  -0.00414  -0.04225  0.003496  -0.01455  0.09848  0.9233
6.361e+09  -0.4339  0.7294  -0.038  -0.01315  -0.01566  -0.01715  0.4228  0.8554
6.362e+09  -0.1285  0.9027  0.004263  -0.03036  0.01648  -0.002619  0.6761  0.658
6.364e+09  0.2613  0.8767  0.002972  0.0224  0.02263  -0.008144  0.8438  0.3959
6.365e+09  0.5275  0.7246  -0.01157  0.01182  -0.02093  0.05779  0.9282  0.02515
6.366e+09  0.7223  0.5482  -0.02757  0.001362  0.001904  0.0188  0.9122  -0.2484
6.368e+09  0.8627  0.2082  0.02082  -0.02209  0.001767  -0.01938  0.7542  -0.5097
6.369e+09  0.8625  -0.1019  -0.03588  0.02434  0.003461  0.0001478  0.5116  -0.7717
6.37e+09  0.7985  -0.3747  -0.01259  -0.006962  -0.06904  0.001531  0.2748  -0.8917
6.371e+09  0.5996  -0.6576  0.005581  0.001035  -0.0023  -0.02478  -0.0299  -0.9357
6.372e+09  0.3338  -0.842  -0.005762  -0.00315  0.0006627  0.003379  -0.3746  -0.8312
6.374e+09  0.03897  -0.8576  -0.02563  -0.01918  -0.04089  -0.03202  -0.6373  -0.6984
6.375e+09  -0.2509  -0.8033  -0.0107  0.03352  0.02893  0.009884  -0.811  -0.4015
6.376e+09  -0.5037  -0.6879  0.002658  0.009101  -0.001847  0.01092  -0.9178  -0.09568
6.378e+09  -0.7601  -0.4784  -0.0359  -0.003587  -0.0474  0.03945  -0.8974  0.2241
6.379e+09  -0.8628  -0.1885  0.001535  0.01219  0.002932  -0.009511  -0.7844  0.5199
6.38e+09  -0.8721  0.08155  0.01029  -0.04858  -0.0341  0.02585  -0.5533  0.7296
6.381e+09  -0.7785  0.4472  0.00231  0.009867  -0.02013  0.02495  -0.2886  0.8619
6.382e+09  -0.6079  0.6707  -0.01107  -0.01414  -0.007873  0.02894  0.06021  0.9429
6.384e+09  -0.2861  0.7932  0.01294  0.0004281  0.04432  -0.007065  0.3812  0.8681
6.385e+09  -0.04529  0.8486  0.01541  0.001435  -0.01551  0.02752  0.6394  0.696
6.386e+09  0.3002  0.7619  -0.02016  -0.007938  -0.007583  0.02056  0.8392  0.4183
6.388e+09  0.5765  0.6994  -0.04671  -0.04021  0.008846  -0.0158  0.9148  0.1226
6.389e+09  0.7419  0.4536  0.0155  -0.004764  -0.00464  -0.01897  0.9186  -0.1983
6.39e+09  0.8847  0.1288  -0.01712  -0.02106  -0.01214  -0.006754  0.7568  -0.5006
6.391e+09  0.8943  -0.1503  -0.01972  -0.002203  -0.0003348  0.03817  0.5618  -0.7633
6.392e+09  0.8047  -0.5004  0.05328  0.01067  -0.006301  -0.03078  0.2927  -0.8741
6.394e+09  0.5505  -0.6854  -0.008105  -0.0137  -0.01315  0.003009  -0.04115  -0.9271
6.395e+09  0.2858  -0.8348  0.05636  -0.05475  -0.05282  0.0167  -0.3356  -0.8455
6.396e+09  -0.003033  -0.8912  0.02184  -0.01187  -0.01832  -0.04224  -0.5754  -0.6752
6.398e+09  -0.3602  -0.8357  0.009244  -0.01554  -0.02416  0.006083  -0.8263  -0.4361
6.399e+09  -0.612  -0.659  -0.0003885  -0.01686  0.004913  0.04131  -0.9272  -0.108
6.4e+09  -0.7824  -0.4376  0.01113  -0.01169  0.0403  0.01278  -0.8802  0.2164
6.401e+09  -0.8222  -0.1005  0.03755  -0.02606  -0.0126  -0.009173  -0.7803  0.4899
6.402e+09  -0.8345  0.2363  0.004151  0.02274  -0.02739  0.03156  -0.5873  0.6932
6.404e+09  -0.7969  0.4828  0.03204  0.03724  -0.008722  -0.00746  -0.3532  0.8168
6.405e+09  -0.5167  0.7528  0.04469  -0.00936  0.03113  0.005263  -0.01185  0.9152
6.406e+09  -0.2948  0.8327  -0.03002  -0.05325  -0.002543  0.01986  0.3099  0.8328
6.408e+09  0.04282  0.8947  -0.0147  0.01928  0.006902  -0.01671  0.5606  0.7242
6.409e+09  0.3556  0.7823  -0.01878  -0.01581  0.011  -0.02705  0.7941  0.5106
6.41e+09  0.6188  0.6274  0.03043  -0.01988  0.02427  0.03969  0.8555  0.1479
6.411e+09  0.7668  0.4086  -0.0196  -0.02854  0.06338  0.0254  0.9009  -0.1288
6.412e+09  0.957  0.1006  0.02514  0.01423  -0.01957  -0.03691  0.7952  -0.4257
6.414e+09  0.9072  -0.207  -0.004098  -0.01852  -0.007418  -0.01177  0.6085  -0.6576
6.415e+09  0.7463  -0.5052  -0.006111  0.01668  0.02816  0.01806  0.3268  -0.8325
6.416e+09  0.5121  -0.7471  -0.02759  0.002366  -0.03629  -0.04855  0.004547  -0.8734
6.418e+09  0.2615  -0.847  -0.01985  -0.02639  0.0007769  -0.01848  -0.2902  -0.8447
6.419e+09  -0.03967  -0.8818  -0.0002023  0.0476  -0.01119  -0.03065  -0.5444  -0.7326
6.42e+09  -0.3807  -0.7824  0.02145  0.02468  -0.003088  0.03508  -0.759  -0.53
6.421e+09  -0.6387  -0.6341  -0.01901  -0.008367  -0.03455  0.007629  -0.8375  -0.256
6.422e+09  -0.7712  -0.4078  -0.02423  0.03353  -0.0008506  -0.005214  -0.851  0.09914
6.424e+09  -0.8928  -0.09371  0.03161  -0.005752  0.0144  0.01508  -0.7938  0.3457
6.425e+09  -0.8689  0.2311  0.03625  0.004657  -0.003634  -0.06248  -0.5671  0.6179
6.426e+09  -0.6775  0.4847  -0.03611  -0.02123  0.02891  -0.01285  -0.3807  0.8032
6.428e+09  -0.4734  0.7181  -0.06944  0.02561  -0.0131  -0.0182  -0.07258  0.9322
6.429e+09  -0.1984  0.8472  0.03516  0.0577  -0.02664  0.02176  0.2824  0.8619
6.43e+09  0.0688  0.8771  -0.02992  -0.02108  0.05589  0.03609  0.5003  0.7232
6.431e+09  0.3713  0.8238  -0.002976  0.005737  -0.00825  -0.006288  0.7097  0.476
6.432e+09  0.6268  0.5891  0.02423  -0.06734  0.005095  0.03373  0.8341  0.193
6.434e+09  0.8091  0.3209  -0.02496  0.03568  -0.05278  -0.01315  0.8389  -0.07492
6.435e+09  0.9081  0.05298  -0.03011  -0.02106  -0.0784  0.001399  0.7832  -0.4121
6.436e+09  0.8976  -0.2315  0.02348  0.004465  -0.02856  -0.02987  0.5425  -0.6141
6.438e+09  0.7335  -0.5187  -0.007061  -0.006428  -0.00659  -0.03115  0.3528  -0.7928
6.439e+09  0.4792  -0.7529  0.02574  0.003913  -0.03176  -0.01042  0.06137  -0.8161
6.44e+09  0.1993  -0.8624  -0.03211  -0.01601  0.01117  0.009713  -0.2229  -0.7985
6.441e+09  -0.1463  -0.8382  0.009449  0.01606  -0.02057  0.003955  -0.493  -0.6685
6.442e+09  -0.4173  -0.7785  -0.0003179  -0.009803  -0.06573  -0.03225  -0.6998  -0.4559
6.444e+09  -0.6289  -0.5956  -0.01458  0.0358  -0.04232  0.06738  -0.7867  -0.1899
6.445e+09  -0.8568  -0.3168  0.03825  -0.01922  -0.04567  -0.05394  -0.8665  0.1119
6.446e+09  -0.8719  -0.0237  0.02664  -0.004243  0.04354  -0.01429  -0.7606  0.4074
6.448e+09  -0.8558  0.2739  -0.02052  0.009236  0.009206  0.04596  -0.614  0.5696
6.449e+09  -0.6805  0.5005  0.01616  0.02173  -0.002779  0.007068  -0.3385  0.7749
6.45e+09  -0.495  0.7397  0.007069  0.04169  -0.02337  0.04154  -0.07652  0.8792
6.451e+09  -0.2296  0.8735  0.003027  0.003846  -0.04932  -0.04445  0.2238  0.8163
6.452e+09  0.1439  0.8697  -0.0373  -0.0112  -0.01374  0.02654  0.4977  0.6526
6.454e+09  0.4122  0.808  0.02452  0.03695  0.01074  -0.02479  0.6769  0.4955
6.455e+09  0.6179  0.6493  -0.03663  -0.01884  0.002879  0.04  0.7597  0.2211
6.456e+09  0.834  0.4078  0.008142  0.03766  -0.03462  -0.08576  0.8316  -0.06187
6.458e+09  0.888  0.04346  0.0193  0.01398  0.03548  -0.007879  0.7279  -0.3534
6.459e+09  0.7647  -0.2669  -0.009445  -0.01262  -0.05181  0.008707  0.5331  -0.5882
6.46e+09  0.6687  -0.5023  0.02955  -0.01401  0.02811  0.01706  0.3226  -0.7288
6.461e+09  0.4841  -0.7465  0.06435  -0.01468  -0.004583  0.04791  0.03288  -0.8291
6.462e+09  0.1674  -0.8684  -0.003247  0.0005358  0.0824  0.05207  -0.1855  -0.769
6.464e+09  -0.1336  -0.9029  -0.02039  -0.0112  0.01586  -0.0317  -0.4574  -0.7023
6.465e+09  -0.4112  -0.7652  0.0122  0.0156  -0.02311  -0.06443  -0.6453  -0.4572
6.466e+09  -0.6549  -0.558  -0.0453  -0.01447  0.02132  -0.006182  -0.7749  -0.1917
6.468e+09  -0.8173  -0.3475  0.01192  -0.03412  -0.005492  -0.04217  -0.7831  0.03249
6.469e+09  -0.9153  -0.07018  -0.04232  -0.03013  -0.02171  -0.03927  -0.7407  0.312
6.47e+09  -0.8362  0.2693  -0.01101  0.01565  -0.008687  -0.01411  -0.52  0.5874
6.471e+09  -0.711  0.5705  -0.04139  -0.06331  0.04543  -0.004736  -0.3521  0.7527
6.472e+09  -0.436  0.8178  -0.005653  -0.003011  -0.001987  0.05587  -0.05686  0.8219
6.474e+09  -0.2235  0.8951  0.009733  -0.0005381  -0.005502  0.02036  0.2041  0.7656
6.475e+09  0.1156  0.8808  0.02958  0.03455  0.04191  -0.001027  0.4243  0.6267
6.476e+09  0.4536  0.8152  0.05096  0.03498  -0.007273  -0.0377  0.6683  0.452
6.478e+09  0.6896  0.5912  0.009778  -0.008418  0.02774  0.005459  0.7471  0.1988
6.479e+09  0.8946  0.3256  -0.01812  0.01327  -0.02329  -0.001044  0.8329  -0.08002
6.48e+09  0.8931  0.01847  -0.01544  -0.02361  -0.02116  0.006741  0.7049  -0.3527
6.481e+09  0.8584  -0.28  0.01416  0.02181  -2.53e-06  -0.03204  0.5323  -0.5435
6.482e+09  0.6685  -0.5988  0.01479  0.01658  -0.006399  0.002531  0.3272  -0.6787
6.484e+09  0.4436  -0.7959  0.002374  -0.0284  -0.02831  -0.005157  0.04577  -0.7972
6.485e+09  0.1562  -0.9103  0.0009077  -0.007514  -0.03735  0.05488  -0.2213  -0.7566
6.486e+09  -0.1893  -0.8731  0.008837  0.007691  -0.05034  -0.03175  -0.4428  -0.5989
6.488e+09  -0.4463  -0.8128  0.03002  -0.007269  0.02508  0.008547  -0.6479  -0.4031
6.489e+09  -0.7189  -0.6011  -0.03691  -0.001937  0.01127  0.02928  -0.7324  -0.2249
6.49e+09  -0.8505  -0.3309  0.01521  0.04672  -0.04254  -0.0157  -0.7599  0.07977
6.491e+09  -0.9537  -0.004033  0.01276  -0.005088  -0.03722  0.06651  -0.7118  0.3576
6.492e+09  -0.8925  0.3174  0.01631  0.03409  0.0182  0.03279  -0.5044  0.5773
6.494e+09  -0.7036  0.5564  0.01012  0.001254  0.06169  0.007859  -0.2908  0.6996
6.495e+09  -0.4854  0.8055  -0.0129  0.03509  0.01826  0.01349  -0.04515  0.7421
6.496e+09  -0.107  0.8929  -0.003648  -0.04308  -0.04828  0.01132  0.2636  0.737
6.498e+09  0.1618  0.8584  0.04156  0.01043  0.05166  0.01779  0.4658  0.5855
6.499e+09  0.4998  0.7715  0.00256  -0.03809  0.004071  -0.009348  0.6646  0.4235
6.5e+09  0.758  0.5631  -0.021  0.007299  0.004741  -0.00138  0.7946  0.1497
6.501e+09  0.8933  0.2798  -0.008357  0.04984  -0.04368  0.03907  0.7778  -0.1082
6.502e+09  0.9757  -0.07001  -0.004167  0.007581  0.01863  0.009499  0.6639  -0.3684
6.504e+09  0.9201  -0.3534  -0.008396  0.03136  -0.01831  0.005003  0.4912  -0.5451
6.505e+09  0.7285  -0.6052  -0.01674  -0.01647  0.02182  -0.01758  0.3278  -0.6964
6.506e+09  0.4159  -0.8389  -0.01368  -0.03568  0.004507  -0.004097  0.03245  -0.7535
6.508e+09  0.1605  -0.9503  -0.008785  -0.006971  0.0122  -0.04829  -0.257  -0.714
6.509e+09  -0.2009  -0.9139  -0.001062  -0.01411  0.05841  0.009406  -0.4754  -0.576
6.51e+09  -0.5476  -0.7738  -0.02537  0.01485  0.04616  -0.01482  -0.6569  -0.3972
6.511e+09  -0.7757  -0.5524  0.01691  0.01442  -0.01733  -0.007487  -0.7547  -0.1441
6.512e+09  -0.9328  -0.2779  0.01013  -0.02856  -0.06962  -0.01393  -0.719  0.1164
6.514e+09  -0.9192  0.07207  -0.0073  -0.01086  0.01064  0.05111  -0.6219  0.3479
6.515e+09  -0.8878  0.3676  0.01314  0.01146  -0.0006284  -0.04809  -0.4514  0.5806
6.516e+09  -0.7541  0.607  0.03304  0.006268  0.02169  0.007099  -0.2571  0.7087
6.518e+09  -0.3726  0.8722  -0.004238  -0.02244  0.02554  0.01474  0.001187  0.6946
6.519e+09  -0.1151  1.014  -0.03436  -0.01938  0.05491  0.03985  0.3083  0.6879
6.52e+09  0.2456  0.9576  -0.007725  0.006225  -0.01431  0.02548  0.4721  0.5646
6.521e+09  0.5291  0.8001  0.02532  0.01172  -0.003929  0.01239  0.6364  0.3394
6.522e+09  0.8273  0.5612  -0.04449  0.01024  -0.04574  0.003918  0.7164  0.0987
6.524e+09  0.9753  0.2644  0.01093  -0.0004931  -0.00534  -0.04012  0.7486  -0.1501
6.525e+09  1.018  -0.08084  0.02693  0.001264  -0.04332  -0.003744  0.584  -0.4122
6.526e+09  0.8435  -0.4839  -0.02227  0.03904  0.02893  0.000962  0.4336  -0.5797
6.528e+09  0.6821  -0.6869  -0.0247  -0.01926  0.008944  0.01865  0.2145  -0.6768
6.529e+09  0.3448  -0.8877  0.01999  0.02497  -0.015  -0.03846  -0.03174  -0.7203
6.53e+09  -0.0006384  -0.9562  0.005429  -0.02021  -0.04907  0.003945  -0.2947  -0.6225
6.531e+09  -0.2631  -0.9449  -0.004379  -0.01154  0.01129  0.02322  -0.4481  -0.4751
6.532e+09  -0.6093  -0.7851  0.03335  0.008301  0.02065  0.04444  -0.5971  -0.2576
6.534e+09  -0.8547  -0.5163  0.02083  0.0156  -0.01781  -0.01154  -0.6331  -0.04775
6.535e+09  -0.9209  -0.1902  -0.0106  0.03981  0.02391  0.02255  -0.5927  0.07522
6.536e+09  -0.9752  0.1507  0.04686  -0.01641  0.0105  0.009301  -0.563  0.3006
6.538e+09  -0.8695  0.5335  -0.02168  0.01122  -0.029  0.0243  -0.444  0.4887
6.539e+09  -0.5743  0.7579  -0.01132  -0.009865  0.06637  0.0348  -0.3019  0.6176
6.54e+09  -0.2752  0.97  0.05458  0.02694  -0.0129  0.03642  -0.02766  0.6852
6.541e+09  0.02721  0.9808  0.0288  0.01911  -0.02504  0.01479  0.2339  0.6777
6.542e+09  0.422  0.8793  0.02337  -0.003725  0.0257  0.008662  0.4155  0.5539
6.544e+09  0.6263  0.7569  -0.01248  -0.0003425  -0.0054  0.01915  0.5901  0.3877
6.545e+09  0.8916  0.4637  0.01277  -0.007612  -0.07393  -0.03211  0.7162  0.1698
6.546e+09  0.9604  0.1217  -0.008212  -0.02119  0.02438  -0.02346  0.6956  -0.07144
6.548e+09  0.9644  -0.2374  -0.007713  -0.01529  0.04423  0.006999  0.6548  -0.3152
6.549e+09  0.8107  -0.593  0.01656  0.03573  0.06774  0.04338  0.5352  -0.534
6.55e+09  0.5202  -0.8214  -0.0009576  -0.01773  0.01631  0.02954  0.3195  -0.6499
