# Hz S RI R 50
6.25e+09  -0.3982  0.7894  0.01065  -0.02759  -0.01643  -0.04051  0.1642  0.5183
6.251e+09  -0.05912  0.8513  -0.01988  0.004778  -0.0014  0.05986  0.3702  0.4051
6.252e+09  0.2543  0.797  -0.02679  0.001529  0.03421  0.01624  0.496  0.2469
6.254e+09  0.4441  0.784  -0.01882  -0.01537  0.03764  -0.006188  0.5984  0.004014
6.255e+09  0.6848  0.5098  -0.009445  0.009988  -0.01222  -0.01761  0.578  -0.2307
6.256e+09  0.7899  0.2241  0.001752  -0.01973  0.004268  -0.05315  0.4782  -0.4289
6.258e+09  0.792  -0.09958  0.007632  0.0102  -0.000624  -0.05442  0.2942  -0.5772
6.259e+09  0.7715  -0.3364  0.03464  0.00306  -0.02501  -0.001331  0.05975  -0.6795
6.26e+09  0.5627  -0.5668  -0.01407  -0.004919  0.01424  -0.006658  -0.2082  -0.6944
6.261e+09  0.3478  -0.801  -0.01262  0.02109  0.002636  -0.001596  -0.4342  -0.5329
6.262e+09  0.1277  -0.8191  0.001437  0.003603  0.03114  0.02339  -0.6044  -0.3467
6.264e+09  -0.1902  -0.8083  0.04185  -0.00686  0.02559  -0.0004747  -0.6939  -0.111
6.265e+09  -0.48  -0.6431  0.02096  0.004048  0.03943  -0.02955  -0.7351  0.1173
6.266e+09  -0.7018  -0.511  -0.02472  0.01467  0.0613  -0.004277  -0.6259  0.375
6.268e+09  -0.8183  -0.2703  0.007515  -0.03625  0.03902  -0.01998  -0.448  0.5908
6.269e+09  -0.8291  0.08717  -0.0146  -0.003782  0.009788  -0.002881  -0.1984  0.7388
6.27e+09  -0.7615  0.3049  -0.01375  -0.00667  -0.04546  -0.02413  0.07496  0.734
6.271e+09  -0.5984  0.5967  -0.02228  0.007508  0.01491  -0.01431  0.3252  0.6615
6.272e+09  -0.3178  0.7589  0.02633  0.01463  -0.004735  0.00428  0.5333  0.5248
6.274e+09  -0.0587  0.8482  -0.01146  -0.004195  -0.01051  0.04375  0.7151  0.3071
6.275e+09  0.2438  0.8309  -0.03193  -0.003944  0.002065  0.01912  0.748  0.05778
6.276e+09  0.5085  0.6751  0.005893  0.007203  -0.0008237  -0.000633  0.7425  -0.2665
6.278e+09  0.6759  0.4609  -0.009216  0.01312  0.02746  0.00876  0.6072  -0.4469
6.279e+09  0.7955  0.2059  0.004197  -0.001125  0.01407  -0.01817  0.4265  -0.6516
6.28e+09  0.8251  -0.1311  -0.01462  0.001236  -0.004519  -0.02211  0.1998  -0.7438
6.281e+09  0.7225  -0.3943  0.05509  0.002369  0.05107  -0.02258  -0.1169  -0.7414
6.282e+09  0.5799  -0.5664  0.01771  -0.01065  0.0286  -0.01064  -0.3708  -0.6735
6.284e+09  0.3272  -0.7556  -0.0002166  -0.007724  -0.01914  -0.0223  -0.565  -0.4936
6.285e+09  0.01879  -0.8337  -0.0128  -0.003429  -0.04233  -0.02067  -0.7374  -0.2433
6.286e+09  -0.2613  -0.7845  0.004138  -0.00928  -0.009858  -0.008076  -0.8119  -0.05043
6.288e+09  -0.4994  -0.6593  -0.0002819  -0.01647  0.06296  0.01786  -0.77  0.2417
6.289e+09  -0.7194  -0.4641  -0.02371  -0.03575  0.0138  -0.04431  -0.6209  0.4946
6.29e+09  -0.8597  -0.2121  -0.01262  0.007233  -0.02868  0.02093  -0.4166  0.6784
6.291e+09  -0.8093  0.145  -0.00439  -0.002528  -0.007633  0.01888  -0.1582  0.7901
6.292e+09  -0.7192  0.3783  -0.001817  0.002483  0.01109  -0.01411  0.1439  0.7928
6.294e+09  -0.5539  0.6206  -0.002409  -0.02089  -0.07948  -0.01081  0.4071  0.7331
6.295e+09  -0.2948  0.8241  0.02751  0.03587  -0.02365  0.02725  0.6152  0.542
6.296e+09  -0.03258  0.8234  0.01362  -0.01249  0.01668  0.0249  0.7977  0.283
6.298e+09  0.2233  0.7848  0.006196  -0.003654  -0.01003  -0.04948  0.8267  0.0007039
6.299e+09  0.5516  0.6412  0.02018  0.03264  0.009197  -0.001803  0.777  -0.2485
6.3e+09  0.7205  0.4067  -0.00375  0.006886  -0.0476  0.04636  0.6362  -0.5106
6.301e+09  0.8135  0.1207  -0.02665  0.00824  -0.0007351  0.02505  0.4236  -0.7357
6.302e+09  0.8009  -0.1285  -0.01881  0.02625  -0.03744  -0.01535  0.1634  -0.844
6.304e+09  0.7105  -0.4548  0.01541  -0.02441  -0.04004  -0.002518  -0.1231  -0.8409
6.305e+09  0.5103  -0.6705  -0.02829  -0.01448  0.01116  0.009897  -0.4085  -0.7238
6.306e+09  0.306  -0.8316  0.005541  0.01839  0.03258  0.0308  -0.6222  -0.5547
6.308e+09  0.01507  -0.8152  0.002698  0.004167  0.01615  0.00554  -0.7906  -0.3133
6.309e+09  -0.3224  -0.7574  -0.03736  -0.002926  -0.01765  -0.007469  -0.8354  0.02021
6.31e+09  -0.5723  -0.6105  0.01942  0.005633  -0.02605  0.01556  -0.8345  0.2731
6.311e+09  -0.6922  -0.3676  -0.03351  0.01731  -0.000115  -0.02057  -0.6472  0.5711
6.312e+09  -0.8004  -0.1296  -0.02489  -0.04274  0.04031  -0.06524  -0.4811  0.7602
6.314e+09  -0.8075  0.1418  0.008324  0.009779  -0.05578  -0.01794  -0.1679  0.8418
6.315e+09  -0.7082  0.4271  0.01601  0.01317  0.02197  -0.04702  0.1524  0.8604
6.316e+09  -0.4884  0.6508  -0.01739  0.01202  0.01527  0.01709  0.4138  0.7534
6.318e+09  -0.203  0.7883  -0.01401  0.03927  -0.002238  0.03016  0.6545  0.583
6.319e+09  0.05715  0.7794  -0.03657  -0.00946  -0.01001  -0.03009  0.8152  0.3351
6.32e+09  0.3308  0.7311  0.008293  -0.004766  0.02608  -0.0176  0.8714  0.01566
6.321e+09  0.5935  0.6266  -0.02547  -0.001006  -0.02154  -0.03288  0.8621  -0.2946
6.322e+09  0.7411  0.4218  -0.00893  0.007608  -0.0207  -0.0429  0.7361  -0.5487
6.324e+09  0.8519  0.1262  -0.009676  -0.04461  0.06565  0.02297  0.4666  -0.742
6.325e+09  0.7704  -0.2314  0.004834  0.02148  -0.00319  -0.001511  0.1964  -0.8771
6.326e+09  0.7016  -0.4714  0.01939  0.01637  -0.01233  -0.01149  -0.1454  -0.9057
6.328e+09  0.4483  -0.7349  -0.01848  -0.005792  -0.003036  -0.01791  -0.4135  -0.7817
6.329e+09  0.2171  -0.8233  0.002307  0.01681  0.04376  -0.000439  -0.7094  -0.5941
6.33e+09  -0.1033  -0.8574  -0.01639  0.008837  0.0542  -0.001704  -0.8513  -0.3318
6.331e+09  -0.3943  -0.7854  -0.00235  -0.02291  0.02997  -0.02607  -0.9093  -0.04231
6.332e+09  -0.6106  -0.6307  0.01275  0.01843  0.01487  0.01828  -0.8468  0.3021
6.334e+09  -0.8093  -0.3247  0.01512  0.01144  -0.0009457  -0.04219  -0.7091  0.5523
6.335e+09  -0.8585  -0.08084  0.04686  -0.00531  -0.004287  -0.01344  -0.4888  0.824
6.336e+09  -0.8311  0.2598  -0.003526  0.007303  0.01253  -0.01412  -0.1979  0.8946
6.338e+09  -0.7278  0.5029  0.001036  0.0415  -0.02487  -0.02107  0.1024  0.9099
6.339e+09  -0.4579  0.774  -0.01779  0.01133  -0.03816  -0.009664  0.424  0.7993
6.34e+09  -0.1925  0.8237  0.004612  -0.0127  0.03355  -0.00422  0.675  0.6289
6.341e+09  0.1645  0.8696  0.01988  0.01336  -0.01977  0.04298  0.8473  0.3597
6.342e+09  0.4089  0.7493  0.04994  -0.01534  -0.01038  0.02431  0.9283  0.03751
6.344e+09  0.6681  0.5569  -0.02548  0.007985  -0.005219  0.01526  0.8832  -0.2843
6.345e+09  0.8035  0.307  -0.005892  -0.007877  0.01273  0.00198  0.745  -0.5633
6.346e+09  0.9588  -0.0229  -0.006334  -0.006031  -0.03249  0.01057  0.5147  -0.7906
6.348e+09  0.7395  -0.2741  0.01702  -0.01389  -0.01996  -0.01635  0.2422  -0.9007
6.349e+09  0.6607  -0.6115  0.02653  -0.04575  0.007213  0.002644  -0.1078  -0.9106
6.35e+09  0.3654  -0.8259  -0.02803  -0.03294  0.01307  0.06542  -0.3937  -0.8025
6.351e+09  0.09456  -0.8846  0.05459  0.02707  -0.01725  -0.02067  -0.6739  -0.6466
6.352e+09  -0.1913  -0.863  -0.0327  0.03346  0.01069  0.01105  -0.8467  -0.4098
6.354e+09  -0.4445  -0.7343  -0.01195  0.01231  -0.03581  -0.02648  -0.9053  -0.07851
6.355e+09  -0.7751  -0.5028  0.0174  -0.01055  0.02359  0.02056  -0.9071  0.2627
6.356e+09  -0.8488  -0.2314  -0.05309  -0.03349  -0.0364  -0.05033  -0.7269  0.5538
6.358e+09  -0.8477  0.06211  -0.002741  -0.04948  -0.03775  0.001315  -0.5443  0.7683
6.359e+09  -0.783  0.3624  0.00891  -0.002871  0.001633  0.05184  -0.2298  0.8906
6.36e+09  -0.6334  0.6398  0.01725  0.03306  -0.03427  0.005946  0.08626  0.9355
6.361e+09  -0.3463  0.7642  0.006976  -0.004349  -0.02099  0.01477  0.3859  0.8637
6.362e+09  -0.06283  0.8816  0.005353  -0.01489  -0.02076  -0.01641  0.6758  0.672
6.364e+09  0.2769  0.835  0.005501  0.03117  0.008085  -0.04101  0.8816  0.4139
6.365e+09  0.5058  0.7174  0.004267  0.02871  0.0339  -6.213e-05  0.9848  0.06884
6.366e+09  0.7451  0.4309  -0.03029  -0.01663  0.01177  0.008413  0.9336  -0.2442
6.368e+09  0.8637  0.1971  0.01109  -0.009218  -0.004511  0.004033  0.7428  -0.5214
6.369e+09  0.8658  -0.1386  -0.0427  0.01678  0.00155  -0.02348  0.5318  -0.789
6.37e+09  0.7732  -0.4043  0.0025  -0.003278  -0.04251  0.007663  0.2446  -0.8968
6.371e+09  0.5933  -0.6719  -0.006283  -0.005037  0.009178  -0.02694  -0.07912  -0.9487
6.372e+09  0.2908  -0.8156  0.02021  0.001246  -0.02322  0.015  -0.404  -0.8676
6.374e+09  0.002713  -0.88  0.003987  0.0202  0.001149  -0.02016  -0.6212  -0.6717
6.375e+09  -0.3131  -0.8388  -0.01566  0.01337  0.06562  0.009598  -0.8723  -0.3846
6.376e+09  -0.5733  -0.7026  -0.02266  -0.007931  0.03003  -0.02831  -0.9136  -0.08642
6.378e+09  -0.7673  -0.4457  -0.005002  0.005338  0.0193  0.01568  -0.92  0.224
6.379e+09  -0.8883  -0.1671  -0.009969  -0.007027  0.0344  -0.005406  -0.78  0.5101
6.38e+09  -0.8637  0.1698  -0.003788  -0.02048  -0.07128  0.008996  -0.5979  0.77
6.381e+09  -0.7653  0.4895  0.03168  0.05087  -0.02277  -0.007502  -0.2497  0.8609
6.382e+09  -0.5941  0.6733  -0.02803  0.02247  -0.02513  -0.01456  0.03904  0.9426
6.384e+09  -0.2607  0.8848  -0.01208  -0.01794  0.02495  -0.04439  0.3839  0.8452
6.385e+09  -0.008193  0.8737  -0.009857  -0.03242  -0.01239  -0.01259  0.652  0.698
6.386e+09  0.3451  0.8709  -0.03112  0.02592  -0.01807  0.0009424  0.846  0.3869
6.388e+09  0.5998  0.6963  0.01469  0.0282  -0.00711  0.01613  0.9065  0.1016
6.389e+09  0.8063  0.4028  -0.0007347  0.004447  -0.02879  -0.01998  0.8931  -0.2297
6.39e+09  0.8742  0.08363  0.02187  -0.04114  -0.02851  0.01632  0.8157  -0.4857
6.391e+09  0.8924  -0.205  0.03473  0.0102  0.03985  0.01237  0.5708  -0.719
6.392e+09  0.7079  -0.466  -0.01624  0.00529  0.01546  -0.01097  0.275  -0.8761
6.394e+09  0.4938  -0.6789  0.01573  0.01447  -0.00366  0.0007127  -0.009069  -0.8905
6.395e+09  0.2302  -0.8523  0.01902  0.006394  -0.0141  0.01309  -0.3021  -0.8413
6.396e+09  -0.061  -0.8541  0.0196  0.008989  -0.001451  -0.01503  -0.6195  -0.678
6.398e+09  -0.3485  -0.8234  0.00128  0.01783  0.006083  0.01825  -0.7647  -0.4119
6.399e+09  -0.605  -0.6269  -0.02536  0.01348  0.01227  0.0296  -0.9122  -0.1434
6.4e+09  -0.7817  -0.4227  -0.02436  0.00778  0.02849  0.02856  -0.8683  0.153
6.401e+09  -0.8956  -0.09564  -0.001553  -0.0192  0.002539  0.005954  -0.7775  0.4876
6.402e+09  -0.8934  0.2664  0.02106  -0.002351  -0.04267  -0.0205  -0.5738  0.6673
6.404e+09  -0.74  0.4776  0.007354  -0.04865  0.04502  0.02127  -0.3185  0.8553
6.405e+09  -0.4882  0.7317  0.02008  0.02305  -0.00973  -0.02891  0.009448  0.9238
6.406e+09  -0.2202  0.8339  -0.02314  0.005461  0.01804  0.01449  0.3326  0.8345
6.408e+09  0.1278  0.9264  -0.01351  -0.006415  -0.01966  -0.02116  0.5749  0.7468
6.409e+09  0.3783  0.8011  -0.01912  0.006532  -0.006365  0.01241  0.7688  0.441
6.41e+09  0.6176  0.5944  -0.0195  0.03505  -0.04959  -0.01204  0.933  0.1899
6.411e+09  0.8127  0.3706  0.01517  0.01629  0.004505  0.03587  0.8717  -0.1537
6.412e+09  0.8817  0.06982  0.01494  0.03473  0.026  0.02339  0.7795  -0.4026
6.414e+09  0.8588  -0.253  -0.04991  -0.02016  -0.01421  0.01214  0.5767  -0.6617
6.415e+09  0.6367  -0.522  -0.0006057  0.005667  0.01143  0.03463  0.3238  -0.8709
6.416e+09  0.4617  -0.668  -0.00405  -0.03471  -0.0121  0.01041  0.009456  -0.8706
6.418e+09  0.2267  -0.8561  -0.04091  -0.01263  -0.03384  -0.02519  -0.3069  -0.8315
6.419e+09  -0.1222  -0.8706  0.009098  0.01839  0.01918  -0.0004944  -0.5202  -0.6627
6.42e+09  -0.4159  -0.7667  0.01914  -0.01551  0.05523  0.01126  -0.7574  -0.4852
6.421e+09  -0.6437  -0.6369  0.02841  0.01681  -0.04375  -0.00757  -0.8523  -0.1946
6.422e+09  -0.8411  -0.3838  0.01398  0.009693  -0.007014  -0.06495  -0.8651  0.08471
6.424e+09  -0.8773  -0.01499  -0.00387  -0.00852  0.01259  0.03942  -0.8131  0.3971
6.425e+09  -0.7958  0.2442  0.01222  0.004529  -0.03841  -0.02019  -0.5788  0.6564
6.426e+09  -0.6696  0.5249  0.01284  -0.002123  0.006934  -0.006956  -0.3198  0.7974
6.428e+09  -0.4861  0.7433  0.007461  -0.006195  0.01486  -0.0161  -0.0529  0.8675
6.429e+09  -0.2107  0.8837  -0.01161  0.0006663  -0.004957  0.006277  0.2161  0.8596
6.43e+09  0.1007  0.8628  0.04813  -0.03315  -0.03084  0.06908  0.5482  0.6839
6.431e+09  0.4273  0.7696  -0.01323  0.01288  -0.01824  0.02607  0.7403  0.4403
6.432e+09  0.6504  0.5611  0.0109  0.006802  0.005759  -0.04345  0.8302  0.2267
6.434e+09  0.8527  0.313  0.01767  -0.04749  0.0008048  -0.01212  0.8591  -0.08403
6.435e+09  0.8398  -0.04983  -0.03421  0.005071  -0.04751  -0.03495  0.8032  -0.408
6.436e+09  0.8627  -0.2699  -0.01271  -0.01439  -0.02524  0.01236  0.5784  -0.5699
6.438e+09  0.6497  -0.5667  -0.002703  -0.02829  -0.01353  -0.03019  0.377  -0.7823
6.439e+09  0.5168  -0.8198  0.002567  -0.02218  -0.0282  -0.0189  0.05034  -0.8529
6.44e+09  0.2035  -0.8695  0.01249  0.005909  0.04413  0.02543  -0.2541  -0.8252
6.441e+09  -0.0759  -0.9094  0.01595  0.03319  -0.02359  -0.006202  -0.48  -0.6458
6.442e+09  -0.4288  -0.7716  -0.003322  -0.02497  -0.008154  -0.02643  -0.6964  -0.4852
6.444e+09  -0.649  -0.5597  0.01581  0.003792  -0.0433  -0.0493  -0.8227  -0.1926
6.445e+09  -0.7615  -0.2876  -0.02641  0.03159  -0.02324  -0.06234  -0.8506  0.09433
6.446e+09  -0.8518  -0.02007  -0.02352  0.009639  -0.01211  0.06703  -0.7484  0.3896
6.448e+09  -0.8291  0.2771  -0.03045  -0.004516  0.009851  -0.007702  -0.5893  0.5629
6.449e+09  -0.7437  0.5742  -0.02543  -0.02484  0.02017  0.01457  -0.3549  0.791
6.45e+09  -0.4328  0.7738  -0.02179  -0.007694  -0.02442  -0.05297  -0.009027  0.834
6.451e+09  -0.1705  0.8242  -0.0238  0.03619  0.02546  -0.07962  0.2424  0.8021
6.452e+09  0.15  0.9148  0.0159  0.001433  -0.02488  0.003515  0.4294  0.6107
6.454e+09  0.4048  0.7624  0.0202  0.04232  -0.00351  0.01319  0.6597  0.4776
6.455e+09  0.6816  0.5953  -0.007023  0.06329  0.0101  -0.008445  0.7523  0.2017
6.456e+09  0.8504  0.2866  -0.001596  0.03651  -0.03815  0.01014  0.8017  -0.09133
6.458e+09  0.9091  -0.005291  0.02387  0.0443  0.01609  0.01269  0.6884  -0.346
6.459e+09  0.8264  -0.3291  0.01206  0.01825  0.02269  0.03749  0.5642  -0.6099
6.46e+09  0.6608  -0.5801  -0.02571  -0.006758  0.02717  -0.00818  0.3664  -0.7324
6.461e+09  0.4689  -0.7801  -0.0226  -0.03882  -0.006643  -0.007157  0.07251  -0.8042
6.462e+09  0.192  -0.8774  0.04561  0.01552  0.03062  -0.03283  -0.2347  -0.8085
6.464e+09  -0.1344  -0.8681  0.007646  -0.02051  0.007552  -0.02734  -0.4699  -0.6635
6.465e+09  -0.4791  -0.7958  -0.009586  0.00923  -0.03401  0.03276  -0.6407  -0.474
6.466e+09  -0.6812  -0.6033  0.03675  -0.0167  -0.06532  -0.01425  -0.8129  -0.1868
6.468e+09  -0.8362  -0.2334  -0.03043  0.01086  -0.001035  -0.02582  -0.7931  0.04652
6.469e+09  -0.8669  0.02418  -0.05147  0.02157  -0.01824  0.04859  -0.7208  0.334
6.47e+09  -0.8153  0.2691  -0.01306  0.04335  -0.0109  -0.01296  -0.5133  0.5703
6.471e+09  -0.7084  0.6045  0.07027  -0.02422  0.01458  -0.002977  -0.3446  0.7125
6.472e+09  -0.4307  0.7639  0.008364  -0.006066  0.01099  0.009459  -0.02661  0.7857
6.474e+09  -0.1575  0.8784  -0.006947  -0.008235  0.006069  -0.01104  0.196  0.8175
6.475e+09  0.173  0.9408  0.02463  0.03539  0.02014  0.008772  0.445  0.6833
6.476e+09  0.442  0.7871  0.009091  0.003073  0.05213  -0.03241  0.6462  0.4641
6.478e+09  0.6838  0.5389  0.01717  0.02122  0.02044  0.02815  0.746  0.2135
6.479e+09  0.835  0.3004  0.04498  -0.02321  0.0122  -0.01947  0.7466  -0.09122
6.48e+09  0.8865  -0.04377  0.03015  0.007284  -0.004527  0.04625  0.7048  -0.3201
6.481e+09  0.8638  -0.3143  0.001682  -0.004629  0.05283  0.008783  0.5478  -0.5853
6.482e+09  0.6899  -0.615  0.006  -0.01803  0.01792  0.005474  0.3315  -0.7169
6.484e+09  0.4229  -0.8359  0.003775  -0.03539  -0.002909  0.04531  0.0494  -0.805
6.485e+09  0.147  -0.9254  -0.01498  -0.02503  -0.02882  0.004418  -0.211  -0.7441
6.486e+09  -0.1849  -0.9029  0.0274  0.002899  0.06168  0.02245  -0.4673  -0.6251
6.488e+09  -0.4951  -0.7196  -0.03213  -0.02797  -0.07214  -0.03589  -0.6455  -0.4513
6.489e+09  -0.7531  -0.58  0.002385  0.01143  -0.02388  0.01006  -0.7327  -0.2206
6.49e+09  -0.8792  -0.2867  -0.00901  -0.02439  0.04278  -0.02299  -0.7756  0.05205
6.491e+09  -0.9359  0.07159  -0.001544  0.004881  -0.02284  -0.04255  -0.6868  0.3294
6.492e+09  -0.845  0.3706  0.01105  -0.0228  0.03023  -0.01899  -0.4789  0.5405
6.494e+09  -0.6389  0.6308  -0.01362  0.03439  -0.06709  -0.007868  -0.327  0.7329
6.495e+09  -0.3868  0.861  0.004765  0.02794  0.009134  0.04947  -0.04614  0.7993
6.496e+09  -0.09947  0.989  0.02701  -0.001271  0.03347  -0.02514  0.235  0.7394
6.498e+09  0.252  0.8556  -0.02054  0.01744  0.004239  -0.0023  0.4811  0.6217
6.499e+09  0.4785  0.764  -0.00251  -0.006598  -0.02723  -0.01179  0.6615  0.401
6.5e+09  0.7475  0.5432  -0.01051  0.02825  -0.02137  -0.02858  0.731  0.159
6.501e+09  0.8871  0.2398  -0.04589  0.006779  0.001859  0.03014  0.7425  -0.1054
6.502e+09  0.9957  -0.03484  0.0007057  0.02879  0.05279  0.01306  0.6128  -0.3612
6.504e+09  0.8189  -0.3725  -0.02563  -0.01885  -0.002599  0.05159  0.4891  -0.5491
6.505e+09  0.7297  -0.6835  0.0004451  -0.004241  -0.01753  -0.06001  0.2664  -0.6955
6.506e+09  0.3983  -0.8661  -0.03046  0.009008  -0.02947  0.005374  -0.008074  -0.7372
6.508e+09  0.1067  -0.9572  -0.01967  -0.0179  -0.0323  0.01695  -0.231  -0.7131
6.509e+09  -0.2686  -0.8773  0.01512  -0.00529  0.01293  -0.005811  -0.4475  -0.573
6.51e+09  -0.5801  -0.7316  0.008161  0.03554  -0.04559  -0.006247  -0.6468  -0.3786
6.511e+09  -0.8049  -0.5303  -0.00147  0.01148  -0.01879  0.04195  -0.7527  -0.144
6.512e+09  -0.9375  -0.21  -0.002236  0.001562  -0.00687  0.03893  -0.7122  0.09546
6.514e+09  -0.9134  0.1295  0.03339  -0.01157  -0.02962  -0.01579  -0.6389  0.3759
6.515e+09  -0.8232  0.463  0.02727  -0.01124  0.01791  0.01225  -0.4684  0.5667
6.516e+09  -0.635  0.7236  0.03188  8.811e-05  -0.03391  -0.005268  -0.2291  0.6899
6.518e+09  -0.3644  0.8989  -0.02091  0.001057  -0.04256  0.03691  0.03361  0.7599
6.519e+09  -0.05916  0.9571  0.03007  0.00823  0.004538  -0.003677  0.277  0.6795
6.52e+09  0.2801  0.9225  -0.003455  0.0201  -0.02145  -0.009578  0.5188  0.5218
6.521e+09  0.6206  0.7316  -0.008939  0.001071  -0.01022  -0.05073  0.6102  0.3992
6.522e+09  0.8408  0.4939  0.01337  0.01611  0.007875  0.01554  0.7161  0.07317
6.524e+09  0.9492  0.1921  0.003294  0.007085  -0.03273  0.03685  0.7284  -0.1683
6.525e+09  0.9699  -0.1241  0.02844  0.0334  -0.00383  -0.02517  0.5748  -0.4135
6.526e+09  0.8283  -0.4937  -0.01787  -0.01226  0.05891  0.005092  0.4123  -0.593
6.528e+09  0.5731  -0.782  0.006792  -0.006214  -0.048  -0.05408  0.1711  -0.6792
6.529e+09  0.3047  -0.9559  -0.02054  -0.009844  0.02149  0.01632  -0.04451  -0.6825
6.53e+09  -0.008166  -1.007  0.015  -0.004074  0.05218  -0.02024  -0.2662  -0.5982
6.531e+09  -0.3578  -0.8833  -0.01091  -0.01445  0.02022  0.0004248  -0.4841  -0.4417
6.532e+09  -0.6421  -0.7426  0.01764  -0.01961  0.01266  0.009423  -0.544  -0.3002
6.534e+09  -0.8701  -0.4288  0.008402  0.01454  -0.05241  0.02726  -0.6384  -0.0763
6.535e+09  -1.035  -0.1021  -0.01021  0.008769  -0.004956  0.0169  -0.616  0.119
6.536e+09  -0.9136  0.2348  0.03146  -0.02717  -0.02378  0.02002  -0.6072  0.3144
6.538e+09  -0.7903  0.5331  -0.02118  -0.008842  -0.03158  -0.03104  -0.4673  0.4562
6.539e+09  -0.5547  0.8067  -0.01952  -0.01469  -0.01983  -0.01706  -0.2414  0.6028
6.54e+09  -0.292  0.9622  0.008448  0.01884  -0.04127  -0.007817  -0.06395  0.6683
6.541e+09  0.1142  0.9857  0.01613  0.005757  0.00554  -0.01295  0.2006  0.6882
6.542e+09  0.3927  0.9033  0.007843  -0.008709  -0.01741  0.0137  0.3992  0.5444
6.544e+09  0.7115  0.6866  -0.01581  0.02572  -0.02144  0.02327  0.6103  0.3934
6.545e+09  0.9042  0.39  -0.001121  -0.02405  0.001948  0.01123  0.7048  0.1551
6.546e+09  1.026  0.0151  -0.01191  -0.01387  0.03574  -0.009666  0.7366  -0.0887
6.548e+09  0.9408  -0.2662  -0.009311  -0.002467  0.005608  -0.04372  0.6552  -0.2853
6.549e+09  0.7555  -0.6464  0.01195  -0.0374  0.008297  -0.003957  0.4955  -0.522
6.55e+09  0.4986  -0.8314  -0.01221  0.0285  -0.03268  0.006938  0.2656  -0.6922
