# Hz S RI R 50
6.25e+09  0.3178  -0.7576  0.02019  -0.00767  -0.01933  -0.001895  0.1476  0.4683
6.251e+09  -0.03322  -0.8023  -0.02384  -0.04232  -0.02179  0.001737  0.3745  0.4001
6.252e+09  -0.3046  -0.6722  -0.01057  -0.01613  -0.02174  -0.02705  0.5169  0.2475
6.254e+09  -0.5062  -0.5863  0.02406  0.01811  0.016  0.01528  0.6312  0.008401
6.255e+09  -0.6922  -0.3732  0.01842  -0.04875  0.001474  -0.07626  0.5528  -0.1974
6.256e+09  -0.7884  -0.06213  0.01556  -0.01137  0.03376  0.007719  0.452  -0.4332
6.258e+09  -0.7882  0.1793  0.02408  -0.01747  0.001753  0.007777  0.2758  -0.606
6.259e+09  -0.6399  0.4825  0.02836  0.02492  0.01808  -0.006554  0.04087  -0.7037
6.26e+09  -0.474  0.7418  -0.02049  -0.01742  0.003089  0.001011  -0.2066  -0.6756
6.261e+09  -0.1703  0.7737  0.004934  -0.003888  0.003641  -0.00729  -0.4374  -0.5287
6.262e+09  0.1009  0.7102  -0.03709  -0.02821  -0.02115  -0.007878  -0.6051  -0.3641
6.264e+09  0.4434  0.7173  -0.009102  -0.01554  -0.0403  0.02236  -0.7346  -0.101
6.265e+09  0.5838  0.4812  0.01243  0.009054  -0.00948  0.04509  -0.7039  0.1427
6.266e+09  0.7298  0.2463  -0.0129  0.01899  0.03234  0.01658  -0.6053  0.4272
6.268e+09  0.7863  -0.07681  0.002546  0.04108  0.03086  -0.03566  -0.4132  0.5991
6.269e+09  0.6925  -0.2981  0.006844  -0.01034  0.06532  -0.03935  -0.2109  0.7193
6.27e+09  0.5718  -0.5561  0.001522  0.003069  -0.06651  -0.01365  0.08837  0.7353
6.271e+09  0.3528  -0.7145  0.04321  -0.03187  0.05931  -0.01615  0.3284  0.6599
6.272e+09  0.08256  -0.7627  0.02182  0.01801  0.0355  -0.002417  0.5658  0.5207
6.274e+09  -0.2202  -0.7756  0.002909  0.01705  -0.01592  0.00762  0.6729  0.2703
6.275e+09  -0.4127  -0.5831  -0.008082  0.01063  -0.01824  0.009537  0.7716  0.06926
6.276e+09  -0.6633  -0.4428  -0.004032  0.01595  0.0001494  -0.01351  0.742  -0.2042
6.278e+09  -0.7242  -0.1287  -0.01439  0.02924  0.04231  0.03503  0.6173  -0.4713
6.279e+09  -0.7919  0.1009  0.01821  -0.009927  -0.01283  -0.01172  0.386  -0.6387
6.28e+09  -0.6873  0.4299  -0.02374  -0.0323  0.01114  0.05535  0.1691  -0.7698
6.281e+09  -0.484  0.6131  -0.02107  0.008989  0.07584  -0.02227  -0.0891  -0.7426
6.282e+09  -0.2311  0.7353  0.01616  -0.0233  -0.0702  0.001952  -0.3807  -0.7135
6.284e+09  0.06174  0.7963  -0.0003793  -0.006499  0.01801  0.03426  -0.5863  -0.5251
6.285e+09  0.2748  0.7588  0.02301  -0.02779  -0.04534  0.04646  -0.7249  -0.2726
6.286e+09  0.5369  0.5722  0.01307  0.001966  0.00511  -0.02144  -0.7938  -0.01178
6.288e+09  0.7407  0.3445  0.008821  -0.01976  0.03182  0.06242  -0.7562  0.2436
6.289e+09  0.843  0.04679  -0.01392  -0.0006389  -0.05503  0.001783  -0.6155  0.4985
6.29e+09  0.7525  -0.2475  -0.004642  -0.001538  -0.00124  -0.007565  -0.3971  0.721
6.291e+09  0.6669  -0.4521  -0.00257  -0.01567  -0.02152  0.01135  -0.1449  0.75
6.292e+09  0.3957  -0.6285  -0.004474  -0.01362  -0.01336  -0.02329  0.1042  0.7879
6.294e+09  0.1725  -0.7535  -0.02997  0.01216  -0.01061  -0.01868  0.4049  0.7128
6.295e+09  -0.1111  -0.881  -0.02934  -0.01459  0.0595  -0.03135  0.6136  0.5423
6.296e+09  -0.4015  -0.694  0.006835  0.01206  -0.007178  0.04951  0.7466  0.2764
6.298e+09  -0.5758  -0.5093  -0.03162  -0.0007504  -0.006804  0.01686  0.8123  -0.006474
6.299e+09  -0.7549  -0.2634  0.001479  -0.01118  0.02114  0.04888  0.7658  -0.2604
6.3e+09  -0.8252  0.001323  0.006664  0.01082  -0.0106  -0.00411  0.6319  -0.5258
6.301e+09  -0.7383  0.2779  0.008411  0.003675  -0.01418  -0.04848  0.4371  -0.718
6.302e+09  -0.5989  0.546  -0.009705  -0.009065  -0.01184  -0.01261  0.1799  -0.8017
6.304e+09  -0.3963  0.7447  0.01894  0.02769  0.02517  -0.01679  -0.1262  -0.8352
6.305e+09  -0.09756  0.8348  -0.006232  -0.003123  0.03141  -0.0163  -0.3894  -0.7443
6.306e+09  0.2123  0.7609  -0.01377  0.02434  -0.03196  0.01943  -0.6093  -0.566
6.308e+09  0.4328  0.5981  -0.02013  0.009606  -0.02303  -0.0259  -0.8326  -0.3288
6.309e+09  0.6634  0.4883  0.002192  -0.006281  0.01835  -0.01591  -0.8453  0.003868
6.31e+09  0.7583  0.1785  -0.008432  0.01016  -0.01301  -0.04887  -0.8009  0.2559
6.311e+09  0.7959  -0.06853  -0.004266  0.02099  0.06408  -0.01256  -0.7278  0.5322
6.312e+09  0.6905  -0.3899  0.001964  -0.01534  -0.0808  -0.01024  -0.4327  0.7286
6.314e+09  0.557  -0.5996  -0.006944  0.005315  0.03347  0.004514  -0.1636  0.8489
6.315e+09  0.286  -0.76  0.01686  0.03197  -0.01649  0.002239  0.1233  0.8679
6.316e+09  0.02687  -0.8128  -0.01772  -0.01386  0.01868  -0.02314  0.4084  0.7339
6.318e+09  -0.2894  -0.7488  0.0004245  -0.008715  -0.004272  -0.005091  0.6425  0.5948
6.319e+09  -0.4811  -0.6143  0.01392  0.02186  0.001333  0.00124  0.8064  0.3175
6.32e+09  -0.6918  -0.3532  0.001544  0.009343  -0.02403  0.01449  0.8945  0.008331
6.321e+09  -0.7977  -0.05451  0.006061  -0.04099  0.07225  -0.02595  0.8415  -0.2829
6.322e+09  -0.8168  0.2119  -0.003665  0.01086  0.00986  -0.00647  0.6908  -0.5563
6.324e+09  -0.6742  0.4429  0.0007612  -0.002573  -0.0274  0.01661  0.4821  -0.7585
6.325e+09  -0.4729  0.6581  -0.009636  -0.0212  0.05061  0.02376  0.1894  -0.867
6.326e+09  -0.1822  0.7628  -0.01444  0.01395  -0.007882  -0.02546  -0.1306  -0.8927
6.328e+09  0.05639  0.7859  -0.0133  0.00752  -0.01337  0.02359  -0.455  -0.8067
6.329e+09  0.3708  0.7872  -0.009574  -0.008803  -0.02137  -0.04261  -0.682  -0.5728
6.33e+09  0.61  0.5711  -0.01314  0.01601  0.008052  0.0288  -0.836  -0.3257
6.331e+09  0.7542  0.29  0.02132  0.005477  0.0009692  0.003888  -0.9122  -0.03583
6.332e+09  0.8361  0.01483  -0.01568  0.01561  0.009532  -0.04938  -0.8374  0.2876
6.334e+09  0.7883  -0.2605  0.00878  -0.01326  -0.01174  0.03276  -0.7125  0.5811
6.335e+09  0.6589  -0.5213  0.0002528  0.02981  -0.006555  0.03129  -0.495  0.7933
6.336e+09  0.4267  -0.7324  -0.0442  0.003146  -0.03137  0.01316  -0.1597  0.9122
6.338e+09  0.1206  -0.8558  0.01376  -0.009576  0.0009601  0.03562  0.09927  0.9012
6.339e+09  -0.2063  -0.7908  -0.004144  -0.001334  -0.03641  -0.002025  0.4218  0.7959
6.34e+09  -0.4837  -0.713  0.02258  0.01824  0.0001011  0.002932  0.6724  0.6166
6.341e+09  -0.6482  -0.4578  0.02586  -0.03197  0.005208  -0.02807  0.8604  0.3877
6.342e+09  -0.823  -0.1951  0.00301  0.01036  0.01119  -0.02404  0.9512  0.03953
6.344e+09  -0.8177  0.06753  -0.02418  -0.009837  -0.004725  -0.03985  0.8799  -0.302
6.345e+09  -0.7258  0.3546  -0.02058  -0.01534  0.02068  -0.01975  0.7482  -0.5479
6.346e+09  -0.615  0.5856  -0.01256  0.014  -0.02783  -0.005608  0.4598  -0.7602
6.348e+09  -0.2833  0.7734  -0.01301  0.03853  -0.02882  0.01751  0.22  -0.9047
6.349e+09  0.03254  0.8209  0.02384  0.01576  0.02794  -0.01556  -0.1197  -0.9365
6.35e+09  0.2666  0.7862  -0.01325  -0.02031  0.04689  0.0241  -0.4177  -0.8373
6.351e+09  0.528  0.6205  0.001871  0.02504  -0.009029  0.04531  -0.6817  -0.6917
6.352e+09  0.7275  0.3783  0.008438  -0.0467  -0.03141  -0.01471  -0.8812  -0.3674
6.354e+09  0.8111  0.102  -0.01224  -0.01635  0.03571  -0.002611  -0.8837  -0.02566
6.355e+09  0.8297  -0.1165  0.03951  0.006687  0.03173  0.02663  -0.913  0.2404
6.356e+09  0.6823  -0.4711  -0.002013  0.008704  -0.02879  0.01431  -0.7997  0.5379
6.358e+09  0.4837  -0.6444  0.01232  -0.002636  0.01309  -0.03384  -0.5277  0.7776
6.359e+09  0.2049  -0.788  -0.02175  -0.02399  -0.01789  -0.01213  -0.2154  0.91
6.36e+09  -0.08451  -0.8082  0.01162  0.00545  0.0005587  0.02062  0.04786  0.9714
6.361e+09  -0.3981  -0.786  0.02296  -0.01521  0.01582  0.04403  0.412  0.8522
6.362e+09  -0.6117  -0.5383  0.02086  0.02288  -0.01577  0.0009308  0.6616  0.6574
6.364e+09  -0.7993  -0.3309  -0.0121  0.005534  -0.002792  0.01894  0.8858  0.3517
6.365e+09  -0.8008  0.005081  0.02714  0.001149  -0.01785  -0.005333  0.9456  0.1093
6.366e+09  -0.7388  0.3445  -0.02322  0.04326  0.04512  0.02686  0.9218  -0.275
6.368e+09  -0.6591  0.5621  0.04266  0.02368  0.008027  0.01955  0.7592  -0.5723
6.369e+09  -0.3237  0.7378  0.0002591  0.01088  0.0023  0.04256  0.5358  -0.7621
6.37e+09  -0.03869  0.8687  0.001369  0.002242  -0.03132  0.01828  0.2833  -0.9515
6.371e+09  0.2197  0.81  0.009022  -0.02389  0.007574  -0.04862  -0.1106  -0.9306
6.372e+09  0.5456  0.7652  -0.003483  -0.03129  0.03931  0.00892  -0.4226  -0.8431
6.374e+09  0.749  0.4345  -0.0004264  0.00457  -0.002741  0.01559  -0.6456  -0.6503
6.375e+09  0.8462  0.2439  0.007306  0.009759  -0.03609  0.02449  -0.8773  -0.3817
6.376e+09  0.8039  -0.1509  -0.01175  -0.01331  -0.01638  0.03231  -0.9733  -0.07521
6.378e+09  0.7282  -0.4418  0.006896  -0.0003632  0.01748  -0.02079  -0.9361  0.2238
6.379e+09  0.5599  -0.6491  -0.01065  0.005703  -0.007383  -0.008544  -0.7821  0.5168
6.38e+09  0.2683  -0.834  -0.007443  -0.004126  0.02082  -0.01005  -0.5845  0.7439
6.381e+09  -0.02278  -0.8365  0.01603  -0.02109  0.01622  -0.005774  -0.2661  0.8716
6.382e+09  -0.3834  -0.7877  0.006923  0.02006  0.02539  0.01181  0.05672  0.9646
6.384e+09  -0.627  -0.6231  3.164e-05  0.03301  -0.0008954  -0.02595  0.3187  0.8648
6.385e+09  -0.7826  -0.312  0.04078  0.01419  0.007387  0.07379  0.6604  0.7233
6.386e+09  -0.8735  0.009424  0.01259  -0.01101  0.02621  -0.0009684  0.8421  0.4613
6.388e+09  -0.8292  0.2122  0.02958  -0.02844  0.001458  0.0214  0.901  0.127
6.389e+09  -0.6878  0.5122  0.007333  -0.00224  0.01099  0.03812  0.8735  -0.2147
6.39e+09  -0.3896  0.7768  0.003294  -0.01225  -0.03801  -0.002226  0.7775  -0.4836
6.391e+09  -0.1505  0.8544  -0.02713  -0.0248  0.01423  -0.006132  0.5621  -0.7341
6.392e+09  0.1586  0.8349  0.006622  -0.03733  0.04038  -0.01311  0.2879  -0.8634
6.394e+09  0.4882  0.6995  -0.00917  -0.03169  -0.009748  0.02052  -0.02989  -0.91
6.395e+09  0.6619  0.5479  -0.02703  0.02974  -0.0009976  0.04353  -0.3426  -0.8888
6.396e+09  0.8302  0.1854  -0.009675  -0.01537  -0.0169  0.02892  -0.6009  -0.672
6.398e+09  0.8966  -0.06092  0.00365  0.0312  -0.008194  -0.00171  -0.8251  -0.4225
6.399e+09  0.7396  -0.3278  -0.0364  0.0717  0.01277  -0.03578  -0.9177  -0.1294
6.4e+09  0.6294  -0.5976  0.01546  0.003335  -0.003254  0.001275  -0.851  0.1442
6.401e+09  0.359  -0.73  0.04757  -0.02547  0.04215  -0.001941  -0.8457  0.472
6.402e+09  0.06056  -0.8474  -0.03743  0.02315  0.007837  -0.02604  -0.576  0.6988
6.404e+09  -0.2354  -0.7911  0.004962  -0.007024  0.04378  -0.01745  -0.2814  0.823
6.405e+09  -0.5671  -0.6483  0.01792  -0.04012  0.02144  0.009241  0.005477  0.9511
6.406e+09  -0.7879  -0.3996  0.02922  0.002717  -0.007728  -0.02176  0.2472  0.8501
6.408e+09  -0.8136  -0.1103  0.01822  -0.001749  -0.05383  -0.02486  0.5963  0.6801
6.409e+09  -0.8434  0.2566  -0.007671  0.01232  0.05288  0.02943  0.7991  0.5145
6.41e+09  -0.6772  0.4571  0.01108  0.01068  0.02765  -0.0004243  0.8714  0.1796
6.411e+09  -0.5169  0.6529  0.02132  -0.01481  -0.01626  0.02814  0.9094  -0.1415
6.412e+09  -0.2108  0.8082  -0.0145  -0.0272  0.004707  -0.02017  0.7651  -0.417
6.414e+09  0.09417  0.8562  0.0009009  0.03945  0.02671  0.01824  0.5866  -0.6869
6.415e+09  0.3996  0.7187  0.01828  -0.007755  0.008913  -0.0008084  0.3361  -0.8532
6.416e+09  0.5874  0.6017  -0.006106  -0.01663  0.01977  -0.0456  0.00446  -0.9243
6.418e+09  0.7859  0.3233  0.01796  0.03168  -0.0108  -0.009658  -0.2487  -0.857
6.419e+09  0.8617  -0.05812  -0.01366  0.05957  0.003479  0.05901  -0.4869  -0.7314
6.42e+09  0.7913  -0.3444  0.06138  -0.05798  -0.01816  0.01332  -0.8187  -0.4238
6.421e+09  0.6257  -0.5556  0.02385  -0.01755  0.008303  -0.01629  -0.8145  -0.1768
6.422e+09  0.3968  -0.8043  0.03049  0.00126  0.0376  -0.01963  -0.8709  0.08301
6.424e+09  0.06751  -0.8797  -0.004301  0.04213  0.01572  -0.005812  -0.7892  0.3657
6.425e+09  -0.2198  -0.827  0.02017  0.02871  0.001147  -0.005362  -0.5778  0.6273
6.426e+09  -0.4885  -0.6579  0.0275  -0.02129  0.03871  0.01252  -0.3791  0.7942
6.428e+09  -0.6501  -0.4411  0.02504  -0.001789  0.02181  -0.002291  -0.04176  0.8423
6.429e+09  -0.8197  -0.1854  -0.01867  0.01533  0.009206  -0.0004978  0.2684  0.838
6.43e+09  -0.8207  0.1245  -0.04192  0.03273  0.02056  -0.006042  0.4811  0.7177
6.431e+09  -0.6834  0.4337  -0.03817  0.01615  -0.03678  -0.003387  0.7158  0.4459
6.432e+09  -0.5514  0.6741  0.012  -0.002971  -0.008251  0.0157  0.8604  0.1863
6.434e+09  -0.2947  0.797  -0.02745  -0.005944  0.03342  0.006754  0.8634  -0.07934
6.435e+09  0.02244  0.8328  -0.02695  -0.007556  -0.04307  0.04595  0.7979  -0.3812
6.436e+09  0.3682  0.7363  -0.02786  0.005595  0.03518  -0.03701  0.6022  -0.6181
6.438e+09  0.6526  0.6104  0.01803  -0.001158  -0.04046  0.001992  0.4217  -0.7606
6.439e+09  0.8033  0.3157  0.02893  0.01676  0.02492  -0.01346  0.04755  -0.8923
6.44e+09  0.8455  0.0651  0.01275  0.003556  -0.004196  0.03098  -0.1999  -0.8657
6.441e+09  0.8238  -0.2668  -0.01667  0.02005  -0.03738  0.01681  -0.5214  -0.6597
6.442e+09  0.6458  -0.5019  2.737e-05  -0.001816  0.01999  0.01433  -0.6885  -0.5172
6.444e+09  0.4697  -0.7148  0.02123  -0.01  -0.02589  -0.02073  -0.783  -0.2106
6.445e+09  0.1693  -0.8093  0.00829  -0.02309  0.008946  0.0308  -0.8686  0.09607
6.446e+09  -0.1419  -0.8155  -0.02969  -0.01717  -0.003959  0.001387  -0.7268  0.3416
6.448e+09  -0.4422  -0.7174  -0.02078  0.01255  0.02748  0.02483  -0.5884  0.6131
6.449e+09  -0.6234  -0.5304  0.02413  0.039  0.01454  0.02841  -0.4175  0.7093
6.45e+09  -0.7388  -0.2577  -0.03033  0.01298  0.00129  -0.003235  -0.09744  0.8341
6.451e+09  -0.7446  0.04617  -0.007246  0.01014  0.06023  0.02335  0.2147  0.8415
6.452e+09  -0.7596  0.2851  -0.005525  -0.03521  -0.02769  -0.02637  0.4234  0.6773
6.454e+09  -0.645  0.559  -0.02843  -0.02759  0.022  -0.007739  0.6736  0.4443
6.455e+09  -0.4067  0.7334  -0.008022  -0.01618  0.03409  0.0175  0.7898  0.2496
6.456e+09  -0.09509  0.8258  -0.03992  -0.0009141  0.01048  -0.01752  0.8569  -0.05046
6.458e+09  0.1805  0.8023  0.01003  -0.03923  0.01949  -0.05707  0.752  -0.3463
6.459e+09  0.4781  0.6455  -0.03782  -0.02744  0.01464  -0.0269  0.581  -0.5634
6.46e+09  0.6386  0.4433  0.0604  -0.003125  -0.02782  0.02504  0.31  -0.7821
6.461e+09  0.8204  0.2636  -0.005656  -0.0005873  -0.03035  -0.04414  0.06751  -0.8137
6.462e+09  0.8424  -0.04404  0.02057  0.0114  0.0124  0.06037  -0.2353  -0.7924
6.464e+09  0.7129  -0.3781  0.01275  0.05172  0.02231  0.0298  -0.4756  -0.6186
6.465e+09  0.5434  -0.5759  -0.01813  0.04972  0.01191  -0.02053  -0.6604  -0.4459
6.466e+09  0.2848  -0.7998  0.06477  -0.05957  0.05723  0.09393  -0.7593  -0.2008
6.468e+09  0.03264  -0.8069  0.01369  -0.0004266  -0.01956  0.04668  -0.8107  0.08738
6.469e+09  -0.2608  -0.7811  -0.02116  -0.02578  0.004568  -0.01622  -0.6901  0.3336
6.47e+09  -0.5063  -0.652  -0.009468  -0.01866  -0.01087  -0.02364  -0.5377  0.5441
6.471e+09  -0.7398  -0.4556  -0.02035  0.01206  -0.01496  0.0356  -0.3335  0.7387
6.472e+09  -0.7837  -0.1448  0.03728  -0.01697  -0.04  -0.03937  -0.01596  0.7768
6.474e+09  -0.8111  0.09879  -0.01987  0.005303  0.03646  -0.07437  0.2151  0.7698
6.475e+09  -0.7051  0.4057  -0.009587  0.01473  -0.0001553  -0.02034  0.4604  0.6344
6.476e+09  -0.5777  0.5658  0.07716  0.02122  -0.02127  -0.01565  0.6355  0.4147
6.478e+09  -0.2906  0.7741  -0.02899  -0.001716  0.01055  0.04449  0.7717  0.1942
6.479e+09  -0.03066  0.7966  0.02513  0.001986  -0.01525  0.01629  0.782  -0.09338
6.48e+09  0.2897  0.7886  -0.03569  0.007719  -0.04074  -0.0277  0.7121  -0.3508
6.481e+09  0.5215  0.6335  0.01649  -0.04728  -0.01969  0.03016  0.5229  -0.5613
6.482e+09  0.7445  0.4037  0.01573  0.03303  -0.0234  -0.004139  0.2893  -0.6919
6.484e+09  0.8175  0.1161  -0.02837  -0.01872  -0.01795  0.0121  0.04667  -0.7571
6.485e+09  0.781  -0.1323  0.03192  0.0377  0.01533  0.03126  -0.2416  -0.7043
6.486e+09  0.7073  -0.4229  -0.0136  0.01093  0.02197  0.01528  -0.4631  -0.6157
6.488e+09  0.4761  -0.609  0.03799  -0.0227  0.02798  0.06511  -0.6172  -0.3945
6.489e+09  0.244  -0.7818  -0.002224  -0.02107  -0.01706  -0.03813  -0.767  -0.1886
6.49e+09  -0.0559  -0.8112  -0.009511  0.0009225  0.01992  0.02278  -0.7387  0.05225
6.491e+09  -0.3091  -0.7747  -0.02018  -0.0006841  -0.01236  -0.01311  -0.6575  0.3349
6.492e+09  -0.6002  -0.5491  0.01077  -0.002681  0.01969  0.02512  -0.5047  0.5894
6.494e+09  -0.7627  -0.3321  -0.02727  0.02088  -0.01235  0.01022  -0.2775  0.6601
6.495e+09  -0.7698  -0.1131  0.0416  -0.003333  0.0005674  -0.02667  -0.06067  0.7871
6.496e+09  -0.7825  0.1726  -0.01569  0.004038  -0.01685  0.01591  0.2257  0.7668
6.498e+09  -0.666  0.4445  -0.001965  -0.0004115  0.002242  -0.03133  0.4233  0.5995
6.499e+09  -0.4848  0.7068  -0.006003  -0.02284  -0.04587  0.0194  0.6629  0.4258
6.5e+09  -0.2  0.8123  -0.01791  -0.01311  0.01676  0.04058  0.7193  0.1295
6.501e+09  0.09393  0.8477  -0.01503  0.02273  0.03219  0.01565  0.7666  -0.08511
6.502e+09  0.3089  0.7076  0.007632  -0.0527  0.04927  0.01494  0.6869  -0.3395
6.504e+09  0.5934  0.5897  0.02935  -0.007387  0.02306  0.008292  0.4813  -0.5674
6.505e+09  0.6701  0.3693  -0.01007  -0.009291  -0.0506  -0.01498  0.2543  -0.7057
6.506e+09  0.8134  0.06472  0.02204  -0.0003237  -0.03361  -0.02505  0.02255  -0.7353
6.508e+09  0.7521  -0.23  0.03321  0.02901  -0.02504  -0.002658  -0.2071  -0.7241
6.509e+09  0.7102  -0.4629  -0.002935  -0.002509  0.03171  -0.04263  -0.4368  -0.585
6.51e+09  0.4346  -0.7097  -0.0432  -0.009776  0.01385  0.00172  -0.6698  -0.3883
6.511e+09  0.2326  -0.786  -0.006917  -0.01408  -0.05934  0.05368  -0.7695  -0.1589
6.512e+09  -0.1581  -0.881  -0.004827  -0.01096  -0.03582  -0.03043  -0.7387  0.1348
6.514e+09  -0.4396  -0.7433  0.03664  0.0126  -0.02171  0.01645  -0.6395  0.3654
6.515e+09  -0.6424  -0.6177  -0.004688  -0.02209  -0.04839  0.0003545  -0.4486  0.5919
6.516e+09  -0.8409  -0.3126  0.001447  -0.02762  0.01294  -0.005956  -0.2145  0.7105
6.518e+09  -0.8028  0.007071  -0.01377  -0.02577  0.007248  0.02184  0.02277  0.7242
6.519e+09  -0.8416  0.3092  0.008135  0.006581  -0.02274  0.04811  0.2953  0.7013
6.52e+09  -0.6573  0.5739  0.01672  -0.0006538  -0.006306  -0.01648  0.4759  0.5697
6.521e+09  -0.4492  0.7993  -0.001002  0.01715  0.007154  0.01125  0.6461  0.3661
6.522e+09  -0.1012  0.8043  -0.001784  0.01233  -0.01257  0.0508  0.7249  0.1067
6.524e+09  0.1298  0.8266  -0.02797  -0.009998  0.03616  -0.03785  0.7102  -0.1239
6.525e+09  0.4959  0.7928  -0.002899  -0.02388  0.01765  -0.03237  0.5638  -0.4062
6.526e+09  0.6656  0.5691  0.01727  0.03345  -0.03646  -0.0227  0.4391  -0.5838
6.528e+09  0.8829  0.2104  -0.0207  -0.01609  0.01038  -0.02654  0.2504  -0.6846
6.529e+09  0.892  -0.001849  -0.01112  -0.02771  0.002492  -0.02177  -0.02325  -0.7128
6.53e+09  0.8643  -0.3363  -0.02728  0.01093  0.072  -0.03349  -0.2951  -0.6106
6.531e+09  0.6839  -0.5842  -6.855e-05  0.02563  -0.001496  -0.03295  -0.4749  -0.4937
6.532e+09  0.3955  -0.7943  0.02363  -0.003228  0.02699  0.01964  -0.5762  -0.3121
6.534e+09  0.08665  -0.8479  -0.01543  -0.0154  -0.01275  0.02831  -0.6318  -0.09558
6.535e+09  -0.225  -0.9057  0.01508  -0.005602  0.05526  0.02496  -0.5908  0.1566
6.536e+09  -0.5419  -0.7986  0.01211  0.004867  -0.03096  -0.02871  -0.5586  0.2834
6.538e+09  -0.7506  -0.5082  -0.03119  0.01354  -0.02819  0.008943  -0.4699  0.4623
6.539e+09  -0.8128  -0.1695  0.01397  0.01766  0.002612  -0.01464  -0.2593  0.6358
6.54e+09  -0.8566  0.1111  -0.04278  -0.0006665  0.01072  -0.008321  -0.06911  0.6637
6.541e+09  -0.8138  0.401  -0.02161  -0.03017  -0.006432  -0.02422  0.2092  0.6733
6.542e+09  -0.6639  0.6772  -0.008608  0.001886  0.0007137  -0.04689  0.405  0.5985
6.544e+09  -0.3404  0.8062  -0.0369  -0.01002  0.000435  -0.01872  0.6117  0.4041
6.545e+09  -0.03867  0.9369  0.009125  0.01567  -0.01624  0.01569  0.7193  0.1653
6.546e+09  0.3291  0.8886  0.0169  -0.007083  -0.002045  -0.02565  0.6925  -0.07249
6.548e+09  0.5536  0.6893  -0.001978  0.03884  -0.01956  0.04953  0.6217  -0.2932
6.549e+09  0.8135  0.5005  0.01237  -0.001789  -0.009432  0.0274  0.5186  -0.5215
6.55e+09  0.893  0.1936  -0.0001243  0.007824  0.02439  -0.01931  0.2896  -0.6696
