# Hz S RI R 50
6.25e+09  -0.4257  0.7764  0.006123  0.01684  0.02018  -0.0161  0.1284  0.4648
6.251e+09  -0.1692  0.8044  -0.04971  -0.01236  0.008556  0.06079  0.3537  0.3946
6.252e+09  0.1433  0.8645  -0.03992  0.02781  0.007451  0.003373  0.5355  0.2101
6.254e+09  0.4779  0.7742  -0.02627  0.01125  -0.02438  0.0773  0.6313  0.04229
6.255e+09  0.7224  0.5294  0.03125  -0.03467  -0.009188  -0.02793  0.5935  -0.2136
6.256e+09  0.831  0.2931  0.007334  0.04114  0.0607  -0.03946  0.4665  -0.4322
6.258e+09  0.8564  0.000883  -0.001553  0.01785  -0.01774  -0.02949  0.2779  -0.6086
6.259e+09  0.7879  -0.3042  0.01828  0.001728  -0.04823  -0.03072  0.05714  -0.703
6.26e+09  0.6618  -0.6076  0.007693  -0.0196  0.009787  -0.0339  -0.1913  -0.6458
6.261e+09  0.3845  -0.782  0.007053  0.009297  0.002932  0.001249  -0.4249  -0.5471
6.262e+09  0.06717  -0.8685  0.001751  -0.01182  -0.03897  -0.03812  -0.5936  -0.3809
6.264e+09  -0.1873  -0.7967  0.006646  0.02251  0.04053  0.03075  -0.7017  -0.08353
6.265e+09  -0.4441  -0.6998  0.01948  -0.03598  0.06332  0.009521  -0.6771  0.1326
6.266e+09  -0.6458  -0.4655  0.008657  -0.003588  -0.001766  -0.04312  -0.6414  0.3598
6.268e+09  -0.8343  -0.2211  0.0126  -0.01471  0.00565  0.01801  -0.4266  0.6271
6.269e+09  -0.7882  0.08878  -0.02853  -0.03022  -0.01977  -0.03413  -0.1901  0.702
6.27e+09  -0.7805  0.3796  -0.04984  0.01806  -0.03254  -0.007516  0.09789  0.7439
6.271e+09  -0.6165  0.6012  -0.01055  -0.001641  0.05867  -0.02811  0.3222  0.6748
6.272e+09  -0.4101  0.7343  0.001702  -0.006778  0.01419  -0.04219  0.5299  0.5131
6.274e+09  -0.1317  0.8589  -0.02919  -0.01206  -0.006229  0.01813  0.6928  0.298
6.275e+09  0.1512  0.837  0.005422  0.0119  -0.0216  0.01091  0.7757  0.05297
6.276e+09  0.4071  0.721  0.01869  0.01509  -0.04332  0.03715  0.7261  -0.2001
6.278e+09  0.5985  0.4511  0.0007583  -0.02811  -0.008684  -0.01723  0.6177  -0.4595
6.279e+09  0.8285  0.2231  0.03113  0.007741  -0.02067  0.01229  0.4264  -0.6477
6.28e+09  0.8079  -0.05025  -0.005464  0.0214  0.05178  0.01498  0.1833  -0.7623
6.281e+09  0.8004  -0.3377  0.004342  -0.004687  -0.02884  0.04223  -0.1002  -0.773
6.282e+09  0.5452  -0.6073  -0.007849  0.01527  0.01334  -0.05561  -0.356  -0.718
6.284e+09  0.378  -0.776  0.008343  0.002584  -0.04138  0.00906  -0.5984  -0.5314
6.285e+09  0.08564  -0.8631  0.01937  0.01415  0.03875  -0.02327  -0.7463  -0.295
6.286e+09  -0.2246  -0.8478  -0.01196  -0.02194  -0.00275  0.05458  -0.7741  -0.06089
6.288e+09  -0.4712  -0.6112  -0.02931  -0.01999  -0.008336  0.02346  -0.7218  0.272
6.289e+09  -0.6529  -0.4763  0.01779  -0.01751  0.03424  -0.02145  -0.6167  0.5261
6.29e+09  -0.7555  -0.1823  0.004774  0.01007  0.001419  0.005616  -0.4328  0.662
6.291e+09  -0.8059  0.1057  0.0006956  -0.008652  0.04588  0.01123  -0.1779  0.7932
6.292e+09  -0.7053  0.3438  0.02418  -0.007693  0.005952  0.06461  0.1383  0.8101
6.294e+09  -0.5583  0.6251  -0.001018  -0.02902  0.01841  -0.01193  0.3816  0.7131
6.295e+09  -0.2991  0.7803  0.03006  -0.00988  -0.09168  0.001917  0.6048  0.5475
6.296e+09  -0.03894  0.8106  0.002647  -0.0008545  -0.005991  -0.01786  0.7416  0.2859
6.298e+09  0.2256  0.7575  0.00592  -0.006569  -0.004676  0.007817  0.8064  -0.005426
6.299e+09  0.5355  0.6116  -0.01491  -0.03192  0.02147  0.01183  0.7757  -0.2531
6.3e+09  0.7004  0.4044  -0.008007  -0.05817  -0.003679  -0.0463  0.6603  -0.5388
6.301e+09  0.8036  0.1191  0.04476  0.03141  -0.001598  0.05432  0.417  -0.7166
6.302e+09  0.8543  -0.1567  -0.02688  0.03632  -0.0007137  0.04094  0.1874  -0.7952
6.304e+09  0.6916  -0.4099  -0.01569  0.02593  0.01165  0.03089  -0.1203  -0.8416
6.305e+09  0.5696  -0.6191  0.03401  -0.0437  0.04781  0.007387  -0.4388  -0.7432
6.306e+09  0.3079  -0.7634  -0.008632  0.00964  -0.02431  -0.03352  -0.6389  -0.5472
6.308e+09  0.006652  -0.8516  0.02165  -0.002018  -0.02271  -0.009111  -0.8311  -0.3066
6.309e+09  -0.2086  -0.737  -0.006236  -0.03829  0.01797  -0.01058  -0.8661  -0.02155
6.31e+09  -0.5847  -0.6072  0.03589  -0.01231  -0.0008822  -0.003874  -0.8222  0.3065
6.311e+09  -0.7139  -0.4657  -0.01761  -0.0176  -0.01891  0.0007967  -0.6645  0.5248
6.312e+09  -0.7818  -0.1357  0.01394  0.002485  -0.01125  -0.02654  -0.4194  0.7839
6.314e+09  -0.798  0.1493  0.003907  -0.02525  -0.03175  -0.06005  -0.1506  0.8484
6.315e+09  -0.7133  0.3903  -0.005259  -0.01303  0.009827  0.006945  0.1419  0.8485
6.316e+09  -0.5164  0.6457  -0.0222  0.01107  -0.01002  0.02482  0.4373  0.7875
6.318e+09  -0.2306  0.8199  0.01184  -0.01794  -0.01069  0.05032  0.6886  0.5737
6.319e+09  0.07948  0.8194  0.003059  0.002956  -0.03584  -0.04255  0.8321  0.3154
6.32e+09  0.3496  0.7973  0.003008  0.007337  -0.003046  0.002668  0.8535  0.02161
6.321e+09  0.5682  0.6065  -0.03702  0.004107  0.024  -0.03685  0.8386  -0.2956
6.322e+09  0.8123  0.3852  0.009419  -0.01388  -0.00948  0.01931  0.6675  -0.5616
6.324e+09  0.8522  0.09618  -0.02574  -0.006422  0.04411  0.04514  0.4993  -0.7719
6.325e+09  0.8351  -0.1667  -8.652e-05  -0.03622  0.02789  0.03091  0.1931  -0.8801
6.326e+09  0.6624  -0.4876  -0.02861  -0.00745  0.05718  0.003365  -0.1158  -0.8856
6.328e+09  0.5374  -0.7175  -0.01049  0.006962  0.04977  0.0435  -0.4003  -0.7793
6.329e+09  0.2105  -0.8369  0.005879  -0.01087  0.02014  0.02614  -0.67  -0.5863
6.33e+09  -0.1001  -0.9027  0.01383  -0.002236  -0.05222  0.03093  -0.8537  -0.3449
6.331e+09  -0.3707  -0.8092  0.01191  0.01363  -0.008985  0.03335  -0.9027  -0.06948
6.332e+09  -0.6023  -0.625  -0.0101  0.0148  0.03731  -0.04362  -0.8504  0.2847
6.334e+09  -0.8324  -0.3228  0.008196  -0.02656  -0.007977  0.03213  -0.7244  0.5528
6.335e+09  -0.907  -0.08554  0.002484  -0.001985  0.03066  0.006151  -0.4652  0.7616
6.336e+09  -0.8218  0.2185  -0.000196  0.02704  -0.03343  -0.01543  -0.2032  0.9168
6.338e+09  -0.6794  0.4932  0.0337  0.0119  -0.04794  0.002433  0.1292  0.9092
6.339e+09  -0.4613  0.7484  0.005411  0.015  0.007421  0.00661  0.4154  0.7999
6.34e+09  -0.1943  0.8174  0.0004565  -0.01573  -2.212e-05  0.01177  0.7113  0.6372
6.341e+09  0.1167  0.8546  0.003513  -0.004215  0.01159  -0.03069  0.848  0.3721
6.342e+09  0.3784  0.7753  -0.01441  -0.00325  -0.01385  0.01555  0.8989  0.03429
6.344e+09  0.663  0.578  0.004875  -0.009082  -0.003879  0.02424  0.8498  -0.2748
6.345e+09  0.7701  0.3157  -0.02634  -0.01173  -0.0399  -0.02138  0.7193  -0.5604
6.346e+09  0.8478  0.00463  0.003084  0.01655  0.0261  -0.01601  0.4623  -0.7767
6.348e+09  0.8459  -0.3169  -0.002032  -0.003095  0.003931  -0.005769  0.2326  -0.9203
6.349e+09  0.7038  -0.5217  -0.01892  -0.01739  -0.01273  -0.007071  -0.1232  -0.9511
6.35e+09  0.3693  -0.7669  0.0002604  -0.01498  -0.01674  -0.01156  -0.4126  -0.8018
6.351e+09  0.1367  -0.7877  0.009625  0.004458  0.03167  -0.01425  -0.6752  -0.6635
6.352e+09  -0.1474  -0.8654  -0.02071  -0.01066  0.03722  0.004859  -0.866  -0.3805
6.354e+09  -0.461  -0.75  0.04003  -0.01646  -0.009398  0.01144  -0.9097  -0.04609
6.355e+09  -0.6786  -0.542  -0.01999  -0.003084  -0.007312  0.02401  -0.8796  0.2757
6.356e+09  -0.8787  -0.2888  0.03438  0.00246  -0.001946  -0.04842  -0.7655  0.5596
6.358e+09  -0.8916  0.1275  0.03786  0.002389  -0.005085  0.02288  -0.5667  0.7568
6.359e+09  -0.7742  0.364  -0.03259  0.02119  -0.01893  0.01164  -0.2408  0.9362
6.36e+09  -0.6267  0.6221  0.01318  -0.004647  0.05009  0.04046  0.08645  0.9474
6.361e+09  -0.3796  0.7972  0.03085  -0.01148  0.0266  -0.04279  0.3741  0.8217
6.362e+09  -0.1127  0.8825  0.03819  0.02619  0.02806  0.0003495  0.669  0.6615
6.364e+09  0.2476  0.869  -0.01051  -0.008705  0.07957  0.02237  0.8633  0.4121
6.365e+09  0.5271  0.6855  0.01727  0.008121  -0.02318  0.02608  0.9266  0.07964
6.366e+09  0.7023  0.4729  -0.01649  0.0004861  0.03578  -0.01011  0.9018  -0.2681
6.368e+09  0.8591  0.1981  0.07335  -0.003482  0.03775  0.05581  0.7922  -0.5455
6.369e+09  0.8613  -0.09574  0.04139  -0.009522  0.02944  -0.02389  0.5126  -0.7981
6.37e+09  0.7744  -0.39  -0.0009791  0.008846  0.04018  0.00265  0.246  -0.9294
6.371e+09  0.5824  -0.6097  0.03212  -0.01011  -0.0002485  0.03144  -0.06349  -0.9818
6.372e+09  0.3373  -0.7822  0.00558  -0.04  -0.02329  -0.005048  -0.4299  -0.8559
6.374e+09  0.01867  -0.8855  0.01512  0.01787  0.0008426  0.03342  -0.6637  -0.6631
6.375e+09  -0.2752  -0.8126  -0.004453  0.002147  0.01007  0.00986  -0.8455  -0.4214
6.376e+09  -0.582  -0.7499  -0.01369  -0.005046  -0.04082  -0.0134  -0.9337  -0.05441
6.378e+09  -0.759  -0.4446  0.02104  -0.01251  -0.03051  0.04413  -0.9364  0.2204
6.379e+09  -0.8737  -0.1761  -0.03752  0.03428  0.01312  0.002066  -0.7708  0.5105
6.38e+09  -0.8846  0.1222  -0.02361  0.006244  0.02164  0.006399  -0.561  0.7446
6.381e+09  -0.7476  0.441  -0.01568  -0.02424  0.006468  0.01327  -0.2722  0.8863
6.382e+09  -0.5508  0.6923  -7.046e-05  0.01221  0.0008108  0.03954  0.02255  0.9334
6.384e+09  -0.3099  0.8225  -0.01825  0.01095  -0.03318  -0.006354  0.3746  0.8706
6.385e+09  0.01189  0.9074  -0.01664  -0.0212  -0.02748  -0.03622  0.6169  0.6401
6.386e+09  0.3207  0.7889  -0.02641  -0.01367  -0.003109  -0.006984  0.8322  0.4167
6.388e+09  0.5826  0.6355  -0.005718  -0.0008205  -0.03292  -0.03022  0.9536  0.09354
6.389e+09  0.837  0.4786  0.001193  -0.005079  -0.01493  0.01644  0.9336  -0.1954
6.39e+09  0.9053  0.1636  0.01079  -0.02055  -0.05972  0.03842  0.7616  -0.4828
6.391e+09  0.8673  -0.206  0.02024  0.01191  0.04442  0.03337  0.5711  -0.7166
6.392e+09  0.7736  -0.4387  0.008547  0.005601  0.003965  0.008495  0.2848  -0.8698
6.394e+09  0.5548  -0.7392  0.0115  -0.02865  -0.01308  0.01938  -0.0496  -0.9506
6.395e+09  0.2486  -0.8104  -0.01164  0.03171  0.05935  -0.03456  -0.3752  -0.8412
6.396e+09  -0.04917  -0.8642  -0.04742  0.01334  -0.01771  0.01086  -0.5605  -0.753
6.398e+09  -0.3335  -0.8348  0.02184  -0.00239  0.02609  0.001648  -0.7729  -0.4271
6.399e+09  -0.6179  -0.6443  0.02014  0.005303  0.002797  0.006512  -0.8975  -0.1193
6.4e+09  -0.8284  -0.4214  0.02091  0.004061  -0.01708  -0.006005  -0.9065  0.1773
6.401e+09  -0.9345  -0.0506  0.03809  0.004847  -0.02203  0.01295  -0.8573  0.4813
6.402e+09  -0.901  0.1844  -0.03055  -0.004234  -0.01638  0.002697  -0.577  0.7045
6.404e+09  -0.7643  0.5318  -0.003359  0.003301  -0.02188  0.01017  -0.3544  0.9003
6.405e+09  -0.533  0.7246  -0.01639  0.01098  -0.04037  -0.01576  -0.005461  0.9391
6.406e+09  -0.2415  0.8312  0.02793  -0.03868  0.004199  0.01086  0.2951  0.8632
6.408e+09  0.03933  0.8513  0.006139  0.02677  -0.0003425  -0.004073  0.5691  0.7215
6.409e+09  0.3722  0.771  -0.007864  -0.02602  0.02671  -0.03372  0.7688  0.4489
6.41e+09  0.6127  0.6347  0.04949  -0.00791  0.02807  -0.009296  0.8645  0.1551
6.411e+09  0.7685  0.3566  0.005796  0.012  0.02737  -0.01303  0.86  -0.1407
6.412e+09  0.8961  0.08657  0.03763  0.01814  -0.01603  0.006931  0.7469  -0.4268
6.414e+09  0.8509  -0.2367  -0.02635  0.02762  0.01515  -0.01289  0.5703  -0.6667
6.415e+09  0.7812  -0.4683  0.002223  0.01783  0.003364  -0.02543  0.3103  -0.8364
6.416e+09  0.5391  -0.6784  -0.02905  0.03165  -0.008675  -0.04331  0.02279  -0.888
6.418e+09  0.2228  -0.8316  -0.03838  0.02215  -0.02441  0.009816  -0.2775  -0.8723
6.419e+09  -0.09337  -0.8428  0.01525  -0.01086  -0.02182  -0.00311  -0.5461  -0.7008
6.42e+09  -0.3953  -0.7987  -0.03475  0.03992  0.03341  0.02124  -0.707  -0.4772
6.421e+09  -0.6425  -0.6058  -0.03394  -0.02954  0.02822  -0.04247  -0.8565  -0.1723
6.422e+09  -0.7833  -0.3438  0.005598  -0.004386  0.03338  0.0193  -0.8628  0.1026
6.424e+09  -0.9078  -0.07199  0.01522  -0.008073  0.0233  0.01146  -0.7366  0.3907
6.425e+09  -0.8677  0.2211  0.003728  -0.03339  0.03865  0.05939  -0.5647  0.6658
6.426e+09  -0.7162  0.5112  0.02886  -0.002088  0.02624  -0.005673  -0.3326  0.8212
6.428e+09  -0.4838  0.6965  -0.002441  -0.01321  0.01827  -0.0005136  -0.08712  0.8909
6.429e+09  -0.2042  0.8959  0.02138  -0.05763  -0.03919  -0.02378  0.2485  0.8405
6.43e+09  0.085  0.9081  -0.004549  -0.01287  0.03847  -0.004613  0.51  0.6809
6.431e+09  0.3884  0.7349  0.00492  0.02111  -0.04389  0.02903  0.7281  0.4912
6.432e+09  0.6557  0.6109  0.00505  -0.01401  0.02985  -0.02943  0.8318  0.169
6.434e+09  0.789  0.3575  -0.01545  -0.03038  0.05462  -0.03023  0.8393  -0.1057
6.435e+09  0.8996  0.05012  -0.04248  0.01621  -0.0166  0.006366  0.7894  -0.4168
6.436e+09  0.8574  -0.2048  0.000453  -0.00634  0.03644  -0.008011  0.6133  -0.63
6.438e+09  0.7073  -0.5312  0.03485  0.04685  -0.02128  -0.009788  0.3189  -0.8037
6.439e+09  0.4667  -0.7391  -0.0199  0.02248  0.009371  -0.003109  0.05476  -0.8509
6.44e+09  0.2049  -0.8648  -0.01001  -0.06347  0.01597  0.006605  -0.1981  -0.7913
6.441e+09  -0.1294  -0.9073  -0.03155  0.01623  -0.00223  0.005845  -0.5313  -0.6912
6.442e+09  -0.3987  -0.7879  0.04322  -0.01293  0.005147  -0.03076  -0.7352  -0.456
6.444e+09  -0.6997  -0.5837  -0.004684  -0.007675  0.01583  -0.0149  -0.8059  -0.2124
6.445e+09  -0.7906  -0.349  -0.01263  -0.01688  -0.04525  0.03043  -0.8677  0.08535
6.446e+09  -0.8509  -0.02758  0.01464  -0.02888  -0.05262  -0.04525  -0.754  0.3354
6.448e+09  -0.8657  0.2522  -0.004907  0.0394  -0.03226  -0.001789  -0.5685  0.6027
6.449e+09  -0.759  0.5363  0.009272  -0.01214  -0.01034  -0.06621  -0.3682  0.7316
6.45e+09  -0.479  0.7426  -0.005324  -0.04369  0.003493  0.03908  -0.08439  0.8331
6.451e+09  -0.1835  0.8419  -0.009412  -0.05608  0.03981  0.03077  0.237  0.8304
6.452e+09  0.09734  0.8724  -0.03205  -0.005318  -0.02278  0.02409  0.4986  0.7236
6.454e+09  0.4226  0.7718  0.0272  0.02743  0.02676  -0.05545  0.6491  0.4823
6.455e+09  0.604  0.622  -0.07533  0.004021  -0.03189  0.06583  0.8198  0.2438
6.456e+09  0.8178  0.3657  -0.002721  0.01349  0.007177  -0.01844  0.8313  -0.107
6.458e+09  0.8473  0.01489  0.01175  0.009023  -0.0006888  0.03035  0.7801  -0.3467
6.459e+09  0.7984  -0.2463  -0.03523  -0.006489  -0.05117  0.009119  0.5877  -0.5677
6.46e+09  0.6843  -0.5189  0.005935  0.02205  0.008307  0.04099  0.3228  -0.6868
6.461e+09  0.4302  -0.8249  -0.005084  0.01485  -0.03191  0.003763  0.06629  -0.8486
6.462e+09  0.1582  -0.8787  0.002624  0.02184  -0.01221  0.04026  -0.2249  -0.7605
6.464e+09  -0.1476  -0.916  0.00748  -0.04125  -0.001098  -0.01508  -0.4925  -0.6448
6.465e+09  -0.3915  -0.7666  -0.01314  -0.02678  0.001113  -0.02694  -0.6651  -0.4589
6.466e+09  -0.7059  -0.6083  -0.00732  -0.02586  0.01371  -0.01542  -0.7497  -0.2324
6.468e+09  -0.765  -0.341  0.01266  -0.02665  0.01674  -0.04085  -0.8185  0.0695
6.469e+09  -0.8617  -0.03198  -0.008626  0.02727  -0.003586  0.005693  -0.7381  0.3377
6.47e+09  -0.8082  0.2587  -0.02725  0.005704  -0.01508  0.0215  -0.5538  0.5376
6.471e+09  -0.7086  0.5281  0.02467  -0.005485  -0.01393  0.05785  -0.3676  0.6838
6.472e+09  -0.4435  0.7152  0.003275  0.04292  -0.001969  -0.02106  -0.04663  0.7744
6.474e+09  -0.2086  0.8756  -0.01226  -0.01949  -0.04438  -0.01912  0.1887  0.7565
6.475e+09  0.1209  0.8728  -0.02077  0.04408  0.0116  0.07871  0.4439  0.6469
6.476e+09  0.4644  0.8503  0.009658  -0.008982  -0.01799  0.05028  0.6765  0.4341
6.478e+09  0.6762  0.621  -0.01458  -0.02492  0.01418  -0.03047  0.7392  0.1953
6.479e+09  0.8601  0.3176  -0.007163  0.01564  0.001158  -0.006558  0.7939  -0.06995
6.48e+09  0.9232  -0.03319  0.0001606  -0.0244  0.01261  -0.02118  0.6979  -0.309
6.481e+09  0.8689  -0.3398  0.01931  0.03277  0.02873  -0.02324  0.573  -0.5602
6.482e+09  0.7107  -0.5784  0.04596  -0.01707  0.008767  -0.03584  0.3528  -0.7056
6.484e+09  0.4303  -0.7732  0.006949  0.04082  0.002165  0.01397  0.0852  -0.7598
6.485e+09  0.1327  -0.9012  0.003038  0.02135  0.02715  -0.03686  -0.1996  -0.722
6.486e+09  -0.1533  -0.9175  -0.02948  0.004956  -0.004356  -0.01193  -0.4642  -0.6502
6.488e+09  -0.4746  -0.7728  -0.01835  0.02293  -0.007026  -0.02446  -0.6294  -0.4133
6.489e+09  -0.7235  -0.6194  -0.002335  0.03753  0.02398  -0.0004237  -0.7369  -0.1995
6.49e+09  -0.8855  -0.3163  0.05838  -0.003503  0.005231  -0.0006681  -0.7856  0.08355
6.491e+09  -0.9427  -0.01764  0.01183  0.02732  0.01892  0.05458  -0.6936  0.3079
6.492e+09  -0.8383  0.3216  0.03122  -0.02779  -0.04343  -0.01241  -0.5293  0.5855
6.494e+09  -0.6611  0.5857  0.01454  -0.03017  -0.0211  -0.02438  -0.3185  0.6663
6.495e+09  -0.5092  0.8491  0.001739  0.03599  -0.02973  0.009563  -0.05197  0.768
6.496e+09  -0.1138  0.9132  -0.01702  -0.007691  0.02955  -0.01025  0.2017  0.7507
6.498e+09  0.198  0.8644  -0.02002  -0.01676  -0.008749  0.03443  0.5055  0.6333
6.499e+09  0.4525  0.7847  -0.005658  0.04541  -0.01649  -0.0183  0.653  0.4306
6.5e+09  0.7444  0.6014  -0.01039  0.006642  -0.007217  0.001923  0.7457  0.1739
6.501e+09  0.9202  0.2453  0.003521  -0.02381  -0.01214  0.003496  0.7804  -0.08404
6.502e+09  0.9713  -0.008661  0.01082  -0.0009501  0.02204  0.01213  0.7169  -0.3873
6.504e+09  0.8378  -0.3635  0.05058  0.009222  0.01724  -0.03124  0.5384  -0.5921
6.505e+09  0.6753  -0.6644  0.01063  -0.009619  0.0002416  0.03024  0.2279  -0.7499
6.506e+09  0.405  -0.8291  -0.01266  0.02955  -0.01408  -0.01311  0.03495  -0.758
6.508e+09  0.1026  -0.9178  0.02849  0.02628  -0.02474  0.01284  -0.2272  -0.7336
6.509e+09  -0.2248  -0.9503  -0.02004  -0.02161  0.02502  0.0351  -0.4533  -0.577
6.51e+09  -0.5547  -0.8535  0.005342  0.03855  -0.04668  -0.03838  -0.632  -0.387
6.511e+09  -0.7918  -0.5947  0.000414  -0.01323  -0.01312  0.008255  -0.784  -0.1434
6.512e+09  -0.8981  -0.2637  0.02724  -0.009481  -0.002126  0.03078  -0.7788  0.1527
6.514e+09  -0.9752  0.07856  0.01144  0.02113  -0.03655  0.03253  -0.6491  0.384
6.515e+09  -0.8226  0.3895  0.002838  -0.008794  -0.02851  -0.008718  -0.4942  0.5699
6.516e+09  -0.6998  0.6914  0.01373  -0.001509  -0.06363  -0.004007  -0.2334  0.7186
6.518e+09  -0.4021  0.8943  0.006609  -0.01749  0.0339  -0.04571  0.02796  0.7357
6.519e+09  -0.1034  0.9902  -0.002509  -0.03719  -0.04699  -0.004499  0.2791  0.6743
6.52e+09  0.2363  0.9604  -0.004488  -0.01813  -0.04011  0.01857  0.4728  0.5777
6.521e+09  0.6208  0.7639  0.0009812  0.009033  0.01194  0.007543  0.6465  0.3224
6.522e+09  0.7915  0.5213  -0.01292  -0.02597  0.01789  0.001189  0.7564  0.07044
6.524e+09  0.94  0.2383  -0.02799  0.01838  0.005185  0.04896  0.7382  -0.1462
6.525e+09  0.9775  -0.1484  0.01294  -0.02535  0.001661  0.02096  0.6174  -0.3924
6.526e+09  0.8588  -0.4648  -0.01828  -0.005037  0.0321  -0.03111  0.4186  -0.572
6.528e+09  0.6645  -0.7637  -0.01778  -0.006095  -0.04345  0.008671  0.2128  -0.6906
6.529e+09  0.3512  -0.9074  -0.003116  0.02372  0.04388  -0.02358  -0.06451  -0.6691
6.53e+09  -0.05225  -0.9407  0.0002754  -0.00693  0.04432  -0.01715  -0.2554  -0.6673
6.531e+09  -0.3121  -0.9485  0.01185  -0.01311  0.00906  -0.009449  -0.4701  -0.5176
6.532e+09  -0.5646  -0.7568  -0.02282  -0.01383  -0.03948  -0.03349  -0.5673  -0.2683
6.534e+09  -0.8416  -0.4488  0.00512  -0.04307  0.01257  -0.03495  -0.6282  -0.1263
6.535e+09  -0.9621  -0.1779  0.01822  0.001734  0.0102  -0.003065  -0.5874  0.09811
6.536e+09  -0.9311  0.2043  -0.0151  -0.003361  -0.002618  0.04834  -0.5679  0.3074
6.538e+09  -0.8025  0.5042  0.01367  0.01981  0.04127  -0.02063  -0.4374  0.4533
6.539e+09  -0.5983  0.7956  0.003376  0.03191  0.01172  0.01731  -0.2852  0.6222
6.54e+09  -0.2879  0.9174  -0.0003637  0.0009451  0.01235  0.02452  -0.05843  0.6884
6.541e+09  0.03911  0.981  -0.04529  0.0002573  0.02738  -0.001608  0.1953  0.6928
6.542e+09  0.3753  0.919  -0.03059  -0.001432  0.02659  -0.01252  0.4216  0.5901
6.544e+09  0.6367  0.6653  -0.0246  -0.01387  0.06103  0.03107  0.6197  0.4104
6.545e+09  0.876  0.3902  -0.03284  0.0001375  0.03071  0.04065  0.682  0.1716
6.546e+09  1.008  0.1314  -0.0009638  0.01894  0.007157  0.007749  0.6975  -0.07679
6.548e+09  0.9213  -0.2017  -0.006334  0.006956  0.01342  0.04034  0.6478  -0.2979
6.549e+09  0.7903  -0.5786  -0.01521  0.007892  -0.06025  -0.02081  0.4865  -0.5058
6.55e+09  0.5322  -0.8079  0.003524  -0.004097  0.005863  -0.02957  0.283  -0.6986
