# Hz S RI R 50
6.25e+09  -0.02174  0.8705  -0.02154  -0.003892  -0.003635  0.02213  0.1367  0.503
6.251e+09  0.2536  0.8642  0.001065  0.01922  -0.0036  0.04014  0.3342  0.3992
6.252e+09  0.5202  0.6647  -0.04015  0.008273  -0.008476  -0.01664  0.5105  0.2484
6.254e+09  0.7401  0.48  -0.02102  -0.005987  -0.05632  0.02329  0.5811  -0.009955
6.255e+09  0.8484  0.1734  -0.007166  0.002081  -0.004277  0.04886  0.6079  -0.2083
6.256e+09  0.8308  -0.08673  -0.0003357  0.01025  -0.0008348  0.05283  0.5001  -0.4351
6.258e+09  0.723  -0.3999  0.01538  -0.04625  0.02705  -0.02846  0.2559  -0.6104
6.259e+09  0.5806  -0.645  -0.0007016  0.01492  0.01124  0.02574  0.04586  -0.6459
6.26e+09  0.3254  -0.7956  0.01249  -0.03402  -0.004925  -0.02684  -0.1981  -0.6811
6.261e+09  0.01507  -0.8191  0.0009579  -0.02187  -0.03449  -0.03533  -0.4228  -0.5595
6.262e+09  -0.2195  -0.8391  -0.02109  -0.0006726  0.04578  0.02537  -0.6244  -0.3261
6.264e+09  -0.5538  -0.6825  0.004561  -0.007898  0.005868  -0.006727  -0.6713  -0.1038
6.265e+09  -0.6921  -0.4239  0.0183  -0.03877  0.03362  -0.05052  -0.7021  0.1333
6.266e+09  -0.821  -0.2034  -0.02034  0.02247  0.00134  0.008756  -0.6077  0.395
6.268e+09  -0.8559  0.137  0.002489  0.01103  0.05788  -0.02097  -0.465  0.5918
6.269e+09  -0.7203  0.4192  0.0186  -0.007123  -0.001974  0.07732  -0.1925  0.7095
6.27e+09  -0.5011  0.6541  -0.02114  0.03421  -0.02669  0.006839  0.07295  0.7393
6.271e+09  -0.3087  0.7489  0.006549  0.01333  -0.02575  0.01545  0.2988  0.6725
6.272e+09  -0.03181  0.8489  0.001088  0.003317  0.02777  0.02082  0.5436  0.5248
6.274e+09  0.2535  0.7539  0.003083  -0.02181  0.0338  -0.04196  0.6577  0.2903
6.275e+09  0.5528  0.612  0.003211  0.01775  -0.01156  -0.006729  0.7657  0.03145
6.276e+09  0.7021  0.3998  -0.002312  0.007685  -0.0133  0.02909  0.7254  -0.2072
6.278e+09  0.8129  0.1811  0.02266  0.02344  0.03254  -0.01009  0.5924  -0.4511
6.279e+09  0.8211  -0.1871  -0.009158  -0.02648  -0.01614  -0.0278  0.4064  -0.6399
6.28e+09  0.699  -0.4694  0.001359  0.003995  0.03679  0.01178  0.1778  -0.7684
6.281e+09  0.5089  -0.6729  0.004505  0.003426  -0.0006323  0.05308  -0.1261  -0.7501
6.282e+09  0.2833  -0.8009  -0.03303  -0.02793  -0.03175  -0.02678  -0.3874  -0.6748
6.284e+09  -0.04094  -0.7889  0.004045  -0.01431  0.03767  -0.05477  -0.5883  -0.5387
6.285e+09  -0.3554  -0.7998  0.02099  0.001794  0.004042  0.0602  -0.7337  -0.2956
6.286e+09  -0.5447  -0.5954  0.003257  0.002327  0.02194  0.01927  -0.7754  -0.01059
6.288e+09  -0.7322  -0.3873  0.01636  -0.02305  0.03294  -0.02608  -0.7731  0.2282
6.289e+09  -0.7759  -0.07947  0.009822  0.004026  0.04394  0.01395  -0.6389  0.5292
6.29e+09  -0.8373  0.1868  0.01755  0.008341  0.004095  0.02241  -0.3852  0.6732
6.291e+09  -0.7466  0.4936  0.004607  -0.008053  -0.006029  -0.009722  -0.1477  0.8
6.292e+09  -0.499  0.6572  0.001295  0.02269  0.003825  0.03743  0.1348  0.7901
6.294e+09  -0.2292  0.7757  0.007097  -0.000171  0.01627  0.02033  0.3744  0.7189
6.295e+09  0.1147  0.8894  0.002224  -0.01299  0.003632  0.0622  0.6149  0.5347
6.296e+09  0.3571  0.8121  -0.01592  -0.002799  0.001415  0.03514  0.7469  0.3194
6.298e+09  0.6175  0.5357  -0.01208  0.04019  0.0007222  -0.0599  0.8243  0.0004499
6.299e+09  0.7515  0.3417  -0.01382  -0.01856  0.05086  -0.02182  0.7735  -0.2707
6.3e+09  0.8282  0.08005  -0.02052  -0.01625  -0.04516  -0.016  0.626  -0.5445
6.301e+09  0.7908  -0.2223  0.005897  0.01781  -0.04518  -0.04321  0.4398  -0.7121
6.302e+09  0.6793  -0.4723  0.01498  -0.01185  -0.04806  -0.0004155  0.1453  -0.8423
6.304e+09  0.453  -0.7166  -0.0212  0.004233  0.02122  0.0001193  -0.136  -0.8465
6.305e+09  0.206  -0.8286  0.0001277  -0.009072  0.01993  -0.009044  -0.4396  -0.7886
6.306e+09  -0.0995  -0.8294  0.01032  0.001164  0.03382  0.01065  -0.6244  -0.5429
6.308e+09  -0.3596  -0.7036  -0.01717  -0.01206  0.002091  0.03661  -0.7927  -0.3042
6.309e+09  -0.6126  -0.5707  0.01095  0.02077  -0.04758  -0.02265  -0.8734  -0.0207
6.31e+09  -0.8305  -0.2894  -0.02286  0.01118  0.016  0.03548  -0.7913  0.2807
6.311e+09  -0.8754  -0.05201  -0.006897  0.01991  0.03211  0.0214  -0.642  0.5724
6.312e+09  -0.7589  0.3083  0.01094  0.003724  0.02524  0.006194  -0.4721  0.7362
6.314e+09  -0.6322  0.556  0.003023  -0.006157  -0.005244  0.006304  -0.1966  0.816
6.315e+09  -0.3901  0.7666  0.01929  -0.007464  -0.004729  -0.03733  0.1515  0.8938
6.316e+09  -0.1017  0.8603  0.004794  0.004162  -0.01278  -0.04826  0.4526  0.7499
6.318e+09  0.199  0.7974  -0.03487  -0.008877  0.01424  0.01131  0.6643  0.5885
6.319e+09  0.4338  0.713  0.02875  -0.02405  0.04128  -0.004296  0.8217  0.3069
6.32e+09  0.6778  0.4986  -0.01012  -0.01122  0.009616  -0.01225  0.8532  0.02704
6.321e+09  0.7798  0.2613  -0.03404  -0.0102  -0.007559  0.0245  0.8209  -0.2658
6.322e+09  0.8594  -0.05851  -0.00598  0.01973  0.01777  -0.003965  0.7163  -0.5556
6.324e+09  0.7942  -0.328  -0.004654  -0.0174  0.01008  -0.01664  0.4662  -0.7481
6.325e+09  0.5791  -0.628  0.0182  -0.007491  0.005295  -0.02952  0.2011  -0.8833
6.326e+09  0.3618  -0.7333  0.01707  0.009713  0.03326  0.01538  -0.1367  -0.8723
6.328e+09  0.1097  -0.8948  0.01336  -0.03953  0.0142  -0.0007309  -0.4331  -0.7663
6.329e+09  -0.2203  -0.8332  -0.04322  -0.02596  0.03682  0.0005979  -0.6783  -0.6111
6.33e+09  -0.4966  -0.6933  0.01637  -0.01765  0.05954  -0.001064  -0.8753  -0.3113
6.331e+09  -0.7057  -0.466  0.01027  -0.006911  -0.001551  0.03958  -0.9015  -0.009716
6.332e+09  -0.8011  -0.244  -0.001299  -0.008565  0.008536  -0.05807  -0.8435  0.2548
6.334e+09  -0.836  0.08868  0.01021  0.009942  0.01431  -0.03644  -0.6832  0.5441
6.335e+09  -0.7604  0.3985  -0.00276  -0.01567  0.01552  0.01315  -0.4707  0.7622
6.336e+09  -0.5687  0.6535  0.02336  -0.009454  -0.03124  -0.0116  -0.2149  0.8776
6.338e+09  -0.3625  0.7796  -0.01967  0.01579  -0.01141  -0.01523  0.1209  0.9109
6.339e+09  -0.005746  0.9011  0.02924  -0.003286  -0.0501  -0.04921  0.4311  0.7769
6.34e+09  0.307  0.8  -0.01547  0.007367  -0.004069  0.03221  0.6858  0.6539
6.341e+09  0.5624  0.7174  0.01899  -0.01136  -0.01444  -0.04476  0.8669  0.3627
6.342e+09  0.7624  0.435  0.01988  0.001595  -0.03873  -0.05698  0.8859  0.02406
6.344e+09  0.9142  0.1751  -0.01664  -0.02199  -0.0201  -0.03438  0.8668  -0.2601
6.345e+09  0.8903  -0.2025  -0.01039  -0.02535  -0.02799  0.006689  0.7555  -0.5402
6.346e+09  0.7699  -0.5095  0.04933  0.005783  0.01416  0.02463  0.5216  -0.7083
6.348e+09  0.5244  -0.7071  -0.01023  0.01526  0.03698  0.005692  0.2057  -0.8959
6.349e+09  0.3002  -0.8463  -0.01122  -0.01334  0.01433  0.0256  -0.1205  -0.9271
6.35e+09  -0.02729  -0.8627  0.01621  0.006509  0.03975  -0.003107  -0.4232  -0.8484
6.351e+09  -0.3057  -0.835  -0.0004571  0.001619  0.01643  0.008239  -0.693  -0.6876
6.352e+09  -0.5611  -0.6476  -0.02003  0.002837  0.01474  -0.0103  -0.8454  -0.3654
6.354e+09  -0.7904  -0.4264  0.01713  -0.00593  0.01849  0.01992  -0.9045  -0.08352
6.355e+09  -0.8729  -0.127  0.009225  0.007868  -0.02877  -0.02114  -0.9223  0.2579
6.356e+09  -0.8783  0.2177  0.011  0.03349  -0.01234  -0.04017  -0.7499  0.6002
6.358e+09  -0.7608  0.4903  -0.04604  -0.01007  -0.01223  0.01096  -0.5389  0.7867
6.359e+09  -0.5153  0.7272  -0.03267  -0.001213  -0.004171  -0.03495  -0.24  0.905
6.36e+09  -0.2546  0.8633  0.04229  -0.01659  -0.03416  0.01348  0.1291  0.9191
6.361e+09  0.08737  0.8883  0.02286  -0.003569  -0.002523  -0.009674  0.3763  0.8408
6.362e+09  0.3973  0.7903  -0.03329  -0.02666  0.02071  0.05104  0.6942  0.6625
6.364e+09  0.6379  0.6325  0.03577  -0.01326  0.04544  -0.02217  0.8704  0.3927
6.365e+09  0.8155  0.3525  -0.007153  0.0003487  -0.01398  0.01869  0.9514  0.08435
6.366e+09  0.8948  0.01252  -0.007286  0.01268  0.01767  -0.004287  0.9207  -0.2677
6.368e+09  0.8556  -0.2694  0.02451  0.006656  -0.03429  0.0531  0.7545  -0.5409
6.369e+09  0.7582  -0.5719  0.05353  0.02161  -0.007795  0.008338  0.5004  -0.7524
6.37e+09  0.488  -0.7643  0.01309  0.02406  0.03152  0.01071  0.2181  -0.895
6.371e+09  0.1685  -0.8749  0.01512  -0.04419  -0.05352  -0.01963  -0.0676  -0.9463
6.372e+09  -0.1664  -0.9093  -0.003506  -0.02023  0.00822  -0.02845  -0.4129  -0.8986
6.374e+09  -0.3952  -0.7853  0.01272  0.01589  -0.04002  0.02765  -0.6506  -0.6738
6.375e+09  -0.6584  -0.5779  -0.03748  -0.009436  -0.0173  -0.008684  -0.8631  -0.4545
6.376e+09  -0.8147  -0.3422  0.03142  -0.01669  0.0366  -0.04141  -0.9123  -0.1143
6.378e+09  -0.8691  0.007702  -0.028  0.01193  0.008264  -0.02313  -0.9227  0.2206
6.379e+09  -0.8453  0.3251  -0.02332  -0.03143  -0.004295  0.006879  -0.7581  0.522
6.38e+09  -0.6719  0.537  0.008864  0.02562  -0.0003249  -0.004994  -0.5585  0.7671
6.381e+09  -0.4804  0.7505  -0.0007015  -0.02292  -0.02557  -0.0162  -0.304  0.9219
6.382e+09  -0.1533  0.8814  -0.001727  0.01071  0.01522  -0.0003951  0.05574  0.9041
6.384e+09  0.153  0.89  -0.00449  -0.01409  -0.00401  -0.005784  0.3659  0.8677
6.385e+09  0.4747  0.7166  -0.01616  0.008828  -0.04225  0.04057  0.6457  0.6972
6.386e+09  0.6992  0.5735  0.03675  -0.01302  0.006614  0.02813  0.8449  0.3989
6.388e+09  0.8679  0.3227  0.002944  0.009184  0.005985  -0.02914  0.9244  0.06653
6.389e+09  0.9023  -0.03626  -0.007301  0.01018  0.02203  0.05433  0.9027  -0.1926
6.39e+09  0.7895  -0.3218  0.002582  -0.01756  -0.003296  -0.01779  0.7626  -0.4969
6.391e+09  0.6704  -0.606  -0.02356  0.0175  0.02648  0.01542  0.5583  -0.7638
6.392e+09  0.4143  -0.7532  -0.01181  0.0004375  -0.0394  -0.02684  0.3289  -0.8968
6.394e+09  0.1088  -0.9296  -0.008623  0.01114  -0.01037  0.01853  -0.02886  -0.8946
6.395e+09  -0.21  -0.8439  0.01053  -0.01751  -0.005787  0.002446  -0.2923  -0.8381
6.396e+09  -0.4691  -0.7183  -0.0338  0.01602  -0.00642  -0.02162  -0.6196  -0.6864
6.398e+09  -0.7498  -0.5352  0.01414  0.00614  0.01929  -0.003311  -0.8084  -0.4521
6.399e+09  -0.8445  -0.235  0.002674  -0.02808  0.04499  0.05221  -0.9126  -0.1322
6.4e+09  -0.9  0.0479  0.01032  0.02034  -0.00644  0.04461  -0.9263  0.1875
6.401e+09  -0.7933  0.3684  0.01969  0.02112  0.02854  0.01178  -0.8316  0.4528
6.402e+09  -0.6708  0.6337  -0.0186  0.01296  -0.04375  0.0006599  -0.5323  0.7121
6.404e+09  -0.3232  0.8094  -0.04325  0.007041  -0.02079  -0.01017  -0.3072  0.873
6.405e+09  -0.1022  0.8723  0.02237  -0.00555  0.01512  -0.00105  0.01932  0.9194
6.406e+09  0.2164  0.8465  0.02847  0.02506  0.05886  -0.0143  0.2829  0.865
6.408e+09  0.5207  0.7163  -0.04475  -0.01257  -0.01332  -0.003349  0.5763  0.73
6.409e+09  0.7537  0.5344  0.04191  0.03169  -0.02024  0.003111  0.811  0.4613
6.41e+09  0.8501  0.1898  0.01647  0.02932  0.01224  0.02471  0.8881  0.1643
6.411e+09  0.8893  -0.09929  0.01491  -0.07593  0.01627  -0.01541  0.8752  -0.1644
6.412e+09  0.7952  -0.3855  0.009765  0.01018  0.01042  -0.001838  0.777  -0.4309
6.414e+09  0.5832  -0.6409  -0.0111  0.02344  0.04371  -0.03094  0.5842  -0.6373
6.415e+09  0.3601  -0.8037  0.02344  -0.0229  0.0393  0.007661  0.29  -0.8318
6.416e+09  0.05581  -0.8963  0.001377  -0.02995  0.0157  -0.0261  0.06134  -0.947
6.418e+09  -0.2319  -0.8802  -0.007283  0.04232  -0.01539  -0.005731  -0.2411  -0.8562
6.419e+09  -0.5218  -0.7262  0.004309  -0.05408  -0.004322  -0.01172  -0.5247  -0.6372
6.42e+09  -0.7819  -0.5387  0.009104  0.006841  0.03072  -0.001065  -0.7206  -0.4783
6.421e+09  -0.8968  -0.197  0.001095  0.02209  0.0009482  -0.00698  -0.8707  -0.1765
6.422e+09  -0.833  0.1086  -0.06889  0.02509  -0.03948  0.0007129  -0.8625  0.1474
6.424e+09  -0.8112  0.4018  -0.001281  -0.01772  -0.07532  0.001596  -0.7505  0.4179
6.425e+09  -0.5561  0.6609  0.009772  0.01736  -0.0007247  -0.05055  -0.6227  0.6899
6.426e+09  -0.3455  0.8756  -0.04135  0.0008001  0.01215  -0.04312  -0.3385  0.8229
6.428e+09  -0.01437  0.877  0.0235  0.002432  0.04683  0.03068  -0.07713  0.8587
6.429e+09  0.2871  0.8802  -0.01669  -0.006143  -0.02197  0.04663  0.2564  0.8504
6.43e+09  0.5637  0.7308  -0.03761  0.03793  0.04404  -0.02895  0.4428  0.6847
6.431e+09  0.7434  0.405  -0.04514  -0.01242  -0.01201  -0.001105  0.7451  0.4379
6.432e+09  0.9445  0.1662  0.001618  0.03386  -0.001298  0.02086  0.8431  0.2162
6.434e+09  0.9115  -0.09354  -0.01926  -0.07368  -0.02383  0.01518  0.8334  -0.07275
6.435e+09  0.7523  -0.4402  0.0282  0.02098  0.006982  0.02828  0.7828  -0.3589
6.436e+09  0.5766  -0.7255  -0.01082  -0.008683  0.08159  0.03329  0.575  -0.6219
6.438e+09  0.2789  -0.8406  -0.02835  0.01565  0.04042  0.001399  0.3269  -0.7553
6.439e+09  0.01524  -0.9488  -0.0205  -0.0142  -0.0202  0.0175  0.1001  -0.8769
6.44e+09  -0.3322  -0.8448  0.02719  0.01263  0.0575  -0.01644  -0.1984  -0.8417
6.441e+09  -0.5208  -0.7366  -0.01417  -0.01091  0.005348  0.001192  -0.5404  -0.6967
6.442e+09  -0.7856  -0.4472  0.01638  0.01645  -0.005072  0.00311  -0.6677  -0.4602
6.444e+09  -0.8987  -0.1555  -0.01155  0.002855  0.04288  -0.004332  -0.8397  -0.2627
6.445e+09  -0.9249  0.215  -0.005759  0.02444  0.02537  0.00737  -0.8324  0.03859
6.446e+09  -0.7855  0.4584  -0.03432  0.03546  -0.01027  0.005703  -0.7514  0.3801
6.448e+09  -0.5591  0.7091  0.01896  -0.07488  -0.003534  0.00267  -0.6004  0.633
6.449e+09  -0.3239  0.8845  -0.005346  0.004031  0.01261  0.02555  -0.3091  0.7336
6.45e+09  -0.008269  0.9299  0.01177  -0.001154  -0.003862  0.01488  -0.04743  0.8009
6.451e+09  0.3886  0.8372  -0.03566  0.01824  0.01721  0.0179  0.2092  0.757
6.452e+09  0.5739  0.7141  0.001734  0.00318  0.006654  -0.01093  0.448  0.68
6.454e+09  0.7972  0.417  -0.00958  -0.0007012  0.03906  -0.02185  0.6887  0.4746
6.455e+09  0.9333  0.1302  0.00906  0.02661  0.01026  0.03421  0.8293  0.188
6.456e+09  0.9365  -0.2052  0.006125  0.0274  -0.007901  0.004661  0.7996  -0.08728
6.458e+09  0.7958  -0.5183  -0.0156  0.01415  0.01844  0.03051  0.7388  -0.317
6.459e+09  0.5144  -0.7394  0.002936  0.01986  0.02616  0.01641  0.5936  -0.6209
6.46e+09  0.2775  -0.8699  -0.02783  0.02044  0.02748  -0.008923  0.3569  -0.7337
6.461e+09  -0.04563  -0.9271  -0.01995  -0.003611  0.0009954  -0.001077  0.114  -0.8178
6.462e+09  -0.3579  -0.8767  0.01892  -0.01365  -0.01629  0.01862  -0.2159  -0.7457
6.464e+09  -0.5894  -0.6668  -0.007217  0.04381  0.01274  0.01217  -0.4593  -0.699
6.465e+09  -0.8438  -0.4206  0.04488  0.02134  0.03105  -0.004142  -0.6121  -0.4505
6.466e+09  -0.8917  -0.1395  -0.009859  0.02551  0.007058  0.02765  -0.77  -0.2049
6.468e+09  -0.8936  0.2883  -0.002099  0.04973  -0.01121  -0.04772  -0.7608  0.07481
6.469e+09  -0.7465  0.4973  0.01423  -0.04491  0.01007  0.04334  -0.7194  0.2994
6.47e+09  -0.5522  0.7594  -0.04909  -0.00425  0.02884  0.00652  -0.4958  0.5933
6.471e+09  -0.1841  0.8972  0.03171  0.02363  0.02675  -0.002393  -0.3297  0.7516
6.472e+09  0.111  0.9356  0.02878  -0.0316  0.0003519  0.01519  -0.08866  0.7832
6.474e+09  0.4342  0.8578  -0.003171  0.0001648  -0.006385  0.009485  0.186  0.7835
6.475e+09  0.6809  0.6462  -0.01829  -0.03429  0.02227  0.02588  0.4828  0.6588
6.476e+09  0.8525  0.3621  0.04194  0.01909  0.006487  -0.02672  0.6172  0.4788
6.478e+09  0.9609  0.03621  -0.007745  -0.01116  -0.008602  -0.03335  0.783  0.1848
6.479e+09  0.8775  -0.3131  0.00402  0.001606  0.009754  0.01563  0.7963  -0.05931
6.48e+09  0.7596  -0.5623  -0.01763  0.01432  -0.04659  0.008466  0.701  -0.3249
6.481e+09  0.506  -0.8301  -0.02384  0.007724  -0.04114  -0.04091  0.5777  -0.5374
6.482e+09  0.2054  -0.9722  0.03054  0.01443  0.03685  0.02443  0.3262  -0.6533
6.484e+09  -0.1232  -0.9271  -0.04871  0.02793  -0.002618  0.003776  0.09107  -0.7539
6.485e+09  -0.494  -0.856  0.01265  0.01684  -0.01566  -0.01052  -0.2189  -0.7489
6.486e+09  -0.7512  -0.6205  0.03964  -0.01059  0.02262  -0.001854  -0.4316  -0.6078
6.488e+09  -0.8771  -0.2533  0.003858  -0.00181  0.05164  -0.07597  -0.6517  -0.4502
6.489e+09  -0.9029  0.02846  0.0127  0.03795  0.03863  0.0061  -0.7696  -0.1987
6.49e+09  -0.8762  0.4188  -0.0003645  -0.0009772  -0.001832  0.02771  -0.7512  0.1055
6.491e+09  -0.7073  0.6216  0.008382  -0.01177  -0.00119  -0.003935  -0.6596  0.3121
6.492e+09  -0.4057  0.8659  0.04195  -0.00717  0.03875  0.05322  -0.5169  0.5107
6.494e+09  -0.07664  0.9879  0.07097  0.01748  -0.01811  -0.02115  -0.3482  0.7169
6.495e+09  0.2261  0.9157  -0.01866  0.0569  0.001853  -0.01138  -0.03846  0.762
6.496e+09  0.5106  0.7505  -0.02766  -0.02457  0.006809  0.0292  0.2223  0.7684
6.498e+09  0.8474  0.4953  0.02086  0.03143  0.01712  0.006551  0.4907  0.597
6.499e+09  0.9476  0.1963  -0.01922  -0.00366  0.01699  0.007811  0.6511  0.3987
6.5e+09  0.914  -0.08282  -0.02531  0.003326  0.04563  0.01187  0.7391  0.157
6.501e+09  0.8837  -0.4244  0.02645  -0.005873  -0.02567  -0.003166  0.7392  -0.09426
6.502e+09  0.6572  -0.7003  0.04869  0.02218  -0.01944  0.03841  0.6479  -0.3857
6.504e+09  0.3979  -0.9321  -0.007135  0.004789  0.01222  -0.03424  0.5287  -0.584
6.505e+09  -0.0158  -0.9697  -0.002316  0.009479  -0.007716  0.005762  0.2525  -0.7294
6.506e+09  -0.2952  -1.012  0.01996  -0.002932  -0.002605  0.03432  0.0348  -0.7565
6.508e+09  -0.5896  -0.7501  0.02216  0.03682  -0.0006078  0.004401  -0.2798  -0.6882
6.509e+09  -0.776  -0.4998  -0.005358  -0.01471  0.01211  -0.004387  -0.4934  -0.6562
6.51e+09  -0.9439  -0.1393  -0.02897  0.04332  0.01977  -0.00504  -0.6592  -0.412
6.511e+09  -0.9298  0.1819  -0.02193  -0.005755  0.05791  -0.03026  -0.7024  -0.1199
6.512e+09  -0.8018  0.5257  -0.007859  0.01844  0.03449  0.03461  -0.724  0.08453
6.514e+09  -0.5376  0.7905  -0.01019  0.003594  -0.01022  0.05606  -0.6343  0.3907
6.515e+09  -0.2644  0.9598  0.0302  -0.01611  -0.01132  0.03153  -0.4313  0.5754
6.516e+09  0.08077  0.9527  0.04187  -0.005151  0.03191  0.0205  -0.2645  0.7029
6.518e+09  0.4109  0.8326  -0.01928  0.02425  -0.01412  -0.01412  0.02276  0.75
6.519e+09  0.6712  0.6241  0.006809  0.007052  -0.02509  -0.02742  0.2824  0.7059
6.52e+09  0.8387  0.3924  0.01555  0.001615  0.01504  0.03482  0.4751  0.5541
6.521e+09  0.9008  0.04077  -0.006254  -0.002704  -0.01987  -0.002591  0.656  0.3604
6.522e+09  0.8665  -0.307  -0.00114  -0.01049  -0.02982  -0.06561  0.7593  0.09027
6.524e+09  0.7195  -0.5948  0.007777  -0.004833  0.01785  0.006704  0.7071  -0.112
6.525e+09  0.5224  -0.7893  0.003201  -0.002231  0.009228  -0.008497  0.61  -0.3798
6.526e+09  0.1574  -0.8924  -0.01205  0.01201  0.02425  -0.008852  0.3984  -0.5477
6.528e+09  -0.1782  -0.8691  -0.01962  0.003553  -0.01468  0.0118  0.1903  -0.6733
6.529e+09  -0.4763  -0.7878  -0.01201  0.01858  0.001319  0.01084  -0.03788  -0.6818
6.53e+09  -0.7343  -0.6214  0.008663  0.02142  -0.04111  0.01564  -0.2645  -0.6256
6.531e+09  -0.9229  -0.2436  -0.03352  -0.001335  -0.02311  0.0105  -0.4499  -0.5035
6.532e+09  -0.8852  0.1013  -0.00624  0.01417  0.0366  -0.01608  -0.5882  -0.2785
6.534e+09  -0.8185  0.3592  -0.01316  -0.0171  0.01204  -0.007185  -0.6393  -0.05722
6.535e+09  -0.6842  0.6252  0.03673  0.00268  -0.06404  -0.0532  -0.6026  0.134
6.536e+09  -0.4221  0.8267  -0.01033  0.003623  -0.01201  -0.003421  -0.5832  0.2667
6.538e+09  -0.04666  0.9102  -0.01104  0.02019  0.03542  0.01589  -0.4454  0.4668
6.539e+09  0.259  0.915  -0.0201  -0.007116  -0.05155  0.002551  -0.2717  0.6118
6.54e+09  0.5194  0.6551  0.001419  -0.008045  -0.02752  0.01917  -0.06684  0.7116
6.541e+09  0.7802  0.5492  -0.02962  0.0274  -0.03053  0.07832  0.2002  0.6606
6.542e+09  0.8948  0.1882  0.04476  0.01894  -0.03137  -0.02212  0.416  0.5646
6.544e+09  0.8442  -0.1499  0.02481  -0.002901  -0.04046  0.008497  0.5513  0.4325
6.545e+09  0.757  -0.4537  -0.009026  0.00912  -0.007222  0.07978  0.7203  0.2096
6.546e+09  0.5381  -0.6698  0.009983  0.04256  -0.01769  0.01169  0.6784  -0.09721
6.548e+09  0.2572  -0.8308  -0.01001  -0.002217  0.008594  -0.03914  0.6501  -0.3285
6.549e+09  -0.04201  -0.8669  -0.03369  0.01287  -0.06025  0.0176  0.5142  -0.5338
6.55e+09  -0.3683  -0.8266  0.002942  0.002156  0.02426  0.05846  0.2785  -0.659
