# Hz S RI R 50
6.25e+09  -0.4247  0.7271  -0.02125  0.002529  -0.008243  0.01177  0.1657  0.4528
6.251e+09  -0.1533  0.8668  -0.0004946  -0.003799  -0.003019  -0.02357  0.3307  0.3875
6.252e+09  0.1306  0.8347  -0.0001284  0.02624  0.02735  0.0048  0.5258  0.2513
6.254e+09  0.3976  0.7504  -0.01263  -0.01425  0.006406  0.03024  0.6106  0.01729
6.255e+09  0.6555  0.5552  0.02339  -0.004742  -0.05369  -0.02945  0.5974  -0.2312
6.256e+09  0.8289  0.2887  -0.006981  -0.001347  0.002264  0.07383  0.4555  -0.4069
6.258e+09  0.8239  -0.005518  -0.01568  -0.02541  -0.002211  0.02358  0.3066  -0.5907
6.259e+09  0.7464  -0.3299  -0.01354  0.001318  -0.03116  -0.01996  0.03908  -0.6759
6.26e+09  0.6233  -0.5046  0.0162  0.01277  -0.01588  0.004814  -0.2422  -0.677
6.261e+09  0.3957  -0.7137  0.01154  -0.02865  -0.001493  0.02125  -0.4431  -0.5337
6.262e+09  0.09933  -0.816  -0.002604  -0.03175  0.04617  0.02769  -0.5965  -0.309
6.264e+09  -0.1468  -0.7878  0.01292  0.002496  -0.00523  0.03012  -0.7089  -0.07432
6.265e+09  -0.3921  -0.747  0.03812  0.02188  -0.04028  -0.04301  -0.6651  0.1605
6.266e+09  -0.6652  -0.4824  0.01458  -0.006069  -0.004883  0.0027  -0.587  0.3817
6.268e+09  -0.7727  -0.193  0.03048  -0.0004502  -0.1091  0.04147  -0.4394  0.5648
6.269e+09  -0.7991  -0.0001459  -0.02221  -0.01428  0.009395  -0.01591  -0.1851  0.6948
6.27e+09  -0.7019  0.3193  -0.02109  -0.007155  0.02186  -0.01178  0.04087  0.7362
6.271e+09  -0.5856  0.5585  0.0004326  0.005043  0.02009  0.0175  0.3211  0.6218
6.272e+09  -0.3899  0.6742  -0.008954  0.02267  -0.03222  -0.03047  0.5449  0.5375
6.274e+09  -0.1164  0.7994  0.01346  -0.01272  0.03685  0.007149  0.6745  0.2761
6.275e+09  0.1323  0.756  -0.02043  -0.01013  -0.04113  0.008351  0.7475  0.04742
6.276e+09  0.429  0.698  -0.03747  -0.002388  0.02798  -0.001009  0.7346  -0.1964
6.278e+09  0.657  0.5407  0.02274  -0.02401  0.0251  0.006157  0.6302  -0.4862
6.279e+09  0.8345  0.1674  -0.02722  -0.007301  -0.01971  0.02854  0.4272  -0.6676
6.28e+09  0.8323  -0.06923  -0.01039  -0.02641  0.09269  0.02336  0.1712  -0.7631
6.281e+09  0.7531  -0.3693  -0.006606  0.03109  -0.01847  -0.03004  -0.08575  -0.7916
6.282e+09  0.6271  -0.621  0.02189  0.003423  -0.01919  0.01411  -0.3518  -0.6954
6.284e+09  0.3802  -0.7493  0.02321  -0.008553  0.008869  0.02532  -0.5835  -0.5268
6.285e+09  0.1112  -0.7647  0.01859  0.00974  0.01298  -0.01327  -0.7379  -0.2604
6.286e+09  -0.2202  -0.7762  0.01992  0.02362  -0.02302  -0.001265  -0.7926  -0.002344
6.288e+09  -0.4515  -0.6765  -0.02134  0.00654  -0.0001965  -0.005273  -0.7444  0.2463
6.289e+09  -0.7197  -0.4435  -0.02408  -0.01397  -0.0206  0.04868  -0.6097  0.497
6.29e+09  -0.7718  -0.2393  0.01452  0.01323  -0.01812  -0.01317  -0.3753  0.6817
6.291e+09  -0.8438  0.08098  0.009931  -0.02509  -0.03543  0.009369  -0.1834  0.7914
6.292e+09  -0.7491  0.3974  0.01577  -0.02529  -0.01589  0.005403  0.1255  0.841
6.294e+09  -0.5414  0.5632  -0.03383  -0.003936  0.03606  0.006379  0.3698  0.7295
6.295e+09  -0.3439  0.7499  0.002127  -0.01944  -0.0004888  -0.02378  0.6104  0.5216
6.296e+09  0.003852  0.7991  -0.004899  0.01352  0.01706  0.01557  0.7777  0.3012
6.298e+09  0.2677  0.7776  0.005623  -0.004651  0.016  0.002513  0.8265  -0.04206
6.299e+09  0.4883  0.6952  -0.003598  -0.02717  -0.003265  0.01493  0.7925  -0.2607
6.3e+09  0.6868  0.4602  -0.03334  -0.001654  -0.05334  -0.01886  0.6646  -0.5078
6.301e+09  0.7332  0.1782  0.007419  -0.0205  -0.005151  0.0351  0.424  -0.7029
6.302e+09  0.8172  -0.1067  0.01548  0.01743  -0.001483  -0.008803  0.1673  -0.8226
6.304e+09  0.7744  -0.3737  -0.02377  -0.01277  0.03744  0.01154  -0.1115  -0.8113
6.305e+09  0.5844  -0.572  -0.003842  0.006482  -0.003256  0.002052  -0.4339  -0.7513
6.306e+09  0.3616  -0.7598  -0.01917  0.01582  -0.02288  -0.004757  -0.6032  -0.545
6.308e+09  0.07555  -0.8059  0.0102  0.01167  -0.01832  -0.004664  -0.7955  -0.3384
6.309e+09  -0.3349  -0.7028  0.01429  0.003777  0.007875  0.01623  -0.8561  0.003008
6.31e+09  -0.503  -0.6605  -0.01229  -0.008254  -0.01383  0.001659  -0.8047  0.2615
6.311e+09  -0.729  -0.4659  0.01388  0.047  0.0001277  0.03788  -0.6789  0.5212
6.312e+09  -0.8525  -0.1178  0.01253  0.01075  -0.03151  -0.01914  -0.4412  0.715
6.314e+09  -0.8321  0.1223  0.004831  0.01462  0.0698  0.04083  -0.146  0.8359
6.315e+09  -0.7128  0.3861  -0.0178  -0.01242  0.02684  0.01992  0.1473  0.8827
6.316e+09  -0.5365  0.6723  0.002098  -0.01303  0.05459  -0.004885  0.436  0.775
6.318e+09  -0.3143  0.7984  0.02241  -0.03582  0.008764  -0.00648  0.6765  0.5688
6.319e+09  -0.003966  0.8075  0.02599  -0.01649  -0.04042  0.02854  0.836  0.328
6.32e+09  0.2769  0.8156  0.003729  0.01123  0.01276  0.001567  0.8677  0.03488
6.321e+09  0.5612  0.6691  0.009535  -0.01962  -0.02195  -0.04174  0.8235  -0.2759
6.322e+09  0.761  0.4076  -0.04969  -0.003322  -0.007535  -0.03969  0.7048  -0.5319
6.324e+09  0.8722  0.0615  0.004265  -0.01205  0.04171  0.02518  0.4608  -0.7834
6.325e+09  0.8462  -0.2204  -0.001719  0.009685  0.04381  0.02015  0.1887  -0.9332
6.326e+09  0.7686  -0.4471  -0.007495  0.01052  0.04916  -0.001313  -0.1076  -0.8924
6.328e+09  0.5355  -0.6641  -0.01732  -0.0201  0.003654  0.02299  -0.4094  -0.794
6.329e+09  0.2774  -0.8033  -0.007917  -0.0007927  0.02315  -0.007257  -0.6667  -0.618
6.33e+09  -0.05802  -0.9098  -0.01765  0.005961  0.01945  -0.01191  -0.861  -0.3381
6.331e+09  -0.3244  -0.7928  0.02358  -0.001979  -0.01646  0.03543  -0.8959  -0.04089
6.332e+09  -0.6364  -0.6628  0.01428  -0.008993  -0.002757  0.02696  -0.8675  0.2947
6.334e+09  -0.768  -0.3917  -0.00205  -0.02454  -0.06146  -0.01456  -0.7089  0.5583
6.335e+09  -0.8584  -0.1387  -0.01691  -0.01846  0.02416  -0.01459  -0.4867  0.7518
6.336e+09  -0.8509  0.2563  0.002872  0.02906  -0.05677  0.006821  -0.2013  0.9209
6.338e+09  -0.7428  0.5082  -0.02321  0.000583  -0.004103  -0.008635  0.1053  0.9015
6.339e+09  -0.4831  0.7128  -0.01769  -0.001478  0.004869  0.03411  0.4049  0.8153
6.34e+09  -0.1925  0.9074  -0.02368  0.02635  0.02963  0.005376  0.6857  0.6187
6.341e+09  0.101  0.8543  -0.003473  0.02481  -0.001183  0.006648  0.8519  0.4065
6.342e+09  0.4039  0.7852  -0.02268  -0.002461  -0.02977  0.02241  0.9139  0.05063
6.344e+09  0.6687  0.6397  -0.01758  -0.01718  0.02723  0.003686  0.9042  -0.2753
6.345e+09  0.8112  0.3537  -0.009856  0.01939  -0.009243  0.06052  0.7606  -0.5826
6.346e+09  0.8691  -0.001499  -0.007923  0.03046  -0.002855  0.0317  0.512  -0.7847
6.348e+09  0.8189  -0.2723  -0.01518  -0.003525  0.02915  0.02908  0.2106  -0.883
6.349e+09  0.6931  -0.5271  0.002178  -0.008839  -0.01047  0.02792  -0.1442  -0.8929
6.35e+09  0.4079  -0.7658  -0.03983  0.01074  -0.04091  0.006996  -0.4407  -0.8467
6.351e+09  0.1437  -0.8698  0.005633  0.01226  0.003383  -0.01398  -0.6704  -0.6452
6.352e+09  -0.1816  -0.871  -0.0323  -0.03623  -0.01318  -0.002296  -0.8691  -0.3687
6.354e+09  -0.4648  -0.7548  -0.01822  0.005925  0.01554  -0.005265  -0.9404  -0.05921
6.355e+09  -0.6905  -0.5378  -0.01605  0.001366  0.001047  -0.05352  -0.8997  0.2488
6.356e+09  -0.821  -0.3042  0.004022  -0.01066  7.287e-05  -0.0003919  -0.7826  0.5435
6.358e+09  -0.8755  0.03309  -0.01426  0.04162  -0.02675  -0.01057  -0.4992  0.8031
6.359e+09  -0.8382  0.382  0.005373  -0.009841  0.0294  0.02698  -0.2485  0.9129
6.36e+09  -0.6483  0.5816  0.01565  0.02245  -0.02892  0.01841  0.09949  0.9296
6.361e+09  -0.3774  0.8171  0.01895  0.01474  -0.04629  0.01954  0.432  0.8461
6.362e+09  -0.1358  0.8781  -0.002872  0.0244  -0.06769  -0.01343  0.6806  0.6823
6.364e+09  0.2061  0.9117  0.0123  0.001314  0.01261  0.03847  0.8654  0.3884
6.365e+09  0.5436  0.7434  4.431e-06  -0.01539  0.07663  -0.02849  0.9245  0.05102
6.366e+09  0.7112  0.4801  -0.03267  -0.0005698  -0.006178  0.001864  0.9387  -0.2296
6.368e+09  0.8841  0.2214  0.02205  -0.01431  -0.02352  0.02861  0.79  -0.5586
6.369e+09  0.8907  -0.06722  0.001805  0.03318  0.03428  0.0159  0.5607  -0.7538
6.37e+09  0.8  -0.3761  -0.002335  -6.996e-06  -0.01324  0.04833  0.195  -0.8901
6.371e+09  0.604  -0.5983  0.002352  -0.03842  0.01514  -0.02327  -0.1005  -0.9365
6.372e+09  0.3305  -0.7933  0.01436  -0.01434  0.03006  -0.0128  -0.4039  -0.8694
6.374e+09  0.06929  -0.9478  0.03043  -0.01276  -0.03081  0.03819  -0.639  -0.7022
6.375e+09  -0.258  -0.8608  -0.008947  -0.02237  -0.006465  0.001918  -0.8492  -0.423
6.376e+09  -0.5281  -0.6991  0.02184  -0.002395  -0.05878  -0.01242  -0.9352  -0.1104
6.378e+09  -0.8037  -0.5125  -0.002975  0.01479  0.0381  -0.04486  -0.9597  0.2239
6.379e+09  -0.8731  -0.2453  0.01231  -0.02541  -0.03468  -0.03492  -0.7964  0.5091
6.38e+09  -0.8862  0.1383  0.006241  -0.02036  0.01239  -0.0553  -0.5946  0.7681
6.381e+09  -0.7908  0.4303  0.005099  0.019  0.03628  0.0004087  -0.2659  0.9187
6.382e+09  -0.5413  0.6753  -0.02446  0.007555  0.02007  0.05025  0.07961  0.9394
6.384e+09  -0.3722  0.8282  0.009323  0.01569  0.01566  0.02745  0.3789  0.9042
6.385e+09  -0.02604  0.95  0.04515  0.002252  -0.03215  0.02662  0.6419  0.6766
6.386e+09  0.278  0.8725  -0.01003  -0.02926  -0.02285  -0.04156  0.8199  0.431
6.388e+09  0.5762  0.7623  0.003744  0.01559  -0.003923  0.01883  0.9111  0.1076
6.389e+09  0.8116  0.4373  0.0103  -0.006811  -0.03605  0.06834  0.9669  -0.1949
6.39e+09  0.9348  0.1415  0.02087  -0.0003758  -0.04646  0.06034  0.8091  -0.5222
6.391e+09  0.8822  -0.1423  -0.02001  -0.01511  -0.0179  -0.02476  0.5315  -0.7453
6.392e+09  0.7823  -0.4754  -0.0136  -0.004981  -0.008212  -0.05738  0.2544  -0.8573
6.394e+09  0.557  -0.6768  0.01686  -0.02208  -0.03842  -0.05836  -0.04478  -0.8995
6.395e+09  0.2414  -0.8403  -0.01657  -0.00725  -0.01883  -0.01289  -0.3181  -0.897
6.396e+09  -0.02447  -0.8798  -0.003695  -0.02177  -0.001671  -0.01345  -0.5945  -0.6833
6.398e+09  -0.3234  -0.8369  -0.001449  0.0174  0.03324  -0.01999  -0.7714  -0.4241
6.399e+09  -0.5986  -0.6724  -0.02256  0.004833  0.007491  0.008622  -0.9452  -0.1153
6.4e+09  -0.7767  -0.3991  0.02199  -0.004112  0.01553  -0.001102  -0.8455  0.1672
6.401e+09  -0.8447  -0.1072  -0.02213  -0.01376  -0.03724  0.005939  -0.7981  0.4603
6.402e+09  -0.8695  0.1594  0.008944  -0.0221  -0.02379  0.0269  -0.6453  0.7004
6.404e+09  -0.7206  0.427  0.01798  0.02299  -0.01806  0.01035  -0.3185  0.8756
6.405e+09  -0.5224  0.6908  -0.0352  0.01631  -0.01682  -0.01449  -0.03325  0.9357
6.406e+09  -0.2546  0.8477  0.008223  0.03669  0.02803  0.001295  0.2809  0.8592
6.408e+09  0.02453  0.8748  0.05199  -0.06025  0.01559  -0.0007833  0.5877  0.744
6.409e+09  0.3164  0.828  0.02167  -0.02416  0.005691  0.02297  0.8073  0.4465
6.41e+09  0.6348  0.6163  0.01107  0.006907  -0.07343  -0.07337  0.8753  0.1825
6.411e+09  0.7713  0.3472  0.006727  -0.02132  -0.01688  0.01187  0.8933  -0.1077
6.412e+09  0.9124  0.09656  -0.006491  0.004965  -0.03467  0.01227  0.7914  -0.4206
6.414e+09  0.9057  -0.1726  0.01745  0.02894  0.02468  -0.0336  0.5634  -0.7377
6.415e+09  0.7498  -0.4941  -0.04117  0.003766  0.01803  -0.00722  0.3151  -0.8535
6.416e+09  0.5153  -0.7508  0.05359  -0.005233  0.007547  0.00982  0.05341  -0.8577
6.418e+09  0.2501  -0.8488  -0.03051  0.03746  0.033  -0.0143  -0.2631  -0.8458
6.419e+09  -0.02504  -0.8574  -0.02778  -0.04452  0.005668  0.01047  -0.5339  -0.7523
6.42e+09  -0.3876  -0.8871  -0.004897  -0.02679  -0.01726  -0.004818  -0.7701  -0.4548
6.421e+09  -0.6171  -0.6461  0.003694  0.007474  0.01288  -0.03946  -0.8271  -0.186
6.422e+09  -0.7981  -0.3882  -0.00293  -0.01094  -0.01184  0.01709  -0.8995  0.1349
6.424e+09  -0.8198  -0.05664  -0.01335  0.02164  -0.02203  0.02425  -0.7665  0.3785
6.425e+09  -0.8784  0.2419  -0.00149  -0.004508  -0.01611  -0.002311  -0.5868  0.6393
6.426e+09  -0.6879  0.4819  -0.0329  0.005221  -0.001492  -0.03264  -0.316  0.8423
6.428e+09  -0.4865  0.7339  -0.0193  -0.02995  -0.02812  -0.04691  -0.04698  0.8679
6.429e+09  -0.2405  0.9285  0.0007087  0.006643  0.03  -0.001807  0.187  0.8637
6.43e+09  0.1248  0.868  0.02555  0.03768  0.02796  0.006333  0.5409  0.7264
6.431e+09  0.3848  0.7698  0.002689  -0.02416  -0.005954  0.01933  0.7408  0.4841
6.432e+09  0.6857  0.6591  -0.008897  0.01931  0.006255  -0.02585  0.8526  0.1913
6.434e+09  0.7375  0.3792  0.002846  0.009405  -0.02482  -0.01808  0.835  -0.06668
6.435e+09  0.8578  0.1103  -0.009024  0.02979  -0.03706  -0.02088  0.7313  -0.3842
6.436e+09  0.8521  -0.2346  -0.03783  -0.02678  0.02053  -0.04212  0.5845  -0.6138
6.438e+09  0.6725  -0.4892  0.01399  0.01118  0.03395  -0.04658  0.3714  -0.7616
6.439e+09  0.5087  -0.7616  -0.009034  -0.04321  0.005358  0.01113  0.008436  -0.8153
6.44e+09  0.1842  -0.8673  0.03027  0.005665  0.0171  0.03176  -0.1992  -0.8172
6.441e+09  -0.1136  -0.8694  -0.03802  -0.02562  -0.04767  -0.03567  -0.4694  -0.6624
6.442e+09  -0.3605  -0.8264  0.03765  0.02169  -0.02857  0.01063  -0.7428  -0.4578
6.444e+09  -0.6082  -0.6017  0.05306  -0.01527  -0.002814  -0.02309  -0.7909  -0.1791
6.445e+09  -0.7807  -0.4124  -0.01307  -0.02661  0.02059  -0.007104  -0.8375  0.08889
6.446e+09  -0.8576  -0.05607  -0.004474  0.01164  -0.02367  -0.005092  -0.6989  0.3462
6.448e+09  -0.8418  0.2339  0.009707  0.0001213  0.008227  -0.007403  -0.5765  0.5652
6.449e+09  -0.7435  0.5205  -0.01185  -0.0148  0.01207  0.02111  -0.3459  0.7632
6.45e+09  -0.5026  0.7704  0.01998  0.01442  -0.0292  0.00215  -0.0997  0.8429
6.451e+09  -0.218  0.8257  -0.01045  0.01661  0.002386  -0.01058  0.2119  0.7687
6.452e+09  0.09186  0.8791  -0.0373  0.01305  -0.0293  0.03895  0.5071  0.7089
6.454e+09  0.3956  0.7836  0.02407  -0.001816  0.004082  -0.0007779  0.6393  0.4958
6.455e+09  0.6203  0.6101  0.03829  -0.01666  -0.003319  -0.003215  0.758  0.222
6.456e+09  0.8134  0.3635  0.01072  0.01499  0.01328  -0.05136  0.8275  -0.1205
6.458e+09  0.8948  0.07549  -0.004443  -0.01885  -0.02027  0.01055  0.7704  -0.3884
6.459e+09  0.85  -0.2694  0.005809  0.02179  0.006254  0.007667  0.5951  -0.5796
6.46e+09  0.7116  -0.555  -0.02248  0.01981  0.01013  -0.01014  0.3461  -0.7241
6.461e+09  0.5217  -0.7464  0.02614  0.0162  0.009999  0.03873  0.08287  -0.7798
6.462e+09  0.2565  -0.8216  0.009808  -0.02942  -0.02756  -0.02819  -0.2264  -0.7396
6.464e+09  -0.07564  -0.8178  0.006772  0.003184  -0.01755  -0.01537  -0.4804  -0.687
6.465e+09  -0.3899  -0.7672  0.02196  -0.01454  -0.01858  0.009458  -0.6579  -0.4615
6.466e+09  -0.6612  -0.6042  -0.001803  -0.02097  0.02275  0.003469  -0.762  -0.2217
6.468e+09  -0.8479  -0.3396  -0.01905  0.05208  -0.001799  0.01017  -0.7711  0.08092
6.469e+09  -0.877  -0.05427  0.02524  -0.01841  0.01979  0.01431  -0.7286  0.3673
6.47e+09  -0.853  0.311  -0.03832  -0.006729  0.04755  0.01868  -0.5337  0.5638
6.471e+09  -0.7199  0.6112  -0.02797  -0.00228  0.001998  -0.07794  -0.3777  0.7411
6.472e+09  -0.5487  0.7552  -0.03073  0.008607  -0.0007371  -0.05764  -0.03021  0.7984
6.474e+09  -0.2049  0.8762  -0.008981  0.02023  0.005847  -0.01967  0.2331  0.7508
6.475e+09  0.1004  0.8966  -0.01145  0.05136  -0.009867  -0.002413  0.4731  0.6371
6.476e+09  0.4227  0.773  0.03609  -0.0007097  -0.03885  -0.02879  0.644  0.4652
6.478e+09  0.6538  0.5921  0.02161  0.01022  -0.002479  0.007452  0.734  0.1887
6.479e+09  0.8312  0.3544  0.02412  0.06876  -0.01943  0.009797  0.7996  -0.05965
6.48e+09  0.929  0.04271  0.01948  0.01755  -0.01148  0.04875  0.6998  -0.3689
6.481e+09  0.8665  -0.2992  0.03026  0.007948  0.0377  0.04629  0.5536  -0.5356
6.482e+09  0.7067  -0.5865  -0.03381  0.003398  -0.01135  -0.0239  0.2727  -0.7207
6.484e+09  0.4397  -0.767  0.02949  0.01874  -0.02964  0.04139  0.0571  -0.7551
6.485e+09  0.1484  -0.8323  -0.04105  -0.01673  0.01433  -0.02002  -0.2282  -0.7305
6.486e+09  -0.123  -0.9012  0.01171  0.03134  0.02683  0.003557  -0.4468  -0.6413
6.488e+09  -0.4062  -0.7725  -0.01707  0.005161  -0.003704  0.01203  -0.6245  -0.4443
6.489e+09  -0.6868  -0.5541  -0.01928  -0.008318  0.00277  0.003713  -0.7676  -0.2101
6.49e+09  -0.8555  -0.344  -0.0006354  0.0291  0.01691  0.051  -0.7447  0.07087
6.491e+09  -0.9406  -0.03605  0.01533  -0.003746  -0.02791  -0.01271  -0.689  0.3239
6.492e+09  -0.8713  0.3494  -0.02807  0.02069  0.003209  -0.002538  -0.5287  0.5578
6.494e+09  -0.6756  0.5686  -0.003418  -0.0107  0.03581  0.02948  -0.3074  0.7078
6.495e+09  -0.4776  0.7859  -0.001246  0.02338  -0.03333  -0.03864  -0.05285  0.7583
6.496e+09  -0.193  0.8945  0.01776  0.02391  -0.02133  -0.04528  0.2484  0.7006
6.498e+09  0.1496  0.9108  0.002766  0.02152  0.009841  0.001489  0.4464  0.6235
6.499e+09  0.465  0.8271  -0.001838  -0.02474  -0.05136  0.0299  0.5986  0.3918
6.5e+09  0.758  0.5905  -0.02295  -0.01366  -0.02404  -0.008916  0.7549  0.196
6.501e+09  0.8884  0.2834  -0.01025  0.004437  0.001402  -0.0293  0.7551  -0.08982
6.502e+09  0.9502  -0.02956  0.005688  -0.006025  0.008037  -0.01418  0.6628  -0.3328
6.504e+09  0.9057  -0.3388  -0.01945  0.01798  0.03163  -0.02055  0.501  -0.5576
6.505e+09  0.7074  -0.6522  -0.01621  0.009999  0.02391  -0.01981  0.2856  -0.6851
6.506e+09  0.4605  -0.8178  0.0131  -0.002057  0.0123  -0.0162  -0.009678  -0.7522
6.508e+09  0.1503  -0.9551  -0.008486  0.009483  0.008421  -0.01685  -0.2342  -0.6747
6.509e+09  -0.2634  -0.9563  -0.005538  0.002492  0.0371  0.01969  -0.507  -0.5833
6.51e+09  -0.525  -0.7917  0.02267  0.03168  0.01483  0.0264  -0.6513  -0.3839
6.511e+09  -0.7222  -0.5339  -0.01153  -0.03973  0.009645  0.009446  -0.6946  -0.13
6.512e+09  -0.8675  -0.2855  -0.02084  0.02883  0.01132  -0.0209  -0.744  0.1165
6.514e+09  -1.02  0.06255  0.01085  0.01222  -0.07369  -0.0396  -0.636  0.3708
6.515e+09  -0.9065  0.4523  0.01328  -0.001908  -0.01649  -0.03086  -0.4662  0.5855
6.516e+09  -0.683  0.6529  0.01117  -0.04223  0.03214  0.002729  -0.2608  0.7134
6.518e+09  -0.3664  0.8728  -0.03435  0.02946  0.04463  0.009944  0.02312  0.7408
6.519e+09  -0.06406  0.9149  0.01366  0.001243  0.01103  -0.006144  0.256  0.6607
6.52e+09  0.289  0.9284  -0.03046  -0.02435  0.01784  0.02961  0.4692  0.5543
6.521e+09  0.5519  0.8251  0.005233  0.008843  0.01504  -0.006855  0.6314  0.3506
6.522e+09  0.8161  0.5648  0.03113  0.01705  -0.05985  -0.02682  0.7198  0.1191
6.524e+09  0.8904  0.1916  -0.01576  -0.004077  -0.009807  -0.01696  0.7017  -0.155
6.525e+09  0.9349  -0.06214  0.005236  0.03806  0.02067  -0.01004  0.6011  -0.3839
6.526e+09  0.8729  -0.4157  0.02017  -0.003005  -0.03804  0.009799  0.4312  -0.5904
6.528e+09  0.6316  -0.7262  -0.01498  -0.00372  -0.04905  -0.01128  0.2009  -0.6831
6.529e+09  0.3436  -0.9082  0.02273  -0.0002137  0.007988  0.08103  -0.04226  -0.7143
6.53e+09  0.04625  -0.9794  0.009281  -0.01048  0.03087  0.0001527  -0.2762  -0.6136
6.531e+09  -0.3093  -0.9834  0.00927  0.002208  -0.0008253  0.006554  -0.473  -0.4877
6.532e+09  -0.5963  -0.7767  0.002299  -0.01258  0.008222  0.02655  -0.5689  -0.2734
6.534e+09  -0.8876  -0.4793  0.00212  -0.01246  -0.003814  0.04028  -0.6466  -0.04364
6.535e+09  -0.9517  -0.1204  0.003375  0.03173  -0.007661  0.006628  -0.6358  0.08847
6.536e+09  -0.9723  0.1822  -0.02065  -0.00175  0.006221  -0.03829  -0.5625  0.2947
6.538e+09  -0.8486  0.4907  0.02332  -0.008757  -0.05836  -0.01997  -0.4318  0.4724
6.539e+09  -0.6115  0.7432  0.02464  -0.01169  -0.01964  -0.0264  -0.2834  0.6012
6.54e+09  -0.2853  0.9414  0.01209  -0.006996  0.01534  -0.0361  -0.04515  0.6793
6.541e+09  -0.02117  0.9966  -0.01877  0.005905  -0.002323  -0.0216  0.1733  0.668
6.542e+09  0.3082  0.8511  -0.0112  -0.01003  -0.00943  0.01953  0.4174  0.5555
6.544e+09  0.6881  0.7507  -0.005454  -0.02121  0.001189  0.007869  0.5956  0.3852
6.545e+09  0.8949  0.3689  -0.01727  -0.006624  -0.008827  0.0288  0.6643  0.1648
6.546e+09  0.9689  0.02017  0.02077  0.0115  0.03174  -0.0459  0.7089  -0.07573
6.548e+09  0.9111  -0.2422  0.002114  -0.01484  -0.01554  -0.03665  0.6251  -0.3509
6.549e+09  0.8386  -0.5452  -0.01136  -0.01372  0.01071  -0.003205  0.463  -0.5275
6.55e+09  0.5302  -0.775  -0.03157  0.006874  0.001539  0.03532  0.2786  -0.6874
