# Hz S RI R 50
6.25e+09  -0.8156  0.009379  0.002171  -0.0003362  0.02436  -0.0307  0.1131  0.4682
6.251e+09  -0.7801  0.311  0.01468  -0.002152  0.02326  -0.04325  0.3416  0.4218
6.252e+09  -0.6061  0.5602  -0.02014  0.0007803  -0.008421  -0.04555  0.545  0.2253
6.254e+09  -0.3718  0.7089  -0.009721  -0.003356  -0.01747  -0.03235  0.5746  0.01488
6.255e+09  -0.08724  0.8468  -0.003788  0.01199  0.01865  0.009447  0.5888  -0.2164
6.256e+09  0.1888  0.8428  0.002214  -0.01978  0.003132  0.0685  0.4411  -0.4347
6.258e+09  0.4722  0.6338  0.003616  -0.02895  0.02792  -0.02189  0.2632  -0.5975
6.259e+09  0.67  0.4955  -0.00467  0.01315  -0.001356  0.004457  0.03742  -0.681
6.26e+09  0.7842  0.2427  -0.01323  0.01288  0.02356  -0.01882  -0.2209  -0.6557
6.261e+09  0.7725  -0.06662  -0.02111  0.008033  0.01177  -0.03264  -0.4305  -0.5489
6.262e+09  0.76  -0.3605  0.01914  -0.00453  0.03139  -0.01921  -0.6251  -0.3478
6.264e+09  0.5702  -0.5635  0.008648  -0.01319  0.02169  0.001367  -0.6962  -0.1333
6.265e+09  0.3205  -0.7382  0.01623  -0.0005904  0.01436  0.03795  -0.6891  0.1644
6.266e+09  0.06631  -0.7928  -0.005251  -0.007208  0.04094  0.003553  -0.5952  0.3994
6.268e+09  -0.1816  -0.7853  0.0235  0.006323  0.03721  -0.01327  -0.435  0.5541
6.269e+09  -0.4483  -0.7214  -0.02248  0.001728  -0.004613  -0.008732  -0.1977  0.6994
6.27e+09  -0.6842  -0.4495  -0.002057  -0.01603  0.006999  -0.0002734  0.09391  0.7509
6.271e+09  -0.7624  -0.2394  -0.02798  0.03144  -0.01977  0.05301  0.3073  0.6485
6.272e+09  -0.8021  0.1157  -0.0129  0.00601  -0.01415  0.0174  0.5594  0.5159
6.274e+09  -0.7147  0.3683  -0.0303  -0.01066  0.01055  0.04267  0.6777  0.299
6.275e+09  -0.5995  0.5786  0.006178  -0.0007461  -0.05008  0.03071  0.7247  0.03141
6.276e+09  -0.2973  0.7939  0.01367  0.02072  0.001224  -0.02213  0.7406  -0.213
6.278e+09  -0.08175  0.8328  -0.01317  0.01672  -0.04382  0.01139  0.6312  -0.477
6.279e+09  0.2368  0.7858  0.009584  -0.003537  -0.03401  0.001147  0.4236  -0.6599
6.28e+09  0.4301  0.6652  0.001497  0.01703  0.05004  0.05454  0.1613  -0.7463
6.281e+09  0.7075  0.4538  -0.03007  -0.002723  -0.02751  -0.01968  -0.06561  -0.7882
6.282e+09  0.7983  0.1636  -0.0001595  0.03981  -0.007989  -0.03513  -0.3822  -0.6517
6.284e+09  0.7567  -0.087  0.01093  -0.001273  0.02497  0.01373  -0.5842  -0.5038
6.285e+09  0.7441  -0.3724  -0.01318  -0.01412  0.02024  0.03078  -0.7343  -0.2802
6.286e+09  0.5327  -0.6244  0.01591  -0.01908  -0.0006152  0.02679  -0.7987  -0.01202
6.288e+09  0.2767  -0.7674  0.01445  -0.01598  -0.0139  -0.03837  -0.7612  0.2441
6.289e+09  0.06934  -0.8536  0.006479  0.01251  0.03303  -0.07218  -0.6014  0.5065
6.29e+09  -0.2768  -0.7985  0.02512  -0.005515  0.0285  -0.008728  -0.4332  0.7293
6.291e+09  -0.5038  -0.6098  -0.001055  0.02268  0.02356  -0.06804  -0.1678  0.778
6.292e+09  -0.7294  -0.4243  -0.02759  -0.006918  0.0281  -0.03628  0.1233  0.7658
6.294e+09  -0.8097  -0.1773  0.008224  0.03885  0.005051  0.04647  0.4276  0.7093
6.295e+09  -0.7905  0.1163  -0.02944  -0.01682  -0.003795  -0.05639  0.5921  0.5029
6.296e+09  -0.7834  0.4642  0.006471  0.009358  -0.0881  0.01012  0.7605  0.2941
6.298e+09  -0.5323  0.6149  -0.02688  0.01137  -0.02369  -0.01435  0.8668  0.01595
6.299e+09  -0.2576  0.7289  0.0222  0.02803  -0.02203  0.009088  0.766  -0.2782
6.3e+09  0.01852  0.7965  -0.001433  0.01232  0.01833  -0.01991  0.6295  -0.5299
6.301e+09  0.2576  0.7552  0.01883  -0.006837  -0.06074  -0.01621  0.4207  -0.7323
6.302e+09  0.5457  0.6118  -0.00597  -0.01853  0.05723  0.01557  0.167  -0.8384
6.304e+09  0.7326  0.4215  -0.01774  -0.002489  -0.002  -0.01405  -0.1568  -0.8199
6.305e+09  0.7972  0.1691  0.005155  0.01593  0.01136  -0.00476  -0.4108  -0.7625
6.306e+09  0.8601  -0.1598  -0.01194  -0.003056  -0.01687  -0.0391  -0.6214  -0.5341
6.308e+09  0.6948  -0.4462  0.001551  -0.02481  0.02216  -0.00459  -0.7899  -0.2553
6.309e+09  0.429  -0.656  -0.01462  -0.008326  0.05282  -0.01381  -0.8368  -0.01278
6.31e+09  0.1501  -0.8298  -0.02071  0.03866  0.01594  -0.02157  -0.7944  0.2668
6.311e+09  -0.02491  -0.8065  -0.02145  -0.02067  0.02302  0.01619  -0.6388  0.5421
6.312e+09  -0.268  -0.7315  1.419e-05  -0.002603  0.0003549  -0.02352  -0.4496  0.7143
6.314e+09  -0.5759  -0.6031  0.003508  -0.01446  -0.02279  0.01925  -0.1658  0.8802
6.315e+09  -0.7326  -0.3845  0.004931  -0.005379  -0.01117  -0.03377  0.1544  0.8613
6.316e+09  -0.8067  -0.05323  -0.003156  -0.001677  -0.051  -0.004607  0.4111  0.7533
6.318e+09  -0.7735  0.1667  0.008066  0.03507  0.03926  -0.01378  0.6682  0.5937
6.319e+09  -0.6871  0.4976  0.009944  -0.01066  -0.006812  0.05157  0.7972  0.3081
6.32e+09  -0.4629  0.6898  -0.003934  -0.02326  0.005665  -0.05839  0.8912  0.02119
6.321e+09  -0.2295  0.7809  -0.004706  -0.008209  0.05092  0.005  0.8283  -0.298
6.322e+09  0.08561  0.8062  0.01389  -0.0009477  -0.05317  0.009837  0.6997  -0.576
6.324e+09  0.3708  0.707  0.009162  -0.003592  0.04594  -0.01915  0.4822  -0.7373
6.325e+09  0.6486  0.5942  0.03107  -0.02066  0.007592  0.01455  0.1989  -0.866
6.326e+09  0.6897  0.3427  -0.0201  -0.00714  -0.01171  0.04276  -0.1483  -0.8767
6.328e+09  0.8302  -0.003825  -0.001523  0.05768  0.01872  -0.0005488  -0.4541  -0.7499
6.329e+09  0.7581  -0.2696  -0.01315  0.02087  -0.02554  0.02617  -0.6755  -0.5995
6.33e+09  0.7262  -0.5162  -0.008901  -0.02431  0.01484  -0.01333  -0.842  -0.34
6.331e+09  0.4237  -0.7313  0.02707  -0.002378  -0.002023  -0.06121  -0.9181  -0.01682
6.332e+09  0.1613  -0.8387  0.01018  0.01183  0.03487  0.02618  -0.8755  0.294
6.334e+09  -0.1352  -0.7804  0.01286  -0.02289  -0.05767  0.0195  -0.71  0.5477
6.335e+09  -0.4159  -0.7284  0.005315  -0.00827  0.00463  -0.01054  -0.4857  0.7751
6.336e+09  -0.6255  -0.5201  0.01823  -0.001333  0.03132  -0.01212  -0.1722  0.8972
6.338e+09  -0.8392  -0.2864  0.02572  -0.007331  -0.02822  0.03281  0.125  0.9388
6.339e+09  -0.8831  0.04569  -0.004604  0.02814  -0.03383  -0.02145  0.4451  0.8122
6.34e+09  -0.7522  0.3324  -0.003471  -0.004475  -0.02113  0.01758  0.7148  0.5968
6.341e+09  -0.6186  0.5599  0.02949  -0.01319  -0.03024  -0.04209  0.8508  0.365
6.342e+09  -0.3605  0.7395  -0.009038  0.01599  -0.006644  -0.05767  0.9241  0.03299
6.344e+09  -0.1064  0.7866  0.01334  0.03409  -0.02853  0.01764  0.8819  -0.228
6.345e+09  0.2252  0.8221  -0.003236  0.01362  0.008499  -0.002474  0.744  -0.5711
6.346e+09  0.5163  0.6914  0.01408  -0.007214  0.03523  0.01676  0.5034  -0.7871
6.348e+09  0.696  0.492  0.01498  -0.01474  -0.02643  0.02467  0.1869  -0.8716
6.349e+09  0.8428  0.2041  -0.006375  0.03185  0.004871  0.0006762  -0.1436  -0.963
6.35e+09  0.8352  -0.06724  -0.009562  0.0198  -0.002752  -0.00633  -0.4127  -0.8425
6.351e+09  0.7804  -0.4245  -0.03329  0.01173  0.02092  -0.03902  -0.6792  -0.6636
6.352e+09  0.5923  -0.6545  -0.01164  0.008576  0.02632  0.01525  -0.8467  -0.3822
6.354e+09  0.311  -0.7821  -0.001514  0.02018  0.03526  0.00128  -0.9212  -0.09946
6.355e+09  0.01462  -0.8195  0.004315  -0.02272  0.02321  -0.03594  -0.8988  0.2579
6.356e+09  -0.2504  -0.818  0.02896  -0.03472  0.01967  0.01167  -0.7567  0.5296
6.358e+09  -0.5417  -0.6608  -0.01173  -0.01095  0.04098  -0.01547  -0.5081  0.7979
6.359e+09  -0.7814  -0.404  -0.01301  0.005035  -0.008185  0.003507  -0.2351  0.907
6.36e+09  -0.845  -0.1503  -0.02296  -0.01289  -0.03837  0.02977  0.08037  0.9508
6.361e+09  -0.8902  0.1916  0.008928  -0.05477  -0.03755  -0.00674  0.4196  0.8471
6.362e+09  -0.7073  0.5039  0.01497  -0.01456  0.0257  0.03517  0.667  0.598
6.364e+09  -0.5394  0.6938  -0.03567  -0.03895  -0.002609  0.01067  0.8334  0.422
6.365e+09  -0.2532  0.8278  -0.02015  0.0314  0.0203  -0.007096  0.9255  0.06389
6.366e+09  0.04736  0.849  -0.006848  0.003752  0.0008418  -0.02205  0.9065  -0.2459
6.368e+09  0.3387  0.8092  -0.01904  -0.009252  -0.01189  -0.04535  0.766  -0.5488
6.369e+09  0.6536  0.6241  0.005773  0.02602  0.01755  0.01488  0.5754  -0.8061
6.37e+09  0.7743  0.3637  0.01361  0.02455  0.04173  -0.02911  0.1978  -0.8453
6.371e+09  0.8567  0.01936  -0.009773  0.01401  0.03516  0.003945  -0.1018  -0.9704
6.372e+09  0.8359  -0.1918  -0.02371  0.03792  -0.01265  -0.01948  -0.366  -0.9027
6.374e+09  0.7169  -0.5243  -0.001031  0.01926  0.004996  -0.008852  -0.6615  -0.662
6.375e+09  0.4908  -0.6863  0.006039  0.003338  0.002687  0.01759  -0.8296  -0.4271
6.376e+09  0.184  -0.8726  -0.0006327  -0.004267  -0.01719  -0.004001  -0.9107  -0.06321
6.378e+09  -0.08364  -0.8175  0.004518  0.01468  -0.02644  -0.03686  -0.9257  0.228
6.379e+09  -0.4336  -0.7492  0.01673  -0.01357  -0.003575  0.01623  -0.7781  0.5262
6.38e+09  -0.6646  -0.5282  -0.02147  -0.05678  0.006253  0.03876  -0.5521  0.7527
6.381e+09  -0.8295  -0.3049  -0.02505  0.03069  0.01318  0.001857  -0.2691  0.9311
6.382e+09  -0.8796  0.005759  0.03204  0.02589  -0.03778  0.03738  0.02926  0.9561
6.384e+09  -0.8236  0.3223  0.007446  -0.05404  0.03314  0.04596  0.3466  0.879
6.385e+09  -0.6472  0.5832  -0.01019  0.006462  0.01158  -0.005208  0.6765  0.6798
6.386e+09  -0.4366  0.839  -0.06066  -0.02034  -0.00348  0.01669  0.8348  0.4075
6.388e+09  -0.1039  0.8869  -0.03637  0.01216  -0.01332  0.04559  0.9483  0.1194
6.389e+09  0.2011  0.8748  -0.007822  -0.04715  0.01936  -0.00561  0.9121  -0.1956
6.39e+09  0.5519  0.7462  -0.02614  0.005069  -0.02124  0.04062  0.7549  -0.4732
6.391e+09  0.7515  0.4575  -0.003608  -0.04992  -0.003947  0.01187  0.6063  -0.7475
6.392e+09  0.7995  0.2162  -0.0239  0.004732  -0.02729  0.008936  0.3295  -0.8511
6.394e+09  0.8287  -0.1049  0.002552  0.002328  0.0225  -0.04632  -0.0329  -0.9437
6.395e+09  0.8157  -0.4157  -0.004388  0.0254  -0.0472  0.03299  -0.3187  -0.8195
6.396e+09  0.5936  -0.6191  0.01659  -0.000184  -0.01173  -0.0148  -0.616  -0.6761
6.398e+09  0.3107  -0.7939  -0.01454  -0.04653  0.002541  -0.03966  -0.8003  -0.4501
6.399e+09  0.05862  -0.8649  0.02081  0.02273  0.0175  -0.02621  -0.8548  -0.1548
6.4e+09  -0.2913  -0.8375  -0.04793  0.005345  -0.008544  0.03084  -0.8957  0.2026
6.401e+09  -0.5505  -0.7245  -0.023  -0.0542  -0.01669  0.01475  -0.7787  0.4723
6.402e+09  -0.6963  -0.4626  -0.002663  0.03128  -0.05345  -0.02208  -0.6029  0.6752
6.404e+09  -0.8735  -0.1662  0.01863  -0.02264  -0.01473  -0.0464  -0.3317  0.9116
6.405e+09  -0.8366  0.1743  0.03066  0.004087  -0.02457  0.05406  -0.006589  0.8806
6.406e+09  -0.7195  0.4149  0.02381  -0.0573  -0.0002372  0.002009  0.3122  0.8712
6.408e+09  -0.5788  0.6688  -0.01542  0.01501  0.02219  0.01374  0.5693  0.6807
6.409e+09  -0.2846  0.7979  0.0138  -0.02599  0.007678  -0.02867  0.764  0.4693
6.41e+09  0.04766  0.851  0.01498  0.003826  0.00494  -0.00283  0.8567  0.1744
6.411e+09  0.2962  0.8367  -0.01982  -0.02509  0.001996  -0.01543  0.8516  -0.1431
6.412e+09  0.5424  0.6342  0.01912  -0.002982  0.01075  -0.03226  0.8031  -0.4425
6.414e+09  0.7795  0.3959  0.003477  0.002487  -0.0167  -0.01218  0.5937  -0.6846
6.415e+09  0.8881  0.08651  -0.008234  0.006353  0.05304  -0.01994  0.3321  -0.8625
6.416e+09  0.8259  -0.1939  -0.06042  -0.04776  0.002091  -0.012  0.04333  -0.8825
6.418e+09  0.7309  -0.4796  -0.01464  -0.0298  -0.0247  -0.03222  -0.27  -0.835
6.419e+09  0.4755  -0.7286  0.06373  -0.01844  0.007466  0.007075  -0.5441  -0.7074
6.42e+09  0.2279  -0.8091  0.03148  0.03059  0.03643  0.01759  -0.7805  -0.4852
6.421e+09  -0.1154  -0.871  -0.01378  -0.01067  -0.05006  -0.02788  -0.8346  -0.1736
6.422e+09  -0.3543  -0.7738  -0.006129  0.004591  -0.06576  -0.04563  -0.8723  0.09513
6.424e+09  -0.6402  -0.5726  -0.007614  0.04192  -0.01781  -0.03865  -0.7638  0.4021
6.425e+09  -0.7428  -0.3914  -0.002841  0.02216  0.009882  0.001943  -0.5915  0.6381
6.426e+09  -0.8589  -0.08459  0.00504  0.01008  -0.03828  0.01415  -0.4011  0.8268
6.428e+09  -0.8537  0.2701  -0.01212  -0.01415  0.01967  0.004406  -0.1056  0.8683
6.429e+09  -0.7092  0.5194  0.008394  -0.01389  0.02759  -0.03868  0.2302  0.8182
6.43e+09  -0.4493  0.7462  -0.01155  0.01225  0.003914  0.01335  0.5276  0.7187
6.431e+09  -0.223  0.8533  -0.02426  -0.0273  0.01706  0.02439  0.7187  0.458
6.432e+09  0.08688  0.7978  0.005329  0.0529  -0.004098  0.01029  0.8474  0.1893
6.434e+09  0.4  0.7778  -0.02574  -0.02858  -0.0001094  -0.01496  0.841  -0.05265
6.435e+09  0.6165  0.6004  -0.02146  -0.0211  -0.00191  -0.01383  0.7746  -0.3875
6.436e+09  0.7736  0.2966  0.01653  -0.001439  0.0293  0.01502  0.5713  -0.6
6.438e+09  0.8519  0.06934  0.02326  -0.02922  -0.01156  -0.05259  0.3347  -0.7562
6.439e+09  0.8014  -0.2744  0.03333  -0.006063  0.01064  -0.02395  0.113  -0.8635
6.44e+09  0.6891  -0.5098  0.03196  -0.01178  0.0478  0.009121  -0.2352  -0.8319
6.441e+09  0.4137  -0.7271  0.04672  0.02545  0.01654  0.008348  -0.5018  -0.7218
6.442e+09  0.1987  -0.8057  0.01445  -0.02344  -0.01254  -0.01076  -0.6919  -0.4957
6.444e+09  -0.1218  -0.8293  0.006369  -0.01933  -0.000303  -0.004263  -0.8074  -0.2216
6.445e+09  -0.3894  -0.7597  -0.01769  -0.03946  0.01241  0.04125  -0.7946  0.1311
6.446e+09  -0.5934  -0.5986  0.002374  -0.009092  0.002911  -0.05687  -0.7883  0.3625
6.448e+09  -0.7991  -0.2996  0.0004261  0.01451  0.0366  0.03005  -0.6018  0.5655
6.449e+09  -0.852  -0.01399  -0.03121  0.00879  0.022  0.009552  -0.3405  0.7392
6.45e+09  -0.817  0.3084  -0.02029  -0.04369  -0.001252  -0.04928  -0.06867  0.8438
6.451e+09  -0.6567  0.5227  0.01143  0.004966  0.01165  -0.0473  0.2161  0.7818
6.452e+09  -0.4124  0.6947  0.04736  0.01816  0.03411  -0.02361  0.4901  0.6584
6.454e+09  -0.1204  0.8833  0.04105  -0.04102  -0.009156  -0.0006118  0.6409  0.4742
6.455e+09  0.1392  0.8375  -0.004457  -0.0481  0.008421  0.01963  0.7765  0.2274
6.456e+09  0.4497  0.7714  0.0006944  -0.004148  0.03426  0.0442  0.7893  -0.05574
6.458e+09  0.6454  0.56  0.008519  -0.01425  0.05003  0.04172  0.7199  -0.3736
6.459e+09  0.824  0.2648  -0.02272  0.007201  0.04652  0.0306  0.5809  -0.5973
6.46e+09  0.8571  -0.01445  -0.007092  -0.005521  0.002256  -0.0535  0.3622  -0.7687
6.461e+09  0.8354  -0.2849  0.006359  -0.01223  -0.008475  0.009135  0.02937  -0.8016
6.462e+09  0.6665  -0.5722  -0.0394  0.03768  0.001038  -0.004502  -0.2253  -0.772
6.464e+09  0.4299  -0.7733  -0.01847  0.03734  0.06043  0.03033  -0.4274  -0.6791
6.465e+09  0.1571  -0.851  0.01923  0.01568  0.005634  0.005296  -0.6499  -0.4427
6.466e+09  -0.1871  -0.7895  -0.008237  0.006373  0.0363  0.02058  -0.7929  -0.2041
6.468e+09  -0.4593  -0.7183  0.0006539  -0.02808  0.01803  -0.02188  -0.7731  0.06089
6.469e+09  -0.6097  -0.5597  0.01815  -0.004422  0.04543  0.0007424  -0.7337  0.3374
6.47e+09  -0.8447  -0.2697  -0.01556  -0.01062  -0.008549  0.009425  -0.5814  0.5423
6.471e+09  -0.8896  0.01838  0.01695  -0.009612  -0.03694  -0.02956  -0.3112  0.7095
6.472e+09  -0.7767  0.3476  0.02837  0.0008822  0.08978  0.0006137  -0.06505  0.7584
6.474e+09  -0.6582  0.5832  0.005747  0.0227  0.01861  0.004549  0.1968  0.7535
6.475e+09  -0.3503  0.7398  -0.01336  -0.0003041  -0.0148  0.009364  0.5061  0.6385
6.476e+09  -0.08453  0.8098  -0.001432  0.001695  -0.0172  -0.03587  0.6185  0.4478
6.478e+09  0.1301  0.8513  -0.01298  -0.02773  -0.01445  0.02012  0.7565  0.2326
6.479e+09  0.5192  0.7328  -0.03407  0.04893  0.00868  -0.03649  0.7662  -0.08095
6.48e+09  0.6965  0.5687  -0.03525  -0.02774  -0.03429  0.02376  0.6809  -0.2978
6.481e+09  0.8125  0.2726  0.01454  0.02574  0.01442  0.01145  0.5838  -0.5654
6.482e+09  0.8592  -0.01893  0.03192  0.005592  0.009541  0.04355  0.3064  -0.6992
6.484e+09  0.837  -0.3669  -0.01734  0.05456  0.006682  0.002273  0.08522  -0.745
6.485e+09  0.6441  -0.5802  -0.02269  -0.02163  -0.03204  -0.01671  -0.2235  -0.7805
6.486e+09  0.3793  -0.7818  -0.005947  0.02007  0.01406  0.002725  -0.4422  -0.586
6.488e+09  0.06157  -0.8573  -0.02722  -0.0314  0.02387  -0.03343  -0.6422  -0.4173
6.489e+09  -0.2518  -0.8105  0.02703  0.02307  -0.0376  0.02268  -0.7714  -0.1334
6.49e+09  -0.4671  -0.7217  0.02544  -0.01738  -0.05162  -0.00697  -0.7645  0.06269
6.491e+09  -0.6944  -0.5186  -0.006417  0.01709  -0.02129  -0.0247  -0.6677  0.3527
6.492e+09  -0.8289  -0.1846  -0.004608  0.02757  0.0302  -0.02489  -0.5525  0.4987
6.494e+09  -0.8569  0.05004  0.0547  0.03518  0.002204  -0.04496  -0.2566  0.6851
6.495e+09  -0.8148  0.3904  -0.0009413  -0.0359  -0.05247  0.01811  -0.07148  0.7936
6.496e+09  -0.5712  0.5958  0.01463  -0.00261  -0.02013  -0.01611  0.2213  0.7559
6.498e+09  -0.3273  0.7092  0.03162  -0.02333  -0.004567  -0.02831  0.4575  0.5877
6.499e+09  -0.06976  0.8705  -0.03118  0.02184  -0.009762  -0.03688  0.666  0.4087
6.5e+09  0.2105  0.8336  0.00409  0.03254  0.01705  0.001048  0.7056  0.1559
6.501e+09  0.4511  0.7318  0.003678  0.01433  0.0216  0.02281  0.7743  -0.1268
6.502e+09  0.7415  0.5122  0.007465  0.01792  0.01703  -0.04268  0.6269  -0.3127
6.504e+09  0.8987  0.2214  -0.007019  -0.007318  0.01263  0.02093  0.4922  -0.5698
6.505e+09  0.8877  -0.104  0.02249  0.02158  -0.02704  0.04026  0.2613  -0.696
6.506e+09  0.7739  -0.3813  -0.002873  -0.005846  0.01669  0.01361  0.05889  -0.7423
6.508e+09  0.5807  -0.6655  -0.001873  0.01452  -0.03567  0.03906  -0.2442  -0.7165
6.509e+09  0.3981  -0.8273  -0.02407  -0.007653  0.02332  0.04997  -0.4818  -0.6154
6.51e+09  0.0687  -0.8868  0.0002154  0.00163  -0.02627  -0.003559  -0.6251  -0.3763
6.511e+09  -0.2473  -0.8493  -0.002417  -0.009388  -0.01493  -0.01641  -0.7228  -0.1233
6.512e+09  -0.4879  -0.7703  0.001562  -0.006785  -0.02615  -0.03859  -0.699  0.147
6.514e+09  -0.729  -0.4921  -0.01419  -0.01571  -0.08871  -0.009413  -0.6658  0.3438
6.515e+09  -0.8703  -0.2182  0.02572  0.03525  -0.04288  0.0277  -0.4512  0.5692
6.516e+09  -0.8593  0.07167  0.04172  0.007975  0.01494  -0.00678  -0.2562  0.6924
6.518e+09  -0.8226  0.3833  0.007785  -0.01082  -0.04628  0.0623  -0.004691  0.7436
6.519e+09  -0.613  0.7002  -0.01687  0.001595  0.001937  -0.03917  0.2636  0.672
6.52e+09  -0.3845  0.8533  0.0006568  -0.02166  0.02417  -0.01983  0.4819  0.5538
6.521e+09  -0.05888  0.8769  0.001114  0.05999  0.001815  -0.03538  0.6595  0.3426
6.522e+09  0.3049  0.85  0.003305  0.01263  -0.01853  0.001018  0.734  0.102
6.524e+09  0.548  0.7217  -0.03604  0.005662  -0.04108  0.02519  0.7366  -0.1688
6.525e+09  0.8288  0.4681  -0.01848  -0.008322  -0.01555  0.02423  0.6189  -0.3858
6.526e+09  0.9503  0.1738  -0.02278  -0.01554  -0.0289  0.002441  0.4152  -0.5837
6.528e+09  0.9483  -0.1202  -0.00423  -0.004273  0.02708  0.0001691  0.1894  -0.6525
6.529e+09  0.8503  -0.4772  -0.00694  0.003634  0.007542  0.02621  -0.03664  -0.6994
6.53e+09  0.5547  -0.756  0.01204  0.0235  -0.01225  0.003088  -0.3201  -0.6229
6.531e+09  0.3481  -0.879  0.01073  -0.003638  -0.0482  -0.011  -0.4291  -0.4778
6.532e+09  -0.0008729  -0.9384  0.004047  0.009296  0.0002044  -0.002097  -0.5425  -0.2906
6.534e+09  -0.331  -0.9181  -0.02711  0.01742  -0.02387  0.0128  -0.6154  -0.07389
6.535e+09  -0.6065  -0.6812  0.00499  0.01735  0.01876  0.00535  -0.6387  0.1001
6.536e+09  -0.8259  -0.4723  0.006079  -0.0155  0.03696  -0.01116  -0.5649  0.3043
6.538e+09  -0.9154  -0.1199  -0.02889  -0.01774  0.03718  0.00956  -0.442  0.5113
6.539e+09  -0.8664  0.2202  0.002226  0.003584  0.03697  0.01569  -0.2291  0.613
6.54e+09  -0.849  0.5547  0.02116  0.01241  -0.01511  0.02152  -0.02934  0.7061
6.541e+09  -0.5653  0.7263  -0.0002831  -0.01368  -0.05239  -0.005144  0.1735  0.6551
6.542e+09  -0.2265  0.9373  -0.01029  -0.02749  -0.003259  0.02353  0.4216  0.5904
6.544e+09  0.05845  0.9945  0.01271  0.0007106  -0.05596  0.02212  0.5805  0.3931
6.545e+09  0.41  0.8213  0.01164  -0.005256  -0.002391  -0.01485  0.683  0.1684
6.546e+09  0.759  0.7109  -0.01167  -0.02161  0.01164  -0.01376  0.7401  -0.06821
6.548e+09  0.8658  0.3322  -0.009495  0.01542  0.01852  0.007753  0.6447  -0.3415
6.549e+09  0.9634  0.09643  0.01742  0.02804  0.04098  -0.02672  0.5307  -0.545
6.55e+09  0.8969  -0.3131  0.002062  0.01591  0.02232  0.02269  0.2978  -0.7019
