# Hz S RI R 50
6.25e+09  -0.6338  0.5638  0.01284  0.008449  -0.05728  -0.009684  0.1576  0.4521
6.251e+09  -0.4278  0.7303  -0.007199  -0.02575  -0.04573  0.0523  0.3837  0.4075
6.252e+09  -0.08484  0.8427  0.001615  -0.02769  -0.01539  0.08487  0.5333  0.2502
6.254e+09  0.1522  0.8444  0.01764  0.0108  0.04141  -0.06236  0.6088  0.03758
6.255e+09  0.4561  0.7009  -0.01838  -0.01617  -0.03987  0.0208  0.5998  -0.2092
6.256e+09  0.6852  0.4901  -0.008077  0.005822  0.005471  -0.02305  0.4592  -0.4587
6.258e+09  0.7816  0.3005  -0.02116  -0.0137  0.00477  -0.02198  0.2849  -0.5951
6.259e+09  0.8432  -0.03449  0.02631  -0.01026  -0.008814  -0.05606  0.07135  -0.6646
6.26e+09  0.8071  -0.2905  0.007964  -0.0009327  0.02058  0.01899  -0.187  -0.6637
6.261e+09  0.6542  -0.5347  0.008008  0.004469  0.01084  -0.005647  -0.4816  -0.5492
6.262e+09  0.4039  -0.7806  0.01411  0.01115  0.07023  0.0413  -0.6106  -0.3278
6.264e+09  0.09047  -0.8337  -0.02817  -0.04214  0.04608  -0.05532  -0.7121  -0.1161
6.265e+09  -0.1854  -0.8354  -0.004059  -0.002324  0.05715  0.0658  -0.6875  0.1886
6.266e+09  -0.51  -0.69  0.01865  0.03648  -0.05893  -0.03843  -0.5973  0.4388
6.268e+09  -0.6551  -0.5493  -0.01333  0.002136  -0.0202  -0.06751  -0.4242  0.5965
6.269e+09  -0.8445  -0.2645  0.00656  0.007658  0.008442  0.01908  -0.1865  0.691
6.27e+09  -0.8062  -0.04978  0.01276  -0.003215  0.0206  0.001455  0.06882  0.7679
6.271e+09  -0.7678  0.3501  0.04028  0.002796  -0.006545  -0.01479  0.3299  0.6391
6.272e+09  -0.6152  0.5996  0.03001  0.02439  -0.03693  -0.00168  0.5612  0.5269
6.274e+09  -0.4229  0.6699  0.007109  -0.00944  -0.006489  0.0112  0.6873  0.3228
6.275e+09  -0.1194  0.7979  -0.01295  0.01751  0.01142  -0.02595  0.7482  0.04902
6.276e+09  0.1669  0.8313  0.02256  0.01378  0.04136  0.01924  0.7326  -0.2276
6.278e+09  0.4504  0.7256  0.02905  -0.0008433  -0.01354  0.03808  0.5979  -0.4612
6.279e+09  0.6385  0.4941  0.01412  0.009806  -0.006619  0.0107  0.4325  -0.641
6.28e+09  0.7409  0.2273  0.01657  0.01352  0.008716  -0.01346  0.173  -0.7416
6.281e+09  0.8257  -0.0654  -0.03305  0.01496  0.0341  0.01968  -0.1063  -0.8283
6.282e+09  0.7642  -0.3367  0.006628  -0.008725  0.005622  -0.01838  -0.376  -0.6744
6.284e+09  0.5639  -0.5136  0.01299  0.0149  0.03096  0.006879  -0.5689  -0.5009
6.285e+09  0.4103  -0.6811  0.006851  0.02297  0.006865  -0.006111  -0.7219  -0.3195
6.286e+09  0.1548  -0.8274  0.01046  -0.01972  0.0457  0.0003362  -0.7842  -0.04719
6.288e+09  -0.2128  -0.8164  -0.002753  -0.003655  0.0411  -0.01791  -0.7474  0.2308
6.289e+09  -0.4781  -0.6837  -0.002128  -0.01211  0.004308  -0.02044  -0.6274  0.5219
6.29e+09  -0.6818  -0.541  0.03858  0.00613  -0.004073  -0.01416  -0.4283  0.6785
6.291e+09  -0.812  -0.2657  -0.01603  0.01215  0.03809  0.007242  -0.1315  0.8018
6.292e+09  -0.835  0.01421  -0.01897  -0.02068  -0.0413  0.03249  0.1224  0.7822
6.294e+09  -0.7709  0.3341  -0.00529  -0.01513  -0.003101  -0.002724  0.4136  0.6844
6.295e+09  -0.5764  0.5964  -0.007881  0.0003565  -0.008924  -0.0155  0.626  0.5222
6.296e+09  -0.3578  0.7654  -0.02688  0.01009  0.02534  0.04539  0.8016  0.2807
6.298e+09  -0.08741  0.7905  -0.0157  0.01759  0.05225  -0.0361  0.8197  0.02583
6.299e+09  0.2201  0.8282  0.03881  0.005128  -0.002466  0.03612  0.7509  -0.2643
6.3e+09  0.5301  0.6784  0.02426  -0.01018  -0.03363  0.03169  0.6548  -0.519
6.301e+09  0.6543  0.4294  0.004036  -0.02963  0.005042  0.004114  0.4421  -0.7313
6.302e+09  0.7471  0.203  0.01277  0.03666  0.01906  -0.000451  0.1484  -0.8125
6.304e+09  0.812  -0.1142  0.01087  0.0141  -0.009767  -0.01977  -0.1203  -0.8423
6.305e+09  0.7442  -0.393  -0.01784  0.005398  -0.0202  -0.02847  -0.425  -0.7464
6.306e+09  0.5928  -0.584  -0.01151  0.01927  0.04523  0.02082  -0.6663  -0.5651
6.308e+09  0.3136  -0.7638  -0.02414  -0.01855  2.975e-05  0.03237  -0.7963  -0.3217
6.309e+09  0.0173  -0.8783  0.001859  -0.00691  0.0003131  -0.02147  -0.8522  0.007112
6.31e+09  -0.2473  -0.7925  -0.00473  -0.01567  -0.0224  -0.004949  -0.822  0.2774
6.311e+09  -0.5445  -0.6291  -0.005119  0.008505  -0.002429  -0.02667  -0.6769  0.569
6.312e+09  -0.6941  -0.447  0.03392  -0.02735  -0.00095  -0.008345  -0.4711  0.7525
6.314e+09  -0.7769  -0.1391  -0.009484  -0.004529  0.03832  0.004264  -0.1591  0.8604
6.315e+09  -0.8158  0.122  -0.00302  0.02901  0.02708  0.004378  0.1598  0.8683
6.316e+09  -0.7271  0.3897  -0.03646  0.009484  -0.02874  0.002683  0.426  0.7834
6.318e+09  -0.5502  0.5766  0.01717  0.007221  0.02234  -0.0003077  0.6801  0.6043
6.319e+09  -0.3002  0.8204  -0.04048  0.01007  0.06868  0.04382  0.8271  0.3344
6.32e+09  -0.02883  0.8311  0.005065  0.02004  0.006336  0.01703  0.8883  -0.02325
6.321e+09  0.294  0.7512  0.02032  0.02453  -0.02321  0.003457  0.8471  -0.2895
6.322e+09  0.5497  0.6735  -0.01309  0.004631  -0.03427  0.006896  0.7068  -0.5522
6.324e+09  0.7267  0.42  0.006906  0.02053  -0.07178  0.005093  0.4535  -0.7589
6.325e+09  0.7777  0.14  -0.002387  0.006956  0.01794  -0.02515  0.1693  -0.9001
6.326e+09  0.8422  -0.1562  0.02445  -0.02704  0.01028  -0.01952  -0.1216  -0.8941
6.328e+09  0.7465  -0.3859  0.01694  0.02963  -0.01004  -0.003426  -0.4686  -0.7759
6.329e+09  0.5178  -0.6823  0.004505  0.05264  -0.01669  0.01521  -0.6985  -0.6062
6.33e+09  0.2427  -0.828  0.02321  0.002442  -0.001646  -0.02253  -0.8614  -0.3217
6.331e+09  0.02718  -0.8399  -0.01209  -0.0141  0.05019  0.008751  -0.8855  -0.02318
6.332e+09  -0.3186  -0.7885  0.03421  0.002743  0.0508  -0.01438  -0.8641  0.2848
6.334e+09  -0.6144  -0.644  -0.02041  -0.02731  0.02528  0.05348  -0.7087  0.5307
6.335e+09  -0.8095  -0.3729  0.02222  -0.006993  0.001465  -0.02251  -0.4998  0.7691
6.336e+09  -0.8426  -0.04963  0.03034  0.002687  -0.0006969  -0.0385  -0.1882  0.8994
6.338e+09  -0.8395  0.232  0.003307  0.009906  -0.001035  0.0214  0.1086  0.8857
6.339e+09  -0.7788  0.4743  -0.01046  0.01206  0.0614  -0.02214  0.4314  0.8144
6.34e+09  -0.4798  0.6706  0.00779  0.0275  -0.03879  0.04163  0.6789  0.6211
6.341e+09  -0.2113  0.8109  0.01319  0.0154  0.02817  -0.02226  0.8609  0.3926
6.342e+09  0.1223  0.8586  -0.01447  -0.01594  0.07495  -0.0346  0.9111  0.05361
6.344e+09  0.418  0.7773  0.01263  0.0007023  -0.00383  -0.04463  0.9069  -0.3173
6.345e+09  0.6468  0.6065  -0.01497  0.007286  0.006856  0.04436  0.7388  -0.5626
6.346e+09  0.82  0.3336  0.02765  0.01193  0.01991  0.009617  0.517  -0.7945
6.348e+09  0.8821  -0.02819  0.009054  -0.002961  0.03802  -0.03044  0.2036  -0.9011
6.349e+09  0.8283  -0.3017  0.00836  0.01119  0.04161  -0.01152  -0.09002  -0.9216
6.35e+09  0.6497  -0.558  -0.01619  -0.01105  0.01218  -0.04202  -0.4075  -0.8605
6.351e+09  0.4408  -0.725  -0.0194  -0.03433  -0.03783  0.002787  -0.6779  -0.6318
6.352e+09  0.1575  -0.8192  0.002823  -0.01294  -0.008635  -0.03027  -0.8421  -0.4001
6.354e+09  -0.1552  -0.9125  -0.05252  -0.012  0.01021  0.04245  -0.9529  -0.08091
6.355e+09  -0.4681  -0.781  0.005203  -0.003414  0.001208  0.01504  -0.8931  0.2552
6.356e+09  -0.7184  -0.4691  0.006025  -0.01146  0.004287  0.01338  -0.7678  0.5493
6.358e+09  -0.9142  -0.2476  0.04486  0.009254  0.004202  -0.006527  -0.5428  0.7887
6.359e+09  -0.872  0.05069  0.00473  0.02173  -0.00101  0.0392  -0.2431  0.9234
6.36e+09  -0.8028  0.3145  -0.04647  0.02175  -0.03398  0.02337  0.08455  0.9412
6.361e+09  -0.6049  0.6242  -0.003685  0.02164  0.04202  -0.02874  0.3931  0.8358
6.362e+09  -0.4092  0.8027  0.000764  0.004772  -0.008625  0.06955  0.647  0.6806
6.364e+09  -0.09576  0.864  -0.03683  -0.02722  0.003126  0.0007075  0.8468  0.4047
6.365e+09  0.1912  0.8256  -0.01267  0.02164  -0.018  -0.004007  0.9568  0.06462
6.366e+09  0.5425  0.7033  0.01319  -0.01712  0.03121  -0.01835  0.9064  -0.2411
6.368e+09  0.7244  0.4973  -0.03684  -0.006078  -0.003684  0.04976  0.7643  -0.5148
6.369e+09  0.8702  0.2319  -0.009921  -0.03125  -0.008445  0.01698  0.5498  -0.7931
6.37e+09  0.9192  -0.1028  -0.01211  -0.01257  0.03225  0.03455  0.2668  -0.9203
6.371e+09  0.7711  -0.3814  -0.02757  0.002326  0.02145  -0.00285  -0.08267  -0.9505
6.372e+09  0.5823  -0.6468  -0.03672  -0.01246  -0.02243  -0.03377  -0.4161  -0.8779
6.374e+09  0.3593  -0.8067  0.02609  -0.0005386  -0.02845  0.01152  -0.6364  -0.6433
6.375e+09  -0.004878  -0.8257  -0.002715  -0.01695  -0.001522  -0.01922  -0.8752  -0.4064
6.376e+09  -0.2516  -0.8142  -0.01727  0.01179  0.03687  0.03451  -0.9482  -0.08482
6.378e+09  -0.5537  -0.6905  0.005813  0.06188  -0.01514  0.01136  -0.9532  0.2265
6.379e+09  -0.7965  -0.491  -0.001719  -0.009384  -0.002905  0.02849  -0.7298  0.5194
6.38e+09  -0.8944  -0.1648  0.001425  -0.04406  0.009469  0.0007793  -0.5525  0.7784
6.381e+09  -0.8755  0.1526  0.01468  -0.009321  -0.06896  -0.01979  -0.2707  0.8889
6.382e+09  -0.7539  0.4305  -0.02827  0.02687  0.007991  0.05703  0.04118  0.9108
6.384e+09  -0.582  0.6584  0.009035  0.0023  -0.01828  0.04227  0.3273  0.848
6.385e+09  -0.2406  0.8103  -0.004974  0.0001722  -0.02254  0.05345  0.6492  0.711
6.386e+09  0.01904  0.8888  -0.01964  0.04403  0.03303  0.03222  0.8703  0.441
6.388e+09  0.3607  0.8144  0.02505  0.01871  0.01561  -0.02338  0.951  0.1208
6.389e+09  0.6249  0.6869  0.01747  -0.02501  -0.007465  0.01726  0.9219  -0.2233
6.39e+09  0.7576  0.3985  0.05207  -0.005722  0.005696  0.01079  0.7748  -0.5426
6.391e+09  0.8654  0.09641  -0.01016  0.02152  0.0007752  0.02873  0.5961  -0.7532
6.392e+09  0.8537  -0.2057  0.03801  -0.008428  0.00939  -0.02026  0.2722  -0.8508
6.394e+09  0.7336  -0.5071  -0.003287  -0.01729  0.01842  0.0289  -0.0113  -0.9272
6.395e+09  0.519  -0.7239  0.008826  -0.008948  0.004688  -0.001882  -0.3679  -0.8756
6.396e+09  0.2623  -0.7832  0.03319  0.02695  0.01986  0.0009083  -0.6172  -0.7138
6.398e+09  -0.07386  -0.8836  -0.001433  0.009613  -0.01281  0.01169  -0.8201  -0.452
6.399e+09  -0.3425  -0.8241  0.01637  -0.02513  -0.03408  0.004061  -0.8776  -0.1354
6.4e+09  -0.5962  -0.6512  -0.008936  0.003818  -0.02708  -0.07678  -0.9254  0.154
6.401e+09  -0.7816  -0.3533  0.01025  -0.008238  0.02249  0.008277  -0.7674  0.4576
6.402e+09  -0.8767  -0.1586  0.03192  -0.001127  0.01314  -0.00547  -0.5917  0.7178
6.404e+09  -0.8454  0.2353  -0.002748  0.01897  0.01664  -0.01286  -0.3135  0.8952
6.405e+09  -0.71  0.5266  0.03333  -0.007557  -0.005472  0.03903  0.008028  0.8961
6.406e+09  -0.5113  0.7401  0.007785  0.003913  -0.03212  -0.07023  0.2883  0.8358
6.408e+09  -0.2156  0.8678  -0.02633  -0.006999  -0.005068  -0.01071  0.6078  0.6489
6.409e+09  0.1243  0.875  0.05513  0.008399  0.006083  0.01749  0.7784  0.4461
6.41e+09  0.3986  0.7541  -0.03843  0.008551  0.003025  -0.02313  0.889  0.1939
6.411e+09  0.6235  0.5591  -0.01759  0.01173  -0.009559  -0.005749  0.8576  -0.162
6.412e+09  0.7989  0.3814  0.001491  -0.01163  0.008435  0.02341  0.7694  -0.437
6.414e+09  0.9124  0.0507  0.02923  -0.01874  -0.01518  -0.02348  0.5609  -0.6478
6.415e+09  0.8564  -0.2587  -0.026  -0.0007116  0.03259  0.002797  0.3329  -0.8325
6.416e+09  0.6662  -0.5348  0.03233  0.001567  -0.008416  -0.02983  0.04478  -0.9167
6.418e+09  0.5327  -0.7335  0.01844  -0.009308  0.01903  -0.01292  -0.2979  -0.875
6.419e+09  0.1648  -0.8609  -0.01774  -0.006204  0.04962  -0.04372  -0.5433  -0.7383
6.42e+09  -0.1005  -0.8675  0.0165  -0.01313  0.01271  0.01636  -0.7393  -0.4603
6.421e+09  -0.4444  -0.7563  -0.02462  -0.002693  0.01037  -0.02677  -0.8647  -0.1484
6.422e+09  -0.6824  -0.5561  0.008569  0.01096  -0.01253  0.02495  -0.8728  0.1209
6.424e+09  -0.79  -0.3559  -0.02931  -0.0109  0.01572  -0.003582  -0.7654  0.4001
6.425e+09  -0.8753  0.005627  0.00134  0.02385  0.01536  0.0008314  -0.5826  0.6359
6.426e+09  -0.7987  0.2567  0.0187  0.008308  -0.04226  -0.02587  -0.3501  0.7841
6.428e+09  -0.6753  0.5682  0.03061  0.01748  0.00193  0.01143  -0.02497  0.8673
6.429e+09  -0.4912  0.7777  0.01575  -0.03293  -0.03872  0.007711  0.2741  0.8497
6.43e+09  -0.09828  0.8497  0.002278  -0.02918  0.00668  0.01445  0.4862  0.7092
6.431e+09  0.08241  0.8637  -0.02049  -0.02993  -0.05296  -0.02766  0.7445  0.4684
6.432e+09  0.4455  0.7395  -0.04925  -0.01003  0.0657  0.01451  0.844  0.1808
6.434e+09  0.6787  0.5892  -0.06078  0.003428  0.000803  -0.01417  0.83  -0.1076
6.435e+09  0.8413  0.2686  0.06029  -0.01045  -0.03901  0.01036  0.7947  -0.3758
6.436e+09  0.8  0.02979  -0.01219  0.01348  0.002329  -0.023  0.5916  -0.6106
6.438e+09  0.8253  -0.262  -0.03129  0.0007334  0.05056  0.02597  0.3588  -0.7622
6.439e+09  0.6124  -0.5735  -0.00449  0.01005  0.004318  0.01864  0.09101  -0.866
6.44e+09  0.4183  -0.7801  0.0185  0.0181  -3.837e-06  -0.002056  -0.2239  -0.8137
6.441e+09  0.145  -0.8407  -0.02258  -0.03244  0.01327  0.03735  -0.4657  -0.7064
6.442e+09  -0.1584  -0.8706  -0.007027  -0.02747  -0.04092  -0.0129  -0.7016  -0.4469
6.444e+09  -0.4097  -0.7712  0.0495  0.01125  -0.01889  -0.01422  -0.8254  -0.2239
6.445e+09  -0.6814  -0.5322  -0.02101  -0.009277  0.03885  -0.01552  -0.8388  0.04982
6.446e+09  -0.8205  -0.3134  0.005372  -0.03431  0.004364  0.03069  -0.7708  0.3856
6.448e+09  -0.8631  0.02594  -0.007724  -0.03189  -0.03951  0.0133  -0.5707  0.625
6.449e+09  -0.845  0.3086  0.04148  0.02131  0.03698  -0.02541  -0.3353  0.7667
6.45e+09  -0.6766  0.5452  -0.01619  -0.01232  0.0005685  0.0228  -0.1097  0.8544
6.451e+09  -0.3556  0.7136  0.01156  -0.03125  0.0004944  0.007828  0.2486  0.8422
6.452e+09  -0.1277  0.8611  0.03216  -0.01299  -0.0259  0.05367  0.4955  0.6809
6.454e+09  0.1769  0.8517  0.005781  0.00465  0.02284  0.02374  0.6899  0.4727
6.455e+09  0.4066  0.7514  -0.02265  0.06068  -0.03207  0.0007727  0.7505  0.2485
6.456e+09  0.6953  0.5999  -0.04014  0.01462  0.02626  0.007801  0.8193  -0.06551
6.458e+09  0.8115  0.3116  0.002023  0.03699  -0.05287  -0.0007679  0.7397  -0.346
6.459e+09  0.8844  -0.008985  -0.02327  0.03045  0.01046  0.02373  0.6115  -0.5344
6.46e+09  0.8166  -0.2961  -0.03746  -0.04087  0.002175  0.03031  0.3392  -0.7318
6.461e+09  0.6371  -0.6056  0.04245  -0.04163  -0.007747  0.03464  0.08503  -0.8375
6.462e+09  0.4673  -0.7558  0.02417  0.002753  0.009429  -0.01678  -0.182  -0.7691
6.464e+09  0.1217  -0.8433  -0.02753  0.01735  -0.009444  0.02737  -0.4772  -0.6616
6.465e+09  -0.2126  -0.8759  -0.01626  0.001928  0.008643  -0.04164  -0.6398  -0.4591
6.466e+09  -0.4566  -0.7776  -0.06453  -0.007205  0.01604  0.02908  -0.776  -0.2362
6.468e+09  -0.7109  -0.5336  -0.01973  -0.0123  0.02033  0.007533  -0.798  0.0628
6.469e+09  -0.8555  -0.2883  -0.01252  -0.04976  0.039  -0.01877  -0.7255  0.3347
6.47e+09  -0.8147  0.0001084  0.018  -0.06439  -0.001764  0.03489  -0.5887  0.5628
6.471e+09  -0.7633  0.3118  -0.03597  0.002245  0.03327  0.02525  -0.3296  0.7041
6.472e+09  -0.6844  0.569  -0.007649  -0.01159  -0.004527  -0.007922  -0.02944  0.7555
6.474e+09  -0.4506  0.8223  -0.01307  0.03318  0.01251  -0.03166  0.1977  0.7741
6.475e+09  -0.1051  0.9007  -0.01072  0.01287  0.007051  -0.001802  0.4933  0.6504
6.476e+09  0.1867  0.8437  -0.005344  0.04249  -0.008621  0.02783  0.6771  0.4736
6.478e+09  0.4773  0.7232  0.002322  0.0007108  0.006505  -0.01454  0.7783  0.1989
6.479e+09  0.7071  0.608  -0.06151  0.03179  0.001567  -0.03279  0.8062  -0.07633
6.48e+09  0.8455  0.2939  0.04354  0.009814  -0.02642  -0.009393  0.7319  -0.3644
6.481e+09  0.864  -0.0772  -0.04657  0.006672  -0.01058  -0.005791  0.5686  -0.534
6.482e+09  0.7801  -0.3404  0.04928  -0.005932  0.02218  0.02719  0.2738  -0.7182
6.484e+09  0.6281  -0.5735  0.006612  0.0008588  -0.00968  0.02786  0.06882  -0.7756
6.485e+09  0.4129  -0.797  0.04295  -0.06144  0.0224  0.03482  -0.2546  -0.7387
6.486e+09  0.07331  -0.9018  0.01216  0.0009781  0.004019  -0.01025  -0.4494  -0.6703
6.488e+09  -0.1814  -0.8355  0.02142  -0.01494  -0.01531  0.0104  -0.6378  -0.4393
6.489e+09  -0.477  -0.7177  0.02628  0.002162  0.02202  0.001517  -0.7615  -0.1773
6.49e+09  -0.7018  -0.5601  -0.02499  -0.008673  0.004182  -0.008616  -0.7321  0.09352
6.491e+09  -0.8282  -0.2301  -0.001577  0.003327  0.03045  0.0477  -0.7422  0.3511
6.492e+09  -0.9016  0.04433  -0.01935  -0.005286  -0.03984  0.01649  -0.4799  0.5499
6.494e+09  -0.8477  0.3172  0.01294  -0.0252  -0.03216  0.01864  -0.2886  0.7041
6.495e+09  -0.627  0.6378  -0.007991  -0.02652  0.00908  -0.05907  -0.0391  0.7323
6.496e+09  -0.3972  0.8051  -0.01803  -0.008438  0.01304  0.01446  0.2325  0.7189
6.498e+09  -0.06491  0.8816  0.03786  0.0144  -0.01287  0.0008379  0.4725  0.6463
6.499e+09  0.2179  0.9091  -0.02153  0.007045  0.01157  0.05993  0.6191  0.4114
6.5e+09  0.4893  0.733  0.009744  0.02893  0.04374  0.03851  0.7419  0.1333
6.501e+09  0.7158  0.4559  -0.0001214  0.003602  -0.00702  0.01893  0.7549  -0.1333
6.502e+09  0.8872  0.2469  0.0354  0.01152  0.05624  -0.01779  0.665  -0.3525
6.504e+09  0.9032  -0.07856  0.01833  0.006438  -0.02936  -0.03209  0.4977  -0.5268
6.505e+09  0.8249  -0.4129  -0.01924  0.005484  0.04115  0.004358  0.2466  -0.6667
6.506e+09  0.6691  -0.6027  -0.007473  0.01097  0.0002984  0.01709  0.01409  -0.7638
6.508e+09  0.3961  -0.7998  -0.01114  0.04512  0.002955  0.02951  -0.2411  -0.6876
6.509e+09  0.04692  -0.9466  0.01282  -0.05254  0.0248  0.04009  -0.4764  -0.584
6.51e+09  -0.2306  -0.9061  0.04805  0.02612  -0.02295  -0.02917  -0.631  -0.3947
6.511e+09  -0.5328  -0.7317  0.03772  0.01192  0.02341  0.02148  -0.7189  -0.1563
6.512e+09  -0.7484  -0.5098  -0.04419  0.01138  -0.009718  0.05781  -0.7431  0.136
6.514e+09  -0.8584  -0.3127  0.03096  -0.004612  0.03782  -0.04193  -0.6619  0.3394
6.515e+09  -0.9334  0.1099  0.02378  -0.01445  -0.02462  -0.01379  -0.4922  0.5608
6.516e+09  -0.8733  0.4331  0.02229  -0.003896  -0.01534  0.03243  -0.3067  0.698
6.518e+09  -0.655  0.6659  -0.01543  -0.00511  0.01206  -0.05759  0.01232  0.7297
6.519e+09  -0.3821  0.8938  0.005286  -0.01194  0.02346  0.03378  0.2565  0.6731
6.52e+09  -0.08498  0.9446  -0.02263  -0.003689  -0.04807  0.05308  0.4631  0.5171
6.521e+09  0.2973  0.9224  0.01267  -0.003615  0.03697  -0.01159  0.6265  0.3449
6.522e+09  0.5936  0.7583  0.01347  0.02433  -0.0005716  0.007025  0.7169  0.1165
6.524e+09  0.8442  0.4904  -0.003533  -0.002367  0.02678  0.01348  0.6997  -0.1603
6.525e+09  0.9285  0.2372  0.0108  0.009686  0.005997  0.03719  0.5941  -0.3924
6.526e+09  1.009  -0.1357  -0.0105  0.01186  -0.004316  -0.0407  0.4517  -0.5912
6.528e+09  0.8243  -0.4716  0.01375  -0.007112  0.004603  -0.02708  0.2217  -0.6602
6.529e+09  0.6273  -0.7518  -0.003436  -0.02355  -0.001279  0.002417  -0.04728  -0.6544
6.53e+09  0.3419  -0.9083  -0.007834  0.04024  0.03671  -0.02621  -0.3285  -0.6581
6.531e+09  -0.005994  -1.022  0.02146  -0.0009232  -0.01416  0.03945  -0.4401  -0.4379
6.532e+09  -0.3457  -0.9102  -0.04208  -0.02306  0.03363  -0.04377  -0.5718  -0.2612
6.534e+09  -0.6416  -0.7498  -0.001907  -0.001967  -0.01829  -0.01593  -0.5776  -0.1028
6.535e+09  -0.8807  -0.5221  0.0168  0.01099  0.002725  0.02871  -0.6196  0.1254
6.536e+09  -0.9276  -0.123  0.003647  -0.001404  0.000382  -0.02886  -0.5724  0.3054
6.538e+09  -0.9883  0.2388  0.01392  0.005866  0.02765  0.02773  -0.4458  0.4532
6.539e+09  -0.8066  0.4971  0.02725  0.0123  -0.02127  0.001485  -0.2578  0.5796
6.54e+09  -0.609  0.776  -0.01578  -0.01839  -0.01503  0.03079  -0.1212  0.7223
6.541e+09  -0.2503  0.9218  0.02231  -0.003539  0.0106  0.002287  0.189  0.6662
6.542e+09  0.02804  0.9466  0.006426  0.03789  0.008804  -0.01981  0.4082  0.5886
6.544e+09  0.35  0.8654  0.002115  -0.001495  0.05184  -0.01339  0.6008  0.4206
6.545e+09  0.6659  0.7032  -0.0002784  -0.00271  0.03309  0.0008946  0.6997  0.1592
6.546e+09  0.8613  0.4027  -0.03319  -0.01357  -0.01154  0.01001  0.6778  -0.08665
6.548e+09  0.9477  0.1008  0.01506  -0.01243  0.05691  -0.009519  0.6614  -0.3363
6.549e+09  0.8858  -0.3065  0.02593  0.01231  -0.002234  -0.0469  0.4801  -0.5286
6.55e+09  0.8021  -0.5768  0.01302  0.002585  -0.04139  -0.04132  0.3008  -0.6832
