# Hz S RI R 50
6.25e+09  -0.5323  0.617  0.006208  0.01245  -0.0101  0.007698  0.1488  0.4564
6.251e+09  -0.3562  0.732  0.009637  -0.006044  -0.02497  -0.03241  0.3573  0.4024
6.252e+09  -0.04164  0.7589  0.003315  -0.01838  -0.03291  0.08774  0.561  0.2512
6.254e+09  0.2778  0.8271  -0.02979  0.004166  -0.02717  -0.006032  0.6416  0.03112
6.255e+09  0.4679  0.6935  -0.02774  0.01334  0.03625  -0.04391  0.5887  -0.2339
6.256e+09  0.7416  0.4483  0.01802  0.02983  -0.01445  -0.01297  0.464  -0.4444
6.258e+09  0.8176  0.2022  0.01783  0.001132  0.03559  -0.01197  0.2879  -0.5812
6.259e+09  0.8569  -0.1526  -0.02422  0.006732  0.03927  0.01742  0.03145  -0.6638
6.26e+09  0.7318  -0.3698  0.01897  -0.01352  -0.02335  -0.05164  -0.2193  -0.6381
6.261e+09  0.5677  -0.5599  -0.004405  0.0008692  -0.01662  -0.0075  -0.4672  -0.5257
6.262e+09  0.3917  -0.7563  0.00138  -0.02123  -0.06138  0.04737  -0.6084  -0.3326
6.264e+09  0.03899  -0.7821  0.002919  0.008584  -0.05132  0.04888  -0.7072  -0.1117
6.265e+09  -0.2049  -0.8475  0.0152  -0.03627  -0.01229  -0.04417  -0.7211  0.1453
6.266e+09  -0.4778  -0.7314  -0.006994  0.03536  -0.003257  -0.006318  -0.6086  0.4056
6.268e+09  -0.7011  -0.4666  0.01257  -0.01015  0.008427  0.0585  -0.453  0.5994
6.269e+09  -0.8417  -0.2163  0.0001802  -0.03174  0.01699  -0.0185  -0.2063  0.7206
6.27e+09  -0.8286  0.07485  0.03438  0.0221  -0.01132  0.01936  0.05954  0.7751
6.271e+09  -0.7338  0.3513  0.02514  0.02409  0.01687  0.01356  0.3081  0.6513
6.272e+09  -0.5964  0.6083  -0.02216  -0.02154  0.01944  -0.005605  0.5598  0.5205
6.274e+09  -0.3328  0.7448  -0.01687  -0.02026  0.03953  -0.0603  0.6727  0.2844
6.275e+09  -0.07783  0.8154  -0.01167  0.036  0.06344  -0.03367  0.8019  0.02915
6.276e+09  0.251  0.8017  -0.01291  -0.01059  0.03234  -0.00652  0.7273  -0.2611
6.278e+09  0.5281  0.6603  0.01347  0.02528  -0.008597  -0.0002514  0.5963  -0.4497
6.279e+09  0.6933  0.3943  -0.01617  -0.03453  -0.0006127  0.02923  0.4431  -0.6788
6.28e+09  0.8083  0.163  0.0003025  0.003012  -0.03719  -0.0186  0.1869  -0.7437
6.281e+09  0.7888  -0.1031  0.01387  0.001112  -0.00916  0.01266  -0.07472  -0.7732
6.282e+09  0.7455  -0.3652  -0.01537  -0.01037  0.0465  0.0294  -0.3721  -0.6986
6.284e+09  0.5314  -0.6195  0.0131  0.00476  0.03383  0.03162  -0.5688  -0.5245
6.285e+09  0.3424  -0.7075  -0.0124  0.01627  -0.01355  0.0136  -0.7164  -0.3092
6.286e+09  0.02704  -0.8496  -0.0316  0.006832  0.02339  0.01597  -0.7888  -0.01733
6.288e+09  -0.2695  -0.7635  0.01423  0.007503  -0.0272  0.002795  -0.771  0.2409
6.289e+09  -0.5062  -0.5987  -0.001849  0.03319  0.04088  -0.02191  -0.6477  0.4955
6.29e+09  -0.7361  -0.4544  0.002087  0.009087  -0.002665  0.04918  -0.3901  0.6886
6.291e+09  -0.8414  -0.1141  -0.01261  0.006412  0.02189  -0.03216  -0.1332  0.8043
6.292e+09  -0.8443  0.1725  -0.001525  0.000366  -0.0542  0.0212  0.1319  0.7806
6.294e+09  -0.7254  0.3592  0.02517  -0.02062  0.05559  0.01629  0.4025  0.705
6.295e+09  -0.5363  0.6154  -0.01421  -0.01395  -0.01426  -0.04823  0.6447  0.5456
6.296e+09  -0.2694  0.6966  -0.01531  0.002564  0.01939  0.01256  0.7889  0.2779
6.298e+09  0.01499  0.8339  0.005735  0.02681  0.02983  -0.01013  0.8133  0.01305
6.299e+09  0.2946  0.7891  -0.007624  0.03489  -0.03056  0.02598  0.8051  -0.2637
6.3e+09  0.477  0.6162  -0.003773  0.002629  -0.02653  0.0006121  0.6498  -0.5397
6.301e+09  0.7507  0.4115  0.003108  -0.01398  0.03755  0.07345  0.432  -0.7198
6.302e+09  0.7774  0.1241  -0.01531  -0.008217  0.007208  -0.0162  0.1387  -0.8421
6.304e+09  0.7927  -0.1245  -0.03488  0.009271  -0.004768  0.006123  -0.1455  -0.8564
6.305e+09  0.7116  -0.4148  0.002997  -0.01229  -0.02471  -0.04913  -0.4205  -0.7318
6.306e+09  0.5329  -0.6469  -0.01349  -4.564e-05  0.02206  0.01123  -0.6321  -0.5644
6.308e+09  0.2363  -0.7845  -0.005378  0.01961  0.04457  -0.03912  -0.799  -0.2908
6.309e+09  -0.01755  -0.8379  -0.004517  -0.002758  -0.08173  0.04648  -0.8397  -0.009438
6.31e+09  -0.273  -0.779  0.01312  -0.006187  -0.009752  -0.02948  -0.8101  0.3006
6.311e+09  -0.5859  -0.6216  0.01041  0.01536  -0.01528  -0.01539  -0.7166  0.6136
6.312e+09  -0.7397  -0.3539  0.001516  0.01459  -0.009086  0.03938  -0.4153  0.7498
6.314e+09  -0.8084  -0.07231  0.01142  0.02526  -0.007282  -0.003733  -0.1559  0.8492
6.315e+09  -0.7892  0.1728  -0.006616  -0.009862  0.04646  -0.00656  0.1264  0.8744
6.316e+09  -0.6944  0.43  -0.000398  -0.01294  -0.02703  -0.0402  0.4113  0.7802
6.318e+09  -0.5264  0.6382  -0.003766  0.009908  0.002559  -0.004968  0.6798  0.5404
6.319e+09  -0.2776  0.8085  0.01285  -0.04419  0.02508  0.002872  0.8051  0.2956
6.32e+09  0.02887  0.8831  -0.001799  0.007052  -0.04353  -0.02621  0.8663  0.02879
6.321e+09  0.368  0.7328  0.01411  0.005324  -0.004746  -0.003595  0.8449  -0.2711
6.322e+09  0.6049  0.6135  0.01886  0.008645  0.03837  -0.001627  0.6985  -0.5299
6.324e+09  0.741  0.3569  -0.007466  -0.001178  0.037  0.01032  0.442  -0.7778
6.325e+09  0.8825  0.04651  -0.004442  0.01591  -0.0169  -0.01257  0.1787  -0.8585
6.326e+09  0.7864  -0.2405  0.01021  0.009297  0.02344  0.004383  -0.133  -0.8811
6.328e+09  0.7081  -0.5054  0.01539  -0.009694  -0.007962  -0.00299  -0.4312  -0.7907
6.329e+09  0.5237  -0.6798  -0.004361  -0.002043  -0.006313  0.06099  -0.6691  -0.5973
6.33e+09  0.1621  -0.85  0.02158  -0.01271  -0.05059  -0.004298  -0.8348  -0.3341
6.331e+09  -0.09474  -0.9027  -0.01074  -0.02236  0.0145  0.003274  -0.9063  -0.01026
6.332e+09  -0.4237  -0.7773  -5.332e-05  -9.484e-05  0.01556  -0.03791  -0.8615  0.2677
6.334e+09  -0.64  -0.5745  -0.009494  -0.02936  0.00748  -0.0131  -0.6873  0.5439
6.335e+09  -0.7887  -0.2965  -0.0006287  0.03149  0.04465  -0.03197  -0.4819  0.7642
6.336e+09  -0.8749  0.03297  0.02485  -0.01323  0.06163  0.02218  -0.2059  0.8669
6.338e+09  -0.8606  0.277  0.01233  0.03882  0.0104  0.006076  0.1244  0.8956
6.339e+09  -0.6391  0.5374  0.00454  -0.01943  -0.02091  0.02308  0.4221  0.8141
6.34e+09  -0.4152  0.7867  0.03887  -0.01011  -0.01703  0.02524  0.6538  0.6223
6.341e+09  -0.1916  0.8636  -0.01887  -0.006294  -0.005234  -0.02702  0.8471  0.3391
6.342e+09  0.1802  0.8426  -0.0301  -0.01026  -0.006827  0.002104  0.9455  0.01282
6.344e+09  0.442  0.7488  0.035  -0.001369  0.03475  -0.01299  0.8524  -0.2437
6.345e+09  0.7222  0.5527  -0.005289  -0.01723  -0.02217  -0.02682  0.725  -0.5784
6.346e+09  0.8215  0.3104  0.009978  0.005277  0.02281  -0.00995  0.5023  -0.7746
6.348e+09  0.8247  -0.04411  0.002161  -0.0001975  0.0218  -0.006342  0.2246  -0.9187
6.349e+09  0.8506  -0.3528  0.02328  -0.003714  -0.004447  -0.02185  -0.1286  -0.9122
6.35e+09  0.6714  -0.6377  -0.0114  0.02949  0.02984  -0.006501  -0.4354  -0.8633
6.351e+09  0.4047  -0.7435  -0.03799  -0.001194  0.0008727  0.015  -0.6405  -0.6636
6.352e+09  0.06791  -0.8731  0.03543  0.01169  0.01934  -0.03323  -0.8459  -0.3772
6.354e+09  -0.2079  -0.8774  -0.04016  -0.04991  -0.06024  0.02753  -0.8877  -0.07608
6.355e+09  -0.4958  -0.6911  0.02998  -0.01221  -0.01812  -0.05531  -0.9293  0.2585
6.356e+09  -0.713  -0.5018  0.02352  -0.01704  0.005198  0.007527  -0.7457  0.546
6.358e+09  -0.8792  -0.2234  0.01919  -0.001751  -0.001693  -0.05742  -0.5579  0.775
6.359e+09  -0.8817  0.1131  0.04129  -0.0113  0.04321  0.002009  -0.2007  0.9016
6.36e+09  -0.7883  0.4102  0.03697  -0.01756  0.03427  -0.04174  0.09783  0.9533
6.361e+09  -0.6217  0.6919  -0.001528  0.01363  -0.005852  0.001065  0.4161  0.8182
6.362e+09  -0.3449  0.8475  -0.004156  -0.002051  -0.02872  0.02821  0.6559  0.6489
6.364e+09  -0.05017  0.8609  0.01054  -0.005455  0.04271  0.01299  0.8422  0.4075
6.365e+09  0.3007  0.8581  -0.01794  -0.009887  0.01316  -0.04998  0.922  0.07096
6.366e+09  0.5638  0.688  -0.02692  -0.0228  0.009251  -0.01395  0.9247  -0.2501
6.368e+09  0.8096  0.4513  -0.02826  -0.001273  0.006558  0.01606  0.7474  -0.5067
6.369e+09  0.8698  0.1775  0.009716  0.01072  -0.04125  0.01161  0.5386  -0.7752
6.37e+09  0.8762  -0.1742  -0.01689  0.02062  0.001799  -0.01963  0.2434  -0.9214
6.371e+09  0.7421  -0.4839  -0.0231  0.03557  0.03421  0.02802  -0.08891  -0.9383
6.372e+09  0.5682  -0.7095  -0.007457  0.007129  -0.02122  -0.02174  -0.4108  -0.8842
6.374e+09  0.298  -0.8253  0.02492  0.0322  0.01325  -0.02809  -0.6638  -0.7019
6.375e+09  -0.004334  -0.9168  0.006451  0.03411  -0.009322  -0.02734  -0.877  -0.4646
6.376e+09  -0.3269  -0.7586  -0.04421  0.02159  -0.004256  -0.03748  -0.9387  -0.08345
6.378e+09  -0.6131  -0.7153  0.0245  -0.01727  -0.006187  -0.01779  -0.9314  0.2053
6.379e+09  -0.7786  -0.4235  0.01374  0.02469  0.01551  0.002994  -0.8057  0.5165
6.38e+09  -0.9091  -0.08552  0.04409  0.02416  0.01352  -0.01332  -0.5636  0.7851
6.381e+09  -0.8579  0.2228  0.02128  -0.03862  0.03507  0.002946  -0.2603  0.89
6.382e+09  -0.7208  0.4924  0.00938  -0.03512  0.006183  0.02138  0.05487  0.9266
6.384e+09  -0.5093  0.7745  -0.02713  -0.01647  -0.06902  0.01142  0.3671  0.8773
6.385e+09  -0.2277  0.8715  -0.003589  -0.00328  -0.01066  0.003075  0.6558  0.7161
6.386e+09  0.01967  0.9078  0.01932  0.01304  0.006679  0.01201  0.857  0.4433
6.388e+09  0.39  0.8226  -0.02867  -0.01814  0.006264  -0.01585  0.9476  0.08447
6.389e+09  0.6351  0.6164  -0.002208  0.0208  -0.03334  0.005029  0.9122  -0.1887
6.39e+09  0.7964  0.3342  -0.00874  1.854e-05  -0.01098  0.06874  0.7806  -0.5255
6.391e+09  0.8981  0.04959  0.01699  -0.01523  -0.008537  0.000338  0.5836  -0.7686
6.392e+09  0.8739  -0.2481  -0.0009495  -0.003094  0.009039  -0.03337  0.2688  -0.8856
6.394e+09  0.7548  -0.522  -0.008343  -0.05221  -0.01569  0.01407  -0.01039  -0.9575
6.395e+09  0.481  -0.7578  -0.0225  0.03604  -0.002075  -0.05313  -0.328  -0.8474
6.396e+09  0.2373  -0.8661  -0.01961  -0.02954  -0.0157  0.01627  -0.5986  -0.6947
6.398e+09  -0.1278  -0.8915  0.01277  -0.05518  -0.007284  0.001108  -0.7865  -0.4639
6.399e+09  -0.3917  -0.7981  -0.02433  -0.008201  0.003339  0.02104  -0.9213  -0.1273
6.4e+09  -0.6974  -0.5797  -0.02142  0.02967  0.001293  0.03136  -0.9222  0.1805
6.401e+09  -0.8095  -0.3359  -0.04888  -0.0004872  0.007875  0.006033  -0.7982  0.4604
6.402e+09  -0.8778  -0.02952  0.00527  0.001917  -0.001824  0.01648  -0.5764  0.7417
6.404e+09  -0.831  0.2845  0.01152  -0.004003  -0.01043  0.05762  -0.3303  0.8679
6.405e+09  -0.6745  0.5349  -0.01123  -0.03433  -0.006471  -0.006978  -0.02877  0.8825
6.406e+09  -0.4365  0.7609  0.001906  0.01841  0.05379  0.009531  0.3227  0.8685
6.408e+09  -0.197  0.889  0.002591  -0.005761  -0.03123  -0.02493  0.561  0.7027
6.409e+09  0.1407  0.8758  0.001925  0.005868  -0.008502  0.01703  0.7301  0.4555
6.41e+09  0.4463  0.7355  -0.02432  0.02455  -0.02259  0.0006722  0.8578  0.1519
6.411e+09  0.6743  0.5547  0.02037  0.002046  0.0182  -0.01831  0.8726  -0.1394
6.412e+09  0.8039  0.3057  0.03735  0.0154  0.0212  0.001174  0.7848  -0.3772
6.414e+09  0.8767  -0.02654  0.007325  -0.01356  -0.04847  -0.009933  0.5923  -0.6744
6.415e+09  0.8187  -0.2723  -0.003336  -0.01316  -0.03606  -0.02398  0.3634  -0.8784
6.416e+09  0.6625  -0.5697  0.05264  0.02916  0.01071  -0.01073  0.05762  -0.8747
6.418e+09  0.4356  -0.7746  -0.01535  0.03238  -0.009298  0.00458  -0.2851  -0.8781
6.419e+09  0.1008  -0.8936  0.006437  0.01584  0.02298  0.01223  -0.5493  -0.6932
6.42e+09  -0.131  -0.8437  -0.03966  -0.002062  0.05018  0.02417  -0.7737  -0.4871
6.421e+09  -0.4193  -0.7295  0.002056  -0.02498  0.01437  0.03215  -0.8507  -0.1824
6.422e+09  -0.6629  -0.5296  -0.005667  -0.02617  0.01596  0.03361  -0.9232  0.07559
6.424e+09  -0.8498  -0.3  -0.0009635  -0.01545  0.009139  0.05496  -0.7903  0.4271
6.425e+09  -0.7957  0.06761  0.07955  -0.05554  -0.01228  -0.01558  -0.5834  0.6076
6.426e+09  -0.8362  0.3873  0.07892  0.05621  -0.01135  -0.03992  -0.3668  0.808
6.428e+09  -0.6566  0.5407  -0.002033  0.005301  0.01779  0.03614  -0.03312  0.8711
6.429e+09  -0.4251  0.7369  -0.04183  0.02798  0.01695  0.009612  0.2763  0.8649
6.43e+09  -0.1003  0.9127  -0.01784  -0.01297  0.002691  -0.01712  0.502  0.714
6.431e+09  0.1993  0.8026  0.003906  -0.01361  -0.02546  -0.0005786  0.7131  0.4894
6.432e+09  0.4557  0.78  0.01636  -0.009919  0.0473  0.0153  0.7923  0.2004
6.434e+09  0.6357  0.5319  -0.004205  0.005835  0.01378  -0.02601  0.8594  -0.07839
6.435e+09  0.8331  0.2923  -0.02521  0.001799  0.02735  -0.03486  0.7875  -0.4006
6.436e+09  0.8717  -0.04116  -0.01886  0.04271  -0.01564  0.001553  0.5905  -0.6473
6.438e+09  0.7534  -0.35  -0.002258  0.02114  0.02409  0.02836  0.3377  -0.7791
6.439e+09  0.6264  -0.5943  0.008545  0.007532  0.01061  0.000355  0.07704  -0.8425
6.44e+09  0.3901  -0.7638  -0.01407  -0.01698  0.03626  0.01895  -0.2063  -0.8619
6.441e+09  0.09436  -0.8501  -0.02395  0.0001116  0.02055  0.02053  -0.4874  -0.6885
6.442e+09  -0.1735  -0.8641  0.01619  -0.01889  0.02012  0.01708  -0.6923  -0.4788
6.444e+09  -0.5061  -0.7076  0.01195  0.0009536  -0.01702  0.00975  -0.8154  -0.2181
6.445e+09  -0.6719  -0.5521  0.004385  0.0175  0.01779  -0.01868  -0.8574  0.0485
6.446e+09  -0.852  -0.2281  -0.01036  0.00221  -0.04217  -0.03785  -0.774  0.3923
6.448e+09  -0.8588  0.06545  0.02066  0.01723  0.02132  -0.02889  -0.6057  0.6129
6.449e+09  -0.8158  0.3093  0.0162  0.02791  0.00668  -0.005906  -0.3681  0.7741
6.45e+09  -0.6317  0.591  -0.01737  0.01905  -0.04102  0.0143  -0.05704  0.7965
6.451e+09  -0.4351  0.739  -0.01653  0.005191  0.01677  -0.005248  0.2224  0.781
6.452e+09  -0.1046  0.8132  -0.008619  -0.01852  0.01411  -0.0106  0.4574  0.6101
6.454e+09  0.1891  0.8279  -0.01001  -0.02167  0.003849  0.02647  0.7489  0.4793
6.455e+09  0.4787  0.7259  0.01182  0.0301  0.04001  0.02284  0.8335  0.2442
6.456e+09  0.7364  0.5425  -0.01692  -0.02454  0.0138  0.02111  0.8055  -0.09941
6.458e+09  0.8636  0.271  0.000771  0.08331  0.01531  0.03559  0.7048  -0.3904
6.459e+09  0.8714  -0.0859  0.01  -0.03682  -0.03753  -0.04107  0.573  -0.5791
6.46e+09  0.7642  -0.3574  -0.03238  0.04064  0.0654  0.01087  0.3465  -0.6938
6.461e+09  0.6421  -0.5565  0.03333  0.03256  0.05135  -0.02455  0.1065  -0.7966
6.462e+09  0.3816  -0.7609  -0.04986  -0.02571  -0.004639  0.01805  -0.2016  -0.7703
6.464e+09  0.133  -0.8486  0.04252  0.02317  0.08291  0.01822  -0.4539  -0.6261
6.465e+09  -0.2365  -0.8518  0.02502  -0.0009812  -0.008441  0.007362  -0.7043  -0.4894
6.466e+09  -0.4908  -0.7009  0.01693  0.004385  -0.02662  -0.006161  -0.7785  -0.2179
6.468e+09  -0.7126  -0.499  0.009999  0.009337  -0.02686  -0.04298  -0.7926  0.08439
6.469e+09  -0.8299  -0.2362  -0.03453  0.01415  0.09024  -0.009578  -0.698  0.3373
6.47e+09  -0.8339  0.1048  -0.0009321  -0.03726  0.001797  -0.02957  -0.5695  0.5326
6.471e+09  -0.7667  0.3647  -0.0006424  0.01749  -0.02841  0.01274  -0.3236  0.7298
6.472e+09  -0.6182  0.6315  0.009077  0.02891  -0.0108  0.0126  -0.04255  0.7697
6.474e+09  -0.3392  0.8012  -0.01393  -0.03598  -0.02369  0.008236  0.1941  0.7316
6.475e+09  -0.08929  0.945  0.02217  0.02769  -0.0416  -0.04571  0.4311  0.6308
6.476e+09  0.1966  0.8747  -0.009044  0.02317  0.03483  0.04279  0.6466  0.4346
6.478e+09  0.5227  0.695  0.0007543  -0.01085  -0.04436  -0.03334  0.7768  0.1596
6.479e+09  0.7543  0.5335  -0.05163  -0.02334  0.03789  -0.004549  0.7536  -0.125
6.48e+09  0.8468  0.2107  -0.04314  -0.0263  0.0492  0.02957  0.697  -0.3445
6.481e+09  0.897  -0.1126  -0.008065  0.0236  0.04156  0.01105  0.5518  -0.5728
6.482e+09  0.7791  -0.4052  0.002769  -0.03954  -0.04665  0.03049  0.3165  -0.7042
6.484e+09  0.6129  -0.6617  -0.06564  -0.004464  0.01539  0.006771  0.008348  -0.7293
6.485e+09  0.3318  -0.814  0.005264  0.02916  0.00133  0.01012  -0.1885  -0.734
6.486e+09  0.02549  -0.8749  0.04332  -0.001859  0.0676  0.05352  -0.4464  -0.6321
6.488e+09  -0.215  -0.8184  -0.005215  -0.02201  0.005057  -0.02615  -0.6379  -0.4124
6.489e+09  -0.5588  -0.8084  0.02673  -0.01231  0.1082  -0.05011  -0.7299  -0.2037
6.49e+09  -0.7774  -0.4932  0.01561  0.01454  0.01018  0.04355  -0.7528  0.09391
6.491e+09  -0.8498  -0.2263  0.01328  -0.01515  0.000134  0.05019  -0.7096  0.3552
6.492e+09  -0.9519  0.1159  0.02419  -0.002706  0.05698  0.01831  -0.4939  0.5631
6.494e+09  -0.7924  0.3875  0.003532  -0.01037  0.000126  0.04603  -0.2835  0.7119
6.495e+09  -0.5851  0.6332  0.00465  0.004234  0.03631  -0.05164  -0.06227  0.7491
6.496e+09  -0.3166  0.8567  0.02076  0.0158  0.03893  -0.03373  0.1891  0.7581
6.498e+09  -0.05816  0.9012  0.02567  -0.03464  -0.02226  -0.02559  0.4338  0.5917
6.499e+09  0.2383  0.9036  0.02347  -0.03979  -0.003704  0.01972  0.6636  0.4185
6.5e+09  0.5003  0.7198  0.004674  0.01526  -0.01653  0.00801  0.7241  0.1416
6.501e+09  0.771  0.5057  -0.007136  0.003103  -0.001595  -0.003967  0.779  -0.09183
6.502e+09  0.8614  0.2334  -0.003852  0.008173  -0.001212  0.003115  0.6759  -0.362
6.504e+09  0.9303  -0.1169  -0.01728  0.03602  0.009261  0.01308  0.4931  -0.6154
6.505e+09  0.8029  -0.442  -0.004519  -0.00448  0.02421  0.01429  0.2908  -0.69
6.506e+09  0.6447  -0.7316  0.03032  0.02812  0.01216  0.02488  0.02476  -0.7431
6.508e+09  0.3472  -0.8451  0.03184  -0.04009  0.03614  0.003509  -0.2488  -0.7206
6.509e+09  -0.006048  -0.9626  0.001987  0.006153  -0.0102  0.02168  -0.459  -0.6042
6.51e+09  -0.2848  -0.8417  -0.03532  0.03274  0.0144  0.0161  -0.6255  -0.3962
6.511e+09  -0.5776  -0.7306  0.003252  0.02239  0.03002  0.02222  -0.7295  -0.1036
6.512e+09  -0.8672  -0.5033  0.02551  0.02029  5.864e-05  0.01715  -0.7355  0.1507
6.514e+09  -0.9174  -0.1341  -0.03467  0.007153  0.04776  -0.07912  -0.649  0.3858
6.515e+09  -0.9555  0.1324  0.03603  0.00673  -0.008503  0.02909  -0.532  0.6081
6.516e+09  -0.8204  0.482  0.00671  0.01131  0.004143  0.01163  -0.2138  0.7208
6.518e+09  -0.624  0.7399  -0.01017  -0.01706  0.05665  -0.02149  0.002735  0.7
6.519e+09  -0.3559  0.9464  0.02154  0.01019  0.0001698  -0.007699  0.2732  0.6904
6.52e+09  0.04532  0.9419  -0.0159  -0.03968  -0.003203  -0.01773  0.4869  0.592
6.521e+09  0.3427  0.8651  -0.0227  0.006579  0.01245  0.006425  0.6303  0.3447
6.522e+09  0.6441  0.7424  -0.02376  -0.01168  -0.01432  0.01141  0.7025  0.1215
6.524e+09  0.7997  0.4506  0.005787  0.0037  0.0251  -0.04877  0.721  -0.1579
6.525e+09  1.007  0.1419  -0.01072  -0.0131  0.03401  -0.03187  0.6316  -0.3969
6.526e+09  0.963  -0.2156  0.0009842  0.002838  0.006809  0.01905  0.4123  -0.6028
6.528e+09  0.7944  -0.4926  -0.0009097  0.007714  -0.03587  -0.002516  0.1714  -0.6414
6.529e+09  0.5537  -0.7413  -0.0519  0.02283  0.04338  -0.03001  -0.04214  -0.6911
6.53e+09  0.3068  -0.8809  -0.005276  0.01742  0.001155  0.008503  -0.2663  -0.6397
6.531e+09  -0.01108  -0.991  -0.01568  0.003591  -0.002136  0.01696  -0.456  -0.4625
6.532e+09  -0.4091  -0.902  -0.002851  0.01212  -0.03415  0.008268  -0.5771  -0.2754
6.534e+09  -0.6491  -0.6948  0.02311  -0.01753  0.02279  0.04783  -0.6064  -0.09225
6.535e+09  -0.882  -0.4735  -0.002473  0.005923  0.06887  0.05716  -0.6068  0.09868
6.536e+09  -0.9508  -0.0757  -0.01087  -0.0004551  0.004158  0.04297  -0.5705  0.306
6.538e+09  -0.9503  0.2454  0.005382  0.01142  -0.005827  -0.00142  -0.4527  0.4467
6.539e+09  -0.7566  0.571  0.004755  0.00207  0.04569  0.0009951  -0.2734  0.6193
6.54e+09  -0.5553  0.844  -0.009696  -0.02011  0.0171  0.03136  -0.05106  0.661
6.541e+09  -0.2488  0.8966  0.001881  0.006478  0.01765  0.01951  0.1527  0.6634
6.542e+09  0.1479  0.9509  0.02573  0.01362  0.02066  0.009215  0.3775  0.5839
6.544e+09  0.4542  0.8858  -0.001422  0.008766  -0.006382  -0.02743  0.6013  0.3972
6.545e+09  0.6534  0.678  0.006951  0.002565  0.009189  -0.004796  0.6966  0.1589
6.546e+09  0.8584  0.396  -0.008049  0.002252  -0.00812  0.001712  0.7096  -0.08792
6.548e+09  0.9231  -0.01884  0.01526  0.02806  -0.01191  -0.03932  0.6514  -0.3359
6.549e+09  0.9415  -0.3084  0.01803  -0.007324  -0.01139  0.04192  0.5109  -0.5437
6.55e+09  0.7279  -0.5985  -0.02894  0.02126  0.0343  0.03136  0.2797  -0.648
6.551e+09  0.454  -0.8651  0.01307  0.007334  0.01168  0.002909  0.02372  -0.752
