# Hz S RI R 50
6.25e+09  -0.7362  0.4508  -0.01152  9.333e-05  0.06636  -0.007286  0.1574  0.4758
6.251e+09  -0.5235  0.645  0.02151  0.01847  0.03152  0.06769  0.3899  0.4161
6.252e+09  -0.2648  0.7653  0.002353  -0.001769  0.009824  0.003683  0.5342  0.2556
6.254e+09  -0.02483  0.8505  -0.01733  -0.01658  0.0672  0.03618  0.6037  0.02603
6.255e+09  0.2901  0.7356  -0.02453  0.01467  -0.01832  -0.005375  0.5882  -0.2278
6.256e+09  0.5521  0.6103  0.01401  0.00972  0.04533  -0.005979  0.4665  -0.4504
6.258e+09  0.7776  0.4256  -3.115e-06  -0.01489  -0.009459  0.05403  0.2968  -0.5874
6.259e+09  0.8164  0.1395  0.006722  0.03167  0.003445  0.04402  0.04414  -0.6373
6.26e+09  0.825  -0.1909  -0.00668  0.02061  0.04741  -0.008552  -0.1965  -0.6325
6.261e+09  0.6518  -0.4186  0.02654  0.00913  0.03187  0.01773  -0.4475  -0.5566
6.262e+09  0.5242  -0.6652  -0.008534  -0.02592  -0.0006558  -0.005951  -0.6159  -0.308
6.264e+09  0.2509  -0.8505  0.00344  0.001653  -0.01518  -0.04119  -0.6988  -0.09709
6.265e+09  -0.05113  -0.8487  0.01051  0.004548  0.01304  0.03422  -0.6713  0.1691
6.266e+09  -0.3497  -0.7499  -0.003277  -0.0004391  -0.01244  -0.01336  -0.6028  0.416
6.268e+09  -0.5261  -0.6016  0.03493  0.02488  -0.007386  -0.01753  -0.4234  0.592
6.269e+09  -0.7924  -0.4147  0.01527  0.002631  -0.03778  -0.05958  -0.2133  0.7119
6.27e+09  -0.8074  -0.1179  -0.01902  -0.004625  0.01034  0.01242  0.03197  0.7163
6.271e+09  -0.7777  0.2343  0.006726  0.02439  -0.008982  0.01979  0.3277  0.6547
6.272e+09  -0.6833  0.4273  0.001962  0.006309  -0.02925  -0.005658  0.5405  0.5031
6.274e+09  -0.5141  0.6346  -0.01761  0.03825  -0.03825  -0.02145  0.6619  0.3147
6.275e+09  -0.2288  0.795  0.01112  0.01774  -0.02467  -0.01695  0.754  0.02243
6.276e+09  0.05341  0.7782  0.02428  -0.0005696  0.028  -0.03924  0.7166  -0.222
6.278e+09  0.3181  0.8021  0.01963  0.03124  0.04236  0.008998  0.6003  -0.4642
6.279e+09  0.533  0.603  0.004678  -0.004651  0.003591  0.03943  0.432  -0.6459
6.28e+09  0.7009  0.3695  0.01514  -0.005164  0.0358  -0.004595  0.1924  -0.7444
6.281e+09  0.7846  0.06237  0.0204  -0.01735  -0.01425  -0.001378  -0.1315  -0.7897
6.282e+09  0.7706  -0.2389  0.01029  -0.005561  -0.02374  -0.006759  -0.3806  -0.7063
6.284e+09  0.6762  -0.4514  0.008514  0.008591  0.01873  -0.02345  -0.5824  -0.5273
6.285e+09  0.5395  -0.6923  0.009591  -0.01395  -0.02777  -0.0003007  -0.7212  -0.2867
6.286e+09  0.2618  -0.7824  0.01344  -0.04317  0.02648  0.01215  -0.7865  -0.007586
6.288e+09  -0.04535  -0.8186  -0.01125  -0.000736  -0.0408  0.03851  -0.7506  0.2275
6.289e+09  -0.2673  -0.7431  -0.000439  -0.01472  0.01122  -0.007021  -0.6129  0.4734
6.29e+09  -0.5918  -0.575  0.0002094  -0.0007199  0.01048  -0.03362  -0.3987  0.7045
6.291e+09  -0.7091  -0.3711  -0.01153  -0.01351  -0.02267  0.01961  -0.1344  0.7594
6.292e+09  -0.8204  -0.09742  0.002915  0.00886  -0.007016  -0.02565  0.1158  0.7984
6.294e+09  -0.7621  0.2241  0.02463  0.01173  -0.01318  -0.04558  0.3621  0.7239
6.295e+09  -0.6341  0.4484  0.008924  -0.003316  0.04054  -0.02674  0.6255  0.5273
6.296e+09  -0.4764  0.6787  0.006376  0.01219  -0.02471  -0.01264  0.7963  0.2883
6.298e+09  -0.1553  0.8013  0.01869  -0.01617  0.05503  -0.0218  0.8449  0.02746
6.299e+09  0.08779  0.8384  -0.02255  0.01125  -0.005304  0.004448  0.8289  -0.2807
6.3e+09  0.3453  0.7266  -0.01033  -0.01185  0.01061  0.02765  0.6433  -0.5259
6.301e+09  0.5914  0.6163  0.00236  -0.001442  0.005665  -0.004547  0.4145  -0.7083
6.302e+09  0.7299  0.2742  0.01952  0.009582  -0.01543  -0.0008586  0.1587  -0.8183
6.304e+09  0.8299  0.01401  0.01957  -0.01705  -0.005372  -0.02619  -0.1055  -0.8057
6.305e+09  0.7624  -0.2791  0.02128  0.01283  -0.01507  -0.0231  -0.4487  -0.7197
6.306e+09  0.6768  -0.4997  0.007221  -0.0316  -0.0312  0.03643  -0.6539  -0.5568
6.308e+09  0.4447  -0.6883  0.009053  -0.01442  -0.01705  0.04065  -0.8051  -0.3283
6.309e+09  0.19  -0.7873  -0.0137  -0.00146  0.01444  -0.0317  -0.8566  0.003182
6.31e+09  -0.1168  -0.8062  -0.008716  0.005441  -0.01963  -0.01727  -0.8345  0.2793
6.311e+09  -0.3785  -0.7575  -0.01216  0.002436  0.03187  0.02506  -0.6549  0.5705
6.312e+09  -0.6191  -0.5642  -0.002288  0.003434  -0.01522  0.02355  -0.4606  0.775
6.314e+09  -0.704  -0.2995  0.005852  0.02951  0.01318  -0.02617  -0.1576  0.8877
6.315e+09  -0.8123  -0.006479  0.003649  -0.04079  0.004038  -0.005928  0.1381  0.8729
6.316e+09  -0.7972  0.267  0.01151  -0.01589  0.008239  -0.005967  0.451  0.7681
6.318e+09  -0.6593  0.5836  0.01847  0.006507  0.002506  -0.04245  0.6578  0.5473
6.319e+09  -0.4011  0.6797  -0.02783  0.001761  -0.0326  0.03875  0.8423  0.303
6.32e+09  -0.1567  0.7968  0.03261  0.02025  -0.03426  -0.01253  0.8556  0.02278
6.321e+09  0.187  0.7822  0.01686  -0.01819  0.05454  -0.01996  0.8335  -0.304
6.322e+09  0.4492  0.7674  -0.004929  -0.01844  0.0129  -0.001924  0.7009  -0.5565
6.324e+09  0.6463  0.5183  -0.009049  0.0161  -0.002024  0.037  0.4877  -0.7672
6.325e+09  0.7678  0.2553  0.012  -0.01517  0.01186  0.01284  0.1851  -0.8938
6.326e+09  0.8119  -0.004163  -0.004873  -0.01281  0.05497  0.0129  -0.1661  -0.9217
6.328e+09  0.7655  -0.3343  0.01993  -0.006878  0.01263  0.003453  -0.3938  -0.771
6.329e+09  0.6184  -0.5812  0.004164  -0.03651  0.02464  -0.02517  -0.6388  -0.5747
6.33e+09  0.3446  -0.7329  -0.03257  0.001766  0.02489  0.01166  -0.8397  -0.3089
6.331e+09  0.09378  -0.8088  0.00237  0.02128  -0.01589  -0.07483  -0.8745  -0.04795
6.332e+09  -0.1923  -0.8152  0.01613  -0.006096  0.01114  0.02052  -0.888  0.2438
6.334e+09  -0.5109  -0.7112  0.02669  0.01998  0.003326  0.02463  -0.6912  0.5466
6.335e+09  -0.7189  -0.5087  0.01022  0.01189  -0.06316  0.01767  -0.4855  0.8017
6.336e+09  -0.8572  -0.2254  -0.01896  0.02137  0.03732  0.01493  -0.1947  0.9026
6.338e+09  -0.8741  0.05202  0.0003438  -0.01067  0.02141  -0.01932  0.1144  0.8912
6.339e+09  -0.7991  0.3668  -0.02805  -0.006149  -0.04639  -0.002305  0.4044  0.8101
6.34e+09  -0.5821  0.6244  -0.00261  -0.02036  -0.008924  0.001802  0.6676  0.5985
6.341e+09  -0.3483  0.7649  -0.03701  0.03478  0.01616  0.02917  0.8594  0.346
6.342e+09  -0.03984  0.8976  -0.001487  0.01592  -0.02691  -0.01105  0.888  0.05416
6.344e+09  0.255  0.8049  0.03586  0.01629  0.02796  -0.001053  0.8639  -0.284
6.345e+09  0.5346  0.6538  -0.0256  0.02371  0.02703  0.01088  0.742  -0.5649
6.346e+09  0.7175  0.5088  0.009864  0.03005  -0.03546  -0.02679  0.4724  -0.7534
6.348e+09  0.9013  0.1187  0.03091  -0.01485  -0.01855  0.002228  0.2015  -0.9195
6.349e+09  0.8493  -0.1056  -0.002638  -0.0191  0.03827  0.01279  -0.1173  -0.9205
6.35e+09  0.7634  -0.4232  0.03164  0.009803  0.02957  0.006454  -0.4096  -0.8276
6.351e+09  0.5164  -0.6948  -0.01716  -0.00376  0.02436  -0.002445  -0.6719  -0.6324
6.352e+09  0.3109  -0.8252  0.01374  0.03113  -0.01589  -0.0006003  -0.8594  -0.4252
6.354e+09  -0.01259  -0.9174  0.02733  0.05154  -0.02306  0.01252  -0.9311  -0.06719
6.355e+09  -0.3297  -0.8206  -0.04868  0.005628  0.03074  -0.05977  -0.9312  0.259
6.356e+09  -0.5952  -0.6245  0.00317  0.007684  -0.03174  -0.003863  -0.7531  0.5226
6.358e+09  -0.7658  -0.438  0.04749  0.02476  -0.01354  -0.002372  -0.5448  0.7702
6.359e+09  -0.8889  -0.1308  -0.04367  0.03053  -0.02228  -0.02997  -0.2206  0.9251
6.36e+09  -0.9227  0.1986  0.02147  0.05363  -0.02828  -0.06713  0.05368  0.9418
6.361e+09  -0.7263  0.496  0.01041  0.001278  0.0008194  0.0006672  0.3904  0.8486
6.362e+09  -0.4623  0.7108  0.01063  0.003976  -0.02312  0.01691  0.6861  0.6671
6.364e+09  -0.2139  0.8545  0.01941  -0.009455  0.008242  0.04105  0.8845  0.4089
6.365e+09  0.05662  0.8849  -0.002954  0.06714  0.04898  -0.01297  0.9706  0.0919
6.366e+09  0.3924  0.766  -0.007505  -0.004598  0.01134  0.02529  0.8778  -0.2516
6.368e+09  0.635  0.5687  0.01528  0.01353  0.02975  0.02236  0.7297  -0.5533
6.369e+09  0.7925  0.3785  0.002701  0.01464  -0.003474  -0.01848  0.5345  -0.779
6.37e+09  0.8931  0.04834  -0.02761  -0.00499  -0.04774  0.02259  0.2281  -0.9355
6.371e+09  0.8373  -0.287  -0.02423  -0.00778  0.01066  0.0198  -0.06162  -0.9323
6.372e+09  0.7285  -0.5479  0.01301  0.0121  -0.04184  0.01813  -0.3926  -0.8576
6.374e+09  0.4777  -0.7683  0.02475  0.02239  -0.02894  0.01379  -0.6976  -0.6907
6.375e+09  0.08924  -0.8505  -0.005704  -0.01194  -0.01452  -0.0005732  -0.8473  -0.3929
6.376e+09  -0.1404  -0.8796  -0.01845  0.0297  -0.02308  -0.01509  -0.9527  -0.09978
6.378e+09  -0.4188  -0.7635  0.01366  0.03292  0.01656  0.01369  -0.9104  0.2352
6.379e+09  -0.6764  -0.613  -0.01829  -0.0001216  -0.02021  0.04356  -0.74  0.5081
6.38e+09  -0.8269  -0.2919  -0.02093  0.02689  0.007894  -0.009735  -0.5574  0.7871
6.381e+09  -0.8783  0.01827  0.03177  -0.01963  -0.01119  -0.004598  -0.2631  0.9151
6.382e+09  -0.7919  0.367  0.03556  -0.02906  -0.05062  -0.006546  0.03791  0.9556
6.384e+09  -0.6907  0.5984  0.01605  0.0244  -0.02383  -0.004846  0.3768  0.8392
6.385e+09  -0.3656  0.7775  -0.03496  0.01872  -0.008071  0.01626  0.6319  0.7354
6.386e+09  -0.08559  0.8331  0.02641  0.01228  0.0198  -0.03237  0.8155  0.4136
6.388e+09  0.2113  0.8762  0.03225  -0.01754  0.006642  0.009919  0.9806  0.09233
6.389e+09  0.552  0.7157  -0.0009015  0.0147  0.025  -0.03343  0.8579  -0.2119
6.39e+09  0.7638  0.5112  -0.02428  -0.01358  0.002319  0.01867  0.7927  -0.5099
6.391e+09  0.8633  0.2701  0.02008  -0.009303  0.00802  -0.04903  0.5425  -0.7775
6.392e+09  0.8611  -0.09512  -0.01224  0.004601  -0.02049  0.02752  0.2714  -0.858
6.394e+09  0.807  -0.3653  0.03038  0.01767  -0.02042  0.02351  -0.05097  -0.9129
6.395e+09  0.6185  -0.6381  0.008426  -0.01265  0.02225  -0.04416  -0.3566  -0.8721
6.396e+09  0.3449  -0.8146  -0.03332  0.03197  -0.004533  0.00596  -0.5846  -0.7046
6.398e+09  0.08092  -0.8911  -0.04217  -0.02033  -0.04547  0.02243  -0.7971  -0.4983
6.399e+09  -0.3052  -0.7987  0.01585  -0.001376  -0.01489  -0.0009571  -0.8826  -0.1611
6.4e+09  -0.4848  -0.6966  -0.01423  0.01306  -0.02841  0.0255  -0.8492  0.1548
6.401e+09  -0.7485  -0.4524  0.004353  -0.01975  -0.01421  -0.03796  -0.7757  0.4464
6.402e+09  -0.9063  -0.2587  -0.008291  -0.02355  -0.03166  -0.01713  -0.628  0.7172
6.404e+09  -0.8451  0.1238  -0.006382  0.004082  0.02379  0.004725  -0.3178  0.8573
6.405e+09  -0.7851  0.399  0.0202  -0.02699  -0.01979  0.002239  -0.01107  0.9626
6.406e+09  -0.5569  0.6725  0.01013  -0.00998  -0.02109  -0.02016  0.3447  0.8587
6.408e+09  -0.2888  0.8386  0.02706  -0.004599  -0.0131  0.009712  0.5934  0.7032
6.409e+09  -0.004568  0.8462  -0.01481  -0.00885  -0.01448  -0.02868  0.7855  0.4442
6.41e+09  0.3269  0.8058  0.002388  0.03471  0.01145  0.02  0.8719  0.1679
6.411e+09  0.5662  0.6626  -0.04244  -0.003763  -0.006963  -0.01744  0.8931  -0.1723
6.412e+09  0.7681  0.4457  -0.03059  -0.00586  0.03275  0.0008821  0.8027  -0.4011
6.414e+09  0.8061  0.1562  -0.03829  0.002347  -0.005737  -0.002946  0.6008  -0.6539
6.415e+09  0.8282  -0.1881  -0.04538  -0.001493  0.01309  0.02328  0.3091  -0.8514
6.416e+09  0.7858  -0.401  0.0109  0.03205  -0.00997  0.03238  0.07181  -0.8713
6.418e+09  0.5882  -0.647  -0.03803  0.03765  0.01797  0.0002555  -0.2857  -0.8668
6.419e+09  0.312  -0.8487  -0.02296  -0.01261  -0.02929  -0.03936  -0.5549  -0.6904
6.42e+09  0.02464  -0.9082  -0.0164  -0.01669  0.01205  -0.03324  -0.7231  -0.4702
6.421e+09  -0.3019  -0.7929  -0.03671  -0.01747  0.05401  0.01752  -0.8885  -0.2004
6.422e+09  -0.5744  -0.698  0.007928  0.02371  0.005885  0.004078  -0.8298  0.1153
6.424e+09  -0.7666  -0.4542  -0.00299  -0.0242  -0.03375  -0.0272  -0.811  0.3741
6.425e+09  -0.8789  -0.1412  -0.02579  0.04247  0.02582  -0.04178  -0.6139  0.6273
6.426e+09  -0.8527  0.1853  0.001141  0.004545  -0.002126  -0.0322  -0.3359  0.8066
6.428e+09  -0.7467  0.4874  0.005803  -0.03893  -0.03228  0.02408  -0.06429  0.8435
6.429e+09  -0.5344  0.7329  0.06735  0.03245  -0.02013  -0.00186  0.2088  0.8515
6.43e+09  -0.2515  0.8282  0.05153  0.02247  0.0006817  -0.005354  0.5186  0.7143
6.431e+09  0.04354  0.8709  -0.01937  0.006434  0.04307  -0.02118  0.7006  0.4914
6.432e+09  0.2957  0.7875  -0.00796  0.00277  0.03299  -0.02412  0.8452  0.1789
6.434e+09  0.5883  0.6417  0.05702  0.03524  -0.0001902  -0.004905  0.8852  -0.1221
6.435e+09  0.7207  0.4033  0.01482  0.04491  -0.0312  -0.0247  0.7409  -0.3353
6.436e+09  0.8228  0.08177  0.003367  0.01096  -0.02937  -0.006707  0.6513  -0.6335
6.438e+09  0.8411  -0.2218  0.001584  -0.009002  -0.02762  -0.05246  0.3389  -0.7667
6.439e+09  0.7427  -0.4474  -0.009372  0.0119  0.001005  0.04447  0.009729  -0.8863
6.44e+09  0.5269  -0.7184  0.0008298  -0.02566  0.01757  0.03108  -0.2449  -0.8368
6.441e+09  0.2471  -0.8419  0.03141  -0.03276  0.03678  0.0197  -0.4545  -0.6636
6.442e+09  -0.05175  -0.8836  -0.009216  0.0178  0.01484  0.0069  -0.7083  -0.4641
6.444e+09  -0.3637  -0.7811  0.003546  0.01538  0.05395  -0.01876  -0.8138  -0.265
6.445e+09  -0.6207  -0.6617  -0.03742  0.002323  -0.03314  -0.01716  -0.8097  0.06519
6.446e+09  -0.7946  -0.3899  0.03059  0.01655  -0.02349  0.02305  -0.7615  0.3592
6.448e+09  -0.8544  -0.1085  0.0449  0.0008608  -0.02765  0.0215  -0.6085  0.5676
6.449e+09  -0.806  0.1875  0.03554  0.03452  0.02565  -0.008624  -0.3449  0.792
6.45e+09  -0.7184  0.487  -0.0004895  0.02905  -0.007904  0.0072  -0.1065  0.8349
6.451e+09  -0.4414  0.7113  -0.002491  -0.007392  0.003289  0.02483  0.2326  0.8148
6.452e+09  -0.2175  0.7898  -0.006283  -0.01051  -0.003568  -0.008682  0.4407  0.6738
6.454e+09  0.06449  0.8966  -0.02374  -0.02152  -0.04824  0.03104  0.6324  0.4689
6.455e+09  0.3865  0.772  -0.008626  -0.00488  0.05654  -0.02172  0.8145  0.1931
6.456e+09  0.6285  0.6223  -0.02466  0.01298  -0.0154  -0.01011  0.8596  -0.1012
6.458e+09  0.7881  0.4159  -0.02802  0.02602  0.0002371  0.03712  0.7346  -0.329
6.459e+09  0.8764  0.0555  0.00784  -0.009936  0.02105  0.02231  0.616  -0.5821
6.46e+09  0.844  -0.2019  -0.01263  0.002223  0.0003597  0.024  0.3062  -0.7663
6.461e+09  0.6894  -0.4899  -0.02968  -0.01731  -0.02724  -0.02182  0.04403  -0.7868
6.462e+09  0.4606  -0.6748  0.04813  -0.04242  -0.001506  0.02811  -0.2386  -0.7817
6.464e+09  0.2385  -0.795  0.003166  0.02868  -0.01056  -0.04454  -0.4744  -0.6554
6.465e+09  -0.05098  -0.8511  -0.007981  0.01008  0.04163  0.02755  -0.6411  -0.4775
6.466e+09  -0.3625  -0.7654  0.03307  -0.003284  0.02304  0.01399  -0.7536  -0.2045
6.468e+09  -0.5869  -0.6161  -0.003674  0.01735  0.0201  -0.009835  -0.8221  0.02448
6.469e+09  -0.8016  -0.3974  -0.01358  0.04445  0.01848  0.02463  -0.7152  0.3326
6.47e+09  -0.8995  -0.07767  0.05086  -0.0193  -0.04988  0.02241  -0.5567  0.5414
6.471e+09  -0.8835  0.261  -0.01381  -0.02583  0.008378  0.02849  -0.4  0.7441
6.472e+09  -0.679  0.4419  -0.01385  -0.02164  0.05459  -0.03951  -0.066  0.7867
6.474e+09  -0.5004  0.6207  0.01241  -0.005153  0.02205  -0.02798  0.211  0.7613
6.475e+09  -0.2421  0.8305  -0.007854  -0.02895  -0.07135  -0.0002826  0.4444  0.6607
6.476e+09  0.113  0.8703  -0.008648  -0.01415  0.01305  0.001821  0.6494  0.4416
6.478e+09  0.4239  0.7993  0.004206  0.02397  -0.004914  0.02725  0.7584  0.1971
6.479e+09  0.6571  0.6325  0.008135  0.01904  0.02326  -0.05108  0.781  -0.04698
6.48e+09  0.7579  0.3108  -0.003562  0.01704  0.02472  -0.0547  0.7118  -0.3679
6.481e+09  0.864  0.02447  0.0275  0.0505  -0.01134  0.00168  0.5214  -0.5908
6.482e+09  0.8653  -0.2512  -0.02702  -0.01659  0.01461  0.009934  0.32  -0.6775
6.484e+09  0.7069  -0.5385  -0.01679  0.001467  0.0007238  0.005089  0.06178  -0.7986
6.485e+09  0.4808  -0.7709  -0.01141  0.02142  0.02129  -0.04228  -0.1987  -0.7628
6.486e+09  0.1903  -0.8906  0.001381  -0.003981  -0.0008768  -0.03171  -0.4678  -0.6712
6.488e+09  -0.112  -0.8854  0.01123  0.02374  0.04117  0.04845  -0.6577  -0.4334
6.489e+09  -0.4244  -0.7862  -0.02575  0.004685  -0.03948  -0.03426  -0.7421  -0.1981
6.49e+09  -0.6679  -0.5867  0.02492  -0.05534  -0.03025  0.01638  -0.7747  0.1127
6.491e+09  -0.8177  -0.3301  -0.01383  -0.03804  -0.02826  0.01221  -0.6883  0.3078
6.492e+09  -0.9022  -0.089  -0.01374  -0.0002829  -0.01839  0.002597  -0.497  0.5554
6.494e+09  -0.867  0.2696  -0.03882  -0.02514  -0.0704  -0.01633  -0.322  0.707
6.495e+09  -0.7265  0.5321  -0.01264  -0.03263  0.01843  -0.03664  -0.03431  0.7673
6.496e+09  -0.5049  0.756  0.03798  -0.009723  0.008531  -0.03175  0.1976  0.7288
6.498e+09  -0.2253  0.886  0.04204  -0.02702  -0.03392  -0.02098  0.4312  0.6143
6.499e+09  0.08566  0.8764  0.01314  -0.03517  0.00258  -0.008993  0.6298  0.3732
6.5e+09  0.4442  0.832  -0.02572  0.03018  0.002598  -0.01741  0.7556  0.1467
6.501e+09  0.6565  0.6127  0.04101  -0.04663  -0.003816  -0.0003104  0.7707  -0.1059
6.502e+09  0.8297  0.3248  0.05423  -0.004771  0.006331  -0.0201  0.6709  -0.3649
6.504e+09  0.9331  0.02452  0.04404  -0.0145  0.07387  0.06054  0.4944  -0.5979
6.505e+09  0.848  -0.2972  0.01173  -0.03077  -0.008763  -0.01317  0.2798  -0.7336
6.506e+09  0.746  -0.5887  -0.03214  0.007449  0.01271  0.00756  0.05294  -0.7487
6.508e+09  0.4514  -0.8452  0.02389  -0.02024  -0.02221  0.01247  -0.2281  -0.7351
6.509e+09  0.1906  -0.8471  0.02512  -0.06053  0.04101  0.021  -0.4708  -0.5925
6.51e+09  -0.1187  -0.8605  -0.01411  -0.01248  -0.009268  -0.04747  -0.6622  -0.4268
6.511e+09  -0.4513  -0.818  -0.01134  0.02689  0.01361  0.003856  -0.6933  -0.1475
6.512e+09  -0.6846  -0.6165  0.04037  -0.008248  0.003065  0.01369  -0.7174  0.1352
6.514e+09  -0.9291  -0.3151  -0.0001547  -0.01503  0.03701  -0.02129  -0.6591  0.3625
6.515e+09  -0.8835  0.01183  -0.03762  0.02425  -0.03388  -0.02992  -0.4931  0.5369
6.516e+09  -0.8547  0.3393  -0.02341  0.02317  0.009679  0.01909  -0.2776  0.7076
6.518e+09  -0.7403  0.5416  -0.003981  -0.0314  -0.1035  -0.03167  -0.002603  0.7458
6.519e+09  -0.4958  0.8198  0.002818  0.02725  0.02343  -0.01944  0.2677  0.6728
6.52e+09  -0.181  0.8764  0.004392  -0.01069  -0.03772  -0.006342  0.4769  0.5634
6.521e+09  0.1462  0.9475  -0.03271  0.01511  -0.009991  0.03906  0.674  0.345
6.522e+09  0.4702  0.8091  0.007914  0.01331  0.06451  0.01656  0.702  0.1357
6.524e+09  0.7701  0.5747  0.01833  0.05783  0.02556  0.03591  0.7239  -0.1515
6.525e+09  0.9265  0.2984  0.01553  -0.02368  -0.009154  0.004936  0.5666  -0.4235
6.526e+09  0.9741  -0.03738  0.01273  -0.004534  0.01496  0.04662  0.4358  -0.5654
6.528e+09  0.9006  -0.3808  0.01013  -0.007761  -0.02125  -0.06132  0.2091  -0.682
6.529e+09  0.734  -0.6477  0.0001037  -0.01562  -0.04895  -0.03693  -0.06735  -0.6852
6.53e+09  0.4154  -0.8563  0.01999  -0.001977  0.02396  0.01584  -0.3252  -0.6077
6.531e+09  0.1572  -0.9161  0.016  -0.00498  -0.02235  0.04373  -0.4793  -0.4634
6.532e+09  -0.2471  -0.9061  -0.01502  -0.03294  0.02889  0.0002965  -0.5957  -0.3201
6.534e+09  -0.5685  -0.7851  -0.01654  -0.002351  -0.01371  -0.006136  -0.6465  -0.09671
6.535e+09  -0.8016  -0.5839  -0.007555  0.01696  0.0251  -0.02386  -0.6138  0.1407
6.536e+09  -0.9104  -0.2842  -0.003552  0.0009823  0.05318  0.02482  -0.5635  0.2675
6.538e+09  -0.9381  0.1338  -0.006765  -0.01089  -0.03103  0.006382  -0.4518  0.4764
6.539e+09  -0.8897  0.4198  0.03455  -0.0001978  0.02462  -0.01364  -0.2778  0.6037
6.54e+09  -0.6699  0.6822  -0.01806  -0.02218  -0.009247  -0.06289  -0.06045  0.6886
6.541e+09  -0.393  0.8594  0.001988  0.02399  0.006193  0.02361  0.1763  0.67
6.542e+09  -0.07476  0.9592  -0.02559  0.008636  -0.04447  -0.01411  0.3904  0.5726
6.544e+09  0.2655  0.973  0.01015  0.02362  -0.02945  0.04193  0.5736  0.3601
6.545e+09  0.6595  0.7944  0.006834  0.002351  0.0534  -0.002347  0.7266  0.1688
6.546e+09  0.8182  0.5022  0.001681  0.0111  0.05036  0.01525  0.7022  -0.08165
6.548e+09  0.8873  0.1974  0.01419  0.003148  0.02916  0.01431  0.6657  -0.3121
6.549e+09  0.9739  -0.1183  0.01422  0.02752  -0.05081  0.00917  0.4979  -0.5548
6.55e+09  0.8756  -0.448  0.005618  -0.008937  -0.02799  0.0001379  0.2938  -0.6803
