# Hz S RI R 50
6.25e+09  -0.4688  0.7786  -0.02254  -0.01094  -0.01153  -0.009818  0.1405  0.4941
6.251e+09  -0.1068  0.8463  0.0005312  0.007873  -0.03801  0.0418  0.3643  0.4354
6.252e+09  0.1868  0.7666  -0.0108  0.01919  0.05672  -0.07329  0.5312  0.2294
6.254e+09  0.4497  0.7607  0.01575  0.003169  0.0213  0.008248  0.6155  0.0233
6.255e+09  0.7302  0.5091  0.01413  -0.01055  -0.01285  0.02447  0.5532  -0.2301
6.256e+09  0.7806  0.2815  0.00951  0.009708  -0.009681  0.0144  0.4826  -0.4437
6.258e+09  0.8454  -0.08309  -0.01528  -0.01541  0.002729  -0.007289  0.304  -0.6327
6.259e+09  0.8187  -0.2783  0.03286  -0.02214  -0.002773  -0.01917  0.0381  -0.6639
6.26e+09  0.6436  -0.5663  0.005646  -0.01968  -0.01089  -0.002033  -0.1919  -0.681
6.261e+09  0.3758  -0.7917  -0.02178  -0.0276  0.04645  -0.05185  -0.4439  -0.5514
6.262e+09  0.1016  -0.842  -0.04285  -0.01522  -0.05343  0.03235  -0.6431  -0.3624
6.264e+09  -0.1888  -0.7786  0.002891  -0.02367  -0.02868  -0.02818  -0.7102  -0.1107
6.265e+09  -0.454  -0.7117  0.001255  -0.004305  -0.02324  0.002181  -0.6899  0.1673
6.266e+09  -0.6103  -0.5249  -8.472e-05  -0.016  0.02579  -0.01549  -0.6447  0.3927
6.268e+09  -0.8332  -0.2454  0.03807  0.008019  -0.02911  -0.03169  -0.4454  0.5911
6.269e+09  -0.7862  0.04128  0.01778  0.007877  0.01259  -0.001271  -0.1817  0.6968
6.27e+09  -0.7662  0.3691  0.01449  -0.006249  0.04186  0.04961  0.05289  0.7433
6.271e+09  -0.5667  0.5664  -0.01121  -0.00317  -0.01871  0.03998  0.3474  0.6378
6.272e+09  -0.4102  0.7391  0.007595  0.01699  -0.07047  0.01369  0.5443  0.5246
6.274e+09  -0.07061  0.7746  0.03768  -0.005719  -0.01991  0.02934  0.6989  0.2924
6.275e+09  0.1997  0.8017  0.003777  0.02307  -0.04598  0.001476  0.7355  0.06093
6.276e+09  0.4248  0.7094  0.02756  0.01098  -0.0425  0.04971  0.7083  -0.23
6.278e+09  0.6888  0.5715  -0.008627  0.02424  0.03577  -0.03237  0.6087  -0.4588
6.279e+09  0.8005  0.2663  0.02182  0.001266  0.02373  -0.03003  0.4171  -0.6375
6.28e+09  0.8069  -0.08832  -0.01719  -0.01482  0.001381  -0.0532  0.1527  -0.7625
6.281e+09  0.7401  -0.287  0.02081  0.0178  -0.05027  -0.05178  -0.1316  -0.7391
6.282e+09  0.5941  -0.5831  -0.01  -0.004389  -0.003327  0.03506  -0.3556  -0.718
6.284e+09  0.4367  -0.7337  0.0047  -0.02394  0.06173  0.01085  -0.588  -0.5189
6.285e+09  0.0964  -0.8144  0.006888  -0.01386  4.686e-05  -0.003178  -0.7441  -0.2971
6.286e+09  -0.1682  -0.7316  0.0001221  -0.001633  0.02304  -0.002592  -0.8006  -0.016
6.288e+09  -0.5203  -0.677  0.01008  0.001998  -0.037  -0.01001  -0.7514  0.2594
6.289e+09  -0.6274  -0.4262  -0.02184  -0.007274  0.0458  -0.01829  -0.5955  0.4831
6.29e+09  -0.8362  -0.2581  0.008208  0.01412  0.01741  -0.01141  -0.4144  0.6947
6.291e+09  -0.8354  0.05097  0.01701  0.01592  0.009698  -0.0005347  -0.1475  0.7697
6.292e+09  -0.7392  0.347  -0.001326  0.0147  0.009827  0.03368  0.1166  0.7923
6.294e+09  -0.5816  0.5725  -0.002563  0.004331  -0.03235  -0.0009224  0.4057  0.7422
6.295e+09  -0.3522  0.7085  -0.0224  -0.0009433  0.018  -0.05456  0.6271  0.5353
6.296e+09  -0.07599  0.8477  -0.01225  -0.01589  0.02708  0.02816  0.7412  0.2651
6.298e+09  0.2557  0.785  -0.003322  0.01696  0.0001978  -0.01613  0.8063  -0.005107
6.299e+09  0.4847  0.6321  0.008507  0.03016  -0.01158  -0.03303  0.7752  -0.2766
6.3e+09  0.7353  0.4397  -0.02744  0.01911  0.001766  0.01327  0.6237  -0.5081
6.301e+09  0.8063  0.1792  0.02302  -0.006683  -0.02411  0.02118  0.4366  -0.7214
6.302e+09  0.8658  -0.1033  -0.01565  0.01717  -0.01933  -0.01192  0.1525  -0.8069
6.304e+09  0.7396  -0.3329  -0.01504  0.01095  0.006987  0.002228  -0.1562  -0.8014
6.305e+09  0.5501  -0.6356  -0.0003825  0.006295  0.003981  -0.03239  -0.4161  -0.7336
6.306e+09  0.3193  -0.7963  -0.004094  -0.02149  -0.0433  0.004216  -0.6165  -0.5658
6.308e+09  0.01142  -0.8731  0.005982  0.01807  0.0009109  0.03755  -0.8083  -0.3029
6.309e+09  -0.2674  -0.7763  0.02423  -0.01098  -0.0141  0.01711  -0.8713  -0.01348
6.31e+09  -0.5404  -0.6701  -0.004652  -0.01561  -0.04566  -0.01035  -0.7978  0.2933
6.311e+09  -0.7348  -0.4385  0.0249  -0.005807  -0.008615  -0.03714  -0.6469  0.5415
6.312e+09  -0.8478  -0.2175  0.01204  0.00882  -0.005061  -0.02435  -0.4514  0.7408
6.314e+09  -0.864  0.1275  -0.002282  -0.02439  0.02404  -0.01691  -0.1383  0.8409
6.315e+09  -0.7347  0.4035  0.01205  -0.01788  -0.02936  -0.04369  0.1493  0.813
6.316e+09  -0.5878  0.6351  -0.01629  0.01232  -0.01338  0.008462  0.443  0.7548
6.318e+09  -0.2714  0.7913  0.000762  -0.003012  -0.03486  0.006282  0.6501  0.5317
6.319e+09  -0.02994  0.8136  -0.0004175  0.03005  0.03481  -0.02531  0.7993  0.3131
6.32e+09  0.3086  0.7533  -0.00483  -0.002529  -0.008425  0.009467  0.886  -0.01763
6.321e+09  0.5876  0.686  0.003227  -0.009824  0.004971  0.01672  0.8619  -0.3069
6.322e+09  0.765  0.3928  0.02037  0.03897  0.05094  0.01064  0.6902  -0.5335
6.324e+09  0.8291  0.0846  -0.01635  0.005752  0.007864  0.04118  0.4629  -0.7637
6.325e+09  0.8187  -0.1598  0.008601  -0.01379  -0.006331  -0.01996  0.1729  -0.8644
6.326e+09  0.7368  -0.4739  -0.002317  -0.03149  0.02435  -0.01947  -0.1268  -0.9127
6.328e+09  0.5889  -0.7116  0.009804  -0.02096  0.03254  0.008744  -0.4439  -0.8134
6.329e+09  0.2653  -0.8383  -0.008251  -0.02768  0.04496  0.01609  -0.6755  -0.5816
6.33e+09  -0.01535  -0.883  -0.02343  0.004953  0.01064  0.0152  -0.8609  -0.301
6.331e+09  -0.3468  -0.8303  -0.01011  0.005756  -0.03903  0.009331  -0.9073  -0.005854
6.332e+09  -0.5707  -0.584  -0.01694  -0.002572  -0.0002045  0.002686  -0.8647  0.2603
6.334e+09  -0.7653  -0.3352  -0.01856  0.03059  0.02374  -0.01724  -0.7191  0.5575
6.335e+09  -0.8664  -0.06147  -0.01929  0.005792  0.07738  0.02282  -0.491  0.7486
6.336e+09  -0.7944  0.2318  -0.01245  0.002182  0.0004488  0.02103  -0.1965  0.8822
6.338e+09  -0.6927  0.496  0.002571  -0.03694  0.02839  -0.03392  0.1347  0.9198
6.339e+09  -0.4446  0.7068  0.03491  -7.872e-05  -0.001289  0.04902  0.4199  0.808
6.34e+09  -0.2283  0.8122  0.01101  0.01152  -0.03074  0.02087  0.6992  0.5989
6.341e+09  0.1277  0.8286  0.001523  0.01364  0.02236  0.01674  0.8592  0.3555
6.342e+09  0.4146  0.7778  0.03061  0.02512  0.002259  -0.02454  0.8804  0.05325
6.344e+09  0.6298  0.575  -0.02109  -0.008365  -0.02488  0.04037  0.9005  -0.2635
6.345e+09  0.8743  0.3469  0.02245  0.04226  0.0425  -0.01129  0.6953  -0.5389
6.346e+09  0.8438  0.02524  0.009947  0.009276  -0.005401  0.01458  0.507  -0.7535
6.348e+09  0.8613  -0.3381  0.02257  0.01282  0.02218  0.02138  0.202  -0.9052
6.349e+09  0.6564  -0.5726  -0.003808  0.001064  0.01481  0.006501  -0.1338  -0.9388
6.35e+09  0.4585  -0.7834  0.03824  0.0333  0.03859  0.003282  -0.4185  -0.8422
6.351e+09  0.1376  -0.8612  -0.01816  -0.03307  0.06676  0.001176  -0.6629  -0.6716
6.352e+09  -0.1995  -0.9286  0.01298  0.008123  -0.004568  -0.00123  -0.8737  -0.3725
6.354e+09  -0.4657  -0.7618  -0.007011  -0.0109  -0.04953  -0.01007  -0.9166  -0.09117
6.355e+09  -0.7317  -0.5136  0.02957  0.02474  0.009134  0.02306  -0.8884  0.2978
6.356e+09  -0.8528  -0.2928  -0.001261  0.03209  -0.04278  -0.02361  -0.7982  0.5511
6.358e+09  -0.8707  -0.0109  0.01777  -0.001029  -0.001311  0.02002  -0.4964  0.7981
6.359e+09  -0.802  0.2997  0.008534  -0.03319  0.0227  -0.01371  -0.2259  0.8877
6.36e+09  -0.6333  0.5691  -0.02927  -0.01333  0.01303  -0.01332  0.1002  0.9208
6.361e+09  -0.3708  0.7744  0.01699  -0.00561  0.02132  0.01006  0.4199  0.8491
6.362e+09  -0.08333  0.8613  0.01616  -0.007919  0.01725  -0.01213  0.654  0.6742
6.364e+09  0.2315  0.8171  -0.02763  -0.0009275  -0.0113  0.0171  0.8767  0.3898
6.365e+09  0.5403  0.7461  -0.007226  -0.01007  0.003625  0.02716  0.9332  0.07634
6.366e+09  0.7261  0.5267  -0.01236  0.006747  0.03075  -0.007563  0.8962  -0.2279
6.368e+09  0.8169  0.2408  0.01251  -0.03563  0.000811  -0.01311  0.7956  -0.53
6.369e+09  0.8958  -0.05976  -0.008222  -0.03135  0.0386  -0.02615  0.5752  -0.7503
6.37e+09  0.804  -0.3981  0.02108  -0.01344  0.03516  0.02186  0.2532  -0.9056
6.371e+09  0.6466  -0.6765  0.0001107  -0.02403  0.008689  -0.01454  -0.03075  -0.9298
6.372e+09  0.3571  -0.7967  0.006111  -0.03163  -0.003932  0.02991  -0.3941  -0.8374
6.374e+09  0.03302  -0.9164  0.02341  0.003642  -0.002131  -0.02399  -0.6577  -0.6765
6.375e+09  -0.2473  -0.8643  -0.003628  0.02203  -0.02481  -0.04502  -0.8337  -0.3949
6.376e+09  -0.5183  -0.6903  -0.006335  0.02778  -7.714e-05  -0.01899  -0.9258  -0.1115
6.378e+09  -0.7327  -0.4502  -0.004136  0.02936  0.01444  0.02702  -0.8796  0.2214
6.379e+09  -0.8707  -0.1923  0.01289  0.01515  0.009353  0.001479  -0.7569  0.541
6.38e+09  -0.8682  0.1525  -0.00471  0.01187  0.04552  -0.003356  -0.5553  0.7339
6.381e+09  -0.7934  0.4269  -0.01087  0.02146  -0.0001806  -0.02734  -0.3034  0.8994
6.382e+09  -0.573  0.6415  0.001863  -0.01196  -0.01847  0.01566  -0.002445  0.9587
6.384e+09  -0.3098  0.8287  0.02451  0.03467  0.04903  0.0001557  0.377  0.8622
6.385e+09  0.03325  0.8792  0.03072  -0.02121  0.001226  -0.0273  0.6367  0.6618
6.386e+09  0.3109  0.8158  -0.02189  -0.005408  -0.01223  0.02456  0.7872  0.4806
6.388e+09  0.609  0.671  0.02067  -0.01812  0.04679  0.009306  0.9403  0.09587
6.389e+09  0.7761  0.4208  -0.03879  0.02013  -0.05402  -0.03546  0.9488  -0.1958
6.39e+09  0.8979  0.1542  0.03149  -0.01167  0.004616  0.03776  0.7759  -0.5247
6.391e+09  0.8773  -0.1788  0.008199  0.02281  0.03652  -0.005309  0.5567  -0.7597
6.392e+09  0.786  -0.4956  -0.02231  0.0006905  -0.0283  -0.008374  0.2614  -0.9066
6.394e+09  0.4739  -0.7138  0.02621  0.01126  -0.03201  0.01526  -0.03783  -0.8883
6.395e+09  0.3024  -0.8331  0.01413  0.02183  0.02282  0.03919  -0.3677  -0.8353
6.396e+09  -0.06867  -0.9374  0.0098  0.0068  -0.02333  -0.03238  -0.6355  -0.7002
6.398e+09  -0.3014  -0.8214  -0.008172  -0.004387  -4.519e-05  -0.003013  -0.7965  -0.4586
6.399e+09  -0.5892  -0.6832  -0.01805  0.02302  -0.003403  0.006904  -0.9215  -0.1283
6.4e+09  -0.725  -0.3861  -0.01258  -0.01429  -0.02633  -0.02011  -0.9525  0.1859
6.401e+09  -0.8517  -0.104  0.03544  0.0374  -0.004893  -0.01113  -0.7805  0.4218
6.402e+09  -0.8985  0.2236  -0.05787  -0.0005174  -0.02568  0.02588  -0.5675  0.7196
6.404e+09  -0.741  0.506  -0.007502  -0.009892  -0.01087  0.02525  -0.3302  0.8574
6.405e+09  -0.5336  0.6663  0.03574  0.02051  -0.01973  -0.004382  -0.003021  0.8967
6.406e+09  -0.2263  0.785  0.01677  -0.003447  0.01475  -0.004386  0.2857  0.8429
6.408e+09  0.06705  0.8669  0.02586  -0.018  0.02422  -0.01013  0.5887  0.7171
6.409e+09  0.3602  0.8047  0.01767  0.01995  0.01158  -0.009504  0.8233  0.4991
6.41e+09  0.6241  0.6369  -0.02227  -0.003254  0.01688  -0.02562  0.8762  0.1857
6.411e+09  0.8009  0.3914  0.01115  0.02971  0.02201  0.01019  0.8725  -0.1511
6.412e+09  0.8884  0.07913  9.964e-05  -0.03504  -0.00175  0.006058  0.7634  -0.412
6.414e+09  0.8712  -0.2017  -0.0114  -0.02041  -0.01069  0.03626  0.5773  -0.6589
6.415e+09  0.7114  -0.5088  -0.007582  -0.02589  0.03268  0.04093  0.307  -0.8211
6.416e+09  0.5139  -0.7454  0.006112  -0.03303  0.005113  0.01114  0.03348  -0.9169
6.418e+09  0.2774  -0.8338  -0.01092  -0.05629  0.004429  -0.01809  -0.2483  -0.8354
6.419e+09  -0.07631  -0.9246  -0.0008872  0.01205  0.01704  -0.01398  -0.5406  -0.698
6.42e+09  -0.3321  -0.7846  0.0001672  0.02895  0.004347  0.01116  -0.7465  -0.4614
6.421e+09  -0.624  -0.6706  0.01288  0.005187  0.001134  -0.03164  -0.8504  -0.1787
6.422e+09  -0.7388  -0.4054  -0.001479  -0.01485  -0.002149  -0.002198  -0.8923  0.1313
6.424e+09  -0.8976  -0.04801  0.03832  0.03384  -0.01553  0.03478  -0.7816  0.4203
6.425e+09  -0.8484  0.2193  -0.01822  -0.02808  -0.008648  -0.02154  -0.6311  0.5999
6.426e+09  -0.7826  0.5348  -0.04916  -0.03052  0.01331  -0.007525  -0.3344  0.8003
6.428e+09  -0.5383  0.699  -0.03995  0.007698  0.04671  0.01405  -0.06134  0.8491
6.429e+09  -0.211  0.8742  0.02876  0.003226  -0.0162  -0.02799  0.2374  0.8148
6.43e+09  0.1209  0.8822  -0.01433  -0.0211  -0.001475  0.02794  0.5185  0.6567
6.431e+09  0.4294  0.8333  -0.009408  -0.03891  -0.01165  -0.006607  0.6917  0.5336
6.432e+09  0.5587  0.6077  0.03633  0.009673  -0.0009756  -0.004783  0.8391  0.1888
6.434e+09  0.8041  0.3385  0.001134  0.04359  0.004512  0.07866  0.846  -0.1072
6.435e+09  0.8926  0.04907  -0.002128  0.001662  0.001816  0.02883  0.7985  -0.4178
6.436e+09  0.8788  -0.2509  -0.03735  -0.03357  -0.004042  -0.01699  0.622  -0.5584
6.438e+09  0.71  -0.5357  -0.004227  -0.01018  -0.03014  0.04506  0.4029  -0.7933
6.439e+09  0.4769  -0.7353  0.01067  -0.0001756  0.07062  0.01046  0.08489  -0.8802
6.44e+09  0.2459  -0.8705  -0.01832  0.0173  -0.0188  0.01828  -0.2672  -0.813
6.441e+09  -0.06139  -0.8443  -0.008945  0.02265  0.01022  0.008998  -0.4792  -0.7128
6.442e+09  -0.376  -0.8021  0.05563  0.03345  0.02901  0.001  -0.6894  -0.4848
6.444e+09  -0.6363  -0.6215  -0.04035  -0.0005093  0.02528  -0.04486  -0.8559  -0.1788
6.445e+09  -0.8496  -0.3493  0.04775  0.01108  0.01203  -0.02364  -0.8527  0.104
6.446e+09  -0.8479  -0.07483  0.01274  0.04017  -0.02114  -0.01079  -0.7658  0.3314
6.448e+09  -0.8223  0.2746  0.00204  0.00161  -0.04084  -0.03074  -0.6079  0.6012
6.449e+09  -0.6819  0.5053  -0.03799  0.0286  0.01501  0.0199  -0.3647  0.7223
6.45e+09  -0.4874  0.7494  0.003562  0.003609  -0.02242  0.05108  -0.0579  0.8143
6.451e+09  -0.191  0.8414  0.02071  0.003177  0.0238  0.02114  0.2263  0.7871
6.452e+09  0.1107  0.9268  -0.01636  -0.004573  -0.07678  -0.01675  0.4918  0.6418
6.454e+09  0.3963  0.7851  0.04672  0.02515  0.04072  -0.01412  0.6423  0.4862
6.455e+09  0.6134  0.5654  0.0419  0.0005673  0.008624  0.007534  0.8077  0.2082
6.456e+09  0.8276  0.3289  0.05659  -0.009613  0.009294  -0.02048  0.793  -0.09095
6.458e+09  0.8945  0.02526  -0.008301  0.004354  -0.02529  -0.01512  0.7356  -0.319
6.459e+09  0.8509  -0.2359  -0.01902  0.02051  -0.02712  -0.01413  0.623  -0.5865
6.46e+09  0.7037  -0.5388  0.003399  -0.02197  -0.03716  0.001953  0.4111  -0.7265
6.461e+09  0.4608  -0.7765  -0.0346  -0.008278  -0.02933  -0.04543  0.09988  -0.8045
6.462e+09  0.1602  -0.8664  -0.002086  -0.04173  0.007491  0.0549  -0.2136  -0.8034
6.464e+09  -0.1623  -0.8736  -0.01415  -0.003748  0.02033  -0.00293  -0.4309  -0.666
6.465e+09  -0.3884  -0.8128  -0.01375  -0.0117  -0.007391  -0.01121  -0.6432  -0.5096
6.466e+09  -0.6464  -0.5855  -0.008426  -0.01808  -0.04047  0.003205  -0.7773  -0.2196
6.468e+09  -0.8349  -0.332  -0.01649  -0.007775  0.01171  0.0339  -0.784  0.0593
6.469e+09  -0.8862  -0.05664  -0.02751  -0.06264  0.05932  -0.005129  -0.7253  0.3655
6.47e+09  -0.8829  0.2789  0.01906  -0.002696  -0.02949  0.006381  -0.5878  0.5966
6.471e+09  -0.7456  0.5088  -0.008854  0.0289  0.02098  0.03816  -0.3024  0.6882
6.472e+09  -0.4818  0.7739  -0.008119  -0.001336  0.02966  -0.04948  -0.04246  0.816
6.474e+09  -0.1814  0.8871  -0.004143  -0.01984  -0.03016  -0.02561  0.2128  0.7344
6.475e+09  0.1484  0.9095  -0.0528  0.05339  -0.00975  0.02304  0.4894  0.6434
6.476e+09  0.4424  0.8057  -0.01202  -0.04022  -0.00412  -0.03148  0.64  0.4758
6.478e+09  0.6768  0.6375  0.03736  0.001369  -0.05591  0.01936  0.7556  0.1998
6.479e+09  0.8545  0.2734  -0.02145  0.005999  0.03869  -0.02682  0.8033  -0.07814
6.48e+09  0.9076  0.01609  -0.01871  -0.003561  -0.02056  -0.01606  0.6812  -0.3559
6.481e+09  0.8576  -0.3074  0.0228  -0.00769  0.02872  0.0483  0.5556  -0.5861
6.482e+09  0.708  -0.5584  0.0068  0.004508  -0.02118  0.02668  0.3623  -0.7288
6.484e+09  0.4922  -0.7564  -0.01468  0.0339  0.01579  -0.0397  0.0933  -0.7836
6.485e+09  0.1532  -0.9229  -0.0192  0.004296  0.02519  0.01012  -0.2226  -0.7261
6.486e+09  -0.121  -0.9049  0.02395  0.01052  0.02214  0.004848  -0.4324  -0.5935
6.488e+09  -0.4826  -0.7603  -0.01652  0.007932  0.03673  0.001601  -0.6092  -0.4126
6.489e+09  -0.6661  -0.6325  -0.01659  -0.002318  0.01123  0.006474  -0.7491  -0.205
6.49e+09  -0.8896  -0.3555  -0.006881  0.03076  0.02878  0.02012  -0.735  0.1115
6.491e+09  -0.9262  -0.01055  -0.0135  0.0194  -0.03069  0.06615  -0.701  0.3572
6.492e+09  -0.8742  0.3737  0.003223  0.01135  -0.05792  0.0591  -0.5186  0.5303
6.494e+09  -0.6931  0.5965  0.02166  0.0007842  -0.0473  0.02281  -0.2913  0.7227
6.495e+09  -0.4503  0.8288  -0.03701  0.008063  0.0003754  0.01774  -0.06138  0.742
6.496e+09  -0.1937  0.902  -0.02362  -0.005439  -0.016  0.02243  0.2294  0.7262
6.498e+09  0.1919  0.9301  -0.005719  -0.02955  0.02549  0.03621  0.4092  0.5852
6.499e+09  0.4214  0.8306  0.02601  0.02585  0.06706  -0.007601  0.6415  0.4261
6.5e+09  0.7021  0.5642  -0.03391  0.03213  0.02611  0.01336  0.772  0.1478
6.501e+09  0.8738  0.3397  -0.01184  -0.03279  0.03348  -0.01742  0.7848  -0.1053
6.502e+09  0.9219  -0.003277  -0.03812  0.01977  0.004865  0.000149  0.6732  -0.3585
6.504e+09  0.8172  -0.3575  0.02525  6.082e-05  0.01714  0.001029  0.4782  -0.5809
6.505e+09  0.709  -0.6858  -0.01963  0.02207  -0.01128  -0.00857  0.2913  -0.6789
6.506e+09  0.3978  -0.7961  0.01598  -0.03008  0.01241  -0.03608  0.05715  -0.717
6.508e+09  0.1054  -0.9218  0.02869  -0.01841  0.0521  -0.008296  -0.2048  -0.7286
6.509e+09  -0.184  -0.9203  -0.01978  0.03209  0.04243  -0.02493  -0.4799  -0.6074
6.51e+09  -0.5266  -0.7601  0.01572  0.006784  0.008702  -0.0247  -0.6378  -0.3912
6.511e+09  -0.7109  -0.614  -0.03462  0.003234  0.05636  -0.02278  -0.7432  -0.1338
6.512e+09  -0.9153  -0.2525  -0.002469  -0.03333  0.02185  -0.01182  -0.7724  0.1344
6.514e+09  -0.9738  0.05304  0.00787  -0.01027  0.02114  -0.001571  -0.6827  0.3778
6.515e+09  -0.8981  0.3301  -0.02275  -0.007357  -0.01447  0.05827  -0.4585  0.5813
6.516e+09  -0.6727  0.6911  0.02654  -0.001368  0.008523  0.008278  -0.295  0.7426
6.518e+09  -0.41  0.8641  0.02362  -0.01597  0.0699  0.04011  0.004273  0.7556
6.519e+09  -0.06824  0.906  0.01482  -0.001151  0.01267  0.01441  0.2745  0.675
6.52e+09  0.2963  0.9429  -0.006549  0.02045  -0.01406  0.005609  0.5049  0.536
6.521e+09  0.5158  0.7928  -0.008642  -0.003293  -0.02298  -0.03398  0.6587  0.3353
6.522e+09  0.7947  0.5003  -0.01768  0.02699  0.05759  -0.0229  0.715  0.09362
6.524e+09  0.9422  0.2292  0.01442  -0.04651  -0.001609  0.0444  0.7364  -0.1613
6.525e+09  0.9778  -0.1565  0.01979  0.01875  -0.03132  0.06502  0.592  -0.4025
6.526e+09  0.8517  -0.4115  0.04199  -0.004983  -0.002534  -0.01611  0.4363  -0.5751
6.528e+09  0.6726  -0.6363  -0.04858  -0.01002  -0.01268  0.01086  0.2546  -0.7002
6.529e+09  0.3336  -0.8961  -0.005847  0.01521  -0.01603  -0.03264  -0.03926  -0.6786
6.53e+09  0.0703  -1.003  -0.0005557  -0.02672  -0.02394  -0.01506  -0.3061  -0.6237
6.531e+09  -0.3429  -0.8836  0.0191  -0.002488  -0.01563  0.06212  -0.4729  -0.4801
6.532e+09  -0.6228  -0.7751  -0.009835  0.01709  0.01832  -0.01688  -0.5539  -0.3081
6.534e+09  -0.8862  -0.4883  -0.03719  0.02033  -0.01048  -0.0006103  -0.6156  -0.06104
6.535e+09  -0.9713  -0.1595  -0.01514  -0.04009  0.03075  0.01101  -0.6161  0.1021
6.536e+09  -0.9678  0.1549  0.008494  0.01135  -0.02179  -0.02827  -0.5949  0.3151
6.538e+09  -0.7989  0.4978  -0.008063  0.0159  0.0004584  -0.01514  -0.4918  0.4833
6.539e+09  -0.641  0.7846  0.03291  -0.01062  0.04324  -0.04987  -0.2766  0.6088
6.54e+09  -0.3441  0.9132  -0.02767  0.02444  0.004098  0.03559  -0.07076  0.7011
6.541e+09  0.05791  0.9678  0.00165  -0.0006784  0.02744  0.006179  0.1429  0.6571
6.542e+09  0.3659  0.9182  -0.02047  0.01816  0.006253  0.03214  0.4144  0.5425
6.544e+09  0.6856  0.6649  0.04423  -0.01674  0.01517  -0.01095  0.6146  0.402
6.545e+09  0.8898  0.4141  0.002594  -0.02745  -0.06414  0.01462  0.6825  0.1758
6.546e+09  0.9436  0.1057  0.02526  0.006509  0.01915  -0.02314  0.703  -0.06743
6.548e+09  0.9225  -0.2107  0.008427  0.0296  -0.002457  0.008528  0.6466  -0.3275
6.549e+09  0.797  -0.5668  -0.02288  0.006953  -0.04807  -0.001065  0.4842  -0.5248
6.55e+09  0.5826  -0.8078  0.0256  -0.00246  0.03992  0.04879  0.2825  -0.6725
