# Hz S RI R 50
6.25e+09  -0.324  0.7605  0.03059  -0.002354  -0.02799  -0.002337  0.1639  0.4843
6.251e+09  -0.01245  0.8219  -0.03021  -0.02306  -0.001544  0.05632  0.3643  0.4016
6.252e+09  0.2628  0.7889  -0.009247  -0.008342  0.03156  0.002648  0.5222  0.2379
6.254e+09  0.5153  0.6417  -0.002121  -0.01829  -0.02683  0.03258  0.6062  0.05999
6.255e+09  0.6998  0.4542  -0.01052  -0.02836  -0.006331  0.003175  0.5848  -0.2
6.256e+09  0.8775  0.1575  -0.001219  -0.01107  0.03616  -0.004907  0.4791  -0.4307
6.258e+09  0.8565  -0.1033  -0.01703  -0.005325  -0.03706  0.0292  0.293  -0.6182
6.259e+09  0.7431  -0.4313  -0.01859  -0.002453  0.0005768  -0.03845  0.01449  -0.6573
6.26e+09  0.5174  -0.6376  -0.01823  0.005903  -0.02482  -0.005695  -0.2093  -0.6623
6.261e+09  0.3488  -0.7725  -0.02038  0.0181  -0.03134  -0.003553  -0.4539  -0.5419
6.262e+09  -0.02364  -0.8247  0.003558  -0.006714  0.02726  0.03165  -0.6019  -0.3817
6.264e+09  -0.2943  -0.8018  0.03118  0.004047  -0.009456  -0.008978  -0.736  -0.1029
6.265e+09  -0.5044  -0.6635  0.0262  -0.008107  0.02797  -0.005199  -0.6967  0.1392
6.266e+09  -0.7414  -0.4606  -0.01879  -0.0008532  -0.004516  -0.04818  -0.5729  0.3683
6.268e+09  -0.7995  -0.1466  0.02675  -0.009183  0.01135  0.0509  -0.4308  0.5969
6.269e+09  -0.8136  0.1712  0.02688  -0.01844  -0.04257  -0.005016  -0.2086  0.7289
6.27e+09  -0.7472  0.399  -0.02322  0.01358  0.01665  -0.02644  0.07103  0.7556
6.271e+09  -0.4914  0.5826  -0.001489  -0.007926  0.06085  -0.004652  0.3584  0.6672
6.272e+09  -0.2663  0.7386  0.008331  0.03571  0.007716  0.002437  0.5466  0.5171
6.274e+09  0.02811  0.8208  0.004019  0.01824  0.01681  -0.0148  0.7211  0.3226
6.275e+09  0.2966  0.8192  0.01527  0.01779  0.03179  -0.01504  0.7328  0.04805
6.276e+09  0.5243  0.634  0.01706  -0.03404  -0.01383  0.02398  0.7331  -0.2417
6.278e+09  0.7724  0.4152  0.04179  0.00738  -0.004874  0.05788  0.614  -0.4579
6.279e+09  0.804  0.1857  -0.001127  -0.0144  0.004914  0.01242  0.423  -0.6184
6.28e+09  0.8246  -0.1577  -0.03652  0.001371  0.006616  0.008084  0.1719  -0.7646
6.281e+09  0.7413  -0.4448  0.0114  0.02957  -0.04936  -0.005629  -0.09437  -0.7693
6.282e+09  0.5271  -0.6362  -0.0142  -0.0004673  0.04073  0.01342  -0.3807  -0.6658
6.284e+09  0.3027  -0.8236  -0.022  0.005681  -0.01798  -0.02604  -0.5771  -0.5039
6.285e+09  -0.03936  -0.8506  -0.01604  0.02071  0.02519  0.006459  -0.714  -0.2984
6.286e+09  -0.3109  -0.7378  -0.00403  0.02669  -0.02796  -0.006322  -0.7924  -0.04896
6.288e+09  -0.5614  -0.5938  0.01169  -0.0002959  0.03933  0.02124  -0.7309  0.2455
6.289e+09  -0.7394  -0.4048  -0.01191  -0.0009623  0.01793  0.03882  -0.6146  0.5103
6.29e+09  -0.826  -0.08741  0.01847  0.03786  -0.0325  -0.032  -0.4326  0.6693
6.291e+09  -0.8086  0.1879  -0.01547  0.02573  0.02894  -0.03208  -0.1772  0.8259
6.292e+09  -0.7234  0.4547  -0.01646  -0.01196  -0.00182  -0.004386  0.1317  0.7948
6.294e+09  -0.47  0.608  -0.01272  0.02097  0.01843  0.01094  0.429  0.72
6.295e+09  -0.2913  0.7525  -0.01459  -0.02793  -0.03147  -0.02998  0.6371  0.5284
6.296e+09  0.09195  0.8486  -0.01278  0.01586  0.004604  0.00191  0.7823  0.2894
6.298e+09  0.3759  0.7517  -0.02828  0.02149  -0.03289  0.008362  0.8208  0.02654
6.299e+09  0.6079  0.585  0.004641  0.001125  0.02232  -0.01386  0.7702  -0.272
6.3e+09  0.7511  0.3261  0.007186  0.01419  0.01591  0.03293  0.6857  -0.5244
6.301e+09  0.8118  0.09673  -0.004075  0.03711  0.03831  0.0289  0.432  -0.683
6.302e+09  0.7861  -0.1987  -0.03326  0.02608  -0.00176  0.008115  0.1559  -0.8069
6.304e+09  0.661  -0.4954  0.01093  0.0287  -0.02334  0.02421  -0.1438  -0.8067
6.305e+09  0.4609  -0.6674  0.02751  0.03054  0.01532  -0.02311  -0.4145  -0.7224
6.306e+09  0.1758  -0.799  0.01065  -0.009657  -0.01366  -0.02467  -0.6557  -0.5588
6.308e+09  -0.07997  -0.8422  0.007515  0.00517  -0.01554  0.004763  -0.7996  -0.2746
6.309e+09  -0.3599  -0.7814  -0.007971  0.002852  0.006583  -0.007911  -0.8527  0.0004921
6.31e+09  -0.6069  -0.5863  0.01184  0.01109  -0.01251  0.01111  -0.7867  0.2839
6.311e+09  -0.7288  -0.2922  0.007914  0.0152  -0.008284  -0.02391  -0.6482  0.5349
6.312e+09  -0.8309  -0.06249  -0.009901  0.006423  -0.005389  0.005226  -0.4528  0.7284
6.314e+09  -0.8155  0.2296  0.003227  0.005851  0.0009149  0.002053  -0.144  0.8376
6.315e+09  -0.6857  0.4951  -0.00543  -0.008878  -0.003928  0.02959  0.1199  0.865
6.316e+09  -0.4734  0.7325  -0.0302  0.01389  -0.006515  -0.01608  0.4408  0.8001
6.318e+09  -0.2093  0.8224  -0.008473  0.01796  0.04878  -0.001487  0.6832  0.5878
6.319e+09  0.1394  0.8009  0.01024  0.00572  0.03988  -0.03338  0.8352  0.3255
6.32e+09  0.388  0.7742  0.01559  -0.01315  -0.03533  -0.02833  0.8877  -0.007857
6.321e+09  0.6578  0.534  -0.004619  0.01573  -0.03078  0.03305  0.8364  -0.2787
6.322e+09  0.8257  0.2622  -0.004356  -0.02456  0.04465  -0.01608  0.6921  -0.5486
6.324e+09  0.8779  0.01725  -0.0136  -0.01426  -0.0774  -0.01454  0.431  -0.7625
6.325e+09  0.8028  -0.2807  -0.01097  0.01011  0.01972  -0.003094  0.1666  -0.8583
6.326e+09  0.6634  -0.5303  -0.003129  -0.004733  0.01602  0.02706  -0.1227  -0.8977
6.328e+09  0.4363  -0.7809  -0.01694  -0.008935  0.01024  -0.05329  -0.4497  -0.788
6.329e+09  0.171  -0.8491  -0.009881  -0.03306  0.04527  -0.02221  -0.6713  -0.5691
6.33e+09  -0.1818  -0.8674  -0.0391  0.04983  0.02112  -0.04871  -0.8237  -0.3252
6.331e+09  -0.4524  -0.7324  -0.008953  -8.606e-05  -0.011  0.008149  -0.9001  -0.07021
6.332e+09  -0.7171  -0.5791  0.007629  -0.00405  -0.008051  -0.03062  -0.8541  0.2765
6.334e+09  -0.8183  -0.2442  0.02285  -0.0361  0.03519  -0.003783  -0.71  0.5661
6.335e+09  -0.8725  0.07581  0.007275  0.004868  -0.04066  0.03593  -0.4831  0.7447
6.336e+09  -0.7889  0.3807  0.0131  -0.03213  -0.02922  0.06654  -0.1882  0.8935
6.338e+09  -0.6364  0.6062  0.02686  -0.008162  0.004972  0.06683  0.1216  0.8799
6.339e+09  -0.3775  0.8152  -0.001505  -0.01219  0.01513  0.0357  0.4349  0.8045
6.34e+09  -0.07662  0.8988  0.02657  -0.02188  0.002622  0.01749  0.6614  0.6157
6.341e+09  0.1919  0.8467  0.0002629  0.01415  0.0189  0.01678  0.8618  0.3611
6.342e+09  0.4999  0.6852  0.01366  -0.002342  0.03539  -0.006661  0.9373  0.06811
6.344e+09  0.7212  0.4894  0.000415  -0.007287  -0.02157  0.03168  0.8795  -0.2451
6.345e+09  0.8075  0.1317  0.005272  0.01799  0.01289  0.005402  0.7414  -0.5894
6.346e+09  0.8762  -0.1098  -0.007582  -0.0271  -0.01271  0.00699  0.5243  -0.7886
6.348e+09  0.7614  -0.3892  0.005692  -0.03815  -0.01711  -0.00215  0.2291  -0.9168
6.349e+09  0.6244  -0.6196  -0.02231  0.006868  0.0005181  -0.03419  -0.1043  -0.9181
6.35e+09  0.3043  -0.8141  0.04464  -0.01533  0.004801  -0.04387  -0.4174  -0.8162
6.351e+09  0.04526  -0.8935  -0.002204  0.03218  -0.001057  -0.01429  -0.6734  -0.6197
6.352e+09  -0.312  -0.8594  0.007386  0.02397  -0.03407  -0.01123  -0.894  -0.3484
6.354e+09  -0.5983  -0.6995  -0.01796  0.01045  -0.01187  -0.04624  -0.9041  -0.03197
6.355e+09  -0.7847  -0.4284  0.006714  0.001923  -0.01145  -0.007959  -0.8856  0.2502
6.356e+09  -0.8887  -0.1381  -0.02488  -0.0255  -0.05938  0.006631  -0.7655  0.5348
6.358e+09  -0.8519  0.1545  0.04156  0.01375  -0.01146  0.02341  -0.5461  0.7722
6.359e+09  -0.7719  0.4473  -0.01287  0.007491  0.008097  0.03251  -0.225  0.9067
6.36e+09  -0.4871  0.7097  0.001483  0.007296  -0.04017  0.03343  0.1007  0.9047
6.361e+09  -0.2813  0.8641  -0.02299  0.02779  0.02209  0.03175  0.4083  0.8485
6.362e+09  0.04737  0.9019  0.01641  0.01081  -0.04029  -0.05484  0.7171  0.6741
6.364e+09  0.3251  0.84  0.02729  -0.01973  0.006624  -0.0338  0.8589  0.386
6.365e+09  0.6503  0.5913  -0.03674  -0.00755  0.0006232  -0.005994  0.9732  0.1135
6.366e+09  0.7884  0.4285  -0.00211  0.01881  -0.04454  0.02035  0.9428  -0.2572
6.368e+09  0.8825  0.1082  -0.01368  0.01859  0.04344  0.008657  0.7595  -0.5193
6.369e+09  0.8332  -0.2457  -0.006513  0.03108  0.02465  -0.004021  0.5537  -0.7568
6.37e+09  0.7727  -0.522  0.02472  -0.003686  0.007681  0.01076  0.2709  -0.9246
6.371e+09  0.5633  -0.7622  -0.006124  0.02579  0.03314  0.003333  -0.06931  -0.9265
6.372e+09  0.2199  -0.8807  -0.005707  0.008722  -0.02838  0.003973  -0.408  -0.8595
6.374e+09  -0.09247  -0.8964  0.008231  -0.009195  -0.04332  -0.007271  -0.6532  -0.6961
6.375e+09  -0.388  -0.7875  -0.03716  -0.01796  0.003836  0.04164  -0.8663  -0.4321
6.376e+09  -0.6644  -0.615  0.03835  -0.0001441  -0.06454  -0.009093  -0.9422  -0.08659
6.378e+09  -0.7844  -0.3576  0.006941  0.01135  0.01626  -0.005628  -0.9088  0.2319
6.379e+09  -0.9202  -0.06484  0.002172  0.03511  0.0878  0.006655  -0.732  0.5272
6.38e+09  -0.8742  0.2676  -0.02348  -0.00771  -0.0229  -0.02588  -0.5542  0.7404
6.381e+09  -0.669  0.5013  0.00401  -0.04497  0.03586  -0.00148  -0.2893  0.9098
6.382e+09  -0.5271  0.6901  0.002666  -0.003153  0.01013  -0.04514  0.0313  0.9331
6.384e+09  -0.1811  0.8686  0.01176  -0.007537  -0.03007  0.02038  0.3846  0.8632
6.385e+09  0.1393  0.9139  -0.02842  -0.01553  -0.01189  -0.007273  0.619  0.6578
6.386e+09  0.3999  0.7922  0.003547  -0.01334  -0.004231  0.03059  0.8509  0.4518
6.388e+09  0.6634  0.5713  -0.009483  0.04125  0.03719  0.04245  0.9085  0.1292
6.389e+09  0.8436  0.2783  -0.01658  -0.01807  0.01124  -0.08349  0.956  -0.2106
6.39e+09  0.9195  -0.005718  -0.001454  0.03004  -0.002991  -0.01128  0.7756  -0.5369
6.391e+09  0.8298  -0.2916  -0.01647  0.01483  0.03256  -0.01662  0.5689  -0.7272
6.392e+09  0.7195  -0.5265  0.04169  -0.006538  -0.01427  -0.02081  0.2999  -0.8895
6.394e+09  0.4655  -0.7903  -0.006424  -0.00165  0.06765  -0.01247  -0.02487  -0.8988
6.395e+09  0.1503  -0.819  -0.0286  -0.01296  0.008842  0.02695  -0.3692  -0.8568
6.396e+09  -0.1822  -0.8883  -0.004903  -0.02079  -0.04269  0.02776  -0.6059  -0.681
6.398e+09  -0.4954  -0.773  0.0119  0.04262  -0.02274  -0.01975  -0.8117  -0.435
6.399e+09  -0.7367  -0.5631  -0.01461  0.01882  -0.03155  -0.002919  -0.9424  -0.1754
6.4e+09  -0.8237  -0.299  0.01256  0.01207  0.01583  0.008286  -0.8714  0.1414
6.401e+09  -0.8752  -0.01184  -0.05241  -0.02473  -0.01029  -0.0001574  -0.8264  0.4756
6.402e+09  -0.8131  0.336  0.02645  -0.02508  -0.0177  -0.02276  -0.5717  0.6599
6.404e+09  -0.6827  0.5636  -0.03311  0.03244  -0.0221  0.05053  -0.3019  0.8364
6.405e+09  -0.4837  0.7628  0.005232  -0.04518  -0.01268  -0.02714  0.03524  0.9082
6.406e+09  -0.1261  0.8217  -0.01583  -0.004981  -0.01685  0.03122  0.303  0.886
6.408e+09  0.1423  0.856  0.01377  0.01455  -0.01222  -0.01652  0.5905  0.6908
6.409e+09  0.4811  0.7771  0.02397  0.011  0.00938  0.0006914  0.7861  0.4365
6.41e+09  0.662  0.5892  -0.04196  0.03592  0.02167  -0.0006729  0.8696  0.208
6.411e+09  0.8394  0.3048  -0.02986  -0.01552  0.003235  -0.002423  0.9262  -0.1526
6.412e+09  0.9024  -0.0408  0.01329  -0.02105  -0.0507  0.006733  0.7977  -0.4511
6.414e+09  0.8474  -0.3034  0.007458  -0.0365  0.01152  0.006437  0.5855  -0.6432
6.415e+09  0.6707  -0.5633  -0.0044  0.006263  0.04162  0.05983  0.3493  -0.8498
6.416e+09  0.4357  -0.7455  -0.03095  -0.05842  0.02021  -0.01298  0.05561  -0.9578
6.418e+09  0.1376  -0.8767  0.01958  -0.03919  -0.04859  0.006308  -0.2512  -0.8328
6.419e+09  -0.1643  -0.837  -0.01976  0.01313  0.04753  -0.0339  -0.5356  -0.7473
6.42e+09  -0.466  -0.748  -0.02026  -0.0341  0.07461  0.05356  -0.7671  -0.4942
6.421e+09  -0.6554  -0.5446  -0.004889  0.02899  0.06344  0.0001394  -0.8428  -0.2021
6.422e+09  -0.8264  -0.2449  -0.02394  -0.004267  -0.02428  -0.003134  -0.8632  0.118
6.424e+09  -0.8467  0.04174  0.01595  -0.03499  -0.00373  -0.04869  -0.7738  0.4079
6.425e+09  -0.8341  0.3314  -0.00306  -0.01348  0.01894  -0.002552  -0.617  0.7136
6.426e+09  -0.6164  0.6401  -0.01274  -0.0116  0.0007565  0.002928  -0.3934  0.7931
6.428e+09  -0.3591  0.7759  0.03545  0.03202  -0.008835  0.02194  -0.04848  0.8658
6.429e+09  -0.07551  0.9393  -0.03622  -0.0264  -0.05702  -0.00951  0.2359  0.7963
6.43e+09  0.216  0.8679  0.01142  -0.03324  -0.03248  -0.04446  0.4971  0.7404
6.431e+09  0.4745  0.7371  0.03474  0.0139  -0.01391  -0.02992  0.7095  0.4897
6.432e+09  0.7359  0.5346  0.02206  0.04126  -0.003645  0.03187  0.8844  0.2117
6.434e+09  0.8881  0.2542  0.002199  0.0305  0.02201  -0.0005336  0.8895  -0.07598
6.435e+09  0.8466  -0.07225  0.02714  0.05303  -0.05332  0.04082  0.7991  -0.4056
6.436e+09  0.8412  -0.3609  -0.008834  -0.01657  -0.003853  0.02456  0.596  -0.5836
6.438e+09  0.6452  -0.59  0.03861  0.01249  -0.022  -0.003528  0.379  -0.8398
6.439e+09  0.4426  -0.7988  -0.04643  -0.007615  0.005549  -0.0291  0.08841  -0.8816
6.44e+09  0.08446  -0.8709  0.01057  0.04586  -0.03797  -0.005794  -0.2632  -0.8003
6.441e+09  -0.209  -0.8799  0.05051  -0.005811  0.05081  0.0292  -0.4979  -0.7063
6.442e+09  -0.4882  -0.7099  -0.0237  0.01339  0.07079  -0.02176  -0.7132  -0.4705
6.444e+09  -0.6744  -0.5095  0.01393  0.02623  -0.004883  0.02148  -0.8121  -0.2374
6.445e+09  -0.8739  -0.2348  0.008346  -0.03583  -0.008881  -0.03717  -0.862  0.04589
6.446e+09  -0.9007  0.1388  -0.008294  -0.01463  0.01289  -0.008063  -0.7689  0.3216
6.448e+09  -0.8306  0.3375  0.01767  0.006865  0.02537  -0.0068  -0.5919  0.6263
6.449e+09  -0.6188  0.5906  -0.04953  0.01266  0.03745  0.04013  -0.3371  0.7665
6.45e+09  -0.3898  0.7949  -0.01238  0.009281  0.03888  -0.004969  -0.08166  0.813
6.451e+09  -0.1214  0.8738  -0.02186  0.01206  0.007386  0.0284  0.2105  0.8224
6.452e+09  0.2048  0.8423  0.07723  0.006454  -0.01839  0.00362  0.4944  0.6705
6.454e+09  0.5322  0.7184  0.02978  0.02514  0.0215  0.01078  0.7301  0.4345
6.455e+09  0.7536  0.5266  -0.01265  0.01025  0.0004838  -0.01506  0.8291  0.182
6.456e+09  0.8523  0.2373  0.008213  0.02389  0.02535  -0.03972  0.7724  -0.09354
6.458e+09  0.9299  -0.05937  -0.03615  0.01135  0.007363  -0.009273  0.7607  -0.3417
6.459e+09  0.7817  -0.39  0.02158  -0.03003  -0.03119  0.008503  0.5483  -0.5805
6.46e+09  0.6346  -0.5759  0.02992  -0.03561  0.005764  0.03706  0.3553  -0.7558
6.461e+09  0.4073  -0.7709  -0.01531  0.04288  -0.0393  -0.05578  0.06914  -0.7921
6.462e+09  0.09024  -0.9042  0.03773  0.03054  0.03422  -0.02194  -0.2148  -0.7661
6.464e+09  -0.1973  -0.9629  -0.01741  0.007471  -0.02489  0.01907  -0.4891  -0.6091
6.465e+09  -0.4954  -0.7564  0.02283  -0.008418  -0.002315  0.01445  -0.6699  -0.4514
6.466e+09  -0.7722  -0.5669  -0.01806  -0.02356  -0.02677  -0.05047  -0.7979  -0.2322
6.468e+09  -0.8462  -0.2658  -0.02588  0.01255  0.01051  -0.0346  -0.771  0.04467
6.469e+09  -0.9206  0.1332  0.01246  -0.002007  -0.0004815  0.005355  -0.6902  0.3396
6.47e+09  -0.8456  0.4377  -0.01175  0.03187  0.01471  0.0222  -0.564  0.593
6.471e+09  -0.6363  0.6426  0.01351  0.006542  -0.004165  -0.01548  -0.3574  0.7178
6.472e+09  -0.3771  0.8524  0.01186  0.008254  0.02868  0.0216  -0.04712  0.7953
6.474e+09  -0.0005543  0.95  -0.005323  -0.00384  -0.002694  0.05574  0.2197  0.7261
6.475e+09  0.2262  0.8967  0.00249  0.01626  -0.0257  0.00802  0.4367  0.6652
6.476e+09  0.5248  0.8228  0.003864  0.0005361  -0.03479  -0.008571  0.6119  0.4198
6.478e+09  0.7566  0.4873  0.004009  -0.005266  0.005281  0.03333  0.748  0.2124
6.479e+09  0.923  0.2694  -0.02081  -0.03089  -0.04278  0.02895  0.7492  -0.08233
6.48e+09  0.9032  -0.1455  0.03598  0.0206  0.02152  0.00372  0.7002  -0.3055
6.481e+09  0.7855  -0.4483  0.01026  0.01436  -0.04069  -0.02301  0.5173  -0.581
6.482e+09  0.5941  -0.6721  0.05111  0.03085  -0.02203  0.01472  0.3371  -0.716
6.484e+09  0.3415  -0.8834  -0.02298  0.02406  -0.003847  0.01312  0.04355  -0.7653
6.485e+09  0.06048  -0.9118  0.002237  0.005925  -0.01916  0.007447  -0.2175  -0.759
6.486e+09  -0.2717  -0.8883  -0.04866  0.02856  0.04779  0.01007  -0.459  -0.5813
6.488e+09  -0.5742  -0.7065  0.0193  0.01642  0.01234  0.02784  -0.6417  -0.4117
6.489e+09  -0.8033  -0.4948  0.0136  0.007693  -0.01858  0.005502  -0.7562  -0.1711
6.49e+09  -0.8845  -0.1771  0.01369  0.02016  0.0002953  0.0468  -0.734  0.04923
6.491e+09  -0.8862  0.1086  0.001997  -0.01752  0.006994  0.006269  -0.6845  0.3376
6.492e+09  -0.8605  0.4024  -0.01041  -0.02619  -0.02892  -0.02928  -0.5864  0.5402
6.494e+09  -0.6348  0.7199  0.03775  0.01848  0.01968  0.01997  -0.2583  0.7437
6.495e+09  -0.3231  0.9131  0.03413  0.004507  0.01475  0.01091  -0.05295  0.7983
6.496e+09  0.008149  0.8823  0.03402  0.008027  0.01786  -0.005657  0.2356  0.7261
6.498e+09  0.3094  0.9169  0.01863  0.03828  0.01748  -0.02366  0.4425  0.6163
6.499e+09  0.6132  0.6987  -0.02762  0.00294  -0.01576  -0.03518  0.6482  0.4289
6.5e+09  0.8131  0.4715  0.004206  -0.02597  -0.04411  0.02845  0.7217  0.1586
6.501e+09  0.9418  0.143  0.01598  -0.002823  -0.02021  0.04463  0.7625  -0.1418
6.502e+09  0.9244  -0.1611  0.01305  -0.05055  0.0197  0.02638  0.5999  -0.386
6.504e+09  0.8425  -0.449  -0.005699  -0.004267  -0.006212  0.04137  0.4781  -0.5529
6.505e+09  0.5559  -0.719  -0.01546  -0.008422  -0.009762  -0.01492  0.2831  -0.7102
6.506e+09  0.2806  -0.9023  -0.02065  -0.03448  -0.002994  0.001037  0.02248  -0.7381
6.508e+09  -0.002862  -0.8836  0.008768  -0.004213  -0.01043  -0.004574  -0.2753  -0.6849
6.509e+09  -0.3452  -0.8933  0.03871  -0.006399  0.03856  0.000275  -0.4766  -0.5734
6.51e+09  -0.6748  -0.6903  -0.02783  0.003661  0.02266  0.04565  -0.6983  -0.3694
6.511e+09  -0.8813  -0.4755  0.01  -0.00403  -0.04486  -0.007075  -0.7708  -0.1703
6.512e+09  -0.9362  -0.1362  0.0008942  -0.03143  -0.05293  -0.03429  -0.7675  0.08635
6.514e+09  -0.9615  0.184  -0.03231  0.02645  -0.01425  -0.01991  -0.6467  0.4068
6.515e+09  -0.7995  0.6023  -0.008449  -0.02345  -0.04475  0.01911  -0.4723  0.5623
6.516e+09  -0.5365  0.7636  0.009856  0.01131  -0.007907  0.004294  -0.2101  0.6648
6.518e+09  -0.2558  0.9513  0.02409  -0.03933  0.01949  0.045  -0.01744  0.7287
6.519e+09  0.08177  0.981  0.01119  0.03663  -0.06852  -0.004565  0.2445  0.6659
6.52e+09  0.4317  0.9234  0.008288  0.01385  -0.01607  -0.0402  0.5021  0.5261
6.521e+09  0.7306  0.6519  0.009266  -0.01826  -0.01714  0.01554  0.6621  0.3851
6.522e+09  0.8918  0.4001  0.006514  -0.00203  0.01373  -0.03901  0.7339  0.07316
6.524e+09  0.958  0.1204  -0.01147  0.0355  -0.01572  0.009793  0.696  -0.142
6.525e+09  0.8906  -0.2456  -0.04598  -0.007297  -0.008245  0.00929  0.6  -0.3981
6.526e+09  0.7315  -0.5867  0.02458  -0.01296  -0.01528  -0.0419  0.4238  -0.5858
6.528e+09  0.5139  -0.8348  -0.02381  -0.01134  -0.06136  0.02459  0.1977  -0.6605
6.529e+09  0.2098  -0.8824  -0.01789  0.05974  0.008959  0.01211  -0.05373  -0.7034
6.53e+09  -0.119  -0.9082  0.01608  0.01994  0.004463  -0.01848  -0.2792  -0.6423
6.531e+09  -0.4884  -0.8697  -0.02334  -0.004646  -0.02722  -0.01417  -0.4652  -0.501
6.532e+09  -0.6945  -0.663  -0.01603  -0.008263  0.01336  0.03737  -0.5395  -0.2602
6.534e+09  -0.8985  -0.3361  -0.004134  0.01617  -0.001246  -0.02723  -0.6373  -0.1258
6.535e+09  -0.9766  0.04717  0.02832  -0.03071  0.01971  -0.004293  -0.6453  0.1293
6.536e+09  -0.8391  0.3989  -0.01512  -0.05037  0.03979  -0.03708  -0.5416  0.2803
6.538e+09  -0.7306  0.6899  0.01928  0.0007416  -0.003852  -0.01362  -0.4041  0.4892
6.539e+09  -0.4841  0.8495  0.01773  -0.02136  0.03041  0.007809  -0.3056  0.63
6.54e+09  -0.124  0.9631  0.01203  -0.01372  0.004355  0.04016  -0.04558  0.6577
6.541e+09  0.2178  0.9953  -0.02334  -0.005279  0.002788  0.01401  0.1631  0.6519
6.542e+09  0.5609  0.8138  -0.01733  -0.01114  0.01867  0.04797  0.3852  0.5522
6.544e+09  0.7857  0.5958  -0.004216  0.005631  0.01181  0.02803  0.5846  0.4016
6.545e+09  0.9046  0.2479  -0.006617  0.002999  0.03148  0.02256  0.6827  0.1547
6.546e+09  0.9772  -0.08239  0.006737  -3.427e-06  -0.02414  -0.03757  0.7117  -0.06555
6.548e+09  0.8599  -0.3399  0.01248  0.01537  0.02598  -0.04052  0.672  -0.3188
6.549e+09  0.6839  -0.6442  -0.002992  -0.0058  -0.019  -0.01154  0.4925  -0.5044
6.55e+09  0.353  -0.9211  -0.02715  -0.0006384  -0.01002  -0.003674  0.2705  -0.6898
