# Hz S RI R 50
6.25e+09  -0.3547  0.8107  0.004471  -0.008084  -0.05152  0.03886  0.1728  0.485
6.251e+09  -0.01939  0.8563  -0.01613  -0.06028  -0.006965  0.03005  0.3812  0.3723
6.252e+09  0.2517  0.816  -0.001943  0.02297  -0.01699  0.01422  0.5304  0.2742
6.254e+09  0.5389  0.7111  -0.02027  -0.01779  0.03359  0.0213  0.613  -0.01568
6.255e+09  0.7316  0.4966  -0.01559  0.008765  -0.01833  -0.03522  0.5891  -0.2413
6.256e+09  0.8179  0.169  0.00791  -0.005598  0.05871  0.03057  0.4785  -0.4153
6.258e+09  0.8  -0.1181  0.04742  0.02755  -0.02917  0.03245  0.2631  -0.6393
6.259e+09  0.7357  -0.4452  -0.006618  -0.002795  -0.008942  -0.002082  0.03512  -0.6758
6.26e+09  0.5481  -0.6334  -0.02496  0.001934  0.003734  -0.008876  -0.2084  -0.6027
6.261e+09  0.35  -0.7514  -0.02937  0.01814  -0.03453  0.027  -0.4332  -0.5038
6.262e+09  -0.01959  -0.8926  -0.01751  0.004869  0.008772  -0.01409  -0.6063  -0.3726
6.264e+09  -0.2736  -0.7424  0.01849  0.02706  -0.02456  -0.02421  -0.6839  -0.09243
6.265e+09  -0.4957  -0.6194  -0.01237  -0.007148  -0.05476  -0.02034  -0.6798  0.1502
6.266e+09  -0.6945  -0.4351  -0.003701  0.01541  0.03029  0.01916  -0.6498  0.3823
6.268e+09  -0.8215  -0.1785  -0.02186  -0.0157  -0.0002296  -0.0436  -0.4447  0.5938
6.269e+09  -0.8196  0.135  -0.02866  -0.01673  0.03214  -0.01557  -0.1715  0.6951
6.27e+09  -0.681  0.384  -0.01805  0.001163  -0.04322  -0.004513  0.06638  0.7346
6.271e+09  -0.4913  0.6539  -0.003472  -0.005551  0.06842  -0.02127  0.3203  0.7027
6.272e+09  -0.3417  0.7943  -0.01657  0.006438  0.008728  -0.02141  0.5555  0.5232
6.274e+09  -0.02845  0.8002  0.01108  -0.01323  -0.01858  -0.01859  0.6701  0.3123
6.275e+09  0.3008  0.834  0.02646  0.01273  -0.03145  -0.01363  0.7619  0.03285
6.276e+09  0.5795  0.6842  0.01968  0.004849  -0.01346  0.006037  0.7234  -0.2166
6.278e+09  0.7012  0.4268  -0.005462  -0.01328  0.06042  -0.04196  0.6125  -0.4529
6.279e+09  0.8356  0.1414  -0.01481  0.003217  -0.01213  0.02984  0.4231  -0.6651
6.28e+09  0.8272  -0.1377  -0.008504  0.008254  0.002016  0.01254  0.1815  -0.7456
6.281e+09  0.6859  -0.4429  -0.01515  -0.03424  0.02953  0.008634  -0.1077  -0.7808
6.282e+09  0.5372  -0.6644  0.01988  0.004201  0.0003839  0.008659  -0.3806  -0.6706
6.284e+09  0.267  -0.83  0.01356  -0.01408  -0.0226  0.009915  -0.5976  -0.5743
6.285e+09  -0.01015  -0.8256  0.002289  -0.01101  0.0127  -0.01843  -0.7377  -0.2554
6.286e+09  -0.2611  -0.8176  0.01652  0.01768  0.04654  0.005195  -0.7703  -0.01465
6.288e+09  -0.546  -0.6038  0.01031  -0.01402  0.01058  0.008626  -0.7465  0.2711
6.289e+09  -0.7842  -0.458  0.01174  0.01523  0.04734  0.01726  -0.6504  0.4874
6.29e+09  -0.8518  -0.1948  0.009036  -0.02554  -0.03555  -0.01386  -0.374  0.6927
6.291e+09  -0.8085  0.1934  0.01588  -0.01964  -0.03262  -0.007865  -0.1849  0.804
6.292e+09  -0.686  0.4668  -0.01151  -0.02709  -0.04824  0.000657  0.1191  0.7769
6.294e+09  -0.486  0.6224  -0.006718  0.03899  -0.01939  0.0342  0.3825  0.7187
6.295e+09  -0.2403  0.7834  0.03461  -0.01538  0.04781  -0.01413  0.5816  0.5185
6.296e+09  -0.008051  0.8035  0.01607  -0.01919  -0.001075  -0.004853  0.7781  0.323
6.298e+09  0.3049  0.7512  -0.01223  -0.03788  -0.0221  0.08397  0.817  0.03021
6.299e+09  0.5548  0.6187  -0.03063  0.007581  -0.03138  -0.03439  0.7566  -0.255
6.3e+09  0.7181  0.3634  0.01022  -0.03921  -0.006049  -0.03911  0.648  -0.5046
6.301e+09  0.7926  0.1321  -0.0365  0.004535  0.04367  0.01036  0.4306  -0.6985
6.302e+09  0.8299  -0.2151  0.01128  -0.007259  -0.02939  0.0006165  0.1293  -0.8419
6.304e+09  0.6659  -0.4417  -0.01494  0.0137  -0.01366  -0.05648  -0.1572  -0.8159
6.305e+09  0.4689  -0.692  -0.01945  -0.007169  0.006814  -0.03605  -0.4117  -0.7562
6.306e+09  0.1785  -0.8383  -0.003707  0.006903  -0.03494  -0.003269  -0.6426  -0.5544
6.308e+09  -0.092  -0.8568  0.006531  0.05062  -0.03016  -0.04044  -0.8153  -0.3093
6.309e+09  -0.3431  -0.729  0.007131  -0.004811  -0.002545  -0.006066  -0.8752  -0.02968
6.31e+09  -0.5713  -0.5705  -0.02185  -0.01807  -0.009335  -0.002771  -0.7815  0.3083
6.311e+09  -0.7445  -0.3415  -0.01811  -0.0296  -0.02502  0.02974  -0.6473  0.5414
6.312e+09  -0.8514  -0.104  0.01341  -0.03494  -0.03925  0.00176  -0.4313  0.7551
6.314e+09  -0.7865  0.2245  -0.01119  -0.03014  0.01284  0.01806  -0.1667  0.8613
6.315e+09  -0.6527  0.5019  0.02057  0.0004827  -0.0413  0.02928  0.08792  0.8734
6.316e+09  -0.4476  0.7165  0.0196  -0.02291  0.006959  0.01955  0.4344  0.7555
6.318e+09  -0.1703  0.8184  0.02148  -0.003204  0.008008  -0.0477  0.6609  0.5616
6.319e+09  0.1351  0.8792  -0.02489  -0.01895  0.04019  -0.0275  0.8448  0.3117
6.32e+09  0.3932  0.7207  0.01475  0.003018  0.007488  -0.0129  0.8826  0.03172
6.321e+09  0.6016  0.5718  0.004507  0.02169  -0.03676  -0.01479  0.8482  -0.2871
6.322e+09  0.7772  0.3113  0.03255  -0.03206  0.03565  0.03647  0.6742  -0.5905
6.324e+09  0.7903  0.001598  -0.01449  -0.02326  -0.01249  0.04615  0.4579  -0.7653
6.325e+09  0.837  -0.3254  -0.01628  -0.0076  -0.03943  -0.02984  0.1973  -0.8727
6.326e+09  0.6066  -0.5461  -0.00661  0.02513  -0.01335  -0.01329  -0.1101  -0.8822
6.328e+09  0.4174  -0.7013  0.006114  -0.02249  -0.00412  0.04655  -0.4338  -0.8017
6.329e+09  0.1402  -0.8621  0.0216  -0.0286  -0.01451  -0.04659  -0.7038  -0.5908
6.33e+09  -0.155  -0.8677  0.01134  0.02806  -0.03885  0.01849  -0.8383  -0.3099
6.331e+09  -0.4306  -0.7401  -0.006791  0.01099  0.02143  0.05406  -0.8899  -0.03819
6.332e+09  -0.7071  -0.5688  -0.02274  -0.01479  -0.009554  -0.0297  -0.8583  0.2772
6.334e+09  -0.8211  -0.2427  -0.007223  -0.03309  -0.002403  -0.005354  -0.738  0.5925
6.335e+09  -0.8932  0.0148  0.014  -0.01931  -0.02439  7.846e-05  -0.4939  0.7354
6.336e+09  -0.8258  0.3509  0.01078  -0.02289  -0.04134  -0.01018  -0.2198  0.8977
6.338e+09  -0.6207  0.5661  -0.001061  0.01444  -0.02831  0.003933  0.1411  0.883
6.339e+09  -0.3988  0.6978  0.02198  -0.03331  0.01929  0.02937  0.4556  0.8068
6.34e+09  -0.1004  0.864  0.02451  0.0167  0.02003  0.001198  0.6886  0.6281
6.341e+09  0.2156  0.8897  -0.008684  0.0009512  0.02435  -0.02226  0.8376  0.3352
6.342e+09  0.5038  0.7307  -0.005065  -0.007206  0.02274  -0.07624  0.8925  0.03516
6.344e+09  0.716  0.5158  0.02521  -0.004421  -0.04832  -0.007537  0.9102  -0.2769
6.345e+09  0.8475  0.2319  0.00679  0.01073  0.03347  0.02688  0.7407  -0.5551
6.346e+09  0.8622  -0.07304  0.02216  0.007796  -0.04607  -0.004611  0.5073  -0.7626
6.348e+09  0.8263  -0.403  -0.01915  -0.004241  0.01588  -0.0002404  0.1902  -0.9247
6.349e+09  0.6123  -0.6099  0.02897  0.02364  -0.01116  0.03132  -0.0742  -0.9849
6.35e+09  0.388  -0.8032  0.0001365  -0.006148  0.01732  -0.01849  -0.4508  -0.8386
6.351e+09  0.0455  -0.8609  -0.006136  -0.00897  -0.0117  -0.004444  -0.6448  -0.6641
6.352e+09  -0.284  -0.8579  -0.007379  0.01675  -0.0007573  0.03139  -0.88  -0.3732
6.354e+09  -0.5286  -0.7118  0.01366  -0.01911  -0.05407  0.02688  -0.9243  -0.05871
6.355e+09  -0.7479  -0.4534  -0.01956  -0.004744  -0.03441  0.03766  -0.9104  0.276
6.356e+09  -0.9263  -0.1691  0.01056  0.02098  0.05586  -0.03011  -0.7483  0.5598
6.358e+09  -0.8497  0.1681  0.04377  -0.02997  -0.02361  -0.005019  -0.5468  0.7881
6.359e+09  -0.796  0.4328  -0.001594  0.008146  0.003068  -0.01971  -0.2196  0.9247
6.36e+09  -0.5527  0.6766  -0.01716  0.04011  0.01504  -0.01354  0.06631  0.9654
6.361e+09  -0.29  0.8498  0.02148  -0.01877  0.0206  -0.01696  0.3972  0.8642
6.362e+09  0.0008576  0.8437  -0.007019  -0.007344  -0.02773  0.02154  0.6283  0.6765
6.364e+09  0.3679  0.805  0.03329  -0.009592  0.00127  -0.01053  0.8689  0.4002
6.365e+09  0.6098  0.6703  0.007118  -0.008094  -0.06128  0.02907  0.9431  0.07029
6.366e+09  0.7802  0.4093  0.004671  0.02897  0.02037  -0.02587  0.8974  -0.2669
6.368e+09  0.8677  0.1177  -0.01467  0.0258  -0.01155  0.01724  0.7898  -0.5564
6.369e+09  0.9167  -0.1676  -0.006719  0.009529  -0.01404  0.02134  0.5833  -0.7614
6.37e+09  0.7405  -0.4607  0.02419  -0.01632  0.02523  -0.001357  0.2145  -0.9347
6.371e+09  0.5619  -0.6842  -0.03243  0.003935  0.0506  -0.03775  -0.07294  -0.946
6.372e+09  0.2581  -0.8503  -0.002079  0.005031  0.03268  -0.04831  -0.4087  -0.9067
6.374e+09  -0.07284  -0.8864  -0.01367  -0.019  0.01591  0.02181  -0.6661  -0.6839
6.375e+09  -0.3983  -0.799  0.01304  0.007718  0.01146  0.05024  -0.8568  -0.3999
6.376e+09  -0.6266  -0.6512  -0.008843  -0.01303  0.01896  0.004086  -0.927  -0.05507
6.378e+09  -0.8048  -0.4036  0.002251  -0.00563  0.03976  0.009297  -0.9184  0.2325
6.379e+09  -0.9125  -0.06879  0.0233  0.03425  0.01618  0.036  -0.7794  0.5125
6.38e+09  -0.826  0.2259  0.03004  -0.04113  -0.01228  -0.02587  -0.5751  0.7221
6.381e+09  -0.7054  0.5006  -0.01391  0.03019  0.03971  -0.01415  -0.2688  0.9087
6.382e+09  -0.5504  0.7918  0.0371  -0.01985  0.001821  -0.004487  0.06268  0.9103
6.384e+09  -0.2021  0.8711  0.01819  -0.02236  -0.003633  -0.03697  0.3445  0.8699
6.385e+09  0.0926  0.8754  -0.01427  0.01481  0.0395  -0.02956  0.6267  0.6668
6.386e+09  0.4356  0.8027  0.02202  -0.009212  0.01227  -0.01757  0.8194  0.4104
6.388e+09  0.6138  0.6124  -0.009919  -0.002686  -0.01696  0.02081  0.9321  0.08703
6.389e+09  0.7908  0.3661  -0.05392  -0.001129  -0.02182  0.02465  0.8692  -0.1931
6.39e+09  0.8784  0.09225  -0.01655  0.008687  -0.04446  0.001665  0.782  -0.4765
6.391e+09  0.8682  -0.2936  1.996e-05  0.02436  -0.02939  0.008911  0.5862  -0.748
6.392e+09  0.6604  -0.5344  0.00818  0.002795  0.004719  0.03069  0.2879  -0.8963
6.394e+09  0.4347  -0.7259  0.00261  0.03938  -0.03098  -0.00486  -0.008526  -0.9153
6.395e+09  0.191  -0.8774  -0.009333  -0.03222  -0.00428  -0.0224  -0.3202  -0.8238
6.396e+09  -0.1986  -0.8331  0.009974  0.01468  -0.01814  -0.01315  -0.5967  -0.676
6.398e+09  -0.4127  -0.806  0.002258  0.001451  0.03341  -0.03683  -0.806  -0.454
6.399e+09  -0.692  -0.5861  -0.01415  0.00908  0.01148  -0.05271  -0.8622  -0.1344
6.4e+09  -0.8371  -0.3371  0.03019  0.01771  -0.007945  -0.01059  -0.8678  0.1916
6.401e+09  -0.867  -0.05367  0.0002085  -0.005778  -0.03302  -0.002984  -0.7912  0.4623
6.402e+09  -0.8796  0.292  0.02032  -0.003344  0.01278  0.0232  -0.6164  0.7077
6.404e+09  -0.6635  0.5667  0.02351  0.01382  0.05973  0.01327  -0.3138  0.8475
6.405e+09  -0.4359  0.7259  0.001673  0.01913  0.04941  -0.002124  0.01478  0.8634
6.406e+09  -0.1167  0.8869  -0.01386  0.004691  0.02483  2.379e-05  0.2749  0.8336
6.408e+09  0.1628  0.8658  0.04439  -0.01685  -0.01575  -0.03772  0.5629  0.6944
6.409e+09  0.4446  0.7448  0.0337  -0.01347  0.03954  0.005251  0.7448  0.4346
6.41e+09  0.6731  0.5975  0.005705  0.001466  0.002736  -0.03649  0.9057  0.1788
6.411e+09  0.8276  0.3223  -0.003306  -0.008141  0.03509  -0.02597  0.8923  -0.1213
6.412e+09  0.8811  -0.05795  0.03502  0.01399  0.01638  -0.02727  0.8074  -0.4386
6.414e+09  0.8387  -0.2849  0.004054  -0.03667  0.004575  0.03096  0.6167  -0.6684
6.415e+09  0.6767  -0.599  0.05515  -0.01618  -0.01708  -0.004485  0.3231  -0.8433
6.416e+09  0.4635  -0.8111  -0.01626  0.005825  0.03678  0.03834  0.01568  -0.8979
6.418e+09  0.1679  -0.8834  -0.007204  -0.01954  0.03026  0.001543  -0.3128  -0.8399
6.419e+09  -0.2374  -0.877  0.0228  -0.03422  0.03396  0.0297  -0.5333  -0.7213
6.42e+09  -0.4298  -0.7676  -0.02555  -0.02191  -0.007094  0.002263  -0.77  -0.4661
6.421e+09  -0.6926  -0.546  0.05315  -0.01319  0.02984  0.01221  -0.8719  -0.1832
6.422e+09  -0.8169  -0.2849  -0.01497  -0.02905  -0.0005222  0.02295  -0.8285  0.09813
6.424e+09  -0.8832  0.05418  -0.03773  0.04962  0.02064  0.02701  -0.7396  0.3842
6.425e+09  -0.7735  0.3081  -0.001194  -0.01116  0.01243  -0.01376  -0.6002  0.639
6.426e+09  -0.6567  0.5828  0.005158  -0.008407  0.002752  0.005492  -0.3612  0.8068
6.428e+09  -0.4306  0.7436  0.01091  0.02917  0.003869  0.02577  -0.03127  0.9075
6.429e+09  -0.112  0.876  -0.01347  -0.003805  -0.00297  0.003679  0.2438  0.7981
6.43e+09  0.1537  0.8853  -0.003986  0.006868  0.043  0.01129  0.4811  0.6988
6.431e+09  0.4656  0.7311  -0.0001662  -0.02398  -0.006713  -0.02454  0.7138  0.4782
6.432e+09  0.649  0.5363  -0.007598  0.02827  -0.01299  -0.0222  0.819  0.2248
6.434e+09  0.8679  0.2845  -0.01738  0.02382  0.009595  0.03056  0.9117  -0.0583
6.435e+09  0.8955  -0.06214  0.03162  -0.01677  0.02472  0.02131  0.7861  -0.3744
6.436e+09  0.8534  -0.3789  -0.01206  0.002786  -0.03873  -0.01328  0.625  -0.595
6.438e+09  0.6559  -0.6004  -0.01988  0.0148  -0.02075  0.00445  0.3532  -0.7798
6.439e+09  0.3819  -0.7358  -0.03388  -0.0212  -0.04008  -0.03131  0.04787  -0.8616
6.44e+09  0.05141  -0.907  -0.005082  -0.0258  0.07066  0.009887  -0.2305  -0.8465
6.441e+09  -0.2658  -0.8477  -0.01913  -0.02445  -0.008281  -0.0119  -0.4246  -0.7146
6.442e+09  -0.4561  -0.7611  0.009447  -0.02043  0.04256  0.02093  -0.7012  -0.5006
6.444e+09  -0.7248  -0.5618  -0.0103  0.0004934  -0.02081  -0.01567  -0.7867  -0.2183
6.445e+09  -0.8683  -0.2668  0.01402  0.0004441  0.004357  -0.00065  -0.8549  0.06881
6.446e+09  -0.9318  0.04132  0.00955  -0.04402  -0.0144  0.005654  -0.7653  0.3397
6.448e+09  -0.8521  0.3401  0.04361  -0.01157  -0.01326  0.003206  -0.5698  0.6255
6.449e+09  -0.6077  0.5939  0.004953  -0.007446  -0.03852  -0.0009367  -0.3357  0.7948
6.45e+09  -0.4182  0.7411  0.01037  -0.02656  0.009658  0.008853  -0.07547  0.8113
6.451e+09  -0.08635  0.8868  -0.009947  0.01867  0.06189  -0.02317  0.1997  0.7714
6.452e+09  0.2145  0.8736  0.04039  0.01644  -0.0621  -0.008171  0.4911  0.6927
6.454e+09  0.4588  0.7104  -0.02996  0.007782  -0.0002844  -0.003244  0.6582  0.4725
6.455e+09  0.7214  0.5035  0.04551  -0.01633  -0.004039  -0.02272  0.7913  0.2153
6.456e+09  0.9042  0.2396  0.02112  0.01057  -0.0271  0.004027  0.8039  -0.05088
6.458e+09  0.8958  -0.05908  -0.04255  0.003449  0.04021  -0.01708  0.785  -0.3673
6.459e+09  0.8323  -0.3433  -0.004497  0.01694  0.04174  -0.005187  0.5949  -0.5756
6.46e+09  0.6254  -0.6474  -0.01423  0.0005258  0.007221  -0.03399  0.3392  -0.7481
6.461e+09  0.3787  -0.8298  0.007631  0.005197  0.0139  0.01504  0.09125  -0.8419
6.462e+09  0.1097  -0.8701  -0.005935  -0.04367  0.0008521  0.001248  -0.2248  -0.7737
6.464e+09  -0.1952  -0.8691  0.03609  -0.006473  -0.02278  0.008386  -0.5207  -0.6721
6.465e+09  -0.4878  -0.7985  -0.002115  0.02398  0.01929  -0.02536  -0.677  -0.4578
6.466e+09  -0.7631  -0.5194  0.003882  0.01291  -0.0247  -0.005415  -0.7741  -0.1865
6.468e+09  -0.9057  -0.2103  -0.01847  0.03622  0.009895  0.01426  -0.7495  0.1025
6.469e+09  -0.8989  0.06293  -0.004342  -0.01804  0.04059  -0.02316  -0.7311  0.3642
6.47e+09  -0.8429  0.3476  -0.05064  0.04498  -0.006686  0.03539  -0.5806  0.5396
6.471e+09  -0.6289  0.6244  -0.01523  -0.02204  -0.04789  0.005596  -0.323  0.7292
6.472e+09  -0.3466  0.7684  0.00753  -0.02565  -0.01274  0.02461  -0.04194  0.7838
6.474e+09  -0.07031  0.9117  -0.0155  -0.008978  -0.02719  0.0189  0.2104  0.7576
6.475e+09  0.2237  0.8577  0.01088  0.007694  0.007417  0.02196  0.4548  0.6344
6.476e+09  0.5295  0.7006  -0.03807  0.002779  -0.01094  -0.007686  0.6269  0.4543
6.478e+09  0.7715  0.556  -0.00817  -0.001593  0.04863  0.01752  0.7216  0.2419
6.479e+09  0.8891  0.2117  -0.01987  0.0292  0.01298  -0.03354  0.7448  -0.0645
6.48e+09  0.9131  -0.07894  0.02543  0.000574  -0.004958  0.0328  0.7329  -0.3672
6.481e+09  0.8046  -0.4016  -0.03873  -0.03802  -0.007734  -0.02919  0.5408  -0.6006
6.482e+09  0.6763  -0.6518  -0.01634  -0.007736  0.006451  0.01034  0.3315  -0.6984
6.484e+09  0.3921  -0.8043  -0.02449  -0.01894  0.01567  0.007615  0.07387  -0.7924
6.485e+09  0.0239  -0.9479  -0.02399  0.003963  0.04383  0.008195  -0.2165  -0.7181
6.486e+09  -0.2405  -0.8513  -0.01394  -0.01026  0.01721  0.002128  -0.4666  -0.6245
6.488e+09  -0.5348  -0.754  -0.008507  0.02249  0.006292  0.00883  -0.6485  -0.4233
6.489e+09  -0.8261  -0.5113  -0.008807  0.01819  -0.01658  -0.004639  -0.7474  -0.1931
6.49e+09  -0.8983  -0.1973  0.006778  0.04033  0.007318  0.02008  -0.7546  0.07963
6.491e+09  -0.9474  0.1222  -0.03083  -0.01593  -0.02522  -0.0178  -0.6993  0.3715
6.492e+09  -0.838  0.4761  -0.007286  0.01416  0.003328  -0.0172  -0.5051  0.5103
6.494e+09  -0.6005  0.6671  -0.03233  0.02209  0.003887  0.0009415  -0.2943  0.6783
6.495e+09  -0.3668  0.8941  0.004453  0.04984  0.0546  -0.04534  -0.04439  0.7677
6.496e+09  -0.01027  0.8949  0.01046  -0.002728  0.02324  0.02282  0.2087  0.7495
6.498e+09  0.2121  0.8703  -0.001978  -0.01181  0.007445  0.02326  0.461  0.5754
6.499e+09  0.5831  0.7417  0.02358  -0.008547  0.003022  -0.001368  0.6447  0.4214
6.5e+09  0.8124  0.4532  0.01663  -0.002584  -0.01721  0.01223  0.7548  0.1626
6.501e+09  0.926  0.154  0.01778  -0.002051  0.04601  0.01032  0.7453  -0.1261
6.502e+09  0.9067  -0.1603  -0.001753  -0.01635  -0.02274  0.01127  0.6507  -0.3547
6.504e+09  0.8237  -0.4413  0.01074  0.03448  0.02178  -0.01508  0.5096  -0.5647
6.505e+09  0.6334  -0.6795  0.02504  -0.0066  0.01029  -0.01695  0.2863  -0.69
6.506e+09  0.2685  -0.8566  -0.01248  -0.01111  0.0002386  -0.01128  0.01516  -0.7406
6.508e+09  -0.04231  -0.9449  -0.02378  -0.02532  -0.06006  0.03176  -0.24  -0.7133
6.509e+09  -0.3255  -0.9001  -0.006192  0.005147  -0.05682  0.02484  -0.482  -0.6136
6.51e+09  -0.6155  -0.7898  -0.01773  -0.01976  0.01397  0.006445  -0.6213  -0.4054
6.511e+09  -0.8504  -0.5205  0.003596  -0.02013  -0.03913  -0.003661  -0.7267  -0.1272
6.512e+09  -0.9309  -0.1356  -0.0301  -0.03268  -0.002734  -0.04958  -0.7388  0.1253
6.514e+09  -0.959  0.2117  0.01927  -0.0238  -0.008525  0.03401  -0.6734  0.3974
6.515e+09  -0.8226  0.4612  0.008664  0.01594  0.004873  0.0185  -0.4689  0.6025
6.516e+09  -0.5768  0.7394  -0.008229  -0.02123  -0.009686  -0.03533  -0.2817  0.6696
6.518e+09  -0.2908  0.9363  -0.01716  0.04832  0.03067  0.01377  -0.01834  0.7435
6.519e+09  0.1033  0.9818  -0.01302  0.008419  -0.05205  0.002748  0.2748  0.6732
6.52e+09  0.3997  0.9162  0.0163  0.02025  0.04923  -0.005379  0.4491  0.5497
6.521e+09  0.635  0.671  -0.0129  -0.02366  0.0513  0.003254  0.6467  0.3664
6.522e+09  0.8662  0.4608  0.03254  -0.02695  0.01855  -0.07603  0.6986  0.1077
6.524e+09  0.9669  0.07392  -0.00762  0.007116  0.0279  -0.001773  0.6826  -0.1675
6.525e+09  1.002  -0.2798  0.01488  0.01683  -0.01676  0.04068  0.599  -0.4045
6.526e+09  0.8043  -0.549  -0.02952  0.02745  0.00573  0.07745  0.4006  -0.5792
6.528e+09  0.5256  -0.8115  -0.03316  7.435e-08  -0.01392  0.03628  0.1756  -0.7085
6.529e+09  0.1959  -0.9548  -0.01053  -0.01979  -0.01048  -0.01257  -0.05002  -0.6924
6.53e+09  -0.09545  -0.9933  -0.001737  -0.00499  -0.06347  -0.01645  -0.2892  -0.5993
6.531e+09  -0.4091  -0.8264  0.02406  0.03643  -0.02774  0.0009446  -0.4754  -0.4868
6.532e+09  -0.7155  -0.6306  0.02078  0.01467  -0.02407  -0.02569  -0.5895  -0.3062
6.534e+09  -0.9266  -0.3189  0.01222  -0.01519  -0.02656  0.02247  -0.6335  -0.08171
6.535e+09  -0.9669  -0.0354  -0.03471  -0.008968  -0.06161  -0.0005908  -0.6308  0.09702
6.536e+09  -0.8806  0.2694  0.028  0.02988  -0.04249  0.02236  -0.5709  0.3257
6.538e+09  -0.772  0.6478  0.02378  0.01281  -0.01509  -0.03676  -0.4624  0.4687
6.539e+09  -0.4397  0.8635  -0.02639  0.00689  -0.01388  0.02432  -0.2775  0.6471
6.54e+09  -0.1873  1.021  -0.0235  0.009069  -0.002627  0.04475  -0.04342  0.6884
6.541e+09  0.1552  0.9411  0.01537  0.01338  0.01054  -0.01019  0.1908  0.6873
6.542e+09  0.4861  0.8577  0.003578  -0.00196  -0.02335  0.01289  0.4427  0.5662
6.544e+09  0.7404  0.6042  0.01  0.009567  0.01774  0.007751  0.6039  0.4092
6.545e+09  0.9113  0.2559  0.04746  -0.03101  0.004751  0.01297  0.6801  0.1621
6.546e+09  0.9809  -0.02514  0.01931  -0.01397  0.005978  -0.003191  0.7172  -0.07566
6.548e+09  0.9059  -0.3044  -0.01083  -0.01111  0.007946  0.01392  0.6682  -0.3343
6.549e+09  0.7523  -0.6079  0.0071  -0.0002529  -0.02964  0.003146  0.5011  -0.5433
6.55e+09  0.4053  -0.8  -0.01068  -0.009719  -0.05262  0.0248  0.3049  -0.6706
