# Hz S RI R 50
6.25e+09  -0.412  0.7027  0.003494  0.01649  0.00657  0.0483  0.1848  0.4661
6.251e+09  -0.116  0.8557  -0.04627  -0.006505  0.03564  -0.04463  0.3693  0.3983
6.252e+09  0.2018  0.8038  0.006862  -0.04158  -0.01005  -0.009947  0.5452  0.2451
6.254e+09  0.4381  0.7638  -0.02573  -0.03986  -0.03503  0.01183  0.6353  0.02013
6.255e+09  0.6605  0.5551  0.001651  0.01994  0.007763  -0.002057  0.591  -0.2305
6.256e+09  0.759  0.2947  0.002448  0.002393  -0.01107  0.04548  0.4706  -0.449
6.258e+09  0.8624  -0.03159  -0.0001657  -0.01855  0.02526  -0.01559  0.2373  -0.5904
6.259e+09  0.8481  -0.2166  0.005955  -0.0002678  0.001777  -0.008153  0.04105  -0.6285
6.26e+09  0.6715  -0.6191  -0.005437  0.0004715  0.0289  -0.03364  -0.1935  -0.6809
6.261e+09  0.3949  -0.7282  0.0003517  0.0248  0.04175  -0.03266  -0.4489  -0.5445
6.262e+09  0.1279  -0.8066  -0.02091  -0.01402  0.01791  0.07915  -0.6155  -0.3588
6.264e+09  -0.15  -0.8271  -0.02916  -0.04447  -0.03013  0.01015  -0.7069  -0.1385
6.265e+09  -0.4219  -0.7199  -0.006214  0.006888  -0.001558  0.01804  -0.7026  0.1215
6.266e+09  -0.6479  -0.4996  0.03168  -0.01793  0.009139  0.01393  -0.5903  0.3775
6.268e+09  -0.803  -0.2421  0.002651  0.01075  -0.00628  0.01359  -0.4136  0.6101
6.269e+09  -0.8448  0.02476  -0.01034  0.00374  -0.03832  0.05906  -0.1929  0.7229
6.27e+09  -0.7444  0.3257  -0.01843  -0.04265  -0.01657  0.02377  0.0845  0.7423
6.271e+09  -0.626  0.5789  -0.005262  0.01093  -0.002832  -0.02208  0.3359  0.6691
6.272e+09  -0.3718  0.7448  0.02066  -0.03142  0.003875  -0.04647  0.5285  0.5157
6.274e+09  -0.08653  0.8388  0.03598  -0.007444  -0.08311  -0.01087  0.6935  0.2703
6.275e+09  0.2082  0.8194  -0.00844  0.002213  0.008234  -0.03382  0.7606  0.02383
6.276e+09  0.4181  0.6498  0.00742  -0.01415  -0.05564  0.01526  0.7089  -0.24
6.278e+09  0.6202  0.463  0.003659  -0.0005575  -0.02519  0.00957  0.6184  -0.4525
6.279e+09  0.786  0.2849  -0.01142  0.0005525  -0.0451  4.146e-05  0.4343  -0.6502
6.28e+09  0.894  -0.0831  0.0007715  0.02903  -0.04114  -0.00955  0.1883  -0.7633
6.281e+09  0.7288  -0.3004  -0.01146  -0.004197  0.03389  0.01405  -0.135  -0.7401
6.282e+09  0.6519  -0.5757  -0.01157  0.03037  -0.008057  -0.06785  -0.3694  -0.6961
6.284e+09  0.3766  -0.6918  0.007741  0.01573  -0.03677  0.07813  -0.5974  -0.5242
6.285e+09  0.06029  -0.7989  0.003577  -0.007021  0.077  -0.02384  -0.7311  -0.2503
6.286e+09  -0.2046  -0.82  -0.0006721  0.01793  -0.024  -0.006493  -0.8114  0.001253
6.288e+09  -0.4214  -0.6635  0.006285  -0.005129  -0.03591  -0.005306  -0.7513  0.258
6.289e+09  -0.6463  -0.5496  0.005771  0.008653  0.04746  -0.0195  -0.6178  0.4878
6.29e+09  -0.8025  -0.248  -0.003347  -0.01092  0.002045  0.006453  -0.4286  0.6806
6.291e+09  -0.8266  0.1429  -0.02246  0.009839  -0.02433  0.002603  -0.1587  0.8071
6.292e+09  -0.7755  0.3641  0.02991  -0.007588  0.04483  0.01692  0.1258  0.7901
6.294e+09  -0.571  0.557  0.04164  -0.02045  -0.01026  -0.004679  0.3979  0.6921
6.295e+09  -0.3243  0.8221  -0.01434  0.01251  -0.0324  -0.01082  0.6082  0.5545
6.296e+09  -0.07964  0.8198  0.01956  -0.02405  0.0176  0.01683  0.7768  0.2995
6.298e+09  0.2292  0.7974  -0.02919  0.02197  0.02927  0.02645  0.8504  0.02254
6.299e+09  0.4923  0.7252  -0.003974  0.01369  -0.01571  0.005804  0.7766  -0.2925
6.3e+09  0.7184  0.4931  -0.02255  -0.02516  -0.02175  -0.005611  0.6932  -0.5253
6.301e+09  0.7634  0.1643  -0.02293  0.002723  -0.02501  -0.02039  0.4125  -0.7302
6.302e+09  0.8473  -0.1435  -0.0002878  -0.02295  0.01712  -0.006301  0.1376  -0.8473
6.304e+09  0.7581  -0.4145  -0.008971  -0.01321  0.008114  0.03729  -0.152  -0.8404
6.305e+09  0.5484  -0.59  -0.001852  -0.01755  0.0318  -0.01344  -0.4083  -0.7306
6.306e+09  0.2893  -0.7419  -0.006823  -0.01942  0.01519  -0.03031  -0.6322  -0.5427
6.308e+09  0.002817  -0.8482  -0.03336  -0.01853  -0.01614  0.03275  -0.8004  -0.3174
6.309e+09  -0.2891  -0.7394  -0.02072  -0.0113  -0.003819  -0.00152  -0.8884  -0.02448
6.31e+09  -0.5161  -0.6211  0.00624  0.02435  0.0004089  -0.01942  -0.8173  0.3161
6.311e+09  -0.6852  -0.4041  -0.01312  -0.001548  0.006686  0.01324  -0.6908  0.5455
6.312e+09  -0.829  -0.1726  0.01722  -0.004273  0.0006962  -0.05115  -0.4175  0.7071
6.314e+09  -0.8262  0.1413  -0.005741  0.0002043  -0.003417  -0.009836  -0.1356  0.8685
6.315e+09  -0.7111  0.3973  -4.86e-07  -0.02675  -0.01287  -0.01399  0.1273  0.8568
6.316e+09  -0.5286  0.6196  0.02586  -0.02044  0.02824  0.02692  0.4307  0.7501
6.318e+09  -0.3101  0.7723  -0.0282  -0.03555  0.01231  0.01816  0.6831  0.5776
6.319e+09  0.02105  0.8426  -0.003035  0.01004  0.0229  -0.01905  0.8285  0.3084
6.32e+09  0.2772  0.813  0.01121  0.0159  -0.006182  0.02461  0.8695  0.01796
6.321e+09  0.5916  0.6546  0.002367  -0.01091  0.002032  0.01101  0.8195  -0.253
6.322e+09  0.7163  0.4685  -0.01527  -0.02176  -0.03359  0.005984  0.6699  -0.5832
6.324e+09  0.8948  0.08428  0.01286  0.002392  0.009711  0.0456  0.4474  -0.7672
6.325e+09  0.8405  -0.1848  0.01309  -0.01771  -0.03024  0.01917  0.2172  -0.8748
6.326e+09  0.7542  -0.4951  0.0006067  0.005481  0.01889  0.0241  -0.128  -0.9191
6.328e+09  0.4771  -0.7046  0.01569  -0.01326  -0.03307  -0.0226  -0.4499  -0.7855
6.329e+09  0.2029  -0.7705  0.0003633  -0.0001732  -0.001839  -0.02009  -0.6755  -0.6374
6.33e+09  -0.03916  -0.8875  0.01154  0.02688  0.0214  -0.01171  -0.8319  -0.3537
6.331e+09  -0.3371  -0.8463  -0.007162  -0.006122  0.006236  -0.02234  -0.8793  -0.008665
6.332e+09  -0.6028  -0.6342  -0.02804  0.01843  0.03685  0.009268  -0.8684  0.2671
6.334e+09  -0.7755  -0.3723  0.02065  -0.01247  0.03619  0.005995  -0.72  0.5447
6.335e+09  -0.8888  -0.08222  -0.0007809  -0.01334  0.007551  -0.003007  -0.5054  0.7553
6.336e+09  -0.8186  0.2034  0.04585  -0.02462  -0.01364  -0.02107  -0.1996  0.9188
6.338e+09  -0.677  0.5225  0.002481  0.007945  -0.0006181  0.0549  0.1276  0.9001
6.339e+09  -0.4707  0.7771  -0.006486  0.02869  0.01012  -0.0133  0.4042  0.8256
6.34e+09  -0.1984  0.8127  0.009747  -0.02846  -0.04593  -0.03694  0.6668  0.643
6.341e+09  0.1108  0.8765  -0.02048  -0.003781  0.02446  0.02324  0.8636  0.3845
6.342e+09  0.3914  0.7575  0.003826  -0.02699  -0.05797  0.003839  0.9303  0.05877
6.344e+09  0.6293  0.6483  -0.003606  -0.01876  -0.01885  -0.0264  0.8878  -0.2625
6.345e+09  0.7896  0.3356  -0.02717  0.01765  -0.007031  -0.06067  0.7371  -0.563
6.346e+09  0.8499  0.05412  -0.02381  -0.04217  -0.007592  -0.02196  0.494  -0.7856
6.348e+09  0.829  -0.3137  -0.009832  -0.000237  -0.007603  0.06543  0.2587  -0.9216
6.349e+09  0.6666  -0.5482  0.008567  0.02235  -0.01073  0.03731  -0.1219  -0.9256
6.35e+09  0.4485  -0.778  0.002118  0.01301  0.002711  -0.01561  -0.4188  -0.8221
6.351e+09  0.1687  -0.87  0.009799  -0.02838  -0.0005309  0.02211  -0.6714  -0.6536
6.352e+09  -0.1476  -0.8739  0.02126  0.008236  -0.0312  0.03339  -0.8882  -0.3702
6.354e+09  -0.4275  -0.7797  0.04613  0.03801  -0.01569  0.02197  -0.936  -0.06965
6.355e+09  -0.7379  -0.5346  0.01322  0.0305  0.004688  0.004315  -0.9088  0.2802
6.356e+09  -0.8262  -0.2726  0.01854  0.02365  0.02619  0.02401  -0.7343  0.5455
6.358e+09  -0.9319  0.05935  0.00605  0.0002029  -0.0001143  -0.006394  -0.5537  0.7773
6.359e+09  -0.803  0.3113  0.009452  0.01575  0.001575  -0.00408  -0.2385  0.9203
6.36e+09  -0.6668  0.5801  -0.02374  -0.003169  -0.0008359  -0.007616  0.09873  0.9224
6.361e+09  -0.41  0.7535  0.0137  0.0657  -0.02238  0.05877  0.3679  0.8627
6.362e+09  -0.08144  0.8989  -0.02646  -0.02961  0.01606  -0.006758  0.6864  0.6697
6.364e+09  0.189  0.9076  0.02482  0.003505  -0.0076  -0.01027  0.8564  0.3714
6.365e+09  0.504  0.7053  -0.03365  0.01192  -0.02425  0.009776  0.9616  0.1123
6.366e+09  0.715  0.4921  0.02033  -0.007984  0.005622  -0.03278  0.9053  -0.2266
6.368e+09  0.8481  0.2512  -0.001741  -0.02465  0.01191  -0.02045  0.7814  -0.5526
6.369e+09  0.8944  -0.08673  -0.02354  0.01103  0.04089  0.002838  0.5313  -0.7774
6.37e+09  0.7972  -0.4223  0.005358  -0.007458  -0.01634  0.01535  0.2565  -0.8955
6.371e+09  0.6097  -0.6162  -0.008901  0.01091  0.02341  0.02771  -0.03732  -0.9402
6.372e+09  0.3739  -0.7975  -0.02417  -0.02688  -0.004977  0.003298  -0.3664  -0.8407
6.374e+09  0.05455  -0.8997  -0.04919  0.03057  -0.01858  -0.01381  -0.6537  -0.6613
6.375e+09  -0.2539  -0.8893  0.04738  -0.008929  -0.03374  0.004715  -0.8912  -0.4562
6.376e+09  -0.5405  -0.7086  0.007908  -0.007412  -0.01634  0.006107  -0.9219  -0.1001
6.378e+09  -0.7241  -0.4672  -0.008748  0.01116  0.01699  -0.00467  -0.92  0.2314
6.379e+09  -0.8803  -0.1686  -0.007938  0.05871  -0.04365  0.01238  -0.8269  0.5387
6.38e+09  -0.9062  0.1112  -0.003678  -0.007426  0.003227  -0.006886  -0.5798  0.7879
6.381e+09  -0.7685  0.4323  0.004094  0.008258  0.001137  0.0004348  -0.3054  0.895
6.382e+09  -0.5967  0.6684  -0.007692  0.02974  -0.01802  0.0252  0.0417  0.995
6.384e+09  -0.318  0.8615  0.006875  0.01271  0.0277  -0.02086  0.3712  0.8582
6.385e+09  -0.01641  0.88  -0.00307  0.001888  -0.0545  0.01128  0.6322  0.6549
6.386e+09  0.32  0.854  0.02031  -0.06955  0.01744  -0.02053  0.835  0.4325
6.388e+09  0.5318  0.6382  0.0137  0.01337  -0.01243  0.005111  0.9253  0.1587
6.389e+09  0.7195  0.3984  -0.02245  0.03169  -0.01937  0.011  0.904  -0.1819
6.39e+09  0.882  0.1637  -0.04662  -0.006086  -0.0006408  0.002028  0.7859  -0.429
6.391e+09  0.8764  -0.1496  0.0203  -0.01801  0.002528  0.02471  0.5624  -0.7612
6.392e+09  0.7482  -0.4884  0.0126  -0.007566  0.02779  0.03552  0.3056  -0.8971
6.394e+09  0.584  -0.6564  0.02385  0.04009  0.008033  0.02483  -0.01394  -0.9558
6.395e+09  0.3008  -0.8605  -0.02297  -0.03669  0.002442  0.01905  -0.3338  -0.8245
6.396e+09  -0.01146  -0.8589  0.01991  -0.0158  0.01361  -0.01478  -0.5628  -0.6844
6.398e+09  -0.3125  -0.8196  -0.007139  0.04396  0.0154  -0.03501  -0.8059  -0.4841
6.399e+09  -0.5966  -0.6908  0.00344  -0.03532  0.01298  -0.02701  -0.9032  -0.1227
6.4e+09  -0.7456  -0.4417  -0.01227  0.05328  -0.00198  0.007844  -0.9037  0.202
6.401e+09  -0.9001  -0.1503  -0.004832  -0.009108  -0.001872  0.001338  -0.7455  0.4386
6.402e+09  -0.8528  0.1732  -0.01996  0.01312  0.005393  -0.03054  -0.5864  0.7176
6.404e+09  -0.7678  0.4849  0.01444  0.003568  0.02209  -0.07425  -0.35  0.8514
6.405e+09  -0.5818  0.6778  -0.01375  0.01129  -0.02389  -0.04766  -0.008244  0.9521
6.406e+09  -0.2677  0.7909  0.03633  -0.02131  0.1012  0.01476  0.2927  0.8233
6.408e+09  0.06275  0.9106  0.03315  0.01208  -0.02379  0.01116  0.594  0.7074
6.409e+09  0.3707  0.8157  0.03971  -0.006798  -0.03347  0.04205  0.77  0.4781
6.41e+09  0.5354  0.6471  -0.01605  -0.008529  -0.01084  0.01197  0.8717  0.1422
6.411e+09  0.8048  0.3866  0.02005  0.04423  -0.02347  -0.006918  0.909  -0.1462
6.412e+09  0.8321  0.1427  -0.01015  0.006496  0.02192  0.0217  0.7824  -0.4411
6.414e+09  0.8505  -0.1657  -0.03691  -0.001319  -0.03381  -0.01187  0.5482  -0.6428
6.415e+09  0.716  -0.4895  0.006498  0.02488  0.01237  -0.04186  0.3594  -0.8003
6.416e+09  0.5144  -0.7126  0.01704  -0.03806  -0.006614  0.01605  0.03322  -0.9018
6.418e+09  0.2385  -0.8512  0.03938  0.01608  -0.02527  -0.01356  -0.236  -0.8675
6.419e+09  -0.07172  -0.8595  -0.02552  -0.02065  -0.02316  -0.05232  -0.5737  -0.6617
6.42e+09  -0.3222  -0.8111  0.0208  -0.02736  -0.06042  -0.06735  -0.7579  -0.4858
6.421e+09  -0.5993  -0.6587  -0.01906  0.01516  0.01664  0.004344  -0.8593  -0.2033
6.422e+09  -0.7854  -0.3808  0.0104  -4.236e-05  -0.003807  0.03668  -0.8615  0.09605
6.424e+09  -0.8827  -0.09562  -0.02795  -0.02231  -0.03233  -0.0005226  -0.801  0.4373
6.425e+09  -0.8717  0.2142  0.02844  0.009404  0.004579  -0.01559  -0.5932  0.6125
6.426e+09  -0.7795  0.5315  -0.03848  0.02535  0.02298  0.02536  -0.4109  0.8019
6.428e+09  -0.5148  0.751  -0.01176  -0.008789  0.004634  -0.007082  -0.05956  0.8328
6.429e+09  -0.2092  0.839  0.008835  0.01229  0.03337  0.009266  0.2309  0.8769
6.43e+09  0.0852  0.82  0.02016  0.0292  0.05464  0.0109  0.5027  0.7207
6.431e+09  0.3529  0.7423  -0.03537  0.01052  -0.01759  -0.01521  0.7584  0.4805
6.432e+09  0.6338  0.6295  0.03977  0.0114  0.04377  0.00864  0.8551  0.2425
6.434e+09  0.7892  0.4045  -0.001107  -0.009014  0.02227  0.02883  0.8419  -0.1145
6.435e+09  0.8792  0.03786  0.0003271  -0.002548  0.0005512  0.03754  0.7807  -0.3464
6.436e+09  0.8499  -0.2035  -0.01481  -0.02466  0.0009265  0.03488  0.5582  -0.5777
6.438e+09  0.7588  -0.5436  -0.01167  -0.004006  -0.04044  -0.02066  0.4087  -0.7525
6.439e+09  0.5179  -0.7334  0.03745  -0.02375  -0.03522  -0.02628  0.02413  -0.8422
6.44e+09  0.26  -0.8829  0.008731  0.01312  -0.01284  0.03192  -0.2168  -0.8307
6.441e+09  -0.07887  -0.9215  -0.00218  0.001872  0.03472  0.0198  -0.5065  -0.6777
6.442e+09  -0.3623  -0.8268  -0.03572  -0.007293  0.004899  0.04767  -0.719  -0.444
6.444e+09  -0.6592  -0.6314  -0.02397  0.01273  0.002457  0.007646  -0.8104  -0.1873
6.445e+09  -0.7874  -0.3356  -0.03812  0.02102  -0.03641  -0.009803  -0.8696  0.08078
6.446e+09  -0.9106  -0.07303  -0.02893  -0.02683  0.02187  -0.01154  -0.7838  0.3877
6.448e+09  -0.865  0.2389  0.02216  0.01323  0.05172  -0.004841  -0.5744  0.5994
6.449e+09  -0.7051  0.5656  -0.03537  0.0353  -0.01832  0.004703  -0.3515  0.7384
6.45e+09  -0.5083  0.7129  0.003217  -0.006585  -0.02683  -0.039  -0.06043  0.8074
6.451e+09  -0.1898  0.8533  0.01523  0.00488  -0.04953  0.02623  0.2047  0.8327
6.452e+09  0.1136  0.851  0.00752  -0.03457  0.008916  -0.01651  0.4713  0.6918
6.454e+09  0.4062  0.8169  -0.00547  0.01446  -0.008921  0.02099  0.6867  0.443
6.455e+09  0.6541  0.6602  -0.05214  9.014e-05  -0.007171  0.02483  0.7876  0.1947
6.456e+09  0.8596  0.347  0.02261  0.03731  0.04353  0.009186  0.8205  -0.08337
6.458e+09  0.8993  0.06932  -0.03078  -0.01395  -0.02215  -0.01422  0.7863  -0.3494
6.459e+09  0.8454  -0.3017  0.005319  -0.008605  0.01359  0.008915  0.5399  -0.5836
6.46e+09  0.8051  -0.5391  -0.02804  -0.0009927  -0.02253  -0.003636  0.3071  -0.7687
6.461e+09  0.5334  -0.8215  0.006378  -0.01171  0.005919  0.03522  0.04989  -0.8333
6.462e+09  0.1419  -0.8789  0.02252  -0.02176  0.02241  -0.0684  -0.2019  -0.7922
6.464e+09  -0.09373  -0.8559  0.01788  0.008118  0.04656  0.01953  -0.4277  -0.6907
6.465e+09  -0.4034  -0.7879  -0.02933  -0.008135  0.001126  0.02506  -0.6935  -0.4656
6.466e+09  -0.6645  -0.6103  0.03792  -0.05425  -0.003618  -0.004862  -0.7684  -0.1639
6.468e+09  -0.8153  -0.3196  -0.009119  0.04112  0.02949  0.01676  -0.8055  0.03231
6.469e+09  -0.8873  -0.06812  0.05417  0.01479  -0.0138  -0.02691  -0.7152  0.3478
6.47e+09  -0.8462  0.2484  -0.02157  -0.04858  -0.01653  0.001409  -0.526  0.5581
6.471e+09  -0.7235  0.5414  -0.02256  0.02816  -0.06315  -0.000181  -0.3176  0.7563
6.472e+09  -0.4914  0.7705  -0.03453  -0.06239  0.03568  0.02846  -0.06101  0.7978
6.474e+09  -0.171  0.9041  -0.002789  0.04714  0.02128  -0.02089  0.2211  0.7931
6.475e+09  0.1071  0.9647  -0.01128  -0.007913  -0.009711  -0.01637  0.4275  0.6565
6.476e+09  0.4191  0.7789  -0.01431  -0.007019  0.0007095  0.006479  0.6716  0.4433
6.478e+09  0.6674  0.6177  0.005091  0.01674  0.004812  0.03768  0.7564  0.1742
6.479e+09  0.8383  0.3412  -0.002005  0.02011  0.005362  -0.01101  0.7984  -0.0911
6.48e+09  0.9411  0.01114  -0.01592  0.01362  0.05456  0.01413  0.7068  -0.3244
6.481e+09  0.8581  -0.2898  -0.0008379  8.087e-05  -0.02073  -0.0002728  0.5555  -0.5708
6.482e+09  0.7173  -0.5552  -0.008813  -0.005469  -0.0131  0.02366  0.2817  -0.6971
6.484e+09  0.4818  -0.7689  0.03151  -0.02041  -0.01923  -0.03712  0.08229  -0.7451
6.485e+09  0.1686  -0.8849  -0.01837  -0.005843  -0.02933  0.01595  -0.225  -0.7546
6.486e+09  -0.2017  -0.9146  -0.01419  0.01051  -0.02571  -0.03174  -0.4763  -0.575
6.488e+09  -0.4649  -0.8484  0.01083  0.001485  0.02148  0.02855  -0.6145  -0.4615
6.489e+09  -0.7063  -0.5956  -0.003696  0.003625  0.01995  0.01823  -0.7869  -0.1773
6.49e+09  -0.8439  -0.3479  -0.02205  -0.009259  -0.06801  0.008446  -0.7647  0.1275
6.491e+09  -0.9333  0.02675  0.02187  -0.04554  -0.00504  0.007772  -0.6745  0.3454
6.492e+09  -0.8816  0.3267  0.003155  0.006189  -0.01466  -0.02181  -0.5262  0.5623
6.494e+09  -0.7253  0.5829  -0.01471  -0.001608  -0.004688  -0.03444  -0.2991  0.6987
6.495e+09  -0.4927  0.8017  -0.0257  -0.03328  0.0141  0.01142  -0.02254  0.7557
6.496e+09  -0.08846  0.9323  -0.02562  0.001547  0.03293  -0.00214  0.2181  0.7011
6.498e+09  0.1337  0.9098  -0.003214  -0.02681  -0.03822  0.03231  0.4906  0.6404
6.499e+09  0.4633  0.7975  -0.03994  0.02922  -0.02305  0.01195  0.6454  0.4263
6.5e+09  0.7048  0.5687  -0.01022  -0.0514  -0.08195  -0.02516  0.7775  0.179
6.501e+09  0.9051  0.2573  -0.01187  -0.0242  -0.003581  0.02419  0.7896  -0.1287
6.502e+09  0.9438  -0.0407  0.02072  -0.0215  0.005832  0.04311  0.6413  -0.3891
6.504e+09  0.9011  -0.2972  0.003561  -0.004734  0.02194  0.06428  0.4573  -0.5977
6.505e+09  0.6861  -0.6218  0.001044  -0.00174  -0.01987  -0.0293  0.2899  -0.7409
6.506e+09  0.4277  -0.8548  0.04442  -0.009684  0.002243  -0.05129  0.0008483  -0.7653
6.508e+09  0.1395  -0.9528  -0.0383  0.004795  -0.03869  0.01499  -0.2705  -0.7414
6.509e+09  -0.2084  -0.8856  -0.02777  -0.02606  -0.01612  0.02474  -0.479  -0.6057
6.51e+09  -0.5021  -0.7565  0.009607  -0.009418  0.01439  -0.01752  -0.6558  -0.4039
6.511e+09  -0.7447  -0.5515  0.008202  -0.02064  0.01601  0.0157  -0.7302  -0.2015
6.512e+09  -0.8672  -0.2512  -0.004518  0.01307  0.007079  -0.01972  -0.7425  0.1199
6.514e+09  -0.9413  0.07239  -0.005651  -0.01174  -0.001777  -0.03142  -0.6901  0.4184
6.515e+09  -0.8738  0.4211  0.02727  0.0541  -0.01388  -0.000833  -0.4438  0.598
6.516e+09  -0.7045  0.6917  0.02163  0.03573  -0.001726  0.04098  -0.2428  0.7237
6.518e+09  -0.4106  0.8331  -0.004321  0.03303  -0.04542  -0.01963  0.001006  0.7395
6.519e+09  -0.09807  0.936  -0.002856  0.01565  -0.005699  -0.01454  0.2592  0.687
6.52e+09  0.2037  0.9123  0.0545  0.02517  -0.01233  0.02474  0.4795  0.5591
6.521e+09  0.5443  0.788  0.003297  0.03023  0.024  -0.02268  0.6509  0.3739
6.522e+09  0.7946  0.5406  8.718e-05  -0.01165  0.012  0.02197  0.7106  0.08543
6.524e+09  0.8824  0.2312  -0.0007323  -0.01764  -0.03369  -2.159e-05  0.7194  -0.1605
6.525e+09  0.9051  -0.1377  -0.01468  0.01701  0.05126  0.002435  0.5992  -0.382
6.526e+09  0.8991  -0.4337  0.02374  -0.01135  -0.002165  0.003155  0.4062  -0.5704
6.528e+09  0.6212  -0.687  0.009806  0.05618  -0.05549  -0.03105  0.2139  -0.6943
6.529e+09  0.3586  -0.8938  0.01201  -0.008207  0.01795  -0.009104  -0.02408  -0.717
6.53e+09  0.03678  -0.9245  -0.01045  -0.01474  0.00551  0.01947  -0.2467  -0.6337
6.531e+09  -0.3894  -0.91  -0.006465  0.01077  0.04661  -0.03671  -0.4783  -0.5114
6.532e+09  -0.5549  -0.8312  0.04111  0.01833  0.008365  0.01125  -0.5736  -0.2625
6.534e+09  -0.8532  -0.4648  0.008858  0.03536  0.01311  -0.06258  -0.6147  -0.09468
6.535e+09  -0.952  -0.1952  0.01466  0.05264  0.01601  -0.006337  -0.6122  0.1162
6.536e+09  -0.9444  0.1725  0.02758  0.02601  0.0455  -0.04594  -0.567  0.3196
6.538e+09  -0.8117  0.4679  0.02961  -0.0159  0.04272  0.02676  -0.4551  0.4394
6.539e+09  -0.6311  0.7873  -0.0119  -0.004168  -0.001758  0.01737  -0.2611  0.5703
6.54e+09  -0.3333  0.9232  0.01007  -0.006232  -0.03845  0.02347  -0.04071  0.6536
6.541e+09  0.02257  1.058  -0.00666  0.02939  0.03576  -0.01335  0.1565  0.6748
6.542e+09  0.3849  0.9358  0.00827  -0.01736  0.001038  -0.01321  0.4099  0.596
6.544e+09  0.6194  0.7257  0.005037  -0.01213  -0.007454  -0.02535  0.575  0.3806
6.545e+09  0.8314  0.4325  -0.02181  0.01935  0.03514  -0.001155  0.6788  0.1733
6.546e+09  0.9323  0.0719  0.01662  -0.002982  -0.002895  -0.003498  0.7141  -0.07957
6.548e+09  0.9088  -0.2555  -0.01456  0.006558  -0.01849  0.002543  0.6758  -0.3369
6.549e+09  0.785  -0.5523  0.02322  -0.00699  0.004152  0.03796  0.4814  -0.5429
6.55e+09  0.5604  -0.8054  0.004554  -0.02378  0.01199  -0.007236  0.2525  -0.6423
