# Hz S RI R 50
6.25e+09  -0.3526  0.7467  0.003776  -0.01192  -0.02029  0.03489  0.1375  0.4674
6.251e+09  -0.1163  0.8613  0.003187  -0.03494  -0.01765  -0.01575  0.377  0.4221
6.252e+09  0.1673  0.8538  0.01011  -0.01122  0.01472  -0.04641  0.5227  0.2412
6.254e+09  0.4389  0.685  -0.0244  0.04396  -0.03846  -0.01286  0.5823  0.03363
6.255e+09  0.6675  0.5524  0.002117  -0.02182  -0.01228  0.005636  0.532  -0.247
6.256e+09  0.792  0.1908  -0.03316  0.0264  -0.0154  0.04138  0.4755  -0.4126
6.258e+09  0.851  0.008156  -0.0221  -0.008533  -0.06335  0.04208  0.3088  -0.5787
6.259e+09  0.8107  -0.3027  -0.03078  0.01182  -0.04176  -0.0127  0.03586  -0.6669
6.26e+09  0.611  -0.6252  -0.02827  -0.02569  -0.07352  -0.01506  -0.1921  -0.6594
6.261e+09  0.4192  -0.7226  0.03199  0.02527  0.01723  0.03065  -0.4424  -0.5449
6.262e+09  0.08884  -0.8516  0.001484  -0.01079  0.007289  -0.02722  -0.6252  -0.342
6.264e+09  -0.2058  -0.7841  -0.01349  -0.002916  0.03645  0.0201  -0.7217  -0.1074
6.265e+09  -0.4851  -0.6637  -0.008961  0.005761  0.07104  0.02117  -0.7175  0.1776
6.266e+09  -0.6315  -0.4323  0.006156  -0.001925  -0.06633  -0.01878  -0.6521  0.4078
6.268e+09  -0.7985  -0.2641  -0.01995  0.001146  0.03166  -0.003049  -0.4429  0.6028
6.269e+09  -0.8459  0.08246  -0.004519  -0.03475  -0.01242  0.01669  -0.1835  0.6984
6.27e+09  -0.7471  0.363  -0.006036  -0.02077  0.03783  0.001348  0.05435  0.7188
6.271e+09  -0.6082  0.5679  0.01309  -0.007551  -0.04065  -0.002865  0.3077  0.6434
6.272e+09  -0.3998  0.7241  0.0002178  0.0168  -0.023  -0.02163  0.5229  0.526
6.274e+09  -0.04932  0.8022  -0.01394  0.007618  -0.04327  0.00883  0.6897  0.3194
6.275e+09  0.173  0.8118  -0.03307  0.001786  -0.07976  -0.0217  0.7728  0.03771
6.276e+09  0.4713  0.6592  -0.007634  -0.01407  0.008191  -0.0114  0.7227  -0.2179
6.278e+09  0.7346  0.534  0.0283  0.02089  0.01696  -0.00982  0.6153  -0.462
6.279e+09  0.7836  0.1814  -0.006766  0.01077  0.01314  0.007616  0.3969  -0.6617
6.28e+09  0.81  -0.1278  -0.01339  -0.0001863  -0.01898  -0.02569  0.1831  -0.7724
6.281e+09  0.6982  -0.3529  -0.009027  -0.00476  -0.05141  0.005527  -0.1311  -0.7585
6.282e+09  0.6143  -0.5922  -0.005209  0.002341  0.02  0.05743  -0.3884  -0.6659
6.284e+09  0.3457  -0.7217  -0.01249  1.167e-05  0.03126  -0.02999  -0.6011  -0.5008
6.285e+09  0.08099  -0.7963  0.004821  0.008817  -0.02452  0.01113  -0.7359  -0.2779
6.286e+09  -0.2436  -0.7945  0.02728  -0.004256  -0.01169  0.006915  -0.7685  -0.03784
6.288e+09  -0.46  -0.6586  -0.012  -0.006186  -0.04001  0.03514  -0.7717  0.2707
6.289e+09  -0.7056  -0.5313  -0.006297  0.01266  0.009214  0.04913  -0.5965  0.5276
6.29e+09  -0.8019  -0.1744  0.006192  -0.02028  0.02834  0.04313  -0.4028  0.6891
6.291e+09  -0.8515  0.1185  0.01781  -0.01293  0.02882  -0.00762  -0.1566  0.772
6.292e+09  -0.7285  0.3451  -0.03595  -0.0002157  -0.0119  -0.08906  0.1452  0.7974
6.294e+09  -0.6175  0.5808  -0.01595  0.01384  -0.01173  0.02018  0.3975  0.6872
6.295e+09  -0.3556  0.7993  -0.02085  0.01622  -0.005082  -0.03058  0.5814  0.5413
6.296e+09  -0.03063  0.8604  0.00821  0.007124  -0.02622  0.05044  0.7685  0.2591
6.298e+09  0.25  0.7913  0.01264  0.005415  -0.01973  -0.0542  0.8038  0.004121
6.299e+09  0.5024  0.7064  0.0009079  0.008642  0.02548  -0.07089  0.7718  -0.2855
6.3e+09  0.7487  0.4517  -0.02313  0.02446  0.06271  -0.01745  0.6443  -0.5273
6.301e+09  0.7908  0.1599  0.01673  0.004566  -0.006341  0.00464  0.4365  -0.7176
6.302e+09  0.8065  -0.1288  0.003821  0.00701  -0.0186  -0.001867  0.1706  -0.831
6.304e+09  0.7449  -0.4216  -0.02217  0.01743  -0.02162  -0.003619  -0.1214  -0.8691
6.305e+09  0.4959  -0.6413  -0.02172  0.02732  0.06932  -0.04147  -0.4283  -0.7144
6.306e+09  0.2733  -0.795  -0.005433  0.01909  -0.02685  -0.005233  -0.629  -0.5464
6.308e+09  0.02032  -0.8337  0.008174  0.0009383  0.009977  0.05731  -0.8029  -0.2764
6.309e+09  -0.2633  -0.8028  0.01159  0.01347  -0.03057  -0.09118  -0.8797  -0.01785
6.31e+09  -0.5106  -0.6601  -0.009297  -0.005081  -0.01547  0.001126  -0.7922  0.3106
6.311e+09  -0.6709  -0.4323  -0.01604  0.009229  -0.04174  0.02853  -0.6711  0.5519
6.312e+09  -0.8357  -0.1683  0.0149  -0.01536  -0.02657  -0.01804  -0.4464  0.7242
6.314e+09  -0.8164  0.09065  0.00427  -0.0005427  -0.005839  -0.009679  -0.1939  0.8433
6.315e+09  -0.6722  0.4286  0.02501  0.01158  -0.01764  -0.03705  0.1485  0.8598
6.316e+09  -0.5321  0.6694  0.02377  0.01508  -0.03594  -0.01649  0.4523  0.7438
6.318e+09  -0.265  0.7747  -0.001122  0.01772  -0.03624  0.004055  0.6715  0.5653
6.319e+09  0.03994  0.8278  0.02017  -0.03447  0.02764  0.03412  0.8097  0.3069
6.32e+09  0.3378  0.7436  0.01857  -0.01535  -0.02751  0.01432  0.8755  -0.002639
6.321e+09  0.5699  0.6762  -0.04418  -0.02213  -0.01048  -0.03694  0.8241  -0.2887
6.322e+09  0.801  0.3671  -0.01469  0.006198  -0.03788  -0.0167  0.6946  -0.5436
6.324e+09  0.8362  0.09696  -0.01556  -0.001687  0.02096  -0.005868  0.4552  -0.7536
6.325e+09  0.8262  -0.2139  0.005162  0.004689  0.01769  0.003695  0.1572  -0.8762
6.326e+09  0.7112  -0.4728  0.03983  -0.01496  0.0371  0.0453  -0.1248  -0.8563
6.328e+09  0.4947  -0.6651  0.0184  0.01259  -0.002352  -0.04366  -0.3961  -0.7512
6.329e+09  0.2571  -0.8257  0.02203  -0.004543  -0.05043  -0.02414  -0.6656  -0.587
6.33e+09  -0.04937  -0.8613  0.004153  -0.00559  0.02808  0.01763  -0.8403  -0.3347
6.331e+09  -0.3686  -0.7522  -0.03263  -0.007966  0.05618  0.01884  -0.9247  -0.009114
6.332e+09  -0.6098  -0.6121  0.01113  -0.05865  -0.0004338  -0.04463  -0.902  0.2526
6.334e+09  -0.7984  -0.346  0.001527  -0.002629  -0.03497  0.003983  -0.6956  0.5861
6.335e+09  -0.8316  -0.06063  -0.000886  -0.01309  -0.0115  0.005519  -0.4962  0.7739
6.336e+09  -0.8458  0.2402  -0.01844  0.01335  0.009236  0.0119  -0.1931  0.8684
6.338e+09  -0.7036  0.537  0.004442  0.03685  0.01597  -0.01633  0.1515  0.9085
6.339e+09  -0.4744  0.7211  0.02025  -0.02178  -0.01004  0.003425  0.4316  0.82
6.34e+09  -0.191  0.8467  -0.004899  -0.01554  0.01749  0.00854  0.6907  0.5833
6.341e+09  0.1222  0.823  -0.01988  -0.007153  0.02051  -0.03811  0.844  0.3688
6.342e+09  0.413  0.7669  0.01043  -0.004293  -0.009272  0.03128  0.9242  0.04799
6.344e+09  0.6889  0.5484  -0.0003814  0.001201  -0.01313  0.02402  0.8735  -0.25
6.345e+09  0.8381  0.2845  -0.0176  -0.02909  -0.007356  0.0124  0.7505  -0.561
6.346e+09  0.8732  -0.01573  0.01909  0.03419  -0.03327  0.02494  0.4976  -0.7656
6.348e+09  0.8413  -0.3359  -0.0004599  0.01088  0.04891  0.005901  0.2386  -0.9043
6.349e+09  0.6593  -0.5986  -0.0348  0.04163  -0.01829  0.02986  -0.078  -0.9489
6.35e+09  0.3977  -0.779  0.002143  -0.04633  -0.03548  0.01127  -0.4005  -0.807
6.351e+09  0.1097  -0.8543  0.02197  0.04171  0.002109  0.008712  -0.7063  -0.6037
6.352e+09  -0.1899  -0.8466  -0.03997  0.01745  -0.01217  -0.006333  -0.8502  -0.3661
6.354e+09  -0.4769  -0.7262  0.03019  -0.03834  -0.01006  -0.05286  -0.9345  -0.04218
6.355e+09  -0.7187  -0.5437  -0.007084  0.01873  -0.0112  0.02186  -0.889  0.2526
6.356e+09  -0.8909  -0.2522  0.01091  -0.008523  0.02653  -0.009608  -0.7421  0.5317
6.358e+09  -0.8872  0.001729  -0.004735  -0.02642  -0.01221  0.00871  -0.5173  0.7804
6.359e+09  -0.8053  0.3362  0.05795  0.004316  -0.001219  -0.04026  -0.2373  0.9127
6.36e+09  -0.6598  0.643  0.0286  0.02528  0.03873  0.02897  0.07613  0.9576
6.361e+09  -0.366  0.7824  0.002037  -0.01449  -0.03229  -0.05979  0.425  0.8412
6.362e+09  -0.1029  0.8871  0.01074  -0.01877  -0.01852  -0.05451  0.6408  0.6886
6.364e+09  0.1981  0.7816  0.008662  -0.01727  0.006539  -0.003518  0.8869  0.3815
6.365e+09  0.5401  0.7316  -0.03401  0.01078  0.009022  0.01269  0.9493  0.0689
6.366e+09  0.7418  0.487  0.006941  0.05362  -0.008243  0.009665  0.9218  -0.2601
6.368e+09  0.8807  0.185  0.02271  0.0008139  0.005607  0.005508  0.7845  -0.5289
6.369e+09  0.8844  -0.1117  0.003885  0.02405  -0.004672  0.0139  0.5543  -0.7447
6.37e+09  0.7961  -0.4273  0.007176  -0.0143  0.0114  -0.003369  0.2377  -0.9295
6.371e+09  0.555  -0.6157  0.009747  0.02178  0.02807  -0.02874  -0.07951  -0.9483
6.372e+09  0.3109  -0.8079  -0.02749  -0.0108  -0.01517  0.04488  -0.3852  -0.8559
6.374e+09  -0.0009091  -0.9175  0.02188  0.02482  0.008149  -0.01501  -0.6826  -0.7015
6.375e+09  -0.2357  -0.8539  0.0105  -0.01834  0.02332  0.04874  -0.8396  -0.4432
6.376e+09  -0.524  -0.6661  0.01954  -0.003511  -0.03372  0.01023  -0.9282  -0.08371
6.378e+09  -0.7711  -0.4629  0.005471  -0.001904  0.0002273  -0.04812  -0.8962  0.1831
6.379e+09  -0.8255  -0.1844  -0.03802  0.005354  0.0398  0.02971  -0.7816  0.5105
6.38e+09  -0.8836  0.1419  0.008451  -0.0008536  -0.01609  0.01777  -0.5551  0.7769
6.381e+09  -0.7495  0.4219  -0.02371  0.02028  -0.0003762  0.03365  -0.2282  0.892
6.382e+09  -0.6048  0.7131  -0.006346  0.009113  -0.04823  0.03287  0.06058  0.965
6.384e+09  -0.2831  0.8276  -0.0235  -0.0545  -0.0181  0.01082  0.3388  0.8425
6.385e+09  0.009741  0.8819  0.04159  0.05507  -0.008818  -0.03256  0.6239  0.6813
6.386e+09  0.3114  0.8289  -0.02749  -0.002797  0.02958  0.04875  0.8377  0.4225
6.388e+09  0.6017  0.6573  0.01788  0.007051  0.04569  0.006077  0.8976  0.1089
6.389e+09  0.794  0.3822  0.02012  -0.0002401  -0.02383  -0.04844  0.9021  -0.2399
6.39e+09  0.8671  0.1352  -0.0002399  0.00563  -0.06989  0.004684  0.7626  -0.4565
6.391e+09  0.8933  -0.1586  -0.01298  0.02461  0.009629  0.04242  0.5601  -0.7593
6.392e+09  0.7584  -0.4916  -0.01845  -0.008428  -0.004003  0.01741  0.2674  -0.8409
6.394e+09  0.5811  -0.6829  -0.03403  -0.02032  -0.003406  -0.002947  -0.02771  -0.9243
6.395e+09  0.2622  -0.8373  0.009427  0.01373  0.01605  -0.01856  -0.3557  -0.8008
6.396e+09  -0.04878  -0.8717  -0.03932  0.02767  -0.03026  0.01318  -0.6277  -0.7321
6.398e+09  -0.3618  -0.7843  -0.005354  0.01014  -0.05231  -0.0002392  -0.8169  -0.4502
6.399e+09  -0.598  -0.598  0.005867  -0.04571  0.03426  -0.04052  -0.8928  -0.1298
6.4e+09  -0.7889  -0.4066  0.01582  0.02134  0.04208  0.0009154  -0.8938  0.2214
6.401e+09  -0.8404  -0.1267  0.007086  0.009539  -0.009838  0.01941  -0.7851  0.4903
6.402e+09  -0.8157  0.2258  0.02213  0.01516  -0.01556  0.002112  -0.57  0.6912
6.404e+09  -0.727  0.4964  0.02913  -0.01526  -0.01796  -0.01814  -0.2788  0.8227
6.405e+09  -0.5457  0.7429  0.02521  -0.01523  -0.04996  0.005325  -0.04154  0.9201
6.406e+09  -0.2267  0.7871  0.0148  0.02308  0.05702  0.0191  0.291  0.874
6.408e+09  0.06582  0.8612  -0.004663  0.03809  0.00576  0.02294  0.6045  0.7197
6.409e+09  0.39  0.8024  0.001373  0.02854  0.008467  0.01617  0.771  0.432
6.41e+09  0.5713  0.6259  0.006631  -0.0106  -0.04171  0.01293  0.8918  0.1684
6.411e+09  0.7797  0.3901  0.0201  -0.004188  -0.04125  -0.004327  0.9233  -0.133
6.412e+09  0.8612  0.04851  -0.02657  0.003948  -0.03261  0.02553  0.7956  -0.4211
6.414e+09  0.8338  -0.2593  0.02409  -0.01358  0.0247  0.003394  0.6146  -0.6193
6.415e+09  0.7012  -0.4834  -0.01231  -0.008384  -0.05978  -0.002415  0.4098  -0.8039
6.416e+09  0.4735  -0.7686  -0.02794  0.01421  -0.02848  0.07082  0.02743  -0.9015
6.418e+09  0.2297  -0.8346  -0.002745  0.07686  0.01033  0.01752  -0.241  -0.8486
6.419e+09  -0.09816  -0.876  0.01709  -0.02228  0.002547  -0.0103  -0.5715  -0.689
6.42e+09  -0.3614  -0.798  0.0446  -0.008356  0.02655  0.02966  -0.7437  -0.4699
6.421e+09  -0.5918  -0.6261  -0.02057  0.0102  0.02304  -0.01316  -0.8805  -0.1883
6.422e+09  -0.8109  -0.3608  -0.01859  0.05099  0.006205  -0.006215  -0.9004  0.09621
6.424e+09  -0.8976  -0.09547  0.002599  -0.02829  -0.01486  -0.003781  -0.8296  0.3966
6.425e+09  -0.8941  0.2523  0.00429  0.002739  -0.04046  0.001263  -0.6357  0.6568
6.426e+09  -0.7213  0.5353  -0.0001845  0.03916  -0.04179  -0.005893  -0.3523  0.7785
6.428e+09  -0.4411  0.7163  -0.03446  0.01614  -0.0159  0.005962  -0.007173  0.8223
6.429e+09  -0.1732  0.8703  0.02188  -0.01216  0.007605  0.01173  0.2401  0.8269
6.43e+09  0.09241  0.8862  0.04869  0.01406  0.04551  -0.003442  0.5323  0.6739
6.431e+09  0.3808  0.7714  0.005347  -0.0142  -0.001332  -0.02117  0.7195  0.4656
6.432e+09  0.5849  0.5556  0.05308  -0.0109  -0.03347  -0.00262  0.8272  0.2024
6.434e+09  0.8344  0.3019  -0.03195  0.00895  -0.01578  0.01556  0.849  -0.07824
6.435e+09  0.845  0.04977  -0.07975  -0.01446  -0.01535  0.02519  0.7865  -0.3648
6.436e+09  0.8751  -0.2824  -0.007071  -0.003829  0.004133  0.03836  0.5643  -0.6455
6.438e+09  0.6514  -0.507  0.02406  0.03457  0.03146  -0.0162  0.3479  -0.7993
6.439e+09  0.5028  -0.7355  -0.01816  0.01093  -0.002563  0.003535  0.03815  -0.8711
6.44e+09  0.2045  -0.8395  -0.03138  0.01019  0.05365  -0.02042  -0.1853  -0.8096
6.441e+09  -0.08412  -0.9265  -0.01245  -0.01494  -0.007154  0.02096  -0.4711  -0.6577
6.442e+09  -0.36  -0.7679  0.009029  0.004405  0.01515  -0.01505  -0.6345  -0.4973
6.444e+09  -0.6181  -0.5748  -0.003774  -0.01203  0.03289  0.00251  -0.8796  -0.2158
6.445e+09  -0.7909  -0.3612  -0.01859  -0.04856  0.02576  0.003745  -0.8646  0.07829
6.446e+09  -0.901  -0.04159  -0.01603  -0.04451  -0.02414  0.01841  -0.808  0.326
6.448e+09  -0.8183  0.2487  0.00582  0.01975  -0.006987  0.03761  -0.5547  0.583
6.449e+09  -0.703  0.5224  0.02806  -0.02049  0.0169  -0.008807  -0.3702  0.7771
6.45e+09  -0.499  0.7699  -0.06427  -0.007433  0.002862  -0.005464  -0.07889  0.8146
6.451e+09  -0.2348  0.9013  -0.007624  -0.006633  -0.03896  0.009305  0.2651  0.801
6.452e+09  0.1433  0.8279  0.02054  -0.008453  0.06109  -0.0138  0.494  0.6634
6.454e+09  0.4153  0.7771  0.03229  -0.009753  -0.03658  -0.0415  0.6603  0.483
6.455e+09  0.6332  0.5973  0.04043  -0.01705  0.01813  0.03552  0.7921  0.1777
6.456e+09  0.8263  0.3553  -0.00928  -0.00654  -0.01693  -0.001559  0.8071  -0.06701
6.458e+09  0.8866  0.06585  -0.007076  0.001393  0.02314  -0.03443  0.8103  -0.3127
6.459e+09  0.8671  -0.3225  -0.015  0.009317  -0.02134  0.02053  0.607  -0.5744
6.46e+09  0.7241  -0.5281  0.02514  -0.02293  -0.04416  -0.04419  0.2978  -0.6702
6.461e+09  0.4732  -0.7758  0.02941  -0.03108  -0.03719  -0.01117  0.08107  -0.7739
6.462e+09  0.1858  -0.8507  -0.02298  -0.0339  -0.03794  -0.03029  -0.2223  -0.7935
6.464e+09  -0.1416  -0.8563  -0.01547  0.02058  0.04107  0.004266  -0.4785  -0.6837
6.465e+09  -0.4314  -0.7107  -0.01595  -0.01343  0.06707  -0.03926  -0.6188  -0.4534
6.466e+09  -0.6811  -0.5651  0.01445  -0.01477  0.02938  -0.01757  -0.7808  -0.1991
6.468e+09  -0.8699  -0.2923  0.02382  -0.003056  -0.0353  0.04212  -0.8135  0.07818
6.469e+09  -0.9455  -0.05552  0.007283  0.007089  -0.03931  0.003904  -0.7269  0.3489
6.47e+09  -0.8816  0.3014  -0.02405  -0.01369  0.0378  0.05901  -0.5389  0.5508
6.471e+09  -0.7143  0.5768  -0.04016  0.01581  -0.03259  -0.007221  -0.3031  0.7239
6.472e+09  -0.4495  0.7476  -0.02566  -0.02696  0.0434  -0.005843  -0.08126  0.8207
6.474e+09  -0.1774  0.8712  0.01231  0.04488  -0.007888  0.02547  0.1741  0.742
6.475e+09  0.1414  0.919  -0.003148  -0.008075  -0.01655  -0.02074  0.4381  0.6413
6.476e+09  0.4675  0.806  0.01877  0.007479  0.03249  0.0115  0.6307  0.4627
6.478e+09  0.6591  0.6311  0.02016  -0.002431  0.01406  0.03714  0.7765  0.2059
6.479e+09  0.8176  0.3233  0.006165  -0.02661  0.02022  -0.006483  0.7526  -0.08596
6.48e+09  0.9309  0.007346  -0.01511  0.005517  -0.0104  -0.04107  0.7224  -0.3347
6.481e+09  0.827  -0.3151  0.01664  0.002015  0.0346  -0.01776  0.5626  -0.5521
6.482e+09  0.7157  -0.5629  0.01388  -0.01935  -0.04713  -0.01413  0.338  -0.7263
6.484e+09  0.4639  -0.7538  0.03247  -0.01505  -0.02692  -0.01291  0.04419  -0.7662
6.485e+09  0.2103  -0.9419  0.001687  0.01818  0.007745  0.01384  -0.2523  -0.7501
6.486e+09  -0.1539  -0.8757  -0.02375  0.06262  -0.02161  0.0273  -0.4251  -0.6364
6.488e+09  -0.4427  -0.7925  0.000459  -0.02046  -0.01295  -0.002981  -0.6437  -0.4353
6.489e+09  -0.6504  -0.6065  -0.002321  0.02124  -0.01892  0.04696  -0.7298  -0.1864
6.49e+09  -0.8948  -0.2669  0.02155  -0.01376  0.03926  0.02942  -0.7776  0.1118
6.491e+09  -0.9314  -0.006242  -0.01974  -0.00119  -0.014  -0.007939  -0.6944  0.2994
6.492e+09  -0.877  0.3248  -0.01133  -0.01824  -0.03884  0.005101  -0.5258  0.5593
6.494e+09  -0.7146  0.6232  0.01602  0.00537  0.002707  0.04931  -0.3141  0.7054
6.495e+09  -0.4349  0.8052  0.02565  0.02505  0.006803  -0.00963  -0.04309  0.7475
6.496e+09  -0.1347  0.9202  0.003387  0.01617  -0.00195  0.00061  0.2426  0.7104
6.498e+09  0.1926  0.888  -0.05976  -0.04479  -0.01118  -0.02717  0.4417  0.5989
6.499e+09  0.4865  0.8089  0.004954  0.0149  0.05983  -0.0145  0.6532  0.3768
6.5e+09  0.7656  0.5525  -0.001544  0.009355  -0.01855  -0.06185  0.7265  0.1621
6.501e+09  0.8881  0.215  0.02304  -0.02192  0.002438  -0.03843  0.7843  -0.1133
6.502e+09  0.8764  -0.08999  0.01169  0.008377  -0.02852  0.002088  0.6831  -0.3503
6.504e+09  0.8318  -0.3793  -0.004381  -0.0009196  -0.03304  0.06524  0.5255  -0.5339
6.505e+09  0.7085  -0.6534  -0.03469  0.007068  -0.03849  0.07909  0.3002  -0.7013
6.506e+09  0.4178  -0.8651  0.04061  -0.006056  0.0147  -0.01161  0.003095  -0.7212
6.508e+09  0.1076  -0.9332  -0.00726  0.01137  -0.02178  -0.01369  -0.2872  -0.7396
6.509e+09  -0.2157  -0.9412  0.01258  -0.01207  0.01568  -0.02184  -0.4919  -0.5422
6.51e+09  -0.5462  -0.785  -0.02361  0.0164  0.004859  -0.02062  -0.6394  -0.3804
6.511e+09  -0.7604  -0.5359  -0.02518  -0.02354  0.04393  -0.01188  -0.7194  -0.145
6.512e+09  -0.8624  -0.2849  -0.01117  -0.04366  -0.01766  0.02308  -0.761  0.1467
6.514e+09  -0.9809  0.05444  -0.004685  -0.02292  0.06677  0.007466  -0.6326  0.3767
6.515e+09  -0.8532  0.4529  0.02292  0.01618  0.02054  -0.02045  -0.4686  0.5595
6.516e+09  -0.6792  0.6485  0.01755  -0.004653  0.008142  0.06802  -0.2611  0.6888
6.518e+09  -0.4314  0.8737  -0.0151  -0.00087  -0.02273  0.02673  0.03891  0.7339
6.519e+09  -0.07812  0.9445  0.0009595  0.004717  0.004844  0.03617  0.2573  0.6885
6.52e+09  0.232  0.9357  0.01552  -0.006241  -0.02602  0.03703  0.4776  0.5372
6.521e+09  0.6177  0.7683  -0.03203  0.01999  0.005814  -0.02045  0.6467  0.3955
6.522e+09  0.7926  0.4879  0.01918  0.009902  -0.01707  -0.04332  0.7226  0.06217
6.524e+09  0.9364  0.1959  0.01229  -0.01928  0.02987  0.0003182  0.7008  -0.1688
6.525e+09  0.9588  -0.1567  0.01665  -0.003684  -0.02091  -0.005911  0.6177  -0.4053
6.526e+09  0.8198  -0.4481  0.01693  0.02878  0.03501  -0.03102  0.4165  -0.5853
6.528e+09  0.5991  -0.7396  -0.01019  0.0119  0.03629  0.02441  0.2155  -0.7034
6.529e+09  0.3303  -0.9088  -0.04506  -0.02735  0.01567  -0.01232  -0.05603  -0.7007
6.53e+09  0.001335  -0.9286  -0.01271  0.006063  -0.02375  0.001803  -0.283  -0.6129
6.531e+09  -0.3339  -0.8757  0.03505  0.02783  -0.02289  -0.0002714  -0.4467  -0.4596
6.532e+09  -0.682  -0.7274  -0.00909  0.009696  -0.01087  -0.01551  -0.5865  -0.2651
6.534e+09  -0.8577  -0.4538  0.007155  -0.03164  -0.02032  -0.01085  -0.6424  -0.09739
6.535e+09  -0.9942  -0.1784  0.0287  0.01543  0.03652  0.00146  -0.627  0.05593
6.536e+09  -0.9306  0.2056  -0.004272  -0.00357  -0.009101  0.0345  -0.5437  0.3098
6.538e+09  -0.824  0.48  0.01087  0.0007142  0.03043  0.006609  -0.4431  0.4722
6.539e+09  -0.5971  0.7496  -0.001222  0.01366  -0.02612  -0.01961  -0.2676  0.6096
6.54e+09  -0.28  0.9231  -0.002789  0.009429  0.02565  -0.006044  -0.07297  0.6654
6.541e+09  0.04056  1.017  8.383e-05  0.02147  -0.004704  -0.02037  0.1918  0.6575
6.542e+09  0.3758  0.8654  -0.0204  -0.003889  0.03442  0.0203  0.3941  0.5937
6.544e+09  0.6726  0.6605  0.01306  0.002524  0.02749  0.01918  0.566  0.393
6.545e+09  0.8933  0.3765  0.007586  -0.02432  0.06172  0.00854  0.6783  0.1762
6.546e+09  0.978  0.08563  -0.006902  0.03297  0.003165  -0.03307  0.7198  -0.07932
6.548e+09  0.9075  -0.2833  -0.04269  -0.03124  0.0116  0.004845  0.6801  -0.2797
6.549e+09  0.7087  -0.5692  0.01027  -0.01152  -0.06743  -0.006379  0.4746  -0.522
6.55e+09  0.4613  -0.8271  -0.003877  -0.0076  -0.005487  -0.01824  0.2769  -0.6646
