# Hz S RI R 50
6.25e+09  -0.2523  0.845  -0.03017  -0.01527  -0.06932  0.01787  0.1743  0.4919
6.251e+09  0.07752  0.8201  0.01068  -0.02662  0.005393  0.01199  0.3508  0.4089
6.252e+09  0.3265  0.8139  -0.006939  0.01199  0.002783  0.04942  0.548  0.2389
6.254e+09  0.5912  0.6546  0.007737  0.0004337  -0.04415  0.003036  0.6137  0.01059
6.255e+09  0.7443  0.383  -0.02659  0.0144  -0.01447  0.03066  0.595  -0.2191
6.256e+09  0.8639  0.1317  -0.02446  -0.009538  -0.01291  -0.04175  0.4548  -0.4474
6.258e+09  0.8159  -0.1845  -0.02208  -0.013  -0.004409  -0.01589  0.281  -0.597
6.259e+09  0.6865  -0.5135  0.003241  0.01345  0.05379  0.03808  0.06367  -0.6914
6.26e+09  0.5584  -0.6563  0.01299  -0.003297  0.00956  -0.02575  -0.2084  -0.6528
6.261e+09  0.2627  -0.7517  -0.001086  0.00305  -0.06465  -0.04047  -0.415  -0.5416
6.262e+09  -0.08079  -0.8302  -0.02624  0.00326  -0.03175  -0.01526  -0.6  -0.3953
6.264e+09  -0.299  -0.7897  -0.002072  0.01517  0.004258  0.04795  -0.7039  -0.09753
6.265e+09  -0.5892  -0.626  -0.0211  0.005162  0.01112  -0.001677  -0.6781  0.1499
6.266e+09  -0.7754  -0.3864  0.01332  0.02358  -0.01474  0.02621  -0.6203  0.4106
6.268e+09  -0.7904  -0.1305  0.03444  -0.009376  0.02414  -0.04448  -0.4311  0.5627
6.269e+09  -0.81  0.1954  -0.02166  -0.004313  0.01226  0.05374  -0.1944  0.6771
6.27e+09  -0.7016  0.4607  0.004218  -0.02441  0.01134  -0.02359  0.04415  0.7647
6.271e+09  -0.4671  0.6826  0.03632  -0.01607  -0.04429  -0.01033  0.3169  0.6776
6.272e+09  -0.2508  0.7809  -0.00577  -0.005975  0.04286  -0.006433  0.5186  0.5096
6.274e+09  0.03871  0.8234  0.0003864  -0.02127  -0.09686  -0.009914  0.6944  0.3256
6.275e+09  0.3558  0.7612  -0.02115  0.01703  0.003804  -0.00915  0.7496  0.02626
6.276e+09  0.5487  0.6209  -0.0309  0.01759  0.01367  0.01005  0.7305  -0.2103
6.278e+09  0.7884  0.3259  0.0162  0.003083  -0.01297  -0.01089  0.6025  -0.4583
6.279e+09  0.8595  0.06028  0.04536  0.02579  0.009106  -0.01742  0.4392  -0.6264
6.28e+09  0.8614  -0.2025  0.02114  0.03697  0.01621  0.02569  0.1957  -0.7887
6.281e+09  0.6822  -0.4208  0.01397  0.008796  0.007528  0.04255  -0.1138  -0.7576
6.282e+09  0.4603  -0.7321  0.02427  -0.02049  0.002132  0.01751  -0.369  -0.6636
6.284e+09  0.1805  -0.7891  0.01149  0.001344  0.07039  -0.003062  -0.5692  -0.5185
6.285e+09  -0.06012  -0.8348  -0.01509  -0.01447  0.02263  -0.008444  -0.7663  -0.3267
6.286e+09  -0.3958  -0.7515  0.01701  -0.02207  0.005092  -0.0244  -0.7909  -0.02059
6.288e+09  -0.6216  -0.5587  0.008854  0.01884  -0.02442  -0.009018  -0.751  0.2402
6.289e+09  -0.7792  -0.3018  -0.005617  0.003829  0.02085  -0.006669  -0.6075  0.4557
6.29e+09  -0.8111  -0.01234  -0.005084  -0.03051  0.03136  0.02122  -0.4057  0.7074
6.291e+09  -0.7845  0.2569  -0.0108  0.0469  -0.002242  -0.02075  -0.1548  0.7839
6.292e+09  -0.624  0.515  -0.02847  -0.01996  0.00451  0.01392  0.1125  0.7951
6.294e+09  -0.4523  0.7182  0.007111  -0.004742  0.04473  0.02871  0.3959  0.7413
6.295e+09  -0.2026  0.7712  -0.0006716  0.006216  -0.05682  -0.05608  0.6254  0.5716
6.296e+09  0.08366  0.8117  -0.02292  -0.02638  0.007611  0.0107  0.779  0.3072
6.298e+09  0.4111  0.6941  -0.01614  -0.001012  0.03931  -0.01411  0.8364  0.04394
6.299e+09  0.6148  0.5222  0.01689  0.000776  0.02804  0.003813  0.7516  -0.263
6.3e+09  0.7507  0.2877  -0.02136  -0.03463  -0.02904  -0.04746  0.6361  -0.5232
6.301e+09  0.8571  0.006294  0.01014  0.02877  -0.009399  0.06205  0.4372  -0.6975
6.302e+09  0.8025  -0.2664  -0.03978  0.01215  -0.02964  0.02885  0.1603  -0.8564
6.304e+09  0.6814  -0.5184  0.0007386  0.02772  -0.01252  0.002583  -0.1336  -0.8239
6.305e+09  0.445  -0.7209  0.008197  0.02189  0.01215  0.02373  -0.4348  -0.7181
6.306e+09  0.1538  -0.8562  -0.04133  -0.009815  0.0324  -0.0221  -0.6467  -0.552
6.308e+09  -0.1613  -0.8064  -0.02735  -0.03266  -0.006613  0.01347  -0.7854  -0.317
6.309e+09  -0.4661  -0.7368  0.009962  0.0109  -0.02497  -0.04905  -0.8697  -0.005987
6.31e+09  -0.692  -0.5541  -0.00343  0.01958  0.03688  -0.004784  -0.7758  0.2814
6.311e+09  -0.7672  -0.2768  0.002753  -0.01441  0.02104  0.02323  -0.6729  0.5354
6.312e+09  -0.8011  0.01598  0.009205  -0.003168  0.03447  0.01389  -0.4446  0.763
6.314e+09  -0.8023  0.3108  0.0046  0.01671  0.02253  0.05623  -0.1718  0.8478
6.315e+09  -0.6195  0.527  0.01367  -0.03603  0.02444  0.0316  0.1255  0.8594
6.316e+09  -0.3866  0.7153  -0.01315  0.01489  0.002469  -0.007877  0.4103  0.7647
6.318e+09  -0.0861  0.8451  0.03575  -0.00417  0.02037  0.01085  0.6469  0.5746
6.319e+09  0.1964  0.8124  -0.01585  -0.004513  -0.01905  0.02329  0.8305  0.3078
6.32e+09  0.4965  0.7107  0.03945  -0.02051  -0.02696  0.01663  0.8881  0.01172
6.321e+09  0.6463  0.4703  -0.01973  0.006377  -0.02896  0.008077  0.8561  -0.2733
6.322e+09  0.8531  0.2263  0.003245  0.005455  0.03171  0.03888  0.7064  -0.5379
6.324e+09  0.826  -0.074  0.004306  0.03106  0.05025  0.0305  0.465  -0.7733
6.325e+09  0.7667  -0.3451  0.02456  -0.009579  -0.001561  0.005593  0.1619  -0.8833
6.326e+09  0.6258  -0.6188  0.01557  0.006953  0.02059  -0.0006076  -0.151  -0.8825
6.328e+09  0.3455  -0.7384  0.01  0.002325  0.03463  -0.03169  -0.3953  -0.7843
6.329e+09  0.04725  -0.8311  0.01074  -0.005321  -0.02742  0.005387  -0.6781  -0.6087
6.33e+09  -0.2462  -0.7993  -0.01819  -0.0003573  0.03576  -0.0145  -0.8545  -0.3301
6.331e+09  -0.5575  -0.7068  0.01117  0.02288  -0.005203  0.05641  -0.9125  -0.04022
6.332e+09  -0.7478  -0.4495  -0.01848  0.0137  -0.02244  0.002935  -0.8452  0.2667
6.334e+09  -0.8398  -0.1665  0.001644  0.03142  0.01277  -0.02519  -0.6912  0.5423
6.335e+09  -0.871  0.1069  -0.009919  0.00027  -0.02163  -0.01232  -0.5002  0.8187
6.336e+09  -0.7341  0.4287  -0.02181  -0.003369  -0.008941  -0.0397  -0.1681  0.894
6.338e+09  -0.5646  0.6404  0.009904  0.02272  0.008123  0.03061  0.1053  0.9179
6.339e+09  -0.3711  0.8715  0.02993  0.03231  0.02692  0.06387  0.4011  0.8203
6.34e+09  0.05619  0.9308  0.004888  0.001964  0.06377  -0.05183  0.6795  0.6047
6.341e+09  0.3135  0.8379  -0.02621  0.01666  -0.006037  0.01378  0.8737  0.3341
6.342e+09  0.557  0.6822  0.0009005  0.03143  0.002996  0.01362  0.9152  0.06056
6.344e+09  0.769  0.4391  -0.03767  0.0008253  -0.01734  0.078  0.9111  -0.2875
6.345e+09  0.8712  0.156  -0.003424  -0.02374  -0.03391  0.004468  0.7419  -0.5827
6.346e+09  0.828  -0.182  -0.02162  -0.003007  0.02676  0.002204  0.5136  -0.7755
6.348e+09  0.7139  -0.4924  -0.01353  -0.02194  -0.009549  0.04681  0.2423  -0.9085
6.349e+09  0.4862  -0.705  -0.01778  -0.01046  -0.04165  -0.03738  -0.1105  -0.8992
6.35e+09  0.2985  -0.8941  0.04176  -0.00978  0.06183  0.03154  -0.4754  -0.8361
6.351e+09  -0.03508  -0.8779  0.01948  0.01517  -0.004208  0.02837  -0.6721  -0.648
6.352e+09  -0.3686  -0.8028  0.02641  0.0004238  -0.01007  -0.04299  -0.8699  -0.365
6.354e+09  -0.5865  -0.6429  -0.004637  -0.002591  0.0209  0.001172  -0.9067  -0.08859
6.355e+09  -0.7939  -0.3822  -0.01235  -0.009636  0.02058  -0.0158  -0.9409  0.2511
6.356e+09  -0.8664  -0.0713  0.03326  0.02172  0.02374  -0.004294  -0.7407  0.552
6.358e+09  -0.8901  0.284  -0.007472  0.009335  0.04236  -0.01248  -0.5159  0.7745
6.359e+09  -0.6681  0.511  -0.001118  -0.004749  -0.005006  0.0002036  -0.277  0.8963
6.36e+09  -0.4663  0.7521  -0.01105  -4.827e-05  0.04008  -0.001792  0.1092  0.9644
6.361e+09  -0.2198  0.8951  -0.01568  -0.002608  0.00388  0.003368  0.427  0.8546
6.362e+09  0.1157  0.8761  -0.003545  0.03415  -0.0378  0.01126  0.7094  0.6538
6.364e+09  0.3906  0.8068  -0.02756  -0.003876  -0.04983  0.0364  0.8433  0.3972
6.365e+09  0.689  0.6232  -0.01091  0.009859  0.006827  0.01438  0.9391  0.09754
6.366e+09  0.8695  0.3699  -0.006192  0.00886  -0.009263  0.01467  0.9177  -0.1992
6.368e+09  0.869  0.01968  -0.001823  0.008374  -0.0009156  0.005299  0.7597  -0.5144
6.369e+09  0.8053  -0.2525  -0.004975  -0.02847  -0.03175  -0.05922  0.5588  -0.7819
6.37e+09  0.6858  -0.5756  -0.02409  0.02164  -0.005197  -0.006775  0.2224  -0.9187
6.371e+09  0.4824  -0.7883  -0.02797  -0.0336  -0.04077  -0.006968  -0.05702  -0.9397
6.372e+09  0.1774  -0.872  -0.0252  -0.02465  0.02729  0.01812  -0.3957  -0.8498
6.374e+09  -0.1228  -0.8808  -0.02522  0.04176  0.03015  0.01186  -0.6349  -0.6666
6.375e+09  -0.4639  -0.7788  0.01257  0.0417  -0.007175  -0.02698  -0.8632  -0.3912
6.376e+09  -0.6636  -0.5641  0.02063  0.003827  0.01574  0.02397  -0.9409  -0.1138
6.378e+09  -0.8457  -0.3088  -0.005821  -0.01951  0.002238  0.005076  -0.9093  0.2281
6.379e+09  -0.8861  -0.004941  -0.007174  0.007538  -0.02107  0.03408  -0.7864  0.5513
6.38e+09  -0.829  0.3342  -0.01666  -0.01951  0.003722  -0.02166  -0.5548  0.7649
6.381e+09  -0.6853  0.5988  0.01503  0.002452  -0.002173  0.005278  -0.2653  0.885
6.382e+09  -0.4382  0.7985  0.005461  0.02343  0.02293  0.01587  0.03231  0.9373
6.384e+09  -0.1126  0.8814  0.04879  -0.02302  0.03249  -0.002885  0.348  0.837
6.385e+09  0.1802  0.8566  0.00814  0.02249  0.01131  -0.007603  0.6543  0.7227
6.386e+09  0.5218  0.7369  -0.02548  -0.01604  0.01886  -0.01791  0.8429  0.4351
6.388e+09  0.6996  0.5205  -0.01442  0.02369  0.029  -0.006181  0.9403  0.1109
6.389e+09  0.815  0.2711  0.005241  0.0006226  -0.00469  0.02148  0.8531  -0.201
6.39e+09  0.8776  -0.06012  0.00757  -0.0237  -0.03956  0.01343  0.7914  -0.547
6.391e+09  0.8444  -0.3272  -0.02045  -0.02696  0.03096  -0.0163  0.5646  -0.7497
6.392e+09  0.6351  -0.6567  0.01809  0.0364  0.02823  0.005751  0.3006  -0.8143
6.394e+09  0.3725  -0.8153  -0.01617  -0.006243  -0.0196  -0.03749  -0.03137  -0.9387
6.395e+09  0.0882  -0.8801  -0.02615  0.02094  0.01268  -0.003111  -0.3481  -0.8454
6.396e+09  -0.2045  -0.8575  -0.01393  0.01069  0.01043  -0.01181  -0.6573  -0.7124
6.398e+09  -0.5068  -0.6997  0.001949  -0.00176  -0.01189  0.01128  -0.7888  -0.471
6.399e+09  -0.7349  -0.5181  -0.04597  0.01445  0.03505  0.02027  -0.9137  -0.1603
6.4e+09  -0.8781  -0.2518  0.01434  -0.02577  -0.01637  0.01253  -0.9076  0.1327
6.401e+09  -0.8953  0.07374  -0.003274  -0.01419  0.03816  -0.03824  -0.8013  0.4687
6.402e+09  -0.7906  0.3581  -0.002085  0.008508  0.0199  -0.0299  -0.5915  0.719
6.404e+09  -0.6375  0.6091  -0.03621  0.0133  0.01088  0.03665  -0.36  0.8791
6.405e+09  -0.3425  0.8028  0.009474  0.008949  -0.004454  0.04112  0.008335  0.9123
6.406e+09  -0.07932  0.8602  -0.03471  0.02351  -0.01305  0.01078  0.3007  0.7887
6.408e+09  0.2363  0.8368  0.04094  0.01851  -0.03694  -0.01389  0.5876  0.6515
6.409e+09  0.4681  0.7034  -0.03031  -0.003207  0.005031  -0.0387  0.7793  0.4534
6.41e+09  0.7573  0.4795  -0.01459  -0.001613  0.04717  -0.02419  0.9558  0.1642
6.411e+09  0.8507  0.2292  0.02377  -0.02129  0.01852  0.05292  0.8755  -0.1256
6.412e+09  0.8344  -0.1336  0.03134  2.133e-05  0.004575  0.002247  0.7907  -0.4074
6.414e+09  0.8052  -0.3994  0.03659  0.02014  0.0007356  -0.03187  0.5573  -0.6685
6.415e+09  0.5973  -0.6383  -0.02422  0.01214  -0.002478  0.01111  0.2953  -0.7745
6.416e+09  0.4144  -0.8266  -0.0224  0.005085  0.008127  0.001038  0.03948  -0.8896
6.418e+09  0.06017  -0.903  0.05035  0.01573  0.04329  -0.02338  -0.2404  -0.8234
6.419e+09  -0.2516  -0.8777  -0.001657  0.05468  -0.03096  -0.01283  -0.5796  -0.7467
6.42e+09  -0.4989  -0.7089  0.0355  0.01253  -0.0204  0.01232  -0.7441  -0.5303
6.421e+09  -0.744  -0.4895  0.006463  -5.694e-05  0.01346  0.01911  -0.8416  -0.2069
6.422e+09  -0.8098  -0.2174  -0.008506  -0.01501  0.01407  0.02299  -0.8682  0.1326
6.424e+09  -0.8702  0.08124  0.01779  -0.03151  -0.05562  0.002288  -0.7317  0.408
6.425e+09  -0.76  0.3824  -0.01587  -0.01077  -0.02284  -0.0007084  -0.6003  0.6358
6.426e+09  -0.6143  0.6568  -0.04606  -0.03238  -0.06296  0.02272  -0.3804  0.7612
6.428e+09  -0.3823  0.8519  -0.0568  -0.006006  -0.04309  -0.04206  0.007911  0.906
6.429e+09  -0.08482  0.867  0.04931  0.02151  0.03462  0.004088  0.1946  0.8527
6.43e+09  0.2631  0.8039  0.003626  0.007927  0.005331  0.0271  0.4841  0.7024
6.431e+09  0.5228  0.7006  -0.006882  0.001706  0.01155  -0.01136  0.7063  0.461
6.432e+09  0.7826  0.4625  -0.02232  0.004718  0.007604  0.0003167  0.8179  0.1902
6.434e+09  0.8502  0.2014  0.01524  -0.01413  0.01325  0.02234  0.836  -0.057
6.435e+09  0.9019  -0.1272  0.01373  -0.01547  -0.00793  0.02322  0.7739  -0.3434
6.436e+09  0.7791  -0.3807  -0.01812  -0.04758  -0.02256  -0.03248  0.596  -0.6372
6.438e+09  0.5619  -0.6707  -0.01546  -0.003996  -0.03709  0.03735  0.3219  -0.7702
6.439e+09  0.3304  -0.7867  -0.01671  0.02218  0.03468  0.03112  0.089  -0.8641
6.44e+09  -0.001299  -0.8242  0.03888  -0.03638  0.00177  0.03399  -0.2173  -0.8042
6.441e+09  -0.2863  -0.8499  0.03755  0.02415  -0.05977  -0.01878  -0.4963  -0.703
6.442e+09  -0.5109  -0.7163  0.002821  0.01038  -0.006526  0.02918  -0.719  -0.4997
6.444e+09  -0.7493  -0.4233  -0.04675  0.03034  -0.009731  -0.01516  -0.8153  -0.2216
6.445e+09  -0.8969  -0.2163  0.03144  -0.001745  -0.02856  -0.0282  -0.8042  0.09975
6.446e+09  -0.8681  0.08799  -0.01031  0.02633  0.01519  -0.002621  -0.7608  0.4436
6.448e+09  -0.7416  0.4274  -0.02416  -0.004808  -0.001727  -0.03977  -0.5569  0.5849
6.449e+09  -0.5915  0.6583  0.004523  -0.01637  0.01923  -0.003663  -0.3638  0.7954
6.45e+09  -0.3445  0.836  -0.004467  -0.01835  0.003946  0.0348  -0.1121  0.8532
6.451e+09  -0.005326  0.8556  0.01879  -0.01035  0.009325  0.00701  0.2293  0.7773
6.452e+09  0.2963  0.8443  0.0007223  -0.03942  -0.01486  0.01963  0.4895  0.694
6.454e+09  0.608  0.7397  -0.0001822  -0.03599  0.008689  -0.005178  0.6968  0.4789
6.455e+09  0.7891  0.4709  -0.02731  0.003237  -0.004248  0.006231  0.8247  0.1527
6.456e+09  0.8624  0.2035  0.0001147  -0.01859  0.01986  -0.02136  0.8428  -0.101
6.458e+09  0.9  -0.1238  -0.02148  0.03649  0.005863  0.02509  0.762  -0.353
6.459e+09  0.767  -0.4193  -0.001455  -0.03614  0.00698  0.005967  0.5799  -0.5988
6.46e+09  0.5745  -0.6746  0.005895  -0.0157  0.05011  0.0006094  0.3152  -0.7762
6.461e+09  0.3346  -0.8753  0.01004  -0.03158  -0.03717  -0.008794  0.1056  -0.8646
6.462e+09  0.03036  -0.9252  -0.000725  -0.03965  0.0456  -0.01891  -0.2646  -0.7618
6.464e+09  -0.3135  -0.8386  0.004899  0.01952  -0.01993  -0.03734  -0.491  -0.6414
6.465e+09  -0.6014  -0.642  -0.01948  -0.01461  -0.0343  -0.02365  -0.6448  -0.5051
6.466e+09  -0.7425  -0.4942  0.01021  0.01099  -0.02766  0.01473  -0.7722  -0.1754
6.468e+09  -0.8567  -0.1335  0.009346  -0.0072  -0.03464  -0.01176  -0.8128  0.06348
6.469e+09  -0.8788  0.1555  -0.01925  0.0431  0.06415  -0.0003296  -0.7117  0.356
6.47e+09  -0.799  0.5611  -0.01547  0.03721  -0.01965  -0.02446  -0.5389  0.5434
6.471e+09  -0.5478  0.6838  -0.01763  -0.01044  0.008364  -0.02658  -0.2835  0.7464
6.472e+09  -0.3388  0.9008  0.01046  -0.00109  -0.006726  -0.07124  -0.0984  0.7818
6.474e+09  0.03128  0.9082  -0.02348  0.01599  -0.0499  -0.0324  0.2116  0.7759
6.475e+09  0.349  0.8437  -0.02494  -0.005409  -0.009057  -0.01505  0.4732  0.6544
6.476e+09  0.5609  0.6652  -0.009749  0.01227  -0.01812  0.01116  0.6748  0.4071
6.478e+09  0.8087  0.4568  -0.0141  -0.008837  -0.002286  -0.04985  0.7427  0.1813
6.479e+09  0.8814  0.1028  -0.007893  -0.008579  0.008539  -0.01212  0.7607  -0.1023
6.48e+09  0.8707  -0.1692  0.001936  0.01845  0.01097  -0.05416  0.6497  -0.3777
6.481e+09  0.7844  -0.5122  0.003269  -0.009335  0.0008265  -0.06097  0.5702  -0.5552
6.482e+09  0.5628  -0.7698  0.03834  0.006522  0.05724  -0.006538  0.3029  -0.711
6.484e+09  0.3106  -0.8529  0.01468  -0.04332  0.01803  -0.009254  0.06832  -0.7548
6.485e+09  -0.05808  -0.9307  -0.007979  0.005458  0.02556  0.04238  -0.2282  -0.7331
6.486e+09  -0.3268  -0.8388  -0.003114  -0.01891  0.0191  -0.01246  -0.4689  -0.6025
6.488e+09  -0.5853  -0.6845  0.0152  -0.03287  0.08484  0.02856  -0.6123  -0.4307
6.489e+09  -0.8604  -0.4202  -0.01739  0.03842  0.02415  0.02895  -0.7867  -0.2489
6.49e+09  -0.9608  -0.08618  0.02135  0.001958  0.00877  0.04878  -0.7761  0.07976
6.491e+09  -0.8694  0.2311  -0.02062  0.001214  0.02576  0.005164  -0.6956  0.3128
6.492e+09  -0.7261  0.5471  -0.01186  -0.01081  0.02715  0.04466  -0.5797  0.5663
6.494e+09  -0.4934  0.7557  0.02517  -0.0009655  0.02359  0.02274  -0.3322  0.7496
6.495e+09  -0.2938  0.8662  0.04048  0.01091  -0.01248  0.04734  -0.06802  0.7412
6.496e+09  0.1032  0.9139  -0.01088  0.009489  -0.01081  0.04247  0.2775  0.7425
6.498e+09  0.3895  0.782  -0.02518  -0.002357  -0.009403  0.003979  0.4344  0.5517
6.499e+09  0.6808  0.6783  -0.03134  0.01546  0.00757  -0.0047  0.6736  0.4374
6.5e+09  0.8571  0.3842  0.02299  0.007936  0.02824  -0.01551  0.7403  0.202
6.501e+09  0.9309  0.04811  0.02917  -0.02219  0.03322  0.05477  0.7212  -0.09039
6.502e+09  0.9583  -0.2019  0.01407  0.01171  0.05766  0.02368  0.6986  -0.3448
6.504e+09  0.7408  -0.5942  0.03406  0.01883  0.04347  -0.02277  0.5154  -0.5577
6.505e+09  0.5163  -0.7782  0.005588  0.02416  0.008227  -0.01125  0.2876  -0.6935
6.506e+09  0.2075  -0.8884  0.009542  0.01218  -0.01679  -0.005617  -0.02166  -0.7513
6.508e+09  -0.1077  -0.9781  0.02212  -0.005411  -0.01635  0.02554  -0.2503  -0.7382
6.509e+09  -0.4446  -0.9019  -0.005891  0.02841  -0.01059  0.02823  -0.4428  -0.5805
6.51e+09  -0.6885  -0.6347  0.03  -0.0004031  -0.0131  0.03689  -0.6501  -0.3998
6.511e+09  -0.8779  -0.3095  7.563e-05  0.02892  0.02589  0.03198  -0.7207  -0.1506
6.512e+09  -0.9825  -0.005731  0.05433  -0.02202  -0.03851  0.04109  -0.766  0.1216
6.514e+09  -0.895  0.3194  -0.001912  -0.007788  -0.0001084  0.007282  -0.6497  0.354
6.515e+09  -0.7794  0.57  0.007469  -0.01415  -0.0406  0.02725  -0.4558  0.5534
6.516e+09  -0.5068  0.8063  0.01799  0.01744  -0.04642  -0.05022  -0.2487  0.7034
6.518e+09  -0.2274  0.9692  -0.03066  0.0126  0.04274  0.02071  -0.03422  0.7185
6.519e+09  0.1959  0.9494  -0.01699  -0.0149  0.02241  -0.01674  0.2652  0.6682
6.52e+09  0.5206  0.8508  0.02921  0.00453  -0.02114  0.007091  0.4962  0.5492
6.521e+09  0.7653  0.6357  0.04986  -0.01739  0.01326  -0.0477  0.6726  0.3572
6.522e+09  0.9335  0.3027  -0.0001151  -0.01472  -0.01892  0.04753  0.7247  0.1037
6.524e+09  1.034  -0.05188  0.0152  0.02628  0.007663  -0.05827  0.6901  -0.1486
6.525e+09  0.9237  -0.3283  -0.01496  -0.005389  0.05413  0.01369  0.5885  -0.3776
6.526e+09  0.7067  -0.6494  0.00301  -3.102e-05  -0.0303  0.007708  0.4807  -0.5832
6.528e+09  0.4384  -0.9249  0.01666  -0.02959  0.007143  -0.00785  0.1944  -0.6638
6.529e+09  0.09814  -0.9773  0.0113  0.01977  -0.01156  -0.02456  -0.06199  -0.7113
6.53e+09  -0.272  -0.9144  0.001841  -0.03379  0.00461  0.02281  -0.2759  -0.6575
6.531e+09  -0.6191  -0.7709  -0.02391  -0.007384  0.003405  -0.04916  -0.4855  -0.4644
6.532e+09  -0.7703  -0.5352  0.007287  -0.004651  0.01187  -0.04541  -0.5761  -0.313
6.534e+09  -0.9768  -0.1809  -0.01239  -0.03  0.005606  0.03545  -0.6221  -0.09323
6.535e+09  -0.985  0.09831  0.0335  0.003996  0.03216  0.02555  -0.5945  0.1077
6.536e+09  -0.8444  0.5606  0.008855  0.02156  -0.02524  -0.06768  -0.584  0.2761
6.538e+09  -0.7174  0.718  -0.03032  0.007644  -0.0615  0.04309  -0.4358  0.4214
6.539e+09  -0.3407  0.8832  0.005083  -0.002658  -0.02652  -0.04257  -0.2512  0.6012
6.54e+09  -0.04084  0.9765  -0.02037  -0.002618  0.05553  0.01977  -0.05633  0.6459
6.541e+09  0.3494  0.8784  0.0369  0.0252  0.03965  0.03593  0.1931  0.6744
6.542e+09  0.5883  0.7559  0.01092  0.007871  0.02993  -0.01181  0.4182  0.5664
6.544e+09  0.7898  0.4857  -0.03899  -0.05596  -0.008608  0.037  0.5799  0.3918
6.545e+09  0.9921  0.1461  -0.02482  0.04246  -0.01419  0.01521  0.6823  0.1639
6.546e+09  0.9794  -0.2319  0.008479  -0.009301  0.01951  -0.02178  0.7047  -0.07792
6.548e+09  0.7953  -0.502  -0.01425  -0.004449  -0.05499  0.03205  0.637  -0.334
6.549e+09  0.6005  -0.7273  0.03864  -0.001132  0.02468  0.01312  0.5148  -0.522
6.55e+09  0.3048  -0.8915  0.01808  -0.005039  -0.01199  -0.05777  0.3026  -0.6776
6.551e+09  -0.07146  -0.9213  0.002013  0.03483  -0.03113  -0.02173  0.02374  -0.7081
