# Hz S RI R 50
6.25e+09  -0.3062  0.8023  -0.03492  0.003367  -0.003075  -0.01583  0.1755  0.4975
6.251e+09  -0.04756  0.8469  0.01083  -0.02029  -0.01536  -0.02753  0.3323  0.4132
6.252e+09  0.2417  0.8078  -0.01803  0.03373  -0.002371  0.02525  0.5303  0.225
6.254e+09  0.5374  0.6828  0.01643  -0.03669  0.004279  0.001803  0.6054  -0.007522
6.255e+09  0.7418  0.4065  0.003984  0.01647  -0.01121  -0.04495  0.5614  -0.2114
6.256e+09  0.829  0.1024  -0.003531  -0.02723  -0.02521  -0.007705  0.4828  -0.4469
6.258e+09  0.8327  -0.118  -0.002545  0.0125  0.0577  -0.02288  0.2839  -0.6164
6.259e+09  0.7608  -0.456  -0.003516  0.02004  -0.04303  0.01399  0.051  -0.6868
6.26e+09  0.5339  -0.655  0.04439  0.004558  -0.02431  -0.05936  -0.2026  -0.6649
6.261e+09  0.3005  -0.8008  -0.003059  0.0106  -0.009257  0.002546  -0.4358  -0.527
6.262e+09  0.02137  -0.8529  0.0386  -0.03368  0.03219  0.04736  -0.5899  -0.3481
6.264e+09  -0.2572  -0.7657  0.008647  0.04041  0.01432  -0.02879  -0.7315  -0.09596
6.265e+09  -0.6086  -0.6235  -0.00711  -0.008365  -0.008668  0.02254  -0.6667  0.1747
6.266e+09  -0.7034  -0.4327  -0.01331  -0.0158  -0.05255  0.001678  -0.6165  0.3699
6.268e+09  -0.8328  -0.1879  0.01353  0.01645  0.006666  -0.007529  -0.4438  0.5667
6.269e+09  -0.8528  0.07176  0.02391  0.01601  0.01369  -0.03532  -0.192  0.7138
6.27e+09  -0.7299  0.4116  -0.01869  0.002925  -0.04543  0.03861  0.06336  0.7112
6.271e+09  -0.5372  0.6527  -0.007937  -0.007466  -0.03003  0.03827  0.2823  0.6867
6.272e+09  -0.251  0.7823  0.01727  0.005807  0.05356  0.01311  0.5162  0.5372
6.274e+09  0.05193  0.7975  0.02198  0.001659  0.03185  -0.001781  0.6964  0.3205
6.275e+09  0.3024  0.7627  -0.007854  -0.009949  0.01444  -0.003205  0.7607  0.05074
6.276e+09  0.5054  0.6063  0.006333  -0.015  -0.01711  -0.009483  0.7539  -0.2203
6.278e+09  0.7003  0.365  0.001894  0.03476  0.007458  0.02259  0.6296  -0.4674
6.279e+09  0.7968  0.1475  -0.01069  -0.02103  0.01082  0.03158  0.4062  -0.6526
6.28e+09  0.7965  -0.1182  -0.01268  -0.0195  0.07905  0.01638  0.1679  -0.7714
6.281e+09  0.6886  -0.4221  -0.001128  -0.000623  0.0006067  -0.008086  -0.1013  -0.7837
6.282e+09  0.5518  -0.6435  -0.007448  0.00342  -0.01167  0.03759  -0.355  -0.6653
6.284e+09  0.2258  -0.8146  -0.01499  -0.000256  0.04382  0.06128  -0.6111  -0.5048
6.285e+09  -0.06497  -0.7883  0.002026  -0.01406  -0.02255  0.02609  -0.7573  -0.2617
6.286e+09  -0.3324  -0.7887  -0.001374  -0.006925  -0.02231  0.03605  -0.8018  -0.04395
6.288e+09  -0.5702  -0.6275  0.01937  0.01239  -0.01519  -0.02655  -0.7582  0.2455
6.289e+09  -0.7651  -0.4291  0.004248  -0.006662  0.002719  -0.01812  -0.5967  0.4907
6.29e+09  -0.8153  -0.1181  0.05798  0.02167  0.01782  -0.006269  -0.4241  0.6712
6.291e+09  -0.7876  0.1693  0.02123  -0.01222  -0.008876  0.02079  -0.1663  0.8019
6.292e+09  -0.6373  0.4911  -0.01625  0.01429  0.00902  0.04166  0.1313  0.8021
6.294e+09  -0.4727  0.6733  -0.005283  -0.006772  -0.0113  0.01045  0.3938  0.7067
6.295e+09  -0.1932  0.8652  -0.03668  0.009944  -0.02579  0.02585  0.5923  0.5183
6.296e+09  0.0586  0.8682  -0.01368  0.01636  -0.01826  -0.01466  0.7819  0.28
6.298e+09  0.3574  0.748  -0.006466  0.007432  0.003134  -0.0001779  0.845  -0.01438
6.299e+09  0.6321  0.572  -0.002782  0.002391  0.05086  0.01916  0.7591  -0.2729
6.3e+09  0.7411  0.3455  0.02126  0.005924  0.03046  9.603e-05  0.6246  -0.539
6.301e+09  0.8447  0.05909  0.006685  -0.02898  0.03119  0.01233  0.4124  -0.693
6.302e+09  0.7679  -0.2672  -0.004341  0.02697  0.06351  -0.01796  0.1946  -0.8302
6.304e+09  0.6342  -0.5238  -0.01309  0.01076  -0.002414  0.01079  -0.1448  -0.8276
6.305e+09  0.4844  -0.7018  -0.0159  -0.003524  -0.03428  0.02169  -0.4062  -0.7078
6.306e+09  0.1655  -0.7999  -0.01677  -0.004121  0.01005  -0.02418  -0.6584  -0.5712
6.308e+09  -0.092  -0.8121  0.008963  -0.008125  -0.002494  0.004445  -0.7898  -0.2863
6.309e+09  -0.381  -0.7343  -0.01986  0.01881  -0.003355  -0.05021  -0.8631  -0.01723
6.31e+09  -0.6665  -0.5789  0.01622  0.005233  0.005205  -0.03253  -0.7783  0.2797
6.311e+09  -0.7943  -0.3074  -0.001185  -0.04216  -0.00409  0.03328  -0.672  0.5503
6.312e+09  -0.8645  -0.0005858  0.004813  -0.01118  0.03203  0.02104  -0.4448  0.7444
6.314e+09  -0.7982  0.2645  -0.01871  -0.009108  -0.0281  0.0391  -0.1618  0.8617
6.315e+09  -0.6675  0.4831  0.03195  -0.00962  -0.04156  0.06633  0.1583  0.8598
6.316e+09  -0.4649  0.7475  0.006796  0.02685  -0.008886  0.009416  0.441  0.7554
6.318e+09  -0.1709  0.8329  0.02242  0.01069  -0.03192  -0.03686  0.6321  0.5594
6.319e+09  0.1668  0.8275  -0.00742  0.01564  -0.01477  0.0289  0.7907  0.3207
6.32e+09  0.4026  0.7384  -0.01256  9.703e-05  0.02686  0.006676  0.9087  0.0245
6.321e+09  0.6224  0.5528  -0.02107  0.03007  0.01954  -0.02065  0.8355  -0.2994
6.322e+09  0.7903  0.2822  -0.02174  0.005162  0.04025  -0.01206  0.685  -0.5484
6.324e+09  0.8728  -0.03596  -0.00544  0.009553  0.0623  -0.04701  0.4454  -0.7661
6.325e+09  0.7801  -0.3283  0.009765  0.03157  0.001243  0.02011  0.1707  -0.867
6.326e+09  0.6225  -0.5782  -0.002158  -0.04193  0.03585  -0.01694  -0.1564  -0.8685
6.328e+09  0.3965  -0.8108  -0.01264  -0.005479  -0.0289  0.02115  -0.4509  -0.781
6.329e+09  0.1085  -0.8566  -0.0004406  -0.0008285  -0.01339  0.008857  -0.6902  -0.5901
6.33e+09  -0.2045  -0.8443  -0.003459  0.0258  0.03466  0.02508  -0.8374  -0.3306
6.331e+09  -0.5011  -0.7033  -0.01629  -0.005241  -0.004208  0.006342  -0.9001  -0.05472
6.332e+09  -0.6607  -0.4739  -0.00097  0.002009  -0.0008459  -0.01173  -0.8932  0.2947
6.334e+09  -0.8433  -0.189  -0.003943  0.002002  0.01777  0.01238  -0.7351  0.5985
6.335e+09  -0.8662  0.04969  -0.02322  -0.02573  -0.0278  -0.0178  -0.4866  0.7564
6.336e+09  -0.8201  0.414  -0.03625  -0.03055  0.02432  -0.02191  -0.1783  0.8798
6.338e+09  -0.5944  0.6264  0.01562  0.008508  -0.02627  0.03299  0.1247  0.9141
6.339e+09  -0.3606  0.773  -0.01146  -0.004034  0.01247  -0.007525  0.413  0.8424
6.34e+09  -0.08695  0.8813  0.05686  -0.003697  0.05059  0.01534  0.6908  0.6258
6.341e+09  0.288  0.8122  0.03311  -0.03426  -0.002705  -0.02774  0.8519  0.3497
6.342e+09  0.5222  0.6519  0.04658  0.03712  -0.007527  -0.03446  0.9064  0.04881
6.344e+09  0.7607  0.4641  -0.01902  -0.00545  0.05199  0.007434  0.9034  -0.2368
6.345e+09  0.8571  0.1768  -0.02462  -0.01335  0.02891  0.02306  0.7181  -0.5464
6.346e+09  0.892  -0.129  -0.0208  0.007391  0.03912  -0.01364  0.4901  -0.7264
6.348e+09  0.813  -0.4612  0.04132  -0.01112  -0.005874  -0.02869  0.2097  -0.918
6.349e+09  0.6171  -0.6511  -0.01962  0.01343  -0.0234  0.009077  -0.1096  -0.9092
6.35e+09  0.2716  -0.8475  -0.0007642  -0.008342  -0.01936  -0.03379  -0.4152  -0.823
6.351e+09  0.01769  -0.9225  0.01563  0.007609  -0.007869  0.02441  -0.6769  -0.6604
6.352e+09  -0.2736  -0.8245  0.0177  0.01605  0.05019  0.0213  -0.8543  -0.396
6.354e+09  -0.6084  -0.6333  0.01041  -0.007309  0.04454  -0.02146  -0.9406  -0.06202
6.355e+09  -0.735  -0.4087  -0.04101  -0.01073  -0.001794  -0.03034  -0.8605  0.2375
6.356e+09  -0.9138  -0.1265  -0.0004205  -0.01909  -0.001081  0.002945  -0.7425  0.538
6.358e+09  -0.8669  0.1568  0.01219  -0.004237  0.006873  0.0219  -0.5292  0.773
6.359e+09  -0.7793  0.4359  -0.007587  -0.009597  0.008481  0.008155  -0.2258  0.9301
6.36e+09  -0.5063  0.7356  0.01103  -0.00543  0.009937  -0.01945  0.09382  0.9483
6.361e+09  -0.2627  0.8728  -0.005735  0.04181  -0.009566  0.02712  0.3754  0.8532
6.362e+09  0.05456  0.9033  0.01196  -0.006454  -0.00572  -0.03743  0.7372  0.6689
6.364e+09  0.3242  0.7707  -0.0343  0.004174  -0.009952  0.0128  0.8599  0.3901
6.365e+09  0.6086  0.6574  -0.008024  0.006681  -0.01489  -0.0284  0.9144  0.07807
6.366e+09  0.7683  0.3788  -0.07266  0.02391  -0.02564  0.02503  0.9303  -0.2786
6.368e+09  0.8496  0.0137  -0.03266  0.02933  0.007577  -0.01775  0.7802  -0.5216
6.369e+09  0.7958  -0.2866  -0.01254  0.005379  -0.005866  -0.008524  0.5874  -0.7851
6.37e+09  0.7354  -0.5244  0.0345  -0.0124  0.02257  0.01916  0.2513  -0.9044
6.371e+09  0.495  -0.7349  -0.03502  0.0112  0.006473  0.01246  -0.05323  -0.9527
6.372e+09  0.25  -0.845  -0.01608  0.02061  -0.006727  -0.06245  -0.3443  -0.8772
6.374e+09  -0.09924  -0.8828  0.008807  -0.006263  -0.01489  -0.001993  -0.6656  -0.6738
6.375e+09  -0.4209  -0.8184  0.01066  0.01944  0.01264  -0.03812  -0.8743  -0.3956
6.376e+09  -0.6131  -0.5821  0.003545  0.1004  0.03065  0.01697  -0.9056  -0.1141
6.378e+09  -0.8076  -0.2865  -0.01664  0.004872  0.01484  0.04356  -0.928  0.254
6.379e+09  -0.8592  -0.09081  -0.007349  0.01344  -0.003539  -6.179e-06  -0.7963  0.5127
6.38e+09  -0.8503  0.2757  -0.0233  -0.0139  -0.01131  -0.02639  -0.5814  0.7768
6.381e+09  -0.6989  0.5718  0.04531  0.01454  0.04374  -0.006762  -0.3148  0.8817
6.382e+09  -0.4493  0.7862  0.02319  -0.008848  0.008966  -0.006268  0.09022  0.9064
6.384e+09  -0.18  0.8621  0.0008826  0.01932  -0.00363  -0.0003789  0.3482  0.8641
6.385e+09  0.1241  0.875  -0.02078  0.009305  -0.02021  -0.02293  0.6394  0.6611
6.386e+09  0.3798  0.7842  -0.006412  0.01599  0.004792  -0.03419  0.8177  0.4204
6.388e+09  0.6788  0.5942  0.02224  0.01579  -0.01427  0.01334  0.9526  0.1043
6.389e+09  0.8642  0.3314  0.01062  -0.03279  -0.01453  0.007938  0.9082  -0.1967
6.39e+09  0.895  0.02527  0.02727  0.0512  0.005844  0.002485  0.7692  -0.5087
6.391e+09  0.8468  -0.3713  0.0117  -0.01693  -0.02258  0.02618  0.5607  -0.7429
6.392e+09  0.6799  -0.553  -0.02288  0.007691  -0.024  -0.02165  0.2526  -0.8694
6.394e+09  0.4223  -0.7812  -0.005125  0.01531  -0.02489  0.02871  -0.002786  -0.9004
6.395e+09  0.1148  -0.877  0.01627  -0.02134  0.02198  0.03728  -0.358  -0.8807
6.396e+09  -0.1536  -0.8756  -0.01268  -7.671e-05  0.004227  -0.0589  -0.6258  -0.7115
6.398e+09  -0.4348  -0.7345  -0.02395  -0.02731  -0.02312  -0.01508  -0.7891  -0.4812
6.399e+09  -0.6989  -0.5727  -0.003329  -0.003809  -0.01284  0.02019  -0.8949  -0.153
6.4e+09  -0.8534  -0.2202  -0.007609  0.04997  -0.02032  -0.04157  -0.9201  0.2106
6.401e+09  -0.8719  0.04681  -0.0154  0.01869  -0.0196  0.07537  -0.8688  0.4873
6.402e+09  -0.7974  0.2927  -0.04182  0.0226  -0.01605  0.0004364  -0.5868  0.7362
6.404e+09  -0.6534  0.6223  0.01082  0.02598  0.05002  -0.02035  -0.3383  0.8532
6.405e+09  -0.4236  0.7947  -0.04855  -0.003098  0.0243  -0.006169  0.03422  0.9566
6.406e+09  -0.1097  0.8458  -0.02617  0.005668  -0.02073  0.005991  0.3376  0.8847
6.408e+09  0.2261  0.8572  0.01914  -0.02504  0.004705  -0.005926  0.6035  0.726
6.409e+09  0.4724  0.767  -0.05201  -0.01495  -0.01799  -0.009188  0.7951  0.4786
6.41e+09  0.7302  0.5216  -0.008077  0.01247  0.005496  0.01807  0.9227  0.2115
6.411e+09  0.8528  0.2634  0.02104  0.02471  -0.03131  0.05374  0.946  -0.1543
6.412e+09  0.8782  -0.07074  0.05153  0.02264  -0.0287  0.03001  0.7735  -0.4376
6.414e+09  0.8003  -0.4194  -0.02171  0.02243  0.006803  0.02017  0.592  -0.6622
6.415e+09  0.6197  -0.6558  -0.01146  0.03946  -0.008149  0.005991  0.2938  -0.8331
6.416e+09  0.408  -0.7072  0.04363  0.01711  0.03261  -0.02553  0.04742  -0.8638
6.418e+09  0.1091  -0.8882  -0.02036  0.007487  -0.0219  -0.02418  -0.2746  -0.8485
6.419e+09  -0.2064  -0.8787  0.01976  0.01998  0.03588  -0.01412  -0.5243  -0.7089
6.42e+09  -0.4897  -0.7288  -0.02414  -0.01477  0.035  0.04264  -0.7652  -0.5002
6.421e+09  -0.6845  -0.5456  0.04327  -0.03155  -0.01007  -0.02245  -0.829  -0.2261
6.422e+09  -0.8651  -0.2689  -0.003216  -0.02434  -0.002595  -0.05926  -0.8759  0.09719
6.424e+09  -0.9052  0.05854  -0.02417  -0.00661  0.03274  -0.01317  -0.7748  0.3948
6.425e+09  -0.8231  0.3426  0.02257  0.01162  0.0201  -0.04079  -0.6462  0.6282
6.426e+09  -0.6691  0.6627  -0.01476  0.00777  0.009764  -0.01427  -0.3657  0.7694
6.428e+09  -0.4136  0.8024  -0.03834  0.007672  -0.03908  -0.02083  -0.04258  0.89
6.429e+09  -0.08008  0.9294  -0.01581  0.001527  -0.02763  -0.03041  0.2181  0.8263
6.43e+09  0.2231  0.8385  -0.0199  -0.002245  0.02804  -0.01269  0.5355  0.6834
6.431e+09  0.5028  0.7559  0.02243  0.0224  -0.06466  0.002993  0.6952  0.4788
6.432e+09  0.7504  0.4736  0.008733  -0.003105  -0.03682  -0.05303  0.8394  0.1786
6.434e+09  0.8545  0.2264  0.007376  0.01522  0.01742  0.0471  0.8172  -0.05835
6.435e+09  0.8926  -0.07345  -0.004952  -0.02049  0.004989  0.009767  0.7452  -0.3764
6.436e+09  0.8211  -0.3891  0.0228  0.02025  -0.0008862  -0.002118  0.6008  -0.6221
6.438e+09  0.6079  -0.6137  -0.03309  0.004547  0.04261  0.003621  0.379  -0.8127
6.439e+09  0.3652  -0.7703  0.01258  0.05097  -0.03022  0.002536  0.01378  -0.8519
6.44e+09  0.06424  -0.9034  -0.02026  -0.01455  -0.01269  -0.03189  -0.2256  -0.8395
6.441e+09  -0.2433  -0.8464  0.02586  -0.02728  -0.02415  0.004922  -0.4802  -0.6545
6.442e+09  -0.5625  -0.7185  -0.01372  -0.005102  0.0238  0.01976  -0.7  -0.4769
6.444e+09  -0.7147  -0.5113  -0.02282  0.05343  0.0003157  -0.0333  -0.7954  -0.1729
6.445e+09  -0.8557  -0.2385  -0.004093  -0.009869  0.007762  -0.04816  -0.8247  0.08703
6.446e+09  -0.9019  0.08083  0.01532  -0.01238  0.01725  0.02471  -0.7244  0.3733
6.448e+09  -0.7752  0.4591  -0.02518  0.01109  -0.01041  0.05273  -0.5724  0.5863
6.449e+09  -0.5944  0.6439  0.07329  0.04456  0.0392  0.03058  -0.3171  0.7785
6.45e+09  -0.3533  0.8094  -0.01703  0.05777  -0.04236  -0.01337  -0.06147  0.8181
6.451e+09  -0.06937  0.9199  0.01803  0.01777  0.01425  -0.04536  0.2251  0.7817
6.452e+09  0.2438  0.8474  0.03588  0.048  0.01686  0.0008431  0.5008  0.6682
6.454e+09  0.5183  0.7087  0.01908  -0.0219  -0.02784  -0.03241  0.6704  0.4739
6.455e+09  0.7676  0.5265  -0.02271  -0.04538  0.01548  -0.001948  0.7782  0.255
6.456e+09  0.8552  0.1933  -0.02737  -0.005871  -0.04584  -0.02227  0.8716  -0.0713
6.458e+09  0.9223  -0.1073  0.0211  -0.01416  -0.0002263  -0.02286  0.762  -0.3576
6.459e+09  0.8837  -0.3874  0.001413  0.0006524  0.04386  0.02359  0.6001  -0.5749
6.46e+09  0.6302  -0.6267  0.01106  0.03616  -0.03586  -0.02714  0.3541  -0.7592
6.461e+09  0.3228  -0.8081  -0.02711  -0.01342  0.05096  -0.003153  0.04641  -0.7962
6.462e+09  0.0463  -0.8546  0.01865  0.01401  0.03832  0.004947  -0.2462  -0.8161
6.464e+09  -0.2761  -0.9074  0.008636  0.01615  -0.07351  -0.01344  -0.5112  -0.6566
6.465e+09  -0.5599  -0.7147  -0.009825  -0.04331  0.0377  -0.01424  -0.6758  -0.4435
6.466e+09  -0.7546  -0.5022  -0.03001  -0.04344  0.01655  -0.01277  -0.766  -0.1899
6.468e+09  -0.8642  -0.2161  -0.006047  -0.002488  -0.03892  -0.04234  -0.8009  0.07843
6.469e+09  -0.9043  0.09328  0.02136  -0.002782  -0.03079  0.02465  -0.6865  0.338
6.47e+09  -0.851  0.4495  -0.01985  -0.01367  0.02218  -0.01606  -0.5434  0.5432
6.471e+09  -0.6389  0.7353  -0.007918  -0.002436  0.02301  -0.03774  -0.3056  0.7441
6.472e+09  -0.3532  0.8258  0.002527  -0.02355  8.521e-05  0.02766  -0.0802  0.8136
6.474e+09  -0.02508  0.9215  0.03837  0.01074  -0.04135  -0.009326  0.1945  0.7695
6.475e+09  0.2909  0.925  0.03218  0.0377  -6.96e-05  -0.02316  0.4855  0.6954
6.476e+09  0.5066  0.7112  0.01894  0.0144  0.004271  -0.03222  0.6297  0.4415
6.478e+09  0.7864  0.4782  0.03615  -0.02449  0.01307  -0.008363  0.7623  0.2109
6.479e+09  0.8872  0.1311  -0.0007914  -0.001009  -0.0596  -0.01258  0.7621  -0.1328
6.48e+09  0.893  -0.1079  0.004355  0.02884  -0.01064  -0.0009549  0.6818  -0.3228
6.481e+09  0.7831  -0.4331  0.03497  0.02506  0.04243  0.02883  0.5502  -0.5419
6.482e+09  0.5612  -0.7239  -0.004345  0.02621  -0.03288  -0.01992  0.3087  -0.7108
6.484e+09  0.284  -0.889  0.004453  0.008412  0.0009998  -0.01628  0.06245  -0.7768
6.485e+09  0.02762  -0.9778  0.003612  -0.01335  -0.03376  -0.0114  -0.2364  -0.7457
6.486e+09  -0.3131  -0.8485  -0.02513  0.0006222  0.0652  0.02101  -0.4857  -0.6226
6.488e+09  -0.5812  -0.6688  0.01666  -0.01257  -0.01082  0.01416  -0.6107  -0.4399
6.489e+09  -0.8017  -0.5018  -0.01692  -0.00496  -0.00684  0.02458  -0.7452  -0.1797
6.49e+09  -0.9571  -0.1634  0.01513  0.03362  0.02307  -0.05695  -0.7863  0.1076
6.491e+09  -0.9772  0.1591  -0.02556  -0.02218  -0.02262  -0.008732  -0.6543  0.2981
6.492e+09  -0.7995  0.4805  -0.0312  -0.01162  0.01905  0.0216  -0.5613  0.5835
6.494e+09  -0.5849  0.7124  0.01834  0.02967  -0.02933  -0.04663  -0.2998  0.7458
6.495e+09  -0.2499  0.8907  0.01747  -0.007005  0.02097  -0.01305  -0.05992  0.7657
6.496e+09  0.02257  0.9173  0.001119  -0.01275  -0.07419  0.03909  0.2517  0.7287
6.498e+09  0.3512  0.8982  -0.02874  -0.01198  0.01452  0.0394  0.4687  0.5904
6.499e+09  0.6453  0.7241  -0.001195  0.01978  0.02778  -0.03818  0.627  0.4459
6.5e+09  0.8001  0.4389  0.01853  -0.007991  -0.004092  -0.03664  0.7901  0.168
6.501e+09  0.9407  0.1384  0.009302  -0.02851  -0.01098  0.01733  0.7861  -0.1314
6.502e+09  0.9456  -0.1675  -0.03471  0.01583  0.01662  -0.05815  0.6731  -0.3378
6.504e+09  0.8249  -0.5553  -0.03076  0.01765  -0.005344  -0.02548  0.4645  -0.5717
6.505e+09  0.6032  -0.736  0.03775  0.02292  -0.003649  -0.01225  0.3058  -0.6906
6.506e+09  0.2789  -0.9013  -0.01626  -0.003276  -0.007525  0.009826  0.009034  -0.6838
6.508e+09  -0.0669  -0.9466  0.00516  -0.006917  -0.02657  0.04377  -0.2588  -0.7338
6.509e+09  -0.4075  -0.8226  0.005346  -0.02114  -0.000899  -0.01607  -0.459  -0.5972
6.51e+09  -0.6081  -0.6987  -0.007239  -0.01261  -0.005336  -0.007566  -0.6513  -0.4
6.511e+09  -0.8631  -0.3653  0.02256  -0.005166  -0.03776  -0.03339  -0.7504  -0.127
6.512e+09  -0.9388  -0.05399  0.001798  0.003312  -0.02714  0.02251  -0.723  0.1036
6.514e+09  -0.9481  0.2205  -0.03622  0.007301  0.008936  -0.03515  -0.6265  0.392
6.515e+09  -0.8077  0.5732  -0.01562  -0.01554  0.01697  -0.05918  -0.433  0.5552
6.516e+09  -0.5113  0.7885  -0.006707  -0.02689  -0.006815  -0.03889  -0.2579  0.6889
6.518e+09  -0.2256  0.9723  0.01486  -0.01618  0.009947  -0.01489  0.02606  0.72
6.519e+09  0.1107  0.953  -0.01007  0.0007259  -0.002949  0.02288  0.2628  0.7316
6.52e+09  0.4324  0.8589  -0.01403  0.03795  0.01394  0.0004566  0.5029  0.5689
6.521e+09  0.7156  0.6925  0.008852  0.03107  -0.01496  -0.01718  0.646  0.3502
6.522e+09  0.8822  0.3716  0.02694  -0.03226  -0.02401  0.00509  0.7434  0.09761
6.524e+09  0.9593  0.0421  -0.01067  0.008451  -0.055  -0.008239  0.7144  -0.1308
6.525e+09  0.9119  -0.2835  -0.007389  0.01594  0.05216  -0.004395  0.6245  -0.3936
6.526e+09  0.7463  -0.6394  0.03047  0.01929  0.02974  -0.002319  0.4428  -0.559
6.528e+09  0.517  -0.8393  0.03001  0.01462  0.02733  -0.03464  0.2016  -0.697
6.529e+09  0.108  -0.9964  -0.0242  -0.02754  -0.01335  0.04395  -0.02985  -0.7346
6.53e+09  -0.1764  -0.9851  -0.008671  0.008219  0.0312  0.01786  -0.2961  -0.6056
6.531e+09  -0.5553  -0.8097  -0.02828  -0.01015  0.03729  -0.004616  -0.4986  -0.5205
6.532e+09  -0.7255  -0.6248  0.006543  -0.03472  -0.009333  0.01829  -0.5565  -0.3047
6.534e+09  -0.9253  -0.3102  0.03374  0.0236  -0.06102  -0.02358  -0.6205  -0.06487
6.535e+09  -0.9653  0.07863  0.02105  -0.001789  0.02597  0.002961  -0.6141  0.1189
6.536e+09  -0.952  0.3419  -0.02373  0.04058  0.01841  0.02556  -0.5639  0.2958
6.538e+09  -0.7059  0.6582  0.02336  0.0006119  0.03802  0.01802  -0.4614  0.4612
6.539e+09  -0.4404  0.8724  0.005388  0.01516  0.01722  0.01504  -0.269  0.5693
6.54e+09  -0.1516  0.9214  0.01858  -0.007208  -0.002667  0.04417  -0.02337  0.6857
6.541e+09  0.2444  0.979  -0.01077  0.02395  -0.06706  -0.02736  0.2087  0.6698
6.542e+09  0.5276  0.7805  0.001593  0.03616  -0.005445  -0.02709  0.4024  0.5686
6.544e+09  0.8173  0.5435  0.01128  0.03516  0.01887  0.01907  0.6093  0.3844
6.545e+09  0.9572  0.2113  -0.007048  0.0127  -0.0639  0.004237  0.6991  0.1512
6.546e+09  0.9411  -0.05365  -0.02785  -0.01849  -0.02695  0.001486  0.71  -0.07675
6.548e+09  0.8462  -0.472  -0.001752  -0.00988  0.01291  0.007565  0.6563  -0.3396
6.549e+09  0.6068  -0.7356  -0.02433  -0.00387  0.01419  -0.01696  0.5045  -0.5254
6.55e+09  0.3329  -0.8839  0.002245  -0.01557  -0.07467  0.01143  0.2675  -0.6401
