# Hz S RI R 50
6.25e+09  -0.7774  0.1102  0.02835  0.001778  -0.01286  0.06768  0.16  0.5067
6.251e+09  -0.7575  0.3671  -0.02003  -0.01874  -0.04821  0.01579  0.3596  0.3958
6.252e+09  -0.54  0.6307  0.02202  0.01015  0.01753  0.01053  0.5139  0.2486
6.254e+09  -0.297  0.8004  -0.001507  0.003907  -0.02019  0.005601  0.601  0.01702
6.255e+09  -0.0271  0.8144  0.01912  0.01005  0.03207  -0.02307  0.5704  -0.2192
6.256e+09  0.2156  0.7935  0.01069  -0.02104  -0.01726  -0.03073  0.4612  -0.3967
6.258e+09  0.5039  0.6154  -0.03675  0.01111  0.003244  0.011  0.2721  -0.5947
6.259e+09  0.6879  0.4449  -0.0004127  -0.02244  -0.001851  0.002071  0.08516  -0.6745
6.26e+09  0.8229  0.1312  0.00826  -0.02075  -0.006044  -0.02289  -0.2352  -0.6614
6.261e+09  0.7888  -0.1337  -0.01725  0.04071  -0.00321  0.02907  -0.4645  -0.5391
6.262e+09  0.6799  -0.3555  0.01262  0.01922  -0.04978  0.0002479  -0.6154  -0.3232
6.264e+09  0.5082  -0.6317  0.02376  -0.03186  -0.01569  -0.009138  -0.7088  -0.1099
6.265e+09  0.2679  -0.7734  -0.02443  0.002521  -0.02098  0.006578  -0.7238  0.1599
6.266e+09  -0.05095  -0.836  0.008496  0.01844  -0.005205  -0.02851  -0.6253  0.3901
6.268e+09  -0.3192  -0.7549  -0.01852  -0.01937  0.02053  0.01842  -0.4311  0.5679
6.269e+09  -0.5392  -0.6491  -0.0115  -0.00872  0.02471  0.04037  -0.1996  0.7317
6.27e+09  -0.7079  -0.396  0.02416  -0.01972  -0.01023  -0.03033  0.07804  0.7401
6.271e+09  -0.8146  -0.156  -0.004236  0.0004887  -0.01358  0.02913  0.3318  0.6638
6.272e+09  -0.8071  0.1176  0.01553  0.005551  -0.03141  -0.0242  0.5221  0.5232
6.274e+09  -0.6955  0.3975  0.02058  -0.02253  -0.02573  0.003459  0.6806  0.3151
6.275e+09  -0.4921  0.6761  0.001377  0.01537  0.01546  0.01625  0.7717  0.03939
6.276e+09  -0.3392  0.7506  -0.01476  -0.04435  -0.009775  0.04625  0.7043  -0.2158
6.278e+09  -0.01706  0.8447  -0.000987  -0.0218  -0.05147  0.03847  0.5769  -0.4729
6.279e+09  0.2884  0.7816  0.007547  0.007254  -0.0006294  -0.003798  0.4043  -0.6421
6.28e+09  0.5102  0.6045  -0.001659  0.01841  0.02072  -0.03024  0.1711  -0.7458
6.281e+09  0.7436  0.3644  -0.002145  0.03119  0.05336  -0.03537  -0.09674  -0.7997
6.282e+09  0.8341  0.1378  0.01259  -0.0105  -0.06109  0.01399  -0.3643  -0.6923
6.284e+09  0.7757  -0.1191  -0.01491  0.01395  0.04536  0.06722  -0.5654  -0.5287
6.285e+09  0.6785  -0.453  0.006549  0.03419  1.883e-05  -0.01352  -0.7437  -0.2971
6.286e+09  0.4673  -0.6659  0.007144  -0.01628  0.00481  0.00776  -0.7624  -0.02706
6.288e+09  0.2062  -0.7536  0.03516  -0.01787  0.01629  -0.02811  -0.7476  0.2671
6.289e+09  -0.02279  -0.7362  0.004072  -0.004575  -0.0422  0.01669  -0.5888  0.4794
6.29e+09  -0.3484  -0.7394  -0.009922  0.0005977  -0.03239  -0.007159  -0.4243  0.7065
6.291e+09  -0.5648  -0.6327  0.03413  0.00883  -0.01277  -0.008169  -0.1836  0.8041
6.292e+09  -0.7851  -0.3262  0.02968  -0.01666  -0.0001458  -0.02511  0.1272  0.7636
6.294e+09  -0.8046  -0.06054  -0.03816  -0.01486  0.006753  -0.005869  0.3785  0.7371
6.295e+09  -0.7825  0.2734  0.00831  0.01502  0.03514  0.01419  0.6298  0.5261
6.296e+09  -0.638  0.4633  0.02788  -0.0255  -0.008067  0.02109  0.8153  0.2943
6.298e+09  -0.4452  0.6614  0.01134  -0.01775  0.02478  0.001523  0.8132  0.01795
6.299e+09  -0.1611  0.7415  0.01263  0.001936  -0.009384  -0.00387  0.8126  -0.2838
6.3e+09  0.05674  0.8464  -0.03215  0.02159  0.001262  -0.01198  0.6655  -0.5517
6.301e+09  0.3358  0.7068  0.001623  -0.01056  -0.005698  -0.02965  0.4591  -0.713
6.302e+09  0.5826  0.5892  0.01734  -0.00933  -0.00509  0.05513  0.1524  -0.798
6.304e+09  0.778  0.3484  0.01009  0.03085  -0.01371  -0.01642  -0.1159  -0.8319
6.305e+09  0.7917  0.06012  0.02467  -0.0027  0.03013  -0.01745  -0.3522  -0.7439
6.306e+09  0.818  -0.1932  -0.00789  0.00459  0.03917  -0.006337  -0.6483  -0.55
6.308e+09  0.6057  -0.4882  0.007418  0.0009457  0.01719  0.00602  -0.7991  -0.2841
6.309e+09  0.495  -0.6747  0.002024  -0.02033  -0.003969  -0.004426  -0.8473  -0.0008137
6.31e+09  0.1636  -0.8544  0.01753  0.006946  -0.01143  0.007322  -0.7984  0.2988
6.311e+09  -0.1023  -0.8172  0.036  0.03066  -0.02576  0.01361  -0.6557  0.5506
6.312e+09  -0.4073  -0.7125  -0.02444  0.009129  0.02701  -0.04778  -0.423  0.7377
6.314e+09  -0.577  -0.5446  -0.0193  -0.003088  -0.02259  0.06813  -0.1636  0.8531
6.315e+09  -0.7402  -0.2697  -0.02176  -0.001102  0.002671  -0.0006828  0.149  0.8567
6.316e+09  -0.8125  -0.02837  -0.01085  -0.01825  -0.002674  -0.01588  0.3861  0.7493
6.318e+09  -0.7933  0.2666  -0.007351  0.03552  0.02742  -0.04986  0.6564  0.5825
6.319e+09  -0.6396  0.517  0.003671  0.0258  -0.004806  -0.008221  0.8308  0.2816
6.32e+09  -0.4184  0.6943  -0.034  0.0007005  -0.0308  0.009885  0.88  0.02859
6.321e+09  -0.1289  0.8318  -0.02286  -0.004519  0.02753  0.04185  0.8537  -0.291
6.322e+09  0.187  0.8615  -0.01725  0.006367  0.02161  -0.01851  0.7063  -0.5725
6.324e+09  0.3966  0.7265  0.02055  0.00366  0.04577  0.0005275  0.458  -0.7892
6.325e+09  0.6785  0.5325  -0.01843  0.01139  -0.007359  0.005165  0.1765  -0.8833
6.326e+09  0.7933  0.1887  -0.02236  -0.02363  0.009968  0.01744  -0.1309  -0.8719
6.328e+09  0.832  -0.04215  -0.02058  -0.0009602  0.02728  0.0453  -0.4227  -0.7899
6.329e+09  0.7636  -0.367  0.001768  -0.01432  -0.002129  -0.02822  -0.6648  -0.6107
6.33e+09  0.6389  -0.5568  -0.005303  -0.02082  -0.0026  0.03505  -0.8429  -0.3235
6.331e+09  0.3694  -0.7748  0.01678  -0.01618  -0.02965  -0.01961  -0.9374  -0.02643
6.332e+09  0.09457  -0.8583  0.006891  0.04054  -0.009059  -0.005063  -0.8698  0.2782
6.334e+09  -0.2487  -0.8271  -0.03618  -0.004527  -0.0006436  -0.01123  -0.7282  0.5875
6.335e+09  -0.4889  -0.6634  -0.007721  -0.03717  -0.03989  0.04783  -0.4786  0.7483
6.336e+09  -0.6805  -0.4767  0.005703  -0.006682  0.03857  0.007997  -0.2235  0.8867
6.338e+09  -0.8166  -0.2257  -0.0005273  -0.009755  0.001198  0.02277  0.1236  0.9105
6.339e+09  -0.8704  0.1107  0.0225  -0.02584  0.008209  0.01104  0.4369  0.8141
6.34e+09  -0.7458  0.3424  0.01513  -0.02543  0.02622  -0.01554  0.6641  0.6401
6.341e+09  -0.5549  0.6009  -0.01672  0.002527  -0.01374  -0.009047  0.8624  0.3257
6.342e+09  -0.367  0.7539  0.0302  -0.02241  0.01218  -0.01765  0.9125  0.02308
6.344e+09  -0.02668  0.8485  0.02569  0.003128  -0.03463  -0.03366  0.9099  -0.2738
6.345e+09  0.3135  0.7709  -0.01061  0.01503  0.004363  -0.03084  0.7444  -0.5537
6.346e+09  0.5521  0.6957  0.01901  -0.01104  -0.01197  0.01129  0.5156  -0.7886
6.348e+09  0.74  0.3783  0.004501  0.002124  0.04249  -0.02298  0.2337  -0.889
6.349e+09  0.8221  0.1616  -0.04405  -0.002126  0.01373  -0.007864  -0.07744  -0.9185
6.35e+09  0.8116  -0.2139  -0.01172  -0.008358  -0.004397  -0.0004544  -0.4094  -0.8431
6.351e+09  0.7122  -0.4422  -5.556e-05  -0.04142  0.01969  -0.02049  -0.7102  -0.6378
6.352e+09  0.5244  -0.6765  -0.004055  -0.005876  -0.003721  0.02675  -0.847  -0.3419
6.354e+09  0.2514  -0.8331  0.0229  0.034  -0.04548  0.02323  -0.9167  -0.06597
6.355e+09  -0.04434  -0.8785  0.01491  -0.01598  0.009266  0.006897  -0.9504  0.2704
6.356e+09  -0.3096  -0.769  0.0281  0.007726  -0.03304  -0.0037  -0.7629  0.5881
6.358e+09  -0.6341  -0.637  -0.014  0.01463  -0.0104  0.0319  -0.5389  0.76
6.359e+09  -0.7254  -0.3748  0.01304  -0.003888  0.03074  -0.02786  -0.2485  0.9051
6.36e+09  -0.8273  -0.1059  0.009398  0.01876  0.01549  -0.01182  0.0636  0.9249
6.361e+09  -0.8251  0.2653  -0.02742  -0.007408  0.009018  -0.004073  0.3976  0.8587
6.362e+09  -0.6558  0.5266  0.04337  0.0009095  0.04111  -0.03214  0.7061  0.6788
6.364e+09  -0.4658  0.7649  0.01392  0.05657  0.03435  0.01604  0.894  0.4465
6.365e+09  -0.1723  0.8613  0.01682  -0.02337  -0.01865  -0.03434  0.9289  0.1172
6.366e+09  0.1357  0.8404  -0.009954  0.03169  0.01626  0.005524  0.9084  -0.2323
6.368e+09  0.4169  0.7261  0.01279  -0.008327  0.04941  0.02376  0.7721  -0.5638
6.369e+09  0.6485  0.5676  0.02661  0.01705  -0.01368  -0.009033  0.563  -0.7849
6.37e+09  0.7906  0.2631  -0.01256  -0.01146  0.003606  -0.04518  0.2454  -0.932
6.371e+09  0.8531  -0.009994  -0.01848  -0.01129  -0.02303  0.004766  -0.07939  -0.9026
6.372e+09  0.8175  -0.3293  -0.02407  -0.01471  0.009315  0.007382  -0.4317  -0.8482
6.374e+09  0.6389  -0.6057  0.05136  -0.008949  -0.01321  -0.04669  -0.6673  -0.6966
6.375e+09  0.4199  -0.7654  0.006882  0.002397  0.006861  0.02675  -0.8677  -0.3761
6.376e+09  0.1549  -0.8651  -0.007061  -0.02229  -0.02539  0.01663  -0.9563  -0.1077
6.378e+09  -0.1794  -0.87  -0.002606  -0.01866  -0.009154  0.02803  -0.89  0.2013
6.379e+09  -0.4364  -0.6976  0.02094  -0.01964  -0.01292  0.01858  -0.7633  0.5204
6.38e+09  -0.7195  -0.5182  0.0547  0.0641  0.04063  0.002873  -0.578  0.7566
6.381e+09  -0.8146  -0.1889  0.01297  0.0146  0.04979  -0.01633  -0.2717  0.9161
6.382e+09  -0.9116  0.06985  0.01719  -0.002832  0.02914  0.004133  0.08665  0.9505
6.384e+09  -0.8077  0.383  0.0292  -0.002422  -0.01425  -0.006733  0.3659  0.8247
6.385e+09  -0.6369  0.5983  0.006309  -0.01758  -0.01807  0.001974  0.6301  0.6621
6.386e+09  -0.3572  0.8311  -0.05006  -0.01767  -0.0504  0.004993  0.8537  0.4213
6.388e+09  -0.09081  0.9238  0.03859  -0.01028  0.02711  0.01761  0.9277  0.089
6.389e+09  0.239  0.8591  0.02984  0.001158  -0.01583  0.04338  0.9235  -0.2089
6.39e+09  0.5838  0.7336  0.007088  -0.005672  -0.001758  0.01321  0.8008  -0.5323
6.391e+09  0.7125  0.468  -0.003939  -0.03017  -0.04947  0.01631  0.627  -0.7554
6.392e+09  0.8278  0.2295  0.003707  0.03699  -0.03572  -0.03027  0.2998  -0.9043
6.394e+09  0.8705  -0.1711  0.000892  0.03095  -0.036  -0.003431  -0.01751  -0.91
6.395e+09  0.7856  -0.4332  0.007658  0.008168  0.003792  -0.008951  -0.3452  -0.8349
6.396e+09  0.5853  -0.7103  -0.01751  -0.01808  -0.02011  -0.01908  -0.6103  -0.6546
6.398e+09  0.2595  -0.8429  -0.009204  -0.03165  0.01608  -0.01019  -0.7864  -0.4329
6.399e+09  0.02131  -0.866  -0.01117  0.015  0.0239  -0.009187  -0.9148  -0.1528
6.4e+09  -0.3286  -0.7987  0.04365  0.01849  -0.0202  0.01151  -0.932  0.1652
6.401e+09  -0.5541  -0.6246  0.01749  0.02444  -0.01093  -0.03266  -0.8338  0.4894
6.402e+09  -0.7789  -0.3904  0.01568  -0.03341  -0.01062  -0.009769  -0.5725  0.6913
6.404e+09  -0.8273  -0.08648  -0.01932  0.03962  -0.01477  -0.001038  -0.2822  0.8851
6.405e+09  -0.8137  0.1958  0.0101  -0.0293  -0.01297  0.04287  -0.0006534  0.9127
6.406e+09  -0.726  0.4964  -0.006007  -0.00763  -0.0009936  0.01734  0.3276  0.8405
6.408e+09  -0.5111  0.7238  -0.002125  -0.009337  0.02086  -0.03512  0.5843  0.6977
6.409e+09  -0.2162  0.7966  0.007449  -0.02494  0.005155  0.002758  0.7676  0.5059
6.41e+09  0.03375  0.7884  0.002217  0.01287  0.02932  -0.004826  0.8751  0.1292
6.411e+09  0.3253  0.7907  -0.01866  0.04697  -0.01367  -0.02281  0.8564  -0.1238
6.412e+09  0.6349  0.6368  0.02126  -0.008928  0.03273  0.005602  0.7982  -0.4427
6.414e+09  0.7967  0.3692  0.01476  -0.01984  -0.004274  -0.003771  0.5957  -0.6867
6.415e+09  0.8668  0.05522  0.003736  0.008237  0.00385  -0.02476  0.3534  -0.8444
6.416e+09  0.807  -0.2475  -0.03106  0.002235  -0.02637  -0.00263  0.02409  -0.8649
6.418e+09  0.6922  -0.5461  -0.0595  -0.0003754  -0.003024  -0.01034  -0.2738  -0.8306
6.419e+09  0.4793  -0.72  -0.02693  0.007785  -0.009741  -0.03021  -0.5347  -0.7272
6.42e+09  0.1725  -0.9048  0.002004  0.03843  -0.0002599  -0.01132  -0.768  -0.4777
6.421e+09  -0.07133  -0.8423  -0.01222  0.01961  -0.004628  -0.005664  -0.874  -0.1923
6.422e+09  -0.4215  -0.7495  0.06  0.01101  0.05351  0.02484  -0.8767  0.1612
6.424e+09  -0.6222  -0.5597  0.003746  -0.01002  -0.0228  -0.02284  -0.7471  0.4292
6.425e+09  -0.758  -0.3267  -0.04264  0.04213  0.06007  -0.03102  -0.5997  0.6816
6.426e+09  -0.8538  0.002551  -0.002412  -0.001798  0.03886  -0.0278  -0.3581  0.7801
6.428e+09  -0.7938  0.294  -0.04781  -0.01715  0.02302  0.02712  -0.03415  0.8797
6.429e+09  -0.6703  0.5454  -0.02356  -0.005581  -0.0446  0.002928  0.2314  0.9111
6.43e+09  -0.4309  0.7307  -0.03198  -0.02714  0.01913  -0.04044  0.5075  0.6656
6.431e+09  -0.1453  0.8539  0.0112  -0.02519  -0.003155  0.004773  0.7146  0.506
6.432e+09  0.176  0.844  -0.006344  0.004005  -0.02088  0.02431  0.8283  0.2229
6.434e+09  0.4524  0.7311  -0.02084  0.0467  0.01701  -0.007367  0.9171  -0.05391
6.435e+09  0.6603  0.5645  0.02187  0.01185  0.05759  0.0195  0.8104  -0.3526
6.436e+09  0.8376  0.3066  0.03285  0.01219  -0.02572  0.03277  0.6374  -0.5783
6.438e+09  0.8866  -0.0126  -0.004712  0.03256  -0.03765  -0.01613  0.3478  -0.7777
6.439e+09  0.8089  -0.2969  -0.01348  -0.0208  -0.02534  -0.02316  0.07843  -0.8648
6.44e+09  0.6508  -0.5374  -0.02036  0.05476  0.02173  0.02957  -0.2415  -0.8281
6.441e+09  0.4075  -0.7608  0.002811  0.02305  -0.02856  0.05756  -0.4786  -0.6948
6.442e+09  0.1003  -0.8237  -0.02411  -0.0127  -0.009277  0.01255  -0.6987  -0.4697
6.444e+09  -0.1954  -0.8718  0.01719  -0.002235  0.007549  0.03563  -0.8213  -0.2127
6.445e+09  -0.4331  -0.7019  0.003587  0.01968  -0.02944  -0.02064  -0.8256  0.1099
6.446e+09  -0.7075  -0.5566  0.01821  0.00344  0.0007462  -0.03423  -0.781  0.3247
6.448e+09  -0.8154  -0.279  0.003405  -0.0296  -0.006935  0.03392  -0.5549  0.5762
6.449e+09  -0.791  0.0884  0.02349  -0.01236  -0.03286  0.01884  -0.3283  0.7301
6.45e+09  -0.8031  0.2808  -0.02189  0.02119  -0.002973  0.04557  -0.07458  0.8613
6.451e+09  -0.6178  0.5829  0.05537  0.01858  0.01334  -0.04442  0.2084  0.792
6.452e+09  -0.3941  0.796  0.01312  0.0213  0.0385  -0.00434  0.4691  0.6899
6.454e+09  -0.1268  0.8889  0.0313  0.03738  -0.03244  0.0238  0.7122  0.4513
6.455e+09  0.2024  0.8634  0.01019  -0.01058  -0.02195  0.01321  0.7863  0.1948
6.456e+09  0.5094  0.688  0.03922  -0.003438  0.01675  -0.03378  0.7732  -0.07486
6.458e+09  0.6673  0.551  0.03657  0.01446  -0.003444  -0.02295  0.763  -0.3531
6.459e+09  0.812  0.276  -0.00152  -0.01291  0.001655  0.007435  0.5762  -0.555
6.46e+09  0.8729  -0.04513  -0.01035  0.02673  0.02797  -0.01597  0.3396  -0.7077
6.461e+09  0.7961  -0.3864  -0.03922  0.008151  -0.007412  0.02622  0.07301  -0.7798
6.462e+09  0.6119  -0.5821  0.00613  0.01273  -0.04548  -0.04303  -0.2274  -0.7833
6.464e+09  0.4115  -0.7716  0.05888  0.03193  -0.01034  0.008642  -0.4695  -0.6842
6.465e+09  0.1091  -0.8673  0.003148  0.006351  -0.02958  -0.02582  -0.6549  -0.4717
6.466e+09  -0.2175  -0.8565  -0.02881  -0.006148  -0.03275  -0.02  -0.786  -0.2348
6.468e+09  -0.4825  -0.7431  0.001239  -0.01516  -0.007663  0.00347  -0.8167  0.1047
6.469e+09  -0.6761  -0.4712  0.0126  0.01635  0.002118  0.02251  -0.6787  0.3195
6.47e+09  -0.8117  -0.2423  0.009169  -0.02314  -0.01073  0.005089  -0.5608  0.6004
6.471e+09  -0.8872  0.04654  0.003645  0.04679  -0.04291  -0.02975  -0.3318  0.7535
6.472e+09  -0.7547  0.3418  -0.01272  0.02218  -0.07221  0.05861  -0.07555  0.7712
6.474e+09  -0.6095  0.6448  0.0347  -0.02347  0.01619  -0.0005445  0.2248  0.7496
6.475e+09  -0.3613  0.7786  0.02526  -0.002297  -0.009393  0.01047  0.4578  0.6287
6.476e+09  -0.08177  0.8339  -0.03215  -0.01366  0.01552  0.05651  0.6351  0.4335
6.478e+09  0.2159  0.8099  -0.01612  0.0104  -0.01778  0.08255  0.7862  0.1873
6.479e+09  0.4665  0.6818  0.02098  0.007608  -0.04171  0.04351  0.7708  -0.09692
6.48e+09  0.6964  0.5066  -0.00837  -0.02908  -0.007843  0.02953  0.7217  -0.3366
6.481e+09  0.8149  0.2019  0.005877  0.02154  -0.002138  -0.01389  0.5659  -0.5348
6.482e+09  0.8775  -0.08209  -0.0007719  0.02253  -0.01125  -0.009854  0.3528  -0.7324
6.484e+09  0.8041  -0.3609  0.01664  -0.01917  0.0001525  0.006979  0.04875  -0.7507
6.485e+09  0.5568  -0.6388  0.04305  0.03052  -0.02981  0.0094  -0.2335  -0.7348
6.486e+09  0.3626  -0.7781  -0.02097  0.01264  -0.04197  0.03318  -0.4319  -0.635
6.488e+09  0.05425  -0.859  0.02609  -0.008415  0.005366  -0.1025  -0.6338  -0.4671
6.489e+09  -0.2027  -0.8837  0.03414  0.01732  0.04809  0.07925  -0.7522  -0.2358
6.49e+09  -0.4638  -0.7167  -0.03118  -0.008968  -0.01686  0.007364  -0.747  0.1254
6.491e+09  -0.7466  -0.4398  0.01064  -0.005026  -0.01058  -0.002204  -0.6499  0.3454
6.492e+09  -0.8433  -0.1894  0.02543  -0.01924  0.006968  -0.0007298  -0.5577  0.5646
6.494e+09  -0.8758  0.1442  0.004663  -0.05938  0.0655  -0.04957  -0.2768  0.7024
6.495e+09  -0.7716  0.4165  -0.02826  -0.01057  -0.01566  0.005842  -0.05187  0.7285
6.496e+09  -0.6163  0.6208  0.02168  -0.01427  -0.03896  0.03668  0.1886  0.7618
6.498e+09  -0.3588  0.7397  0.001146  0.00552  0.04062  0.02587  0.4714  0.5956
6.499e+09  -0.06881  0.8827  -0.02031  0.03478  0.002088  -0.005148  0.6608  0.4084
6.5e+09  0.2467  0.9092  0.04168  -0.004513  0.01399  -0.01019  0.7252  0.1318
6.501e+09  0.5705  0.6527  -0.02882  0.01413  0.001419  0.002508  0.778  -0.1505
6.502e+09  0.7287  0.4294  0.01294  -0.00466  -0.008737  0.02415  0.6564  -0.3454
6.504e+09  0.8814  0.1807  -0.0007988  0.02267  0.05164  0.007551  0.547  -0.5634
6.505e+09  0.9048  -0.1473  -0.002046  0.05937  -0.003704  0.02597  0.2701  -0.7225
6.506e+09  0.7717  -0.4244  -0.00261  -0.01108  -0.003267  -0.01371  0.06638  -0.7581
6.508e+09  0.6486  -0.6516  0.01465  -0.002462  -0.002188  0.04167  -0.2326  -0.7092
6.509e+09  0.3682  -0.8004  -0.0282  -0.01735  -0.03499  0.01096  -0.4752  -0.5813
6.51e+09  0.04673  -0.923  0.006452  -0.0119  -0.03742  0.01385  -0.6727  -0.3523
6.511e+09  -0.282  -0.8781  -0.007982  0.003474  -0.02646  -0.01763  -0.7652  -0.1291
6.512e+09  -0.5405  -0.7434  -0.01147  -0.01624  0.03066  0.01768  -0.7296  0.1158
6.514e+09  -0.7506  -0.5351  -0.002239  -0.007024  0.02039  -0.01475  -0.6391  0.3913
6.515e+09  -0.8895  -0.2065  -0.02866  0.001662  -0.06871  -0.03439  -0.4667  0.5805
6.516e+09  -0.9215  0.104  -0.0203  -0.03767  -0.06275  -0.02148  -0.279  0.7399
6.518e+09  -0.7379  0.4494  -0.01021  0.01772  0.04436  -0.00262  -0.01454  0.7918
6.519e+09  -0.5822  0.6903  -0.006728  0.01084  -0.0171  0.005939  0.2426  0.6839
6.52e+09  -0.3137  0.9043  -0.004738  0.03075  -0.03927  -0.0113  0.4908  0.5411
6.521e+09  -0.02602  0.9676  -0.05289  0.01065  -0.003104  -0.02905  0.6674  0.3268
6.522e+09  0.3058  0.8931  -0.01769  0.01293  0.004727  0.03745  0.7603  0.1109
6.524e+09  0.6095  0.7035  -0.00572  0.00687  -0.01561  0.02998  0.698  -0.1603
6.525e+09  0.8469  0.4058  -0.02747  0.01577  0.01749  0.0004208  0.631  -0.4141
6.526e+09  0.9362  0.1676  0.01594  0.01678  0.03973  0.02257  0.4178  -0.5611
6.528e+09  0.9173  -0.1446  -0.03526  -0.02883  0.04106  -0.00475  0.1864  -0.6692
6.529e+09  0.8201  -0.5016  0.001806  0.0142  -0.04645  -0.005615  -0.03587  -0.7181
6.53e+09  0.614  -0.6667  0.01921  0.04509  -0.004897  0.0232  -0.2969  -0.644
6.531e+09  0.2855  -0.8742  0.01635  0.01685  0.007021  0.02593  -0.462  -0.4674
6.532e+09  -0.03669  -0.9271  0.02356  -0.02023  -0.00909  -0.008561  -0.5935  -0.2494
6.534e+09  -0.3435  -0.8859  0.001112  0.02081  -0.0373  0.02942  -0.6129  -0.1055
6.535e+09  -0.6426  -0.691  -0.02096  0.002211  0.0131  0.01027  -0.6139  0.1036
6.536e+09  -0.8366  -0.3661  -0.00485  -0.01367  -0.04008  -0.03729  -0.5782  0.3519
6.538e+09  -0.9267  -0.06257  -0.01367  -0.01685  -0.01785  0.01393  -0.4578  0.4664
6.539e+09  -0.9238  0.2394  0.0004972  -0.01135  -0.03619  -0.003388  -0.2477  0.6232
6.54e+09  -0.8476  0.5197  0.002518  0.04836  -0.007169  -0.01236  -0.0525  0.7019
6.541e+09  -0.5255  0.763  -0.03093  0.001886  -0.01562  0.02815  0.1723  0.677
6.542e+09  -0.2629  0.9639  0.03048  4.204e-07  -0.01241  0.02712  0.3842  0.5657
6.544e+09  0.113  0.9397  0.01724  -0.02659  0.06017  -0.02629  0.6013  0.391
6.545e+09  0.419  0.8654  -0.00048  -0.001961  -0.01558  -0.001692  0.6999  0.1492
6.546e+09  0.7307  0.6118  -0.001346  -0.02139  0.01842  0.02818  0.7458  -0.07424
6.548e+09  0.8871  0.3771  0.02669  0.006302  0.02465  -0.02082  0.6494  -0.3376
6.549e+09  0.9979  0.04162  0.0093  -0.01355  0.04959  0.02329  0.4742  -0.5514
6.55e+09  0.8742  -0.2636  -0.003805  -0.0198  -0.01353  -0.01388  0.2933  -0.6817
