# Hz S RI R 50
6.25e+09  -0.4524  0.7782  0.005006  0.01811  -0.04617  0.02812  0.1626  0.4835
6.251e+09  -0.1422  0.838  0.02549  0.003659  0.006592  -0.007507  0.3618  0.4207
6.252e+09  0.1406  0.8094  0.01205  -0.0005201  0.04636  -0.02179  0.5115  0.2408
6.254e+09  0.4691  0.745  -0.01052  0.02491  0.03755  0.04287  0.601  0.03753
6.255e+09  0.6807  0.5127  -0.02065  0.02456  -0.004426  0.02746  0.6108  -0.1747
6.256e+09  0.8093  0.2859  0.009144  -0.01245  -0.0249  -0.005158  0.492  -0.4261
6.258e+09  0.8328  0.01917  0.0225  0.03799  0.02344  -0.02223  0.2974  -0.6187
6.259e+09  0.7585  -0.2931  -0.006099  0.01975  0.0128  -0.04898  0.04412  -0.674
6.26e+09  0.6697  -0.5517  0.007425  -0.00528  -0.02734  0.04029  -0.2309  -0.6433
6.261e+09  0.3777  -0.7783  0.0114  -0.03213  0.009792  -0.005539  -0.4535  -0.5345
6.262e+09  0.08291  -0.7887  0.005214  -0.0239  -0.03563  -0.03546  -0.5982  -0.3409
6.264e+09  -0.1959  -0.7893  -0.02192  -0.001706  0.02519  -0.02125  -0.6877  -0.1072
6.265e+09  -0.4137  -0.7382  -0.001136  -0.01493  0.01042  -0.003894  -0.6947  0.1629
6.266e+09  -0.6954  -0.4631  -0.02429  0.01575  0.02717  -0.02242  -0.6198  0.3798
6.268e+09  -0.7825  -0.2771  0.02119  0.003646  0.04237  0.04055  -0.4426  0.5782
6.269e+09  -0.8248  0.03049  0.00892  -0.007667  0.02221  -0.01201  -0.1961  0.688
6.27e+09  -0.7712  0.3055  -0.006165  -0.003603  -0.02935  -0.01265  0.04771  0.742
6.271e+09  -0.6027  0.5756  0.00775  -0.007839  -0.0256  0.007446  0.3166  0.6479
6.272e+09  -0.376  0.7407  -0.01436  -0.002239  -0.02901  0.01906  0.5443  0.5219
6.274e+09  -0.1305  0.7986  -0.01765  0.02929  0.02165  0.002336  0.6607  0.3166
6.275e+09  0.2201  0.7988  -0.003062  0.003668  0.007675  0.02172  0.7911  0.06559
6.276e+09  0.4321  0.7013  0.01726  0.01064  -0.03942  0.005508  0.7391  -0.2339
6.278e+09  0.7108  0.5187  0.01638  0.00595  0.01076  0.004956  0.6072  -0.4728
6.279e+09  0.8447  0.2338  -0.01059  0.00828  0.01998  -0.07143  0.4169  -0.6751
6.28e+09  0.8521  -0.03842  0.007908  -0.009073  -0.01454  -0.0002053  0.1681  -0.7622
6.281e+09  0.7295  -0.3868  -0.003826  -0.01219  -0.001803  0.0505  -0.1216  -0.7715
6.282e+09  0.6092  -0.5935  0.01395  0.01627  0.02011  -0.05113  -0.3772  -0.6836
6.284e+09  0.3898  -0.7629  0.01574  -0.008739  -0.01216  -0.03465  -0.6055  -0.5084
6.285e+09  0.03081  -0.8398  0.004141  0.006241  -0.02242  -0.001975  -0.7333  -0.292
6.286e+09  -0.2261  -0.7701  0.003804  -0.0107  0.05239  0.02925  -0.782  -0.05144
6.288e+09  -0.4347  -0.6884  0.001605  0.0172  0.0522  0.006346  -0.7479  0.2899
6.289e+09  -0.6921  -0.4634  -0.01851  0.03572  -0.02836  -0.02746  -0.6114  0.4774
6.29e+09  -0.835  -0.2744  -0.01288  -0.01678  0.02054  0.001489  -0.4116  0.6488
6.291e+09  -0.7942  0.09083  -0.01099  -0.01286  0.02122  0.005804  -0.1148  0.7919
6.292e+09  -0.7489  0.3892  0.01549  0.002976  0.05964  -0.0531  0.1349  0.7903
6.294e+09  -0.5579  0.6212  0.01236  0.004101  -0.03216  -0.03841  0.3979  0.716
6.295e+09  -0.313  0.7882  -0.006854  -0.0126  -0.02938  -0.01951  0.6103  0.5486
6.296e+09  -0.02637  0.8353  -0.004225  -0.001277  0.04085  -0.004596  0.7829  0.2988
6.298e+09  0.2494  0.8147  0.02126  -0.01836  0.02411  0.001046  0.8471  -0.006277
6.299e+09  0.5101  0.6604  0.008912  0.007599  -0.005644  0.001423  0.7821  -0.2598
6.3e+09  0.6923  0.4431  0.03654  -0.006795  -0.004125  0.04119  0.6319  -0.528
6.301e+09  0.8243  0.207  -0.01645  0.006678  0.001303  -0.01115  0.4453  -0.755
6.302e+09  0.8327  -0.1148  -0.005372  -0.01375  -0.02057  -0.02622  0.164  -0.806
6.304e+09  0.732  -0.3247  -0.001618  -0.01784  0.007695  0.05875  -0.1652  -0.817
6.305e+09  0.5241  -0.6223  -0.009691  0.003004  0.005387  -0.02949  -0.4133  -0.7387
6.306e+09  0.2918  -0.7679  -0.004745  0.002303  -0.03408  -0.01087  -0.6722  -0.5459
6.308e+09  0.001783  -0.8698  -0.009563  0.0233  0.004078  0.04631  -0.7834  -0.3154
6.309e+09  -0.2604  -0.7814  0.06755  -0.02884  -0.01046  -0.04819  -0.8605  -0.002905
6.31e+09  -0.5718  -0.6431  0.005722  0.0006852  0.01784  -0.01478  -0.8065  0.2857
6.311e+09  -0.732  -0.429  0.007622  0.01478  0.002411  0.01304  -0.7123  0.5557
6.312e+09  -0.776  -0.1753  -0.01249  0.02452  -0.01301  0.0306  -0.4288  0.7543
6.314e+09  -0.8082  0.168  0.02719  0.01305  0.06404  0.02889  -0.1416  0.832
6.315e+09  -0.7099  0.4185  -0.01145  -0.0123  0.03983  -0.01576  0.1474  0.8143
6.316e+09  -0.5492  0.6721  -0.02609  0.03411  -0.01677  -0.01735  0.4359  0.8018
6.318e+09  -0.2635  0.8086  0.01811  -0.006517  -0.04158  -4.115e-05  0.6707  0.581
6.319e+09  0.01711  0.8671  0.03201  0.03317  -0.01279  -0.007703  0.8153  0.3104
6.32e+09  0.2862  0.7862  -0.02845  0.01367  -0.01558  -0.02974  0.8891  0.01342
6.321e+09  0.5331  0.6224  -0.004464  0.01896  -0.03015  -0.02079  0.8494  -0.2823
6.322e+09  0.7944  0.4088  -0.01216  0.03417  0.01484  -0.05222  0.7039  -0.5412
6.324e+09  0.853  0.0737  -0.02597  0.00465  0.03473  -0.001501  0.4432  -0.776
6.325e+09  0.8389  -0.199  -0.01513  -0.01689  0.03652  0.03374  0.1945  -0.8399
6.326e+09  0.7213  -0.4611  -0.0005482  -0.01012  0.001239  -0.02467  -0.1189  -0.881
6.328e+09  0.5278  -0.6531  -0.02008  0.00986  0.002997  0.02328  -0.4431  -0.7764
6.329e+09  0.2867  -0.8499  0.0006331  -0.003075  -0.00171  0.01135  -0.6516  -0.5823
6.33e+09  -0.04139  -0.8493  0.0278  0.02196  -0.01542  0.01174  -0.851  -0.3503
6.331e+09  -0.3674  -0.8286  0.007707  0.03098  0.01182  0.03452  -0.8714  -0.02655
6.332e+09  -0.6198  -0.5519  0.03005  0.01981  -0.01338  -0.05313  -0.8598  0.2731
6.334e+09  -0.7924  -0.3314  -0.0251  0.0258  0.02389  0.01187  -0.7264  0.5589
6.335e+09  -0.8334  -0.06949  -0.01166  0.004888  0.02977  0.01121  -0.4694  0.7847
6.336e+09  -0.8384  0.2241  0.01024  0.01019  -0.01718  -0.07238  -0.1813  0.8834
6.338e+09  -0.6692  0.5269  -0.0006598  0.007874  0.0007961  0.02721  0.1582  0.9209
6.339e+09  -0.4795  0.6991  0.001571  -0.002504  -0.007338  -0.006115  0.4136  0.7956
6.34e+09  -0.173  0.8422  0.0367  -0.02832  0.01565  0.003197  0.6346  0.6173
6.341e+09  0.1002  0.8501  -0.02417  0.03057  -0.005725  0.01541  0.8462  0.3458
6.342e+09  0.4297  0.7572  -0.005725  -0.01677  -0.01892  0.04903  0.9335  0.04675
6.344e+09  0.6482  0.587  -0.001945  0.02233  -0.01265  0.04563  0.891  -0.2961
6.345e+09  0.8251  0.2599  0.01118  -0.0006568  0.0003359  -0.01977  0.7261  -0.5435
6.346e+09  0.8531  0.0292  0.001933  0.007065  -0.01539  -0.05825  0.5101  -0.7725
6.348e+09  0.8473  -0.2722  -0.007321  -0.007014  -0.01037  -0.01278  0.2191  -0.939
6.349e+09  0.6472  -0.5633  -0.0006785  -0.03539  0.02101  -0.007271  -0.1125  -0.936
6.35e+09  0.4267  -0.721  0.02775  0.02379  -0.01971  -0.01118  -0.4234  -0.845
6.351e+09  0.1252  -0.9152  -0.04246  0.009258  0.01347  0.04585  -0.6546  -0.6706
6.352e+09  -0.1608  -0.864  0.023  -0.01852  -0.01152  -0.05436  -0.8511  -0.3816
6.354e+09  -0.4589  -0.745  -0.007167  -0.02471  -0.03175  0.01735  -0.9645  -0.03628
6.355e+09  -0.655  -0.5888  -0.02282  -0.01084  0.01061  -0.02278  -0.911  0.2905
6.356e+09  -0.8604  -0.2894  -0.01823  -0.0364  -0.004659  -0.01768  -0.731  0.5644
6.358e+09  -0.927  0.03836  0.009426  -0.01576  0.01738  -0.01056  -0.5173  0.796
6.359e+09  -0.7989  0.3494  -0.01271  -0.03517  -0.02891  -0.02422  -0.2301  0.9316
6.36e+09  -0.6478  0.6053  0.01001  0.03333  -0.003  0.00168  0.1117  0.9461
6.361e+09  -0.4067  0.7535  0.006842  -0.0008489  0.02857  0.02358  0.4053  0.798
6.362e+09  -0.1241  0.8641  -0.01246  0.03396  0.006512  -0.04065  0.6632  0.638
6.364e+09  0.2179  0.8731  -0.05416  -0.01245  -0.05175  -0.01658  0.8335  0.4011
6.365e+09  0.5501  0.7857  -0.0053  -0.01116  0.01181  0.04189  0.9396  0.03603
6.366e+09  0.7439  0.5217  0.02349  -0.004837  -0.0118  -0.006294  0.8925  -0.2445
6.368e+09  0.8847  0.2174  -0.02353  0.01744  -0.01492  -0.03705  0.7846  -0.5098
6.369e+09  0.8937  -0.1528  -0.006637  0.0054  0.01252  -0.04843  0.5735  -0.8055
6.37e+09  0.7841  -0.3964  -0.03727  -0.02092  0.02316  -0.00137  0.2343  -0.904
6.371e+09  0.6324  -0.6788  0.02296  0.03902  0.0002797  -0.03488  -0.07394  -0.9014
6.372e+09  0.3203  -0.8512  -0.006224  -0.02088  -0.01166  -0.009316  -0.3735  -0.8722
6.374e+09  0.05149  -0.8864  0.03202  -0.007702  0.03337  -0.009706  -0.6524  -0.6841
6.375e+09  -0.2685  -0.8927  0.0001776  -0.01536  -0.01729  0.06563  -0.8646  -0.437
6.376e+09  -0.5216  -0.7303  -0.02762  -0.0195  0.02568  0.03118  -0.9552  -0.1071
6.378e+09  -0.7594  -0.4233  0.01123  0.02414  0.008349  -0.009705  -0.9301  0.2127
6.379e+09  -0.9078  -0.2031  -0.03255  -0.04562  -0.02757  0.009563  -0.7872  0.5107
6.38e+09  -0.8868  0.1484  0.005225  0.06293  -0.01529  -0.03279  -0.5265  0.7668
6.381e+09  -0.8012  0.4729  0.04906  -0.02362  0.02249  0.03765  -0.2619  0.8634
6.382e+09  -0.5794  0.6784  0.03936  0.02665  -0.03417  -0.05011  0.04825  0.9415
6.384e+09  -0.3287  0.8527  0.01159  0.008048  0.009927  -0.01286  0.3564  0.8779
6.385e+09  0.001456  0.8649  -0.005273  -0.01808  0.01286  -0.04057  0.6407  0.6917
6.386e+09  0.3378  0.8669  -0.02339  -0.0181  -0.01912  -0.006855  0.8388  0.4359
6.388e+09  0.5876  0.6774  -0.007311  -0.01198  0.01151  -0.03241  0.9423  0.1257
6.389e+09  0.7694  0.4672  0.01687  -0.01342  0.02888  0.01601  0.9266  -0.1923
6.39e+09  0.8665  0.1588  0.03163  0.008131  0.02878  -0.02933  0.8188  -0.5301
6.391e+09  0.8425  -0.1608  0.0356  -0.01788  0.001465  0.01127  0.5697  -0.7114
6.392e+09  0.8177  -0.4458  -0.01326  -0.03006  -0.04677  -0.00797  0.2969  -0.8626
6.394e+09  0.5378  -0.6781  0.008791  -0.03551  -0.009223  -0.00106  -0.02154  -0.9136
6.395e+09  0.2651  -0.818  -0.02959  -0.0197  0.0115  -0.014  -0.3732  -0.865
6.396e+09  -0.02896  -0.9229  -0.01584  -0.01455  0.006477  -0.02195  -0.6284  -0.6858
6.398e+09  -0.3194  -0.8574  0.02495  0.01806  0.01653  -0.03495  -0.8112  -0.4416
6.399e+09  -0.5928  -0.6601  -0.03884  0.01458  0.02095  0.02134  -0.8881  -0.09288
6.4e+09  -0.7813  -0.4299  -0.0002447  0.01717  0.05812  -0.002694  -0.8966  0.1371
6.401e+09  -0.9066  -0.101  -0.01159  0.01989  -0.03344  -0.07319  -0.7941  0.4434
6.402e+09  -0.8485  0.181  0.005994  -0.02284  -0.003154  0.003024  -0.6024  0.7209
6.404e+09  -0.7635  0.4451  -0.03974  -0.004241  -0.04427  0.05715  -0.3533  0.8576
6.405e+09  -0.5186  0.6561  -0.02151  -0.01591  -0.008595  0.01918  0.003988  0.9322
6.406e+09  -0.2676  0.837  -0.003983  -0.01488  -0.01061  -0.02984  0.3287  0.89
6.408e+09  0.05331  0.8473  0.01939  -0.001006  -0.01855  -0.008293  0.5852  0.7114
6.409e+09  0.3351  0.8239  -0.002227  -0.0014  0.01765  0.008034  0.7711  0.4686
6.41e+09  0.632  0.6437  0.001657  0.01315  0.06413  0.01161  0.8625  0.1681
6.411e+09  0.8397  0.357  0.02727  -0.02382  -0.02368  0.003269  0.8737  -0.1646
6.412e+09  0.8606  0.07092  0.006225  -0.00162  0.001493  -0.02314  0.803  -0.4631
6.414e+09  0.8761  -0.2505  -0.0002827  -0.01382  0.0002529  0.05193  0.5494  -0.6389
6.415e+09  0.7247  -0.4768  0.03526  -0.004384  -0.02923  -0.003025  0.3058  -0.843
6.416e+09  0.5161  -0.7431  0.01609  -0.03698  -0.02208  -0.07912  0.02669  -0.8948
6.418e+09  0.2535  -0.8576  0.02175  -0.01008  -0.01093  0.02648  -0.2403  -0.8889
6.419e+09  -0.1053  -0.8746  0.01343  0.01949  0.01477  -0.00017  -0.5659  -0.7773
6.42e+09  -0.4058  -0.7995  -0.002883  0.001985  0.02473  -0.005493  -0.7714  -0.4391
6.421e+09  -0.6138  -0.6044  0.005353  -0.006679  0.009636  0.004538  -0.8516  -0.1932
6.422e+09  -0.822  -0.404  -0.006687  0.05186  0.02785  0.03002  -0.9052  0.07183
6.424e+09  -0.928  -0.04654  -0.01891  0.04292  -0.02412  0.008778  -0.7542  0.4042
6.425e+09  -0.8154  0.2058  -0.004103  0.006449  0.03805  -0.005675  -0.571  0.6142
6.426e+09  -0.696  0.4923  -0.00333  0.02703  0.00632  -0.008964  -0.397  0.8213
6.428e+09  -0.4452  0.7599  0.05173  -0.03135  0.009037  -0.01389  -0.03786  0.9204
6.429e+09  -0.2318  0.8385  -0.003037  -0.008646  -0.02063  -0.007022  0.2782  0.8692
6.43e+09  0.06818  0.848  -0.04304  0.007367  -0.002276  0.04781  0.5254  0.6806
6.431e+09  0.3979  0.7844  0.000165  0.04627  0.07492  -0.01277  0.6672  0.4738
6.432e+09  0.6618  0.5889  0.04097  0.003963  -0.03186  -0.005248  0.8067  0.212
6.434e+09  0.8107  0.3451  -0.02353  -0.01963  -0.001162  0.03721  0.8218  -0.09769
6.435e+09  0.8615  0.05874  0.008356  0.027  -0.04309  -0.02556  0.805  -0.3549
6.436e+09  0.7869  -0.2505  -0.04565  -0.02317  0.01818  -0.05654  0.5859  -0.6167
6.438e+09  0.6816  -0.5345  0.02856  -0.03376  -0.0003527  0.005342  0.3603  -0.8126
6.439e+09  0.499  -0.7304  0.02177  -0.02557  -0.004869  -0.01493  0.0985  -0.8821
6.44e+09  0.2148  -0.807  -0.02492  -0.07576  0.04163  -0.03961  -0.2832  -0.8251
6.441e+09  -0.09978  -0.8653  -0.03896  -0.02019  0.01602  0.02464  -0.4958  -0.7335
6.442e+09  -0.3677  -0.7784  -0.01693  0.005749  0.03027  0.02877  -0.6934  -0.482
6.444e+09  -0.6609  -0.6266  -0.001091  0.009576  -0.01017  0.07122  -0.8117  -0.1813
6.445e+09  -0.8266  -0.3544  -0.0444  -0.01561  0.02836  -0.01435  -0.8439  0.1126
6.446e+09  -0.8978  -0.003206  -0.05754  0.01675  0.04795  0.008971  -0.7446  0.3939
6.448e+09  -0.8483  0.2699  -0.0003139  0.002361  0.02791  0.002212  -0.6101  0.5951
6.449e+09  -0.7208  0.4952  0.007448  0.06193  0.006426  0.009998  -0.3575  0.7784
6.45e+09  -0.5561  0.7772  -0.00991  0.02323  0.04087  0.01051  -0.1095  0.8078
6.451e+09  -0.1973  0.839  -0.02864  -0.01036  0.01905  0.0304  0.2122  0.793
6.452e+09  0.06483  0.8789  -0.02056  0.009073  0.00337  0.03628  0.468  0.6806
6.454e+09  0.4135  0.7951  0.03146  -0.02281  -0.001934  -0.02921  0.6947  0.506
6.455e+09  0.6866  0.6338  -0.02527  -0.02564  -0.01486  -0.002706  0.7679  0.1827
6.456e+09  0.8276  0.3212  -0.006549  -0.05068  0.01233  0.02923  0.7972  -0.07871
6.458e+09  0.8964  0.01154  -0.008567  0.01741  0.02532  -0.0559  0.7062  -0.3425
6.459e+09  0.8746  -0.2639  -0.005561  0.03194  -0.04355  -0.02663  0.5678  -0.5579
6.46e+09  0.7248  -0.5729  0.0178  -0.03653  0.03643  0.03233  0.327  -0.7052
6.461e+09  0.4978  -0.7728  -0.00266  0.02778  0.02505  -0.04533  0.04882  -0.805
6.462e+09  0.1514  -0.899  -0.00722  -0.0218  -0.02286  0.003448  -0.2514  -0.7753
6.464e+09  -0.1192  -0.8577  0.03271  0.03223  -0.000152  -0.008191  -0.5334  -0.6719
6.465e+09  -0.3941  -0.8333  -0.02915  -0.03539  0.007651  0.03787  -0.6556  -0.47
6.466e+09  -0.6336  -0.6413  0.008901  0.005782  0.007444  0.04255  -0.7656  -0.1516
6.468e+09  -0.7816  -0.3317  -0.01567  0.03782  0.05811  0.002291  -0.7884  0.05684
6.469e+09  -0.8939  -0.008433  0.01923  0.01979  0.04634  -0.02333  -0.7754  0.3194
6.47e+09  -0.8712  0.2903  0.008385  -0.02267  -0.02472  -0.0172  -0.5539  0.5696
6.471e+09  -0.7448  0.583  0.004161  -0.006864  -0.007993  0.02107  -0.327  0.7233
6.472e+09  -0.4714  0.8283  -0.01637  -0.006768  -0.01894  0.009353  -0.07821  0.7716
6.474e+09  -0.1823  0.9084  0.01364  -0.05449  -0.003969  -0.01325  0.2486  0.7273
6.475e+09  0.1232  0.9183  0.02298  -0.02798  0.01129  -0.01924  0.4573  0.6651
6.476e+09  0.4327  0.7786  0.01269  -0.02385  0.04011  -0.01724  0.6288  0.4453
6.478e+09  0.6767  0.6269  0.03157  -0.01174  -0.01349  0.02771  0.7543  0.196
6.479e+09  0.8603  0.3075  0.00942  -0.006788  -0.06666  0.01244  0.8194  -0.08084
6.48e+09  0.912  0.0939  0.04935  -0.03427  0.02421  0.01585  0.6899  -0.3154
6.481e+09  0.825  -0.31  0.02625  -0.002461  0.008438  -0.04731  0.5781  -0.5535
6.482e+09  0.6792  -0.5792  -0.006819  0.01196  0.04217  0.03084  0.3581  -0.6838
6.484e+09  0.5201  -0.8075  -0.003394  0.008844  -0.02108  0.03521  0.07968  -0.7626
6.485e+09  0.1685  -0.858  0.01553  0.02241  -0.02693  0.004882  -0.2395  -0.7817
6.486e+09  -0.1321  -0.9108  -0.0119  -0.0329  -0.04256  0.009386  -0.451  -0.6282
6.488e+09  -0.4991  -0.8092  0.008987  0.003406  0.009802  -0.02451  -0.6756  -0.4634
6.489e+09  -0.6966  -0.5906  -0.01201  -0.02169  -0.01241  -0.02531  -0.751  -0.2007
6.49e+09  -0.8708  -0.3053  0.008451  -0.01781  -0.007315  0.03658  -0.7801  0.05882
6.491e+09  -0.9567  0.002159  -0.008079  -0.01446  0.008716  -0.05443  -0.6733  0.35
6.492e+09  -0.8965  0.2884  -0.04266  -0.03385  -0.0194  0.03338  -0.5166  0.5506
6.494e+09  -0.7174  0.5728  0.01396  0.002628  -0.04504  0.02547  -0.3469  0.7198
6.495e+09  -0.4368  0.8185  0.001662  0.001015  -0.03016  0.01524  -0.0413  0.796
6.496e+09  -0.09285  0.8955  0.02221  0.005671  -0.001313  -0.03576  0.1914  0.7127
6.498e+09  0.1711  0.9021  -0.01316  0.008677  -0.01988  -0.01076  0.4581  0.6165
6.499e+09  0.4973  0.7801  0.01962  -0.01015  0.03233  0.0207  0.6526  0.3935
6.5e+09  0.736  0.5787  -0.03504  -0.002488  -0.02449  0.0189  0.7147  0.187
6.501e+09  0.8988  0.3214  0.00254  0.04118  -0.03119  0.008939  0.7634  -0.1142
6.502e+09  0.8707  -0.003155  0.0335  -0.01223  0.007198  0.01794  0.689  -0.354
6.504e+09  0.8806  -0.3548  0.03269  -0.03747  -0.03688  -0.08845  0.5202  -0.5507
6.505e+09  0.6885  -0.6708  0.01171  -0.007492  0.05532  0.005356  0.2818  -0.713
6.506e+09  0.4431  -0.8522  0.009187  0.005869  -0.05118  0.008254  -0.008581  -0.7499
6.508e+09  0.1372  -0.9219  0.02602  -0.009662  0.04612  -0.006473  -0.2327  -0.6983
6.509e+09  -0.2282  -0.886  -0.01571  0.00881  -0.01629  -0.02284  -0.4595  -0.5812
6.51e+09  -0.456  -0.8468  0.01865  -0.009876  -0.01181  0.007197  -0.6204  -0.3858
6.511e+09  -0.783  -0.5904  0.03148  0.03904  0.02534  0.007326  -0.7681  -0.09785
6.512e+09  -0.9057  -0.333  0.03674  0.004342  -0.01725  0.002173  -0.7211  0.1255
6.514e+09  -1.005  0.0727  -0.0005417  -0.0003744  0.01185  0.03333  -0.6637  0.3854
6.515e+09  -0.8422  0.4096  -0.001109  0.01306  0.04959  -0.006195  -0.4795  0.5645
6.516e+09  -0.6956  0.6805  0.0006865  -0.01316  0.02254  0.02308  -0.2426  0.6919
6.518e+09  -0.4037  0.7781  -0.0229  -0.00682  0.01563  0.03302  -0.005807  0.7495
6.519e+09  -0.04153  0.9008  -0.0215  0.0005149  -0.0401  -0.04  0.2534  0.6928
6.52e+09  0.2825  0.9211  -0.02365  -0.01474  0.00627  0.007496  0.5134  0.5334
6.521e+09  0.5976  0.7827  -0.001352  0.007268  0.00763  -0.01146  0.654  0.3678
6.522e+09  0.8046  0.5372  -0.001584  0.02482  -0.0257  0.006771  0.7318  0.08566
6.524e+09  0.8815  0.2689  0.01171  0.03893  0.06689  0.02613  0.6893  -0.1586
6.525e+09  0.9868  -0.08975  -0.0214  -0.01672  0.03899  -0.006879  0.6028  -0.3419
6.526e+09  0.8548  -0.4735  -0.008137  0.01501  0.04081  -0.04682  0.4189  -0.5591
6.528e+09  0.6227  -0.7513  -0.01329  -0.02336  0.006112  0.02447  0.1718  -0.6574
6.529e+09  0.3941  -0.9382  0.005141  -0.01284  0.002624  0.01137  -0.05321  -0.6769
6.53e+09  0.04739  -0.9914  -0.004663  0.01349  -0.06225  -0.05256  -0.2827  -0.6225
6.531e+09  -0.3666  -0.8573  0.03678  -0.01797  0.007112  -0.03683  -0.4708  -0.4662
6.532e+09  -0.6547  -0.7643  -0.009114  0.02077  0.02089  -0.03041  -0.6119  -0.3099
6.534e+09  -0.8727  -0.4264  -0.004901  -0.005065  -0.000786  -0.01869  -0.6227  -0.05229
6.535e+09  -1.016  -0.1671  0.006339  -0.01885  -0.005351  -0.06018  -0.6328  0.06882
6.536e+09  -0.9573  0.1605  0.002694  -0.02518  0.006302  -0.05132  -0.5431  0.2836
6.538e+09  -0.8609  0.5007  0.002323  -0.00458  5.437e-05  -0.006581  -0.4228  0.448
6.539e+09  -0.5712  0.7975  0.01932  0.00664  -0.01302  -0.01584  -0.2325  0.6024
6.54e+09  -0.3266  0.919  0.0147  -0.008077  0.08091  0.04919  -0.06712  0.6882
6.541e+09  0.06451  0.9944  0.01589  -0.007609  0.04879  -0.007411  0.1867  0.6926
6.542e+09  0.3749  0.9511  -0.02384  0.01359  -0.01687  0.02808  0.4302  0.58
6.544e+09  0.6994  0.7152  -0.03226  0.005284  0.01082  -0.0175  0.5665  0.3991
6.545e+09  0.8635  0.419  -0.03744  -0.0001384  -0.008643  -0.02778  0.6734  0.1684
6.546e+09  0.9784  0.1427  0.007434  -0.003813  0.02108  0.02382  0.7118  -0.09323
6.548e+09  0.9359  -0.2483  0.002  -0.0107  -0.06424  -0.005956  0.6717  -0.3531
6.549e+09  0.771  -0.5302  -0.02784  0.02664  -0.02434  -0.02633  0.5239  -0.5469
6.55e+09  0.5209  -0.8298  0.03253  0.03823  -0.03899  -0.01241  0.2833  -0.6685
