# Hz S RI R 50
6.25e+09  -0.6927  0.5508  -0.001429  0.01539  0.01988  -0.006124  0.1614  0.4886
6.251e+09  -0.4612  0.697  -0.02487  -0.03918  -0.06746  0.05688  0.3529  0.4162
6.252e+09  -0.2094  0.7519  -0.01013  -0.004452  0.009705  0.008733  0.5624  0.2265
6.254e+09  0.09686  0.8159  -0.007131  -0.01748  0.04779  0.1106  0.6304  0.01112
6.255e+09  0.4017  0.7393  -0.02723  0.008275  -0.03663  -0.03682  0.61  -0.2187
6.256e+09  0.5595  0.6086  0.02162  0.03187  0.04299  -0.02398  0.5114  -0.4349
6.258e+09  0.7401  0.3249  0.01729  -0.0003872  -0.02661  -0.03619  0.306  -0.6159
6.259e+09  0.781  0.007638  -0.01797  0.022  -0.07189  -0.003346  0.03296  -0.7022
6.26e+09  0.8247  -0.248  0.02812  -0.01584  0.0344  -0.03738  -0.2187  -0.6321
6.261e+09  0.6904  -0.4776  0.05799  -0.01176  0.03993  -0.001396  -0.4438  -0.5258
6.262e+09  0.4897  -0.6421  0.02745  -0.01302  0.06562  0.0598  -0.6263  -0.3526
6.264e+09  0.2129  -0.803  0.02249  -0.01978  0.01685  0.02921  -0.7254  -0.1065
6.265e+09  -0.1356  -0.8125  -0.003054  -0.01195  -0.02256  0.001692  -0.6568  0.1775
6.266e+09  -0.3567  -0.6817  0.01049  0.03405  0.001072  -0.009049  -0.6089  0.3997
6.268e+09  -0.6432  -0.542  -0.003106  -0.02335  -0.06018  -0.01142  -0.4383  0.5543
6.269e+09  -0.8168  -0.2722  -0.01143  0.00549  -0.008317  -0.02977  -0.2265  0.6888
6.27e+09  -0.8236  -0.06685  -0.02574  0.03106  -0.002744  0.04132  0.07142  0.7309
6.271e+09  -0.773  0.2672  0.03165  -0.01887  0.01427  0.04493  0.3375  0.6835
6.272e+09  -0.6724  0.4876  -0.005562  -0.003995  0.0002994  -0.000624  0.4847  0.5032
6.274e+09  -0.4232  0.672  0.001063  -0.006269  -0.04232  0.03463  0.6779  0.2971
6.275e+09  -0.2257  0.8283  0.0073  0.01346  0.02676  0.05876  0.7577  0.04357
6.276e+09  0.1269  0.8252  0.02617  -0.02567  -0.06339  0.05126  0.7431  -0.205
6.278e+09  0.3793  0.7208  0.005711  -0.007856  3.17e-05  0.01473  0.5822  -0.477
6.279e+09  0.6567  0.5479  -0.002264  0.02332  0.05161  -0.04214  0.4071  -0.6467
6.28e+09  0.749  0.3539  -0.0204  -0.01759  0.03739  0.03564  0.1741  -0.7218
6.281e+09  0.7901  0.02257  -0.004368  0.0191  -0.02003  -0.03988  -0.09585  -0.779
6.282e+09  0.815  -0.2484  -0.03321  -0.03792  -0.02249  -0.01085  -0.3719  -0.6727
6.284e+09  0.6282  -0.5416  0.002507  -0.02359  -0.02892  0.04504  -0.5655  -0.515
6.285e+09  0.3679  -0.755  -0.005675  0.01068  -0.01247  -0.02119  -0.7362  -0.266
6.286e+09  0.1852  -0.804  -0.005681  -0.02436  0.006593  0.008238  -0.7774  0.002058
6.288e+09  -0.1548  -0.8322  0.005263  0.006189  -0.01189  0.00401  -0.7564  0.2647
6.289e+09  -0.3656  -0.7619  0.008472  -0.01271  -0.01816  -0.00473  -0.6156  0.4639
6.29e+09  -0.5988  -0.5536  -0.009114  0.003796  0.01821  0.00256  -0.417  0.6955
6.291e+09  -0.7899  -0.2826  -0.00303  0.006301  -0.01207  -0.02672  -0.1375  0.8018
6.292e+09  -0.8077  0.02399  0.01984  0.02736  -0.04004  0.02436  0.1398  0.8211
6.294e+09  -0.7921  0.2714  0.001429  -0.01808  -0.0494  0.04042  0.3746  0.731
6.295e+09  -0.6731  0.5705  0.003266  0.02559  0.02717  0.01713  0.6164  0.5564
6.296e+09  -0.3161  0.7284  0.0086  0.04121  -0.01746  -0.01415  0.7764  0.2866
6.298e+09  -0.1449  0.8688  -0.00695  -0.007807  -0.006434  -0.04545  0.8383  -0.01247
6.299e+09  0.1283  0.793  -0.002558  -0.01039  -0.005225  -0.01543  0.7225  -0.2764
6.3e+09  0.4376  0.7244  -0.03461  0.003923  0.01336  -0.0363  0.6212  -0.5556
6.301e+09  0.6391  0.5376  0.02855  0.03025  0.0191  0.007415  0.4371  -0.7145
6.302e+09  0.7542  0.2778  -0.0141  0.005244  0.002403  -0.03494  0.1643  -0.8132
6.304e+09  0.7915  -0.01887  0.000149  0.0294  0.004856  -0.0258  -0.1361  -0.7908
6.305e+09  0.7116  -0.2885  -0.001956  -0.007989  0.003157  -0.02575  -0.4374  -0.7266
6.306e+09  0.6179  -0.5141  0.01797  0.01753  0.05164  -0.03477  -0.6294  -0.5663
6.308e+09  0.3894  -0.7112  -0.0002348  0.02467  0.02648  0.0293  -0.8028  -0.2836
6.309e+09  0.06872  -0.818  -0.009637  -0.001263  0.01725  0.02727  -0.852  -0.005864
6.31e+09  -0.1867  -0.7802  0.02316  -0.00463  -0.01832  -0.0208  -0.795  0.2766
6.311e+09  -0.3929  -0.6443  0.03477  0.00183  -0.05491  -0.03313  -0.6782  0.5504
6.312e+09  -0.6979  -0.503  -0.01405  -0.006643  0.01004  0.009042  -0.4257  0.7353
6.314e+09  -0.8025  -0.2335  -0.009733  0.01428  -0.01682  0.008575  -0.1416  0.8437
6.315e+09  -0.821  0.00117  -0.009968  0.005316  0.03706  0.03994  0.1538  0.8901
6.316e+09  -0.7424  0.3692  0.02236  0.01229  0.01733  -0.04876  0.4467  0.7823
6.318e+09  -0.6232  0.5615  0.007939  0.009195  0.02147  0.01082  0.6954  0.5746
6.319e+09  -0.3534  0.7146  0.006064  -0.01905  0.01266  -0.02922  0.8416  0.2897
6.32e+09  -0.1073  0.8349  0.01183  -0.01132  0.00936  -0.0117  0.8347  0.02243
6.321e+09  0.2163  0.8283  -0.003512  -0.03749  0.04614  0.02711  0.8343  -0.2655
6.322e+09  0.4756  0.685  -0.01785  0.006999  -0.03096  0.008575  0.6734  -0.5608
6.324e+09  0.6823  0.5242  0.01068  -0.007719  0.01588  -0.06513  0.4885  -0.7386
6.325e+09  0.8418  0.2497  -0.004173  0.002021  0.02971  0.02622  0.202  -0.8903
6.326e+09  0.8522  -0.1071  -0.01659  0.0347  -0.00267  -0.005287  -0.1492  -0.8827
6.328e+09  0.7304  -0.336  -0.03088  -0.008212  0.01359  -0.001432  -0.4368  -0.7545
6.329e+09  0.5972  -0.6123  -0.001691  -0.02642  0.02413  -0.03933  -0.6656  -0.6286
6.33e+09  0.2776  -0.7406  0.008957  0.004427  0.05228  0.04313  -0.823  -0.3562
6.331e+09  0.04377  -0.8158  0.0001519  0.0006288  0.001686  0.01766  -0.8891  -0.016
6.332e+09  -0.2952  -0.8243  0.005879  0.003135  -0.02103  0.02016  -0.8604  0.2594
6.334e+09  -0.5399  -0.6796  -0.001687  0.007278  0.01134  0.01218  -0.7279  0.5793
6.335e+09  -0.708  -0.4262  -0.01268  0.008118  -0.02993  -0.03231  -0.4784  0.7369
6.336e+09  -0.8549  -0.1793  -0.009975  -0.03004  0.0005197  0.007408  -0.182  0.8677
6.338e+09  -0.8599  0.09068  -0.02144  -0.01289  0.03097  0.04857  0.1291  0.9222
6.339e+09  -0.7362  0.4544  0.0295  0.04054  -0.005508  0.06295  0.3665  0.7834
6.34e+09  -0.5707  0.674  0.008553  -0.00089  0.008875  -0.01354  0.6761  0.6192
6.341e+09  -0.2836  0.7967  0.01241  -0.003632  -0.03932  -0.01559  0.88  0.3756
6.342e+09  0.04469  0.8646  -0.03846  0.01603  -0.02246  0.01682  0.9299  0.04903
6.344e+09  0.2636  0.8156  0.01978  0.009799  0.04795  -0.03052  0.8852  -0.2665
6.345e+09  0.5965  0.6524  0.01267  -0.01114  0.008096  -0.01426  0.7257  -0.5311
6.346e+09  0.8002  0.3709  -0.01569  -0.02149  0.03156  -0.009955  0.4789  -0.8179
6.348e+09  0.8814  0.1268  -0.01066  -0.007501  -0.01348  -0.01496  0.223  -0.9553
6.349e+09  0.8757  -0.2402  -0.01384  0.01837  0.03134  -0.03826  -0.09596  -0.9342
6.35e+09  0.708  -0.5086  -0.009664  -0.01001  0.02856  0.03369  -0.4151  -0.8457
6.351e+09  0.5686  -0.7059  -0.007239  -0.01205  -0.005534  0.02791  -0.7091  -0.6404
6.352e+09  0.2448  -0.8264  0.001387  -0.01328  0.07032  -0.01687  -0.8683  -0.3364
6.354e+09  -0.04986  -0.8862  -0.006395  0.006587  -0.04897  0.02082  -0.9008  -0.06697
6.355e+09  -0.3576  -0.7891  -0.008479  0.01251  0.01736  0.003411  -0.8589  0.2899
6.356e+09  -0.6353  -0.58  -0.02484  0.01251  -0.02841  0.04144  -0.7479  0.5263
6.358e+09  -0.7554  -0.3014  0.0146  -0.001596  0.02763  -0.008371  -0.5458  0.7579
6.359e+09  -0.8592  -0.05916  -0.04505  0.01412  -0.04131  0.02578  -0.2545  0.9002
6.36e+09  -0.862  0.2437  -0.01094  -0.02524  0.00496  -0.02789  0.1212  0.9325
6.361e+09  -0.6909  0.5579  -0.02943  -0.01003  0.01824  -0.005132  0.3984  0.8494
6.362e+09  -0.4394  0.7026  -0.02317  0.0159  -0.01541  -0.02101  0.6887  0.6705
6.364e+09  -0.1543  0.843  -0.005185  0.027  0.07573  -0.02397  0.8574  0.3841
6.365e+09  0.1598  0.8312  0.007198  -0.02894  -0.02032  -0.04693  0.948  0.08856
6.366e+09  0.456  0.7369  -0.03945  -0.005431  0.04565  0.01283  0.9168  -0.2612
6.368e+09  0.6634  0.5494  0.01088  -0.0253  0.04279  -0.02095  0.7787  -0.5604
6.369e+09  0.8323  0.2802  -0.02921  -0.002082  -0.008537  0.02397  0.5216  -0.7787
6.37e+09  0.8814  -0.03576  -0.01049  0.01585  -0.0003599  -0.01896  0.2446  -0.9292
6.371e+09  0.8417  -0.3352  -0.004137  -0.02079  0.01427  -0.03864  -0.06272  -0.9542
6.372e+09  0.667  -0.5991  0.01891  0.01216  -0.007865  0.02231  -0.3927  -0.8632
6.374e+09  0.447  -0.7705  0.0261  0.02746  -0.01741  -0.0278  -0.6671  -0.6944
6.375e+09  0.1471  -0.8425  0.00923  -0.01806  -0.03192  -0.04394  -0.8262  -0.4338
6.376e+09  -0.1821  -0.8954  0.04938  -0.03198  0.02007  -0.006357  -0.9327  -0.08292
6.378e+09  -0.4744  -0.7119  0.01644  0.05566  -0.01959  0.03527  -0.896  0.2413
6.379e+09  -0.7059  -0.526  -0.00366  -0.02774  0.01738  -0.02413  -0.7587  0.5273
6.38e+09  -0.8809  -0.2223  -0.03285  0.02011  -0.00539  0.002826  -0.5143  0.7813
6.381e+09  -0.852  0.07747  0.019  -0.01601  0.002373  -0.001472  -0.2412  0.8878
6.382e+09  -0.7992  0.344  0.01956  0.0274  0.0007651  0.01257  0.06726  0.9298
6.384e+09  -0.6341  0.5984  0.003621  -0.01011  -0.02884  -0.01338  0.3691  0.8869
6.385e+09  -0.4004  0.7895  -0.01082  0.007255  0.01043  0.01159  0.6005  0.6621
6.386e+09  -0.02596  0.8972  -0.004065  0.02675  -0.007584  0.009922  0.8498  0.4546
6.388e+09  0.2531  0.8565  -0.001732  -0.001073  0.01834  -0.04007  0.915  0.1207
6.389e+09  0.5829  0.6895  0.02751  -0.01188  0.01825  0.002718  0.9167  -0.1885
6.39e+09  0.7183  0.4398  -0.05631  -0.01442  -0.002719  -0.01141  0.806  -0.5105
6.391e+09  0.8682  0.2338  -0.03291  0.02515  0.004566  -0.06034  0.5695  -0.7059
6.392e+09  0.8985  -0.1023  0.02794  -0.007633  0.0168  0.01965  0.2682  -0.7992
6.394e+09  0.792  -0.4214  0.0181  -0.004111  0.0169  0.006451  -0.0171  -0.8778
6.395e+09  0.5602  -0.6393  0.01406  0.01334  0.0179  0.02961  -0.3597  -0.8411
6.396e+09  0.3138  -0.8428  -0.003751  0.01122  0.05398  -0.05851  -0.6188  -0.6849
6.398e+09  -0.01451  -0.8931  -0.002606  0.00935  -0.002935  -0.0137  -0.7854  -0.4493
6.399e+09  -0.3089  -0.8332  0.008517  -0.005339  0.05535  0.01344  -0.8986  -0.1135
6.4e+09  -0.5439  -0.6967  0.001191  0.005219  -0.03688  -0.0008605  -0.8824  0.1507
6.401e+09  -0.7965  -0.388  -0.03678  0.02112  0.01383  -0.01946  -0.822  0.4386
6.402e+09  -0.8378  -0.1618  0.04959  0.02549  -0.006623  -0.006955  -0.584  0.7051
6.404e+09  -0.8557  0.1602  0.03587  0.03279  0.001054  0.0001776  -0.2806  0.8736
6.405e+09  -0.741  0.4518  -0.009728  0.02303  -0.02237  -0.06447  -0.02885  0.8925
6.406e+09  -0.5335  0.6521  7.094e-05  0.0001675  0.006949  -0.01417  0.3122  0.8666
6.408e+09  -0.2655  0.8231  -0.01241  -0.03871  -0.04171  0.02873  0.6059  0.6848
6.409e+09  -0.01588  0.9131  -0.02965  0.02916  0.03635  -0.00883  0.7539  0.4699
6.41e+09  0.3328  0.8009  -0.007245  -0.006476  -0.02776  -0.02783  0.9337  0.1521
6.411e+09  0.5925  0.6653  -0.002398  0.01074  -0.02078  -0.0239  0.9154  -0.1884
6.412e+09  0.7676  0.4374  -0.02256  0.04492  0.04427  0.02472  0.7757  -0.4183
6.414e+09  0.8497  0.08784  0.01739  -0.05212  -0.04226  -0.02487  0.6136  -0.6885
6.415e+09  0.8648  -0.2081  -0.006785  -0.04228  0.04691  -0.02663  0.3289  -0.8031
6.416e+09  0.6741  -0.453  -0.0187  -0.01133  0.0124  0.02261  0.04155  -0.9234
6.418e+09  0.4871  -0.7284  -4.642e-05  -0.02661  -0.005417  0.04233  -0.3102  -0.8189
6.419e+09  0.2166  -0.8772  0.0238  0.0141  -0.005739  -0.0005566  -0.5591  -0.7135
6.42e+09  -0.07001  -0.859  -0.009807  -0.001198  -0.03968  -0.03697  -0.7538  -0.5091
6.421e+09  -0.3412  -0.7946  -0.01941  -0.02951  -0.07816  0.01671  -0.841  -0.1955
6.422e+09  -0.5779  -0.6413  0.008948  0.01502  0.02884  -0.05573  -0.8835  0.09562
6.424e+09  -0.7963  -0.3651  0.02026  0.009839  0.01092  0.01022  -0.7787  0.415
6.425e+09  -0.8337  -0.02788  0.01773  -0.01257  0.02169  0.02988  -0.5973  0.6045
6.426e+09  -0.8357  0.2061  -0.02005  -0.02311  0.06332  -0.05526  -0.3463  0.787
6.428e+09  -0.7192  0.4845  -0.009662  0.01779  0.0009491  0.02465  -0.057  0.931
6.429e+09  -0.5122  0.7363  0.02106  0.007257  0.03054  -0.001328  0.2381  0.8382
6.43e+09  -0.2428  0.8844  -0.02027  0.01499  -0.01063  0.0002853  0.5097  0.6916
6.431e+09  0.03414  0.8277  -0.03503  -0.02421  -0.04132  0.03494  0.7197  0.4954
6.432e+09  0.3307  0.8127  0.01873  0.02134  0.02839  0.02581  0.8672  0.1869
6.434e+09  0.6484  0.5495  0.01956  0.03466  -0.008728  0.04041  0.8614  -0.1062
6.435e+09  0.7669  0.3478  -0.07924  -0.03075  0.03174  0.008814  0.7631  -0.3485
6.436e+09  0.8628  0.07121  -6.006e-05  0.00243  -0.05088  -0.01274  0.564  -0.6153
6.438e+09  0.8392  -0.225  0.005189  0.006441  0.02564  -0.04855  0.3314  -0.8029
6.439e+09  0.6791  -0.4745  0.00385  -0.01207  -0.042  -0.01037  0.06763  -0.8737
6.44e+09  0.4453  -0.7418  0.0002027  -0.01399  0.05873  0.01683  -0.2349  -0.7962
6.441e+09  0.1684  -0.7934  -0.007006  -0.06718  0.02981  0.004421  -0.4461  -0.67
6.442e+09  -0.1312  -0.8467  -0.04351  0.005542  0.00418  -0.03827  -0.6985  -0.4818
6.444e+09  -0.417  -0.8055  -0.009798  -0.03402  0.007864  0.01594  -0.8215  -0.217
6.445e+09  -0.6637  -0.6248  -0.04689  -0.03015  0.04536  0.008989  -0.8815  0.05602
6.446e+09  -0.7895  -0.3552  -0.05494  0.005507  0.02354  0.02429  -0.7795  0.3366
6.448e+09  -0.8939  -0.04835  -0.01409  0.007503  -0.02876  0.01698  -0.6391  0.5524
6.449e+09  -0.8169  0.2311  0.03027  -0.04885  0.0412  -0.03102  -0.347  0.751
6.45e+09  -0.6668  0.561  -0.009012  0.008149  -0.0393  0.006713  -0.07238  0.8087
6.451e+09  -0.435  0.6763  0.02601  0.0166  0.00756  0.006515  0.1999  0.8025
6.452e+09  -0.1896  0.8488  -0.02946  0.007064  -0.003871  0.04532  0.493  0.6797
6.454e+09  0.08471  0.8537  0.03263  -0.04947  -0.004922  -0.00974  0.7284  0.4734
6.455e+09  0.3889  0.7565  0.006311  0.006639  -0.00373  0.00241  0.8741  0.2157
6.456e+09  0.6994  0.5862  -0.0008285  0.01796  0.008039  0.02545  0.7901  -0.08117
6.458e+09  0.828  0.3681  0.03256  -0.003378  -0.001941  0.01347  0.7274  -0.3504
6.459e+09  0.8873  0.04965  0.01143  0.01325  0.03162  0.02895  0.5883  -0.5895
6.46e+09  0.8239  -0.2366  0.01524  -0.03462  -0.00396  0.03859  0.3468  -0.7583
6.461e+09  0.6969  -0.52  -0.01582  0.01786  -0.02497  0.01543  0.09665  -0.8307
6.462e+09  0.4677  -0.7252  -0.05702  -0.01723  0.003168  -0.03777  -0.1734  -0.7892
6.464e+09  0.1765  -0.8242  -0.01767  0.02795  -0.02052  0.002955  -0.4399  -0.687
6.465e+09  -0.1029  -0.8669  -0.01935  0.01877  0.02697  0.01916  -0.7064  -0.4735
6.466e+09  -0.4486  -0.7781  0.01523  -0.03798  0.01233  -0.02299  -0.7732  -0.1873
6.468e+09  -0.663  -0.5733  0.004074  -0.002812  -0.01866  -0.01684  -0.7765  0.04296
6.469e+09  -0.787  -0.2808  -0.0237  0.005582  -0.005039  0.01134  -0.7019  0.3512
6.47e+09  -0.9457  -0.02311  0.003695  0.01735  0.08989  -0.03916  -0.5498  0.5672
6.471e+09  -0.786  0.2305  -0.02157  0.0123  0.01153  -0.02342  -0.2988  0.6846
6.472e+09  -0.6944  0.5576  0.03437  0.03694  -0.006123  0.01304  -0.08412  0.7441
6.474e+09  -0.4955  0.741  -0.03083  0.04764  -0.03985  0.006314  0.2228  0.761
6.475e+09  -0.1416  0.8235  -0.04079  -0.02248  -0.0006354  -0.04069  0.4835  0.6297
6.476e+09  0.1438  0.8896  0.000804  0.01625  0.03196  -0.02067  0.619  0.3835
6.478e+09  0.4303  0.765  0.02704  0.05121  0.0195  -0.04444  0.7653  0.2053
6.479e+09  0.7028  0.5734  -0.001983  0.008932  0.008232  0.007796  0.8041  -0.06471
6.48e+09  0.8458  0.3102  0.00512  -0.01858  0.02454  0.001297  0.7074  -0.3622
6.481e+09  0.885  0.01356  -0.05139  -0.05004  0.05478  -0.02988  0.5562  -0.5128
6.482e+09  0.8421  -0.2248  -0.01923  -0.04151  -0.001518  0.04539  0.339  -0.68
6.484e+09  0.676  -0.5371  0.002609  -0.003175  0.02947  0.03751  0.06622  -0.76
6.485e+09  0.4847  -0.7964  -0.003077  -0.01518  -0.043  0.01819  -0.2184  -0.7557
6.486e+09  0.1342  -0.9043  -0.01284  -0.03214  -0.004926  0.007167  -0.4347  -0.6108
6.488e+09  -0.181  -0.8552  0.007751  -0.0006456  0.05036  -0.01125  -0.6731  -0.4438
6.489e+09  -0.3694  -0.7671  0.007562  0.01703  0.002594  0.001289  -0.7401  -0.1707
6.49e+09  -0.6992  -0.5907  -0.0169  -0.01736  -0.01003  0.01527  -0.712  0.0746
6.491e+09  -0.8369  -0.3055  0.0292  -0.01747  -0.007927  0.02246  -0.7111  0.357
6.492e+09  -0.9067  0.04033  -0.02822  -0.01609  -0.01661  -0.04715  -0.5283  0.5314
6.494e+09  -0.8251  0.3622  -0.04143  -0.01137  0.04318  0.006486  -0.2664  0.7168
6.495e+09  -0.6245  0.624  -0.02416  0.01141  0.04042  -0.03565  -0.03467  0.7462
6.496e+09  -0.4888  0.7677  0.001203  0.017  -0.00271  -0.01011  0.2353  0.7119
6.498e+09  -0.1239  0.9154  -0.04447  -0.01355  0.000884  0.03726  0.448  0.6152
6.499e+09  0.1969  0.8878  0.000517  -0.02414  -0.01205  -0.004432  0.6378  0.4457
6.5e+09  0.4598  0.7559  0.0001406  -0.01518  0.0247  -0.02942  0.7556  0.1488
6.501e+09  0.6714  0.5715  -0.04844  0.0334  0.01592  0.01414  0.7958  -0.09711
6.502e+09  0.8851  0.2963  -0.02774  -0.03568  -0.017  0.02174  0.7034  -0.3939
6.504e+09  0.9503  0.0007695  -0.0008025  0.01216  -0.0009998  0.02952  0.5389  -0.5596
6.505e+09  0.8452  -0.3252  -0.008572  0.01566  0.04754  0.01753  0.2732  -0.7274
6.506e+09  0.6983  -0.6077  -0.01342  0.02043  -0.03608  -3.289e-06  0.06138  -0.7721
6.508e+09  0.4284  -0.856  0.002658  0.03227  0.002185  0.04387  -0.2688  -0.7341
6.509e+09  0.1715  -0.8822  -0.007063  -0.008597  0.02534  0.03397  -0.4883  -0.6152
6.51e+09  -0.1589  -0.9119  0.01309  -0.0191  0.05976  0.01277  -0.6184  -0.3785
6.511e+09  -0.4744  -0.7963  0.03282  0.008332  -0.01559  0.03707  -0.7407  -0.09685
6.512e+09  -0.704  -0.6079  0.003327  0.01074  0.04705  -0.003626  -0.722  0.07762
6.514e+09  -0.898  -0.2942  0.01074  -0.02796  -0.01334  -0.01446  -0.6421  0.387
6.515e+09  -0.8997  0.05763  0.003847  0.007811  0.01883  -0.01467  -0.4863  0.5446
6.516e+09  -0.8538  0.3561  -0.01628  -0.02461  -0.008676  -0.009507  -0.2016  0.731
6.518e+09  -0.6367  0.6063  0.006076  0.02294  0.002053  0.0331  0.02732  0.7449
6.519e+09  -0.4439  0.8211  0.006394  -0.01192  0.003169  -0.03562  0.2673  0.6735
6.52e+09  -0.07663  0.9243  -0.003201  0.01053  -0.03203  0.01345  0.4812  0.5691
6.521e+09  0.2266  0.9438  -0.001958  -0.01297  -0.008219  0.006046  0.6327  0.3487
6.522e+09  0.4978  0.8055  -0.007371  0.0005272  -0.0159  -0.01077  0.7215  0.09351
6.524e+09  0.7424  0.5646  0.04076  0.007079  -0.01591  0.04654  0.7086  -0.1578
6.525e+09  0.927  0.2504  0.009391  0.008627  -0.05224  0.02765  0.5841  -0.4099
6.526e+09  0.9296  -0.009232  0.005411  0.007712  0.04213  0.04272  0.4182  -0.5607
6.528e+09  0.8673  -0.4173  0.02174  0.003234  0.04302  0.03648  0.2386  -0.6959
6.529e+09  0.6756  -0.7008  0.02898  0.002297  0.01009  0.0165  -0.0809  -0.6876
6.53e+09  0.4172  -0.9165  0.03316  0.009171  0.04621  0.003468  -0.2841  -0.6293
6.531e+09  0.08936  -0.9518  -0.007146  -0.009276  -0.0773  0.01219  -0.4783  -0.4942
6.532e+09  -0.2429  -0.9092  0.04146  0.02278  -0.002612  0.0001321  -0.5805  -0.2734
6.534e+09  -0.589  -0.789  -0.0177  -0.02141  -0.007933  -0.004888  -0.6519  -0.05758
6.535e+09  -0.8215  -0.5515  0.03262  -0.01538  -9.539e-05  0.04185  -0.6563  0.1214
6.536e+09  -0.9335  -0.2217  0.002225  -0.02758  -0.04138  -0.03218  -0.5575  0.28
6.538e+09  -0.9626  0.09919  -0.01904  -0.01625  0.009577  -0.02375  -0.476  0.4796
6.539e+09  -0.839  0.4369  0.01493  -0.003629  0.00628  0.037  -0.2566  0.6691
6.54e+09  -0.6138  0.7654  -0.01888  -0.01799  -0.02202  0.02909  -0.05194  0.687
6.541e+09  -0.339  0.8532  0.01205  0.02273  0.02571  0.0003159  0.2004  0.66
6.542e+09  0.02056  0.9528  0.02775  -0.008111  -0.02423  -0.04522  0.3611  0.5781
6.544e+09  0.3945  0.8952  -0.03859  0.02961  0.006274  0.04317  0.5986  0.418
6.545e+09  0.6444  0.7402  0.05251  0.0298  0.005948  -0.003262  0.7114  0.1504
6.546e+09  0.8642  0.5207  -0.01358  -0.003086  -0.004063  0.01622  0.7141  -0.07026
6.548e+09  0.9209  0.1133  0.01871  -0.01271  0.01915  -0.0509  0.6301  -0.362
6.549e+09  0.9861  -0.2011  0.00111  0.02038  0.032  -0.02552  0.5334  -0.5315
6.55e+09  0.839  -0.5639  0.02438  -0.004787  0.01088  0.02506  0.2837  -0.6906
6.551e+09  0.5718  -0.8043  0.004017  0.01192  0.06572  0.04942  0.06915  -0.7429
