# Hz S RI R 50
6.25e+09  -0.2794  0.857  0.009387  0.007456  0.02454  0.04096  0.1479  0.4739
6.251e+09  0.0142  0.8433  0.01232  0.007963  -0.00579  0.03366  0.3453  0.429
6.252e+09  0.35  0.7987  0.005501  0.000363  0.007794  0.009358  0.4972  0.2795
6.254e+09  0.5617  0.6238  -0.002361  -0.01896  -0.007364  0.008644  0.597  0.02578
6.255e+09  0.7614  0.4226  0.01157  -0.01675  -0.003169  -0.02707  0.5702  -0.2412
6.256e+09  0.8844  0.08408  0.007599  0.002483  -0.03589  0.02996  0.4481  -0.4342
6.258e+09  0.8016  -0.1694  0.004853  0.01651  -0.009525  -0.02714  0.3109  -0.6165
6.259e+09  0.7308  -0.456  0.02237  0.01373  -0.03339  0.01747  0.04283  -0.6629
6.26e+09  0.5086  -0.6775  0.01695  -0.005796  -0.0568  -0.03492  -0.2296  -0.6383
6.261e+09  0.2507  -0.7644  0.0004281  0.02287  0.02183  -0.009994  -0.4603  -0.5224
6.262e+09  -0.06081  -0.8387  -0.008498  0.0304  0.007045  0.01327  -0.5784  -0.3527
6.264e+09  -0.3176  -0.7317  0.01375  -0.005324  -0.01031  -0.03055  -0.7222  -0.1188
6.265e+09  -0.6005  -0.6096  -0.01114  0.0007673  0.0437  -0.02155  -0.6814  0.1464
6.266e+09  -0.768  -0.3638  0.01127  0.0003149  -0.03075  0.02046  -0.6123  0.3858
6.268e+09  -0.8613  -0.06816  -0.02033  0.02387  0.01233  0.01412  -0.4363  0.58
6.269e+09  -0.7844  0.2063  -0.005492  0.01062  0.009415  0.01719  -0.1916  0.7129
6.27e+09  -0.6772  0.457  -0.007345  -0.008209  -0.01494  -0.02258  0.07272  0.7159
6.271e+09  -0.4857  0.7287  0.007726  -0.02335  -0.006061  0.0149  0.3176  0.6748
6.272e+09  -0.1783  0.7859  -0.01093  -0.01743  0.0043  0.001428  0.5329  0.5687
6.274e+09  0.09525  0.817  -0.02102  0.0009395  -0.0421  0.006966  0.6717  0.3153
6.275e+09  0.3669  0.7369  -0.002636  -0.01276  -0.04431  0.02794  0.7315  0.05635
6.276e+09  0.6141  0.6011  0.009404  0.01145  -0.0004252  0.002376  0.729  -0.2287
6.278e+09  0.6949  0.3063  -0.006801  -0.02538  -0.01483  -0.03237  0.6018  -0.4571
6.279e+09  0.8462  0.00244  0.003419  0.0124  0.04505  0.002587  0.4065  -0.6505
6.28e+09  0.7584  -0.2951  -0.02143  -0.02696  0.02052  -0.02588  0.1944  -0.7678
6.281e+09  0.6738  -0.5123  -0.001726  0.01334  0.03595  0.03162  -0.114  -0.7744
6.282e+09  0.4168  -0.7364  -0.02717  0.01179  -0.01663  -0.04145  -0.3724  -0.7129
6.284e+09  0.1471  -0.7969  0.007709  -0.009435  -0.01407  0.03189  -0.581  -0.5336
6.285e+09  -0.1315  -0.7898  -0.01891  -0.01358  0.01543  0.02816  -0.7434  -0.2953
6.286e+09  -0.3894  -0.7518  -0.004589  0.01233  0.06587  -0.04645  -0.8358  -0.04167
6.288e+09  -0.6807  -0.5706  0.01557  -0.02197  0.0227  0.01581  -0.7648  0.2202
6.289e+09  -0.7507  -0.3413  -0.01595  -0.0101  0.03227  -0.03267  -0.6382  0.4915
6.29e+09  -0.8013  -0.03049  0.01499  0.02171  -0.005464  -0.02809  -0.4145  0.6755
6.291e+09  -0.7148  0.2816  0.02132  -0.007422  -0.02386  0.0007525  -0.1771  0.7704
6.292e+09  -0.6502  0.5348  0.008102  -0.002812  -0.03768  0.009319  0.1335  0.8096
6.294e+09  -0.4348  0.6914  -0.003035  -0.02392  0.01081  0.008794  0.4185  0.7045
6.295e+09  -0.1314  0.8096  -0.0194  -0.01328  0.01374  -0.006102  0.6352  0.5056
6.296e+09  0.1731  0.8181  -0.007145  -0.02116  -0.01368  0.005205  0.7822  0.2671
6.298e+09  0.374  0.7529  0.005665  -0.005853  0.01255  -0.04899  0.8434  0.01702
6.299e+09  0.6185  0.5375  0.001641  0.001928  -0.01832  -0.01944  0.7547  -0.2708
6.3e+09  0.8087  0.2724  0.01568  0.0114  -0.007022  -0.02638  0.6548  -0.5503
6.301e+09  0.8158  0.05031  0.01406  0.0001811  0.003562  -0.02477  0.3977  -0.7097
6.302e+09  0.78  -0.2742  0.02468  0.0138  -0.03071  0.04347  0.1778  -0.8023
6.304e+09  0.6848  -0.528  -0.01367  0.02422  -0.03836  -0.06212  -0.1341  -0.8354
6.305e+09  0.4512  -0.7344  -0.003936  -0.01342  0.02449  -0.002375  -0.409  -0.7311
6.306e+09  0.09158  -0.8399  -0.009902  0.009101  -0.03622  0.04921  -0.6594  -0.5511
6.308e+09  -0.1586  -0.8132  -0.0126  -0.01559  0.004844  0.01518  -0.7902  -0.3104
6.309e+09  -0.422  -0.7081  0.01219  -0.01939  -0.00493  0.02016  -0.8559  -0.02533
6.31e+09  -0.7123  -0.5173  -0.01899  -0.03398  -0.01955  0.001317  -0.8102  0.319
6.311e+09  -0.8099  -0.2216  0.01356  -0.003583  0.02518  -0.02583  -0.6687  0.5726
6.312e+09  -0.8031  0.08011  0.01736  -0.01172  -0.03024  -0.05378  -0.425  0.76
6.314e+09  -0.7903  0.3943  -0.005196  -0.01304  0.02697  0.01035  -0.1699  0.8697
6.315e+09  -0.5563  0.5731  -0.0214  -0.006434  0.03375  0.02173  0.1574  0.8664
6.316e+09  -0.3213  0.7347  0.0003442  0.01175  -0.02655  -0.008033  0.4536  0.7706
6.318e+09  -0.0823  0.8527  -0.0392  -0.0235  -0.02307  -0.03609  0.6303  0.57
6.319e+09  0.244  0.7969  -0.002092  -0.01747  -0.01643  0.003181  0.8263  0.3085
6.32e+09  0.5124  0.7032  -0.000418  -0.01833  -0.005783  -0.01305  0.8778  0.02794
6.321e+09  0.6743  0.4604  -0.01471  0.004173  -0.01139  0.0435  0.8244  -0.3243
6.322e+09  0.7671  0.2827  0.01278  0.0113  0.02983  0.01624  0.6924  -0.5486
6.324e+09  0.8436  -0.09838  -0.034  0.01011  0.001734  0.01228  0.4635  -0.7491
6.325e+09  0.7816  -0.3795  0.0008941  0.0032  0.01347  -0.09002  0.1574  -0.8661
6.326e+09  0.5965  -0.6122  -0.005026  -0.01516  0.02772  -0.0004518  -0.1168  -0.9161
6.328e+09  0.3558  -0.8488  -0.002918  0.01165  -0.02493  0.03463  -0.4196  -0.7749
6.329e+09  0.02355  -0.8718  -0.01912  0.0006484  -0.03326  0.01884  -0.697  -0.5864
6.33e+09  -0.2894  -0.8297  -0.01639  -0.03418  0.01838  -0.05091  -0.8409  -0.3247
6.331e+09  -0.536  -0.7006  0.007143  0.03079  -0.04605  0.003894  -0.88  -0.03472
6.332e+09  -0.7266  -0.4138  -0.01623  0.007705  -0.004712  0.01588  -0.8655  0.311
6.334e+09  -0.859  -0.1334  -0.01287  -0.02341  -0.03933  0.00287  -0.7272  0.531
6.335e+09  -0.8768  0.1924  0.03214  -0.003408  0.007988  0.03443  -0.5  0.7952
6.336e+09  -0.7631  0.4366  0.01453  0.0143  -0.01553  0.04743  -0.1727  0.8871
6.338e+09  -0.5749  0.699  -0.002739  -0.0238  0.01164  0.0004045  0.1124  0.9058
6.339e+09  -0.2837  0.82  -0.01792  -0.01264  -0.00377  0.00701  0.4024  0.8215
6.34e+09  0.05444  0.9164  0.04149  0.03763  0.009335  0.04552  0.6518  0.6188
6.341e+09  0.3764  0.818  0.03301  0.01438  0.002995  0.01697  0.8919  0.3312
6.342e+09  0.6039  0.6467  0.0262  -0.02141  0.005289  -0.01828  0.9309  0.04794
6.344e+09  0.803  0.3952  -0.006159  -0.005164  -0.04015  -0.02858  0.8762  -0.2827
6.345e+09  0.8908  0.1233  0.02263  -0.005327  0.03769  -0.02155  0.7198  -0.5671
6.346e+09  0.8748  -0.2536  -0.01348  0.0005218  0.01627  0.06575  0.501  -0.8028
6.348e+09  0.7309  -0.47  0.01038  -0.0139  0.00334  -0.01984  0.2002  -0.9126
6.349e+09  0.5262  -0.7481  0.00225  0.04212  -0.03644  -0.01494  -0.1049  -0.938
6.35e+09  0.2356  -0.8666  0.01451  0.005719  0.005506  -0.006546  -0.4246  -0.8529
6.351e+09  -0.0731  -0.8791  -0.02084  -0.03864  -0.00479  -0.0149  -0.6782  -0.649
6.352e+09  -0.3677  -0.8257  -0.01477  -0.002058  0.01587  -0.03144  -0.887  -0.3816
6.354e+09  -0.6554  -0.6168  -0.0175  -0.01469  -0.01266  0.01567  -0.9032  -0.06127
6.355e+09  -0.7951  -0.38  -0.02364  0.004679  -0.01768  -0.01205  -0.919  0.2711
6.356e+09  -0.8588  -0.00793  -0.001613  0.01494  0.003182  -0.02583  -0.7576  0.5311
6.358e+09  -0.8885  0.2375  -0.01744  -0.002796  0.02435  0.02024  -0.516  0.7206
6.359e+09  -0.7148  0.5758  -0.0003849  -0.004251  -0.008108  0.004946  -0.2041  0.9031
6.36e+09  -0.5001  0.7126  -0.002531  0.00529  -0.0002709  -0.01847  0.08872  0.9022
6.361e+09  -0.204  0.8895  0.01576  -0.006658  0.002342  0.01775  0.4071  0.8646
6.362e+09  0.1011  0.9071  -0.005975  -0.008007  0.0134  0.01853  0.6876  0.669
6.364e+09  0.4391  0.7748  0.01911  0.03183  0.04122  -0.02619  0.8433  0.383
6.365e+09  0.6736  0.632  0.01025  0.02564  0.01783  -0.0164  0.9657  0.0729
6.366e+09  0.7926  0.3087  -0.02557  0.009241  0.01391  -0.003402  0.9151  -0.2482
6.368e+09  0.9331  -0.008151  -0.005258  -0.03105  0.05357  0.03399  0.7673  -0.5488
6.369e+09  0.8155  -0.3185  -0.005366  -0.03497  -0.03028  0.01134  0.5184  -0.7671
6.37e+09  0.6443  -0.6123  -0.0005872  0.003708  0.03404  -0.03153  0.2279  -0.9219
6.371e+09  0.4405  -0.7956  -0.008016  0.01696  0.01197  0.03059  -0.05084  -0.9252
6.372e+09  0.1337  -0.905  0.01814  0.01422  -0.01828  -0.01626  -0.4019  -0.9024
6.374e+09  -0.193  -0.8454  -0.02813  0.02037  -0.03656  -0.004312  -0.6514  -0.6754
6.375e+09  -0.4337  -0.7458  -3.888e-05  0.008884  0.01831  -0.02593  -0.8484  -0.4094
6.376e+09  -0.6915  -0.5644  -0.011  -0.04174  -0.04436  0.03528  -0.9045  -0.09159
6.378e+09  -0.8696  -0.2712  -0.009329  -0.001453  -0.01537  0.002652  -0.8927  0.1847
6.379e+09  -0.8878  0.03194  -0.0009411  0.02408  0.00509  -0.02422  -0.7946  0.552
6.38e+09  -0.8247  0.3244  0.006516  0.003395  0.005293  0.01988  -0.5247  0.7731
6.381e+09  -0.6711  0.6067  0.01067  0.007511  0.002442  0.01002  -0.2691  0.9104
6.382e+09  -0.3603  0.7797  -0.009589  0.02942  0.01324  -0.001985  0.04007  0.9629
6.384e+09  -0.08319  0.8808  -0.01979  0.05906  -0.004349  -0.003162  0.3974  0.829
6.385e+09  0.2563  0.8478  -0.0006841  -0.01081  0.01568  -0.002268  0.6479  0.6958
6.386e+09  0.4946  0.7587  -0.001009  -0.006766  -0.0302  -0.06755  0.8135  0.4171
6.388e+09  0.7223  0.5265  -0.05514  0.03155  -0.02477  0.006782  0.9144  0.1172
6.389e+09  0.87  0.2797  0.03333  0.01512  -0.03319  0.03838  0.896  -0.2297
6.39e+09  0.8584  -0.04058  0.02076  -0.03791  -0.009257  -0.0008361  0.8101  -0.5101
6.391e+09  0.7745  -0.3947  0.01801  -0.01072  0.009643  -0.005791  0.5776  -0.7393
6.392e+09  0.6279  -0.6318  -0.02997  0.01944  -0.004497  -0.01882  0.2667  -0.8569
6.394e+09  0.3947  -0.8086  0.02602  -0.01256  0.02202  -0.03658  -0.01233  -0.92
6.395e+09  0.08247  -0.9076  0.01786  0.0127  -0.02599  -0.004372  -0.3401  -0.8457
6.396e+09  -0.2725  -0.8225  0.007322  0.06178  -0.008182  0.02803  -0.6024  -0.7099
6.398e+09  -0.5296  -0.7394  0.02537  -0.009094  0.009907  0.004203  -0.79  -0.4835
6.399e+09  -0.6914  -0.48  -0.02489  -0.01577  -0.02229  0.008615  -0.9087  -0.1434
6.4e+09  -0.8735  -0.2273  -0.06008  0.006222  0.001913  -0.01533  -0.9338  0.1572
6.401e+09  -0.8774  0.0596  -0.01239  -0.001711  0.05702  -0.01373  -0.8073  0.4654
6.402e+09  -0.7897  0.3698  0.03107  -0.0002414  -0.05818  -0.02349  -0.5806  0.7338
6.404e+09  -0.6001  0.624  -0.006197  0.05398  0.01084  -0.004136  -0.304  0.8987
6.405e+09  -0.3148  0.7874  -0.01343  0.04401  0.02014  0.004768  0.028  0.8963
6.406e+09  -0.02784  0.8742  0.01594  -0.035  -0.01665  -0.04062  0.3685  0.8806
6.408e+09  0.2489  0.8207  -0.003201  0.05683  0.02016  0.01536  0.5695  0.7319
6.409e+09  0.5203  0.726  -0.01037  0.02435  -0.005724  -0.01458  0.763  0.5089
6.41e+09  0.7076  0.4517  -0.006118  0.02528  0.0121  0.003916  0.8711  0.1688
6.411e+09  0.8298  0.1768  0.0001301  -0.002066  0.01009  0.01258  0.8851  -0.1512
6.412e+09  0.8799  -0.0642  -0.009288  0.008244  0.03311  -0.05039  0.8375  -0.4327
6.414e+09  0.7817  -0.375  0.012  -0.02575  0.0703  0.03321  0.5374  -0.667
6.415e+09  0.5572  -0.6418  0.02638  -0.03536  0.03861  0.001425  0.33  -0.8579
6.416e+09  0.3082  -0.7974  -0.0111  -0.01614  0.02759  0.05625  -0.002991  -0.9318
6.418e+09  0.03303  -0.8534  -0.005286  0.01979  0.04819  0.02684  -0.2734  -0.8066
6.419e+09  -0.2488  -0.8592  0.02745  -0.001315  0.0003947  -0.002377  -0.54  -0.681
6.42e+09  -0.4894  -0.7159  -0.0001954  -6.1e-05  0.004702  0.0242  -0.7673  -0.4701
6.421e+09  -0.7998  -0.4643  -0.02049  -0.01546  0.02893  0.008579  -0.8272  -0.1928
6.422e+09  -0.8841  -0.1688  -0.04387  0.01764  -0.0202  0.05614  -0.8813  0.07232
6.424e+09  -0.9241  0.1277  0.03021  0.01911  0.03103  0.03114  -0.8221  0.4189
6.425e+09  -0.7565  0.4121  0.04133  0.01019  0.002213  0.00617  -0.5866  0.6298
6.426e+09  -0.5302  0.6613  0.01128  0.02864  -0.02397  0.02861  -0.3754  0.8161
6.428e+09  -0.3021  0.8528  0.0106  -0.05658  -0.01767  0.04628  -0.03992  0.8659
6.429e+09  -0.07228  0.9005  -0.03512  -0.02563  0.02224  0.003818  0.2836  0.8415
6.43e+09  0.2123  0.854  0.01456  -0.002136  -0.02589  0.0293  0.5334  0.7181
6.431e+09  0.5705  0.7205  -0.02293  0.05387  0.003544  0.05041  0.7144  0.5006
6.432e+09  0.7759  0.4516  0.02075  0.01142  -0.02379  0.06358  0.8422  0.2401
6.434e+09  0.8678  0.2037  -0.01344  -0.02791  -0.02093  -0.02307  0.8622  -0.08598
6.435e+09  0.9012  -0.1639  0.006039  0.02095  0.004218  -0.02853  0.7802  -0.4152
6.436e+09  0.7133  -0.4652  -0.005528  -0.001845  0.006104  -0.04927  0.566  -0.6149
6.438e+09  0.5973  -0.6578  -0.004052  0.01453  -0.009737  0.02597  0.3841  -0.775
6.439e+09  0.3382  -0.8483  -0.02448  0.001456  -0.01913  0.01538  0.0547  -0.8648
6.44e+09  0.02148  -0.9191  0.02459  -0.006286  0.0441  0.01803  -0.1807  -0.8166
6.441e+09  -0.2857  -0.8646  -0.02749  0.01147  -0.04803  -0.008979  -0.4573  -0.6904
6.442e+09  -0.6221  -0.7078  -0.0325  0.04303  0.008369  0.01131  -0.7599  -0.5114
6.444e+09  -0.7724  -0.4466  -0.01794  -0.04336  -0.01865  0.001891  -0.8027  -0.1925
6.445e+09  -0.8828  -0.1893  -0.03045  0.03066  0.01819  -0.02468  -0.8401  0.1126
6.446e+09  -0.8972  0.1482  0.03645  0.003119  -0.02856  -0.008564  -0.7765  0.3229
6.448e+09  -0.7985  0.4151  0.01249  0.01311  -0.009277  0.01114  -0.6063  0.5895
6.449e+09  -0.5766  0.6588  0.03789  0.001815  -0.04452  0.05105  -0.3711  0.7763
6.45e+09  -0.3021  0.8284  -0.01509  -0.009712  -0.01901  -0.0491  -0.06779  0.797
6.451e+09  -0.05045  0.8608  -0.0254  -0.01754  0.005158  -0.02331  0.2086  0.8082
6.452e+09  0.3472  0.8728  -0.00502  -0.006386  -0.01469  0.04256  0.4762  0.6665
6.454e+09  0.6042  0.624  -0.04506  -0.03306  -0.002565  0.006712  0.691  0.4947
6.455e+09  0.8062  0.4679  0.04725  0.01331  -0.008408  0.005639  0.7967  0.2285
6.456e+09  0.8647  0.1519  -0.01961  0.006612  0.03392  0.01657  0.8264  -0.06238
6.458e+09  0.9058  -0.1819  -0.01155  -0.01039  0.02836  -0.001116  0.766  -0.3516
6.459e+09  0.8046  -0.5129  0.004694  -0.04198  -0.02502  -0.009634  0.5773  -0.605
6.46e+09  0.5149  -0.71  0.02692  -0.01831  0.02125  -0.0116  0.333  -0.7493
6.461e+09  0.2703  -0.8618  0.01644  -0.05987  -0.004588  -0.01644  0.04371  -0.8069
6.462e+09  -0.06839  -0.9292  0.007759  -0.002073  -0.001419  -0.01813  -0.1876  -0.7872
6.464e+09  -0.2828  -0.7966  -0.001923  0.002085  -0.01038  0.02722  -0.4504  -0.6646
6.465e+09  -0.6632  -0.6312  0.003372  0.03174  -0.03459  -0.01678  -0.6681  -0.5239
6.466e+09  -0.8531  -0.3685  -0.02682  -0.008719  0.05163  -0.03583  -0.7642  -0.2167
6.468e+09  -0.9353  -0.1635  0.01194  0.01278  -0.01568  0.02108  -0.8247  0.06893
6.469e+09  -0.9118  0.188  -0.01559  0.04492  0.008172  -0.01896  -0.6927  0.3535
6.47e+09  -0.7435  0.5167  0.002939  0.03325  0.08156  0.005656  -0.5374  0.5759
6.471e+09  -0.5902  0.6978  0.005573  -0.03204  -0.02823  0.007993  -0.296  0.7663
6.472e+09  -0.2611  0.9088  -0.006127  -0.01436  -0.0002744  0.03902  -0.0248  0.7715
6.474e+09  0.05076  0.8701  0.0012  0.02448  -0.02838  -0.02092  0.1587  0.789
6.475e+09  0.357  0.8643  0.007671  0.00859  -0.004476  -0.04803  0.4505  0.6513
6.476e+09  0.6826  0.656  0.003831  0.06426  -0.002395  -0.06522  0.6957  0.4533
6.478e+09  0.7982  0.4204  0.01725  0.008302  0.05795  0.03272  0.7601  0.2321
6.479e+09  0.9189  0.1338  -0.01259  0.04065  0.005554  -0.02968  0.7774  -0.0843
6.48e+09  0.8723  -0.1892  -0.007286  0.003984  0.01128  0.01283  0.7131  -0.314
6.481e+09  0.7546  -0.572  0.01302  0.008604  -0.03074  0.01946  0.5274  -0.5179
6.482e+09  0.5149  -0.7583  -0.03909  0.01747  0.00915  -0.03571  0.3397  -0.7223
6.484e+09  0.2479  -0.8965  0.01138  -0.02007  -0.009768  -0.01407  0.07662  -0.8071
6.485e+09  -0.07596  -0.8814  0.0167  -0.01033  -0.0085  0.04074  -0.1715  -0.7089
6.486e+09  -0.3961  -0.8156  -0.03911  -0.02856  0.02945  0.001407  -0.4687  -0.6109
6.488e+09  -0.6778  -0.6575  0.02366  0.03251  0.01161  0.02807  -0.6301  -0.3961
6.489e+09  -0.8585  -0.3712  -0.008479  0.004194  -0.0306  -0.01186  -0.7281  -0.1981
6.49e+09  -0.9417  -0.08173  0.01795  0.02445  -0.05824  0.006851  -0.7891  0.07313
6.491e+09  -0.8838  0.2507  0.01007  0.02281  0.01526  0.001154  -0.702  0.3457
6.492e+09  -0.7303  0.5505  -0.03157  0.00701  -0.04714  -0.01511  -0.5468  0.5531
6.494e+09  -0.5049  0.773  -0.03103  -0.01854  0.008912  -0.02986  -0.2584  0.6936
6.495e+09  -0.1758  0.9332  0.002381  0.01105  -0.03315  -0.01309  -0.03354  0.7455
6.496e+09  0.1009  0.9313  -0.006866  -0.003096  0.03629  0.01549  0.2288  0.7151
6.498e+09  0.421  0.8506  0.02757  -0.01952  -0.05978  -0.00475  0.4469  0.609
6.499e+09  0.7048  0.611  -0.03595  0.002944  0.005538  -0.01353  0.6587  0.4514
6.5e+09  0.859  0.316  0.01435  0.08614  -0.01944  -0.01015  0.7385  0.193
6.501e+09  0.9392  -0.02576  -0.01521  0.001642  0.002822  0.004149  0.7534  -0.08979
6.502e+09  0.9168  -0.2742  -0.005045  0.03936  0.02502  0.003371  0.7018  -0.3456
6.504e+09  0.7057  -0.5657  0.02117  0.005093  0.01607  0.0741  0.5607  -0.6226
6.505e+09  0.4968  -0.86  0.001689  0.02961  -0.01642  -0.01416  0.2807  -0.715
6.506e+09  0.1779  -0.9029  -0.01282  0.009461  -0.008936  0.02394  0.01704  -0.7353
6.508e+09  -0.1402  -0.9479  -0.01791  0.005927  -0.02534  0.01242  -0.267  -0.7341
6.509e+09  -0.5003  -0.7948  0.01912  -0.01018  0.008115  0.006161  -0.4679  -0.5604
6.51e+09  -0.6837  -0.5822  -0.01244  -0.01579  -0.007088  0.01797  -0.6625  -0.3733
6.511e+09  -0.9089  -0.2999  -0.01613  -0.04656  -0.02443  0.007099  -0.7467  -0.1617
6.512e+09  -0.969  0.02286  0.05731  0.004213  -0.008951  -0.01921  -0.7328  0.1533
6.514e+09  -0.9013  0.3478  -0.02045  0.00776  -0.04686  -0.04081  -0.6602  0.3374
6.515e+09  -0.6997  0.6993  0.01493  0.008529  -0.01871  -0.05627  -0.4643  0.557
6.516e+09  -0.4421  0.8638  -0.00421  -0.01256  -0.001527  -0.00198  -0.2519  0.7391
6.518e+09  -0.07861  0.9891  0.02205  0.00695  0.01294  0.008559  0.005088  0.7823
6.519e+09  0.236  0.9066  0.04778  0.01933  0.01205  0.01029  0.278  0.7034
6.52e+09  0.5152  0.7668  -0.034  0.0124  0.004759  -0.02276  0.5096  0.5313
6.521e+09  0.82  0.5385  0.002969  -0.01069  0.00233  -0.02632  0.6264  0.3605
6.522e+09  0.9954  0.2278  0.01011  0.04404  -0.02434  -0.0149  0.7031  0.09929
6.524e+09  0.9629  -0.1027  0.01142  -0.004225  -0.002878  -0.03884  0.7176  -0.1597
6.525e+09  0.8654  -0.4319  -0.02095  -0.008995  0.02514  0.002241  0.5759  -0.3672
6.526e+09  0.6578  -0.6342  0.02776  -0.04227  -0.03019  0.003504  0.4055  -0.5844
6.528e+09  0.3304  -0.9272  0.007866  -0.01682  0.0446  0.009994  0.1935  -0.7002
6.529e+09  0.02393  -1  0.01904  0.01335  0.008608  -0.009234  -0.05136  -0.7079
6.53e+09  -0.295  -0.956  -0.03247  -0.04536  0.01586  0.03517  -0.2851  -0.6092
6.531e+09  -0.6192  -0.7812  0.009467  -0.004461  -0.004297  0.01775  -0.4598  -0.4558
6.532e+09  -0.8739  -0.4987  0.002464  -0.02425  -0.005823  -0.04665  -0.555  -0.3122
6.534e+09  -0.9533  -0.1525  0.01489  0.007092  0.01604  0.04143  -0.6307  -0.1297
6.535e+09  -0.9318  0.1951  -0.0008475  -0.01763  -0.06919  0.05145  -0.6401  0.1285
6.536e+09  -0.8369  0.5447  -0.001818  0.01474  0.02747  0.01306  -0.5507  0.324
6.538e+09  -0.6023  0.7547  0.0002279  0.01412  0.07993  -0.02118  -0.4348  0.4844
6.539e+09  -0.2644  0.9683  0.02399  0.01648  0.003593  -0.01287  -0.2843  0.6213
6.54e+09  0.03544  0.9582  -0.01063  -0.001361  0.05438  0.0497  -0.06215  0.6974
6.541e+09  0.3525  0.8599  -0.006218  -0.02209  -0.009729  -0.02183  0.2003  0.6407
6.542e+09  0.6178  0.7051  0.01532  -0.008155  -0.02265  0.04705  0.3879  0.5888
6.544e+09  0.8433  0.4565  0.001576  -0.001667  0.02632  0.03175  0.594  0.3849
6.545e+09  0.9646  0.1057  0.01538  0.01901  -0.003269  -0.004751  0.6603  0.2033
6.546e+09  0.9386  -0.2636  -0.002423  -0.005016  0.0183  0.006248  0.732  -0.1047
6.548e+09  0.7482  -0.5112  0.01319  0.01052  0.03717  0.009387  0.6492  -0.3465
6.549e+09  0.5469  -0.7545  0.01487  0.0003217  -0.02131  0.03726  0.5212  -0.559
6.55e+09  0.2025  -0.9373  0.01026  0.006635  0.03316  0.01978  0.2818  -0.6755
