# Hz S RI R 50
6.25e+09  -0.4001  0.7918  -0.01196  0.01014  -0.01712  0.009364  0.1768  0.5001
6.251e+09  -0.126  0.8462  0.02922  0.02892  0.008855  -0.02883  0.3616  0.4074
6.252e+09  0.1853  0.8239  -0.02281  0.001423  0.003373  0.02589  0.5234  0.2471
6.254e+09  0.4712  0.7662  -0.00234  0.001989  0.02603  -0.006607  0.583  -0.02985
6.255e+09  0.6836  0.5148  0.01058  0.03186  0.02838  0.0282  0.5506  -0.1973
6.256e+09  0.812  0.261  0.01909  0.004367  -0.02331  0.0118  0.4774  -0.4199
6.258e+09  0.8562  -0.04281  -0.02064  -0.006438  -0.001736  -0.05125  0.2641  -0.5942
6.259e+09  0.8254  -0.3365  0.01202  -0.002005  -0.008655  -0.04695  0.05371  -0.6696
6.26e+09  0.6209  -0.6265  -0.02223  -0.01492  0.003883  -0.01145  -0.1977  -0.6719
6.261e+09  0.4332  -0.7646  -0.005218  0.003566  0.02983  0.0492  -0.4353  -0.5409
6.262e+09  0.06989  -0.8281  0.02003  -0.02358  -0.00365  0.0206  -0.6056  -0.3458
6.264e+09  -0.1354  -0.7937  0.01462  -0.02145  0.02311  -0.03104  -0.6709  -0.09497
6.265e+09  -0.5077  -0.7301  0.006567  -0.0187  -0.003951  -0.03386  -0.7271  0.1666
6.266e+09  -0.6922  -0.4772  -0.01945  0.02089  -0.01259  0.04694  -0.5969  0.4097
6.268e+09  -0.8015  -0.2464  -0.012  -0.0003206  0.02132  -0.006912  -0.4436  0.5886
6.269e+09  -0.876  0.06446  -0.003624  0.01609  -0.03107  0.04263  -0.1979  0.6946
6.27e+09  -0.7332  0.3265  0.02316  -0.004308  0.01763  -0.02852  0.02303  0.7295
6.271e+09  -0.555  0.5563  0.006864  0.009029  -0.01834  0.02602  0.3255  0.6577
6.272e+09  -0.3592  0.7465  -0.01836  -0.01317  -0.01342  -0.03454  0.5264  0.5208
6.274e+09  -0.05738  0.7631  0.00264  -0.01802  0.03912  0.03842  0.6619  0.2895
6.275e+09  0.2026  0.8566  -0.0495  0.01648  0.01156  0.00538  0.7602  0.04581
6.276e+09  0.4618  0.6887  -0.03269  -0.01932  -0.0274  0.07323  0.7207  -0.2357
6.278e+09  0.6901  0.4471  -0.03721  0.01875  -0.02165  0.04255  0.6091  -0.4727
6.279e+09  0.8302  0.2056  -0.01979  -0.009262  0.02992  0.02509  0.4165  -0.6735
6.28e+09  0.8086  -0.05601  0.009451  0.01779  -0.00153  -0.02718  0.2035  -0.773
6.281e+09  0.7195  -0.4302  0.01219  -0.01382  -0.007093  -0.04046  -0.1371  -0.775
6.282e+09  0.568  -0.5765  0.02039  -0.03663  0.02556  0.02793  -0.3641  -0.7163
6.284e+09  0.3305  -0.7429  0.01596  0.03283  0.04266  -0.02173  -0.5701  -0.5003
6.285e+09  0.08695  -0.7964  0.01658  0.001004  0.03706  -0.002477  -0.7184  -0.2796
6.286e+09  -0.2035  -0.7946  0.02885  0.01696  -0.006609  0.01171  -0.814  -0.0193
6.288e+09  -0.539  -0.6478  0.001299  0.01785  0.01333  -0.03051  -0.7505  0.2624
6.289e+09  -0.6819  -0.4853  0.02957  -0.008291  -0.007433  0.03326  -0.6216  0.5211
6.29e+09  -0.8119  -0.1618  -0.007954  -0.04254  0.0296  -0.0288  -0.3925  0.6712
6.291e+09  -0.792  0.1309  -0.01754  -0.02435  0.008346  -0.03962  -0.1459  0.7909
6.292e+09  -0.697  0.4032  -0.008037  0.01235  0.04608  0.006065  0.1165  0.8107
6.294e+09  -0.5172  0.6498  0.01293  0.01213  0.03192  0.04918  0.4029  0.6886
6.295e+09  -0.2954  0.7801  0.01672  -0.01414  0.02364  0.01892  0.6381  0.5568
6.296e+09  -0.0001597  0.841  0.01149  -0.04757  -0.003595  -0.04643  0.7476  0.3007
6.298e+09  0.2173  0.8155  -0.04843  -0.004862  0.01664  0.02617  0.8308  -0.006086
6.299e+09  0.495  0.7077  0.004594  -0.01718  0.08044  0.002565  0.7628  -0.2565
6.3e+09  0.6727  0.4662  -0.02455  -0.01002  0.001912  -0.003227  0.6305  -0.5275
6.301e+09  0.8161  0.2  0.03165  0.009225  -0.03863  -0.0294  0.4251  -0.7006
6.302e+09  0.8568  -0.1494  0.01521  0.001812  0.06058  0.02755  0.1621  -0.8128
6.304e+09  0.7176  -0.3556  -0.01201  -0.00551  0.0264  -0.004488  -0.1323  -0.8472
6.305e+09  0.5777  -0.5743  0.0082  -0.003532  -0.002422  0.04235  -0.3995  -0.7292
6.306e+09  0.259  -0.7908  -0.005364  -0.008467  -0.01642  -0.007121  -0.6315  -0.5541
6.308e+09  0.0704  -0.8337  -0.001292  0.01524  0.001207  0.02684  -0.7921  -0.3184
6.309e+09  -0.2583  -0.7595  0.002859  -0.01263  -0.01894  0.003402  -0.8675  -0.01505
6.31e+09  -0.496  -0.5582  0.002311  -0.002445  0.0034  0.002828  -0.8321  0.2765
6.311e+09  -0.7634  -0.4317  0.0203  -0.006057  -0.03513  -0.02741  -0.6465  0.554
6.312e+09  -0.8816  -0.1731  -0.003715  0.006043  -0.03579  -0.00715  -0.4789  0.7196
6.314e+09  -0.7988  0.1781  -0.004845  -0.003795  0.01659  -0.03578  -0.1646  0.8662
6.315e+09  -0.7259  0.4037  -0.003385  0.04811  -0.05043  0.00186  0.1469  0.8546
6.316e+09  -0.5137  0.6589  0.02011  -0.0001251  -0.0372  -0.001538  0.3983  0.7769
6.318e+09  -0.3021  0.7607  -0.006316  0.0178  0.01238  0.04909  0.649  0.559
6.319e+09  0.08538  0.857  0.01577  0.007332  0.03278  -0.05987  0.8119  0.3099
6.32e+09  0.3074  0.7624  0.01426  -0.02389  -0.009514  0.03644  0.8791  -0.01122
6.321e+09  0.5181  0.6362  -0.02649  -0.02337  -0.003961  -0.03032  0.826  -0.2643
6.322e+09  0.7561  0.3897  0.003892  0.01315  -0.02935  -0.02136  0.6516  -0.5578
6.324e+09  0.8447  0.09111  -0.009874  0.01085  0.0002665  -0.02833  0.4742  -0.7463
6.325e+09  0.8374  -0.2789  -0.004375  -0.01354  -0.01457  0.03181  0.1867  -0.8824
6.326e+09  0.6743  -0.4663  -0.02533  0.009491  0.002617  0.021  -0.1543  -0.9282
6.328e+09  0.5354  -0.6728  0.0006795  -0.0357  0.05265  0.01993  -0.4005  -0.7785
6.329e+09  0.2387  -0.9049  -0.03455  -0.02948  0.01945  -0.01861  -0.6926  -0.6102
6.33e+09  -0.082  -0.8744  -0.0458  -0.003685  0.01788  -0.02056  -0.8687  -0.3481
6.331e+09  -0.3542  -0.7951  -0.03379  0.01096  0.003182  -0.02847  -0.8974  -0.01729
6.332e+09  -0.6375  -0.602  -0.01123  0.02229  -0.001514  0.01649  -0.837  0.2753
6.334e+09  -0.805  -0.3644  -0.02116  0.02456  0.008978  0.02466  -0.7136  0.5312
6.335e+09  -0.8875  -0.03541  0.01096  0.003036  -0.04119  -0.07211  -0.5001  0.8075
6.336e+09  -0.8468  0.2554  -0.00352  0.004162  -0.0292  -0.03202  -0.174  0.8883
6.338e+09  -0.6672  0.4766  0.002992  0.02514  0.00119  0.03369  0.1163  0.8863
6.339e+09  -0.4494  0.7516  -0.03282  0.007959  -0.002032  0.005117  0.4265  0.7987
6.34e+09  -0.1627  0.8471  -0.01709  -0.01087  0.009637  0.006553  0.6799  0.6168
6.341e+09  0.192  0.8711  -0.01224  -0.01228  -0.02435  -0.00206  0.8372  0.3822
6.342e+09  0.4235  0.741  0.04115  0.001088  0.0395  0.008938  0.9022  0.05594
6.344e+09  0.65  0.5476  -0.002446  -0.008131  0.01491  0.03941  0.9178  -0.2466
6.345e+09  0.817  0.2404  -0.003679  -0.00503  0.01838  0.01988  0.7658  -0.5593
6.346e+09  0.843  0.002784  -0.04132  0.009549  -0.01607  -0.05857  0.4753  -0.7888
6.348e+09  0.7975  -0.3424  0.009587  0.02282  -0.03404  0.007148  0.2156  -0.9239
6.349e+09  0.6597  -0.5961  -0.008548  -0.004639  -0.01316  0.02658  -0.1236  -0.9577
6.35e+09  0.4291  -0.7212  0.02525  -0.0197  -0.008949  0.008217  -0.4082  -0.8671
6.351e+09  0.1234  -0.8382  0.008256  0.03645  0.01232  0.0384  -0.6866  -0.6652
6.352e+09  -0.1634  -0.8654  -0.01539  0.00458  0.06509  -0.01349  -0.8524  -0.3709
6.354e+09  -0.4644  -0.7316  -0.01647  0.04118  -0.003103  -0.01237  -0.9627  -0.108
6.355e+09  -0.7019  -0.4968  0.002705  -0.009287  -0.03919  0.007568  -0.8976  0.2336
6.356e+09  -0.8474  -0.243  0.002326  -0.003468  -0.0368  -0.009845  -0.7586  0.5522
6.358e+09  -0.8676  0.03112  -0.02114  -0.002537  0.06413  -0.02165  -0.5074  0.7819
6.359e+09  -0.8368  0.351  -0.01029  0.015  0.012  0.00372  -0.2045  0.8957
6.36e+09  -0.5907  0.6282  -0.04705  0.0007045  0.02817  0.00813  0.0623  0.9467
6.361e+09  -0.4035  0.8196  -0.0246  -0.02552  0.03697  -0.02631  0.4365  0.8626
6.362e+09  -0.0787  0.8957  -0.01806  0.01506  -0.01518  -0.004589  0.6957  0.6877
6.364e+09  0.1974  0.8865  -0.03316  0.005203  -0.02625  -0.009083  0.8573  0.446
6.365e+09  0.4972  0.6912  0.0293  -0.0138  -0.03066  0.004848  0.9157  0.07174
6.366e+09  0.7356  0.4744  -0.00248  -0.006593  -0.007138  -0.01318  0.8986  -0.2661
6.368e+09  0.8555  0.1995  -0.004753  0.02724  0.009549  -0.03305  0.7489  -0.5439
6.369e+09  0.9061  -0.1185  -0.02673  -0.01017  -0.0147  0.0001416  0.5211  -0.7875
6.37e+09  0.7684  -0.3946  -0.01748  -0.03127  -0.01566  0.007093  0.2719  -0.903
6.371e+09  0.5603  -0.651  0.04028  0.01478  -0.0162  0.0002382  -0.07907  -0.9348
6.372e+09  0.3309  -0.7877  0.01012  0.03326  -0.01989  0.008422  -0.4111  -0.892
6.374e+09  0.01923  -0.839  -0.008234  -0.009088  0.006183  0.0304  -0.6678  -0.658
6.375e+09  -0.2675  -0.8449  0.001031  0.03532  0.01792  -0.002505  -0.8586  -0.4152
6.376e+09  -0.5987  -0.7294  -0.02592  -0.008051  0.04932  0.04239  -0.9298  -0.06971
6.378e+09  -0.7545  -0.4042  0.001436  -0.003878  0.004356  -0.03415  -0.8764  0.2275
6.379e+09  -0.8807  -0.1254  -0.03541  -0.006146  0.05491  -0.03867  -0.7923  0.5283
6.38e+09  -0.8593  0.1389  -0.02578  -0.002998  0.01568  -0.0297  -0.5458  0.7883
6.381e+09  -0.8249  0.4303  -0.008273  0.007582  0.06633  0.002063  -0.2699  0.8723
6.382e+09  -0.5522  0.6535  -0.006533  -0.0171  -0.03464  0.003696  0.05262  0.9196
6.384e+09  -0.2973  0.7945  -0.01662  0.0192  0.0004528  0.01388  0.3779  0.8785
6.385e+09  0.01658  0.9069  0.011  -0.03034  0.02714  -0.005141  0.6369  0.7001
6.386e+09  0.2882  0.8146  0.01463  -0.009267  0.00147  0.002877  0.7755  0.4423
6.388e+09  0.5465  0.6725  0.008045  0.04024  -0.004559  0.0245  0.8904  0.144
6.389e+09  0.7538  0.3931  0.02566  0.03102  0.009839  -0.006756  0.8459  -0.1704
6.39e+09  0.8881  0.1022  -0.001711  0.002017  -0.01197  -0.01158  0.7759  -0.5335
6.391e+09  0.8863  -0.142  0.0583  -0.02667  0.004298  0.01632  0.542  -0.7414
6.392e+09  0.7899  -0.4735  0.01184  -0.009648  0.01362  0.02878  0.2637  -0.8673
6.394e+09  0.5308  -0.6867  -0.01404  0.01656  -0.004839  -0.01751  -0.01522  -0.8908
6.395e+09  0.2845  -0.8267  -0.03056  -0.01426  0.01945  0.01077  -0.3313  -0.8536
6.396e+09  -0.076  -0.8895  0.01378  0.005134  0.04023  -0.01013  -0.6086  -0.6463
6.398e+09  -0.3526  -0.8106  0.008021  0.03786  -0.04159  0.01372  -0.7717  -0.4253
6.399e+09  -0.5894  -0.6583  -0.03059  0.008663  -0.04043  -0.02738  -0.9132  -0.1241
6.4e+09  -0.7573  -0.3712  -0.01215  0.04755  0.05057  0.004545  -0.912  0.156
6.401e+09  -0.9115  -0.09649  0.01325  0.007578  -0.01986  -0.01845  -0.8179  0.4643
6.402e+09  -0.8286  0.2325  -0.05711  0.007695  -0.01988  -0.01222  -0.6207  0.6953
6.404e+09  -0.7521  0.505  -0.01351  0.01232  -0.01625  0.007587  -0.3419  0.8745
6.405e+09  -0.499  0.7109  -0.02421  0.002452  -0.05814  -0.02585  -0.01569  0.9449
6.406e+09  -0.2689  0.8579  0.01479  0.02284  -0.05441  0.03203  0.2972  0.8873
6.408e+09  0.08351  0.8518  0.01345  0.01345  -0.02988  0.02426  0.5828  0.725
6.409e+09  0.4051  0.804  -0.01126  0.0395  -0.0185  -0.02566  0.7631  0.4435
6.41e+09  0.5936  0.6183  -0.0338  0.003183  -0.0009716  0.01182  0.8563  0.1436
6.411e+09  0.8068  0.4023  -0.02495  0.02198  -0.04305  -0.01422  0.8872  -0.1347
6.412e+09  0.8651  0.06312  0.006695  -0.01532  -0.002851  -0.02844  0.7947  -0.4217
6.414e+09  0.8757  -0.2591  -0.02582  -0.009597  0.01564  -0.0334  0.5738  -0.6423
6.415e+09  0.7752  -0.5116  -0.03205  -0.03064  0.002912  0.02362  0.3237  -0.7965
6.416e+09  0.4573  -0.7295  0.02107  -0.009545  -0.01577  0.02088  0.01943  -0.9603
6.418e+09  0.2377  -0.8699  -0.0264  0.005922  -0.007576  -0.02001  -0.2581  -0.8636
6.419e+09  -0.1351  -0.8805  -0.0257  0.02898  0.0126  0.03507  -0.5657  -0.6684
6.42e+09  -0.4142  -0.782  0.01639  -0.03148  0.004525  -0.009448  -0.7041  -0.488
6.421e+09  -0.6333  -0.6185  -0.04624  0.02067  -0.03068  -0.01104  -0.8694  -0.2203
6.422e+09  -0.7576  -0.3497  -0.02929  -9.693e-05  -0.007716  -0.02122  -0.9102  0.118
6.424e+09  -0.8734  0.001155  0.01774  0.06222  0.008961  0.03316  -0.7944  0.4372
6.425e+09  -0.8888  0.2196  0.002909  0.01882  -0.03214  -0.02222  -0.6107  0.6094
6.426e+09  -0.6779  0.5443  -0.02373  0.02253  0.009469  -0.03232  -0.3767  0.8055
6.428e+09  -0.4995  0.7088  0.03994  -0.009974  -0.01001  -0.01696  -0.05329  0.876
6.429e+09  -0.1991  0.8123  -0.007584  0.01195  -0.01514  0.04565  0.2663  0.8558
6.43e+09  0.115  0.861  0.01129  0.04012  0.01295  0.006237  0.4884  0.7201
6.431e+09  0.4449  0.8197  -0.01104  -0.01389  -0.0201  -0.01824  0.7065  0.4738
6.432e+09  0.7217  0.5716  0.02675  0.006256  -0.06438  0.02787  0.8413  0.2322
6.434e+09  0.8025  0.3604  0.0008984  0.02057  0.01535  0.03625  0.8709  -0.05986
6.435e+09  0.8745  0.06251  0.03496  -0.01882  -0.03655  0.001276  0.7401  -0.3985
6.436e+09  0.8091  -0.2519  0.01662  0.01366  -0.008265  -0.01638  0.6109  -0.6302
6.438e+09  0.6673  -0.5456  -0.001244  0.03071  -0.04724  0.04095  0.3368  -0.7391
6.439e+09  0.4435  -0.7567  -0.007779  0.009178  0.0212  0.01623  0.07702  -0.8494
6.44e+09  0.1925  -0.8862  0.03433  -0.004982  0.04397  -0.006078  -0.2281  -0.8373
6.441e+09  -0.08003  -0.8834  0.03751  0.0396  -0.03416  -0.03789  -0.5166  -0.721
6.442e+09  -0.4079  -0.7559  0.001515  0.01335  0.01735  0.02268  -0.6559  -0.4268
6.444e+09  -0.6485  -0.567  -0.03489  -0.01933  0.009226  -0.005259  -0.8127  -0.2057
6.445e+09  -0.7769  -0.303  -0.0493  -0.03232  -0.01268  -0.03066  -0.8325  0.04645
6.446e+09  -0.8313  -0.02921  -0.002348  -0.0162  0.01054  -0.06746  -0.7411  0.3776
6.448e+09  -0.8136  0.3288  -0.01045  0.022  -0.01246  -0.0607  -0.5599  0.6256
6.449e+09  -0.6814  0.5314  0.002691  -0.007297  -0.002467  -0.02403  -0.3173  0.7756
6.45e+09  -0.4927  0.7236  0.03638  0.03849  0.003553  0.02045  -0.05307  0.8479
6.451e+09  -0.1867  0.8411  0.02642  -0.01065  -0.004188  -0.04992  0.1843  0.8054
6.452e+09  0.08983  0.9096  0.01527  0.0176  0.001454  -0.03604  0.5141  0.6698
6.454e+09  0.3959  0.792  0.02622  0.0003862  -0.01793  -0.03018  0.6958  0.4579
6.455e+09  0.6251  0.5562  0.00892  0.000792  0.01669  -0.01197  0.8429  0.1962
6.456e+09  0.8151  0.3547  -0.005805  -0.002779  -0.04208  -0.02075  0.8291  -0.0531
6.458e+09  0.9256  -0.01099  0.0004868  -0.01613  0.001939  0.08004  0.7564  -0.3053
6.459e+09  0.8318  -0.2837  0.03272  0.04594  -0.01205  0.004226  0.576  -0.5682
6.46e+09  0.6879  -0.5371  0.006167  -0.006981  -0.01787  0.0051  0.3502  -0.7698
6.461e+09  0.4637  -0.7646  -0.009175  0.01753  -0.05573  -0.05566  0.1105  -0.8031
6.462e+09  0.2246  -0.9171  -0.004588  0.04782  -0.00848  -0.04315  -0.202  -0.7995
6.464e+09  -0.1281  -0.8368  -0.03222  0.01637  0.01229  -0.02557  -0.4653  -0.6391
6.465e+09  -0.4402  -0.811  -0.03211  0.02375  0.001414  -0.006289  -0.6479  -0.4459
6.466e+09  -0.6303  -0.5807  0.004448  -0.0271  0.04385  -0.01194  -0.7628  -0.2396
6.468e+09  -0.8945  -0.3003  0.02444  -0.02316  -0.02832  0.03909  -0.841  0.06979
6.469e+09  -0.8951  0.03463  0.01165  -0.01062  0.007861  -0.01892  -0.7059  0.3432
6.47e+09  -0.8879  0.316  -0.00368  -0.007969  -0.01877  -0.01991  -0.545  0.5579
6.471e+09  -0.6424  0.5349  0.004479  -0.03745  0.02164  -0.05323  -0.3076  0.7086
6.472e+09  -0.4198  0.7918  -0.01589  -0.03205  0.03869  0.01274  -0.0669  0.7974
6.474e+09  -0.1682  0.8725  -0.02886  0.01497  0.03566  -0.005998  0.1807  0.8131
6.475e+09  0.1568  0.8432  -0.01449  -0.009482  0.03687  0.01552  0.4455  0.6396
6.476e+09  0.4633  0.7811  -0.01857  -0.003043  -0.01137  -0.05307  0.6888  0.4605
6.478e+09  0.7192  0.5368  0.008452  -0.001286  0.02242  0.07801  0.7065  0.1679
6.479e+09  0.8848  0.2959  -0.04027  0.009066  -0.02075  -0.05223  0.7904  -0.07369
6.48e+09  0.8944  -0.01454  0.00142  0.02728  0.001707  -0.007327  0.713  -0.383
6.481e+09  0.8144  -0.3118  0.07919  -0.003478  -0.004847  0.004679  0.5385  -0.5836
6.482e+09  0.6847  -0.5971  0.02009  -0.0282  -0.03775  -0.01848  0.3343  -0.7175
6.484e+09  0.4337  -0.8508  0.004499  0.03985  -0.001955  0.02445  0.05832  -0.7857
6.485e+09  0.1533  -0.9417  -0.02047  0.02745  0.02665  -0.03771  -0.2177  -0.7656
6.486e+09  -0.1636  -0.9239  0.01834  0.00819  -0.02954  0.006743  -0.4263  -0.6398
6.488e+09  -0.4229  -0.8074  -0.004048  0.03646  -0.02982  0.04023  -0.6501  -0.3963
6.489e+09  -0.7222  -0.5216  -0.01326  -0.01089  -0.008916  0.03338  -0.7035  -0.2535
6.49e+09  -0.8836  -0.3025  0.001091  -0.01574  -0.02382  -0.006074  -0.7884  0.1009
6.491e+09  -0.9651  0.05019  -0.03128  0.0215  0.01757  0.01279  -0.6755  0.3386
6.492e+09  -0.8365  0.3459  0.005827  0.003921  0.05222  -0.01102  -0.5174  0.5468
6.494e+09  -0.7046  0.6068  0.001433  0.02674  0.0115  0.0632  -0.2906  0.6987
6.495e+09  -0.4073  0.7959  0.03136  -0.0002512  0.02269  -0.06084  -0.02812  0.7312
6.496e+09  -0.08625  0.9212  0.005401  -0.0281  0.03236  -0.02937  0.2492  0.7007
6.498e+09  0.2323  0.9112  0.0005514  0.0293  -0.0337  0.04616  0.4531  0.6202
6.499e+09  0.4923  0.7749  -0.005596  -0.007061  -0.009058  -0.01874  0.6356  0.4215
6.5e+09  0.736  0.5509  0.002818  -0.02517  0.0003934  0.01179  0.7586  0.137
6.501e+09  0.8254  0.2854  -0.01196  -0.02599  0.02243  0.03048  0.718  -0.0699
6.502e+09  0.9406  -0.08277  0.02232  0.001416  -0.008381  0.01311  0.6305  -0.3318
6.504e+09  0.8258  -0.3719  -0.0006172  0.005721  0.001932  0.01214  0.4762  -0.5591
6.505e+09  0.6627  -0.6219  -0.02292  0.02455  -0.00254  1.951e-05  0.3114  -0.7184
6.506e+09  0.4077  -0.8358  -0.02215  -0.006744  -0.02339  -0.01295  0.007935  -0.7766
6.508e+09  0.1202  -0.9534  0.03033  0.001177  0.01083  0.006971  -0.2072  -0.7366
6.509e+09  -0.2655  -0.8612  0.003832  -0.01163  -0.03895  -0.00255  -0.4854  -0.6304
6.51e+09  -0.6009  -0.7988  -0.01705  -0.01629  -0.002943  0.02014  -0.6502  -0.406
6.511e+09  -0.795  -0.5034  0.02036  -0.03312  0.03712  -0.02997  -0.7477  -0.1339
6.512e+09  -0.9368  -0.2444  0.01637  -0.02748  -0.02577  -0.06886  -0.7237  0.1385
6.514e+09  -0.9545  0.08193  0.01356  0.01234  -0.01852  -0.05887  -0.6614  0.3705
6.515e+09  -0.8033  0.4185  0.02103  -0.008074  -0.004782  0.01333  -0.4892  0.5684
6.516e+09  -0.7143  0.6513  0.01707  -0.002992  0.01491  0.04849  -0.2343  0.6876
6.518e+09  -0.4154  0.8719  -0.02  0.02024  -0.005086  -0.03819  0.02257  0.6944
6.519e+09  -0.05047  0.9644  -0.01055  0.002307  0.03803  2.929e-06  0.2621  0.6792
6.52e+09  0.2588  0.9134  -0.02583  0.003529  0.008231  -0.0714  0.512  0.5281
6.521e+09  0.6258  0.7273  -0.04157  -0.0002657  0.03569  -0.0118  0.6562  0.3149
6.522e+09  0.8548  0.5751  0.02681  -0.0351  -0.04702  0.01729  0.7137  0.1343
6.524e+09  0.95  0.1839  0.01793  0.02416  -0.02452  -0.03674  0.6747  -0.1613
6.525e+09  0.9614  -0.1528  -0.006827  -0.01291  0.00988  -0.01159  0.6163  -0.3887
6.526e+09  0.8493  -0.4519  -0.0379  -0.04371  0.003816  -0.01938  0.4193  -0.5951
6.528e+09  0.6266  -0.7203  0.02969  0.002287  0.006668  0.02816  0.1998  -0.7178
6.529e+09  0.3336  -0.8859  -0.01354  -0.01922  0.03491  0.03472  -0.06081  -0.7064
6.53e+09  -0.01262  -0.9837  0.03104  -0.0118  -0.02903  -0.02113  -0.2953  -0.6352
6.531e+09  -0.3218  -0.8959  0.001954  -0.01747  0.02097  -0.00597  -0.4894  -0.4865
6.532e+09  -0.676  -0.795  -0.01267  0.02006  -0.004174  0.03485  -0.58  -0.2519
6.534e+09  -0.8816  -0.3865  -0.009864  0.01311  -0.02037  0.01824  -0.6222  -0.0801
6.535e+09  -0.9748  -0.1566  -0.004877  2.985e-05  -0.0003006  0.004008  -0.6079  0.09843
6.536e+09  -0.9457  0.2255  0.02256  -0.0247  0.001613  -0.007695  -0.5738  0.2979
6.538e+09  -0.8433  0.5289  -0.006623  -0.01056  0.008385  -0.01687  -0.4055  0.498
6.539e+09  -0.5995  0.7707  0.01079  0.01916  0.0306  0.04943  -0.265  0.6218
6.54e+09  -0.3228  0.9503  -0.005032  -0.02919  0.04133  -0.03166  -0.06461  0.6756
6.541e+09  0.06493  0.9793  0.003096  0.03081  0.07909  -0.006241  0.1976  0.688
6.542e+09  0.4731  0.8965  0.004308  0.01054  0.02813  -0.02704  0.4159  0.5732
6.544e+09  0.7099  0.6625  -0.001514  -0.003292  0.02818  -0.007131  0.5679  0.3703
6.545e+09  0.8831  0.4037  -0.02374  -0.004138  0.005185  -0.0173  0.6577  0.1495
6.546e+09  0.9341  0.0746  0.03144  0.008422  0.05056  -0.02802  0.6937  -0.07973
6.548e+09  0.8811  -0.2831  0.003658  0.05687  0.01795  -0.00655  0.6475  -0.3505
6.549e+09  0.7895  -0.5605  -0.001081  -0.01085  -0.0273  -0.008558  0.4989  -0.5971
6.55e+09  0.4766  -0.806  0.02301  -0.04161  0.04191  0.03126  0.2995  -0.6813
