# Hz S RI R 50
6.25e+09  -0.4108  0.7917  -0.008354  -0.01222  -0.0199  -0.02422  0.1703  0.4932
6.251e+09  -0.1201  0.8385  -0.02131  0.001065  0.01106  0.04042  0.3436  0.4019
6.252e+09  0.1851  0.8306  -0.01603  -0.008273  0.07499  0.005119  0.5184  0.2129
6.254e+09  0.4172  0.7622  -0.0098  0.01304  -0.02631  0.006539  0.6078  0.01598
6.255e+09  0.6827  0.5001  0.02711  0.001285  0.05378  -0.005253  0.6004  -0.2258
6.256e+09  0.7831  0.2165  -0.004357  0.0006285  0.02347  -0.02623  0.5047  -0.4454
6.258e+09  0.7991  -0.05955  -0.02044  -0.01105  0.06233  0.0319  0.2679  -0.6465
6.259e+09  0.7066  -0.3336  -0.00602  -0.02334  -0.002006  -0.006666  0.04016  -0.7255
6.26e+09  0.6577  -0.5915  0.01679  0.01183  -0.01314  0.0407  -0.1902  -0.65
6.261e+09  0.3665  -0.7882  0.03552  -0.02142  -0.04027  0.02413  -0.4585  -0.5482
6.262e+09  0.09346  -0.8707  0.01186  0.01479  -0.01202  -0.01302  -0.6394  -0.3575
6.264e+09  -0.2038  -0.8329  0.005358  0.004162  -0.01191  -0.01052  -0.6636  -0.1272
6.265e+09  -0.4807  -0.7041  -0.01146  -0.01725  0.01892  0.0002498  -0.6857  0.1522
6.266e+09  -0.6691  -0.5377  0.01097  0.03091  -0.007136  -0.0328  -0.5885  0.3834
6.268e+09  -0.7602  -0.2501  0.01564  0.005007  -0.0422  -0.06647  -0.4308  0.612
6.269e+09  -0.7886  0.0432  0.00453  -0.001526  0.04791  -0.02218  -0.1857  0.7211
6.27e+09  -0.775  0.3587  0.01416  -0.00301  -0.01107  0.02788  0.08335  0.7352
6.271e+09  -0.6353  0.5983  -0.04701  -0.002444  0.0007701  -0.02484  0.3002  0.6649
6.272e+09  -0.3563  0.7302  -0.02594  -0.02643  -0.01554  -0.03306  0.5317  0.5006
6.274e+09  -0.07281  0.8071  -0.04588  -0.01826  0.01164  -0.01019  0.6829  0.3303
6.275e+09  0.1973  0.8448  -0.0249  -0.02488  0.02874  -0.01956  0.7345  0.03574
6.276e+09  0.4767  0.7388  -0.002981  0.003977  0.01398  -0.007909  0.7559  -0.2644
6.278e+09  0.7054  0.4726  0.01625  -0.009493  0.01772  -0.0008287  0.5963  -0.472
6.279e+09  0.7971  0.2518  -0.01216  -0.007345  -0.02973  0.03916  0.3927  -0.6396
6.28e+09  0.7711  -0.05412  0.002861  0.01937  -0.008513  0.01801  0.1416  -0.7345
6.281e+09  0.7624  -0.36  0.005715  -0.01301  0.01552  0.01306  -0.09975  -0.7295
6.282e+09  0.6169  -0.6398  -0.005138  -0.01537  -0.03057  0.02081  -0.3538  -0.6634
6.284e+09  0.3118  -0.7479  0.01015  -0.02067  -0.02501  -0.00276  -0.5979  -0.5457
6.285e+09  0.09123  -0.8105  -0.02071  -0.008956  -0.0181  -0.0379  -0.7402  -0.2662
6.286e+09  -0.2206  -0.8514  0.007188  0.001387  -0.01955  -0.0207  -0.8103  -0.03491
6.288e+09  -0.4785  -0.7114  0.02696  -0.009923  -0.01606  -0.01215  -0.7412  0.2597
6.289e+09  -0.6803  -0.53  0.01208  -0.0109  -0.03049  0.001246  -0.6412  0.4807
6.29e+09  -0.8079  -0.1816  -0.02767  -0.01606  0.05927  -0.006824  -0.3966  0.6968
6.291e+09  -0.8076  0.1026  0.02096  0.01086  -0.03374  0.04304  -0.1507  0.7907
6.292e+09  -0.7896  0.3814  0.01755  0.02214  -0.01377  -0.001216  0.1122  0.8
6.294e+09  -0.5316  0.5944  0.01586  -0.02111  -0.0152  -0.001123  0.3821  0.719
6.295e+09  -0.3197  0.7339  -0.03605  -0.02073  -0.01922  -0.006986  0.6264  0.5219
6.296e+09  -0.08231  0.8207  -0.01669  0.001607  -0.02871  0.04972  0.7787  0.3195
6.298e+09  0.2543  0.8413  0.007965  -0.004248  0.02996  0.01226  0.8057  0.01656
6.299e+09  0.5068  0.6777  -0.01418  -0.0061  -0.005556  0.004269  0.7864  -0.2891
6.3e+09  0.6773  0.4343  -4.282e-05  -0.0006653  0.04967  0.01489  0.6903  -0.5416
6.301e+09  0.8144  0.1777  0.02279  0.008402  -0.04352  0.007447  0.4029  -0.7201
6.302e+09  0.7964  -0.1059  0.006215  -0.005465  -0.02742  -0.00171  0.1499  -0.8097
6.304e+09  0.7262  -0.3872  -0.00377  -0.003046  0.01439  -0.004886  -0.1212  -0.8202
6.305e+09  0.5098  -0.6328  0.02529  0.01136  -0.0371  0.008529  -0.4066  -0.7589
6.306e+09  0.2602  -0.7893  -0.002111  0.0002588  -0.0264  0.0311  -0.6544  -0.5235
6.308e+09  -0.01842  -0.8226  0.01311  0.009188  -0.0297  0.01447  -0.7812  -0.2851
6.309e+09  -0.2727  -0.8491  0.01037  -0.02499  0.07773  0.01494  -0.8703  -0.03103
6.31e+09  -0.5178  -0.6035  0.006031  -0.008404  -0.03989  0.05599  -0.8099  0.265
6.311e+09  -0.6827  -0.4195  0.0006194  -0.006159  0.0128  -0.027  -0.6758  0.5225
6.312e+09  -0.8428  -0.1148  -0.005179  0.03231  0.03185  0.006669  -0.433  0.7564
6.314e+09  -0.8103  0.1269  -0.01114  -0.004661  0.01724  -0.004817  -0.1671  0.8149
6.315e+09  -0.691  0.3738  -0.01133  -0.01073  -0.02536  -0.01747  0.1538  0.8361
6.316e+09  -0.4967  0.6346  -0.0001257  -0.01087  0.008066  -0.02556  0.4594  0.7539
6.318e+09  -0.2674  0.813  0.02463  -0.01556  -0.04475  -0.03507  0.666  0.5801
6.319e+09  0.04036  0.863  0.005108  0.01074  -0.006696  0.004319  0.8258  0.3062
6.32e+09  0.3405  0.7888  -0.01969  0.008505  0.03432  -0.05728  0.8835  0.03714
6.321e+09  0.5651  0.6023  0.02988  0.02106  0.006106  0.05782  0.8348  -0.3186
6.322e+09  0.7617  0.4002  -0.02044  -0.01897  -0.01624  0.009252  0.7195  -0.555
6.324e+09  0.8305  0.07136  0.006793  0.002996  -0.02687  -0.006148  0.4979  -0.7779
6.325e+09  0.8246  -0.1855  0.01564  -0.01507  -0.03112  0.04554  0.1918  -0.8958
6.326e+09  0.6958  -0.5115  0.02976  -0.01387  -0.006748  -0.01472  -0.1581  -0.8763
6.328e+09  0.5053  -0.7325  0.01624  -0.004159  -0.02731  -0.03702  -0.4579  -0.8002
6.329e+09  0.2503  -0.8412  -0.0009868  0.007925  0.006234  0.04666  -0.6911  -0.5904
6.33e+09  -0.1025  -0.8659  -0.00377  0.02638  0.03968  0.01092  -0.8417  -0.3117
6.331e+09  -0.337  -0.7647  -0.01522  -0.0002295  0.0476  -0.01366  -0.8981  -0.02881
6.332e+09  -0.6089  -0.6318  -0.01078  0.006656  -0.03329  0.05862  -0.8795  0.2681
6.334e+09  -0.7989  -0.3301  -0.003962  0.02112  -0.00776  0.01627  -0.7088  0.5702
6.335e+09  -0.8722  -0.01811  0.01175  -0.004663  0.003879  -0.02189  -0.4783  0.7535
6.336e+09  -0.8357  0.2444  -0.01027  0.007266  -0.007117  0.008449  -0.2058  0.9056
6.338e+09  -0.7247  0.5341  -0.02005  0.01446  0.01478  -0.004531  0.1386  0.9149
6.339e+09  -0.4403  0.7522  0.01238  -0.02298  -0.06649  -0.008699  0.3987  0.8441
6.34e+09  -0.1699  0.8112  0.02197  0.03162  0.01719  -0.03295  0.6585  0.6498
6.341e+09  0.1655  0.8922  -0.03167  0.002015  0.01648  -0.04371  0.8305  0.3586
6.342e+09  0.4769  0.7332  0.009646  -0.008282  -0.008691  0.0004415  0.9158  0.02071
6.344e+09  0.6913  0.5197  -0.006322  -0.01573  -0.02802  -0.01651  0.8805  -0.2627
6.345e+09  0.8436  0.2928  0.006797  -0.001379  0.05692  0.01777  0.7086  -0.5565
6.346e+09  0.8273  -0.02952  -0.005474  0.00428  -0.005843  0.02597  0.525  -0.764
6.348e+09  0.7752  -0.3194  -0.003717  0.005113  -0.02406  -0.01323  0.2209  -0.9482
6.349e+09  0.6472  -0.6272  0.009739  -0.02932  0.01576  -0.01694  -0.09621  -0.9329
6.35e+09  0.3863  -0.7867  -0.003983  -0.01294  0.007442  0.02826  -0.3991  -0.8394
6.351e+09  0.104  -0.8739  0.006839  -0.007813  -0.05999  -0.001156  -0.7229  -0.6237
6.352e+09  -0.1898  -0.8063  -0.009312  -0.01507  0.02513  -0.0555  -0.8306  -0.36
6.354e+09  -0.4381  -0.729  -0.02898  0.007018  0.01291  -0.04246  -0.9325  -0.07935
6.355e+09  -0.6877  -0.564  -0.01434  0.04049  -0.05109  0.005803  -0.885  0.2651
6.356e+09  -0.8725  -0.2901  0.04077  0.007149  -0.01141  -0.02574  -0.7847  0.542
6.358e+09  -0.9093  0.08822  -0.04294  0.02892  0.0007482  0.0143  -0.5081  0.7888
6.359e+09  -0.8094  0.3825  0.01646  0.00603  0.03219  0.01889  -0.2466  0.919
6.36e+09  -0.6275  0.6575  0.0107  -0.01191  0.03677  -0.01079  0.1064  0.9386
6.361e+09  -0.3506  0.8282  0.001554  0.000261  0.02964  -0.02068  0.4032  0.8556
6.362e+09  -0.05037  0.891  0.02825  0.01086  0.03117  -0.02911  0.6952  0.6742
6.364e+09  0.2278  0.8518  -0.01252  -0.00889  0.01988  0.002223  0.8504  0.4056
6.365e+09  0.5015  0.7108  -0.03903  -0.01803  0.008143  0.01662  0.9424  0.05604
6.366e+09  0.7072  0.4578  0.01356  0.02779  -0.01921  -0.02703  0.922  -0.2586
6.368e+09  0.8193  0.1987  0.004549  0.004194  0.03802  0.009346  0.7696  -0.558
6.369e+09  0.8414  -0.09914  0.04753  0.01258  -0.004771  0.01647  0.5055  -0.7588
6.37e+09  0.759  -0.4326  -0.03405  -0.0101  0.02592  -0.01353  0.2317  -0.8926
6.371e+09  0.5609  -0.6992  -0.01565  -0.004263  -0.05273  -0.01402  -0.06913  -0.9388
6.372e+09  0.3345  -0.8244  0.004428  -0.005272  -0.002018  0.03378  -0.3915  -0.8881
6.374e+09  -0.007002  -0.8866  -0.01395  -0.004384  0.03626  -0.00297  -0.6615  -0.6637
6.375e+09  -0.2661  -0.9017  -0.01005  -0.00875  0.04469  0.02375  -0.8694  -0.4409
6.376e+09  -0.5494  -0.711  0.0106  -0.008488  -0.0225  0.01197  -0.9502  -0.1204
6.378e+09  -0.798  -0.4925  0.04099  -0.03029  0.006273  -0.02403  -0.9404  0.2042
6.379e+09  -0.8936  -0.161  0.0172  0.007153  0.004592  -0.01306  -0.7361  0.5526
6.38e+09  -0.8809  0.1706  -0.004769  0.01426  0.032  -0.01797  -0.5384  0.7594
6.381e+09  -0.778  0.4175  -0.001742  -0.04633  -0.01891  0.04028  -0.2666  0.9064
6.382e+09  -0.4701  0.7066  0.01718  0.06503  0.0183  -0.02873  0.03911  0.9212
6.384e+09  -0.272  0.8672  0.03447  -0.02574  -0.01706  0.001733  0.3546  0.8792
6.385e+09  -0.0231  0.9266  -0.01691  0.01625  -0.01426  -0.00985  0.6697  0.6892
6.386e+09  0.3148  0.7751  0.02237  -0.01719  0.02949  -0.05412  0.8202  0.4339
6.388e+09  0.5838  0.6764  0.00787  0.004746  -0.05248  -0.01346  0.8973  0.1008
6.389e+09  0.7891  0.403  -0.05399  -0.00833  0.006848  0.01143  0.8803  -0.1627
6.39e+09  0.9036  0.1481  0.002718  0.01284  0.03406  0.04687  0.7865  -0.5441
6.391e+09  0.8927  -0.1919  -0.0331  -0.04014  0.002584  -0.01216  0.5455  -0.7093
6.392e+09  0.7351  -0.4856  -0.005228  -0.01583  -0.0005436  0.01853  0.2791  -0.9032
6.394e+09  0.5332  -0.7778  -0.03533  0.00739  0.003376  0.04848  -0.01552  -0.9222
6.395e+09  0.2299  -0.8351  -0.00642  -0.02254  -0.01295  0.03031  -0.3399  -0.8356
6.396e+09  -0.07454  -0.8959  0.008556  0.004789  0.04695  0.002433  -0.6149  -0.7133
6.398e+09  -0.3309  -0.8154  0.03919  -0.03268  0.01932  0.05516  -0.7824  -0.4305
6.399e+09  -0.6411  -0.6076  0.007063  -0.01937  -0.006083  0.0512  -0.9008  -0.1511
6.4e+09  -0.8113  -0.4462  -0.00926  -0.01028  0.02832  -0.01201  -0.8708  0.1772
6.401e+09  -0.9078  -0.08015  -0.02634  0.003616  -0.0083  -0.06109  -0.7134  0.4539
6.402e+09  -0.8206  0.2885  0.002907  0.003095  0.007966  -0.0112  -0.591  0.7029
6.404e+09  -0.6966  0.5164  0.01763  0.006448  -0.01813  -0.008263  -0.366  0.8578
6.405e+09  -0.4747  0.7349  -0.02303  -0.03405  -0.06043  0.01657  0.01317  0.8698
6.406e+09  -0.3224  0.8466  -0.01306  -0.03371  -0.046  0.04344  0.2909  0.8263
6.408e+09  0.04323  0.9203  -0.03914  -0.03326  0.02273  0.006075  0.5875  0.7009
6.409e+09  0.3976  0.7756  0.09079  0.0231  -0.001952  -0.004059  0.7873  0.4626
6.41e+09  0.609  0.6398  -0.008933  -0.006999  -0.02999  -0.004273  0.9003  0.1571
6.411e+09  0.834  0.388  -0.0009069  0.004713  0.05138  0.01894  0.8812  -0.1088
6.412e+09  0.9268  0.02049  0.01035  0.004175  0.02282  0.008865  0.7322  -0.4158
6.414e+09  0.8492  -0.2326  0.03724  -0.01946  -0.0196  0.01303  0.6567  -0.7366
6.415e+09  0.6823  -0.5267  -0.02901  0.01622  -0.02948  -0.02006  0.3472  -0.8581
6.416e+09  0.5018  -0.7152  0.02091  0.009077  0.03417  -0.02073  0.09263  -0.8105
6.418e+09  0.2306  -0.845  0.01263  0.01884  -0.002427  0.000186  -0.2815  -0.8215
6.419e+09  -0.04152  -0.8636  -0.01301  0.01576  0.0194  -0.03614  -0.5663  -0.7304
6.42e+09  -0.4442  -0.7914  -0.01162  0.01564  -0.01048  -0.001117  -0.7723  -0.4684
6.421e+09  -0.652  -0.6043  -0.006644  0.01882  -0.004469  0.0173  -0.8615  -0.1797
6.422e+09  -0.8591  -0.3686  0.0138  -0.01605  -0.000633  0.0222  -0.8883  0.1063
6.424e+09  -0.8857  -0.06266  0.008998  0.04742  -0.01954  0.01652  -0.7562  0.4351
6.425e+09  -0.8055  0.1915  0.004869  -0.009979  0.02817  -0.02597  -0.5628  0.6422
6.426e+09  -0.715  0.5366  -0.0008229  0.0253  -0.0523  -0.03717  -0.3491  0.7949
6.428e+09  -0.4794  0.7505  0.02538  0.004575  0.02396  -0.04078  -0.04111  0.8861
6.429e+09  -0.2216  0.8961  0.00431  0.001363  -0.04556  -0.01143  0.295  0.8399
6.43e+09  0.09003  0.8311  -0.009036  -0.004738  -0.03109  0.03117  0.5274  0.6762
6.431e+09  0.4224  0.8269  -0.008972  -0.004437  -0.02554  0.03962  0.7368  0.4315
6.432e+09  0.6593  0.6063  -0.01068  0.02668  0.02953  0.0192  0.8582  0.2018
6.434e+09  0.8564  0.3646  0.01286  0.03433  -0.01237  0.01746  0.8991  -0.06861
6.435e+09  0.896  0.02808  -0.00899  -0.003376  -0.03292  0.000695  0.7788  -0.3442
6.436e+09  0.8022  -0.2427  0.003019  0.05615  0.03221  -0.01558  0.5904  -0.6378
6.438e+09  0.7169  -0.508  -0.005514  0.00145  0.03834  -0.04436  0.3321  -0.7496
6.439e+09  0.5172  -0.7351  0.03508  0.01626  0.007599  -0.002192  0.04185  -0.805
6.44e+09  0.1695  -0.8732  0.001543  0.04629  0.03469  0.02799  -0.2771  -0.8468
6.441e+09  -0.1523  -0.8855  0.01811  0.04685  0.01742  0.02423  -0.4782  -0.6833
6.442e+09  -0.4175  -0.7723  -0.04348  -0.0324  -0.002985  -0.02278  -0.6838  -0.5215
6.444e+09  -0.6326  -0.6196  -0.0551  -0.01709  -0.004673  0.03258  -0.7985  -0.1691
6.445e+09  -0.8465  -0.2836  -0.01655  0.01291  -0.0345  -0.04412  -0.8146  0.01942
6.446e+09  -0.8467  -0.06231  0.01283  -0.00529  -0.05682  0.01327  -0.7398  0.3149
6.448e+09  -0.7956  0.2537  0.03961  -0.02312  -0.0233  -0.01642  -0.5864  0.6041
6.449e+09  -0.6805  0.5711  -0.01163  0.009374  0.02212  -0.0009046  -0.3809  0.7243
6.45e+09  -0.4473  0.781  -0.02463  -0.01192  0.006412  0.02257  -0.05705  0.8266
6.451e+09  -0.1589  0.8987  0.001821  -0.06153  -0.01632  0.002206  0.2021  0.8139
6.452e+09  0.1435  0.9017  -0.01336  0.003237  -0.03013  -0.04263  0.4721  0.6723
6.454e+09  0.4018  0.7558  0.00513  -0.01228  -0.05274  -0.01211  0.6848  0.4853
6.455e+09  0.6544  0.629  -0.02883  -0.009217  -0.04001  -0.05203  0.8058  0.2025
6.456e+09  0.7992  0.328  0.0199  0.006034  0.02115  -0.02613  0.7814  -0.04097
6.458e+09  0.9222  -0.005305  -0.003461  0.03124  0.03479  -0.02703  0.7653  -0.3339
6.459e+09  0.8034  -0.2773  -0.002442  -0.000384  0.04889  0.006964  0.5572  -0.5538
6.46e+09  0.7327  -0.5319  0.02187  0.0006376  -0.005421  -0.05932  0.3408  -0.7501
6.461e+09  0.5115  -0.7817  0.01631  -0.01936  0.01324  0.04558  0.05193  -0.8402
6.462e+09  0.1739  -0.9448  -0.01674  -0.01713  0.03774  -0.05604  -0.2109  -0.7961
6.464e+09  -0.1557  -0.8955  -0.02371  -0.03402  -0.002317  0.01657  -0.468  -0.6607
6.465e+09  -0.4071  -0.7207  0.02243  -0.03306  0.000431  -0.01318  -0.6397  -0.4648
6.466e+09  -0.683  -0.5536  -0.02301  0.003153  0.001339  -0.02822  -0.7888  -0.2258
6.468e+09  -0.8332  -0.3075  0.0385  -0.009714  0.05408  0.0089  -0.8214  0.1018
6.469e+09  -0.8826  -0.0175  0.01793  -0.03241  -0.03668  -0.01969  -0.736  0.3452
6.47e+09  -0.8393  0.3119  -0.02122  0.01777  -0.01297  0.0287  -0.5585  0.5645
6.471e+09  -0.6785  0.6092  -0.01028  0.002258  0.001982  -0.004123  -0.3413  0.7061
6.472e+09  -0.462  0.8023  0.01976  -0.009626  -0.02741  0.01918  -0.04144  0.7746
6.474e+09  -0.192  0.8721  -0.009859  0.03241  0.008098  0.005906  0.2347  0.7275
6.475e+09  0.1506  0.88  0.01829  0.009536  0.01179  -0.01535  0.4535  0.6516
6.476e+09  0.4221  0.7768  0.01633  0.01243  0.02579  -0.01326  0.6654  0.4197
6.478e+09  0.6978  0.5805  -0.02975  0.02373  -0.01391  0.0178  0.7965  0.2017
6.479e+09  0.8424  0.3112  0.02269  -0.02634  -0.005556  -0.001657  0.7854  -0.06011
6.48e+09  0.8848  -0.004898  0.02174  -0.008883  -0.02367  0.05717  0.7151  -0.3641
6.481e+09  0.8217  -0.2807  -0.0225  0.008115  -0.003351  0.01797  0.5484  -0.5569
6.482e+09  0.7091  -0.5829  0.009055  -0.002498  0.02518  0.01773  0.3225  -0.7405
6.484e+09  0.4449  -0.7905  -0.02633  0.01655  0.05423  -0.001527  0.06881  -0.7535
6.485e+09  0.1742  -0.8825  0.007694  -0.03335  -0.02539  -0.03274  -0.2106  -0.7721
6.486e+09  -0.1829  -0.882  0.02501  0.01399  -0.01812  0.03075  -0.5031  -0.634
6.488e+09  -0.4942  -0.8014  0.01418  -0.004819  -0.05152  0.02187  -0.623  -0.4152
6.489e+09  -0.6997  -0.6057  -0.008457  0.006139  0.02562  0.0175  -0.7572  -0.1914
6.49e+09  -0.8975  -0.2636  -0.0298  0.01934  0.003329  -0.005173  -0.7401  0.07636
6.491e+09  -0.917  0.05574  0.03766  0.02158  0.01307  0.05071  -0.6715  0.3504
6.492e+09  -0.881  0.3489  0.02009  0.04163  -0.03507  -0.008457  -0.5757  0.5302
6.494e+09  -0.6751  0.5734  -0.003273  -0.003451  -0.02129  0.008216  -0.3409  0.7021
6.495e+09  -0.4319  0.8141  -0.01423  -0.03191  -0.002803  0.005879  -0.03944  0.7885
6.496e+09  -0.1194  0.9499  -0.04756  0.002061  -0.04696  -0.034  0.2197  0.756
6.498e+09  0.1872  0.9105  0.001987  0.004961  -0.0052  -0.07913  0.4812  0.5979
6.499e+09  0.5544  0.7986  -0.01788  -0.02579  0.05334  -0.01158  0.6271  0.4061
6.5e+09  0.7388  0.5624  -0.02746  -0.02672  0.0009686  -0.009149  0.7438  0.1938
6.501e+09  0.9193  0.2237  0.01925  -0.0298  0.004463  -0.01481  0.7012  -0.05364
6.502e+09  0.949  -0.06781  0.008186  -0.01937  0.02404  -0.03232  0.6988  -0.3523
6.504e+09  0.8081  -0.3691  0.003539  0.002834  0.0478  -0.05166  0.5246  -0.5643
6.505e+09  0.6722  -0.6389  0.01635  0.006165  -0.01642  0.03245  0.2777  -0.7115
6.506e+09  0.4041  -0.8512  -0.02067  0.008671  -0.01451  0.001512  -0.01313  -0.7374
6.508e+09  0.07592  -0.8952  -0.02277  -0.009105  -0.02894  0.01798  -0.2511  -0.7515
6.509e+09  -0.2255  -0.9001  0.01945  0.03654  -0.05626  0.03337  -0.4881  -0.5863
6.51e+09  -0.4828  -0.8243  -0.02834  -0.02163  0.03584  0.02245  -0.6311  -0.3954
6.511e+09  -0.7738  -0.5514  -0.001695  -0.009797  -0.01403  0.01841  -0.7838  -0.1439
6.512e+09  -0.8689  -0.2353  0.003179  -0.0233  -0.01535  0.01384  -0.7397  0.1497
6.514e+09  -0.9149  0.102  0.04433  0.04086  -0.06551  0.000493  -0.6401  0.39
6.515e+09  -0.8484  0.3985  0.02434  0.03145  -0.02829  0.02653  -0.4986  0.5608
6.516e+09  -0.6465  0.6511  0.007343  -0.03901  0.01324  -0.008415  -0.2593  0.6722
6.518e+09  -0.4136  0.8545  0.007768  0.01404  -0.03458  -0.01111  0.02908  0.7426
6.519e+09  -0.01658  0.966  -0.002765  0.01314  -0.06214  0.04195  0.2659  0.7117
6.52e+09  0.2691  0.8549  -0.0007719  -0.02615  0.001616  -0.03681  0.4889  0.5239
6.521e+09  0.5917  0.7545  -0.01689  -0.05074  -0.02567  -0.02453  0.6555  0.3369
6.522e+09  0.827  0.4948  -0.002035  0.008192  -0.04826  0.008142  0.7043  0.1105
6.524e+09  0.9504  0.2067  -0.005212  0.00906  -0.05137  -0.01899  0.694  -0.1756
6.525e+09  0.9848  -0.1685  -0.03027  0.02306  -0.001327  -0.008656  0.5908  -0.3938
6.526e+09  0.8904  -0.4633  0.002912  -0.005451  0.02699  -0.05365  0.3945  -0.5546
6.528e+09  0.5938  -0.7312  -0.01277  -0.01802  0.03641  0.03232  0.2065  -0.6988
6.529e+09  0.3797  -0.8851  0.003815  0.005628  0.04076  -0.01572  -0.07408  -0.688
6.53e+09  -0.03682  -0.9676  -0.02879  -0.002262  0.02324  0.009878  -0.2492  -0.6409
6.531e+09  -0.3117  -0.9065  0.008962  -0.00471  0.02879  -0.001515  -0.4894  -0.4524
6.532e+09  -0.6767  -0.7147  -0.02166  -0.01942  -0.067  -0.02861  -0.5959  -0.3146
6.534e+09  -0.8158  -0.4852  0.0266  0.01439  0.008395  0.04723  -0.6017  -0.056
6.535e+09  -0.9907  -0.1205  0.04105  1.813e-05  0.0113  -0.007062  -0.6588  0.1189
6.536e+09  -0.9452  0.2165  0.002443  -0.01163  0.02232  -0.01027  -0.5692  0.2984
6.538e+09  -0.8587  0.5144  0.01997  0.008462  0.02205  -0.02722  -0.456  0.4716
6.539e+09  -0.6022  0.8112  0.007251  0.009601  0.02268  0.04922  -0.2796  0.5985
6.54e+09  -0.2963  0.9606  0.002322  0.02679  0.04045  0.008365  -0.066  0.6654
6.541e+09  0.05883  0.9815  0.0009577  -0.01907  -0.04241  0.03179  0.1636  0.6562
6.542e+09  0.3809  0.9063  -0.007077  -0.0001593  -0.007191  -0.02806  0.3948  0.595
6.544e+09  0.7029  0.7608  0.0216  -0.0001934  0.001328  0.007301  0.5833  0.4018
6.545e+09  0.8568  0.3586  0.02964  0.003593  0.05949  0.05643  0.7202  0.1692
6.546e+09  0.9971  0.06364  0.008678  -0.00146  -0.01748  0.03411  0.7371  -0.08827
6.548e+09  0.9181  -0.2719  0.02902  0.002277  -0.03318  -0.02252  0.6248  -0.3051
6.549e+09  0.7745  -0.5476  0.01876  -0.004961  -0.008215  0.006691  0.5026  -0.5342
6.55e+09  0.5305  -0.778  -0.01384  -0.008067  0.002278  -0.006183  0.2865  -0.7097
