# Hz S RI R 50
6.25e+09  -0.4382  0.7129  0.01408  -0.0416  -0.01882  -0.007315  0.1737  0.4977
6.251e+09  -0.1179  0.869  -0.02497  3.377e-05  0.03064  0.03252  0.3804  0.4051
6.252e+09  0.1264  0.8404  -0.01961  -0.006516  0.03008  -0.001969  0.5228  0.2375
6.254e+09  0.4284  0.7483  0.03021  -0.01511  -0.06242  -0.06296  0.5882  0.0004016
6.255e+09  0.6369  0.4989  0.02768  -0.01396  -0.03296  -0.01564  0.568  -0.2118
6.256e+09  0.8072  0.2846  0.002184  0.03136  0.004662  0.0205  0.4768  -0.4308
6.258e+09  0.8351  -0.00955  -0.01494  0.003599  -0.02265  -0.06631  0.2935  -0.6185
6.259e+09  0.8182  -0.3266  -0.01897  -0.003004  0.0128  -0.04075  0.03246  -0.6838
6.26e+09  0.6588  -0.5974  0.01655  0.02681  0.002445  0.003026  -0.2225  -0.6239
6.261e+09  0.3658  -0.7325  -0.003145  0.01467  0.003655  -0.02389  -0.4248  -0.534
6.262e+09  0.1317  -0.8518  0.004424  -0.02755  0.03365  0.02647  -0.5815  -0.3766
6.264e+09  -0.194  -0.8289  0.01328  -0.000452  0.05915  -0.03654  -0.7117  -0.09692
6.265e+09  -0.4285  -0.713  0.0006485  -0.0176  -0.05931  -0.02149  -0.6575  0.1208
6.266e+09  -0.6081  -0.4713  0.02424  -0.005465  -0.01302  -0.00772  -0.5942  0.3855
6.268e+09  -0.8208  -0.2468  -0.01648  0.001863  0.006266  0.04729  -0.4025  0.6016
6.269e+09  -0.8059  0.04227  0.01504  0.007307  0.01096  -0.01389  -0.2008  0.7102
6.27e+09  -0.7223  0.3262  -0.000211  0.0009777  -0.03476  0.02111  0.06125  0.7522
6.271e+09  -0.6097  0.6034  -0.0267  -0.005955  0.01262  -0.01197  0.315  0.6498
6.272e+09  -0.4047  0.7442  0.007238  0.01178  -0.1053  -0.04118  0.5356  0.4805
6.274e+09  -0.1117  0.8213  -4.551e-05  -0.02767  8.348e-05  -0.06136  0.7269  0.2969
6.275e+09  0.246  0.8422  -0.03252  -0.02465  -0.007096  -0.04516  0.7643  0.06866
6.276e+09  0.4527  0.6506  -0.005913  0.001891  -0.0006708  0.01782  0.7311  -0.2448
6.278e+09  0.6912  0.4685  -0.004295  -0.004958  -0.01053  0.03661  0.6047  -0.4827
6.279e+09  0.7913  0.201  -0.002238  -0.01392  -0.02683  0.01424  0.4033  -0.6489
6.28e+09  0.8499  -0.03724  0.003059  -0.003311  -0.04984  0.02471  0.1771  -0.7555
6.281e+09  0.7604  -0.3269  0.002425  -0.04056  0.03071  -0.002494  -0.1103  -0.7581
6.282e+09  0.5835  -0.5674  0.006424  -0.0123  0.007536  0.05387  -0.3632  -0.6495
6.284e+09  0.351  -0.7973  0.01009  -0.0003817  0.07195  -0.008564  -0.6084  -0.5494
6.285e+09  0.09456  -0.7543  -0.00169  0.007158  -0.00443  0.001497  -0.7525  -0.3074
6.286e+09  -0.2151  -0.7583  0.01403  -0.01481  -0.02472  -0.02154  -0.7687  -0.001019
6.288e+09  -0.4684  -0.6885  0.02327  0.01824  -0.004118  -0.02393  -0.7341  0.2549
6.289e+09  -0.6408  -0.4799  0.00931  0.02854  -0.04857  -0.07777  -0.6051  0.5013
6.29e+09  -0.8244  -0.1749  -0.00854  0.007245  0.0122  -0.003387  -0.4155  0.6881
6.291e+09  -0.8287  0.08128  -0.0333  0.005926  -0.05073  0.02749  -0.1411  0.789
6.292e+09  -0.7323  0.332  0.007489  -0.01273  -0.004644  -0.05862  0.1208  0.7872
6.294e+09  -0.5667  0.5993  -0.006909  -0.03114  -0.01187  0.03926  0.3819  0.6926
6.295e+09  -0.3106  0.8389  -0.004291  -0.002206  -0.01777  0.007309  0.5662  0.5127
6.296e+09  -0.06113  0.8593  -0.0003333  -0.02036  0.01532  0.009439  0.7687  0.2712
6.298e+09  0.2719  0.7708  -0.007722  -0.006388  0.0002093  0.02128  0.7999  0.02154
6.299e+09  0.5222  0.6476  -0.01961  -0.006106  -0.02333  -0.01376  0.7736  -0.2775
6.3e+09  0.6726  0.4188  1.539e-05  -0.02349  -0.007409  0.006873  0.6507  -0.5173
6.301e+09  0.7881  0.2219  -0.01299  0.02092  0.04816  0.01534  0.4329  -0.7444
6.302e+09  0.8465  -0.04861  0.01046  0.0009102  0.02428  0.09363  0.1498  -0.8116
6.304e+09  0.7155  -0.3754  -0.03717  0.0146  0.02111  0.008931  -0.1396  -0.807
6.305e+09  0.5843  -0.6349  -0.0186  0.008924  0.008227  0.01295  -0.395  -0.7266
6.306e+09  0.3148  -0.7685  0.01881  -0.01363  -0.02207  0.01675  -0.6427  -0.5329
6.308e+09  0.05385  -0.8556  -0.01111  -0.03193  -0.05807  -0.02482  -0.8183  -0.3004
6.309e+09  -0.2835  -0.7689  0.02793  0.00722  -0.002953  0.02991  -0.8279  -0.01314
6.31e+09  -0.5067  -0.6171  -0.01088  -0.02075  0.04361  -0.02705  -0.8163  0.2836
6.311e+09  -0.7287  -0.4245  -0.04678  -0.02317  -0.01123  0.01894  -0.657  0.5549
6.312e+09  -0.8964  -0.1025  4.375e-05  -0.0379  -0.03122  -0.002155  -0.4609  0.7692
6.314e+09  -0.8372  0.149  -0.003363  0.001181  0.03149  -0.03586  -0.1753  0.8796
6.315e+09  -0.7531  0.3934  0.01749  -0.02078  0.06192  0.0444  0.1631  0.8758
6.316e+09  -0.5365  0.6639  0.002506  -0.02131  0.003083  -0.005883  0.4471  0.7609
6.318e+09  -0.3113  0.7926  -9.357e-05  0.01802  -0.002569  -0.0006038  0.6581  0.577
6.319e+09  0.01092  0.8279  -0.003173  -0.01349  0.01317  0.03755  0.8212  0.3333
6.32e+09  0.3321  0.819  0.02751  0.01876  -0.02007  -0.02183  0.8836  0.003256
6.321e+09  0.5387  0.628  -0.02541  0.001557  0.02362  0.004756  0.8432  -0.2763
6.322e+09  0.7886  0.3764  -0.002012  -0.00012  -0.02272  0.03645  0.7037  -0.5494
6.324e+09  0.8593  0.1445  -0.02455  -0.02034  0.0195  -0.004902  0.4692  -0.7612
6.325e+09  0.8126  -0.1787  0.01899  -0.02359  -0.01656  -0.006855  0.1974  -0.8872
6.326e+09  0.6968  -0.4887  -0.01392  0.003906  -0.03473  0.007059  -0.1163  -0.8924
6.328e+09  0.5091  -0.7172  0.00993  0.02229  0.01081  0.04382  -0.4385  -0.7804
6.329e+09  0.2381  -0.7858  0.0233  -0.001098  0.02165  -0.007081  -0.707  -0.5951
6.33e+09  -0.02883  -0.8229  0.03181  -0.003949  0.0002962  0.04069  -0.8446  -0.3258
6.331e+09  -0.3689  -0.7903  0.01055  -0.01619  -0.005085  -0.04238  -0.8683  -0.01981
6.332e+09  -0.6358  -0.6464  0.001167  -0.02042  0.003274  0.01691  -0.8638  0.2904
6.334e+09  -0.7889  -0.3826  -0.02097  0.003165  -0.01824  -0.01537  -0.7322  0.513
6.335e+09  -0.8972  -0.08558  0.02174  -0.01319  0.06043  -0.02454  -0.4542  0.7715
6.336e+09  -0.85  0.2123  -0.01611  0.03774  0.01077  -0.004151  -0.1903  0.8904
6.338e+09  -0.6911  0.4594  0.01669  -0.02669  -0.01525  -0.0003875  0.1264  0.8819
6.339e+09  -0.4338  0.7142  -0.02756  0.01715  -0.01409  0.04511  0.4395  0.7864
6.34e+09  -0.1723  0.8781  -0.00527  0.002955  -0.03316  0.001125  0.6664  0.6777
6.341e+09  0.1201  0.8662  0.01218  -0.02597  -0.04746  -0.01988  0.8352  0.349
6.342e+09  0.4157  0.7447  -0.005517  0.01022  -0.0532  -0.00476  0.9424  0.03676
6.344e+09  0.6308  0.5663  -0.009388  0.009612  -0.007497  -0.01626  0.915  -0.2285
6.345e+09  0.8171  0.3758  0.006407  -0.003745  -0.03244  -0.008456  0.7108  -0.5771
6.346e+09  0.8992  0.03283  0.01886  0.01435  0.05904  -0.04668  0.5093  -0.7597
6.348e+09  0.8091  -0.3072  0.0006923  -0.01811  -0.0404  0.01607  0.2028  -0.9021
6.349e+09  0.6797  -0.548  0.02021  0.003967  -0.02472  0.01119  -0.09313  -0.9458
6.35e+09  0.453  -0.7902  0.03117  -0.0148  -0.0439  0.04417  -0.3948  -0.833
6.351e+09  0.1024  -0.8568  -0.0354  -0.005488  -0.0329  0.02045  -0.6466  -0.6645
6.352e+09  -0.1887  -0.7876  -0.003291  -0.007742  -0.009467  -0.0436  -0.8497  -0.3527
6.354e+09  -0.435  -0.7831  0.002703  -0.01237  0.03568  0.04629  -0.9265  -0.05533
6.355e+09  -0.7302  -0.5521  -0.01294  0.02832  0.003869  -0.002634  -0.9164  0.2441
6.356e+09  -0.8491  -0.2484  -0.04156  -0.0103  -0.00298  0.0202  -0.7395  0.5401
6.358e+09  -0.9035  0.01889  -0.001928  -0.008209  -0.001945  -0.01166  -0.5066  0.7697
6.359e+09  -0.8406  0.3606  -0.01774  -0.02244  -0.01256  -0.02077  -0.2227  0.921
6.36e+09  -0.6494  0.5959  0.004484  0.007423  0.02174  -0.01564  0.1151  0.9063
6.361e+09  -0.3543  0.8064  0.01214  -0.03445  0.0002514  -0.01804  0.4182  0.8431
6.362e+09  -0.1091  0.8626  -0.01116  0.04213  -0.03903  0.007253  0.6953  0.6814
6.364e+09  0.2484  0.7757  -0.01714  -0.01767  0.005034  -0.01994  0.8513  0.3923
6.365e+09  0.4866  0.7114  -0.02504  -0.01166  0.01498  0.01227  0.9435  0.08141
6.366e+09  0.7934  0.4868  -0.02051  0.01293  -0.007855  0.01218  0.9183  -0.2507
6.368e+09  0.8675  0.1374  0.009862  0.009649  0.02792  0.02001  0.8006  -0.536
6.369e+09  0.8734  -0.09136  -0.03002  -0.0003524  -0.03595  0.01107  0.5247  -0.7417
6.37e+09  0.7434  -0.3783  0.01574  -0.04339  -0.008533  -0.03914  0.2321  -0.9186
6.371e+09  0.6606  -0.6745  0.008547  0.009193  -0.03636  -0.009088  -0.08887  -0.9636
6.372e+09  0.3245  -0.8303  0.02103  0.000673  0.03854  0.005906  -0.4369  -0.8603
6.374e+09  0.03951  -0.8722  -0.01294  -0.002283  -0.0108  -0.02421  -0.663  -0.6761
6.375e+09  -0.2961  -0.8406  -0.00185  -0.01559  0.03507  0.004463  -0.8548  -0.438
6.376e+09  -0.5244  -0.6711  0.04415  -0.003381  0.005418  -0.02188  -0.9277  -0.1024
6.378e+09  -0.7829  -0.528  0.02282  -0.01366  -0.07322  -0.03034  -0.8993  0.2338
6.379e+09  -0.8204  -0.1981  -0.01297  -0.0141  -0.003282  -0.02414  -0.7905  0.5079
6.38e+09  -0.8684  0.1312  -0.008195  0.01226  0.0009726  -0.02179  -0.5548  0.752
6.381e+09  -0.8001  0.4476  0.03777  0.04209  0.01976  -0.04317  -0.275  0.8843
6.382e+09  -0.5739  0.6993  0.001986  0.009543  0.01832  0.04986  0.08038  0.9416
6.384e+09  -0.353  0.8121  0.01772  0.04062  -0.004716  0.01958  0.4017  0.8914
6.385e+09  0.01118  0.9371  0.00494  0.03578  0.05814  -0.02974  0.631  0.6935
6.386e+09  0.3266  0.8176  0.02935  -0.003525  0.04354  -0.01014  0.848  0.4159
6.388e+09  0.5756  0.6664  -0.01765  0.0005722  0.03968  -0.04552  0.9475  0.1017
6.389e+09  0.8499  0.4285  -0.01385  0.004213  -0.009405  0.01671  0.9272  -0.2208
6.39e+09  0.8787  0.08953  0.04477  0.009029  -0.00358  0.01236  0.7486  -0.5169
6.391e+09  0.8618  -0.2073  -0.02811  0.0149  -0.05587  -0.01881  0.559  -0.733
6.392e+09  0.7486  -0.4558  0.01888  0.01481  -0.04862  -0.009968  0.2665  -0.8727
6.394e+09  0.5407  -0.7123  0.01366  -0.002087  -0.03678  0.01498  -0.01531  -0.8918
6.395e+09  0.3203  -0.8267  -0.01994  -0.006917  -0.05405  0.01403  -0.3119  -0.8636
6.396e+09  0.00848  -0.9345  -0.01037  0.003636  0.01172  -0.02205  -0.5788  -0.6314
6.398e+09  -0.3047  -0.8318  -0.02164  0.01176  0.005817  0.03144  -0.7931  -0.4474
6.399e+09  -0.6405  -0.6544  -0.03318  0.005328  -0.02012  -0.003515  -0.901  -0.169
6.4e+09  -0.8015  -0.3991  -0.02379  0.001766  0.01759  0.02384  -0.8926  0.1409
6.401e+09  -0.8163  -0.1198  -0.03106  0.002571  0.03227  0.001695  -0.7726  0.4722
6.402e+09  -0.8241  0.2014  0.008803  0.009699  -0.02238  0.01113  -0.5512  0.6917
6.404e+09  -0.7563  0.5022  -0.004238  0.02783  -0.006738  -0.01837  -0.3562  0.8599
6.405e+09  -0.5659  0.731  0.05796  0.02361  0.02776  0.001291  -0.004174  0.8852
6.406e+09  -0.2637  0.8612  0.02275  -0.01725  -0.02479  -0.01425  0.3075  0.8647
6.408e+09  0.04861  0.8884  0.02473  -0.02429  0.03453  -0.03614  0.603  0.6982
6.409e+09  0.3136  0.8334  -0.03701  0.02247  -0.01684  0.008841  0.7496  0.4552
6.41e+09  0.5871  0.6234  0.01068  0.02184  0.006776  0.002784  0.8868  0.141
6.411e+09  0.8189  0.4284  -0.006847  -0.01897  -0.03563  -0.01783  0.8891  -0.1398
6.412e+09  0.8836  0.05951  0.04124  -0.0136  0.01237  -0.0494  0.835  -0.4094
6.414e+09  0.8418  -0.2192  -0.0211  0.01585  0.0073  0.006345  0.6026  -0.6843
6.415e+09  0.7167  -0.4887  -0.01562  0.03518  0.01421  0.02475  0.3447  -0.81
6.416e+09  0.5607  -0.7463  -0.02652  -0.0122  -0.04965  0.04151  0.0264  -0.9167
6.418e+09  0.2446  -0.9016  0.01508  0.02381  0.0005316  -0.01353  -0.2856  -0.8621
6.419e+09  -0.07279  -0.8823  0.007899  0.07391  0.0116  0.04618  -0.5279  -0.6567
6.42e+09  -0.3934  -0.8584  0.01641  0.003825  -0.008983  -0.00184  -0.7921  -0.4928
6.421e+09  -0.6321  -0.582  0.001001  0.01436  -0.05754  -0.002251  -0.84  -0.1859
6.422e+09  -0.8366  -0.4247  0.01598  -0.03351  -0.05202  -0.0003725  -0.8896  0.143
6.424e+09  -0.903  -0.06115  -0.001226  0.004906  -0.02609  0.007274  -0.8337  0.4028
6.425e+09  -0.8576  0.2819  0.02257  -0.009198  -0.06832  -0.04461  -0.5721  0.6504
6.426e+09  -0.7423  0.4976  0.02006  -0.0111  -0.01226  0.03287  -0.3698  0.7968
6.428e+09  -0.5118  0.7253  0.01376  -0.02516  -0.03432  0.006817  -0.04249  0.8505
6.429e+09  -0.1808  0.8456  0.1016  0.03853  0.05233  -0.003941  0.2311  0.8802
6.43e+09  0.1137  0.8799  0.03674  -0.02831  0.02264  -0.04303  0.4896  0.6998
6.431e+09  0.4003  0.7638  -0.003523  -0.01778  0.02004  -0.03247  0.6978  0.4869
6.432e+09  0.6266  0.5695  -0.001491  0.003168  0.0138  0.01282  0.8492  0.254
6.434e+09  0.7675  0.3828  0.03234  -0.007283  -0.03779  -0.01075  0.8856  -0.07873
6.435e+09  0.9118  0.06211  -0.02472  -0.02699  0.01569  -0.001138  0.8324  -0.3986
6.436e+09  0.8333  -0.1857  0.01261  -0.0141  -0.05874  0.01227  0.635  -0.59
6.438e+09  0.6889  -0.5154  0.01306  -0.003142  0.01744  -0.02696  0.399  -0.8416
6.439e+09  0.4189  -0.7247  0.02357  0.001351  -0.00231  -0.003685  0.05397  -0.8739
6.44e+09  0.2145  -0.8695  0.001766  0.015  -0.04625  0.05442  -0.1645  -0.8081
6.441e+09  -0.063  -0.9209  -0.01979  -0.01557  -0.0285  -0.005673  -0.4657  -0.6581
6.442e+09  -0.4368  -0.7672  -0.01455  -0.005147  0.002564  -0.01742  -0.6874  -0.5024
6.444e+09  -0.6586  -0.5813  -0.01298  0.03591  -0.02854  0.01338  -0.8402  -0.1668
6.445e+09  -0.7874  -0.3038  -0.01037  -0.01929  0.03435  -0.02666  -0.8877  0.08549
6.446e+09  -0.8581  -0.04271  0.0254  -0.04213  -0.01374  -0.03395  -0.7895  0.3924
6.448e+09  -0.7986  0.261  0.008449  0.03231  0.002401  0.02269  -0.6016  0.5937
6.449e+09  -0.6798  0.5229  0.0352  0.008382  0.0592  0.04068  -0.4003  0.7405
6.45e+09  -0.5412  0.7237  0.004138  -0.0115  -0.03555  0.03261  -0.03421  0.8226
6.451e+09  -0.2291  0.8615  0.01133  0.03443  0.01117  0.02185  0.208  0.7848
6.452e+09  0.1017  0.9179  0.02467  -0.01726  -0.008913  0.01104  0.4994  0.6253
6.454e+09  0.4323  0.8208  0.002285  -0.006108  -0.03472  0.02067  0.6492  0.4674
6.455e+09  0.6312  0.5804  -0.02812  -0.03227  -0.01446  -0.0005485  0.7978  0.1859
6.456e+09  0.8457  0.3494  -0.02196  -0.000648  -0.0103  0.008754  0.8285  -0.06389
6.458e+09  0.9685  -0.01007  0.001288  0.01786  0.0008257  -0.002851  0.7366  -0.3716
6.459e+09  0.7619  -0.2956  0.001235  -0.01869  -0.02959  0.0207  0.5828  -0.577
6.46e+09  0.7391  -0.5206  -0.006796  0.01872  0.005235  0.03603  0.3752  -0.7242
6.461e+09  0.4622  -0.7072  -0.005642  -0.008398  0.02227  0.01236  0.05772  -0.777
6.462e+09  0.1537  -0.8741  0.006718  0.009171  0.01294  -0.01494  -0.2058  -0.7933
6.464e+09  -0.177  -0.8752  -0.03268  0.00939  0.01395  0.01073  -0.4631  -0.6365
6.465e+09  -0.4455  -0.7701  -0.02003  -0.01296  -0.003307  -0.00217  -0.6462  -0.4353
6.466e+09  -0.6853  -0.6453  -0.002287  0.02917  -0.0153  -0.01217  -0.7541  -0.192
6.468e+09  -0.8567  -0.3654  0.05137  -0.03966  0.01006  -0.02979  -0.841  0.07451
6.469e+09  -0.8447  -0.03122  -0.00119  -0.0005365  -0.0126  0.006314  -0.7167  0.3861
6.47e+09  -0.8427  0.2846  0.00259  -0.02063  0.0007577  -0.009405  -0.5584  0.5866
6.471e+09  -0.696  0.5604  0.01433  -0.003178  -0.04115  0.03077  -0.3718  0.7228
6.472e+09  -0.4937  0.7733  -0.01007  0.02996  -0.01073  -0.007765  -0.03848  0.7844
6.474e+09  -0.1508  0.8788  -0.008157  0.02376  0.01255  -0.007202  0.2182  0.7562
6.475e+09  0.1283  0.9635  0.03452  -0.03001  0.01893  0.01804  0.4711  0.6262
6.476e+09  0.3997  0.7958  -0.03281  0.008895  -0.0138  0.06672  0.6773  0.4583
6.478e+09  0.7346  0.5821  0.01136  -0.009182  0.02201  -0.002696  0.7829  0.1554
6.479e+09  0.8324  0.3  -0.0192  0.01258  0.005975  0.01285  0.7954  -0.1142
6.48e+09  0.951  0.005091  -0.02073  -0.02277  0.01244  -0.01527  0.7042  -0.3295
6.481e+09  0.8763  -0.306  0.001068  0.04392  -0.04254  -0.01638  0.5584  -0.5369
6.482e+09  0.71  -0.6041  -1.392e-05  -0.03453  0.005636  0.01838  0.3142  -0.6854
6.484e+09  0.4749  -0.8354  -0.03431  0.006713  -0.034  -0.00751  0.06182  -0.8018
6.485e+09  0.1277  -0.8804  0.01035  -0.003744  -0.007286  -0.02767  -0.2108  -0.7422
6.486e+09  -0.1664  -0.8944  -0.007332  0.006212  0.02983  -0.03293  -0.4541  -0.6105
6.488e+09  -0.5018  -0.7954  -0.01708  0.01163  0.02461  0.03166  -0.6609  -0.429
6.489e+09  -0.6582  -0.5885  -0.046  0.0003165  -0.03607  0.009679  -0.7684  -0.2037
6.49e+09  -0.8536  -0.2821  -0.046  0.01678  0.0095  0.01437  -0.7451  0.1037
6.491e+09  -0.9139  0.05054  0.007648  -0.01796  -0.01815  0.007291  -0.7029  0.3565
6.492e+09  -0.8528  0.3611  0.02387  -0.02609  0.03255  0.03653  -0.5443  0.5576
6.494e+09  -0.7174  0.5857  0.0354  -0.02994  0.005009  -0.01359  -0.2723  0.6936
6.495e+09  -0.4218  0.8247  0.0005622  0.003321  -0.01597  -0.005858  -0.07423  0.817
6.496e+09  -0.1324  0.9279  0.02759  -0.00988  0.03698  0.04278  0.222  0.7067
6.498e+09  0.1678  0.9355  -0.0004379  -0.008924  0.03899  -0.01757  0.4381  0.6252
6.499e+09  0.4794  0.7808  0.03537  0.001715  -0.0187  -0.01051  0.6486  0.3904
6.5e+09  0.673  0.5657  -0.04641  -0.02817  -0.01353  -0.02498  0.7387  0.1857
6.501e+09  0.8973  0.2747  -0.005555  -0.03227  0.03957  -0.005522  0.7525  -0.1122
6.502e+09  0.9154  -0.05289  -0.02368  -0.0164  -0.0435  0.00174  0.7017  -0.3564
6.504e+09  0.8142  -0.3841  0.000373  -0.01963  0.01704  0.02419  0.4968  -0.5425
6.505e+09  0.6907  -0.6255  -0.007594  -0.01918  -0.03461  0.01348  0.2845  -0.7027
6.506e+09  0.3849  -0.8523  0.004137  0.0144  0.01847  0.004171  0.03901  -0.7571
6.508e+09  0.134  -0.9847  0.05079  0.01076  -0.01604  -0.007946  -0.2264  -0.707
6.509e+09  -0.2121  -0.9506  -0.009989  0.008297  -0.03229  0.01696  -0.4989  -0.5785
6.51e+09  -0.5503  -0.7311  0.01287  0.03869  0.01728  0.001438  -0.6487  -0.3921
6.511e+09  -0.7061  -0.5412  -0.008121  -0.03168  0.04856  -0.01275  -0.7428  -0.1607
6.512e+09  -0.8316  -0.296  -0.0173  -0.01079  0.03878  -0.0225  -0.7351  0.1144
6.514e+09  -0.9667  0.09036  -0.024  0.05055  -0.01481  0.001147  -0.649  0.3834
6.515e+09  -0.8699  0.4015  -0.03254  -0.03317  0.05537  0.01363  -0.483  0.58
6.516e+09  -0.7161  0.7308  -0.005331  0.04673  -0.0005606  -0.04605  -0.2628  0.6962
6.518e+09  -0.3946  0.8666  -0.001165  0.01252  0.03985  -0.02004  0.001294  0.7749
6.519e+09  -0.04833  0.9531  -0.01983  0.02407  -0.003093  -0.05  0.2906  0.689
6.52e+09  0.2706  0.9329  -0.0163  -0.008583  0.03217  0.004808  0.4772  0.5455
6.521e+09  0.6085  0.8056  -0.01205  0.0303  -0.01421  0.03745  0.6639  0.3297
6.522e+09  0.7619  0.5065  0.01416  -0.002461  0.0008089  0.01087  0.7226  0.1064
6.524e+09  0.9197  0.2317  -0.01137  0.01517  0.006197  0.004219  0.6921  -0.172
6.525e+09  0.9039  -0.1176  -0.01366  0.03231  0.003312  -0.01002  0.565  -0.3921
6.526e+09  0.8516  -0.4597  0.006051  0.0004111  0.02275  -0.01014  0.4483  -0.5617
6.528e+09  0.5962  -0.7018  -0.01608  -0.01788  0.01699  -0.04706  0.1667  -0.6796
6.529e+09  0.3746  -0.89  -0.006915  0.006854  -0.01051  -0.01834  -0.03795  -0.7165
6.53e+09  0.02264  -0.9935  -0.02657  0.001408  0.02289  -0.01226  -0.2801  -0.6278
6.531e+09  -0.2829  -0.8824  0.009816  0.01991  0.0394  -0.04824  -0.4827  -0.4745
6.532e+09  -0.6045  -0.7988  -0.0009879  -0.02152  -0.02473  -0.005637  -0.594  -0.2866
6.534e+09  -0.8737  -0.4832  0.004976  0.009842  -0.01654  -0.007886  -0.6271  -0.07366
6.535e+09  -0.9635  -0.1816  -0.005012  0.01712  0.006143  0.02774  -0.6242  0.1264
6.536e+09  -0.9073  0.1768  0.003087  -0.0382  0.05026  0.004547  -0.5792  0.3167
6.538e+09  -0.8268  0.604  0.00537  -0.01183  -0.009725  -0.01821  -0.4515  0.4911
6.539e+09  -0.6088  0.7797  0.004619  -0.01612  -0.0446  0.0199  -0.2356  0.5555
6.54e+09  -0.3068  0.9316  0.02476  -0.02715  -0.0001191  0.01882  -0.04694  0.6666
6.541e+09  0.06919  0.9888  0.02191  -0.02265  0.01749  0.06585  0.1618  0.6803
6.542e+09  0.4109  0.9016  -0.006271  0.008953  0.0232  0.04757  0.3958  0.5871
6.544e+09  0.7009  0.7059  0.0169  -0.02601  -0.01402  0.008699  0.6093  0.4086
6.545e+09  0.9034  0.3653  0.008851  0.01067  0.01058  0.03096  0.6993  0.1749
6.546e+09  0.9836  0.09566  -0.01628  -0.015  -0.01428  0.04294  0.6858  -0.07169
6.548e+09  0.93  -0.2404  0.001814  0.02589  -0.05826  0.01672  0.6466  -0.2932
6.549e+09  0.7981  -0.5348  0.002827  -0.02954  -0.01265  -0.02802  0.5147  -0.523
6.55e+09  0.5324  -0.8084  0.01405  -0.01223  -0.01092  0.08029  0.2764  -0.7052
