# Hz S RI R 50
6.25e+09  -0.06921  0.8552  -0.005151  -0.01889  -0.00867  0.03937  0.1575  0.4833
6.251e+09  0.2193  0.8292  0.0148  0.01572  0.03101  0.01218  0.3735  0.3901
6.252e+09  0.5583  0.6992  -0.03804  -0.009465  0.007396  0.07546  0.5214  0.2303
6.254e+09  0.6839  0.507  -0.02574  -0.0006283  0.07205  0.1103  0.6365  0.02364
6.255e+09  0.8338  0.2359  -0.009199  0.02135  0.04673  0.001388  0.5979  -0.2258
6.256e+09  0.8998  -0.08971  0.01104  -0.01148  8.488e-05  0.008561  0.4714  -0.465
6.258e+09  0.7583  -0.4025  0.02567  -0.009208  0.0007068  -0.01462  0.2791  -0.56
6.259e+09  0.5113  -0.6304  0.0168  -0.000393  -0.001285  -0.007932  0.05449  -0.6719
6.26e+09  0.2971  -0.7304  0.02383  0.009683  0.01307  0.01454  -0.2257  -0.6783
6.261e+09  0.04565  -0.8061  0.03556  0.01125  -0.01405  0.002544  -0.4134  -0.5481
6.262e+09  -0.2284  -0.8077  -0.009217  -0.01883  0.02282  -0.01785  -0.5946  -0.344
6.264e+09  -0.4832  -0.6313  -0.005514  0.01302  -0.01974  -0.01397  -0.7201  -0.1001
6.265e+09  -0.7042  -0.4446  0.003522  -0.004026  -0.03114  0.08851  -0.7257  0.1683
6.266e+09  -0.805  -0.1205  -0.00458  -0.03116  -0.02713  0.01239  -0.6113  0.3761
6.268e+09  -0.8733  0.1499  0.04351  -0.003586  -0.05094  -0.04032  -0.4348  0.5579
6.269e+09  -0.6888  0.3562  -0.009861  -0.01626  -0.03683  0.0104  -0.1752  0.714
6.27e+09  -0.5233  0.6412  0.003798  -0.002335  -0.0289  -0.01497  0.0927  0.7479
6.271e+09  -0.294  0.8046  0.008316  -0.02095  -0.03983  -0.02334  0.3468  0.675
6.272e+09  -0.01924  0.7956  -0.01518  -0.008799  0.03637  0.04461  0.538  0.49
6.274e+09  0.2853  0.8091  0.005496  -0.002552  -0.04983  0.01393  0.6761  0.2989
6.275e+09  0.5209  0.6891  0.001277  0.01659  -0.001268  0.07427  0.7809  0.02769
6.276e+09  0.7044  0.4081  0.01038  -0.01849  -0.0113  0.0053  0.7229  -0.2183
6.278e+09  0.821  0.1186  -0.006664  0.02407  0.0003479  -0.001787  0.6171  -0.4574
6.279e+09  0.8536  -0.1436  -0.01714  0.008738  0.01663  -0.004387  0.4266  -0.6511
6.28e+09  0.7135  -0.4148  0.01261  0.01658  0.01343  -0.04173  0.1809  -0.7444
6.281e+09  0.5145  -0.6365  -0.007414  -0.02741  0.03531  -0.01164  -0.09249  -0.7547
6.282e+09  0.2902  -0.7829  0.007049  -0.01486  -0.009233  4.17e-05  -0.3596  -0.6827
6.284e+09  0.004161  -0.8314  0.001117  0.02426  -0.02839  -0.00659  -0.5865  -0.5065
6.285e+09  -0.2976  -0.752  0.008179  -0.01009  -0.01985  -0.003133  -0.7454  -0.2813
6.286e+09  -0.5324  -0.5913  -0.03066  -0.001906  0.01494  0.00899  -0.7918  0.01301
6.288e+09  -0.7419  -0.425  -0.02199  -0.02789  -0.01989  0.01896  -0.7561  0.3211
6.289e+09  -0.7821  -0.05045  0.01161  -0.01606  0.009626  -0.01235  -0.6162  0.4651
6.29e+09  -0.8093  0.2012  0.02548  -0.005461  -0.04306  0.00169  -0.4135  0.6912
6.291e+09  -0.7619  0.4751  -0.01741  0.01376  0.03164  0.0007487  -0.149  0.7856
6.292e+09  -0.5148  0.6791  -0.002652  0.00121  0.000334  0.04221  0.1126  0.8215
6.294e+09  -0.3018  0.8031  0.005163  0.03361  0.0417  0.07015  0.3907  0.7036
6.295e+09  0.09295  0.8024  0.02021  -0.01637  0.02266  0.008688  0.6378  0.5356
6.296e+09  0.3689  0.7454  -0.01315  -0.003877  -0.05307  -0.03334  0.7794  0.3057
6.298e+09  0.5977  0.613  -0.01024  -0.01082  0.02841  -0.01553  0.8298  0.02689
6.299e+09  0.7533  0.3929  0.01714  -0.0001019  0.002241  -0.01649  0.7912  -0.2979
6.3e+09  0.7909  0.06133  0.02539  -0.008536  0.01813  0.02838  0.6583  -0.5328
6.301e+09  0.8188  -0.1524  0.01994  -0.005008  -0.02523  -0.006774  0.4268  -0.7294
6.302e+09  0.6989  -0.5171  0.000412  0.006555  -0.01218  -0.001671  0.1612  -0.7974
6.304e+09  0.5035  -0.7074  0.002108  -0.01222  0.03907  0.003541  -0.1211  -0.8477
6.305e+09  0.226  -0.8123  -0.005072  0.0146  -0.021  -0.009035  -0.3802  -0.748
6.306e+09  -0.1101  -0.8739  -0.01991  0.02784  0.03271  0.002229  -0.6382  -0.5455
6.308e+09  -0.3677  -0.7018  0.002012  -0.02013  0.04044  0.01655  -0.7851  -0.3497
6.309e+09  -0.5956  -0.5078  -0.003855  -0.03876  0.05144  -0.001176  -0.863  0.02052
6.31e+09  -0.7752  -0.3581  -0.02265  -0.01643  -0.007284  -0.03481  -0.8379  0.263
6.311e+09  -0.8462  0.02816  -0.005922  0.005478  -0.03958  -0.04413  -0.691  0.5339
6.312e+09  -0.7779  0.2367  -0.01232  0.002257  -0.03061  0.02472  -0.4562  0.7459
6.314e+09  -0.7011  0.5333  -0.0154  -0.0269  -0.007864  -0.01447  -0.1878  0.8536
6.315e+09  -0.4394  0.699  0.01716  -0.01925  0.03322  0.02228  0.1694  0.8299
6.316e+09  -0.1988  0.8823  0.01153  0.03765  0.01375  -0.0009242  0.426  0.7437
6.318e+09  0.1405  0.8414  0.006322  0.01967  0.01788  -0.04943  0.662  0.534
6.319e+09  0.4922  0.7263  -0.006211  0.02326  0.02409  -0.001097  0.8274  0.3131
6.32e+09  0.6934  0.6047  -0.02276  0.01631  -0.004059  0.00123  0.8891  0.02284
6.321e+09  0.7825  0.2679  0.003362  -0.008685  0.01486  0.01943  0.8418  -0.2958
6.322e+09  0.9188  -0.03018  -0.02233  -0.01841  0.006436  -0.01558  0.7103  -0.5516
6.324e+09  0.7572  -0.3178  0.01185  -0.01657  0.01872  0.01383  0.454  -0.7664
6.325e+09  0.629  -0.5324  0.007333  -0.03159  -0.01481  -0.02913  0.1473  -0.8704
6.326e+09  0.319  -0.7858  0.03022  0.01041  0.01652  -0.006929  -0.1545  -0.8988
6.328e+09  0.1376  -0.8605  0.02927  -0.002251  -0.007092  -0.03034  -0.4261  -0.7682
6.329e+09  -0.2486  -0.8495  -0.03782  -0.02959  0.01365  0.04085  -0.6883  -0.6106
6.33e+09  -0.4895  -0.6824  -0.01877  -0.001606  0.01217  0.00766  -0.8581  -0.3429
6.331e+09  -0.7341  -0.5225  0.006092  -0.01119  0.01943  0.003148  -0.9183  -0.05435
6.332e+09  -0.8116  -0.2138  -0.009058  0.007324  -0.02273  0.006212  -0.8932  0.2927
6.334e+09  -0.843  0.1013  -0.01264  -0.008444  -0.02571  0.007764  -0.7235  0.5856
6.335e+09  -0.811  0.3029  -0.003378  -0.03504  0.02356  0.001036  -0.4714  0.784
6.336e+09  -0.6558  0.6283  0.04285  -0.007471  0.03416  -0.01825  -0.219  0.8802
6.338e+09  -0.3108  0.7896  0.008316  -0.01118  0.006991  -0.01432  0.1515  0.893
6.339e+09  -0.08479  0.8781  -0.03325  0.01446  -0.02133  -0.03517  0.4087  0.8219
6.34e+09  0.2092  0.8194  -0.02896  -0.03247  0.00414  0.02512  0.6612  0.6177
6.341e+09  0.5521  0.6943  0.01794  -0.0195  0.005315  0.01141  0.8251  0.3425
6.342e+09  0.7167  0.4826  -0.002817  0.01568  -0.04645  0.0156  0.9024  0.04199
6.344e+09  0.8525  0.1857  -0.0112  -0.009104  -0.02026  -0.02466  0.9031  -0.2504
6.345e+09  0.862  -0.1385  -0.01965  -0.02329  -0.02524  0.01762  0.7529  -0.5408
6.346e+09  0.7867  -0.4415  -0.002064  -0.01109  0.03184  -0.01609  0.5083  -0.7627
6.348e+09  0.539  -0.6872  0.03763  0.013  -0.02747  -0.003451  0.2306  -0.9189
6.349e+09  0.3275  -0.8502  0.01459  0.0148  -0.02344  -0.01994  -0.1303  -0.9323
6.35e+09  -0.03286  -0.8681  -0.008349  0.03011  -0.02837  -0.03577  -0.4322  -0.823
6.351e+09  -0.2953  -0.7816  -0.000618  -0.001955  0.005248  0.04259  -0.6583  -0.638
6.352e+09  -0.6326  -0.7037  0.005872  -0.002536  0.009249  -0.007955  -0.8594  -0.3731
6.354e+09  -0.806  -0.4388  0.02197  0.01378  0.006486  -0.03286  -0.9457  -0.07101
6.355e+09  -0.8481  -0.1138  -0.01779  -0.008001  -0.01088  0.03475  -0.94  0.2238
6.356e+09  -0.8505  0.2274  -0.01044  -0.004055  -0.05191  -0.04175  -0.7438  0.5643
6.358e+09  -0.7574  0.4661  0.0194  -0.002065  0.01567  0.01619  -0.5127  0.7822
6.359e+09  -0.551  0.6706  0.01405  -0.03119  -0.0133  0.02051  -0.2044  0.9583
6.36e+09  -0.258  0.8311  -0.03376  -0.002914  -0.01484  0.02259  0.07898  0.9374
6.361e+09  0.0868  0.8583  -0.01418  0.02783  -0.00181  0.008506  0.377  0.8688
6.362e+09  0.3364  0.8379  0.001092  -0.01029  -0.007592  0.05478  0.6551  0.655
6.364e+09  0.597  0.6531  -0.01182  -0.02133  0.006599  0.003709  0.871  0.4136
6.365e+09  0.8319  0.3807  0.03962  -0.01248  -0.02827  -0.007634  0.9132  0.09159
6.366e+09  0.9544  0.1117  0.007032  0.01434  0.01257  0.01447  0.8907  -0.241
6.368e+09  0.8764  -0.2677  -0.02193  -0.03076  0.03523  0.01871  0.788  -0.5465
6.369e+09  0.7017  -0.514  -0.01609  0.01874  -0.01171  -0.02492  0.5275  -0.7882
6.37e+09  0.4782  -0.7464  -0.008481  -5.706e-05  0.001056  -0.001313  0.2532  -0.9185
6.371e+09  0.2215  -0.8436  -0.02159  0.004842  -0.001127  0.01869  -0.07138  -0.9124
6.372e+09  -0.08779  -0.8745  -0.004764  -0.04382  -0.004917  0.03322  -0.3756  -0.8861
6.374e+09  -0.4292  -0.777  -0.01534  -0.0005045  -0.01741  -0.004057  -0.6739  -0.6939
6.375e+09  -0.6449  -0.5852  -0.02735  0.0135  -0.03956  0.02878  -0.8507  -0.4362
6.376e+09  -0.8143  -0.298  -0.01328  -0.002234  -0.01009  0.02975  -0.9319  -0.06092
6.378e+09  -0.877  -0.04481  -0.06704  0.01979  -0.03742  -0.03618  -0.9219  0.2308
6.379e+09  -0.8697  0.2553  -0.001228  -0.01002  -0.002195  -0.03812  -0.8109  0.4963
6.38e+09  -0.6759  0.5509  -0.02824  0.01882  -0.01213  -0.01691  -0.5918  0.7343
6.381e+09  -0.4508  0.7636  -0.03075  0.009421  -0.05049  -0.04033  -0.2402  0.9059
6.382e+09  -0.1675  0.824  -0.01041  0.003326  0.005334  -0.06338  0.06753  0.9383
6.384e+09  0.147  0.8598  0.05424  0.01456  0.02709  0.01994  0.3187  0.8594
6.385e+09  0.4702  0.8239  0.01283  -0.02237  -0.02152  0.05977  0.5862  0.6782
6.386e+09  0.661  0.5606  0.006551  0.02321  -0.001328  -0.0009433  0.8322  0.3844
6.388e+09  0.8934  0.2725  0.01969  -0.02787  0.01708  0.02496  0.9738  0.09904
6.389e+09  0.9043  -0.01029  -0.01123  -0.01349  0.004211  0.00536  0.9188  -0.197
6.39e+09  0.8456  -0.3045  -0.01962  0.01523  -0.009344  -0.02476  0.745  -0.4914
6.391e+09  0.6919  -0.5691  0.00222  -0.01291  0.01057  -0.04948  0.5897  -0.7112
6.392e+09  0.4456  -0.7287  0.02619  0.03512  -0.02208  -0.03367  0.2794  -0.91
6.394e+09  0.1441  -0.8597  -0.01041  0.007152  0.01459  0.01898  -0.003348  -0.9347
6.395e+09  -0.1901  -0.8863  0.03177  -0.04002  -0.008098  0.02029  -0.2844  -0.8797
6.396e+09  -0.4479  -0.735  0.02488  -0.006383  0.04553  0.01601  -0.5957  -0.7002
6.398e+09  -0.6951  -0.5534  -0.01838  -0.006326  0.02144  0.01532  -0.7972  -0.4479
6.399e+09  -0.8026  -0.2774  0.01353  -0.003148  -0.01289  0.03534  -0.892  -0.1658
6.4e+09  -0.9061  0.007924  0.0605  0.01768  0.02257  -0.009412  -0.8924  0.1759
6.401e+09  -0.8594  0.3476  -0.02618  -0.02949  0.02042  0.0413  -0.7743  0.4463
6.402e+09  -0.6373  0.5653  -0.01376  -0.03785  0.03688  -0.07232  -0.613  0.734
6.404e+09  -0.3977  0.8042  -0.01456  -0.004836  0.006602  0.03648  -0.3233  0.8449
6.405e+09  -0.1079  0.8849  0.02899  -0.02254  0.05862  0.02057  0.06716  0.8881
6.406e+09  0.1506  0.8671  0.009748  0.04005  0.004975  0.04872  0.3318  0.869
6.408e+09  0.4604  0.7124  -0.01839  -0.00724  -0.009931  -0.03142  0.6068  0.7399
6.409e+09  0.6953  0.4892  -0.005106  -0.04849  -0.04159  -0.01117  0.7287  0.4318
6.41e+09  0.8598  0.214  0.03032  0.02355  0.007871  -0.002353  0.8955  0.1736
6.411e+09  0.916  -0.07612  0.07303  -0.01962  -0.009325  -0.05899  0.89  -0.1004
6.412e+09  0.7844  -0.3515  0.003952  0.04765  -0.001226  0.047  0.7853  -0.4207
6.414e+09  0.6891  -0.5884  0.003848  0.01494  -0.006476  0.003848  0.5408  -0.6613
6.415e+09  0.3844  -0.7438  -0.01501  -0.01518  -0.04187  0.02495  0.344  -0.8704
6.416e+09  0.0742  -0.952  -0.03362  -0.04041  -0.01812  -0.0061  0.008586  -0.8686
6.418e+09  -0.2082  -0.8595  -0.03366  0.01797  -0.008457  0.02864  -0.2368  -0.8268
6.419e+09  -0.5221  -0.7614  0.04399  -0.02966  -0.004319  0.02785  -0.5483  -0.7134
6.42e+09  -0.6999  -0.4767  -0.008556  -0.006972  -0.02194  0.0185  -0.7674  -0.4516
6.421e+09  -0.8501  -0.2969  -0.004282  0.005594  0.04762  -0.03229  -0.8444  -0.2072
6.422e+09  -0.91  0.1093  -0.03519  0.05591  -0.00879  0.02885  -0.8253  0.1314
6.424e+09  -0.7707  0.3436  0.002458  -0.003834  0.03331  -0.04697  -0.7696  0.3597
6.425e+09  -0.6219  0.5746  -0.007536  -0.008365  -0.01228  0.0166  -0.6355  0.6396
6.426e+09  -0.41  0.7848  -0.0003073  -0.006364  0.02079  -0.03193  -0.3782  0.7231
6.428e+09  -0.06225  0.8657  0.01009  0.009304  -0.03775  0.04722  -0.1057  0.8361
6.429e+09  0.2567  0.8734  -0.009791  0.009828  -0.00951  -0.02073  0.2723  0.8923
6.43e+09  0.5163  0.7291  -0.02363  0.01069  -0.0736  0.05248  0.554  0.7108
6.431e+09  0.7427  0.4674  -0.03063  -7.945e-05  -0.01456  -0.02714  0.7396  0.4868
6.432e+09  0.8303  0.2174  0.004595  0.02963  -0.001338  0.003105  0.8157  0.1845
6.434e+09  0.9269  -0.09504  0.01613  0.02513  -0.0113  -0.01393  0.8372  -0.08718
6.435e+09  0.791  -0.3492  -0.005689  0.02325  -0.06166  0.004088  0.83  -0.3964
6.436e+09  0.5908  -0.6753  0.0246  0.004994  0.005662  0.006929  0.5508  -0.6286
6.438e+09  0.3619  -0.8039  -0.03646  -0.01059  -0.01472  -0.06682  0.3769  -0.7868
6.439e+09  -0.02206  -0.8615  0.007725  -0.007  -0.005872  -0.003893  0.005512  -0.8701
6.44e+09  -0.2734  -0.8625  -0.00312  -0.01728  0.001691  -0.0228  -0.2284  -0.8138
6.441e+09  -0.5959  -0.7292  0.02208  0.01075  0.02324  0.0352  -0.4781  -0.7159
6.442e+09  -0.7846  -0.4558  0.04646  0.01318  0.04281  0.03836  -0.6706  -0.4921
6.444e+09  -0.8563  -0.1433  0.02047  -0.02064  -0.002752  0.0134  -0.8439  -0.2009
6.445e+09  -0.8936  0.1227  0.0179  0.006502  -0.02668  0.03839  -0.8012  0.08045
6.446e+09  -0.8148  0.3796  0.0122  -0.02815  -0.0287  -0.007502  -0.7826  0.339
6.448e+09  -0.5928  0.7085  0.01554  -0.01959  0.001906  0.01043  -0.5948  0.6207
6.449e+09  -0.3594  0.8894  -0.02223  -0.03023  -0.001216  -0.01049  -0.3362  0.7571
6.45e+09  0.0161  0.8907  -0.001916  0.015  -0.05468  0.01468  -0.03674  0.8027
6.451e+09  0.2645  0.8524  0.005079  -0.05679  -0.03307  0.03513  0.1502  0.8247
6.452e+09  0.5796  0.6983  -0.009495  -0.01052  0.01144  -0.01582  0.5251  0.676
6.454e+09  0.7851  0.4394  0.02815  -0.006987  -0.005583  -0.005452  0.6256  0.4902
6.455e+09  0.9024  0.1901  0.004738  -0.01806  -0.05421  -0.0006943  0.8102  0.1955
6.456e+09  0.9373  -0.1504  0.02299  -0.005758  -0.02275  0.02206  0.8218  -0.05504
6.458e+09  0.7701  -0.4616  0.0244  0.01777  0.02307  0.001446  0.7616  -0.4082
6.459e+09  0.5709  -0.7171  -0.0288  0.001823  -0.005655  -0.003191  0.5671  -0.5865
6.46e+09  0.3432  -0.8641  0.01594  -0.01753  0.02861  -0.02141  0.3547  -0.7153
6.461e+09  -0.06161  -0.9024  0.02381  -0.001273  0.03334  0.001655  0.06263  -0.7952
6.462e+09  -0.3284  -0.8691  -0.01245  -0.02319  0.0477  -0.03641  -0.2451  -0.7533
6.464e+09  -0.6133  -0.7043  -0.0365  0.02381  -0.04166  -0.004187  -0.4826  -0.6385
6.465e+09  -0.8002  -0.4623  -0.01847  0.01973  0.05342  -0.01035  -0.6661  -0.4732
6.466e+09  -0.9048  -0.1194  0.01468  -0.003117  -0.02464  0.03187  -0.7493  -0.2055
6.468e+09  -0.9078  0.23  0.01997  -0.01099  0.02859  0.006342  -0.7758  0.09808
6.469e+09  -0.8068  0.4774  -0.02123  -0.005393  -0.07488  -0.02723  -0.7093  0.3546
6.47e+09  -0.5382  0.741  -0.02117  -0.03591  -0.0259  0.01957  -0.5499  0.5621
6.471e+09  -0.2456  0.8933  0.04093  -0.04903  -0.03012  0.08195  -0.3312  0.7131
6.472e+09  0.121  0.9873  0.01397  0.01784  -0.009372  0.02785  -0.1013  0.7436
6.474e+09  0.3699  0.8667  -0.0376  -0.004676  -0.06656  0.03342  0.2192  0.7475
6.475e+09  0.6191  0.6622  -0.0009498  -0.03392  0.02201  0.009915  0.465  0.629
6.476e+09  0.8299  0.4076  -0.002774  -0.03443  -0.005625  0.009416  0.6574  0.4661
6.478e+09  0.9607  0.06842  -0.009953  0.01065  0.004501  0.02634  0.7241  0.2031
6.479e+09  0.9212  -0.2374  0.04427  0.0125  -0.01283  0.04215  0.7881  -0.05638
6.48e+09  0.8192  -0.5812  -0.0213  0.03012  -0.02072  0.008686  0.6979  -0.3212
6.481e+09  0.532  -0.779  -0.02203  0.01426  0.04521  0.03856  0.5488  -0.561
6.482e+09  0.2443  -0.9152  0.008527  0.006444  0.07611  0.0357  0.2715  -0.6966
6.484e+09  -0.1078  -0.9639  -0.0365  -0.01326  0.02014  0.04278  0.06273  -0.7804
6.485e+09  -0.4184  -0.812  -0.01722  -0.004814  0.01541  0.007092  -0.2155  -0.7791
6.486e+09  -0.6261  -0.6305  -0.01711  -0.004482  0.004549  -0.01835  -0.5008  -0.6124
6.488e+09  -0.9114  -0.3448  -0.005187  0.01438  0.005259  0.04297  -0.6017  -0.4302
6.489e+09  -0.9652  0.003163  -0.00401  0.006357  0.07286  0.02494  -0.7498  -0.2004
6.49e+09  -0.8903  0.3187  -0.01363  0.000165  -0.02158  0.0254  -0.798  0.08193
6.491e+09  -0.7351  0.5605  0.003001  -0.02125  -0.03302  -0.01819  -0.6817  0.3374
6.492e+09  -0.5159  0.7963  -0.03959  -0.001299  0.05406  -0.002045  -0.5213  0.5591
6.494e+09  -0.1789  1.031  0.02176  4.022e-07  -0.02236  -0.03276  -0.2888  0.6825
6.495e+09  0.231  0.9284  0.04971  0.01279  0.03017  -0.02023  -0.02967  0.7523
6.496e+09  0.4557  0.8406  0.02864  -0.001937  -0.03616  0.0267  0.2326  0.733
6.498e+09  0.796  0.6342  -0.004665  -0.0209  -0.03322  0.008662  0.4792  0.5876
6.499e+09  0.8804  0.2746  -0.02307  0.01239  0.006952  0.004376  0.6481  0.3929
6.5e+09  0.9551  -0.04892  -0.01253  0.0235  -0.04259  -0.01351  0.734  0.1189
6.501e+09  0.8936  -0.3852  -0.02723  -0.02615  0.002917  -0.01502  0.7257  -0.07816
6.502e+09  0.6904  -0.6874  0.0472  -0.009564  0.002863  0.04804  0.7088  -0.359
6.504e+09  0.3752  -0.8567  0.0003049  -0.009161  -0.003614  0.009464  0.514  -0.5694
6.505e+09  0.05882  -1.017  -0.02206  -0.003227  0.03187  -0.004587  0.3025  -0.7079
6.506e+09  -0.2853  -0.9334  0.01056  -0.004528  0.002425  -0.03707  -0.02922  -0.7544
6.508e+09  -0.5384  -0.7723  -0.0002693  0.006721  -0.01142  -0.004189  -0.2597  -0.7199
6.509e+09  -0.8722  -0.5167  0.01808  -0.007659  5.772e-05  -0.04418  -0.4364  -0.5674
6.51e+09  -0.8758  -0.195  0.01081  -0.01485  0.01212  -0.001495  -0.583  -0.3944
6.511e+09  -0.9871  0.09247  -0.007983  0.004859  -0.0261  -0.05738  -0.705  -0.1385
6.512e+09  -0.8208  0.4411  0.03127  -0.00965  -0.008345  -0.01022  -0.7582  0.1528
6.514e+09  -0.6539  0.7104  0.001326  0.01935  -0.01895  0.03781  -0.6561  0.388
6.515e+09  -0.3279  0.8639  0.01502  0.01088  -0.006451  0.03141  -0.4837  0.553
6.516e+09  0.03293  0.9536  0.02663  -0.03324  -0.01555  0.03566  -0.2408  0.7143
6.518e+09  0.3026  0.8655  -0.002307  -0.01911  -0.03966  0.01054  -0.001871  0.7513
6.519e+09  0.6406  0.7068  -0.0001541  0.01071  0.01719  0.02666  0.2677  0.6941
6.52e+09  0.8328  0.4227  -0.006255  0.01601  0.01086  0.0004373  0.4763  0.5112
6.521e+09  0.9416  0.09942  -0.0002456  -0.03097  -0.03662  0.03291  0.6638  0.3631
6.522e+09  0.9068  -0.2481  0.005424  -0.02083  -0.02255  0.01832  0.7173  0.1205
6.524e+09  0.8119  -0.5413  0.01378  0.01643  -0.05189  0.002099  0.7395  -0.1261
6.525e+09  0.5798  -0.7696  -0.01738  -0.03615  -0.03538  -0.01519  0.6308  -0.3926
6.526e+09  0.2105  -0.898  0.01498  -0.01342  0.05882  -0.008318  0.4138  -0.6019
6.528e+09  -0.112  -0.9403  0.02861  0.006307  0.04588  0.01361  0.209  -0.6825
6.529e+09  -0.3968  -0.8267  -0.03922  -0.00241  0.03375  -0.00493  -0.05653  -0.6763
6.53e+09  -0.7068  -0.5619  -0.02253  0.008189  -0.04809  6.6e-05  -0.2591  -0.6227
6.531e+09  -0.8263  -0.3495  -0.004672  0.03128  0.01051  0.02129  -0.4649  -0.4569
6.532e+09  -0.972  -0.03054  0.01782  0.01485  0.01488  0.06624  -0.5826  -0.2697
6.534e+09  -0.8594  0.2803  -0.03957  -0.04019  -0.0272  -0.001489  -0.6213  -0.02472
6.535e+09  -0.6589  0.5707  0.0002928  -0.01632  0.0243  -0.01786  -0.5991  0.1321
6.536e+09  -0.4456  0.7871  0.00675  0.03492  -0.02967  -0.07722  -0.551  0.309
6.538e+09  -0.1756  0.8927  -0.03095  -0.003633  -0.03727  0.02174  -0.4618  0.4864
6.539e+09  0.1858  0.8819  -0.01147  -0.02712  0.001983  0.03691  -0.2396  0.6182
6.54e+09  0.4849  0.7703  -0.01448  0.02358  0.0441  -0.004663  -0.06619  0.7086
6.541e+09  0.7537  0.5256  -0.01096  -0.01601  -0.06146  0.0226  0.1939  0.7129
6.542e+09  0.9283  0.2708  0.004943  -0.01428  -0.003011  0.02173  0.3966  0.5566
6.544e+09  0.8761  -0.09045  0.01793  0.002016  0.02522  0.003417  0.5921  0.3845
6.545e+09  0.8675  -0.362  0.002753  -0.01339  0.0413  -0.00584  0.6626  0.1813
6.546e+09  0.5938  -0.6537  0.0141  -0.02441  0.009131  0.006155  0.7127  -0.08146
6.548e+09  0.3295  -0.8042  -0.008605  -0.01906  0.03484  -0.02081  0.6762  -0.3355
6.549e+09  0.01988  -0.9124  -0.009859  -0.003799  -0.02608  0.02625  0.5119  -0.5121
6.55e+09  -0.2971  -0.8127  0.02779  -0.003937  -0.03152  -0.004228  0.2676  -0.6576
