# Hz S RI R 50
6.25e+09  -0.3698  0.7809  0.009114  0.0125  -0.0007588  -0.006455  0.1738  0.4655
6.251e+09  -0.1127  0.8797  -0.03041  -0.001424  0.02738  0.05255  0.3747  0.3961
6.252e+09  0.1745  0.7878  -0.007469  -0.01406  0.02734  -0.005301  0.5544  0.2183
6.254e+09  0.4754  0.7237  -0.0007375  0.006543  0.05275  0.01986  0.6009  0.05307
6.255e+09  0.6293  0.4778  0.002605  0.0009851  -0.001463  0.009394  0.5634  -0.219
6.256e+09  0.7444  0.2745  0.01361  0.01717  0.01107  -0.04624  0.4641  -0.4396
6.258e+09  0.817  -0.05567  -0.0006274  0.04004  0.01344  -0.01757  0.2761  -0.615
6.259e+09  0.8466  -0.3306  0.009101  0.02068  0.01396  0.01904  0.05546  -0.6932
6.26e+09  0.6061  -0.536  0.00735  0.01788  0.01815  0.01156  -0.1974  -0.6475
6.261e+09  0.4111  -0.7529  0.008648  0.009085  -0.02345  0.02374  -0.4785  -0.5501
6.262e+09  0.1257  -0.8161  -0.02379  -0.0001561  0.004828  0.01784  -0.5968  -0.3613
6.264e+09  -0.2022  -0.7897  -0.02643  -0.01362  -0.07942  0.001802  -0.6938  -0.1239
6.265e+09  -0.4598  -0.7183  0.02125  -0.02456  -0.03584  -0.04514  -0.7284  0.1605
6.266e+09  -0.7086  -0.5474  0.01891  -0.004479  0.03047  0.01671  -0.6103  0.4141
6.268e+09  -0.7515  -0.272  -0.02093  -0.0003425  -0.001673  0.007489  -0.4537  0.5744
6.269e+09  -0.8347  -0.01271  -0.01123  -0.00903  0.01743  -0.05734  -0.1829  0.688
6.27e+09  -0.7196  0.2696  -0.003876  -0.0009948  -0.01177  -0.0112  0.0865  0.7515
6.271e+09  -0.5529  0.5118  0.01117  -0.0003671  -0.02016  -0.02251  0.3508  0.6776
6.272e+09  -0.3638  0.7159  0.006014  0.007929  0.005504  -0.05748  0.5295  0.538
6.274e+09  -0.08653  0.7914  -0.02942  -0.02056  0.005521  0.0003589  0.6874  0.308
6.275e+09  0.194  0.8165  0.009883  0.01391  0.03874  0.00504  0.7752  0.03523
6.276e+09  0.4353  0.698  -0.02339  0.02183  0.01919  0.01777  0.7055  -0.1738
6.278e+09  0.6493  0.4875  -0.004464  0.0001564  -0.006307  0.02132  0.6116  -0.4996
6.279e+09  0.7962  0.1925  0.009587  0.005162  -0.06523  0.01605  0.4198  -0.6562
6.28e+09  0.8263  -0.06546  0.002584  0.002956  0.00974  0.01212  0.1496  -0.746
6.281e+09  0.7933  -0.3139  0.02237  0.01032  -0.02921  -0.003982  -0.07927  -0.7471
6.282e+09  0.55  -0.6002  -0.01396  -0.005603  0.006166  0.0646  -0.3678  -0.6541
6.284e+09  0.3853  -0.7579  -0.01393  0.04266  0.07025  -0.01268  -0.5659  -0.5259
6.285e+09  0.07025  -0.7865  0.003648  -0.02159  -0.009935  -0.04098  -0.7389  -0.3021
6.286e+09  -0.1943  -0.8322  -0.02582  0.01098  0.06431  -0.01551  -0.7767  -0.01239
6.288e+09  -0.5112  -0.7028  -0.02123  0.01322  -0.01248  0.0235  -0.7734  0.2303
6.289e+09  -0.6711  -0.4679  0.02781  -0.003142  0.02642  0.02794  -0.6292  0.5076
6.29e+09  -0.8025  -0.2168  0.02236  -0.007486  -0.03418  -0.02806  -0.4112  0.6762
6.291e+09  -0.8065  0.07078  -0.009814  -0.01175  -0.02901  -0.007037  -0.1627  0.7944
6.292e+09  -0.7565  0.3682  -0.02149  -0.01334  -0.03379  -0.05983  0.1074  0.8204
6.294e+09  -0.5752  0.6415  0.007067  -0.001083  -0.04747  0.01173  0.3832  0.7008
6.295e+09  -0.3109  0.7611  0.02436  -0.0006198  0.00947  0.02423  0.6066  0.5486
6.296e+09  -0.08164  0.8071  0.02588  0.01135  0.04473  0.0006849  0.7417  0.3083
6.298e+09  0.2285  0.7487  -0.009401  0.001223  0.006125  -0.0154  0.8119  -0.002964
6.299e+09  0.5318  0.6578  0.01168  -0.007728  -0.01878  -0.01308  0.7893  -0.2702
6.3e+09  0.7177  0.4192  -0.02969  -0.01931  -0.001581  0.01411  0.6515  -0.5318
6.301e+09  0.7991  0.1839  0.01995  0.01016  -0.006636  0.05636  0.4469  -0.6917
6.302e+09  0.8002  -0.1211  -0.01975  0.01171  -0.01332  -0.04116  0.1346  -0.8453
6.304e+09  0.7505  -0.3776  -0.01187  -0.006734  -0.001617  -0.03156  -0.1339  -0.8145
6.305e+09  0.5389  -0.6683  -0.008269  0.008594  -0.03924  0.02294  -0.4203  -0.7642
6.306e+09  0.2918  -0.8068  -0.03407  0.002709  -0.02987  -0.04367  -0.6373  -0.5518
6.308e+09  0.07793  -0.8761  -0.01522  -0.01726  0.03029  0.01011  -0.7965  -0.2598
6.309e+09  -0.2446  -0.822  -0.01005  -0.03944  0.009371  -0.003663  -0.8792  -0.009305
6.31e+09  -0.5172  -0.6499  -0.003659  0.01752  -0.06531  -0.01875  -0.821  0.2872
6.311e+09  -0.7526  -0.4548  0.01501  0.007066  -0.00587  0.03135  -0.6695  0.5525
6.312e+09  -0.8098  -0.2139  -0.002634  0.01707  -0.01087  0.0449  -0.4337  0.7603
6.314e+09  -0.7995  0.131  -0.01778  -0.004577  0.02381  -0.01377  -0.1644  0.8594
6.315e+09  -0.7381  0.3647  0.04564  -0.005415  -0.01544  0.01584  0.1114  0.8695
6.316e+09  -0.4739  0.6154  -0.01439  0.004809  0.02539  -0.02222  0.4273  0.7622
6.318e+09  -0.3015  0.8136  0.0361  -0.01358  0.009153  0.02172  0.6687  0.5214
6.319e+09  0.005684  0.8841  -0.003074  -0.009121  -0.03476  -0.01364  0.82  0.2545
6.32e+09  0.3113  0.7627  0.003973  -0.01728  -0.005718  -0.01098  0.8793  0.042
6.321e+09  0.5732  0.6601  0.002594  0.01607  -0.0197  0.01626  0.8304  -0.277
6.322e+09  0.7751  0.4086  -0.01163  -0.001537  0.01768  0.01393  0.6863  -0.5687
6.324e+09  0.8592  0.1351  -0.02285  -0.04596  0.01434  0.005683  0.4815  -0.7583
6.325e+09  0.8126  -0.1301  -0.01188  -0.01122  0.0199  0.03164  0.1807  -0.8727
6.326e+09  0.7264  -0.4587  0.01558  -0.004461  -0.02419  0.02498  -0.1319  -0.8627
6.328e+09  0.5478  -0.7054  -0.02338  0.01642  0.03809  -0.02795  -0.427  -0.8067
6.329e+09  0.2137  -0.8485  0.01155  0.003491  0.01036  0.02433  -0.6597  -0.589
6.33e+09  -0.05061  -0.872  0.01954  0.01386  0.02966  0.01252  -0.8427  -0.3331
6.331e+09  -0.3685  -0.7826  -0.01363  -0.02057  -0.0306  -0.01092  -0.9093  -0.008561
6.332e+09  -0.598  -0.6017  -0.01524  0.001446  -0.0556  0.002482  -0.8564  0.3038
6.334e+09  -0.8206  -0.4041  -0.02023  0.01146  -0.03305  -0.0161  -0.714  0.5622
6.335e+09  -0.8833  -0.0678  -0.005395  0.01106  0.03705  0.04634  -0.4739  0.787
6.336e+09  -0.8721  0.2499  -0.02144  0.005076  0.0002421  0.00488  -0.2023  0.9127
6.338e+09  -0.7012  0.5096  0.006026  -0.01031  0.02903  -0.005538  0.08772  0.9182
6.339e+09  -0.4775  0.7295  0.005002  0.0071  0.04627  -0.02259  0.464  0.814
6.34e+09  -0.2262  0.8519  -0.01385  -0.02233  0.009778  -0.01112  0.6939  0.6193
6.341e+09  0.1004  0.9111  -0.01439  -0.01066  0.01763  -0.02336  0.846  0.3422
6.342e+09  0.4387  0.768  0.0178  0.04437  0.01306  0.03993  0.9414  0.04937
6.344e+09  0.64  0.6144  -0.01104  -0.004166  0.02383  -0.01326  0.8477  -0.2733
6.345e+09  0.7971  0.3118  -0.01537  -0.02658  0.02948  0.00436  0.7552  -0.5841
6.346e+09  0.9458  0.03995  0.01069  -0.03148  -0.0238  0.03802  0.4938  -0.7828
6.348e+09  0.9175  -0.2547  0.02658  0.0281  0.02167  -0.006916  0.1895  -0.893
6.349e+09  0.6696  -0.5415  0.005917  0.0005902  0.03139  -0.004521  -0.09882  -0.9047
6.35e+09  0.4655  -0.7488  -0.008615  -0.02368  0.02018  -0.000267  -0.4062  -0.8325
6.351e+09  0.161  -0.9181  -0.03317  0.01559  -0.04213  0.04579  -0.649  -0.6368
6.352e+09  -0.1701  -0.8709  0.01035  -0.02536  -0.0132  0.008869  -0.854  -0.3936
6.354e+09  -0.4808  -0.7677  0.0006726  0.03088  5.166e-05  0.0156  -0.9314  -0.06129
6.355e+09  -0.6761  -0.536  -0.01262  0.04808  -0.003843  0.007647  -0.9078  0.285
6.356e+09  -0.8541  -0.2133  0.0225  0.06326  0.01577  0.02809  -0.7345  0.5263
6.358e+09  -0.8994  0.01464  -0.007812  -0.03041  0.01242  -0.02137  -0.5175  0.7883
6.359e+09  -0.8249  0.2915  0.01143  -0.004954  0.057  -0.03334  -0.2325  0.9011
6.36e+09  -0.6798  0.6124  -0.003344  0.008212  0.0093  0.01555  0.08062  0.931
6.361e+09  -0.3831  0.8392  -0.001576  0.02533  0.003694  0.01285  0.4511  0.8968
6.362e+09  -0.08263  0.8683  -0.01757  -0.009788  0.02531  -0.001648  0.657  0.6614
6.364e+09  0.247  0.8859  0.03355  0.05323  0.01978  -0.01351  0.8472  0.403
6.365e+09  0.4856  0.7668  -0.004246  -0.01508  0.04779  0.03775  0.9463  0.05324
6.366e+09  0.7633  0.5581  -0.03387  -0.01086  0.004039  -0.02752  0.9305  -0.2475
6.368e+09  0.8936  0.2426  0.04473  0.01622  0.04046  0.01289  0.7904  -0.5395
6.369e+09  0.934  -0.09756  0.03043  0.01394  -0.03729  -0.01095  0.535  -0.7873
6.37e+09  0.7921  -0.373  0.02935  -0.01958  -0.0393  0.01996  0.2462  -0.9316
6.371e+09  0.6574  -0.6325  -0.02052  -0.02474  -0.003683  0.01967  -0.06021  -0.9612
6.372e+09  0.3591  -0.8102  -0.0206  0.002031  -0.02867  0.0292  -0.3972  -0.8669
6.374e+09  0.05821  -0.8985  -0.03458  -0.00601  -0.03512  0.005224  -0.658  -0.6858
6.375e+09  -0.2105  -0.8486  0.01917  0.00374  0.03433  -0.01823  -0.8623  -0.4035
6.376e+09  -0.5487  -0.7135  0.001105  -0.001861  -0.00889  -0.01432  -0.8996  -0.122
6.378e+09  -0.7869  -0.4937  -0.03243  -0.0045  -0.00833  0.03342  -0.8988  0.2235
6.379e+09  -0.8805  -0.1623  0.0127  -0.009736  -0.005722  0.008702  -0.7955  0.5775
6.38e+09  -0.8881  0.1779  0.01602  -0.004896  -0.03621  -0.02974  -0.5472  0.7385
6.381e+09  -0.7667  0.4072  0.01457  0.006889  0.005597  0.05154  -0.2547  0.8996
6.382e+09  -0.6106  0.6781  0.0299  0.008438  -0.01536  0.0324  0.03194  0.9543
6.384e+09  -0.305  0.8699  0.0006232  0.01075  -0.01445  -0.006273  0.3748  0.8437
6.385e+09  -0.03745  0.8659  0.04073  -0.0125  -0.005762  -0.0121  0.6448  0.6455
6.386e+09  0.3013  0.8306  -0.001265  0.01633  0.01037  -0.02624  0.8491  0.4161
6.388e+09  0.6074  0.7286  -0.02129  -0.04284  0.01049  -0.01233  0.9145  0.1339
6.389e+09  0.803  0.4167  -0.02708  -0.00829  -0.06617  0.004437  0.8712  -0.2374
6.39e+09  0.8571  0.1339  -0.02234  0.01375  0.02669  0.02569  0.791  -0.4467
6.391e+09  0.8988  -0.1294  0.03152  -0.01065  0.02295  0.001831  0.547  -0.7217
6.392e+09  0.7297  -0.4455  -0.04946  0.01437  -0.01464  -0.01499  0.2787  -0.875
6.394e+09  0.5486  -0.6774  -0.04153  0.006092  0.007967  -0.03454  -0.001942  -0.9336
6.395e+09  0.3057  -0.8441  -0.0288  0.01006  -0.01111  -0.01275  -0.3518  -0.8431
6.396e+09  -0.01291  -0.9241  0.01483  0.007202  -0.05421  -0.003934  -0.6291  -0.677
6.398e+09  -0.3651  -0.8104  0.01065  0.01092  -0.03296  0.01072  -0.822  -0.4529
6.399e+09  -0.6021  -0.6468  0.001156  -0.004029  0.01125  0.01997  -0.904  -0.1135
6.4e+09  -0.7662  -0.3718  0.007012  -0.01421  0.001839  -0.008285  -0.8801  0.174
6.401e+09  -0.8451  -0.143  -0.02008  -0.01108  0.03994  -0.03811  -0.8369  0.465
6.402e+09  -0.855  0.1951  -0.03426  0.02612  -0.03894  -0.006089  -0.5854  0.7086
6.404e+09  -0.7062  0.4897  0.03585  1.385e-05  -0.00909  0.02785  -0.3036  0.8326
6.405e+09  -0.5072  0.6542  0.02918  0.01807  -0.01071  0.004088  -0.005366  0.8967
6.406e+09  -0.2729  0.8903  0.006557  -0.04077  0.03414  0.001196  0.3548  0.8775
6.408e+09  0.02804  0.8467  -0.008174  -0.01493  -0.0135  0.03301  0.5484  0.692
6.409e+09  0.3458  0.8409  -0.02059  0.02201  0.02753  0.02627  0.7827  0.4423
6.41e+09  0.5845  0.6635  -0.04024  -0.003738  -0.004076  -9.982e-05  0.8583  0.1229
6.411e+09  0.8189  0.4107  -0.01276  0.003699  -0.001316  0.007006  0.9065  -0.1385
6.412e+09  0.8793  0.1006  -0.04078  0.0364  0.02234  -0.01392  0.8003  -0.4251
6.414e+09  0.8941  -0.2211  -0.01437  0.01231  0.04415  -0.03435  0.5978  -0.6564
6.415e+09  0.744  -0.5005  -0.05487  0.01355  0.01311  -0.03021  0.3133  -0.807
6.416e+09  0.5127  -0.7121  -0.005235  -0.0035  -0.02214  -0.01716  0.03735  -0.9076
6.418e+09  0.2576  -0.8351  -0.04435  0.02851  0.01486  0.03686  -0.2304  -0.8398
6.419e+09  -0.02997  -0.8812  0.04089  0.03704  -0.04626  0.00684  -0.545  -0.712
6.42e+09  -0.3861  -0.7716  0.01841  0.04773  -0.02312  -0.02746  -0.753  -0.4456
6.421e+09  -0.6113  -0.5745  -0.02765  0.02778  -0.0124  -0.03399  -0.8869  -0.1937
6.422e+09  -0.7628  -0.3576  -0.02417  0.004805  -0.0282  0.003845  -0.8924  0.1066
6.424e+09  -0.821  -0.05242  -0.003979  -0.01539  0.04801  0.01741  -0.7465  0.3975
6.425e+09  -0.8501  0.1993  -0.006467  -0.0113  0.02494  -0.003077  -0.555  0.6434
6.426e+09  -0.7467  0.5033  0.009289  0.03  0.02005  -0.01006  -0.3618  0.7925
6.428e+09  -0.482  0.7801  -0.01227  -0.01758  0.02941  0.0155  -0.09427  0.8585
6.429e+09  -0.2385  0.9041  0.006917  0.02654  -0.0404  0.04216  0.2844  0.8326
6.43e+09  0.08317  0.8779  0.02061  -0.01199  -0.06468  -0.02084  0.4992  0.7095
6.431e+09  0.4223  0.7716  0.01296  0.0003936  0.02119  0.006643  0.7181  0.4362
6.432e+09  0.6397  0.6304  -0.01967  -0.03171  -0.04771  -0.01003  0.8276  0.1968
6.434e+09  0.8047  0.3838  -0.01852  -0.02758  -0.003741  0.003789  0.8636  -0.1059
6.435e+09  0.9163  0.02189  -0.01544  -0.01272  0.01563  0.01635  0.7393  -0.3651
6.436e+09  0.8353  -0.1608  -0.01863  -0.002154  0.00824  -0.01029  0.5773  -0.6551
6.438e+09  0.7038  -0.5328  0.01922  -0.06338  0.02694  -0.008449  0.3576  -0.7745
6.439e+09  0.4376  -0.7651  0.007557  0.01352  -0.05785  0.06252  0.07808  -0.8527
6.44e+09  0.2556  -0.9178  -0.01407  0.01296  0.01386  -0.01299  -0.1714  -0.8286
6.441e+09  -0.1088  -0.8722  -0.01428  -0.01848  -0.0103  -0.002911  -0.4762  -0.69
6.442e+09  -0.3513  -0.7944  -0.01318  0.04624  -0.0387  0.001529  -0.6867  -0.507
6.444e+09  -0.626  -0.595  0.01386  0.02718  0.03316  -0.03215  -0.8303  -0.2104
6.445e+09  -0.8233  -0.3878  -0.03116  0.02727  -0.0003322  0.01954  -0.8523  0.09881
6.446e+09  -0.8456  -0.07631  -0.007454  -0.01259  -0.003021  -0.00589  -0.7332  0.3704
6.448e+09  -0.8223  0.2383  0.01014  0.05932  0.007848  0.01106  -0.5874  0.6295
6.449e+09  -0.73  0.5183  -0.005774  -0.06573  0.05263  -0.02961  -0.3847  0.7566
6.45e+09  -0.5186  0.7699  0.002731  0.01896  -0.009674  0.008769  -0.07515  0.8382
6.451e+09  -0.1639  0.9166  -0.0357  0.02931  -0.06879  -0.03807  0.2114  0.8186
6.452e+09  0.09835  0.8325  0.001909  -0.00292  0.001113  0.02629  0.4982  0.6582
6.454e+09  0.4243  0.7916  -0.04821  0.07217  -0.05787  0.04217  0.6575  0.4837
6.455e+09  0.5951  0.6132  -0.01252  0.06093  0.01745  0.01411  0.81  0.1682
6.456e+09  0.8264  0.3225  0.01273  -0.02931  0.02999  -0.005606  0.8265  -0.06611
6.458e+09  0.929  0.0327  -0.003234  -0.02458  0.003994  0.05218  0.7617  -0.3235
6.459e+09  0.8415  -0.2532  -0.008652  0.0125  -0.0154  0.04848  0.5871  -0.546
6.46e+09  0.7403  -0.5121  0.005714  -0.0048  0.01712  0.04914  0.3363  -0.7497
6.461e+09  0.4799  -0.7517  0.0137  -0.009749  -0.03444  0.03915  0.05869  -0.7854
6.462e+09  0.2028  -0.8798  0.02449  0.0331  -0.04795  0.03919  -0.1901  -0.8077
6.464e+09  -0.07858  -0.9156  0.02567  0.04246  -0.04456  0.01835  -0.4535  -0.6803
6.465e+09  -0.4023  -0.8071  -0.005019  0.01249  0.00999  -0.001271  -0.6744  -0.4982
6.466e+09  -0.7051  -0.6126  0.02198  -0.02757  -0.03669  -0.05979  -0.8  -0.1936
6.468e+09  -0.8646  -0.348  -0.00165  0.03142  -0.02724  0.04103  -0.791  0.06425
6.469e+09  -0.8527  -0.06373  -0.0475  0.009838  -0.00385  -0.01953  -0.7173  0.3509
6.47e+09  -0.8671  0.2445  -0.0363  0.0004698  0.05258  0.01497  -0.5332  0.5299
6.471e+09  -0.7055  0.5564  -0.01636  -0.02314  -0.03537  -0.02295  -0.3119  0.7716
6.472e+09  -0.5223  0.771  -0.02135  0.0017  -0.03987  0.0153  -0.08956  0.7559
6.474e+09  -0.1606  0.8638  0.01258  0.02189  -0.06235  -0.01722  0.212  0.7772
6.475e+09  0.1206  0.879  0.0557  0.03129  0.005974  -0.009153  0.4876  0.6607
6.476e+09  0.4236  0.8077  -0.01297  0.03054  0.03357  0.03115  0.6449  0.4789
6.478e+09  0.6853  0.6617  -0.001066  -0.002676  0.004459  -0.01305  0.7109  0.1955
6.479e+09  0.8808  0.3019  0.03092  -0.004332  0.0009357  0.05636  0.7771  -0.07866
6.48e+09  0.8202  0.03015  -0.02078  0.03395  -0.03244  0.05667  0.6983  -0.3164
6.481e+09  0.8797  -0.3049  -0.005076  0.008605  -0.02934  -0.02212  0.5395  -0.5788
6.482e+09  0.6855  -0.5293  0.03119  -0.04349  0.05907  -0.03751  0.3176  -0.6672
6.484e+09  0.4768  -0.8201  0.003642  0.02406  -0.04216  0.01735  0.05987  -0.8029
6.485e+09  0.189  -0.8605  0.01092  0.02239  0.03514  -0.01583  -0.2106  -0.7309
6.486e+09  -0.1689  -0.9184  -0.01005  -0.02668  0.01578  0.006194  -0.4633  -0.6232
6.488e+09  -0.4722  -0.7622  -0.0009868  0.00618  0.01387  -0.007437  -0.5827  -0.4465
6.489e+09  -0.7249  -0.6304  0.0566  -0.04697  0.02438  -0.05362  -0.7861  -0.134
6.49e+09  -0.8565  -0.3493  0.01267  0.0267  0.01213  0.01496  -0.8135  0.06289
6.491e+09  -0.9381  -0.05214  -0.02326  0.03355  0.0421  -0.008598  -0.7231  0.367
6.492e+09  -0.8591  0.2694  0.0102  0.03543  -0.02027  0.01066  -0.5326  0.538
6.494e+09  -0.7338  0.6073  0.01998  0.005009  0.03024  -0.05309  -0.3137  0.7127
6.495e+09  -0.4522  0.8026  0.03181  -0.02517  0.03635  -0.02016  -0.02555  0.7621
6.496e+09  -0.1515  0.8987  -0.03882  -0.03093  0.003155  0.02157  0.1912  0.7114
6.498e+09  0.2114  0.9002  0.0048  -0.02069  -0.007363  -0.02779  0.4754  0.6071
6.499e+09  0.4989  0.8035  0.05192  -0.002157  -0.0282  -0.02701  0.6389  0.3927
6.5e+09  0.7118  0.6092  -0.004339  -0.03771  -0.02689  -0.04633  0.7515  0.1279
6.501e+09  0.87  0.3308  -0.01286  0.002016  0.009733  0.02001  0.7154  -0.1134
6.502e+09  0.9581  -0.01509  0.002423  0.01486  0.01707  -0.0188  0.6969  -0.3523
6.504e+09  0.8658  -0.3596  -0.005206  0.002842  -0.01694  -0.02298  0.5605  -0.5392
6.505e+09  0.6934  -0.5919  -0.007448  -0.03678  0.0505  -0.002392  0.2816  -0.73
6.506e+09  0.4217  -0.8069  0.009891  0.008362  -0.02458  0.03626  -0.006139  -0.7725
6.508e+09  0.1424  -0.898  0.02251  -0.0114  0.04821  0.02367  -0.2404  -0.7056
6.509e+09  -0.1973  -0.9488  0.01097  0.01444  0.02903  0.007182  -0.4577  -0.5938
6.51e+09  -0.487  -0.7804  0.01551  -0.04698  -0.002525  0.01672  -0.6408  -0.4225
6.511e+09  -0.76  -0.5553  -0.02619  0.003453  -0.0155  -0.01974  -0.7498  -0.1578
6.512e+09  -0.8899  -0.2794  -0.0247  0.01745  -0.004309  -0.006958  -0.7222  0.1424
6.514e+09  -0.94  0.03083  -0.006891  -0.04828  0.01145  -0.009542  -0.665  0.378
6.515e+09  -0.8343  0.3431  0.02083  0.03632  -0.04454  0.003606  -0.4943  0.6015
6.516e+09  -0.733  0.6246  0.004277  0.003319  -0.03017  -0.02372  -0.2442  0.7209
6.518e+09  -0.4483  0.8828  0.04762  0.0003121  0.03484  -0.001732  0.01962  0.7653
6.519e+09  -0.115  0.9477  0.009266  0.0131  -0.01578  -0.0579  0.262  0.6767
6.52e+09  0.2424  0.903  -0.006962  -0.01323  -0.001598  -0.004774  0.483  0.5109
6.521e+09  0.5732  0.7737  -0.04226  0.01581  0.007513  0.0236  0.6313  0.3578
6.522e+09  0.8008  0.5684  0.01032  0.03047  -0.03079  0.04138  0.7192  0.1238
6.524e+09  0.9095  0.2009  0.01188  -0.003838  0.01755  0.01775  0.6948  -0.1925
6.525e+09  0.9499  -0.1311  -0.01026  -0.01089  -0.05541  -0.0006752  0.6163  -0.4024
6.526e+09  0.8359  -0.4092  -0.01036  0.004429  -0.01209  0.01086  0.421  -0.5547
6.528e+09  0.7232  -0.7097  -0.00372  -0.02305  -0.01313  0.03279  0.1962  -0.6846
6.529e+09  0.3699  -0.914  0.01326  -0.0008483  0.001805  -0.01454  -0.03655  -0.6591
6.53e+09  0.05141  -0.9586  0.008086  0.01931  -0.05719  -0.05177  -0.2812  -0.6243
6.531e+09  -0.3667  -0.9198  -0.01082  0.01106  -0.03897  0.03076  -0.4922  -0.4834
6.532e+09  -0.6331  -0.7497  -0.005594  -0.005196  0.02049  -0.02645  -0.5979  -0.297
6.534e+09  -0.8044  -0.5228  -0.01301  0.00448  -0.005793  -0.03963  -0.6202  -0.07616
6.535e+09  -0.9113  -0.1776  0.001663  0.0125  -0.007375  0.05224  -0.5963  0.09324
6.536e+09  -0.967  0.119  -0.02238  0.01613  -0.02325  0.1184  -0.5845  0.271
6.538e+09  -0.8424  0.4996  -0.03631  -0.03478  0.04615  -0.01636  -0.4348  0.489
6.539e+09  -0.6267  0.7954  -0.03929  0.0206  -0.0004627  -0.0146  -0.2674  0.582
6.54e+09  -0.3474  0.9117  -0.007529  0.005906  -0.007013  0.006079  -0.03272  0.6793
6.541e+09  0.04419  0.9786  0.0212  0.00345  0.06105  0.03046  0.2266  0.6804
6.542e+09  0.3808  0.8978  0.00704  0.0001761  -0.02799  0.003233  0.3809  0.5731
6.544e+09  0.6595  0.674  -0.005584  0.005684  0.007122  -0.0261  0.565  0.4128
6.545e+09  0.8897  0.4168  0.007261  0.01547  4.405e-05  -0.01474  0.695  0.1648
6.546e+09  0.9802  0.1058  0.01716  0.01965  0.007459  0.004832  0.706  -0.06449
6.548e+09  0.9654  -0.2221  -0.009455  0.03018  0.02941  -0.005535  0.6601  -0.3132
6.549e+09  0.7847  -0.5704  0.02554  -0.005621  0.01934  -0.006209  0.4882  -0.5665
6.55e+09  0.5283  -0.7663  0.009341  0.01188  -0.04334  -0.02611  0.2742  -0.6905
6.551e+09  0.2486  -0.875  0.007534  0.005623  0.03356  -0.01516  0.02749  -0.7369
