# Hz S RI R 50
6.25e+09  -0.6775  0.5127  0.01382  -0.00573  -0.0055  0.02665  0.1711  0.4799
6.251e+09  -0.4197  0.6899  0.01025  -0.01919  -0.005114  0.01789  0.3866  0.4102
6.252e+09  -0.1432  0.8318  -0.009201  -0.0009136  0.02776  0.01594  0.5184  0.251
6.254e+09  0.1635  0.8316  0.02189  0.01484  -0.04633  -0.007728  0.617  0.05554
6.255e+09  0.4884  0.7911  -0.02982  0.002622  -0.02815  0.05581  0.5922  -0.2396
6.256e+09  0.6668  0.5598  -0.004082  0.004591  -0.002797  -0.05279  0.4755  -0.4405
6.258e+09  0.7464  0.3183  0.02475  -0.009831  -0.0226  0.02102  0.2761  -0.6077
6.259e+09  0.8868  0.0264  -0.01944  0.01134  0.008526  -0.009868  0.05864  -0.6922
6.26e+09  0.8028  -0.2943  -0.002855  -0.01437  -0.03048  0.01406  -0.1991  -0.6961
6.261e+09  0.6213  -0.5075  0.003475  0.01163  -0.02037  0.0339  -0.4462  -0.5166
6.262e+09  0.3753  -0.7476  0.0004462  -0.01714  -0.03903  0.04678  -0.608  -0.3088
6.264e+09  0.1301  -0.8412  -0.004686  -0.002022  0.006472  0.007798  -0.722  -0.1157
6.265e+09  -0.1486  -0.8457  -0.009444  0.01453  0.008171  0.06544  -0.6461  0.1436
6.266e+09  -0.3893  -0.6785  0.01498  0.0006867  0.01619  -0.03747  -0.625  0.3836
6.268e+09  -0.6292  -0.5884  0.007694  0.02575  0.01552  0.03108  -0.4442  0.6008
6.269e+09  -0.7798  -0.2692  0.02963  -0.003267  -0.005606  -0.007067  -0.1938  0.7127
6.27e+09  -0.812  0.006693  -0.02536  0.01682  0.009021  -0.05147  0.06513  0.7263
6.271e+09  -0.8183  0.2683  -0.001376  -0.02313  0.006103  0.01003  0.2895  0.69
6.272e+09  -0.6599  0.5498  -0.02374  -0.005433  -0.06327  0.0279  0.5294  0.5306
6.274e+09  -0.4569  0.7468  0.002786  0.006326  0.04335  0.01497  0.6875  0.305
6.275e+09  -0.1156  0.8058  0.01202  -0.03027  0.03009  0.05168  0.7537  0.05042
6.276e+09  0.1251  0.8103  -0.002167  -0.000782  -0.03215  -0.003232  0.7433  -0.2219
6.278e+09  0.43  0.7244  -0.00399  0.01345  0.03382  0.0371  0.6054  -0.4264
6.279e+09  0.6584  0.5173  0.004101  -0.02023  -0.0392  -0.02507  0.4119  -0.6481
6.28e+09  0.7752  0.2259  0.01517  -0.009744  2.271e-05  0.02387  0.1549  -0.739
6.281e+09  0.7817  -0.04053  0.009895  0.009335  -0.04054  -0.002178  -0.06903  -0.769
6.282e+09  0.7996  -0.2795  0.01419  0.01308  0.04118  -0.006562  -0.3493  -0.6809
6.284e+09  0.623  -0.5497  -0.005502  -0.009573  0.002093  0.02037  -0.5972  -0.503
6.285e+09  0.3629  -0.7151  -0.01206  -0.01857  0.0232  0.02081  -0.7126  -0.3277
6.286e+09  0.1283  -0.782  -0.002146  -0.005942  -0.01307  0.01216  -0.7936  -0.04069
6.288e+09  -0.1718  -0.8292  -0.0008264  0.01791  -0.03579  0.01624  -0.7426  0.2635
6.289e+09  -0.4211  -0.6892  0.03726  0.002485  0.008566  0.006287  -0.604  0.4942
6.29e+09  -0.6675  -0.4812  -0.03816  0.02224  -0.02357  0.02127  -0.4302  0.6715
6.291e+09  -0.7889  -0.2473  0.005289  0.008027  0.05977  -0.01563  -0.171  0.7671
6.292e+09  -0.8099  0.0469  0.007137  -0.00987  -0.008003  0.04351  0.1053  0.8199
6.294e+09  -0.7899  0.3102  0.01732  -0.0292  0.01706  0.02588  0.3951  0.7079
6.295e+09  -0.6271  0.6096  -0.01024  -0.02106  -0.00625  -0.04909  0.6298  0.5318
6.296e+09  -0.3617  0.7651  -0.01362  -0.02642  -0.04184  0.02401  0.7412  0.2789
6.298e+09  -0.1399  0.783  0.002888  0.01005  0.03261  -0.06034  0.8392  0.01587
6.299e+09  0.1805  0.808  0.01333  0.009511  0.0491  -0.02809  0.7894  -0.2538
6.3e+09  0.4697  0.6737  -0.004022  -0.03059  0.002094  -0.007362  0.6464  -0.5118
6.301e+09  0.6682  0.5093  0.02471  0.01551  -0.04754  0.01746  0.4328  -0.7297
6.302e+09  0.8187  0.2396  -0.02673  -0.00957  0.03892  -0.03915  0.1528  -0.8258
6.304e+09  0.804  -0.06702  0.01993  0.009612  0.004623  -0.01955  -0.1622  -0.8532
6.305e+09  0.7395  -0.3579  0.01426  -0.002223  0.0008837  -0.008115  -0.4021  -0.7247
6.306e+09  0.5325  -0.5967  0.009159  0.001351  0.0169  -0.02746  -0.6362  -0.5745
6.308e+09  0.3883  -0.7343  0.00196  -0.01758  -0.02692  -0.005278  -0.7949  -0.3149
6.309e+09  0.03889  -0.8721  0.005108  -0.02387  -0.00271  -0.004259  -0.8129  -0.01829
6.31e+09  -0.2174  -0.8164  0.005256  -0.02878  0.006967  -0.01731  -0.8347  0.288
6.311e+09  -0.5046  -0.6719  -0.006571  -0.0208  0.02429  -0.0006187  -0.6564  0.52
6.312e+09  -0.7066  -0.5196  0.01256  -0.005327  -0.008309  0.006983  -0.4276  0.7364
6.314e+09  -0.756  -0.165  0.001776  -0.01292  0.02324  0.01242  -0.1506  0.85
6.315e+09  -0.7874  0.07355  0.01573  -0.02885  0.04318  -0.02961  0.1407  0.8684
6.316e+09  -0.7412  0.3408  -0.01219  -0.0113  -0.006386  0.02328  0.4198  0.7429
6.318e+09  -0.5505  0.6195  0.002276  -0.01939  -0.009335  0.02787  0.6686  0.5649
6.319e+09  -0.3193  0.7385  0.04751  -0.02317  -8.64e-06  -0.01743  0.8348  0.3116
6.32e+09  -0.05838  0.8153  0.04009  -0.005574  0.01226  0.05272  0.8871  0.02126
6.321e+09  0.3055  0.7723  -0.01551  -0.008883  -0.03187  -0.01546  0.8435  -0.2979
6.322e+09  0.519  0.6401  -0.008115  -0.0113  -5.873e-05  0.02487  0.7014  -0.5627
6.324e+09  0.704  0.4673  -0.001492  -0.008202  0.01644  0.01162  0.4456  -0.7647
6.325e+09  0.8215  0.1312  0.01166  -0.0167  0.02543  -0.07856  0.2156  -0.8928
6.326e+09  0.8341  -0.1088  0.003765  -0.00952  0.01435  0.01251  -0.1386  -0.8967
6.328e+09  0.7347  -0.4511  0.01071  -0.00666  -0.005564  0.0084  -0.3984  -0.7891
6.329e+09  0.5678  -0.6395  0.01681  0.01381  -0.007136  -0.04546  -0.6776  -0.5619
6.33e+09  0.3014  -0.765  0.0435  0.01927  0.01269  -0.05467  -0.8153  -0.3129
6.331e+09  -0.04199  -0.8835  0.009004  0.003877  0.03105  0.007547  -0.8924  -0.01821
6.332e+09  -0.2645  -0.8574  -0.01651  0.008732  -0.0277  -0.01894  -0.8236  0.2557
6.334e+09  -0.5939  -0.6042  0.005936  -0.04118  0.03237  -0.0003142  -0.7364  0.5291
6.335e+09  -0.749  -0.4116  -0.008846  -0.01737  -0.0315  -0.01772  -0.4966  0.7715
6.336e+09  -0.7963  -0.09014  0.01058  -0.005405  0.0003669  -0.03264  -0.2085  0.8853
6.338e+09  -0.8615  0.159  0.0009793  -0.01101  0.01036  -0.008032  0.1421  0.8934
6.339e+09  -0.7093  0.4956  0.01159  0.005562  -0.03906  -0.02308  0.4566  0.8151
6.34e+09  -0.4789  0.697  0.00543  0.005291  0.001295  0.004241  0.6875  0.6433
6.341e+09  -0.2368  0.8172  -0.01254  -0.0224  0.02093  0.002163  0.7982  0.3638
6.342e+09  0.03195  0.8512  -0.005288  -0.004137  -0.005752  -0.006255  0.8839  0.05194
6.344e+09  0.3877  0.8143  -0.01768  0.02524  0.04468  0.000254  0.9027  -0.2562
6.345e+09  0.6119  0.6312  0.02767  -0.004392  0.0147  -0.006081  0.7384  -0.5588
6.346e+09  0.7963  0.4024  -0.02277  -0.005363  0.0004918  0.006964  0.5148  -0.7902
6.348e+09  0.9103  0.04216  0.01026  -0.05837  -0.07762  -0.01459  0.2237  -0.9023
6.349e+09  0.7824  -0.28  0.01095  0.005195  0.004604  0.002579  -0.1076  -0.9205
6.35e+09  0.6884  -0.5253  -0.01208  -0.02364  -0.018  0.01397  -0.4492  -0.8403
6.351e+09  0.4397  -0.7605  -0.003958  -0.007487  0.01075  -0.006419  -0.677  -0.6373
6.352e+09  0.1701  -0.867  -0.02814  -0.02041  0.02717  0.02122  -0.8661  -0.3647
6.354e+09  -0.1812  -0.8326  0.05354  0.03653  -0.009513  0.01394  -0.9559  -0.06218
6.355e+09  -0.4315  -0.7922  -0.01243  0.01686  0.0362  0.003776  -0.8889  0.2843
6.356e+09  -0.6943  -0.5629  -0.002818  0.01071  -0.007563  0.002313  -0.7708  0.5772
6.358e+09  -0.8109  -0.2803  0.0103  0.002698  0.02142  -0.03124  -0.5164  0.7768
6.359e+09  -0.8437  0.01423  0.03693  0.0157  -0.000528  -0.003132  -0.2373  0.9434
6.36e+09  -0.7855  0.3407  0.03231  -0.02972  0.0156  0.03697  0.07645  0.9429
6.361e+09  -0.6689  0.5863  -0.03605  -0.007548  0.01296  0.01055  0.3871  0.8594
6.362e+09  -0.3951  0.7521  0.01597  -0.01805  -0.02441  0.01955  0.6573  0.6592
6.364e+09  -0.1468  0.8574  0.000957  0.01565  -0.03082  0.05629  0.8555  0.3851
6.365e+09  0.215  0.9067  0.01748  0.02407  0.03754  -0.0146  0.9141  0.07234
6.366e+09  0.4793  0.7303  0.02526  -0.005315  0.01984  0.008298  0.9279  -0.2293
6.368e+09  0.7235  0.5287  0.02433  -0.005372  -0.03477  -0.0297  0.7546  -0.5438
6.369e+09  0.8824  0.2251  -0.008265  0.01894  -0.03782  0.01159  0.5323  -0.7563
6.37e+09  0.8387  -0.07442  -0.02382  0.01727  -0.0226  0.009035  0.224  -0.9092
6.371e+09  0.8041  -0.3967  0.005971  0.01637  0.03873  0.04666  -0.07151  -0.96
6.372e+09  0.6207  -0.6189  0.007853  -0.01834  -0.04346  0.003561  -0.4142  -0.8366
6.374e+09  0.3563  -0.7977  -0.03771  0.03936  0.01443  -0.0004951  -0.6584  -0.6647
6.375e+09  0.03675  -0.8461  -0.007176  0.01274  0.01176  0.005946  -0.8629  -0.436
6.376e+09  -0.2888  -0.8815  -0.007911  -0.001213  -0.03319  0.04318  -0.9483  -0.1011
6.378e+09  -0.559  -0.7368  0.02095  -0.04934  -0.02406  0.01361  -0.9185  0.2124
6.379e+09  -0.7806  -0.4968  0.03936  -0.02119  0.0194  -0.01335  -0.7615  0.4891
6.38e+09  -0.9104  -0.183  0.02619  -0.003703  0.0359  0.005728  -0.5293  0.7401
6.381e+09  -0.8245  0.1167  0.01064  0.04784  0.003704  0.0358  -0.2528  0.8832
6.382e+09  -0.8245  0.4277  -0.03755  0.05074  -0.03895  -0.03517  0.05143  0.9262
6.384e+09  -0.4992  0.6847  0.01843  -0.04943  -0.01357  -0.00122  0.3762  0.9237
6.385e+09  -0.3318  0.8121  -0.01133  -0.02097  0.003638  0.0215  0.6673  0.6521
6.386e+09  -0.0286  0.8775  -0.0227  -0.01331  0.007942  0.04026  0.8457  0.4237
6.388e+09  0.3126  0.8508  -0.02797  0.02442  -0.06611  0.05176  0.9127  0.1191
6.389e+09  0.5659  0.7022  -0.02227  -0.01723  0.003627  0.01235  0.9125  -0.185
6.39e+09  0.762  0.4818  0.01667  0.02172  0.01701  0.008808  0.7755  -0.5249
6.391e+09  0.8613  0.1429  0.01952  -0.01234  -0.01105  0.04283  0.5757  -0.6779
6.392e+09  0.891  -0.1641  0.006417  -0.03431  0.02119  0.004041  0.2419  -0.8616
6.394e+09  0.7291  -0.4784  0.01661  0.001365  -0.03645  -0.05364  -0.06024  -0.9183
6.395e+09  0.5654  -0.751  -0.004703  -0.0009898  0.003374  0.06186  -0.3962  -0.8318
6.396e+09  0.2995  -0.8846  -0.002041  0.003729  0.008623  -0.005456  -0.5885  -0.6843
6.398e+09  -0.01563  -0.8781  0.04485  0.04315  -0.008126  -0.01482  -0.8513  -0.4615
6.399e+09  -0.3273  -0.8171  0.03139  -0.02063  0.03166  -0.00583  -0.9078  -0.09573
6.4e+09  -0.537  -0.6376  0.0063  0.007955  0.04265  -0.002307  -0.9284  0.1849
6.401e+09  -0.7816  -0.4026  -0.01484  -0.04922  0.008772  -0.05734  -0.8205  0.4615
6.402e+09  -0.8619  -0.09642  0.05681  -0.03216  0.01223  0.00698  -0.6088  0.7019
6.404e+09  -0.8323  0.2051  0.02882  0.005393  -0.02349  0.02004  -0.3351  0.8524
6.405e+09  -0.7193  0.4921  0.003385  -0.009419  0.02061  -0.03396  -0.0298  0.8982
6.406e+09  -0.546  0.7138  0.02263  -0.01862  -0.0168  -0.03789  0.3002  0.8501
6.408e+09  -0.266  0.7828  0.01742  0.02489  0.009799  -0.0119  0.5715  0.7032
6.409e+09  0.03429  0.8766  0.02527  0.0486  -0.01738  -0.0273  0.7832  0.4977
6.41e+09  0.3698  0.771  -0.001021  0.03047  -0.001471  0.001059  0.8869  0.1887
6.411e+09  0.6435  0.6115  0.02854  0.01398  -0.04377  0.03333  0.9097  -0.1738
6.412e+09  0.8011  0.3538  -0.003158  0.008791  -0.006599  -0.02046  0.7639  -0.433
6.414e+09  0.8957  0.08263  -0.02052  0.009143  -0.03139  0.004313  0.5818  -0.6604
6.415e+09  0.8711  -0.2652  -0.01336  0.03535  0.01354  0.0007964  0.3394  -0.8363
6.416e+09  0.7303  -0.4945  0.04851  -0.0003574  0.03395  0.02517  -0.007318  -0.9044
6.418e+09  0.5236  -0.7546  0.02872  -0.03545  0.004626  0.01767  -0.2315  -0.83
6.419e+09  0.2108  -0.8329  -0.004591  -0.01392  -0.02053  -0.01882  -0.5733  -0.726
6.42e+09  -0.1312  -0.847  -0.005464  0.003668  -0.03628  0.0193  -0.7905  -0.4974
6.421e+09  -0.4149  -0.8132  -0.04539  0.01131  -0.02739  0.00707  -0.8753  -0.2126
6.422e+09  -0.5769  -0.6017  0.006212  0.04698  -0.04851  0.0002077  -0.8482  0.127
6.424e+09  -0.733  -0.38  0.006949  -0.01737  0.007418  -0.02857  -0.7975  0.4358
6.425e+09  -0.831  -0.08506  0.02162  0.004946  -0.02097  0.06474  -0.5686  0.6311
6.426e+09  -0.8332  0.2543  0.008214  0.01637  0.01112  -0.01667  -0.3179  0.8186
6.428e+09  -0.7086  0.5265  0.01467  -0.009733  -0.02717  0.01208  -0.04274  0.8369
6.429e+09  -0.4883  0.7015  -0.008576  0.02228  0.02851  0.01551  0.2677  0.8028
6.43e+09  -0.2187  0.8483  -0.007632  0.03121  -0.001521  0.01751  0.5395  0.7138
6.431e+09  0.1129  0.833  0.01779  -0.05281  -0.01204  0.03046  0.7168  0.4604
6.432e+09  0.4002  0.765  0.04135  -0.01306  0.003365  -0.005372  0.8243  0.26
6.434e+09  0.6467  0.5638  -0.01765  -0.001578  -0.002824  0.0261  0.852  -0.06899
6.435e+09  0.752  0.3133  0.02516  -0.02379  0.01462  0.0218  0.7577  -0.3803
6.436e+09  0.884  -0.03019  0.01749  -0.006984  -0.01129  0.01246  0.6413  -0.6047
6.438e+09  0.8087  -0.2838  0.00466  0.04966  0.03601  0.01877  0.3773  -0.7406
6.439e+09  0.7311  -0.5811  -0.01932  0.02458  0.05489  0.004977  0.05688  -0.8792
6.44e+09  0.4639  -0.7397  0.001408  0.0002929  -0.04229  -0.0219  -0.2516  -0.8379
6.441e+09  0.1784  -0.8376  0.01338  -0.01854  0.0342  -0.01189  -0.4731  -0.6427
6.442e+09  -0.1443  -0.8457  -0.008367  -0.009128  0.03212  0.005258  -0.7117  -0.5206
6.444e+09  -0.433  -0.7551  0.003073  -0.04076  -0.03168  0.002404  -0.84  -0.2595
6.445e+09  -0.679  -0.6153  -0.01474  0.02054  -0.01549  0.06605  -0.8181  0.08564
6.446e+09  -0.806  -0.3479  -0.03256  -0.04742  -0.03011  0.01814  -0.7664  0.3655
6.448e+09  -0.8268  -0.006015  0.003398  0.02459  0.0584  -0.04353  -0.6051  0.5752
6.449e+09  -0.8376  0.3108  0.02837  -0.03447  0.02119  -0.01606  -0.332  0.798
6.45e+09  -0.6724  0.5546  -0.01344  -0.01879  0.05898  0.02006  -0.03602  0.857
6.451e+09  -0.4634  0.7967  -0.01054  -0.03015  -0.04763  -0.009119  0.2284  0.8185
6.452e+09  -0.1146  0.8175  -0.05183  -0.006488  -0.008449  0.01579  0.4292  0.6907
6.454e+09  0.125  0.8866  -0.005343  0.01013  -0.01069  0.02327  0.6558  0.4361
6.455e+09  0.4185  0.7242  -0.001642  0.0005678  -0.05357  0.01461  0.806  0.2001
6.456e+09  0.673  0.5991  0.01296  0.01265  -0.003915  -0.002849  0.7949  -0.04882
6.458e+09  0.8154  0.3471  -0.006801  0.03485  -0.01911  -0.03378  0.7348  -0.3462
6.459e+09  0.8225  -0.05565  0.01243  0.02333  -0.0264  -0.04496  0.628  -0.5818
6.46e+09  0.8091  -0.3273  0.008285  0.002859  0.008063  0.00759  0.3562  -0.7203
6.461e+09  0.6752  -0.5612  -0.0122  0.0303  0.02422  0.02165  0.05581  -0.8328
6.462e+09  0.4087  -0.7472  -0.03356  -0.04068  0.01298  0.04293  -0.2296  -0.7846
6.464e+09  0.1818  -0.855  -0.02242  -0.01107  -0.02651  0.01899  -0.4623  -0.6469
6.465e+09  -0.1402  -0.8477  0.06718  -0.002001  -0.003455  0.02678  -0.677  -0.4621
6.466e+09  -0.4318  -0.7667  -0.01056  0.02506  -0.02473  0.02562  -0.7832  -0.1545
6.468e+09  -0.7141  -0.5645  -0.04853  -0.02509  -0.01743  -0.02699  -0.8268  0.03195
6.469e+09  -0.8335  -0.3412  -0.04147  0.01199  -0.02517  0.0384  -0.7671  0.3496
6.47e+09  -0.8863  0.02526  -0.01392  -0.00373  0.03094  -0.03352  -0.5524  0.5366
6.471e+09  -0.8505  0.3043  0.04588  -0.02188  0.03467  -0.0672  -0.3113  0.736
6.472e+09  -0.6733  0.5516  0.03062  -0.002421  0.04326  0.05264  -0.03523  0.7915
6.474e+09  -0.4177  0.7539  0.006677  0.02137  -0.01876  -0.00504  0.2029  0.7451
6.475e+09  -0.1164  0.8899  -0.006387  -0.01458  0.03485  -0.02594  0.4244  0.6253
6.476e+09  0.1974  0.8547  0.01695  -0.02959  0.005874  0.01585  0.6309  0.4168
6.478e+09  0.462  0.8162  -4.103e-06  0.0007367  0.0384  -0.001294  0.7507  0.1605
6.479e+09  0.6969  0.5858  -0.002816  0.003921  0.02902  -0.02098  0.7839  -0.08225
6.48e+09  0.8644  0.2781  0.008523  -0.003033  -0.01936  -0.01518  0.671  -0.3427
6.481e+09  0.8741  -0.01152  -0.02127  0.01279  0.03633  -0.03687  0.5043  -0.5568
6.482e+09  0.8083  -0.2919  -0.03787  -0.01749  -0.01687  -0.01841  0.3328  -0.6968
6.484e+09  0.6878  -0.5716  0.01513  0.01093  6.024e-05  -0.002369  0.02624  -0.7655
6.485e+09  0.4288  -0.7214  0.02435  0.02954  0.03486  -0.05809  -0.2184  -0.7425
6.486e+09  0.1296  -0.9052  -0.0102  0.01788  -0.03123  0.07198  -0.4887  -0.6108
6.488e+09  -0.2006  -0.8585  0.01707  -0.001574  0.03184  -0.007231  -0.6212  -0.4499
6.489e+09  -0.452  -0.7585  0.0132  0.00911  -0.07673  -0.03221  -0.7082  -0.1824
6.49e+09  -0.6546  -0.586  -0.02833  -0.005729  0.05605  -0.01963  -0.7601  0.07682
6.491e+09  -0.8198  -0.3014  -0.03652  -0.00458  0.03916  -0.06763  -0.732  0.3454
6.492e+09  -0.8675  -0.0224  -0.02299  0.04349  0.03237  0.03756  -0.511  0.5419
6.494e+09  -0.7823  0.3512  -0.0058  0.02258  0.0002848  -0.02154  -0.3153  0.7393
6.495e+09  -0.6947  0.664  -0.02656  0.00432  0.03289  0.009037  -0.04267  0.7932
6.496e+09  -0.4926  0.821  0.02057  0.01334  0.03948  0.08915  0.1878  0.7553
6.498e+09  -0.1077  0.8808  -0.01295  -0.02739  -0.004502  -0.03778  0.4601  0.59
6.499e+09  0.204  0.9121  0.01595  -0.002608  0.01182  -0.00662  0.6433  0.4094
6.5e+09  0.4827  0.8035  -0.00192  0.003063  -0.02064  0.015  0.7157  0.137
6.501e+09  0.6576  0.5329  -0.01079  -0.03494  -0.03166  -0.05611  0.7394  -0.1192
6.502e+09  0.8752  0.2887  0.001271  0.01798  0.03465  -0.02885  0.6753  -0.3596
6.504e+09  0.8236  -0.03082  -0.005408  0.05487  0.0116  0.06549  0.511  -0.5544
6.505e+09  0.8506  -0.3813  0.004863  -0.01085  0.03727  0.03745  0.2762  -0.6787
6.506e+09  0.6653  -0.636  0.009251  -0.02444  -0.05079  0.01948  0.0298  -0.7408
6.508e+09  0.4273  -0.8122  -0.01172  -0.03536  -0.006404  -0.001154  -0.235  -0.7189
6.509e+09  0.1009  -0.871  0.01296  -0.002602  0.005852  -0.02473  -0.493  -0.5807
6.51e+09  -0.2641  -0.921  -0.04042  0.02686  -0.009757  0.04391  -0.6349  -0.3566
6.511e+09  -0.5176  -0.804  0.001199  -0.02281  -0.001725  0.004742  -0.7473  -0.1059
6.512e+09  -0.7464  -0.5485  0.003184  -0.02592  0.007342  -0.005495  -0.746  0.1311
6.514e+09  -0.8991  -0.2858  0.05054  -0.01348  -0.0186  0.01658  -0.6355  0.3989
6.515e+09  -0.9631  0.03679  0.03553  -0.03288  0.02704  -0.04101  -0.476  0.5614
6.516e+09  -0.8418  0.4262  -0.01568  -0.03058  0.01645  -0.03595  -0.2626  0.7157
6.518e+09  -0.6764  0.6553  -0.02997  -0.0008574  0.01314  0.0619  0.02841  0.7349
6.519e+09  -0.3729  0.8311  0.003013  0.002944  -0.02762  -0.01296  0.2616  0.7072
6.52e+09  -0.07088  0.9297  -0.01333  -0.01965  0.02122  0.02519  0.493  0.5438
6.521e+09  0.2001  0.8999  -0.01598  0.01207  0.02883  -0.05116  0.6411  0.3691
6.522e+09  0.5287  0.7993  0.007283  0.01071  0.03754  0.015  0.6571  0.1023
6.524e+09  0.8033  0.5207  -0.027  0.02395  -0.06399  -0.005328  0.6942  -0.1471
6.525e+09  0.928  0.1891  -0.05086  0.008259  0.001035  -0.01163  0.612  -0.3662
6.526e+09  0.965  -0.1438  0.03256  0.01519  0.02092  -0.001999  0.4101  -0.5849
6.528e+09  0.9062  -0.3991  -0.017  -0.0002022  -0.03339  -0.03111  0.2141  -0.6583
6.529e+09  0.5953  -0.6973  0.01648  -0.03742  -0.00619  0.004285  -0.03024  -0.7141
6.53e+09  0.3127  -0.8679  9.82e-05  0.01246  0.03454  0.02865  -0.274  -0.5805
6.531e+09  0.02878  -0.9605  -0.01089  0.005229  -0.04143  -0.02021  -0.4774  -0.4939
6.532e+09  -0.342  -0.8973  -0.02793  -0.003774  0.03257  0.0126  -0.5466  -0.286
6.534e+09  -0.6063  -0.7621  -0.004818  -0.001869  -0.01075  -0.04251  -0.6519  -0.06832
6.535e+09  -0.8305  -0.511  -0.01736  -0.009357  0.01228  -0.03184  -0.6026  0.1184
6.536e+09  -0.944  -0.171  0.02815  0.004593  0.03199  0.0403  -0.5343  0.2892
6.538e+09  -0.9312  0.1754  -0.02867  -0.02593  -0.01502  -0.008191  -0.4371  0.4814
6.539e+09  -0.7824  0.4791  -0.02423  0.003891  -0.0493  -0.009032  -0.282  0.6095
6.54e+09  -0.6142  0.7501  -0.02349  0.01444  0.001469  0.04712  -0.04198  0.6739
6.541e+09  -0.271  0.9536  0.01517  -0.0235  0.01759  -0.01267  0.1553  0.6687
6.542e+09  0.009485  0.899  -0.007583  0.003948  -0.02182  -0.04303  0.4274  0.5652
6.544e+09  0.3609  0.9241  0.01263  0.02005  0.01762  -0.02736  0.5704  0.3811
6.545e+09  0.7179  0.6872  -0.001528  -0.0101  0.01326  -0.009224  0.6954  0.1969
6.546e+09  0.8553  0.4335  -0.01833  -0.02788  -0.0006606  0.008525  0.7118  -0.07677
6.548e+09  0.9697  0.1232  0.003917  -0.02114  0.05063  0.01928  0.6704  -0.3375
6.549e+09  0.922  -0.2932  0.01479  -0.0002013  0.009317  0.04866  0.4838  -0.5
6.55e+09  0.8196  -0.5298  0.007201  0.001268  0.02841  0.03761  0.2993  -0.6901
6.551e+09  0.552  -0.7568  0.0007439  -0.005371  -0.007574  -0.003666  0.0286  -0.729
