# Hz S RI R 50
6.25e+09  -0.2348  0.7962  -0.03245  -0.0278  -0.03481  -0.007664  0.1905  0.4957
6.251e+09  0.07256  0.8333  0.01589  -0.006226  0.01181  -0.01076  0.3516  0.3726
6.252e+09  0.3786  0.814  0.009859  -0.003736  0.008007  -0.01351  0.5142  0.2191
6.254e+09  0.6601  0.6208  0.008435  -0.007506  0.01789  0.01465  0.6261  -0.001989
6.255e+09  0.7889  0.355  -0.01759  0.01562  0.02509  -0.005357  0.606  -0.2164
6.256e+09  0.8666  0.1193  -0.01522  -0.01301  -0.0031  -0.003952  0.4984  -0.4391
6.258e+09  0.8503  -0.1634  -0.004912  -0.006301  0.03336  0.05051  0.2784  -0.5803
6.259e+09  0.6955  -0.448  0.01265  0.0198  0.03771  0.06993  0.08209  -0.6901
6.26e+09  0.4993  -0.7164  -0.03914  -0.01638  0.04947  0.0106  -0.2271  -0.6473
6.261e+09  0.2076  -0.8592  -0.00489  0.01066  -0.009188  0.04204  -0.4526  -0.5578
6.262e+09  -0.06165  -0.8541  -0.012  -0.005683  0.04279  -0.01225  -0.6204  -0.3533
6.264e+09  -0.3169  -0.7255  0.01659  -0.0208  0.02039  -0.03073  -0.7003  -0.1174
6.265e+09  -0.6133  -0.5854  -0.003151  0.01325  -0.01921  0.01846  -0.7053  0.1353
6.266e+09  -0.8107  -0.3847  -0.003073  0.01235  0.0356  -0.02702  -0.581  0.3792
6.268e+09  -0.7868  -0.0735  0.02345  -0.001788  0.01424  -0.04263  -0.4376  0.5488
6.269e+09  -0.8596  0.2226  -0.01197  0.002526  0.03245  -0.006182  -0.1967  0.7037
6.27e+09  -0.7015  0.4661  -0.01703  0.02472  -0.03388  -0.03062  0.05323  0.7253
6.271e+09  -0.4544  0.7497  -0.0116  0.01033  -0.01467  0.02449  0.3268  0.663
6.272e+09  -0.2305  0.7849  -0.006994  -0.01052  0.01233  -0.009354  0.5574  0.5261
6.274e+09  0.09874  0.8544  0.006346  -0.004669  -0.0001209  -0.04096  0.6954  0.2985
6.275e+09  0.3474  0.7743  -0.04027  -0.01084  -0.02608  0.04078  0.7893  0.06874
6.276e+09  0.5467  0.5169  -0.02381  0.02276  0.02604  0.002368  0.7413  -0.2325
6.278e+09  0.7651  0.3608  -0.0008643  -0.02069  0.0001353  0.02012  0.6043  -0.4791
6.279e+09  0.7945  0.08729  -0.02167  -0.005785  0.006628  0.1172  0.4081  -0.6376
6.28e+09  0.791  -0.2554  -0.04023  0.004294  -0.00664  0.05621  0.1648  -0.7555
6.281e+09  0.6843  -0.4699  0.005816  -0.02345  0.01519  -0.02892  -0.108  -0.7693
6.282e+09  0.4247  -0.6569  -0.009645  0.0004458  0.009234  -0.003618  -0.3404  -0.7207
6.284e+09  0.187  -0.7956  -0.01809  -0.02915  0.01455  -0.02068  -0.5857  -0.5234
6.285e+09  -0.06929  -0.8184  -0.005009  -0.008773  0.003856  0.01327  -0.7584  -0.2873
6.286e+09  -0.4207  -0.7376  0.004169  0.006718  -0.04395  0.0157  -0.7992  -0.03683
6.288e+09  -0.608  -0.564  -0.01809  0.002394  0.005367  0.05017  -0.742  0.2833
6.289e+09  -0.7398  -0.2694  -0.01714  -0.02041  -0.02809  -0.01182  -0.627  0.5152
6.29e+09  -0.8017  -0.0491  0.006363  -0.0088  0.02463  0.01331  -0.4169  0.6686
6.291e+09  -0.7751  0.2201  0.01175  0.002934  0.01772  0.01391  -0.132  0.7635
6.292e+09  -0.6941  0.4664  0.004681  -0.009788  0.05358  0.003995  0.116  0.8098
6.294e+09  -0.4537  0.6946  0.02246  0.008661  0.01774  0.03638  0.3947  0.7172
6.295e+09  -0.2026  0.8172  -0.03986  0.01713  0.009245  0.007174  0.6269  0.5343
6.296e+09  0.1306  0.8822  0.01005  0.02424  -0.01068  -0.04337  0.7763  0.2656
6.298e+09  0.4041  0.7122  -0.00565  -0.02807  -0.0246  0.03827  0.8389  0.02007
6.299e+09  0.6153  0.5337  0.01332  0.01337  -0.0156  0.0001317  0.7808  -0.2784
6.3e+09  0.792  0.2916  -0.01065  -0.005144  -0.005661  -0.02255  0.6544  -0.5251
6.301e+09  0.8569  0.02288  0.03097  0.02186  0.00358  -0.02299  0.4159  -0.73
6.302e+09  0.7687  -0.3274  -0.001819  0.001821  0.005987  -0.0141  0.1388  -0.8168
6.304e+09  0.6435  -0.5427  -0.007123  0.01138  -0.04915  -0.02  -0.1618  -0.826
6.305e+09  0.4362  -0.7381  0.005524  0.006067  -0.04893  0.01755  -0.4144  -0.7208
6.306e+09  0.1243  -0.8289  0.002652  0.01064  0.006523  -0.01805  -0.6517  -0.5435
6.308e+09  -0.2292  -0.826  0.002478  -0.01722  -0.02074  0.02159  -0.8149  -0.2714
6.309e+09  -0.4237  -0.7109  0.01686  0.01294  0.03089  0.01398  -0.8851  -0.01579
6.31e+09  -0.6968  -0.4861  -0.01888  -0.01156  -0.01843  0.02381  -0.8188  0.2401
6.311e+09  -0.8296  -0.275  0.01419  -0.01402  0.008579  0.0491  -0.6667  0.548
6.312e+09  -0.8614  0.03739  0.0265  -0.005941  -0.007082  0.03719  -0.4218  0.7545
6.314e+09  -0.7724  0.3218  0.01854  0.01862  -0.03281  0.007587  -0.1813  0.8446
6.315e+09  -0.6125  0.6062  -0.008232  0.004863  0.02567  0.04144  0.136  0.8531
6.316e+09  -0.3658  0.7388  0.01036  -0.001038  0.03592  -0.009646  0.4355  0.7594
6.318e+09  -0.08547  0.8421  -0.03475  0.02755  0.001665  0.00617  0.6681  0.5471
6.319e+09  0.252  0.7666  -0.02935  -0.04037  -0.02652  0.02159  0.8092  0.3166
6.32e+09  0.4545  0.6724  -0.01178  -0.01001  -0.006061  -0.02421  0.8864  0.027
6.321e+09  0.7187  0.5042  0.0007541  0.01857  0.02029  0.01571  0.822  -0.2933
6.322e+09  0.8154  0.1717  -0.00939  -0.001336  -0.02012  -0.004263  0.7188  -0.5699
6.324e+09  0.8294  -0.1497  -0.02025  0.01271  -0.02675  -0.03476  0.4192  -0.8078
6.325e+09  0.7527  -0.3477  0.006278  0.02657  -0.02898  0.006019  0.1914  -0.8636
6.326e+09  0.5894  -0.6275  -0.01501  0.02999  -0.03602  -0.03595  -0.1221  -0.8859
6.328e+09  0.3438  -0.7676  0.01621  -0.01939  -0.006097  -0.01701  -0.4308  -0.7618
6.329e+09  0.04966  -0.8601  -0.02875  0.008674  -0.003549  -0.01513  -0.6877  -0.5695
6.33e+09  -0.2726  -0.8447  0.02449  -0.006176  -0.01214  -0.03408  -0.8223  -0.3507
6.331e+09  -0.5376  -0.709  -0.01079  -0.01255  0.007996  0.0415  -0.9158  -0.0347
6.332e+09  -0.7323  -0.4559  0.03205  -0.0129  0.003992  0.03465  -0.8771  0.2655
6.334e+09  -0.8669  -0.1687  0.01246  0.01227  0.03545  -0.004447  -0.7172  0.5604
6.335e+09  -0.9064  0.1703  -0.001199  0.007102  -0.01257  0.002543  -0.5067  0.7688
6.336e+09  -0.734  0.4206  -0.02281  0.007706  -0.02463  -0.03095  -0.1807  0.8526
6.338e+09  -0.5789  0.691  -0.006929  0.001032  -0.06193  0.0003259  0.1493  0.9041
6.339e+09  -0.2902  0.8382  -0.01407  0.0001735  0.01473  -0.03443  0.4076  0.8345
6.34e+09  -0.0002798  0.8436  -0.009743  0.02422  -0.01078  0.02982  0.6664  0.6204
6.341e+09  0.3614  0.7802  0.01347  0.01216  -0.03535  0.03198  0.8527  0.3491
6.342e+09  0.6102  0.6428  0.01843  0.007228  -0.004932  0.04864  0.9216  0.05824
6.344e+09  0.8216  0.4112  0.02455  0.01621  0.03713  -0.02214  0.8789  -0.2218
6.345e+09  0.8336  0.1103  0.003369  0.0621  0.01935  -0.02973  0.7175  -0.5774
6.346e+09  0.8593  -0.1533  0.02918  0.008607  0.02368  0.02688  0.5118  -0.797
6.348e+09  0.7095  -0.4522  -0.01093  0.01644  -0.02905  0.009994  0.2339  -0.9219
6.349e+09  0.5353  -0.7357  -0.01195  0.00813  -0.01645  -0.02691  -0.1028  -0.9132
6.35e+09  0.2193  -0.8732  0.00584  0.007256  0.01121  0.0349  -0.407  -0.8158
6.351e+09  -0.08265  -0.852  0.01684  -0.01136  0.01203  0.02433  -0.6657  -0.6293
6.352e+09  -0.3571  -0.8064  6.982e-05  -0.01609  0.01047  -0.006665  -0.7985  -0.426
6.354e+09  -0.6638  -0.6369  0.02098  -0.03705  -0.01551  0.03538  -0.9398  -0.09559
6.355e+09  -0.8541  -0.4094  -0.005986  -0.003296  0.009305  -0.02297  -0.8985  0.2123
6.356e+09  -0.8647  -0.07936  -0.001979  0.04231  0.005658  -0.02578  -0.7948  0.611
6.358e+09  -0.7651  0.2329  -0.03671  0.01783  0.006144  0.007789  -0.5221  0.7763
6.359e+09  -0.7119  0.5369  -0.009988  0.01385  0.008414  -0.02523  -0.2318  0.9149
6.36e+09  -0.4858  0.7205  -0.01191  -0.01524  -0.013  0.01603  0.0977  0.9365
6.361e+09  -0.2015  0.8957  0.005863  -0.007235  0.02095  0.005534  0.3851  0.8672
6.362e+09  0.1539  0.8572  -0.007733  0.02143  0.04727  -0.02898  0.6813  0.6789
6.364e+09  0.4337  0.7453  -0.006601  -0.02405  -0.001822  0.00889  0.8681  0.3898
6.365e+09  0.6664  0.5937  0.01044  -4.084e-05  -0.01997  -0.002266  0.9308  0.1324
6.366e+09  0.8015  0.2672  -0.006952  -0.002346  -0.009219  -0.02492  0.917  -0.2569
6.368e+09  0.9314  -0.002494  -0.002305  -0.03271  -0.02487  -0.008453  0.7935  -0.5384
6.369e+09  0.8322  -0.3031  -8.621e-05  -0.001913  0.01617  0.01678  0.55  -0.774
6.37e+09  0.6604  -0.5832  0.005762  0.01976  0.01649  0.03521  0.2494  -0.9078
6.371e+09  0.407  -0.7462  0.02078  -0.001936  -0.01314  -0.02646  -0.08546  -0.9648
6.372e+09  0.1659  -0.8585  0.04627  -0.02351  -0.011  -0.01946  -0.3825  -0.8214
6.374e+09  -0.1842  -0.8788  -0.03582  0.03454  -0.01955  0.03048  -0.6685  -0.6692
6.375e+09  -0.4631  -0.7575  -0.01479  -0.0346  0.01811  -0.01663  -0.84  -0.4425
6.376e+09  -0.6622  -0.5632  0.02407  -0.002126  -0.01343  0.004039  -0.9665  -0.09574
6.378e+09  -0.8574  -0.2515  0.05437  -0.0123  0.00165  -0.008964  -0.9461  0.1762
6.379e+09  -0.8977  0.02135  0.022  0.02234  -0.003958  -0.007477  -0.764  0.5045
6.38e+09  -0.8164  0.3735  -0.00164  -0.002571  -0.04614  -0.01886  -0.5736  0.7536
6.381e+09  -0.6371  0.6125  -0.04036  -0.001862  -0.01108  -0.02413  -0.2736  0.8868
6.382e+09  -0.3904  0.7527  0.01434  0.01182  -0.01482  -0.02697  0.05418  0.918
6.384e+09  -0.07955  0.8659  0.01739  -0.02599  0.01304  0.0401  0.3557  0.8251
6.385e+09  0.2479  0.854  -0.01849  9.051e-05  -0.03203  0.002269  0.6247  0.6838
6.386e+09  0.5064  0.7655  -0.02413  0.02007  -0.03931  0.002502  0.8528  0.4209
6.388e+09  0.7193  0.5102  -0.01574  0.006898  0.01956  0.006052  0.9311  0.1067
6.389e+09  0.8534  0.1871  -0.0324  0.02178  -0.02745  0.002936  0.9163  -0.2108
6.39e+09  0.905  -0.05572  -0.02521  -0.03539  -0.0101  0.007889  0.7949  -0.4657
6.391e+09  0.8491  -0.422  -0.01082  -0.01156  0.009345  0.01782  0.5641  -0.742
6.392e+09  0.6734  -0.655  0.0146  0.01668  0.03847  -0.006385  0.3033  -0.8683
6.394e+09  0.3724  -0.8226  -0.02287  -0.05619  0.00739  0.002661  -0.02962  -0.9182
6.395e+09  0.04457  -0.8964  0.03178  -0.004926  0.05396  -0.07466  -0.3415  -0.8542
6.396e+09  -0.2417  -0.8759  -0.0009382  -0.03921  -0.005522  -0.005706  -0.6377  -0.6609
6.398e+09  -0.4768  -0.6806  -0.005672  0.02028  0.0002802  0.08204  -0.7873  -0.4553
6.399e+09  -0.7533  -0.5511  0.01703  0.02163  -0.02442  -0.02506  -0.8881  -0.1628
6.4e+09  -0.8762  -0.2419  0.01238  -0.007005  -0.03104  -0.02159  -0.9146  0.181
6.401e+09  -0.8481  0.09771  0.01391  -0.01873  0.02538  -0.01449  -0.8171  0.453
6.402e+09  -0.7641  0.4283  0.0002499  0.03798  0.009503  -0.003711  -0.5791  0.7029
6.404e+09  -0.6198  0.6656  0.0004443  0.01426  -0.006388  -0.01618  -0.3095  0.8204
6.405e+09  -0.3719  0.8139  0.01408  -0.01453  0.03467  0.004973  0.01004  0.8994
6.406e+09  -0.01959  0.8827  0.07358  0.001094  -0.01378  -0.01874  0.3029  0.8586
6.408e+09  0.2451  0.8244  -0.005845  0.001658  -0.005146  0.02189  0.5903  0.7088
6.409e+09  0.5126  0.7347  0.007372  -0.009932  -0.0006854  -0.04303  0.7293  0.4983
6.41e+09  0.7216  0.472  -0.007731  -0.01357  0.005166  0.009522  0.9049  0.1509
6.411e+09  0.8569  0.2178  0.03231  0.004042  -0.006239  0.01523  0.8754  -0.1037
6.412e+09  0.8518  -0.09402  0.003224  0.003793  -0.03662  -0.02555  0.8012  -0.433
6.414e+09  0.7384  -0.408  -0.06151  0.005662  0.03175  -0.04176  0.5727  -0.7045
6.415e+09  0.6334  -0.6351  -0.005591  -0.02684  0.0139  -0.03961  0.3454  -0.8434
6.416e+09  0.3401  -0.7739  -0.01499  -0.02089  0.0212  0.006205  -0.000589  -0.8901
6.418e+09  0.0008527  -0.8659  0.003764  0.03147  0.004983  -0.01686  -0.2358  -0.8462
6.419e+09  -0.2833  -0.8494  -0.003855  0.02632  -0.0055  0.02583  -0.5633  -0.699
6.42e+09  -0.5207  -0.7126  -0.01709  0.006508  -0.01666  0.08018  -0.7797  -0.5022
6.421e+09  -0.7635  -0.4776  0.008429  0.003201  0.01488  0.002805  -0.8536  -0.1524
6.422e+09  -0.8691  -0.1773  -0.003697  -0.006614  -0.000292  -0.042  -0.9209  0.107
6.424e+09  -0.8604  0.1254  0.01194  0.01235  -0.006657  -0.0001842  -0.7837  0.4273
6.425e+09  -0.7773  0.4447  0.02844  -0.03311  0.02696  0.004846  -0.5783  0.635
6.426e+09  -0.5427  0.6631  -0.009254  0.04413  0.04076  -0.05201  -0.2917  0.8
6.428e+09  -0.3088  0.8547  0.03071  -0.02481  -0.01327  -0.01869  -0.06446  0.8528
6.429e+09  -0.02401  0.8976  0.02025  -0.0529  -0.02209  -0.02327  0.2943  0.8001
6.43e+09  0.2844  0.8475  0.01789  -0.05782  -0.002154  -0.02469  0.5233  0.7093
6.431e+09  0.5595  0.6714  -0.01508  -0.0009998  -0.02674  0.06353  0.6998  0.4935
6.432e+09  0.7982  0.4486  0.02448  0.0004098  -0.03364  0.0002222  0.7883  0.241
6.434e+09  0.8658  0.2253  -0.01548  0.01104  -0.07154  -0.01798  0.84  -0.08276
6.435e+09  0.8622  -0.1512  0.01367  -0.01937  0.0123  -0.01575  0.7851  -0.3835
6.436e+09  0.7983  -0.4329  -0.01879  0.02207  -0.01054  -0.024  0.5945  -0.6102
6.438e+09  0.5479  -0.662  0.01783  0.008449  0.02802  -0.01985  0.3652  -0.7626
6.439e+09  0.2938  -0.8586  -0.00351  -0.02228  0.01954  -0.008613  0.09247  -0.8481
6.44e+09  0.003246  -0.9102  0.01852  0.03426  -0.01364  0.02965  -0.2282  -0.8107
6.441e+09  -0.3022  -0.8654  0.02091  -0.0215  0.009967  0.06065  -0.4754  -0.6881
6.442e+09  -0.5654  -0.6944  0.0166  -0.01908  0.0132  -0.04918  -0.7225  -0.4947
6.444e+09  -0.8162  -0.4791  0.04474  0.03184  0.0448  -0.02238  -0.8096  -0.2041
6.445e+09  -0.8899  -0.1535  -0.04466  0.002894  -0.03436  -0.0151  -0.8127  0.1088
6.446e+09  -0.8788  0.1358  0.05215  0.01647  -0.005648  -0.008611  -0.7693  0.3474
6.448e+09  -0.8096  0.4605  -1.898e-05  -0.01185  -0.006568  -0.04208  -0.6169  0.6192
6.449e+09  -0.6217  0.7121  0.002835  -0.01532  -0.02386  0.04348  -0.3578  0.7557
6.45e+09  -0.3  0.8605  -0.01259  -0.01656  0.002423  0.02882  -0.07875  0.813
6.451e+09  0.01979  0.8606  -0.01674  0.01008  0.01813  -0.04465  0.1841  0.8252
6.452e+09  0.3216  0.8936  0.03588  -0.01389  0.03969  -0.01818  0.4889  0.7213
6.454e+09  0.6042  0.6815  -0.02096  0.01895  0.01722  -0.03345  0.6994  0.473
6.455e+09  0.7847  0.4611  -0.02427  0.02151  0.03541  -0.001915  0.8224  0.2397
6.456e+09  0.9001  0.1154  -0.03433  0.01844  0.01569  -0.02195  0.8172  -0.07004
6.458e+09  0.8901  -0.1791  0.001178  0.00803  0.01519  -0.01044  0.7652  -0.3636
6.459e+09  0.7672  -0.4271  -0.02691  -0.03569  0.0273  -0.007763  0.5858  -0.5399
6.46e+09  0.591  -0.7169  -0.03698  -0.0264  -0.02763  -0.00855  0.382  -0.7656
6.461e+09  0.2916  -0.7986  -0.04052  0.01785  0.00337  -0.03133  0.09067  -0.7943
6.462e+09  0.01301  -0.9139  -0.02422  0.0005641  0.003004  0.009159  -0.2241  -0.8061
6.464e+09  -0.2829  -0.8491  0.02453  0.01859  -0.01856  0.03884  -0.4817  -0.6486
6.465e+09  -0.641  -0.6865  0.0102  0.007988  0.003348  -0.01442  -0.7011  -0.4577
6.466e+09  -0.819  -0.391  0.01255  0.024  -0.006756  0.007454  -0.7743  -0.2227
6.468e+09  -0.9296  -0.1656  0.0006708  0.005725  0.03674  -0.01803  -0.7455  0.1024
6.469e+09  -0.9155  0.1718  -0.0518  -0.04684  0.01573  -0.04084  -0.7045  0.3828
6.47e+09  -0.7584  0.4745  -0.01935  0.05638  -0.06019  -0.02934  -0.5317  0.5524
6.471e+09  -0.5543  0.6982  -0.01048  0.03383  -0.0369  -0.01067  -0.2823  0.7347
6.472e+09  -0.2428  0.9152  0.01818  -0.01934  0.03986  -0.02893  -0.07381  0.7769
6.474e+09  0.06419  0.9095  -0.007678  -0.03047  0.001216  -0.02067  0.1965  0.7563
6.475e+09  0.3557  0.8384  0.02859  0.02162  -0.02903  -0.007829  0.4462  0.6066
6.476e+09  0.6647  0.6807  -0.02006  -0.02561  0.04254  -0.04188  0.6621  0.4407
6.478e+09  0.8583  0.3889  0.002914  -0.02672  0.008493  0.0253  0.7749  0.1808
6.479e+09  0.9034  0.119  -0.02327  0.002218  0.02548  -0.01862  0.7771  -0.072
6.48e+09  0.8422  -0.2335  0.005297  -0.03046  -0.02493  -0.004603  0.7104  -0.3429
6.481e+09  0.8044  -0.5861  -0.00553  0.03589  0.0003173  -0.002144  0.5719  -0.5815
6.482e+09  0.5508  -0.772  0.02142  0.05398  0.04572  0.03607  0.3224  -0.7372
6.484e+09  0.2544  -0.9026  -0.01832  0.006723  0.004138  -0.02962  0.03892  -0.7287
6.485e+09  -0.06175  -0.9396  0.02266  -0.005246  -0.005489  -0.02776  -0.2334  -0.7617
6.486e+09  -0.3481  -0.8729  -0.007539  -0.009832  -0.01411  -0.05972  -0.4313  -0.6616
6.488e+09  -0.652  -0.6776  0.01449  -0.001227  0.01118  0.0107  -0.6586  -0.4355
6.489e+09  -0.8539  -0.3904  -0.01817  0.01027  -0.00257  -0.01838  -0.7316  -0.1889
6.49e+09  -0.9271  -0.0599  0.02434  -0.02688  -0.00833  0.02478  -0.7651  0.09525
6.491e+09  -0.8754  0.2425  0.00177  -0.06035  -0.01342  -0.004703  -0.6689  0.2852
6.492e+09  -0.7134  0.557  0.01345  -0.02426  0.01643  0.008023  -0.5471  0.6002
6.494e+09  -0.5473  0.7663  -0.01842  0.01703  0.009661  0.01338  -0.3271  0.6728
6.495e+09  -0.2297  0.8823  -0.0404  0.006119  0.01282  0.04233  -0.06579  0.7487
6.496e+09  0.09722  0.9638  0.002474  -0.01062  0.05134  0.01835  0.2397  0.7352
6.498e+09  0.3985  0.8282  -0.0004305  -0.03435  -0.01819  -0.05012  0.4059  0.5694
6.499e+09  0.747  0.6326  0.03954  0.0381  0.007734  0.02265  0.6544  0.4218
6.5e+09  0.8569  0.3745  0.01789  -0.008758  0.0008945  0.009899  0.7397  0.1467
6.501e+09  0.9416  0.06704  0.04537  0.03828  -0.02741  -0.003012  0.7747  -0.123
6.502e+09  0.8937  -0.2995  -0.002569  0.005089  -0.0216  -0.01799  0.6732  -0.3738
6.504e+09  0.7331  -0.5868  0.01088  -0.01417  0.02137  -0.02081  0.5053  -0.5699
6.505e+09  0.5243  -0.8009  -0.03004  0.01302  -0.0292  0.00276  0.3122  -0.7174
6.506e+09  0.1846  -0.9588  -0.006035  0.01449  0.01425  -0.05303  -0.02239  -0.7594
6.508e+09  -0.2045  -0.8931  -0.02403  0.04213  0.004476  -0.01146  -0.2435  -0.6659
6.509e+09  -0.5082  -0.9228  -0.005544  0.002208  0.05947  0.03217  -0.4657  -0.5667
6.51e+09  -0.7178  -0.5886  -0.01309  -0.01811  0.01387  -0.009193  -0.6274  -0.3791
6.511e+09  -0.9198  -0.3324  -0.00151  -0.004498  0.0102  -0.03508  -0.7438  -0.1049
6.512e+09  -0.9264  -0.02778  0.01928  0.03337  0.006654  -0.06232  -0.7328  0.1272
6.514e+09  -0.9505  0.3407  0.003387  -0.0007619  0.006616  0.04245  -0.67  0.38
6.515e+09  -0.704  0.6746  -0.007008  -0.03022  -0.04078  -0.03931  -0.4577  0.5718
6.516e+09  -0.4512  0.8568  0.009749  -0.005141  0.01445  0.01985  -0.2285  0.6808
6.518e+09  -0.1332  0.9449  0.02719  -0.001167  0.07899  -0.009923  -0.006599  0.7198
6.519e+09  0.1638  0.956  -0.03125  -0.01675  0.02569  -0.02727  0.278  0.6996
6.52e+09  0.4953  0.8387  0.01095  0.002435  0.00508  0.0159  0.4803  0.5582
6.521e+09  0.7935  0.569  -0.0207  -0.0102  0.02599  -0.004582  0.6291  0.3737
6.522e+09  0.9233  0.2847  -0.01388  0.02519  0.01782  -0.006949  0.7404  0.09239
6.524e+09  0.9137  -0.01767  0.01818  -0.02432  0.03381  -0.07357  0.7214  -0.179
6.525e+09  0.8541  -0.4012  0.006799  -0.004485  0.009715  0.0171  0.6422  -0.38
6.526e+09  0.6667  -0.6849  -0.04373  0.03601  -0.01548  0.04043  0.4337  -0.5908
6.528e+09  0.3834  -0.9078  -0.02237  -0.002127  -0.023  -0.05139  0.177  -0.6447
6.529e+09  0.05669  -0.9305  -0.01377  0.0006103  0.01633  0.0494  -0.08346  -0.7002
6.53e+09  -0.2615  -0.8867  0.01565  0.05752  0.004059  0.003069  -0.2794  -0.6122
6.531e+09  -0.5754  -0.7654  0.01776  0.009757  0.01434  0.02408  -0.4781  -0.4586
6.532e+09  -0.8215  -0.5412  -0.03518  0.00717  -0.006406  0.01131  -0.5878  -0.2776
6.534e+09  -0.9395  -0.1782  0.01678  0.02892  0.04395  0.001529  -0.6707  -0.06598
6.535e+09  -0.9846  0.1977  -0.01112  -0.005786  0.0383  0.005378  -0.6368  0.1286
6.536e+09  -0.8325  0.4709  0.01922  -0.0005643  -0.01004  0.03032  -0.5673  0.3279
6.538e+09  -0.6028  0.7598  -0.01513  0.01317  -0.02921  0.00816  -0.4302  0.4941
6.539e+09  -0.3441  0.9052  0.02557  0.02298  0.06381  0.04023  -0.292  0.6022
6.54e+09  0.03079  1.009  -0.005774  -0.002135  0.003613  0.01752  -0.02376  0.6811
6.541e+09  0.3751  0.9008  0.02614  0.01795  -0.02765  0.007259  0.2179  0.6747
6.542e+09  0.6397  0.6665  -0.02956  0.04618  -0.04394  -0.05536  0.3652  0.6021
6.544e+09  0.8198  0.4139  -0.02891  -0.007463  -0.01276  -0.04402  0.6193  0.4059
6.545e+09  0.9955  0.1365  0.0162  0.006823  0.02419  -0.01257  0.7002  0.1575
6.546e+09  0.9246  -0.2045  0.01228  0.006625  0.016  0.01484  0.7172  -0.08693
6.548e+09  0.7815  -0.5514  0.00445  0.006723  0.04881  -0.00477  0.6261  -0.3033
6.549e+09  0.5137  -0.7866  0.04119  -0.01464  -0.03193  -0.04256  0.4981  -0.5246
6.55e+09  0.2191  -0.9025  -0.02135  0.02203  0.008127  0.01879  0.273  -0.6729
