# Hz S RI R 50
6.25e+09  -0.004742  -0.8102  0.005164  -0.05038  -0.0972  -0.04144  0.1801  0.4723
6.251e+09  -0.1727  -0.7341  -0.03499  -0.02556  -0.03322  0.01627  0.3352  0.331
6.252e+09  -0.5031  -0.6565  -0.02061  -0.007044  -0.03292  -0.00172  0.5058  0.2646
6.254e+09  -0.6505  -0.3935  -0.008155  -0.04689  0.031  0.02319  0.6351  0.003279
6.255e+09  -0.803  -0.1449  -0.01596  0.01335  0.04271  -0.03361  0.5682  -0.1916
6.256e+09  -0.7633  0.1789  -0.02684  -0.01885  0.009095  0.06742  0.4687  -0.4339
6.258e+09  -0.6147  0.3893  0.01887  0.03817  0.03514  0.01704  0.3064  -0.6036
6.259e+09  -0.4378  0.6549  -0.007059  -0.0006904  -0.02691  0.01205  0.03898  -0.6389
6.26e+09  -0.2249  0.7738  0.003594  0.0231  0.01207  0.05944  -0.2039  -0.656
6.261e+09  0.08081  0.733  -0.01487  -0.002784  0.001111  -0.04947  -0.4178  -0.5467
6.262e+09  0.3119  0.7035  0.006173  0.009738  0.01012  0.0199  -0.6295  -0.337
6.264e+09  0.5767  0.6016  0.01106  0.01466  0.006808  -0.03107  -0.7033  -0.09669
6.265e+09  0.7138  0.3033  0.02703  0.002529  0.03066  -0.01235  -0.6911  0.1735
6.266e+09  0.7543  0.006517  0.01069  0.004269  -0.01117  0.03989  -0.6275  0.394
6.268e+09  0.7067  -0.2256  -0.008346  -0.01169  -0.01032  0.001045  -0.4239  0.5707
6.269e+09  0.6392  -0.5221  -0.006387  0.008063  0.05594  -0.03743  -0.1926  0.6913
6.27e+09  0.4373  -0.6756  0.001994  0.01756  -0.02545  -0.0505  0.05003  0.7519
6.271e+09  0.1387  -0.7846  -0.004026  0.01591  -0.009527  -0.0174  0.3077  0.6862
6.272e+09  -0.1596  -0.7624  0.02104  -0.02738  0.01257  -0.0379  0.5026  0.5386
6.274e+09  -0.3881  -0.6409  -0.006289  0.01409  -0.02401  0.04091  0.7175  0.3127
6.275e+09  -0.597  -0.4784  -0.001758  -0.01732  0.009396  0.009956  0.7418  0.07772
6.276e+09  -0.7274  -0.2018  0.009404  0.01149  0.01556  0.02081  0.7279  -0.2225
6.278e+09  -0.7679  0.09646  -0.01938  -0.03912  0.03104  0.002097  0.5812  -0.4658
6.279e+09  -0.7846  0.3056  0.01765  -0.01127  0.0501  -0.00323  0.3873  -0.6803
6.28e+09  -0.5921  0.5571  0.01204  -0.01297  -0.02376  -0.01799  0.1688  -0.7636
6.281e+09  -0.3497  0.6986  -0.01182  -0.008028  -0.008688  0.02809  -0.0893  -0.7381
6.282e+09  -0.07691  0.7934  0.007334  0.01314  0.005465  0.03681  -0.3696  -0.7068
6.284e+09  0.219  0.761  0.001635  -0.01009  0.0123  -0.02402  -0.5822  -0.5465
6.285e+09  0.4724  0.6166  0.01104  -0.008204  -0.0425  0.01903  -0.7296  -0.305
6.286e+09  0.6865  0.3961  -0.01133  0.001514  -0.004393  -0.06182  -0.7642  -0.03005
6.288e+09  0.7682  0.164  -0.0008288  0.003481  -0.04547  -0.02097  -0.7571  0.2355
6.289e+09  0.8039  -0.1457  -0.02353  0.03347  0.01993  0.02305  -0.6295  0.5124
6.29e+09  0.7159  -0.3593  0.03474  -0.01955  -0.0117  -0.03177  -0.3996  0.6986
6.291e+09  0.5091  -0.6296  0.008201  0.003367  -0.04446  -0.005954  -0.1314  0.7827
6.292e+09  0.2213  -0.7781  0.01207  0.003448  -0.05212  0.001089  0.1295  0.8141
6.294e+09  0.02791  -0.7614  0.006138  -0.03147  -0.006854  0.007465  0.3822  0.7152
6.295e+09  -0.29  -0.7355  0.01766  0.01353  0.02375  0.002031  0.6263  0.5467
6.296e+09  -0.5621  -0.5954  -0.032  -0.01879  -0.00287  0.001173  0.73  0.297
6.298e+09  -0.7262  -0.3555  0.009783  -0.00387  0.01114  -0.01349  0.8381  0.01662
6.299e+09  -0.8019  -0.1028  0.04232  -0.001107  -0.03214  0.01041  0.7623  -0.275
6.3e+09  -0.8292  0.1935  0.02218  0.01052  0.007867  0.05173  0.6253  -0.5504
6.301e+09  -0.629  0.4435  -0.01683  0.02848  0.03986  -0.03991  0.4247  -0.7058
6.302e+09  -0.4058  0.6503  -0.01305  0.005674  0.03122  0.02004  0.1704  -0.8289
6.304e+09  -0.1894  0.776  0.03188  -0.008062  0.01753  -0.01982  -0.1404  -0.8591
6.305e+09  0.1349  0.7513  0.01655  0.02736  0.004188  0.03465  -0.417  -0.731
6.306e+09  0.3699  0.688  -0.001068  0.02746  0.002943  0.01354  -0.6282  -0.5359
6.308e+09  0.5693  0.5471  -3.423e-05  0.00087  0.02179  -0.02236  -0.7968  -0.3112
6.309e+09  0.7352  0.2776  0.002693  -0.03725  0.03075  0.03947  -0.856  -0.008519
6.31e+09  0.7732  0.01283  -0.007285  -0.03971  0.01195  -0.02045  -0.8068  0.2767
6.311e+09  0.7515  -0.3065  -0.01648  0.0163  -0.03687  -0.00697  -0.6595  0.5439
6.312e+09  0.6246  -0.4905  -0.008632  -0.004084  0.004579  0.006713  -0.425  0.7054
6.314e+09  0.4454  -0.7149  -0.002907  -0.02609  0.05583  0.01066  -0.17  0.8246
6.315e+09  0.1184  -0.7773  -0.007456  -0.001641  -0.005821  0.042  0.127  0.8698
6.316e+09  -0.1592  -0.7925  0.02318  -0.01011  -0.009453  0.01853  0.4401  0.7352
6.318e+09  -0.492  -0.6773  0.01442  0.007759  -0.006764  0.0006293  0.6834  0.5573
6.319e+09  -0.6683  -0.4428  0.01079  0.01855  -0.001487  -0.0595  0.8102  0.3201
6.32e+09  -0.8158  -0.2018  0.01339  -0.004238  -0.004561  0.04341  0.9289  0.02326
6.321e+09  -0.7979  0.07722  0.0009838  -0.02665  0.02835  -0.002118  0.8114  -0.2926
6.322e+09  -0.7245  0.3543  -0.005331  0.009533  0.0002923  0.01962  0.7004  -0.5396
6.324e+09  -0.5142  0.6177  0.001222  -0.01982  0.01315  -0.03288  0.4748  -0.7681
6.325e+09  -0.3328  0.7101  0.02782  -0.008306  0.001204  0.06799  0.1754  -0.8525
6.326e+09  -0.04829  0.8313  -0.008083  -0.009149  -0.02167  -0.01674  -0.1244  -0.8836
6.328e+09  0.2701  0.7768  -0.009682  -0.01991  0.02485  -0.06396  -0.4309  -0.7989
6.329e+09  0.5607  0.6325  0.005746  0.01292  -0.02788  -0.01087  -0.6678  -0.5678
6.33e+09  0.6989  0.4116  -0.001972  -0.001607  0.02095  0.00957  -0.8247  -0.3403
6.331e+09  0.781  0.1482  0.004561  -0.006236  0.04203  -0.00361  -0.8975  0.0008391
6.332e+09  0.8211  -0.1731  -0.005197  0.01578  0.003754  -0.01024  -0.8396  0.2801
6.334e+09  0.7086  -0.47  0.01043  0.0306  0.02998  0.01018  -0.6932  0.5628
6.335e+09  0.4923  -0.6611  0.0009078  0.009353  0.01344  0.01031  -0.506  0.7861
6.336e+09  0.2068  -0.7494  -0.005076  0.02089  0.02427  0.01482  -0.1676  0.887
6.338e+09  -0.08119  -0.8098  0.0179  0.02791  0.03016  0.02815  0.1409  0.9159
6.339e+09  -0.3348  -0.7076  -0.0231  0.001636  -0.02047  0.001101  0.414  0.8294
6.34e+09  -0.6013  -0.5163  0.05033  -0.02608  0.01922  -0.04248  0.659  0.6362
6.341e+09  -0.7419  -0.3033  -0.001759  -0.006905  0.001192  -0.01173  0.8338  0.3423
6.342e+09  -0.7707  -0.02699  -0.009164  -0.0277  -0.0003602  -0.009939  0.9109  0.04626
6.344e+09  -0.7712  0.2849  -0.001497  -0.003645  0.0109  -0.01291  0.8284  -0.2846
6.345e+09  -0.6102  0.5081  -0.007539  0.03087  -0.009623  -0.03549  0.7463  -0.5787
6.346e+09  -0.4419  0.7283  -0.0112  0.04029  0.002112  0.02493  0.5324  -0.7752
6.348e+09  -0.1577  0.8085  0.01123  -0.01126  0.006215  0.007995  0.2331  -0.9019
6.349e+09  0.139  0.7928  0.008092  0.01482  -0.006468  -0.02876  -0.07453  -0.9026
6.35e+09  0.4448  0.7341  0.01224  0.02916  0.06315  0.006418  -0.4019  -0.8358
6.351e+09  0.6692  0.5405  0.002669  -0.01511  -0.0125  0.03121  -0.7114  -0.6398
6.352e+09  0.7978  0.2664  -0.03048  -0.01615  0.05712  -0.01762  -0.8636  -0.3488
6.354e+09  0.8554  -0.05649  -0.001496  0.0191  -0.02588  -0.03037  -0.9186  -0.07862
6.355e+09  0.7816  -0.3774  0.008433  -0.01923  0.0009677  0.03267  -0.9158  0.2817
6.356e+09  0.6113  -0.5673  -0.007889  -0.004201  -0.0005269  0.04771  -0.7167  0.5378
6.358e+09  0.3307  -0.7465  0.01599  0.01873  -0.008901  0.01499  -0.523  0.7823
6.359e+09  0.03125  -0.8784  0.01073  -0.004977  0.05462  0.01603  -0.1811  0.8869
6.36e+09  -0.2758  -0.7672  -0.03589  0.01674  -0.0209  -0.03121  0.1138  0.9536
6.361e+09  -0.5241  -0.6761  -0.004595  -0.02279  -0.03706  -0.03951  0.3883  0.8271
6.362e+09  -0.7429  -0.4191  0.003465  0.02134  0.00212  0.008837  0.6892  0.6577
6.364e+09  -0.8527  -0.1257  -0.002673  -0.01722  -0.0296  -0.01041  0.8606  0.3418
6.365e+09  -0.8514  0.178  -0.0007974  -0.03714  -0.01118  -0.01633  0.9744  0.07429
6.366e+09  -0.6799  0.4758  -0.007758  -0.03137  0.01803  0.004711  0.885  -0.2449
6.368e+09  -0.5213  0.6796  0.03059  0.001366  0.006109  0.008524  0.7658  -0.5427
6.369e+09  -0.2044  0.859  -0.003514  0.007102  0.04308  -0.01095  0.5718  -0.7975
6.37e+09  0.04299  0.8696  -0.01457  -0.004325  -0.0237  -0.01805  0.236  -0.9351
6.371e+09  0.4276  0.7518  0.04034  -0.007355  0.0579  -0.05573  -0.08228  -0.9351
6.372e+09  0.6296  0.5451  -0.01216  0.04388  0.02062  -0.02005  -0.4056  -0.8212
6.374e+09  0.7885  0.2979  -0.006819  0.004515  0.001543  0.01233  -0.6789  -0.684
6.375e+09  0.845  0.000995  -0.01293  -0.01662  -0.01727  -0.01384  -0.8078  -0.4079
6.376e+09  0.8069  -0.2732  -0.00379  -0.02343  0.0293  0.02759  -0.897  -0.0963
6.378e+09  0.6494  -0.5653  0.0194  -0.02819  0.007503  -0.003713  -0.9602  0.2074
6.379e+09  0.3536  -0.7649  0.006744  -0.0008011  -0.002198  0.05987  -0.8031  0.5176
6.38e+09  0.1383  -0.853  0.03268  -0.004926  -0.01385  -0.004385  -0.5606  0.7681
6.381e+09  -0.1515  -0.8585  -0.0009296  -0.01833  0.03485  0.0297  -0.2604  0.8736
6.382e+09  -0.5204  -0.7124  0.00265  0.002492  -0.02876  0.02034  0.04183  0.9518
6.384e+09  -0.7321  -0.4649  -0.003367  -0.01318  0.03077  0.03081  0.3865  0.852
6.385e+09  -0.871  -0.1871  -0.002707  0.01166  -0.01609  -0.02641  0.6132  0.694
6.386e+09  -0.8355  0.09453  0.006627  -0.02048  -0.03618  0.02591  0.8229  0.4149
6.388e+09  -0.682  0.4053  -0.00489  -0.03936  -0.0004701  0.005236  0.8906  0.07419
6.389e+09  -0.5725  0.6702  -0.04874  0.007741  0.01571  0.02027  0.9106  -0.2249
6.39e+09  -0.2945  0.8004  -0.03896  -0.004724  -0.008928  0.002448  0.7857  -0.4696
6.391e+09  -0.02676  0.8643  -0.0194  0.04797  -0.0263  -0.005406  0.6069  -0.7464
6.392e+09  0.3625  0.8024  0.002725  0.02936  0.04683  0.05189  0.2865  -0.8517
6.394e+09  0.6453  0.5917  0.0473  0.02471  0.02336  0.01398  -0.02819  -0.9581
6.395e+09  0.7812  0.3933  -0.01317  -0.007899  0.02039  0.01758  -0.3263  -0.8617
6.396e+09  0.8669  0.07062  0.01916  -0.008813  0.009121  0.01561  -0.6422  -0.6985
6.398e+09  0.8178  -0.2501  0.01194  0.01807  0.01718  0.03347  -0.7863  -0.4334
6.399e+09  0.703  -0.496  -0.02024  0.001391  0.062  -0.07246  -0.9073  -0.1435
6.4e+09  0.4621  -0.7293  0.00494  0.003796  -0.0466  0.008497  -0.8672  0.1269
6.401e+09  0.1654  -0.8429  -0.05913  -0.007483  0.04826  0.03138  -0.8159  0.4926
6.402e+09  -0.1654  -0.853  0.01545  0.02105  -0.01007  -0.01472  -0.5606  0.6967
6.404e+09  -0.439  -0.6882  -0.04191  0.0194  0.01653  0.02375  -0.2927  0.8695
6.405e+09  -0.6816  -0.5671  0.009255  0.002686  -0.04134  -0.03813  -0.03124  0.9447
6.406e+09  -0.8217  -0.2207  -0.03449  -0.01356  0.01895  -0.004707  0.3263  0.8575
6.408e+09  -0.901  0.04541  0.04157  -0.02502  0.02288  0.04612  0.589  0.7318
6.409e+09  -0.7277  0.3183  0.01807  -0.005773  -0.02802  0.03896  0.7981  0.4474
6.41e+09  -0.5844  0.5979  -0.01886  0.03542  0.01588  0.003917  0.9187  0.2047
6.411e+09  -0.3469  0.8044  0.04961  -0.04676  0.003744  0.02201  0.8846  -0.1534
6.412e+09  -0.05227  0.9205  0.005965  0.05487  0.002107  -0.001857  0.8082  -0.4705
6.414e+09  0.2805  0.78  0.01178  0.01043  -0.004835  -0.02295  0.6028  -0.6789
6.415e+09  0.5171  0.6853  -0.05992  0.05086  -0.02324  -0.02757  0.3332  -0.8218
6.416e+09  0.7452  0.4571  0.01064  -0.008599  0.05499  -0.02431  0.02964  -0.8635
6.418e+09  0.8781  0.1439  -0.05161  0.008618  0.04497  0.01015  -0.2618  -0.8657
6.419e+09  0.8389  -0.1248  0.01596  -0.001575  -0.007884  -0.01698  -0.5204  -0.6991
6.42e+09  0.7353  -0.4347  -0.02819  0.004607  -0.01113  0.02701  -0.7167  -0.4397
6.421e+09  0.5261  -0.6652  0.01488  0.0334  0.009549  0.01787  -0.892  -0.1613
6.422e+09  0.2607  -0.8379  0.00651  0.01733  -0.03768  0.0214  -0.8878  0.12
6.424e+09  -0.1011  -0.8579  0.01232  0.02342  0.02736  0.02145  -0.8078  0.3709
6.425e+09  -0.3916  -0.7779  -0.04631  -0.01766  -0.02498  0.01889  -0.5709  0.6363
6.426e+09  -0.5737  -0.5635  -0.01524  0.01728  -0.02447  -0.01059  -0.3943  0.8337
6.428e+09  -0.7742  -0.3438  0.001566  0.01146  0.02384  -0.002977  -0.007834  0.8786
6.429e+09  -0.8715  -0.05639  -0.005529  0.01306  0.02443  -0.01981  0.2028  0.8726
6.43e+09  -0.7582  0.2429  -0.01313  -0.006159  -0.008461  0.004226  0.5265  0.717
6.431e+09  -0.6326  0.5335  -0.007904  0.04217  0.03275  -0.02032  0.7709  0.4667
6.432e+09  -0.4598  0.702  0.04392  0.01175  -0.03805  -0.02553  0.8298  0.2148
6.434e+09  -0.1556  0.8282  -0.02885  -0.04362  0.014  0.01553  0.8467  -0.1002
6.435e+09  0.1346  0.8389  0.03163  -0.03272  -0.01775  -0.0531  0.7835  -0.3446
6.436e+09  0.418  0.6964  -0.004769  0.01996  -0.01168  0.003678  0.6294  -0.5855
6.438e+09  0.6707  0.5325  -0.007287  0.01701  -0.01578  -0.02554  0.3032  -0.752
6.439e+09  0.7755  0.2951  -0.006768  0.02356  -0.02668  0.03356  0.04553  -0.8406
6.44e+09  0.7863  0.001378  0.02109  -0.01541  -0.006296  -0.03237  -0.1966  -0.8524
6.441e+09  0.805  -0.2561  0.008093  -0.0279  -0.02756  -0.016  -0.4582  -0.679
6.442e+09  0.5926  -0.593  -0.02387  -0.02419  -0.03257  -0.04843  -0.7074  -0.4699
6.444e+09  0.3416  -0.7503  -0.0392  -0.02621  -0.02996  0.03058  -0.8015  -0.1859
6.445e+09  0.02924  -0.8853  -0.04117  -0.03087  -0.03352  -0.03038  -0.8197  0.0832
6.446e+09  -0.2122  -0.7968  -0.02621  0.001938  0.01253  0.04194  -0.7797  0.3786
6.448e+09  -0.4672  -0.7167  -0.02624  -0.01359  0.03434  0.02479  -0.5531  0.6238
6.449e+09  -0.6819  -0.4741  0.02751  -0.0063  0.03639  0.002674  -0.3567  0.7231
6.45e+09  -0.8051  -0.1696  -0.02389  0.01343  0.0297  -0.001398  -0.06497  0.8359
6.451e+09  -0.753  0.0822  0.00622  -0.01305  0.02221  -0.004325  0.2032  0.802
6.452e+09  -0.7172  0.3363  0.0136  0.02672  -0.01682  -0.01987  0.4813  0.7125
6.454e+09  -0.5251  0.589  0.02873  -0.009419  0.005225  0.007943  0.6653  0.4938
6.455e+09  -0.3361  0.7803  0.04255  0.002885  -0.01723  0.05473  0.7645  0.1579
6.456e+09  -0.00105  0.8379  -0.0141  0.005958  -0.06763  -0.002597  0.8506  -0.06605
6.458e+09  0.3041  0.799  -0.04739  -0.01603  -0.0161  -0.01263  0.7541  -0.3435
6.459e+09  0.5563  0.6349  -0.03811  -0.006622  0.02767  -0.005304  0.573  -0.5787
6.46e+09  0.6971  0.3668  0.03295  0.0358  -0.04571  -0.02928  0.363  -0.7812
6.461e+09  0.8055  0.1412  0.01061  -0.01094  0.009764  0.004205  0.005712  -0.778
6.462e+09  0.8416  -0.1636  0.01595  0.004025  0.009545  0.01935  -0.2097  -0.809
6.464e+09  0.6998  -0.3963  0.021  0.03728  -0.02497  0.009023  -0.474  -0.6829
6.465e+09  0.5295  -0.6022  0.05915  0.01253  -0.04248  -0.03296  -0.6157  -0.457
6.466e+09  0.2721  -0.7615  0.01917  0.009308  0.05204  0.005368  -0.789  -0.1943
6.468e+09  -0.03705  -0.8146  -0.01925  -0.01823  0.003716  0.03564  -0.7894  0.1141
6.469e+09  -0.2647  -0.7539  0.002566  -0.02581  0.05811  0.02643  -0.6834  0.3158
6.47e+09  -0.5669  -0.5979  -0.04132  0.0247  -0.004698  -0.02021  -0.5934  0.5122
6.471e+09  -0.7188  -0.3471  0.01194  -0.01811  0.01573  -0.003213  -0.3458  0.7267
6.472e+09  -0.7729  -0.03496  0.002262  -0.02229  -0.03935  -0.01241  -0.04098  0.7926
6.474e+09  -0.7703  0.1778  0.0183  0.01742  0.01819  -0.02925  0.1821  0.7868
6.475e+09  -0.7041  0.4346  0.01204  0.009859  0.01919  -0.01022  0.4628  0.6643
6.476e+09  -0.4565  0.7136  0.03292  -0.007441  0.03328  0.005531  0.6387  0.4194
6.478e+09  -0.2317  0.8173  -0.01571  -0.03262  0.01138  0.001632  0.757  0.1754
6.479e+09  0.03979  0.8526  -0.03068  -0.04365  0.003863  0.01134  0.7549  -0.09666
6.48e+09  0.3592  0.7771  -0.0439  0.04549  0.002012  -0.06607  0.6822  -0.3513
6.481e+09  0.5843  0.5662  0.0228  -0.02362  0.04173  0.02752  0.5447  -0.5532
6.482e+09  0.7484  0.3332  -0.02957  0.003709  -0.01812  9.293e-05  0.3249  -0.7184
6.484e+09  0.8339  0.1135  0.02301  -0.02839  -0.0003203  -0.04487  0.05407  -0.7541
6.485e+09  0.7565  -0.2614  0.02198  0.02583  0.002596  0.002283  -0.2017  -0.7202
6.486e+09  0.6655  -0.4939  -0.01022  -0.03067  -0.002865  -0.02722  -0.4832  -0.6591
6.488e+09  0.4447  -0.6742  -0.007907  0.04259  0.04114  -0.01151  -0.6595  -0.4363
6.489e+09  0.1579  -0.8058  0.008428  -0.01697  0.0001236  -0.007862  -0.7534  -0.2021
6.49e+09  -0.1537  -0.8127  -0.01253  0.02892  0.05313  0.01136  -0.7676  0.06869
6.491e+09  -0.4166  -0.7122  -0.01434  0.005371  -0.01439  -0.03313  -0.7174  0.354
6.492e+09  -0.6121  -0.555  0.005704  -0.01187  -0.005025  -0.01899  -0.5635  0.5323
6.494e+09  -0.7761  -0.3057  0.01128  -0.02131  0.01563  -0.01969  -0.3297  0.7105
6.495e+09  -0.8507  -0.03615  0.0288  -0.01215  -0.01002  -0.03067  -0.1105  0.7813
6.496e+09  -0.758  0.2406  0.02396  0.006908  0.01789  0.02657  0.22  0.7506
6.498e+09  -0.6673  0.5583  -0.03366  0.009228  -0.01174  -0.02458  0.4536  0.5816
6.499e+09  -0.4234  0.6708  0.007368  -0.009897  -0.0249  0.002836  0.5932  0.4572
6.5e+09  -0.09505  0.7876  0.02972  0.01843  0.02987  -0.002467  0.7374  0.1408
6.501e+09  0.1065  0.8459  0.008176  -0.05258  0.01688  -0.007172  0.7639  -0.1052
6.502e+09  0.407  0.7513  0.008826  0.003672  0.004316  0.02394  0.6444  -0.3823
6.504e+09  0.6627  0.5537  0.03142  0.006203  -0.05656  0.01517  0.5399  -0.5942
6.505e+09  0.8179  0.232  0.005514  -0.005116  0.05618  -0.04454  0.281  -0.6684
6.506e+09  0.8291  -0.007501  -0.00123  -0.003254  -0.0006725  0.02119  0.05409  -0.769
6.508e+09  0.8019  -0.3174  -0.01286  -0.005983  -0.02856  -0.05693  -0.2429  -0.6796
6.509e+09  0.6695  -0.5706  0.004306  -0.01142  -0.006712  0.011  -0.4915  -0.5859
6.51e+09  0.4314  -0.7471  0.01968  0.0012  0.03514  0.008183  -0.6729  -0.4041
6.511e+09  0.1502  -0.8203  -0.005764  -0.007475  -0.03915  -0.03546  -0.7636  -0.1474
6.512e+09  -0.2049  -0.7726  -0.01715  -0.00855  0.03809  0.004991  -0.7454  0.1437
6.514e+09  -0.4996  -0.6985  -0.04191  0.03087  -0.03566  0.02716  -0.67  0.3488
6.515e+09  -0.7065  -0.52  0.01478  0.02219  -0.03044  0.04697  -0.4746  0.5557
6.516e+09  -0.7973  -0.2782  0.01263  0.001563  -0.0681  -0.04352  -0.2556  0.7238
6.518e+09  -0.8594  0.07143  0.01936  -0.02974  0.0005008  -0.01774  0.001063  0.7034
6.519e+09  -0.7573  0.3527  0.01109  0.01942  -0.02219  0.02224  0.2602  0.7051
6.52e+09  -0.6423  0.577  -0.01073  -0.03659  0.01711  -0.0223  0.4812  0.5681
6.521e+09  -0.3908  0.7637  -0.01924  -0.01723  0.003547  -0.007101  0.6494  0.3391
6.522e+09  -0.06955  0.8777  -0.01456  0.003402  0.01573  -0.006102  0.7515  0.1149
6.524e+09  0.1854  0.8547  -0.01265  0.008478  -0.02624  0.03817  0.6809  -0.1628
6.525e+09  0.4887  0.7391  0.006446  0.02717  -0.02511  0.04171  0.5927  -0.3776
6.526e+09  0.7474  0.5163  -0.004094  -0.02006  -0.02587  -0.003908  0.4246  -0.5634
6.528e+09  0.8811  0.2469  -0.007978  -0.006817  -0.01977  0.01951  0.182  -0.6524
6.529e+09  0.8436  -0.1368  0.01901  0.02051  -0.01833  0.03536  -0.02178  -0.7054
6.53e+09  0.7975  -0.3839  -0.02744  -0.01258  0.002527  -0.04025  -0.2775  -0.6464
6.531e+09  0.5288  -0.6146  0.009886  -0.03461  0.0013  0.0005486  -0.4859  -0.4792
6.532e+09  0.359  -0.8146  0.01137  0.0009927  0.007987  0.001654  -0.5656  -0.246
6.534e+09  0.05749  -0.8775  -0.02348  0.01225  -0.02175  0.03591  -0.6238  -0.06676
6.535e+09  -0.245  -0.8793  -0.01527  -0.04394  0.005383  0.01575  -0.6545  0.06479
6.536e+09  -0.6275  -0.7067  -0.001347  0.03475  0.0381  0.01474  -0.5753  0.2926
6.538e+09  -0.7587  -0.4836  -0.04808  -0.03064  -0.0212  -0.01492  -0.4506  0.4715
6.539e+09  -0.8701  -0.2014  0.001895  0.007525  0.01697  -0.02826  -0.2738  0.6123
6.54e+09  -0.8578  0.1826  -0.01542  0.02312  0.001227  0.01283  -0.05063  0.6989
6.541e+09  -0.8033  0.4953  0.01902  0.003518  -0.01124  -0.03565  0.1843  0.6849
6.542e+09  -0.6154  0.6722  -0.006472  0.003545  -0.04068  -0.0007253  0.3818  0.5804
6.544e+09  -0.3406  0.8542  0.003017  0.02968  -0.008778  0.005588  0.5768  0.4022
6.545e+09  -0.06011  0.8956  0.0449  0.03141  0.02351  -0.03404  0.7113  0.1625
6.546e+09  0.3276  0.8353  0.01218  -0.02086  -0.01934  -0.03706  0.7263  -0.06124
6.548e+09  0.6213  0.6915  0.005393  0.01496  0.006528  0.005732  0.6313  -0.3099
6.549e+09  0.8115  0.4268  0.01434  0.0229  -0.01683  0.0203  0.5003  -0.5282
6.55e+09  0.9288  0.1183  0.005787  0.003723  0.006033  -0.04088  0.3054  -0.6704
