# Hz S RI R 50
6.25e+09  -0.341  0.7639  -0.01951  -0.007192  0.07796  -0.01313  0.1651  0.4742
6.251e+09  -0.01545  0.8746  -0.01562  0.01096  -0.004411  0.01342  0.4079  0.3702
6.252e+09  0.3136  0.8155  -0.005588  0.006799  -0.003584  0.0206  0.4938  0.2767
6.254e+09  0.5276  0.6468  -0.00282  0.05596  0.04029  -0.0003417  0.5756  0.007594
6.255e+09  0.7308  0.4267  -0.007248  0.02069  -0.007589  0.006329  0.6175  -0.2333
6.256e+09  0.8486  0.1586  -0.008496  -0.01882  0.02576  0.09829  0.4573  -0.4459
6.258e+09  0.7938  -0.1353  0.01281  -0.03457  -0.01923  0.0325  0.2885  -0.6087
6.259e+09  0.7825  -0.4266  0.02213  0.008573  -0.02689  0.02682  0.05046  -0.6468
6.26e+09  0.5096  -0.6229  -0.01278  0.02158  -0.02781  -0.0653  -0.1731  -0.6625
6.261e+09  0.3177  -0.7709  0.004699  -0.02423  0.01548  0.01961  -0.4466  -0.5743
6.262e+09  -0.006  -0.8289  0.01145  0.02439  0.04621  0.04072  -0.6409  -0.3853
6.264e+09  -0.2382  -0.8212  -0.04698  -0.03112  -0.01608  0.03014  -0.7157  -0.12
6.265e+09  -0.5374  -0.6779  0.01418  0.01861  -0.04142  0.009708  -0.7007  0.1794
6.266e+09  -0.7487  -0.4188  0.02696  -0.005682  -0.007906  0.03619  -0.624  0.3728
6.268e+09  -0.8224  -0.2146  -0.02407  0.01554  0.04155  -0.01683  -0.4003  0.5721
6.269e+09  -0.7737  0.1101  -0.014  0.02799  -0.06197  0.01002  -0.1688  0.7399
6.27e+09  -0.7118  0.3955  -0.0006561  0.02386  0.005289  -0.01014  0.06092  0.7356
6.271e+09  -0.56  0.6315  0.006299  -0.008254  0.007885  0.04768  0.3255  0.6837
6.272e+09  -0.2332  0.8176  -0.01827  0.00347  -0.002123  0.03657  0.5567  0.5706
6.274e+09  -0.0278  0.8627  -0.007827  0.02491  0.01943  -0.005929  0.6913  0.2785
6.275e+09  0.2853  0.8332  0.0008722  0.003564  -0.03748  -0.02982  0.7594  0.02593
6.276e+09  0.557  0.674  -0.01217  0.01437  0.03463  -0.03275  0.7245  -0.2088
6.278e+09  0.7055  0.4538  0.03055  -0.01423  -0.04335  0.02722  0.595  -0.4681
6.279e+09  0.8314  0.1184  -0.009405  -0.04387  -0.004148  0.03302  0.4067  -0.6264
6.28e+09  0.8275  -0.1872  -0.02194  0.03633  0.04246  -0.04748  0.1618  -0.7472
6.281e+09  0.7048  -0.4483  0.007916  -0.003005  0.02629  -0.01715  -0.1085  -0.7819
6.282e+09  0.5318  -0.6427  -0.01704  0.006276  -0.02806  0.01288  -0.3537  -0.6776
6.284e+09  0.2447  -0.8463  0.005781  0.009216  -0.009852  -0.04159  -0.5844  -0.5054
6.285e+09  -0.121  -0.8373  -0.01168  -0.035  -0.0376  -0.03198  -0.6907  -0.2934
6.286e+09  -0.2632  -0.8052  -0.02524  -0.001248  0.02049  0.004783  -0.8048  -0.01729
6.288e+09  -0.5751  -0.6705  -0.01937  -0.007936  0.03196  0.004714  -0.7268  0.2779
6.289e+09  -0.7541  -0.378  0.04875  -0.004665  0.02973  0.04249  -0.6029  0.4875
6.29e+09  -0.849  -0.1095  0.005526  -0.02867  -0.02969  0.02919  -0.3907  0.7007
6.291e+09  -0.7789  0.1591  0.01634  0.01391  -0.0066  0.02009  -0.1767  0.7908
6.292e+09  -0.6948  0.4295  0.03669  0.012  0.01367  0.01398  0.1014  0.7714
6.294e+09  -0.5111  0.6674  0.0007689  0.02649  0.01999  0.0227  0.3772  0.7087
6.295e+09  -0.1908  0.7355  -0.0002151  0.0005834  -0.03206  -0.05719  0.5981  0.532
6.296e+09  0.02546  0.834  0.01435  0.03283  -0.03731  -0.008982  0.7204  0.2654
6.298e+09  0.3638  0.7504  -0.01345  0.01017  0.005414  0.05497  0.8183  -0.01198
6.299e+09  0.5641  0.5914  -0.002773  0.006661  -0.04559  0.01532  0.7932  -0.2693
6.3e+09  0.7666  0.3219  0.008911  -0.0223  -0.06321  -0.008342  0.6528  -0.5367
6.301e+09  0.8168  0.0908  -0.03409  -0.01098  0.01934  -0.01899  0.4084  -0.7167
6.302e+09  0.7945  -0.1732  0.001919  0.03045  -0.001584  -0.008078  0.1559  -0.797
6.304e+09  0.6661  -0.4764  -0.006289  0.01296  -0.02265  -0.04018  -0.1504  -0.8188
6.305e+09  0.4461  -0.7356  0.01812  -0.01766  -0.0013  -0.03065  -0.4193  -0.7478
6.306e+09  0.1603  -0.842  0.01037  -0.01157  0.002964  -0.01549  -0.639  -0.5306
6.308e+09  -0.08629  -0.8497  0.007395  -0.01317  0.02592  0.05103  -0.7826  -0.3095
6.309e+09  -0.3747  -0.7315  0.01093  -0.01055  0.002657  -0.02793  -0.8309  0.004866
6.31e+09  -0.617  -0.5765  0.01607  0.003868  -0.005598  0.004599  -0.8442  0.2922
6.311e+09  -0.8103  -0.2691  -0.01492  0.0133  0.001611  -0.02727  -0.6632  0.564
6.312e+09  -0.8189  -0.01353  -0.02127  -0.01257  -0.03918  0.001502  -0.4398  0.7045
6.314e+09  -0.8174  0.2236  -0.01174  0.0128  -0.02797  0.004478  -0.1649  0.8244
6.315e+09  -0.7461  0.5247  0.004234  -0.05288  -0.0393  -0.002801  0.1264  0.853
6.316e+09  -0.4602  0.7306  0.003655  0.007624  -0.03241  -0.01025  0.436  0.761
6.318e+09  -0.1325  0.8308  0.01246  -0.01103  0.001557  -0.04638  0.6446  0.5636
6.319e+09  0.1332  0.814  0.01567  0.01425  -0.01291  -0.008096  0.8087  0.2973
6.32e+09  0.4274  0.719  -0.01698  0.02614  -0.001898  0.04069  0.927  0.01697
6.321e+09  0.5754  0.5316  0.0009049  0.01096  0.001742  -0.01359  0.8056  -0.2583
6.322e+09  0.7931  0.2878  0.003305  -0.02367  -0.03406  -0.03197  0.6861  -0.5405
6.324e+09  0.8532  -0.004788  0.005267  0.007501  0.02374  0.04166  0.4414  -0.803
6.325e+09  0.79  -0.321  0.0143  0.01159  0.01084  0.02361  0.1984  -0.8653
6.326e+09  0.6265  -0.5793  0.02102  -0.02325  -0.004798  -0.001207  -0.166  -0.8641
6.328e+09  0.3887  -0.7287  -0.04176  0.002534  0.06316  0.011  -0.4207  -0.7634
6.329e+09  0.156  -0.8299  0.001937  -0.01276  -0.006837  0.02612  -0.652  -0.6139
6.33e+09  -0.1794  -0.88  0.01447  -0.009075  -0.004068  -0.01935  -0.8299  -0.3035
6.331e+09  -0.5139  -0.7212  -0.0122  -0.002676  0.03545  -0.03879  -0.8875  -0.04254
6.332e+09  -0.6826  -0.5185  -0.01103  0.01704  -0.0433  0.04625  -0.8719  0.2844
6.334e+09  -0.8528  -0.2533  0.01094  -0.004977  -0.05559  0.003929  -0.7556  0.5692
6.335e+09  -0.8778  0.02783  -0.02691  -0.0239  -0.0423  -0.02403  -0.4889  0.787
6.336e+09  -0.7732  0.3475  0.008118  0.02965  0.01369  0.009033  -0.2135  0.9112
6.338e+09  -0.5893  0.5719  0.001977  -0.00829  -0.002162  -0.03552  0.1355  0.8825
6.339e+09  -0.3699  0.809  0.007416  0.01791  -0.007567  -0.0008332  0.4202  0.7749
6.34e+09  -0.1033  0.8276  -0.01646  0.01253  -0.004665  0.01153  0.6989  0.6364
6.341e+09  0.2525  0.885  -0.03422  0.01057  -0.04686  -0.007745  0.8502  0.3601
6.342e+09  0.5321  0.7102  -0.02693  0.005746  -0.00512  0.004158  0.9438  0.03026
6.344e+09  0.7294  0.5207  0.01452  0.005145  0.004281  0.01031  0.8769  -0.2871
6.345e+09  0.8522  0.1862  0.008993  0.002884  0.004914  0.02534  0.7761  -0.5438
6.346e+09  0.8914  -0.08748  0.004714  0.02136  0.04174  -0.02438  0.517  -0.7741
6.348e+09  0.7253  -0.4038  0.02692  0.01061  0.007398  -0.03714  0.209  -0.9045
6.349e+09  0.6003  -0.6624  -0.03145  -0.01409  0.02043  -0.02429  -0.1237  -0.9327
6.35e+09  0.286  -0.8441  0.0365  -0.03158  0.004606  -0.003402  -0.4258  -0.8393
6.351e+09  -0.01661  -0.8951  0.01716  0.02346  -0.04206  -0.002517  -0.6487  -0.6322
6.352e+09  -0.2612  -0.8274  -0.02016  0.02788  0.01371  0.01624  -0.8379  -0.3674
6.354e+09  -0.5176  -0.6862  0.008652  -0.03961  0.000475  -0.0109  -0.8824  -0.03548
6.355e+09  -0.7581  -0.4432  -0.005697  0.002069  0.01838  0.04032  -0.9201  0.293
6.356e+09  -0.8812  -0.1571  0.04477  -0.004415  -0.03459  0.02538  -0.7449  0.579
6.358e+09  -0.8992  0.1858  -0.02344  -0.0008797  0.009778  0.01661  -0.4818  0.8257
6.359e+09  -0.7357  0.4424  -0.02616  0.01963  0.03438  -0.01188  -0.1965  0.8856
6.36e+09  -0.5558  0.6518  -0.001274  0.00206  -0.06126  -0.04313  0.08132  0.9331
6.361e+09  -0.2521  0.8017  0.006696  -0.008163  -0.02443  -0.00822  0.4456  0.8088
6.362e+09  0.04795  0.877  -0.02092  -0.001506  0.02395  0.03543  0.6709  0.6074
6.364e+09  0.283  0.8247  -0.0003035  -0.01538  0.03097  -0.01414  0.8298  0.3985
6.365e+09  0.6328  0.6768  -0.004311  0.009546  0.002955  0.01633  0.9424  0.09606
6.366e+09  0.7881  0.3871  0.0221  -0.03892  -0.008418  -0.02276  0.9303  -0.236
6.368e+09  0.8948  0.09916  0.02526  -0.007965  0.01419  0.01812  0.7733  -0.5132
6.369e+09  0.8302  -0.2256  0.006276  0.0046  -0.02997  -0.03669  0.5345  -0.767
6.37e+09  0.7288  -0.5159  -0.03428  -0.01199  0.0126  0.001985  0.2048  -0.9097
6.371e+09  0.5365  -0.7016  -0.02112  0.002865  -0.003054  -0.02149  -0.08914  -0.9551
6.372e+09  0.2041  -0.8251  -0.02588  -0.006895  -0.02716  -0.06718  -0.3735  -0.8303
6.374e+09  -0.04428  -0.898  0.0229  0.0001476  -0.02277  0.03163  -0.6251  -0.7019
6.375e+09  -0.4087  -0.8063  0.002958  -0.01003  -0.004222  0.004908  -0.8318  -0.4156
6.376e+09  -0.6672  -0.6158  -0.022  0.009611  0.01923  -0.04662  -0.8937  -0.1124
6.378e+09  -0.8052  -0.3494  0.008649  -0.02105  0.03477  -0.02807  -0.899  0.223
6.379e+09  -0.8777  -0.05673  0.01059  0.03441  -0.005974  0.03408  -0.7833  0.5417
6.38e+09  -0.8839  0.2842  0.04317  0.02408  -0.001402  0.02844  -0.5148  0.7557
6.381e+09  -0.7218  0.5005  -0.04377  -0.03392  -0.03125  -0.02315  -0.2842  0.9269
6.382e+09  -0.4802  0.7404  0.0169  -0.002224  -0.04986  -0.006069  0.06381  0.929
6.384e+09  -0.2081  0.8627  0.02517  0.006705  0.02334  0.04359  0.3751  0.8448
6.385e+09  0.1701  0.8531  0.008156  -0.0226  -0.008874  0.02302  0.6358  0.6731
6.386e+09  0.4269  0.8039  0.01002  -0.02864  -0.0006903  0.04805  0.833  0.4
6.388e+09  0.6768  0.5615  -0.009717  0.0002476  0.02879  0.003235  0.9734  0.08414
6.389e+09  0.8015  0.3167  0.0495  -0.01794  0.04169  0.0261  0.8819  -0.2243
6.39e+09  0.8677  0.02744  0.00265  -0.01041  0.03152  0.008092  0.7929  -0.4619
6.391e+09  0.8437  -0.2922  0.002356  -0.02527  0.01452  -0.01023  0.5595  -0.6703
6.392e+09  0.7122  -0.5547  -0.01044  0.03961  -0.01776  -0.002301  0.2724  -0.9082
6.394e+09  0.5062  -0.7253  -0.001268  -0.002492  -0.0107  -0.02533  -0.03043  -0.9666
6.395e+09  0.1858  -0.8706  0.01249  0.01549  0.03195  -0.003852  -0.3537  -0.8584
6.396e+09  -0.1348  -0.9044  -0.01964  -0.03645  -0.01335  0.008254  -0.6184  -0.6746
6.398e+09  -0.4362  -0.8065  -0.005594  0.007612  -0.0002348  0.004884  -0.8253  -0.4423
6.399e+09  -0.6756  -0.6074  -0.02599  -0.009265  0.05401  0.001262  -0.8865  -0.183
6.4e+09  -0.8253  -0.2638  0.01332  0.02128  0.005212  -0.0003999  -0.8927  0.1998
6.401e+09  -0.8676  0.03599  -0.01129  0.06567  0.02862  -0.05665  -0.7688  0.4677
6.402e+09  -0.8014  0.2929  -0.005027  -0.01346  -0.03397  -0.001934  -0.5632  0.748
6.404e+09  -0.6073  0.581  -0.04954  0.03091  -0.03356  0.03432  -0.3203  0.8379
6.405e+09  -0.4061  0.7549  -0.007948  -0.01025  0.03967  0.02018  -0.03207  0.9196
6.406e+09  -0.1092  0.8812  0.00885  0.008789  -0.02414  -0.00806  0.2569  0.8775
6.408e+09  0.17  0.8627  -0.005322  0.02225  0.02852  0.04178  0.5978  0.7102
6.409e+09  0.4357  0.7405  -0.03956  0.00436  -0.02413  0.002615  0.78  0.4285
6.41e+09  0.6607  0.5792  -0.02941  -0.005006  0.0226  -0.00516  0.9016  0.147
6.411e+09  0.8287  0.2406  -0.02899  -0.03033  -0.0256  0.04021  0.9002  -0.1521
6.412e+09  0.866  -0.0257  -0.02112  -0.008641  -0.02186  0.03772  0.8136  -0.4689
6.414e+09  0.8245  -0.3468  0.007091  0.004977  0.02171  0.01694  0.5963  -0.6414
6.415e+09  0.6967  -0.5924  0.01015  0.02461  0.0159  0.0374  0.331  -0.8174
6.416e+09  0.3819  -0.7598  -0.02949  0.03298  0.04522  -0.009361  0.06948  -0.8858
6.418e+09  0.1277  -0.8868  0.00148  0.003178  -0.02419  0.04449  -0.272  -0.7986
6.419e+09  -0.1655  -0.8032  0.002855  -0.01241  0.01242  -0.002115  -0.5712  -0.684
6.42e+09  -0.4774  -0.755  0.0241  0.02127  -0.03314  -0.03603  -0.7551  -0.4718
6.421e+09  -0.6576  -0.5492  0.00922  0.01898  0.06768  0.02233  -0.9113  -0.1661
6.422e+09  -0.8715  -0.2828  0.0385  -0.01216  0.03345  0.001101  -0.8846  0.1262
6.424e+09  -0.8817  0.02723  -0.04404  0.06562  -0.04235  -0.03246  -0.7825  0.3719
6.425e+09  -0.8176  0.3385  0.03523  0.01252  -0.05726  0.00646  -0.6268  0.6475
6.426e+09  -0.6169  0.6442  0.007914  -0.02982  -0.01939  -0.03913  -0.368  0.7987
6.428e+09  -0.3859  0.7639  -0.02612  0.02425  0.00118  -0.0006353  -0.01502  0.8515
6.429e+09  -0.05733  0.878  -0.003751  -0.03991  -0.004729  -0.007507  0.2676  0.8205
6.43e+09  0.2145  0.8516  0.02731  0.01404  -0.006805  -0.003069  0.4851  0.7219
6.431e+09  0.4737  0.7004  -0.02382  -0.001936  0.009595  0.03714  0.7589  0.5098
6.432e+09  0.7484  0.5569  -0.03537  -0.0384  -0.006724  -0.0255  0.8491  0.2475
6.434e+09  0.8083  0.2352  0.005864  0.00112  -0.01307  -0.02594  0.8045  -0.09135
6.435e+09  0.8484  -0.1076  -0.003054  0.01677  -0.06916  -0.003269  0.8286  -0.4261
6.436e+09  0.8363  -0.3993  -0.05393  -0.00788  -0.03182  0.01926  0.6021  -0.5941
6.438e+09  0.6614  -0.5827  -0.04127  -0.02521  -0.05277  0.05576  0.3419  -0.7728
6.439e+09  0.3837  -0.7543  0.02423  -0.01287  0.0386  -0.02386  0.02229  -0.8666
6.44e+09  0.1367  -0.8685  -0.003777  0.003317  0.04732  0.02461  -0.2562  -0.8477
6.441e+09  -0.2194  -0.8373  -0.005516  -0.05424  -0.02434  -0.04087  -0.4849  -0.6937
6.442e+09  -0.4891  -0.6911  0.008989  0.03307  -0.003712  -0.05015  -0.6758  -0.45
6.444e+09  -0.6429  -0.5005  -0.06041  0.0007857  -0.01199  -0.01152  -0.826  -0.1692
6.445e+09  -0.8354  -0.2445  0.02147  -0.02997  0.005116  -0.005288  -0.8472  0.07788
6.446e+09  -0.9001  0.05338  0.0248  -0.002574  0.01313  -0.01185  -0.7578  0.3383
6.448e+09  -0.7943  0.3825  -0.02998  0.06173  0.02595  0.04894  -0.6214  0.603
6.449e+09  -0.6191  0.6231  0.02956  0.01775  -0.01461  -0.02051  -0.3895  0.7753
6.45e+09  -0.3937  0.7906  -0.003054  -0.02959  -0.02366  -0.01413  -0.04549  0.83
6.451e+09  -0.08077  0.8888  -0.01345  0.02151  0.02302  0.01355  0.233  0.7924
6.452e+09  0.2005  0.8705  -0.03107  -0.03104  0.04153  0.04969  0.457  0.6889
6.454e+09  0.5877  0.7467  0.007309  -0.01062  0.05022  0.008986  0.6653  0.4678
6.455e+09  0.7089  0.5026  -0.01535  0.02374  -0.01341  0.02339  0.778  0.2059
6.456e+09  0.8768  0.2198  0.01988  0.01424  -0.01346  0.02385  0.8138  -0.06051
6.458e+09  0.9256  -0.117  -0.01214  -0.002328  0.004886  0.03814  0.7548  -0.318
6.459e+09  0.8238  -0.43  0.0086  -0.004673  0.02266  0.04294  0.5984  -0.5889
6.46e+09  0.59  -0.6559  0.005326  0.002024  -0.001437  -0.01494  0.3512  -0.7338
6.461e+09  0.3942  -0.8739  0.03614  0.01113  -0.005704  0.00812  0.06954  -0.7898
6.462e+09  0.1249  -0.9292  0.04203  0.03638  0.02296  -0.03675  -0.2916  -0.7839
6.464e+09  -0.2041  -0.8871  -0.03975  -0.007685  0.006873  0.01536  -0.5054  -0.6859
6.465e+09  -0.5763  -0.7084  0.02849  0.02702  0.02819  -0.005031  -0.6254  -0.4381
6.466e+09  -0.7203  -0.5324  0.004284  -0.04578  0.05472  -0.02066  -0.7492  -0.2286
6.468e+09  -0.855  -0.2402  -0.01745  -0.01816  0.04652  0.04013  -0.8476  0.05385
6.469e+09  -0.9344  0.05717  -0.01856  0.02124  -0.008812  0.003112  -0.7316  0.3383
6.47e+09  -0.8078  0.3825  0.02754  -0.01244  -0.009687  0.02036  -0.5377  0.5462
6.471e+09  -0.5736  0.6483  0.01561  0.02772  -0.04753  -0.01851  -0.332  0.7069
6.472e+09  -0.3608  0.8414  0.002082  -0.02553  -0.01475  0.008189  -0.09344  0.7464
6.474e+09  -0.05924  0.8612  -0.01711  -0.03074  0.03304  -0.0266  0.2079  0.7339
6.475e+09  0.2749  0.8539  -0.03257  0.01536  -0.01003  0.003818  0.4428  0.6468
6.476e+09  0.536  0.761  -0.004588  0.03542  -0.0307  -0.004885  0.6709  0.4444
6.478e+09  0.8102  0.4809  0.0007552  0.01845  -0.04627  0.04195  0.7422  0.1625
6.479e+09  0.8724  0.2112  -0.005699  -0.01796  0.002492  -0.03244  0.7891  -0.1086
6.48e+09  0.9283  -0.08222  0.01213  0.01137  -0.01978  -0.007227  0.7154  -0.341
6.481e+09  0.7505  -0.4484  0.003568  0.0181  -0.005865  0.01092  0.5375  -0.5989
6.482e+09  0.6794  -0.7219  -0.01921  -0.04034  0.01079  -0.01594  0.3333  -0.6723
6.484e+09  0.2987  -0.803  -0.01251  -0.0264  -0.03222  0.03579  0.02762  -0.7907
6.485e+09  0.05932  -0.9501  0.00645  -0.04299  0.01124  0.02647  -0.2137  -0.7349
6.486e+09  -0.2641  -0.8331  0.001145  -0.02866  0.02414  0.03657  -0.4412  -0.6179
6.488e+09  -0.5682  -0.7582  -0.03844  -0.03979  -0.04226  -0.04472  -0.66  -0.4669
6.489e+09  -0.825  -0.4929  -0.02705  0.02333  -0.01735  0.01218  -0.7737  -0.1678
6.49e+09  -0.8987  -0.188  -0.03241  0.02861  -0.004832  0.003688  -0.7734  0.0845
6.491e+09  -0.9259  0.1712  -0.00987  -0.002725  -0.00112  0.004738  -0.7219  0.3504
6.492e+09  -0.8509  0.4523  0.009587  -0.002324  -0.02813  0.02954  -0.5525  0.5892
6.494e+09  -0.6099  0.727  0.001688  0.002681  0.02908  0.01032  -0.3059  0.6996
6.495e+09  -0.336  0.9247  -0.009608  -0.001284  0.004406  -0.004551  -0.02825  0.7983
6.496e+09  0.004001  0.9783  -0.04138  0.01252  0.03254  -0.02164  0.2286  0.7167
6.498e+09  0.2976  0.9055  -0.009576  0.01237  -0.02003  -0.03305  0.4689  0.6158
6.499e+09  0.6174  0.6997  0.007447  0.02401  -0.01231  -0.002899  0.6484  0.4246
6.5e+09  0.791  0.4387  0.007337  0.009504  0.03638  0.05865  0.7535  0.1904
6.501e+09  0.9609  0.1511  0.005579  0.01829  -0.0168  -0.0007953  0.7471  -0.09203
6.502e+09  0.937  -0.1575  0.02141  0.001505  -0.01714  -0.04291  0.6774  -0.3666
6.504e+09  0.7611  -0.5089  0.02113  -0.01845  -0.007553  0.00517  0.4981  -0.5356
6.505e+09  0.6269  -0.7864  0.001722  0.0199  0.02892  7.442e-06  0.2923  -0.6887
6.506e+09  0.2743  -0.871  -0.007185  -0.01429  -0.007373  -0.01631  0.02367  -0.7502
6.508e+09  -0.009958  -0.9403  0.01308  0.02095  -0.04163  -0.02391  -0.2365  -0.707
6.509e+09  -0.3469  -0.8689  -0.04025  0.005742  0.03569  0.006659  -0.4647  -0.5745
6.51e+09  -0.6447  -0.691  0.03134  -0.02166  -0.01029  0.006899  -0.644  -0.3983
6.511e+09  -0.8624  -0.4029  -0.02584  -0.01046  -0.0206  0.0102  -0.732  -0.1593
6.512e+09  -0.9637  -0.1478  0.006597  -0.01621  -0.0478  -0.009717  -0.72  0.1458
6.514e+09  -0.9142  0.1752  0.007424  0.01193  -0.006216  -0.009145  -0.6281  0.3769
6.515e+09  -0.8014  0.5035  -0.02263  -0.02213  0.01654  -0.03719  -0.497  0.5371
6.516e+09  -0.5534  0.785  -0.01788  -0.01522  0.01644  -0.01349  -0.2589  0.698
6.518e+09  -0.2468  0.9109  0.02835  -0.01855  -0.03162  0.01702  0.02833  0.704
6.519e+09  0.08089  0.9546  -0.03709  0.01854  0.01591  0.009914  0.2816  0.679
6.52e+09  0.3977  0.8697  0.005534  -0.01058  0.008507  0.0501  0.4478  0.5666
6.521e+09  0.6899  0.6754  -0.01928  0.01363  0.002052  -0.007404  0.6467  0.3541
6.522e+09  0.9217  0.3874  -0.0058  0.003082  -0.007927  0.007819  0.7075  0.09882
6.524e+09  1.041  0.0213  -0.008943  -0.02899  -0.01792  0.03276  0.7189  -0.1151
6.525e+09  0.9459  -0.2777  0.00228  -0.03559  -0.008009  0.01143  0.593  -0.3869
6.526e+09  0.8322  -0.572  -0.02082  -0.007764  0.02339  -0.02089  0.4096  -0.5734
6.528e+09  0.5311  -0.8086  0.03907  -0.01163  -0.01119  -0.03832  0.2185  -0.6982
6.529e+09  0.186  -0.9326  0.009681  -0.006857  -0.05489  0.002662  -0.06254  -0.7138
6.53e+09  -0.1525  -0.9287  0.002403  0.004872  0.08653  0.01335  -0.2729  -0.612
6.531e+09  -0.479  -0.8402  0.008014  0.01765  -0.006463  -0.004871  -0.45  -0.4584
6.532e+09  -0.6921  -0.6608  0.02925  -0.005014  0.04385  -0.01779  -0.601  -0.2798
6.534e+09  -0.892  -0.3571  0.00734  0.004132  -0.0007835  -0.01657  -0.6569  -0.1058
6.535e+09  -0.9853  -0.03768  0.02493  -0.01383  -0.004278  -0.02573  -0.5626  0.08372
6.536e+09  -0.9188  0.3588  -0.03957  0.05471  -0.01714  0.04902  -0.5788  0.2986
6.538e+09  -0.7076  0.6531  0.005983  0.04659  -0.008597  0.02528  -0.4586  0.4379
6.539e+09  -0.4142  0.8713  0.006908  -0.01065  -0.01253  0.01643  -0.2942  0.5873
6.54e+09  -0.07648  0.9902  0.001325  -0.003209  -0.006413  0.00434  0.002498  0.6836
6.541e+09  0.1952  0.9256  0.004671  0.01851  -0.0212  -0.008493  0.1613  0.6427
6.542e+09  0.5447  0.8136  -0.02713  0.009002  0.03427  -0.05411  0.3879  0.5777
6.544e+09  0.7536  0.5829  0.01649  0.0149  -0.05071  0.02713  0.608  0.4092
6.545e+09  0.994  0.2416  -0.01502  -0.007872  0.02318  0.03653  0.6578  0.1827
6.546e+09  0.9803  -0.03578  -0.02691  0.002728  -0.03486  0.01725  0.6793  -0.08411
6.548e+09  0.8741  -0.367  0.01795  -0.001634  0.03898  0.03544  0.6542  -0.2911
6.549e+09  0.7048  -0.6998  0.004707  0.0135  0.00662  0.002463  0.5245  -0.5323
6.55e+09  0.3814  -0.8703  0.02418  0.0006992  -0.05285  -0.02411  0.295  -0.6965
