# Hz S RI R 50
6.25e+09  -0.3829  0.7698  -0.02401  -0.00658  0.006618  0.02341  0.1614  0.4729
6.251e+09  -0.1752  0.8642  0.03775  0.007423  0.01408  -0.02591  0.3801  0.4028
6.252e+09  0.197  0.7939  -0.01992  0.01796  0.0182  0.03775  0.5463  0.2739
6.254e+09  0.486  0.8204  -0.00181  -0.03248  -0.01269  0.005567  0.6131  0.06954
6.255e+09  0.6246  0.5013  -0.03256  -0.0188  0.01586  0.01442  0.5945  -0.2221
6.256e+09  0.8223  0.2714  -0.03295  0.016  -0.02413  0.0406  0.48  -0.4452
6.258e+09  0.8581  -0.02025  0.001426  0.006529  0.04431  0.01152  0.2686  -0.6047
6.259e+09  0.7758  -0.3078  -0.006996  -0.004775  -0.01339  0.01039  0.02996  -0.6366
6.26e+09  0.639  -0.626  -0.005096  -0.00101  0.01193  0.03323  -0.2088  -0.6372
6.261e+09  0.3888  -0.6812  -0.02559  0.027  -0.01739  0.03958  -0.4333  -0.5109
6.262e+09  0.1056  -0.821  0.02138  0.02411  -0.02259  0.01665  -0.6018  -0.3716
6.264e+09  -0.2066  -0.8341  -0.02262  0.01792  -0.0752  0.01281  -0.7224  -0.1145
6.265e+09  -0.4405  -0.7165  -0.02057  0.04046  -0.01789  0.003831  -0.7205  0.1695
6.266e+09  -0.6427  -0.5106  -0.01145  -0.01832  0.01213  0.05984  -0.6264  0.4407
6.268e+09  -0.7819  -0.2278  0.00122  0.03272  0.03687  0.05048  -0.427  0.554
6.269e+09  -0.8496  -0.01159  0.01201  -0.01999  0.03183  -0.04334  -0.1966  0.6799
6.27e+09  -0.7777  0.3743  -0.02687  -0.02054  0.06045  -0.004753  0.07174  0.7518
6.271e+09  -0.6457  0.5584  -0.005359  -0.01051  0.02748  0.01903  0.3196  0.6682
6.272e+09  -0.3786  0.7461  -0.01334  0.02699  0.01913  -0.07039  0.5131  0.5187
6.274e+09  -0.1221  0.8675  0.0009077  -0.03445  0.009908  0.06087  0.7115  0.3262
6.275e+09  0.1491  0.7852  0.01519  0.002216  0.01435  -0.04938  0.7505  0.01743
6.276e+09  0.4072  0.7158  0.01148  0.0157  -0.0119  0.03204  0.7231  -0.2395
6.278e+09  0.6874  0.5039  -0.00648  -0.004088  0.01145  -0.03148  0.6179  -0.4527
6.279e+09  0.8187  0.2599  -0.003366  0.0002571  -0.001308  0.005103  0.4129  -0.6485
6.28e+09  0.8132  -0.02189  -0.009725  0.01176  -0.001904  -0.0354  0.1801  -0.762
6.281e+09  0.8059  -0.3037  -0.001293  -0.005551  0.111  -0.006017  -0.07298  -0.7523
6.282e+09  0.5785  -0.5876  0.02023  -0.03127  -0.0009883  -0.03994  -0.3926  -0.7064
6.284e+09  0.3718  -0.6978  -0.02163  -0.01906  -0.01213  0.001574  -0.5681  -0.5262
6.285e+09  0.02785  -0.8551  -0.01279  -0.006534  0.03738  0.02575  -0.7322  -0.3022
6.286e+09  -0.2374  -0.7662  0.00204  -0.01271  -0.03039  -0.03575  -0.7826  -0.01041
6.288e+09  -0.4418  -0.6931  -0.0208  0.004065  0.04599  -0.02447  -0.7565  0.2642
6.289e+09  -0.6854  -0.4643  -0.009182  0.02275  0.0008292  0.01196  -0.6638  0.5054
6.29e+09  -0.8776  -0.2086  -0.007439  -0.02061  0.04331  0.04187  -0.391  0.6884
6.291e+09  -0.7957  0.03806  -0.01256  0.03472  -0.02213  0.01794  -0.1514  0.7757
6.292e+09  -0.8177  0.3194  0.02527  -0.01564  0.01363  -0.07229  0.09136  0.8121
6.294e+09  -0.5613  0.6664  -0.0201  0.03081  0.004876  0.001288  0.415  0.7366
6.295e+09  -0.3529  0.7359  0.01349  0.03422  -0.04777  -0.02629  0.6308  0.5146
6.296e+09  0.0001122  0.8623  -0.01406  0.03017  0.00309  0.0004104  0.7756  0.3122
6.298e+09  0.2256  0.7717  0.005239  0.02877  -0.01548  -0.000788  0.7956  0.003469
6.299e+09  0.4818  0.6851  -0.02333  0.01154  0.06303  -0.04564  0.7528  -0.2823
6.3e+09  0.6502  0.4856  0.004009  -0.01946  -0.03319  -0.0322  0.6617  -0.5473
6.301e+09  0.7731  0.1752  -0.05451  0.01252  0.01954  -0.04135  0.4166  -0.7162
6.302e+09  0.7762  -0.104  0.02502  -0.01751  0.02603  -0.04879  0.1485  -0.8495
6.304e+09  0.7538  -0.3416  0.02595  0.0292  -0.03681  0.008543  -0.1671  -0.8175
6.305e+09  0.5711  -0.5949  -0.03072  0.004949  0.01562  0.01805  -0.4497  -0.7299
6.306e+09  0.3349  -0.7798  -0.01413  0.01896  0.04022  0.02599  -0.6488  -0.5666
6.308e+09  0.06999  -0.8203  -2.471e-05  -0.004459  -0.01954  0.009388  -0.8066  -0.3089
6.309e+09  -0.307  -0.7755  0.006668  -0.02019  0.0114  -0.02841  -0.8262  -0.003766
6.31e+09  -0.5198  -0.6604  -0.004098  0.01169  0.01442  -0.02668  -0.7973  0.3126
6.311e+09  -0.7463  -0.4162  -0.01936  -0.01574  0.0387  -0.0375  -0.6598  0.5588
6.312e+09  -0.8081  -0.1582  0.002981  -0.00407  0.03402  -0.01927  -0.4711  0.7516
6.314e+09  -0.8352  0.1429  0.001569  0.01667  0.001835  -0.002776  -0.1579  0.8462
6.315e+09  -0.7779  0.3594  0.01548  0.003451  0.005191  -0.01379  0.1413  0.8404
6.316e+09  -0.5277  0.6473  0.008938  -0.0213  -0.0089  0.01404  0.4236  0.7672
6.318e+09  -0.3122  0.8028  -0.03138  -0.002391  0.02323  0.0476  0.6414  0.5816
6.319e+09  -0.03234  0.8055  -0.006894  -0.002891  0.02351  -0.03472  0.8793  0.3028
6.32e+09  0.3107  0.7762  0.02224  0.01966  -0.008064  0.01563  0.8169  0.04306
6.321e+09  0.5295  0.6264  -0.01178  -0.01696  -0.02115  -0.02457  0.8236  -0.2769
6.322e+09  0.7226  0.3986  -0.01929  -0.02491  0.0132  -0.006295  0.6887  -0.5619
6.324e+09  0.8086  0.1384  0.006694  0.01179  -0.01774  -0.0111  0.4124  -0.788
6.325e+09  0.8604  -0.2105  -0.007512  0.01925  0.04309  -0.01307  0.1723  -0.8585
6.326e+09  0.71  -0.4323  -0.006587  -0.008696  -0.01202  -0.002829  -0.1137  -0.9043
6.328e+09  0.5017  -0.6594  -0.009969  0.007585  0.02962  -0.05223  -0.4357  -0.7525
6.329e+09  0.2382  -0.8126  0.0376  0.005612  0.05602  -0.0236  -0.6824  -0.5894
6.33e+09  -0.08676  -0.8348  0.008185  0.007686  0.009669  0.03165  -0.8284  -0.2996
6.331e+09  -0.3459  -0.8351  -0.01154  -0.001243  0.05025  0.006974  -0.8996  -0.03809
6.332e+09  -0.6676  -0.6444  -0.01082  0.03916  -0.01898  0.01696  -0.8832  0.2746
6.334e+09  -0.7375  -0.3384  -0.02007  -0.008427  -0.0215  -0.05567  -0.736  0.5716
6.335e+09  -0.8325  -0.04964  0.01133  0.02161  -0.01393  -0.01128  -0.5006  0.7264
6.336e+09  -0.8172  0.2535  -0.03041  -0.01582  0.007321  0.006991  -0.1547  0.9183
6.338e+09  -0.6659  0.4992  0.02148  0.02457  -0.01406  -0.003841  0.1495  0.8857
6.339e+09  -0.4429  0.7661  -0.004367  0.02115  0.04377  -0.01891  0.3551  0.8207
6.34e+09  -0.2329  0.8718  -0.00134  0.003815  0.06631  0.01007  0.6749  0.6145
6.341e+09  0.08381  0.8654  0.03035  0.00177  0.0006399  0.01369  0.8732  0.4013
6.342e+09  0.4626  0.7693  0.035  0.01725  -0.02803  -0.02685  0.9319  0.04973
6.344e+09  0.6185  0.5997  0.007114  0.002303  0.02229  -0.04026  0.8887  -0.2722
6.345e+09  0.8678  0.3102  0.00326  0.003847  -0.03552  0.01345  0.7661  -0.5778
6.346e+09  0.8783  0.0733  0.04277  -0.02688  0.04117  -0.04405  0.513  -0.7498
6.348e+09  0.8336  -0.3168  0.04749  -0.01593  -0.02684  -0.01459  0.1976  -0.9051
6.349e+09  0.6823  -0.5465  0.01188  0.006592  0.03009  0.001758  -0.1226  -0.9106
6.35e+09  0.4515  -0.7674  0.01033  -0.05119  0.0197  0.02709  -0.3903  -0.8058
6.351e+09  0.1363  -0.8925  0.006675  0.006462  -0.05036  -0.02319  -0.6846  -0.6247
6.352e+09  -0.1039  -0.8474  0.02296  0.01175  -0.01545  0.02393  -0.8867  -0.3662
6.354e+09  -0.4496  -0.7558  -0.009497  -0.009092  0.06603  -0.01024  -0.8919  -0.03673
6.355e+09  -0.6948  -0.575  -0.03378  0.01577  -0.001924  -0.03289  -0.9011  0.2374
6.356e+09  -0.8682  -0.2474  -0.02101  0.01938  -0.03013  -0.009209  -0.7633  0.5251
6.358e+09  -0.9019  0.1002  0.01143  -0.02439  -0.003962  0.005018  -0.5337  0.7993
6.359e+09  -0.8229  0.3462  0.009624  0.03114  -0.01806  0.001447  -0.238  0.9219
6.36e+09  -0.6436  0.6344  -0.007061  -0.02609  0.01818  0.01547  0.06982  0.9481
6.361e+09  -0.3588  0.7724  -0.02034  0.025  -0.02716  0.01382  0.3694  0.8475
6.362e+09  -0.109  0.897  0.01219  0.01752  0.01021  -0.01437  0.6285  0.6557
6.364e+09  0.2453  0.8566  -0.01829  0.01995  0.01117  -0.01626  0.8423  0.3954
6.365e+09  0.4546  0.7281  0.004728  0.03871  0.02647  -0.005773  0.9584  0.09682
6.366e+09  0.725  0.521  -0.002892  -0.00196  0.05061  -0.01224  0.8971  -0.2777
6.368e+09  0.8352  0.1911  0.01356  -0.02538  0.002313  -0.02043  0.7692  -0.545
6.369e+09  0.8769  -0.07678  0.003474  0.02882  0.0122  0.04254  0.536  -0.7933
6.37e+09  0.8103  -0.4009  0.05059  0.01353  0.04335  -0.005714  0.2503  -0.9159
6.371e+09  0.6056  -0.6354  -0.01407  -0.005912  -0.01679  -0.03935  -0.08455  -0.8906
6.372e+09  0.3804  -0.8096  0.01246  0.03666  0.001506  0.001126  -0.3872  -0.8203
6.374e+09  0.02608  -0.9042  -0.01357  -0.02832  -0.03472  -0.009484  -0.6548  -0.6601
6.375e+09  -0.2884  -0.8576  0.03156  -0.03534  -0.006893  0.02885  -0.8671  -0.4102
6.376e+09  -0.5444  -0.652  -0.002566  -0.026  -0.01395  -0.07217  -0.9557  -0.066
6.378e+09  -0.7391  -0.5081  0.007488  -0.0115  -0.02191  -0.0439  -0.9425  0.2276
6.379e+09  -0.8339  -0.1624  0.004139  -0.01846  0.007046  0.0008212  -0.795  0.5191
6.38e+09  -0.8698  0.08288  0.01981  -0.01719  -0.01554  0.06132  -0.5704  0.74
6.381e+09  -0.7386  0.4066  0.01313  0.01337  -0.01131  -0.01625  -0.2618  0.887
6.382e+09  -0.638  0.6564  -0.03843  0.00266  -0.01283  0.02071  0.03019  0.9295
6.384e+09  -0.3301  0.8267  0.0241  -0.04472  0.033  0.06489  0.4187  0.8699
6.385e+09  -0.01664  0.917  0.00405  0.05096  -0.03322  -0.02526  0.6485  0.659
6.386e+09  0.3487  0.7816  0.01371  0.006568  -0.01832  -0.02833  0.8045  0.4141
6.388e+09  0.6075  0.689  0.008788  0.06445  0.003342  -0.02586  0.8784  0.1196
6.389e+09  0.7986  0.4596  -0.005746  -0.02522  0.02362  0.02103  0.8998  -0.2075
6.39e+09  0.8618  0.1365  -0.01565  0.005854  0.02778  -0.009738  0.784  -0.5108
6.391e+09  0.8734  -0.19  -0.01366  0.001928  -0.03912  0.03061  0.5812  -0.7307
6.392e+09  0.7491  -0.4832  -0.03606  -0.006142  -0.01131  -0.02697  0.2814  -0.8654
6.394e+09  0.5575  -0.6991  -0.008733  0.003526  0.03879  -0.0428  -0.02058  -0.9113
6.395e+09  0.2806  -0.8758  0.004661  0.008607  0.002579  -0.01145  -0.3317  -0.8954
6.396e+09  -0.02162  -0.8572  -0.02266  -0.01136  -0.06057  0.004848  -0.624  -0.6889
6.398e+09  -0.3622  -0.8242  -0.007068  -0.04017  -0.003309  0.004227  -0.7801  -0.4759
6.399e+09  -0.6297  -0.6429  0.001922  0.001447  0.01941  0.05545  -0.9075  -0.1554
6.4e+09  -0.7886  -0.3501  0.006667  0.0293  0.01927  -0.00582  -0.8956  0.1646
6.401e+09  -0.8552  -0.09307  -0.007635  -0.02897  -0.04052  -0.01468  -0.7807  0.4955
6.402e+09  -0.8582  0.1847  0.01466  -0.005481  0.01005  0.00453  -0.5789  0.6912
6.404e+09  -0.7369  0.4803  -0.008343  -0.01983  -0.04567  0.02056  -0.3224  0.854
6.405e+09  -0.5387  0.7141  -0.0497  -0.03436  -0.03784  0.01663  -0.003951  0.8843
6.406e+09  -0.2847  0.8113  -0.05373  0.03223  -0.0273  -0.06134  0.319  0.8689
6.408e+09  0.03593  0.9068  -0.02621  -0.03015  -0.002403  0.02251  0.6057  0.6831
6.409e+09  0.3231  0.8449  -0.03245  0.01864  0.001554  -0.004934  0.8098  0.4316
6.41e+09  0.605  0.6096  0.02448  0.0005158  0.003236  0.02188  0.8816  0.1695
6.411e+09  0.819  0.3509  0.003733  -0.006728  -0.05955  0.00824  0.9156  -0.1312
6.412e+09  0.8604  0.141  -0.01282  -0.04042  0.04728  -0.0005356  0.8365  -0.4345
6.414e+09  0.8109  -0.2887  0.05271  -0.02649  -0.01817  -0.005921  0.5924  -0.6751
6.415e+09  0.7481  -0.4829  -0.007143  0.001302  0.03225  -0.03898  0.3371  -0.8525
6.416e+09  0.5094  -0.6892  0.03042  -0.02088  -0.01727  -0.01432  0.06829  -0.8926
6.418e+09  0.2811  -0.8388  -0.006127  0.01375  -0.006397  0.06539  -0.2664  -0.843
6.419e+09  -0.09204  -0.87  -0.03051  -0.0006604  -0.00511  -0.02123  -0.4959  -0.6932
6.42e+09  -0.3633  -0.8267  0.001687  0.001245  0.01273  -0.03707  -0.7676  -0.4765
6.421e+09  -0.603  -0.5917  -0.01728  -0.002237  0.01535  -0.01136  -0.8718  -0.2141
6.422e+09  -0.7725  -0.413  -0.02349  0.01916  -0.01089  -0.003855  -0.8867  0.1238
6.424e+09  -0.8774  -0.06611  0.02875  0.03349  0.02308  0.005348  -0.8085  0.3776
6.425e+09  -0.844  0.247  0.01207  -0.02013  -0.04996  -0.01758  -0.5774  0.6148
6.426e+09  -0.6899  0.5285  0.006684  -0.007943  0.05366  0.007284  -0.2983  0.8285
6.428e+09  -0.5001  0.6637  -0.03403  -0.005677  0.003242  0.04245  -0.05271  0.8775
6.429e+09  -0.2056  0.8679  -0.03448  -0.03714  0.008845  -0.0004386  0.2535  0.8291
6.43e+09  0.08045  0.9142  0.01024  0.00181  0.02251  0.01897  0.5488  0.7226
6.431e+09  0.3904  0.8044  0.02078  -0.007027  -0.02171  0.008254  0.7524  0.4157
6.432e+09  0.6122  0.6079  0.03779  0.01483  0.007542  -0.0464  0.8313  0.191
6.434e+09  0.7579  0.3572  0.008085  0.01404  -0.0118  -0.01953  0.8739  -0.1026
6.435e+09  0.8278  0.06022  -0.006519  0.03379  0.0115  0.006303  0.8048  -0.3342
6.436e+09  0.8298  -0.2555  -0.01587  -0.01028  0.02439  -0.00675  0.6225  -0.584
6.438e+09  0.6693  -0.5227  -0.0253  0.01908  -0.01819  -0.002994  0.3327  -0.7662
6.439e+09  0.4889  -0.7612  -0.02369  -0.05533  -0.04052  -0.01874  0.03865  -0.8173
6.44e+09  0.215  -0.8733  0.0333  -0.01953  0.004393  -0.02197  -0.2171  -0.7678
6.441e+09  -0.114  -0.8851  -0.005597  -0.003618  0.04251  -0.001965  -0.4849  -0.6734
6.442e+09  -0.4066  -0.8072  -0.01124  0.005741  0.03396  0.0001927  -0.7022  -0.4683
6.444e+09  -0.6548  -0.6486  -0.0008205  -0.007685  -0.04869  0.009757  -0.8581  -0.2485
6.445e+09  -0.7909  -0.2841  -0.002617  0.008448  0.04331  -0.01482  -0.8116  0.03973
6.446e+09  -0.8984  -0.0885  -0.03225  -0.05887  -0.03891  0.03451  -0.7051  0.3679
6.448e+09  -0.8132  0.2149  0.01346  -0.01021  0.03536  -0.04363  -0.5565  0.5843
6.449e+09  -0.6953  0.5589  -0.001306  -0.006193  0.03361  0.01664  -0.3424  0.7384
6.45e+09  -0.5077  0.7151  -0.03118  0.02147  -0.03461  -0.01094  -0.03374  0.811
6.451e+09  -0.1785  0.869  -0.02896  0.02557  -0.03211  0.01875  0.2195  0.7956
6.452e+09  0.09473  0.9001  -0.0511  -0.0455  0.008467  0.03342  0.4523  0.6766
6.454e+09  0.3963  0.8078  -0.007076  -0.01154  0.01455  0.03115  0.6674  0.4418
6.455e+09  0.6449  0.6193  -0.02436  0.03294  -0.02849  0.05485  0.7653  0.1959
6.456e+09  0.8145  0.361  -0.005658  0.01807  -0.03678  0.0002057  0.8315  -0.06722
6.458e+09  0.9008  0.04819  0.004174  -0.002215  0.02557  0.05707  0.7143  -0.3512
6.459e+09  0.8498  -0.268  0.0005002  -0.02309  -0.05631  0.001626  0.5941  -0.5792
6.46e+09  0.7334  -0.5545  -0.03236  -0.05692  -0.02683  -0.06795  0.3304  -0.7423
6.461e+09  0.5185  -0.7309  0.01807  -0.003626  -0.02786  -0.02512  0.07427  -0.7812
6.462e+09  0.2223  -0.8652  0.03923  -0.01127  0.006882  0.02239  -0.2194  -0.7791
6.464e+09  -0.1345  -0.9058  0.03107  -0.0158  -0.01926  -0.02132  -0.4748  -0.7197
6.465e+09  -0.4069  -0.7833  -0.01149  -0.07102  0.03864  -0.003432  -0.6269  -0.4609
6.466e+09  -0.5833  -0.5681  -0.005654  0.04614  0.03642  0.02914  -0.8177  -0.1699
6.468e+09  -0.8322  -0.3593  -0.05697  0.009468  -0.01215  1.273e-05  -0.7572  0.02325
6.469e+09  -0.8804  -0.04044  -0.01784  -0.007413  0.02466  -0.0005393  -0.7289  0.3338
6.47e+09  -0.7977  0.2633  -0.02397  -0.0468  0.02642  0.08201  -0.5584  0.5468
6.471e+09  -0.6927  0.514  -0.02268  0.03324  0.02436  0.01844  -0.3054  0.6803
6.472e+09  -0.4993  0.8095  0.00286  0.0668  0.003666  -0.02757  -0.05195  0.8017
6.474e+09  -0.2616  0.8649  0.002886  -0.01508  0.01013  -0.00362  0.2001  0.7479
6.475e+09  0.08469  0.9037  0.008098  -0.02269  0.003128  0.00437  0.4423  0.6126
6.476e+09  0.4252  0.8352  0.01579  0.003653  0.01436  -0.02581  0.6615  0.4129
6.478e+09  0.7208  0.5608  0.006073  -0.006594  -0.02604  0.008897  0.7048  0.1787
6.479e+09  0.8297  0.2835  0.01194  0.04329  0.004674  0.02343  0.7747  -0.1171
6.48e+09  0.8616  0.02622  0.01662  -0.03042  0.01245  -0.0219  0.6772  -0.3399
6.481e+09  0.8559  -0.3061  -0.02768  0.01532  -0.00357  -0.008832  0.5184  -0.5709
6.482e+09  0.6987  -0.5982  0.007088  0.001188  -0.04664  -0.00599  0.3308  -0.7093
6.484e+09  0.4388  -0.7734  -0.02892  0.0419  0.03514  0.00995  0.06731  -0.7398
6.485e+09  0.1403  -0.8847  0.01  5.633e-05  0.003201  -0.001675  -0.1512  -0.7584
6.486e+09  -0.1173  -0.9056  0.009242  0.02857  -0.0432  0.01138  -0.4332  -0.6227
6.488e+09  -0.4544  -0.8248  -0.0127  -0.01749  0.0342  -0.04897  -0.6281  -0.4317
6.489e+09  -0.6842  -0.5651  -0.01125  -0.02938  0.01802  0.04653  -0.7403  -0.2154
6.49e+09  -0.8128  -0.309  -0.0228  0.01471  0.02646  0.01456  -0.7935  0.08055
6.491e+09  -0.9881  0.0439  -0.01503  0.006865  -0.05973  -0.02483  -0.6796  0.3699
6.492e+09  -0.8931  0.2823  0.01501  -0.02755  -0.04715  0.06413  -0.538  0.5028
6.494e+09  -0.7224  0.5801  -0.02055  -0.01561  -0.01364  0.0096  -0.3114  0.6857
6.495e+09  -0.4759  0.7853  -0.01199  0.009285  -0.006573  0.03684  -0.0395  0.7888
6.496e+09  -0.1452  0.9448  -0.03111  -0.01251  0.0178  -0.02812  0.2291  0.7423
6.498e+09  0.163  0.8697  0.0005123  0.01345  -0.03827  0.04225  0.463  0.631
6.499e+09  0.5251  0.7484  0.003911  0.001229  -0.03077  0.05044  0.6209  0.4505
6.5e+09  0.7094  0.5824  0.02402  0.0368  0.03422  -0.001543  0.7227  0.1972
6.501e+09  0.8721  0.252  -0.002393  -0.003427  0.03759  0.02044  0.7703  -0.0934
6.502e+09  0.9353  -0.008925  -0.004014  0.03646  -0.001194  -0.006662  0.653  -0.3816
6.504e+09  0.8858  -0.3249  0.01892  -0.02057  -0.03577  -0.0273  0.5002  -0.5557
6.505e+09  0.6604  -0.6086  0.01187  -0.02795  0.0228  0.04706  0.2796  -0.6905
6.506e+09  0.3916  -0.8329  -0.01912  -0.027  0.01527  -0.009602  0.04777  -0.7487
6.508e+09  0.1184  -0.9155  -0.02297  -0.04288  -0.08948  0.05596  -0.2549  -0.7184
6.509e+09  -0.2057  -0.9249  0.01265  0.002477  -0.005735  0.01324  -0.4525  -0.556
6.51e+09  -0.5628  -0.8009  -0.0194  0.0134  0.01365  -0.01396  -0.6493  -0.373
6.511e+09  -0.742  -0.5679  -0.02218  -0.008965  -0.04898  0.05542  -0.7469  -0.1357
6.512e+09  -0.8926  -0.2378  0.0008492  -0.007846  -0.004641  0.02931  -0.7429  0.123
6.514e+09  -0.9627  0.0515  -0.006081  -0.02173  -0.02058  -0.01691  -0.6384  0.3945
6.515e+09  -0.8702  0.4219  -0.0003328  0.01663  0.05122  -0.007638  -0.482  0.5743
6.516e+09  -0.6816  0.6793  -0.02254  -5.447e-05  -0.01208  0.04138  -0.2311  0.7016
6.518e+09  -0.4349  0.8727  0.02325  0.007037  -0.01354  0.02622  0.006515  0.7865
6.519e+09  -0.09319  0.9538  0.01531  0.01868  -0.01544  0.03775  0.245  0.6996
6.52e+09  0.2845  0.8997  0.01315  -0.01302  0.02181  -0.0322  0.4593  0.52
6.521e+09  0.5817  0.7532  0.01395  0.01623  -0.0505  -0.01084  0.6479  0.3616
6.522e+09  0.8184  0.5326  -0.005174  -0.003674  0.02742  -0.004095  0.7414  0.1181
6.524e+09  0.941  0.2527  0.02679  0.007906  0.04359  -0.01679  0.7126  -0.1567
6.525e+09  0.9496  -0.1188  -0.0007348  0.02857  -0.0208  0.001383  0.6125  -0.3733
6.526e+09  0.8727  -0.4237  -0.01333  -0.02369  0.07738  0.005881  0.4453  -0.6061
6.528e+09  0.6516  -0.6612  0.00337  0.005605  -0.008044  0.03354  0.1702  -0.6613
6.529e+09  0.3649  -0.9048  -0.03749  0.02615  -0.003501  0.008888  -0.07298  -0.7043
6.53e+09  0.008804  -0.9954  -0.04296  0.01585  -0.02365  -0.01157  -0.2823  -0.6288
6.531e+09  -0.3224  -0.9106  0.006102  0.007619  -0.0569  0.01115  -0.4293  -0.4854
6.532e+09  -0.6448  -0.753  0.01697  0.02452  -0.06359  -0.007449  -0.5926  -0.2815
6.534e+09  -0.8728  -0.4875  0.01149  -0.02706  -0.06359  0.003054  -0.6123  -0.06442
6.535e+09  -1.001  -0.1352  -0.01693  0.0239  -0.01678  -0.009192  -0.6248  0.1114
6.536e+09  -0.9238  0.1582  -0.01726  0.02315  0.04107  0.01252  -0.5786  0.3036
6.538e+09  -0.7667  0.4959  0.02372  -0.01413  0.01663  -0.01291  -0.4424  0.4711
6.539e+09  -0.6313  0.756  -0.009477  -0.03792  0.02661  -0.009452  -0.2805  0.601
6.54e+09  -0.2706  0.9434  -0.006576  0.004757  -0.02766  -0.01716  -0.006813  0.662
6.541e+09  0.07559  0.967  0.01322  0.01274  0.01255  -0.003435  0.1629  0.6483
6.542e+09  0.3494  0.9645  -0.005472  0.02077  -0.007896  -0.01695  0.4129  0.5933
6.544e+09  0.6949  0.672  0.01438  0.005539  -0.02181  0.03162  0.5904  0.4029
6.545e+09  0.8854  0.4521  -0.02712  -0.01855  -0.06023  -0.05218  0.6923  0.1298
6.546e+09  0.9891  0.0974  0.03461  -0.008737  0.0404  -0.006914  0.7112  -0.07371
6.548e+09  0.9264  -0.2484  -0.01343  0.03897  0.00344  0.02395  0.665  -0.304
6.549e+09  0.7735  -0.5597  0.02224  0.007508  -0.01864  0.005053  0.5206  -0.5088
6.55e+09  0.53  -0.7356  0.008191  0.0055  -0.01602  0.02548  0.2882  -0.6704
