# Hz S RI R 50
6.25e+09  -0.3784  0.7098  -0.01446  -0.01418  -0.04115  0.02497  0.1793  0.4892
6.251e+09  -0.04627  0.8478  -0.04432  0.002273  0.0176  -0.03023  0.3596  0.4098
6.252e+09  0.2237  0.8097  0.008605  0.0112  0.06537  0.02785  0.5251  0.242
6.254e+09  0.5101  0.6973  -0.02871  -0.01179  0.01363  0.02147  0.6198  0.04236
6.255e+09  0.7466  0.4871  0.002886  0.02834  -0.002259  0.001896  0.5686  -0.1879
6.256e+09  0.8503  0.2044  -0.02005  0.005703  -0.02028  0.04102  0.4944  -0.4325
6.258e+09  0.8551  -0.0843  -0.01769  -0.02778  0.03153  -0.0131  0.2666  -0.6041
6.259e+09  0.7256  -0.3186  -0.005913  0.02106  0.03803  -0.04572  0.08179  -0.6616
6.26e+09  0.6187  -0.5868  -0.02615  -0.01471  -0.02985  0.02418  -0.186  -0.6473
6.261e+09  0.389  -0.7518  -0.03947  -0.03004  0.04121  0.01789  -0.4176  -0.5372
6.262e+09  0.06891  -0.8472  0.01291  0.002525  -0.007871  0.01174  -0.6259  -0.3524
6.264e+09  -0.2032  -0.8096  0.003412  0.002953  -0.003582  -0.006224  -0.6965  -0.1126
6.265e+09  -0.4905  -0.6678  0.01952  -0.01734  -0.01018  0.03195  -0.6822  0.1337
6.266e+09  -0.7659  -0.4579  0.00585  0.03334  0.01045  -0.05371  -0.6173  0.399
6.268e+09  -0.8094  -0.1635  -0.006373  -0.0007126  0.01602  -0.03862  -0.4163  0.5893
6.269e+09  -0.8392  0.09486  0.005188  -0.01147  -0.002665  0.008905  -0.2125  0.7151
6.27e+09  -0.7055  0.3305  -0.008047  -0.009733  -0.0164  -0.03153  0.06619  0.7339
6.271e+09  -0.5732  0.645  0.04406  -0.01856  0.03541  -0.01846  0.3544  0.6534
6.272e+09  -0.3392  0.7217  0.007324  -0.02279  -0.0003263  0.03939  0.5476  0.5357
6.274e+09  -0.02738  0.8052  0.01881  0.03173  0.02367  0.03997  0.6895  0.2903
6.275e+09  0.2795  0.8215  -0.01691  0.0004864  -0.02741  0.004343  0.7639  0.02203
6.276e+09  0.4758  0.6909  -0.0008009  -0.01502  0.001972  -0.02355  0.7336  -0.2041
6.278e+09  0.7404  0.4529  -0.00406  0.02536  -0.01705  -0.01269  0.5758  -0.4498
6.279e+09  0.823  0.2096  -0.01614  -0.02793  0.02088  -0.01207  0.4035  -0.6454
6.28e+09  0.8744  -0.1008  0.01432  -0.00613  -0.05286  0.02033  0.2032  -0.7468
6.281e+09  0.7569  -0.3087  -0.01438  -0.02364  -0.02997  0.01863  -0.09601  -0.7724
6.282e+09  0.587  -0.5846  0.009891  -0.01411  0.00628  0.0787  -0.3866  -0.685
6.284e+09  0.3377  -0.8424  -0.02731  0.009392  -0.02844  0.01043  -0.5983  -0.518
6.285e+09  0.03294  -0.8193  0.00863  -0.01462  0.01879  0.03645  -0.7364  -0.2396
6.286e+09  -0.2163  -0.7971  0.01295  -0.005007  0.03092  0.02043  -0.7846  -0.0119
6.288e+09  -0.5296  -0.643  0.01173  -0.01084  -0.04697  -0.01147  -0.7899  0.2691
6.289e+09  -0.7148  -0.4419  -0.003261  -0.0189  0.02034  0.07729  -0.641  0.4726
6.29e+09  -0.8024  -0.167  0.004877  0.001705  -0.00716  -0.04285  -0.3931  0.696
6.291e+09  -0.8031  0.07601  0.01359  -0.00151  -0.01898  -0.04452  -0.1455  0.7665
6.292e+09  -0.7825  0.3693  -0.001049  0.004671  0.02608  -0.01484  0.1462  0.7907
6.294e+09  -0.5155  0.6237  -0.005795  -0.008044  0.01775  0.02325  0.3811  0.7074
6.295e+09  -0.2679  0.7877  -0.02213  0.02943  -0.0487  0.01279  0.6295  0.5559
6.296e+09  -0.01909  0.8053  -0.002384  0.003634  0.04044  -0.02252  0.7694  0.2912
6.298e+09  0.2861  0.768  -0.005418  -0.005964  0.02255  0.01831  0.8228  0.02502
6.299e+09  0.4904  0.6704  0.01967  0.005506  -0.01927  -0.01976  0.7711  -0.2525
6.3e+09  0.7396  0.4119  -0.003967  0.01186  -0.01454  0.004517  0.652  -0.5556
6.301e+09  0.8164  0.1309  -0.01404  -0.0233  0.001832  0.001928  0.4156  -0.7119
6.302e+09  0.8235  -0.1805  0.01517  0.007813  0.0105  0.02005  0.1162  -0.8418
6.304e+09  0.7015  -0.447  -0.004845  0.01443  0.009329  0.04541  -0.1526  -0.8462
6.305e+09  0.5126  -0.646  -0.02404  0.01015  -0.01661  0.009526  -0.4086  -0.7377
6.306e+09  0.2566  -0.8193  -0.005814  0.008029  -0.03169  0.01112  -0.6361  -0.5668
6.308e+09  -0.0405  -0.8329  -0.001041  0.01811  0.03128  -0.006302  -0.7924  -0.2797
6.309e+09  -0.2881  -0.7464  -0.005536  -0.006574  -6.047e-05  0.02742  -0.8435  0.01882
6.31e+09  -0.5374  -0.6293  0.002617  -0.006295  0.00308  0.005927  -0.797  0.2927
6.311e+09  -0.7288  -0.3482  0.005182  -0.002392  -0.02842  0.02153  -0.6919  0.5407
6.312e+09  -0.8837  -0.133  -0.02462  0.02098  0.01175  -0.002703  -0.4291  0.7557
6.314e+09  -0.8105  0.1827  -0.002712  0.01019  -0.009975  0.005411  -0.1731  0.8379
6.315e+09  -0.7098  0.4732  0.02574  0.006738  0.04157  -0.001261  0.1611  0.8393
6.316e+09  -0.5144  0.6565  -0.005704  -0.02477  0.01271  0.02174  0.428  0.7716
6.318e+09  -0.2353  0.824  0.02882  -0.0234  -0.003474  -7.458e-05  0.6985  0.5725
6.319e+09  0.06175  0.8873  -0.03477  -0.007776  -0.04465  -0.008732  0.8275  0.2898
6.32e+09  0.3517  0.7913  -0.03422  0.02398  0.02069  -0.01735  0.8968  0.01379
6.321e+09  0.6161  0.624  0.01164  -0.0006005  -0.01036  -0.03108  0.8169  -0.2407
6.322e+09  0.788  0.3927  -0.01738  0.003825  -0.01296  0.0359  0.6566  -0.5198
6.324e+09  0.8237  0.04516  -0.00668  -0.007862  0.005515  0.05918  0.479  -0.7528
6.325e+09  0.7762  -0.22  -0.0229  0.01178  -0.00256  -0.004479  0.1823  -0.8766
6.326e+09  0.683  -0.4958  0.003224  -0.001513  0.02779  0.007819  -0.1176  -0.9004
6.328e+09  0.4764  -0.7394  -0.023  -0.0008551  -0.01028  0.06244  -0.4006  -0.8112
6.329e+09  0.1757  -0.8926  0.02639  0.009107  0.006546  -0.004905  -0.6618  -0.6118
6.33e+09  -0.03445  -0.863  -0.03292  -0.003989  0.02074  0.004921  -0.8662  -0.3351
6.331e+09  -0.395  -0.7035  -0.03336  0.02024  -0.00794  -0.001036  -0.9246  -0.02807
6.332e+09  -0.6253  -0.5617  0.02686  -0.00141  0.06371  -0.01386  -0.8892  0.26
6.334e+09  -0.8309  -0.3219  -0.006001  0.02612  0.03322  -0.02464  -0.707  0.5711
6.335e+09  -0.8763  -0.01889  0.007593  0.02194  0.00893  -0.02845  -0.4678  0.7728
6.336e+09  -0.8203  0.2885  -0.0285  0.01733  0.004957  0.007586  -0.1868  0.85
6.338e+09  -0.6963  0.5492  0.002568  -0.007629  -0.00966  -0.02514  0.0938  0.8842
6.339e+09  -0.4298  0.7378  0.02802  0.01339  0.0164  0.01889  0.4014  0.8048
6.34e+09  -0.1534  0.8627  -0.002942  -0.0007707  -0.007179  0.04268  0.6631  0.643
6.341e+09  0.1668  0.8256  -0.01576  0.008412  0.003621  -0.004884  0.8459  0.3445
6.342e+09  0.4294  0.7414  0.01343  0.01309  -0.007502  0.0279  0.9037  0.07595
6.344e+09  0.7036  0.5326  0.008131  0.0188  0.01521  0.008563  0.8657  -0.291
6.345e+09  0.8405  0.2858  0.01839  -0.01402  -0.01013  0.02742  0.739  -0.5589
6.346e+09  0.8769  -0.04461  -0.009655  -0.008275  0.005203  0.02243  0.5077  -0.743
6.348e+09  0.7743  -0.3171  0.001185  -0.01587  0.01608  0.0272  0.1723  -0.8808
6.349e+09  0.6368  -0.5886  -0.007352  -0.008205  -0.004378  -0.01639  -0.09429  -0.9218
6.35e+09  0.377  -0.8064  -0.02317  -0.03464  -0.02369  0.01791  -0.3853  -0.8356
6.351e+09  0.07628  -0.8363  -0.04595  0.03732  -0.03444  -0.0404  -0.6618  -0.6431
6.352e+09  -0.2327  -0.8692  0.00733  0.02995  0.004307  0.03177  -0.8493  -0.4128
6.354e+09  -0.5181  -0.7105  0.03965  0.04278  0.03027  0.02896  -0.93  -0.03727
6.355e+09  -0.7398  -0.5227  0.01349  -0.01189  -0.03371  0.0201  -0.8897  0.2722
6.356e+09  -0.8426  -0.2592  0.003883  -0.01192  0.02621  -0.001621  -0.739  0.5423
6.358e+09  -0.9134  0.1549  -0.005191  0.009603  0.01431  -0.0236  -0.5244  0.7764
6.359e+09  -0.7579  0.4285  0.01188  -0.004219  0.01924  0.0247  -0.2159  0.9137
6.36e+09  -0.6154  0.61  0.007124  -0.01518  -0.04949  -0.05316  0.11  0.9315
6.361e+09  -0.3523  0.8066  -0.002647  0.02236  0.01443  0.03891  0.3781  0.8602
6.362e+09  -0.006929  0.8843  -0.0177  0.003452  0.01118  0.04783  0.6708  0.6743
6.364e+09  0.2811  0.8229  0.01425  0.01253  -0.009015  -0.04411  0.8947  0.4016
6.365e+09  0.5118  0.6639  -0.02347  0.01693  0.008706  0.01935  0.9414  0.09434
6.366e+09  0.7723  0.4677  -0.01764  0.000595  -0.01981  0.03646  0.9192  -0.2382
6.368e+09  0.9057  0.1709  -0.001011  -0.003385  -0.0006565  0.01052  0.7892  -0.5553
6.369e+09  0.8027  -0.1118  -0.000357  0.02561  0.007794  -0.02283  0.5427  -0.7687
6.37e+09  0.7676  -0.4168  -0.02385  0.009049  -0.01923  0.01189  0.2457  -0.9282
6.371e+09  0.5904  -0.6398  0.004274  0.02991  0.03356  -0.09651  -0.0816  -0.9305
6.372e+09  0.3141  -0.8385  0.0363  0.02513  -0.0458  -0.004583  -0.4315  -0.8902
6.374e+09  0.03599  -0.962  -0.03926  0.001907  -0.03722  0.03837  -0.6732  -0.6656
6.375e+09  -0.3438  -0.8293  -0.009608  -0.001595  -0.02358  -0.01391  -0.8129  -0.3894
6.376e+09  -0.619  -0.6789  -0.006709  -0.03272  -0.01591  0.03045  -0.9132  -0.103
6.378e+09  -0.777  -0.4075  0.01018  0.01233  0.04607  0.01105  -0.936  0.2558
6.379e+09  -0.8949  -0.1446  0.005521  0.01717  0.0362  0.006276  -0.798  0.5315
6.38e+09  -0.8843  0.1942  0.04191  -0.007976  -0.01088  0.0222  -0.5642  0.7582
6.381e+09  -0.795  0.492  0.0059  -0.009364  0.01338  0.02891  -0.2609  0.8749
6.382e+09  -0.5403  0.6616  0.01934  -0.0257  0.03878  0.01094  0.05599  0.9295
6.384e+09  -0.2541  0.8524  -0.007149  0.009682  0.006077  0.0004739  0.3939  0.8271
6.385e+09  0.01136  0.886  0.004497  -0.04215  0.01049  0.003288  0.6324  0.7025
6.386e+09  0.359  0.835  -0.06959  0.009358  -0.03813  0.001891  0.8299  0.4174
6.388e+09  0.6083  0.7121  -0.03482  -0.02046  0.0005011  -0.01161  0.9292  0.1097
6.389e+09  0.7893  0.4028  0.02062  0.002903  0.0516  0.01916  0.8958  -0.2083
6.39e+09  0.8909  0.06764  -0.0002315  0.003576  -0.02621  -0.003336  0.7607  -0.4679
6.391e+09  0.8113  -0.2095  -0.003044  0.009396  0.01482  -0.00029  0.5572  -0.7305
6.392e+09  0.7459  -0.4908  -0.008836  -0.00809  0.02012  -0.04108  0.2822  -0.8445
6.394e+09  0.5553  -0.7315  0.02257  0.03593  0.002002  0.03635  -0.03338  -0.9047
6.395e+09  0.2423  -0.8775  0.001227  0.01809  -0.04887  0.01782  -0.3383  -0.8087
6.396e+09  -0.02819  -0.8925  -0.003655  -0.02324  -0.001614  -0.003807  -0.612  -0.7164
6.398e+09  -0.3834  -0.809  0.0336  0.0176  0.01544  -0.007044  -0.7827  -0.4178
6.399e+09  -0.6236  -0.5809  -0.001569  -0.03529  0.0002605  -0.04208  -0.8773  -0.1578
6.4e+09  -0.8426  -0.3894  -0.0255  -0.01251  -0.003759  -0.03399  -0.874  0.16
6.401e+09  -0.8498  -0.05306  -0.02362  0.02282  -0.02586  0.003355  -0.802  0.4513
6.402e+09  -0.8503  0.2786  -0.02553  -0.02091  -0.0468  -0.02393  -0.6171  0.7033
6.404e+09  -0.6893  0.51  -0.01272  -0.005145  0.05457  -0.03511  -0.318  0.8295
6.405e+09  -0.4825  0.7755  0.003035  -0.02728  -0.0441  -0.006471  0.0334  0.933
6.406e+09  -0.2026  0.8985  0.0145  -0.002384  0.008466  0.002511  0.3241  0.8665
6.408e+09  0.07169  0.912  0.04169  0.009492  0.009212  0.008237  0.5843  0.6903
6.409e+09  0.3887  0.7981  -0.02421  -0.01195  -0.01461  0.001485  0.8183  0.4419
6.41e+09  0.6387  0.5919  0.00832  0.01349  0.01306  0.03572  0.8554  0.1703
6.411e+09  0.8028  0.3256  -0.01414  -0.005716  -0.03898  -0.01043  0.8514  -0.1101
6.412e+09  0.8934  0.08485  -0.02062  0.02211  0.03798  0.03195  0.7973  -0.4268
6.414e+09  0.8289  -0.2484  -0.02597  0.0097  0.03119  0.04511  0.6342  -0.6896
6.415e+09  0.7153  -0.4951  0.002277  0.0143  -0.02396  -0.05185  0.2623  -0.8044
6.416e+09  0.4821  -0.7898  0.003003  0.02126  0.02347  0.02858  -0.01208  -0.9234
6.418e+09  0.1563  -0.8638  -0.01265  -0.009518  -0.01915  -0.01562  -0.2852  -0.8308
6.419e+09  -0.09888  -0.8613  0.01563  -0.02057  -0.00984  0.02333  -0.4857  -0.676
6.42e+09  -0.4348  -0.7904  0.03792  -0.01492  -0.04979  -0.01906  -0.7722  -0.4708
6.421e+09  -0.6571  -0.5661  -0.02525  0.007913  -0.01827  -0.01474  -0.8511  -0.1849
6.422e+09  -0.781  -0.3334  -0.02636  -0.01974  -0.01178  0.01622  -0.8488  0.1194
6.424e+09  -0.8372  -0.03341  -0.03411  0.03779  -0.003391  0.01304  -0.7695  0.4018
6.425e+09  -0.8366  0.2912  -0.02177  -0.02837  -0.01978  0.04145  -0.5898  0.6317
6.426e+09  -0.7107  0.5689  -0.03201  0.01696  -0.006794  -0.01757  -0.3699  0.7911
6.428e+09  -0.4524  0.7715  -0.02797  0.01203  0.01578  0.0009678  -0.07853  0.8543
6.429e+09  -0.1341  0.8182  0.01703  -0.02341  0.002378  -0.03243  0.2398  0.8427
6.43e+09  0.1583  0.8816  0.002521  0.007113  -0.02665  -0.02094  0.4673  0.7442
6.431e+09  0.4493  0.7969  0.01128  -0.007886  -0.02425  0.02194  0.6853  0.4614
6.432e+09  0.6948  0.5541  -0.01192  -0.004841  0.0246  -0.03508  0.8418  0.2156
6.434e+09  0.8027  0.3137  -0.01468  -0.002951  -0.01269  0.02015  0.8601  -0.07392
6.435e+09  0.8442  -0.02505  -0.003182  0.04993  0.01014  -0.008925  0.727  -0.3811
6.436e+09  0.8465  -0.3163  -0.004429  0.03395  -0.02735  0.008856  0.6156  -0.5407
6.438e+09  0.6636  -0.519  -0.01509  0.02044  -0.01492  0.009787  0.358  -0.8248
6.439e+09  0.4876  -0.7517  0.0004301  -0.00492  0.00421  -0.006655  0.1049  -0.7971
6.44e+09  0.1437  -0.8415  0.01072  0.02228  -0.0537  -0.0002485  -0.2638  -0.8194
6.441e+09  -0.1268  -0.8683  0.03517  0.01275  -0.0508  0.04077  -0.5107  -0.6807
6.442e+09  -0.4344  -0.7153  0.05749  -0.06347  -0.008424  -0.01402  -0.6915  -0.5126
6.444e+09  -0.6772  -0.6017  -0.01067  0.008696  -0.04204  -0.02713  -0.808  -0.2333
6.445e+09  -0.8533  -0.2914  -0.0327  -0.03698  0.002248  -0.02353  -0.8433  0.1075
6.446e+09  -0.9137  -0.03904  -0.00634  -0.00674  0.003377  0.0281  -0.7715  0.3766
6.448e+09  -0.794  0.3042  -0.04664  -0.02227  -0.007827  0.01151  -0.5536  0.6015
6.449e+09  -0.6976  0.6184  -0.009115  -0.0508  0.04243  -0.01835  -0.3174  0.7479
6.45e+09  -0.4769  0.7567  0.004067  0.008298  -0.01867  -0.0004273  -0.04148  0.8129
6.451e+09  -0.1591  0.8746  0.02071  -0.0115  -0.03521  -0.02056  0.2251  0.8237
6.452e+09  0.08885  0.8997  0.02779  -0.05699  -0.04734  0.001081  0.4617  0.6815
6.454e+09  0.4385  0.7967  -0.0521  0.03874  0.03615  -0.004642  0.6607  0.4813
6.455e+09  0.7019  0.5287  0.01466  0.001907  0.00658  0.01215  0.8387  0.2356
6.456e+09  0.8318  0.3232  -0.02137  0.009864  0.0264  0.000752  0.8099  -0.07824
6.458e+09  0.9153  -0.02054  0.01193  -0.02711  -0.06472  -0.02078  0.7284  -0.3667
6.459e+09  0.7954  -0.3557  -0.02335  0.03584  0.01596  -0.03101  0.5855  -0.5594
6.46e+09  0.6399  -0.6394  -0.027  -0.01185  -0.001599  -0.007903  0.32  -0.7497
6.461e+09  0.406  -0.7956  -0.04146  -0.01354  0.002507  0.02313  0.05886  -0.7621
6.462e+09  0.1346  -0.8906  -0.01981  -0.01699  -0.02675  -0.01088  -0.181  -0.8029
6.464e+09  -0.1774  -0.8311  0.06683  -0.02701  0.06638  0.06563  -0.464  -0.6497
6.465e+09  -0.4513  -0.7198  0.004577  -0.01339  -0.0415  -0.04833  -0.6589  -0.4481
6.466e+09  -0.7119  -0.5656  -0.03275  -0.01403  -0.03498  0.005272  -0.789  -0.204
6.468e+09  -0.8111  -0.3111  0.003614  -0.0131  0.02145  -0.03026  -0.7762  0.06187
6.469e+09  -0.8787  0.06802  -0.01831  0.01072  0.01556  -0.003814  -0.7483  0.3417
6.47e+09  -0.859  0.3204  -0.01785  0.009762  0.04837  0.03705  -0.5799  0.5839
6.471e+09  -0.7055  0.578  -0.0007979  0.001737  0.02245  0.04901  -0.3391  0.7433
6.472e+09  -0.4388  0.7255  -0.01743  -0.006578  -0.04243  0.01122  -0.07089  0.812
6.474e+09  -0.1341  0.8589  0.01081  0.02045  -0.004091  0.00373  0.2177  0.7839
6.475e+09  0.2003  0.8852  -0.02047  0.04043  -0.02766  -0.008798  0.4714  0.6471
6.476e+09  0.4673  0.7682  -0.04465  -0.004188  -0.03531  -0.02217  0.6583  0.4273
6.478e+09  0.691  0.5604  -0.002676  0.02048  0.002614  0.01509  0.7735  0.22
6.479e+09  0.8939  0.2779  0.005569  -0.01987  0.06284  0.02976  0.7821  -0.05035
6.48e+09  0.9173  -0.01692  0.0326  0.03623  0.006077  0.009228  0.7013  -0.365
6.481e+09  0.8724  -0.4081  0.0507  0.04796  0.03699  -0.02604  0.5603  -0.5684
6.482e+09  0.6917  -0.5839  0.008574  0.02674  -0.02878  -0.02336  0.3409  -0.7141
6.484e+09  0.4272  -0.8082  -0.02701  0.001052  -0.02674  0.03907  0.05411  -0.8155
6.485e+09  0.1538  -0.9158  -0.006324  -0.004047  0.02148  -0.06108  -0.2436  -0.7473
6.486e+09  -0.1995  -0.8516  -0.002363  0.005118  -0.03458  0.009568  -0.4836  -0.6724
6.488e+09  -0.5262  -0.8103  0.03327  -0.01015  0.01069  -0.0109  -0.6144  -0.4151
6.489e+09  -0.7318  -0.5003  -0.01546  -0.0201  0.01057  0.008471  -0.7674  -0.1716
6.49e+09  -0.8943  -0.2168  -0.01838  -0.007051  -0.02085  -0.03752  -0.7863  0.07587
6.491e+09  -0.8533  0.07727  -0.005378  -0.02285  0.002933  0.01016  -0.6699  0.3309
6.492e+09  -0.8472  0.3868  -0.003922  0.0141  -0.01237  0.009446  -0.5486  0.5533
6.494e+09  -0.6276  0.6386  -0.05318  -0.03564  0.005808  0.003615  -0.3026  0.7192
6.495e+09  -0.4522  0.8456  -0.03016  0.01369  0.03709  0.02585  -0.03993  0.7222
6.496e+09  -0.1261  0.9318  -0.002012  0.007779  -0.001733  -0.004519  0.2078  0.7494
6.498e+09  0.2164  0.9137  0.03957  -0.02413  -0.01164  -0.01403  0.4606  0.6429
6.499e+09  0.548  0.7877  0.02788  0.02001  0.01135  -0.03457  0.6798  0.401
6.5e+09  0.8126  0.464  0.007402  -0.01544  0.007434  -0.03756  0.743  0.1329
6.501e+09  0.9307  0.2125  -0.01847  0.0289  0.03353  0.01223  0.7542  -0.1151
6.502e+09  0.9223  -0.06484  0.01244  -0.03924  -0.01419  0.01446  0.6716  -0.359
6.504e+09  0.8774  -0.4102  -0.006818  0.007572  -0.03198  -0.003822  0.4834  -0.5349
6.505e+09  0.6388  -0.6251  -0.001857  0.002898  0.02033  0.05007  0.2727  -0.703
6.506e+09  0.3951  -0.8265  -0.016  0.02044  0.03911  -0.03302  0.002092  -0.7483
6.508e+09  0.06126  -0.9067  -0.005607  -0.02521  -0.02156  0.03372  -0.2215  -0.6999
6.509e+09  -0.2798  -0.8701  -0.03151  0.02251  0.01266  -0.003015  -0.4698  -0.583
6.51e+09  -0.5869  -0.7522  -0.02878  -0.02682  0.04946  0.05204  -0.6505  -0.4154
6.511e+09  -0.8398  -0.4821  -0.01128  -0.04125  0.02382  0.04854  -0.7111  -0.1712
6.512e+09  -0.9556  -0.2187  -0.01236  -0.03112  0.0212  -0.02437  -0.7404  0.136
6.514e+09  -0.9322  0.1226  -0.01161  0.03505  -0.08358  0.02429  -0.6567  0.3342
6.515e+09  -0.8222  0.4069  0.02372  -0.007609  -0.007128  -0.009115  -0.5167  0.589
6.516e+09  -0.6523  0.7483  -0.003732  0.06162  -0.02611  -0.02165  -0.2602  0.7053
6.518e+09  -0.3541  0.8975  -0.04416  0.0273  0.03879  0.03998  -0.03435  0.7437
6.519e+09  -0.03093  0.963  -0.01477  -0.01714  -0.01835  -0.01922  0.2632  0.694
6.52e+09  0.3208  0.9728  0.009877  0.02375  -0.02034  0.0001592  0.4875  0.5514
6.521e+09  0.6279  0.722  0.02803  -0.005973  0.007348  0.006695  0.6568  0.328
6.522e+09  0.8276  0.4859  -0.008838  0.02803  -0.0441  0.01616  0.7381  0.1168
6.524e+09  0.9702  0.1376  -0.003882  -0.03773  0.002132  -0.03276  0.7003  -0.1489
6.525e+09  0.9641  -0.2288  -0.04722  0.01988  0.02125  -0.03385  0.6194  -0.3905
6.526e+09  0.8757  -0.4692  -0.02006  -0.01172  -0.02182  0.05429  0.4462  -0.5854
6.528e+09  0.5791  -0.7725  -0.01414  0.01776  0.02624  -0.04439  0.1859  -0.6755
6.529e+09  0.3099  -0.9535  0.03518  0.004528  0.03193  -0.0423  -0.07255  -0.7003
6.53e+09  -0.05483  -0.983  -0.03551  0.04163  -0.001214  -0.08254  -0.3198  -0.6132
6.531e+09  -0.4489  -0.928  0.004021  -0.03656  -0.02301  -0.01828  -0.4516  -0.4889
6.532e+09  -0.6618  -0.723  -0.0449  -0.003086  -0.02287  -0.004571  -0.5891  -0.2877
6.534e+09  -0.8718  -0.4404  -0.03903  0.01617  0.02017  0.0459  -0.6623  -0.07437
6.535e+09  -1.007  -0.108  -0.009401  -0.009469  -0.02975  0.06898  -0.6443  0.1121
6.536e+09  -0.9845  0.2818  -0.01644  -0.02262  0.03602  0.01616  -0.5681  0.2852
6.538e+09  -0.7307  0.484  -0.05691  -0.02691  0.01758  -0.009876  -0.441  0.4856
6.539e+09  -0.5547  0.8186  -0.00544  0.01713  -0.006967  0.01255  -0.2495  0.6045
6.54e+09  -0.2136  0.9476  0.0266  -0.01319  0.03429  -0.0322  -0.07847  0.6819
6.541e+09  0.1245  0.9608  -0.004313  -0.00664  0.01573  -0.01633  0.2043  0.6386
6.542e+09  0.4617  0.8602  -0.01811  -0.02178  -0.004707  -0.0252  0.4292  0.5421
6.544e+09  0.7041  0.6566  -0.003456  -0.02301  -0.01523  0.007324  0.5983  0.3928
6.545e+09  0.9399  0.3774  0.03014  0.001381  -0.02063  0.0007577  0.6799  0.1789
6.546e+09  0.9513  0.04162  -0.004302  -0.0234  -0.01878  -0.006837  0.705  -0.07421
6.548e+09  0.8745  -0.3314  -0.01672  0.01916  -0.03518  0.01877  0.6185  -0.3597
6.549e+09  0.7599  -0.5888  -0.03646  -0.003478  -0.001517  -0.006231  0.5105  -0.5494
6.55e+09  0.5148  -0.8072  -0.0249  0.03276  -0.03092  0.02438  0.2869  -0.6586
