# Hz S RI R 50
6.25e+09  -0.6117  0.609  -0.03119  0.01246  0.05182  0.01743  0.1614  0.488
6.251e+09  -0.3261  0.7774  -0.005328  -0.009198  0.007206  0.02362  0.3553  0.4027
6.252e+09  -0.07538  0.8722  -0.005083  0.01884  0.006361  0.04033  0.5347  0.2297
6.254e+09  0.1805  0.8294  0.02827  0.01681  0.03872  0.04226  0.6054  0.02535
6.255e+09  0.4506  0.7351  0.02917  -0.02042  0.02248  -0.00506  0.5723  -0.2357
6.256e+09  0.7105  0.4834  0.003556  0.008984  -0.0438  0.03089  0.5096  -0.382
6.258e+09  0.7832  0.2385  -0.02358  -0.003994  -0.01719  -0.001061  0.287  -0.6144
6.259e+09  0.8466  -0.03422  -0.01163  0.005856  -0.01239  -0.02683  0.02228  -0.6915
6.26e+09  0.7386  -0.2976  -0.0259  -0.005698  -0.02506  0.01905  -0.26  -0.6843
6.261e+09  0.5951  -0.5558  -0.02541  0.008162  0.009357  0.0141  -0.4414  -0.5089
6.262e+09  0.3719  -0.7583  -0.006817  -0.000343  -0.0122  0.05773  -0.6165  -0.3367
6.264e+09  0.08052  -0.8107  -0.01252  0.00535  0.01668  -0.04941  -0.6704  -0.1106
6.265e+09  -0.2124  -0.7976  0.0133  -0.02618  0.02784  -0.01983  -0.7038  0.1601
6.266e+09  -0.4705  -0.7037  0.006392  -0.01745  0.0008525  0.05963  -0.5925  0.4001
6.268e+09  -0.6251  -0.4465  0.01943  -0.004273  -0.05819  -0.02548  -0.4247  0.6152
6.269e+09  -0.7908  -0.2204  0.02701  -0.02547  -0.007594  -0.04458  -0.2177  0.69
6.27e+09  -0.8046  0.01071  -0.02061  -0.006355  0.05708  -0.03515  0.06919  0.751
6.271e+09  -0.804  0.3568  0.0108  -0.03039  -0.002515  0.0441  0.3325  0.6692
6.272e+09  -0.5539  0.5644  0.005692  -0.003382  -0.1046  -0.06053  0.5248  0.5344
6.274e+09  -0.4362  0.7487  0.01312  -0.00531  -0.03588  0.03752  0.7093  0.3242
6.275e+09  -0.08786  0.8328  -0.05369  0.007106  -0.02528  0.0289  0.7542  0.04958
6.276e+09  0.2051  0.7764  0.01481  0.005171  0.02792  -0.007347  0.7415  -0.2009
6.278e+09  0.4599  0.7282  -0.01395  0.003347  -0.008936  0.00146  0.5622  -0.4838
6.279e+09  0.688  0.4744  0.01087  -0.01003  0.02797  -0.02265  0.3996  -0.6608
6.28e+09  0.7872  0.1968  0.02211  -0.01835  -0.0374  -0.02291  0.1591  -0.7321
6.281e+09  0.8606  -0.1055  0.03021  -0.00962  0.01592  -0.06772  -0.09725  -0.7939
6.282e+09  0.7661  -0.33  0.009645  -0.01403  -0.01222  -0.03069  -0.3608  -0.6763
6.284e+09  0.5511  -0.5796  -0.01061  -0.004465  0.01418  -0.003355  -0.5854  -0.5533
6.285e+09  0.3998  -0.75  0.02932  0.005459  0.07955  0.05108  -0.7315  -0.3053
6.286e+09  0.02738  -0.7889  -0.005302  -0.007106  -0.01711  -0.02464  -0.7847  -0.04339
6.288e+09  -0.2399  -0.8102  -0.01689  0.001134  0.03201  -0.01934  -0.7524  0.2434
6.289e+09  -0.4491  -0.6844  -0.02063  0.01768  0.03675  -0.01131  -0.6123  0.534
6.29e+09  -0.6936  -0.4988  0.006804  -0.01676  0.03534  0.01745  -0.4129  0.6998
6.291e+09  -0.8478  -0.2172  0.01074  -0.0112  -0.0144  0.02803  -0.1505  0.7949
6.292e+09  -0.8017  0.005808  0.01572  -0.003398  0.03042  0.05238  0.1031  0.8011
6.294e+09  -0.7104  0.3932  0.01249  0.00213  0.01066  0.01893  0.4086  0.7358
6.295e+09  -0.594  0.6161  -0.003516  0.00251  0.009667  -0.01976  0.5747  0.5486
6.296e+09  -0.282  0.7467  -0.002307  -0.02957  -0.007283  0.02841  0.795  0.2984
6.298e+09  -0.05699  0.819  0.01737  -0.002748  -0.004628  0.08013  0.7964  -0.004725
6.299e+09  0.238  0.7819  -0.04195  0.00265  0.006948  0.01401  0.7914  -0.3
6.3e+09  0.5084  0.6262  0.03107  0.004015  0.03898  0.04237  0.6391  -0.5066
6.301e+09  0.7054  0.4367  -0.03515  0.0009627  -0.03395  0.0276  0.4207  -0.7336
6.302e+09  0.8393  0.1738  -0.01773  -0.01075  -0.02762  0.01002  0.1469  -0.847
6.304e+09  0.8156  -0.1057  -0.01739  -0.007422  0.02536  0.01604  -0.1286  -0.8232
6.305e+09  0.7325  -0.4296  0.003188  -0.008917  -0.03644  0.01231  -0.3882  -0.7182
6.306e+09  0.5297  -0.6243  -0.04717  0.01938  0.03572  -0.006378  -0.6289  -0.5482
6.308e+09  0.3166  -0.7379  0.03028  0.002093  0.03788  0.01066  -0.8041  -0.2766
6.309e+09  0.05115  -0.837  0.002598  -7.494e-06  0.01527  0.022  -0.819  -0.004844
6.31e+09  -0.2618  -0.7499  0.02944  0.01372  0.03758  0.02102  -0.7768  0.2822
6.311e+09  -0.4911  -0.6804  -0.01214  0.02664  -0.018  -0.03363  -0.6926  0.5102
6.312e+09  -0.7336  -0.4639  0.01041  -0.006124  -0.004214  0.01494  -0.4319  0.7465
6.314e+09  -0.8253  -0.1952  -0.01181  0.01552  -0.005092  -0.01025  -0.162  0.8592
6.315e+09  -0.838  0.1483  0.01258  0.02784  1.325e-05  -0.0255  0.1557  0.8801
6.316e+09  -0.7147  0.4113  0.0009738  0.004012  0.01656  -0.01558  0.4341  0.7897
6.318e+09  -0.5335  0.6023  0.01352  -0.01153  0.06895  0.02306  0.6644  0.5819
6.319e+09  -0.2981  0.7626  -0.0024  0.01985  -0.01494  0.001086  0.815  0.3264
6.32e+09  0.03918  0.8443  -0.01061  0.0008999  -0.04532  0.02392  0.8808  -0.004019
6.321e+09  0.2991  0.8178  -0.03527  0.001804  0.0001627  0.03655  0.8428  -0.2947
6.322e+09  0.5666  0.6272  0.01432  0.004554  -0.04665  -0.007975  0.728  -0.5705
6.324e+09  0.7433  0.4058  -0.02001  -0.01887  0.01217  0.0173  0.5093  -0.7416
6.325e+09  0.8589  0.08242  -0.01436  0.005874  -0.0103  -0.0144  0.1797  -0.8764
6.326e+09  0.8221  -0.1921  0.01426  0.03093  -0.007622  0.01118  -0.1132  -0.8895
6.328e+09  0.6784  -0.4584  0.0009841  0.0113  -0.02859  0.03269  -0.4456  -0.7675
6.329e+09  0.5419  -0.6528  0.01801  0.005551  -0.02715  -0.03776  -0.6529  -0.6335
6.33e+09  0.2019  -0.8311  -0.03041  -0.02538  0.04146  -0.02512  -0.855  -0.3288
6.331e+09  -0.08629  -0.8356  0.008067  -0.01605  -0.01188  -0.003139  -0.8873  0.0262
6.332e+09  -0.3568  -0.7925  -0.01583  -0.004365  -0.05242  -0.05207  -0.8744  0.2864
6.334e+09  -0.5918  -0.6552  -0.00598  0.003743  0.01738  0.005682  -0.7167  0.5439
6.335e+09  -0.7895  -0.3723  0.04099  0.02557  -0.009236  0.04198  -0.4637  0.7459
6.336e+09  -0.9316  -0.03736  0.03529  0.002721  0.0201  -0.01126  -0.2227  0.8919
6.338e+09  -0.8326  0.244  -0.02528  0.001421  -0.02949  -0.006183  0.118  0.8876
6.339e+09  -0.6745  0.5423  0.01015  0.0244  0.01074  -0.006833  0.4375  0.8144
6.34e+09  -0.4938  0.693  0.02768  0.01976  -0.01423  0.00884  0.6841  0.6541
6.341e+09  -0.188  0.8636  -0.02519  0.02268  -0.01033  -0.01841  0.8216  0.3503
6.342e+09  0.1496  0.8196  -0.02346  0.0007306  -0.01283  0.01502  0.9515  0.05676
6.344e+09  0.3665  0.7368  0.03569  0.01182  0.003053  0.008198  0.8848  -0.2903
6.345e+09  0.6623  0.569  0.005207  -0.01519  -0.003971  0.02427  0.7574  -0.5748
6.346e+09  0.8123  0.3152  -0.0003329  0.03227  0.01063  0.003731  0.5128  -0.8035
6.348e+09  0.8706  -0.03988  -0.008965  -0.008438  0.0297  -0.01755  0.237  -0.9093
6.349e+09  0.8103  -0.322  0.005257  -0.01932  0.02327  0.01227  -0.08779  -0.9171
6.35e+09  0.6484  -0.5547  0.002332  -0.0007848  0.0345  -0.01149  -0.4301  -0.8679
6.351e+09  0.4333  -0.764  -0.01315  -0.02547  0.01397  0.02761  -0.6226  -0.6409
6.352e+09  0.1305  -0.8705  0.001381  0.01924  -0.001553  0.004008  -0.8625  -0.3822
6.354e+09  -0.2086  -0.8395  -0.01363  -0.00557  -0.005576  -0.02311  -0.9276  -0.05888
6.355e+09  -0.4664  -0.7398  0.01533  0.005013  0.006087  -0.03604  -0.9232  0.2249
6.356e+09  -0.6373  -0.567  0.01233  0.01061  -0.04994  -0.04504  -0.7887  0.5359
6.358e+09  -0.8097  -0.2475  -0.009002  -0.01177  0.05607  -0.006036  -0.5358  0.7722
6.359e+09  -0.8602  0.06663  -0.02159  0.04192  0.01812  -0.04667  -0.2406  0.9089
6.36e+09  -0.779  0.3504  -0.03608  0.01726  0.03621  0.02465  0.05826  0.9226
6.361e+09  -0.648  0.6134  -0.02668  0.003294  0.02333  -0.01308  0.4035  0.839
6.362e+09  -0.3734  0.7882  -0.0115  0.03054  -0.02254  -0.04241  0.6827  0.6627
6.364e+09  -0.07735  0.8183  0.03337  -0.03025  0.02113  -0.03632  0.8382  0.3865
6.365e+09  0.2672  0.8351  0.002401  -0.01593  -0.04071  -0.03398  0.9318  0.04308
6.366e+09  0.4729  0.7419  0.001646  0.04267  0.01563  0.02573  0.9355  -0.2637
6.368e+09  0.7638  0.4806  -0.0004844  -0.0146  -0.01082  0.003182  0.7408  -0.5114
6.369e+09  0.9153  0.2239  0.0138  -0.01616  -0.02253  -0.006431  0.5319  -0.7732
6.37e+09  0.9003  -0.1507  0.003843  0.02191  0.01617  -0.04635  0.2507  -0.8919
6.371e+09  0.7689  -0.3908  -0.02741  -0.01839  -0.001321  0.006262  -0.0707  -0.9885
6.372e+09  0.6138  -0.6627  -0.005882  -0.007194  0.01564  -0.009337  -0.3537  -0.8422
6.374e+09  0.3125  -0.8272  0.02723  0.02748  -0.01208  -0.009349  -0.6498  -0.6751
6.375e+09  0.01192  -0.8982  0.0072  -0.005088  0.005439  -0.02682  -0.8649  -0.3985
6.376e+09  -0.3091  -0.841  0.01961  -0.01791  0.009022  -0.002669  -0.9239  -0.1358
6.378e+09  -0.6068  -0.623  -0.001223  0.04596  -0.001038  -0.01804  -0.9541  0.2189
6.379e+09  -0.7863  -0.4125  0.006075  -0.025  -0.0123  -0.001766  -0.7882  0.5402
6.38e+09  -0.8831  -0.1823  -0.002407  0.01103  0.0007381  -0.01803  -0.5754  0.7703
6.381e+09  -0.8697  0.1209  0.01075  0.02787  -0.001332  0.002193  -0.268  0.906
6.382e+09  -0.7323  0.4437  0.0188  -0.0001798  0.02018  0.02256  0.03065  0.9598
6.384e+09  -0.5438  0.6983  0.04439  0.01482  0.03397  -0.01682  0.4118  0.8182
6.385e+09  -0.2529  0.8304  0.02772  0.01783  -0.00449  -0.01142  0.6115  0.6812
6.386e+09  0.04074  0.8971  0.003602  -0.01843  0.0005547  0.03336  0.8418  0.4245
6.388e+09  0.3279  0.8355  0.009465  -0.01484  0.04107  -0.00437  0.9653  0.1011
6.389e+09  0.5868  0.6663  -0.01048  -0.01323  0.01328  -0.04437  0.8577  -0.1868
6.39e+09  0.7657  0.3798  -0.009717  0.001757  -0.019  0.01444  0.7531  -0.4904
6.391e+09  0.9197  0.1168  -0.01213  -0.04863  -0.01476  0.01354  0.6041  -0.719
6.392e+09  0.854  -0.1605  -0.04103  0.03246  -0.03304  -0.01649  0.2895  -0.8751
6.394e+09  0.7138  -0.5123  0.0001066  0.01348  -0.01416  -0.01819  0.003819  -0.9564
6.395e+09  0.5596  -0.7237  -0.03052  0.0194  -0.01384  -0.008625  -0.3202  -0.8403
6.396e+09  0.1833  -0.8785  0.01912  0.00423  0.001314  0.02259  -0.586  -0.6834
6.398e+09  -0.05966  -0.8848  -0.002566  -0.01759  0.01266  -0.01276  -0.8297  -0.4676
6.399e+09  -0.3651  -0.8227  0.01395  0.02504  -0.06922  0.005031  -0.8898  -0.1455
6.4e+09  -0.6064  -0.6303  -0.01126  0.01564  -0.009732  -0.01254  -0.8679  0.1927
6.401e+09  -0.7943  -0.3677  -0.01773  -0.03913  -0.01012  0.02445  -0.8231  0.4645
6.402e+09  -0.8287  -0.04096  0.02039  0.004229  -0.01475  0.03874  -0.5848  0.7043
6.404e+09  -0.8859  0.2074  -0.01352  0.001323  -0.01164  -0.03541  -0.2559  0.8563
6.405e+09  -0.6964  0.5379  0.03861  0.03292  0.01601  0.004859  -0.02609  0.8859
6.406e+09  -0.4557  0.7186  -0.009228  -0.01531  0.02025  -0.0041  0.3014  0.9095
6.408e+09  -0.16  0.8099  0.006257  -0.02103  -0.04634  0.02002  0.5898  0.6998
6.409e+09  0.04571  0.8772  0.01432  0.02267  0.0152  0.0458  0.8034  0.4728
6.41e+09  0.3998  0.7426  -0.008694  -0.04967  0.03119  -0.03981  0.8815  0.1784
6.411e+09  0.6833  0.6209  0.02607  -0.009307  0.007704  -0.03398  0.8789  -0.1474
6.412e+09  0.7772  0.3594  0.0637  -0.01175  0.03101  0.005254  0.7802  -0.4156
6.414e+09  0.8602  0.03519  0.06608  0.01119  0.05386  -0.0003338  0.5891  -0.6868
6.415e+09  0.8994  -0.2677  -0.02986  -0.009506  0.001328  0.0349  0.3121  -0.8044
6.416e+09  0.7057  -0.5871  -0.05878  -0.02342  0.02112  -0.03231  0.06697  -0.8772
6.418e+09  0.5135  -0.6978  -0.03409  0.01328  -0.02067  -0.002452  -0.2637  -0.8498
6.419e+09  0.1226  -0.8302  -0.02299  -0.02696  -0.04167  0.03187  -0.5077  -0.7017
6.42e+09  -0.1503  -0.8888  0.03444  -0.03513  0.008572  -0.0391  -0.7757  -0.4661
6.421e+09  -0.4554  -0.7794  0.01114  -0.01086  0.01421  0.02788  -0.8617  -0.2104
6.422e+09  -0.7116  -0.6222  -0.01591  -0.005936  -0.00213  0.001472  -0.8462  0.1125
6.424e+09  -0.8054  -0.3321  -0.03081  0.04906  0.0136  0.03257  -0.7917  0.3837
6.425e+09  -0.8717  0.005371  0.035  0.0246  -0.00192  0.02223  -0.5895  0.6169
6.426e+09  -0.8045  0.2737  0.0116  0.02831  0.004933  0.05492  -0.3554  0.8118
6.428e+09  -0.6595  0.5225  -0.01768  0.03977  -0.007806  0.02457  -0.07133  0.8957
6.429e+09  -0.4242  0.8325  -0.01079  -0.001193  -0.0279  -0.00336  0.2398  0.8651
6.43e+09  -0.1846  0.9012  -0.00546  -0.01628  0.007972  0.007579  0.5179  0.7237
6.431e+09  0.118  0.8737  -0.03971  -0.01163  -0.01905  0.00536  0.7298  0.5241
6.432e+09  0.3751  0.7821  -0.002259  0.02571  -0.04035  0.04707  0.8149  0.2043
6.434e+09  0.6603  0.5681  0.02026  -0.03053  0.008454  0.008962  0.8652  -0.03864
6.435e+09  0.8301  0.3106  0.02613  -0.01248  0.01581  0.01053  0.7488  -0.3607
6.436e+09  0.8256  0.05468  0.00617  0.01008  0.04834  0.01855  0.6093  -0.6025
6.438e+09  0.8232  -0.2748  -0.005375  0.02324  0.03167  0.04664  0.3513  -0.7629
6.439e+09  0.6922  -0.5709  0.006743  -0.02123  -0.01623  -0.06505  0.1214  -0.8579
6.44e+09  0.4079  -0.7416  0.05082  -0.03561  0.01447  -0.03552  -0.2508  -0.8502
6.441e+09  0.1641  -0.8408  0.02095  -0.02131  -0.03117  0.01893  -0.4839  -0.6526
6.442e+09  -0.1642  -0.8562  -0.0001799  -0.003447  -0.006453  0.02232  -0.7208  -0.4974
6.444e+09  -0.4465  -0.7527  0.03116  0.01157  -0.01313  -0.002315  -0.847  -0.1962
6.445e+09  -0.6643  -0.5988  -0.01896  -0.05112  -0.01026  -0.03123  -0.8242  0.0659
6.446e+09  -0.839  -0.2605  -0.008794  -0.02917  -0.01674  0.006299  -0.7604  0.3936
6.448e+09  -0.8633  0.05685  0.05515  0.01674  0.0193  -0.01385  -0.6208  0.6439
6.449e+09  -0.796  0.347  -0.02133  -0.008885  0.01863  0.05212  -0.3371  0.7544
6.45e+09  -0.6215  0.5928  0.036  0.03002  -0.02913  -0.006201  -0.1293  0.8313
6.451e+09  -0.3994  0.7762  0.03247  -0.03924  0.01503  0.01909  0.1793  0.8256
6.452e+09  -0.114  0.8031  0.0173  0.02977  0.02133  0.03941  0.4491  0.6811
6.454e+09  0.1432  0.8593  0.02863  -0.01778  0.01865  -0.03798  0.6807  0.4637
6.455e+09  0.4531  0.7254  -0.004574  -0.008378  0.006341  -0.02755  0.7885  0.2228
6.456e+09  0.7054  0.5745  0.0551  -0.003845  0.05543  -0.02467  0.8282  -0.05411
6.458e+09  0.8275  0.2253  0.0436  0.01299  0.007652  0.007159  0.7679  -0.3302
6.459e+09  0.849  0.006382  -0.01411  0.02401  -0.009663  0.009254  0.5595  -0.5578
6.46e+09  0.8166  -0.3493  -0.008092  -0.005259  -0.02603  -0.06787  0.3575  -0.7296
6.461e+09  0.6261  -0.5926  0.01276  0.02195  -0.006162  0.01049  0.09429  -0.8102
6.462e+09  0.4294  -0.8223  -0.01776  0.01148  0.02831  0.01924  -0.2355  -0.7654
6.464e+09  0.1147  -0.8481  -0.01528  -0.009932  -0.01085  0.007403  -0.4329  -0.6875
6.465e+09  -0.1628  -0.8906  0.003217  -0.03319  -0.01364  -0.01295  -0.6235  -0.4859
6.466e+09  -0.4648  -0.7333  -0.03141  -0.02325  -0.02922  -0.02803  -0.8076  -0.2277
6.468e+09  -0.681  -0.5698  0.005354  -0.03263  -0.01137  -0.02577  -0.8111  0.07807
6.469e+09  -0.8249  -0.2804  -0.01249  -0.02187  -0.02194  0.01944  -0.7003  0.292
6.47e+09  -0.8714  0.02553  0.009149  -0.01283  -0.008123  -0.027  -0.5481  0.5209
6.471e+09  -0.8125  0.3388  -0.02602  0.01407  -0.0264  -0.01378  -0.3653  0.712
6.472e+09  -0.6865  0.5962  0.01324  -0.01076  0.001694  -0.009515  -0.05862  0.8255
6.474e+09  -0.4551  0.7331  0.008075  -0.02552  0.01057  0.008031  0.236  0.7684
6.475e+09  -0.1306  0.8907  -0.02334  0.001057  -0.01371  0.001918  0.465  0.6785
6.476e+09  0.1621  0.864  -0.01734  0.009013  -0.01022  0.002175  0.6427  0.4465
6.478e+09  0.4733  0.732  -0.0652  0.0116  -0.001786  -0.03667  0.719  0.1987
6.479e+09  0.6921  0.5311  0.02336  0.02538  -0.002458  0.05794  0.7706  -0.08327
6.48e+09  0.8579  0.2612  0.002666  -0.03624  0.0511  0.01019  0.6988  -0.3285
6.481e+09  0.9407  -0.01349  0.002826  0.007334  -0.003436  -0.005595  0.5065  -0.4878
6.482e+09  0.834  -0.3299  0.03275  -0.01338  0.0194  0.006115  0.3276  -0.7268
6.484e+09  0.6743  -0.65  -0.02641  0.01144  -0.01943  0.01172  0.06822  -0.785
6.485e+09  0.416  -0.8432  0.01346  -0.06537  0.03002  0.008281  -0.2262  -0.7642
6.486e+09  0.115  -0.8856  0.002449  0.01413  0.008009  -0.01314  -0.4472  -0.6145
6.488e+09  -0.2199  -0.8475  -0.01077  0.009986  -0.01276  -0.05248  -0.646  -0.4275
6.489e+09  -0.4938  -0.801  0.02687  0.001099  0.009466  -0.01636  -0.7627  -0.1919
6.49e+09  -0.752  -0.4695  0.01535  -0.03842  -0.01631  0.03913  -0.7675  0.08481
6.491e+09  -0.887  -0.2897  0.02977  -0.001042  -0.004402  0.01817  -0.6754  0.3611
6.492e+09  -0.88  0.09261  0.003867  0.031  0.005884  -0.05446  -0.5509  0.5651
6.494e+09  -0.8039  0.3611  -0.02733  0.003008  -0.0171  -0.05987  -0.2609  0.6841
6.495e+09  -0.6255  0.6622  -0.0291  0.0211  0.0713  -0.00973  -0.04902  0.7987
6.496e+09  -0.4414  0.8089  -0.01564  -0.01375  -0.01913  0.01659  0.2384  0.7376
6.498e+09  -0.1034  0.9117  -0.03794  0.01905  -0.002637  0.02746  0.4679  0.5586
6.499e+09  0.2454  0.8688  -0.004455  0.0188  -0.01028  0.02162  0.6395  0.4043
6.5e+09  0.544  0.7447  0.00576  -0.0227  0.03575  0.01295  0.713  0.1713
6.501e+09  0.7482  0.5065  0.007308  0.008309  0.003452  0.02456  0.75  -0.1271
6.502e+09  0.8909  0.2961  0.005963  -0.02509  -0.06942  0.02072  0.7119  -0.3377
6.504e+09  0.9508  -0.06885  0.02226  -0.02707  -0.05107  0.002069  0.4998  -0.5389
6.505e+09  0.7755  -0.3888  0.009662  0.005616  0.007215  -0.05482  0.2901  -0.6854
6.506e+09  0.6405  -0.6175  -0.02345  -0.01622  -0.04664  -0.01258  0.009906  -0.746
6.508e+09  0.377  -0.8645  -0.007156  -0.01002  0.02523  -0.02423  -0.2665  -0.7206
6.509e+09  0.06665  -0.9446  0.01005  0.006661  0.05041  -0.01345  -0.4824  -0.581
6.51e+09  -0.2361  -0.8964  0.02276  -0.007329  0.04728  -0.02454  -0.6516  -0.378
6.511e+09  -0.5402  -0.7254  0.01896  -0.002187  0.01035  -0.04823  -0.774  -0.147
6.512e+09  -0.7987  -0.4821  -0.01187  0.03162  -0.001754  0.04366  -0.7189  0.1362
6.514e+09  -0.851  -0.2333  -0.01978  -0.01455  -0.01374  -0.07297  -0.6798  0.3774
6.515e+09  -0.9489  0.1037  -0.0007811  -0.00754  -0.02017  0.02927  -0.4817  0.5548
6.516e+09  -0.8413  0.4893  -0.01374  0.01975  -0.01612  -0.02801  -0.2513  0.705
6.518e+09  -0.6312  0.7017  0.01299  -0.01537  0.02047  0.01453  0.04512  0.7389
6.519e+09  -0.3724  0.8623  0.001732  0.03041  -0.02518  0.07985  0.2637  0.7179
6.52e+09  -0.01637  0.9665  0.005585  0.002721  0.01983  -0.03294  0.4986  0.5717
6.521e+09  0.2667  0.9609  0.001174  -0.004008  0.01337  0.02072  0.6647  0.3346
6.522e+09  0.5619  0.7445  -0.02244  0.03094  -0.01172  -0.02062  0.73  0.1125
6.524e+09  0.8406  0.4626  -0.008551  0.0106  0.0006428  -0.005616  0.7313  -0.1793
6.525e+09  0.8966  0.1798  -0.04275  0.01033  0.03343  0.0266  0.5781  -0.3962
6.526e+09  0.95  -0.1891  0.0195  0.03751  -0.02209  0.03561  0.4182  -0.5833
6.528e+09  0.8607  -0.5239  -0.01037  0.005292  0.01111  0.03021  0.2032  -0.6973
6.529e+09  0.6587  -0.7436  -0.00034  0.01553  -0.03985  0.007067  -0.02669  -0.7191
6.53e+09  0.2984  -0.876  -0.002113  0.005243  -0.007925  0.03923  -0.302  -0.6282
6.531e+09  0.01826  -0.9407  -0.008789  0.01624  -0.002391  -0.007837  -0.457  -0.4883
6.532e+09  -0.2771  -0.8706  0.006401  -0.03411  0.006166  -0.00879  -0.6023  -0.279
6.534e+09  -0.6618  -0.7583  -0.02142  -0.03388  -0.02295  0.002632  -0.6288  -0.03884
6.535e+09  -0.8626  -0.4599  -0.0103  -0.01123  0.009206  0.02301  -0.6582  0.1094
6.536e+09  -1.002  -0.1383  0.01036  0.01123  -0.03095  0.00356  -0.5729  0.3073
6.538e+09  -0.9825  0.2213  -0.002743  0.03192  -0.02306  0.03468  -0.4227  0.4538
6.539e+09  -0.7577  0.5289  0.0141  0.01012  0.02617  0.04395  -0.2852  0.5775
6.54e+09  -0.6111  0.7676  -0.005685  -0.01129  -0.03988  -0.007026  -0.09526  0.6586
6.541e+09  -0.196  0.9496  0.02002  -0.0007526  0.03605  0.08836  0.1962  0.6665
6.542e+09  0.05224  0.9503  0.007064  0.03269  -0.01015  -0.03427  0.3907  0.5513
6.544e+09  0.392  0.8943  -0.001983  0.003522  -0.04117  0.009318  0.6022  0.4341
6.545e+09  0.7169  0.6849  -0.01769  -0.01121  0.04439  -0.01914  0.6936  0.1493
6.546e+09  0.8519  0.342  -0.008938  0.01796  -0.02538  0.006569  0.7184  -0.07444
6.548e+09  0.9486  0.02128  0.01795  -0.01219  0.03893  0.02389  0.6176  -0.3414
6.549e+09  0.9182  -0.2866  -0.0005447  0.01502  0.0202  -0.02215  0.5135  -0.5271
6.55e+09  0.7775  -0.635  0.02101  -0.003643  -0.02059  0.03241  0.3006  -0.68
6.551e+09  0.5466  -0.8187  0.008595  -0.00848  -0.01157  -0.02785  0.04605  -0.7337
