# Hz S RI R 50
6.25e+09  -0.3218  0.7805  0.0113  0.0304  -0.002237  -0.01481  0.167  0.4915
6.251e+09  -0.07702  0.8549  -0.0253  0.01062  0.02139  0.08581  0.3771  0.388
6.252e+09  0.2014  0.8323  -0.004114  0.01103  0.06297  0.005935  0.5209  0.2373
6.254e+09  0.52  0.7013  -0.0208  0.02048  0.02552  -0.05437  0.6059  0.009858
6.255e+09  0.6913  0.446  -0.000558  -0.0114  0.0511  0.05172  0.5741  -0.1909
6.256e+09  0.8074  0.1889  -0.0005711  0.0133  0.03822  -0.01551  0.4599  -0.4442
6.258e+09  0.8389  -0.08792  0.01627  0.02122  0.01474  0.00862  0.2727  -0.6064
6.259e+09  0.7613  -0.3508  0.03038  -0.01452  0.02763  -0.007066  0.05786  -0.6714
6.26e+09  0.5602  -0.6392  -0.007949  0.004146  -0.06238  -0.01366  -0.2519  -0.6792
6.261e+09  0.3488  -0.7371  -0.01366  0.004593  -0.008036  0.006825  -0.4475  -0.5307
6.262e+09  0.02512  -0.8367  0.01788  0.006762  0.06955  -0.0165  -0.6247  -0.3497
6.264e+09  -0.2874  -0.8789  0.008069  -0.008008  0.02813  0.004138  -0.6992  -0.09193
6.265e+09  -0.511  -0.711  -0.01275  -0.003  0.01861  -0.01859  -0.7004  0.1503
6.266e+09  -0.6923  -0.4547  0.008169  -0.0003105  0.002134  0.02043  -0.6132  0.387
6.268e+09  -0.8201  -0.1613  0.03314  -0.02452  -0.009478  -0.0153  -0.4082  0.5967
6.269e+09  -0.8825  0.1199  0.0003579  -0.02867  -0.03731  0.02202  -0.19  0.6951
6.27e+09  -0.7886  0.3424  -0.02649  0.005845  -0.05281  0.01219  0.02275  0.7594
6.271e+09  -0.5072  0.5783  0.006377  0.004694  0.01057  -0.01556  0.3321  0.6718
6.272e+09  -0.3335  0.7351  0.007653  -0.003525  0.05781  0.05501  0.547  0.4973
6.274e+09  -0.04804  0.8384  -0.008835  -0.03399  -9.227e-05  -0.01464  0.658  0.3018
6.275e+09  0.3075  0.8127  0.0008495  0.02225  0.05442  -0.0525  0.7389  -0.006258
6.276e+09  0.5552  0.6341  0.02064  -0.007475  -0.02088  0.01275  0.6987  -0.2138
6.278e+09  0.7111  0.4709  -0.001246  -0.006303  0.006259  -0.01691  0.6099  -0.4968
6.279e+09  0.7799  0.1537  0.02494  -0.008091  -0.003193  -0.00591  0.4262  -0.6472
6.28e+09  0.8582  -0.1208  -0.004509  0.01235  0.07033  -0.0161  0.1695  -0.7637
6.281e+09  0.7044  -0.4436  -0.004985  -0.006333  -0.01387  -0.02713  -0.1347  -0.7603
6.282e+09  0.5645  -0.5779  0.01336  -0.007969  0.03592  -0.02139  -0.3504  -0.7068
6.284e+09  0.3012  -0.7717  -0.006079  0.00416  0.01921  0.03507  -0.6119  -0.5229
6.285e+09  -0.008105  -0.807  0.0144  0.003975  -0.0004604  -0.03365  -0.7317  -0.3004
6.286e+09  -0.323  -0.8592  0.0001444  0.00298  -0.001799  -0.03348  -0.7569  -0.01412
6.288e+09  -0.4938  -0.6188  0.00917  0.01015  -0.01125  -0.02093  -0.7293  0.2539
6.289e+09  -0.6832  -0.4912  0.04341  -0.01912  0.01278  -0.02136  -0.6191  0.4874
6.29e+09  -0.8317  -0.1478  0.002876  0.01256  0.005638  -0.01167  -0.4202  0.6461
6.291e+09  -0.8379  0.1049  0.01511  0.01526  0.02365  0.05386  -0.135  0.7833
6.292e+09  -0.7288  0.4256  0.00997  -0.03917  0.03448  0.02405  0.1388  0.8167
6.294e+09  -0.6081  0.6364  -0.0119  -0.001725  -0.002372  0.02225  0.4162  0.7213
6.295e+09  -0.3297  0.8116  -0.006544  0.00687  -0.01695  0.003814  0.6077  0.5215
6.296e+09  0.004793  0.8916  -0.01581  -0.01005  0.0215  -0.003055  0.7299  0.2736
6.298e+09  0.2683  0.8007  0.03162  -0.01633  -0.02343  -0.04166  0.8288  0.04158
6.299e+09  0.5278  0.6771  -0.01013  -0.0009726  0.008992  0.006395  0.8012  -0.2738
6.3e+09  0.7597  0.3777  -0.01428  -0.01417  0.01248  -0.000677  0.6553  -0.5317
6.301e+09  0.8469  0.1001  0.008984  0.02773  -0.005426  0.01128  0.4269  -0.7339
6.302e+09  0.7817  -0.244  -0.01026  0.01015  0.02572  0.006468  0.1618  -0.8225
6.304e+09  0.7264  -0.4063  0.004729  -0.00292  -0.01395  -0.01223  -0.1559  -0.8251
6.305e+09  0.5434  -0.6433  0.008337  -0.01818  0.02288  0.02214  -0.434  -0.7445
6.306e+09  0.3159  -0.8044  0.02686  0.002226  0.0004773  0.04185  -0.6318  -0.5646
6.308e+09  -0.03725  -0.8133  -0.007043  0.008028  -0.008643  0.003871  -0.8264  -0.2777
6.309e+09  -0.3439  -0.7709  -0.02139  -0.008908  0.02176  0.03425  -0.8343  0.003991
6.31e+09  -0.6041  -0.5826  -0.01242  -0.0122  -0.001146  -0.03026  -0.8154  0.2863
6.311e+09  -0.7812  -0.3974  0.0004775  -0.03843  -0.04071  -0.02069  -0.6863  0.5473
6.312e+09  -0.807  -0.07301  0.03646  -0.0268  0.01676  -0.031  -0.4509  0.7402
6.314e+09  -0.7921  0.1972  -0.008292  -0.02241  0.01105  -0.04766  -0.167  0.8528
6.315e+09  -0.6824  0.5058  -0.01155  0.02147  0.007646  0.05835  0.1293  0.8382
6.316e+09  -0.4892  0.7101  0.01127  0.005151  0.0003712  0.02385  0.4435  0.7906
6.318e+09  -0.2063  0.8091  0.01053  0.004073  0.000135  -0.02342  0.6827  0.5742
6.319e+09  0.08297  0.8406  -0.01731  0.027  0.01378  0.06987  0.8104  0.337
6.32e+09  0.4002  0.7923  -0.01366  0.0118  -0.02142  -0.02951  0.8969  0.01273
6.321e+09  0.6193  0.6082  0.00547  0.01041  -0.03399  -0.0304  0.8309  -0.2811
6.322e+09  0.7774  0.333  -0.02641  0.005203  0.03604  0.03454  0.6896  -0.5332
6.324e+09  0.8384  0.0513  0.005353  0.001413  0.0107  -0.02616  0.4536  -0.7748
6.325e+09  0.8656  -0.2358  -0.006232  0.0001614  0.04281  -0.01935  0.1739  -0.8386
6.326e+09  0.663  -0.4814  -0.002513  0.03405  0.01947  -0.02613  -0.1101  -0.9073
6.328e+09  0.4363  -0.6442  0.009034  0.001777  0.03173  -0.002798  -0.4169  -0.7998
6.329e+09  0.1537  -0.7857  -0.003058  -0.01255  -0.01115  0.02802  -0.6801  -0.6083
6.33e+09  -0.1524  -0.8158  0.02004  0.00839  0.004443  -0.006238  -0.821  -0.3396
6.331e+09  -0.4223  -0.7795  0.01167  -0.00312  -0.05729  -0.02086  -0.9139  -0.002467
6.332e+09  -0.6809  -0.5255  -0.003251  -0.02008  -0.03036  0.01965  -0.8565  0.2879
6.334e+09  -0.8351  -0.2968  0.005138  0.03138  0.006497  0.0003289  -0.7112  0.5675
6.335e+09  -0.8213  0.01183  -0.005737  0.0245  0.01353  -0.0004058  -0.5185  0.7491
6.336e+09  -0.8381  0.253  -0.01494  -0.03079  0.03579  0.001995  -0.177  0.9112
6.338e+09  -0.7239  0.5871  -0.02755  0.00266  -0.009347  -0.02636  0.1197  0.9204
6.339e+09  -0.4469  0.8106  0.004912  -0.0001368  -9.238e-05  0.02023  0.4218  0.8214
6.34e+09  -0.123  0.8822  -0.005933  -0.01047  -0.01407  0.02027  0.6989  0.6024
6.341e+09  0.1941  0.8709  0.01993  0.01006  0.04468  -0.01018  0.8384  0.3502
6.342e+09  0.5118  0.7448  -0.007946  0.002353  -0.001408  -0.003409  0.9123  0.03855
6.344e+09  0.732  0.5722  0.001706  0.006404  0.04493  -0.05059  0.8899  -0.3074
6.345e+09  0.8432  0.2069  0.02756  -0.02194  -0.006872  0.03558  0.7318  -0.5828
6.346e+09  0.8829  -0.08667  -0.007122  0.03755  -0.00254  -0.008586  0.5554  -0.7803
6.348e+09  0.8427  -0.3456  -0.001581  0.01273  -0.02273  0.02284  0.2385  -0.9362
6.349e+09  0.6198  -0.6031  0.008831  0.01635  0.01305  -0.01815  -0.1077  -0.9143
6.35e+09  0.3642  -0.7927  0.01729  0.02421  -0.03207  0.049  -0.4116  -0.8586
6.351e+09  0.07983  -0.8508  -0.02401  -0.01742  -0.005846  0.01517  -0.6812  -0.6445
6.352e+09  -0.188  -0.84  0.0295  -0.01063  -0.02137  -0.008985  -0.8301  -0.3912
6.354e+09  -0.5442  -0.6827  0.01404  -0.02861  0.01295  0.0331  -0.9231  -0.02116
6.355e+09  -0.7793  -0.467  -0.001939  6.584e-06  -0.02892  0.04682  -0.9305  0.2004
6.356e+09  -0.8529  -0.1926  0.01889  -0.003964  0.00251  -0.04862  -0.7398  0.5615
6.358e+09  -0.8387  0.1265  -0.03647  -0.01359  0.05262  -0.005075  -0.511  0.7509
6.359e+09  -0.7718  0.4207  -0.02087  0.005553  0.01265  0.01512  -0.2361  0.9349
6.36e+09  -0.5771  0.7115  -0.02111  -0.01894  -0.05336  0.0349  0.07607  0.9238
6.361e+09  -0.3295  0.8185  0.008647  -0.01841  0.007031  -0.002729  0.3711  0.8624
6.362e+09  -0.02721  0.8656  -0.01663  -0.009183  0.01392  0.001494  0.6598  0.6847
6.364e+09  0.3029  0.8859  0.01432  0.00417  0.0008521  0.01467  0.8294  0.395
6.365e+09  0.5904  0.7042  -0.003695  0.004968  0.002169  0.01332  0.9492  0.09726
6.366e+09  0.7585  0.4493  0.01302  -0.002926  -0.007632  0.01405  0.9038  -0.2695
6.368e+09  0.9235  0.1609  0.004782  -0.01501  0.007601  -0.03921  0.7649  -0.5456
6.369e+09  0.8867  -0.1821  -0.01414  0.001216  -0.0002985  -0.03115  0.5075  -0.7579
6.37e+09  0.7568  -0.4902  0.009242  0.0243  -0.04013  -0.01771  0.2454  -0.941
6.371e+09  0.517  -0.7108  0.03676  0.007749  0.006022  -0.01664  -0.06914  -0.992
6.372e+09  0.2587  -0.8599  0.006696  -0.02735  0.01333  -0.00869  -0.4118  -0.8628
6.374e+09  -0.009957  -0.9106  -0.006435  -0.01478  -0.06271  0.03435  -0.6489  -0.6604
6.375e+09  -0.3158  -0.8614  -0.02202  0.03022  0.01932  -0.05395  -0.8778  -0.3893
6.376e+09  -0.5857  -0.6155  -0.002782  0.004981  0.01747  -0.03288  -0.8996  -0.0606
6.378e+09  -0.7822  -0.4218  0.005559  0.04061  -0.01298  0.02586  -0.8891  0.249
6.379e+09  -0.9265  -0.1425  -0.02876  -0.02126  -0.001756  -0.006673  -0.7712  0.5529
6.38e+09  -0.8967  0.2247  -0.02407  0.04327  0.005607  -0.02642  -0.571  0.7227
6.381e+09  -0.7557  0.4429  0.01963  0.009466  0.06223  -0.01552  -0.2822  0.9094
6.382e+09  -0.5422  0.7296  0.0253  0.01451  0.004416  0.03425  0.05369  0.9354
6.384e+09  -0.2499  0.8638  -0.05589  0.002549  0.004272  0.0147  0.4066  0.84
6.385e+09  0.07242  0.874  0.04185  0.03128  -0.006938  -0.03803  0.6469  0.6687
6.386e+09  0.3893  0.8228  0.003976  0.01603  0.01464  -0.01787  0.7962  0.4267
6.388e+09  0.6565  0.6136  0.01021  0.00498  -0.05693  0.04491  0.9149  0.1235
6.389e+09  0.8236  0.3814  -0.009131  0.01508  0.01108  -0.04534  0.9034  -0.1641
6.39e+09  0.8811  0.07671  -0.02102  0.0318  0.04533  0.02553  0.7872  -0.5317
6.391e+09  0.8751  -0.2629  0.01405  -0.01709  -0.02362  -0.0643  0.5678  -0.7737
6.392e+09  0.6706  -0.553  0.009035  0.009644  -0.006891  -0.01223  0.2962  -0.8441
6.394e+09  0.518  -0.7368  -0.005316  0.006866  0.04101  -0.01639  -0.01482  -0.9385
6.395e+09  0.2234  -0.8502  0.02538  0.03063  -0.002676  0.01054  -0.358  -0.8655
6.396e+09  -0.1453  -0.8579  0.01172  0.01666  -0.001823  0.01218  -0.618  -0.6496
6.398e+09  -0.4658  -0.8342  -0.02128  0.001131  -0.009179  0.003269  -0.8455  -0.4638
6.399e+09  -0.6559  -0.607  0.005733  0.005165  0.05239  -0.0537  -0.8791  -0.1134
6.4e+09  -0.792  -0.3477  0.03803  0.01893  0.01976  -0.0306  -0.8509  0.1819
6.401e+09  -0.9003  -0.05338  0.01746  0.01495  0.01461  0.004915  -0.7955  0.4794
6.402e+09  -0.8155  0.2738  -0.03849  -0.008758  -0.004757  -0.0797  -0.5925  0.689
6.404e+09  -0.7343  0.5721  -0.007579  -0.00408  -0.03468  0.0284  -0.3072  0.8407
6.405e+09  -0.4656  0.731  -0.02579  0.002802  -0.03223  0.003506  0.02407  0.9364
6.406e+09  -0.213  0.8873  0.01419  -0.02687  -0.02303  -0.005889  0.3294  0.8739
6.408e+09  0.104  0.8613  0.01233  -0.004358  -0.01557  -0.01677  0.5968  0.6827
6.409e+09  0.4156  0.7576  -0.02835  -0.00966  0.03053  0.03086  0.7709  0.4704
6.41e+09  0.6645  0.5808  0.03681  -0.01018  0.003225  0.05403  0.9051  0.1975
6.411e+09  0.8115  0.375  -0.03798  0.04233  -0.01295  0.01787  0.9329  -0.118
6.412e+09  0.8792  0.0826  -0.003397  -0.02053  0.02041  0.03239  0.7887  -0.4274
6.414e+09  0.8472  -0.2758  -0.02639  0.01611  0.04998  0.007208  0.5652  -0.6464
6.415e+09  0.7203  -0.4964  -0.002157  -0.01641  -0.006455  0.02281  0.2899  -0.8411
6.416e+09  0.4679  -0.7477  0.01847  0.001591  -0.01955  0.006672  0.06092  -0.917
6.418e+09  0.1626  -0.8548  -0.02732  0.0008144  0.0144  -0.0217  -0.2599  -0.8156
6.419e+09  -0.123  -0.8794  -0.03349  0.009239  -0.02379  -0.001072  -0.5429  -0.769
6.42e+09  -0.442  -0.7616  0.02125  -0.004303  0.08911  -0.0459  -0.7492  -0.4858
6.421e+09  -0.6815  -0.6078  0.007987  0.01379  -0.003582  -0.0103  -0.8832  -0.1962
6.422e+09  -0.7775  -0.3032  -0.002657  -0.01047  0.005129  -0.0213  -0.9098  0.1372
6.424e+09  -0.8802  -0.03404  0.04039  0.01056  -0.008341  0.002819  -0.7626  0.4541
6.425e+09  -0.8463  0.2607  -0.01115  0.0267  -0.03388  -0.01064  -0.5922  0.6132
6.426e+09  -0.6644  0.5616  -0.0146  0.04334  0.01264  0.01044  -0.3343  0.796
6.428e+09  -0.4637  0.8113  -0.009207  -0.02597  -0.04613  -0.0115  -0.03862  0.928
6.429e+09  -0.1361  0.9071  0.001221  -0.001048  -0.05351  -0.006581  0.2068  0.7837
6.43e+09  0.1484  0.8493  -0.001147  -0.01925  -0.01424  0.02973  0.5227  0.6847
6.431e+09  0.4188  0.7379  0.03717  -0.02502  -0.002516  0.0484  0.774  0.5236
6.432e+09  0.6847  0.5854  0.03771  -0.04586  0.02649  0.01597  0.8333  0.2223
6.434e+09  0.8984  0.3485  -0.01975  0.01023  0.037  0.02437  0.8536  -0.1109
6.435e+09  0.8528  -0.005559  -0.01136  0.01332  -0.02633  -0.0007857  0.798  -0.3765
6.436e+09  0.8021  -0.3038  0.01828  0.01294  0.03628  0.03329  0.5675  -0.6578
6.438e+09  0.6458  -0.5897  0.00833  -0.01266  -0.01465  0.003581  0.3523  -0.765
6.439e+09  0.4402  -0.7936  -0.00291  -0.004822  0.03206  -0.03776  0.1103  -0.8847
6.44e+09  0.1382  -0.8474  0.03035  -0.008936  0.03306  -0.0111  -0.1694  -0.7982
6.441e+09  -0.1197  -0.8312  0.03019  -0.01415  -0.002733  -0.0363  -0.5011  -0.6812
6.442e+09  -0.528  -0.7723  -0.005326  -0.03232  0.02638  -0.03857  -0.6813  -0.482
6.444e+09  -0.6854  -0.5926  -0.02835  0.004556  -0.01967  -0.001591  -0.8299  -0.2299
6.445e+09  -0.8357  -0.3268  0.01199  0.03514  0.04038  0.03753  -0.8705  0.06677
6.446e+09  -0.8408  0.03318  -0.01828  -0.01824  0.01019  0.02078  -0.765  0.3499
6.448e+09  -0.7638  0.3089  0.002403  0.02613  -0.003276  0.0008541  -0.6152  0.6045
6.449e+09  -0.6586  0.5901  -0.001565  -0.01837  -0.03486  -0.00685  -0.3294  0.7564
6.45e+09  -0.411  0.7227  -0.04713  -0.00611  0.02144  -0.001197  -0.09511  0.8712
6.451e+09  -0.1398  0.9252  -0.05  -0.006452  0.007112  -0.02173  0.2054  0.7947
6.452e+09  0.169  0.855  -0.008529  0.04507  -0.007517  -0.02403  0.4557  0.662
6.454e+09  0.506  0.7321  0.02277  0.05072  0.01345  -0.01802  0.6607  0.4812
6.455e+09  0.6853  0.5729  -0.06175  -0.02651  0.02865  -0.02023  0.8362  0.1568
6.456e+09  0.8112  0.267  -0.00569  -0.003039  0.05127  0.06326  0.8292  -0.1031
6.458e+09  0.8818  -0.03223  0.03381  -0.04162  0.02902  -0.006723  0.7079  -0.3369
6.459e+09  0.8049  -0.3345  0.01195  -0.03101  -0.007114  0.04985  0.5876  -0.5742
6.46e+09  0.707  -0.6255  -0.005631  -0.06664  -0.009281  0.04286  0.3215  -0.7529
6.461e+09  0.4308  -0.7392  -0.02663  0.008442  -0.03676  0.008523  0.08868  -0.7901
6.462e+09  0.06467  -0.8797  -0.02286  -0.0395  -0.03132  0.01717  -0.2332  -0.7599
6.464e+09  -0.1884  -0.902  -0.004948  0.007431  -0.00573  0.002728  -0.4812  -0.6235
6.465e+09  -0.4535  -0.7458  -0.01566  -0.03367  0.02739  0.009402  -0.6759  -0.4454
6.466e+09  -0.694  -0.572  -0.04294  -0.01726  0.02198  -0.02464  -0.8086  -0.2202
6.468e+09  -0.8651  -0.2826  -0.03889  -0.03166  0.008866  -0.06013  -0.8715  0.03809
6.469e+09  -0.872  0.08698  0.00204  -0.01564  -0.01637  -0.03165  -0.7203  0.3179
6.47e+09  -0.7941  0.3906  -0.0453  -0.004099  0.001241  0.01283  -0.5441  0.5233
6.471e+09  -0.6738  0.6188  0.02535  0.02674  -0.002074  -0.01878  -0.3523  0.7035
6.472e+09  -0.3984  0.8338  0.02565  0.01232  -0.01187  0.01738  -0.09237  0.7978
6.474e+09  -0.1167  0.9231  -0.024  -0.02138  -0.01747  -0.0262  0.1759  0.7873
6.475e+09  0.2016  0.8954  -0.02389  -0.01096  -0.01031  -0.006903  0.5149  0.6226
6.476e+09  0.5151  0.7414  0.0349  -0.01572  -0.00384  -0.02204  0.6125  0.4087
6.478e+09  0.6969  0.5676  -0.01465  -0.03888  0.03185  0.05784  0.7654  0.2041
6.479e+09  0.8696  0.2875  -0.04505  0.02618  -0.01929  0.01522  0.794  -0.04785
6.48e+09  0.8837  -0.02165  0.005887  0.01626  0.02484  -0.04121  0.6916  -0.3598
6.481e+09  0.8541  -0.3776  0.05473  0.009684  -0.0418  -0.04729  0.5533  -0.5709
6.482e+09  0.6507  -0.6118  -0.07216  -0.006047  -0.01271  0.01959  0.3221  -0.7051
6.484e+09  0.3968  -0.8354  -0.02676  0.02185  0.02865  0.05455  0.04853  -0.7824
6.485e+09  0.07946  -0.8656  -0.02671  0.001202  -0.03049  0.05019  -0.2216  -0.7438
6.486e+09  -0.2406  -0.9074  -0.002201  -0.004113  0.01192  -0.009098  -0.4353  -0.6116
6.488e+09  -0.562  -0.7847  -0.02794  -0.007355  0.005381  -0.0115  -0.6403  -0.4186
6.489e+09  -0.75  -0.4935  0.0549  0.01577  0.01114  -0.02205  -0.763  -0.1916
6.49e+09  -0.8827  -0.2417  -0.001434  -0.006475  0.007727  0.03025  -0.7525  0.08096
6.491e+09  -0.9014  0.1226  -0.01276  0.001692  -0.0013  -0.00874  -0.6992  0.3487
6.492e+09  -0.851  0.3462  0.01333  -0.00452  -0.01207  0.03494  -0.5429  0.5114
6.494e+09  -0.6561  0.6422  0.00156  -0.009842  0.01282  -0.06165  -0.2709  0.7159
6.495e+09  -0.4313  0.8682  0.02446  0.03503  0.004184  -0.005519  -0.02537  0.7687
6.496e+09  -0.0883  0.8913  0.01983  0.005593  -0.002099  -0.008664  0.234  0.7046
6.498e+09  0.2712  0.9332  -0.02397  -0.001829  -0.0088  0.006531  0.4897  0.6282
6.499e+09  0.5249  0.7822  -0.03066  -0.01263  -0.01645  -0.06314  0.6541  0.4151
6.5e+09  0.761  0.5008  0.008544  0.0001033  -0.01558  -0.01333  0.7312  0.1193
6.501e+09  0.8881  0.2251  -0.01127  -0.04293  -0.02236  0.0142  0.7416  -0.07793
6.502e+09  0.9618  -0.06629  -0.008933  0.0112  0.02972  0.02097  0.6975  -0.3531
6.504e+09  0.8567  -0.3809  -0.02501  0.008508  -0.02779  0.02214  0.5171  -0.5755
6.505e+09  0.6452  -0.6847  0.02073  -0.01575  -0.01506  0.03743  0.2627  -0.7074
6.506e+09  0.3521  -0.8491  -0.02834  0.01398  0.04718  0.02841  0.05195  -0.7711
6.508e+09  0.05868  -0.9653  0.02165  -0.02802  0.03693  0.05538  -0.2347  -0.7596
6.509e+09  -0.2819  -0.8786  0.00868  -0.02159  -0.02215  -0.03884  -0.4905  -0.565
6.51e+09  -0.5531  -0.7559  0.02594  -0.01278  0.0161  0.03567  -0.6283  -0.359
6.511e+09  -0.8087  -0.5248  0.006093  0.03904  0.02876  -0.01147  -0.7314  -0.1782
6.512e+09  -0.97  -0.2179  -0.02659  0.009482  -0.01849  -0.05951  -0.7818  0.1209
6.514e+09  -0.9892  0.1693  -0.02647  0.005489  -0.004071  -0.04529  -0.6433  0.3904
6.515e+09  -0.8114  0.5013  -0.02063  0.0141  0.02831  -0.003703  -0.5034  0.5913
6.516e+09  -0.6414  0.7075  0.03093  -0.03604  -0.02623  -0.02613  -0.2626  0.6945
6.518e+09  -0.3277  0.8747  -0.01019  -0.01249  -0.02525  -0.01481  0.03587  0.7294
6.519e+09  0.02946  0.9616  -0.003434  -0.00672  0.01383  -0.02762  0.2442  0.6786
6.52e+09  0.338  0.8491  -0.02463  -0.01649  -0.001692  0.002766  0.4902  0.5434
6.521e+09  0.6398  0.6779  0.01732  0.01361  0.02143  0.02844  0.656  0.3567
6.522e+09  0.8537  0.4818  -0.03656  0.008793  -0.06917  0.003609  0.7093  0.1182
6.524e+09  1.004  0.1244  -0.02345  0.02463  -0.03181  -0.04301  0.7142  -0.1542
6.525e+09  0.9284  -0.2141  0.0273  -0.04039  0.02736  -0.01146  0.6341  -0.3791
6.526e+09  0.7953  -0.5373  0.02526  -0.04337  0.01158  -0.01106  0.4216  -0.5733
6.528e+09  0.6132  -0.813  -0.01358  -0.008174  -0.001968  -0.01574  0.1824  -0.6621
6.529e+09  0.2959  -0.9803  -5.691e-05  0.01084  -0.01424  0.05226  -0.05575  -0.6588
6.53e+09  -0.04686  -0.962  -0.03481  0.025  0.01695  0.0008199  -0.2722  -0.6442
6.531e+09  -0.3631  -0.9172  0.007809  0.01324  -0.02585  -0.04611  -0.4848  -0.4751
6.532e+09  -0.6895  -0.6671  0.01109  0.002767  -0.07191  0.006745  -0.598  -0.2826
6.534e+09  -0.8981  -0.428  0.01956  -0.009786  -0.003124  -0.03606  -0.6846  -0.08744
6.535e+09  -0.9946  -0.09406  0.001704  0.001834  -0.006318  -0.02045  -0.6061  0.09301
6.536e+09  -0.9457  0.2119  -0.007453  -0.01004  0.009531  -0.0116  -0.5587  0.3227
6.538e+09  -0.785  0.594  0.003968  0.004809  0.009959  -0.007352  -0.4459  0.4626
6.539e+09  -0.5463  0.8847  -0.02973  0.05532  -0.009856  0.00206  -0.2587  0.6123
6.54e+09  -0.2296  0.9335  -0.02455  0.002098  0.004564  -0.02182  -0.03735  0.6843
6.541e+09  0.1376  0.963  -0.007652  0.02776  -0.03181  -0.003721  0.1875  0.6782
6.542e+09  0.4431  0.8618  -0.008765  0.003744  -0.02001  0.02511  0.4287  0.5832
6.544e+09  0.7375  0.6084  0.007382  0.01928  0.009431  -0.04022  0.616  0.422
6.545e+09  0.8849  0.3578  0.009313  -0.02834  0.03648  0.01926  0.6941  0.1804
6.546e+09  0.9642  -0.05527  0.003018  -0.02525  0.04335  0.07386  0.7195  -0.05788
6.548e+09  0.9264  -0.2971  0.005349  0.01867  0.01283  0.03362  0.671  -0.3125
6.549e+09  0.7681  -0.6413  0.01552  -0.0404  0.0445  -0.03215  0.5172  -0.5464
6.55e+09  0.4785  -0.8148  -0.006979  -0.01979  -0.04344  0.0238  0.2837  -0.6563
