# Hz S RI R 50
6.25e+09  -0.3475  0.7922  -0.01821  -0.005523  0.00683  0.05295  0.1947  0.4855
6.251e+09  -0.06382  0.8652  0.001386  0.006346  -0.01632  -0.02526  0.3907  0.4059
6.252e+09  0.245  0.8657  0.002184  0.003885  0.03874  -0.05421  0.5281  0.2624
6.254e+09  0.4657  0.7222  -0.008314  0.02034  0.0007537  0.03917  0.6411  0.01217
6.255e+09  0.6967  0.5487  -0.03887  0.01972  0.03322  0.04705  0.5694  -0.196
6.256e+09  0.8564  0.1874  0.006776  0.03288  0.002811  0.01997  0.4844  -0.4108
6.258e+09  0.8425  -0.05813  0.00951  0.01405  -0.001103  -0.0004154  0.2887  -0.5885
6.259e+09  0.7369  -0.3864  0.002907  -0.02987  -0.03451  -0.03884  0.06078  -0.6407
6.26e+09  0.5286  -0.5867  0.002006  0.0232  0.005911  -0.00112  -0.215  -0.6717
6.261e+09  0.2608  -0.7443  0.04464  0.01233  0.008387  -0.005921  -0.4597  -0.5466
6.262e+09  0.06072  -0.8554  -0.008539  -0.02002  -0.04467  0.007702  -0.6007  -0.349
6.264e+09  -0.2977  -0.8272  -0.01424  -0.01979  0.003754  0.07449  -0.6997  -0.0957
6.265e+09  -0.5154  -0.7176  0.006768  -0.02857  -0.007431  0.02508  -0.715  0.1542
6.266e+09  -0.6948  -0.469  -0.008449  0.01018  0.00632  0.04991  -0.6008  0.4012
6.268e+09  -0.8028  -0.2173  -0.0002052  -0.03411  -0.005068  0.01555  -0.4296  0.5862
6.269e+09  -0.7888  0.0524  -0.02475  -0.04246  -0.07041  -0.03149  -0.2155  0.7048
6.27e+09  -0.7705  0.4097  -0.01637  -0.0222  -0.02337  0.00661  0.08865  0.6973
6.271e+09  -0.608  0.5927  0.02223  0.0281  0.05296  0.002463  0.2857  0.6324
6.272e+09  -0.2968  0.7308  -0.0351  0.03776  -0.04577  0.02805  0.52  0.5181
6.274e+09  -0.003547  0.8672  0.00249  -0.03601  0.01324  -0.04254  0.6969  0.2965
6.275e+09  0.2531  0.7768  0.005967  -0.02728  -0.008372  0.0204  0.7344  0.009748
6.276e+09  0.529  0.6878  -0.01339  0.01133  0.01628  -0.01248  0.7283  -0.2446
6.278e+09  0.6726  0.4679  0.003443  0.01689  -0.01793  0.007054  0.592  -0.4432
6.279e+09  0.7873  0.1752  -0.06148  -0.007621  -0.004659  -0.02347  0.4095  -0.6608
6.28e+09  0.802  -0.1389  0.02003  -0.01197  0.02818  0.02933  0.1703  -0.7559
6.281e+09  0.7164  -0.4548  0.01821  -0.002146  0.03953  0.01252  -0.1166  -0.7477
6.282e+09  0.5125  -0.6128  0.01647  0.01511  0.03854  0.01577  -0.3824  -0.6962
6.284e+09  0.3337  -0.7897  -0.01668  -0.04392  0.01781  0.03478  -0.5594  -0.526
6.285e+09  0.03933  -0.8101  -0.0021  0.02683  -0.03966  -0.02472  -0.7549  -0.282
6.286e+09  -0.2667  -0.8126  0.01017  -0.01721  -0.01415  0.01713  -0.7878  -0.0345
6.288e+09  -0.5158  -0.6443  0.01512  -0.02519  -0.0312  -0.0321  -0.7289  0.2446
6.289e+09  -0.6817  -0.4419  0.004523  0.01483  -0.03493  -0.04707  -0.6054  0.4886
6.29e+09  -0.8271  -0.1769  0.001898  -0.004137  0.03254  0.02072  -0.4421  0.6923
6.291e+09  -0.8534  0.1037  -0.001322  0.006754  0.003346  0.001267  -0.1389  0.7744
6.292e+09  -0.7573  0.4478  0.003036  -0.003586  -0.06466  0.06597  0.1434  0.8003
6.294e+09  -0.5004  0.5916  -0.00309  0.007695  -0.008732  0.03659  0.3928  0.6944
6.295e+09  -0.2762  0.7758  0.01832  0.03105  -0.002441  -0.03781  0.6113  0.5376
6.296e+09  -0.01127  0.8153  -0.01355  -0.008163  -0.02234  -0.04056  0.7465  0.2836
6.298e+09  0.2885  0.7667  0.006932  -0.0106  -0.03335  0.003792  0.8117  0.03297
6.299e+09  0.5483  0.6093  -0.03491  0.004233  0.03136  -0.002915  0.7625  -0.245
6.3e+09  0.7627  0.3804  0.0151  -0.03392  0.006853  -0.02042  0.6273  -0.5148
6.301e+09  0.7873  0.1404  0.003914  0.01437  -0.01171  0.02507  0.4237  -0.7158
6.302e+09  0.7792  -0.1738  0.007805  -0.001243  0.02651  0.01785  0.1722  -0.8295
6.304e+09  0.6919  -0.437  0.0307  0.02587  0.05193  -0.003405  -0.149  -0.8455
6.305e+09  0.5248  -0.6915  0.01548  -0.03709  -0.01687  -0.01695  -0.4152  -0.7397
6.306e+09  0.3027  -0.7727  -0.01529  0.009463  -0.01473  0.01452  -0.6758  -0.5733
6.308e+09  0.03285  -0.7914  -0.02102  -0.002381  0.01557  -0.04414  -0.8394  -0.292
6.309e+09  -0.2683  -0.7811  -0.01133  -0.01437  -0.01907  0.06211  -0.8619  -0.01777
6.31e+09  -0.5524  -0.6065  0.01265  -0.01144  -0.02763  -0.03165  -0.8062  0.2881
6.311e+09  -0.7563  -0.3805  0.001156  -0.000441  0.03638  -0.01468  -0.6242  0.5253
6.312e+09  -0.7993  -0.1202  0.02108  0.01335  -0.03753  -0.01261  -0.4492  0.7547
6.314e+09  -0.7899  0.2001  0.01421  0.01594  0.04085  -0.01613  -0.1902  0.8462
6.315e+09  -0.6601  0.4603  -0.04666  0.002774  0.01283  -0.01598  0.1323  0.838
6.316e+09  -0.4824  0.7052  -0.02005  0.01196  -0.0005672  -0.009583  0.4565  0.7678
6.318e+09  -0.2198  0.8097  -0.002469  -0.02004  -0.0922  0.06432  0.6524  0.5546
6.319e+09  0.1322  0.8143  0.03267  -0.01309  0.01581  0.01964  0.8331  0.2976
6.32e+09  0.3292  0.7862  0.008195  0.03143  -0.0177  0.04714  0.8672  0.005011
6.321e+09  0.5943  0.6111  0.008089  -0.01763  -0.03933  0.01122  0.8664  -0.3296
6.322e+09  0.7821  0.3367  0.009329  -0.007522  -0.002529  0.01427  0.6796  -0.5401
6.324e+09  0.8629  0.002481  -0.003758  0.01085  -0.0006807  0.06343  0.4652  -0.7498
6.325e+09  0.8207  -0.2224  -0.008885  -0.005254  -0.04812  -0.0125  0.1976  -0.8616
6.326e+09  0.6742  -0.5417  0.02624  -0.006578  -0.007343  0.02993  -0.1347  -0.8832
6.328e+09  0.4671  -0.6838  0.02325  0.03328  -0.04767  -0.01372  -0.4198  -0.756
6.329e+09  0.1622  -0.8175  -0.02198  0.00158  0.005822  0.01389  -0.6704  -0.5926
6.33e+09  -0.09155  -0.8452  -0.0009169  0.04281  0.009826  -0.01404  -0.823  -0.3373
6.331e+09  -0.3787  -0.7683  -0.03538  0.02743  -0.02176  -0.01762  -0.934  -0.003947
6.332e+09  -0.6566  -0.5697  -0.001144  0.02525  -0.03365  -0.02958  -0.8823  0.3089
6.334e+09  -0.7894  -0.3042  0.001013  0.01329  -0.01047  0.01592  -0.7157  0.5574
6.335e+09  -0.897  -0.008782  0.02654  0.001021  0.03604  -0.03595  -0.4762  0.7724
6.336e+09  -0.7983  0.2578  -0.01305  0.01957  -0.01785  -0.01337  -0.2092  0.8909
6.338e+09  -0.7189  0.5981  -0.02202  -0.009894  0.01934  -0.008995  0.1083  0.8729
6.339e+09  -0.4433  0.7874  0.03689  0.004083  -0.02101  -0.001719  0.4457  0.7933
6.34e+09  -0.1244  0.8525  0.008589  0.008466  -0.006666  0.0218  0.6714  0.6238
6.341e+09  0.1878  0.8567  0.002388  -0.04667  -0.004188  0.01704  0.8382  0.3756
6.342e+09  0.5123  0.7363  -0.02688  0.001761  -0.03096  -0.05024  0.9421  0.04113
6.344e+09  0.6913  0.5075  0.001292  0.01678  -0.02344  0.01307  0.872  -0.2593
6.345e+09  0.8531  0.2435  -0.01971  -1.103e-05  0.03207  -0.008246  0.7397  -0.5895
6.346e+09  0.865  -0.02025  -0.002133  0.02722  -0.01572  0.06725  0.5304  -0.773
6.348e+09  0.8429  -0.3489  -0.001071  -0.02111  -0.03006  0.01662  0.2208  -0.9105
6.349e+09  0.6505  -0.6102  -0.01154  -0.00461  0.01913  -0.002589  -0.1273  -0.9155
6.35e+09  0.3791  -0.7897  -0.01392  0.04923  -0.01741  -0.0173  -0.4226  -0.8157
6.351e+09  0.08092  -0.8625  -0.01189  -0.01199  -0.02262  -0.01357  -0.6642  -0.6456
6.352e+09  -0.1849  -0.8538  -0.04696  0.01715  -0.01907  -0.01587  -0.8809  -0.3699
6.354e+09  -0.5388  -0.7607  -0.02459  -0.007741  -0.0009199  -0.005956  -0.9128  -0.07993
6.355e+09  -0.7175  -0.5152  -0.03434  0.01607  -0.03567  0.01141  -0.8885  0.2279
6.356e+09  -0.8572  -0.2447  0.00234  -0.0196  -0.03052  -0.01185  -0.7554  0.5258
6.358e+09  -0.8744  0.05217  0.000113  0.01681  -0.007039  0.01222  -0.5233  0.7784
6.359e+09  -0.8134  0.3904  -0.00957  -0.04274  0.02493  0.01451  -0.2556  0.9393
6.36e+09  -0.6028  0.6754  0.01932  0.01501  -0.02607  -0.0327  0.0903  0.9247
6.361e+09  -0.3502  0.7891  -0.01913  0.02284  0.007737  0.001634  0.4058  0.8356
6.362e+09  -0.02376  0.8762  -0.02912  0.01505  0.01102  0.008295  0.6555  0.6913
6.364e+09  0.3153  0.8281  -0.04444  0.03163  0.01571  -0.0004395  0.9106  0.3805
6.365e+09  0.5711  0.6699  -0.001609  -0.01377  0.009474  0.01035  0.9186  0.06794
6.366e+09  0.7675  0.4657  -0.001255  0.01981  -0.03686  0.02379  0.8533  -0.2713
6.368e+09  0.8841  0.149  -0.03856  0.01357  -0.0131  0.02343  0.7636  -0.5255
6.369e+09  0.8298  -0.1756  -0.006114  -0.02443  0.0002964  -0.01205  0.5424  -0.8101
6.37e+09  0.8074  -0.4418  0.01837  0.01647  -0.009388  0.01216  0.231  -0.9068
6.371e+09  0.5955  -0.6846  -0.0002082  0.009166  -0.02088  0.01722  -0.06683  -0.9238
6.372e+09  0.2734  -0.9147  -0.002923  0.0165  0.01035  0.02938  -0.3787  -0.8387
6.374e+09  -0.02253  -0.8971  -0.01644  0.01502  0.02618  0.03997  -0.6617  -0.671
6.375e+09  -0.3244  -0.796  -0.001104  -0.005091  -0.03419  -0.03051  -0.8728  -0.394
6.376e+09  -0.5832  -0.6648  -0.006775  0.03096  -0.00761  -0.01122  -0.9368  -0.08256
6.378e+09  -0.8169  -0.422  0.02321  0.02815  0.0174  0.04388  -0.8939  0.2265
6.379e+09  -0.8754  -0.1221  -0.01832  -0.004539  -0.009469  -0.004489  -0.7653  0.5007
6.38e+09  -0.9048  0.1999  -0.01312  -0.009432  0.01214  -0.04375  -0.5776  0.7485
6.381e+09  -0.7207  0.4882  -0.02957  0.02007  -0.01507  0.007423  -0.2423  0.9287
6.382e+09  -0.5613  0.7237  0.008925  -0.05875  0.05457  0.01495  0.07626  0.9498
6.384e+09  -0.2342  0.8569  -0.001451  0.001819  -0.04177  0.05656  0.379  0.8922
6.385e+09  0.06879  0.8522  0.00528  -0.006239  0.0009816  -0.02127  0.6071  0.678
6.386e+09  0.3423  0.804  -0.02603  0.00703  0.04761  -0.01297  0.8442  0.4055
6.388e+09  0.6095  0.6493  0.01944  0.01458  0.02077  0.03721  0.8872  0.1441
6.389e+09  0.8079  0.4117  0.001817  0.008143  0.006169  0.01251  0.8803  -0.2214
6.39e+09  0.9142  0.08464  -0.06367  0.01146  -0.007905  0.006531  0.7715  -0.5437
6.391e+09  0.8547  -0.2814  0.02238  -0.02824  0.002975  -0.01619  0.5552  -0.7362
6.392e+09  0.7613  -0.5455  0.01887  0.01381  0.02396  0.000822  0.267  -0.8764
6.394e+09  0.4889  -0.7192  -0.007342  -0.006582  0.008915  0.02353  -0.01583  -0.9467
6.395e+09  0.231  -0.8958  -0.01375  -0.04417  0.01971  0.00139  -0.346  -0.856
6.396e+09  -0.09174  -0.8699  -0.009787  -0.03578  0.007324  0.002541  -0.5877  -0.6364
6.398e+09  -0.3878  -0.7624  0.000363  -0.01881  0.03584  -0.06082  -0.8091  -0.4763
6.399e+09  -0.623  -0.618  0.01909  -0.01513  -0.01824  0.001289  -0.9383  -0.1693
6.4e+09  -0.8371  -0.3756  2.389e-05  0.009531  0.01222  0.02648  -0.8801  0.1606
6.401e+09  -0.8551  -0.07942  -0.002112  -0.01015  0.06682  0.06105  -0.7975  0.5294
6.402e+09  -0.8426  0.2556  -0.00615  0.005506  0.01924  -0.0198  -0.5945  0.6926
6.404e+09  -0.7403  0.5266  -0.02722  -0.03026  0.01396  0.01034  -0.3004  0.8852
6.405e+09  -0.5207  0.7424  0.01737  -0.001682  0.03715  0.03796  -0.008497  0.8764
6.406e+09  -0.1649  0.8733  0.01158  0.02084  0.01942  0.001351  0.328  0.8609
6.408e+09  0.08333  0.8799  -0.026  0.0571  0.0126  0.008601  0.566  0.6524
6.409e+09  0.4378  0.8206  -0.01031  0.01464  -0.0159  0.05467  0.7757  0.4594
6.41e+09  0.6231  0.5346  -0.0302  0.003773  -0.02591  0.04672  0.9271  0.1383
6.411e+09  0.8288  0.3418  -3.203e-05  0.007634  0.04514  0.002154  0.8616  -0.1282
6.412e+09  0.916  0.02285  -0.01312  0.00766  0.04007  0.0377  0.7987  -0.4236
6.414e+09  0.844  -0.2917  -0.02345  0.02378  -0.006213  0.007578  0.5863  -0.65
6.415e+09  0.6981  -0.5584  0.001568  -0.03463  -0.01114  -0.01686  0.2784  -0.8675
6.416e+09  0.472  -0.7186  -0.008854  0.0149  -0.02859  0.02633  0.02659  -0.878
6.418e+09  0.1478  -0.9021  0.009276  0.004692  -0.02404  0.009614  -0.2509  -0.8495
6.419e+09  -0.1534  -0.9212  0.02402  0.005437  -0.02604  -0.008298  -0.5668  -0.6695
6.42e+09  -0.4782  -0.766  0.003141  -0.004943  0.0278  -0.0005039  -0.7527  -0.4958
6.421e+09  -0.6469  -0.5163  0.01073  -0.02068  -0.03876  -0.004159  -0.8516  -0.1991
6.422e+09  -0.8426  -0.3316  -0.001344  -0.02017  0.001917  -0.04303  -0.9021  0.1232
6.424e+09  -0.9199  0.0091  0.002728  -0.007367  -0.03165  0.01177  -0.7947  0.41
6.425e+09  -0.8414  0.2843  -0.01387  -0.01739  -0.0287  -0.0241  -0.5756  0.678
6.426e+09  -0.6725  0.599  0.009354  -0.002519  0.01043  -0.0221  -0.2955  0.8167
6.428e+09  -0.4457  0.7192  0.001524  0.02807  -0.001405  -0.01556  -0.06576  0.8706
6.429e+09  -0.1549  0.8586  -0.0128  0.002209  0.009191  0.007089  0.2147  0.8278
6.43e+09  0.162  0.8907  0.001947  0.02782  -0.0004804  -0.03532  0.4861  0.7269
6.431e+09  0.4495  0.802  0.001545  0.002486  -0.01145  -0.02038  0.7337  0.4549
6.432e+09  0.6492  0.5804  -0.01467  -0.03317  -0.005434  -0.04258  0.8352  0.1817
6.434e+09  0.8425  0.3185  -8.447e-05  -0.00924  -0.01049  -0.05992  0.8791  -0.1223
6.435e+09  0.8485  -0.02508  0.0002951  0.009143  -0.008721  -0.04042  0.7908  -0.3682
6.436e+09  0.8062  -0.333  -0.03263  0.0215  0.008607  0.03001  0.58  -0.6073
6.438e+09  0.6749  -0.5934  -0.007744  0.008453  0.0123  0.06114  0.3942  -0.7536
6.439e+09  0.4489  -0.7719  -0.01082  0.02753  -0.006211  -0.0042  0.06611  -0.844
6.44e+09  0.1856  -0.9028  0.0246  0.03243  0.02945  -0.001092  -0.2535  -0.7893
6.441e+09  -0.2173  -0.8173  0.004311  0.006994  0.04412  0.02078  -0.5279  -0.6688
6.442e+09  -0.5069  -0.7654  -0.001045  0.0277  0.007418  -0.03364  -0.6681  -0.4567
6.444e+09  -0.6682  -0.5716  -0.03012  0.02205  0.04802  0.02321  -0.8031  -0.2273
6.445e+09  -0.8437  -0.2935  -0.007732  0.004599  0.06152  -0.05366  -0.7683  0.05102
6.446e+09  -0.8606  0.01905  0.02833  -0.003539  0.02523  -0.007611  -0.7417  0.3678
6.448e+09  -0.8545  0.3161  -0.0235  -0.004891  -0.02111  0.03161  -0.6298  0.5781
6.449e+09  -0.7156  0.5937  0.04839  0.01094  0.03006  0.03482  -0.3711  0.74
6.45e+09  -0.4318  0.8005  0.002619  0.01746  -0.0215  0.0189  -0.006364  0.8258
6.451e+09  -0.1187  0.8925  0.003279  -0.04691  -0.02495  0.01074  0.2198  0.8012
6.452e+09  0.1388  0.8892  -0.0003735  -0.02538  0.01034  -0.01791  0.4383  0.6266
6.454e+09  0.4582  0.7677  0.01876  0.02745  0.000225  0.02072  0.6977  0.4541
6.455e+09  0.713  0.532  -0.03837  -0.01916  0.07267  0.01978  0.76  0.2077
6.456e+09  0.8115  0.2531  -0.0003226  0.03285  -0.01245  0.007295  0.8181  -0.05538
6.458e+09  0.9038  -0.03416  0.04915  -0.0364  -0.008114  0.007712  0.7439  -0.3778
6.459e+09  0.8408  -0.3053  0.01889  0.03426  -0.04755  0.04655  0.5825  -0.6149
6.46e+09  0.6203  -0.5415  0.01171  -0.03334  -0.0321  0.02221  0.3239  -0.7038
6.461e+09  0.43  -0.7849  0.04629  -0.004812  0.008291  0.06331  0.04889  -0.7974
6.462e+09  0.1567  -0.9139  -0.01123  -0.03134  0.00984  0.01294  -0.2054  -0.8318
6.464e+09  -0.1652  -0.8744  -0.01009  -0.002726  -0.05589  0.00644  -0.4703  -0.6717
6.465e+09  -0.4329  -0.8013  -0.02348  0.01012  0.002923  0.03391  -0.6598  -0.4367
6.466e+09  -0.6677  -0.5809  -0.03856  -0.007553  0.03301  0.03981  -0.7681  -0.1614
6.468e+09  -0.8457  -0.2752  0.02031  0.02244  -0.02712  -0.05161  -0.7674  0.0688
6.469e+09  -0.8956  0.09413  -0.02147  0.02527  -0.01683  0.04765  -0.7226  0.3726
6.47e+09  -0.931  0.2974  0.04618  -0.00986  5.633e-07  0.03041  -0.5247  0.5483
6.471e+09  -0.6654  0.6154  0.001848  0.02481  0.08087  -0.03322  -0.3285  0.7197
6.472e+09  -0.4431  0.8063  -0.01038  1.675e-06  -0.03615  0.04246  -0.05974  0.7838
6.474e+09  -0.1247  0.9473  0.005404  -0.009971  -0.008426  -0.02855  0.2044  0.766
6.475e+09  0.2215  0.833  0.01316  0.03208  -0.007696  0.03828  0.4888  0.649
6.476e+09  0.4686  0.7423  -0.03123  -0.006808  0.05623  -0.004124  0.671  0.4378
6.478e+09  0.6748  0.5433  0.01941  -0.002432  -0.02202  0.04962  0.7458  0.2048
6.479e+09  0.8613  0.2062  -0.01103  -0.01999  -0.002131  0.03809  0.7574  -0.05115
6.48e+09  0.9713  -0.08258  -0.01603  -0.04017  -0.01716  -0.04954  0.726  -0.3745
6.481e+09  0.836  -0.3816  0.01548  0.02828  0.05534  -0.02035  0.5266  -0.5575
6.482e+09  0.7007  -0.6532  -0.02919  -0.01554  -0.01898  0.0292  0.341  -0.7219
6.484e+09  0.4535  -0.8034  0.04959  -0.01297  -0.0004959  0.0302  0.079  -0.8004
6.485e+09  0.06565  -0.8905  0.05662  0.02809  0.015  -0.003467  -0.1681  -0.7864
6.486e+09  -0.2656  -0.8843  -0.0389  -0.03562  0.006553  0.003677  -0.4873  -0.5916
6.488e+09  -0.5356  -0.8146  0.01964  0.01793  -0.02332  -0.02423  -0.6279  -0.4158
6.489e+09  -0.7612  -0.5709  -0.006768  0.01547  -0.002466  0.0007566  -0.7273  -0.1873
6.49e+09  -0.9153  -0.2642  -0.04143  -0.02502  0.05978  0.02136  -0.7682  0.09392
6.491e+09  -0.9188  0.02879  -0.0005879  -0.01208  -0.002628  0.02797  -0.6898  0.3409
6.492e+09  -0.8807  0.3954  -0.02083  0.009308  0.06399  -0.01152  -0.5025  0.5336
6.494e+09  -0.6506  0.6713  -0.008884  0.06557  -0.05227  -0.009704  -0.2875  0.6856
6.495e+09  -0.4108  0.8358  0.01344  -0.01013  0.01176  0.02238  -0.05863  0.7532
6.496e+09  -0.05298  0.9548  -0.0333  0.01865  -0.06047  -0.01892  0.1989  0.7256
6.498e+09  0.2432  0.8663  0.01206  0.04065  0.01114  0.007453  0.4904  0.6128
6.499e+09  0.517  0.7648  0.02031  0.0157  -0.0006912  -0.02106  0.6548  0.4235
6.5e+09  0.7608  0.5204  0.01626  0.05112  -0.02945  0.009582  0.7281  0.1473
6.501e+09  0.8903  0.2566  0.01904  -0.007007  -0.04987  0.04032  0.7623  -0.09737
6.502e+09  0.8988  -0.0792  0.03098  0.01981  -0.003027  -0.0228  0.6803  -0.3453
6.504e+09  0.8584  -0.3946  -0.01021  0.013  -0.007983  -0.05708  0.5158  -0.5763
6.505e+09  0.6282  -0.6783  -0.018  -0.02967  -0.03223  -0.02587  0.286  -0.6975
6.506e+09  0.334  -0.86  -0.004261  -0.01478  0.05032  0.02362  0.01239  -0.7313
6.508e+09  0.03164  -0.9736  -0.04032  -0.01516  -0.006375  0.03193  -0.2169  -0.7054
6.509e+09  -0.3046  -0.9356  -0.01912  0.004389  -0.0533  0.03606  -0.492  -0.5867
6.51e+09  -0.6597  -0.7408  -0.04236  -0.02251  -0.005421  0.008318  -0.6188  -0.365
6.511e+09  -0.7704  -0.5185  -0.01071  0.01025  -0.0395  -0.009268  -0.757  -0.14
6.512e+09  -0.9485  -0.214  0.01703  -0.0001894  -0.03598  0.02881  -0.7631  0.1168
6.514e+09  -0.936  0.169  0.02836  0.006501  0.03849  -0.04111  -0.6463  0.3764
6.515e+09  -0.7541  0.4739  0.01291  0.01739  -0.003488  0.002634  -0.4702  0.5719
6.516e+09  -0.6499  0.654  -0.001477  -0.01986  0.02472  0.07391  -0.2511  0.7021
6.518e+09  -0.3557  0.8731  0.01254  -0.05404  0.01064  0.01177  0.02573  0.7272
6.519e+09  -0.04586  0.9567  0.01604  -0.04097  -0.0008649  0.004289  0.2826  0.6871
6.52e+09  0.3412  0.9116  -0.01366  0.02614  0.05904  -0.009414  0.4799  0.5479
6.521e+09  0.647  0.7108  0.01853  -0.03668  -0.009505  -0.04084  0.6299  0.3371
6.522e+09  0.8135  0.4866  0.004712  -0.01194  0.05392  -0.03937  0.7018  0.1123
6.524e+09  0.9458  0.1565  0.0212  -0.009519  0.05915  0.01215  0.7263  -0.149
6.525e+09  0.9865  -0.171  -0.01889  -0.007367  0.005175  0.03291  0.6287  -0.4001
6.526e+09  0.8334  -0.5057  -0.01925  0.00679  -0.02213  0.05015  0.4352  -0.574
6.528e+09  0.6348  -0.7361  0.01604  0.001976  0.0003991  0.0338  0.2249  -0.7102
6.529e+09  0.284  -0.9845  0.02606  0.01023  -0.03771  -0.01191  -0.08488  -0.6853
6.53e+09  -0.03706  -0.9329  0.00326  -0.02836  -0.01812  -0.03541  -0.2783  -0.6154
6.531e+09  -0.3693  -0.8882  -0.02181  0.01016  0.05988  0.008149  -0.4615  -0.4666
6.532e+09  -0.692  -0.6604  -0.008314  -0.01849  -0.02456  -0.004899  -0.5945  -0.307
6.534e+09  -0.9319  -0.3666  0.03781  -0.01194  -0.03096  0.02389  -0.6096  -0.07453
6.535e+09  -0.9629  -0.09014  -0.003876  -0.008373  -0.006022  0.03068  -0.625  0.1137
6.536e+09  -0.9146  0.2479  0.01128  -0.01505  -0.04362  -0.01154  -0.5857  0.2585
6.538e+09  -0.8221  0.5845  -0.02085  0.02887  0.02399  -0.01489  -0.4299  0.4336
6.539e+09  -0.5194  0.8289  0.012  0.0007168  -0.03333  0.04578  -0.2648  0.6126
6.54e+09  -0.2169  0.9596  -0.01185  -0.0006861  -0.01493  0.01352  -0.02909  0.6307
6.541e+09  0.1247  1.007  -0.00298  -0.01276  0.001842  -0.01726  0.1996  0.6667
6.542e+09  0.4637  0.8243  0.0148  -0.01459  -0.013  -0.01692  0.4232  0.5884
6.544e+09  0.6703  0.6217  -0.01745  -0.02934  0.01616  0.05332  0.5894  0.4071
6.545e+09  0.9626  0.3514  -0.01034  0.005215  -0.0317  -0.03861  0.6903  0.133
6.546e+09  1.015  -0.02093  -0.003268  -0.006481  0.04973  -0.03032  0.72  -0.06908
6.548e+09  0.9649  -0.3007  -0.002652  -7.847e-05  -0.0186  0.03416  0.6299  -0.3012
6.549e+09  0.7173  -0.6808  -0.02747  0.004012  0.02966  0.02987  0.5164  -0.5399
6.55e+09  0.5038  -0.8054  0.02433  -0.02768  -0.01304  -0.01502  0.2816  -0.6928
