# Hz S RI R 50
6.25e+09  -0.6858  0.4897  0.01368  -0.008795  -0.03278  -0.01325  0.1791  0.4562
6.251e+09  -0.4658  0.6807  -0.02103  0.001375  -0.02437  0.01479  0.358  0.4011
6.252e+09  -0.2474  0.8241  -0.003854  0.03578  -0.002355  0.02241  0.5498  0.2571
6.254e+09  0.07002  0.8479  -0.008129  -0.02669  0.004377  -0.05132  0.5965  0.03537
6.255e+09  0.3511  0.7582  -0.03251  -0.002856  0.05532  -0.0072  0.5656  -0.2175
6.256e+09  0.566  0.619  0.015  -0.00906  -0.01178  0.02453  0.478  -0.4084
6.258e+09  0.769  0.3515  -0.01841  -0.01141  -0.002189  -0.08528  0.2783  -0.5862
6.259e+09  0.8577  0.05785  0.008035  0.01327  -0.01536  0.07664  0.013  -0.6604
6.26e+09  0.7289  -0.2684  -0.000158  -0.002797  -0.004811  0.02284  -0.2259  -0.6461
6.261e+09  0.6098  -0.519  0.005261  0.01807  0.03723  0.01734  -0.4496  -0.5276
6.262e+09  0.463  -0.6813  -0.03658  0.01418  -0.001891  -0.01819  -0.6138  -0.3557
6.264e+09  0.1725  -0.8075  -0.04071  0.00365  -0.02466  -0.03802  -0.703  -0.1097
6.265e+09  -0.08515  -0.8179  -0.02691  0.002637  0.01928  -0.05013  -0.7196  0.1452
6.266e+09  -0.3504  -0.7339  0.0004292  -0.02275  -0.02013  0.02158  -0.6166  0.4357
6.268e+09  -0.5984  -0.5487  -0.02725  -0.005714  0.01442  -0.01596  -0.4115  0.5789
6.269e+09  -0.7813  -0.3178  -0.01784  0.005574  0.007435  0.02695  -0.1947  0.7012
6.27e+09  -0.8073  0.006532  0.01401  0.004013  -0.06173  -0.03468  0.05685  0.7156
6.271e+09  -0.7627  0.265  -0.02322  0.01696  -0.02305  -0.003522  0.2995  0.7077
6.272e+09  -0.6538  0.5411  0.01713  -0.01801  0.009003  0.009578  0.5501  0.5144
6.274e+09  -0.4365  0.7142  0.01  0.0003504  -0.004312  -0.0396  0.6711  0.2994
6.275e+09  -0.1544  0.7874  -0.01646  -0.007801  -0.01795  -0.02073  0.7717  0.04067
6.276e+09  0.08573  0.7885  -0.00607  0.007032  0.07252  -0.01246  0.7346  -0.2098
6.278e+09  0.3722  0.785  0.001622  0.01835  0.0008033  0.009782  0.6147  -0.4664
6.279e+09  0.6624  0.5507  -0.004021  -0.00973  0.02663  -0.0287  0.378  -0.6655
6.28e+09  0.7287  0.2836  0.0144  -0.0001884  0.006761  -0.003032  0.1548  -0.7664
6.281e+09  0.796  0.03045  -0.01531  -0.01691  0.03976  -0.0008833  -0.0911  -0.7619
6.282e+09  0.8135  -0.2745  -0.01698  0.008881  -0.01106  -0.02139  -0.385  -0.6682
6.284e+09  0.6883  -0.5235  0.009667  0.02439  -0.02856  -0.01571  -0.5835  -0.5042
6.285e+09  0.4228  -0.7056  -0.004429  0.005691  0.08167  -0.01244  -0.7297  -0.2921
6.286e+09  0.162  -0.8614  -0.02095  -0.03601  -0.01697  0.06223  -0.7968  -0.01611
6.288e+09  -0.125  -0.8282  -0.01244  0.005467  0.006049  0.005206  -0.7425  0.2463
6.289e+09  -0.417  -0.7084  -4.397e-05  -0.008201  0.01099  -0.05231  -0.6369  0.5118
6.29e+09  -0.6124  -0.5774  0.01197  -0.003663  0.02041  -0.009321  -0.4117  0.6989
6.291e+09  -0.7733  -0.2718  -0.01806  -0.005017  0.01849  0.006786  -0.1402  0.7924
6.292e+09  -0.8152  -0.018  -0.01083  -0.0005195  0.006191  -0.04537  0.1186  0.8047
6.294e+09  -0.7832  0.272  0.007298  0.002436  -0.01232  -0.04127  0.4117  0.7174
6.295e+09  -0.6679  0.5475  -0.006966  -0.0005002  -0.02059  -0.008857  0.6267  0.5467
6.296e+09  -0.398  0.6944  -0.005509  0.01865  -0.01847  -0.007669  0.7675  0.2672
6.298e+09  -0.161  0.8117  -0.001027  -0.01503  0.001022  0.03205  0.8237  0.01843
6.299e+09  0.1343  0.8279  0.01309  0.02672  -0.005748  0.02976  0.7833  -0.2496
6.3e+09  0.4476  0.7301  0.007546  -0.0004633  0.04034  -0.00662  0.6513  -0.5164
6.301e+09  0.6585  0.5268  0.00792  -0.01749  -0.01898  -0.02157  0.3961  -0.7369
6.302e+09  0.7894  0.266  -0.009881  0.002397  0.009369  0.0276  0.1525  -0.8223
6.304e+09  0.8306  -0.08302  0.03361  -0.01245  0.006126  -0.006662  -0.1484  -0.8578
6.305e+09  0.7694  -0.3265  -0.009227  -0.005673  -0.02715  -0.00292  -0.412  -0.743
6.306e+09  0.6167  -0.5903  0.008804  0.01295  0.0213  -0.04394  -0.6302  -0.574
6.308e+09  0.3912  -0.7416  0.006519  -0.01072  0.006049  -0.01279  -0.7981  -0.2936
6.309e+09  0.09319  -0.8559  -0.01704  0.000544  0.02152  -0.01827  -0.8792  -0.006805
6.31e+09  -0.2032  -0.8187  -0.03253  0.02228  -0.03469  -0.01174  -0.811  0.2816
6.311e+09  -0.4544  -0.7209  -0.00363  -0.0001696  0.0552  0.01478  -0.6653  0.5621
6.312e+09  -0.6523  -0.5116  0.004195  -0.009201  0.0112  0.01475  -0.4169  0.7625
6.314e+09  -0.799  -0.2211  0.02917  0.02043  -0.006796  -0.02504  -0.1736  0.8632
6.315e+09  -0.8198  0.06446  0.01869  0.002168  -0.01416  -0.00568  0.154  0.8615
6.316e+09  -0.7872  0.3153  0.007112  0.02423  -0.002401  -0.007654  0.4398  0.7787
6.318e+09  -0.5638  0.5816  0.01566  -0.03382  -0.002349  -0.01888  0.6653  0.5626
6.319e+09  -0.3376  0.784  0.01798  0.004696  -0.04977  -0.0266  0.8333  0.3311
6.32e+09  -0.04414  0.8211  -0.01362  -0.003949  0.008705  -0.01729  0.8638  -0.02582
6.321e+09  0.2365  0.8113  -0.0148  0.02181  0.02878  0.0007652  0.8086  -0.2827
6.322e+09  0.4828  0.6843  -0.006312  -0.01317  0.01601  0.01458  0.6842  -0.5406
6.324e+09  0.6736  0.4833  0.02124  0.04001  0.009635  -0.06241  0.4726  -0.7198
6.325e+09  0.8269  0.1934  -0.03835  -0.007015  0.006206  -0.03137  0.2032  -0.8788
6.326e+09  0.7992  -0.09088  -0.03239  0.00278  0.01042  -0.01224  -0.1227  -0.9124
6.328e+09  0.7734  -0.3655  -0.006649  0.008882  0.0006938  0.01921  -0.4319  -0.7908
6.329e+09  0.5772  -0.6176  -0.002354  0.003565  0.01205  -0.02149  -0.6467  -0.6065
6.33e+09  0.3477  -0.8047  0.006114  -0.01304  0.009901  -0.008084  -0.8389  -0.3123
6.331e+09  0.0339  -0.8632  -0.01321  0.02925  0.05338  0.00536  -0.8969  -0.0466
6.332e+09  -0.2701  -0.7915  0.0007038  0.03267  0.01626  0.09171  -0.8786  0.2621
6.334e+09  -0.5783  -0.6675  0.001199  0.0198  0.0223  0.04694  -0.6914  0.5567
6.335e+09  -0.75  -0.4787  0.01981  0.02225  -0.07956  0.01452  -0.4673  0.7305
6.336e+09  -0.86  -0.1073  -0.006081  -0.001202  0.02785  -0.0306  -0.2145  0.8942
6.338e+09  -0.8505  0.1924  -0.01149  0.03578  -0.025  -0.00445  0.08937  0.9065
6.339e+09  -0.7402  0.4269  -0.02581  -0.002565  0.05612  -0.006837  0.4323  0.8282
6.34e+09  -0.5308  0.6868  -0.001549  -0.03786  0.02253  0.03595  0.6553  0.6198
6.341e+09  -0.2771  0.8213  -0.01227  0.005079  -0.02803  0.06837  0.8296  0.3404
6.342e+09  0.03578  0.8711  0.0211  0.02222  -0.009456  0.0233  0.9177  0.042
6.344e+09  0.3542  0.8389  0.008034  0.009141  -0.03293  -0.03894  0.8597  -0.2769
6.345e+09  0.587  0.5929  0.01413  0.01199  0.02641  -0.03092  0.7329  -0.5703
6.346e+09  0.7692  0.4154  0.005354  0.02753  0.01602  0.03658  0.5093  -0.769
6.348e+09  0.8802  0.1206  0.009124  0.0228  -0.01775  -0.03357  0.2409  -0.907
6.349e+09  0.868  -0.2788  -0.002346  -0.01014  -0.03031  0.004863  -0.1328  -0.9184
6.35e+09  0.6983  -0.493  0.008428  -0.002384  -0.03987  0.04768  -0.4489  -0.823
6.351e+09  0.4896  -0.7051  -0.01652  -0.001317  0.01761  0.01171  -0.6533  -0.6413
6.352e+09  0.2302  -0.8403  0.0403  0.007736  -0.005916  -0.01716  -0.8822  -0.39
6.354e+09  -0.142  -0.8705  0.007796  -0.014  0.005551  0.004206  -0.9556  -0.09647
6.355e+09  -0.4184  -0.8161  -0.04272  -0.01407  -0.01945  -0.0446  -0.9147  0.2817
6.356e+09  -0.643  -0.61  0.003685  0.03148  -0.007011  -0.01717  -0.7682  0.5213
6.358e+09  -0.8404  -0.3708  0.01529  -0.02265  -0.01133  0.005624  -0.5385  0.7629
6.359e+09  -0.902  -0.004001  0.01346  -0.02979  0.004976  -0.03399  -0.2389  0.9095
6.36e+09  -0.8117  0.3224  0.001793  0.02143  0.01285  -0.02246  0.08758  0.8963
6.361e+09  -0.6861  0.5738  -0.0165  -0.00996  -0.04486  -0.02718  0.4718  0.829
6.362e+09  -0.4215  0.7562  -0.001768  -0.02368  -0.0334  0.01076  0.6739  0.6513
6.364e+09  -0.1461  0.8612  0.01388  0.01726  0.0001683  -0.01846  0.8523  0.3977
6.365e+09  0.1485  0.8677  -0.01235  -0.002549  -0.03991  0.01111  0.9716  0.08172
6.366e+09  0.4322  0.8007  0.03249  0.007461  -0.05058  -0.0186  0.915  -0.2454
6.368e+09  0.6489  0.6011  -0.01292  -0.03057  -0.01028  -0.009044  0.7569  -0.5151
6.369e+09  0.821  0.3106  0.01143  -0.003833  -0.005908  0.007051  0.5452  -0.8126
6.37e+09  0.8391  -0.04663  -0.01139  -0.01423  0.04226  0.001612  0.2157  -0.9189
6.371e+09  0.8333  -0.3461  0.008994  -0.02768  -0.008722  0.008384  -0.04742  -0.9181
6.372e+09  0.6023  -0.5701  0.0184  -0.01827  0.03008  0.0109  -0.3693  -0.8747
6.374e+09  0.4093  -0.772  0.009103  -0.004856  0.01493  -0.007558  -0.6536  -0.6412
6.375e+09  0.1074  -0.835  -0.0225  0.02258  -0.02309  0.01634  -0.8388  -0.3944
6.376e+09  -0.2191  -0.8731  -0.03631  0.0008509  -0.005745  -0.0118  -1.007  -0.09534
6.378e+09  -0.4819  -0.7332  -0.001668  0.01096  0.03001  0.006937  -0.9129  0.24
6.379e+09  -0.7174  -0.5342  0.01694  0.01179  -0.04845  0.0176  -0.754  0.5277
6.38e+09  -0.876  -0.2253  -0.03509  0.0004525  -0.0008528  0.01817  -0.5154  0.7586
6.381e+09  -0.8821  0.06049  0.01921  -0.04789  -0.01654  0.02576  -0.2682  0.8771
6.382e+09  -0.7659  0.363  0.05151  0.003248  -0.01514  -0.01681  0.06434  0.9723
6.384e+09  -0.5592  0.6624  -0.01247  0.003658  -0.02828  -0.02048  0.381  0.8608
6.385e+09  -0.3385  0.8308  0.02742  -0.04511  -0.02913  0.02155  0.6177  0.685
6.386e+09  -0.01746  0.887  0.008998  -0.01935  -0.002126  -0.01646  0.8514  0.4093
6.388e+09  0.2738  0.8506  0.02108  0.001744  -0.01898  0.006463  0.8868  0.118
6.389e+09  0.5086  0.7401  0.02154  -0.02344  -0.07234  0.04153  0.9321  -0.21
6.39e+09  0.7424  0.4695  0.007519  0.02331  0.0008365  0.01765  0.8129  -0.4876
6.391e+09  0.9001  0.1498  -0.01183  0.006909  -0.02148  -0.003412  0.5766  -0.7495
6.392e+09  0.8365  -0.09423  0.0009904  0.006058  0.03386  0.005596  0.3008  -0.9118
6.394e+09  0.8133  -0.4493  -0.006268  -0.007981  0.02637  0.01648  -0.04696  -0.9375
6.395e+09  0.5833  -0.65  -0.01267  -0.003189  0.0177  -0.02199  -0.3485  -0.8963
6.396e+09  0.3226  -0.8065  0.01926  0.003532  0.01221  0.01881  -0.6427  -0.6685
6.398e+09  -0.02199  -0.9049  -0.002768  -0.02763  -0.007618  0.02992  -0.7837  -0.4607
6.399e+09  -0.3127  -0.8316  0.02962  -0.01532  0.0008817  0.03685  -0.9184  -0.1081
6.4e+09  -0.5657  -0.6918  0.001731  0.005551  0.007035  -0.003521  -0.9017  0.1408
6.401e+09  -0.7482  -0.4262  -0.05295  -0.005035  -0.00159  0.008217  -0.7678  0.4937
6.402e+09  -0.8571  -0.1864  0.02268  -0.0004411  0.003408  -0.04073  -0.5857  0.7151
6.404e+09  -0.8916  0.1832  -0.04417  -0.01118  -0.004964  0.006561  -0.3467  0.8927
6.405e+09  -0.7348  0.4583  -0.02058  -0.05133  0.02597  -0.01917  0.01193  0.9358
6.406e+09  -0.5617  0.7112  0.01097  -0.05222  0.06044  0.02739  0.3726  0.8368
6.408e+09  -0.2945  0.8456  0.002369  0.03249  0.001866  0.006226  0.5895  0.7339
6.409e+09  0.0156  0.8519  0.002521  0.001244  -0.005264  0.007328  0.7791  0.4872
6.41e+09  0.3372  0.832  0.02671  0.008348  -0.005756  -0.02066  0.863  0.1966
6.411e+09  0.5771  0.6385  -0.01458  -0.01915  0.01683  -0.003688  0.8899  -0.15
6.412e+09  0.7385  0.406  0.01379  -0.01009  -0.07797  0.004871  0.7572  -0.4682
6.414e+09  0.8784  0.07132  -0.01624  -0.04988  0.0157  0.005849  0.5966  -0.6903
6.415e+09  0.7956  -0.2353  -0.009505  0.0256  -0.00687  0.01586  0.3709  -0.8223
6.416e+09  0.7154  -0.4928  0.0405  0.01548  -0.02738  0.009605  0.04705  -0.9149
6.418e+09  0.5725  -0.6762  0.01636  -0.001315  -0.00939  0.007595  -0.2703  -0.8552
6.419e+09  0.249  -0.782  -0.02066  -0.00957  -0.004387  0.006907  -0.5856  -0.6609
6.42e+09  -0.0105  -0.8831  -0.05191  0.01361  0.02821  -0.003157  -0.7428  -0.4572
6.421e+09  -0.2843  -0.7897  -0.002152  -0.03178  0.03079  -0.007289  -0.8806  -0.1703
6.422e+09  -0.6904  -0.6288  0.01559  0.03031  -0.02818  0.02361  -0.8496  0.04821
6.424e+09  -0.8023  -0.379  -0.01404  0.0008923  0.002929  0.06314  -0.7415  0.4553
6.425e+09  -0.8493  -0.05306  0.0523  -0.006371  0.003485  0.04747  -0.5583  0.6457
6.426e+09  -0.8417  0.2378  -0.01183  -0.007321  0.00535  0.004269  -0.3763  0.8004
6.428e+09  -0.7055  0.5331  0.0117  0.02828  -0.01482  -0.02518  -0.1311  0.859
6.429e+09  -0.4929  0.7273  -0.01703  -0.05277  -0.0186  0.0189  0.2899  0.832
6.43e+09  -0.2304  0.8813  -0.01995  -0.03078  -0.04445  -0.005276  0.5191  0.6808
6.431e+09  0.09072  0.917  0.01222  0.01878  0.04397  -0.01956  0.7696  0.521
6.432e+09  0.3429  0.7815  -0.02738  -0.0391  0.001182  -0.0257  0.7787  0.1993
6.434e+09  0.6214  0.6334  0.00635  -0.001486  0.02915  -0.01962  0.8684  -0.1038
6.435e+09  0.7937  0.3558  -0.0101  0.05277  0.02554  -0.01295  0.7535  -0.3748
6.436e+09  0.8492  0.08814  -0.001249  -0.005674  -0.06144  0.002889  0.6129  -0.5345
6.438e+09  0.8458  -0.3095  0.02853  0.01401  0.0324  0.03109  0.314  -0.7944
6.439e+09  0.6892  -0.4933  -0.02249  0.007375  -0.01095  0.008262  0.05208  -0.8327
6.44e+09  0.4739  -0.6832  0.04779  0.007984  -0.05344  -0.01628  -0.1958  -0.8344
6.441e+09  0.1482  -0.8643  -0.01485  0.02797  -0.01028  -0.01191  -0.4618  -0.7011
6.442e+09  -0.1307  -0.8818  -0.03484  0.01101  0.0134  -0.01135  -0.7285  -0.4904
6.444e+09  -0.3898  -0.745  -0.03162  -0.03359  -0.1002  -0.01966  -0.8523  -0.2339
6.445e+09  -0.6447  -0.613  0.02857  0.01528  0.08075  -0.05539  -0.8008  0.04389
6.446e+09  -0.8066  -0.32  -0.01665  0.02436  -0.02202  0.01287  -0.7161  0.3595
6.448e+09  -0.8471  -0.03782  -0.03057  0.01644  -0.003504  -0.02467  -0.5698  0.6443
6.449e+09  -0.8179  0.2166  0.01693  0.009201  -0.03542  0.01508  -0.3412  0.786
6.45e+09  -0.6316  0.509  -0.01602  -0.00712  0.01627  -0.003857  -0.06226  0.8183
6.451e+09  -0.5021  0.7246  0.02847  0.03064  -0.08586  0.01129  0.231  0.769
6.452e+09  -0.2249  0.8684  0.01239  0.03094  -0.01853  0.01216  0.4856  0.6641
6.454e+09  0.09337  0.8489  -0.03253  0.01325  0.006316  -0.001155  0.7031  0.505
6.455e+09  0.3936  0.7439  0.008362  -0.03874  -0.03948  0.02834  0.8258  0.2133
6.456e+09  0.6307  0.6172  -0.007805  -0.01451  -0.01379  0.01629  0.8509  -0.09407
6.458e+09  0.7911  0.3523  0.002612  -0.02193  0.006238  0.004768  0.7468  -0.3485
6.459e+09  0.8573  0.03763  -0.01957  -0.01016  -0.03287  -0.06946  0.5739  -0.5838
6.46e+09  0.8387  -0.2614  -0.02789  0.0146  -0.01206  -0.01852  0.3867  -0.7335
6.461e+09  0.7037  -0.4911  -0.02263  0.03532  0.02138  -0.02197  0.07303  -0.8069
6.462e+09  0.5043  -0.7063  0.02352  -0.02513  -0.002114  -0.06486  -0.2133  -0.7653
6.464e+09  0.1857  -0.8594  0.034  0.02352  0.01032  -0.01614  -0.5144  -0.6774
6.465e+09  -0.1043  -0.9044  0.02743  -0.001314  -0.02302  -0.02055  -0.6414  -0.4772
6.466e+09  -0.3849  -0.7907  0.007491  0.03923  -0.02814  -0.01484  -0.7422  -0.1674
6.468e+09  -0.67  -0.5848  -0.04811  0.01694  0.0204  -0.005094  -0.8224  0.1153
6.469e+09  -0.8279  -0.3163  -0.01325  -0.01369  -0.0169  -0.007583  -0.7175  0.3756
6.47e+09  -0.8561  -0.02492  -0.01116  -0.04454  0.0547  0.02222  -0.511  0.5522
6.471e+09  -0.8445  0.2763  -0.004744  0.02505  0.02316  -0.01519  -0.3465  0.7158
6.472e+09  -0.7364  0.5598  0.01867  0.03865  0.02271  0.03964  -0.1079  0.8025
6.474e+09  -0.5003  0.7283  -0.0108  -0.02442  0.04527  0.001505  0.2109  0.743
6.475e+09  -0.1859  0.876  0.03096  0.02888  0.02187  0.01305  0.436  0.6742
6.476e+09  0.1726  0.9178  -0.03474  0.04007  -0.009655  0.03384  0.6296  0.4459
6.478e+09  0.4377  0.7831  -0.03473  -0.001759  0.002773  -0.03215  0.7857  0.2308
6.479e+09  0.6143  0.6208  -0.003232  0.00592  -0.04683  -0.0428  0.7757  -0.08827
6.48e+09  0.824  0.3039  -0.01869  -0.03546  -0.002786  0.03457  0.7  -0.3408
6.481e+09  0.904  -0.001428  -0.004772  0.002225  0.01283  -0.02672  0.4801  -0.5324
6.482e+09  0.8523  -0.273  -0.041  0.01068  0.01412  0.01507  0.3021  -0.7239
6.484e+09  0.6372  -0.5923  -0.0286  0.04382  -0.0005188  -0.01333  0.05238  -0.7887
6.485e+09  0.4475  -0.7569  0.01272  -0.01295  0.009729  0.01213  -0.2296  -0.7518
6.486e+09  0.2013  -0.8412  0.002742  -0.01597  0.02806  -0.001389  -0.4706  -0.5884
6.488e+09  -0.1736  -0.8938  -0.02558  -0.01072  0.0294  0.005411  -0.6187  -0.4357
6.489e+09  -0.433  -0.7503  -0.006328  -0.02946  -0.01758  -0.000958  -0.7083  -0.1755
6.49e+09  -0.7179  -0.5538  -0.05191  0.008212  0.01464  0.02018  -0.7596  0.07935
6.491e+09  -0.823  -0.3049  0.01189  0.0005309  0.007217  0.001933  -0.7244  0.3687
6.492e+09  -0.8846  0.002851  -0.005963  0.002209  0.04598  -0.03848  -0.5401  0.5303
6.494e+09  -0.8274  0.3025  -0.01398  -0.01375  -0.02189  0.03726  -0.2799  0.7037
6.495e+09  -0.6888  0.561  0.004207  -0.02041  -0.004632  -0.00569  -0.03768  0.7812
6.496e+09  -0.4322  0.7385  0.05492  0.001878  0.01447  0.02843  0.2095  0.7287
6.498e+09  -0.1695  0.8374  0.02255  0.02909  0.009731  0.01038  0.4678  0.5708
6.499e+09  0.1459  1.006  0.009006  0.01244  -0.02143  -0.03329  0.6394  0.4489
6.5e+09  0.5072  0.7829  -0.004969  -0.001993  0.006661  -0.04962  0.7614  0.1556
6.501e+09  0.6626  0.5793  0.01631  0.03612  -0.08294  0.03742  0.7788  -0.1159
6.502e+09  0.8488  0.3069  0.02365  -0.01619  0.001526  -0.01421  0.682  -0.3111
6.504e+09  0.9483  0.0258  0.0001519  0.001083  0.03751  -0.03714  0.474  -0.5905
6.505e+09  0.8261  -0.3064  -0.01005  -0.002927  -0.0686  0.02282  0.2806  -0.7217
6.506e+09  0.6928  -0.576  -0.03008  0.02018  0.01074  -0.04983  -0.001911  -0.7705
6.508e+09  0.4546  -0.7907  -0.03177  0.01055  -0.004081  -0.0002065  -0.2079  -0.7102
6.509e+09  0.1226  -0.9216  0.00109  0.02404  -0.007559  -0.03805  -0.4154  -0.5437
6.51e+09  -0.2213  -0.9002  -0.01312  0.01011  0.07583  -0.007493  -0.6669  -0.4156
6.511e+09  -0.4988  -0.8356  -0.01922  0.007001  0.04489  -0.02685  -0.7234  -0.1616
6.512e+09  -0.7516  -0.5739  0.02362  0.009366  -0.01654  0.009321  -0.7249  0.1221
6.514e+09  -0.8766  -0.3432  0.01029  -0.0211  -0.007274  0.01609  -0.617  0.3626
6.515e+09  -0.8902  0.09366  0.03045  0.007573  0.04348  0.05936  -0.4336  0.5774
6.516e+09  -0.8308  0.3729  0.01084  0.01405  0.01806  -0.07121  -0.2607  0.6651
6.518e+09  -0.664  0.6431  0.003945  0.01018  -0.03252  0.01462  -0.004466  0.7422
6.519e+09  -0.4375  0.8415  0.01299  -0.02635  -0.01714  0.02395  0.2745  0.6733
6.52e+09  -0.1431  0.9519  0.02163  -0.01225  0.004344  0.005669  0.4963  0.5593
6.521e+09  0.2142  0.9103  -0.02781  0.02092  0.05479  -0.001386  0.6486  0.3719
6.522e+09  0.5149  0.8039  -0.01535  0.003324  0.02141  -0.03376  0.7416  0.1317
6.524e+09  0.7859  0.529  0.05202  0.00823  0.03493  0.01811  0.7076  -0.1614
6.525e+09  0.9026  0.2257  0.01829  -0.001137  -0.04837  0.001495  0.6282  -0.4054
6.526e+09  0.9461  -0.05617  -0.0009303  -0.02381  0.009315  0.034  0.4003  -0.5624
6.528e+09  0.8728  -0.3936  -0.003102  0.04366  0.02276  0.005484  0.206  -0.6923
6.529e+09  0.6946  -0.664  0.01319  -0.0115  0.05121  -0.008464  -0.07696  -0.6835
6.53e+09  0.4126  -0.8624  -0.0252  0.01067  -0.005143  0.01316  -0.2466  -0.6282
6.531e+09  0.002633  -0.9456  -0.01059  0.03098  0.001072  -0.02145  -0.467  -0.4851
6.532e+09  -0.2592  -0.8784  -0.001758  -0.03989  -0.04733  -0.03997  -0.5848  -0.2914
6.534e+09  -0.5947  -0.7547  -0.02655  0.02253  -0.009974  0.02426  -0.621  -0.1058
6.535e+09  -0.8293  -0.5329  -0.0359  0.006722  -0.009713  -0.02294  -0.5823  0.09283
6.536e+09  -0.9402  -0.1877  0.0195  0.01714  -0.03954  -0.01443  -0.6026  0.3051
6.538e+09  -1.031  0.1716  -0.03928  0.04022  0.03615  0.03077  -0.4609  0.4721
6.539e+09  -0.8519  0.4518  0.01863  -0.0008029  -0.05232  0.007604  -0.2593  0.5895
6.54e+09  -0.6468  0.755  -0.003532  -0.00275  0.04764  -0.006115  -0.05125  0.6519
6.541e+09  -0.3371  0.9351  -0.006867  -0.0178  0.01021  -0.01077  0.2053  0.6776
6.542e+09  -0.01404  0.9712  0.01431  0.01533  -0.004694  0.03579  0.3976  0.5842
6.544e+09  0.3693  0.9099  -0.0132  0.03032  0.03862  -0.02464  0.5705  0.4236
6.545e+09  0.5874  0.695  0.02369  0.009559  -0.01004  -0.01106  0.71  0.1966
6.546e+09  0.8589  0.4362  -0.03666  -0.005702  -0.01019  -0.006848  0.6998  -0.07308
6.548e+09  0.9249  0.1055  -0.01332  -0.01793  0.01416  0.03106  0.6728  -0.3506
6.549e+09  0.9449  -0.2275  -0.01798  0.01907  -0.0157  -0.005132  0.5404  -0.5067
6.55e+09  0.8281  -0.5534  0.001834  -0.004334  0.0126  0.02536  0.2744  -0.6457
