# Hz S RI R 50
6.25e+09  -0.3579  0.7395  -0.00301  -0.001044  0.01709  0.01816  0.1854  0.4893
6.251e+09  -0.1509  0.8602  0.007744  -0.006907  -0.009442  0.06988  0.3718  0.4238
6.252e+09  0.2016  0.8513  -0.01031  -0.0115  0.002353  -0.01089  0.5211  0.2424
6.254e+09  0.4882  0.7533  0.02562  0.01211  0.0191  0.008717  0.6012  0.0008929
6.255e+09  0.754  0.4706  0.03522  0.004263  -0.03582  -0.0113  0.6106  -0.231
6.256e+09  0.8124  0.2222  0.008968  -0.005729  -0.03513  -0.001901  0.4664  -0.4282
6.258e+09  0.8272  -0.01584  -0.02018  -0.01632  0.07215  0.005842  0.2525  -0.5783
6.259e+09  0.7843  -0.2817  -0.01568  0.004933  -0.02718  0.03672  0.02665  -0.6502
6.26e+09  0.5884  -0.606  0.02347  0.02684  -0.005761  -0.02229  -0.1917  -0.6436
6.261e+09  0.353  -0.7359  0.01083  0.002241  0.01733  -0.013  -0.4643  -0.5245
6.262e+09  0.1013  -0.8131  -0.005727  -0.03154  -0.005972  0.03078  -0.6121  -0.3751
6.264e+09  -0.2019  -0.801  0.01652  -0.002524  -0.01589  -0.03279  -0.7151  -0.1094
6.265e+09  -0.474  -0.7367  -0.0136  0.02172  -0.04616  0.00464  -0.7087  0.1482
6.266e+09  -0.6333  -0.4827  -0.004739  0.002844  0.06255  0.03658  -0.6122  0.3897
6.268e+09  -0.8034  -0.231  -0.006543  -0.03548  0.009543  -0.07559  -0.4509  0.6113
6.269e+09  -0.8507  -0.01427  0.01355  0.00313  -0.0025  -0.0427  -0.2139  0.7175
6.27e+09  -0.7498  0.3642  -0.007305  -0.02446  0.001935  -0.01545  0.05341  0.7655
6.271e+09  -0.6242  0.5666  0.00592  0.006745  -0.01165  0.07439  0.3632  0.672
6.272e+09  -0.3603  0.7672  0.01192  -0.02006  0.07206  0.02969  0.5439  0.5283
6.274e+09  -0.08983  0.8575  -0.003473  0.0133  -0.003329  -0.03661  0.7097  0.3122
6.275e+09  0.2518  0.804  0.002853  -0.0007161  0.02883  0.05145  0.7613  0.04814
6.276e+09  0.442  0.6372  0.02895  -0.03071  0.02986  -0.001629  0.7326  -0.2171
6.278e+09  0.684  0.5133  -0.02714  0.00825  0.02792  -0.002457  0.5901  -0.4842
6.279e+09  0.7891  0.2656  0.004303  -0.02064  -0.01732  -0.01465  0.4173  -0.6253
6.28e+09  0.7948  -0.1112  0.009525  -0.0006496  -0.03808  -0.02787  0.1688  -0.7374
6.281e+09  0.7519  -0.3324  0.006323  -0.01342  -0.01797  -0.03126  -0.1303  -0.762
6.282e+09  0.5666  -0.5941  0.001662  -0.009774  0.009661  -0.002156  -0.3809  -0.6677
6.284e+09  0.3541  -0.7632  -0.009943  0.002956  0.04435  0.008989  -0.6006  -0.5523
6.285e+09  0.03469  -0.8316  -0.0005435  0.01279  -0.01684  0.108  -0.7225  -0.302
6.286e+09  -0.2452  -0.8267  -0.01153  0.02071  0.0003271  0.03152  -0.7738  -0.01518
6.288e+09  -0.4579  -0.6716  -0.002303  -0.002904  -0.05872  -0.02753  -0.7593  0.2294
6.289e+09  -0.7206  -0.4095  0.0005237  -0.01686  0.001559  -0.0486  -0.6202  0.4994
6.29e+09  -0.8293  -0.1922  -0.006635  0.02941  -0.0388  0.02444  -0.4222  0.7034
6.291e+09  -0.8311  0.08611  0.01827  0.00592  0.02506  -0.001981  -0.1668  0.7663
6.292e+09  -0.6952  0.413  -0.018  0.007207  0.08089  0.04208  0.1388  0.7817
6.294e+09  -0.6074  0.6016  0.002255  -0.009865  0.004982  -0.02976  0.4052  0.7144
6.295e+09  -0.3485  0.7243  -0.009185  0.005343  -0.0124  0.0009407  0.625  0.5343
6.296e+09  -0.03362  0.8953  -0.01546  -0.03022  0.02125  0.01335  0.7739  0.2811
6.298e+09  0.2734  0.768  -0.004237  -0.03103  -0.02387  0.01819  0.8512  0.02556
6.299e+09  0.558  0.6785  0.02199  -0.01898  0.04826  0.02196  0.793  -0.2788
6.3e+09  0.7098  0.371  0.008188  -0.0139  -0.01468  0.02475  0.6373  -0.538
6.301e+09  0.8174  0.133  -0.01722  0.01739  0.006905  -0.002704  0.4303  -0.7183
6.302e+09  0.7729  -0.1241  -0.004671  -0.008415  -0.02159  -0.01816  0.1818  -0.8291
6.304e+09  0.7114  -0.3964  0.01709  0.003247  -0.01766  -0.02359  -0.151  -0.8245
6.305e+09  0.5335  -0.6605  0.02072  0.005248  -0.006481  0.08604  -0.4198  -0.7423
6.306e+09  0.2988  -0.7482  0.02227  0.004441  0.02567  0.01588  -0.6543  -0.5493
6.308e+09  -0.004607  -0.7883  0.005752  0.001398  -0.04845  0.04762  -0.7955  -0.2963
6.309e+09  -0.3108  -0.7954  0.02277  -0.01428  -0.01364  0.05691  -0.8618  0.006127
6.31e+09  -0.5496  -0.6548  0.02071  -0.009393  -0.0267  -0.04093  -0.7974  0.2903
6.311e+09  -0.7045  -0.4281  0.02045  0.007833  0.01268  -0.008976  -0.6665  0.5491
6.312e+09  -0.7821  -0.1718  0.01585  0.02976  0.03707  -0.02334  -0.4229  0.7363
6.314e+09  -0.8586  0.1076  -0.01734  0.01572  -0.001156  -0.001866  -0.1752  0.8444
6.315e+09  -0.7148  0.4905  0.0009429  0.01431  0.01266  0.04335  0.1305  0.882
6.316e+09  -0.5356  0.6074  0.008385  0.009338  -0.01977  -0.03022  0.4373  0.7734
6.318e+09  -0.2805  0.8188  0.03177  -0.0008324  0.00954  -0.04458  0.6549  0.5883
6.319e+09  0.01252  0.8474  0.01248  -0.0199  -0.03647  -0.001521  0.8151  0.3179
6.32e+09  0.3202  0.8009  -0.002837  0.003505  0.01118  -0.01701  0.8788  0.0283
6.321e+09  0.5701  0.5618  -0.0009441  -0.03012  0.007536  0.01526  0.8273  -0.2936
6.322e+09  0.7955  0.3823  -0.006692  -0.001832  -0.01806  0.007309  0.7084  -0.5577
6.324e+09  0.9137  0.1006  0.01396  0.01729  0.004638  -0.02094  0.4837  -0.7803
6.325e+09  0.8248  -0.1419  -0.03463  0.01436  0.02241  0.03522  0.1697  -0.8465
6.326e+09  0.7006  -0.4839  -0.03059  -0.01843  -0.01879  0.0171  -0.1333  -0.8654
6.328e+09  0.5149  -0.6968  -0.009206  -0.006948  0.01922  0.01552  -0.397  -0.7961
6.329e+09  0.2537  -0.8327  0.01856  0.0216  0.02876  -0.0146  -0.6439  -0.601
6.33e+09  -0.06783  -0.8691  0.002578  0.01248  0.02092  -0.01662  -0.8595  -0.3488
6.331e+09  -0.3471  -0.7735  0.01212  0.02949  -0.04086  0.008573  -0.9245  -0.03823
6.332e+09  -0.6065  -0.5741  0.01945  0.02716  9.204e-05  0.02541  -0.8838  0.3002
6.334e+09  -0.6974  -0.333  -0.0135  -0.02545  0.0273  0.03387  -0.7122  0.5593
6.335e+09  -0.8434  -0.04319  0.02296  0.01019  -0.01756  0.009934  -0.4699  0.7899
6.336e+09  -0.8492  0.238  -0.0004321  -0.0104  0.02559  0.03737  -0.2002  0.8724
6.338e+09  -0.7214  0.5277  -0.02351  -0.02295  0.007664  0.006979  0.1171  0.941
6.339e+09  -0.458  0.7398  0.02089  0.00609  0.007466  -0.0587  0.4795  0.829
6.34e+09  -0.1365  0.8732  -0.002185  0.01027  0.05308  -0.0005824  0.6785  0.6229
6.341e+09  0.112  0.8431  -0.03095  0.01169  0.005057  -0.01321  0.8514  0.3894
6.342e+09  0.402  0.7616  0.03349  -0.004519  -0.01261  -0.007221  0.9273  0.03939
6.344e+09  0.6549  0.5402  0.004089  0.003627  -0.03579  -0.005975  0.8661  -0.2889
6.345e+09  0.8069  0.3183  -0.03482  0.02066  0.00947  -0.03385  0.7649  -0.5712
6.346e+09  0.8724  0.02099  0.007047  -0.006285  0.0005732  0.02136  0.4955  -0.7912
6.348e+09  0.8336  -0.2844  0.009518  -0.02406  0.02498  0.01275  0.2332  -0.8978
6.349e+09  0.6433  -0.5973  -0.0169  -0.02392  -0.0169  -0.02205  -0.1064  -0.8999
6.35e+09  0.405  -0.7751  0.02292  -0.003475  0.06977  0.01077  -0.4409  -0.8437
6.351e+09  0.1163  -0.8828  0.03781  -0.002877  0.04996  0.0113  -0.6818  -0.6751
6.352e+09  -0.1877  -0.8318  0.01853  -0.01173  0.02284  0.01246  -0.8691  -0.3681
6.354e+09  -0.4883  -0.7295  -0.01402  0.0119  -0.04694  0.01489  -0.9292  -0.0599
6.355e+09  -0.6684  -0.5041  0.002262  -0.04771  -0.0183  0.001447  -0.8981  0.2811
6.356e+09  -0.8695  -0.2413  0.004348  0.002984  0.02526  0.008804  -0.7447  0.5347
6.358e+09  -0.8723  0.02872  0.02189  0.01586  0.01843  -0.05137  -0.5486  0.7738
6.359e+09  -0.8128  0.3562  -0.002098  0.04757  -0.0468  0.004542  -0.2413  0.9123
6.36e+09  -0.6275  0.5791  -0.001833  -0.0126  -0.002166  -0.006742  0.1202  0.9512
6.361e+09  -0.3682  0.7895  -0.01737  0.004039  0.01136  -0.007047  0.4498  0.8445
6.362e+09  -0.07567  0.8953  0.02038  -0.008679  -0.01709  -0.002396  0.7122  0.6953
6.364e+09  0.2466  0.8541  0.01211  -0.02514  -0.04539  -0.02464  0.8931  0.3999
6.365e+09  0.5744  0.7086  -0.001786  -0.006315  0.03319  -0.02005  0.9007  0.08725
6.366e+09  0.7105  0.4954  0.02583  0.03062  0.005511  0.01844  0.8749  -0.2562
6.368e+09  0.889  0.2087  -0.02794  0.009665  0.01365  -0.03059  0.7569  -0.5466
6.369e+09  0.8898  -0.06667  0.0237  -0.009431  -0.04405  -0.0037  0.5854  -0.7858
6.37e+09  0.8173  -0.4444  0.004775  -0.003399  0.006406  -0.0009264  0.2155  -0.8849
6.371e+09  0.607  -0.6396  -0.04086  -0.002649  -0.04245  -0.004285  -0.07358  -0.9295
6.372e+09  0.3126  -0.7724  -0.01657  -0.004187  -0.007448  0.03573  -0.4019  -0.8703
6.374e+09  0.08571  -0.8982  0.003439  -0.003267  -0.00797  -0.01089  -0.6753  -0.6668
6.375e+09  -0.2938  -0.8558  0.002925  -0.03265  -0.002944  0.02152  -0.8186  -0.3948
6.376e+09  -0.5646  -0.7098  0.009948  -0.007942  -0.06431  0.03999  -0.8955  -0.067
6.378e+09  -0.7431  -0.454  0.01027  0.002344  -0.04041  0.04538  -0.9076  0.2127
6.379e+09  -0.8785  -0.1754  -0.0154  -0.002001  -0.01688  0.008516  -0.8072  0.5206
6.38e+09  -0.8885  0.1938  0.01827  0.000959  0.01025  0.005261  -0.5825  0.7885
6.381e+09  -0.7666  0.4044  0.01081  0.0338  0.004071  0.003696  -0.2828  0.8643
6.382e+09  -0.5667  0.7144  -0.003297  0.0001579  -0.01441  0.03684  0.036  0.9185
6.384e+09  -0.3031  0.8495  -0.03119  0.05297  0.02634  0.0129  0.4018  0.8514
6.385e+09  -0.009507  0.8974  0.01546  -0.007262  0.05352  -0.009631  0.6324  0.6903
6.386e+09  0.3455  0.7937  -0.01178  -0.009515  0.01227  0.02334  0.8236  0.4009
6.388e+09  0.5957  0.6427  0.03172  -0.05023  0.02113  0.02502  0.9134  0.1177
6.389e+09  0.7975  0.4367  0.0007393  -0.02179  -0.01477  -0.01556  0.9025  -0.1862
6.39e+09  0.8473  0.1006  0.04793  -0.02343  0.01455  -0.009474  0.7969  -0.5077
6.391e+09  0.8892  -0.2024  -0.01677  -0.01614  -0.01776  -0.01912  0.5404  -0.762
6.392e+09  0.7331  -0.4812  -0.01897  0.02436  -0.001814  -0.01686  0.2781  -0.8419
6.394e+09  0.5043  -0.6717  -0.003849  0.009321  -0.01392  0.05711  -0.03302  -0.935
6.395e+09  0.2449  -0.8753  -0.005486  0.01778  -0.01954  0.01059  -0.3488  -0.8815
6.396e+09  -0.06084  -0.886  0.0172  -0.02283  -0.02803  -0.02113  -0.5964  -0.6789
6.398e+09  -0.3191  -0.763  -0.0235  -0.01189  -0.00267  0.01617  -0.8056  -0.3899
6.399e+09  -0.609  -0.6652  0.009364  0.03365  0.0311  0.01073  -0.8973  -0.1239
6.4e+09  -0.7832  -0.3811  -0.02656  0.006129  -0.0104  0.01243  -0.8976  0.195
6.401e+09  -0.8729  -0.07029  -0.02282  0.003098  0.006339  0.007362  -0.7846  0.475
6.402e+09  -0.841  0.244  -0.009877  0.001983  0.0232  0.02352  -0.6021  0.7476
6.404e+09  -0.7257  0.4875  0.04415  0.002146  -0.01259  -0.001865  -0.2952  0.8841
6.405e+09  -0.538  0.7028  -0.004812  -0.0333  0.02135  0.04084  0.01659  0.8746
6.406e+09  -0.2368  0.8612  -0.02806  0.01568  -0.002412  0.01723  0.3421  0.8255
6.408e+09  0.07174  0.8564  -0.01038  -9.106e-05  -0.01856  -0.006846  0.6101  0.6869
6.409e+09  0.3768  0.794  -0.02799  -0.006031  0.02071  0.00133  0.7776  0.4782
6.41e+09  0.6349  0.6131  0.0005888  -0.0302  0.05096  0.0005308  0.8845  0.1644
6.411e+09  0.7609  0.3566  0.02642  0.01526  0.0004814  -0.0524  0.8628  -0.08952
6.412e+09  0.8774  0.04683  -9.946e-05  -0.005147  -0.02475  0.0168  0.8012  -0.43
6.414e+09  0.8407  -0.2541  0.003185  -0.005153  -0.0003541  0.02042  0.5941  -0.7035
6.415e+09  0.7618  -0.5145  -0.02439  0.0287  0.005864  0.002594  0.2968  -0.7994
6.416e+09  0.5234  -0.6991  0.04305  -0.01158  0.00667  0.009225  0.03417  -0.8892
6.418e+09  0.1828  -0.8437  -0.01167  -0.01176  0.026  0.002478  -0.2567  -0.8286
6.419e+09  -0.08139  -0.8951  0.007672  0.03382  -0.001805  0.03122  -0.5447  -0.6642
6.42e+09  -0.3607  -0.827  -0.004892  0.0258  -0.06007  -0.01209  -0.7669  -0.467
6.421e+09  -0.6552  -0.6339  0.02624  -0.01351  0.005383  -0.01178  -0.8581  -0.1992
6.422e+09  -0.8098  -0.341  0.03401  0.02637  -0.01357  -0.01398  -0.8799  0.09811
6.424e+09  -0.8534  -0.06798  0.0219  0.01312  -0.01429  0.0117  -0.7551  0.4086
6.425e+09  -0.8315  0.256  -0.02399  -0.04381  0.001463  0.01351  -0.5915  0.6318
6.426e+09  -0.7155  0.5423  0.04763  0.01666  0.009797  0.03607  -0.3628  0.774
6.428e+09  -0.472  0.735  -0.0233  0.08172  -0.002598  -0.02045  -0.05385  0.8344
6.429e+09  -0.211  0.874  0.0007532  0.01724  0.004856  -0.009149  0.2939  0.8258
6.43e+09  0.09802  0.8933  0.002829  0.03851  0.005558  -0.006251  0.5616  0.7394
6.431e+09  0.4378  0.8165  0.02581  -0.02891  -0.002294  0.00641  0.7602  0.448
6.432e+09  0.6517  0.5599  0.02228  -0.01546  -0.04354  0.02406  0.8198  0.2356
6.434e+09  0.8297  0.3133  0.03737  0.03736  0.04741  -0.01932  0.8238  -0.06365
6.435e+09  0.9178  0.05532  0.02809  0.008239  -0.02042  0.03384  0.807  -0.4111
6.436e+09  0.8724  -0.2443  -0.0122  -0.02282  -0.02246  -0.03103  0.6205  -0.6148
6.438e+09  0.7143  -0.5136  0.06161  -0.0125  -0.04481  0.03958  0.3083  -0.7669
6.439e+09  0.4686  -0.7722  -0.02963  -0.01003  0.02252  -0.007969  0.04383  -0.8467
6.44e+09  0.2401  -0.8816  -0.008695  -0.01811  -0.005239  0.01126  -0.2301  -0.7725
6.441e+09  -0.1394  -0.8953  -0.03618  0.01756  -0.001057  -0.003184  -0.4979  -0.7234
6.442e+09  -0.3891  -0.7928  0.02331  0.01984  0.06099  -0.03126  -0.7032  -0.4633
6.444e+09  -0.6805  -0.6147  0.03931  -0.03579  -0.007248  -0.03397  -0.8115  -0.2071
6.445e+09  -0.7758  -0.3196  -0.002553  0.01849  0.006746  -0.02687  -0.854  0.1187
6.446e+09  -0.9254  -0.03604  -0.01965  -0.002024  -0.002423  0.02918  -0.7974  0.346
6.448e+09  -0.8689  0.2859  0.005303  -0.01652  0.05396  0.01363  -0.5718  0.5541
6.449e+09  -0.7076  0.5439  -0.02923  0.01745  -0.01939  -0.0003406  -0.3754  0.788
6.45e+09  -0.4965  0.752  0.00127  -0.03941  0.04012  -0.04295  -0.07071  0.8175
6.451e+09  -0.1711  0.8556  -0.0007022  -0.05281  -0.01441  0.01403  0.1956  0.7926
6.452e+09  0.1855  0.8572  -0.06961  0.03246  -0.03948  -0.003723  0.5392  0.6623
6.454e+09  0.442  0.7963  -0.01413  -0.0161  0.02545  -0.04134  0.6612  0.4752
6.455e+09  0.7516  0.593  0.01028  -0.00417  -0.075  0.06201  0.8133  0.1932
6.456e+09  0.8505  0.29  0.007283  -0.02503  -0.0149  -0.01026  0.8465  -0.07581
6.458e+09  0.8976  0.04398  0.006413  0.02716  -0.04604  0.008968  0.7297  -0.3833
6.459e+09  0.8304  -0.2932  -0.02372  0.01459  0.015  0.004066  0.5511  -0.5669
6.46e+09  0.6763  -0.5694  -0.0003464  0.03866  -0.01912  -0.05951  0.3359  -0.7229
6.461e+09  0.4609  -0.7615  -0.08227  -0.03974  0.004919  0.0275  0.06409  -0.7917
6.462e+09  0.1896  -0.8273  0.01871  -0.0444  -0.009463  0.0193  -0.2211  -0.8083
6.464e+09  -0.1304  -0.8419  -0.006126  0.005958  0.0473  0.01508  -0.4729  -0.656
6.465e+09  -0.4357  -0.78  0.02201  -0.005221  0.02426  0.03115  -0.6384  -0.4478
6.466e+09  -0.6931  -0.5979  -0.0011  -0.02689  -0.03042  -0.04469  -0.8143  -0.211
6.468e+09  -0.8266  -0.3257  0.0164  -0.02404  -0.04637  -0.01068  -0.7891  0.07005
6.469e+09  -0.9121  -0.0273  0.01775  -0.01789  0.01265  0.01557  -0.7145  0.3078
6.47e+09  -0.8158  0.3383  0.01199  -0.001583  0.008644  0.01935  -0.5769  0.5611
6.471e+09  -0.7225  0.5865  -0.0003243  0.0204  -0.03788  0.02015  -0.3372  0.7487
6.472e+09  -0.4949  0.7822  0.03078  0.003952  0.01897  -0.02226  -0.05672  0.7369
6.474e+09  -0.113  0.928  0.02353  -0.01304  0.03105  -0.0001029  0.1922  0.7852
6.475e+09  0.159  0.9617  -0.003552  -0.03725  0.04464  -0.001138  0.4468  0.6442
6.476e+09  0.4246  0.8226  -0.01375  -0.01921  -0.0359  -0.02002  0.6349  0.446
6.478e+09  0.7072  0.5557  0.007505  -0.02759  0.03556  -0.02486  0.7709  0.2158
6.479e+09  0.9253  0.3321  0.04384  0.01654  -0.01688  -0.0266  0.7842  -0.07295
6.48e+09  0.9227  0.04028  0.02753  0.01662  -0.01219  0.04901  0.7438  -0.3658
6.481e+09  0.8189  -0.295  0.03832  0.01165  0.001812  -0.03032  0.5312  -0.5645
6.482e+09  0.6492  -0.6065  -0.01196  0.02118  0.02099  -0.03546  0.2834  -0.7069
6.484e+09  0.4401  -0.8137  -0.007658  0.03575  0.04772  -0.02154  0.04329  -0.7805
6.485e+09  0.1484  -0.8977  -0.01075  -0.0307  -0.03606  -0.02147  -0.2247  -0.7659
6.486e+09  -0.1395  -0.8829  0.005458  -0.003033  -0.01491  -0.0069  -0.45  -0.6785
6.488e+09  -0.4663  -0.7869  0.001872  0.01688  0.009896  0.03139  -0.6087  -0.4583
6.489e+09  -0.7179  -0.5662  -0.02894  -0.009785  -0.02285  0.01865  -0.7246  -0.1883
6.49e+09  -0.9107  -0.2441  -0.01908  0.008009  0.04228  -0.002504  -0.777  0.05781
6.491e+09  -0.9145  0.07061  0.0212  0.002833  -0.007365  -0.0005157  -0.6917  0.371
6.492e+09  -0.8937  0.341  -0.000799  0.02808  0.00229  -0.04219  -0.5415  0.5602
6.494e+09  -0.7057  0.6314  -0.0186  -0.02988  0.03912  -0.01731  -0.3409  0.7268
6.495e+09  -0.4672  0.8487  0.02642  0.01203  -0.001396  0.03026  -0.005308  0.7584
6.496e+09  -0.1339  0.9321  0.06765  -0.03397  -0.03023  0.0235  0.227  0.7287
6.498e+09  0.1861  0.8761  -0.007897  0.0361  0.03576  0.009756  0.4395  0.6063
6.499e+09  0.5071  0.8179  -0.0003156  0.02891  -0.01851  -0.04906  0.6324  0.4102
6.5e+09  0.7205  0.5256  -0.002381  0.01052  0.003626  0.02575  0.7469  0.155
6.501e+09  0.8702  0.2794  -0.02119  -0.03285  0.001448  -0.02182  0.752  -0.09886
6.502e+09  0.9311  -0.03657  0.006009  0.0002291  0.01869  -0.01605  0.6924  -0.3254
6.504e+09  0.8792  -0.3602  -0.009373  -0.02527  -0.003901  -0.006737  0.5003  -0.5807
6.505e+09  0.6565  -0.6371  -0.01671  -0.001521  -0.03415  0.03961  0.2807  -0.6912
6.506e+09  0.4405  -0.8327  0.007594  0.002889  -0.05403  0.008941  0.05241  -0.7387
6.508e+09  0.09144  -0.9243  -0.02389  -0.005943  -0.03996  -0.02908  -0.2406  -0.7271
6.509e+09  -0.2254  -0.8941  -0.02127  0.02041  0.007421  -0.003286  -0.4795  -0.5625
6.51e+09  -0.5686  -0.7657  0.02029  -0.004973  0.01037  0.05791  -0.6892  -0.4139
6.511e+09  -0.7009  -0.5716  0.01222  0.007906  -0.03151  -0.07152  -0.7519  -0.1409
6.512e+09  -0.9989  -0.2436  -0.01168  -0.006866  -0.01393  -0.01312  -0.7431  0.1221
6.514e+09  -0.9345  0.1251  -0.0001742  0.001779  -0.04655  -0.01439  -0.6289  0.3775
6.515e+09  -0.8807  0.3961  0.00955  0.01216  -0.00878  -0.01642  -0.4605  0.5378
6.516e+09  -0.6807  0.6715  0.01518  0.03158  -0.03287  -0.01075  -0.2455  0.7259
6.518e+09  -0.4093  0.8778  0.02793  -0.00247  -0.028  -0.01432  0.01218  0.7488
6.519e+09  -0.01835  0.9408  0.01669  -0.02412  0.02034  0.03216  0.2644  0.6676
6.52e+09  0.2915  0.9038  -0.0255  0.0253  0.04834  -0.001824  0.4844  0.561
6.521e+09  0.5922  0.7809  -0.02751  0.007518  0.002971  0.03937  0.6933  0.3459
6.522e+09  0.8092  0.4953  -0.01083  0.01776  0.002725  -0.0431  0.7553  0.09819
6.524e+09  0.9736  0.2371  -0.01437  0.02568  0.01157  -0.002224  0.7144  -0.1758
6.525e+09  0.9133  -0.1866  -0.04007  -0.01396  -0.04485  0.05292  0.6051  -0.414
6.526e+09  0.8583  -0.4436  -0.00849  0.03009  0.01118  -0.002419  0.4577  -0.5773
6.528e+09  0.6278  -0.7593  -0.02441  0.02898  0.005457  0.02182  0.2129  -0.6901
6.529e+09  0.3202  -0.9125  -0.0126  0.01262  0.06831  0.02448  -0.04493  -0.6776
6.53e+09  -0.009869  -0.953  0.02617  -0.01124  0.008055  -0.03819  -0.3075  -0.592
6.531e+09  -0.2988  -0.9393  -0.01298  -0.008152  0.01938  -0.01233  -0.4898  -0.4812
6.532e+09  -0.6373  -0.7807  0.005921  0.02885  0.01101  -0.01256  -0.5773  -0.2651
6.534e+09  -0.8617  -0.4917  0.02531  -0.02777  -0.01726  0.005049  -0.6297  -0.1062
6.535e+09  -0.9848  -0.1538  -0.02984  0.001487  0.05943  -0.01973  -0.6307  0.1234
6.536e+09  -0.9225  0.1977  0.01453  0.02048  0.01791  -0.005406  -0.5189  0.284
6.538e+09  -0.78  0.5267  -0.002572  -0.006076  0.02373  0.001235  -0.4399  0.4754
6.539e+09  -0.5553  0.8112  0.03349  0.0319  0.03195  -0.00225  -0.2549  0.591
6.54e+09  -0.2872  0.9748  -0.02557  -0.002354  -0.01245  0.01102  -0.0467  0.6917
6.541e+09  0.07216  0.9435  -0.01104  0.009045  -0.001428  -0.0354  0.1951  0.6572
6.542e+09  0.4153  0.8931  0.01972  -0.02531  -0.00694  0.007449  0.4408  0.5873
6.544e+09  0.7157  0.671  0.008282  -0.0002188  0.02286  -0.0452  0.5832  0.394
6.545e+09  0.9151  0.3968  0.01992  0.007707  0.001572  -0.02573  0.6834  0.1655
6.546e+09  0.972  0.04945  0.03286  -0.0001148  0.01459  0.02471  0.7441  -0.07508
6.548e+09  0.8782  -0.2342  0.006976  -0.01133  -0.01756  -0.04829  0.6448  -0.323
6.549e+09  0.7349  -0.5602  -0.02833  -0.0003765  0.01392  -0.05041  0.4913  -0.4882
6.55e+09  0.5868  -0.7654  -0.001814  -0.0008117  0.02927  0.01899  0.2841  -0.6932
