# Hz S RI R 50
6.25e+09  -0.2822  0.8518  0.005287  -0.0007126  0.0224  -0.02674  0.1654  0.4878
6.251e+09  0.01641  0.8475  -0.006234  0.01248  -0.006901  -0.04016  0.3901  0.383
6.252e+09  0.3202  0.7461  -0.005772  -0.01478  0.04549  -0.0183  0.517  0.2539
6.254e+09  0.5222  0.6832  -0.003045  -0.01356  0.044  0.005664  0.5798  0.004184
6.255e+09  0.7513  0.409  -0.01327  0.0148  0.03842  0.01399  0.5961  -0.2372
6.256e+09  0.8786  0.1208  -0.003305  -0.03208  0.01545  0.0458  0.4807  -0.4158
6.258e+09  0.824  -0.1008  -0.03781  0.009067  0.02863  0.01277  0.2814  -0.5983
6.259e+09  0.7874  -0.4592  0.003608  -0.05409  0.001798  0.004396  0.05403  -0.6573
6.26e+09  0.5005  -0.6764  0.02413  0.01426  0.0297  0.01091  -0.1801  -0.6554
6.261e+09  0.2759  -0.8186  0.01367  -0.00919  0.01201  0.02286  -0.4344  -0.5364
6.262e+09  -0.03432  -0.8438  -0.01226  0.007443  0.05157  0.0368  -0.6172  -0.3512
6.264e+09  -0.3025  -0.7819  -0.0003349  0.007015  0.01502  -0.03506  -0.702  -0.1195
6.265e+09  -0.5729  -0.6206  0.02116  -0.0162  0.06081  0.07126  -0.6884  0.1339
6.266e+09  -0.7913  -0.3404  -0.02336  0.001113  0.01346  0.01433  -0.6018  0.3842
6.268e+09  -0.8385  -0.1517  -0.01084  0.01339  0.0322  0.03461  -0.4257  0.5659
6.269e+09  -0.8226  0.2336  0.002036  0.01108  0.03422  0.02113  -0.2069  0.6983
6.27e+09  -0.6872  0.5096  0.05161  0.01122  0.001872  0.07671  0.06743  0.7435
6.271e+09  -0.5345  0.7011  -0.02206  0.0113  0.01881  0.002943  0.3337  0.6809
6.272e+09  -0.2454  0.8885  -0.01223  -0.02939  0.04337  0.003486  0.5162  0.5044
6.274e+09  0.05316  0.8253  -0.01564  -0.02053  -0.005195  -0.01258  0.7116  0.2862
6.275e+09  0.3287  0.7409  -0.01148  0.006068  -0.01769  -0.02298  0.7593  0.05987
6.276e+09  0.547  0.6132  0.02766  -0.001897  0.008942  -0.03752  0.7115  -0.2395
6.278e+09  0.734  0.415  0.007923  -0.01378  0.0056  -0.03007  0.6003  -0.4654
6.279e+09  0.7776  0.134  -0.02556  -0.02486  -0.003135  -0.04503  0.4519  -0.6672
6.28e+09  0.7988  -0.2205  0.006738  0.003131  -0.0355  0.03031  0.164  -0.7509
6.281e+09  0.6719  -0.5184  0.01439  -0.02147  -0.004233  0.01397  -0.08798  -0.7756
6.282e+09  0.5168  -0.6807  0.001101  0.01168  0.0783  0.0174  -0.3653  -0.688
6.284e+09  0.1817  -0.7946  -0.01117  0.002078  0.03037  -0.01497  -0.5755  -0.5225
6.285e+09  -0.09302  -0.832  -0.003727  -0.0124  0.03447  -0.0375  -0.7447  -0.3457
6.286e+09  -0.3518  -0.7465  -0.009518  -0.008283  -0.002589  0.03256  -0.7979  -0.007974
6.288e+09  -0.6021  -0.577  0.01511  -0.03039  -0.009125  -0.00597  -0.7541  0.2555
6.289e+09  -0.7181  -0.3604  0.004961  0.02849  0.009921  -0.009685  -0.6338  0.5027
6.29e+09  -0.833  -0.06992  -0.01502  -0.02262  0.02431  -0.05791  -0.4139  0.6889
6.291e+09  -0.8267  0.1876  -0.02301  0.03243  -0.02508  0.008169  -0.1744  0.8054
6.292e+09  -0.6327  0.4995  -0.03633  -0.01355  -0.02117  -0.008116  0.1121  0.8049
6.294e+09  -0.4862  0.6803  -0.02711  0.008185  0.01215  0.03903  0.3837  0.6968
6.295e+09  -0.2333  0.8105  -0.009183  0.007516  0.006687  0.04006  0.6022  0.5186
6.296e+09  0.06303  0.8504  -0.03  0.0141  0.02719  -0.003732  0.7778  0.2958
6.298e+09  0.4237  0.7607  -0.03661  0.03179  0.02381  -0.01965  0.7989  0.03872
6.299e+09  0.6285  0.5302  0.01441  0.009382  -0.003879  -0.01289  0.8062  -0.2544
6.3e+09  0.7558  0.2738  -0.007032  0.008165  0.03812  0.01187  0.6613  -0.5161
6.301e+09  0.8798  0.02385  0.01785  0.01773  -0.006764  -0.0208  0.446  -0.7201
6.302e+09  0.7907  -0.2685  -0.0006372  0.0122  -0.01909  -0.01048  0.1687  -0.7802
6.304e+09  0.6247  -0.5588  0.01043  -0.0188  -0.00307  -0.01363  -0.1195  -0.8309
6.305e+09  0.4789  -0.7251  -0.0164  0.003005  -0.04848  0.03067  -0.4092  -0.7538
6.306e+09  0.1366  -0.8255  0.02723  0.005846  -0.001966  0.01603  -0.6585  -0.5295
6.308e+09  -0.1571  -0.802  -0.006885  -0.003019  0.0004731  0.01356  -0.7934  -0.2819
6.309e+09  -0.4427  -0.7163  0.009698  -0.01068  0.04635  -0.001389  -0.8339  -0.0167
6.31e+09  -0.6912  -0.525  0.0004381  0.002208  -0.02073  0.007296  -0.8068  0.2761
6.311e+09  -0.7848  -0.2719  -0.02295  -0.02058  0.03253  0.008962  -0.6469  0.6
6.312e+09  -0.8451  0.0002309  -0.02598  0.01659  -2.544e-05  0.01423  -0.4269  0.726
6.314e+09  -0.7392  0.3015  -0.01887  0.03548  0.007643  -0.02496  -0.1757  0.8769
6.315e+09  -0.6049  0.5224  -0.00396  -0.003377  0.01537  0.02684  0.1392  0.8675
6.316e+09  -0.4215  0.7469  0.005852  -0.005442  0.01028  0.01802  0.4371  0.7818
6.318e+09  -0.04784  0.8605  -0.01932  -0.01656  -0.005432  0.01588  0.6734  0.5681
6.319e+09  0.1594  0.8523  0.00894  0.03324  0.02455  0.008763  0.8127  0.3155
6.32e+09  0.4802  0.7194  0.02688  -0.004067  -0.01909  -0.01197  0.9108  0.008061
6.321e+09  0.6959  0.4903  0.0003692  0.003886  0.03795  0.03557  0.8706  -0.2987
6.322e+09  0.8425  0.2454  -0.0091  -0.01735  -0.01263  -0.03399  0.6682  -0.5577
6.324e+09  0.8471  -0.07329  -0.02305  0.005557  -0.08846  0.001881  0.4695  -0.7618
6.325e+09  0.7385  -0.3216  -0.01416  0.01946  0.03138  -0.02252  0.1832  -0.8605
6.326e+09  0.5912  -0.6468  -0.02437  0.01391  -0.01704  -0.01695  -0.1474  -0.8777
6.328e+09  0.3535  -0.7578  -0.02164  0.00455  0.008064  0.04977  -0.4148  -0.8155
6.329e+09  0.07951  -0.8513  0.01215  0.0245  -0.03368  -0.0118  -0.6795  -0.6147
6.33e+09  -0.1984  -0.853  -0.003438  0.01597  0.01918  -0.02636  -0.8496  -0.3357
6.331e+09  -0.5054  -0.665  -0.01094  0.0005866  0.002763  -0.002279  -0.9004  -0.04979
6.332e+09  -0.7385  -0.5021  0.000988  -0.009494  -0.008428  -0.02393  -0.8471  0.2714
6.334e+09  -0.8393  -0.239  0.00709  0.01236  -0.03874  0.0024  -0.6867  0.5762
6.335e+09  -0.8648  0.08793  -0.01364  0.007897  -0.009323  -0.0215  -0.486  0.7809
6.336e+09  -0.7499  0.4038  -0.0019  -0.002907  -0.01142  -0.01477  -0.2059  0.9026
6.338e+09  -0.5885  0.6776  -0.02127  0.02101  0.03042  -0.008842  0.1398  0.9542
6.339e+09  -0.3257  0.7953  -0.001176  0.02522  -0.05821  -0.07863  0.4231  0.8433
6.34e+09  0.003669  0.9374  -0.009081  0.002627  -0.008427  0.03927  0.6778  0.5892
6.341e+09  0.3251  0.8387  0.0176  -0.007258  -0.03948  0.004773  0.8697  0.3707
6.342e+09  0.5413  0.6894  -0.006743  -0.008169  0.0222  -0.02311  0.9402  0.03876
6.344e+09  0.7878  0.4407  -0.01474  -0.0424  -0.03591  0.01765  0.8804  -0.278
6.345e+09  0.8788  0.1438  -0.02527  0.01702  0.01703  -0.01486  0.7489  -0.5865
6.346e+09  0.8611  -0.1555  -0.01306  -0.0004062  0.002828  0.02721  0.5234  -0.7823
6.348e+09  0.8155  -0.4534  -0.01386  -0.006848  0.03492  -0.0005687  0.2023  -0.9185
6.349e+09  0.4954  -0.7136  -0.008027  0.01698  -0.004248  -0.01608  -0.08821  -0.9458
6.35e+09  0.2495  -0.7907  0.02785  -0.01121  -0.01251  0.03991  -0.4295  -0.8432
6.351e+09  -0.02573  -0.908  -0.01196  0.01147  0.02024  0.003638  -0.6965  -0.6182
6.352e+09  -0.3486  -0.8714  0.02721  -0.002305  -0.01031  0.007677  -0.8199  -0.3439
6.354e+09  -0.6123  -0.6344  -0.02549  0.02646  -0.02418  0.00352  -0.9228  -0.06255
6.355e+09  -0.7687  -0.3786  0.004721  0.02077  -0.008632  0.0526  -0.9306  0.2852
6.356e+09  -0.888  -0.1316  -0.003268  0.01129  -0.05337  -0.02424  -0.764  0.5073
6.358e+09  -0.8819  0.2222  -0.0332  0.01565  -0.01232  -0.001177  -0.5204  0.8153
6.359e+09  -0.7674  0.5158  -0.05659  0.003208  0.002713  0.008495  -0.2168  0.9158
6.36e+09  -0.5191  0.7362  0.02577  -0.02144  0.01656  -0.009666  0.1078  0.9476
6.361e+09  -0.1883  0.8501  -0.01901  -0.00647  0.008559  -0.02371  0.4041  0.8536
6.362e+09  0.1113  0.891  0.02747  0.02493  0.003078  0.02432  0.6657  0.6648
6.364e+09  0.4086  0.7886  -0.0205  0.01225  -0.02981  0.02258  0.885  0.3882
6.365e+09  0.6228  0.6137  -0.01108  0.01674  0.001705  0.01956  0.95  0.0793
6.366e+09  0.8393  0.3346  0.01396  -0.0118  0.004921  0.002475  0.91  -0.278
6.368e+09  0.8909  0.03964  0.01532  -0.0354  0.01574  0.02522  0.8006  -0.5732
6.369e+09  0.8932  -0.3015  0.01388  0.004862  -0.005079  0.02499  0.5002  -0.7858
6.37e+09  0.728  -0.4973  -0.02477  -0.005904  -0.0153  -0.03402  0.2459  -0.9161
6.371e+09  0.4675  -0.7389  0.001754  0.02431  0.01969  -0.01965  -0.08269  -0.9769
6.372e+09  0.1836  -0.8215  0.01866  -0.05038  -0.00165  -0.001888  -0.3721  -0.8443
6.374e+09  -0.1628  -0.8676  -0.009421  0.01768  0.009329  -0.002233  -0.6363  -0.6813
6.375e+09  -0.4083  -0.7734  -0.01368  0.01648  0.01686  0.00829  -0.852  -0.4336
6.376e+09  -0.7156  -0.6021  0.004629  0.02648  0.05227  -0.03888  -0.9537  -0.07671
6.378e+09  -0.8311  -0.3372  -0.0009302  -0.00135  0.0002148  -0.008742  -0.9046  0.217
6.379e+09  -0.9058  -0.04971  -0.01649  -0.005487  0.005095  -0.02218  -0.7856  0.5302
6.38e+09  -0.8416  0.3429  -0.009201  -0.01664  0.003197  0.01377  -0.5688  0.7653
6.381e+09  -0.6885  0.5791  0.02251  -0.003596  -0.04023  -0.01023  -0.2812  0.9177
6.382e+09  -0.4733  0.7632  -0.01369  0.01008  -0.004441  -0.02364  0.04867  0.9234
6.384e+09  -0.09468  0.8719  0.02591  -0.00757  0.04833  -0.02281  0.3384  0.8408
6.385e+09  0.2094  0.8915  -0.01586  -0.007452  -0.01201  0.03725  0.6722  0.6892
6.386e+09  0.4735  0.7625  0.01963  0.01738  -0.03547  0.08199  0.817  0.4613
6.388e+09  0.6956  0.5879  -0.01576  -0.02277  -0.01158  -0.02746  0.9257  0.1365
6.389e+09  0.7779  0.2851  0.06007  -0.04443  0.031  -0.01433  0.9392  -0.19
6.39e+09  0.8948  -0.04812  0.03256  -0.03053  0.02091  0.005958  0.7778  -0.489
6.391e+09  0.8308  -0.351  0.02778  0.004246  -0.01551  0.009447  0.5409  -0.7453
6.392e+09  0.6236  -0.5898  -0.01968  0.006487  -0.03545  0.01351  0.2565  -0.9176
6.394e+09  0.4283  -0.827  -0.04622  -0.01003  0.06452  0.03173  -0.09007  -0.895
6.395e+09  0.1406  -0.8758  0.003369  0.02939  0.07348  0.03003  -0.3423  -0.8454
6.396e+09  -0.233  -0.8982  -0.02044  -0.01909  0.004736  -0.02899  -0.6563  -0.6567
6.398e+09  -0.5129  -0.7716  0.02476  -0.01323  -0.001894  -0.001455  -0.817  -0.4425
6.399e+09  -0.7493  -0.5295  0.01377  0.01049  0.02036  -0.0106  -0.8555  -0.1292
6.4e+09  -0.8291  -0.2676  -0.02585  0.03331  0.01402  -0.02008  -0.8579  0.1846
6.401e+09  -0.8956  0.06427  -0.01756  -0.01423  0.001882  -0.008821  -0.6988  0.4665
6.402e+09  -0.861  0.3826  -0.004914  -0.02209  0.01838  0.0489  -0.5865  0.7218
6.404e+09  -0.5697  0.5782  0.01346  -0.05375  0.01635  -0.0034  -0.2787  0.9027
6.405e+09  -0.4245  0.7969  -0.03587  -0.06262  0.009062  0.0006924  -0.04361  0.9062
6.406e+09  -0.1201  0.8883  0.007974  -0.01001  -0.001869  0.03435  0.3095  0.8403
6.408e+09  0.2161  0.8969  0.05137  -0.03614  -0.008155  -0.01644  0.5635  0.7023
6.409e+09  0.4184  0.7607  -0.02595  -0.004034  0.01959  -0.01898  0.7665  0.4356
6.41e+09  0.7118  0.48  0.01203  -0.01672  0.01059  -0.02523  0.8695  0.1907
6.411e+09  0.8051  0.2266  0.02575  -0.003069  -0.009069  0.08552  0.8724  -0.1443
6.412e+09  0.8635  -0.05946  0.02749  0.009747  0.01762  -0.02616  0.7916  -0.4692
6.414e+09  0.7828  -0.3703  0.008905  -0.01323  -0.01791  0.03881  0.5849  -0.6604
6.415e+09  0.6384  -0.6422  -0.001871  0.02112  0.01709  -0.008989  0.3136  -0.8399
6.416e+09  0.373  -0.8169  -0.01023  -0.0005562  0.02131  -0.002352  0.06717  -0.8982
6.418e+09  0.06169  -0.9006  -0.0004018  -0.005667  0.03939  0.007221  -0.2536  -0.8908
6.419e+09  -0.2333  -0.893  0.02179  0.01231  -0.01896  0.05456  -0.53  -0.6913
6.42e+09  -0.4909  -0.7401  -0.01679  -0.009062  0.02035  -0.07568  -0.7407  -0.4635
6.421e+09  -0.7615  -0.4827  0.002011  0.02488  0.02137  0.02159  -0.8681  -0.1764
6.422e+09  -0.8877  -0.2122  -0.008393  0.009048  0.0006767  -0.005807  -0.9092  0.07267
6.424e+09  -0.8647  0.1071  -0.00603  -0.009601  -0.005406  0.001511  -0.7801  0.3973
6.425e+09  -0.794  0.3811  0.0639  -0.02642  -0.02133  -0.004632  -0.6122  0.6268
6.426e+09  -0.6393  0.6373  -0.01549  -0.02496  -0.01045  0.02282  -0.3477  0.8137
6.428e+09  -0.315  0.7858  0.02777  0.00855  -0.02805  0.02555  -0.05188  0.8627
6.429e+09  0.002745  0.8829  0.03867  -0.009411  -0.009847  0.00581  0.2346  0.8935
6.43e+09  0.2733  0.894  -0.01949  0.01817  0.01696  0.06806  0.4971  0.6968
6.431e+09  0.4759  0.724  0.04685  0.004868  -0.05503  0.01287  0.7084  0.4789
6.432e+09  0.7209  0.5087  0.02188  -0.007632  0.001601  0.01429  0.8401  0.1742
6.434e+09  0.8558  0.1957  -0.004387  0.003962  -0.01608  0.01738  0.9369  -0.1251
6.435e+09  0.8825  -0.07823  -0.03522  0.02385  -0.006174  0.03484  0.7588  -0.4265
6.436e+09  0.7787  -0.3581  -0.02191  0.002821  0.004802  -0.03382  0.6177  -0.6179
6.438e+09  0.5834  -0.6795  0.025  -0.006416  0.0143  0.01258  0.3495  -0.7952
6.439e+09  0.3329  -0.8288  0.01187  0.0206  -0.03728  0.02629  0.09849  -0.8178
6.44e+09  0.05458  -0.9071  -0.02542  0.006999  0.005304  -0.02987  -0.2028  -0.8426
6.441e+09  -0.3046  -0.8509  0.01071  0.002283  0.01376  -0.01269  -0.475  -0.7528
6.442e+09  -0.5697  -0.7115  -0.008659  0.02388  -0.02405  -0.02563  -0.6831  -0.5251
6.444e+09  -0.752  -0.5207  0.03311  0.03424  -0.02297  0.02631  -0.8115  -0.1925
6.445e+09  -0.9304  -0.1485  -0.008569  0.05296  -0.02066  -0.02074  -0.8377  0.05831
6.446e+09  -0.9215  0.1478  0.0493  0.01875  -0.006539  -0.05195  -0.7434  0.3423
6.448e+09  -0.7788  0.4464  0.01528  -0.03165  0.005615  0.02017  -0.5714  0.6165
6.449e+09  -0.559  0.6764  -0.005893  0.01625  -0.02025  0.02403  -0.3219  0.7383
6.45e+09  -0.3079  0.8699  -0.04279  -0.008903  0.003763  -0.02471  -0.08142  0.8421
6.451e+09  -0.02196  0.8501  0.0104  -0.0233  -0.0005286  0.06729  0.1961  0.779
6.452e+09  0.2803  0.8876  0.003235  -0.02012  -0.0004632  -0.02277  0.4916  0.6346
6.454e+09  0.5898  0.6805  -0.02076  -0.006204  0.008166  0.02237  0.6996  0.4546
6.455e+09  0.7876  0.4573  -0.002545  0.005767  0.01978  -0.01422  0.7595  0.1937
6.456e+09  0.9001  0.182  0.07549  -0.01998  -0.02215  0.004669  0.7966  -0.06794
6.458e+09  0.9067  -0.1256  0.01316  0.0436  -0.007214  0.06078  0.7491  -0.3182
6.459e+09  0.7601  -0.468  0.01478  -0.001086  0.02049  0.01732  0.5781  -0.5976
6.46e+09  0.5703  -0.7029  -0.04081  0.03071  0.0572  0.03971  0.3556  -0.6981
6.461e+09  0.3126  -0.8456  -0.02273  -0.02292  -0.03423  -0.02623  0.08479  -0.7778
6.462e+09  0.04411  -0.9829  0.00628  -0.01505  0.007496  -0.02387  -0.2172  -0.7949
6.464e+09  -0.3318  -0.8833  -0.02186  0.03199  0.04324  0.02696  -0.4374  -0.6693
6.465e+09  -0.5342  -0.7398  -0.01188  0.02679  -0.04456  -0.02246  -0.6508  -0.4596
6.466e+09  -0.7404  -0.4387  -0.02063  -0.01399  0.02697  0.008642  -0.8002  -0.1896
6.468e+09  -0.932  -0.1294  0.02025  0.01756  -0.04194  0.01487  -0.7883  0.0737
6.469e+09  -0.8688  0.156  -0.05829  -0.005918  0.02759  0.01828  -0.7008  0.3291
6.47e+09  -0.735  0.4639  -0.008288  0.02299  -0.01331  -0.05347  -0.5538  0.5289
6.471e+09  -0.5763  0.6813  -0.005513  -0.01464  0.05175  0.0114  -0.336  0.7238
6.472e+09  -0.3302  0.8869  0.01076  0.01788  -0.006874  0.0431  -0.05095  0.8262
6.474e+09  0.0184  0.935  -0.02959  -0.01186  0.03819  0.01103  0.2052  0.7877
6.475e+09  0.3341  0.8596  -0.02971  0.01924  -0.003572  0.004242  0.4835  0.6963
6.476e+09  0.6407  0.703  -0.003569  -0.02015  0.03263  0.06543  0.6705  0.4466
6.478e+09  0.8205  0.4494  0.001061  0.01879  -0.02178  -0.03258  0.7441  0.2303
6.479e+09  0.929  0.1301  -0.0125  -0.009069  -0.03352  -0.01368  0.7949  -0.0824
6.48e+09  0.8955  -0.1921  0.02766  -0.02288  -0.01334  0.03682  0.732  -0.306
6.481e+09  0.7726  -0.5051  0.01106  0.01534  0.02656  -0.02866  0.5594  -0.538
6.482e+09  0.5407  -0.7559  0.02468  -0.02717  -0.05093  -0.005695  0.3188  -0.6726
6.484e+09  0.2863  -0.8565  -0.005378  0.02828  0.02061  -0.01956  0.03785  -0.7492
6.485e+09  -0.04935  -0.9202  -0.03518  0.03203  0.03629  -0.03877  -0.214  -0.7341
6.486e+09  -0.3484  -0.8545  0.004294  0.001087  -0.009262  0.02315  -0.4709  -0.6233
6.488e+09  -0.6865  -0.7515  0.007528  -0.01293  0.03935  0.01659  -0.6429  -0.4329
6.489e+09  -0.827  -0.4029  0.01567  -0.02799  -0.006989  0.01423  -0.7429  -0.1825
6.49e+09  -0.9292  -0.1241  0.008532  0.03287  9.938e-05  -0.01466  -0.7902  0.04496
6.491e+09  -0.8949  0.2048  0.003685  -0.002287  -0.03208  0.07628  -0.6925  0.3221
6.492e+09  -0.8219  0.5039  -0.0003363  -0.03333  -0.02666  -0.02843  -0.5237  0.5791
6.494e+09  -0.5231  0.7548  0.003747  0.01503  0.02226  0.01164  -0.2977  0.7003
6.495e+09  -0.2409  0.9425  0.002298  -0.01805  0.01245  -0.001108  -0.05679  0.7496
6.496e+09  0.0649  0.9296  0.01672  -0.03314  -0.004069  0.01487  0.1619  0.7689
6.498e+09  0.3363  0.8634  0.01233  0.004098  -0.0007672  0.006709  0.4725  0.5823
6.499e+09  0.704  0.5746  0.005515  -0.008294  0.01964  -0.0001408  0.6621  0.4275
6.5e+09  0.89  0.375  -0.002189  -0.04303  7.948e-05  0.07463  0.7076  0.1826
6.501e+09  0.9302  0.08301  -0.02136  0.00234  0.008192  -0.06994  0.7172  -0.0575
6.502e+09  0.953  -0.255  -0.0006405  0.02331  -0.03272  0.05125  0.6967  -0.3598
6.504e+09  0.7383  -0.5601  -0.002553  -0.01673  -0.02943  -0.0126  0.5264  -0.5861
6.505e+09  0.5302  -0.8063  -0.004384  -0.04431  0.01655  0.02382  0.2506  -0.6971
6.506e+09  0.1836  -0.9154  0.03186  -0.03636  -0.0455  0.05214  0.009  -0.7587
6.508e+09  -0.1122  -0.921  -0.01634  0.04129  0.02425  0.02108  -0.2571  -0.7139
6.509e+09  -0.3978  -0.8533  -0.003798  0.001386  -0.01527  -0.0199  -0.4619  -0.5818
6.51e+09  -0.7386  -0.6176  0.02936  -0.01141  -0.003321  0.01862  -0.6447  -0.4015
6.511e+09  -0.8285  -0.3816  0.03207  0.006702  0.01218  0.01257  -0.7068  -0.145
6.512e+09  -0.9898  -0.003099  -0.007627  0.01246  -0.01442  -0.04827  -0.7332  0.1338
6.514e+09  -0.9262  0.3091  0.02126  0.008153  -0.001291  0.05222  -0.6455  0.3741
6.515e+09  -0.7271  0.5661  0.04717  0.000584  0.02523  0.008076  -0.4908  0.5812
6.516e+09  -0.4701  0.8695  0.004814  0.01367  0.01263  0.008815  -0.2442  0.7184
6.518e+09  -0.1678  0.9519  0.02108  -0.001602  -0.01999  0.04039  0.004234  0.7211
6.519e+09  0.1244  0.9121  0.01713  -0.01674  -0.03311  0.02378  0.2557  0.6964
6.52e+09  0.5123  0.8553  0.001685  -0.03711  -0.004049  -0.03036  0.4991  0.529
6.521e+09  0.7827  0.6435  0.01235  -0.01637  0.04893  -0.004312  0.659  0.3546
6.522e+09  0.9585  0.3319  0.03504  -0.01061  -0.03794  -0.04819  0.7345  0.1049
6.524e+09  0.9621  -0.03416  -0.02265  -0.03289  0.009512  0.009719  0.7124  -0.1729
6.525e+09  0.9031  -0.3396  0.01168  0.0007993  -0.03042  0.008771  0.5967  -0.4023
6.526e+09  0.6955  -0.6686  0.0201  -0.006682  -0.0006752  -0.07828  0.4596  -0.5875
6.528e+09  0.452  -0.8802  0.01854  -0.02098  -0.009396  0.01797  0.221  -0.6809
6.529e+09  0.09144  -0.93  -0.01502  -0.003197  0.005739  0.04463  -0.05912  -0.6656
6.53e+09  -0.257  -0.9436  0.008163  0.01375  -0.001388  0.0006073  -0.2351  -0.6282
6.531e+09  -0.5157  -0.8025  -0.005888  0.009361  0.03471  0.07002  -0.4847  -0.4737
6.532e+09  -0.7946  -0.5377  0.01538  0.03492  0.01884  -0.0001963  -0.564  -0.3101
6.534e+09  -0.9374  -0.2337  0.02299  0.04889  0.001982  -0.0007476  -0.6379  -0.06428
6.535e+09  -0.95  0.06571  -0.01479  -0.0106  -0.01285  -0.008243  -0.6218  0.1171
6.536e+09  -0.8854  0.415  0.01102  -0.0135  0.03125  0.04348  -0.5818  0.3259
6.538e+09  -0.6501  0.7024  -0.0354  -0.03426  0.01255  -0.005207  -0.452  0.4777
6.539e+09  -0.4053  0.8682  0.0199  -0.001246  0.01595  -0.04874  -0.2565  0.5664
6.54e+09  -0.01277  0.9673  0.0006521  0.01079  -0.0179  0.03308  -0.04453  0.6936
6.541e+09  0.3371  0.9645  0.005413  0.01861  0.01794  0.006127  0.1995  0.6233
6.542e+09  0.6552  0.7819  0.001553  0.01244  -0.02003  -0.04346  0.4231  0.5862
6.544e+09  0.8193  0.4349  -0.004  0.01444  -0.04822  0.008839  0.6306  0.4445
6.545e+09  0.986  0.1861  0.01791  -0.03484  -0.01585  -0.01062  0.673  0.1491
6.546e+09  0.8889  -0.1449  -0.01274  -0.02044  0.02887  -0.0349  0.738  -0.09577
6.548e+09  0.8433  -0.5411  -0.02122  -0.01906  -0.02387  -0.006515  0.6857  -0.3406
6.549e+09  0.6078  -0.808  -0.00473  -0.008307  0.0017  -0.003443  0.4929  -0.522
6.55e+09  0.3072  -0.9313  -0.01823  -0.0005287  -0.007658  0.02881  0.2956  -0.6384
