# Hz S RI R 50
6.25e+09  -0.3204  0.806  0.01166  0.03798  -0.003474  -0.03279  0.1125  0.5025
6.251e+09  0.03342  0.8655  0.003729  -0.0211  0.01477  0.008038  0.381  0.4152
6.252e+09  0.2667  0.7946  -0.002347  -0.01586  0.009237  0.002498  0.5341  0.2781
6.254e+09  0.4703  0.6576  0.002454  0.02048  0.02628  0.01003  0.61  0.009845
6.255e+09  0.7088  0.4372  -0.01006  -0.005426  -0.02745  0.009119  0.5777  -0.2318
6.256e+09  0.8553  0.1484  -0.03602  0.008335  0.0782  0.01777  0.4781  -0.4409
6.258e+09  0.7956  -0.1615  0.03591  0.03406  -0.004303  -0.03042  0.2838  -0.6167
6.259e+09  0.7438  -0.3885  0.01126  8.514e-05  -0.0531  0.05317  0.05569  -0.6789
6.26e+09  0.5664  -0.6181  -0.004233  0.007597  -0.06123  0.01777  -0.2019  -0.6377
6.261e+09  0.2349  -0.7525  -0.01947  0.01661  0.008169  -0.003658  -0.4386  -0.5494
6.262e+09  0.005469  -0.8235  0.01597  -0.003767  0.01767  -0.01424  -0.5997  -0.3843
6.264e+09  -0.2969  -0.7766  0.04088  0.01305  -0.02918  0.01969  -0.7005  -0.1013
6.265e+09  -0.5974  -0.6343  -0.000735  0.01408  0.01623  -0.08849  -0.7035  0.131
6.266e+09  -0.7098  -0.4297  0.04011  0.006089  -0.01258  -0.009945  -0.5835  0.4136
6.268e+09  -0.8475  -0.1418  -0.005961  0.01429  -0.01934  -0.03023  -0.4536  0.5803
6.269e+09  -0.8353  0.1901  -0.03257  0.01968  -0.05453  -0.01755  -0.2356  0.7262
6.27e+09  -0.7158  0.4173  0.00404  0.0009781  0.01691  0.0008171  0.1004  0.7168
6.271e+09  -0.5389  0.6953  -0.0114  -0.005928  -0.03705  0.0009309  0.3458  0.6555
6.272e+09  -0.2221  0.7655  0.001718  0.01298  -0.04548  -0.03707  0.562  0.5273
6.274e+09  0.01991  0.8616  -0.003211  -0.01994  0.002269  -0.02077  0.7117  0.3128
6.275e+09  0.3417  0.7445  -0.01269  0.0003846  -0.01921  0.00451  0.7773  0.03354
6.276e+09  0.5529  0.5968  -0.00374  -0.01036  0.003317  -0.05468  0.7356  -0.23
6.278e+09  0.7556  0.4178  0.001335  0.01951  0.00879  -0.0008244  0.603  -0.4215
6.279e+09  0.8418  0.1425  -0.007418  0.0004043  0.02596  -0.0151  0.4279  -0.6475
6.28e+09  0.8244  -0.1432  -0.01567  0.001753  0.04376  -0.008561  0.1881  -0.7543
6.281e+09  0.7072  -0.4746  -0.004126  0.007633  0.03894  0.01416  -0.1224  -0.7794
6.282e+09  0.5063  -0.6982  0.009459  0.001037  0.007971  -0.01585  -0.3756  -0.6988
6.284e+09  0.2233  -0.7506  0.000169  0.007421  0.03228  0.002152  -0.5906  -0.5498
6.285e+09  -0.06271  -0.8004  -0.009059  -0.003678  -0.03715  0.01849  -0.7112  -0.2721
6.286e+09  -0.3312  -0.7616  0.008339  -0.005698  0.05871  0.04506  -0.7673  -0.01361
6.288e+09  -0.5506  -0.5709  -0.00858  0.01193  0.02668  -0.02476  -0.7659  0.2334
6.289e+09  -0.7055  -0.3701  0.005664  0.01121  -0.05445  -0.01014  -0.6486  0.5067
6.29e+09  -0.8074  -0.06443  0.03259  0.002824  0.03957  -0.003575  -0.4163  0.6715
6.291e+09  -0.7653  0.2036  -0.0008457  0.001866  -0.008434  0.006087  -0.1858  0.8066
6.292e+09  -0.6115  0.5259  0.003297  -0.0004352  0.026  0.01005  0.1333  0.8269
6.294e+09  -0.4764  0.6616  -0.006095  0.001961  0.02563  -0.03251  0.4319  0.7359
6.295e+09  -0.2352  0.8329  0.01133  -0.0007597  0.00515  0.0226  0.611  0.5237
6.296e+09  0.08771  0.8195  -0.01018  -0.03224  -0.008119  -0.01247  0.7619  0.3231
6.298e+09  0.3398  0.7176  0.01508  -0.04063  -0.02419  0.00667  0.8342  0.01504
6.299e+09  0.5663  0.5502  0.003161  0.004603  0.009022  0.02283  0.7532  -0.3032
6.3e+09  0.7888  0.3515  -0.02418  -0.0278  -0.03365  -0.0001144  0.6297  -0.5205
6.301e+09  0.8449  0.08124  -0.008499  -0.02267  -0.006965  0.01354  0.4016  -0.71
6.302e+09  0.7893  -0.2161  0.03195  0.02078  -0.01656  0.04992  0.1679  -0.813
6.304e+09  0.6387  -0.515  0.008295  -0.006107  0.04529  -0.03701  -0.1359  -0.8262
6.305e+09  0.4133  -0.717  -0.01783  0.008427  -0.04655  -0.01278  -0.4211  -0.7214
6.306e+09  0.2042  -0.8317  0.0372  -0.03084  0.02396  0.02984  -0.6368  -0.5442
6.308e+09  -0.1168  -0.8186  0.02476  -0.00733  -0.0331  0.01596  -0.7919  -0.2925
6.309e+09  -0.3997  -0.6916  -0.01407  -0.004746  -0.07833  0.05294  -0.8552  -0.008847
6.31e+09  -0.627  -0.5791  -0.02118  0.01033  0.02313  0.009044  -0.7903  0.2909
6.311e+09  -0.8294  -0.2981  -0.02235  0.0002577  0.003857  0.04389  -0.68  0.5367
6.312e+09  -0.8742  -0.003883  -0.004669  -0.01556  0.03182  -0.0001319  -0.4628  0.7314
6.314e+09  -0.8101  0.2844  0.01166  -0.008031  0.04493  0.02866  -0.156  0.8772
6.315e+09  -0.6702  0.5266  0.01755  0.00658  0.009289  0.00674  0.1369  0.9047
6.316e+09  -0.4127  0.7448  0.02086  -0.01049  -0.01799  0.01639  0.4273  0.7819
6.318e+09  -0.1069  0.8296  0.006858  -0.01109  -0.007102  0.02242  0.6482  0.5996
6.319e+09  0.1596  0.7975  -0.01022  -0.01903  0.00777  -0.005314  0.8299  0.3233
6.32e+09  0.3912  0.7081  -0.002911  -0.003728  -0.01439  -0.0846  0.8852  0.0173
6.321e+09  0.7143  0.4816  0.01673  -0.0094  -0.004376  -0.003125  0.8076  -0.2727
6.322e+09  0.7532  0.3073  0.002201  0.003595  0.04769  -0.01611  0.6975  -0.5403
6.324e+09  0.8547  -0.02281  -0.01881  -0.003788  -0.01748  0.0151  0.4802  -0.7361
6.325e+09  0.8111  -0.2753  0.002304  0.01046  0.04586  0.05299  0.1653  -0.8873
6.326e+09  0.5964  -0.6019  -0.001152  -0.01403  0.01915  -0.02771  -0.1599  -0.8848
6.328e+09  0.4292  -0.8069  -0.003873  0.05825  0.004168  -0.02641  -0.4198  -0.7614
6.329e+09  0.1027  -0.8422  0.009372  -0.0005181  0.02325  0.04553  -0.6913  -0.5875
6.33e+09  -0.1838  -0.8959  0.01177  -0.02017  -0.004769  0.0465  -0.8666  -0.3305
6.331e+09  -0.5298  -0.7731  0.004886  -0.006356  0.01068  0.006181  -0.9143  -0.02444
6.332e+09  -0.6623  -0.4818  0.00017  -0.01749  -0.01169  0.005039  -0.8291  0.2617
6.334e+09  -0.828  -0.245  0.002402  0.005231  0.04265  -0.02337  -0.7189  0.5574
6.335e+09  -0.8931  0.1163  -0.01151  -0.02166  -0.01885  -0.002688  -0.4882  0.7851
6.336e+09  -0.78  0.407  -0.0009759  0.02779  0.06145  -0.05228  -0.1831  0.8869
6.338e+09  -0.6079  0.6092  0.01682  0.01353  0.009335  0.007383  0.1311  0.9623
6.339e+09  -0.3494  0.7848  0.01258  0.04396  -0.01088  0.05074  0.4231  0.8378
6.34e+09  -0.02605  0.8811  0.02652  -0.01013  -0.02284  -0.04871  0.6653  0.6031
6.341e+09  0.2933  0.8343  -0.008706  -0.01696  -0.0107  -0.04526  0.8739  0.3353
6.342e+09  0.5216  0.6868  -0.003652  0.02372  0.0009913  0.0649  0.9164  0.04819
6.344e+09  0.7162  0.4557  -0.007582  -0.01696  -0.03139  0.02177  0.9006  -0.2898
6.345e+09  0.8355  0.1564  0.03174  -0.01121  -0.02601  -0.007307  0.7438  -0.5664
6.346e+09  0.883  -0.1333  0.03156  -0.01835  -0.03081  -0.009388  0.5097  -0.7661
6.348e+09  0.7289  -0.4285  -0.01051  0.01124  -0.009784  -0.01494  0.2668  -0.8919
6.349e+09  0.5419  -0.6704  -0.0003508  0.004774  0.03383  -0.03008  -0.1251  -0.9466
6.35e+09  0.3207  -0.8333  0.01737  -0.002376  0.02677  -0.02707  -0.4421  -0.8227
6.351e+09  -0.008792  -0.8751  -0.006167  0.01623  0.03627  -0.008446  -0.6797  -0.6392
6.352e+09  -0.3204  -0.8246  -0.0137  -0.005698  -0.02822  0.03326  -0.8575  -0.3807
6.354e+09  -0.5881  -0.6476  0.0237  -0.04679  -0.004203  -0.02916  -0.9541  -0.07105
6.355e+09  -0.8088  -0.4482  0.009489  0.02209  -0.04138  0.02415  -0.9019  0.2439
6.356e+09  -0.9053  -0.0951  0.03848  -0.007773  -0.007693  -0.02268  -0.784  0.5642
6.358e+09  -0.8875  0.1855  -0.009251  -0.02241  0.01833  -0.02152  -0.521  0.7798
6.359e+09  -0.7577  0.4483  0.009449  -0.02562  0.02936  0.01303  -0.2169  0.9085
6.36e+09  -0.513  0.7618  -0.03181  0.02264  0.02307  -0.02633  0.06495  0.9169
6.361e+09  -0.2228  0.8481  -0.00625  0.02955  0.04125  -0.01  0.4112  0.8422
6.362e+09  0.06094  0.8614  -0.04164  0.00637  -0.01915  -0.01901  0.6361  0.6431
6.364e+09  0.3275  0.8473  0.007372  -0.02523  0.01008  -0.01502  0.8927  0.3992
6.365e+09  0.6451  0.6218  0.007012  0.006706  -0.01145  0.01407  0.9006  0.101
6.366e+09  0.8016  0.3534  0.01352  -0.0001681  -0.01919  -0.01031  0.8879  -0.2715
6.368e+09  0.8903  0.0872  0.02788  -0.01187  -0.01038  0.01857  0.7841  -0.5714
6.369e+09  0.8496  -0.2068  0.002731  0.01326  0.02324  0.007513  0.5854  -0.7656
6.37e+09  0.6951  -0.5085  -0.008624  -0.02999  0.006604  -0.009249  0.2544  -0.9572
6.371e+09  0.4767  -0.7364  -0.04732  -0.004672  0.00423  -0.04606  -0.0683  -0.9595
6.372e+09  0.2189  -0.8653  -0.001066  0.0009797  0.01461  -0.04288  -0.4076  -0.8388
6.374e+09  -0.08387  -0.8932  -0.04325  0.01494  0.02591  -0.02898  -0.6458  -0.6636
6.375e+09  -0.402  -0.7646  -0.005204  0.001974  0.02021  -0.0549  -0.8443  -0.3735
6.376e+09  -0.6387  -0.5794  -0.03307  0.02066  0.01991  -0.02389  -0.9474  -0.1018
6.378e+09  -0.8592  -0.3475  -0.002034  -0.01604  -0.02873  0.002777  -0.8959  0.2493
6.379e+09  -0.8723  -0.03598  0.008199  0.01902  0.005328  -0.02656  -0.8105  0.5716
6.38e+09  -0.8696  0.2881  -0.002702  0.02492  0.006018  -0.01375  -0.5676  0.7352
6.381e+09  -0.6998  0.5586  -0.008942  -0.003679  0.03556  0.02734  -0.2768  0.8933
6.382e+09  -0.486  0.7907  0.001794  -0.007554  0.03097  -0.01588  0.05379  0.9389
6.384e+09  -0.1673  0.9036  -0.01978  -0.005037  -0.02432  -0.03312  0.4037  0.8689
6.385e+09  0.1587  0.8331  -0.001512  -0.02448  -0.06126  0.003195  0.6357  0.6914
6.386e+09  0.4613  0.7661  0.01964  -0.004698  0.01968  0.02301  0.7985  0.4299
6.388e+09  0.66  0.5735  -0.0338  0.03307  0.01043  -0.04087  0.9204  0.1052
6.389e+09  0.8269  0.3118  0.001995  -0.02091  0.03115  -0.013  0.9502  -0.1943
6.39e+09  0.8824  -0.01008  -0.01812  0.05357  -0.01536  -0.01867  0.7948  -0.4663
6.391e+09  0.8378  -0.3025  -0.006641  -0.01101  0.004503  0.008625  0.5919  -0.7486
6.392e+09  0.6857  -0.5615  0.009586  0.0393  0.02217  -0.05796  0.2614  -0.9342
6.394e+09  0.3739  -0.7653  -0.009301  0.002299  0.002595  -0.01354  0.02265  -0.9133
6.395e+09  0.1118  -0.9106  0.004562  0.01861  0.03222  -0.004724  -0.3202  -0.8294
6.396e+09  -0.1955  -0.8575  -0.01929  0.02213  0.008734  0.04029  -0.586  -0.702
6.398e+09  -0.4447  -0.7699  -0.01126  -0.03105  0.03506  0.05649  -0.7817  -0.3972
6.399e+09  -0.6946  -0.5876  -0.007191  -0.01166  -0.017  0.0118  -0.8864  -0.127
6.4e+09  -0.8474  -0.2613  0.04143  -0.05072  0.006141  -0.009735  -0.8822  0.1893
6.401e+09  -0.8804  -0.01683  -0.004267  0.05715  -0.02468  0.05894  -0.7606  0.4537
6.402e+09  -0.8544  0.3061  -0.007396  -0.02766  0.05252  -0.007405  -0.5899  0.7092
6.404e+09  -0.665  0.5721  0.01156  -0.02293  -0.009618  -0.08619  -0.3104  0.8594
6.405e+09  -0.4001  0.8044  0.02259  0.03776  0.04473  0.01546  0.01561  0.9111
6.406e+09  -0.1482  0.8676  -0.04228  0.03102  -0.002172  0.008096  0.2773  0.8746
6.408e+09  0.1813  0.8642  0.004159  0.03218  0.01446  0.004347  0.5476  0.6793
6.409e+09  0.4683  0.7954  0.01849  -0.008019  0.005513  -0.0276  0.7975  0.4735
6.41e+09  0.7196  0.5141  0.0546  0.03024  0.0141  -0.0004243  0.9148  0.1754
6.411e+09  0.8857  0.3002  0.009329  0.01628  0.02468  0.01848  0.9237  -0.1575
6.412e+09  0.8828  -0.02817  -0.0268  -0.007013  -0.01233  -0.005353  0.7781  -0.4038
6.414e+09  0.8524  -0.325  -0.03965  -0.002195  -0.03881  -0.01788  0.6116  -0.6673
6.415e+09  0.6294  -0.5933  0.03444  -0.0008765  0.009443  -0.01657  0.3198  -0.8732
6.416e+09  0.3969  -0.7847  -0.008484  0.01027  0.01575  0.007493  0.0505  -0.9006
6.418e+09  0.0923  -0.9033  -0.004675  -0.005075  -0.03963  -0.0002312  -0.3132  -0.8995
6.419e+09  -0.2291  -0.8479  -0.004916  -0.01024  -0.01935  -0.004624  -0.5311  -0.7274
6.42e+09  -0.4827  -0.7363  -0.01259  -0.007151  -0.01151  0.01043  -0.7481  -0.4356
6.421e+09  -0.7513  -0.5697  -0.05797  0.01228  -0.02151  -0.007307  -0.885  -0.1954
6.422e+09  -0.8928  -0.2163  0.01998  -0.02125  0.0283  -0.01446  -0.8942  0.1136
6.424e+09  -0.9325  0.06535  0.03499  -0.0371  -0.04003  0.03357  -0.7643  0.3972
6.425e+09  -0.8153  0.393  0.02278  0.02597  0.008464  0.000556  -0.6297  0.6278
6.426e+09  -0.6327  0.6141  0.01889  -0.003999  0.02926  -0.01106  -0.3093  0.8048
6.428e+09  -0.3974  0.8235  0.05146  0.01596  -0.01289  0.02295  -0.1123  0.8577
6.429e+09  -0.02537  0.8821  -0.01916  0.009865  -0.06405  -0.004587  0.2708  0.8289
6.43e+09  0.2119  0.8775  0.01102  -0.02651  -0.005495  -0.04627  0.4951  0.7079
6.431e+09  0.5072  0.7144  -0.0224  -0.01683  -0.05254  -0.01908  0.7467  0.4865
6.432e+09  0.7164  0.5457  0.004089  0.006666  -0.005138  0.01097  0.8294  0.235
6.434e+09  0.8925  0.2395  0.0008794  2.999e-05  -0.01639  -0.01139  0.8199  -0.1053
6.435e+09  0.875  -0.05704  -0.02829  0.002876  -0.02042  -0.04602  0.8287  -0.3993
6.436e+09  0.7649  -0.3717  -0.02392  0.007976  -0.02152  -0.0661  0.5894  -0.6093
6.438e+09  0.6759  -0.6472  0.01817  -0.01233  -0.0008362  0.0117  0.3023  -0.7516
6.439e+09  0.4122  -0.8095  -0.004426  0.03459  0.004729  0.07003  0.06723  -0.8503
6.44e+09  0.05056  -0.8537  0.04977  -0.03193  0.02059  -0.02356  -0.2073  -0.8297
6.441e+09  -0.238  -0.8694  0.00849  -0.01006  -0.01848  0.007676  -0.5223  -0.7105
6.442e+09  -0.515  -0.7101  -0.018  0.00254  0.0007373  0.005334  -0.6924  -0.506
6.444e+09  -0.718  -0.4715  0.02156  0.05377  0.03083  0.00179  -0.8699  -0.2077
6.445e+09  -0.8463  -0.2133  0.02042  0.003428  -0.001251  0.05057  -0.794  0.07319
6.446e+09  -0.9256  0.06663  -0.02038  -0.02708  0.01551  0.04891  -0.7954  0.4197
6.448e+09  -0.7918  0.4004  -0.01341  0.01832  -0.06847  -0.02955  -0.5943  0.5851
6.449e+09  -0.5953  0.6082  0.03643  -0.04158  -0.06226  -0.00438  -0.33  0.8054
6.45e+09  -0.349  0.8371  -0.04009  0.0562  0.01916  0.02537  -0.02749  0.8262
6.451e+09  -0.08205  0.9207  -0.04347  0.02791  -0.01499  -0.002197  0.222  0.7473
6.452e+09  0.2262  0.9194  -0.0005151  0.0144  0.003322  -0.04025  0.4886  0.7181
6.454e+09  0.5424  0.7298  0.01684  0.01749  -0.004123  0.003086  0.6593  0.4857
6.455e+09  0.7156  0.4897  -0.006776  0.002999  0.001688  -0.009563  0.748  0.1549
6.456e+09  0.8481  0.247  0.02391  0.02648  0.00428  0.01259  0.8102  -0.08856
6.458e+09  0.8812  -0.1441  -0.02696  -0.04512  0.03446  0.03136  0.7693  -0.3076
6.459e+09  0.8544  -0.3765  0.02116  0.00437  -0.00491  -0.01966  0.5603  -0.5741
6.46e+09  0.6065  -0.6763  -0.008855  -0.02578  0.03896  -0.005497  0.3282  -0.77
6.461e+09  0.344  -0.7986  -0.001565  0.02038  0.0007473  -0.03412  0.0772  -0.7993
6.462e+09  0.1006  -0.9272  -0.02784  -0.009426  0.01514  0.0172  -0.2339  -0.7679
6.464e+09  -0.2832  -0.8711  -0.02344  0.03883  0.003668  0.02512  -0.4223  -0.6892
6.465e+09  -0.5342  -0.729  0.01541  -0.0014  -0.003108  -0.03967  -0.6811  -0.4998
6.466e+09  -0.7804  -0.4675  0.02435  0.003137  7.463e-05  -0.008185  -0.7568  -0.1775
6.468e+09  -0.8672  -0.2255  -0.01077  0.05865  -0.04196  0.0329  -0.7895  0.1235
6.469e+09  -0.8464  0.09532  0.004406  -0.03773  0.008799  -0.002893  -0.7497  0.3433
6.47e+09  -0.821  0.4492  -0.01019  0.01637  -0.06581  -0.006644  -0.5949  0.5743
6.471e+09  -0.6026  0.6707  -0.04562  -0.02055  0.03162  -0.02011  -0.3525  0.7371
6.472e+09  -0.2778  0.8086  -0.01942  -0.06692  -0.05185  0.005801  -0.02224  0.7864
6.474e+09  0.004945  0.9308  -0.01856  -0.008441  -0.05907  -0.03261  0.1848  0.7743
6.475e+09  0.3012  0.8944  0.01657  -0.01383  0.01156  -0.006862  0.4569  0.6392
6.476e+09  0.5503  0.7585  -0.005577  0.01423  -0.003954  -0.01807  0.6386  0.4614
6.478e+09  0.8221  0.4611  -0.0257  0.03082  0.003723  0.05266  0.7587  0.1666
6.479e+09  0.8969  0.1735  -0.03592  0.03009  -0.03683  -0.00437  0.7874  -0.08064
6.48e+09  0.91  -0.1422  0.004394  -0.02584  0.05259  0.01393  0.7055  -0.3041
6.481e+09  0.831  -0.4171  -0.009239  0.02191  -0.03189  0.02516  0.5398  -0.5586
6.482e+09  0.6048  -0.7389  -0.005873  -0.03038  0.01995  0.008677  0.3051  -0.7058
6.484e+09  0.3211  -0.8842  0.008705  0.02727  0.01008  -0.006296  0.01352  -0.7428
6.485e+09  0.04931  -0.9168  -0.004634  -0.006418  -0.009003  0.02719  -0.1702  -0.7145
6.486e+09  -0.3418  -0.8925  -0.05205  -0.01846  0.05005  -0.008979  -0.4419  -0.6221
6.488e+09  -0.6349  -0.7653  0.005445  0.0294  -0.05497  -0.01607  -0.6944  -0.4447
6.489e+09  -0.8122  -0.4592  -0.002728  -0.009732  -0.006544  -0.06576  -0.7542  -0.1979
6.49e+09  -0.8822  -0.1794  -0.03787  -0.006975  -0.03335  -0.0432  -0.7766  0.06615
6.491e+09  -0.9196  0.163  0.01556  -0.03937  0.003573  0.007848  -0.6999  0.3776
6.492e+09  -0.7737  0.4666  -0.002632  -0.01363  0.04726  0.006026  -0.5403  0.5417
6.494e+09  -0.6042  0.7443  -0.001775  -0.01696  0.005997  -0.02219  -0.3294  0.6936
6.495e+09  -0.3501  0.903  -0.01361  -0.01412  0.03613  0.006213  -0.05501  0.7728
6.496e+09  0.06969  0.9378  -0.004305  0.01877  -0.003209  -0.004692  0.2248  0.7347
6.498e+09  0.342  0.8565  0.007115  0.02177  0.01242  0.03218  0.407  0.5811
6.499e+09  0.6568  0.6933  0.05991  -0.005371  -0.01994  -0.01541  0.664  0.486
6.5e+09  0.8431  0.4231  0.03545  -0.0108  0.04271  0.01556  0.7196  0.1325
6.501e+09  0.89  0.1462  0.009657  -0.002068  -0.004838  0.0002292  0.7509  -0.1179
6.502e+09  0.9284  -0.2275  -0.005388  0.0005456  -0.0006067  0.01529  0.722  -0.3538
6.504e+09  0.8065  -0.5172  0.04351  -0.01651  -0.07567  -0.02621  0.512  -0.5608
6.505e+09  0.5981  -0.7584  0.00708  0.006922  0.01228  -0.001327  0.2704  -0.7326
6.506e+09  0.2305  -0.9207  -0.01217  -0.01509  0.00531  0.004992  -0.01526  -0.7313
6.508e+09  -0.06014  -0.9699  0.001552  0.01687  0.02387  0.02019  -0.1686  -0.7308
6.509e+09  -0.4005  -0.8787  -0.02006  -0.02093  0.02619  0.02306  -0.4946  -0.6001
6.51e+09  -0.6526  -0.6594  -0.007937  -0.02193  -0.02026  -0.0623  -0.6641  -0.3737
6.511e+09  -0.8901  -0.4665  0.006987  0.04747  -0.006272  0.0186  -0.7298  -0.1594
6.512e+09  -0.9755  -0.0639  -0.01043  -0.02443  -0.01749  0.05769  -0.7349  0.124
6.514e+09  -0.9239  0.2668  -0.001626  0.01433  -0.001715  -0.03332  -0.625  0.347
6.515e+09  -0.7402  0.5796  0.01618  -0.02779  0.01844  0.005868  -0.4491  0.5576
6.516e+09  -0.4978  0.7538  -0.01562  9.399e-05  -0.009577  0.01808  -0.2426  0.7086
6.518e+09  -0.1959  0.9662  0.005317  0.02399  0.05253  0.01178  0.003305  0.7318
6.519e+09  0.1002  1  -0.01592  -0.02198  0.03196  0.007382  0.242  0.6889
6.52e+09  0.4891  0.8383  -0.02253  0.01057  -0.01717  -0.01888  0.4856  0.5269
6.521e+09  0.7044  0.6292  -0.03504  -0.01452  0.003866  0.02871  0.6863  0.3368
6.522e+09  0.9247  0.3494  0.007139  0.02036  0.01924  0.002541  0.726  0.0905
6.524e+09  0.9607  0.02968  -0.01485  0.01579  -0.01234  -0.04487  0.7304  -0.1546
6.525e+09  0.9326  -0.3316  0.02684  -0.02516  -0.03003  -0.03464  0.6338  -0.3712
6.526e+09  0.7279  -0.6066  -0.003095  -0.008557  0.03013  0.02713  0.4299  -0.5598
6.528e+09  0.4579  -0.8477  -0.003396  0.00612  -0.04539  -0.006279  0.2168  -0.6935
6.529e+09  0.1633  -0.9959  -0.01481  -0.002216  0.0224  0.03102  -0.07436  -0.6757
6.53e+09  -0.1667  -0.9946  -0.009932  0.02206  -0.01581  -0.00774  -0.2927  -0.6014
6.531e+09  -0.4828  -0.8423  0.006303  0.01185  0.01264  0.003653  -0.4903  -0.5069
6.532e+09  -0.7679  -0.537  -0.003705  -0.01527  -0.04534  0.03856  -0.5556  -0.2919
6.534e+09  -0.8978  -0.316  0.01755  -0.01576  0.0416  0.05872  -0.6112  -0.1058
6.535e+09  -0.9787  0.0593  0.01338  -0.001576  -0.0222  -0.02108  -0.5849  0.1177
6.536e+09  -0.8976  0.3903  0.01484  -0.01585  -0.003793  0.003108  -0.5635  0.3003
6.538e+09  -0.6616  0.7015  -0.002146  0.02013  0.008233  0.01447  -0.4651  0.4442
6.539e+09  -0.3957  0.8832  -0.03504  0.0002242  0.03301  -0.002694  -0.2663  0.6246
6.54e+09  -0.08251  0.9699  0.005511  0.008504  0.01301  0.07379  -0.09653  0.6876
6.541e+09  0.2496  0.9177  0.009515  0.01286  0.02901  0.005385  0.1837  0.6567
6.542e+09  0.5891  0.8015  0.04722  0.04134  -0.02108  -0.01297  0.4186  0.5394
6.544e+09  0.7984  0.4856  -0.03068  0.002636  -0.01322  0.01913  0.5899  0.4153
6.545e+09  0.9142  0.2258  -0.000618  0.004667  -0.02051  -0.006313  0.6751  0.1641
6.546e+09  0.9853  -0.09111  0.01196  0.03024  -0.006598  0.01697  0.7357  -0.08463
6.548e+09  0.8649  -0.4243  0.01841  -0.02497  0.04699  -0.03495  0.6481  -0.3379
6.549e+09  0.6472  -0.6988  0.03076  -0.0001705  0.01614  0.03788  0.5048  -0.5236
