# Hz S RI R 50
6.25e+09  -0.7131  0.4946  -0.01105  0.01022  -0.01385  0.05772  0.1324  0.4916
6.251e+09  -0.5278  0.6526  -0.01903  0.008313  -0.04255  0.03187  0.3698  0.4009
6.252e+09  -0.2197  0.8144  -0.001583  -0.05425  0.0121  -0.01277  0.5346  0.2008
6.254e+09  0.04468  0.885  -0.003671  0.01425  0.01525  -0.01474  0.5963  0.04358
6.255e+09  0.3521  0.7748  -0.01631  -0.008071  0.03931  0.03961  0.5948  -0.2699
6.256e+09  0.583  0.542  0.0203  0.0074  -0.02036  -0.0285  0.4262  -0.4488
6.258e+09  0.7648  0.3244  -0.0141  0.02246  0.01015  -0.03345  0.2627  -0.5692
6.259e+09  0.8209  0.09375  -0.002681  -0.003034  -0.02375  0.01443  0.02895  -0.7099
6.26e+09  0.7984  -0.1491  -0.02411  0.003367  0.03817  0.003725  -0.2016  -0.6692
6.261e+09  0.709  -0.4417  -0.007286  0.002361  -0.00983  -0.01168  -0.4418  -0.5618
6.262e+09  0.5011  -0.6984  0.02789  0.02659  -0.0006194  -0.01891  -0.5972  -0.3477
6.264e+09  0.1656  -0.8094  -0.01318  0.002108  -0.03636  0.01562  -0.7077  -0.1226
6.265e+09  -0.05181  -0.8207  -0.02565  -0.01261  -0.06398  0.00812  -0.7249  0.1661
6.266e+09  -0.3395  -0.8433  0.02652  0.001021  0.02445  -0.00151  -0.6011  0.4144
6.268e+09  -0.6329  -0.5603  0.01466  -0.01442  -0.000476  -0.009301  -0.4408  0.5616
6.269e+09  -0.7482  -0.4034  0.01664  -0.02096  0.01328  0.01193  -0.2141  0.7169
6.27e+09  -0.7515  -0.08217  -0.01659  -0.008137  -0.06692  -0.0458  0.0673  0.7573
6.271e+09  -0.7846  0.2189  0.01022  0.03425  -0.004504  -0.02779  0.3129  0.6791
6.272e+09  -0.6879  0.4424  -0.001416  0.001283  0.01139  0.002715  0.5433  0.5055
6.274e+09  -0.4742  0.7105  0.0208  0.02623  0.000905  -0.02726  0.6977  0.3132
6.275e+09  -0.2537  0.806  0.005478  0.01257  0.06597  -0.02845  0.7545  0.06755
6.276e+09  0.06041  0.7558  -0.01699  0.006715  0.01623  0.005377  0.7285  -0.2064
6.278e+09  0.3588  0.7253  -0.01962  0.01329  0.005692  -0.05435  0.5999  -0.4325
6.279e+09  0.555  0.5806  0.001736  0.002209  -0.02197  0.03258  0.4283  -0.6534
6.28e+09  0.7639  0.3524  -0.02371  0.0007522  0.04118  -0.05992  0.1609  -0.7655
6.281e+09  0.8148  0.0479  0.03726  0.00644  0.007484  0.003921  -0.1106  -0.7752
6.282e+09  0.8336  -0.1964  -0.02291  -0.01481  -0.01981  0.00743  -0.3913  -0.6709
6.284e+09  0.7022  -0.5039  0.002639  0.03475  -0.01024  0.005731  -0.6004  -0.5047
6.285e+09  0.4578  -0.687  -0.01067  -0.01146  -0.00397  -0.0022  -0.6972  -0.2792
6.286e+09  0.2005  -0.8331  0.03139  0.001406  -0.005987  -0.02859  -0.7934  -0.004952
6.288e+09  -0.05264  -0.8717  -0.0121  -0.007667  0.01263  -0.02136  -0.7547  0.2328
6.289e+09  -0.3061  -0.7314  -0.01423  -0.009314  0.02849  -0.007948  -0.5974  0.4856
6.29e+09  -0.5803  -0.5497  0.007585  0.00358  0.01371  0.03439  -0.4152  0.6777
6.291e+09  -0.7634  -0.3381  0.0206  -0.002445  -0.04742  -0.01441  -0.14  0.7747
6.292e+09  -0.8674  -0.02318  0.00967  -0.005988  -0.01226  -0.0003024  0.1243  0.7987
6.294e+09  -0.8182  0.2485  0.01793  0.01592  -0.03128  -0.02896  0.3967  0.7233
6.295e+09  -0.6848  0.5118  0.01874  0.02108  0.02554  0.00715  0.622  0.5263
6.296e+09  -0.4113  0.6607  -0.00853  0.01348  0.01163  0.003439  0.7571  0.2776
6.298e+09  -0.1809  0.814  -0.01698  0.01459  0.00488  0.01258  0.844  -0.007097
6.299e+09  0.137  0.7994  -0.009869  -0.01833  -0.0005724  -0.01672  0.7649  -0.2653
6.3e+09  0.3846  0.7315  0.01267  0.001611  -0.02747  -0.01714  0.6507  -0.5349
6.301e+09  0.5958  0.55  0.01058  0.004036  -0.02452  0.01823  0.4263  -0.6959
6.302e+09  0.8069  0.3025  -0.02281  0.01603  0.06681  0.00319  0.1298  -0.824
6.304e+09  0.7774  0.03377  -0.008332  0.009511  0.02763  -0.03529  -0.1473  -0.8287
6.305e+09  0.7705  -0.3353  0.04792  0.03114  -0.02324  0.0191  -0.4006  -0.7453
6.306e+09  0.6401  -0.5222  0.009532  -0.03115  0.007375  0.03209  -0.6588  -0.5406
6.308e+09  0.3678  -0.7324  -0.03123  -0.03703  0.05389  -0.00104  -0.787  -0.3381
6.309e+09  0.1898  -0.8467  0.006007  0.01873  0.01272  0.02666  -0.8617  0.0208
6.31e+09  -0.1524  -0.8251  -0.01465  0.01623  0.006016  0.01574  -0.8303  0.2805
6.311e+09  -0.4511  -0.7117  0.01282  -0.02352  0.04011  -0.01606  -0.6833  0.5419
6.312e+09  -0.5993  -0.5147  0.01296  -0.008813  -0.04244  -0.03931  -0.4483  0.7584
6.314e+09  -0.7711  -0.2598  0.00214  -0.01073  -0.01968  0.004914  -0.161  0.8491
6.315e+09  -0.798  0.02525  0.01638  0.02471  0.05231  0.01433  0.1349  0.863
6.316e+09  -0.7904  0.2991  -0.003937  0.03451  -0.004948  -0.01568  0.437  0.7778
6.318e+09  -0.6005  0.4909  0.01627  -0.01907  0.01075  -0.02231  0.6528  0.5691
6.319e+09  -0.3648  0.8103  0.002137  -0.01733  0.001938  -0.02473  0.7969  0.308
6.32e+09  -0.133  0.8354  -0.03768  -0.004658  0.0363  0.03257  0.9064  0.009596
6.321e+09  0.1259  0.8514  0.01098  -0.02858  -0.0251  -0.1131  0.8221  -0.2773
6.322e+09  0.4521  0.6861  0.02223  0.01385  -0.01435  -0.007564  0.6786  -0.5944
6.324e+09  0.6884  0.449  -0.01711  0.0208  0.004128  0.02997  0.4654  -0.7694
6.325e+09  0.8097  0.2709  0.01301  0.01176  0.01726  -0.02986  0.1654  -0.8608
6.326e+09  0.8553  -0.03152  -0.001279  0.04549  -0.001166  0.05831  -0.1435  -0.893
6.328e+09  0.7402  -0.3538  0.0009392  0.007491  0.003685  0.03844  -0.4251  -0.7678
6.329e+09  0.6005  -0.5711  0.0003823  0.008176  -0.002753  -0.01137  -0.6896  -0.6051
6.33e+09  0.3276  -0.7641  0.01296  0.008452  -0.003782  -0.005782  -0.8653  -0.3192
6.331e+09  0.04673  -0.8569  -0.01602  0.021  -0.007066  0.03183  -0.9098  -0.0243
6.332e+09  -0.2807  -0.8402  -0.01336  0.02999  0.02531  0.003022  -0.8381  0.257
6.334e+09  -0.4842  -0.6877  -0.004548  -0.01191  0.02159  0.0186  -0.7146  0.5626
6.335e+09  -0.7324  -0.5027  -0.02898  -0.005567  0.02099  0.02776  -0.4967  0.7897
6.336e+09  -0.8603  -0.2222  -0.008958  0.0233  -0.01169  0.03668  -0.1876  0.9002
6.338e+09  -0.8707  0.1058  -0.01077  0.0381  -0.01777  -0.005346  0.109  0.9064
6.339e+09  -0.7106  0.3966  0.007244  0.003398  0.02852  -0.04315  0.4505  0.8352
6.34e+09  -0.6039  0.6428  -0.02387  -0.00253  -0.04715  0.007026  0.6719  0.6364
6.341e+09  -0.3638  0.8142  0.02055  -0.01403  -0.02365  0.0007511  0.8643  0.363
6.342e+09  -0.03169  0.857  0.01429  -0.01401  -0.01097  0.01109  0.9467  0.01173
6.344e+09  0.2462  0.8142  -0.02575  0.00812  0.01183  0.00904  0.9202  -0.2726
6.345e+09  0.5496  0.6455  -0.01904  -0.01523  0.04872  0.00435  0.7512  -0.5773
6.346e+09  0.7862  0.4189  0.02652  0.01537  0.006983  0.02412  0.5173  -0.7825
6.348e+09  0.8409  0.1506  -0.02474  0.04198  -0.02124  0.07481  0.2214  -0.9172
6.349e+09  0.8603  -0.1663  -0.009054  0.01978  -0.006201  0.003786  -0.09957  -0.9129
6.35e+09  0.7821  -0.4259  -0.02345  -0.009665  -0.004577  0.04624  -0.4397  -0.7807
6.351e+09  0.5059  -0.6995  0.02707  -0.03036  -0.00623  0.0003153  -0.6723  -0.6524
6.352e+09  0.2253  -0.8127  -0.00692  -0.01962  -0.004285  -0.05712  -0.8428  -0.367
6.354e+09  -0.04484  -0.8413  -0.03009  0.004233  -0.002085  -0.01552  -0.9379  -0.04137
6.355e+09  -0.3431  -0.7438  -0.02192  0.01268  0.02397  0.008888  -0.8957  0.2667
6.356e+09  -0.5799  -0.6159  -0.01302  0.006735  -0.006718  0.01218  -0.755  0.5472
6.358e+09  -0.8441  -0.3645  -0.0164  0.02923  -0.02782  0.01712  -0.5534  0.7729
6.359e+09  -0.9097  -0.0733  -0.00663  -0.007715  0.05668  0.02555  -0.226  0.8945
6.36e+09  -0.8351  0.2084  -0.02372  0.03322  -0.01294  0.01477  0.07767  0.9637
6.361e+09  -0.7511  0.4794  0.006352  -0.007061  0.03136  -0.04708  0.3872  0.8842
6.362e+09  -0.4178  0.6985  -0.01105  0.01251  0.02571  -0.0006429  0.6404  0.6824
6.364e+09  -0.2459  0.8574  0.0004197  -0.02722  -0.003649  -0.004009  0.8534  0.3845
6.365e+09  0.1051  0.8945  0.01899  0.02836  0.004397  0.01737  0.9256  0.09043
6.366e+09  0.3947  0.7645  0.003444  -0.0255  0.02213  -0.02387  0.9037  -0.2685
6.368e+09  0.6468  0.6053  -0.001392  0.009879  0.005469  -0.04798  0.7717  -0.5064
6.369e+09  0.8138  0.3198  -0.007813  0.008178  -0.03691  -0.02655  0.5446  -0.8102
6.37e+09  0.8589  0.08062  -0.02845  0.02003  -0.0007529  0.03372  0.2746  -0.896
6.371e+09  0.8361  -0.3087  -0.001653  -0.003425  0.0347  -0.005274  -0.08482  -0.9562
6.372e+09  0.6656  -0.552  -0.03373  0.01355  0.03117  -0.02353  -0.3527  -0.8661
6.374e+09  0.3954  -0.7946  -0.002179  -0.02184  0.0439  -0.01513  -0.6328  -0.6763
6.375e+09  0.1289  -0.8144  -0.01133  0.04478  0.04  0.03713  -0.8419  -0.4025
6.376e+09  -0.1608  -0.8598  0.004904  0.02183  -0.02211  0.03226  -0.9597  -0.06613
6.378e+09  -0.4413  -0.7391  0.01465  -0.01558  0.01035  0.006321  -0.894  0.2249
6.379e+09  -0.7167  -0.5776  0.03524  -0.007581  -0.01585  0.01573  -0.7763  0.5564
6.38e+09  -0.8629  -0.3269  -0.000657  -0.000117  -0.008395  0.02626  -0.5645  0.7126
6.381e+09  -0.9123  0.05101  -0.009491  0.01169  -0.001675  0.01206  -0.2918  0.9088
6.382e+09  -0.83  0.3647  0.003014  -0.01522  2.763e-05  0.009826  0.07625  0.9241
6.384e+09  -0.6287  0.6001  -0.0324  0.02835  -0.02672  0.02198  0.316  0.8675
6.385e+09  -0.4238  0.8691  0.03329  -0.0166  -0.03856  -0.01304  0.6816  0.6573
6.386e+09  -0.1196  0.8622  -0.02154  -0.004992  -0.01629  0.02276  0.8412  0.4219
6.388e+09  0.2382  0.8522  -0.01856  0.04439  0.04982  0.04023  0.9469  0.122
6.389e+09  0.4925  0.7178  -0.03516  0.01037  0.03834  -0.00769  0.8491  -0.2147
6.39e+09  0.7407  0.4743  0.00836  0.01595  0.02938  -0.03222  0.7792  -0.4985
6.391e+09  0.8674  0.1758  -0.0188  -0.01562  -0.01515  -0.02987  0.5714  -0.7269
6.392e+09  0.9219  -0.08145  0.01309  -0.02087  0.007719  0.004331  0.2662  -0.879
6.394e+09  0.802  -0.4007  0.01218  0.01319  -0.04231  -0.01945  -0.09165  -0.9278
6.395e+09  0.6241  -0.6516  -0.01569  -0.03345  -0.008146  0.01496  -0.3231  -0.8515
6.396e+09  0.3136  -0.8239  -0.00719  -0.02395  0.008405  -0.02735  -0.6162  -0.6998
6.398e+09  0.06652  -0.8361  -0.002604  0.05155  -0.01966  -0.007146  -0.7822  -0.453
6.399e+09  -0.2675  -0.8519  -0.005108  -0.02371  0.03173  0.02732  -0.8952  -0.1611
6.4e+09  -0.5381  -0.6994  0.03273  0.003907  0.03202  0.01632  -0.8772  0.1704
6.401e+09  -0.7353  -0.4275  -0.01458  0.01721  0.02588  0.03435  -0.8072  0.4663
6.402e+09  -0.8626  -0.2132  0.03765  -0.0002424  -0.01946  -0.004531  -0.5939  0.6631
6.404e+09  -0.8933  0.1295  -0.01864  -0.02257  -0.07409  -0.01122  -0.2866  0.8718
6.405e+09  -0.7844  0.4146  -0.01169  -0.029  -0.001534  -0.001818  0.02625  0.9295
6.406e+09  -0.5661  0.6553  0.008154  -0.04334  0.0197  0.001886  0.3197  0.8958
6.408e+09  -0.2553  0.8337  0.01592  0.01261  -0.005522  -0.001429  0.5835  0.718
6.409e+09  0.006299  0.8749  -0.02594  -0.00683  -0.01928  -0.01549  0.7474  0.4466
6.41e+09  0.2937  0.8122  -0.02138  -0.01402  0.05108  -0.02366  0.8968  0.1987
6.411e+09  0.5705  0.7187  0.03696  0.01903  0.01762  -0.004838  0.8854  -0.1749
6.412e+09  0.7221  0.4204  0.0001722  -0.05064  -0.0115  -0.008815  0.8083  -0.4462
6.414e+09  0.8484  0.1396  -0.01798  -0.01852  0.02947  0.03014  0.5595  -0.6818
6.415e+09  0.8678  -0.1802  0.03214  -0.04124  -0.0184  -0.01789  0.3107  -0.8456
6.416e+09  0.7751  -0.4577  -0.01198  0.01589  -0.03633  0.006283  -0.01068  -0.8973
6.418e+09  0.5295  -0.6846  -0.02946  -0.002268  0.01128  -0.03302  -0.2738  -0.8866
6.419e+09  0.2707  -0.862  -0.06214  -0.01237  0.01226  0.0003372  -0.5843  -0.7418
6.42e+09  -0.03926  -0.8708  -0.006957  0.008941  -0.02134  0.03492  -0.7977  -0.4765
6.421e+09  -0.3257  -0.8347  -0.01718  0.02639  0.01937  0.00689  -0.8446  -0.2055
6.422e+09  -0.5646  -0.6476  -0.009396  0.01796  -0.00305  0.02398  -0.8981  0.101
6.424e+09  -0.7708  -0.3742  -0.01422  -0.06379  0.003417  0.01801  -0.7514  0.3698
6.425e+09  -0.8299  -0.07905  -0.03679  0.05148  0.02487  -0.01672  -0.5666  0.5819
6.426e+09  -0.8318  0.1473  0.01513  0.05256  -0.03092  -0.02136  -0.3373  0.7882
6.428e+09  -0.7162  0.4473  -0.003397  -0.02044  -0.01851  -0.02201  -0.06276  0.8276
6.429e+09  -0.565  0.6962  -0.0416  0.008867  -0.0151  0.007831  0.2379  0.8362
6.43e+09  -0.2648  0.8691  -0.01069  0.02462  0.0242  -0.04896  0.5256  0.7098
6.431e+09  0.04164  0.8455  0.01327  -0.02225  -0.00218  -0.002351  0.7647  0.5325
6.432e+09  0.3011  0.828  -0.04846  -0.0136  0.01014  0.03409  0.8353  0.2061
6.434e+09  0.6006  0.6147  -0.01246  0.006565  -0.004318  -0.02236  0.859  -0.0673
6.435e+09  0.8136  0.4165  -0.02839  -0.005937  -0.004244  -0.06968  0.7783  -0.3722
6.436e+09  0.8656  0.07633  -0.04614  0.02093  -0.03241  -0.02117  0.5821  -0.6056
6.438e+09  0.858  -0.1437  0.03175  -0.0005044  -0.009742  -0.03668  0.4042  -0.8381
6.439e+09  0.6667  -0.5065  0.005658  -0.05375  -0.02451  0.01493  0.1033  -0.8776
6.44e+09  0.4761  -0.7014  0.02259  -0.02347  0.004461  -0.002814  -0.1811  -0.7971
6.441e+09  0.2413  -0.8741  -0.01029  -0.01692  0.02136  -0.01251  -0.4408  -0.674
6.442e+09  -0.06912  -0.8398  -0.001739  -0.02144  0.009078  0.05409  -0.6549  -0.4753
6.444e+09  -0.3722  -0.8362  -0.01066  0.003226  0.0147  0.02458  -0.8171  -0.2128
6.445e+09  -0.6198  -0.553  -0.01658  -0.01734  0.02971  -0.005033  -0.822  0.06278
6.446e+09  -0.8353  -0.3585  0.0008223  -0.007716  -0.04204  -0.01148  -0.8171  0.3424
6.448e+09  -0.8568  -0.09135  0.00851  -0.02079  0.01977  -0.02416  -0.5762  0.6119
6.449e+09  -0.8624  0.1912  0.02035  0.03131  0.008669  0.03857  -0.3586  0.7382
6.45e+09  -0.7291  0.478  0.02931  0.01326  0.008272  0.01928  -0.03711  0.8869
6.451e+09  -0.4695  0.7127  -0.04065  0.01319  0.01925  -0.005346  0.2485  0.7869
6.452e+09  -0.2276  0.8518  -0.02028  0.03043  -0.01909  -0.04833  0.522  0.6129
6.454e+09  0.1185  0.8943  0.01232  -0.007171  -0.01433  -0.007556  0.7062  0.4785
6.455e+09  0.3969  0.7663  0.05334  0.00976  0.02167  -0.01742  0.8337  0.2393
6.456e+09  0.6626  0.6233  -0.005773  -0.02689  -0.009761  0.02548  0.8248  -0.09224
6.458e+09  0.8136  0.3432  0.001159  0.03089  -0.01089  0.00748  0.753  -0.3151
6.459e+09  0.8797  0.1034  0.02538  0.02749  0.03215  0.02022  0.6191  -0.5987
6.46e+09  0.8595  -0.1842  -0.0248  0.04705  0.00575  0.005686  0.3706  -0.7584
6.461e+09  0.7527  -0.4949  0.01613  0.004965  0.06014  0.02936  0.04971  -0.764
6.462e+09  0.4824  -0.7318  0.05431  -0.008354  0.02961  -0.0001279  -0.2081  -0.7548
6.464e+09  0.1745  -0.8339  -0.03492  0.02522  -0.04339  0.00157  -0.4687  -0.627
6.465e+09  -0.09277  -0.8449  0.02685  0.01179  0.03904  -0.01089  -0.6908  -0.4239
6.466e+09  -0.4209  -0.7845  -0.01575  -0.00841  -0.05086  -0.0001869  -0.8055  -0.1884
6.468e+09  -0.625  -0.5893  0.01292  0.0007862  -0.006571  0.007607  -0.7828  0.08157
6.469e+09  -0.7624  -0.3258  -0.01088  -0.001259  0.01221  0.04355  -0.7419  0.3516
6.47e+09  -0.8759  -0.02577  -0.01089  0.01186  -0.02587  0.01374  -0.5784  0.5695
6.471e+09  -0.8334  0.2458  0.03167  0.0582  0.01603  0.02757  -0.311  0.7176
6.472e+09  -0.7264  0.5055  -0.01212  0.01007  -0.007372  -0.02467  -0.0691  0.7644
6.474e+09  -0.4504  0.7196  -0.03299  -0.03934  0.01515  0.00924  0.2174  0.757
6.475e+09  -0.2157  0.8946  0.0266  -0.01872  -0.002706  0.01559  0.4245  0.6482
6.476e+09  0.1144  0.8932  0.003697  -0.002802  -0.05843  0.03919  0.6412  0.4518
6.478e+09  0.4162  0.7682  -0.02269  0.01005  0.0321  0.005818  0.7563  0.223
6.479e+09  0.6147  0.5877  0.03365  0.007385  -0.02528  0.006735  0.776  -0.09844
6.48e+09  0.768  0.3565  -0.02859  0.008784  -0.02064  0.01315  0.7477  -0.3678
6.481e+09  0.8896  0.05849  -0.04293  -0.03344  -0.02729  0.02158  0.528  -0.5459
6.482e+09  0.8311  -0.2599  -0.009269  -0.008325  0.03111  0.02297  0.3138  -0.7203
6.484e+09  0.7412  -0.5581  -0.001164  -0.009018  0.05476  -0.001386  0.06064  -0.7515
6.485e+09  0.4684  -0.7388  0.03664  0.00367  -0.02866  0.02055  -0.2253  -0.7718
6.486e+09  0.1382  -0.8958  -0.008376  0.01318  -0.03164  0.02539  -0.4374  -0.6214
6.488e+09  -0.1449  -0.9012  -0.01669  -0.01476  0.004699  0.006117  -0.6297  -0.4555
6.489e+09  -0.4598  -0.829  0.01017  -0.03432  0.02226  -0.03276  -0.6866  -0.19
6.49e+09  -0.638  -0.5909  -0.04342  0.02861  0.004473  -0.001785  -0.7409  0.07341
6.491e+09  -0.8707  -0.3202  -0.04534  -0.01108  -0.05919  -0.0117  -0.7008  0.3321
6.492e+09  -0.9006  0.001521  0.02254  -0.02803  0.001397  0.006098  -0.4776  0.5408
6.494e+09  -0.8213  0.2597  0.02591  -0.007878  -0.02632  -0.02838  -0.2825  0.6934
6.495e+09  -0.6818  0.549  -0.02951  -0.0009025  -0.02765  -0.00641  -0.06108  0.7546
6.496e+09  -0.4426  0.7176  0.005131  0.006818  0.05292  0.02172  0.2511  0.7504
6.498e+09  -0.1226  0.8785  -0.02299  0.01203  0.01185  0.04319  0.4588  0.6002
6.499e+09  0.1221  0.8548  0.04024  0.02462  -0.01446  0.01596  0.6667  0.3887
6.5e+09  0.4377  0.8376  0.0338  -0.03029  -0.05387  0.03734  0.7388  0.1775
6.501e+09  0.6719  0.6258  0.009007  0.02186  0.01659  -0.01836  0.7414  -0.07173
6.502e+09  0.7989  0.3141  0.01496  0.02181  -0.004593  -0.01531  0.6712  -0.3447
6.504e+09  0.8769  0.03544  0.04105  0.02781  0.05086  0.009172  0.5122  -0.5865
6.505e+09  0.8508  -0.3306  -0.0001536  0.003212  0.01844  -0.00874  0.2555  -0.7388
6.506e+09  0.6728  -0.6239  -0.01221  -0.03443  -0.02178  -0.02369  0.01161  -0.7507
6.508e+09  0.4649  -0.7963  0.02417  0.02098  -0.00423  -0.02534  -0.2516  -0.753
6.509e+09  0.143  -0.887  -0.02224  -0.0209  0.002892  0.006055  -0.473  -0.5968
6.51e+09  -0.1363  -0.8935  0.01726  0.0297  -0.05192  0.0284  -0.6349  -0.4095
6.511e+09  -0.4554  -0.787  0.01206  -0.05018  0.008333  0.0243  -0.7669  -0.1168
6.512e+09  -0.6812  -0.6079  -0.03471  -0.01707  0.01236  0.01767  -0.7598  0.1315
6.514e+09  -0.8736  -0.3328  0.005635  -0.0133  -0.01173  0.01908  -0.6781  0.3639
6.515e+09  -0.9094  0.06665  0.001897  -0.005393  0.01677  0.0242  -0.4671  0.566
6.516e+09  -0.8785  0.3459  0.008335  -0.01898  0.003391  -0.0001109  -0.2552  0.7585
6.518e+09  -0.6629  0.5918  0.01613  -0.00093  -0.01959  0.02868  0.006675  0.7524
6.519e+09  -0.4577  0.7846  0.02031  0.02199  0.0163  0.04467  0.263  0.698
6.52e+09  -0.09196  0.9223  0.0009203  0.04075  0.005822  -0.01977  0.4978  0.526
6.521e+09  0.2297  0.8687  0.0262  -0.03418  0.0394  0.02077  0.6374  0.333
6.522e+09  0.4744  0.8156  0.0138  0.03605  6.518e-05  0.04593  0.7073  0.09889
6.524e+09  0.7703  0.5947  0.003306  -0.04175  0.0328  0.02828  0.707  -0.1916
6.525e+09  0.9015  0.3169  -0.03532  0.04597  0.00501  0.03736  0.5979  -0.387
6.526e+09  0.8908  -0.06824  0.03787  0.006625  0.01008  0.02511  0.407  -0.5564
6.528e+09  0.9175  -0.3923  -0.01626  -0.01322  -0.01685  -0.07291  0.2027  -0.6994
6.529e+09  0.7027  -0.6767  0.03218  0.0279  0.02882  0.01623  -0.06078  -0.7202
6.53e+09  0.4331  -0.8593  -0.01542  -0.01628  0.01563  0.0458  -0.2542  -0.6351
6.531e+09  0.1056  -0.9657  -0.0247  -0.004865  -0.02385  0.02699  -0.4626  -0.4813
6.532e+09  -0.2857  -0.9093  0.00385  0.002272  -0.005008  0.0258  -0.5631  -0.3169
6.534e+09  -0.5238  -0.8417  -0.02511  -0.03228  0.008982  0.03869  -0.6094  -0.0881
6.535e+09  -0.8114  -0.509  0.001768  0.01963  -0.01692  -0.01784  -0.6028  0.1242
6.536e+09  -0.9114  -0.2626  0.009782  -0.01845  -0.03729  0.02714  -0.586  0.2743
6.538e+09  -0.9699  0.1116  -0.02236  0.004602  -0.04176  0.02594  -0.4726  0.4297
6.539e+09  -0.8213  0.4459  0.03349  -0.01062  -0.05031  -0.03732  -0.2985  0.5852
6.54e+09  -0.6791  0.6911  -0.01029  0.02742  -0.007976  -0.02987  -0.06118  0.6883
6.541e+09  -0.3709  0.8926  -0.005809  0.02488  0.02686  -0.01708  0.1795  0.6329
6.542e+09  -0.05999  0.9302  -0.01708  -0.01385  0.0162  -0.05257  0.3836  0.5984
6.544e+09  0.3468  0.9054  0.0192  0.007194  0.02561  -0.03137  0.583  0.3572
6.545e+09  0.6102  0.7391  0.04203  0.0481  0.02431  0.006418  0.6759  0.1843
6.546e+09  0.876  0.5289  -0.002613  -0.008246  0.001641  -0.03622  0.7089  -0.1044
6.548e+09  0.9616  0.2066  0.003511  -0.002753  0.01601  0.02597  0.6655  -0.3171
6.549e+09  0.9315  -0.2309  -0.03231  0.03742  0.02536  -0.004529  0.501  -0.5211
6.55e+09  0.8207  -0.4783  0.02281  -0.004494  0.01692  0.02437  0.2892  -0.6794
6.551e+09  0.5976  -0.7372  -0.02197  -0.01259  0.00142  0.03861  0.03066  -0.7272
