# Hz S RI R 50
6.25e+09  -0.3454  0.7851  0.009577  0.001819  0.00815  0.01704  0.1568  0.4899
6.251e+09  -0.1215  0.8089  0.04326  0.01164  8.134e-05  -0.01008  0.3929  0.3934
6.252e+09  0.1894  0.8699  -0.01183  0.0297  -0.00303  -0.0137  0.5311  0.2555
6.254e+09  0.4582  0.7051  0.005166  -0.006503  0.004845  0.003947  0.6038  0.04631
6.255e+09  0.6738  0.5169  0.01202  0.01418  0.05239  -0.03205  0.6169  -0.2266
6.256e+09  0.8011  0.2373  0.002727  0.007422  -0.03624  -0.04731  0.4703  -0.4658
6.258e+09  0.8274  -0.04666  -0.0004523  -0.001208  0.00723  -0.006424  0.2756  -0.5886
6.259e+09  0.7782  -0.3477  0.02258  0.002771  -0.01508  -0.03377  0.01106  -0.6698
6.26e+09  0.5659  -0.5371  0.02713  -0.01202  -0.03032  0.01194  -0.2286  -0.6374
6.261e+09  0.3536  -0.7238  0.0213  -0.0228  -0.009248  -0.01359  -0.407  -0.556
6.262e+09  0.08829  -0.8795  0.004349  0.01138  0.005805  0.01537  -0.6362  -0.334
6.264e+09  -0.1682  -0.817  0.004214  0.0103  0.02163  -0.001353  -0.7198  -0.09593
6.265e+09  -0.5127  -0.713  -0.01529  0.002456  -0.01709  0.03377  -0.698  0.1518
6.266e+09  -0.6609  -0.4618  0.001118  -0.006715  -0.02818  -0.05649  -0.5754  0.421
6.268e+09  -0.8023  -0.2395  -0.01151  0.01508  -0.02742  -0.007211  -0.4456  0.6046
6.269e+09  -0.8673  0.05269  0.01806  -0.008892  0.003138  -0.0003777  -0.172  0.7143
6.27e+09  -0.7718  0.3156  -0.02211  -0.0286  0.02191  -0.006898  0.08222  0.7505
6.271e+09  -0.6302  0.5548  0.0265  -0.02205  -0.0113  0.01368  0.3023  0.6641
6.272e+09  -0.3616  0.7283  0.004455  0.001521  -0.001027  -0.03937  0.5225  0.5086
6.274e+09  -0.07853  0.8389  -0.0146  0.003417  -0.05199  -0.001952  0.7034  0.3123
6.275e+09  0.1804  0.7713  -0.01802  -0.009754  -0.0003658  0.04029  0.7406  0.03669
6.276e+09  0.443  0.6918  -0.002397  -0.0003573  0.008237  0.0613  0.7005  -0.2228
6.278e+09  0.6643  0.4785  0.00954  0.00778  -0.03462  -0.005568  0.6023  -0.4516
6.279e+09  0.77  0.187  0.01987  0.02276  0.02432  -0.04559  0.4208  -0.6399
6.28e+09  0.8731  -0.02392  -0.0214  0.02381  -0.02198  0.0009284  0.1574  -0.743
6.281e+09  0.821  -0.3329  -0.01602  -0.007941  0.01548  0.001337  -0.09235  -0.7522
6.282e+09  0.5866  -0.5767  0.003358  -0.01873  0.04304  0.01125  -0.3518  -0.681
6.284e+09  0.3715  -0.7374  -0.01587  -0.01522  -0.04865  0.08634  -0.6086  -0.5325
6.285e+09  0.09271  -0.8079  0.02455  0.01184  0.005286  0.02877  -0.7107  -0.288
6.286e+09  -0.1834  -0.771  0.01957  0.001686  -0.02677  -0.007665  -0.7662  -0.02173
6.288e+09  -0.3977  -0.6518  -0.01369  -0.01042  0.0528  0.0273  -0.7626  0.2467
6.289e+09  -0.6964  -0.4777  -0.0008779  -0.006418  0.02612  0.004204  -0.6038  0.4884
6.29e+09  -0.8037  -0.2138  -0.0008434  0.03958  0.005668  0.0007635  -0.4538  0.6812
6.291e+09  -0.8509  0.07819  -0.01079  0.005696  -0.01318  -0.008357  -0.1553  0.7859
6.292e+09  -0.7054  0.3392  0.01229  -0.01045  -0.02324  0.053  0.1401  0.8036
6.294e+09  -0.5495  0.6327  0.0098  -0.0236  6.659e-05  -0.05233  0.3992  0.721
6.295e+09  -0.2688  0.7904  -0.01837  0.005498  4.499e-05  0.005078  0.6067  0.5272
6.296e+09  -0.05102  0.8228  0.004975  -0.00449  0.002749  0.005433  0.7558  0.2726
6.298e+09  0.2052  0.8232  0.004678  0.02013  0.02828  0.01764  0.8189  0.01653
6.299e+09  0.4967  0.6624  -0.004486  -0.005561  -0.005143  -0.02508  0.774  -0.2764
6.3e+09  0.725  0.4881  -0.01623  -0.03478  -0.04042  -0.009348  0.6448  -0.5373
6.301e+09  0.79  0.1998  -0.007464  0.01192  -0.02159  0.008774  0.44  -0.6989
6.302e+09  0.8687  -0.05103  0.01323  0.03712  -0.003051  -0.002471  0.158  -0.786
6.304e+09  0.7555  -0.3363  0.008847  -0.02143  0.01309  0.04731  -0.1513  -0.8122
6.305e+09  0.5003  -0.5223  0.008423  0.031  -0.003313  0.003609  -0.4215  -0.7181
6.306e+09  0.3339  -0.7974  0.01771  0.02197  -0.003703  0.01408  -0.6646  -0.554
6.308e+09  0.05746  -0.7866  0.0226  -0.01078  0.02022  0.02034  -0.8505  -0.3387
6.309e+09  -0.2356  -0.8054  -1.744e-05  -0.001519  -0.02636  -0.006713  -0.8703  -0.01895
6.31e+09  -0.5046  -0.6246  -0.03099  0.005172  0.0602  0.05231  -0.822  0.2752
6.311e+09  -0.7328  -0.4444  0.01066  -0.002621  -0.03701  0.01574  -0.6985  0.5587
6.312e+09  -0.8813  -0.1292  0.007058  0.02346  0.01371  0.006596  -0.4506  0.7354
6.314e+09  -0.812  0.1163  0.02677  -0.006642  0.01353  -0.004577  -0.2091  0.8387
6.315e+09  -0.7279  0.3984  0.01364  -0.00401  0.02867  -0.03044  0.1713  0.8637
6.316e+09  -0.5117  0.6323  -0.001549  0.006364  -0.01655  0.03445  0.4097  0.759
6.318e+09  -0.3026  0.7673  0.01451  0.01277  0.0289  -0.004926  0.6617  0.563
6.319e+09  0.008916  0.8149  -0.03695  0.00352  0.0479  -0.0105  0.7907  0.3069
6.32e+09  0.3077  0.8502  0.02387  0.005753  -0.03514  0.008092  0.8705  0.05766
6.321e+09  0.5416  0.6436  -0.01122  0.01593  -0.01119  0.05533  0.8402  -0.3185
6.322e+09  0.7533  0.4015  0.008522  -0.008124  0.0121  -0.02588  0.6394  -0.5598
6.324e+09  0.8512  0.1038  -0.03167  -0.005593  0.0187  0.0149  0.4649  -0.7809
6.325e+09  0.8622  -0.1699  -0.02036  0.01557  -0.01916  0.03435  0.1518  -0.8717
6.326e+09  0.6874  -0.5144  0.009517  0.01523  -0.01802  -0.00515  -0.1152  -0.9105
6.328e+09  0.5419  -0.7048  0.01511  -0.0112  0.03381  -0.005166  -0.3917  -0.7803
6.329e+09  0.2528  -0.8621  0.04382  -0.04059  0.007542  0.03289  -0.6848  -0.5755
6.33e+09  -0.00766  -0.8411  0.03279  0.0217  -0.003242  0.006702  -0.8319  -0.3274
6.331e+09  -0.362  -0.8055  0.001309  -0.04556  -0.006922  -0.01284  -0.9011  0.006543
6.332e+09  -0.5909  -0.624  -0.0207  0.01837  -0.00234  -0.02583  -0.8757  0.2921
6.334e+09  -0.8253  -0.3645  0.0376  -0.003124  0.03811  -0.01617  -0.7251  0.558
6.335e+09  -0.9049  -0.0146  -0.03576  0.006275  -0.03913  -0.005147  -0.5051  0.7659
6.336e+09  -0.8595  0.2034  -0.01543  -0.04467  0.02597  0.001637  -0.2195  0.9068
6.338e+09  -0.6749  0.518  -0.02522  -0.002026  -0.001077  0.003047  0.1223  0.8789
6.339e+09  -0.439  0.7745  0.02685  0.01834  0.04061  -0.03785  0.4324  0.8023
6.34e+09  -0.1768  0.8523  -0.01385  0.005314  -0.01406  0.04871  0.6923  0.5914
6.341e+09  0.1004  0.899  -0.01007  0.01615  0.003668  0.01152  0.8704  0.3345
6.342e+09  0.4148  0.8087  0.0131  0.02348  -0.02997  -0.03972  0.9356  0.06353
6.344e+09  0.6662  0.5504  -0.01558  -0.0258  0.02175  0.01097  0.8419  -0.2881
6.345e+09  0.848  0.3647  0.02695  -0.00926  -0.024  0.03262  0.7441  -0.5169
6.346e+09  0.9072  0.01878  0.007377  0.01134  -0.008946  -0.001709  0.5169  -0.7733
6.348e+09  0.8259  -0.2726  -0.01133  0.03334  0.002238  0.03399  0.2181  -0.9023
6.349e+09  0.663  -0.5429  -0.0192  0.00846  0.002791  -0.0352  -0.0948  -0.9304
6.35e+09  0.4629  -0.7513  -0.04146  0.0199  0.01589  0.01485  -0.388  -0.8181
6.351e+09  0.1494  -0.9209  0.00526  -0.003916  0.0115  -0.02361  -0.7014  -0.6601
6.352e+09  -0.1218  -0.8581  0.006958  -0.0387  0.03582  -0.0005651  -0.8692  -0.3823
6.354e+09  -0.4404  -0.765  0.0007138  0.01545  -0.009111  -0.02824  -0.9594  -0.07867
6.355e+09  -0.671  -0.5829  -0.02665  0.008726  0.02512  0.01432  -0.8818  0.258
6.356e+09  -0.836  -0.264  -0.01599  -0.02641  0.0111  -0.01665  -0.762  0.5071
6.358e+09  -0.8847  0.05269  0.01449  -0.03386  -0.01559  0.03293  -0.5444  0.8036
6.359e+09  -0.8407  0.3876  -0.01534  0.01556  0.008923  -0.005625  -0.2406  0.9237
6.36e+09  -0.6581  0.6267  0.01231  -0.0006106  -0.01154  -0.008389  0.08758  0.9531
6.361e+09  -0.3274  0.8537  -0.02548  0.002434  -0.004308  -0.0439  0.4023  0.8391
6.362e+09  -0.1046  0.9098  0.01688  0.03495  0.00292  0.02016  0.6789  0.6682
6.364e+09  0.2377  0.8723  -0.003743  -0.02723  -0.04662  -0.006895  0.8789  0.4185
6.365e+09  0.483  0.7358  -0.003924  0.03894  -0.01267  0.03362  0.9461  0.1009
6.366e+09  0.7057  0.4878  0.01146  0.00189  0.06011  0.01859  0.903  -0.2765
6.368e+09  0.8342  0.2111  0.02201  -0.0137  -0.003999  -0.03808  0.7678  -0.5318
6.369e+09  0.9077  -0.1368  -0.02071  -0.002926  -0.02012  -0.002019  0.5339  -0.7415
6.37e+09  0.7954  -0.3372  -0.003169  -0.02268  0.04077  -0.02642  0.2237  -0.9613
6.371e+09  0.5922  -0.6697  -0.0069  0.01133  0.01042  0.02344  -0.06869  -0.9277
6.372e+09  0.3731  -0.8235  -0.02352  -0.0001583  -0.02161  -0.01822  -0.4325  -0.8436
6.374e+09  0.05403  -0.902  5.222e-05  0.02347  -0.006336  0.00765  -0.6694  -0.6594
6.375e+09  -0.2772  -0.8307  -0.02168  0.0145  -0.01617  -0.006126  -0.8673  -0.4384
6.376e+09  -0.5173  -0.7228  0.01172  0.02312  -0.00805  -0.003044  -0.9726  -0.0738
6.378e+09  -0.767  -0.5078  0.02538  -0.00172  -0.05206  -0.02418  -0.8899  0.2199
6.379e+09  -0.8538  -0.2543  0.01519  0.003306  0.005406  -0.02833  -0.8025  0.5304
6.38e+09  -0.8778  0.1314  -0.00164  0.00717  0.02491  -0.02428  -0.5283  0.7617
6.381e+09  -0.7744  0.4802  -0.002983  -0.001891  0.001038  0.006534  -0.2231  0.8988
6.382e+09  -0.5726  0.6464  0.02073  0.003144  0.005462  0.005288  0.03403  0.961
6.384e+09  -0.3396  0.8475  0.005485  0.009895  -0.05974  0.02768  0.3325  0.8645
6.385e+09  0.02743  0.8487  0.001771  0.03902  0.01423  -0.008381  0.6414  0.6636
6.386e+09  0.2984  0.8006  0.003871  -0.03415  0.008436  -0.02912  0.8226  0.4125
6.388e+09  0.5559  0.6681  -0.01308  0.008056  0.018  0.004392  0.9205  0.1106
6.389e+09  0.7944  0.4185  -0.03152  0.008714  0.01172  -0.007111  0.9191  -0.2269
6.39e+09  0.8697  0.1076  0.01346  0.01179  0.0163  0.02315  0.8114  -0.51
6.391e+09  0.8733  -0.1359  0.009676  -0.04072  0.01888  0.02555  0.5506  -0.6984
6.392e+09  0.816  -0.4517  -0.03215  -0.00422  0.04801  -0.007866  0.3073  -0.8449
6.394e+09  0.5757  -0.724  0.04078  -0.02514  -0.05648  -0.01595  -0.004449  -0.9619
6.395e+09  0.2517  -0.8753  0.003414  0.01779  0.0225  0.01013  -0.3024  -0.8615
6.396e+09  -0.01816  -0.9159  0.02274  0.07447  0.0257  0.02219  -0.622  -0.7175
6.398e+09  -0.3608  -0.7662  -0.02591  0.004659  -0.003971  0.01705  -0.8085  -0.4336
6.399e+09  -0.6039  -0.6704  -0.01692  0.01279  0.01881  -0.02421  -0.9325  -0.135
6.4e+09  -0.7363  -0.3855  0.006448  0.0392  0.006533  0.01263  -0.8844  0.1509
6.401e+09  -0.845  -0.1319  -0.003929  0.04129  -0.04181  -0.003216  -0.7759  0.4683
6.402e+09  -0.7894  0.1785  -0.02562  0.00985  -0.005877  0.04527  -0.6043  0.718
6.404e+09  -0.6813  0.4594  -0.01909  0.004823  0.01788  -0.002775  -0.2952  0.8393
6.405e+09  -0.5379  0.6856  -0.007936  0.0263  0.01725  -0.003235  -0.0242  0.9297
6.406e+09  -0.22  0.8483  0.01098  -0.0009878  -0.006863  0.004901  0.2687  0.8723
6.408e+09  0.05654  0.8581  -0.008802  0.01943  0.004005  -0.02645  0.5634  0.7166
6.409e+09  0.3438  0.7714  -0.003345  -0.003924  0.0139  -0.02373  0.7921  0.4859
6.41e+09  0.5865  0.6645  -0.02678  -0.001047  0.01337  0.00553  0.8676  0.2047
6.411e+09  0.8249  0.4255  0.08315  -0.043  0.005351  -0.06632  0.8996  -0.1599
6.412e+09  0.9255  0.07803  0.04822  0.00277  0.03889  0.01822  0.7485  -0.4117
6.414e+09  0.8254  -0.252  0.0452  0.06404  0.005377  -0.0009903  0.5863  -0.6336
6.415e+09  0.7293  -0.4938  0.008095  -0.0008018  0.02675  -0.03762  0.3771  -0.8085
6.416e+09  0.522  -0.6994  0.01117  -0.03267  -0.01957  -0.03041  0.005915  -0.8934
6.418e+09  0.3058  -0.8526  -0.006522  -0.01345  0.02484  0.05162  -0.2311  -0.8706
6.419e+09  -0.07023  -0.8915  0.001436  0.08289  0.02279  0.004891  -0.5879  -0.7071
6.42e+09  -0.351  -0.7559  0.01443  0.006656  -0.02417  0.01447  -0.7724  -0.4923
6.421e+09  -0.5837  -0.6281  -0.04175  0.003791  -0.01368  0.03193  -0.8666  -0.2133
6.422e+09  -0.7966  -0.3418  -0.002988  0.01122  0.04954  0.01439  -0.8756  0.09447
6.424e+09  -0.8974  -0.06877  -0.0163  -0.004818  -0.03613  0.01285  -0.7791  0.378
6.425e+09  -0.8469  0.276  0.0136  0.02934  -0.04631  0.00722  -0.601  0.636
6.426e+09  -0.6861  0.5581  -0.006723  0.01238  0.02085  0.002569  -0.3009  0.8069
6.428e+09  -0.4665  0.7587  0.001309  -0.002185  0.01466  0.01002  -0.06645  0.8839
6.429e+09  -0.2413  0.8439  -0.01008  0.01667  0.01879  0.0183  0.2248  0.8198
6.43e+09  0.1147  0.8697  0.01239  0.02237  0.01938  0.03599  0.5546  0.6831
6.431e+09  0.3583  0.8173  0.00995  -0.01071  -0.003953  -0.01861  0.7068  0.4713
6.432e+09  0.6494  0.6237  0.03809  0.04847  -0.05452  0.02246  0.8486  0.2501
6.434e+09  0.826  0.3213  -0.04869  -0.002255  -0.01627  0.01814  0.8591  -0.1086
6.435e+09  0.8552  0.06916  0.02819  -0.01096  0.02834  0.03053  0.8005  -0.371
6.436e+09  0.8178  -0.2699  -0.03061  -0.0005917  0.05807  -0.002933  0.597  -0.5987
6.438e+09  0.7192  -0.5218  -0.01778  0.01139  -0.0008388  -0.0252  0.3515  -0.7736
6.439e+09  0.4729  -0.7842  -0.05158  0.039  -0.02359  0.0495  0.1237  -0.8099
6.44e+09  0.2047  -0.842  0.008707  0.008387  -0.0002932  -0.02309  -0.2399  -0.8267
6.441e+09  -0.08283  -0.8655  -0.01001  0.02028  -0.04392  0.02963  -0.4916  -0.6988
6.442e+09  -0.4184  -0.7731  0.03951  -0.01506  0.004767  -0.001158  -0.6831  -0.4872
6.444e+09  -0.5778  -0.5916  -0.0295  -0.006145  0.01477  0.05883  -0.8202  -0.2283
6.445e+09  -0.7819  -0.3669  -0.003725  -0.007098  0.01322  0.02225  -0.8665  0.0921
6.446e+09  -0.8871  -0.04794  0.001765  0.01823  -0.006958  0.022  -0.7523  0.3627
6.448e+09  -0.8179  0.2848  0.01686  -0.001548  0.02824  0.0104  -0.6255  0.5861
6.449e+09  -0.7423  0.5661  -0.01967  -0.01317  0.03046  -0.02805  -0.3467  0.7513
6.45e+09  -0.4799  0.7342  -0.0001272  0.001178  -0.0134  0.01339  -0.02966  0.8376
6.451e+09  -0.1633  0.8826  -0.02077  0.006736  0.03932  -0.009901  0.2013  0.7815
6.452e+09  0.1174  0.8514  -0.04654  0.01187  -0.009076  -0.00942  0.4627  0.673
6.454e+09  0.3962  0.8003  -0.02049  -0.001157  0.01465  0.0192  0.7091  0.4776
6.455e+09  0.6229  0.5726  0.03528  -0.004306  0.002276  0.04749  0.8172  0.2256
6.456e+09  0.8241  0.3491  -0.003967  -0.04656  -0.03959  0.0372  0.796  -0.05708
6.458e+09  0.9483  0.06246  0.01397  -0.02799  0.01674  -0.02485  0.712  -0.3238
6.459e+09  0.8921  -0.2975  -0.005835  0.01228  -0.004537  -0.02316  0.5863  -0.5948
6.46e+09  0.6756  -0.5579  0.03511  0.03515  0.009245  0.000528  0.3355  -0.7668
6.461e+09  0.5004  -0.7457  -0.0003962  0.02586  0.00814  -0.01463  0.06515  -0.7974
6.462e+09  0.243  -0.8942  0.02304  -0.02449  -0.006901  -0.03642  -0.2037  -0.7738
6.464e+09  -0.1547  -0.9004  -0.007802  0.02333  -0.02606  0.0178  -0.469  -0.6927
6.465e+09  -0.3811  -0.768  -0.04627  0.01676  0.01392  0.02787  -0.6586  -0.4631
6.466e+09  -0.6405  -0.6721  0.01034  0.001074  0.01213  0.02862  -0.7506  -0.2047
6.468e+09  -0.8093  -0.3271  0.04822  0.0007398  -0.003539  0.03895  -0.8045  0.08171
6.469e+09  -0.8607  -0.03159  0.009315  0.01581  0.02688  0.01024  -0.7196  0.3588
6.47e+09  -0.8342  0.2764  -0.04161  -0.01753  -0.02584  -0.001668  -0.5444  0.6392
6.471e+09  -0.7166  0.5816  0.004634  0.04538  0.03419  -0.0204  -0.3294  0.6767
6.472e+09  -0.4862  0.7449  0.03617  0.03359  -0.02386  0.01147  -0.1041  0.8093
6.474e+09  -0.1809  0.9195  -0.02281  0.0252  0.0103  -0.02426  0.2189  0.7525
6.475e+09  0.1272  0.8648  -0.02035  0.0101  -0.04458  0.02804  0.4677  0.6387
6.476e+09  0.4139  0.7693  0.06351  -0.03353  0.06916  -0.0197  0.5924  0.4447
6.478e+09  0.7007  0.609  0.02778  -0.03504  -0.03255  -0.03754  0.739  0.2295
6.479e+09  0.8181  0.3343  0.03435  -0.02679  -0.01146  -0.02139  0.7486  -0.1089
6.48e+09  0.9105  0.03734  -0.002656  0.002498  -0.008863  0.008816  0.6886  -0.3542
6.481e+09  0.8798  -0.3176  -0.006567  -0.06083  0.006481  0.03108  0.5414  -0.5626
6.482e+09  0.659  -0.6084  0.007281  0.004125  -0.006939  -0.01296  0.2594  -0.7187
6.484e+09  0.4418  -0.766  0.004539  0.01662  0.0393  0.0006714  0.06437  -0.7716
6.485e+09  0.1815  -0.9431  -0.005927  -0.003072  -0.001701  0.008036  -0.2079  -0.7176
6.486e+09  -0.2081  -0.8729  0.01394  0.01081  -0.02711  0.0301  -0.4762  -0.6402
6.488e+09  -0.4576  -0.8155  0.0251  -0.01849  0.01306  -0.002365  -0.6593  -0.4146
6.489e+09  -0.7306  -0.6283  0.03521  -0.0218  -0.01083  0.05024  -0.7201  -0.1478
6.49e+09  -0.849  -0.3196  0.03051  -0.02865  0.02343  -0.03055  -0.7549  0.1249
6.491e+09  -0.9548  -0.06764  -0.02279  -0.01708  0.008092  0.02285  -0.7001  0.3225
6.492e+09  -0.8684  0.2979  -0.007244  0.04058  0.01632  -0.008046  -0.49  0.5455
6.494e+09  -0.6884  0.5876  -0.003142  0.02233  0.005527  -0.01128  -0.2881  0.7082
6.495e+09  -0.4607  0.8274  -0.00692  0.01352  -0.01255  -0.04534  -0.03733  0.7812
6.496e+09  -0.09547  0.9211  0.004686  -0.02564  0.02021  -0.02024  0.2417  0.7468
6.498e+09  0.202  0.9291  -0.01486  0.00751  -0.01477  0.006374  0.4652  0.5631
6.499e+09  0.5175  0.8101  0.004998  0.0468  -0.01212  -0.01198  0.6398  0.4072
6.5e+09  0.7322  0.5719  -0.03012  -0.005531  0.04605  -0.005512  0.7358  0.1698
6.501e+09  0.8757  0.2552  0.02646  0.01589  -0.0006988  -0.02914  0.731  -0.1406
6.502e+09  0.9878  -0.05169  0.04503  0.01645  -0.02928  -0.02921  0.6761  -0.3376
6.504e+09  0.8858  -0.3897  0.02231  -0.03835  0.03627  -0.02113  0.5  -0.5515
6.505e+09  0.7591  -0.6174  -0.007274  0.01142  -0.01836  -0.009491  0.2698  -0.686
6.506e+09  0.4835  -0.8811  -0.0397  0.02057  0.05766  0.01008  0.03976  -0.7859
6.508e+09  0.08178  -0.9354  0.01973  -0.01187  0.01409  -0.006666  -0.2621  -0.7208
6.509e+09  -0.2443  -0.8978  -0.01756  -0.03285  -0.000814  0.01974  -0.4754  -0.602
6.51e+09  -0.5329  -0.7943  -0.02129  0.02909  0.01216  -0.05019  -0.6999  -0.4239
6.511e+09  -0.8369  -0.6267  0.002532  0.02067  -0.02023  -0.04486  -0.7494  -0.1531
6.512e+09  -0.9136  -0.2573  -0.03671  0.01649  -0.006704  0.01798  -0.7263  0.1264
6.514e+09  -0.9506  0.003257  0.005281  0.03397  -0.02057  -0.01315  -0.6472  0.3902
6.515e+09  -0.8315  0.3796  0.01005  0.0009094  0.01408  -0.0196  -0.4784  0.5687
6.516e+09  -0.7315  0.6867  -0.01768  -0.01195  0.04923  0.02496  -0.2284  0.7092
6.518e+09  -0.3864  0.8977  0.04569  -0.02024  0.00847  -0.01846  0.03843  0.7488
6.519e+09  -0.1212  0.9629  -0.01225  0.008746  0.003205  -0.03544  0.2597  0.6736
6.52e+09  0.2173  0.9302  -0.01296  0.0105  0.03956  -0.004987  0.5  0.5781
6.521e+09  0.5877  0.7748  0.03894  -0.002893  -0.005818  -0.03607  0.6492  0.37
6.522e+09  0.8055  0.5007  0.00411  -0.005016  0.01824  0.004661  0.7178  0.07934
6.524e+09  0.9418  0.1616  -0.006926  0.005531  0.03538  -0.0441  0.699  -0.1638
6.525e+09  0.96  -0.1193  -0.006828  -0.03923  -0.01171  -0.03838  0.6054  -0.3842
6.526e+09  0.8825  -0.4895  0.006244  0.011  0.03357  -0.008195  0.4107  -0.5869
6.528e+09  0.6675  -0.7575  0.03546  0.0003771  -0.01159  0.0258  0.2029  -0.6749
6.529e+09  0.3461  -0.9326  0.007709  0.006207  0.01476  -0.05559  -0.05056  -0.698
6.53e+09  0.03789  -0.996  -0.02323  -0.004494  0.005118  -0.005765  -0.291  -0.5827
6.531e+09  -0.3554  -0.9404  0.009257  0.02081  -0.02069  -0.02425  -0.4829  -0.4729
6.532e+09  -0.6447  -0.762  -0.03706  0.009107  -0.03062  0.01417  -0.5646  -0.2594
6.534e+09  -0.9047  -0.4602  0.01338  -0.009411  0.03786  0.005207  -0.6254  -0.1012
6.535e+09  -1.003  -0.1719  0.007901  -0.02023  -0.006464  -0.01292  -0.6257  0.09515
6.536e+09  -0.9842  0.2838  0.05577  0.007057  -0.02892  2.434e-05  -0.5478  0.3099
6.538e+09  -0.8097  0.5022  -0.007984  -0.01048  0.01864  -0.01806  -0.4576  0.4807
6.539e+09  -0.5971  0.7764  0.007158  -0.03231  0.007492  0.03248  -0.2856  0.6322
6.54e+09  -0.273  0.9781  -0.008161  0.009734  0.02366  -0.04338  -0.05124  0.7122
6.541e+09  0.06102  1.014  0.03759  -0.0315  -0.02704  -0.02587  0.1744  0.6856
6.542e+09  0.419  0.8764  0.001559  0.01305  -0.0318  0.04437  0.4077  0.5856
6.544e+09  0.6604  0.698  -0.02104  -0.008864  0.03558  0.03616  0.5922  0.4205
6.545e+09  0.8912  0.4096  0.002748  0.002997  0.007845  -0.001259  0.7192  0.1999
6.546e+09  0.9556  0.08051  0.02236  -0.002432  -0.005405  -0.01393  0.7105  -0.1007
6.548e+09  0.9247  -0.2652  0.004262  0.03225  0.009681  -0.022  0.6665  -0.3401
6.549e+09  0.8082  -0.6067  0.04088  -0.0383  0.03476  -0.007712  0.4572  -0.5166
6.55e+09  0.5082  -0.8038  -0.03758  0.005391  0.003956  0.04215  0.292  -0.6673
6.551e+09  0.245  -0.9454  0.001038  -0.00753  -0.0003374  0.05008  0.02506  -0.7423
