# Hz S RI R 50
6.25e+09  -0.3287  0.8166  0.004929  -0.008607  0.06626  -0.03713  0.1643  0.4865
6.251e+09  -0.07399  0.8615  0.04199  -0.001662  0.02264  0.04012  0.3687  0.4356
6.252e+09  0.2633  0.8065  -0.01444  -0.02277  0.02136  0.03065  0.5485  0.2534
6.254e+09  0.4703  0.6686  0.02407  0.01717  -0.03266  -0.06039  0.5934  -0.002459
6.255e+09  0.7566  0.4233  0.01852  0.0006165  0.08117  -0.002755  0.6058  -0.2117
6.256e+09  0.8454  0.1708  -0.02284  -0.001899  -0.01908  0.009387  0.4852  -0.4066
6.258e+09  0.796  -0.1002  0.005719  -0.01346  -0.0502  -0.04066  0.3105  -0.6056
6.259e+09  0.7854  -0.4097  -0.01023  0.008697  0.03308  0.07247  0.0485  -0.6802
6.26e+09  0.6197  -0.6268  -0.0237  0.01004  -0.003885  -0.07395  -0.2067  -0.6478
6.261e+09  0.3292  -0.7899  0.0162  3.495e-05  -0.02408  -0.01974  -0.4204  -0.5285
6.262e+09  -0.00913  -0.8478  -0.02105  -0.03875  -0.06801  0.03301  -0.5865  -0.324
6.264e+09  -0.2633  -0.7858  -0.0255  -0.02373  0.006197  -0.05403  -0.7298  -0.1137
6.265e+09  -0.5169  -0.6493  0.01358  -0.007177  -0.03269  0.05701  -0.6934  0.1671
6.266e+09  -0.7319  -0.3664  0.007977  -0.01209  0.05317  0.01037  -0.5482  0.3826
6.268e+09  -0.8211  -0.0848  -0.03714  -0.01712  -0.03603  0.04919  -0.439  0.5801
6.269e+09  -0.8509  0.02572  0.00898  -0.0193  -0.01866  -0.03821  -0.2305  0.7199
6.27e+09  -0.721  0.3847  0.006946  -0.001047  -0.0211  -0.02122  0.06777  0.7003
6.271e+09  -0.5285  0.6376  -0.007769  0.02036  0.03478  -0.08796  0.3106  0.6993
6.272e+09  -0.3133  0.7596  1.053e-05  0.01562  -0.05916  0.02284  0.5319  0.5139
6.274e+09  -0.00808  0.8566  -0.008758  -0.008604  0.006877  -0.02052  0.7153  0.3095
6.275e+09  0.2633  0.8266  0.009348  -0.03587  0.04616  -0.0493  0.8032  0.06858
6.276e+09  0.5084  0.648  0.003759  0.01478  0.03539  -0.007998  0.7189  -0.2464
6.278e+09  0.8122  0.4028  -0.01634  -0.01318  -0.01383  0.01401  0.6002  -0.4745
6.279e+09  0.8554  0.1295  0.02592  0.01918  0.0746  -0.003525  0.4218  -0.6461
6.28e+09  0.8605  -0.1192  -0.021  -0.005467  0.03253  0.0207  0.1572  -0.7758
6.281e+09  0.689  -0.4435  -0.006417  -0.006403  0.006646  -0.0176  -0.1273  -0.7415
6.282e+09  0.5149  -0.6014  -0.005925  -0.03534  0.02356  -0.06357  -0.393  -0.695
6.284e+09  0.3203  -0.8013  0.0005183  -0.007503  0.01304  0.005507  -0.5938  -0.5547
6.285e+09  0.009271  -0.8432  0.02278  0.02947  0.006027  0.05147  -0.7394  -0.2936
6.286e+09  -0.2724  -0.7676  0.009452  0.01728  -0.02203  0.0265  -0.791  0.0117
6.288e+09  -0.5073  -0.6284  -0.003225  -0.009762  -0.008747  -0.04547  -0.7652  0.2264
6.289e+09  -0.7488  -0.3963  0.01115  -0.008465  -0.0194  -0.03999  -0.6141  0.492
6.29e+09  -0.8382  -0.1437  0.004386  0.01403  -0.03028  -0.00667  -0.4097  0.6809
6.291e+09  -0.8587  0.1614  -0.01116  -0.02259  -0.01198  0.021  -0.149  0.7848
6.292e+09  -0.731  0.4064  -0.004519  -0.007364  0.04953  0.03361  0.1603  0.765
6.294e+09  -0.4635  0.6451  -0.01317  0.02346  0.03979  0.01461  0.3932  0.7448
6.295e+09  -0.2199  0.8087  -0.0109  -0.01332  0.006354  -0.02167  0.5929  0.5567
6.296e+09  0.02069  0.8544  0.01492  0.01635  -0.0009974  0.02431  0.7531  0.3096
6.298e+09  0.3379  0.7718  0.0309  0.003629  0.009553  0.02255  0.8156  -0.004016
6.299e+09  0.6001  0.6049  0.0446  0.006336  -0.03569  -0.02355  0.7997  -0.285
6.3e+09  0.7451  0.3849  -0.03595  0.02874  0.0265  0.04386  0.6474  -0.5148
6.301e+09  0.8558  0.1352  -0.0297  -0.002661  0.02933  0.02198  0.4588  -0.7106
6.302e+09  0.7614  -0.2168  0.01575  -0.001105  -0.006861  0.006186  0.1808  -0.8183
6.304e+09  0.6751  -0.4089  0.008692  -0.005551  -0.01773  -0.004326  -0.1199  -0.8221
6.305e+09  0.4849  -0.654  -0.01483  0.004458  0.006855  -0.02415  -0.4193  -0.7319
6.306e+09  0.2117  -0.7762  0.004073  0.001024  -0.008834  -0.03501  -0.6681  -0.5495
6.308e+09  -0.07906  -0.8505  -0.006807  -0.008532  -0.02551  0.01182  -0.7952  -0.3028
6.309e+09  -0.3476  -0.7478  0.02901  0.005099  0.03275  0.01588  -0.884  0.01733
6.31e+09  -0.5779  -0.6226  0.003914  -0.005196  -0.01085  -0.01809  -0.8569  0.3291
6.311e+09  -0.7508  -0.3531  0.01389  -0.008329  -0.02874  0.03734  -0.6797  0.5288
6.312e+09  -0.8242  -0.0785  -0.009291  0.006657  -0.015  0.005106  -0.4233  0.7541
6.314e+09  -0.7855  0.2038  0.02108  -0.008763  0.002673  0.006276  -0.1598  0.8878
6.315e+09  -0.7474  0.5065  -0.01337  0.0002764  -0.01507  0.01831  0.1461  0.8266
6.316e+09  -0.5191  0.6657  -0.03092  0.007732  -0.01816  0.004931  0.4467  0.7742
6.318e+09  -0.1672  0.7905  -0.007523  0.006041  -0.03058  0.02634  0.6393  0.5634
6.319e+09  0.114  0.842  0.01542  0.0212  -0.0002844  0.02971  0.8101  0.3018
6.32e+09  0.3544  0.7749  0.01241  -0.03109  -0.03526  0.02516  0.8526  0.003147
6.321e+09  0.628  0.6246  0.04074  -0.04444  -0.004017  -0.03709  0.8659  -0.2746
6.322e+09  0.7485  0.3596  0.02292  -0.01718  -0.05365  0.01685  0.7039  -0.5455
6.324e+09  0.8184  0.03596  -0.01593  0.01314  0.001258  0.006046  0.4469  -0.7846
6.325e+09  0.8181  -0.225  -0.01834  0.009676  -0.001129  0.003263  0.1429  -0.8477
6.326e+09  0.7022  -0.5369  -0.01433  0.01164  0.02868  -0.01063  -0.1104  -0.8827
6.328e+09  0.4667  -0.7715  0.0186  -0.0007734  -0.02875  -0.0242  -0.4473  -0.8191
6.329e+09  0.1395  -0.8866  0.0001956  -0.006981  0.01934  0.02651  -0.653  -0.612
6.33e+09  -0.1785  -0.8501  0.0149  0.01222  0.01472  0.04702  -0.8359  -0.3379
6.331e+09  -0.4618  -0.8037  -0.01617  -0.004156  -0.02915  0.04274  -0.8773  -0.05802
6.332e+09  -0.6812  -0.5418  -0.01044  0.01817  -0.0329  -0.006636  -0.8323  0.2629
6.334e+09  -0.8189  -0.2631  -0.02174  -0.00717  0.03282  0.006071  -0.7259  0.5548
6.335e+09  -0.8745  0.0007036  -0.0009328  -0.008438  -0.02376  -0.04155  -0.4712  0.7651
6.336e+09  -0.8394  0.2973  0.02703  -0.03716  -0.001919  0.01247  -0.1759  0.9024
6.338e+09  -0.6414  0.5551  -0.003933  0.02364  0.003674  -0.01085  0.1247  0.8708
6.339e+09  -0.435  0.7475  -0.003409  -0.01248  0.02383  0.01306  0.418  0.8381
6.34e+09  -0.1084  0.8709  -0.01718  -0.007942  -0.03936  0.01798  0.6759  0.6338
6.341e+09  0.2313  0.8486  0.0008096  -0.0004094  -0.03743  0.001652  0.8446  0.3383
6.342e+09  0.4728  0.7376  -0.01882  0.008939  -0.001461  0.001486  0.9687  0.0406
6.344e+09  0.7194  0.5004  -0.01611  0.005696  -0.0002049  0.01503  0.9015  -0.2513
6.345e+09  0.8079  0.2042  -0.008379  -0.006671  0.01725  -0.01847  0.7251  -0.5739
6.346e+09  0.8952  -0.07777  -0.0162  -0.01221  -0.006787  0.005928  0.5324  -0.7358
6.348e+09  0.8171  -0.3763  -0.02473  -0.008563  0.06035  0.02512  0.2249  -0.8995
6.349e+09  0.6113  -0.6686  -0.001259  -0.0177  0.0006274  -0.0008195  -0.1382  -0.9207
6.35e+09  0.3552  -0.8011  -0.01814  -0.01904  -0.009305  0.0009418  -0.4379  -0.8382
6.351e+09  0.06315  -0.879  0.02419  -0.01445  -0.01545  -0.03032  -0.6687  -0.6609
6.352e+09  -0.2749  -0.8682  -0.03685  0.01287  -0.06111  -0.02707  -0.8459  -0.3847
6.354e+09  -0.5367  -0.7165  0.008729  0.01302  0.006018  0.01005  -0.9135  -0.05691
6.355e+09  -0.7525  -0.4642  0.01123  -0.01935  -5.852e-05  -0.03972  -0.8977  0.2853
6.356e+09  -0.8948  -0.2381  -0.008806  -0.01705  0.003086  0.03886  -0.8088  0.5358
6.358e+09  -0.8681  0.143  0.0004932  -0.01318  -0.02341  0.001956  -0.5496  0.7867
6.359e+09  -0.7235  0.4286  -0.01941  -0.01222  0.000123  0.02763  -0.2922  0.9054
6.36e+09  -0.6075  0.6561  -0.008626  -0.00806  0.03654  -0.009629  0.09561  0.9369
6.361e+09  -0.3243  0.8073  0.008861  -0.06299  -0.0147  0.03417  0.4284  0.8384
6.362e+09  0.02368  0.8428  -0.02032  0.01066  0.01968  -0.01422  0.6453  0.6541
6.364e+09  0.2958  0.8941  0.001404  -0.02534  -0.03508  -0.005033  0.9002  0.3946
6.365e+09  0.6206  0.6634  -0.0027  -0.02216  0.01222  -0.009956  0.9587  0.073
6.366e+09  0.8297  0.4271  -0.005386  0.0396  0.03797  0.01553  0.9154  -0.2269
6.368e+09  0.8929  0.105  -0.02138  -0.02332  0.005969  -0.006425  0.7831  -0.5548
6.369e+09  0.8436  -0.1805  -0.008797  0.01114  -0.03193  0.03115  0.5643  -0.7776
6.37e+09  0.7474  -0.4566  0.01796  -0.02621  -0.01969  0.01596  0.2544  -0.8866
6.371e+09  0.5497  -0.722  -0.01888  0.008653  -0.031  -0.02856  -0.0996  -0.9461
6.372e+09  0.2706  -0.8331  0.02162  -0.02782  0.01984  -0.02575  -0.3983  -0.8444
6.374e+09  -0.01446  -0.8886  0.02683  0.006404  0.04307  0.0302  -0.6863  -0.6812
6.375e+09  -0.3772  -0.851  0.002145  -0.0021  -0.03012  -0.04666  -0.8105  -0.4189
6.376e+09  -0.617  -0.6678  0.01745  -0.0002115  0.003481  0.009526  -0.9348  -0.07295
6.378e+09  -0.8043  -0.3753  0.01243  -0.01089  -0.01062  0.002994  -0.9036  0.2278
6.379e+09  -0.8606  -0.09047  -0.001603  0.02666  -0.01167  -0.01184  -0.7675  0.5404
6.38e+09  -0.903  0.2133  0.004139  0.01286  0.01172  -0.04252  -0.5588  0.7617
6.381e+09  -0.7496  0.519  0.01722  0.01092  -0.02578  0.008034  -0.2145  0.935
6.382e+09  -0.4954  0.6737  -0.02348  -0.0003845  0.01108  -0.03546  0.0935  0.8958
6.384e+09  -0.2172  0.9053  0.03355  0.01125  -0.00578  -0.0239  0.3913  0.8591
6.385e+09  0.07438  0.8502  0.05903  0.01417  -0.005392  0.01681  0.6576  0.7278
6.386e+09  0.351  0.8387  -0.04825  -0.04867  -0.009866  0.01256  0.8351  0.4325
6.388e+09  0.6516  0.5884  0.0128  0.01497  -0.03891  -0.01689  0.8936  0.1109
6.389e+09  0.7597  0.3678  -0.0001221  0.004631  0.05026  -0.007906  0.9041  -0.1306
6.39e+09  0.9323  0.07467  -0.03444  -0.01591  0.007478  0.01889  0.7783  -0.5063
6.391e+09  0.8938  -0.2604  -0.006098  0.01673  0.003379  -0.02638  0.5506  -0.7533
6.392e+09  0.7054  -0.4867  -0.03924  -0.03589  0.02742  0.02784  0.2441  -0.8732
6.394e+09  0.4798  -0.7815  -0.03995  0.004675  -0.00353  0.01908  0.01009  -0.8979
6.395e+09  0.1588  -0.8634  0.01638  -0.04031  0.01897  -0.03214  -0.3449  -0.8637
6.396e+09  -0.1634  -0.8581  0.01545  -0.01906  0.02528  0.036  -0.5958  -0.6949
6.398e+09  -0.4152  -0.7413  0.04665  0.01458  0.07508  0.03385  -0.7976  -0.4564
6.399e+09  -0.6361  -0.6415  -0.03017  -0.003129  0.01508  0.005517  -0.8887  -0.1423
6.4e+09  -0.8275  -0.3592  -0.006176  -0.01704  0.03173  -0.05795  -0.8953  0.1782
6.401e+09  -0.9151  -0.03929  0.02941  0.03446  -0.005447  -0.0007743  -0.8123  0.4612
6.402e+09  -0.845  0.2793  0.0444  -0.0276  -0.05745  -0.06204  -0.578  0.7015
6.404e+09  -0.6598  0.5752  -0.01553  -0.01051  -0.005029  -0.03141  -0.3177  0.8684
6.405e+09  -0.4281  0.7142  -0.01291  0.01082  -0.001037  0.002165  0.0006408  0.9141
6.406e+09  -0.1652  0.8437  0.03049  -0.002159  -0.02524  0.01934  0.2882  0.872
6.408e+09  0.08784  0.9196  -0.03181  -0.00504  0.02856  -0.04212  0.5452  0.6585
6.409e+09  0.3738  0.7932  0.01905  -0.003539  0.0222  0.01909  0.7838  0.4638
6.41e+09  0.668  0.5823  0.03973  0.01431  -0.04394  -0.04999  0.8786  0.2378
6.411e+09  0.8306  0.3427  -0.009901  -0.01714  0.01285  -0.01506  0.9132  -0.1069
6.412e+09  0.8961  -0.05709  -0.03042  -0.01939  -0.05389  -0.04274  0.7866  -0.4598
6.414e+09  0.8128  -0.2753  -0.005528  -0.02585  -0.04508  0.009686  0.5713  -0.6866
6.415e+09  0.6793  -0.5675  0.004864  0.02286  -0.005611  0.004655  0.3199  -0.8786
6.416e+09  0.4555  -0.7843  -0.01609  -0.01588  -0.01564  0.02048  0.04005  -0.8762
6.418e+09  0.1469  -0.8371  -0.03321  0.004569  0.02861  -0.05073  -0.2771  -0.8522
6.419e+09  -0.1361  -0.9073  0.02733  -0.001656  0.004925  -0.002014  -0.5522  -0.7198
6.42e+09  -0.4447  -0.7398  -0.007715  -0.01024  0.02008  0.01883  -0.7309  -0.4702
6.421e+09  -0.7171  -0.5405  0.03262  0.025  -0.02815  -0.003833  -0.8508  -0.2026
6.422e+09  -0.7761  -0.3116  0.01668  -0.01691  -0.006973  -0.001957  -0.8373  0.1187
6.424e+09  -0.8848  0.01488  0.01431  -0.005366  -0.00859  0.004749  -0.8586  0.3979
6.425e+09  -0.8214  0.2906  0.03003  0.02109  0.02116  -0.02001  -0.5982  0.6699
6.426e+09  -0.6555  0.6059  0.00161  -0.03064  0.0145  0.03264  -0.3194  0.8088
6.428e+09  -0.4196  0.7446  -0.006736  -0.004286  -0.02276  -0.008975  -0.01062  0.8328
6.429e+09  -0.1436  0.8715  -0.02002  0.01389  -0.01474  0.008111  0.2707  0.8438
6.43e+09  0.1656  0.8222  -0.0135  -5.686e-05  -0.024  -0.00715  0.5555  0.6996
6.431e+09  0.4485  0.7526  0.02398  0.00578  -0.01603  -0.006501  0.7551  0.4826
6.432e+09  0.6643  0.5613  -0.01709  0.01653  0.02664  0.02463  0.837  0.2098
6.434e+09  0.8579  0.2613  -0.04244  0.008826  0.0281  -0.003468  0.8273  -0.08715
6.435e+09  0.8511  -0.0138  -0.002973  0.01858  0.05056  -0.01447  0.7458  -0.3465
6.436e+09  0.8538  -0.3146  0.03547  0.03464  0.0192  -0.02548  0.606  -0.5957
6.438e+09  0.7132  -0.5924  0.02265  0.0001157  -0.03704  0.03321  0.4036  -0.7989
6.439e+09  0.4003  -0.7922  0.004817  0.01896  -0.007583  -0.06592  0.05972  -0.8802
6.44e+09  0.1332  -0.8763  -0.001169  -0.02379  0.02235  0.05196  -0.1912  -0.7741
6.441e+09  -0.1789  -0.855  -0.04954  0.003538  -0.03353  0.0357  -0.4792  -0.7129
6.442e+09  -0.444  -0.7507  0.0254  0.04181  0.033  -0.02119  -0.6946  -0.5038
6.444e+09  -0.7437  -0.5736  -0.02312  -0.005724  -0.02023  -0.01544  -0.8246  -0.1946
6.445e+09  -0.8332  -0.247  0.02141  -0.01945  -0.02108  0.0007835  -0.8728  0.06163
6.446e+09  -0.8688  0.02017  0.02162  -0.0368  -0.007979  -0.008381  -0.7493  0.3629
6.448e+09  -0.8154  0.3124  -0.01492  -0.02461  -0.04464  -0.02922  -0.5741  0.5719
6.449e+09  -0.6149  0.6019  -0.01756  -0.01815  -0.006008  0.01349  -0.3525  0.74
6.45e+09  -0.4375  0.7887  0.02662  0.01764  0.04134  0.01733  -0.03689  0.8184
6.451e+09  -0.1623  0.8858  -0.01719  0.03104  -0.01971  -0.02118  0.1724  0.8172
6.452e+09  0.1892  0.8854  -0.04722  0.01326  -0.02991  -0.01142  0.4874  0.7097
6.454e+09  0.509  0.755  0.02639  -0.03267  0.01102  0.01249  0.7219  0.4574
6.455e+09  0.7321  0.5514  6.707e-05  -0.02766  -0.01368  0.02496  0.7861  0.2302
6.456e+09  0.8198  0.2749  -0.02626  0.00507  0.04809  0.03871  0.819  -0.04391
6.458e+09  0.8262  -0.03523  0.02856  0.007054  -0.02019  -0.02764  0.7581  -0.369
6.459e+09  0.8502  -0.3176  -0.01125  -0.002448  -0.05855  -0.01389  0.5491  -0.5796
6.46e+09  0.6917  -0.6291  0.01694  0.03282  0.009272  -0.02386  0.3031  -0.7732
6.461e+09  0.4172  -0.8338  -0.01763  0.05624  -0.007667  0.06095  0.05859  -0.8166
6.462e+09  0.1035  -0.8738  0.01201  0.02809  -0.03227  -0.03343  -0.1962  -0.8059
6.464e+09  -0.1883  -0.899  0.003152  0.04883  0.01893  -0.001367  -0.4672  -0.671
6.465e+09  -0.5241  -0.7445  0.02855  0.0008143  0.01727  -0.01559  -0.6117  -0.4423
6.466e+09  -0.7139  -0.5245  -0.005295  -0.004943  -0.02809  0.01443  -0.7665  -0.1913
6.468e+09  -0.8833  -0.2938  0.005361  -0.01859  -0.006886  0.0102  -0.798  0.06112
6.469e+09  -0.8904  0.03242  -0.0004034  -0.04596  -0.006537  -0.001911  -0.69  0.3749
6.47e+09  -0.7964  0.3679  -0.02281  0.01549  0.0561  -0.04158  -0.5698  0.5521
6.471e+09  -0.6429  0.6769  -0.001725  0.02878  -0.01381  0.02226  -0.3287  0.741
6.472e+09  -0.3886  0.7944  0.02164  0.01382  0.0532  0.007765  -0.02153  0.8178
6.474e+09  -0.1189  0.9061  -0.01279  -0.01357  0.01108  0.000813  0.1563  0.7571
6.475e+09  0.2008  0.9064  -0.01163  -0.0703  0.009099  0.03347  0.4585  0.6255
6.476e+09  0.5217  0.738  -0.02193  -0.005849  0.01696  -0.03496  0.6285  0.4263
6.478e+09  0.8044  0.5342  0.02162  -0.01588  0.027  -0.01979  0.7765  0.2003
6.479e+09  0.8421  0.2403  -0.001492  0.005997  0.04006  -0.002451  0.7821  -0.07816
6.48e+09  0.8707  -0.09136  -0.03858  0.004946  -0.01004  -0.01959  0.6968  -0.3047
6.481e+09  0.8424  -0.3799  0.03183  0.02021  0.006974  -0.001399  0.5159  -0.5295
6.482e+09  0.6149  -0.6149  -0.01539  0.01652  -0.00409  0.01371  0.3575  -0.6892
6.484e+09  0.3888  -0.8387  -0.008984  0.008028  -0.02231  -0.01488  0.04218  -0.6955
6.485e+09  0.09705  -0.9125  0.002019  -0.02008  0.02602  -0.0412  -0.214  -0.7602
6.486e+09  -0.2262  -0.887  -0.006079  -0.01894  -0.03129  0.03749  -0.4399  -0.6324
6.488e+09  -0.5637  -0.7741  -0.02615  -0.007277  0.04436  -0.03946  -0.621  -0.457
6.489e+09  -0.7671  -0.5323  -0.006071  -0.02238  0.004394  0.02489  -0.7609  -0.1841
6.49e+09  -0.9183  -0.2118  0.01962  -0.001913  -0.0139  -0.04414  -0.774  0.09292
6.491e+09  -0.8873  0.07512  -0.001275  -0.007924  -0.01973  -0.01548  -0.7245  0.3315
6.492e+09  -0.8576  0.375  0.006437  0.01895  -0.005128  -0.001944  -0.5542  0.5844
6.494e+09  -0.6576  0.6871  0.009092  -0.006719  0.008993  -0.05093  -0.2594  0.7076
6.495e+09  -0.3278  0.8341  -0.0209  0.02532  -0.005886  0.01035  -0.06724  0.7783
6.496e+09  -0.06118  0.937  -0.04511  0.003867  -0.002364  -0.0376  0.1966  0.7304
6.498e+09  0.2393  0.8844  -0.02483  0.01919  0.007762  0.01106  0.4486  0.6463
6.499e+09  0.5708  0.7175  -0.02086  -0.02707  -0.01044  0.07143  0.6291  0.4287
6.5e+09  0.7656  0.5001  -0.02016  0.05741  0.01986  -0.04042  0.7198  0.1926
6.501e+09  0.9814  0.2029  0.0102  0.02322  -0.04106  -0.04934  0.7753  -0.1253
6.502e+09  0.9463  -0.1331  0.0173  0.02388  0.03805  0.02334  0.6422  -0.3945
6.504e+09  0.8492  -0.4794  -0.0006697  0.007704  -0.03134  0.003688  0.4825  -0.5557
6.505e+09  0.6082  -0.6676  -0.004435  0.01298  -0.02681  -0.01201  0.265  -0.6788
6.506e+09  0.3872  -0.8498  -0.01271  -0.002292  0.02086  -0.02591  0.01911  -0.7699
6.508e+09  0.01834  -0.9819  0.01961  -0.01023  -0.0001252  -0.02206  -0.2504  -0.6774
6.509e+09  -0.2893  -0.8748  0.006146  0.003411  0.01365  -0.02798  -0.4464  -0.6023
6.51e+09  -0.5825  -0.7318  -0.02224  0.00817  -0.007946  0.02299  -0.6488  -0.3909
6.511e+09  -0.8744  -0.4749  0.005666  0.01507  -0.01527  -0.02151  -0.7276  -0.128
6.512e+09  -0.9372  -0.1952  0.05129  0.02425  -0.02177  0.01306  -0.7321  0.1217
6.514e+09  -0.9372  0.2183  0.0092  -0.003179  0.02506  0.009424  -0.6275  0.3731
6.515e+09  -0.83  0.4965  0.03876  -0.0009077  -0.03723  0.02797  -0.4577  0.5758
6.516e+09  -0.6126  0.801  0.02156  -0.005724  0.04212  0.01884  -0.2318  0.7295
6.518e+09  -0.2769  0.9503  0.01131  -0.03284  0.03799  0.001996  -0.00995  0.7135
6.519e+09  0.07664  0.9589  -0.007541  -0.009137  -0.008659  -0.06111  0.2838  0.6844
6.52e+09  0.3374  0.9005  -0.003273  -0.02875  -0.02514  0.03142  0.4816  0.5675
6.521e+09  0.6435  0.7463  -0.005973  0.01573  -0.01501  -0.03885  0.6508  0.338
6.522e+09  0.8432  0.4621  -0.01583  0.02636  0.02602  0.0004764  0.7698  0.1287
6.524e+09  0.9683  0.06988  0.0134  0.02423  -0.03254  0.01742  0.7327  -0.1307
6.525e+09  0.9366  -0.236  0.02454  0.01498  -0.007974  0.00194  0.6182  -0.4079
6.526e+09  0.8467  -0.5088  -0.005103  0.02229  -0.006139  -0.01073  0.4382  -0.5816
6.528e+09  0.56  -0.8171  -0.00363  -0.009753  -0.003609  -0.02146  0.1869  -0.6783
6.529e+09  0.2358  -0.9398  0.02555  0.01768  -0.01953  -0.0308  -0.04921  -0.7088
6.53e+09  -0.08211  -1.026  -0.002968  0.03335  0.03009  -0.037  -0.2994  -0.6435
6.531e+09  -0.407  -0.8887  -0.008198  -0.01664  -0.01938  0.03284  -0.4525  -0.4929
6.532e+09  -0.6654  -0.7205  -0.004809  0.009419  0.04033  -0.0008149  -0.5885  -0.2841
6.534e+09  -0.9226  -0.3894  0.02432  -0.03098  -0.01506  0.04163  -0.6092  -0.08632
6.535e+09  -0.9679  -0.03583  0.007616  -0.03342  0.0122  -0.02825  -0.665  0.1052
6.536e+09  -0.9126  0.2225  -0.006638  -0.03074  0.02548  0.01179  -0.5562  0.3427
6.538e+09  -0.7568  0.5914  -0.01123  0.007829  -0.02142  0.02331  -0.483  0.4886
6.539e+09  -0.5129  0.8444  -0.02162  -0.01799  -0.03559  0.03873  -0.2387  0.6166
6.54e+09  -0.1733  0.9599  -0.01254  0.02185  0.01286  0.04738  -0.05117  0.661
6.541e+09  0.1826  0.9775  -0.02329  0.006332  -0.003556  -0.002772  0.2549  0.6508
6.542e+09  0.5085  0.8335  -0.003662  -0.02522  -0.006798  -0.002233  0.4037  0.5781
6.544e+09  0.7363  0.6036  -0.008525  -0.006995  -0.02316  0.0423  0.6033  0.4134
6.545e+09  0.9029  0.3062  0.00813  0.01849  0.04522  0.01189  0.6957  0.176
6.546e+09  0.9921  -0.07009  0.009661  0.01668  0.004827  -0.02582  0.74  -0.06542
6.548e+09  0.9129  -0.3542  -0.01271  -0.01689  0.02845  0.06071  0.6457  -0.3508
6.549e+09  0.729  -0.6808  0.006744  -0.02062  -0.02649  -0.05086  0.5018  -0.5331
