# Hz S RI R 50
6.25e+09  -0.2206  0.881  0.001543  -0.01756  0.005781  0.09318  0.1198  0.4907
6.251e+09  0.1187  0.8534  -0.04835  -0.02942  -0.001784  0.003143  0.3771  0.3841
6.252e+09  0.3747  0.8125  -0.0245  -0.03045  -0.04825  0.05671  0.5474  0.2257
6.254e+09  0.6316  0.6029  -0.02241  0.0007408  -0.02888  -0.009236  0.6224  0.005951
6.255e+09  0.8186  0.3752  0.01187  0.01272  -0.01674  0.02384  0.5836  -0.2207
6.256e+09  0.8235  0.05394  -0.002667  0.0434  -0.0502  0.02072  0.4569  -0.4514
6.258e+09  0.8249  -0.2159  -0.01461  0.02043  -0.002031  0.01846  0.2814  -0.5732
6.259e+09  0.6543  -0.4976  -0.005052  0.009187  0.04205  -0.009684  0.03025  -0.6619
6.26e+09  0.5008  -0.7786  -0.01382  0.01812  0.01424  0.01269  -0.2096  -0.6623
6.261e+09  0.163  -0.8541  0.01717  -0.008921  -0.009991  -0.03164  -0.4458  -0.5618
6.262e+09  -0.09284  -0.8705  0.0105  -0.01032  0.001086  -0.04502  -0.645  -0.3305
6.264e+09  -0.365  -0.7314  0.02447  0.004808  0.01694  0.03046  -0.707  -0.1072
6.265e+09  -0.668  -0.5768  -0.002049  0.007766  -0.02571  -0.02422  -0.7134  0.1549
6.266e+09  -0.7746  -0.2811  0.01344  -0.03714  -0.02602  -0.01174  -0.6162  0.3857
6.268e+09  -0.8  -0.02614  0.005064  -0.03007  0.02068  -0.01563  -0.4303  0.603
6.269e+09  -0.7969  0.2662  -0.01024  0.01899  -0.04152  -0.0121  -0.2309  0.7039
6.27e+09  -0.6164  0.5512  0.01189  -0.002046  0.01349  -0.009372  0.06099  0.7323
6.271e+09  -0.4504  0.7027  0.01257  -0.0351  0.03454  0.02678  0.3148  0.683
6.272e+09  -0.1426  0.8019  0.009483  0.02299  -0.05169  0.0131  0.5248  0.513
6.274e+09  0.1366  0.7949  -0.007315  -0.007421  0.00659  -0.04015  0.7235  0.3053
6.275e+09  0.4016  0.7244  0.01459  0.01435  -0.02642  0.02072  0.7665  0.05477
6.276e+09  0.6191  0.5671  -0.02778  0.008425  0.03812  0.04395  0.721  -0.2426
6.278e+09  0.8022  0.3108  -0.01112  -0.01625  0.04413  -0.06441  0.5978  -0.4602
6.279e+09  0.7937  0.008176  0.009433  0.01938  -0.01402  -0.0466  0.3841  -0.6234
6.28e+09  0.7398  -0.2912  -0.003982  -0.005635  -0.02183  -0.0453  0.1356  -0.7367
6.281e+09  0.6939  -0.538  0.02814  0.00573  0.00893  -0.01073  -0.105  -0.7595
6.282e+09  0.3935  -0.6858  -0.003813  0.006647  0.07081  0.04081  -0.3856  -0.6871
6.284e+09  0.1357  -0.8212  -0.002807  -0.002858  0.01564  -0.02208  -0.6075  -0.5336
6.285e+09  -0.1657  -0.8437  0.0108  0.01211  0.001562  -0.01804  -0.7107  -0.2676
6.286e+09  -0.4666  -0.6879  0.01717  0.003336  0.002617  0.02553  -0.7872  -0.03735
6.288e+09  -0.6241  -0.5016  0.008712  0.002888  -0.02512  0.00347  -0.7972  0.2605
6.289e+09  -0.7243  -0.2531  -0.01434  0.003282  -0.01344  0.02039  -0.6312  0.4898
6.29e+09  -0.8082  0.1063  -0.001421  0.02043  0.01653  0.002994  -0.4453  0.6905
6.291e+09  -0.8064  0.3394  0.02556  0.00203  -0.04873  0.02008  -0.1537  0.7803
6.292e+09  -0.6119  0.4948  -0.007059  0.01395  0.01767  -0.0302  0.1355  0.796
6.294e+09  -0.3346  0.7236  0.01203  -0.008335  -0.01754  -0.04414  0.385  0.6918
6.295e+09  -0.1234  0.7913  0.0109  -0.01088  0.04631  -0.006541  0.605  0.5346
6.296e+09  0.1686  0.812  0.002397  -0.008554  -0.01672  0.01614  0.7464  0.3083
6.298e+09  0.4325  0.6908  0.009923  0.02555  -0.04978  -0.006666  0.8375  0.008256
6.299e+09  0.6899  0.5151  0.00172  0.02542  -0.01928  0.005782  0.7642  -0.276
6.3e+09  0.789  0.2527  -0.01172  -0.01737  -0.0008201  0.02515  0.6422  -0.5321
6.301e+09  0.7976  -0.06065  -0.004325  -0.001103  -0.004528  0.02466  0.4054  -0.7185
6.302e+09  0.7315  -0.3517  0.006339  0.005235  0.02546  -0.01581  0.1421  -0.835
6.304e+09  0.5921  -0.5917  -0.005716  -0.005203  0.03991  -0.01921  -0.1358  -0.8397
6.305e+09  0.3385  -0.7798  -0.01668  0.01265  0.008946  -0.06199  -0.4248  -0.7254
6.306e+09  0.06183  -0.84  -0.02163  -0.01167  0.0195  -0.0148  -0.647  -0.5774
6.308e+09  -0.2937  -0.8024  0.003779  0.005439  -0.04003  0.01192  -0.7894  -0.3039
6.309e+09  -0.5258  -0.7113  0.002137  0.006584  0.02214  -0.03486  -0.8611  -0.009795
6.31e+09  -0.6965  -0.4329  -0.004729  -0.01629  0.03665  0.009559  -0.8232  0.2965
6.311e+09  -0.7915  -0.2381  -0.01006  0.004387  0.009824  0.02187  -0.6402  0.5356
6.312e+09  -0.8422  0.1015  -0.01841  0.02106  -0.01517  -0.04384  -0.4276  0.7345
6.314e+09  -0.7619  0.3718  -0.0003548  0.0158  0.004157  -0.03491  -0.1546  0.8995
6.315e+09  -0.5983  0.6662  -0.003474  0.007901  0.001614  -0.0165  0.1285  0.8731
6.316e+09  -0.3302  0.7925  0.002043  0.02872  -0.02084  -0.0003312  0.4157  0.7893
6.318e+09  0.005617  0.8449  -0.006077  -0.0152  -0.0111  0.0335  0.6686  0.5402
6.319e+09  0.3347  0.7534  -0.0009644  -0.0146  0.01054  -0.02491  0.8294  0.3218
6.32e+09  0.5441  0.679  0.0217  0.01577  0.04433  -0.03533  0.8765  0.02646
6.321e+09  0.7937  0.3843  -0.02232  -0.02154  0.04249  -0.01891  0.8395  -0.3079
6.322e+09  0.8718  0.1699  0.009638  0.01267  0.007807  -0.05726  0.6982  -0.5498
6.324e+09  0.7969  -0.1832  0.02795  0.005909  0.00928  0.003503  0.4506  -0.766
6.325e+09  0.7136  -0.4619  -0.001908  -0.004527  -0.02095  -0.001265  0.1871  -0.9187
6.326e+09  0.5256  -0.6452  -0.01463  -0.0119  0.01817  -0.03262  -0.1208  -0.8887
6.328e+09  0.2409  -0.7834  0.02061  0.03791  -0.02633  0.01828  -0.4241  -0.8061
6.329e+09  -0.02915  -0.8158  -0.01386  -0.01209  -0.07199  -0.009198  -0.696  -0.6151
6.33e+09  -0.3082  -0.815  -0.02636  -0.01587  0.01536  0.05648  -0.8672  -0.3249
6.331e+09  -0.5759  -0.65  0.00975  -0.008001  -0.01783  0.05021  -0.8914  -0.02846
6.332e+09  -0.8009  -0.4044  0.007445  0.04543  -0.02697  -0.02134  -0.8634  0.2758
6.334e+09  -0.9156  -0.1061  0.01787  0.008835  0.014  -0.04081  -0.6967  0.5441
6.335e+09  -0.8292  0.2228  0.002538  -0.01164  -0.0009794  -0.01079  -0.4682  0.7482
6.336e+09  -0.7963  0.4964  0.006927  -0.01459  -0.009222  0.05569  -0.1732  0.8959
6.338e+09  -0.4544  0.7068  0.03228  0.0411  0.002656  0.01697  0.1192  0.9323
6.339e+09  -0.236  0.8796  -0.02141  -0.01939  -0.02544  0.05758  0.4304  0.8204
6.34e+09  0.09484  0.8807  0.01586  -0.001425  0.01197  0.00309  0.6667  0.6303
6.341e+09  0.3469  0.7841  -0.003933  -0.005717  0.01426  0.01265  0.861  0.3662
6.342e+09  0.6356  0.5571  0.02876  0.01052  0.04156  -0.02625  0.8895  0.03908
6.344e+09  0.8336  0.3428  -0.01177  -0.04318  -0.002262  0.02919  0.8796  -0.2681
6.345e+09  0.885  0.032  0.01583  -0.005292  0.01148  0.01702  0.7365  -0.5286
6.346e+09  0.8744  -0.2986  0.02178  0.004795  0.05819  -0.004148  0.5061  -0.772
6.348e+09  0.6648  -0.5478  0.02669  0.01578  -0.01761  0.02104  0.2245  -0.8994
6.349e+09  0.4523  -0.7754  -0.001621  0.02743  0.03788  -0.005602  -0.1044  -0.9026
6.35e+09  0.1601  -0.9081  0.0009792  -0.03371  0.04164  -0.01418  -0.4166  -0.8626
6.351e+09  -0.1063  -0.8454  -0.03006  -0.02239  0.01171  -0.003678  -0.6854  -0.6214
6.352e+09  -0.4208  -0.8092  -0.003719  -0.04968  -0.02409  -0.01567  -0.8514  -0.355
6.354e+09  -0.6736  -0.5351  0.004849  -0.02587  0.0171  -0.01419  -0.9456  -0.03619
6.355e+09  -0.8283  -0.279  -0.01058  0.002376  -0.04426  -0.09589  -0.8927  0.2382
6.356e+09  -0.9058  0.02098  0.004679  -0.007165  -0.02613  -0.03537  -0.7544  0.559
6.358e+09  -0.7826  0.339  -0.03617  0.01109  0.004239  0.02629  -0.5262  0.7524
6.359e+09  -0.653  0.5989  0.01086  0.01318  0.02168  0.01917  -0.2153  0.9298
6.36e+09  -0.4107  0.8032  -0.001437  -0.008802  0.01559  0.01746  0.07264  0.9183
6.361e+09  -0.09674  0.8849  0.01674  0.01256  0.007941  0.02129  0.3613  0.8267
6.362e+09  0.1928  0.8128  0.005779  0.00979  0.01958  0.00391  0.6945  0.6986
6.364e+09  0.4895  0.7331  0.003007  0.003987  -0.006909  0.00393  0.8518  0.3726
6.365e+09  0.7048  0.4754  -0.002049  0.009485  0.01143  -0.05631  0.9712  0.06379
6.366e+09  0.8331  0.1992  -0.03423  -0.005623  -0.01708  0.01594  0.9153  -0.223
6.368e+09  0.8515  -0.04549  0.008225  -0.03287  0.02589  0.009254  0.7783  -0.5708
6.369e+09  0.782  -0.3404  0.02615  -0.003828  0.01939  0.02299  0.5129  -0.7485
6.37e+09  0.6679  -0.6569  0.04308  0.01427  -0.02708  -0.02703  0.251  -0.9472
6.371e+09  0.4264  -0.8084  -0.01625  -0.007849  0.005894  -0.03655  -0.09222  -0.9292
6.372e+09  0.04448  -0.8575  -0.009122  0.0425  -0.001565  0.006418  -0.3953  -0.8378
6.374e+09  -0.2847  -0.8237  0.01386  0.01434  0.003122  -0.0117  -0.6843  -0.6816
6.375e+09  -0.4714  -0.7226  0.03354  -0.0205  0.01065  -0.0164  -0.8561  -0.4002
6.376e+09  -0.7297  -0.5078  0.01266  -0.03186  -0.01877  -0.01293  -0.9345  -0.06276
6.378e+09  -0.8883  -0.1926  0.03084  0.002279  -0.01795  0.02652  -0.8927  0.2373
6.379e+09  -0.8992  0.1238  0.03199  0.01354  -0.03723  0.01419  -0.7656  0.5042
6.38e+09  -0.7899  0.4181  0.02968  -0.03364  -0.006405  -0.02297  -0.5336  0.7765
6.381e+09  -0.6065  0.6814  -0.01546  -0.007483  0.01742  -0.01218  -0.2463  0.919
6.382e+09  -0.3138  0.8448  -0.02162  0.03152  -0.007504  0.01646  0.07701  0.9574
6.384e+09  -0.02517  0.902  0.004337  -0.03241  -0.02243  -0.002048  0.3372  0.8883
6.385e+09  0.2783  0.8467  -0.01119  -0.01189  0.02897  -0.01145  0.5927  0.6768
6.386e+09  0.5196  0.6882  0.007947  -0.003326  -0.004406  0.03217  0.7815  0.4417
6.388e+09  0.8053  0.4763  -0.006502  -0.01579  -0.00184  0.03842  0.9327  0.09953
6.389e+09  0.8431  0.1906  -0.02722  0.01194  0.006234  0.02282  0.929  -0.2003
6.39e+09  0.887  -0.08893  0.02193  0.003275  0.02575  -0.01592  0.8172  -0.4893
6.391e+09  0.7454  -0.4457  -0.005898  -0.02348  -0.02055  0.05934  0.5401  -0.7121
6.392e+09  0.628  -0.6599  0.008106  -0.00736  0.01419  -0.0289  0.267  -0.8489
6.394e+09  0.2889  -0.8714  0.00529  0.02985  0.008583  -0.03283  -0.0303  -0.956
6.395e+09  0.004594  -0.9268  -0.03167  0.01356  0.006712  -0.02388  -0.3534  -0.8579
6.396e+09  -0.3393  -0.8651  0.0344  0.007248  -0.03866  -0.02771  -0.5889  -0.6854
6.398e+09  -0.5442  -0.7076  0.01403  -0.004433  -0.008497  0.03055  -0.7946  -0.4771
6.399e+09  -0.7427  -0.4657  0.01735  -0.009672  -0.01555  -0.02168  -0.9083  -0.1244
6.4e+09  -0.9056  -0.126  0.03944  -0.008578  -0.01639  -0.02795  -0.887  0.1959
6.401e+09  -0.8827  0.1524  -0.03059  0.01642  0.01879  -0.007193  -0.7725  0.4888
6.402e+09  -0.7395  0.4247  0.00138  0.004976  0.04957  0.03314  -0.5297  0.7034
6.404e+09  -0.4876  0.7  0.01027  0.04006  0.03343  -0.004572  -0.3409  0.8388
6.405e+09  -0.2541  0.8175  -0.06207  0.01334  -0.03487  0.03741  -0.01339  0.8727
6.406e+09  0.05667  0.8465  0.02556  0.03145  -0.01223  -0.003365  0.2821  0.853
6.408e+09  0.303  0.8157  0.02449  -0.002203  0.00211  -0.004936  0.5972  0.6856
6.409e+09  0.629  0.637  0.04644  0.009928  0.007305  -0.01002  0.826  0.4911
6.41e+09  0.7391  0.4198  -0.01527  0.006622  0.01806  -0.02513  0.8973  0.1713
6.411e+09  0.8984  0.1373  0.01028  0.03376  0.02463  -0.02454  0.8447  -0.1477
6.412e+09  0.8572  -0.195  -0.01749  0.00288  0.00187  -0.03014  0.7759  -0.4506
6.414e+09  0.7562  -0.4911  0.002687  -0.02793  -0.02663  -0.01172  0.6146  -0.6876
6.415e+09  0.5415  -0.7047  -0.006263  -0.0219  0.00142  -0.03888  0.3415  -0.8471
6.416e+09  0.284  -0.8279  0.01713  -0.03398  -0.03034  -0.03265  0.02625  -0.8823
6.418e+09  -0.02221  -0.9503  0.003525  -0.006362  0.05018  0.02566  -0.2386  -0.8556
6.419e+09  -0.3449  -0.8018  -0.01854  0.01887  0.07009  0.01117  -0.5117  -0.7145
6.42e+09  -0.5746  -0.6458  0.008523  -0.0196  -0.01827  0.001242  -0.6958  -0.4439
6.421e+09  -0.8491  -0.3558  0.006708  0.0009749  -0.00955  -0.01321  -0.8722  -0.1796
6.422e+09  -0.864  -0.1524  0.01714  -0.02479  0.01279  0.02072  -0.8318  0.1054
6.424e+09  -0.8576  0.1709  -0.01881  -0.0235  0.01742  0.05374  -0.7983  0.3906
6.425e+09  -0.7538  0.4667  -0.01465  0.01431  0.02582  0.002342  -0.6398  0.6179
6.426e+09  -0.5173  0.7658  -0.02879  -0.008166  -0.02112  -0.01462  -0.3377  0.8034
6.428e+09  -0.2817  0.8092  0.03377  0.01389  -0.00604  0.02472  -0.07266  0.858
6.429e+09  0.03575  0.9107  0.04026  -0.01868  -0.01971  0.04029  0.2616  0.8224
6.43e+09  0.3535  0.8277  -0.01343  0.01473  0.01643  0.01868  0.5314  0.7044
6.431e+09  0.5619  0.62  -0.0004434  0.02668  -0.03856  -0.04916  0.6794  0.5181
6.432e+09  0.8312  0.4043  -0.01907  -0.007126  0.03127  0.01662  0.8379  0.2124
6.434e+09  0.8392  0.118  0.01709  0.04466  0.04111  -0.03691  0.8207  -0.09856
6.435e+09  0.8925  -0.1758  -0.02466  -0.02755  -0.01072  0.01367  0.7301  -0.3799
6.436e+09  0.7103  -0.5226  0.003202  -0.006499  -0.006992  -0.00724  0.6334  -0.6115
6.438e+09  0.5226  -0.7256  -0.02154  -0.0281  0.043  -0.001544  0.3542  -0.7547
6.439e+09  0.2911  -0.8706  0.02539  0.02699  -0.01639  0.01445  0.06718  -0.8312
6.44e+09  -0.09937  -0.8692  -0.002756  0.02547  0.003744  0.01909  -0.2279  -0.8461
6.441e+09  -0.3775  -0.7944  0.02587  0.01537  0.03727  -0.04124  -0.4852  -0.7284
6.442e+09  -0.6917  -0.6611  0.04277  -0.02555  -0.02591  -0.007012  -0.6952  -0.4631
6.444e+09  -0.8124  -0.3733  0.004723  0.0424  0.05182  0.007287  -0.8081  -0.1701
6.445e+09  -0.9422  -0.06169  0.03952  -0.01062  0.006492  0.008615  -0.8651  0.09123
6.446e+09  -0.9075  0.2472  0.01572  0.02523  0.005044  -0.02555  -0.768  0.367
6.448e+09  -0.6756  0.5017  0.003898  0.0558  0.03162  -0.03106  -0.58  0.6232
6.449e+09  -0.4666  0.7144  -0.02462  0.00414  0.004849  -0.02189  -0.3493  0.7302
6.45e+09  -0.2397  0.8579  0.005048  0.01842  -0.03348  -0.01399  -0.08031  0.8084
6.451e+09  0.08045  0.8753  0.06486  0.01674  0.01164  0.05276  0.182  0.7849
6.452e+09  0.3677  0.794  -0.0312  -0.003934  -0.03526  0.003978  0.442  0.651
6.454e+09  0.6632  0.6552  0.004384  -0.02338  0.00498  -0.01965  0.692  0.5143
6.455e+09  0.8793  0.3781  -0.005068  0.006423  -0.03697  -0.02148  0.8023  0.2235
6.456e+09  0.9079  0.0706  0.01816  0.0234  0.03791  0.01156  0.8428  -0.06574
6.458e+09  0.9013  -0.2752  0.02979  0.002542  -0.05068  -0.0004666  0.7218  -0.3648
6.459e+09  0.7246  -0.512  -0.03004  -0.02775  -0.0161  0.0138  0.5891  -0.6013
6.46e+09  0.5524  -0.7582  -0.00876  -0.02928  -0.01815  -0.06728  0.3475  -0.734
6.461e+09  0.1771  -0.8662  -0.012  0.02092  -0.02347  -0.003894  0.06851  -0.8399
6.462e+09  -0.1219  -0.8931  0.03815  -0.001151  -0.06689  -0.0215  -0.2148  -0.7929
6.464e+09  -0.3966  -0.7712  -0.003704  -0.01001  -0.02709  -0.03075  -0.4551  -0.6938
6.465e+09  -0.6559  -0.6251  -0.01695  0.0122  0.03315  0.05087  -0.6429  -0.4274
6.466e+09  -0.8377  -0.3603  -0.04473  -0.01444  -0.006256  0.005404  -0.7499  -0.205
6.468e+09  -0.9021  -0.07191  0.002538  -0.01803  0.03229  0.01176  -0.8012  0.1087
6.469e+09  -0.8499  0.2637  0.03944  0.003857  -0.02285  -0.046  -0.6995  0.378
6.47e+09  -0.7227  0.5239  0.001598  0.02588  -0.0081  0.01122  -0.5774  0.5702
6.471e+09  -0.473  0.8104  -0.001755  0.01196  -0.0302  -0.006605  -0.3477  0.7423
6.472e+09  -0.1518  0.9283  -0.0413  -0.009255  0.0464  0.01096  -0.06983  0.7712
6.474e+09  0.09434  0.9626  0.01202  0.004497  0.004187  0.06205  0.1983  0.7805
6.475e+09  0.4663  0.8157  -0.03203  0.01278  -0.03974  -0.03543  0.4335  0.6227
6.476e+09  0.6681  0.6278  0.0112  -0.005013  -0.02051  -0.001415  0.6271  0.4275
6.478e+09  0.9124  0.3459  0.006215  -0.006864  0.04061  -0.02381  0.7584  0.1819
6.479e+09  0.9274  -0.002078  0.01732  -0.02329  0.01717  -0.006935  0.7693  -0.04275
6.48e+09  0.8873  -0.2793  0.02219  0.01375  -0.06101  -0.02548  0.734  -0.3474
6.481e+09  0.6589  -0.6366  -0.0004953  -0.002807  0.01966  0.004562  0.5685  -0.554
6.482e+09  0.5068  -0.8016  -0.01083  0.003244  -0.02916  0.007658  0.3447  -0.6879
6.484e+09  0.1729  -0.8866  0.02976  0.003028  0.06667  0.01353  0.04498  -0.7872
6.485e+09  -0.163  -0.9194  0.0402  -0.02439  0.04201  0.03225  -0.1858  -0.7566
6.486e+09  -0.4405  -0.7946  0.01268  -0.01977  0.03861  0.0295  -0.4389  -0.6279
6.488e+09  -0.7455  -0.5985  0.007864  -0.02634  -0.01159  0.00843  -0.6299  -0.4064
6.489e+09  -0.9264  -0.3075  0.01507  -0.01691  -0.007313  0.008108  -0.7511  -0.1539
6.49e+09  -0.9448  0.06715  0.03573  -0.03001  0.005497  0.01513  -0.7384  0.09541
6.491e+09  -0.9005  0.3406  -0.01412  0.002535  -0.01024  -0.0009506  -0.7503  0.3193
6.492e+09  -0.6864  0.6042  0.01531  -0.009749  0.0009634  0.004016  -0.5431  0.5588
6.494e+09  -0.3991  0.8004  0.007148  0.0364  -0.02919  0.02254  -0.3144  0.6708
6.495e+09  -0.108  0.9288  -0.0003241  -0.01654  0.01835  -0.004743  -0.08599  0.7622
6.496e+09  0.2342  0.9237  -0.02347  0.01903  0.01981  0.03999  0.2234  0.6813
6.498e+09  0.5361  0.835  0.01654  -0.0006601  -0.03289  -0.03076  0.4505  0.6386
6.499e+09  0.8217  0.595  -0.01837  0.03521  -0.007438  -0.01606  0.602  0.4325
6.5e+09  0.8705  0.2453  -0.03102  0.01285  -0.01992  0.04343  0.7546  0.1923
6.501e+09  0.9591  -0.07416  0.00338  -0.01279  -0.0128  0.004954  0.7618  -0.08799
6.502e+09  0.8682  -0.3993  -0.023  -0.05616  -0.03478  -0.0008055  0.6664  -0.377
6.504e+09  0.7  -0.6675  0.01581  0.006906  -0.02758  -0.009132  0.4654  -0.5508
6.505e+09  0.4004  -0.9097  0.004588  0.003572  -0.005286  -0.06675  0.2379  -0.6974
6.506e+09  0.06067  -0.9349  -0.02897  0.02281  0.01128  -0.05066  0.07702  -0.749
6.508e+09  -0.2884  -0.9407  -0.04906  0.003136  -0.0134  0.04662  -0.2561  -0.7142
6.509e+09  -0.5922  -0.7114  0.03262  -0.01167  0.008887  0.01368  -0.4827  -0.6128
6.51e+09  -0.8231  -0.513  0.01201  0.012  0.019  0.05144  -0.6571  -0.389
6.511e+09  -0.9474  -0.1936  -0.0007038  -0.005035  -0.05152  -0.02591  -0.7491  -0.1369
6.512e+09  -0.9602  0.1266  0.01633  -0.02734  -0.008433  -0.0261  -0.6922  0.1383
6.514e+09  -0.8348  0.4534  0.01856  -0.01153  0.009106  0.01401  -0.6574  0.3632
6.515e+09  -0.6364  0.7399  0.00935  -0.04064  -0.0167  0.008125  -0.4712  0.6097
6.516e+09  -0.3538  0.879  -0.01706  0.01308  -0.01639  0.02348  -0.2828  0.6993
6.518e+09  -0.04947  0.9502  0.001488  -0.02191  0.02738  0.04825  0.06306  0.7292
6.519e+09  0.3434  0.8481  0.04411  -0.01237  -0.005264  -0.02659  0.2698  0.6859
6.52e+09  0.6531  0.7356  -0.006803  0.03748  -0.003481  -0.021  0.5094  0.5632
6.521e+09  0.8843  0.4995  0.03253  -0.01054  0.0182  -0.004788  0.6415  0.3119
6.522e+09  0.94  0.09678  -0.008837  -0.04084  0.02289  -0.005268  0.7251  0.1139
6.524e+09  0.9272  -0.189  -0.01258  -0.05352  -0.01238  0.003779  0.715  -0.1548
6.525e+09  0.8455  -0.549  -0.006698  -0.02636  0.02767  -0.05101  0.5982  -0.3827
6.526e+09  0.6551  -0.8002  0.006896  0.004725  -0.02129  0.02672  0.3635  -0.5784
6.528e+09  0.2894  -0.908  0.0006862  0.006614  -0.02559  -0.009322  0.204  -0.6667
6.529e+09  -0.04452  -0.9979  0.02022  0.005778  0.005034  0.01337  -0.05828  -0.725
6.53e+09  -0.3733  -0.8909  0.000976  -0.004655  -0.01941  -0.0007802  -0.2796  -0.6274
6.531e+09  -0.6752  -0.6902  0.009361  -0.01501  -0.04679  -0.009193  -0.4934  -0.5055
6.532e+09  -0.8736  -0.4033  0.01678  0.001969  -0.0337  -0.02149  -0.6162  -0.2956
6.534e+09  -0.9854  -0.04385  0.001231  0.02079  -0.008311  0.00263  -0.6409  -0.09432
6.535e+09  -0.9477  0.2384  0.01154  0.02525  -0.02143  0.0185  -0.6397  0.08933
6.536e+09  -0.7732  0.5956  -0.03279  -0.003391  0.02104  -0.003759  -0.5736  0.3315
6.538e+09  -0.463  0.857  -0.01486  -0.01609  0.01661  0.0127  -0.4448  0.4573
6.539e+09  -0.1691  0.8913  0.00024  0.005168  -0.02974  0.02955  -0.262  0.6249
6.54e+09  0.1861  0.9345  -0.0325  0.0007591  -0.03925  0.008615  -0.02576  0.7033
6.541e+09  0.4512  0.8161  0.02032  -0.0058  -0.005641  0.002593  0.1684  0.6602
6.542e+09  0.6919  0.6276  0.006316  0.00611  0.02292  0.06086  0.4688  0.5743
6.544e+09  0.887  0.2639  0.002137  -0.00406  0.04128  0.01765  0.6089  0.4449
6.545e+09  0.9251  0.009074  -0.01384  0.003892  0.01722  0.06134  0.7143  0.1916
6.546e+09  0.8776  -0.3227  -0.006799  0.02448  0.02057  0.02803  0.7269  -0.06708
6.548e+09  0.7355  -0.6554  -0.01387  -0.01615  -0.04421  -0.008602  0.6366  -0.3114
6.549e+09  0.4467  -0.8339  0.0003311  0.02878  -0.02179  -0.03073  0.5166  -0.5105
6.55e+09  0.1043  -0.9101  -0.02013  0.02624  -0.00153  0.02627  0.3186  -0.688
6.551e+09  -0.2772  -0.9177  -0.002268  0.02183  0.0219  -0.01775  0.07207  -0.761
