# Hz S RI R 50
6.25e+09  -0.6281  0.61  0.01823  -0.008335  -0.007118  0.04806  0.1478  0.4691
6.251e+09  -0.3567  0.7563  -0.01598  -0.04485  -0.002377  -0.02636  0.3624  0.4086
6.252e+09  -0.1149  0.854  0.01255  -0.001881  -0.006445  -0.01878  0.516  0.2462
6.254e+09  0.1693  0.8058  0.01749  -0.0003331  0.01073  7.698e-05  0.6028  0.02635
6.255e+09  0.4615  0.7046  -0.01402  0.01476  0.006612  0.04341  0.5986  -0.2054
6.256e+09  0.6893  0.4529  0.01992  -0.001334  -0.02412  -0.0588  0.4736  -0.4482
6.258e+09  0.8043  0.2817  0.01439  0.02515  0.02935  0.05241  0.2812  -0.5708
6.259e+09  0.8474  -0.05028  0.003257  0.05007  -0.007935  0.04066  0.06342  -0.6737
6.26e+09  0.7717  -0.3529  -0.0004107  -0.01993  -0.03931  0.05732  -0.2226  -0.6745
6.261e+09  0.6252  -0.593  0.00854  -0.02373  -0.0054  0.02699  -0.4028  -0.5425
6.262e+09  0.347  -0.7404  -0.01168  0.0119  0.07522  0.01797  -0.5854  -0.359
6.264e+09  0.1041  -0.7993  0.0131  -0.01072  -0.008135  -0.01466  -0.7347  -0.135
6.265e+09  -0.2242  -0.7589  -0.0106  0.001252  0.03019  0.0241  -0.7157  0.1387
6.266e+09  -0.4484  -0.7263  -0.008159  -0.009421  0.001266  -0.02234  -0.634  0.3934
6.268e+09  -0.6606  -0.5236  0.01555  0.008033  0.008182  -0.0006364  -0.3993  0.5853
6.269e+09  -0.7911  -0.257  -0.01636  0.001365  0.03099  0.01027  -0.2222  0.6724
6.27e+09  -0.7927  0.07574  0.001222  0.03745  -0.01837  0.01338  0.07476  0.6838
6.271e+09  -0.7467  0.3223  -0.007802  -0.00416  -0.04201  0.02997  0.2999  0.6892
6.272e+09  -0.5843  0.6009  0.01908  0.02143  -0.02135  0.00635  0.5153  0.511
6.274e+09  -0.3531  0.7373  -0.01168  0.02272  0.03117  0.006621  0.7188  0.3059
6.275e+09  -0.09318  0.8116  -0.007725  0.01661  0.05035  -0.01784  0.7522  0.07683
6.276e+09  0.2016  0.7589  -0.004225  0.00761  -0.06302  0.01273  0.7657  -0.2163
6.278e+09  0.4374  0.6571  -0.01723  0.003366  -0.0511  -0.002013  0.6275  -0.4439
6.279e+09  0.6704  0.5244  -0.01735  0.01335  -0.004885  0.05134  0.4333  -0.6332
6.28e+09  0.8228  0.2287  0.04381  -0.01194  -0.01077  0.02462  0.1843  -0.768
6.281e+09  0.8192  -0.0619  0.01065  0.009594  0.01959  -0.05811  -0.1186  -0.7664
6.282e+09  0.7532  -0.2884  -0.02393  -0.002606  0.01906  -0.01772  -0.347  -0.6727
6.284e+09  0.5643  -0.519  -0.01268  0.02075  0.03256  -0.02528  -0.5996  -0.5212
6.285e+09  0.3331  -0.6851  0.0108  -0.0203  0.03036  -0.0301  -0.6867  -0.2864
6.286e+09  0.1511  -0.8545  0.002388  0.01801  -0.005349  0.01002  -0.7937  -0.04226
6.288e+09  -0.1804  -0.807  0.02924  0.004165  -0.002208  0.04694  -0.7321  0.2306
6.289e+09  -0.4461  -0.68  -0.008196  0.01188  0.007473  0.01233  -0.6111  0.5103
6.29e+09  -0.7054  -0.455  -0.002736  0.01821  -0.004319  -0.05799  -0.444  0.714
6.291e+09  -0.815  -0.2539  0.003784  0.00408  0.05951  0.03796  -0.1343  0.7605
6.292e+09  -0.7844  0.08242  -0.01386  -0.003929  0.03637  0.01975  0.1232  0.813
6.294e+09  -0.6877  0.368  0.007501  0.03454  0.0132  -0.05018  0.3975  0.6796
6.295e+09  -0.5436  0.6195  0.002843  0.01988  0.04104  -0.07028  0.6169  0.5185
6.296e+09  -0.332  0.7661  -0.002071  -0.002854  -0.07668  0.02058  0.7421  0.2849
6.298e+09  -0.08469  0.7953  0.003276  0.01925  -0.004213  -0.01971  0.868  -0.003675
6.299e+09  0.2451  0.8244  0.01536  -0.01739  0.0004502  0.009733  0.7862  -0.2522
6.3e+09  0.4939  0.6192  -0.01735  -0.00563  -0.01374  0.001434  0.6708  -0.5525
6.301e+09  0.6581  0.4544  0.03635  -0.00123  -0.03168  0.01099  0.394  -0.7401
6.302e+09  0.7574  0.2188  0.01734  0.006836  0.01509  0.04283  0.1457  -0.817
6.304e+09  0.8433  -0.1114  0.01651  0.0009844  0.007616  -0.02515  -0.1469  -0.8312
6.305e+09  0.7591  -0.4433  0.01281  8.334e-05  -0.04561  -0.0337  -0.4357  -0.7197
6.306e+09  0.5527  -0.6279  -0.004634  -0.00572  -0.04605  -0.00169  -0.6417  -0.5744
6.308e+09  0.3022  -0.7487  -0.01696  -0.01038  0.03  -0.0135  -0.8115  -0.3244
6.309e+09  0.05005  -0.8208  0.01997  -0.01862  -0.002374  -0.02026  -0.8524  0.01591
6.31e+09  -0.2429  -0.7889  -0.01068  0.001451  0.00485  -0.01403  -0.822  0.2792
6.311e+09  -0.5642  -0.6228  0.004161  -0.007985  0.03424  -0.01583  -0.6994  0.5187
6.312e+09  -0.7589  -0.4124  -0.02298  -0.009014  -0.02402  -0.00565  -0.4408  0.7763
6.314e+09  -0.8492  -0.09094  -0.006404  0.04505  -0.01933  -0.0001116  -0.1579  0.8189
6.315e+09  -0.8349  0.1671  0.0113  0.008227  0.04857  0.05525  0.1449  0.8473
6.316e+09  -0.702  0.4109  0.004494  -0.03339  0.01333  -0.02909  0.4237  0.7833
6.318e+09  -0.518  0.6443  -0.007187  0.0007257  -0.03439  -0.03026  0.6566  0.5825
6.319e+09  -0.2657  0.8045  0.01394  -0.01123  0.0008413  -0.03269  0.8352  0.3203
6.32e+09  0.05644  0.8719  0.01519  0.0224  0.0128  -0.01753  0.8905  0.02055
6.321e+09  0.3029  0.8299  -0.003892  0.00886  -0.01234  -0.0008926  0.8195  -0.282
6.322e+09  0.5238  0.6341  -0.008412  -0.0396  -0.002542  -0.02499  0.7085  -0.5414
6.324e+09  0.785  0.3633  0.02524  0.00887  0.01041  0.06129  0.4604  -0.7742
6.325e+09  0.8153  0.1174  0.003662  -0.0003283  -0.01209  0.02626  0.1579  -0.9099
6.326e+09  0.8725  -0.1655  -0.01739  -0.009533  -0.05809  -0.00315  -0.1577  -0.8747
6.328e+09  0.7189  -0.5188  -0.002287  0.01857  0.01483  0.01726  -0.4465  -0.7929
6.329e+09  0.5213  -0.6787  0.006345  0.003828  -0.004152  0.02198  -0.6484  -0.6053
6.33e+09  0.2749  -0.8257  0.01873  -0.01727  -0.01457  0.008843  -0.8575  -0.3541
6.331e+09  -0.07781  -0.8727  -0.0222  -0.03329  0.0302  0.006951  -0.8744  -0.01039
6.332e+09  -0.3641  -0.7912  -0.01059  -0.005104  0.02711  -0.007675  -0.8628  0.2997
6.334e+09  -0.5695  -0.6197  0.009993  -0.006614  0.001439  -0.0631  -0.7053  0.5504
6.335e+09  -0.7657  -0.3349  -0.05021  0.01543  -0.03327  0.005324  -0.49  0.7906
6.336e+09  -0.8362  -0.01177  -0.009537  -0.008954  0.03212  0.03095  -0.1862  0.8664
6.338e+09  -0.8366  0.2672  0.02088  0.01657  -0.01569  -0.05236  0.1428  0.9001
6.339e+09  -0.6513  0.478  0.02028  0.0006625  -0.06113  0.03061  0.4243  0.7808
6.34e+09  -0.4582  0.7007  -0.01592  0.0122  0.01112  0.01617  0.7097  0.6227
6.341e+09  -0.2044  0.8355  -0.02057  -0.007217  -0.03703  -0.004648  0.8346  0.3686
6.342e+09  0.1355  0.8858  -0.01343  0.02773  0.01104  -0.031  0.9254  0.02374
6.344e+09  0.4174  0.7626  0.01331  -0.02969  0.0002392  0.03019  0.9023  -0.2417
6.345e+09  0.6726  0.5623  0.02271  0.01855  0.02083  -0.0007992  0.7528  -0.5774
6.346e+09  0.7772  0.3297  0.002679  0.009228  0.01785  0.005957  0.5331  -0.7894
6.348e+09  0.9009  -0.01408  -0.03101  0.01996  0.0331  0.02319  0.2002  -0.9046
6.349e+09  0.8082  -0.3369  -0.02447  -0.0164  0.001612  0.01668  -0.1324  -0.9434
6.35e+09  0.6532  -0.5849  -0.01443  0.01564  0.02224  -0.01264  -0.4428  -0.8436
6.351e+09  0.374  -0.7924  -0.003076  -0.005274  0.005136  0.01128  -0.6663  -0.6173
6.352e+09  0.09233  -0.8616  0.04696  0.0004078  -0.01915  0.02457  -0.8876  -0.3788
6.354e+09  -0.174  -0.8295  -0.01036  -0.002887  0.01833  -0.04332  -0.9243  -0.04175
6.355e+09  -0.4764  -0.7364  0.0132  -0.02823  -0.04433  0.01805  -0.8996  0.261
6.356e+09  -0.6437  -0.5036  0.01763  0.03161  -0.01459  0.02181  -0.7704  0.5228
6.358e+09  -0.8475  -0.2553  -0.006892  0.04336  -0.002866  0.004292  -0.5192  0.769
6.359e+09  -0.9205  0.03311  -0.03068  -0.006112  0.01291  0.01137  -0.2064  0.9007
6.36e+09  -0.7665  0.3932  -0.02564  -0.01073  -0.03749  0.05393  0.08752  0.9261
6.361e+09  -0.6172  0.6329  -0.02138  0.021  0.03471  0.01374  0.4376  0.8585
6.362e+09  -0.3295  0.7847  0.02332  -0.0003642  -0.0125  0.009321  0.6707  0.6649
6.364e+09  -0.02436  0.8967  0.01348  -0.006536  0.004225  0.02992  0.8586  0.4186
6.365e+09  0.2599  0.8829  0.02491  -0.02924  0.01714  0.01008  0.936  0.0819
6.366e+09  0.5479  0.7175  0.01791  0.01673  0.02707  0.01453  0.941  -0.2376
6.368e+09  0.734  0.5114  0.01708  -0.0002046  0.02237  0.01315  0.7352  -0.5445
6.369e+09  0.8514  0.1841  -0.003771  -0.05927  0.01107  -0.04741  0.5578  -0.7725
6.37e+09  0.8625  -0.07413  0.01147  0.03075  -0.01533  0.01986  0.2559  -0.9246
6.371e+09  0.799  -0.3892  -0.009491  0.02553  0.007658  -0.01944  -0.06895  -0.9509
6.372e+09  0.6234  -0.6419  -0.008031  0.01978  -0.02754  0.002319  -0.3768  -0.8553
6.374e+09  0.2912  -0.8595  0.02493  0.01633  -0.02329  0.003515  -0.6658  -0.6754
6.375e+09  -0.03009  -0.8909  -0.01113  0.05352  0.03231  -0.01845  -0.8391  -0.4682
6.376e+09  -0.3122  -0.8645  0.008402  -0.004071  -0.008421  0.009156  -0.8818  -0.08019
6.378e+09  -0.575  -0.6695  -0.02612  -0.006042  0.0008569  0.0008238  -0.9175  0.2587
6.379e+09  -0.7724  -0.4624  0.001158  -0.03174  0.01495  0.02381  -0.7742  0.5175
6.38e+09  -0.8754  -0.1121  -0.01266  -0.03363  -0.005652  -0.02076  -0.5387  0.7379
6.381e+09  -0.9002  0.1466  -0.006365  -0.01211  -0.01381  -0.006979  -0.2549  0.9341
6.382e+09  -0.7438  0.4267  0.01837  -0.03162  -0.0191  -0.0002614  0.08035  0.9173
6.384e+09  -0.5733  0.6748  -0.04501  -0.004707  -0.01236  -0.005011  0.3907  0.8787
6.385e+09  -0.3136  0.7977  0.009187  -0.05555  0.001763  0.02851  0.6212  0.6787
6.386e+09  0.07137  0.8967  0.008662  -0.0002463  0.02826  0.04356  0.8421  0.3956
6.388e+09  0.3169  0.8224  0.01827  0.009759  0.05929  -0.004393  0.8954  0.09101
6.389e+09  0.6085  0.6628  -0.01767  -0.004987  -0.0062  -0.008561  0.9335  -0.2358
6.39e+09  0.8211  0.4472  0.01505  0.0217  -0.003633  -0.03711  0.8234  -0.4886
6.391e+09  0.8763  0.1168  -0.02431  0.0306  0.02657  0.04478  0.5179  -0.7265
6.392e+09  0.8391  -0.1719  0.01883  -0.02057  -0.01714  -0.01522  0.2999  -0.888
6.394e+09  0.732  -0.4641  -0.02046  0.0495  -0.02311  -0.05038  -0.001366  -0.9442
6.395e+09  0.4939  -0.7498  0.02283  -0.0273  0.0273  0.002159  -0.3412  -0.8679
6.396e+09  0.207  -0.8781  -0.006065  0.02063  0.009466  0.01119  -0.6339  -0.6389
6.398e+09  -0.09835  -0.8937  0.01219  -0.0376  -0.003041  -0.004419  -0.8046  -0.4745
6.399e+09  -0.3956  -0.7608  0.01298  0.01353  -0.005657  0.0281  -0.9231  -0.1296
6.4e+09  -0.6515  -0.6057  0.01719  -0.01813  -0.06094  -0.02489  -0.8754  0.1727
6.401e+09  -0.7938  -0.3508  -0.01867  -0.01393  -0.00661  -0.005806  -0.7635  0.4839
6.402e+09  -0.8426  -0.06385  0.03474  0.01697  -0.008026  -0.01945  -0.608  0.7463
6.404e+09  -0.7992  0.204  0.03854  -0.02451  -0.02357  -0.0333  -0.285  0.8617
6.405e+09  -0.7168  0.5389  -0.003507  0.01731  -0.02741  -0.03352  0.0203  0.9341
6.406e+09  -0.4627  0.7144  -0.01652  0.003546  0.01796  0.05287  0.2915  0.8846
6.408e+09  -0.2258  0.8196  0.02793  0.003743  -0.02459  -0.05244  0.5663  0.7222
6.409e+09  0.1392  0.9043  0.02144  -0.01283  -0.02892  -0.04952  0.7736  0.4727
6.41e+09  0.3982  0.7728  -0.0005414  -0.03792  0.002769  0.02956  0.8761  0.154
6.411e+09  0.7332  0.6336  0.01093  -0.01084  -0.002951  0.0234  0.8865  -0.1276
6.412e+09  0.7932  0.2834  0.01337  -0.03508  -0.0007276  0.05256  0.8082  -0.4167
6.414e+09  0.8572  0.03217  0.04005  -0.009527  -0.01259  -0.01369  0.5872  -0.6873
6.415e+09  0.8592  -0.2941  0.006323  -0.01118  0.0191  -0.007679  0.3172  -0.8435
6.416e+09  0.6775  -0.5721  0.02729  0.01436  0.0116  0.008067  0.007816  -0.9154
6.418e+09  0.4698  -0.7715  -0.003038  0.02605  -0.0173  0.01154  -0.2737  -0.8876
6.419e+09  0.166  -0.874  0.006893  -0.001069  -0.009957  0.004878  -0.5668  -0.6872
6.42e+09  -0.1631  -0.8248  0.03066  0.02717  -0.02389  0.04189  -0.7417  -0.4486
6.421e+09  -0.3904  -0.7909  0.009506  -0.0004735  -0.01019  0.01729  -0.8219  -0.2138
6.422e+09  -0.6383  -0.5499  0.001073  0.002908  0.00129  0.00711  -0.803  0.1005
6.424e+09  -0.8017  -0.3372  -0.05051  0.00811  0.005061  0.05995  -0.7955  0.4306
6.425e+09  -0.8838  -0.04122  0.02087  -0.005993  0.04903  0.03742  -0.6034  0.661
6.426e+09  -0.8304  0.2858  -0.009207  -0.009667  -0.0143  0.009597  -0.3422  0.7916
6.428e+09  -0.6331  0.5877  -0.005169  -0.02421  -0.02039  0.03544  -0.02885  0.8651
6.429e+09  -0.3624  0.7697  0.001411  -0.001036  0.02693  -0.01899  0.2658  0.8647
6.43e+09  -0.1265  0.8667  -0.05405  0.03539  0.002961  0.02163  0.535  0.6531
6.431e+09  0.1451  0.9199  0.02956  -0.01823  -0.02409  0.003273  0.7283  0.5057
6.432e+09  0.5163  0.7606  -0.01485  -0.0004998  -0.07604  0.0194  0.8028  0.2428
6.434e+09  0.6593  0.5436  0.02259  -0.03531  -0.02742  -0.01272  0.8503  -0.09085
6.435e+09  0.799  0.2649  0.01441  -0.004318  0.03524  -0.005154  0.7851  -0.3689
6.436e+09  0.8687  -0.0587  0.01131  -0.0006802  -0.04489  0.05895  0.5613  -0.5593
6.438e+09  0.8098  -0.3208  -0.01094  0.01602  -0.01453  0.0294  0.4175  -0.79
6.439e+09  0.6811  -0.5626  -0.01251  0.02308  0.009868  0.02146  0.07378  -0.861
6.44e+09  0.4012  -0.7391  0.01065  0.001696  -0.01458  -0.02588  -0.2483  -0.8222
6.441e+09  0.1266  -0.8714  0.01572  0.02808  0.004987  -0.005466  -0.4804  -0.6773
6.442e+09  -0.1751  -0.8225  -0.001192  0.0179  -0.002779  -0.01618  -0.657  -0.4779
6.444e+09  -0.4197  -0.7533  -0.01469  0.009882  -0.008614  0.01909  -0.8577  -0.2343
6.445e+09  -0.7129  -0.5631  -0.01288  -0.01727  -0.07978  -0.01412  -0.8768  0.1006
6.446e+09  -0.8237  -0.3198  0.03945  -0.0293  -0.02827  0.04475  -0.7756  0.365
6.448e+09  -0.8578  0.02584  -0.06252  0.03589  -0.05994  0.006319  -0.5636  0.6131
6.449e+09  -0.8276  0.345  0.03434  -0.01937  0.02028  0.001806  -0.3473  0.7447
6.45e+09  -0.6855  0.5951  -0.02702  -0.04258  -0.001794  0.01908  -0.07074  0.8366
6.451e+09  -0.4215  0.7642  -0.01166  -0.02606  0.01479  -0.05008  0.215  0.8213
6.452e+09  -0.09481  0.8776  -0.02565  0.03289  0.01316  0.04531  0.4642  0.6679
6.454e+09  0.2129  0.8631  -0.03014  -0.0231  0.03591  0.0375  0.6589  0.437
6.455e+09  0.4235  0.7987  -0.03301  -0.01353  0.01743  -0.001933  0.8028  0.16
6.456e+09  0.7205  0.5172  -0.000213  -0.0337  0.03004  0.02673  0.7937  -0.0379
6.458e+09  0.8301  0.2627  0.003011  -0.01592  0.03081  -0.031  0.7527  -0.3548
6.459e+09  0.8704  0.0152  0.01594  0.04028  -0.04481  0.03017  0.5738  -0.5889
6.46e+09  0.7689  -0.3106  -0.01799  -0.002158  0.01319  0.002579  0.3565  -0.7549
6.461e+09  0.6712  -0.6057  -0.03077  0.0121  -0.02416  0.01586  0.07554  -0.8062
6.462e+09  0.43  -0.7675  -0.01555  0.02442  0.01055  0.03738  -0.211  -0.8064
6.464e+09  0.09304  -0.8906  -0.03415  -0.02125  -0.005893  0.03095  -0.4524  -0.6435
6.465e+09  -0.2008  -0.8523  0.02864  -0.03145  0.007092  0.005244  -0.6309  -0.4283
6.466e+09  -0.4899  -0.7087  -0.008633  0.003585  0.0307  -0.03209  -0.7899  -0.2034
6.468e+09  -0.7181  -0.5279  0.04412  0.01733  0.03665  -0.007622  -0.7981  0.08978
6.469e+09  -0.8713  -0.2652  0.01233  -0.006439  -0.02158  0.006423  -0.6796  0.3406
6.47e+09  -0.8594  0.06529  -0.02255  -0.038  0.008273  -0.02186  -0.552  0.5096
6.471e+09  -0.8014  0.3474  0.006846  -0.03099  0.00736  -0.05504  -0.3401  0.7508
6.472e+09  -0.6225  0.6335  0.003068  -0.01332  0.05196  -0.03787  -0.06385  0.7772
6.474e+09  -0.4282  0.7544  -0.005184  0.02425  -0.02108  0.01507  0.1927  0.7253
6.475e+09  -0.1045  0.9212  -0.004927  -0.04352  -0.02389  -0.02284  0.4673  0.6658
6.476e+09  0.1885  0.8785  0.004922  0.03839  0.000528  0.01642  0.6575  0.4528
6.478e+09  0.4784  0.7088  0.004353  -0.01343  0.02877  0.00342  0.7762  0.1863
6.479e+09  0.7002  0.515  0.0003731  0.02393  -0.01676  0.02872  0.8097  -0.02189
6.48e+09  0.8774  0.3513  -0.001062  -0.0206  0.02226  0.02516  0.7127  -0.347
6.481e+09  0.9076  -0.08138  0.04455  -0.03176  0.003804  -0.02086  0.5364  -0.5828
6.482e+09  0.7798  -0.3318  0.0127  -0.007309  0.0499  -0.008584  0.2899  -0.6882
6.484e+09  0.6564  -0.5938  -0.0351  0.04578  0.005699  -0.02601  0.04585  -0.8047
6.485e+09  0.4079  -0.755  -0.007604  -0.001488  0.007442  -0.01299  -0.1867  -0.7358
6.486e+09  0.06616  -0.8731  0.05416  0.01518  -0.06357  -0.03408  -0.4298  -0.6139
6.488e+09  -0.2096  -0.894  -0.006544  0.02396  0.03219  -0.03428  -0.6297  -0.4325
6.489e+09  -0.5051  -0.766  0.008031  0.01538  -0.05192  0.03086  -0.7319  -0.2019
6.49e+09  -0.762  -0.552  0.0002034  0.02149  -0.02837  -0.02176  -0.7799  0.07317
6.491e+09  -0.8843  -0.2704  0.02687  0.01864  0.007615  0.01652  -0.7105  0.3377
6.492e+09  -0.914  0.07131  0.005948  -0.009221  -0.03203  0.04041  -0.5166  0.5936
6.494e+09  -0.7864  0.3412  0.01259  0.002807  -0.01193  0.005065  -0.3164  0.6757
6.495e+09  -0.6194  0.6518  -0.00996  0.04885  0.006291  -0.02036  -0.05837  0.7763
6.496e+09  -0.4203  0.8251  -0.0369  0.005614  0.005472  -0.004322  0.2085  0.7231
6.498e+09  -0.1053  0.9074  0.01769  0.02917  0.03382  -0.01855  0.4556  0.5807
6.499e+09  0.2364  0.8613  -0.002794  0.02084  0.02471  -0.007313  0.6218  0.3932
6.5e+09  0.547  0.7478  0.05802  -0.0283  -0.03979  -0.002342  0.7643  0.183
6.501e+09  0.7737  0.5397  -0.0142  0.03056  -0.02496  0.006445  0.7515  -0.08031
6.502e+09  0.8762  0.2083  0.007687  -0.00269  0.0007645  -0.0308  0.6732  -0.3416
6.504e+09  0.9234  -0.09542  0.01578  -0.0193  0.06831  -0.001748  0.4998  -0.6023
6.505e+09  0.8412  -0.4007  0.01614  -0.02585  0.00985  -0.005335  0.2912  -0.7245
6.506e+09  0.6335  -0.638  -0.006885  -0.003837  -0.04421  0.02488  0.02815  -0.7663
6.508e+09  0.3501  -0.8686  0.0157  0.01606  -0.02551  0.0402  -0.2187  -0.716
6.509e+09  0.0738  -0.8984  -0.01487  -0.02755  0.02903  0.003224  -0.4641  -0.5901
6.51e+09  -0.2166  -0.8894  -0.01608  0.01714  0.01225  -0.02374  -0.6576  -0.3932
6.511e+09  -0.5462  -0.723  0.007477  0.01957  -0.007405  0.01796  -0.73  -0.1536
6.512e+09  -0.763  -0.5134  0.02188  0.01271  0.01926  -0.02009  -0.7344  0.12
6.514e+09  -0.8893  -0.1878  -0.01788  -0.02082  0.03716  0.02425  -0.641  0.3827
6.515e+09  -0.9189  0.1217  0.008827  0.005985  -0.002112  0.003008  -0.4694  0.5629
6.516e+09  -0.858  0.4393  -0.02174  0.00318  -0.03882  0.01334  -0.2634  0.6789
6.518e+09  -0.5849  0.6915  0.01782  -0.01802  -0.01827  0.01162  -0.006066  0.7108
6.519e+09  -0.331  0.8388  -0.002767  0.01363  0.016  0.01066  0.2447  0.6791
6.52e+09  0.02631  0.9671  0.007311  -0.003111  -0.01313  -0.01534  0.4967  0.5374
6.521e+09  0.3115  0.8499  -0.008622  0.003441  -0.03689  -0.01175  0.6555  0.3403
6.522e+09  0.6403  0.7431  0.007163  -0.003667  -0.03479  -0.02443  0.717  0.1123
6.524e+09  0.8226  0.482  -0.008775  -0.01935  0.007818  -0.02234  0.7133  -0.1461
6.525e+09  0.9502  0.1707  0.009069  -0.008953  -0.0006378  0.02004  0.6035  -0.3751
6.526e+09  0.9275  -0.1351  -0.005167  -0.004348  -0.02195  -0.03292  0.435  -0.5642
6.528e+09  0.8138  -0.4739  -0.006383  -0.0172  -0.02844  -0.00222  0.1667  -0.6847
6.529e+09  0.6009  -0.7577  0.001335  0.01532  0.004804  0.02678  -0.05645  -0.6753
6.53e+09  0.2805  -0.9157  -0.04917  0.02258  0.01984  0.06275  -0.3364  -0.6354
6.531e+09  -0.03715  -0.9257  -0.02957  -0.04572  0.0177  0.03213  -0.4733  -0.4925
6.532e+09  -0.3421  -0.8888  0.01291  0.01495  0.02105  0.001168  -0.5836  -0.3163
6.534e+09  -0.6533  -0.7277  0.0128  -0.01757  -0.01056  0.03741  -0.6441  -0.09431
6.535e+09  -0.804  -0.491  -0.01851  -0.01234  0.003535  0.0374  -0.6221  0.1596
6.536e+09  -0.9559  -0.177  -0.00569  0.02573  0.03917  0.0289  -0.5937  0.3031
6.538e+09  -0.9612  0.2455  -0.03396  -0.006951  -0.04697  -0.03797  -0.4607  0.4649
6.539e+09  -0.7688  0.484  -0.007616  -0.03314  0.05116  -0.05921  -0.2915  0.6
6.54e+09  -0.5304  0.7574  -0.003864  -0.0005946  0.01711  0.02133  -0.02542  0.6682
6.541e+09  -0.3221  0.9607  -0.00102  -0.03085  -0.02228  -0.05046  0.1415  0.6387
6.542e+09  0.02601  0.9634  0.04486  0.02167  -0.01722  -0.03217  0.4106  0.5447
6.544e+09  0.4323  0.8888  0.005865  -0.003458  0.007452  0.02032  0.5912  0.4048
6.545e+09  0.6837  0.6626  0.02079  -0.0006668  -0.01056  -0.003346  0.6636  0.1553
6.546e+09  0.8514  0.3594  0.01558  -0.02454  0.01863  -0.01957  0.7151  -0.08009
6.548e+09  0.9737  0.03472  0.0104  -0.01377  0.02517  0.02352  0.6536  -0.3092
6.549e+09  0.9272  -0.2979  -0.005149  -0.02089  0.004797  0.03095  0.5024  -0.513
6.55e+09  0.7648  -0.5707  -0.009971  -0.01882  -0.001376  -0.002281  0.2741  -0.675
