# Hz S RI R 50
6.25e+09  -0.6811  0.5593  -0.0134  -0.05186  0.004784  0.04522  0.1534  0.4658
6.251e+09  -0.3979  0.7668  -0.01643  -0.03069  -0.01271  0.04064  0.3741  0.4004
6.252e+09  -0.1606  0.7811  0.02093  -0.007799  -0.01122  0.004834  0.5374  0.2439
6.254e+09  0.1691  0.818  -0.0138  0.003127  0.02921  -0.02432  0.5934  0.01074
6.255e+09  0.4169  0.7668  -0.01856  0.02798  0.02253  0.07823  0.5484  -0.2232
6.256e+09  0.6592  0.5474  -0.01797  -0.04136  -0.03187  0.0001438  0.4464  -0.4295
6.258e+09  0.8406  0.2788  -0.003367  0.03631  -0.001989  -0.004417  0.2941  -0.5733
6.259e+09  0.8284  -0.02219  -0.006584  0.006462  -0.04184  -0.02369  0.04694  -0.671
6.26e+09  0.7731  -0.3051  0.02218  -0.03615  0.02032  0.007345  -0.2033  -0.642
6.261e+09  0.6443  -0.5401  0.02917  0.01166  0.005525  -0.03075  -0.4222  -0.5303
6.262e+09  0.3779  -0.7534  0.02355  0.01135  0.005604  0.01788  -0.6364  -0.3439
6.264e+09  0.1538  -0.8185  -0.02033  0.001118  0.01569  0.003944  -0.7116  -0.1112
6.265e+09  -0.1401  -0.8256  0.0278  0.008006  -0.004377  -0.0142  -0.6593  0.1492
6.266e+09  -0.3756  -0.7079  -0.01304  -0.005223  -0.02992  0.03661  -0.5873  0.3635
6.268e+09  -0.5911  -0.5586  0.003595  -8.814e-05  -0.02441  0.05388  -0.424  0.5719
6.269e+09  -0.7542  -0.2083  -0.01021  -0.001447  0.03736  0.0008226  -0.1762  0.7177
6.27e+09  -0.8533  0.03096  -0.00218  0.00955  -0.02078  0.03124  0.06677  0.7314
6.271e+09  -0.7708  0.2911  0.008232  -0.003795  -0.02691  -0.02419  0.296  0.6361
6.272e+09  -0.6441  0.5206  -0.01263  -0.01441  0.03497  -0.01273  0.554  0.5244
6.274e+09  -0.4117  0.688  0.03678  -0.01344  -0.04462  -0.02167  0.6892  0.2534
6.275e+09  -0.1571  0.8286  0.002383  -0.01808  0.03867  -0.04247  0.7598  0.04551
6.276e+09  0.1461  0.8217  -0.008474  0.0003242  -0.007422  -0.04867  0.7292  -0.2401
6.278e+09  0.4162  0.7421  0.03102  0.01342  0.0179  0.02566  0.6305  -0.48
6.279e+09  0.6003  0.519  0.003404  0.01306  -0.01341  -0.0112  0.4065  -0.6736
6.28e+09  0.767  0.2766  -0.002786  0.01514  0.04575  -0.007957  0.1708  -0.751
6.281e+09  0.8519  -0.02453  -0.0002274  0.02856  0.02561  0.03739  -0.09048  -0.7702
6.282e+09  0.7889  -0.278  0.00268  -0.0102  0.003615  -0.05699  -0.3514  -0.6926
6.284e+09  0.5621  -0.4883  0.001069  0.002517  0.02046  -0.01547  -0.6178  -0.5118
6.285e+09  0.4167  -0.7111  -0.02409  0.0002151  -0.07358  -0.06042  -0.7299  -0.2467
6.286e+09  0.1525  -0.8067  -0.00869  -0.02352  -0.008231  -0.007131  -0.8285  -0.01759
6.288e+09  -0.1577  -0.7506  0.04209  -0.01765  0.04864  -0.01504  -0.7601  0.232
6.289e+09  -0.4237  -0.7153  0.005763  0.006986  0.004942  -0.01172  -0.6387  0.4767
6.29e+09  -0.6743  -0.5173  -0.0117  -0.01379  0.02192  0.03456  -0.4213  0.7006
6.291e+09  -0.795  -0.2681  -0.001263  0.01846  0.001375  -0.0194  -0.1846  0.7964
6.292e+09  -0.8303  0.06634  -0.001817  0.02342  -0.01544  -0.03121  0.151  0.7929
6.294e+09  -0.7774  0.2817  -0.003299  -0.007246  -0.009189  0.002496  0.3681  0.7198
6.295e+09  -0.6039  0.5485  -0.002265  -0.002645  -0.034  0.005762  0.5987  0.5449
6.296e+09  -0.3683  0.7338  0.02185  -0.02196  -0.003185  0.01374  0.7052  0.2681
6.298e+09  -0.08825  0.8328  0.009903  0.01136  -0.03001  -0.01091  0.8234  0.0198
6.299e+09  0.2154  0.8321  0.01104  -0.01387  0.01122  -0.01504  0.7695  -0.2696
6.3e+09  0.4438  0.6641  0.02302  -0.001384  -0.03853  -0.005467  0.6236  -0.522
6.301e+09  0.6661  0.4955  0.01854  -5.479e-05  -0.0006418  -0.0476  0.4274  -0.7171
6.302e+09  0.7866  0.2124  0.0193  0.03153  0.01233  -0.002073  0.194  -0.8532
6.304e+09  0.7797  -0.07445  -0.0006143  -0.009373  -0.02027  0.01792  -0.1234  -0.8504
6.305e+09  0.7197  -0.31  0.003418  -0.01196  0.04358  -0.008097  -0.4438  -0.7271
6.306e+09  0.5449  -0.5616  -0.01245  -0.01061  -0.03279  0.02103  -0.6584  -0.5631
6.308e+09  0.3537  -0.7191  0.01766  0.0077  0.04645  0.001383  -0.7894  -0.2987
6.309e+09  0.06774  -0.8207  -0.03252  -0.005503  0.06327  -0.01706  -0.8236  -0.02658
6.31e+09  -0.2147  -0.7609  0.01034  0.01596  -0.00333  -0.01275  -0.8162  0.2789
6.311e+09  -0.4897  -0.6567  0.01235  0.0112  0.0576  -0.002016  -0.6579  0.5441
6.312e+09  -0.6621  -0.4603  0.0131  -0.0245  -0.03217  -0.004909  -0.4531  0.7238
6.314e+09  -0.8478  -0.2464  -0.005066  0.01117  -0.0451  0.04214  -0.1869  0.8478
6.315e+09  -0.8779  0.06954  -0.01887  -0.02754  -0.04053  -0.004885  0.1561  0.8632
6.316e+09  -0.7662  0.3562  -0.03155  -0.02542  0.02568  0.01373  0.3959  0.7391
6.318e+09  -0.5667  0.6174  -0.03484  0.02362  0.01376  0.01657  0.6226  0.5544
6.319e+09  -0.3853  0.7466  0.02106  0.01357  -0.01849  -0.05299  0.8271  0.3281
6.32e+09  -0.04341  0.8403  0.009769  -0.02005  0.007983  -0.003088  0.8607  0.002591
6.321e+09  0.2404  0.8066  -4.495e-05  -0.02555  0.02677  0.01906  0.8533  -0.2995
6.322e+09  0.495  0.681  0.02583  0.02702  -0.03854  0.03641  0.6776  -0.5581
6.324e+09  0.7007  0.4323  -0.009996  0.02307  0.001944  -0.009293  0.4465  -0.785
6.325e+09  0.8295  0.1885  -0.00475  0.00384  0.01397  -0.03177  0.1558  -0.8986
6.326e+09  0.8717  -0.07626  -0.001969  0.02871  -0.004875  -0.02659  -0.1495  -0.9042
6.328e+09  0.7348  -0.411  0.003534  -0.001716  -0.01415  -0.03608  -0.3991  -0.785
6.329e+09  0.5644  -0.6704  -0.008871  -0.00139  -0.02096  0.005043  -0.6566  -0.5865
6.33e+09  0.3175  -0.817  -0.01321  -0.01687  0.03019  -0.001313  -0.8508  -0.3404
6.331e+09  0.007922  -0.8895  -0.004389  0.03517  -0.006493  0.01769  -0.902  -0.04173
6.332e+09  -0.2782  -0.8104  -0.01009  -0.005824  -0.015  -0.002757  -0.8611  0.2943
6.334e+09  -0.5565  -0.6351  -0.006485  -0.006449  0.0007855  -0.01139  -0.6851  0.5512
6.335e+09  -0.7791  -0.3807  -0.01633  -0.01811  -0.03728  -0.01962  -0.5072  0.7513
6.336e+09  -0.845  -0.1161  0.0203  0.02663  -0.03097  0.01012  -0.2183  0.8685
6.338e+09  -0.8863  0.2314  -0.009062  -0.02091  -0.03403  -0.02412  0.1441  0.9266
6.339e+09  -0.7514  0.5014  -0.001323  -0.04086  -0.0395  -0.0165  0.4465  0.8287
6.34e+09  -0.4938  0.6748  0.007121  -0.01131  -0.02408  -0.009716  0.6483  0.6256
6.341e+09  -0.2536  0.8684  -0.02674  0.01351  0.006244  0.03057  0.8727  0.3467
6.342e+09  0.1014  0.8918  -0.03572  0.007931  -0.001406  0.03937  0.9453  0.07536
6.344e+09  0.3892  0.7877  0.02233  -0.001101  0.006983  -0.003964  0.8901  -0.265
6.345e+09  0.6529  0.623  0.003812  0.03518  -0.02719  -0.02878  0.6839  -0.5561
6.346e+09  0.7659  0.3822  -0.02234  -0.009213  -0.01879  0.01314  0.4821  -0.7941
6.348e+09  0.8832  0.07501  0.001711  -0.0007822  0.06221  0.01525  0.2134  -0.8715
6.349e+09  0.8163  -0.226  0.0293  0.00786  -0.02895  -0.005122  -0.07904  -0.9843
6.35e+09  0.7112  -0.5384  -0.001585  -0.02221  0.00778  -0.01229  -0.4176  -0.806
6.351e+09  0.4446  -0.6742  -0.01124  0.02426  -0.03986  -0.01586  -0.6627  -0.6276
6.352e+09  0.1959  -0.8732  -0.02899  0.02271  0.02609  -0.0173  -0.8313  -0.3729
6.354e+09  -0.1051  -0.8433  -0.003119  -0.01724  -0.01536  -0.01357  -0.922  -0.08055
6.355e+09  -0.4695  -0.777  -0.02045  -0.02057  0.03249  -0.002301  -0.9097  0.2408
6.356e+09  -0.6389  -0.5989  0.02408  0.007773  -0.05502  0.002637  -0.7326  0.5555
6.358e+09  -0.7982  -0.3085  0.01475  -0.0283  0.03769  -0.01061  -0.5042  0.7566
6.359e+09  -0.8858  -0.002971  -0.01942  0.02713  -0.01358  0.03842  -0.2417  0.8889
6.36e+09  -0.812  0.3275  0.005526  -0.009024  0.007538  -0.01635  0.09331  0.9155
6.361e+09  -0.6466  0.5769  0.007899  0.01966  0.0467  0.02088  0.4281  0.8101
6.362e+09  -0.4629  0.778  0.02918  -0.01862  0.02876  -0.02358  0.6872  0.633
6.364e+09  -0.1301  0.8937  0.003745  -0.006167  0.007552  0.001868  0.8449  0.3643
6.365e+09  0.2194  0.8717  -0.01646  -0.02488  0.05526  0.02102  0.9147  0.1352
6.366e+09  0.4805  0.7699  -0.005662  -0.01769  -0.01493  0.01241  0.8926  -0.2353
6.368e+09  0.7015  0.5389  -0.02238  -0.03685  -0.04245  -0.005176  0.8022  -0.5262
6.369e+09  0.8823  0.262  -0.03732  -0.04987  -0.0318  0.02688  0.535  -0.7862
6.37e+09  0.8665  -0.08247  -0.003496  0.003044  0.01442  0.003042  0.2466  -0.8824
6.371e+09  0.8545  -0.3544  0.04507  -0.005835  0.002033  -0.004201  -0.08877  -0.9226
6.372e+09  0.6355  -0.6074  0.03756  -0.0315  -0.009846  0.0005201  -0.409  -0.8462
6.374e+09  0.3626  -0.7995  -0.01368  -0.0198  -0.004138  0.02242  -0.6399  -0.6763
6.375e+09  0.07116  -0.8893  -0.0222  -0.04671  -0.03329  0.01852  -0.861  -0.4129
6.376e+09  -0.2202  -0.8667  0.006723  0.008352  -0.01704  0.01744  -0.9308  -0.1072
6.378e+09  -0.5003  -0.7059  0.00485  0.01588  0.02708  0.02577  -0.9125  0.2697
6.379e+09  -0.7358  -0.4792  -0.00856  0.005945  0.01547  -0.02643  -0.7975  0.5191
6.38e+09  -0.8174  -0.1902  0.01044  -0.0001192  0.01666  -0.006076  -0.5811  0.7434
6.381e+09  -0.8394  0.05824  0.01002  0.02276  -0.0356  -0.01212  -0.2523  0.8751
6.382e+09  -0.8194  0.4164  -0.005405  0.01533  0.02637  -0.0229  0.05548  0.9527
6.384e+09  -0.5709  0.6901  0.01084  0.006226  -0.00592  -0.04244  0.4109  0.8781
6.385e+09  -0.3749  0.8261  -0.01603  0.01022  -0.02645  0.007608  0.6577  0.6658
6.386e+09  0.01311  0.9182  -0.01702  -0.03526  -0.01842  0.004428  0.8402  0.4114
6.388e+09  0.2346  0.8684  -0.007045  -0.03043  0.007838  0.01553  0.9497  0.1256
6.389e+09  0.5985  0.685  -0.02531  -0.01722  -0.05886  -0.005997  0.8976  -0.2255
6.39e+09  0.7833  0.4497  -0.009791  -0.01501  -0.04556  -0.02427  0.8312  -0.4851
6.391e+09  0.8799  0.1895  0.01591  -0.006511  -0.01004  0.01003  0.6001  -0.7415
6.392e+09  0.8662  -0.1329  -0.0002903  0.008397  -0.0103  0.02835  0.2772  -0.8536
6.394e+09  0.7299  -0.4656  0.01843  -0.005663  0.04628  -0.0109  -0.0248  -0.9057
6.395e+09  0.5377  -0.7092  0.0197  -0.00116  -0.01644  0.01432  -0.3327  -0.8049
6.396e+09  0.3121  -0.8782  0.01776  -0.0147  -0.002907  -0.01861  -0.5784  -0.6963
6.398e+09  -0.04193  -0.8909  0.0001655  -0.0184  0.04693  -0.01039  -0.8626  -0.4657
6.399e+09  -0.3534  -0.8307  0.0286  -0.02087  0.02502  -0.01806  -0.9375  -0.1695
6.4e+09  -0.594  -0.6381  -0.0349  -0.0128  -0.01566  0.003282  -0.8753  0.1337
6.401e+09  -0.775  -0.3978  -0.00707  -0.00348  0.05873  0.01181  -0.7982  0.469
6.402e+09  -0.8633  -0.114  -0.03987  0.01511  0.01188  0.02397  -0.5413  0.6962
6.404e+09  -0.836  0.169  0.01813  -0.03379  -0.02743  0.03322  -0.2795  0.8613
6.405e+09  -0.7178  0.443  0.03139  0.007026  0.03848  0.003846  0.01941  0.917
6.406e+09  -0.4999  0.7002  -0.0006467  0.004857  0.04263  -0.00179  0.3105  0.8137
6.408e+09  -0.2565  0.8625  -0.01302  -0.02301  -0.02219  0.001302  0.5886  0.7416
6.409e+09  0.1177  0.8822  -0.01039  0.0108  0.0002588  0.02497  0.7767  0.4998
6.41e+09  0.3155  0.7658  -0.01137  0.01239  -0.004828  0.04808  0.8947  0.1574
6.411e+09  0.5893  0.621  0.02787  -0.01079  -0.0007752  -0.0518  0.9081  -0.1396
6.412e+09  0.819  0.3907  -0.02025  0.007493  -0.01572  0.02081  0.7394  -0.4272
6.414e+09  0.8536  0.1088  0.02588  -0.02286  -0.0395  0.000613  0.5862  -0.6701
6.415e+09  0.8295  -0.19  0.02837  0.01203  0.05285  0.0282  0.3858  -0.8522
6.416e+09  0.7064  -0.5116  0.01201  -0.001412  0.003653  -0.02941  0.04343  -0.8969
6.418e+09  0.4286  -0.7652  -0.01327  0.004585  -0.02977  -0.007571  -0.3142  -0.863
6.419e+09  0.1652  -0.8725  -0.02337  0.01684  0.01395  -0.009416  -0.5281  -0.7199
6.42e+09  -0.06962  -0.8955  0.02924  -0.009668  -0.03815  -0.03754  -0.7289  -0.4529
6.421e+09  -0.3603  -0.7436  0.007646  0.02141  -0.0207  0.03516  -0.8554  -0.1893
6.422e+09  -0.6461  -0.5881  0.007918  0.01934  0.007366  -6.585e-06  -0.8649  0.08675
6.424e+09  -0.8777  -0.3496  -0.002455  -0.02407  -0.02494  0.02116  -0.7788  0.4139
6.425e+09  -0.8992  -0.02882  0.008169  0.03941  -0.02072  -0.02111  -0.608  0.6662
6.426e+09  -0.8734  0.2603  -0.009442  -0.0427  0.04325  -0.01606  -0.3844  0.8169
6.428e+09  -0.7505  0.5269  0.03682  -0.01342  -0.01921  0.01506  -0.06612  0.8765
6.429e+09  -0.4424  0.7705  0.04065  0.01673  -0.03797  -0.04304  0.2357  0.8027
6.43e+09  -0.2198  0.8858  0.01678  -0.02291  -0.005817  0.008394  0.5232  0.6795
6.431e+09  0.05437  0.8437  -0.02394  -0.02335  -0.03186  -0.03667  0.722  0.4939
6.432e+09  0.4297  0.7327  -0.01658  -0.01263  -0.02614  0.07107  0.8173  0.1791
6.434e+09  0.6982  0.6184  0.01798  0.01239  -0.01678  -0.03235  0.8361  -0.04894
6.435e+09  0.8083  0.3077  0.02542  0.03553  -0.047  0.00538  0.7564  -0.3886
6.436e+09  0.8231  0.05557  0.004987  -0.0005513  -0.01177  0.004429  0.5967  -0.6103
6.438e+09  0.836  -0.3036  0.02095  -0.03112  0.04826  -0.03256  0.334  -0.7744
6.439e+09  0.6668  -0.5608  -0.005595  0.02823  0.01986  0.005737  0.1057  -0.8292
6.44e+09  0.4534  -0.7212  -0.04811  0.0336  0.04734  -0.01942  -0.2465  -0.8538
6.441e+09  0.1078  -0.8598  -0.01989  -0.01751  0.03158  0.01234  -0.4903  -0.6828
6.442e+09  -0.1511  -0.848  0.01222  0.03793  0.03993  0.0005799  -0.7037  -0.4993
6.444e+09  -0.4349  -0.7456  0.0145  0.006272  -0.01179  -0.0001117  -0.8319  -0.1971
6.445e+09  -0.6686  -0.5609  -0.03703  -0.006937  0.01881  0.001113  -0.8841  0.0786
6.446e+09  -0.8105  -0.2684  0.01152  -0.01393  -0.009724  -0.00211  -0.7609  0.3638
6.448e+09  -0.8578  -0.007559  -0.02546  -0.01908  0.008815  0.002135  -0.6733  0.6148
6.449e+09  -0.8037  0.2557  -0.04306  0.005738  0.08303  -0.003469  -0.3428  0.7362
6.45e+09  -0.6189  0.5561  0.01406  -0.002699  -0.02235  0.02847  -0.04003  0.8181
6.451e+09  -0.4578  0.7545  0.04205  -0.03707  0.02345  -7.304e-05  0.2062  0.7977
6.452e+09  -0.1706  0.8209  -0.00928  0.04201  -0.02322  0.003609  0.4853  0.687
6.454e+09  0.1641  0.8455  -0.005507  -0.02396  -0.006178  -0.02441  0.668  0.468
6.455e+09  0.3908  0.7769  0.02153  -0.05004  -0.05158  0.01323  0.8179  0.2143
6.456e+09  0.6349  0.5452  0.009404  -0.05138  -0.01031  0.02729  0.8629  -0.03531
6.458e+09  0.817  0.3284  -0.04294  0.04605  0.02058  -0.008755  0.75  -0.3817
6.459e+09  0.8889  0.01161  0.0006748  0.008758  -0.004244  -0.003793  0.5597  -0.5721
6.46e+09  0.7703  -0.2792  0.007822  -0.01794  0.01108  0.03819  0.3643  -0.6755
6.461e+09  0.6318  -0.5899  -0.02975  0.01978  -0.04846  0.02984  0.0912  -0.7989
6.462e+09  0.4795  -0.6947  0.01184  0.009069  0.006175  -0.01923  -0.2304  -0.7698
6.464e+09  0.1585  -0.85  0.004305  -0.02868  0.0107  0.04931  -0.4159  -0.6591
6.465e+09  -0.1553  -0.8633  -0.01679  0.02665  -0.02004  -0.008344  -0.613  -0.4312
6.466e+09  -0.441  -0.7225  0.008894  0.04155  0.008222  -0.04602  -0.7698  -0.2148
6.468e+09  -0.7255  -0.5517  0.03268  0.005516  -0.02662  0.01929  -0.79  0.0646
6.469e+09  -0.7578  -0.3252  -0.041  -0.01206  0.04918  -0.01945  -0.7095  0.3023
6.47e+09  -0.8982  0.01864  0.005332  -0.005785  -0.02024  -0.02714  -0.5345  0.5291
6.471e+09  -0.8241  0.35  0.03437  0.03316  0.01177  -0.0002613  -0.3185  0.7806
6.472e+09  -0.7034  0.5043  -0.01978  -0.01502  -0.03781  -0.002942  -0.06659  0.7769
6.474e+09  -0.4069  0.7473  7.724e-05  -0.02729  0.02835  -0.01504  0.1717  0.8118
6.475e+09  -0.1262  0.8766  -0.007443  0.03928  -0.01285  -0.03172  0.4221  0.6112
6.476e+09  0.1632  0.8411  -0.006559  -0.01339  0.05672  -0.0274  0.6561  0.4921
6.478e+09  0.4172  0.7185  0.02192  -0.007547  0.01435  -0.002549  0.7775  0.176
6.479e+09  0.6851  0.5681  -0.007068  -0.02898  -0.01987  -0.03342  0.7593  -0.06
6.48e+09  0.8265  0.2998  0.03468  -0.008894  -0.0007276  -0.05158  0.6865  -0.3569
6.481e+09  0.9321  -0.04729  0.04732  0.005515  0.02256  -0.01911  0.5533  -0.5517
6.482e+09  0.8074  -0.2932  0.02787  -0.0001645  -0.04103  0.01601  0.3401  -0.6954
6.484e+09  0.7026  -0.597  0.0038  0.02149  -0.01579  0.00216  0.02664  -0.8087
6.485e+09  0.439  -0.7723  -0.00123  0.01421  0.01321  0.01659  -0.1877  -0.7278
6.486e+09  0.1089  -0.8957  0.009699  0.007829  0.0271  0.02567  -0.4562  -0.6245
6.488e+09  -0.1855  -0.8558  0.01818  -0.001478  -0.05721  -0.02708  -0.6359  -0.414
6.489e+09  -0.4349  -0.7629  -0.007108  0.03837  0.0119  -0.05131  -0.7445  -0.1722
6.49e+09  -0.6469  -0.6117  0.002119  -0.01744  -0.004222  -0.0313  -0.8039  0.1226
6.491e+09  -0.9087  -0.2956  0.002944  0.01622  -0.001615  0.001373  -0.687  0.3261
6.492e+09  -0.9356  -0.00514  0.02317  0.01974  -0.0151  0.01397  -0.5765  0.5532
6.494e+09  -0.8422  0.3213  -0.02881  -0.01157  0.01524  -0.01482  -0.2951  0.7185
6.495e+09  -0.665  0.5853  -0.01031  -0.004863  -0.009538  -0.01035  -0.1001  0.7769
6.496e+09  -0.4328  0.8256  -0.01831  -0.01798  0.002621  -0.01042  0.1767  0.7415
6.498e+09  -0.2088  0.8963  0.009727  0.04275  -0.01974  0.02286  0.4758  0.6044
6.499e+09  0.1727  0.8445  -0.01178  0.004814  0.008627  0.02922  0.6648  0.4456
6.5e+09  0.5282  0.8135  0.003076  -0.04972  0.02264  0.01877  0.819  0.1501
6.501e+09  0.7209  0.558  -0.02459  0.03705  -0.02837  0.0148  0.7759  -0.1325
6.502e+09  0.8534  0.2777  0.008003  0.006459  -0.05329  -0.04618  0.7078  -0.3665
6.504e+09  0.8785  -0.005132  -0.01255  0.001031  -0.01381  0.0007669  0.4969  -0.5739
6.505e+09  0.8163  -0.3249  -0.02092  0.0145  0.003252  0.00869  0.2699  -0.6888
6.506e+09  0.6798  -0.6365  -0.01477  0.02046  0.008606  0.01171  -0.01032  -0.7217
6.508e+09  0.3978  -0.8385  -0.01237  -0.00108  -0.0692  0.05308  -0.2349  -0.6884
6.509e+09  0.1353  -0.9365  0.02394  -0.012  0.01566  -0.03338  -0.503  -0.5863
6.51e+09  -0.2536  -0.8687  0.001353  0.03641  0.002878  0.03965  -0.6403  -0.3804
6.511e+09  -0.5169  -0.7629  0.02348  1.938e-05  0.03508  -0.04218  -0.7403  -0.1321
6.512e+09  -0.7609  -0.6208  -0.04395  0.01536  -0.0004103  0.01944  -0.7209  0.08147
6.514e+09  -0.8602  -0.2649  0.02249  0.01329  -0.02158  -0.001006  -0.6609  0.3574
6.515e+09  -0.9135  0.07283  0.01014  0.003724  -0.02954  0.007444  -0.4708  0.605
6.516e+09  -0.8356  0.4026  -0.01436  -0.03551  0.04884  0.005945  -0.2407  0.691
6.518e+09  -0.6545  0.6644  -0.01187  0.02046  0.01097  -0.009692  -0.002314  0.7128
6.519e+09  -0.4073  0.8393  -0.01863  0.02296  0.004358  0.05006  0.2504  0.7379
6.52e+09  -0.07974  0.9641  0.02181  -0.03891  0.0472  -0.003036  0.5124  0.5229
6.521e+09  0.2555  0.9466  0.03477  0.0291  0.02278  -0.01203  0.6694  0.3655
6.522e+09  0.5486  0.7345  0.03932  0.02729  -0.06526  0.007372  0.7143  0.1395
6.524e+09  0.8052  0.4902  -0.02438  -0.01487  -0.07022  0.0354  0.7088  -0.1347
6.525e+09  0.9041  0.2186  -0.00587  -0.03555  0.01593  0.01773  0.5993  -0.3583
6.526e+09  1.024  -0.1307  -0.01773  0.03141  0.02333  0.002123  0.4591  -0.5591
6.528e+09  0.7882  -0.4133  0.01467  0.009027  0.004671  0.02424  0.1624  -0.6591
6.529e+09  0.6373  -0.6985  0.01437  -0.0003342  -0.03243  0.04549  -0.03255  -0.6861
6.53e+09  0.3508  -0.9076  0.005718  0.00633  0.01315  -0.0004837  -0.2799  -0.6287
6.531e+09  0.02478  -0.9819  -0.007857  0.007033  -0.01399  -0.04921  -0.4705  -0.4845
6.532e+09  -0.296  -0.8979  0.03686  0.02443  -0.008195  0.005993  -0.6193  -0.3257
6.534e+09  -0.5727  -0.7542  9.708e-05  -0.01929  -0.008605  -0.001991  -0.6411  -0.08517
6.535e+09  -0.7884  -0.5056  0.01235  -0.00625  0.01368  -0.02201  -0.6326  0.07161
6.536e+09  -0.9551  -0.1687  -0.006819  0.0146  0.04457  -0.02407  -0.555  0.3438
6.538e+09  -0.9521  0.1797  -0.004123  -0.00559  0.0278  -0.02613  -0.4669  0.4903
6.539e+09  -0.8106  0.4355  -0.04646  0.0004403  0.00548  0.02702  -0.2885  0.6113
6.54e+09  -0.5918  0.7267  -0.01323  0.01442  -0.02613  -0.01728  -0.04933  0.6898
6.541e+09  -0.335  0.9167  0.02296  0.004191  0.003313  0.1022  0.1951  0.67
6.542e+09  -0.02107  0.9512  0.01202  0.03661  -0.001548  0.017  0.4241  0.5883
6.544e+09  0.3881  0.9183  0.02294  0.02933  -0.02165  0.06647  0.589  0.3909
6.545e+09  0.6237  0.7669  0.03825  -0.03123  0.06175  -0.01367  0.7114  0.1948
6.546e+09  0.8862  0.4617  0.04927  -0.003109  0.01766  0.01174  0.7573  -0.08608
6.548e+09  0.967  0.1176  0.0004881  -0.005583  -0.007105  0.01074  0.6343  -0.3062
6.549e+09  0.9723  -0.2815  0.01019  0.005028  -0.01336  -0.01856  0.5051  -0.5474
6.55e+09  0.8195  -0.5327  0.004966  -0.01026  0.03071  -0.02873  0.2734  -0.6853
