# Hz S RI R 50
6.25e+09  0.1131  0.8788  -0.002253  -0.01098  -0.03036  0.009806  0.1947  0.4757
6.251e+09  0.3689  0.7531  -0.01363  0.005232  -0.03289  -0.01601  0.3967  0.3808
6.252e+09  0.5949  0.5866  -0.03194  -0.003711  0.01053  -0.02935  0.5225  0.2161
6.254e+09  0.8298  0.3164  -0.007111  -0.002999  -0.02843  0.02433  0.5705  0.02733
6.255e+09  0.8585  -0.06197  0.01924  0.004079  0.00286  0.00545  0.5931  -0.2216
6.256e+09  0.7437  -0.2899  0.02549  -0.0315  -0.1189  0.02297  0.451  -0.4591
6.258e+09  0.6463  -0.5384  -0.01645  0.003753  -0.01751  -0.03602  0.2709  -0.6121
6.259e+09  0.4674  -0.6947  0.0171  -0.02227  0.01183  -0.003523  0.06426  -0.6669
6.26e+09  0.1813  -0.8227  0.01215  -0.01902  -0.01165  0.004977  -0.2029  -0.6662
6.261e+09  -0.1825  -0.855  0.01944  0.008635  0.01085  0.02272  -0.4344  -0.5293
6.262e+09  -0.4437  -0.6767  -0.01027  0.01589  -0.01499  -0.04799  -0.6341  -0.3411
6.264e+09  -0.6519  -0.5684  -0.01083  0.03201  -0.009565  -0.08531  -0.7192  -0.093
6.265e+09  -0.803  -0.3236  0.03017  -0.003129  -0.02567  0.03194  -0.6938  0.1658
6.266e+09  -0.834  -0.00952  0.01046  -0.01281  0.03209  -0.0525  -0.6278  0.3792
6.268e+09  -0.7997  0.3455  -0.0349  0.009836  0.04286  -0.01014  -0.4127  0.6061
6.269e+09  -0.5859  0.5909  -0.02864  -0.02066  0.02844  0.003439  -0.2039  0.7067
6.27e+09  -0.3423  0.7567  0.01734  -0.001422  0.007409  -0.0501  0.03662  0.7032
6.271e+09  -0.0977  0.911  0.02409  -0.003582  0.02746  -0.003945  0.339  0.6563
6.272e+09  0.2254  0.829  0.0299  0.001082  0.007395  0.01556  0.5018  0.5318
6.274e+09  0.436  0.6715  -0.005857  0.01141  0.05193  0.0241  0.6853  0.2662
6.275e+09  0.7374  0.4797  -0.0009851  0.02159  0.005479  -0.01229  0.7617  0.04714
6.276e+09  0.8123  0.2398  0.00323  -0.005854  -0.06376  -0.01199  0.6955  -0.2229
6.278e+09  0.7986  -0.09197  -0.02504  -0.01407  0.05369  0.07225  0.6322  -0.4351
6.279e+09  0.7302  -0.3942  -0.00159  -0.01341  -0.01094  -0.04441  0.4377  -0.6688
6.28e+09  0.6149  -0.6375  0.01308  0.01597  -0.04963  -0.002522  0.1587  -0.7308
6.281e+09  0.3218  -0.7177  0.01487  0.03725  0.05083  0.05482  -0.09734  -0.7648
6.282e+09  0.04492  -0.8194  -0.008407  -0.001544  0.0008659  0.04021  -0.3796  -0.6697
6.284e+09  -0.2548  -0.7791  0.008002  -0.001067  -0.02387  0.03032  -0.6018  -0.512
6.285e+09  -0.5336  -0.6796  0.007896  -0.000787  0.01829  0.00945  -0.7313  -0.2943
6.286e+09  -0.7111  -0.4504  -0.01387  0.02847  0.004884  -0.01548  -0.7526  -0.02829
6.288e+09  -0.7615  -0.1732  -0.0166  0.00811  0.03496  -0.01699  -0.7452  0.2591
6.289e+09  -0.8481  0.0864  0.02495  0.03111  -0.0144  -0.01752  -0.6342  0.4877
6.29e+09  -0.7122  0.4187  0.02092  0.01467  -0.05876  0.0302  -0.4109  0.6964
6.291e+09  -0.5557  0.6717  -0.03655  -0.007912  0.002142  -0.004747  -0.1358  0.7526
6.292e+09  -0.2882  0.801  -0.0104  0.003848  0.003666  0.009212  0.111  0.7885
6.294e+09  0.02082  0.8767  -0.009276  -0.00949  -0.005119  0.04011  0.3896  0.7075
6.295e+09  0.2483  0.8048  0.008778  -0.01297  -0.03179  -0.01891  0.6322  0.5352
6.296e+09  0.5352  0.6622  -0.004861  0.02092  -0.00254  -0.006224  0.7576  0.2765
6.298e+09  0.6654  0.3955  0.0207  -0.005798  0.0264  0.02462  0.8248  -0.01021
6.299e+09  0.7952  0.08102  -0.01916  0.008403  -0.02822  0.03202  0.798  -0.2847
6.3e+09  0.8168  -0.1073  -0.02049  0.0006543  -0.001297  -0.01434  0.6428  -0.5219
6.301e+09  0.7194  -0.4296  0.00819  0.004118  -0.001031  -0.003206  0.448  -0.7187
6.302e+09  0.4997  -0.6282  -0.007871  0.01  0.03614  0.01698  0.1634  -0.8174
6.304e+09  0.2509  -0.7851  -0.01479  0.03774  -0.003973  0.06602  -0.09982  -0.8336
6.305e+09  -0.001096  -0.8438  -0.006216  0.01682  -0.02335  -0.02158  -0.4193  -0.7186
6.306e+09  -0.3243  -0.7725  -0.01267  -0.02184  -0.03673  0.002462  -0.642  -0.5238
6.308e+09  -0.5685  -0.5527  0.003291  0.00287  -0.03003  0.004695  -0.7881  -0.3
6.309e+09  -0.7791  -0.3495  0.04487  -0.008154  0.02243  -0.01406  -0.8422  -0.01918
6.31e+09  -0.8169  -0.08943  0.006673  -0.02629  -0.001496  0.02175  -0.8385  0.2811
6.311e+09  -0.7588  0.2201  0.02121  -0.0004813  0.008034  0.01322  -0.6453  0.5449
6.312e+09  -0.7226  0.4926  -0.0076  -0.02054  -0.009765  0.06605  -0.4557  0.7239
6.314e+09  -0.4433  0.7424  0.0157  -0.001044  -0.0328  0.008105  -0.1605  0.8451
6.315e+09  -0.1427  0.7995  0.008833  -0.006107  -0.005397  0.01513  0.1726  0.846
6.316e+09  0.1039  0.8089  -0.02291  0.003603  0.01537  -0.02705  0.4273  0.7616
6.318e+09  0.3885  0.7653  -0.007677  0.005984  0.04348  0.00434  0.6803  0.5809
6.319e+09  0.6133  0.5552  -0.001149  -0.004086  0.01877  0.06463  0.8162  0.314
6.32e+09  0.8216  0.2967  0.008917  0.008471  0.01762  -0.02275  0.9144  0.009038
6.321e+09  0.8687  0.01207  -0.01327  0.006568  0.002525  -0.0365  0.8357  -0.2717
6.322e+09  0.7846  -0.2867  0.02675  -0.003066  -0.05018  -0.00882  0.7082  -0.5769
6.324e+09  0.7212  -0.567  -0.003146  -0.01081  -0.01426  0.0243  0.4843  -0.7757
6.325e+09  0.4052  -0.7864  0.007816  0.01167  0.003702  -0.01891  0.2013  -0.8725
6.326e+09  0.1351  -0.8145  0.004577  -0.01792  0.01738  -0.008939  -0.1549  -0.8446
6.328e+09  -0.1847  -0.8189  -0.01057  -0.007607  -0.01441  -0.02396  -0.3929  -0.8033
6.329e+09  -0.4608  -0.7699  0.01693  0.004348  0.01298  -0.009386  -0.6893  -0.5988
6.33e+09  -0.6746  -0.5155  0.01025  -0.02793  -0.02878  0.007871  -0.8467  -0.3094
6.331e+09  -0.7634  -0.3068  0.0216  -0.01954  0.05998  -0.002581  -0.9143  -0.02558
6.332e+09  -0.8648  0.08541  0.03567  0.0208  -0.01521  -0.01003  -0.8741  0.2713
6.334e+09  -0.8132  0.3775  0.004208  -0.01087  -0.01764  -0.01131  -0.7349  0.5679
6.335e+09  -0.6605  0.6447  0.02782  -0.002856  -0.03663  -0.01104  -0.4709  0.7819
6.336e+09  -0.4131  0.7938  0.01917  -0.03421  -0.01493  -0.00573  -0.189  0.9073
6.338e+09  -0.09829  0.9018  -0.02977  -0.002684  -0.03621  -0.04882  0.1168  0.9014
6.339e+09  0.2304  0.7939  -0.004812  0.004332  -0.03948  0.02185  0.4026  0.8135
6.34e+09  0.5193  0.6959  0.04495  -0.04897  -0.009742  0.04179  0.667  0.5991
6.341e+09  0.746  0.5017  0.005814  0.01565  -0.009281  0.03111  0.8316  0.3461
6.342e+09  0.8643  0.1741  0.002831  0.04041  -0.02761  0.01091  0.9044  0.06001
6.344e+09  0.8788  -0.09784  -0.01025  -0.02457  -0.01637  0.02547  0.898  -0.2598
6.345e+09  0.7887  -0.4321  0.003208  -0.009206  -0.03652  0.04548  0.73  -0.5576
6.346e+09  0.5716  -0.6355  0.01686  -0.00443  -0.03468  -0.01547  0.531  -0.8101
6.348e+09  0.2748  -0.8115  0.003523  -0.02053  0.01754  0.01102  0.2205  -0.9029
6.349e+09  0.01353  -0.9005  0.009723  -0.01015  -0.02748  0.04621  -0.07955  -0.93
6.35e+09  -0.2932  -0.8514  0.01566  0.0214  0.001881  0.006105  -0.4545  -0.843
6.351e+09  -0.5455  -0.6747  0.02113  -0.001105  0.002741  -0.002041  -0.6813  -0.6873
6.352e+09  -0.7764  -0.4182  0.01578  -0.0193  0.00702  -0.01556  -0.8713  -0.4297
6.354e+09  -0.8723  -0.1272  -0.01194  0.004252  0.01147  -0.06384  -0.9265  -0.1085
6.355e+09  -0.8265  0.1219  0.01388  -0.00371  -0.009207  0.0237  -0.8946  0.2397
6.356e+09  -0.7397  0.4323  0.0207  0.002755  -0.003439  -0.008722  -0.775  0.5294
6.358e+09  -0.5624  0.6853  0.009489  -0.04268  0.002159  0.008443  -0.4663  0.7658
6.359e+09  -0.2824  0.8506  -0.005784  0.0224  -0.03336  0.02159  -0.2152  0.8858
6.36e+09  0.0867  0.8345  0.02325  -0.007572  0.01674  0.02942  0.06272  0.9528
6.361e+09  0.3451  0.8183  0.008262  0.01756  0.01803  0.004604  0.4242  0.8174
6.362e+09  0.6436  0.659  0.02608  0.001594  0.02531  -0.01241  0.6573  0.6559
6.364e+09  0.7734  0.367  0.01093  -0.004245  0.04392  -0.01547  0.8668  0.3874
6.365e+09  0.9388  0.06782  -0.02171  -0.01727  0.02537  -0.03614  0.9435  0.09664
6.366e+09  0.8734  -0.225  0.002245  -0.01015  0.06101  -0.01143  0.8886  -0.2731
6.368e+09  0.7181  -0.526  -0.009776  -0.001216  0.04876  -0.03413  0.768  -0.5212
6.369e+09  0.5462  -0.7701  -0.03713  0.01727  0.01534  0.06138  0.5286  -0.7541
6.37e+09  0.2085  -0.8948  -0.002917  -0.007103  -0.03512  0.006913  0.2064  -0.8966
6.371e+09  -0.09725  -0.9172  0.02216  -0.01164  -0.02657  0.004094  -0.035  -0.9772
6.372e+09  -0.442  -0.7878  0.009022  -0.01323  0.02237  0.04949  -0.3938  -0.8686
6.374e+09  -0.6663  -0.5886  0.002773  0.03701  0.01369  -0.006771  -0.6814  -0.6987
6.375e+09  -0.7468  -0.3392  0.03756  0.0154  -0.0258  0.00655  -0.8603  -0.4168
6.376e+09  -0.9233  0.006738  0.0434  0.02331  0.001183  0.04219  -0.9708  -0.09643
6.378e+09  -0.798  0.2563  -0.03556  0.008591  0.008626  -0.01043  -0.8761  0.2142
6.379e+09  -0.692  0.5547  -0.01652  -0.03904  -0.0003037  -0.005024  -0.8087  0.498
6.38e+09  -0.4646  0.7674  0.02925  0.005865  -0.006082  -0.01712  -0.5933  0.7534
6.381e+09  -0.1457  0.901  -0.02203  0.009727  0.006922  0.03132  -0.2576  0.8904
6.382e+09  0.122  0.8487  0.01082  -0.04445  -0.003671  -0.002271  0.04408  0.9394
6.384e+09  0.4576  0.7926  0.02564  0.007611  -0.01318  -0.03437  0.394  0.9079
6.385e+09  0.6856  0.5601  0.01922  0.01369  0.03574  -0.01151  0.6742  0.6633
6.386e+09  0.8149  0.3  0.01088  0.002098  -0.001147  -0.006106  0.8369  0.4186
6.388e+09  0.9449  0.0207  -0.01509  0.0475  -0.02534  0.04437  0.9474  0.07779
6.389e+09  0.8235  -0.3042  0.01993  -0.003485  -0.02485  -0.02869  0.8716  -0.2226
6.39e+09  0.6582  -0.5763  0.03197  -0.0006818  -0.02739  -0.02185  0.7444  -0.4901
6.391e+09  0.4697  -0.7386  -0.02436  -0.01498  -0.01127  -0.0002386  0.5924  -0.7733
6.392e+09  0.1383  -0.8816  0.03784  -0.0008816  -0.06758  -0.009723  0.2884  -0.8733
6.394e+09  -0.2112  -0.8503  -0.005087  -0.03164  -0.01176  0.02176  -0.01768  -0.8781
6.395e+09  -0.4669  -0.7599  -0.0132  0.02767  0.02979  -0.02451  -0.3645  -0.8247
6.396e+09  -0.682  -0.5655  -0.02416  0.002862  0.008237  -0.04505  -0.5725  -0.6925
6.398e+09  -0.8186  -0.2538  0.0006222  0.007686  -0.02343  -0.05148  -0.7915  -0.4053
6.399e+09  -0.8712  0.04831  0.02678  0.01325  -0.01024  -0.01199  -0.8915  -0.1421
6.4e+09  -0.8329  0.3431  -0.01537  0.004539  -0.001534  0.01048  -0.9196  0.1513
6.401e+09  -0.6393  0.5825  0.0375  -0.01205  0.02243  -0.02322  -0.7874  0.4648
6.402e+09  -0.4079  0.8367  0.008119  0.054  0.01266  -0.007119  -0.5459  0.7422
6.404e+09  -0.1268  0.85  -0.03088  0.01924  0.04368  -0.05055  -0.2939  0.9074
6.405e+09  0.1958  0.8283  -0.001453  0.01233  -0.04101  0.001833  0.02306  0.9083
6.406e+09  0.459  0.7708  0.01806  -0.03765  -0.01603  -0.009237  0.2989  0.9029
6.408e+09  0.686  0.5128  0.02255  0.02275  0.0001644  0.05025  0.5916  0.6802
6.409e+09  0.8276  0.2403  -0.01166  0.009469  -0.02931  0.03656  0.7711  0.4762
6.41e+09  0.878  -0.06532  -0.05472  0.03311  0.004126  -0.01344  0.8974  0.187
6.411e+09  0.8023  -0.3752  0.01975  0.003828  0.0166  0.0007601  0.9015  -0.1469
6.412e+09  0.5943  -0.6182  -0.02648  -0.05738  -0.01771  0.005639  0.8109  -0.4598
6.414e+09  0.3198  -0.7552  0.02661  0.02103  0.01365  -0.01314  0.5728  -0.6949
6.415e+09  0.08394  -0.9208  -0.01246  -0.0121  -0.02698  -0.01568  0.3428  -0.8476
6.416e+09  -0.1735  -0.8666  0.04392  -0.01468  0.01609  -0.03576  0.04166  -0.9171
6.418e+09  -0.503  -0.7276  0.01158  -0.02038  -0.03423  0.02298  -0.3175  -0.8272
6.419e+09  -0.7247  -0.495  -0.007797  0.05199  -0.01454  -0.0322  -0.5694  -0.7074
6.42e+09  -0.8473  -0.2425  -0.007454  0.0517  -0.01945  0.03482  -0.7426  -0.4924
6.421e+09  -0.8666  0.1029  -0.02384  -0.009984  0.02204  -0.009945  -0.9005  -0.2303
6.422e+09  -0.8378  0.4535  0.01906  0.001684  -0.008341  0.02107  -0.853  0.1375
6.424e+09  -0.5929  0.6673  -0.005581  -8.629e-05  -0.0161  -0.0239  -0.7774  0.3937
6.425e+09  -0.3186  0.8527  0.0191  0.01522  0.006573  0.01529  -0.5904  0.6066
6.426e+09  -0.04195  0.8642  -0.004431  0.03338  -0.01036  0.03285  -0.3566  0.8013
6.428e+09  0.3006  0.8707  -0.01696  -0.02395  0.001447  -0.03569  -0.0514  0.9116
6.429e+09  0.5631  0.6872  -0.01894  -0.01966  -0.02476  0.01002  0.2162  0.8583
6.43e+09  0.7464  0.4232  -0.002442  0.00334  -0.01226  -0.0359  0.5136  0.6781
6.431e+09  0.8788  0.13  0.01225  0.03578  0.01434  -0.05039  0.7073  0.4923
6.432e+09  0.9182  -0.13  -0.005404  0.02045  0.0267  0.0006596  0.8484  0.2082
6.434e+09  0.8279  -0.4209  -0.005339  0.02023  -0.00919  0.00991  0.8221  -0.09131
6.435e+09  0.5459  -0.6764  0.0009175  0.01792  0.01872  -0.01159  0.7897  -0.3659
6.436e+09  0.3207  -0.7882  0.005038  -0.01128  0.0019  0.05303  0.6176  -0.5849
6.438e+09  -0.03396  -0.882  0.05744  -0.02876  -0.01898  -0.01624  0.3693  -0.7839
6.439e+09  -0.3667  -0.8457  0.01521  -0.01815  -0.002709  -0.001995  0.03734  -0.8977
6.44e+09  -0.6517  -0.6705  0.01958  -0.05057  -0.01363  -0.0216  -0.1759  -0.8464
6.441e+09  -0.8028  -0.41  -0.0003015  0.007292  0.004341  0.005956  -0.5194  -0.6935
6.442e+09  -0.8654  -0.1368  0.03153  0.03513  0.0297  0.05486  -0.694  -0.486
6.444e+09  -0.8728  0.2872  0.03854  0.00109  -0.04257  0.04123  -0.8242  -0.1911
6.445e+09  -0.7528  0.5172  0.007913  0.005999  -0.03582  -0.03468  -0.8264  0.09298
6.446e+09  -0.5273  0.7221  0.04047  -0.006455  0.02674  0.009411  -0.7756  0.3612
6.448e+09  -0.2185  0.9118  -0.02113  0.004699  0.0008364  0.03254  -0.5941  0.6151
6.449e+09  0.04571  0.9298  -0.0127  -0.02811  -0.01655  0.008571  -0.3421  0.7166
6.45e+09  0.3807  0.8534  0.02651  -0.02935  -0.03978  -0.02126  -0.06527  0.8246
6.451e+09  0.6716  0.6342  -0.0482  -0.006133  -0.002584  0.01846  0.206  0.8056
6.452e+09  0.8689  0.3712  -0.00179  -0.01467  0.01787  0.01755  0.5044  0.6674
6.454e+09  0.9378  0.07448  0.01409  0.006031  -0.00446  -0.0177  0.6757  0.457
6.455e+09  0.864  -0.3011  -0.0001435  0.01727  -0.01091  0.02066  0.7587  0.1724
6.456e+09  0.7098  -0.5891  0.01085  0.03897  0.005329  0.004781  0.7842  -0.06399
6.458e+09  0.5411  -0.7905  0.01555  -0.07147  0.01457  0.01129  0.7208  -0.3572
6.459e+09  0.172  -0.9202  -0.001423  -0.001555  0.01771  0.01061  0.5789  -0.6217
6.46e+09  -0.176  -0.9508  -0.03427  -0.007872  -0.00846  -0.0673  0.3259  -0.7076
6.461e+09  -0.4244  -0.7445  0.03347  0.02142  0.03391  -0.02069  0.1115  -0.8238
6.462e+09  -0.7207  -0.5725  0.02839  -0.006583  -0.01796  -0.06947  -0.1992  -0.8168
6.464e+09  -0.8775  -0.2944  -0.0009457  0.02625  0.02668  0.02043  -0.4052  -0.647
6.465e+09  -0.9834  0.03536  0.0125  -0.004923  0.03374  0.006575  -0.6703  -0.4915
6.466e+09  -0.8105  0.3687  0.008202  -0.004744  -0.02552  0.004148  -0.8302  -0.1911
6.468e+09  -0.6476  0.6653  0.03849  0.006107  -0.01925  0.04996  -0.7625  0.09379
6.469e+09  -0.3594  0.8177  -0.005704  0.03433  -0.003606  0.02768  -0.7101  0.3082
6.47e+09  -0.05766  0.9686  -0.02417  -0.01547  0.01161  -0.01996  -0.5335  0.592
6.471e+09  0.302  0.8922  -0.01888  0.0309  0.01554  -0.008263  -0.3329  0.7058
6.472e+09  0.5391  0.7743  -0.001513  0.04895  -0.01207  -0.009866  -0.04064  0.7802
6.474e+09  0.8302  0.5003  -0.0184  -0.01042  0.013  -0.01142  0.1855  0.7749
6.475e+09  0.8872  0.2206  0.007965  -0.0185  0.04639  -0.02157  0.4356  0.6588
6.476e+09  0.9519  -0.1263  0.01932  -0.02351  -0.02498  -0.04394  0.658  0.4686
6.478e+09  0.8051  -0.4276  0.005359  -0.0377  0.007331  0.02553  0.7675  0.1511
6.479e+09  0.638  -0.7636  0.0006317  0.006187  0.04787  0.03495  0.806  -0.06812
6.48e+09  0.3262  -0.896  -0.01499  -0.01115  -0.01274  -0.01695  0.7078  -0.3018
6.481e+09  -0.06591  -0.9229  -0.05638  0.04406  -0.06538  0.01763  0.5738  -0.5383
6.482e+09  -0.3405  -0.7955  0.01758  -0.01861  -0.03328  0.009376  0.3179  -0.6928
6.484e+09  -0.6814  -0.62  -0.005345  -0.01873  0.02147  -0.0077  0.06056  -0.7218
6.485e+09  -0.8543  -0.3432  0.03493  -0.05003  0.04841  0.04533  -0.244  -0.7595
6.486e+09  -0.9819  -0.03921  0.04331  -0.03834  -0.02117  -0.03799  -0.471  -0.6338
6.488e+09  -0.8706  0.2796  0.01106  0.02492  0.0573  0.03762  -0.6561  -0.4373
6.489e+09  -0.7145  0.5497  0.006437  0.001997  0.003533  0.01647  -0.73  -0.1933
6.49e+09  -0.4447  0.8047  -0.01492  0.02942  0.03846  -0.0205  -0.7641  0.05763
6.491e+09  -0.1813  0.9278  -0.01633  0.03338  0.01847  -0.05641  -0.6846  0.3551
6.492e+09  0.1253  0.9102  0.001841  -0.02931  -0.02048  -0.03623  -0.4971  0.544
6.494e+09  0.5254  0.7608  -0.01378  0.02968  -0.01767  -0.007079  -0.2681  0.7117
6.495e+09  0.6527  0.5511  -0.01269  -0.02597  -0.0426  0.005023  -0.07756  0.7886
6.496e+09  0.8738  0.2899  -0.009107  -0.02039  0.0646  0.002313  0.2212  0.7396
6.498e+09  0.9973  0.000666  0.001696  -0.007155  0.03463  0.02515  0.4705  0.6159
6.499e+09  0.8048  -0.35  0.05494  -0.006932  -0.008307  0.003482  0.6486  0.4288
6.5e+09  0.6704  -0.6521  -0.01254  0.01501  0.02927  0.017  0.7905  0.1621
6.501e+09  0.3555  -0.8437  0.01525  -0.03603  -0.02588  0.03924  0.7789  -0.08008
6.502e+09  0.08541  -0.9486  -0.00816  0.001857  -0.006102  0.005384  0.6559  -0.3578
6.504e+09  -0.2898  -0.8479  0.03645  0.02284  -0.005511  -0.007953  0.4917  -0.5505
6.505e+09  -0.5977  -0.6857  -0.03221  0.00962  0.04513  -0.0341  0.273  -0.7001
6.506e+09  -0.7399  -0.4549  0.0382  0.01765  0.03074  0.0118  0.0162  -0.7722
6.508e+09  -0.8428  -0.1528  -0.0173  -0.02675  -0.02054  -0.009321  -0.2345  -0.7443
6.509e+09  -0.8867  0.1404  -0.007653  -0.02067  -0.02898  -0.005174  -0.4472  -0.5954
6.51e+09  -0.7185  0.4952  0.00309  0.004461  0.01581  0.01508  -0.6522  -0.3471
6.511e+09  -0.509  0.7439  0.018  0.03084  -0.0733  0.02229  -0.7318  -0.1407
6.512e+09  -0.2142  0.825  0.02873  0.03204  0.0332  -0.001512  -0.7516  0.1326
6.514e+09  0.0899  0.8743  0.01515  0.02948  0.06061  0.02039  -0.6686  0.3979
6.515e+09  0.4527  0.7712  0.02575  0.004073  0.02319  -0.008038  -0.4805  0.5605
6.516e+09  0.6428  0.5453  0.03498  -0.009607  0.005116  -0.01322  -0.251  0.7205
6.518e+09  0.8248  0.2952  -0.0101  -0.006545  -0.008905  0.02554  -0.005729  0.7211
6.519e+09  0.8502  -0.0166  0.00759  0.01215  0.02719  -0.02494  0.2714  0.655
6.52e+09  0.8168  -0.2704  -0.03797  -0.004633  -0.01536  0.01391  0.4825  0.5402
6.521e+09  0.6618  -0.5321  -0.04742  0.0142  -0.03205  -0.03237  0.6338  0.3661
6.522e+09  0.3865  -0.756  -0.04784  -0.02967  0.02503  0.02446  0.7169  0.1043
6.524e+09  0.1046  -0.8861  -0.006273  -0.02775  -0.04457  0.004932  0.6898  -0.1631
6.525e+09  -0.2291  -0.8273  -0.02726  0.01919  0.0255  0.005519  0.6093  -0.3782
6.526e+09  -0.5  -0.7302  -0.02061  -0.009396  0.0461  0.03457  0.4024  -0.5898
6.528e+09  -0.7354  -0.4659  -0.002928  -0.02036  0.02224  0.007956  0.1958  -0.6924
6.529e+09  -0.8019  -0.1366  0.008728  -0.04273  0.02062  -0.01057  -0.04032  -0.671
6.53e+09  -0.8512  0.1179  -0.01747  0.006336  -0.01053  0.02224  -0.3079  -0.6311
6.531e+09  -0.7032  0.4443  0.02715  0.01326  0.007775  -0.01731  -0.4815  -0.5043
6.532e+09  -0.5445  0.6214  0.006375  0.01388  0.004569  0.01616  -0.5844  -0.2952
6.534e+09  -0.3181  0.7733  0.00208  0.02552  0.02117  -0.04557  -0.6287  -0.06786
6.535e+09  0.06881  0.8364  0.02916  0.002963  0.03492  0.00253  -0.6369  0.1198
6.536e+09  0.3694  0.7102  -0.01188  -0.03155  -0.0007367  -0.007679  -0.5368  0.3177
6.538e+09  0.6049  0.5907  0.0224  0.01776  0.01848  -0.01918  -0.4394  0.4734
6.539e+09  0.7417  0.374  -0.004547  -0.008012  -0.00255  0.01294  -0.2722  0.6164
6.54e+09  0.78  0.02572  -0.02682  -0.0182  0.01738  0.02588  -0.04333  0.6337
6.541e+09  0.7406  -0.1809  -0.005604  -0.007794  -0.04146  -0.02437  0.2133  0.6483
6.542e+09  0.6285  -0.5037  0.008374  -0.01745  -0.02723  0.0292  0.454  0.5835
6.544e+09  0.405  -0.6547  -0.03734  0.03109  -0.001325  0.03602  0.6078  0.388
6.545e+09  0.1055  -0.7782  -0.03176  -0.003831  0.03407  0.003733  0.6855  0.1706
6.546e+09  -0.143  -0.7578  0.01148  -0.006022  -0.1065  -0.05252  0.7591  -0.07662
6.548e+09  -0.3993  -0.6534  0.02999  0.01526  0.04158  -0.02141  0.6355  -0.2974
6.549e+09  -0.6398  -0.5044  -0.003693  -0.003282  -0.02575  -0.02784  0.4971  -0.5479
6.55e+09  -0.781  -0.2327  0.02414  -0.02922  -0.005261  -0.0575  0.2462  -0.678
