# Hz S RI R 50
6.25e+09  -0.4043  0.7509  0.02173  0.004028  -0.0437  0.07607  0.1486  0.466
6.251e+09  -0.06603  0.8371  0.002604  -0.001954  0.006029  0.04726  0.3647  0.3716
6.252e+09  0.1721  0.8653  0.01643  0.02196  0.0003823  -0.01027  0.5002  0.2301
6.254e+09  0.4905  0.6808  -0.01462  -0.0244  -0.002514  -0.006401  0.6079  0.01432
6.255e+09  0.6967  0.517  -0.02162  0.01303  0.0333  0.03515  0.6009  -0.2278
6.256e+09  0.8484  0.2536  0.007115  0.03291  0.01141  -0.01792  0.5109  -0.4325
6.258e+09  0.861  -0.07677  0.003732  -0.01245  0.04451  -0.03982  0.2816  -0.5883
6.259e+09  0.7853  -0.2772  0.02294  0.008318  -0.007765  0.005818  0.000125  -0.6747
6.26e+09  0.6504  -0.5611  0.01519  0.01857  0.02983  -0.06005  -0.2055  -0.6739
6.261e+09  0.371  -0.7492  -0.01691  0.01529  0.0008136  -0.01284  -0.4359  -0.5565
6.262e+09  0.103  -0.8108  -0.006187  -0.02686  0.03014  0.07994  -0.6058  -0.3418
6.264e+09  -0.2132  -0.8066  0.03579  0.02212  0.04032  -0.06058  -0.6999  -0.1071
6.265e+09  -0.49  -0.648  0.006485  -0.0413  0.0177  0.003183  -0.6874  0.1593
6.266e+09  -0.6392  -0.4879  -0.0009706  0.007458  0.001927  0.02048  -0.5635  0.3674
6.268e+09  -0.8023  -0.2219  0.009639  0.02237  -0.01057  -0.03438  -0.4381  0.6
6.269e+09  -0.8365  0.1037  0.02274  -0.005279  -0.00353  0.04772  -0.1637  0.7137
6.27e+09  -0.7238  0.3354  -0.009379  -0.01301  -0.04353  0.007117  0.05353  0.7358
6.271e+09  -0.5946  0.5717  -0.01475  -0.00346  0.03136  0.01843  0.302  0.6472
6.272e+09  -0.3697  0.7931  0.002446  0.007693  -0.02769  0.001851  0.4978  0.5101
6.274e+09  -0.08404  0.8542  -0.003929  -0.0347  -0.005291  0.01437  0.6776  0.3078
6.275e+09  0.2069  0.8164  0.002642  8.322e-05  0.004532  0.003409  0.7495  0.02892
6.276e+09  0.4865  0.6319  -0.0179  0.02143  -0.07566  -0.03975  0.723  -0.2345
6.278e+09  0.7106  0.4281  0.02709  -0.006025  0.0422  0.02065  0.6361  -0.447
6.279e+09  0.8043  0.2169  0.02276  -0.00445  -0.01602  0.01411  0.4108  -0.6784
6.28e+09  0.8377  -0.09341  -0.01184  -0.01459  -0.019  0.01014  0.1546  -0.7579
6.281e+09  0.7394  -0.3218  -0.008085  -0.008204  0.02336  0.01477  -0.1166  -0.7651
6.282e+09  0.5858  -0.6089  0.0176  -0.009257  -0.05008  0.01002  -0.3596  -0.6691
6.284e+09  0.344  -0.752  -0.01586  0.002025  -0.01147  -0.0002026  -0.6254  -0.5319
6.285e+09  0.03352  -0.804  -0.00706  0.007253  -0.01716  0.03525  -0.7  -0.2631
6.286e+09  -0.2211  -0.7678  -0.02284  -0.02696  -0.02337  -0.03456  -0.7726  -0.063
6.288e+09  -0.5033  -0.6404  0.01766  0.0007673  -0.02045  0.02295  -0.7499  0.2544
6.289e+09  -0.6941  -0.453  0.008007  -0.008542  -0.04097  0.01169  -0.6136  0.476
6.29e+09  -0.8128  -0.1106  0.006353  -0.00199  0.03211  0.00775  -0.414  0.665
6.291e+09  -0.7967  0.125  0.01455  0.03209  -0.02784  -0.02259  -0.1305  0.7901
6.292e+09  -0.7615  0.3812  -0.008607  0.005516  -0.02067  0.06256  0.1429  0.8101
6.294e+09  -0.53  0.5993  0.01597  -0.02808  -0.04592  -0.01593  0.3938  0.7217
6.295e+09  -0.2719  0.8199  -0.01489  0.01808  -0.01009  -0.03232  0.6161  0.5337
6.296e+09  -0.01897  0.8479  -0.008344  0.005352  -0.01978  0.06878  0.7511  0.2801
6.298e+09  0.2824  0.7792  -0.01954  -0.01233  0.0465  0.02066  0.8212  -0.004145
6.299e+09  0.5001  0.6569  -0.005774  -0.003235  0.04001  -0.01616  0.7786  -0.2683
6.3e+09  0.7187  0.4032  -0.02409  0.02659  -0.003281  -0.001534  0.6488  -0.5283
6.301e+09  0.793  0.1463  -0.0001254  0.01438  -0.01837  -0.02941  0.4485  -0.682
6.302e+09  0.8599  -0.1093  0.01866  -0.002222  0.03224  -0.01156  0.1728  -0.8154
6.304e+09  0.7071  -0.4519  -0.01566  -0.003659  0.03095  0.02021  -0.137  -0.8114
6.305e+09  0.5568  -0.6604  0.003767  -0.005299  -0.02314  -0.00144  -0.4263  -0.7572
6.306e+09  0.2147  -0.8261  -0.01387  0.02569  -0.03895  0.01766  -0.6806  -0.5804
6.308e+09  -0.01394  -0.872  0.01379  0.002273  -0.02588  -0.0185  -0.8158  -0.3042
6.309e+09  -0.287  -0.7361  -0.005383  0.004481  0.02994  -0.01159  -0.8384  -0.03305
6.31e+09  -0.5643  -0.652  0.004569  -0.03146  -0.01465  -0.008416  -0.8042  0.2893
6.311e+09  -0.7082  -0.4528  0.0239  -0.004885  -0.02209  0.00315  -0.6697  0.5687
6.312e+09  -0.8081  -0.161  0.0121  -0.01471  0.0087  0.01226  -0.4654  0.7254
6.314e+09  -0.8018  0.1654  -0.01278  0.01997  -0.02954  -0.003257  -0.137  0.8664
6.315e+09  -0.7478  0.4329  0.001078  -0.02751  0.01002  -0.01492  0.1349  0.8934
6.316e+09  -0.488  0.6616  0.002394  -0.01583  -0.01234  -0.01373  0.4102  0.7867
6.318e+09  -0.2412  0.7851  -0.04704  -0.007807  0.02061  -0.02608  0.656  0.5568
6.319e+09  0.05988  0.852  -0.01817  -0.01114  0.02032  -0.01709  0.8259  0.3344
6.32e+09  0.3467  0.7973  0.006192  0.002561  -0.0335  -0.0006816  0.89  0.02323
6.321e+09  0.6037  0.6334  0.01119  -0.00606  0.03071  -0.0181  0.8248  -0.2562
6.322e+09  0.7597  0.3955  -0.0008968  -0.03623  0.01552  0.001063  0.7051  -0.5441
6.324e+09  0.8889  0.0929  0.009914  -0.001145  -0.02045  0.01403  0.4706  -0.7589
6.325e+09  0.8282  -0.1804  -0.03985  0.006678  -0.0334  -0.01215  0.1731  -0.869
6.326e+09  0.686  -0.5503  -0.003961  -0.005543  0.01421  -0.02708  -0.127  -0.8957
6.328e+09  0.5131  -0.726  -0.002686  -0.001953  0.01201  0.05596  -0.4273  -0.791
6.329e+09  0.2236  -0.8336  0.004867  -0.009528  0.01599  0.003429  -0.6471  -0.6079
6.33e+09  -0.1363  -0.8708  -0.005803  0.01367  -0.003711  0.02774  -0.8296  -0.3402
6.331e+09  -0.4045  -0.7473  -0.0006571  0.01314  -0.02048  0.01851  -0.9194  -0.02642
6.332e+09  -0.6467  -0.5451  -0.01116  -0.002308  0.06546  0.02116  -0.8658  0.2771
6.334e+09  -0.793  -0.3574  -0.0007725  0.01425  0.01055  0.01562  -0.7233  0.5707
6.335e+09  -0.9077  -0.001162  -0.01394  0.0002794  -0.02516  -0.01331  -0.5021  0.7476
6.336e+09  -0.8362  0.2884  0.01566  0.01677  0.01061  -0.005277  -0.1892  0.9037
6.338e+09  -0.6216  0.5176  -0.01791  -0.01756  0.002217  -0.01182  0.1399  0.9038
6.339e+09  -0.4426  0.8089  -0.006637  -0.01206  0.001091  0.01832  0.429  0.8154
6.34e+09  -0.156  0.9068  -0.02392  0.01323  0.03656  0.04376  0.6611  0.6477
6.341e+09  0.128  0.8663  -0.02238  0.03626  -0.008142  0.02334  0.8416  0.3739
6.342e+09  0.4384  0.6961  -0.01356  -0.02572  -0.03191  -0.04133  0.9201  0.07857
6.344e+09  0.6435  0.5418  0.01598  0.0377  0.0276  -0.007945  0.8525  -0.2704
6.345e+09  0.865  0.2807  0.01091  -0.01634  0.01334  0.02044  0.7298  -0.5711
6.346e+09  0.8912  -0.01302  0.05315  0.009821  -0.02566  0.01626  0.4866  -0.7804
6.348e+09  0.8325  -0.3343  0.02109  0.03802  0.02115  0.0003054  0.1959  -0.9193
6.349e+09  0.6426  -0.5422  0.003517  -0.002245  -0.008518  -0.01466  -0.1296  -0.9069
6.35e+09  0.4503  -0.7776  0.02462  -0.0337  0.01304  -0.01931  -0.4619  -0.8303
6.351e+09  0.1132  -0.8963  0.0389  -0.007808  0.02395  -0.05787  -0.6643  -0.6501
6.352e+09  -0.2422  -0.8675  0.02865  -0.01242  0.02067  -0.004584  -0.859  -0.3544
6.354e+09  -0.4972  -0.7102  0.008016  -0.01543  -0.01674  -0.001286  -0.9445  -0.05039
6.355e+09  -0.7348  -0.513  -0.01599  -0.02341  0.0445  0.008904  -0.9316  0.2641
6.356e+09  -0.8894  -0.2333  -0.008617  0.002555  0.03175  0.03495  -0.7696  0.5572
6.358e+09  -0.8736  0.07491  0.02326  -1.085e-05  -0.03447  -0.006638  -0.5419  0.794
6.359e+09  -0.7691  0.4055  0.02167  -0.001539  0.0363  0.03379  -0.2448  0.8942
6.36e+09  -0.5718  0.6812  0.001766  2.282e-05  -0.008908  0.02925  0.06752  0.9247
6.361e+09  -0.3346  0.8778  -0.008286  0.02394  0.02758  0.02379  0.4033  0.84
6.362e+09  -0.06353  0.8691  -0.003507  0.01839  0.04708  -0.01651  0.6792  0.6509
6.364e+09  0.268  0.8969  -0.01044  -0.02741  0.04618  -0.01824  0.8749  0.4217
6.365e+09  0.5401  0.7473  0.002506  0.006917  0.0139  -0.03423  0.9627  0.07683
6.366e+09  0.746  0.4444  0.03278  0.01414  -0.01969  -0.04597  0.8658  -0.2537
6.368e+09  0.85  0.2419  0.003732  0.02008  -0.03498  0.07618  0.7564  -0.4938
6.369e+09  0.8751  -0.1229  -0.005805  -0.007253  -0.02486  -0.0196  0.5726  -0.7771
6.37e+09  0.7812  -0.4285  -0.01854  0.001851  0.02634  0.007371  0.1506  -0.9446
6.371e+09  0.581  -0.6865  -0.02933  0.01522  0.02531  0.02411  -0.05275  -0.9446
6.372e+09  0.2542  -0.841  -0.03153  -0.01526  -0.01445  -0.0008878  -0.3967  -0.841
6.374e+09  -0.00316  -0.8778  -0.01769  0.01021  0.03654  0.02633  -0.6637  -0.6731
6.375e+09  -0.2825  -0.8523  -0.02564  -0.00325  -0.03936  -0.01928  -0.8192  -0.404
6.376e+09  -0.5619  -0.6671  0.01841  -0.02115  0.001789  0.05087  -0.9256  -0.1348
6.378e+09  -0.7332  -0.4499  0.01992  -0.002631  0.02005  -0.02872  -0.9025  0.1988
6.379e+09  -0.8931  -0.06568  0.02541  0.01999  0.03555  -0.005144  -0.7721  0.5233
6.38e+09  -0.8402  0.1821  0.02141  -0.01591  0.009576  0.0541  -0.5805  0.7423
6.381e+09  -0.7547  0.4694  0.005418  0.0171  -0.02914  -0.01636  -0.2862  0.8982
6.382e+09  -0.5673  0.7399  -0.006165  0.007301  -0.0001611  0.01107  0.06685  0.9548
6.384e+09  -0.2836  0.8446  -0.0184  0.006685  0.03291  0.03744  0.3968  0.8442
6.385e+09  0.0458  0.9357  0.0006864  0.04335  0.04287  0.02094  0.6363  0.7005
6.386e+09  0.3636  0.8018  -0.04723  0.006873  0.006728  0.01685  0.8492  0.4067
6.388e+09  0.618  0.6507  -0.01543  0.005968  -0.02706  -0.01976  0.945  0.1056
6.389e+09  0.8108  0.3839  0.01457  0.02277  -0.01535  0.01092  0.9191  -0.1711
6.39e+09  0.8693  0.1308  0.008125  -0.02705  -0.01893  -0.004932  0.7817  -0.5123
6.391e+09  0.9113  -0.219  -0.00261  0.001183  -0.009532  0.01701  0.6036  -0.7341
6.392e+09  0.7686  -0.4983  0.003314  -0.0007956  0.03608  -0.02577  0.2711  -0.885
6.394e+09  0.4995  -0.7288  0.02711  -0.01746  -0.01207  0.01409  -0.07333  -0.9471
6.395e+09  0.2218  -0.823  0.01327  -0.01539  -0.002867  0.04318  -0.3293  -0.8727
6.396e+09  -0.05793  -0.9032  -0.01669  0.01223  -0.009577  0.03642  -0.6474  -0.6871
6.398e+09  -0.3559  -0.7791  -0.02766  0.006106  -0.033  0.01038  -0.7914  -0.459
6.399e+09  -0.6149  -0.6269  0.006799  0.0358  0.02078  -0.01915  -0.8959  -0.1354
6.4e+09  -0.8302  -0.4166  0.001055  -0.02449  0.002817  0.03189  -0.8936  0.1534
6.401e+09  -0.8969  -0.06618  -0.01064  0.02505  -0.007512  0.001779  -0.7952  0.4637
6.402e+09  -0.8264  0.2298  -0.009749  -0.01011  -0.01714  0.03203  -0.5789  0.6822
6.404e+09  -0.7023  0.5499  0.02325  0.01148  0.003935  -0.004071  -0.2895  0.8385
6.405e+09  -0.5393  0.7387  -0.05888  0.006981  0.001279  0.03733  -0.007656  0.9217
6.406e+09  -0.2142  0.8536  -0.022  0.008443  -0.02268  0.02623  0.3486  0.8701
6.408e+09  0.03041  0.8484  0.0174  0.0008555  -0.002231  -0.006691  0.6025  0.643
6.409e+09  0.3997  0.798  -0.01786  0.005761  0.03802  -0.008107  0.79  0.4788
6.41e+09  0.6322  0.581  0.02331  0.02065  -0.01761  0.07366  0.8648  0.2031
6.411e+09  0.7681  0.3595  0.003909  0.02583  0.07152  -0.01618  0.9025  -0.1711
6.412e+09  0.8531  0.02612  -0.01922  -0.01951  0.01435  0.006301  0.8124  -0.4398
6.414e+09  0.7898  -0.243  -0.004549  0.01315  -0.0501  -0.03991  0.597  -0.6496
6.415e+09  0.6918  -0.5431  -0.003779  -0.03786  0.05467  -0.01222  0.3314  -0.8612
6.416e+09  0.4614  -0.7241  -0.02239  -0.03951  0.03246  -0.01062  0.0281  -0.8762
6.418e+09  0.204  -0.8753  0.009235  0.009409  0.01838  0.01236  -0.2669  -0.7766
6.419e+09  -0.1284  -0.8713  -0.02555  0.009021  -0.06403  0.01328  -0.5381  -0.6552
6.42e+09  -0.383  -0.7484  0.01168  -0.03675  -0.02187  0.01749  -0.7534  -0.5051
6.421e+09  -0.6364  -0.6126  -0.06153  -0.02334  0.01235  -0.03633  -0.8714  -0.2411
6.422e+09  -0.784  -0.3447  -0.02459  0.02687  0.01016  0.04019  -0.8785  0.1239
6.424e+09  -0.8807  -0.02189  -0.01827  -0.009698  -0.04373  -0.02641  -0.7714  0.3687
6.425e+09  -0.8204  0.2545  0.02913  0.003297  0.008324  0.007232  -0.6153  0.6057
6.426e+09  -0.7183  0.5722  -0.007113  -0.004443  -0.01372  -0.07729  -0.3418  0.8233
6.428e+09  -0.4367  0.7767  0.01482  -0.02814  -0.02162  0.01089  -0.02851  0.8615
6.429e+09  -0.2042  0.8514  -0.02325  -0.006819  0.02552  0.06065  0.2144  0.8262
6.43e+09  0.1255  0.9006  0.01433  0.0018  -0.01978  -0.01989  0.5246  0.7176
6.431e+09  0.465  0.7821  -0.006898  0.00702  0.000753  -0.04683  0.7053  0.4524
6.432e+09  0.6327  0.5845  0.07186  -0.008694  -0.002135  -0.03436  0.8267  0.1875
6.434e+09  0.8127  0.2874  0.005274  -0.01498  -0.02332  -0.02852  0.878  -0.05995
6.435e+09  0.8313  0.03014  -0.05481  -0.05393  0.01535  0.0223  0.7584  -0.4029
6.436e+09  0.8241  -0.2968  0.02032  -0.01876  -0.03705  0.009466  0.5936  -0.6491
6.438e+09  0.682  -0.508  0.01192  0.02997  -0.04089  -0.03792  0.36  -0.7286
6.439e+09  0.499  -0.7965  -0.06163  -0.005399  0.004256  -0.02504  0.06531  -0.886
6.44e+09  0.1375  -0.858  -0.04424  -0.04401  0.02726  0.001823  -0.2246  -0.7984
6.441e+09  -0.1214  -0.8862  -0.008332  -0.02799  -0.001075  -0.03849  -0.4542  -0.7041
6.442e+09  -0.4021  -0.7906  -0.01788  0.01625  0.002654  0.009381  -0.6855  -0.513
6.444e+09  -0.6482  -0.5821  0.02222  0.003046  -0.007182  0.05062  -0.8454  -0.2336
6.445e+09  -0.8046  -0.2905  0.02746  -0.006642  0.02877  -0.01096  -0.7953  0.05497
6.446e+09  -0.8835  -0.02235  0.01236  -0.00113  -0.001229  -0.01052  -0.7781  0.399
6.448e+09  -0.8224  0.34  0.01404  -0.04619  -0.02355  -0.03633  -0.6443  0.6015
6.449e+09  -0.6996  0.5708  0.01763  0.008219  0.001195  0.009764  -0.351  0.7419
6.45e+09  -0.4374  0.7921  0.04424  -0.02816  0.00503  0.008694  -0.07508  0.8742
6.451e+09  -0.184  0.8951  0.0001297  0.04493  -0.009405  -0.03011  0.1969  0.8131
6.452e+09  0.194  0.8908  -0.03799  0.04717  0.007814  -0.02325  0.4881  0.6501
6.454e+09  0.3869  0.7617  -0.01935  0.04567  0.02829  0.03781  0.6888  0.4561
6.455e+09  0.6449  0.5718  -0.002585  -0.01693  -0.005831  0.006208  0.8098  0.2082
6.456e+09  0.8039  0.3196  0.01124  0.01413  0.01577  -0.01563  0.7978  -0.05611
6.458e+09  0.9018  0.006511  0.009461  0.01877  0.01289  0.009246  0.7402  -0.3586
6.459e+09  0.8448  -0.3055  -0.009105  1.138e-06  0.03719  -0.02424  0.638  -0.5683
6.46e+09  0.6827  -0.5536  -0.01616  -0.000321  0.002305  0.01045  0.2956  -0.7012
6.461e+09  0.4425  -0.7634  -0.06608  0.03146  -0.0363  -0.01224  0.07483  -0.8165
6.462e+09  0.1494  -0.8932  -0.03985  0.01467  0.00136  0.02919  -0.2228  -0.7915
6.464e+09  -0.1784  -0.8897  0.008838  -0.03202  0.03394  -0.02315  -0.4422  -0.6502
6.465e+09  -0.4469  -0.7764  -0.01204  -0.007664  0.0264  0.05258  -0.6424  -0.4409
6.466e+09  -0.6956  -0.5735  -0.008536  -0.004116  0.01341  0.002906  -0.7575  -0.2536
6.468e+09  -0.9023  -0.301  -0.02622  0.004007  0.03254  -0.001146  -0.7721  0.07381
6.469e+09  -0.9571  -0.00413  0.01265  0.003777  -0.001821  0.007942  -0.7295  0.329
6.47e+09  -0.8494  0.3355  0.0004284  0.006368  -0.03991  -0.02383  -0.5884  0.5423
6.471e+09  -0.7079  0.6236  -0.002829  -0.02156  -0.0187  0.01523  -0.3629  0.6908
6.472e+09  -0.4423  0.7658  0.009105  -0.04596  0.0215  0.03196  -0.08873  0.7826
6.474e+09  -0.1548  0.8984  0.01548  -0.001007  -0.02465  -0.01082  0.2145  0.7956
6.475e+09  0.125  0.8905  0.00189  0.003654  -0.008553  0.02092  0.435  0.6547
6.476e+09  0.5391  0.7755  0.02456  -0.01591  -0.02533  -0.006784  0.6058  0.4416
6.478e+09  0.6842  0.5738  -0.007284  0.006224  -0.02121  0.005148  0.7785  0.2262
6.479e+09  0.8567  0.3127  -0.01324  -0.007192  -0.005531  -0.02675  0.7626  -0.04565
6.48e+09  0.9167  -0.007112  0.00203  0.03329  0.01174  -0.01026  0.6819  -0.2761
6.481e+09  0.867  -0.286  0.02437  0.01161  -0.01301  -0.005224  0.5895  -0.5404
6.482e+09  0.6669  -0.6266  0.0001939  -0.009271  -0.03642  0.02861  0.3344  -0.7039
6.484e+09  0.4178  -0.7653  -0.01272  -0.007549  -0.004252  -0.007196  0.03891  -0.7594
6.485e+09  0.1283  -0.9056  -0.04426  -0.01105  -0.03429  -0.002536  -0.2226  -0.7491
6.486e+09  -0.1766  -0.8612  0.001392  -0.03093  0.04376  0.03986  -0.476  -0.6111
6.488e+09  -0.4902  -0.7225  0.006603  0.004181  -0.02533  0.002011  -0.6023  -0.3893
6.489e+09  -0.7249  -0.5612  0.002358  -0.01809  0.003323  -0.02224  -0.7784  -0.1971
6.49e+09  -0.8719  -0.2602  0.002387  -0.001859  -0.005711  0.01929  -0.7636  0.07006
6.491e+09  -0.9106  0.06261  0.02114  0.03222  -0.03423  -0.05107  -0.6646  0.3356
6.492e+09  -0.8429  0.3835  -0.01458  0.007623  -0.02226  0.04576  -0.5597  0.5058
6.494e+09  -0.7011  0.6798  0.01235  -0.0335  -0.0101  -0.02624  -0.2804  0.7035
6.495e+09  -0.3885  0.8479  -0.03615  -0.03271  0.05094  -0.005361  -0.09221  0.772
6.496e+09  -0.1498  0.9112  0.01081  -0.00907  0.04367  0.023  0.1779  0.7475
6.498e+09  0.2421  0.8759  0.005654  0.01385  0.003043  0.003817  0.4504  0.5775
6.499e+09  0.4714  0.75  0.005451  -0.03072  0.005081  -0.0404  0.6599  0.4309
6.5e+09  0.7649  0.5302  -0.001177  -0.02675  -0.03204  0.01193  0.7018  0.1767
6.501e+09  0.9207  0.2221  0.02914  0.04939  -0.02255  0.03867  0.7781  -0.1688
6.502e+09  0.9351  -0.0768  0.005564  0.0105  0.009708  0.02908  0.6629  -0.3885
6.504e+09  0.8167  -0.409  0.009017  0.00856  -0.04912  0.004141  0.5158  -0.5622
6.505e+09  0.6305  -0.6473  0.04025  -0.01005  -0.008801  0.02078  0.2547  -0.719
6.506e+09  0.3587  -0.8358  -0.02067  0.05383  0.04927  0.006217  0.01158  -0.7586
6.508e+09  0.03069  -0.9665  0.01239  -0.04944  -0.03651  -0.02798  -0.2363  -0.6688
6.509e+09  -0.2284  -0.9  -0.04214  -0.0484  -0.0138  0.005439  -0.4722  -0.6182
6.51e+09  -0.5571  -0.7706  -0.01787  0.02529  -0.01522  -0.06229  -0.6552  -0.3867
6.511e+09  -0.7767  -0.4768  0.02102  -0.04685  0.04859  -0.0501  -0.7649  -0.1243
6.512e+09  -0.9414  -0.2319  0.01095  0.006553  0.01049  0.0225  -0.7496  0.1214
6.514e+09  -0.9443  0.128  -0.03306  0.03243  -0.03981  -0.04502  -0.6448  0.4247
6.515e+09  -0.8807  0.4305  -0.009543  0.02119  0.042  0.03936  -0.4688  0.5499
6.516e+09  -0.6401  0.682  -0.005037  -0.003892  0.01796  0.02757  -0.2494  0.7237
6.518e+09  -0.3548  0.876  0.004686  0.01199  -0.03914  0.02378  0.04925  0.7252
6.519e+09  -0.04728  0.9193  -0.008915  -0.006682  -0.005866  0.03235  0.2609  0.7176
6.52e+09  0.3069  0.9581  -0.01069  0.03382  -0.03051  -0.05532  0.4968  0.5537
6.521e+09  0.6022  0.7686  -0.01592  -0.006217  0.0301  -0.03458  0.641  0.3645
6.522e+09  0.8399  0.4931  0.03368  -0.01252  -0.0227  -0.008568  0.7453  0.1188
6.524e+09  0.932  0.1962  0.004423  -0.007147  0.005221  -0.03112  0.6951  -0.1762
6.525e+09  0.9549  -0.1538  -0.01494  0.02674  -0.006499  0.02726  0.6017  -0.423
6.526e+09  0.8653  -0.4861  -0.009089  0.01391  0.04141  0.01309  0.4428  -0.5859
6.528e+09  0.6003  -0.8059  -0.008872  -0.006758  -0.02949  -0.03792  0.185  -0.6787
6.529e+09  0.3234  -0.8954  0.02461  0.001192  -0.06594  -0.003982  -0.04003  -0.6816
6.53e+09  -0.02476  -0.9826  -0.0004783  0.01117  0.04048  -0.01367  -0.277  -0.5989
6.531e+09  -0.4261  -0.8703  -0.006596  0.01683  -0.007177  0.01245  -0.4556  -0.4865
6.532e+09  -0.6495  -0.7361  0.02883  -0.00985  0.003088  0.01053  -0.6029  -0.2384
6.534e+09  -0.8412  -0.3984  -0.014  -0.00607  0.01013  0.01669  -0.6361  -0.07617
6.535e+09  -0.9434  -0.07971  0.04336  0.02682  -0.002266  0.01387  -0.6059  0.09672
6.536e+09  -0.9734  0.2145  0.002415  0.01376  -0.01918  -0.01075  -0.5627  0.2547
6.538e+09  -0.8107  0.5201  -0.02807  -0.023  0.003048  0.05468  -0.4649  0.4727
6.539e+09  -0.5602  0.7838  -0.009527  -0.01885  -0.001777  -0.03734  -0.2714  0.6146
6.54e+09  -0.2781  0.9553  0.02966  -0.0138  -0.0163  0.02228  -0.07746  0.7008
6.541e+09  0.0789  0.9525  0.002607  0.01083  -0.01684  0.008183  0.183  0.669
6.542e+09  0.4042  0.8365  -0.01187  0.02783  0.05499  -0.006429  0.412  0.5941
6.544e+09  0.6982  0.6773  -0.01094  0.01114  -0.01309  0.01695  0.5848  0.4161
6.545e+09  0.8564  0.4158  -0.02669  0.013  0.04263  0.01533  0.7026  0.1705
6.546e+09  1.011  0.04347  0.05353  0.002363  0.00145  0.003972  0.7161  -0.07291
6.548e+09  0.8716  -0.2902  -0.03136  -0.01808  0.03212  -0.01662  0.6792  -0.3466
6.549e+09  0.7503  -0.6112  0.024  -0.002755  -0.03564  -0.06427  0.4889  -0.5781
6.55e+09  0.5087  -0.7926  -0.004809  0.01362  -0.001162  0.04182  0.2758  -0.6507
