# Hz S RI R 50
6.25e+09  -0.4292  0.7479  -0.005914  -0.01534  -0.01437  -0.01809  0.1731  0.4642
6.251e+09  -0.06848  0.8375  -0.001236  -0.00876  -0.02747  0.04907  0.36  0.3897
6.252e+09  0.18  0.8488  -0.01696  -0.02581  0.02194  -0.06288  0.5281  0.2577
6.254e+09  0.4647  0.7131  -0.02773  -0.01718  -0.03432  -0.007592  0.6047  0.03171
6.255e+09  0.6954  0.544  -0.01563  -0.02354  -0.04035  0.01162  0.5844  -0.2339
6.256e+09  0.7893  0.2949  -0.0004995  0.01367  -0.001728  0.02106  0.487  -0.4346
6.258e+09  0.8989  0.004094  0.01178  -0.01625  0.02612  0.05655  0.2733  -0.5978
6.259e+09  0.8163  -0.3037  -0.03494  0.001337  -0.06738  -0.0004229  0.02263  -0.6683
6.26e+09  0.7039  -0.5745  -0.01061  -0.01005  -0.006738  0.0217  -0.192  -0.6526
6.261e+09  0.4018  -0.7441  -0.005966  -0.01072  -0.02039  -0.04617  -0.4176  -0.5637
6.262e+09  0.1498  -0.9075  0.03532  -0.009868  -0.06014  -0.06074  -0.6185  -0.3539
6.264e+09  -0.1815  -0.8226  0.002113  -0.01426  -0.01041  -0.004112  -0.7371  -0.1056
6.265e+09  -0.4798  -0.6992  -0.01154  0.00317  -0.05083  -0.01257  -0.6881  0.1717
6.266e+09  -0.6537  -0.5092  0.003694  -0.02192  0.009931  0.003459  -0.6202  0.3983
6.268e+09  -0.786  -0.2439  -0.003336  -0.001539  -0.03836  -0.01449  -0.4436  0.6174
6.269e+09  -0.8038  0.02213  0.03695  -0.02107  0.0498  0.01387  -0.2093  0.716
6.27e+09  -0.7423  0.3189  0.009279  0.004808  0.002334  -0.006545  0.03328  0.7523
6.271e+09  -0.5924  0.5365  0.004229  -0.02307  -0.03242  0.006359  0.3189  0.6571
6.272e+09  -0.3698  0.7378  -0.008346  0.01246  0.009815  7.201e-05  0.5441  0.5299
6.274e+09  -0.09086  0.8018  0.02016  0.001762  -0.0153  -0.0004686  0.6645  0.3032
6.275e+09  0.2041  0.7499  0.01119  0.01496  0.01329  -0.01321  0.7505  0.03981
6.276e+09  0.4679  0.767  0.03291  0.01227  -0.01834  -0.02321  0.7167  -0.239
6.278e+09  0.635  0.5084  0.02139  -0.02395  -0.01112  -0.06695  0.6482  -0.4624
6.279e+09  0.8007  0.2153  0.02265  0.02089  0.0287  0.0122  0.4127  -0.6457
6.28e+09  0.807  -0.066  0.00271  -0.005459  -0.009807  -0.04183  0.1701  -0.7724
6.281e+09  0.7098  -0.3289  -0.009319  0.01441  -0.03897  -0.01558  -0.08918  -0.7889
6.282e+09  0.5676  -0.541  0.006458  -0.0001212  -0.01639  -0.02431  -0.408  -0.6764
6.284e+09  0.3657  -0.7263  -0.023  0.02592  -0.02878  0.03101  -0.6179  -0.5246
6.285e+09  0.07504  -0.8293  -0.02413  -0.01035  -0.008042  -0.03687  -0.749  -0.2865
6.286e+09  -0.1631  -0.7842  -0.02581  -0.009441  -0.0287  -0.01044  -0.8037  -0.02388
6.288e+09  -0.4796  -0.659  -0.02536  -0.007838  0.04447  -0.01209  -0.7508  0.236
6.289e+09  -0.6589  -0.4952  -0.01073  0.008385  -0.02965  -0.01514  -0.6272  0.5231
6.29e+09  -0.8456  -0.1754  0.02739  0.01745  0.0009658  -0.0003447  -0.41  0.6899
6.291e+09  -0.8061  -0.004061  -0.002217  0.007624  0.0119  -0.003861  -0.152  0.7882
6.292e+09  -0.7083  0.363  -0.01282  -0.01869  -0.0005369  -0.01301  0.1186  0.7815
6.294e+09  -0.5748  0.6454  -0.01226  0.03932  -0.01186  -0.04642  0.381  0.6967
6.295e+09  -0.3449  0.7189  0.007122  0.02596  0.00253  0.01687  0.6128  0.5354
6.296e+09  -0.0939  0.8  -0.02525  0.003957  0.05568  0.04833  0.7403  0.2943
6.298e+09  0.2287  0.8093  0.02799  -0.02411  0.04993  -0.01317  0.8364  0.033
6.299e+09  0.5335  0.6914  0.001836  0.008211  -0.0263  -0.03132  0.7877  -0.2749
6.3e+09  0.7  0.4853  0.02357  -0.02669  0.09142  -0.05168  0.6674  -0.5161
6.301e+09  0.7795  0.1384  -0.002271  0.008537  0.01842  -0.001366  0.4069  -0.7211
6.302e+09  0.8046  -0.08702  0.02329  -0.004643  0.01973  0.01388  0.1478  -0.8474
6.304e+09  0.7771  -0.3734  0.00425  0.00595  0.02972  -0.02752  -0.1093  -0.7892
6.305e+09  0.5786  -0.643  -0.002197  -0.01046  0.0205  -0.02414  -0.4182  -0.719
6.306e+09  0.2775  -0.8183  0.02287  0.009049  -0.02618  -0.02143  -0.6469  -0.546
6.308e+09  0.03288  -0.8702  0.002402  -0.02139  0.005589  0.003091  -0.8135  -0.3279
6.309e+09  -0.2957  -0.8184  0.009744  -0.001832  0.01894  -0.01269  -0.8779  0.003496
6.31e+09  -0.497  -0.6309  0.02654  -0.008672  -0.0436  -0.01813  -0.8143  0.2527
6.311e+09  -0.7495  -0.4647  0.005467  0.01599  0.01601  0.02543  -0.655  0.562
6.312e+09  -0.817  -0.0977  -0.01661  -0.003977  0.06743  0.01039  -0.4513  0.7418
6.314e+09  -0.8017  0.1705  0.01849  0.00288  -0.005682  0.01537  -0.1863  0.8625
6.315e+09  -0.6642  0.383  -0.01898  -0.006823  -0.01468  -0.03294  0.1304  0.8414
6.316e+09  -0.5712  0.6781  0.007815  0.003138  0.03864  -0.01805  0.4422  0.7496
6.318e+09  -0.2683  0.7811  -0.004621  0.02203  0.01495  -0.03047  0.6808  0.589
6.319e+09  0.01033  0.8084  -0.0294  -0.011  0.02643  0.02799  0.8584  0.3147
6.32e+09  0.2584  0.7704  0.01397  -0.01385  -0.008784  -0.004369  0.8569  -0.03289
6.321e+09  0.5461  0.6761  0.0178  0.01299  0.0253  -0.02196  0.8588  -0.3103
6.322e+09  0.7286  0.3781  -0.003777  0.01128  -0.02681  -0.0125  0.662  -0.552
6.324e+09  0.8582  0.1361  0.00951  -0.009267  -0.04528  -0.00564  0.458  -0.7355
6.325e+09  0.796  -0.1405  -0.01091  0.02416  0.0009216  -0.0138  0.1811  -0.8927
6.326e+09  0.7728  -0.4412  -0.02151  -0.02181  0.02797  0.03757  -0.1236  -0.8702
6.328e+09  0.5099  -0.6756  0.005279  0.0185  -0.01558  -0.02243  -0.4001  -0.8057
6.329e+09  0.218  -0.8083  -0.0006101  0.01139  0.02745  0.006917  -0.6636  -0.6104
6.33e+09  -0.06199  -0.8356  -0.008546  0.006084  0.02855  -0.01891  -0.8437  -0.3151
6.331e+09  -0.319  -0.8106  -0.01502  0.004511  0.04468  -0.004883  -0.9217  -0.009972
6.332e+09  -0.6197  -0.6372  -0.01999  -0.003812  0.03368  -0.02437  -0.8601  0.3242
6.334e+09  -0.7282  -0.3989  0.01478  0.001874  0.003565  0.01079  -0.7302  0.551
6.335e+09  -0.8495  -0.1029  -0.007198  -0.005608  0.01857  0.008989  -0.4897  0.7588
6.336e+09  -0.8587  0.2494  0.01741  -0.02954  -0.02604  -0.01808  -0.1788  0.9004
6.338e+09  -0.7055  0.4768  -0.01514  -0.005628  0.01206  0.00693  0.08153  0.8898
6.339e+09  -0.4971  0.7466  0.0005395  0.0165  -0.006859  -0.01949  0.4014  0.7854
6.34e+09  -0.1796  0.8096  0.001053  0.03258  -0.03935  -0.05527  0.6901  0.6131
6.341e+09  0.1214  0.8706  -0.01418  -0.0003087  0.01588  0.0407  0.8466  0.3829
6.342e+09  0.4028  0.8132  0.0273  0.0007247  0.01604  0.001638  0.9379  0.04836
6.344e+09  0.5944  0.6113  0.01668  -0.02072  -0.01924  0.03813  0.9002  -0.2404
6.345e+09  0.8068  0.3323  -0.02685  0.003626  0.04186  0.0129  0.7697  -0.5827
6.346e+09  0.8571  0.05743  0.01285  -0.05934  -0.02267  0.007672  0.4849  -0.7688
6.348e+09  0.8216  -0.2947  0.01198  0.01171  0.03119  -0.01114  0.203  -0.9095
6.349e+09  0.668  -0.5696  0.008464  0.004391  0.02365  -0.001732  -0.1154  -0.9179
6.35e+09  0.4511  -0.7174  -0.007318  -0.002395  0.01345  -0.0147  -0.4266  -0.8409
6.351e+09  0.117  -0.8782  0.0148  -0.02056  0.01396  -0.03526  -0.6764  -0.628
6.352e+09  -0.1915  -0.8536  0.01182  0.003813  -0.009441  0.009326  -0.8399  -0.3638
6.354e+09  -0.5079  -0.7499  -0.02694  -0.007198  0.01942  -0.01789  -0.9374  -0.0595
6.355e+09  -0.682  -0.5927  0.0143  -0.01596  -0.002243  -0.032  -0.8705  0.2427
6.356e+09  -0.8322  -0.3032  0.003199  0.003034  -0.06221  0.03651  -0.7656  0.5524
6.358e+09  -0.845  0.04241  0.001996  -0.00491  -0.01457  -0.0001904  -0.5531  0.7592
6.359e+09  -0.8156  0.3737  -0.01849  -0.02918  0.01596  0.0117  -0.2107  0.9318
6.36e+09  -0.6239  0.6374  0.03013  0.0507  -0.02349  -0.02944  0.1122  0.9394
6.361e+09  -0.3991  0.7881  -0.03826  -0.00238  -0.007003  0.007375  0.3977  0.8364
6.362e+09  -0.06674  0.9054  -0.03547  -0.01168  0.03825  -0.03586  0.6705  0.6991
6.364e+09  0.2258  0.8791  0.02577  0.0006839  -0.007965  -0.01478  0.8508  0.4053
6.365e+09  0.5169  0.7507  -0.03979  0.003479  -0.001658  0.02778  0.9539  0.06845
6.366e+09  0.7254  0.4896  -0.01583  -0.05607  -0.05214  -4.469e-05  0.9675  -0.2186
6.368e+09  0.8569  0.2217  -0.01167  -0.0419  -0.01989  0.03008  0.7931  -0.5525
6.369e+09  0.8797  -0.107  0.002147  0.00109  -0.001089  0.02181  0.5362  -0.7615
6.37e+09  0.7771  -0.3491  0.002878  -0.00975  -0.01138  0.02314  0.2822  -0.9045
6.371e+09  0.5857  -0.6334  0.02969  -0.009341  -0.00258  0.03015  -0.07636  -0.9552
6.372e+09  0.3573  -0.7873  -0.006791  -0.0173  0.01143  0.05361  -0.3867  -0.8374
6.374e+09  -0.01798  -0.8869  -0.0542  -0.007804  -0.009248  0.008688  -0.6874  -0.671
6.375e+09  -0.2516  -0.8419  -0.003972  -0.002566  0.008915  -0.03407  -0.9008  -0.4235
6.376e+09  -0.5533  -0.715  0.01602  -0.003601  -0.008552  -0.008982  -0.9372  -0.05512
6.378e+09  -0.7442  -0.4887  0.006472  -0.01748  -0.02105  0.01014  -0.9069  0.2692
6.379e+09  -0.8652  -0.1831  0.01056  -0.006801  0.01034  -0.003209  -0.8015  0.5397
6.38e+09  -0.8305  0.1343  0.03432  0.001478  0.01396  -0.01196  -0.5341  0.7573
6.381e+09  -0.7948  0.4214  -0.001267  -0.02085  -0.01543  0.005479  -0.2526  0.9036
6.382e+09  -0.5702  0.6487  -0.005121  0.03135  0.001164  0.01693  0.07037  0.9807
6.384e+09  -0.3058  0.7934  0.0228  -0.01857  -0.02577  -0.02431  0.3941  0.8344
6.385e+09  -0.02474  0.9068  -0.04438  -0.00542  -0.003309  -0.0008716  0.6617  0.6676
6.386e+09  0.3541  0.8108  -0.01453  0.0182  0.01474  -0.003199  0.8768  0.3949
6.388e+09  0.5845  0.6541  -0.005013  0.02617  0.009087  0.009137  0.9185  0.1744
6.389e+09  0.7341  0.3772  -0.01849  0.02127  -0.03515  -0.01299  0.891  -0.2116
6.39e+09  0.8918  0.1277  0.0354  -0.01519  0.05611  -0.04442  0.7736  -0.5066
6.391e+09  0.8879  -0.1859  0.03834  0.005806  0.01156  0.004395  0.5487  -0.7107
6.392e+09  0.7724  -0.4675  0.001019  0.01301  0.04457  0.01858  0.2825  -0.8676
6.394e+09  0.5247  -0.7725  -0.003974  0.01095  0.02047  0.01919  -0.01958  -0.8991
6.395e+09  0.2753  -0.8784  0.03186  -0.001447  0.001506  -0.01975  -0.3463  -0.8487
6.396e+09  0.001601  -0.9019  0.00218  0.01478  -0.01216  0.008129  -0.5964  -0.7052
6.398e+09  -0.3618  -0.8429  -0.003051  -0.02195  -0.01241  0.01495  -0.7559  -0.4244
6.399e+09  -0.6264  -0.6791  0.03321  -0.001212  -0.02267  0.0001324  -0.9141  -0.1478
6.4e+09  -0.7941  -0.427  -0.01997  0.07041  -0.003918  -0.04613  -0.8912  0.1573
6.401e+09  -0.8525  -0.1279  -0.01192  0.005713  0.003903  -0.003257  -0.7584  0.4702
6.402e+09  -0.8876  0.1919  -0.01478  0.0166  -0.05413  -0.003494  -0.5851  0.7072
6.404e+09  -0.6977  0.5248  0.02753  0.02246  -0.008466  0.01023  -0.3116  0.8546
6.405e+09  -0.5241  0.7304  0.02888  -0.01771  -0.001583  0.01915  -0.003634  0.8964
6.406e+09  -0.318  0.8947  -0.03509  0.01351  0.00704  0.02963  0.3022  0.8504
6.408e+09  0.06874  0.8601  -0.006623  0.02934  -0.0149  0.006078  0.5781  0.6699
6.409e+09  0.3354  0.8426  -0.02098  -0.02594  -0.05433  0.02058  0.8159  0.4703
6.41e+09  0.6704  0.6271  -0.007404  0.02526  -0.002711  0.02371  0.882  0.1812
6.411e+09  0.7495  0.4326  -0.003533  0.00145  -0.01103  0.0238  0.8861  -0.118
6.412e+09  0.8725  0.1036  -0.01564  -0.0279  0.02393  0.006993  0.7982  -0.4551
6.414e+09  0.8198  -0.2446  -0.01795  0.009905  0.01787  -0.01655  0.5431  -0.6734
6.415e+09  0.7465  -0.5062  0.01814  0.05822  0.04291  0.01003  0.2761  -0.8415
6.416e+09  0.5097  -0.7309  0.02028  -0.0002476  0.008851  0.03835  -0.002575  -0.9307
6.418e+09  0.2199  -0.8347  0.007043  0.05558  0.01818  0.0133  -0.2411  -0.8132
6.419e+09  -0.04244  -0.8905  -0.004631  -0.008845  -0.008595  0.002592  -0.4907  -0.692
6.42e+09  -0.3639  -0.8054  0.005136  0.0009468  0.02018  -0.02312  -0.7524  -0.4533
6.421e+09  -0.6297  -0.6078  -0.0177  -0.01365  -0.00823  -0.03514  -0.8713  -0.1929
6.422e+09  -0.7868  -0.3503  0.02795  0.01479  0.003943  -0.01315  -0.893  0.0851
6.424e+09  -0.8155  -0.07229  -0.02812  0.007443  0.01286  -0.0159  -0.7812  0.385
6.425e+09  -0.8298  0.2757  0.02694  0.03204  0.007986  -0.004976  -0.6095  0.6941
6.426e+09  -0.7002  0.5149  0.002458  -0.001479  0.02251  -0.03075  -0.363  0.8337
6.428e+09  -0.4835  0.7566  -0.03192  0.03423  -0.06296  -0.05205  -0.09931  0.8932
6.429e+09  -0.248  0.8486  0.009003  -0.02135  -0.01289  0.01265  0.2379  0.7675
6.43e+09  0.1061  0.9273  -0.0267  0.0222  0.01924  0.01724  0.4747  0.7211
6.431e+09  0.276  0.7769  0.03079  0.02543  -0.000942  0.04555  0.7434  0.4708
6.432e+09  0.6687  0.6182  -0.01362  -0.002852  0.0481  0.001198  0.7969  0.2308
6.434e+09  0.832  0.3762  -0.03406  0.03292  -0.02089  0.0254  0.8493  -0.07135
6.435e+09  0.8423  0.01694  -0.01526  0.02548  0.00648  -0.01298  0.7986  -0.3836
6.436e+09  0.8245  -0.2229  0.0002278  -0.03125  -0.008359  0.00968  0.6128  -0.5795
6.438e+09  0.6581  -0.4918  -0.01066  -0.01929  -0.04688  0.03211  0.3828  -0.78
6.439e+09  0.4903  -0.6959  0.007224  -0.01586  -0.02272  0.007624  0.05547  -0.8384
6.44e+09  0.1852  -0.823  0.02699  0.008645  0.03659  -0.01359  -0.2253  -0.839
6.441e+09  -0.12  -0.8774  0.01026  0.04031  0.01921  0.009517  -0.5167  -0.6671
6.442e+09  -0.4012  -0.7438  0.01132  -0.001085  -0.001693  0.003198  -0.665  -0.5114
6.444e+09  -0.5857  -0.5999  0.02556  -0.05456  -0.009298  -0.03056  -0.8031  -0.2194
6.445e+09  -0.817  -0.3816  0.01849  -0.02026  0.02661  0.006806  -0.8249  0.06624
6.446e+09  -0.8454  -0.09706  -0.0006003  0.01144  -0.02703  -0.01274  -0.7698  0.3393
6.448e+09  -0.8336  0.2856  0.00199  -0.01869  0.02143  0.006054  -0.6039  0.5875
6.449e+09  -0.682  0.5205  0.02059  -0.0009443  -0.01383  0.01418  -0.3225  0.7696
6.45e+09  -0.4545  0.7907  -0.01239  0.006145  -0.03705  -0.04085  -0.06697  0.8343
6.451e+09  -0.1928  0.9085  0.04821  -0.01285  0.004777  -0.01824  0.2358  0.8291
6.452e+09  0.1088  0.837  0.02566  0.01697  -0.003644  0.01976  0.4839  0.7068
6.454e+09  0.4229  0.7705  -0.002073  0.0166  0.02063  -0.0005927  0.6929  0.4868
6.455e+09  0.6716  0.5644  -0.02961  0.006769  -0.06361  0.01769  0.8408  0.2353
6.456e+09  0.7926  0.3332  -0.02073  0.02342  0.01728  -0.02254  0.8184  -0.08871
6.458e+09  0.9504  0.002387  0.00421  -0.02155  -0.01444  0.01624  0.7213  -0.3719
6.459e+09  0.8398  -0.2595  0.009546  0.02296  0.01327  -0.01659  0.5885  -0.5988
6.46e+09  0.7324  -0.5491  0.02941  -0.04902  0.001876  0.0006842  0.328  -0.7048
6.461e+09  0.4437  -0.7359  0.01479  0.007445  -0.03027  -0.04391  0.09866  -0.799
6.462e+09  0.1841  -0.8192  0.008955  0.01316  0.01915  -0.02692  -0.1569  -0.797
6.464e+09  -0.1022  -0.8334  0.004847  0.03236  -0.02797  -0.009991  -0.4523  -0.6209
6.465e+09  -0.4235  -0.7792  0.001091  -0.003554  0.01667  0.05964  -0.6685  -0.4328
6.466e+09  -0.7091  -0.5821  -0.02122  -0.01964  -0.04595  0.0467  -0.797  -0.1874
6.468e+09  -0.8142  -0.3483  -0.01882  0.01451  0.003637  0.01894  -0.832  0.08425
6.469e+09  -0.8658  -0.04988  0.0157  0.0248  -0.02222  -0.007843  -0.7461  0.3085
6.47e+09  -0.8327  0.245  -0.02589  0.01655  0.03372  -0.02832  -0.5692  0.5203
6.471e+09  -0.7647  0.5791  -0.0284  0.0203  0.01567  -0.01169  -0.3173  0.7294
6.472e+09  -0.5001  0.7266  0.03434  -0.01423  0.009349  -0.02654  -0.04528  0.8056
6.474e+09  -0.163  0.829  0.03738  -0.01161  0.002217  0.04478  0.1777  0.7675
6.475e+09  0.1477  0.8922  0.05314  0.02676  0.006956  0.01417  0.4744  0.6574
6.476e+09  0.4544  0.7744  0.000401  0.02672  -0.001914  0.01212  0.6926  0.4544
6.478e+09  0.625  0.5891  -0.02167  0.02004  0.01234  -0.02185  0.7515  0.1887
6.479e+09  0.8474  0.3457  0.002543  -0.01311  0.04576  -0.01134  0.7663  -0.08751
6.48e+09  0.8828  0.02784  -0.009532  -0.003997  0.01026  0.007435  0.6764  -0.3508
6.481e+09  0.8694  -0.3108  -0.0009433  0.002465  -0.05436  -0.006467  0.5213  -0.5366
6.482e+09  0.7046  -0.5615  0.005326  -0.04459  -0.04546  -0.004433  0.3167  -0.7253
6.484e+09  0.4393  -0.746  0.03455  0.001207  0.048  0.04462  0.06502  -0.7327
6.485e+09  0.1911  -0.8684  -0.01943  0.006739  -0.01914  0.001263  -0.2114  -0.7677
6.486e+09  -0.157  -0.8887  0.02748  0.04526  0.02879  0.005147  -0.4521  -0.5997
6.488e+09  -0.4279  -0.8009  -0.01449  0.001121  -0.003038  -0.003852  -0.6972  -0.3889
6.489e+09  -0.6756  -0.5967  -0.008648  -0.007063  0.002591  -0.01748  -0.7327  -0.1755
6.49e+09  -0.8848  -0.2937  -0.004531  -0.01172  0.06127  -0.03366  -0.7477  0.04548
6.491e+09  -0.8937  -0.01274  -0.02296  0.003708  -0.01614  0.003316  -0.6539  0.3531
6.492e+09  -0.8689  0.3512  -0.03965  0.02034  -0.009941  -0.02785  -0.5156  0.5437
6.494e+09  -0.7263  0.5389  -0.003308  -0.005635  0.0008799  0.009504  -0.3004  0.7068
6.495e+09  -0.4296  0.8409  0.0146  -0.006157  0.02061  0.0373  -0.06861  0.7504
6.496e+09  -0.223  0.9147  -0.01386  -0.013  -0.05542  -0.01299  0.2169  0.7551
6.498e+09  0.159  0.9335  -0.007147  0.05583  0.002151  -0.001853  0.4506  0.599
6.499e+09  0.4923  0.7892  0.001373  -0.02017  -0.04209  0.0299  0.6422  0.414
6.5e+09  0.702  0.573  -0.006028  0.009452  -0.02309  0.003907  0.7433  0.1696
6.501e+09  0.8684  0.3511  0.00667  0.01939  -0.005594  -0.06446  0.7978  -0.08725
6.502e+09  0.9497  0.003999  -0.02119  0.01587  -0.00962  0.007584  0.6954  -0.3558
6.504e+09  0.8686  -0.3367  -0.02757  -0.003142  0.02018  0.08807  0.5079  -0.5576
6.505e+09  0.7225  -0.6309  -0.01292  -0.00999  -0.02422  -0.04784  0.2827  -0.704
6.506e+09  0.4325  -0.827  -0.01442  -0.05532  -0.02072  0.006578  0.003529  -0.764
6.508e+09  0.09335  -0.8885  0.006399  0.0001175  0.05378  -0.03137  -0.2193  -0.7334
6.509e+09  -0.2081  -0.9265  0.03158  0.02035  0.02935  -0.01725  -0.5331  -0.5928
6.51e+09  -0.4846  -0.8301  -0.00859  0.02619  -0.02112  0.007028  -0.6007  -0.4118
6.511e+09  -0.7486  -0.5647  -0.01427  0.02626  0.01062  0.02448  -0.7091  -0.1357
6.512e+09  -0.8883  -0.2193  0.02711  -0.007582  0.02976  -0.005866  -0.7371  0.1236
6.514e+09  -0.9272  0.1093  -0.001626  -0.005301  -0.03408  0.0116  -0.6482  0.3872
6.515e+09  -0.8768  0.4215  0.03294  -0.006838  -0.01385  -0.01316  -0.4574  0.5586
6.516e+09  -0.6967  0.6337  0.02395  0.02265  -0.03358  0.01819  -0.2694  0.6688
6.518e+09  -0.3718  0.889  0.01302  0.008784  0.0527  -0.01676  0.005351  0.7331
6.519e+09  -0.07743  0.9874  0.0001706  0.04012  -0.01024  -0.0176  0.2594  0.6847
6.52e+09  0.2544  0.8997  -0.02538  -0.01834  -0.04369  0.006977  0.5041  0.5993
6.521e+09  0.5635  0.8336  0.02146  -0.04274  0.005483  -0.006504  0.6305  0.3611
6.522e+09  0.812  0.5645  -0.01284  -0.02205  0.01056  0.001061  0.7158  0.1024
6.524e+09  0.8872  0.2117  -0.0188  0.004856  -0.05019  -0.004054  0.7456  -0.163
6.525e+09  0.935  -0.1241  0.02544  -0.009253  -0.00348  0.007238  0.5985  -0.3618
6.526e+09  0.8882  -0.4332  -0.01594  -0.02172  -0.002837  0.0172  0.4296  -0.6203
6.528e+09  0.6036  -0.6926  0.02959  0.006862  -0.008505  0.03125  0.2024  -0.6597
6.529e+09  0.3806  -0.8789  -0.03073  0.01793  0.0483  0.02318  -0.07471  -0.6657
6.53e+09  -0.03029  -1.024  -0.004023  -0.0001181  -0.04325  -0.01642  -0.3005  -0.6253
6.531e+09  -0.3064  -0.9194  -0.008782  0.02715  -0.02936  -0.009284  -0.4839  -0.5033
6.532e+09  -0.6412  -0.7783  0.01692  0.002381  0.007064  -0.02873  -0.5875  -0.2544
6.534e+09  -0.8174  -0.4259  0.01197  0.002119  0.02264  -0.01623  -0.615  -0.09784
6.535e+09  -0.9438  -0.1961  0.01571  -0.005816  0.003032  0.003394  -0.6268  0.07131
6.536e+09  -0.9378  0.2173  0.003204  -0.00183  0.03482  0.03083  -0.5738  0.282
6.538e+09  -0.8315  0.464  0.02263  0.01011  0.02583  0.01761  -0.4719  0.4789
6.539e+09  -0.648  0.7307  0.006296  0.02682  0.02478  0.04789  -0.2666  0.6079
6.54e+09  -0.3512  0.9657  -0.01399  -0.01067  -0.007346  0.07657  -0.07074  0.6835
6.541e+09  0.01987  0.9552  0.02285  0.02372  0.03766  0.007048  0.211  0.672
6.542e+09  0.3481  0.9524  0.0006956  -0.01348  0.024  -0.01466  0.4124  0.5706
6.544e+09  0.649  0.7179  0.0001433  0.01838  0.02918  -0.01366  0.5874  0.4104
6.545e+09  0.878  0.4918  -0.01818  0.02809  -0.0147  -0.02491  0.6866  0.1994
6.546e+09  0.96  0.1434  -0.01358  0.007011  0.002577  -0.005505  0.721  -0.02886
6.548e+09  0.943  -0.2444  0.03181  -0.002812  -0.01585  -0.00161  0.6573  -0.3312
6.549e+09  0.784  -0.5534  0.01958  -0.04378  -0.008153  -0.01424  0.5028  -0.497
6.55e+09  0.6018  -0.8106  0.02293  -0.02421  0.02108  -0.04819  0.2916  -0.6569
