# Hz S RI R 50
6.25e+09  -0.14  0.7761  0.01516  0.02362  -0.006708  -0.03499  0.1543  0.5086
6.251e+09  0.1567  0.8859  0.03247  0.02196  0.01208  0.02447  0.3523  0.4286
6.252e+09  0.4318  0.7428  0.003861  -0.009513  0.02838  0.004183  0.5301  0.244
6.254e+09  0.6697  0.4996  0.007125  -0.03081  -0.0118  -0.05772  0.634  -0.007689
6.255e+09  0.7881  0.3093  -0.0003755  -0.01159  0.03477  0.006341  0.6084  -0.1969
6.256e+09  0.8588  -0.05424  0.01536  0.02006  0.03342  0.009479  0.477  -0.4571
6.258e+09  0.7601  -0.3295  -0.03276  -0.0008219  -0.007379  0.05691  0.3033  -0.6352
6.259e+09  0.6528  -0.5697  0.03819  -0.005478  -0.02241  -0.004183  -0.02621  -0.6579
6.26e+09  0.4503  -0.7697  -0.01436  0.02715  -0.06071  -0.008858  -0.1893  -0.651
6.261e+09  0.08136  -0.8585  -0.02516  -0.01739  0.02394  0.06895  -0.4269  -0.5414
6.262e+09  -0.2028  -0.8065  0.04369  0.03543  -0.001267  0.006009  -0.5965  -0.3483
6.264e+09  -0.5032  -0.7426  -0.009354  -0.01374  0.01294  -0.05311  -0.7383  -0.1032
6.265e+09  -0.7092  -0.495  0.008618  -0.03512  -0.04465  0.02779  -0.6985  0.1466
6.266e+09  -0.7565  -0.2196  -0.0135  -9.311e-05  -0.03335  -0.03546  -0.6153  0.3936
6.268e+09  -0.8212  0.07317  0.01907  -0.01612  -0.03895  -0.03316  -0.439  0.5923
6.269e+09  -0.7204  0.3473  0.008972  0.008773  -0.009241  0.01984  -0.2095  0.7094
6.27e+09  -0.5346  0.6043  -0.0104  -0.000506  -0.03104  0.01878  0.03649  0.7693
6.271e+09  -0.3559  0.7413  -0.02354  0.02835  0.03046  0.04248  0.3436  0.699
6.272e+09  -0.1004  0.8164  -0.01303  0.009364  0.04435  -0.004934  0.5373  0.502
6.274e+09  0.2131  0.7759  0.0347  -0.01678  -0.006482  0.0124  0.6939  0.3025
6.275e+09  0.5478  0.701  0.01448  -0.01111  -0.02025  0.04067  0.766  0.04894
6.276e+09  0.7075  0.448  0.01567  0.0066  0.01045  0.0224  0.7164  -0.2035
6.278e+09  0.8283  0.1889  -0.0007948  0.0195  0.03275  -0.007752  0.5967  -0.4478
6.279e+09  0.846  -0.1154  0.02326  0.008539  -0.02112  0.001809  0.4005  -0.6514
6.28e+09  0.7284  -0.3845  0.01173  0.01729  -0.02724  -0.02702  0.1659  -0.7581
6.281e+09  0.5468  -0.6075  -0.00385  0.002666  0.01022  -0.005661  -0.1066  -0.7717
6.282e+09  0.3636  -0.7694  -0.006781  0.008333  -0.02645  -0.002214  -0.3772  -0.7068
6.284e+09  0.05549  -0.8422  -0.02708  0.03973  0.01459  -0.01409  -0.6015  -0.5257
6.285e+09  -0.2774  -0.7984  0.01417  -5.091e-05  -0.01309  0.0595  -0.7457  -0.2956
6.286e+09  -0.5087  -0.666  -0.002085  0.02426  -0.06053  0.01779  -0.7922  0.005467
6.288e+09  -0.7542  -0.4122  0.01996  -0.002127  -0.03555  0.0204  -0.7318  0.2546
6.289e+09  -0.8268  -0.1309  -0.00845  -0.008744  0.07234  0.000884  -0.6145  0.4926
6.29e+09  -0.7984  0.1206  0.001615  -0.02557  -0.001473  -0.01184  -0.4082  0.6856
6.291e+09  -0.7896  0.3937  0.005532  -0.005583  -0.04636  0.02626  -0.1961  0.7498
6.292e+09  -0.5525  0.6126  0.0156  -0.009356  0.01361  -0.006714  0.1258  0.8126
6.294e+09  -0.2749  0.7622  -0.008506  -0.01139  -0.02817  -0.01789  0.4073  0.6935
6.295e+09  0.01265  0.7974  0.007951  -0.02093  0.02182  -0.0007305  0.6198  0.5193
6.296e+09  0.306  0.7374  0.01812  -0.001161  0.0366  -0.04403  0.7603  0.2681
6.298e+09  0.5244  0.5987  0.01373  -0.001403  0.003466  -0.008757  0.8492  -0.003718
6.299e+09  0.7214  0.4331  -0.01272  0.006458  0.00198  -0.001724  0.7502  -0.249
6.3e+09  0.8343  0.07786  -0.01302  0.002437  -0.04068  -0.01333  0.6553  -0.4986
6.301e+09  0.8351  -0.1753  0.02592  -0.02584  -0.03539  -0.01217  0.416  -0.7091
6.302e+09  0.6818  -0.4491  -0.003186  0.003665  -0.007639  -0.009894  0.1613  -0.8121
6.304e+09  0.4908  -0.661  -0.0233  0.0124  -0.03762  -0.05315  -0.1964  -0.8383
6.305e+09  0.2621  -0.7968  -0.002418  0.03041  0.02207  -0.005805  -0.4333  -0.7024
6.306e+09  -0.04468  -0.8608  -0.008134  -0.01146  -0.0415  -0.01962  -0.6391  -0.5468
6.308e+09  -0.3449  -0.7833  -0.01162  -0.02732  -0.02134  -0.03154  -0.8221  -0.2992
6.309e+09  -0.5681  -0.5816  -0.005608  -0.003872  0.009724  -0.048  -0.8271  -0.02367
6.31e+09  -0.7332  -0.3877  -0.03068  0.005881  -0.02287  -0.01226  -0.8251  0.2569
6.311e+09  -0.8487  -0.08126  -0.003416  -0.01377  0.0005663  0.0116  -0.6478  0.5783
6.312e+09  -0.76  0.1575  0.003772  -0.007086  -0.006053  -0.02295  -0.4703  0.7564
6.314e+09  -0.6615  0.4677  0.02496  -0.0296  0.003057  -0.006982  -0.1647  0.8476
6.315e+09  -0.5423  0.7068  -0.002875  -0.003548  0.0205  0.005341  0.1441  0.8972
6.316e+09  -0.2447  0.812  0.01968  -0.03348  -0.009842  0.02323  0.4158  0.7768
6.318e+09  0.09848  0.8833  0.01114  0.03637  -0.0329  0.01496  0.6608  0.5745
6.319e+09  0.3735  0.7555  -0.007169  0.002897  0.0583  0.03409  0.8094  0.301
6.32e+09  0.613  0.5811  0.01706  0.008195  0.04362  0.02055  0.8931  0.01544
6.321e+09  0.7692  0.3423  -0.00862  0.02295  0.02527  0.03602  0.8371  -0.2815
6.322e+09  0.8446  0.0247  -0.005505  -0.008055  0.02113  -0.003043  0.6867  -0.5801
6.324e+09  0.787  -0.2892  0.0003999  0.002169  0.01604  0.003319  0.451  -0.7761
6.325e+09  0.6655  -0.5285  -0.02298  -5.933e-05  -0.0413  0.02872  0.1621  -0.8583
6.326e+09  0.5017  -0.7709  0.01135  -0.01435  0.0133  -0.01911  -0.1425  -0.8689
6.328e+09  0.1455  -0.8294  0.001836  -0.01363  -0.03171  -0.03914  -0.4233  -0.7659
6.329e+09  -0.1753  -0.8132  -0.03056  0.02426  -0.03375  -0.003838  -0.6876  -0.584
6.33e+09  -0.4484  -0.7496  -0.00342  0.01362  0.01717  -0.02383  -0.8274  -0.3256
6.331e+09  -0.7037  -0.5609  0.00897  -0.02661  -0.04675  0.01812  -0.8967  -0.02028
6.332e+09  -0.8342  -0.3446  -0.04226  0.02368  0.003401  0.006915  -0.8655  0.2916
6.334e+09  -0.8796  0.03248  0.002575  -0.004964  0.01605  -0.02453  -0.7066  0.5378
6.335e+09  -0.8683  0.339  0.01269  0.005771  -0.01258  -0.02385  -0.4848  0.7572
6.336e+09  -0.6664  0.5889  -0.0159  0.02446  -0.03142  0.003967  -0.1683  0.9028
6.338e+09  -0.3874  0.7395  -0.01143  -0.02877  0.02623  -0.01668  0.1204  0.901
6.339e+09  -0.1048  0.886  -0.004084  -0.02063  0.001369  -0.02146  0.4317  0.7864
6.34e+09  0.2144  0.7961  -0.01823  0.01244  0.0129  -0.007592  0.6964  0.6587
6.341e+09  0.4337  0.751  0.007089  0.002507  -0.02  0.01523  0.8834  0.3858
6.342e+09  0.7197  0.5713  -0.01074  0.06886  -0.001074  0.01173  0.889  0.0457
6.344e+09  0.8889  0.2378  -0.008471  -0.01473  0.04101  -0.006674  0.8738  -0.2682
6.345e+09  0.8767  -0.02846  0.006453  -0.03291  0.01588  -0.02313  0.7402  -0.563
6.346e+09  0.8088  -0.3651  0.01993  -0.004415  -0.03401  0.01818  0.4875  -0.7987
6.348e+09  0.6172  -0.5994  -0.002601  -0.002201  -0.02142  -0.02937  0.1876  -0.9163
6.349e+09  0.3556  -0.8159  -0.02077  -0.007463  -0.03611  -0.03594  -0.1025  -0.9122
6.35e+09  0.03949  -0.9112  -0.008324  -0.0427  -0.004509  0.01567  -0.3863  -0.8569
6.351e+09  -0.29  -0.8502  0.006347  -0.04369  0.008258  -0.01258  -0.6651  -0.6215
6.352e+09  -0.5076  -0.7003  -0.01236  0.004873  0.0001915  -0.001723  -0.8792  -0.3855
6.354e+09  -0.7513  -0.4638  -0.02146  0.01393  0.004702  0.02835  -0.947  -0.07609
6.355e+09  -0.8607  -0.1532  -0.01916  -0.02805  0.0002331  -0.0199  -0.9045  0.2607
6.356e+09  -0.8439  0.09407  -0.00827  -0.02454  -0.01744  0.01615  -0.7691  0.5277
6.358e+09  -0.7783  0.4073  0.01888  -0.0322  -0.008632  -0.03071  -0.5213  0.8117
6.359e+09  -0.5738  0.7044  0.02109  0.02905  -0.007164  -0.03168  -0.233  0.9215
6.36e+09  -0.2789  0.8597  0.01033  0.03618  0.001352  0.01385  0.09039  0.9348
6.361e+09  -0.01687  0.8709  -0.007329  0.004044  0.0072  0.02082  0.3944  0.835
6.362e+09  0.32  0.832  0.0247  -0.02931  0.001825  0.02148  0.6334  0.6608
6.364e+09  0.5371  0.6952  0.03395  -0.0001478  0.02494  0.04351  0.8354  0.3623
6.365e+09  0.776  0.4116  0.01333  0.0219  -0.0006757  -0.01502  0.9455  0.146
6.366e+09  0.8804  0.1622  0.04172  0.01887  -0.005348  0.03983  0.8732  -0.259
6.368e+09  0.8669  -0.1715  0.001985  -0.01407  -0.02859  -0.009412  0.766  -0.5341
6.369e+09  0.7516  -0.4421  0.005954  0.01482  0.06728  0.02117  0.5599  -0.7342
6.37e+09  0.5316  -0.6924  0.007005  -0.003339  -0.02943  0.04927  0.2415  -0.938
6.371e+09  0.2815  -0.8419  0.02486  0.01302  -0.04198  0.007275  -0.07818  -0.9667
6.372e+09  -0.04764  -0.8832  0.06961  -0.03162  0.03478  0.000399  -0.3725  -0.8302
6.374e+09  -0.2964  -0.8123  0.004053  -0.01906  0.006548  -0.04176  -0.6895  -0.691
6.375e+09  -0.5808  -0.6389  -0.02324  -0.005117  -0.01256  0.02426  -0.8356  -0.4119
6.376e+09  -0.7605  -0.3765  0.006695  0.02051  -0.01308  0.03533  -0.9336  -0.09758
6.378e+09  -0.8617  -0.1072  -0.003246  0.03001  0.02241  -0.03085  -0.9427  0.2059
6.379e+09  -0.8675  0.1981  0.001948  0.03722  -0.00433  0.01573  -0.7955  0.5147
6.38e+09  -0.7286  0.5374  -0.01065  -0.03743  -0.01465  0.03101  -0.5943  0.7829
6.381e+09  -0.5177  0.7499  -0.06262  -0.009009  -0.02454  0.05614  -0.2762  0.8748
6.382e+09  -0.2478  0.8615  -0.0006175  -0.02539  -0.01849  0.06565  0.07765  0.9682
6.384e+09  0.06886  0.8392  -0.01763  -0.005879  -0.0501  -0.02596  0.3111  0.806
6.385e+09  0.3793  0.7944  -0.008174  0.01805  0.02454  0.0278  0.6379  0.7075
6.386e+09  0.6378  0.645  0.007092  -0.04669  0.04271  -0.05704  0.8269  0.4205
6.388e+09  0.8128  0.362  -0.01834  0.02308  0.01898  -0.02761  0.9222  0.09023
6.389e+09  0.878  0.03006  0.001802  -0.03984  0.0155  0.01318  0.9289  -0.1648
6.39e+09  0.8623  -0.2412  -0.0008806  0.001879  0.01438  -0.03475  0.7962  -0.5268
6.391e+09  0.703  -0.5436  0.04545  0.01009  -0.01682  0.006197  0.6096  -0.7186
6.392e+09  0.4788  -0.7651  0.0197  0.03443  -0.03862  -0.01453  0.2532  -0.8762
6.394e+09  0.2448  -0.8827  0.01295  0.00955  -0.02974  0.02759  -0.04004  -0.93
6.395e+09  -0.1051  -0.8631  -0.02892  0.03174  -0.001777  0.01398  -0.3328  -0.8556
6.396e+09  -0.4065  -0.8186  0.007843  0.007802  0.02477  0.03015  -0.6084  -0.6917
6.398e+09  -0.6546  -0.5998  -0.007127  0.02764  -0.01272  -0.02424  -0.8055  -0.4876
6.399e+09  -0.8449  -0.3362  0.001576  0.01754  0.00141  0.002243  -0.888  -0.1642
6.4e+09  -0.8907  -0.02827  -0.002889  0.03213  0.001829  0.03068  -0.8666  0.1467
6.401e+09  -0.852  0.2633  -0.02951  -0.007715  -0.01661  -0.008647  -0.7825  0.5209
6.402e+09  -0.7135  0.5428  -0.02288  -0.0002198  0.01481  0.04477  -0.5499  0.7144
6.404e+09  -0.4533  0.7  -0.005335  0.001133  -0.01875  -0.006685  -0.2952  0.8673
6.405e+09  -0.2238  0.8829  -0.005237  -0.01762  0.009872  0.02174  -0.03123  0.9435
6.406e+09  0.0874  0.878  0.02026  -0.05172  0.01094  -0.00134  0.3057  0.8509
6.408e+09  0.4335  0.7954  -0.02754  0.009224  -0.02826  -0.006007  0.5866  0.6834
6.409e+09  0.6999  0.5921  0.003404  0.03987  0.03762  0.02636  0.7655  0.4674
6.41e+09  0.7647  0.3335  0.03727  0.00745  -0.02288  0.004983  0.8487  0.1821
6.411e+09  0.899  0.02937  0.02395  0.009537  0.01266  -0.02441  0.9259  -0.1668
6.412e+09  0.8041  -0.3025  0.01527  0.01664  0.004837  0.01788  0.8074  -0.435
6.414e+09  0.6587  -0.573  0.005446  0.06505  -0.0007966  0.003476  0.5485  -0.684
6.415e+09  0.4332  -0.8159  -0.02686  0.0169  0.01675  0.01498  0.3053  -0.8339
6.416e+09  0.1598  -0.9033  -0.001962  0.005629  0.01863  0.009319  0.0334  -0.9422
6.418e+09  -0.18  -0.9118  -0.01905  0.003248  0.000362  0.01737  -0.2205  -0.8583
6.419e+09  -0.4651  -0.7958  0.01786  9.903e-06  -0.01293  0.03382  -0.5187  -0.7457
6.42e+09  -0.6395  -0.5857  0.03383  0.005239  -0.02678  -0.02228  -0.7511  -0.4907
6.421e+09  -0.8519  -0.2837  0.01053  -0.01312  -0.0309  -0.01263  -0.8871  -0.1832
6.422e+09  -0.9282  0.02841  0.0008512  -0.008271  -0.04608  -0.01766  -0.847  0.07022
6.424e+09  -0.8269  0.2926  -0.04144  0.01296  0.008379  -0.0001832  -0.7597  0.3765
6.425e+09  -0.7211  0.5918  0.01818  0.00837  0.02668  0.03097  -0.6322  0.699
6.426e+09  -0.4657  0.7982  0.03144  0.01848  0.008096  -0.0407  -0.3711  0.8268
6.428e+09  -0.1221  0.853  -0.05506  -0.002285  -0.02968  -0.01938  -0.05983  0.8983
6.429e+09  0.1664  0.9596  -0.008004  -0.008918  -0.001854  -0.02847  0.2446  0.8726
6.43e+09  0.4194  0.8097  -0.0125  -0.003978  0.01355  -0.02798  0.4698  0.7502
6.431e+09  0.7009  0.5748  0.02646  0.01641  0.02067  0.004806  0.7307  0.4534
6.432e+09  0.8668  0.3202  -0.03523  0.001288  -0.01312  -0.01088  0.8891  0.2046
6.434e+09  0.8743  -0.02483  0.0373  -0.002464  0.04391  -0.03749  0.8749  -0.1465
6.435e+09  0.8153  -0.321  -0.009675  -0.01618  0.0313  -0.02421  0.7551  -0.3954
6.436e+09  0.7068  -0.6254  -0.009394  0.03256  -0.02211  0.01456  0.6113  -0.6019
6.438e+09  0.4309  -0.7422  -0.02723  0.02349  0.05524  0.01894  0.3269  -0.7724
6.439e+09  0.09895  -0.9195  0.05751  0.008398  0.04443  0.004512  0.03615  -0.847
6.44e+09  -0.2336  -0.902  0.006183  0.03286  -0.01079  0.02363  -0.2271  -0.8091
6.441e+09  -0.5049  -0.792  0.00825  -0.03675  0.02852  0.01716  -0.4866  -0.6652
6.442e+09  -0.7011  -0.572  -0.02603  -0.004491  1.746e-05  0.01323  -0.6847  -0.5001
6.444e+09  -0.9097  -0.2846  -0.02075  -0.01165  0.004165  -0.02355  -0.8214  -0.2207
6.445e+09  -0.8938  0.04698  0.03257  0.03202  0.001115  -0.01365  -0.8476  0.08027
6.446e+09  -0.8092  0.358  0.06186  -0.02278  0.008913  0.002407  -0.7849  0.3305
6.448e+09  -0.6915  0.6226  0.02606  -0.00559  0.01744  0.03545  -0.5672  0.5855
6.449e+09  -0.4033  0.8049  0.01367  0.006744  0.03289  -0.02466  -0.3477  0.7811
6.45e+09  -0.0358  0.9109  -0.04283  -0.01989  0.02794  -0.02712  -0.08746  0.8028
6.451e+09  0.2628  0.895  -0.06301  0.0348  0.05545  -0.0003475  0.21  0.794
6.452e+09  0.5167  0.7704  0.01014  0.03214  0.001508  0.01838  0.4798  0.6657
6.454e+09  0.7023  0.5264  0.01455  -0.03168  0.03975  0.009259  0.6625  0.4858
6.455e+09  0.8876  0.2156  0.01897  -0.002093  0.02301  -0.03223  0.7652  0.211
6.456e+09  0.8732  -0.05243  -0.008535  0.03615  -0.003648  0.02611  0.8299  -0.04022
6.458e+09  0.8369  -0.3778  -0.02436  0.03115  -0.04002  -0.0417  0.7675  -0.3227
6.459e+09  0.6704  -0.6235  -0.03006  -0.0163  -0.05784  0.01305  0.5758  -0.5131
6.46e+09  0.4093  -0.8003  -0.009793  0.0185  -0.001619  -0.05434  0.3747  -0.7381
6.461e+09  0.03749  -0.9235  0.004538  -0.007713  0.0586  0.008556  0.06066  -0.8171
6.462e+09  -0.221  -0.8549  0.01393  -0.009877  0.01965  0.01966  -0.2457  -0.785
6.464e+09  -0.5048  -0.7505  0.002656  -0.006722  -0.0133  -0.002159  -0.4905  -0.6433
6.465e+09  -0.7593  -0.4962  -0.004022  -0.02212  0.0253  0.03817  -0.6544  -0.4373
6.466e+09  -0.8978  -0.2525  -0.02273  -0.01245  0.009338  -0.006038  -0.775  -0.1785
6.468e+09  -0.9378  0.1247  0.004715  -0.01558  -0.04831  0.006161  -0.7687  0.103
6.469e+09  -0.8409  0.4363  0.002354  0.007085  0.02786  -0.02118  -0.7142  0.3545
6.47e+09  -0.6118  0.6229  0.002414  0.007015  0.02837  0.00546  -0.5683  0.5387
6.471e+09  -0.3355  0.8102  0.01668  0.01516  -0.0138  -0.07525  -0.3563  0.7537
6.472e+09  -0.08267  0.9508  0.01615  0.02467  -0.01514  0.02127  0.006386  0.7817
6.474e+09  0.2795  0.8911  -0.02813  0.02265  -0.03966  -0.009091  0.2002  0.7349
6.475e+09  0.6012  0.796  0.003932  0.02148  0.01581  -0.03368  0.4431  0.6291
6.476e+09  0.7754  0.4834  0.01518  0.02437  0.01652  0.01154  0.6621  0.5013
6.478e+09  0.9491  0.1559  0.0641  0.0156  0.0384  -0.04837  0.8005  0.1943
6.479e+09  0.9248  -0.1573  -0.01642  0.008084  -0.0007573  -0.02493  0.7519  -0.08256
6.48e+09  0.8483  -0.4975  0.02322  -0.05512  -0.01597  0.03671  0.6765  -0.3392
6.481e+09  0.6029  -0.7231  0.03105  -0.01006  0.01778  0.03444  0.5229  -0.5762
6.482e+09  0.3877  -0.8913  0.03525  0.001623  0.009345  -0.01019  0.3349  -0.7346
6.484e+09  0.02013  -0.9754  0.03118  0.053  0.005328  -0.01541  0.05827  -0.7717
6.485e+09  -0.3492  -0.8754  -0.02526  -0.003487  0.001658  0.02786  -0.1837  -0.7436
6.486e+09  -0.6012  -0.7374  -0.004331  0.0468  -0.02513  0.01133  -0.4849  -0.6435
6.488e+09  -0.8544  -0.4572  -0.02553  0.004112  0.003071  0.01617  -0.6412  -0.4621
6.489e+09  -0.9371  -0.2011  0.02068  -0.006395  -0.003302  -0.003291  -0.7598  -0.198
6.49e+09  -0.9791  0.239  0.007359  0.01663  -0.02373  0.02036  -0.7538  0.06535
6.491e+09  -0.7562  0.5357  0.01381  -0.02718  -0.02103  0.005439  -0.7053  0.3234
6.492e+09  -0.6152  0.7155  0.02083  0.01014  -0.02199  0.03094  -0.5486  0.549
6.494e+09  -0.2176  0.9055  0.004889  0.002214  0.01024  -0.02174  -0.2769  0.7251
6.495e+09  0.05289  0.9297  -0.02175  0.0001276  -0.01708  0.07916  -0.0366  0.748
6.496e+09  0.3922  0.9065  0.02634  0.009941  -0.03956  0.007346  0.2087  0.7237
6.498e+09  0.6762  0.7013  -0.004748  0.04288  -0.01471  0.002936  0.4787  0.5991
6.499e+09  0.8273  0.3894  0.01917  -0.009055  0.01353  -0.02187  0.6781  0.4051
6.5e+09  0.9209  0.09386  0.02896  -0.02314  0.02417  -0.02208  0.742  0.1858
6.501e+09  0.944  -0.2284  -0.01438  -0.006862  -0.01071  0.01548  0.7638  -0.1389
6.502e+09  0.7567  -0.5668  0.02353  0.01194  -0.03824  -0.003213  0.6426  -0.3474
6.504e+09  0.5478  -0.7748  -0.01161  0.0173  -0.01545  0.009812  0.4769  -0.5738
6.505e+09  0.2252  -0.9806  -0.03013  -0.01815  -0.05321  0.002893  0.3125  -0.7391
6.506e+09  -0.1694  -0.9501  -0.01228  -0.04363  -0.02718  0.04  0.02435  -0.7161
6.508e+09  -0.4531  -0.8602  -0.005256  0.01773  -0.01119  0.01591  -0.2477  -0.7668
6.509e+09  -0.7167  -0.6417  0.0309  -0.01061  -0.01848  -0.0008652  -0.4693  -0.5462
6.51e+09  -0.8937  -0.3024  0.0324  -0.007229  -0.015  -0.0451  -0.6615  -0.384
6.511e+09  -1.002  0.008098  0.003696  0.01553  -0.01464  0.01787  -0.7179  -0.149
6.512e+09  -0.9325  0.3164  0.008075  0.01573  0.005206  0.01159  -0.7403  0.1417
6.514e+09  -0.7043  0.6263  0.008454  -0.01725  0.0493  -0.007352  -0.6449  0.4005
6.515e+09  -0.4704  0.8205  0.03385  -0.008473  -0.009185  -0.02297  -0.4933  0.5764
6.516e+09  -0.103  0.9603  0.04263  -0.01788  -0.009631  0.01743  -0.2511  0.6964
6.518e+09  0.2024  0.9202  0.009288  -0.03302  0.01675  -0.02284  0.01274  0.7252
6.519e+09  0.5459  0.821  0.01052  -0.02052  -0.01921  -0.04813  0.3  0.683
6.52e+09  0.7564  0.5368  -0.008694  -0.0442  0.009639  0.03044  0.4829  0.5368
6.521e+09  0.9325  0.245  0.02688  0.01304  0.01649  0.006788  0.6441  0.3731
6.522e+09  0.9606  -0.1129  0.02828  -0.01726  -0.01669  0.02955  0.7519  0.1226
6.524e+09  0.8982  -0.449  0.00245  -0.0408  0.02281  -0.0286  0.7133  -0.1218
6.525e+09  0.6549  -0.6705  -0.003534  -0.01398  0.01899  0.01745  0.6263  -0.4207
6.526e+09  0.4014  -0.8858  0.03248  0.0004152  -0.0753  -0.03422  0.4178  -0.557
6.528e+09  0.05273  -0.96  0.001954  -0.004512  0.00257  -0.006793  0.1856  -0.6951
6.529e+09  -0.3011  -0.9166  0.03827  0.006391  0.005137  -0.008831  -0.09109  -0.6994
6.53e+09  -0.599  -0.7398  0.001627  0.006429  -0.02218  -0.01475  -0.2874  -0.5961
6.531e+09  -0.815  -0.5176  0.01925  -0.007587  -0.002808  0.01134  -0.4644  -0.4925
6.532e+09  -0.9213  -0.2028  0.00371  0.01696  0.007644  0.02924  -0.5793  -0.2944
6.534e+09  -0.9603  0.1814  -0.009594  0.02718  0.01344  0.01783  -0.6419  -0.05809
6.535e+09  -0.8139  0.4669  0.009104  -0.0336  -0.04552  0.0184  -0.6146  0.14
6.536e+09  -0.5997  0.7175  0.01272  -0.0207  0.01778  -0.003563  -0.5285  0.287
6.538e+09  -0.2672  0.8808  -0.01782  -0.02494  0.01192  -0.04887  -0.4569  0.4652
6.539e+09  0.1074  0.9707  0.009292  0.002635  -0.01459  0.004228  -0.2611  0.6289
6.54e+09  0.3658  0.8827  0.01491  0.02324  0.01537  0.01306  -0.04183  0.672
6.541e+09  0.6493  0.647  0.01308  0.01277  0.005444  -0.03076  0.1793  0.6629
6.542e+09  0.8426  0.3832  -0.006374  -0.01287  0.003254  0.02043  0.3893  0.5398
6.544e+09  0.9273  0.0543  0.01636  0.001583  -0.06179  -0.009182  0.5957  0.4005
6.545e+09  0.9001  -0.27  -0.03587  -0.01857  0.0002391  -0.01519  0.7049  0.1551
6.546e+09  0.7043  -0.5081  0.005719  0.02643  -0.02242  0.01149  0.7233  -0.09676
6.548e+09  0.5154  -0.7653  0.021  -0.007651  -0.01149  -0.04591  0.6431  -0.3297
6.549e+09  0.207  -0.8492  0.04249  0.03134  -0.004054  0.03745  0.5102  -0.5183
6.55e+09  -0.1681  -0.903  0.008728  0.002686  -0.02039  -0.01979  0.3019  -0.6199
