# Hz S RI R 50
6.25e+09  -0.775  -0.2673  0.001668  -0.0009098  -0.03646  0.09166  0.163  0.5044
6.251e+09  -0.7514  0.07736  -0.01083  -0.01216  -0.02887  0.06051  0.3696  0.3995
6.252e+09  -0.7293  0.2687  -0.007122  -0.008692  -0.0007693  0.01062  0.5188  0.2358
6.254e+09  -0.5892  0.5284  0.01155  -0.02707  0.01509  0.03311  0.5941  -0.002785
6.255e+09  -0.3337  0.7857  0.02522  -0.01233  0.04621  0.0103  0.5883  -0.244
6.256e+09  -0.09646  0.8396  0.02125  -0.006758  0.01154  0.07662  0.471  -0.467
6.258e+09  0.184  0.7356  0.01743  -0.005453  0.01816  -0.01006  0.2562  -0.5974
6.259e+09  0.531  0.682  0.01601  -0.009207  0.004347  0.01473  0.05192  -0.7008
6.26e+09  0.7605  0.4277  -0.01514  -0.001041  -0.004234  -0.03078  -0.2271  -0.6305
6.261e+09  0.7631  0.1688  -0.022  0.02169  -0.03552  -0.001497  -0.429  -0.5422
6.262e+09  0.8102  -0.1097  0.02615  -0.01184  0.02138  -0.02505  -0.5979  -0.3571
6.264e+09  0.6804  -0.3724  -0.003558  -0.005921  0.03032  0.01631  -0.6989  -0.1096
6.265e+09  0.5145  -0.5437  -0.009083  -0.00243  -0.03218  -0.03171  -0.6826  0.1494
6.266e+09  0.2958  -0.7161  0.01683  0.008081  0.01739  0.05574  -0.5944  0.4136
6.268e+09  0.01494  -0.7812  -0.004407  -0.01236  -0.008064  -0.02544  -0.4232  0.5738
6.269e+09  -0.2588  -0.7624  -0.004981  -0.008991  0.004452  -0.009401  -0.1871  0.7443
6.27e+09  -0.4592  -0.6476  -0.00835  -0.03031  0.02775  0.004533  0.05784  0.7596
6.271e+09  -0.6619  -0.4197  -0.005003  0.007422  0.01782  -0.005921  0.2893  0.6762
6.272e+09  -0.7961  -0.182  -0.001768  0.02833  -0.007996  0.006873  0.5519  0.5154
6.274e+09  -0.7455  0.1189  -0.02633  -0.000732  0.04928  0.02124  0.6882  0.2926
6.275e+09  -0.7148  0.3681  -0.01619  0.02  0.02911  0.02312  0.7855  0.05511
6.276e+09  -0.5105  0.59  6.035e-06  -0.006363  -0.01637  -0.008595  0.7469  -0.2299
6.278e+09  -0.2552  0.727  0.02264  0.005225  -0.0118  0.03253  0.5998  -0.4558
6.279e+09  -0.02532  0.7927  -0.006498  -0.008595  0.03851  -0.03838  0.3761  -0.6387
6.28e+09  0.3086  0.7675  -0.01105  0.01305  -0.008456  -0.005777  0.1495  -0.7884
6.281e+09  0.5288  0.5812  0.01883  -0.03362  -0.06593  0.05631  -0.09789  -0.7445
6.282e+09  0.6405  0.3741  -0.01913  0.01266  0.0312  -0.06567  -0.3678  -0.6971
6.284e+09  0.8148  0.1565  0.01078  0.0247  -0.01801  0.02427  -0.5891  -0.4923
6.285e+09  0.8101  -0.08148  -0.014  0.01294  -0.003005  0.03598  -0.7271  -0.2979
6.286e+09  0.721  -0.4316  0.02614  0.02465  -0.001733  0.03516  -0.7937  0.01358
6.288e+09  0.4393  -0.684  0.001659  -0.03868  -0.03672  0.01032  -0.7619  0.2721
6.289e+09  0.2715  -0.7987  0.001639  0.008227  -0.0007701  0.0203  -0.6337  0.4791
6.29e+09  -0.02829  -0.7813  -7.03e-05  -0.006765  0.01795  -0.03113  -0.3774  0.6548
6.291e+09  -0.2688  -0.7612  -0.01937  0.01542  -0.03304  -0.03089  -0.153  0.8015
6.292e+09  -0.5581  -0.632  -0.008954  -0.02192  0.01606  -0.005762  0.1059  0.8086
6.294e+09  -0.712  -0.4065  0.02436  -0.03233  -0.01809  -0.02835  0.417  0.7156
6.295e+09  -0.8278  -0.1158  -0.01958  -0.01012  -0.009352  -0.00534  0.6393  0.5228
6.296e+09  -0.8314  0.2131  0.01621  0.03416  -0.02247  -0.04107  0.7839  0.291
6.298e+09  -0.6623  0.4545  0.01159  -0.0001373  0.007677  -0.009429  0.8236  0.01839
6.299e+09  -0.4732  0.7115  0.01579  0.01694  0.02145  0.00493  0.8007  -0.2765
6.3e+09  -0.2177  0.783  -0.02217  0.01042  -0.001466  0.004153  0.638  -0.4996
6.301e+09  0.05628  0.8015  -0.01091  -0.02394  0.01119  -0.02524  0.3887  -0.7131
6.302e+09  0.3532  0.7402  -0.02209  0.009604  0.03208  0.0045  0.1315  -0.8074
6.304e+09  0.5913  0.5795  0.005008  -0.001759  0.008407  -0.03997  -0.1302  -0.8535
6.305e+09  0.7619  0.3615  0.02546  0.01422  0.02921  0.05751  -0.4213  -0.7618
6.306e+09  0.8236  0.04291  -0.03743  -0.03323  0.0311  -0.007272  -0.634  -0.5426
6.308e+09  0.7331  -0.2369  0.02077  0.01568  0.003584  -0.006712  -0.8405  -0.3021
6.309e+09  0.6381  -0.4915  0.01269  -0.02578  0.01763  0.0387  -0.8529  -0.04058
6.31e+09  0.4216  -0.6698  0.005939  -0.01554  0.05641  -0.04207  -0.7978  0.2949
6.311e+09  0.1918  -0.792  0.008273  -0.05148  -0.05105  0.01492  -0.6798  0.5487
6.312e+09  -0.08911  -0.7981  0.01567  -0.05161  -0.01136  -0.007624  -0.43  0.7389
6.314e+09  -0.3504  -0.7473  -0.002337  -0.01296  -0.002861  -0.04285  -0.1251  0.8545
6.315e+09  -0.5957  -0.5092  -0.02531  -0.02761  0.03006  -0.05256  0.1194  0.8804
6.316e+09  -0.7871  -0.3171  -0.01439  -0.002319  0.04649  -0.004483  0.4313  0.7792
6.318e+09  -0.8167  -0.03834  -0.021  0.03304  -0.004581  -0.01739  0.6774  0.5588
6.319e+09  -0.8168  0.3152  -0.01267  -0.02677  -0.005163  -0.007914  0.7898  0.3096
6.32e+09  -0.6466  0.5434  -0.01051  0.0159  -0.04095  -0.01838  0.9128  0.02939
6.321e+09  -0.389  0.7206  -0.03746  -0.002856  0.005755  -0.01693  0.8381  -0.3075
6.322e+09  -0.1036  0.8188  -0.005034  -0.01963  0.03638  -0.02138  0.6611  -0.5803
6.324e+09  0.2085  0.7779  0.01223  0.0172  -0.02283  0.01564  0.4694  -0.7554
6.325e+09  0.4691  0.7148  0.02534  -0.005234  0.01938  -0.0007534  0.1825  -0.8752
6.326e+09  0.6869  0.5113  -0.003265  0.003686  -0.00353  0.002  -0.1184  -0.8515
6.328e+09  0.8285  0.2361  -0.007656  -0.0261  -0.01777  0.01167  -0.4264  -0.7601
6.329e+09  0.8207  -0.05609  0.004072  0.009876  0.02587  -0.0146  -0.6627  -0.5873
6.33e+09  0.7653  -0.3199  -0.001842  0.01213  -0.03697  0.03782  -0.8166  -0.3611
6.331e+09  0.5955  -0.5653  -0.002006  0.018  0.01135  0.03204  -0.9433  -0.02216
6.332e+09  0.295  -0.7667  0.01558  0.006614  0.03289  0.03134  -0.8578  0.2547
6.334e+09  0.08688  -0.8336  -0.00524  -0.02114  0.01669  0.01232  -0.7304  0.5231
6.335e+09  -0.2471  -0.8223  0.002494  -0.003141  -0.03022  -0.01884  -0.4971  0.7984
6.336e+09  -0.4721  -0.7199  0.01092  0.03368  0.02475  -0.01236  -0.199  0.8997
6.338e+09  -0.7447  -0.42  0.008606  0.01897  -0.0276  -0.006861  0.1138  0.8971
6.339e+09  -0.8616  -0.1834  -0.01726  -0.01928  -0.002139  0.03106  0.3958  0.8041
6.34e+09  -0.8014  0.1098  -0.03664  -0.03917  -0.00973  0.01414  0.698  0.6524
6.341e+09  -0.743  0.4269  0.01931  0.01555  0.04368  -0.02825  0.8642  0.347
6.342e+09  -0.5695  0.6511  0.02829  0.01105  0.004427  -0.003879  0.9206  0.04564
6.344e+09  -0.2382  0.8254  -0.02054  -0.002312  0.01927  0.01636  0.8541  -0.2479
6.345e+09  0.01914  0.8442  -0.02948  -0.01568  -0.03122  0.001839  0.7497  -0.551
6.346e+09  0.2857  0.8326  3.528e-05  0.0005238  -0.01152  0.01405  0.5111  -0.8089
6.348e+09  0.5354  0.6393  -0.01789  0.02462  0.004139  0.0114  0.2295  -0.8877
6.349e+09  0.765  0.4209  0.02875  0.007162  -0.02672  0.01427  -0.0844  -0.9316
6.35e+09  0.8515  0.1089  0.004802  0.004576  0.01764  0.004551  -0.4269  -0.8422
6.351e+09  0.8377  -0.2183  0.004065  0.03567  -0.04227  0.004787  -0.6522  -0.6711
6.352e+09  0.7314  -0.5001  0.01198  0.01485  0.02342  -0.06339  -0.8568  -0.3974
6.354e+09  0.5107  -0.6487  -0.004916  0.0053  0.007791  0.02719  -0.963  -0.06881
6.355e+09  0.2151  -0.7689  0.009148  -0.03553  -0.008413  -0.04524  -0.901  0.2709
6.356e+09  -0.04965  -0.8435  -0.0261  0.01302  0.03383  -0.01038  -0.7536  0.5411
6.358e+09  -0.3891  -0.7871  -0.01717  0.02708  0.006966  -0.04067  -0.5514  0.7998
6.359e+09  -0.6267  -0.586  0.00874  -0.01535  0.003209  0.02424  -0.2332  0.9234
6.36e+09  -0.794  -0.3331  -0.0125  -0.02016  -0.007789  -0.004088  0.1037  0.9267
6.361e+09  -0.8881  -0.02191  0.01004  -0.02296  -0.0001218  -0.006511  0.4158  0.813
6.362e+09  -0.8128  0.2758  -0.01527  0.02945  0.005742  -0.01604  0.6807  0.6329
6.364e+09  -0.6654  0.5169  0.006954  0.01625  0.03431  0.003081  0.8484  0.4037
6.365e+09  -0.4117  0.7095  -0.04992  0.04305  -0.009211  0.007857  0.9702  0.1038
6.366e+09  -0.1586  0.8709  0.008967  -0.03223  -0.00171  0.0126  0.9418  -0.2718
6.368e+09  0.1969  0.8646  0.009887  0.03578  0.05164  -0.02447  0.7944  -0.5641
6.369e+09  0.4451  0.7586  0.02183  0.01914  -0.01335  0.05032  0.5341  -0.7651
6.37e+09  0.7408  0.5308  0.009493  0.01948  -0.03769  -0.001967  0.2799  -0.873
6.371e+09  0.7865  0.1892  0.02728  -0.02756  0.01453  -0.03943  -0.1216  -0.9309
6.372e+09  0.875  -0.07464  -0.002244  -0.006495  -0.0253  0.002525  -0.4087  -0.8538
6.374e+09  0.8198  -0.3733  0.0002909  0.03461  0.00508  -0.05905  -0.6674  -0.6786
6.375e+09  0.6217  -0.5973  -0.0323  -0.003067  -0.02729  -0.006794  -0.8458  -0.3727
6.376e+09  0.3726  -0.7996  -0.005614  -0.02032  -0.03163  -0.01758  -0.9626  -0.1111
6.378e+09  0.03606  -0.8946  0.05757  0.01894  0.07307  0.03261  -0.9217  0.2172
6.379e+09  -0.2569  -0.7561  0.02652  -0.01065  -0.0495  0.009784  -0.8219  0.5181
6.38e+09  -0.5196  -0.704  -0.004552  -6.279e-05  -0.0168  0.01452  -0.5328  0.7579
6.381e+09  -0.7658  -0.5023  0.04838  -0.02595  0.007028  0.0213  -0.285  0.9233
6.382e+09  -0.8884  -0.1331  0.002429  -0.02646  0.02145  0.02963  0.03474  0.9427
6.384e+09  -0.8655  0.1828  -0.003618  -0.002565  -0.002989  0.04959  0.3951  0.9002
6.385e+09  -0.7349  0.4168  0.01811  0.005772  -0.05584  0.01739  0.6507  0.6694
6.386e+09  -0.5766  0.6649  -0.01262  -0.0343  0.01269  -0.005556  0.7833  0.3712
6.388e+09  -0.266  0.8448  0.05324  0.02431  0.05956  -0.02558  0.8933  0.1193
6.389e+09  0.02181  0.9085  -0.02101  -0.008608  0.001606  -0.03003  0.8733  -0.207
6.39e+09  0.3031  0.7849  0.01492  0.06755  0.02407  -0.004842  0.7754  -0.4972
6.391e+09  0.5739  0.6415  -0.002562  -0.0237  -0.02597  -0.01719  0.5541  -0.7713
6.392e+09  0.7644  0.3792  -0.01839  -0.01251  0.02164  -0.006442  0.2917  -0.8707
6.394e+09  0.8688  0.09551  0.01185  -0.005811  0.004296  -0.0009075  0.01925  -0.9089
6.395e+09  0.8483  -0.2099  -0.02297  0.01059  -0.01546  0.03979  -0.3527  -0.835
6.396e+09  0.6999  -0.482  -0.03525  -0.006332  0.004872  -0.008133  -0.6084  -0.7158
6.398e+09  0.4922  -0.7537  -0.0501  0.01588  0.007416  0.03148  -0.8047  -0.4237
6.399e+09  0.1711  -0.8072  -0.01671  -0.01469  -0.0002203  -0.01259  -0.8747  -0.1432
6.4e+09  -0.1127  -0.8503  -0.01245  0.04296  0.04547  0.04211  -0.8919  0.1412
6.401e+09  -0.4284  -0.734  -0.02902  -0.01082  0.01251  -0.01477  -0.8245  0.5047
6.402e+09  -0.6924  -0.5624  0.01923  0.006075  -0.01489  0.07235  -0.6203  0.7088
6.404e+09  -0.7787  -0.3283  0.00424  -0.02224  0.01075  0.02886  -0.3227  0.8533
6.405e+09  -0.8637  -0.008841  -0.01155  0.04137  0.00608  0.006972  -0.0102  0.9422
6.406e+09  -0.8517  0.319  0.02261  -0.004198  0.004558  0.00253  0.3175  0.875
6.408e+09  -0.6709  0.5831  -0.003462  -0.03941  -0.02373  0.02105  0.574  0.7016
6.409e+09  -0.4004  0.7496  -0.013  0.00186  0.01137  -0.03065  0.7858  0.4218
6.41e+09  -0.1336  0.8701  0.02666  0.01894  0.005741  0.005612  0.9412  0.1919
6.411e+09  0.1588  0.8663  0.01085  -0.05115  0.01047  0.03708  0.9475  -0.1102
6.412e+09  0.4822  0.7537  0.001864  0.009703  0.007484  0.009474  0.7793  -0.4232
6.414e+09  0.7101  0.53  0.00807  0.009705  -0.01039  -0.012  0.6241  -0.6583
6.415e+09  0.811  0.2435  -0.001689  0.03382  0.02252  -0.04352  0.3055  -0.8345
6.416e+09  0.8204  -0.1061  0.02833  0.03375  -0.05419  0.02735  0.04729  -0.9461
6.418e+09  0.7644  -0.3428  0.001738  0.02284  -0.01874  0.0243  -0.2616  -0.8391
6.419e+09  0.6041  -0.6452  0.03427  -0.03352  -0.01167  -0.01974  -0.5354  -0.7361
6.42e+09  0.35  -0.8046  -0.01895  -0.013  -0.02759  0.004924  -0.7471  -0.4987
6.421e+09  0.07343  -0.8161  -0.03202  0.032  -0.007818  0.06779  -0.9253  -0.2424
6.422e+09  -0.1868  -0.8484  -0.02743  0.0005003  -0.01667  -0.003266  -0.8679  0.1384
6.424e+09  -0.5668  -0.7019  -0.004784  0.005627  -0.000398  -0.005889  -0.7502  0.3774
6.425e+09  -0.7393  -0.482  -0.02562  -0.003244  0.02037  0.002152  -0.5936  0.6877
6.426e+09  -0.8073  -0.2172  0.007719  0.01103  0.0367  -0.05731  -0.3757  0.8291
6.428e+09  -0.8549  0.1101  -0.03052  -0.02768  0.0175  0.002868  -0.08227  0.8491
6.429e+09  -0.7737  0.4026  -0.01536  0.003874  -0.007453  -0.03418  0.2498  0.8213
6.43e+09  -0.6  0.7164  0.003593  0.04355  0.02157  -0.02119  0.4972  0.7187
6.431e+09  -0.2889  0.7414  -0.06545  -0.007599  -0.01815  0.001043  0.7191  0.4532
6.432e+09  -0.01296  0.8992  -0.02073  -0.02015  -6.603e-05  0.006903  0.8475  0.2351
6.434e+09  0.2357  0.761  0.002804  0.02705  0.01382  0.02478  0.904  -0.02789
6.435e+09  0.5265  0.6855  -0.01392  -0.01186  0.04518  -0.01145  0.7555  -0.4066
6.436e+09  0.7141  0.4541  -0.02214  0.0035  0.002301  0.047  0.5709  -0.588
6.438e+09  0.8592  0.1599  -0.01855  0.0004981  0.02472  0.01507  0.3571  -0.7564
6.439e+09  0.8031  -0.1617  0.0149  0.01095  -0.0413  0.0244  0.04438  -0.8237
6.44e+09  0.7151  -0.453  0.012  -0.01407  0.009902  -0.00571  -0.2166  -0.8204
6.441e+09  0.5519  -0.6462  -0.05805  -0.03163  0.02697  0.02011  -0.5367  -0.6796
6.442e+09  0.2366  -0.7879  0.0377  0.04522  0.008177  0.02401  -0.7226  -0.4661
6.444e+09  -0.06001  -0.84  0.02031  -0.002568  0.02138  -0.04345  -0.8049  -0.2078
6.445e+09  -0.2746  -0.762  -0.01166  0.02954  0.02621  0.01118  -0.8008  0.07902
6.446e+09  -0.5718  -0.6411  0.01909  0.01301  -0.00169  0.02221  -0.7138  0.3254
6.448e+09  -0.7383  -0.3901  -0.01585  0.03153  -0.005792  -0.009413  -0.5993  0.5808
6.449e+09  -0.8744  -0.106  0.02626  0.003897  -0.01526  0.009186  -0.3432  0.7451
6.45e+09  -0.8578  0.2451  0.03222  0.04203  -0.01084  0.0425  -0.07773  0.8518
6.451e+09  -0.7154  0.4231  0.002045  -0.03091  -0.02878  0.004589  0.2344  0.8278
6.452e+09  -0.5354  0.6634  -0.03515  0.0003327  -0.007206  0.01797  0.4965  0.6613
6.454e+09  -0.2784  0.7776  0.02945  0.02344  -0.03157  0.01996  0.6928  0.4828
6.455e+09  0.06071  0.8068  -0.008996  -0.002614  0.003232  -0.04684  0.7881  0.2093
6.456e+09  0.3249  0.8011  0.002598  -0.03734  -0.01354  -0.03385  0.8055  -0.02831
6.458e+09  0.5831  0.5946  0.01692  0.002596  0.04594  0.02707  0.7307  -0.358
6.459e+09  0.7904  0.3521  0.009624  0.04043  -0.002151  -0.03506  0.6071  -0.5827
6.46e+09  0.8207  0.1014  0.01753  -0.04769  -0.04137  -0.02647  0.3184  -0.7647
6.461e+09  0.7758  -0.2363  -0.01611  -0.01411  0.004334  0.002338  0.06907  -0.8048
6.462e+09  0.6687  -0.4664  0.02036  0.04075  0.0009353  0.01118  -0.1941  -0.769
6.464e+09  0.435  -0.6604  0.04766  -0.0245  -0.07916  0.002747  -0.4542  -0.6139
6.465e+09  0.183  -0.8063  -0.03171  0.07418  0.006006  -0.002311  -0.6594  -0.5056
6.466e+09  -0.1199  -0.8411  -0.008967  -0.003431  -0.03926  0.007374  -0.7726  -0.211
6.468e+09  -0.3363  -0.772  -0.02866  0.00952  0.05  0.01438  -0.8541  0.09556
6.469e+09  -0.6032  -0.5762  0.002787  -0.015  0.02127  0.01748  -0.7389  0.3604
6.47e+09  -0.7574  -0.3744  0.01689  -0.02809  0.02259  -0.009199  -0.5994  0.5503
6.471e+09  -0.8458  -0.06446  0.05134  0.002988  0.04027  0.01744  -0.3277  0.7189
6.472e+09  -0.8247  0.2717  -0.03459  0.01671  -0.01267  0.03496  -0.06106  0.8119
6.474e+09  -0.7045  0.4813  -0.007649  -0.006055  -0.03264  -0.0235  0.226  0.7707
6.475e+09  -0.4847  0.7315  -0.02033  0.02264  0.01219  0.01466  0.4691  0.6213
6.476e+09  -0.2458  0.8312  0.009717  -0.05735  0.01137  -0.0408  0.6544  0.4737
6.478e+09  0.139  0.8403  -0.002209  -0.02967  0.01241  -0.03648  0.7205  0.1749
6.479e+09  0.3635  0.7742  0.01015  0.02699  0.03203  -0.007239  0.762  -0.1067
6.48e+09  0.5909  0.5987  -0.01229  0.0227  -0.01347  0.01806  0.7266  -0.3585
6.481e+09  0.7884  0.3024  -0.04896  0.02099  -0.02301  0.0389  0.5483  -0.5697
6.482e+09  0.7825  0.03816  0.007791  -0.01665  0.01548  0.02815  0.2934  -0.6677
6.484e+09  0.8109  -0.2311  0.01934  -0.01939  0.003927  -0.05938  0.0613  -0.7718
6.485e+09  0.6869  -0.5278  -0.02767  -0.05293  0.009965  0.0221  -0.2017  -0.7359
6.486e+09  0.4189  -0.7086  -0.01148  0.08377  0.00169  -0.02978  -0.4619  -0.6523
6.488e+09  0.1211  -0.8644  -0.01193  -0.001487  -0.01892  0.04313  -0.6348  -0.4227
6.489e+09  -0.08384  -0.8562  0.03605  0.02412  0.0003184  0.02262  -0.7856  -0.2042
6.49e+09  -0.4026  -0.7388  -0.03784  -0.02836  -0.002928  -0.03344  -0.7748  0.09731
6.491e+09  -0.6209  -0.5464  -0.01277  -0.0122  0.05576  0.03274  -0.7255  0.3515
6.492e+09  -0.8051  -0.3347  -0.02365  0.001913  0.01456  -0.03349  -0.5421  0.545
6.494e+09  -0.8871  -0.01162  -0.008641  0.04145  0.01117  -0.02842  -0.303  0.7186
6.495e+09  -0.8026  0.2924  -0.01966  0.01502  0.006881  -0.01813  -0.0211  0.7356
6.496e+09  -0.6681  0.4998  -0.0164  -0.01242  0.01301  -0.03917  0.2481  0.7374
6.498e+09  -0.5088  0.7612  0.003868  -0.01982  0.02384  -0.005885  0.4875  0.6004
6.499e+09  -0.1314  0.8654  -0.004866  0.002117  0.0387  0.01726  0.6374  0.4143
6.5e+09  0.1278  0.8479  -0.01012  0.04058  -0.002121  -0.002092  0.75  0.204
6.501e+09  0.406  0.7361  -0.04235  -0.01288  -0.01091  -0.02353  0.7344  -0.1131
6.502e+09  0.652  0.5761  0.01888  -0.005286  -0.02541  0.005604  0.6476  -0.3664
6.504e+09  0.7878  0.3512  0.01934  0.003051  -0.002129  0.01165  0.5281  -0.5545
6.505e+09  0.8375  0.02541  -0.003034  0.01653  0.021  0.001554  0.2867  -0.6911
6.506e+09  0.7534  -0.285  -0.001921  0.03147  0.002558  0.002134  0.02211  -0.7462
6.508e+09  0.6491  -0.6166  0.01168  -0.03395  0.05122  0.02213  -0.237  -0.7338
6.509e+09  0.489  -0.8153  0.01339  0.009661  -0.02313  -0.01548  -0.4788  -0.5746
6.51e+09  0.1629  -0.8397  -0.01529  -0.01839  -0.005195  -0.0306  -0.6388  -0.3817
6.511e+09  -0.2235  -0.8444  0.009219  -0.0005321  -0.02113  0.02745  -0.7444  -0.1435
6.512e+09  -0.4855  -0.7827  -0.007216  -0.0126  -0.03162  0.00039  -0.7515  0.1427
6.514e+09  -0.6871  -0.5465  0.03764  0.01843  -0.02305  0.003999  -0.6409  0.4111
6.515e+09  -0.8911  -0.3004  -0.01126  0.01765  0.005803  0.00878  -0.4818  0.57
6.516e+09  -0.8714  0.01786  -0.007334  0.04494  -0.01841  0.02012  -0.2745  0.7002
6.518e+09  -0.8315  0.2953  -0.01438  0.01648  0.01303  0.0273  0.04528  0.7469
6.519e+09  -0.7324  0.5888  0.004006  0.004049  0.01923  0.03921  0.271  0.6803
6.52e+09  -0.4237  0.7981  0.003278  -0.03504  -0.0288  0.04634  0.4825  0.5608
6.521e+09  -0.1671  0.8777  -0.009629  -0.03316  -0.02012  0.009437  0.6338  0.3472
6.522e+09  0.1805  0.8795  0.005265  0.01964  0.0002102  -0.002666  0.7222  0.09563
6.524e+09  0.4726  0.7954  0.0036  -0.008622  -0.05226  -0.01475  0.7269  -0.1443
6.525e+09  0.7483  0.6124  -0.002743  -0.02886  0.01145  0.02474  0.6091  -0.3965
6.526e+09  0.8612  0.2987  0.0126  0.01141  -0.02883  0.02821  0.3964  -0.5894
6.528e+09  0.8926  -0.06246  -0.03918  0.02526  0.005487  0.005998  0.1845  -0.6694
6.529e+09  0.8572  -0.311  -0.06264  0.02081  -0.00189  -0.01444  -0.06547  -0.7098
6.53e+09  0.7336  -0.5941  0.03303  -0.03173  -0.05087  -0.04674  -0.307  -0.586
6.531e+09  0.4409  -0.8493  0.01412  -0.03463  -0.009339  0.004821  -0.4597  -0.4704
6.532e+09  0.07112  -0.9661  -0.01691  0.02991  -0.01486  0.03129  -0.5838  -0.2985
6.534e+09  -0.2123  -0.9171  -0.003109  0.008786  0.03638  -0.0201  -0.6334  -0.05693
6.535e+09  -0.5618  -0.7454  0.02491  0.01654  -0.03114  -0.0009775  -0.6133  0.1051
6.536e+09  -0.7833  -0.5252  -0.01204  0.02885  -0.05268  -0.01252  -0.5393  0.3181
6.538e+09  -0.9284  -0.1888  -0.02127  0.01734  0.01463  0.01042  -0.4386  0.4569
6.539e+09  -0.9839  0.1072  0.02148  -0.01051  -0.02903  0.02617  -0.2696  0.5887
6.54e+09  -0.8359  0.4508  -0.01354  0.008453  -0.04321  0.0071  -0.05262  0.7298
6.541e+09  -0.6633  0.7282  -0.008257  0.01656  -0.0008724  0.03256  0.1546  0.6666
6.542e+09  -0.3616  0.8833  -0.00844  0.01564  0.008317  0.01569  0.393  0.5827
6.544e+09  -0.006311  0.991  -0.01889  -0.007437  0.002217  0.02963  0.6268  0.4196
6.545e+09  0.3522  0.8672  -0.004395  0.02963  0.02741  0.03337  0.7077  0.1971
6.546e+09  0.6004  0.7447  0.01504  -0.01884  -0.05484  -0.01676  0.6832  -0.04724
6.548e+09  0.819  0.5395  0.002621  -0.02546  0.002289  -0.00839  0.6732  -0.2932
6.549e+09  0.8976  0.126  0.006708  0.007025  -0.04076  0.04738  0.5031  -0.502
6.55e+09  0.9209  -0.2044  -0.0299  -0.002812  0.02799  0.006261  0.2732  -0.6793
6.551e+09  0.8451  -0.452  -0.0178  0.01961  -0.038  0.02491  0.02908  -0.7322
