# Hz S RI R 50
6.25e+09  -0.7849  0.3701  0.003323  0.006459  0.06767  -0.01404  0.185  0.459
6.251e+09  -0.5498  0.6078  -0.01326  -0.005363  -0.002311  -0.0321  0.3672  0.4083
6.252e+09  -0.2501  0.7936  0.01751  -0.02169  0.01403  -0.02106  0.5636  0.2776
6.254e+09  0.001675  0.8612  -0.03017  0.01019  -0.007402  0.004523  0.5944  0.0304
6.255e+09  0.2604  0.8617  0.007753  -0.03249  0.01021  0.001217  0.5962  -0.1988
6.256e+09  0.5122  0.6786  -0.005416  0.01724  0.01016  0.01557  0.4732  -0.417
6.258e+09  0.7486  0.4471  -0.01369  -0.02904  0.003493  -0.000577  0.2832  -0.592
6.259e+09  0.8347  0.1856  0.008937  -0.01443  0.02733  0.106  0.06653  -0.6554
6.26e+09  0.8249  -0.12  0.007867  0.004748  -0.007589  -0.01138  -0.2085  -0.6551
6.261e+09  0.732  -0.411  0.01897  0.0261  -0.01158  -0.02041  -0.4458  -0.5643
6.262e+09  0.5588  -0.6331  0.002186  -0.01277  0.03222  0.03259  -0.609  -0.3482
6.264e+09  0.3167  -0.7234  -0.005621  -0.008836  0.04863  -0.01411  -0.6965  -0.1359
6.265e+09  0.04229  -0.8514  -0.01739  -0.01298  0.0298  -0.04364  -0.7  0.1566
6.266e+09  -0.2326  -0.7869  0.01522  0.001224  0.01338  0.01075  -0.6209  0.4084
6.268e+09  -0.5089  -0.6492  -0.03633  0.005225  0.08227  0.05186  -0.435  0.5604
6.269e+09  -0.712  -0.4167  -0.00716  0.001794  -0.02175  0.01904  -0.2454  0.695
6.27e+09  -0.8028  -0.1932  0.001645  0.01597  0.01322  -0.01186  0.09101  0.7128
6.271e+09  -0.7612  0.1226  -0.02407  0.02324  -0.01131  -0.01145  0.3014  0.6667
6.272e+09  -0.7104  0.4016  -0.04578  0.007116  -0.01138  0.01568  0.5331  0.5347
6.274e+09  -0.5237  0.6011  0.009961  -0.001075  -0.00821  -0.007707  0.7017  0.29
6.275e+09  -0.2151  0.7689  -0.01134  0.001822  0.0009151  0.03104  0.7435  0.05031
6.276e+09  -0.01157  0.8342  0.03784  -0.02089  0.04179  -0.02053  0.7312  -0.233
6.278e+09  0.2668  0.7282  -0.0004896  -0.04451  -0.006651  -0.03065  0.5847  -0.4752
6.279e+09  0.5063  0.6602  -0.008827  -0.03109  -0.006844  -0.005547  0.3987  -0.6452
6.28e+09  0.6552  0.3655  0.02657  0.02395  0.02203  -0.02203  0.1525  -0.7381
6.281e+09  0.7489  0.143  0.01355  0.01266  0.01381  0.05405  -0.1416  -0.7816
6.282e+09  0.8239  -0.1548  0.01809  -0.001781  -0.03197  0.03705  -0.3609  -0.6641
6.284e+09  0.6915  -0.4194  0.00631  0.005421  -0.009679  0.03715  -0.6165  -0.5478
6.285e+09  0.4754  -0.693  -0.006542  -0.02846  -0.02014  -0.002642  -0.7235  -0.269
6.286e+09  0.2505  -0.7899  0.01492  -0.0001421  -0.0237  0.005398  -0.7878  -0.04347
6.288e+09  -0.03227  -0.8299  -0.01981  -0.02183  0.008999  -0.01845  -0.7271  0.2249
6.289e+09  -0.3184  -0.766  0.03675  0.003999  0.008465  -0.02266  -0.6051  0.4908
6.29e+09  -0.6103  -0.5974  -0.0126  -0.02405  0.01436  -0.02318  -0.4203  0.654
6.291e+09  -0.6952  -0.421  -0.003587  0.01918  0.007569  -0.01133  -0.1472  0.7735
6.292e+09  -0.8156  -0.09804  0.008153  0.02158  -0.02023  -0.003808  0.1445  0.7712
6.294e+09  -0.8002  0.1245  -0.02418  -0.01174  -0.01879  0.02911  0.3977  0.7419
6.295e+09  -0.6881  0.4099  -0.001236  0.01913  -0.0144  -0.03026  0.6176  0.5467
6.296e+09  -0.509  0.62  -0.02565  0.003451  -0.000826  -0.0007986  0.7382  0.2808
6.298e+09  -0.2401  0.7943  0.007867  0.02031  -0.04147  -0.05325  0.8147  -0.00467
6.299e+09  0.02999  0.774  -0.01013  0.003598  0.03205  0.03346  0.7785  -0.2829
6.3e+09  0.2959  0.763  0.0006695  0.000528  -0.06833  0.02662  0.6623  -0.529
6.301e+09  0.5541  0.6113  0.01357  0.02177  -0.01182  0.07453  0.4441  -0.7138
6.302e+09  0.7675  0.418  0.004242  -0.01255  0.05997  -0.0113  0.1464  -0.8085
6.304e+09  0.8054  0.1008  0.009996  0.01967  -0.07182  -0.04054  -0.1252  -0.8274
6.305e+09  0.8144  -0.2031  -0.01672  0.008906  0.02171  -0.04352  -0.3906  -0.7253
6.306e+09  0.6993  -0.4448  0.01777  -0.012  -0.006839  -0.006746  -0.6158  -0.5497
6.308e+09  0.5406  -0.6487  -0.0152  0.003588  -0.04958  0.00345  -0.7955  -0.2907
6.309e+09  0.1747  -0.7898  0.00233  -0.02709  -0.02705  0.02835  -0.8696  0.01893
6.31e+09  -0.05446  -0.8443  -0.01605  -0.02305  -0.05222  -0.02206  -0.8159  0.2835
6.311e+09  -0.337  -0.728  0.001015  0.005776  0.02387  -0.02095  -0.6796  0.544
6.312e+09  -0.5579  -0.5809  -0.01673  0.01753  -0.02073  0.02423  -0.4277  0.7633
6.314e+09  -0.7762  -0.3435  0.01226  -0.001364  0.008709  0.0279  -0.1714  0.8805
6.315e+09  -0.8279  -0.04492  0.005384  -0.002107  0.005443  -0.02438  0.1265  0.8522
6.316e+09  -0.7811  0.2927  -0.002129  0.004393  -0.01734  0.00943  0.4423  0.7769
6.318e+09  -0.6744  0.5148  -0.009667  0.0007007  0.0201  0.0006499  0.6803  0.5836
6.319e+09  -0.5  0.6837  -0.001714  -0.01728  0.0152  -0.002018  0.8191  0.3593
6.32e+09  -0.2041  0.8054  -0.009495  -0.0173  0.06845  0.01742  0.8689  0.02415
6.321e+09  0.04377  0.8682  0.003294  -0.01112  0.006177  -0.006439  0.8106  -0.2726
6.322e+09  0.3636  0.7406  -0.01792  0.009212  -0.04014  0.01328  0.7095  -0.5616
6.324e+09  0.6138  0.5825  -0.00241  -0.01945  -0.02462  -0.01279  0.4693  -0.7398
6.325e+09  0.8035  0.3226  -0.02683  0.0157  -0.02075  0.053  0.1752  -0.883
6.326e+09  0.8907  0.09917  0.03057  -0.01021  0.03319  -0.01237  -0.1458  -0.9054
6.328e+09  0.851  -0.2805  0.02992  0.002756  0.001106  0.01208  -0.4445  -0.8357
6.329e+09  0.6723  -0.5466  0.02725  0.005093  0.0446  -0.02892  -0.6785  -0.5936
6.33e+09  0.4001  -0.7282  0.007289  -0.009339  -0.02479  0.01663  -0.8227  -0.3456
6.331e+09  0.177  -0.8446  0.0107  0.01167  0.03855  0.006342  -0.902  -0.05732
6.332e+09  -0.1779  -0.8559  -0.03022  0.01419  0.0005393  -0.01298  -0.8629  0.2999
6.334e+09  -0.4387  -0.7846  -0.02506  0.01482  -0.0312  0.01742  -0.6959  0.5148
6.335e+09  -0.6758  -0.5119  -0.001087  -0.01627  -0.03598  0.01043  -0.4721  0.7336
6.336e+09  -0.8092  -0.2292  0.003108  -0.01041  0.02843  -0.02367  -0.2066  0.8882
6.338e+09  -0.8512  0.05397  -0.01911  -0.01001  0.03666  -0.002114  0.1048  0.8812
6.339e+09  -0.7739  0.3208  -0.03719  0.01561  -0.02608  0.01309  0.3874  0.8348
6.34e+09  -0.6918  0.5635  0.04075  0.02226  -0.002353  -0.026  0.7043  0.6262
6.341e+09  -0.4201  0.8162  0.01514  -0.02262  -0.004709  0.0138  0.8363  0.327
6.342e+09  -0.07081  0.871  -0.02546  -0.01558  -0.01836  -0.01791  0.9226  0.04025
6.344e+09  0.2052  0.843  0.03045  -0.01783  -0.03616  -0.02349  0.8976  -0.2703
6.345e+09  0.4636  0.7245  0.0383  -0.0009416  0.02003  0.03303  0.7297  -0.5544
6.346e+09  0.7023  0.5011  0.04174  -0.006364  0.0541  0.02208  0.4859  -0.8193
6.348e+09  0.8901  0.2045  -0.02582  0.01463  -0.01023  -0.02426  0.2169  -0.8928
6.349e+09  0.8484  -0.0709  0.05143  0.02435  -0.0277  -0.01047  -0.07587  -0.9389
6.35e+09  0.7889  -0.344  0.001262  0.03226  -0.01197  -0.03686  -0.3848  -0.8012
6.351e+09  0.5441  -0.6369  -0.009714  -0.0449  0.02729  0.008448  -0.6702  -0.6721
6.352e+09  0.3118  -0.8256  -0.01985  0.01268  0.03261  0.04116  -0.872  -0.3754
6.354e+09  0.01389  -0.8737  0.01286  -0.02801  -0.01107  -0.003772  -0.9209  -0.05475
6.355e+09  -0.2137  -0.8235  -0.001835  0.0004409  0.01764  -0.01093  -0.8836  0.2369
6.356e+09  -0.5396  -0.7022  0.006401  0.02359  0.03114  -0.04366  -0.7414  0.5453
6.358e+09  -0.7563  -0.4187  0.005538  0.005822  -0.01492  0.008617  -0.5481  0.757
6.359e+09  -0.8716  -0.1521  -0.002277  -0.02663  -0.04615  0.01126  -0.241  0.8928
6.36e+09  -0.8733  0.1512  0.01033  -0.002098  -0.005372  -0.001387  0.08622  0.9355
6.361e+09  -0.7509  0.4323  -0.003803  -0.01985  0.03259  0.0022  0.4053  0.8472
6.362e+09  -0.5408  0.6761  -0.02268  0.004254  0.02491  0.03226  0.6963  0.6268
6.364e+09  -0.3235  0.8395  0.03286  -0.03732  0.02432  0.004055  0.8927  0.3714
6.365e+09  0.03589  0.9093  0.00704  -0.005834  0.02063  0.01821  0.9576  0.07505
6.366e+09  0.3253  0.8271  0.02221  -0.01216  0.04696  -0.006068  0.8836  -0.2126
6.368e+09  0.6164  0.6215  0.02148  -0.005193  -0.001728  0.0198  0.7649  -0.5509
6.369e+09  0.8301  0.433  0.02164  0.02387  -0.01006  0.004399  0.5198  -0.8253
6.37e+09  0.8604  0.04434  -0.004762  -0.002103  -0.02236  -0.002799  0.2758  -0.8755
6.371e+09  0.8795  -0.2188  -0.02619  -0.01694  0.006696  -0.007507  -0.1195  -0.9641
6.372e+09  0.7519  -0.4985  -0.02754  0.02113  0.00365  -0.002649  -0.376  -0.8196
6.374e+09  0.5062  -0.7349  -0.01059  -0.0007353  -0.005187  -0.008257  -0.6561  -0.6504
6.375e+09  0.1718  -0.8039  -0.006062  -0.021  0.02704  -0.003431  -0.8478  -0.4225
6.376e+09  -0.08473  -0.8739  0.01262  0.004745  -0.00497  -0.01192  -0.9138  -0.1077
6.378e+09  -0.4242  -0.7804  -0.02307  0.01477  -0.03133  -0.02997  -0.8835  0.2213
6.379e+09  -0.6238  -0.5839  0.02759  0.004268  0.0289  0.02466  -0.786  0.5237
6.38e+09  -0.8304  -0.3261  -0.003275  0.05369  0.03936  0.03776  -0.524  0.7645
6.381e+09  -0.8985  -0.05399  0.01306  -0.01721  -0.007582  0.04895  -0.2671  0.9065
6.382e+09  -0.8477  0.3287  0.01596  0.01023  0.00866  -0.01079  0.05458  0.9627
6.384e+09  -0.6803  0.5721  -0.03584  0.02381  -0.03408  0.02043  0.3745  0.8512
6.385e+09  -0.4837  0.7187  -0.02111  -0.005562  -0.003693  -0.02179  0.6163  0.7021
6.386e+09  -0.1532  0.9072  -0.01891  0.02365  0.00774  0.03785  0.8135  0.4145
6.388e+09  0.1854  0.8509  -0.01894  -0.005095  -0.002484  0.02553  0.9003  0.1155
6.389e+09  0.4518  0.7128  -0.03749  -0.02229  0.03761  0.0131  0.8803  -0.1709
6.39e+09  0.7248  0.5263  0.01251  0.01755  0.02673  -0.02417  0.797  -0.4932
6.391e+09  0.8121  0.2971  0.04187  5.316e-05  -0.01922  -0.02177  0.5507  -0.7312
6.392e+09  0.8524  -0.006042  -0.0216  -0.0007572  0.008125  0.02099  0.2525  -0.8904
6.394e+09  0.8016  -0.2829  -0.003045  -0.02349  -0.03272  0.007473  -0.01415  -0.9113
6.395e+09  0.6227  -0.595  -0.00619  0.01077  0.01284  -0.005817  -0.352  -0.8107
6.396e+09  0.4123  -0.7538  0.0195  -0.003996  0.006365  -0.02126  -0.6254  -0.6792
6.398e+09  0.1027  -0.9099  -0.0008407  -0.002853  -0.04106  -0.002265  -0.8227  -0.4744
6.399e+09  -0.2361  -0.8358  -0.004476  0.01619  -0.01243  -0.01971  -0.8879  -0.154
6.4e+09  -0.5347  -0.7182  -0.03762  -0.004218  -0.008719  0.01941  -0.8776  0.1686
6.401e+09  -0.6916  -0.5074  -0.01448  -0.04491  0.03775  0.01226  -0.7817  0.4825
6.402e+09  -0.8479  -0.2587  0.03938  0.01721  -0.04354  -0.04166  -0.5694  0.673
6.404e+09  -0.8686  0.06682  0.004744  -0.04153  0.008145  0.01664  -0.2791  0.8642
6.405e+09  -0.8009  0.3588  0.02712  -0.01421  0.001236  0.009714  0.01774  0.9198
6.406e+09  -0.6363  0.6368  -0.01445  0.006168  -0.009474  0.04567  0.3273  0.897
6.408e+09  -0.4018  0.7844  -0.02559  -0.03121  -0.01747  0.001612  0.5584  0.7084
6.409e+09  -0.1195  0.8929  -0.04507  -0.001637  0.002421  -0.01472  0.8204  0.466
6.41e+09  0.2565  0.8631  0.006391  -0.06064  -0.02687  -0.0004543  0.9416  0.1606
6.411e+09  0.5099  0.6916  0.01103  0.05262  -0.0008187  0.007805  0.894  -0.1636
6.412e+09  0.7269  0.4968  0.01606  0.03615  0.03391  0.002014  0.7756  -0.4661
6.414e+09  0.8347  0.2198  0.01949  -0.03708  0.0006062  0.006536  0.6102  -0.6935
6.415e+09  0.8831  -0.1048  0.006547  -0.007659  -0.003987  -0.01002  0.327  -0.8315
6.416e+09  0.7501  -0.3954  -0.002996  0.0004966  0.02764  0.01139  0.09068  -0.8914
6.418e+09  0.5849  -0.6123  0.03691  0.03415  0.009475  -0.0272  -0.2998  -0.8297
6.419e+09  0.3131  -0.8282  -0.02846  0.01429  0.03707  0.001171  -0.5291  -0.6621
6.42e+09  0.02497  -0.8986  -0.0406  -0.02291  -0.006607  0.03596  -0.7702  -0.4622
6.421e+09  -0.2987  -0.844  0.02866  -0.005354  0.01338  -0.008358  -0.8555  -0.2335
6.422e+09  -0.5995  -0.678  0.03852  0.007044  -0.004029  0.04663  -0.8548  0.08138
6.424e+09  -0.7365  -0.4642  -0.02428  0.03506  -0.01197  0.01464  -0.742  0.367
6.425e+09  -0.8518  -0.2238  -0.007515  0.006529  0.02796  0.01592  -0.5821  0.6727
6.426e+09  -0.808  0.1416  0.004157  0.009115  -0.02222  -0.04689  -0.363  0.776
6.428e+09  -0.7522  0.4052  -0.01136  -0.003516  -0.01679  -0.0008202  -0.04731  0.9037
6.429e+09  -0.572  0.656  0.02881  -0.01645  -0.01073  0.06055  0.2  0.8418
6.43e+09  -0.2693  0.8202  0.009822  0.0183  -0.01632  0.004333  0.503  0.7083
6.431e+09  0.04439  0.8643  0.03846  -0.0216  -0.04062  0.02644  0.7386  0.4427
6.432e+09  0.2885  0.7943  0.009438  0.02867  -0.03983  -0.02707  0.8388  0.1892
6.434e+09  0.5206  0.6578  0.03283  -0.02643  -0.05018  0.01203  0.9232  -0.07724
6.435e+09  0.7389  0.42  -0.0208  -0.03102  0.04904  0.01937  0.7495  -0.3113
6.436e+09  0.8413  0.117  -0.0001049  0.02309  -0.01292  -0.05012  0.5933  -0.6017
6.438e+09  0.8973  -0.1879  -0.0355  0.002191  0.02546  -0.02961  0.3384  -0.7615
6.439e+09  0.7306  -0.4086  -0.008721  0.04083  -0.04572  -0.004167  0.08717  -0.8209
6.44e+09  0.5447  -0.6491  -0.04962  -0.002195  0.04702  -0.04825  -0.2171  -0.8315
6.441e+09  0.2716  -0.7916  0.02715  -0.003405  0.03719  0.02591  -0.5158  -0.6955
6.442e+09  -0.07346  -0.8415  -0.06165  -0.01083  -0.02556  -0.06839  -0.6725  -0.5243
6.444e+09  -0.3314  -0.8111  0.01508  0.008465  0.01715  -0.02476  -0.8306  -0.2327
6.445e+09  -0.5664  -0.613  -0.01324  0.006602  0.02788  -0.02749  -0.8197  0.06712
6.446e+09  -0.7541  -0.3777  0.02041  -0.0159  -0.01575  0.009386  -0.7716  0.3361
6.448e+09  -0.8798  -0.1325  -0.07133  0.03089  -0.05013  0.03097  -0.6139  0.6238
6.449e+09  -0.8314  0.1751  0.01188  0.007987  -0.01532  -0.001107  -0.3214  0.7712
6.45e+09  -0.7408  0.4685  -0.05618  0.03805  0.05803  0.005305  -0.02243  0.8024
6.451e+09  -0.54  0.6931  0.03124  0.02411  -0.008164  -0.0001438  0.1753  0.7682
6.452e+09  -0.2458  0.8417  0.04873  0.01593  0.006957  -0.04408  0.456  0.6591
6.454e+09  0.003928  0.8369  -0.002855  0.0253  0.01669  -0.01716  0.6682  0.4981
6.455e+09  0.3324  0.7631  -0.004006  -0.01752  -0.01587  -0.02718  0.8488  0.2241
6.456e+09  0.5868  0.6295  -0.01963  0.009948  -0.03999  0.001451  0.8218  -0.064
6.458e+09  0.8056  0.4025  0.009022  0.01896  -0.02937  -0.009559  0.7652  -0.3472
6.459e+09  0.8062  0.1612  0.04198  -0.04926  0.03632  -0.01949  0.5922  -0.5859
6.46e+09  0.8525  -0.1751  -0.01105  0.02593  0.02375  0.04315  0.3164  -0.6913
6.461e+09  0.7545  -0.4503  0.01994  -0.0147  0.001342  0.03342  0.06679  -0.7832
6.462e+09  0.538  -0.6895  -0.02385  -0.04652  -0.03588  0.03941  -0.2371  -0.8173
6.464e+09  0.2356  -0.849  0.007683  0.02172  -0.03589  -0.01546  -0.4754  -0.6339
6.465e+09  -0.06738  -0.8479  0.003602  0.01855  -0.03885  0.03079  -0.6532  -0.4606
6.466e+09  -0.3687  -0.7876  0.02263  -0.01447  0.01338  -0.01672  -0.744  -0.2333
6.468e+09  -0.611  -0.596  -0.007848  0.06471  -0.03196  -0.00596  -0.7839  0.06405
6.469e+09  -0.7797  -0.3512  -0.005535  0.01294  0.005048  0.02251  -0.6704  0.3389
6.47e+09  -0.8684  -0.06458  0.01344  0.0002883  -0.005164  0.03144  -0.5684  0.5514
6.471e+09  -0.8605  0.2145  -0.01454  -0.04499  0.02669  -0.02489  -0.3464  0.7421
6.472e+09  -0.7644  0.4235  0.007773  -0.01623  0.00267  -0.04426  -0.06116  0.7925
6.474e+09  -0.4793  0.7027  -0.026  0.01657  0.002025  0.01798  0.2116  0.7143
6.475e+09  -0.234  0.8354  0.02201  0.03244  -0.003031  -0.001245  0.438  0.6023
6.476e+09  0.07428  0.8794  -0.03775  -0.004782  0.004755  -0.004914  0.6069  0.4187
6.478e+09  0.3322  0.791  0.003471  -0.04249  -0.02052  -0.03184  0.772  0.1979
6.479e+09  0.6068  0.6179  -0.003578  -0.03008  -0.02806  0.0247  0.7957  -0.08056
6.48e+09  0.7553  0.3187  0.00835  0.02575  -0.04699  0.02122  0.6627  -0.3447
6.481e+09  0.868  0.09862  -0.06021  0.004286  0.02596  -0.04155  0.5881  -0.6196
6.482e+09  0.8403  -0.1912  -0.008974  -0.00764  -0.008434  -0.022  0.3324  -0.69
6.484e+09  0.7592  -0.5003  -0.01029  0.01328  -0.03883  -0.01976  0.03585  -0.7564
6.485e+09  0.4726  -0.7609  0.02687  0.002978  -0.0271  0.03454  -0.1947  -0.7001
6.486e+09  0.2254  -0.8014  -0.01426  0.005225  -0.02234  0.02451  -0.458  -0.6611
6.488e+09  -0.06699  -0.8636  0.02719  -0.02221  -0.00741  0.03329  -0.6106  -0.4394
6.489e+09  -0.3635  -0.8212  -0.02989  -0.01136  -0.009151  -0.03805  -0.7342  -0.2029
6.49e+09  -0.635  -0.6264  -0.02126  0.008337  0.03663  -0.004332  -0.7526  0.1207
6.491e+09  -0.8273  -0.3326  0.01275  0.01452  -0.02943  -0.01981  -0.7088  0.351
6.492e+09  -0.8671  -0.05339  -0.04054  -0.004011  0.02634  -0.0682  -0.5264  0.5401
6.494e+09  -0.8691  0.2125  -0.001386  -0.034  0.0337  0.0146  -0.3296  0.6733
6.495e+09  -0.7354  0.5101  -0.004951  -0.0009029  0.001476  0.002449  -0.008753  0.7392
6.496e+09  -0.4545  0.748  0.02092  0.008491  -0.004016  -0.01991  0.2165  0.7491
6.498e+09  -0.2063  0.8392  -0.004697  -0.005582  -0.002179  0.01123  0.4802  0.6284
6.499e+09  0.09542  0.8712  0.01565  -0.01865  0.001239  0.07328  0.6933  0.392
6.5e+09  0.3288  0.8096  -0.007822  -0.003283  0.02708  -0.03844  0.7908  0.1187
6.501e+09  0.6559  0.6228  -0.02953  0.02055  -0.01255  0.03624  0.7293  -0.06323
6.502e+09  0.7991  0.2985  -0.01237  0.00405  0.01892  -0.0292  0.6702  -0.3854
6.504e+09  0.9331  0.01617  0.008082  0.03342  0.006348  0.01024  0.5251  -0.5505
6.505e+09  0.88  -0.2412  0.03379  -0.005827  0.02701  0.004054  0.2939  -0.731
6.506e+09  0.7788  -0.5437  0.02941  -0.004788  0.005887  -0.05301  0.01559  -0.7536
6.508e+09  0.5249  -0.7683  -0.01434  -0.01795  -0.007796  0.001885  -0.2598  -0.7394
6.509e+09  0.2112  -0.8696  -0.0146  0.01961  0.04041  -0.008961  -0.4991  -0.5875
6.51e+09  -0.1283  -0.8941  0.02842  0.008244  0.02547  0.006816  -0.647  -0.3783
6.511e+09  -0.4001  -0.828  -0.01899  -0.02317  -0.005189  0.02108  -0.7204  -0.1187
6.512e+09  -0.6909  -0.6047  -0.01745  -0.005437  0.03239  0.01991  -0.7268  0.1406
6.514e+09  -0.9204  -0.3721  -0.006199  0.0212  -0.007731  0.03801  -0.6786  0.328
6.515e+09  -0.9091  -0.02343  -0.001714  -0.02129  -0.01128  -0.01258  -0.4873  0.5749
6.516e+09  -0.8833  0.2691  -0.00644  -0.02596  -0.02662  -0.005957  -0.2531  0.6971
6.518e+09  -0.7396  0.5483  -0.0374  -0.01902  0.009929  0.03211  -0.01392  0.7598
6.519e+09  -0.4887  0.7674  0.03226  -0.003816  0.01217  0.0146  0.2736  0.6859
6.52e+09  -0.1909  0.9325  0.002626  0.02531  -0.02007  0.0175  0.4931  0.5758
6.521e+09  0.07081  0.9663  -0.007653  -0.002175  0.03438  0.04448  0.6502  0.3692
6.522e+09  0.4266  0.8038  0.003412  -0.01775  -0.006723  -0.02445  0.7016  0.1157
6.524e+09  0.7188  0.6272  0.05076  -0.00147  0.03064  0.0157  0.7387  -0.1674
6.525e+09  0.9159  0.3447  -0.02973  -0.002746  0.01984  0.0009397  0.6178  -0.392
6.526e+09  0.9524  -0.008404  0.008487  -0.01036  -0.03183  0.008026  0.4223  -0.5784
6.528e+09  0.8659  -0.3611  0.00947  -0.005743  0.03877  -0.07939  0.179  -0.6641
6.529e+09  0.6588  -0.6445  -0.04024  0.009015  0.03922  -0.02478  -0.04701  -0.6982
6.53e+09  0.3963  -0.8606  -0.03771  -0.03378  -0.01599  -0.0218  -0.2618  -0.6304
6.531e+09  0.1638  -0.9776  0.01709  0.01073  0.03112  0.09157  -0.4905  -0.4877
6.532e+09  -0.2417  -0.9374  -0.008207  0.007845  0.03413  0.008484  -0.5903  -0.29
6.534e+09  -0.5228  -0.8192  -0.015  0.007322  -0.02586  -0.00645  -0.6289  -0.07297
6.535e+09  -0.722  -0.6383  0.01067  -0.019  0.01954  0.03879  -0.5993  0.09638
6.536e+09  -0.9004  -0.2433  -0.05745  0.002586  -0.01459  0.01407  -0.5641  0.2823
6.538e+09  -0.9441  0.05376  -0.05805  -0.01206  0.03326  0.001239  -0.425  0.4555
6.539e+09  -0.8672  0.3717  0.002189  0.03108  0.02961  -0.01788  -0.2708  0.6085
6.54e+09  -0.6752  0.6298  -0.005667  -0.02125  -0.02143  -0.008796  -0.02656  0.6568
6.541e+09  -0.4295  0.879  0.04969  -0.01099  0.02013  0.007133  0.1871  0.652
6.542e+09  -0.0961  0.9526  0.02711  0.03263  -0.01198  -0.006255  0.4189  0.5895
6.544e+09  0.2504  0.9229  0.02396  0.03798  0.02328  0.05427  0.5892  0.4022
6.545e+09  0.5082  0.7914  0.0159  0.02049  0.01557  -0.01553  0.6925  0.1806
6.546e+09  0.8469  0.5898  -0.008945  -0.005883  0.03012  -0.01016  0.7341  -0.05088
6.548e+09  0.9127  0.1823  -0.008965  -0.01566  0.007672  -0.03381  0.6362  -0.3162
6.549e+09  1.013  -0.119  0.02363  0.005225  -0.007742  0.007891  0.4896  -0.4967
6.55e+09  0.7845  -0.4691  0.01319  0.01994  0.01546  0.003033  0.2921  -0.7033
