# Hz S RI R 50
6.25e+09  -0.4093  0.7852  -0.003944  0.003181  -0.03689  -0.009782  0.1394  0.4686
6.251e+09  -0.07705  0.8737  -0.008727  0.01396  -0.03145  0.04834  0.3631  0.416
6.252e+09  0.2293  0.8336  -0.01787  0.01707  0.05239  -0.005772  0.551  0.239
6.254e+09  0.5011  0.7285  -0.001918  -0.01065  0.004498  0.04204  0.6479  0.01774
6.255e+09  0.7257  0.4952  -0.0367  0.02712  0.03442  -0.02351  0.6061  -0.1906
6.256e+09  0.8143  0.2487  0.01052  -0.002642  0.02268  0.03263  0.4776  -0.4504
6.258e+09  0.7902  -0.09885  -0.03362  0.02098  0.0686  0.03883  0.282  -0.6016
6.259e+09  0.7645  -0.3709  0.02735  0.007873  -0.03334  -0.03056  0.07199  -0.6705
6.26e+09  0.5668  -0.546  -0.03026  0.005255  -0.007502  0.0176  -0.2234  -0.6574
6.261e+09  0.3488  -0.7711  -0.001645  -0.02024  -0.02661  -0.03366  -0.4734  -0.523
6.262e+09  0.03193  -0.8333  -0.00584  0.009341  -0.006067  -0.0405  -0.6097  -0.3655
6.264e+09  -0.1846  -0.787  0.03491  0.02765  0.03214  0.0001497  -0.7098  -0.1044
6.265e+09  -0.4918  -0.7158  0.01212  -0.003522  -0.04458  0.0125  -0.7132  0.1354
6.266e+09  -0.7103  -0.4724  -0.02881  0.005967  -0.01931  0.003712  -0.5985  0.3934
6.268e+09  -0.8016  -0.2007  -0.0204  0.03179  0.009933  -0.01046  -0.4385  0.6072
6.269e+09  -0.7972  0.0744  -0.03191  0.007118  0.00409  0.0008326  -0.2213  0.7019
6.27e+09  -0.7491  0.3481  0.01685  0.005087  -0.02115  0.04716  0.07509  0.7586
6.271e+09  -0.6006  0.5675  -0.02529  0.02407  -0.02078  0.0141  0.2977  0.676
6.272e+09  -0.4134  0.8004  0.02029  -0.002446  0.04923  -0.03  0.5619  0.5137
6.274e+09  -0.0685  0.8547  0.01288  -0.002937  -0.02015  -0.02147  0.684  0.2649
6.275e+09  0.269  0.7885  -0.01583  -0.01144  -0.0374  -0.03769  0.7733  0.0223
6.276e+09  0.4754  0.6945  -0.01486  -0.03121  -0.02107  -0.02045  0.7356  -0.2243
6.278e+09  0.6585  0.4213  0.0453  -0.0398  0.03014  -0.005347  0.6208  -0.4708
6.279e+09  0.791  0.2177  0.02452  -0.01345  -0.02608  -0.01523  0.3959  -0.6982
6.28e+09  0.8365  -0.06503  -0.001889  0.02526  0.01982  -0.00955  0.1703  -0.7549
6.281e+09  0.7646  -0.3707  -0.0004941  0.005287  -0.05443  0.007705  -0.09826  -0.7799
6.282e+09  0.5855  -0.6351  0.03054  0.02448  0.003034  0.05115  -0.3768  -0.6872
6.284e+09  0.3116  -0.7813  0.003517  -0.02262  0.007209  0.02842  -0.5596  -0.5197
6.285e+09  0.04628  -0.8594  -0.02194  0.01052  0.03966  0.05444  -0.7062  -0.3093
6.286e+09  -0.2511  -0.766  0.0001372  0.01975  0.04725  0.01943  -0.8201  -0.03266
6.288e+09  -0.5018  -0.6285  0.001966  -0.008177  0.03541  -0.02053  -0.7406  0.2443
6.289e+09  -0.7634  -0.4169  0.02914  -0.004481  0.02441  0.02703  -0.6275  0.5265
6.29e+09  -0.7766  -0.1584  -0.008622  -0.006731  -0.02144  0.02249  -0.4137  0.7137
6.291e+09  -0.8277  0.1041  0.00585  -0.02361  -0.03575  -0.005803  -0.1632  0.7799
6.292e+09  -0.794  0.3759  0.0004398  0.003716  -0.01318  -0.0186  0.1036  0.8
6.294e+09  -0.5875  0.5959  0.005362  -0.008007  0.01094  0.003005  0.3748  0.7015
6.295e+09  -0.317  0.8002  0.001302  0.02772  -0.0217  0.01665  0.6395  0.5537
6.296e+09  -0.01164  0.7974  0.008921  0.007685  0.02611  0.004653  0.7504  0.2691
6.298e+09  0.283  0.7955  0.01204  -0.0002388  0.08372  -0.03206  0.8423  0.03406
6.299e+09  0.5134  0.6656  -0.005922  0.02309  0.009383  0.009116  0.7788  -0.2671
6.3e+09  0.7282  0.4055  0.002973  -0.01381  0.01793  -0.02685  0.6811  -0.5446
6.301e+09  0.792  0.1596  -0.01741  -0.004772  -0.00207  0.01746  0.4657  -0.7078
6.302e+09  0.8225  -0.1171  -0.01871  0.0188  -0.02453  0.05694  0.1348  -0.8101
6.304e+09  0.7313  -0.4241  0.006025  -0.003068  0.0419  -0.03233  -0.1176  -0.859
6.305e+09  0.5055  -0.6735  -0.02254  0.0006877  0.004534  0.0221  -0.4141  -0.7162
6.306e+09  0.2959  -0.8633  0.004758  -0.01515  0.0008887  -0.04279  -0.6148  -0.5594
6.308e+09  -0.01029  -0.8349  -0.03203  0.025  -0.02149  -0.005914  -0.7877  -0.3244
6.309e+09  -0.3132  -0.712  0.004429  -0.0144  0.01994  -0.02319  -0.869  -0.01912
6.31e+09  -0.564  -0.6004  -0.002617  -0.004882  0.002569  -0.008106  -0.8224  0.3044
6.311e+09  -0.7385  -0.3489  0.01563  0.007471  0.0212  -0.03809  -0.6552  0.539
6.312e+09  -0.8521  -0.1595  0.01199  0.005358  -0.009616  0.002229  -0.4634  0.7387
6.314e+09  -0.8218  0.1307  0.01659  0.04228  0.02441  -0.0209  -0.1577  0.8455
6.315e+09  -0.663  0.459  -0.01778  -0.01556  -0.02423  -0.001229  0.1004  0.8499
6.316e+09  -0.5282  0.6373  0.0005332  0.00524  -0.01759  -0.01608  0.4297  0.7345
6.318e+09  -0.2184  0.786  -0.009335  8.895e-05  -0.02724  -0.01425  0.6752  0.5616
6.319e+09  0.07524  0.8365  -0.01605  0.008945  0.01027  0.003129  0.8145  0.3499
6.32e+09  0.3983  0.7857  0.0302  -0.01328  0.003904  0.01962  0.8849  0.02869
6.321e+09  0.5718  0.563  -0.002403  0.005715  -0.00551  -0.03197  0.8181  -0.3088
6.322e+09  0.7376  0.3663  -0.002704  0.02072  -0.007612  0.004168  0.7049  -0.5428
6.324e+09  0.8407  0.04372  0.01138  -0.02632  -0.009444  0.02697  0.508  -0.7686
6.325e+09  0.8173  -0.2262  -0.005273  0.01129  0.000959  -0.001227  0.1713  -0.8847
6.326e+09  0.7122  -0.4809  -0.01843  -0.02408  0.00652  -0.03646  -0.1619  -0.8979
6.328e+09  0.5272  -0.7678  0.01567  -0.0234  -0.01099  0.03327  -0.4554  -0.801
6.329e+09  0.1875  -0.8197  0.02204  0.002179  0.005597  0.0157  -0.6503  -0.6027
6.33e+09  -0.1297  -0.846  -0.02554  0.002105  0.05832  0.001365  -0.84  -0.3419
6.331e+09  -0.3566  -0.7799  0.03521  -0.002149  -0.02407  -0.01412  -0.8996  0.00615
6.332e+09  -0.6748  -0.5824  -0.004832  0.0128  -0.0104  -0.02349  -0.8372  0.2767
6.334e+09  -0.7989  -0.3121  -0.02222  0.01615  -0.01486  0.02747  -0.7322  0.5437
6.335e+09  -0.9146  -0.01193  0.006408  0.01975  0.005211  -0.03497  -0.4959  0.775
6.336e+09  -0.8356  0.3079  0.004016  -0.004724  -0.03578  -0.02203  -0.1933  0.8735
6.338e+09  -0.6515  0.5109  0.02264  -0.0007161  0.00649  -0.0223  0.1073  0.9199
6.339e+09  -0.4036  0.7407  -0.0232  -0.004459  0.01114  -0.02294  0.4081  0.8264
6.34e+09  -0.1773  0.8388  0.01986  0.01879  -0.03692  0.03508  0.6852  0.5949
6.341e+09  0.195  0.8731  0.01698  -0.00152  -0.001286  0.005081  0.8437  0.3276
6.342e+09  0.4151  0.7276  0.01768  -0.007682  -0.05719  0.0004877  0.9259  0.03089
6.344e+09  0.6959  0.5078  -0.03463  0.01285  0.0003993  0.01429  0.901  -0.2548
6.345e+09  0.8044  0.3101  -0.006049  0.03632  -0.008021  -0.01135  0.7642  -0.5488
6.346e+09  0.8683  -0.06653  0.003691  -0.05162  0.02093  -0.05708  0.5196  -0.7635
6.348e+09  0.8299  -0.3391  0.01429  0.001047  0.01417  -0.01304  0.2  -0.9086
6.349e+09  0.6194  -0.5854  -0.02337  -0.01327  0.002141  -0.005024  -0.09156  -0.8987
6.35e+09  0.3878  -0.8044  0.01005  0.01112  0.04479  0.02158  -0.4324  -0.8632
6.351e+09  0.1159  -0.895  0.0005706  -0.003828  0.006305  0.001957  -0.6578  -0.6584
6.352e+09  -0.2469  -0.8915  0.0008541  0.0009372  -0.01865  -0.007823  -0.8494  -0.3811
6.354e+09  -0.4413  -0.7199  0.009297  0.005073  0.01832  0.0003483  -0.9072  -0.04795
6.355e+09  -0.7326  -0.469  0.01938  -0.001207  -0.01924  0.03788  -0.8787  0.2885
6.356e+09  -0.8346  -0.2195  -0.03133  -0.008499  -0.0007173  0.05554  -0.7306  0.5386
6.358e+09  -0.8719  0.06759  -0.02265  0.0262  0.02889  0.03395  -0.5518  0.7589
6.359e+09  -0.798  0.4387  0.004307  0.0348  -0.009759  0.05237  -0.2363  0.9395
6.36e+09  -0.5708  0.6771  -0.02005  0.01139  0.02784  -0.006988  0.08358  0.9327
6.361e+09  -0.3345  0.7841  -0.02549  0.00213  0.07038  -0.004833  0.4235  0.8724
6.362e+09  -0.03651  0.8889  0.02674  -0.008633  0.01621  -0.02245  0.7217  0.7043
6.364e+09  0.253  0.8552  -0.007862  0.02005  -0.02711  -0.002115  0.8688  0.4055
6.365e+09  0.5106  0.7382  0.01129  -0.0225  0.0217  -0.01243  0.9272  0.07807
6.366e+09  0.7504  0.5219  -0.005111  0.01637  0.001473  -0.008999  0.9416  -0.237
6.368e+09  0.8513  0.1823  -0.05593  0.01078  0.031  -0.00239  0.7863  -0.5088
6.369e+09  0.8749  -0.1308  -0.01306  0.04363  -0.0253  0.03283  0.5371  -0.7744
6.37e+09  0.7541  -0.5216  0.05988  -0.01087  -0.01363  -0.006873  0.2197  -0.8809
6.371e+09  0.5478  -0.6925  0.02988  0.0083  0.02459  -0.01853  -0.1019  -0.9314
6.372e+09  0.3079  -0.8328  -0.0316  -0.002468  0.01803  0.04488  -0.3942  -0.905
6.374e+09  -0.02052  -0.8862  -0.04903  -0.0003156  -0.01581  -0.001313  -0.6795  -0.6355
6.375e+09  -0.333  -0.8321  0.01697  -0.00908  0.01043  0.006717  -0.8818  -0.3827
6.376e+09  -0.6047  -0.6665  0.001743  0.005652  0.01163  0.03158  -0.9478  -0.09274
6.378e+09  -0.7458  -0.3967  -0.008422  -0.03618  0.03532  0.01064  -0.8492  0.2126
6.379e+09  -0.8714  -0.09954  -0.03812  -0.03294  0.01354  0.06286  -0.7619  0.4989
6.38e+09  -0.8998  0.1995  -0.02189  0.008746  -0.006098  0.01075  -0.5725  0.7087
6.381e+09  -0.7719  0.5124  -0.005688  -0.007149  -0.001075  0.006858  -0.2639  0.9192
6.382e+09  -0.5312  0.7149  0.02308  0.009602  0.03486  0.02487  0.06363  0.9447
6.384e+09  -0.2841  0.8279  -0.008825  0.01768  0.004325  0.004416  0.314  0.8175
6.385e+09  0.0471  0.8545  -0.01642  -0.03673  -0.01467  0.01242  0.6126  0.7104
6.386e+09  0.381  0.8462  -0.04682  -0.02601  -0.006717  -0.01745  0.8372  0.4446
6.388e+09  0.5856  0.6957  -0.01782  -0.02295  -0.01711  -0.03394  0.9123  0.132
6.389e+09  0.813  0.3916  -0.007825  0.02351  0.03908  -0.02778  0.9098  -0.2431
6.39e+09  0.896  0.07584  -0.007656  -0.01591  -0.009866  0.008124  0.7756  -0.4734
6.391e+09  0.8605  -0.1727  0.000328  0.0489  0.004323  0.004954  0.5321  -0.7277
6.392e+09  0.6957  -0.4997  0.004771  -0.03745  -0.0442  0.02181  0.3053  -0.8562
6.394e+09  0.5043  -0.7327  -0.02829  -0.0005297  0.08218  0.0119  0.001447  -0.9109
6.395e+09  0.1834  -0.8833  0.01836  0.005086  0.003147  -0.03541  -0.3081  -0.8238
6.396e+09  -0.02007  -0.8915  -0.0222  -0.002746  0.01516  0.0175  -0.592  -0.702
6.398e+09  -0.354  -0.8019  -0.04076  0.02227  0.01758  0.0162  -0.8045  -0.4406
6.399e+09  -0.625  -0.6038  0.03622  0.006553  -0.03918  0.009531  -0.8666  -0.1758
6.4e+09  -0.7957  -0.3953  0.01165  -0.01657  -0.02061  0.03031  -0.8847  0.1728
6.401e+09  -0.9167  -0.1088  0.03275  0.01265  -0.002817  6.766e-05  -0.8259  0.4883
6.402e+09  -0.8504  0.2637  -0.02893  -0.02021  -0.01468  -0.03868  -0.5851  0.7174
6.404e+09  -0.7243  0.5174  -0.01021  0.004852  0.03148  -0.006097  -0.3022  0.8297
6.405e+09  -0.4962  0.6558  0.0003968  -0.006946  -0.01607  -0.01751  0.01283  0.9148
6.406e+09  -0.2261  0.8674  0.01448  -0.02903  0.001619  -0.02053  0.3099  0.8653
6.408e+09  0.1038  0.8672  -0.001699  0.03721  -0.004638  0.01892  0.5816  0.7172
6.409e+09  0.3932  0.7866  0.0271  0.01679  0.01792  0.001545  0.7462  0.5126
6.41e+09  0.6177  0.5476  0.03285  -0.02414  0.02232  -0.01632  0.9085  0.155
6.411e+09  0.8086  0.3767  -0.005239  0.0002595  -0.03162  -0.01405  0.8735  -0.1459
6.412e+09  0.9083  0.06245  -0.01488  0.03195  0.08188  -0.006711  0.798  -0.4091
6.414e+09  0.8557  -0.2527  -0.03739  0.0122  0.02752  0.007147  0.5563  -0.7035
6.415e+09  0.6912  -0.5617  0.03985  0.001421  -0.03464  0.02128  0.3282  -0.8456
6.416e+09  0.4555  -0.7592  -0.003809  0.02615  -0.005457  0.001066  0.06532  -0.8875
6.418e+09  0.2094  -0.8315  0.0009721  -0.04438  -0.02637  -0.03043  -0.2636  -0.8817
6.419e+09  -0.1285  -0.8583  0.003551  -0.03953  0.01003  -0.00156  -0.5364  -0.7264
6.42e+09  -0.458  -0.7887  -0.04289  -0.009151  -0.04166  -0.03069  -0.7261  -0.4605
6.421e+09  -0.6436  -0.5828  0.03632  0.03042  0.04683  0.02661  -0.8911  -0.2501
6.422e+09  -0.8473  -0.3129  0.03525  0.009411  0.02487  0.04607  -0.8868  0.08463
6.424e+09  -0.8384  0.01228  -0.008451  0.03267  -0.06041  -0.0204  -0.7607  0.3914
6.425e+09  -0.8368  0.312  -0.007068  -0.0006393  -0.007495  0.01092  -0.5712  0.6382
6.426e+09  -0.674  0.534  -0.05408  -0.02867  -0.05516  0.007476  -0.3634  0.7875
6.428e+09  -0.4837  0.7514  0.02487  0.01645  -0.02334  0.01135  -0.06796  0.8859
6.429e+09  -0.1905  0.8258  0.03214  0.02929  0.002471  0.02688  0.2677  0.8138
6.43e+09  0.1788  0.8977  -0.01558  0.01149  0.002618  0.04976  0.4895  0.6961
6.431e+09  0.4468  0.7759  -0.01472  0.0272  0.03588  -0.02233  0.743  0.4595
6.432e+09  0.6743  0.5561  0.03188  0.008682  0.0188  0.01676  0.8713  0.1895
6.434e+09  0.8356  0.2999  0.02272  0.04049  0.01042  -0.04151  0.8273  -0.07477
6.435e+09  0.8421  0.02093  0.006475  0.04939  0.0123  0.004811  0.7806  -0.3265
6.436e+09  0.8167  -0.2457  0.01284  0.01906  -0.02145  0.04224  0.5951  -0.6286
6.438e+09  0.6985  -0.5597  -0.01196  -0.01399  -0.02416  0.03109  0.3513  -0.7833
6.439e+09  0.4194  -0.7773  -0.02616  0.01748  -0.08531  0.02596  0.0786  -0.8698
6.44e+09  0.1551  -0.8564  0.0291  0.003645  0.00942  0.0003183  -0.2096  -0.81
6.441e+09  -0.1492  -0.8809  0.01631  0.01894  -0.00591  -0.001635  -0.4685  -0.7013
6.442e+09  -0.4724  -0.7432  0.02233  0.001072  -0.02366  -0.04542  -0.7248  -0.4646
6.444e+09  -0.699  -0.5295  0.03705  -0.04207  0.02442  -0.006694  -0.8548  -0.2256
6.445e+09  -0.8108  -0.2454  -0.02068  -0.003316  0.002506  -0.005938  -0.8259  0.07213
6.446e+09  -0.8873  -0.03939  -0.03102  0.009975  -0.006605  0.005903  -0.774  0.3591
6.448e+09  -0.8575  0.2717  0.01455  0.0009651  0.04324  0.01601  -0.6337  0.553
6.449e+09  -0.644  0.5591  -0.03189  -0.01445  -0.005329  -0.003417  -0.3887  0.7246
6.45e+09  -0.443  0.7938  0.00688  0.02355  0.02327  -0.02025  -0.03798  0.8428
6.451e+09  -0.1434  0.9062  0.009623  0.001785  -0.01123  -0.03179  0.2076  0.8123
6.452e+09  0.09327  0.8581  -0.002076  0.05501  0.005226  -0.009419  0.4932  0.7284
6.454e+09  0.4022  0.7941  0.02863  -0.01045  0.02021  -0.02018  0.6596  0.481
6.455e+09  0.6898  0.5602  0.02573  0.00136  -0.02054  -0.06682  0.8035  0.2052
6.456e+09  0.7723  0.3477  0.0293  0.01652  0.002697  0.04031  0.7689  -0.07543
6.458e+09  0.8736  -0.01049  -0.01937  0.02022  0.009235  -0.01794  0.7174  -0.3164
6.459e+09  0.832  -0.2922  0.006274  0.003153  -0.03284  0.04984  0.5809  -0.5819
6.46e+09  0.6824  -0.5794  -0.02385  -0.01895  -0.0003671  0.04281  0.3836  -0.6727
6.461e+09  0.4301  -0.707  0.004885  -0.03314  -0.0179  0.01761  0.09272  -0.8014
6.462e+09  0.1802  -0.8551  -0.001784  0.01946  0.002793  -0.01557  -0.2428  -0.7857
6.464e+09  -0.1714  -0.8562  0.01081  0.02792  -0.03797  0.02665  -0.5142  -0.6797
6.465e+09  -0.4772  -0.6828  -0.03541  0.003926  0.003111  0.00375  -0.7172  -0.4241
6.466e+09  -0.7156  -0.5408  0.002537  0.02818  0.00546  0.01793  -0.7622  -0.1952
6.468e+09  -0.8567  -0.2565  0.01493  -0.01097  -0.009778  -0.02044  -0.7964  0.05798
6.469e+09  -0.8832  0.02692  -0.0006903  0.01919  0.02537  0.005044  -0.6883  0.3551
6.47e+09  -0.8367  0.2501  0.01146  0.006351  0.009814  -0.02824  -0.5793  0.5539
6.471e+09  -0.7315  0.5918  -0.03837  -0.02244  0.008108  0.04015  -0.3076  0.7413
6.472e+09  -0.4451  0.86  -0.01534  0.001537  -0.03923  -0.0281  -0.05982  0.788
6.474e+09  -0.1333  0.8868  -0.0008924  0.01699  0.0109  -0.02781  0.198  0.7715
6.475e+09  0.1545  0.9041  0.006298  -0.006415  -0.07065  -0.02669  0.4747  0.6432
6.476e+09  0.4644  0.7919  -0.006174  -0.01133  -0.04517  -0.02681  0.6712  0.441
6.478e+09  0.6636  0.5066  -0.01491  -0.0143  0.0008794  -0.02048  0.7823  0.1642
6.479e+09  0.8799  0.2557  0.03738  -0.03867  0.01411  0.0148  0.7732  -0.08953
6.48e+09  0.906  -0.08354  0.02781  0.02307  0.0125  0.03597  0.7009  -0.3849
6.481e+09  0.8423  -0.3326  0.02512  0.03626  -0.03938  0.009258  0.5283  -0.544
6.482e+09  0.6793  -0.579  -0.02218  0.01039  0.001752  0.03697  0.3379  -0.7168
6.484e+09  0.4162  -0.8126  0.00609  0.05286  -0.01098  -0.007408  0.1018  -0.7977
6.485e+09  0.09709  -0.928  -0.01483  -0.01344  0.02029  0.00229  -0.1921  -0.7703
6.486e+09  -0.1939  -0.8927  -0.03929  0.04623  -0.01697  -0.004325  -0.4362  -0.6144
6.488e+09  -0.4776  -0.7581  -0.02478  -0.05857  -0.03331  0.02808  -0.6414  -0.4118
6.489e+09  -0.7476  -0.5753  -0.02732  0.01897  -0.0463  0.0259  -0.7554  -0.2119
6.49e+09  -0.9005  -0.2565  0.03149  0.02271  0.0008098  0.01651  -0.7371  0.1074
6.491e+09  -0.9303  0.08716  -0.02365  -0.01917  -0.001879  -0.04017  -0.691  0.3169
6.492e+09  -0.8877  0.3698  -0.01139  0.00281  0.003432  0.03841  -0.5134  0.5726
6.494e+09  -0.6782  0.6585  -0.01824  0.03862  0.02919  0.009792  -0.3099  0.6821
6.495e+09  -0.464  0.8189  0.013  -0.002386  -0.03175  0.003194  -0.05646  0.7675
6.496e+09  -0.06003  0.9254  -0.003375  -0.03152  -0.03414  -0.03686  0.2596  0.725
6.498e+09  0.2035  0.9167  -0.01082  -0.005142  -0.01602  0.009969  0.4498  0.6036
6.499e+09  0.514  0.781  0.01518  -0.02206  -0.007384  -0.03369  0.6367  0.4266
6.5e+09  0.7505  0.5482  0.03873  -0.007286  -0.02718  -0.01776  0.7533  0.1801
6.501e+09  0.9193  0.2488  0.006349  0.01181  0.02197  -0.005912  0.7567  -0.1446
6.502e+09  0.9337  -0.08152  0.02061  0.01096  0.0194  -0.0005494  0.6917  -0.3588
6.504e+09  0.9161  -0.359  0.02791  0.05213  -0.01296  -0.05846  0.5037  -0.5648
6.505e+09  0.6898  -0.693  0.01278  0.03856  0.01449  0.008255  0.2882  -0.6842
6.506e+09  0.397  -0.8347  -0.01984  0.0238  0.03664  0.05134  0.0003187  -0.7557
6.508e+09  0.09533  -0.9253  0.0008235  0.01334  0.002346  0.002119  -0.2469  -0.7105
6.509e+09  -0.3058  -0.948  0.01162  -0.004074  -0.006881  0.04746  -0.4959  -0.5664
6.51e+09  -0.5374  -0.7753  0.02179  -0.01708  -0.01853  -0.007783  -0.6532  -0.4088
6.511e+09  -0.761  -0.5465  0.02649  -0.001584  0.003507  0.00282  -0.7446  -0.1569
6.512e+09  -0.9362  -0.1951  -0.008802  0.01596  0.003888  0.01987  -0.7517  0.1409
6.514e+09  -0.9395  0.1451  -0.00855  0.006161  0.03253  0.05448  -0.6647  0.3572
6.515e+09  -0.8837  0.4509  -0.00243  0.02347  -0.01395  -0.03446  -0.4885  0.5647
6.516e+09  -0.6147  0.7146  0.0216  -0.01764  -0.06888  0.04617  -0.2533  0.713
6.518e+09  -0.3436  0.9113  -0.01558  -0.01489  -0.02566  0.02026  0.02846  0.7108
6.519e+09  -0.005722  0.9488  -0.001649  -0.003399  0.0282  0.007826  0.2443  0.7063
6.52e+09  0.331  0.9226  -0.03713  0.05665  -0.005429  -0.05049  0.4636  0.5417
6.521e+09  0.6107  0.7625  0.004877  -0.003679  0.006422  0.01164  0.6283  0.347
6.522e+09  0.8424  0.4893  -0.009091  -0.01613  0.03135  -0.007211  0.7484  0.1122
6.524e+09  0.957  0.1516  -0.0007528  -0.009529  0.02606  0.02417  0.6987  -0.1462
6.525e+09  1.01  -0.1717  -0.02109  0.008159  -0.008708  -0.0004937  0.602  -0.4027
6.526e+09  0.8802  -0.5  0.02274  -0.0127  0.04692  0.0269  0.4473  -0.569
6.528e+09  0.6013  -0.737  0.009803  -0.01921  0.01107  -0.03592  0.2001  -0.6948
6.529e+09  0.3663  -0.9374  0.01094  0.006519  -0.0002207  -0.009149  -0.03384  -0.6791
6.53e+09  -0.01522  -0.9558  0.001952  0.001565  -0.01511  0.02578  -0.2794  -0.6422
6.531e+09  -0.3735  -0.8648  -0.01766  -0.03368  0.09359  0.04014  -0.4989  -0.4863
6.532e+09  -0.666  -0.724  0.007602  0.02793  -0.01541  -0.001058  -0.6126  -0.3109
6.534e+09  -0.8933  -0.4203  0.004616  -0.00957  -0.0284  -0.01115  -0.6812  -0.09535
6.535e+09  -1.021  -0.1661  0.02455  -0.03191  -0.01698  0.06962  -0.6157  0.1187
6.536e+09  -0.9264  0.249  -0.002704  0.01297  0.01547  -0.003309  -0.5848  0.2801
6.538e+09  -0.7577  0.5595  -0.02422  0.01913  0.007262  0.0259  -0.4394  0.4739
6.539e+09  -0.5436  0.7697  0.01351  0.003284  0.001453  0.01608  -0.2812  0.6082
6.54e+09  -0.2654  0.9234  0.01016  -0.03023  -0.01172  0.002291  -0.06374  0.6899
6.541e+09  0.1022  0.9583  -0.01011  0.002677  -0.01695  0.02934  0.1783  0.6637
6.542e+09  0.3689  0.8411  -0.01499  0.008667  0.04463  -0.004298  0.4432  0.5571
6.544e+09  0.7241  0.6754  -0.01636  0.02381  -0.03871  -0.05591  0.592  0.4054
6.545e+09  0.87  0.3695  0.02202  -0.005642  0.03459  0.01621  0.7109  0.1517
6.546e+09  0.9462  0.0247  0.003167  0.03919  0.01909  0.006597  0.6921  -0.0734
6.548e+09  0.9118  -0.3236  0.01002  -0.0006806  -0.01061  -0.002618  0.6289  -0.3362
6.549e+09  0.6823  -0.5993  -0.006683  -0.01266  0.01134  0.02036  0.4965  -0.5424
6.55e+09  0.4492  -0.8559  -0.01177  -0.009213  0.01336  0.00634  0.2923  -0.6609
