# Hz S RI R 50
6.25e+09  -0.4636  0.7372  0.005807  0.04387  -0.05572  0.0795  0.1509  0.4494
6.251e+09  -0.1644  0.9196  -0.02255  0.03314  -0.0136  0.05521  0.3711  0.4066
6.252e+09  0.1661  0.8232  -0.01495  -0.02789  -0.02656  0.01577  0.55  0.2576
6.254e+09  0.4332  0.696  0.001094  0.04795  -0.006388  0.02158  0.5823  0.03191
6.255e+09  0.6874  0.484  -0.005424  -0.003624  -0.003598  0.00409  0.5819  -0.2482
6.256e+09  0.8363  0.2004  0.01079  0.0003966  -0.04346  0.03485  0.4543  -0.4293
6.258e+09  0.8434  -0.02981  0.01334  0.0002835  0.01965  -0.002301  0.2788  -0.5802
6.259e+09  0.8831  -0.333  -0.01281  -0.0128  -0.03878  -0.006109  0.04232  -0.6528
6.26e+09  0.643  -0.5492  0.001726  -0.01018  -0.0312  -0.01806  -0.2123  -0.6402
6.261e+09  0.4283  -0.7441  -0.008673  0.006508  -0.02988  0.005137  -0.4483  -0.5232
6.262e+09  0.1298  -0.8283  -0.02491  -0.009069  -0.03193  -0.07296  -0.6339  -0.3425
6.264e+09  -0.1929  -0.7461  0.004918  -0.007168  0.01466  -0.04843  -0.7127  -0.1041
6.265e+09  -0.4618  -0.7336  -0.007954  -0.03703  -0.03346  0.01938  -0.7032  0.2016
6.266e+09  -0.6271  -0.5572  0.01452  0.002014  -0.0482  0.04654  -0.6283  0.4081
6.268e+09  -0.8232  -0.2625  -0.02144  0.005923  -0.03846  0.01322  -0.4347  0.6167
6.269e+09  -0.8821  -0.02548  -0.02091  -0.03053  -0.01122  -0.01315  -0.1929  0.7055
6.27e+09  -0.7901  0.3233  -0.01069  -0.0008743  0.002258  0.03596  0.03824  0.727
6.271e+09  -0.6094  0.5281  0.03973  -0.02405  0.04833  -0.04483  0.3175  0.6731
6.272e+09  -0.3818  0.7132  0.004048  0.02152  -0.06639  0.03024  0.5574  0.5138
6.274e+09  -0.06417  0.8026  -0.03633  -0.008432  -0.03114  0.03425  0.6827  0.3024
6.275e+09  0.1553  0.777  0.01731  -0.02352  0.03744  -0.01116  0.7588  0.06651
6.276e+09  0.451  0.7188  -0.008581  0.01981  -0.02995  0.002072  0.7068  -0.2548
6.278e+09  0.6448  0.482  -0.0004583  0.008721  0.0003892  -0.02682  0.6086  -0.4636
6.279e+09  0.8366  0.2373  -0.01008  0.01955  0.008944  -0.05097  0.4357  -0.6555
6.28e+09  0.8626  -0.04539  0.001944  0.009412  0.006224  -0.009136  0.176  -0.7422
6.281e+09  0.8012  -0.3431  0.005825  -0.005881  -0.0013  -0.005103  -0.08672  -0.7316
6.282e+09  0.5772  -0.5832  -0.0006004  0.01459  0.005158  0.0393  -0.3569  -0.6884
6.284e+09  0.4281  -0.7559  -0.02182  0.01122  0.008312  -0.05784  -0.5758  -0.5006
6.285e+09  0.08276  -0.852  0.02895  -0.02142  0.009583  0.03436  -0.7213  -0.2861
6.286e+09  -0.1736  -0.8369  -0.0001374  -0.02865  -0.009973  0.04899  -0.8025  -0.013
6.288e+09  -0.4359  -0.7581  -0.007172  -0.01984  -0.03308  0.00284  -0.7396  0.255
6.289e+09  -0.681  -0.4953  0.009362  0.009257  0.008011  -0.01  -0.6425  0.4812
6.29e+09  -0.7937  -0.2166  0.005206  0.004903  -0.007449  0.02337  -0.4376  0.6853
6.291e+09  -0.8081  0.05866  0.006157  0.003277  -0.01962  0.06591  -0.144  0.7702
6.292e+09  -0.7695  0.3925  0.0119  0.001306  -0.009683  0.02919  0.1343  0.8102
6.294e+09  -0.621  0.6151  0.009545  0.001164  -0.07748  -0.03768  0.3818  0.7033
6.295e+09  -0.3481  0.7604  -0.03634  0.008524  -0.007718  -0.01169  0.6345  0.5476
6.296e+09  -0.04991  0.8344  0.01557  0.02771  0.004663  -0.003299  0.7631  0.2985
6.298e+09  0.2068  0.8242  -0.009069  0.02659  -0.0158  -0.007409  0.8097  -0.02095
6.299e+09  0.5231  0.6398  0.01134  0.01105  0.04512  0.01792  0.7679  -0.2764
6.3e+09  0.6685  0.5045  -0.05409  -0.005286  0.02969  0.01766  0.6573  -0.574
6.301e+09  0.8405  0.1988  -0.01751  -0.02237  -0.009636  0.02972  0.4038  -0.7034
6.302e+09  0.8479  -0.1478  -0.01225  0.008719  -0.007835  -0.06418  0.1428  -0.8514
6.304e+09  0.7491  -0.363  -0.01985  -0.02614  0.0257  -0.01422  -0.1365  -0.8044
6.305e+09  0.5931  -0.5405  -0.02766  -0.007176  -0.03268  0.006925  -0.4216  -0.7489
6.306e+09  0.3431  -0.7349  -0.0248  0.008292  -0.005634  -0.00408  -0.6571  -0.5367
6.308e+09  -0.003331  -0.8323  0.003058  -0.01872  -0.01374  -0.01534  -0.7888  -0.3128
6.309e+09  -0.259  -0.7566  0.00523  -0.002299  0.001406  -0.04898  -0.8601  -0.007779
6.31e+09  -0.5498  -0.66  0.001399  0.002988  0.003068  -0.03657  -0.8147  0.2873
6.311e+09  -0.7024  -0.3557  -0.01217  0.02271  0.0102  -0.01833  -0.6927  0.5614
6.312e+09  -0.7477  -0.1186  0.03029  -0.00905  -0.00356  -0.03172  -0.4428  0.7344
6.314e+09  -0.8343  0.1814  0.0192  -0.01603  0.04613  0.04142  -0.1567  0.8673
6.315e+09  -0.7171  0.4106  -0.009817  -0.0241  -0.02383  0.02296  0.1159  0.8761
6.316e+09  -0.4925  0.6288  0.007376  0.00568  0.01053  -0.002931  0.4095  0.7769
6.318e+09  -0.3105  0.7656  -0.04746  -0.01895  0.01042  0.01258  0.659  0.5838
6.319e+09  0.01703  0.8338  0.01355  -0.03529  -0.01288  -0.0029  0.7974  0.3456
6.32e+09  0.2665  0.8069  -0.0124  -0.01345  0.008387  0.03914  0.8996  0.04173
6.321e+09  0.5326  0.6538  -0.01918  0.02484  -0.00812  0.02211  0.7959  -0.2482
6.322e+09  0.7182  0.4446  0.008138  0.02035  -0.008455  0.01151  0.6824  -0.5278
6.324e+09  0.861  0.09012  0.004761  0.02008  -0.05409  0.05442  0.4588  -0.7652
6.325e+09  0.8454  -0.2102  -0.005341  -0.009301  0.0218  -0.01147  0.2115  -0.876
6.326e+09  0.7266  -0.4289  0.008114  0.01825  0.004648  -0.01348  -0.142  -0.8753
6.328e+09  0.5341  -0.6936  -0.01148  -0.02403  -0.01596  0.009172  -0.4417  -0.7591
6.329e+09  0.2508  -0.7702  -0.01763  0.009554  0.02614  -0.05184  -0.6748  -0.5742
6.33e+09  -0.03964  -0.8225  0.006011  0.0003655  0.03161  0.04296  -0.8411  -0.3468
6.331e+09  -0.345  -0.8024  -0.002091  -0.01173  0.02559  -0.02753  -0.8655  -0.03119
6.332e+09  -0.5775  -0.6375  0.006353  0.009148  -0.007689  0.005534  -0.8252  0.3054
6.334e+09  -0.8063  -0.3347  -0.00745  0.013  -0.02024  0.00349  -0.7128  0.5898
6.335e+09  -0.8633  -0.06078  -0.02068  -0.02406  0.002077  -0.02232  -0.4993  0.7557
6.336e+09  -0.8165  0.2395  -0.00948  -0.01763  -0.02554  0.01269  -0.1553  0.9107
6.338e+09  -0.7269  0.4529  0.008417  0.005756  -0.06342  -0.02416  0.09013  0.8935
6.339e+09  -0.473  0.7262  0.02438  0.01804  0.002309  0.02626  0.4313  0.8106
6.34e+09  -0.1807  0.8734  0.006861  0.02251  -0.01177  0.02181  0.6553  0.5806
6.341e+09  0.144  0.8852  0.02973  -0.009779  0.008255  -0.001448  0.8551  0.4055
6.342e+09  0.4096  0.7573  -0.01749  -0.004786  -0.02461  -0.01512  0.9464  0.05689
6.344e+09  0.6557  0.6225  -0.001431  -2.832e-05  -0.02824  -0.04415  0.8923  -0.2593
6.345e+09  0.7945  0.3399  0.01522  0.01867  0.0112  0.01043  0.7324  -0.5385
6.346e+09  0.8311  -0.01327  -0.02567  -0.01392  -0.02444  0.03395  0.502  -0.7743
6.348e+09  0.7926  -0.2522  0.01036  0.009575  0.02215  -0.03568  0.2421  -0.912
6.349e+09  0.6484  -0.6113  0.01996  0.008434  0.009658  -0.02141  -0.1148  -0.9316
6.35e+09  0.4505  -0.751  -0.006548  0.001365  -0.0262  -0.03756  -0.4288  -0.8285
6.351e+09  0.1584  -0.8948  0.03635  0.05975  -0.0215  -0.01112  -0.6806  -0.6472
6.352e+09  -0.1654  -0.8291  -0.04473  -0.04537  0.0126  0.008311  -0.8378  -0.3395
6.354e+09  -0.4914  -0.7132  -0.01241  -0.0067  0.04608  0.007138  -0.9233  -0.05392
6.355e+09  -0.6793  -0.5319  -0.01666  -0.0002633  -0.007788  -0.02468  -0.9248  0.2417
6.356e+09  -0.8332  -0.3125  -0.008104  0.02013  -0.0005463  0.001654  -0.7638  0.5456
6.358e+09  -0.9206  0.0674  0.03473  0.02744  0.05691  0.007328  -0.5127  0.8164
6.359e+09  -0.8023  0.3462  -0.0006145  -0.01196  -0.02741  -0.008684  -0.2311  0.8729
6.36e+09  -0.6486  0.5942  -0.00577  0.02792  0.06959  -0.02807  0.09978  0.9234
6.361e+09  -0.3541  0.7632  0.02969  -0.04267  0.03095  -0.01481  0.4418  0.8555
6.362e+09  -0.0906  0.8734  -0.0007274  -0.01244  -0.02391  -0.01409  0.6995  0.6751
6.364e+09  0.1922  0.8633  0.008724  -0.00227  0.008473  0.01617  0.8463  0.412
6.365e+09  0.4762  0.7367  0.03004  -0.01094  0.004953  0.01842  0.9393  0.0603
6.366e+09  0.7562  0.4952  -0.008482  0.04003  0.07307  -0.002081  0.9265  -0.2166
6.368e+09  0.8656  0.245  0.009531  -0.01391  -0.02113  -0.003534  0.7748  -0.5616
6.369e+09  0.8517  -0.09792  -0.04038  -0.01223  0.007372  -0.03122  0.5188  -0.7648
6.37e+09  0.7942  -0.431  0.001352  0.01582  0.04691  0.005374  0.2377  -0.911
6.371e+09  0.6434  -0.6467  0.02307  0.0006422  0.00327  0.006389  -0.09089  -0.9414
6.372e+09  0.3145  -0.8406  0.01483  0.02054  -0.0127  0.01998  -0.391  -0.8597
6.374e+09  0.04296  -0.8649  0.002908  -0.01304  -0.03677  -0.01776  -0.6297  -0.6586
6.375e+09  -0.3122  -0.8741  -0.02702  0.02294  0.01482  0.01947  -0.8926  -0.3987
6.376e+09  -0.5341  -0.7218  -0.03015  -0.005823  0.05389  0.007759  -0.9272  -0.06349
6.378e+09  -0.7603  -0.4419  -0.01286  -0.01655  0.02795  0.02399  -0.9158  0.2801
6.379e+09  -0.8905  -0.1675  -0.005354  0.00603  -0.02227  -0.0138  -0.7785  0.5346
6.38e+09  -0.877  0.08118  0.01096  -0.044  0.02643  0.004492  -0.5864  0.7621
6.381e+09  -0.7789  0.4665  0.03387  0.02583  0.004704  -0.05089  -0.2141  0.888
6.382e+09  -0.6098  0.7244  -0.02148  0.02587  -0.02102  0.0005117  0.0194  0.9564
6.384e+09  -0.3185  0.7795  -0.005271  -0.02153  0.04508  -0.007471  0.3182  0.8609
6.385e+09  0.04854  0.9034  -0.01226  -0.03355  0.006255  -0.006976  0.653  0.727
6.386e+09  0.2256  0.8348  0.0284  0.007861  0.0162  0.02864  0.8399  0.4426
6.388e+09  0.5614  0.6986  -0.03228  -0.009809  -0.01686  0.00737  0.9068  0.08649
6.389e+09  0.7691  0.4553  0.01679  -0.02701  -0.02032  -0.00721  0.8902  -0.2392
6.39e+09  0.8746  0.148  -0.02187  -0.01613  0.01077  0.009066  0.7551  -0.5043
6.391e+09  0.8759  -0.1601  0.04022  -0.01219  0.005822  0.0484  0.5681  -0.7153
6.392e+09  0.749  -0.4822  0.007224  0.03257  0.02553  0.004865  0.2798  -0.887
6.394e+09  0.5731  -0.6611  -0.008041  -0.01621  -0.02343  -0.0307  -0.03109  -0.9216
6.395e+09  0.291  -0.868  0.004137  -0.03154  0.02972  -0.02967  -0.3475  -0.878
6.396e+09  0.002368  -0.9072  -0.03043  -0.02426  -0.01401  -0.035  -0.5999  -0.7245
6.398e+09  -0.337  -0.8641  0.02314  -0.03574  0.01081  -0.04268  -0.7929  -0.4135
6.399e+09  -0.6043  -0.6856  -0.03238  0.01636  0.01281  -0.02215  -0.8827  -0.1367
6.4e+09  -0.7591  -0.4494  0.01911  0.01624  -0.02048  0.00333  -0.8775  0.18
6.401e+09  -0.9133  -0.1408  -0.01433  -0.02354  -0.007136  -0.05693  -0.7997  0.4724
6.402e+09  -0.8633  0.1794  -0.004654  -0.01776  -0.006719  -0.004462  -0.6071  0.719
6.404e+09  -0.7273  0.4475  -0.05121  -0.01911  0.003553  0.05359  -0.3428  0.8204
6.405e+09  -0.5709  0.6927  0.01519  -0.01667  0.01664  0.02173  -0.03292  0.9383
6.406e+09  -0.225  0.8556  -0.009924  0.00333  0.003752  -0.02407  0.2959  0.8906
6.408e+09  0.09311  0.9158  0.006973  -0.01964  -0.02375  -0.02042  0.568  0.6678
6.409e+09  0.4096  0.7647  0.005941  -0.01004  -0.06188  -0.03181  0.7824  0.4907
6.41e+09  0.5754  0.6752  0.007007  -0.04335  0.04106  0.01398  0.8752  0.2197
6.411e+09  0.7785  0.3668  -0.05311  0.002547  -0.03385  0.02835  0.8728  -0.1792
6.412e+09  0.8685  0.06584  -0.00758  0.004816  0.02553  0.02351  0.7688  -0.4278
6.414e+09  0.8676  -0.2461  -0.02374  0.006221  -0.02076  0.0009025  0.5899  -0.6424
6.415e+09  0.6899  -0.4647  -0.042  0.02295  -0.006792  0.001768  0.33  -0.8382
6.416e+09  0.5453  -0.7246  0.02367  -0.01363  -0.0155  -0.0003655  0.04513  -0.8574
6.418e+09  0.267  -0.8677  0.006722  0.01198  0.02981  -0.02763  -0.2737  -0.8996
6.419e+09  -0.06745  -0.8738  -0.000855  -0.02246  -0.001034  -0.008963  -0.5566  -0.7122
6.42e+09  -0.3947  -0.7596  -0.00608  0.007579  -0.02033  0.02692  -0.746  -0.4864
6.421e+09  -0.5846  -0.6828  -0.02796  0.03874  -0.05111  0.02485  -0.8533  -0.1699
6.422e+09  -0.7837  -0.3345  0.02225  -0.05165  0.02989  -0.01022  -0.8621  0.1425
6.424e+09  -0.8392  -0.03342  -0.06405  0.02708  0.009155  -0.03816  -0.7959  0.4006
6.425e+09  -0.8492  0.2581  -0.01596  -0.006309  0.01043  0.008193  -0.631  0.6391
6.426e+09  -0.713  0.4689  -0.04538  -0.01662  0.03994  0.01259  -0.3631  0.7916
6.428e+09  -0.5216  0.7762  -0.005883  -0.01483  -0.004408  0.0261  -0.08187  0.8691
6.429e+09  -0.2286  0.8509  0.001349  0.007349  0.01115  -0.01829  0.2225  0.8459
6.43e+09  0.09172  0.8364  0.004851  0.03725  -0.08633  -0.02508  0.5028  0.6815
6.431e+09  0.3718  0.8228  -0.007083  0.03551  -0.00598  -0.01056  0.7456  0.4756
6.432e+09  0.6823  0.6299  0.01088  -0.01628  -0.03018  0.001984  0.829  0.1883
6.434e+09  0.7938  0.3208  -0.0187  0.02116  0.03053  -0.00632  0.8414  -0.1103
6.435e+09  0.8946  0.08074  0.04093  0.05959  0.008548  -0.02073  0.7911  -0.3702
6.436e+09  0.8416  -0.2359  0.01776  -0.01077  0.0138  -0.01951  0.5822  -0.6047
6.438e+09  0.7173  -0.4679  -0.02856  -0.03467  0.01377  -0.008294  0.3556  -0.7944
6.439e+09  0.5136  -0.7277  -0.05617  -0.003109  0.00531  -0.0136  0.0573  -0.87
6.44e+09  0.2464  -0.8722  0.02533  0.01328  0.006129  0.01843  -0.2109  -0.7983
6.441e+09  -0.03706  -0.8894  0.005712  -0.01839  -0.01682  -0.02441  -0.4771  -0.6594
6.442e+09  -0.4007  -0.8264  0.03954  0.04707  -0.009454  -0.03494  -0.7013  -0.4664
6.444e+09  -0.6784  -0.6254  0.01755  0.01802  -0.0007207  0.02  -0.8271  -0.2149
6.445e+09  -0.8004  -0.3611  -0.003735  -0.01858  -0.01772  -0.02994  -0.8134  0.04424
6.446e+09  -0.8931  -0.008816  -0.006948  -0.01113  -0.004819  -0.02196  -0.7631  0.3406
6.448e+09  -0.8635  0.2962  -0.007495  -0.00267  -0.036  -0.01544  -0.5842  0.5693
6.449e+09  -0.681  0.5462  -0.001233  -0.01572  -0.01858  -0.01199  -0.3135  0.7347
6.45e+09  -0.4922  0.7206  0.0163  -0.008398  -0.0351  0.0318  -0.05079  0.8001
6.451e+09  -0.1792  0.8684  -0.01658  -0.01773  -0.02757  7.394e-05  0.2075  0.8313
6.452e+09  0.1232  0.9156  0.01589  0.01896  -0.03232  -0.004268  0.4303  0.6401
6.454e+09  0.4086  0.8226  0.008098  0.006501  0.004234  0.03563  0.6827  0.5092
6.455e+09  0.6366  0.5879  0.008597  0.003989  0.006577  -0.01306  0.7782  0.2419
6.456e+09  0.8264  0.3395  0.03607  0.03266  -0.03268  0.0178  0.8336  -0.07564
6.458e+09  0.9218  0.08396  -0.009057  0.02138  0.0189  0.01846  0.769  -0.3797
6.459e+09  0.8101  -0.3104  -0.003603  -0.025  -0.02863  0.02678  0.6089  -0.5785
6.46e+09  0.742  -0.5277  0.006976  0.00642  -0.02163  -0.02268  0.3097  -0.7374
6.461e+09  0.5167  -0.7972  0.01539  -0.01032  0.07188  -0.004521  0.05028  -0.8067
6.462e+09  0.185  -0.8652  -0.02579  0.003192  -0.03393  0.03459  -0.2077  -0.7658
6.464e+09  -0.1051  -0.9337  0.002135  -0.01525  0.02317  -0.02163  -0.4495  -0.6831
6.465e+09  -0.4119  -0.7911  0.008908  -0.008863  -0.02396  -0.01306  -0.6605  -0.4897
6.466e+09  -0.6907  -0.6186  -0.007272  -0.01419  0.01541  0.03264  -0.8009  -0.1868
6.468e+09  -0.8269  -0.3669  -0.03622  -0.01986  -0.04822  0.06196  -0.8198  0.06559
6.469e+09  -0.9155  -0.05579  -0.005981  0.00891  -0.02416  -0.04196  -0.7182  0.3658
6.47e+09  -0.8347  0.2751  0.01051  -0.003168  0.001566  -0.0641  -0.5239  0.5644
6.471e+09  -0.7197  0.5819  0.03494  0.001265  -0.05883  0.02032  -0.2734  0.7166
6.472e+09  -0.5041  0.7671  -0.01629  -0.01393  0.01307  0.03685  -0.0804  0.8088
6.474e+09  -0.1811  0.8904  0.0111  0.01785  -0.005268  -0.01303  0.1865  0.7362
6.475e+09  0.103  0.8559  0.008722  -0.001187  -0.006734  -0.00152  0.4833  0.6881
6.476e+09  0.4482  0.8074  0.01871  -0.01734  -0.02843  -3.849e-05  0.6599  0.4364
6.478e+09  0.6929  0.6214  -0.0002005  -0.02143  -0.04996  0.04415  0.7478  0.1604
6.479e+09  0.8254  0.3295  -0.01628  0.0329  0.01402  0.02122  0.7866  -0.06008
6.48e+09  0.8978  0.01984  -0.002554  -0.002818  -0.01961  0.001967  0.6942  -0.3483
6.481e+09  0.8568  -0.2053  0.0403  0.03366  0.02564  -0.006955  0.5945  -0.5842
6.482e+09  0.6595  -0.5921  0.01717  0.005082  -0.02193  -0.009002  0.3583  -0.7154
6.484e+09  0.437  -0.7669  -0.0307  0.02521  0.005947  0.0241  0.05704  -0.7616
6.485e+09  0.1885  -0.9326  -0.004907  0.004795  0.003465  -0.03348  -0.2603  -0.7406
6.486e+09  -0.107  -0.8598  -0.02544  0.04578  0.01544  -0.04964  -0.435  -0.5998
6.488e+09  -0.466  -0.7986  0.02223  0.01013  -0.03014  -0.04767  -0.677  -0.4306
6.489e+09  -0.7004  -0.5885  0.01693  0.0003684  -0.03857  0.02654  -0.7653  -0.1666
6.49e+09  -0.8559  -0.3363  0.02632  0.005324  0.01187  0.03169  -0.7459  0.09398
6.491e+09  -0.9869  -0.03233  -0.01909  -0.01414  0.02119  0.01557  -0.6878  0.3101
6.492e+09  -0.8751  0.3056  -0.007008  -0.0155  0.01851  0.007156  -0.5087  0.5437
6.494e+09  -0.7145  0.5962  -0.01189  0.0133  0.01818  0.01051  -0.3035  0.7087
6.495e+09  -0.4595  0.8198  -0.005744  -0.03109  0.01085  0.02266  -0.03728  0.7962
6.496e+09  -0.133  0.8984  -0.01106  -0.04051  0.003882  0.002515  0.2091  0.688
6.498e+09  0.1393  0.9099  -0.01699  -0.0326  0.03619  -0.005288  0.4765  0.6251
6.499e+09  0.4527  0.7718  -0.0002754  0.006817  0.05057  0.0141  0.6315  0.424
6.5e+09  0.6869  0.5862  -0.009502  -0.02945  -0.04293  0.04076  0.762  0.1474
6.501e+09  0.8137  0.3651  0.02831  0.009901  -0.03384  -0.01285  0.7595  -0.1325
6.502e+09  1.009  -0.02594  0.000728  -0.002444  -0.004582  0.01527  0.663  -0.3629
6.504e+09  0.8741  -0.357  -0.02009  -0.01215  -0.02743  0.03428  0.4832  -0.5548
6.505e+09  0.6654  -0.6179  -0.005633  -7.625e-05  -0.04825  -0.0376  0.2529  -0.6859
6.506e+09  0.4574  -0.7717  0.01332  -0.02095  0.01369  0.02164  0.02947  -0.7496
6.508e+09  0.1016  -0.9039  0.03078  -0.005491  -0.01957  0.03603  -0.2164  -0.7171
6.509e+09  -0.2144  -0.9333  0.01468  0.01975  0.01684  -0.03002  -0.4581  -0.5697
6.51e+09  -0.5671  -0.8065  0.01796  0.01074  -0.02782  -0.03692  -0.6099  -0.3539
6.511e+09  -0.7817  -0.5977  0.001269  -0.02253  0.0189  -0.06342  -0.7355  -0.1642
6.512e+09  -0.9544  -0.2502  -0.02468  0.006442  0.02978  0.04088  -0.7057  0.1412
6.514e+09  -0.9689  0.03938  0.001921  -0.03073  0.02182  -0.03958  -0.6764  0.4115
6.515e+09  -0.9284  0.4236  -0.009118  0.007728  0.00368  -0.03517  -0.4728  0.5499
6.516e+09  -0.691  0.5961  0.002634  0.03501  0.02487  -0.003108  -0.2447  0.7173
6.518e+09  -0.4269  0.8932  -0.008455  -0.006814  0.00679  -0.04607  -0.007203  0.7241
6.519e+09  -0.1234  0.9564  -0.003448  -0.005696  -0.03076  0.006139  0.2547  0.7091
6.52e+09  0.2887  0.9777  -0.03359  -0.009312  0.0173  0.01908  0.5133  0.5701
6.521e+09  0.5588  0.7983  0.01771  0.0004851  0.002597  0.02796  0.6728  0.3369
6.522e+09  0.7692  0.5258  0.02208  0.006206  0.01195  -0.03107  0.7224  0.1109
6.524e+09  0.977  0.2469  0.007405  -0.05827  -0.0004361  0.008742  0.6867  -0.159
6.525e+09  0.9396  -0.06953  -0.01295  0.01115  -0.05494  -0.03962  0.6243  -0.4162
6.526e+09  0.8385  -0.5018  -0.008243  -0.01222  -0.02182  0.04983  0.4176  -0.5896
6.528e+09  0.6522  -0.7427  0.002502  0.01407  -0.0009562  0.01557  0.1966  -0.7073
6.529e+09  0.3964  -0.9334  -0.0003634  -0.01019  0.02389  0.003324  -0.05424  -0.7086
6.53e+09  -0.03574  -0.955  0.01937  -0.02727  0.02739  -0.003091  -0.2611  -0.6158
6.531e+09  -0.3259  -0.956  0.01455  -0.006951  -0.01758  0.06352  -0.4776  -0.4879
6.532e+09  -0.6275  -0.7675  0.01331  -0.001701  0.03625  0.01266  -0.5695  -0.2821
6.534e+09  -0.8478  -0.5356  -0.00173  -0.005794  0.00375  0.0005017  -0.6163  -0.06721
6.535e+09  -1.006  -0.1869  -0.005246  -0.01441  -0.01751  0.006266  -0.6208  0.116
6.536e+09  -0.9637  0.1713  -0.002436  -0.02363  -0.02624  0.01385  -0.5286  0.2952
6.538e+09  -0.8427  0.4945  0.005829  0.01897  -0.02615  -0.01196  -0.4162  0.4857
6.539e+09  -0.577  0.7509  0.006907  -0.01771  0.008801  0.07178  -0.2723  0.6078
6.54e+09  -0.3068  0.9126  -0.007952  0.008923  -0.0443  0.002357  -0.0437  0.6771
6.541e+09  0.05822  0.9504  0.002366  0.01199  0.01953  0.05837  0.1927  0.6737
6.542e+09  0.3529  0.928  0.005271  -0.02851  -0.02111  0.0002364  0.4154  0.5504
6.544e+09  0.6224  0.7688  -0.03568  0.02493  -0.02895  -0.03101  0.5411  0.4272
6.545e+09  0.8438  0.4408  -0.04601  -0.01722  0.06167  0.005989  0.7253  0.1643
6.546e+09  0.9887  0.113  0.007507  -0.02049  -0.007314  -0.05819  0.7253  -0.1093
6.548e+09  0.9674  -0.2022  0.05453  -0.01978  -0.0046  0.03391  0.6525  -0.3464
6.549e+09  0.799  -0.611  -0.02738  0.01813  -0.02155  0.03503  0.5234  -0.5329
6.55e+09  0.5893  -0.7889  0.01092  0.01505  -0.01783  0.000602  0.2819  -0.6609
