# Hz S RI R 50
6.25e+09  0.5172  0.6695  0.007447  0.01834  0.008122  -0.03425  0.1596  0.4575
6.251e+09  0.6852  0.4986  -0.001178  -0.01164  0.006683  0.09702  0.3398  0.3784
6.252e+09  0.8426  0.2082  -0.003615  -0.001265  -0.05208  0.01536  0.5569  0.2367
6.254e+09  0.8462  -0.157  -0.01756  -0.0259  -0.03638  0.027  0.5969  0.02656
6.255e+09  0.7235  -0.3594  -0.0005549  -0.01136  -0.04841  0.01697  0.5827  -0.2309
6.256e+09  0.5749  -0.5999  0.009576  -0.007253  -0.09029  -0.009236  0.4716  -0.456
6.258e+09  0.3555  -0.736  -0.04  -0.0148  0.02603  -0.01902  0.2812  -0.5986
6.259e+09  0.02453  -0.9083  0.0118  -0.02411  0.002256  0.09726  0.0522  -0.6526
6.26e+09  -0.2842  -0.7857  0.01587  0.02348  -0.01808  -0.0468  -0.2427  -0.6597
6.261e+09  -0.5741  -0.6437  0.007164  -0.01745  -0.01736  0.0223  -0.415  -0.5558
6.262e+09  -0.7349  -0.4118  0.0026  0.02925  -0.05207  -0.04454  -0.6205  -0.3503
6.264e+09  -0.8188  -0.1669  -0.01053  -0.01001  -0.03908  0.009917  -0.7105  -0.09372
6.265e+09  -0.8333  0.2054  0.01639  -0.0004311  0.02416  0.0101  -0.6674  0.1383
6.266e+09  -0.6991  0.4368  -0.01721  0.02361  -0.02258  0.04624  -0.5749  0.3734
6.268e+09  -0.4303  0.6186  0.002893  -0.01928  -0.01803  -0.05707  -0.4134  0.5597
6.269e+09  -0.2497  0.7784  0.02126  0.02965  -0.04809  -0.004229  -0.2138  0.7073
6.27e+09  0.04506  0.8183  -0.00979  0.004159  -0.03333  0.02832  0.07811  0.7251
6.271e+09  0.336  0.7765  0.01931  0.02089  0.005758  0.04794  0.3109  0.7059
6.272e+09  0.5412  0.6269  0.002414  0.008518  -0.01017  -0.004055  0.5505  0.5187
6.274e+09  0.7794  0.3777  0.0004473  0.03246  0.0001221  0.02377  0.6865  0.2958
6.275e+09  0.8795  0.07326  -0.00564  -0.006451  0.01311  -0.04568  0.7433  0.046
6.276e+09  0.8077  -0.2565  0.01118  -0.006383  0.02367  0.01615  0.724  -0.2112
6.278e+09  0.6456  -0.5051  0.003244  0.01414  -0.001503  0.03782  0.6193  -0.46
6.279e+09  0.4789  -0.6758  -0.02099  0.02002  0.000555  0.009676  0.4003  -0.6473
6.28e+09  0.1558  -0.7732  -0.004708  0.01192  0.02024  0.0004813  0.167  -0.766
6.281e+09  -0.123  -0.8703  0.001195  -0.004079  -0.01743  0.02065  -0.1372  -0.7927
6.282e+09  -0.3676  -0.7569  0.02577  0.01578  0.001628  -0.00321  -0.3388  -0.6969
6.284e+09  -0.5756  -0.5082  -0.01604  0.02622  0.04917  0.0266  -0.6095  -0.516
6.285e+09  -0.7777  -0.309  -0.01151  0.007279  -0.004915  -0.02695  -0.7437  -0.2975
6.286e+09  -0.836  -0.05498  0.0006171  0.01197  0.03038  0.03367  -0.8038  -0.03419
6.288e+09  -0.7441  0.2729  -0.01227  0.002198  -0.03056  -0.02589  -0.7103  0.248
6.289e+09  -0.649  0.5281  0.008064  0.03576  0.01123  0.01426  -0.6361  0.525
6.29e+09  -0.3958  0.6871  -0.02255  -0.008457  -0.03246  0.0001124  -0.4244  0.6907
6.291e+09  -0.07421  0.7748  0.01042  -0.005008  -0.006959  -0.02689  -0.1233  0.7845
6.292e+09  0.2231  0.7972  -0.004715  0.01523  0.05842  0.02264  0.1076  0.8282
6.294e+09  0.4261  0.7268  -0.001133  -0.0108  0.002093  -0.01464  0.4373  0.7084
6.295e+09  0.6724  0.4839  -0.04346  -0.01088  0.04048  0.05875  0.5859  0.5159
6.296e+09  0.7734  0.2335  0.03776  -0.005622  -0.02262  0.058  0.7219  0.2868
6.298e+09  0.7607  -0.08178  0.01922  -0.0289  0.04328  -0.009245  0.8346  0.008576
6.299e+09  0.7252  -0.3791  0.01725  -0.06513  -0.02063  0.021  0.7624  -0.2829
6.3e+09  0.5939  -0.5812  -0.01064  -0.008325  0.05304  -0.03707  0.6354  -0.5307
6.301e+09  0.3722  -0.7718  0.0243  0.003086  -0.01131  -0.003009  0.412  -0.6817
6.302e+09  0.0378  -0.8225  -0.008913  -0.01021  -0.0127  0.05921  0.1521  -0.797
6.304e+09  -0.2809  -0.7725  -0.01053  0.01573  0.006915  -0.02317  -0.1259  -0.8052
6.305e+09  -0.5368  -0.6027  -0.008595  -0.03313  -0.0007886  -0.02414  -0.3851  -0.7201
6.306e+09  -0.7276  -0.4465  -0.01674  0.01744  -0.01654  0.02939  -0.669  -0.5316
6.308e+09  -0.8144  -0.146  0.01183  0.003519  0.01225  0.01572  -0.8115  -0.2984
6.309e+09  -0.8189  0.1946  -0.005509  0.03132  -0.01642  -0.01097  -0.8664  -0.03095
6.31e+09  -0.6896  0.4591  0.0002306  -0.0211  0.04941  0.03463  -0.8034  0.2697
6.311e+09  -0.5667  0.6843  0.03733  0.002664  -0.006768  0.006894  -0.645  0.5168
6.312e+09  -0.2625  0.7629  -0.02003  -0.001741  -0.0231  -0.03374  -0.4305  0.7605
6.314e+09  0.08507  0.8655  0.01251  -0.01517  0.02425  0.02604  -0.1753  0.8483
6.315e+09  0.3446  0.7455  -0.01797  0.01662  0.0129  0.04659  0.1373  0.8175
6.316e+09  0.5867  0.6584  -0.0246  0.04432  0.0005963  -0.01709  0.4541  0.7797
6.318e+09  0.7686  0.3485  0.01525  0.01149  0.002923  0.01778  0.6571  0.5676
6.319e+09  0.8583  0.0824  -0.01644  -0.008054  0.0724  -0.006075  0.8268  0.3111
6.32e+09  0.811  -0.2476  -0.005901  0.009286  -0.01499  0.01561  0.8649  0.02229
6.321e+09  0.6545  -0.4986  -0.02097  0.002688  0.001723  -0.03589  0.8433  -0.2836
6.322e+09  0.4344  -0.7121  0.01014  -0.007891  -0.008292  -0.02498  0.6993  -0.55
6.324e+09  0.2029  -0.8649  0.02574  0.01437  -0.01509  0.03123  0.4703  -0.771
6.325e+09  -0.1345  -0.8546  -0.01108  -0.02055  0.02119  -0.003409  0.2288  -0.8486
6.326e+09  -0.3979  -0.7433  -0.01898  0.05445  -0.01132  -0.0341  -0.1223  -0.8795
6.328e+09  -0.6708  -0.5231  0.008794  0.001303  0.009716  -0.002017  -0.4414  -0.7885
6.329e+09  -0.7995  -0.2223  0.04403  0.04333  -0.01083  -0.01788  -0.6749  -0.5779
6.33e+09  -0.8585  0.02758  -0.008896  0.005024  0.021  -0.02831  -0.8571  -0.3372
6.331e+09  -0.8275  0.3466  0.01834  -0.004175  -0.003023  -0.04225  -0.9338  -0.0264
6.332e+09  -0.6298  0.5788  0.03201  -0.01012  -0.01673  0.00101  -0.8653  0.3204
6.334e+09  -0.379  0.7597  0.001199  -0.03797  -0.001101  -0.01986  -0.6902  0.5486
6.335e+09  -0.03825  0.8488  -0.008122  -0.002175  0.05058  -0.003958  -0.4884  0.7789
6.336e+09  0.2351  0.8596  -0.01085  0.03301  -0.02188  0.03551  -0.2139  0.903
6.338e+09  0.4852  0.7068  -0.007778  -0.01357  -0.05057  0.004213  0.1079  0.8848
6.339e+09  0.7318  0.525  0.002321  0.0009198  -0.009992  -0.02131  0.4065  0.8216
6.34e+09  0.8496  0.2299  -0.03325  -0.01736  -0.007756  -0.03518  0.6645  0.6212
6.341e+09  0.8187  -0.06543  -0.02819  -0.01776  0.05068  -0.05793  0.8851  0.3705
6.342e+09  0.7516  -0.4237  0.03069  0.01471  -0.01513  0.04969  0.9339  0.04169
6.344e+09  0.5825  -0.6699  0.001076  -0.01967  -0.03757  0.01796  0.8646  -0.2523
6.345e+09  0.3027  -0.793  -0.01148  -0.02326  0.001683  -0.04691  0.7451  -0.5532
6.346e+09  -0.04065  -0.8747  0.001334  -0.0001538  0.01838  -0.06049  0.523  -0.7801
6.348e+09  -0.2877  -0.813  0.01494  0.01101  0.02337  -0.01918  0.2505  -0.9119
6.349e+09  -0.5273  -0.6404  0.02972  0.01812  0.03338  0.0157  -0.07638  -0.9263
6.35e+09  -0.7378  -0.4171  -0.03109  -0.02037  0.007569  -0.01297  -0.4113  -0.841
6.351e+09  -0.8483  -0.1916  -0.02791  -0.0123  0.008404  -0.001208  -0.6916  -0.6657
6.352e+09  -0.8674  0.216  0.0008124  0.0226  -0.02581  0.02843  -0.8356  -0.4017
6.354e+09  -0.7158  0.479  -0.0009201  0.03045  0.02254  0.01433  -0.9395  -0.08812
6.355e+09  -0.538  0.7448  -0.01168  0.03637  -0.0218  -0.01228  -0.8962  0.2728
6.356e+09  -0.18  0.88  0.001899  0.006691  0.02164  -0.03012  -0.7294  0.5322
6.358e+09  0.04071  0.8891  0.007594  0.009397  0.02496  0.01211  -0.5176  0.7421
6.359e+09  0.3509  0.806  0.00655  -0.03515  0.004264  0.007829  -0.215  0.9268
6.36e+09  0.6326  0.6003  -0.03393  -0.0339  0.03786  0.04703  0.09998  0.8919
6.361e+09  0.7908  0.3547  0.004115  -0.005009  -0.04462  -0.01059  0.406  0.8848
6.362e+09  0.8332  0.0359  -0.001292  0.0445  0.01109  0.01031  0.6721  0.6758
6.364e+09  0.8027  -0.2557  -0.002211  -0.02621  -0.04041  -0.009537  0.8395  0.3893
6.365e+09  0.6746  -0.537  0.03732  -0.03335  -0.017  -0.0002001  0.9862  0.08431
6.366e+09  0.4466  -0.7347  0.02708  -0.03073  0.01751  -0.03686  0.9347  -0.215
6.368e+09  0.1792  -0.9037  0.01242  -0.005428  0.003655  0.00918  0.7462  -0.4977
6.369e+09  -0.1437  -0.8864  3.775e-05  -0.03917  0.03749  -0.008253  0.5207  -0.7776
6.37e+09  -0.4662  -0.7249  0.03818  0.01772  -0.01589  0.01743  0.3152  -0.9092
6.371e+09  -0.6932  -0.5635  -0.002375  0.01269  -0.002408  0.04176  -0.08876  -0.9741
6.372e+09  -0.8435  -0.2955  0.0113  -0.01827  0.04387  -0.04882  -0.3722  -0.8854
6.374e+09  -0.8836  0.02522  0.002276  0.01453  -0.02173  0.00414  -0.6307  -0.7142
6.375e+09  -0.7797  0.3329  0.008469  0.02304  0.001034  0.04335  -0.8594  -0.4182
6.376e+09  -0.6448  0.5761  -0.01433  0.01492  0.003791  -0.0001216  -0.963  -0.1252
6.378e+09  -0.4128  0.8007  0.008964  -0.003913  0.01127  0.04669  -0.8895  0.2699
6.379e+09  -0.08764  0.8413  -0.003991  0.02293  0.02814  0.04239  -0.791  0.5562
6.38e+09  0.2017  0.8084  -0.00718  -0.02374  -0.02688  0.00792  -0.58  0.7713
6.381e+09  0.516  0.7492  -0.0008673  0.02599  0.02206  -0.00311  -0.2812  0.9078
6.382e+09  0.7559  0.4865  0.03176  0.01351  0.00877  -0.0237  0.07873  0.9269
6.384e+09  0.8547  0.2142  0.001936  -0.0194  0.03275  0.008281  0.3634  0.8695
6.385e+09  0.8622  -0.08423  0.03658  -0.02554  -0.03524  0.02119  0.6245  0.6751
6.386e+09  0.7415  -0.4316  0.002609  0.001789  0.03747  0.03994  0.8432  0.4598
6.388e+09  0.5886  -0.6735  -0.0224  0.0221  0.0001652  0.002526  0.9377  0.0999
6.389e+09  0.301  -0.7806  -0.03706  -0.01126  0.05388  -0.01177  0.9005  -0.1989
6.39e+09  0.004665  -0.8745  0.03984  -0.0004337  -0.01428  0.01392  0.787  -0.4882
6.391e+09  -0.2764  -0.7886  0.0638  0.03392  -0.006586  0.03423  0.5531  -0.697
6.392e+09  -0.5602  -0.663  0.009179  -0.02702  0.003072  -0.02745  0.2983  -0.894
6.394e+09  -0.7673  -0.4522  0.01762  0.0343  0.01452  -0.02795  -0.0623  -0.8957
6.395e+09  -0.8722  -0.1799  0.005196  -0.01117  -0.002858  0.002495  -0.3356  -0.8687
6.396e+09  -0.8801  0.176  0.00355  -0.03614  -0.005878  -0.03347  -0.6042  -0.7099
6.398e+09  -0.6848  0.4896  0.03522  -0.005482  -0.037  0.007701  -0.816  -0.4283
6.399e+09  -0.4909  0.702  -0.01389  0.005479  -0.006239  0.03405  -0.894  -0.1272
6.4e+09  -0.2221  0.8496  -0.005115  0.007401  -0.01972  0.03521  -0.8874  0.1969
6.401e+09  0.02185  0.8299  0.07746  0.004536  -0.01923  0.009777  -0.7463  0.4734
6.402e+09  0.3066  0.8103  -0.03098  -0.005074  0.02423  0.0251  -0.6111  0.7004
6.404e+09  0.5773  0.6097  -0.007125  0.02074  -0.04625  0.05342  -0.3386  0.8564
6.405e+09  0.8279  0.4  -0.02996  -0.02079  0.001826  -0.0529  0.01572  0.9186
6.406e+09  0.9147  0.07011  0.03553  0.01637  0.01896  -0.01751  0.3553  0.8607
6.408e+09  0.8091  -0.284  -0.00224  -0.03943  -0.001551  0.02455  0.5864  0.7113
6.409e+09  0.6776  -0.5272  0.03224  -0.02167  0.013  0.008388  0.7972  0.4908
6.41e+09  0.4596  -0.7819  0.003524  0.02085  0.03993  0.004384  0.9524  0.1622
6.411e+09  0.1322  -0.8616  -0.01169  0.01351  -0.007442  -0.01897  0.8587  -0.1077
6.412e+09  -0.07141  -0.8437  -0.003692  0.0337  -0.02453  -0.01148  0.7887  -0.4275
6.414e+09  -0.4756  -0.7433  -0.006428  -0.0205  0.07055  -0.04338  0.5781  -0.6351
6.415e+09  -0.7152  -0.5171  -0.03509  -0.004011  0.003616  -0.02698  0.2956  -0.8542
6.416e+09  -0.8233  -0.2437  0.01743  -0.03641  0.01007  0.01058  0.005589  -0.8728
6.418e+09  -0.8702  0.0931  0.005274  0.0151  0.01774  0.02519  -0.2364  -0.8117
6.419e+09  -0.7859  0.3735  -0.03276  -0.01437  -0.04865  -0.04542  -0.5747  -0.7331
6.42e+09  -0.5775  0.588  0.003716  -0.03929  0.02437  -0.01859  -0.7085  -0.4745
6.421e+09  -0.3551  0.8085  -0.0001049  -0.04826  0.03415  -0.003548  -0.9095  -0.2191
6.422e+09  -0.01717  0.8825  0.03087  -6.084e-05  -0.05796  0.03709  -0.8916  0.1105
6.424e+09  0.2843  0.8564  -0.01033  -0.01005  -0.008223  0.02513  -0.7567  0.3745
6.425e+09  0.6213  0.6719  1.437e-05  -0.01284  0.01777  -0.0004098  -0.6137  0.675
6.426e+09  0.7875  0.4093  -0.006835  0.03593  0.0157  0.0006433  -0.3086  0.8138
6.428e+09  0.9129  0.1039  0.00163  -0.001013  -0.04041  0.01149  -0.06117  0.8572
6.429e+09  0.8963  -0.1991  -0.02574  -0.02018  0.01804  -0.03836  0.2334  0.7978
6.43e+09  0.7272  -0.524  0.01861  0.003046  0.02296  0.01899  0.453  0.7243
6.431e+09  0.5271  -0.7674  0.01398  -0.04397  -0.02207  -0.0353  0.6684  0.4787
6.432e+09  0.1724  -0.8737  -0.02334  -0.02885  -0.01417  0.01153  0.8424  0.2339
6.434e+09  -0.1249  -0.881  -0.02877  0.007073  0.02937  0.02984  0.9286  -0.1077
6.435e+09  -0.4506  -0.7593  -0.03344  -0.001219  -0.02072  0.01013  0.7639  -0.3602
6.436e+09  -0.6391  -0.625  -0.03015  0.02107  -0.02122  0.02514  0.6126  -0.5987
6.438e+09  -0.9013  -0.2846  -7.058e-05  0.02666  0.02053  0.008344  0.3335  -0.794
6.439e+09  -0.894  0.05972  0.04085  -0.04814  0.0166  -0.01493  0.03332  -0.8277
6.44e+09  -0.8603  0.3644  -0.005152  0.006269  0.01038  -0.02884  -0.2438  -0.8117
6.441e+09  -0.612  0.6717  0.007179  -0.006236  -0.0694  0.02216  -0.4757  -0.69
6.442e+09  -0.3568  0.8114  0.01888  0.003517  -0.0003913  -0.01033  -0.6951  -0.5455
6.444e+09  -0.05217  0.9205  0.03344  -0.03118  -0.0006571  0.007236  -0.8242  -0.1753
6.445e+09  0.3112  0.8477  -0.05613  -0.05466  -0.03537  0.01353  -0.8045  0.09456
6.446e+09  0.6119  0.6933  -0.008306  -0.02637  0.02534  0.06024  -0.7518  0.3405
6.448e+09  0.7706  0.4356  -0.00642  0.001191  0.05724  0.01191  -0.5726  0.6016
6.449e+09  0.9026  0.05717  -0.05407  0.01738  -0.001674  -0.01284  -0.3131  0.7871
6.45e+09  0.8346  -0.2594  0.02014  -0.01286  -0.02941  0.01164  -0.07664  0.8847
6.451e+09  0.6459  -0.5479  0.006256  -0.001528  -0.02524  0.02529  0.2056  0.8677
6.452e+09  0.4674  -0.7717  0.04724  -0.01799  -0.009973  -0.05777  0.47  0.6908
6.454e+09  0.1794  -0.8535  -0.01972  0.01103  -0.02769  0.01245  0.6545  0.4528
6.455e+09  -0.2175  -0.8619  -0.01286  0.03138  -0.04142  -0.02055  0.7688  0.19
6.456e+09  -0.4492  -0.7876  -0.002134  -0.01234  0.0366  0.004294  0.8153  -0.07303
6.458e+09  -0.6856  -0.5338  -0.02742  -0.01842  -0.0003574  0.02524  0.766  -0.326
6.459e+09  -0.8351  -0.2552  0.03981  -0.01739  -0.0131  -0.03772  0.5978  -0.546
6.46e+09  -0.8856  0.08959  -0.003814  -0.006541  0.04083  0.01389  0.3798  -0.7368
6.461e+09  -0.8005  0.3874  0.01661  -0.02201  -0.02617  0.04183  0.0802  -0.8159
6.462e+09  -0.6109  0.6835  -0.02508  0.05669  -0.008376  0.01462  -0.1991  -0.7967
6.464e+09  -0.2323  0.8486  0.03295  -0.006323  -0.009026  0.02162  -0.4544  -0.6587
6.465e+09  0.05882  0.8729  0.05002  -0.03346  0.0675  -0.03866  -0.671  -0.4329
6.466e+09  0.3489  0.7549  -0.01624  -0.001217  -0.003702  -0.02951  -0.7766  -0.1951
6.468e+09  0.6136  0.5656  -0.009001  -0.001763  0.03585  0.01249  -0.7875  0.07619
6.469e+09  0.7852  0.3521  0.02752  -0.02968  -0.04914  -0.04188  -0.7505  0.3176
6.47e+09  0.8361  0.04836  0.02414  0.01853  -0.008167  -0.03645  -0.5643  0.5637
6.471e+09  0.8151  -0.2519  -0.0147  -0.03624  -0.0007897  0.002363  -0.3381  0.7379
6.472e+09  0.6245  -0.53  0.0473  -0.008094  -0.0157  0.02578  -0.0271  0.7986
6.474e+09  0.3457  -0.7281  0.005755  0.01578  -0.02316  0.001793  0.2178  0.737
6.475e+09  0.08203  -0.8332  0.005687  0.01307  -0.01743  0.002441  0.4656  0.6388
6.476e+09  -0.1707  -0.8421  -0.01197  0.009995  -0.005503  0.02249  0.671  0.4385
6.478e+09  -0.4974  -0.665  -0.01366  -0.02986  -0.00287  -0.01463  0.7837  0.2294
6.479e+09  -0.7149  -0.4067  -0.003429  -0.01789  -0.02863  0.02867  0.7662  -0.04112
6.48e+09  -0.7951  -0.1414  0.02425  0.001452  0.0265  0.04851  0.6779  -0.42
6.481e+09  -0.7954  0.1691  -0.006125  0.009861  -0.003719  0.01561  0.5545  -0.6074
6.482e+09  -0.6493  0.4028  0.0199  -0.01756  -0.04011  -0.01801  0.3329  -0.7351
6.484e+09  -0.4803  0.6681  0.01606  -0.01191  0.03219  0.04713  0.02614  -0.7402
6.485e+09  -0.2074  0.7708  -0.04061  0.02407  0.0288  0.04825  -0.2568  -0.7636
6.486e+09  0.09599  0.8381  0.008031  -0.008774  0.006058  -0.002136  -0.4839  -0.6451
6.488e+09  0.4095  0.6698  0.05098  -0.03971  -0.0321  -0.03074  -0.6224  -0.4079
6.489e+09  0.6308  0.527  -0.01443  0.03164  0.01726  -0.002078  -0.7431  -0.2064
6.49e+09  0.7508  0.2641  -0.0001924  -0.02018  -0.04043  -0.02926  -0.7541  0.09875
6.491e+09  0.7906  -0.06185  0.06244  0.03423  -0.003979  -0.01403  -0.6974  0.3479
6.492e+09  0.6579  -0.3076  0.006213  0.05205  0.004851  0.05085  -0.5342  0.5673
6.494e+09  0.5113  -0.5467  -0.03653  0.01236  0.01297  0.01181  -0.3145  0.7355
6.495e+09  0.3405  -0.6534  0.0115  0.01243  0.007486  0.01905  -0.03822  0.7824
6.496e+09  0.05062  -0.7362  0.004553  0.005763  -0.06155  0.003087  0.218  0.73
6.498e+09  -0.212  -0.699  0.006057  -0.01687  -0.006923  -0.03363  0.4643  0.6001
6.499e+09  -0.4837  -0.5969  -0.01033  0.0265  0.0288  -0.0722  0.6144  0.438
6.5e+09  -0.6339  -0.3598  0.005604  0.01562  -0.01082  -0.00315  0.7461  0.1699
6.501e+09  -0.7214  -0.0823  0.0002928  -0.02404  0.005481  0.0456  0.7747  -0.06699
6.502e+09  -0.7239  0.2085  0.02396  -0.0007696  0.005608  -0.02935  0.6694  -0.3733
6.504e+09  -0.604  0.4487  0.01564  0.008244  0.000474  -0.02472  0.5269  -0.5417
6.505e+09  -0.428  0.6347  -0.02399  -0.002522  -0.01243  -0.0161  0.3118  -0.6885
6.506e+09  -0.1687  0.729  0.002499  -0.005733  0.005379  -0.004448  0.05953  -0.7593
6.508e+09  0.1388  0.7542  0.02165  0.004921  -0.04186  -0.01462  -0.2713  -0.7139
6.509e+09  0.3286  0.6658  -0.02547  -0.00365  -0.04329  -0.03869  -0.4727  -0.565
6.51e+09  0.5719  0.5095  0.002721  0.01168  0.0118  -0.000976  -0.6631  -0.3868
6.511e+09  0.7283  0.2235  -0.01592  -0.01716  0.01014  0.01827  -0.74  -0.1344
6.512e+09  0.7081  -0.03971  0.01264  0.01426  -0.02011  -0.01054  -0.7559  0.09415
6.514e+09  0.7021  -0.3179  0.006213  -0.007325  0.02249  -0.05521  -0.6329  0.3432
6.515e+09  0.5354  -0.5358  0.005648  0.01938  -0.04005  -0.0357  -0.4895  0.6
6.516e+09  0.3223  -0.6999  -0.004962  -0.01989  -0.003939  0.02715  -0.2258  0.7156
6.518e+09  0.04563  -0.7636  0.03094  0.02484  0.01302  -0.006333  0.003503  0.7343
6.519e+09  -0.2121  -0.631  -0.02319  -0.05622  -0.0225  -0.02206  0.3208  0.6891
6.52e+09  -0.4509  -0.5725  -0.03311  -0.00148  0.03981  0.01548  0.4633  0.5215
6.521e+09  -0.6297  -0.398  -0.008417  0.02453  -0.0119  0.04423  0.6564  0.3448
6.522e+09  -0.7068  -0.1092  -0.01668  -0.01341  -0.007199  -0.03563  0.7337  0.113
6.524e+09  -0.7533  0.09954  -0.001339  -0.009088  0.03783  -0.004996  0.7043  -0.1482
6.525e+09  -0.6361  0.3857  0.02057  -0.003527  -0.03743  0.01011  0.598  -0.3542
6.526e+09  -0.4519  0.6067  -0.01382  0.006996  -0.02131  0.04271  0.4117  -0.5927
6.528e+09  -0.1985  0.6826  -0.01649  0.01063  0.006613  -0.01643  0.2045  -0.6944
6.529e+09  0.07924  0.7168  0.006941  -0.003637  0.006116  -0.01675  -0.06798  -0.6683
6.53e+09  0.2635  0.6566  -0.02496  -0.01107  -0.03479  -0.0572  -0.28  -0.6142
6.531e+09  0.5447  0.4465  -0.03204  0.01999  -0.03412  0.007658  -0.5041  -0.4788
6.532e+09  0.6589  0.2791  0.02669  0.0316  0.0236  0.02269  -0.5806  -0.2901
6.534e+09  0.7472  0.058  -0.04152  0.0126  0.06559  -0.0008123  -0.6298  -0.06904
6.535e+09  0.7196  -0.2308  0.02326  -0.01152  -0.03738  0.04522  -0.6177  0.131
6.536e+09  0.613  -0.5097  0.01903  -0.03522  0.01822  -0.02076  -0.5681  0.3225
6.538e+09  0.355  -0.646  -0.007055  -0.01126  -0.005982  -0.002505  -0.4491  0.4404
6.539e+09  0.081  -0.726  -0.02076  -0.008859  -0.02094  -0.007971  -0.2691  0.6414
6.54e+09  -0.1921  -0.7117  -0.0114  -0.002115  -0.0272  0.07513  -0.07279  0.6719
6.541e+09  -0.3802  -0.6367  0.009259  0.02321  -0.02513  -0.006063  0.1649  0.6969
6.542e+09  -0.6397  -0.4575  0.02304  0.004331  -0.02777  0.03396  0.3809  0.5926
6.544e+09  -0.7266  -0.1388  0.02681  -0.01346  0.03793  0.02263  0.5857  0.407
6.545e+09  -0.7284  0.04356  -0.01228  -0.01972  -0.03916  -0.02809  0.6994  0.1565
6.546e+09  -0.6642  0.3605  0.01123  0.01196  0.02593  -0.009385  0.7112  -0.1132
6.548e+09  -0.5445  0.5559  -0.03713  -0.02769  -0.0004959  -0.03876  0.6445  -0.3096
6.549e+09  -0.2165  0.7083  -0.02909  -0.005835  0.05322  -0.0318  0.5216  -0.4915
6.55e+09  -0.01579  0.8192  0.0209  0.005718  -0.04084  0.01402  0.299  -0.6443
