# Hz S RI R 50
6.25e+09  -0.6366  0.6242  -0.004581  -0.03467  0.01028  -0.04368  0.1774  0.5028
6.251e+09  -0.3745  0.7531  -0.025  -0.01135  -0.03705  0.009658  0.3855  0.4188
6.252e+09  -0.06618  0.8542  0.002925  0.01569  0.0001412  0.06807  0.5338  0.2322
6.254e+09  0.2199  0.8022  -0.00714  0.02208  -0.03857  0.0488  0.5914  -0.01381
6.255e+09  0.5107  0.6882  -0.04534  -0.03499  -0.02557  -0.01047  0.5619  -0.2506
6.256e+09  0.6627  0.5171  0.007385  0.0008798  -0.0192  -0.04991  0.4934  -0.4262
6.258e+09  0.7773  0.1972  -0.01462  0.005454  0.00228  0.02671  0.2886  -0.5975
6.259e+09  0.8594  -0.1435  0.004299  0.04197  0.02227  -0.03145  0.03067  -0.6759
6.26e+09  0.7238  -0.3665  0.01842  -0.03026  0.08047  -0.0572  -0.2166  -0.648
6.261e+09  0.5851  -0.5518  0.002901  0.01898  0.02596  -0.03026  -0.4246  -0.5244
6.262e+09  0.3327  -0.7583  -0.01238  -0.006932  0.02658  -0.02021  -0.6001  -0.3155
6.264e+09  0.08999  -0.932  0.0003747  0.01101  -0.03203  -0.00296  -0.7031  -0.07881
6.265e+09  -0.2413  -0.8172  -0.02213  0.002412  -0.00132  0.01037  -0.739  0.1111
6.266e+09  -0.4716  -0.7178  -0.004865  -0.004145  0.04919  0.00219  -0.5847  0.3636
6.268e+09  -0.7188  -0.4561  0.0235  0.008576  -0.06714  -0.008757  -0.4513  0.5577
6.269e+09  -0.8676  -0.2229  0.03062  -0.02783  0.001144  -0.002562  -0.1808  0.6858
6.27e+09  -0.8707  0.08109  -0.03199  0.003423  -0.03541  -0.02532  0.06116  0.7553
6.271e+09  -0.7824  0.3475  -0.000723  -0.02332  -0.04393  0.005596  0.3292  0.6485
6.272e+09  -0.5549  0.5968  -0.007816  0.01791  -0.08916  0.06039  0.5295  0.5206
6.274e+09  -0.3215  0.7673  -0.001962  -0.01131  0.03843  -0.02328  0.6787  0.3065
6.275e+09  -0.03681  0.8484  -0.01716  -0.006024  0.04228  0.03821  0.7444  0.0432
6.276e+09  0.2407  0.7922  -0.02125  -0.01716  0.0004922  -0.02793  0.7358  -0.2495
6.278e+09  0.4319  0.6202  -0.0219  0.001462  -0.01323  -0.0267  0.5934  -0.471
6.279e+09  0.685  0.4947  -0.0201  0.02916  -0.009155  -0.008088  0.4508  -0.6401
6.28e+09  0.7367  0.236  0.0004847  0.005826  0.02259  -0.00417  0.1639  -0.7371
6.281e+09  0.8518  -0.0899  0.01348  -0.005269  0.001447  -0.0135  -0.1191  -0.773
6.282e+09  0.7734  -0.3037  -0.01508  -0.03504  0.01474  -0.008327  -0.3681  -0.7087
6.284e+09  0.5603  -0.5855  -0.00934  0.006183  0.005319  0.01718  -0.5838  -0.5312
6.285e+09  0.3425  -0.726  -0.002038  -0.01277  0.001363  0.03994  -0.7148  -0.3222
6.286e+09  0.03829  -0.7688  -0.006903  0.01816  -0.01139  -0.05667  -0.7719  -0.0348
6.288e+09  -0.2321  -0.8158  0.007541  -0.002328  0.002197  0.07344  -0.7298  0.2806
6.289e+09  -0.5044  -0.6234  0.02608  -0.02443  0.01378  -0.003978  -0.6135  0.4817
6.29e+09  -0.7228  -0.4099  0.001434  0.004083  0.03526  -0.00907  -0.4073  0.6699
6.291e+09  -0.8049  -0.1883  -0.0005483  -0.03016  -0.03118  -0.04071  -0.1273  0.7861
6.292e+09  -0.8526  0.1135  0.005402  0.02008  -0.01563  -0.0133  0.09798  0.7898
6.294e+09  -0.7168  0.4004  -0.02731  -0.0215  0.0031  -0.007568  0.3859  0.6885
6.295e+09  -0.5536  0.5861  -0.009611  0.016  0.003784  0.03798  0.624  0.5249
6.296e+09  -0.316  0.7112  0.002683  -0.002325  -0.03468  -0.005165  0.7645  0.2955
6.298e+09  0.00412  0.7899  0.003603  0.003103  -0.005681  0.02029  0.818  0.02349
6.299e+09  0.2697  0.786  0.007401  -0.005451  0.01875  0.03216  0.7872  -0.2634
6.3e+09  0.5473  0.675  -0.004902  0.004638  0.005524  0.03911  0.6308  -0.5481
6.301e+09  0.6928  0.4124  0.002246  0.01663  -0.05385  0.009077  0.4023  -0.7209
6.302e+09  0.7655  0.1843  -0.02275  -0.01322  -0.06053  -0.01427  0.1636  -0.8041
6.304e+09  0.8146  -0.1757  -0.01126  0.01311  -0.01616  -0.009783  -0.136  -0.8344
6.305e+09  0.7375  -0.4287  -0.01778  -0.01422  0.02152  0.02712  -0.3759  -0.7432
6.306e+09  0.5276  -0.6642  -0.001365  0.002834  -0.03304  0.04051  -0.6362  -0.5665
6.308e+09  0.332  -0.7211  0.02735  0.02463  -0.04149  -0.02796  -0.7979  -0.2746
6.309e+09  -0.02175  -0.8251  -0.02491  -0.0109  0.02635  -0.005162  -0.8233  -0.005199
6.31e+09  -0.3631  -0.7228  0.01787  0.02345  -0.02888  -0.004737  -0.8087  0.2713
6.311e+09  -0.4954  -0.5698  -0.002291  -0.001862  0.007617  -0.01599  -0.6544  0.5858
6.312e+09  -0.7532  -0.3984  0.02083  -0.006862  -0.04403  -0.01225  -0.445  0.7284
6.314e+09  -0.8533  -0.146  -0.02107  -0.01261  0.03522  -0.05836  -0.152  0.8287
6.315e+09  -0.8046  0.1245  0.02431  0.04152  -0.022  -0.01361  0.1172  0.868
6.316e+09  -0.7077  0.4577  -0.01427  -0.01061  -0.006068  0.04171  0.4459  0.7627
6.318e+09  -0.4365  0.6737  0.009175  -0.0028  -0.008811  -0.01544  0.6383  0.5536
6.319e+09  -0.2141  0.7948  -0.01717  0.006848  -0.02791  0.01564  0.8157  0.3108
6.32e+09  0.02332  0.8348  0.0363  0.007607  0.04703  0.004942  0.8859  0.03215
6.321e+09  0.3194  0.754  -0.006975  0.02  0.01335  0.007365  0.8376  -0.2917
6.322e+09  0.5756  0.6169  0.006679  -0.01039  -0.009859  -0.02676  0.7088  -0.5488
6.324e+09  0.7691  0.4023  -0.0007679  -0.01364  0.009313  0.00947  0.4671  -0.7682
6.325e+09  0.858  0.1194  -0.007551  -0.02098  -0.02395  0.02417  0.1885  -0.8711
6.326e+09  0.8222  -0.2433  0.021  -0.003981  -0.009284  0.04759  -0.1357  -0.9095
6.328e+09  0.6725  -0.51  0.01854  -0.007652  0.0413  0.01079  -0.4439  -0.7741
6.329e+09  0.4969  -0.6561  0.0005333  -0.01848  0.02315  -0.01648  -0.6622  -0.6228
6.33e+09  0.2047  -0.8091  -0.02788  -0.0196  0.04534  -0.05527  -0.8546  -0.3121
6.331e+09  -0.05446  -0.8715  -0.01026  -0.03096  0.02475  0.008876  -0.9312  0.001577
6.332e+09  -0.3765  -0.7626  -0.03971  0.001219  0.001697  0.01781  -0.8629  0.2692
6.334e+09  -0.6131  -0.62  -0.01738  0.003059  0.01274  0.03057  -0.7045  0.5449
6.335e+09  -0.7898  -0.3114  -0.02407  0.01563  -0.05633  -0.01289  -0.5028  0.8112
6.336e+09  -0.8688  -0.04319  -0.006952  -0.001757  -0.04971  0.008045  -0.2267  0.8953
6.338e+09  -0.804  0.2452  -0.01113  -0.008834  -0.01501  -0.002183  0.113  0.8851
6.339e+09  -0.6815  0.5189  -0.02386  -0.0149  -0.02439  0.03549  0.4215  0.8153
6.34e+09  -0.4554  0.7714  -0.03829  -0.02036  -0.006542  -0.03101  0.6819  0.6294
6.341e+09  -0.1259  0.8774  -0.01592  -0.02143  -0.005278  0.03714  0.8751  0.3536
6.342e+09  0.1407  0.8579  -0.01332  -0.03047  -0.01725  0.006538  0.9476  0.05685
6.344e+09  0.4438  0.783  -0.007726  0.003263  0.01086  0.02351  0.8468  -0.2841
6.345e+09  0.6844  0.5217  0.02179  0.0221  -0.01015  -0.0001286  0.7689  -0.5409
6.346e+09  0.84  0.2762  0.02369  0.01456  0.03483  0.02806  0.5226  -0.7934
6.348e+09  0.8412  -0.02463  0.001244  0.01095  0.03236  0.02926  0.1946  -0.8883
6.349e+09  0.8083  -0.3361  -0.0134  0.01253  0.01179  -0.002916  -0.09893  -0.9538
6.35e+09  0.6282  -0.6625  -0.01122  -0.01763  -6.357e-05  0.02816  -0.4262  -0.8927
6.351e+09  0.4325  -0.7659  0.006518  -0.02265  -0.0445  -0.01271  -0.6882  -0.6548
6.352e+09  0.1001  -0.9193  -0.001986  0.01588  -0.00383  0.02615  -0.8473  -0.415
6.354e+09  -0.2229  -0.8092  0.01045  0.02787  0.01364  0.03582  -0.9284  -0.06602
6.355e+09  -0.458  -0.691  0.01142  -0.001023  0.04326  -0.03615  -0.8999  0.263
6.356e+09  -0.7078  -0.558  0.02497  0.03353  0.004823  0.02742  -0.7635  0.5838
6.358e+09  -0.877  -0.2229  -0.03947  0.007589  0.04675  0.003577  -0.5069  0.7703
6.359e+09  -0.8423  0.069  -0.02026  0.02174  -0.002945  -0.01377  -0.2133  0.8847
6.36e+09  -0.7839  0.3765  -0.01667  -0.007994  0.0251  0.02123  0.08175  0.9056
6.361e+09  -0.5894  0.6529  -0.02834  -0.01091  -0.04852  0.001656  0.4054  0.8778
6.362e+09  -0.3647  0.7741  0.01456  0.005132  0.009928  -0.01298  0.6402  0.6522
6.364e+09  -0.01907  0.8946  -0.01258  -0.001474  -0.007067  0.0155  0.8703  0.3702
6.365e+09  0.2884  0.8972  -0.008721  0.05328  -0.02386  0.002717  0.9822  0.07997
6.366e+09  0.5745  0.6745  0.01635  0.01473  0.02825  0.02832  0.9241  -0.2843
6.368e+09  0.7366  0.4395  0.02781  0.02  -0.001886  -0.01681  0.7669  -0.4913
6.369e+09  0.8744  0.1602  -0.02753  0.03077  0.02372  -0.01435  0.5242  -0.7489
6.37e+09  0.8992  -0.09887  0.0114  0.01277  -0.03817  -0.01189  0.2387  -0.905
6.371e+09  0.779  -0.436  -0.006599  -0.01482  -0.00644  -0.01119  -0.0834  -0.9344
6.372e+09  0.5601  -0.6763  -0.01766  -0.02247  0.02452  0.004744  -0.3989  -0.8459
6.374e+09  0.2678  -0.8398  -0.008067  0.00293  0.01119  -0.02548  -0.6536  -0.6692
6.375e+09  -0.01222  -0.8287  0.01129  -0.01049  -0.06357  -0.00307  -0.8589  -0.4294
6.376e+09  -0.2682  -0.8468  0.001884  0.05894  0.04232  -0.004089  -0.9209  -0.05355
6.378e+09  -0.5885  -0.6703  0.0143  0.01179  -0.01034  -0.009818  -0.8932  0.2061
6.379e+09  -0.7489  -0.3863  -0.006457  -0.004321  -0.0168  -0.05615  -0.8008  0.5282
6.38e+09  -0.928  -0.1274  -0.00654  -0.002242  -0.0009792  0.02545  -0.557  0.7535
6.381e+09  -0.9212  0.1749  0.005679  -0.0007337  -0.009238  0.007625  -0.2598  0.8509
6.382e+09  -0.7744  0.4825  -0.02014  -0.02184  0.04427  0.02654  0.09533  0.9411
6.384e+09  -0.5152  0.6844  -0.005714  0.009937  -0.01035  -0.02038  0.3668  0.8742
6.385e+09  -0.2732  0.8628  0.01675  -0.006237  0.008024  -0.003884  0.6502  0.6862
6.386e+09  0.09612  0.8472  0.008311  0.02115  0.02161  0.0133  0.8415  0.4078
6.388e+09  0.3787  0.8286  0.02439  -0.01107  -0.001171  0.01806  0.9148  0.1163
6.389e+09  0.6072  0.6583  0.002127  -0.008799  -0.00315  0.04459  0.882  -0.227
6.39e+09  0.7871  0.4317  -0.02609  -0.01286  0.01477  -0.002645  0.7869  -0.4563
6.391e+09  0.8717  0.07585  -0.01119  -0.006608  0.002573  0.004245  0.5736  -0.7654
6.392e+09  0.8812  -0.2575  0.02756  -0.009618  0.0141  -0.07653  0.286  -0.8681
6.394e+09  0.7457  -0.5631  -0.01101  -0.006456  -0.0002441  0.005759  -0.04892  -0.9155
6.395e+09  0.4861  -0.7168  0.008744  -0.01215  0.02192  0.04583  -0.3177  -0.8582
6.396e+09  0.1719  -0.8701  -0.03082  -0.005227  0.006591  -0.007059  -0.6032  -0.7065
6.398e+09  -0.09266  -0.886  0.009517  -0.06735  -0.01421  0.003726  -0.7973  -0.4357
6.399e+09  -0.3585  -0.8012  0.02583  -0.006337  0.001335  -0.008346  -0.9439  -0.1641
6.4e+09  -0.6267  -0.5999  -0.02848  0.004173  -0.008409  0.02261  -0.891  0.1672
6.401e+09  -0.803  -0.3086  0.006248  0.005136  -0.04296  -0.001928  -0.789  0.4281
6.402e+09  -0.8824  -0.04852  -0.06085  -0.02018  -0.01058  0.02242  -0.6035  0.7245
6.404e+09  -0.8591  0.2671  0.04328  -0.01654  -0.02557  -0.02528  -0.2871  0.8627
6.405e+09  -0.6905  0.5659  -0.01229  -0.03071  0.000621  -0.003982  0.02126  0.9133
6.406e+09  -0.4694  0.7747  0.00168  0.01507  -0.02239  0.02062  0.331  0.8483
6.408e+09  -0.1781  0.8408  -0.003579  0.03704  0.04749  -0.0353  0.5828  0.7148
6.409e+09  0.1121  0.8936  -0.02174  -0.02351  -0.04438  0.02273  0.7546  0.4389
6.41e+09  0.3839  0.8261  -0.03526  -0.03005  -0.03219  -0.03065  0.8671  0.2003
6.411e+09  0.6369  0.5846  0.0002274  0.02621  0.03601  -0.0001055  0.9119  -0.1771
6.412e+09  0.8452  0.3456  0.003952  -0.000111  -0.03945  0.02204  0.804  -0.4278
6.414e+09  0.8853  -0.009516  0.003977  -0.02597  0.01221  -0.03925  0.6123  -0.6441
6.415e+09  0.8121  -0.2994  0.0178  -0.01035  -0.01084  0.07753  0.3581  -0.8375
6.416e+09  0.6992  -0.5404  -0.03282  -0.01296  0.02223  -0.05279  0.04221  -0.891
6.418e+09  0.4152  -0.7011  -0.0006199  0.004807  0.002756  0.03305  -0.2647  -0.845
6.419e+09  0.1404  -0.8513  0.01117  -0.0105  -0.009682  0.005775  -0.5599  -0.6892
6.42e+09  -0.113  -0.8774  -0.006874  0.03782  -0.01589  -0.004627  -0.7332  -0.4934
6.421e+09  -0.431  -0.7454  0.03549  -0.01609  0.01839  0.02399  -0.8427  -0.2016
6.422e+09  -0.6847  -0.5354  -0.01383  -0.03051  -0.02828  0.05435  -0.8628  0.09658
6.424e+09  -0.8144  -0.2847  0.05884  0.04052  0.02219  -0.01441  -0.8209  0.3793
6.425e+09  -0.8911  -0.04195  -0.07794  -0.043  0.02896  -0.01347  -0.5887  0.5976
6.426e+09  -0.8485  0.2831  0.004891  -0.01617  0.05148  -0.01119  -0.3252  0.8145
6.428e+09  -0.6743  0.5603  -0.02775  -0.04462  0.01912  -0.02328  -0.01632  0.8646
6.429e+09  -0.4672  0.7374  0.05073  -0.002687  -0.06998  -0.06  0.2365  0.8363
6.43e+09  -0.1252  0.8337  -0.01947  -0.03397  0.04321  -0.02668  0.5206  0.6638
6.431e+09  0.138  0.8411  -0.04461  0.01418  -0.0108  -0.02409  0.7123  0.4659
6.432e+09  0.4212  0.7124  -0.02066  -0.0005035  0.009549  0.02112  0.8319  0.2029
6.434e+09  0.6155  0.5537  0.05084  -0.007521  -0.0448  0.03494  0.8154  -0.09283
6.435e+09  0.8065  0.2809  -0.03013  -0.0005294  0.001994  -0.01869  0.7387  -0.3821
6.436e+09  0.8608  -0.05882  0.0005349  -0.002272  -0.06109  0.01666  0.5841  -0.5962
6.438e+09  0.825  -0.3446  -0.007814  -0.01316  0.03808  0.01796  0.3655  -0.7877
6.439e+09  0.6497  -0.5621  0.02245  -0.01717  -0.01022  -0.0001574  0.1032  -0.8495
6.44e+09  0.4167  -0.7269  -0.01624  0.03568  0.04239  0.01079  -0.2362  -0.7968
6.441e+09  0.1292  -0.8679  -0.01654  -0.04943  0.005721  0.03513  -0.5141  -0.7168
6.442e+09  -0.1633  -0.88  0.02021  0.03685  0.02741  0.04472  -0.7119  -0.4995
6.444e+09  -0.5088  -0.7395  -0.02419  -0.007156  0.02604  -0.0161  -0.8391  -0.2219
6.445e+09  -0.6842  -0.596  0.009967  0.03554  -0.02532  -0.05534  -0.8176  0.06393
6.446e+09  -0.794  -0.2318  0.04557  0.03007  0.06232  0.001681  -0.7686  0.3468
6.448e+09  -0.8806  7.589e-05  0.01382  -0.03653  -0.001223  -0.0006578  -0.5984  0.6238
6.449e+09  -0.8033  0.3561  0.02083  -0.03503  -0.0191  0.0007304  -0.4139  0.7945
6.45e+09  -0.6732  0.5787  -0.007042  -0.003694  -0.003234  0.01746  -0.07868  0.7831
6.451e+09  -0.3475  0.7991  -0.005287  -0.02769  0.01031  0.04461  0.212  0.7918
6.452e+09  -0.07999  0.9095  0.01016  0.04188  -0.007637  0.03523  0.5052  0.6782
6.454e+09  0.2117  0.9263  -0.0258  0.0465  0.003403  0.01022  0.7088  0.46
6.455e+09  0.456  0.7152  -0.01327  -0.006396  -0.05732  0.001035  0.8111  0.1789
6.456e+09  0.6963  0.547  -0.04194  -0.04025  -0.02819  0.02329  0.7903  -0.06672
6.458e+09  0.8451  0.2637  0.01504  -0.02912  -0.0252  0.04467  0.7346  -0.338
6.459e+09  0.8878  -0.04411  0.01149  -0.02592  -0.01554  0.002842  0.5745  -0.5934
6.46e+09  0.7549  -0.3382  -0.02643  0.01716  -0.01978  -0.04689  0.3298  -0.7342
6.461e+09  0.643  -0.5926  -0.03173  0.03753  -0.01172  0.03464  0.04223  -0.7923
6.462e+09  0.4188  -0.8143  -0.01516  0.03935  0.004162  -0.005175  -0.2246  -0.746
6.464e+09  0.05602  -0.8347  -0.0128  -0.01144  0.02344  -0.00347  -0.4299  -0.7039
6.465e+09  -0.2186  -0.8676  0.00595  -0.004517  -0.01035  0.02141  -0.6805  -0.4994
6.466e+09  -0.4227  -0.7319  -0.009059  0.04063  0.02361  0.003801  -0.819  -0.222
6.468e+09  -0.7277  -0.5231  0.0102  -0.003721  0.01248  0.001578  -0.8112  0.04284
6.469e+09  -0.8458  -0.2355  -0.03499  -0.01457  0.005221  0.024  -0.681  0.328
6.47e+09  -0.9294  -0.0004686  -0.03111  0.007236  0.05043  0.0291  -0.5909  0.6292
6.471e+09  -0.812  0.3412  -0.02671  0.01003  -0.01508  0.003857  -0.3585  0.7285
6.472e+09  -0.6389  0.6085  -0.01225  -0.01113  0.0009379  -0.03335  -0.0404  0.794
6.474e+09  -0.3635  0.8045  -0.02954  -0.007208  0.07485  0.00664  0.1967  0.7678
6.475e+09  -0.09714  0.8942  -0.001714  0.02467  -0.004897  0.001208  0.4263  0.6334
6.476e+09  0.2401  0.8512  -0.03244  0.03704  0.02233  0.01956  0.6598  0.4296
6.478e+09  0.5146  0.7276  0.007026  -0.02239  0.006351  0.001277  0.7802  0.2062
6.479e+09  0.7053  0.4884  -0.001603  -0.006873  -0.009785  0.02916  0.7728  -0.08581
6.48e+09  0.8526  0.2457  -0.03267  0.014  0.02777  -0.03253  0.6998  -0.3597
6.481e+09  0.8322  -0.07174  0.02268  0.02219  -0.0003005  0.01461  0.5643  -0.5826
6.482e+09  0.8154  -0.3592  0.01478  -0.003163  0.01671  -0.04838  0.3289  -0.7069
6.484e+09  0.709  -0.6468  -0.02494  -0.003739  -0.01412  -0.009072  0.0299  -0.7786
6.485e+09  0.3711  -0.8096  0.01494  0.01632  -0.01766  -0.007834  -0.1897  -0.7235
6.486e+09  0.1166  -0.8791  -0.01293  -0.008397  0.03548  -0.004714  -0.4704  -0.6108
6.488e+09  -0.2347  -0.8836  -0.003909  -0.03113  -0.05392  0.03054  -0.6649  -0.4454
6.489e+09  -0.5113  -0.6967  0.01758  0.02668  -0.03574  0.01784  -0.7808  -0.1846
6.49e+09  -0.7448  -0.4916  -0.01237  0.001749  0.03946  0.03334  -0.7883  0.05519
6.491e+09  -0.8562  -0.2393  0.01573  0.02769  -0.006417  0.002687  -0.7467  0.3314
6.492e+09  -0.8458  0.06112  -0.003735  -0.01673  -0.01619  -0.0147  -0.5543  0.5597
6.494e+09  -0.8202  0.4295  -0.005289  -0.0164  0.01442  -0.02485  -0.2978  0.7113
6.495e+09  -0.6153  0.6134  -0.02511  -0.009532  0.01774  0.02571  -0.03237  0.7441
6.496e+09  -0.3388  0.7642  0.02775  -0.002005  0.005131  -0.01061  0.2126  0.7257
6.498e+09  -0.02675  0.9128  0.001029  0.008034  -0.06241  -0.002358  0.4404  0.5963
6.499e+09  0.2614  0.8999  0.008039  -0.005777  0.00973  -0.004822  0.6722  0.4393
6.5e+09  0.5909  0.7015  -0.0566  0.01048  0.005446  0.004074  0.7385  0.1376
6.501e+09  0.7395  0.4789  -0.03528  -0.01498  -0.02978  -0.05784  0.7645  -0.1226
6.502e+09  0.8214  0.1459  -0.02697  0.002335  -0.02172  0.0252  0.6621  -0.3971
6.504e+09  0.8769  -0.1167  -0.001942  0.008195  0.01048  0.03391  0.5235  -0.5611
6.505e+09  0.8343  -0.3709  0.003858  0.01845  -0.04141  0.01683  0.273  -0.69
6.506e+09  0.6309  -0.6862  -0.04372  0.006621  -0.02798  -0.008091  0.002665  -0.7418
6.508e+09  0.3465  -0.854  0.03754  -0.03336  0.02828  -0.0213  -0.2123  -0.7216
6.509e+09  0.05853  -0.94  0.009854  -0.002524  -0.02578  0.0129  -0.4634  -0.6224
6.51e+09  -0.2955  -0.8955  -0.0319  0.01005  0.02582  0.02352  -0.6372  -0.3742
6.511e+09  -0.5612  -0.7077  0.00964  0.007729  0.01462  -0.05022  -0.7311  -0.09852
6.512e+09  -0.802  -0.4621  -0.003582  -0.001547  0.02063  -0.006196  -0.7566  0.1499
6.514e+09  -0.906  -0.1852  -0.05554  0.003874  -0.03668  -0.00749  -0.6649  0.3466
6.515e+09  -0.874  0.1296  -0.01499  0.0108  -0.0452  -0.006206  -0.4958  0.6258
6.516e+09  -0.7786  0.4668  -0.04053  -0.0104  0.01179  -0.01171  -0.2464  0.6919
6.518e+09  -0.6546  0.7474  -0.005556  -0.02736  0.00117  -0.0015  -0.002774  0.7591
6.519e+09  -0.3599  0.8471  0.01234  0.0001849  0.01432  0.03606  0.2658  0.6674
6.52e+09  -0.04307  0.9426  0.009777  -0.01893  -0.04975  0.003436  0.4929  0.5486
6.521e+09  0.3545  0.8636  -0.006718  0.02557  0.02401  -0.03928  0.6626  0.3325
6.522e+09  0.5278  0.7116  0.0005988  0.01295  0.02501  0.01522  0.6894  0.108
6.524e+09  0.8306  0.5342  0.02903  0.01771  0.01868  0.03763  0.7095  -0.1723
6.525e+09  0.8616  0.2016  0.02445  -0.0004104  0.001013  0.00426  0.6164  -0.4087
6.526e+09  0.8872  -0.1838  -0.001315  -0.004935  -0.001151  0.01249  0.4006  -0.5856
6.528e+09  0.85  -0.4982  -0.005784  0.002836  -0.0533  0.01189  0.1758  -0.6515
6.529e+09  0.591  -0.739  -0.04412  -0.01462  0.004329  0.007978  -0.04967  -0.7307
6.53e+09  0.3036  -0.9077  0.02366  0.003373  0.001534  0.01275  -0.2985  -0.6307
6.531e+09  -0.02332  -0.9578  0.007603  0.0103  0.02136  0.0002562  -0.4835  -0.5033
6.532e+09  -0.3607  -0.9353  -0.01937  -0.0044  0.02924  -0.01295  -0.5509  -0.2749
6.534e+09  -0.6836  -0.7132  0.01418  -0.01249  0.03718  -0.006072  -0.623  -0.09172
6.535e+09  -0.8578  -0.4223  -0.01706  -0.002732  0.04565  0.04015  -0.6407  0.1335
6.536e+09  -0.9622  -0.06079  0.001432  -0.004262  -0.005359  -0.002422  -0.5504  0.3255
6.538e+09  -0.9701  0.2409  -0.01391  0.01173  -0.0212  -0.004336  -0.467  0.4737
6.539e+09  -0.8149  0.5184  0.007485  0.007739  0.01499  0.01533  -0.2741  0.5991
6.54e+09  -0.5731  0.8256  -0.03315  0.01208  0.002313  -0.0139  -0.06607  0.698
6.541e+09  -0.2568  0.9196  0.02262  -0.0004948  0.03059  0.03662  0.1824  0.6572
6.542e+09  0.06168  0.9705  0.005443  -0.01503  0.02807  0.008176  0.4093  0.5786
6.544e+09  0.4348  0.8854  -0.02907  -0.004609  -0.03649  0.002858  0.5766  0.4089
6.545e+09  0.7508  0.6352  -0.04002  -0.02469  -0.008695  -0.00475  0.6693  0.1998
6.546e+09  0.895  0.4062  -0.01672  -0.009724  -0.03436  -0.04969  0.7082  -0.09724
6.548e+09  0.9904  0.04412  -0.01072  0.01048  -0.05284  -0.03582  0.6575  -0.3091
6.549e+09  0.9374  -0.3348  -0.01114  -0.02075  -0.009362  -0.002673  0.5088  -0.5352
