# Hz S RI R 50
6.25e+09  -0.7284  0.4589  -0.0114  -0.02198  -0.01303  0.03805  0.1501  0.48
6.251e+09  -0.5029  0.6671  0.03448  0.01984  -0.03632  -0.0359  0.3824  0.4089
6.252e+09  -0.2404  0.8116  -0.0126  -0.005888  -0.01786  -0.03245  0.5112  0.1918
6.254e+09  0.07995  0.8411  -0.00508  0.0195  0.0224  0.05281  0.5981  0.03732
6.255e+09  0.2906  0.8111  0.006109  0.02568  0.04125  -0.008106  0.5415  -0.2156
6.256e+09  0.5377  0.5966  0.006657  0.02132  -0.01985  -0.03486  0.4653  -0.4277
6.258e+09  0.7012  0.3361  0.01411  -0.0159  -0.02003  0.01885  0.2876  -0.5834
6.259e+09  0.861  0.1307  0.0333  0.008821  0.007074  0.03295  0.04328  -0.6961
6.26e+09  0.8257  -0.1238  0.01128  0.002635  0.01971  -0.04275  -0.1943  -0.6984
6.261e+09  0.7154  -0.4544  -0.008276  0.03796  -0.05423  0.05953  -0.4421  -0.5416
6.262e+09  0.4778  -0.695  -0.0005528  0.003717  -0.03387  0.02074  -0.5971  -0.3324
6.264e+09  0.2412  -0.7878  0.01521  -0.0175  0.01566  0.01691  -0.7133  -0.1349
6.265e+09  -0.04772  -0.7831  0.01623  0.008701  -0.004484  0.05061  -0.714  0.1728
6.266e+09  -0.3108  -0.7356  -0.01065  -0.03392  0.04414  0.003508  -0.589  0.4033
6.268e+09  -0.5514  -0.609  -0.002382  -0.002339  -0.01831  0.01056  -0.4379  0.561
6.269e+09  -0.7297  -0.3319  0.02133  -0.01458  0.0122  -0.005324  -0.168  0.7288
6.27e+09  -0.797  -0.1091  0.003863  0.02447  -0.07666  -0.005208  0.04004  0.7885
6.271e+09  -0.7651  0.2343  -0.00628  -0.01684  -0.04013  0.0185  0.3029  0.6724
6.272e+09  -0.673  0.4746  -0.0283  0.01722  -0.03567  0.04766  0.5408  0.5564
6.274e+09  -0.4665  0.6046  0.01913  -0.01845  0.06002  7.631e-05  0.6734  0.3032
6.275e+09  -0.2402  0.7448  -0.01522  0.000598  0.009533  -0.02833  0.7534  0.0643
6.276e+09  0.04134  0.729  -0.002358  -0.02531  -0.006441  0.00949  0.7221  -0.2245
6.278e+09  0.2796  0.7057  -0.005428  0.01894  0.03082  0.0219  0.6252  -0.4769
6.279e+09  0.5317  0.6036  0.003336  0.03327  0.0337  -0.003808  0.4352  -0.6761
6.28e+09  0.7264  0.3563  -0.004694  -0.007284  0.04665  0.02946  0.1448  -0.7437
6.281e+09  0.8453  0.05756  0.04772  0.04296  -0.008459  0.06521  -0.1028  -0.7658
6.282e+09  0.8185  -0.2338  0.01241  0.002086  0.02034  0.024  -0.3664  -0.6972
6.284e+09  0.6648  -0.503  0.03652  -0.01417  -0.01012  0.02022  -0.5966  -0.5668
6.285e+09  0.4537  -0.6419  0.03133  -0.01649  0.01381  -0.02796  -0.7245  -0.3103
6.286e+09  0.1672  -0.8063  -0.006764  -0.002941  0.00236  0.01197  -0.8142  -0.02576
6.288e+09  -0.1047  -0.8513  -0.001556  -0.01447  0.0278  0.04827  -0.7656  0.25
6.289e+09  -0.3633  -0.7466  -0.01493  -0.01404  0.03256  -0.05022  -0.6624  0.5194
6.29e+09  -0.6066  -0.5687  0.006082  0.02708  -0.009085  -0.01201  -0.4274  0.7143
6.291e+09  -0.7166  -0.3554  -0.02723  0.02147  0.0227  -0.04788  -0.1538  0.7857
6.292e+09  -0.7963  -0.05969  0.003775  -0.01448  -0.0118  0.01692  0.1434  0.8241
6.294e+09  -0.8205  0.2275  -0.02124  0.01275  0.03169  0.004687  0.3739  0.6959
6.295e+09  -0.705  0.4612  -0.009248  0.01336  0.00782  -0.04876  0.6269  0.5701
6.296e+09  -0.4884  0.6173  -0.02532  -0.004144  0.02837  0.06007  0.7594  0.2975
6.298e+09  -0.1734  0.7881  -0.01167  -0.02563  -0.0226  -0.01824  0.7995  0.0273
6.299e+09  0.127  0.8174  -0.02177  0.002385  0.008667  0.00999  0.7695  -0.2955
6.3e+09  0.3647  0.7519  -0.002152  0.01266  0.0008922  -0.004533  0.6274  -0.5408
6.301e+09  0.6126  0.5681  0.01486  -0.01957  -0.01097  -0.0176  0.4316  -0.7418
6.302e+09  0.7278  0.2936  -0.01414  -0.01236  -0.03241  0.002963  0.1434  -0.8241
6.304e+09  0.832  0.01709  -0.006059  0.001612  -0.01587  -0.002955  -0.1303  -0.8378
6.305e+09  0.8112  -0.1906  0.01619  0.02949  -0.02031  0.01342  -0.4055  -0.7382
6.306e+09  0.6142  -0.5081  0.02565  -0.02411  -0.003582  -0.04992  -0.6242  -0.5256
6.308e+09  0.4376  -0.7388  -0.01909  0.004272  0.01498  -0.02428  -0.815  -0.2919
6.309e+09  0.1355  -0.8257  0.004898  0.01903  -0.03125  -0.00338  -0.8533  -0.01866
6.31e+09  -0.1369  -0.822  -0.02312  -0.01138  0.03452  -0.01812  -0.7865  0.2687
6.311e+09  -0.4467  -0.683  0.02147  0.01319  -0.02806  0.01398  -0.6816  0.5157
6.312e+09  -0.6561  -0.5454  -0.01141  -0.01621  0.006484  0.04017  -0.4078  0.7015
6.314e+09  -0.7711  -0.2749  -0.0109  -0.0007729  -0.005413  0.005531  -0.1517  0.8405
6.315e+09  -0.7928  -0.009426  0.01339  0.007805  -0.01474  0.008311  0.09522  0.832
6.316e+09  -0.8174  0.3211  0.02743  -0.02715  0.00276  -0.03595  0.3741  0.7668
6.318e+09  -0.6223  0.5792  0.00395  0.008144  0.01623  -0.02585  0.6826  0.5493
6.319e+09  -0.4192  0.7474  0.01993  -0.01616  0.03501  -0.01984  0.835  0.3042
6.32e+09  -0.1332  0.8123  0.002695  0.02296  -0.0308  -0.02404  0.8891  0.02242
6.321e+09  0.1336  0.7968  -0.004323  -0.002261  0.01905  0.04201  0.8504  -0.3083
6.322e+09  0.4641  0.7454  0.01074  -0.01249  -0.02622  -0.06049  0.6865  -0.5524
6.324e+09  0.6641  0.5284  0.009504  -0.00695  0.02205  -0.02587  0.4516  -0.7443
6.325e+09  0.8  0.2755  -0.01484  -0.008514  0.003705  0.04576  0.1617  -0.8961
6.326e+09  0.8094  -0.06534  -0.0007647  0.02136  -0.01109  0.02302  -0.1446  -0.8805
6.328e+09  0.7756  -0.3405  0.02269  -0.02239  -0.01092  0.005209  -0.417  -0.7889
6.329e+09  0.5992  -0.5985  0.02148  0.03407  0.006732  -0.01266  -0.6923  -0.5918
6.33e+09  0.4129  -0.7373  -0.01461  -0.01318  0.04656  -0.02312  -0.823  -0.3567
6.331e+09  0.04449  -0.8158  0.02332  -0.0016  -0.008821  0.03749  -0.9476  -0.01844
6.332e+09  -0.2194  -0.8552  -0.02062  0.007893  0.0092  0.02829  -0.8364  0.2792
6.334e+09  -0.5153  -0.7236  -0.004468  0.004067  0.01355  -0.01503  -0.7359  0.5566
6.335e+09  -0.7263  -0.5141  0.003075  -0.01023  -0.01235  0.0489  -0.4662  0.7764
6.336e+09  -0.8411  -0.2016  -0.02562  -0.009968  -0.0405  0.004685  -0.2368  0.911
6.338e+09  -0.8524  0.1353  0.01941  -0.01769  0.005697  0.03649  0.1469  0.8949
6.339e+09  -0.7897  0.3841  0.01263  -0.006689  -0.01844  -0.004892  0.458  0.8242
6.34e+09  -0.5862  0.648  0.00272  -0.004908  0.007034  -0.02459  0.6657  0.6125
6.341e+09  -0.3531  0.7983  0.004891  -0.0145  0.02728  0.04156  0.8241  0.3843
6.342e+09  -0.01533  0.8007  0.04065  0.03164  -0.01082  0.01994  0.9245  0.02421
6.344e+09  0.2769  0.8697  -0.007691  0.004803  -0.003056  0.00517  0.8961  -0.2779
6.345e+09  0.4926  0.6689  0.009409  -0.04105  0.02795  -0.03772  0.7621  -0.5786
6.346e+09  0.7265  0.4601  -0.02244  -0.0162  0.02743  0.007473  0.5286  -0.765
6.348e+09  0.8648  0.184  -0.01778  0.0007912  0.02005  0.03681  0.2217  -0.906
6.349e+09  0.8677  -0.1481  -0.01922  -0.01182  0.004133  -0.02317  -0.1079  -0.9155
6.35e+09  0.7185  -0.4374  0.009327  -0.005379  0.03171  0.01714  -0.4432  -0.8287
6.351e+09  0.4591  -0.6897  -0.03717  0.01169  0.01371  0.02977  -0.7161  -0.6398
6.352e+09  0.2638  -0.797  0.003007  0.008828  0.001488  0.01545  -0.8716  -0.3712
6.354e+09  -0.04146  -0.8678  -0.001907  0.004485  -0.007671  -0.009321  -0.9194  -0.07126
6.355e+09  -0.317  -0.8475  -0.02371  -0.01675  -0.03752  0.01315  -0.9058  0.2475
6.356e+09  -0.6019  -0.6298  -0.007999  0.003377  -0.00376  0.02261  -0.7265  0.5452
6.358e+09  -0.8041  -0.3658  -0.01505  0.02076  0.006053  0.0003361  -0.5191  0.7762
6.359e+09  -0.8887  -0.07694  0.03302  0.03678  0.03908  0.01076  -0.2435  0.9211
6.36e+09  -0.8543  0.2519  0.026  -0.02111  -0.02928  -0.02972  0.08293  0.9757
6.361e+09  -0.7254  0.5452  0.001185  -0.02823  0.008532  0.02941  0.3983  0.8182
6.362e+09  -0.5198  0.6579  0.0067  0.008616  0.01092  -0.03134  0.6699  0.6724
6.364e+09  -0.2098  0.8414  0.004451  -0.00462  0.007198  0.02647  0.8538  0.4011
6.365e+09  0.1315  0.8667  0.005112  0.02052  0.008961  -0.02508  0.978  0.06863
6.366e+09  0.4057  0.8073  -0.007073  0.007491  0.0004627  -0.006018  0.9042  -0.2281
6.368e+09  0.6546  0.603  0.003737  -0.0199  0.003811  -0.02852  0.8189  -0.5279
6.369e+09  0.7959  0.3442  0.001101  -0.02803  -0.02247  -0.04571  0.5178  -0.7866
6.37e+09  0.8455  0.0573  -0.02723  0.02773  0.02294  -0.01348  0.2662  -0.9166
6.371e+09  0.85  -0.2929  0.003488  -0.01419  -0.0363  -0.0172  -0.0882  -0.9247
6.372e+09  0.6751  -0.5463  -0.01666  0.009577  0.004874  0.001099  -0.4058  -0.8696
6.374e+09  0.4198  -0.8081  -0.01032  -0.03284  -0.01543  0.01224  -0.6579  -0.6354
6.375e+09  0.1668  -0.8882  -0.01565  -0.002168  -0.01973  -0.04018  -0.8579  -0.4168
6.376e+09  -0.1169  -0.8739  0.02333  -0.01445  0.002311  0.05421  -0.9362  -0.09969
6.378e+09  -0.4511  -0.7603  -0.01555  -0.03733  0.0207  -0.01496  -0.9264  0.2238
6.379e+09  -0.6864  -0.5413  -0.002168  0.002413  -0.01171  0.05449  -0.7831  0.4813
6.38e+09  -0.8085  -0.301  -0.0231  0.02689  -0.03005  -0.01641  -0.5504  0.7573
6.381e+09  -0.8458  0.02078  0.01595  0.02641  -0.001797  -0.003536  -0.2854  0.9131
6.382e+09  -0.8261  0.3099  -0.002859  0.003272  -0.01058  0.02403  0.02981  0.9166
6.384e+09  -0.6331  0.6116  0.04177  0.04063  -0.00541  0.00263  0.4002  0.8433
6.385e+09  -0.3428  0.817  0.02822  0.02403  0.01188  0.02651  0.6434  0.6888
6.386e+09  -0.1355  0.8808  -0.01131  0.007129  0.03176  -0.0359  0.8764  0.448
6.388e+09  0.2432  0.8706  0.01153  -0.01072  0.02869  0.0152  0.9298  0.1105
6.389e+09  0.4761  0.7338  -0.0003262  0.01032  -0.005464  -0.008641  0.9128  -0.2226
6.39e+09  0.7358  0.4994  -0.03294  0.005591  -0.02389  -0.001059  0.767  -0.5048
6.391e+09  0.8606  0.2372  0.01127  -0.05228  0.01094  0.01082  0.505  -0.7352
6.392e+09  0.9179  -0.1111  -0.02894  0.005376  -0.01164  -0.03749  0.2971  -0.8571
6.394e+09  0.7754  -0.4499  -0.02945  -0.006414  -0.0322  0.01967  -0.02939  -0.8878
6.395e+09  0.6483  -0.6834  -0.03082  0.0001263  0.0209  0.009554  -0.3391  -0.8664
6.396e+09  0.3568  -0.8002  0.03008  0.008705  -0.008725  -0.01388  -0.5968  -0.6638
6.398e+09  0.06459  -0.8903  0.02399  -0.0523  -0.005947  -0.01434  -0.7652  -0.4261
6.399e+09  -0.1834  -0.8311  0.02006  -0.008517  -0.04081  -0.001743  -0.8405  -0.1451
6.4e+09  -0.5294  -0.7271  0.0177  0.0157  0.01083  -0.04255  -0.8895  0.1429
6.401e+09  -0.7294  -0.4589  -0.01403  -0.01129  0.01198  -0.05922  -0.8044  0.4665
6.402e+09  -0.8661  -0.1521  0.03766  0.02672  0.005931  -0.001549  -0.6285  0.7092
6.404e+09  -0.9141  0.1466  -0.005994  0.008793  0.0439  -0.03261  -0.2889  0.8748
6.405e+09  -0.7706  0.4109  -0.005003  0.04895  0.03005  0.002256  -0.006987  0.9142
6.406e+09  -0.5512  0.6537  -0.05146  0.04306  -0.006386  -0.03693  0.2851  0.8629
6.408e+09  -0.3077  0.828  0.01985  0.0484  -0.04806  -0.003031  0.6059  0.6882
6.409e+09  -0.02811  0.8164  -0.003318  -0.02853  -0.002212  -0.007117  0.7759  0.474
6.41e+09  0.2665  0.8297  -0.003524  -0.01529  -0.03402  -0.0007771  0.9018  0.2006
6.411e+09  0.573  0.6386  -0.03777  0.009498  0.02275  -0.03682  0.8882  -0.1211
6.412e+09  0.7681  0.4733  -0.01421  0.003137  -0.00227  0.02817  0.8026  -0.4437
6.414e+09  0.8565  0.1629  0.002836  0.004443  0.0285  -0.01743  0.631  -0.7054
6.415e+09  0.8401  -0.09868  0.03601  0.04977  -0.01085  -0.007496  0.3291  -0.8295
6.416e+09  0.772  -0.4515  0.007461  -0.006923  -0.0407  -0.02624  -0.03077  -0.8919
6.418e+09  0.5578  -0.627  0.003819  -0.01312  0.01142  0.02997  -0.2636  -0.8817
6.419e+09  0.2607  -0.8129  -0.008918  0.03546  0.004009  0.01788  -0.551  -0.7272
6.42e+09  -0.004266  -0.9079  -0.01686  0.03064  -0.03821  0.004237  -0.7368  -0.4852
6.421e+09  -0.3319  -0.7742  -0.003822  -0.000436  0.006531  0.03126  -0.866  -0.1787
6.422e+09  -0.551  -0.6341  0.03709  -0.01603  0.009252  0.01655  -0.8739  0.1678
6.424e+09  -0.7775  -0.3754  0.03314  0.04602  -0.007266  0.01088  -0.7966  0.3414
6.425e+09  -0.8649  -0.1314  0.005399  -0.02798  -0.002447  -0.01115  -0.5493  0.626
6.426e+09  -0.8713  0.186  0.01545  -0.03442  -0.006538  -0.001579  -0.3409  0.8106
6.428e+09  -0.7123  0.481  -0.006345  -0.03271  0.02833  0.01011  -0.05123  0.8753
6.429e+09  -0.5498  0.6518  0.03008  0.03885  -0.0009152  -0.005025  0.2647  0.863
6.43e+09  -0.2661  0.8532  -0.001986  0.01571  0.01671  0.01287  0.5477  0.7272
6.431e+09  0.09263  0.9323  -0.02494  0.002406  -0.0139  -0.0008765  0.732  0.4841
6.432e+09  0.3661  0.823  -0.03944  -0.0138  -0.01686  0.008761  0.8459  0.1759
6.434e+09  0.6139  0.609  0.01146  -0.05863  0.005561  0.001138  0.8103  -0.07037
6.435e+09  0.7808  0.3691  -0.01125  -0.02252  0.00457  0.0004876  0.7489  -0.3654
6.436e+09  0.8682  0.1157  -0.01378  -0.01233  0.004016  0.01263  0.6029  -0.631
6.438e+09  0.8611  -0.2379  0.003948  0.01347  0.01436  -0.004432  0.2971  -0.7728
6.439e+09  0.7411  -0.4804  0.001531  -0.01014  -0.04348  -0.01175  0.08117  -0.8638
6.44e+09  0.5467  -0.7052  -0.005569  -0.04248  -0.004192  0.006697  -0.2435  -0.8502
6.441e+09  0.2367  -0.8126  -0.02149  -0.0479  0.005165  0.04041  -0.468  -0.651
6.442e+09  -0.1042  -0.792  0.007759  0.01462  -0.0073  -0.04162  -0.6869  -0.4521
6.444e+09  -0.3613  -0.7746  -0.003783  -0.02663  0.0597  0.02287  -0.825  -0.1913
6.445e+09  -0.6226  -0.6335  -0.01112  0.008177  0.007798  0.03819  -0.8925  0.06112
6.446e+09  -0.7658  -0.3303  0.0229  0.02298  -0.01208  0.007716  -0.7556  0.3464
6.448e+09  -0.8099  -0.05977  0.008371  -0.01065  -0.007068  0.01612  -0.6289  0.6092
6.449e+09  -0.8504  0.1852  0.02557  0.01315  -0.01133  -0.05299  -0.3696  0.7165
6.45e+09  -0.6863  0.4785  0.005384  0.03706  0.04675  0.01642  -0.0628  0.7789
6.451e+09  -0.4524  0.7155  0.0173  -0.0212  0.01212  -0.03577  0.2276  0.7639
6.452e+09  -0.2587  0.8208  -0.04291  0.03878  -0.02244  0.03306  0.4981  0.6587
6.454e+09  0.1011  0.8835  0.008725  0.007337  0.02931  -0.01446  0.682  0.481
6.455e+09  0.3695  0.7905  -0.01777  0.01763  0.02633  0.04131  0.768  0.2258
6.456e+09  0.6152  0.5484  0.002538  -0.02467  0.01343  -0.02802  0.7889  -0.04393
6.458e+09  0.7788  0.3943  -0.01036  0.01481  0.008962  0.00137  0.7362  -0.3656
6.459e+09  0.8689  0.05586  0.006591  -0.03447  -0.01903  0.004234  0.5694  -0.5715
6.46e+09  0.8283  -0.213  0.05279  -0.05005  -0.03386  -0.01406  0.3014  -0.7323
6.461e+09  0.7312  -0.4832  0.03423  0.01332  -0.0262  0.00583  0.07773  -0.7724
6.462e+09  0.5256  -0.71  -0.02739  -0.006181  -0.01131  -0.01025  -0.2147  -0.7789
6.464e+09  0.2357  -0.8506  0.01305  -0.03142  0.0117  0.01468  -0.4279  -0.6882
6.465e+09  -0.03736  -0.8816  -0.02626  0.02316  0.06474  -0.01647  -0.6573  -0.4216
6.466e+09  -0.3684  -0.8196  0.01714  0.03004  0.01065  -0.007363  -0.7624  -0.2315
6.468e+09  -0.6615  -0.5882  0.03018  -0.004869  0.06662  0.1014  -0.7566  0.05836
6.469e+09  -0.7927  -0.3531  -0.002856  -0.002402  -0.005678  0.009741  -0.701  0.3502
6.47e+09  -0.8405  -0.1029  0.04835  -0.02231  -0.04592  -0.04585  -0.5505  0.5439
6.471e+09  -0.8368  0.2275  -0.01663  0.005289  -0.01847  0.01926  -0.3391  0.7371
6.472e+09  -0.6627  0.5242  -0.03726  0.01394  0.00588  0.01158  -0.04072  0.7644
6.474e+09  -0.5216  0.7101  -0.0177  0.01155  0.01826  0.01722  0.2049  0.772
6.475e+09  -0.21  0.8668  -0.0005858  -0.01715  0.0347  0.03775  0.4982  0.6286
6.476e+09  0.1131  0.8553  0.03625  0.003239  -0.01731  -0.02186  0.6395  0.4563
6.478e+09  0.3899  0.7673  -0.00399  0.003686  0.02538  -0.04318  0.7463  0.1747
6.479e+09  0.6534  0.5758  -0.02671  -0.02413  -0.01986  -0.01755  0.7481  -0.07222
6.48e+09  0.7942  0.3315  -0.01581  -0.01119  0.003092  0.05865  0.7301  -0.3487
6.481e+09  0.9058  0.09904  -0.02053  0.04081  -0.04355  0.002675  0.5279  -0.5434
6.482e+09  0.8156  -0.2903  0.009908  0.004803  0.01548  0.04559  0.3468  -0.7184
6.484e+09  0.6844  -0.4834  0.002263  0.009369  -0.02316  0.006077  0.0457  -0.7689
6.485e+09  0.4844  -0.7549  0.005542  0.03081  0.01798  -0.01579  -0.2305  -0.7533
6.486e+09  0.2235  -0.8836  -0.006832  -0.03299  -0.01186  0.01883  -0.4498  -0.6122
6.488e+09  -0.113  -0.8546  -0.02807  0.004141  0.02688  0.02035  -0.6797  -0.4157
6.489e+09  -0.3785  -0.7989  0.01645  0.01395  -0.01733  -0.01458  -0.7878  -0.2037
6.49e+09  -0.6339  -0.5938  -0.03002  -0.03121  0.03878  0.07969  -0.7603  0.08638
6.491e+09  -0.8543  -0.3231  -0.02465  0.008484  0.006774  -0.02667  -0.7148  0.306
6.492e+09  -0.888  -0.07586  0.02979  -0.03025  0.05595  0.05743  -0.5325  0.5792
6.494e+09  -0.8563  0.251  0.002788  0.01512  0.04177  0.04272  -0.2788  0.7257
6.495e+09  -0.7368  0.5235  0.01481  0.005291  -0.009215  0.01611  -0.06994  0.7744
6.496e+09  -0.435  0.712  -0.002409  0.003478  0.003469  -0.04084  0.1812  0.7413
6.498e+09  -0.2055  0.8289  0.01443  0.02321  -0.003655  0.001768  0.4334  0.6148
6.499e+09  0.1486  0.8827  -0.04011  -0.03776  -0.05788  -0.05084  0.6724  0.4583
6.5e+09  0.4142  0.8211  -0.03609  0.002787  -0.002918  0.02905  0.7503  0.216
6.501e+09  0.6689  0.6483  0.003009  0.02024  -0.001807  0.03035  0.732  -0.1052
6.502e+09  0.8463  0.3287  -0.0004386  0.01346  -0.02919  0.008804  0.6587  -0.3264
6.504e+09  0.9031  0.04169  -0.01102  0.006545  0.01176  -0.03126  0.5157  -0.6042
6.505e+09  0.8349  -0.2895  0.02206  0.02381  0.04586  0.02522  0.2637  -0.6965
6.506e+09  0.7315  -0.5319  0.009029  0.006966  -0.04091  0.02053  0.02165  -0.7866
6.508e+09  0.479  -0.8172  -0.01619  0.03181  -0.003362  -0.02322  -0.2551  -0.7205
6.509e+09  0.1757  -0.8605  0.007797  -0.01472  0.01545  -0.0001204  -0.4623  -0.5968
6.51e+09  -0.1501  -0.9056  -0.01238  0.02188  0.002491  -0.04323  -0.6705  -0.3835
6.511e+09  -0.4457  -0.7675  0.03382  -0.01225  0.005343  0.0371  -0.7572  -0.1374
6.512e+09  -0.6914  -0.6049  -0.007309  -0.02995  -0.04506  -0.02192  -0.7515  0.1413
6.514e+09  -0.8838  -0.3373  -0.004499  -0.03237  -0.01863  0.0204  -0.6578  0.3651
6.515e+09  -0.9164  0.03455  0.007819  -0.01105  0.02857  -0.009543  -0.4455  0.5929
6.516e+09  -0.892  0.3081  0.01021  -0.0164  -0.002011  -0.01372  -0.2432  0.6956
6.518e+09  -0.6593  0.5917  0.006614  -0.01183  0.00615  -0.001546  0.01048  0.7513
6.519e+09  -0.476  0.8426  0.02626  -0.02013  0.002783  -0.004743  0.2949  0.6799
6.52e+09  -0.159  0.9324  -0.04529  0.02479  0.003212  0.01343  0.4908  0.5517
6.521e+09  0.14  0.9224  0.01677  -0.01674  0.01528  0.04428  0.6707  0.3352
6.522e+09  0.5031  0.8428  0.001098  0.02181  0.0154  -0.01098  0.7134  0.1176
6.524e+09  0.7104  0.5511  -0.01435  0.02141  0.01516  0.0374  0.6764  -0.1576
6.525e+09  0.9085  0.3047  0.004217  0.02414  0.01696  0.001621  0.6281  -0.4014
6.526e+09  0.9518  0.03372  0.002765  0.03673  -0.03478  0.03919  0.4347  -0.5442
6.528e+09  0.9051  -0.3352  -0.001279  0.003878  0.04717  0.01667  0.1696  -0.6857
6.529e+09  0.6685  -0.6877  -0.006702  0.02935  0.02163  -0.03273  -0.08953  -0.7077
6.53e+09  0.3902  -0.8722  -0.01591  -0.009016  0.006948  0.02868  -0.2467  -0.6512
6.531e+09  0.1266  -0.93  0.01083  0.02784  -0.0001016  0.05511  -0.4655  -0.4838
6.532e+09  -0.2028  -0.9207  0.01794  0.03103  0.002196  0.0007078  -0.5824  -0.2527
6.534e+09  -0.5175  -0.7811  -0.04092  0.008085  0.02699  0.004238  -0.6271  -0.06742
6.535e+09  -0.8024  -0.5439  -0.0175  -0.003301  0.04596  0.001923  -0.5876  0.113
6.536e+09  -0.9718  -0.2359  -0.001058  -0.01673  0.02109  -0.009867  -0.5597  0.2563
6.538e+09  -0.9985  0.07149  0.00865  0.0114  0.001725  0.03469  -0.4251  0.4352
6.539e+09  -0.8147  0.39  0.0004506  0.01578  0.01994  -0.01859  -0.2417  0.5684
6.54e+09  -0.6391  0.6863  -0.01502  0.0199  -0.007831  -0.04863  -0.01907  0.6479
6.541e+09  -0.4068  0.8998  -0.009327  -0.01043  -0.03439  -0.004531  0.1801  0.6652
6.542e+09  -0.02599  0.9573  -0.004658  0.03685  0.02764  0.001218  0.415  0.5545
6.544e+09  0.2265  0.9016  0.01438  -0.004998  -0.008499  -0.02143  0.5733  0.3952
6.545e+09  0.6202  0.8164  -0.009891  0.0162  -0.01166  -0.03373  0.6897  0.1557
6.546e+09  0.8457  0.5025  0.03798  -0.005075  0.0243  0.00692  0.7293  -0.07229
6.548e+09  0.9216  0.1676  0.02715  0.001182  0.01506  -0.03238  0.6247  -0.3483
6.549e+09  0.9617  -0.1153  -0.02084  0.01076  -0.01937  -0.02219  0.5116  -0.5236
6.55e+09  0.8028  -0.4498  0.01831  0.01172  0.01857  0.0029  0.2718  -0.6923
6.551e+09  0.6356  -0.7609  0.02432  0.0199  -0.06628  0.0234  0.02842  -0.7084
