# Hz S RI R 50
6.25e+09  -0.3531  0.7754  -0.009426  -0.01042  0.0035  0.05947  0.1775  0.4657
6.251e+09  -0.06612  0.7908  0.006553  0.02548  0.03181  0.03557  0.3383  0.4303
6.252e+09  0.2323  0.8425  -0.02503  0.008359  0.0127  0.03005  0.5422  0.2528
6.254e+09  0.4845  0.7477  0.02884  0.008542  -0.003773  -0.03257  0.6141  0.0366
6.255e+09  0.6871  0.5264  -0.0291  -0.00698  0.008571  -0.0482  0.5862  -0.2231
6.256e+09  0.8036  0.2619  -0.009139  0.03055  -0.02772  0.008479  0.4668  -0.4345
6.258e+09  0.778  -0.08018  0.005784  -0.02351  0.00624  0.02907  0.2914  -0.5766
6.259e+09  0.7752  -0.3712  -0.02196  0.03683  0.01179  -0.01704  0.08344  -0.6719
6.26e+09  0.6318  -0.6622  -0.009193  0.01288  0.009279  0.003102  -0.2179  -0.6694
6.261e+09  0.3917  -0.7743  0.02085  0.008291  0.006524  0.004437  -0.4194  -0.5137
6.262e+09  0.1069  -0.8128  0.008442  0.009714  -0.005671  0.04122  -0.6309  -0.3596
6.264e+09  -0.1916  -0.832  -0.02535  -0.01448  0.0303  -0.01908  -0.682  -0.1158
6.265e+09  -0.4884  -0.7115  0.007582  0.001248  -0.03647  -0.03198  -0.6866  0.1556
6.266e+09  -0.7082  -0.4891  -0.03494  -0.003206  -0.005161  0.01709  -0.6253  0.3798
6.268e+09  -0.8035  -0.1585  -0.01952  -0.0007723  -0.0103  -0.02848  -0.4212  0.5851
6.269e+09  -0.8743  0.1112  -0.01723  -0.01319  0.03779  0.01645  -0.2068  0.7089
6.27e+09  -0.7174  0.3756  0.01856  0.007421  0.02257  0.01162  0.03117  0.7696
6.271e+09  -0.5587  0.559  0.0001387  0.01532  -0.006759  -0.03117  0.3122  0.6837
6.272e+09  -0.411  0.7283  0.000356  0.02324  -0.07467  -0.003687  0.5379  0.5231
6.274e+09  -0.0887  0.8301  0.003324  -0.03329  -0.03907  0.03058  0.6676  0.3108
6.275e+09  0.2095  0.8195  -0.0304  -0.01587  0.01244  0.01984  0.7598  0.05205
6.276e+09  0.479  0.7288  -0.005246  0.001289  0.02614  0.02477  0.7106  -0.1976
6.278e+09  0.7441  0.4283  0.02951  -0.006621  -0.04874  -0.01021  0.6086  -0.4569
6.279e+09  0.7931  0.2165  -0.005377  0.03092  -0.004994  -0.01219  0.393  -0.671
6.28e+09  0.8224  -0.04798  0.00461  0.01617  -0.005817  0.08214  0.1384  -0.7581
6.281e+09  0.7217  -0.355  -6.48e-05  -0.02598  -0.03843  0.02583  -0.08481  -0.7785
6.282e+09  0.5826  -0.5948  0.02174  0.00747  0.02165  0.02958  -0.3724  -0.6722
6.284e+09  0.395  -0.6593  0.01754  -0.006145  0.03309  0.007794  -0.5732  -0.5127
6.285e+09  0.123  -0.8213  -0.04078  0.01164  0.006462  0.01291  -0.7215  -0.3043
6.286e+09  -0.2449  -0.7506  0.01005  0.01678  -0.02822  0.04043  -0.7887  -0.03309
6.288e+09  -0.4835  -0.6836  0.01057  -0.02603  0.02605  -0.02024  -0.7559  0.2737
6.289e+09  -0.7059  -0.4552  -0.02127  -0.02866  -0.01102  0.03073  -0.6107  0.4943
6.29e+09  -0.7851  -0.1195  0.0007607  0.01558  0.02378  -0.02637  -0.3924  0.6756
6.291e+09  -0.8445  0.1126  0.0221  -0.01639  0.01575  -0.01869  -0.1569  0.8002
6.292e+09  -0.8082  0.3448  0.006909  0.01109  -0.001956  -0.03929  0.1287  0.7869
6.294e+09  -0.5781  0.6162  0.01148  -0.03688  0.009769  -0.05922  0.3903  0.6999
6.295e+09  -0.2905  0.7892  -0.0286  -0.01558  0.04636  -0.01362  0.601  0.5451
6.296e+09  -0.004713  0.8575  -0.01083  -0.0141  0.01369  -0.01604  0.8147  0.3046
6.298e+09  0.2621  0.8017  0.008306  -0.006309  -7.331e-05  0.02572  0.7925  0.00111
6.299e+09  0.5514  0.676  -0.0219  0.01582  -0.031  0.009895  0.7822  -0.2744
6.3e+09  0.7989  0.4256  0.02186  -0.02753  0.01578  0.006313  0.6366  -0.5113
6.301e+09  0.8389  0.1566  -0.00263  0.02144  0.04223  0.02398  0.4247  -0.6924
6.302e+09  0.8156  -0.1672  0.004561  0.03968  0.02471  -0.0007061  0.154  -0.8129
6.304e+09  0.7451  -0.3929  0.001827  0.01588  -0.03949  -0.01996  -0.129  -0.8432
6.305e+09  0.5509  -0.6575  -0.005596  0.01782  0.02824  -0.02287  -0.4282  -0.7053
6.306e+09  0.2611  -0.7534  0.01125  -0.01309  0.01171  -0.04805  -0.65  -0.5407
6.308e+09  0.01738  -0.8276  0.007114  -0.01902  -0.03618  -0.02953  -0.8063  -0.2998
6.309e+09  -0.32  -0.8169  0.02425  0.0196  0.02248  0.01869  -0.8497  -0.005418
6.31e+09  -0.5245  -0.6394  -0.01191  0.007573  -0.01481  0.005728  -0.8223  0.2796
6.311e+09  -0.7021  -0.4742  -0.009333  0.02339  0.006695  0.02476  -0.6356  0.5458
6.312e+09  -0.8422  -0.1283  -0.02334  0.0146  0.05509  0.03674  -0.4442  0.7648
6.314e+09  -0.8215  0.147  -0.02514  -0.004499  0.04388  0.02978  -0.1667  0.86
6.315e+09  -0.6833  0.4573  0.02907  0.004554  -0.04585  0.03019  0.1488  0.8361
6.316e+09  -0.5256  0.6931  0.03998  -0.002332  -0.04375  0.0329  0.438  0.771
6.318e+09  -0.2858  0.8228  0.01052  -0.01846  0.02179  -0.01067  0.6466  0.5782
6.319e+09  0.05183  0.8484  0.0007591  -0.001333  -0.01546  0.01428  0.8013  0.2955
6.32e+09  0.3288  0.7834  0.0118  -0.01566  0.01304  0.03611  0.8963  0.01512
6.321e+09  0.5899  0.6232  0.02481  0.02026  0.02041  0.06473  0.8183  -0.2937
6.322e+09  0.752  0.384  0.0397  -0.01654  0.05986  0.01285  0.6481  -0.5411
6.324e+09  0.8268  0.06635  0.02074  0.02063  -0.001325  0.03343  0.4827  -0.7305
6.325e+09  0.8097  -0.2038  0.02692  0.007655  -0.02366  0.03763  0.1759  -0.852
6.326e+09  0.6979  -0.459  0.001642  -0.01237  0.05025  0.01804  -0.1036  -0.8953
6.328e+09  0.4666  -0.7218  0.01892  0.01977  -0.05757  -0.02354  -0.4249  -0.7856
6.329e+09  0.2169  -0.8008  0.0108  -0.029  0.01928  0.02422  -0.7034  -0.6108
6.33e+09  -0.1068  -0.9211  0.01625  0.005647  0.02107  0.03806  -0.849  -0.3677
6.331e+09  -0.3716  -0.7513  0.008776  -0.004188  -0.03963  0.03222  -0.902  0.001648
6.332e+09  -0.6333  -0.5524  -0.02043  -0.009966  -0.02725  0.05634  -0.9142  0.2813
6.334e+09  -0.7829  -0.3564  0.01641  0.01053  0.04358  -0.004418  -0.7088  0.5719
6.335e+09  -0.8618  -0.09226  0.008377  -0.01313  0.04759  0.004444  -0.4747  0.7702
6.336e+09  -0.8501  0.2354  -0.008851  -0.003975  -0.01934  -0.0002978  -0.1849  0.8491
6.338e+09  -0.689  0.5035  -0.001702  0.02353  0.08435  -0.006475  0.09951  0.9193
6.339e+09  -0.4879  0.7461  0.03375  0.0167  -0.002699  0.02277  0.4169  0.7855
6.34e+09  -0.1194  0.8308  -0.02265  0.004103  0.02841  0.03577  0.7053  0.6087
6.341e+09  0.1718  0.8748  0.01009  0.02027  -0.01193  -0.01698  0.8215  0.3517
6.342e+09  0.4483  0.7701  -0.01561  0.01626  -0.0007995  -0.01439  0.9141  0.04462
6.344e+09  0.6885  0.5629  -0.001246  -0.03905  0.02961  -0.0359  0.9034  -0.3334
6.345e+09  0.8384  0.33  0.019  -0.03898  -0.02212  -0.02464  0.722  -0.5452
6.346e+09  0.8966  -0.002236  0.01355  -0.005235  0.005951  0.005062  0.5109  -0.8144
6.348e+09  0.7783  -0.3274  -0.01244  0.03178  0.05452  -0.02116  0.2346  -0.8879
6.349e+09  0.6511  -0.6005  -0.02464  -0.005301  -0.02162  -0.0005097  -0.1151  -0.9446
6.35e+09  0.4134  -0.7425  -0.007896  -0.004871  0.0008815  -0.002474  -0.432  -0.8829
6.351e+09  0.1238  -0.8949  0.01178  0.001679  -0.03866  0.03185  -0.6352  -0.6484
6.352e+09  -0.2073  -0.8793  0.012  -0.04176  -0.01029  -0.01523  -0.851  -0.3822
6.354e+09  -0.4539  -0.7117  0.02107  0.0005345  -0.02911  -0.03893  -0.9431  -0.05161
6.355e+09  -0.7109  -0.4649  0.01464  -0.008366  0.02857  -0.03543  -0.9061  0.2669
6.356e+09  -0.8758  -0.2399  0.001396  0.003898  -0.04329  0.02832  -0.7573  0.5591
6.358e+09  -0.8444  0.08991  0.01118  0.01617  -0.03661  0.008179  -0.539  0.766
6.359e+09  -0.8024  0.3649  -0.01348  0.01507  -0.005227  -0.01788  -0.2319  0.8974
6.36e+09  -0.653  0.5912  0.007226  -0.02999  -0.03245  -0.07196  0.1099  0.947
6.361e+09  -0.3648  0.8007  -0.01996  -0.007743  -0.002213  0.01469  0.3789  0.8547
6.362e+09  -0.08186  0.8989  -0.01644  -0.03195  0.03854  0.0183  0.6686  0.6383
6.364e+09  0.2909  0.8582  0.006869  -0.00625  0.001985  0.01355  0.8417  0.3842
6.365e+09  0.5049  0.7054  -0.05525  0.01353  0.01349  0.006063  0.9478  0.09717
6.366e+09  0.733  0.4782  0.01742  -0.0003609  -0.0006746  -0.01752  0.9124  -0.2751
6.368e+09  0.881  0.1724  -0.005097  0.03209  0.0426  -0.03254  0.7561  -0.5674
6.369e+09  0.8721  -0.1289  -0.03464  0.001553  -0.003993  0.001794  0.5559  -0.7465
6.37e+09  0.7961  -0.4127  0.02571  0.01281  -0.01504  0.04408  0.2459  -0.8555
6.371e+09  0.6198  -0.6761  0.0351  0.01007  -0.01724  -0.008551  -0.07605  -0.9384
6.372e+09  0.3053  -0.8446  -0.005101  -0.002745  0.03308  -0.0166  -0.4089  -0.8882
6.374e+09  0.04284  -0.8931  0.01627  -0.002215  -0.006532  -0.02426  -0.6602  -0.6882
6.375e+09  -0.3199  -0.8428  -0.002808  0.05151  0.008392  -0.01928  -0.8224  -0.4464
6.376e+09  -0.5917  -0.68  -0.04433  -0.007795  -0.05427  -0.03711  -0.9838  -0.116
6.378e+09  -0.7725  -0.4522  0.01935  -0.03003  0.05854  -0.001028  -0.9295  0.2486
6.379e+09  -0.8554  -0.1519  3.078e-05  -0.02847  0.00935  -0.01111  -0.7753  0.521
6.38e+09  -0.8837  0.1896  -0.02817  0.01522  0.006959  -0.02751  -0.5614  0.7198
6.381e+09  -0.7505  0.4311  -0.008006  0.01418  -0.05019  0.002818  -0.2707  0.9084
6.382e+09  -0.5047  0.6921  0.002963  -0.0171  -0.001378  -0.0284  0.05964  0.9295
6.384e+09  -0.2898  0.8397  -0.01259  -0.01645  -0.006358  0.01375  0.3511  0.882
6.385e+09  0.04866  0.8493  0.01804  0.006832  0.03283  0.006382  0.6312  0.6649
6.386e+09  0.35  0.8305  -0.0292  0.01747  0.02975  -0.0003735  0.827  0.4257
6.388e+09  0.5977  0.6736  -0.006863  0.01386  -0.03121  -0.0324  0.9532  0.1174
6.389e+09  0.7518  0.4187  -0.03005  -0.03402  0.01881  -0.009566  0.8944  -0.1751
6.39e+09  0.8638  0.09956  -0.006608  0.01492  0.03355  0.002221  0.7757  -0.517
6.391e+09  0.8637  -0.22  9.19e-07  0.01603  0.0003621  0.00874  0.5782  -0.7472
6.392e+09  0.73  -0.475  -0.00627  -0.006691  -0.00252  -0.03867  0.2753  -0.893
6.394e+09  0.5056  -0.7072  -0.01602  0.02742  0.02384  0.02653  -0.02154  -0.9148
6.395e+09  0.2429  -0.8451  0.01137  -0.0471  0.01661  -0.01018  -0.3049  -0.8461
6.396e+09  -0.05075  -0.903  0.02388  0.02232  0.04055  -0.05295  -0.5875  -0.7236
6.398e+09  -0.3319  -0.7795  -0.02477  0.009697  -0.03947  -0.04111  -0.7747  -0.396
6.399e+09  -0.6276  -0.6435  -0.01366  -0.007319  -0.004508  0.05751  -0.89  -0.1338
6.4e+09  -0.8275  -0.4  -0.01622  -0.03306  -0.0246  0.01688  -0.9148  0.1791
6.401e+09  -0.8504  -0.07415  -0.007719  -0.05186  -9.257e-05  -0.008513  -0.8352  0.4383
6.402e+09  -0.8448  0.2326  0.01108  0.02223  -0.02749  0.03381  -0.5967  0.6587
6.404e+09  -0.7173  0.4532  -0.01011  -0.03659  0.01037  -0.0275  -0.2898  0.883
6.405e+09  -0.5514  0.6972  -0.001431  0.04203  -0.02674  -0.01  -0.03435  0.9068
6.406e+09  -0.2107  0.8275  -0.01026  0.009244  0.01814  -0.01832  0.3093  0.8948
6.408e+09  0.08746  0.8581  0.02076  0.005478  0.01853  0.03184  0.5666  0.6855
6.409e+09  0.2964  0.8166  0.02869  -0.03648  -0.02001  -0.0566  0.7322  0.4598
6.41e+09  0.6421  0.6349  0.02149  0.02202  -0.0333  0.02112  0.8888  0.1714
6.411e+09  0.8457  0.3866  0.004048  0.01985  0.01199  -0.02086  0.8464  -0.1112
6.412e+09  0.8831  0.05869  -0.04635  0.008547  0.04305  0.01406  0.7857  -0.4189
6.414e+09  0.8675  -0.2361  -0.02919  -0.03586  -0.002516  -0.0001194  0.5944  -0.6395
6.415e+09  0.7629  -0.5203  -0.003697  0.01322  -0.00989  0.006195  0.3217  -0.8106
6.416e+09  0.4535  -0.7268  -0.01549  -0.006325  -0.006441  -0.02013  0.03175  -0.9087
6.418e+09  0.2205  -0.8753  -0.001776  -0.02121  0.02217  0.02049  -0.2819  -0.8523
6.419e+09  -0.06559  -0.8454  0.02245  -0.02295  0.01652  0.03038  -0.53  -0.7271
6.42e+09  -0.3802  -0.7958  0.02655  -0.03883  0.008894  0.01923  -0.74  -0.461
6.421e+09  -0.6291  -0.6069  -0.002726  -0.02613  -0.008548  0.03648  -0.8767  -0.165
6.422e+09  -0.8276  -0.3787  0.004907  0.02608  -0.04136  0.03484  -0.9031  0.1661
6.424e+09  -0.8766  -0.02884  0.007073  -0.001548  -0.009722  0.008256  -0.7867  0.4151
6.425e+09  -0.8469  0.2439  -0.03777  -0.007332  -0.003289  0.01536  -0.5677  0.6321
6.426e+09  -0.6964  0.5135  -0.02198  -0.007279  0.007678  -0.02702  -0.3475  0.8108
6.428e+09  -0.5039  0.7292  0.02195  0.007616  -0.007208  0.004366  -0.04417  0.8422
6.429e+09  -0.2272  0.8211  -0.04185  -0.0008901  0.01122  0.03219  0.2728  0.8557
6.43e+09  0.1344  0.9151  -0.01779  -0.0294  -0.04601  0.002804  0.5199  0.6737
6.431e+09  0.4202  0.8393  0.003667  -0.01794  0.03637  0.02445  0.7617  0.523
6.432e+09  0.6612  0.5915  0.003111  -0.02603  -0.008076  0.04119  0.8242  0.189
6.434e+09  0.792  0.3297  -0.008361  -0.03159  -0.02852  0.02284  0.8378  -0.0658
6.435e+09  0.8245  -0.003501  -0.03232  0.05238  0.06426  0.02124  0.7777  -0.4208
6.436e+09  0.8562  -0.2303  0.005372  -0.05054  -0.01753  -0.03235  0.5387  -0.5868
6.438e+09  0.6776  -0.5117  0.03807  0.02426  0.01095  -0.003381  0.3775  -0.7649
6.439e+09  0.4725  -0.7821  -0.02626  -0.0326  0.0223  -0.01094  0.08195  -0.852
6.44e+09  0.1366  -0.8565  -0.02287  0.002372  -0.04931  0.009055  -0.2331  -0.8401
6.441e+09  -0.1163  -0.9231  -0.05801  -0.02374  -0.03675  0.02011  -0.4922  -0.6899
6.442e+09  -0.3826  -0.7957  0.03803  0.01129  -0.06281  -0.00231  -0.6594  -0.4637
6.444e+09  -0.6484  -0.5802  0.007849  0.01396  -0.04366  -0.01469  -0.8496  -0.2132
6.445e+09  -0.8059  -0.3708  0.01062  0.03775  -0.01272  0.009389  -0.8718  0.1312
6.446e+09  -0.812  0.008315  -0.006789  -0.02122  0.01374  -0.01907  -0.7195  0.3938
6.448e+09  -0.8392  0.2651  0.04283  0.006714  0.004046  0.03667  -0.6229  0.5714
6.449e+09  -0.6804  0.5791  -0.00241  -0.01423  0.01417  -0.01819  -0.3726  0.765
6.45e+09  -0.448  0.7513  0.01282  0.01809  0.01653  0.04511  -0.05125  0.8249
6.451e+09  -0.1532  0.9078  0.02633  0.02262  0.004553  0.02642  0.2235  0.8423
6.452e+09  0.09585  0.8681  -0.004452  0.06487  0.03402  0.01671  0.5109  0.6665
6.454e+09  0.4278  0.822  -0.03141  -0.000931  0.04658  -0.02453  0.6588  0.4473
6.455e+09  0.6498  0.5969  0.007314  -0.002366  0.005329  0.01747  0.8085  0.2111
6.456e+09  0.8315  0.297  -0.02416  0.01029  0.04982  0.004585  0.8288  -0.065
6.458e+09  0.8746  0.04834  0.005438  -0.005475  -0.03743  0.02265  0.7323  -0.4136
6.459e+09  0.8429  -0.305  0.02117  0.01674  -0.01916  0.03196  0.596  -0.5689
6.46e+09  0.6948  -0.6134  -0.01443  0.03957  0.02504  -0.009628  0.3767  -0.7422
6.461e+09  0.4614  -0.7177  -0.00384  -0.01885  -0.01572  -0.0287  0.06991  -0.8653
6.462e+09  0.1322  -0.8147  0.00908  0.03894  0.01782  0.03634  -0.25  -0.7668
6.464e+09  -0.1738  -0.8635  0.04042  0.03606  -0.02347  0.0178  -0.5298  -0.637
6.465e+09  -0.3994  -0.7623  -0.04219  -0.009708  -0.01299  -0.000463  -0.6145  -0.4586
6.466e+09  -0.6924  -0.5917  -0.01826  0.07041  0.01193  0.01383  -0.7597  -0.2118
6.468e+09  -0.8257  -0.3486  0.0002344  0.001477  0.001496  -0.09334  -0.7945  0.1025
6.469e+09  -0.9088  -0.02034  0.02095  0.01693  -0.002672  -0.000658  -0.7027  0.2973
6.47e+09  -0.8628  0.3337  0.01633  0.01079  0.03819  0.005751  -0.5755  0.601
6.471e+09  -0.6818  0.5474  -0.003009  0.0008448  -0.01163  -0.02585  -0.3339  0.7719
6.472e+09  -0.4513  0.7898  0.01266  -0.02107  0.008859  0.01159  -0.0803  0.778
6.474e+09  -0.1363  0.8888  -0.02058  0.0007187  0.07074  -0.03648  0.2077  0.7581
6.475e+09  0.121  0.9056  0.01133  0.01351  -0.0116  0.01343  0.4107  0.6586
6.476e+09  0.4269  0.7925  0.002211  -0.01072  -0.008961  -0.002089  0.6567  0.4736
6.478e+09  0.7026  0.5755  0.02812  -0.02788  -0.02401  -0.0173  0.7622  0.2091
6.479e+09  0.8348  0.3412  0.04011  -0.01038  -0.02134  -0.03922  0.7564  -0.05286
6.48e+09  0.9255  -0.01775  0.003205  -0.01514  0.02849  0.004564  0.715  -0.3731
6.481e+09  0.8779  -0.3343  -0.02109  -0.0291  -0.0115  -0.01181  0.5664  -0.5601
6.482e+09  0.7233  -0.6104  -0.01559  -0.01935  0.02537  -0.0008093  0.2806  -0.677
6.484e+09  0.4429  -0.8275  -0.02898  -0.009335  0.0008999  -0.02316  0.05651  -0.7658
6.485e+09  0.1154  -0.9314  0.03003  -0.01464  -0.006231  0.01851  -0.1683  -0.7456
6.486e+09  -0.1984  -0.8866  0.02983  -0.01081  -0.02122  -0.02592  -0.4527  -0.6323
6.488e+09  -0.487  -0.7709  -0.03798  0.0528  -0.03653  -0.01257  -0.6062  -0.4497
6.489e+09  -0.6778  -0.5212  0.0144  0.00282  0.01161  -0.02671  -0.7439  -0.1915
6.49e+09  -0.8832  -0.2561  0.002619  -0.0214  0.03637  -0.0195  -0.7253  0.09596
6.491e+09  -0.9027  0.02212  -0.01914  0.01398  0.02581  -0.00722  -0.7025  0.3707
6.492e+09  -0.8285  0.3085  -0.01845  0.003486  -0.02995  0.01229  -0.52  0.5645
6.494e+09  -0.6705  0.6393  0.000591  -0.006618  -0.006828  0.03068  -0.2784  0.7045
6.495e+09  -0.4209  0.8555  -0.02675  0.001783  -0.02517  0.0005453  -0.05915  0.7397
6.496e+09  -0.1097  0.9444  -0.002564  -0.01074  -0.02342  0.009756  0.2383  0.7449
6.498e+09  0.194  0.8655  0.02782  -0.01304  0.02107  0.02158  0.4638  0.6432
6.499e+09  0.518  0.7659  -0.03705  -0.009551  0.006508  0.0168  0.6784  0.4044
6.5e+09  0.7086  0.5247  -0.02363  -0.01638  -0.01999  0.02998  0.7379  0.1618
6.501e+09  0.8921  0.3189  -0.01131  -0.01384  -0.009076  -0.03099  0.7502  -0.09333
6.502e+09  0.9145  -0.09504  0.01834  0.01911  0.02736  -0.03175  0.6837  -0.385
6.504e+09  0.8266  -0.3764  0.02588  0.0003961  -0.04821  -0.003229  0.4996  -0.5599
6.505e+09  0.6806  -0.6795  0.05608  0.0105  0.004115  -0.03789  0.3149  -0.7071
6.506e+09  0.3647  -0.8609  0.03013  0.0325  -0.009231  -0.02889  0.03482  -0.7473
6.508e+09  0.1024  -0.9174  0.01021  -0.004397  -0.02939  -0.02281  -0.2042  -0.7761
6.509e+09  -0.2418  -0.8927  0.01823  0.001711  -0.01861  0.01186  -0.4597  -0.5733
6.51e+09  -0.4853  -0.76  0.008543  0.01138  0.01093  0.02769  -0.6441  -0.3899
6.511e+09  -0.7896  -0.5507  -0.01068  -0.01298  -0.009126  -0.002922  -0.7611  -0.1155
6.512e+09  -0.9147  -0.2492  0.02839  -0.00362  -0.01889  -0.02439  -0.7221  0.05627
6.514e+09  -0.9394  0.1088  0.01088  0.0137  -0.005305  -0.01777  -0.6521  0.3551
6.515e+09  -0.8227  0.4403  0.01841  -0.03121  0.03516  0.007347  -0.4551  0.585
6.516e+09  -0.6359  0.6469  -0.01588  0.01069  -0.01898  0.0003666  -0.227  0.7149
6.518e+09  -0.3813  0.8896  -0.009508  -0.004594  0.01321  -0.02596  0.02141  0.7405
6.519e+09  -0.06016  0.9803  0.001678  0.004785  -0.02405  0.04422  0.2246  0.7195
6.52e+09  0.2705  0.9359  0.04214  0.03404  0.01952  -0.01204  0.4759  0.6007
6.521e+09  0.5994  0.7906  0.01108  0.00738  0.0163  0.01483  0.6517  0.3584
6.522e+09  0.8419  0.4923  0.01178  0.01374  -0.008551  0.03789  0.7285  0.1136
6.524e+09  0.9665  0.1844  0.00926  -0.006371  0.02755  -0.01742  0.7034  -0.2107
6.525e+09  0.9247  -0.1362  -0.005265  0.01331  -0.02505  0.01856  0.624  -0.4089
6.526e+09  0.8416  -0.4147  0.01083  0.001429  0.001195  0.005988  0.4008  -0.5703
6.528e+09  0.6409  -0.6987  -0.001918  0.02955  -0.02542  -0.01545  0.2006  -0.6754
6.529e+09  0.367  -0.8693  0.006378  0.02116  0.003075  0.01329  -0.01584  -0.6986
6.53e+09  0.03568  -0.9004  0.03158  0.01426  0.02685  0.04922  -0.3156  -0.6548
6.531e+09  -0.3103  -0.8975  0.02083  -0.01111  0.02666  0.0427  -0.4729  -0.4838
6.532e+09  -0.6266  -0.7473  -0.007136  -0.01538  0.002731  -0.02674  -0.581  -0.2669
6.534e+09  -0.8691  -0.4833  -0.03103  0.01056  0.002199  -0.02767  -0.6453  -0.05368
6.535e+09  -0.9386  -0.1351  0.0169  -0.02419  -0.01654  0.0005168  -0.5972  0.1081
6.536e+09  -0.9384  0.2123  0.0263  -0.006565  0.004203  0.05552  -0.5718  0.3189
6.538e+09  -0.8019  0.5229  0.006065  -0.01733  0.06442  0.03197  -0.493  0.4467
6.539e+09  -0.5633  0.7523  0.01382  0.03474  -0.03997  -0.04586  -0.2978  0.6067
6.54e+09  -0.2713  0.9425  -0.04946  0.005148  -0.0177  -0.02597  -0.03586  0.6751
6.541e+09  0.04174  0.9271  0.007593  -0.0161  0.01976  0.005891  0.1628  0.6523
6.542e+09  0.4337  0.8505  -0.02162  -0.02536  -0.03209  0.0489  0.4262  0.5473
6.544e+09  0.6882  0.6455  0.03789  0.002199  0.01334  0.008827  0.6022  0.4081
6.545e+09  0.8255  0.3736  0.01196  0.05036  -0.006384  -0.01584  0.6994  0.146
6.546e+09  0.9389  0.08949  -0.01416  -0.002635  -0.009852  0.0002856  0.7334  -0.05521
6.548e+09  0.9117  -0.2854  -0.01444  -0.009558  0.01095  0.04217  0.6589  -0.2996
6.549e+09  0.7383  -0.6319  -0.008366  -0.008024  0.003649  0.04332  0.5193  -0.5525
6.55e+09  0.4442  -0.7675  0.02953  -0.03251  -0.005488  0.01461  0.2952  -0.6911
6.551e+09  0.1763  -0.9756  0.001438  0.001681  -0.01371  0.07546  0.05567  -0.7163
