# Hz S RI R 50
6.25e+09  -0.4674  0.7444  -0.01231  -0.04236  0.01598  0.007993  0.1681  0.4732
6.251e+09  -0.1379  0.8681  -0.03156  -0.0006154  -0.005192  0.006419  0.3621  0.3794
6.252e+09  0.2114  0.8552  -0.01573  0.02657  -0.007853  -0.02724  0.5529  0.2366
6.254e+09  0.4378  0.7342  -0.01392  -0.02327  -0.02469  0.005849  0.6166  0.04449
6.255e+09  0.6905  0.5183  -0.007234  -0.02412  -0.0461  0.004803  0.5631  -0.1973
6.256e+09  0.774  0.2734  -0.01425  -0.02095  -0.02393  -0.006973  0.4877  -0.4402
6.258e+09  0.8616  -0.01856  -0.006007  -0.005892  -0.05253  -0.01436  0.292  -0.615
6.259e+09  0.7786  -0.2987  0.005484  0.03466  -0.01131  0.03686  0.04546  -0.7156
6.26e+09  0.6207  -0.5791  0.02356  -0.01101  0.01204  0.03309  -0.2166  -0.6111
6.261e+09  0.414  -0.7861  0.01609  0.004511  -0.01911  0.03346  -0.426  -0.5675
6.262e+09  0.1158  -0.8621  0.007216  -0.005379  -0.005147  0.04924  -0.611  -0.3381
6.264e+09  -0.2084  -0.8542  0.01055  -0.009809  -0.0148  0.0303  -0.695  -0.1268
6.265e+09  -0.4652  -0.7538  0.006329  0.01839  0.02736  -0.005516  -0.6969  0.1438
6.266e+09  -0.6357  -0.5458  0.04343  -0.02327  0.01064  0.03524  -0.595  0.3822
6.268e+09  -0.7932  -0.2682  0.02544  -0.02137  -0.01929  -0.01337  -0.434  0.568
6.269e+09  -0.8341  0.06557  -0.01679  0.01693  0.04997  0.04592  -0.2191  0.6948
6.27e+09  -0.7543  0.3437  -0.0191  0.01651  -0.04306  -0.00292  0.08416  0.7301
6.271e+09  -0.5975  0.5259  0.001005  0.0118  0.03819  -0.04148  0.3063  0.6588
6.272e+09  -0.4146  0.7186  0.0166  0.01251  0.03673  0.01092  0.498  0.5496
6.274e+09  -0.07509  0.7609  -0.01855  0.02058  -0.01706  0.02816  0.682  0.3006
6.275e+09  0.2247  0.7825  0.003312  0.03448  0.01335  0.07853  0.7799  0.06069
6.276e+09  0.4416  0.6833  0.01314  -0.01605  -0.004135  0.0009073  0.737  -0.2077
6.278e+09  0.6967  0.4833  -0.004229  -0.0111  0.02411  -0.08924  0.6103  -0.4234
6.279e+09  0.7725  0.3051  0.03334  -0.02017  0.001939  -0.02967  0.4332  -0.6662
6.28e+09  0.8192  -0.01439  -0.007284  0.03029  0.006382  -0.03337  0.1723  -0.7777
6.281e+09  0.7769  -0.3374  -0.02067  -0.006918  -0.03582  0.03461  -0.07506  -0.7516
6.282e+09  0.5312  -0.5526  -0.03276  0.004674  0.01191  -0.02438  -0.3369  -0.7274
6.284e+09  0.4008  -0.7544  0.01121  -0.01109  -0.01111  -0.002618  -0.5765  -0.513
6.285e+09  0.1146  -0.8429  -0.01549  -0.02551  -0.02761  -0.02498  -0.71  -0.2689
6.286e+09  -0.1515  -0.7793  -0.001802  0.01838  -0.004315  -0.001855  -0.8124  -0.00368
6.288e+09  -0.4786  -0.6976  -0.01773  -0.0164  0.01008  0.02046  -0.7574  0.2402
6.289e+09  -0.6732  -0.4814  -0.004036  -0.01399  0.01004  -0.01136  -0.6414  0.5204
6.29e+09  -0.8415  -0.216  0.000935  0.01175  0.01641  0.01985  -0.429  0.6895
6.291e+09  -0.855  0.05786  0.0004834  -0.03525  -0.00169  -0.003338  -0.1405  0.8027
6.292e+09  -0.761  0.3677  -0.03178  0.005003  0.04162  0.01281  0.1288  0.8059
6.294e+09  -0.5686  0.6059  -0.02126  -0.03933  0.02399  -0.03101  0.3829  0.7018
6.295e+09  -0.3876  0.7699  -0.03766  -0.008772  0.04255  0.01242  0.6117  0.5316
6.296e+09  -0.03401  0.8298  -0.004334  0.0004123  0.005601  0.0289  0.7632  0.2968
6.298e+09  0.2586  0.7884  0.03523  0.004448  0.02001  0.002922  0.8261  0.04082
6.299e+09  0.4631  0.6746  -0.001378  -0.01082  -0.02954  0.03327  0.7752  -0.2834
6.3e+09  0.6726  0.4509  0.01414  0.003517  -0.05357  0.007311  0.6486  -0.5405
6.301e+09  0.8081  0.1926  -0.01028  -0.0332  0.005979  0.01861  0.4186  -0.7338
6.302e+09  0.8644  -0.1285  0.01253  -0.01791  0.05633  -0.03612  0.15  -0.8332
6.304e+09  0.7118  -0.4156  0.02127  0.01994  0.01575  -0.01853  -0.1456  -0.811
6.305e+09  0.6006  -0.5833  -0.01814  0.018  0.01379  0.04848  -0.4127  -0.7316
6.306e+09  0.3194  -0.7656  0.008665  0.01057  0.006229  0.01598  -0.6465  -0.5628
6.308e+09  0.04335  -0.8056  0.03503  0.04934  0.0005725  0.003694  -0.7766  -0.2999
6.309e+09  -0.267  -0.7693  0.001273  -0.01984  0.02433  -0.02147  -0.8581  0.01783
6.31e+09  -0.5018  -0.6713  0.04163  0.02962  0.007096  -0.01498  -0.8056  0.2957
6.311e+09  -0.7008  -0.4127  -0.01171  0.001932  0.005127  -0.01472  -0.7054  0.5442
6.312e+09  -0.8262  -0.09973  -0.003115  -0.007667  0.004149  -0.0497  -0.4498  0.7621
6.314e+09  -0.7769  0.09934  -0.01055  -0.004411  0.01885  -0.006947  -0.1485  0.8445
6.315e+09  -0.7049  0.3763  0.02651  -0.01461  -0.009467  -0.02506  0.1315  0.8735
6.316e+09  -0.5455  0.5611  -0.002349  0.02003  -0.06313  0.04464  0.4271  0.7475
6.318e+09  -0.283  0.7792  0.01264  -0.005993  -0.0433  -0.01576  0.6437  0.6079
6.319e+09  0.0144  0.8353  0.01095  0.01434  0.03791  -0.01229  0.8187  0.314
6.32e+09  0.3265  0.7603  0.00644  0.02129  -0.03099  0.03482  0.9004  0.008753
6.321e+09  0.5848  0.6549  0.002981  0.00563  0.01758  0.00286  0.8244  -0.2893
6.322e+09  0.7757  0.3896  0.01214  0.005184  0.001312  0.0022  0.6695  -0.565
6.324e+09  0.8734  0.1487  -0.0374  -0.02061  0.03343  0.00367  0.4557  -0.758
6.325e+09  0.8632  -0.1835  -0.0433  0.0009558  -0.01804  -0.02398  0.1801  -0.8696
6.326e+09  0.6859  -0.491  0.009356  0.01744  0.006161  0.03457  -0.1488  -0.8941
6.328e+09  0.5029  -0.6641  -0.001372  -0.05735  -0.009417  -0.00889  -0.3893  -0.8013
6.329e+09  0.2794  -0.7818  0.01512  0.0124  0.006124  0.00214  -0.6753  -0.5989
6.33e+09  -0.03978  -0.7998  0.00756  -0.0001826  -0.01904  -0.01651  -0.832  -0.2964
6.331e+09  -0.3002  -0.776  -0.004959  0.01196  -0.009168  -0.01818  -0.902  -0.03986
6.332e+09  -0.5767  -0.6192  -0.01671  0.007517  0.01652  -0.03886  -0.8955  0.3029
6.334e+09  -0.8026  -0.3762  0.01403  0.006302  0.02635  0.01738  -0.7151  0.5702
6.335e+09  -0.8486  -0.06615  -0.01244  -0.006823  0.008576  -0.01597  -0.4577  0.765
6.336e+09  -0.8236  0.2175  0.002283  0.003569  -0.01965  0.0002483  -0.1798  0.8983
6.338e+09  -0.6483  0.5298  0.005628  0.01218  -0.01141  -0.001705  0.1342  0.9227
6.339e+09  -0.4553  0.7297  -0.01794  0.01384  -0.05406  0.00984  0.4198  0.8195
6.34e+09  -0.201  0.9039  0.005512  0.03734  0.02031  0.02212  0.6548  0.6052
6.341e+09  0.1176  0.847  0.01406  -0.02223  0.0181  0.04332  0.8345  0.3726
6.342e+09  0.4297  0.8039  -0.0269  -0.005995  0.02648  -0.01264  0.9383  0.02974
6.344e+09  0.6512  0.5542  -0.01035  -0.03285  0.01876  -0.01358  0.9119  -0.2479
6.345e+09  0.7638  0.3059  -0.005984  0.01057  0.00858  0.009375  0.7364  -0.5372
6.346e+09  0.8756  0.01453  0.03085  0.01409  -0.01781  -0.03726  0.4898  -0.77
6.348e+09  0.805  -0.3076  -0.03785  0.03654  0.02065  -0.05458  0.2436  -0.9144
6.349e+09  0.6623  -0.5602  -0.01374  -0.009179  0.0346  0.005824  -0.1094  -0.8888
6.35e+09  0.4275  -0.7499  -0.02317  0.0122  -0.01116  -0.01351  -0.4278  -0.8368
6.351e+09  0.1324  -0.8825  -0.01258  0.03079  0.004609  0.01604  -0.6814  -0.6559
6.352e+09  -0.1842  -0.8583  -0.007421  -0.01466  0.04532  0.01419  -0.8499  -0.3711
6.354e+09  -0.4986  -0.7371  -0.03364  0.004759  -0.007416  -0.021  -0.944  -0.03838
6.355e+09  -0.7142  -0.5296  -0.002348  -0.0008834  -0.00835  0.02804  -0.9122  0.2971
6.356e+09  -0.8258  -0.2807  0.007652  0.034  -0.03029  0.01139  -0.7464  0.5608
6.358e+09  -0.8943  0.02902  0.0466  0.004031  0.01499  0.01216  -0.5147  0.7858
6.359e+09  -0.7989  0.3664  0.01093  -0.01705  0.002793  0.01859  -0.2795  0.8996
6.36e+09  -0.6237  0.6187  0.009551  -0.01495  -0.0356  0.006026  0.08715  0.933
6.361e+09  -0.3902  0.7853  0.02482  -0.02592  -0.04354  -0.00531  0.3919  0.8656
6.362e+09  -0.08625  0.8519  0.03705  -0.002671  0.02166  0.02009  0.6337  0.6704
6.364e+09  0.2193  0.8949  -0.01402  0.00256  0.0288  0.02564  0.8723  0.3891
6.365e+09  0.4784  0.6815  0.025  0.02371  0.001139  -0.04428  0.9013  0.07743
6.366e+09  0.7723  0.5257  -0.03559  0.01064  0.04551  -0.01301  0.9004  -0.2359
6.368e+09  0.868  0.1834  -0.01518  0.02747  0.00771  0.0004669  0.7999  -0.5566
6.369e+09  0.8553  -0.1253  0.03569  0.02852  0.003684  0.005873  0.5637  -0.7552
6.37e+09  0.7668  -0.4296  -0.002171  0.02033  0.02839  0.00237  0.2295  -0.9351
6.371e+09  0.6094  -0.6569  -0.04214  0.000453  0.01376  0.007631  -0.04094  -0.9598
6.372e+09  0.3296  -0.8067  0.003314  -0.02412  -0.05195  0.009859  -0.3651  -0.8529
6.374e+09  0.1083  -0.8711  0.0111  0.02514  0.01278  0.01703  -0.6523  -0.6682
6.375e+09  -0.2493  -0.8463  0.01016  -0.01878  0.01904  -0.02249  -0.8136  -0.4052
6.376e+09  -0.5619  -0.7106  -0.01111  -0.02224  -0.0215  -0.03082  -0.9529  -0.1299
6.378e+09  -0.7906  -0.517  -0.03032  -0.01299  -0.009001  0.003995  -0.915  0.2535
6.379e+09  -0.9085  -0.2183  -0.001259  -0.01167  0.006916  -0.006673  -0.7869  0.5169
6.38e+09  -0.869  0.1284  0.001264  -0.01454  0.02857  0.0009392  -0.5658  0.7459
6.381e+09  -0.7373  0.4304  -0.04722  -0.01535  0.005381  0.0377  -0.2518  0.906
6.382e+09  -0.6202  0.6524  0.02317  0.001081  -0.001453  0.03565  0.04368  0.9179
6.384e+09  -0.2958  0.7957  -0.05471  0.005262  -0.01815  -0.03929  0.3708  0.8861
6.385e+09  -0.02067  0.8957  -0.03077  -0.03074  -0.02352  0.01409  0.6232  0.6885
6.386e+09  0.2885  0.8227  0.01398  -0.03281  0.002924  0.007098  0.8239  0.4213
6.388e+09  0.5774  0.6518  -0.02133  -0.002317  -8.28e-05  0.008807  0.9167  0.1133
6.389e+09  0.7662  0.408  0.05167  -0.01631  -0.007562  0.01411  0.8987  -0.2418
6.39e+09  0.8544  0.142  0.02661  -0.005006  -0.02848  -0.01483  0.7605  -0.4939
6.391e+09  0.8721  -0.1959  -0.007803  -0.01937  0.01155  -0.00372  0.5773  -0.7733
6.392e+09  0.7857  -0.4742  0.02018  0.00874  -0.02083  -0.03693  0.289  -0.9044
6.394e+09  0.5658  -0.6947  -0.01817  -0.02538  -0.01042  0.01425  0.01366  -0.9386
6.395e+09  0.2592  -0.835  -0.03033  -0.005531  0.04057  0.01004  -0.3308  -0.9073
6.396e+09  0.01985  -0.9018  -0.04817  -0.01011  0.02685  -0.007736  -0.5756  -0.6852
6.398e+09  -0.3415  -0.7959  -0.01958  -0.02217  -0.00449  0.04068  -0.8207  -0.4022
6.399e+09  -0.6003  -0.7174  -0.02524  0.03598  0.0515  -0.04135  -0.8857  -0.1356
6.4e+09  -0.7427  -0.403  -0.003076  -0.01321  -0.01389  -0.0134  -0.902  0.1629
6.401e+09  -0.8951  -0.1545  0.02792  0.004526  -0.005025  0.01065  -0.7849  0.494
6.402e+09  -0.829  0.2286  0.01566  -0.01277  0.04211  -0.01906  -0.5889  0.7245
6.404e+09  -0.725  0.4527  -0.02846  0.0112  -0.005823  0.0131  -0.2646  0.8552
6.405e+09  -0.5704  0.7309  0.047  -0.006886  0.02302  -0.0367  0.01133  0.8906
6.406e+09  -0.2634  0.8395  -0.004899  -0.01205  -0.04442  0.005278  0.3222  0.8953
6.408e+09  0.05183  0.8731  -0.002431  0.004148  -0.02814  0.00274  0.6034  0.7279
6.409e+09  0.3535  0.8035  -0.01329  -0.002527  0.009433  -0.04078  0.7873  0.4419
6.41e+09  0.6279  0.6829  0.02432  0.01191  0.0008584  -0.01973  0.8612  0.2016
6.411e+09  0.7672  0.3957  0.01549  -0.05565  -0.002096  0.009388  0.8641  -0.1479
6.412e+09  0.8358  0.08573  -0.009089  -0.0185  -0.002409  -0.04584  0.7665  -0.424
6.414e+09  0.7898  -0.2181  -0.05298  0.008092  0.005929  -0.06138  0.6488  -0.664
6.415e+09  0.7761  -0.4314  -0.06814  -0.04729  -0.01551  0.005791  0.319  -0.842
6.416e+09  0.5431  -0.7211  -0.009826  -0.01294  0.0148  -0.03713  0.0162  -0.926
6.418e+09  0.2209  -0.8137  0.03404  -0.01629  0.03134  -0.02538  -0.262  -0.8793
6.419e+09  -0.08824  -0.8091  -0.03513  0.005104  -0.02147  -0.02125  -0.5531  -0.699
6.42e+09  -0.4007  -0.7947  -0.02165  -0.004107  0.004398  0.02808  -0.7273  -0.489
6.421e+09  -0.5594  -0.6205  -0.01151  -0.00505  0.004963  -0.002856  -0.8654  -0.17
6.422e+09  -0.7629  -0.348  -0.0337  0.03952  0.008066  0.007698  -0.8473  0.04025
6.424e+09  -0.8885  -0.08265  -0.008317  -0.02702  0.03551  0.02073  -0.7735  0.4034
6.425e+09  -0.8655  0.2299  -0.04502  0.02426  -0.06304  0.03245  -0.5682  0.6661
6.426e+09  -0.7096  0.4884  0.04424  -0.006796  -0.04387  0.004611  -0.3535  0.812
6.428e+09  -0.5267  0.7079  -0.05286  -0.03265  0.04327  -0.002668  -0.06758  0.8703
6.429e+09  -0.2566  0.813  -0.01802  0.007517  -0.07754  -0.04456  0.2738  0.8064
6.43e+09  0.1377  0.8959  -0.008313  -0.01379  0.004958  -0.007487  0.4747  0.7134
6.431e+09  0.4139  0.8086  0.01984  0.01917  0.02068  0.008471  0.7152  0.452
6.432e+09  0.6568  0.6027  -0.01895  0.02506  0.005059  -0.02695  0.8861  0.2423
6.434e+09  0.7467  0.3504  -0.009046  -0.02293  -0.009246  0.02375  0.8366  -0.1116
6.435e+09  0.841  0.1111  -0.01768  0.01297  -0.002226  0.003251  0.7703  -0.3388
6.436e+09  0.8552  -0.2251  0.03323  -0.001049  0.03593  0.00168  0.6423  -0.5963
6.438e+09  0.7448  -0.5229  -0.03947  0.04776  0.022  0.003966  0.3413  -0.7477
6.439e+09  0.4459  -0.7148  0.0246  -0.03422  0.004755  0.03617  0.06936  -0.837
6.44e+09  0.213  -0.8117  -0.01085  0.02588  -0.01817  -0.00314  -0.2375  -0.7979
6.441e+09  -0.09892  -0.8562  -0.04646  0.006397  -0.0473  -0.03963  -0.5177  -0.6947
6.442e+09  -0.4348  -0.782  -0.06309  0.03069  0.03892  -0.02395  -0.6866  -0.4788
6.444e+09  -0.6411  -0.6518  0.02782  0.02169  -0.002468  0.01755  -0.8093  -0.2002
6.445e+09  -0.8263  -0.3189  -0.02691  -0.01972  -0.01314  0.03561  -0.821  0.07958
6.446e+09  -0.8856  -0.04345  -0.01334  0.01695  -0.002787  -0.01949  -0.7202  0.3515
6.448e+09  -0.8218  0.2868  -0.009897  -0.02821  -0.005508  -0.01482  -0.585  0.5665
6.449e+09  -0.6928  0.549  0.04115  -0.03964  -0.03515  0.001275  -0.3665  0.7581
6.45e+09  -0.4715  0.801  0.002456  -0.04876  0.0282  0.02693  -0.04071  0.8265
6.451e+09  -0.1964  0.8498  -0.01307  0.02827  0.01842  -0.02606  0.161  0.7911
6.452e+09  0.1242  0.8628  0.01131  0.008358  -0.01448  -0.008011  0.4444  0.6099
6.454e+09  0.3701  0.7761  -0.02178  -0.0201  0.02738  -0.01379  0.7248  0.4511
6.455e+09  0.7288  0.6515  0.01016  0.01593  0.0007631  0.005368  0.8093  0.2261
6.456e+09  0.7831  0.3563  -0.0287  0.002133  -0.01217  0.005379  0.8171  -0.07216
6.458e+09  0.871  0.05826  -0.04568  0.002188  0.01837  0.03715  0.7587  -0.3687
6.459e+09  0.8564  -0.2884  0.01784  -0.0236  -0.04876  -0.03361  0.5382  -0.5467
6.46e+09  0.7358  -0.4848  -0.06746  -0.02203  -0.007255  -0.003019  0.3588  -0.7747
6.461e+09  0.5024  -0.7314  0.00545  0.002597  0.001942  0.03814  0.1408  -0.7841
6.462e+09  0.1842  -0.8724  -0.01608  -0.01831  0.00127  -0.01753  -0.2071  -0.7825
6.464e+09  -0.1102  -0.8874  -0.08647  -0.001605  -0.01816  0.004328  -0.4528  -0.6565
6.465e+09  -0.4205  -0.8451  -0.02929  -0.02981  -0.02074  -0.002246  -0.6684  -0.434
6.466e+09  -0.6438  -0.5921  0.03828  0.006981  0.05357  0.01362  -0.7297  -0.1923
6.468e+09  -0.8424  -0.3658  0.0005067  0.07028  0.006264  0.01108  -0.8165  0.06767
6.469e+09  -0.8854  -0.02083  0.01325  0.02443  0.009924  0.06556  -0.7312  0.3415
6.47e+09  -0.8762  0.2879  -0.05055  -0.01403  -0.0168  -0.01019  -0.5456  0.5938
6.471e+09  -0.7263  0.5322  0.02265  -0.002567  -0.03586  0.01601  -0.3097  0.7229
6.472e+09  -0.489  0.7577  0.0249  0.004521  0.0435  -0.00406  -0.1318  0.7623
6.474e+09  -0.1514  0.9032  -0.03979  -0.00247  -0.01722  -0.05779  0.1839  0.7402
6.475e+09  0.1167  0.879  0.02909  0.04947  -0.01399  -0.005821  0.4931  0.5843
6.476e+09  0.3879  0.7831  -0.01872  0.03099  0.01277  0.04592  0.6318  0.4434
6.478e+09  0.7143  0.5993  -0.006927  0.01707  0.01168  0.0322  0.7608  0.2086
6.479e+09  0.7806  0.3646  -0.0136  -0.0144  0.0327  -0.02657  0.8037  -0.07854
6.48e+09  0.9197  0.0663  0.01726  0.03053  -0.007497  0.02413  0.7167  -0.3666
6.481e+09  0.8455  -0.3157  -0.01236  0.0145  -0.02357  0.0384  0.5509  -0.5466
6.482e+09  0.748  -0.5669  0.02868  -0.02272  -0.00982  0.009283  0.2996  -0.7606
6.484e+09  0.4803  -0.8203  -0.01017  -0.0205  0.03611  -0.005289  0.05878  -0.7816
6.485e+09  0.1907  -0.8987  -0.003283  0.01542  0.03949  -0.05297  -0.2241  -0.7324
6.486e+09  -0.1456  -0.9423  0.01253  0.003374  0.06313  0.01572  -0.4504  -0.6202
6.488e+09  -0.4835  -0.8082  0.007146  -0.01309  0.03676  0.03295  -0.6638  -0.4452
6.489e+09  -0.7078  -0.5539  0.01293  0.007219  0.004498  0.009508  -0.7513  -0.1959
6.49e+09  -0.8291  -0.3557  0.009808  -0.001256  -0.03238  -0.0009529  -0.7868  0.08987
6.491e+09  -0.9151  0.0447  0.03843  0.01275  -0.02033  0.04166  -0.7355  0.3813
6.492e+09  -0.8962  0.3224  0.01537  -0.007452  -0.04143  -0.003012  -0.56  0.5649
6.494e+09  -0.7577  0.6063  -0.006477  0.008711  -0.01858  -0.01912  -0.2898  0.7087
6.495e+09  -0.4545  0.8323  0.01957  0.008043  -0.003688  0.0004132  0.004152  0.7932
6.496e+09  -0.1538  0.927  0.01801  0.009375  -0.005383  -0.0349  0.2049  0.7268
6.498e+09  0.1849  0.9035  -0.006638  -0.0262  -0.02747  -0.00618  0.4557  0.6239
6.499e+09  0.4704  0.8064  -0.001316  0.03684  -0.01447  -0.00838  0.5852  0.3941
6.5e+09  0.6954  0.5672  -0.008593  -0.003631  -0.02484  0.05552  0.734  0.1895
6.501e+09  0.8599  0.3019  -0.02373  0.003722  0.005709  -0.05015  0.7599  -0.1112
6.502e+09  0.9543  -0.03626  0.01985  -0.01104  -0.05438  0.009509  0.7065  -0.346
6.504e+09  0.8777  -0.359  -0.007152  0.01799  -0.0273  0.01059  0.5675  -0.5398
6.505e+09  0.6674  -0.6341  0.02696  0.002187  0.03399  0.02643  0.2607  -0.7038
6.506e+09  0.4418  -0.7786  0.01099  0.0117  -0.01008  -0.02546  0.04239  -0.7535
6.508e+09  0.1476  -0.8756  0.05082  0.04038  -0.007895  -0.0005054  -0.2683  -0.6863
6.509e+09  -0.1265  -0.9459  0.005199  0.02175  0.006009  -0.0528  -0.464  -0.5727
6.51e+09  -0.5343  -0.8087  -0.01478  -0.003717  0.01954  0.002948  -0.6826  -0.3809
6.511e+09  -0.6917  -0.5829  -0.01129  0.01825  0.03073  0.00697  -0.7529  -0.1293
6.512e+09  -0.8698  -0.2775  -0.006651  0.01652  0.02458  0.006261  -0.7339  0.08066
6.514e+09  -0.9392  0.0896  -0.03547  -0.01676  0.04709  0.02075  -0.6806  0.3767
6.515e+09  -0.9034  0.3783  -0.03048  -0.003897  0.0402  0.01797  -0.4917  0.6003
6.516e+09  -0.7004  0.6308  0.004005  -0.0337  -0.006263  -0.01076  -0.245  0.7169
6.518e+09  -0.415  0.857  0.03262  -0.003061  -0.03054  0.01612  0.02149  0.7385
6.519e+09  -0.1041  0.9853  0.0391  0.04028  -0.001626  0.02094  0.277  0.6927
6.52e+09  0.2622  0.9377  -0.01548  0.02634  0.04149  0.01189  0.4625  0.5824
6.521e+09  0.5549  0.8041  0.00237  0.0338  0.01038  0.01153  0.6555  0.3674
6.522e+09  0.7835  0.5523  0.01998  0.008172  0.04006  -0.006796  0.7575  0.08214
6.524e+09  0.9139  0.2298  -0.04081  -0.01079  0.04716  0.008923  0.7162  -0.1542
6.525e+09  0.9565  -0.1313  0.02981  0.01277  0.022  -0.01314  0.6199  -0.4122
6.526e+09  0.871  -0.4291  -0.006635  -0.0047  0.01513  0.03223  0.3882  -0.6059
6.528e+09  0.6799  -0.6907  -0.004128  0.01566  0.01928  -0.00593  0.1971  -0.6618
6.529e+09  0.3441  -0.8678  0.0006707  0.000592  0.01586  0.03072  -0.04669  -0.7323
6.53e+09  0.01391  -0.9619  0.02103  0.03318  0.007657  0.004783  -0.2787  -0.6252
6.531e+09  -0.3608  -0.8964  -0.021  0.01425  -0.04688  -0.03238  -0.4918  -0.4763
6.532e+09  -0.622  -0.7912  -0.0411  -0.01466  0.04433  -0.01056  -0.5941  -0.3129
6.534e+09  -0.8071  -0.464  0.01396  0.01753  0.03351  0.005723  -0.6289  -0.08324
6.535e+09  -0.9878  -0.1864  0.01741  -0.008319  0.03068  0.004388  -0.6136  0.1274
6.536e+09  -0.9514  0.1986  -0.009407  -0.008541  0.0536  -0.04314  -0.5435  0.3121
6.538e+09  -0.8071  0.5106  0.001831  -0.01654  0.03659  0.02158  -0.413  0.4807
6.539e+09  -0.6145  0.7357  0.01044  -0.02351  0.02742  0.01898  -0.2494  0.6004
6.54e+09  -0.3045  0.9613  -0.03341  0.003364  0.00838  -0.05365  -0.07407  0.6881
6.541e+09  0.02271  0.9895  0.01317  -0.05746  -0.04176  0.04919  0.1683  0.6907
6.542e+09  0.347  0.8724  -0.01142  0.02156  0.001868  0.01102  0.4049  0.5862
6.544e+09  0.6058  0.7562  -0.01382  -0.009905  0.01389  0.006608  0.5803  0.3836
6.545e+09  0.9094  0.4454  0.03052  0.003133  0.006303  0.02836  0.6668  0.1533
6.546e+09  0.9604  0.1191  0.01898  -0.006735  0.009011  -0.0007056  0.7475  -0.115
6.548e+09  0.9295  -0.2871  0.02389  0.02174  0.001481  -0.02697  0.6477  -0.2996
6.549e+09  0.7516  -0.604  -0.03094  0.01921  -0.009276  0.02386  0.5081  -0.5396
6.55e+09  0.5824  -0.7342  0.0127  0.006594  -0.006922  -0.02822  0.2936  -0.6813
6.551e+09  0.2468  -0.9231  0.006524  0.01441  -0.007545  -0.03224  0.02988  -0.7008
