# Hz S RI R 50
6.25e+09  -0.337  0.8229  -0.06061  -0.005164  -0.06785  0.0643  0.1631  0.4859
6.251e+09  -0.08452  0.9139  -0.01402  0.02293  0.03192  0.01146  0.3277  0.381
6.252e+09  0.2374  0.86  0.001844  -0.01029  0.04985  -0.02132  0.5462  0.2447
6.254e+09  0.4634  0.7337  -0.0123  0.009261  0.01651  0.0008213  0.5735  -0.004656
6.255e+09  0.7817  0.5046  0.003672  0.009932  -0.04242  0.03691  0.5513  -0.1874
6.256e+09  0.8154  0.256  -0.0149  0.03891  -0.01888  0.01374  0.4914  -0.4127
6.258e+09  0.8604  -0.1105  0.01894  -0.01664  -0.01258  0.01719  0.2727  -0.5502
6.259e+09  0.7352  -0.3748  0.01992  -0.03044  0.01994  -0.01742  0.05799  -0.6654
6.26e+09  0.6327  -0.6347  -0.01403  -0.00232  0.015  0.007451  -0.1991  -0.6638
6.261e+09  0.2999  -0.777  -0.00644  0.0183  -0.07383  -0.042  -0.4242  -0.543
6.262e+09  0.05985  -0.8196  0.03156  -0.03191  0.008405  -0.01875  -0.5684  -0.3578
6.264e+09  -0.2202  -0.8137  -0.0204  0.003513  -0.02663  0.02591  -0.6929  -0.1148
6.265e+09  -0.4941  -0.7215  0.02044  0.01096  -0.009518  -0.04182  -0.6916  0.1484
6.266e+09  -0.7005  -0.424  0.0006625  0.01636  -0.03064  -0.01496  -0.5863  0.4241
6.268e+09  -0.8222  -0.1953  0.02889  0.01396  -0.004993  -0.04056  -0.4109  0.6184
6.269e+09  -0.8111  0.09122  -0.02257  -0.02797  0.01374  0.03211  -0.1752  0.7218
6.27e+09  -0.7332  0.384  -0.02327  0.04896  -0.02415  -0.007914  0.04756  0.7073
6.271e+09  -0.6392  0.5947  -0.003165  0.001475  -0.03277  0.01819  0.331  0.6717
6.272e+09  -0.3606  0.8178  0.01475  0.005715  -0.0223  0.01774  0.566  0.5216
6.274e+09  -0.005925  0.8065  -0.01443  0.00398  -0.02602  -0.003686  0.6743  0.2956
6.275e+09  0.2457  0.7962  -0.006572  -0.0101  0.01031  -0.00222  0.7328  0.01189
6.276e+09  0.5209  0.6568  -0.01293  0.007625  0.07381  -0.02518  0.7176  -0.2163
6.278e+09  0.7118  0.4781  0.01173  0.01923  0.004338  -0.02591  0.6042  -0.4644
6.279e+09  0.7836  0.1054  -0.01063  0.00579  0.0203  0.05845  0.3994  -0.6666
6.28e+09  0.8648  -0.1528  -0.01867  -0.04475  0.05914  -0.05389  0.1476  -0.7407
6.281e+09  0.7382  -0.404  -0.006193  -0.02343  -0.07219  0.0446  -0.1086  -0.771
6.282e+09  0.5348  -0.6375  -0.01251  -0.01141  -0.01085  0.001486  -0.362  -0.6788
6.284e+09  0.3711  -0.7798  0.01654  0.005453  0.006886  -0.006659  -0.5968  -0.5151
6.285e+09  0.01292  -0.8352  0.03249  -0.01906  0.025  0.06069  -0.7398  -0.2647
6.286e+09  -0.3339  -0.7591  0.01889  -0.0245  -0.03114  -0.006685  -0.7802  -0.02056
6.288e+09  -0.4689  -0.6178  -0.003554  0.001079  0.05381  -0.01859  -0.766  0.2278
6.289e+09  -0.7318  -0.4214  -0.01534  0.009017  0.008812  0.0315  -0.6381  0.4717
6.29e+09  -0.7785  -0.1343  0.004298  -0.02131  0.02887  -0.001808  -0.4238  0.686
6.291e+09  -0.8077  0.1108  0.01026  0.01615  0.02488  0.01641  -0.1424  0.7785
6.292e+09  -0.7103  0.4259  -0.02456  0.03252  -0.0001628  0.04416  0.1267  0.8068
6.294e+09  -0.4908  0.5812  -0.01361  -0.01997  0.02573  0.03875  0.388  0.7208
6.295e+09  -0.2926  0.7726  0.01113  -0.02497  -0.004805  0.04647  0.613  0.5203
6.296e+09  0.04829  0.8137  0.02964  -0.0003571  0.02956  -0.004716  0.7759  0.2746
6.298e+09  0.281  0.7804  -0.01499  -0.007419  0.01619  -0.02588  0.8204  0.004949
6.299e+09  0.5328  0.647  -0.02392  0.006795  0.001851  0.008025  0.7928  -0.2728
6.3e+09  0.7591  0.3886  -0.02719  0.004467  -0.02111  0.009603  0.6429  -0.5119
6.301e+09  0.815  0.1604  -0.002709  -0.01633  -0.04165  0.0104  0.4399  -0.7192
6.302e+09  0.8239  -0.1801  -0.0169  0.00319  -0.01479  -0.02367  0.1627  -0.805
6.304e+09  0.6948  -0.463  0.02158  0.01146  0.0008472  0.006244  -0.135  -0.813
6.305e+09  0.5228  -0.6848  0.005577  -0.03471  -0.02887  0.02525  -0.3908  -0.7401
6.306e+09  0.2316  -0.7867  0.009787  -0.005767  0.02891  0.03574  -0.6347  -0.5631
6.308e+09  -0.08883  -0.8158  0.003447  0.004977  -0.01142  -0.02932  -0.7655  -0.289
6.309e+09  -0.3133  -0.7904  -0.009843  -0.03456  0.002886  0.01838  -0.864  -0.03677
6.31e+09  -0.5043  -0.6074  -0.02584  0.007454  -0.008112  -0.01717  -0.7845  0.2504
6.311e+09  -0.8  -0.3492  0.001919  -0.004285  -0.01466  -0.03506  -0.6577  0.5432
6.312e+09  -0.8657  -0.04682  0.01124  0.02506  0.02077  -0.003061  -0.4454  0.7411
6.314e+09  -0.7796  0.2393  -0.01668  0.01102  -0.02536  -0.02298  -0.1652  0.8443
6.315e+09  -0.7159  0.4755  -0.006299  0.007582  0.0199  0.01527  0.1382  0.87
6.316e+09  -0.406  0.6231  0.04667  0.02357  -0.02961  -0.03312  0.4275  0.7777
6.318e+09  -0.1693  0.7622  -0.008775  -0.01145  -0.01708  0.01028  0.6693  0.573
6.319e+09  0.1118  0.8501  0.009291  -0.01164  -0.03751  0.06347  0.8397  0.3341
6.32e+09  0.3612  0.8021  -0.03046  -0.02416  0.008634  0.02242  0.86  0.04179
6.321e+09  0.6144  0.5684  0.0303  0.03071  0.006801  0.04196  0.8291  -0.266
6.322e+09  0.8057  0.3105  -0.01475  0.02937  -0.002631  0.0085  0.6955  -0.5123
6.324e+09  0.8575  0.06675  0.02601  0.02163  0.04305  0.01409  0.4588  -0.7459
6.325e+09  0.805  -0.2178  0.008929  0.05329  0.04228  -0.02903  0.161  -0.8637
6.326e+09  0.6566  -0.5031  -0.002804  0.01628  0.005335  0.03793  -0.1555  -0.9275
6.328e+09  0.4637  -0.6896  0.001188  0.01079  -0.01701  -0.0491  -0.4236  -0.7596
6.329e+09  0.187  -0.8839  -0.02031  -0.0158  -0.01659  -0.02995  -0.6604  -0.6153
6.33e+09  -0.1203  -0.861  0.001682  -0.007437  0.03936  0.02669  -0.8384  -0.331
6.331e+09  -0.4266  -0.7826  -0.01267  -0.002764  -0.001161  0.01473  -0.8883  0.0111
6.332e+09  -0.6565  -0.5224  0.03737  0.01411  0.02826  -0.05787  -0.8691  0.2708
6.334e+09  -0.8167  -0.2751  0.01112  -0.02495  -0.01455  0.00303  -0.6807  0.5852
6.335e+09  -0.8535  0.006321  0.003731  -0.006778  0.005815  -0.0007353  -0.472  0.8004
6.336e+09  -0.7805  0.3133  -0.009876  0.01369  -0.04549  -0.005006  -0.1679  0.8983
6.338e+09  -0.6938  0.6035  -0.03565  0.01431  0.01312  2.397e-05  0.145  0.927
6.339e+09  -0.4362  0.79  -0.001041  0.004524  -0.04997  0.03172  0.4129  0.8216
6.34e+09  -0.1378  0.8829  -0.01292  0.01776  0.01735  -0.05731  0.6728  0.6215
6.341e+09  0.1851  0.8267  0.01687  0.007516  0.03479  -0.003891  0.8459  0.3619
6.342e+09  0.5223  0.7393  -0.01532  -0.0142  -0.01401  0.01393  0.8941  0.02146
6.344e+09  0.7193  0.5155  -0.01067  0.02458  0.004275  0.01756  0.8734  -0.2813
6.345e+09  0.8717  0.2636  -0.05095  -0.03311  -0.05904  -0.01582  0.742  -0.546
6.346e+09  0.887  -0.0666  -0.02781  0.02985  0.03001  0.01461  0.5152  -0.777
6.348e+09  0.8048  -0.4098  -0.02554  0.03094  -0.004792  -0.009833  0.2066  -0.8615
6.349e+09  0.6243  -0.5887  0.02053  0.01583  0.01059  -0.009369  -0.0866  -0.9079
6.35e+09  0.3356  -0.8153  -0.02193  -0.01234  -0.004827  0.02228  -0.4202  -0.8288
6.351e+09  0.04391  -0.8944  -0.008225  0.02448  -0.001672  0.01089  -0.6902  -0.6475
6.352e+09  -0.2759  -0.8549  0.003751  -0.006378  -0.03847  -0.003645  -0.8719  -0.4038
6.354e+09  -0.5266  -0.7309  -0.02066  0.02464  -0.009807  -0.0136  -0.9006  -0.07108
6.355e+09  -0.7741  -0.4462  -0.01136  0.03675  -0.04015  0.004973  -0.8634  0.2653
6.356e+09  -0.8385  -0.1648  -0.003934  -0.01032  -0.05036  0.007364  -0.7575  0.5345
6.358e+09  -0.8749  0.1129  -0.02105  -0.04038  0.02543  0.02991  -0.5466  0.7563
6.359e+09  -0.7498  0.4484  0.01091  -0.01757  -0.01884  -0.0303  -0.2447  0.9189
6.36e+09  -0.5608  0.7059  -0.001689  0.01098  0.01867  -0.04335  0.1014  0.9359
6.361e+09  -0.3305  0.8117  -0.02033  -0.008307  -0.02212  0.04371  0.3616  0.8617
6.362e+09  -0.03003  0.9007  -0.01605  0.02114  -0.02681  0.00697  0.6736  0.6558
6.364e+09  0.3166  0.8715  -0.05258  -0.04093  0.05117  0.01655  0.8353  0.3722
6.365e+09  0.5871  0.6839  0.00014  0.04187  -0.01265  0.003316  0.9307  0.07465
6.366e+09  0.7636  0.4544  0.00204  -0.03099  -0.009556  -0.02016  0.9248  -0.2303
6.368e+09  0.8957  0.1618  0.002296  -0.03582  0.02017  0.01561  0.7448  -0.5727
6.369e+09  0.8665  -0.1956  -0.04532  0.02512  -0.03434  -0.0005626  0.5436  -0.7861
6.37e+09  0.7402  -0.4769  -0.01494  0.009042  0.02644  -0.009215  0.2004  -0.8867
6.371e+09  0.5294  -0.7211  -0.03219  0.02116  0.05201  0.01335  -0.06982  -0.93
6.372e+09  0.2277  -0.7975  -0.004275  0.02388  -0.01093  -0.01134  -0.4108  -0.8469
6.374e+09  -0.02541  -0.8988  -0.006914  -0.003214  -0.01056  0.003932  -0.6609  -0.685
6.375e+09  -0.3332  -0.8431  0.003313  -0.004355  0.03536  0.009296  -0.8572  -0.4197
6.376e+09  -0.6458  -0.6458  -0.04721  -0.03767  0.03948  0.002764  -0.9225  -0.1266
6.378e+09  -0.7754  -0.3867  -0.01355  0.01648  0.006884  0.05647  -0.9261  0.1867
6.379e+09  -0.9109  -0.08428  0.04355  0.00037  0.005752  0.02659  -0.7732  0.4823
6.38e+09  -0.8782  0.2023  0.04273  -0.0295  0.003876  0.0133  -0.5043  0.7928
6.381e+09  -0.7606  0.5178  -0.008755  0.0596  -0.01866  -0.03958  -0.2454  0.9076
6.382e+09  -0.5379  0.686  -0.03016  -0.03515  0.04269  0.002729  0.03825  0.8934
6.384e+09  -0.2508  0.863  0.01172  -0.01416  0.02113  -0.05459  0.3988  0.8723
6.385e+09  0.06159  0.8868  -0.004705  0.01432  0.00468  -0.009025  0.6093  0.681
6.386e+09  0.4  0.7559  0.0124  -0.04414  0.02168  0.04133  0.8897  0.4071
6.388e+09  0.65  0.6212  0.00902  -0.01514  0.04954  -0.02704  0.9368  0.1291
6.389e+09  0.8199  0.342  -0.02222  -0.04022  0.02681  -0.01387  0.8955  -0.187
6.39e+09  0.8887  0.09732  -0.01959  -0.0314  -0.01515  -0.02351  0.7711  -0.4674
6.391e+09  0.8724  -0.261  0.02918  0.003636  0.01084  -0.02468  0.5673  -0.7052
6.392e+09  0.6913  -0.5319  0.002659  -0.06608  0.008513  0.04645  0.2574  -0.8565
6.394e+09  0.4735  -0.7577  0.03062  0.02339  0.008743  -0.04548  0.01293  -0.946
6.395e+09  0.2097  -0.8145  0.004823  -0.007219  0.01449  -0.04836  -0.3273  -0.9079
6.396e+09  -0.06302  -0.8758  -0.01549  -0.01407  0.01415  0.008398  -0.5994  -0.6546
6.398e+09  -0.4441  -0.7987  -0.03281  -0.03109  -0.0136  0.02157  -0.8042  -0.4184
6.399e+09  -0.6579  -0.6207  0.002543  -0.001843  -0.022  -0.01002  -0.909  -0.1204
6.4e+09  -0.8111  -0.3217  0.06067  -0.007604  -0.007774  -0.01331  -0.8759  0.2335
6.401e+09  -0.8815  -0.03726  0.03753  0.02328  0.02779  0.006594  -0.7967  0.4705
6.402e+09  -0.8019  0.3161  -0.02158  -0.04518  0.005084  -0.006748  -0.5901  0.6898
6.404e+09  -0.689  0.5844  -0.008398  0.001526  -0.07566  -0.01368  -0.2879  0.8626
6.405e+09  -0.4894  0.7803  -0.009306  0.008678  0.04795  0.01703  -0.02322  0.9196
6.406e+09  -0.1599  0.8369  -0.01758  0.01885  -0.01059  0.01336  0.3301  0.8652
6.408e+09  0.1676  0.8462  -0.001491  0.01801  -0.01148  0.009525  0.576  0.7005
6.409e+09  0.4247  0.731  -0.001761  0.02775  0.01544  0.03073  0.7894  0.4666
6.41e+09  0.6227  0.6287  0.004529  -0.01546  0.01447  0.06863  0.8763  0.223
6.411e+09  0.822  0.2884  0.05792  0.04085  -0.01225  -0.03108  0.8872  -0.1123
6.412e+09  0.8753  0.05429  0.01817  -0.009855  -0.02161  0.02573  0.7841  -0.4527
6.414e+09  0.8499  -0.3533  0.006038  -0.01062  0.03321  0.03858  0.553  -0.6785
6.415e+09  0.6961  -0.5117  -0.02069  -0.0143  -0.003463  -0.03322  0.3573  -0.856
6.416e+09  0.4485  -0.7697  0.03083  0.01491  -0.05068  -0.001447  0.03181  -0.8664
6.418e+09  0.1575  -0.8597  0.00603  -0.003846  -0.006539  0.0001709  -0.2619  -0.8851
6.419e+09  -0.1479  -0.851  0.02737  0.003436  0.003805  0.04158  -0.5907  -0.6999
6.42e+09  -0.4317  -0.7708  0.004643  -0.01299  -0.02423  -0.03125  -0.7259  -0.4806
6.421e+09  -0.6439  -0.5813  0.0001089  -0.009476  -0.03504  0.0009537  -0.8379  -0.2192
6.422e+09  -0.8757  -0.3349  -0.03163  -0.05714  -0.02712  -0.007912  -0.8653  0.1218
6.424e+09  -0.8831  -0.02475  -0.0063  -0.007053  0.02248  -0.01324  -0.8017  0.4103
6.425e+09  -0.8074  0.2955  0.02743  -0.0002931  0.0116  -0.008292  -0.6073  0.6324
6.426e+09  -0.6507  0.5517  0.006215  -0.002642  0.03001  0.05144  -0.3632  0.7961
6.428e+09  -0.3944  0.7765  0.01878  -0.01031  0.002303  0.003784  -0.06811  0.8659
6.429e+09  -0.1279  0.8549  0.02969  -0.03635  -0.01893  0.0125  0.2186  0.7979
6.43e+09  0.1614  0.8325  0.01321  0.0431  -0.03389  0.03692  0.481  0.7048
6.431e+09  0.4448  0.7376  0.0009447  0.07406  0.01142  0.01112  0.6914  0.4775
6.432e+09  0.6906  0.5441  -0.008987  -0.03351  0.0256  -0.002274  0.8306  0.2232
6.434e+09  0.8177  0.2956  -0.004065  -0.03722  0.005353  0.0008506  0.8676  -0.08944
6.435e+09  0.9175  -0.006798  -0.01252  0.012  -0.03366  0.005138  0.7951  -0.3684
6.436e+09  0.7585  -0.3521  -0.006936  0.01536  -0.03046  -0.02985  0.5688  -0.6
6.438e+09  0.674  -0.5541  0.02112  -0.01755  0.01377  0.008156  0.3486  -0.8095
6.439e+09  0.438  -0.7881  -0.006653  -0.007162  -0.004535  -0.01399  0.07183  -0.8511
6.44e+09  0.1448  -0.9051  0.03808  0.01571  0.0357  0.02612  -0.212  -0.7789
6.441e+09  -0.1454  -0.8754  0.006988  0.009367  -0.0391  0.01898  -0.4438  -0.6756
6.442e+09  -0.5288  -0.7488  0.0212  0.003765  0.0649  -0.01326  -0.6868  -0.5055
6.444e+09  -0.7142  -0.5475  0.0395  -0.01185  0.001754  0.02673  -0.8113  -0.2206
6.445e+09  -0.8387  -0.2399  0.01358  0.01261  0.05944  -0.01995  -0.8083  0.08658
6.446e+09  -0.9248  0.02917  -0.01165  -0.03977  0.03914  -0.0341  -0.7519  0.3115
6.448e+09  -0.8298  0.2814  -0.01054  -0.02625  0.004933  -0.02837  -0.6162  0.6172
6.449e+09  -0.6509  0.5699  -0.02385  -0.01201  0.004802  -0.01989  -0.3884  0.7696
6.45e+09  -0.4013  0.7868  -0.008468  -0.03861  0.01967  0.03564  -0.08204  0.7933
6.451e+09  -0.09917  0.8587  0.004756  -0.02431  -0.008502  -0.002987  0.2408  0.7592
6.452e+09  0.1969  0.8356  -0.0008485  0.01219  0.02027  -0.02241  0.5341  0.6659
6.454e+09  0.4501  0.7574  -0.02247  -0.03783  -0.0007088  -0.0002557  0.6795  0.476
6.455e+09  0.7515  0.5188  0.001774  -0.03706  -0.01161  -0.03164  0.7853  0.2113
6.456e+09  0.8469  0.2878  -0.02063  0.05169  0.02663  0.02764  0.8031  -0.06697
6.458e+09  0.9108  -0.05728  -0.02019  -0.006318  -0.0286  0.02326  0.7659  -0.3477
6.459e+09  0.8313  -0.3665  -0.01996  0.01053  -0.03841  -0.007587  0.5885  -0.6795
6.46e+09  0.661  -0.6313  0.007404  -0.0202  -0.01043  0.02815  0.3198  -0.7443
6.461e+09  0.3804  -0.8309  -0.02709  -0.05384  0.005994  0.03811  0.09319  -0.7792
6.462e+09  0.07818  -0.8307  0.01764  -0.0445  -0.006622  0.01778  -0.2185  -0.7833
6.464e+09  -0.2424  -0.9246  0.008883  -0.0005185  0.01123  0.05993  -0.4667  -0.6352
6.465e+09  -0.4882  -0.7844  0.01843  0.01187  0.005979  0.007864  -0.7152  -0.4907
6.466e+09  -0.7119  -0.5366  -0.001826  -0.02939  0.01462  0.03258  -0.7569  -0.1965
6.468e+09  -0.8103  -0.2803  0.01361  0.03472  -0.01557  -0.01322  -0.7865  0.09139
6.469e+09  -0.922  0.02347  -0.004443  -0.006509  0.0212  -0.01459  -0.7192  0.36
6.47e+09  -0.7991  0.3363  -0.02571  0.002597  -0.04351  0.005032  -0.5537  0.5669
6.471e+09  -0.6455  0.6623  -0.01055  -0.02186  0.0006142  0.02681  -0.3845  0.7299
6.472e+09  -0.4048  0.8064  -0.002563  -0.004944  0.02327  0.01246  -0.04304  0.8055
6.474e+09  -0.07763  0.9015  0.002097  -0.02686  -0.03384  0.01136  0.1893  0.7368
6.475e+09  0.2325  0.8691  0.01954  0.03158  -0.005974  -0.03995  0.4631  0.6513
6.476e+09  0.5025  0.7198  0.01185  0.006159  0.005105  -0.01879  0.6185  0.4552
6.478e+09  0.7478  0.5281  0.01597  0.01323  0.03827  0.003809  0.7467  0.1932
6.479e+09  0.938  0.2478  0.01658  -0.0048  0.004597  -0.02702  0.7862  -0.04199
6.48e+09  0.9171  -0.04571  -0.006496  -0.02635  0.02359  -0.01436  0.6933  -0.3339
6.481e+09  0.8517  -0.3813  0.01704  -0.02149  -0.04516  0.01137  0.5559  -0.5345
6.482e+09  0.6713  -0.6474  0.01094  0.02362  -0.02559  0.01524  0.3244  -0.7053
6.484e+09  0.374  -0.8285  0.03196  -0.03787  -0.003761  0.0008841  0.03966  -0.7405
6.485e+09  0.09374  -0.9107  -0.009536  0.02713  0.005593  -0.04569  -0.1782  -0.7225
6.486e+09  -0.2452  -0.9209  0.00905  0.0256  0.005218  0.03481  -0.4852  -0.6347
6.488e+09  -0.5607  -0.7549  0.0201  -0.02671  -0.01494  -0.03103  -0.6697  -0.4158
6.489e+09  -0.7806  -0.543  0.02384  -0.003105  -0.0361  -0.02556  -0.7535  -0.188
6.49e+09  -0.8747  -0.2322  -0.03622  0.009776  0.006769  -0.01042  -0.7717  0.07706
6.491e+09  -0.8832  0.1072  -0.03331  -0.01119  -4.254e-05  -0.01174  -0.6832  0.346
6.492e+09  -0.8232  0.4356  -0.01527  -0.008484  0.04385  -0.01909  -0.5295  0.5604
6.494e+09  -0.6411  0.7043  0.0629  -0.0275  -0.03285  0.004612  -0.3146  0.7081
6.495e+09  -0.4126  0.8665  -0.002623  -0.01652  0.04005  0.01344  -0.03348  0.7622
6.496e+09  -0.03844  0.9502  -0.0184  0.01258  -0.007865  -0.00245  0.1925  0.7341
6.498e+09  0.2587  0.8888  0.0237  -0.01483  0.02811  -0.03504  0.4754  0.5711
6.499e+09  0.5445  0.7905  -0.0133  -0.006081  0.02275  0.007324  0.6172  0.4193
6.5e+09  0.8194  0.4823  0.01701  0.01082  0.01316  0.03282  0.7351  0.1708
6.501e+09  0.9631  0.1948  -0.01993  0.01644  0.02396  0.05102  0.7879  -0.1092
6.502e+09  0.9389  -0.1172  -0.009492  -0.009323  -0.001699  0.05494  0.6839  -0.3412
6.504e+09  0.8053  -0.4263  0.01379  0.008974  0.004948  -0.007105  0.4992  -0.5978
6.505e+09  0.6516  -0.7209  0.01111  -0.003791  -0.00363  0.01854  0.3075  -0.7115
6.506e+09  0.3628  -0.867  -0.003708  -0.02076  -0.0457  -0.004889  0.02337  -0.7335
6.508e+09  0.02643  -0.9676  -0.002134  -0.03616  -0.003469  -0.01261  -0.2436  -0.7347
6.509e+09  -0.3938  -0.8974  -0.004375  -0.01049  0.01595  -0.001938  -0.4744  -0.5821
6.51e+09  -0.5867  -0.7436  -0.03881  -0.02852  -0.01103  0.04887  -0.6653  -0.3797
6.511e+09  -0.8664  -0.5071  0.002604  0.03699  0.03104  -0.01281  -0.741  -0.1351
6.512e+09  -0.9543  -0.179  0.03581  -0.02621  0.04436  -0.02201  -0.7498  0.1394
6.514e+09  -0.9302  0.1561  0.01326  0.00554  -0.006185  0.003148  -0.6498  0.3407
6.515e+09  -0.8494  0.4842  -0.002116  0.004386  -0.02184  -0.004314  -0.4771  0.608
6.516e+09  -0.6232  0.7374  -0.0009443  -0.0263  0.004807  -0.002201  -0.2475  0.6817
6.518e+09  -0.2841  0.8891  0.01312  0.02895  -0.02107  0.001534  -0.006569  0.7567
6.519e+09  -0.03809  0.9712  0.002553  0.0236  0.003872  -0.02968  0.2796  0.6945
6.52e+09  0.3349  0.8726  -0.03435  -0.01403  -0.0123  0.006382  0.4814  0.5867
6.521e+09  0.684  0.7541  0.007456  0.01636  0.052  0.00767  0.6651  0.3288
6.522e+09  0.9032  0.4056  0.01614  -0.02673  -0.01971  0.02553  0.7244  0.1125
6.524e+09  0.9306  0.1043  -0.0003669  0.006857  0.002672  0.01838  0.701  -0.1395
6.525e+09  0.9361  -0.2236  0.02205  -0.006957  -0.011  -0.01216  0.6084  -0.4278
6.526e+09  0.8276  -0.5766  0.01825  -0.00737  -0.01086  0.01683  0.4005  -0.5849
6.528e+09  0.5235  -0.7842  -0.002319  -0.02651  0.007655  -0.01054  0.1789  -0.6698
6.529e+09  0.2938  -0.9592  -0.001489  0.006458  0.031  -0.01641  -0.01075  -0.6736
6.53e+09  -0.08969  -1  -0.04897  -0.02403  0.02258  -0.01495  -0.325  -0.671
6.531e+09  -0.4188  -0.8967  0.01571  -0.006892  -0.01214  -0.02081  -0.4546  -0.4571
6.532e+09  -0.7088  -0.6214  -0.03263  0.01983  -0.01049  0.001411  -0.5987  -0.2888
6.534e+09  -0.8705  -0.3728  0.0086  0.009188  0.004211  -0.01298  -0.628  -0.1065
6.535e+09  -0.964  -0.09501  0.002174  0.0158  0.02523  -0.01555  -0.6261  0.08969
6.536e+09  -0.9109  0.2692  0.01214  -0.003099  -0.01893  -0.01271  -0.5723  0.3021
6.538e+09  -0.7994  0.625  0.008067  0.00191  0.006089  0.005483  -0.4552  0.4525
6.539e+09  -0.4958  0.8534  -0.02474  0.04207  0.001569  -0.002654  -0.3078  0.6286
6.54e+09  -0.176  0.9436  0.01491  0.005088  -0.0165  -0.03507  -0.06366  0.6915
6.541e+09  0.1951  0.9446  0.01529  -0.003625  0.008204  0.03279  0.1831  0.6625
6.542e+09  0.4676  0.8327  3.844e-05  -0.02047  0.02937  0.01426  0.3788  0.5908
6.544e+09  0.7537  0.5797  -0.01401  0.01977  0.00312  0.005379  0.6338  0.3894
6.545e+09  0.9079  0.3216  -0.01353  -0.004358  -0.03386  0.01239  0.6801  0.1534
6.546e+09  0.9263  -0.0454  -0.01243  -0.03772  0.006811  -0.01757  0.7161  -0.0766
6.548e+09  0.868  -0.373  -0.02523  -0.04629  -0.04181  0.04199  0.7039  -0.336
6.549e+09  0.7005  -0.6301  -0.007032  -0.004278  -0.04281  0.02664  0.5202  -0.5438
6.55e+09  0.3604  -0.8887  0.005833  -0.02397  0.008313  -0.002798  0.2693  -0.674
