# Hz S RI R 50
6.25e+09  -0.5711  0.6603  -0.02261  -0.04378  -0.043  -0.01122  0.1303  0.4806
6.251e+09  -0.3619  0.7637  -0.004886  0.009286  0.01864  -0.03958  0.3317  0.4106
6.252e+09  -0.07995  0.829  -0.002724  -0.006207  -0.01403  0.01014  0.5359  0.2103
6.254e+09  0.2281  0.8273  0.05417  0.007633  0.0321  -0.005107  0.5959  -0.002124
6.255e+09  0.4398  0.7353  0.03608  0.03938  -0.06483  0.03954  0.5864  -0.2138
6.256e+09  0.6931  0.5171  -0.000527  0.00238  0.02604  0.01832  0.4688  -0.4493
6.258e+09  0.772  0.2174  -0.005365  0.008815  0.02524  0.008214  0.2671  -0.6056
6.259e+09  0.7952  -0.09584  0.0001746  0.01096  -0.02823  -0.002363  0.05543  -0.6967
6.26e+09  0.7956  -0.3847  0.01389  0.001006  0.02155  0.02638  -0.175  -0.6919
6.261e+09  0.5581  -0.5769  0.02525  -0.01452  -0.07022  -0.02935  -0.4695  -0.5239
6.262e+09  0.3898  -0.7327  0.001329  0.002642  -0.0219  0.001883  -0.6142  -0.3482
6.264e+09  -0.03841  -0.8534  -0.03064  -0.003712  0.0008398  -0.007426  -0.7295  -0.08833
6.265e+09  -0.2241  -0.8189  0.005787  -0.01919  -0.02465  0.006608  -0.7041  0.1476
6.266e+09  -0.5506  -0.6618  0.02087  -0.0267  0.007656  0.0036  -0.6462  0.3872
6.268e+09  -0.6594  -0.4518  0.01184  0.002889  -0.003347  -0.04457  -0.4322  0.5806
6.269e+09  -0.7843  -0.1843  0.02927  -0.005606  0.001046  -0.02904  -0.1946  0.7048
6.27e+09  -0.8391  0.03959  -0.02635  -0.01714  0.002391  0.007517  0.05735  0.7107
6.271e+09  -0.7453  0.3861  -0.02478  0.005476  -0.01723  0.002699  0.3163  0.6405
6.272e+09  -0.581  0.595  -0.01718  0.01529  0.004387  -0.0146  0.5597  0.5254
6.274e+09  -0.3836  0.681  0.0009368  0.01419  -0.02852  0.02678  0.6836  0.3178
6.275e+09  -0.03548  0.8732  -0.004672  -0.01499  0.03274  -0.01385  0.7533  0.04387
6.276e+09  0.1936  0.7678  0.03904  -0.008047  -0.02581  -0.002157  0.7177  -0.2287
6.278e+09  0.4777  0.6411  0.002167  -0.002524  -0.009939  0.01144  0.6205  -0.4643
6.279e+09  0.65  0.4076  0.008103  -0.004228  0.004526  -0.06511  0.4025  -0.6586
6.28e+09  0.829  0.157  -0.005494  -0.004836  -0.001502  -0.02677  0.1473  -0.7544
6.281e+09  0.8115  -0.02901  -0.008648  -0.0005296  -0.02602  0.003532  -0.09385  -0.7901
6.282e+09  0.7666  -0.3469  0.007814  -0.0189  0.04108  0.05455  -0.3634  -0.6868
6.284e+09  0.5314  -0.6241  0.0122  0.008074  -0.01065  -0.05605  -0.5766  -0.4903
6.285e+09  0.2932  -0.7502  0.02021  -0.03793  0.01428  -0.06306  -0.7547  -0.2806
6.286e+09  0.04594  -0.855  0.01641  0.003406  -0.00887  0.06631  -0.779  0.001649
6.288e+09  -0.2523  -0.8303  0.01747  0.006333  0.005126  -0.01728  -0.7463  0.2654
6.289e+09  -0.5245  -0.65  0.003917  0.02964  -0.03062  -0.005814  -0.6126  0.5039
6.29e+09  -0.7396  -0.4498  0.01213  0.005574  0.01042  0.01  -0.4084  0.6755
6.291e+09  -0.8252  -0.1918  0.005165  0.003188  0.02423  0.001833  -0.1327  0.7803
6.292e+09  -0.8861  0.07388  0.00521  0.007655  -0.0274  -0.01463  0.1617  0.8075
6.294e+09  -0.7355  0.3865  0.0188  0.002181  -0.02323  0.01116  0.3912  0.7034
6.295e+09  -0.5549  0.5935  0.009734  -0.007514  0.0155  0.01736  0.6307  0.5367
6.296e+09  -0.2734  0.791  0.01541  -0.02236  0.01896  0.0417  0.7721  0.2876
6.298e+09  -0.03242  0.8006  -0.02065  0.004648  -0.04152  -0.0006967  0.8213  0.006227
6.299e+09  0.2897  0.7707  0.00974  -0.00558  0.0324  0.04611  0.7864  -0.2648
6.3e+09  0.5255  0.6254  0.01216  0.00583  -0.00128  0.005658  0.6647  -0.5303
6.301e+09  0.7197  0.452  -0.0007875  -0.009997  -0.0218  0.05206  0.4348  -0.7219
6.302e+09  0.8478  0.198  0.002027  0.0235  -0.07085  -0.021  0.1369  -0.821
6.304e+09  0.8692  -0.1085  0.02869  -0.001336  -0.016  -0.07489  -0.1479  -0.8336
6.305e+09  0.6883  -0.4196  -0.002806  -0.04797  0.009834  -0.01707  -0.4041  -0.733
6.306e+09  0.4753  -0.6113  -0.007994  0.006229  -0.02127  -0.01888  -0.6364  -0.5238
6.308e+09  0.3114  -0.7422  0.01501  0.01964  -0.05913  -0.01587  -0.8096  -0.3148
6.309e+09  -0.05543  -0.814  -0.002228  -0.008609  0.03891  0.008914  -0.8573  -0.02441
6.31e+09  -0.3019  -0.7821  -0.0101  -0.01628  0.0321  -0.0712  -0.8044  0.2872
6.311e+09  -0.5144  -0.6207  0.007919  0.01844  -0.03393  -0.007242  -0.6742  0.5338
6.312e+09  -0.7207  -0.4191  -0.01639  0.0111  -0.007237  -0.0001397  -0.437  0.7664
6.314e+09  -0.82  -0.09587  0.02091  -0.01182  -0.01559  0.008448  -0.1742  0.8826
6.315e+09  -0.7792  0.2112  -0.03179  0.04275  0.008186  0.003078  0.1459  0.8712
6.316e+09  -0.6811  0.4093  0.03481  0.009851  0.01544  -0.03253  0.4564  0.7673
6.318e+09  -0.472  0.698  -0.005454  -0.02331  -0.02632  -0.03011  0.6756  0.5688
6.319e+09  -0.2059  0.811  -0.003331  0.003698  0.02054  0.02376  0.8284  0.3276
6.32e+09  0.0857  0.8756  0.02328  0.007112  -0.05208  0.05584  0.8948  -0.005656
6.321e+09  0.3755  0.7627  -0.02691  0.0104  -0.04681  -0.05241  0.8512  -0.252
6.322e+09  0.5757  0.5746  0.005568  0.00214  -0.03357  0.03054  0.7228  -0.5857
6.324e+09  0.7559  0.3784  0.0009795  -0.001353  -0.02136  -0.004832  0.4844  -0.7815
6.325e+09  0.8486  0.0877  0.004343  0.009874  0.01331  -0.01227  0.1756  -0.8806
6.326e+09  0.8122  -0.246  0.03267  0.004801  0.008704  -0.01939  -0.149  -0.8593
6.328e+09  0.6964  -0.5413  -0.01772  -0.007808  0.01406  0.01528  -0.4296  -0.7868
6.329e+09  0.4943  -0.6984  0.01115  0.01138  0.04007  0.05179  -0.6627  -0.5837
6.33e+09  0.2064  -0.8238  -0.002077  0.01276  0.02967  0.0158  -0.8371  -0.3371
6.331e+09  -0.1228  -0.8673  0.02937  -0.02656  0.03492  -0.02258  -0.8979  -0.06131
6.332e+09  -0.3204  -0.7799  0.01919  0.03823  -0.02348  -0.009885  -0.8169  0.2972
6.334e+09  -0.585  -0.5639  -0.01943  0.01609  0.01698  -0.000414  -0.7206  0.5676
6.335e+09  -0.77  -0.3597  0.01684  -0.01267  0.009768  -0.01944  -0.5119  0.7568
6.336e+09  -0.8988  -0.03136  -0.01055  0.04095  0.02038  0.00588  -0.2042  0.88
6.338e+09  -0.8178  0.2981  0.01122  0.009462  0.03195  -0.03659  0.1345  0.91
6.339e+09  -0.7117  0.5456  0.02843  0.03039  -0.04541  -0.03403  0.4267  0.8199
6.34e+09  -0.4423  0.7508  -0.01586  0.01234  0.03988  -0.04685  0.6783  0.6306
6.341e+09  -0.1458  0.853  -0.007397  0.01898  -0.03398  -0.004452  0.8557  0.3363
6.342e+09  0.1568  0.8773  0.002591  0.02326  -0.05699  -0.02016  0.9142  0.03282
6.344e+09  0.4724  0.7844  0.02069  -3.821e-06  0.006996  -0.02637  0.8357  -0.2718
6.345e+09  0.7085  0.5722  -0.0002019  -0.002369  -0.006441  0.001559  0.7238  -0.5575
6.346e+09  0.8418  0.257  0.005487  0.01581  0.01231  0.0273  0.5329  -0.8103
6.348e+09  0.8784  -0.004891  -0.01146  0.02698  0.02143  -0.01467  0.2254  -0.8837
6.349e+09  0.8436  -0.305  0.007436  0.02505  0.01185  -0.009905  -0.1137  -0.9319
6.35e+09  0.5945  -0.5986  0.03036  0.02614  -0.02715  -0.02359  -0.3952  -0.81
6.351e+09  0.4118  -0.7952  -0.007026  0.0003566  0.003679  0.03518  -0.6602  -0.6422
6.352e+09  0.1001  -0.8944  -0.005239  -0.000244  -0.004676  0.008374  -0.8618  -0.3829
6.354e+09  -0.1941  -0.8441  -0.04356  -0.003419  0.01888  0.02089  -0.9221  -0.06435
6.355e+09  -0.5021  -0.7342  0.01893  0.02264  0.02674  0.02525  -0.8719  0.2384
6.356e+09  -0.6413  -0.499  0.03226  0.01394  -0.05644  -0.02346  -0.7457  0.557
6.358e+09  -0.8438  -0.2252  -5.878e-05  0.01962  0.01647  0.005935  -0.555  0.7826
6.359e+09  -0.8706  0.1105  0.01519  -0.00873  -0.01729  0.03107  -0.1963  0.894
6.36e+09  -0.8136  0.416  0.01456  -0.01253  0.01738  0.009092  0.1004  0.9894
6.361e+09  -0.5902  0.6207  -0.0002784  0.01521  -0.03148  -0.001552  0.3695  0.8326
6.362e+09  -0.3543  0.8171  -0.02549  0.02243  0.02876  0.01175  0.6452  0.6682
6.364e+09  -0.07409  0.8738  -0.01039  0.02101  0.05456  0.0116  0.8566  0.3924
6.365e+09  0.275  0.8512  0.04312  -0.006721  -0.05017  0.009502  0.9432  0.06595
6.366e+09  0.544  0.7361  -0.009439  0.01964  0.0189  0.005813  0.9183  -0.2355
6.368e+09  0.7814  0.4463  -0.001702  -0.02732  0.01447  0.007809  0.7813  -0.529
6.369e+09  0.8704  0.2192  -0.03677  0.01012  -0.02074  -0.04013  0.5358  -0.7561
6.37e+09  0.9312  -0.1279  0.006829  0.0004234  -0.01511  0.05304  0.2626  -0.9521
6.371e+09  0.7819  -0.4701  -0.01368  0.01279  -0.04411  0.03976  -0.09139  -0.9865
6.372e+09  0.5378  -0.6897  0.01945  -0.0169  -0.007195  0.0294  -0.4164  -0.8708
6.374e+09  0.2756  -0.8525  -0.01548  0.01075  0.001906  -0.01087  -0.6546  -0.7101
6.375e+09  -0.01208  -0.8465  0.01566  0.02807  -0.02029  -0.03599  -0.8725  -0.3926
6.376e+09  -0.3258  -0.8262  -0.0504  -0.0012  0.01359  -0.02331  -0.9093  -0.05475
6.378e+09  -0.6081  -0.657  0.01405  0.01465  -0.03311  -0.008689  -0.957  0.2683
6.379e+09  -0.822  -0.5064  -0.05123  -0.01084  -0.009065  0.01218  -0.7803  0.5097
6.38e+09  -0.8762  -0.1168  -0.01382  0.008005  -0.0107  0.03571  -0.5172  0.7395
6.381e+09  -0.8796  0.1958  0.02274  -0.03395  -0.01646  0.01203  -0.2713  0.9192
6.382e+09  -0.7463  0.51  -0.02097  0.001722  -0.00493  -0.02453  0.02643  0.8899
6.384e+09  -0.5506  0.6822  0.02562  -0.02603  0.06252  0.005279  0.3957  0.8152
6.385e+09  -0.257  0.8851  -0.01582  -0.01189  0.008813  -0.01274  0.6301  0.6646
6.386e+09  0.07579  0.8819  0.008891  0.01119  -0.001523  0.005681  0.8312  0.4213
6.388e+09  0.3596  0.7492  -0.0202  0.03511  -0.01126  0.006939  0.9432  0.1224
6.389e+09  0.6254  0.697  0.01257  -0.01299  0.003365  -0.007388  0.894  -0.1813
6.39e+09  0.8002  0.3901  -0.02943  -0.02194  0.009546  -0.01803  0.7548  -0.4736
6.391e+09  0.8677  0.08392  0.0205  -0.02085  -0.007381  0.06457  0.5673  -0.7055
6.392e+09  0.8978  -0.1966  -0.004543  0.01098  0.03859  -0.04197  0.3055  -0.8738
6.394e+09  0.7326  -0.4827  -0.01258  0.02901  -0.008997  0.00947  -0.02625  -0.9071
6.395e+09  0.4735  -0.7305  -0.03884  -0.004647  0.04498  0.01755  -0.3178  -0.8487
6.396e+09  0.2378  -0.8613  0.004392  0.005327  -0.04282  -0.04192  -0.5974  -0.6221
6.398e+09  -0.05405  -0.8993  -0.01816  -0.007766  0.02605  -0.01791  -0.8009  -0.4245
6.399e+09  -0.3976  -0.8012  0.04152  0.008576  -0.006713  -0.02744  -0.8513  -0.1385
6.4e+09  -0.6213  -0.566  0.008457  0.001929  0.04398  -0.001857  -0.8919  0.159
6.401e+09  -0.7892  -0.3187  -0.008193  -0.01181  -0.0004595  0.005677  -0.744  0.4885
6.402e+09  -0.8779  0.009052  0.04351  0.01938  0.04456  -0.03039  -0.6275  0.7028
6.404e+09  -0.8465  0.2736  -0.02955  0.003886  -0.01826  -0.0342  -0.3314  0.8571
6.405e+09  -0.654  0.5477  -0.006676  -0.009161  0.01713  0.05401  0.05058  0.9216
6.406e+09  -0.4646  0.7643  0.01266  -0.01152  0.007679  -0.01529  0.3159  0.8927
6.408e+09  -0.156  0.8124  0.02531  -0.01706  -0.04138  -0.0296  0.5851  0.7023
6.409e+09  0.1469  0.8834  0.01776  0.006109  -0.001105  -0.01492  0.8218  0.4436
6.41e+09  0.4462  0.7311  0.02119  -0.006921  -0.007264  -0.005197  0.8956  0.1823
6.411e+09  0.6356  0.5818  0.008616  -0.01922  -0.007623  -0.03507  0.9171  -0.09565
6.412e+09  0.8269  0.3583  -0.01634  0.01241  0.01992  0.01842  0.803  -0.4882
6.414e+09  0.9313  0.02857  -0.01298  0.04885  0.02226  0.01216  0.593  -0.7197
6.415e+09  0.8368  -0.2858  -0.02261  -0.04291  -0.01148  -0.004138  0.2728  -0.7916
6.416e+09  0.6266  -0.5257  -0.004664  0.01769  0.02422  -0.03083  0.04138  -0.8452
6.418e+09  0.4007  -0.753  0.03045  0.004013  -0.0206  -0.01748  -0.2718  -0.8483
6.419e+09  0.1356  -0.8676  -0.00818  0.0006614  0.04679  0.007411  -0.5487  -0.7428
6.42e+09  -0.1212  -0.8536  -0.009194  -0.0002871  -0.006627  0.01929  -0.7408  -0.5107
6.421e+09  -0.4501  -0.7591  -0.01878  0.01412  0.006546  0.001362  -0.8415  -0.1932
6.422e+09  -0.7092  -0.5826  0.0109  -0.01364  0.04858  0.03763  -0.8388  0.1057
6.424e+09  -0.8677  -0.2782  0.01313  0.03365  -0.06914  0.02973  -0.796  0.4288
6.425e+09  -0.8727  0.02535  -0.005741  -0.05741  0.002972  -0.00988  -0.591  0.6402
6.426e+09  -0.8425  0.3238  0.01524  -0.04397  -0.0004022  -0.01944  -0.3492  0.7748
6.428e+09  -0.6274  0.5847  -0.0194  0.002286  -0.01622  -0.007071  -0.04212  0.8546
6.429e+09  -0.364  0.7151  -0.04237  -0.01686  -0.01876  -0.01192  0.2241  0.8536
6.43e+09  -0.08887  0.8701  0.00365  0.03042  -0.02605  0.02098  0.5335  0.6804
6.431e+09  0.1477  0.8483  -0.03854  -0.002291  0.0174  -0.02145  0.7349  0.491
6.432e+09  0.4733  0.6827  0.003746  0.01945  0.005137  0.01648  0.8279  0.1953
6.434e+09  0.7059  0.5319  0.01281  0.02241  0.04349  -0.01358  0.8259  -0.09882
6.435e+09  0.8673  0.3225  -0.03305  -0.03255  -0.05528  0.0237  0.8153  -0.3863
6.436e+09  0.888  -0.07564  0.02505  0.05273  0.008616  0.0172  0.6133  -0.6198
6.438e+09  0.8376  -0.2974  -0.03554  0.02336  0.0114  0.02224  0.3691  -0.8026
6.439e+09  0.6667  -0.5939  -0.01742  0.02042  0.004149  0.008776  0.07045  -0.8275
6.44e+09  0.4323  -0.7544  -0.001525  0.004218  -0.0202  -0.01122  -0.1988  -0.8166
6.441e+09  0.07644  -0.8786  -0.007198  -0.02345  -0.03145  -0.006026  -0.4939  -0.7194
6.442e+09  -0.2381  -0.9226  0.01296  -0.02382  -0.003537  -0.06404  -0.7319  -0.4997
6.444e+09  -0.4648  -0.7468  -0.02265  -0.0006796  -0.001302  -0.005217  -0.8316  -0.1754
6.445e+09  -0.6726  -0.5213  0.01175  -0.03174  0.01537  -0.03243  -0.8386  0.0553
6.446e+09  -0.8254  -0.3035  -0.01001  -0.03661  0.001424  -0.04067  -0.7671  0.3084
6.448e+09  -0.8703  0.0409  0.004984  0.02167  0.04397  0.01135  -0.5794  0.5604
6.449e+09  -0.8343  0.3811  -0.02874  0.02798  -0.05057  -0.03646  -0.3922  0.7121
6.45e+09  -0.6158  0.592  0.03721  -0.008727  -0.02065  0.03264  -0.07277  0.8416
6.451e+09  -0.3444  0.7895  0.0009829  -0.02389  0.03406  0.01965  0.1932  0.8253
6.452e+09  -0.07892  0.8584  -0.03068  -0.001146  0.00244  -0.03334  0.4648  0.6652
6.454e+09  0.1843  0.862  0.03599  0.0002536  -0.008084  -0.008709  0.6796  0.4227
6.455e+09  0.4777  0.7066  0.01601  0.02498  -0.01776  0.03124  0.7939  0.2257
6.456e+09  0.6935  0.5043  0.02369  0.02217  -0.02151  0.004962  0.8303  -0.08715
6.458e+09  0.8176  0.247  -0.03867  0.004752  -0.01896  -0.01938  0.7456  -0.3418
6.459e+09  0.8879  -0.04977  -0.01091  0.007062  -0.02727  0.03586  0.6216  -0.5454
6.46e+09  0.8416  -0.3235  0.01158  -0.01158  -0.06117  0.02178  0.3373  -0.7075
6.461e+09  0.6606  -0.6047  0.001155  0.00542  -0.01039  -0.009474  0.06215  -0.8022
6.462e+09  0.4  -0.7623  0.008591  -0.007526  -0.007792  0.008473  -0.2415  -0.7768
6.464e+09  0.06243  -0.8294  0.01255  0.02693  -0.01191  -0.006628  -0.506  -0.6824
6.465e+09  -0.2553  -0.8665  -0.03317  -0.01988  -0.04041  0.005209  -0.6327  -0.4284
6.466e+09  -0.4387  -0.7298  0.001712  -0.0009472  0.09164  0.05241  -0.7859  -0.1804
6.468e+09  -0.7345  -0.5239  -0.02999  -0.03407  0.0004672  -0.03563  -0.8118  0.07947
6.469e+09  -0.8963  -0.2378  -0.00625  0.007723  0.009831  0.02474  -0.7026  0.3673
6.47e+09  -0.8655  0.1199  0.00454  0.03077  0.02812  -0.02926  -0.5364  0.599
6.471e+09  -0.807  0.3899  -0.01267  0.02035  0.05792  -0.01261  -0.3186  0.7423
6.472e+09  -0.6361  0.6397  -0.01264  0.0008086  0.03606  0.07126  -0.08158  0.7486
6.474e+09  -0.3852  0.8081  0.03761  -0.02101  -0.003641  -0.006962  0.2044  0.7584
6.475e+09  -0.09736  0.8966  0.01894  0.009475  0.06711  0.05302  0.4527  0.6615
6.476e+09  0.1617  0.8912  0.009577  -0.01595  -0.03998  0.0147  0.6368  0.4733
6.478e+09  0.5225  0.6896  -0.05295  -0.003305  -0.01391  -0.035  0.7711  0.1958
6.479e+09  0.757  0.5494  0.0005858  0.0006494  -0.0174  0.001353  0.7819  -0.07105
6.48e+09  0.8713  0.204  -0.01507  0.01723  -0.02063  -0.02365  0.7429  -0.3301
6.481e+09  0.8813  -0.07795  0.05574  0.009073  0.03373  0.02118  0.5823  -0.5636
6.482e+09  0.7801  -0.3629  0.03261  -0.007563  0.009017  -0.05061  0.3322  -0.7411
6.484e+09  0.6434  -0.6072  0.01222  0.002569  -0.01921  -0.01872  0.04607  -0.8075
6.485e+09  0.3529  -0.8228  0.0282  -0.006161  0.06565  -0.0274  -0.1861  -0.7588
6.486e+09  0.1208  -0.9416  -0.0328  0.03126  -0.02525  -0.02502  -0.4136  -0.6362
6.488e+09  -0.2365  -0.8428  -0.007958  -0.02268  0.00148  -0.02371  -0.6582  -0.3946
6.489e+09  -0.5122  -0.7486  -0.01393  0.0201  -0.02033  0.02645  -0.7238  -0.1976
6.49e+09  -0.7494  -0.5367  -0.05763  -0.02175  -0.03845  0.01975  -0.7108  0.06176
6.491e+09  -0.8678  -0.2614  -0.01193  -0.01802  0.01497  -0.03334  -0.7044  0.3434
6.492e+09  -0.8903  0.09533  -0.002739  0.03654  0.009418  0.07729  -0.5286  0.4969
6.494e+09  -0.8128  0.35  -0.01627  0.02033  -0.01713  0.01115  -0.2967  0.7044
6.495e+09  -0.5874  0.6181  -0.02038  0.03549  0.02334  -0.01618  -0.09067  0.776
6.496e+09  -0.3672  0.822  0.04655  0.0236  0.01785  0.003744  0.2303  0.7022
6.498e+09  -0.06237  0.8733  0.006621  0.0002112  0.02454  -0.04636  0.4527  0.6203
6.499e+09  0.2573  0.8957  0.0107  -0.02314  -0.006088  -0.05363  0.6706  0.3914
6.5e+09  0.5067  0.7846  0.03026  0.02421  0.00213  -0.0331  0.7663  0.1742
6.501e+09  0.7737  0.4785  0.02442  0.04214  0.05448  0.001547  0.7668  -0.07808
6.502e+09  0.9249  0.1519  0.007469  0.02237  -0.02149  0.000343  0.6439  -0.3675
6.504e+09  0.9159  -0.1475  0.03766  0.0008482  0.02488  0.006373  0.4792  -0.5344
6.505e+09  0.837  -0.3999  0.0117  -0.02568  -0.01571  -0.01236  0.2426  -0.7213
6.506e+09  0.6044  -0.6721  -0.0177  0.02336  -0.0977  0.0245  0.0343  -0.7352
6.508e+09  0.3344  -0.8423  0.013  -0.00132  -0.04272  -0.03116  -0.2596  -0.7286
6.509e+09  0.07009  -0.8895  0.03032  -0.03742  0.04315  -0.03287  -0.4385  -0.5344
6.51e+09  -0.2794  -0.9102  -0.03098  -0.0137  0.01381  0.03956  -0.6592  -0.3731
6.511e+09  -0.5474  -0.7138  -0.01829  -0.002838  -0.009335  0.06176  -0.7514  -0.1226
6.512e+09  -0.8013  -0.4532  -0.01828  0.006099  -0.01652  0.02214  -0.7231  0.1038
6.514e+09  -0.9125  -0.1659  -0.01412  0.002056  0.02023  0.01792  -0.6606  0.3688
6.515e+09  -0.9422  0.1056  -0.01171  0.01472  -0.04485  -0.003212  -0.4862  0.5747
6.516e+09  -0.7938  0.3922  0.01378  -0.03168  -0.004028  -0.01289  -0.2405  0.6809
6.518e+09  -0.612  0.668  -0.003265  0.003351  -0.004715  0.01069  0.02528  0.7565
6.519e+09  -0.3727  0.8786  0.01053  -0.008746  -0.01482  -0.03514  0.2647  0.707
6.52e+09  -0.02782  0.9697  0.001131  0.01487  -0.009094  0.007192  0.5142  0.5788
6.521e+09  0.3231  0.8895  0.0008711  -0.0007735  0.002034  -0.0319  0.674  0.3343
6.522e+09  0.5667  0.7715  0.006585  0.01935  0.0218  0.0684  0.7234  0.09833
6.524e+09  0.7832  0.4871  0.01165  0.003044  -0.01122  -0.03492  0.7229  -0.1802
6.525e+09  1.005  0.17  0.03278  0.00499  -0.02123  -0.0412  0.5905  -0.412
6.526e+09  0.9456  -0.2178  0.001009  -0.005976  -0.03928  -0.04707  0.4035  -0.6033
6.528e+09  0.8151  -0.5179  -0.02406  0.04368  0.02128  0.02237  0.1462  -0.6679
6.529e+09  0.5648  -0.7734  -0.02008  -0.008368  -0.00381  0.01514  -0.05186  -0.7166
6.53e+09  0.3044  -0.9217  -0.02956  -0.01439  -0.04022  -0.02928  -0.273  -0.631
6.531e+09  -0.01903  -0.9506  -0.01007  -0.01466  -0.04884  0.001723  -0.4877  -0.4874
6.532e+09  -0.3388  -0.8615  0.01939  0.02214  -0.01435  -0.02056  -0.5685  -0.3242
6.534e+09  -0.6891  -0.708  -0.0005899  -0.01806  0.01048  0.0379  -0.6137  -0.09868
6.535e+09  -0.9028  -0.4421  0.03149  -0.003175  0.02362  0.003304  -0.6355  0.1231
6.536e+09  -0.9684  -0.1155  -0.03739  -0.004364  0.02973  -0.001462  -0.5484  0.2808
6.538e+09  -0.9549  0.2238  0.004022  0.01283  -0.006342  -0.003977  -0.4054  0.4775
6.539e+09  -0.8019  0.5248  0.009837  0.0075  -0.008217  -0.001666  -0.2684  0.5996
6.54e+09  -0.5297  0.8416  0.01043  0.01156  0.008908  0.008032  -0.04204  0.7186
6.541e+09  -0.2029  0.9487  -0.002115  0.009522  -0.02477  0.02005  0.1682  0.6596
6.542e+09  0.07249  0.9717  -0.02104  0.01599  -0.006694  0.04489  0.41  0.5483
6.544e+09  0.4103  0.8826  -0.005485  -0.02346  0.01483  0.03081  0.5897  0.3908
6.545e+09  0.7756  0.67  0.02255  0.03145  -0.003007  0.01788  0.7307  0.1878
6.546e+09  0.8829  0.4107  -0.02459  0.005729  -0.05873  -0.02827  0.7147  -0.05297
6.548e+09  0.9855  0.03392  -0.01713  0.02951  0.008819  0.04987  0.6452  -0.3242
6.549e+09  0.9071  -0.3132  0.01931  -0.008766  -0.005286  -0.02785  0.481  -0.5241
6.55e+09  0.7203  -0.591  0.01098  0.01366  -0.04663  -0.009923  0.3017  -0.6743
