# Hz S RI R 50
6.25e+09  -0.3758  0.7578  -0.01838  -0.009458  0.003974  0.02108  0.1327  0.5052
6.251e+09  -0.1428  0.8898  0.01354  -0.03951  -0.05291  0.0389  0.4027  0.4117
6.252e+09  0.2064  0.8397  -0.0113  -0.01699  0.02691  0.007545  0.4936  0.2154
6.254e+09  0.4544  0.6885  -0.006896  0.01601  -0.006424  0.03223  0.6421  0.0112
6.255e+09  0.6726  0.4738  0.003404  0.02489  -0.01859  0.02622  0.6018  -0.2214
6.256e+09  0.8238  0.2707  -0.008551  -0.02224  -0.02164  0.07046  0.4437  -0.4627
6.258e+09  0.9031  -0.03736  0.008367  -0.03937  -0.01376  0.03066  0.3081  -0.5988
6.259e+09  0.7491  -0.3307  0.01721  -0.02059  0.006335  -0.02614  0.03472  -0.6924
6.26e+09  0.5953  -0.4951  -0.02008  0.00169  -0.04099  0.01724  -0.1988  -0.6477
6.261e+09  0.3912  -0.7585  -0.02192  0.01672  -0.03656  0.0413  -0.459  -0.5657
6.262e+09  0.09047  -0.8455  -0.01572  -0.002956  0.03812  -0.008345  -0.6026  -0.3606
6.264e+09  -0.1985  -0.76  -0.02609  -0.01222  -0.02789  0.02623  -0.7025  -0.08769
6.265e+09  -0.4489  -0.6899  -0.01237  -0.009027  0.02152  0.06059  -0.6638  0.1548
6.266e+09  -0.6545  -0.5737  0.004773  0.009935  0.01063  -0.02922  -0.5996  0.3737
6.268e+09  -0.8069  -0.2625  0.01509  0.009015  -0.03019  -0.001837  -0.4243  0.5997
6.269e+09  -0.8644  0.01307  -0.01209  -0.02911  0.00384  0.03421  -0.192  0.7294
6.27e+09  -0.7357  0.2924  0.0226  -0.006817  -0.04604  -0.01535  0.06238  0.7381
6.271e+09  -0.5876  0.6404  0.01124  0.00399  0.01337  0.005894  0.3199  0.7034
6.272e+09  -0.4031  0.749  0.02269  0.002773  -0.01044  -0.00422  0.5306  0.5149
6.274e+09  -0.1174  0.8256  0.02387  0.002624  -0.02356  -0.02536  0.6951  0.3119
6.275e+09  0.184  0.7853  -0.02344  0.02398  0.03072  -0.009125  0.7495  0.04194
6.276e+09  0.4506  0.7365  -0.003415  -0.03934  0.00202  0.02538  0.7234  -0.2281
6.278e+09  0.635  0.4879  -0.01508  0.006845  0.05571  0.01077  0.615  -0.4497
6.279e+09  0.7625  0.2804  -0.00749  -0.02516  -0.07475  -0.01657  0.4191  -0.6355
6.28e+09  0.8429  -0.0157  0.01655  -0.003845  0.01308  0.0312  0.1412  -0.7673
6.281e+09  0.7646  -0.3359  0.01004  -0.03056  -0.0004968  0.04216  -0.1114  -0.7444
6.282e+09  0.6597  -0.6017  -0.004184  0.01353  0.001617  0.02864  -0.3818  -0.6644
6.284e+09  0.3376  -0.7652  -0.01721  -0.02738  -0.01571  0.04135  -0.5948  -0.4964
6.285e+09  0.08203  -0.8705  0.005148  0.03174  -0.009143  0.05573  -0.7544  -0.2856
6.286e+09  -0.1962  -0.8066  -0.006925  0.0006892  -0.01058  0.008146  -0.7767  0.005007
6.288e+09  -0.5005  -0.7407  0.007844  -0.002111  0.01775  0.03927  -0.7574  0.2571
6.289e+09  -0.6951  -0.4253  -0.001377  0.01256  0.03279  0.001407  -0.6109  0.4917
6.29e+09  -0.8102  -0.2675  -0.009303  0.006686  -0.02054  -0.04515  -0.4261  0.6623
6.291e+09  -0.8014  0.07629  -0.02508  -0.0002574  -0.01797  -0.01572  -0.1595  0.7702
6.292e+09  -0.6789  0.4068  -0.0152  -0.008047  0.01722  0.003711  0.1541  0.8263
6.294e+09  -0.5786  0.5944  0.02504  -0.01577  0.02226  0.003804  0.3863  0.7267
6.295e+09  -0.3238  0.7425  -0.003104  0.0006924  0.01706  0.02324  0.5756  0.5196
6.296e+09  -0.0676  0.8129  -0.01006  -0.0292  0.01265  0.01375  0.7961  0.2703
6.298e+09  0.216  0.7894  -2.511e-05  -0.004714  0.03679  -0.02183  0.8056  0.02058
6.299e+09  0.545  0.6331  -0.006416  -0.02877  -0.05751  0.003198  0.7791  -0.2651
6.3e+09  0.6962  0.4292  -0.004638  0.0142  -0.05761  0.00695  0.6477  -0.5059
6.301e+09  0.7979  0.1977  0.01859  0.03277  -0.01216  -0.0788  0.4298  -0.709
6.302e+09  0.836  -0.09648  -0.01129  0.008015  -0.03178  0.01536  0.1471  -0.823
6.304e+09  0.7651  -0.3835  -0.005049  -0.02534  0.02528  -0.02679  -0.124  -0.8437
6.305e+09  0.5712  -0.6414  -0.03842  -0.03566  -0.0164  0.03108  -0.4111  -0.7529
6.306e+09  0.2981  -0.7763  -0.004445  -0.0005066  -0.0009509  -0.02483  -0.6623  -0.5574
6.308e+09  0.05383  -0.8998  -0.02265  0.005855  -0.01488  0.007635  -0.7964  -0.3146
6.309e+09  -0.2663  -0.8174  -0.009823  0.001832  -0.01128  0.0103  -0.8385  0.007063
6.31e+09  -0.5126  -0.6522  0.03309  -0.005741  -0.001166  -0.03121  -0.8013  0.2896
6.311e+09  -0.6937  -0.4497  0.01192  0.001712  0.06784  -0.02892  -0.6605  0.5707
6.312e+09  -0.7839  -0.1875  -0.005427  0.0004311  0.04665  0.00644  -0.4377  0.7556
6.314e+09  -0.7992  0.08364  0.01812  0.00325  0.02453  0.02587  -0.1541  0.8393
6.315e+09  -0.7203  0.3698  -0.002451  0.01747  0.05211  -0.007409  0.1406  0.8119
6.316e+09  -0.5243  0.6539  0.0311  -0.00716  0.0008152  -0.0288  0.4163  0.7488
6.318e+09  -0.2733  0.8122  0.02074  0.01099  -0.03087  0.007574  0.662  0.5407
6.319e+09  -0.03642  0.8761  -0.005503  0.01654  -0.02278  0.03496  0.7887  0.3259
6.32e+09  0.3097  0.7534  0.02465  0.004945  -0.001557  -0.0519  0.8817  0.01662
6.321e+09  0.591  0.6228  -0.001105  0.01115  0.03236  -0.01447  0.8354  -0.2884
6.322e+09  0.7858  0.4277  0.007241  0.02609  0.03558  0.001206  0.7438  -0.5844
6.324e+09  0.8319  0.1309  -0.03858  0.007472  -0.02421  -0.02257  0.4412  -0.7683
6.325e+09  0.7924  -0.2002  0.02312  0.01368  -0.004919  0.009508  0.1756  -0.8745
6.326e+09  0.7477  -0.4569  0.03  -0.009512  0.0174  -0.00825  -0.0983  -0.8872
6.328e+09  0.5506  -0.6608  -0.02039  -0.009456  0.001175  0.0275  -0.4838  -0.7965
6.329e+09  0.2618  -0.8138  -0.009173  -0.00813  0.009872  0.0008379  -0.6667  -0.6244
6.33e+09  -0.06814  -0.8347  0.0003322  -0.01219  0.01407  0.0404  -0.8448  -0.3771
6.331e+09  -0.3386  -0.7819  -0.0121  0.03274  -0.00132  -0.0629  -0.8843  -0.02484
6.332e+09  -0.6197  -0.6416  0.0126  -0.02032  0.04929  0.004842  -0.8441  0.2834
6.334e+09  -0.8309  -0.3508  -0.02471  0.006777  0.05894  -0.04316  -0.7361  0.581
6.335e+09  -0.8861  -0.101  -0.0009488  0.03071  -0.04023  0.0193  -0.5078  0.7699
6.336e+09  -0.8721  0.2175  -0.02167  0.0152  -0.04419  -0.003232  -0.1949  0.8759
6.338e+09  -0.7229  0.5091  -0.01876  -0.03739  -0.03416  0.01495  0.1402  0.9158
6.339e+09  -0.4764  0.6997  -0.009702  0.02386  -0.03212  -0.01053  0.4222  0.8121
6.34e+09  -0.2157  0.8695  0.03055  -0.01635  -0.02061  0.003341  0.6352  0.63
6.341e+09  0.1058  0.8382  0.04456  -0.01053  -0.02852  0.009972  0.8435  0.3441
6.342e+09  0.401  0.7617  0.03226  -0.02528  0.009698  -0.01939  0.8915  0.01804
6.344e+09  0.6625  0.6  0.0193  0.01453  0.006714  0.02153  0.8635  -0.2849
6.345e+09  0.7912  0.3369  -0.01081  -0.01578  0.02388  0.004402  0.7399  -0.5547
6.346e+09  0.9275  0.01962  0.01434  0.004889  0.03997  0.01416  0.4975  -0.7997
6.348e+09  0.8188  -0.2792  -0.01279  0.009714  -0.04512  0.02097  0.1997  -0.8918
6.349e+09  0.6981  -0.5651  -0.008209  0.008553  -0.03191  0.003064  -0.1249  -0.9329
6.35e+09  0.4432  -0.7507  0.01006  -0.02491  -0.01802  -0.02558  -0.4051  -0.8456
6.351e+09  0.1279  -0.9028  -0.03274  -0.01405  0.02376  -0.004654  -0.6557  -0.6653
6.352e+09  -0.1727  -0.8606  0.0113  0.004786  0.02336  -0.01772  -0.8275  -0.3925
6.354e+09  -0.5142  -0.7056  -0.009609  -0.04765  -0.003502  -0.005067  -0.9422  -0.04274
6.355e+09  -0.6969  -0.5695  0.02561  0.01537  -0.000456  -0.01235  -0.8938  0.251
6.356e+09  -0.8135  -0.2701  0.002316  -0.01693  0.012  -0.02957  -0.7673  0.5777
6.358e+09  -0.8913  0.02901  -0.01565  -0.003779  0.001332  0.00916  -0.4991  0.7743
6.359e+09  -0.7938  0.3309  0.00615  -0.03615  -0.00842  -0.01496  -0.201  0.9321
6.36e+09  -0.6462  0.5982  -0.01704  0.007278  -0.06761  -0.002717  0.08842  0.953
6.361e+09  -0.4257  0.8048  -0.02387  -0.01403  0.00109  -0.008638  0.3919  0.8385
6.362e+09  -0.08927  0.8672  0.001301  0.01176  -0.005758  -0.009953  0.7141  0.6511
6.364e+09  0.2612  0.846  0.001913  0.01373  0.002026  0.003524  0.8877  0.3807
6.365e+09  0.5338  0.7095  0.03192  0.01509  0.008322  0.002048  0.9542  0.06955
6.366e+09  0.7559  0.4894  0.01548  0.01701  -0.02444  -0.006556  0.9095  -0.2413
6.368e+09  0.8772  0.2278  -0.04137  0.008338  0.01606  0.003759  0.7808  -0.5277
6.369e+09  0.8666  -0.06139  0.01607  -0.02822  0.02649  -0.01195  0.5435  -0.745
6.37e+09  0.7869  -0.3938  -0.02257  0.02225  -0.002705  0.003864  0.2542  -0.9188
6.371e+09  0.6271  -0.6763  -0.004757  -0.004953  0.0001928  0.02872  -0.08706  -0.9328
6.372e+09  0.3543  -0.8152  0.01187  -0.0001302  0.00362  -0.005594  -0.403  -0.8717
6.374e+09  0.05524  -0.876  0.01309  -0.0163  0.01096  0.04175  -0.6577  -0.7119
6.375e+09  -0.2505  -0.8183  0.001906  -0.02767  -0.002331  0.009781  -0.8109  -0.4093
6.376e+09  -0.517  -0.759  0.02585  -0.007569  0.002723  -0.09202  -0.9671  -0.1125
6.378e+09  -0.7594  -0.4716  0.04705  0.04048  -0.007946  -0.01138  -0.8939  0.2423
6.379e+09  -0.855  -0.224  -0.01327  -0.003348  -0.0545  0.05074  -0.774  0.5141
6.38e+09  -0.8653  0.1053  0.00421  0.02017  -0.03937  0.02411  -0.5845  0.7499
6.381e+09  -0.8142  0.4531  0.00777  0.004643  0.009952  0.02863  -0.2782  0.8658
6.382e+09  -0.5873  0.6846  -0.01706  -0.02709  0.0491  -0.05696  0.04095  0.8992
6.384e+09  -0.3076  0.7973  0.01136  0.001567  -0.02512  -0.007907  0.3683  0.8664
6.385e+09  -0.005214  0.8804  -0.01921  0.008076  -0.0213  -0.004923  0.6324  0.6807
6.386e+09  0.2445  0.8152  0.006529  -0.002118  -0.01468  0.02507  0.852  0.4102
6.388e+09  0.5885  0.663  -0.002366  -0.007304  -0.000228  -0.02851  0.9326  0.07057
6.389e+09  0.7542  0.4538  0.0178  -0.005305  0.01499  0.02342  0.936  -0.2096
6.39e+09  0.844  0.1601  0.01001  0.0003605  0.03448  0.03152  0.789  -0.5033
6.391e+09  0.8075  -0.1293  0.02062  0.0002237  -0.01212  0.05966  0.5242  -0.7564
6.392e+09  0.7515  -0.5001  -0.01446  0.02727  -0.0367  -0.03897  0.2901  -0.8478
6.394e+09  0.611  -0.7192  0.004201  0.01343  0.02898  0.02419  0.01635  -0.9066
6.395e+09  0.2536  -0.807  0.04212  0.02746  0.01715  0.003115  -0.3553  -0.8863
6.396e+09  -0.01741  -0.8748  0.00145  -0.02398  -0.04485  -0.01517  -0.5938  -0.7061
6.398e+09  -0.3292  -0.8375  0.02288  0.02622  0.01742  0.007477  -0.8145  -0.4416
6.399e+09  -0.6074  -0.6765  -0.02701  -0.02398  -0.01388  -0.02533  -0.9051  -0.1259
6.4e+09  -0.7777  -0.4257  0.0194  -0.01493  -0.04194  0.05365  -0.9057  0.1909
6.401e+09  -0.8522  -0.1451  0.02072  0.01888  -0.00674  0.03962  -0.832  0.4851
6.402e+09  -0.8351  0.1727  -0.02416  -0.0305  -0.01963  0.01497  -0.6543  0.6958
6.404e+09  -0.7203  0.5028  0.03918  0.008026  0.03442  -0.04161  -0.3083  0.872
6.405e+09  -0.5733  0.7183  0.002217  -0.02178  -0.001197  -0.02804  0.0001128  0.8989
6.406e+09  -0.2326  0.849  -0.07162  -0.005215  -0.0247  0.01141  0.3358  0.8812
6.408e+09  0.02762  0.8656  -0.02673  0.01621  0.02248  0.008641  0.5903  0.7394
6.409e+09  0.3301  0.7953  -0.01634  0.0132  0.01428  0.008983  0.7872  0.4698
6.41e+09  0.5726  0.6547  0.03023  -0.032  -0.01563  0.01248  0.8859  0.1436
6.411e+09  0.7583  0.3865  0.003114  0.019  0.06244  -0.01722  0.8674  -0.1402
6.412e+09  0.8792  0.06533  -4.858e-05  0.01912  -0.03603  -0.002089  0.7987  -0.4338
6.414e+09  0.8553  -0.2222  0.02881  -0.009535  -0.002599  -0.04353  0.6017  -0.6466
6.415e+09  0.7496  -0.4778  0.01014  -0.01332  -0.02488  -0.03448  0.2816  -0.8261
6.416e+09  0.5337  -0.6963  -0.005112  0.05147  0.03578  -0.008301  0.02129  -0.9221
6.418e+09  0.245  -0.7907  -0.03797  0.04789  0.01844  0.008423  -0.3111  -0.8553
6.419e+09  -0.02681  -0.8542  0.01097  -0.01146  0.01179  -0.01804  -0.5703  -0.6723
6.42e+09  -0.3516  -0.8183  -0.004417  -0.01643  -0.005293  0.03253  -0.753  -0.4797
6.421e+09  -0.6027  -0.6212  -0.03592  -0.003386  0.005282  0.006704  -0.8793  -0.1837
6.422e+09  -0.8348  -0.4049  -0.04266  -0.05356  0.01033  0.009874  -0.8561  0.08716
6.424e+09  -0.8545  -0.05975  -0.02918  0.001612  -0.02014  0.04504  -0.7824  0.3943
6.425e+09  -0.831  0.2079  -0.03166  -0.003931  -0.01579  0.01374  -0.5827  0.6283
6.426e+09  -0.7348  0.5096  0.003839  0.009236  -0.05807  0.02554  -0.3859  0.752
6.428e+09  -0.5398  0.7593  0.01983  -0.02653  -0.042  0.08422  -0.02839  0.8928
6.429e+09  -0.2014  0.8721  0.02737  -0.003976  0.0118  0.0282  0.2682  0.8428
6.43e+09  0.07369  0.9008  0.01234  -0.03886  -0.01632  0.06185  0.5014  0.6712
6.431e+09  0.45  0.728  0.01028  -0.01063  0.05166  0.03307  0.7018  0.5222
6.432e+09  0.618  0.5892  0.0003524  0.03235  0.01593  -0.03306  0.817  0.1869
6.434e+09  0.825  0.3656  0.001761  -0.03119  0.04942  -0.01119  0.8689  -0.08754
6.435e+09  0.835  0.0747  -0.002952  0.003982  -0.00337  -0.04898  0.7595  -0.3521
6.436e+09  0.876  -0.3015  -0.003541  -0.005881  -0.002737  0.03907  0.6039  -0.6278
6.438e+09  0.696  -0.5279  0.02635  0.001529  -0.02044  -0.01542  0.3779  -0.7594
6.439e+09  0.4909  -0.788  0.0132  -0.0456  -0.01759  -0.001691  0.04025  -0.8469
6.44e+09  0.1887  -0.87  -0.01267  0.005917  -0.02154  -0.04415  -0.2067  -0.8175
6.441e+09  -0.1024  -0.7909  -0.007138  -0.053  0.006497  0.03734  -0.4852  -0.699
6.442e+09  -0.3956  -0.8071  -0.01954  0.007466  -0.01084  -0.007187  -0.7083  -0.4494
6.444e+09  -0.6232  -0.6496  -0.01464  -0.04259  0.003781  0.00867  -0.7944  -0.172
6.445e+09  -0.857  -0.3489  -0.0003598  0.002376  -0.03145  -0.0132  -0.833  0.07665
6.446e+09  -0.898  -0.05066  0.0192  0.02191  -0.005502  0.006106  -0.7669  0.3349
6.448e+09  -0.8587  0.2947  -0.007388  0.02032  0.003236  0.001738  -0.6329  0.5884
6.449e+09  -0.6767  0.5825  -0.02038  -0.0009579  -0.02871  -0.01039  -0.3892  0.7937
6.45e+09  -0.4935  0.7493  -0.001365  -0.001795  0.04827  -0.002012  -0.02847  0.8627
6.451e+09  -0.2239  0.8486  0.03353  -0.00327  0.02697  0.06  0.1848  0.7728
6.452e+09  0.05487  0.9311  -0.01651  -0.002379  -0.0007715  -0.0448  0.4762  0.6927
6.454e+09  0.3974  0.7713  0.004351  -0.004514  -0.04601  0.03757  0.6741  0.5087
6.455e+09  0.6356  0.585  0.01025  -0.02382  0.01803  -0.01021  0.8163  0.2109
6.456e+09  0.8334  0.3425  0.0436  0.004588  -0.01789  0.006098  0.8331  -0.06294
6.458e+09  0.8942  0.0541  -0.02324  -0.01915  0.005151  0.006949  0.7151  -0.381
6.459e+09  0.8221  -0.2568  0.00737  0.03993  0.03696  -0.04095  0.5473  -0.5972
6.46e+09  0.6939  -0.5719  -0.02362  0.04481  0.04559  0.0106  0.3826  -0.8058
6.461e+09  0.5505  -0.7396  0.01455  -0.03971  -0.02777  -0.02473  0.1004  -0.8115
6.462e+09  0.1901  -0.874  0.01015  0.01044  0.004633  -0.03814  -0.2244  -0.7684
6.464e+09  -0.1016  -0.9033  -0.009106  -0.02349  -0.002836  0.03145  -0.4722  -0.6548
6.465e+09  -0.4408  -0.7867  0.008659  0.01438  -0.01324  -0.01327  -0.6502  -0.4743
6.466e+09  -0.6328  -0.595  -0.002278  -0.007824  -0.06617  0.01309  -0.758  -0.2434
6.468e+09  -0.846  -0.3419  -0.01567  0.01068  0.03531  -0.002887  -0.7947  0.06059
6.469e+09  -0.8864  -0.0359  -0.03246  0.01117  -0.02355  0.01726  -0.7277  0.3681
6.47e+09  -0.872  0.2376  0.01125  -0.002912  -0.02255  -0.01016  -0.549  0.5599
6.471e+09  -0.666  0.5774  -0.03516  0.03066  0.006179  -0.006718  -0.3436  0.741
6.472e+09  -0.4706  0.7813  -0.01599  -0.02482  -0.05029  -0.01775  -0.03025  0.7744
6.474e+09  -0.1818  0.8709  -0.0316  -0.01835  -0.05017  0.002496  0.2324  0.746
6.475e+09  0.21  0.8945  -0.009095  0.01796  -0.01587  -0.02573  0.4203  0.6406
6.476e+09  0.4378  0.7947  0.01903  0.007405  0.0007722  -0.0382  0.6164  0.4263
6.478e+09  0.6448  0.6169  -0.01419  0.005067  -0.03498  -0.02426  0.7345  0.1919
6.479e+09  0.8719  0.291  0.01834  0.01295  0.01164  -0.03913  0.8032  -0.1165
6.48e+09  0.8952  0.02992  0.004463  -0.05403  -0.0268  0.0467  0.7208  -0.3489
6.481e+09  0.8702  -0.2982  -0.01176  -0.007795  0.008476  -0.04804  0.5131  -0.5538
6.482e+09  0.6209  -0.548  -0.005963  -0.0007351  0.002179  -0.02377  0.3342  -0.7295
6.484e+09  0.4826  -0.7664  0.008728  0.02804  -0.002821  0.0008244  0.07305  -0.8214
6.485e+09  0.1775  -0.8659  0.04808  0.02527  0.02247  -0.02769  -0.1831  -0.7496
6.486e+09  -0.2046  -0.8417  0.003116  -0.002645  -0.02071  -0.01857  -0.471  -0.646
6.488e+09  -0.471  -0.769  -0.01759  0.01476  -0.006315  0.008564  -0.6215  -0.393
6.489e+09  -0.6702  -0.6051  0.007895  -0.0003059  -0.01724  -0.009862  -0.7982  -0.1811
6.49e+09  -0.8696  -0.3576  0.02729  0.002705  -0.01809  -0.05548  -0.7664  0.07921
6.491e+09  -0.8769  -0.0173  -0.01022  0.004487  -0.01764  0.00816  -0.7181  0.3592
6.492e+09  -0.8793  0.3427  -0.03741  -0.02949  -0.01053  0.05972  -0.5362  0.5881
6.494e+09  -0.6392  0.6342  -0.0003096  -0.01799  0.07249  0.01379  -0.3196  0.7003
6.495e+09  -0.5242  0.8248  -0.006739  0.002131  0.04068  0.04243  -0.0664  0.7842
6.496e+09  -0.1279  0.9533  -0.02938  -0.009267  -0.0008628  0.01546  0.2136  0.7423
6.498e+09  0.1787  0.9479  0.002931  -0.006643  -0.01764  0.009498  0.4641  0.6305
6.499e+09  0.4771  0.7917  -0.02294  -0.0235  -0.02779  -0.0147  0.6144  0.4202
6.5e+09  0.7311  0.5781  -0.01401  -0.0008456  -0.02003  0.02492  0.7412  0.169
6.501e+09  0.8674  0.2809  0.0285  0.003508  -0.01398  0.02763  0.76  -0.097
6.502e+09  0.8973  0.02892  -0.03723  0.01802  -0.0008969  0.01228  0.6883  -0.3248
6.504e+09  0.8306  -0.3493  0.0386  -0.0325  0.01125  0.04919  0.4991  -0.6146
6.505e+09  0.7091  -0.6418  0.005487  -0.01552  -0.09371  0.07313  0.3057  -0.7066
6.506e+09  0.3872  -0.8405  0.02083  0.01909  0.02128  0.0002052  0.005485  -0.7766
6.508e+09  0.1825  -0.9492  0.03133  -0.00814  -0.01594  0.01034  -0.2461  -0.7199
6.509e+09  -0.2043  -0.9131  -0.008452  -0.0306  0.03258  0.005373  -0.4655  -0.613
6.51e+09  -0.5166  -0.8189  -0.00149  0.03809  -0.05966  -0.008266  -0.6166  -0.3428
6.511e+09  -0.7644  -0.5563  -0.003046  -0.006184  0.004869  -0.02242  -0.7368  -0.177
6.512e+09  -0.8792  -0.2773  0.001235  -0.01233  -0.03401  0.01144  -0.7131  0.1099
6.514e+09  -0.9375  -0.001033  -0.02373  0.03132  0.006643  -0.03005  -0.6493  0.3561
6.515e+09  -0.9164  0.3669  -0.01596  0.01994  -0.03261  0.02302  -0.4655  0.5802
6.516e+09  -0.7184  0.638  0.005103  -0.04607  0.002131  0.002898  -0.2255  0.679
6.518e+09  -0.4158  0.8718  0.002819  -0.01523  0.0241  0.01115  0.02321  0.7457
6.519e+09  -0.1169  0.9898  -0.002366  0.01286  0.006534  0.03634  0.2712  0.7104
6.52e+09  0.252  0.9306  0.01893  0.02663  -0.05966  0.05893  0.4493  0.5616
6.521e+09  0.5847  0.7352  -0.001834  -0.01303  0.01068  -0.002389  0.6569  0.361
6.522e+09  0.7854  0.5614  -0.02997  -0.00995  0.01614  0.002234  0.7193  0.09574
6.524e+09  0.9234  0.2739  -0.01035  0.01081  -0.008417  0.04815  0.7029  -0.1398
6.525e+09  0.991  -0.07852  0.03201  0.03301  -0.03485  -0.02527  0.6186  -0.4271
6.526e+09  0.8858  -0.4345  -0.001687  0.01169  -0.02222  0.03468  0.4547  -0.5428
6.528e+09  0.6272  -0.6726  0.03451  0.0226  0.03926  -0.009006  0.2148  -0.673
6.529e+09  0.4038  -0.8959  -0.01749  0.009661  -0.02799  -0.03781  -0.04057  -0.6739
6.53e+09  0.08193  -0.9716  0.01269  0.01637  -0.001744  -0.02408  -0.2903  -0.6143
6.531e+09  -0.2909  -0.9524  0.03393  -0.02326  -0.01687  -0.007045  -0.454  -0.4428
6.532e+09  -0.5986  -0.7699  -0.003817  -0.005593  0.02001  0.004116  -0.6088  -0.2869
6.534e+09  -0.8816  -0.5206  -0.007739  0.02256  0.02837  -0.003069  -0.6376  -0.07357
6.535e+09  -0.9622  -0.1837  0.02424  -0.01776  0.03172  0.03531  -0.6001  0.09164
6.536e+09  -0.9642  0.1677  -0.02555  -0.02222  -0.005225  0.02422  -0.5664  0.3312
6.538e+09  -0.8431  0.4558  0.02044  -0.005093  -0.03665  -0.003651  -0.4311  0.5306
6.539e+09  -0.6113  0.7965  0.008467  0.0004519  0.03499  0.03052  -0.3006  0.5795
6.54e+09  -0.3715  0.9127  0.01097  0.02895  -0.01051  0.01717  -0.03206  0.6608
6.541e+09  0.02911  0.9936  0.01493  0.01357  -0.03643  0.06893  0.1932  0.6817
6.542e+09  0.3819  0.9211  -0.04239  0.01519  -0.008246  -0.02006  0.403  0.5717
6.544e+09  0.7037  0.6902  0.006424  0.005846  -0.004843  0.0165  0.5575  0.4214
6.545e+09  0.8809  0.3894  -0.001933  0.01205  0.01394  0.0518  0.6945  0.1968
6.546e+09  0.9166  0.1446  0.0256  -0.005279  -0.0005826  0.03846  0.7319  -0.07238
6.548e+09  0.979  -0.2226  -0.0113  0.02189  -0.02167  0.01861  0.6499  -0.3228
6.549e+09  0.805  -0.5217  -0.005818  0.0145  3.456e-06  0.02227  0.5107  -0.5124
6.55e+09  0.5564  -0.7636  0.008712  0.004632  -0.02938  0.05004  0.2862  -0.6683
