# Hz S RI R 50
6.25e+09  0.1149  0.8407  0.001374  -0.02765  -0.04459  -0.02487  0.158  0.4977
6.251e+09  0.4173  0.7891  -0.01997  0.04456  -0.03476  0.04375  0.3741  0.4085
6.252e+09  0.657  0.5876  0.008559  0.01525  0.01969  0.02185  0.4885  0.2388
6.254e+09  0.7791  0.2975  -0.01519  -0.01516  0.03197  -0.007962  0.6105  0.03865
6.255e+09  0.8619  0.007375  0.0003516  -0.009773  0.02156  -0.001317  0.5869  -0.2528
6.256e+09  0.8876  -0.2819  0.04501  0.01244  -0.001842  -0.02147  0.4936  -0.4185
6.258e+09  0.6322  -0.4959  0.009394  0.003431  0.003724  0.02038  0.3252  -0.6043
6.259e+09  0.4256  -0.7234  -0.03609  0.02459  -0.02824  -0.07793  0.05052  -0.69
6.26e+09  0.1753  -0.8502  0.02267  -0.03034  -0.03249  -0.05387  -0.2068  -0.6539
6.261e+09  -0.04849  -0.8342  0.01014  -0.01194  -0.01064  -0.06362  -0.453  -0.5462
6.262e+09  -0.4139  -0.7293  -0.01622  0.005211  0.01372  0.01292  -0.6096  -0.3515
6.264e+09  -0.6241  -0.5263  0.01273  -0.004969  0.03386  0.007159  -0.6839  -0.1257
6.265e+09  -0.8241  -0.3373  0.01897  -0.02175  0.03392  -0.03127  -0.7236  0.1155
6.266e+09  -0.8315  -0.02896  -0.0362  -0.02309  0.07615  -0.05537  -0.6205  0.3947
6.268e+09  -0.7691  0.2964  -0.002865  -0.009071  0.0008914  -0.01805  -0.4482  0.5858
6.269e+09  -0.6499  0.5432  0.0188  0.007874  -0.01791  0.00208  -0.2037  0.7288
6.27e+09  -0.4233  0.6999  -0.01318  -0.02202  -0.02704  -0.03707  0.06323  0.7413
6.271e+09  -0.1289  0.7916  0.02469  0.006478  -0.01287  0.01698  0.3483  0.6671
6.272e+09  0.1461  0.8449  -0.03524  -0.01536  -0.003019  0.00516  0.5479  0.5398
6.274e+09  0.4183  0.7116  0.01039  -0.0003912  -0.002123  0.02356  0.7048  0.2899
6.275e+09  0.629  0.5289  -0.0219  0.02566  0.02074  0.01532  0.7759  0.0668
6.276e+09  0.7391  0.2043  0.0004965  0.011  -0.002666  0.002364  0.7149  -0.2149
6.278e+09  0.8089  -0.07477  0.01518  -0.02346  0.01548  -0.0195  0.6087  -0.4612
6.279e+09  0.7436  -0.3358  -0.01552  -0.01188  0.02934  0.01841  0.39  -0.6159
6.28e+09  0.6198  -0.5568  0.02284  0.03146  0.03714  0.04514  0.1912  -0.7523
6.281e+09  0.4388  -0.6954  -0.005966  0.006724  0.0341  -0.00907  -0.08679  -0.7623
6.282e+09  0.135  -0.8162  -0.0215  -3.928e-05  0.01402  0.02742  -0.3767  -0.6853
6.284e+09  -0.1847  -0.8335  0.005852  0.006359  -0.02718  0.03665  -0.5542  -0.5091
6.285e+09  -0.4925  -0.6913  -0.02371  0.02556  0.04239  0.02244  -0.7499  -0.2619
6.286e+09  -0.6856  -0.4635  0.01694  0.01181  0.02825  0.009052  -0.7855  -0.03487
6.288e+09  -0.8505  -0.2252  -0.002649  -0.03002  0.01306  -0.009105  -0.7594  0.2396
6.289e+09  -0.8369  0.08776  -0.01966  -0.001251  -0.04294  -0.009517  -0.611  0.4866
6.29e+09  -0.7269  0.3392  -0.009259  0.02076  0.01945  -0.02532  -0.3988  0.6562
6.291e+09  -0.5405  0.6027  -0.01955  0.005788  0.009334  0.02791  -0.1488  0.7602
6.292e+09  -0.2985  0.7341  -0.01974  0.00281  0.04575  -0.008658  0.1077  0.8117
6.294e+09  -0.04344  0.8284  0.01359  0.01086  0.01947  -0.01105  0.3914  0.7165
6.295e+09  0.2633  0.7825  0.0079  -0.009998  0.01172  -0.0004261  0.5988  0.5661
6.296e+09  0.4884  0.666  0.02905  0.02129  -0.03163  -0.02328  0.7745  0.2915
6.298e+09  0.6514  0.4692  0.01227  -0.03604  0.02359  -0.0404  0.8134  0.01609
6.299e+09  0.8045  0.2002  -0.009194  -0.02394  -0.000625  -0.01828  0.7992  -0.2943
6.3e+09  0.8109  -0.1283  -0.0005606  0.003647  0.04739  -0.006033  0.6487  -0.5153
6.301e+09  0.7321  -0.3826  -0.02541  0.01625  -0.02338  -0.03102  0.4092  -0.6979
6.302e+09  0.5467  -0.6574  -0.0001665  -0.00782  0.01008  -0.05073  0.1624  -0.8459
6.304e+09  0.2812  -0.7254  -0.004508  -0.02365  0.01464  -0.06113  -0.1583  -0.7949
6.305e+09  0.00699  -0.8322  0.000601  -0.01795  -0.008619  0.003188  -0.4165  -0.7504
6.306e+09  -0.2346  -0.8102  0.005607  -0.01741  -0.02111  -0.0429  -0.6497  -0.5722
6.308e+09  -0.5564  -0.6436  -0.01753  -0.02572  -0.01726  0.01505  -0.8026  -0.3103
6.309e+09  -0.7961  -0.4231  0.008621  0.0004924  0.05023  -0.002381  -0.8463  -0.03305
6.31e+09  -0.8513  -0.1515  0.01602  -0.01741  0.01423  -0.02377  -0.8035  0.257
6.311e+09  -0.8396  0.224  0.01  -0.02593  -0.01068  -0.0481  -0.6635  0.5254
6.312e+09  -0.7105  0.4265  0.01884  -0.01423  0.03942  -0.01534  -0.4606  0.7346
6.314e+09  -0.5097  0.6834  0.02895  0.01308  -0.003597  -0.004825  -0.1286  0.8815
6.315e+09  -0.2344  0.7498  -0.01691  -0.006616  0.02945  0.01336  0.1679  0.8658
6.316e+09  0.01294  0.8009  -0.04038  -0.02016  0.0121  0.03585  0.4396  0.7672
6.318e+09  0.3936  0.7769  -0.003367  -0.00476  0.02485  0.04005  0.682  0.6022
6.319e+09  0.6208  0.5961  -0.001684  0.01348  -0.02025  -0.005089  0.8064  0.305
6.32e+09  0.7861  0.3907  -0.01592  -0.02214  0.02804  -0.04834  0.9102  0.005354
6.321e+09  0.8345  0.09385  -0.005896  -0.01392  0.05767  0.07447  0.8108  -0.277
6.322e+09  0.7891  -0.2598  -0.001689  -0.0299  0.02149  -0.01331  0.6736  -0.5652
6.324e+09  0.6878  -0.4588  0.006586  0.007441  -0.02288  0.03257  0.453  -0.7777
6.325e+09  0.4756  -0.6906  -0.009464  -0.01412  0.02875  -0.001887  0.1476  -0.9203
6.326e+09  0.1907  -0.8166  -0.0231  0.009849  0.05512  0.02531  -0.1326  -0.8913
6.328e+09  -0.08892  -0.8593  -0.03019  -0.01139  -0.01129  -0.03015  -0.4372  -0.8036
6.329e+09  -0.4312  -0.7823  0.01927  0.008409  0.05267  0.01922  -0.6729  -0.5846
6.33e+09  -0.6636  -0.5936  0.009913  0.02762  -0.003993  0.0005577  -0.8591  -0.3491
6.331e+09  -0.8029  -0.3316  -0.01318  -0.02302  -0.001973  -0.01023  -0.8903  -0.02113
6.332e+09  -0.8422  -0.0118  -0.007001  0.04883  -0.01017  -0.033  -0.8615  0.2981
6.334e+09  -0.8609  0.3024  -0.003793  -0.01462  0.009774  0.03771  -0.7073  0.5835
6.335e+09  -0.6597  0.5454  0.02014  -0.02915  0.004564  0.06263  -0.4769  0.7532
6.336e+09  -0.4321  0.711  -0.001227  -0.0166  -0.06372  0.03916  -0.2171  0.884
6.338e+09  -0.1072  0.8831  -0.01088  0.02287  -0.009807  0.04897  0.1163  0.9186
6.339e+09  0.1562  0.8524  0.004924  -0.03  -0.005489  0.02273  0.4695  0.8009
6.34e+09  0.4155  0.6945  -0.01159  -0.008408  0.0327  0.04206  0.6769  0.6344
6.341e+09  0.7371  0.5336  0.03904  0.01813  -0.005879  0.0152  0.8835  0.346
6.342e+09  0.7864  0.2381  0.01881  0.01739  0.02648  0.04774  0.886  0.06041
6.344e+09  0.8891  -0.0377  -0.02624  -0.0159  -0.02292  -0.01858  0.8952  -0.2815
6.345e+09  0.7955  -0.3696  -0.01381  -0.03027  0.01777  -0.03142  0.7265  -0.5724
6.346e+09  0.6311  -0.6468  -0.005399  0.0008902  0.0275  0.03228  0.5214  -0.7937
6.348e+09  0.3663  -0.8123  0.01447  -0.01651  -0.0003469  0.01312  0.2047  -0.9319
6.349e+09  0.1242  -0.8655  0.02345  0.03323  -0.004741  -0.005873  -0.08812  -0.9352
6.35e+09  -0.2409  -0.8402  0.004059  0.04035  0.0203  0.00581  -0.3994  -0.826
6.351e+09  -0.4993  -0.7519  -0.006528  0.004169  0.02388  -0.01332  -0.6786  -0.6546
6.352e+09  -0.7586  -0.4816  0.009439  0.01906  0.003588  0.04768  -0.8354  -0.3567
6.354e+09  -0.8692  -0.1919  0.03007  0.00931  -0.01292  0.01684  -0.9622  -0.08852
6.355e+09  -0.8769  0.0887  -0.0005551  -0.008625  0.02467  -0.02542  -0.8936  0.2505
6.356e+09  -0.7767  0.419  0.003449  0.006538  -0.01463  -0.01624  -0.7645  0.5836
6.358e+09  -0.5852  0.6842  -0.01483  -0.003081  0.02097  -0.001435  -0.5727  0.8012
6.359e+09  -0.3354  0.8593  -0.01786  -0.01476  0.001561  0.01882  -0.2492  0.8905
6.36e+09  -0.01047  0.8772  0.0108  -0.005278  0.04724  0.01312  0.07123  0.9466
6.361e+09  0.2859  0.8253  0.02982  0.01697  0.03446  -0.01425  0.4116  0.8289
6.362e+09  0.5587  0.7236  -0.02398  0.006048  -0.002615  -8.83e-06  0.6688  0.6429
6.364e+09  0.7438  0.407  0.01739  0.002645  -0.03548  -0.0001904  0.8576  0.4161
6.365e+09  0.9004  0.1499  0.02714  -0.013  -0.01903  0.0285  0.963  0.0969
6.366e+09  0.8862  -0.1921  0.003954  0.03804  -0.03435  0.008515  0.9006  -0.2077
6.368e+09  0.7799  -0.4061  -0.006135  -0.03344  0.02718  0.02001  0.7511  -0.5362
6.369e+09  0.5553  -0.6822  0.02272  -0.004394  -0.008154  -0.01758  0.5786  -0.7904
6.37e+09  0.3181  -0.8141  0.0242  -0.04711  0.004454  -0.02465  0.2709  -0.9317
6.371e+09  -0.03073  -0.8797  -0.03275  0.04093  -0.005857  0.006987  -0.08843  -0.9512
6.372e+09  -0.3167  -0.7904  -0.02374  0.02465  -0.002577  -0.01653  -0.366  -0.8533
6.374e+09  -0.5759  -0.6577  0.0001388  0.03057  -0.0294  0.005126  -0.6285  -0.7061
6.375e+09  -0.8059  -0.4231  0.01871  -0.0269  0.03362  -6.252e-06  -0.827  -0.4172
6.376e+09  -0.8729  -0.08359  0.004226  -0.01759  -0.00873  0.008268  -0.9159  -0.09822
6.378e+09  -0.8629  0.1789  0.006593  0.006592  -0.02612  0.00061  -0.884  0.2483
6.379e+09  -0.7702  0.4793  0.02387  0.02114  0.01514  -0.03625  -0.7661  0.5032
6.38e+09  -0.5227  0.6976  -0.01767  -0.01738  0.04589  -0.0008637  -0.5483  0.7504
6.381e+09  -0.2192  0.8581  0.0208  0.009664  0.01862  0.01273  -0.2269  0.9098
6.382e+09  0.09645  0.8913  0.02814  0.01443  -0.02711  0.004274  0.06391  0.9278
6.384e+09  0.411  0.7994  -0.004388  -0.007128  -0.04115  0.03543  0.3822  0.8675
6.385e+09  0.6829  0.6232  -0.007046  0.007536  0.02046  0.02316  0.6068  0.6857
6.386e+09  0.8358  0.4039  -0.04036  -0.0185  -0.01514  -0.03845  0.8186  0.4266
6.388e+09  0.913  0.1011  -0.002665  -0.01222  0.03281  -0.03884  0.947  0.1156
6.389e+09  0.8443  -0.2832  -0.01174  -0.03053  -0.01195  0.01071  0.8992  -0.178
6.39e+09  0.6787  -0.5471  -0.0008833  0.002725  -0.009994  -0.001944  0.7049  -0.5153
6.391e+09  0.4796  -0.7453  -0.01625  -5.226e-05  -0.02128  0.03771  0.5634  -0.7689
6.392e+09  0.1903  -0.8888  -0.007097  -0.04421  0.02824  0.003379  0.2481  -0.9421
6.394e+09  -0.1143  -0.8998  0.01595  0.01217  0.03303  -0.03614  -0.01726  -0.9537
6.395e+09  -0.4288  -0.8244  -0.01497  -0.02847  -0.0008154  0.0004108  -0.3057  -0.8326
6.396e+09  -0.6524  -0.5808  0.01778  0.001217  -0.002718  0.03023  -0.6592  -0.6719
6.398e+09  -0.8236  -0.3144  0.006073  -0.007014  0.0252  -0.02181  -0.8053  -0.4344
6.399e+09  -0.8992  -0.03062  0.02677  -0.03899  0.003575  0.04196  -0.8911  -0.1747
6.4e+09  -0.8392  0.3393  -0.0491  -0.0222  0.05171  0.01274  -0.9032  0.1754
6.401e+09  -0.6473  0.5705  -0.0205  -0.0255  0.04163  -0.03104  -0.7899  0.4528
6.402e+09  -0.4375  0.8091  -0.01883  -0.001713  -0.009271  -8.095e-05  -0.6068  0.7019
6.404e+09  -0.1394  0.7989  0.02347  -0.01067  0.01658  -0.02323  -0.2929  0.8567
6.405e+09  0.1158  0.934  0.003747  0.04101  0.007824  0.05741  0.01511  0.9132
6.406e+09  0.4308  0.7804  -0.0373  -0.04148  -0.0236  -0.01109  0.2656  0.8552
6.408e+09  0.6549  0.547  0.03087  -0.006671  -0.03199  0.01761  0.5865  0.7055
6.409e+09  0.8312  0.2809  -0.01806  -0.009673  -0.008357  0.03948  0.7811  0.47
6.41e+09  0.9064  0.03814  -0.02789  0.02533  -0.02373  0.0004737  0.8655  0.1989
6.411e+09  0.8372  -0.3228  -0.0442  -0.02862  -0.001758  -0.003169  0.8882  -0.1948
6.412e+09  0.6842  -0.598  0.02294  -0.01246  -0.001734  0.01538  0.7582  -0.4525
6.414e+09  0.3671  -0.7395  -0.0026  0.003761  0.004647  0.002966  0.5901  -0.667
6.415e+09  0.09048  -0.9243  0.05527  -0.02568  -0.03083  -0.006634  0.3637  -0.8009
6.416e+09  -0.1307  -0.8413  0.0002689  -0.01633  -0.0124  0.004396  0.02457  -0.8573
6.418e+09  -0.3757  -0.7858  -0.01181  0.01727  0.01418  0.007399  -0.2735  -0.8659
6.419e+09  -0.6898  -0.4616  -0.002648  0.00674  -0.01595  0.001133  -0.565  -0.6922
6.42e+09  -0.8544  -0.2678  -0.02574  -0.009172  -0.04035  0.0117  -0.8323  -0.4779
6.421e+09  -0.8739  0.004184  -0.007949  -0.007723  -0.02093  -0.04332  -0.8729  -0.187
6.422e+09  -0.7878  0.3811  -0.005304  0.02526  0.01549  0.01372  -0.8859  0.1546
6.424e+09  -0.6469  0.6011  0.009146  0.0152  0.01908  -0.02735  -0.7667  0.3755
6.425e+09  -0.3867  0.7968  -0.008476  -0.02907  -0.002601  -0.04479  -0.6114  0.6398
6.426e+09  -0.0894  0.9231  -0.02626  0.04037  -0.007003  0.01008  -0.3283  0.8129
6.428e+09  0.1759  0.8983  -0.02298  0.03711  0.000386  -0.03517  -0.03544  0.8768
6.429e+09  0.4823  0.7429  0.01849  -0.004091  0.008879  -0.03988  0.2751  0.8266
6.43e+09  0.7231  0.5415  0.03571  -0.04084  0.02029  -0.01234  0.4931  0.7357
6.431e+09  0.88  0.2216  0.03732  0.02372  0.01456  0.02936  0.7759  0.4893
6.432e+09  0.9542  -0.1168  0.01149  -0.004942  0.02692  -0.04097  0.8395  0.1744
6.434e+09  0.7786  -0.4032  -0.00672  -0.0562  -0.02027  -0.02691  0.8729  -0.07017
6.435e+09  0.5508  -0.6958  -0.005654  0.00386  0.02592  -0.02027  0.7768  -0.3502
6.436e+09  0.3196  -0.8452  0.01646  0.02323  -0.01381  0.01922  0.6077  -0.5898
6.438e+09  0.09762  -0.8816  -0.02571  0.02936  0.01428  -0.002116  0.3653  -0.7828
6.439e+09  -0.2514  -0.8385  0.03884  -0.001808  -0.03019  0.03125  -0.01627  -0.8429
6.44e+09  -0.5243  -0.7278  -0.02305  -0.01617  -0.01082  -0.03707  -0.204  -0.8111
6.441e+09  -0.7779  -0.4906  -0.02919  0.04787  0.02078  -0.02057  -0.4941  -0.6954
6.442e+09  -0.9304  -0.2065  0.001967  0.02373  0.0246  -0.05453  -0.7043  -0.505
6.444e+09  -0.9552  0.153  -0.02618  -0.06608  0.009711  -0.02094  -0.867  -0.1896
6.445e+09  -0.8311  0.4887  -0.0691  0.06148  0.02887  -0.01709  -0.8667  0.09179
6.446e+09  -0.6056  0.7156  0.005069  -0.005381  -0.003174  -0.0578  -0.7313  0.3557
6.448e+09  -0.3388  0.8162  0.01739  0.03489  -0.01013  0.02123  -0.6282  0.5592
6.449e+09  -0.0006685  0.9326  0.02592  -0.06374  -0.05001  0.05482  -0.3035  0.7322
6.45e+09  0.2821  0.8878  0.04214  -0.01444  -0.02701  -0.009147  -0.05841  0.8469
6.451e+09  0.6127  0.7294  0.03912  -0.006924  0.03109  -0.04134  0.2079  0.8091
6.452e+09  0.8682  0.4355  0.007932  -0.008654  -0.01183  -0.003383  0.4709  0.6468
6.454e+09  0.8984  0.1311  -0.02208  -0.01915  0.01707  -0.04085  0.671  0.4842
6.455e+09  0.8857  -0.2257  0.02234  -0.02172  -0.06529  -0.0206  0.8146  0.2022
6.456e+09  0.8001  -0.4619  0.03438  0.009814  7.146e-05  0.01142  0.7872  -0.063
6.458e+09  0.5445  -0.7624  0.03182  -0.02786  -0.0433  -0.04787  0.6771  -0.345
6.459e+09  0.2032  -0.9036  0.01932  0.00217  -0.01724  0.004169  0.5771  -0.5131
6.46e+09  -0.05922  -0.9413  -0.02997  0.01076  0.0002342  0.06137  0.3608  -0.7904
6.461e+09  -0.4408  -0.8622  -0.04469  0.01696  -0.02932  0.06067  0.08538  -0.8182
6.462e+09  -0.6826  -0.7017  0.02258  -0.01127  0.01391  0.01878  -0.1837  -0.7562
6.464e+09  -0.8158  -0.3356  -0.02137  0.02003  0.0001589  0.008294  -0.4985  -0.6216
6.465e+09  -0.8595  -0.06099  0.002  -0.00674  0.002774  -0.05573  -0.6062  -0.4554
6.466e+09  -0.839  0.2645  0.01762  0.008111  0.02857  -0.01333  -0.7699  -0.1661
6.468e+09  -0.7795  0.6294  -8.35e-05  -0.02244  0.02931  -0.01629  -0.7786  0.04617
6.469e+09  -0.4832  0.7811  0.01818  0.01424  0.007353  0.006579  -0.7106  0.3295
6.47e+09  -0.2042  0.946  0.01575  -0.0425  0.02947  -0.06483  -0.542  0.5535
6.471e+09  0.1608  0.8513  -0.03403  0.02085  0.02141  -0.01488  -0.3353  0.7313
6.472e+09  0.4699  0.7706  -0.05536  -0.01997  0.03579  0.02914  -0.01298  0.7948
6.474e+09  0.724  0.6432  -0.005668  -0.02521  0.02261  -0.02719  0.1876  0.8049
6.475e+09  0.9072  0.337  0.01331  -0.01625  0.03612  -0.003513  0.4417  0.6953
6.476e+09  0.9367  -0.06403  -0.03762  -0.02736  0.02535  -0.008851  0.6469  0.4521
6.478e+09  0.8824  -0.3697  0.03147  0.004648  0.007848  -0.01977  0.7277  0.1972
6.479e+09  0.6446  -0.6024  0.01774  -0.01156  -0.02115  -0.01875  0.7332  -0.07631
6.48e+09  0.4092  -0.8346  -0.003867  -0.01339  0.002299  0.01646  0.7155  -0.3224
6.481e+09  0.04758  -0.9535  0.02333  0.0315  0.02537  -0.01722  0.5352  -0.5378
6.482e+09  -0.2118  -0.8867  0.008679  0.01294  -0.01798  0.03698  0.3268  -0.7159
6.484e+09  -0.5981  -0.723  0.009499  0.01295  -0.04752  -0.01921  0.04714  -0.7133
6.485e+09  -0.7785  -0.5055  -0.01961  -0.003656  0.02941  -0.004392  -0.2163  -0.7397
6.486e+09  -0.9222  -0.1772  -0.00996  -0.01689  0.009224  0.007276  -0.4411  -0.62
6.488e+09  -0.9118  0.1505  0.01736  0.006599  -0.02549  -0.007438  -0.6251  -0.4724
6.489e+09  -0.8396  0.5108  0.04319  -0.02937  -0.0003058  -0.05303  -0.7165  -0.2502
6.49e+09  -0.5891  0.7251  0.02673  -0.04128  -0.02161  -0.02614  -0.7404  0.07469
6.491e+09  -0.3071  0.8809  0.009224  0.02612  0.003682  -0.02202  -0.6896  0.3477
6.492e+09  0.07958  0.9435  -0.02665  0.009528  0.01749  -0.04696  -0.5348  0.5447
6.494e+09  0.3619  0.8431  -0.007658  -0.03384  0.005634  -0.01706  -0.3347  0.6753
6.495e+09  0.6384  0.6968  -0.008974  -0.009951  0.009821  -0.001901  -0.08207  0.789
6.496e+09  0.7754  0.4126  0.005576  0.006403  -0.03044  -0.02039  0.1976  0.7442
6.498e+09  0.9566  0.0508  0.02524  0.05681  -0.02148  0.0119  0.4961  0.5943
6.499e+09  0.9328  -0.2358  0.02171  0.02161  0.01617  0.04417  0.6689  0.4103
6.5e+09  0.7616  -0.5694  -0.008001  -0.0141  -0.01952  0.03099  0.7628  0.1955
6.501e+09  0.4954  -0.8272  -0.003754  -0.01129  -0.01473  0.03264  0.74  -0.09543
6.502e+09  0.1986  -0.8926  -0.006062  0.01609  0.03068  -0.01619  0.6921  -0.3357
6.504e+09  -0.2221  -0.8577  -0.01671  -0.01444  0.02111  0.006337  0.5277  -0.5238
6.505e+09  -0.5089  -0.7532  0.0049  -0.002072  0.04349  -0.04194  0.2786  -0.6861
6.506e+09  -0.7123  -0.5645  0.002211  -0.03442  0.003224  -0.02972  0.0178  -0.7613
6.508e+09  -0.8726  -0.2473  0.003703  -0.007425  -0.01426  -0.0073  -0.2704  -0.7152
6.509e+09  -0.8567  0.06063  -0.009982  -0.03876  0.003254  0.04372  -0.4452  -0.5732
6.51e+09  -0.8221  0.3958  -0.00338  0.01214  0.006147  -0.06039  -0.6873  -0.4137
6.511e+09  -0.6199  0.6465  -0.01196  0.03439  -0.02271  -0.006629  -0.7568  -0.1084
6.512e+09  -0.3722  0.8018  -0.009488  0.006849  -0.04246  0.03698  -0.7302  0.1321
6.514e+09  -0.1006  0.9451  -0.009146  -0.05607  0.02736  -0.009146  -0.6281  0.3574
6.515e+09  0.2992  0.8576  -0.01205  -0.001827  -0.02959  -0.0124  -0.453  0.5577
6.516e+09  0.4967  0.7043  0.01859  0.005595  0.03618  -0.002917  -0.2319  0.6811
6.518e+09  0.7253  0.4558  0.00515  -0.00585  -0.03183  0.007042  -0.006098  0.7331
6.519e+09  0.9199  0.1064  0.02518  -0.01486  -0.01666  0.03746  0.2629  0.6545
6.52e+09  0.8661  -0.2044  0.003168  0.0332  0.06022  -0.001922  0.4983  0.5469
6.521e+09  0.7417  -0.4771  -0.04089  0.01825  0.01041  -0.01657  0.6418  0.3271
6.522e+09  0.5218  -0.667  -0.02366  0.014  -0.0004333  -0.007145  0.7031  0.06506
6.524e+09  0.2  -0.8337  0.003177  -0.0007163  0.02836  0.0002397  0.7558  -0.1694
6.525e+09  -0.1  -0.9051  -0.006907  0.003157  0.03424  0.007182  0.622  -0.3893
6.526e+09  -0.3578  -0.7531  0.02464  -0.02828  0.0001149  0.0221  0.4211  -0.5746
6.528e+09  -0.6105  -0.5911  -0.003502  0.0121  0.04815  0.01679  0.1914  -0.6471
6.529e+09  -0.7814  -0.321  0.009911  -0.02165  -0.04781  -0.01892  -0.0645  -0.7036
6.53e+09  -0.8865  -0.03764  0.004501  -0.0211  -0.03262  -0.02317  -0.2907  -0.6381
6.531e+09  -0.7816  0.2633  -0.02829  0.01667  0.003478  0.01445  -0.4935  -0.4703
6.532e+09  -0.6559  0.5425  0.0079  0.02258  -0.03541  0.0131  -0.5951  -0.3166
6.534e+09  -0.3932  0.7284  -0.02082  -0.01998  -0.04128  -0.01688  -0.6369  -0.09996
6.535e+09  -0.1469  0.7734  0.02832  -0.001373  -0.02312  -0.01753  -0.632  0.07024
6.536e+09  0.1974  0.8177  0.02855  -0.01032  0.002969  0.03634  -0.5343  0.3313
6.538e+09  0.5141  0.707  -0.03725  -0.01752  -0.005843  -0.01029  -0.4536  0.4817
6.539e+09  0.7108  0.4506  0.00435  -0.01677  0.01986  0.06214  -0.2421  0.5858
6.54e+09  0.776  0.2051  -0.03129  -0.02701  -0.03046  -0.000619  -0.02951  0.6532
6.541e+09  0.8021  -0.05205  -0.01543  0.004627  -0.01341  0.008196  0.1595  0.6924
6.542e+09  0.7608  -0.3676  -0.02522  0.03146  0.03155  -0.03426  0.4356  0.5732
6.544e+09  0.5473  -0.5845  0.004817  0.002613  -0.008048  -0.007781  0.5929  0.4231
6.545e+09  0.2969  -0.7588  -0.0266  0.02079  0.003222  -0.003952  0.6986  0.2029
6.546e+09  0.003032  -0.7977  -0.02341  0.006481  0.04084  -0.01709  0.7085  -0.07685
6.548e+09  -0.2794  -0.7633  0.00843  -0.0003155  0.02224  -0.03385  0.6391  -0.3173
6.549e+09  -0.5278  -0.5595  0.007742  0.02075  0.006896  -0.03152  0.502  -0.5556
6.55e+09  -0.6835  -0.3724  -0.009393  -0.01304  0.03376  0.03973  0.2818  -0.6831
