# Hz S RI R 50
6.25e+09  -0.6404  0.6176  -0.01937  0.001494  -0.005586  0.03809  0.1328  0.4679
6.251e+09  -0.4032  0.7971  -0.01045  -0.02585  -0.05603  0.01259  0.3575  0.382
6.252e+09  -0.07663  0.8782  0.01497  -0.02108  0.01373  0.009524  0.5265  0.2336
6.254e+09  0.1945  0.8405  -0.01119  0.01693  0.01935  -0.008886  0.6032  0.02737
6.255e+09  0.4631  0.6726  0.03915  -0.02731  0.06093  0.02299  0.6202  -0.2042
6.256e+09  0.6359  0.5183  -0.01242  0.01215  -0.0152  0.02765  0.4853  -0.4495
6.258e+09  0.7827  0.24  -0.01634  0.0006242  -0.009512  -0.04418  0.3249  -0.6151
6.259e+09  0.8374  -0.0498  -0.007971  0.01133  0.003365  0.003121  0.0693  -0.6709
6.26e+09  0.7624  -0.3554  -0.0007995  0.01322  -0.04273  -0.0003821  -0.2089  -0.6296
6.261e+09  0.5641  -0.6371  -0.01811  -0.01726  0.04071  -0.002944  -0.452  -0.5467
6.262e+09  0.3869  -0.8597  0.01083  -0.01901  -0.04391  -0.005813  -0.6143  -0.3235
6.264e+09  0.05984  -0.8938  -0.0005356  -0.008978  0.07518  0.06486  -0.7041  -0.12
6.265e+09  -0.2336  -0.8747  0.006798  0.004996  -0.07257  0.0137  -0.7153  0.1738
6.266e+09  -0.4855  -0.6221  -0.03014  0.006499  0.03721  -0.02064  -0.6234  0.3884
6.268e+09  -0.7321  -0.4584  0.009366  -0.001874  0.008318  -0.01213  -0.4474  0.5875
6.269e+09  -0.7917  -0.2655  -0.009113  -0.01413  0.0008345  -0.007445  -0.1871  0.6766
6.27e+09  -0.857  0.09017  0.01471  0.01112  -0.0008706  -0.01204  0.06796  0.7292
6.271e+09  -0.7153  0.3462  -0.02376  0.02133  -0.005578  -0.02469  0.3183  0.6682
6.272e+09  -0.5692  0.5621  -0.01574  0.01913  -0.003597  0.02736  0.5285  0.5354
6.274e+09  -0.3805  0.7514  0.001445  -0.01221  0.01394  0.026  0.7126  0.3176
6.275e+09  -0.04781  0.8429  0.02252  -0.005202  0.03027  0.003895  0.7702  0.0858
6.276e+09  0.1792  0.8347  -0.01527  -0.00115  0.02713  0.01598  0.739  -0.2442
6.278e+09  0.451  0.6715  0.005025  -0.003996  0.04427  -0.007155  0.5865  -0.4499
6.279e+09  0.6837  0.4733  -0.007468  0.002648  -0.01363  0.007646  0.4147  -0.664
6.28e+09  0.7906  0.1837  -0.002973  1.023e-05  -0.021  0.02487  0.1763  -0.7639
6.281e+09  0.7964  -0.1595  0.01105  0.01563  0.04292  -0.01092  -0.08148  -0.7601
6.282e+09  0.7665  -0.3637  0.02039  -0.002368  0.01039  0.02454  -0.3583  -0.6848
6.284e+09  0.5825  -0.5922  -0.00158  -0.008787  0.006838  -0.01117  -0.5715  -0.5365
6.285e+09  0.3326  -0.7645  -0.03186  -0.008936  -0.005232  -0.004949  -0.749  -0.2979
6.286e+09  0.04476  -0.8114  -0.003427  -0.006262  -0.0545  -0.03044  -0.7562  0.005648
6.288e+09  -0.2798  -0.805  0.02241  0.02061  -0.02182  -0.009975  -0.7754  0.2561
6.289e+09  -0.4386  -0.6927  0.02101  0.01637  0.02593  -0.008364  -0.6011  0.5275
6.29e+09  -0.6808  -0.4368  -0.003284  0.01492  -0.04347  -0.006216  -0.3861  0.6885
6.291e+09  -0.826  -0.2027  -0.01137  0.01921  0.05879  -0.006668  -0.1525  0.7731
6.292e+09  -0.8159  0.108  0.001175  -0.01757  0.01142  -0.002395  0.0954  0.8203
6.294e+09  -0.8054  0.3787  0.01352  0.001146  -0.02375  0.006102  0.4196  0.6873
6.295e+09  -0.576  0.5746  0.004473  0.02661  -0.009346  0.02224  0.6478  0.5286
6.296e+09  -0.3046  0.7534  0.008482  0.01707  0.01374  0.02916  0.7683  0.2913
6.298e+09  -0.0632  0.8466  -0.02765  0.01558  0.02543  0.003818  0.8482  0.03019
6.299e+09  0.2954  0.82  -0.002609  -0.005473  -0.02593  0.00545  0.779  -0.3141
6.3e+09  0.5114  0.5941  -0.02236  0.009029  0.02413  0.0557  0.6747  -0.5309
6.301e+09  0.7478  0.4362  -0.02825  -0.01616  -0.02565  -0.07669  0.4157  -0.7431
6.302e+09  0.793  0.1818  0.002633  0.01679  -0.02768  -0.01507  0.1394  -0.8094
6.304e+09  0.8136  -0.1367  -0.0022  -0.01038  -0.01911  0.01974  -0.1405  -0.8349
6.305e+09  0.7513  -0.4037  -0.02886  -0.005579  0.003484  -0.04699  -0.406  -0.74
6.306e+09  0.5266  -0.6727  -0.02153  0.01379  0.02527  -0.0576  -0.6361  -0.5543
6.308e+09  0.3482  -0.7705  -0.003217  0.0166  0.01738  -0.02427  -0.7925  -0.3137
6.309e+09  -0.01736  -0.8397  -0.04065  -0.003433  -0.02658  -0.00997  -0.8376  -0.05322
6.31e+09  -0.2787  -0.7556  0.006246  0.01025  0.03336  0.009244  -0.7955  0.2917
6.311e+09  -0.5199  -0.6531  -0.02726  -0.0005084  0.009766  -0.004643  -0.6533  0.57
6.312e+09  -0.7086  -0.3926  0.04655  0.001052  -0.05338  -0.01502  -0.4854  0.7837
6.314e+09  -0.8301  -0.1336  0.00695  -0.01645  0.03288  0.004119  -0.1632  0.8705
6.315e+09  -0.8256  0.1573  7.385e-05  -0.0103  -0.000126  -0.02015  0.1432  0.8661
6.316e+09  -0.7274  0.468  0.004591  0.01055  -0.02834  0.03551  0.4517  0.7557
6.318e+09  -0.5113  0.6612  0.005516  0.009326  -0.01779  0.005185  0.6765  0.5443
6.319e+09  -0.2474  0.7899  -0.01108  0.0191  0.05738  -0.01426  0.8058  0.3436
6.32e+09  0.05542  0.854  0.01684  -0.006367  0.03023  -0.02572  0.8807  0.0208
6.321e+09  0.316  0.8412  0.0248  -0.01673  0.0366  0.02924  0.8337  -0.3123
6.322e+09  0.5996  0.5635  0.01748  0.01771  0.000279  0.01431  0.7061  -0.5586
6.324e+09  0.7742  0.4046  -0.007192  -0.006726  -0.0312  -0.06123  0.4608  -0.7752
6.325e+09  0.8345  0.09493  -1.123e-05  -0.009552  -0.01135  0.01462  0.2185  -0.8717
6.326e+09  0.8096  -0.1996  -0.02568  0.002849  0.04183  0.03254  -0.1706  -0.91
6.328e+09  0.7145  -0.5067  -0.004709  -0.008696  -0.02341  -0.03178  -0.395  -0.8066
6.329e+09  0.494  -0.6977  -0.0114  -0.02596  -0.04169  0.01151  -0.6661  -0.6411
6.33e+09  0.1465  -0.8814  -0.04961  0.002688  -0.01473  0.001137  -0.8011  -0.3085
6.331e+09  -0.08196  -0.8824  -0.004232  0.008233  -0.02717  0.01865  -0.9281  -0.01521
6.332e+09  -0.3667  -0.8529  -0.0219  0.001165  0.003977  0.01067  -0.8711  0.2834
6.334e+09  -0.6156  -0.5804  -0.008428  0.01995  -0.05923  0.001336  -0.7251  0.5509
6.335e+09  -0.7864  -0.3739  0.006661  -0.01737  0.001783  -0.01227  -0.4925  0.7514
6.336e+09  -0.8323  -0.0313  0.02466  -0.03491  -0.01164  -0.02744  -0.1671  0.8993
6.338e+09  -0.8195  0.2728  -0.008673  0.01002  -0.007117  -0.01732  0.119  0.8834
6.339e+09  -0.691  0.5252  -0.02491  -0.0207  0.002937  -0.03985  0.4396  0.8179
6.34e+09  -0.4793  0.756  -0.02116  0.02087  -0.01023  0.0329  0.661  0.6287
6.341e+09  -0.1269  0.8345  -0.02565  -0.002617  0.01203  0.00302  0.8606  0.3613
6.342e+09  0.128  0.8566  -0.0212  0.03896  -0.02652  0.001904  0.9311  0.03505
6.344e+09  0.3845  0.716  0.03878  -0.02217  -0.04762  -0.03434  0.8575  -0.2612
6.345e+09  0.6463  0.5266  -0.01394  -0.0225  -0.005079  0.03074  0.7334  -0.5963
6.346e+09  0.8379  0.2777  0.002861  -0.000186  0.03319  0.04379  0.4911  -0.784
6.348e+09  0.9048  -0.06596  0.01973  -0.00114  0.02019  -0.004926  0.2303  -0.957
6.349e+09  0.8135  -0.3266  -0.01326  0.03004  0.0271  0.03405  -0.1406  -0.9435
6.35e+09  0.6236  -0.6127  -0.002227  -0.01924  0.02053  0.02734  -0.4252  -0.8211
6.351e+09  0.4624  -0.805  -0.003796  -0.00382  -0.00737  0.02049  -0.6861  -0.6386
6.352e+09  0.09766  -0.8792  0.03032  0.01157  0.004269  0.01211  -0.8888  -0.3448
6.354e+09  -0.2472  -0.8127  0.01503  -0.01016  0.04512  0.02262  -0.9533  -0.07204
6.355e+09  -0.5044  -0.761  -0.004292  0.02444  0.003263  -0.03357  -0.942  0.2314
6.356e+09  -0.7015  -0.5275  0.01906  0.008728  -0.01882  -0.05227  -0.7394  0.5543
6.358e+09  -0.8201  -0.2039  -0.007588  -0.007197  -0.007771  -0.01551  -0.5503  0.8128
6.359e+09  -0.8753  0.1135  0.03183  -0.001388  0.00967  -0.03722  -0.2272  0.9274
6.36e+09  -0.8347  0.381  -0.01997  -0.008193  -0.01986  0.01736  0.05551  0.9583
6.361e+09  -0.6016  0.687  0.007507  0.04191  -0.01183  0.003976  0.4321  0.8661
6.362e+09  -0.3671  0.8249  0.01658  0.0006324  0.006625  0.02352  0.6986  0.6583
6.364e+09  -0.06511  0.8895  -0.02933  0.01241  0.0207  0.01837  0.8771  0.3825
6.365e+09  0.2883  0.8619  0.04956  0.04291  0.02196  0.02349  0.9324  0.09325
6.366e+09  0.553  0.6787  -0.03559  0.004022  -0.05309  -0.01036  0.9079  -0.2236
6.368e+09  0.7444  0.4845  0.01225  0.008555  0.00374  -0.00247  0.7802  -0.54
6.369e+09  0.8609  0.1686  -0.001677  0.01275  -0.02893  0.008942  0.5567  -0.7624
6.37e+09  0.8767  -0.1457  -0.01376  0.007839  0.008202  0.03432  0.222  -0.8972
6.371e+09  0.7712  -0.4389  0.01786  0.02346  -0.02486  -0.032  -0.08169  -0.9283
6.372e+09  0.5879  -0.6505  0.05099  0.02878  0.01395  0.02746  -0.4066  -0.8567
6.374e+09  0.3391  -0.8405  0.01466  0.007556  0.01528  0.02517  -0.6278  -0.6757
6.375e+09  0.01282  -0.9004  -0.008508  -0.01097  0.04705  -0.02322  -0.8368  -0.4432
6.376e+09  -0.3049  -0.8391  0.003036  -0.0071  -0.04148  0.0286  -0.9391  -0.1073
6.378e+09  -0.6088  -0.6629  0.005479  -0.009036  0.02285  0.02955  -0.87  0.1959
6.379e+09  -0.7784  -0.4399  -0.02543  0.05683  -0.01833  0.01599  -0.7708  0.5035
6.38e+09  -0.8471  -0.09977  0.01561  -0.001546  -0.01968  0.03535  -0.5321  0.7763
6.381e+09  -0.8307  0.1822  -0.01531  -0.0069  0.01895  0.00152  -0.2954  0.9488
6.382e+09  -0.7724  0.4673  -0.03757  0.001387  -0.004224  0.008895  0.06057  0.9586
6.384e+09  -0.5828  0.75  -0.02139  -0.02088  0.004663  -0.01117  0.3691  0.8709
6.385e+09  -0.2919  0.8378  -0.0148  0.009452  -0.01614  0.02605  0.7125  0.6797
6.386e+09  0.03677  0.8818  -0.03269  -0.004775  -0.004795  0.03252  0.8676  0.4248
6.388e+09  0.3267  0.8033  0.02541  0.02261  -0.03885  -0.03061  0.931  0.1323
6.389e+09  0.5785  0.6631  -0.0152  -0.008659  -0.001911  -0.008277  0.9009  -0.1581
6.39e+09  0.8274  0.3867  -0.01099  -0.02322  0.01526  -0.02721  0.7669  -0.5064
6.391e+09  0.8949  0.07975  -0.01997  -0.01227  -0.01577  -0.006833  0.5403  -0.7042
6.392e+09  0.8612  -0.2169  0.03504  -0.02115  0.01283  0.005129  0.3061  -0.8792
6.394e+09  0.7203  -0.5019  0.003271  -0.02543  0.005668  -0.007734  -0.02951  -0.9213
6.395e+09  0.5123  -0.7304  -0.002579  -0.00668  -0.02148  0.01374  -0.3355  -0.8592
6.396e+09  0.1801  -0.8997  -0.01214  -0.02694  0.009203  -0.03713  -0.5807  -0.6875
6.398e+09  -0.0853  -0.9095  0.0212  0.006579  -0.01396  0.03978  -0.8566  -0.4225
6.399e+09  -0.4176  -0.744  0.03138  -0.003419  -0.01277  0.01712  -0.9454  -0.1177
6.4e+09  -0.6608  -0.5955  -0.0357  -0.03246  0.02102  0.01178  -0.8907  0.16
6.401e+09  -0.8169  -0.3318  -0.007545  0.007021  -0.01484  -0.0006814  -0.7907  0.4641
6.402e+09  -0.8698  -0.07825  -0.01383  0.01286  -0.04769  -0.0499  -0.5788  0.7393
6.404e+09  -0.7891  0.3108  -0.02092  0.008808  0.0124  0.03095  -0.299  0.8666
6.405e+09  -0.6958  0.5442  0.01637  0.00337  -0.01273  -0.02385  0.006971  0.9304
6.406e+09  -0.4475  0.7858  0.03261  0.00797  -0.03132  -0.004834  0.3457  0.9037
6.408e+09  -0.1686  0.9403  -0.0484  -0.008741  0.01625  -0.01758  0.5557  0.6681
6.409e+09  0.1608  0.8584  0.01233  -0.006079  0.0022  0.03528  0.7868  0.5145
6.41e+09  0.3841  0.7941  0.0006407  0.01798  0.008225  0.006727  0.9218  0.1175
6.411e+09  0.6556  0.6553  0.01912  -0.03865  -0.04705  0.008562  0.9635  -0.101
6.412e+09  0.8034  0.3251  0.03381  -0.01837  0.02034  0.008757  0.8079  -0.4257
6.414e+09  0.8908  0.04675  0.02297  -0.03568  0.01032  0.04454  0.5504  -0.6792
6.415e+09  0.8007  -0.2594  -0.006316  -0.01602  -0.03771  -0.005907  0.3178  -0.861
6.416e+09  0.6728  -0.5233  0.02856  0.01066  0.009247  0.02478  0.02603  -0.8708
6.418e+09  0.4353  -0.8048  -0.003879  0.04521  -0.02846  -0.03161  -0.3161  -0.8133
6.419e+09  0.151  -0.8645  0.04741  0.008462  -0.01516  0.04534  -0.5661  -0.655
6.42e+09  -0.1091  -0.8478  -0.01376  0.009254  -0.06346  0.001549  -0.7818  -0.4618
6.421e+09  -0.4706  -0.7877  -0.02902  -0.01703  -0.001316  -0.01425  -0.8424  -0.2
6.422e+09  -0.7097  -0.5536  0.04282  -0.02192  0.0001102  -0.02707  -0.8928  0.1186
6.424e+09  -0.81  -0.2939  0.02547  -0.002941  -0.0171  0.0005676  -0.7729  0.3848
6.425e+09  -0.9108  0.03685  -0.01493  -0.048  -0.02941  0.0168  -0.5788  0.69
6.426e+09  -0.8583  0.2753  0.01395  -0.02089  0.01428  0.02383  -0.3621  0.8042
6.428e+09  -0.6385  0.5956  -0.04827  -0.03366  -0.006749  0.008969  -0.03342  0.8698
6.429e+09  -0.4033  0.7617  0.000758  0.01674  -0.003936  0.004386  0.2805  0.8581
6.43e+09  -0.1195  0.8785  -0.01274  -0.02994  -0.03745  -0.02658  0.5409  0.6867
6.431e+09  0.232  0.8353  -0.01206  0.002212  -0.003927  -0.006435  0.7675  0.482
6.432e+09  0.4148  0.7459  -0.01326  -0.0007411  -0.0228  -0.02078  0.8338  0.1883
6.434e+09  0.6528  0.5412  0.02477  0.03312  0.01307  -0.03098  0.8264  -0.1121
6.435e+09  0.829  0.2337  -0.01015  0.01195  -0.03119  -0.001031  0.7812  -0.3703
6.436e+09  0.8871  -0.0007704  -0.008511  0.007073  -0.02184  0.01963  0.6344  -0.5961
6.438e+09  0.7585  -0.3442  0.03569  0.01267  0.009579  -0.00987  0.3471  -0.805
6.439e+09  0.6786  -0.5864  -0.01178  -0.01541  0.03211  -0.005019  0.08176  -0.839
6.44e+09  0.4049  -0.786  -0.01862  0.004432  0.006389  0.03194  -0.2413  -0.8263
6.441e+09  0.1756  -0.8697  0.04353  -0.01845  0.07792  0.04193  -0.5473  -0.7094
6.442e+09  -0.1715  -0.8923  -0.01962  -0.01564  0.04514  0.003561  -0.7018  -0.4961
6.444e+09  -0.4087  -0.7189  -0.007527  0.04577  -0.0009961  0.02336  -0.8573  -0.2317
6.445e+09  -0.6786  -0.5381  -0.0172  -0.0177  -0.01068  -0.03615  -0.8571  0.1137
6.446e+09  -0.8615  -0.3099  -0.01002  0.001573  0.03692  -0.02399  -0.775  0.3789
6.448e+09  -0.8521  0.04357  0.01346  0.004772  -0.03292  0.06284  -0.5924  0.5795
6.449e+09  -0.7423  0.3322  -0.01389  -0.001778  0.03217  -0.01109  -0.3572  0.7565
6.45e+09  -0.6436  0.5652  -0.002054  -0.0236  0.0004851  0.007788  -0.132  0.8584
6.451e+09  -0.4037  0.7938  0.01213  0.005  -0.02318  -0.01885  0.2171  0.7761
6.452e+09  -0.119  0.8531  -0.02408  0.005195  0.006017  0.05035  0.44  0.6596
6.454e+09  0.1765  0.885  -0.01404  0.01095  -0.0006697  0.006208  0.6697  0.4153
6.455e+09  0.4836  0.7308  -0.005633  -0.01651  0.07779  0.02578  0.8022  0.2126
6.456e+09  0.7057  0.5078  -0.0105  0.01118  -0.008816  0.00238  0.8508  -0.0586
6.458e+09  0.8576  0.2872  -0.0527  -0.03847  0.007082  -0.004566  0.7476  -0.3449
6.459e+09  0.9021  -0.05207  0.007547  -0.001817  -0.0004965  -0.03161  0.572  -0.5558
6.46e+09  0.7988  -0.3642  0.02559  0.03025  0.003334  -0.0003579  0.3437  -0.7602
6.461e+09  0.6655  -0.5654  0.01057  -0.006127  0.04337  0.03034  0.03947  -0.8224
6.462e+09  0.4332  -0.7708  0.01829  0.005662  0.01906  0.02692  -0.1845  -0.7195
6.464e+09  0.05015  -0.8441  0.004778  -0.008765  -0.03642  0.008869  -0.4487  -0.6919
6.465e+09  -0.199  -0.8426  0.0173  -0.004804  0.0158  0.006212  -0.6778  -0.4464
6.466e+09  -0.4653  -0.6787  0.03996  -0.02297  0.02674  -0.01272  -0.7798  -0.1683
6.468e+09  -0.7128  -0.6007  0.006274  -0.01709  0.01793  -0.008944  -0.8038  0.06187
6.469e+09  -0.8505  -0.2558  0.002749  0.004045  0.001059  -0.03065  -0.7112  0.3393
6.47e+09  -0.8482  0.03779  -0.01122  0.0356  0.02941  0.03599  -0.526  0.5414
6.471e+09  -0.8575  0.3796  -0.02102  -0.0393  0.01479  0.06089  -0.3379  0.7069
6.472e+09  -0.5865  0.6029  0.006382  0.02239  -0.00538  0.008491  -0.06691  0.7663
6.474e+09  -0.4261  0.7611  -0.01377  0.03505  -0.03186  -0.007472  0.2062  0.7505
6.475e+09  -0.1004  0.9094  -0.01206  -0.03088  -0.02732  -0.009847  0.4431  0.6251
6.476e+09  0.2427  0.8915  -0.01248  0.01989  0.02104  -0.005292  0.6717  0.4679
6.478e+09  0.4664  0.6945  0.007807  -2.04e-05  -0.03223  0.03043  0.7702  0.1961
6.479e+09  0.7134  0.5237  -0.04077  -0.01024  0.03134  0.01242  0.7765  -0.06113
6.48e+09  0.8635  0.2814  -0.006831  0.008405  0.0002782  -0.007823  0.7316  -0.3586
6.481e+09  0.9029  -0.06112  0.001281  0.03238  0.02235  -0.04152  0.5164  -0.5622
6.482e+09  0.838  -0.4061  0.0255  0.03078  -0.0479  0.00482  0.286  -0.7511
6.484e+09  0.6152  -0.6208  -0.01927  -0.04092  -0.007345  -0.01536  0.07414  -0.7786
6.485e+09  0.3573  -0.7962  -0.009104  -0.01315  0.01083  -0.00869  -0.2181  -0.7147
6.486e+09  0.08658  -0.9131  0.009849  0.009015  0.02231  -0.03593  -0.47  -0.6542
6.488e+09  -0.2362  -0.8954  -0.004825  -0.00983  -0.008506  -0.05771  -0.6711  -0.4461
6.489e+09  -0.5049  -0.7476  -0.01528  0.00795  -0.0008821  -0.02201  -0.7742  -0.2052
6.49e+09  -0.7266  -0.4942  -0.001904  -0.01531  0.03567  -0.008173  -0.7565  0.07267
6.491e+09  -0.8678  -0.2355  -0.01676  0.0234  0.007907  0.03802  -0.7019  0.3336
6.492e+09  -0.852  0.06692  -0.009269  0.02556  -0.0008928  0.01682  -0.5432  0.5315
6.494e+09  -0.7921  0.3631  -0.02153  -0.02678  0.01389  -0.01629  -0.2879  0.7189
6.495e+09  -0.5858  0.6163  -0.02441  0.0182  0.006519  -0.02593  -0.04013  0.7563
6.496e+09  -0.3589  0.8474  0.001739  0.02147  -0.0132  0.03728  0.217  0.7705
6.498e+09  -0.0597  0.9518  0.02198  -0.06341  -0.00179  -0.04975  0.4379  0.6454
6.499e+09  0.2812  0.8649  0.006672  -0.0439  0.000107  0.02832  0.6615  0.3703
6.5e+09  0.5611  0.7209  0.03046  -0.03079  -0.04813  -0.02975  0.7699  0.1626
6.501e+09  0.7672  0.4828  -0.03813  0.006805  -0.003844  0.02884  0.7679  -0.1244
6.502e+09  0.9228  0.1707  -0.01888  -0.01648  -0.05069  -0.02335  0.6568  -0.3419
6.504e+09  0.8719  -0.127  -0.02586  0.02939  -0.001787  -0.05293  0.542  -0.5647
6.505e+09  0.8438  -0.4086  -0.006604  -0.02602  -0.002431  -0.06558  0.2442  -0.7371
6.506e+09  0.6107  -0.6574  0.01467  0.03842  -0.0509  -0.03795  0.000806  -0.7711
6.508e+09  0.3565  -0.8584  0.0007478  -0.004467  -0.04924  -0.02837  -0.242  -0.7062
6.509e+09  0.08279  -0.8844  0.01606  0.01429  -0.02767  0.005307  -0.4534  -0.5651
6.51e+09  -0.264  -0.8942  -0.004665  -0.03526  -0.01308  0.0295  -0.6324  -0.3455
6.511e+09  -0.5832  -0.7181  0.02099  0.02445  0.03149  0.01429  -0.7341  -0.1421
6.512e+09  -0.8198  -0.5063  0.009882  0.03869  -0.06132  -0.002357  -0.7341  0.1404
6.514e+09  -0.9161  -0.2185  -0.02343  -0.03685  -0.004033  0.009363  -0.6133  0.4011
6.515e+09  -0.8966  0.1396  0.003113  0.02445  0.05876  -0.01374  -0.4626  0.5693
6.516e+09  -0.855  0.4299  -0.02344  -0.02773  -0.01841  0.03909  -0.2284  0.6936
6.518e+09  -0.6188  0.7468  0.01867  -0.01096  -0.01733  0.004307  0.006022  0.7643
6.519e+09  -0.2983  0.8468  -0.009963  -0.01069  -0.005147  0.03262  0.2569  0.6965
6.52e+09  0.00962  0.9622  -0.01551  0.004944  -0.04292  -0.000849  0.4693  0.5815
6.521e+09  0.2915  0.8816  -0.01323  -0.01536  -0.004618  -0.008524  0.6862  0.3294
6.522e+09  0.5971  0.7317  -0.03407  0.001609  0.0301  -0.02946  0.7663  0.08811
6.524e+09  0.8363  0.4966  -0.02134  0.01141  0.002957  -0.01626  0.7326  -0.1726
6.525e+09  0.9587  0.1917  0.04793  -0.01361  0.04507  -0.002924  0.6015  -0.3714
6.526e+09  0.9527  -0.2293  -0.01094  0.004376  0.01493  -0.03558  0.3905  -0.5639
6.528e+09  0.8369  -0.5172  -0.01058  -0.01873  -0.01165  -0.01952  0.1906  -0.6828
6.529e+09  0.599  -0.732  -0.01036  -0.004412  -0.006712  -0.00688  -0.03796  -0.6698
6.53e+09  0.315  -0.9646  0.0144  -0.01284  0.01197  0.02886  -0.3191  -0.6452
6.531e+09  -0.05227  -0.98  0.01126  -0.002286  0.02029  0.002088  -0.4879  -0.4664
6.532e+09  -0.3669  -0.869  -0.001831  0.03521  -0.001932  0.01274  -0.5828  -0.283
6.534e+09  -0.6534  -0.7564  0.002532  0.002065  -0.03099  0.02476  -0.6385  -0.07197
6.535e+09  -0.8796  -0.4826  -0.02025  -0.03801  0.0142  -0.02376  -0.6312  0.1027
6.536e+09  -0.9271  -0.1303  0.02235  -0.01582  0.01314  0.02189  -0.57  0.2738
6.538e+09  -0.9675  0.2238  0.02907  -0.01652  -0.03956  0.0001353  -0.4727  0.466
6.539e+09  -0.8067  0.5036  -0.01381  -0.01254  -0.02355  -0.00915  -0.2872  0.6013
6.54e+09  -0.5225  0.7508  -0.03721  0.03003  -0.001353  0.007014  -0.04202  0.662
6.541e+09  -0.2878  0.9548  -0.001146  0.01225  0.008847  0.03257  0.1674  0.6706
6.542e+09  0.09253  0.9556  0.02995  0.01289  0.01867  0.0003286  0.4  0.5548
6.544e+09  0.4318  0.8367  0.002279  -0.004124  0.007409  0.009937  0.6004  0.4082
6.545e+09  0.7307  0.6871  -0.055  0.019  0.02452  -0.05064  0.6602  0.172
6.546e+09  0.9122  0.3712  0.005492  0.03391  -0.02512  -0.02077  0.7364  -0.0722
6.548e+09  0.9337  0.01773  0.006325  0.01045  -0.02338  0.03558  0.6316  -0.3022
6.549e+09  0.9424  -0.3184  0.006095  -0.01239  -0.02717  0.008875  0.5167  -0.5688
6.55e+09  0.8117  -0.6305  -0.0195  -0.0177  -0.0363  -0.05463  0.3039  -0.6356
