# Hz S RI R 50
6.25e+09  -0.4848  0.8157  -0.04183  0.006461  -0.09565  -0.008269  0.1556  0.4748
6.251e+09  -0.1313  0.85  0.003395  -0.003353  -0.03537  0.02191  0.3568  0.3855
6.252e+09  0.1742  0.8372  -0.02009  0.004837  0.01613  0.01427  0.5215  0.2283
6.254e+09  0.4239  0.7201  0.02474  -0.005156  0.03728  0.03199  0.6104  -0.0001729
6.255e+09  0.6597  0.5514  0.0006334  0.005752  -0.04088  0.01872  0.5697  -0.2086
6.256e+09  0.8352  0.2716  0.007757  0.02696  0.003637  -0.05313  0.4906  -0.4581
6.258e+09  0.8508  -0.01527  -0.01127  -0.05706  0.001271  -0.02677  0.2665  -0.5807
6.259e+09  0.793  -0.3101  0.001908  0.008605  0.0133  0.04112  0.01919  -0.6671
6.26e+09  0.6265  -0.5176  -0.01216  -0.03377  0.02394  0.03948  -0.1971  -0.6535
6.261e+09  0.4082  -0.7779  0.006026  0.009609  -0.01959  -0.04169  -0.4478  -0.536
6.262e+09  0.1185  -0.8316  8.733e-05  -0.02776  0.02903  -0.005532  -0.5915  -0.3393
6.264e+09  -0.1764  -0.8005  -0.007786  -0.007331  0.01393  -0.0281  -0.7022  -0.08972
6.265e+09  -0.4545  -0.6573  -0.01343  -0.02325  -0.02004  0.009523  -0.6794  0.1608
6.266e+09  -0.6787  -0.5336  0.01237  -0.02859  0.0002942  -0.02884  -0.6004  0.4065
6.268e+09  -0.7391  -0.2086  -0.01002  -0.01666  -0.01132  0.01081  -0.4309  0.6333
6.269e+09  -0.8115  0.0536  0.02285  -0.01575  -0.01848  0.03687  -0.217  0.7057
6.27e+09  -0.7491  0.3094  -0.01125  -0.009991  -0.03077  -0.02884  0.05958  0.7063
6.271e+09  -0.6505  0.5808  0.007412  -0.004676  0.01525  0.01656  0.3345  0.669
6.272e+09  -0.3538  0.7415  -0.01804  0.02406  0.006465  -0.0649  0.5324  0.5452
6.274e+09  -0.06983  0.8486  -0.01966  -0.01527  0.0147  -0.004383  0.6956  0.3008
6.275e+09  0.1585  0.8063  -0.02652  -0.01456  -0.04327  -0.02939  0.7818  0.01875
6.276e+09  0.4486  0.6799  0.01273  -0.0241  -0.00838  -0.02961  0.7246  -0.2236
6.278e+09  0.6932  0.4905  -0.01821  0.01417  0.02517  -0.03209  0.6201  -0.4428
6.279e+09  0.812  0.2471  -0.0006858  -0.01894  0.03293  0.001265  0.4197  -0.6537
6.28e+09  0.8373  -0.000609  -0.01427  0.009612  0.02099  0.04936  0.1289  -0.7603
6.281e+09  0.747  -0.3246  0.01762  0.008503  -0.03992  -0.02609  -0.1011  -0.7556
6.282e+09  0.6437  -0.5286  -0.02606  0.02987  -0.0002819  0.004352  -0.3514  -0.7067
6.284e+09  0.3217  -0.766  -0.001858  0.01934  -0.02189  -0.05325  -0.581  -0.5272
6.285e+09  0.07143  -0.8634  0.0002811  -0.007462  0.03691  0.02503  -0.7654  -0.2768
6.286e+09  -0.2016  -0.8047  0.01485  -0.01748  -0.004611  0.03258  -0.8231  -0.03234
6.288e+09  -0.4995  -0.6921  0.004939  0.002806  -0.0008151  -0.05875  -0.7771  0.2816
6.289e+09  -0.644  -0.4621  -0.01792  -0.01558  -0.05076  0.02489  -0.6308  0.5008
6.29e+09  -0.7963  -0.196  -0.007408  0.02251  0.007834  0.05985  -0.4176  0.6869
6.291e+09  -0.8489  0.04697  0.02905  -0.01174  -0.007449  0.03704  -0.1378  0.7781
6.292e+09  -0.7597  0.3571  0.001304  0.0001373  0.006307  0.02787  0.1231  0.8006
6.294e+09  -0.5954  0.5622  -0.0222  0.02045  -0.03207  -0.04112  0.3741  0.7267
6.295e+09  -0.3498  0.745  -0.002592  -0.0007596  0.004645  -0.03896  0.5876  0.5126
6.296e+09  -0.05827  0.8713  0.02962  -0.008474  -0.005784  0.03278  0.7982  0.2925
6.298e+09  0.244  0.7859  0.01714  0.002303  -0.0006852  0.002981  0.8451  0.01627
6.299e+09  0.4275  0.6761  0.02022  -0.01249  -0.007613  0.03717  0.812  -0.3004
6.3e+09  0.7033  0.4616  -0.03355  -0.007536  0.008961  -0.05893  0.6513  -0.5777
6.301e+09  0.8313  0.1427  0.009263  -0.01495  -0.04424  0.05556  0.4364  -0.7337
6.302e+09  0.8639  -0.1289  -0.009005  0.04123  0.03409  -0.01764  0.1209  -0.8297
6.304e+09  0.7373  -0.3751  -0.007054  -0.00722  0.02189  0.01916  -0.1341  -0.881
6.305e+09  0.5558  -0.6375  0.003503  0.002412  0.001729  0.0204  -0.4156  -0.7635
6.306e+09  0.3446  -0.7939  0.00405  -0.004331  0.03033  0.02596  -0.659  -0.545
6.308e+09  0.02971  -0.8366  -0.006279  0.007761  -0.04564  -0.004471  -0.8051  -0.2947
6.309e+09  -0.2728  -0.7551  0.01033  0.02592  -0.01898  0.01228  -0.8536  -0.01016
6.31e+09  -0.4663  -0.6688  -0.0259  -0.003475  -0.01851  0.009576  -0.7857  0.2969
6.311e+09  -0.708  -0.3791  -0.002436  0.03517  -0.001732  0.01589  -0.6577  0.5472
6.312e+09  -0.8802  -0.1859  -0.03079  0.009344  0.02775  0.02523  -0.4334  0.7017
6.314e+09  -0.832  0.128  -0.004751  0.01158  -0.02679  -0.001504  -0.1614  0.8741
6.315e+09  -0.6865  0.4544  0.02158  -0.0159  -0.01673  -0.009803  0.1679  0.8447
6.316e+09  -0.5617  0.6527  -0.01099  -0.00772  0.002521  0.0252  0.4437  0.7254
6.318e+09  -0.297  0.7896  0.005917  0.03494  0.03469  -0.0202  0.6678  0.5656
6.319e+09  0.01885  0.848  -0.0315  0.004019  0.02917  -0.07081  0.806  0.2929
6.32e+09  0.2665  0.7162  0.01861  -0.0306  -0.03598  0.06279  0.9019  0.03621
6.321e+09  0.5573  0.6104  0.02534  1.534e-05  -0.009225  -0.01565  0.8203  -0.3038
6.322e+09  0.7391  0.4188  0.01289  0.02237  0.001645  -0.004202  0.6904  -0.5831
6.324e+09  0.8304  0.1616  0.01651  0.0007356  0.02135  0.04763  0.4362  -0.7613
6.325e+09  0.8537  -0.1924  -0.004037  0.006924  0.03024  0.02532  0.1767  -0.8713
6.326e+09  0.6961  -0.4605  -0.02007  -0.01039  -0.01524  -0.01684  -0.1294  -0.8984
6.328e+09  0.5255  -0.6913  -0.03264  -0.00794  0.0139  -0.04476  -0.4527  -0.801
6.329e+09  0.2459  -0.8624  0.008277  0.002312  -0.03905  0.006416  -0.6468  -0.5943
6.33e+09  -0.04558  -0.8713  0.00507  0.02496  0.03405  0.02453  -0.8497  -0.3294
6.331e+09  -0.3309  -0.7986  -0.007255  -0.02249  0.01179  -0.03883  -0.9119  -0.02857
6.332e+09  -0.5467  -0.6111  -0.01923  -0.02723  0.00176  -0.03862  -0.851  0.2537
6.334e+09  -0.7654  -0.3754  -0.00448  0.02253  0.00848  0.006302  -0.7382  0.5522
6.335e+09  -0.8269  -0.07016  -0.01856  0.01178  -0.001145  0.002406  -0.4654  0.7531
6.336e+09  -0.8474  0.2458  0.003032  -0.007695  0.01467  0.04447  -0.1849  0.8895
6.338e+09  -0.7085  0.5017  0.0009289  0.02627  0.05194  0.008124  0.1251  0.8622
6.339e+09  -0.5146  0.7423  -0.01914  -0.02605  0.0006468  -0.06148  0.4214  0.8486
6.34e+09  -0.1754  0.8323  0.00605  -0.0123  0.03477  0.04499  0.6941  0.6292
6.341e+09  0.1158  0.8548  -0.02369  -0.02843  0.01866  -0.0369  0.8472  0.3827
6.342e+09  0.4091  0.7743  -0.01603  -0.0009693  -0.04498  0.007402  0.935  0.0751
6.344e+09  0.6449  0.5775  -0.008917  0.0166  0.02571  0.01241  0.8839  -0.2817
6.345e+09  0.8495  0.3229  0.00574  0.001183  -0.02214  0.0441  0.7275  -0.5459
6.346e+09  0.9109  0.04286  -0.03263  -0.005117  0.003419  0.001652  0.4875  -0.7798
6.348e+09  0.8568  -0.3407  -0.007279  0.01895  -0.0192  -0.01043  0.2146  -0.8865
6.349e+09  0.6913  -0.5343  -0.008569  0.008363  0.03221  0.02169  -0.08918  -0.8937
6.35e+09  0.4514  -0.823  -0.001973  -0.0005291  -0.02616  -0.0353  -0.4169  -0.8532
6.351e+09  0.1646  -0.8819  -0.00373  -0.0005609  -0.02145  -0.0157  -0.6829  -0.6076
6.352e+09  -0.179  -0.8452  -0.007895  -0.01972  0.05446  0.02609  -0.8696  -0.3958
6.354e+09  -0.4989  -0.7676  -0.0145  -0.02228  -0.02503  -0.00313  -0.9848  -0.08441
6.355e+09  -0.6715  -0.6092  -0.006778  0.0173  0.04238  -0.02107  -0.9114  0.255
6.356e+09  -0.836  -0.2426  -0.01215  -0.003195  0.01793  -0.008489  -0.7191  0.5077
6.358e+09  -0.8975  0.07101  0.04521  0.009413  -0.009857  0.03223  -0.5511  0.7838
6.359e+09  -0.8191  0.3472  -0.008682  0.02157  0.03699  -0.01342  -0.2289  0.8815
6.36e+09  -0.6884  0.6063  0.001791  -0.006621  -0.02518  -0.02697  0.1046  0.9769
6.361e+09  -0.3842  0.7858  0.0007992  -0.01304  0.03755  -0.028  0.3987  0.8563
6.362e+09  -0.06908  0.894  0.03524  -0.0009011  -0.01336  -0.05592  0.693  0.6769
6.364e+09  0.2627  0.8238  -0.003982  -0.01205  -0.02305  0.04875  0.8557  0.4117
6.365e+09  0.4914  0.7186  -0.003663  0.006879  -0.01023  -0.01377  0.9547  0.08624
6.366e+09  0.7047  0.5014  0.03568  -0.01085  -0.003066  -0.0111  0.8734  -0.2497
6.368e+09  0.8984  0.2174  -0.02074  -0.0138  0.03025  0.01744  0.7737  -0.5525
6.369e+09  0.8676  -0.1068  -0.02715  -0.03503  0.002377  -0.02329  0.5286  -0.7611
6.37e+09  0.7568  -0.3668  -0.01683  -0.008782  0.002349  -0.01248  0.2533  -0.9041
6.371e+09  0.6548  -0.6407  -0.0135  0.009662  -0.01756  -0.0264  -0.06088  -0.9691
6.372e+09  0.33  -0.7574  0.001006  0.002391  -0.0176  0.03933  -0.3865  -0.856
6.374e+09  0.02361  -0.8917  0.04339  -0.009054  -0.005325  -0.03105  -0.6639  -0.6424
6.375e+09  -0.2646  -0.8088  0.01243  -0.05369  0.06804  0.02356  -0.8572  -0.3758
6.376e+09  -0.5459  -0.7227  -0.02837  0.009525  -0.03265  -0.03175  -0.934  -0.06878
6.378e+09  -0.7644  -0.4746  -0.01255  0.01214  0.01864  0.01938  -0.9308  0.248
6.379e+09  -0.8844  -0.1723  0.00458  -0.02166  0.01753  -0.04463  -0.7846  0.5555
6.38e+09  -0.8425  0.1507  -0.03387  -0.02946  -0.02792  0.03599  -0.5994  0.7959
6.381e+09  -0.7556  0.425  -0.01815  0.02958  0.003583  0.008921  -0.2554  0.9437
6.382e+09  -0.5628  0.6802  -0.005975  0.0016  -0.00234  0.03361  0.02579  0.9447
6.384e+09  -0.3299  0.8344  -0.01969  0.03134  0.04181  -0.00423  0.3455  0.8789
6.385e+09  -0.007953  0.8651  0.01087  0.003659  0.008553  -0.04112  0.6314  0.6936
6.386e+09  0.3169  0.8473  -0.01694  0.008153  0.01106  -0.02786  0.8486  0.4072
6.388e+09  0.6229  0.6779  -0.01017  0.0001709  0.001773  -0.01459  0.9281  0.136
6.389e+09  0.7751  0.4446  -0.03537  -0.04933  -0.01574  0.02008  0.9258  -0.2046
6.39e+09  0.8708  0.1943  -0.03288  -0.01135  -0.02894  0.02936  0.7454  -0.5466
6.391e+09  0.8898  -0.1705  0.01007  0.01598  0.008456  -0.02693  0.5951  -0.7319
6.392e+09  0.7211  -0.4358  -0.01997  0.006874  -0.001158  0.01352  0.3045  -0.9336
6.394e+09  0.5124  -0.7244  0.01174  0.0001116  -0.006185  -0.01275  -0.03404  -0.8939
6.395e+09  0.2898  -0.8582  0.03448  -0.03384  -0.06016  0.007031  -0.3297  -0.8139
6.396e+09  -0.03283  -0.894  -0.01314  -0.03441  0.002215  -0.007812  -0.6376  -0.6767
6.398e+09  -0.3469  -0.7506  -0.01509  -0.04791  0.003162  -0.009392  -0.8279  -0.4211
6.399e+09  -0.5709  -0.6321  -0.02144  -0.03278  0.01442  0.02648  -0.8991  -0.1527
6.4e+09  -0.8489  -0.3979  -0.006399  0.01182  -0.02594  0.04502  -0.8815  0.1565
6.401e+09  -0.8781  -0.04281  0.03361  0.009173  -0.01014  0.01153  -0.8312  0.4806
6.402e+09  -0.8028  0.164  0.005893  -0.01257  0.03894  -0.02093  -0.6076  0.7285
6.404e+09  -0.7319  0.456  -0.001622  -0.05002  0.01494  0.05658  -0.3027  0.8461
6.405e+09  -0.5285  0.703  0.03039  0.0001393  0.005365  -0.02812  -0.003766  0.8986
6.406e+09  -0.2765  0.8283  0.005837  0.01944  -0.006092  0.03968  0.3091  0.9036
6.408e+09  0.08967  0.8541  0.03815  0.03146  0.005638  0.01673  0.6047  0.7186
6.409e+09  0.3888  0.8042  -0.01309  -0.01083  -0.05197  0.03699  0.8015  0.4444
6.41e+09  0.5979  0.5903  0.003575  -0.0001489  0.007482  0.02581  0.9279  0.1726
6.411e+09  0.798  0.4111  -0.02279  0.006327  -0.003206  0.02251  0.8631  -0.1392
6.412e+09  0.926  0.1023  -0.005543  0.01947  0.02162  0.01484  0.7875  -0.4456
6.414e+09  0.8649  -0.1851  -0.0343  -0.01186  0.01446  0.02052  0.5741  -0.655
6.415e+09  0.7283  -0.5006  -0.03386  0.03019  0.0004748  0.04455  0.2781  -0.8402
6.416e+09  0.5177  -0.6567  -0.03762  0.01424  -0.01108  -0.01994  0.09068  -0.9025
6.418e+09  0.2213  -0.8851  0.005112  0.04072  -0.01962  -0.008098  -0.2838  -0.8587
6.419e+09  -0.04979  -0.94  0.01782  -0.006811  0.00679  -0.002913  -0.5184  -0.7205
6.42e+09  -0.3849  -0.7994  -0.03017  0.001219  0.007089  0.01518  -0.7579  -0.4603
6.421e+09  -0.5934  -0.6211  -0.001577  0.03111  0.01519  -0.03843  -0.8692  -0.1617
6.422e+09  -0.8185  -0.3757  0.002286  -0.01336  -0.02291  0.002852  -0.8546  0.1329
6.424e+09  -0.903  -0.07913  0.008382  0.02679  -0.03231  -0.001584  -0.7649  0.4231
6.425e+09  -0.8782  0.219  -0.01276  0.03016  0.05661  -0.002622  -0.5967  0.6032
6.426e+09  -0.7235  0.5466  0.01225  0.01986  0.01717  0.003256  -0.3573  0.7676
6.428e+09  -0.4962  0.7326  -0.02905  -0.01004  0.01574  0.01389  -0.05942  0.8919
6.429e+09  -0.2723  0.8854  0.03479  0.02521  -0.02943  0.02934  0.2505  0.8455
6.43e+09  0.1368  0.9402  -0.002127  -0.008663  0.004109  0.00539  0.5126  0.6535
6.431e+09  0.3775  0.8095  -0.07649  0.01082  0.04558  -0.001425  0.7098  0.4474
6.432e+09  0.6071  0.625  0.001615  -0.002349  -0.01524  -0.002093  0.8483  0.2456
6.434e+09  0.7965  0.3961  0.01116  0.001216  0.01278  0.006639  0.8706  -0.06502
6.435e+09  0.8557  0.03398  0.003551  -0.002995  0.003873  -0.02368  0.7725  -0.3797
6.436e+09  0.8567  -0.2512  0.01283  0.02276  -0.02352  -0.006566  0.604  -0.5987
6.438e+09  0.7152  -0.5033  0.02334  -0.02011  0.01668  -0.006214  0.3347  -0.791
6.439e+09  0.4864  -0.764  0.04626  -0.01637  0.01619  -0.01374  0.06139  -0.8526
6.44e+09  0.2404  -0.8478  0.006789  -0.006799  0.006905  -0.01192  -0.2273  -0.844
6.441e+09  -0.05415  -0.8571  0.03015  0.01176  -0.004513  0.07171  -0.4967  -0.7069
6.442e+09  -0.3846  -0.7938  0.007854  0.001618  -0.0008309  0.01546  -0.7103  -0.5421
6.444e+09  -0.6332  -0.6074  -0.004758  -0.01465  0.03534  0.0007585  -0.8149  -0.2086
6.445e+09  -0.8048  -0.3202  0.03474  0.009913  0.02962  -0.02458  -0.8483  0.09182
6.446e+09  -0.8797  -0.047  0.009378  0.01507  -0.01761  0.004449  -0.7189  0.394
6.448e+09  -0.8236  0.3029  -0.01905  0.0006785  -0.007149  0.006542  -0.5753  0.6027
6.449e+09  -0.7313  0.5604  0.03095  0.0008633  -0.0227  0.0162  -0.3487  0.7802
6.45e+09  -0.4747  0.7931  -0.01586  0.009278  0.02343  0.01817  -0.03749  0.8365
6.451e+09  -0.1964  0.8914  0.04185  -0.027  -0.02422  0.02018  0.2584  0.7986
6.452e+09  0.1278  0.9158  0.02279  -0.02026  0.007553  -0.04284  0.4697  0.6642
6.454e+09  0.4296  0.8061  -0.0166  0.01098  0.05009  0.01195  0.6968  0.4201
6.455e+09  0.6635  0.6474  0.02518  0.01767  -0.01175  0.02176  0.7926  0.2361
6.456e+09  0.8459  0.3315  0.0006113  -0.01158  0.001904  -0.00674  0.8935  -0.07576
6.458e+09  0.9093  0.06076  0.02916  -0.008226  0.01972  -0.00468  0.7667  -0.3224
6.459e+09  0.8648  -0.2721  0.02984  0.01885  0.02276  -0.01954  0.5914  -0.5714
6.46e+09  0.7003  -0.5468  -0.006076  0.02925  0.0104  0.005039  0.279  -0.7196
6.461e+09  0.4911  -0.7507  0.03048  -0.01792  0.0141  0.00117  0.01552  -0.7987
6.462e+09  0.1759  -0.8812  0.002273  -0.01395  -0.01292  -0.04586  -0.208  -0.7615
6.464e+09  -0.09747  -0.905  -0.01657  0.008727  0.06967  0.03759  -0.4712  -0.6553
6.465e+09  -0.4396  -0.7834  -0.01212  0.02804  -0.06911  0.06492  -0.6849  -0.4343
6.466e+09  -0.6707  -0.5873  -0.01241  -0.004507  0.02253  0.03028  -0.779  -0.2107
6.468e+09  -0.7865  -0.2939  -0.02889  -0.0008886  -0.01188  0.002671  -0.8163  0.1101
6.469e+09  -0.9113  -0.02832  0.005343  0.002535  0.02122  0.03653  -0.7503  0.3161
6.47e+09  -0.8788  0.2656  -0.004449  0.007608  0.007034  -0.004169  -0.5628  0.6101
6.471e+09  -0.7471  0.6117  0.008253  0.00551  -0.02666  0.03989  -0.3405  0.763
6.472e+09  -0.4407  0.7629  -0.005452  -0.001411  -0.004642  -0.0202  -0.07541  0.7975
6.474e+09  -0.1985  0.8982  0.02306  0.003952  -0.006139  -0.02185  0.204  0.7749
6.475e+09  0.1398  0.8752  0.01226  0.001974  0.009756  0.0331  0.4653  0.6567
6.476e+09  0.4319  0.7585  0.001127  0.009939  0.02574  0.004657  0.6437  0.4628
6.478e+09  0.6946  0.6104  0.01546  -0.002262  0.00288  -0.0135  0.7562  0.1525
6.479e+09  0.9222  0.3833  0.0003182  -0.006911  0.005801  -0.01348  0.7998  -0.04211
6.48e+09  0.8565  -0.01403  0.02459  -0.01094  0.00399  0.04175  0.673  -0.3157
6.481e+09  0.8561  -0.331  -0.009523  -0.01013  -0.01846  0.04533  0.5715  -0.5455
6.482e+09  0.717  -0.6219  -0.04627  0.006305  0.03079  -0.02943  0.3184  -0.7155
6.484e+09  0.5018  -0.7635  -0.03696  0.02565  -0.02929  0.03083  0.07252  -0.7921
6.485e+09  0.1702  -0.9215  -0.001117  -0.01234  0.01056  0.01023  -0.2254  -0.725
6.486e+09  -0.1383  -0.9349  0.01367  0.0005793  -0.03387  -0.0485  -0.4515  -0.6178
6.488e+09  -0.4626  -0.8163  -0.03531  0.02036  0.02828  -0.03569  -0.6239  -0.4385
6.489e+09  -0.6918  -0.5913  0.009218  -0.02677  0.03036  0.0274  -0.7454  -0.1945
6.49e+09  -0.9142  -0.3199  0.004897  0.04308  -0.02747  -0.01287  -0.7848  0.08562
6.491e+09  -0.9254  -0.04981  -0.04479  0.005467  -0.06204  -0.04026  -0.6409  0.3736
6.492e+09  -0.863  0.3359  -0.01919  0.02866  -0.02251  0.001952  -0.5552  0.5584
6.494e+09  -0.6743  0.5916  0.0175  0.008668  0.05477  -0.009997  -0.3266  0.7188
6.495e+09  -0.4265  0.8465  -0.008632  -0.01804  0.02521  0.009233  0.0007996  0.7036
6.496e+09  -0.1669  0.8794  -0.008986  0.05153  0.01531  0.002701  0.205  0.7306
6.498e+09  0.1361  0.8783  0.003125  -0.009439  -0.02717  0.01283  0.4178  0.5832
6.499e+09  0.4813  0.8  -0.01054  -0.03556  0.04265  -0.0162  0.6318  0.4719
6.5e+09  0.6967  0.5849  -0.02131  0.0217  -0.02016  0.007104  0.6962  0.1556
6.501e+09  0.8655  0.2795  -0.005365  0.01077  0.0105  -0.01751  0.7598  -0.07769
6.502e+09  0.9019  -0.03222  0.0393  0.02391  -0.006084  0.03082  0.6718  -0.3816
6.504e+09  0.8515  -0.3765  -0.02733  0.0109  0.03762  0.01695  0.4952  -0.5787
6.505e+09  0.6616  -0.5842  0.01951  -0.00672  0.06232  -0.06745  0.3125  -0.7191
6.506e+09  0.448  -0.8459  -0.0452  -0.007798  0.03408  0.0109  0.03915  -0.7413
6.508e+09  0.1345  -0.9506  -0.01142  -0.0113  -0.02604  -0.01226  -0.3015  -0.7275
6.509e+09  -0.2384  -0.9062  -0.01043  -0.01794  0.05596  0.01241  -0.4968  -0.5866
6.51e+09  -0.5269  -0.8299  -0.03239  0.0166  0.005703  -0.0203  -0.6367  -0.3902
6.511e+09  -0.751  -0.5964  -0.03607  -0.01931  0.02108  -0.01633  -0.7409  -0.1456
6.512e+09  -0.8916  -0.2441  0.02229  0.05479  -0.01973  0.03132  -0.7149  0.1349
6.514e+09  -0.9574  0.06969  0.02768  0.01391  0.0267  0.004458  -0.657  0.3494
6.515e+09  -0.8592  0.3509  0.02271  0.01246  -0.03141  -0.02005  -0.5271  0.5687
6.516e+09  -0.724  0.6445  0.0002941  -0.006605  -0.004927  -0.008164  -0.2618  0.7107
6.518e+09  -0.3877  0.868  0.009396  -0.03037  -0.03732  0.01564  0.01278  0.7675
6.519e+09  -0.06298  0.9378  0.003628  0.01353  0.019  -0.01222  0.2916  0.6816
6.52e+09  0.2543  0.9414  0.003822  0.003051  -0.04327  0.03823  0.4834  0.5576
6.521e+09  0.6027  0.7904  -0.03738  0.01687  -0.004091  -0.008978  0.6884  0.3544
6.522e+09  0.7819  0.5749  -0.02859  -0.01923  -0.03322  0.02385  0.7312  0.08701
6.524e+09  0.9399  0.2497  -0.008514  0.02678  0.06413  -0.04534  0.7036  -0.1728
6.525e+09  0.9158  -0.1903  0.01987  0.004648  0.03856  0.005564  0.6249  -0.3635
6.526e+09  0.8284  -0.4254  0.03882  -0.01949  0.005679  -0.04428  0.4262  -0.597
6.528e+09  0.639  -0.7465  0.02632  0.003242  -0.04632  0.02133  0.2143  -0.6859
6.529e+09  0.3687  -0.8811  0.001772  0.01889  0.03475  -0.04217  -0.02241  -0.6726
6.53e+09  0.07904  -0.9568  0.01414  0.02036  0.04752  -0.02528  -0.2912  -0.6103
6.531e+09  -0.3407  -0.9218  0.008653  -0.01706  0.02998  -0.01972  -0.4621  -0.5005
6.532e+09  -0.621  -0.7248  -0.01407  0.01313  -0.05225  -0.001093  -0.5842  -0.2907
6.534e+09  -0.827  -0.4825  0.007117  -0.01023  -0.04928  0.0152  -0.6251  -0.1022
6.535e+09  -1.016  -0.181  -0.004792  -0.0256  0.02544  0.04106  -0.6139  0.1108
6.536e+09  -0.9709  0.1651  -0.03044  0.008476  -0.01421  -0.02394  -0.553  0.3326
6.538e+09  -0.8649  0.5649  -0.0131  -0.00524  0.03023  0.03434  -0.463  0.4903
6.539e+09  -0.6112  0.7235  -0.01338  0.01213  0.00396  -0.0225  -0.3098  0.6266
6.54e+09  -0.3433  0.9013  -0.01479  0.007832  -0.01486  0.006332  -0.08325  0.6716
6.541e+09  0.02192  0.9589  0.0141  -0.006874  -0.001689  -0.04346  0.1814  0.6511
6.542e+09  0.3956  0.8886  -0.01046  0.0004183  0.04266  0.03044  0.3872  0.5773
6.544e+09  0.6411  0.7525  -0.01158  0.02129  0.001216  0.003735  0.5777  0.3775
6.545e+09  0.8629  0.4665  -0.01337  0.007749  -0.01972  -0.02685  0.6999  0.1925
6.546e+09  0.9127  0.09998  0.01751  -0.001132  0.03284  0.002336  0.7161  -0.06326
6.548e+09  0.9349  -0.185  0.01151  -0.01148  -0.04073  -0.01589  0.6779  -0.3657
6.549e+09  0.7229  -0.4902  -0.02583  0.01835  -0.02711  0.03481  0.4984  -0.5357
6.55e+09  0.5213  -0.8055  0.01783  0.003085  0.02731  -0.003195  0.2624  -0.6798
