# Hz S RI R 50
6.25e+09  0.2526  -0.735  0.02314  0.02436  -0.01034  -0.005832  0.1685  0.4651
6.251e+09  0.1161  -0.82  -0.02555  0.0004285  -0.02063  0.02835  0.3492  0.3724
6.252e+09  -0.2775  -0.7436  -0.02025  -0.0101  0.01372  0.01484  0.5609  0.2015
6.254e+09  -0.5193  -0.5875  -0.000457  0.01031  -0.009463  -0.00468  0.6086  -0.01364
6.255e+09  -0.7481  -0.3877  -0.001088  -0.007993  0.007789  -0.01939  0.5813  -0.2302
6.256e+09  -0.7785  -0.1103  0.02929  -0.03951  0.05483  -0.07695  0.4712  -0.4358
6.258e+09  -0.8391  0.171  -0.01403  -0.002103  0.0197  0.00153  0.3002  -0.6035
6.259e+09  -0.6272  0.4598  0.007301  0.01449  -0.02438  0.04091  0.02365  -0.6893
6.26e+09  -0.4692  0.6858  0.007044  -0.01293  -0.001712  0.007983  -0.2317  -0.6265
6.261e+09  -0.1994  0.7516  0.04437  0.02237  0.003154  0.01036  -0.4374  -0.5216
6.262e+09  0.1058  0.7624  -0.004332  -0.0007749  -0.004144  -0.03876  -0.593  -0.3248
6.264e+09  0.3557  0.6945  -0.01772  0.01303  -0.0582  0.001821  -0.7424  -0.1314
6.265e+09  0.5821  0.6038  0.006675  -0.03494  0.02837  0.004639  -0.6941  0.1452
6.266e+09  0.7155  0.3505  -0.02076  -0.01291  0.002955  -0.08919  -0.6135  0.4146
6.268e+09  0.7391  -0.02358  -0.008054  0.02482  -0.009937  0.03371  -0.4199  0.5878
6.269e+09  0.7966  -0.2632  -0.01816  0.01564  -0.03169  0.03169  -0.1826  0.6968
6.27e+09  0.5702  -0.4408  -0.005875  0.01722  -0.006896  0.02652  0.0681  0.7161
6.271e+09  0.3747  -0.7045  0.03053  0.01071  -0.01081  0.05201  0.3198  0.6841
6.272e+09  0.04614  -0.7693  -0.02669  0.007414  -0.02087  -0.005416  0.5556  0.5429
6.274e+09  -0.1675  -0.726  0.01255  0.02563  -0.009441  -0.03573  0.6611  0.3079
6.275e+09  -0.4459  -0.628  -0.002927  -0.0356  0.00957  -0.0299  0.7556  0.04133
6.276e+09  -0.6269  -0.4645  -0.01131  -0.02864  0.03553  -0.009676  0.7423  -0.1964
6.278e+09  -0.7142  -0.1655  0.03036  -0.02109  0.03712  0.009412  0.5847  -0.4727
6.279e+09  -0.8324  0.0876  -0.006422  -0.001613  0.001246  0.02801  0.4476  -0.6413
6.28e+09  -0.6681  0.3361  -0.03193  0.0005234  -0.01574  0.01895  0.1634  -0.777
6.281e+09  -0.5323  0.5842  0.006316  0.01295  -0.009522  -0.02284  -0.08021  -0.7494
6.282e+09  -0.3371  0.7524  -0.004931  -0.002512  -0.0466  0.001106  -0.3708  -0.7064
6.284e+09  -0.07137  0.7626  -0.01033  0.001428  0.03559  -0.03403  -0.6113  -0.5038
6.285e+09  0.2554  0.6661  0.02136  0.03095  0.02756  0.009925  -0.7391  -0.315
6.286e+09  0.5803  0.5975  -0.01086  -0.01349  -0.02353  0.01588  -0.7943  -0.03775
6.288e+09  0.7093  0.314  -0.002347  0.004997  -0.02788  0.0693  -0.7762  0.2739
6.289e+09  0.8013  0.1088  0.0144  -0.01109  0.006905  -0.03973  -0.6253  0.5229
6.29e+09  0.8165  -0.224  -0.00524  -0.006395  -0.002278  0.002244  -0.3948  0.6665
6.291e+09  0.6427  -0.4427  0.06008  -0.007831  0.05723  -0.007733  -0.1396  0.7943
6.292e+09  0.4458  -0.6191  -0.04606  0.005542  -0.007927  0.01604  0.1344  0.8461
6.294e+09  0.1806  -0.7304  0.02116  0.02073  -0.03295  0.01176  0.4074  0.7511
6.295e+09  -0.1328  -0.8131  0.008494  -0.007751  -0.02379  -0.04328  0.6459  0.5341
6.296e+09  -0.3493  -0.7389  0.01997  0.01368  -0.00647  0.03131  0.7916  0.2766
6.298e+09  -0.6353  -0.5425  -0.01799  0.003967  -0.007216  -0.04686  0.8219  -0.05047
6.299e+09  -0.7157  -0.2583  -0.03214  0.01107  0.02607  0.004259  0.8027  -0.278
6.3e+09  -0.8363  0.02342  -0.02146  0.01067  -0.00749  0.05871  0.6206  -0.5279
6.301e+09  -0.767  0.2675  -0.01544  -0.006168  0.006988  -0.001959  0.4604  -0.6733
6.302e+09  -0.6271  0.5108  -0.002743  0.001515  -0.02489  -0.04802  0.1517  -0.802
6.304e+09  -0.377  0.6789  -0.005477  0.02807  0.03679  0.02388  -0.1479  -0.8103
6.305e+09  -0.09017  0.852  -0.01119  0.02864  0.02871  -0.01957  -0.4441  -0.7593
6.306e+09  0.1733  0.8065  -0.02103  0.001876  0.03127  0.01872  -0.6744  -0.5544
6.308e+09  0.4653  0.6168  0.04018  0.02631  0.01769  0.02215  -0.7708  -0.292
6.309e+09  0.7113  0.489  0.02746  0.01203  -0.02002  0.01941  -0.8718  -0.009305
6.31e+09  0.755  0.2411  -0.001479  -0.005401  -0.01465  0.006677  -0.8354  0.3233
6.311e+09  0.7482  -0.03219  -0.0153  -0.03561  -0.004104  0.009445  -0.6327  0.5499
6.312e+09  0.7489  -0.3411  -0.02892  0.009494  -0.06486  -0.02246  -0.4394  0.7376
6.314e+09  0.5693  -0.5959  0.009215  0.01204  0.05572  0.0008679  -0.154  0.8729
6.315e+09  0.3125  -0.7601  0.03585  -0.003888  0.02135  0.01069  0.1664  0.8607
6.316e+09  0.04126  -0.8311  -0.005988  0.02431  -0.00809  -0.01145  0.4401  0.7961
6.318e+09  -0.2791  -0.7768  0.02176  0.002926  0.04905  0.01786  0.6636  0.5971
6.319e+09  -0.5309  -0.604  0.01376  0.0234  0.004854  0.03839  0.8478  0.3228
6.32e+09  -0.669  -0.4394  0.03929  -0.003528  0.01948  0.01002  0.8691  -0.01103
6.321e+09  -0.8405  -0.09677  -0.004413  0.01601  0.03512  0.01878  0.8564  -0.2813
6.322e+09  -0.8344  0.1667  0.02614  0.01073  -0.01533  -0.02562  0.6976  -0.5895
6.324e+09  -0.6596  0.4045  0.04582  0.01216  -0.04463  -0.006495  0.4579  -0.7405
6.325e+09  -0.5094  0.656  -0.02004  -0.006302  -0.04021  0.0186  0.1894  -0.8824
6.326e+09  -0.2469  0.8053  0.009524  0.008609  0.02531  -0.001632  -0.09146  -0.8521
6.328e+09  0.08417  0.7973  0.01099  0.00424  0.01646  0.05046  -0.4022  -0.8083
6.329e+09  0.3572  0.7375  -0.04267  0.004425  0.0122  0.003252  -0.6785  -0.5931
6.33e+09  0.5998  0.6086  -0.02051  0.01548  0.01273  -0.005736  -0.8928  -0.3095
6.331e+09  0.7741  0.3834  0.001384  0.002367  0.03686  0.01408  -0.9019  -0.04489
6.332e+09  0.835  0.01129  0.005301  0.008482  0.01774  -0.03037  -0.8523  0.2538
6.334e+09  0.7729  -0.2702  -0.01218  0.01252  0.009194  -0.02623  -0.721  0.563
6.335e+09  0.6011  -0.4943  -0.004012  0.00274  -0.06485  -0.02107  -0.4831  0.7702
6.336e+09  0.4271  -0.6961  -0.006462  -0.03462  0.01247  0.01542  -0.1895  0.9139
6.338e+09  0.1132  -0.8019  0.02291  0.01571  -0.009053  -0.03826  0.121  0.9025
6.339e+09  -0.1961  -0.7945  0.01399  0.009513  0.003946  -0.009759  0.3707  0.8169
6.34e+09  -0.4458  -0.7078  0.02039  -0.03362  -0.01393  0.0264  0.678  0.6228
6.341e+09  -0.6394  -0.4753  0.03022  -0.0294  -0.01349  -0.03205  0.8446  0.3702
6.342e+09  -0.8194  -0.2064  0.001527  -0.01146  -0.001278  -0.005428  0.9411  0.05586
6.344e+09  -0.8393  0.0776  -0.01527  -0.02195  -0.02007  -0.01624  0.9054  -0.2773
6.345e+09  -0.78  0.3263  -0.03197  0.003876  -0.01777  -0.01542  0.7053  -0.566
6.346e+09  -0.5665  0.6137  0.02918  0.02013  0.03538  0.01044  0.5041  -0.7798
6.348e+09  -0.3159  0.7985  0.0227  0.00923  0.005805  -0.006354  0.1712  -0.9282
6.349e+09  -0.06816  0.8351  0.02381  0.03141  -0.003127  -0.0008677  -0.1304  -0.9521
6.35e+09  0.2463  0.7769  -0.008382  -0.01408  -0.01732  0.0298  -0.4196  -0.8191
6.351e+09  0.558  0.5955  -0.003799  0.01082  -0.005411  0.03013  -0.6914  -0.592
6.352e+09  0.7467  0.4448  0.03431  0.02511  -0.0194  0.0164  -0.8434  -0.3703
6.354e+09  0.8049  0.1355  -0.009477  -0.005269  0.007723  0.002682  -0.9418  -0.06032
6.355e+09  0.8385  -0.1354  -0.01884  0.01023  -0.02506  0.002653  -0.8956  0.2672
6.356e+09  0.6574  -0.4617  0.01086  0.01754  0.0004089  -0.002324  -0.7645  0.5758
6.358e+09  0.4935  -0.6849  -0.01969  -0.007864  -0.002188  0.01747  -0.555  0.7852
6.359e+09  0.2214  -0.7791  -0.04074  0.00456  -0.03864  -0.01632  -0.2078  0.9228
6.36e+09  -0.1105  -0.8002  0.0132  0.04352  -0.00226  -0.02583  0.1193  0.9672
6.361e+09  -0.3799  -0.755  0.007459  0.04193  -0.03086  -0.009582  0.4264  0.8544
6.362e+09  -0.6358  -0.5769  0.01212  0.02896  -0.03009  0.003594  0.678  0.6624
6.364e+09  -0.7872  -0.3321  -0.009227  0.07051  0.02751  0.01242  0.8957  0.3469
6.365e+09  -0.8296  0.009355  0.01184  0.0007813  0.05031  -0.02317  0.9206  0.1
6.366e+09  -0.7612  0.3212  -0.04004  0.003817  -0.01577  0.02588  0.9222  -0.1908
6.368e+09  -0.664  0.531  0.0002672  0.03084  -0.00428  -0.008342  0.7907  -0.521
6.369e+09  -0.3605  0.7247  0.01148  -0.02427  -0.03528  -0.04435  0.5303  -0.7973
6.37e+09  -0.08324  0.852  0.01748  -0.002174  0.04255  0.04597  0.268  -0.9425
6.371e+09  0.2204  0.8566  -0.003619  -0.008588  0.02455  0.01714  -0.1072  -0.9251
6.372e+09  0.4785  0.7132  -0.01143  0.01737  0.01268  0.001284  -0.4358  -0.8415
6.374e+09  0.722  0.4818  0.001774  -0.01804  0.01349  -0.05043  -0.6304  -0.6616
6.375e+09  0.8094  0.2028  0.007129  0.02081  -0.01106  -0.02131  -0.8295  -0.4189
6.376e+09  0.7987  -0.1595  -0.01555  0.00471  0.005175  -0.007931  -0.9537  -0.1361
6.378e+09  0.6877  -0.3822  0.007624  0.01332  0.02978  0.01468  -0.9095  0.2118
6.379e+09  0.531  -0.658  -0.0269  -0.0127  0.007757  0.01707  -0.7821  0.5418
6.38e+09  0.2518  -0.8168  0.001426  0.007021  -0.01803  0.03178  -0.5818  0.7811
6.381e+09  -0.01967  -0.8508  -0.001158  -0.0168  0.03497  0.006668  -0.2518  0.9023
6.382e+09  -0.3544  -0.795  -0.01168  -0.01219  0.0206  0.01596  0.08183  0.957
6.384e+09  -0.6088  -0.6315  0.004732  0.03047  0.04918  -0.001801  0.3984  0.84
6.385e+09  -0.7869  -0.3772  -0.009035  -0.04867  0.02318  0.04294  0.6868  0.7332
6.386e+09  -0.8693  -0.03183  0.03401  0.01042  0.003506  0.007678  0.8368  0.385
6.388e+09  -0.7922  0.2618  0.03591  -0.0111  0.002349  0.0139  0.9044  0.1289
6.389e+09  -0.6383  0.5479  -0.015  0.05311  -0.02589  -0.01287  0.8977  -0.2105
6.39e+09  -0.4402  0.6992  0.01224  0.008026  0.01863  -0.01817  0.7657  -0.4965
6.391e+09  -0.1649  0.8346  0.03486  -0.02049  0.001016  0.01865  0.5839  -0.7226
6.392e+09  0.209  0.8264  -0.02705  -0.01576  0.004726  0.00995  0.3128  -0.9483
6.394e+09  0.4319  0.6809  -0.01434  0.02065  0.06114  -0.02907  -0.009646  -0.9063
6.395e+09  0.6333  0.5311  -0.01676  0.01837  -0.04361  -0.009275  -0.3388  -0.8651
6.396e+09  0.7879  0.2594  0.05013  -0.01291  0.0001838  -0.02584  -0.6119  -0.7237
6.398e+09  0.8328  -0.06556  0.03047  0.000683  -0.006236  -0.01729  -0.7893  -0.4133
6.399e+09  0.7908  -0.3403  0.01368  0.05997  0.02323  0.03298  -0.9207  -0.2058
6.4e+09  0.5897  -0.606  -0.007589  -0.009539  -0.01034  0.01784  -0.8391  0.1745
6.401e+09  0.3247  -0.8253  -0.015  -0.009682  0.03898  0.01135  -0.8054  0.4982
6.402e+09  0.05486  -0.8175  -0.01211  0.036  0.005945  0.01482  -0.6305  0.6738
6.404e+09  -0.3053  -0.7935  0.0007818  0.02431  -0.006651  0.02396  -0.3255  0.9029
6.405e+09  -0.5174  -0.6597  0.0249  -0.002313  -0.03268  0.04961  0.02915  0.9119
6.406e+09  -0.6974  -0.4613  -0.03133  0.02256  -0.008311  0.01764  0.3051  0.8502
6.408e+09  -0.7713  -0.115  -0.02885  0.007072  0.02895  0.0351  0.5772  0.6801
6.409e+09  -0.8165  0.2245  -0.02504  0.001137  0.00963  0.03967  0.7618  0.4815
6.41e+09  -0.6688  0.5383  -0.01208  0.03442  0.06533  -0.003752  0.844  0.1749
6.411e+09  -0.46  0.6918  -0.009411  -0.0229  -0.005111  0.009024  0.8649  -0.1241
6.412e+09  -0.2073  0.8525  -0.008272  0.01407  0.03958  -0.01406  0.8006  -0.441
6.414e+09  0.07152  0.8617  -0.04488  -0.007645  0.05992  0.02461  0.5788  -0.6926
6.415e+09  0.3983  0.7995  -6.879e-05  -0.001117  0.02781  0.04099  0.3581  -0.8169
6.416e+09  0.6452  0.5951  -0.00121  -0.006337  -0.0062  -0.007555  0.03909  -0.9013
6.418e+09  0.8083  0.2197  0.007397  0.04039  0.03617  -0.04221  -0.2758  -0.7968
6.419e+09  0.8625  -0.009381  0.02688  -0.02331  -0.004454  0.001551  -0.5395  -0.716
6.42e+09  0.7857  -0.3053  -0.02953  0.01843  -0.003723  0.01955  -0.7162  -0.4666
6.421e+09  0.6329  -0.5232  -0.005107  0.03359  0.05043  -0.008754  -0.8505  -0.1682
6.422e+09  0.4011  -0.7599  0.04669  -0.01281  -0.005018  -0.02842  -0.8959  0.1101
6.424e+09  0.05055  -0.8297  -0.003166  -0.009243  0.00571  0.00878  -0.8248  0.3812
6.425e+09  -0.2272  -0.8227  0.03179  0.01803  -0.009735  0.00549  -0.6245  0.6284
6.426e+09  -0.498  -0.6792  0.02052  0.007995  -0.00195  0.02365  -0.3602  0.8222
6.428e+09  -0.7294  -0.4563  0.002004  -0.01215  -0.007481  -0.01707  -0.06886  0.8915
6.429e+09  -0.8151  -0.1596  -0.03936  0.01183  0.01183  -0.01501  0.229  0.791
6.43e+09  -0.8825  0.146  -0.001951  -0.01439  -0.005059  -0.004722  0.5277  0.6747
6.431e+09  -0.7655  0.4516  0.007456  0.004437  0.01333  -0.01864  0.7081  0.5127
6.432e+09  -0.5131  0.6656  -0.02327  0.004297  -0.03329  -0.01566  0.8033  0.2252
6.434e+09  -0.2787  0.8042  0.02576  -0.02755  -0.01853  0.03868  0.8344  -0.1084
6.435e+09  0.08081  0.7988  0.02972  -0.01055  -0.02797  -0.00227  0.7244  -0.3865
6.436e+09  0.2838  0.8112  0.006646  0.02285  -0.01789  0.00583  0.5712  -0.6379
6.438e+09  0.5857  0.6087  -0.01878  0.01828  0.001656  0.06235  0.3596  -0.8023
6.439e+09  0.8065  0.3552  -0.04429  -0.01233  -0.004207  0.04404  0.05409  -0.8319
6.44e+09  0.8215  0.09784  0.02009  -0.01995  0.002671  0.05156  -0.2773  -0.7961
6.441e+09  0.8024  -0.1834  -0.006161  0.00223  0.02052  0.01469  -0.4484  -0.6617
6.442e+09  0.6607  -0.494  -0.04018  0.04608  -0.03066  0.0001099  -0.6944  -0.4687
6.444e+09  0.5179  -0.679  -0.001589  -0.02749  0.005264  0.01952  -0.8249  -0.206
6.445e+09  0.1401  -0.788  -0.01636  -0.02953  0.00378  0.0009018  -0.8505  0.0919
6.446e+09  -0.1481  -0.8017  -0.01033  -0.02276  -0.002034  -0.01331  -0.7724  0.3949
6.448e+09  -0.3824  -0.7331  0.04606  -0.02438  -0.0451  0.02165  -0.5707  0.5606
6.449e+09  -0.6395  -0.5737  -0.04566  -0.008937  -0.02261  -0.002924  -0.3057  0.7395
6.45e+09  -0.7764  -0.2797  0.03161  -0.01238  0.03434  -0.005347  -0.0797  0.8463
6.451e+09  -0.8012  0.0444  0.0195  -0.02572  0.01041  0.004613  0.1996  0.804
6.452e+09  -0.7856  0.2912  -0.01903  0.02881  -0.0213  0.0435  0.4439  0.6783
6.454e+09  -0.5941  0.5583  0.05365  -0.01944  0.000485  -0.02572  0.7062  0.484
6.455e+09  -0.3488  0.7318  0.02034  0.01224  -0.06237  0.00257  0.8385  0.2079
6.456e+09  -0.1408  0.8616  0.03038  0.03571  0.04307  0.001707  0.8055  -0.0699
6.458e+09  0.1729  0.7885  0.0233  -0.03839  -0.02536  0.01786  0.7612  -0.3523
6.459e+09  0.4401  0.7374  0.03038  0.03759  -0.02783  -0.02076  0.5567  -0.5531
6.46e+09  0.6929  0.4673  -0.001213  -0.005532  0.02065  -0.00827  0.3856  -0.7259
6.461e+09  0.7825  0.2141  -0.00749  0.03503  0.02584  -0.04052  0.06087  -0.8444
6.462e+09  0.8064  -0.06696  -0.006179  -0.0145  -0.01596  0.06057  -0.1773  -0.7565
6.464e+09  0.7553  -0.2968  -0.007705  -0.001931  -0.02418  0.01636  -0.4686  -0.6588
6.465e+09  0.5298  -0.619  0.03309  -0.02809  0.03285  0.01401  -0.6468  -0.4645
6.466e+09  0.2941  -0.7495  -0.003642  -0.04246  0.02568  -0.01627  -0.7955  -0.2074
6.468e+09  0.04116  -0.8591  0.02576  0.001586  -0.01771  -0.01533  -0.8239  0.09612
6.469e+09  -0.2522  -0.8248  -0.01182  -0.01906  -0.01113  -0.01789  -0.7251  0.3934
6.47e+09  -0.4873  -0.642  -0.005535  -0.02387  -0.0372  -0.01742  -0.5842  0.5915
6.471e+09  -0.6939  -0.4309  -0.01712  0.03689  -0.005649  -0.0002658  -0.2741  0.6999
6.472e+09  -0.8158  -0.2169  0.00796  -0.01592  0.001825  -0.03675  -0.03343  0.766
6.474e+09  -0.8089  0.1001  0.02046  -0.01178  0.01484  0.01886  0.2361  0.7555
6.475e+09  -0.7284  0.3865  -0.02469  -0.01955  0.01358  0.02675  0.4416  0.661
6.476e+09  -0.5024  0.5644  -0.01779  -0.01294  -0.02317  0.02901  0.6373  0.4735
6.478e+09  -0.2951  0.7914  -0.01479  -0.04223  0.04818  -0.03431  0.766  0.1755
6.479e+09  -0.03947  0.8714  0.003012  0.01214  0.009163  -0.001583  0.7821  -0.07611
6.48e+09  0.2223  0.7902  -0.007676  -0.0177  0.05711  0.009472  0.7383  -0.3521
6.481e+09  0.5197  0.5889  -0.01579  0.009784  -0.05225  0.03148  0.5476  -0.5773
6.482e+09  0.7304  0.4042  -0.01337  0.00983  -0.02022  -0.01437  0.312  -0.7333
6.484e+09  0.8069  0.118  0.005433  -0.02962  0.0246  0.04975  0.05084  -0.7667
6.485e+09  0.8156  -0.1296  -0.007824  0.02473  -0.03205  0.006488  -0.2067  -0.7683
6.486e+09  0.7195  -0.4116  0.03222  -0.000872  -0.01257  -0.05775  -0.432  -0.6595
6.488e+09  0.4972  -0.6474  0.01601  -0.01789  -0.05434  0.007393  -0.6476  -0.4343
6.489e+09  0.2333  -0.7672  0.04092  -0.02386  0.04141  -0.03416  -0.736  -0.2086
6.49e+09  -0.03607  -0.8338  -0.0338  -0.008343  -0.005003  0.003961  -0.8043  0.07219
6.491e+09  -0.3362  -0.7374  -0.0484  0.02043  -0.01509  -0.002358  -0.6501  0.3367
6.492e+09  -0.575  -0.5965  0.004313  0.004759  0.0264  -0.003363  -0.5035  0.536
6.494e+09  -0.7236  -0.3832  0.02987  -0.005179  0.01309  0.03603  -0.2935  0.7262
6.495e+09  -0.7851  -0.04277  0.02041  -0.02136  -0.07264  0.01541  -0.02965  0.771
6.496e+09  -0.8147  0.2204  0.01268  0.008045  -0.01439  -0.03041  0.2694  0.7215
6.498e+09  -0.7181  0.4426  -0.01842  -0.01483  0.01589  -0.002702  0.4417  0.6235
6.499e+09  -0.4683  0.6393  -0.0313  -0.005979  0.0678  0.01681  0.62  0.4298
6.5e+09  -0.2095  0.8019  -0.01503  -0.02836  0.009057  0.0653  0.7528  0.1594
6.501e+09  0.04513  0.8301  -0.02083  -0.002747  -0.02724  -0.008163  0.7593  -0.103
6.502e+09  0.3525  0.7969  -0.01525  0.02818  0.01212  -0.01849  0.6799  -0.3535
6.504e+09  0.6003  0.6125  0.01482  -0.01854  0.03677  0.02854  0.5588  -0.5725
6.505e+09  0.8085  0.3433  -0.002513  0.00846  -0.02513  -0.04201  0.2732  -0.7077
6.506e+09  0.8152  0.04467  -0.004972  0.01033  -0.01235  0.01927  0.01907  -0.7898
6.508e+09  0.7914  -0.2394  -0.03106  -0.003965  -0.01283  0.002115  -0.2726  -0.7261
6.509e+09  0.6698  -0.4785  -0.004101  9.42e-05  0.03827  -0.05591  -0.4914  -0.5718
6.51e+09  0.459  -0.6506  -0.01565  -0.006903  -0.03071  0.04802  -0.6218  -0.375
6.511e+09  0.2121  -0.8113  -0.003816  0.02665  -0.02722  0.01338  -0.76  -0.1476
6.512e+09  -0.08395  -0.8056  0.04784  -0.01104  0.005021  -0.03147  -0.7285  0.08054
6.514e+09  -0.3941  -0.6777  0.03678  -0.01978  -0.03616  -0.002695  -0.6683  0.368
6.515e+09  -0.6159  -0.5958  -0.008612  0.0003908  -0.002832  -0.0304  -0.4748  0.5349
6.516e+09  -0.7162  -0.2975  0.003539  -0.02143  -0.01807  0.06933  -0.2341  0.6826
6.518e+09  -0.8562  -0.007115  -0.005222  0.01181  0.0354  -0.01995  0.03283  0.7275
6.519e+09  -0.8159  0.2703  -0.04916  -0.01801  -0.009981  0.03019  0.2657  0.7096
6.52e+09  -0.6921  0.5593  -0.02782  -0.01402  -0.003247  0.07209  0.4852  0.5437
6.521e+09  -0.4681  0.722  0.003236  0.01215  0.009753  -0.03588  0.6487  0.3554
6.522e+09  -0.1197  0.8725  -0.005074  0.008413  0.0443  -0.07449  0.7615  0.1169
6.524e+09  0.183  0.7993  0.01874  0.02957  0.0121  -0.02517  0.7169  -0.1965
6.525e+09  0.4314  0.7895  0.01962  0.02014  -0.03394  0.02842  0.5656  -0.3721
6.526e+09  0.6791  0.5368  0.006717  -0.04715  0.05351  -0.01349  0.4287  -0.5763
6.528e+09  0.8051  0.2912  -0.02345  -0.00621  -0.02824  0.05889  0.1968  -0.6712
6.529e+09  0.8374  -0.04927  0.0004088  -0.00125  -0.001124  -0.01306  -0.06654  -0.718
6.53e+09  0.8031  -0.3291  0.02991  0.02154  -0.0005643  0.04205  -0.2701  -0.6059
6.531e+09  0.6005  -0.6208  0.008109  0.02821  -0.0113  0.002052  -0.4702  -0.49
6.532e+09  0.3636  -0.7927  0.02396  0.009229  -0.0354  -0.07245  -0.577  -0.2524
6.534e+09  0.1905  -0.8746  0.02179  -0.01179  0.00912  -0.04191  -0.6441  -0.07491
6.535e+09  -0.2422  -0.8708  -0.01498  0.03581  -0.002674  0.05536  -0.5956  0.1248
6.536e+09  -0.5149  -0.7429  -0.03078  0.0005073  0.02909  -0.02623  -0.5519  0.295
6.538e+09  -0.7467  -0.5241  -0.006306  -0.005296  -0.02236  -0.008537  -0.4343  0.505
6.539e+09  -0.8592  -0.2708  -0.03135  -0.03642  0.01012  0.003373  -0.2802  0.5899
6.54e+09  -0.8883  0.1282  -0.01005  0.02767  0.04484  -0.03094  -0.08109  0.681
6.541e+09  -0.8313  0.4098  -0.001652  0.0113  -0.04495  0.07408  0.1818  0.6574
6.542e+09  -0.6016  0.7119  0.02807  -0.004381  -0.04307  -0.03124  0.4197  0.594
6.544e+09  -0.3795  0.8668  0.01836  -0.006164  0.04314  0.03095  0.5651  0.4529
6.545e+09  -0.04782  0.9372  0.01889  0.01686  -0.003409  0.007748  0.7092  0.1452
6.546e+09  0.2962  0.9047  -0.02586  0.02146  -0.04714  -0.007981  0.706  -0.06406
6.548e+09  0.5455  0.7488  0.009428  0.02604  0.02277  -0.04599  0.6551  -0.3357
6.549e+09  0.7982  0.444  -0.00417  -0.02535  -0.02073  -0.002618  0.5164  -0.5014
6.55e+09  0.8702  0.1757  -0.008241  -0.004048  -0.02742  -0.03358  0.2506  -0.7277
