# Hz S RI R 50
6.25e+09  -0.6634  0.5278  0.02551  -0.01009  0.04431  -0.00298  0.1839  0.4577
6.251e+09  -0.426  0.7362  -0.01931  -0.00535  -0.03462  0.01277  0.3946  0.3983
6.252e+09  -0.08409  0.8232  -0.003166  -0.0001573  0.00063  -0.0481  0.545  0.2527
6.254e+09  0.1531  0.8415  0.01849  0.02386  -0.04164  0.01991  0.5854  0.02288
6.255e+09  0.4099  0.7516  0.00101  0.001169  0.05243  -0.005963  0.5861  -0.2134
6.256e+09  0.6636  0.5211  0.02281  0.0008601  -0.01008  0.01095  0.5083  -0.4248
6.258e+09  0.786  0.301  0.01851  0.008238  -0.02008  -0.07067  0.2866  -0.5894
6.259e+09  0.878  0.001141  -0.002247  -0.02338  0.0194  0.06199  0.04549  -0.6785
6.26e+09  0.8043  -0.2436  -0.002272  0.01678  -0.007856  -0.03554  -0.2079  -0.6425
6.261e+09  0.6187  -0.521  -0.005355  0.02548  0.0001234  0.003317  -0.4404  -0.5162
6.262e+09  0.3217  -0.7162  0.01748  -0.01128  -0.01837  -0.005891  -0.6055  -0.3263
6.264e+09  0.09465  -0.7709  0.03479  -0.01443  0.008415  -0.007866  -0.717  -0.09118
6.265e+09  -0.1957  -0.8597  -0.01312  0.01377  -0.05238  -0.03591  -0.7122  0.1706
6.266e+09  -0.3672  -0.7008  -0.01677  -0.005654  -0.04884  -0.03498  -0.6402  0.3926
6.268e+09  -0.6004  -0.5361  -0.005732  0.005357  -0.06053  -0.06018  -0.4701  0.6273
6.269e+09  -0.7913  -0.2634  -0.006632  0.009983  0.08991  -2.586e-05  -0.2034  0.7219
6.27e+09  -0.8787  -0.02721  -0.01727  -0.02017  0.02761  0.03618  0.0702  0.7334
6.271e+09  -0.7262  0.3183  -0.03065  -0.007438  -0.0195  -0.004624  0.3398  0.6818
6.272e+09  -0.6042  0.5666  -0.038  -0.01432  0.0007921  -0.004636  0.5147  0.5367
6.274e+09  -0.3836  0.7199  0.0007457  -0.00601  -0.037  0.02056  0.6658  0.2975
6.275e+09  -0.09904  0.8207  0.01063  -0.02516  0.05833  -0.005192  0.7512  0.03164
6.276e+09  0.1829  0.8359  0.01306  0.003918  -0.03199  0.02429  0.7341  -0.205
6.278e+09  0.4435  0.7612  0.004756  0.04218  -0.02042  0.02915  0.6373  -0.4681
6.279e+09  0.6386  0.4942  -0.0409  0.0243  0.0222  -0.04122  0.4175  -0.6271
6.28e+09  0.7497  0.2633  0.02455  0.01634  0.007573  -0.04001  0.1698  -0.7668
6.281e+09  0.8439  0.01176  -0.01133  -0.0309  0.03982  -0.01607  -0.1071  -0.7646
6.282e+09  0.7812  -0.3157  0.01407  0.01395  0.03153  0.02137  -0.3689  -0.6991
6.284e+09  0.5924  -0.5937  0.002254  0.01335  -0.009501  -0.03155  -0.6219  -0.533
6.285e+09  0.4092  -0.7137  -0.02697  -0.007119  0.00141  -0.1191  -0.7043  -0.3412
6.286e+09  0.1267  -0.7855  0.007585  -0.003622  -0.03801  0.00628  -0.7838  0.007545
6.288e+09  -0.1115  -0.822  0.04488  4.619e-05  -0.03601  0.04386  -0.7456  0.2453
6.289e+09  -0.4226  -0.6994  0.02058  -0.01163  0.006264  0.009743  -0.6195  0.4749
6.29e+09  -0.6363  -0.5344  -0.01321  -0.001276  0.002775  -0.03245  -0.4105  0.6835
6.291e+09  -0.7583  -0.2989  -0.03829  0.006457  0.009023  -0.006412  -0.1579  0.7866
6.292e+09  -0.8263  -0.01234  0.001503  0.009406  0.00687  0.03009  0.1174  0.8131
6.294e+09  -0.722  0.3668  0.008417  -0.007089  -0.0104  -0.03456  0.3987  0.7131
6.295e+09  -0.6209  0.5594  -0.01607  -0.003958  0.001923  0.01835  0.6092  0.5583
6.296e+09  -0.3772  0.7699  -0.01948  -0.01981  0.002597  -0.01857  0.7861  0.2861
6.298e+09  -0.1151  0.8474  0.008468  0.02122  -0.004346  -0.008888  0.823  0.002493
6.299e+09  0.1635  0.7704  0.03422  0.01009  0.01066  0.03396  0.8003  -0.2769
6.3e+09  0.4799  0.6615  0.02106  -0.004846  0.006207  -0.002802  0.6207  -0.5586
6.301e+09  0.6931  0.4992  0.005872  -0.01441  -0.0008841  0.001369  0.3915  -0.7542
6.302e+09  0.8347  0.1925  -0.03256  0.0002186  0.01244  -0.0624  0.1543  -0.7902
6.304e+09  0.8471  -0.04718  0.02173  -0.01492  -0.06705  -0.03353  -0.118  -0.8201
6.305e+09  0.7735  -0.3188  0.02312  0.02218  -0.03186  0.006885  -0.4349  -0.7514
6.306e+09  0.6013  -0.5873  0.007682  -0.01199  0.01229  -0.00874  -0.622  -0.5589
6.308e+09  0.3636  -0.7785  -0.03187  -0.00374  -0.0009949  -0.009013  -0.7787  -0.2919
6.309e+09  0.03829  -0.8348  -0.005021  -0.008729  -0.04358  -0.004239  -0.8655  -0.01137
6.31e+09  -0.2919  -0.7668  0.04647  -0.00813  -0.05371  -0.008521  -0.8046  0.2991
6.311e+09  -0.501  -0.6786  -0.01772  0.01283  0.00264  0.01318  -0.6569  0.549
6.312e+09  -0.6842  -0.4854  -0.0156  -0.002768  0.02556  0.01249  -0.4599  0.7537
6.314e+09  -0.817  -0.1854  0.0005593  -0.00569  0.02905  -0.0201  -0.1418  0.8415
6.315e+09  -0.8301  0.09128  -0.0148  0.01725  -0.0227  0.01875  0.156  0.8734
6.316e+09  -0.7564  0.3841  -0.0005407  -0.007112  -0.01522  0.048  0.3878  0.7661
6.318e+09  -0.5291  0.6201  0.01997  -0.009177  0.02633  0.01609  0.6599  0.5469
6.319e+09  -0.3335  0.7228  0.0222  0.005473  0.01075  0.0129  0.868  0.3138
6.32e+09  -0.01127  0.8168  -0.03272  -0.002372  0.04047  -0.03758  0.8652  -0.001039
6.321e+09  0.2608  0.7834  0.02798  0.01394  -0.0004328  0.004861  0.8248  -0.3165
6.322e+09  0.588  0.6615  -0.004417  -0.02014  -0.03234  0.03303  0.6924  -0.5875
6.324e+09  0.7078  0.3904  -0.02118  -0.0139  -0.03135  0.003417  0.465  -0.7927
6.325e+09  0.8324  0.1714  -0.001777  -0.02084  -0.05321  -0.006992  0.1795  -0.8933
6.326e+09  0.8378  -0.1182  0.009781  -0.003634  0.007835  -0.04445  -0.1001  -0.8813
6.328e+09  0.7128  -0.4581  0.02124  -0.0004673  -0.02843  -0.0392  -0.4287  -0.7863
6.329e+09  0.5658  -0.6772  0.01615  0.001265  0.009175  0.01414  -0.6808  -0.6091
6.33e+09  0.2154  -0.8062  0.01369  0.004315  -0.02303  -0.003276  -0.8633  -0.343
6.331e+09  -0.006866  -0.8896  -0.008293  0.004627  0.02541  -0.01069  -0.9066  -0.05671
6.332e+09  -0.3282  -0.8213  -0.003327  -0.000819  -0.03868  0.03006  -0.8532  0.2987
6.334e+09  -0.581  -0.6283  0.01665  -0.01473  -0.0865  -0.01334  -0.6996  0.5798
6.335e+09  -0.7907  -0.3946  0.0193  -0.02293  -0.002819  0.01384  -0.5032  0.7485
6.336e+09  -0.8848  -0.1297  0.006557  -0.02596  0.04758  0.03472  -0.1879  0.8714
6.338e+09  -0.8473  0.2844  -0.03412  -0.009897  -0.01314  -0.0215  0.1113  0.9536
6.339e+09  -0.7136  0.4752  -0.002832  -0.004141  0.03162  -0.02899  0.4468  0.7903
6.34e+09  -0.497  0.7159  0.004658  0.01289  0.03364  0.07994  0.6933  0.6164
6.341e+09  -0.3021  0.8031  -0.03406  -0.002596  0.02319  -0.03254  0.8332  0.3508
6.342e+09  0.07462  0.8611  0.003779  0.005924  -0.04118  0.00307  0.9646  0.01617
6.344e+09  0.3658  0.7785  -0.007625  -0.000449  -0.007611  0.02926  0.898  -0.2731
6.345e+09  0.5908  0.5694  -0.009617  -7.841e-05  0.01375  0.0326  0.7723  -0.5377
6.346e+09  0.8384  0.3754  0.01232  0.02633  0.04966  -0.03189  0.5139  -0.7656
6.348e+09  0.8783  0.05345  -0.02314  0.006979  0.03325  0.01148  0.2192  -0.9286
6.349e+09  0.8724  -0.2502  0.0074  -0.001162  -0.001594  0.02403  -0.1251  -0.9138
6.35e+09  0.6681  -0.5318  0.007276  0.00861  -0.0367  -0.002344  -0.4263  -0.8394
6.351e+09  0.4524  -0.7388  -0.03461  0.03377  -0.005394  -0.02221  -0.6862  -0.6552
6.352e+09  0.1716  -0.8973  -0.02653  -0.03435  -0.03208  -0.0136  -0.8511  -0.3489
6.354e+09  -0.1102  -0.8668  0.01676  -0.03789  -0.001171  0.02884  -0.9521  -0.0351
6.355e+09  -0.4598  -0.7635  -0.01944  -0.005918  0.02752  0.004933  -0.9427  0.2625
6.356e+09  -0.7009  -0.5393  -0.02451  -0.05574  -0.01639  -0.01562  -0.7631  0.5749
6.358e+09  -0.8297  -0.3242  0.0003687  0.0117  -0.01666  -0.02505  -0.5012  0.8026
6.359e+09  -0.8894  0.003207  -0.03022  -0.04556  0.0042  -0.01713  -0.2225  0.9011
6.36e+09  -0.8104  0.3006  -0.008829  -0.01006  -0.01632  -0.0209  0.1106  0.922
6.361e+09  -0.6441  0.5383  0.03094  0.01956  0.006071  0.01682  0.4378  0.8758
6.362e+09  -0.4156  0.7808  -0.02196  -0.0006243  -0.001066  -0.01214  0.7188  0.6664
6.364e+09  -0.1551  0.895  0.009304  -0.02091  -0.00102  -0.01535  0.851  0.3881
6.365e+09  0.18  0.8766  0.0168  0.03263  -0.004543  0.04442  0.956  0.08378
6.366e+09  0.4218  0.727  0.007196  0.02344  0.001115  0.01454  0.9203  -0.2655
6.368e+09  0.6777  0.5062  0.0128  0.02273  -0.02237  -0.04155  0.8106  -0.5756
6.369e+09  0.812  0.2428  0.02534  0.01367  -0.004984  0.007488  0.5389  -0.7723
6.37e+09  0.854  -0.07684  0.01609  0.009779  -0.0004095  0.03258  0.2371  -0.9337
6.371e+09  0.8521  -0.3655  -0.01102  0.01243  0.002465  0.006342  -0.08937  -0.9628
6.372e+09  0.6477  -0.6554  0.04377  -0.01451  -0.003575  0.05604  -0.3737  -0.8557
6.374e+09  0.3999  -0.7922  -0.03111  -0.005638  -0.01069  0.02863  -0.6714  -0.6527
6.375e+09  0.04713  -0.8805  -0.01574  -0.02208  -0.02692  -0.03215  -0.8689  -0.3937
6.376e+09  -0.2384  -0.8973  -0.003089  0.0222  -0.008287  -0.0856  -0.9491  -0.0654
6.378e+09  -0.5273  -0.6914  0.01761  0.03081  0.01683  -0.04172  -0.9048  0.2101
6.379e+09  -0.7057  -0.5177  0.02862  0.02682  0.02592  -0.04491  -0.7748  0.5207
6.38e+09  -0.8842  -0.1802  -0.02069  0.00063  -0.01224  -0.02568  -0.5952  0.7457
6.381e+09  -0.8859  0.1512  0.006706  -0.02671  0.04696  0.00235  -0.2624  0.9377
6.382e+09  -0.8158  0.4193  -0.0007575  0.01405  0.02975  0.002375  0.1237  0.9408
6.384e+09  -0.5803  0.6815  -0.01282  -0.00365  -0.002675  0.02479  0.3747  0.8846
6.385e+09  -0.2777  0.8309  -0.03925  0.009796  0.0002481  -0.01628  0.6381  0.6515
6.386e+09  -0.06397  0.9146  0.06354  -0.03597  -0.0418  -0.03226  0.7922  0.3973
6.388e+09  0.2971  0.8608  -0.01965  -0.01411  0.02016  -0.03207  0.9401  0.1286
6.389e+09  0.547  0.6703  0.02584  -0.01744  0.01005  0.03487  0.916  -0.2366
6.39e+09  0.7971  0.4044  0.005784  -0.01122  -0.0293  -0.003063  0.7961  -0.483
6.391e+09  0.8717  0.1614  -0.001564  -0.01052  -0.02186  0.01953  0.5697  -0.7233
6.392e+09  0.898  -0.1993  0.02019  -0.03174  0.01735  0.02121  0.2563  -0.8721
6.394e+09  0.7641  -0.4918  -0.01802  0.05032  -0.04443  -0.04952  -0.04911  -0.9015
6.395e+09  0.5905  -0.6992  -0.03403  -0.03156  0.007594  -0.03957  -0.3205  -0.8445
6.396e+09  0.2901  -0.8456  0.007645  -0.02209  -0.03024  0.01267  -0.6117  -0.7214
6.398e+09  -0.04202  -0.8634  -0.02519  -0.01409  -0.0001538  0.02492  -0.842  -0.4378
6.399e+09  -0.3765  -0.8125  -0.01577  -0.03057  0.004028  -0.03603  -0.8871  -0.1264
6.4e+09  -0.5995  -0.6464  0.001729  0.02828  0.01532  0.01067  -0.8563  0.195
6.401e+09  -0.7715  -0.3907  0.002178  -0.01924  0.02316  -0.02698  -0.7995  0.467
6.402e+09  -0.8738  -0.09458  0.01905  0.00709  -0.005402  -0.008391  -0.6393  0.7106
6.404e+09  -0.8559  0.199  0.01574  -0.03323  0.01643  0.006038  -0.3307  0.8522
6.405e+09  -0.7567  0.4891  -0.01736  0.04517  -0.0288  0.001634  0.01485  0.8892
6.406e+09  -0.5187  0.6705  -0.001418  -0.06037  0.0449  0.005307  0.3265  0.8588
6.408e+09  -0.2532  0.8007  -0.01114  -0.01708  0.006585  -0.00783  0.5865  0.7035
6.409e+09  0.06907  0.8652  -0.01677  -0.01629  -0.0003454  0.01501  0.8107  0.456
6.41e+09  0.3772  0.7526  -0.03461  -0.03267  -0.03627  -0.002497  0.884  0.178
6.411e+09  0.6175  0.6261  -0.01789  0.01173  0.04524  -0.0365  0.8634  -0.1459
6.412e+09  0.7792  0.3641  -0.01028  -0.003247  0.04113  -0.04146  0.8033  -0.4283
6.414e+09  0.9083  0.04554  -0.04482  0.05221  0.001696  0.02487  0.5832  -0.6468
6.415e+09  0.841  -0.2382  -0.03913  0.01593  0.002366  -0.05763  0.3117  -0.8164
6.416e+09  0.7007  -0.5397  -0.05036  0.03099  0.005457  0.006079  0.007688  -0.9081
6.418e+09  0.5105  -0.7093  -0.01499  0.003841  0.008348  0.005393  -0.2561  -0.8911
6.419e+09  0.1729  -0.8262  -0.02006  0.01155  0.008133  -0.02562  -0.5546  -0.6918
6.42e+09  -0.07291  -0.8685  -0.02637  0.01869  0.01662  0.008627  -0.7033  -0.456
6.421e+09  -0.3968  -0.798  -0.02122  -0.01331  0.007021  0.01017  -0.8546  -0.2043
6.422e+09  -0.6038  -0.5758  -0.007062  0.01989  0.03475  0.01546  -0.9125  0.09499
6.424e+09  -0.8219  -0.3555  0.03806  0.01718  -0.01621  -0.03031  -0.8211  0.4316
6.425e+09  -0.8892  0.003236  0.03541  0.02555  0.01839  0.0254  -0.6073  0.6538
6.426e+09  -0.7947  0.2756  -0.03852  0.04909  0.01511  -0.03131  -0.3567  0.8476
6.428e+09  -0.6901  0.5567  0.0171  0.02092  -0.02629  0.03605  -0.05137  0.8498
6.429e+09  -0.4669  0.701  0.01125  0.04178  -0.007519  -0.01391  0.2113  0.817
6.43e+09  -0.1777  0.8046  0.008323  -0.01444  0.01789  -0.01024  0.5156  0.6629
6.431e+09  0.09632  0.8254  -0.02387  -0.02886  -0.03733  0.02774  0.721  0.4424
6.432e+09  0.3871  0.7573  0.01798  0.03148  0.1012  -0.04219  0.8257  0.2138
6.434e+09  0.6274  0.5652  -0.0007586  -0.02726  -0.002493  0.05268  0.8612  -0.103
6.435e+09  0.8168  0.2935  0.02316  -0.01627  0.0466  0.0004416  0.8034  -0.3594
6.436e+09  0.8678  -0.008104  0.007358  0.02692  0.02636  0.01835  0.5893  -0.6207
6.438e+09  0.8106  -0.2556  -0.001152  0.05852  0.009897  0.01639  0.4388  -0.8277
6.439e+09  0.6811  -0.5375  0.02608  -0.01653  -0.02455  -0.03986  0.05116  -0.8669
6.44e+09  0.4904  -0.7144  0.006783  -0.03955  0.002875  0.02818  -0.1986  -0.8296
6.441e+09  0.2033  -0.8445  -0.01753  -0.004188  -0.02345  -0.01214  -0.4894  -0.6916
6.442e+09  -0.1134  -0.8461  0.01041  0.003058  -0.04606  0.01058  -0.7263  -0.4948
6.444e+09  -0.4104  -0.7518  0.03465  -0.004716  0.01764  -0.00549  -0.8301  -0.2205
6.445e+09  -0.6664  -0.5705  0.00218  0.008963  0.02968  0.06085  -0.8322  0.06342
6.446e+09  -0.8308  -0.3432  -0.01269  0.003124  0.01079  -0.0309  -0.7896  0.3675
6.448e+09  -0.8954  -0.03933  -0.003548  -0.0165  0.02226  0.02331  -0.5924  0.5988
6.449e+09  -0.8538  0.2525  0.01226  -0.00153  -0.02385  0.02892  -0.3501  0.7692
6.45e+09  -0.6812  0.5338  -0.01596  -0.03761  -0.03783  -0.0002173  -0.03181  0.8354
6.451e+09  -0.3876  0.7898  -0.01492  -0.0003358  0.007208  -0.008996  0.194  0.817
6.452e+09  -0.1573  0.9  -0.02961  -0.04497  -0.04657  -0.0379  0.5022  0.6696
6.454e+09  0.1718  0.8348  0.02149  -0.02931  0.04177  0.01086  0.7021  0.4838
6.455e+09  0.3931  0.7912  0.0391  -0.005229  0.009601  0.02352  0.7804  0.1845
6.456e+09  0.6788  0.5527  0.02939  -0.04318  0.004236  -0.01958  0.8313  -0.08334
6.458e+09  0.8286  0.3041  -0.05373  0.01166  0.002443  0.0009981  0.7363  -0.4084
6.459e+09  0.9124  -0.02032  -0.03888  0.0009428  -0.008145  -0.008261  0.5896  -0.6034
6.46e+09  0.8194  -0.3092  -0.006021  0.0134  -0.03948  -0.04506  0.3799  -0.7755
6.461e+09  0.6904  -0.5438  0.002482  0.04398  -0.01318  -0.0009056  0.06157  -0.855
6.462e+09  0.4805  -0.7344  -0.01964  0.004937  0.01927  0.003192  -0.2019  -0.8102
6.464e+09  0.1811  -0.8565  0.01704  -0.01065  -0.01831  0.02725  -0.4797  -0.6249
6.465e+09  -0.1494  -0.8861  0.02857  -0.05019  0.01537  0.01251  -0.6557  -0.5039
6.466e+09  -0.439  -0.7447  -0.02344  -0.005498  -0.02672  0.02349  -0.7514  -0.2386
6.468e+09  -0.6708  -0.5589  -0.01443  -0.03059  -0.02408  -0.005956  -0.8391  0.07819
6.469e+09  -0.8254  -0.3024  -0.007029  -0.02578  0.004714  -0.01056  -0.7729  0.3359
6.47e+09  -0.8888  0.02009  -0.01407  -0.02385  -0.01454  0.006609  -0.5834  0.5947
6.471e+09  -0.7917  0.3428  -0.009798  -0.05346  0.006908  0.02861  -0.3193  0.7386
6.472e+09  -0.7  0.5658  -0.005734  0.01168  0.01534  -0.01515  -0.04537  0.7925
6.474e+09  -0.4703  0.7678  0.0207  0.05351  0.008774  0.05761  0.1929  0.7881
6.475e+09  -0.1261  0.8917  0.03037  -0.03213  -0.006611  0.003057  0.4754  0.6476
6.476e+09  0.1496  0.8581  -0.008282  0.005565  -0.008659  0.01697  0.6582  0.428
6.478e+09  0.406  0.7648  0.008349  -0.01338  -0.04809  0.03827  0.7863  0.204
6.479e+09  0.6847  0.5304  -0.007841  0.04769  -0.004762  -0.01123  0.7823  -0.07528
6.48e+09  0.8287  0.2943  0.001277  0.001263  -0.02247  -0.03846  0.6476  -0.3792
6.481e+09  0.8883  0.03097  -0.006438  -0.02016  0.009268  -0.0339  0.5794  -0.593
6.482e+09  0.8261  -0.331  0.02475  0.03726  -0.01513  0.004103  0.336  -0.7177
6.484e+09  0.6184  -0.6145  0.0294  -0.0157  -0.01697  -0.004176  0.05291  -0.7814
6.485e+09  0.3915  -0.7878  -0.02552  -0.02162  -0.06087  -0.03218  -0.2616  -0.7551
6.486e+09  0.1018  -0.8876  -0.0007544  -0.007075  -0.03812  -0.03747  -0.4268  -0.6165
6.488e+09  -0.1629  -0.9281  0.02396  0.01345  0.01306  -0.05432  -0.6412  -0.4225
6.489e+09  -0.4515  -0.7552  -0.0278  -0.003146  0.03591  0.01211  -0.7491  -0.1637
6.49e+09  -0.685  -0.5653  0.02271  -0.04059  0.00953  -0.03014  -0.7712  0.06659
6.491e+09  -0.8694  -0.3125  0.01269  -0.02176  -0.04411  -0.06205  -0.7085  0.3746
6.492e+09  -0.8919  0.03092  -0.02186  0.01253  -0.04137  -0.02111  -0.5572  0.5546
6.494e+09  -0.8802  0.3634  -0.03216  0.01147  -0.01433  0.05044  -0.328  0.7106
6.495e+09  -0.65  0.6415  0.01128  -0.009384  -0.02867  0.02046  0.008577  0.7113
6.496e+09  -0.4525  0.817  0.00231  0.03749  -0.008651  0.02884  0.2451  0.7265
6.498e+09  -0.1119  0.9069  0.01558  0.02765  -0.03877  -0.03247  0.4682  0.5791
6.499e+09  0.2366  0.8702  0.02833  -0.006836  0.005295  0.0303  0.6347  0.4222
6.5e+09  0.4818  0.7558  0.01413  -0.0008094  -0.01376  -0.02767  0.7292  0.1586
6.501e+09  0.7306  0.5937  -0.00675  0.003823  -0.006494  0.005096  0.7381  -0.06811
6.502e+09  0.8943  0.3017  0.01144  -0.02025  0.001622  -0.04878  0.6331  -0.3716
6.504e+09  0.8679  -0.02389  -0.00582  -0.01291  -0.05244  0.002108  0.5271  -0.5537
6.505e+09  0.8427  -0.3758  -0.007461  -0.0004819  0.06259  -0.05531  0.2874  -0.7089
6.506e+09  0.6323  -0.688  -0.0467  0.0144  0.007511  0.05654  0.03283  -0.7387
6.508e+09  0.4161  -0.8397  0.003778  -0.003247  0.02277  -0.004213  -0.2395  -0.7475
6.509e+09  0.06379  -0.94  -0.003066  0.02408  -0.01082  0.02447  -0.4838  -0.6158
6.51e+09  -0.2246  -0.8827  -0.02186  -0.01859  0.02588  0.04019  -0.6529  -0.3597
6.511e+09  -0.5272  -0.757  -0.02555  -0.03358  -0.02298  0.008702  -0.745  -0.1329
6.512e+09  -0.7797  -0.5191  0.01462  0.002502  -0.01535  -0.00714  -0.7617  0.1366
6.514e+09  -0.8949  -0.2314  -0.001766  0.005847  0.0242  -0.03631  -0.6387  0.357
6.515e+09  -0.9351  0.08468  0.03153  -0.002683  0.01575  0.02401  -0.4902  0.5721
6.516e+09  -0.8378  0.3702  -0.02669  -0.02432  0.01125  -0.01138  -0.2527  0.6914
6.518e+09  -0.6875  0.6682  0.02843  -0.01344  -0.01979  0.03127  0.01291  0.7149
6.519e+09  -0.3409  0.8456  -0.01279  0.009623  0.04639  0.001724  0.2583  0.7014
6.52e+09  -0.1001  0.9658  -0.06005  -0.02682  0.01019  -0.01979  0.4726  0.5512
6.521e+09  0.1905  0.9022  0.02155  -0.01201  0.04057  0.01004  0.6501  0.3486
6.522e+09  0.5296  0.7324  -0.0367  -0.006217  0.02025  0.01129  0.7286  0.1108
6.524e+09  0.8329  0.5124  0.004162  -0.00875  -0.03421  -0.006035  0.7153  -0.1795
6.525e+09  0.9055  0.2046  0.01008  -0.006953  0.04787  0.05728  0.664  -0.4119
6.526e+09  0.9207  -0.1242  0.01559  -0.00406  -0.03046  0.02685  0.4273  -0.5549
6.528e+09  0.9234  -0.483  -0.004114  0.01772  0.01002  -0.0001839  0.2104  -0.6983
6.529e+09  0.6504  -0.6925  0.02106  -0.004137  -0.03119  0.005749  -0.04446  -0.6852
6.53e+09  0.3351  -0.8917  -0.03532  -0.009916  -1.602e-05  0.008357  -0.2508  -0.6186
6.531e+09  0.008702  -0.9444  0.01857  0.01866  -0.006821  -0.005509  -0.4666  -0.4967
6.532e+09  -0.3372  -0.9599  0.03573  -0.01277  -0.005272  0.005878  -0.5816  -0.2687
6.534e+09  -0.6027  -0.7672  -0.001035  -0.007352  -0.02493  -0.005888  -0.6243  -0.07729
6.535e+09  -0.8518  -0.4879  -0.0108  -0.04289  -0.05042  -0.01484  -0.6297  0.1174
6.536e+09  -0.9394  -0.1441  -0.01073  -0.02017  -0.04072  0.0009686  -0.6011  0.3303
6.538e+09  -0.9642  0.1761  0.01202  -0.00234  0.002248  0.03595  -0.4674  0.4974
6.539e+09  -0.8396  0.5062  -0.00961  0.02465  -0.02666  -0.03004  -0.2829  0.635
6.54e+09  -0.6314  0.7376  0.03136  -0.001006  -0.006259  -0.02931  -0.0588  0.6469
6.541e+09  -0.3457  0.8934  -0.009488  0.01261  -0.003785  0.0106  0.1975  0.673
6.542e+09  0.06046  1.009  -0.01848  0.01024  0.02903  0.01112  0.4374  0.602
6.544e+09  0.3296  0.9086  0.01105  -0.02128  0.02249  -0.000399  0.6052  0.4161
6.545e+09  0.6732  0.7075  -0.006375  0.04644  -0.008729  -0.05293  0.6989  0.1805
6.546e+09  0.9332  0.4322  -0.01374  -0.01036  0.002661  -0.03777  0.7045  -0.04146
6.548e+09  0.9733  0.1311  0.007379  -0.005336  0.03437  -0.00249  0.6558  -0.3533
6.549e+09  0.9733  -0.2767  -0.01267  0.02475  0.02849  -0.01234  0.4983  -0.5426
