# Hz S RI R 50
6.25e+09  -0.7957  0.07166  -0.03555  0.0231  0.004015  0.005972  0.1682  0.5024
6.251e+09  -0.7572  0.2807  0.02398  -0.01789  -0.02177  -0.04696  0.3845  0.3898
6.252e+09  -0.5876  0.5376  0.01952  -0.01184  0.005483  0.007906  0.5679  0.2448
6.254e+09  -0.3597  0.7137  0.00546  0.01354  0.008493  0.07131  0.607  0.01817
6.255e+09  -0.1206  0.8545  -0.02246  0.02429  0.02725  0.01222  0.6106  -0.2056
6.256e+09  0.1561  0.7597  -0.01248  -0.01907  0.003002  0.0265  0.5063  -0.4402
6.258e+09  0.411  0.7202  -0.003317  0.01634  0.02013  -0.03836  0.2774  -0.6104
6.259e+09  0.6228  0.4665  -0.02669  0.0007452  -0.0372  -0.009111  0.05284  -0.6674
6.26e+09  0.7629  0.2318  0.03642  0.006115  -0.0007389  0.05134  -0.2284  -0.6627
6.261e+09  0.8067  -0.1341  0.01477  0.0328  0.051  -0.005711  -0.4482  -0.5714
6.262e+09  0.7425  -0.3006  -0.005574  -0.002673  -0.007134  0.009946  -0.6356  -0.341
6.264e+09  0.5449  -0.531  -0.02314  -0.02566  0.02233  0.05264  -0.7032  -0.1165
6.265e+09  0.3245  -0.711  -0.0008019  -0.002462  0.02473  0.005694  -0.6969  0.1808
6.266e+09  0.0816  -0.8172  0.0126  0.03692  0.03209  0.009281  -0.63  0.3823
6.268e+09  -0.1514  -0.7868  0.003631  -0.0007146  -0.005609  0.02227  -0.4057  0.6008
6.269e+09  -0.4849  -0.6487  0.002386  0.01391  0.00214  0.01431  -0.2069  0.7211
6.27e+09  -0.643  -0.4436  0.007432  0.01037  -0.0005783  -0.006694  0.05224  0.7506
6.271e+09  -0.7828  -0.1871  -0.004441  0.01699  -0.006756  -0.01352  0.3141  0.6856
6.272e+09  -0.8469  -0.008362  -0.02445  0.00741  -0.03006  0.01645  0.5628  0.517
6.274e+09  -0.7069  0.308  -0.03337  -0.02134  -0.002191  -0.02754  0.6939  0.2918
6.275e+09  -0.5698  0.6233  -0.02441  0.004324  -0.001889  0.0104  0.7558  0.05589
6.276e+09  -0.2911  0.7331  -0.02774  0.01585  -0.015  0.03327  0.7301  -0.2152
6.278e+09  -0.05298  0.7471  0.007752  0.0115  0.008522  0.03147  0.6266  -0.4495
6.279e+09  0.1855  0.7528  0.02969  -0.01566  0.006259  0.0238  0.3793  -0.6636
6.28e+09  0.405  0.6821  0.02178  -0.01538  0.0315  -0.01696  0.166  -0.7659
6.281e+09  0.6977  0.43  -0.01469  -0.01423  0.03301  0.1063  -0.09326  -0.761
6.282e+09  0.7732  0.1462  0.02409  0.0104  0.01001  -0.00255  -0.3327  -0.6836
6.284e+09  0.7851  -0.08389  0.01674  -0.01356  0.0594  -0.003335  -0.5909  -0.5329
6.285e+09  0.7537  -0.4327  0.004653  0.01973  -0.005852  0.006831  -0.7497  -0.2704
6.286e+09  0.5669  -0.6406  -0.00292  -0.01632  -0.03292  0.05814  -0.7982  -0.03017
6.288e+09  0.3139  -0.7774  0.02073  0.02052  -0.007733  0.02433  -0.7482  0.2271
6.289e+09  0.06079  -0.8142  0.004013  0.02324  -0.01492  -0.02606  -0.6566  0.5312
6.29e+09  -0.2423  -0.8074  -0.03123  0.006373  0.02202  -0.01779  -0.3891  0.6856
6.291e+09  -0.495  -0.6672  0.002459  -0.04232  0.02222  -0.008034  -0.1369  0.7685
6.292e+09  -0.7129  -0.4476  0.02681  0.006387  -0.05438  -0.02001  0.09654  0.8345
6.294e+09  -0.8062  -0.1632  -0.00717  -0.009466  0.01673  0.01048  0.3903  0.6896
6.295e+09  -0.8116  0.1126  0.0009811  0.02184  -0.05168  -0.02828  0.6398  0.5409
6.296e+09  -0.7529  0.3863  0.02382  0.005886  -0.01212  -0.06024  0.7674  0.3103
6.298e+09  -0.5643  0.5958  -0.008622  -0.01656  0.02002  0.0194  0.8061  0.01553
6.299e+09  -0.2626  0.7393  -0.01123  -0.01303  0.014  0.04729  0.7791  -0.2912
6.3e+09  0.03824  0.8007  -0.008649  0.008896  -0.0352  0.002514  0.6784  -0.5238
6.301e+09  0.2955  0.7483  0.02181  0.0007405  -0.05832  0.07077  0.3993  -0.7456
6.302e+09  0.5641  0.6182  -0.004664  -0.04049  -0.01489  -0.02719  0.1538  -0.825
6.304e+09  0.7288  0.3846  -0.03691  -0.01574  0.0152  0.007591  -0.1327  -0.8369
6.305e+09  0.7737  0.1454  -0.03112  -0.007937  -0.01698  0.01811  -0.4344  -0.754
6.306e+09  0.7751  -0.178  0.006079  0.01324  -0.01456  -0.003905  -0.6435  -0.5814
6.308e+09  0.7312  -0.4588  -0.00971  0.01065  -0.005267  -0.05379  -0.8186  -0.3054
6.309e+09  0.4858  -0.5994  -0.01747  0.022  -0.003117  -0.006823  -0.8293  -0.00677
6.31e+09  0.2816  -0.8056  0.03409  -0.03032  0.004754  0.06225  -0.8207  0.2695
6.311e+09  -0.07639  -0.8206  -0.00985  -0.03423  -0.04537  -0.0344  -0.6871  0.551
6.312e+09  -0.2676  -0.7097  -0.003777  0.003534  -0.01676  -0.0249  -0.458  0.7415
6.314e+09  -0.5333  -0.6105  0.007791  0.007442  -0.005036  0.0293  -0.1741  0.9083
6.315e+09  -0.7503  -0.3976  -0.01435  -0.005181  0.001855  -0.07579  0.1464  0.8629
6.316e+09  -0.8544  -0.05534  -0.01983  -0.006009  -0.01331  0.0007995  0.4063  0.7638
6.318e+09  -0.7681  0.2372  0.008916  0.00254  0.01354  -0.02741  0.684  0.5431
6.319e+09  -0.6623  0.4892  -0.002643  0.003963  0.06409  -0.01214  0.853  0.3325
6.32e+09  -0.521  0.6183  0.008466  0.008708  -0.004793  -0.03518  0.9158  0.012
6.321e+09  -0.2332  0.8466  -0.006321  -0.03224  -0.008672  0.0002902  0.8201  -0.3054
6.322e+09  0.08934  0.8499  -0.01173  0.006362  -0.008047  0.01167  0.6658  -0.5442
6.324e+09  0.3543  0.7609  -0.0376  -0.02683  0.002597  0.02578  0.4329  -0.7046
6.325e+09  0.6036  0.6193  0.00879  -0.01954  -0.007841  -0.03621  0.2073  -0.885
6.326e+09  0.8024  0.3409  -0.001503  -0.0001252  0.07687  0.004344  -0.1364  -0.8922
6.328e+09  0.8661  0.04861  -0.04353  -0.01829  -0.03215  0.05632  -0.4218  -0.7902
6.329e+09  0.7822  -0.2593  -0.02614  -0.001226  0.008901  0.02862  -0.6477  -0.591
6.33e+09  0.6699  -0.4746  0.00445  0.01844  -0.005157  -0.03549  -0.8319  -0.3361
6.331e+09  0.4331  -0.7078  0.03038  0.01678  0.01773  0.001793  -0.9588  -0.001874
6.332e+09  0.1392  -0.8158  -0.01028  0.005181  -0.001789  -0.03533  -0.8926  0.2981
6.334e+09  -0.1139  -0.8682  0.003542  -0.0003765  -0.03552  -0.006935  -0.7491  0.5594
6.335e+09  -0.3912  -0.7184  -0.03519  0.009344  0.02975  0.00472  -0.4708  0.7952
6.336e+09  -0.661  -0.5294  -0.04061  0.009783  -0.01728  0.000438  -0.2097  0.8906
6.338e+09  -0.8084  -0.2203  -0.01121  0.005669  -0.03961  -0.01579  0.1366  0.8936
6.339e+09  -0.8414  0.005197  0.03242  -0.0006427  -0.03643  0.01664  0.4474  0.8416
6.34e+09  -0.7969  0.2718  0.001258  0.001444  0.0837  0.02457  0.6759  0.6041
6.341e+09  -0.583  0.5273  -0.01266  -0.003629  -0.02423  0.01082  0.8872  0.3357
6.342e+09  -0.4448  0.7814  0.01862  0.008385  -0.01422  7.523e-05  0.9165  0.07192
6.344e+09  -0.07975  0.8878  -0.01895  0.03167  0.005739  -0.02787  0.9012  -0.2349
6.345e+09  0.2278  0.8547  0.006418  -0.01629  -0.003358  -0.01749  0.7663  -0.5696
6.346e+09  0.5022  0.7269  0.01812  -0.01568  -0.04296  0.01942  0.5033  -0.7709
6.348e+09  0.7092  0.4872  0.02632  -0.01562  0.02177  0.04538  0.2144  -0.9788
6.349e+09  0.8218  0.1789  -0.02265  0.01282  0.01007  0.06763  -0.1124  -0.9315
6.35e+09  0.8252  -0.1024  0.01068  0.01152  0.01039  0.007565  -0.419  -0.8684
6.351e+09  0.7513  -0.3551  -0.004515  0.02085  0.03023  0.007516  -0.727  -0.6114
6.352e+09  0.5853  -0.6136  0.02833  -0.0004089  -0.008069  -0.03558  -0.8216  -0.3724
6.354e+09  0.3663  -0.8077  0.02764  0.03188  0.06049  -0.08123  -0.9299  -0.05203
6.355e+09  0.01067  -0.8781  -0.01429  0.01321  0.005968  0.03826  -0.8902  0.2368
6.356e+09  -0.2356  -0.8004  0.02519  0.00677  -0.01603  0.01598  -0.7479  0.5729
6.358e+09  -0.5251  -0.6971  -0.009058  0.005228  -0.02298  0.02277  -0.5382  0.8091
6.359e+09  -0.7461  -0.4531  -0.02109  -0.009553  0.006323  -0.02003  -0.2411  0.8868
6.36e+09  -0.8489  -0.1776  -0.0239  -0.006703  -0.01642  -0.02483  0.09397  0.9636
6.361e+09  -0.8286  0.1666  0.003335  -0.01782  0.03108  0.008279  0.4393  0.8259
6.362e+09  -0.7705  0.4448  0.01544  0.01347  0.03024  -0.0436  0.6606  0.6596
6.364e+09  -0.5424  0.6806  0.01276  -0.009111  -0.01799  -0.02709  0.8475  0.3924
6.365e+09  -0.2893  0.8685  0.05436  -0.02061  -0.02014  0.0304  0.9622  0.05785
6.366e+09  0.04591  0.9028  0.009026  0.008199  -0.01496  0.0184  0.9211  -0.2376
6.368e+09  0.2754  0.7814  0.01247  -0.001102  0.009023  -0.004975  0.7533  -0.5374
6.369e+09  0.6116  0.6431  -0.01119  0.009654  0.008408  0.01353  0.5248  -0.7732
6.37e+09  0.7911  0.3473  -0.009847  0.03019  -0.01962  0.0007711  0.2195  -0.881
6.371e+09  0.857  0.03791  -0.01472  -0.01025  0.04921  0.009679  -0.1236  -0.992
6.372e+09  0.8678  -0.2453  -0.04999  0.03095  0.07636  -0.00632  -0.3976  -0.8774
6.374e+09  0.737  -0.5143  0.005592  0.01011  0.00345  -0.01096  -0.6844  -0.6957
6.375e+09  0.4324  -0.723  -0.01062  0.001849  -0.02869  -0.01368  -0.8843  -0.4189
6.376e+09  0.2093  -0.8863  -0.03619  0.02878  -0.003883  -0.01561  -0.9255  -0.0953
6.378e+09  -0.146  -0.8527  -0.03534  0.02695  0.01937  -0.008064  -0.9548  0.2594
6.379e+09  -0.4224  -0.804  0.0007542  -0.04064  -0.0382  0.03663  -0.7994  0.5612
6.38e+09  -0.7026  -0.5728  0.01416  0.01014  -0.006028  0.03116  -0.5679  0.7488
6.381e+09  -0.8325  -0.3491  -0.01909  -0.001245  -0.000601  -0.03955  -0.3061  0.8755
6.382e+09  -0.8585  -0.02117  -0.001509  0.01005  0.008808  -0.02464  0.04297  0.8967
6.384e+09  -0.8225  0.3363  0.02204  0.01434  -0.02471  -0.0245  0.341  0.863
6.385e+09  -0.6732  0.5664  0.002311  0.006335  0.0428  -0.03568  0.6323  0.7224
6.386e+09  -0.4493  0.7829  0.009965  0.01567  0.02265  -0.002338  0.8078  0.4316
6.388e+09  -0.09665  0.8852  0.01339  0.02039  -0.02504  0.03681  0.9221  0.09457
6.389e+09  0.188  0.7978  0.005296  0.008792  -0.01956  -0.005564  0.921  -0.184
6.39e+09  0.4442  0.7577  -0.02434  0.005798  -0.01944  -0.005839  0.7475  -0.5224
6.391e+09  0.7391  0.5532  -0.01133  0.005861  0.0105  -0.04576  0.5443  -0.7484
6.392e+09  0.874  0.1873  0.04276  -0.004319  0.02564  0.02862  0.2636  -0.859
6.394e+09  0.9098  -0.05027  -0.01345  0.004226  -0.01056  -0.0177  -0.09477  -0.9051
6.395e+09  0.7811  -0.3457  -0.045  0.002487  0.006965  -0.01188  -0.3377  -0.8834
6.396e+09  0.5929  -0.6223  0.008862  0.01433  -0.04639  0.01239  -0.631  -0.676
6.398e+09  0.3676  -0.8249  -0.01369  -0.00334  -0.01347  0.001181  -0.817  -0.4338
6.399e+09  0.05897  -0.862  0.01278  -0.04017  -0.006525  -0.007387  -0.9117  -0.1449
6.4e+09  -0.2342  -0.8123  -0.01377  0.03044  0.004661  -0.005069  -0.9172  0.1363
6.401e+09  -0.5397  -0.7509  -0.0182  -0.04974  0.03065  -0.03502  -0.7853  0.4265
6.402e+09  -0.7606  -0.4593  -0.0564  -0.01098  -0.004147  -0.02053  -0.5907  0.74
6.404e+09  -0.8166  -0.1837  0.01118  0.02736  -0.02696  -0.04013  -0.3044  0.8785
6.405e+09  -0.8486  0.1312  0.01047  -0.05562  0.02716  -0.001466  0.05311  0.9423
6.406e+09  -0.7669  0.4304  0.0524  0.04967  -0.002001  0.01099  0.314  0.8555
6.408e+09  -0.6076  0.6626  0.005329  -0.05059  -0.003137  -0.01705  0.6025  0.7613
6.409e+09  -0.2869  0.8166  0.03809  0.003188  -0.02335  0.006719  0.7554  0.5058
6.41e+09  0.006368  0.869  0.0229  -0.01051  0.0005235  -0.06645  0.8385  0.1639
6.411e+09  0.3169  0.8313  -0.03809  -0.001502  -0.009271  -0.05531  0.8437  -0.1311
6.412e+09  0.5284  0.6612  -0.02028  -0.01051  0.005613  0.02248  0.7747  -0.4436
6.414e+09  0.7679  0.4214  -0.03459  -0.007913  0.01792  0.05611  0.6134  -0.6261
6.415e+09  0.872  0.1209  0.004206  0.01897  0.0112  -0.05376  0.349  -0.8235
6.416e+09  0.8721  -0.1855  0.01744  0.006156  0.0416  0.01848  0.03746  -0.8835
6.418e+09  0.7901  -0.4716  0.04601  0.01042  -0.0207  0.006472  -0.281  -0.8677
6.419e+09  0.4894  -0.7035  0.004574  0.01993  -0.007613  -0.009707  -0.5487  -0.7169
6.42e+09  0.2345  -0.8285  -0.02944  -0.01221  0.02687  -0.01234  -0.7665  -0.5025
6.421e+09  -0.04524  -0.8853  0.01687  -0.02816  -0.007603  -0.003845  -0.872  -0.1988
6.422e+09  -0.3566  -0.8082  -0.01254  -0.02208  0.01937  0.02076  -0.8677  0.1071
6.424e+09  -0.597  -0.5835  -0.0002943  0.06669  0.01109  -0.05396  -0.7808  0.3995
6.425e+09  -0.7802  -0.383  -0.05157  0.03567  -0.02969  -0.02858  -0.5952  0.6281
6.426e+09  -0.8688  -0.1037  -0.001906  0.01286  -0.009503  -0.05554  -0.3523  0.7931
6.428e+09  -0.8374  0.1898  0.005955  0.002118  0.01267  0.05323  -0.02204  0.8743
6.429e+09  -0.7174  0.5008  0.01577  -0.004015  0.03954  0.01062  0.2824  0.8664
6.43e+09  -0.4908  0.7079  -0.05883  -0.06783  -0.03345  0.02382  0.5158  0.667
6.431e+09  -0.2073  0.7899  0.008537  0.006274  -0.0407  0.008961  0.739  0.5033
6.432e+09  0.07444  0.9014  0.01809  -0.01194  0.003343  0.02233  0.8431  0.2592
6.434e+09  0.4425  0.7429  0.04281  -0.03526  0.05276  -0.016  0.8765  -0.1142
6.435e+09  0.6722  0.5819  -0.01485  -0.01605  -0.02545  0.01461  0.7808  -0.4223
6.436e+09  0.8016  0.2693  -0.005934  0.006686  0.03177  0.01768  0.5544  -0.6233
6.438e+09  0.848  0.01821  0.0303  0.01207  0.004487  -0.01848  0.3593  -0.7929
6.439e+09  0.8096  -0.29  -0.01172  0.01834  0.03116  0.01375  0.0606  -0.855
6.44e+09  0.6392  -0.4912  -0.006048  -0.011  0.01672  0.01826  -0.2181  -0.8692
6.441e+09  0.4501  -0.7497  -0.01026  -0.02831  0.03372  0.01089  -0.4769  -0.6471
6.442e+09  0.2661  -0.8053  0.04667  0.006283  0.03367  -0.0194  -0.7316  -0.4851
6.444e+09  -0.1355  -0.8766  0.03123  0.01005  0.007446  0.002189  -0.8186  -0.2164
6.445e+09  -0.3873  -0.7638  0.007709  -0.01997  0.03065  -0.01774  -0.8223  0.08713
6.446e+09  -0.6663  -0.5438  0.02728  -0.0121  0.0273  0.01076  -0.729  0.3926
6.448e+09  -0.8328  -0.3453  0.03836  0.01582  0.02115  0.06192  -0.6071  0.6252
6.449e+09  -0.8917  -0.01205  -0.0461  -0.01211  -0.02545  0.0169  -0.3432  0.7231
6.45e+09  -0.8058  0.3256  0.009731  0.00877  0.03188  0.02335  -0.05331  0.8659
6.451e+09  -0.6384  0.5401  0.01516  0.0008643  -0.04819  0.0369  0.223  0.8047
6.452e+09  -0.4435  0.7589  0.09159  -0.02246  -0.01602  -0.01572  0.4637  0.692
6.454e+09  -0.1382  0.8391  -0.008603  0.008624  -0.05502  -0.04084  0.7086  0.4576
6.455e+09  0.1575  0.8068  -0.002936  -0.01197  -0.01713  0.008577  0.8012  0.2017
6.456e+09  0.4031  0.7121  -0.01966  0.005811  0.01011  0.003047  0.8365  -0.08705
6.458e+09  0.7159  0.5696  0.005612  0.02333  -0.02792  -0.03202  0.7413  -0.3676
6.459e+09  0.8079  0.3319  0.00886  -0.004934  -0.05276  -0.04854  0.5967  -0.5268
6.46e+09  0.8406  0.0006061  -0.006414  0.001499  0.03456  -0.0429  0.3783  -0.6733
6.461e+09  0.7821  -0.3205  -0.02224  -0.04173  -0.008714  0.01452  0.08874  -0.7845
6.462e+09  0.6888  -0.552  0.004088  -0.02492  -0.02257  0.01169  -0.1853  -0.7923
6.464e+09  0.3982  -0.7685  0.02777  -0.02917  0.02535  -0.004628  -0.4676  -0.6278
6.465e+09  0.1274  -0.8545  -0.02115  0.01259  0.01548  0.0146  -0.6504  -0.4604
6.466e+09  -0.2181  -0.8537  0.007685  0.01765  0.0007117  -0.007795  -0.7936  -0.2172
6.468e+09  -0.4902  -0.7558  0.01551  0.0157  -0.02528  0.007901  -0.8035  0.03739
6.469e+09  -0.6862  -0.5138  0.039  -0.01859  -0.03692  0.08911  -0.6973  0.3292
6.47e+09  -0.8301  -0.2155  0.01899  -0.000709  0.01917  0.03594  -0.5805  0.6003
6.471e+09  -0.8292  0.01509  0.006109  -0.0005832  0.005233  -0.02425  -0.3462  0.7319
6.472e+09  -0.8184  0.3406  0.008546  -0.04728  0.02876  -0.01376  -0.03744  0.8043
6.474e+09  -0.6344  0.6146  0.01495  0.03787  0.02936  -0.01414  0.1833  0.762
6.475e+09  -0.365  0.7845  -0.01198  0.007775  -0.02424  0.03571  0.4828  0.635
6.476e+09  -0.1005  0.8378  -0.009067  0.00607  0.02486  -0.007805  0.6479  0.434
6.478e+09  0.2373  0.8621  -0.0232  -0.05223  -0.01321  -0.02049  0.7731  0.1846
6.479e+09  0.4502  0.7233  0.008928  0.02269  0.002338  0.004751  0.7901  -0.09234
6.48e+09  0.7103  0.5299  0.01364  -0.02059  0.01307  0.03073  0.6885  -0.3589
6.481e+09  0.8106  0.2373  -0.02364  0.01834  -0.018  0.01856  0.5422  -0.5865
6.482e+09  0.8471  -0.02818  -0.02117  -0.004173  0.01012  -0.01906  0.2961  -0.7108
6.484e+09  0.7709  -0.3465  -0.007155  0.006122  -0.0302  0.01658  0.03631  -0.7899
6.485e+09  0.5938  -0.622  0.01802  -0.004498  -0.03971  -0.03485  -0.2047  -0.7664
6.486e+09  0.3603  -0.7756  -0.01045  0.008475  0.04172  0.007283  -0.4818  -0.6108
6.488e+09  0.0929  -0.8439  0.03275  0.01112  -0.05232  -0.002902  -0.6451  -0.4371
6.489e+09  -0.1968  -0.8759  0.03763  -0.002545  0.01102  -0.02248  -0.7418  -0.2031
6.49e+09  -0.4224  -0.7339  0.02878  0.004106  0.02108  -0.007843  -0.7819  0.07025
6.491e+09  -0.687  -0.5506  -0.02472  -0.0497  -0.0213  0.01413  -0.6478  0.3444
6.492e+09  -0.8108  -0.2221  -0.0211  -0.0007248  -0.04508  -0.0227  -0.541  0.5788
6.494e+09  -0.8853  0.08315  0.03147  -0.01765  -0.00969  0.03395  -0.3335  0.7379
6.495e+09  -0.8184  0.3928  0.00762  -0.006032  -0.0675  0.01204  -0.01222  0.7821
6.496e+09  -0.5833  0.5094  0.01601  -0.01238  0.005487  -0.01258  0.2066  0.7443
6.498e+09  -0.3857  0.7528  -0.04866  -0.007085  -0.007435  -0.05192  0.4514  0.5696
6.499e+09  -0.05649  0.8596  -0.0146  -0.02358  0.02615  -0.0131  0.6605  0.4013
6.5e+09  0.2498  0.8175  -0.01128  0.01968  0.03782  -0.05857  0.7488  0.1963
6.501e+09  0.5436  0.7616  -0.001229  0.02515  -0.005827  -0.03094  0.7535  -0.119
6.502e+09  0.6732  0.477  -0.0003368  -0.02293  0.03536  0.005648  0.6753  -0.3285
6.504e+09  0.8405  0.299  -0.009071  -0.004511  -0.04845  -0.04797  0.5254  -0.5719
6.505e+09  0.8434  -0.08034  0.002803  -0.02906  -0.0267  0.02073  0.3053  -0.7172
6.506e+09  0.7916  -0.3905  0.009406  0.06412  -0.02681  -2.201e-05  0.02054  -0.7651
6.508e+09  0.6651  -0.6319  -0.002553  -0.006967  -0.03852  0.02722  -0.2578  -0.6667
6.509e+09  0.3509  -0.852  -0.01054  -0.003411  0.0295  0.004499  -0.4653  -0.6047
6.51e+09  0.03788  -0.8524  -0.01571  -0.03514  0.0003755  -0.02306  -0.6254  -0.3762
6.511e+09  -0.2642  -0.8856  -0.003209  7.39e-05  0.02603  -0.008089  -0.7524  -0.1606
6.512e+09  -0.5447  -0.7517  0.002879  0.004951  -0.01124  -0.01338  -0.7516  0.07671
6.514e+09  -0.8108  -0.4889  -0.02853  0.01601  -0.05441  -0.0088  -0.6755  0.3857
6.515e+09  -0.866  -0.1819  0.01082  -0.05134  -0.0453  -0.01539  -0.4354  0.5511
6.516e+09  -0.9227  0.122  -0.01942  -0.01668  0.002895  8.2e-05  -0.2392  0.6977
6.518e+09  -0.8529  0.4129  0.003966  0.01221  -0.006831  0.01825  0.01381  0.7607
6.519e+09  -0.6223  0.7159  0.0214  0.004413  0.03017  -0.0108  0.2551  0.6977
6.52e+09  -0.3039  0.8609  0.01387  0.01988  0.00873  0.02724  0.5049  0.548
6.521e+09  -0.02565  0.9195  0.01816  0.007418  -0.0002761  -0.01058  0.6417  0.362
6.522e+09  0.2846  0.8782  -0.01814  -0.0007761  -0.01088  0.001739  0.7239  0.08686
6.524e+09  0.6112  0.7176  0.009874  0.02717  -0.001257  0.00402  0.7097  -0.1702
6.525e+09  0.8162  0.5118  -0.004011  -0.007935  -0.004363  -0.0167  0.631  -0.4211
6.526e+09  0.9504  0.08899  -0.002215  -0.01155  -0.02968  0.05831  0.453  -0.5839
6.528e+09  0.9357  -0.1259  0.05811  -0.02417  0.002688  0.01109  0.2195  -0.678
6.529e+09  0.8115  -0.454  0.02425  0.02779  -0.003574  -0.005378  -0.06047  -0.7046
6.53e+09  0.586  -0.7699  -0.02089  -0.01071  -0.004177  -0.04236  -0.2957  -0.6003
6.531e+09  0.3428  -0.9041  0.00335  0.01826  -0.02052  -0.002752  -0.4576  -0.4764
6.532e+09  0.02292  -0.9129  -0.02785  0.01038  0.009445  -0.03787  -0.5537  -0.321
6.534e+09  -0.3597  -0.8876  5.166e-05  -0.01519  -0.05962  -0.03205  -0.6392  -0.0805
6.535e+09  -0.6076  -0.7568  0.00673  -0.007545  -0.008415  0.01962  -0.6656  0.078
6.536e+09  -0.8661  -0.4671  -0.03032  0.001773  -0.01755  -0.01253  -0.5275  0.2662
6.538e+09  -0.9305  -0.08022  -0.04111  -8.149e-05  -0.02984  0.0128  -0.4529  0.4492
6.539e+09  -0.9313  0.2048  -0.003935  0.02407  -0.04479  0.001697  -0.2509  0.6012
6.54e+09  -0.7963  0.4849  -0.004713  0.01915  -0.005139  -0.01336  -0.03645  0.6554
6.541e+09  -0.5698  0.7331  -0.03576  0.01154  -0.004225  -0.0296  0.1852  0.6774
6.542e+09  -0.2532  0.8987  -0.002314  -0.00162  0.03651  -0.02073  0.4107  0.5731
6.544e+09  0.04924  0.9422  -0.0165  0.01986  0.01599  -0.02469  0.6236  0.4021
6.545e+09  0.4195  0.8838  0.02096  0.01046  -0.02649  0.01341  0.7099  0.1821
6.546e+09  0.6974  0.6872  0.007657  0.01387  0.002526  0.01782  0.7089  -0.07009
6.548e+09  0.8666  0.3774  0.01488  0.0175  0.03214  -0.03024  0.6363  -0.331
6.549e+09  0.9572  0.05782  0.003625  -0.005296  -0.01369  0.02147  0.5208  -0.5289
6.55e+09  0.9342  -0.2459  -0.008515  -0.02068  -0.02482  0.02542  0.2677  -0.7007
