# Hz S RI R 50
6.25e+09  0.07127  0.8788  -0.002253  0.05716  0.02451  -0.04209  0.154  0.495
6.251e+09  0.3784  0.7785  0.02815  -0.004445  -0.001253  -0.04185  0.3861  0.3991
6.252e+09  0.6027  0.6445  0.002621  -0.0003462  -0.01377  -0.02714  0.5327  0.2518
6.254e+09  0.8226  0.3308  -0.01476  0.004686  -0.04011  0.05055  0.6157  0.005095
6.255e+09  0.8639  0.03631  -0.00351  0.02133  0.03658  -0.04664  0.6018  -0.2141
6.256e+09  0.8278  -0.3415  0.0139  -0.01303  0.03399  0.05865  0.4851  -0.4503
6.258e+09  0.7136  -0.5051  -0.01962  0.02003  0.02159  0.005669  0.2836  -0.5923
6.259e+09  0.4509  -0.7097  -0.01997  -0.005518  -0.01386  0.02248  0.04399  -0.6392
6.26e+09  0.143  -0.8137  -0.00565  -0.02806  -0.005352  0.03202  -0.1932  -0.6728
6.261e+09  -0.1633  -0.8582  -0.009952  0.02366  0.01284  0.0369  -0.4692  -0.5318
6.262e+09  -0.4182  -0.707  -0.003204  0.004828  0.01572  0.02073  -0.6191  -0.325
6.264e+09  -0.6338  -0.4673  -0.04082  -0.02298  0.006922  -0.005377  -0.6934  -0.101
6.265e+09  -0.8028  -0.2887  0.0008278  0.008802  0.004052  -0.04028  -0.7112  0.1428
6.266e+09  -0.8079  0.01465  -0.00675  -0.009763  0.03542  0.03259  -0.6495  0.408
6.268e+09  -0.8051  0.2786  -0.01326  -0.03499  0.02215  0.007122  -0.4714  0.5695
6.269e+09  -0.6969  0.5997  0.04174  -0.00744  -0.008612  -0.01797  -0.1854  0.7067
6.27e+09  -0.4557  0.7536  -0.02171  0.01246  0.0194  0.007786  0.07722  0.7622
6.271e+09  -0.07063  0.8252  0.007017  0.00376  0.02298  -0.007927  0.3855  0.699
6.272e+09  0.1418  0.8435  -0.01821  0.03166  0.004131  -0.04969  0.5654  0.5045
6.274e+09  0.4444  0.7409  -0.01041  -0.001989  -0.002219  -0.008856  0.7196  0.3295
6.275e+09  0.7111  0.4803  -0.02281  -0.01125  0.02852  -0.008779  0.7417  0.003891
6.276e+09  0.8301  0.2325  0.009382  -0.002186  0.01299  -0.00636  0.7527  -0.2254
6.278e+09  0.8475  -0.02877  0.01431  0.008716  0.00548  -0.01318  0.6195  -0.423
6.279e+09  0.7212  -0.2949  -0.006197  -0.006035  0.005119  0.0293  0.4323  -0.65
6.28e+09  0.6429  -0.5222  -0.02494  -0.02695  -0.005611  0.04414  0.138  -0.7572
6.281e+09  0.4256  -0.7397  0.007674  -0.01386  -0.01248  -0.02263  -0.1113  -0.7787
6.282e+09  0.09979  -0.8008  0.002901  0.02287  0.01971  0.05987  -0.3834  -0.6702
6.284e+09  -0.2081  -0.8245  -0.0121  -0.009557  0.0371  -0.05082  -0.5636  -0.5464
6.285e+09  -0.4686  -0.6623  -0.00902  0.02739  0.03337  0.02837  -0.7099  -0.3099
6.286e+09  -0.6808  -0.5121  -0.008738  0.00988  -0.02379  -0.01939  -0.7735  -0.01262
6.288e+09  -0.8179  -0.2139  0.02212  0.02136  0.04721  -0.001839  -0.7713  0.2334
6.289e+09  -0.8298  -0.00238  0.003892  0.003862  0.0004837  0.01564  -0.6329  0.5078
6.29e+09  -0.7516  0.3654  0.02283  -0.02763  -0.04101  -0.002508  -0.3933  0.6763
6.291e+09  -0.6129  0.5981  -0.003646  -0.01777  -0.02441  -0.03474  -0.1323  0.7851
6.292e+09  -0.2991  0.7665  -0.01511  -0.02355  -0.02675  -0.0007259  0.1345  0.8157
6.294e+09  -0.0229  0.8562  0.008013  -0.003429  0.02873  0.01852  0.4093  0.6872
6.295e+09  0.2291  0.8232  -0.006954  -0.02266  -0.01455  -0.01893  0.622  0.5238
6.296e+09  0.4874  0.6745  -0.02228  0.001477  -0.0253  0.02095  0.7644  0.2718
6.298e+09  0.7039  0.4  -0.01528  -0.007996  0.01413  -0.03666  0.8459  0.01664
6.299e+09  0.813  0.2169  0.0158  0.0001334  -0.005838  0.03548  0.7968  -0.2778
6.3e+09  0.8762  -0.143  0.01658  -0.02935  -0.01495  -0.04324  0.6236  -0.5367
6.301e+09  0.7674  -0.43  -0.007416  0.0162  -0.002138  -0.0322  0.4478  -0.7093
6.302e+09  0.5238  -0.6491  0.01773  0.00825  -0.02009  0.0003634  0.1539  -0.8377
6.304e+09  0.2973  -0.8253  0.01099  0.0048  0.04868  0.01666  -0.1458  -0.8383
6.305e+09  0.01417  -0.801  -0.004542  0.01841  0.02758  -0.01172  -0.4222  -0.7459
6.306e+09  -0.3052  -0.8411  -0.007914  -0.0003209  0.06352  -0.0159  -0.6629  -0.5741
6.308e+09  -0.56  -0.6221  0.0004321  -0.02176  -0.07285  -0.02105  -0.785  -0.3087
6.309e+09  -0.7194  -0.4122  -0.002716  0.008512  -0.04133  -0.001939  -0.8665  -0.03045
6.31e+09  -0.8766  -0.1149  0.01487  -0.03283  0.008947  -0.0364  -0.8297  0.2846
6.311e+09  -0.842  0.1659  0.004375  0.01063  0.02104  0.03292  -0.6622  0.5191
6.312e+09  -0.708  0.4608  -0.0283  0.00397  -0.02177  -0.04928  -0.4532  0.7728
6.314e+09  -0.5449  0.6614  -0.01332  0.03493  0.0079  0.02758  -0.1704  0.8584
6.315e+09  -0.2636  0.8134  0.02112  0.005751  -0.001415  0.03078  0.1633  0.8663
6.316e+09  0.04456  0.8271  0.007525  0.005982  -0.009127  0.02828  0.4197  0.7899
6.318e+09  0.3754  0.7979  -0.004667  0.01824  0.01964  0.01356  0.6729  0.5469
6.319e+09  0.5415  0.6275  -0.006527  0.004999  0.0176  -0.006128  0.818  0.324
6.32e+09  0.7539  0.3392  0.04173  -0.0122  0.01354  0.02612  0.8852  0.0003422
6.321e+09  0.842  0.0567  -0.007134  0.01807  -0.01219  -0.01187  0.8546  -0.2984
6.322e+09  0.8319  -0.2599  0.01609  -0.01379  -0.01303  0.02125  0.6877  -0.5731
6.324e+09  0.6332  -0.5173  0.01037  -0.00508  -0.02569  0.01693  0.4675  -0.7502
6.325e+09  0.4591  -0.6395  0.003875  -0.001213  -6.113e-05  -0.02036  0.1587  -0.8756
6.326e+09  0.1934  -0.8155  0.007457  0.01535  -0.01656  -0.02005  -0.1803  -0.8827
6.328e+09  -0.0938  -0.8239  -0.003335  0.02312  0.01099  -0.01588  -0.4436  -0.7941
6.329e+09  -0.4244  -0.7794  -0.04177  0.01503  0.009583  -0.003435  -0.7219  -0.6191
6.33e+09  -0.628  -0.6106  -0.01637  -0.004388  -0.02004  0.03642  -0.8505  -0.2997
6.331e+09  -0.7254  -0.2911  0.004423  -0.003218  0.014  0.00484  -0.9353  -0.008751
6.332e+09  -0.8305  -0.06228  -0.02534  -0.01862  -0.013  0.01732  -0.8997  0.2805
6.334e+09  -0.8213  0.2662  -0.001651  -0.0003435  0.0002678  0.005697  -0.7354  0.5708
6.335e+09  -0.6455  0.594  -0.005701  0.00811  0.01567  -0.0232  -0.4658  0.7922
6.336e+09  -0.4116  0.7638  0.02611  -0.004982  -0.0242  -0.02071  -0.192  0.9373
6.338e+09  -0.1392  0.8972  -0.01834  -0.01361  -0.007952  -0.01096  0.1281  0.9041
6.339e+09  0.1404  0.8471  0.004475  -0.02888  -0.04124  -0.005035  0.4404  0.7905
6.34e+09  0.4549  0.7245  -0.03736  0.01778  0.004379  0.009889  0.6699  0.6365
6.341e+09  0.7103  0.528  -0.03085  -0.02383  -0.002341  -0.02576  0.8127  0.37
6.342e+09  0.8268  0.2472  0.03138  -0.01114  0.002179  -0.06969  0.9362  0.03132
6.344e+09  0.8383  -0.085  -0.01585  0.008785  -0.01261  -0.02691  0.8724  -0.2928
6.345e+09  0.8593  -0.377  0.01401  -0.01545  0.02205  -0.02368  0.7275  -0.5672
6.346e+09  0.6023  -0.6327  0.02252  -0.002999  0.0159  -0.03833  0.5102  -0.8372
6.348e+09  0.3545  -0.8067  -0.02033  -0.02203  0.02649  0.007656  0.2125  -0.9242
6.349e+09  0.03224  -0.9047  0.005644  0.01592  -0.01558  0.03135  -0.08796  -0.926
6.35e+09  -0.2122  -0.9168  -0.0239  0.01199  0.02391  0.02411  -0.4113  -0.8189
6.351e+09  -0.5233  -0.7422  0.004111  -0.0158  0.01278  -0.005533  -0.693  -0.6238
6.352e+09  -0.766  -0.4534  0.03355  0.008876  -0.01023  0.01765  -0.9051  -0.3844
6.354e+09  -0.864  -0.2076  0.01201  0.05119  0.03846  -0.004192  -0.9721  -0.0632
6.355e+09  -0.8519  0.1137  -0.03242  0.001012  -0.004383  0.01772  -0.8964  0.2377
6.356e+09  -0.8084  0.4166  0.02553  -0.01151  -0.05841  -0.0205  -0.7382  0.5259
6.358e+09  -0.5695  0.6441  0.002305  0.01401  -0.003629  -0.0234  -0.5244  0.7731
6.359e+09  -0.3376  0.8208  0.01959  0.03376  -0.01297  0.01388  -0.2609  0.9168
6.36e+09  -0.01023  0.8705  -0.01697  0.06025  0.005092  0.01555  0.08479  0.9541
6.361e+09  0.272  0.8165  0.005438  0.01492  0.01044  -0.02468  0.4271  0.8264
6.362e+09  0.5761  0.6584  0.007596  -0.007957  0.007561  0.01303  0.6778  0.6931
6.364e+09  0.7209  0.434  -0.004009  0.01978  -0.03001  0.003927  0.8644  0.3821
6.365e+09  0.9159  0.1379  -0.02365  -0.01676  0.02644  0.0001123  0.9382  0.06717
6.366e+09  0.8739  -0.1124  0.02672  0.009185  -0.0405  0.01742  0.9051  -0.2644
6.368e+09  0.7212  -0.4764  -0.006934  -0.004473  -0.0307  -0.03739  0.7928  -0.5619
6.369e+09  0.5252  -0.7185  0.04606  0.0115  0.02028  -0.03445  0.585  -0.7754
6.37e+09  0.2556  -0.7992  0.02662  0.01068  -0.06332  -0.0308  0.1981  -0.9008
6.371e+09  -0.03252  -0.8885  -0.001631  -0.01316  0.001546  -0.002337  -0.1054  -0.9566
6.372e+09  -0.3496  -0.8191  -0.01203  -0.05758  0.003459  -0.02388  -0.41  -0.8674
6.374e+09  -0.6338  -0.6366  -0.003439  0.03949  -0.02304  -0.006845  -0.6658  -0.6765
6.375e+09  -0.8134  -0.407  -0.07138  0.01183  0.008755  -0.03778  -0.8301  -0.4419
6.376e+09  -0.8927  -0.1222  0.008476  -0.005614  -0.0002465  0.02368  -0.9393  -0.1184
6.378e+09  -0.8052  0.2541  0.01579  0.03614  -0.05985  -0.03419  -0.9535  0.1962
6.379e+09  -0.7134  0.5026  -0.01711  0.007395  -0.009504  0.0165  -0.7694  0.5661
6.38e+09  -0.5177  0.7644  -0.01557  -0.02902  -0.0348  -0.03649  -0.5385  0.7842
6.381e+09  -0.2358  0.8136  0.02184  -0.01513  0.03897  -0.03095  -0.248  0.9259
6.382e+09  0.07743  0.8598  0.01425  0.004303  0.01346  0.02785  -0.004888  0.9335
6.384e+09  0.3153  0.7861  0.0231  0.01591  0.009156  -0.0003522  0.4074  0.8759
6.385e+09  0.6308  0.6002  0.01196  -0.00388  -0.01271  0.01017  0.6575  0.7097
6.386e+09  0.8013  0.399  -0.0033  0.02344  -0.04619  -0.02868  0.8147  0.4315
6.388e+09  0.8794  0.04205  -0.02362  -0.04059  0.003249  0.01446  0.9324  0.1368
6.389e+09  0.8381  -0.2234  -0.00917  0.05056  0.0187  -0.06482  0.9106  -0.2178
6.39e+09  0.6832  -0.5435  -0.0225  -0.04505  0.000851  0.01037  0.8157  -0.517
6.391e+09  0.5223  -0.7093  0.02807  0.02172  0.03701  -0.01714  0.5405  -0.7362
6.392e+09  0.2163  -0.9379  0.002048  -0.05896  -0.005316  -0.01903  0.2811  -0.9086
6.394e+09  -0.09111  -0.8865  0.01253  0.01401  0.005863  0.006864  0.01161  -0.8785
6.395e+09  -0.4011  -0.7708  -0.02683  0.006713  -0.04454  -0.007255  -0.3564  -0.8912
6.396e+09  -0.6212  -0.6277  -0.0141  0.03173  0.01263  -0.05326  -0.5942  -0.7078
6.398e+09  -0.8234  -0.3685  -0.03932  0.01124  0.01127  -0.02588  -0.784  -0.4146
6.399e+09  -0.8764  0.02513  -0.02357  -0.03516  -0.04935  0.03186  -0.9134  -0.1195
6.4e+09  -0.7956  0.2912  0.0129  -0.03869  0.01794  0.004424  -0.8399  0.1547
6.401e+09  -0.6788  0.5454  0.02073  0.01331  0.04167  0.01853  -0.8176  0.4308
6.402e+09  -0.4528  0.7517  -0.04416  -0.03503  -0.03387  0.001846  -0.5942  0.6528
6.404e+09  -0.1953  0.8476  -0.02192  -0.02068  0.06524  -0.0328  -0.3516  0.881
6.405e+09  0.1048  0.865  0.005791  -0.02276  0.02332  0.0483  -0.01942  0.9337
6.406e+09  0.3916  0.7884  -0.002385  -0.01862  0.001348  0.01742  0.3609  0.8794
6.408e+09  0.7152  0.5848  -0.05129  -0.03964  0.02408  -0.00569  0.6088  0.7106
6.409e+09  0.8353  0.2856  0.01657  -0.00863  0.01981  0.03957  0.7928  0.4707
6.41e+09  0.8663  -0.05034  0.01314  0.04262  -0.03234  0.03274  0.8529  0.1365
6.411e+09  0.8128  -0.2893  -0.0302  -0.04915  -0.02689  -0.04255  0.901  -0.1382
6.412e+09  0.6793  -0.5615  0.01631  0.008477  0.0138  0.02277  0.7824  -0.4649
6.414e+09  0.4808  -0.8196  0.003155  -0.01014  -0.02596  0.008865  0.5911  -0.6747
6.415e+09  0.1207  -0.8901  0.02036  0.02868  0.007152  -0.04424  0.3362  -0.7843
6.416e+09  -0.1873  -0.8638  0.02833  -0.02746  -0.01653  -0.03379  -0.009876  -0.8803
6.418e+09  -0.4724  -0.7426  -0.01863  -0.007668  0.006911  -0.01736  -0.259  -0.8482
6.419e+09  -0.7131  -0.5925  0.007025  -0.03838  0.01844  -0.008984  -0.5556  -0.6984
6.42e+09  -0.8437  -0.3545  -0.00456  -0.00142  -0.0329  0.1002  -0.7044  -0.5035
6.421e+09  -0.8735  0.04615  0.03015  -0.002671  -0.01344  0.005678  -0.8729  -0.1555
6.422e+09  -0.8334  0.3433  -0.03853  0.03951  0.03265  -0.04761  -0.8921  0.1055
6.424e+09  -0.6422  0.6176  0.04647  0.006055  -0.002659  -0.00163  -0.8043  0.4272
6.425e+09  -0.4068  0.7859  0.003355  0.01857  -0.02246  0.04073  -0.6036  0.6876
6.426e+09  -0.06234  0.9522  -0.00881  -0.01573  0.03096  -0.001801  -0.3322  0.8046
6.428e+09  0.2623  0.9034  -0.02462  0.01818  0.05051  -0.03008  -0.03083  0.8527
6.429e+09  0.5495  0.7414  -0.01024  -0.04901  -0.04391  -0.003017  0.2642  0.8047
6.43e+09  0.7901  0.5249  -0.01019  0.008396  -0.002994  0.00558  0.5277  0.6895
6.431e+09  0.9002  0.2467  -0.005897  0.0349  0.002905  0.004793  0.7014  0.5011
6.432e+09  0.9078  -0.06537  0.02102  0.005114  -0.001157  0.003389  0.8439  0.2052
6.434e+09  0.8206  -0.4024  -0.006066  0.023  0.03068  0.01804  0.8552  -0.09002
6.435e+09  0.5991  -0.6444  -0.008759  0.01788  0.007645  0.004015  0.7654  -0.3743
6.436e+09  0.3705  -0.8125  -0.008994  0.02553  -0.01269  0.02656  0.6256  -0.5852
6.438e+09  0.0597  -0.9184  0.01181  0.004073  0.01018  0.02505  0.3566  -0.7847
6.439e+09  -0.2183  -0.8853  -0.0172  0.01938  0.0005029  0.03121  0.0873  -0.8424
6.44e+09  -0.5356  -0.7479  0.01054  0.03059  0.09452  -0.04381  -0.2231  -0.8532
6.441e+09  -0.6928  -0.4784  0.03285  0.002316  0.05372  0.05311  -0.491  -0.7026
6.442e+09  -0.8715  -0.1874  0.03418  -0.06961  -0.02326  0.00824  -0.6872  -0.4698
6.444e+09  -0.9036  0.1098  -0.01618  0.0491  0.03757  0.01624  -0.8017  -0.1825
6.445e+09  -0.7946  0.429  -0.006886  0.04366  0.007907  0.05322  -0.8438  0.06961
6.446e+09  -0.6087  0.6533  -0.03346  0.01068  0.02207  -0.02468  -0.7773  0.3567
6.448e+09  -0.3536  0.8669  0.01019  0.001766  -0.009012  -0.04517  -0.5558  0.5874
6.449e+09  0.005176  0.9095  0.005477  0.02991  -0.01466  -0.006326  -0.342  0.7957
6.45e+09  0.2988  0.9049  0.049  0.004283  0.04076  -0.01306  -0.06629  0.7831
6.451e+09  0.6068  0.6538  0.03486  -0.02784  0.03183  -0.02581  0.2303  0.7925
6.452e+09  0.8282  0.4602  0.003568  0.03448  0.01105  0.003873  0.4851  0.6677
6.454e+09  0.9575  0.1801  0.01593  0.007437  -0.01636  -0.02939  0.6098  0.4397
6.455e+09  0.9254  -0.254  0.0008526  -0.02039  0.03371  -0.002924  0.7991  0.2209
6.456e+09  0.7762  -0.5035  -7.238e-05  -0.03075  -0.01367  -0.03472  0.8309  -0.0895
6.458e+09  0.5468  -0.7208  -0.02925  0.01495  -0.03457  -0.02189  0.7766  -0.3108
6.459e+09  0.2667  -0.8867  0.02822  -0.01218  -0.04991  0.009658  0.5923  -0.6031
6.46e+09  -0.1143  -0.9472  -0.01803  0.03165  -0.02544  -0.01627  0.3406  -0.7152
6.461e+09  -0.3481  -0.8429  0.03833  -0.009048  -0.01563  0.001471  0.05604  -0.8557
6.462e+09  -0.6771  -0.6593  0.02217  0.01581  -0.01013  0.01164  -0.2147  -0.7799
6.464e+09  -0.8683  -0.4257  0.01407  0.04021  0.04579  0.025  -0.491  -0.6676
6.465e+09  -0.9496  -0.04675  0.05434  -0.008055  -0.03366  -0.004851  -0.6676  -0.4245
6.466e+09  -0.8798  0.2445  0.006687  -0.02393  0.01977  -0.01726  -0.7656  -0.2038
6.468e+09  -0.7498  0.5992  0.002269  -0.01896  0.0421  0.0538  -0.8321  0.08836
6.469e+09  -0.4547  0.7891  -0.03294  0.02  0.02794  0.01916  -0.7425  0.3528
6.47e+09  -0.1483  0.9202  -0.02968  0.01099  0.01537  0.008761  -0.5555  0.5405
6.471e+09  0.1711  0.8657  -0.01053  0.00845  0.04204  -0.002678  -0.3291  0.7522
6.472e+09  0.4812  0.8275  0.005791  0.005501  0.05116  0.0214  -0.03492  0.8134
6.474e+09  0.7682  0.5982  -0.007601  -0.006596  0.03697  0.03292  0.2682  0.7991
6.475e+09  0.9094  0.3268  -0.02699  -0.00896  0.02979  0.02214  0.4981  0.6688
6.476e+09  0.9431  -0.02932  0.009546  0.01393  -0.02764  -0.02697  0.6623  0.4329
6.478e+09  0.913  -0.3997  -0.01075  -0.04289  0.006241  -0.00458  0.7845  0.2162
6.479e+09  0.6937  -0.6035  -0.01111  0.007407  0.01232  -0.02227  0.8083  -0.07602
6.48e+09  0.3977  -0.8455  0.03397  -0.006334  0.00753  -0.004757  0.6758  -0.3364
6.481e+09  0.05517  -0.9057  0.06654  0.00321  0.07896  -0.04885  0.5906  -0.5433
6.482e+09  -0.2829  -0.9444  -0.01531  0.0227  0.002297  -0.008664  0.3453  -0.7318
6.484e+09  -0.5643  -0.7999  -0.05503  -0.008903  0.02242  0.01386  0.06271  -0.8049
6.485e+09  -0.7758  -0.5175  0.04146  -0.0293  0.006221  -0.06184  -0.2025  -0.7345
6.486e+09  -0.9112  -0.2  -0.02491  -0.04066  0.02455  0.02313  -0.4176  -0.6218
6.488e+09  -0.9445  0.1754  -0.00526  0.001984  0.007096  0.05483  -0.6478  -0.4294
6.489e+09  -0.8427  0.447  -0.02912  -0.01142  -0.01105  -0.05438  -0.6969  -0.1673
6.49e+09  -0.6093  0.7508  -0.01062  -0.008048  0.02478  0.02273  -0.7389  0.07718
6.491e+09  -0.3047  0.8944  -0.03037  -0.01229  -0.02484  0.0203  -0.7143  0.3425
6.492e+09  0.083  0.9344  0.01275  0.004464  -0.03345  0.01583  -0.4977  0.5386
6.494e+09  0.3469  0.8648  0.007977  -0.04419  -0.04638  0.008708  -0.3298  0.6554
6.495e+09  0.6558  0.7082  0.01358  0.01943  0.00141  0.01545  -0.04526  0.7594
6.496e+09  0.8619  0.4672  -0.007138  0.03658  0.01307  -0.001849  0.189  0.7108
6.498e+09  0.8862  0.08106  -0.01832  -0.005748  0.02569  0.04835  0.482  0.5953
6.499e+09  0.9227  -0.2341  0.0162  -0.02407  -0.001233  -0.03572  0.6483  0.3937
6.5e+09  0.7557  -0.5487  -0.04108  0.01452  -0.01546  0.002521  0.7329  0.143
6.501e+09  0.5222  -0.7839  0.01206  0.02352  0.007555  -0.01221  0.7444  -0.09741
6.502e+09  0.1957  -0.9145  -0.012  -0.02515  -0.02656  0.02389  0.6227  -0.3427
6.504e+09  -0.103  -0.9041  -0.02  0.008997  -0.005949  -0.01557  0.4852  -0.6043
6.505e+09  -0.4658  -0.7992  -0.02023  0.02321  0.01023  0.01816  0.2561  -0.7235
6.506e+09  -0.6823  -0.5575  -0.01611  0.002217  -0.02652  -0.01691  0.003312  -0.7529
6.508e+09  -0.9318  -0.3213  0.002559  -0.008223  -0.03256  0.02072  -0.2514  -0.7333
6.509e+09  -0.8953  0.04067  0.006031  -0.003291  -0.01254  -0.0005194  -0.4841  -0.6122
6.51e+09  -0.8438  0.3764  0.02068  -0.02348  0.01303  -0.02704  -0.6802  -0.4331
6.511e+09  -0.6935  0.6457  -0.0319  -0.0383  -0.01184  -0.0754  -0.7813  -0.1174
6.512e+09  -0.4605  0.8561  0.01365  0.02622  0.02156  -0.0456  -0.765  0.1607
6.514e+09  -0.1014  0.8896  -0.002496  -0.0001013  0.01959  -0.009416  -0.637  0.3845
6.515e+09  0.2565  0.8532  0.03232  -0.01197  -0.03076  -0.04792  -0.4955  0.5935
6.516e+09  0.5475  0.7144  -0.01372  -4.774e-05  0.02396  5.429e-05  -0.2704  0.7212
6.518e+09  0.756  0.4647  -0.01328  -0.01691  -0.009633  -0.004348  0.02177  0.7517
6.519e+09  0.8564  0.1829  0.02727  0.01456  -0.03172  -0.03649  0.2852  0.7049
6.52e+09  0.8756  -0.1913  -0.007471  -0.001035  0.01324  -0.03844  0.4832  0.5409
6.521e+09  0.7755  -0.4881  -0.001282  0.03849  -0.02968  0.03783  0.6318  0.3538
6.522e+09  0.5516  -0.6963  -0.00726  -0.005868  -0.03007  -0.02415  0.7512  0.12
6.524e+09  0.2683  -0.8691  0.01122  0.03744  0.004023  0.006781  0.7108  -0.145
6.525e+09  -0.06079  -0.8587  -0.01185  0.00748  -0.02684  0.04776  0.6169  -0.3699
6.526e+09  -0.3971  -0.8044  0.003871  0.01922  0.002324  -0.03002  0.48  -0.5941
6.528e+09  -0.6065  -0.6576  0.01396  -0.02064  -0.03485  -0.01859  0.2295  -0.6972
6.529e+09  -0.8254  -0.3012  -0.006431  -0.03288  -0.06343  0.04838  -0.05309  -0.7227
6.53e+09  -0.8778  -0.09154  -0.01324  -0.01294  0.01656  -0.007208  -0.2909  -0.603
6.531e+09  -0.8171  0.192  0.032  -0.01692  -0.01229  0.002522  -0.4904  -0.5078
6.532e+09  -0.6085  0.5578  -0.005925  -0.01505  0.0321  0.07016  -0.5929  -0.2701
6.534e+09  -0.4646  0.7387  0.001502  0.007657  -0.0483  -0.0367  -0.6321  -0.07456
6.535e+09  -0.07325  0.822  -0.0227  0.007195  0.01986  0.001447  -0.6289  0.08635
6.536e+09  0.1901  0.837  -0.00357  0.005105  0.03663  0.01955  -0.5677  0.2965
6.538e+09  0.4518  0.7442  0.02163  0.02058  0.02163  0.04254  -0.4062  0.4861
6.539e+09  0.6621  0.5233  0.00245  -0.01995  0.03652  0.0224  -0.2809  0.6001
6.54e+09  0.8612  0.2289  0.001047  0.01173  -0.000326  0.0007948  -0.06768  0.716
6.541e+09  0.7379  -0.09406  -0.03761  -0.02295  -0.01473  0.01274  0.18  0.6932
6.542e+09  0.7027  -0.3892  -0.05229  0.02062  0.04657  -0.03024  0.4433  0.5554
6.544e+09  0.5896  -0.5807  0.006434  -0.01161  -0.01851  -0.02245  0.5723  0.3816
6.545e+09  0.2915  -0.7825  -0.00266  0.02441  -0.003276  -0.00425  0.6937  0.1727
6.546e+09  0.07306  -0.821  0.01282  0.006972  -0.02716  0.03746  0.7346  -0.08881
6.548e+09  -0.2652  -0.7584  -0.03073  0.0007323  0.0415  -0.005878  0.6846  -0.3035
6.549e+09  -0.5159  -0.5876  0.009824  -0.01776  -0.00466  -0.02068  0.5299  -0.509
6.55e+09  -0.7029  -0.38  0.007218  0.00385  0.04237  0.002791  0.303  -0.6932
