# Hz S RI R 50
6.25e+09  -0.6985  0.5591  0.008051  0.007324  -0.02189  0.005085  0.174  0.4708
6.251e+09  -0.3969  0.6527  0.002878  -0.0203  0.01463  0.05053  0.3632  0.4185
6.252e+09  -0.2061  0.8487  0.003969  -0.009856  -0.05892  0.02693  0.5572  0.2316
6.254e+09  0.1481  0.863  -0.01409  0.02391  0.003953  0.04576  0.6141  0.04673
6.255e+09  0.4344  0.7462  -0.02082  0.001854  -0.01709  -0.01355  0.5414  -0.262
6.256e+09  0.6233  0.5531  0.008742  0.01769  0.02316  0.03788  0.4844  -0.441
6.258e+09  0.7602  0.3203  -0.004431  0.02321  0.0528  -0.001037  0.2928  -0.5825
6.259e+09  0.7495  0.02337  0.01826  0.005368  -0.01303  -0.03211  0.03818  -0.6852
6.26e+09  0.7578  -0.2981  0.0134  -0.02947  -0.01848  0.01318  -0.2432  -0.6634
6.261e+09  0.6278  -0.5256  0.004434  0.02277  0.01582  0.01384  -0.4067  -0.5397
6.262e+09  0.4162  -0.6865  0.01243  -0.008912  -0.0165  -0.0514  -0.5921  -0.3553
6.264e+09  0.1354  -0.7832  -0.0105  -0.003907  -0.07867  0.01339  -0.7135  -0.1185
6.265e+09  -0.1535  -0.8117  -0.02901  -0.03056  0.02473  0.003746  -0.6681  0.1345
6.266e+09  -0.4541  -0.7317  0.004475  -0.008374  -0.01074  -0.02193  -0.6068  0.4118
6.268e+09  -0.5923  -0.4656  -0.006441  0.000355  -0.02179  0.03807  -0.4404  0.5714
6.269e+09  -0.7983  -0.282  -0.003134  -0.01615  -0.03681  0.03729  -0.2104  0.697
6.27e+09  -0.8312  -0.01115  -0.01003  -0.002019  0.02612  0.00587  0.08856  0.7328
6.271e+09  -0.8369  0.2408  0.0008903  0.018  -0.006132  0.01212  0.3092  0.6703
6.272e+09  -0.6095  0.5235  0.000598  0.01366  0.04412  0.0241  0.53  0.5388
6.274e+09  -0.4432  0.7529  -0.01008  0.003005  0.003541  -0.02377  0.7179  0.313
6.275e+09  -0.09708  0.8326  0.002799  -0.03287  -0.01063  0.02391  0.7237  0.02074
6.276e+09  0.09466  0.7731  0.006444  0.008894  -0.03596  0.0007263  0.724  -0.214
6.278e+09  0.4613  0.7051  0.002196  -0.01313  -0.01548  0.024  0.591  -0.4527
6.279e+09  0.5997  0.5452  -0.01118  0.003426  -0.02158  -0.004348  0.4163  -0.6197
6.28e+09  0.7911  0.3228  -0.02364  -0.02539  -0.03296  0.02581  0.157  -0.7426
6.281e+09  0.9281  0.04511  0.03626  0.01149  -0.05258  0.0463  -0.08313  -0.7654
6.282e+09  0.7809  -0.2695  0.006322  0.012  0.005447  -0.02216  -0.3829  -0.6804
6.284e+09  0.6189  -0.5268  -0.02025  0.01104  -0.01255  -0.001338  -0.6135  -0.563
6.285e+09  0.3884  -0.7449  0.02476  0.004322  0.01162  -0.04883  -0.7104  -0.2742
6.286e+09  0.1518  -0.8284  0.01453  0.001626  0.04795  -0.02531  -0.8127  -0.01687
6.288e+09  -0.145  -0.8227  0.0362  0.04281  -0.008426  0.01583  -0.7552  0.2701
6.289e+09  -0.4007  -0.7422  -0.007979  0.01601  -0.001178  0.00788  -0.5901  0.5369
6.29e+09  -0.6318  -0.528  -0.03305  0.02931  -0.002401  -0.007969  -0.3985  0.6964
6.291e+09  -0.7832  -0.2537  -0.01109  -0.02521  0.01296  -0.01557  -0.1715  0.7886
6.292e+09  -0.8904  0.03481  -0.02957  0.04907  -0.04045  0.01527  0.1242  0.8155
6.294e+09  -0.707  0.3015  -0.01048  -0.008706  0.002005  0.01985  0.39  0.7273
6.295e+09  -0.6334  0.5866  0.02468  0.02002  -0.006652  -0.03939  0.6384  0.5152
6.296e+09  -0.4067  0.7232  -0.006481  -0.0001926  0.01112  -0.02547  0.7728  0.2822
6.298e+09  -0.1307  0.8101  0.02873  0.0004464  -0.006409  -0.001543  0.8179  0.01887
6.299e+09  0.1853  0.8032  -0.01851  -0.01281  -0.05648  -0.03245  0.8161  -0.2795
6.3e+09  0.4716  0.7525  0.001148  0.03945  0.03221  -0.007631  0.6342  -0.5316
6.301e+09  0.6388  0.5072  0.0213  0.004176  -0.01609  -0.03393  0.4394  -0.7164
6.302e+09  0.7795  0.2205  0.002794  -0.004357  -0.01716  -0.04529  0.1936  -0.8323
6.304e+09  0.8712  -0.1146  -0.01064  -0.01656  -0.004709  0.01112  -0.1163  -0.877
6.305e+09  0.7683  -0.3258  0.002867  0.01217  -0.001897  0.0006887  -0.4374  -0.7743
6.306e+09  0.5571  -0.5484  0.006476  -0.006827  0.02321  0.05436  -0.6362  -0.5668
6.308e+09  0.3422  -0.7398  0.008908  0.006424  -0.005309  -0.02318  -0.8181  -0.2962
6.309e+09  0.03199  -0.8196  0.02095  0.007504  -0.01545  0.0002196  -0.8438  -0.001912
6.31e+09  -0.1593  -0.791  0.004375  0.02654  -0.00124  -0.02949  -0.8147  0.2744
6.311e+09  -0.4394  -0.6609  0.01455  -0.03566  -0.02801  -0.01424  -0.6417  0.5394
6.312e+09  -0.6894  -0.4352  -0.009101  0.004735  -0.03869  0.01928  -0.4593  0.7534
6.314e+09  -0.8156  -0.2275  0.006975  -0.01161  -0.03153  0.00426  -0.213  0.8558
6.315e+09  -0.8504  0.06361  -0.01278  0.02317  -0.004214  -0.001525  0.1285  0.8767
6.316e+09  -0.7583  0.3513  -0.006411  -0.005135  -0.02003  0.02366  0.4516  0.7394
6.318e+09  -0.5851  0.5768  -0.01546  0.01259  0.02329  0.02761  0.6372  0.5806
6.319e+09  -0.3284  0.8127  -0.01122  -0.007465  0.0004251  0.005041  0.843  0.2979
6.32e+09  -0.07014  0.8475  -0.002296  0.002237  0.03807  -0.004982  0.8658  0.01705
6.321e+09  0.2682  0.8125  -0.01681  -0.02084  -0.05947  0.01569  0.8094  -0.2979
6.322e+09  0.4962  0.675  0.03368  -0.03361  0.006785  -0.0178  0.6996  -0.5099
6.324e+09  0.7066  0.4318  0.01711  -0.00604  0.02095  -0.03654  0.4656  -0.7802
6.325e+09  0.8368  0.1265  0.01422  0.02107  0.01224  0.04164  0.1625  -0.8746
6.326e+09  0.828  -0.1247  0.008581  0.04062  -0.04133  -0.01402  -0.157  -0.9013
6.328e+09  0.7682  -0.4106  0.01643  -0.03838  -0.02069  0.008622  -0.4414  -0.8
6.329e+09  0.5639  -0.6498  0.002857  0.009079  -0.01897  0.02564  -0.6618  -0.6085
6.33e+09  0.2632  -0.8057  -0.02029  0.01371  0.04407  0.04151  -0.8515  -0.3103
6.331e+09  -0.05871  -0.8627  -0.008623  0.02751  -0.08736  -0.02667  -0.949  -0.04583
6.332e+09  -0.2477  -0.7859  -0.004001  0.03998  0.03679  -0.009416  -0.8938  0.3265
6.334e+09  -0.5501  -0.6723  -0.01943  -0.01315  -0.002564  -0.008153  -0.7273  0.5818
6.335e+09  -0.7162  -0.3834  0.02154  -0.0004951  -0.002726  0.01309  -0.5157  0.7779
6.336e+09  -0.869  -0.1009  0.005039  0.009078  -0.0401  0.0168  -0.1867  0.8989
6.338e+09  -0.8204  0.1988  0.02312  0.007517  0.03151  0.02617  0.1153  0.9185
6.339e+09  -0.7163  0.4767  0.002495  0.0123  0.01963  0.004955  0.4436  0.8384
6.34e+09  -0.5395  0.757  -0.005229  0.01985  -0.04129  0.03858  0.6552  0.6354
6.341e+09  -0.2348  0.8296  -0.008703  -0.004358  0.02809  -0.023  0.8528  0.3618
6.342e+09  0.01513  0.8765  0.008324  -0.008236  -0.03852  -0.03898  0.9582  0.02209
6.344e+09  0.3769  0.7749  -0.02259  0.01871  -0.01221  0.0546  0.9172  -0.2783
6.345e+09  0.6538  0.6265  -0.0008335  0.006081  -0.005785  0.0362  0.7544  -0.5659
6.346e+09  0.8  0.3892  0.01454  0.03152  0.01179  -0.003982  0.5059  -0.7792
6.348e+09  0.9049  0.08167  0.01625  -0.02114  0.03822  -0.00662  0.1792  -0.9315
6.349e+09  0.8502  -0.2776  0.001289  -0.02289  0.02669  -0.01747  -0.1293  -0.9011
6.35e+09  0.6874  -0.5318  0.00241  0.02864  0.008632  -0.0119  -0.4372  -0.8079
6.351e+09  0.4673  -0.7396  0.006228  0.006549  -0.01075  -0.04512  -0.6726  -0.6514
6.352e+09  0.1425  -0.8325  -0.01018  0.002331  0.03183  0.005996  -0.858  -0.3513
6.354e+09  -0.1294  -0.868  0.0006344  0.01957  -0.008532  -0.01895  -0.9247  -0.06608
6.355e+09  -0.3961  -0.7814  0.001568  0.01706  -0.02147  -0.02209  -0.9037  0.2498
6.356e+09  -0.6319  -0.5759  0.008259  0.0111  -0.01314  -0.0443  -0.7509  0.585
6.358e+09  -0.8273  -0.3161  -0.01536  -0.01909  -0.01537  -0.03642  -0.54  0.7391
6.359e+09  -0.8694  -0.02046  0.01833  0.02572  0.06669  0.0181  -0.2318  0.921
6.36e+09  -0.8379  0.3032  0.001273  -0.01948  0.01651  -0.04089  0.09781  0.9582
6.361e+09  -0.6409  0.6064  0.02682  0.01008  0.01333  -0.01371  0.4148  0.8548
6.362e+09  -0.4281  0.8145  0.01806  0.009971  0.04419  0.0339  0.7001  0.6349
6.364e+09  -0.1402  0.9242  -0.01427  -0.02621  -0.005067  0.03569  0.9064  0.4158
6.365e+09  0.1939  0.8684  -0.005244  -0.0123  0.0135  0.0172  0.9454  0.05754
6.366e+09  0.4785  0.7861  0.0004054  0.001512  0.007282  -0.02454  0.911  -0.2727
6.368e+09  0.7472  0.5226  -0.01649  -0.02454  0.03834  -0.02069  0.7565  -0.5397
6.369e+09  0.8683  0.227  -0.02511  0.02138  0.002697  0.008957  0.548  -0.7955
6.37e+09  0.8858  -0.06364  -0.006434  -0.01404  0.008773  -0.02621  0.2494  -0.9381
6.371e+09  0.7821  -0.3269  0.01317  -0.003614  -0.02643  0.03425  -0.08448  -0.9602
6.372e+09  0.6468  -0.6025  0.002564  0.01342  0.02101  -0.01867  -0.3897  -0.8495
6.374e+09  0.3904  -0.8098  0.01353  0.0003615  0.01611  -0.01555  -0.6122  -0.6616
6.375e+09  0.03211  -0.8888  -0.01645  -0.042  0.005898  0.02272  -0.8472  -0.4301
6.376e+09  -0.2512  -0.8496  0.02661  -0.002675  -0.005987  0.01374  -0.9431  -0.1058
6.378e+09  -0.5352  -0.703  0.01129  -0.008451  0.001883  0.02606  -0.9166  0.2386
6.379e+09  -0.7557  -0.4835  -0.02551  -0.02553  0.02986  0.004234  -0.7965  0.5331
6.38e+09  -0.8917  -0.241  -0.001665  -0.01154  -0.03884  -0.03648  -0.59  0.7383
6.381e+09  -0.9509  0.1227  -0.04594  0.02609  -0.01585  -0.02576  -0.284  0.8826
6.382e+09  -0.809  0.398  0.01414  -0.02206  -0.03865  -0.08454  0.08419  0.933
6.384e+09  -0.5902  0.6558  0.008303  0.03224  0.01671  -0.0003323  0.3881  0.8569
6.385e+09  -0.3321  0.8498  -0.008513  -0.05394  -0.03254  -0.007552  0.654  0.6457
6.386e+09  -0.01588  0.9257  0.004543  -0.002165  0.01658  0.04152  0.8287  0.4314
6.388e+09  0.2919  0.849  0.02503  -0.01132  0.03318  0.005652  0.9452  0.1022
6.389e+09  0.5673  0.6064  -0.002984  0.02041  -0.05383  -0.003185  0.877  -0.216
6.39e+09  0.7851  0.4604  -0.01719  0.001254  -0.05044  -0.04582  0.7752  -0.5308
6.391e+09  0.8663  0.1377  0.00312  -0.01738  0.002529  0.03147  0.5772  -0.7344
6.392e+09  0.8789  -0.1631  0.004423  0.01311  0.03337  0.0429  0.3005  -0.8828
6.394e+09  0.805  -0.4433  0.01655  -0.01759  0.002349  0.0102  -0.05107  -0.9298
6.395e+09  0.5382  -0.684  0.01285  -0.0006085  -0.0142  0.02602  -0.3175  -0.867
6.396e+09  0.3545  -0.8667  -0.004061  -0.0002549  0.02936  0.01721  -0.6656  -0.6913
6.398e+09  -0.01282  -0.8849  -0.01787  0.01115  -0.002519  0.003202  -0.7811  -0.4461
6.399e+09  -0.3466  -0.8265  -0.03729  3.298e-05  0.002128  0.035  -0.9111  -0.1374
6.4e+09  -0.6097  -0.7058  0.04155  0.0004124  0.02254  -0.009347  -0.9052  0.1314
6.401e+09  -0.7591  -0.401  -0.05996  -0.05446  -0.01084  -0.01667  -0.8262  0.4705
6.402e+09  -0.9035  -0.15  -0.009438  0.01775  -0.00506  0.05335  -0.6018  0.7399
6.404e+09  -0.7951  0.1971  0.01578  0.02942  -0.02007  -0.01212  -0.3183  0.8552
6.405e+09  -0.7  0.4391  0.04999  0.003129  0.02073  -0.0006908  -0.004175  0.9374
6.406e+09  -0.541  0.6988  -0.000177  0.009309  0.01631  0.004321  0.2813  0.8644
6.408e+09  -0.2304  0.8367  0.007781  -0.03577  -0.03918  -0.02508  0.562  0.7049
6.409e+09  0.06756  0.8814  0.01171  -0.01299  0.02902  -0.03183  0.8135  0.4758
6.41e+09  0.3636  0.825  -0.01535  0.003213  -0.006025  -0.01001  0.8429  0.2221
6.411e+09  0.6216  0.6462  -0.06461  0.006678  -0.009617  0.006957  0.898  -0.1444
6.412e+09  0.7972  0.3874  0.005347  -0.007948  0.01348  -0.0001208  0.7729  -0.3823
6.414e+09  0.8715  0.08418  0.009723  0.02511  0.03029  0.02853  0.5844  -0.6408
6.415e+09  0.8642  -0.1767  0.04458  0.01559  0.0006977  0.01698  0.3063  -0.86
6.416e+09  0.7315  -0.4816  -0.01991  0.02433  -0.02466  0.006242  0.02756  -0.8746
6.418e+09  0.4918  -0.7084  0.003457  -0.006851  0.002301  0.0219  -0.2523  -0.8537
6.419e+09  0.1945  -0.8196  -0.02264  0.001563  0.001779  -0.03474  -0.5482  -0.7341
6.42e+09  -0.08118  -0.8747  -0.02361  -0.05047  0.02514  0.006384  -0.7186  -0.4862
6.421e+09  -0.3823  -0.7886  0.006903  0.02187  0.04447  -0.0246  -0.8403  -0.1628
6.422e+09  -0.5958  -0.5814  -0.000662  -0.004019  0.01296  0.01033  -0.905  0.09633
6.424e+09  -0.7817  -0.3509  0.00982  0.001902  0.009209  0.02939  -0.7717  0.4267
6.425e+09  -0.8586  -0.06338  0.01119  0.03265  -0.02896  -0.04693  -0.5736  0.637
6.426e+09  -0.8282  0.2262  0.007888  0.05213  -0.01076  -0.0171  -0.3491  0.8095
6.428e+09  -0.7056  0.5118  0.002806  -0.03236  -0.001114  -0.03083  -0.0003566  0.9164
6.429e+09  -0.4442  0.7495  0.005367  -0.01086  -0.03329  -0.007812  0.2746  0.8612
6.43e+09  -0.2578  0.8249  0.002531  -0.03334  -0.008229  0.00914  0.4979  0.6671
6.431e+09  0.1357  0.8079  -0.02848  0.00399  -0.0008223  -0.007372  0.7322  0.4239
6.432e+09  0.3995  0.7919  0.00928  -0.006677  0.02573  -0.01243  0.8584  0.2157
6.434e+09  0.6444  0.602  0.001823  0.02317  0.003137  0.08009  0.8775  -0.1316
6.435e+09  0.7666  0.3442  -0.0007428  0.01945  -0.05298  0.03179  0.763  -0.3876
6.436e+09  0.8806  0.07451  -0.05406  -0.02477  -0.004768  0.03824  0.5797  -0.637
6.438e+09  0.7822  -0.2166  -0.01105  -0.03461  0.01079  0.01591  0.3614  -0.804
6.439e+09  0.6973  -0.5245  0.0438  0.0621  -0.001616  -0.01781  0.1028  -0.8628
6.44e+09  0.4373  -0.8188  -0.01123  -0.01664  0.03778  -0.01715  -0.2406  -0.8327
6.441e+09  0.1528  -0.8349  0.03312  -0.01745  0.01189  -0.05325  -0.5148  -0.7098
6.442e+09  -0.1146  -0.828  -0.04751  0.00895  0.03894  0.02317  -0.7255  -0.4834
6.444e+09  -0.4453  -0.7674  0.03876  -0.008406  0.006537  0.01595  -0.8292  -0.2159
6.445e+09  -0.6906  -0.5966  -0.0008874  0.02866  -0.01949  0.001774  -0.8572  0.09458
6.446e+09  -0.8668  -0.3276  -0.03116  -0.05857  -0.01607  0.007821  -0.7505  0.3495
6.448e+09  -0.8695  0.04005  0.0427  0.001938  -0.04872  0.0001196  -0.5982  0.5736
6.449e+09  -0.811  0.2756  -0.00972  0.01417  0.003892  0.031  -0.3456  0.7748
6.45e+09  -0.6266  0.5678  -0.006264  0.01083  0.05909  0.0148  -0.07507  0.8255
6.451e+09  -0.4753  0.7335  -0.00309  0.02293  -0.04238  -0.0006777  0.2135  0.8049
6.452e+09  -0.1862  0.858  -0.02879  0.007733  0.02751  0.004335  0.4547  0.6588
6.454e+09  0.1263  0.8711  0.01521  -0.05332  0.006056  -0.03167  0.631  0.509
6.455e+09  0.4646  0.7501  -0.003732  -0.009396  0.029  0.04961  0.7918  0.2174
6.456e+09  0.6824  0.568  0.0004899  0.01238  -0.005996  0.01714  0.8373  -0.05008
6.458e+09  0.8059  0.3557  -0.011  -0.006723  0.01549  0.03721  0.7256  -0.371
6.459e+09  0.8694  -0.002712  -0.007536  -0.001171  -0.02323  0.01455  0.5537  -0.631
6.46e+09  0.7674  -0.3338  -0.05458  0.02333  -0.01377  -0.02827  0.3259  -0.7843
6.461e+09  0.6811  -0.5474  -0.009276  0.01922  -0.05199  -0.02804  0.0629  -0.8227
6.462e+09  0.4266  -0.7952  0.02792  -0.02058  0.007069  0.02659  -0.1717  -0.7717
6.464e+09  0.1716  -0.8238  0.02309  0.02047  -0.0591  -0.009282  -0.4941  -0.6558
6.465e+09  -0.2003  -0.8609  -0.02173  0.01831  -0.03427  0.005323  -0.6211  -0.4752
6.466e+09  -0.4306  -0.7537  0.02482  -0.005175  0.03715  0.002975  -0.7724  -0.1925
6.468e+09  -0.619  -0.5893  -0.01045  -0.002294  -0.04852  -0.03994  -0.7915  0.02445
6.469e+09  -0.8103  -0.2522  0.02009  -0.01438  -0.03745  -0.02375  -0.6991  0.3354
6.47e+09  -0.8363  -0.02156  -0.01335  0.001151  -0.01182  0.01988  -0.5672  0.5778
6.471e+09  -0.8584  0.3418  -0.02464  -0.01795  0.02801  0.01538  -0.3463  0.7386
6.472e+09  -0.749  0.5402  0.01549  -0.01014  -0.007118  -0.03247  -0.06181  0.7677
6.474e+09  -0.4521  0.7755  0.004693  -0.03216  -0.00101  -0.0001595  0.2152  0.7997
6.475e+09  -0.1295  0.8595  -0.005854  -0.01174  0.01064  0.05459  0.4923  0.6125
6.476e+09  0.1227  0.8409  -0.02218  -0.04104  -0.01571  -0.002496  0.6932  0.4543
6.478e+09  0.4749  0.7719  -0.02288  0.007416  -0.001416  0.003068  0.7732  0.1734
6.479e+09  0.6513  0.5349  -0.04214  -0.03115  0.01628  -0.01212  0.8053  -0.04868
6.48e+09  0.8063  0.2889  0.02036  -0.02389  0.03061  -0.01303  0.7416  -0.3482
6.481e+09  0.9064  0.03344  -0.004521  -0.02198  -0.00172  0.0218  0.5579  -0.5889
6.482e+09  0.8799  -0.3051  -0.002382  0.01131  0.02651  -0.006142  0.3184  -0.6999
6.484e+09  0.6819  -0.5818  -0.01365  0.01869  -0.0291  -0.006116  0.09386  -0.7799
6.485e+09  0.4689  -0.7666  -0.03849  0.008715  -0.01345  0.000135  -0.2177  -0.7239
6.486e+09  0.173  -0.8982  0.01232  0.01786  0.05515  0.01369  -0.4516  -0.6571
6.488e+09  -0.1824  -0.8642  0.003881  0.03066  -0.01445  -0.01024  -0.6636  -0.4248
6.489e+09  -0.4397  -0.6824  0.03537  0.005448  -0.01506  0.0107  -0.7697  -0.16
6.49e+09  -0.7416  -0.5224  -0.009552  0.01038  -0.08061  0.006023  -0.7987  0.09779
6.491e+09  -0.827  -0.2788  -0.007257  -0.02211  0.04271  -0.02182  -0.7043  0.3249
6.492e+09  -0.8561  0.02932  -0.01046  0.05458  -0.02322  -0.01523  -0.5625  0.5385
6.494e+09  -0.8958  0.3035  0.01996  -0.01169  0.04412  0.05263  -0.3397  0.6797
6.495e+09  -0.6531  0.6138  -0.02197  -0.01737  0.009562  0.01369  -0.06821  0.7416
6.496e+09  -0.4433  0.8161  -0.01025  -0.01699  0.0168  0.004403  0.2088  0.6951
6.498e+09  -0.1142  0.8493  -0.005943  0.02188  0.05408  0.05996  0.4459  0.6442
6.499e+09  0.1615  0.9323  -0.02293  -0.0324  0.02696  -0.008958  0.6582  0.4417
6.5e+09  0.5138  0.7557  0.00407  -0.008787  -0.008466  -0.04279  0.7406  0.1377
6.501e+09  0.7494  0.5674  -0.0177  -0.002623  -0.03388  -0.01773  0.7667  -0.09519
6.502e+09  0.9104  0.2563  0.01915  0.01759  0.01119  0.004583  0.6668  -0.3665
6.504e+09  0.8731  -0.02388  -0.03528  -0.0045  0.02462  0.02277  0.5091  -0.6065
6.505e+09  0.8361  -0.34  0.007311  0.02687  -0.0179  -0.03383  0.2947  -0.7082
6.506e+09  0.6896  -0.5753  -0.04087  -0.01456  0.03073  0.05225  0.01304  -0.7724
6.508e+09  0.4257  -0.8145  0.006786  0.008813  0.06463  -0.04022  -0.2168  -0.7166
6.509e+09  0.03105  -0.894  -0.007614  0.01638  0.008929  0.02085  -0.4993  -0.6069
6.51e+09  -0.2116  -0.9326  -0.006737  -0.04  -0.001472  -0.006546  -0.647  -0.3885
6.511e+09  -0.4782  -0.7561  -0.04997  -0.01298  -0.01617  0.005494  -0.7546  -0.1483
6.512e+09  -0.7546  -0.5486  -0.005888  0.0346  0.01857  -0.0007419  -0.7435  0.1329
6.514e+09  -0.8722  -0.3079  0.002027  0.03298  0.02009  0.01843  -0.6548  0.3826
6.515e+09  -0.9311  0.1272  0.004415  0.01909  0.01431  -0.03276  -0.4803  0.5724
6.516e+09  -0.897  0.3712  -0.008907  0.003864  0.006993  0.01974  -0.2284  0.7194
6.518e+09  -0.6196  0.6721  0.03529  -0.0179  0.05511  0.02672  -0.004714  0.7476
6.519e+09  -0.3959  0.8621  0.003329  -0.01939  -0.03548  0.01529  0.294  0.6925
6.52e+09  -0.09749  1.003  0.02017  0.02129  0.04682  -0.03168  0.4794  0.5549
6.521e+09  0.2545  0.9442  -0.007937  0.0153  0.01192  -0.001087  0.6411  0.3809
6.522e+09  0.5875  0.7424  -0.0006286  0.01003  0.007999  0.01998  0.744  0.08033
6.524e+09  0.8046  0.595  0.007528  -0.001417  0.02985  -0.04171  0.7409  -0.1605
6.525e+09  0.921  0.2124  -0.02176  -0.01228  -0.01228  -0.01181  0.5983  -0.3781
6.526e+09  0.9601  -0.09167  0.003922  0.002111  0.05444  0.02839  0.4047  -0.579
6.528e+09  0.8482  -0.4213  0.004862  -0.03253  -0.01005  0.08396  0.2245  -0.6525
6.529e+09  0.6473  -0.7257  -0.02073  0.01256  0.0294  -0.01368  -0.02114  -0.7066
6.53e+09  0.3482  -0.8839  -0.02244  0.03112  -0.01121  0.004861  -0.2767  -0.6144
6.531e+09  0.05182  -1.058  0.01435  0.006957  -0.004493  -0.02123  -0.4836  -0.4915
6.532e+09  -0.2955  -0.9378  -0.002841  0.01961  -0.02698  0.003046  -0.6302  -0.3034
6.534e+09  -0.6311  -0.7803  0.01475  0.01906  -0.02607  -0.03514  -0.6139  -0.07209
6.535e+09  -0.8248  -0.5385  -0.02358  0.01393  0.01535  0.02024  -0.5854  0.1116
6.536e+09  -0.912  -0.1871  0.02296  0.03327  -0.02372  0.01436  -0.6182  0.3122
6.538e+09  -0.9797  0.1681  0.003511  0.03121  0.007634  -0.05295  -0.4448  0.5232
6.539e+09  -0.8569  0.4976  -0.002261  0.0228  0.00919  -0.01061  -0.2818  0.6223
6.54e+09  -0.6115  0.7465  -0.02978  0.003795  0.04815  -0.05325  -0.06044  0.7342
6.541e+09  -0.2875  0.9856  -0.00988  0.04786  0.01124  -0.0306  0.1618  0.6727
6.542e+09  -0.005678  1.024  -0.003992  0.02344  0.001411  -0.009808  0.4473  0.5936
6.544e+09  0.368  0.9112  -0.0003924  -0.03736  -0.02847  -0.05087  0.6021  0.4075
6.545e+09  0.6594  0.7125  0.0005061  -0.005159  -0.0003889  -0.00507  0.7211  0.1922
6.546e+09  0.7929  0.4264  0.0007497  0.009299  0.009914  0.03224  0.7473  -0.09132
6.548e+09  0.9412  0.1197  0.01223  -0.01856  0.01482  -0.006589  0.689  -0.3051
6.549e+09  0.966  -0.1935  -0.02521  0.009212  -0.02627  -0.02921  0.4823  -0.5279
6.55e+09  0.7923  -0.5408  0.004936  0.04013  -0.001609  0.002724  0.2811  -0.6503
