# Hz S RI R 50
6.25e+09  -0.7681  0.2482  0.005539  0.01835  0.07201  0.01742  0.1697  0.5161
6.251e+09  -0.6458  0.4881  0.008592  -0.03788  -0.02337  0.04228  0.3699  0.4042
6.252e+09  -0.4494  0.7537  0.03212  -0.01812  -0.004785  0.04647  0.4889  0.2491
6.254e+09  -0.1643  0.8083  -0.01526  -0.0004267  -0.07216  0.01751  0.6265  0.07425
6.255e+09  0.1168  0.8793  -0.01127  0.01632  0.03284  0.04506  0.6075  -0.2387
6.256e+09  0.439  0.7348  -0.01361  0.001948  0.005743  -0.01227  0.4776  -0.4472
6.258e+09  0.6368  0.5781  -0.02113  0.02712  0.06479  0.03337  0.3158  -0.6351
6.259e+09  0.8149  0.3133  0.007321  -0.01131  0.02072  0.06376  0.01343  -0.6794
6.26e+09  0.8411  0.0209  -0.007156  -0.01426  0.02698  -0.04385  -0.2133  -0.6566
6.261e+09  0.7625  -0.2739  -0.04547  -0.0001395  0.04777  -0.02169  -0.4344  -0.5448
6.262e+09  0.6288  -0.5386  0.002766  0.009765  0.003489  0.03428  -0.6065  -0.3566
6.264e+09  0.3707  -0.712  0.02547  -0.007209  0.01479  0.06046  -0.69  -0.09413
6.265e+09  0.1634  -0.7567  0.002184  0.01766  -0.06733  0.01059  -0.7142  0.1164
6.266e+09  -0.1356  -0.815  0.008155  -0.01248  0.0008484  -0.02026  -0.6047  0.3799
6.268e+09  -0.3994  -0.6988  -0.0125  -0.003268  -0.03654  0.009578  -0.4353  0.573
6.269e+09  -0.5893  -0.5381  0.015  -0.01483  0.02494  -0.003251  -0.2097  0.7122
6.27e+09  -0.7769  -0.2526  -0.01735  -0.0239  0.02658  0.04788  0.03861  0.7334
6.271e+09  -0.8479  -0.05212  0.001095  0.002923  0.01001  -0.009995  0.3301  0.6946
6.272e+09  -0.7531  0.2658  0.004119  0.002099  0.03547  0.02412  0.5134  0.548
6.274e+09  -0.6563  0.5322  0.008639  0.01939  -0.04442  0.0054  0.6744  0.2985
6.275e+09  -0.4591  0.716  -0.0004076  -0.006965  0.01545  0.1014  0.7591  0.05533
6.276e+09  -0.1829  0.8321  0.007226  -0.02549  0.03731  0.02895  0.7268  -0.23
6.278e+09  0.2093  0.8105  -0.002308  0.02915  -0.06178  0.007438  0.5871  -0.4648
6.279e+09  0.4335  0.7078  0.02209  -0.008436  -0.004167  -0.00992  0.3862  -0.6427
6.28e+09  0.6401  0.5583  -0.006367  -0.002321  0.02164  -0.02434  0.1633  -0.7326
6.281e+09  0.7784  0.303  -0.01973  0.01267  -0.03831  -0.01745  -0.1096  -0.7664
6.282e+09  0.8245  0.03882  0.007483  -0.00566  0.01427  -0.01293  -0.3836  -0.6643
6.284e+09  0.7452  -0.2962  -0.01993  -0.0159  -0.02134  -0.003653  -0.6102  -0.5449
6.285e+09  0.6217  -0.6128  0.003826  -0.005406  0.003253  0.003948  -0.7374  -0.2649
6.286e+09  0.3796  -0.7124  -0.0062  0.008548  -0.006257  -0.03119  -0.7704  -0.02284
6.288e+09  0.1482  -0.8319  0.02179  0.009281  -0.03007  0.05477  -0.7769  0.259
6.289e+09  -0.1701  -0.828  0.008497  0.01694  0.006615  -0.02777  -0.6424  0.5279
6.29e+09  -0.4248  -0.6762  0.0238  -0.002395  -0.03995  -0.06265  -0.3895  0.6662
6.291e+09  -0.6361  -0.495  -0.01117  0.007184  0.02154  -0.01408  -0.1638  0.7873
6.292e+09  -0.7544  -0.2827  0.005504  0.00186  0.02245  -0.0576  0.1466  0.7704
6.294e+09  -0.7897  0.04184  -0.009227  0.007701  -0.004689  -0.01754  0.4426  0.727
6.295e+09  -0.7097  0.3409  -0.003101  -0.03971  0.02636  -0.009424  0.6465  0.5448
6.296e+09  -0.6066  0.5461  0.02888  -0.01208  -0.005817  0.0304  0.7683  0.3193
6.298e+09  -0.3805  0.7294  0.04211  -0.01811  -0.03407  0.03837  0.8541  0.01962
6.299e+09  -0.03394  0.7513  0.0007208  -0.00996  -0.01428  -0.01532  0.7738  -0.2716
6.3e+09  0.1974  0.8383  0.0001451  0.0146  0.0107  -0.06332  0.6298  -0.5131
6.301e+09  0.4356  0.6809  -0.03141  0.01325  0.007304  0.02989  0.4233  -0.7283
6.302e+09  0.6561  0.4822  -0.005769  -0.001707  0.02824  -0.03665  0.1565  -0.8175
6.304e+09  0.7842  0.189  0.01365  -0.005685  -0.0004073  -0.06947  -0.1251  -0.8552
6.305e+09  0.8772  -0.04506  0.03388  0.02476  -0.01294  0.01017  -0.408  -0.7415
6.306e+09  0.7892  -0.3638  0.01361  0.005535  0.01809  -0.003603  -0.6494  -0.5209
6.308e+09  0.6101  -0.5799  0.01278  0.01462  0.02136  0.0287  -0.8278  -0.3207
6.309e+09  0.3285  -0.7845  -0.01853  0.01599  0.06777  -0.01499  -0.8842  -0.03168
6.31e+09  0.05089  -0.837  -0.006436  -0.01273  -0.0203  0.01783  -0.8274  0.2762
6.311e+09  -0.218  -0.7822  -0.0008812  -0.008958  0.02623  0.01245  -0.6825  0.545
6.312e+09  -0.5016  -0.6747  -0.001354  -0.009936  -0.02307  -0.03329  -0.4259  0.7625
6.314e+09  -0.7186  -0.4519  -0.02767  -0.003231  -0.02775  -0.003903  -0.1892  0.8352
6.315e+09  -0.7757  -0.1646  0.02424  0.01144  0.001713  -0.01085  0.1493  0.8954
6.316e+09  -0.8474  0.09062  0.0119  0.0348  0.03386  -0.03769  0.4265  0.7763
6.318e+09  -0.7302  0.4497  -0.008502  0.008366  0.003389  -0.03658  0.6702  0.5638
6.319e+09  -0.5753  0.6329  -0.02514  -0.005323  0.0437  -0.01381  0.8122  0.326
6.32e+09  -0.3019  0.8087  -0.002359  -0.01688  -0.02145  -0.02452  0.8713  0.007909
6.321e+09  -0.07374  0.8113  0.006553  -0.01351  -0.03768  -0.01269  0.8299  -0.2975
6.322e+09  0.2935  0.7847  -0.003596  0.01131  0.00777  0.04013  0.681  -0.5485
6.324e+09  0.5104  0.6689  0.02666  0.01568  0.01566  -0.0009901  0.4533  -0.7634
6.325e+09  0.7149  0.4312  -0.006694  0.003369  -0.01701  0.03224  0.1633  -0.8821
6.326e+09  0.7697  0.1649  0.00048  0.04098  -0.04016  -0.004646  -0.1233  -0.9102
6.328e+09  0.844  -0.1072  0.01815  -0.008781  0.04315  -0.008003  -0.4359  -0.815
6.329e+09  0.7239  -0.4446  -0.006468  -0.003342  0.0187  -0.04061  -0.6735  -0.5477
6.33e+09  0.5462  -0.6486  0.01992  0.01693  0.02729  0.03813  -0.8697  -0.334
6.331e+09  0.2898  -0.7621  0.001596  -0.01116  0.04669  -0.007284  -0.8893  -0.0374
6.332e+09  -0.06431  -0.8535  -0.0052  -0.01526  0.01157  -0.004983  -0.8616  0.2915
6.334e+09  -0.3415  -0.7353  -0.008128  0.002467  -0.003175  -0.006761  -0.7497  0.5919
6.335e+09  -0.5717  -0.6301  0.02494  0.01542  0.003965  -0.01008  -0.5037  0.7659
6.336e+09  -0.7475  -0.3839  0.001014  -0.004257  0.04001  0.01036  -0.1481  0.926
6.338e+09  -0.8841  -0.0849  0.02707  -0.005276  0.009275  -0.01097  0.1103  0.9081
6.339e+09  -0.8222  0.2065  0.01631  -0.006462  -0.04525  -0.02327  0.4632  0.8185
6.34e+09  -0.7315  0.4364  0.0004683  0.02097  -0.04006  -0.04105  0.6751  0.6225
6.341e+09  -0.5422  0.7116  -0.01255  -0.002153  0.04751  0.03089  0.804  0.3754
6.342e+09  -0.2136  0.8571  0.006529  -0.00369  0.01537  0.03164  0.9455  0.05209
6.344e+09  0.1066  0.8814  0.03297  0.02339  -0.04381  0.05147  0.9062  -0.2883
6.345e+09  0.4237  0.7657  -0.01141  -0.0007537  0.03941  0.006157  0.7343  -0.56
6.346e+09  0.6082  0.537  -0.002299  0.02728  -0.05057  -0.01588  0.5233  -0.7859
6.348e+09  0.7898  0.3078  0.05606  0.02589  -0.007107  -0.03522  0.234  -0.8919
6.349e+09  0.872  0.03944  -0.008573  0.006645  -0.001964  0.02363  -0.08739  -0.9104
6.35e+09  0.7773  -0.3008  -0.02379  0.01953  -0.01576  7.951e-05  -0.4463  -0.8408
6.351e+09  0.6626  -0.5374  0.013  0.004591  -0.006936  -0.04779  -0.6889  -0.6458
6.352e+09  0.4121  -0.7514  0.005397  -0.003545  -0.03767  -0.07371  -0.8761  -0.3877
6.354e+09  0.142  -0.8162  -0.009623  -0.003086  -0.02583  -0.03772  -0.9788  -0.0896
6.355e+09  -0.1568  -0.8824  -0.01948  -0.04442  -0.0004953  -0.04455  -0.9096  0.2506
6.356e+09  -0.4451  -0.7485  0.00876  0.004619  -0.07841  -0.006767  -0.7654  0.526
6.358e+09  -0.6715  -0.5169  0.01281  -0.008984  -0.02923  0.005094  -0.5256  0.7458
6.359e+09  -0.8571  -0.2907  0.05218  0.01419  0.003436  -0.04212  -0.2235  0.918
6.36e+09  -0.8838  0.01526  0.04996  -0.03198  -0.00726  0.00576  0.1143  0.9628
6.361e+09  -0.8593  0.3363  0.006299  0.01447  -0.005859  0.009631  0.4102  0.8583
6.362e+09  -0.6283  0.5271  0.04661  -0.007744  -0.02901  -0.01734  0.7024  0.6461
6.364e+09  -0.3901  0.7871  -0.006272  -0.005774  0.02709  -0.01145  0.8479  0.3663
6.365e+09  -0.1219  0.8719  -0.03113  0.01514  0.002593  -0.02687  0.9448  0.08185
6.366e+09  0.1813  0.8218  -0.008813  -0.03089  0.01752  0.01476  0.9022  -0.2257
6.368e+09  0.534  0.6881  0.0009633  -0.0038  0.03208  -0.009801  0.7699  -0.5672
6.369e+09  0.6913  0.5194  -0.02761  0.006177  0.001053  0.008388  0.5619  -0.8108
6.37e+09  0.8592  0.2206  0.008583  -0.04566  0.005243  -0.02577  0.2727  -0.9507
6.371e+09  0.8818  -0.1027  -0.01844  -0.007726  0.01021  -0.004304  -0.09867  -0.9564
6.372e+09  0.7931  -0.4197  -0.004255  0.02031  0.01361  -0.01378  -0.4247  -0.8632
6.374e+09  0.557  -0.6252  -0.05243  -0.001273  0.0153  -0.03438  -0.6786  -0.6755
6.375e+09  0.3671  -0.7956  0.004884  -0.02535  0.03672  0.01472  -0.8905  -0.4066
6.376e+09  -0.01573  -0.8227  0.01069  0.0003574  -0.02639  0.02748  -0.9486  -0.09791
6.378e+09  -0.3199  -0.7945  0.01848  -0.004727  0.002811  0.01714  -0.8981  0.2408
6.379e+09  -0.5767  -0.6865  -0.04726  -0.02535  -0.03003  0.02253  -0.77  0.525
6.38e+09  -0.7884  -0.4603  -0.003248  0.01397  -0.04797  0.003178  -0.5495  0.7891
6.381e+09  -0.9138  -0.1467  -0.01618  -0.06065  -0.004888  -0.01636  -0.2732  0.9071
6.382e+09  -0.8866  0.1284  0.001685  0.03205  0.01712  -0.02536  0.07381  0.8992
6.384e+09  -0.7463  0.4387  -0.02522  -0.02794  0.02192  0.01453  0.4192  0.863
6.385e+09  -0.5365  0.6791  -0.03269  -0.02918  0.03238  -0.05912  0.6352  0.6903
6.386e+09  -0.2657  0.8269  -0.004786  0.05537  -0.03093  -0.009298  0.8213  0.4103
6.388e+09  0.04689  0.8957  0.04874  0.001656  0.01716  -0.02989  0.9261  0.1154
6.389e+09  0.3716  0.8329  -0.03361  0.02765  -0.06489  -0.03224  0.9376  -0.2473
6.39e+09  0.646  0.6003  -0.03634  -0.00323  0.0259  -0.02744  0.7966  -0.529
6.391e+09  0.7878  0.3372  -0.01295  0.03686  0.002492  0.03993  0.6023  -0.7648
6.392e+09  0.9254  0.07135  0.02702  0.03492  0.0573  0.005087  0.3091  -0.9157
6.394e+09  0.8675  -0.2199  -0.03525  -0.002889  -0.00802  0.01388  -0.00314  -0.923
6.395e+09  0.7067  -0.5546  0.02626  -0.01386  0.03405  -0.005835  -0.3328  -0.858
6.396e+09  0.5184  -0.7665  -0.005436  0.01043  -0.03506  -0.06074  -0.5723  -0.669
6.398e+09  0.2095  -0.8406  0.03891  0.02816  0.02411  -0.02277  -0.7854  -0.4179
6.399e+09  -0.1108  -0.8862  -0.02957  0.01635  -0.01809  0.01844  -0.9378  -0.1329
6.4e+09  -0.4445  -0.7769  0.0263  0.0109  0.003747  0.02858  -0.9066  0.1797
6.401e+09  -0.6205  -0.5664  0.008316  -0.0034  0.0003881  0.01012  -0.8217  0.4671
6.402e+09  -0.8278  -0.3253  0.02422  -0.01511  -0.005441  0.04355  -0.6262  0.6662
6.404e+09  -0.895  -0.04197  -0.01425  -0.01496  -0.0102  0.004458  -0.3218  0.8597
6.405e+09  -0.7957  0.3089  0.02711  0.03666  -0.02724  -0.027  0.01469  0.9257
6.406e+09  -0.7074  0.5687  0.07126  0.005902  -0.04523  0.008999  0.3086  0.8922
6.408e+09  -0.4835  0.6874  0.004732  0.02035  -0.0101  -0.028  0.5811  0.6787
6.409e+09  -0.1464  0.8342  -0.02318  0.03264  0.0008063  -0.01874  0.805  0.4586
6.41e+09  0.1592  0.8501  0.02096  -0.007823  0.007043  0.02539  0.8782  0.1837
6.411e+09  0.408  0.7119  0.004031  0.00496  0.02089  -0.02068  0.8674  -0.1596
6.412e+09  0.675  0.5205  -0.007359  0.003833  -0.04928  -0.001544  0.7777  -0.3963
6.414e+09  0.8096  0.3548  0.02358  -0.003241  0.05163  0.002101  0.6025  -0.6438
6.415e+09  0.897  0.005732  0.04032  0.01488  -0.001905  -0.004392  0.3406  -0.8608
6.416e+09  0.8259  -0.3331  0.002687  0.003628  0.02107  0.01394  0.0554  -0.8508
6.418e+09  0.6838  -0.6075  0.01518  -0.01159  0.01835  -0.02478  -0.296  -0.8836
6.419e+09  0.4033  -0.7721  0.002102  -0.02185  0.02564  -0.04776  -0.5568  -0.6877
6.42e+09  0.1403  -0.869  -0.03867  0.01524  -0.008233  0.0223  -0.805  -0.4659
6.421e+09  -0.1731  -0.8548  0.03064  -0.02597  0.01592  0.03012  -0.8507  -0.2183
6.422e+09  -0.496  -0.7619  0.01195  -0.04864  0.008534  0.004194  -0.8918  0.1551
6.424e+09  -0.6937  -0.5771  -0.02446  -0.02241  -0.004312  0.009347  -0.7927  0.4351
6.425e+09  -0.8092  -0.2519  0.04994  -0.00357  0.05331  -0.02698  -0.6093  0.6817
6.426e+09  -0.8652  0.05086  -0.02965  0.002591  -0.0194  -0.0001843  -0.3604  0.8293
6.428e+09  -0.7831  0.3254  -0.05928  -0.03326  -0.01311  -0.00963  -0.01821  0.9014
6.429e+09  -0.6254  0.6119  -0.03016  0.009018  -0.01804  -0.002026  0.2627  0.8264
6.43e+09  -0.4053  0.7499  -0.01331  -0.05246  0.05551  -0.05468  0.5244  0.6964
6.431e+09  -0.07714  0.86  0.01664  -0.009779  0.0004221  0.0006278  0.7511  0.4812
6.432e+09  0.2241  0.8556  -0.01646  0.002995  -0.008268  0.07014  0.8366  0.1639
6.434e+09  0.5031  0.6862  0.04341  0.01708  0.0347  0.02509  0.8391  -0.1142
6.435e+09  0.6652  0.5012  -0.03105  0.006033  0.02112  -0.008274  0.771  -0.4056
6.436e+09  0.8318  0.2097  -0.02159  -0.04646  -0.02352  0.0009654  0.5553  -0.5688
6.438e+09  0.8808  -0.09042  -0.003814  0.01041  0.02807  -0.02376  0.3658  -0.8825
6.439e+09  0.7632  -0.394  -0.01814  -0.002744  0.01362  -0.03822  0.04288  -0.876
6.44e+09  0.6012  -0.6097  0.0341  0.02423  -0.03103  0.01202  -0.1909  -0.7994
6.441e+09  0.356  -0.8083  -0.006389  -0.02863  0.02428  -0.002074  -0.4925  -0.7436
6.442e+09  0.09355  -0.8378  -0.008022  0.02203  -0.02717  -0.007446  -0.7105  -0.4549
6.444e+09  -0.2599  -0.8084  0.03053  0.01803  0.01359  -0.008834  -0.8544  -0.2231
6.445e+09  -0.5014  -0.6538  0.01523  -0.01285  -0.0183  0.03275  -0.859  0.09606
6.446e+09  -0.7156  -0.4709  -0.0228  0.002714  0.03783  0.004578  -0.7555  0.3558
6.448e+09  -0.8599  -0.2318  0.001292  0.008496  0.02136  -0.06002  -0.6059  0.5686
6.449e+09  -0.8517  0.1305  -0.01628  0.03673  0.04759  -0.03753  -0.3613  0.725
6.45e+09  -0.7681  0.3424  -0.0064  -0.003421  0.009305  0.04899  -0.0865  0.8146
6.451e+09  -0.5506  0.6227  0.01454  -0.03441  -0.03029  0.001465  0.2704  0.7875
6.452e+09  -0.3414  0.7556  0.007735  0.05398  -0.04273  0.009857  0.4807  0.7261
6.454e+09  -0.05934  0.8572  -0.01291  -0.041  -0.02381  -0.01248  0.713  0.4441
6.455e+09  0.2171  0.8691  -0.06135  0.001616  0.03307  0.02108  0.8208  0.2146
6.456e+09  0.5254  0.6742  0.01358  -0.02625  -0.02316  -0.01099  0.7908  -0.07817
6.458e+09  0.7022  0.4917  0.03156  -0.08274  -0.04026  -0.03224  0.7393  -0.3681
6.459e+09  0.8578  0.2004  0.004489  -0.02437  -0.03496  -0.006134  0.5399  -0.6369
6.46e+09  0.8701  -0.06463  0.00562  -0.003515  -0.02128  0.002134  0.3567  -0.7784
6.461e+09  0.8047  -0.4123  -0.06134  -0.01535  -0.005925  0.003969  0.07473  -0.8332
6.462e+09  0.5866  -0.6305  -0.007714  -0.03098  0.02917  0.03401  -0.2404  -0.7584
6.464e+09  0.2879  -0.8342  0.0193  -0.02669  0.02757  0.03039  -0.4455  -0.673
6.465e+09  -0.01413  -0.8386  -0.009382  0.01704  0.01427  0.00767  -0.6617  -0.4498
6.466e+09  -0.2485  -0.8566  0.01958  -0.0003592  -0.02874  0.02081  -0.7917  -0.1825
6.468e+09  -0.5186  -0.6698  -0.01522  -0.01603  -0.003729  -0.01399  -0.8041  0.03792
6.469e+09  -0.7263  -0.4895  -0.009796  0.01154  0.01019  -0.01205  -0.7077  0.326
6.47e+09  -0.8675  -0.1485  0.001239  -0.002697  -0.01397  0.04655  -0.5555  0.5661
6.471e+09  -0.8291  0.1436  -0.01026  0.01198  -0.02273  -0.07193  -0.3588  0.7119
6.472e+09  -0.754  0.399  -0.02489  -0.005969  0.00191  0.01216  -0.07187  0.7552
6.474e+09  -0.5786  0.6722  0.01773  0.004846  -0.02578  0.005678  0.2257  0.7514
6.475e+09  -0.3286  0.7666  -0.01884  -0.006948  0.002444  0.002523  0.4694  0.5776
6.476e+09  -0.06573  0.904  -0.01359  -0.01666  0.007595  0.02773  0.6641  0.4518
6.478e+09  0.2333  0.7837  0.02433  0.005293  -0.03108  0.01072  0.7611  0.1598
6.479e+09  0.5641  0.6699  -0.01166  0.0008376  0.02046  0.01806  0.751  -0.07741
6.48e+09  0.7947  0.4159  -0.0003931  -0.007468  0.03009  -0.02054  0.7084  -0.3471
6.481e+09  0.8676  0.141  0.03458  0.005762  -0.01574  -0.05821  0.5563  -0.5577
6.482e+09  0.883  -0.1612  0.01408  0.007393  0.04138  -3.958e-05  0.3437  -0.7237
6.484e+09  0.7314  -0.4111  0.0192  -0.037  -0.009233  0.06068  0.0639  -0.7851
6.485e+09  0.5419  -0.6415  -0.00369  0.00497  -0.01716  0.06062  -0.2356  -0.7328
6.486e+09  0.3052  -0.8029  -0.005782  -0.004191  -0.02602  -0.04101  -0.4716  -0.6295
6.488e+09  0.04802  -0.9004  0.04165  -0.02268  0.05456  -0.03263  -0.6435  -0.4636
6.489e+09  -0.2735  -0.8214  0.04381  -0.04031  -0.06231  0.008731  -0.776  -0.2012
6.49e+09  -0.5522  -0.6744  -0.07988  -0.0218  0.003909  -0.01172  -0.7439  0.1171
6.491e+09  -0.7377  -0.4362  -0.03269  0.0154  -0.01415  -0.0001876  -0.6657  0.3287
6.492e+09  -0.8321  -0.1009  -0.006751  0.02858  0.02249  -0.03696  -0.5531  0.5515
6.494e+09  -0.8894  0.1726  -0.03645  -0.005191  -0.01325  -0.0639  -0.2867  0.6927
6.495e+09  -0.7628  0.4415  0.01407  -0.002256  0.01265  -0.06305  -0.07142  0.7461
6.496e+09  -0.5148  0.7231  0.001454  -0.002563  0.009258  -0.06922  0.2498  0.7546
6.498e+09  -0.2881  0.8498  -0.01884  0.02607  0.03215  0.05563  0.4646  0.6215
6.499e+09  -0.04056  0.8716  -0.002127  0.04853  0.02763  -0.05842  0.658  0.3863
6.5e+09  0.3602  0.8382  -0.01235  0.02378  0.03289  -0.01669  0.7729  0.1344
6.501e+09  0.5431  0.6871  0.02953  -0.01541  0.001773  0.003634  0.7936  -0.1589
6.502e+09  0.777  0.3853  -0.04049  -0.01889  0.00977  -0.02119  0.6823  -0.3289
6.504e+09  0.9105  0.09223  -0.01074  0.02155  -0.03452  -0.02278  0.479  -0.589
6.505e+09  0.8941  -0.184  -0.01414  -0.02162  -0.008803  -0.02491  0.292  -0.7134
6.506e+09  0.7843  -0.4452  -0.0004016  0.009235  -0.02427  -0.01098  0.01205  -0.7577
6.508e+09  0.5708  -0.7148  0.03873  -0.03253  -0.01856  -0.006751  -0.2363  -0.7405
6.509e+09  0.2722  -0.8638  -0.01809  0.01119  0.0599  -0.0282  -0.4603  -0.5664
6.51e+09  -0.04436  -0.9623  -0.008336  0.005858  -0.0256  -0.04782  -0.638  -0.4118
6.511e+09  -0.3558  -0.8741  -0.01887  0.001093  -0.03706  -0.01526  -0.758  -0.1255
6.512e+09  -0.5938  -0.6674  -0.03399  0.01084  0.02718  -0.057  -0.7304  0.1183
6.514e+09  -0.8212  -0.4383  0.01061  -0.0198  -0.01237  -0.001806  -0.6775  0.3761
6.515e+09  -0.9288  -0.1065  -0.0132  0.0004179  -0.01546  0.005599  -0.4754  0.6272
6.516e+09  -0.8864  0.2134  0.0182  0.02143  -0.04155  -0.0216  -0.2805  0.687
6.518e+09  -0.7571  0.449  0.007153  0.003364  -0.04949  -0.04436  0.03577  0.744
6.519e+09  -0.4993  0.7377  -0.01661  -0.02261  0.0003816  -0.03436  0.27  0.7021
6.52e+09  -0.23  0.8963  -0.03428  -0.01381  -0.005175  -0.02783  0.499  0.546
6.521e+09  0.101  0.9389  0.0008014  0.006222  -0.003448  -0.01614  0.6452  0.3165
6.522e+09  0.3831  0.8438  -0.0123  0.008306  -0.03597  0.0002541  0.7015  0.1229
6.524e+09  0.679  0.6513  0.006517  0.01537  0.01617  -0.01015  0.7487  -0.1563
6.525e+09  0.847  0.4338  -0.009565  0.02471  -0.03268  0.008416  0.6244  -0.4173
6.526e+09  0.9057  0.06536  -0.01538  -0.005953  -0.01598  0.01111  0.4093  -0.586
6.528e+09  0.9049  -0.2624  0.005203  0.00589  -0.02067  -0.0151  0.1997  -0.6875
6.529e+09  0.7764  -0.5705  0.00513  -0.004938  -0.003912  -0.007809  -0.05894  -0.7159
6.53e+09  0.5651  -0.7946  0.01721  0.02894  0.05839  -0.02451  -0.2822  -0.6537
6.531e+09  0.1787  -0.9243  0.02648  0.002556  -0.01755  0.007458  -0.4874  -0.4746
6.532e+09  -0.03428  -0.9099  -0.01194  0.01956  -0.006851  -0.007151  -0.5953  -0.2935
6.534e+09  -0.4135  -0.8529  0.01982  -0.01917  0.04745  0.01296  -0.5913  -0.07499
6.535e+09  -0.7116  -0.6653  0.005152  0.002673  -0.06892  0.01454  -0.6164  0.1107
6.536e+09  -0.8851  -0.3637  -0.004015  -0.03015  -0.03061  0.003856  -0.5635  0.2615
6.538e+09  -0.9339  -0.03216  0.001115  -0.001144  0.0142  0.06281  -0.4372  0.504
6.539e+09  -0.8901  0.2881  -0.008113  -0.01033  -0.001082  0.01061  -0.2595  0.6085
6.54e+09  -0.7071  0.6252  -0.01354  -0.01596  0.06285  -0.02019  -0.05456  0.6743
6.541e+09  -0.471  0.78  0.03072  -0.009596  -0.01123  0.03388  0.1843  0.6702
6.542e+09  -0.1797  0.9503  0.01367  0.005259  0.004842  -0.03275  0.3966  0.5805
6.544e+09  0.1792  0.938  -0.01906  -0.031  -0.004058  -0.03145  0.5727  0.4045
6.545e+09  0.4621  0.8101  0.02803  -0.01295  0.04526  0.02897  0.6969  0.1743
6.546e+09  0.7511  0.5423  0.008653  0.0001164  -0.01336  0.02491  0.7498  -0.08739
6.548e+09  0.8769  0.3727  0.02016  0.01131  -0.0015  0.02442  0.6365  -0.3286
6.549e+09  0.9096  -0.01672  0.01432  0.01067  -0.02664  -0.01893  0.5144  -0.5438
6.55e+09  0.9255  -0.3528  -0.02104  0.02403  0.01115  0.02099  0.2816  -0.6868
