# Hz S RI R 50
6.25e+09  -0.683  0.5611  0.004586  0.00562  0.05435  -0.0071  0.1457  0.4715
6.251e+09  -0.3747  0.8295  -0.03269  -0.01144  -0.04729  -0.001118  0.3355  0.3973
6.252e+09  -0.0586  0.8562  -0.009254  0.001288  -0.04579  -0.02569  0.5254  0.2606
6.254e+09  0.2664  0.8007  0.01321  0.03357  -0.03887  -0.02617  0.598  -0.001639
6.255e+09  0.4738  0.71  0.02669  0.0156  -0.01491  0.001717  0.5921  -0.233
6.256e+09  0.7415  0.4669  0.0102  -0.04049  0.002182  0.05517  0.5101  -0.4406
6.258e+09  0.8754  0.1805  0.01645  0.0494  -0.02637  -0.005389  0.266  -0.6533
6.259e+09  0.8402  -0.1043  -0.01237  0.02008  0.03189  0.01242  0.02367  -0.7301
6.26e+09  0.7623  -0.3544  0.002065  0.0009748  -0.01395  -0.01038  -0.2508  -0.6665
6.261e+09  0.5689  -0.5763  -0.008856  0.0009837  -0.04618  0.05643  -0.4716  -0.5528
6.262e+09  0.291  -0.7753  -0.001838  0.01835  0.01798  -0.00212  -0.6133  -0.3552
6.264e+09  0.0833  -0.8888  0.004977  -0.00768  0.006545  -0.06035  -0.7277  -0.09343
6.265e+09  -0.2577  -0.8379  -0.003012  -0.02381  0.0154  -0.002123  -0.7196  0.1507
6.266e+09  -0.5057  -0.6912  0.04116  0.01053  0.01804  -0.002196  -0.6303  0.3934
6.268e+09  -0.6964  -0.4335  0.002218  -0.02225  0.02669  0.02043  -0.4172  0.6131
6.269e+09  -0.7686  -0.1809  0.01459  -0.009924  0.00648  0.001386  -0.2033  0.7224
6.27e+09  -0.7851  0.0479  -0.005681  -0.02548  0.02159  -0.01163  0.05505  0.7405
6.271e+09  -0.6866  0.37  -0.01137  -0.01478  0.02421  0.02244  0.3181  0.6665
6.272e+09  -0.5426  0.588  -0.01486  -0.01475  0.05219  0.02273  0.5687  0.554
6.274e+09  -0.3118  0.7677  -0.02357  -0.004488  -0.01547  0.04173  0.6721  0.3169
6.275e+09  0.02389  0.8873  -0.04431  -0.01618  -0.00109  -0.01517  0.7502  0.05452
6.276e+09  0.1916  0.7655  0.01779  0.008595  0.01688  -0.02407  0.6951  -0.2236
6.278e+09  0.4687  0.6697  -0.00479  0.009702  -0.02509  0.0125  0.6164  -0.445
6.279e+09  0.6808  0.4813  0.009754  -0.01278  -0.01956  -0.01353  0.4058  -0.6308
6.28e+09  0.7854  0.1716  -0.01758  -0.0005278  0.03434  0.03291  0.1393  -0.7362
6.281e+09  0.7869  -0.1285  0.03167  0.007203  -0.04295  -0.01126  -0.1136  -0.7802
6.282e+09  0.744  -0.3878  -0.007547  0.02684  0.02645  -0.03737  -0.3682  -0.6696
6.284e+09  0.5386  -0.612  -5.829e-05  -0.002248  -0.03719  -0.008958  -0.5907  -0.5404
6.285e+09  0.3394  -0.7225  -0.02156  -0.01222  0.04171  0.01712  -0.732  -0.2618
6.286e+09  0.03471  -0.8257  -0.01823  -0.009842  0.002925  -0.02079  -0.7943  -0.03576
6.288e+09  -0.2396  -0.8512  0.001251  0.0085  0.01836  -0.01591  -0.7685  0.2638
6.289e+09  -0.466  -0.6196  0.004394  -0.03084  0.01228  -0.003217  -0.6569  0.4833
6.29e+09  -0.6763  -0.4392  -0.005494  -0.0321  0.005679  0.007507  -0.3946  0.7058
6.291e+09  -0.8121  -0.1961  -0.004036  0.03233  0.07698  -0.008911  -0.1836  0.7852
6.292e+09  -0.8101  0.1268  0.0004891  0.01005  0.0244  -0.0153  0.1062  0.8048
6.294e+09  -0.6689  0.4013  0.02729  -0.0173  0.01904  -0.0607  0.4109  0.7176
6.295e+09  -0.5404  0.6033  0.02265  0.003736  -0.01823  0.02429  0.6607  0.5281
6.296e+09  -0.2778  0.7489  -0.006209  0.01368  0.004496  0.02219  0.7286  0.3042
6.298e+09  0.002744  0.8673  0.02924  -0.009068  0.08031  0.008813  0.8646  0.04591
6.299e+09  0.3238  0.7618  -0.004574  -0.003038  -0.001447  0.009253  0.7613  -0.2529
6.3e+09  0.5383  0.624  -0.004762  0.0002203  0.003883  0.03397  0.6353  -0.5129
6.301e+09  0.6632  0.4327  -0.02251  0.004889  0.04469  0.007117  0.423  -0.7104
6.302e+09  0.8223  0.1238  0.02363  -0.003431  0.0008064  0.0248  0.1617  -0.8258
6.304e+09  0.7673  -0.1155  -0.008224  -0.00634  0.03775  0.005897  -0.1733  -0.7941
6.305e+09  0.7258  -0.4231  -0.02577  0.0183  -0.002412  -0.009752  -0.4336  -0.7412
6.306e+09  0.5423  -0.5978  -0.01468  0.000135  0.0006803  -0.03488  -0.6701  -0.5513
6.308e+09  0.2864  -0.7529  0.0072  0.008247  -0.02324  0.001856  -0.7792  -0.3016
6.309e+09  -0.001709  -0.8386  0.002203  -0.003572  -0.02469  -0.08191  -0.8396  0.02166
6.31e+09  -0.2987  -0.7176  0.02056  -0.01764  -0.04004  0.03587  -0.777  0.3139
6.311e+09  -0.5347  -0.6251  -0.02662  -0.02371  -0.02011  -0.01427  -0.6635  0.5344
6.312e+09  -0.7325  -0.3762  0.01558  0.0202  -0.006097  -0.0009125  -0.4613  0.7755
6.314e+09  -0.7877  -0.1219  -0.009121  -0.017  0.02165  0.04214  -0.1484  0.8478
6.315e+09  -0.7945  0.1345  -0.02385  -0.0405  0.004791  0.02658  0.1312  0.8407
6.316e+09  -0.6938  0.4804  0.01125  -0.01315  0.02931  0.02792  0.4126  0.7422
6.318e+09  -0.4938  0.6494  0.00975  0.02162  -0.003048  0.01215  0.6585  0.5759
6.319e+09  -0.2191  0.8157  0.01838  0.006463  0.009736  -0.03613  0.8353  0.3172
6.32e+09  0.02317  0.8361  0.01263  -0.01652  -0.03129  -0.03505  0.9163  0.03107
6.321e+09  0.3556  0.753  -0.01489  0.002282  -0.02281  0.0427  0.8785  -0.3078
6.322e+09  0.6282  0.5923  -0.01107  -0.0001613  -0.005033  -0.06073  0.7069  -0.5637
6.324e+09  0.788  0.3418  0.008349  0.01658  -0.02439  -0.008718  0.4779  -0.7634
6.325e+09  0.7925  0.07277  0.01391  0.02435  -0.03258  0.01107  0.195  -0.8396
6.326e+09  0.7889  -0.2226  -0.00137  0.009937  -0.01152  -0.02343  -0.1124  -0.8644
6.328e+09  0.6885  -0.4728  0.01816  0.04094  -0.006862  -0.02746  -0.4174  -0.8
6.329e+09  0.4851  -0.6937  0.01321  0.01311  -0.00442  0.01781  -0.7131  -0.6082
6.33e+09  0.248  -0.8816  -0.007627  -0.01257  0.01524  -0.004074  -0.8633  -0.3326
6.331e+09  -0.08899  -0.878  -0.001555  0.01032  0.02846  -0.03613  -0.9486  -0.04145
6.332e+09  -0.3745  -0.7541  0.02154  -0.03001  -0.00818  -0.01843  -0.8608  0.2939
6.334e+09  -0.6172  -0.6043  0.01059  -0.01999  -0.01069  0.01262  -0.7333  0.5554
6.335e+09  -0.8058  -0.3622  -0.008783  0.01912  -0.03902  0.02477  -0.5024  0.7836
6.336e+09  -0.901  -0.05844  -0.02203  -0.002066  0.00769  0.001289  -0.1924  0.8983
6.338e+09  -0.8322  0.289  -0.0234  -0.006895  -0.02889  -0.03706  0.119  0.9075
6.339e+09  -0.7077  0.5012  0.02254  0.02051  -0.02702  0.03026  0.429  0.8168
6.34e+09  -0.4584  0.7785  0.03034  -0.01842  0.04332  0.02646  0.6827  0.6338
6.341e+09  -0.1241  0.8764  0.0105  0.006651  0.01425  -0.0183  0.8582  0.3519
6.342e+09  0.1806  0.8464  0.01557  0.00207  -0.02313  0.02011  0.9225  0.05223
6.344e+09  0.3991  0.765  -0.005939  -0.02354  0.0109  0.0213  0.9022  -0.3046
6.345e+09  0.7015  0.5391  -0.03687  0.0146  0.03488  -0.04742  0.7402  -0.5255
6.346e+09  0.7808  0.2956  -0.02041  -0.008575  0.03952  0.001171  0.5468  -0.7969
6.348e+09  0.8741  -0.05904  -0.002182  0.02849  -0.005221  0.002669  0.2164  -0.9266
6.349e+09  0.7726  -0.3187  0.01414  0.001148  -0.01524  0.02122  -0.1401  -0.9059
6.35e+09  0.6724  -0.6311  0.01694  -0.0309  0.01126  -0.003255  -0.4593  -0.8109
6.351e+09  0.3928  -0.8197  0.03706  -0.02902  -0.01289  0.0253  -0.6743  -0.6581
6.352e+09  0.06116  -0.924  -0.03711  0.02672  -0.01578  -0.01873  -0.8511  -0.3625
6.354e+09  -0.2376  -0.8576  -0.001081  -0.01176  0.05287  -0.01778  -0.9384  -0.07491
6.355e+09  -0.4961  -0.787  0.02363  -0.0385  0.05214  0.01143  -0.9475  0.2664
6.356e+09  -0.7471  -0.4991  0.02655  -0.05035  -0.009032  -0.004421  -0.766  0.5541
6.358e+09  -0.8302  -0.2226  -0.01009  0.009511  -0.02954  -0.06472  -0.5238  0.7978
6.359e+09  -0.8735  0.1236  0.005095  -0.02962  0.004884  -0.03254  -0.2433  0.9165
6.36e+09  -0.755  0.4019  0.01184  0.01674  -0.008101  0.04317  0.121  0.9587
6.361e+09  -0.6044  0.6584  -0.00517  -0.005279  0.007676  -0.04053  0.4307  0.8524
6.362e+09  -0.2949  0.7835  -0.02011  0.00198  -0.04309  -0.0327  0.716  0.6674
6.364e+09  -0.09407  0.8821  0.0102  -0.01967  -0.01082  0.01346  0.8816  0.4395
6.365e+09  0.2933  0.8868  -0.003765  -0.03097  0.0295  0.01371  0.9619  0.06479
6.366e+09  0.5455  0.7208  -0.02173  -0.009856  -0.02105  0.009045  0.8788  -0.2521
6.368e+09  0.7778  0.4432  0.02075  0.03299  -0.01702  0.001292  0.7965  -0.5422
6.369e+09  0.8725  0.1871  -0.0254  0.003041  -0.0005621  -0.03288  0.5559  -0.7834
6.37e+09  0.8619  -0.1478  0.00451  0.002323  0.02143  -0.03676  0.2515  -0.8916
6.371e+09  0.8071  -0.4229  -0.003285  0.004514  0.03831  0.0489  -0.08954  -0.9462
6.372e+09  0.5619  -0.6924  0.003774  0.01112  0.01945  0.02069  -0.3811  -0.8685
6.374e+09  0.3018  -0.8283  0.002309  -0.04789  0.01214  0.01713  -0.6983  -0.6862
6.375e+09  0.02489  -0.8484  -0.039  -9.005e-05  -0.009102  0.03724  -0.9091  -0.4033
6.376e+09  -0.308  -0.8295  0.02739  0.009725  -0.01768  -0.01772  -0.9224  -0.1052
6.378e+09  -0.6317  -0.6289  -0.007233  -0.007688  -0.01075  0.03745  -0.8744  0.2039
6.379e+09  -0.7661  -0.4113  0.006357  -0.03467  0.01257  -0.01215  -0.8318  0.5745
6.38e+09  -0.877  -0.08921  0.02535  -0.03609  -0.01758  0.004381  -0.5771  0.7292
6.381e+09  -0.8643  0.2322  -0.01822  -0.04567  -0.01434  -0.007529  -0.3119  0.9226
6.382e+09  -0.7319  0.4813  0.02476  0.02991  -0.01143  0.0107  0.05449  0.9576
6.384e+09  -0.5482  0.7097  0.03935  -0.01613  0.01995  0.01638  0.4135  0.8578
6.385e+09  -0.2931  0.8582  -0.01374  -0.05674  0.003788  0.008115  0.6287  0.6716
6.386e+09  0.04298  0.9238  0.01349  -0.005113  0.01728  -0.03042  0.8087  0.4077
6.388e+09  0.3368  0.8218  -0.03384  -0.02752  -0.01947  -0.02809  0.9149  0.09127
6.389e+09  0.6234  0.6071  -0.02445  0.005421  0.03947  -0.01644  0.8828  -0.211
6.39e+09  0.8274  0.3522  -0.01857  0.001828  -0.0088  -0.03395  0.7702  -0.4863
6.391e+09  0.9066  0.07962  0.01779  -0.003744  0.01606  0.01876  0.5587  -0.7202
6.392e+09  0.906  -0.3066  0.02406  0.01003  -0.03664  0.004146  0.3086  -0.8384
6.394e+09  0.7051  -0.5443  0.05318  -0.005227  -0.01185  0.01944  -0.04575  -0.9417
6.395e+09  0.4727  -0.6959  0.00562  0.0008848  -0.0363  -0.002869  -0.3419  -0.8483
6.396e+09  0.2383  -0.8547  -0.02655  -0.01419  -0.03969  0.03938  -0.5679  -0.7128
6.398e+09  -0.09752  -0.8533  -0.005742  0.01565  0.04022  -0.01653  -0.8021  -0.4141
6.399e+09  -0.4313  -0.8219  0.003181  -0.02256  0.002134  0.02141  -0.9065  -0.1402
6.4e+09  -0.6479  -0.5959  0.0268  -0.01483  0.02023  0.02045  -0.88  0.194
6.401e+09  -0.8073  -0.348  -0.02903  0.004192  0.01435  -0.06592  -0.7774  0.4809
6.402e+09  -0.8524  -0.02625  -0.01437  0.006581  -0.02423  -0.007351  -0.6347  0.7275
6.404e+09  -0.8118  0.2857  -0.008893  -0.008467  0.04436  -0.01498  -0.284  0.8896
6.405e+09  -0.6804  0.5527  -0.001046  0.006071  0.007855  -0.00865  -0.006565  0.9453
6.406e+09  -0.4696  0.7636  0.01448  -0.05036  -0.001758  -0.02224  0.2969  0.8441
6.408e+09  -0.1901  0.872  -0.00137  0.002831  0.01055  0.04977  0.536  0.6755
6.409e+09  0.09172  0.8671  0.01281  0.01375  0.03019  -0.02404  0.828  0.4942
6.41e+09  0.4039  0.7731  -0.01428  0.00874  -0.02686  -0.02842  0.9541  0.09999
6.411e+09  0.7299  0.5687  -0.008618  -0.01698  0.04157  0.01136  0.9148  -0.1279
6.412e+09  0.827  0.2756  0.01548  0.008049  0.05273  -0.01373  0.7531  -0.4721
6.414e+09  0.947  -0.01417  -0.02268  -0.04039  0.00861  -0.002551  0.6112  -0.6676
6.415e+09  0.7959  -0.2789  0.03177  -0.06511  0.01305  0.01388  0.3456  -0.8722
6.416e+09  0.6657  -0.5446  0.01081  0.01744  -0.03711  -0.02666  0.05272  -0.918
6.418e+09  0.4871  -0.7726  0.02805  -0.02102  0.05268  -0.02489  -0.2941  -0.8534
6.419e+09  0.125  -0.9247  -0.01108  -0.07124  -0.006349  -0.04277  -0.5342  -0.6797
6.42e+09  -0.1351  -0.8231  -0.007331  0.01859  -0.02586  0.02234  -0.7569  -0.4591
6.421e+09  -0.4456  -0.7246  0.03817  0.02795  -0.003549  -0.03874  -0.8338  -0.1648
6.422e+09  -0.6938  -0.5492  -0.006195  -0.009767  -0.01302  -0.004265  -0.8632  0.1092
6.424e+09  -0.8565  -0.2533  0.0464  0.0005966  0.03903  0.03164  -0.7364  0.4405
6.425e+09  -0.8949  0.01532  0.01835  0.02062  -0.03515  0.02339  -0.6063  0.6052
6.426e+09  -0.816  0.3416  0.01528  -0.04007  0.005189  -0.01523  -0.323  0.7864
6.428e+09  -0.7097  0.579  -0.006598  0.01767  0.01325  -0.03672  -0.06899  0.8822
6.429e+09  -0.457  0.7733  0.0164  0.03059  0.02775  -0.033  0.2226  0.8499
6.43e+09  -0.1632  0.875  -0.01061  -0.0009882  -0.01245  -0.02271  0.4856  0.7279
6.431e+09  0.1662  0.8603  -0.05471  0.01146  -0.01788  0.05435  0.7047  0.4811
6.432e+09  0.4422  0.6941  0.03679  -0.04292  0.03053  -0.02578  0.8386  0.2063
6.434e+09  0.6674  0.5071  -0.04565  -0.05439  -0.041  0.01521  0.8542  -0.1335
6.435e+09  0.8432  0.2694  0.01651  -0.01273  -0.009891  0.007917  0.792  -0.3675
6.436e+09  0.8968  -0.07318  -0.02396  -0.009699  -0.004895  0.06393  0.5865  -0.6109
6.438e+09  0.8247  -0.3025  -0.04362  -0.01102  0.01295  -0.02506  0.393  -0.759
6.439e+09  0.6361  -0.5528  0.0005539  0.04103  0.001441  0.0172  0.01888  -0.8378
6.44e+09  0.4273  -0.8169  0.02076  0.01507  -0.04951  -0.005615  -0.248  -0.8128
6.441e+09  0.109  -0.8911  0.01942  -0.003583  0.005363  -0.006405  -0.4753  -0.6941
6.442e+09  -0.24  -0.8484  -0.002739  0.002004  -0.01776  -0.01341  -0.702  -0.4612
6.444e+09  -0.4786  -0.748  0.01775  -0.009528  0.002648  0.05474  -0.8341  -0.2241
6.445e+09  -0.6822  -0.5357  -0.03083  -0.0366  -0.004398  0.03212  -0.8349  0.07744
6.446e+09  -0.8344  -0.2624  0.02131  0.03983  0.003018  -0.006414  -0.7631  0.3494
6.448e+09  -0.9192  0.02388  -0.008739  -0.009187  0.04226  0.001337  -0.5649  0.6294
6.449e+09  -0.7754  0.3863  0.03202  -0.005701  0.01535  -0.005527  -0.3737  0.7845
6.45e+09  -0.6628  0.625  0.0211  0.01  0.02269  -0.03009  -0.09644  0.8595
6.451e+09  -0.3739  0.7831  -0.01446  0.009865  -0.008719  -0.002441  0.2138  0.7554
6.452e+09  -0.1274  0.8367  -0.01184  -0.02338  -0.06828  -0.003221  0.4844  0.6491
6.454e+09  0.1777  0.839  -0.0007691  -0.004264  0.02388  -0.03449  0.7157  0.4847
6.455e+09  0.4936  0.6922  -0.01706  0.02349  -0.04828  0.001242  0.8274  0.2183
6.456e+09  0.7287  0.5807  0.003028  -0.009058  0.02046  0.005694  0.8305  -0.04729
6.458e+09  0.8354  0.2285  -0.02557  0.002756  0.0115  0.02401  0.7908  -0.3603
6.459e+09  0.8755  -0.06664  -0.001427  0.02308  0.0139  0.02903  0.5834  -0.5746
6.46e+09  0.7877  -0.3091  0.009429  0.009575  -0.02014  -0.01995  0.367  -0.7571
6.461e+09  0.6519  -0.6248  0.002125  -0.02943  -0.04688  -0.01032  0.047  -0.8244
6.462e+09  0.4033  -0.7855  0.02986  0.04317  -0.04008  -0.02702  -0.2101  -0.757
6.464e+09  0.119  -0.8698  0.0002667  0.01801  0.03884  -0.01063  -0.4543  -0.6873
6.465e+09  -0.2723  -0.851  -0.01575  -0.007427  0.01195  -0.03533  -0.6491  -0.4667
6.466e+09  -0.5261  -0.7229  -0.02  -0.003385  0.03146  -0.01888  -0.7765  -0.1801
6.468e+09  -0.6872  -0.5053  0.03901  -0.01281  -0.05152  0.001352  -0.8029  0.09865
6.469e+09  -0.8071  -0.2115  -0.00941  0.0149  -0.01668  0.0001786  -0.7314  0.3785
6.47e+09  -0.8495  0.04185  -0.02147  0.01431  -0.01965  -0.0184  -0.5591  0.5918
6.471e+09  -0.8411  0.3095  -0.02069  -0.003209  0.003455  -0.03778  -0.3031  0.7123
6.472e+09  -0.6474  0.6061  0.02344  -0.02636  -0.02575  0.009945  -0.01873  0.8181
6.474e+09  -0.3904  0.7558  -0.009314  0.0005668  0.01387  0.008253  0.2366  0.8194
6.475e+09  -0.1219  0.8396  0.03664  -0.04804  -0.02784  0.00621  0.5115  0.6505
6.476e+09  0.2217  0.8974  -0.01102  -0.004784  0.04871  -0.03263  0.6411  0.4429
6.478e+09  0.5273  0.728  0.005962  0.01205  0.03054  -0.005544  0.7783  0.214
6.479e+09  0.7473  0.5175  0.01644  -0.02383  -0.01056  -0.05273  0.7997  -0.08285
6.48e+09  0.8265  0.2495  -0.01368  0.04023  0.01355  0.01795  0.7061  -0.3232
6.481e+09  0.9176  -0.1394  0.0007702  -0.01365  -0.01577  0.02063  0.508  -0.5709
6.482e+09  0.8255  -0.3553  0.005337  0.007527  0.03829  -0.02757  0.3227  -0.7348
6.484e+09  0.6278  -0.6705  -0.06101  -0.05757  -0.01073  -0.04056  0.04008  -0.7866
6.485e+09  0.3971  -0.791  0.01069  -0.01476  -0.02003  -0.04262  -0.2099  -0.7198
6.486e+09  0.1047  -0.8984  -0.02989  -0.03076  -0.03746  -0.02978  -0.4718  -0.6529
6.488e+09  -0.2317  -0.8315  0.02149  0.001101  0.06016  0.01574  -0.6035  -0.4382
6.489e+09  -0.5437  -0.6674  0.01585  -0.001219  -0.0006525  -0.01851  -0.7329  -0.1853
6.49e+09  -0.7103  -0.5111  0.01583  -0.0188  0.01623  -0.01419  -0.8042  0.08251
6.491e+09  -0.8631  -0.248  0.00968  -0.02038  0.0191  0.007686  -0.6638  0.356
6.492e+09  -0.8735  0.05169  -0.01754  -0.003992  -0.09337  -0.03593  -0.5014  0.6027
6.494e+09  -0.7819  0.327  -0.007644  0.04981  0.03642  -0.01177  -0.3198  0.6977
6.495e+09  -0.6405  0.684  -0.00355  0.004719  0.04856  -0.02123  0.0255  0.8027
6.496e+09  -0.3715  0.8598  0.00169  0.02644  -0.03448  -0.01619  0.2369  0.6865
6.498e+09  -0.02824  0.9247  0.02694  0.03145  -0.005475  0.05223  0.4829  0.5923
6.499e+09  0.281  0.8744  0.02071  -0.00254  0.03219  0.04  0.6554  0.3969
6.5e+09  0.5497  0.7612  0.01471  -0.05867  -0.01684  0.05277  0.7312  0.1838
6.501e+09  0.7398  0.5727  0.04576  -0.005712  -0.03088  -0.01579  0.7399  -0.08896
6.502e+09  0.8806  0.2135  0.02388  0.006092  0.04037  -0.04603  0.6989  -0.3622
6.504e+09  0.9396  -0.1509  -0.01063  -0.007958  0.01697  0.02615  0.498  -0.5723
6.505e+09  0.851  -0.4183  0.01677  0.009373  0.002359  -0.05284  0.2998  -0.7135
6.506e+09  0.6196  -0.6797  0.01375  0.001083  0.003116  -0.000571  -0.004686  -0.7338
6.508e+09  0.3816  -0.9283  0.001472  -0.02869  0.003039  0.002801  -0.2404  -0.7211
6.509e+09  0.0455  -0.9593  0.02958  0.01226  0.04538  -0.004294  -0.4956  -0.621
6.51e+09  -0.2398  -0.8467  -0.02209  -0.0516  -0.01165  0.01872  -0.6693  -0.3517
6.511e+09  -0.5706  -0.7503  0.01334  0.01444  0.02865  0.003502  -0.739  -0.1327
6.512e+09  -0.7673  -0.4846  0.006612  -0.01498  0.04201  0.06343  -0.7705  0.1336
6.514e+09  -0.9494  -0.1865  -0.006198  -0.01464  0.04803  0.02232  -0.6625  0.3819
6.515e+09  -0.9363  0.1307  -0.02449  -0.0008711  -0.04231  -0.04093  -0.4904  0.5756
6.516e+09  -0.8289  0.398  0.007012  -0.03444  0.01713  -0.07128  -0.2489  0.7527
6.518e+09  -0.6708  0.7079  0.05439  0.003916  0.01397  -0.002313  -0.00563  0.7647
6.519e+09  -0.319  0.8851  0.03211  0.009372  0.007839  -0.005477  0.2667  0.6822
6.52e+09  0.02347  0.9621  -0.04678  0.009492  -0.01623  0.02681  0.4983  0.5552
6.521e+09  0.3164  0.8701  -0.005229  0.001845  -0.005799  0.02829  0.6272  0.3642
6.522e+09  0.5667  0.7236  -0.01526  0.02239  -0.01507  -0.01024  0.6819  0.1097
6.524e+09  0.8108  0.4727  -0.00353  0.01355  -0.05285  0.02678  0.6996  -0.1603
6.525e+09  0.9143  0.2162  -0.007906  0.01208  0.03018  -0.01691  0.6297  -0.4052
6.526e+09  0.9418  -0.1651  0.05156  -0.007077  0.002776  -0.03664  0.4613  -0.5577
6.528e+09  0.8209  -0.5044  0.007026  -0.03377  -0.0662  -0.04618  0.1947  -0.7193
6.529e+09  0.584  -0.7255  0.00769  0.002652  0.07238  -0.01591  -0.05712  -0.7061
6.53e+09  0.349  -0.9143  0.000436  0.04986  0.008199  0.01187  -0.3224  -0.621
6.531e+09  -0.07037  -0.9393  -0.01453  -0.01228  0.03096  0.02016  -0.4455  -0.4833
6.532e+09  -0.3297  -0.8945  0.03889  -0.008623  0.08316  -0.005853  -0.5932  -0.3086
6.534e+09  -0.6867  -0.7297  -0.009012  0.002603  -0.01254  -0.01514  -0.6504  -0.1075
6.535e+09  -0.8814  -0.4133  -0.00509  -0.02301  -0.008921  -0.02512  -0.6385  0.09025
6.536e+09  -0.9867  -0.08117  0.004728  0.02344  -0.003007  0.009958  -0.5939  0.2879
6.538e+09  -0.9676  0.2208  -0.02455  0.04091  0.02279  0.006971  -0.443  0.4615
6.539e+09  -0.7618  0.5552  -0.007614  0.02448  -0.005663  -0.04229  -0.261  0.5917
6.54e+09  -0.6023  0.8236  -0.01794  -0.008776  0.009257  0.01844  -0.06394  0.6922
6.541e+09  -0.2627  0.9128  -0.0226  0.01413  0.008107  0.1009  0.2129  0.6619
6.542e+09  0.1264  1.021  0.00364  0.01957  0.01012  -0.01057  0.4259  0.5931
6.544e+09  0.4483  0.8721  -0.01641  -0.004288  0.01409  0.005014  0.5748  0.4114
6.545e+09  0.6875  0.6438  -0.01642  0.0015  0.04498  0.04014  0.7305  0.1834
6.546e+09  0.8879  0.3908  0.002665  0.04515  -0.02827  -0.01561  0.7008  -0.08496
6.548e+09  0.9638  0.06956  -0.01431  0.006293  -0.03777  -0.002502  0.6372  -0.3226
6.549e+09  0.8815  -0.3507  -0.02529  0.01301  -0.01332  -0.05001  0.4877  -0.5171
6.55e+09  0.7598  -0.5853  -0.02808  0.01326  0.03733  -0.0251  0.2846  -0.6698
