# Hz S RI R 50
6.25e+09  -0.3365  0.7454  -0.01161  0.01696  0.02888  0.03199  0.1621  0.4635
6.251e+09  -0.08003  0.8633  -0.01774  -0.0004553  -0.005976  -0.02851  0.3707  0.4102
6.252e+09  0.2357  0.8293  0.006527  0.01459  0.04268  0.03339  0.5372  0.2324
6.254e+09  0.5067  0.6923  0.003616  0.01605  0.0007848  -0.01234  0.6287  0.04063
6.255e+09  0.6657  0.5049  0.001002  0.03139  -0.01565  -0.04522  0.5882  -0.2489
6.256e+09  0.845  0.1748  -0.006229  0.03429  -0.02489  0.00884  0.4516  -0.4657
6.258e+09  0.8741  -0.01826  0.01552  0.004968  0.06512  0.02345  0.2587  -0.5997
6.259e+09  0.7455  -0.3734  -0.015  0.01857  0.02089  0.04113  0.04502  -0.6914
6.26e+09  0.5702  -0.6242  0.01484  0.0174  -0.003707  -0.02518  -0.1946  -0.628
6.261e+09  0.3604  -0.7455  -0.01685  0.006603  0.000194  0.0666  -0.4529  -0.5737
6.262e+09  0.05329  -0.8206  0.02332  -0.01184  0.01841  -0.006403  -0.6208  -0.3507
6.264e+09  -0.2401  -0.8553  -0.003582  0.01079  0.03168  -0.03155  -0.732  -0.1033
6.265e+09  -0.5263  -0.674  0.04797  0.007397  0.02846  -0.01104  -0.6889  0.1559
6.266e+09  -0.7138  -0.4413  0.03093  0.01357  -0.01412  -0.01484  -0.6034  0.3586
6.268e+09  -0.8031  -0.1606  -0.002224  -0.0104  0.03441  -0.03532  -0.4407  0.5999
6.269e+09  -0.8058  0.09741  -0.001211  0.01536  -0.04684  -0.02654  -0.2002  0.6913
6.27e+09  -0.7406  0.3472  -0.02012  -0.001855  -1.227e-06  0.002774  0.05364  0.7372
6.271e+09  -0.5601  0.5752  -0.00313  0.04436  -0.05225  -0.01944  0.3226  0.676
6.272e+09  -0.3338  0.7887  0.02246  -0.004979  0.01067  0.03382  0.5594  0.5179
6.274e+09  -0.02753  0.8859  -0.0003554  0.0124  -0.03598  -0.0223  0.6704  0.3239
6.275e+09  0.3095  0.8273  -0.001945  0.002941  0.02641  0.02843  0.7554  0.05414
6.276e+09  0.4963  0.7116  -0.04672  0.01469  -0.04537  0.001036  0.7105  -0.2304
6.278e+09  0.7586  0.4292  0.004377  0.003095  -0.04938  -0.0003655  0.6057  -0.4534
6.279e+09  0.8488  0.1613  -0.02944  0.01897  -0.009609  0.005011  0.4237  -0.6611
6.28e+09  0.8565  -0.1254  -0.02909  -0.01459  -0.003693  0.01347  0.1857  -0.7585
6.281e+09  0.7845  -0.3414  -0.005915  0.002822  0.05014  -0.003609  -0.09398  -0.7665
6.282e+09  0.5712  -0.6121  -0.01311  -0.01184  -0.01304  -0.001033  -0.3499  -0.689
6.284e+09  0.3209  -0.769  -0.0009326  -0.006236  -0.06053  -0.0008725  -0.6072  -0.5483
6.285e+09  0.02589  -0.7793  -0.00394  -0.008657  0.02447  -0.01608  -0.7352  -0.3002
6.286e+09  -0.2764  -0.8069  0.005454  0.009714  -0.009117  0.04696  -0.8146  -0.01626
6.288e+09  -0.5391  -0.6559  0.002067  0.02276  -0.004261  0.07429  -0.771  0.2711
6.289e+09  -0.7177  -0.3869  0.01535  -0.01686  -0.03377  -0.002972  -0.6013  0.5049
6.29e+09  -0.8381  -0.1264  0.01779  0.02042  -0.02157  -0.009083  -0.4162  0.6915
6.291e+09  -0.837  0.1463  -0.01808  -0.01204  0.06741  -0.01437  -0.1835  0.77
6.292e+09  -0.7672  0.4624  -0.009968  0.004118  0.03619  -0.04751  0.1474  0.794
6.294e+09  -0.5131  0.6595  -0.005489  0.002534  -0.02789  0.03013  0.4091  0.7244
6.295e+09  -0.2806  0.8051  -0.007798  0.02796  0.01594  -0.04376  0.64  0.5363
6.296e+09  -0.00824  0.896  0.005507  0.02884  -0.03269  -0.02419  0.7527  0.294
6.298e+09  0.236  0.768  -0.02595  -0.0192  -0.01358  0.01709  0.8254  0.002187
6.299e+09  0.5629  0.6183  0.001694  0.001103  0.07465  0.01671  0.7791  -0.262
6.3e+09  0.7638  0.396  -0.007388  -0.004104  -0.000936  0.05427  0.6552  -0.5245
6.301e+09  0.831  0.1548  0.001347  -0.01368  -0.01381  5.591e-05  0.3877  -0.729
6.302e+09  0.8041  -0.1425  0.01239  0.01856  -0.008599  0.003046  0.1719  -0.8124
6.304e+09  0.7077  -0.3948  -0.0102  -0.0002393  0.0002912  0.008182  -0.142  -0.829
6.305e+09  0.477  -0.6399  -0.02801  -0.01658  -0.03279  0.0261  -0.4147  -0.7298
6.306e+09  0.2597  -0.786  0.0147  -0.01041  -0.005386  0.01086  -0.628  -0.5626
6.308e+09  -0.1035  -0.8435  -0.001082  0.02207  -0.003862  0.02665  -0.818  -0.2985
6.309e+09  -0.3787  -0.7186  0.01753  0.008402  -0.01618  0.001195  -0.8615  -4.131e-05
6.31e+09  -0.5556  -0.6436  -0.02002  0.0316  -0.03804  -0.03303  -0.8162  0.2792
6.311e+09  -0.767  -0.3628  0.004354  0.01423  -0.004912  0.001612  -0.672  0.5292
6.312e+09  -0.8429  -0.1374  -0.02048  -0.03259  0.002867  -0.02479  -0.4402  0.7703
6.314e+09  -0.7818  0.2057  0.008891  -0.02309  -0.0002728  0.01047  -0.1765  0.8631
6.315e+09  -0.6669  0.4706  0.03373  -0.01858  0.01788  0.003031  0.1152  0.8602
6.316e+09  -0.5069  0.7073  0.03159  -0.007845  -0.01314  -0.02786  0.4359  0.7707
6.318e+09  -0.218  0.8679  -0.0122  -0.008096  -0.01932  0.03602  0.6427  0.5704
6.319e+09  0.05555  0.804  -0.01796  -0.01811  -0.004668  0.02848  0.8178  0.3262
6.32e+09  0.3915  0.7436  -0.005897  0.02586  0.02354  -0.0277  0.898  0.04537
6.321e+09  0.5976  0.6444  -0.01822  0.006728  0.007339  0.01018  0.8129  -0.3297
6.322e+09  0.8071  0.3142  -0.003711  0.007956  -0.0344  -0.04898  0.6806  -0.5518
6.324e+09  0.8347  0.03854  -0.01111  0.0223  -0.03553  0.08078  0.4938  -0.7697
6.325e+09  0.782  -0.2444  -0.0004805  0.005818  0.02542  0.008576  0.1803  -0.8816
6.326e+09  0.6755  -0.4811  -0.01343  -0.007341  0.01581  0.04745  -0.1163  -0.9104
6.328e+09  0.5343  -0.699  0.01025  0.007804  0.02873  -0.01827  -0.4319  -0.7477
6.329e+09  0.1803  -0.8566  0.007005  -0.04297  0.008033  0.01019  -0.7031  -0.607
6.33e+09  -0.06158  -0.8603  0.005109  -0.0132  -0.02853  0.004166  -0.8228  -0.3311
6.331e+09  -0.3726  -0.7771  0.0121  -0.001043  0.01521  0.04054  -0.9059  -0.02372
6.332e+09  -0.6251  -0.5882  -0.01762  -0.01955  -0.01034  0.05118  -0.8704  0.2761
6.334e+09  -0.7972  -0.3066  0.02396  -0.004947  0.02952  0.02063  -0.6834  0.5884
6.335e+09  -0.8661  0.01103  0.005617  -0.009029  -0.007459  -0.0008412  -0.4826  0.7523
6.336e+09  -0.837  0.3143  0.01077  -0.01112  0.03903  0.006056  -0.2233  0.8987
6.338e+09  -0.6604  0.5563  -0.00901  0.003156  0.03313  0.01069  0.1184  0.9002
6.339e+09  -0.4232  0.7471  -0.009212  0.02807  0.004573  0.02904  0.4307  0.851
6.34e+09  -0.1273  0.914  -0.01625  -0.007456  0.03739  -0.05628  0.6647  0.6387
6.341e+09  0.1731  0.8098  0.003411  0.002009  0.03017  0.02953  0.8498  0.3662
6.342e+09  0.4517  0.7378  -0.0003453  0.002009  0.004682  0.007047  0.9471  0.0191
6.344e+09  0.6871  0.5052  -0.01629  -0.01124  -0.003437  0.04823  0.8942  -0.2942
6.345e+09  0.839  0.2254  0.008734  0.00521  0.0004025  -0.01462  0.7391  -0.5704
6.346e+09  0.9135  -0.027  0.003283  -0.01071  -0.003216  0.02757  0.5165  -0.7873
6.348e+09  0.8025  -0.3417  -0.001739  0.01163  0.02382  -0.007513  0.1836  -0.8834
6.349e+09  0.6198  -0.6497  0.01161  0.01567  0.01059  0.01594  -0.1242  -0.9207
6.35e+09  0.3701  -0.786  0.003939  -0.01291  -0.01477  0.06281  -0.4153  -0.8475
6.351e+09  0.1017  -0.8938  0.02651  0.006643  0.002951  0.05369  -0.6802  -0.6956
6.352e+09  -0.2159  -0.8995  -0.01539  -0.02272  0.06404  0.007823  -0.8468  -0.3733
6.354e+09  -0.5186  -0.7255  0.02993  0.0268  0.02638  0.03027  -0.9385  -0.04701
6.355e+09  -0.6405  -0.5041  -0.001194  -0.02478  0.001753  0.0189  -0.9219  0.2862
6.356e+09  -0.8784  -0.2218  0.0008193  -0.02916  -0.03089  -0.02885  -0.7736  0.5306
6.358e+09  -0.8834  0.1266  -0.01283  0.03163  -0.01058  -0.02501  -0.5068  0.7632
6.359e+09  -0.8162  0.3929  0.0172  0.00286  -0.009507  -0.03436  -0.22  0.9345
6.36e+09  -0.5716  0.6502  -0.0107  0.002025  -0.01233  -0.02637  0.1204  0.9304
6.361e+09  -0.3687  0.8063  -0.01487  -0.05513  -0.005815  0.01202  0.4629  0.8303
6.362e+09  0.009296  0.8735  0.0198  0.004046  -0.03122  -0.02432  0.6636  0.6481
6.364e+09  0.2929  0.7936  0.02414  0.01354  0.03385  -0.00247  0.8753  0.4317
6.365e+09  0.5605  0.7096  0.02131  0.01835  -0.02533  -0.02081  0.9512  0.08396
6.366e+09  0.7356  0.4781  -0.03258  0.02926  -0.01119  0.009827  0.9567  -0.2232
6.368e+09  0.8468  0.1973  -0.01633  0.03053  0.007233  -0.004988  0.7516  -0.5363
6.369e+09  0.8742  -0.1484  0.01636  -0.005531  -0.02443  0.02113  0.5298  -0.7844
6.37e+09  0.7459  -0.4564  0.01367  -0.01741  0.02422  0.004783  0.2582  -0.8924
6.371e+09  0.5874  -0.6717  -0.01013  0.01152  0.002237  -0.01369  -0.1027  -0.9959
6.372e+09  0.2977  -0.8358  0.001801  -0.03119  -0.04  0.0205  -0.36  -0.8712
6.374e+09  -0.02651  -0.8777  0.01554  -0.004362  -0.02774  -0.03012  -0.6391  -0.682
6.375e+09  -0.3797  -0.8507  0.01003  -0.007695  0.02801  -0.03382  -0.8701  -0.4317
6.376e+09  -0.5909  -0.6543  -0.007723  0.02838  0.004151  -0.02102  -0.927  -0.1011
6.378e+09  -0.7586  -0.4199  -0.009912  -0.009378  -0.0386  -0.02659  -0.8939  0.2551
6.379e+09  -0.8885  -0.1366  -0.01726  0.03659  -0.004868  0.06145  -0.7961  0.5283
6.38e+09  -0.8316  0.2135  -0.01049  -0.02534  -0.01099  -0.001704  -0.5866  0.7421
6.381e+09  -0.7284  0.4687  0.03002  -0.006189  0.01302  -0.007541  -0.2795  0.9
6.382e+09  -0.5282  0.7591  0.03656  -0.007081  0.03332  -0.04627  0.0608  0.9269
6.384e+09  -0.2306  0.8714  -0.0335  0.01074  -0.01169  -0.007223  0.4101  0.8253
6.385e+09  0.09107  0.9299  0.0008628  -0.008806  0.04654  -0.001641  0.6347  0.6832
6.386e+09  0.3769  0.7579  0.01183  0.01467  0.001511  0.01208  0.8657  0.4328
6.388e+09  0.614  0.6572  0.02646  -0.02132  0.04977  -0.001771  0.9345  0.09808
6.389e+09  0.8274  0.4  -0.02579  0.01367  0.04146  0.0003527  0.9625  -0.2182
6.39e+09  0.9001  0.1238  -0.006388  0.01991  0.025  -0.01379  0.7926  -0.548
6.391e+09  0.8674  -0.2545  0.007103  -0.02636  0.008913  0.03186  0.547  -0.7275
6.392e+09  0.7012  -0.489  -0.0006492  0.03464  0.02039  0.0533  0.284  -0.897
6.394e+09  0.485  -0.7644  -0.01412  -0.01551  0.005054  0.02183  -0.04881  -0.9444
6.395e+09  0.2818  -0.854  0.01644  0.06203  0.00199  0.02541  -0.351  -0.8771
6.396e+09  -0.08945  -0.8764  -0.04736  0.03819  0.04984  0.05129  -0.6296  -0.6558
6.398e+09  -0.3723  -0.8106  0.01591  -0.0004849  -0.02218  0.008227  -0.8391  -0.4339
6.399e+09  -0.7037  -0.6437  0.01983  -0.01177  -0.005083  -0.01604  -0.9051  -0.1401
6.4e+09  -0.8173  -0.392  -0.05819  0.03832  0.04428  -0.04251  -0.9058  0.1744
6.401e+09  -0.8879  -0.08745  -0.02074  -0.007984  -0.006369  -0.00847  -0.832  0.4576
6.402e+09  -0.8033  0.2492  -0.02836  0.02461  -0.02502  0.01492  -0.5895  0.7047
6.404e+09  -0.727  0.5372  -0.008231  -0.01088  -0.00615  -0.02325  -0.2727  0.8674
6.405e+09  -0.4554  0.7108  -0.001437  0.004595  -0.009181  -0.01744  -0.03318  0.9574
6.406e+09  -0.1958  0.8475  0.03384  -0.05764  -0.006423  -0.009265  0.3334  0.8139
6.408e+09  0.08782  0.8936  -0.01329  -0.05383  0.005236  0.009273  0.5626  0.6861
6.409e+09  0.3771  0.8182  0.01614  -0.002242  -0.03296  0.058  0.8133  0.4766
6.41e+09  0.6406  0.564  -0.004555  -0.05225  -0.03045  0.0004951  0.8807  0.1313
6.411e+09  0.7998  0.3386  -0.02653  0.02721  -0.01202  0.009269  0.8981  -0.1279
6.412e+09  0.8232  0.02946  -0.00656  -0.0009738  0.01133  0.0167  0.79  -0.4534
6.414e+09  0.8515  -0.2696  0.03185  -0.03663  -0.03122  -0.0197  0.6295  -0.6661
6.415e+09  0.6976  -0.548  0.01627  0.02689  0.004458  -0.02642  0.3262  -0.8277
6.416e+09  0.4954  -0.7594  -0.02367  0.0175  -0.00371  0.02903  0.03343  -0.9
6.418e+09  0.1457  -0.8337  -0.045  0.04334  0.002935  -0.004468  -0.2676  -0.848
6.419e+09  -0.1067  -0.871  -0.03887  0.03275  -0.007236  -0.003074  -0.5442  -0.7265
6.42e+09  -0.353  -0.7539  -0.01693  0.02524  -0.01451  -0.01778  -0.7452  -0.4715
6.421e+09  -0.6612  -0.5744  -0.012  -0.00957  0.007111  -0.004662  -0.8661  -0.1854
6.422e+09  -0.7662  -0.2868  -0.006309  0.000175  -0.0215  -0.01424  -0.8573  0.1011
6.424e+09  -0.9075  -0.029  0.01357  0.003689  0.005219  -0.01498  -0.7667  0.3601
6.425e+09  -0.8347  0.2594  0.00959  0.01129  -0.004573  -0.004705  -0.6068  0.6296
6.426e+09  -0.6931  0.5617  -0.008387  -0.04253  -0.004117  -0.01862  -0.3345  0.8016
6.428e+09  -0.4438  0.7092  0.02529  0.008759  0.003456  0.02414  -0.03921  0.8678
6.429e+09  -0.1422  0.8613  0.0449  -0.03082  0.0415  -0.01966  0.2686  0.8584
6.43e+09  0.1409  0.905  0.02113  0.008644  -0.03228  0.005179  0.5441  0.7196
6.431e+09  0.4469  0.7987  0.004394  -0.0006265  -0.003156  0.06057  0.7324  0.4714
6.432e+09  0.6983  0.5956  -0.01493  0.01583  0.01039  -0.01078  0.8642  0.2328
6.434e+09  0.8443  0.2551  -0.03722  0.009615  0.008265  -0.034  0.8484  -0.1282
6.435e+09  0.8845  0.0107  -0.007522  0.01407  0.001348  -0.005519  0.7946  -0.333
6.436e+09  0.8343  -0.3004  0.01486  -0.008077  -0.02081  0.02307  0.5931  -0.5879
6.438e+09  0.6535  -0.5609  0.001826  0.0413  -0.08164  -0.01152  0.3711  -0.8025
6.439e+09  0.4437  -0.7269  5.17e-05  -0.005271  -0.01853  0.0563  0.06967  -0.8563
6.44e+09  0.1762  -0.873  0.01261  0.01086  0.01676  0.01965  -0.173  -0.834
6.441e+09  -0.175  -0.8441  -0.0001128  -0.005321  -0.03287  -0.01525  -0.4987  -0.7168
6.442e+09  -0.4911  -0.6937  0.01748  -0.0162  0.01085  -0.02165  -0.7342  -0.461
6.444e+09  -0.7372  -0.5528  -0.01238  0.007615  -0.01141  0.01289  -0.8429  -0.1997
6.445e+09  -0.8431  -0.2816  0.01732  0.0221  0.003031  0.04257  -0.874  0.08714
6.446e+09  -0.8794  0.007814  0.02675  -0.01624  0.03813  0.004103  -0.7177  0.3388
6.448e+09  -0.8049  0.3617  0.001557  -0.008265  0.0111  0.0305  -0.587  0.5881
6.449e+09  -0.7135  0.5808  0.01471  0.03104  0.0319  -0.02397  -0.3629  0.7722
6.45e+09  -0.4518  0.7464  0.02264  -0.01346  0.005282  -0.01003  -0.07528  0.8399
6.451e+09  -0.1311  0.8924  -0.03107  0.01501  -0.04722  -0.06652  0.2434  0.8051
6.452e+09  0.118  0.8589  -0.002449  -0.003272  -0.06886  0.0142  0.4773  0.665
6.454e+09  0.4851  0.77  -0.02264  -0.0221  -0.04517  0.04648  0.6639  0.4684
6.455e+09  0.7319  0.5098  0.008207  0.02676  -0.04668  0.002616  0.8117  0.2155
6.456e+09  0.853  0.2871  0.005517  0.02268  0.002939  -0.05619  0.8614  -0.06981
6.458e+09  0.8843  -0.000147  -0.02334  0.03722  0.01282  0.04724  0.7358  -0.4681
6.459e+09  0.837  -0.318  -0.03329  -0.05811  0.003866  -0.03868  0.59  -0.5737
6.46e+09  0.6185  -0.5916  -0.01521  -0.002096  -0.0134  0.0006628  0.3428  -0.7448
6.461e+09  0.4168  -0.7626  0.01947  -2.751e-05  -0.01973  0.0009708  0.03403  -0.8369
6.462e+09  0.09267  -0.9048  -0.01451  0.006248  0.001245  0.05041  -0.2096  -0.7602
6.464e+09  -0.2043  -0.8321  0.02809  -0.02521  -0.01079  -0.0008681  -0.4779  -0.6853
6.465e+09  -0.5288  -0.7323  0.02271  0.002884  -0.01286  0.000489  -0.6851  -0.4525
6.466e+09  -0.6903  -0.5782  0.008042  -0.01687  0.03145  -0.04536  -0.7665  -0.1725
6.468e+09  -0.8544  -0.2914  -0.01621  -0.002944  0.02058  0.03257  -0.8329  0.07378
6.469e+09  -0.8676  0.04066  -0.008122  -0.0209  -0.05443  0.04766  -0.761  0.3524
6.47e+09  -0.8502  0.3199  -0.01048  0.001819  -0.003196  -0.02842  -0.5915  0.5852
6.471e+09  -0.6367  0.5945  0.01919  0.0006296  0.0005378  0.02948  -0.3077  0.7452
6.472e+09  -0.4307  0.7571  -0.01898  -0.01637  -0.006225  -0.04646  -0.06773  0.7693
6.474e+09  -0.1172  0.8813  -0.01076  0.0318  0.04024  0.03744  0.2501  0.7917
6.475e+09  0.2208  0.8784  -0.00388  -0.01984  0.03732  -0.02326  0.4534  0.636
6.476e+09  0.5189  0.7434  0.04344  0.02553  -0.01836  0.005688  0.6514  0.4236
6.478e+09  0.7171  0.5502  -0.04522  0.008904  0.006298  -0.01398  0.7536  0.2062
6.479e+09  0.8562  0.2489  -0.006076  -0.02413  -0.05527  0.00186  0.8352  -0.05006
6.48e+09  0.9219  -0.02644  -0.03401  0.03391  -0.04025  0.02408  0.6993  -0.3794
6.481e+09  0.8231  -0.3752  -0.0255  0.02884  -0.0321  -0.03097  0.5456  -0.5493
6.482e+09  0.6511  -0.624  0.004277  -0.006471  -0.04123  -0.01978  0.3335  -0.7048
6.484e+09  0.4046  -0.8119  0.03923  0.006148  0.03882  0.006386  0.0593  -0.6895
6.485e+09  0.07589  -0.9697  0.008809  -0.01536  0.04515  0.001925  -0.1704  -0.7701
6.486e+09  -0.2121  -0.9109  0.04806  -0.03093  0.02686  0.01575  -0.4083  -0.627
6.488e+09  -0.4884  -0.7824  0.003422  -0.02282  -0.001939  -0.01748  -0.6491  -0.4296
6.489e+09  -0.7327  -0.5278  0.03732  0.01033  -0.03333  -0.01477  -0.7795  -0.2185
6.49e+09  -0.842  -0.2373  -0.01713  0.01643  0.004211  -0.02144  -0.8009  0.08386
6.491e+09  -0.9773  0.1013  0.03479  -0.04409  0.000313  -0.004458  -0.6916  0.3539
6.492e+09  -0.8852  0.4429  -0.01735  -0.01545  0.05969  0.04618  -0.5157  0.5269
6.494e+09  -0.6772  0.6706  -0.06343  -0.02374  -0.001909  0.01223  -0.3202  0.7462
6.495e+09  -0.4036  0.8423  -0.02239  0.002428  -0.04146  -0.01156  0.00124  0.7699
6.496e+09  -0.06235  0.8789  -0.003731  0.00855  0.006378  -0.01013  0.2353  0.7416
6.498e+09  0.2536  0.8624  -0.02305  -0.004685  -0.009937  -0.02487  0.4764  0.6057
6.499e+09  0.5909  0.7518  0.03641  -0.01608  0.01576  -0.03798  0.6187  0.4067
6.5e+09  0.7507  0.534  0.0128  -0.004213  -0.01947  0.03028  0.7662  0.1836
6.501e+09  0.9185  0.2137  0.01906  -0.02561  -0.0187  0.01735  0.7855  -0.1309
6.502e+09  0.9563  -0.1278  0.004699  0.03914  -0.03774  -0.04804  0.6763  -0.3571
6.504e+09  0.8261  -0.4276  0.001922  0.02078  0.005484  0.04284  0.559  -0.5575
6.505e+09  0.6586  -0.6591  0.02937  0.03358  0.01196  -0.03605  0.288  -0.7288
6.506e+09  0.3972  -0.8367  -0.02032  -0.01078  0.00786  0.0583  0.01186  -0.8004
6.508e+09  0.04721  -0.9514  0.02292  0.00127  0.0134  -0.02462  -0.293  -0.7439
6.509e+09  -0.2634  -0.9544  0.002269  -0.01513  -0.03831  0.02631  -0.4901  -0.5902
6.51e+09  -0.5881  -0.7586  -0.002028  0.00716  -0.06093  0.01442  -0.6564  -0.3921
6.511e+09  -0.8327  -0.4589  -0.03872  -0.01594  0.01066  0.01123  -0.8081  -0.1349
6.512e+09  -0.9207  -0.2164  0.002092  -0.002719  -0.0006678  -0.01503  -0.7217  0.1104
6.514e+09  -0.9584  0.08427  -0.03827  -0.004025  -0.05385  -0.0385  -0.6267  0.4015
6.515e+09  -0.8545  0.5054  -0.0334  -0.02832  -0.03431  0.07129  -0.4587  0.5706
6.516e+09  -0.6192  0.7136  -0.01946  -0.01874  -0.007065  0.04726  -0.2652  0.7087
6.518e+09  -0.3821  0.9383  0.009952  -0.03968  -0.00439  0.004797  -0.01784  0.7067
6.519e+09  0.001504  0.994  0.03047  -0.0263  0.01601  0.02445  0.278  0.6876
6.52e+09  0.3219  0.904  -0.0291  -0.03922  -0.01373  0.008291  0.4789  0.5564
6.521e+09  0.6662  0.7913  -0.00679  -0.008237  -0.02069  -0.01021  0.6505  0.3011
6.522e+09  0.8597  0.473  0.01623  -0.01827  -0.02083  0.01473  0.7339  0.09129
6.524e+09  0.9721  0.1702  0.01556  -0.04412  0.02281  -0.004984  0.7192  -0.1541
6.525e+09  0.9083  -0.2081  0.02001  -0.05466  0.03136  -0.03271  0.6292  -0.4052
6.526e+09  0.7942  -0.5151  0.01194  -0.003423  0.04419  0.0293  0.4235  -0.5639
6.528e+09  0.6178  -0.7713  0.01084  0.01284  -0.001965  -0.01146  0.2127  -0.6933
6.529e+09  0.2566  -0.9218  0.006496  0.006718  0.04533  0.01719  -0.05985  -0.685
6.53e+09  -0.07929  -1.001  -0.01436  -0.001082  -0.05146  0.06366  -0.2927  -0.6491
6.531e+09  -0.3248  -0.91  0.02195  0.01146  -0.002988  -0.02117  -0.4834  -0.4731
6.532e+09  -0.7051  -0.6451  0.01047  -0.04106  0.006728  -0.03339  -0.5836  -0.2217
6.534e+09  -0.8629  -0.4597  -0.01983  0.02802  -0.05305  0.02484  -0.6511  -0.08313
6.535e+09  -0.9795  -0.05694  0.0347  0.02145  -0.03065  0.0386  -0.6315  0.1175
6.536e+09  -0.9938  0.2858  -0.002064  0.01171  -0.0004049  0.01171  -0.5524  0.3139
6.538e+09  -0.769  0.5265  -0.008666  -0.006108  -0.07184  0.06043  -0.4281  0.4523
6.539e+09  -0.5062  0.8266  -0.002217  -0.02146  -0.005098  -0.01016  -0.2741  0.6164
6.54e+09  -0.2216  0.9633  -0.01707  0.01729  -0.01929  0.01895  -0.03719  0.6778
6.541e+09  0.1489  0.9358  -0.02388  -0.04252  -0.008376  -0.00244  0.1761  0.6919
6.542e+09  0.4518  0.8702  -0.003696  -0.00792  -0.02318  -0.06216  0.428  0.5575
6.544e+09  0.7562  0.6367  0.0004266  -0.0175  0.04478  -0.03625  0.5961  0.4038
6.545e+09  0.9136  0.352  -0.01029  -0.014  0.01809  0.03368  0.7075  0.172
6.546e+09  0.9928  0.0257  0.00579  0.004624  0.03163  -0.03146  0.7194  -0.08924
6.548e+09  0.8781  -0.356  0.01757  -0.01616  0.01542  -0.04155  0.654  -0.3345
6.549e+09  0.7218  -0.6237  -0.029  0.008734  0.01938  0.02526  0.5045  -0.5385
6.55e+09  0.4692  -0.8472  0.001002  0.04241  -0.02096  0.004501  0.2571  -0.6933
