# Hz S RI R 50
6.25e+09  -0.3821  0.7399  -0.01007  -0.004401  -0.02662  0.01308  0.1677  0.4967
6.251e+09  -0.08739  0.8157  -0.04321  -0.003986  -0.02716  -0.0001976  0.3699  0.4131
6.252e+09  0.1717  0.8104  0.03712  0.01328  -0.01867  0.002979  0.5193  0.2711
6.254e+09  0.3996  0.7302  -0.02879  -0.02315  0.0534  -0.006343  0.5901  0.0386
6.255e+09  0.6181  0.5386  -0.004422  0.0211  0.01688  0.01718  0.6337  -0.2658
6.256e+09  0.8022  0.2216  -0.007792  -0.02844  -0.03139  0.02845  0.4715  -0.4678
6.258e+09  0.856  -0.009545  0.005264  0.001522  -0.02207  0.0007025  0.2879  -0.5916
6.259e+09  0.7937  -0.3235  -0.006414  -0.003801  0.03307  0.01464  0.04676  -0.6992
6.26e+09  0.6671  -0.5787  0.005354  0.04058  0.001591  0.0309  -0.2106  -0.6329
6.261e+09  0.3778  -0.6996  -0.03777  0.005213  -0.06587  -0.003867  -0.4388  -0.5284
6.262e+09  0.08237  -0.8227  0.01368  -0.02501  -0.003024  0.04379  -0.6069  -0.3473
6.264e+09  -0.1124  -0.8025  0.007552  0.0132  0.0006959  -0.01898  -0.7074  -0.1113
6.265e+09  -0.464  -0.7234  -0.008325  -0.01533  0.01932  0.04046  -0.6909  0.1327
6.266e+09  -0.6424  -0.4924  -0.001449  -0.01158  -0.01238  -0.001614  -0.5916  0.3963
6.268e+09  -0.8564  -0.2434  0.02132  0.02241  0.004071  0.006621  -0.4181  0.5946
6.269e+09  -0.8723  0.04069  -0.007599  -0.0366  -0.006546  -0.03085  -0.1777  0.7035
6.27e+09  -0.8035  0.3223  -0.01105  0.01381  -0.04814  0.01705  0.06226  0.7291
6.271e+09  -0.6534  0.5566  -0.01206  -0.02018  0.0356  0.01654  0.3222  0.6663
6.272e+09  -0.4129  0.6902  -0.006633  0.02745  0.03211  -0.04066  0.5578  0.5124
6.274e+09  -0.02695  0.8427  0.01198  -0.01996  -0.08458  -0.03073  0.7016  0.3097
6.275e+09  0.2255  0.8644  -0.008139  -0.01433  -0.01369  -0.01882  0.7576  0.05443
6.276e+09  0.4218  0.7176  -0.04039  -0.0005889  0.01197  -0.01541  0.7216  -0.2313
6.278e+09  0.6779  0.4544  -0.02866  0.01228  -0.01019  0.0209  0.623  -0.4658
6.279e+09  0.7618  0.2557  0.002995  0.01094  0.007709  0.04621  0.417  -0.6463
6.28e+09  0.7961  -0.07313  -0.01847  0.01597  0.04933  -0.0267  0.1507  -0.7535
6.281e+09  0.767  -0.3303  -0.01223  -0.002714  0.01008  0.01766  -0.1362  -0.7685
6.282e+09  0.5915  -0.6246  0.006922  -0.02598  0.01433  0.03367  -0.3802  -0.7217
6.284e+09  0.2879  -0.7439  0.03327  0.0129  -0.02756  -0.02313  -0.5601  -0.5508
6.285e+09  0.05133  -0.8468  0.007936  -0.006959  0.05127  -0.03649  -0.7134  -0.2899
6.286e+09  -0.2156  -0.776  0.0111  0.0005172  0.03077  0.01496  -0.8025  -0.03975
6.288e+09  -0.4857  -0.6914  0.001804  0.02146  -0.02052  -0.03884  -0.7436  0.2449
6.289e+09  -0.712  -0.4752  0.01353  -0.009952  0.008372  0.001428  -0.6085  0.4911
6.29e+09  -0.7497  -0.2096  -0.008194  -0.01715  0.04021  0.0002456  -0.412  0.7038
6.291e+09  -0.8277  0.04652  -0.001347  -0.01954  -0.007356  -0.01252  -0.1734  0.7857
6.292e+09  -0.7701  0.3694  0.009551  -0.01515  0.02756  0.005123  0.1481  0.7358
6.294e+09  -0.5919  0.5862  -0.01501  0.01828  0.02352  -0.02458  0.3943  0.7191
6.295e+09  -0.3654  0.7017  -0.02504  -0.02014  -0.03409  -0.008239  0.6264  0.5515
6.296e+09  -0.06975  0.7936  0.01395  0.03151  -0.005896  -0.00574  0.7757  0.2833
6.298e+09  0.2413  0.8416  -0.0005359  0.0002946  0.01223  0.009546  0.8348  0.0006178
6.299e+09  0.5171  0.6926  -0.007231  -0.01558  0.02416  0.001705  0.7834  -0.2897
6.3e+09  0.7196  0.4307  0.01163  0.01698  -0.05118  -0.01236  0.6636  -0.4979
6.301e+09  0.8007  0.209  -0.01926  0.001802  0.02877  0.003403  0.4268  -0.7519
6.302e+09  0.7999  -0.1005  -0.01501  -0.002687  0.02556  -0.0245  0.1686  -0.8404
6.304e+09  0.7041  -0.3872  -0.007509  -0.02856  0.04323  0.02512  -0.1434  -0.8249
6.305e+09  0.5749  -0.5803  0.0009268  -0.005328  -0.02929  -0.03429  -0.408  -0.744
6.306e+09  0.35  -0.7762  0.01639  0.001173  0.0001941  -0.02387  -0.6462  -0.5495
6.308e+09  0.04557  -0.8569  0.005873  -0.0006668  -0.02008  -0.001124  -0.8106  -0.3212
6.309e+09  -0.3043  -0.7884  0.01176  0.02026  0.03558  0.05166  -0.8403  -0.01954
6.31e+09  -0.5059  -0.6775  -0.0217  -0.005694  -0.01623  -0.001729  -0.8064  0.3078
6.311e+09  -0.6559  -0.4128  -0.02137  0.02762  0.05078  -0.04561  -0.6699  0.5565
6.312e+09  -0.8382  -0.1545  -0.005771  0.02431  -0.02724  0.02246  -0.4421  0.7506
6.314e+09  -0.8688  0.1406  -0.003651  -0.001923  -0.01604  0.01802  -0.1572  0.8795
6.315e+09  -0.6813  0.4262  0.02538  0.004326  -0.003986  -0.02009  0.1478  0.8626
6.316e+09  -0.5018  0.6042  -0.01011  0.03686  -0.04269  -0.03582  0.4453  0.7435
6.318e+09  -0.2835  0.7949  0.02303  -0.005057  0.002581  0.05018  0.6809  0.5907
6.319e+09  -0.001084  0.8776  0.01122  0.003788  -0.01175  0.01079  0.8235  0.296
6.32e+09  0.3264  0.8569  0.002111  -0.007976  -0.02611  0.004377  0.8555  0.05948
6.321e+09  0.5681  0.6712  0.002484  0.006443  0.01522  -0.03606  0.8209  -0.2959
6.322e+09  0.748  0.4101  0.001396  0.007157  0.01103  -0.1036  0.6659  -0.5475
6.324e+09  0.8817  0.1751  -0.01065  0.0002668  -0.02595  -0.02511  0.4566  -0.783
6.325e+09  0.8736  -0.1997  0.01109  0.01565  0.04006  0.01909  0.1478  -0.8487
6.326e+09  0.7195  -0.4451  -0.01329  0.007203  0.03644  -0.01706  -0.1274  -0.8627
6.328e+09  0.5147  -0.6763  0.007244  0.0149  -0.007558  0.01215  -0.4201  -0.8427
6.329e+09  0.2475  -0.8275  -0.01023  0.01262  -0.01107  -0.0216  -0.6573  -0.6045
6.33e+09  -0.03723  -0.8283  0.01755  0.01253  -0.01897  -2.953e-05  -0.8695  -0.3064
6.331e+09  -0.3289  -0.8334  -0.0006418  -0.006122  -0.001267  -0.01072  -0.8994  -0.03929
6.332e+09  -0.6172  -0.6613  -0.01978  0.01112  0.05047  0.04191  -0.846  0.2893
6.334e+09  -0.7839  -0.367  -0.02186  0.01869  0.01301  -0.01262  -0.7124  0.5913
6.335e+09  -0.826  -0.05563  0.0281  0.0066  0.04627  0.004468  -0.5026  0.7661
6.336e+09  -0.8298  0.2952  -0.01975  -0.01219  0.05945  -0.0124  -0.1852  0.8853
6.338e+09  -0.7049  0.5191  0.01718  -0.01582  0.01405  -0.0223  0.1337  0.9593
6.339e+09  -0.4525  0.7227  -0.01785  0.01214  0.04099  -0.006291  0.4397  0.8136
6.34e+09  -0.179  0.8226  0.003271  0.0217  -0.03364  0.01411  0.6781  0.6108
6.341e+09  0.1366  0.8587  0.00462  0.0276  0.009122  0.03969  0.8617  0.3282
6.342e+09  0.4217  0.7885  -0.01569  0.01472  -0.03393  0.007362  0.9143  0.04912
6.344e+09  0.6628  0.5793  0.007766  -0.001514  -0.01478  0.04734  0.9107  -0.2675
6.345e+09  0.7642  0.3356  0.01645  -0.01592  0.02414  -0.009771  0.7437  -0.5751
6.346e+09  0.9123  0.01023  -0.03037  -0.01011  -0.006487  -0.0296  0.5154  -0.7675
6.348e+09  0.8283  -0.2962  0.02587  0.02505  -0.05629  -0.0209  0.2396  -0.9288
6.349e+09  0.6749  -0.5515  0.005192  0.007552  -0.00431  0.007889  -0.13  -0.9513
6.35e+09  0.4737  -0.7399  -0.0006523  -0.02893  -0.04209  0.03901  -0.4351  -0.7787
6.351e+09  0.168  -0.8785  0.0275  -0.04615  0.03835  0.01062  -0.667  -0.6776
6.352e+09  -0.1823  -0.8743  -0.02544  0.02609  0.01047  0.01718  -0.8243  -0.4115
6.354e+09  -0.4786  -0.7822  0.01788  0.04063  -0.002366  -0.02216  -0.9533  -0.04588
6.355e+09  -0.7072  -0.5219  -0.01118  -0.009666  0.002786  -0.01158  -0.9477  0.2495
6.356e+09  -0.8031  -0.3055  0.002607  -0.03156  -0.01754  -0.006132  -0.7704  0.5637
6.358e+09  -0.8673  0.02052  0.01328  -0.02088  -0.01797  -0.02319  -0.5414  0.795
6.359e+09  -0.7634  0.3875  -0.002149  0.02417  -0.006687  0.0394  -0.2244  0.9268
6.36e+09  -0.6702  0.6693  -0.006009  0.01955  -0.03215  -0.025  0.1374  0.9679
6.361e+09  -0.3573  0.8338  -0.005739  -0.02609  0.04474  -0.0285  0.4319  0.8634
6.362e+09  -0.1218  0.9002  -0.001255  0.01118  -0.01851  0.01388  0.6906  0.6953
6.364e+09  0.2232  0.8353  0.0384  0.01361  0.03626  0.01795  0.8702  0.3889
6.365e+09  0.5029  0.7515  0.03308  -0.007798  0.01704  0.007264  0.9909  0.09993
6.366e+09  0.7476  0.5253  -0.005708  -0.01333  0.03357  0.01302  0.9249  -0.2576
6.368e+09  0.9185  0.2273  -0.01307  -0.02092  0.05878  0.0332  0.7662  -0.5569
6.369e+09  0.866  -0.1265  0.003745  0.01834  -0.02765  0.005749  0.5487  -0.7702
6.37e+09  0.8131  -0.3639  0.001523  -0.002531  0.01668  -0.01231  0.2285  -0.9159
6.371e+09  0.6224  -0.6345  0.05369  -0.03122  -0.00185  0.009711  -0.0331  -0.9265
6.372e+09  0.3473  -0.8132  0.01253  0.0002772  -0.02715  -0.03396  -0.3929  -0.827
6.374e+09  0.07505  -0.8458  -0.02706  0.004575  0.03036  -0.0409  -0.679  -0.7139
6.375e+09  -0.2624  -0.9026  -0.03802  0.02866  -0.003073  0.006042  -0.7969  -0.3732
6.376e+09  -0.5567  -0.7212  -0.01461  -0.04011  0.0008069  -0.02806  -0.9312  -0.07283
6.378e+09  -0.7067  -0.5245  0.01435  0.003004  -0.01309  -0.03397  -0.9231  0.2909
6.379e+09  -0.8757  -0.1865  0.02608  0.0001334  -0.04778  -0.003984  -0.7818  0.5116
6.38e+09  -0.9244  0.1467  -0.02777  0.02388  0.002175  -0.02426  -0.5563  0.8243
6.381e+09  -0.7792  0.4393  0.02006  -0.01022  -0.001119  0.06185  -0.2698  0.8818
6.382e+09  -0.5726  0.7313  0.01272  -0.03101  0.01286  0.04429  0.04405  0.9219
6.384e+09  -0.3278  0.8259  0.01724  0.01576  0.05013  0.003523  0.3928  0.885
6.385e+09  0.004842  0.8602  0.0002665  0.004093  -0.04824  -0.005631  0.6328  0.654
6.386e+09  0.3149  0.8536  -0.002989  0.04393  -0.01294  0.03241  0.8401  0.4351
6.388e+09  0.5542  0.6808  -0.00382  -0.01996  0.003216  -0.001207  0.863  0.1132
6.389e+09  0.727  0.4516  0.03976  -0.03702  0.0002788  -0.0134  0.9265  -0.243
6.39e+09  0.8998  0.1575  0.01404  -0.004968  0.01442  0.002329  0.7672  -0.4716
6.391e+09  0.8693  -0.1117  0.02483  -0.003791  -0.01155  -0.03368  0.5723  -0.7558
6.392e+09  0.7391  -0.4884  -0.01173  -0.00543  -0.009812  -0.04793  0.2954  -0.9004
6.394e+09  0.5633  -0.6701  0.01599  -0.003449  -0.006327  0.02294  -0.03981  -0.9263
6.395e+09  0.2935  -0.8706  -0.017  0.01305  0.003584  -0.01811  -0.3696  -0.8385
6.396e+09  -0.08746  -0.8919  0.007462  0.009904  -0.003426  0.02274  -0.6369  -0.6677
6.398e+09  -0.3527  -0.8294  0.01576  -0.005387  -0.01949  -0.01798  -0.783  -0.4386
6.399e+09  -0.6017  -0.662  -0.01961  -0.005215  0.01498  -0.03668  -0.9124  -0.1467
6.4e+09  -0.7933  -0.4305  0.07017  -0.01106  -0.004587  0.01446  -0.9207  0.1441
6.401e+09  -0.9013  -0.1398  0.01931  -0.005308  -0.02015  0.06245  -0.7986  0.5174
6.402e+09  -0.8908  0.1793  -0.03669  -0.01217  -0.004651  0.016  -0.5512  0.6767
6.404e+09  -0.7688  0.4673  0.02923  -0.004853  -0.008701  -0.0417  -0.2511  0.9093
6.405e+09  -0.5461  0.6818  -0.008824  0.00256  -0.005251  -0.03633  0.02634  0.8656
6.406e+09  -0.3023  0.8152  0.03454  0.01527  0.01391  0.02384  0.3567  0.8572
6.408e+09  0.01934  0.8908  0.006198  0.007109  0.01656  -0.02608  0.5545  0.6748
6.409e+09  0.3511  0.8153  -0.04764  0.02496  0.07103  0.03868  0.7935  0.4516
6.41e+09  0.6126  0.6202  0.02334  -0.002705  0.01043  0.00935  0.8997  0.1465
6.411e+09  0.7608  0.3491  -0.02053  0.01477  -0.02634  0.00202  0.8997  -0.1256
6.412e+09  0.8855  0.08955  0.03541  0.0211  0.002625  -0.001537  0.805  -0.4281
6.414e+09  0.8213  -0.1992  0.0185  -0.03262  0.005074  0.006199  0.5637  -0.6473
6.415e+09  0.7112  -0.486  -0.01923  -0.03648  -0.04511  -0.04355  0.358  -0.838
6.416e+09  0.5714  -0.7152  -0.005657  0.02226  -0.02125  0.01946  0.0584  -0.8853
6.418e+09  0.262  -0.8269  0.01584  0.0006028  -0.02458  0.0184  -0.2933  -0.8484
6.419e+09  -0.09418  -0.8972  0.009091  -0.001876  -0.01598  0.03364  -0.5863  -0.7148
6.42e+09  -0.4275  -0.817  -0.05317  0.0104  -0.04683  0.01132  -0.7257  -0.5186
6.421e+09  -0.6188  -0.5989  -0.008521  0.01224  0.03981  0.01229  -0.8669  -0.2087
6.422e+09  -0.827  -0.3576  -0.0229  0.06699  -0.007402  -0.04615  -0.8841  0.08126
6.424e+09  -0.8873  -0.02897  0.03167  -0.00615  -0.005499  -0.01113  -0.8019  0.407
6.425e+09  -0.8777  0.2324  0.02458  0.02843  0.06161  0.004669  -0.5971  0.6601
6.426e+09  -0.6965  0.527  -0.02514  -0.02625  -0.01421  -0.0506  -0.356  0.8109
6.428e+09  -0.4625  0.7319  0.007042  -0.005377  -0.03363  -0.0004622  -0.02448  0.8431
6.429e+09  -0.2126  0.8369  0.0003372  -0.009993  -0.009862  -0.03097  0.2462  0.8457
6.43e+09  0.1183  0.9039  -0.02253  0.009608  0.008092  -0.003476  0.5508  0.7317
6.431e+09  0.4239  0.7979  0.05551  -0.007985  0.02233  -0.00498  0.7417  0.4547
6.432e+09  0.6341  0.6042  -0.02088  -0.01345  0.01418  0.04016  0.9263  0.2454
6.434e+09  0.8023  0.327  0.0403  -0.01237  -0.01966  0.005351  0.8667  -0.04929
6.435e+09  0.8905  0.05242  0.01165  -0.01032  0.0347  0.01563  0.7584  -0.4043
6.436e+09  0.8384  -0.2434  -0.02638  0.02782  -0.005927  -0.04125  0.6272  -0.6487
6.438e+09  0.7248  -0.5446  -0.009349  -0.008768  -0.02964  -0.009932  0.3599  -0.7754
6.439e+09  0.4697  -0.7298  -0.01272  0.02567  -0.03004  -0.01357  0.03655  -0.8435
6.44e+09  0.1884  -0.8164  0.02863  -0.005258  -0.01645  0.04724  -0.2317  -0.8097
6.441e+09  -0.071  -0.8797  0.02369  0.009937  -0.01387  -0.0275  -0.4764  -0.6869
6.442e+09  -0.3708  -0.7828  -0.01384  0.02207  0.05211  -0.05429  -0.6919  -0.4245
6.444e+09  -0.634  -0.5725  0.01332  -0.0008379  0.03475  -0.02204  -0.8079  -0.2169
6.445e+09  -0.8107  -0.3679  0.06538  0.0335  0.00397  0.01066  -0.8125  0.07157
6.446e+09  -0.8696  -0.08084  0.004599  0.001482  0.04253  -0.02137  -0.7838  0.3638
6.448e+09  -0.8185  0.2228  -0.01001  0.03405  -0.01396  -0.005245  -0.608  0.637
6.449e+09  -0.6722  0.5373  -0.01233  -0.04072  0.002433  0.002925  -0.3883  0.8076
6.45e+09  -0.5154  0.7486  0.01662  0.02606  -0.01984  -0.004475  -0.09512  0.8345
6.451e+09  -0.2024  0.8433  0.0242  -0.008492  -0.01523  0.001193  0.2075  0.8093
6.452e+09  0.1266  0.8892  0.002589  0.02209  -0.001949  -0.002986  0.5053  0.6793
6.454e+09  0.3663  0.7941  -0.007491  0.02172  -0.04452  0.04521  0.6809  0.4655
6.455e+09  0.7065  0.5996  -0.02643  0.0009807  0.005362  -0.07187  0.7802  0.1815
6.456e+09  0.8017  0.3571  0.02025  -0.001853  0.03549  0.01762  0.8512  -0.08236
6.458e+09  0.8809  0.04382  -0.0006968  0.05053  -0.003945  0.01592  0.7309  -0.3539
6.459e+09  0.8213  -0.2937  -0.009533  -0.01576  -0.06035  0.03715  0.6038  -0.543
6.46e+09  0.7113  -0.4818  0.00856  0.009291  0.02174  0.02553  0.364  -0.7871
6.461e+09  0.4614  -0.7561  -0.02104  -0.001487  -0.01019  0.05985  0.1031  -0.8392
6.462e+09  0.2258  -0.8777  -0.02799  -0.009461  0.002749  -0.006803  -0.2128  -0.8443
6.464e+09  -0.1264  -0.8313  0.01218  -0.0176  -0.04767  0.003138  -0.4742  -0.6758
6.465e+09  -0.4417  -0.791  -0.005155  0.06165  0.01191  0.003913  -0.6286  -0.4625
6.466e+09  -0.6736  -0.598  -0.03034  -0.0191  -0.0365  -0.009965  -0.7727  -0.1992
6.468e+09  -0.8082  -0.3875  -0.04181  -0.0212  -0.006215  -0.004734  -0.8142  0.06206
6.469e+09  -0.9094  -0.07657  -0.009043  0.001509  -0.03991  -0.02913  -0.7344  0.3503
6.47e+09  -0.8819  0.2997  -0.02259  -0.02467  0.02526  -0.03551  -0.5629  0.596
6.471e+09  -0.7163  0.5518  -0.02037  9.856e-06  -0.02229  -0.02421  -0.3365  0.7758
6.472e+09  -0.4587  0.7979  0.001354  0.0124  -0.02614  0.01924  -0.04907  0.8428
6.474e+09  -0.21  0.9215  -0.03285  -0.01033  -0.001926  -0.008512  0.1835  0.793
6.475e+09  0.1231  0.9465  0.03264  -0.01264  -0.02658  0.05218  0.4363  0.6502
6.476e+09  0.4157  0.7552  -0.0113  0.02942  0.02464  -0.02379  0.6583  0.423
6.478e+09  0.651  0.6386  -0.0359  0.04907  0.004262  0.0002729  0.7684  0.1983
6.479e+09  0.8506  0.3512  0.0272  0.03331  -0.02558  0.03093  0.7481  -0.07426
6.48e+09  0.8702  0.03654  -0.001461  -0.0135  0.00195  0.03578  0.683  -0.3486
6.481e+09  0.8271  -0.2692  -0.04523  0.004206  -0.04238  -0.002274  0.5884  -0.5468
6.482e+09  0.7173  -0.6114  0.02612  0.002213  -0.06231  -0.01587  0.3205  -0.7107
6.484e+09  0.4814  -0.8148  -0.03874  -0.003963  -0.02174  -0.05447  0.0333  -0.7764
6.485e+09  0.1843  -0.9284  -0.005294  -0.01813  0.03144  -0.03777  -0.1981  -0.767
6.486e+09  -0.142  -0.8713  0.03017  -0.02104  0.004483  -0.006703  -0.4551  -0.5909
6.488e+09  -0.4569  -0.7643  -0.04745  -0.002294  -0.003249  -0.007363  -0.6687  -0.4214
6.489e+09  -0.7187  -0.604  -0.03764  0.002159  -0.02979  0.0327  -0.7692  -0.1427
6.49e+09  -0.8787  -0.3487  0.01077  0.0141  0.01047  0.006883  -0.7646  0.0474
6.491e+09  -0.9035  0.0374  0.004191  -0.02646  0.01455  9.627e-05  -0.6578  0.3367
6.492e+09  -0.8427  0.2745  0.02516  0.003055  0.01975  -0.005202  -0.5204  0.5581
6.494e+09  -0.6935  0.6319  0.01119  -0.003325  0.01586  -0.009128  -0.3007  0.723
6.495e+09  -0.4407  0.8438  0.005778  0.004553  0.0014  -0.005935  -0.0261  0.7825
6.496e+09  -0.1758  0.8591  -0.02414  -0.0156  0.02043  0.03078  0.202  0.754
6.498e+09  0.1649  0.9064  0.001929  -0.001195  0.02936  -0.03352  0.449  0.583
6.499e+09  0.4737  0.7928  0.02149  0.005989  -0.01627  -0.02015  0.6365  0.4275
6.5e+09  0.6977  0.5456  -0.0009117  -0.002448  0.04798  -0.02305  0.7804  0.1539
6.501e+09  0.9298  0.348  0.0267  0.02374  -0.03062  0.001833  0.7458  -0.1146
6.502e+09  0.9053  -0.01503  -0.008845  -0.02033  0.01544  -0.02453  0.6741  -0.3535
6.504e+09  0.8349  -0.3473  -0.01023  -0.02129  0.052  0.03101  0.5155  -0.552
6.505e+09  0.706  -0.6142  0.01491  -0.001144  -0.009867  -0.02051  0.2891  -0.6796
6.506e+09  0.3835  -0.7742  0.01718  -0.02177  0.02882  -0.01321  0.03107  -0.744
6.508e+09  0.1292  -0.9483  -0.03115  -0.004353  0.06988  0.04456  -0.2312  -0.7048
6.509e+09  -0.1722  -1.011  -0.011  0.03114  0.008947  -0.02596  -0.4907  -0.6031
6.51e+09  -0.5281  -0.844  -0.03473  0.001298  -0.01425  0.01918  -0.6726  -0.4046
6.511e+09  -0.738  -0.5691  0.01805  0.01372  -0.04728  0.02543  -0.7598  -0.143
6.512e+09  -0.9252  -0.2603  -0.01444  -0.01437  0.04305  -0.02051  -0.7923  0.06578
6.514e+09  -0.9965  0.05986  0.01601  0.005757  -0.03307  0.02691  -0.6186  0.363
6.515e+09  -0.9129  0.3601  -0.00944  0.03808  -0.03033  0.01576  -0.487  0.5878
6.516e+09  -0.7013  0.6566  0.01665  -0.001336  0.02563  0.03045  -0.2375  0.6592
6.518e+09  -0.4082  0.8569  0.008359  0.03699  -0.02445  0.003124  0.02903  0.742
6.519e+09  -0.146  0.9576  -0.01298  0.005382  0.0389  -0.01573  0.2905  0.6766
6.52e+09  0.2942  0.9551  0.01872  0.006368  0.0004288  -0.01676  0.4951  0.5294
6.521e+09  0.5387  0.7466  0.0333  0.02146  -0.02044  0.01667  0.642  0.3138
6.522e+09  0.7776  0.5369  -0.01004  -0.02494  0.01157  -0.02135  0.7382  0.09704
6.524e+09  0.9258  0.2333  0.01876  0.008786  0.01785  0.04977  0.6582  -0.1596
6.525e+09  0.9799  -0.09145  0.003648  0.007601  -0.01076  -0.005069  0.6177  -0.3776
6.526e+09  0.903  -0.38  0.007591  -0.005834  0.006411  -0.0118  0.3819  -0.5819
6.528e+09  0.6308  -0.7452  -0.001712  0.0002723  -0.02988  -0.008174  0.1987  -0.6909
6.529e+09  0.3179  -0.8902  0.02036  -0.0007525  -0.01357  0.04141  -0.0332  -0.6804
6.53e+09  0.04605  -0.9792  0.006907  -0.01431  0.03374  -0.004951  -0.2688  -0.6239
6.531e+09  -0.3308  -0.9451  0.01543  -0.04502  -0.05167  -0.03542  -0.4768  -0.4927
6.532e+09  -0.6527  -0.7493  0.01225  0.01985  0.04931  -0.01202  -0.5595  -0.2712
6.534e+09  -0.8562  -0.4882  0.03564  -0.01202  0.027  0.04733  -0.6026  -0.09021
6.535e+09  -0.9457  -0.1552  0.008027  -0.006355  0.009536  -0.06803  -0.6396  0.1106
6.536e+09  -0.932  0.1819  0.01113  0.01737  0.07408  0.01236  -0.5762  0.2789
6.538e+09  -0.8826  0.4861  0.001461  -0.01621  0.02075  -0.01448  -0.4697  0.4814
6.539e+09  -0.5889  0.7732  -0.005121  0.01067  -0.0382  -9.37e-05  -0.2731  0.619
6.54e+09  -0.2854  0.9004  -0.003685  -0.008982  0.01191  0.02851  -0.059  0.6848
6.541e+09  0.1108  0.9922  0.001189  0.01137  -0.004872  -0.01692  0.173  0.6967
6.542e+09  0.4021  0.9711  -0.02146  0.01127  0.006674  0.01442  0.4176  0.545
6.544e+09  0.6744  0.7203  0.01569  0.01285  -0.007525  -0.03635  0.5943  0.4037
6.545e+09  0.8244  0.401  -0.01938  -0.01315  -0.03823  0.02386  0.7428  0.1897
6.546e+09  0.9479  0.116  -0.02071  -0.009745  -0.0267  0.04042  0.6905  -0.08325
6.548e+09  0.9702  -0.2379  -0.02633  0.008352  0.03262  0.04538  0.6668  -0.3624
6.549e+09  0.7854  -0.5128  0.01174  -0.02952  0.01118  -0.01349  0.5178  -0.4975
6.55e+09  0.6124  -0.7514  -0.006457  -0.01822  -0.03935  0.02301  0.2837  -0.6929
