# Hz S RI R 50
6.25e+09  -0.3986  0.7202  0.03587  -0.01006  0.02529  -0.04475  0.1286  0.504
6.251e+09  -0.1436  0.9173  0.01814  -0.01702  -0.03302  -0.04932  0.3457  0.3975
6.252e+09  0.191  0.819  0.02505  0.002469  -0.01489  0.03817  0.5333  0.2529
6.254e+09  0.4839  0.7077  -0.03039  -0.01776  0.03127  0.03167  0.588  0.007663
6.255e+09  0.7407  0.4755  -0.03334  0.009462  0.01087  -0.0125  0.5545  -0.2042
6.256e+09  0.8427  0.2643  -0.0166  -0.0338  0.01713  0.04233  0.4862  -0.4516
6.258e+09  0.8748  -0.05768  -0.009459  -0.01578  0.02799  0.01857  0.3072  -0.629
6.259e+09  0.8524  -0.3496  0.03606  -0.003148  -0.06689  0.03951  0.07646  -0.7078
6.26e+09  0.6257  -0.5561  0.01457  -0.01781  -0.005868  -0.006839  -0.2507  -0.6762
6.261e+09  0.3928  -0.7432  0.02166  0.02197  0.02333  0.04538  -0.4519  -0.5427
6.262e+09  0.02513  -0.8055  0.01923  0.0005159  0.01705  -0.001704  -0.6076  -0.3752
6.264e+09  -0.2316  -0.8674  -0.005043  0.01583  0.01222  0.008321  -0.7325  -0.1233
6.265e+09  -0.4744  -0.6676  -0.01407  0.0002948  -0.02547  -0.02764  -0.6824  0.1307
6.266e+09  -0.6706  -0.4818  -0.001693  0.0136  -0.01411  0.0659  -0.6045  0.401
6.268e+09  -0.797  -0.2296  0.0169  6.607e-05  -0.005551  -0.0305  -0.4579  0.5877
6.269e+09  -0.8331  0.03156  0.01484  0.002222  0.07702  -0.004308  -0.1698  0.7002
6.27e+09  -0.7652  0.2857  -0.0462  -0.02892  -0.009962  -0.001008  0.07693  0.7177
6.271e+09  -0.5688  0.6111  0.002355  0.00746  -0.02294  -0.02447  0.3384  0.6753
6.272e+09  -0.3482  0.7125  -0.002594  -0.01684  0.01222  -0.006739  0.5499  0.5088
6.274e+09  -0.07288  0.8583  -0.02116  0.01959  -0.01815  -0.003343  0.723  0.297
6.275e+09  0.2516  0.8386  -0.02736  0.02791  0.01059  0.00466  0.7241  0.0775
6.276e+09  0.4695  0.6789  0.02426  -0.03098  0.06634  0.03758  0.7295  -0.2395
6.278e+09  0.66  0.4404  -0.001398  -0.01821  0.001444  0.02693  0.5912  -0.4933
6.279e+09  0.7461  0.2895  -0.008121  -0.02411  0.02592  -0.008413  0.4375  -0.6478
6.28e+09  0.8067  -0.04105  -0.004497  0.01124  -0.02413  0.009977  0.1959  -0.7878
6.281e+09  0.7688  -0.3594  -0.01374  0.02124  -0.01872  0.01333  -0.1338  -0.7685
6.282e+09  0.5754  -0.5781  0.01223  -0.002207  -0.006966  -0.03271  -0.3867  -0.7121
6.284e+09  0.4127  -0.6902  -0.00149  -0.006484  -0.004881  0.05168  -0.5802  -0.4895
6.285e+09  0.09538  -0.8858  -0.02365  -0.01241  0.006855  -0.06173  -0.7144  -0.3117
6.286e+09  -0.2133  -0.84  -0.006266  -0.0124  0.05768  0.03646  -0.7756  0.01642
6.288e+09  -0.4807  -0.6858  -0.01987  0.03518  0.007343  -0.03054  -0.7545  0.279
6.289e+09  -0.6574  -0.4588  0.0118  0.005278  0.03393  0.01269  -0.6419  0.5195
6.29e+09  -0.7752  -0.2426  -0.004174  0.01781  -0.003048  0.04012  -0.4542  0.6762
6.291e+09  -0.8255  0.1285  -0.0007188  0.005647  -0.0071  0.06014  -0.123  0.7911
6.292e+09  -0.7291  0.3978  0.008074  0.05381  0.01387  -0.01201  0.1303  0.8048
6.294e+09  -0.541  0.5767  0.01076  -0.003039  -0.01151  -0.01575  0.4135  0.716
6.295e+09  -0.3417  0.7842  0.01688  -0.01859  -0.02924  -0.02082  0.6167  0.5279
6.296e+09  -0.024  0.8156  -0.01744  0.05182  -0.01461  -0.006887  0.7819  0.2968
6.298e+09  0.3201  0.7796  -0.04919  0.01433  -0.02344  0.04687  0.8409  0.01416
6.299e+09  0.5314  0.6301  0.01729  0.02104  -0.0207  -0.06347  0.7558  -0.2555
6.3e+09  0.7113  0.4983  -0.0018  0.01805  0.07054  -0.01162  0.6142  -0.4875
6.301e+09  0.7819  0.08877  0.03346  0.01489  0.06726  0.02025  0.415  -0.7212
6.302e+09  0.799  -0.1234  -0.02466  -0.02642  -0.004935  0.06857  0.1123  -0.8396
6.304e+09  0.7382  -0.4263  0.02834  -0.01358  -0.009229  0.02389  -0.0994  -0.8254
6.305e+09  0.5264  -0.6406  0.0002918  -0.005601  -0.01916  0.0675  -0.4373  -0.7436
6.306e+09  0.3001  -0.7213  0.01312  -0.01835  -0.01601  0.02937  -0.6349  -0.5765
6.308e+09  0.03414  -0.8064  0.01416  0.008385  -0.03036  0.01191  -0.8104  -0.2966
6.309e+09  -0.3151  -0.7987  0.02275  0.02077  -0.04822  0.03077  -0.854  -0.02705
6.31e+09  -0.5578  -0.6821  0.01156  -0.002769  0.02037  0.03401  -0.8205  0.2888
6.311e+09  -0.7411  -0.4036  -0.01041  0.0009399  0.009416  -0.02829  -0.6792  0.5562
6.312e+09  -0.8042  -0.1432  -0.008174  -0.005597  0.04482  -0.004217  -0.4369  0.7325
6.314e+09  -0.8173  0.1734  0.01987  -0.0001833  0.02903  -0.007376  -0.1642  0.823
6.315e+09  -0.7448  0.4307  0.004212  0.003225  0.02569  0.00644  0.1099  0.8842
6.316e+09  -0.5658  0.6375  0.01565  -0.008257  -0.03497  0.03152  0.4077  0.7591
6.318e+09  -0.2431  0.8123  0.03324  -0.003431  0.001538  0.03202  0.6602  0.5701
6.319e+09  0.04965  0.8342  -0.008624  0.01521  0.0421  -0.02553  0.8174  0.3179
6.32e+09  0.3004  0.7361  -0.03633  0.004297  0.01709  -0.01763  0.8789  0.01187
6.321e+09  0.5576  0.612  0.004055  -0.008481  -0.03935  0.01453  0.8067  -0.2812
6.322e+09  0.7655  0.363  0.03301  0.01365  -0.00183  0.01745  0.7072  -0.5802
6.324e+09  0.8491  0.1306  -0.01522  0.01181  0.01326  0.03279  0.4672  -0.7625
6.325e+09  0.7904  -0.2283  0.02171  0.009633  -0.02961  -0.00724  0.1671  -0.864
6.326e+09  0.6971  -0.5196  0.0299  -0.0132  -0.02124  0.003076  -0.1261  -0.8648
6.328e+09  0.4909  -0.7027  -0.009567  0.009042  0.0004711  -0.009801  -0.431  -0.7926
6.329e+09  0.2039  -0.8208  0.003015  -0.002086  0.02013  0.02484  -0.7093  -0.6049
6.33e+09  -0.1192  -0.8149  0.0153  -0.0005412  0.0007113  0.009986  -0.8654  -0.3144
6.331e+09  -0.3436  -0.7571  -0.01228  0.02992  0.003388  -0.04791  -0.8939  -0.02219
6.332e+09  -0.6503  -0.5977  -0.0266  -0.008131  0.03721  0.006729  -0.8501  0.2715
6.334e+09  -0.8099  -0.342  -0.00593  0.0046  0.01836  -0.00515  -0.7154  0.5619
6.335e+09  -0.8801  -0.1002  0.008705  -0.008917  -0.03139  -0.02778  -0.472  0.7834
6.336e+09  -0.8668  0.2352  -0.003598  -0.004077  -0.00731  0.006122  -0.1986  0.8914
6.338e+09  -0.7204  0.5778  -0.004876  0.0004338  0.02153  -0.0187  0.1457  0.9168
6.339e+09  -0.4628  0.7529  0.004608  -0.005051  -0.02381  0.02972  0.4753  0.8067
6.34e+09  -0.1731  0.8388  -0.02756  0.0005016  0.008965  0.01577  0.6713  0.5933
6.341e+09  0.1575  0.8787  -0.05577  -0.0007981  -0.009975  -0.05814  0.8396  0.3677
6.342e+09  0.4224  0.7486  -0.005318  0.03774  0.01212  -0.04349  0.9433  0.00795
6.344e+09  0.6871  0.5605  0.0262  -0.05961  -0.01566  0.01048  0.8581  -0.2595
6.345e+09  0.8583  0.2875  0.01834  -7.191e-07  -0.008693  -0.03404  0.7552  -0.5651
6.346e+09  0.8294  0.006735  0.005758  -0.02952  -0.002712  0.02432  0.5297  -0.7818
6.348e+09  0.8169  -0.27  -0.009019  -0.001046  0.0364  0.03062  0.2202  -0.9045
6.349e+09  0.6394  -0.5614  0.003028  0.0152  0.03424  -0.003746  -0.09403  -0.9242
6.35e+09  0.4187  -0.7553  0.03181  -0.002124  -0.04524  0.01211  -0.4121  -0.8822
6.351e+09  0.153  -0.8542  -0.009632  0.006699  0.02798  -0.07619  -0.6773  -0.6418
6.352e+09  -0.1977  -0.838  -0.01342  -0.004121  0.003463  -0.0208  -0.8619  -0.3664
6.354e+09  -0.4601  -0.7542  -0.01297  0.003207  0.06182  -0.02085  -0.932  -0.05612
6.355e+09  -0.7027  -0.5143  0.02118  0.04409  0.04905  -0.02235  -0.8831  0.2688
6.356e+09  -0.8136  -0.251  0.003449  -0.0475  -0.04378  -0.02132  -0.7739  0.5731
6.358e+09  -0.8958  0.0393  -0.01227  -0.01126  -0.01751  -0.01981  -0.5396  0.8065
6.359e+09  -0.8163  0.3264  0.0073  -0.002923  -0.007475  -0.02673  -0.2211  0.9353
6.36e+09  -0.6566  0.6814  0.03628  -0.003074  0.02338  -0.01235  0.1191  0.9282
6.361e+09  -0.3408  0.8312  0.004255  0.04528  -0.009284  0.03051  0.4421  0.8479
6.362e+09  -0.08299  0.9241  0.01161  0.008939  -0.02611  0.007369  0.6761  0.6712
6.364e+09  0.2141  0.878  -0.02105  -0.00406  -0.02858  0.03854  0.8998  0.3634
6.365e+09  0.5084  0.7336  -0.009443  0.002648  0.0136  0.02876  0.9662  0.1037
6.366e+09  0.753  0.5073  -0.01846  -0.01554  0.01154  0.005602  0.8931  -0.2752
6.368e+09  0.8942  0.2286  -0.01329  0.001744  -0.02247  0.0109  0.8005  -0.5383
6.369e+09  0.8682  -0.1012  0.03462  -0.01462  -0.03695  0.00101  0.5727  -0.7873
6.37e+09  0.8036  -0.4311  -0.01647  -0.01391  0.01077  0.03408  0.2269  -0.9211
6.371e+09  0.5894  -0.6558  0.003118  0.009251  0.01412  0.01503  -0.1048  -0.9468
6.372e+09  0.3274  -0.8472  0.01323  -0.03411  -0.0144  -0.01022  -0.4063  -0.8992
6.374e+09  0.000386  -0.8909  0.01039  -0.004671  0.007693  0.02356  -0.657  -0.689
6.375e+09  -0.2986  -0.8378  0.01406  -0.002267  -0.05306  0.01433  -0.8688  -0.447
6.376e+09  -0.5572  -0.7115  -0.0008716  0.002534  0.03049  0.008376  -0.9487  -0.1106
6.378e+09  -0.7652  -0.4528  -0.007205  0.02272  -0.004778  -0.01704  -0.9403  0.2149
6.379e+09  -0.8678  -0.1531  -0.00459  0.02333  0.02057  -0.005171  -0.7954  0.5047
6.38e+09  -0.8441  0.1905  -0.01043  -0.02552  0.001168  0.03934  -0.5682  0.7893
6.381e+09  -0.788  0.461  0.02019  -0.02728  0.008123  -0.06093  -0.2963  0.8985
6.382e+09  -0.5793  0.6828  0.01923  0.02602  0.05032  -0.02391  0.07131  0.9279
6.384e+09  -0.2829  0.8642  -0.03911  -0.002184  -0.007335  0.02583  0.3656  0.8351
6.385e+09  0.04645  0.9211  -0.004103  -0.001803  -0.01468  -0.01632  0.6332  0.6882
6.386e+09  0.3212  0.8208  0.01757  -0.001122  -0.03229  0.01477  0.8434  0.453
6.388e+09  0.5369  0.6597  -0.03812  -0.02731  -0.001593  -0.04197  0.952  0.1009
6.389e+09  0.8098  0.4081  0.04289  0.032  0.02574  0.002507  0.8923  -0.1661
6.39e+09  0.9175  0.1357  -0.02697  0.02265  -0.02904  0.007353  0.8222  -0.5148
6.391e+09  0.8603  -0.2068  0.008445  0.02147  -0.02267  0.001165  0.5927  -0.6961
6.392e+09  0.7564  -0.4554  0.005481  0.0165  0.01313  -0.01239  0.3013  -0.9022
6.394e+09  0.568  -0.7338  -0.0003045  0.01893  -0.04285  -0.01194  -0.04669  -0.9633
6.395e+09  0.2353  -0.854  -0.1021  0.03672  -0.005968  -0.02589  -0.3392  -0.8569
6.396e+09  -0.04656  -0.866  0.006319  -0.004582  0.07002  -0.0454  -0.6503  -0.68
6.398e+09  -0.3348  -0.8719  -0.04196  0.01138  -0.02766  -0.004919  -0.754  -0.436
6.399e+09  -0.6024  -0.607  0.004169  0.01845  0.01057  0.003303  -0.9146  -0.1236
6.4e+09  -0.8055  -0.3917  0.02622  0.008089  0.02234  0.0005112  -0.9005  0.1514
6.401e+09  -0.8555  -0.1121  -0.03126  0.002407  -0.0107  0.01706  -0.828  0.4499
6.402e+09  -0.8626  0.2231  -0.02783  -0.01933  0.007535  0.009883  -0.5651  0.7018
6.404e+09  -0.6977  0.4928  0.02033  0.01438  0.0003933  -0.003367  -0.3331  0.8803
6.405e+09  -0.505  0.7215  -0.02111  -0.01479  0.02371  0.03783  0.008379  0.8953
6.406e+09  -0.2659  0.8503  -0.03665  -0.02892  0.006035  -0.03987  0.3375  0.8658
6.408e+09  0.1051  0.8757  0.03278  -0.015  -0.02515  0.01166  0.6068  0.7218
6.409e+09  0.3851  0.7318  0.000785  0.003244  0.004415  0.04002  0.7527  0.4345
6.41e+09  0.6283  0.6002  -0.01917  0.01138  -0.02443  -0.0006455  0.9166  0.1802
6.411e+09  0.8203  0.3446  0.0371  0.03141  0.01746  0.07974  0.8743  -0.1066
6.412e+09  0.8792  0.09144  -0.02805  -0.004091  0.04386  0.03716  0.8049  -0.4307
6.414e+09  0.8878  -0.2117  -0.04046  -0.03165  -0.02973  -0.02485  0.5885  -0.6924
6.415e+09  0.6759  -0.4958  0.02241  -0.02028  -0.02058  -0.03481  0.3337  -0.8553
6.416e+09  0.4895  -0.7763  0.002492  0.02599  -0.0005377  0.05271  -0.004237  -0.9267
6.418e+09  0.1801  -0.8736  -0.03081  -0.006649  -0.02679  0.000266  -0.2484  -0.8381
6.419e+09  -0.1225  -0.8562  -0.001624  -0.02472  0.00858  -0.03091  -0.5414  -0.7319
6.42e+09  -0.3955  -0.7846  0.01008  -0.02236  -0.01932  -0.005074  -0.7709  -0.4201
6.421e+09  -0.6035  -0.6149  0.03389  0.0164  -0.01881  -0.01754  -0.8622  -0.2098
6.422e+09  -0.7796  -0.3465  0.007955  -0.00612  0.02698  0.02566  -0.8679  0.111
6.424e+09  -0.895  -0.09067  0.02151  0.0156  -0.01996  -0.01353  -0.8025  0.4218
6.425e+09  -0.8549  0.2681  -0.04199  0.05799  0.03062  0.02249  -0.5872  0.6469
6.426e+09  -0.7673  0.4994  0.01363  -0.02114  -0.008486  -0.02512  -0.3636  0.8402
6.428e+09  -0.5115  0.705  -0.006087  0.011  -0.03231  0.01063  -0.02318  0.8785
6.429e+09  -0.2044  0.8639  -0.03157  0.01102  0.00783  0.0004243  0.3295  0.8372
6.43e+09  0.1148  0.8747  -0.03003  -0.008265  0.01726  0.002039  0.5285  0.7132
6.431e+09  0.3947  0.7884  -0.03697  0.001835  -0.02718  0.02403  0.7035  0.5091
6.432e+09  0.673  0.6139  0.0005802  0.01287  0.004523  -0.01659  0.8436  0.2328
6.434e+09  0.7977  0.3601  -0.04908  -0.03079  -0.03192  0.007128  0.8881  -0.09241
6.435e+09  0.8343  0.0298  -0.01893  0.05451  -0.0216  -0.01142  0.7429  -0.3187
6.436e+09  0.86  -0.3104  0.001741  -0.03099  0.03068  -0.0162  0.5928  -0.6387
6.438e+09  0.6982  -0.5232  0.005925  -0.02312  0.01066  0.03935  0.3876  -0.7555
6.439e+09  0.4731  -0.7171  -0.01071  0.0008828  -0.0003102  0.03088  0.06641  -0.8965
6.44e+09  0.2074  -0.893  -0.02035  0.00948  0.01832  0.003415  -0.269  -0.8769
6.441e+09  -0.1095  -0.8318  -0.01476  0.002845  -0.01465  0.06372  -0.4738  -0.6881
6.442e+09  -0.4258  -0.766  -0.03162  -0.02059  0.009406  0.00196  -0.6882  -0.5072
6.444e+09  -0.6905  -0.6155  0.008899  -0.027  0.03865  0.0001818  -0.8348  -0.1962
6.445e+09  -0.8425  -0.3084  0.005704  0.01926  0.02795  0.005344  -0.8306  0.1017
6.446e+09  -0.9263  -0.06883  0.02025  -0.0212  -0.01042  0.05195  -0.7817  0.3457
6.448e+09  -0.8461  0.238  0.02407  -0.01323  0.0352  -0.04636  -0.5928  0.6422
6.449e+09  -0.7413  0.516  -0.005851  -0.01853  0.04213  0.04426  -0.3928  0.7626
6.45e+09  -0.4516  0.7319  0.003463  -0.01652  0.03673  -0.003802  -0.03405  0.853
6.451e+09  -0.2352  0.8452  -0.008729  -0.007007  -0.008286  0.02802  0.2546  0.8405
6.452e+09  0.1261  0.9035  0.02478  -0.002769  -0.005069  -0.03615  0.4831  0.6855
6.454e+09  0.3858  0.7984  -0.03419  -0.03425  0.01832  0.03059  0.7086  0.4832
6.455e+09  0.6721  0.6123  -0.009871  0.01579  -0.01358  -0.03071  0.8319  0.1871
6.456e+09  0.835  0.2826  -0.03715  0.003767  -0.002983  -0.002267  0.8205  -0.125
6.458e+09  0.9365  -0.01666  0.04578  0.0492  -0.00569  -0.01332  0.7605  -0.3212
6.459e+09  0.8108  -0.2504  -0.04897  -0.008093  0.01003  -0.05045  0.6193  -0.6165
6.46e+09  0.6971  -0.5704  -0.01391  0.008782  0.01628  -0.01255  0.3054  -0.7428
6.461e+09  0.4259  -0.7613  0.008055  0.003043  0.02037  -0.02546  0.085  -0.831
6.462e+09  0.2115  -0.8661  0.002745  0.01737  -0.04109  -0.00877  -0.1861  -0.7924
6.464e+09  -0.1043  -0.854  0.04845  0.02469  -0.02444  -0.06772  -0.439  -0.6665
6.465e+09  -0.4453  -0.8249  -0.004803  -0.001464  -0.02809  0.003468  -0.6658  -0.4569
6.466e+09  -0.6873  -0.5975  -0.001241  -0.01582  -0.01801  -0.01162  -0.818  -0.2159
6.468e+09  -0.8516  -0.3398  -0.03134  0.0165  0.03962  -0.01605  -0.7639  0.08617
6.469e+09  -0.9287  -0.03118  -0.006827  -0.002137  -0.03266  0.03304  -0.6838  0.3582
6.47e+09  -0.8779  0.2808  -0.001919  -0.01466  0.03851  -0.006802  -0.6187  0.5826
6.471e+09  -0.7006  0.5577  0.01197  -0.02127  -0.01228  -0.003507  -0.339  0.7334
6.472e+09  -0.4368  0.8076  -0.03547  -0.01398  0.00188  0.03038  -0.07646  0.8212
6.474e+09  -0.1539  0.9127  0.0002246  -0.008759  -4.759e-05  -0.0006335  0.2257  0.7594
6.475e+09  0.1456  0.8746  0.01323  -0.04774  0.00951  -0.006224  0.4553  0.6664
6.476e+09  0.3959  0.7607  0.002669  -0.02026  -0.03508  -0.009772  0.6392  0.4484
6.478e+09  0.6975  0.5743  0.001111  -0.001274  0.009153  -0.03484  0.789  0.1926
6.479e+09  0.8431  0.319  -0.01867  -0.01016  -0.04025  0.01429  0.7802  -0.09929
6.48e+09  0.9082  0.007356  -0.00229  -0.002185  -0.002857  -0.009212  0.6879  -0.3372
6.481e+09  0.8442  -0.3253  0.02361  -0.03923  0.006903  0.02659  0.5238  -0.5494
6.482e+09  0.6666  -0.5931  0.03673  -0.002676  0.02126  0.007646  0.3385  -0.7179
6.484e+09  0.4532  -0.7966  0.01952  0.01695  -0.01078  -0.007524  0.09503  -0.8082
6.485e+09  0.1197  -0.8907  0.00243  -0.003742  0.001894  0.007593  -0.207  -0.7684
6.486e+09  -0.1219  -0.8343  -0.05373  0.009126  0.01718  0.03335  -0.4506  -0.5889
6.488e+09  -0.4932  -0.825  -0.01248  -0.006308  -0.07097  0.01997  -0.6281  -0.459
6.489e+09  -0.7432  -0.5584  -0.01438  -0.01394  -0.02788  0.01086  -0.7476  -0.1834
6.49e+09  -0.877  -0.2867  -0.01456  0.00298  0.03528  -0.02781  -0.8187  0.05844
6.491e+09  -0.9206  0.03789  0.01065  0.009658  -0.04403  -0.0187  -0.6913  0.3212
6.492e+09  -0.8843  0.3635  -0.008744  0.01508  0.003661  0.02119  -0.4996  0.5573
6.494e+09  -0.6816  0.6266  -0.02138  -0.0138  0.008486  -0.01868  -0.316  0.6695
6.495e+09  -0.4411  0.8216  0.02201  0.01785  -0.05079  0.03672  -0.04863  0.7711
6.496e+09  -0.1059  0.9239  0.002254  0.004684  0.01695  -0.0736  0.2103  0.7536
6.498e+09  0.175  0.8941  -0.01356  -0.0201  -0.04932  0.005483  0.4477  0.6026
6.499e+09  0.4733  0.7984  -0.03761  -0.02115  0.03926  -0.03569  0.6658  0.3971
6.5e+09  0.7717  0.5512  -0.003406  0.00602  -0.02324  -0.04779  0.7713  0.1469
6.501e+09  0.8931  0.2795  0.003469  0.01279  -0.01861  -0.02108  0.7493  -0.1036
6.502e+09  0.9473  -0.01903  0.004669  0.03698  0.04345  -0.001796  0.6331  -0.3334
6.504e+09  0.8771  -0.3664  0.0002883  0.01916  -0.04146  -0.002086  0.5192  -0.5815
6.505e+09  0.6855  -0.6394  0.01176  0.006419  -0.001012  0.01969  0.2604  -0.6934
6.506e+09  0.4092  -0.808  0.002521  0.01661  -0.03342  0.03777  0.05095  -0.741
6.508e+09  0.1207  -0.9705  -0.008989  0.02553  -0.004389  0.02318  -0.2463  -0.7271
6.509e+09  -0.2485  -0.9008  0.009591  -0.04695  -0.04386  0.0003214  -0.4967  -0.597
6.51e+09  -0.5186  -0.8008  0.01624  0.007337  0.003837  -0.006816  -0.6399  -0.3953
6.511e+09  -0.6818  -0.576  -0.004664  0.009493  -0.003241  0.03082  -0.7535  -0.1467
6.512e+09  -0.892  -0.2463  0.01731  -0.003489  0.06078  -0.05002  -0.7319  0.1128
6.514e+09  -0.9594  0.04661  -0.008307  0.02747  -0.002472  -0.02579  -0.65  0.3367
6.515e+09  -0.9162  0.4218  -0.005485  0.01283  -0.04138  0.05938  -0.5125  0.5681
6.516e+09  -0.6391  0.669  -0.004928  0.00134  -0.04685  -0.03038  -0.2938  0.7394
6.518e+09  -0.3806  0.8963  -0.01597  0.01348  0.08018  -0.006652  0.03379  0.7178
6.519e+09  -0.05692  0.9396  -0.05086  -0.02543  -0.006273  -0.02031  0.2778  0.6692
6.52e+09  0.2729  0.9493  -0.009033  0.02406  -0.01048  -0.02605  0.4469  0.5727
6.521e+09  0.5864  0.7617  -0.00227  -0.004555  -0.0286  0.05438  0.6732  0.3609
6.522e+09  0.8374  0.4939  -0.01609  -0.04735  -0.02402  0.04458  0.7597  0.0903
6.524e+09  0.9663  0.208  -0.007191  -0.03213  0.03433  -0.05227  0.718  -0.1499
6.525e+09  0.9866  -0.1276  0.007456  0.008518  0.01862  0.01384  0.6055  -0.4159
6.526e+09  0.8045  -0.4578  -0.01262  -0.01776  0.04629  -0.06825  0.4063  -0.6121
6.528e+09  0.6023  -0.7116  0.01582  0.01829  0.01599  -0.008984  0.2125  -0.6955
6.529e+09  0.3555  -0.8936  -0.003088  -0.002993  0.06339  0.002585  -0.05484  -0.7246
6.53e+09  0.01608  -1.005  0.002348  0.005233  0.03705  0.005093  -0.2797  -0.6273
6.531e+09  -0.3388  -0.887  0.01507  0.02827  -0.03894  -0.03583  -0.4753  -0.4982
6.532e+09  -0.674  -0.7808  -0.006257  -0.01473  0.03615  -0.01665  -0.5863  -0.3225
6.534e+09  -0.8859  -0.4722  -0.002199  0.008632  0.02345  0.005289  -0.6579  -0.06145
6.535e+09  -0.9416  -0.1265  0.0122  -0.02861  0.03431  0.02507  -0.6093  0.1367
6.536e+09  -0.9339  0.2162  -0.01811  -0.04753  -0.005196  0.02254  -0.5464  0.2787
6.538e+09  -0.7968  0.5527  0.0279  -0.001956  0.0843  0.02086  -0.4729  0.4908
6.539e+09  -0.5526  0.7862  0.03173  0.01407  -0.01062  0.01805  -0.2739  0.6381
6.54e+09  -0.301  0.9485  -0.0112  0.009283  0.03455  0.00785  -0.02857  0.6834
6.541e+09  0.08772  0.9635  0.01925  0.02081  -0.006429  0.04573  0.1799  0.6857
6.542e+09  0.4125  0.8687  -0.0121  -0.005939  0.005027  0.03717  0.4486  0.5987
6.544e+09  0.6778  0.6832  -0.0102  0.02232  0.005443  0.01468  0.5923  0.4154
6.545e+09  0.8514  0.4218  -0.01617  0.007934  -0.007145  0.004616  0.6921  0.1909
6.546e+09  1.008  0.04174  -0.02095  0.02689  0.03711  -0.01597  0.7199  -0.08341
6.548e+09  0.9367  -0.2243  0.01355  0.03064  -0.03242  -0.01937  0.6643  -0.3117
6.549e+09  0.7975  -0.5821  -0.009533  0.03238  0.001078  -0.02131  0.4885  -0.5158
6.55e+09  0.5702  -0.8446  -0.03337  0.01116  -0.01354  -0.001857  0.2971  -0.6784
