# Hz S RI R 50
6.25e+09  -0.3808  0.7563  0.0007585  0.003707  0.005836  -0.06675  0.1323  0.4775
6.251e+09  -0.1758  0.8455  -0.01277  -0.02965  -0.01841  -0.01309  0.3763  0.4147
6.252e+09  0.1653  0.8599  0.001602  -0.004664  -0.0242  0.04187  0.5571  0.2297
6.254e+09  0.4831  0.7269  0.01139  0.001151  -0.06505  0.01253  0.62  0.004745
6.255e+09  0.6242  0.5267  -0.01458  0.01964  -0.00197  -0.01455  0.6432  -0.2163
6.256e+09  0.7829  0.2653  0.008491  -0.01541  -0.03852  0.01575  0.4782  -0.4531
6.258e+09  0.8535  -0.01447  -0.03528  0.01148  -0.0242  0.02819  0.2745  -0.6133
6.259e+09  0.7464  -0.2354  -0.002102  0.01574  -0.02725  0.0001112  0.04269  -0.6958
6.26e+09  0.6254  -0.5829  0.02007  0.02471  -0.03636  -0.02528  -0.1944  -0.6597
6.261e+09  0.4363  -0.7198  0.01488  0.02076  0.0184  -0.029  -0.4255  -0.5165
6.262e+09  0.1314  -0.8455  -6.116e-06  -0.01653  0.009548  0.01424  -0.6403  -0.3601
6.264e+09  -0.1323  -0.869  -0.006083  -0.002321  0.006549  0.05749  -0.7053  -0.07629
6.265e+09  -0.4599  -0.6987  -0.004608  -0.01791  0.00939  -0.008677  -0.7092  0.1671
6.266e+09  -0.6565  -0.553  0.006781  0.02356  -0.01785  -0.02246  -0.6061  0.3914
6.268e+09  -0.825  -0.2939  -0.01791  -0.008476  0.03343  -0.004962  -0.447  0.5819
6.269e+09  -0.8128  0.04328  0.04068  0.01098  -0.07898  -0.01265  -0.2078  0.7265
6.27e+09  -0.7451  0.263  -0.01357  -5.871e-05  0.01397  -0.01234  0.0639  0.7403
6.271e+09  -0.5377  0.5763  -0.01635  0.0009115  -0.0139  0.01523  0.3204  0.651
6.272e+09  -0.4071  0.7586  -0.04921  -0.008694  0.02535  0.002405  0.5808  0.5132
6.274e+09  -0.1302  0.8419  0.004161  -0.01383  0.02566  0.009981  0.6944  0.2961
6.275e+09  0.2189  0.8353  -0.0004955  0.003679  -0.05568  -0.01747  0.739  0.04248
6.276e+09  0.443  0.6843  -0.03256  0.02145  -8.456e-05  -0.01467  0.7492  -0.2267
6.278e+09  0.6693  0.5012  -0.001434  0.004948  -0.05383  -0.0256  0.5717  -0.4546
6.279e+09  0.8317  0.2687  0.003947  -0.01692  0.0322  0.0679  0.4306  -0.6133
6.28e+09  0.8397  -0.01279  -0.004034  0.01311  0.04899  0.0126  0.1632  -0.7633
6.281e+09  0.7259  -0.3034  -0.01983  -0.005399  -0.0551  -0.04554  -0.1038  -0.775
6.282e+09  0.5861  -0.5467  0.01831  0.003389  -0.007751  0.02055  -0.3577  -0.6721
6.284e+09  0.3073  -0.7425  0.03132  0.009798  -0.03153  -0.009792  -0.583  -0.5129
6.285e+09  0.0837  -0.8402  0.01841  -0.001624  -0.049  -0.03184  -0.7397  -0.279
6.286e+09  -0.2155  -0.819  0.007887  0.009492  -0.01073  0.001634  -0.7683  -0.01101
6.288e+09  -0.4438  -0.7017  -0.0008079  -0.01588  0.001886  0.02231  -0.7473  0.2757
6.289e+09  -0.6712  -0.5038  -0.002212  0.01363  -0.0004579  0.01281  -0.604  0.5329
6.29e+09  -0.7712  -0.2512  -0.0004103  -0.01975  0.04035  0.002174  -0.4264  0.7163
6.291e+09  -0.8398  0.05446  0.01019  0.02153  0.01386  -0.01788  -0.1364  0.7973
6.292e+09  -0.7604  0.3932  -0.009526  -0.02461  0.001472  -0.01374  0.1415  0.8083
6.294e+09  -0.6145  0.6001  -0.01534  -0.01291  0.02843  0.007342  0.3846  0.681
6.295e+09  -0.3924  0.7526  -0.0385  0.01475  0.001907  0.01033  0.6334  0.5535
6.296e+09  -0.06252  0.8172  -0.00639  -0.03461  -0.01083  -0.06857  0.7888  0.3166
6.298e+09  0.2579  0.8065  -0.01044  0.003042  0.009598  -0.04998  0.8313  -0.0121
6.299e+09  0.4941  0.626  -0.001056  0.0002185  0.01683  -0.03334  0.7818  -0.2863
6.3e+09  0.7171  0.4459  -0.0006256  -0.005106  0.02603  -0.07713  0.6426  -0.5093
6.301e+09  0.8014  0.1842  0.001003  0.00729  0.04814  0.0309  0.4279  -0.7113
6.302e+09  0.8487  -0.1032  -0.002944  -0.008005  -0.007299  0.00323  0.1482  -0.8566
6.304e+09  0.7422  -0.4224  0.003436  0.02535  0.03475  0.004768  -0.1362  -0.8468
6.305e+09  0.568  -0.5729  0.003025  -0.007993  -0.01716  0.01234  -0.408  -0.7186
6.306e+09  0.2887  -0.7918  -0.02722  0.006207  0.03063  -0.03889  -0.6928  -0.5445
6.308e+09  0.01199  -0.8609  -0.009456  0.03086  -0.0306  0.06979  -0.7858  -0.2742
6.309e+09  -0.309  -0.8308  0.008928  -0.004813  -0.0001804  0.009515  -0.8255  -0.02103
6.31e+09  -0.523  -0.6268  -0.02054  0.01969  -0.02751  -0.01563  -0.7934  0.3044
6.311e+09  -0.677  -0.4456  -0.007688  0.001002  -0.02979  0.03173  -0.6519  0.5824
6.312e+09  -0.8251  -0.1634  0.006797  -0.009417  -0.05639  -0.01074  -0.4565  0.7489
6.314e+09  -0.8419  0.1203  0.009832  0.009578  -0.006325  -0.036  -0.1385  0.8728
6.315e+09  -0.7419  0.4278  -0.01238  0.02047  0.01453  0.01905  0.1325  0.8747
6.316e+09  -0.5663  0.6135  0.04188  0.01912  0.005736  -0.02505  0.4645  0.7408
6.318e+09  -0.3017  0.7815  0.002421  0.06643  -0.008592  0.03488  0.6622  0.5551
6.319e+09  0.02235  0.8458  0.02934  0.01636  0.03667  0.01801  0.8714  0.2917
6.32e+09  0.24  0.786  0.009198  0.01334  -0.01054  0.03418  0.8818  0.03385
6.321e+09  0.5215  0.5913  0.03358  -0.009941  -0.02825  0.01679  0.8301  -0.312
6.322e+09  0.7156  0.4414  0.01444  0.01263  -0.004953  0.02589  0.6925  -0.5296
6.324e+09  0.8467  0.1413  0.003866  -0.009362  -0.0131  -0.02091  0.4687  -0.7968
6.325e+09  0.845  -0.1244  0.01088  -0.008266  -0.02096  0.01908  0.1712  -0.8876
6.326e+09  0.7699  -0.5036  0.0006853  -0.02116  0.0376  0.006577  -0.1444  -0.8727
6.328e+09  0.5379  -0.6501  -0.02064  -0.01717  0.005256  0.03447  -0.4685  -0.7707
6.329e+09  0.2689  -0.8723  -0.02914  -0.04377  0.06826  0.02919  -0.6725  -0.6111
6.33e+09  -0.01477  -0.8523  -0.0002461  0.002604  0.02516  -0.004383  -0.8329  -0.3494
6.331e+09  -0.3349  -0.7333  -0.01519  -0.002881  0.01179  0.01911  -0.9223  -0.002657
6.332e+09  -0.5966  -0.666  0.01114  0.00993  0.03925  -0.01052  -0.8795  0.3073
6.334e+09  -0.8903  -0.3754  0.01185  0.02907  -0.03107  -0.02678  -0.7279  0.5295
6.335e+09  -0.8508  -0.03839  -0.005311  0.0059  -0.0138  -0.0007034  -0.4553  0.8127
6.336e+09  -0.7958  0.233  -0.001503  0.03319  -0.01825  0.009208  -0.1642  0.9165
6.338e+09  -0.6831  0.5152  0.007845  0.03273  0.01207  -0.02484  0.1315  0.8759
6.339e+09  -0.4611  0.7304  0.002728  -0.01707  0.04422  -0.002931  0.4127  0.8131
6.34e+09  -0.2068  0.8493  0.01054  -0.009193  -0.002292  0.005757  0.7138  0.6214
6.341e+09  0.09867  0.897  0.0006818  0.02369  0.02463  -0.0005845  0.8546  0.403
6.342e+09  0.3631  0.7886  -0.009359  -0.007442  0.02503  -0.043  0.9447  0.0361
6.344e+09  0.6278  0.5665  -0.0132  0.002667  0.01285  0.01826  0.8936  -0.3048
6.345e+09  0.8072  0.3116  0.0007968  -0.004296  0.01852  -0.01273  0.7552  -0.562
6.346e+09  0.9061  0.04152  -0.02885  0.009352  0.02101  -0.03083  0.512  -0.8131
6.348e+09  0.7573  -0.287  -0.02293  -0.01011  -0.01407  0.002587  0.1849  -0.899
6.349e+09  0.6753  -0.5519  -0.02318  -0.002494  0.001904  0.02512  -0.1463  -0.9324
6.35e+09  0.4561  -0.7697  0.00956  0.00363  0.05991  -0.02052  -0.4693  -0.8478
6.351e+09  0.1762  -0.8795  0.003515  -0.002622  0.03973  -0.02704  -0.694  -0.649
6.352e+09  -0.1435  -0.8713  0.02071  0.006995  0.014  0.03214  -0.8453  -0.3847
6.354e+09  -0.4588  -0.7953  -0.01642  -0.01694  0.01019  -0.008404  -0.9547  -0.04095
6.355e+09  -0.714  -0.5194  0.05632  0.03529  -0.03018  0.09245  -0.9081  0.2483
6.356e+09  -0.865  -0.2696  0.01615  0.01691  0.008915  -0.01574  -0.748  0.5374
6.358e+09  -0.8415  0.04893  -0.02664  0.01727  0.01288  -0.01051  -0.5691  0.7609
6.359e+09  -0.81  0.3806  0.006467  -0.02989  0.05423  0.008516  -0.2389  0.9534
6.36e+09  -0.6645  0.6008  0.01656  0.01643  -0.000813  -0.04912  0.1244  0.9219
6.361e+09  -0.419  0.7453  -0.002534  0.002033  -0.01201  -0.01904  0.4299  0.8607
6.362e+09  -0.1026  0.8463  -0.01143  0.01502  0.01605  -0.02581  0.6639  0.6342
6.364e+09  0.2098  0.8662  -0.03655  -0.01586  -0.03389  -0.004938  0.8643  0.3776
6.365e+09  0.4987  0.7387  0.006328  0.0438  0.003524  0.01616  1.001  0.07597
6.366e+09  0.7043  0.4808  0.006612  -0.006194  0.03305  0.01508  0.9347  -0.241
6.368e+09  0.8853  0.2412  -0.01392  -0.003393  0.01921  0.06027  0.762  -0.5014
6.369e+09  0.9114  -0.06974  0.006487  -0.02648  0.03437  0.003146  0.5537  -0.7985
6.37e+09  0.8058  -0.4002  -0.03641  -0.01747  0.002126  -0.02409  0.2666  -0.8938
6.371e+09  0.642  -0.6201  0.001484  0.01756  0.03426  0.005372  -0.1004  -0.9243
6.372e+09  0.3582  -0.7787  0.01302  -0.01337  -0.01268  -0.04699  -0.4023  -0.8354
6.374e+09  0.07641  -0.9003  0.00591  -0.04065  -0.003283  -0.02317  -0.6952  -0.6708
6.375e+09  -0.238  -0.8174  0.04095  0.02653  -0.02486  -0.005031  -0.8392  -0.3856
6.376e+09  -0.4991  -0.6696  -0.004304  0.007923  0.003083  0.009222  -0.9012  -0.1018
6.378e+09  -0.7348  -0.5138  0.02323  0.001274  0.01686  0.008974  -0.882  0.2228
6.379e+09  -0.887  -0.1631  0.01588  -0.00492  0.02237  0.004108  -0.7753  0.5364
6.38e+09  -0.8695  0.1198  0.01292  0.02205  -0.0144  0.02819  -0.5637  0.7811
6.381e+09  -0.8126  0.4563  -0.02056  0.02282  0.00965  -0.003544  -0.2606  0.8741
6.382e+09  -0.5826  0.6691  -0.002791  0.009757  -0.05784  0.01168  0.07911  0.9473
6.384e+09  -0.2983  0.863  -0.02766  -0.008396  0.01429  -0.01584  0.3678  0.8747
6.385e+09  0.0007837  0.8799  -0.01799  -0.02576  0.004384  -0.04159  0.6284  0.7006
6.386e+09  0.3294  0.8287  -0.01385  -0.004373  -0.02714  -0.01013  0.8175  0.3867
6.388e+09  0.5896  0.673  -0.0099  0.02123  -0.04371  -0.01351  0.9538  0.1469
6.389e+09  0.7555  0.4344  0.02253  0.01912  -0.0154  0.0126  0.9331  -0.2007
6.39e+09  0.9001  0.1657  0.02058  -0.009271  -0.00848  -0.04934  0.7976  -0.5212
6.391e+09  0.9  -0.158  -0.02021  -0.03321  -0.008018  0.02471  0.5521  -0.7355
6.392e+09  0.7288  -0.4693  -0.009925  -0.03544  0.006434  0.001418  0.3092  -0.8826
6.394e+09  0.5374  -0.6786  -0.0004997  -0.02311  -0.01807  0.01782  -0.04237  -0.9526
6.395e+09  0.2534  -0.836  -0.002091  -0.002148  -0.06062  -0.03895  -0.3206  -0.8555
6.396e+09  -0.05477  -0.8971  -0.03103  -0.0001397  -0.01642  -0.01064  -0.6522  -0.7119
6.398e+09  -0.3685  -0.8255  -0.01697  0.01501  0.003276  -0.001106  -0.8567  -0.4528
6.399e+09  -0.6143  -0.6635  0.03935  0.01973  0.0131  0.02247  -0.9306  -0.1187
6.4e+09  -0.8417  -0.4221  0.002439  -0.02637  -0.006297  0.03306  -0.8659  0.1516
6.401e+09  -0.8851  -0.08896  0.009173  0.01194  -0.03622  0.009417  -0.8156  0.4561
6.402e+09  -0.8618  0.21  0.01611  -0.006443  -0.008173  0.007517  -0.6316  0.7506
6.404e+09  -0.6904  0.4231  0.04616  0.01741  0.0214  -0.002584  -0.2572  0.9118
6.405e+09  -0.5187  0.7664  -0.01495  0.02717  -0.03818  0.003323  0.006971  0.9015
6.406e+09  -0.2503  0.8587  0.000965  -0.05138  0.04101  -0.02742  0.3207  0.8554
6.408e+09  0.05527  0.8504  -0.03574  -0.01429  0.01328  -0.004215  0.6141  0.7091
6.409e+09  0.3781  0.8215  0.004906  -0.0346  0.02367  0.03214  0.8076  0.475
6.41e+09  0.6085  0.637  0.06925  -0.03589  -0.05377  -0.008787  0.9402  0.1714
6.411e+09  0.7596  0.3711  -0.02226  0.01382  0.02052  0.0005335  0.9223  -0.09902
6.412e+09  0.8396  0.07042  -0.0275  -0.01755  0.0313  0.01613  0.845  -0.4406
6.414e+09  0.8629  -0.2285  0.01746  0.001247  -0.001066  0.0632  0.5975  -0.7189
6.415e+09  0.7074  -0.4804  -0.009918  -0.01797  -0.04459  0.0004539  0.3575  -0.8603
6.416e+09  0.5163  -0.7208  -0.02985  0.01341  0.0231  -0.01908  0.03712  -0.9141
6.418e+09  0.2  -0.8495  -0.03806  0.007578  0.0596  -0.003076  -0.2816  -0.8385
6.419e+09  -0.06934  -0.8828  0.03001  0.003118  0.0399  0.04014  -0.5688  -0.7346
6.42e+09  -0.3743  -0.8052  0.0168  -0.01832  0.02234  0.01721  -0.7432  -0.4997
6.421e+09  -0.646  -0.7154  -0.01176  -0.009466  -0.07207  0.0002843  -0.8764  -0.1925
6.422e+09  -0.7787  -0.3641  -0.02244  0.02114  -0.03775  -0.01141  -0.9091  0.09541
6.424e+09  -0.8735  -0.07076  -0.0393  0.04373  0.02581  0.03803  -0.7623  0.4043
6.425e+09  -0.8642  0.2382  -0.01203  0.001889  -0.02377  -0.009079  -0.6184  0.5984
6.426e+09  -0.6994  0.4637  -0.01555  -0.006713  0.004773  0.02044  -0.3427  0.8187
6.428e+09  -0.4571  0.7374  -0.004551  0.01167  0.03547  0.005488  -0.06132  0.8376
6.429e+09  -0.218  0.8434  -0.01562  -0.00504  -0.002075  0.0422  0.2356  0.8474
6.43e+09  0.05952  0.8749  0.01325  0.008749  0.01161  0.05879  0.5089  0.7206
6.431e+09  0.4392  0.8097  -0.00748  0.06193  -0.01005  -0.02613  0.7461  0.4431
6.432e+09  0.6481  0.6382  0.00471  0.005035  -0.04224  -0.01986  0.8279  0.1822
6.434e+09  0.8198  0.3286  0.05826  0.07178  -0.04728  0.04136  0.893  -0.04404
6.435e+09  0.9075  0.03849  0.02655  0.03523  -0.001419  -0.04429  0.7589  -0.3792
6.436e+09  0.7836  -0.2275  0.02796  -0.02255  0.04441  0.00866  0.5587  -0.6437
6.438e+09  0.6929  -0.5039  0.01713  0.03997  0.0103  0.04243  0.3644  -0.8038
6.439e+09  0.5126  -0.7321  -0.001472  -0.008679  0.02146  -0.01233  0.09859  -0.9041
6.44e+09  0.2277  -0.8644  -0.008483  -0.007671  0.02813  -0.002145  -0.2044  -0.7918
6.441e+09  -0.1211  -0.9093  0.004241  0.00229  -0.01222  0.02887  -0.5007  -0.7316
6.442e+09  -0.4219  -0.8287  0.01795  0.02169  -0.03032  -0.009093  -0.7257  -0.4248
6.444e+09  -0.6843  -0.6436  0.0111  -0.00309  -0.009615  -0.01027  -0.8418  -0.207
6.445e+09  -0.7432  -0.3647  0.02587  0.007472  0.04183  0.01573  -0.8364  0.08331
6.446e+09  -0.867  -0.1486  -0.01068  -0.02162  0.0346  -0.03251  -0.7651  0.3663
6.448e+09  -0.875  0.2612  0.06272  0.007246  -0.04037  0.04089  -0.6083  0.5909
6.449e+09  -0.7171  0.56  0.03142  0.01321  0.02185  -0.01666  -0.3178  0.776
6.45e+09  -0.4746  0.7057  -0.03037  -0.006302  0.009629  0.01326  -0.07144  0.8674
6.451e+09  -0.1846  0.8578  -0.04992  0.008547  0.03154  0.02895  0.2719  0.7851
6.452e+09  0.0959  0.8683  0.006146  0.0246  0.02187  -0.01679  0.4717  0.6983
6.454e+09  0.4186  0.7905  0.01659  -0.02469  -0.004374  -0.004954  0.6923  0.4334
6.455e+09  0.7313  0.6565  0.003054  0.006172  -0.0238  0.0477  0.8121  0.1862
6.456e+09  0.8296  0.3037  0.001972  0.01687  -0.03406  -0.0408  0.8102  -0.05681
6.458e+09  0.9139  0.0486  -0.002091  -0.005727  -0.02771  -0.0169  0.7571  -0.3606
6.459e+09  0.8888  -0.2365  -0.005108  0.0155  0.02257  -0.01721  0.5743  -0.611
6.46e+09  0.7474  -0.5407  -0.006617  -0.007849  -0.03849  -0.08393  0.3213  -0.7657
6.461e+09  0.415  -0.7933  -0.01905  0.06337  0.0277  -0.03273  0.07699  -0.8436
6.462e+09  0.1958  -0.8488  0.01998  -0.03049  0.05521  -0.01809  -0.2298  -0.7601
6.464e+09  -0.1071  -0.9186  -0.02714  -0.02618  -0.05038  -0.01224  -0.4735  -0.6365
6.465e+09  -0.3825  -0.7782  -0.01513  0.01061  -0.03713  0.04423  -0.6512  -0.4543
6.466e+09  -0.6439  -0.6464  0.02915  0.02093  -0.01749  -0.03033  -0.7537  -0.2502
6.468e+09  -0.8257  -0.3141  -0.02942  0.005967  -0.05022  -0.006847  -0.7702  0.02597
6.469e+09  -0.9645  -0.05121  -0.03435  0.0001994  0.02366  0.05973  -0.7515  0.3653
6.47e+09  -0.8511  0.3045  0.012  0.0326  -0.05999  0.006442  -0.5653  0.5665
6.471e+09  -0.7715  0.5581  -0.05243  -0.03703  0.01009  -0.05582  -0.36  0.6929
6.472e+09  -0.4718  0.7534  0.02213  -0.002012  0.02389  -0.01425  -0.07654  0.77
6.474e+09  -0.1466  0.8732  -0.0536  -0.003046  0.006152  0.04323  0.222  0.7829
6.475e+09  0.1162  0.8615  -0.01051  0.00893  0.02003  0.002441  0.4995  0.6409
6.476e+09  0.4388  0.8349  -0.05129  0.0138  -0.02468  0.0199  0.6649  0.4575
6.478e+09  0.6259  0.5693  0.008549  0.02902  0.01714  -0.04387  0.7524  0.2006
6.479e+09  0.8285  0.3468  -0.0489  -0.01757  -0.003162  0.03963  0.8179  -0.08558
6.48e+09  0.9377  0.03664  0.003383  -0.0004284  0.02173  -0.04094  0.7591  -0.3353
6.481e+09  0.8981  -0.293  0.01651  -0.03197  -0.03556  0.007974  0.5529  -0.5708
6.482e+09  0.7032  -0.5661  0.0114  -0.01864  -0.01933  0.0357  0.2773  -0.7355
6.484e+09  0.5098  -0.8075  0.02084  0.04172  -0.01849  0.03993  0.06577  -0.7774
6.485e+09  0.1531  -0.9383  -0.001487  0.02607  -0.01867  -0.00727  -0.1897  -0.7425
6.486e+09  -0.1097  -0.8938  0.01676  -0.02413  0.0269  -0.01033  -0.5055  -0.5916
6.488e+09  -0.4392  -0.8149  -0.02109  -0.03186  0.06209  -0.04073  -0.6067  -0.3643
6.489e+09  -0.7284  -0.5711  -0.000195  -0.02275  0.007751  -0.01196  -0.7402  -0.1555
6.49e+09  -0.8415  -0.3502  0.01474  0.004355  -0.03926  -0.0105  -0.7566  0.111
6.491e+09  -0.9112  -0.009057  -0.0103  0.009731  0.03747  -0.04447  -0.7562  0.3284
6.492e+09  -0.8321  0.3489  -0.002268  0.01531  -0.008198  -0.009651  -0.5294  0.5768
6.494e+09  -0.7757  0.5961  -0.01705  -0.02538  -0.04263  0.01628  -0.2793  0.7175
6.495e+09  -0.4644  0.802  -0.01127  -0.008239  -0.002888  0.01872  -0.01422  0.7754
6.496e+09  -0.1236  1.014  0.006802  -0.01074  0.03284  0.00651  0.2245  0.7179
6.498e+09  0.1857  0.8853  -0.005545  -0.01305  0.01432  -0.0544  0.504  0.6062
6.499e+09  0.4602  0.8425  0.00711  0.0686  0.01387  -0.05879  0.6352  0.3948
6.5e+09  0.685  0.5758  -0.01277  0.01982  -0.04261  0.03781  0.7455  0.1877
6.501e+09  0.8767  0.2977  0.0281  0.03628  0.02219  -0.04689  0.7722  -0.06768
6.502e+09  0.9105  -0.05164  -0.02632  0.03538  0.00102  -0.01962  0.6638  -0.4176
6.504e+09  0.8841  -0.3262  0.0112  0.0468  0.01999  -0.002118  0.5415  -0.5794
6.505e+09  0.7099  -0.6063  -0.01816  -0.009423  0.03167  0.004342  0.2662  -0.7255
6.506e+09  0.48  -0.8417  -0.004589  -0.009649  0.006892  -0.01195  0.01907  -0.7861
6.508e+09  0.1173  -0.9264  0.02081  0.0126  -0.03686  -0.02422  -0.2523  -0.7013
6.509e+09  -0.2154  -0.8978  0.02313  0.009633  0.009946  0.02478  -0.5044  -0.5713
6.51e+09  -0.5236  -0.8024  0.005219  -9.285e-05  0.01075  0.01775  -0.639  -0.3946
6.511e+09  -0.762  -0.5367  -0.01824  -0.01018  0.02211  0.0445  -0.7427  -0.1398
6.512e+09  -0.8953  -0.2883  0.02448  -0.01198  0.04106  0.005349  -0.7495  0.1194
6.514e+09  -0.9251  0.1111  0.008912  -0.009886  0.0002203  0.06241  -0.661  0.3726
6.515e+09  -0.921  0.354  0.01659  0.007995  0.04462  0.006912  -0.5147  0.6154
6.516e+09  -0.7717  0.6551  -0.03403  -0.0354  -0.0277  -0.06963  -0.2529  0.7003
6.518e+09  -0.4449  0.9114  0.00198  -0.02282  0.04588  -0.03666  -0.003896  0.7599
6.519e+09  -0.1315  0.9774  0.008625  0.0003317  -0.0007954  0.04812  0.2727  0.7434
6.52e+09  0.2641  0.8887  -0.006339  -0.0142  0.01084  -0.01848  0.4822  0.5641
6.521e+09  0.5513  0.7927  -0.02565  -0.003784  0.03064  0.02979  0.6435  0.3425
6.522e+09  0.8332  0.5166  -0.04382  -0.0002573  0.004676  0.007771  0.7169  0.1283
6.524e+09  0.9728  0.2711  0.01747  -0.008815  -0.04549  -0.0226  0.7122  -0.1651
6.525e+09  0.9872  -0.09459  -0.0003714  -0.005972  -0.0009339  0.01623  0.5738  -0.4285
6.526e+09  0.8433  -0.4128  0.001794  0.0009734  -0.008421  0.003581  0.4444  -0.5794
6.528e+09  0.6986  -0.7424  0.01817  -0.01662  -0.03217  0.01722  0.242  -0.7053
6.529e+09  0.4103  -0.927  0.02689  0.001121  0.008836  -0.01453  -0.06689  -0.7095
6.53e+09  0.05602  -0.9443  -0.02228  -0.01022  -0.005034  0.01917  -0.2642  -0.6259
6.531e+09  -0.3317  -0.9267  -0.004577  0.03378  -0.001538  -0.00742  -0.4557  -0.495
6.532e+09  -0.647  -0.756  0.0359  0.02159  0.01537  0.03385  -0.5849  -0.2582
6.534e+09  -0.8064  -0.4721  -0.01947  -0.01422  0.02617  0.004444  -0.6471  -0.06209
6.535e+09  -0.9828  -0.1809  -0.02845  -0.005961  0.003614  -0.03918  -0.6147  0.0981
6.536e+09  -1.017  0.1935  -0.001003  -0.04298  -0.02591  0.03993  -0.5866  0.3182
6.538e+09  -0.8743  0.4453  -0.03333  -0.03776  0.01965  -0.03917  -0.46  0.5049
6.539e+09  -0.627  0.7988  0.01199  0.0379  0.01487  -0.001782  -0.2578  0.6067
6.54e+09  -0.2511  0.9193  -0.01575  0.01592  0.02313  -0.0003901  -0.06738  0.6921
6.541e+09  0.04156  1.001  0.03087  0.01553  -0.03045  0.02661  0.181  0.6783
6.542e+09  0.3582  0.9171  0.01125  0.01687  0.03989  -0.01802  0.3997  0.5714
6.544e+09  0.6284  0.769  -0.01793  -0.03335  0.001923  0.02452  0.6068  0.4186
6.545e+09  0.7877  0.4936  -0.01403  0.01277  0.03594  0.01322  0.7067  0.1431
6.546e+09  0.9494  0.1078  0.008071  0.008018  0.01526  -0.0319  0.7268  -0.1043
6.548e+09  0.98  -0.2539  0.01981  -0.02748  0.01895  -0.02722  0.6715  -0.2961
6.549e+09  0.7645  -0.4783  0.01575  -0.008527  -0.05376  0.04761  0.5061  -0.5095
6.55e+09  0.5567  -0.783  0.001663  -0.0003186  0.02465  0.004633  0.3091  -0.6861
