# Hz S RI R 50
6.25e+09  -0.6705  0.5703  0.0002618  0.023  0.02173  0.03746  0.1782  0.4837
6.251e+09  -0.4232  0.7626  -0.005791  -0.03172  -0.001183  0.03659  0.3893  0.4041
6.252e+09  -0.1595  0.867  -0.00591  -0.0142  0.01156  0.02838  0.5231  0.2393
6.254e+09  0.1445  0.8426  0.03467  0.004229  0.01932  0.001067  0.6316  0.00571
6.255e+09  0.448  0.7362  0.02798  -0.006265  -0.03486  -0.003045  0.5761  -0.2216
6.256e+09  0.6708  0.5589  -0.03331  0.009204  -0.02698  -0.04324  0.4735  -0.4961
6.258e+09  0.7612  0.2871  -0.03625  -0.03116  0.02061  -0.02238  0.2592  -0.5708
6.259e+09  0.8008  0.05946  -0.003882  0.02466  0.0003677  -0.06415  0.06024  -0.6575
6.26e+09  0.7381  -0.2883  0.01159  -0.01298  0.007653  0.01415  -0.1666  -0.6951
6.261e+09  0.6303  -0.5493  -0.008502  0.01471  -0.04036  -0.05801  -0.4295  -0.5538
6.262e+09  0.3985  -0.6726  0.03172  -0.01752  -0.0007174  0.03626  -0.5831  -0.3588
6.264e+09  0.1415  -0.8226  0.008572  -0.03272  0.05048  0.005898  -0.6838  -0.1193
6.265e+09  -0.09662  -0.8518  0.02114  0.02193  -0.02046  -0.01506  -0.6796  0.1356
6.266e+09  -0.4055  -0.6894  0.02163  -0.001094  -0.03513  -0.01739  -0.6019  0.4076
6.268e+09  -0.6118  -0.5372  0.006674  0.002125  0.005698  0.01595  -0.4485  0.5609
6.269e+09  -0.8139  -0.2796  0.02002  -0.004792  0.01908  -0.03784  -0.2196  0.6839
6.27e+09  -0.8083  0.001937  -0.02152  0.01803  -0.01792  0.003833  0.08358  0.7125
6.271e+09  -0.7181  0.2615  -0.003287  -0.008441  0.07686  0.02866  0.3454  0.6794
6.272e+09  -0.6047  0.5745  -0.04418  -0.0162  0.05463  0.02365  0.5384  0.5591
6.274e+09  -0.4539  0.7537  -0.01816  -0.00518  0.03188  -0.02991  0.6926  0.3082
6.275e+09  -0.1162  0.841  0.01649  -0.004905  -0.00281  0.02649  0.7797  0.07721
6.276e+09  0.1427  0.7987  0.0008923  0.02644  0.0001832  -0.003118  0.7144  -0.2185
6.278e+09  0.4218  0.6972  -0.01366  -0.005391  0.02962  0.04347  0.5908  -0.4483
6.279e+09  0.6229  0.5327  -0.005608  -0.0003793  0.04292  0.0003686  0.4283  -0.6257
6.28e+09  0.7566  0.2713  0.002782  0.008001  0.009478  -0.001459  0.1793  -0.7732
6.281e+09  0.7919  0.0129  0.01399  -0.003466  -0.01401  0.001192  -0.1163  -0.7594
6.282e+09  0.7685  -0.2972  0.01967  -0.001685  -0.004073  -0.02341  -0.3766  -0.6271
6.284e+09  0.5649  -0.5807  0.008105  0.0115  0.0125  0.01184  -0.6086  -0.5295
6.285e+09  0.4044  -0.7166  -0.00957  0.00684  -0.005481  -0.0376  -0.7404  -0.305
6.286e+09  0.1227  -0.8135  0.0006273  -0.003542  -0.02814  -0.02098  -0.7818  0.003182
6.288e+09  -0.1746  -0.7846  -0.02499  -0.01229  0.01578  0.01826  -0.7701  0.2295
6.289e+09  -0.4232  -0.6799  -0.0153  -0.006909  -0.01853  0.01517  -0.5973  0.5177
6.29e+09  -0.6351  -0.4718  -0.009487  -0.009244  -0.02181  0.01339  -0.4095  0.6737
6.291e+09  -0.8337  -0.2195  -0.02349  0.03838  0.0009125  -0.01147  -0.1568  0.7878
6.292e+09  -0.8166  -0.00519  -0.01526  -0.00385  0.008779  -0.001063  0.119  0.8087
6.294e+09  -0.8096  0.3096  -0.009678  0.009334  -0.02023  -0.002065  0.42  0.7074
6.295e+09  -0.5892  0.5723  -0.005458  -0.02371  0.01661  -0.03604  0.6272  0.5541
6.296e+09  -0.4094  0.7529  0.02543  0.007556  0.06784  0.008219  0.7814  0.3211
6.298e+09  -0.0696  0.8264  0.01419  -0.01462  0.05743  -0.01773  0.8252  -0.01873
6.299e+09  0.243  0.8025  -0.01144  -0.0008696  -0.05765  0.008807  0.7829  -0.2886
6.3e+09  0.5104  0.6717  0.02751  0.003579  -0.01732  0.03111  0.5838  -0.5325
6.301e+09  0.6763  0.4964  -0.01831  -0.03442  -0.02341  -0.01471  0.4267  -0.692
6.302e+09  0.8505  0.2186  -0.01893  0.02118  -0.01429  0.0005753  0.1374  -0.8198
6.304e+09  0.8478  -0.04951  -0.008669  -0.01647  0.03879  -0.01686  -0.1393  -0.8236
6.305e+09  0.7761  -0.3155  -0.01181  0.03649  -0.04725  -0.02688  -0.424  -0.7561
6.306e+09  0.6119  -0.5851  0.016  0.04437  -0.02879  0.04676  -0.6628  -0.5579
6.308e+09  0.3691  -0.7222  -0.02792  -0.02817  0.04527  -0.05642  -0.7742  -0.3011
6.309e+09  0.03547  -0.8255  0.02109  -0.005478  -0.03808  0.05638  -0.8502  -0.01062
6.31e+09  -0.2312  -0.8639  -0.00573  -0.01004  0.02294  -0.02372  -0.8151  0.3353
6.311e+09  -0.4731  -0.6999  -0.009731  0.01197  -0.01219  0.002745  -0.6614  0.5615
6.312e+09  -0.6702  -0.4521  0.02675  -0.0007104  -0.03461  0.01031  -0.4464  0.771
6.314e+09  -0.8257  -0.2248  -0.04994  -0.008401  0.01147  -0.01729  -0.1538  0.8861
6.315e+09  -0.8297  0.1202  0.01882  0.01724  -0.01676  0.04168  0.1371  0.8889
6.316e+09  -0.7554  0.3192  -0.02787  -0.007684  -0.008594  -0.002676  0.4067  0.7791
6.318e+09  -0.5375  0.6338  0.01126  0.001619  0.004068  0.0377  0.686  0.5482
6.319e+09  -0.3117  0.8066  -0.0005064  -0.02285  0.07384  -0.005491  0.8375  0.3317
6.32e+09  0.009125  0.8639  0.01809  0.009412  -0.01744  0.0328  0.9218  0.02221
6.321e+09  0.3022  0.8264  -0.01114  -0.02783  0.01529  0.006212  0.8286  -0.2793
6.322e+09  0.5241  0.666  0.01966  0.007324  0.01873  0.003695  0.6804  -0.5783
6.324e+09  0.6886  0.4279  -0.01026  -0.01798  0.02478  -0.06278  0.4682  -0.782
6.325e+09  0.8703  0.1579  0.002388  0.03991  -0.007927  -0.005559  0.1643  -0.8752
6.326e+09  0.8346  -0.1201  0.001703  0.01583  0.02637  0.02795  -0.1372  -0.9009
6.328e+09  0.7689  -0.4512  0.01772  0.005062  -0.00461  -0.01543  -0.4128  -0.793
6.329e+09  0.5709  -0.6883  -0.002249  0.02055  -0.02787  -0.007513  -0.6922  -0.6181
6.33e+09  0.2798  -0.7859  0.01792  -0.02272  -0.04597  -0.006164  -0.8007  -0.3448
6.331e+09  0.00038  -0.8473  0.01137  -0.01508  0.01499  0.004026  -0.934  -0.05098
6.332e+09  -0.3213  -0.805  0.00598  -0.03151  0.03069  0.009529  -0.89  0.287
6.334e+09  -0.5533  -0.6504  -0.01399  -0.01489  -0.02771  -0.03888  -0.7257  0.5628
6.335e+09  -0.71  -0.4121  0.005243  0.02837  -9.399e-05  -0.01525  -0.5062  0.8104
6.336e+09  -0.8566  -0.1353  0.009327  -0.03213  -0.02293  -0.001882  -0.1961  0.8803
6.338e+09  -0.8483  0.2067  0.03263  0.01353  -0.01563  0.00308  0.1293  0.9211
6.339e+09  -0.713  0.4707  -0.007701  -0.02312  0.01179  0.0215  0.4332  0.8095
6.34e+09  -0.5357  0.6853  -0.008059  -0.01327  -0.0178  0.01304  0.6779  0.6295
6.341e+09  -0.2222  0.833  0.03044  0.03442  0.001053  0.003816  0.8731  0.3517
6.342e+09  0.1334  0.8449  0.001513  0.007379  -0.04909  -0.0429  0.9416  0.04594
6.344e+09  0.4148  0.7608  0.01739  0.01511  -0.02  0.03229  0.8988  -0.2948
6.345e+09  0.6904  0.6015  -0.005648  0.003958  -0.06227  -0.03688  0.7281  -0.5694
6.346e+09  0.806  0.3852  -0.01175  -0.002047  -0.04466  0.01721  0.5035  -0.7866
6.348e+09  0.8416  0.03436  -0.01647  0.008698  -0.01513  0.03051  0.1771  -0.9126
6.349e+09  0.8543  -0.2332  -0.03142  -0.001746  -0.01294  -0.01051  -0.1185  -0.9088
6.35e+09  0.7176  -0.5055  -0.0135  -0.01034  0.009155  -0.007787  -0.3912  -0.8441
6.351e+09  0.4611  -0.7565  -0.01823  -0.00728  -0.01344  0.02884  -0.6836  -0.6289
6.352e+09  0.1878  -0.8483  -0.000978  -0.02851  -0.02253  -0.01165  -0.8641  -0.356
6.354e+09  -0.09416  -0.8429  0.01147  -0.05177  -0.002815  0.01401  -0.9399  -0.05715
6.355e+09  -0.4673  -0.7548  -0.02654  0.01872  0.003864  0.01939  -0.9225  0.2612
6.356e+09  -0.6683  -0.5736  0.02116  0.009048  0.03012  -0.02354  -0.7587  0.5466
6.358e+09  -0.8365  -0.358  -0.005623  0.0323  0.04982  0.0105  -0.5108  0.7797
6.359e+09  -0.8802  -0.0554  -0.01612  -0.008066  -0.006886  0.01823  -0.204  0.9517
6.36e+09  -0.8829  0.334  0.003284  0.02554  0.005577  -0.01608  0.08415  0.9421
6.361e+09  -0.7243  0.5636  0.01876  0.01826  0.03446  0.007273  0.4002  0.8351
6.362e+09  -0.4092  0.7608  -0.01397  -0.01825  0.05263  0.01493  0.6698  0.6831
6.364e+09  -0.16  0.8166  -0.008648  -0.02119  0.01313  0.01627  0.8775  0.389
6.365e+09  0.215  0.8714  0.03145  -0.02123  0.007502  -0.01706  0.93  0.07873
6.366e+09  0.5155  0.7314  -0.002216  0.02794  0.01867  0.01903  0.9516  -0.2533
6.368e+09  0.6632  0.5124  -0.02292  -0.003338  -0.02169  -0.0006948  0.7432  -0.5419
6.369e+09  0.8512  0.2562  -0.02422  0.0073  0.02794  0.04555  0.5136  -0.7904
6.37e+09  0.9147  -0.07516  0.03728  0.007231  -0.03234  0.007852  0.213  -0.936
6.371e+09  0.7936  -0.3954  0.01765  -0.02216  0.01246  -0.01807  -0.07915  -0.9603
6.372e+09  0.636  -0.6037  -0.005475  0.02985  0.04427  0.03395  -0.4039  -0.8855
6.374e+09  0.3553  -0.8013  0.03777  0.01614  0.02203  -0.003065  -0.6498  -0.655
6.375e+09  0.07979  -0.9677  0.02685  0.01926  0.02039  -0.00726  -0.8407  -0.4097
6.376e+09  -0.2613  -0.8453  0.03087  -0.01614  0.00998  0.02411  -0.942  -0.08089
6.378e+09  -0.5441  -0.7457  -0.007155  -0.04095  -0.02208  -0.03232  -0.914  0.2062
6.379e+09  -0.734  -0.4713  0.02219  0.02162  0.0235  0.02186  -0.7635  0.4988
6.38e+09  -0.8556  -0.2535  -0.02802  -0.02209  -0.01355  0.002322  -0.5912  0.7323
6.381e+09  -0.8686  0.123  0.06802  0.00345  -0.03235  -0.003066  -0.2741  0.9412
6.382e+09  -0.8254  0.4528  -0.01362  0.01878  0.004839  -0.03239  0.0734  0.9544
6.384e+09  -0.5864  0.6623  -0.02492  -0.004221  -0.05745  0.01947  0.4135  0.8653
6.385e+09  -0.3168  0.7856  -0.01806  0.01305  -0.05205  0.008444  0.6144  0.6418
6.386e+09  -0.01928  0.9016  0.02067  0.02821  -0.002108  0.0496  0.8231  0.4603
6.388e+09  0.2902  0.8492  0.03995  -0.03924  -0.009181  -0.03752  0.9289  0.1106
6.389e+09  0.5715  0.7165  -0.01829  -0.02845  -0.02818  -0.04831  0.9288  -0.2165
6.39e+09  0.7841  0.4771  0.05387  -0.005651  -0.009611  0.02296  0.7766  -0.5173
6.391e+09  0.8613  0.1177  0.01235  -0.04839  -0.04647  -0.02308  0.5603  -0.6827
6.392e+09  0.8675  -0.1699  -0.04256  -0.01311  -0.0416  0.01352  0.3001  -0.8927
6.394e+09  0.771  -0.4589  -0.002966  0.009356  0.0276  -0.007522  0.003263  -0.9371
6.395e+09  0.5571  -0.7032  -0.02626  -0.02254  0.05325  0.003023  -0.3405  -0.8333
6.396e+09  0.2777  -0.8594  -0.01303  0.009432  0.02134  0.01526  -0.6252  -0.6862
6.398e+09  -0.04693  -0.9046  0.0113  0.01744  -0.01726  -0.01  -0.7928  -0.4226
6.399e+09  -0.2837  -0.8279  -0.03193  0.0213  0.01769  -0.02108  -0.9463  -0.1731
6.4e+09  -0.5876  -0.6401  0.02916  -0.02645  0.0004165  -0.01464  -0.9078  0.1993
6.401e+09  -0.8108  -0.3849  -0.002761  0.02523  0.007811  0.002692  -0.777  0.51
6.402e+09  -0.8878  -0.136  0.0436  -0.03202  -0.02307  0.01192  -0.578  0.7408
6.404e+09  -0.897  0.2236  -0.02949  -0.01266  0.02037  -0.007417  -0.3712  0.8463
6.405e+09  -0.7597  0.4805  0.01798  0.01704  -0.01172  -0.06457  0.04926  0.8901
6.406e+09  -0.5481  0.7161  -0.05242  -0.02435  0.03367  0.0007275  0.265  0.8559
6.408e+09  -0.2465  0.8433  0.01799  -0.001314  -0.002519  -0.002527  0.6249  0.6936
6.409e+09  0.0798  0.849  0.0294  0.009195  0.03818  0.009432  0.8008  0.4761
6.41e+09  0.3208  0.844  -0.02419  0.01754  -0.004673  -0.02442  0.8777  0.1853
6.411e+09  0.6137  0.6378  0.004337  0.007086  -0.03592  0.002189  0.8986  -0.1447
6.412e+09  0.8183  0.3541  0.03957  0.0468  0.0104  0.005712  0.8032  -0.4379
6.414e+09  0.9126  0.05705  0.0198  0.03151  -0.04842  -0.01551  0.6197  -0.7011
6.415e+09  0.8617  -0.2163  0.007589  0.01448  0.01082  -0.05151  0.3086  -0.8224
6.416e+09  0.7324  -0.496  0.04203  0.003485  -0.01609  0.01168  0.0405  -0.8862
6.418e+09  0.5038  -0.7521  -0.02733  0.05469  -0.004699  -0.01357  -0.2708  -0.8918
6.419e+09  0.2024  -0.8573  -0.02201  0.02397  -0.01174  0.01147  -0.5647  -0.698
6.42e+09  -0.07497  -0.8715  0.006432  -0.0009245  0.002728  0.02287  -0.7632  -0.4726
6.421e+09  -0.4155  -0.7639  0.009709  0.04339  0.04822  0.02455  -0.8694  -0.1725
6.422e+09  -0.6544  -0.626  0.03826  0.04124  -0.02675  0.02697  -0.8475  0.1361
6.424e+09  -0.8533  -0.3548  0.01963  -0.01153  0.01727  -0.005019  -0.7886  0.3901
6.425e+09  -0.9022  -0.01929  0.02304  0.01122  0.01362  0.01694  -0.6041  0.6584
6.426e+09  -0.827  0.2612  -0.0309  -0.03874  -0.03359  0.002541  -0.3534  0.7848
6.428e+09  -0.7096  0.5355  0.003955  -0.02528  -0.004005  0.02976  -0.06139  0.904
6.429e+09  -0.4999  0.6982  -0.0746  -0.03333  -0.02995  -0.05419  0.268  0.8247
6.43e+09  -0.1928  0.8786  0.001731  -0.02418  0.01717  -0.04351  0.5215  0.7172
6.431e+09  0.08662  0.837  0.00427  0.03675  0.01191  -0.001112  0.7203  0.5006
6.432e+09  0.4507  0.7764  0.001764  -0.04026  -0.01978  -0.009906  0.8264  0.221
6.434e+09  0.64  0.5935  0.02944  -0.00261  0.02427  0.02594  0.8471  -0.06318
6.435e+09  0.8395  0.2638  0.04745  0.0002376  0.02765  -0.0001206  0.7655  -0.4088
6.436e+09  0.8945  -0.00105  0.05175  0.01041  -0.02295  -0.006742  0.5944  -0.6195
6.438e+09  0.838  -0.2578  -0.04937  -0.04596  -0.039  0.05005  0.3598  -0.8168
6.439e+09  0.6714  -0.4723  0.01918  -0.01493  -0.02305  -0.007457  0.0451  -0.8673
6.44e+09  0.4757  -0.7455  0.01726  -0.01078  0.04606  -0.07836  -0.2034  -0.7835
6.441e+09  0.2332  -0.8422  -0.02561  -0.04139  -0.00324  -0.00622  -0.4628  -0.7219
6.442e+09  -0.13  -0.8576  0.01187  -0.03841  0.008658  0.008898  -0.6662  -0.4901
6.444e+09  -0.4106  -0.7298  -0.01635  -0.009611  -0.01602  -0.02452  -0.8023  -0.2269
6.445e+09  -0.6533  -0.6093  -0.007467  -0.0305  0.03989  -0.01913  -0.8447  0.04643
6.446e+09  -0.8047  -0.2696  -0.04675  0.002712  0.006926  0.01183  -0.77  0.3748
6.448e+09  -0.8675  -0.06414  0.01176  0.05127  0.01005  0.03493  -0.5753  0.5984
6.449e+09  -0.8231  0.3015  0.03882  0.009948  0.01344  0.01823  -0.3523  0.7563
6.45e+09  -0.6574  0.5303  -0.01751  0.03162  -0.01508  0.04055  -0.08676  0.8316
6.451e+09  -0.4682  0.7825  -0.03813  0.02702  -0.01789  -0.01023  0.2121  0.8353
6.452e+09  -0.141  0.8345  -0.009313  0.01302  0.006059  0.01502  0.4849  0.7007
6.454e+09  0.1338  0.8633  -0.01691  0.01294  0.05212  -0.03574  0.7079  0.4416
6.455e+09  0.4279  0.8092  0.03227  0.01178  0.03751  -0.03025  0.7924  0.1954
6.456e+09  0.6725  0.5309  0.03483  0.02435  -0.0178  -0.00858  0.8124  -0.1002
6.458e+09  0.8067  0.2913  -0.02491  -0.001582  -0.008204  0.01795  0.7631  -0.3376
6.459e+09  0.8809  0.02707  0.003482  -0.00158  -0.05677  -0.03289  0.6075  -0.5797
6.46e+09  0.8446  -0.3158  -0.01313  0.008239  0.01799  0.004912  0.3611  -0.7218
6.461e+09  0.7201  -0.5411  -0.01668  -0.03617  0.01268  -0.03607  0.06349  -0.8219
6.462e+09  0.4322  -0.7973  -0.03934  0.03193  0.009108  -0.02219  -0.2293  -0.7948
6.464e+09  0.1429  -0.9088  -0.03611  -0.007138  -0.006141  -0.01875  -0.4111  -0.6738
6.465e+09  -0.1228  -0.9116  -0.0003807  -0.01209  0.001464  0.04339  -0.6523  -0.4841
6.466e+09  -0.4609  -0.7508  0.0006318  -0.02876  0.009778  0.004939  -0.777  -0.1672
6.468e+09  -0.6829  -0.5958  0.03073  -0.03835  -0.01596  -0.0222  -0.7984  0.09894
6.469e+09  -0.8045  -0.2595  -0.00384  0.006332  0.01779  -0.01111  -0.7335  0.3184
6.47e+09  -0.8967  -0.0281  -0.01688  -0.006621  0.01405  -0.01725  -0.5708  0.5364
6.471e+09  -0.8022  0.3055  -0.0165  -0.03415  0.05607  -0.06275  -0.3257  0.7184
6.472e+09  -0.6701  0.6128  -0.04713  0.02433  0.01287  0.008207  -0.02689  0.846
6.474e+09  -0.4297  0.7752  0.02177  0.02511  -0.05207  0.005949  0.1673  0.7196
6.475e+09  -0.1607  0.8629  -0.0235  0.008496  -0.01577  0.001444  0.4443  0.6592
6.476e+09  0.1483  0.8725  0.01396  -0.02288  -0.008175  -0.01807  0.6022  0.4433
6.478e+09  0.4817  0.727  -0.03434  -0.0243  0.004011  0.04828  0.7853  0.1682
6.479e+09  0.7233  0.5972  -0.01784  -0.04076  -0.006579  -0.02048  0.7367  -0.07062
6.48e+09  0.8115  0.2522  -0.008525  -0.002  0.01489  0.03072  0.7039  -0.3166
6.481e+09  0.9024  -0.003425  -0.002632  -0.01923  -0.02675  -0.0323  0.5171  -0.5885
6.482e+09  0.8276  -0.3277  -0.02422  0.03177  0.04499  0.02167  0.3324  -0.7044
6.484e+09  0.6295  -0.5645  0.01415  -0.006606  -0.02096  -0.03393  0.04317  -0.819
6.485e+09  0.4486  -0.7679  0.009729  -0.018  -0.003485  -0.007502  -0.2021  -0.72
6.486e+09  0.1319  -0.8987  -0.02355  -0.01562  0.02062  -0.005573  -0.4354  -0.6246
6.488e+09  -0.13  -0.8405  -0.005568  0.01834  -0.04221  -0.0218  -0.6418  -0.4166
6.489e+09  -0.452  -0.8054  -0.005144  -0.01776  0.01681  0.007079  -0.7739  -0.2114
6.49e+09  -0.7176  -0.5739  0.03764  -0.005451  0.03021  -0.04239  -0.8147  0.07906
6.491e+09  -0.8019  -0.2952  0.02409  0.03097  0.02436  -0.06542  -0.6817  0.3543
6.492e+09  -0.8533  -0.01036  0.01622  0.01743  -0.0171  0.01093  -0.5492  0.5554
6.494e+09  -0.8513  0.3399  -0.01473  -0.03978  0.03182  -0.001427  -0.2777  0.7267
6.495e+09  -0.6369  0.5664  0.0108  -0.009035  0.04607  -0.001994  0.009123  0.7586
6.496e+09  -0.4588  0.7811  -0.004064  0.02024  0.02086  0.007339  0.2178  0.7154
6.498e+09  -0.1252  0.8547  -0.01653  0.02807  -0.004589  0.001447  0.4468  0.5942
6.499e+09  0.2332  0.9211  -0.008656  -0.04808  -0.007058  0.01106  0.6592  0.4332
6.5e+09  0.4604  0.7528  -0.005257  -0.001936  0.02234  0.0464  0.714  0.1271
6.501e+09  0.7457  0.5573  0.006109  0.05266  0.001098  -0.01472  0.754  -0.1195
6.502e+09  0.8458  0.3237  0.02929  -0.01423  -0.04063  -0.03316  0.7016  -0.3881
6.504e+09  0.8945  -0.08132  0.02398  -0.02534  -0.02714  -0.007961  0.5121  -0.5888
6.505e+09  0.8858  -0.38  0.001121  0.0178  0.02817  -0.01283  0.3073  -0.7076
6.506e+09  0.7203  -0.6167  -0.02507  -0.007792  0.04428  0.06026  0.01464  -0.7933
6.508e+09  0.4971  -0.8034  0.005492  -0.01693  -0.02281  0.0179  -0.263  -0.7207
6.509e+09  0.103  -0.9018  0.01201  0.01646  0.03813  0.01856  -0.4641  -0.5539
6.51e+09  -0.2177  -0.8907  -0.01731  -0.004764  -0.01853  -0.006438  -0.657  -0.4147
6.511e+09  -0.4954  -0.7672  -0.01123  -0.007996  0.02031  -0.0258  -0.7473  -0.1243
6.512e+09  -0.6981  -0.5432  0.00182  0.003238  -0.002737  0.01217  -0.7605  0.09984
6.514e+09  -0.8912  -0.3109  0.01049  -0.01552  0.0216  -0.05587  -0.6253  0.3762
6.515e+09  -0.9516  0.07037  0.002586  -0.01507  0.008849  -0.000678  -0.4847  0.5895
6.516e+09  -0.8037  0.4027  0.02041  0.02722  -0.0521  -0.02351  -0.2339  0.703
6.518e+09  -0.6832  0.6506  -0.02348  -0.01226  0.02516  0.08972  0.01686  0.7226
6.519e+09  -0.3979  0.8512  -0.01329  -0.02613  -2.781e-05  0.02135  0.3126  0.7142
6.52e+09  -0.1209  0.9288  0.01906  -0.02066  -0.01465  -0.0147  0.4672  0.5474
6.521e+09  0.207  0.9695  0.007496  -0.03136  0.0422  0.005943  0.6725  0.3672
6.522e+09  0.584  0.7741  0.001862  -0.0219  -0.01021  0.02716  0.721  0.1475
6.524e+09  0.8  0.5091  0.002859  -0.007229  0.0333  -0.02013  0.7345  -0.1589
6.525e+09  0.9072  0.2215  -0.009774  -0.01209  -0.01656  0.009346  0.5944  -0.4108
6.526e+09  0.9163  -0.07156  0.008674  -0.0194  -0.01882  0.02237  0.3795  -0.6005
6.528e+09  0.8635  -0.4336  0.02113  -0.03929  0.0004744  -0.01266  0.1961  -0.7215
6.529e+09  0.619  -0.7193  0.009308  0.0477  0.01179  0.04639  -0.04331  -0.7146
6.53e+09  0.3377  -0.9309  0.0215  -0.0184  0.0135  -0.001181  -0.3086  -0.6191
6.531e+09  0.0357  -0.9584  0.001406  0.007953  0.0097  -0.01808  -0.4586  -0.4541
6.532e+09  -0.2528  -0.923  -0.01974  0.02397  -0.02081  0.01189  -0.5835  -0.3098
6.534e+09  -0.6084  -0.7538  -0.01071  -0.02122  -0.01079  0.01892  -0.6134  -0.1112
6.535e+09  -0.8839  -0.495  0.02  0.006148  -0.0142  0.04333  -0.6424  0.132
6.536e+09  -0.9439  -0.136  0.02313  -0.02576  0.02873  -0.02552  -0.5556  0.3033
6.538e+09  -0.9475  0.1438  -0.02402  -0.007359  0.06108  -0.0136  -0.4665  0.4671
6.539e+09  -0.8173  0.4841  -0.005877  -0.01374  0.02488  -0.04521  -0.2604  0.5853
6.54e+09  -0.6482  0.7562  -0.007571  -0.001944  -0.01618  0.02656  -0.03234  0.6642
6.541e+09  -0.3249  0.9385  -0.0006734  -0.01285  0.03367  -0.04392  0.1815  0.6809
6.542e+09  0.001436  0.9864  -0.02199  0.01607  -0.001816  0.02221  0.4313  0.5743
6.544e+09  0.3893  0.8793  0.02348  -0.006117  0.0061  -0.02247  0.5932  0.3928
6.545e+09  0.6788  0.7109  -0.02565  0.01708  -0.02725  -0.04821  0.705  0.188
6.546e+09  0.9073  0.4247  0.02114  -0.007238  0.008862  -0.006961  0.6957  -0.08192
6.548e+09  0.9844  0.1057  0.01787  -0.01001  0.02054  0.007066  0.6662  -0.3139
6.549e+09  0.964  -0.2976  0.01889  0.003854  -0.04794  -0.01615  0.5145  -0.5366
6.55e+09  0.7811  -0.551  -0.02192  0.005818  -0.01585  -0.02525  0.2754  -0.6493
