# Hz S RI R 50
6.25e+09  -0.4214  0.7826  0.008103  0.001047  -0.02659  0.03224  0.1827  0.4964
6.251e+09  -0.1013  0.7762  -0.02074  -0.006065  0.03111  0.005728  0.3538  0.4187
6.252e+09  0.1303  0.8797  -0.003656  -0.02323  0.03388  -0.009405  0.532  0.2476
6.254e+09  0.5156  0.7243  0.02447  0.0218  0.01118  -0.0139  0.625  0.02424
6.255e+09  0.6568  0.5404  0.02724  0.007733  0.0365  -0.03222  0.5738  -0.2259
6.256e+09  0.8087  0.2278  0.01156  0.003489  -0.0244  0.02146  0.4882  -0.4492
6.258e+09  0.865  -0.07868  -0.00627  0.009668  0.02504  0.008576  0.2736  -0.6187
6.259e+09  0.742  -0.2763  -0.01204  -0.005645  0.01839  -0.06899  0.03457  -0.6688
6.26e+09  0.581  -0.5828  0.009708  -0.002612  -0.02484  0.04741  -0.201  -0.6866
6.261e+09  0.4443  -0.7643  0.0003065  -0.02137  -0.02929  -0.02169  -0.3964  -0.5311
6.262e+09  0.08065  -0.8473  0.007451  0.009507  -0.02996  -0.02199  -0.6362  -0.3321
6.264e+09  -0.1891  -0.8953  0.0002454  -0.02812  0.002177  -0.02387  -0.6839  -0.08611
6.265e+09  -0.4733  -0.7831  -0.005273  0.002114  -0.02456  0.0769  -0.715  0.1573
6.266e+09  -0.6113  -0.4958  -0.005803  -0.01291  0.07302  -0.007712  -0.6365  0.3985
6.268e+09  -0.8417  -0.2842  0.004209  0.01772  -0.03328  -0.01723  -0.4276  0.5976
6.269e+09  -0.8704  0.02118  0.01264  0.02297  0.01931  -0.005664  -0.2072  0.7282
6.27e+09  -0.7802  0.2834  0.002658  0.00334  -0.01858  0.008422  0.06052  0.7419
6.271e+09  -0.5977  0.5513  0.03282  -0.003434  -0.0372  -0.01445  0.3373  0.6909
6.272e+09  -0.3042  0.7711  -0.01511  0.01407  0.05019  -0.03355  0.5486  0.5201
6.274e+09  -0.09096  0.8539  -0.03012  -0.0009856  -0.0115  0.07508  0.6863  0.2954
6.275e+09  0.1796  0.809  0.0096  -0.005022  0.001386  0.05564  0.7514  0.01294
6.276e+09  0.4323  0.6602  -0.01382  -0.001603  -0.03533  0.01593  0.749  -0.1977
6.278e+09  0.6861  0.4929  0.006511  -0.01056  0.01526  0.06017  0.6216  -0.4634
6.279e+09  0.8192  0.1864  -0.02331  0.003544  0.04898  0.002851  0.4206  -0.6474
6.28e+09  0.7629  -0.05674  -0.01233  -0.00122  -0.03856  0.04866  0.149  -0.7483
6.281e+09  0.7766  -0.4024  0.02724  -0.01115  -0.02942  -0.02164  -0.1296  -0.7657
6.282e+09  0.5961  -0.5802  0.0223  0.01878  0.02527  0.02145  -0.3978  -0.7275
6.284e+09  0.3727  -0.7974  -0.0005718  -0.0031  -0.02532  0.04292  -0.6151  -0.4984
6.285e+09  0.05081  -0.8261  -0.004871  -0.0339  -0.04204  -0.002801  -0.7278  -0.2909
6.286e+09  -0.2347  -0.8215  0.005431  -0.0371  0.01582  0.01256  -0.7913  -0.0118
6.288e+09  -0.4475  -0.6379  7.427e-05  0.006026  0.01019  0.04094  -0.7126  0.2595
6.289e+09  -0.6679  -0.4569  0.02974  -0.01427  0.02044  -0.008563  -0.629  0.5699
6.29e+09  -0.8322  -0.1868  0.01534  -0.03092  -0.01742  -0.02674  -0.4159  0.7091
6.291e+09  -0.8311  0.08901  -0.02691  0.001317  0.009249  -0.02362  -0.1334  0.7735
6.292e+09  -0.7438  0.3626  -0.006677  -0.009235  0.01382  0.01507  0.144  0.8036
6.294e+09  -0.6205  0.5524  -0.004609  -0.007108  0.04547  0.01891  0.3867  0.7485
6.295e+09  -0.3433  0.7547  0.03044  -0.02571  -0.03626  -0.0143  0.6257  0.5178
6.296e+09  -0.009835  0.8193  0.0001284  -0.0032  -0.02809  -0.0463  0.778  0.3089
6.298e+09  0.2187  0.8039  -0.007963  -0.01791  0.0391  0.008423  0.845  0.01458
6.299e+09  0.5516  0.6282  -0.01919  0.03538  0.002937  -0.02234  0.7824  -0.2828
6.3e+09  0.6665  0.4735  0.005788  0.01065  -0.03756  0.002466  0.6643  -0.5267
6.301e+09  0.7862  0.14  -0.03979  -0.01676  0.03159  -0.06341  0.4353  -0.6947
6.302e+09  0.8357  -0.1772  -0.03439  -0.006577  0.02732  4.573e-05  0.1718  -0.8326
6.304e+09  0.7025  -0.4115  -0.03934  -0.02791  0.003688  -0.02678  -0.1222  -0.8668
6.305e+09  0.5759  -0.6274  0.02373  0.01862  -0.04301  -0.08362  -0.4061  -0.6967
6.306e+09  0.2874  -0.8567  0.008472  -0.01348  0.03091  -0.03921  -0.6609  -0.5479
6.308e+09  -0.000491  -0.8176  -0.009896  -0.01925  0.02462  0.0214  -0.8349  -0.2217
6.309e+09  -0.2771  -0.8029  0.00941  -0.0163  -0.02241  0.0281  -0.8525  0.001198
6.31e+09  -0.5585  -0.6191  -0.001285  0.01829  -0.01352  0.007529  -0.7963  0.281
6.311e+09  -0.7204  -0.4649  -0.007125  0.01097  -7.303e-05  0.06121  -0.6429  0.5552
6.312e+09  -0.8362  -0.1428  0.02891  0.002531  -0.006086  0.006795  -0.4247  0.7469
6.314e+09  -0.8316  0.143  0.03146  0.007157  -0.02372  0.006456  -0.186  0.8401
6.315e+09  -0.7332  0.4243  -0.006127  -0.0136  0.004665  0.03091  0.1787  0.858
6.316e+09  -0.5549  0.6769  -0.009352  -0.00366  -0.00371  -0.02139  0.4294  0.7769
6.318e+09  -0.2506  0.7962  -0.02055  -0.02594  -0.02957  0.02286  0.6336  0.5443
6.319e+09  0.02436  0.8685  0.02327  0.0157  0.001893  0.005378  0.8417  0.2958
6.32e+09  0.286  0.7454  0.0006185  -0.005789  -0.004247  -0.07426  0.8796  -0.00089
6.321e+09  0.5666  0.6092  0.005589  -0.01003  -0.009584  0.01796  0.8316  -0.2977
6.322e+09  0.8086  0.3708  -0.001889  0.01645  0.006953  -0.0004141  0.7165  -0.5733
6.324e+09  0.7811  0.1099  0.007524  0.009947  -0.0818  -0.01452  0.4589  -0.7648
6.325e+09  0.8132  -0.2156  -0.004762  0.0211  -0.06287  -0.01039  0.1831  -0.8467
6.326e+09  0.7312  -0.404  -0.01189  0.01078  0.003965  -0.01226  -0.1142  -0.8792
6.328e+09  0.507  -0.668  -0.001655  -0.01025  -0.04123  -0.002173  -0.4522  -0.7682
6.329e+09  0.2172  -0.799  -0.00711  0.02522  0.0192  0.007053  -0.6824  -0.623
6.33e+09  -0.08063  -0.9063  -0.01291  -0.007162  0.04214  -0.07689  -0.8593  -0.3327
6.331e+09  -0.3686  -0.7965  -0.0178  0.007777  -0.006944  -0.04561  -0.9007  -0.02585
6.332e+09  -0.6137  -0.6646  0.001965  -0.01315  -0.0137  -0.01044  -0.8847  0.3115
6.334e+09  -0.8122  -0.3368  0.003642  0.0004025  -0.003645  -0.06381  -0.6657  0.5593
6.335e+09  -0.8787  -0.05583  -0.0281  0.02098  -0.01569  -0.008681  -0.4796  0.7438
6.336e+09  -0.833  0.2433  0.009411  0.0151  -0.01476  -0.007729  -0.2116  0.8863
6.338e+09  -0.7269  0.5129  0.0004161  0.0145  0.005628  0.0196  0.1318  0.8887
6.339e+09  -0.4694  0.7909  -0.005473  0.02029  -0.02705  0.01371  0.4366  0.8343
6.34e+09  -0.1917  0.8724  4.287e-05  0.03157  -0.05708  0.03047  0.7215  0.6385
6.341e+09  0.1337  0.8658  0.01115  0.004171  0.01822  0.003045  0.8404  0.3482
6.342e+09  0.3722  0.7542  -0.00995  -0.002226  -0.009228  -0.02044  0.9132  0.0647
6.344e+09  0.6825  0.5547  -0.01112  -0.00725  0.02576  0.001469  0.8825  -0.2694
6.345e+09  0.823  0.2894  -0.01862  0.003721  0.02683  -0.06181  0.7533  -0.5815
6.346e+09  0.8925  0.01304  -0.02049  -0.03718  -0.02644  0.0144  0.5035  -0.7902
6.348e+09  0.829  -0.2683  0.002731  0.01002  0.02996  0.01074  0.2205  -0.8975
6.349e+09  0.6641  -0.6147  0.005909  0.01686  -0.01944  0.002509  -0.1233  -0.9429
6.35e+09  0.4189  -0.7451  0.03072  -0.01649  -0.01644  0.02336  -0.4505  -0.849
6.351e+09  0.1408  -0.8604  0.04626  -0.0006969  0.03429  -0.01307  -0.6709  -0.6914
6.352e+09  -0.186  -0.9224  -0.0002474  0.002734  -0.02722  -0.007385  -0.8653  -0.3723
6.354e+09  -0.4225  -0.7329  0.02173  -0.0101  0.01948  0.007563  -0.9375  -0.03154
6.355e+09  -0.7047  -0.484  -0.007782  -0.008188  -0.04969  -0.03142  -0.9089  0.234
6.356e+09  -0.7925  -0.2904  0.007719  0.01201  0.00849  0.01728  -0.774  0.5559
6.358e+09  -0.904  0.0504  0.001261  0.01016  -0.04407  0.005652  -0.5646  0.8004
6.359e+09  -0.8026  0.3432  0.02  -0.005181  0.006957  -0.05263  -0.2358  0.982
6.36e+09  -0.6421  0.6283  -0.03003  -0.002632  0.02488  -0.02705  0.09098  0.9449
6.361e+09  -0.3791  0.7577  3.273e-05  0.01341  0.002519  -0.02511  0.4008  0.8643
6.362e+09  -0.1046  0.941  0.02056  0.01959  -0.01181  0.02742  0.659  0.6489
6.364e+09  0.2443  0.8219  -0.009906  -0.0144  0.008672  0.05323  0.8949  0.4191
6.365e+09  0.4721  0.7621  -0.0008033  0.01093  -0.01054  -0.04252  0.9471  0.08327
6.366e+09  0.742  0.4852  0.0203  -0.01178  0.04301  0.01867  0.9453  -0.2639
6.368e+09  0.8722  0.2127  -0.01651  -0.02291  -0.001351  0.01293  0.7745  -0.5403
6.369e+09  0.9018  -0.09449  0.01238  -0.005809  0.01323  0.01208  0.5998  -0.7681
6.37e+09  0.7677  -0.4196  0.006917  -0.03343  0.03181  -0.02399  0.2507  -0.9184
6.371e+09  0.6171  -0.6866  0.02024  -0.01125  0.009073  0.01821  -0.04748  -0.9178
6.372e+09  0.3242  -0.8814  -0.03511  0.01441  0.01334  -0.03628  -0.4048  -0.8953
6.374e+09  0.009657  -0.9144  0.01139  0.02041  -0.03491  -0.02097  -0.6684  -0.6518
6.375e+09  -0.2584  -0.8444  0.00176  -0.05016  0.01088  -0.02936  -0.8541  -0.4327
6.376e+09  -0.5647  -0.7224  -0.009122  0.003585  0.001881  -0.04126  -0.9406  -0.09443
6.378e+09  -0.7766  -0.4558  -0.01105  -0.0119  -0.0161  0.009356  -0.9149  0.2332
6.379e+09  -0.8692  -0.193  0.007509  0.004398  -0.02108  0.01862  -0.7794  0.5259
6.38e+09  -0.8473  0.1104  -0.007093  -0.03479  -0.02162  -0.03323  -0.5405  0.7497
6.381e+09  -0.8161  0.4378  -0.007279  0.006409  -0.0231  0.005942  -0.2522  0.8854
6.382e+09  -0.5873  0.6483  -0.0001561  0.01674  -0.0146  -0.01744  0.07446  0.983
6.384e+09  -0.3087  0.8401  -0.02746  -0.02981  0.02872  0.01274  0.4181  0.8669
6.385e+09  -0.02636  0.9152  -0.05267  0.009253  0.02902  -0.0312  0.636  0.6997
6.386e+09  0.271  0.8321  -0.01266  -0.03881  -0.01514  0.01518  0.8316  0.4269
6.388e+09  0.5672  0.6495  0.004067  -0.02462  -0.01177  0.0008845  0.9391  0.1279
6.389e+09  0.7838  0.4178  -0.003501  -0.02489  0.02643  -0.0152  0.8845  -0.2279
6.39e+09  0.913  0.1141  -0.04178  -0.01249  -0.01268  -0.01396  0.765  -0.5033
6.391e+09  0.9372  -0.1951  0.01731  -0.01738  0.02044  0.0409  0.5491  -0.7195
6.392e+09  0.6993  -0.4869  -0.007318  -0.01435  0.0461  0.0691  0.269  -0.872
6.394e+09  0.5115  -0.6823  -0.03288  -0.003373  -0.02916  -0.02198  -0.02652  -0.8741
6.395e+09  0.324  -0.8314  -0.002512  0.01055  -0.01918  0.006317  -0.3326  -0.8708
6.396e+09  -0.006053  -0.8967  -0.01049  -0.04302  0.03143  0.01017  -0.5839  -0.7188
6.398e+09  -0.3514  -0.8387  -0.02039  -0.0317  0.00588  0.03369  -0.7922  -0.4318
6.399e+09  -0.5529  -0.6466  -0.03362  -0.0106  -0.02896  0.0016  -0.9186  -0.1345
6.4e+09  -0.7582  -0.4084  0.03395  -0.04484  -0.02171  -0.01942  -0.8842  0.145
6.401e+09  -0.8887  -0.07572  0.04291  -0.003318  -0.02598  0.003703  -0.7429  0.4681
6.402e+09  -0.8689  0.2454  -0.02543  0.007335  -0.02557  -0.05497  -0.5794  0.7324
6.404e+09  -0.7398  0.5189  0.02545  0.00879  -0.01852  -0.03817  -0.3179  0.8686
6.405e+09  -0.5449  0.7205  0.02325  -0.02471  0.005648  0.02164  0.005823  0.9272
6.406e+09  -0.187  0.8159  -0.01123  0.007851  0.005972  -0.001943  0.2983  0.8909
6.408e+09  0.06389  0.8826  -0.006894  0.01483  0.01243  -0.003648  0.6088  0.7025
6.409e+09  0.3982  0.8337  0.008974  0.02589  -0.000411  0.05317  0.7618  0.441
6.41e+09  0.6366  0.6416  0.03445  0.02925  -0.02836  -0.01449  0.9214  0.2064
6.411e+09  0.8466  0.3935  -0.0332  -0.02311  -0.004397  -0.01174  0.9012  -0.1022
6.412e+09  0.8873  0.06933  0.02873  0.001765  -0.03157  -0.007391  0.7677  -0.4119
6.414e+09  0.8506  -0.2027  0.01151  0.02232  0.0182  0.01263  0.6062  -0.6514
6.415e+09  0.7084  -0.4514  0.0124  -0.0004203  -0.06429  -0.004841  0.3459  -0.7742
6.416e+09  0.5224  -0.704  2.284e-05  -0.03134  0.04421  -0.01909  -0.007182  -0.9127
6.418e+09  0.1823  -0.8364  0.02346  0.02698  -0.01701  0.009676  -0.265  -0.8287
6.419e+09  -0.104  -0.8778  -0.003019  0.05167  -0.03894  -0.009972  -0.5227  -0.7045
6.42e+09  -0.3495  -0.801  0.008402  -0.006505  0.002227  -0.01464  -0.7462  -0.4806
6.421e+09  -0.6414  -0.6231  0.01526  0.0173  -0.02451  0.005168  -0.8631  -0.1877
6.422e+09  -0.7748  -0.3979  -0.03131  0.01374  -0.01495  0.004972  -0.846  0.0758
6.424e+09  -0.8985  -0.06256  -0.01393  0.0008234  0.0436  -0.09954  -0.779  0.3938
6.425e+09  -0.8421  0.2171  0.01674  -0.004016  0.03909  -0.03775  -0.6055  0.6602
6.426e+09  -0.7562  0.506  0.02143  -0.02423  -0.02365  0.0002885  -0.361  0.8008
6.428e+09  -0.5086  0.7178  -0.02202  -0.04642  -0.007077  -0.004802  -0.05035  0.8488
6.429e+09  -0.1825  0.861  0.001346  -0.003167  0.02591  -0.02718  0.2222  0.8305
6.43e+09  0.1026  0.884  -0.02094  -0.05272  -0.0418  -0.02474  0.5584  0.6918
6.431e+09  0.4301  0.7722  -0.02531  -0.007317  -0.03475  -0.01026  0.6966  0.4692
6.432e+09  0.652  0.6014  0.005637  -0.02466  0.008261  -0.02556  0.8165  0.214
6.434e+09  0.8405  0.2938  -0.03475  -0.02877  0.01767  0.02727  0.8856  -0.04551
6.435e+09  0.8956  0.04446  0.02215  -0.01497  0.003613  0.01156  0.7975  -0.4081
6.436e+09  0.8357  -0.2617  0.00157  0.01236  0.01629  0.007003  0.547  -0.6546
6.438e+09  0.6819  -0.5748  -0.005114  -0.01588  0.02241  0.003293  0.3941  -0.754
6.439e+09  0.4738  -0.7494  0.01642  -0.03006  0.06069  -0.0379  0.09196  -0.8354
6.44e+09  0.2104  -0.8981  0.004387  -0.01013  0.01851  0.001613  -0.2153  -0.7876
6.441e+09  -0.1358  -0.8692  -0.03395  0.02332  -0.04125  -0.03356  -0.4574  -0.6951
6.442e+09  -0.4192  -0.7924  -0.03068  0.01127  0.03196  0.0145  -0.7322  -0.4674
6.444e+09  -0.6798  -0.5946  -0.02663  -0.01768  -0.004038  -0.02276  -0.8217  -0.2608
6.445e+09  -0.8312  -0.3605  0.01903  -0.05233  -0.0007124  0.02144  -0.8512  0.1045
6.446e+09  -0.8698  -0.02017  0.02442  0.002382  -0.00391  0.04064  -0.7469  0.3675
6.448e+09  -0.8266  0.3126  -0.006235  -0.01816  0.00201  -0.03892  -0.6412  0.6086
6.449e+09  -0.6589  0.6059  -0.01484  -0.005246  0.02548  -0.03225  -0.3939  0.766
6.45e+09  -0.4962  0.7604  0.007652  0.01599  -0.02696  -0.01317  -0.08189  0.8001
6.451e+09  -0.1968  0.9089  -0.008961  -0.02569  -0.012  0.05144  0.2028  0.8201
6.452e+09  0.1439  0.9112  0.02002  0.02789  0.01301  -0.0534  0.4752  0.6968
6.454e+09  0.446  0.7618  0.00863  0.01102  -0.01117  0.04082  0.6831  0.4925
6.455e+09  0.643  0.6333  -0.07193  -0.01529  0.02242  -0.005449  0.8162  0.2295
6.456e+09  0.819  0.3392  -0.006686  0.008204  0.006625  -0.0006754  0.7842  -0.08492
6.458e+09  0.8867  0.01987  0.003678  -0.01045  0.01921  0.02333  0.7288  -0.311
6.459e+09  0.8308  -0.279  -0.05521  0.03607  -0.0364  0.03556  0.6086  -0.582
6.46e+09  0.7059  -0.5414  -0.006075  0.008137  -0.06881  -0.01973  0.3321  -0.7521
6.461e+09  0.4803  -0.7543  0.02148  -0.01219  -0.007213  0.02058  0.09706  -0.8463
6.462e+09  0.1864  -0.8631  0.02206  0.01071  0.04299  0.05988  -0.2272  -0.7681
6.464e+09  -0.08854  -0.9215  0.01214  -0.02036  -0.001761  -0.02114  -0.4646  -0.6852
6.465e+09  -0.4066  -0.7884  0.032  0.009879  0.00427  0.03095  -0.6648  -0.4179
6.466e+09  -0.6504  -0.5851  0.02883  0.04981  -0.02996  0.01274  -0.7903  -0.1879
6.468e+09  -0.7898  -0.3017  -0.005753  0.003092  0.02265  -0.02511  -0.7702  0.08068
6.469e+09  -0.912  0.006227  0.002186  0.02007  -0.004561  -0.001831  -0.7194  0.3063
6.47e+09  -0.8539  0.311  0.01784  0.004045  0.03282  0.0149  -0.5432  0.5562
6.471e+09  -0.6895  0.5756  0.003643  0.0006288  0.06181  0.01343  -0.3124  0.6869
6.472e+09  -0.4638  0.7444  0.002579  -5.296e-05  -0.03133  0.0141  -0.04764  0.8201
6.474e+09  -0.1694  0.9029  0.03716  0.01537  -0.01912  0.04272  0.172  0.7569
6.475e+09  0.1415  0.8919  0.005037  -0.02823  0.0118  -0.03451  0.4309  0.6661
6.476e+09  0.4451  0.8105  0.01631  0.01276  0.01073  -0.01346  0.6369  0.4456
6.478e+09  0.6834  0.5844  0.004591  0.01519  -0.001627  0.008886  0.7471  0.1903
6.479e+09  0.8238  0.336  -0.02976  0.02324  -0.000194  0.01727  0.7942  -0.09289
6.48e+09  0.8888  0.0227  -0.06291  0.0003563  -0.01559  0.001288  0.7121  -0.347
6.481e+09  0.8763  -0.2813  0.02175  0.02132  -0.06287  0.02212  0.5423  -0.5749
6.482e+09  0.6372  -0.572  0.003713  -0.0007889  -0.02982  0.01798  0.3547  -0.7088
6.484e+09  0.4548  -0.7868  -0.02138  0.009805  0.007217  -0.01106  0.02256  -0.7859
6.485e+09  0.1171  -0.946  -0.01339  0.03416  0.01759  -0.02956  -0.209  -0.7183
6.486e+09  -0.2166  -0.929  -0.006138  0.01375  -0.01023  -0.007921  -0.4783  -0.6186
6.488e+09  -0.4925  -0.7818  -0.0203  -0.02706  -0.04932  0.02202  -0.635  -0.4186
6.489e+09  -0.7161  -0.5735  0.002755  -0.02128  0.03225  -0.02845  -0.7646  -0.1824
6.49e+09  -0.9117  -0.3436  0.01007  -0.02742  -0.04144  0.09449  -0.7492  0.1062
6.491e+09  -0.8756  0.001298  -0.03845  -0.01147  -0.0326  0.01476  -0.6735  0.3344
6.492e+09  -0.8434  0.3624  0.007472  0.01087  0.08992  0.02034  -0.559  0.5354
6.494e+09  -0.7224  0.5775  -0.0161  -0.00848  0.06439  0.04344  -0.3021  0.6869
6.495e+09  -0.4232  0.7851  -0.02464  -0.03722  -0.03943  -0.01865  -0.04768  0.7203
6.496e+09  -0.1383  0.895  0.001392  -0.02295  0.01324  0.05011  0.2239  0.7176
6.498e+09  0.2024  0.8463  0.06751  -0.01221  -0.05107  -0.022  0.4931  0.6127
6.499e+09  0.5162  0.775  0.00718  -0.03363  -0.006498  0.02747  0.6128  0.4336
6.5e+09  0.7574  0.5635  -0.00643  0.01276  -0.006759  0.02528  0.7337  0.1576
6.501e+09  0.906  0.2431  -0.01044  -0.02654  0.01868  -0.0435  0.7581  -0.08185
6.502e+09  0.9203  -0.06973  -0.008453  -0.03999  0.03924  -0.02818  0.7113  -0.3377
6.504e+09  0.8822  -0.3483  0.01605  -0.00771  0.01917  0.003827  0.5185  -0.5718
6.505e+09  0.6772  -0.6315  0.001379  -0.01155  -0.02082  -0.05842  0.2668  -0.7247
6.506e+09  0.4341  -0.8324  0.007102  0.005216  0.0631  0.02662  0.01669  -0.7905
6.508e+09  0.08099  -0.9588  0.003591  -0.006471  -0.0117  -0.03168  -0.2523  -0.6708
6.509e+09  -0.1771  -0.9336  -0.0392  0.004232  -0.03058  -0.02627  -0.4727  -0.5688
6.51e+09  -0.5673  -0.7784  -0.009358  0.007675  0.03705  -0.02333  -0.6442  -0.4138
6.511e+09  -0.7788  -0.5798  -0.01552  0.00575  0.0219  -0.01156  -0.7112  -0.1516
6.512e+09  -0.9346  -0.236  -0.009839  0.01523  0.04126  0.02604  -0.7183  0.1315
6.514e+09  -0.9734  0.08507  0.007602  -0.01201  -0.03413  0.0253  -0.6649  0.3963
6.515e+09  -0.8989  0.4438  0.009386  -0.005291  -0.005613  0.00428  -0.5029  0.5812
6.516e+09  -0.7183  0.6722  -0.01582  -0.01718  -0.007269  -0.0675  -0.2631  0.6967
6.518e+09  -0.4048  0.8605  -0.03235  -0.008183  0.009539  0.06284  0.02723  0.7198
6.519e+09  -0.1253  0.9932  0.008752  0.01782  -0.05921  -0.01105  0.3074  0.6596
6.52e+09  0.2928  0.9539  0.01795  0.0005714  0.007916  0.02254  0.5408  0.5582
6.521e+09  0.5862  0.7837  -0.01393  -0.02746  -0.003054  -0.01836  0.6484  0.3459
6.522e+09  0.8083  0.5157  -0.02365  -0.03329  0.0414  -0.01848  0.7332  0.1151
6.524e+09  0.9427  0.2144  0.00512  0.01767  0.01882  -0.0138  0.7076  -0.1268
6.525e+09  0.9248  -0.1095  0.002045  0.03976  0.001758  0.007486  0.6276  -0.3837
6.526e+09  0.8948  -0.4503  -0.003908  -0.007173  -0.04076  0.001276  0.4222  -0.5618
6.528e+09  0.6467  -0.7436  -0.01641  -0.001321  0.03246  0.01884  0.2263  -0.6834
6.529e+09  0.3555  -0.8385  -0.007371  -0.01555  0.05684  0.01499  -0.04018  -0.6913
6.53e+09  -0.03489  -1.02  0.001072  -0.0007679  0.0006419  -0.01481  -0.2627  -0.6301
6.531e+09  -0.2864  -0.8908  0.009651  -0.0008286  0.01493  0.03973  -0.4438  -0.5131
6.532e+09  -0.652  -0.699  -0.009659  -0.01072  -0.008107  -0.02533  -0.5825  -0.285
6.534e+09  -0.8795  -0.442  0.01447  -0.009065  -0.03447  -0.006402  -0.6748  -0.07922
6.535e+09  -0.9709  -0.1974  -0.007246  -0.004542  0.000852  0.04175  -0.6228  0.1162
6.536e+09  -0.9973  0.1765  0.001398  -0.00349  -0.0003554  0.01634  -0.5258  0.3043
6.538e+09  -0.8815  0.5466  -0.03557  -0.02283  0.06079  -0.002771  -0.4654  0.4706
6.539e+09  -0.5654  0.8034  0.005376  0.00222  0.02467  -0.02174  -0.2664  0.5778
6.54e+09  -0.325  0.9196  0.03163  0.03378  -0.003983  0.01107  -0.05274  0.667
6.541e+09  0.002221  1.009  0.01192  0.008677  0.04742  -0.01865  0.1591  0.6548
6.542e+09  0.3987  0.9094  0.006699  0.008982  0.01771  0.01733  0.4576  0.5627
6.544e+09  0.6856  0.672  0.005141  0.03117  -0.04494  0.03619  0.6249  0.4076
6.545e+09  0.8742  0.4661  0.01496  -0.03703  0.006099  -0.03256  0.6857  0.1708
6.546e+09  0.9639  0.09785  0.02549  0.01436  -0.03907  -0.04423  0.7278  -0.07973
6.548e+09  0.9192  -0.2052  -0.00079  -0.02779  0.007283  -0.02027  0.6275  -0.319
6.549e+09  0.8116  -0.5517  -0.007922  -0.02666  -0.01004  -0.05836  0.485  -0.5447
6.55e+09  0.5012  -0.8079  0.008538  0.01981  -0.02727  -0.005745  0.2673  -0.6946
