# Hz S RI R 50
6.25e+09  -0.628  0.6084  -0.0123  -0.006352  0.01945  0.001605  0.172  0.4559
6.251e+09  -0.3678  0.8048  -0.003259  -0.004498  0.05179  0.01625  0.3497  0.4156
6.252e+09  -0.0601  0.81  -0.004723  0.01407  -0.01922  0.0306  0.5317  0.2605
6.254e+09  0.253  0.8084  -0.00677  -0.004486  -0.006935  0.01303  0.6119  0.003696
6.255e+09  0.5402  0.6853  -0.003757  -0.01225  0.06014  -0.01284  0.549  -0.237
6.256e+09  0.7622  0.427  -0.001366  0.01162  0.03657  0.03171  0.4661  -0.4304
6.258e+09  0.7773  0.2219  0.02171  0.02759  0.0261  -0.05189  0.2975  -0.6049
6.259e+09  0.8006  -0.05901  0.01758  0.003298  -0.008315  0.03956  0.04927  -0.6762
6.26e+09  0.7565  -0.3502  0.009084  -0.002305  0.042  -0.03134  -0.1988  -0.6698
6.261e+09  0.4843  -0.6383  -0.01429  -0.001662  -0.0325  0.01247  -0.4588  -0.5345
6.262e+09  0.3053  -0.7361  -0.01285  0.005371  0.004233  -0.02314  -0.6172  -0.3548
6.264e+09  0.05628  -0.811  0.01154  -0.0215  -0.00811  -0.02007  -0.689  -0.09271
6.265e+09  -0.2403  -0.752  -0.003815  -0.0001731  0.005011  0.000831  -0.7229  0.1459
6.266e+09  -0.4605  -0.7219  -0.008059  0.02089  0.03611  -0.02723  -0.5892  0.3655
6.268e+09  -0.6939  -0.4773  0.005936  -0.02192  -0.02138  0.01276  -0.4746  0.5738
6.269e+09  -0.8171  -0.2096  -0.01689  0.006425  0.04506  0.06828  -0.1776  0.7296
6.27e+09  -0.8637  0.05871  -0.01263  0.02474  0.04757  0.04205  0.07217  0.7416
6.271e+09  -0.7682  0.3669  0.002502  -0.00969  -0.002749  -0.02873  0.3171  0.676
6.272e+09  -0.6442  0.6113  0.01967  0.03629  -0.02421  -0.08047  0.5615  0.5133
6.274e+09  -0.3228  0.8042  -0.005706  -0.02472  -0.004374  0.02107  0.6935  0.2926
6.275e+09  -0.03267  0.8517  -0.007524  0.008674  0.00542  0.03197  0.7792  0.03184
6.276e+09  0.1931  0.8353  0.00792  -0.03742  -0.04125  -0.06009  0.739  -0.2275
6.278e+09  0.5182  0.6449  0.0264  0.02941  -0.01429  -0.07157  0.5981  -0.4398
6.279e+09  0.691  0.4622  0.001267  0.02482  -0.00983  -0.001531  0.4286  -0.6611
6.28e+09  0.7744  0.2156  0.01579  0.00101  -0.01695  0.006778  0.182  -0.7643
6.281e+09  0.8115  -0.1153  -0.001723  0.02719  0.01061  0.0006633  -0.1142  -0.8023
6.282e+09  0.7255  -0.3951  -0.005021  0.01917  -0.0187  0.08431  -0.355  -0.7014
6.284e+09  0.5595  -0.6299  0.002888  -0.01772  -0.03715  -0.02831  -0.581  -0.4995
6.285e+09  0.3418  -0.7081  -0.02559  -0.03873  -0.02001  -0.01246  -0.735  -0.2927
6.286e+09  0.06949  -0.8183  -0.0002387  -7.569e-05  0.01243  0.002133  -0.7767  -0.009639
6.288e+09  -0.2881  -0.7755  -0.02618  0.003413  -0.04159  -0.03064  -0.7483  0.2533
6.289e+09  -0.5051  -0.65  0.02517  -0.005476  -0.02124  -0.005776  -0.6212  0.4956
6.29e+09  -0.7518  -0.464  0.00206  -0.001568  0.01116  0.02064  -0.4001  0.6759
6.291e+09  -0.7941  -0.1982  -0.02278  -0.01748  -0.009213  0.02696  -0.1744  0.78
6.292e+09  -0.8334  0.1123  0.01671  0.01186  0.03917  0.01833  0.1571  0.831
6.294e+09  -0.7004  0.4091  0.003113  -0.001485  0.005826  0.06502  0.392  0.7066
6.295e+09  -0.5732  0.6224  0.008672  -0.004053  -0.02011  0.003453  0.6275  0.5767
6.296e+09  -0.302  0.777  -0.0007999  -0.016  -0.02904  0.01759  0.7738  0.2809
6.298e+09  -0.04049  0.8104  -0.02514  -0.003974  -0.00105  -0.003992  0.8047  0.004324
6.299e+09  0.2343  0.7957  0.02509  0.007217  -0.006492  0.01742  0.8086  -0.2416
6.3e+09  0.4858  0.6669  0.001413  0.006001  0.04322  0.01122  0.62  -0.5215
6.301e+09  0.6908  0.4188  -0.01528  -0.001956  -0.04104  -0.01597  0.4179  -0.7387
6.302e+09  0.8042  0.1656  0.02012  0.006162  0.02514  -0.01031  0.1308  -0.8484
6.304e+09  0.8236  -0.1485  0.002514  -0.03011  -0.05837  0.008086  -0.1293  -0.837
6.305e+09  0.7387  -0.4417  0.05604  -0.01221  -0.007402  -0.007065  -0.4372  -0.7515
6.306e+09  0.5422  -0.5923  -0.03  0.01481  0.07339  0.002986  -0.6343  -0.5829
6.308e+09  0.2798  -0.7559  0.02043  0.0114  0.04702  0.03043  -0.7989  -0.3479
6.309e+09  -0.03779  -0.8915  0.01492  -0.02135  -0.003803  -0.001721  -0.8766  -0.02565
6.31e+09  -0.2469  -0.7681  0.004651  -0.03197  -0.004731  0.001622  -0.8273  0.3004
6.311e+09  -0.5755  -0.6369  0.006371  -0.009914  -0.02763  0.005888  -0.6771  0.5368
6.312e+09  -0.731  -0.3943  0.01573  -0.02091  0.01462  0.0383  -0.4528  0.7241
6.314e+09  -0.7921  -0.146  0.03579  0.01132  -0.02953  0.04529  -0.1552  0.8721
6.315e+09  -0.809  0.18  0.03265  0.01971  0.02695  -0.03438  0.1516  0.8632
6.316e+09  -0.6661  0.4561  -0.01925  -0.008743  -0.04997  -0.06019  0.4402  0.7717
6.318e+09  -0.5003  0.6768  -0.000992  -0.02118  -0.02944  -0.01358  0.657  0.5629
6.319e+09  -0.2247  0.8256  -0.003374  -0.002539  -0.01821  -0.06357  0.8119  0.3093
6.32e+09  0.004821  0.8466  -0.01022  0.03528  -0.02369  -0.02474  0.8972  0.01131
6.321e+09  0.3643  0.7617  -0.01097  0.01777  0.005654  -0.004426  0.825  -0.3124
6.322e+09  0.5738  0.6299  0.02082  -0.02099  0.03328  0.02485  0.724  -0.5551
6.324e+09  0.7808  0.3195  0.01837  -0.0007882  0.01251  -0.03815  0.4606  -0.7533
6.325e+09  0.8013  0.1006  0.02464  -0.0006331  0.006701  0.01943  0.1762  -0.8758
6.326e+09  0.8522  -0.2303  0.02074  -0.01049  -0.04194  0.00679  -0.1648  -0.889
6.328e+09  0.6854  -0.5025  -0.006506  -0.03692  -0.0003145  0.01622  -0.4321  -0.8069
6.329e+09  0.4636  -0.6583  0.004692  -0.01845  0.04064  -0.04244  -0.6956  -0.614
6.33e+09  0.2176  -0.8337  0.05095  0.008445  0.03045  0.00197  -0.8245  -0.3258
6.331e+09  -0.03905  -0.8653  0.02523  -0.009968  0.0002938  -0.01058  -0.8924  -0.03481
6.332e+09  -0.4204  -0.734  -0.03594  0.02876  0.005953  0.03631  -0.8678  0.282
6.334e+09  -0.6735  -0.5675  0.01834  0.01623  0.01738  0.04668  -0.7231  0.5397
6.335e+09  -0.7824  -0.3401  0.03962  -0.001379  0.005524  0.007249  -0.4884  0.7666
6.336e+09  -0.8228  -0.07467  -0.02178  0.02085  0.0407  -0.005077  -0.2058  0.8908
6.338e+09  -0.7721  0.2712  -0.0128  0.01084  -0.02175  -0.007985  0.153  0.9092
6.339e+09  -0.6967  0.5525  -0.007652  0.0135  -0.03565  -0.02456  0.4286  0.8226
6.34e+09  -0.4382  0.7666  -0.000968  0.00897  0.02496  -0.01162  0.6835  0.6054
6.341e+09  -0.1101  0.8277  -0.004654  0.0001503  -0.02134  -0.001495  0.8374  0.3515
6.342e+09  0.124  0.9084  -0.01038  0.02161  0.02023  -0.04979  0.9111  0.05907
6.344e+09  0.4371  0.7475  0.02797  0.01595  -0.04186  -0.03646  0.8641  -0.2835
6.345e+09  0.6855  0.5955  -0.00856  -0.02746  -0.02647  -0.01278  0.7094  -0.5449
6.346e+09  0.8341  0.2679  0.005268  0.02257  -0.006706  0.01332  0.5454  -0.7722
6.348e+09  0.8328  -0.02905  0.006356  -0.007983  0.01477  -0.01346  0.2075  -0.9332
6.349e+09  0.8701  -0.3606  0.00635  0.01117  0.009842  -0.01083  -0.1044  -0.9261
6.35e+09  0.6611  -0.593  -0.02952  0.02493  0.01422  0.01022  -0.44  -0.8522
6.351e+09  0.4285  -0.7806  -0.009316  -0.02697  -0.01577  -0.005858  -0.6844  -0.6488
6.352e+09  0.07857  -0.868  0.01928  -0.0602  -0.01851  0.02008  -0.8329  -0.409
6.354e+09  -0.2188  -0.8604  -0.01105  0.01524  -0.001386  -0.01725  -0.9394  -0.03305
6.355e+09  -0.4771  -0.7639  0.05873  0.03488  -0.007426  -0.03651  -0.8885  0.2613
6.356e+09  -0.7247  -0.5089  0.00273  0.006915  -0.02241  -0.0484  -0.7694  0.57
6.358e+09  -0.83  -0.1735  0.03928  -0.02946  0.01945  0.004515  -0.5429  0.7688
6.359e+09  -0.9326  0.1245  0.001562  0.01069  -0.0006595  -0.009926  -0.221  0.8853
6.36e+09  -0.7715  0.3623  -0.02828  0.02147  0.01342  -0.01033  0.093  0.9154
6.361e+09  -0.5982  0.6624  0.01895  -0.02565  0.03485  -0.02298  0.4056  0.8854
6.362e+09  -0.3692  0.7975  0.02135  -0.004754  0.02363  -0.009069  0.6567  0.6609
6.364e+09  0.0002957  0.8891  -0.03726  0.02313  -0.001576  -0.01635  0.8412  0.3808
6.365e+09  0.2569  0.8548  0.01941  -0.00919  -0.025  0.01181  0.9756  0.0984
6.366e+09  0.5522  0.6967  -0.03241  0.02988  -0.005127  0.04003  0.8657  -0.2528
6.368e+09  0.7372  0.4707  -0.02995  0.04533  0.0002177  -0.0254  0.7837  -0.5427
6.369e+09  0.8786  0.1297  0.01411  0.01843  -0.04039  -0.01312  0.5419  -0.778
6.37e+09  0.8638  -0.1541  0.01607  0.009016  -0.0254  0.004593  0.2569  -0.8806
6.371e+09  0.7719  -0.4327  0.002564  0.02127  0.01897  -0.05329  -0.07607  -0.9541
6.372e+09  0.5609  -0.684  0.001776  0.001788  -0.04325  -0.02711  -0.4024  -0.8497
6.374e+09  0.3027  -0.8334  -0.01169  0.01511  0.01034  0.01565  -0.6493  -0.6969
6.375e+09  0.01394  -0.9188  -0.002469  -0.02575  0.03118  0.01708  -0.8362  -0.4429
6.376e+09  -0.3444  -0.84  0.01312  0.02582  0.03592  -0.01507  -0.9511  -0.08872
6.378e+09  -0.6071  -0.6351  -0.02755  0.01916  -0.0001599  0.02007  -0.9179  0.2244
6.379e+09  -0.7859  -0.4187  -0.005727  0.03678  -0.007461  0.001394  -0.7785  0.535
6.38e+09  -0.8758  -0.07071  -0.01028  -0.01246  -0.02211  -0.03117  -0.5648  0.7609
6.381e+09  -0.8866  0.2085  0.03305  -0.05821  -0.02316  0.0003697  -0.2378  0.8963
6.382e+09  -0.7763  0.5273  -0.007501  -0.03712  0.03079  0.02556  0.07802  0.9427
6.384e+09  -0.5034  0.6731  -0.01952  0.002074  -0.01129  -0.03974  0.3663  0.8575
6.385e+09  -0.2595  0.7974  0.01382  -0.063  0.01845  -0.01646  0.6454  0.7246
6.386e+09  0.03343  0.8954  -0.004229  0.007152  -0.002336  0.01495  0.8226  0.405
6.388e+09  0.3372  0.8397  -0.02957  0.01856  0.0117  -0.02705  0.9341  0.1128
6.389e+09  0.6635  0.6103  0.02545  -0.03462  0.04092  0.00422  0.8521  -0.1717
6.39e+09  0.7933  0.3553  -0.02698  0.008423  -0.02829  0.02012  0.7778  -0.4854
6.391e+09  0.8809  0.09818  0.03485  0.02408  0.0476  0.009797  0.5651  -0.7269
6.392e+09  0.8561  -0.2506  0.02756  0.02049  0.02399  -0.0001666  0.2841  -0.8935
6.394e+09  0.7038  -0.5457  -0.009089  -0.019  -0.002624  0.0004603  -0.03238  -0.9334
6.395e+09  0.5599  -0.7794  -0.005434  -0.005171  -0.02027  0.03629  -0.3316  -0.8777
6.396e+09  0.1975  -0.8731  0.02291  -0.002714  0.006878  -0.0111  -0.6365  -0.6801
6.398e+09  -0.09939  -0.8945  -0.06376  -0.008596  -0.006633  -0.02268  -0.8443  -0.4303
6.399e+09  -0.4153  -0.8053  -0.003862  -0.02218  0.03956  0.02944  -0.9217  -0.1401
6.4e+09  -0.5885  -0.6141  0.02248  -0.01438  0.01275  0.002502  -0.8772  0.119
6.401e+09  -0.7769  -0.3581  0.01012  -0.01463  0.00875  -0.01126  -0.7715  0.4624
6.402e+09  -0.8668  -0.03465  -0.01023  0.01027  -0.002082  -0.001496  -0.5904  0.6935
6.404e+09  -0.8212  0.2607  -0.01935  -0.05911  -0.03875  0.03118  -0.2969  0.8732
6.405e+09  -0.6773  0.5225  -0.01256  0.02908  0.03577  -0.003061  0.0673  0.9082
6.406e+09  -0.4573  0.6742  -0.01555  -0.01547  -0.000943  0.04006  0.3492  0.8494
6.408e+09  -0.1673  0.8534  -0.001675  -0.03212  0.04811  -0.02125  0.5801  0.6786
6.409e+09  0.1352  0.8307  0.0009867  -0.01119  0.02624  0.005904  0.7852  0.4454
6.41e+09  0.4333  0.7323  0.03611  -0.04327  0.01376  -0.0254  0.925  0.1317
6.411e+09  0.6403  0.6029  0.002907  -0.02475  0.0057  -0.0004527  0.9409  -0.1225
6.412e+09  0.833  0.3946  -0.01862  0.0005138  -0.0149  -0.006252  0.7589  -0.4526
6.414e+09  0.8377  -0.02389  0.01831  0.03029  0.0553  -0.02537  0.5985  -0.6466
6.415e+09  0.8431  -0.2968  -0.04766  0.03083  -0.02284  0.02751  0.3241  -0.8579
6.416e+09  0.7215  -0.6179  0.001411  -0.009275  -0.004768  0.05911  0.06439  -0.9076
6.418e+09  0.4203  -0.7618  -0.01272  0.01796  0.04461  -0.01612  -0.3329  -0.8402
6.419e+09  0.1338  -0.8731  0.01793  -0.02074  0.01713  -0.005133  -0.548  -0.7013
6.42e+09  -0.1268  -0.7941  -0.006764  0.01223  -0.007672  -0.01325  -0.738  -0.4752
6.421e+09  -0.4367  -0.7693  0.01703  0.03088  0.0136  0.04317  -0.8816  -0.2069
6.422e+09  -0.6634  -0.515  0.0009667  -0.00678  0.005432  0.008208  -0.8748  0.1026
6.424e+09  -0.8574  -0.3104  -0.008578  -0.009069  -0.02634  -0.01661  -0.7462  0.4098
6.425e+09  -0.9345  0.01252  0.02598  -0.03828  -0.03418  -0.0157  -0.6125  0.6478
6.426e+09  -0.7951  0.3626  0.07068  -0.02645  -0.01788  0.03202  -0.3292  0.8312
6.428e+09  -0.6076  0.583  -0.008132  -0.02789  0.01742  -0.01754  -0.03622  0.8895
6.429e+09  -0.4048  0.7449  0.003934  0.04572  -0.03152  -0.003183  0.2278  0.8167
6.43e+09  -0.08312  0.8803  -0.02037  -0.02764  0.001488  0.002916  0.5122  0.7145
6.431e+09  0.1375  0.8806  -0.00025  0.003622  0.001223  -0.02146  0.7579  0.471
6.432e+09  0.4564  0.7655  -0.01353  0.02632  -0.02301  0.000351  0.8695  0.2044
6.434e+09  0.69  0.5838  0.03935  -0.01624  -0.04896  -0.05607  0.8269  -0.08471
6.435e+09  0.8788  0.2531  -0.01415  -0.01252  -0.002191  0.06066  0.8627  -0.3999
6.436e+09  0.8704  -0.05642  -0.006756  -0.01718  0.005231  0.03347  0.569  -0.6142
6.438e+09  0.8125  -0.337  -0.0241  -0.02132  -0.01106  -0.02604  0.3765  -0.7607
6.439e+09  0.6708  -0.5612  0.0263  0.01457  0.02191  0.06561  0.04645  -0.8665
6.44e+09  0.4346  -0.7702  -0.0002821  0.041  0.02883  -0.02347  -0.2193  -0.8536
6.441e+09  0.1229  -0.8439  0.04607  0.03725  0.0145  0.001582  -0.4816  -0.6969
6.442e+09  -0.1635  -0.8426  -0.03784  0.02306  0.02503  0.03148  -0.7017  -0.4706
6.444e+09  -0.4692  -0.7172  -0.01649  0.05116  -0.01668  -0.01708  -0.8445  -0.213
6.445e+09  -0.6697  -0.51  -0.02525  -0.01882  0.001156  0.01832  -0.834  0.08325
6.446e+09  -0.8576  -0.2811  0.005813  -0.00905  0.04824  -0.01032  -0.7449  0.4225
6.448e+09  -0.8363  0.05913  0.004548  -0.001471  0.005787  -0.03464  -0.5881  0.5905
6.449e+09  -0.7758  0.3443  -0.04215  -0.05309  -0.01846  -0.05032  -0.3448  0.848
6.45e+09  -0.6239  0.5854  0.004871  0.05428  -0.03876  0.01785  -0.06585  0.8345
6.451e+09  -0.4051  0.7547  -0.004956  -0.009385  -0.005873  0.03072  0.2322  0.8387
6.452e+09  -0.07668  0.9127  0.04264  0.03107  -0.01061  0.01131  0.5129  0.682
6.454e+09  0.1795  0.8138  -0.02151  0.001948  0.009598  0.01376  0.6614  0.4541
6.455e+09  0.4599  0.7791  -0.004023  0.009256  -0.003959  -0.04834  0.806  0.2307
6.456e+09  0.7337  0.5153  -0.04417  0.009337  0.01566  0.06065  0.8443  -0.04222
6.458e+09  0.8649  0.2669  -0.0112  -0.04455  -0.04723  0.0296  0.7765  -0.3411
6.459e+09  0.8824  -0.06518  -0.003491  0.0179  -0.03759  0.03102  0.5879  -0.546
6.46e+09  0.8164  -0.3135  0.03521  -0.01963  0.03978  -0.04669  0.3512  -0.7535
6.461e+09  0.6112  -0.6544  0.04854  0.009353  0.01928  0.007846  0.08983  -0.8215
6.462e+09  0.4102  -0.752  0.03731  -0.001673  -0.0481  -0.02162  -0.208  -0.807
6.464e+09  0.1189  -0.8581  -0.002006  0.03046  -0.04844  0.0189  -0.5127  -0.6357
6.465e+09  -0.2018  -0.8439  -0.003101  0.02324  -0.007529  -0.004597  -0.6619  -0.4214
6.466e+09  -0.4976  -0.726  -0.0135  0.006512  -0.05682  -0.02759  -0.7467  -0.1834
6.468e+09  -0.6445  -0.5711  0.009857  -0.00535  0.01186  0.03806  -0.7991  0.06646
6.469e+09  -0.8678  -0.2502  0.02828  0.04344  0.01931  -0.001139  -0.7343  0.3082
6.47e+09  -0.8539  0.03776  -0.003812  0.04263  -0.02318  0.006358  -0.5815  0.5932
6.471e+09  -0.8485  0.3453  -0.0207  -0.009211  0.004433  0.03982  -0.3097  0.7249
6.472e+09  -0.6088  0.6261  -0.002755  0.01899  0.009307  0.02969  -0.01349  0.7848
6.474e+09  -0.3727  0.8164  0.0359  -0.01215  0.02327  -0.02767  0.2133  0.7667
6.475e+09  -0.1036  0.9095  -0.01053  0.05586  0.02677  -0.03829  0.4524  0.649
6.476e+09  0.2422  0.8817  0.0112  -0.02209  0.02073  -0.01123  0.6295  0.4337
6.478e+09  0.4979  0.7046  -0.03359  0.06678  0.01123  -0.01573  0.7549  0.178
6.479e+09  0.7182  0.5607  0.006525  -0.03151  -0.009467  0.03067  0.787  -0.1224
6.48e+09  0.8429  0.2172  0.01898  0.007075  -0.0629  -0.002608  0.7117  -0.35
6.481e+09  0.8448  -0.117  -0.004407  0.004773  0.0003715  -0.02641  0.5463  -0.5327
6.482e+09  0.792  -0.3732  0.002552  -0.0625  -0.02034  -0.03747  0.3748  -0.756
6.484e+09  0.6275  -0.6082  -0.007218  0.01493  -0.01658  -0.01099  0.02713  -0.7933
6.485e+09  0.3594  -0.8159  -0.007063  -0.002947  0.04201  -0.008201  -0.216  -0.7402
6.486e+09  0.08541  -0.8851  -0.009202  0.01977  -0.01893  0.007434  -0.4577  -0.6224
6.488e+09  -0.2006  -0.8858  -0.02079  0.01415  0.02059  -0.008222  -0.6591  -0.4894
6.489e+09  -0.5385  -0.7288  -0.01298  -0.05269  0.04086  -0.003898  -0.7134  -0.1868
6.49e+09  -0.7587  -0.5567  -0.002014  0.007408  -0.01991  -0.07677  -0.7592  0.1148
6.491e+09  -0.8277  -0.2364  0.01836  -0.009385  -0.03972  -0.0158  -0.6813  0.3342
6.492e+09  -0.9312  0.08963  0.01169  0.04953  0.01774  -0.01234  -0.4904  0.61
6.494e+09  -0.7678  0.3727  0.006497  -0.05381  0.03167  -0.03818  -0.2998  0.7184
6.495e+09  -0.6303  0.6965  0.04216  -0.01503  0.005314  -0.06729  -0.02427  0.7513
6.496e+09  -0.4106  0.8021  0.0184  -0.004507  0.03413  -0.001658  0.2611  0.7388
6.498e+09  -0.1158  0.9159  0.01669  -0.01054  0.02084  0.01673  0.473  0.6144
6.499e+09  0.2609  0.8725  -0.06693  -0.009114  -0.001164  0.02682  0.5892  0.3896
6.5e+09  0.5336  0.7161  -0.01805  -0.02295  0.003228  0.02222  0.7484  0.1295
6.501e+09  0.7255  0.5315  -0.01515  -0.03622  0.02936  -0.04082  0.7888  -0.1614
6.502e+09  0.8473  0.1996  -0.03151  -0.02242  -0.01542  -0.007576  0.6492  -0.3702
6.504e+09  0.8848  -0.07106  -0.002027  -0.005795  0.03393  0.002226  0.508  -0.5451
6.505e+09  0.7816  -0.3978  0.01419  0.0136  -0.01904  0.04055  0.2719  -0.6958
6.506e+09  0.6293  -0.693  0.02547  -0.01489  0.01312  -0.06301  -0.002541  -0.7845
6.508e+09  0.3325  -0.8916  0.03503  0.009486  0.009902  -0.02208  -0.2426  -0.7079
6.509e+09  0.09322  -1.003  -0.01227  -0.01366  0.003554  -0.04591  -0.4667  -0.567
6.51e+09  -0.2633  -0.8932  0.008163  0.03976  0.08265  -0.01855  -0.6399  -0.3769
6.511e+09  -0.5656  -0.7471  0.03683  -0.0333  0.0636  0.02812  -0.7452  -0.1279
6.512e+09  -0.8007  -0.4748  0.01336  -0.03336  -0.02272  -0.025  -0.7387  0.1343
6.514e+09  -0.9081  -0.1403  0.007112  -0.01491  0.04881  0.07615  -0.6217  0.3997
6.515e+09  -0.8834  0.114  0.002074  -0.02115  0.03748  0.05257  -0.5005  0.5822
6.516e+09  -0.8539  0.4739  0.02029  0.006076  -0.04137  -0.007476  -0.2645  0.7096
6.518e+09  -0.5874  0.6893  -0.003848  0.01136  0.0257  0.02369  0.06287  0.7275
6.519e+09  -0.3474  0.9157  -0.01822  0.02132  0.02709  -0.01587  0.2805  0.6952
6.52e+09  0.006473  0.9845  0.03378  -0.02053  -0.04128  -0.02103  0.476  0.5746
6.521e+09  0.3929  0.9198  -0.005448  -0.03992  -0.006416  -0.02303  0.6606  0.3356
6.522e+09  0.6024  0.7498  0.02004  0.02172  0.07183  -0.003391  0.7312  0.1047
6.524e+09  0.8374  0.4535  0.0006568  -0.007273  0.02873  -0.001531  0.7112  -0.1686
6.525e+09  0.9317  0.1679  -0.02119  0.06052  -0.01602  0.04407  0.6018  -0.3844
6.526e+09  0.9519  -0.1573  0.003219  -0.0175  0.01474  0.03986  0.4406  -0.5548
6.528e+09  0.846  -0.5114  0.02394  0.01049  -0.0206  0.0009336  0.216  -0.6604
6.529e+09  0.6116  -0.7268  -0.004487  0.02165  0.03724  0.03847  -0.03506  -0.723
6.53e+09  0.3183  -0.9589  -0.01133  -0.02249  -0.03882  0.007667  -0.2654  -0.6951
6.531e+09  -0.007784  -0.9731  0.05263  0.001867  0.01799  -0.0008711  -0.4636  -0.4654
6.532e+09  -0.4321  -0.8771  -0.02362  -0.004551  0.01935  -0.005935  -0.6077  -0.2951
6.534e+09  -0.6849  -0.7718  0.00728  -0.003769  -0.02218  0.003871  -0.6346  -0.05877
6.535e+09  -0.9083  -0.4533  0.01647  0.004737  -0.0327  0.01867  -0.6252  0.1005
6.536e+09  -0.9797  -0.09995  -0.009581  0.01302  0.03438  0.0215  -0.5806  0.2999
6.538e+09  -0.9846  0.2931  -0.02459  -0.01433  -0.06115  -0.01791  -0.4404  0.5004
6.539e+09  -0.8188  0.5839  -0.01161  -0.001983  0.0448  0.03437  -0.2515  0.6359
6.54e+09  -0.5328  0.8672  -0.01486  0.01163  0.02875  0.02419  -0.03992  0.6831
6.541e+09  -0.2682  0.9404  0.008431  0.004096  0.01421  0.02203  0.2084  0.6216
6.542e+09  0.03769  0.9296  -0.001205  0.009081  -0.02172  -0.0133  0.426  0.5889
6.544e+09  0.4227  0.9029  -0.00773  -0.007529  -0.02148  0.03629  0.6248  0.3824
6.545e+09  0.6781  0.688  -0.01198  -0.03551  -0.008578  0.004404  0.7401  0.1876
6.546e+09  0.9005  0.3535  0.01807  -0.01884  -0.06967  -0.0003276  0.7215  -0.09049
6.548e+09  0.9793  -0.0004729  0.03233  0.02404  -0.05058  -0.005507  0.6622  -0.3147
6.549e+09  0.8911  -0.3597  0.005412  -0.02484  -0.01852  -0.05123  0.5422  -0.5422
6.55e+09  0.7942  -0.6177  -0.01988  -0.005985  -0.005727  -0.02079  0.2955  -0.6952
