# Hz S RI R 50
6.25e+09  -0.3622  0.7761  0.02792  -0.01267  0.0148  0.06475  0.1712  0.5058
6.251e+09  -0.006161  0.8166  -0.004636  -0.009314  -0.02553  0.04676  0.3687  0.4005
6.252e+09  0.2841  0.8398  0.005261  0.001889  -0.01567  0.02564  0.514  0.2485
6.254e+09  0.5314  0.6503  0.001364  -0.02116  0.01242  -0.01032  0.6079  0.006998
6.255e+09  0.6514  0.4417  0.007189  -0.02272  -0.07519  0.03348  0.5732  -0.2234
6.256e+09  0.7911  0.1877  -0.02433  0.001995  -0.06672  -0.0276  0.4474  -0.4089
6.258e+09  0.7792  -0.1541  -0.003335  -0.01835  0.007913  0.06068  0.2908  -0.6184
6.259e+09  0.7448  -0.342  -0.0001388  0.003983  -0.008418  -0.007962  0.01707  -0.6744
6.26e+09  0.5598  -0.5902  -0.01322  -0.0247  0.05148  -0.01488  -0.2384  -0.6531
6.261e+09  0.3266  -0.7606  0.005045  0.002653  0.001889  0.03626  -0.4348  -0.5547
6.262e+09  0.05095  -0.8045  -0.01194  0.008573  -0.008816  -0.01829  -0.6315  -0.3187
6.264e+09  -0.2827  -0.827  0.02444  0.02693  0.03893  0.003683  -0.7321  -0.1063
6.265e+09  -0.485  -0.6366  -0.03805  0.003022  -0.004687  -0.02773  -0.6991  0.1494
6.266e+09  -0.6727  -0.4717  -0.02452  0.01674  -0.05671  -0.04294  -0.6051  0.3722
6.268e+09  -0.8649  -0.1452  0.04073  0.001867  0.009713  -0.006263  -0.419  0.6177
6.269e+09  -0.8252  0.09393  -0.0273  0.009114  0.03353  0.01588  -0.1737  0.7288
6.27e+09  -0.7305  0.3848  0.001958  -0.03571  0.02387  -0.01333  0.04847  0.7263
6.271e+09  -0.584  0.6339  -0.0126  -0.03592  -0.005481  -0.0008489  0.3225  0.6587
6.272e+09  -0.3571  0.8053  -0.01237  0.01538  -0.01164  -0.001379  0.509  0.5024
6.274e+09  -0.01296  0.8327  -0.007365  0.007909  0.0199  -0.003047  0.674  0.3093
6.275e+09  0.2329  0.8014  0.002578  0.01432  -0.04832  0.002815  0.7607  0.03143
6.276e+09  0.5134  0.6564  0.0001654  -0.0182  -0.08815  -0.0248  0.7102  -0.1991
6.278e+09  0.7072  0.4702  -0.00107  0.004146  -0.02336  0.01647  0.6241  -0.4499
6.279e+09  0.8779  0.1608  -0.0113  -0.008864  0.008431  -0.00234  0.4185  -0.6162
6.28e+09  0.8144  -0.149  0.009132  -0.009546  -0.004095  0.02549  0.1765  -0.7826
6.281e+09  0.6684  -0.356  0.01028  -0.03544  0.003638  -0.0583  -0.1038  -0.8273
6.282e+09  0.5909  -0.5728  0.03959  6.261e-05  -0.01068  0.027  -0.3637  -0.6909
6.284e+09  0.309  -0.7718  -0.007958  0.02323  0.003163  0.01815  -0.6018  -0.4964
6.285e+09  0.01499  -0.8361  0.005158  0.0157  -0.01513  -0.005353  -0.744  -0.2834
6.286e+09  -0.2773  -0.7581  0.007868  0.01864  0.03159  -0.009474  -0.8144  -0.02557
6.288e+09  -0.5566  -0.6283  -0.02328  0.0522  -0.05787  0.01018  -0.7776  0.2455
6.289e+09  -0.7223  -0.4403  0.01135  -0.03117  0.003659  -0.02081  -0.6335  0.5128
6.29e+09  -0.8745  -0.1064  0.002413  0.004529  -0.02039  0.04707  -0.4521  0.7136
6.291e+09  -0.8275  0.1513  0.02892  0.007514  0.003871  -0.004286  -0.1615  0.7664
6.292e+09  -0.6989  0.4333  -0.03687  0.02542  0.02486  -0.03038  0.1006  0.8196
6.294e+09  -0.5619  0.631  -0.002545  -0.0166  0.003329  -0.006697  0.3941  0.7009
6.295e+09  -0.2611  0.7767  -0.02728  0.0123  -0.01693  -0.003551  0.6205  0.5224
6.296e+09  0.01987  0.849  -0.006596  0.01115  0.002281  0.01012  0.776  0.2854
6.298e+09  0.391  0.7776  0.01009  -0.01223  -0.002732  -0.1207  0.835  0.02788
6.299e+09  0.5736  0.6346  0.03778  0.01165  0.008057  -0.02669  0.7731  -0.2812
6.3e+09  0.7291  0.3449  -0.01344  0.01188  0.02203  -0.01108  0.623  -0.5463
6.301e+09  0.8296  0.08978  -0.02176  -0.005071  0.01017  -0.02628  0.4304  -0.7249
6.302e+09  0.7822  -0.1568  -0.01111  0.01898  0.0009529  0.01879  0.163  -0.818
6.304e+09  0.7147  -0.4097  0.0178  0.02378  0.06007  0.05344  -0.1412  -0.8345
6.305e+09  0.5268  -0.6639  -0.01108  -0.02436  -0.01613  -0.02281  -0.4587  -0.7321
6.306e+09  0.233  -0.7587  0.002547  -0.002543  0.07475  -0.02424  -0.6381  -0.535
6.308e+09  -0.07366  -0.868  0.01381  0.005405  0.02447  -0.02222  -0.7686  -0.3052
6.309e+09  -0.3786  -0.7164  0.01338  -0.008894  0.05536  -0.02802  -0.8586  0.008199
6.31e+09  -0.5967  -0.6231  -0.005607  -0.009042  0.02168  0.0124  -0.8013  0.2693
6.311e+09  -0.7828  -0.3165  -0.01782  -0.007648  -0.01544  0.05987  -0.6817  0.5653
6.312e+09  -0.7852  -0.0637  0.02442  -0.002328  0.003462  0.006818  -0.4638  0.7259
6.314e+09  -0.7746  0.2147  0.004202  0.02197  -0.04532  0.002006  -0.1577  0.8497
6.315e+09  -0.6707  0.4683  -0.007524  -0.02062  -0.01012  0.03636  0.1521  0.8455
6.316e+09  -0.4123  0.7107  -0.03455  0.01315  -0.04972  -0.04411  0.4388  0.7467
6.318e+09  -0.2131  0.813  -0.001275  -0.006065  0.03596  0.009001  0.6621  0.5741
6.319e+09  0.131  0.8353  0.01568  -0.001947  -0.01985  0.006429  0.8273  0.348
6.32e+09  0.391  0.7756  0.006162  0.03021  -0.001753  0.008679  0.9038  0.02165
6.321e+09  0.6408  0.5666  -0.003447  -0.007577  0.0003421  -0.02572  0.8002  -0.3168
6.322e+09  0.7922  0.3641  -0.01436  0.01321  0.0334  -0.01851  0.6924  -0.571
6.324e+09  0.887  0.05477  -0.01754  0.03636  0.02606  -0.02465  0.4725  -0.744
6.325e+09  0.8142  -0.2631  -0.01366  0.03742  0.01762  0.03131  0.2013  -0.8951
6.326e+09  0.6828  -0.5331  -0.01035  -0.002106  0.01013  0.02633  -0.1613  -0.896
6.328e+09  0.4276  -0.7302  0.01225  -0.004321  0.02397  -0.03342  -0.4167  -0.779
6.329e+09  0.1501  -0.8539  -0.000554  0.01486  -0.03049  0.004213  -0.7068  -0.6023
6.33e+09  -0.1636  -0.8767  0.006311  -0.0132  0.006186  -0.008961  -0.855  -0.359
6.331e+09  -0.4342  -0.7348  0.01321  -0.003541  -0.0007783  -0.005498  -0.943  -0.005514
6.332e+09  -0.7251  -0.5675  -0.01103  0.001281  0.04043  0.008078  -0.8769  0.3141
6.334e+09  -0.8734  -0.2837  0.01018  -0.006361  0.03188  0.004123  -0.7564  0.5504
6.335e+09  -0.875  0.02488  0.00714  0.02879  -0.02306  -0.03594  -0.4359  0.7666
6.336e+09  -0.769  0.3515  -0.03756  0.00544  0.03052  -0.07032  -0.2006  0.9038
6.338e+09  -0.6528  0.5929  0.001599  0.0003239  -0.01478  -0.03664  0.1323  0.9322
6.339e+09  -0.3953  0.7853  0.008435  0.01214  0.0004612  -0.02041  0.4352  0.8339
6.34e+09  -0.1599  0.8841  -0.01747  0.0014  -0.008339  0.01775  0.6882  0.617
6.341e+09  0.1862  0.8689  0.01179  0.02304  -0.01536  0.01958  0.8183  0.3355
6.342e+09  0.5552  0.745  0.0002152  0.03481  -0.01133  0.02018  0.921  0.04501
6.344e+09  0.7111  0.5217  0.03282  -0.003903  0.008663  0.0366  0.8842  -0.2572
6.345e+09  0.8735  0.199  0.0223  -0.01363  0.01316  0.02314  0.8  -0.5557
6.346e+09  0.9019  -0.0693  2.226e-05  -0.0071  -0.009375  -0.01982  0.4888  -0.7852
6.348e+09  0.8648  -0.389  0.03174  -0.01085  0.002323  -0.003812  0.2157  -0.8929
6.349e+09  0.6403  -0.6327  0.03215  0.004234  0.0278  -0.06407  -0.1119  -0.8983
6.35e+09  0.3672  -0.7795  -0.01611  0.01217  -0.03641  -0.00235  -0.389  -0.8206
6.351e+09  0.04995  -0.9128  -0.01186  0.008252  -0.02821  0.0381  -0.667  -0.6136
6.352e+09  -0.2491  -0.8512  -0.001669  0.007344  -0.01471  0.02045  -0.8747  -0.385
6.354e+09  -0.5251  -0.7004  0.002669  0.001476  0.05603  -0.0104  -0.9614  -0.005965
6.355e+09  -0.7199  -0.5091  0.03647  0.0286  -0.01657  0.02532  -0.9213  0.2473
6.356e+09  -0.8933  -0.1855  -0.01882  0.02702  -0.01084  0.03282  -0.7743  0.5187
6.358e+09  -0.8458  0.1882  -0.02061  0.004446  0.0514  0.005686  -0.544  0.7889
6.359e+09  -0.7646  0.3835  0.001119  0.02076  0.03389  0.01886  -0.2275  0.9079
6.36e+09  -0.6147  0.67  -0.04872  0.02261  -0.01017  -0.01791  0.08743  0.9252
6.361e+09  -0.3643  0.8604  0.03784  0.006457  -0.02285  0.01958  0.447  0.846
6.362e+09  0.007708  0.9146  0.01082  -0.01355  0.04375  0.04362  0.6675  0.6699
6.364e+09  0.326  0.8513  0.009142  0.0312  0.01769  0.004555  0.8621  0.3775
6.365e+09  0.6003  0.662  0.006816  0.009998  0.01073  -0.01008  0.9723  0.09243
6.366e+09  0.7903  0.4051  0.01347  0.01752  0.03441  0.02348  0.9055  -0.2636
6.368e+09  0.8655  0.09332  -2.208e-05  0.007624  0.05518  -0.003065  0.781  -0.5561
6.369e+09  0.8895  -0.213  -0.03812  0.01252  0.02789  0.02228  0.5675  -0.7475
6.37e+09  0.7416  -0.4784  -0.01053  0.02944  -0.01164  0.0275  0.2596  -0.9069
6.371e+09  0.5578  -0.7135  0.005283  -0.009397  0.02991  -0.007346  -0.04259  -0.9259
6.372e+09  0.2459  -0.8429  0.003914  -0.03438  0.03707  0.03864  -0.4077  -0.8604
6.374e+09  -0.0379  -0.9199  -0.02577  -0.006758  0.02336  0.03814  -0.7041  -0.6959
6.375e+09  -0.3868  -0.8065  -0.01605  0.02732  0.007324  -0.007611  -0.8867  -0.3993
6.376e+09  -0.6094  -0.6496  -0.006141  -0.003553  -0.02147  -0.001821  -0.952  -0.08302
6.378e+09  -0.7855  -0.4169  -0.0337  -0.01115  -0.01369  0.03216  -0.9408  0.2446
6.379e+09  -0.8634  -0.1534  -0.03731  -0.0002127  0.04387  0.02067  -0.7654  0.5265
6.38e+09  -0.8884  0.2579  0.01706  0.0173  -0.05403  0.02097  -0.576  0.7571
6.381e+09  -0.7546  0.4792  -0.001267  -0.009197  -0.02131  0.03428  -0.2443  0.9333
6.382e+09  -0.5241  0.7545  -0.01432  -0.04099  1.436e-05  0.02394  0.0628  0.9442
6.384e+09  -0.2399  0.8729  0.01064  0.01235  0.01491  0.02545  0.3521  0.9033
6.385e+09  0.07907  0.9007  -0.008628  -0.009433  -0.02748  0.01817  0.6247  0.7168
6.386e+09  0.436  0.7599  0.02581  -0.01401  0.009276  -0.007303  0.8077  0.3898
6.388e+09  0.6557  0.6459  0.002483  0.02866  -0.04826  -0.01765  0.9061  0.136
6.389e+09  0.8054  0.4048  0.02839  0.0008246  -0.05452  -0.006916  0.9125  -0.2259
6.39e+09  0.8846  0.02968  0.01301  0.002421  0.01832  -0.01682  0.8097  -0.5156
6.391e+09  0.8289  -0.2623  0.02367  -0.02726  -0.0005805  0.04086  0.5957  -0.7254
6.392e+09  0.747  -0.53  0.0121  -0.01259  0.007431  -0.02059  0.2806  -0.8565
6.394e+09  0.4755  -0.7265  -0.01681  0.02646  -0.008965  -0.0301  -0.03791  -0.9722
6.395e+09  0.1926  -0.8567  0.04415  0.01651  -0.001464  0.02767  -0.3307  -0.8785
6.396e+09  -0.1372  -0.9592  -0.01143  0.0009837  0.01351  0.03399  -0.6074  -0.665
6.398e+09  -0.4208  -0.8128  -0.0272  -0.03304  -0.0008942  -0.04668  -0.7778  -0.486
6.399e+09  -0.6612  -0.6007  0.001557  0.003302  -0.04689  0.01978  -0.9138  -0.1677
6.4e+09  -0.8487  -0.312  -0.01994  0.01819  -0.04049  0.005517  -0.8979  0.1441
6.401e+09  -0.8447  0.02312  -0.01718  0.03836  -0.04737  -0.009726  -0.7974  0.5083
6.402e+09  -0.7796  0.2102  -0.003315  0.005909  -0.0008717  -0.00247  -0.6075  0.7184
6.404e+09  -0.6771  0.5134  -0.01151  -0.003938  -0.01262  -0.02154  -0.2917  0.8557
6.405e+09  -0.4552  0.734  -0.01373  0.006097  -0.01829  -0.006763  -0.002737  0.9342
6.406e+09  -0.1748  0.8573  -0.008655  0.03131  0.0157  0.001975  0.3211  0.8473
6.408e+09  0.1446  0.8664  -0.01015  -0.01563  0.01471  -0.04101  0.5907  0.6923
6.409e+09  0.4778  0.7646  -0.02262  0.004439  -0.01628  -0.003181  0.8001  0.4694
6.41e+09  0.6561  0.609  0.008586  -0.005926  0.04556  -0.01701  0.8335  0.1672
6.411e+09  0.8014  0.3436  0.02532  -0.01613  0.02235  -0.005902  0.8516  -0.1278
6.412e+09  0.8943  0.00483  -0.01658  0.03847  -0.09026  0.001933  0.7708  -0.4285
6.414e+09  0.8367  -0.324  0.02334  -0.01035  -0.03432  -0.06231  0.5788  -0.7014
6.415e+09  0.7488  -0.5614  0.006689  0.02276  0.01067  0.04003  0.3837  -0.8561
6.416e+09  0.4307  -0.7364  -0.03783  -0.02839  0.02723  -0.03033  0.008784  -0.8539
6.418e+09  0.1336  -0.8655  0.0418  0.02098  -0.01063  -0.001115  -0.2941  -0.8023
6.419e+09  -0.153  -0.9494  -0.001308  0.009988  0.03745  0.03972  -0.5314  -0.6962
6.42e+09  -0.4805  -0.7968  -0.01529  -0.04298  -0.006618  -0.009078  -0.7225  -0.4742
6.421e+09  -0.6511  -0.5434  0.02429  -0.006202  -0.05015  0.005652  -0.8632  -0.196
6.422e+09  -0.8272  -0.3316  -0.01363  -0.04687  0.01769  -0.01358  -0.9149  0.1191
6.424e+09  -0.9096  0.03106  0.02657  0.01027  0.007827  0.003236  -0.7513  0.4193
6.425e+09  -0.8519  0.3291  0.02723  -0.0003433  -0.02731  -0.04631  -0.5688  0.6432
6.426e+09  -0.7238  0.6066  -0.03488  0.02085  0.01881  -0.01223  -0.3264  0.7885
6.428e+09  -0.3993  0.7671  -0.01659  0.002019  -0.003194  -0.0127  -0.04042  0.9071
6.429e+09  -0.1483  0.9134  0.04818  -0.07745  -0.03814  0.01665  0.2709  0.8106
6.43e+09  0.1796  0.8596  0.0161  0.01366  -0.01483  -0.01139  0.5315  0.7066
6.431e+09  0.4273  0.8397  -0.009075  0.01616  -0.003447  0.02307  0.7398  0.4544
6.432e+09  0.7027  0.5771  -0.03842  -0.01771  0.09998  0.01587  0.8419  0.1739
6.434e+09  0.8733  0.2484  -0.00191  -0.0115  0.002039  0.02744  0.8911  -0.08058
6.435e+09  0.8443  0.002963  -0.005497  -0.05721  0.02137  -0.0004592  0.7696  -0.3663
6.436e+09  0.824  -0.3482  -0.02712  0.04675  0.00173  0.01524  0.5898  -0.5957
6.438e+09  0.6654  -0.5973  0.0117  0.01142  0.0007446  -0.0007949  0.3092  -0.7738
6.439e+09  0.42  -0.8228  0.03837  0.006306  0.01442  -0.02437  0.09149  -0.8479
6.44e+09  0.1086  -0.8345  0.008203  0.003957  0.009541  -0.02377  -0.2513  -0.8015
6.441e+09  -0.1676  -0.876  0.006371  0.0187  -0.01533  -0.03501  -0.4885  -0.7473
6.442e+09  -0.4947  -0.7519  -0.03063  0.03428  -0.0142  -0.03481  -0.6995  -0.5126
6.444e+09  -0.715  -0.5568  0.01048  -0.02011  0.05303  0.000509  -0.8289  -0.1762
6.445e+09  -0.8466  -0.2223  0.01755  -0.007214  -0.007397  -0.02317  -0.8932  0.03379
6.446e+09  -0.8693  0.04071  0.009812  -0.02869  0.001208  -0.008379  -0.7627  0.3361
6.448e+09  -0.8005  0.3606  0.003564  -0.01659  0.01485  -0.007727  -0.6208  0.5576
6.449e+09  -0.6612  0.5627  0.03331  0.01236  -0.008106  -0.05017  -0.3469  0.7604
6.45e+09  -0.4275  0.7968  -0.05166  0.001384  0.03142  -0.0003483  -0.0769  0.8507
6.451e+09  -0.1313  0.9349  0.007442  -0.02057  0.009742  0.05583  0.2093  0.755
6.452e+09  0.2263  0.8533  -0.007763  0.04325  -0.01102  -0.03788  0.4766  0.6683
6.454e+09  0.5189  0.7315  -0.01193  -0.01059  0.03781  0.007182  0.6894  0.466
6.455e+09  0.6457  0.5508  -0.005985  -0.009702  -0.002523  0.02818  0.7675  0.2133
6.456e+09  0.856  0.2181  -0.02637  0.0213  -0.01814  0.01198  0.7918  -0.07278
6.458e+09  0.8843  -0.01723  -0.03431  0.006545  -0.002723  -0.03445  0.7477  -0.3297
6.459e+09  0.8288  -0.3593  0.008741  0.02521  0.01872  -0.0119  0.5369  -0.614
6.46e+09  0.678  -0.6293  -0.006234  0.04438  0.01831  0.01268  0.3568  -0.7179
6.461e+09  0.4393  -0.8359  0.007092  -0.04363  -0.02757  -0.02627  0.0724  -0.7956
6.462e+09  0.1497  -0.903  -0.03895  0.02022  -0.001458  0.007851  -0.2236  -0.7389
6.464e+09  -0.2322  -0.9047  -0.02294  0.01798  0.004976  0.01703  -0.4586  -0.6832
6.465e+09  -0.5097  -0.7923  -0.0146  -0.01169  0.01136  0.001535  -0.6808  -0.4542
6.466e+09  -0.7459  -0.5524  -0.003315  0.003509  -0.01809  -0.07966  -0.7979  -0.2108
6.468e+09  -0.8431  -0.2674  0.006335  -0.009044  0.06897  -0.0047  -0.7972  0.06323
6.469e+09  -0.8906  0.08266  -0.03267  0.002025  0.02109  0.01491  -0.7204  0.3261
6.47e+09  -0.8424  0.3826  -0.01343  -0.02073  -0.01085  -0.03343  -0.614  0.6113
6.471e+09  -0.628  0.614  0.02523  0.01238  0.04245  0.01727  -0.3073  0.7473
6.472e+09  -0.3691  0.8438  -0.03686  0.01537  0.001842  0.04484  -0.07363  0.7955
6.474e+09  -0.09231  0.9019  0.01606  -0.02474  0.007048  0.008802  0.2239  0.7693
6.475e+09  0.2026  0.8712  0.01427  0.02278  0.01216  0.01364  0.4878  0.6379
6.476e+09  0.5487  0.7366  -0.02482  0.01306  -0.01723  0.02975  0.6027  0.4778
6.478e+09  0.7186  0.5583  -0.02486  0.01711  -0.06242  0.01143  0.7613  0.2085
6.479e+09  0.8647  0.1942  -0.03179  -0.009239  -0.01509  0.02376  0.7529  -0.12
6.48e+09  0.8987  -0.1079  0.00654  0.0264  -0.02068  -0.01909  0.6675  -0.3214
6.481e+09  0.7845  -0.3894  -0.0001783  0.01429  -0.03177  0.02228  0.5813  -0.5921
6.482e+09  0.6825  -0.6635  0.01823  0.05349  0.03132  0.004634  0.3193  -0.7101
6.484e+09  0.3848  -0.812  0.03828  -0.004174  -0.03449  0.008341  0.05762  -0.7924
6.485e+09  0.02174  -0.8729  -0.01199  0.009504  -0.0008118  -0.01142  -0.2264  -0.7235
6.486e+09  -0.2484  -0.9053  -0.02125  0.05556  0.0237  -0.02026  -0.4465  -0.6358
6.488e+09  -0.5403  -0.8009  0.03059  -0.03244  -0.004493  0.04169  -0.6251  -0.4274
6.489e+09  -0.7727  -0.5327  -0.02275  0.004138  0.01861  0.00713  -0.6764  -0.2065
6.49e+09  -0.8438  -0.1846  -0.004303  -0.03548  0.01761  -0.02955  -0.7619  0.09243
6.491e+09  -0.9435  0.06901  0.01705  0.01158  0.01798  -0.02032  -0.6881  0.3254
6.492e+09  -0.8082  0.4313  0.01482  0.0002146  0.002854  -0.01643  -0.513  0.5367
6.494e+09  -0.6496  0.7128  -0.02927  -0.02755  -0.02171  0.007577  -0.3231  0.715
6.495e+09  -0.2746  0.81  0.01057  -0.002986  -0.008093  0.01447  0.001394  0.781
6.496e+09  -0.03843  0.9198  -0.02309  -0.01818  -0.03028  0.01112  0.2311  0.7423
6.498e+09  0.2887  0.9013  -0.0179  -0.005049  0.04286  -0.01341  0.5122  0.5855
6.499e+09  0.568  0.7329  -0.0001263  0.0147  -0.01306  -0.02885  0.6293  0.463
6.5e+09  0.835  0.51  -0.05176  -0.009451  0.03006  0.005586  0.7322  0.1392
6.501e+09  0.9085  0.2319  -0.02174  -0.02745  0.04252  -0.009633  0.7544  -0.1005
6.502e+09  0.9501  -0.135  -0.009587  -0.00701  0.006583  0.02412  0.6521  -0.3323
6.504e+09  0.8028  -0.4798  0.001114  0.00834  0.01715  -0.03593  0.5605  -0.5867
6.505e+09  0.6264  -0.6962  -0.01553  -0.0356  0.01063  -0.02301  0.2751  -0.6942
6.506e+09  0.3684  -0.8335  0.03899  0.01903  -0.01237  -0.03687  -0.008848  -0.7402
6.508e+09  0.04879  -0.9905  0.02183  0.04122  -0.03672  0.02718  -0.2383  -0.6864
6.509e+09  -0.3542  -0.8829  -0.01751  0.001454  0.02452  -0.0173  -0.4796  -0.6173
6.51e+09  -0.6141  -0.779  0.01935  0.01375  0.05239  -0.02609  -0.6753  -0.3704
6.511e+09  -0.7861  -0.4897  0.0116  -0.003113  -0.01153  -0.06115  -0.7458  -0.1414
6.512e+09  -0.9066  -0.1824  -0.009724  -0.00985  0.01416  0.02351  -0.7197  0.09166
6.514e+09  -0.9424  0.1608  -0.007727  -0.03593  -0.0342  -0.0447  -0.6496  0.3819
6.515e+09  -0.8286  0.4652  -0.02715  -0.02025  -0.005369  -0.06019  -0.4545  0.6059
6.516e+09  -0.5996  0.7466  0.004668  0.01589  0.04197  -0.04047  -0.2307  0.6487
6.518e+09  -0.2971  0.9337  0.02443  -0.02346  0.03399  0.001607  0.001962  0.771
6.519e+09  0.03066  0.9714  0.0236  -0.01608  -0.02326  -0.01842  0.2837  0.6474
6.52e+09  0.3591  0.898  0.008266  0.005752  -0.008684  0.02064  0.4773  0.5598
6.521e+09  0.6348  0.6774  0.006358  0.0008162  0.04065  -0.01796  0.6881  0.3652
6.522e+09  0.9121  0.3942  0.005056  -0.0136  0.0356  -0.03162  0.7434  0.08119
6.524e+09  0.9516  0.1417  0.01584  0.03053  0.01159  -0.006387  0.7621  -0.1547
6.525e+09  0.9239  -0.192  -0.01927  -0.009888  -0.006939  0.0694  0.6377  -0.3664
6.526e+09  0.7635  -0.5795  -0.01145  -0.02081  0.04747  0.0576  0.4327  -0.5683
6.528e+09  0.5859  -0.784  -0.00727  -0.006909  0.00524  -0.009567  0.1909  -0.6616
6.529e+09  0.2385  -0.9151  0.03728  0.003583  0.03594  0.02602  -0.08128  -0.6826
6.53e+09  -0.06348  -0.9728  0.0295  -0.02204  -0.01015  -0.0267  -0.2919  -0.6212
6.531e+09  -0.4348  -0.8941  0.01553  -0.004877  -0.04439  0.01569  -0.4626  -0.5008
6.532e+09  -0.7378  -0.6338  -0.004101  0.009488  -0.07719  -0.006489  -0.6048  -0.2899
6.534e+09  -0.8968  -0.4299  0.04139  -0.0004056  -0.00264  0.006015  -0.6416  -0.09915
6.535e+09  -1.002  -0.04507  0.00284  -0.006391  0.01037  -0.003374  -0.632  0.1201
6.536e+09  -0.8722  0.3356  -0.02708  -0.001482  0.0545  -0.01205  -0.5825  0.3067
6.538e+09  -0.7877  0.621  0.002684  0.009769  0.01037  0.03153  -0.4191  0.4943
6.539e+09  -0.5219  0.8235  0.01297  -0.01692  -0.02974  0.002775  -0.2477  0.5946
6.54e+09  -0.2411  0.9159  -0.01055  -0.004702  0.007062  -0.02756  -0.01957  0.6869
6.541e+09  0.1256  0.9929  -0.02071  -0.003203  -0.02603  0.03384  0.1914  0.6512
6.542e+09  0.5067  0.8829  0.005023  -0.02812  -0.02514  -0.04533  0.407  0.563
6.544e+09  0.808  0.6375  0.02727  0.02003  0.02445  -0.02751  0.5748  0.3833
6.545e+09  0.9151  0.3265  -0.004048  -0.007896  0.02282  0.02421  0.7146  0.1973
6.546e+09  1.002  -0.06201  0.00891  -0.01357  -0.03565  0.03362  0.7354  -0.0551
6.548e+09  0.8715  -0.3645  0.02163  0.01485  -0.0116  0.002053  0.645  -0.3334
6.549e+09  0.7062  -0.6658  0.01091  -0.01108  0.02418  -0.06916  0.4739  -0.5392
6.55e+09  0.4658  -0.8755  -0.02725  -0.003666  0.02961  0.04314  0.2893  -0.7251
