# Hz S RI R 50
6.25e+09  -0.3426  0.8194  -0.0139  -0.006937  -0.04491  -0.00951  0.155  0.4725
6.251e+09  -0.07111  0.8287  -0.01617  -0.02308  -0.05234  0.0347  0.3643  0.4397
6.252e+09  0.2275  0.8338  -0.018  0.01125  0.1035  -0.04888  0.5377  0.2489
6.254e+09  0.4571  0.7449  -0.02252  0.01206  0.05331  -0.01152  0.5995  0.02816
6.255e+09  0.6434  0.4706  -0.0004308  0.01032  -0.0007137  0.02727  0.5562  -0.2175
6.256e+09  0.8288  0.2193  -0.006438  -0.01825  0.03067  0.01638  0.4842  -0.4628
6.258e+09  0.8409  -0.03053  0.02549  0.0009145  0.01814  0.01208  0.298  -0.6508
6.259e+09  0.7322  -0.3442  -0.008476  -0.007461  -0.0361  -0.005583  0.04608  -0.6519
6.26e+09  0.6035  -0.5652  -0.01274  0.005308  -0.01858  0.02098  -0.1842  -0.6485
6.261e+09  0.3492  -0.7296  -0.001211  -0.0153  0.0307  -0.0362  -0.442  -0.5415
6.262e+09  0.08594  -0.8529  0.03018  0.003614  0.02332  -0.01284  -0.6078  -0.3594
6.264e+09  -0.2088  -0.8807  0.01943  -0.0175  -0.05433  0.03425  -0.7275  -0.1247
6.265e+09  -0.5152  -0.737  0.0258  0.01418  -0.03842  -0.01929  -0.7101  0.1583
6.266e+09  -0.6886  -0.495  -0.01971  0.01369  -0.003538  0.02959  -0.5945  0.4139
6.268e+09  -0.8471  -0.2015  0.004181  -0.003335  -0.01339  -0.0003053  -0.4373  0.6097
6.269e+09  -0.8323  0.07376  -0.02714  -0.0121  0.01792  -0.006253  -0.24  0.6939
6.27e+09  -0.7481  0.3343  -0.02255  -0.02919  -0.03629  -0.02624  0.07297  0.7364
6.271e+09  -0.5746  0.6353  -0.006527  -0.0009519  -0.04054  0.03493  0.3656  0.7001
6.272e+09  -0.3118  0.7779  -0.002437  -0.01372  0.01447  0.01131  0.5446  0.5354
6.274e+09  -0.0696  0.886  0.02823  -0.0004921  0.01281  -0.04645  0.6818  0.2679
6.275e+09  0.2654  0.8112  -0.02862  -0.01483  0.005989  0.01941  0.7767  0.06397
6.276e+09  0.5719  0.6145  -0.02077  0.02181  -0.05026  0.04407  0.7303  -0.2661
6.278e+09  0.7024  0.5132  0.00101  0.02034  0.006376  0.007229  0.6172  -0.444
6.279e+09  0.7814  0.1641  -0.005953  0.01423  -0.007382  0.03764  0.4135  -0.6811
6.28e+09  0.8532  -0.1548  0.001197  -0.01526  -0.03629  -0.02435  0.1766  -0.7302
6.281e+09  0.6925  -0.3822  0.007735  -0.001506  -0.01854  0.006573  -0.1094  -0.8118
6.282e+09  0.5572  -0.6152  0.01439  -0.0123  -0.007698  -0.03287  -0.3659  -0.708
6.284e+09  0.3275  -0.7586  0.00676  -0.01351  0.01371  -0.01365  -0.5778  -0.5525
6.285e+09  0.006021  -0.8487  0.003877  -0.02884  0.001922  -0.02031  -0.7342  -0.285
6.286e+09  -0.2196  -0.8131  0.01473  0.01188  -0.0177  -0.03693  -0.8015  -0.03558
6.288e+09  -0.4551  -0.5899  -0.02472  -0.006196  0.05263  -0.0222  -0.7614  0.2411
6.289e+09  -0.6908  -0.4589  0.02453  0.02222  -0.007666  -0.01203  -0.6176  0.4974
6.29e+09  -0.8013  -0.1576  0.006344  -0.0159  -0.00418  -0.03485  -0.4116  0.6677
6.291e+09  -0.8595  0.116  0.01213  0.04844  0.001324  0.0167  -0.1415  0.7714
6.292e+09  -0.7187  0.4334  -0.01117  0.02154  -0.04531  -0.01195  0.1279  0.8054
6.294e+09  -0.5862  0.6223  0.009837  -0.02519  -0.01376  0.0512  0.3472  0.722
6.295e+09  -0.3045  0.7422  0.005094  0.04363  0.02163  -0.01109  0.5994  0.5521
6.296e+09  0.01717  0.7888  -0.01811  0.01985  0.01693  -0.002237  0.7966  0.2555
6.298e+09  0.2595  0.8368  -0.007643  0.02357  0.006514  0.02127  0.8254  0.01879
6.299e+09  0.5366  0.5964  -0.03274  0.01332  -0.002968  0.006066  0.7605  -0.2611
6.3e+09  0.7385  0.3984  0.03073  0.007447  -0.03647  -0.04093  0.643  -0.5119
6.301e+09  0.8573  0.1408  -0.01366  -0.01063  -0.04805  0.007276  0.4292  -0.7201
6.302e+09  0.8015  -0.1525  0.03933  -0.01447  -0.02452  -0.02263  0.1455  -0.8156
6.304e+09  0.701  -0.4331  0.02104  -0.002864  0.0005149  0.0216  -0.1254  -0.8397
6.305e+09  0.5319  -0.5836  0.0002314  0.0105  0.01637  -0.009855  -0.3905  -0.7311
6.306e+09  0.2853  -0.8119  -0.05052  -0.005925  -0.01017  0.00941  -0.6544  -0.5838
6.308e+09  -0.05261  -0.8641  0.02428  -0.02574  -0.04052  -0.006378  -0.801  -0.2918
6.309e+09  -0.305  -0.789  -0.01462  0.006684  -0.02626  0.01487  -0.8542  0.009896
6.31e+09  -0.5253  -0.5959  0.01535  -0.01082  0.01107  -0.01724  -0.8159  0.2736
6.311e+09  -0.7368  -0.3835  0.009456  -0.009957  0.02713  0.002311  -0.6569  0.5239
6.312e+09  -0.8001  -0.1162  -0.02431  -0.00975  -0.03705  -0.0504  -0.46  0.7392
6.314e+09  -0.854  0.1859  0.00521  0.0002229  -0.007041  0.04305  -0.1489  0.8416
6.315e+09  -0.6449  0.5057  -0.005129  0.01296  -0.01565  -0.002257  0.1357  0.8546
6.316e+09  -0.5378  0.6896  0.04401  0.004974  -0.01089  0.01907  0.4045  0.7602
6.318e+09  -0.2647  0.8184  0.01996  0.01112  -0.02596  0.02761  0.6526  0.5551
6.319e+09  0.0172  0.8495  -0.0125  -0.009283  -0.001575  0.002558  0.8427  0.3144
6.32e+09  0.3504  0.788  -0.004256  0.0003907  0.008942  -0.03918  0.9005  0.003573
6.321e+09  0.5981  0.6222  0.006746  -0.01847  0.003952  -0.003265  0.8471  -0.2949
6.322e+09  0.7567  0.3275  -0.01392  0.03715  0.04272  0.05423  0.6917  -0.5573
6.324e+09  0.8479  0.03993  -0.03435  0.002441  -0.01585  -0.03152  0.4514  -0.7751
6.325e+09  0.7687  -0.181  0.0005353  0.0203  0.04168  0.02583  0.1741  -0.8714
6.326e+09  0.6765  -0.503  0.01365  -0.02304  0.02571  0.05598  -0.08971  -0.8516
6.328e+09  0.5339  -0.7267  0.02033  0.03663  0.03903  0.04089  -0.4608  -0.78
6.329e+09  0.1689  -0.8232  0.000416  -0.007343  0.008182  0.04194  -0.6972  -0.5792
6.33e+09  -0.06128  -0.9025  -0.008542  -0.003126  -0.02175  -0.001003  -0.847  -0.3157
6.331e+09  -0.3669  -0.8026  -0.04372  0.02715  -0.03521  0.005337  -0.9202  -0.05179
6.332e+09  -0.6275  -0.5786  0.00954  -0.02645  0.0365  -0.02292  -0.8504  0.2927
6.334e+09  -0.8407  -0.288  0.01658  0.002269  -0.01796  0.01229  -0.7247  0.5541
6.335e+09  -0.8116  -0.07326  -0.0006839  0.0104  -0.02889  0.0306  -0.4996  0.7494
6.336e+09  -0.81  0.3434  0.01438  0.0176  -0.005408  0.0003725  -0.2101  0.8826
6.338e+09  -0.714  0.5501  0.02521  -0.06571  0.0232  -0.006673  0.09085  0.9233
6.339e+09  -0.434  0.7992  -0.009034  -0.02574  0.0154  0.0226  0.4365  0.8327
6.34e+09  -0.12  0.8732  -0.02103  0.0199  -0.01637  0.01902  0.6658  0.6154
6.341e+09  0.1658  0.8245  0.0284  0.009569  0.00816  0.01591  0.8761  0.3529
6.342e+09  0.4823  0.7787  0.003157  -0.036  0.02449  0.04606  0.9552  0.04368
6.344e+09  0.7147  0.5868  -0.0262  0.01929  0.005005  -0.003017  0.8824  -0.2756
6.345e+09  0.8389  0.2734  0.009358  0.003746  -0.001766  -0.003033  0.7104  -0.5353
6.346e+09  0.8879  -0.06141  0.02807  0.01882  -0.03204  0.0366  0.5219  -0.7914
6.348e+09  0.8146  -0.3341  -0.01326  -0.005461  0.02215  0.004576  0.2247  -0.9124
6.349e+09  0.6155  -0.6048  -0.007382  -0.009421  -0.006484  -0.07991  -0.1321  -0.943
6.35e+09  0.3829  -0.8  0.006832  -0.03043  0.01156  0.04336  -0.4301  -0.8186
6.351e+09  0.1285  -0.8685  0.007963  -0.03975  -0.02353  -0.01094  -0.6945  -0.6055
6.352e+09  -0.2376  -0.8729  0.01055  -0.01155  0.005812  -0.01855  -0.9015  -0.3946
6.354e+09  -0.4899  -0.6848  0.02284  -0.02486  -0.01402  0.018  -0.9028  -0.0666
6.355e+09  -0.7279  -0.5132  -0.02024  -0.002057  -0.007929  -0.009212  -0.9157  0.3012
6.356e+09  -0.8501  -0.2017  -0.008066  0.006837  -0.01384  0.03644  -0.8134  0.5552
6.358e+09  -0.8909  0.04276  0.005665  0.03599  -0.01036  -0.01008  -0.5309  0.7484
6.359e+09  -0.7986  0.3781  -0.002755  -0.008024  0.002892  0.03298  -0.235  0.9172
6.36e+09  -0.6114  0.5827  0.01641  0.01301  -0.02344  -0.01391  0.08341  0.9466
6.361e+09  -0.3833  0.8443  0.02494  0.005334  0.01013  -0.01237  0.4202  0.9195
6.362e+09  -0.03413  0.8842  -0.01834  -0.03086  0.03248  0.04605  0.6761  0.7073
6.364e+09  0.2374  0.8559  -0.01492  0.01752  -0.001058  -0.02638  0.8864  0.4064
6.365e+09  0.6051  0.699  -0.003298  -0.01138  0.01845  -0.01719  0.9666  0.08772
6.366e+09  0.7559  0.4988  -0.01605  -0.0278  0.02035  -0.03255  0.9496  -0.2656
6.368e+09  0.8435  0.1792  -0.01589  -0.001784  -0.0285  -0.00224  0.7485  -0.5757
6.369e+09  0.8331  -0.1389  0.02815  0.008151  0.009403  0.004174  0.5406  -0.7634
6.37e+09  0.8191  -0.4397  -0.02034  0.01651  0.0006545  0.01665  0.2557  -0.9435
6.371e+09  0.4997  -0.6987  0.03409  -0.00946  -0.02404  -0.01712  -0.05784  -0.9592
6.372e+09  0.2665  -0.8409  -0.005729  0.03087  -0.04835  0.002462  -0.3888  -0.8881
6.374e+09  0.01856  -0.9096  0.02392  -0.04141  -0.05501  8.389e-05  -0.6452  -0.6563
6.375e+09  -0.3119  -0.8026  -0.005619  0.001288  -0.00103  -0.03104  -0.8673  -0.401
6.376e+09  -0.5712  -0.6715  0.007635  0.03122  0.03226  -0.02195  -0.9235  -0.1059
6.378e+09  -0.8044  -0.4145  -0.008285  0.02197  0.01185  0.006611  -0.9208  0.215
6.379e+09  -0.9219  -0.1367  -0.01444  -0.01271  0.01621  0.006052  -0.7622  0.5727
6.38e+09  -0.8841  0.2059  -0.007012  -0.01748  0.0187  -0.03128  -0.5559  0.7752
6.381e+09  -0.7912  0.4539  0.02578  -0.03048  0.03819  -0.04234  -0.251  0.8927
6.382e+09  -0.5625  0.692  0.02329  -0.009533  0.008012  0.02413  0.07086  0.9551
6.384e+09  -0.2627  0.8435  0.006107  0.0159  0.0173  -0.009981  0.356  0.9051
6.385e+09  0.01631  0.8817  0.03576  0.04297  0.04171  -0.02478  0.6631  0.6488
6.386e+09  0.3596  0.8216  0.02153  -0.02106  -0.03695  -0.02146  0.8222  0.4566
6.388e+09  0.6413  0.6706  -0.01592  0.04543  -0.02566  -0.02041  0.9276  0.1427
6.389e+09  0.797  0.3559  0.003843  0.03938  -0.00759  0.001495  0.881  -0.2255
6.39e+09  0.8916  0.0871  0.005747  0.01317  -0.01161  0.01747  0.7914  -0.4825
6.391e+09  0.8684  -0.2145  0.00961  0.01774  -0.0349  -0.005198  0.5567  -0.7596
6.392e+09  0.683  -0.5229  -0.002565  -0.05195  -0.03449  0.001117  0.2861  -0.8635
6.394e+09  0.5385  -0.7621  0.002114  -0.02791  -0.01269  0.01223  -0.04506  -0.9189
6.395e+09  0.195  -0.8733  -0.004322  0.06315  -0.01862  -0.01574  -0.3619  -0.8518
6.396e+09  -0.1496  -0.8898  0.01538  -0.02108  -0.01118  -0.003502  -0.6049  -0.6515
6.398e+09  -0.3974  -0.8071  0.04275  0.03946  0.04434  0.01514  -0.8089  -0.458
6.399e+09  -0.6316  -0.6315  -0.003512  0.001756  0.01213  -0.0006725  -0.8737  -0.1194
6.4e+09  -0.803  -0.3899  0.01942  0.02156  0.02823  -0.001025  -0.8476  0.1516
6.401e+09  -0.8636  -0.1073  -0.02213  -0.002775  0.004188  -0.03184  -0.8142  0.4726
6.402e+09  -0.8733  0.2765  0.005383  0.009122  0.02049  0.02328  -0.5824  0.7
6.404e+09  -0.7513  0.4319  0.005717  0.001991  -0.02336  0.0161  -0.3222  0.903
6.405e+09  -0.4981  0.7556  -0.01618  0.007186  0.008482  -0.01452  -0.005923  0.9658
6.406e+09  -0.2052  0.8684  -0.008432  0.0412  0.007836  0.02875  0.2869  0.8566
6.408e+09  0.08872  0.8729  0.01119  0.0164  -0.03439  0.02265  0.6192  0.7211
6.409e+09  0.4265  0.7892  -0.007745  -0.02145  -0.05441  -0.003048  0.8015  0.4443
6.41e+09  0.6505  0.6052  -0.01502  -0.02648  -0.03415  -0.008424  0.9315  0.17
6.411e+09  0.8384  0.3553  0.01947  0.0001937  0.03328  0.007254  0.9055  -0.1575
6.412e+09  0.8878  0.07201  0.004547  -0.05227  -0.0006317  -0.008775  0.7903  -0.3747
6.414e+09  0.897  -0.2822  0.0009327  0.03898  -0.02383  -0.002287  0.6025  -0.6468
6.415e+09  0.6947  -0.5402  0.01022  0.03282  0.004007  0.04026  0.288  -0.8468
6.416e+09  0.5123  -0.7756  -0.02314  0.01288  0.006266  -0.03406  0.02352  -0.8423
6.418e+09  0.1741  -0.8678  -0.04128  -0.02636  -0.002584  0.03362  -0.2946  -0.8622
6.419e+09  -0.07983  -0.87  -0.0006263  0.01465  -0.001675  0.04821  -0.5528  -0.6964
6.42e+09  -0.3933  -0.7986  -0.006347  -0.02131  0.001505  -0.02162  -0.7588  -0.488
6.421e+09  -0.6144  -0.6425  -0.01432  -0.01447  -0.05656  0.02242  -0.9043  -0.199
6.422e+09  -0.8303  -0.3497  -0.001495  -0.02847  0.01994  -0.0228  -0.8619  0.1346
6.424e+09  -0.8767  -0.03711  0.01315  -0.004472  -0.002055  0.01471  -0.7836  0.3894
6.425e+09  -0.8245  0.2982  -0.01924  0.004734  -0.02444  -0.006926  -0.6051  0.6738
6.426e+09  -0.6929  0.5804  -0.03464  -0.01465  0.02184  0.02674  -0.3654  0.8092
6.428e+09  -0.4772  0.7402  0.006412  -0.003816  0.02067  -0.01238  -0.02406  0.8644
6.429e+09  -0.2369  0.8691  -0.03995  0.03365  -0.005928  0.01594  0.2382  0.8581
6.43e+09  0.1309  0.8659  -0.01071  -0.03012  -0.001678  -0.02199  0.5049  0.7055
6.431e+09  0.3927  0.7531  -0.0322  -0.03764  -0.02876  0.02839  0.7609  0.5217
6.432e+09  0.6869  0.5803  0.005291  0.01584  0.0003249  -0.004759  0.8213  0.2377
6.434e+09  0.8497  0.325  -0.02479  -0.002278  0.005121  0.02038  0.8403  -0.1172
6.435e+09  0.8572  0.01916  -0.01667  0.0138  -0.002676  -0.003935  0.7996  -0.4051
6.436e+09  0.911  -0.3085  -0.008553  0.02257  0.01301  0.005278  0.6316  -0.6308
6.438e+09  0.6857  -0.5379  0.03375  -0.01317  -0.02182  0.02912  0.3632  -0.7788
6.439e+09  0.4736  -0.8225  -0.01029  0.02184  -0.03862  -0.04495  0.04799  -0.8776
6.44e+09  0.2015  -0.8637  0.005877  -0.02013  -0.01388  0.01136  -0.243  -0.804
6.441e+09  -0.0905  -0.8477  0.008175  0.02459  -0.0597  0.01024  -0.5181  -0.7022
6.442e+09  -0.4289  -0.7281  0.007265  -0.01465  0.0365  0.04051  -0.7364  -0.4498
6.444e+09  -0.6754  -0.5971  0.04235  0.03982  -0.01873  -0.03699  -0.8538  -0.2234
6.445e+09  -0.8659  -0.3574  -0.03356  0.02213  0.01914  -0.05222  -0.8483  0.0782
6.446e+09  -0.901  0.02937  0.003896  -0.00227  0.00621  -0.00242  -0.73  0.3746
6.448e+09  -0.8343  0.3  -0.02245  -0.00916  0.0176  -0.02179  -0.6145  0.5982
6.449e+09  -0.7019  0.577  -0.001034  0.01227  0.01467  -0.009753  -0.3815  0.8081
6.45e+09  -0.4657  0.7737  0.02743  -0.01284  -0.04326  -0.007172  -0.08288  0.86
6.451e+09  -0.1434  0.8762  -0.01926  -0.02291  -0.02787  0.05037  0.2065  0.837
6.452e+09  0.1805  0.931  0.02866  -0.01435  -0.02035  -0.02808  0.4817  0.7127
6.454e+09  0.4482  0.7543  0.002179  0.001656  -0.009705  0.02041  0.6965  0.4457
6.455e+09  0.7052  0.6062  0.04053  -0.01546  -0.02601  0.0182  0.7802  0.2258
6.456e+09  0.8539  0.2738  0.05101  0.04356  -0.02536  0.06539  0.8001  -0.09379
6.458e+09  0.8914  0.00594  0.01667  -0.04248  0.005611  0.02843  0.7171  -0.3719
6.459e+09  0.8236  -0.3297  -0.008956  -0.02178  -0.004451  -0.02705  0.6041  -0.5388
6.46e+09  0.6969  -0.5942  -0.001229  -0.01946  -0.02033  0.0192  0.3766  -0.7312
6.461e+09  0.4384  -0.7485  -0.02971  -0.02208  -0.0002255  -0.01358  0.05161  -0.833
6.462e+09  0.1273  -0.877  0.03454  -0.0023  -0.003478  0.002445  -0.2032  -0.7929
6.464e+09  -0.1592  -0.8569  -0.01523  -0.06952  -0.02878  0.02267  -0.4389  -0.6714
6.465e+09  -0.4234  -0.7638  -0.01174  -0.0007792  0.003084  0.01411  -0.6916  -0.4534
6.466e+09  -0.6585  -0.542  -0.01758  0.006438  -0.03142  0.05478  -0.8087  -0.1947
6.468e+09  -0.8617  -0.2926  0.004577  0.0245  -0.0182  0.01625  -0.7644  0.0683
6.469e+09  -0.9158  0.001077  -0.01347  0.0102  0.006184  -0.03587  -0.7052  0.3528
6.47e+09  -0.8695  0.3558  -0.02834  -0.004235  0.02427  0.04587  -0.581  0.6166
6.471e+09  -0.7334  0.5914  0.03175  0.03585  0.0266  -0.01461  -0.3318  0.7633
6.472e+09  -0.4454  0.8472  0.006186  0.02005  0.02448  0.02389  -0.03605  0.7809
6.474e+09  -0.1273  0.8807  0.025  -0.02673  -0.01151  0.0003482  0.206  0.78
6.475e+09  0.1888  0.8826  -0.04179  -0.03402  0.01506  0.01543  0.4606  0.6377
6.476e+09  0.4827  0.7739  -0.007665  -0.05867  0.03935  0.007518  0.6397  0.4428
6.478e+09  0.7328  0.5624  -0.009616  0.02655  0.00238  -0.00528  0.7676  0.1915
6.479e+09  0.8407  0.3071  0.02759  -0.0004143  -0.00737  -0.05248  0.7804  -0.08723
6.48e+09  0.9152  -0.02027  -0.0234  0.004149  -0.04266  0.03803  0.7184  -0.328
6.481e+09  0.8546  -0.3503  -0.01939  0.009696  -0.008432  -0.005605  0.5924  -0.5167
6.482e+09  0.7266  -0.6133  0.0311  -0.0216  -0.003833  0.01558  0.3176  -0.7415
6.484e+09  0.4035  -0.8585  -0.02418  -0.009948  -0.02424  0.04779  0.06691  -0.7515
6.485e+09  0.1117  -0.9445  0.001225  0.002902  -0.02519  -0.02942  -0.2397  -0.7478
6.486e+09  -0.2162  -0.8778  0.0153  0.02895  -0.001537  0.02464  -0.4594  -0.6356
6.488e+09  -0.4898  -0.7915  0.001103  -0.01535  -0.02266  0.00323  -0.6375  -0.4363
6.489e+09  -0.749  -0.567  0.01709  -0.002095  -0.04055  -0.02923  -0.7995  -0.1678
6.49e+09  -0.8408  -0.2908  -0.00352  -0.01978  -0.03616  0.01695  -0.7405  0.0922
6.491e+09  -0.938  0.09437  0.01636  -0.02209  -0.03688  0.02945  -0.6964  0.3535
6.492e+09  -0.8137  0.4419  0.02354  0.002919  -0.02808  -0.03142  -0.5078  0.5709
6.494e+09  -0.6989  0.6297  -0.02989  -0.006645  0.02172  0.01305  -0.2671  0.6925
6.495e+09  -0.4005  0.867  0.009984  0.013  0.01732  -0.01255  -0.02585  0.7809
6.496e+09  -0.08771  0.8997  -0.02999  -0.004639  -0.02448  -0.03482  0.2361  0.684
6.498e+09  0.1946  0.9357  0.0002378  -0.01225  0.01067  -0.0167  0.4635  0.575
6.499e+09  0.5294  0.7335  -0.009833  0.02343  0.06303  -0.03281  0.6433  0.4464
6.5e+09  0.8425  0.5231  -0.008038  -0.001121  0.02241  0.001811  0.7091  0.1746
6.501e+09  0.9136  0.2664  -0.003719  -0.02589  -0.01591  0.006  0.7733  -0.07547
6.502e+09  0.9812  -0.06018  0.03815  -0.00973  0.02875  0.05334  0.6675  -0.4016
6.504e+09  0.8631  -0.432  -0.06175  0.0005944  -0.02165  0.03797  0.5087  -0.5238
6.505e+09  0.6961  -0.6659  -0.04771  -0.0405  0.003173  0.04463  0.3071  -0.703
6.506e+09  0.3647  -0.838  0.008069  -0.02987  0.05154  -0.02864  0.01836  -0.7536
6.508e+09  0.04795  -0.9821  -0.04024  -0.009535  -0.006624  -0.0137  -0.2898  -0.7139
6.509e+09  -0.2663  -0.9002  0.009808  -0.002432  0.03883  0.03705  -0.4446  -0.5823
6.51e+09  -0.5456  -0.7584  0.02148  -0.009173  -0.01734  -0.01656  -0.6355  -0.3612
6.511e+09  -0.8787  -0.5612  -0.0184  -0.009767  0.008194  -0.01403  -0.7504  -0.1495
6.512e+09  -0.9263  -0.2107  0.01381  0.03  -0.03353  -0.02648  -0.7036  0.1254
6.514e+09  -0.951  0.08865  0.04183  -0.01455  0.02248  -0.01847  -0.6626  0.3767
6.515e+09  -0.8466  0.482  0.01906  0.04856  0.05397  0.01776  -0.5251  0.595
6.516e+09  -0.6339  0.7065  -0.01731  0.02441  0.01453  0.01313  -0.246  0.7233
6.518e+09  -0.3522  0.9477  0.02768  0.01431  0.0007896  0.03517  -0.001277  0.7368
6.519e+09  -0.01565  0.9556  -0.008124  -0.009119  -0.02413  -0.01038  0.2776  0.7196
6.52e+09  0.2987  0.9152  -0.01944  -0.002159  -0.05262  -0.02317  0.4837  0.5392
6.521e+09  0.6645  0.7244  -0.01028  0.0005214  -0.01091  0.01484  0.6882  0.3517
6.522e+09  0.8549  0.4784  -0.003182  0.01791  0.01483  -0.002471  0.7372  0.07511
6.524e+09  0.9099  0.1469  0.001068  0.002728  0.01285  0.007014  0.6704  -0.1774
6.525e+09  0.9479  -0.2281  0.04723  0.004232  -0.03866  -0.0656  0.6179  -0.4288
6.526e+09  0.8289  -0.4853  -0.01838  -0.0005393  -0.01334  0.04085  0.458  -0.6051
6.528e+09  0.5729  -0.7515  -0.005399  -0.01651  0.01383  -0.03015  0.187  -0.6605
6.529e+09  0.318  -0.9409  0.01074  -0.02553  0.0321  1.295e-05  -0.04907  -0.6684
6.53e+09  0.01159  -0.9858  -0.02151  -0.0003111  -0.004926  -0.007281  -0.2654  -0.6388
6.531e+09  -0.3763  -0.9419  -0.004441  0.001901  -0.00505  0.02123  -0.4832  -0.4723
6.532e+09  -0.6832  -0.7003  0.02617  0.02339  0.02631  0.03116  -0.609  -0.2845
6.534e+09  -0.8732  -0.3787  1.518e-05  -0.008614  -0.02114  -0.01091  -0.6617  -0.08911
6.535e+09  -0.9847  -0.128  -0.002452  0.01032  -0.01456  -0.03109  -0.6336  0.1174
6.536e+09  -0.9719  0.2881  -0.02753  -0.02188  0.005453  -0.004938  -0.5708  0.3089
6.538e+09  -0.8057  0.5586  0.008092  -0.02052  -0.001966  -0.02793  -0.4564  0.4896
6.539e+09  -0.5574  0.8479  -0.008509  -0.01068  0.008071  0.02652  -0.2682  0.6364
6.54e+09  -0.2297  0.933  -0.00194  0.02536  -0.005351  -0.04477  -0.05574  0.703
6.541e+09  0.1426  0.9408  0.02197  0.007739  -0.005381  -0.04964  0.2066  0.6665
6.542e+09  0.4054  0.8551  0.004592  0.008351  0.03556  0.03554  0.412  0.5472
6.544e+09  0.7603  0.5913  -0.007124  0.034  0.03181  -0.003952  0.5852  0.3986
6.545e+09  0.8761  0.3751  -0.01089  0.006093  -0.004157  -0.000753  0.6803  0.1618
6.546e+09  0.9605  0.05656  0.04013  -0.002371  -0.01368  0.01718  0.7175  -0.1044
6.548e+09  0.9498  -0.3353  -0.01482  0.001877  -0.0279  -0.05314  0.6334  -0.3296
6.549e+09  0.707  -0.63  0.001033  0.03787  -0.01874  -0.007841  0.5212  -0.562
6.55e+09  0.4632  -0.923  -0.03219  -0.02114  0.02616  -0.01316  0.278  -0.6698
