# Hz S RI R 50
6.25e+09  -0.3735  0.7994  -0.004088  0.004161  -0.007135  -0.01602  0.1287  0.4748
6.251e+09  -0.09097  0.9358  -0.02763  -0.01808  0.04859  0.02216  0.3795  0.4082
6.252e+09  0.2275  0.8433  0.002031  -0.01037  0.0235  -0.003215  0.5273  0.2521
6.254e+09  0.4887  0.7544  -0.05335  0.004693  -0.008765  -0.01108  0.6233  0.002845
6.255e+09  0.7315  0.4935  0.001763  -0.007905  0.01963  0.003478  0.5665  -0.2137
6.256e+09  0.8086  0.1989  -0.02379  -0.01642  0.003577  0.002544  0.4238  -0.4367
6.258e+09  0.8726  -0.04515  0.01709  -0.01918  0.07195  -0.008753  0.272  -0.6199
6.259e+09  0.7679  -0.3823  -0.003615  -0.0344  0.0102  -0.008709  0.0478  -0.6728
6.26e+09  0.6089  -0.6452  0.008989  -0.02781  -0.03565  -0.0409  -0.1631  -0.6707
6.261e+09  0.3318  -0.8119  0.01407  0.005487  0.001162  0.03192  -0.4651  -0.5471
6.262e+09  0.04618  -0.8346  -0.001763  -0.0196  0.01076  0.007313  -0.6304  -0.3308
6.264e+09  -0.2459  -0.8293  -0.001151  -0.03671  0.00259  -0.02452  -0.7021  -0.08721
6.265e+09  -0.4844  -0.6739  -0.01506  -0.001481  0.0135  -0.03471  -0.6992  0.1446
6.266e+09  -0.6674  -0.4918  -0.002141  0.007321  0.003872  0.01194  -0.6349  0.3937
6.268e+09  -0.8641  -0.166  -0.002433  -0.005136  -0.001781  0.06165  -0.4297  0.5727
6.269e+09  -0.8002  0.1029  0.0133  0.01517  -0.0565  0.02126  -0.2043  0.7186
6.27e+09  -0.7258  0.3599  -0.03022  -0.01104  -0.01752  0.002814  0.07485  0.7295
6.271e+09  -0.5841  0.5957  -0.007592  0.006441  -0.01593  -0.0269  0.315  0.6876
6.272e+09  -0.3244  0.7588  -0.03063  -0.007354  -0.03342  -0.01541  0.5214  0.5565
6.274e+09  -0.02334  0.8371  -0.005636  0.003544  0.003262  -0.02249  0.6894  0.3229
6.275e+09  0.2225  0.7533  0.02635  -0.01288  0.02975  -0.004105  0.759  0.05789
6.276e+09  0.526  0.7126  0.0199  0.005049  -0.01177  0.03065  0.7315  -0.213
6.278e+09  0.6985  0.4592  0.007884  0.01276  -0.02996  -0.00992  0.5957  -0.4791
6.279e+09  0.8077  0.1663  0.02231  0.03267  0.02616  -0.028  0.3963  -0.6623
6.28e+09  0.8581  -0.09125  0.02353  0.00304  -0.007404  -0.0003709  0.1574  -0.765
6.281e+09  0.7715  -0.4227  -0.01312  0.008788  0.01558  0.0474  -0.128  -0.7768
6.282e+09  0.5945  -0.6655  0.03664  0.01647  -0.02308  0.02152  -0.3683  -0.6842
6.284e+09  0.3275  -0.7897  -0.005438  0.02772  -0.007421  0.0006923  -0.5838  -0.5214
6.285e+09  0.03737  -0.8133  -0.03695  -0.008965  -0.006214  0.001778  -0.6925  -0.289
6.286e+09  -0.2652  -0.7967  -0.003109  -0.004338  -0.04121  0.01545  -0.7825  -0.0154
6.288e+09  -0.4795  -0.632  -0.01167  0.002677  -0.005742  0.03946  -0.7973  0.2436
6.289e+09  -0.7034  -0.4519  0.009477  -0.01881  -0.03488  -0.006282  -0.625  0.5324
6.29e+09  -0.7715  -0.1791  -0.02009  -0.01961  -0.007382  0.03488  -0.4029  0.7127
6.291e+09  -0.87  0.1441  -0.004838  0.01891  0.02027  -0.0005353  -0.1321  0.7561
6.292e+09  -0.7502  0.4038  0.001069  0.01962  0.05165  0.04455  0.128  0.825
6.294e+09  -0.5688  0.6322  -0.01341  -0.01947  -0.06074  -0.03527  0.3819  0.7312
6.295e+09  -0.2639  0.8137  0.03539  -0.02951  -0.07303  0.01206  0.6084  0.5167
6.296e+09  0.004617  0.8223  0.01292  -0.001192  0.01436  -0.02162  0.7786  0.2836
6.298e+09  0.291  0.7935  0.01129  0.0107  -0.0007051  -0.008226  0.8099  0.001471
6.299e+09  0.4957  0.6285  0.01058  0.0096  -0.02988  0.01199  0.7888  -0.272
6.3e+09  0.7147  0.4132  -0.00267  -0.03778  -0.03318  0.03399  0.6576  -0.5199
6.301e+09  0.8552  0.05137  -0.001828  0.01699  0.04827  -0.02559  0.4137  -0.7249
6.302e+09  0.7775  -0.1756  0.02453  0.02574  0.04834  -0.008577  0.1428  -0.8226
6.304e+09  0.7  -0.4154  -0.001208  0.003264  0.04902  -0.01324  -0.1538  -0.8189
6.305e+09  0.5287  -0.626  0.01121  -0.02635  0.01123  0.02394  -0.3971  -0.7353
6.306e+09  0.257  -0.803  -0.002327  0.01363  0.01975  -0.006864  -0.6539  -0.5552
6.308e+09  -0.06203  -0.894  -0.00704  0.02209  -0.00395  0.008782  -0.8122  -0.2968
6.309e+09  -0.3211  -0.7586  -0.01976  -0.02226  -0.01385  0.02512  -0.8366  -0.01917
6.31e+09  -0.5545  -0.6212  -0.003952  -0.02026  -0.02302  0.01136  -0.8402  0.2615
6.311e+09  -0.6974  -0.331  0.01911  -0.01829  0.001053  -0.001831  -0.6643  0.5302
6.312e+09  -0.8228  -0.07049  0.02446  7.202e-06  0.02702  0.03101  -0.4566  0.7546
6.314e+09  -0.8102  0.2221  0.01964  0.01619  0.03715  -0.008669  -0.1842  0.8283
6.315e+09  -0.6905  0.5257  -0.005563  0.0214  0.02307  0.03953  0.1397  0.8776
6.316e+09  -0.4804  0.7764  0.01649  -0.0137  0.03015  -0.01845  0.4548  0.7916
6.318e+09  -0.2344  0.8239  0.0007244  0.02942  0.003855  0.05349  0.6695  0.6046
6.319e+09  0.02817  0.8561  -0.0272  -0.02494  -0.05923  -0.02912  0.8025  0.2816
6.32e+09  0.3793  0.7362  -0.03972  0.004153  0.001449  0.04669  0.8724  0.03841
6.321e+09  0.5806  0.6261  -0.01192  -0.01427  -0.03057  -0.04822  0.8432  -0.2881
6.322e+09  0.7965  0.3338  -0.01967  -0.003388  0.03928  0.01904  0.6654  -0.5606
6.324e+09  0.8802  0.051  -0.01088  -0.002762  0.002648  0.004801  0.4845  -0.7815
6.325e+09  0.7931  -0.2266  -0.002454  0.01343  0.0103  -0.04178  0.1673  -0.8579
6.326e+09  0.6461  -0.507  -0.01803  0.01455  -0.01568  0.01584  -0.1198  -0.898
6.328e+09  0.4567  -0.7108  0.007166  0.001788  -0.01557  0.02947  -0.4428  -0.7984
6.329e+09  0.2234  -0.8096  0.03376  0.000952  -0.03165  0.02113  -0.6921  -0.5836
6.33e+09  -0.1757  -0.7948  -0.008171  0.01372  -0.03712  0.01406  -0.8381  -0.3557
6.331e+09  -0.4518  -0.7651  -0.01061  -0.041  -0.004704  -0.009663  -0.9025  -0.03502
6.332e+09  -0.6513  -0.5571  -0.05435  0.0208  0.0199  -0.03961  -0.8594  0.3079
6.334e+09  -0.8139  -0.3023  0.03354  -0.001286  0.00652  -0.03394  -0.7042  0.5727
6.335e+09  -0.8584  -0.03882  -0.00446  -0.02092  0.0004661  -0.02047  -0.4935  0.7617
6.336e+09  -0.8218  0.2786  0.01164  -0.003874  -0.000142  0.01341  -0.2382  0.9313
6.338e+09  -0.6873  0.5756  0.01667  0.01195  0.05871  0.005802  0.1341  0.9361
6.339e+09  -0.4196  0.7792  -0.01524  -0.00639  0.01136  0.0195  0.4048  0.831
6.34e+09  -0.07881  0.9401  -0.00575  0.05805  -0.001622  -0.02691  0.7004  0.6
6.341e+09  0.1892  0.8999  -0.03193  0.003983  -0.02821  0.04043  0.8121  0.4096
6.342e+09  0.4701  0.7692  -0.01539  -0.01303  0.01358  0.01315  0.9023  0.05401
6.344e+09  0.7144  0.4965  -0.003754  0.0001315  -0.00544  0.01383  0.8802  -0.2576
6.345e+09  0.8856  0.2848  0.00776  -0.00874  0.01859  0.007383  0.7695  -0.597
6.346e+09  0.8856  -0.03906  0.01667  0.009863  0.01147  0.03365  0.5128  -0.7729
6.348e+09  0.8341  -0.3775  0.008574  0.009654  -0.04536  0.0079  0.1834  -0.9089
6.349e+09  0.6455  -0.579  0.03077  -0.03166  0.002684  -0.03272  -0.09367  -0.9029
6.35e+09  0.3321  -0.7477  0.02363  -0.04554  -0.01822  0.004751  -0.4167  -0.8276
6.351e+09  0.04204  -0.8779  -0.01323  -0.004534  -0.0001488  0.02686  -0.6642  -0.6624
6.352e+09  -0.224  -0.8769  0.002082  0.01041  -0.02385  0.0107  -0.8655  -0.3575
6.354e+09  -0.5238  -0.6848  -0.0238  0.03216  -0.02169  0.0279  -0.9419  -0.063
6.355e+09  -0.7752  -0.4846  0.02437  0.03973  1.863e-05  0.01584  -0.9209  0.3092
6.356e+09  -0.8573  -0.2454  0.05164  0.01527  -0.01747  -0.02923  -0.7603  0.5618
6.358e+09  -0.8699  0.126  -0.02041  -0.05088  0.01913  0.0379  -0.5262  0.7947
6.359e+09  -0.8212  0.3742  0.01954  0.03135  0.02036  0.01185  -0.2673  0.9178
6.36e+09  -0.5989  0.6942  -8.741e-05  -0.04214  0.02974  -0.01112  0.1445  0.954
6.361e+09  -0.3434  0.8749  -0.0404  0.01767  0.0428  0.04212  0.4155  0.878
6.362e+09  -0.03301  0.8645  0.02354  -0.01497  0.05718  -0.02043  0.6677  0.6667
6.364e+09  0.2558  0.8247  -0.01318  -0.008024  0.0001149  -0.007155  0.839  0.4131
6.365e+09  0.6137  0.6938  0.03946  -0.02214  0.003701  -0.006026  0.9767  0.1047
6.366e+09  0.7586  0.4756  -0.02756  0.02312  0.03945  -0.01399  0.9205  -0.2598
6.368e+09  0.8994  0.138  0.001811  0.01506  0.03318  0.01239  0.798  -0.5183
6.369e+09  0.912  -0.1552  0.01722  0.02289  0.009663  0.00342  0.5432  -0.7498
6.37e+09  0.7776  -0.4728  0.0183  -0.02325  -0.03187  0.02453  0.2209  -0.9103
6.371e+09  0.5197  -0.6799  -0.03907  -0.01782  6.261e-05  0.02581  -0.08764  -0.9463
6.372e+09  0.2728  -0.8234  0.02735  0.006232  -0.009356  -0.02778  -0.4179  -0.8631
6.374e+09  -0.05067  -0.8941  -0.0295  -0.02884  -0.001394  -0.03676  -0.7032  -0.6658
6.375e+09  -0.3314  -0.8585  -0.01041  -0.002211  0.0275  -0.00993  -0.8737  -0.3874
6.376e+09  -0.6226  -0.6762  -0.03707  -0.01357  0.0005532  -0.06095  -0.9196  -0.08188
6.378e+09  -0.7456  -0.361  -0.02624  -0.02246  -0.02374  0.01783  -0.9071  0.2348
6.379e+09  -0.8737  -0.1071  -0.0256  -0.01494  -0.005884  -0.003888  -0.777  0.5308
6.38e+09  -0.843  0.2274  0.03034  -0.00421  0.04232  0.006681  -0.5745  0.7327
6.381e+09  -0.7237  0.4763  0.02429  0.0002956  0.0008736  -0.001095  -0.2413  0.8928
6.382e+09  -0.5627  0.7407  -0.02332  0.007379  0.01287  -0.02944  0.01098  0.9123
6.384e+09  -0.2639  0.8719  -0.01918  -0.02343  -0.03738  -0.03576  0.338  0.9165
6.385e+09  0.04553  0.8763  0.02729  -0.003225  -0.01479  0.001715  0.6259  0.6586
6.386e+09  0.3904  0.7739  -0.0006816  0.01402  -0.02479  0.01375  0.7778  0.3943
6.388e+09  0.6403  0.6122  0.02174  0.02981  0.03456  -0.02492  0.87  0.1308
6.389e+09  0.8345  0.3724  -0.02201  -0.04535  -0.05423  -0.0003157  0.8775  -0.1712
6.39e+09  0.926  0.06174  0.003936  0.009262  0.03752  0.03719  0.7706  -0.4929
6.391e+09  0.9043  -0.2028  0.0005992  -0.03476  -0.02998  -0.0043  0.5574  -0.7307
6.392e+09  0.782  -0.4935  -0.007825  0.03804  0.0202  -0.03805  0.3017  -0.8597
6.394e+09  0.4259  -0.7412  0.008666  0.04721  0.00182  -0.03007  -0.01252  -0.9135
6.395e+09  0.2106  -0.8559  0.01544  0.01004  0.04299  -0.02062  -0.351  -0.8178
6.396e+09  -0.08622  -0.9049  0.009565  0.00386  -0.00242  -0.01475  -0.5945  -0.7371
6.398e+09  -0.3948  -0.8189  -0.00776  -0.006534  -0.03714  0.01133  -0.8115  -0.4449
6.399e+09  -0.6938  -0.6202  0.02808  -0.01333  0.01635  -0.01248  -0.9442  -0.1744
6.4e+09  -0.8319  -0.3502  -0.007572  0.001161  -0.04061  0.02903  -0.8786  0.2081
6.401e+09  -0.8924  -0.04773  -0.03239  -0.006005  0.03859  -0.03923  -0.8079  0.4727
6.402e+09  -0.8501  0.2059  -0.01228  0.01377  0.067  0.0137  -0.5601  0.7043
6.404e+09  -0.7106  0.5658  -0.01608  -0.0248  -0.007191  -0.01086  -0.3001  0.9405
6.405e+09  -0.4699  0.713  0.002394  -0.01711  -0.00826  0.006934  0.01269  0.9321
6.406e+09  -0.2004  0.8892  0.0226  -0.02963  0.02503  0.03495  0.295  0.8726
6.408e+09  0.1584  0.8353  -0.01096  0.02017  0.01504  -0.02256  0.5825  0.6743
6.409e+09  0.4206  0.8396  0.0001825  -0.05196  -0.006846  -0.04102  0.7835  0.484
6.41e+09  0.6482  0.6128  0.01056  -0.008837  -0.0215  -0.04484  0.8927  0.1502
6.411e+09  0.8146  0.3619  0.01455  -0.005789  0.06504  0.02869  0.9229  -0.151
6.412e+09  0.8684  0.07131  0.006443  -0.01763  -0.02093  -0.03984  0.7438  -0.4127
6.414e+09  0.826  -0.2567  -0.03602  -0.008355  -0.0132  0.01527  0.5888  -0.6885
6.415e+09  0.6758  -0.5571  0.01672  0.03705  0.0008361  -0.03566  0.3459  -0.8377
6.416e+09  0.4564  -0.7219  0.01436  -0.01498  -0.02152  -0.03399  0.02154  -0.9012
6.418e+09  0.1613  -0.8734  -0.02479  -0.0008391  -0.01162  0.0002172  -0.2619  -0.8628
6.419e+09  -0.1123  -0.8308  0.006166  0.01208  -0.01325  -0.01759  -0.5351  -0.7404
6.42e+09  -0.4148  -0.7769  0.04397  -0.00896  0.02062  0.01132  -0.7442  -0.4798
6.421e+09  -0.6355  -0.5778  -0.03361  -0.0526  -0.05662  -0.02353  -0.8467  -0.195
6.422e+09  -0.8161  -0.3149  0.01711  -0.01662  0.001959  0.01956  -0.8655  0.07691
6.424e+09  -0.8903  0.002822  0.02268  -0.006044  0.01966  0.0205  -0.7286  0.4221
6.425e+09  -0.865  0.2845  -0.01033  0.01139  -0.01209  -0.01004  -0.5934  0.6427
6.426e+09  -0.7351  0.5387  -0.008769  -0.003927  -0.02293  0.01912  -0.414  0.8085
6.428e+09  -0.4762  0.7957  -0.004199  -0.01551  -0.004111  0.01845  -0.07942  0.8722
6.429e+09  -0.1498  0.8745  0.03979  0.005597  0.04152  -0.01929  0.2348  0.8513
6.43e+09  0.194  0.9314  -0.04795  0.0192  -0.01474  -0.03217  0.5029  0.7132
6.431e+09  0.3835  0.7708  -0.018  0.01916  -0.025  -0.05287  0.7072  0.5138
6.432e+09  0.6536  0.5765  0.004315  -0.06089  -0.008407  -0.03737  0.8155  0.2417
6.434e+09  0.874  0.2797  0.01701  0.02725  0.003191  -0.01998  0.8678  -0.1186
6.435e+09  0.8806  0.01883  -0.02041  -0.01271  -0.01886  0.008  0.7772  -0.3915
6.436e+09  0.8533  -0.3081  -0.009622  -0.0009265  0.007956  -0.03516  0.5764  -0.6299
6.438e+09  0.6984  -0.5427  -0.02259  0.01207  0.01595  0.0492  0.3761  -0.7846
6.439e+09  0.4263  -0.7942  0.007857  -0.02237  -0.01818  -0.04655  0.05636  -0.8833
6.44e+09  0.1319  -0.8507  0.04337  0.0005365  0.02624  -0.006946  -0.2441  -0.8227
6.441e+09  -0.1606  -0.8875  -0.01786  0.000936  0.003061  -0.01662  -0.4868  -0.7027
6.442e+09  -0.4753  -0.7608  0.002949  0.01214  0.04202  0.03058  -0.72  -0.4555
6.444e+09  -0.7093  -0.5208  0.006194  0.03175  0.03319  0.01105  -0.8763  -0.2486
6.445e+09  -0.838  -0.3323  0.04894  0.008551  -0.001923  -0.05965  -0.8412  0.08614
6.446e+09  -0.8794  0.02873  -0.01356  0.02563  0.006733  -0.008383  -0.7677  0.3889
6.448e+09  -0.8207  0.3097  0.06784  0.0004567  0.005085  0.01377  -0.5926  0.5826
6.449e+09  -0.6616  0.5639  0.01165  0.01435  -0.004404  0.01993  -0.3406  0.7687
6.45e+09  -0.4267  0.7304  -0.01685  -0.02092  0.03366  -0.01167  -0.05271  0.8476
6.451e+09  -0.1277  0.9044  -0.02898  -0.02125  0.0219  0.05288  0.2518  0.8243
6.452e+09  0.2365  0.921  -0.03119  0.006237  -0.009505  0.03641  0.484  0.7201
6.454e+09  0.4913  0.7114  0.01854  0.01041  0.009976  0.027  0.6772  0.4715
6.455e+09  0.6832  0.563  -0.001546  0.02686  0.006872  -0.04272  0.7635  0.2204
6.456e+09  0.8464  0.2608  -0.002623  0.02739  -0.02645  -0.005122  0.8288  -0.06554
6.458e+09  0.8837  -0.0311  -0.005818  0.04512  0.04403  -0.04598  0.7725  -0.3807
6.459e+09  0.7999  -0.3494  0.009393  0.003885  0.01867  0.001269  0.6081  -0.6027
6.46e+09  0.6896  -0.6006  0.02678  0.01465  -0.01857  0.05111  0.3669  -0.7556
6.461e+09  0.3887  -0.8067  -0.03833  0.005634  -0.003791  0.02707  0.07287  -0.8489
6.462e+09  0.1325  -0.8893  -0.01644  0.03153  0.009683  -0.01338  -0.1687  -0.7454
6.464e+09  -0.1814  -0.8714  0.0151  -0.0383  0.005582  0.008435  -0.4573  -0.6652
6.465e+09  -0.4962  -0.7185  -0.005644  -0.02314  0.005428  -0.01303  -0.6657  -0.5115
6.466e+09  -0.7719  -0.5441  0.0108  0.01551  0.01221  -0.01683  -0.7439  -0.209
6.468e+09  -0.7857  -0.2414  -0.03003  0.009096  0.00619  -0.04681  -0.7614  0.02897
6.469e+09  -0.8638  0.0817  0.01496  0.008193  -0.06622  -0.008152  -0.7593  0.3048
6.47e+09  -0.7733  0.3034  0.01209  0.03198  -0.01449  -0.008594  -0.5699  0.567
6.471e+09  -0.6287  0.6241  0.01353  0.01735  -0.009843  -0.009728  -0.3228  0.7155
6.472e+09  -0.3768  0.7669  0.01229  -0.00931  -0.007227  -0.03385  -0.04357  0.8177
6.474e+09  -0.1359  0.8956  0.003712  -0.01869  -0.03583  -0.004012  0.1914  0.7633
6.475e+09  0.2148  0.9041  0.004516  0.009436  0.01821  0.01097  0.4329  0.6555
6.476e+09  0.51  0.7113  0.04447  -0.01001  -0.05997  0.004169  0.6565  0.4738
6.478e+09  0.7238  0.5491  0.02167  0.001164  0.04241  -0.05  0.7932  0.216
6.479e+09  0.8475  0.2533  -0.04996  0.01601  -0.02827  0.009437  0.76  -0.05596
6.48e+09  0.9182  -0.07248  0.01985  0.005983  -0.02066  -0.006258  0.681  -0.3518
6.481e+09  0.8419  -0.3372  -0.02529  0.03714  0.02089  0.01101  0.5238  -0.5409
6.482e+09  0.695  -0.6536  -0.006926  -0.01692  0.01947  -0.07573  0.3136  -0.7338
6.484e+09  0.373  -0.8211  0.008852  -0.0239  0.0378  0.03579  0.06834  -0.798
6.485e+09  0.06977  -0.884  -0.01919  0.0104  0.03968  -0.03034  -0.2285  -0.7358
6.486e+09  -0.2431  -0.8976  0.02358  -0.001954  0.004247  -0.0115  -0.4685  -0.6534
6.488e+09  -0.5225  -0.7495  -0.0006785  -0.006966  0.01209  0.02206  -0.6421  -0.3946
6.489e+09  -0.7761  -0.5583  -0.0391  0.03708  0.03069  0.03181  -0.7548  -0.145
6.49e+09  -0.9062  -0.2502  0.02199  -0.02335  0.03449  0.01561  -0.8225  0.06847
6.491e+09  -0.8891  0.06758  0.03967  -0.004057  -0.04119  0.0168  -0.6498  0.3775
6.492e+09  -0.8268  0.41  -0.002047  -0.01781  -0.0301  -0.02767  -0.5534  0.5427
6.494e+09  -0.6721  0.664  -0.02048  0.00392  0.008042  0.02605  -0.2991  0.7024
6.495e+09  -0.4277  0.8506  0.01227  0.02375  0.008702  -0.04519  -0.0275  0.7898
6.496e+09  -0.07199  0.9117  0.03071  0.01755  0.03163  0.02389  0.2514  0.7322
6.498e+09  0.2615  0.8814  -0.0001266  -0.01271  -0.021  -0.04508  0.419  0.6239
6.499e+09  0.5853  0.7846  0.02046  0.02037  -0.006201  -0.01853  0.6571  0.4039
6.5e+09  0.778  0.5648  0.01748  0.007  0.01244  -0.02389  0.7571  0.1738
6.501e+09  0.918  0.2517  -0.01065  0.02231  0.02696  -0.03943  0.8041  -0.1072
6.502e+09  0.9335  -0.05519  -0.01213  0.002451  -0.004358  0.01432  0.6817  -0.3283
6.504e+09  0.8204  -0.4246  0.03793  -0.02609  0.0139  0.06226  0.4917  -0.5401
6.505e+09  0.6338  -0.7302  -0.01863  0.004576  -0.004172  0.0003659  0.3009  -0.761
6.506e+09  0.4092  -0.8841  0.01145  -0.0143  0.03227  0.005101  0.009941  -0.7398
6.508e+09  -0.01236  -0.947  -0.01088  -0.01546  -0.01679  0.003665  -0.2153  -0.7171
6.509e+09  -0.2868  -0.9249  -0.00476  -0.007613  -0.02118  -0.02129  -0.4752  -0.5876
6.51e+09  -0.5873  -0.7467  -0.02381  0.007979  0.001057  0.02842  -0.6654  -0.3863
6.511e+09  -0.8078  -0.4909  -0.03065  0.01016  0.01523  0.02277  -0.7736  -0.09197
6.512e+09  -0.9628  -0.1776  -0.007644  -0.004448  0.02528  0.0009563  -0.746  0.1418
6.514e+09  -0.8646  0.1487  -0.009803  -0.01715  0.0563  -0.01002  -0.6365  0.3843
6.515e+09  -0.8305  0.4407  0.02925  -0.0262  0.03119  0.01402  -0.4871  0.563
6.516e+09  -0.6074  0.7555  -0.006577  0.002625  0.006263  -0.0362  -0.2058  0.68
6.518e+09  -0.3036  0.922  -0.005542  0.01543  0.01379  -0.002073  0.0352  0.7832
6.519e+09  0.03653  0.9645  0.01152  -0.009257  -0.0604  0.01766  0.2901  0.6759
6.52e+09  0.3409  0.8571  0.01101  -0.02483  -0.0111  -0.002958  0.4868  0.5302
6.521e+09  0.6224  0.7065  0.01253  -0.001554  0.01304  0.05792  0.6512  0.3488
6.522e+09  0.8486  0.4944  0.02838  -0.01128  -0.03835  0.03646  0.7218  0.1005
6.524e+09  1.009  0.1192  0.008506  -0.03025  0.0123  -0.00846  0.7225  -0.183
6.525e+09  0.9226  -0.2066  0.02745  -0.005894  0.01801  0.02797  0.5884  -0.4233
6.526e+09  0.8412  -0.4871  -0.03028  -0.03175  0.03467  0.02842  0.4217  -0.5833
6.528e+09  0.5702  -0.7679  -0.009288  0.02837  0.003986  -0.01231  0.2309  -0.6955
6.529e+09  0.2527  -0.9233  0.005252  0.008335  0.02561  0.005448  -0.09141  -0.7344
6.53e+09  -0.08991  -0.9422  -0.002042  -0.01105  0.0002803  -0.04234  -0.2518  -0.588
6.531e+09  -0.3996  -0.9414  0.0237  -0.001009  0.05303  0.02727  -0.4642  -0.4934
6.532e+09  -0.6823  -0.6761  -0.01551  0.03455  -0.02672  0.007721  -0.5607  -0.2743
6.534e+09  -0.8826  -0.4359  0.006719  0.02166  -0.004612  0.01046  -0.5961  -0.0869
6.535e+09  -0.9952  -0.05485  -0.02576  -0.003233  -0.007885  -0.0708  -0.645  0.1362
6.536e+09  -0.9224  0.2352  0.02801  -0.002555  -0.02762  0.01737  -0.5507  0.3214
6.538e+09  -0.7908  0.6168  -0.02655  -0.01627  0.01787  -0.008501  -0.453  0.524
6.539e+09  -0.5632  0.883  0.00261  -0.03097  0.0006517  0.0008335  -0.2659  0.6521
6.54e+09  -0.2284  0.9813  0.01952  0.006444  -0.002561  0.03113  -0.08436  0.6968
6.541e+09  0.1392  0.921  -0.0129  -0.02286  0.03478  0.003952  0.1834  0.6706
6.542e+09  0.4445  0.8257  -0.001937  0.01473  0.04128  -0.05491  0.4662  0.5904
6.544e+09  0.7459  0.6437  -0.01884  0.01176  0.05107  0.03127  0.6253  0.4208
6.545e+09  0.8548  0.3475  -0.00394  0.005056  0.01817  0.03012  0.6967  0.1876
6.546e+09  0.9997  0.01964  -0.0003723  0.004186  -0.01198  -0.005228  0.7199  -0.0969
6.548e+09  0.8874  -0.3429  -0.01856  0.005212  -0.01157  0.00045  0.6888  -0.334
6.549e+09  0.7503  -0.6058  0.01112  -0.04361  -0.04181  0.07334  0.4984  -0.5288
6.55e+09  0.4704  -0.798  -0.01714  0.007717  0.008989  0.01064  0.2881  -0.6883
6.551e+09  0.1336  -0.9651  0.02185  0.008101  -0.007631  0.03035  0.05596  -0.7453
