# Hz S RI R 50
6.25e+09  -0.6197  0.6179  0.03601  -0.01659  -0.03675  0.002564  0.166  0.4918
6.251e+09  -0.3499  0.8263  -0.00729  -0.01508  0.06346  0.0109  0.3594  0.4119
6.252e+09  -0.02249  0.8058  -0.02186  -0.0481  -0.02299  0.07099  0.5461  0.243
6.254e+09  0.2164  0.7912  0.0009456  -0.02331  0.01808  -0.02888  0.6259  0.01147
6.255e+09  0.542  0.7378  0.001386  0.03112  0.05556  0.02276  0.5817  -0.2376
6.256e+09  0.7204  0.437  0.002801  -0.006492  -0.01567  0.0185  0.4549  -0.4419
6.258e+09  0.826  0.1553  0.01666  -0.008531  -0.001048  0.02373  0.288  -0.5862
6.259e+09  0.8207  -0.1022  0.02002  0.03797  -0.02527  0.0357  0.0228  -0.6964
6.26e+09  0.7861  -0.3933  0.002068  0.01452  0.0409  -0.02114  -0.2199  -0.6803
6.261e+09  0.5662  -0.5735  0.0005962  0.01865  -0.001378  0.004103  -0.4361  -0.5479
6.262e+09  0.3246  -0.733  0.009942  -0.0257  -0.01624  0.01004  -0.6551  -0.351
6.264e+09  0.007607  -0.8462  0.02986  -0.04903  0.03783  -0.008085  -0.7277  -0.1023
6.265e+09  -0.2638  -0.8399  0.02476  -0.0356  -0.01585  0.0005645  -0.709  0.1522
6.266e+09  -0.5048  -0.6294  -0.047  -0.01872  0.0005914  -0.005302  -0.5945  0.4044
6.268e+09  -0.7473  -0.4934  0.031  0.007297  0.03049  0.01324  -0.4376  0.5987
6.269e+09  -0.7767  -0.2103  0.02354  -0.02034  -0.01554  0.008662  -0.208  0.7278
6.27e+09  -0.8076  0.1266  -0.005881  -0.04209  -0.01584  -0.0008565  0.06493  0.7476
6.271e+09  -0.7513  0.4099  -0.004674  0.01363  0.03026  -0.0189  0.3401  0.6593
6.272e+09  -0.5202  0.612  0.01397  -0.01269  0.0251  -0.01154  0.5496  0.5074
6.274e+09  -0.2892  0.7622  -0.02781  0.02389  0.05408  -0.01378  0.6893  0.304
6.275e+09  -0.03238  0.8238  -0.001225  -0.007155  -0.02631  -0.03808  0.7213  0.03185
6.276e+09  0.2819  0.756  0.005679  -0.004683  0.005213  -0.03853  0.7087  -0.2133
6.278e+09  0.5261  0.6523  0.01517  -0.001517  -0.008645  -0.02664  0.6037  -0.4602
6.279e+09  0.644  0.472  -0.03226  -0.01224  -0.006307  -0.06547  0.4049  -0.6393
6.28e+09  0.79  0.1235  0.01386  0.01409  -0.0003693  0.04163  0.2023  -0.77
6.281e+09  0.7824  -0.0778  9.07e-05  0.0248  -0.03916  -0.01918  -0.1092  -0.7667
6.282e+09  0.7066  -0.4245  0.003821  -0.003059  -0.03956  -0.002112  -0.3867  -0.6699
6.284e+09  0.5252  -0.6283  -0.004369  0.0039  -0.02221  0.03236  -0.5996  -0.5407
6.285e+09  0.258  -0.7904  -0.006914  -0.005344  0.007321  0.04409  -0.7745  -0.3051
6.286e+09  0.02055  -0.7849  -0.01919  -0.006106  0.03175  0.002706  -0.7986  -0.002997
6.288e+09  -0.2069  -0.794  -0.02871  0.01747  -0.02499  0.05683  -0.7502  0.2395
6.289e+09  -0.5091  -0.674  -0.009114  -0.0135  0.01147  0.03577  -0.6515  0.5156
6.29e+09  -0.6769  -0.4596  0.02529  -0.02032  -0.02552  0.02787  -0.4426  0.6737
6.291e+09  -0.8759  -0.1438  0.0122  -0.01758  0.01859  -0.006408  -0.1758  0.7833
6.292e+09  -0.834  0.1307  0.007847  0.004645  -0.0136  0.04393  0.1004  0.7839
6.294e+09  -0.7076  0.3678  -0.03744  -0.02499  0.004526  0.006667  0.3614  0.7048
6.295e+09  -0.5528  0.6655  0.02018  -0.02139  0.007077  0.01592  0.622  0.5185
6.296e+09  -0.2176  0.7696  -0.01921  -0.01065  -0.0147  0.01496  0.7563  0.2714
6.298e+09  -0.02114  0.8714  -0.01264  0.00883  0.01812  0.007098  0.8113  0.002757
6.299e+09  0.2874  0.7554  0.01899  0.02693  0.03523  -0.03054  0.8016  -0.2883
6.3e+09  0.5427  0.6241  0.01665  0.01254  0.004831  -0.003529  0.633  -0.537
6.301e+09  0.7218  0.3883  -0.003222  -0.01412  -0.03036  0.003605  0.4131  -0.7248
6.302e+09  0.8327  0.137  -0.0007473  0.0183  -0.05247  -0.02034  0.1584  -0.8519
6.304e+09  0.8326  -0.1948  0.02177  -0.004093  0.04479  0.01095  -0.1364  -0.8231
6.305e+09  0.7083  -0.4436  0.01337  0.01337  -0.03103  -0.01282  -0.4241  -0.7576
6.306e+09  0.52  -0.6522  0.006785  0.03752  -0.02997  -0.003957  -0.6327  -0.5226
6.308e+09  0.2546  -0.8192  0.01241  0.01324  0.03202  0.01103  -0.796  -0.315
6.309e+09  -0.06038  -0.8202  0.004892  0.02597  0.03025  -0.00603  -0.8726  0.003168
6.31e+09  -0.3069  -0.7808  -0.01387  -0.04571  0.04683  0.01229  -0.8186  0.3013
6.311e+09  -0.5745  -0.6035  -0.008897  0.03266  0.0198  -0.01611  -0.6755  0.5835
6.312e+09  -0.7466  -0.3766  -0.02394  -0.01122  0.0006569  -0.02644  -0.4451  0.7365
6.314e+09  -0.8669  -0.09911  0.0004727  -0.01024  0.05233  -0.02183  -0.1762  0.8605
6.315e+09  -0.7927  0.2211  0.004572  -0.01625  -0.008229  0.02692  0.1435  0.8568
6.316e+09  -0.6919  0.4795  0.003333  -0.001997  0.08622  -0.006981  0.4474  0.7409
6.318e+09  -0.451  0.7003  -0.02261  0.008161  0.008022  0.04933  0.6844  0.5866
6.319e+09  -0.2148  0.8022  -0.0149  0.02543  -0.0427  -0.002125  0.8382  0.326
6.32e+09  0.07721  0.8169  -0.01007  0.0302  -0.01574  -0.01487  0.9129  0.029
6.321e+09  0.3474  0.7564  0.005256  0.0322  -0.05384  0.001906  0.8392  -0.2874
6.322e+09  0.5511  0.5408  -0.01501  -0.01104  -0.006187  0.01407  0.6949  -0.5783
6.324e+09  0.8025  0.333  -0.02424  0.005079  0.007478  -0.03345  0.4501  -0.7863
6.325e+09  0.8958  0.06008  -0.03529  0.02021  0.01877  0.02058  0.1568  -0.8598
6.326e+09  0.8245  -0.2337  -0.03702  -0.009153  0.008221  0.04196  -0.1472  -0.9309
6.328e+09  0.7147  -0.5415  0.03242  -0.01818  -0.01833  -0.02687  -0.4271  -0.7906
6.329e+09  0.4521  -0.7371  -0.01412  0.003077  -0.00233  -0.002006  -0.668  -0.6187
6.33e+09  0.1711  -0.8315  -0.01358  -0.02236  0.01924  0.003045  -0.8284  -0.3526
6.331e+09  -0.1891  -0.8244  0.003537  -0.003609  0.0005392  0.02813  -0.9071  -0.03567
6.332e+09  -0.4204  -0.7709  0.00629  -0.007153  0.04482  0.0123  -0.8669  0.2366
6.334e+09  -0.6498  -0.534  0.01416  0.03905  0.03349  -0.006165  -0.7144  0.5816
6.335e+09  -0.7577  -0.2946  0.003212  -0.01761  -0.00743  -0.009791  -0.4519  0.7889
6.336e+09  -0.835  -0.0157  0.02126  -0.04559  0.006759  0.007771  -0.1851  0.9166
6.338e+09  -0.8118  0.3146  0.01663  -0.02878  0.02484  0.02314  0.1571  0.9295
6.339e+09  -0.6782  0.5541  -0.01101  -0.004571  -0.01191  0.002881  0.4565  0.8172
6.34e+09  -0.4175  0.7774  0.02592  -0.0267  -0.00363  -0.03264  0.6936  0.6032
6.341e+09  -0.1629  0.87  -0.004461  0.01158  0.02353  -0.007898  0.8537  0.3469
6.342e+09  0.1962  0.8858  -0.04009  0.01276  -0.01034  0.03374  0.9374  0.03082
6.344e+09  0.4758  0.7669  -0.02706  0.01888  0.01066  -0.001226  0.9093  -0.3235
6.345e+09  0.6686  0.5188  0.003649  -0.0349  -0.008363  0.0173  0.741  -0.5412
6.346e+09  0.8094  0.2477  -0.03694  -0.0003747  0.02743  0.01847  0.5042  -0.8109
6.348e+09  0.8989  -0.07681  -0.01617  -0.003719  0.05517  0.01646  0.2231  -0.8955
6.349e+09  0.7606  -0.4031  -0.005169  0.007356  0.01299  -0.03627  -0.09572  -0.918
6.35e+09  0.5814  -0.624  -0.008557  -0.01633  0.01043  -0.008947  -0.4083  -0.8282
6.351e+09  0.3756  -0.7741  -0.01629  0.00798  -0.01601  -0.01234  -0.6945  -0.6828
6.352e+09  0.07859  -0.8956  -0.02233  8.16e-05  -0.006088  0.006413  -0.8759  -0.3697
6.354e+09  -0.2623  -0.8733  -0.01549  -0.0264  0.001007  0.01592  -0.9482  -0.04259
6.355e+09  -0.5268  -0.6772  0.0232  0.03585  0.01151  -0.01315  -0.8959  0.2401
6.356e+09  -0.7357  -0.4708  0.01349  -0.03511  -0.01747  -0.02547  -0.7646  0.5415
6.358e+09  -0.8601  -0.2199  0.01089  -0.009199  0.003579  0.03102  -0.5136  0.765
6.359e+09  -0.8795  0.1366  0.02927  0.02581  0.03203  -0.01545  -0.2146  0.8789
6.36e+09  -0.7887  0.4062  0.005894  0.03818  0.01188  0.02742  0.1098  0.9463
6.361e+09  -0.6099  0.6096  0.01048  -0.006643  -0.02816  -0.04354  0.3824  0.8112
6.362e+09  -0.3189  0.8423  -0.04392  -0.00337  -0.0129  -0.01099  0.6852  0.6719
6.364e+09  0.01885  0.8997  0.0089  0.02806  -0.02224  0.003348  0.8791  0.4304
6.365e+09  0.2865  0.8283  -0.01226  -0.00648  -0.01347  0.0621  0.942  0.09963
6.366e+09  0.5778  0.6951  -0.03231  0.06327  -0.04063  -0.04621  0.901  -0.241
6.368e+09  0.7733  0.4299  -0.008542  -0.01479  0.01498  0.01151  0.769  -0.5855
6.369e+09  0.8906  0.1512  0.01494  -0.005011  0.007801  -0.02507  0.5528  -0.801
6.37e+09  0.871  -0.1967  0.002876  0.02089  0.005052  -0.01211  0.2585  -0.9059
6.371e+09  0.7011  -0.4455  -0.02767  0.02731  -0.01858  0.02638  -0.08333  -0.9147
6.372e+09  0.5638  -0.6883  0.03784  0.0262  -0.009853  0.01307  -0.3978  -0.8311
6.374e+09  0.3037  -0.8497  -0.008951  -0.0003773  0.02325  -0.0449  -0.6938  -0.629
6.375e+09  -0.04303  -0.8508  0.03695  -0.008517  -0.003636  0.03439  -0.8402  -0.4196
6.376e+09  -0.3747  -0.8278  -0.003955  0.02385  -0.009813  0.04205  -0.9648  -0.08578
6.378e+09  -0.5936  -0.6222  0.04155  -0.0274  -0.005601  -0.02532  -0.9345  0.2074
6.379e+09  -0.8659  -0.4014  0.01682  -0.0211  -0.02685  -0.01352  -0.7737  0.5203
6.38e+09  -0.912  -0.1114  -0.04213  0.009592  0.007869  -0.02628  -0.5941  0.7987
6.381e+09  -0.8569  0.2146  -0.0119  -0.02905  -0.03381  0.03764  -0.2614  0.9354
6.382e+09  -0.7375  0.5315  -0.002231  0.001756  -0.01247  0.00966  0.07094  0.9533
6.384e+09  -0.5487  0.7453  0.03006  0.01331  -0.0469  0.01274  0.3722  0.8435
6.385e+09  -0.2588  0.8744  0.008008  -0.02027  -0.02061  0.005535  0.6341  0.6789
6.386e+09  0.07778  0.8898  0.01976  -0.009257  0.006003  0.007559  0.8098  0.4362
6.388e+09  0.34  0.7841  -0.02067  -0.03153  0.02372  -0.04392  0.9401  0.1015
6.389e+09  0.6224  0.6379  0.02731  -0.01568  -0.01898  0.03843  0.9222  -0.1906
6.39e+09  0.8478  0.3951  -0.03131  0.01373  0.04465  -0.008937  0.7593  -0.478
6.391e+09  0.8787  0.03438  0.005491  0.04013  0.02051  -0.008461  0.5367  -0.7589
6.392e+09  0.8673  -0.2227  -0.04258  -0.009135  0.04778  0.008854  0.2458  -0.8694
6.394e+09  0.7218  -0.5336  0.02087  -0.03308  0.0751  -0.01299  -0.07205  -0.9297
6.395e+09  0.4745  -0.7444  -0.01833  0.01373  -0.006224  0.01552  -0.3584  -0.8767
6.396e+09  0.2315  -0.8394  -0.01717  -0.01615  0.01761  -0.04386  -0.6222  -0.6897
6.398e+09  -0.1013  -0.8385  -0.0446  0.01078  0.01275  0.01924  -0.7623  -0.4689
6.399e+09  -0.4402  -0.7691  -0.01864  0.02492  0.01717  0.00886  -0.908  -0.1377
6.4e+09  -0.6636  -0.5968  -0.005776  0.0214  0.002619  -0.01609  -0.9468  0.1859
6.401e+09  -0.8274  -0.2667  0.0252  -0.001497  -0.05336  -0.04297  -0.7628  0.444
6.402e+09  -0.829  -0.0382  0.01289  -0.0006094  0.01752  0.02844  -0.5853  0.7199
6.404e+09  -0.8286  0.3122  0.008737  -0.002856  -0.01783  -0.01626  -0.3234  0.8874
6.405e+09  -0.6612  0.5367  -0.0009149  -0.0184  0.03119  0.03617  0.004489  0.9139
6.406e+09  -0.4827  0.748  -0.03591  -0.02549  0.01977  -0.02168  0.3005  0.8913
6.408e+09  -0.1902  0.88  -0.00367  0.004956  0.00283  -0.00708  0.5406  0.6989
6.409e+09  0.129  0.8221  -0.01446  0.005377  0.01093  -0.01757  0.7577  0.4907
6.41e+09  0.4079  0.7588  -0.01347  -0.01684  -0.01594  -0.02668  0.8853  0.1856
6.411e+09  0.6701  0.5698  -0.03181  0.01194  0.01597  0.005689  0.8985  -0.156
6.412e+09  0.7891  0.3016  -0.03807  0.00432  0.007857  -0.0009495  0.7674  -0.4294
6.414e+09  0.8577  0.01108  -0.02195  0.0003808  -0.0529  -0.02368  0.6329  -0.6917
6.415e+09  0.8009  -0.2723  0.05243  -0.005933  0.03146  0.02059  0.3374  -0.8519
6.416e+09  0.7086  -0.5928  -0.02178  -0.02015  0.04581  0.007394  -0.01223  -0.9144
6.418e+09  0.4416  -0.7536  -0.0166  -0.03413  0.005912  0.02883  -0.2718  -0.8639
6.419e+09  0.1335  -0.8913  -0.001684  0.06042  0.006065  0.01661  -0.5056  -0.7677
6.42e+09  -0.1717  -0.8749  -0.003245  0.01615  -0.03398  -0.0264  -0.754  -0.5056
6.421e+09  -0.4225  -0.7531  -0.01288  -0.02351  0.005399  -0.007663  -0.8491  -0.1741
6.422e+09  -0.6618  -0.5392  -0.005817  0.01045  0.0101  -0.02575  -0.8806  0.07538
6.424e+09  -0.8468  -0.2818  0.02736  0.02221  0.01726  -0.007457  -0.7828  0.4401
6.425e+09  -0.8922  0.06447  -0.04025  -0.01879  -0.003353  -0.04012  -0.6078  0.701
6.426e+09  -0.7798  0.3262  0.0091  -0.02676  -0.01918  0.01353  -0.3478  0.7955
6.428e+09  -0.6593  0.622  -0.005392  -0.04487  0.005423  -0.01539  -0.06046  0.888
6.429e+09  -0.4084  0.764  0.01448  -0.006088  -0.008005  -0.004379  0.2525  0.8868
6.43e+09  -0.1252  0.8639  -0.01273  0.008483  -0.02699  -0.05068  0.5233  0.7376
6.431e+09  0.2332  0.882  0.01228  0.02746  -0.02498  0.04284  0.7335  0.4553
6.432e+09  0.4666  0.7198  0.01221  -0.04519  0.04756  -0.03511  0.8253  0.2107
6.434e+09  0.7072  0.4944  0.006067  -0.01048  0.05131  0.0348  0.8279  -0.08282
6.435e+09  0.817  0.2712  -0.0341  0.007263  -0.05272  0.02873  0.7988  -0.368
6.436e+09  0.8724  -0.06872  0.004224  -0.007801  0.03622  0.002062  0.6008  -0.594
6.438e+09  0.7923  -0.3449  -0.01523  0.006329  -0.02808  0.03678  0.3219  -0.7882
6.439e+09  0.6241  -0.6058  -0.03246  -0.001752  -0.04187  0.009997  0.04416  -0.8654
6.44e+09  0.3539  -0.7871  0.01251  0.005868  -0.01107  -0.01292  -0.2638  -0.8002
6.441e+09  0.07171  -0.8702  -0.0007986  0.01609  0.0475  -0.03635  -0.5306  -0.7263
6.442e+09  -0.2284  -0.7933  0.01135  -0.01498  0.04921  0.002662  -0.745  -0.4819
6.444e+09  -0.5433  -0.743  0.02545  0.001603  0.002407  -0.0006378  -0.816  -0.1792
6.445e+09  -0.7075  -0.5341  0.02022  0.009961  0.02955  -0.01331  -0.8491  0.1085
6.446e+09  -0.8161  -0.296  -0.03908  0.03254  0.01339  0.001911  -0.7816  0.3634
6.448e+09  -0.8733  0.0431  0.01422  0.03015  0.03192  -0.03401  -0.6088  0.5777
6.449e+09  -0.8125  0.3466  -0.01056  -0.01501  -0.02221  -0.02394  -0.353  0.7403
6.45e+09  -0.5888  0.646  0.01064  -0.02837  0.02363  0.02984  -0.07404  0.8278
6.451e+09  -0.4051  0.7769  -0.03111  0.004378  -0.006432  0.01265  0.2063  0.7885
6.452e+09  -0.07023  0.8181  0.004267  -0.04517  -0.02599  0.00577  0.4629  0.7011
6.454e+09  0.2414  0.8147  0.02875  0.01436  0.02081  5.356e-05  0.6602  0.5223
6.455e+09  0.4843  0.7302  0.02975  -0.02536  -0.003525  -0.0246  0.8029  0.1901
6.456e+09  0.7236  0.5479  -0.03748  -0.03544  0.01906  -0.01254  0.7973  -0.05776
6.458e+09  0.8396  0.2351  0.06969  -0.01937  -0.02028  0.009684  0.7639  -0.3561
6.459e+09  0.8667  -0.01491  0.02472  -0.02527  0.04187  -0.004401  0.554  -0.5648
6.46e+09  0.794  -0.3903  0.0228  0.004789  0.03399  0.0137  0.3201  -0.7135
6.461e+09  0.6323  -0.6559  0.02793  0.007871  -0.01914  0.02174  0.08339  -0.8072
6.462e+09  0.3389  -0.7594  0.01125  0.007996  -0.01289  0.04949  -0.2026  -0.8117
6.464e+09  0.05679  -0.8427  -0.03391  -0.03881  0.01523  -0.001908  -0.4579  -0.642
6.465e+09  -0.2574  -0.8249  -0.007313  0.008228  -0.002378  -0.02817  -0.6925  -0.4675
6.466e+09  -0.5052  -0.7459  -0.01868  0.03004  -0.03867  -0.01187  -0.7922  -0.2376
6.468e+09  -0.7174  -0.4706  -0.0004189  -0.007999  0.03507  0.01122  -0.8114  0.07161
6.469e+09  -0.8923  -0.2146  0.01558  -0.02076  -0.008049  -0.02231  -0.6799  0.3583
6.47e+09  -0.9081  0.06483  -0.0004308  -0.03595  0.005098  -0.03294  -0.6045  0.5741
6.471e+09  -0.8131  0.3719  0.001253  -0.007585  -0.02045  0.02556  -0.3449  0.7137
6.472e+09  -0.644  0.6167  -0.03029  0.00673  0.0397  -0.007333  -0.07201  0.7959
6.474e+09  -0.3885  0.8505  -0.04801  -0.01359  -0.03628  -0.02797  0.176  0.7311
6.475e+09  -0.08758  0.8852  0.03116  -0.009825  -0.04052  0.01897  0.5099  0.5866
6.476e+09  0.2939  0.8385  0.01103  0.003965  0.01763  0.02438  0.6829  0.4255
6.478e+09  0.5271  0.7386  0.013  -0.03642  0.005114  -0.009708  0.7699  0.2158
6.479e+09  0.7188  0.4667  0.02185  -0.02705  0.02963  0.03806  0.7706  -0.09502
6.48e+09  0.9179  0.2598  0.008613  0.00771  0.007617  0.01534  0.6776  -0.3596
6.481e+09  0.9296  -0.0641  -0.0193  0.05664  -0.01288  0.01093  0.5539  -0.5659
6.482e+09  0.8308  -0.4133  -0.02968  -0.01571  -0.04518  -0.01701  0.3178  -0.6898
6.484e+09  0.6167  -0.6128  -0.02944  0.01662  -0.03294  -0.01021  0.03485  -0.8328
6.485e+09  0.2905  -0.8497  0.005477  0.03386  0.06886  0.01132  -0.2284  -0.7634
6.486e+09  0.06956  -0.8568  0.05643  -0.01013  -0.03095  -0.01968  -0.4602  -0.6395
6.488e+09  -0.2657  -0.8906  0.04292  -0.003798  -0.0272  0.01218  -0.6401  -0.4188
6.489e+09  -0.6005  -0.7301  -0.0003794  -0.01015  0.004377  -0.04285  -0.7748  -0.1621
6.49e+09  -0.7481  -0.5047  0.007128  0.006809  -0.02019  -0.03775  -0.7902  0.1017
6.491e+09  -0.9143  -0.2364  0.0205  0.03573  -0.02304  0.01224  -0.6943  0.3385
6.492e+09  -0.9174  0.09972  0.002434  -0.005187  -0.01466  -0.02787  -0.5427  0.5413
6.494e+09  -0.7615  0.451  0.004929  0.01763  -0.01981  0.02297  -0.311  0.6782
6.495e+09  -0.6523  0.7128  -0.02724  -0.01761  0.03911  0.01355  -0.012  0.7691
6.496e+09  -0.3547  0.8417  0.00264  -0.02313  -0.02694  0.02074  0.1967  0.7362
6.498e+09  -0.04099  0.9182  -0.008719  -0.01858  -0.02616  -0.02795  0.4753  0.5902
6.499e+09  0.2714  0.8578  -0.002908  -0.01293  0.001731  0.01093  0.6438  0.3776
6.5e+09  0.5178  0.7599  -0.01457  -0.003066  -0.02718  -0.02374  0.7647  0.1316
6.501e+09  0.7646  0.4776  -0.005707  -0.01852  -0.03102  0.01408  0.7731  -0.1074
6.502e+09  0.9557  0.2063  -0.01145  -0.03991  -0.01505  0.0082  0.6855  -0.3264
6.504e+09  0.8922  -0.1545  0.04017  0.001434  0.04841  -0.03819  0.5107  -0.5723
6.505e+09  0.8521  -0.444  0.02868  0.001089  0.01042  0.0003135  0.2477  -0.6976
6.506e+09  0.6184  -0.6668  0.0107  0.001911  0.0221  -0.06557  0.04536  -0.7772
6.508e+09  0.3461  -0.8631  0.01324  0.005803  0.01722  0.03459  -0.2687  -0.722
6.509e+09  0.05153  -0.9452  0.01569  0.007489  0.0854  -0.01186  -0.4695  -0.5373
6.51e+09  -0.2874  -0.8802  -0.003218  0.02886  -0.003361  0.0002343  -0.6589  -0.3575
6.511e+09  -0.617  -0.7256  -0.03694  -0.01658  -0.03159  0.01952  -0.7321  -0.1138
6.512e+09  -0.7906  -0.4721  -0.002544  0.02703  -0.03722  0.02837  -0.7703  0.1182
6.514e+09  -0.8853  -0.1742  0.01118  -0.01163  0.0002965  0.01529  -0.6508  0.3624
6.515e+09  -0.9189  0.163  0.01247  0.01273  -0.02883  0.02619  -0.4672  0.5865
6.516e+09  -0.8022  0.4703  -0.007524  0.03767  -0.009855  0.01828  -0.2197  0.7149
6.518e+09  -0.5986  0.6843  -0.008255  -0.02358  -0.00916  -0.004225  0.03875  0.7307
6.519e+09  -0.2827  0.8851  0.01403  0.01456  0.02431  -0.02028  0.2923  0.6989
6.52e+09  -0.001368  0.9193  -0.005028  0.006059  0.01133  0.001216  0.4594  0.5327
6.521e+09  0.3483  0.9056  -0.02754  0.03327  -0.06049  -0.02923  0.6383  0.3342
6.522e+09  0.6538  0.7191  0.008757  -0.01417  0.003072  -0.05521  0.7273  0.107
6.524e+09  0.8412  0.5019  -0.03777  -0.02323  -0.02838  0.02688  0.7163  -0.1763
6.525e+09  0.9132  0.145  0.001977  -0.004476  0.009295  0.02067  0.6242  -0.4057
6.526e+09  0.9083  -0.1608  -0.01958  0.01314  0.04709  -0.03415  0.4346  -0.5365
6.528e+09  0.7993  -0.5419  -0.04262  -0.03088  0.01754  0.06585  0.2062  -0.6889
6.529e+09  0.5777  -0.7716  0.01153  0.01825  -0.02693  -0.005267  -0.04321  -0.7444
6.53e+09  0.2757  -0.9135  -0.01071  -0.02645  0.01162  -0.0622  -0.2768  -0.5838
6.531e+09  -0.09804  -0.9849  0.006486  -0.02104  -0.000831  0.0152  -0.4629  -0.511
6.532e+09  -0.4118  -0.8832  -0.03001  -0.002374  0.02119  -0.005543  -0.6043  -0.2733
6.534e+09  -0.7055  -0.739  -0.03063  0.02084  0.06295  0.01814  -0.6169  -0.1059
6.535e+09  -0.8811  -0.4539  -3.43e-05  0.01559  0.0112  0.00398  -0.6088  0.1069
6.536e+09  -0.9828  -0.07375  -0.01385  0.02365  -0.03616  -0.004513  -0.5384  0.3446
6.538e+09  -0.9465  0.2686  -0.008105  -0.002661  0.03446  -0.0008505  -0.431  0.4475
6.539e+09  -0.7784  0.6371  0.03391  0.009059  -0.02458  0.03001  -0.2481  0.6368
6.54e+09  -0.553  0.7658  -0.006553  -0.0115  0.01118  -0.006376  -0.06835  0.6777
6.541e+09  -0.231  0.9426  0.03533  0.02822  -0.0193  -0.006473  0.2077  0.6964
6.542e+09  0.1346  0.9448  0.006483  -0.0003186  0.008742  -0.004596  0.4321  0.5804
6.544e+09  0.4857  0.8511  0.0007809  -0.01064  0.004385  0.005129  0.627  0.4139
6.545e+09  0.7597  0.6791  6.874e-05  -0.009701  -0.00404  -0.006642  0.7112  0.1877
6.546e+09  0.9179  0.385  0.002018  -0.01518  0.01055  0.00433  0.7164  -0.1008
6.548e+09  0.9751  0.01911  0.01377  -0.008711  -0.04002  -0.06261  0.6617  -0.3359
6.549e+09  0.9093  -0.3134  -0.01395  0.01471  -0.02451  -0.04696  0.4858  -0.5403
6.55e+09  0.7294  -0.565  -0.03841  -0.03168  0.004249  -0.005182  0.2773  -0.6947
