# Hz S RI R 50
6.25e+09  -0.2755  0.8397  -0.02176  -0.02636  -0.04203  0.04373  0.1633  0.499
6.251e+09  0.02986  0.8321  -0.01019  0.02191  0.05486  -0.04304  0.3979  0.4187
6.252e+09  0.4027  0.79  0.02089  -0.002287  0.005969  0.01821  0.4968  0.2495
6.254e+09  0.6029  0.5592  0.01496  0.01267  0.05762  0.007333  0.5797  0.002581
6.255e+09  0.7679  0.3736  0.01255  -0.01605  0.03624  0.03148  0.6127  -0.2013
6.256e+09  0.8498  0.1248  -0.0004008  -0.03906  -0.02539  0.05527  0.4997  -0.4466
6.258e+09  0.8446  -0.2595  -0.01291  -0.02601  -0.01388  -0.05027  0.2888  -0.614
6.259e+09  0.6975  -0.4575  0.0134  0.02525  0.05404  -0.01994  0.03712  -0.6832
6.26e+09  0.5023  -0.7246  0.01189  0.02377  -0.01614  -0.01098  -0.2175  -0.6821
6.261e+09  0.2051  -0.8393  0.002888  -0.0192  -0.01341  -0.03586  -0.4839  -0.563
6.262e+09  -0.08132  -0.8777  -0.000809  -0.000974  -0.001281  0.04543  -0.6026  -0.3603
6.264e+09  -0.3442  -0.7548  -0.01707  -0.04502  0.02739  -0.02705  -0.6951  -0.1019
6.265e+09  -0.5385  -0.6223  0.009834  -0.006122  -0.02545  -0.01307  -0.6802  0.1137
6.266e+09  -0.7531  -0.3266  -0.005216  0.001164  -0.0135  -0.0561  -0.6052  0.4067
6.268e+09  -0.8238  -0.09032  -0.03928  0.005494  -0.007887  0.02135  -0.4283  0.5879
6.269e+09  -0.8182  0.2364  -0.006251  0.02114  -0.01465  0.01356  -0.2113  0.6943
6.27e+09  -0.7167  0.5206  0.01249  0.001585  0.0109  0.05288  0.08533  0.6883
6.271e+09  -0.4417  0.6225  -0.01194  -0.01869  0.08754  -0.04652  0.3128  0.6753
6.272e+09  -0.2025  0.7946  -0.02292  -0.01706  0.01469  -0.01632  0.5215  0.5414
6.274e+09  0.07402  0.7784  -0.01097  -0.0002359  -0.002261  -0.004693  0.6807  0.3087
6.275e+09  0.399  0.7785  -0.002534  0.001328  -0.04786  0.01555  0.7519  0.03007
6.276e+09  0.6372  0.5437  -0.007853  0.01161  -0.02823  -0.007612  0.7537  -0.256
6.278e+09  0.7789  0.3294  -0.006872  -0.01489  0.02118  0.02428  0.58  -0.4837
6.279e+09  0.8316  0.009952  0.004988  0.00258  -0.03559  0.06999  0.4098  -0.637
6.28e+09  0.771  -0.2184  -0.01813  0.006537  -0.01105  -0.05299  0.1508  -0.7712
6.281e+09  0.6294  -0.471  0.01356  0.03056  0.004662  -0.002127  -0.1083  -0.7401
6.282e+09  0.4191  -0.7264  0.00681  0.00661  0.0218  -0.02388  -0.3898  -0.7006
6.284e+09  0.114  -0.8078  -0.0004328  0.002001  -0.0235  0.0009188  -0.5708  -0.5221
6.285e+09  -0.1409  -0.8488  -0.01868  0.008433  -0.01834  0.03129  -0.7252  -0.3202
6.286e+09  -0.4047  -0.7191  0.02907  0.007828  -0.009479  0.005628  -0.8078  -0.02112
6.288e+09  -0.6095  -0.6012  -0.005021  -0.01051  0.0582  -0.006395  -0.7404  0.2713
6.289e+09  -0.7952  -0.2751  -0.008755  -0.02319  0.01853  0.01979  -0.6307  0.5217
6.29e+09  -0.8391  -0.0946  0.0367  0.01646  -0.0095  0.0228  -0.4219  0.7049
6.291e+09  -0.7924  0.2752  0.04326  0.01964  -0.004966  0.006955  -0.1409  0.8206
6.292e+09  -0.6781  0.5159  0.01325  0.005277  -0.02539  -0.003342  0.1233  0.8314
6.294e+09  -0.3747  0.6892  0.01374  0.01693  0.0202  -0.01643  0.3864  0.7047
6.295e+09  -0.1298  0.7796  -0.02145  0.006606  0.02986  0.06207  0.6226  0.5248
6.296e+09  0.162  0.8248  -0.02431  0.01827  -0.0332  0.01163  0.8052  0.2896
6.298e+09  0.4037  0.6993  0.009789  -0.001469  -0.02296  -0.01501  0.8254  0.03075
6.299e+09  0.6627  0.5355  -0.006383  0.009557  -0.02293  -0.01833  0.7573  -0.2713
6.3e+09  0.756  0.2663  0.0006725  0.0299  -0.0121  0.01189  0.6292  -0.561
6.301e+09  0.8869  -0.01463  -0.02849  0.002729  -0.01605  -0.005362  0.4577  -0.7163
6.302e+09  0.7461  -0.3139  0.000868  -0.01633  -0.001629  -0.01606  0.1401  -0.8712
6.304e+09  0.6394  -0.572  0.008395  0.002688  -0.04976  0.01284  -0.1677  -0.8376
6.305e+09  0.4384  -0.7257  0.01008  -0.002712  0.03396  -0.01144  -0.3935  -0.7549
6.306e+09  0.1428  -0.8655  -0.02889  0.009904  0.005002  0.02122  -0.6445  -0.5715
6.308e+09  -0.1885  -0.8543  -0.02117  -0.01177  0.01679  -0.02896  -0.836  -0.3031
6.309e+09  -0.4729  -0.7394  -0.005861  9.599e-05  0.005707  0.02642  -0.8729  0.009446
6.31e+09  -0.7109  -0.4706  -0.01426  0.008773  -0.002151  0.003493  -0.805  0.2751
6.311e+09  -0.8335  -0.2519  0.01817  0.009996  0.0242  0.0551  -0.66  0.5497
6.312e+09  -0.8186  0.05147  0.003177  -0.01018  0.01212  0.03102  -0.4759  0.731
6.314e+09  -0.7881  0.3637  -0.04212  -0.02416  -0.001516  -0.001476  -0.1507  0.8714
6.315e+09  -0.5581  0.5863  0.03362  -0.005249  0.06236  -0.0289  0.1277  0.8812
6.316e+09  -0.3684  0.7204  -0.01551  -0.01119  0.05751  -0.01016  0.4203  0.7529
6.318e+09  -0.08433  0.8533  -0.01168  0.01606  -0.02407  0.00491  0.6574  0.5695
6.319e+09  0.1572  0.8183  0.006026  -0.006412  0.02804  0.02656  0.8266  0.3201
6.32e+09  0.5162  0.6857  -0.007934  0.009617  -0.06842  0.01633  0.8914  0.03825
6.321e+09  0.7399  0.4923  -0.008278  0.0229  0.03195  0.008481  0.8519  -0.2803
6.322e+09  0.8486  0.2219  0.01989  0.00738  0.008432  0.00255  0.6753  -0.5677
6.324e+09  0.8576  -0.1242  0.02054  -0.02831  0.01373  -0.007718  0.4546  -0.7418
6.325e+09  0.7838  -0.365  0.008878  -0.01253  -0.008676  -0.018  0.1505  -0.8838
6.326e+09  0.5565  -0.6216  0.01509  -7.522e-05  -0.03092  -0.0103  -0.1557  -0.8999
6.328e+09  0.309  -0.7537  0.00368  0.004874  -0.0299  0.003255  -0.4281  -0.7991
6.329e+09  -0.0005687  -0.8398  -0.009729  -0.0005953  -0.02896  -9.394e-05  -0.7051  -0.5715
6.33e+09  -0.3005  -0.8403  -0.01445  -0.005249  -7.584e-05  -0.02578  -0.8622  -0.3429
6.331e+09  -0.5494  -0.653  -0.000618  0.02308  -0.009505  0.01401  -0.9129  -0.02202
6.332e+09  -0.7917  -0.4465  0.01087  0.003109  0.02729  -0.062  -0.8476  0.2509
6.334e+09  -0.8154  -0.194  0.03008  -0.01684  0.01629  -0.01239  -0.7436  0.5989
6.335e+09  -0.8485  0.1501  -0.02619  0.04017  0.005345  0.03053  -0.4541  0.7561
6.336e+09  -0.7578  0.4384  0.004599  -0.006778  -0.0005662  -0.01062  -0.216  0.9172
6.338e+09  -0.5415  0.6437  -0.02432  -0.003252  0.0199  -0.003237  0.1352  0.912
6.339e+09  -0.272  0.8269  -0.02634  0.009492  -0.04006  -0.04645  0.3934  0.7944
6.34e+09  0.01586  0.8925  -0.002781  -0.02101  0.003888  -0.04456  0.6552  0.6228
6.341e+09  0.3599  0.8394  -0.02833  0.002547  -0.03145  0.03217  0.8765  0.372
6.342e+09  0.6185  0.6674  0.0276  -0.01224  0.02897  -0.009047  0.9621  0.04576
6.344e+09  0.7894  0.3602  -0.01797  0.05892  -0.02918  0.02791  0.885  -0.2971
6.345e+09  0.8503  0.1445  0.02405  -0.0434  0.009295  -0.007175  0.7102  -0.5709
6.346e+09  0.8814  -0.2238  -0.008464  0.04226  0.01636  0.005401  0.5313  -0.8056
6.348e+09  0.7378  -0.5014  -0.01388  0.004131  0.03687  0.007623  0.228  -0.8927
6.349e+09  0.516  -0.7489  0.00789  -0.04025  -0.02333  -0.05101  -0.1257  -0.9265
6.35e+09  0.2464  -0.832  0.01099  0.006094  0.03512  -0.005126  -0.4146  -0.8696
6.351e+09  -0.05308  -0.8543  0.01059  -0.01783  -0.007545  -0.05601  -0.6632  -0.6677
6.352e+09  -0.3656  -0.7993  -0.003689  0.02302  0.003297  -0.05572  -0.8656  -0.3542
6.354e+09  -0.6166  -0.64  -0.01322  0.01081  0.009571  0.01253  -0.9552  -0.07815
6.355e+09  -0.8085  -0.3033  0.01886  0.01115  -0.0194  -0.01657  -0.8961  0.2829
6.356e+09  -0.9117  -0.029  0.01686  0.004272  0.01632  -0.04138  -0.7673  0.5342
6.358e+09  -0.8485  0.2762  0.01309  -0.03201  0.04555  0.006961  -0.5422  0.769
6.359e+09  -0.7388  0.568  0.006635  -0.02776  -0.01515  -0.01332  -0.2019  0.9269
6.36e+09  -0.4751  0.7919  -0.03602  0.01414  -0.03408  -0.0192  0.1046  0.9505
6.361e+09  -0.1723  0.8733  0.01657  -0.01194  0.01422  0.03474  0.4074  0.8202
6.362e+09  0.1159  0.9226  0.01619  -0.02481  0.02561  -0.01689  0.6837  0.6598
6.364e+09  0.4557  0.7817  0.0213  -0.01801  -0.02344  0.02487  0.8695  0.4287
6.365e+09  0.6593  0.5656  0.01788  -0.02328  -0.008119  -0.01838  0.9249  0.08303
6.366e+09  0.7934  0.2897  -0.04013  0.008949  0.01414  -0.02509  0.9121  -0.2354
6.368e+09  0.8593  -0.0213  -0.01182  0.01885  -0.02187  0.01582  0.7687  -0.5153
6.369e+09  0.8784  -0.321  -0.008347  -0.006863  -0.03235  0.02794  0.5341  -0.7424
6.37e+09  0.705  -0.5895  0.0002659  0.02348  0.04718  -0.03344  0.2526  -0.9047
6.371e+09  0.4252  -0.7581  0.007492  0.01767  -0.001997  -0.01052  -0.06152  -0.958
6.372e+09  0.1503  -0.9211  -0.02417  -0.01665  -0.008375  0.04706  -0.373  -0.8716
6.374e+09  -0.1545  -0.8637  -0.005725  -0.0007149  0.02324  -0.02279  -0.6448  -0.6526
6.375e+09  -0.4171  -0.7175  -0.002513  0.0253  -0.03093  0.01724  -0.8077  -0.4001
6.376e+09  -0.635  -0.5757  0.008841  0.02045  -0.01821  0.02408  -0.9258  -0.1169
6.378e+09  -0.8456  -0.2709  0.004735  -0.0243  -0.0512  0.00849  -0.8978  0.2292
6.379e+09  -0.8866  0.04063  -0.01107  -0.01215  -0.01645  0.003867  -0.8083  0.5152
6.38e+09  -0.8239  0.3455  0.04934  0.0174  -0.03013  0.005562  -0.541  0.7709
6.381e+09  -0.6909  0.6351  0.02676  0.0007707  -0.0344  0.01797  -0.2746  0.9572
6.382e+09  -0.4119  0.7832  -0.01666  -0.01719  -0.004622  0.004128  0.07292  0.9115
6.384e+09  -0.09959  0.8984  0.02727  -0.01085  0.01472  0.03631  0.3643  0.8828
6.385e+09  0.2167  0.8648  0.03062  -0.006935  -0.0001343  -0.01812  0.615  0.6683
6.386e+09  0.448  0.776  0.005277  -0.01484  0.02614  -0.006593  0.8146  0.3889
6.388e+09  0.731  0.5461  0.03971  0.01095  0.005776  0.004359  0.9158  0.1196
6.389e+09  0.8445  0.2716  0.00399  0.0124  -0.02698  -0.006396  0.9038  -0.2564
6.39e+09  0.9386  -0.09137  0.01396  -0.02382  0.0001041  -0.04669  0.778  -0.5202
6.391e+09  0.8609  -0.3383  -0.006218  0.007021  -0.01575  0.03333  0.5745  -0.7098
6.392e+09  0.6042  -0.6306  -0.007257  -0.01857  0.04331  0.03359  0.3287  -0.9128
6.394e+09  0.3329  -0.7832  -0.00516  -0.01346  0.0464  0.0214  -0.05208  -0.9122
6.395e+09  0.09417  -0.9019  0.02394  0.04085  -0.007019  0.03282  -0.327  -0.8384
6.396e+09  -0.2578  -0.9112  0.01628  0.01621  0.008936  0.001309  -0.5953  -0.6971
6.398e+09  -0.5243  -0.741  0.009757  -0.004706  -0.008628  -0.009836  -0.7989  -0.4828
6.399e+09  -0.7153  -0.518  0.007262  0.02348  -0.00927  -0.01522  -0.9146  -0.162
6.4e+09  -0.8555  -0.2056  -0.0376  -0.01161  0.02476  -0.005528  -0.8751  0.1707
6.401e+09  -0.8458  0.07749  0.00144  -0.03564  0.02118  0.01152  -0.7926  0.4966
6.402e+09  -0.7695  0.3627  0.02489  0.005444  -0.01582  0.01145  -0.563  0.7422
6.404e+09  -0.6116  0.6438  0.002575  -0.0001973  -0.007545  -0.008561  -0.3235  0.8537
6.405e+09  -0.4074  0.8167  -0.03226  0.01923  0.01845  -0.01413  -0.03342  0.9212
6.406e+09  -0.02077  0.8576  0.03595  -0.001037  -0.02822  0.01617  0.301  0.8743
6.408e+09  0.2528  0.8327  0.007687  -0.00118  -0.009714  -0.008559  0.6309  0.7162
6.409e+09  0.5274  0.6131  -0.01713  -0.007101  0.02368  0.04992  0.8016  0.4806
6.41e+09  0.6848  0.4521  -0.008774  -0.003976  0.03666  0.04021  0.9417  0.1282
6.411e+09  0.8502  0.2101  -0.01744  0.005694  0.03753  -0.05731  0.9196  -0.124
6.412e+09  0.9146  -0.2151  0.01002  0.01106  0.004586  0.02577  0.7856  -0.4078
6.414e+09  0.7795  -0.4484  0.06696  -0.0135  -0.01808  0.006766  0.6378  -0.6748
6.415e+09  0.6434  -0.6639  -0.003313  -0.01756  0.005447  -0.03534  0.3319  -0.8457
6.416e+09  0.3646  -0.823  0.02829  0.05809  0.02181  -0.01078  0.02437  -0.8804
6.418e+09  -0.04354  -0.8842  0.02753  0.02556  0.05456  0.01736  -0.3142  -0.8129
6.419e+09  -0.2871  -0.8658  0.03558  -0.03841  -0.003863  0.02904  -0.5545  -0.6928
6.42e+09  -0.535  -0.6795  -0.02845  -0.0124  0.01078  0.007933  -0.7104  -0.446
6.421e+09  -0.7279  -0.4424  0.0003867  -0.01057  0.0128  -0.01786  -0.9145  -0.2019
6.422e+09  -0.8743  -0.1817  -0.01532  -0.05001  0.04295  -0.01249  -0.8893  0.1001
6.424e+09  -0.8961  0.1285  0.03304  -0.012  0.0342  0.006456  -0.7977  0.406
6.425e+09  -0.7721  0.3809  0.05816  -0.01584  0.01842  0.01142  -0.5506  0.6553
6.426e+09  -0.6152  0.6994  0.05971  -0.0221  0.0337  -0.01407  -0.3079  0.836
6.428e+09  -0.2939  0.8307  0.01354  0.01154  0.0251  0.01953  -0.03083  0.902
6.429e+09  -0.01952  0.924  0.03083  0.04217  -0.01322  0.02899  0.3128  0.8563
6.43e+09  0.245  0.8555  -0.03335  0.02614  0.01249  -0.0457  0.4778  0.6785
6.431e+09  0.5486  0.6889  -0.0006211  0.005919  0.01219  -0.009242  0.7225  0.5165
6.432e+09  0.8055  0.478  -0.007534  -0.03027  -0.02197  -0.07487  0.8454  0.217
6.434e+09  0.9002  0.1283  -0.01905  0.003665  0.01134  -0.01957  0.8673  -0.06734
6.435e+09  0.8836  -0.1948  0.022  0.04118  -0.04211  0.05668  0.7442  -0.4055
6.436e+09  0.7785  -0.4704  0.02881  -0.0225  -0.05212  -0.06639  0.6052  -0.6157
6.438e+09  0.6349  -0.6657  0.007319  0.05176  0.06197  0.04492  0.3367  -0.793
6.439e+09  0.3542  -0.8397  0.05375  -0.03927  0.03683  -0.004074  0.05686  -0.8918
6.44e+09  -0.004584  -0.9052  0.02701  -0.007154  -0.004565  0.01222  -0.2153  -0.8206
6.441e+09  -0.3227  -0.8896  0.004525  -0.007655  0.006345  0.006179  -0.4755  -0.7381
6.442e+09  -0.5824  -0.6223  -0.04105  0.01303  0.006107  -0.0127  -0.6592  -0.455
6.444e+09  -0.7639  -0.4115  -0.009349  -0.03767  -0.037  0.02612  -0.8482  -0.1963
6.445e+09  -0.9222  -0.1343  0.0003069  -0.01204  -0.02252  -0.0381  -0.8557  0.08554
6.446e+09  -0.8709  0.1218  -0.003493  -0.002522  -0.02081  0.008533  -0.7343  0.3588
6.448e+09  -0.7496  0.4628  0.01914  0.003299  0.0001134  0.01187  -0.5868  0.6006
6.449e+09  -0.5176  0.748  -0.03585  0.03663  -0.006132  0.02242  -0.3477  0.7828
6.45e+09  -0.2968  0.868  -0.01912  0.0417  -0.01411  -0.002253  -0.05257  0.8265
6.451e+09  0.03569  0.8909  -0.04356  -0.02526  0.01911  -0.06171  0.2163  0.7946
6.452e+09  0.347  0.8559  0.03469  -0.01671  0.02035  -0.02178  0.467  0.6583
6.454e+09  0.6179  0.6702  0.01482  -0.03195  0.04539  -0.02482  0.7265  0.4933
6.455e+09  0.8376  0.4418  -0.01811  -0.01377  -0.03421  -0.008445  0.7767  0.1982
6.456e+09  0.9429  0.1229  -0.01218  -0.01353  0.01114  -0.04833  0.8425  -0.07709
6.458e+09  0.858  -0.2172  0.03453  0.001673  -0.01112  -0.01852  0.7376  -0.3517
6.459e+09  0.7662  -0.5121  -0.004254  -0.02413  0.01196  0.00737  0.5765  -0.5631
6.46e+09  0.57  -0.7437  0.01273  0.0462  0.02411  -0.01726  0.3483  -0.7812
6.461e+09  0.2747  -0.8793  -0.01564  -0.02966  0.03044  -0.01922  0.04836  -0.8047
6.462e+09  -0.06777  -0.9317  -0.02121  0.02612  -0.02193  0.001285  -0.2329  -0.7598
6.464e+09  -0.3479  -0.8264  0.01621  -0.02627  0.0139  -0.003625  -0.4537  -0.6547
6.465e+09  -0.6235  -0.6775  -0.04387  0.02155  0.009018  0.03688  -0.6535  -0.452
6.466e+09  -0.8189  -0.4609  0.0129  -0.01842  -0.007261  -0.06229  -0.7635  -0.2401
6.468e+09  -0.8981  -0.1321  -0.02945  -8.601e-05  -0.01642  0.02674  -0.8007  0.1052
6.469e+09  -0.8333  0.2026  -0.03412  0.0002064  0.0263  0.03923  -0.7251  0.3301
6.47e+09  -0.7585  0.4868  0.01028  0.01262  -0.009493  -0.02633  -0.569  0.564
6.471e+09  -0.5284  0.7085  -0.0008866  0.01112  0.0202  -0.03937  -0.3435  0.7129
6.472e+09  -0.2973  0.9668  -0.009463  0.003968  -0.008628  0.01937  -0.05335  0.818
6.474e+09  0.01672  0.9242  -0.006595  0.0174  -0.02008  0.031  0.241  0.7377
6.475e+09  0.3272  0.8411  0.01354  -0.01723  -0.02675  0.02181  0.4649  0.645
6.476e+09  0.5721  0.7066  -0.05525  0.004222  -0.02453  0.01246  0.6877  0.4693
6.478e+09  0.8675  0.4056  -0.01269  0.008419  0.0145  0.01089  0.7811  0.1706
6.479e+09  0.971  0.06199  0.005354  0.002192  0.002747  -0.003552  0.7514  -0.07794
6.48e+09  0.8947  -0.279  -0.04635  -0.01851  -0.01379  -0.05522  0.6991  -0.3143
6.481e+09  0.741  -0.5201  -0.02878  0.002828  0.006892  -0.02316  0.5276  -0.5348
6.482e+09  0.5267  -0.7956  -0.03137  0.03669  0.004899  0.0415  0.3118  -0.7357
6.484e+09  0.2441  -0.9422  -0.0002197  0.03782  -0.03201  0.00786  0.05998  -0.7563
6.485e+09  -0.09777  -0.9214  -0.04185  -0.01873  -0.02217  -0.009336  -0.1872  -0.7764
6.486e+09  -0.4346  -0.8108  0.01841  -0.03416  0.04176  0.02234  -0.4781  -0.6161
6.488e+09  -0.6971  -0.6007  0.001729  -0.02132  -0.0195  0.003177  -0.652  -0.4492
6.489e+09  -0.8347  -0.357  -0.0309  0.03477  0.08937  0.06162  -0.7273  -0.1619
6.49e+09  -0.9305  -0.03635  0.01117  0.007152  -0.02328  -0.03392  -0.7397  0.1009
6.491e+09  -0.859  0.3114  -0.01053  0.0004314  0.004397  0.01746  -0.6777  0.374
6.492e+09  -0.7315  0.5821  -0.02285  0.006919  0.001943  0.01368  -0.5097  0.5675
6.494e+09  -0.458  0.8874  -0.0125  0.02581  -0.02615  0.04647  -0.3261  0.712
6.495e+09  -0.2039  0.9452  0.01542  -0.03109  -0.05722  -0.01574  -0.06444  0.7557
6.496e+09  0.1388  0.9458  0.03577  0.01889  0.01693  0.01171  0.2365  0.7889
6.498e+09  0.4594  0.8364  0.03585  -0.02525  -0.05892  0.007778  0.4702  0.6391
6.499e+09  0.7337  0.5684  0.03013  0.001942  -6.779e-06  -0.03182  0.6221  0.4117
6.5e+09  0.9226  0.3128  0.008778  0.01465  0.04022  -0.03664  0.7362  0.1852
6.501e+09  0.9421  -0.004913  -0.02077  0.03432  0.01559  0.02778  0.7301  -0.09987
6.502e+09  0.8937  -0.3155  0.00564  -0.01941  0.02677  0.05058  0.6946  -0.3358
6.504e+09  0.7451  -0.6163  0.01448  0.01797  0.01084  -0.007251  0.476  -0.5764
6.505e+09  0.5094  -0.832  0.0121  0.002206  -0.03823  0.04596  0.275  -0.7262
6.506e+09  0.1359  -0.9448  -0.00395  -0.02253  -0.01362  -0.01087  0.02788  -0.7195
6.508e+09  -0.1992  -0.9397  -0.01014  -0.01048  -0.00251  -0.01087  -0.2777  -0.7282
6.509e+09  -0.5068  -0.8776  0.03185  0.002213  -0.01216  -0.03362  -0.4838  -0.5693
6.51e+09  -0.7216  -0.6296  0.0458  0.003158  0.001217  -0.02117  -0.6602  -0.3918
6.511e+09  -0.9161  -0.3075  0.002779  -0.01521  0.01831  0.02558  -0.7354  -0.1424
6.512e+09  -0.953  0.07043  0.01788  0.01391  0.02893  0.006827  -0.7299  0.1402
6.514e+09  -0.935  0.3798  -0.00912  0.01266  0.003748  0.04372  -0.6114  0.3618
6.515e+09  -0.7378  0.6723  0.01751  -0.06502  -0.004654  -0.01671  -0.467  0.5677
6.516e+09  -0.4067  0.8202  -0.008113  -0.02681  -0.05416  0.05352  -0.2284  0.6889
6.518e+09  -0.1015  0.9647  -0.02384  0.01326  -0.02041  -0.04029  0.01338  0.7501
6.519e+09  0.2446  0.9017  0.01946  -0.01921  0.06493  -0.05549  0.2665  0.6598
6.52e+09  0.5211  0.8689  0.01249  0.03118  0.01252  0.03979  0.4776  0.5724
6.521e+09  0.8491  0.5657  0.0303  0.01363  -0.05136  0.0752  0.6597  0.3482
6.522e+09  0.9292  0.2398  -6.258e-05  0.009587  0.03854  0.03447  0.7447  0.07847
6.524e+09  1.005  -0.03801  -0.01413  0.003073  0.004327  -0.01645  0.7102  -0.14
6.525e+09  0.8727  -0.3923  -0.007253  -0.01867  -0.01456  0.01863  0.6287  -0.4043
6.526e+09  0.6669  -0.7342  -0.00173  0.0258  0.008978  0.007005  0.4544  -0.5827
6.528e+09  0.3814  -0.9243  -0.003933  0.04196  -0.01173  0.0323  0.2056  -0.707
6.529e+09  0.0202  -0.9851  0.01258  -0.04282  -0.02087  0.0107  -0.05694  -0.6965
6.53e+09  -0.3185  -0.9487  0.003778  -0.009972  -0.02386  -0.01013  -0.2938  -0.6586
6.531e+09  -0.6743  -0.7882  -0.01632  0.003351  -0.02721  -0.01367  -0.4773  -0.4642
6.532e+09  -0.841  -0.4735  0.006226  -0.0139  0.01926  0.004429  -0.5603  -0.2975
6.534e+09  -0.9871  -0.1543  -0.01962  0.02897  -0.02628  0.01662  -0.6363  -0.1116
6.535e+09  -0.9716  0.1772  -0.01749  -0.001209  -0.01024  -0.01667  -0.6276  0.08951
6.536e+09  -0.8314  0.5184  0.01437  -0.01123  -0.01781  -0.009434  -0.5414  0.3216
6.538e+09  -0.6283  0.7524  -0.009957  -0.01505  -0.02499  -0.02556  -0.435  0.5087
6.539e+09  -0.3404  0.9519  0.006057  0.03953  0.004818  0.02077  -0.2578  0.6013
6.54e+09  0.0283  1.002  0.01134  -0.01443  0.01632  0.01013  -0.07743  0.7136
6.541e+09  0.3371  0.8543  0.01821  -0.02477  -0.04635  -0.05263  0.1405  0.6766
6.542e+09  0.6785  0.6809  -0.01512  0.01255  0.0126  0.01734  0.3846  0.5548
6.544e+09  0.8942  0.4652  -0.01338  -0.01943  0.02405  0.02602  0.61  0.3981
6.545e+09  0.9595  0.08811  0.01873  -0.004471  -0.01215  -0.007042  0.7062  0.1831
6.546e+09  0.9436  -0.2606  0.0003609  -0.002016  0.01211  0.04367  0.703  -0.05508
6.548e+09  0.7458  -0.5062  -0.005902  0.01454  8.279e-05  0.009466  0.6675  -0.3401
6.549e+09  0.5316  -0.7674  0.002323  -0.00437  -0.04291  -0.02107  0.5184  -0.5284
6.55e+09  0.239  -0.9235  -0.03498  -0.02543  0.0721  0.04207  0.2741  -0.7091
6.551e+09  -0.1269  -0.9561  0.0008386  -0.01482  0.002909  -0.03819  0.01768  -0.7275
