# Hz S RI R 50
6.25e+09  -0.7004  -0.4585  0.03611  -0.03271  -0.01701  -0.0302  0.172  0.4926
6.251e+09  -0.7559  -0.1109  0.004364  -0.00235  0.03032  -0.06701  0.3734  0.4284
6.252e+09  -0.7846  0.1527  -0.02603  -0.01756  -0.01347  -0.01106  0.5583  0.2463
6.254e+09  -0.7196  0.401  -0.004531  -0.005523  0.01061  0.04082  0.5988  0.01434
6.255e+09  -0.5029  0.6046  -0.02048  -0.007228  -0.02745  0.07901  0.5909  -0.2273
6.256e+09  -0.251  0.721  -0.01624  -0.009696  -0.02943  -0.01987  0.4914  -0.4889
6.258e+09  -0.02852  0.7619  -0.02676  0.003434  -0.04649  -0.03938  0.259  -0.6315
6.259e+09  0.3294  0.7679  -0.04506  0.008715  0.0006318  0.03873  0.04186  -0.7158
6.26e+09  0.4949  0.608  -0.01655  0.01657  -0.01907  0.04697  -0.2096  -0.6069
6.261e+09  0.7186  0.3825  -0.01558  0.01587  0.02748  0.031  -0.4575  -0.5405
6.262e+09  0.8158  0.1132  0.003228  -0.01806  -0.01855  -0.01057  -0.6154  -0.3455
6.264e+09  0.7813  -0.1792  -0.004043  -0.03471  -0.0352  0.01753  -0.7284  -0.07265
6.265e+09  0.6913  -0.3903  -0.01419  -0.004008  0.00238  -0.03023  -0.7148  0.145
6.266e+09  0.4979  -0.6119  0.0009663  -0.04253  0.0417  0.05059  -0.6242  0.3915
6.268e+09  0.2644  -0.7809  -0.005089  -0.01385  -0.009075  0.01921  -0.4262  0.5853
6.269e+09  0.01391  -0.8349  0.01529  -0.02879  -0.04302  0.02605  -0.2148  0.6919
6.27e+09  -0.3227  -0.7766  -0.002802  0.02393  0.03277  0.02931  0.02836  0.766
6.271e+09  -0.6003  -0.5916  -0.02617  0.01351  0.02485  -0.01487  0.3367  0.6358
6.272e+09  -0.6836  -0.3852  -0.008773  0.00467  0.004552  0.01606  0.5506  0.5089
6.274e+09  -0.818  -0.09149  0.01956  0.01453  -0.00473  0.01738  0.6729  0.3075
6.275e+09  -0.7426  0.2063  0.01525  0.001251  -0.03221  -0.02796  0.7448  0.03783
6.276e+09  -0.6791  0.4415  0.01237  -0.02368  0.03775  -0.02237  0.714  -0.2574
6.278e+09  -0.4045  0.673  0.0158  0.002464  0.02087  0.01623  0.602  -0.4736
6.279e+09  -0.2371  0.7953  0.01233  -0.004416  -0.02565  0.04315  0.402  -0.6476
6.28e+09  0.1166  0.8376  -0.0173  0.004125  -0.011  -0.01616  0.1759  -0.751
6.281e+09  0.3727  0.7394  -0.01599  -0.006475  -0.009963  -0.02215  -0.102  -0.7639
6.282e+09  0.6217  0.5691  -0.001421  0.0006963  0.02134  0.01417  -0.3503  -0.6669
6.284e+09  0.7762  0.3398  0.004939  0.01089  -0.008932  -0.03634  -0.5867  -0.5164
6.285e+09  0.8193  0.06212  -0.01025  0.01295  -0.003848  0.001882  -0.7017  -0.3189
6.286e+09  0.7993  -0.2426  -0.001428  0.002261  0.02441  0.01548  -0.8059  0.02442
6.288e+09  0.5939  -0.5076  0.007067  -0.01185  0.02324  0.05835  -0.7563  0.2708
6.289e+09  0.4414  -0.6905  -0.001357  0.02145  0.01256  0.0476  -0.6349  0.5297
6.29e+09  0.1619  -0.7993  -0.004269  0.02125  0.02783  0.01847  -0.4052  0.6673
6.291e+09  -0.1705  -0.8202  0.01745  0.0105  -0.03428  0.01993  -0.1544  0.7951
6.292e+09  -0.3979  -0.6924  -0.01104  -0.02327  0.06362  -0.05365  0.1429  0.7761
6.294e+09  -0.6338  -0.507  -0.007537  0.01404  0.02751  0.01232  0.4115  0.6962
6.295e+09  -0.7373  -0.3078  0.000609  -0.02291  0.004986  -0.002861  0.6449  0.5386
6.296e+09  -0.793  0.01508  -0.004807  -0.001254  -0.007474  -0.04518  0.7469  0.3176
6.298e+09  -0.7655  0.302  -0.01903  -0.02051  -0.01413  -0.03521  0.8557  -0.008853
6.299e+09  -0.6324  0.5715  -0.03159  0.01903  0.004451  -0.01538  0.7648  -0.2977
6.3e+09  -0.3991  0.7239  -0.009948  -0.005201  0.02869  -0.001865  0.6501  -0.5482
6.301e+09  -0.05568  0.8514  -0.008513  0.01267  0.005884  0.03305  0.4487  -0.7192
6.302e+09  0.2114  0.7466  -0.001045  0.01395  0.00555  0.005769  0.1827  -0.8404
6.304e+09  0.4466  0.6924  -0.01785  0.02746  0.001356  -0.0347  -0.1651  -0.8491
6.305e+09  0.658  0.5325  0.001283  0.01432  -0.002522  0.05732  -0.4671  -0.7335
6.306e+09  0.8129  0.2299  0.005131  -0.01733  -0.0003939  -0.002604  -0.6597  -0.559
6.308e+09  0.7893  -0.03075  -0.0005432  -0.004016  0.01586  0.003655  -0.816  -0.2904
6.309e+09  0.7559  -0.3515  0.009405  -0.003415  -0.02176  0.016  -0.847  -0.00645
6.31e+09  0.5787  -0.5481  0.01254  0.02892  -0.07537  -0.02272  -0.8198  0.2781
6.311e+09  0.3121  -0.7466  -0.02202  0.02516  -0.02408  0.02808  -0.6695  0.5393
6.312e+09  0.02657  -0.865  0.008259  0.01011  -0.01713  0.03283  -0.4327  0.7405
6.314e+09  -0.1751  -0.757  0.01739  -0.001628  -0.000966  -0.03759  -0.1473  0.8426
6.315e+09  -0.4722  -0.6838  -0.02445  0.0146  0.04258  -0.05995  0.1563  0.8527
6.316e+09  -0.6962  -0.4555  0.01695  0.01263  -0.05152  0.02264  0.407  0.7718
6.318e+09  -0.8078  -0.194  0.0005213  0.00173  0.0105  0.004939  0.6592  0.5762
6.319e+09  -0.8299  0.1241  0.02735  0.01803  0.006693  0.04392  0.8254  0.2778
6.32e+09  -0.7496  0.397  0.02087  0.02387  -0.01141  -0.06539  0.876  0.04043
6.321e+09  -0.5259  0.6487  -0.002258  0.01221  0.02686  -0.00478  0.8637  -0.2849
6.322e+09  -0.2787  0.7127  -0.01341  -0.008563  -0.01292  -0.01981  0.6917  -0.536
6.324e+09  0.02616  0.8449  0.02607  -0.002703  -0.01003  -0.01267  0.4672  -0.7649
6.325e+09  0.2666  0.7846  -0.01684  0.02917  0.002266  -0.01258  0.1666  -0.8827
6.326e+09  0.549  0.6026  -0.01229  -0.001774  0.01362  0.002422  -0.1456  -0.9177
6.328e+09  0.7106  0.4154  -0.009871  -0.02139  0.008778  0.02105  -0.4288  -0.8157
6.329e+09  0.7919  0.1208  0.01398  0.002837  -0.02317  -0.02397  -0.6943  -0.6238
6.33e+09  0.7722  -0.1949  -0.00891  0.02212  0.03143  0.0392  -0.8576  -0.3205
6.331e+09  0.7195  -0.4159  0.04453  -0.01762  -0.04963  -0.05518  -0.9269  -0.06353
6.332e+09  0.4542  -0.6683  0.02407  -0.0003021  -0.03831  0.01141  -0.8601  0.2828
6.334e+09  0.2674  -0.8132  0.008302  0.01381  0.005061  -0.004609  -0.7585  0.578
6.335e+09  -0.07645  -0.8252  0.01922  -0.03048  -0.001376  0.05646  -0.5007  0.7623
6.336e+09  -0.3608  -0.79  -0.0184  -0.009128  -0.02864  0.03092  -0.197  0.8885
6.338e+09  -0.5868  -0.5734  0.009896  0.01326  0.0004617  -0.005488  0.1193  0.915
6.339e+09  -0.773  -0.2956  0.002001  0.004351  0.001906  -0.01005  0.4094  0.819
6.34e+09  -0.8054  -0.03094  -0.02099  -0.03207  0.03425  0.02953  0.6956  0.6292
6.341e+09  -0.8234  0.2933  0.01476  0.0228  -0.02306  0.00573  0.8758  0.386
6.342e+09  -0.6688  0.5317  0.02453  0.01527  -0.004223  -0.009804  0.9376  0.02116
6.344e+09  -0.4208  0.7162  0.01485  0.03785  -0.04208  -0.0209  0.8671  -0.2378
6.345e+09  -0.1441  0.7999  -0.006255  -0.02061  -0.00159  -0.04131  0.7222  -0.5652
6.346e+09  0.1553  0.8488  0.02323  0.04391  0.01701  -0.02027  0.5048  -0.7702
6.348e+09  0.4085  0.7533  -0.01439  -0.005412  -0.007128  -0.04159  0.2158  -0.9107
6.349e+09  0.6884  0.5464  -0.01262  0.001392  0.01317  -0.02623  -0.1327  -0.9072
6.35e+09  0.8345  0.2623  0.003263  -0.002012  0.001686  -0.02381  -0.408  -0.8274
6.351e+09  0.8611  -0.02671  0.01468  0.02284  0.001874  0.02484  -0.6952  -0.7178
6.352e+09  0.8039  -0.3294  0.00562  0.009527  0.02207  -0.01861  -0.9025  -0.4149
6.354e+09  0.6152  -0.6016  0.008527  -0.007774  -0.05283  0.06593  -0.9147  -0.0792
6.355e+09  0.3787  -0.8103  0.006583  0.0398  0.009136  -0.01683  -0.8909  0.2734
6.356e+09  0.06684  -0.8422  0.02289  0.0005947  -0.009773  -0.04452  -0.7936  0.5474
6.358e+09  -0.237  -0.8052  0.03019  0.01267  -0.01358  -0.0171  -0.523  0.7596
6.359e+09  -0.5019  -0.6844  -0.01522  0.007017  0.05973  -0.0136  -0.216  0.9165
6.36e+09  -0.7238  -0.4595  0.03181  0.03373  -0.006382  -0.002963  0.0776  0.9575
6.361e+09  -0.8174  -0.1432  0.007245  0.04364  -0.0132  0.01051  0.4319  0.837
6.362e+09  -0.9013  0.142  -0.03216  -0.007961  -0.02803  0.01712  0.6736  0.6706
6.364e+09  -0.7518  0.4087  -0.04972  -0.04986  0.02645  0.01902  0.8938  0.3991
6.365e+09  -0.5476  0.6905  -0.01101  -0.0343  -0.003128  -0.02472  0.9684  0.1199
6.366e+09  -0.2731  0.8361  0.01993  -0.01901  -0.03199  0.01378  0.9107  -0.2451
6.368e+09  0.006398  0.9124  0.02998  0.0422  0.003674  -0.01082  0.7906  -0.5459
6.369e+09  0.311  0.7996  0.01802  -0.03319  0.01558  -0.01064  0.5635  -0.7856
6.37e+09  0.5732  0.6697  -0.005437  -0.007154  0.03209  -0.002503  0.247  -0.8834
6.371e+09  0.7636  0.3421  -0.03748  -0.005486  0.02963  -0.01779  -0.09363  -0.9766
6.372e+09  0.8886  0.0854  0.01793  -0.01089  -0.00729  -0.0116  -0.3795  -0.8894
6.374e+09  0.9065  -0.2019  -0.04654  0.01457  -0.01622  -0.002939  -0.6858  -0.6774
6.375e+09  0.7351  -0.5038  0.01789  -0.03501  0.02524  -0.005498  -0.8558  -0.374
6.376e+09  0.4886  -0.7286  0.006762  -0.01877  -0.01882  0.03216  -0.9668  -0.1216
6.378e+09  0.1583  -0.8728  -0.009452  0.02296  -0.01391  0.0191  -0.9231  0.2615
6.379e+09  -0.1187  -0.85  0.01309  -0.006783  0.02131  -0.06841  -0.7795  0.5
6.38e+09  -0.4383  -0.738  0.007926  -0.001337  0.01508  -0.01517  -0.5515  0.7689
6.381e+09  -0.6523  -0.5805  -0.02367  0.02991  -0.0035  -0.02445  -0.2397  0.8933
6.382e+09  -0.8472  -0.3276  0.006269  -0.02272  -0.008079  -0.03541  0.03979  0.9226
6.384e+09  -0.8812  0.04127  0.02849  -0.02883  0.04375  -0.01954  0.3821  0.9086
6.385e+09  -0.8683  0.3065  0.01929  -0.002007  -0.001011  0.01727  0.6864  0.6798
6.386e+09  -0.6529  0.5882  -0.0003078  0.01927  0.01415  0.04813  0.8226  0.424
6.388e+09  -0.3842  0.7309  -0.01032  -0.007285  0.01944  0.01373  0.9056  0.1058
6.389e+09  -0.1049  0.8695  0.02481  -0.008432  0.001385  0.003981  0.9105  -0.2226
6.39e+09  0.1667  0.839  -0.004913  1.773e-05  0.04742  -0.07371  0.819  -0.4824
6.391e+09  0.5275  0.7039  -0.007915  -0.007536  -0.007193  0.02304  0.5695  -0.7449
6.392e+09  0.6695  0.4817  0.03269  0.03696  -0.02065  0.008746  0.2697  -0.8738
6.394e+09  0.8173  0.2099  0.003039  0.02095  0.02402  0.02245  -0.02973  -0.9293
6.395e+09  0.882  -0.1268  -0.001999  0.004277  -0.006197  -0.0403  -0.3437  -0.8663
6.396e+09  0.7723  -0.4084  0.03556  -0.01847  0.01665  -0.02994  -0.6373  -0.7314
6.398e+09  0.5979  -0.6619  0.01841  -0.04291  -0.003029  -0.04894  -0.7854  -0.4348
6.399e+09  0.3322  -0.8001  0.01547  0.01781  -0.0165  0.006752  -0.8948  -0.1366
6.4e+09  0.08609  -0.8965  -0.03457  -0.008798  -0.002173  -0.009893  -0.9037  0.1556
6.401e+09  -0.2834  -0.8278  0.04184  0.0007323  -0.0009241  0.02817  -0.7773  0.4623
6.402e+09  -0.5175  -0.6616  0.002881  -0.02289  -0.04151  -0.01647  -0.5846  0.7279
6.404e+09  -0.7468  -0.4449  0.01383  0.003812  0.00953  -0.001282  -0.2891  0.8758
6.405e+09  -0.8747  -0.1487  -0.02384  -0.0006403  0.01821  -0.004167  -0.000335  0.8849
6.406e+09  -0.8779  0.1927  0.03617  -0.02051  -0.008864  0.02634  0.3438  0.8796
6.408e+09  -0.7096  0.48  -0.01897  -0.006981  -0.05616  -0.002559  0.586  0.6946
6.409e+09  -0.5363  0.6924  -0.01059  0.008232  -0.01951  -0.01201  0.775  0.4602
6.41e+09  -0.2531  0.7664  0.01383  -0.009379  -0.04069  0.04073  0.875  0.194
6.411e+09  0.0861  0.8981  0.01714  -0.01334  0.01491  -0.01345  0.9214  -0.1613
6.412e+09  0.3353  0.803  0.01164  -0.0002803  0.002818  -0.05945  0.8128  -0.4124
6.414e+09  0.5525  0.6378  0.06208  0.02294  0.003274  -0.01484  0.5929  -0.6956
6.415e+09  0.7973  0.3181  0.01357  -0.007973  0.008077  0.04044  0.3432  -0.814
6.416e+09  0.8588  0.05284  0.02522  0.005485  -0.03937  0.002956  0.07879  -0.8855
6.418e+09  0.7811  -0.2475  0.03841  -0.02743  -0.0002483  -0.01411  -0.2515  -0.8389
6.419e+09  0.7257  -0.5177  0.02901  0.01847  0.009396  0.01327  -0.553  -0.722
6.42e+09  0.4886  -0.7223  0.001324  0.0108  -0.05837  -0.03541  -0.7222  -0.4322
6.421e+09  0.1785  -0.7964  -0.003874  0.01579  -0.01735  0.04405  -0.8728  -0.2068
6.422e+09  -0.1614  -0.8553  -0.03058  -0.0003735  0.02134  -0.0229  -0.932  0.1217
6.424e+09  -0.4462  -0.7477  -0.00588  0.003321  -0.02288  -0.01147  -0.8089  0.433
6.425e+09  -0.65  -0.5787  0.02213  0.03602  -0.009009  -0.01434  -0.586  0.6358
6.426e+09  -0.8225  -0.3078  -0.0002916  -0.03191  -0.003703  0.01484  -0.3607  0.7805
6.428e+09  -0.838  0.02299  0.00207  0.03429  -0.01508  -0.04534  -0.08158  0.8648
6.429e+09  -0.8688  0.2934  -0.05964  0.02157  0.02126  0.02402  0.2437  0.8444
6.43e+09  -0.6622  0.5698  0.005774  0.004288  -0.02077  0.004852  0.5432  0.7044
6.431e+09  -0.4293  0.7202  -0.01896  0.01516  0.0262  0.02674  0.739  0.5032
6.432e+09  -0.09526  0.8399  -0.003207  -0.001763  0.01738  0.06471  0.8487  0.2298
6.434e+09  0.1759  0.8579  -0.06042  0.04773  0.008922  0.00139  0.914  -0.04836
6.435e+09  0.4221  0.727  -0.02694  0.007612  0.01155  -0.001068  0.787  -0.3514
6.436e+09  0.6636  0.5249  0.009258  0.02202  0.01036  -0.01801  0.5984  -0.6469
6.438e+09  0.7634  0.2358  -2.807e-05  0.03165  0.03272  0.01538  0.2983  -0.7806
6.439e+09  0.8044  -0.1199  -0.0205  -0.03228  0.03035  -0.009462  0.05319  -0.8265
6.44e+09  0.7869  -0.3464  0.01398  -0.01722  0.04665  -0.02288  -0.2451  -0.8294
6.441e+09  0.6038  -0.6183  0.01039  0.001615  0.01038  -0.02805  -0.4895  -0.6545
6.442e+09  0.33  -0.7767  0.03149  0.05327  -0.0007827  0.02751  -0.6896  -0.4935
6.444e+09  0.09254  -0.8568  0.04781  0.02531  -0.04302  0.04798  -0.7803  -0.1941
6.445e+09  -0.2302  -0.7927  -0.01375  -0.01982  -0.01231  -0.02883  -0.8545  0.05642
6.446e+09  -0.5171  -0.7509  -0.03523  0.009257  -0.01942  -0.0004952  -0.7656  0.3521
6.448e+09  -0.6848  -0.4805  -0.02245  0.02101  0.06884  -0.0389  -0.5957  0.6089
6.449e+09  -0.769  -0.1711  0.00114  0.004481  -0.0113  -0.007921  -0.3162  0.7738
6.45e+09  -0.8969  0.0628  0.002431  -0.01133  -0.02495  -0.043  -0.04938  0.8431
6.451e+09  -0.7413  0.4011  -0.02434  -0.01601  0.0173  0.03709  0.2109  0.7829
6.452e+09  -0.5489  0.5841  -0.0363  -0.008885  0.01705  0.01775  0.4324  0.6908
6.454e+09  -0.3231  0.8193  0.009444  -0.01197  -0.01264  -0.01201  0.6671  0.4855
6.455e+09  -0.04291  0.7997  0.03705  0.01367  0.004328  -0.009675  0.824  0.2145
6.456e+09  0.2746  0.8005  -0.02501  0.01677  -0.04323  -0.01531  0.8491  -0.09116
6.458e+09  0.4968  0.6667  0.003615  0.01  -0.04099  0.02491  0.7267  -0.3791
6.459e+09  0.676  0.4801  -0.05924  -0.01393  0.002167  0.05475  0.5995  -0.5739
6.46e+09  0.8435  0.1712  0.02178  0.02655  0.02698  -0.01013  0.3396  -0.7585
6.461e+09  0.8517  -0.1669  0.02588  -0.01704  0.03066  0.01559  0.07956  -0.7999
6.462e+09  0.7034  -0.3811  -0.002441  -0.01521  -0.004706  0.03937  -0.1952  -0.8211
6.464e+09  0.5667  -0.6853  0.008567  0.01665  0.02645  0.02225  -0.4671  -0.6431
6.465e+09  0.3089  -0.7825  -0.007798  -0.05713  0.03796  0.01933  -0.7143  -0.5036
6.466e+09  0.01591  -0.8573  0.02541  0.02407  -0.03614  0.003644  -0.7893  -0.1758
6.468e+09  -0.3375  -0.7856  0.009409  -0.03345  0.04927  -0.01866  -0.7702  0.04343
6.469e+09  -0.5888  -0.673  0.03414  -0.007293  0.01792  -0.01912  -0.7115  0.3592
6.47e+09  -0.7302  -0.4382  -0.04256  -0.02407  -0.0238  0.00415  -0.5136  0.5808
6.471e+09  -0.8389  -0.1429  -0.04021  0.03989  -0.061  -0.01999  -0.3549  0.727
6.472e+09  -0.7922  0.213  0.01316  -0.01883  0.006444  0.002109  -0.05048  0.7837
6.474e+09  -0.7455  0.4587  -0.01497  0.02324  0.01639  -0.00105  0.2292  0.7634
6.475e+09  -0.4444  0.6859  -0.007167  -0.0475  -0.03651  -0.002757  0.4252  0.6657
6.476e+09  -0.2615  0.7452  -0.008748  0.006373  -0.02611  0.0002717  0.6664  0.454
6.478e+09  0.01538  0.84  -0.04259  0.007578  0.01397  0.02041  0.7676  0.2155
6.479e+09  0.3046  0.8064  0.007244  -0.02073  -0.03561  -0.005256  0.7665  -0.1047
6.48e+09  0.5663  0.5983  0.00916  0.06658  0.01934  0.0004121  0.7145  -0.3461
6.481e+09  0.7783  0.374  -0.01847  -0.001804  0.04162  0.0158  0.5295  -0.5967
6.482e+09  0.8748  0.077  0.01887  0.04511  0.01331  -0.02467  0.3186  -0.6776
6.484e+09  0.8477  -0.1867  -0.00396  0.0306  -0.02975  0.07375  0.02628  -0.7467
6.485e+09  0.7316  -0.4712  -0.02706  0.01343  0.02137  -0.005354  -0.2587  -0.7535
6.486e+09  0.4808  -0.6832  0.04603  0.04291  -0.03028  -0.01881  -0.4683  -0.635
6.488e+09  0.2537  -0.7994  0.02553  -0.02294  0.03669  0.04085  -0.6279  -0.4458
6.489e+09  -0.01353  -0.8377  -0.02697  -0.02249  0.0232  -0.02127  -0.7369  -0.2092
6.49e+09  -0.3662  -0.8176  -0.03487  0.02131  -0.01136  -0.05249  -0.7457  0.09216
6.491e+09  -0.6094  -0.5643  0.02131  0.005658  -0.0381  -0.01216  -0.7135  0.3307
6.492e+09  -0.7916  -0.3794  -0.009241  -0.01107  -0.01447  -0.01189  -0.4969  0.5817
6.494e+09  -0.8287  -0.0376  -0.0007407  0.02256  0.06312  0.04692  -0.279  0.7273
6.495e+09  -0.7706  0.2586  -0.01533  -0.001497  -0.01651  0.004012  -0.04533  0.7727
6.496e+09  -0.7226  0.4888  -0.006647  0.01067  0.01089  -0.05234  0.2054  0.7574
6.498e+09  -0.4975  0.6746  0.001659  0.004385  0.02745  0.01219  0.4765  0.6097
6.499e+09  -0.2125  0.8596  0.01322  0.04427  -0.007846  0.01802  0.6911  0.4276
6.5e+09  0.04131  0.8524  0.03682  0.01451  0.06983  -0.01026  0.7593  0.1464
6.501e+09  0.3583  0.8518  -0.01402  0.01712  -0.08718  0.04112  0.743  -0.117
6.502e+09  0.5931  0.6118  -0.01135  0.02024  0.02361  -0.03237  0.6492  -0.3292
6.504e+09  0.8215  0.3792  0.03746  0.01709  0.01793  0.003888  0.4846  -0.6161
6.505e+09  0.86  0.03534  0.01176  -0.0006231  -4.353e-05  -0.0007817  0.2826  -0.7409
6.506e+09  0.8083  -0.1908  0.007321  -0.004882  0.004942  -0.04207  0.03507  -0.7801
6.508e+09  0.7131  -0.545  0.002431  -0.04828  -0.02298  0.009781  -0.2312  -0.7196
6.509e+09  0.4475  -0.7534  0.02804  0.01456  -0.009281  -0.01557  -0.474  -0.5796
6.51e+09  0.2265  -0.8152  0.03438  0.01585  -0.0004656  -0.02595  -0.6686  -0.3884
6.511e+09  -0.06822  -0.9258  -0.001799  -0.0103  -0.007528  -0.007319  -0.748  -0.1459
6.512e+09  -0.4205  -0.7562  -0.0008526  -0.001471  -0.01872  -0.006751  -0.7616  0.07934
6.514e+09  -0.6075  -0.6356  0.02925  -0.03793  -0.05504  0.003753  -0.6873  0.3645
6.515e+09  -0.7743  -0.3887  0.0207  -0.03228  0.05475  0.0291  -0.4756  0.5858
6.516e+09  -0.8746  -0.09019  0.02968  -0.03697  0.03478  -0.008108  -0.2413  0.7169
6.518e+09  -0.7872  0.2632  -0.01643  0.01233  -0.01211  0.02944  0.001928  0.7211
6.519e+09  -0.687  0.5866  -0.05088  -0.04592  -0.0185  -0.01175  0.2624  0.699
6.52e+09  -0.5041  0.7624  0.01955  -0.01637  -0.00678  0.03293  0.4887  0.5846
6.521e+09  -0.1478  0.8934  -0.02797  0.05435  0.008526  -0.01576  0.6655  0.3392
6.522e+09  0.1543  0.9381  -0.005924  0.0005948  0.012  0.05124  0.7159  0.08318
6.524e+09  0.4387  0.7557  0.00673  -0.01483  -0.001955  0.03272  0.7195  -0.175
6.525e+09  0.6783  0.5846  0.01332  -0.003708  -0.01726  0.04053  0.6073  -0.3995
6.526e+09  0.8139  0.3444  -0.003323  -0.01221  -0.02498  0.005012  0.4184  -0.5695
6.528e+09  0.9321  -0.007035  0.02379  0.00646  0.06417  -0.05802  0.2047  -0.6731
6.529e+09  0.8329  -0.317  -0.01243  0.03393  -0.02351  0.03282  -0.05133  -0.687
6.53e+09  0.7521  -0.606  0.007687  -0.006169  -0.04283  0.007  -0.2942  -0.6602
6.531e+09  0.4869  -0.7803  -0.005247  -0.01684  0.02324  0.01225  -0.4644  -0.5089
6.532e+09  0.1472  -0.9109  0.002364  0.01296  0.02183  0.02463  -0.6212  -0.2658
6.534e+09  -0.1627  -0.9108  -0.008828  -0.001511  -0.02181  0.03609  -0.6511  -0.07712
6.535e+09  -0.4541  -0.7772  0.005888  0.01386  -0.01164  0.01929  -0.6118  0.1298
6.536e+09  -0.8097  -0.5907  -0.01866  0.00435  -0.0356  -0.01973  -0.5902  0.2909
6.538e+09  -0.92  -0.2718  -0.002203  0.002689  -0.02357  -0.02593  -0.4672  0.4848
6.539e+09  -0.9218  0.07503  -0.02247  0.006383  -0.02711  0.01761  -0.2572  0.6165
6.54e+09  -0.8753  0.3476  0.02962  -0.01157  0.01863  0.03161  -0.05398  0.6631
6.541e+09  -0.7198  0.5822  0.01177  0.02089  -0.03862  0.009169  0.1949  0.7039
6.542e+09  -0.4742  0.8288  0.02127  0.03831  0.03335  -0.003054  0.3924  0.579
6.544e+09  -0.08072  0.9389  -0.01918  -0.01697  0.01027  0.06393  0.5916  0.4168
6.545e+09  0.2812  0.8909  -0.01531  0.01085  -0.02479  0.04064  0.6955  0.1615
6.546e+09  0.5618  0.7366  0.01305  -0.01166  0.001843  -0.01672  0.7296  -0.04895
6.548e+09  0.7958  0.5268  -0.01137  -0.0157  0.01646  0.01402  0.6255  -0.341
6.549e+09  0.908  0.2115  -0.0002469  -0.006039  0.005737  0.004321  0.5357  -0.5216
6.55e+09  0.9306  -0.0858  -0.006967  0.005233  -0.0505  0.00611  0.2877  -0.6706
