# Hz S RI R 50
6.25e+09  -0.4158  0.8144  0.005032  0.005449  -0.02063  0.001849  0.2126  0.4699
6.251e+09  -0.1768  0.8635  -0.001726  -0.02666  -0.03679  0.03257  0.3908  0.3994
6.252e+09  0.1739  0.8616  0.02076  0.0354  0.006773  0.07837  0.5334  0.2485
6.254e+09  0.4466  0.7279  -0.01895  -0.01905  0.06613  0.02879  0.603  -0.02365
6.255e+09  0.6672  0.5646  -0.01488  -0.03773  -0.02478  0.03938  0.5926  -0.208
6.256e+09  0.8261  0.293  -0.01217  0.009854  0.01895  -0.08327  0.476  -0.4488
6.258e+09  0.8686  0.0004313  -0.02095  -0.03053  -0.006705  0.04338  0.2957  -0.6258
6.259e+09  0.7567  -0.3279  0.01681  0.02389  -0.03708  0.04272  0.02782  -0.6872
6.26e+09  0.6817  -0.5633  -0.001752  -0.04799  -0.04444  -0.0149  -0.2395  -0.6546
6.261e+09  0.4522  -0.7648  -0.03052  0.01706  -0.01469  0.02568  -0.4526  -0.5463
6.262e+09  0.1287  -0.824  0.00714  0.005537  -0.02848  -0.0303  -0.6154  -0.3495
6.264e+09  -0.1536  -0.8894  -0.006247  -0.02948  0.008926  -0.03723  -0.7166  -0.1076
6.265e+09  -0.476  -0.7045  0.001862  0.004161  -0.02878  -0.02254  -0.6737  0.1754
6.266e+09  -0.6649  -0.4637  0.01238  0.002802  -0.04648  -0.02326  -0.5957  0.4076
6.268e+09  -0.8201  -0.2404  0.02278  0.01709  -0.008449  -0.04791  -0.4189  0.5918
6.269e+09  -0.8193  -0.0001453  -0.001537  0.0006642  0.04276  -0.03385  -0.1926  0.7199
6.27e+09  -0.7611  0.2909  0.007548  -0.02335  -0.02792  0.005835  0.06525  0.7442
6.271e+09  -0.6646  0.548  0.02548  -0.03519  -0.05335  0.02539  0.3179  0.6851
6.272e+09  -0.3521  0.7796  0.00453  -0.01573  -0.03963  0.03335  0.5669  0.5131
6.274e+09  -0.1346  0.8511  -0.02662  -0.0009623  0.0123  -0.0207  0.7087  0.2583
6.275e+09  0.1752  0.8252  -0.01125  -0.00726  0.01082  -0.04457  0.7488  0.03144
6.276e+09  0.4666  0.674  -0.01195  -0.00198  -0.05448  0.009563  0.7427  -0.2174
6.278e+09  0.6616  0.5164  -0.02547  0.01132  0.004247  0.07109  0.5922  -0.4501
6.279e+09  0.8351  0.2408  -0.01378  0.01009  0.006279  0.02395  0.4261  -0.6503
6.28e+09  0.864  -0.007445  0.02069  0.01243  0.01459  -0.0352  0.167  -0.7831
6.281e+09  0.8103  -0.3164  0.00352  0.002804  -0.01672  -0.04207  -0.1127  -0.7778
6.282e+09  0.5482  -0.5838  0.000954  0.01001  0.007155  0.01575  -0.3622  -0.6986
6.284e+09  0.3928  -0.6959  -0.002586  0.03424  -0.009014  0.01661  -0.5662  -0.5341
6.285e+09  0.07992  -0.8635  -0.001736  -0.03079  -0.04132  -0.01693  -0.7354  -0.2818
6.286e+09  -0.1815  -0.8065  -0.00282  -0.01531  -0.01334  -0.001501  -0.7893  -0.03397
6.288e+09  -0.4929  -0.6615  0.02571  -0.0103  -0.01448  -0.008877  -0.7362  0.2824
6.289e+09  -0.6806  -0.4758  -0.02045  0.02588  -0.077  -0.01659  -0.6307  0.5003
6.29e+09  -0.8438  -0.1594  -0.01112  0.02945  0.02197  0.0196  -0.4349  0.7182
6.291e+09  -0.8605  0.04752  -0.02292  0.01318  -0.03294  -0.008177  -0.1682  0.8172
6.292e+09  -0.7029  0.3259  -0.003589  0.02432  0.01294  0.0389  0.1657  0.7813
6.294e+09  -0.6137  0.5898  -0.01246  0.00948  0.02848  -0.003592  0.415  0.7351
6.295e+09  -0.3509  0.7435  0.03578  0.003056  0.02056  -0.01945  0.6049  0.5313
6.296e+09  -0.09492  0.8524  0.005981  -0.004574  0.005237  -0.03078  0.7612  0.2673
6.298e+09  0.2371  0.8218  -0.02131  -0.007399  0.00827  -0.006383  0.8422  0.01003
6.299e+09  0.4502  0.6578  -0.01463  0.005661  0.007049  0.005537  0.7667  -0.2936
6.3e+09  0.7305  0.4179  0.03751  -0.009902  0.007203  0.004731  0.6494  -0.5246
6.301e+09  0.8408  0.1899  -0.0009747  -0.007472  0.04481  -0.004283  0.435  -0.7454
6.302e+09  0.8417  -0.1078  0.004215  -0.0028  -0.01448  0.0222  0.1641  -0.815
6.304e+09  0.7407  -0.399  0.001402  -0.01307  0.03453  0.04147  -0.1583  -0.8463
6.305e+09  0.5225  -0.5966  0.007381  0.001952  -0.03307  0.06877  -0.4162  -0.7479
6.306e+09  0.296  -0.8212  -0.006964  -0.0006654  0.004015  0.0161  -0.6383  -0.5273
6.308e+09  0.003078  -0.7765  -0.004512  0.02537  0.00496  0.0012  -0.7708  -0.3351
6.309e+09  -0.2619  -0.7926  0.002472  0.01662  0.03911  -0.05239  -0.857  0.003807
6.31e+09  -0.5427  -0.6663  0.01163  -0.005978  -0.02099  0.001834  -0.8158  0.2932
6.311e+09  -0.7729  -0.4132  -0.009657  0.01154  -0.01972  -0.01189  -0.6416  0.5235
6.312e+09  -0.7765  -0.1719  -0.01043  -0.012  -0.02301  0.01111  -0.4252  0.7404
6.314e+09  -0.8536  0.1347  -0.01715  -0.003545  0.02014  -0.02514  -0.1884  0.8277
6.315e+09  -0.7575  0.4311  0.01727  0.01203  -0.01898  0.007652  0.142  0.85
6.316e+09  -0.5626  0.6306  0.01266  0.01215  0.04331  0.01714  0.436  0.7813
6.318e+09  -0.2796  0.7811  -0.002485  0.002644  0.01638  0.03321  0.6681  0.5995
6.319e+09  0.037  0.8573  -0.00719  0.007538  -0.0571  -0.03013  0.8427  0.2971
6.32e+09  0.3258  0.8091  0.03826  -0.001372  0.05952  0.003521  0.9076  0.03743
6.321e+09  0.58  0.6619  0.01658  -0.0003549  0.003979  -0.02281  0.8477  -0.3056
6.322e+09  0.7652  0.3541  0.002405  0.01321  -0.0409  0.03741  0.7071  -0.5688
6.324e+09  0.8466  0.1386  0.005323  0.02759  0.01362  0.01403  0.4755  -0.7901
6.325e+09  0.8039  -0.1885  -0.008677  0.007309  -0.002654  -0.02684  0.1736  -0.8947
6.326e+09  0.6666  -0.4407  -0.01398  0.007126  -0.003042  -0.0243  -0.1524  -0.8799
6.328e+09  0.5336  -0.7236  -0.01211  -0.02315  0.009284  0.0249  -0.4182  -0.7714
6.329e+09  0.245  -0.8443  -0.008159  -0.05882  -0.01279  -0.02533  -0.6976  -0.5931
6.33e+09  -0.04231  -0.8944  0.004054  -0.008262  -0.003507  -0.0309  -0.8533  -0.3085
6.331e+09  -0.3652  -0.8186  0.01779  0.03096  0.03417  -0.0321  -0.9188  0.009404
6.332e+09  -0.6128  -0.5971  -0.02269  0.03264  -0.004327  0.001599  -0.868  0.2763
6.334e+09  -0.7558  -0.3111  -0.02319  0.04704  0.05959  0.01509  -0.7518  0.5848
6.335e+09  -0.8923  -0.03153  -0.01437  -0.009087  -0.005726  -0.0775  -0.5028  0.7573
6.336e+09  -0.8284  0.2405  0.02365  -0.02247  0.03803  0.002137  -0.184  0.8757
6.338e+09  -0.7266  0.5525  0.01534  0.006911  0.005802  -0.01116  0.1262  0.906
6.339e+09  -0.4577  0.746  0.01874  0.006544  -0.02585  -0.04544  0.4178  0.8435
6.34e+09  -0.1645  0.8291  -0.009396  -0.02011  -0.02476  0.04754  0.6628  0.6069
6.341e+09  0.112  0.8261  -0.001344  0.02549  -0.01442  0.003192  0.8474  0.3582
6.342e+09  0.3954  0.8  0.004084  -0.01404  -0.03378  -0.003406  0.9386  0.03083
6.344e+09  0.6323  0.5534  -0.01129  -0.002948  0.004749  -0.03294  0.9045  -0.2785
6.345e+09  0.8189  0.3211  0.0311  0.01253  -0.05873  -0.03231  0.7262  -0.5814
6.346e+09  0.8661  0.03598  0.008507  -0.03228  0.03726  0.009489  0.5197  -0.786
6.348e+09  0.8189  -0.2777  0.01628  -0.01183  -0.0207  -0.01186  0.1724  -0.9094
6.349e+09  0.6963  -0.592  0.009551  -0.02485  0.02578  -0.01762  -0.06948  -0.9711
6.35e+09  0.4369  -0.7904  -0.05084  -0.01898  0.01228  0.04591  -0.4097  -0.8364
6.351e+09  0.1268  -0.8577  -0.006219  -0.01777  0.01565  0.04699  -0.6935  -0.6748
6.352e+09  -0.1302  -0.8837  0.04101  -0.01043  -0.02803  0.05511  -0.827  -0.3507
6.354e+09  -0.4493  -0.7545  0.002233  -0.0002268  -0.01213  -0.01616  -0.8928  -0.05605
6.355e+09  -0.6963  -0.6047  0.01267  0.04533  -0.04679  0.005408  -0.9192  0.2234
6.356e+09  -0.8069  -0.2818  0.02134  -0.01317  -0.01987  -0.007186  -0.7473  0.5556
6.358e+09  -0.8494  0.04435  -0.0151  -0.01151  -0.005596  -0.01097  -0.5017  0.7812
6.359e+09  -0.8139  0.3913  -0.01968  -0.02431  -0.00639  -0.006474  -0.2298  0.9257
6.36e+09  -0.6649  0.6345  0.03365  0.0271  -0.0176  -0.02079  0.1119  0.947
6.361e+09  -0.3818  0.8205  0.02957  -0.005639  0.02778  0.008345  0.3983  0.8276
6.362e+09  -0.08595  0.9293  -0.02682  -0.001176  0.01853  -0.03491  0.7004  0.6667
6.364e+09  0.2766  0.8747  -0.009042  -0.0262  0.05711  0.009826  0.8333  0.4152
6.365e+09  0.5063  0.7214  0.01718  -0.003245  0.004498  -0.0007812  0.9536  0.06496
6.366e+09  0.7235  0.5315  -0.01985  0.01796  -0.03616  -0.01852  0.9068  -0.2625
6.368e+09  0.893  0.2313  0.005299  -0.004988  0.00367  -0.018  0.7913  -0.5203
6.369e+09  0.8888  -0.07016  0.02373  -0.006094  -0.003441  0.01781  0.5847  -0.7756
6.37e+09  0.8056  -0.4393  -0.02243  0.005678  0.07635  0.002403  0.2764  -0.9024
6.371e+09  0.5757  -0.6305  0.02508  -0.004048  -0.05819  -0.01609  -0.05313  -0.923
6.372e+09  0.3112  -0.8449  0.02269  0.01911  0.03215  0.02172  -0.3965  -0.8636
6.374e+09  0.05543  -0.8913  0.003261  -0.007584  0.03912  0.003403  -0.6797  -0.6883
6.375e+09  -0.2731  -0.8073  0.01014  0.005807  0.0002152  -0.02669  -0.8409  -0.4223
6.376e+09  -0.5449  -0.6901  0.01635  0.02101  -0.03294  0.0121  -0.9518  -0.1009
6.378e+09  -0.7875  -0.4567  -0.01463  0.006334  0.004375  0.02093  -0.9228  0.2471
6.379e+09  -0.9149  -0.1437  0.001972  0.01121  0.01214  -0.02287  -0.7815  0.5589
6.38e+09  -0.8508  0.1245  0.009208  0.03313  -0.01904  0.03097  -0.551  0.7573
6.381e+09  -0.7663  0.4537  -0.01177  0.02684  -0.03439  0.01932  -0.2838  0.865
6.382e+09  -0.6158  0.6443  0.001841  0.01098  -0.04206  0.008016  0.06581  0.9288
6.384e+09  -0.3365  0.8852  -0.007578  -0.002888  0.005756  -0.01866  0.3791  0.9005
6.385e+09  0.01641  0.8632  -0.006835  -0.02444  -0.002695  -0.02715  0.5954  0.6703
6.386e+09  0.32  0.834  -0.0244  0.02294  -0.0356  -0.02094  0.8338  0.4208
6.388e+09  0.559  0.6252  -0.004491  0.0005612  0.04084  0.002511  0.9316  0.1465
6.389e+09  0.7574  0.4061  0.02406  0.02252  0.05725  0.01403  0.8685  -0.1868
6.39e+09  0.887  0.1273  0.0244  -0.01814  -0.01959  0.001875  0.8179  -0.4971
6.391e+09  0.9415  -0.1479  0.01271  -0.04477  0.008013  -0.03391  0.5867  -0.7086
6.392e+09  0.7565  -0.5029  -0.00169  -0.0191  0.0217  0.01527  0.2815  -0.8673
6.394e+09  0.5613  -0.7331  -0.008099  -0.03065  -0.01413  0.01257  -0.07636  -0.9165
6.395e+09  0.2771  -0.8562  0.005979  -0.01416  -0.0143  -0.01126  -0.3785  -0.8535
6.396e+09  -0.02902  -0.8714  -0.01334  8.015e-05  0.02068  -0.0007174  -0.6184  -0.6856
6.398e+09  -0.317  -0.8099  -0.02448  0.008694  0.01819  -0.01813  -0.7831  -0.4342
6.399e+09  -0.5902  -0.6504  -0.008303  -0.01937  0.03066  -0.04946  -0.9071  -0.09996
6.4e+09  -0.8254  -0.3634  -0.01485  -0.01201  0.006733  0.03539  -0.8986  0.2067
6.401e+09  -0.8517  -0.1068  0.03971  0.03947  0.05335  -0.01541  -0.7742  0.4749
6.402e+09  -0.8488  0.2215  0.004056  -0.02862  0.01877  0.01895  -0.5855  0.7065
6.404e+09  -0.7432  0.498  -0.0009995  -0.01058  0.04048  0.01277  -0.308  0.8611
6.405e+09  -0.5401  0.7472  -0.03993  -0.05182  0.04682  -0.02231  -0.02899  0.9294
6.406e+09  -0.2817  0.8294  0.02113  -0.04396  -0.04534  0.008608  0.311  0.8551
6.408e+09  0.08614  0.8624  -0.004458  -0.00779  0.01418  0.04878  0.6541  0.7204
6.409e+09  0.3611  0.818  -0.03109  -0.0172  0.009678  0.01147  0.8155  0.4481
6.41e+09  0.5878  0.6588  -0.01321  -0.006397  -0.02248  0.01839  0.888  0.1276
6.411e+09  0.7994  0.3646  -0.02444  0.03126  -0.006178  0.0003755  0.9155  -0.1646
6.412e+09  0.8798  0.06635  0.03269  0.01532  -0.01599  -0.01196  0.753  -0.4216
6.414e+09  0.8801  -0.215  0.01222  -0.03293  -0.04412  0.02934  0.5766  -0.6199
6.415e+09  0.7262  -0.4697  0.02662  0.006579  0.01477  0.02349  0.3542  -0.8936
6.416e+09  0.5274  -0.7043  -0.007833  -0.00028  -0.02663  0.009186  0.02952  -0.8591
6.418e+09  0.2661  -0.8677  -0.043  0.008282  0.03566  0.02305  -0.2478  -0.8897
6.419e+09  -0.07122  -0.9048  0.03461  -0.02737  0.03896  0.005144  -0.5782  -0.7277
6.42e+09  -0.3292  -0.7615  -0.007927  0.00469  0.01484  -0.009121  -0.7461  -0.5112
6.421e+09  -0.6266  -0.6213  0.03415  -0.008358  0.02537  -0.04759  -0.8875  -0.2157
6.422e+09  -0.8067  -0.3657  -0.02317  0.03693  0.02858  -0.008432  -0.9092  0.08177
6.424e+09  -0.8636  -0.05368  0.0706  -0.01774  0.05558  -0.02639  -0.7547  0.4015
6.425e+09  -0.8267  0.2194  0.006538  0.002556  0.003928  -0.02051  -0.6172  0.6622
6.426e+09  -0.7139  0.5537  -0.03604  0.0006651  0.01973  -0.0178  -0.3683  0.8046
6.428e+09  -0.4964  0.7492  -0.0084  0.03732  0.02202  -0.02753  -0.06995  0.909
6.429e+09  -0.2013  0.8393  0.02227  -0.0119  0.05491  0.01361  0.2248  0.8112
6.43e+09  0.08479  0.8921  -0.02434  -0.02217  0.01141  0.01769  0.5007  0.7106
6.431e+09  0.4054  0.7823  0.03447  -0.008898  0.01351  -0.03397  0.719  0.4548
6.432e+09  0.6131  0.6156  -0.001689  0.01588  0.0528  -0.01617  0.8533  0.2197
6.434e+09  0.8064  0.3264  -0.008891  -0.006378  -0.0282  0.005321  0.8632  -0.08216
6.435e+09  0.8724  0.06043  0.01135  0.02655  -0.04437  0.03513  0.7892  -0.4085
6.436e+09  0.8775  -0.277  0.04481  -0.05913  0.04732  -0.009283  0.5887  -0.5717
6.438e+09  0.7205  -0.4843  -0.00854  -0.01995  -0.004087  -0.06724  0.3476  -0.812
6.439e+09  0.4725  -0.7386  -0.02461  0.003303  -0.005577  0.02418  0.01794  -0.8428
6.44e+09  0.2185  -0.8819  -0.02034  -0.01537  0.03603  0.0089  -0.2325  -0.8652
6.441e+09  -0.102  -0.8438  0.01212  0.00541  0.02314  0.006376  -0.5248  -0.6797
6.442e+09  -0.4152  -0.7943  0.02287  0.004647  -0.008483  -0.01038  -0.7224  -0.4944
6.444e+09  -0.6463  -0.6102  -0.03593  -0.04991  0.02036  -0.01817  -0.7864  -0.2091
6.445e+09  -0.826  -0.377  0.03049  -0.02487  -0.02723  -0.05644  -0.8481  0.06017
6.446e+09  -0.8659  -0.02486  -0.0222  -0.004172  -0.03239  -0.01318  -0.7812  0.3556
6.448e+09  -0.9052  0.3256  -0.0235  -0.008959  0.01838  -0.001331  -0.6026  0.608
6.449e+09  -0.7288  0.5822  0.007673  0.004594  -0.02845  0.046  -0.3452  0.733
6.45e+09  -0.4808  0.6971  -0.008715  0.02054  -0.04511  0.0103  -0.08994  0.8679
6.451e+09  -0.1881  0.8494  0.02539  0.02486  -0.01593  -0.02192  0.2116  0.7487
6.452e+09  0.09114  0.913  -0.01407  0.03768  -0.01851  0.005232  0.4789  0.6635
6.454e+09  0.3888  0.8004  -0.01025  0.03337  0.01772  0.01871  0.6642  0.4945
6.455e+09  0.6676  0.5686  0.01821  -0.02257  0.05723  -0.02272  0.7728  0.226
6.456e+09  0.8066  0.3662  -0.03332  0.01446  -0.01614  -0.03237  0.8201  -0.07446
6.458e+09  0.9192  0.03435  0.01817  -0.04701  0.04179  0.007464  0.7441  -0.3915
6.459e+09  0.8676  -0.2667  0.00759  0.008789  -0.01691  0.01131  0.5776  -0.5674
6.46e+09  0.7258  -0.5107  -0.01643  0.03499  -0.003051  -0.031  0.3709  -0.7502
6.461e+09  0.4607  -0.7726  -0.04735  -0.001388  -0.008874  -0.004371  0.04449  -0.8172
6.462e+09  0.1859  -0.9419  -0.0178  0.00375  0.05958  -0.02815  -0.2416  -0.7996
6.464e+09  -0.08508  -0.9053  0.004027  0.006676  -0.02886  -0.01791  -0.4523  -0.6398
6.465e+09  -0.4317  -0.7833  -0.0357  -0.02665  0.02147  -0.02765  -0.6877  -0.4524
6.466e+09  -0.6457  -0.5817  -0.03101  -0.003006  -0.03175  0.01343  -0.8074  -0.2237
6.468e+09  -0.8189  -0.3161  0.01628  0.04578  0.001871  0.0106  -0.7947  0.01631
6.469e+09  -0.9281  0.02921  -0.01036  0.01285  0.002022  -0.07292  -0.7442  0.3587
6.47e+09  -0.8564  0.2686  -0.02621  0.01599  0.01508  -0.05499  -0.5512  0.5569
6.471e+09  -0.7008  0.6036  0.02023  -0.00272  0.002782  -0.02764  -0.3365  0.8004
6.472e+09  -0.4518  0.8183  0.007208  -0.01146  0.007434  -0.01917  -0.05837  0.7767
6.474e+09  -0.1904  0.8171  -0.0002949  -0.02231  -0.001533  0.02085  0.2364  0.7803
6.475e+09  0.08274  0.9358  -0.01238  -0.03732  -0.01456  0.03917  0.4688  0.6335
6.476e+09  0.459  0.7988  -0.07453  0.01641  -0.0393  -0.01475  0.6581  0.4396
6.478e+09  0.6977  0.5795  -0.03203  -0.01958  0.03342  0.005366  0.7757  0.2106
6.479e+09  0.8462  0.3467  0.02607  -0.003729  -0.01646  0.02486  0.7941  -0.08096
6.48e+09  0.9405  0.04179  0.01682  -0.03578  0.007649  -0.01541  0.6747  -0.3265
6.481e+09  0.8624  -0.2817  0.002761  0.01328  -0.01206  -0.004788  0.5495  -0.5602
6.482e+09  0.6719  -0.577  -0.01144  -0.00667  0.00212  0.003173  0.3274  -0.726
6.484e+09  0.4997  -0.8459  0.01381  -0.001383  -0.01807  0.02971  0.06709  -0.7437
6.485e+09  0.1813  -0.8927  0.002831  -0.02214  0.01064  0.004986  -0.2088  -0.7337
6.486e+09  -0.116  -0.9181  0.005431  -0.01796  -0.0349  0.006284  -0.4409  -0.6522
6.488e+09  -0.4756  -0.8209  0.007936  0.001186  -0.05166  -0.004036  -0.6331  -0.438
6.489e+09  -0.7554  -0.5857  -0.01449  -0.008211  -0.01452  0.02985  -0.7321  -0.1639
6.49e+09  -0.8554  -0.3082  0.02323  -0.03675  -0.009996  0.01386  -0.7584  0.1315
6.491e+09  -0.9719  0.01026  -0.01877  -0.0188  0.03643  0.05447  -0.6858  0.3049
6.492e+09  -0.8483  0.3319  0.01417  0.002751  0.009879  0.018  -0.5015  0.5799
6.494e+09  -0.702  0.6168  -0.02077  -0.001871  0.02205  0.04058  -0.2963  0.6891
6.495e+09  -0.4564  0.799  0.005532  0.01822  0.02128  0.01094  -0.01287  0.7665
6.496e+09  -0.1608  0.9212  -0.02849  -0.01311  0.00816  -0.02704  0.2358  0.7694
6.498e+09  0.1835  0.9453  -0.02689  0.01452  0.03646  -0.0156  0.4286  0.6107
6.499e+09  0.5294  0.8224  -0.01871  0.03121  0.008762  0.004664  0.6628  0.4031
6.5e+09  0.7783  0.558  0.0005723  0.0251  0.001938  -0.03718  0.7277  0.1363
6.501e+09  0.9197  0.2727  -0.0134  0.02284  0.03632  0.002807  0.7475  -0.0926
6.502e+09  0.9448  -0.02513  0.02307  -0.01438  0.01537  0.04238  0.6694  -0.3672
6.504e+09  0.8765  -0.3462  -0.02742  -0.01735  -0.008428  0.05485  0.5023  -0.5792
6.505e+09  0.6874  -0.6521  0.007864  0.005347  0.05199  0.02023  0.3099  -0.7471
6.506e+09  0.4585  -0.8751  -0.01822  0.01507  -0.01507  -0.008564  0.01171  -0.7821
6.508e+09  0.1838  -0.9366  0.02118  0.0007064  0.05495  -0.01115  -0.2369  -0.7569
6.509e+09  -0.1914  -0.9237  0.06907  -0.00121  0.01181  0.03357  -0.4615  -0.5743
6.51e+09  -0.4985  -0.7614  0.004602  0.002199  0.02774  0.04934  -0.6286  -0.3786
6.511e+09  -0.7803  -0.5857  0.02193  -0.01895  -0.04039  -0.04276  -0.7706  -0.1516
6.512e+09  -0.9261  -0.2646  0.03397  0.02936  0.02338  -0.03795  -0.7947  0.09649
6.514e+09  -0.9628  0.07147  -0.01539  -0.004459  0.007803  0.03373  -0.6419  0.3566
6.515e+09  -0.9039  0.3897  0.004157  0.002142  0.01783  0.05417  -0.4576  0.5678
6.516e+09  -0.6956  0.6748  -0.0474  0.0159  0.01577  0.02512  -0.2402  0.7195
6.518e+09  -0.3913  0.8973  -0.003903  0.0276  0.01704  0.02983  -0.01085  0.7141
6.519e+09  -0.07383  0.9346  0.00698  0.0258  0.01366  0.03416  0.2487  0.6707
6.52e+09  0.2442  0.9381  -0.004246  -0.02612  -0.02377  -0.02233  0.5134  0.5271
6.521e+09  0.5931  0.7633  0.004561  0.001246  -0.01306  -0.0146  0.6511  0.3367
6.522e+09  0.8191  0.5437  0.02764  -0.02933  -0.0004236  0.002865  0.7327  0.1242
6.524e+09  0.9428  0.2022  0.003326  -0.02997  -0.01988  -0.007032  0.7014  -0.1756
6.525e+09  0.9478  -0.1367  0.003863  0.01385  -0.01325  -0.05112  0.5766  -0.3941
6.526e+09  0.8626  -0.4637  -0.01881  -0.01507  -0.003329  -0.02145  0.4696  -0.5682
6.528e+09  0.665  -0.7391  -0.005461  0.02  -0.01778  -0.005838  0.1735  -0.666
6.529e+09  0.3668  -0.9242  -0.001583  -0.00383  -0.0341  -0.002481  -0.02561  -0.6999
6.53e+09  0.05303  -0.9581  -0.02215  0.01206  0.03039  0.0258  -0.264  -0.6262
6.531e+09  -0.3044  -0.9008  0.0005636  -0.01323  -0.07298  0.00828  -0.4598  -0.4812
6.532e+09  -0.6592  -0.8046  0.01565  0.02338  -0.03167  0.004865  -0.5838  -0.2661
6.534e+09  -0.7787  -0.5139  -0.01304  0.00828  0.02853  0.02294  -0.6204  -0.06621
6.535e+09  -0.9068  -0.1314  0.008047  0.02443  0.005637  0.01278  -0.6243  0.1189
6.536e+09  -0.9303  0.1959  0.008612  0.03166  0.0002196  0.006433  -0.586  0.2824
6.538e+09  -0.8403  0.4459  -0.008698  -0.008226  0.04439  0.01413  -0.4703  0.4966
6.539e+09  -0.6164  0.7841  0.005433  -0.0001374  0.006961  0.01716  -0.2641  0.6222
6.54e+09  -0.3272  0.8862  -0.009357  0.007811  -0.01869  -0.02902  -0.06065  0.6438
6.541e+09  0.0205  0.9947  0.0123  -0.01635  0.0251  -0.04032  0.1485  0.6605
6.542e+09  0.3482  0.9242  -0.0009425  0.001275  -0.0167  -0.0204  0.4077  0.5807
6.544e+09  0.6467  0.6911  -0.01315  -0.008746  0.0183  0.03204  0.5633  0.4104
6.545e+09  0.9266  0.4225  -0.009016  -0.01095  -0.02892  -0.06383  0.6962  0.1753
6.546e+09  0.9791  0.07996  -0.001879  -0.01045  0.004934  -0.01966  0.7348  -0.1022
6.548e+09  0.9051  -0.2229  0.02721  0.01779  0.02616  0.02991  0.6355  -0.3062
6.549e+09  0.8398  -0.5564  0.02625  0.02334  0.03004  -0.02455  0.5208  -0.5276
6.55e+09  0.5316  -0.7957  -0.024  0.01468  -0.01275  0.02148  0.2667  -0.6733
