# Hz S RI R 50
6.25e+09  -0.3928  0.7822  -0.005293  0.004987  -0.05297  0.02708  0.1349  0.4708
6.251e+09  -0.1655  0.8252  -0.005185  0.01618  0.04572  0.009421  0.3664  0.424
6.252e+09  0.1781  0.8312  0.004935  -0.00649  0.02159  -0.03386  0.5483  0.2394
6.254e+09  0.4385  0.7616  -0.00977  -0.006972  -0.009263  0.01794  0.6323  -0.01826
6.255e+09  0.7531  0.5131  -0.01575  -0.02176  -0.007733  -0.001819  0.5793  -0.2322
6.256e+09  0.7348  0.2194  0.01542  -0.002444  0.007232  0.04139  0.493  -0.429
6.258e+09  0.8542  -0.03342  0.007879  0.04076  0.04183  0.004211  0.3063  -0.6076
6.259e+09  0.7844  -0.3852  0.01595  0.01267  0.007902  0.06  0.005274  -0.6783
6.26e+09  0.603  -0.5762  0.01441  -0.01754  -0.05902  -0.005078  -0.1874  -0.6556
6.261e+09  0.4201  -0.7218  0.008254  0.01673  0.04026  0.02004  -0.466  -0.5282
6.262e+09  0.1277  -0.8377  -0.02044  0.01211  -0.02719  -0.01634  -0.6007  -0.2982
6.264e+09  -0.1529  -0.8603  0.01865  -0.01352  0.0513  -0.04231  -0.7206  -0.122
6.265e+09  -0.4717  -0.7073  -0.01271  -0.02507  0.02554  -0.0005019  -0.7007  0.1586
6.266e+09  -0.6183  -0.5036  0.006677  0.01644  -0.004022  -0.0279  -0.5912  0.367
6.268e+09  -0.7381  -0.2621  0.03271  -0.008757  0.03935  0.01266  -0.4341  0.563
6.269e+09  -0.8131  0.08274  -0.01053  0.004044  -0.0373  0.005551  -0.2011  0.71
6.27e+09  -0.7698  0.3115  0.03163  -0.006314  -0.01867  0.0614  0.07983  0.7345
6.271e+09  -0.6426  0.5628  0.006275  0.01586  0.04099  0.001216  0.3009  0.6911
6.272e+09  -0.332  0.6878  0.01189  -0.03028  -0.05724  -0.01414  0.5251  0.5044
6.274e+09  -0.1285  0.8463  -0.001905  0.02293  -0.03465  -0.03323  0.7128  0.3167
6.275e+09  0.228  0.8266  0.02766  -0.01302  0.06352  -0.04753  0.7625  0.01095
6.276e+09  0.4815  0.6938  -0.01202  -0.009612  0.02883  0.005861  0.7399  -0.215
6.278e+09  0.6213  0.5091  0.008494  -0.02003  0.005378  -0.01202  0.6211  -0.4829
6.279e+09  0.7898  0.2591  -0.001452  -0.005705  -0.01473  0.0006222  0.4136  -0.6706
6.28e+09  0.804  -0.05591  -0.007399  -0.003236  -0.04642  0.007889  0.1662  -0.7643
6.281e+09  0.7666  -0.3674  0.008369  0.00826  0.004391  0.06499  -0.119  -0.7734
6.282e+09  0.5969  -0.5804  0.01129  0.03126  -0.01214  -0.01526  -0.3629  -0.6877
6.284e+09  0.4068  -0.7625  0.02264  0.0006106  0.02812  -0.02183  -0.5551  -0.5549
6.285e+09  0.1051  -0.8393  -0.02788  -0.01747  -0.01119  -0.04254  -0.7335  -0.2902
6.286e+09  -0.1645  -0.7727  0.02776  0.008361  -0.01731  -0.03851  -0.7708  -0.01347
6.288e+09  -0.4317  -0.6416  -0.002225  0.007404  -0.03024  -0.02196  -0.7744  0.2574
6.289e+09  -0.6343  -0.4664  0.04501  0.009956  0.008451  -0.01399  -0.6208  0.5352
6.29e+09  -0.8059  -0.2067  0.01271  0.03072  -0.0008368  0.002623  -0.4281  0.6693
6.291e+09  -0.8177  0.08551  0.01301  0.01867  -0.01036  0.02376  -0.1852  0.8061
6.292e+09  -0.7473  0.4014  0.008187  0.001422  -0.05455  0.005016  0.1412  0.8201
6.294e+09  -0.6282  0.5221  -0.01906  -0.00208  -0.04159  0.005242  0.391  0.696
6.295e+09  -0.3278  0.8314  0.0003081  0.01573  0.01153  0.04701  0.6285  0.5098
6.296e+09  -0.04692  0.8449  -0.02556  -8.235e-05  -0.04464  0.01383  0.7765  0.2805
6.298e+09  0.3081  0.8522  0.01461  0.002202  -0.02474  0.03927  0.8608  0.03507
6.299e+09  0.4348  0.6745  0.01429  -0.00143  -0.02102  0.06495  0.8017  -0.2944
6.3e+09  0.6187  0.4478  -0.007766  0.03225  -0.005453  0.0168  0.6533  -0.5487
6.301e+09  0.8204  0.2136  0.007536  0.006867  0.006355  0.004819  0.4085  -0.7079
6.302e+09  0.8046  -0.1092  -0.01658  -0.02071  -0.01093  0.0005598  0.1875  -0.8363
6.304e+09  0.7279  -0.42  -0.003522  -0.0005476  -0.03293  -0.005476  -0.154  -0.8543
6.305e+09  0.5298  -0.6354  0.0005747  -0.005306  0.03152  0.005841  -0.4278  -0.7481
6.306e+09  0.3078  -0.7326  0.02051  0.02676  -0.006989  -0.03977  -0.6504  -0.5537
6.308e+09  0.01803  -0.8726  -0.0163  -0.02524  -0.01733  0.04856  -0.76  -0.3407
6.309e+09  -0.2745  -0.8349  -0.03882  0.001094  0.009097  -0.02726  -0.8561  -0.02704
6.31e+09  -0.5025  -0.6637  -0.0256  -0.009483  -0.0318  -0.0271  -0.8307  0.3153
6.311e+09  -0.7705  -0.4163  -0.01158  -0.005076  0.02238  0.00551  -0.6604  0.548
6.312e+09  -0.8386  -0.1384  0.0129  0.01811  0.04424  0.002859  -0.4181  0.7244
6.314e+09  -0.8464  0.1522  -0.03404  -0.007665  0.02152  0.02279  -0.1586  0.8511
6.315e+09  -0.72  0.4087  0.01035  -0.04473  0.01297  0.03971  0.1495  0.8731
6.316e+09  -0.4922  0.6426  0.01246  -0.02808  0.06112  0.005448  0.4241  0.7493
6.318e+09  -0.3437  0.7931  -0.006092  0.02637  -0.01346  -0.0005451  0.6597  0.6062
6.319e+09  0.01527  0.8873  0.01924  0.001162  0.03568  0.01628  0.8335  0.3516
6.32e+09  0.3035  0.7561  -0.01104  -0.04978  -0.02805  0.01603  0.8922  0.03892
6.321e+09  0.5227  0.6312  0.005469  0.01963  -0.007027  0.005664  0.8218  -0.3105
6.322e+09  0.7453  0.4196  -0.02069  0.01111  -0.01549  -0.0203  0.6999  -0.5701
6.324e+09  0.8471  0.1221  0.002742  -0.01451  0.02261  -0.004182  0.4786  -0.746
6.325e+09  0.8151  -0.2053  0.001026  -0.002175  0.004827  -0.01188  0.1661  -0.8849
6.326e+09  0.7427  -0.439  -0.005138  0.02749  -0.02456  -0.01899  -0.1455  -0.8647
6.328e+09  0.5608  -0.6535  0.01979  0.02168  -0.02989  -0.01907  -0.429  -0.7748
6.329e+09  0.2921  -0.8291  0.02928  0.0005548  -0.03597  0.03852  -0.6912  -0.5819
6.33e+09  -0.03029  -0.8075  0.031  -0.02929  0.01462  -0.07421  -0.8626  -0.335
6.331e+09  -0.3258  -0.8121  0.0145  -0.01017  -0.01924  0.01619  -0.91  -0.02063
6.332e+09  -0.6085  -0.5989  0.01246  -0.02268  0.002404  0.02645  -0.8482  0.2771
6.334e+09  -0.7917  -0.4108  -0.02005  0.002679  0.002756  -0.03212  -0.7121  0.5741
6.335e+09  -0.8789  -0.1179  0.005899  0.05972  0.004644  0.005427  -0.4736  0.7959
6.336e+09  -0.7729  0.234  0.03136  0.01075  -0.01847  -0.03212  -0.1572  0.8839
6.338e+09  -0.6798  0.4777  -0.00225  -0.007732  0.05312  0.02285  0.1073  0.9302
6.339e+09  -0.4741  0.7522  0.01083  -0.005724  0.02008  0.01615  0.4367  0.8102
6.34e+09  -0.1988  0.8732  -0.0046  -0.008294  -0.01364  -0.01362  0.6517  0.6271
6.341e+09  0.1458  0.9025  0.0002489  -0.007745  -0.01799  -0.01179  0.8585  0.3337
6.342e+09  0.4141  0.7948  0.008542  -0.02053  -0.02023  0.03023  0.9406  0.02576
6.344e+09  0.6364  0.5485  0.02032  -0.01928  0.01342  -0.05096  0.8754  -0.252
6.345e+09  0.8252  0.2828  -0.00534  0.008749  -0.02033  -0.02395  0.7366  -0.5473
6.346e+09  0.8629  0.0223  0.02317  -0.04379  -0.02049  0.05475  0.5232  -0.7745
6.348e+09  0.8655  -0.2839  -0.003938  -0.03692  -0.05306  -0.02792  0.2051  -0.933
6.349e+09  0.693  -0.5366  -0.00431  0.02781  -0.02274  0.008248  -0.08141  -0.918
6.35e+09  0.4638  -0.7838  0.07182  -0.001655  -0.004388  -0.03748  -0.4904  -0.8226
6.351e+09  0.1213  -0.8471  -0.004113  -0.01191  -0.006324  0.008101  -0.6694  -0.6458
6.352e+09  -0.1283  -0.8712  0.01046  0.01324  0.003257  -0.009673  -0.8938  -0.3923
6.354e+09  -0.4238  -0.7168  -0.006732  0.008749  0.02808  0.00879  -0.9024  -0.08606
6.355e+09  -0.6649  -0.5641  -0.00271  0.006798  -0.0217  0.03996  -0.9395  0.2661
6.356e+09  -0.84  -0.3123  -0.01159  -0.058  -0.0228  0.0004792  -0.7395  0.5129
6.358e+09  -0.8936  0.04951  -0.01073  -0.01743  0.003273  -0.01132  -0.5161  0.8237
6.359e+09  -0.8139  0.3222  0.005642  0.01466  -0.02875  0.005171  -0.2575  0.9232
6.36e+09  -0.6516  0.6125  0.01997  -0.01226  0.01841  0.0269  0.06644  0.9245
6.361e+09  -0.4099  0.7822  -0.01334  -0.003418  0.01418  -0.04143  0.3917  0.855
6.362e+09  -0.08518  0.896  -0.02475  0.009072  0.02609  0.003267  0.661  0.634
6.364e+09  0.1786  0.8279  -0.01293  0.006421  0.01527  0.01287  0.8944  0.3712
6.365e+09  0.4703  0.7231  -0.002816  0.02964  -0.02726  0.000784  0.9399  0.04223
6.366e+09  0.7661  0.4984  0.01592  -0.006647  -0.004492  0.02879  0.9194  -0.2388
6.368e+09  0.8633  0.1983  -0.04014  0.02836  0.02827  -0.02354  0.7364  -0.5591
6.369e+09  0.905  -0.1043  -0.01272  0.03885  0.01902  0.06469  0.5365  -0.7462
6.37e+09  0.7534  -0.3614  0.01543  0.02952  0.003344  0.01789  0.2456  -0.9392
6.371e+09  0.6599  -0.6178  -0.02125  -0.03461  -0.03692  -0.01215  -0.08683  -0.9268
6.372e+09  0.4011  -0.7723  0.003933  0.009887  0.01441  -0.002855  -0.4103  -0.8692
6.374e+09  0.03803  -0.8975  -0.001509  0.0004362  -0.02984  -0.01637  -0.6939  -0.7029
6.375e+09  -0.2521  -0.8796  -0.006103  -0.01637  -0.008242  -0.02203  -0.8568  -0.4055
6.376e+09  -0.5351  -0.6918  -0.002146  -0.03062  -0.01557  -0.03594  -0.9439  -0.05716
6.378e+09  -0.7883  -0.5072  0.01493  0.001958  0.01405  0.009975  -0.9123  0.2308
6.379e+09  -0.903  -0.1859  -0.04438  0.00848  -0.01419  0.007648  -0.7536  0.5251
6.38e+09  -0.9263  0.161  -0.01852  0.005046  -0.01937  0.04953  -0.5364  0.7284
6.381e+09  -0.7743  0.4265  0.008523  0.02478  -0.02102  -0.007232  -0.2794  0.9079
6.382e+09  -0.5797  0.6373  0.01467  -0.003023  0.03967  -0.005366  0.04897  0.9571
6.384e+09  -0.2895  0.8314  -0.0607  0.01774  0.003725  0.02314  0.3646  0.8309
6.385e+09  -0.03141  0.924  -0.02168  -0.01527  0.01329  -0.03078  0.6322  0.6865
6.386e+09  0.2823  0.8626  0.01098  0.04617  0.006238  -0.03072  0.8208  0.4155
6.388e+09  0.5307  0.6988  0.0511  0.01093  -0.01372  -0.03979  0.9184  0.1388
6.389e+09  0.7585  0.42  0.02294  0.0334  0.009712  0.03049  0.894  -0.1639
6.39e+09  0.9088  0.153  0.00203  0.005874  -0.003701  -0.01454  0.7823  -0.4921
6.391e+09  0.832  -0.2297  -0.01288  -0.01447  -0.001269  -0.0388  0.5746  -0.7169
6.392e+09  0.7759  -0.5022  -0.007898  0.04779  -0.02142  0.01113  0.3011  -0.8601
6.394e+09  0.5876  -0.653  -0.05342  -0.003532  -0.04325  0.009983  -0.02496  -0.9482
6.395e+09  0.2879  -0.8851  0.0003318  -0.01303  0.008807  -0.03436  -0.3024  -0.862
6.396e+09  0.05675  -0.9174  -0.04313  -0.01256  0.01561  0.0001727  -0.6263  -0.6723
6.398e+09  -0.3515  -0.8226  0.04633  -0.02195  0.02395  -0.009488  -0.8178  -0.4568
6.399e+09  -0.5894  -0.6672  -0.04266  0.03351  0.003256  0.01221  -0.8957  -0.1246
6.4e+09  -0.7729  -0.4152  0.03769  -0.04635  -0.009893  0.04705  -0.8815  0.1776
6.401e+09  -0.8249  -0.1263  0.009098  -0.005535  0.01958  0.01359  -0.81  0.4922
6.402e+09  -0.8729  0.1701  -0.01202  0.01402  0.02715  0.0008269  -0.6145  0.7684
6.404e+09  -0.7737  0.4334  0.003297  0.005215  -0.007777  -0.05037  -0.3122  0.8398
6.405e+09  -0.4823  0.6743  -0.05901  0.0277  -0.008878  0.004158  0.03237  0.9158
6.406e+09  -0.2866  0.8498  -0.03724  0.003381  0.008579  0.0507  0.3041  0.8526
6.408e+09  0.01958  0.8511  0.008026  -0.01549  -0.00246  -0.03895  0.6059  0.7267
6.409e+09  0.2928  0.7718  0.01663  0.01163  0.01022  -0.02127  0.7746  0.4971
6.41e+09  0.6344  0.6971  -0.04517  0.03119  0.01783  0.04665  0.9024  0.152
6.411e+09  0.764  0.4142  0.001865  0.002075  0.004178  -0.05769  0.8716  -0.176
6.412e+09  0.873  0.0987  0.004988  -0.005616  -0.00657  0.04042  0.7909  -0.435
6.414e+09  0.8402  -0.2311  0.003232  -0.006318  -0.04347  0.01755  0.6054  -0.6993
6.415e+09  0.7695  -0.49  0.02249  0.03883  -0.00783  0.005504  0.3706  -0.8611
6.416e+09  0.5522  -0.7113  0.01922  0.03033  -0.02954  0.03395  -0.004686  -0.8844
6.418e+09  0.2741  -0.8962  0.0326  -0.03079  0.02393  -0.03668  -0.2543  -0.8784
6.419e+09  -0.000937  -0.87  -0.04292  -0.02259  -0.02552  0.01179  -0.5403  -0.7324
6.42e+09  -0.3513  -0.8142  2.613e-05  -0.03835  -0.03624  0.01947  -0.7746  -0.539
6.421e+09  -0.6407  -0.6414  0.004358  -0.04198  -0.03294  0.02559  -0.855  -0.1999
6.422e+09  -0.7974  -0.379  -0.004952  0.001084  0.0464  -0.01333  -0.8465  0.1199
6.424e+09  -0.831  -0.06005  -0.01409  0.02277  0.01604  -0.02018  -0.8054  0.3696
6.425e+09  -0.8735  0.1978  -0.009281  0.002536  -0.005218  0.012  -0.6463  0.6379
6.426e+09  -0.6924  0.4865  -0.01988  -0.01361  0.03702  -0.02902  -0.3697  0.7845
6.428e+09  -0.5533  0.7302  -0.01996  -0.008763  -0.02978  0.05877  -0.02033  0.8518
6.429e+09  -0.2413  0.782  -0.005399  0.01147  0.02409  -0.05309  0.2534  0.8423
6.43e+09  0.09011  0.8696  0.02633  -0.02711  0.02477  -0.02378  0.5254  0.6907
6.431e+09  0.3759  0.7937  -0.002496  0.02323  -0.03878  -0.01618  0.7054  0.4871
6.432e+09  0.6316  0.5846  0.02439  -0.03367  0.01143  0.02781  0.8394  0.226
6.434e+09  0.8154  0.346  0.01842  -0.04515  -0.04709  0.0356  0.8512  -0.1101
6.435e+09  0.8796  0.1217  -0.03786  0.005699  -0.09054  0.01778  0.7158  -0.3824
6.436e+09  0.866  -0.2139  -0.01464  -0.02162  -0.008813  0.01186  0.609  -0.6488
6.438e+09  0.6776  -0.495  -0.0462  -0.001469  -0.009171  -0.04759  0.3323  -0.8039
6.439e+09  0.4283  -0.7625  -0.0323  -0.03201  -0.004254  0.01093  0.08033  -0.8203
6.44e+09  0.2509  -0.844  -0.04621  0.003928  0.02826  -0.0393  -0.2492  -0.8341
6.441e+09  -0.09411  -0.9642  0.06465  -0.008409  0.0338  -0.04289  -0.4795  -0.7145
6.442e+09  -0.4403  -0.7899  -0.0009006  -0.02022  -0.02934  -0.0365  -0.7217  -0.4918
6.444e+09  -0.616  -0.6084  -0.02383  0.03456  -0.01194  -0.02006  -0.856  -0.2391
6.445e+09  -0.7964  -0.3191  -0.01906  0.01891  -0.03082  0.005328  -0.8586  0.08652
6.446e+09  -0.9222  -0.04536  0.01094  -0.00208  0.0003878  0.06584  -0.7639  0.3621
6.448e+09  -0.8624  0.3159  0.02431  -0.001966  0.005254  0.02422  -0.6127  0.6391
6.449e+09  -0.7054  0.4664  -0.0001767  -0.05822  0.0002119  0.005391  -0.3199  0.741
6.45e+09  -0.4923  0.743  0.02245  0.01093  0.008971  -0.03949  -0.08797  0.8518
6.451e+09  -0.211  0.8663  0.01802  0.02999  0.03142  -0.03748  0.2198  0.8284
6.452e+09  0.08219  0.8539  0.009771  0.001364  -0.02815  -0.004544  0.5127  0.6984
6.454e+09  0.4159  0.8237  0.07002  -0.04315  -0.01664  -0.01551  0.7113  0.4638
6.455e+09  0.6292  0.5814  -0.03138  0.02839  0.02078  0.02251  0.8178  0.1684
6.456e+09  0.7715  0.35  0.01218  -0.0292  -0.005139  -0.03284  0.7957  -0.0954
6.458e+09  0.9049  0.04274  0.01568  0.005264  0.02152  -0.03469  0.7821  -0.3948
6.459e+09  0.8779  -0.2217  0.004829  -0.00631  0.01652  0.01971  0.5808  -0.5937
6.46e+09  0.7132  -0.5364  0.009575  -0.008603  -0.0157  -0.02259  0.3263  -0.7516
6.461e+09  0.4476  -0.739  0.01593  0.01501  0.03299  0.02078  0.06729  -0.8437
6.462e+09  0.203  -0.8633  0.01771  0.02856  0.04217  -0.02571  -0.2106  -0.7713
6.464e+09  -0.11  -0.882  -0.01844  -0.03798  0.01914  0.01802  -0.4776  -0.6667
6.465e+09  -0.3907  -0.8527  0.03051  -0.0007095  0.06364  -0.0001005  -0.6413  -0.4898
6.466e+09  -0.6584  -0.6083  0.0117  0.0003572  -0.001601  0.01963  -0.7494  -0.223
6.468e+09  -0.844  -0.3409  0.01378  -0.02556  0.02027  -0.03482  -0.8232  0.03418
6.469e+09  -0.8821  -0.02623  0.02132  -0.01102  -0.007337  -0.02357  -0.7102  0.3279
6.47e+09  -0.8295  0.2773  0.06249  0.05166  -0.02257  0.01912  -0.5561  0.5428
6.471e+09  -0.7677  0.5605  -0.01443  0.001349  -0.0331  0.0629  -0.3466  0.73
6.472e+09  -0.4914  0.7498  0.006929  0.01251  0.01305  0.03219  -0.05877  0.7767
6.474e+09  -0.135  0.8781  -0.00491  -0.024  -0.0172  0.007094  0.2108  0.749
6.475e+09  0.1176  0.8939  -0.001693  0.02405  -0.0248  0.01152  0.507  0.6376
6.476e+09  0.3993  0.7497  -0.03929  -0.01973  0.009596  -0.01064  0.6552  0.4228
6.478e+09  0.6984  0.6219  -0.002183  0.02696  0.004723  0.0003438  0.8063  0.2171
6.479e+09  0.8502  0.3394  -0.02579  0.03546  -0.0389  0.01279  0.792  -0.03843
6.48e+09  0.87  0.03346  -0.00471  0.02225  0.04074  0.01631  0.6924  -0.3477
6.481e+09  0.8792  -0.3043  -0.004985  -0.0004992  0.01512  0.04937  0.5374  -0.5678
6.482e+09  0.7266  -0.588  0.02178  -0.01211  -0.005016  0.01534  0.2975  -0.7375
6.484e+09  0.4562  -0.7989  0.008779  -0.01801  0.03045  -0.01174  0.06042  -0.7521
6.485e+09  0.1618  -0.9087  -0.00687  -0.006434  0.01077  0.02167  -0.2096  -0.7154
6.486e+09  -0.1854  -0.8876  0.01307  0.01263  -0.02939  -0.0103  -0.4369  -0.5863
6.488e+09  -0.4349  -0.8612  0.008227  -0.02541  0.01421  0.03727  -0.6669  -0.3956
6.489e+09  -0.7341  -0.5934  0.0002587  -0.02433  -0.00726  0.01401  -0.8207  -0.1991
6.49e+09  -0.8351  -0.352  0.02584  0.007682  0.007237  0.05247  -0.7866  0.03484
6.491e+09  -0.8873  -0.007973  -0.02237  0.027  0.008027  0.02189  -0.6969  0.3195
6.492e+09  -0.8629  0.3617  -0.009193  -0.003064  0.01339  0.01806  -0.4797  0.5482
6.494e+09  -0.721  0.6206  -0.005622  0.03951  -0.01117  -0.03625  -0.3081  0.6975
6.495e+09  -0.4604  0.7784  -0.0476  -0.006028  0.02553  0.001161  0.002005  0.7668
6.496e+09  -0.1505  0.8698  0.01191  -0.01044  0.01546  0.04811  0.2394  0.729
6.498e+09  0.1708  0.913  -0.0112  0.01007  -0.04737  -0.0162  0.4634  0.6413
6.499e+09  0.442  0.7507  -0.01553  0.004023  -0.00609  0.03636  0.6363  0.3578
6.5e+09  0.7184  0.5915  -0.0436  -0.004761  0.006453  -0.04358  0.7557  0.1762
6.501e+09  0.8756  0.3288  0.0208  0.0121  0.01185  0.0007349  0.7427  -0.1037
6.502e+09  0.9147  -0.06316  -0.006536  0.04772  -0.009606  0.006655  0.6641  -0.3712
6.504e+09  0.8951  -0.3388  0.02488  -0.02337  0.01111  -0.01179  0.49  -0.5587
6.505e+09  0.7185  -0.5978  0.01639  -0.003868  0.0776  0.001128  0.2747  -0.7185
6.506e+09  0.4425  -0.8094  0.009187  7.872e-05  -0.003257  0.02922  0.005728  -0.7623
6.508e+09  0.1455  -0.9678  0.002247  -0.01006  -0.02024  -0.0005971  -0.1963  -0.7085
6.509e+09  -0.1902  -0.9003  0.01899  -0.03592  -0.0304  -0.01899  -0.4779  -0.593
6.51e+09  -0.5496  -0.7818  0.01791  0.02173  -0.08217  0.02301  -0.6801  -0.3598
6.511e+09  -0.7463  -0.5428  0.0002063  0.01882  0.03812  0.006048  -0.7345  -0.1019
6.512e+09  -0.8717  -0.3375  -0.00425  -0.002392  0.05387  0.01313  -0.7149  0.1227
6.514e+09  -0.9296  0.00352  -0.01154  -0.003142  -0.004154  -0.01847  -0.636  0.3495
6.515e+09  -0.8762  0.392  0.009409  -0.0008895  0.0004001  -0.005348  -0.4836  0.6149
6.516e+09  -0.6864  0.6962  0.02967  0.004807  -0.03001  0.01979  -0.2422  0.6821
6.518e+09  -0.4075  0.8791  -0.03191  -0.006532  -0.01339  0.01023  0.008604  0.7393
6.519e+09  -0.1018  0.9529  0.02688  0.01149  -0.02313  -0.02387  0.2214  0.6749
6.52e+09  0.2456  0.8998  0.02344  0.01494  0.0201  0.008874  0.4925  0.6125
6.521e+09  0.5407  0.7838  0.02515  0.003643  0.0115  -0.02467  0.6591  0.3347
6.522e+09  0.8029  0.5861  0.003892  -0.01156  0.008613  -0.01136  0.7286  0.09447
6.524e+09  0.946  0.2261  -0.01139  0.01337  0.004869  -0.005041  0.7065  -0.1629
6.525e+09  0.9754  -0.162  0.02875  -0.0222  0.02771  0.00757  0.5612  -0.4015
6.526e+09  0.8095  -0.4257  0.02769  -0.03611  0.01712  -0.01606  0.3951  -0.5823
6.528e+09  0.6105  -0.7211  0.01509  -0.01907  -0.01053  -0.0725  0.1846  -0.7105
6.529e+09  0.3917  -0.9414  -0.02314  0.01276  0.02267  -0.005077  -0.02041  -0.7163
6.53e+09  0.05521  -0.9857  -0.00318  -0.01253  0.01749  -0.03064  -0.3016  -0.6324
6.531e+09  -0.3317  -0.8954  -0.02247  -0.003112  -0.0442  0.07106  -0.4595  -0.465
6.532e+09  -0.6713  -0.7758  -0.01221  -0.01048  0.0274  0.02045  -0.605  -0.2936
6.534e+09  -0.8377  -0.5215  -0.005799  0.003616  0.002207  -0.03327  -0.634  -0.07824
6.535e+09  -0.9656  -0.1888  0.02508  0.01579  -0.02466  0.02444  -0.5989  0.1147
6.536e+09  -0.9332  0.1692  -0.01009  0.005065  0.02196  -0.02507  -0.5938  0.2885
6.538e+09  -0.85  0.4886  0.02213  -0.002716  0.03481  -0.03888  -0.4934  0.4816
6.539e+09  -0.6257  0.7609  -0.003874  0.01705  -0.01545  0.004497  -0.2604  0.5932
6.54e+09  -0.2828  0.8908  -0.01512  -0.006312  0.009518  0.07685  -0.06834  0.6534
6.541e+09  -0.03486  1.031  0.005226  -0.02911  0.02007  0.0154  0.2126  0.6914
6.542e+09  0.3597  0.9097  -0.002201  -0.0386  0.007711  0.0123  0.4034  0.5625
6.544e+09  0.6404  0.768  -0.05023  0.01737  0.03982  -0.04132  0.5982  0.4043
6.545e+09  0.8702  0.4644  -0.003325  0.02873  0.0114  -0.01893  0.7079  0.1724
6.546e+09  0.9647  0.1683  0.005307  0.02768  0.014  0.0002395  0.7235  -0.106
6.548e+09  0.9444  -0.2688  0.03728  -0.0187  -0.01784  0.006008  0.6538  -0.3223
6.549e+09  0.7692  -0.5016  0.01315  -0.001308  0.004677  -0.02729  0.5323  -0.5379
6.55e+09  0.522  -0.7789  -0.03877  0.0194  0.003736  -0.05029  0.2985  -0.6803
6.551e+09  0.234  -0.8865  -0.007435  -0.01855  -0.009537  0.01864  0.04819  -0.7743
