# Hz S RI R 50
6.25e+09  -0.394  0.8199  0.01969  0.006737  0.003969  0.02666  0.1262  0.4905
6.251e+09  -0.2097  0.864  -0.01581  -0.01929  -0.003066  0.003334  0.3838  0.3959
6.252e+09  0.128  0.8317  -0.001911  0.007415  -0.04956  0.01055  0.5134  0.2442
6.254e+09  0.4777  0.7256  0.00932  0.03423  -0.007947  -0.03848  0.6215  0.03272
6.255e+09  0.6838  0.5202  0.02059  -0.01416  -0.04456  -0.0332  0.5736  -0.2137
6.256e+09  0.8082  0.2351  -0.000855  0.03177  0.002786  -0.06679  0.4686  -0.4505
6.258e+09  0.8283  -0.03946  -0.00312  -0.02389  0.005305  0.02485  0.2874  -0.579
6.259e+09  0.7888  -0.3464  0.002399  -0.01909  0.004581  -0.01426  0.06569  -0.6693
6.26e+09  0.6553  -0.5285  -0.0168  0.02033  0.03847  0.04832  -0.2082  -0.7003
6.261e+09  0.3368  -0.7497  0.005392  -0.01244  0.008775  0.007124  -0.4531  -0.5398
6.262e+09  0.1819  -0.7839  -0.03088  0.01343  0.03858  -0.05504  -0.6373  -0.3593
6.264e+09  -0.1798  -0.8771  0.01468  0.007115  -0.06179  -0.05954  -0.7146  -0.1166
6.265e+09  -0.4627  -0.695  0.03126  -0.005422  -0.03363  -0.004255  -0.6897  0.1869
6.266e+09  -0.6867  -0.5377  0.06646  0.01143  0.01667  -0.04537  -0.621  0.4185
6.268e+09  -0.8249  -0.2337  -0.002765  -0.02727  -0.01076  0.07883  -0.4206  0.5968
6.269e+09  -0.8698  0.02046  0.005886  -0.03533  -0.02722  0.008939  -0.2073  0.7217
6.27e+09  -0.7527  0.3262  -0.008768  0.05852  -0.01098  0.02655  0.09939  0.7474
6.271e+09  -0.652  0.6135  0.002925  0.01403  0.04614  0.09902  0.3378  0.6635
6.272e+09  -0.3707  0.717  0.007995  -0.003302  -0.02171  -0.02913  0.5253  0.5135
6.274e+09  -0.1098  0.8828  -0.007365  0.001983  -0.0027  0.01317  0.6913  0.2916
6.275e+09  0.2287  0.7674  -0.01697  -0.006161  -0.0209  -0.01283  0.7997  0.04924
6.276e+09  0.5084  0.6634  -0.005243  0.004726  0.001048  0.0105  0.7197  -0.2414
6.278e+09  0.6313  0.4982  0.03311  0.008916  -0.003507  0.005204  0.6095  -0.4819
6.279e+09  0.8437  0.2434  0.01658  -0.01922  -0.02946  0.002624  0.4288  -0.6507
6.28e+09  0.8288  -0.0208  -0.0007738  -0.01332  -0.05482  0.02602  0.1751  -0.7562
6.281e+09  0.7699  -0.3752  -0.005787  -0.005311  -0.02149  -0.002495  -0.0881  -0.7896
6.282e+09  0.5778  -0.5809  -0.003258  -8.571e-05  -0.004473  -0.01023  -0.3842  -0.7084
6.284e+09  0.3685  -0.764  0.009569  -0.003888  0.01365  -0.04039  -0.5726  -0.5047
6.285e+09  0.06282  -0.8085  0.01155  -0.001988  0.006833  0.01991  -0.7173  -0.2796
6.286e+09  -0.2277  -0.8592  0.01967  -0.001936  0.06015  0.02097  -0.8097  -0.02686
6.288e+09  -0.4937  -0.6712  0.02945  -0.02885  -0.05899  0.004083  -0.7393  0.2237
6.289e+09  -0.7115  -0.4254  -0.0239  -0.02336  -0.01176  -0.001093  -0.5743  0.487
6.29e+09  -0.8396  -0.2414  -0.009745  0.03595  -0.08657  -0.03114  -0.4136  0.6846
6.291e+09  -0.869  0.06206  -0.006252  0.01541  -0.005055  -0.006157  -0.1498  0.833
6.292e+09  -0.716  0.3556  0.0254  0.003091  -0.01221  -0.03155  0.09943  0.7601
6.294e+09  -0.63  0.5778  -0.04206  -0.004608  0.00864  -0.01245  0.3919  0.7096
6.295e+09  -0.3282  0.7811  -0.00863  -0.026  0.06367  0.01068  0.6576  0.556
6.296e+09  -0.02665  0.8396  0.0118  0.01549  -0.009682  0.01166  0.7834  0.2706
6.298e+09  0.3059  0.8175  0.001893  0.01238  0.03947  -0.001289  0.8319  0.01039
6.299e+09  0.4545  0.6605  -0.009694  -0.01793  0.06888  0.02564  0.7629  -0.2945
6.3e+09  0.664  0.4409  0.0265  -0.03354  -0.05245  -0.02975  0.683  -0.5247
6.301e+09  0.7777  0.1826  -0.008217  -0.002142  0.03894  0.01023  0.4335  -0.7349
6.302e+09  0.8807  -0.1053  0.04067  -0.01046  -0.01223  -0.01525  0.1462  -0.8555
6.304e+09  0.7181  -0.3601  7.356e-05  -0.003761  -0.008852  -0.001804  -0.1532  -0.8291
6.305e+09  0.5428  -0.6058  0.004695  -0.03797  0.01016  0.004271  -0.4428  -0.7596
6.306e+09  0.2924  -0.8081  -0.003441  0.007682  -0.003846  0.0006607  -0.6849  -0.5683
6.308e+09  -0.009553  -0.8391  -0.01847  0.0009174  0.02664  -0.02265  -0.8104  -0.313
6.309e+09  -0.3046  -0.78  0.01972  0.007026  0.01748  0.03262  -0.8767  -0.02768
6.31e+09  -0.5508  -0.6572  0.00633  -0.01351  0.04947  -0.01418  -0.8333  0.3041
6.311e+09  -0.7708  -0.4383  0.02604  0.02002  0.008881  -0.02076  -0.671  0.5501
6.312e+09  -0.8052  -0.1179  0.01962  0.002472  -0.01227  -0.02835  -0.4614  0.7308
6.314e+09  -0.8552  0.1373  0.007696  0.007955  0.03517  -0.01195  -0.1497  0.8744
6.315e+09  -0.733  0.4487  -0.004731  0.007004  -0.01459  0.01924  0.1341  0.8683
6.316e+09  -0.4963  0.6178  -0.01475  0.001479  0.0151  0.0003488  0.4383  0.7809
6.318e+09  -0.3071  0.8044  0.002442  0.01277  -0.02547  0.01692  0.6552  0.5733
6.319e+09  0.03807  0.8959  -0.01067  -0.01437  -0.004481  0.02423  0.8279  0.2858
6.32e+09  0.2902  0.7605  0.01489  -0.01585  0.05146  0.0309  0.8983  -0.003959
6.321e+09  0.5735  0.6378  0.02002  -0.01863  -0.01063  0.01507  0.858  -0.2534
6.322e+09  0.7353  0.4095  0.001258  0.02326  0.02565  -0.01276  0.6794  -0.5848
6.324e+09  0.8714  0.08366  0.01781  0.03145  -0.02929  0.004125  0.4736  -0.7903
6.325e+09  0.8525  -0.1956  0.03701  0.01605  0.0004496  0.05256  0.1825  -0.9032
6.326e+09  0.7308  -0.4267  0.005171  0.02214  0.01954  -0.01743  -0.1175  -0.9231
6.328e+09  0.4673  -0.643  0.003036  -0.007855  0.07654  0.02817  -0.4335  -0.7946
6.329e+09  0.1998  -0.8103  0.006018  0.003362  -0.002115  0.0183  -0.7019  -0.608
6.33e+09  -0.04131  -0.9057  -0.001646  0.02609  -0.002871  0.003935  -0.8326  -0.339
6.331e+09  -0.3454  -0.768  -0.0008908  0.002657  -0.03577  -0.01588  -0.9318  -0.02965
6.332e+09  -0.6082  -0.6165  0.02313  0.002544  0.007079  -0.01089  -0.8583  0.2998
6.334e+09  -0.8166  -0.3403  -0.01176  0.002096  0.03143  0.01936  -0.7444  0.5981
6.335e+09  -0.8353  -0.06357  0.02877  0.006627  0.01061  -0.0586  -0.5303  0.7989
6.336e+09  -0.8266  0.2248  -0.002369  -0.01171  0.02709  0.04969  -0.2225  0.8836
6.338e+09  -0.6961  0.5469  0.01347  0.01621  0.01171  0.01609  0.1329  0.9382
6.339e+09  -0.5295  0.6956  -0.03604  0.02576  0.01767  0.003925  0.4375  0.8206
6.34e+09  -0.1643  0.8415  0.01031  0.01077  -0.04724  0.005785  0.694  0.6421
6.341e+09  0.1167  0.857  -0.001106  0.02919  -0.01161  0.05121  0.8772  0.3528
6.342e+09  0.4323  0.8185  0.02635  0.02602  -0.001244  -0.00928  0.9254  0.04736
6.344e+09  0.6369  0.5655  0.022  -0.009134  0.0007603  -0.03689  0.8867  -0.2659
6.345e+09  0.8464  0.3159  0.01309  0.02434  0.01093  -0.01299  0.7489  -0.5497
6.346e+09  0.8832  0.01939  0.009014  -0.01721  -0.01795  -0.02756  0.5176  -0.7948
6.348e+09  0.7843  -0.299  -0.002839  -0.009867  -0.02068  -0.02948  0.1867  -0.9177
6.349e+09  0.7044  -0.564  0.009846  -0.008283  0.01716  -0.007654  -0.1332  -0.9343
6.35e+09  0.3833  -0.7923  0.007776  0.006264  0.0128  -0.03812  -0.426  -0.8537
6.351e+09  0.1407  -0.9029  -0.01737  0.01258  -0.004031  -0.05079  -0.6738  -0.6775
6.352e+09  -0.2018  -0.8462  0.007204  0.007148  -0.05093  -0.02797  -0.844  -0.4207
6.354e+09  -0.459  -0.7031  0.01318  0.0003993  -0.051  -0.01737  -0.9044  -0.05236
6.355e+09  -0.6812  -0.4909  -0.01057  -0.0268  -0.02135  -0.02411  -0.9286  0.2955
6.356e+09  -0.8429  -0.2369  -0.03769  0.0002025  -0.005355  0.005089  -0.7377  0.5816
6.358e+09  -0.9074  0.02611  0.004564  0.02717  0.002777  0.03873  -0.5649  0.7469
6.359e+09  -0.7968  0.3589  0.01303  0.009182  0.0384  0.004443  -0.2272  0.9302
6.36e+09  -0.6568  0.6348  -0.01287  0.02341  0.005204  -0.00765  0.1035  0.9365
6.361e+09  -0.3795  0.8221  0.0118  0.01459  -0.01931  -0.00535  0.4105  0.87
6.362e+09  -0.1214  0.9175  0.01686  -0.00873  -0.02129  -0.007443  0.703  0.6558
6.364e+09  0.2564  0.8603  0.003122  -0.01867  0.01332  0.0006634  0.9144  0.4196
6.365e+09  0.4699  0.7287  0.02055  -0.001032  0.01558  0.001435  0.9421  0.05741
6.366e+09  0.6732  0.5004  -0.02375  -0.001384  0.007706  0.05862  0.8896  -0.2947
6.368e+09  0.8474  0.244  0.05257  -0.006191  -0.03581  -0.01557  0.7749  -0.5295
6.369e+09  0.8632  -0.07106  -0.008695  0.01038  -0.02718  0.004507  0.5252  -0.7765
6.37e+09  0.7827  -0.3466  -0.0472  0.00114  0.02296  -0.03159  0.2424  -0.898
6.371e+09  0.5964  -0.6109  -0.01262  -0.003641  -0.01295  0.01822  -0.09789  -0.9311
6.372e+09  0.3153  -0.8313  -0.02912  0.02574  0.02765  -0.04725  -0.3919  -0.8242
6.374e+09  0.09117  -0.9156  -0.03063  -0.04338  -0.04069  0.02938  -0.6465  -0.6506
6.375e+09  -0.2874  -0.8375  -0.02257  0.009149  0.03028  0.01264  -0.8547  -0.4232
6.376e+09  -0.535  -0.7304  0.03605  0.0125  -0.004292  -0.02214  -0.9306  -0.08295
6.378e+09  -0.7878  -0.4508  0.0122  -0.01198  0.005587  0.03254  -0.9451  0.2208
6.379e+09  -0.8812  -0.1641  0.008994  -0.0253  -0.03831  0.007165  -0.7258  0.5429
6.38e+09  -0.8716  0.1689  0.001683  0.02655  0.00466  -0.006312  -0.5278  0.7673
6.381e+09  -0.8046  0.4079  0.005462  -0.03276  -0.04176  -0.03171  -0.2794  0.8561
6.382e+09  -0.5724  0.6671  -0.001743  0.02745  -0.00774  -0.01418  0.09291  0.9347
6.384e+09  -0.2228  0.8651  0.02262  0.01247  0.04496  -0.005273  0.3299  0.8872
6.385e+09  -0.03568  0.8876  0.03558  -0.0194  0.0003657  -0.005698  0.611  0.6388
6.386e+09  0.3267  0.7974  0.01843  0.01798  0.06859  0.01401  0.8091  0.417
6.388e+09  0.569  0.6662  0.004906  -0.00537  0.02009  0.009545  0.8893  0.1352
6.389e+09  0.7731  0.4156  0.03224  0.001763  -0.05685  -0.03513  0.9258  -0.2097
6.39e+09  0.8831  0.1576  0.01148  0.005545  0.005861  0.03083  0.7854  -0.4421
6.391e+09  0.9119  -0.1714  0.03821  0.002736  -0.03991  -0.02724  0.5797  -0.7514
6.392e+09  0.7597  -0.4671  -0.005125  0.006044  -0.009779  -0.01096  0.3181  -0.886
6.394e+09  0.5601  -0.741  0.04684  -0.02954  -0.01443  -0.01559  5.361e-05  -0.9313
6.395e+09  0.3354  -0.8748  0.006659  0.008042  0.05257  -0.0531  -0.3227  -0.8387
6.396e+09  -0.0144  -0.958  -0.03111  0.008421  -0.08169  0.002139  -0.5847  -0.6752
6.398e+09  -0.3879  -0.827  0.01452  0.01232  0.01833  0.0293  -0.7846  -0.4257
6.399e+09  -0.6014  -0.6526  0.02225  0.03098  0.03711  0.0149  -0.9186  -0.1356
6.4e+09  -0.7404  -0.3678  -0.04032  -0.01492  -0.004555  -0.04146  -0.8838  0.1924
6.401e+09  -0.8517  -0.1161  0.00908  0.014  0.02174  -0.01318  -0.7804  0.4635
6.402e+09  -0.8686  0.1953  -0.003462  0.04187  -0.01838  0.01117  -0.6239  0.7316
6.404e+09  -0.7764  0.4995  -0.05183  0.006595  3.17e-05  0.03229  -0.3333  0.8607
6.405e+09  -0.5363  0.6684  0.01847  -0.03285  0.001378  -0.04197  -0.01515  0.9472
6.406e+09  -0.2475  0.8449  0.005034  0.004849  -0.008969  -0.03486  0.2966  0.8923
6.408e+09  0.06934  0.8852  0.04785  -0.03249  -0.009989  -0.03262  0.6294  0.7229
6.409e+09  0.3655  0.8173  -0.01064  0.02529  -0.01838  -0.008983  0.7719  0.4339
6.41e+09  0.5832  0.6312  -0.02752  0.01452  0.006774  0.00552  0.8776  0.1583
6.411e+09  0.7922  0.394  0.000316  -0.01655  -0.01916  -0.03042  0.9066  -0.1249
6.412e+09  0.9068  0.04265  -0.02159  -0.001353  0.02855  0.003732  0.8347  -0.4257
6.414e+09  0.8723  -0.2609  0.0197  -0.04618  -0.004621  -0.01719  0.5893  -0.6839
6.415e+09  0.7686  -0.5153  -0.002151  -0.03068  -0.01183  -0.01395  0.2751  -0.8376
6.416e+09  0.4819  -0.7086  0.02106  -0.0298  -0.01843  -0.05828  0.004521  -0.8749
6.418e+09  0.285  -0.8494  -0.008427  -0.02403  0.02546  0.006352  -0.2644  -0.8794
6.419e+09  -0.0617  -0.8979  0.009675  0.02383  0.01411  0.01349  -0.5477  -0.6769
6.42e+09  -0.3971  -0.8223  0.02891  -0.002878  0.01621  0.01713  -0.7253  -0.4988
6.421e+09  -0.6444  -0.6484  -0.028  0.02851  0.02786  -0.009029  -0.8659  -0.198
6.422e+09  -0.8193  -0.3225  0.0169  0.01385  0.02355  -0.007622  -0.8903  0.0636
6.424e+09  -0.8654  -0.06517  -0.0128  0.01861  0.006209  -0.02055  -0.796  0.3879
6.425e+09  -0.8686  0.3002  0.01071  0.03201  -0.03509  0.0133  -0.6199  0.6263
6.426e+09  -0.6846  0.465  -0.03367  -0.01596  0.05893  -0.01849  -0.3302  0.8172
6.428e+09  -0.5295  0.6878  0.04561  0.007265  -0.02267  0.006379  -0.04028  0.8511
6.429e+09  -0.1848  0.7922  -0.00474  0.01375  0.04633  0.02589  0.2696  0.8481
6.43e+09  0.1365  0.8515  0.01441  -0.07107  0.01085  0.02469  0.535  0.685
6.431e+09  0.4118  0.8056  -0.03164  0.01425  -0.003882  -0.02247  0.709  0.5145
6.432e+09  0.6254  0.6208  -0.01465  0.003014  6.05e-05  -0.06152  0.87  0.2038
6.434e+09  0.8064  0.3699  -0.009754  0.009324  0.01195  -0.01531  0.8661  -0.1154
6.435e+09  0.8685  0.1143  0.01372  0.02235  0.02077  0.0005424  0.7666  -0.3946
6.436e+09  0.8397  -0.2394  0.01323  -0.02276  0.009309  0.01525  0.6104  -0.6453
6.438e+09  0.6616  -0.5056  -0.01103  -0.01215  -0.002395  0.02007  0.374  -0.814
6.439e+09  0.4701  -0.6986  0.01354  -0.01074  -0.01421  -0.04681  0.03794  -0.8717
6.44e+09  0.1617  -0.8216  -0.02001  -0.002483  0.01738  -0.01247  -0.2203  -0.8528
6.441e+09  -0.1395  -0.8436  0.002779  -0.02296  0.007789  0.008587  -0.521  -0.7039
6.442e+09  -0.3658  -0.8019  0.02429  0.01709  0.01003  -0.01455  -0.7435  -0.4937
6.444e+09  -0.6524  -0.6401  -0.009835  -0.03036  0.01499  0.03754  -0.8276  -0.2418
6.445e+09  -0.8029  -0.3097  -0.0002634  0.007929  0.002467  0.02875  -0.7977  0.07371
6.446e+09  -0.9314  -0.06138  0.02628  -0.01371  -0.001122  0.01097  -0.7523  0.3661
6.448e+09  -0.8642  0.2742  0.04361  -0.01594  0.01773  0.01305  -0.598  0.5901
6.449e+09  -0.6767  0.4986  -0.01007  0.003113  -0.006537  -0.03128  -0.3604  0.7635
6.45e+09  -0.3915  0.7689  -0.004221  -0.02219  -0.01169  0.01432  -0.02489  0.8926
6.451e+09  -0.199  0.8914  0.008996  -0.01852  -0.02421  -0.0008833  0.2231  0.7753
6.452e+09  0.1452  0.8582  -0.02116  -0.01252  0.03734  -0.004809  0.4722  0.6551
6.454e+09  0.4295  0.7584  0.02333  0.02935  0.01045  -0.0176  0.6429  0.4994
6.455e+09  0.639  0.619  -0.04315  -0.00644  0.009699  0.02782  0.7911  0.2274
6.456e+09  0.8002  0.3651  -0.04462  0.001038  -0.001179  0.04155  0.8274  -0.05401
6.458e+09  0.9132  0.051  -0.03222  0.01605  -0.0412  0.04369  0.7153  -0.3234
6.459e+09  0.8771  -0.2744  -0.02258  0.005088  -0.007362  -0.008815  0.6237  -0.5625
6.46e+09  0.6782  -0.5025  -0.01475  -0.006938  -0.0116  -0.02786  0.3747  -0.7299
6.461e+09  0.4454  -0.7601  0.01592  0.002078  0.05708  0.04569  0.01889  -0.8054
6.462e+09  0.1687  -0.8941  -0.002978  -0.0127  -0.01653  0.02007  -0.1801  -0.7814
6.464e+09  -0.0836  -0.8631  -0.002352  0.02835  -0.04731  -0.002918  -0.4603  -0.6804
6.465e+09  -0.4084  -0.7749  -0.02684  0.0204  -0.01683  -0.01323  -0.6772  -0.4476
6.466e+09  -0.6606  -0.5789  0.0003843  0.02241  0.006182  0.001924  -0.7684  -0.2006
6.468e+09  -0.7949  -0.3089  -0.0187  -0.03213  0.008148  -0.0426  -0.7903  0.05425
6.469e+09  -0.9177  -0.06012  0.03076  0.01439  -0.02541  -0.003874  -0.6962  0.3535
6.47e+09  -0.8993  0.291  -0.01042  0.004286  0.03277  -0.01674  -0.5359  0.5534
6.471e+09  -0.6874  0.5709  0.0106  -0.04783  0.03736  -0.003998  -0.3043  0.7316
6.472e+09  -0.4629  0.721  -0.005648  0.01545  0.04639  -0.01328  -0.03206  0.7819
6.474e+09  -0.2423  0.9117  -0.05956  0.04674  -0.01796  0.02603  0.2301  0.771
6.475e+09  0.1645  0.9175  -0.0341  -0.01  0.00268  -0.01017  0.4498  0.6636
6.476e+09  0.4416  0.8109  -0.006311  0.01476  0.01159  0.02464  0.7004  0.4352
6.478e+09  0.7779  0.546  0.01857  -0.03203  -0.024  -0.01525  0.7246  0.2103
6.479e+09  0.8781  0.3228  -0.003135  0.005184  -0.006345  -0.03915  0.784  -0.06207
6.48e+09  0.9489  0.0223  0.02751  0.002092  -0.02114  -0.009311  0.6837  -0.3429
6.481e+09  0.9049  -0.299  -0.005642  0.01976  0.02263  0.01887  0.4884  -0.5413
6.482e+09  0.69  -0.5603  0.003434  0.02372  0.02942  0.02137  0.3098  -0.7479
6.484e+09  0.4735  -0.8421  0.006882  0.0136  -0.0298  -0.02279  0.05565  -0.7437
6.485e+09  0.1682  -0.9207  -0.02585  -0.0001121  0.003691  0.0535  -0.1973  -0.739
6.486e+09  -0.1632  -0.9261  0.01663  0.004669  -0.006602  0.02522  -0.4525  -0.6519
6.488e+09  -0.4612  -0.7841  0.009687  -0.01187  0.01398  -0.02937  -0.6411  -0.4169
6.489e+09  -0.7126  -0.6489  -0.02313  -0.009699  -0.05132  -0.007152  -0.7107  -0.1801
6.49e+09  -0.8515  -0.3345  -0.04791  0.03346  0.06129  -0.05055  -0.7371  0.07832
6.491e+09  -0.9442  0.02143  0.04204  0.06621  -0.0243  0.03697  -0.6459  0.3141
6.492e+09  -0.8396  0.2943  0.01188  -0.02523  0.01345  0.007716  -0.5192  0.5743
6.494e+09  -0.7069  0.6161  -0.01337  0.00556  0.007892  -0.024  -0.26  0.6618
6.495e+09  -0.4127  0.7998  0.05549  -0.02785  -0.009275  0.03003  -0.04796  0.7897
6.496e+09  -0.1838  0.9229  0.01717  -0.03745  -0.05264  0.05272  0.196  0.7184
6.498e+09  0.1913  0.898  0.000331  0.02069  -0.04337  0.03609  0.457  0.6177
6.499e+09  0.5252  0.8437  -0.005421  -0.0001067  -0.03125  -0.05033  0.6744  0.4265
6.5e+09  0.7442  0.5696  0.01117  -0.003408  0.01403  -0.01192  0.7576  0.2027
6.501e+09  0.8548  0.2701  0.001994  0.02968  -0.04311  -0.02977  0.746  -0.1553
6.502e+09  0.9018  -0.06735  0.01588  -0.0182  -0.01919  0.00287  0.6234  -0.3557
6.504e+09  0.8434  -0.3212  0.00415  0.01036  -0.0093  -0.01252  0.5267  -0.5778
6.505e+09  0.7077  -0.6889  -0.01319  0.01812  0.009226  -0.02189  0.2573  -0.725
6.506e+09  0.4597  -0.8368  0.02553  0.01508  -0.005958  -0.009939  0.02016  -0.7571
6.508e+09  0.1308  -0.957  0.01126  -0.002436  -0.008771  -0.0004843  -0.2132  -0.7026
6.509e+09  -0.2558  -0.9183  0.02375  -0.008042  0.01741  0.01749  -0.5095  -0.5587
6.51e+09  -0.476  -0.7627  0.0161  -0.004463  -0.002243  -0.04673  -0.6451  -0.4078
6.511e+09  -0.7966  -0.5672  -0.01838  -0.002059  -0.01597  0.001382  -0.7102  -0.1647
6.512e+09  -0.8719  -0.2899  -0.00117  0.0163  0.001755  0.02447  -0.7389  0.1691
6.514e+09  -0.9416  0.0712  0.02984  -0.02669  0.03944  0.0028  -0.6443  0.3594
6.515e+09  -0.8536  0.4292  -0.008292  0.004525  -0.05199  -0.04629  -0.4509  0.5741
6.516e+09  -0.6618  0.6745  -0.002861  0.01918  -0.01432  0.02305  -0.2237  0.7071
6.518e+09  -0.4314  0.8712  -0.016  0.006735  -0.02894  -0.002722  0.0211  0.7884
6.519e+09  -0.03744  0.9854  0.006829  -0.002327  -0.01572  -0.03024  0.2947  0.7231
6.52e+09  0.2565  0.9567  0.02899  -0.008993  -0.03157  -0.02473  0.5409  0.5358
6.521e+09  0.6671  0.7601  -4.433e-05  -0.007476  0.01117  0.0205  0.6337  0.3434
6.522e+09  0.7977  0.5525  -0.001741  0.001357  -0.00393  -0.025  0.7275  0.08821
6.524e+09  0.9913  0.2374  0.02022  -0.006827  -0.06927  -0.0112  0.722  -0.1336
6.525e+09  0.992  -0.1203  0.00177  -0.02784  -0.0261  0.03106  0.5968  -0.3802
6.526e+09  0.8654  -0.4663  0.04755  0.00795  0.01671  -0.01691  0.432  -0.5936
6.528e+09  0.6099  -0.7716  0.02707  0.008132  0.03377  0.01022  0.2176  -0.6792
6.529e+09  0.3586  -0.9212  -0.03137  -0.01353  -0.01434  0.02181  -0.01757  -0.7304
6.53e+09  0.02413  -0.9702  0.004362  -0.004984  0.02019  -0.01706  -0.3161  -0.6573
6.531e+09  -0.3031  -0.8791  0.01898  0.01872  -0.0005342  0.01133  -0.4675  -0.4632
6.532e+09  -0.6891  -0.7556  -0.01661  -0.006899  0.003624  -0.01346  -0.6048  -0.3139
6.534e+09  -0.8086  -0.5259  0.02064  0.02642  -0.01294  0.004483  -0.6307  -0.08499
6.535e+09  -1.067  -0.17  -0.01442  0.01993  -0.02053  -0.03117  -0.6193  0.09205
6.536e+09  -0.9337  0.2146  0.01796  -0.01059  0.04207  0.04515  -0.5672  0.2931
6.538e+09  -0.8243  0.4886  -0.009481  -0.01568  0.006809  0.001191  -0.4569  0.4578
6.539e+09  -0.5845  0.8245  0.02514  0.03213  0.02304  0.07735  -0.2934  0.6632
6.54e+09  -0.2973  0.8816  -0.001747  -0.04609  0.01634  0.02425  -0.03946  0.6729
6.541e+09  0.01545  0.9873  0.0197  0.007618  0.0116  0.01623  0.1807  0.6643
6.542e+09  0.3946  0.9272  -0.003152  -0.001377  0.006918  -0.01493  0.4129  0.5616
6.544e+09  0.6504  0.679  -0.002774  0.0006669  0.08448  -0.03132  0.5671  0.417
6.545e+09  0.8883  0.404  0.006299  0.005226  -0.05183  -0.02779  0.6867  0.1756
6.546e+09  0.9877  0.1086  0.02051  0.0101  0.0176  -0.05131  0.7043  -0.07865
6.548e+09  0.9462  -0.2799  0.0518  0.01404  0.003523  0.01168  0.6582  -0.2878
6.549e+09  0.8006  -0.63  0.01334  -0.009828  -0.01824  0.01387  0.5275  -0.4997
6.55e+09  0.5312  -0.8241  0.009169  0.04049  0.01245  0.06966  0.3037  -0.686
