# Hz S RI R 50
6.25e+09  -0.6406  0.6126  -0.01514  -0.004269  -0.06064  0.0557  0.159  0.4701
6.251e+09  -0.4148  0.7473  -0.01318  0.04347  0.01507  -0.015  0.3742  0.397
6.252e+09  -0.1371  0.8625  -0.004654  0.03358  -0.04269  0.01398  0.5343  0.2432
6.254e+09  0.1756  0.8643  0.009817  0.003741  0.04966  0.002376  0.634  0.0348
6.255e+09  0.5056  0.7341  -0.02012  0.01308  -0.02947  -0.01078  0.6004  -0.2343
6.256e+09  0.6844  0.5422  -0.001011  0.007376  0.01201  -0.02965  0.4554  -0.449
6.258e+09  0.7965  0.2766  0.002755  0.02905  0.071  -0.02277  0.2617  -0.5971
6.259e+09  0.8685  -0.05759  0.01843  -0.01909  -0.03483  -0.01799  0.05706  -0.6777
6.26e+09  0.7529  -0.3271  0.01069  0.01382  0.08515  -0.03011  -0.183  -0.6129
6.261e+09  0.6402  -0.5753  0.003671  0.02587  -0.007262  -0.01033  -0.4344  -0.5527
6.262e+09  0.3581  -0.7276  -0.01593  0.03115  0.01816  0.02769  -0.6044  -0.3017
6.264e+09  0.07933  -0.8458  -4.021e-05  -0.00636  -0.02194  -0.02558  -0.7365  -0.113
6.265e+09  -0.2351  -0.811  0.01588  -0.02106  0.00355  0.03823  -0.7185  0.1702
6.266e+09  -0.4335  -0.6814  -0.02052  0.01531  -0.0294  0.01673  -0.5946  0.3672
6.268e+09  -0.6755  -0.5011  0.005339  -0.006451  0.009916  0.001735  -0.4281  0.6161
6.269e+09  -0.7631  -0.2586  0.00991  0.00241  -0.01365  0.0833  -0.1887  0.7081
6.27e+09  -0.848  0.05022  -0.02741  0.01061  -0.004563  0.00221  0.0548  0.7504
6.271e+09  -0.7671  0.3536  -0.02461  -0.01225  -0.04647  -0.0009178  0.2936  0.6832
6.272e+09  -0.6445  0.6204  0.02484  0.02443  -0.02448  -0.08932  0.5335  0.5172
6.274e+09  -0.371  0.7624  -0.01092  0.01457  0.03882  -0.02868  0.6766  0.3013
6.275e+09  -0.1182  0.7957  -0.01854  -0.02804  -0.002065  0.02964  0.768  0.03279
6.276e+09  0.1701  0.8469  -0.01166  -0.01593  0.02263  0.01443  0.7225  -0.2058
6.278e+09  0.4918  0.6765  -0.03297  -0.01766  -0.06564  0.05007  0.5906  -0.4638
6.279e+09  0.6602  0.4396  -0.01388  0.001989  0.0136  0.06003  0.4282  -0.6253
6.28e+09  0.7931  0.2497  0.00201  -0.0134  0.01368  0.01055  0.1626  -0.7849
6.281e+09  0.8254  -0.05468  -0.02339  -0.003532  -0.03625  0.009407  -0.08912  -0.7494
6.282e+09  0.7109  -0.388  0.009822  0.004902  -0.03539  -0.009682  -0.3962  -0.7001
6.284e+09  0.5487  -0.572  0.02607  -0.01424  0.0006533  -0.03905  -0.6044  -0.4991
6.285e+09  0.3403  -0.7251  -0.01688  0.01038  -0.03889  -0.03033  -0.7006  -0.2749
6.286e+09  0.09225  -0.8224  -0.02782  0.02699  -0.04146  -0.01771  -0.7827  -0.01902
6.288e+09  -0.2467  -0.8083  -0.005289  0.02977  -0.01303  0.02392  -0.7559  0.2763
6.289e+09  -0.4789  -0.7051  0.003097  -0.006194  0.02449  0.03604  -0.6497  0.5223
6.29e+09  -0.6992  -0.4717  0.0262  0.03235  0.02466  -0.02295  -0.4244  0.6769
6.291e+09  -0.8466  -0.2051  -0.01066  -0.01116  -0.04514  0.04416  -0.1343  0.8006
6.292e+09  -0.7991  0.1414  -0.0402  -0.01427  0.02447  0.03761  0.1428  0.7956
6.294e+09  -0.7738  0.3957  -0.01716  -0.03996  0.0483  -0.01424  0.4091  0.7494
6.295e+09  -0.615  0.5829  0.004831  0.01876  0.01677  -0.03445  0.5878  0.5437
6.296e+09  -0.3329  0.7375  -0.003495  0.01459  -0.04173  -0.0113  0.764  0.3099
6.298e+09  -0.06372  0.8127  -0.008289  0.0431  -0.0002898  0.004729  0.8276  0.02797
6.299e+09  0.2618  0.7597  0.01617  0.01058  0.00214  0.0484  0.7812  -0.2975
6.3e+09  0.5426  0.6815  -0.001104  0.02657  0.02631  -0.01046  0.6378  -0.5538
6.301e+09  0.6733  0.4159  -0.01852  0.01404  0.01198  -0.02205  0.4053  -0.7162
6.302e+09  0.7317  0.2087  -0.01804  0.02807  -0.07039  -0.03271  0.183  -0.828
6.304e+09  0.8435  -0.1745  -0.01611  -0.004132  0.02821  0.06182  -0.1425  -0.8479
6.305e+09  0.6992  -0.4396  -0.01138  -0.001362  0.04848  -0.05897  -0.4347  -0.7651
6.306e+09  0.5382  -0.6121  0.01509  0.01753  0.0004517  -0.02765  -0.6759  -0.5425
6.308e+09  0.2862  -0.7808  -0.01236  0.0125  -0.01906  -0.02777  -0.8183  -0.2994
6.309e+09  -0.01475  -0.8441  -0.02105  -0.008712  -0.008524  -0.004632  -0.8741  0.01889
6.31e+09  -0.2275  -0.7711  0.004795  -0.002727  -0.03136  -0.07635  -0.8174  0.2834
6.311e+09  -0.5177  -0.6403  0.02537  -0.02315  -0.01627  0.01941  -0.6794  0.5505
6.312e+09  -0.7376  -0.4258  -0.01691  0.01301  0.02379  0.06209  -0.454  0.7767
6.314e+09  -0.798  -0.1665  -0.01367  0.0008016  -0.001032  -0.03109  -0.1631  0.8491
6.315e+09  -0.84  0.2002  -0.004341  -0.004822  -0.01647  8.869e-05  0.09509  0.8445
6.316e+09  -0.6962  0.4563  -0.006821  -0.02366  0.006691  -0.04332  0.4138  0.7649
6.318e+09  -0.5433  0.6752  0.007383  0.01131  -0.01519  0.02022  0.6793  0.5399
6.319e+09  -0.2695  0.8029  0.008032  -0.0007401  0.01859  -0.02831  0.8379  0.355
6.32e+09  0.02051  0.833  0.01375  0.0239  -0.01713  0.01776  0.8855  0.007132
6.321e+09  0.2973  0.8222  0.004707  -0.005706  0.01695  0.01246  0.8396  -0.2809
6.322e+09  0.5738  0.6321  0.03789  0.01065  -0.004575  -0.01959  0.6957  -0.5489
6.324e+09  0.7741  0.3591  0.02945  0.02472  -0.05623  -0.008523  0.446  -0.8034
6.325e+09  0.8471  0.1063  0.02978  -0.03163  -0.0264  -0.01406  0.1922  -0.8756
6.326e+09  0.8517  -0.1657  0.02565  -0.003877  -0.03934  -0.02222  -0.1058  -0.8852
6.328e+09  0.7374  -0.4429  -0.02427  0.01319  0.01099  -0.01554  -0.4605  -0.7745
6.329e+09  0.5269  -0.6655  0.009522  0.01563  0.04023  0.02193  -0.6633  -0.5948
6.33e+09  0.267  -0.8556  -0.05353  0.00916  -9.178e-06  -0.0261  -0.8538  -0.3068
6.331e+09  -0.07131  -0.812  0.01302  -0.01727  -0.02561  -0.0435  -0.9128  -0.02051
6.332e+09  -0.3367  -0.7716  -0.0162  0.008377  -0.02125  0.01458  -0.8737  0.2494
6.334e+09  -0.621  -0.5936  0.004322  -0.006019  0.001683  -0.006868  -0.7182  0.5876
6.335e+09  -0.8137  -0.3725  0.03267  0.01279  -0.03604  0.0242  -0.4899  0.7804
6.336e+09  -0.9396  -0.03338  -0.008724  0.005733  -0.02151  0.006867  -0.1855  0.8913
6.338e+09  -0.8291  0.229  0.03984  0.01608  0.02711  0.01814  0.1693  0.924
6.339e+09  -0.7041  0.5366  -0.009554  -0.01189  0.01907  -0.03723  0.4002  0.8085
6.34e+09  -0.4167  0.7509  -0.009625  -0.01883  0.02385  0.01757  0.6753  0.6151
6.341e+09  -0.1297  0.8352  -0.005111  0.005836  -0.03341  -0.04757  0.8429  0.3493
6.342e+09  0.1648  0.8603  0.01058  -0.02925  0.008311  0.003446  0.8985  0.08716
6.344e+09  0.4292  0.7651  -0.01567  -0.01402  -0.00681  -0.003066  0.8876  -0.2905
6.345e+09  0.6899  0.5351  0.0374  0.0221  0.05086  0.07245  0.7412  -0.5473
6.346e+09  0.8762  0.318  0.00297  0.004704  0.0138  -0.008493  0.5222  -0.7819
6.348e+09  0.9475  0.008457  -0.02043  0.01017  -0.002474  0.03721  0.2542  -0.8934
6.349e+09  0.8136  -0.2846  -0.0007186  0.0344  0.02143  -0.04931  -0.1142  -0.951
6.35e+09  0.6202  -0.6085  -0.003571  -0.02303  -0.06515  -0.002839  -0.4194  -0.8142
6.351e+09  0.4733  -0.7872  -0.02037  -0.003989  0.0169  0.008885  -0.6728  -0.6469
6.352e+09  0.1608  -0.8732  -0.02665  0.001093  0.01119  -0.04388  -0.8549  -0.3639
6.354e+09  -0.2213  -0.8531  -0.004799  -0.007825  0.02581  0.01748  -0.9651  -0.07687
6.355e+09  -0.4911  -0.7385  0.0346  -0.03182  -0.008628  -0.01375  -0.9298  0.2543
6.356e+09  -0.6822  -0.4753  -0.02473  -0.04142  0.01057  0.0003402  -0.797  0.556
6.358e+09  -0.885  -0.2469  -0.01078  0.02406  0.01357  0.009283  -0.537  0.7897
6.359e+09  -0.8984  0.05912  -0.001604  -0.007094  -0.02075  -0.01163  -0.2398  0.9325
6.36e+09  -0.8605  0.3751  -0.0314  -0.02621  0.02957  0.02685  0.1032  0.9455
6.361e+09  -0.6188  0.6159  -0.007976  0.002554  0.03523  0.01253  0.3851  0.856
6.362e+09  -0.3863  0.7891  -0.01177  0.01683  0.02446  0.004362  0.6639  0.6556
6.364e+09  -0.05002  0.8908  -0.006689  0.01492  -0.01237  0.006692  0.8749  0.3752
6.365e+09  0.2735  0.8229  0.01459  0.02229  0.02147  0.0227  0.9229  0.0754
6.366e+09  0.5676  0.6992  -0.005821  -0.006149  -0.02984  0.02838  0.925  -0.2604
6.368e+09  0.751  0.46  0.001835  0.0178  0.002933  0.0217  0.7974  -0.5588
6.369e+09  0.859  0.2126  -0.01976  -0.02821  -0.002858  0.06128  0.5723  -0.7995
6.37e+09  0.905  -0.1003  -0.02009  -0.002494  0.008376  0.02589  0.25  -0.9307
6.371e+09  0.7435  -0.395  -0.01569  -0.005749  -0.007941  0.02107  -0.05047  -0.9373
6.372e+09  0.6102  -0.6647  0.001613  0.01166  0.01098  0.0197  -0.3759  -0.8577
6.374e+09  0.3268  -0.8548  0.01505  0.006319  0.004862  0.03945  -0.638  -0.6461
6.375e+09  0.0001638  -0.8829  0.03631  0.0366  -0.02374  0.01809  -0.887  -0.4343
6.376e+09  -0.2977  -0.833  -0.01232  0.01711  -0.009365  -0.01134  -0.9162  -0.1138
6.378e+09  -0.5577  -0.6314  0.009529  0.02529  0.02911  -0.01049  -0.8835  0.2681
6.379e+09  -0.7731  -0.4601  0.01506  0.04706  0.02331  0.000935  -0.7631  0.5269
6.38e+09  -0.8617  -0.1244  -0.0303  0.01635  0.009101  0.008639  -0.5595  0.7666
6.381e+09  -0.8537  0.1328  -0.03707  0.006329  -0.08463  -0.01718  -0.2593  0.9187
6.382e+09  -0.716  0.4827  0.05903  -0.04255  -0.02723  -0.06025  0.02744  0.9366
6.384e+09  -0.5535  0.7005  0.02174  0.0003764  -0.005092  -0.0338  0.3905  0.8568
6.385e+09  -0.2598  0.8234  0.001171  -0.04314  -0.00214  -0.0235  0.6057  0.6755
6.386e+09  0.0256  0.8674  -0.02561  -0.03271  0.003392  -0.02827  0.8134  0.438
6.388e+09  0.3281  0.8059  0.02557  -0.02245  0.04505  0.01329  0.9217  0.1026
6.389e+09  0.6124  0.6916  0.01569  -0.00433  0.01193  0.001425  0.9173  -0.2294
6.39e+09  0.8489  0.3579  -0.03414  0.004508  -0.02735  -0.005429  0.7649  -0.471
6.391e+09  0.8715  0.08921  0.01853  -0.02153  0.01674  0.008239  0.5614  -0.7782
6.392e+09  0.8398  -0.1755  -0.01964  0.02662  0.002419  -0.0393  0.2944  -0.8407
6.394e+09  0.7293  -0.4755  0.001642  0.01788  0.02573  0.0185  -0.05482  -0.8918
6.395e+09  0.5453  -0.7144  -0.04589  0.02403  0.005609  0.009618  -0.3395  -0.8641
6.396e+09  0.212  -0.8838  -0.004045  -0.04133  0.02007  0.02118  -0.5734  -0.695
6.398e+09  -0.08442  -0.8577  -0.02294  0.01611  0.03942  -0.003756  -0.7982  -0.3995
6.399e+09  -0.3347  -0.7767  0.00689  3.419e-05  -0.01331  -0.0498  -0.9464  -0.1456
6.4e+09  -0.6522  -0.5909  0.004837  -0.03645  0.0331  -0.0433  -0.9158  0.1459
6.401e+09  -0.8092  -0.3267  0.0368  0.02668  0.03529  -0.0002882  -0.8105  0.4926
6.402e+09  -0.8991  -0.08159  0.02098  -0.002024  -0.06062  -0.005512  -0.5961  0.7631
6.404e+09  -0.8573  0.2276  -0.009389  -0.01519  -0.03271  0.01863  -0.3247  0.859
6.405e+09  -0.7286  0.5274  -0.02451  0.05867  -0.003189  -0.05401  -0.01388  0.9231
6.406e+09  -0.5033  0.7204  -0.002007  0.02001  -0.005749  0.008128  0.2694  0.8779
6.408e+09  -0.1791  0.8626  -0.03521  0.01034  0.01578  0.02059  0.574  0.6964
6.409e+09  0.08759  0.8226  -0.03354  -0.02812  -0.04231  0.009136  0.8022  0.415
6.41e+09  0.4109  0.7648  -0.01389  0.01844  0.02984  0.003454  0.9104  0.1825
6.411e+09  0.6657  0.619  0.01632  0.004151  -0.02876  0.02537  0.8537  -0.1704
6.412e+09  0.8511  0.3759  0.02187  0.0003764  0.006664  -0.02821  0.8037  -0.441
6.414e+09  0.9019  -0.01319  -0.01594  0.0163  -0.0096  0.002335  0.5625  -0.6992
6.415e+09  0.7974  -0.2678  0.02996  0.005612  -0.02057  0.006071  0.3273  -0.8196
6.416e+09  0.7292  -0.524  -0.01452  0.02984  0.01514  0.05505  0.01496  -0.8477
6.418e+09  0.5151  -0.7461  0.001421  0.02234  0.00286  0.015  -0.2571  -0.8775
6.419e+09  0.142  -0.8489  -0.004816  0.01188  0.02159  0.007869  -0.5922  -0.7083
6.42e+09  -0.1224  -0.8414  0.02885  -0.06327  0.03871  0.02487  -0.7524  -0.4663
6.421e+09  -0.4589  -0.7769  0.01473  -0.0005209  -0.00484  0.01221  -0.9029  -0.1973
6.422e+09  -0.6292  -0.5866  -0.01883  0.004969  -0.02326  0.02799  -0.884  0.1485
6.424e+09  -0.822  -0.3164  -0.02026  0.009169  -0.03165  -0.03054  -0.7829  0.4125
6.425e+09  -0.9085  -0.02545  -0.0455  0.01353  0.001152  0.02567  -0.639  0.6699
6.426e+09  -0.8357  0.2579  -0.04656  -0.009008  0.006837  0.0141  -0.3283  0.8347
6.428e+09  -0.6503  0.5671  -0.01919  0.03182  0.02237  0.02322  -0.06959  0.8759
6.429e+09  -0.4123  0.7624  0.0281  -0.05046  -0.02159  0.006746  0.2369  0.8299
6.43e+09  -0.1672  0.8295  -0.02858  -0.003662  -0.03077  0.0007303  0.4809  0.7286
6.431e+09  0.1741  0.8515  0.001428  0.0007928  0.01308  0.004222  0.7019  0.4557
6.432e+09  0.4577  0.793  -0.006128  0.01782  -0.01029  -0.03749  0.8047  0.1708
6.434e+09  0.6782  0.5482  0.01237  -0.00404  -0.02848  0.0209  0.8452  -0.07481
6.435e+09  0.867  0.2999  -0.004674  0.001946  0.01009  -0.0338  0.7683  -0.3926
6.436e+09  0.8583  -0.004656  -0.01796  -0.004802  0.001455  -0.01259  0.5661  -0.6148
6.438e+09  0.7822  -0.3293  0.004634  0.006707  -0.02301  -0.01024  0.3595  -0.7753
6.439e+09  0.6961  -0.6234  0.001951  0.009348  -0.0137  -0.01639  0.05743  -0.8276
6.44e+09  0.431  -0.7308  -0.0104  -0.01855  -0.01089  -0.008885  -0.2501  -0.8349
6.441e+09  0.1301  -0.9105  0.01337  -0.008152  -0.02408  0.02421  -0.525  -0.6968
6.442e+09  -0.1258  -0.8414  -0.03189  0.002063  -0.0201  -0.04692  -0.6986  -0.5156
6.444e+09  -0.4225  -0.7466  -0.02748  -0.0002469  0.03721  -0.01188  -0.8026  -0.2094
6.445e+09  -0.7416  -0.561  -0.009559  -0.02184  0.02655  0.02999  -0.8292  0.04988
6.446e+09  -0.8305  -0.267  -0.05037  0.03459  0.0007311  -0.05297  -0.7378  0.3213
6.448e+09  -0.8887  0.05314  -0.008849  -0.01957  -0.01063  0.04544  -0.63  0.5829
6.449e+09  -0.7949  0.328  0.009455  0.04551  -0.006569  -0.02126  -0.3468  0.7532
6.45e+09  -0.6384  0.5646  0.03798  -0.03789  0.01611  -0.02176  -0.07301  0.8502
6.451e+09  -0.4032  0.7357  0.01758  0.04586  -0.02365  0.001174  0.1858  0.7581
6.452e+09  -0.1339  0.8461  -0.02191  -0.02663  -0.02456  -0.02772  0.4896  0.6368
6.454e+09  0.2029  0.843  -0.04997  -0.01468  0.01569  -0.004831  0.6991  0.4637
6.455e+09  0.5209  0.7861  0.01478  0.04449  -0.0143  0.005329  0.7812  0.1805
6.456e+09  0.7132  0.5597  0.006234  -0.0101  -0.04038  -0.004034  0.8175  -0.0767
6.458e+09  0.844  0.2657  0.002259  -0.04762  0.0003202  0.02028  0.7525  -0.3269
6.459e+09  0.8716  -0.00739  0.0281  -0.01131  -0.001249  -0.0242  0.5848  -0.5386
6.46e+09  0.7993  -0.3523  -0.0007596  0.01491  0.007923  0.007932  0.3139  -0.733
6.461e+09  0.6166  -0.5624  0.01549  0.03265  0.03815  -0.04342  0.06684  -0.8254
6.462e+09  0.397  -0.7725  -0.01381  -0.01936  -0.08322  0.03482  -0.2414  -0.7953
6.464e+09  0.1119  -0.8606  0.01768  0.004488  -0.03057  -0.02298  -0.5071  -0.6288
6.465e+09  -0.1493  -0.7941  -0.001948  -0.0207  -0.005433  -0.04789  -0.6896  -0.4639
6.466e+09  -0.4877  -0.8076  -0.03524  -0.01117  -0.04768  0.004377  -0.8323  -0.1896
6.468e+09  -0.725  -0.5342  -0.02596  0.0425  0.04643  -0.01216  -0.763  0.06674
6.469e+09  -0.8225  -0.2916  0.01966  0.01403  0.06338  0.002028  -0.6725  0.3297
6.47e+09  -0.8951  0.0721  0.009439  -0.01113  -0.01819  -0.03018  -0.5826  0.5965
6.471e+09  -0.8376  0.3509  0.03173  0.0196  0.03831  -0.009434  -0.3705  0.6827
6.472e+09  -0.6641  0.5935  -0.05935  0.003233  -0.006879  0.01178  -0.07308  0.8017
6.474e+09  -0.3564  0.806  -0.008558  0.01725  -0.03616  0.006976  0.1981  0.7635
6.475e+09  -0.1177  0.8662  0.01197  -0.03548  -0.005572  -0.04259  0.5245  0.6538
6.476e+09  0.1626  0.8292  -0.02194  -0.004623  0.01699  0.02617  0.6867  0.4396
6.478e+09  0.4801  0.7609  0.03832  -0.0182  -0.008567  0.007185  0.7789  0.2063
6.479e+09  0.7244  0.4858  0.005063  0.02602  -0.0006806  -0.01646  0.7827  -0.1221
6.48e+09  0.8343  0.2332  0.002087  0.02355  -0.01241  -0.02372  0.7546  -0.3386
6.481e+09  0.9276  -0.0819  0.01259  0.01357  -0.04914  -0.01505  0.5566  -0.5797
6.482e+09  0.8515  -0.3677  0.05728  0.02611  -0.01678  0.01172  0.327  -0.6908
6.484e+09  0.6286  -0.6172  0.0279  -0.05562  -0.01122  -0.03021  0.09823  -0.7701
6.485e+09  0.4154  -0.8134  -0.01415  0.02509  -0.05788  0.02045  -0.2129  -0.7338
6.486e+09  0.07086  -0.8979  0.0295  0.01719  -0.0136  -0.03558  -0.4519  -0.6331
6.488e+09  -0.2262  -0.86  0.006228  0.00256  -0.03941  0.004405  -0.6958  -0.4224
6.489e+09  -0.5604  -0.7685  0.02014  0.02129  0.003085  -0.07108  -0.7364  -0.1737
6.49e+09  -0.6945  -0.5002  0.004673  -0.02494  -0.0476  0.01616  -0.7717  0.06087
6.491e+09  -0.8718  -0.2481  0.001292  0.03002  0.008855  -0.02499  -0.6536  0.3346
6.492e+09  -0.9058  0.1209  -0.02192  0.01646  0.01037  -0.03373  -0.4971  0.5693
6.494e+09  -0.845  0.3606  0.03328  -0.02464  -0.004011  0.004683  -0.3343  0.7
6.495e+09  -0.6591  0.6031  0.02844  0.01671  0.01521  -0.01196  -0.04429  0.7759
6.496e+09  -0.3889  0.8335  0.01441  -0.0008304  0.03835  -0.02538  0.2204  0.7132
6.498e+09  -0.07445  0.8962  -0.004259  0.02984  0.01098  -0.01177  0.438  0.5958
6.499e+09  0.2522  0.9162  -0.03644  -0.01401  0.0159  -0.008591  0.6496  0.3991
6.5e+09  0.5507  0.781  -0.003698  -0.03578  0.0275  0.04743  0.7497  0.1266
6.501e+09  0.7346  0.5114  0.008827  -0.02087  -0.002279  0.005067  0.7717  -0.09621
6.502e+09  0.9067  0.2517  0.04517  -0.01788  0.0157  -0.0388  0.6608  -0.352
6.504e+09  0.8808  -0.1039  0.02814  0.008417  -0.03913  0.03519  0.4992  -0.5614
6.505e+09  0.8345  -0.4073  0.01242  0.01679  0.01205  -0.01253  0.2319  -0.7205
6.506e+09  0.6269  -0.6366  -0.008309  0.01518  -0.01746  0.02585  0.005068  -0.7423
6.508e+09  0.3381  -0.8221  -0.01802  0.04006  0.02406  -0.025  -0.2351  -0.7242
6.509e+09  0.09371  -0.9677  0.01744  0.04365  -0.001069  -0.004131  -0.4791  -0.5967
6.51e+09  -0.2959  -0.921  -0.02776  -0.001487  0.06666  -0.02289  -0.6475  -0.4124
6.511e+09  -0.5541  -0.8134  0.005953  0.005958  -0.05262  -0.004695  -0.7555  -0.1294
6.512e+09  -0.821  -0.4836  -0.01634  0.007319  -0.03339  -0.01703  -0.715  0.1173
6.514e+09  -0.9509  -0.1765  -0.002763  -0.02945  0.04687  0.009924  -0.6179  0.3469
6.515e+09  -0.9166  0.1892  0.04925  0.02066  -0.02935  0.03494  -0.4574  0.571
6.516e+09  -0.8415  0.4613  -0.04187  -0.005775  0.01964  -0.03621  -0.2233  0.7131
6.518e+09  -0.603  0.7287  0.01544  0.01868  0.01668  0.03548  0.000367  0.7315
6.519e+09  -0.3423  0.8603  -0.01361  -0.02532  -0.06192  -0.04207  0.2507  0.7006
6.52e+09  -0.02176  0.9211  0.02582  -0.04169  0.003141  -0.004809  0.4605  0.5456
6.521e+09  0.2976  0.9138  0.01113  0.01896  0.02368  -0.0117  0.6546  0.3674
6.522e+09  0.6068  0.7503  0.001393  0.003738  0.04223  0.02156  0.7222  0.09821
6.524e+09  0.8061  0.4941  -0.004304  -0.001414  -0.04791  -0.0191  0.7243  -0.1499
6.525e+09  0.9524  0.1697  -0.0002713  0.002192  0.008797  -0.03855  0.6339  -0.3732
6.526e+09  0.9545  -0.1373  0.002241  0.01956  0.04919  -0.01139  0.417  -0.5643
6.528e+09  0.8235  -0.4688  0.005418  0.03242  -0.0324  0.02212  0.2063  -0.663
6.529e+09  0.6265  -0.7473  -0.02257  -0.009705  -0.05099  -0.0302  -0.1024  -0.7376
6.53e+09  0.3371  -0.9303  0.01822  0.01183  0.001265  0.02571  -0.2803  -0.6291
6.531e+09  -0.08926  -0.9964  -0.01934  -0.01484  -0.002615  -0.00151  -0.4751  -0.5099
6.532e+09  -0.3493  -0.9184  -0.01529  -0.03061  0.01236  0.02081  -0.6067  -0.2794
6.534e+09  -0.6026  -0.6849  -0.02662  0.02904  0.008431  0.002073  -0.6389  -0.08081
6.535e+09  -0.9111  -0.5096  0.01078  0.008957  0.01567  0.03226  -0.627  0.1158
6.536e+09  -1.023  -0.06705  0.01061  -0.0001694  -0.0308  -0.01736  -0.5746  0.3185
6.538e+09  -0.992  0.2358  -0.004273  -0.002251  0.002083  -0.0369  -0.4256  0.4763
6.539e+09  -0.8415  0.5423  0.02779  0.01347  0.04249  0.06535  -0.2854  0.599
6.54e+09  -0.6124  0.786  -0.0002304  -0.01536  -0.01754  0.02944  -0.03978  0.682
6.541e+09  -0.2677  0.9132  -0.005651  -0.001147  0.0163  -0.02117  0.2029  0.69
6.542e+09  0.07549  0.9872  -0.03068  0.005107  0.002451  0.01693  0.4156  0.5854
6.544e+09  0.417  0.8442  0.01162  0.01292  -0.06172  -0.01063  0.5845  0.4275
6.545e+09  0.7072  0.6912  -0.006186  0.02629  0.01404  -0.02404  0.6835  0.1485
6.546e+09  0.9088  0.3968  0.004155  -0.02451  0.004131  0.03  0.7201  -0.1123
6.548e+09  0.9571  0.04206  -0.0006209  0.01043  -0.01187  0.001209  0.6324  -0.3315
6.549e+09  0.9628  -0.2529  0.001488  -0.01203  -0.03885  0.007181  0.5063  -0.5305
6.55e+09  0.8126  -0.6112  -0.02504  0.002582  -0.009256  -0.01437  0.2717  -0.6723
6.551e+09  0.5107  -0.868  -0.01854  0.01339  0.001645  -0.003238  0.07008  -0.7661
