# Hz S RI R 50
6.25e+09  -0.6391  0.5575  -0.02232  0.00128  -0.004454  -0.001503  0.1739  0.4761
6.251e+09  -0.4042  0.7609  -0.03099  0.004188  -0.04001  0.0008201  0.3822  0.4173
6.252e+09  -0.114  0.8785  -0.01661  -0.05094  -0.02134  -0.0337  0.5406  0.2225
6.254e+09  0.2146  0.8409  0.004898  -0.01894  0.02231  0.0413  0.5992  0.01412
6.255e+09  0.506  0.7004  0.01732  0.01591  0.01411  -0.02869  0.5856  -0.2482
6.256e+09  0.6572  0.4778  -0.01456  0.004637  0.01974  0.009191  0.4809  -0.4567
6.258e+09  0.8257  0.2219  0.009079  0.0039  -0.00805  0.03078  0.2781  -0.6119
6.259e+09  0.8271  -0.04808  -0.01129  -0.01543  -0.02184  0.003882  0.03468  -0.6534
6.26e+09  0.7694  -0.2807  -0.0004361  -0.05517  -0.04889  0.001811  -0.1933  -0.669
6.261e+09  0.6125  -0.577  -0.01151  0.004518  -0.004508  -0.001409  -0.4453  -0.5339
6.262e+09  0.4465  -0.7307  -0.03747  0.01306  -0.04907  -0.01366  -0.5864  -0.3616
6.264e+09  0.04882  -0.8372  -0.003605  -0.0007463  0.00342  -0.03413  -0.7085  -0.1099
6.265e+09  -0.165  -0.8099  0.007724  0.01759  -0.0128  -0.007757  -0.6922  0.1389
6.266e+09  -0.4314  -0.6531  0.01136  0.004273  -0.03341  0.0009589  -0.5889  0.395
6.268e+09  -0.6875  -0.4842  0.01371  0.005771  -0.03059  0.01054  -0.4286  0.5991
6.269e+09  -0.8304  -0.2669  0.01966  -0.002707  -0.07389  0.04127  -0.2103  0.7049
6.27e+09  -0.8216  0.01779  -0.002881  -0.01472  -0.03855  -0.06108  0.04354  0.744
6.271e+09  -0.789  0.3663  -0.01372  -0.02547  -0.0269  0.02396  0.3241  0.6648
6.272e+09  -0.5998  0.5639  -0.01392  0.0007081  -0.02907  0.01073  0.554  0.515
6.274e+09  -0.4341  0.7042  0.02729  -0.003043  -0.004523  0.01311  0.724  0.3202
6.275e+09  -0.09987  0.8212  0.01286  -0.003474  -0.02382  -0.01319  0.7594  0.07411
6.276e+09  0.165  0.7371  -0.01475  -0.02265  -0.04635  0.04785  0.7148  -0.1941
6.278e+09  0.4724  0.6445  0.02664  0.05271  0.005305  -0.04441  0.5963  -0.4437
6.279e+09  0.6886  0.4899  -0.00879  -0.01563  0.02013  -0.02457  0.43  -0.6485
6.28e+09  0.8004  0.2197  0.02849  0.03378  0.005448  -0.01958  0.1591  -0.7737
6.281e+09  0.8491  -0.04648  -0.004425  0.01655  -0.0129  -0.004421  -0.108  -0.7768
6.282e+09  0.7407  -0.3876  -0.01136  -0.001016  -0.03528  0.0117  -0.347  -0.7094
6.284e+09  0.5679  -0.6168  -0.02904  0.00375  0.02406  -0.004292  -0.5608  -0.521
6.285e+09  0.346  -0.7193  0.006483  -0.03771  0.005429  -0.02234  -0.7426  -0.3127
6.286e+09  0.08556  -0.8284  0.01445  0.01263  -0.0114  -0.01039  -0.8214  -0.01645
6.288e+09  -0.2108  -0.8345  0.002398  0.01937  -0.02062  0.04798  -0.7625  0.2456
6.289e+09  -0.4383  -0.7083  0.003795  0.02387  -0.001259  0.02064  -0.6302  0.4885
6.29e+09  -0.7309  -0.5018  0.0133  0.01157  -0.01771  -0.0008862  -0.3896  0.6935
6.291e+09  -0.8238  -0.2492  -0.04599  -0.01108  -0.02187  -0.04705  -0.151  0.7782
6.292e+09  -0.7769  0.08321  -0.01396  0.01183  0.05499  -0.01803  0.1649  0.8066
6.294e+09  -0.718  0.3418  -0.01343  0.03457  0.01535  -0.008239  0.4261  0.6834
6.295e+09  -0.5442  0.5867  -0.01849  -0.01513  0.04301  -0.02365  0.6291  0.565
6.296e+09  -0.305  0.8339  -0.009035  -0.004417  -0.0164  -0.00637  0.7895  0.3092
6.298e+09  -0.074  0.8  -0.007903  -0.03042  0.02072  -0.01383  0.8091  0.0184
6.299e+09  0.2512  0.7876  -0.003014  -0.004426  -0.04516  -0.001649  0.807  -0.2578
6.3e+09  0.4397  0.6571  -0.02198  0.005152  0.005273  -0.009245  0.6392  -0.5616
6.301e+09  0.7038  0.4465  0.0548  0.02014  0.01739  -0.001084  0.3965  -0.729
6.302e+09  0.8301  0.1705  0.006243  -0.02633  0.02737  0.02011  0.1443  -0.7921
6.304e+09  0.8391  -0.07915  -0.005907  0.02051  0.04771  -0.01672  -0.1467  -0.8307
6.305e+09  0.7568  -0.4301  0.02466  0.001554  0.004556  -0.063  -0.4245  -0.7501
6.306e+09  0.5586  -0.623  -0.0081  0.003102  -0.0293  -0.002056  -0.6337  -0.5713
6.308e+09  0.3356  -0.7953  0.005155  0.009545  -0.01249  -0.0008998  -0.8059  -0.2966
6.309e+09  0.0001186  -0.8283  -0.003967  -0.004298  -0.01238  0.01546  -0.9034  -0.02531
6.31e+09  -0.2682  -0.779  -0.02756  0.004725  -0.03707  -0.0318  -0.8137  0.3037
6.311e+09  -0.5126  -0.6476  0.01565  -0.01318  -0.002737  0.02892  -0.6566  0.5092
6.312e+09  -0.8026  -0.423  -0.01011  0.01216  -0.00457  -0.001181  -0.4587  0.7782
6.314e+09  -0.7989  -0.1311  0.02807  4.216e-05  -0.01943  -0.02596  -0.1662  0.8772
6.315e+09  -0.8503  0.1223  0.01559  0.02425  -0.006828  0.01944  0.1405  0.8563
6.316e+09  -0.7195  0.379  -0.01354  -0.009213  0.009867  -0.05398  0.427  0.7611
6.318e+09  -0.5346  0.6537  0.01313  0.02538  -0.0004604  -0.06622  0.6743  0.5457
6.319e+09  -0.3196  0.835  0.01612  -0.03048  -0.02204  0.02406  0.8401  0.3397
6.32e+09  -0.02471  0.828  -0.02464  0.02014  -0.02018  -0.003591  0.8926  0.03845
6.321e+09  0.3047  0.772  0.00354  -0.01455  0.006073  -0.04741  0.8627  -0.2911
6.322e+09  0.5412  0.5941  -0.01261  0.03858  -0.0296  -0.005986  0.7046  -0.5646
6.324e+09  0.7562  0.432  0.008073  -0.01225  0.02798  -0.003832  0.4322  -0.7715
6.325e+09  0.8607  0.1596  -0.02306  0.03026  0.0494  -0.05592  0.1766  -0.9163
6.326e+09  0.83  -0.2164  0.004068  0.01254  0.009084  0.02114  -0.1239  -0.8888
6.328e+09  0.7299  -0.494  -0.001162  -0.02486  0.004368  0.01074  -0.4702  -0.8197
6.329e+09  0.4719  -0.7175  0.01453  -0.0109  0.03274  0.01734  -0.6917  -0.5929
6.33e+09  0.2519  -0.8007  0.02165  -0.01729  -0.01702  0.005988  -0.8615  -0.3521
6.331e+09  -0.0865  -0.8925  0.02787  -0.0003751  0.05652  -0.02541  -0.901  -0.03418
6.332e+09  -0.328  -0.8451  0.002068  -0.005755  -0.02058  0.004953  -0.8717  0.3076
6.334e+09  -0.6416  -0.5953  0.008444  0.02105  -0.006801  0.05675  -0.7471  0.5728
6.335e+09  -0.7987  -0.3684  0.008754  0.009405  0.0332  0.0101  -0.483  0.7524
6.336e+09  -0.8512  -0.08849  -0.04326  -0.01898  -0.02918  -0.02402  -0.1292  0.8881
6.338e+09  -0.8467  0.2469  -0.01404  0.01287  -0.01337  -0.01803  0.1259  0.9284
6.339e+09  -0.6746  0.4958  0.007009  0.003533  0.04862  -0.0124  0.4354  0.7965
6.34e+09  -0.4844  0.7401  -0.01785  0.01695  -0.0391  -0.004315  0.6842  0.6034
6.341e+09  -0.2167  0.8411  -0.01855  -0.01959  0.01009  0.01541  0.8622  0.3321
6.342e+09  0.1053  0.8452  0.01539  -0.0004771  -0.01836  -0.03043  0.9158  0.0432
6.344e+09  0.4324  0.7746  0.03073  0.003482  0.02556  0.006703  0.9059  -0.2564
6.345e+09  0.6364  0.5961  -0.001684  -0.0309  -0.02606  -0.04881  0.7274  -0.5947
6.346e+09  0.8395  0.2876  0.01133  0.01198  0.02179  -0.01168  0.5214  -0.7846
6.348e+09  0.8803  0.004401  0.008627  0.03253  -0.03012  0.007577  0.2045  -0.9174
6.349e+09  0.8005  -0.3069  0.02063  -0.001591  -0.0087  0.005191  -0.1265  -0.9208
6.35e+09  0.6721  -0.6137  0.01993  0.01539  -0.01397  0.03155  -0.4303  -0.8375
6.351e+09  0.4687  -0.7414  0.02497  -0.02622  -0.01059  -0.02508  -0.6502  -0.6222
6.352e+09  0.1553  -0.8369  0.02102  -0.0385  -0.05508  0.01873  -0.865  -0.3846
6.354e+09  -0.2027  -0.856  0.01432  -0.002072  0.06382  0.04416  -0.9298  -0.07835
6.355e+09  -0.491  -0.7474  -0.01377  -0.04919  -0.04193  -0.02951  -0.9181  0.2717
6.356e+09  -0.7099  -0.5567  0.01104  0.004267  -0.01065  0.004596  -0.7465  0.4981
6.358e+09  -0.8762  -0.2634  0.01333  -0.01045  0.005092  -0.01484  -0.5187  0.7985
6.359e+09  -0.8593  0.04052  0.01273  -0.03118  0.0355  0.01253  -0.2072  0.9182
6.36e+09  -0.8132  0.3411  -0.01804  -0.009141  0.04081  -0.006957  0.1066  0.948
6.361e+09  -0.6503  0.6041  -0.004629  0.01788  0.001796  -0.0229  0.4209  0.8554
6.362e+09  -0.4025  0.809  0.01386  0.002882  -0.006724  -0.04355  0.659  0.6713
6.364e+09  -0.07727  0.8596  0.001454  -0.009155  0.02024  -0.008005  0.8814  0.4458
6.365e+09  0.233  0.8709  -0.0171  0.03382  -0.02365  0.02841  0.9385  0.09845
6.366e+09  0.5262  0.6948  -0.009078  -0.01744  0.04371  0.02419  0.9334  -0.2536
6.368e+09  0.7607  0.4602  0.03542  0.01931  -0.01467  -0.003168  0.7364  -0.5526
6.369e+09  0.8934  0.1776  0.01775  -0.0005115  0.0346  -0.03853  0.5368  -0.7854
6.37e+09  0.8855  -0.06016  -0.02354  -0.00545  -0.02982  -0.01648  0.2619  -0.8997
6.371e+09  0.7977  -0.3785  0.009916  -0.0156  0.03736  0.02762  -0.03175  -0.9943
6.372e+09  0.5655  -0.6441  0.0132  0.04088  -0.01303  0.004301  -0.389  -0.8516
6.374e+09  0.3066  -0.8342  0.007118  0.001504  0.009302  0.002867  -0.693  -0.6794
6.375e+09  -0.00862  -0.9271  0.008845  0.0003073  -0.01325  0.01701  -0.8867  -0.4001
6.376e+09  -0.2714  -0.8721  -0.02301  0.01423  -0.01201  -0.001362  -0.9272  -0.05753
6.378e+09  -0.5359  -0.6653  -0.002489  -0.02167  0.03031  0.01942  -0.9048  0.2401
6.379e+09  -0.7326  -0.4176  0.003889  -0.03838  -0.02142  0.001653  -0.7781  0.4956
6.38e+09  -0.8728  -0.1458  0.03581  0.0212  0.02981  -0.03123  -0.5662  0.7623
6.381e+09  -0.8564  0.1836  0.01948  -0.01296  -0.06142  0.009982  -0.2908  0.898
6.382e+09  -0.7797  0.4658  0.01199  0.004565  -0.09336  -0.04226  0.05664  0.9516
6.384e+09  -0.5374  0.7139  -0.02172  0.001897  0.03606  -0.03331  0.3793  0.896
6.385e+09  -0.2839  0.8669  0.01727  -0.0217  -0.01317  -0.03238  0.6756  0.6961
6.386e+09  0.04215  0.8833  0.0258  -0.006211  -0.005464  -0.03214  0.8618  0.4488
6.388e+09  0.3061  0.8603  0.01078  0.01143  0.02807  0.03087  0.9403  0.1477
6.389e+09  0.6137  0.6823  0.03376  0.004316  0.004282  0.01691  0.9493  -0.2013
6.39e+09  0.785  0.4344  -0.004255  0.002311  -0.01846  -0.0234  0.797  -0.519
6.391e+09  0.8878  0.1089  0.001191  -0.001025  -0.03198  0.004397  0.5361  -0.7229
6.392e+09  0.8419  -0.1945  -0.03975  -0.0004353  0.05173  0.05312  0.3021  -0.8658
6.394e+09  0.6899  -0.4797  -0.009921  0.01693  0.06104  0.03031  -0.03318  -0.9581
6.395e+09  0.493  -0.7424  -0.01778  0.008965  -0.01826  -0.03907  -0.3123  -0.8435
6.396e+09  0.2033  -0.8626  0.01024  -0.01842  -0.0466  -0.004663  -0.6527  -0.6937
6.398e+09  -0.04713  -0.9302  -0.02451  -0.0379  -0.01705  0.01816  -0.8278  -0.5153
6.399e+09  -0.4151  -0.7941  0.005767  -0.02267  0.04027  0.005944  -0.9046  -0.1649
6.4e+09  -0.6168  -0.6454  0.02193  -0.005807  -0.01666  0.02622  -0.9354  0.2
6.401e+09  -0.7813  -0.3804  0.01615  0.01224  -0.006981  -0.06365  -0.8135  0.4693
6.402e+09  -0.906  -0.04928  -0.01167  -0.022  0.01875  -0.007904  -0.5891  0.7079
6.404e+09  -0.8436  0.2467  -0.01389  0.026  -0.01473  -0.02719  -0.3189  0.8156
6.405e+09  -0.6914  0.5344  -0.01125  0.01378  0.02657  0.01042  0.003898  0.9596
6.406e+09  -0.5106  0.7344  0.006138  0.00287  -0.02504  0.0353  0.2671  0.9083
6.408e+09  -0.2308  0.8558  0.01824  0.01686  -0.05327  -0.004553  0.6027  0.7001
6.409e+09  0.116  0.8438  -0.02131  -0.03023  -0.005837  -0.04217  0.7788  0.4383
6.41e+09  0.3793  0.8125  -0.002778  -0.03846  0.03497  -0.001674  0.8734  0.1638
6.411e+09  0.6027  0.5615  0.00346  0.02324  0.006203  0.001764  0.9176  -0.1149
6.412e+09  0.8058  0.3532  0.01662  0.01437  0.02109  -0.01766  0.7754  -0.4552
6.414e+09  0.8737  0.03738  0.007805  -0.002522  0.03274  -0.01728  0.6012  -0.6718
6.415e+09  0.8421  -0.2975  0.02805  0.03143  0.003332  -0.03269  0.3424  -0.8218
6.416e+09  0.7212  -0.5329  0.02497  -0.04475  -0.01262  -0.00256  0.05448  -0.9454
6.418e+09  0.4526  -0.7366  -0.01606  -0.05834  0.01033  0.03402  -0.2556  -0.8555
6.419e+09  0.09301  -0.8905  0.0187  0.02571  0.02385  0.03488  -0.5628  -0.7093
6.42e+09  -0.1133  -0.8331  0.03629  -0.009371  -0.01012  -0.02209  -0.7388  -0.4942
6.421e+09  -0.4185  -0.7986  -0.009788  -0.009729  -0.006698  0.004163  -0.884  -0.1786
6.422e+09  -0.6678  -0.5125  0.006702  0.01353  0.0007649  -0.01266  -0.867  0.1418
6.424e+09  -0.8185  -0.3241  -0.001756  -0.02906  -0.01154  -0.02888  -0.7791  0.3611
6.425e+09  -0.9109  -0.0005139  0.01242  -0.0184  -0.005703  -0.01074  -0.6177  0.6408
6.426e+09  -0.7857  0.3024  -0.02311  0.005017  0.00962  0.01952  -0.3393  0.7937
6.428e+09  -0.696  0.5282  0.01151  -0.06267  0.01073  -0.0009387  -0.05709  0.8967
6.429e+09  -0.4363  0.8224  0.01307  -0.01077  -0.01737  0.01582  0.2394  0.8365
6.43e+09  -0.1042  0.8623  -0.004087  0.02745  0.03374  -0.02126  0.5196  0.6931
6.431e+09  0.1979  0.818  0.04522  -0.02555  -0.0553  0.02422  0.7116  0.4819
6.432e+09  0.4089  0.7727  0.002208  0.03312  0.03376  -0.04242  0.8231  0.1888
6.434e+09  0.6219  0.5995  0.02864  -0.01205  0.0099  0.04209  0.8722  -0.07477
6.435e+09  0.8134  0.2798  -0.02635  -0.01685  -0.02408  -0.007918  0.7819  -0.3468
6.436e+09  0.8833  -0.03962  0.001679  -0.006183  -0.02796  0.008495  0.6083  -0.6003
6.438e+09  0.8161  -0.337  0.03036  -0.00422  0.01655  -0.04502  0.3203  -0.8171
6.439e+09  0.6967  -0.5637  0.005479  -0.02596  0.01074  0.07719  0.0387  -0.8712
6.44e+09  0.4158  -0.737  0.01171  -0.03941  -0.01268  -0.04614  -0.2219  -0.8009
6.441e+09  0.1131  -0.8591  -0.02146  0.007332  0.05548  0.0001386  -0.5062  -0.7447
6.442e+09  -0.1572  -0.8232  0.06239  0.02297  0.01088  -0.06188  -0.6858  -0.4816
6.444e+09  -0.4798  -0.7791  0.01551  -0.01235  0.001661  0.03695  -0.8366  -0.1676
6.445e+09  -0.6744  -0.555  -0.003295  -0.03356  0.04844  0.01845  -0.8537  0.05644
6.446e+09  -0.8095  -0.2565  -0.01759  0.01438  -0.02765  0.001996  -0.764  0.3742
6.448e+09  -0.8954  0.01713  0.01565  0.02484  0.001639  0.01204  -0.606  0.599
6.449e+09  -0.8162  0.3153  0.03582  0.003639  -0.03409  0.02453  -0.3111  0.7708
6.45e+09  -0.6139  0.5545  -0.02515  0.034  0.02545  -0.06066  -0.03433  0.82
6.451e+09  -0.3866  0.7389  0.01781  -0.02193  0.06161  0.02953  0.2434  0.8034
6.452e+09  -0.119  0.8499  -0.01327  0.001018  -0.01886  0.04897  0.4933  0.6522
6.454e+09  0.1929  0.857  -0.001569  0.02113  0.007002  0.006414  0.6724  0.4869
6.455e+09  0.4901  0.7535  -0.00421  0.03773  0.03642  0.04332  0.8111  0.1779
6.456e+09  0.6714  0.5264  0.05819  -0.02589  -0.03479  -0.02545  0.8626  -0.0527
6.458e+09  0.8698  0.2608  -0.06081  0.04764  -0.02697  0.0187  0.7338  -0.3638
6.459e+09  0.8266  -0.001801  -0.01672  0.01676  0.03275  0.002038  0.5695  -0.6089
6.46e+09  0.8188  -0.3162  -0.003378  0.007896  -0.02686  -0.01167  0.3475  -0.7853
6.461e+09  0.6671  -0.6169  0.005474  -0.04165  -0.005373  -0.008109  0.03806  -0.8337
6.462e+09  0.4139  -0.7689  0.01106  -0.003928  0.02706  0.005456  -0.2616  -0.777
6.464e+09  0.1262  -0.8639  0.009927  0.02537  -0.006883  0.001034  -0.4985  -0.6497
6.465e+09  -0.2514  -0.8091  -0.005838  0.03179  -0.05741  -0.01519  -0.6512  -0.4506
6.466e+09  -0.4416  -0.7751  0.02716  -0.06233  -0.04212  -0.005328  -0.7777  -0.2402
6.468e+09  -0.6611  -0.5515  0.02613  0.01303  0.01861  0.03155  -0.7747  0.09992
6.469e+09  -0.8452  -0.275  -0.02276  0.02021  -0.002688  0.04541  -0.7313  0.3478
6.47e+09  -0.9324  0.007463  -0.001559  -0.007117  0.008219  -0.01574  -0.5493  0.5963
6.471e+09  -0.7921  0.3221  0.014  -0.01556  -0.03263  0.04272  -0.3073  0.7313
6.472e+09  -0.6935  0.6453  -0.0005341  0.02131  -0.01179  -0.0275  -0.05174  0.7848
6.474e+09  -0.3859  0.7771  0.01487  -0.01076  0.02461  -0.01701  0.1785  0.8261
6.475e+09  -0.1023  0.8816  0.005511  0.01168  -0.00327  -0.03127  0.4841  0.6443
6.476e+09  0.1354  0.8808  0.002964  0.0113  0.03867  -0.02404  0.6556  0.486
6.478e+09  0.4741  0.7784  0.04478  -0.03676  0.03588  0.03428  0.7849  0.1865
6.479e+09  0.6967  0.545  0.03511  0.005963  0.01274  -0.007138  0.7247  -0.03749
6.48e+09  0.8436  0.2273  -0.01242  -0.02013  -0.008632  0.02088  0.7156  -0.3727
6.481e+09  0.9559  -0.05526  0.0355  -0.001966  0.01982  -0.02392  0.5704  -0.5665
6.482e+09  0.8452  -0.386  -0.02891  0.002956  -0.06274  0.003575  0.3588  -0.7468
6.484e+09  0.6304  -0.6629  -0.00982  0.007025  0.02678  -0.03724  0.04417  -0.8211
6.485e+09  0.4131  -0.7772  0.02006  0.03006  0.004149  -0.06671  -0.2161  -0.735
6.486e+09  0.119  -0.891  -0.01538  -0.008805  -0.0124  -0.02261  -0.483  -0.6311
6.488e+09  -0.1996  -0.8897  0.01744  0.02735  -0.01637  -0.03325  -0.6193  -0.4453
6.489e+09  -0.5094  -0.7306  -0.009824  0.01428  0.02338  0.01239  -0.7599  -0.1712
6.49e+09  -0.7321  -0.5273  -0.02779  -0.008251  -0.05853  0.008459  -0.7964  0.1023
6.491e+09  -0.8357  -0.2296  -0.01214  0.01284  -0.01591  -0.02235  -0.6782  0.3174
6.492e+09  -0.8257  -0.0002662  0.01225  0.03164  -0.06429  -0.0194  -0.5491  0.5277
6.494e+09  -0.8386  0.3404  0.01248  -0.004287  -0.009382  0.01575  -0.3352  0.6956
6.495e+09  -0.657  0.609  0.02821  -0.01157  -0.01179  0.01476  -0.007769  0.7388
6.496e+09  -0.4307  0.8281  0.004166  -0.007513  0.03334  -0.02555  0.2179  0.7261
6.498e+09  -0.0765  0.8642  -0.0154  -0.0007115  0.0413  -0.01624  0.4733  0.5903
6.499e+09  0.21  0.8863  0.002512  -0.02757  0.0171  -0.02273  0.6186  0.3968
6.5e+09  0.5533  0.7423  -0.007701  -0.0557  0.009265  0.02733  0.7376  0.1439
6.501e+09  0.7593  0.555  0.01527  -0.02294  -0.02474  -0.01489  0.7605  -0.1115
6.502e+09  0.8891  0.222  -0.003121  0.0161  0.01054  0.01532  0.696  -0.3971
6.504e+09  0.8772  -0.04568  0.01103  -0.04237  -0.01539  0.01836  0.5096  -0.5659
6.505e+09  0.8287  -0.3501  -0.01781  0.01428  -0.0307  -0.02982  0.2741  -0.7367
6.506e+09  0.6235  -0.7091  -0.04029  0.01566  0.07814  -0.03087  0.0301  -0.7858
6.508e+09  0.361  -0.8507  -5.529e-05  -0.04134  0.01367  -0.01256  -0.2401  -0.735
6.509e+09  0.01284  -0.8912  -0.006411  -0.002763  -0.01799  0.01736  -0.4819  -0.5693
6.51e+09  -0.256  -0.8594  0.01316  -0.01967  0.002101  -0.01581  -0.6545  -0.3976
6.511e+09  -0.571  -0.7794  0.005889  -0.007562  0.007652  0.01047  -0.7435  -0.1354
6.512e+09  -0.7755  -0.5249  -0.004827  -0.0008523  -0.03659  -0.003042  -0.7656  0.1354
6.514e+09  -0.8542  -0.2161  -0.006451  0.02988  -0.03359  0.03448  -0.6738  0.3462
6.515e+09  -0.9391  0.1062  0.03378  0.01047  -0.01852  0.03182  -0.5171  0.6186
6.516e+09  -0.8579  0.4633  0.0227  -0.02175  0.02248  -0.01854  -0.2225  0.6809
6.518e+09  -0.6694  0.6722  0.002517  0.01792  0.005331  0.01958  0.01774  0.7685
6.519e+09  -0.3817  0.8933  -0.01605  0.01853  -0.01189  0.006179  0.2558  0.7248
6.52e+09  -0.02917  0.9511  -0.0251  0.005209  0.06438  -0.08189  0.5121  0.6107
6.521e+09  0.2561  0.911  0.03067  0.008704  -0.007887  0.03888  0.6416  0.3245
6.522e+09  0.6064  0.67  -0.02442  -0.002067  0.0188  -0.01526  0.7329  0.1337
6.524e+09  0.8722  0.4661  0.02319  -0.01739  -0.03145  0.019  0.6953  -0.1583
6.525e+09  0.9286  0.1908  0.01556  -0.03568  -0.02243  -0.02444  0.6233  -0.4104
6.526e+09  0.9862  -0.1529  0.05275  -0.004172  -0.001064  -0.04124  0.4568  -0.5455
6.528e+09  0.8703  -0.4684  0.04566  -0.0115  -0.02433  -0.01719  0.1643  -0.6749
6.529e+09  0.6614  -0.7379  0.00327  -0.004546  -0.04107  -0.0415  -0.07637  -0.7295
6.53e+09  0.3491  -0.9192  -0.01702  -0.03247  -0.01448  -0.04277  -0.284  -0.6245
6.531e+09  -0.008039  -0.9865  -8.595e-05  -0.01887  -0.04886  -0.00494  -0.4774  -0.503
6.532e+09  -0.3499  -0.9028  0.01422  -0.01081  -0.02096  0.02976  -0.6131  -0.2938
6.534e+09  -0.6361  -0.6896  0.01638  -0.001268  0.01685  0.02849  -0.6313  -0.04417
6.535e+09  -0.8598  -0.425  0.008696  0.009914  0.0502  0.001036  -0.6495  0.1164
6.536e+09  -0.9937  -0.09421  0.04064  -0.005673  0.01217  0.02344  -0.552  0.3337
6.538e+09  -0.9429  0.1927  0.008345  0.001083  -0.018  0.03074  -0.4521  0.468
6.539e+09  -0.7807  0.5738  -0.03803  0.02285  -7.486e-05  0.03051  -0.2365  0.6136
6.54e+09  -0.5716  0.7281  -0.02198  -0.01956  -0.007254  -0.02369  -0.02515  0.6703
6.541e+09  -0.2692  0.9613  -0.05749  0.002046  -0.001319  0.02826  0.2153  0.6754
6.542e+09  0.08673  0.9744  -0.01603  -0.01934  -0.006987  -0.003141  0.4354  0.5731
6.544e+09  0.4337  0.9009  0.0188  0.0193  -0.02703  0.01778  0.6058  0.405
6.545e+09  0.6923  0.7508  0.001044  -0.01035  -0.001233  0.05496  0.6898  0.2047
6.546e+09  0.865  0.3933  -0.01556  -0.001203  -0.009571  0.03916  0.6728  -0.09677
6.548e+09  0.963  0.01417  -0.007678  0.008291  0.003891  -0.006246  0.6566  -0.3293
6.549e+09  0.9076  -0.3044  0.009319  0.004004  -0.05008  -0.006093  0.5476  -0.5597
6.55e+09  0.8215  -0.5872  0.04013  -0.01462  0.002642  -0.04267  0.2965  -0.6241
