# Hz S RI R 50
6.25e+09  -0.6152  0.6326  -0.02616  -0.02873  0.007845  -0.03274  0.1586  0.4771
6.251e+09  -0.4207  0.7525  0.0121  0.01133  0.03219  -0.02356  0.3813  0.4093
6.252e+09  -0.1285  0.7941  -0.02356  -0.03781  0.02592  -0.008941  0.555  0.2797
6.254e+09  0.1013  0.858  -0.02926  0.01994  -0.04663  0.04855  0.605  -0.008278
6.255e+09  0.417  0.7654  -0.01369  0.004842  0.02983  0.007087  0.5783  -0.2289
6.256e+09  0.657  0.5366  0.04166  0.04309  -0.01238  0.02749  0.4659  -0.4324
6.258e+09  0.834  0.2704  -0.004432  -0.02592  -0.01073  0.001267  0.2985  -0.6311
6.259e+09  0.7987  -0.04359  -0.004909  0.006659  0.02229  0.02654  0.008873  -0.6736
6.26e+09  0.7888  -0.3238  0.02602  0.004293  0.0151  0.01226  -0.2033  -0.6488
6.261e+09  0.6108  -0.5552  0.03595  0.00577  -0.05837  0.002272  -0.4419  -0.5364
6.262e+09  0.3747  -0.8078  0.01147  0.004742  -0.04317  -0.01945  -0.6041  -0.3294
6.264e+09  0.1193  -0.7954  0.02119  0.02009  0.03355  -0.01919  -0.7185  -0.1019
6.265e+09  -0.1813  -0.8176  0.01808  -0.02209  0.07127  0.02448  -0.6938  0.1817
6.266e+09  -0.4283  -0.6912  0.02981  -0.0247  0.006083  -0.02908  -0.6026  0.3764
6.268e+09  -0.5965  -0.4968  -0.006831  -0.0002254  0.01281  0.0224  -0.4358  0.6018
6.269e+09  -0.8059  -0.1572  0.01797  0.008182  -0.002722  0.05942  -0.1985  0.7237
6.27e+09  -0.7909  0.04204  -0.02481  -0.007377  -0.006795  -0.001828  0.04613  0.7746
6.271e+09  -0.8018  0.2993  -0.0007576  -0.02713  -0.02332  -0.02755  0.3376  0.6495
6.272e+09  -0.65  0.551  0.02969  -0.003294  -0.0799  0.01047  0.5341  0.5246
6.274e+09  -0.3682  0.7599  0.003895  -0.006506  0.01322  -0.004847  0.6785  0.304
6.275e+09  -0.1207  0.7775  0.007293  -0.02313  -0.07532  0.02499  0.7723  0.03715
6.276e+09  0.1598  0.7836  -0.01655  -0.008992  0.04719  0.05204  0.7013  -0.2307
6.278e+09  0.4306  0.6883  0.01103  0.02624  0.006902  -0.01455  0.6168  -0.4411
6.279e+09  0.6783  0.4813  -0.04738  -0.0005386  0.01758  -0.01178  0.4091  -0.6527
6.28e+09  0.8122  0.2464  0.01561  0.01905  -0.0373  0.01907  0.198  -0.7484
6.281e+09  0.8366  -0.03579  -0.01211  0.007827  -0.01683  0.0301  -0.06916  -0.7517
6.282e+09  0.7827  -0.3272  -0.02105  0.02332  -0.04414  -0.009141  -0.342  -0.6797
6.284e+09  0.6149  -0.5891  0.009046  -0.0171  -0.002776  -0.06736  -0.6144  -0.478
6.285e+09  0.3794  -0.7252  0.01895  -0.01461  -0.01426  -0.05661  -0.7435  -0.3005
6.286e+09  0.1255  -0.8231  0.009487  -0.003723  5.453e-05  -0.02452  -0.8115  -0.008386
6.288e+09  -0.1953  -0.8026  0.01343  -0.003548  0.02873  0.02491  -0.7986  0.2745
6.289e+09  -0.4294  -0.7479  -0.00853  -0.003064  0.02369  -0.04055  -0.6221  0.4736
6.29e+09  -0.6917  -0.5092  0.01706  -0.02172  -0.03021  0.04306  -0.4302  0.701
6.291e+09  -0.7845  -0.1919  0.00991  0.04734  -0.01301  0.02615  -0.1754  0.8088
6.292e+09  -0.8578  0.04386  -0.002428  0.00111  0.01506  -0.05107  0.1193  0.8047
6.294e+09  -0.7923  0.3583  0.01357  -0.01062  0.01767  -0.001339  0.42  0.7036
6.295e+09  -0.628  0.5937  0.01288  0.03906  -0.03247  0.00876  0.6013  0.5447
6.296e+09  -0.361  0.7652  0.03672  -0.01763  0.04135  0.01348  0.8042  0.3021
6.298e+09  -0.03306  0.8322  -0.03305  0.03828  0.02014  -0.0174  0.832  0.04335
6.299e+09  0.2483  0.7679  0.0442  0.001906  -0.02849  0.03049  0.7644  -0.2864
6.3e+09  0.516  0.6903  -0.01034  -0.01477  0.01831  0.07778  0.6667  -0.534
6.301e+09  0.6644  0.4759  0.02568  0.002715  0.03133  -0.02564  0.4436  -0.7384
6.302e+09  0.7996  0.1788  0.009946  -0.05317  -0.003851  0.03305  0.1668  -0.8146
6.304e+09  0.8144  -0.1242  0.01283  -0.001679  -0.008653  -0.01034  -0.1607  -0.8339
6.305e+09  0.7337  -0.3787  0.008798  -0.01008  0.03699  -0.00272  -0.4265  -0.747
6.306e+09  0.5869  -0.6449  -0.01122  -0.004279  0.02196  0.01625  -0.6254  -0.5156
6.308e+09  0.2945  -0.787  0.01133  -0.01079  0.006871  -0.04401  -0.8273  -0.2935
6.309e+09  0.02651  -0.8654  0.01202  -0.01135  -0.0506  0.01782  -0.8553  0.006294
6.31e+09  -0.2525  -0.7576  0.05303  -0.00503  0.02682  -0.02796  -0.8107  0.2992
6.311e+09  -0.5293  -0.6267  0.007072  0.04259  -0.01793  0.02173  -0.6611  0.5501
6.312e+09  -0.7165  -0.3957  0.0004194  0.01914  -0.03564  -0.03323  -0.4481  0.7624
6.314e+09  -0.8397  -0.1288  -0.01239  -0.02548  0.001403  0.004032  -0.1283  0.8482
6.315e+09  -0.858  0.1035  0.01473  0.01367  0.00299  0.004313  0.1413  0.8577
6.316e+09  -0.7432  0.4022  0.01409  0.004884  0.01458  -0.01421  0.413  0.7759
6.318e+09  -0.5335  0.6588  0.01573  0.001177  0.02128  -0.006167  0.6958  0.5956
6.319e+09  -0.2898  0.7723  -0.04721  0.0242  0.03294  0.003174  0.7568  0.3261
6.32e+09  0.008917  0.9005  -0.004734  0.01158  0.03469  -0.03323  0.9202  0.0211
6.321e+09  0.3232  0.7573  0.003883  0.04342  0.0008498  -0.0398  0.8207  -0.2884
6.322e+09  0.5329  0.6628  -0.01991  0.02493  0.01349  0.02038  0.6852  -0.5502
6.324e+09  0.7298  0.4313  0.008045  -0.02564  -0.00519  -0.004968  0.4513  -0.7722
6.325e+09  0.8734  0.141  -0.01025  -0.0249  -0.01964  0.03076  0.189  -0.8792
6.326e+09  0.862  -0.1867  0.002296  0.001596  0.0532  0.03383  -0.1326  -0.9032
6.328e+09  0.7412  -0.4109  -0.01983  0.01259  -0.005708  0.004267  -0.427  -0.8167
6.329e+09  0.5176  -0.6651  -0.003757  -0.02117  0.03576  0.01314  -0.6652  -0.5913
6.33e+09  0.2502  -0.8152  -0.03929  0.01185  0.02337  0.007582  -0.8329  -0.3526
6.331e+09  -0.07784  -0.8733  -0.03662  0.001729  -0.04445  0.04071  -0.8857  0.0103
6.332e+09  -0.3373  -0.8109  -0.01596  0.02468  -0.02437  0.005671  -0.8587  0.3105
6.334e+09  -0.5643  -0.6649  -0.002308  -0.02576  -0.01226  0.02177  -0.6954  0.5801
6.335e+09  -0.7807  -0.3989  0.005514  -0.01454  0.009788  -0.03914  -0.4819  0.7969
6.336e+09  -0.8772  -0.06013  0.006651  0.003305  0.02452  -0.0395  -0.2247  0.8795
6.338e+09  -0.8371  0.2661  -0.001096  -0.03007  0.04273  -0.02191  0.1263  0.9005
6.339e+09  -0.7026  0.4917  -0.01115  0.0166  -0.02183  -0.05589  0.423  0.812
6.34e+09  -0.532  0.6995  0.01787  -0.01279  0.004421  -0.01452  0.6612  0.6178
6.341e+09  -0.2003  0.8758  0.0341  -0.01264  0.00883  0.01128  0.8566  0.3411
6.342e+09  0.1027  0.8768  0.007489  -0.01042  -0.00937  0.01874  0.8914  0.06486
6.344e+09  0.4098  0.6985  0.01835  0.008643  -0.00753  0.01609  0.9112  -0.2657
6.345e+09  0.6561  0.549  -0.02029  -0.01533  0.02198  -0.02256  0.7868  -0.5985
6.346e+09  0.8027  0.3199  0.0195  0.02465  -0.01866  -0.009175  0.5088  -0.8338
6.348e+09  0.8291  0.02529  -0.01645  -0.01945  0.02531  -0.01014  0.2062  -0.9226
6.349e+09  0.8639  -0.3451  -0.002384  0.00638  -0.02679  0.02233  -0.08266  -0.8943
6.35e+09  0.6882  -0.5396  0.001342  0.00708  -0.007803  -0.02316  -0.4252  -0.8513
6.351e+09  0.456  -0.7857  0.01289  -0.03753  -0.03424  0.01622  -0.6916  -0.6084
6.352e+09  0.1227  -0.874  -0.005895  -0.007754  -0.03062  -0.004634  -0.8523  -0.3827
6.354e+09  -0.1765  -0.8697  -0.01974  0.01804  0.01324  0.01369  -0.9189  -0.07502
6.355e+09  -0.4802  -0.7117  0.006762  0.04006  -0.04923  -0.05017  -0.9491  0.2724
6.356e+09  -0.7126  -0.5516  -0.01614  0.005305  -0.0002642  -0.0009625  -0.7356  0.5613
6.358e+09  -0.8553  -0.3044  -0.0553  0.01488  0.01024  -0.00646  -0.5401  0.781
6.359e+09  -0.888  0.02858  0.002178  0.0003896  0.006734  0.001847  -0.2139  0.9216
6.36e+09  -0.752  0.3869  0.02227  0.00333  0.01762  -0.04952  0.1144  0.9509
6.361e+09  -0.6266  0.553  0.04224  -0.009996  0.01042  -0.001471  0.4661  0.8671
6.362e+09  -0.4254  0.8223  0.03517  0.01432  -0.03322  -0.009409  0.6284  0.6745
6.364e+09  -0.1051  0.8421  0.002402  0.003877  -0.02445  -0.005139  0.8354  0.38
6.365e+09  0.1458  0.8426  -0.006178  -0.0003732  0.006562  0.008743  0.9495  0.06303
6.366e+09  0.4857  0.7133  -0.009054  0.000764  -0.01805  -0.02371  0.9379  -0.2463
6.368e+09  0.7212  0.5008  -0.001822  -0.02363  -0.0008609  0.005999  0.7649  -0.4976
6.369e+09  0.8867  0.2221  0.0105  -0.01659  -0.01073  -0.01406  0.5327  -0.732
6.37e+09  0.8772  -0.07849  -0.001942  -0.007572  -0.002841  -0.05757  0.258  -0.9058
6.371e+09  0.7823  -0.4197  -0.02528  0.02591  -0.04601  0.03261  -0.1279  -0.9338
6.372e+09  0.6043  -0.6263  -0.05016  0.01538  -0.02965  -0.02609  -0.4225  -0.8793
6.374e+09  0.3524  -0.8116  0.0234  -0.03615  0.001975  -0.01751  -0.6296  -0.6624
6.375e+09  -0.003004  -0.8864  0.009854  -0.01113  -0.0384  -0.01193  -0.8038  -0.4189
6.376e+09  -0.2883  -0.8792  -0.00101  0.009751  -0.01804  0.008411  -0.9367  -0.08793
6.378e+09  -0.5313  -0.7022  0.03215  -0.005268  -0.01952  0.00384  -0.9184  0.2267
6.379e+09  -0.7828  -0.4395  -0.03557  0.005796  0.007986  -0.001951  -0.7757  0.5389
6.38e+09  -0.9269  -0.163  -0.003616  0.02047  0.0003715  0.02729  -0.5427  0.7635
6.381e+09  -0.8431  0.1143  0.0003345  -0.02072  -0.02696  0.0008118  -0.2964  0.9039
6.382e+09  -0.7859  0.471  0.0025  0.0182  0.02549  -0.005872  0.02967  0.9411
6.384e+09  -0.5433  0.6306  0.01461  0.003868  0.01534  0.02055  0.4004  0.855
6.385e+09  -0.3112  0.8282  -0.004121  -0.0003623  -0.03339  0.02404  0.6602  0.6755
6.386e+09  0.04084  0.9169  -0.02203  0.003221  0.01242  -0.02844  0.8182  0.4162
6.388e+09  0.3069  0.8708  -0.03315  -0.00736  -0.006266  0.05127  0.9318  0.1105
6.389e+09  0.5422  0.6604  -0.003969  0.0006106  -0.02108  0.05654  0.9104  -0.2399
6.39e+09  0.8181  0.4213  0.01142  -0.00448  -0.01006  0.04282  0.766  -0.5148
6.391e+09  0.9167  0.05286  0.01987  0.01301  0.01063  0.03734  0.5865  -0.7254
6.392e+09  0.8745  -0.2309  -0.0009333  0.01189  0.003931  -0.008343  0.252  -0.8917
6.394e+09  0.7682  -0.4772  0.01947  0.004558  -0.0559  -0.02713  -0.03077  -0.9359
6.395e+09  0.5315  -0.7361  -0.007588  0.0109  -0.01525  -0.009637  -0.3379  -0.8649
6.396e+09  0.2167  -0.8643  -0.0203  -0.01171  0.009371  -0.001641  -0.6212  -0.681
6.398e+09  -0.01646  -0.9027  0.004825  0.01763  0.001544  -0.02425  -0.7948  -0.4473
6.399e+09  -0.34  -0.8431  -0.05327  0.01827  0.04461  -0.006093  -0.879  -0.139
6.4e+09  -0.599  -0.5901  0.00372  -0.005371  0.02537  0.02406  -0.8665  0.1623
6.401e+09  -0.7658  -0.3633  0.009509  -0.01594  0.02951  0.01259  -0.7573  0.4245
6.402e+09  -0.867  -0.06447  0.01925  0.009777  0.01152  0.04409  -0.5923  0.6855
6.404e+09  -0.8138  0.2152  0.02164  0.0008756  0.02111  0.03341  -0.3235  0.866
6.405e+09  -0.7009  0.5247  -0.003861  -0.04224  -0.007066  0.02524  -0.01834  0.9454
6.406e+09  -0.4904  0.7669  0.009177  -0.05202  0.03006  0.01095  0.3368  0.8818
6.408e+09  -0.2355  0.7852  0.0003836  0.0006636  0.02555  -0.02365  0.5919  0.711
6.409e+09  0.06641  0.892  0.01617  -0.02859  -0.0103  0.02478  0.8161  0.4706
6.41e+09  0.3902  0.8113  0.03374  0.009771  -0.005148  0.01678  0.8913  0.1114
6.411e+09  0.6625  0.5881  -0.01213  -0.02205  -0.03691  -0.03036  0.8899  -0.1142
6.412e+09  0.7971  0.3275  -0.03835  0.02602  0.01964  0.01438  0.8526  -0.4793
6.414e+09  0.8572  0.002591  0.01545  -0.006501  -0.01868  -0.02374  0.6099  -0.6831
6.415e+09  0.7927  -0.2573  0.03545  -0.004232  -0.01339  0.01426  0.3562  -0.8298
6.416e+09  0.661  -0.5083  -0.01818  0.02977  0.02783  -0.01619  0.0345  -0.8962
6.418e+09  0.487  -0.7482  0.01807  0.0225  -0.005153  0.003557  -0.2391  -0.8801
6.419e+09  0.1656  -0.8313  0.007723  -0.03059  0.03426  -0.004763  -0.5204  -0.6976
6.42e+09  -0.06925  -0.85  0.03306  0.003992  0.0431  -0.003884  -0.7764  -0.5601
6.421e+09  -0.4042  -0.7952  -0.004563  -0.01795  -0.06833  0.04011  -0.8905  -0.1426
6.422e+09  -0.6432  -0.6037  0.00991  -0.007836  -0.02541  -0.05311  -0.8719  0.1215
6.424e+09  -0.88  -0.3483  -0.0308  0.001483  -0.01438  0.03306  -0.7746  0.4107
6.425e+09  -0.8361  -0.01468  -0.007526  0.004037  -0.006583  -0.0602  -0.6032  0.6494
6.426e+09  -0.8696  0.2624  -0.005069  -0.001275  0.04374  -0.04133  -0.362  0.7921
6.428e+09  -0.6772  0.5867  -0.003637  -0.02239  -0.05167  -0.04626  -0.08802  0.8314
6.429e+09  -0.447  0.7025  0.004364  0.02883  -0.01014  -0.03389  0.2464  0.8759
6.43e+09  -0.1713  0.8693  0.05929  -0.001979  2.356e-05  0.004938  0.5053  0.7047
6.431e+09  0.1323  0.8457  0.02367  -0.0009107  0.05037  0.02784  0.7214  0.5458
6.432e+09  0.4267  0.802  0.03607  0.02465  -0.004444  0.01243  0.8917  0.247
6.434e+09  0.6656  0.5832  0.05494  -0.01719  -0.03045  0.02638  0.829  -0.1277
6.435e+09  0.8271  0.3044  -0.01445  -0.008861  0.02584  -0.009709  0.7605  -0.3374
6.436e+09  0.8421  0.033  -0.03637  0.006206  -0.03333  -0.00372  0.6443  -0.6106
6.438e+09  0.8694  -0.3297  -0.01249  0.03562  -0.02739  -0.01319  0.3598  -0.765
6.439e+09  0.6854  -0.6182  0.009729  -0.006475  -0.04276  -0.03091  0.06309  -0.8545
6.44e+09  0.4314  -0.758  -0.04566  0.019  -0.02536  -0.002774  -0.2521  -0.7772
6.441e+09  0.1742  -0.8674  0.002671  -0.06357  -0.0632  -0.05889  -0.5134  -0.7089
6.442e+09  -0.2116  -0.8706  0.02106  -0.04013  -0.03811  0.002453  -0.6452  -0.5087
6.444e+09  -0.408  -0.7592  0.03686  0.01211  -0.009523  0.01178  -0.7962  -0.169
6.445e+09  -0.6763  -0.5359  0.006413  -0.007596  -0.04933  -0.03656  -0.85  0.07046
6.446e+09  -0.8499  -0.3192  -0.0128  -0.03845  -0.04409  -0.03359  -0.7442  0.3632
6.448e+09  -0.9049  0.05107  0.01067  -0.009066  0.001811  -0.001742  -0.5688  0.5927
6.449e+09  -0.7583  0.2984  0.02868  -0.0122  -0.004154  -0.06321  -0.3325  0.776
6.45e+09  -0.6659  0.5481  -0.006324  -0.004994  0.005128  0.06159  -0.08499  0.8241
6.451e+09  -0.4551  0.7588  0.01869  0.03934  0.01226  0.02082  0.2028  0.7647
6.452e+09  -0.1649  0.8209  0.0004483  -0.02529  0.01215  -0.02866  0.5298  0.706
6.454e+09  0.1448  0.8779  0.03717  0.009512  -0.009732  -0.0005456  0.6942  0.4684
6.455e+09  0.4561  0.7525  -0.01289  0.004757  -0.04455  0.01143  0.7679  0.1481
6.456e+09  0.6853  0.5675  -0.003242  0.0301  0.005942  -0.03761  0.8473  -0.06845
6.458e+09  0.8249  0.2836  0.001065  0.03246  -0.03446  -0.03926  0.7329  -0.3259
6.459e+09  0.8379  -0.04161  -0.0226  0.008101  -0.001317  -0.02031  0.5688  -0.5959
6.46e+09  0.8347  -0.3109  -0.005298  0.06012  -0.008263  -0.05863  0.3499  -0.776
6.461e+09  0.6603  -0.592  -0.009196  0.02043  0.03661  -0.002266  0.03972  -0.7935
6.462e+09  0.393  -0.8175  0.003711  0.04034  0.01158  -0.01531  -0.2214  -0.7918
6.464e+09  0.1448  -0.8082  0.003353  0.01997  0.02237  0.0122  -0.462  -0.6087
6.465e+09  -0.1633  -0.806  0.01515  -0.01157  0.01628  -0.07276  -0.6704  -0.4562
6.466e+09  -0.4683  -0.7719  0.02265  -0.02178  0.03163  -0.04825  -0.8216  -0.2015
6.468e+09  -0.7397  -0.5352  0.004039  0.0141  -0.002327  -0.05027  -0.7838  0.04232
6.469e+09  -0.7887  -0.2616  -0.02115  -0.03534  0.009941  0.007863  -0.7093  0.2938
6.47e+09  -0.853  0.04921  -0.006747  0.01311  -0.03281  0.02469  -0.5485  0.6001
6.471e+09  -0.7714  0.2993  -0.009275  0.03069  -0.001127  0.01207  -0.3205  0.6827
6.472e+09  -0.7641  0.5875  0.01585  -0.001663  0.04453  0.006182  -0.05766  0.8325
6.474e+09  -0.3818  0.8293  -0.02278  0.01446  -0.03917  -0.03963  0.1905  0.7716
6.475e+09  -0.125  0.8385  0.00549  -0.02915  -0.03212  0.032  0.4211  0.6132
6.476e+09  0.1779  0.8772  -0.01612  -0.005083  0.005229  0.01066  0.6226  0.4382
6.478e+09  0.4524  0.7203  -0.002891  0.003894  -0.006442  0.004147  0.7998  0.2068
6.479e+09  0.7319  0.5861  0.04908  0.03605  0.04617  0.03062  0.7716  -0.07059
6.48e+09  0.8413  0.2511  0.01101  -0.004795  0.02149  -0.03001  0.6998  -0.373
6.481e+09  0.9168  -0.0136  -0.01637  0.004037  0.004222  -0.02734  0.5384  -0.5113
6.482e+09  0.8063  -0.3057  0.01431  0.003401  -0.00943  -0.02902  0.3655  -0.7105
6.484e+09  0.6766  -0.5729  0.02752  0.04221  -0.0262  -0.02774  0.09904  -0.7394
6.485e+09  0.4049  -0.7482  -0.01511  0.01973  0.01835  -0.001174  -0.2142  -0.7721
6.486e+09  0.0996  -0.8909  -0.02348  0.04673  -0.03739  0.02878  -0.4239  -0.5849
6.488e+09  -0.2048  -0.8611  -0.003342  -0.006119  -0.0157  0.005855  -0.6455  -0.4087
6.489e+09  -0.5043  -0.7598  -0.008817  0.02833  0.00692  -0.003371  -0.7497  -0.1714
6.49e+09  -0.688  -0.5459  0.03863  -0.01817  0.01808  -0.04951  -0.7913  0.1157
6.491e+09  -0.8418  -0.2067  0.02453  0.0161  0.01878  -0.0161  -0.688  0.3592
6.492e+09  -0.8729  0.03088  -0.01025  0.005491  0.007212  0.004765  -0.5389  0.5869
6.494e+09  -0.8606  0.3979  -0.008218  -0.007598  -0.06083  0.03188  -0.3148  0.7016
6.495e+09  -0.668  0.653  -0.04234  -0.0472  -0.03146  0.01548  -0.05325  0.7738
6.496e+09  -0.3824  0.8368  0.01893  0.004787  -0.01163  -0.02384  0.2216  0.7284
6.498e+09  -0.0558  0.8928  0.03172  0.04917  -0.006879  -0.04348  0.499  0.6129
6.499e+09  0.2899  0.8883  0.006058  0.02382  -0.005396  0.02787  0.6486  0.3816
6.5e+09  0.4559  0.7719  -0.01906  -0.01651  -0.01931  -0.007785  0.777  0.1489
6.501e+09  0.7608  0.572  0.03861  -0.01537  -0.004297  -0.00337  0.7648  -0.1005
6.502e+09  0.8657  0.249  -0.01915  -0.01905  0.04934  -0.01722  0.7223  -0.3531
6.504e+09  0.9003  -0.08818  -0.003028  -0.0249  -0.01587  0.005396  0.5096  -0.5777
6.505e+09  0.8961  -0.3356  -0.0001158  -0.04427  -0.05534  -0.01356  0.297  -0.684
6.506e+09  0.6373  -0.605  -0.03717  -0.001091  0.02254  -0.04744  0.02202  -0.7702
6.508e+09  0.3656  -0.8633  0.05488  0.0001901  0.01885  -0.005134  -0.2794  -0.6975
6.509e+09  0.0962  -0.9103  0.005866  0.01857  -0.01295  0.003993  -0.4869  -0.6014
6.51e+09  -0.2347  -0.9102  0.03563  1.382e-05  -0.018  0.001033  -0.6212  -0.369
6.511e+09  -0.5173  -0.7555  -0.02005  -0.0347  -0.01647  0.02749  -0.763  -0.1414
6.512e+09  -0.7869  -0.4993  -0.006404  -0.04392  -0.02795  -0.0009588  -0.7531  0.1444
6.514e+09  -0.9266  -0.2635  -0.004102  -0.002279  0.02479  0.03372  -0.668  0.3528
6.515e+09  -0.9461  0.1342  -0.01033  0.005696  -0.01749  -0.01206  -0.468  0.5862
6.516e+09  -0.8472  0.4193  0.02295  0.01614  0.04074  -0.02545  -0.2705  0.71
6.518e+09  -0.6626  0.6397  0.02448  0.02899  -0.02777  0.01479  0.04195  0.7395
6.519e+09  -0.3011  0.8849  0.01844  -0.02688  0.01792  0.01502  0.2955  0.7077
6.52e+09  -0.06069  0.9675  -0.0159  0.0124  -0.004321  -0.01973  0.4892  0.5524
6.521e+09  0.3052  0.9099  0.004718  -0.004028  -0.0008318  0.009881  0.6679  0.3691
6.522e+09  0.5757  0.7457  -0.01555  -0.01934  -0.01414  -0.01399  0.7212  0.127
6.524e+09  0.7574  0.5465  0.006786  0.00898  0.01429  -0.02268  0.7057  -0.1549
6.525e+09  0.9528  0.1427  0.007803  -0.01226  0.02764  0.005729  0.639  -0.4034
6.526e+09  0.95  -0.1236  0.008286  -0.02574  -0.02084  0.0005924  0.4424  -0.5759
6.528e+09  0.8431  -0.4678  0.019  -0.01822  0.03536  0.001481  0.1979  -0.6778
6.529e+09  0.6054  -0.7082  0.001854  0.01981  -0.02442  -0.001461  -0.06434  -0.6826
6.53e+09  0.318  -0.9557  -0.0143  0.02971  -0.004106  -0.001582  -0.261  -0.6182
6.531e+09  0.00923  -0.936  0.01896  0.03613  -0.02266  0.004612  -0.5052  -0.466
6.532e+09  -0.3347  -0.901  -0.01096  -0.001088  -0.04776  -0.02148  -0.5853  -0.2613
6.534e+09  -0.6431  -0.7102  -0.02763  0.01642  0.01857  -0.02317  -0.6347  -0.1242
6.535e+09  -0.833  -0.4658  0.03601  -0.01573  -0.01537  0.007262  -0.6258  0.1098
6.536e+09  -0.9483  -0.09168  0.03187  0.006475  -0.01949  0.01918  -0.5652  0.3071
6.538e+09  -0.9218  0.1979  0.006532  -0.01554  -0.004774  0.03546  -0.475  0.5078
6.539e+09  -0.7838  0.5407  -0.01181  0.02438  0.01322  -0.0336  -0.274  0.597
6.54e+09  -0.5876  0.7698  0.03278  -0.006499  0.03042  -0.004386  -0.06452  0.6611
6.541e+09  -0.3092  0.8899  -0.01015  0.004204  -0.03707  0.03866  0.2128  0.677
6.542e+09  0.03932  0.997  -0.006955  -0.02404  -0.01649  0.0186  0.4009  0.5333
6.544e+09  0.4274  0.8567  -0.03719  0.01034  -0.04874  0.01349  0.5963  0.3934
6.545e+09  0.7294  0.7  0.0304  -0.007327  -0.02067  0.0009334  0.7081  0.1916
6.546e+09  0.8555  0.4147  0.008603  -0.02307  0.02088  0.02635  0.7342  -0.1078
6.548e+09  0.9768  0.1116  -0.02363  -0.01529  0.004978  -0.05292  0.6535  -0.2963
6.549e+09  0.8965  -0.1982  -0.01384  -0.005118  0.01427  -0.03351  0.4897  -0.5139
6.55e+09  0.7912  -0.5005  0.005364  -0.0149  0.01226  -0.02933  0.2822  -0.7157
