# Hz S RI R 50
6.25e+09  -0.3787  0.8204  0.0014  -0.005429  -0.003777  0.02688  0.1399  0.47
6.251e+09  -0.1324  0.8409  0.02942  -0.004037  0.05283  0.03181  0.3658  0.3992
6.252e+09  0.1767  0.8457  -0.02101  -0.0165  0.08448  0.007785  0.498  0.2511
6.254e+09  0.4649  0.7551  0.01056  -0.0151  0.02682  0.001919  0.6225  0.04092
6.255e+09  0.6936  0.5141  -0.06825  0.01302  -0.0169  -0.02178  0.582  -0.2523
6.256e+09  0.8159  0.2251  0.01764  0.004115  -0.0009939  -0.02366  0.4821  -0.452
6.258e+09  0.8705  -0.05966  0.00454  0.02192  0.02465  0.009046  0.2899  -0.5941
6.259e+09  0.7376  -0.2912  -0.0181  0.009802  0.001584  -0.009062  0.05692  -0.6806
6.26e+09  0.6289  -0.5704  -0.01154  0.04154  0.02217  -0.01349  -0.2399  -0.6137
6.261e+09  0.3522  -0.728  0.007926  0.006649  -0.03116  -0.009181  -0.4694  -0.5479
6.262e+09  0.1296  -0.8506  0.01212  -0.02282  -0.02157  0.07823  -0.6216  -0.3632
6.264e+09  -0.1798  -0.8163  -0.009442  -0.03273  0.02658  -0.01073  -0.7028  -0.07829
6.265e+09  -0.4959  -0.7064  -0.001367  -0.01769  0.03647  0.05448  -0.7164  0.1684
6.266e+09  -0.6639  -0.5261  0.004486  0.03481  0.04572  0.01576  -0.5967  0.396
6.268e+09  -0.7979  -0.2245  0.02663  0.01454  -0.001428  0.01278  -0.4477  0.6091
6.269e+09  -0.8634  0.05778  -0.01429  -0.003866  -0.0165  -0.04552  -0.2283  0.6905
6.27e+09  -0.7587  0.3734  0.04281  0.0007476  -0.02085  0.01904  0.04458  0.7469
6.271e+09  -0.5692  0.544  -0.008919  0.01372  0.04485  -0.03422  0.3358  0.6434
6.272e+09  -0.3262  0.6593  0.01557  0.02398  0.03944  0.05425  0.5097  0.5173
6.274e+09  -0.05391  0.8101  -0.009375  0.01384  0.03739  0.02638  0.6898  0.3013
6.275e+09  0.2172  0.8047  -0.04778  -0.00774  0.02243  0.01836  0.7705  0.03859
6.276e+09  0.5213  0.6696  -0.01636  0.01265  0.008359  -0.06964  0.7424  -0.2318
6.278e+09  0.697  0.5095  0.004184  0.003724  -0.006077  0.006936  0.6135  -0.4924
6.279e+09  0.7785  0.1866  -0.007475  0.0004585  -0.03515  -0.01252  0.4145  -0.6577
6.28e+09  0.8647  -0.04326  0.008393  0.01036  0.01621  0.02701  0.1494  -0.7808
6.281e+09  0.7601  -0.3639  -0.01071  -0.00228  0.02392  -0.006363  -0.1461  -0.8076
6.282e+09  0.6144  -0.5562  -0.01176  0.02159  -0.03792  0.01334  -0.3791  -0.6889
6.284e+09  0.3544  -0.7858  -0.01069  0.005521  -0.005227  0.007892  -0.5807  -0.5059
6.285e+09  0.103  -0.8526  0.00326  0.01439  0.03692  0.01669  -0.7282  -0.2428
6.286e+09  -0.2292  -0.7671  -0.01489  0.01803  0.01326  -0.03343  -0.8433  -0.01879
6.288e+09  -0.4954  -0.6412  -0.02515  -0.01681  -0.01896  0.02907  -0.733  0.2654
6.289e+09  -0.6444  -0.49  0.005049  0.001974  -0.03932  0.03356  -0.6332  0.4958
6.29e+09  -0.8627  -0.2157  -0.01209  0.01776  0.01519  0.0204  -0.4118  0.6908
6.291e+09  -0.7745  0.1072  0.03113  -0.001554  -0.02657  -0.01178  -0.1566  0.789
6.292e+09  -0.7635  0.4002  -0.01165  0.01159  0.03383  -0.009944  0.1321  0.793
6.294e+09  -0.5778  0.642  -0.009863  -0.004991  -0.01011  0.03161  0.4329  0.7078
6.295e+09  -0.3055  0.7972  -0.01991  -0.005628  0.003516  0.108  0.6305  0.5575
6.296e+09  -0.01383  0.8079  0.01191  -0.01562  -0.02607  0.01332  0.7632  0.272
6.298e+09  0.2559  0.7741  -0.004626  -0.003927  0.05091  -0.05296  0.82  0.01136
6.299e+09  0.4844  0.6271  0.02009  0.02748  -0.01131  -0.04122  0.7851  -0.2638
6.3e+09  0.6866  0.4525  0.0327  0.01735  0.003094  0.02529  0.6506  -0.5048
6.301e+09  0.84  0.139  -0.03243  -0.007083  0.01356  0.01875  0.4347  -0.727
6.302e+09  0.8227  -0.0788  -0.001956  0.03255  0.03443  -0.03738  0.1723  -0.8265
6.304e+09  0.7569  -0.383  0.01005  0.003884  0.01386  0.03692  -0.1255  -0.8256
6.305e+09  0.5605  -0.6415  0.02607  -0.01039  0.007206  0.02845  -0.408  -0.7227
6.306e+09  0.3472  -0.7712  -0.01752  -0.009819  0.03732  0.01468  -0.6533  -0.568
6.308e+09  -0.009853  -0.864  0.02107  -0.007331  0.02083  -0.06157  -0.7989  -0.3102
6.309e+09  -0.2821  -0.8128  -0.001744  0.02893  0.005428  -0.03403  -0.7997  -0.03172
6.31e+09  -0.5178  -0.6439  -0.00921  0.01465  0.01156  -0.0298  -0.8258  0.2947
6.311e+09  -0.7193  -0.3988  0.0007854  0.01527  0.06136  0.02638  -0.6776  0.5362
6.312e+09  -0.8161  -0.1309  0.02031  0.03977  0.01414  0.003981  -0.4101  0.7452
6.314e+09  -0.8429  0.1793  -0.01334  0.02587  -0.02086  -0.002711  -0.1146  0.817
6.315e+09  -0.7355  0.3889  0.01579  -0.01462  0.01051  0.009029  0.1401  0.8397
6.316e+09  -0.518  0.5782  -0.01506  0.03079  -0.005463  -0.02051  0.4276  0.7651
6.318e+09  -0.2784  0.8044  -0.03675  0.01525  0.01161  -0.002555  0.6346  0.5476
6.319e+09  0.05483  0.8424  0.002169  -0.0002121  -0.03185  0.00994  0.8203  0.3028
6.32e+09  0.3209  0.8289  -0.006602  -0.0126  0.001765  -0.001361  0.8563  0.01337
6.321e+09  0.6029  0.5967  -0.0166  0.01414  0.0255  0.005572  0.8508  -0.33
6.322e+09  0.8078  0.4205  0.003341  0.01945  -0.02528  0.03348  0.6719  -0.547
6.324e+09  0.8591  0.1184  0.01758  -0.004571  -0.004734  -0.03646  0.4559  -0.7654
6.325e+09  0.8776  -0.1518  -0.01374  -0.003649  -0.002056  0.01198  0.1907  -0.8782
6.326e+09  0.7317  -0.498  0.008129  -0.004684  -0.02998  -0.0171  -0.1427  -0.9129
6.328e+09  0.507  -0.72  -0.002134  -0.004554  0.011  -0.01802  -0.4444  -0.7972
6.329e+09  0.2137  -0.8289  0.01007  0.01481  0.00593  -0.01166  -0.6523  -0.5831
6.33e+09  -0.1037  -0.8633  0.02249  -0.006896  0.0126  -0.01878  -0.8553  -0.3798
6.331e+09  -0.3692  -0.7888  0.00412  0.02028  -0.04904  -0.0254  -0.9323  0.002711
6.332e+09  -0.6444  -0.6133  -0.008242  0.03371  -0.01645  0.06045  -0.8469  0.2753
6.334e+09  -0.8063  -0.3423  -0.01033  0.02345  0.02722  -0.02166  -0.6907  0.5776
6.335e+09  -0.8561  -0.0687  0.01251  0.0215  0.003455  -0.005841  -0.4451  0.7796
6.336e+09  -0.8563  0.2651  0.0184  -0.01138  -0.01374  -0.002398  -0.1773  0.9493
6.338e+09  -0.7  0.5256  0.02082  -0.006022  0.01397  -0.00177  0.1099  0.9366
6.339e+09  -0.4422  0.8117  0.008852  -0.008543  -0.0109  -0.01899  0.4305  0.8167
6.34e+09  -0.2515  0.8898  -0.01166  0.005527  -0.00331  0.04066  0.6882  0.6082
6.341e+09  0.1243  0.8622  0.03065  0.02043  -0.01196  -0.03672  0.85  0.3669
6.342e+09  0.431  0.7644  -0.003055  -0.007307  0.01967  -0.04498  0.9342  0.04744
6.344e+09  0.6928  0.5531  0.02482  -0.01035  -0.05084  0.03028  0.8897  -0.2849
6.345e+09  0.8327  0.2817  -0.007698  0.01384  -0.03336  0.08373  0.7517  -0.5237
6.346e+09  0.8695  -0.02171  0.002144  -0.003869  -0.02303  0.009074  0.5447  -0.7933
6.348e+09  0.7971  -0.3584  0.006975  0.04098  0.01716  0.01558  0.2371  -0.9028
6.349e+09  0.7115  -0.6028  -0.003233  0.003165  -0.03471  -0.04431  -0.1105  -0.954
6.35e+09  0.4579  -0.7809  -0.001589  0.00563  -0.01665  0.006475  -0.4388  -0.8288
6.351e+09  0.1327  -0.8676  -0.03165  -0.007822  -0.004965  -0.04931  -0.7098  -0.6271
6.352e+09  -0.1934  -0.8936  0.02593  -0.03705  0.0533  0.02036  -0.8572  -0.3989
6.354e+09  -0.4872  -0.7402  -0.0104  -8.165e-06  -0.0252  -0.002781  -0.9382  -0.05671
6.355e+09  -0.7006  -0.5118  -0.001109  0.0336  -0.01419  0.02054  -0.8931  0.2619
6.356e+09  -0.8095  -0.2497  0.007664  0.04601  0.009507  0.007883  -0.751  0.5786
6.358e+09  -0.8977  0.05087  0.01396  0.01893  -0.001947  -0.007151  -0.5504  0.7892
6.359e+09  -0.8449  0.3141  0.003232  -0.0122  0.04641  0.01107  -0.2443  0.9219
6.36e+09  -0.6716  0.5938  0.02829  -0.04236  -0.002841  0.02445  0.1017  0.9368
6.361e+09  -0.3866  0.8156  0.01444  0.01578  -0.04231  -0.006291  0.4089  0.8572
6.362e+09  -0.07287  0.8705  0.02728  0.02772  0.03655  -0.01114  0.6679  0.6438
6.364e+09  0.1768  0.8427  -0.01119  0.01254  -0.001677  -0.005831  0.8878  0.4457
6.365e+09  0.5213  0.7022  0.001123  0.01639  -0.01648  -0.004204  0.9252  0.09441
6.366e+09  0.7243  0.4652  0.0007991  0.03878  -0.01063  -0.02748  0.9197  -0.2196
6.368e+09  0.8514  0.2342  0.007333  -0.01018  0.0458  0.04117  0.7669  -0.5519
6.369e+09  0.891  -0.09795  -0.02928  -0.007345  0.04774  -0.01824  0.5264  -0.7464
6.37e+09  0.8128  -0.3843  0.04153  0.01353  -0.01563  -0.007516  0.2485  -0.9355
6.371e+09  0.6197  -0.7071  -0.0178  0.01902  0.002649  -0.0007662  -0.07419  -0.9671
6.372e+09  0.3754  -0.8493  -0.02434  -0.01293  0.02963  0.04002  -0.4226  -0.841
6.374e+09  0.02761  -0.8758  -0.001593  0.02722  0.00886  -0.02035  -0.6669  -0.6885
6.375e+09  -0.2636  -0.8343  0.0546  0.00432  -0.03728  -0.001245  -0.858  -0.44
6.376e+09  -0.559  -0.6921  0.002245  -0.01678  0.02949  0.01043  -0.9206  -0.08968
6.378e+09  -0.7857  -0.4419  0.01091  -0.05517  0.05147  0.02441  -0.941  0.2115
6.379e+09  -0.889  -0.1429  0.009365  -0.0298  -0.003784  -0.006729  -0.7806  0.5268
6.38e+09  -0.8942  0.1568  -0.01441  -0.001719  0.02544  0.01245  -0.5709  0.7814
6.381e+09  -0.7773  0.46  -0.03912  0.001454  -0.02771  0.01794  -0.2907  0.9617
6.382e+09  -0.597  0.6703  0.007602  -0.01605  -0.03721  -0.02029  0.07486  0.9206
6.384e+09  -0.3162  0.8815  0.02999  -0.002131  -0.01856  -0.01131  0.3777  0.8553
6.385e+09  0.007988  0.8735  -0.02081  0.008276  -0.03802  0.003698  0.6046  0.6454
6.386e+09  0.339  0.8498  -0.002737  -0.005493  -0.01989  0.005661  0.8201  0.4075
6.388e+09  0.5964  0.6875  0.02525  0.009709  0.008736  -0.006565  0.9598  0.1047
6.389e+09  0.8136  0.373  -0.03574  -0.004371  0.02984  -0.0003513  0.9211  -0.2053
6.39e+09  0.8903  0.1677  -0.009213  0.01168  -0.05507  -0.02231  0.7394  -0.4861
6.391e+09  0.8858  -0.1678  -0.03435  -0.000395  0.01083  -0.01001  0.5813  -0.7228
6.392e+09  0.7724  -0.5189  0.006295  -0.002834  0.01223  -0.02577  0.2936  -0.8833
6.394e+09  0.5372  -0.6898  0.02839  0.01863  0.01318  0.02282  -0.01737  -0.9591
6.395e+09  0.2679  -0.8786  -0.03214  -0.02425  -0.003094  0.06042  -0.3267  -0.8525
6.396e+09  -0.05013  -0.875  0.01294  -0.01656  0.04004  -0.0327  -0.6193  -0.6995
6.398e+09  -0.3598  -0.8676  0.005235  0.02244  0.0709  -0.009373  -0.7965  -0.4442
6.399e+09  -0.6451  -0.6652  -0.00309  0.05347  0.003832  -0.004239  -0.8994  -0.1535
6.4e+09  -0.7642  -0.4175  -0.00317  0.009097  0.0297  -0.0003552  -0.9222  0.1711
6.401e+09  -0.9238  -0.09629  0.0188  -0.007377  -0.03652  -0.002115  -0.8226  0.4537
6.402e+09  -0.8354  0.2618  -0.001523  0.008079  -0.03829  0.001477  -0.5403  0.7041
6.404e+09  -0.7134  0.4964  -0.03036  -0.0158  -0.04801  -0.005869  -0.3395  0.8942
6.405e+09  -0.5296  0.7076  0.01302  -0.005097  0.02058  -0.004977  0.02397  0.9207
6.406e+09  -0.2157  0.8474  0.0252  0.03227  -0.007338  -0.0294  0.3107  0.8932
6.408e+09  0.0386  0.891  -0.01254  -0.08594  -0.05593  -0.01521  0.544  0.7132
6.409e+09  0.3182  0.7836  0.01203  -0.06372  0.009643  -0.0217  0.8439  0.455
6.41e+09  0.6441  0.5809  -0.01681  0.01428  -0.04563  0.01465  0.8653  0.1765
6.411e+09  0.8471  0.3706  0.03767  -0.03367  0.04773  0.03442  0.8991  -0.127
6.412e+09  0.8836  0.0492  -0.00132  0.004512  0.04447  -0.01672  0.8019  -0.427
6.414e+09  0.8271  -0.2134  -0.02781  0.01595  0.007377  0.01833  0.5864  -0.7042
6.415e+09  0.7805  -0.4567  -0.01538  -0.009397  0.02701  0.01132  0.3493  -0.8227
6.416e+09  0.5845  -0.7018  0.005161  0.02511  -0.007867  0.04886  0.05947  -0.8701
6.418e+09  0.1781  -0.8668  -0.006129  -0.002074  0.006541  0.01699  -0.3422  -0.8449
6.419e+09  -0.08156  -0.9045  0.0006653  0.02671  -0.05064  0.01946  -0.5661  -0.701
6.42e+09  -0.4068  -0.8119  -0.002097  0.02685  -0.02849  0.003772  -0.7732  -0.4875
6.421e+09  -0.6445  -0.6288  0.02068  -0.01331  0.02137  -0.01085  -0.8294  -0.1784
6.422e+09  -0.8216  -0.3798  -0.02859  -0.0341  0.004897  0.008766  -0.8725  0.09317
6.424e+09  -0.8885  -0.04366  -0.02994  -0.006695  -0.02696  -0.01679  -0.8284  0.3832
6.425e+09  -0.8584  0.2698  -0.0171  -0.04411  0.008592  -0.004531  -0.6006  0.5897
6.426e+09  -0.7217  0.5193  0.01429  -0.002757  -0.03699  -0.01313  -0.3718  0.7919
6.428e+09  -0.4627  0.7468  -0.05988  -0.03666  0.009023  -0.007194  -0.02368  0.8512
6.429e+09  -0.1745  0.8512  0.01558  0.004217  0.01674  -0.01894  0.2231  0.8396
6.43e+09  0.11  0.8713  0.03631  0.03851  -0.03448  0.01186  0.527  0.7437
6.431e+09  0.401  0.7937  -0.01595  -0.01395  -0.02494  -0.01865  0.7749  0.5085
6.432e+09  0.6554  0.603  -8.253e-05  0.005347  -0.02925  -0.01694  0.8202  0.2104
6.434e+09  0.8371  0.327  -0.01202  0.05642  -0.02792  -0.01238  0.8788  -0.08378
6.435e+09  0.8819  0.07009  0.0004981  -0.04437  -0.04612  0.02022  0.7805  -0.4011
6.436e+09  0.8439  -0.2261  -0.01555  -0.01892  0.04944  -0.006267  0.6051  -0.6602
6.438e+09  0.7054  -0.4948  -0.01286  -0.002433  -0.0361  0.03524  0.3707  -0.7597
6.439e+09  0.4306  -0.7397  -0.001884  -0.02192  0.03441  0.07073  0.08131  -0.8258
6.44e+09  0.2362  -0.8958  -0.006599  -0.01923  0.03772  0.003733  -0.225  -0.816
6.441e+09  -0.09588  -0.8965  0.01357  -0.0003454  0.01545  0.0289  -0.4725  -0.6851
6.442e+09  -0.4033  -0.7661  0.01719  -0.04719  -0.03431  -0.03798  -0.7187  -0.4656
6.444e+09  -0.6762  -0.5826  -0.02224  0.05075  -0.06542  -0.001302  -0.8315  -0.2125
6.445e+09  -0.7744  -0.3255  -0.00107  0.01621  -0.0248  -0.009922  -0.8092  0.1407
6.446e+09  -0.9021  -0.02831  0.01134  -0.01893  -0.003247  -0.003723  -0.8038  0.3812
6.448e+09  -0.7973  0.2783  0.01963  0.02181  0.0005841  -0.04677  -0.5811  0.571
6.449e+09  -0.6734  0.5274  0.001397  -0.05814  0.03641  0.01763  -0.3621  0.7637
6.45e+09  -0.4672  0.8033  -0.03749  0.01855  0.008829  0.008381  -0.0229  0.8155
6.451e+09  -0.1635  0.8732  -0.01725  -0.0167  -0.006844  0.01113  0.2206  0.7751
6.452e+09  0.09262  0.9121  -0.001891  -0.01288  0.001693  -0.06895  0.427  0.7121
6.454e+09  0.4286  0.7793  0.003672  0.02653  0.04291  0.008615  0.7037  0.4791
6.455e+09  0.6681  0.6286  -0.008774  0.025  0.06175  -0.04553  0.7806  0.1921
6.456e+09  0.8674  0.2965  -0.06555  0.04714  -0.05726  -0.005964  0.8056  -0.07471
6.458e+09  0.8862  0.03708  -0.002407  -0.01075  -0.02597  -0.01158  0.7729  -0.3717
6.459e+09  0.8395  -0.2968  -0.0204  0.009798  0.01015  0.003506  0.5382  -0.6391
6.46e+09  0.6825  -0.618  0.02641  0.02173  0.003835  -0.0196  0.3295  -0.7796
6.461e+09  0.4293  -0.7606  -0.02737  0.02669  -0.01791  -0.04481  0.102  -0.859
6.462e+09  0.1459  -0.9214  0.02464  -0.01515  -0.02024  -0.00415  -0.2131  -0.827
6.464e+09  -0.102  -0.927  -0.01313  -0.007783  0.02939  -0.006001  -0.4394  -0.6414
6.465e+09  -0.428  -0.7134  0.006123  -0.04312  -0.02168  -0.02923  -0.6637  -0.486
6.466e+09  -0.7207  -0.614  -0.0484  -0.04489  -0.04652  -0.01137  -0.7727  -0.2056
6.468e+09  -0.8429  -0.2902  0.008904  -0.007218  0.04871  -0.004157  -0.7777  0.0401
6.469e+09  -0.9345  -0.02635  0.02553  -0.03498  0.001204  0.04444  -0.7021  0.354
6.47e+09  -0.8179  0.2712  0.00407  0.01155  0.01276  0.009869  -0.5624  0.5854
6.471e+09  -0.6981  0.6033  -0.05094  0.017  0.02359  -0.01503  -0.3387  0.7484
6.472e+09  -0.4443  0.8244  -0.01852  -0.01962  -0.01551  0.02568  -0.05307  0.8198
6.474e+09  -0.1307  0.9039  -0.007561  -0.02151  -0.02737  0.01454  0.1876  0.7393
6.475e+09  0.1427  0.8969  -0.02817  -0.0274  -0.01807  0.02033  0.45  0.656
6.476e+09  0.4256  0.7913  0.009567  0.009095  -0.08312  -0.02865  0.6421  0.4096
6.478e+09  0.7507  0.6092  0.006958  0.05334  0.01049  -0.03952  0.7675  0.215
6.479e+09  0.862  0.3236  -0.01552  0.03382  0.02351  0.0143  0.7286  -0.08867
6.48e+09  0.9155  0.04995  -0.01614  -0.004116  -0.01778  0.05797  0.737  -0.3855
6.481e+09  0.8399  -0.3373  -0.01552  -0.01917  -0.03924  0.01085  0.5768  -0.561
6.482e+09  0.7117  -0.6171  -0.009088  0.007567  -0.04205  0.05992  0.3158  -0.7199
6.484e+09  0.4549  -0.8207  0.005335  -0.03322  -0.01058  -0.004132  0.1041  -0.7584
6.485e+09  0.1517  -0.9376  -0.0003166  0.02556  0.004668  0.01056  -0.2279  -0.7641
6.486e+09  -0.1923  -0.9531  -0.01749  -0.02262  0.02246  -0.02764  -0.4503  -0.6219
6.488e+09  -0.5289  -0.8156  0.02735  -0.003278  -0.001818  0.007852  -0.6299  -0.4639
6.489e+09  -0.701  -0.5627  -0.005398  0.01662  -0.04052  -0.01704  -0.7514  -0.1424
6.49e+09  -0.8634  -0.3147  -0.006055  0.02447  0.05895  0.0455  -0.773  0.1348
6.491e+09  -0.8797  0.01999  -0.01766  0.03296  -0.03195  -0.02596  -0.6969  0.3119
6.492e+09  -0.9023  0.3083  0.002604  0.03563  0.01942  -0.04192  -0.5139  0.5047
6.494e+09  -0.7065  0.628  0.01524  0.01014  -0.05096  0.04693  -0.3089  0.6997
6.495e+09  -0.4415  0.8429  0.04266  0.03652  -0.07084  -0.01222  -0.01936  0.8209
6.496e+09  -0.1369  0.9508  0.04086  0.02085  -0.0119  -0.03893  0.218  0.7434
6.498e+09  0.2075  0.9501  0.01487  0.03839  -0.01042  0.004269  0.4591  0.6025
6.499e+09  0.4891  0.7597  0.001039  0.002292  0.008178  -0.06481  0.6544  0.4184
6.5e+09  0.6993  0.5545  -0.008587  0.005319  0.01283  0.02835  0.7647  0.1868
6.501e+09  0.8732  0.2873  0.02644  -0.03297  0.01707  0.02785  0.7562  -0.1042
6.502e+09  0.9714  -0.03018  0.001098  0.007682  0.0009245  -0.001497  0.6693  -0.3601
6.504e+09  0.8684  -0.3721  -0.01108  0.01566  0.03584  -0.0004385  0.5091  -0.5913
6.505e+09  0.6722  -0.6615  0.01949  0.01788  -0.01733  0.008776  0.2631  -0.7261
6.506e+09  0.4497  -0.8503  -0.01249  0.001823  -0.01586  -0.02341  -0.003456  -0.7736
6.508e+09  0.122  -0.8938  0.001215  -0.002277  0.01295  0.02563  -0.2259  -0.7183
6.509e+09  -0.2431  -0.9544  0.01469  0.00823  -0.003244  0.01014  -0.5077  -0.5681
6.51e+09  -0.5207  -0.764  -0.0105  -0.03872  -0.007964  0.01351  -0.6476  -0.3799
6.511e+09  -0.7631  -0.5244  -0.004555  0.0003636  0.04232  -0.00834  -0.7517  -0.1494
6.512e+09  -0.9146  -0.256  0.02589  -0.001453  0.06584  -0.04185  -0.7791  0.1116
6.514e+09  -0.9736  0.08356  0.003826  0.002174  -0.004782  0.03724  -0.6259  0.384
6.515e+09  -0.8144  0.3518  -0.03573  -0.01334  0.02231  -0.004174  -0.4851  0.5748
6.516e+09  -0.6562  0.7058  0.03462  0.007855  0.0232  0.01059  -0.2333  0.6942
6.518e+09  -0.3573  0.8943  0.0109  -0.02434  0.001253  -0.01007  -0.02102  0.7694
6.519e+09  -0.08131  0.961  -0.0135  0.01117  0.05036  0.02565  0.2404  0.7024
6.52e+09  0.2887  0.9448  -0.009541  -0.005736  0.00942  -0.0338  0.5036  0.5521
6.521e+09  0.5838  0.802  0.006549  0.001189  0.03301  -0.01302  0.6302  0.3526
6.522e+09  0.8374  0.5082  0.002369  0.01416  -0.005398  0.009184  0.7603  0.08032
6.524e+09  0.9709  0.2044  -0.01557  -0.0001504  -0.00768  0.03783  0.687  -0.1565
6.525e+09  0.9652  -0.121  0.01362  -0.01684  0.05743  -0.03496  0.6109  -0.4037
6.526e+09  0.8811  -0.4541  0.001519  0.003559  -0.03053  -0.01366  0.4035  -0.5664
6.528e+09  0.6004  -0.7747  -0.0006606  0.01418  -0.005093  -0.0372  0.2212  -0.6996
6.529e+09  0.3247  -0.9216  0.006976  0.004397  -0.01446  0.04502  -0.02398  -0.6983
6.53e+09  -0.003019  -0.9104  0.01597  0.02851  0.009458  -0.008817  -0.3091  -0.6287
6.531e+09  -0.3173  -0.9183  -0.0008623  -0.01952  0.03707  -0.0283  -0.4861  -0.4605
6.532e+09  -0.6719  -0.7653  -0.01112  0.008654  -0.03536  0.02384  -0.6279  -0.3091
6.534e+09  -0.8508  -0.4709  -0.002168  -0.003231  0.04015  -0.03372  -0.6508  -0.07336
6.535e+09  -0.9575  -0.136  -0.0143  0.005646  0.004285  0.01418  -0.6356  0.0982
6.536e+09  -0.9453  0.1739  -0.01247  0.009032  0.01778  -0.0002572  -0.5217  0.3155
6.538e+09  -0.8581  0.5413  -0.04353  0.01442  0.0237  -0.008043  -0.4685  0.4935
6.539e+09  -0.6299  0.8101  -0.03086  0.0172  0.01207  0.01568  -0.2368  0.6226
6.54e+09  -0.2967  0.9631  -0.01127  -0.001853  -0.003246  0.06316  -0.02703  0.6818
6.541e+09  0.09325  0.9719  -0.02021  0.0001606  0.0113  0.007352  0.2038  0.6948
6.542e+09  0.3978  0.879  -0.004587  -0.02734  -0.04386  0.00529  0.4383  0.5752
6.544e+09  0.6997  0.6977  0.005456  -0.004834  0.01469  -0.007436  0.6013  0.4075
6.545e+09  0.9041  0.4379  -0.009875  0.009555  0.03677  0.01677  0.6898  0.1554
6.546e+09  0.95  0.08058  0.03127  -0.003839  0.05531  0.02027  0.7285  -0.0717
6.548e+09  0.9591  -0.2561  0.0411  0.02244  -0.01984  -0.002882  0.6594  -0.3144
6.549e+09  0.79  -0.6402  0.03108  0.01071  -0.01253  -0.0118  0.4933  -0.5382
6.55e+09  0.5163  -0.8174  0.01696  0.00957  0.05907  0.003684  0.2916  -0.6823
