# Hz S RI R 50
6.25e+09  -0.3953  0.7415  0.01432  -0.002572  -0.005256  0.02549  0.1653  0.4709
6.251e+09  -0.0645  0.8286  -0.02636  0.004701  -0.01821  -0.06298  0.3696  0.4172
6.252e+09  0.204  0.8194  0.0241  0.03954  0.005382  0.01589  0.5192  0.2318
6.254e+09  0.4761  0.7223  -0.01454  -0.01972  -0.0523  -0.026  0.5835  0.01606
6.255e+09  0.6749  0.4882  0.002138  -0.02863  -0.02372  0.01382  0.5864  -0.1772
6.256e+09  0.7925  0.2631  0.01613  0.01401  0.0004599  -0.01766  0.4551  -0.4484
6.258e+09  0.7818  -0.05902  0.0117  -0.00885  -0.005236  0.003787  0.2993  -0.6004
6.259e+09  0.786  -0.3829  0.0249  0.0004826  0.04524  0.01578  0.05412  -0.6573
6.26e+09  0.6311  -0.5211  0.03479  -0.002581  -0.02672  0.01436  -0.2207  -0.6639
6.261e+09  0.3783  -0.6887  0.0004945  -0.004792  0.02192  -0.002057  -0.476  -0.5388
6.262e+09  0.02489  -0.8073  -0.007858  -0.006666  -0.007094  0.007092  -0.5546  -0.3453
6.264e+09  -0.2042  -0.8548  -0.01268  -0.01959  0.03399  -0.02546  -0.7183  -0.1184
6.265e+09  -0.501  -0.6394  0.001105  0.003493  0.03192  -0.08245  -0.7139  0.1496
6.266e+09  -0.6936  -0.4778  -0.001798  -0.001804  0.06246  -0.005664  -0.5849  0.4009
6.268e+09  -0.8063  -0.3179  0.004625  -0.001386  -0.007972  -0.02032  -0.4225  0.5914
6.269e+09  -0.9034  0.03331  0.01825  -0.01309  0.01529  0.02615  -0.214  0.7185
6.27e+09  -0.7553  0.3074  0.01313  -0.01535  -0.02397  0.02762  0.05907  0.7424
6.271e+09  -0.5755  0.5199  0.007787  -0.01652  0.03088  -0.004611  0.3253  0.6656
6.272e+09  -0.3364  0.775  -0.007359  0.01191  0.03906  -0.005972  0.5477  0.5229
6.274e+09  -0.07727  0.8408  -0.01689  -0.03611  0.007962  -0.01982  0.7018  0.2624
6.275e+09  0.1933  0.7958  0.01852  -0.01927  0.03792  0.03333  0.7612  0.03421
6.276e+09  0.4513  0.7318  -0.03437  -0.008642  0.02395  -0.01431  0.7407  -0.2114
6.278e+09  0.6497  0.4673  0.01226  0.05358  -0.03641  -0.02548  0.6129  -0.4918
6.279e+09  0.8276  0.2382  0.01884  0.007504  -0.008343  0.01061  0.4179  -0.6612
6.28e+09  0.8464  -0.04918  0.003993  -0.01412  0.07027  -0.02797  0.1613  -0.7597
6.281e+09  0.7656  -0.3672  -0.01085  0.02358  -0.03396  -0.02995  -0.1245  -0.7737
6.282e+09  0.5611  -0.5921  0.002886  -0.007416  0.0261  0.04693  -0.3411  -0.7025
6.284e+09  0.3811  -0.7582  0.01852  0.02314  0.06103  0.006217  -0.5992  -0.5149
6.285e+09  0.03975  -0.8045  0.02368  -0.002045  -0.04238  0.008255  -0.7449  -0.2767
6.286e+09  -0.2052  -0.7898  0.005315  -0.01504  0.02262  0.01972  -0.7807  -0.01488
6.288e+09  -0.5235  -0.6439  -0.01022  -0.02946  -0.02203  0.01331  -0.7776  0.2595
6.289e+09  -0.7114  -0.4762  5.652e-05  -0.01261  0.004864  -0.03776  -0.634  0.4948
6.29e+09  -0.8181  -0.1651  0.003489  -0.01969  0.007731  0.01881  -0.3967  0.6942
6.291e+09  -0.8347  0.1152  0.01051  0.01178  0.04796  0.02998  -0.1524  0.8379
6.292e+09  -0.734  0.3762  0.003334  -0.001614  0.0208  0.0558  0.1114  0.8089
6.294e+09  -0.5812  0.5934  0.03693  -0.02666  0.02465  0.02051  0.4116  0.7201
6.295e+09  -0.338  0.7565  -0.02476  -0.004057  0.06623  -0.01946  0.6147  0.5349
6.296e+09  -0.03597  0.7982  -0.01806  0.01287  -0.01037  -0.01076  0.7586  0.3001
6.298e+09  0.2297  0.7485  0.002164  -0.01003  0.03026  -0.04482  0.8344  -0.01395
6.299e+09  0.5754  0.6375  -0.001823  0.02672  0.04401  0.03357  0.798  -0.2728
6.3e+09  0.6934  0.4416  0.01298  -0.02434  0.02759  0.05063  0.653  -0.5442
6.301e+09  0.814  0.1765  -0.002076  0.01561  -0.02304  -0.03197  0.4205  -0.7504
6.302e+09  0.8328  -0.1033  0.01166  0.01224  -0.02372  -0.049  0.1603  -0.8449
6.304e+09  0.7268  -0.4023  0.007021  0.001129  -0.0001132  -0.02991  -0.1621  -0.8193
6.305e+09  0.5269  -0.65  0.01004  0.02925  -0.01242  -0.02098  -0.4231  -0.7271
6.306e+09  0.2853  -0.789  -0.00998  0.01925  0.01895  -0.01832  -0.6724  -0.5387
6.308e+09  -0.01937  -0.8074  -0.003888  0.009749  0.01311  -0.02801  -0.802  -0.3219
6.309e+09  -0.2738  -0.755  -0.03553  0.03781  0.01895  -0.08013  -0.8572  -0.008534
6.31e+09  -0.5091  -0.6286  -0.000968  0.004381  -0.01262  0.06594  -0.8181  0.2776
6.311e+09  -0.7368  -0.4542  0.01629  0.01383  0.03508  0.02794  -0.684  0.5565
6.312e+09  -0.858  -0.1119  -0.03342  -0.006543  -0.02285  -0.01118  -0.4561  0.7447
6.314e+09  -0.8083  0.1602  0.004861  -0.01029  0.01252  -0.04272  -0.1362  0.8128
6.315e+09  -0.7062  0.4287  0.02631  -0.01393  0.02854  0.003648  0.1271  0.8703
6.316e+09  -0.5346  0.6865  0.009194  -0.01009  -0.00122  0.01267  0.4112  0.7838
6.318e+09  -0.2786  0.7838  0.03418  0.03608  0.02043  -0.004746  0.6675  0.5647
6.319e+09  0.02869  0.8744  -0.0008989  -0.0121  0.03873  0.07428  0.8123  0.2884
6.32e+09  0.3281  0.7613  0.03781  0.01759  0.007725  -0.02516  0.8972  0.04345
6.321e+09  0.557  0.604  0.0291  0.01152  -0.08811  -0.006542  0.8571  -0.3004
6.322e+09  0.7984  0.41  -0.0127  -0.01591  0.02494  -0.001605  0.693  -0.532
6.324e+09  0.8167  0.09855  -0.001515  -0.002502  0.004607  -0.02459  0.4492  -0.7624
6.325e+09  0.8171  -0.1903  -0.008496  -0.02405  0.009184  -0.01481  0.1754  -0.903
6.326e+09  0.7292  -0.5112  0.005256  -0.004316  0.01408  -0.004179  -0.1474  -0.8955
6.328e+09  0.4912  -0.6672  0.02902  0.01971  0.01446  -0.01047  -0.458  -0.7882
6.329e+09  0.2433  -0.8657  -0.004655  0.02189  0.03313  0.01256  -0.6908  -0.606
6.33e+09  -0.1105  -0.8358  0.01371  0.01031  -0.009608  0.01219  -0.8297  -0.3617
6.331e+09  -0.3931  -0.7862  0.003071  -0.01507  0.005546  0.04729  -0.9219  -0.03084
6.332e+09  -0.7222  -0.6137  0.0122  -0.008103  -0.02027  0.02467  -0.8678  0.3015
6.334e+09  -0.7971  -0.3352  0.003433  0.01146  0.01272  0.03936  -0.7155  0.5465
6.335e+09  -0.8646  -0.03602  0.00141  -0.001176  -0.08013  0.0587  -0.495  0.7709
6.336e+09  -0.7906  0.2814  -0.01986  0.01247  -0.02197  -0.0285  -0.1754  0.9019
6.338e+09  -0.6786  0.5506  0.01869  0.01569  0.01066  -0.06593  0.1122  0.8978
6.339e+09  -0.421  0.7815  0.003881  -0.003428  0.003438  -0.005948  0.4292  0.7713
6.34e+09  -0.1838  0.7962  -0.006524  0.02589  -0.03567  0.02256  0.6787  0.6412
6.341e+09  0.1422  0.8701  0.006604  0.03679  0.03179  0.02092  0.8544  0.3321
6.342e+09  0.3665  0.7671  -0.009545  0.01313  -0.01711  -0.01009  0.93  0.05037
6.344e+09  0.669  0.5686  0.01858  0.02625  -0.01673  0.00835  0.8763  -0.2915
6.345e+09  0.8258  0.3101  -0.02692  -0.02217  -0.0472  -0.01717  0.7467  -0.563
6.346e+09  0.9075  0.04065  0.05321  -0.01842  0.00607  0.001794  0.5098  -0.8005
6.348e+09  0.828  -0.3233  0.03081  0.01971  -0.01408  0.01826  0.2034  -0.9129
6.349e+09  0.6436  -0.5729  0.004705  -0.0472  -0.005704  -0.02574  -0.0809  -0.8904
6.35e+09  0.4268  -0.7535  0.01295  0.02995  -0.005567  0.0199  -0.4452  -0.8481
6.351e+09  0.1151  -0.8021  -0.002946  0.01244  -0.03149  0.001956  -0.6665  -0.6631
6.352e+09  -0.2506  -0.8754  -0.009172  0.00362  -0.002677  0.009609  -0.93  -0.3885
6.354e+09  -0.4596  -0.8014  -0.03855  0.02469  0.05247  -0.02535  -0.9826  -0.06945
6.355e+09  -0.7311  -0.5362  0.0008131  -0.01402  -0.01801  -0.01752  -0.9104  0.2563
6.356e+09  -0.8976  -0.2184  -0.009327  0.00472  -0.009832  -0.02654  -0.7413  0.5135
6.358e+09  -0.8791  0.05525  -0.008957  -0.02751  -0.02178  0.01285  -0.5195  0.7778
6.359e+09  -0.7833  0.3849  0.01368  0.008653  -0.03201  0.04843  -0.2281  0.9167
6.36e+09  -0.6102  0.5974  0.01943  0.02636  0.003616  -0.01394  0.06257  0.9685
6.361e+09  -0.3673  0.8354  -0.03359  0.0004811  0.005037  0.01962  0.4111  0.8446
6.362e+09  -0.02426  0.8593  -0.02168  0.009563  -0.01297  0.01753  0.6812  0.6558
6.364e+09  0.292  0.9203  -0.01635  0.01726  0.01703  -0.007772  0.8191  0.3733
6.365e+09  0.5588  0.742  0.02854  0.01421  0.001338  -0.0009811  0.9364  0.04281
6.366e+09  0.7709  0.4903  0.0103  0.01019  -0.03502  0.03727  0.8945  -0.2433
6.368e+09  0.8565  0.1474  0.01544  -0.007765  0.03532  -0.02622  0.7658  -0.5326
6.369e+09  0.8694  -0.1027  -0.00873  -0.0144  0.001278  -0.01604  0.5497  -0.8045
6.37e+09  0.7957  -0.4065  -0.02826  0.01499  0.01678  -0.04769  0.256  -0.9231
6.371e+09  0.6212  -0.6762  -0.004604  0.03518  -0.006782  -0.03819  -0.1072  -0.9121
6.372e+09  0.3396  -0.8403  -0.01854  -0.000262  -0.03658  0.02312  -0.3811  -0.8752
6.374e+09  -0.002352  -0.8988  -0.01832  -0.03209  0.008323  0.04588  -0.6622  -0.6774
6.375e+09  -0.2772  -0.8222  0.00609  -0.04139  -0.01718  0.01342  -0.8689  -0.4128
6.376e+09  -0.5873  -0.6784  -0.005147  0.01797  0.02628  -0.02553  -0.9634  -0.1019
6.378e+09  -0.7866  -0.4166  -0.01134  0.01822  -0.01468  0.006605  -0.9101  0.2276
6.379e+09  -0.9043  -0.1723  0.04046  -0.01431  -0.01176  0.01261  -0.7575  0.5546
6.38e+09  -0.8803  0.1728  0.02493  0.01284  -0.01337  0.01386  -0.5482  0.8115
6.381e+09  -0.7576  0.4583  -0.02674  -0.02228  0.02222  -0.03318  -0.2352  0.8896
6.382e+09  -0.5869  0.6752  -0.02193  0.0104  0.01918  -0.02027  0.01318  0.942
6.384e+09  -0.2845  0.7912  -0.034  0.00386  0.02542  0.02574  0.3238  0.8534
6.385e+09  0.02352  0.8996  0.02068  -0.01446  -0.02315  0.04521  0.6589  0.6559
6.386e+09  0.3507  0.8083  0.001853  0.02015  0.02758  0.03233  0.8542  0.419
6.388e+09  0.5835  0.6741  0.001849  0.0363  0.007484  -0.02128  0.9233  0.1046
6.389e+09  0.7595  0.4494  0.04001  0.05502  -0.01592  0.006731  0.9159  -0.1567
6.39e+09  0.915  0.131  0.03343  -0.008452  0.002257  0.02813  0.8112  -0.4641
6.391e+09  0.8655  -0.1988  0.03526  0.0006647  0.03151  0.03657  0.5514  -0.6938
6.392e+09  0.7558  -0.4888  0.006248  0.008649  0.008131  0.02524  0.2914  -0.9051
6.394e+09  0.5564  -0.6929  -0.001105  -0.01526  -0.06087  -0.04177  -0.008897  -0.9284
6.395e+09  0.2091  -0.8717  0.006996  0.01854  -0.0008261  -0.005627  -0.3822  -0.8638
6.396e+09  -0.05145  -0.9635  -0.001432  -0.01501  0.01031  -0.02711  -0.6049  -0.6813
6.398e+09  -0.3477  -0.8063  0.07166  -0.02597  0.02111  -0.02702  -0.8224  -0.4879
6.399e+09  -0.6206  -0.6432  0.008294  -0.002557  0.04042  -0.006186  -0.909  -0.1674
6.4e+09  -0.8172  -0.4186  -0.03321  0.008481  0.00136  -0.004736  -0.9091  0.2094
6.401e+09  -0.8394  -0.0957  -0.01664  -0.006646  0.01912  -0.003344  -0.7748  0.4426
6.402e+09  -0.8923  0.2295  -0.001702  0.006674  0.01043  -0.0003753  -0.5607  0.6899
6.404e+09  -0.72  0.506  -0.02444  0.007109  0.03058  0.002812  -0.2936  0.8818
6.405e+09  -0.494  0.7166  0.01057  0.02504  0.009354  -0.01653  0.005722  0.9448
6.406e+09  -0.2269  0.8773  0.01154  -0.015  -0.0007628  0.01301  0.3327  0.8822
6.408e+09  0.1082  0.8786  0.05131  0.005949  0.05584  -0.006418  0.6021  0.7148
6.409e+09  0.3761  0.7961  0.04543  -0.02767  0.01385  -0.0601  0.7598  0.4537
6.41e+09  0.6243  0.5541  -0.02902  0.001716  -0.01978  0.02511  0.8777  0.1938
6.411e+09  0.7776  0.3517  -0.03467  -0.007858  0.01744  -0.01551  0.9304  -0.1318
6.412e+09  0.8493  0.06408  0.0299  0.01164  0.00553  0.002318  0.8143  -0.4071
6.414e+09  0.8877  -0.2695  0.02459  0.03244  -0.0239  0.02636  0.6024  -0.6678
6.415e+09  0.7435  -0.5114  0.03383  -0.004476  -0.01039  -0.0856  0.3291  -0.8822
6.416e+09  0.5001  -0.7513  -0.01083  0.008053  0.009549  0.00867  0.02637  -0.9071
6.418e+09  0.1853  -0.8979  0.02208  0.05025  0.008297  -0.01038  -0.2731  -0.8255
6.419e+09  -0.09987  -0.8871  0.01486  0.03451  0.001302  -0.03408  -0.5492  -0.7052
6.42e+09  -0.3726  -0.8347  0.01352  -0.02145  -0.009902  0.04031  -0.7485  -0.4907
6.421e+09  -0.5926  -0.6003  -0.04793  -0.01387  -0.01411  -0.02357  -0.8789  -0.2137
6.422e+09  -0.8047  -0.3155  0.02302  0.004734  -0.01584  0.009626  -0.8525  0.1019
6.424e+09  -0.8693  -0.04167  0.04578  -0.02142  -0.04231  -0.01154  -0.8253  0.4126
6.425e+09  -0.8083  0.2392  0.02284  0.006225  0.01693  -0.02038  -0.6058  0.6338
6.426e+09  -0.7107  0.5588  -0.01808  -0.08273  -0.0421  -0.01148  -0.3607  0.8095
6.428e+09  -0.501  0.7796  -0.0138  0.03283  -0.02514  0.008655  -0.0113  0.8831
6.429e+09  -0.233  0.8587  0.0006228  -0.02159  0.008289  0.02025  0.3119  0.8266
6.43e+09  0.1116  0.8761  -0.06428  -0.02109  0.03162  0.02638  0.5229  0.7434
6.431e+09  0.4059  0.8107  -0.02919  -0.0007525  0.03923  0.02718  0.6908  0.47
6.432e+09  0.6711  0.6052  0.005722  -0.0247  -0.04567  -0.007174  0.8702  0.1717
6.434e+09  0.8504  0.2474  -0.02465  0.008731  -0.03818  0.01265  0.8598  -0.1016
6.435e+09  0.8929  0.02548  0.02331  -0.03396  -0.0146  0.02829  0.7836  -0.3512
6.436e+09  0.832  -0.2641  -0.01243  0.0103  0.007279  -0.03625  0.5785  -0.5988
6.438e+09  0.6759  -0.5744  0.02937  0.006728  -0.001438  -0.01269  0.3299  -0.7553
6.439e+09  0.4921  -0.7243  0.0009135  0.01278  -0.01961  0.01765  0.1112  -0.8631
6.44e+09  0.2385  -0.8068  0.0304  0.01396  0.009874  -0.018  -0.254  -0.8293
6.441e+09  -0.09576  -0.887  -0.02231  0.006822  0.0008592  -0.01204  -0.4919  -0.6647
6.442e+09  -0.429  -0.7834  0.0123  -0.01187  0.02195  0.03119  -0.7297  -0.4731
6.444e+09  -0.6122  -0.6041  -0.001832  -0.0374  0.027  0.02123  -0.8416  -0.2124
6.445e+09  -0.7956  -0.2907  0.01176  0.001596  0.02515  0.03112  -0.8528  0.1025
6.446e+09  -0.8631  -0.01746  0.01247  -0.002809  -0.006286  -0.01128  -0.7434  0.3217
6.448e+09  -0.8154  0.2462  -0.004944  0.0286  -0.01414  -0.04109  -0.6113  0.6111
6.449e+09  -0.6763  0.481  -0.004903  -0.06132  0.01378  -0.01334  -0.3529  0.7455
6.45e+09  -0.4253  0.8184  -0.0226  -0.0388  0.01926  -0.04877  -0.05344  0.8394
6.451e+09  -0.1635  0.8523  0.02638  -0.03143  0.02845  -0.03725  0.2228  0.8231
6.452e+09  0.1188  0.8942  0.01254  0.03201  -0.04748  0.02626  0.4674  0.6449
6.454e+09  0.4383  0.7687  0.01745  0.01325  -0.07656  0.01409  0.6436  0.5013
6.455e+09  0.6874  0.5525  -0.006614  -0.02101  0.01833  0.03263  0.7874  0.2565
6.456e+09  0.8238  0.3225  0.0127  -0.01428  -0.05357  -0.003797  0.8517  -0.1298
6.458e+09  0.8431  0.0006588  0.008977  -0.03332  -0.0214  -0.02885  0.761  -0.3525
6.459e+09  0.8069  -0.258  -0.03191  -0.002231  0.01288  0.04082  0.5818  -0.5764
6.46e+09  0.6705  -0.5763  -0.02513  0.007532  -0.0009928  0.05297  0.3554  -0.7325
6.461e+09  0.4183  -0.7773  -0.0176  0.04343  -0.04463  0.008697  0.06659  -0.8565
6.462e+09  0.1957  -0.873  -0.03208  -0.003645  -0.06679  0.00185  -0.1957  -0.7577
6.464e+09  -0.1487  -0.8763  -0.00516  0.0253  0.001209  0.006944  -0.4667  -0.6644
6.465e+09  -0.4402  -0.7745  -0.02819  0.01207  -0.009422  0.01673  -0.666  -0.4157
6.466e+09  -0.6928  -0.5671  -0.0664  0.00465  -0.007217  0.04144  -0.8031  -0.2035
6.468e+09  -0.8159  -0.3271  0.05549  0.03738  -0.02486  0.008051  -0.7913  0.0381
6.469e+09  -0.8967  -0.04619  0.02503  0.005193  -0.03921  -0.001357  -0.72  0.3736
6.47e+09  -0.8511  0.2763  -0.01702  0.01824  -0.05453  -0.003396  -0.563  0.571
6.471e+09  -0.7154  0.5812  0.06214  0.003885  -0.02259  0.01168  -0.3275  0.7022
6.472e+09  -0.4526  0.7489  0.02082  0.03991  0.01265  0.01662  -0.05473  0.7882
6.474e+09  -0.1121  0.9012  -0.007139  0.03285  -0.02894  -0.02112  0.2295  0.7381
6.475e+09  0.1292  0.9432  -0.0116  0.002844  0.02883  -0.01806  0.4707  0.6412
6.476e+09  0.413  0.7871  -0.02528  0.03234  0.03133  0.008022  0.6704  0.4408
6.478e+09  0.6665  0.5659  -0.001827  -0.05406  0.03487  -0.01583  0.7441  0.208
6.479e+09  0.8612  0.3082  0.009016  0.00415  -0.003324  -0.04431  0.8086  -0.06912
6.48e+09  0.94  -0.01395  0.01436  0.03592  0.009337  -0.03503  0.7443  -0.3242
6.481e+09  0.8365  -0.2916  -0.04802  -0.01349  -0.005763  -0.03433  0.5612  -0.6192
6.482e+09  0.7478  -0.5887  0.02026  0.01766  -0.02983  -0.009663  0.3619  -0.6868
6.484e+09  0.4367  -0.8195  0.01249  -0.01135  0.01221  -0.04454  0.06363  -0.763
6.485e+09  0.142  -0.9276  0.05969  0.02761  -0.03457  0.01581  -0.1835  -0.7244
6.486e+09  -0.1604  -0.8842  0.01416  -0.02125  0.04456  -0.05838  -0.4802  -0.6159
6.488e+09  -0.4914  -0.7489  0.04282  -0.02392  0.047  0.02414  -0.6226  -0.436
6.489e+09  -0.7123  -0.5587  -0.03073  -0.01317  0.0477  0.02116  -0.7576  -0.1847
6.49e+09  -0.8496  -0.3168  0.02646  0.06732  0.007635  -0.03346  -0.7682  0.07049
6.491e+09  -0.9425  0.01985  -0.02517  -0.02816  0.0008666  -0.01114  -0.7148  0.3522
6.492e+09  -0.9014  0.3519  -0.003323  0.01207  0.03074  -0.00987  -0.5446  0.514
6.494e+09  -0.7199  0.6338  0.007046  -0.01553  0.006551  0.02757  -0.3137  0.6861
6.495e+09  -0.4025  0.8373  0.03964  0.003814  0.03745  0.0575  -0.03983  0.7449
6.496e+09  -0.08327  0.9463  -0.005682  0.01613  -0.009647  0.0409  0.2588  0.7461
6.498e+09  0.219  0.8806  0.00583  0.04093  -0.02305  -0.001554  0.4561  0.5976
6.499e+09  0.4833  0.7622  0.004312  -0.0004579  -0.001661  0.0008066  0.6347  0.3858
6.5e+09  0.7661  0.5874  -0.03475  -0.02022  0.02296  0.06068  0.7972  0.1799
6.501e+09  0.9148  0.2682  -0.005066  0.06124  -0.04839  0.01231  0.7136  -0.1168
6.502e+09  0.9039  -0.06317  -0.06079  -0.009514  -0.02226  -0.01903  0.7104  -0.3222
6.504e+09  0.8606  -0.3869  -0.01284  -0.01006  0.05705  -0.006032  0.487  -0.5705
6.505e+09  0.6926  -0.6268  -0.006236  -0.03087  -0.004816  -0.05025  0.2701  -0.6708
6.506e+09  0.4175  -0.8101  0.0005123  -0.02645  0.0192  0.02595  -0.009735  -0.7781
6.508e+09  0.1046  -0.9424  0.008763  -0.007251  -0.003414  0.007553  -0.2787  -0.6977
6.509e+09  -0.2423  -0.8775  0.005707  0.0007891  -0.01595  0.05131  -0.4384  -0.5529
6.51e+09  -0.5585  -0.7764  0.02713  -0.01141  0.00559  0.02335  -0.6489  -0.3329
6.511e+09  -0.8298  -0.5285  -0.008167  0.02094  0.002152  0.01189  -0.7445  -0.1345
6.512e+09  -0.9597  -0.2665  0.005664  7.667e-06  -0.01276  -0.02533  -0.7463  0.1251
6.514e+09  -0.9355  0.02294  -0.02597  -0.005338  0.01079  0.007207  -0.6825  0.3815
6.515e+09  -0.853  0.4378  0.006967  -0.01406  -0.02138  0.05106  -0.4837  0.6138
6.516e+09  -0.6518  0.679  -0.01545  -0.02251  0.00565  0.004084  -0.2316  0.6769
6.518e+09  -0.3855  0.8634  0.0222  0.01438  -0.02032  0.03746  0.02026  0.7213
6.519e+09  -0.05418  0.9353  0.00677  0.03495  0.02663  -0.04454  0.2822  0.6627
6.52e+09  0.2936  0.9701  -0.0184  -0.001279  -0.02457  0.01076  0.4756  0.5797
6.521e+09  0.5969  0.8038  0.03615  -0.0327  0.01027  0.003456  0.6452  0.3652
6.522e+09  0.8206  0.569  -0.006777  0.01858  -0.06503  -0.008657  0.7399  0.09102
6.524e+09  0.9832  0.2064  0.01124  0.02384  0.03255  -0.03117  0.7123  -0.1435
6.525e+09  0.9258  -0.1386  -0.01902  0.01192  0.01956  -0.01098  0.5877  -0.3779
6.526e+09  0.9037  -0.4732  -0.009817  -0.002476  -0.02102  -0.02515  0.4614  -0.5663
6.528e+09  0.6824  -0.7256  0.02756  0.02512  0.0261  -0.01767  0.1643  -0.6756
6.529e+09  0.3151  -0.866  -0.02725  0.01405  0.01495  0.006044  -0.05688  -0.696
6.53e+09  0.03281  -0.9183  0.0268  0.02778  -0.04645  0.03538  -0.2877  -0.6092
6.531e+09  -0.4013  -0.9124  0.001861  -0.005821  -0.004631  -0.0007927  -0.4647  -0.4851
6.532e+09  -0.6641  -0.7034  -0.01402  -0.03241  -0.06855  0.00309  -0.5568  -0.2973
6.534e+09  -0.8912  -0.4754  -0.008951  -0.007898  0.02441  -0.01702  -0.649  -0.08561
6.535e+09  -0.9459  -0.1354  0.001184  -0.01916  0.01662  0.008466  -0.6141  0.1502
6.536e+09  -0.9516  0.2445  0.005375  -0.0154  -0.03349  0.01174  -0.5415  0.299
6.538e+09  -0.8439  0.5214  -0.0116  0.005329  -0.03776  -0.002154  -0.4702  0.469
6.539e+09  -0.5943  0.7848  -0.0147  -0.01825  -0.006669  -0.02667  -0.3008  0.5653
6.54e+09  -0.2615  0.9915  -0.04019  0.01452  -0.005901  -0.01183  -0.06635  0.6717
6.541e+09  0.06546  1.019  0.0008181  -0.06253  0.009883  0.04197  0.1977  0.6851
6.542e+09  0.4666  0.874  0.01569  -0.004988  0.02901  0.01829  0.3958  0.5818
6.544e+09  0.7056  0.6716  -0.02472  -0.02298  -0.0001478  -0.023  0.614  0.4083
6.545e+09  0.9029  0.4094  -0.0126  0.03208  -0.008063  0.01919  0.6924  0.1657
6.546e+09  0.94  0.066  0.01467  0.02543  0.03434  -0.01947  0.7232  -0.08454
6.548e+09  0.956  -0.287  0.00311  -0.04584  -0.01938  0.00513  0.6248  -0.3148
6.549e+09  0.7722  -0.5929  0.002748  0.002979  -0.008402  -0.04368  0.5103  -0.574
6.55e+09  0.5505  -0.8385  0.01341  -0.004138  -0.0141  0.02142  0.3247  -0.6492
6.551e+09  0.1977  -0.9621  0.02386  -0.03093  -0.03302  -0.006344  0.02098  -0.706
