# Hz S RI R 50
6.25e+09  -0.1029  0.8921  -0.02427  -0.02076  0.05635  0.01217  0.1405  0.4854
6.251e+09  0.273  0.8222  0.0004999  -0.007375  0.0009199  -0.04518  0.389  0.3831
6.252e+09  0.5183  0.7134  -0.02084  0.01371  0.01186  0.02064  0.5266  0.2469
6.254e+09  0.7306  0.5087  0.02083  -0.0186  -0.0511  -0.04837  0.5949  0.01635
6.255e+09  0.8553  0.196  0.01029  -0.01138  0.01315  0.05523  0.597  -0.1826
6.256e+09  0.8815  -0.08424  0.0325  -0.01968  -0.04168  0.006006  0.4624  -0.4817
6.258e+09  0.7085  -0.4128  0.01348  -0.02947  0.02312  -0.02341  0.2494  -0.5889
6.259e+09  0.5617  -0.6266  0.002188  0.02586  0.01308  0.03265  0.02622  -0.6674
6.26e+09  0.327  -0.7874  -0.01698  -0.02293  0.03362  0.004143  -0.2095  -0.6083
6.261e+09  -0.03752  -0.8622  -0.0106  -0.002405  0.03375  0.02874  -0.4702  -0.5507
6.262e+09  -0.2786  -0.8334  0.02306  -0.007554  0.05112  0.005222  -0.647  -0.3392
6.264e+09  -0.5411  -0.6547  -0.0114  0.01655  -0.05144  0.02886  -0.6897  -0.1121
6.265e+09  -0.762  -0.4311  0.009286  -0.01179  -0.0181  -0.02014  -0.706  0.1471
6.266e+09  -0.8129  -0.1691  0.01478  0.004666  -0.006161  0.01303  -0.605  0.4146
6.268e+09  -0.7885  0.1021  0.009371  0.008144  -0.03783  0.03386  -0.437  0.6382
6.269e+09  -0.7398  0.396  -0.01017  -0.01316  0.05845  0.01434  -0.2163  0.7491
6.27e+09  -0.4418  0.6467  0.01924  -0.0322  -0.0365  0.003708  0.06557  0.7122
6.271e+09  -0.2745  0.8138  -0.02498  -0.01718  -0.01921  -0.007879  0.2907  0.6522
6.272e+09  0.0252  0.7886  -0.01344  -0.01666  -0.008507  0.02138  0.5199  0.5262
6.274e+09  0.3216  0.7784  -0.002317  0.03398  -0.01963  -0.04063  0.7059  0.286
6.275e+09  0.5764  0.6026  0.01379  -0.01036  -0.001662  -0.01745  0.7481  0.0561
6.276e+09  0.7335  0.4075  0.007029  0.0005305  -0.009962  0.01249  0.7069  -0.2409
6.278e+09  0.7765  0.1211  0.006067  -0.02651  -0.02775  -0.01738  0.6185  -0.4707
6.279e+09  0.8304  -0.1485  0.003122  0.001467  -0.01639  0.00602  0.4215  -0.6521
6.28e+09  0.668  -0.3887  0.01315  -0.02182  -0.004611  -0.01814  0.1566  -0.7714
6.281e+09  0.5412  -0.6063  -0.004101  -0.01271  -0.04422  -0.01977  -0.09555  -0.7614
6.282e+09  0.2681  -0.792  0.01584  -0.01954  0.01403  0.001629  -0.3544  -0.7072
6.284e+09  -0.06288  -0.8665  0.0314  0.032  0.003972  0.01938  -0.598  -0.4826
6.285e+09  -0.3103  -0.7739  0.008039  -0.01174  -0.02778  0.01831  -0.7514  -0.2989
6.286e+09  -0.561  -0.5958  -0.00181  -0.02742  -0.02564  0.005479  -0.7844  -0.02027
6.288e+09  -0.7922  -0.3769  0.006854  -0.01221  -0.02272  0.04968  -0.7615  0.2188
6.289e+09  -0.7615  -0.113  -0.01327  -0.02859  0.01205  -0.07915  -0.657  0.5071
6.29e+09  -0.7887  0.1948  -0.0007736  0.01508  -0.02175  -0.00446  -0.41  0.6932
6.291e+09  -0.7129  0.4751  0.01437  0.008958  -0.021  -0.013  -0.1663  0.7845
6.292e+09  -0.4938  0.6892  0.003671  -0.01595  0.03896  -0.02605  0.1316  0.7966
6.294e+09  -0.2287  0.7641  0.0223  0.009775  -0.005791  -0.01662  0.3926  0.6823
6.295e+09  0.07996  0.8121  0.01837  0.0009392  0.01099  0.007788  0.6278  0.5455
6.296e+09  0.3277  0.7538  0.01246  -0.0069  -0.01277  0.01107  0.7765  0.3025
6.298e+09  0.6027  0.608  0.03993  0.002545  -0.01387  0.001078  0.8059  0.02499
6.299e+09  0.7799  0.3701  0.01429  0.002076  -0.002219  -0.01931  0.7763  -0.2467
6.3e+09  0.8158  0.09812  0.03055  -0.004139  5.484e-05  -0.009141  0.639  -0.5275
6.301e+09  0.7497  -0.2358  0.004937  0.02259  0.03933  -0.01332  0.4178  -0.7251
6.302e+09  0.7075  -0.4595  -0.003778  0.02246  0.006121  -0.02233  0.1803  -0.7936
6.304e+09  0.4217  -0.7348  0.02518  -0.02183  0.01385  0.0591  -0.1464  -0.8461
6.305e+09  0.2334  -0.827  0.03054  -0.008406  0.02975  0.02333  -0.4032  -0.7843
6.306e+09  -0.1027  -0.8106  -0.002816  0.01709  -0.03508  0.0341  -0.6255  -0.5611
6.308e+09  -0.3842  -0.8135  -0.004743  -0.001757  0.06012  0.01334  -0.7915  -0.3013
6.309e+09  -0.6755  -0.5278  -0.004456  0.04374  0.03607  0.03179  -0.8743  0.03469
6.31e+09  -0.7969  -0.3227  -0.0157  -0.02627  -0.02982  0.002838  -0.8235  0.2802
6.311e+09  -0.8457  -0.06752  0.01377  -0.01918  0.03228  -0.001511  -0.6713  0.53
6.312e+09  -0.7596  0.2824  0.01705  -0.02236  0.007243  -0.000582  -0.4741  0.7666
6.314e+09  -0.6128  0.5551  0.01624  0.0006314  0.004364  0.01526  -0.1878  0.858
6.315e+09  -0.3965  0.7545  -0.0005269  0.01413  0.002129  -0.001495  0.1175  0.8644
6.316e+09  -0.1419  0.8181  -0.02347  -0.0001377  0.02324  -0.00205  0.3855  0.7712
6.318e+09  0.1703  0.8672  0.009622  -0.0004714  0.01359  0.0279  0.679  0.5469
6.319e+09  0.4039  0.7217  0.009324  -0.02051  0.01846  0.05063  0.8087  0.3116
6.32e+09  0.6583  0.5531  0.01053  -0.01569  -0.0002358  -0.002042  0.8528  0.0813
6.321e+09  0.8541  0.2562  -0.007049  -0.001348  0.003779  -0.002427  0.8354  -0.2611
6.322e+09  0.8405  -0.05351  -0.03644  0.02942  -0.01093  0.04038  0.6797  -0.5995
6.324e+09  0.8057  -0.348  -0.00338  0.0185  0.03806  0.005075  0.4531  -0.7755
6.325e+09  0.6146  -0.5825  -0.005794  -0.01916  -0.008651  -0.02347  0.1638  -0.8893
6.326e+09  0.4013  -0.7851  -0.031  -0.01515  -0.017  0.0263  -0.1259  -0.8926
6.328e+09  0.1391  -0.8115  0.001973  0.01198  0.03065  -0.03229  -0.449  -0.7898
6.329e+09  -0.2149  -0.8409  -0.01678  -0.01452  0.0114  -0.007799  -0.6731  -0.5742
6.33e+09  -0.4972  -0.7216  -0.02181  0.009242  0.02454  -0.01585  -0.8587  -0.3413
6.331e+09  -0.7292  -0.4759  -0.01414  0.01764  -0.004922  -0.0415  -0.913  -0.01614
6.332e+09  -0.8689  -0.2179  -0.01205  -0.005129  0.0418  0.03758  -0.8661  0.312
6.334e+09  -0.8349  0.1063  0.0003709  0.02025  0.03587  -0.009413  -0.7174  0.546
6.335e+09  -0.8113  0.4142  -0.003294  -0.02888  0.01638  -0.01315  -0.5042  0.7931
6.336e+09  -0.614  0.6746  0.01563  -0.004294  0.009885  0.04848  -0.1948  0.8987
6.338e+09  -0.3201  0.7738  -0.01367  0.002855  0.0008193  -0.02138  0.1325  0.9008
6.339e+09  -0.05911  0.9197  -0.01084  0.02953  -0.03213  -0.04094  0.4436  0.8051
6.34e+09  0.2737  0.796  -0.007497  0.0319  -0.007132  0.02396  0.6809  0.6565
6.341e+09  0.5355  0.6798  0.007281  -0.007803  -0.01843  0.04077  0.8645  0.3444
6.342e+09  0.7498  0.4267  -0.02239  0.009173  0.03642  0.003864  0.9705  0.05039
6.344e+09  0.8945  0.1811  -0.002075  -0.01123  0.0172  -0.003407  0.8336  -0.2855
6.345e+09  0.9152  -0.1517  0.05543  0.002219  -0.03351  0.008971  0.7242  -0.5345
6.346e+09  0.7675  -0.4492  -0.01559  -0.0003541  0.03501  -0.02022  0.538  -0.8012
6.348e+09  0.5777  -0.6891  0.003302  -0.01774  -0.01314  0.04319  0.2253  -0.9146
6.349e+09  0.2389  -0.8303  -0.025  -0.01777  -0.01323  -0.04786  -0.08586  -0.9232
6.35e+09  -0.01708  -0.9148  -0.003712  0.004701  -0.01671  0.02297  -0.4105  -0.7953
6.351e+09  -0.375  -0.7783  -0.0123  0.01391  0.001025  0.00345  -0.7033  -0.6049
6.352e+09  -0.6133  -0.6184  -0.03253  0.007542  0.01149  0.03492  -0.8711  -0.3417
6.354e+09  -0.8064  -0.4103  -0.006923  -0.03555  0.006089  0.03965  -0.9475  -0.06999
6.355e+09  -0.8923  -0.05401  0.003321  -0.01055  0.0261  0.03823  -0.8753  0.2832
6.356e+09  -0.896  0.1896  0.004538  0.006201  -0.002992  0.05494  -0.7321  0.5653
6.358e+09  -0.7406  0.5074  0.0009779  0.01564  0.03675  0.001765  -0.5618  0.795
6.359e+09  -0.5425  0.7496  -0.02869  0.04906  -0.01768  -0.009591  -0.1851  0.9152
6.36e+09  -0.2346  0.8796  0.004912  0.04046  -0.004181  -0.008968  0.07486  0.9391
6.361e+09  0.08131  0.9377  -0.026  -0.05016  -0.02914  0.009452  0.4011  0.8991
6.362e+09  0.3885  0.8282  0.01818  0.0136  0.02102  0.03015  0.7022  0.6744
6.364e+09  0.6597  0.6681  -0.03221  -0.02478  -0.01639  -0.0294  0.8677  0.4138
6.365e+09  0.861  0.322  -0.028  0.0025  0.02389  -0.003914  0.9394  0.07315
6.366e+09  0.8751  0.09696  -0.0353  0.03174  -0.04155  -0.0227  0.9117  -0.2344
6.368e+09  0.8622  -0.2456  -7.778e-05  0.02679  0.007113  0.05304  0.7826  -0.5781
6.369e+09  0.7566  -0.4879  0.007849  -0.01103  -0.01472  0.01857  0.564  -0.7767
6.37e+09  0.5043  -0.7241  0.007686  0.03718  -0.02836  0.01148  0.2281  -0.9019
6.371e+09  0.1865  -0.9063  0.03504  0.01739  -0.01396  0.005817  -0.07711  -0.9809
6.372e+09  -0.1659  -0.854  0.0036  -0.03734  0.03847  -0.01047  -0.4024  -0.8195
6.374e+09  -0.428  -0.7597  0.01409  0.02111  0.0396  -0.01453  -0.6321  -0.7057
6.375e+09  -0.6494  -0.5898  -0.01679  0.009147  -0.02225  0.008897  -0.8702  -0.3999
6.376e+09  -0.8906  -0.2893  -0.01254  -0.003625  -0.01385  -0.02989  -0.9424  -0.0935
6.378e+09  -0.9089  -0.002975  0.03125  0.03189  -0.01068  0.01556  -0.9043  0.2234
6.379e+09  -0.8165  0.3122  0.007678  -0.05101  -0.01144  0.004358  -0.7966  0.5106
6.38e+09  -0.6936  0.5596  -0.03819  -0.01564  -0.02534  0.02754  -0.5805  0.7246
6.381e+09  -0.4708  0.7446  -0.02878  -0.005417  0.02538  -0.01332  -0.3118  0.9157
6.382e+09  -0.1318  0.9287  -0.01236  0.05151  0.005031  -0.04285  0.07474  0.885
6.384e+09  0.1866  0.8809  -0.01647  -0.01255  0.0007455  -0.01786  0.3539  0.8679
6.385e+09  0.5026  0.7832  0.0004712  -0.02611  0.04015  -0.03091  0.6356  0.7004
6.386e+09  0.69  0.551  0.03707  0.03183  0.03564  -0.01836  0.847  0.406
6.388e+09  0.8436  0.2947  -0.001054  0.00753  0.009193  -0.01563  0.9141  0.1139
6.389e+09  0.8541  -0.006024  -0.009197  -0.06733  0.02771  -0.04185  0.914  -0.2296
6.39e+09  0.8172  -0.3484  0.007335  0.05589  -0.0137  -0.004993  0.8392  -0.5129
6.391e+09  0.6425  -0.5531  0.03088  -0.03118  0.01677  0.01273  0.575  -0.7611
6.392e+09  0.4036  -0.8249  0.008769  0.00311  0.02234  0.005478  0.2942  -0.8921
6.394e+09  0.1299  -0.9124  -0.01964  -0.01207  0.01856  0.003262  -0.04386  -0.8908
6.395e+09  -0.1903  -0.8563  -0.02197  0.01246  -0.02568  0.04274  -0.3749  -0.8224
6.396e+09  -0.5134  -0.7652  -0.01662  0.01285  -0.006598  -0.009925  -0.5921  -0.6853
6.398e+09  -0.679  -0.5783  0.02923  0.005394  0.02096  0.01693  -0.7833  -0.4776
6.399e+09  -0.8609  -0.3009  0.007684  0.02611  0.01311  -0.01476  -0.9063  -0.1646
6.4e+09  -0.9474  0.09084  -0.007033  -0.002243  0.02708  -0.02282  -0.9555  0.1967
6.401e+09  -0.8353  0.3273  -0.003335  -0.0231  -0.01791  -0.02581  -0.7967  0.4379
6.402e+09  -0.6394  0.6369  0.0001703  -0.05868  -0.05777  -0.02938  -0.5679  0.6651
6.404e+09  -0.3719  0.8093  -0.01215  0.01116  -0.01825  -0.01075  -0.3259  0.8974
6.405e+09  -0.1577  0.9064  0.02834  -0.01777  0.02384  -0.01713  0.03827  0.9542
6.406e+09  0.2245  0.8393  -0.005729  -0.04135  0.01046  -0.001241  0.3154  0.8775
6.408e+09  0.4789  0.7704  -0.02618  -0.006951  -0.01995  -0.0112  0.5843  0.6985
6.409e+09  0.7028  0.4775  -0.00212  -0.01419  0.004953  -0.00797  0.7718  0.4705
6.41e+09  0.8536  0.2092  0.002203  -0.002594  -0.04753  -0.03137  0.8596  0.1752
6.411e+09  0.8545  -0.07087  -0.005994  -0.007111  -0.009064  -0.02244  0.8929  -0.152
6.412e+09  0.7641  -0.4141  0.04389  0.01753  -0.009473  -0.05822  0.8023  -0.386
6.414e+09  0.6463  -0.6584  0.01398  0.02386  -0.014  0.04256  0.6229  -0.6922
6.415e+09  0.3861  -0.8406  -0.01178  0.002693  0.02282  -0.01569  0.2965  -0.8692
6.416e+09  0.07869  -0.93  0.02656  0.03596  0.06583  0.04569  0.03748  -0.9332
6.418e+09  -0.2362  -0.8431  0.05484  -0.01342  -0.00553  -0.01386  -0.2831  -0.8512
6.419e+09  -0.5353  -0.7224  -0.003582  -0.01684  -0.008154  -0.01031  -0.5829  -0.6814
6.42e+09  -0.805  -0.5064  -0.01873  0.05719  0.03253  0.009824  -0.7391  -0.4841
6.421e+09  -0.863  -0.2625  0.001162  0.03673  0.01473  -0.01992  -0.8392  -0.1794
6.422e+09  -0.9117  0.0892  -0.0039  -0.01797  -0.02471  0.01715  -0.8667  0.1155
6.424e+09  -0.8411  0.3975  0.02602  0.01023  -0.003866  -0.02954  -0.8157  0.4234
6.425e+09  -0.6388  0.6514  -0.03029  -0.02857  -0.04864  0.005098  -0.6038  0.6688
6.426e+09  -0.361  0.8501  0.01491  0.01936  0.003357  0.05523  -0.3359  0.8364
6.428e+09  -0.02077  0.859  -0.008776  0.008509  -0.00716  -0.02221  -0.09222  0.9237
6.429e+09  0.2611  0.872  0.02044  0.01534  -0.03541  0.01292  0.2891  0.874
6.43e+09  0.5277  0.6834  0.01205  0.01518  0.01786  -0.003148  0.4794  0.7232
6.431e+09  0.7079  0.4801  -0.003551  0.006534  0.0158  0.0183  0.7215  0.4644
6.432e+09  0.8656  0.159  0.03454  -0.05128  0.01203  0.008784  0.8481  0.1919
6.434e+09  0.9233  -0.1483  -0.001592  -0.03406  -0.01213  0.01538  0.8669  -0.1036
6.435e+09  0.8104  -0.4499  -0.02011  -0.001196  -0.02655  0.02663  0.7816  -0.3637
6.436e+09  0.6209  -0.6995  -0.03091  -0.009477  -0.0318  -0.02707  0.6266  -0.6027
6.438e+09  0.28  -0.8328  -0.02604  0.01169  -0.03215  -0.008253  0.3619  -0.7862
6.439e+09  -0.0353  -0.9506  0.003945  -0.0678  -0.01528  -0.01978  0.05917  -0.8083
6.44e+09  -0.3163  -0.8661  0.007144  0.01204  -0.008984  -0.04448  -0.234  -0.8208
6.441e+09  -0.613  -0.7107  -0.00244  -0.0006903  0.007029  -0.01058  -0.5082  -0.7583
6.442e+09  -0.8136  -0.4716  0.03617  0.02791  0.03779  -0.02652  -0.6758  -0.4794
6.444e+09  -0.8724  -0.1722  -0.0245  0.01162  0.01256  0.0311  -0.8263  -0.1941
6.445e+09  -0.8729  0.1608  0.02635  0.01432  -0.04068  -0.01545  -0.8193  0.05134
6.446e+09  -0.7342  0.4871  -0.01264  0.007249  -0.01115  -0.005495  -0.741  0.348
6.448e+09  -0.6397  0.7459  -0.003067  -0.04365  -0.01954  0.001506  -0.563  0.6067
6.449e+09  -0.3327  0.8224  -0.01165  0.02277  0.007151  0.02244  -0.3484  0.764
6.45e+09  -0.01804  0.9392  0.0005603  -0.02892  0.01645  0.03756  -0.05672  0.8341
6.451e+09  0.352  0.8625  -0.01148  -0.02176  0.03211  0.06833  0.2153  0.8124
6.452e+09  0.6001  0.6848  -0.00975  -0.0261  -0.02443  -0.01426  0.4552  0.6402
6.454e+09  0.8017  0.4337  -0.0102  0.001705  0.01656  -0.001488  0.7147  0.4609
6.455e+09  0.9178  0.1796  0.001257  -0.08256  0.04084  -0.03892  0.8507  0.1963
6.456e+09  0.9057  -0.2113  -0.04948  -0.03717  -0.03509  0.03995  0.8402  -0.0976
6.458e+09  0.7938  -0.4874  0.0009407  0.03218  0.02275  0.01968  0.7498  -0.3592
6.459e+09  0.5929  -0.7291  0.0629  -0.02078  0.0318  0.003245  0.5589  -0.5663
6.46e+09  0.321  -0.8783  0.0172  0.0117  0.03663  0.01748  0.3326  -0.6994
6.461e+09  -0.05515  -0.9223  -0.01868  0.04811  -0.02255  -0.009328  0.05697  -0.786
6.462e+09  -0.3468  -0.8625  0.01611  -0.009143  -0.009801  -0.02104  -0.2384  -0.7886
6.464e+09  -0.6125  -0.6895  -0.02127  0.01135  0.04541  -0.006041  -0.4946  -0.6642
6.465e+09  -0.816  -0.4044  0.03017  -0.004534  0.006069  -0.01431  -0.7117  -0.4579
6.466e+09  -0.9019  -0.1066  -0.00774  -0.04523  -0.01418  -0.03227  -0.7535  -0.2181
6.468e+09  -0.909  0.2323  0.001806  0.02652  0.06649  0.01954  -0.8013  0.05907
6.469e+09  -0.7533  0.5565  -0.06013  0.01726  -0.01068  -0.01186  -0.7029  0.3309
6.47e+09  -0.5268  0.776  -0.02697  0.04909  0.06935  -0.001114  -0.5782  0.5825
6.471e+09  -0.2463  0.9514  -0.002475  0.01118  -0.01252  -0.01445  -0.3733  0.7275
6.472e+09  0.1463  0.9121  -0.04615  0.007339  -0.009653  -0.01966  -0.06673  0.7428
6.474e+09  0.4784  0.8713  0.02757  0.01303  0.05393  -0.03017  0.2349  0.7398
6.475e+09  0.6609  0.6503  -0.01812  0.008965  0.04308  0.02999  0.4703  0.624
6.476e+09  0.8376  0.3399  0.04778  0.01075  -0.02012  -0.0002299  0.6778  0.491
6.478e+09  0.9626  0.06972  0.0576  -0.0003394  0.015  -0.05768  0.7863  0.2117
6.479e+09  0.9043  -0.2696  0.03768  0.02314  0.03795  0.03559  0.7757  -0.06876
6.48e+09  0.726  -0.6294  0.02871  0.05526  -0.02862  0.009313  0.699  -0.3372
6.481e+09  0.4655  -0.7701  0.0119  -0.02464  -0.007572  -0.03351  0.5645  -0.592
6.482e+09  0.1985  -0.9847  -0.01193  0.02604  -0.006763  -9.187e-05  0.3334  -0.7253
6.484e+09  -0.1836  -0.9565  -0.02906  -0.00573  0.006913  -0.03907  0.02989  -0.8093
6.485e+09  -0.5082  -0.8073  0.005949  0.007953  0.01382  -0.02161  -0.2049  -0.7253
6.486e+09  -0.7452  -0.5861  0.01045  -0.003853  -0.006335  0.01629  -0.4803  -0.6156
6.488e+09  -0.8925  -0.3729  -0.03697  0.03261  0.01769  -0.006858  -0.6638  -0.4704
6.489e+09  -0.9682  0.02884  -0.02175  -0.01518  0.01271  -0.02831  -0.7127  -0.2083
6.49e+09  -0.9007  0.3706  -0.02261  0.02836  0.00744  -0.02284  -0.7561  0.1113
6.491e+09  -0.7213  0.6779  -0.008697  -0.03053  0.01396  0.007813  -0.7092  0.3281
6.492e+09  -0.3879  0.8662  0.009938  0.007737  -0.03741  0.06287  -0.5322  0.4789
6.494e+09  -0.1562  0.9334  -0.007991  0.005458  0.006434  0.03542  -0.3424  0.728
6.495e+09  0.2362  0.9587  -0.003358  -0.0085  0.02829  -0.01227  -0.002847  0.7789
6.496e+09  0.5569  0.7919  -0.026  -0.0289  -0.01626  0.04216  0.1956  0.7501
6.498e+09  0.783  0.5762  -0.02828  -0.01446  -0.02493  0.02769  0.4599  0.615
6.499e+09  0.925  0.2403  -0.01346  0.01023  0.0001332  0.0483  0.7028  0.45
6.5e+09  0.9423  -0.1405  -0.01609  -0.00964  0.007907  0.02877  0.704  0.1487
6.501e+09  0.8638  -0.4274  -0.004454  0.03948  0.01039  0.03634  0.7608  -0.0986
6.502e+09  0.6425  -0.6624  0.01867  0.01638  -0.01193  -0.04032  0.6421  -0.3321
6.504e+09  0.3099  -0.8783  -0.03944  -0.000884  -0.007523  -0.03612  0.4809  -0.5653
6.505e+09  0.04506  -0.9636  -0.00485  -0.01376  0.002879  -0.01995  0.3056  -0.7497
6.506e+09  -0.3099  -0.8695  -0.01988  -0.0004445  0.03349  0.02681  -0.007743  -0.7702
6.508e+09  -0.6005  -0.7248  -0.0004399  0.02365  -0.01651  -0.01742  -0.2753  -0.7255
6.509e+09  -0.8534  -0.4969  0.01606  0.01764  0.01257  0.07451  -0.5358  -0.5842
6.51e+09  -0.9616  -0.1924  -0.01535  0.02301  0.03117  0.01941  -0.6145  -0.4148
6.511e+09  -0.8726  0.2662  -0.03468  -0.0003404  -0.008173  -0.0397  -0.7503  -0.1363
6.512e+09  -0.8239  0.532  0.02647  0.01694  0.04036  0.005995  -0.7513  0.1146
6.514e+09  -0.5773  0.8028  -0.02194  -0.0318  0.02655  0.02297  -0.6597  0.3624
6.515e+09  -0.3054  0.9179  0.05582  -0.01845  -0.03588  -0.01029  -0.4727  0.5796
6.516e+09  0.06905  0.9984  0.01567  -0.006335  0.03755  0.03141  -0.2818  0.71
6.518e+09  0.4077  0.9141  -0.03554  -0.005949  0.01928  0.01902  0.0047  0.7408
6.519e+09  0.6964  0.6583  0.00475  0.03085  -0.02078  0.03995  0.2226  0.6697
6.52e+09  0.8085  0.4195  -0.006173  -0.008597  -0.0516  -0.01521  0.5155  0.553
6.521e+09  0.9013  0.02337  -0.01162  0.02995  0.009224  0.01481  0.64  0.2984
6.522e+09  0.9303  -0.2502  -0.004279  -0.02523  -0.03199  0.003491  0.7055  0.08886
6.524e+09  0.7683  -0.5775  0.002729  0.005069  -0.0002288  -0.02189  0.7024  -0.1818
6.525e+09  0.4919  -0.7447  0.003181  0.001172  0.005677  0.04984  0.603  -0.4208
6.526e+09  0.1732  -0.9121  -0.01727  0.001513  0.02532  -0.01852  0.4174  -0.583
6.528e+09  -0.1352  -0.9112  -0.00482  -2.672e-05  0.02736  -0.003649  0.2036  -0.6491
6.529e+09  -0.4834  -0.8318  -0.02037  0.02259  0.0002937  -0.009544  -0.09036  -0.709
6.53e+09  -0.7119  -0.6057  -0.02638  0.03007  0.01532  0.000596  -0.2671  -0.596
6.531e+09  -0.8357  -0.2856  0.01258  0.01779  -0.02278  -0.002645  -0.454  -0.5083
6.532e+09  -0.9166  0.02725  -0.003173  -0.01033  0.0355  -0.02743  -0.5952  -0.2905
6.534e+09  -0.8228  0.363  -0.003815  -0.006834  0.0002317  0.04549  -0.6406  -0.0454
6.535e+09  -0.6773  0.6148  0.01797  -0.02211  -0.00766  -0.03549  -0.61  0.1108
6.536e+09  -0.4287  0.8598  -0.002888  0.005096  -0.03723  -0.0152  -0.5805  0.2745
6.538e+09  -0.05718  0.9013  0.01003  0.00264  0.0388  0.04841  -0.4236  0.4782
6.539e+09  0.2357  0.9033  0.004106  -0.0142  0.03989  -0.0151  -0.2637  0.6021
6.54e+09  0.5059  0.7546  0.02345  0.02304  0.006353  -0.06108  -0.05745  0.6884
6.541e+09  0.7411  0.4281  -0.01139  -0.002051  -0.007848  -0.006257  0.2086  0.6768
6.542e+09  0.8928  0.2323  -0.00618  -0.006499  0.01583  -0.02088  0.439  0.5494
6.544e+09  0.8907  -0.1339  -0.03904  0.00299  0.0001895  -0.02073  0.5818  0.4148
6.545e+09  0.7652  -0.4374  0.0005268  -0.01802  -0.004988  0.01068  0.6653  0.1744
6.546e+09  0.5939  -0.6957  0.01032  -0.02452  -0.01931  -0.02559  0.7574  -0.07776
6.548e+09  0.3205  -0.8168  0.004619  0.01768  0.01324  -0.01458  0.6855  -0.3173
6.549e+09  -0.01783  -0.864  0.00996  -0.003197  -0.03035  0.02385  0.5036  -0.5364
6.55e+09  -0.2969  -0.7965  -0.004052  0.009484  -0.00696  0.003381  0.2848  -0.7216
