# Hz S RI R 50
6.25e+09  -0.4038  0.7505  -0.02918  0.008544  0.0398  -0.01962  0.1678  0.5034
6.251e+09  -0.1266  0.8696  -0.05069  0.0003664  0.00883  0.02076  0.3752  0.3877
6.252e+09  0.1973  0.8197  0.006443  0.01244  -0.04968  0.0173  0.5007  0.2598
6.254e+09  0.4981  0.7518  0.007046  -0.01461  0.01495  0.04773  0.6189  -0.0319
6.255e+09  0.6632  0.5521  -0.04128  0.03206  0.06125  -0.05372  0.5995  -0.2354
6.256e+09  0.8493  0.2703  0.0159  0.02081  0.03522  -0.02581  0.4791  -0.4562
6.258e+09  0.7866  -0.03198  -0.02424  0.03171  0.06038  -0.05137  0.295  -0.6399
6.259e+09  0.7838  -0.2936  -0.008347  0.007441  0.01744  -0.05651  0.06066  -0.6658
6.26e+09  0.5839  -0.5911  -0.004899  -0.02371  -0.02247  0.006952  -0.182  -0.6877
6.261e+09  0.3754  -0.7353  -0.02623  0.005943  -0.02956  -0.04224  -0.4349  -0.506
6.262e+09  0.09335  -0.8676  0.03674  0.003878  0.00945  -0.02593  -0.6112  -0.3544
6.264e+09  -0.1637  -0.7943  -0.02295  0.001755  -0.02529  0.02495  -0.7109  -0.1152
6.265e+09  -0.451  -0.6948  0.02201  -0.01957  0.01766  0.03607  -0.7299  0.158
6.266e+09  -0.6825  -0.5329  0.0003099  -0.0006388  0.008328  -0.02551  -0.6095  0.4312
6.268e+09  -0.809  -0.2816  -0.0193  -0.01193  0.02025  -0.01918  -0.4443  0.5836
6.269e+09  -0.894  0.04577  -0.02431  -0.001528  -0.03716  0.01719  -0.2038  0.7116
6.27e+09  -0.7757  0.3085  -0.01084  -0.002186  -0.00269  0.01399  0.08629  0.7474
6.271e+09  -0.6626  0.5541  -0.02037  0.02621  -0.0184  -0.01681  0.3142  0.6613
6.272e+09  -0.4413  0.7477  -0.01288  0.01564  0.02298  0.02436  0.5073  0.5536
6.274e+09  -0.06617  0.7815  -0.01581  0.0001895  0.05971  0.02529  0.6745  0.2886
6.275e+09  0.2353  0.8327  0.02031  -0.02152  -0.02041  -0.04736  0.7509  0.04885
6.276e+09  0.421  0.7037  -0.0148  0.01461  0.003054  0.00659  0.7433  -0.2072
6.278e+09  0.672  0.4998  0.002799  -0.01476  0.02291  0.01512  0.602  -0.4801
6.279e+09  0.8009  0.2502  -0.002711  -0.004962  -0.04026  -0.05668  0.4145  -0.6456
6.28e+09  0.8423  -0.04884  0.01225  0.01935  -0.03386  -0.05247  0.1562  -0.7872
6.281e+09  0.7864  -0.2869  0.0299  0.01172  -0.01459  -0.03881  -0.1524  -0.7729
6.282e+09  0.6124  -0.6038  0.02213  0.007778  0.01285  0.0172  -0.348  -0.7024
6.284e+09  0.4099  -0.7208  -0.009591  0.01173  0.05741  -0.01569  -0.6005  -0.4982
6.285e+09  0.09177  -0.8717  0.01663  -0.01353  -0.05968  0.01695  -0.708  -0.3012
6.286e+09  -0.1934  -0.7693  -0.03339  -0.03461  -0.003421  -0.0344  -0.8148  -0.01804
6.288e+09  -0.4815  -0.718  -0.008399  -0.01141  0.005673  -0.04557  -0.7395  0.2511
6.289e+09  -0.6781  -0.4661  0.002934  0.01103  -0.02977  0.006638  -0.5904  0.4705
6.29e+09  -0.7774  -0.2347  -0.02175  0.02682  0.009003  -0.01659  -0.3788  0.6852
6.291e+09  -0.8636  0.1087  0.029  -0.0135  -0.01959  0.003412  -0.1714  0.8079
6.292e+09  -0.7567  0.3491  0.008934  -0.01851  -0.02968  -0.008969  0.1315  0.8176
6.294e+09  -0.5733  0.5994  -0.004844  -0.01105  -0.0354  -0.05849  0.3702  0.7198
6.295e+09  -0.3446  0.7758  -0.002364  0.01092  -0.0341  0.008348  0.6302  0.545
6.296e+09  -0.03405  0.8442  0.03247  0.03389  0.002933  -0.03794  0.7734  0.2759
6.298e+09  0.2021  0.8114  -0.009801  -0.02025  0.01581  0.05007  0.8145  0.002791
6.299e+09  0.5045  0.7157  0.02117  0.0218  0.002448  -0.01054  0.7826  -0.3004
6.3e+09  0.6705  0.4465  -0.008868  0.01569  -0.007362  -0.05723  0.6447  -0.5466
6.301e+09  0.7901  0.196  -0.008754  -0.035  0.01554  -0.02191  0.4442  -0.7028
6.302e+09  0.8427  -0.1489  0.02033  -0.01977  -0.02778  -0.0001456  0.1387  -0.8369
6.304e+09  0.7048  -0.3742  -0.007265  0.0442  -0.02974  -0.01596  -0.1373  -0.8509
6.305e+09  0.5517  -0.5897  0.005217  -0.0004612  0.03424  0.01589  -0.4402  -0.7395
6.306e+09  0.2882  -0.7883  -0.02357  0.04251  0.017  -0.02907  -0.6286  -0.5593
6.308e+09  -0.03666  -0.8154  0.008497  -0.01872  0.01951  0.02695  -0.7867  -0.2922
6.309e+09  -0.2247  -0.7992  -0.006181  0.008405  0.003092  -0.02756  -0.8639  0.003639
6.31e+09  -0.508  -0.6681  -0.02319  -0.00167  0.003223  -0.02106  -0.8278  0.3303
6.311e+09  -0.7165  -0.3826  0.01725  0.01433  -0.04416  0.02799  -0.6665  0.5644
6.312e+09  -0.8392  -0.1149  0.01426  0.03091  0.01651  -0.005325  -0.4163  0.7137
6.314e+09  -0.8089  0.1402  0.008684  0.006157  0.004905  -0.01054  -0.1719  0.8914
6.315e+09  -0.7378  0.4402  -0.007698  0.01704  0.02315  -0.00201  0.1265  0.8237
6.316e+09  -0.5836  0.6699  0.008654  -0.007519  0.03899  0.04065  0.4485  0.7594
6.318e+09  -0.331  0.8049  -0.015  -0.0233  -0.02309  -0.04227  0.6447  0.5635
6.319e+09  0.00211  0.8367  -0.02693  0.01405  0.04629  0.01365  0.831  0.3063
6.32e+09  0.3293  0.7858  -0.008208  -0.03201  -0.04276  0.01941  0.8936  0.005241
6.321e+09  0.549  0.6642  0.03909  -0.02855  -0.00427  -0.04943  0.8556  -0.2647
6.322e+09  0.7449  0.3936  0.04484  -0.02016  0.01417  0.04968  0.6927  -0.5588
6.324e+09  0.8535  0.1589  0.0005272  -0.00057  -0.03299  0.03913  0.4591  -0.7569
6.325e+09  0.8053  -0.1715  -0.009139  -0.02164  0.01303  0.0131  0.1718  -0.8827
6.326e+09  0.7234  -0.4804  0.02355  0.002417  0.01106  -0.001022  -0.144  -0.8971
6.328e+09  0.5154  -0.7027  0.01611  0.001914  -0.03804  -0.02704  -0.4326  -0.7912
6.329e+09  0.259  -0.7957  -0.01388  -0.01586  0.0008496  -0.008081  -0.684  -0.5801
6.33e+09  -0.06831  -0.8547  0.009789  -0.03337  -0.02107  -0.02895  -0.8444  -0.3041
6.331e+09  -0.3131  -0.8212  -0.01812  0.0001105  -0.0006166  -0.003904  -0.9119  -0.003875
6.332e+09  -0.6642  -0.6209  0.02124  0.01393  -0.02199  0.02742  -0.8634  0.2965
6.334e+09  -0.7669  -0.3767  -0.03392  0.00249  0.009296  -0.04035  -0.7396  0.5653
6.335e+09  -0.8273  -0.06927  0.00404  -0.002777  0.01509  -0.05137  -0.4637  0.7708
6.336e+09  -0.7806  0.2191  -0.002773  0.03585  -0.02001  -0.008565  -0.1988  0.9025
6.338e+09  -0.7119  0.5535  0.01812  0.003701  -0.01167  -0.04088  0.1624  0.9275
6.339e+09  -0.4689  0.7496  -0.01027  -0.01503  0.02552  0.04481  0.4231  0.7929
6.34e+09  -0.2103  0.8851  -0.003343  0.002571  -0.009235  0.03629  0.6812  0.6233
6.341e+09  0.1119  0.8748  0.008537  0.003826  -0.0004102  0.003625  0.8549  0.3597
6.342e+09  0.4266  0.7904  0.0008031  -0.004818  -0.002518  0.02457  0.9237  0.049
6.344e+09  0.6237  0.551  0.03238  0.007545  -0.02079  0.02237  0.8718  -0.2301
6.345e+09  0.8029  0.3067  0.03608  -0.003627  -0.02809  0.0101  0.7244  -0.5702
6.346e+09  0.8843  0.0171  0.006807  -0.03578  -0.009859  0.003741  0.5285  -0.7911
6.348e+09  0.8338  -0.2569  0.03306  0.009502  0.06489  -0.02379  0.2297  -0.9397
6.349e+09  0.6921  -0.5675  0.02195  -0.002964  -0.0251  0.00623  -0.1345  -0.9538
6.35e+09  0.4736  -0.7859  0.0069  0.008761  -0.04712  0.02741  -0.4155  -0.8121
6.351e+09  0.1657  -0.8909  0.0261  0.007858  -0.04533  -0.006725  -0.6698  -0.6352
6.352e+09  -0.18  -0.8431  -0.02404  -0.02264  -0.0001609  -0.04054  -0.8844  -0.3911
6.354e+09  -0.4975  -0.7316  -0.06386  -0.006783  0.01795  -0.04024  -0.9578  -0.007614
6.355e+09  -0.7092  -0.5416  0.04042  0.03405  -0.009588  0.03027  -0.9044  0.2753
6.356e+09  -0.8447  -0.2846  0.001827  0.03226  -0.02114  0.022  -0.7481  0.5191
6.358e+09  -0.8807  0.04427  0.02073  0.0001625  -0.02264  0.007703  -0.5267  0.7817
6.359e+09  -0.7952  0.3805  0.00681  0.01704  -0.01729  -0.009672  -0.2328  0.9105
6.36e+09  -0.6295  0.6578  0.003031  -0.04465  -0.02589  0.006443  0.1043  0.9284
6.361e+09  -0.3952  0.8359  -0.01054  0.01456  0.05212  0.03796  0.3926  0.8713
6.362e+09  -0.1241  0.8544  -0.01489  0.02446  0.01834  0.005933  0.6798  0.6755
6.364e+09  0.1972  0.8464  0.02728  0.03407  0.03541  -0.01164  0.8843  0.3788
6.365e+09  0.5182  0.7233  -0.005565  -0.01037  -0.002172  -0.007228  0.9681  0.07118
6.366e+09  0.7653  0.5059  0.01993  -0.008995  0.02785  0.01136  0.9243  -0.2317
6.368e+09  0.8865  0.1861  0.03362  -0.001733  0.008465  0.007176  0.7864  -0.5335
6.369e+09  0.8569  -0.08986  -0.03473  0.006021  0.007979  0.06648  0.5824  -0.7891
6.37e+09  0.8043  -0.3938  -0.01101  0.01797  -0.03299  0.006163  0.2636  -0.9686
6.371e+09  0.6116  -0.6691  0.009544  -0.006308  -0.03134  -0.004944  -0.07022  -0.9668
6.372e+09  0.3259  -0.8153  0.01696  -0.02837  0.006985  -0.01031  -0.3824  -0.8628
6.374e+09  0.05014  -0.9078  0.04854  -0.01024  0.0148  -0.01619  -0.6983  -0.6639
6.375e+09  -0.2472  -0.8541  0.01697  -0.0001916  -0.00878  -0.01376  -0.84  -0.4642
6.376e+09  -0.5279  -0.7146  -0.00746  -0.02711  0.00953  -0.0138  -0.897  -0.09764
6.378e+09  -0.7769  -0.4738  0.02714  0.01731  -0.03675  0.003978  -0.9583  0.2049
6.379e+09  -0.9301  -0.1431  -0.002767  0.03329  -0.01634  0.02701  -0.8176  0.549
6.38e+09  -0.8919  0.1112  0.02632  -0.002162  -0.003806  -0.01349  -0.5369  0.7772
6.381e+09  -0.7963  0.4338  0.05091  -0.02207  0.00592  -0.002205  -0.299  0.8851
6.382e+09  -0.57  0.6694  -0.001598  -0.006588  -0.03732  -0.02573  0.03909  0.9306
6.384e+09  -0.2961  0.8661  -0.005327  -0.006468  -0.01205  0.001582  0.3476  0.9051
6.385e+09  -0.05583  0.8693  -0.03174  -0.03369  0.02775  0.024  0.6188  0.6661
6.386e+09  0.313  0.8297  -0.03972  -0.02364  -0.005261  0.0009035  0.8295  0.4235
6.388e+09  0.5598  0.7146  0.01327  -0.007369  -0.02046  -0.01644  0.8933  0.1097
6.389e+09  0.7844  0.4684  -0.06133  -0.01109  -0.01211  0.01785  0.934  -0.2195
6.39e+09  0.8651  0.1502  -0.0247  -0.03418  -0.01434  -0.03091  0.781  -0.5088
6.391e+09  0.9391  -0.1944  0.00438  0.01094  -0.003688  0.006998  0.5787  -0.7012
6.392e+09  0.7314  -0.4933  -0.02419  -0.03283  0.02612  0.009789  0.2576  -0.8616
6.394e+09  0.529  -0.6459  -0.04093  0.03607  -0.003763  -0.02175  -0.0639  -0.9101
6.395e+09  0.2887  -0.876  -0.01654  0.05189  0.005564  0.002531  -0.369  -0.8249
6.396e+09  -0.04868  -0.8741  -0.01014  0.02249  -0.04001  0.006001  -0.6161  -0.7161
6.398e+09  -0.361  -0.8763  0.02438  -0.04484  0.02919  -0.05578  -0.8109  -0.4174
6.399e+09  -0.6589  -0.6402  -0.04233  0.01967  -0.01261  0.02283  -0.9249  -0.1332
6.4e+09  -0.7475  -0.4355  -0.03201  0.01167  0.02183  0.0316  -0.9004  0.1733
6.401e+09  -0.9183  -0.1275  0.01717  -0.01498  -0.01233  0.02917  -0.7823  0.4771
6.402e+09  -0.8521  0.2055  -0.008371  -0.004219  0.09366  -0.005379  -0.5938  0.6815
6.404e+09  -0.7289  0.4259  -0.0377  0.03911  0.02467  -0.01034  -0.2983  0.8607
6.405e+09  -0.5352  0.7211  -0.0141  0.03556  -0.03189  0.006627  0.008767  0.941
6.406e+09  -0.2506  0.8273  -0.03388  0.01374  0.02178  0.02349  0.3167  0.8487
6.408e+09  0.0322  0.8918  -0.0136  0.01516  -0.02779  0.002371  0.6161  0.7214
6.409e+09  0.3103  0.7803  -0.006109  0.0001826  -0.0006344  0.01392  0.7967  0.4873
6.41e+09  0.6414  0.6375  0.002468  0.02312  -0.05395  0.009446  0.8519  0.1475
6.411e+09  0.7976  0.3811  0.01645  -0.007621  -0.02327  0.04422  0.9203  -0.1591
6.412e+09  0.8822  0.1091  0.009387  0.02666  0.02108  0.00608  0.8333  -0.4136
6.414e+09  0.8732  -0.2133  -0.01322  -0.02442  -0.07085  0.005483  0.5667  -0.6776
6.415e+09  0.7701  -0.5095  0.01669  0.01688  -0.003059  -0.01163  0.2914  -0.8582
6.416e+09  0.5788  -0.7131  0.008643  -0.0279  0.03923  -0.04419  -0.006257  -0.8471
6.418e+09  0.2688  -0.8167  0.005703  0.02839  -0.04668  0.01664  -0.268  -0.8135
6.419e+09  -0.07842  -0.8904  0.01779  -0.02197  -0.02646  -0.03517  -0.5239  -0.7277
6.42e+09  -0.3586  -0.8222  -0.02496  0.03801  0.07298  -0.02321  -0.7888  -0.4892
6.421e+09  -0.6377  -0.6731  0.01713  -0.02399  -0.002962  0.02561  -0.8787  -0.1563
6.422e+09  -0.7707  -0.3987  0.03117  0.01952  0.01178  0.03762  -0.879  0.06826
6.424e+09  -0.8401  -0.06785  -0.04732  0.02561  -0.01807  0.001743  -0.8014  0.3696
6.425e+09  -0.8052  0.2165  -0.03689  -0.003755  -0.0007299  0.006469  -0.6031  0.6586
6.426e+09  -0.7323  0.5033  -0.002689  -0.01908  0.03529  0.007382  -0.3576  0.7969
6.428e+09  -0.4661  0.7231  -0.01402  0.004451  0.02641  -0.01252  -0.04403  0.886
6.429e+09  -0.1848  0.8545  -0.008845  0.005894  -0.01645  0.03274  0.233  0.8325
6.43e+09  0.1384  0.8766  0.01687  0.009089  0.03023  -0.02096  0.5058  0.6965
6.431e+09  0.3868  0.7883  -0.006405  -0.049  0.03508  0.04202  0.7269  0.4423
6.432e+09  0.6702  0.6261  -0.02959  0.02639  -0.006461  -0.007543  0.8842  0.2214
6.434e+09  0.8077  0.4005  -0.01865  -0.005094  -0.002286  0.0122  0.8341  -0.06803
6.435e+09  0.8556  0.03491  -0.05054  -0.007076  0.0321  0.06581  0.8245  -0.3838
6.436e+09  0.8413  -0.2613  -0.001592  -0.04891  0.01908  -0.01571  0.5738  -0.6054
6.438e+09  0.7233  -0.5192  0.008934  -0.02071  -0.05862  0.02944  0.3427  -0.7552
6.439e+09  0.5321  -0.6933  0.01366  0.02283  -0.0005025  -0.02146  0.04526  -0.8427
6.44e+09  0.2173  -0.8243  0.01033  0.0005612  0.03308  -0.0002375  -0.2337  -0.8101
6.441e+09  -0.1089  -0.9023  0.03013  -0.005945  0.01439  -0.001074  -0.4684  -0.6948
6.442e+09  -0.3833  -0.7727  -0.03637  0.04502  0.00835  -0.01893  -0.6757  -0.4623
6.444e+09  -0.6818  -0.5778  0.01939  -0.01298  -0.0008535  -0.045  -0.8141  -0.2168
6.445e+09  -0.8225  -0.3774  0.01691  -0.02767  0.02165  0.002925  -0.8693  0.09337
6.446e+09  -0.8953  -0.07323  0.01949  -0.009008  0.02719  0.007451  -0.7422  0.377
6.448e+09  -0.8774  0.2225  -0.02234  0.02497  -0.01698  -0.02757  -0.5853  0.5895
6.449e+09  -0.691  0.5355  0.02649  0.01834  0.05066  0.008456  -0.35  0.7202
6.45e+09  -0.4839  0.7582  -0.02181  -0.01288  0.06281  0.04011  -0.05594  0.8535
6.451e+09  -0.2059  0.8313  0.004766  -0.01877  -0.01926  0.01889  0.2116  0.8025
6.452e+09  0.1488  0.9016  -0.01242  -0.01703  -0.01567  0.001683  0.4535  0.7031
6.454e+09  0.4216  0.7932  0.01041  0.01209  0.02013  -0.04012  0.7144  0.4597
6.455e+09  0.6597  0.6897  -0.04  0.005081  0.01742  -0.01504  0.7787  0.1938
6.456e+09  0.8279  0.2909  -0.006425  0.02534  0.07042  -0.0425  0.8279  -0.08049
6.458e+09  0.8746  -0.01375  -0.0005476  0.008845  -0.01009  -0.005323  0.781  -0.2952
6.459e+09  0.8882  -0.2646  -0.03534  0.007742  -0.002603  -0.004257  0.5998  -0.5809
6.46e+09  0.7191  -0.5105  -0.04622  -0.04866  -0.03452  -0.01385  0.3312  -0.7669
6.461e+09  0.426  -0.7291  0.008964  0.01393  -0.01301  -0.06272  0.06087  -0.8483
6.462e+09  0.1911  -0.8855  -0.0123  -0.004887  -0.00101  0.008681  -0.1851  -0.7447
6.464e+09  -0.05323  -0.8633  0.02765  0.005113  -0.01624  -0.00687  -0.5072  -0.6927
6.465e+09  -0.3575  -0.7834  0.01721  0.003995  0.02526  0.01665  -0.6846  -0.4856
6.466e+09  -0.6694  -0.633  -0.0121  0.03297  0.02418  -0.01818  -0.7535  -0.2461
6.468e+09  -0.8308  -0.3346  0.02045  0.001906  -0.00429  0.005256  -0.7949  0.07096
6.469e+09  -0.914  -0.02411  -0.02739  0.02337  -0.0269  -0.04665  -0.7318  0.3478
6.47e+09  -0.8363  0.2702  -0.01347  0.05051  0.02119  -0.1098  -0.5247  0.5811
6.471e+09  -0.7106  0.5481  -0.02621  0.01598  0.03042  -0.009109  -0.2747  0.7723
6.472e+09  -0.4277  0.7519  0.02126  0.001929  -0.0054  0.0292  -0.06004  0.8024
6.474e+09  -0.1873  0.8392  0.01823  -0.02457  0.04042  0.1052  0.2214  0.7976
6.475e+09  0.1107  0.9505  0.008741  0.0111  0.007756  -0.04096  0.4845  0.6689
6.476e+09  0.4296  0.7856  -0.02257  0.03593  -0.03554  -0.01166  0.6455  0.4667
6.478e+09  0.6851  0.5964  0.004137  0.03303  0.003882  0.0189  0.7493  0.1792
6.479e+09  0.8515  0.3301  0.002751  0.0105  -0.005338  -0.03706  0.7762  -0.04709
6.48e+09  0.9211  0.03092  0.00898  0.01208  0.04922  0.02466  0.685  -0.3436
6.481e+09  0.8452  -0.3226  0.001843  0.0004457  0.01311  0.01669  0.5222  -0.6437
6.482e+09  0.733  -0.5591  0.01492  -0.01666  -3.339e-05  0.009006  0.3213  -0.7434
6.484e+09  0.4837  -0.7848  0.04036  -0.05212  0.008087  0.003174  0.04619  -0.7889
6.485e+09  0.2013  -0.9007  -0.003357  0.02336  -0.02676  -0.04299  -0.1896  -0.7637
6.486e+09  -0.1677  -0.8676  0.02293  -0.007201  0.0094  -0.007606  -0.4211  -0.5932
6.488e+09  -0.3808  -0.8474  0.01114  0.001285  -0.01773  0.03489  -0.647  -0.3882
6.489e+09  -0.672  -0.5902  -0.02344  0.002769  -0.05121  0.009878  -0.7517  -0.1881
6.49e+09  -0.8434  -0.2672  -0.002471  0.01186  0.01532  0.001965  -0.8091  0.1055
6.491e+09  -0.8789  -0.02175  -0.00941  -0.0001289  -0.01913  -0.01376  -0.6891  0.3321
6.492e+09  -0.8577  0.3199  -0.01143  0.04529  0.00474  -0.03702  -0.5294  0.5929
6.494e+09  -0.7234  0.6263  0.02157  0.009111  0.004161  -0.01183  -0.2906  0.6834
6.495e+09  -0.4726  0.8008  0.0003255  -0.01509  -0.04646  0.01052  -0.0441  0.805
6.496e+09  -0.1308  0.9124  0.002353  -0.01085  0.0134  0.0176  0.22  0.7266
6.498e+09  0.1603  0.9127  -0.005082  -0.008812  0.006603  0.03836  0.4254  0.6132
6.499e+09  0.459  0.771  0.006274  -0.003687  0.01553  -0.03631  0.6728  0.4295
6.5e+09  0.7252  0.5796  0.01276  -0.01325  -0.005874  0.009116  0.7514  0.1734
6.501e+09  0.9046  0.3322  0.03068  -0.001763  -0.04866  0.00983  0.7685  -0.07581
6.502e+09  0.9581  -0.008809  -0.009804  0.001412  0.01621  0.009181  0.712  -0.3538
6.504e+09  0.8777  -0.3177  -0.02359  0.009307  0.01464  -0.04253  0.5088  -0.5838
6.505e+09  0.6792  -0.6799  0.02747  -0.01618  0.05292  -0.01933  0.2573  -0.7226
6.506e+09  0.5056  -0.8512  0.01953  -0.02632  -0.007724  -0.01338  0.01285  -0.7312
6.508e+09  0.174  -0.9194  -0.0162  0.002816  0.00696  -0.0539  -0.2495  -0.7147
6.509e+09  -0.2347  -0.8984  0.01278  -0.01637  0.01327  -0.005145  -0.5212  -0.5909
6.51e+09  -0.538  -0.7662  0.03294  0.04721  0.00817  -0.01215  -0.6373  -0.4003
6.511e+09  -0.7648  -0.5819  0.04551  0.01917  -0.007159  0.01697  -0.7435  -0.1465
6.512e+09  -0.979  -0.2834  0.01025  -0.003141  -0.02751  -0.00936  -0.7431  0.1501
6.514e+09  -0.9387  0.08914  0.01363  0.01101  0.02598  0.04826  -0.6749  0.4229
6.515e+09  -0.8944  0.3823  -0.03246  -0.01132  -0.04392  0.03643  -0.4956  0.5907
6.516e+09  -0.682  0.6497  0.01597  0.009991  0.01545  -0.02399  -0.2314  0.6813
6.518e+09  -0.3781  0.8543  0.006981  -0.02398  -0.01892  0.001773  0.01268  0.7728
6.519e+09  -0.1023  0.9528  0.02249  -0.007518  0.05515  -0.01555  0.2789  0.6934
6.52e+09  0.2924  0.9385  0.01632  0.02783  0.01718  0.02571  0.4708  0.5303
6.521e+09  0.6275  0.7806  -0.02073  0.02033  -0.01873  0.003783  0.6722  0.3397
6.522e+09  0.8077  0.5838  -0.000252  -0.03237  0.01753  0.03388  0.7327  0.08528
6.524e+09  0.9848  0.2147  -0.01111  0.001218  -0.04469  -0.01869  0.7203  -0.1691
6.525e+09  0.9425  -0.07867  0.006819  0.01649  0.004543  0.05485  0.6185  -0.3405
6.526e+09  0.8546  -0.4594  -0.01706  -0.02934  -0.005062  -0.007082  0.4309  -0.5797
6.528e+09  0.69  -0.6912  0.02832  0.006274  -0.02865  -0.04445  0.2089  -0.6927
6.529e+09  0.3476  -0.8398  0.02005  -0.01805  -0.02335  -0.03456  -0.0911  -0.6802
6.53e+09  0.04507  -0.9944  0.00886  -0.02082  -0.002186  -0.04783  -0.2725  -0.6303
6.531e+09  -0.3126  -0.9336  0.01774  -0.01419  0.005377  0.02861  -0.4653  -0.4654
6.532e+09  -0.6495  -0.7604  0.01708  0.005868  0.02215  0.02731  -0.5934  -0.2672
6.534e+09  -0.8227  -0.443  0.007145  0.006877  -0.001087  -0.05243  -0.6286  -0.1075
6.535e+09  -0.9561  -0.2008  0.03338  -0.03932  -0.03343  0.02084  -0.5948  0.1143
6.536e+09  -0.9626  0.1889  0.01473  0.005397  0.01943  -0.05657  -0.5747  0.328
6.538e+09  -0.792  0.5031  0.003336  0.02324  0.00386  0.01601  -0.4254  0.4627
6.539e+09  -0.5982  0.8303  -0.01621  -0.02076  -0.02298  -0.03458  -0.2896  0.6076
6.54e+09  -0.2697  0.943  -0.02358  0.001923  0.007566  -0.02935  -0.05966  0.6479
6.541e+09  0.07245  1.005  -0.0003698  0.01441  -0.02645  -0.02448  0.2105  0.655
6.542e+09  0.3837  0.9452  -0.00158  -0.00756  -0.006086  0.06626  0.4207  0.5879
6.544e+09  0.6888  0.7124  0.01325  -0.02952  0.0005158  -0.02256  0.6062  0.387
6.545e+09  0.843  0.4553  0.0008099  -0.02572  0.0008641  0.02694  0.6765  0.1338
6.546e+09  0.9528  0.1223  -0.006288  0.02486  0.05323  -0.005701  0.7405  -0.07785
6.548e+09  0.8919  -0.2495  0.006714  0.011  -0.01667  0.04286  0.6722  -0.3626
6.549e+09  0.8194  -0.5668  0.009502  0.04235  0.03032  -0.0169  0.5348  -0.55
6.55e+09  0.5484  -0.8104  4.311e-05  -0.01479  0.01189  0.03336  0.3029  -0.657
