# Hz S RI R 50
6.25e+09  -0.3406  0.776  -0.01053  0.01837  -0.02352  0.04263  0.1566  0.5381
6.251e+09  -0.05937  0.8317  -0.01518  -0.0001861  0.04911  -0.01194  0.3712  0.4419
6.252e+09  0.1379  0.8784  -0.01021  0.0004483  0.0326  0.04026  0.5281  0.208
6.254e+09  0.4801  0.724  -0.004212  0.02676  -0.01361  0.06291  0.5739  0.02012
6.255e+09  0.645  0.5077  3.8e-05  0.00291  0.01934  0.01056  0.607  -0.2466
6.256e+09  0.8068  0.2808  0.003013  0.0165  -0.002436  -0.009861  0.4801  -0.4445
6.258e+09  0.8452  -0.06384  0.005972  0.005452  -0.01137  0.03305  0.2662  -0.5801
6.259e+09  0.7696  -0.3453  0.02233  0.02492  0.02228  0.06643  0.02428  -0.6935
6.26e+09  0.6174  -0.5499  -0.007169  0.006204  0.006725  0.03194  -0.2019  -0.6501
6.261e+09  0.3725  -0.7697  -0.008936  0.02207  -0.04599  -0.03716  -0.4322  -0.5513
6.262e+09  0.1097  -0.8107  -0.03238  0.004474  0.03187  0.02952  -0.6124  -0.3523
6.264e+09  -0.2108  -0.8268  -0.03217  -0.0195  0.02426  0.01924  -0.7098  -0.1067
6.265e+09  -0.4125  -0.7262  0.04924  -0.002586  0.04054  0.005567  -0.6976  0.1554
6.266e+09  -0.7254  -0.4816  -0.02939  0.003405  -0.04201  0.003681  -0.6476  0.3783
6.268e+09  -0.818  -0.178  -0.00498  -0.0157  0.0488  0.006763  -0.4216  0.6349
6.269e+09  -0.8234  0.08143  -0.02925  0.04246  0.02911  0.02783  -0.2101  0.7059
6.27e+09  -0.8049  0.3642  0.01126  -0.001134  -0.01898  -0.04228  0.0909  0.7469
6.271e+09  -0.6128  0.5995  -0.01946  -0.007719  -0.005852  0.04267  0.3175  0.6716
6.272e+09  -0.387  0.7666  -0.01524  0.02873  -0.03926  -0.01033  0.5517  0.5339
6.274e+09  -0.05426  0.8684  0.006254  0.0329  0.02293  -0.005491  0.6495  0.2782
6.275e+09  0.1914  0.8154  0.01309  0.007056  0.04027  -0.03948  0.7761  0.01928
6.276e+09  0.4954  0.6933  0.02421  -0.01847  0.0309  -0.01832  0.7028  -0.2274
6.278e+09  0.6372  0.4922  0.01793  -0.005309  -0.05162  0.05479  0.5993  -0.4508
6.279e+09  0.7946  0.192  -0.001172  -0.01525  -0.008397  -0.03216  0.4046  -0.6552
6.28e+09  0.8105  -0.05448  0.003661  -0.009375  -0.001266  0.05134  0.1299  -0.7611
6.281e+09  0.787  -0.3661  -0.009846  0.001112  -0.0167  0.005991  -0.1582  -0.785
6.282e+09  0.5866  -0.5396  -0.007276  0.01564  0.02499  -0.0363  -0.3589  -0.6665
6.284e+09  0.319  -0.729  0.008313  0.02801  -0.009572  0.01576  -0.5911  -0.4891
6.285e+09  0.05396  -0.7833  0.01023  -0.01653  0.006464  0.006658  -0.7402  -0.2893
6.286e+09  -0.205  -0.8218  0.008347  0.00565  -0.03038  -0.02393  -0.8039  -0.03697
6.288e+09  -0.464  -0.6485  0.01356  0.02564  0.05414  -0.06941  -0.7449  0.3137
6.289e+09  -0.6705  -0.475  -0.00513  0.01051  -0.0573  0.0483  -0.607  0.4552
6.29e+09  -0.826  -0.1867  0.01941  -0.05066  0.002083  0.006598  -0.3865  0.698
6.291e+09  -0.8256  0.07026  -0.01461  -0.009878  -0.01262  -0.04457  -0.163  0.7842
6.292e+09  -0.7305  0.3055  -0.02824  0.01006  0.01972  -0.003346  0.1339  0.8205
6.294e+09  -0.5436  0.6036  0.006817  -0.03617  -0.01866  0.02663  0.4123  0.7085
6.295e+09  -0.2753  0.8266  0.005942  -0.02091  0.03405  0.01423  0.5924  0.5269
6.296e+09  -0.03671  0.7819  0.001099  0.02164  0.00609  0.0405  0.7876  0.2732
6.298e+09  0.2564  0.8531  -0.01458  0.01458  -0.0242  0.03301  0.8204  0.0004304
6.299e+09  0.4977  0.7056  -0.02405  0.0005711  0.03674  -0.01779  0.7852  -0.2466
6.3e+09  0.6847  0.4243  -0.0124  0.003508  0.007963  0.01089  0.6244  -0.5234
6.301e+09  0.8019  0.1369  -0.01806  0.006831  -0.02736  0.003021  0.4284  -0.7081
6.302e+09  0.8026  -0.1504  -0.009834  -0.03619  -0.02085  0.05399  0.167  -0.8197
6.304e+09  0.7021  -0.3397  -0.002087  0.01429  0.009439  -0.0005377  -0.1578  -0.8291
6.305e+09  0.5686  -0.6148  -0.002789  -0.01477  -0.01231  -0.004217  -0.388  -0.7411
6.306e+09  0.2916  -0.7721  0.007071  -0.003487  0.005331  0.04178  -0.6414  -0.536
6.308e+09  -0.05533  -0.8774  0.02682  0.02718  0.006494  0.04556  -0.7446  -0.2717
6.309e+09  -0.2834  -0.7756  0.01966  0.004353  -0.02523  -0.01104  -0.8532  -0.00233
6.31e+09  -0.4637  -0.6664  0.01273  -0.001099  0.05125  0.04925  -0.8464  0.2706
6.311e+09  -0.704  -0.4531  -0.01707  -0.007454  -0.001217  0.02071  -0.698  0.5347
6.312e+09  -0.807  -0.1434  -0.02059  0.0159  -0.002379  -0.01533  -0.4486  0.71
6.314e+09  -0.795  0.1815  -0.0128  0.01338  0.005183  0.009324  -0.1665  0.8659
6.315e+09  -0.7825  0.4333  -0.02194  -0.02013  0.01696  0.001958  0.1269  0.8886
6.316e+09  -0.499  0.656  -0.0256  0.01649  -0.03697  -0.01759  0.4444  0.7507
6.318e+09  -0.2261  0.8765  -0.0388  0.02093  0.06767  0.04534  0.6628  0.5472
6.319e+09  0.04454  0.8246  -0.005108  0.002044  -0.02273  -0.006725  0.8057  0.288
6.32e+09  0.3204  0.8249  0.004074  0.007949  0.03844  0.01369  0.8646  0.005795
6.321e+09  0.5917  0.6219  -0.02024  0.006463  -0.01706  -0.0223  0.8216  -0.3163
6.322e+09  0.7597  0.393  -0.01928  0.02256  -0.03689  0.0009264  0.7174  -0.5283
6.324e+09  0.89  0.09067  -0.001888  -0.03579  -0.006247  -0.01229  0.4674  -0.7712
6.325e+09  0.8568  -0.2041  -0.0198  0.007352  0.003684  0.005803  0.1807  -0.894
6.326e+09  0.702  -0.475  0.00744  -0.004777  0.0505  -0.009017  -0.1421  -0.8757
6.328e+09  0.5315  -0.7331  0.02235  0.02244  -0.04104  0.07555  -0.4544  -0.8105
6.329e+09  0.25  -0.8441  0.03744  -0.0357  0.005753  0.03116  -0.6537  -0.5881
6.33e+09  -0.09094  -0.8497  0.02046  0.009893  -0.001698  -0.01064  -0.8398  -0.3167
6.331e+09  -0.4007  -0.7731  0.02216  -0.01384  -0.03177  -0.008882  -0.8903  -0.04096
6.332e+09  -0.6323  -0.6334  0.0398  -0.003285  -0.008149  -0.008141  -0.8653  0.2838
6.334e+09  -0.7565  -0.3334  -0.003616  0.0126  -0.03092  -0.02567  -0.7428  0.556
6.335e+09  -0.88  -0.1074  0.008619  -0.01525  -0.01164  -0.002461  -0.4902  0.7806
6.336e+09  -0.8289  0.2451  0.009083  0.009055  -0.02149  0.03247  -0.1752  0.9082
6.338e+09  -0.6926  0.5136  0.005774  -0.02772  -0.02222  -0.04857  0.1469  0.9207
6.339e+09  -0.4763  0.7137  -0.033  0.003907  0.01856  -0.002785  0.4303  0.8123
6.34e+09  -0.2243  0.8705  0.01405  0.02662  -0.03629  -0.03485  0.6589  0.6425
6.341e+09  0.1464  0.8372  -0.02411  -0.00911  -0.009363  0.01281  0.845  0.3557
6.342e+09  0.4723  0.7541  0.0002762  0.01457  -0.002901  0.02654  0.9262  0.04855
6.344e+09  0.6776  0.555  0.008176  0.003632  0.001835  -0.02528  0.9034  -0.2792
6.345e+09  0.8244  0.2724  0.001564  0.007238  0.02849  -0.03204  0.7264  -0.551
6.346e+09  0.8365  -0.001832  -0.01096  -0.03667  -0.01145  0.03359  0.5015  -0.7675
6.348e+09  0.8293  -0.2793  -0.03207  0.03338  0.007932  0.02252  0.1906  -0.8961
6.349e+09  0.7123  -0.5531  0.01863  -0.03169  0.04049  -0.01363  -0.1402  -0.9496
6.35e+09  0.448  -0.7826  -0.04222  0.03056  -0.01479  0.03906  -0.4303  -0.8027
6.351e+09  0.1096  -0.8319  0.02174  0.0201  0.006155  0.000441  -0.6591  -0.6393
6.352e+09  -0.177  -0.8579  0.01168  0.0203  0.0498  -0.04191  -0.8513  -0.3677
6.354e+09  -0.4879  -0.8072  0.00196  -0.006124  -0.01349  -0.01023  -0.9537  -0.0942
6.355e+09  -0.6656  -0.5271  0.01297  0.009633  -0.005034  0.03861  -0.9145  0.2426
6.356e+09  -0.8577  -0.2964  -0.01845  0.013  0.01536  -0.002048  -0.783  0.5549
6.358e+09  -0.8543  0.04613  -0.03075  -0.02054  0.02289  0.05768  -0.5021  0.7914
6.359e+09  -0.8431  0.3645  0.01845  0.006966  0.009522  0.003882  -0.22  0.9251
6.36e+09  -0.6362  0.6417  0.01218  0.01383  0.006815  0.02174  0.08654  0.9181
6.361e+09  -0.4335  0.7415  0.06699  -0.03068  0.0269  -0.0121  0.4062  0.8534
6.362e+09  -0.08316  0.8711  -0.01898  0.00901  -0.0625  0.02433  0.72  0.6738
6.364e+09  0.254  0.8495  -0.01474  0.01267  0.008741  0.01069  0.8639  0.3567
6.365e+09  0.5014  0.6955  0.0113  -0.02225  0.009826  -0.03553  0.9173  0.08022
6.366e+09  0.7156  0.4892  -0.01269  0.02219  0.02166  -0.03252  0.8858  -0.2311
6.368e+09  0.9058  0.2419  -0.01812  0.02945  -0.04407  0.02393  0.7737  -0.5592
6.369e+09  0.881  -0.1034  0.01224  0.01201  -0.0383  0.02009  0.5584  -0.7475
6.37e+09  0.795  -0.4144  0.03283  0.0189  -0.03952  -0.02072  0.2528  -0.9283
6.371e+09  0.5981  -0.6839  0.0014  0.01131  0.01396  0.05548  -0.08241  -0.9306
6.372e+09  0.3742  -0.8065  -0.04255  0.04007  -0.03167  -0.01208  -0.4185  -0.8674
6.374e+09  0.05845  -0.9087  -0.01605  -0.004944  -0.03069  0.03833  -0.6991  -0.6702
6.375e+09  -0.2968  -0.8343  -0.02166  0.05152  0.05027  -0.01973  -0.8606  -0.4214
6.376e+09  -0.5838  -0.7061  0.01359  0.01034  0.03012  0.01849  -0.9351  -0.05899
6.378e+09  -0.767  -0.4311  0.02125  -0.01818  0.03392  0.01817  -0.8951  0.2517
6.379e+09  -0.8761  -0.1702  0.008638  0.006432  0.0005539  -0.0338  -0.7401  0.4822
6.38e+09  -0.8443  0.1428  0.02467  0.004717  -0.005334  -0.02935  -0.5592  0.7253
6.381e+09  -0.7486  0.4528  0.02444  0.003835  0.0133  0.01405  -0.2751  0.9366
6.382e+09  -0.5646  0.6583  -0.006722  0.01043  -0.01773  0.02037  0.04824  0.9458
6.384e+09  -0.3396  0.8488  -0.01242  -0.03584  0.05853  0.01146  0.3625  0.8439
6.385e+09  -0.04796  0.9027  0.03559  0.002695  -0.006722  0.02447  0.6365  0.7026
6.386e+09  0.3315  0.852  -0.02152  0.002872  0.03479  0.04399  0.8566  0.3681
6.388e+09  0.5858  0.6618  0.007224  -0.01816  0.001295  -0.04362  0.9445  0.1208
6.389e+09  0.8139  0.3979  -0.00735  -0.006153  -0.0656  0.00515  0.9144  -0.2477
6.39e+09  0.8411  0.1278  -0.01578  -0.01087  0.01533  -0.01795  0.7845  -0.4869
6.391e+09  0.8635  -0.2317  -0.05097  0.006729  0.01411  -0.02073  0.5907  -0.7474
6.392e+09  0.737  -0.4524  -0.02355  -0.03131  0.004817  0.00364  0.2734  -0.9054
6.394e+09  0.5485  -0.6918  -0.0002242  0.01753  0.01754  0.02099  -0.01376  -0.9186
6.395e+09  0.2487  -0.8513  -0.001342  0.008668  -0.04689  -0.01914  -0.3284  -0.8242
6.396e+09  -0.03141  -0.9089  -0.02272  -0.01501  0.008845  -0.009315  -0.5567  -0.7198
6.398e+09  -0.3806  -0.7991  -0.01721  -0.001315  0.01421  -0.01205  -0.844  -0.4473
6.399e+09  -0.5879  -0.6386  0.001524  0.00455  -0.005969  -0.03906  -0.9196  -0.1669
6.4e+09  -0.7699  -0.3977  0.002136  0.01312  -0.01198  -0.02028  -0.9267  0.1705
6.401e+09  -0.8882  -0.06217  0.009619  -0.008939  -0.02984  -0.002754  -0.8056  0.4771
6.402e+09  -0.8677  0.1769  0.008186  -0.0263  0.01364  0.02889  -0.5959  0.6912
6.404e+09  -0.6855  0.5119  0.02441  -0.03575  0.02248  0.01556  -0.2896  0.8585
6.405e+09  -0.5252  0.7337  0.003021  -0.004554  0.01452  -0.001365  -0.0001093  0.9339
6.406e+09  -0.2752  0.8697  0.02965  0.007806  0.01714  0.0003965  0.3426  0.8753
6.408e+09  0.07724  0.8791  -0.0439  -0.008113  -0.03569  0.00456  0.596  0.7039
6.409e+09  0.3981  0.8014  0.01471  -0.0307  -0.02126  0.03258  0.7307  0.4449
6.41e+09  0.6079  0.6385  0.01108  0.01229  -0.04013  0.05077  0.8692  0.1869
6.411e+09  0.7565  0.4182  0.01947  0.02421  -0.01245  0.02079  0.944  -0.1672
6.412e+09  0.8736  0.07302  -0.005678  -0.03773  0.03987  0.06539  0.786  -0.4085
6.414e+09  0.8592  -0.2243  -0.01061  -0.02713  -0.007984  0.02953  0.6112  -0.6717
6.415e+09  0.729  -0.5354  -0.02909  0.01335  -0.03271  0.001814  0.2941  -0.8353
6.416e+09  0.4907  -0.7678  -0.0241  -0.008421  -0.005452  0.03201  0.04205  -0.8922
6.418e+09  0.2414  -0.8593  0.01168  -0.004585  0.01067  0.03493  -0.2733  -0.8289
6.419e+09  -0.07644  -0.8556  0.03864  0.00475  -0.02966  0.01136  -0.5341  -0.703
6.42e+09  -0.39  -0.8612  0.01049  0.01931  -0.05425  0.01941  -0.754  -0.4578
6.421e+09  -0.6566  -0.6357  0.001982  -0.01219  -0.0255  0.01569  -0.9117  -0.2298
6.422e+09  -0.8434  -0.334  0.02411  -0.003102  -0.000732  0.003238  -0.8294  0.09626
6.424e+09  -0.8626  -0.1021  -0.01569  0.03753  -0.02469  -0.05621  -0.792  0.4175
6.425e+09  -0.8537  0.2754  0.01459  -0.005329  0.02036  0.01553  -0.5759  0.6748
6.426e+09  -0.7014  0.5568  -0.01112  0.01739  -0.06838  0.04766  -0.3099  0.8273
6.428e+09  -0.478  0.7364  0.004857  0.03275  0.02324  0.0002706  -0.057  0.8921
6.429e+09  -0.1914  0.8525  0.009378  0.04286  -0.01342  0.01953  0.2826  0.8337
6.43e+09  0.0756  0.8942  -0.00837  0.04352  0.003481  0.03095  0.4829  0.6887
6.431e+09  0.3677  0.7995  -0.01063  -0.002604  -0.01712  -0.04387  0.6994  0.4622
6.432e+09  0.667  0.5795  0.01343  -0.0001739  -0.02596  0.0318  0.8377  0.2215
6.434e+09  0.8247  0.3382  -0.02313  0.01524  0.01129  0.02762  0.8821  -0.08669
6.435e+09  0.9262  0.04157  -0.04959  -0.003224  -0.005622  0.01757  0.7847  -0.3412
6.436e+09  0.8499  -0.2649  -0.04731  0.04995  0.01903  -0.02954  0.5759  -0.6413
6.438e+09  0.7676  -0.5183  -0.00422  -0.004593  0.001231  0.003394  0.333  -0.764
6.439e+09  0.4773  -0.7701  0.01823  0.05206  0.02972  0.00109  0.05181  -0.8877
6.44e+09  0.2084  -0.8768  0.05761  0.02116  -0.02061  0.03949  -0.2161  -0.8557
6.441e+09  -0.06132  -0.897  -0.04175  0.0146  -0.00723  -0.04359  -0.5146  -0.6985
6.442e+09  -0.395  -0.7405  -0.0324  0.005612  0.008355  -0.0254  -0.7052  -0.4632
6.444e+09  -0.6238  -0.5877  0.01359  -0.02117  -0.01716  0.03424  -0.8082  -0.1701
6.445e+09  -0.8299  -0.3429  -0.06571  0.003523  0.01447  -0.0151  -0.8562  0.1246
6.446e+09  -0.8503  -0.01906  0.04104  -0.0226  -0.01525  0.04495  -0.811  0.3841
6.448e+09  -0.8153  0.3036  -0.02457  -0.04158  -0.02405  -0.0433  -0.5622  0.6175
6.449e+09  -0.7023  0.4994  -0.0287  -0.01331  0.02118  0.01351  -0.3654  0.7518
6.45e+09  -0.4276  0.7648  -0.008153  -0.003281  0.003565  0.004931  -0.05105  0.8553
6.451e+09  -0.2137  0.8894  -0.03995  0.001815  0.04268  0.004162  0.1983  0.8268
6.452e+09  0.1447  0.866  -0.003977  -0.01284  -0.004519  0.01616  0.5078  0.6898
6.454e+09  0.4565  0.7887  -0.00971  -0.04354  -0.0179  0.009838  0.6999  0.4367
6.455e+09  0.6413  0.624  -0.008697  0.02967  0.005467  -0.003093  0.7864  0.2157
6.456e+09  0.7724  0.3441  0.002347  0.002085  -0.04955  0.0125  0.8287  -0.07843
6.458e+09  0.9082  0.04789  0.01346  -0.01026  -0.0112  -0.0149  0.7487  -0.2767
6.459e+09  0.838  -0.2572  -0.02459  -0.0001931  0.02553  0.06943  0.5618  -0.5647
6.46e+09  0.6875  -0.5125  0.03293  -0.02465  -0.01258  0.007783  0.282  -0.7191
6.461e+09  0.4741  -0.7068  -0.01122  -0.01289  0.007791  -0.004283  0.05354  -0.7785
6.462e+09  0.2064  -0.8983  0.008642  -0.001805  0.01624  0.0002589  -0.2143  -0.7783
6.464e+09  -0.1039  -0.9099  0.0141  -0.01492  0.0003422  -0.0008996  -0.4233  -0.6947
6.465e+09  -0.432  -0.7657  0.01281  0.008368  0.02921  -0.04311  -0.6969  -0.4409
6.466e+09  -0.6797  -0.5636  -0.02279  0.04084  -0.01503  0.00727  -0.7808  -0.2094
6.468e+09  -0.8461  -0.3286  -0.02013  -0.02861  -0.006642  0.004022  -0.822  0.05531
6.469e+09  -0.9136  0.03585  0.01961  0.0003827  0.02054  -0.003006  -0.7298  0.3502
6.47e+09  -0.827  0.3423  -0.01773  0.01437  0.02396  -0.006796  -0.5797  0.5575
6.471e+09  -0.7206  0.5615  -0.02767  0.01132  0.01172  0.01384  -0.2975  0.7259
6.472e+09  -0.4154  0.7416  -0.05153  0.02062  -0.01759  -0.04712  -0.06913  0.7831
6.474e+09  -0.1569  0.8869  0.005816  -0.0003385  -0.01781  -0.0005962  0.1902  0.7826
6.475e+09  0.1425  0.9011  0.0188  0.01757  0.03638  -0.04778  0.4546  0.6632
6.476e+09  0.4687  0.8364  0.004997  -0.006717  0.02377  -0.03409  0.6722  0.4776
6.478e+09  0.7071  0.5901  0.01813  0.02651  -0.02122  0.03124  0.7497  0.1798
6.479e+09  0.8661  0.3257  -0.01676  -0.02839  -0.01449  -0.011  0.7573  -0.0736
6.48e+09  0.9728  -0.03178  -0.003389  -0.02118  0.007245  -0.05564  0.6775  -0.3181
6.481e+09  0.8901  -0.293  -0.03468  0.01247  -0.01768  -0.0677  0.5603  -0.5373
6.482e+09  0.7213  -0.5794  0.01582  0.009336  0.04125  -0.04487  0.3522  -0.7373
6.484e+09  0.4608  -0.8395  -0.01018  -0.01823  0.009723  -0.006709  0.05844  -0.7807
6.485e+09  0.1164  -0.89  -0.001316  0.01625  -0.05286  0.05016  -0.203  -0.7104
6.486e+09  -0.1507  -0.9055  -0.01493  0.02158  0.01856  -0.02191  -0.4708  -0.6208
6.488e+09  -0.4636  -0.7901  0.007909  -0.006911  -0.0505  -0.007592  -0.63  -0.4446
6.489e+09  -0.6678  -0.6223  -0.01797  -0.0452  0.0009574  -0.006335  -0.732  -0.2128
6.49e+09  -0.8473  -0.3088  0.04347  -0.01043  -0.01819  -0.007851  -0.7627  0.08592
6.491e+09  -0.946  0.01965  -0.004794  0.02947  0.04851  0.01624  -0.7409  0.3522
6.492e+09  -0.8883  0.3486  -0.001945  0.01007  -0.02141  -0.01584  -0.5446  0.5506
6.494e+09  -0.7341  0.6115  0.001146  -0.006474  0.01566  -0.01446  -0.3378  0.7069
6.495e+09  -0.476  0.809  -0.01675  0.008059  0.007051  0.01277  -0.03635  0.7819
6.496e+09  -0.1394  0.8813  0.004958  -0.009092  0.02967  -0.04023  0.2264  0.7009
6.498e+09  0.1808  0.8856  -0.01616  -0.03452  -0.007349  -0.005415  0.4654  0.6582
6.499e+09  0.4447  0.8055  -0.02273  0.05426  0.0438  -0.02561  0.6694  0.4408
6.5e+09  0.688  0.5102  -0.00582  -0.03462  -0.006799  -0.05179  0.7264  0.1267
6.501e+09  0.8933  0.2925  0.01215  0.03173  0.006255  0.02243  0.7403  -0.1088
6.502e+09  0.9362  -0.0658  0.001821  -0.004483  0.00255  -0.002297  0.6761  -0.3569
6.504e+09  0.8927  -0.3636  0.009663  -0.002542  -0.000391  0.02423  0.5015  -0.5953
6.505e+09  0.7352  -0.6095  -0.02413  -0.004936  -0.01085  0.002924  0.2632  -0.7033
6.506e+09  0.4252  -0.8328  0.01835  -0.04258  -0.02894  -0.005806  0.004535  -0.7531
6.508e+09  0.1484  -0.9153  -0.03321  -0.02231  -0.02422  0.05913  -0.2672  -0.7519
6.509e+09  -0.2252  -0.8898  -0.00354  -0.0106  0.04317  0.0001898  -0.4732  -0.5932
6.51e+09  -0.5014  -0.7953  -0.01126  -0.008742  0.05586  -0.0526  -0.6373  -0.3997
6.511e+09  -0.7779  -0.5421  0.01371  0.01288  0.02109  0.01715  -0.7386  -0.1193
6.512e+09  -0.9347  -0.2691  0.0009154  -0.01649  -0.01507  0.01226  -0.7557  0.125
6.514e+09  -0.9771  0.08478  -0.004845  0.01121  -0.03693  0.04816  -0.6741  0.4106
6.515e+09  -0.905  0.3997  0.01217  -0.01743  -0.01292  0.006316  -0.4993  0.5848
6.516e+09  -0.6861  0.6932  0.01986  -0.04004  0.02412  0.02398  -0.2263  0.7405
6.518e+09  -0.4262  0.8658  0.01151  -0.01174  -0.04248  0.006434  0.02877  0.7423
6.519e+09  -0.1007  1.021  0.01737  -0.02843  0.02754  0.009978  0.2809  0.6874
6.52e+09  0.252  0.918  0.01835  -0.006925  0.0196  0.04867  0.4906  0.537
6.521e+09  0.5042  0.7877  0.01947  -0.007861  -0.01172  0.02338  0.6177  0.2958
6.522e+09  0.8255  0.5575  -8.845e-05  -0.0157  0.04188  0.01182  0.7064  0.1111
6.524e+09  0.9013  0.1839  -0.008858  0.01417  -0.0104  0.01145  0.7179  -0.1681
6.525e+09  1.019  -0.1218  -0.03248  -0.03588  0.03588  0.008822  0.633  -0.3917
6.526e+09  0.8688  -0.4377  -0.00423  0.005659  0.02328  0.002668  0.4443  -0.6206
6.528e+09  0.6322  -0.7101  -0.003681  -0.02309  -0.01541  0.04386  0.1981  -0.6849
6.529e+09  0.356  -0.9434  0.0324  0.02331  0.01752  -0.00972  -0.06085  -0.6996
6.53e+09  0.03464  -0.9957  -0.02382  -0.00775  -0.007258  -0.01568  -0.2619  -0.5864
6.531e+09  -0.317  -0.8941  0.021  -0.01313  -0.01303  -0.001495  -0.4467  -0.4845
6.532e+09  -0.6239  -0.7391  -0.022  -0.05613  0.01308  -0.000369  -0.6074  -0.2778
6.534e+09  -0.8351  -0.4721  0.03092  0.007746  -0.0004924  0.01667  -0.6715  -0.07282
6.535e+09  -0.9826  -0.1423  -0.01454  -0.002784  0.03915  0.0269  -0.6507  0.1294
6.536e+09  -0.9161  0.1892  -0.008713  0.008372  -0.02413  -0.01999  -0.532  0.307
6.538e+09  -0.8822  0.4931  0.009991  -0.01426  0.04335  0.009378  -0.4244  0.471
6.539e+09  -0.5396  0.7924  -0.03451  -0.00192  0.02056  0.015  -0.2882  0.5684
6.54e+09  -0.2708  0.9369  0.001283  -0.003346  -0.0511  0.00395  -0.0467  0.6692
6.541e+09  0.02043  1.002  -0.01006  0.02919  -0.0055  -0.003742  0.1676  0.6992
6.542e+09  0.4356  0.8868  0.03294  0.014  0.04903  -0.02681  0.3876  0.5828
6.544e+09  0.7258  0.6794  -0.006376  0.03229  0.0232  0.0294  0.592  0.3924
6.545e+09  0.8885  0.4265  -0.009329  0.009237  0.007736  -0.04966  0.7178  0.1853
6.546e+09  0.9827  0.1139  -0.02616  -0.0278  -0.02362  0.02873  0.6998  -0.05505
6.548e+09  0.8699  -0.2489  0.02362  0.02034  -0.05411  -0.06433  0.6423  -0.3527
6.549e+09  0.8055  -0.5585  -0.0135  0.008171  -0.06146  -0.02245  0.535  -0.534
6.55e+09  0.5755  -0.8459  0.01776  0.02249  -0.02229  -0.0006744  0.289  -0.6777
6.551e+09  0.2182  -0.9766  0.004452  -0.006145  -0.009198  -0.004087  0.02665  -0.7318
