# Hz S RI R 50
6.25e+09  -0.3016  0.778  0.001692  0.007708  -0.006022  0.01075  0.1606  0.4653
6.251e+09  -0.0353  0.8543  0.01594  0.005093  -0.008722  0.01608  0.3838  0.4055
6.252e+09  0.2805  0.8495  -0.02823  0.02593  -0.04549  -0.004434  0.5298  0.2481
6.254e+09  0.5141  0.7155  -0.01822  -0.003082  -0.007805  0.02286  0.6317  0.02493
6.255e+09  0.7296  0.4727  -0.004749  0.01782  0.01261  -0.05667  0.5935  -0.2449
6.256e+09  0.8451  0.1927  -0.0001064  0.02545  0.05594  -0.001013  0.4776  -0.4157
6.258e+09  0.8847  -0.1099  0.01044  0.002568  -0.004523  -0.0316  0.2772  -0.585
6.259e+09  0.7352  -0.3274  -0.01681  0.007834  -0.002562  0.02919  0.02984  -0.6822
6.26e+09  0.5323  -0.6506  0.0203  -0.005635  -0.01459  0.03946  -0.1971  -0.6576
6.261e+09  0.4034  -0.76  -0.02647  -0.01093  0.000947  0.006296  -0.4384  -0.5375
6.262e+09  0.03675  -0.8454  0.004868  0.01058  -0.006257  -0.00664  -0.6233  -0.3312
6.264e+09  -0.2335  -0.8043  0.03112  0.0143  0.03054  0.05699  -0.6991  -0.07618
6.265e+09  -0.5294  -0.634  0.01273  -0.04907  0.02963  0.04308  -0.7034  0.1621
6.266e+09  -0.7077  -0.3982  0.001372  0.01698  0.04969  -0.02861  -0.6179  0.3907
6.268e+09  -0.8629  -0.2089  -0.0111  0.01634  -0.00526  -0.003504  -0.4604  0.6013
6.269e+09  -0.8258  0.1186  -0.02633  -0.008424  0.007387  -0.02944  -0.2144  0.7163
6.27e+09  -0.771  0.4013  0.003706  -0.02138  -0.01201  0.06928  0.09873  0.7288
6.271e+09  -0.545  0.6451  -0.01672  -0.01727  -0.004343  0.003646  0.329  0.6531
6.272e+09  -0.3179  0.756  0.003952  0.01079  0.002045  -0.01923  0.5509  0.5222
6.274e+09  -0.109  0.8101  -0.0173  0.01734  -0.02383  -0.04587  0.711  0.2679
6.275e+09  0.2434  0.7788  0.001498  0.004994  0.05695  -0.007723  0.7881  0.01416
6.276e+09  0.5296  0.6064  -0.04093  0.004081  0.02397  -0.003029  0.7519  -0.2275
6.278e+09  0.7275  0.4237  0.002944  0.005691  -0.0526  0.004988  0.615  -0.4626
6.279e+09  0.8294  0.1325  0.01876  0.0003175  -0.009107  -0.02326  0.4272  -0.6522
6.28e+09  0.8171  -0.1148  0.0002239  -0.004615  -0.01197  -0.01807  0.1717  -0.749
6.281e+09  0.7849  -0.3874  0.01994  -0.02667  0.006886  -0.03716  -0.1098  -0.7412
6.282e+09  0.5012  -0.6037  -0.01161  0.005028  0.01011  -0.01021  -0.3774  -0.6673
6.284e+09  0.3037  -0.7555  0.0006871  -0.004524  -0.03981  -0.01432  -0.5685  -0.531
6.285e+09  -0.04496  -0.8383  0.0001303  -0.01385  -0.03304  0.04896  -0.7194  -0.3068
6.286e+09  -0.3014  -0.7801  0.02015  -0.001124  0.03389  0.0105  -0.8158  -0.02745
6.288e+09  -0.5532  -0.6066  -0.001614  0.01616  0.002282  0.03308  -0.7638  0.2546
6.289e+09  -0.7243  -0.3892  -0.005502  -0.01545  -0.04071  -0.03142  -0.6497  0.5188
6.29e+09  -0.7884  -0.08228  -0.006047  0.003187  -0.03675  -0.01021  -0.3968  0.6875
6.291e+09  -0.8064  0.09394  0.03361  -0.02201  0.03684  -0.0418  -0.1398  0.802
6.292e+09  -0.7764  0.437  0.02013  0.005209  0.04619  0.01445  0.1447  0.7988
6.294e+09  -0.5555  0.6564  0.001464  0.02703  -0.02692  -0.01074  0.3985  0.7078
6.295e+09  -0.3066  0.8226  -0.0009143  -0.02083  0.005477  -0.006647  0.6041  0.5218
6.296e+09  0.02411  0.8556  0.003242  -0.00216  -0.01416  0.0544  0.7831  0.3123
6.298e+09  0.2659  0.7885  -0.02945  -0.006015  -0.01548  0.005708  0.818  -0.02136
6.299e+09  0.5504  0.5996  -0.00282  -0.01165  0.00435  -0.03136  0.7873  -0.2483
6.3e+09  0.7426  0.3517  -0.005298  -0.007795  -0.02145  0.03531  0.6424  -0.5372
6.301e+09  0.8009  0.08641  -0.04731  0.001846  0.03055  0.02455  0.4431  -0.7391
6.302e+09  0.8384  -0.1902  -0.02443  -0.0001343  0.02693  -0.05435  0.1752  -0.8417
6.304e+09  0.6969  -0.4794  -0.009168  -0.01254  -0.03311  0.001998  -0.1173  -0.8285
6.305e+09  0.4482  -0.6387  -0.0239  -0.0004338  -0.05046  0.04206  -0.4299  -0.7214
6.306e+09  0.2523  -0.8062  -0.001734  0.002467  -0.0144  -0.0156  -0.6709  -0.5685
6.308e+09  0.003826  -0.8315  -0.003762  -0.004817  0.007973  -0.007728  -0.8011  -0.319
6.309e+09  -0.3341  -0.7811  0.01243  0.001135  -0.05288  -0.005186  -0.8539  -0.01424
6.31e+09  -0.5872  -0.62  -0.01736  0.01672  -0.04024  0.007037  -0.8126  0.3022
6.311e+09  -0.7833  -0.3213  0.0164  -0.01402  0.005605  0.03373  -0.6554  0.5583
6.312e+09  -0.8426  -0.05549  0.008067  0.03237  -0.0161  -0.01598  -0.4225  0.7626
6.314e+09  -0.8523  0.2254  -0.02836  0.01663  -0.004075  0.01073  -0.1746  0.8591
6.315e+09  -0.661  0.4662  0.005804  -0.01353  0.003565  -0.03074  0.1263  0.8832
6.316e+09  -0.4904  0.6481  -0.03154  0.03214  0.01463  -0.05103  0.4241  0.7464
6.318e+09  -0.1832  0.85  -0.01678  0.004978  0.004894  -0.03117  0.6916  0.5633
6.319e+09  0.1014  0.8442  -0.01392  -0.01427  -0.0533  -0.03546  0.8198  0.3326
6.32e+09  0.3776  0.7583  0.008555  -0.006662  0.02049  -0.001054  0.8941  0.01041
6.321e+09  0.6519  0.5751  -0.01035  -0.01186  -0.006674  0.006864  0.8259  -0.2841
6.322e+09  0.764  0.2406  0.006061  -0.005558  -0.0308  0.008672  0.7042  -0.5753
6.324e+09  0.8313  0.02322  0.008099  0.0007365  0.01719  -0.008938  0.4811  -0.7678
6.325e+09  0.8085  -0.2797  -0.01944  -0.0127  -0.004828  0.01937  0.1614  -0.8578
6.326e+09  0.6264  -0.5248  -0.01669  -0.002239  0.01376  -0.02455  -0.1157  -0.9111
6.328e+09  0.5258  -0.7346  0.01576  0.006563  -0.0132  0.03586  -0.4331  -0.7657
6.329e+09  0.1149  -0.835  0.01381  -0.002562  0.005844  0.04163  -0.6597  -0.6088
6.33e+09  -0.1392  -0.8771  0.01229  0.00278  0.01201  0.02831  -0.8541  -0.3553
6.331e+09  -0.4077  -0.7557  0.0004027  -0.04959  -0.0331  0.006402  -0.9053  -0.01462
6.332e+09  -0.6672  -0.5612  0.009336  0.005787  -0.02281  -0.03084  -0.8449  0.2682
6.334e+09  -0.7655  -0.2351  0.008204  0.01682  0.0265  0.005369  -0.7122  0.5455
6.335e+09  -0.8588  0.01673  -0.02667  -0.01847  0.04281  -0.008517  -0.4855  0.7895
6.336e+09  -0.7917  0.3279  -0.02684  0.03827  0.03151  0.01828  -0.1939  0.9221
6.338e+09  -0.6666  0.5889  0.02181  0.001125  -0.02887  -0.0102  0.1052  0.9191
6.339e+09  -0.3905  0.7758  -0.01644  -0.01854  0.01738  0.00267  0.4428  0.8168
6.34e+09  -0.128  0.8478  0.003394  -0.0004946  -0.001616  0.03667  0.6707  0.6188
6.341e+09  0.2178  0.8584  0.006195  -0.03886  -0.004814  -0.004465  0.8759  0.3498
6.342e+09  0.4525  0.7403  -0.001571  -0.004882  0.009863  0.002485  0.9032  0.07169
6.344e+09  0.6733  0.5138  0.01096  -0.003196  0.004774  -0.02524  0.8606  -0.3069
6.345e+09  0.8355  0.2393  0.003221  -0.01441  0.02678  0.02802  0.7762  -0.5758
6.346e+09  0.9097  -0.03913  -0.01948  0.00871  0.01866  -0.03013  0.5205  -0.7878
6.348e+09  0.7613  -0.3517  -0.02377  0.01176  -0.01678  0.02222  0.2098  -0.886
6.349e+09  0.6039  -0.6411  -0.001076  0.03044  -0.01607  0.01952  -0.109  -0.9502
6.35e+09  0.395  -0.7668  -0.03929  0.0283  -0.02431  0.02552  -0.4295  -0.8344
6.351e+09  0.04483  -0.918  0.004766  -0.02364  -0.03259  -0.004481  -0.6785  -0.6578
6.352e+09  -0.2672  -0.8727  0.006798  -0.01362  -0.05207  0.02368  -0.8329  -0.376
6.354e+09  -0.5336  -0.7416  0.005666  0.01932  -0.02014  -0.02861  -0.9411  -0.05759
6.355e+09  -0.7441  -0.4726  0.02315  -0.03099  0.06116  0.007268  -0.916  0.2726
6.356e+09  -0.9489  -0.2145  0.01192  -0.02216  -0.003802  0.01963  -0.8055  0.5693
6.358e+09  -0.9044  0.1544  -0.008207  0.0401  -0.02444  0.008445  -0.5325  0.808
6.359e+09  -0.7671  0.4448  0.02853  0.01966  -0.006594  0.01763  -0.2546  0.9233
6.36e+09  -0.5993  0.6691  0.02269  0.01688  0.02067  -0.02746  0.1241  0.9378
6.361e+09  -0.3284  0.821  0.007399  0.009976  -0.02001  -0.02111  0.3972  0.852
6.362e+09  -0.02255  0.8805  0.01491  -0.008161  -0.02449  -0.001074  0.6664  0.6746
6.364e+09  0.3046  0.8654  0.01413  -0.008521  -0.04226  0.009202  0.8854  0.3802
6.365e+09  0.5736  0.718  0.002852  -0.01775  0.002693  -0.0002091  0.9481  0.05489
6.366e+09  0.8052  0.4592  -0.06736  0.006781  0.01476  0.03268  0.9579  -0.261
6.368e+09  0.8854  0.1039  0.003324  -0.0006783  0.02302  -0.04003  0.7639  -0.5613
6.369e+09  0.8486  -0.1893  0.02571  -0.009702  -0.05813  0.01591  0.5383  -0.7944
6.37e+09  0.7432  -0.4462  -0.000889  0.017  -0.01185  -0.004492  0.2334  -0.8973
6.371e+09  0.5737  -0.6913  0.03654  0.001669  0.003597  0.02115  -0.1078  -0.9295
6.372e+09  0.2407  -0.8638  0.003425  0.03088  0.02109  0.002079  -0.3906  -0.8519
6.374e+09  -0.02511  -0.8835  -0.0009193  0.00368  -0.00933  0.009299  -0.6795  -0.7115
6.375e+09  -0.3565  -0.7915  0.01887  0.02439  0.009017  0.007103  -0.8707  -0.4076
6.376e+09  -0.6141  -0.6335  0.00474  -0.002677  0.03014  -0.03226  -0.9365  -0.05931
6.378e+09  -0.7474  -0.4006  0.02278  0.006387  0.01536  0.01246  -0.9369  0.2671
6.379e+09  -0.8923  -0.1303  0.03802  -0.02995  0.02291  0.01701  -0.7841  0.5392
6.38e+09  -0.8927  0.1984  0.03335  -0.02076  0.03265  -0.01533  -0.5533  0.7416
6.381e+09  -0.7488  0.5354  0.007176  0.007542  -0.03311  0.01389  -0.2496  0.9011
6.382e+09  -0.4885  0.7339  0.01471  -0.003247  -0.02807  -0.02895  0.05384  0.9648
6.384e+09  -0.2014  0.8777  -0.01966  -0.002266  -0.02683  -0.0179  0.382  0.8627
6.385e+09  0.08856  0.9339  -0.01992  0.0167  0.04025  -0.00287  0.6828  0.6219
6.386e+09  0.4074  0.7746  0.01297  0.005731  -0.002879  0.03076  0.814  0.4132
6.388e+09  0.662  0.6342  0.008213  0.03545  -0.008608  0.03955  0.9073  0.1428
6.389e+09  0.8332  0.3796  -0.01599  -0.02442  -0.0004205  0.01594  0.894  -0.2057
6.39e+09  0.9142  0.03004  -0.003241  0.04697  -0.05987  -0.0432  0.8116  -0.5083
6.391e+09  0.8596  -0.2579  0.01565  0.02173  0.007953  0.004567  0.6238  -0.774
6.392e+09  0.7564  -0.5101  -0.003992  -0.06186  -0.0001703  -0.02866  0.2871  -0.889
6.394e+09  0.4727  -0.8112  -0.02427  -0.04091  0.01353  0.008589  -0.01865  -0.9185
6.395e+09  0.236  -0.8599  0.00356  -0.02258  -0.01217  0.03061  -0.3245  -0.8489
6.396e+09  -0.06746  -0.887  0.04838  -0.0004305  0.03697  0.01328  -0.5784  -0.6465
6.398e+09  -0.3277  -0.767  0.004822  0.01734  0.02893  0.01959  -0.8088  -0.437
6.399e+09  -0.6601  -0.6287  0.02632  -0.017  -0.00387  0.04915  -0.9252  -0.1777
6.4e+09  -0.8187  -0.3825  -0.03096  0.006294  0.02239  0.03978  -0.8765  0.2182
6.401e+09  -0.8758  0.02612  0.02739  0.00326  0.02119  -0.01458  -0.7881  0.5106
6.402e+09  -0.8705  0.2168  -0.01048  -0.04131  -0.007713  0.05566  -0.5741  0.6964
6.404e+09  -0.7005  0.555  0.03175  -0.01564  -0.009043  0.008462  -0.3084  0.8961
6.405e+09  -0.4667  0.7585  -0.0133  -0.0004782  -0.01126  -0.01822  0.02049  0.9601
6.406e+09  -0.1764  0.8684  -0.01779  -0.003909  0.0194  -0.0307  0.3034  0.8426
6.408e+09  0.0793  0.854  -0.002476  -0.008819  -0.0576  -0.01422  0.6019  0.6893
6.409e+09  0.4411  0.7828  -0.02789  -0.002983  -0.00133  0.02441  0.7815  0.4499
6.41e+09  0.6647  0.5293  0.01324  -0.003097  0.03793  0.02809  0.877  0.1688
6.411e+09  0.8076  0.3356  0.003046  0.000857  0.006916  -0.0122  0.9065  -0.148
6.412e+09  0.8649  0.01071  -0.04011  -0.03573  0.02378  0.005949  0.8067  -0.4538
6.414e+09  0.8267  -0.2791  -0.01051  0.02802  -0.0003125  -0.008414  0.5881  -0.7323
6.415e+09  0.6631  -0.5764  0.01958  0.01799  -0.03256  0.01331  0.3381  -0.8734
6.416e+09  0.4741  -0.7622  0.03128  -0.00603  -0.05007  0.01792  0.06657  -0.965
6.418e+09  0.1907  -0.8349  -0.003059  0.003676  0.02223  -0.03487  -0.2701  -0.8785
6.419e+09  -0.1387  -0.8611  0.01075  0.0163  0.004129  -0.0007805  -0.5835  -0.679
6.42e+09  -0.4111  -0.7578  0.008758  0.02698  0.02695  -0.02368  -0.7573  -0.4373
6.421e+09  -0.6877  -0.555  -0.01097  -0.006269  0.03637  0.007185  -0.8718  -0.1788
6.422e+09  -0.7951  -0.3051  0.04047  -0.02351  -0.02774  0.007459  -0.8925  0.1523
6.424e+09  -0.9022  0.01751  0.01584  -0.02265  -0.02305  0.01101  -0.7802  0.406
6.425e+09  -0.8585  0.2893  -0.02235  -0.01759  -0.05889  0.02929  -0.5838  0.6606
6.426e+09  -0.6592  0.5737  -0.009947  -0.0323  -0.01265  -0.006878  -0.3495  0.7998
6.428e+09  -0.4254  0.783  0.01533  0.0005715  -0.0113  0.02939  -0.03583  0.8838
6.429e+09  -0.1405  0.8884  -0.002787  -0.01921  0.05416  0.0196  0.2749  0.8405
6.43e+09  0.1553  0.8347  0.01462  -0.009636  -0.01538  -0.006211  0.5416  0.6971
6.431e+09  0.4531  0.7828  -0.001425  0.001218  0.004923  0.01375  0.7854  0.4926
6.432e+09  0.6844  0.5398  0.02026  0.05328  -0.02945  0.04912  0.8258  0.2176
6.434e+09  0.8732  0.2415  0.04643  0.007702  0.01192  -0.02759  0.8754  -0.07584
6.435e+09  0.8928  0.02943  0.01706  -0.04329  -0.006143  0.03179  0.8022  -0.3498
6.436e+09  0.8291  -0.3381  -0.04442  -0.01026  0.04674  -0.06615  0.5982  -0.6307
6.438e+09  0.6561  -0.5661  -0.01445  -0.04223  -0.0108  0.03986  0.3275  -0.7711
6.439e+09  0.4484  -0.7834  0.007743  0.04096  -0.002977  -0.02597  0.06137  -0.8529
6.44e+09  0.1108  -0.9412  0.0169  0.01087  0.03724  0.006614  -0.2444  -0.8153
6.441e+09  -0.1829  -0.8752  -0.01195  0.03695  -0.02024  0.01532  -0.5171  -0.6954
6.442e+09  -0.4623  -0.7931  0.01539  0.00878  -0.002369  0.01234  -0.6434  -0.5024
6.444e+09  -0.7371  -0.5658  -0.07425  0.0773  0.01773  -0.005281  -0.8488  -0.1892
6.445e+09  -0.8741  -0.2756  -0.004964  -0.006281  0.04256  0.01303  -0.8417  0.1019
6.446e+09  -0.8516  0.02604  -0.0264  -0.01601  -0.003284  0.01781  -0.7662  0.381
6.448e+09  -0.7993  0.3422  0.02285  -0.01669  0.0187  0.01504  -0.617  0.6086
6.449e+09  -0.6709  0.5888  0.03251  0.005272  0.02619  -0.004164  -0.3273  0.7773
6.45e+09  -0.4262  0.8207  -0.0516  -0.006705  -0.02648  -0.03881  -0.05731  0.8437
6.451e+09  -0.1027  0.8787  -0.001141  0.0152  -0.0257  0.02013  0.2276  0.7757
6.452e+09  0.1902  0.8388  0.03259  -0.008746  0.004498  0.005954  0.4725  0.6713
6.454e+09  0.4447  0.7851  -0.01623  -0.009421  -0.002239  -0.0408  0.6947  0.4556
6.455e+09  0.6873  0.5435  -0.005223  -0.0203  -0.02381  -0.01323  0.8215  0.2223
6.456e+09  0.8524  0.2571  0.02478  0.01037  0.02038  -0.02193  0.7939  -0.08313
6.458e+09  0.8691  -0.07725  0.004082  -0.02383  -0.01811  0.02695  0.6899  -0.3678
6.459e+09  0.8734  -0.2926  0.01735  0.01757  0.03905  -0.0137  0.5678  -0.5931
6.46e+09  0.6586  -0.5804  -0.0003225  -0.004164  -0.02664  -0.03493  0.3345  -0.7499
6.461e+09  0.4451  -0.808  0.02472  0.01127  -0.008004  -0.02425  0.02389  -0.8414
6.462e+09  0.117  -0.8999  -0.003571  -0.03279  0.02613  0.02949  -0.2637  -0.784
6.464e+09  -0.2516  -0.8562  -0.001647  -0.04108  0.01085  -0.02148  -0.4897  -0.6456
6.465e+09  -0.5167  -0.7862  -0.007891  0.01853  -0.06711  -0.01419  -0.6636  -0.4763
6.466e+09  -0.7148  -0.5323  0.02998  0.03073  -0.01442  -0.05067  -0.7713  -0.2075
6.468e+09  -0.8915  -0.2621  0.03152  0.0119  0.01411  -0.009024  -0.8453  0.06309
6.469e+09  -0.9359  0.02627  0.0006742  0.02543  0.02102  0.000698  -0.7151  0.3097
6.47e+09  -0.8584  0.3582  0.03905  0.01003  0.01668  0.004411  -0.5328  0.612
6.471e+09  -0.6598  0.6662  -0.0149  -0.01857  0.04056  -0.01303  -0.3561  0.713
6.472e+09  -0.4552  0.7925  0.002144  -0.008242  0.03968  -0.00931  -0.07765  0.8253
6.474e+09  -0.1266  0.8796  -0.01712  -0.05617  -0.0498  0.01473  0.1957  0.775
6.475e+09  0.2439  0.887  -0.03769  0.01639  -0.02791  -0.03142  0.4265  0.6441
6.476e+09  0.5035  0.7655  0.01403  0.01937  -0.01299  -0.005128  0.5922  0.4434
6.478e+09  0.7728  0.5256  -0.002363  -0.03297  -0.005644  0.02037  0.7743  0.2075
6.479e+09  0.8674  0.1983  -0.007696  -0.03319  -0.001642  0.001538  0.7924  -0.08398
6.48e+09  0.9336  -0.0893  -0.03475  0.03462  0.03226  -0.03633  0.7227  -0.3403
6.481e+09  0.7779  -0.3483  -0.0265  -0.0236  -0.06119  0.0132  0.5868  -0.5681
6.482e+09  0.6878  -0.6614  -0.02285  -0.03372  -0.01604  -0.04857  0.3337  -0.7378
6.484e+09  0.3732  -0.8227  0.01524  -0.02996  -0.001541  -0.0307  0.02826  -0.7938
6.485e+09  0.09196  -0.9065  -0.005809  0.003635  0.02363  0.05291  -0.219  -0.7921
6.486e+09  -0.2432  -0.8992  0.01047  0.001324  -0.0122  -0.001393  -0.4864  -0.6211
6.488e+09  -0.5411  -0.7879  0.006666  -0.03907  0.06081  -0.04872  -0.624  -0.4241
6.489e+09  -0.7684  -0.5222  -0.01605  -0.00896  0.06959  -0.02254  -0.7721  -0.1625
6.49e+09  -0.9026  -0.2445  -0.05091  -0.01332  0.02033  -0.02507  -0.7795  0.09491
6.491e+09  -0.9208  0.06297  -0.01036  -0.007793  -0.01214  -0.00604  -0.699  0.3641
6.492e+09  -0.8113  0.4002  -0.0357  0.01732  0.0494  -0.03809  -0.5385  0.576
6.494e+09  -0.663  0.6816  -0.01342  -0.03414  0.03317  0.1023  -0.3137  0.6534
6.495e+09  -0.4109  0.9203  0.01831  0.04278  0.01973  0.01517  -0.05957  0.7693
6.496e+09  -0.04609  0.9548  -0.03541  -0.046  -0.04028  -0.03517  0.2526  0.7326
6.498e+09  0.2852  0.8665  0.009089  -0.02683  -0.03049  -0.09353  0.4374  0.5933
6.499e+09  0.5361  0.7167  0.04086  0.01346  -0.02479  0.01331  0.6381  0.4317
6.5e+09  0.7966  0.5226  0.03228  0.01907  0.009006  0.001971  0.7568  0.1376
6.501e+09  0.9184  0.2235  -0.005792  -0.003503  0.0002937  -0.005078  0.7521  -0.1337
6.502e+09  0.8709  -0.1511  -0.02423  -0.01661  -0.009169  0.01676  0.6496  -0.391
6.504e+09  0.8452  -0.4244  0.004063  -0.02622  0.0181  -0.06215  0.4989  -0.5425
6.505e+09  0.6795  -0.6904  0.01665  0.02092  -0.045  0.03371  0.2888  -0.7057
6.506e+09  0.3645  -0.8562  -0.006788  -0.0114  -0.05691  -0.001596  0.004788  -0.768
6.508e+09  -0.03655  -0.989  -0.002295  0.009627  0.01918  0.03913  -0.2346  -0.7568
6.509e+09  -0.3121  -0.8993  -0.01788  -0.01189  -0.02905  -0.0535  -0.4891  -0.5987
6.51e+09  -0.6221  -0.7371  -0.01632  -0.06171  0.00636  0.004581  -0.65  -0.3911
6.511e+09  -0.7963  -0.4557  -0.01037  -0.03517  -0.07875  0.021  -0.7444  -0.1356
6.512e+09  -0.8919  -0.1192  -0.01785  -0.007074  0.01438  -0.04016  -0.7548  0.1245
6.514e+09  -0.9365  0.1858  -0.01218  -0.01255  0.009672  0.02054  -0.6489  0.3679
6.515e+09  -0.8486  0.4458  0.01172  -0.01463  -0.009198  0.02414  -0.5201  0.6394
6.516e+09  -0.571  0.8158  -0.003504  0.003942  0.002441  -0.01376  -0.2643  0.7021
6.518e+09  -0.3188  0.9414  0.01699  0.006658  -0.01911  -0.0171  0.04424  0.7457
6.519e+09  0.07558  0.9677  0.001364  -0.0273  0.01047  0.04345  0.284  0.7252
6.52e+09  0.3936  0.8405  0.04284  0.04656  0.01833  0.01621  0.5167  0.5872
6.521e+09  0.6516  0.7204  0.03587  0.01033  -0.01041  -0.01746  0.6522  0.3659
6.522e+09  0.8491  0.4527  0.009298  -0.009928  0.02229  -0.004068  0.7348  0.09048
6.524e+09  0.9635  0.1439  -0.04343  -0.00343  -0.04841  -0.01716  0.714  -0.122
6.525e+09  0.9287  -0.1847  0.01845  0.01652  0.02159  -0.04604  0.6252  -0.3879
6.526e+09  0.8109  -0.5846  -0.01682  -0.01386  0.0211  0.03822  0.4051  -0.6051
6.528e+09  0.5398  -0.8125  -0.00356  -0.0007732  0.005212  0.005927  0.2194  -0.6616
6.529e+09  0.2487  -0.9984  0.009322  0.01976  -0.01702  -0.02304  -0.04434  -0.6979
6.53e+09  -0.1159  -1.004  -0.004332  0.02363  -0.0125  -0.02286  -0.275  -0.6179
6.531e+09  -0.3892  -0.8487  0.003548  -0.03119  0.02167  0.03366  -0.4734  -0.4717
6.532e+09  -0.7034  -0.6238  0.02054  -0.02378  -0.02262  -0.02729  -0.5715  -0.3203
6.534e+09  -0.9473  -0.3579  -0.01731  0.00579  -0.01868  -0.01066  -0.6579  -0.07937
6.535e+09  -0.9657  -0.01835  -0.02426  -0.008353  -0.05073  0.01679  -0.6365  0.1207
6.536e+09  -0.968  0.33  0.01664  0.01246  0.04537  0.01033  -0.5714  0.2957
6.538e+09  -0.7798  0.6034  0.01335  0.02229  -0.03725  -0.03428  -0.4596  0.4899
6.539e+09  -0.4826  0.8427  -0.002449  -0.002356  0.02795  -0.01975  -0.286  0.5937
6.54e+09  -0.1843  0.9911  0.02674  0.01612  -0.0143  -0.02576  -0.02756  0.6723
6.541e+09  0.1787  0.9777  -0.01838  0.006863  0.02418  0.04094  0.193  0.6742
6.542e+09  0.5176  0.8437  0.02842  -0.02743  0.0278  0.0219  0.4061  0.5957
6.544e+09  0.7465  0.6146  0.0005415  0.0005806  0.04349  -0.06537  0.6056  0.3647
6.545e+09  0.9423  0.3056  0.009116  -0.05585  -0.01436  -0.02584  0.7045  0.1747
6.546e+09  0.9699  -0.03077  0.02099  0.01014  0.02018  0.00965  0.7179  -0.1175
6.548e+09  0.8812  -0.3676  -0.01692  0.003122  0.01773  -0.02361  0.6564  -0.3412
6.549e+09  0.7244  -0.6639  0.01776  0.02876  0.0468  -0.002705  0.5199  -0.5004
6.55e+09  0.451  -0.9054  0.001482  -0.007608  -0.06188  -0.03114  0.267  -0.6577
