# Hz S RI R 50
6.25e+09  -0.3857  0.8078  0.006778  -0.005027  -0.06977  0.02708  0.1471  0.4753
6.251e+09  -0.1541  0.8874  0.005785  -0.01982  -0.02784  0.03141  0.3634  0.391
6.252e+09  0.1555  0.8757  -0.03064  0.01797  0.04851  -0.03271  0.5401  0.2415
6.254e+09  0.4314  0.7263  0.01994  0.006453  0.006195  -0.005011  0.6202  0.00504
6.255e+09  0.7509  0.5088  -0.04168  -0.02926  0.04407  0.02936  0.5956  -0.2315
6.256e+09  0.8221  0.2672  0.01941  0.001387  0.02288  0.006976  0.4622  -0.459
6.258e+09  0.8251  -0.03502  -0.004587  -0.02896  0.05397  -0.0002398  0.2757  -0.5724
6.259e+09  0.7615  -0.3649  -0.01595  -0.03608  0.008613  -0.01208  0.06221  -0.6832
6.26e+09  0.6121  -0.561  -0.01665  0.0232  -0.03528  0.01563  -0.2118  -0.6606
6.261e+09  0.4188  -0.7626  0.01689  -0.01004  0.04591  -0.04549  -0.47  -0.5381
6.262e+09  0.1174  -0.8605  -0.01873  -0.003209  0.02184  0.04634  -0.6042  -0.3464
6.264e+09  -0.1143  -0.766  0.006531  0.007625  -0.002989  0.09115  -0.724  -0.08884
6.265e+09  -0.4247  -0.7306  0.02901  0.01673  0.03883  0.04164  -0.6988  0.1556
6.266e+09  -0.6706  -0.5425  0.001725  0.01312  0.01336  -0.01202  -0.5676  0.3687
6.268e+09  -0.8104  -0.2743  0.00978  0.00685  0.006146  -0.02512  -0.4432  0.5975
6.269e+09  -0.8123  0.03735  -0.03168  0.007741  -0.002243  0.02509  -0.2084  0.7122
6.27e+09  -0.7744  0.3306  -0.01084  0.01039  -0.04224  -0.03302  0.05489  0.7611
6.271e+09  -0.6136  0.5426  0.01112  0.003407  -0.03869  0.01193  0.3071  0.67
6.272e+09  -0.3935  0.7839  -0.004378  -0.0002615  -0.006894  0.04294  0.575  0.5112
6.274e+09  -0.1243  0.8317  -0.001922  0.002291  -0.009557  0.03706  0.6663  0.3053
6.275e+09  0.1901  0.8325  -0.03657  -0.01689  -0.01787  -0.01416  0.7731  0.0541
6.276e+09  0.448  0.7358  0.007334  -0.004372  -0.03877  -0.02492  0.7395  -0.2101
6.278e+09  0.6632  0.4475  -0.02058  0.0003513  0.00982  -0.01278  0.6305  -0.4743
6.279e+09  0.7793  0.2322  -0.001222  0.01648  0.02641  0.009096  0.4114  -0.6489
6.28e+09  0.8962  -0.08003  0.005592  0.008631  0.00206  -0.01671  0.1723  -0.7451
6.281e+09  0.769  -0.3164  -0.006656  0.02203  0.005103  0.005172  -0.07761  -0.7468
6.282e+09  0.5974  -0.5689  0.006428  0.0349  -0.04731  -0.004496  -0.3515  -0.6713
6.284e+09  0.3673  -0.7801  -0.01161  0.01177  -0.001128  0.006323  -0.6236  -0.5416
6.285e+09  0.1219  -0.8242  0.008709  0.002977  -0.04771  -0.02755  -0.729  -0.306
6.286e+09  -0.1546  -0.7959  -0.02632  -0.0304  0.01642  0.0662  -0.8177  -0.01084
6.288e+09  -0.5099  -0.7102  -0.0205  -0.01006  0.02268  -0.05467  -0.7492  0.2446
6.289e+09  -0.6712  -0.4961  -0.003556  -0.01097  -0.04272  0.0222  -0.6167  0.4983
6.29e+09  -0.7338  -0.2087  -0.02253  0.0009488  0.01461  0.03323  -0.4071  0.657
6.291e+09  -0.8761  0.1068  -0.007429  0.01841  -0.001304  0.05644  -0.1254  0.7907
6.292e+09  -0.6975  0.3382  0.009794  0.002942  0.004413  -0.02859  0.1322  0.8183
6.294e+09  -0.5352  0.5071  -0.005993  -0.01696  0.02883  0.01011  0.4241  0.7466
6.295e+09  -0.3567  0.7796  0.009149  -0.02117  0.03593  0.002474  0.6403  0.5258
6.296e+09  -0.03102  0.8328  0.04481  -0.002082  0.0171  0.02175  0.7706  0.2648
6.298e+09  0.2187  0.8154  0.01001  -0.02206  0.02998  0.0209  0.8453  -0.01093
6.299e+09  0.521  0.6584  -0.02949  0.00269  -0.01662  -0.005805  0.7714  -0.2778
6.3e+09  0.7144  0.4773  0.01941  -0.02772  -0.0444  -0.01128  0.6131  -0.4956
6.301e+09  0.8127  0.2204  0.006433  0.0274  -0.02  0.005742  0.4337  -0.7546
6.302e+09  0.8391  -0.09855  -0.008556  0.006411  -0.02602  -0.03777  0.1565  -0.8017
6.304e+09  0.7561  -0.3805  0.002527  0.008365  -0.03795  0.04139  -0.1661  -0.8214
6.305e+09  0.5579  -0.5624  -0.02573  -0.01781  0.004933  -0.01557  -0.4476  -0.7671
6.306e+09  0.2793  -0.7231  -0.0229  0.01768  0.03252  0.01195  -0.6195  -0.5484
6.308e+09  -0.05325  -0.8278  -6.494e-06  -0.01941  -0.02796  -0.04066  -0.8134  -0.3049
6.309e+09  -0.2667  -0.7645  -0.005266  0.008776  -0.008982  -0.04371  -0.8455  -0.004052
6.31e+09  -0.555  -0.706  -0.0007559  -0.01111  -0.009352  -0.04658  -0.8267  0.3162
6.311e+09  -0.7439  -0.3799  -0.03084  -0.002754  0.02507  0.01348  -0.6597  0.5432
6.312e+09  -0.8339  -0.1729  -0.02304  -0.02146  0.0143  0.01404  -0.4229  0.7071
6.314e+09  -0.8412  0.07294  -0.01656  0.001799  0.01726  0.0332  -0.18  0.8513
6.315e+09  -0.6931  0.4744  0.03937  0.02544  0.03173  -0.01132  0.1298  0.8761
6.316e+09  -0.5027  0.6622  0.01073  -0.04027  0.01902  -0.02459  0.4023  0.7596
6.318e+09  -0.2743  0.8199  -0.01353  0.005193  0.00879  0.00512  0.6405  0.5518
6.319e+09  0.006396  0.827  -0.001688  -0.003846  -0.02271  0.004283  0.8193  0.3565
6.32e+09  0.3302  0.7549  0.02173  0.01812  0.02627  -0.01555  0.8482  0.01293
6.321e+09  0.5543  0.6538  -0.03087  -0.01056  -0.01136  -0.01473  0.8321  -0.273
6.322e+09  0.7221  0.4504  -0.008592  -0.0304  0.01739  0.00273  0.6947  -0.5829
6.324e+09  0.8035  0.1422  0.00702  -0.01833  -0.02159  -0.01938  0.4906  -0.7731
6.325e+09  0.7701  -0.219  0.03045  -0.009854  0.02021  0.04336  0.1595  -0.8643
6.326e+09  0.7456  -0.4801  -0.01944  -0.02344  -0.005432  -0.03031  -0.1073  -0.9139
6.328e+09  0.4991  -0.6643  -0.009663  0.005629  0.0351  0.05752  -0.4267  -0.81
6.329e+09  0.2297  -0.8782  0.01189  0.008636  0.0087  -0.01559  -0.6941  -0.6086
6.33e+09  -0.04616  -0.8336  0.0007362  -0.008251  -0.005766  0.03627  -0.8603  -0.37
6.331e+09  -0.4182  -0.811  -0.005338  0.02992  0.00347  -0.03057  -0.9195  -0.01003
6.332e+09  -0.6392  -0.615  -0.003165  0.02289  0.01693  -0.005662  -0.8379  0.3011
6.334e+09  -0.7526  -0.4052  -0.001396  -0.002137  -0.01936  0.02603  -0.6784  0.583
6.335e+09  -0.8858  -0.08963  0.0424  -0.02196  -0.02869  -8.354e-05  -0.4837  0.7771
6.336e+09  -0.9012  0.2692  0.01514  0.03693  0.003487  -0.001289  -0.2078  0.9093
6.338e+09  -0.7639  0.5274  0.04054  -0.009605  -0.03344  -0.01796  0.1422  0.8995
6.339e+09  -0.5019  0.7555  0.006896  0.01218  0.03969  0.006092  0.4348  0.8178
6.34e+09  -0.2509  0.8774  0.004475  0.01023  -0.06392  -0.01852  0.6609  0.619
6.341e+09  0.1013  0.8892  0.0009035  0.00834  -0.03056  -0.04834  0.8881  0.3942
6.342e+09  0.4135  0.7755  0.02402  -0.002013  0.0199  0.03943  0.941  0.03085
6.344e+09  0.6347  0.5682  0.003954  0.01286  -0.03209  0.02227  0.9005  -0.3046
6.345e+09  0.853  0.325  0.008185  0.001547  0.03212  0.00557  0.7604  -0.5406
6.346e+09  0.8262  0.03904  -0.01222  0.004382  -0.04004  -0.03627  0.5299  -0.7856
6.348e+09  0.8173  -0.2762  0.01514  0.005237  0.01489  -0.01029  0.2154  -0.889
6.349e+09  0.7007  -0.5303  0.007281  -0.004449  0.003417  -0.02877  -0.1046  -0.9196
6.35e+09  0.4552  -0.7856  -0.003488  -0.02135  0.04498  -0.01968  -0.4042  -0.8539
6.351e+09  0.1496  -0.8371  -0.0034  0.002261  0.02138  0.04794  -0.67  -0.6012
6.352e+09  -0.1647  -0.853  -0.01539  -0.003779  0.02033  0.009539  -0.8511  -0.4207
6.354e+09  -0.4803  -0.7357  -0.03477  -0.01092  0.01594  -0.01804  -0.9149  -0.09282
6.355e+09  -0.7087  -0.5765  -0.003532  -0.02114  0.03819  0.02426  -0.9414  0.2842
6.356e+09  -0.8041  -0.2378  -0.02545  0.002021  -0.03345  -0.02624  -0.7668  0.5804
6.358e+09  -0.9003  0.04326  0.001145  -0.02556  0.01782  0.01057  -0.529  0.7934
6.359e+09  -0.8156  0.384  0.01477  0.004139  0.01376  -0.06026  -0.2052  0.9046
6.36e+09  -0.6797  0.601  0.001274  0.01353  -0.03263  -0.02198  0.09976  0.9517
6.361e+09  -0.3865  0.8376  0.02382  -0.01133  0.02232  0.02778  0.4196  0.8669
6.362e+09  -0.06401  0.8674  0.04489  -0.01357  0.01459  -0.03053  0.6623  0.6352
6.364e+09  0.2494  0.854  0.01665  0.01675  0.002389  -0.03786  0.8642  0.3816
6.365e+09  0.5049  0.7231  -0.04415  0.03384  0.00446  0.004629  0.9523  0.09577
6.366e+09  0.7309  0.525  -0.02823  -0.02503  0.02383  -0.002297  0.9438  -0.2525
6.368e+09  0.8228  0.2112  -0.01481  -0.0019  -0.02895  0.02083  0.7711  -0.5516
6.369e+09  0.9062  -0.1102  0.003538  -0.04484  -0.04101  0.01226  0.5493  -0.7835
6.37e+09  0.8496  -0.3639  0.004697  0.0142  -0.04068  0.01569  0.2775  -0.9276
6.371e+09  0.5967  -0.6407  -0.03754  0.01001  0.00456  -0.02816  -0.04072  -0.9374
6.372e+09  0.3957  -0.8278  -0.01437  -0.01239  -0.02039  -0.04977  -0.4163  -0.8556
6.374e+09  0.01125  -0.8611  -0.03759  0.0009646  0.02794  -0.01668  -0.671  -0.6843
6.375e+09  -0.2766  -0.8295  0.009914  0.01187  -0.04019  -0.03574  -0.878  -0.3773
6.376e+09  -0.5591  -0.6612  -0.0008628  -0.005989  0.002252  -0.004058  -0.9338  -0.07833
6.378e+09  -0.7605  -0.4402  -0.01067  0.0504  0.004484  -0.021  -0.9258  0.2095
6.379e+09  -0.845  -0.1398  -0.00103  0.03565  0.04128  0.03239  -0.7899  0.5178
6.38e+09  -0.9091  0.1236  0.001051  -0.005259  -0.04327  0.01389  -0.5727  0.7801
6.381e+09  -0.758  0.4232  0.003158  0.001821  -0.04256  0.003438  -0.2808  0.9017
6.382e+09  -0.5846  0.6742  -0.01113  0.03891  -0.01879  -0.00182  0.07118  0.937
6.384e+09  -0.2921  0.8257  -0.03772  0.002941  0.01183  0.01664  0.3774  0.9032
6.385e+09  -0.0269  0.8975  0.02188  -0.05371  0.02167  -0.009871  0.6413  0.682
6.386e+09  0.3515  0.8279  0.05121  0.03138  -0.01029  0.01272  0.8428  0.4015
6.388e+09  0.6141  0.6692  -0.0287  0.01045  -0.01003  0.03802  0.9372  0.1139
6.389e+09  0.7902  0.4075  -0.01449  0.01885  0.01899  0.03726  0.9403  -0.2113
6.39e+09  0.9013  0.1821  0.01441  0.005325  -0.004678  0.005341  0.7954  -0.5403
6.391e+09  0.8886  -0.1843  -0.01277  -0.0246  -0.01543  -0.007383  0.5769  -0.7311
6.392e+09  0.7258  -0.4611  0.02005  -0.01286  -0.005152  0.0387  0.2782  -0.8748
6.394e+09  0.6208  -0.7054  0.02497  -0.02158  -0.008807  0.02064  -0.05655  -0.8959
6.395e+09  0.3007  -0.8575  -0.001177  0.01321  0.01775  -0.008591  -0.3637  -0.9027
6.396e+09  -0.02423  -0.9639  0.009104  -0.005725  0.01057  0.006725  -0.6416  -0.7269
6.398e+09  -0.3478  -0.7774  0.0005537  0.02047  -0.04298  0.03047  -0.7277  -0.4051
6.399e+09  -0.5816  -0.6509  -0.01557  -0.01615  0.03708  -0.01642  -0.9523  -0.09505
6.4e+09  -0.8156  -0.4372  -0.02493  0.001216  -0.02454  -0.03158  -0.8957  0.1821
6.401e+09  -0.8632  -0.1191  -0.02932  -0.0308  -0.02258  0.0125  -0.778  0.4768
6.402e+09  -0.8798  0.1591  -0.03531  -0.02802  -0.02842  0.009301  -0.5407  0.7322
6.404e+09  -0.7621  0.4792  0.02468  0.02572  0.02795  -0.001502  -0.2925  0.8837
6.405e+09  -0.5579  0.7456  -0.01063  0.01346  -0.02705  0.02031  0.04679  0.9233
6.406e+09  -0.2698  0.8694  0.03956  0.03597  0.002686  0.02551  0.288  0.8594
6.408e+09  -0.007397  0.9109  -0.03177  0.0269  -0.02079  -0.02137  0.5724  0.6751
6.409e+09  0.4029  0.8359  0.00787  0.01854  0.03051  -0.01178  0.7866  0.4419
6.41e+09  0.5955  0.6515  -0.04959  -0.0008719  -0.02128  0.009685  0.9188  0.145
6.411e+09  0.7834  0.3767  -0.0007305  -0.01295  -0.08069  0.02364  0.8943  -0.1201
6.412e+09  0.863  0.1029  -0.03498  -0.03021  -0.01797  -0.004026  0.7816  -0.4504
6.414e+09  0.8825  -0.2242  -0.03129  0.01455  -0.009849  -0.01095  0.6078  -0.6672
6.415e+09  0.7241  -0.5279  -0.009594  -0.03767  0.006911  -0.02332  0.3306  -0.8121
6.416e+09  0.4766  -0.722  -0.02406  -0.03794  0.03259  -0.01099  0.02763  -0.9321
6.418e+09  0.2288  -0.8735  -0.003653  0.02801  0.01305  0.003877  -0.2667  -0.8366
6.419e+09  -0.06316  -0.8698  0.02935  -0.01717  -0.01523  -0.03882  -0.5826  -0.7473
6.42e+09  -0.3175  -0.8093  0.03476  0.0001252  0.005584  0.03302  -0.7556  -0.4682
6.421e+09  -0.6194  -0.6077  -0.008488  0.0279  0.03986  -0.02147  -0.8607  -0.1516
6.422e+09  -0.7711  -0.3653  0.03303  -0.001941  0.02371  0.000329  -0.8935  0.1575
6.424e+09  -0.8928  -0.02893  -0.04161  -0.02342  0.03517  0.02259  -0.8416  0.3379
6.425e+09  -0.8927  0.2304  0.004764  0.004416  0.03846  -0.06058  -0.5914  0.608
6.426e+09  -0.7059  0.5116  -0.01268  -0.02043  0.01433  0.01011  -0.3592  0.803
6.428e+09  -0.4779  0.7597  -0.01478  -0.003865  0.04623  0.03586  -0.04496  0.8584
6.429e+09  -0.2762  0.8058  0.02088  0.04681  -0.01303  -0.01828  0.2483  0.8754
6.43e+09  0.1332  0.8815  -0.01871  0.001483  0.03659  -0.05646  0.4967  0.6971
6.431e+09  0.4257  0.7925  0.009613  0.03471  0.06215  -0.01845  0.7074  0.4829
6.432e+09  0.6445  0.5864  0.005903  0.01293  -0.02181  0.03693  0.855  0.1777
6.434e+09  0.7644  0.3407  0.002169  -0.009039  0.01747  0.04959  0.8991  -0.07828
6.435e+09  0.868  0.0695  -0.01628  -0.008007  -0.003219  -0.02874  0.7794  -0.3861
6.436e+09  0.8221  -0.2682  -0.0005465  0.01903  0.002665  0.01884  0.5977  -0.6115
6.438e+09  0.766  -0.5442  -0.003383  0.05041  -0.003431  -0.02181  0.3396  -0.7751
6.439e+09  0.4969  -0.7144  -0.01649  0.01436  -7.521e-05  0.02669  0.07187  -0.9031
6.44e+09  0.235  -0.8159  -0.02162  -0.01829  0.03014  0.0276  -0.2134  -0.8004
6.441e+09  -0.1392  -0.8961  -0.02228  -0.004314  -0.007374  -0.07482  -0.4921  -0.6881
6.442e+09  -0.4372  -0.8587  0.0489  0.01342  -0.005051  0.001262  -0.679  -0.4927
6.444e+09  -0.664  -0.5546  -0.005114  -0.03975  -0.007665  0.05484  -0.889  -0.2063
6.445e+09  -0.7936  -0.331  -0.009129  -0.01409  -0.04443  0.001531  -0.8319  0.0908
6.446e+09  -0.8923  -0.03969  -0.001871  -0.01535  0.009403  -0.03175  -0.7476  0.3712
6.448e+09  -0.8266  0.3197  0.03997  0.0359  0.04951  -0.01647  -0.5409  0.5549
6.449e+09  -0.7072  0.4959  -0.01126  0.04717  0.01876  -0.03587  -0.3487  0.7493
6.45e+09  -0.504  0.7348  0.02108  -0.01471  0.03774  -0.02685  -0.09952  0.8502
6.451e+09  -0.1933  0.8738  0.01383  -0.0003752  -0.03572  0.05839  0.1766  0.813
6.452e+09  0.08804  0.9321  -0.001995  0.03598  -0.01348  0.02626  0.4565  0.704
6.454e+09  0.3981  0.7938  0.02942  -0.01415  0.0238  0.006469  0.6754  0.4818
6.455e+09  0.6715  0.639  0.03552  -0.008812  -0.02018  0.0107  0.8369  0.2042
6.456e+09  0.8426  0.364  0.03074  0.009605  -0.00229  0.02268  0.8018  -0.09909
6.458e+09  0.8846  0.05165  0.04166  0.03059  0.004898  -0.01024  0.7764  -0.3581
6.459e+09  0.8225  -0.3131  -0.003378  0.009023  0.01101  -0.03716  0.5822  -0.5396
6.46e+09  0.6738  -0.5387  -0.009835  -0.01167  -0.02155  0.009384  0.3382  -0.7551
6.461e+09  0.5319  -0.8098  -0.0002644  0.04858  -0.01804  0.0208  0.1042  -0.8223
6.462e+09  0.2204  -0.8045  0.004416  0.03102  0.03577  0.03821  -0.213  -0.7743
6.464e+09  -0.1174  -0.9119  0.02114  0.0105  0.01886  -0.03721  -0.4809  -0.6952
6.465e+09  -0.4331  -0.8529  0.01463  0.003594  0.008793  0.02612  -0.7101  -0.4629
6.466e+09  -0.676  -0.5792  0.03012  -0.02112  0.01123  -0.02646  -0.8063  -0.1932
6.468e+09  -0.84  -0.3303  0.001132  -0.01357  -0.01379  0.007009  -0.8029  0.1018
6.469e+09  -0.9448  -0.0239  -0.02467  -0.03119  0.01527  -0.007593  -0.7206  0.3214
6.47e+09  -0.8736  0.2818  0.01616  0.03157  -0.03126  0.009818  -0.581  0.5583
6.471e+09  -0.7169  0.57  -0.05008  -0.0163  -0.05269  0.03304  -0.336  0.7193
6.472e+09  -0.4755  0.7469  -0.02539  -0.0003368  0.01781  0.0001176  -0.04569  0.744
6.474e+09  -0.1566  0.8559  -0.01579  -0.004998  -0.0463  0.009408  0.2359  0.7456
6.475e+09  0.08473  0.8831  -0.03495  0.01428  0.009884  0.05597  0.4599  0.6381
6.476e+09  0.4427  0.7946  0.02877  -0.003145  -0.01672  -0.003554  0.6374  0.4503
6.478e+09  0.6746  0.6126  0.008443  0.04582  -0.04631  0.02903  0.8003  0.186
6.479e+09  0.8059  0.3179  0.02825  0.01736  0.04343  -0.009364  0.8379  -0.05884
6.48e+09  0.9398  -0.05697  -0.04429  0.01591  0.0335  0.03725  0.699  -0.3405
6.481e+09  0.8161  -0.3172  0.02067  0.03069  0.0497  -0.01649  0.524  -0.553
6.482e+09  0.6978  -0.6565  0.008454  0.001119  -0.002251  0.0422  0.3273  -0.6937
6.484e+09  0.4912  -0.7657  0.003694  -0.03083  0.04717  0.008816  0.05451  -0.7602
6.485e+09  0.1922  -0.8813  0.01249  -0.02792  0.004669  0.03575  -0.2308  -0.75
6.486e+09  -0.1645  -0.9267  0.004518  0.008009  -0.01058  0.04084  -0.5135  -0.6352
6.488e+09  -0.5183  -0.8253  -0.005045  -0.01085  -0.02152  -0.01336  -0.6376  -0.4625
6.489e+09  -0.7599  -0.6032  0.02968  0.04466  -0.01306  -0.008541  -0.7445  -0.181
6.49e+09  -0.8966  -0.3104  -0.004595  -0.02348  -0.006436  0.01725  -0.77  0.09021
6.491e+09  -0.9373  0.02123  -0.01315  0.006837  0.08531  0.00596  -0.6639  0.2954
6.492e+09  -0.8709  0.3222  -0.02593  -0.001531  0.02276  -0.03049  -0.5307  0.5559
6.494e+09  -0.6783  0.6321  0.02384  0.0109  0.001454  0.04034  -0.323  0.6974
6.495e+09  -0.46  0.8223  0.00267  -0.01639  -0.01426  0.01793  -0.003202  0.7831
6.496e+09  -0.1568  0.9481  0.003971  0.03198  -0.006728  0.01001  0.2495  0.7378
6.498e+09  0.1816  0.9163  0.03687  0.008316  -0.03748  -0.02748  0.4419  0.6197
6.499e+09  0.5529  0.8323  -0.005454  -0.03774  -0.03204  0.008108  0.6195  0.4091
6.5e+09  0.6865  0.5471  -0.02142  0.01246  -0.001364  0.03594  0.7192  0.1604
6.501e+09  0.8596  0.2622  0.006797  -0.03063  0.08097  -0.03717  0.764  -0.1325
6.502e+09  0.9225  -0.06869  -0.002786  0.01377  0.02922  -0.04098  0.6148  -0.3538
6.504e+09  0.8784  -0.388  -0.01886  -0.002573  -0.002696  -0.02638  0.4774  -0.5249
6.505e+09  0.6848  -0.6244  0.01225  0.03785  -0.03508  0.004199  0.242  -0.6761
6.506e+09  0.434  -0.8039  -0.004561  0.011  -0.002919  0.01638  -0.001707  -0.7803
6.508e+09  0.1278  -0.9445  0.007733  0.01507  0.002297  -0.006305  -0.2596  -0.7165
6.509e+09  -0.2141  -0.8995  0.01508  0.01681  0.009881  -0.02856  -0.4571  -0.5911
6.51e+09  -0.516  -0.8151  0.03296  -0.009657  -0.04564  0.01113  -0.6432  -0.3577
6.511e+09  -0.7986  -0.555  -0.007641  0.01775  0.008071  0.007964  -0.7136  -0.1307
6.512e+09  -0.9472  -0.3241  0.01067  -0.02725  0.006777  0.0138  -0.7227  0.1239
6.514e+09  -0.9461  0.02743  -0.005177  -0.01187  -0.01227  0.004645  -0.6956  0.3932
6.515e+09  -0.8292  0.3964  -0.009776  -0.002562  -0.03586  0.01289  -0.4805  0.5532
6.516e+09  -0.6762  0.6806  0.02761  -0.01162  -0.01629  -0.03463  -0.2517  0.7066
6.518e+09  -0.4319  0.8735  0.001853  -0.01123  -0.01467  0.032  0.001619  0.7328
6.519e+09  -0.1315  0.9224  0.008485  -0.0005479  0.06172  0.05034  0.2316  0.6742
6.52e+09  0.236  0.9187  0.02022  -0.001637  -0.02919  0.04732  0.4834  0.5579
6.521e+09  0.5578  0.7659  0.03257  -0.006743  -0.0434  0.004787  0.6681  0.361
6.522e+09  0.8194  0.4874  0.005524  -0.002333  -0.07925  -0.0483  0.7346  0.09611
6.524e+09  0.9207  0.228  -0.003991  0.02075  0.02884  0.03813  0.7153  -0.1588
6.525e+09  0.9251  -0.0751  0.02112  0.01983  0.03859  -0.009315  0.6123  -0.4029
6.526e+09  0.8506  -0.428  0.02095  0.01016  0.01097  -0.001146  0.4682  -0.5491
6.528e+09  0.6854  -0.7093  0.01263  -0.002203  -0.02  -0.003659  0.2103  -0.6876
6.529e+09  0.3914  -0.9048  -0.003481  -0.03432  0.03411  -0.03726  -0.05805  -0.7058
6.53e+09  0.00981  -1.017  0.01628  0.02295  -0.04784  -0.03317  -0.2952  -0.6322
6.531e+09  -0.3341  -0.9415  -0.01918  -0.002054  0.03264  0.02296  -0.4497  -0.494
6.532e+09  -0.6226  -0.7754  -0.007871  -0.0001883  -0.01493  -0.01741  -0.5884  -0.2903
6.534e+09  -0.8813  -0.5064  -0.02192  0.008783  -0.02153  0.006553  -0.6589  -0.06913
6.535e+09  -0.9237  -0.1913  0.0006286  0.01323  0.008354  0.005753  -0.6152  0.133
6.536e+09  -0.9316  0.1995  -0.006082  -0.01053  0.01393  -0.02205  -0.5529  0.3048
6.538e+09  -0.812  0.4924  -0.04431  0.001914  -0.03046  0.006347  -0.4286  0.4845
6.539e+09  -0.6205  0.7941  0.02681  -0.004503  0.02117  -0.01464  -0.2619  0.6219
6.54e+09  -0.3183  0.9653  -0.009018  0.0239  0.02757  -0.001608  -0.04026  0.6483
6.541e+09  0.02488  1.015  -0.005576  0.01051  0.007939  -0.02826  0.1765  0.6706
6.542e+09  0.3977  0.923  0.005114  0.02618  0.05933  0.03655  0.4008  0.556
6.544e+09  0.6836  0.6927  0.0267  -0.02455  0.01384  0.02899  0.5995  0.4175
6.545e+09  0.8858  0.4262  -0.03665  -0.005966  0.002057  0.01049  0.7079  0.1418
6.546e+09  0.9354  0.1363  0.002582  -0.001183  -0.03964  -0.00816  0.7033  -0.1076
6.548e+09  0.9721  -0.249  -0.01268  -0.01836  0.003899  -0.0176  0.654  -0.3316
6.549e+09  0.7456  -0.6004  0.004125  -0.004011  0.002551  -0.02036  0.5076  -0.51
6.55e+09  0.5538  -0.7805  -0.007159  -0.07335  -0.02828  -0.01604  0.271  -0.7081
