# Hz S RI R 50
6.25e+09  -0.3989  0.8198  0.01023  0.0005566  0.04288  0.01546  0.1501  0.5188
6.251e+09  -0.1039  0.8284  -0.01711  -6.65e-05  0.001809  -0.07405  0.363  0.4078
6.252e+09  0.1587  0.8298  0.006193  -0.02739  0.04043  0.04383  0.558  0.2331
6.254e+09  0.4731  0.6571  -0.02033  -0.02686  -0.01746  0.0361  0.597  0.00687
6.255e+09  0.6805  0.5084  -0.01429  0.003822  -0.02035  -0.02504  0.6261  -0.2124
6.256e+09  0.8349  0.2825  0.004947  0.02742  -0.008497  -0.0637  0.4686  -0.4514
6.258e+09  0.8868  0.0106  -1.263e-05  0.01488  0.07242  -0.0565  0.2773  -0.5885
6.259e+09  0.7998  -0.3164  -0.003115  -0.002058  0.0495  -0.01446  0.02269  -0.6527
6.26e+09  0.5971  -0.603  -0.004846  0.03763  0.02783  0.03669  -0.2058  -0.6953
6.261e+09  0.4365  -0.701  -0.0192  -0.008452  -0.02384  0.0355  -0.4289  -0.5758
6.262e+09  0.07938  -0.8186  -0.0254  0.0007272  0.03637  0.005329  -0.5958  -0.3326
6.264e+09  -0.209  -0.7871  0.01484  0.007198  0.002294  -0.0193  -0.706  -0.1295
6.265e+09  -0.437  -0.7188  -0.003438  0.01646  -0.02764  0.01938  -0.7199  0.156
6.266e+09  -0.655  -0.4899  0.003188  0.03005  -0.031  -0.03354  -0.6317  0.4254
6.268e+09  -0.8135  -0.2547  -0.00752  -0.01239  -0.0212  0.02479  -0.4092  0.5904
6.269e+09  -0.8587  0.03423  -0.001573  0.004651  -0.01364  0.01074  -0.1938  0.7024
6.27e+09  -0.7474  0.3395  0.008144  -0.003368  -0.05039  -0.07703  0.06241  0.7755
6.271e+09  -0.6003  0.5556  0.005445  -0.002715  0.02125  -0.03369  0.3283  0.6534
6.272e+09  -0.3653  0.7402  -0.01789  0.01079  -0.001733  0.04301  0.5228  0.5412
6.274e+09  -0.08319  0.8017  0.009552  0.006834  -0.0255  -0.01387  0.6522  0.3233
6.275e+09  0.1749  0.8384  0.007004  -0.002044  -0.003539  0.03306  0.7615  0.02408
6.276e+09  0.5148  0.7045  -0.001216  -0.009156  0.01029  -0.03005  0.7174  -0.2237
6.278e+09  0.6711  0.5155  -0.008791  -0.005288  0.06403  -0.04818  0.622  -0.4289
6.279e+09  0.7619  0.2348  0.02551  -0.02639  -0.06163  0.02462  0.4037  -0.6441
6.28e+09  0.8596  -0.07299  0.002981  -0.01463  0.01501  0.03115  0.1712  -0.749
6.281e+09  0.7811  -0.3493  0.03531  -0.0108  0.01143  -0.03411  -0.0937  -0.7646
6.282e+09  0.557  -0.5439  0.04892  0.007792  0.02431  -0.02762  -0.3968  -0.719
6.284e+09  0.3372  -0.7899  -0.009877  0.003117  -0.02272  -0.02571  -0.5997  -0.5191
6.285e+09  0.04839  -0.8158  -0.005961  -0.03554  0.01982  0.01455  -0.7181  -0.3064
6.286e+09  -0.2112  -0.8069  -0.02582  0.004829  -0.005969  0.06303  -0.7966  -0.01783
6.288e+09  -0.5089  -0.6865  0.03166  0.01964  -0.04094  -0.0118  -0.773  0.2738
6.289e+09  -0.6703  -0.5221  0.02364  -0.009528  0.01812  -0.009683  -0.6495  0.5027
6.29e+09  -0.8297  -0.177  0.02387  0.009742  -0.04098  -0.05832  -0.399  0.6829
6.291e+09  -0.854  0.1309  -0.003011  -0.019  -0.009511  -0.01459  -0.1581  0.8239
6.292e+09  -0.7272  0.3908  -0.003422  -0.01749  0.06205  0.02794  0.1054  0.8159
6.294e+09  -0.6222  0.6065  -0.002786  0.03228  0.02362  -0.009879  0.3982  0.6941
6.295e+09  -0.3579  0.7557  -0.01575  -0.002712  -0.04255  0.03983  0.6407  0.527
6.296e+09  0.005863  0.8501  -0.008288  -0.01689  0.07012  -0.05002  0.776  0.2972
6.298e+09  0.2366  0.7616  0.01164  0.005784  0.005529  0.02335  0.8381  -0.001527
6.299e+09  0.5196  0.6015  -0.01584  -0.01747  -0.02465  -0.002647  0.7628  -0.2908
6.3e+09  0.7089  0.4482  -0.0005654  -0.007046  -0.01901  -0.008309  0.6271  -0.5162
6.301e+09  0.756  0.218  0.01251  0.01135  0.001169  -0.04088  0.42  -0.7237
6.302e+09  0.8553  -0.08424  0.03941  -0.02464  0.05727  -0.02551  0.1423  -0.8011
6.304e+09  0.7847  -0.415  0.002403  0.01915  -0.03092  0.005131  -0.1479  -0.83
6.305e+09  0.566  -0.5896  0.04007  -0.009113  0.006979  -0.02052  -0.4276  -0.7461
6.306e+09  0.2825  -0.7464  -0.01975  0.003486  -0.008305  0.01476  -0.6469  -0.5889
6.308e+09  0.04194  -0.8208  -0.002707  0.02173  0.01251  -0.06972  -0.7909  -0.2649
6.309e+09  -0.3164  -0.8101  -0.01453  -0.022  -0.02072  0.01254  -0.8591  0.01524
6.31e+09  -0.5236  -0.6715  0.01499  -0.02932  0.04632  0.01861  -0.8197  0.2796
6.311e+09  -0.7653  -0.4289  -0.01548  -0.00355  0.02618  0.05525  -0.6584  0.5467
6.312e+09  -0.8166  -0.1961  0.0003327  -0.02694  0.04307  -0.04064  -0.421  0.7645
6.314e+09  -0.8291  0.2024  0.02459  -0.01075  -0.03358  -0.04208  -0.1526  0.8329
6.315e+09  -0.7403  0.4678  -0.04174  0.02825  -0.00938  -0.04443  0.144  0.8714
6.316e+09  -0.5621  0.6615  0.0009806  0.009519  0.05638  -0.05753  0.4491  0.7712
6.318e+09  -0.2641  0.7885  0.02682  0.0006776  0.02377  0.04637  0.6411  0.5995
6.319e+09  0.02197  0.8517  -0.007422  0.003386  0.02994  -0.02853  0.8336  0.2968
6.32e+09  0.3482  0.743  0.001892  -0.01683  0.006659  -0.01004  0.8913  0.02022
6.321e+09  0.582  0.6704  -0.01347  -0.02224  0.01334  0.00151  0.8313  -0.2755
6.322e+09  0.7371  0.4162  -0.02265  0.01391  -0.006101  -0.00507  0.6952  -0.5552
6.324e+09  0.8473  0.1082  -0.02403  -0.0152  0.006731  -0.0236  0.4484  -0.7666
6.325e+09  0.8049  -0.2075  -0.01509  -0.001625  -0.04678  0.02158  0.1805  -0.883
6.326e+09  0.6766  -0.4086  -0.04037  0.001663  -0.007511  0.02113  -0.107  -0.8824
6.328e+09  0.5339  -0.6294  0.002747  0.004208  -0.01036  0.04265  -0.4388  -0.8169
6.329e+09  0.2447  -0.86  -0.001487  -0.01576  0.02286  -0.01412  -0.687  -0.6407
6.33e+09  -0.06077  -0.8865  0.04212  0.01929  -0.006496  0.03383  -0.8328  -0.3523
6.331e+09  -0.3585  -0.8388  0.005006  -0.03825  -0.008777  -0.01376  -0.8981  -0.01894
6.332e+09  -0.5916  -0.5982  -0.01784  0.009798  0.06208  -0.002393  -0.8621  0.2845
6.334e+09  -0.7531  -0.3474  0.002652  -0.03033  -0.0162  0.01976  -0.7242  0.577
6.335e+09  -0.8589  -0.0286  -0.03468  -0.01258  -0.0258  0.009318  -0.4551  0.7621
6.336e+09  -0.8442  0.2804  -0.03291  0.03861  0.05766  -0.03419  -0.165  0.9186
6.338e+09  -0.664  0.4839  0.03205  -0.0201  0.01345  -0.03163  0.1032  0.8691
6.339e+09  -0.4742  0.722  -0.03155  -0.009463  0.02256  -0.002516  0.4302  0.8333
6.34e+09  -0.2081  0.8268  -0.01152  0.01637  -0.03416  -0.03009  0.6783  0.6139
6.341e+09  0.1181  0.8625  -0.009904  -0.001583  0.03508  -0.007817  0.85  0.3286
6.342e+09  0.4089  0.7498  -0.002961  -0.0418  0.05694  -0.03498  0.9471  0.02218
6.344e+09  0.6526  0.5901  -0.0137  0.004598  0.0164  -0.01316  0.8767  -0.304
6.345e+09  0.7968  0.3121  0.01247  0.03177  0.000606  0.02151  0.7407  -0.5637
6.346e+09  0.8983  0.0522  -0.004868  0.007394  0.05148  -0.004006  0.52  -0.7887
6.348e+09  0.8185  -0.3038  0.01218  0.009611  0.02456  -0.02087  0.2256  -0.9271
6.349e+09  0.6946  -0.5483  -0.04483  0.02132  0.05941  -0.01685  -0.0788  -0.9252
6.35e+09  0.4601  -0.7505  -0.01947  -0.05003  0.03469  0.03034  -0.4192  -0.8243
6.351e+09  0.1094  -0.8714  -0.007336  0.01219  -0.02633  0.03056  -0.6726  -0.6719
6.352e+09  -0.1518  -0.8745  -0.007984  -0.01206  0.003601  0.01456  -0.8674  -0.3575
6.354e+09  -0.4442  -0.7139  -0.00585  -0.007607  -0.03796  0.01369  -0.9655  -0.06164
6.355e+09  -0.7261  -0.5359  0.003718  -0.02464  -0.02602  0.009489  -0.9207  0.2733
6.356e+09  -0.8552  -0.2952  -0.0008424  0.02061  0.03732  -0.01782  -0.7259  0.5955
6.358e+09  -0.8829  0.06344  0.004208  0.00516  -0.01645  0.0277  -0.5133  0.7537
6.359e+09  -0.7991  0.3531  0.04187  0.03445  -0.008332  -0.008748  -0.2496  0.8919
6.36e+09  -0.5962  0.6039  -0.001557  0.001511  -0.0201  -0.006491  0.09178  0.9353
6.361e+09  -0.4302  0.7908  0.001164  -0.008387  -0.002971  0.02055  0.4155  0.8739
6.362e+09  -0.08226  0.8986  0.006941  0.01197  -0.03316  0.02516  0.6753  0.6495
6.364e+09  0.2373  0.9114  0.03299  0.02651  0.02589  -0.03496  0.8535  0.3771
6.365e+09  0.4594  0.7252  -0.02574  0.002761  -0.02235  -0.04719  0.9439  0.04876
6.366e+09  0.7261  0.4803  -0.02667  0.005334  0.00716  0.05087  0.9299  -0.2582
6.368e+09  0.8766  0.1852  -0.01777  0.008289  0.01489  0.01341  0.806  -0.57
6.369e+09  0.8708  -0.1336  -0.01274  -0.01611  -0.02626  0.01207  0.5501  -0.7492
6.37e+09  0.7927  -0.4449  -0.0124  0.01029  -0.00935  -0.01825  0.3195  -0.91
6.371e+09  0.5894  -0.6402  -0.0009089  -0.0222  0.02284  0.02918  -0.08616  -0.9454
6.372e+09  0.3705  -0.8003  -0.01495  -0.03008  0.0509  -0.04385  -0.4107  -0.8275
6.374e+09  0.03096  -0.8717  -0.01359  0.01821  0.01787  0.05746  -0.6611  -0.6327
6.375e+09  -0.239  -0.8001  -0.004486  -0.01915  0.006255  0.009294  -0.8559  -0.399
6.376e+09  -0.5259  -0.7132  -0.03688  -0.01549  -0.0114  -0.03647  -0.9596  -0.08461
6.378e+09  -0.724  -0.4682  0.03321  0.006099  -0.0281  -7.414e-05  -0.9021  0.2213
6.379e+09  -0.8987  -0.1749  0.01126  -0.034  -0.03759  7.179e-05  -0.7641  0.5221
6.38e+09  -0.9222  0.1387  -0.01288  -0.01174  0.04612  -0.05147  -0.5353  0.7606
6.381e+09  -0.8035  0.4417  0.0002599  -0.03909  -0.01751  0.02215  -0.2593  0.9333
6.382e+09  -0.6153  0.6428  -0.001093  -0.01678  -0.02038  -0.04749  0.06468  0.9754
6.384e+09  -0.3165  0.8727  -0.006396  -0.006261  0.008258  0.00487  0.3992  0.8695
6.385e+09  -0.01094  0.8924  0.009251  -0.009668  0.02809  0.01814  0.6023  0.6754
6.386e+09  0.3614  0.8478  -0.03447  -0.009885  0.01694  0.01606  0.857  0.4208
6.388e+09  0.5892  0.6542  0.004088  -0.002357  -0.007769  0.02703  0.9156  0.1058
6.389e+09  0.792  0.4292  0.0003184  0.001523  -0.009404  -0.004544  0.9384  -0.2093
6.39e+09  0.912  0.1188  0.02119  -0.02432  0.02535  0.02183  0.7673  -0.4908
6.391e+09  0.8639  -0.1785  -0.04058  0.03706  0.01585  -0.01674  0.57  -0.7162
6.392e+09  0.7719  -0.4138  0.02111  -0.01465  0.009992  0.01167  0.3331  -0.9077
6.394e+09  0.5219  -0.6792  0.03217  0.007403  0.0004513  -0.01055  -0.1182  -0.9421
6.395e+09  0.2558  -0.8251  -0.01479  -0.03366  0.01109  -0.01869  -0.3465  -0.8524
6.396e+09  -0.07117  -0.9132  0.01381  -0.01959  0.006383  0.003211  -0.6231  -0.6639
6.398e+09  -0.3426  -0.8243  -0.04179  0.003247  0.05715  0.03683  -0.7997  -0.3975
6.399e+09  -0.6016  -0.6103  -0.02114  -0.01011  -0.003897  0.01147  -0.9152  -0.1444
6.4e+09  -0.8098  -0.4263  0.02808  -0.0149  -0.04059  -0.01513  -0.8788  0.1507
6.401e+09  -0.8451  -0.0772  -0.01627  -0.04797  -0.01186  -0.003173  -0.8179  0.4715
6.402e+09  -0.8398  0.1988  -0.02569  -0.02158  -0.0005165  -0.009289  -0.6003  0.6955
6.404e+09  -0.709  0.4729  0.03407  -0.02294  -0.01934  0.02474  -0.2754  0.8656
6.405e+09  -0.5157  0.7099  0.03972  0.03639  0.01281  -0.005878  -0.01979  0.9284
6.406e+09  -0.2222  0.8653  -0.01029  -0.001957  -0.01575  -0.01293  0.2859  0.8762
6.408e+09  0.02634  0.8684  -0.04086  -0.0003206  0.004253  0.02751  0.6047  0.7
6.409e+09  0.2978  0.7613  0.00347  0.02533  -0.002969  0.0194  0.7847  0.4326
6.41e+09  0.6055  0.5908  -0.02503  0.03345  -0.003977  -0.01459  0.8616  0.1942
6.411e+09  0.7846  0.3347  -0.01178  -0.00363  -0.001816  -0.03945  0.894  -0.162
6.412e+09  0.9205  0.09293  0.01952  0.02265  -0.02061  -0.01314  0.7876  -0.4156
6.414e+09  0.8677  -0.2092  0.00567  -0.01595  0.02579  0.00315  0.621  -0.6709
6.415e+09  0.7357  -0.4723  0.03083  -0.02898  -0.01147  0.0186  0.3458  -0.8654
6.416e+09  0.5001  -0.7289  0.002889  0.0255  0.05122  0.007272  0.02429  -0.911
6.418e+09  0.2299  -0.8266  -0.01555  -0.05707  0.006182  0.03364  -0.2665  -0.8281
6.419e+09  -0.03573  -0.8538  -0.0166  -0.003241  0.02541  -0.03335  -0.5182  -0.7095
6.42e+09  -0.3463  -0.8539  -0.002978  -0.002194  0.009832  0.002628  -0.7888  -0.4783
6.421e+09  -0.631  -0.6335  0.03155  0.004494  -0.01428  -0.009592  -0.8871  -0.2467
6.422e+09  -0.8324  -0.3908  0.006695  -0.01568  -0.002303  -0.0008679  -0.9095  0.1375
6.424e+09  -0.8788  -0.07373  0.009238  0.02199  -0.01703  0.02934  -0.7876  0.4136
6.425e+09  -0.8572  0.2722  0.004522  -0.0108  -0.007664  0.01539  -0.5687  0.6536
6.426e+09  -0.7198  0.5361  0.004658  -0.02188  0.002082  -0.03222  -0.3433  0.8083
6.428e+09  -0.4906  0.7518  -0.04046  0.0004779  -0.0329  -0.009417  -0.08598  0.8525
6.429e+09  -0.2074  0.8189  0.007326  0.03518  -0.01248  0.03933  0.2484  0.8346
6.43e+09  0.08598  0.8579  0.01358  0.02619  -0.01209  -0.02515  0.5286  0.6885
6.431e+09  0.4029  0.7938  -0.007749  -0.03614  0.0468  0.003109  0.7242  0.4593
6.432e+09  0.6268  0.6308  0.01108  -0.008394  -0.03235  -0.01553  0.8372  0.2251
6.434e+09  0.7711  0.371  0.011  -0.03228  -0.01519  0.0155  0.8406  -0.08628
6.435e+09  0.9275  0.03587  0.01267  -0.01589  0.01145  -0.005419  0.7469  -0.3727
6.436e+09  0.8326  -0.2198  0.01439  0.02631  -0.01792  -0.006623  0.5976  -0.5987
6.438e+09  0.707  -0.5342  -0.01654  -0.008142  0.02308  0.004735  0.3041  -0.764
6.439e+09  0.4954  -0.743  -0.04676  -0.01708  -0.04636  -0.001731  0.06784  -0.8961
6.44e+09  0.2242  -0.8622  -0.01083  0.02265  0.02588  0.01567  -0.2539  -0.8331
6.441e+09  -0.1113  -0.8701  0.004213  0.005577  -0.02348  -0.02039  -0.5381  -0.7273
6.442e+09  -0.3619  -0.7862  -0.01669  0.03225  -0.008192  0.007844  -0.6931  -0.5021
6.444e+09  -0.6218  -0.5958  -0.03227  0.01745  -0.003925  0.02776  -0.7955  -0.2045
6.445e+09  -0.805  -0.3587  -0.01566  0.01301  0.004971  0.02786  -0.8504  0.08799
6.446e+09  -0.9194  -0.03451  -0.005635  0.0009942  0.02807  -0.0129  -0.8025  0.343
6.448e+09  -0.8129  0.239  0.01917  -0.02001  -0.01493  -0.01321  -0.5826  0.5809
6.449e+09  -0.7244  0.6208  0.02832  -0.01246  -0.01639  0.0257  -0.3786  0.8021
6.45e+09  -0.4631  0.7497  -0.01083  0.02144  0.01458  0.0026  -0.07176  0.8502
6.451e+09  -0.1824  0.8649  0.02688  -0.0002744  0.009274  -0.02774  0.1936  0.8703
6.452e+09  0.1152  0.8496  0.01531  -0.003413  0.02711  0.02618  0.4215  0.687
6.454e+09  0.384  0.8134  0.03556  -0.03983  0.05955  -0.01243  0.7118  0.4339
6.455e+09  0.6588  0.6077  -0.03634  0.008448  0.03243  0.03123  0.8037  0.1957
6.456e+09  0.8497  0.3277  0.04031  0.03605  0.004423  -0.005614  0.8096  -0.0589
6.458e+09  0.9327  0.09711  0.03569  -0.014  -0.01217  0.01735  0.759  -0.3581
6.459e+09  0.8632  -0.3138  -0.02623  0.00167  -0.01113  -0.007181  0.5658  -0.5863
6.46e+09  0.7047  -0.5952  -0.003531  0.01723  0.0272  -0.04666  0.3133  -0.7194
6.461e+09  0.4822  -0.7416  0.00663  0.00567  -0.02106  0.05076  0.04243  -0.811
6.462e+09  0.201  -0.8581  0.01453  -0.01526  -0.0002816  -0.0237  -0.2593  -0.799
6.464e+09  -0.106  -0.8885  0.01362  0.006608  -0.01112  0.03436  -0.4545  -0.7017
6.465e+09  -0.3809  -0.7603  -0.01014  0.03409  0.03848  -0.0266  -0.6446  -0.4387
6.466e+09  -0.6934  -0.5923  0.006265  0.03797  0.03351  -0.01295  -0.8313  -0.2308
6.468e+09  -0.8351  -0.36  -0.0004211  0.0386  0.04686  0.0434  -0.8308  0.04876
6.469e+09  -0.9218  0.006096  -0.02455  -0.007711  0.02753  -0.01489  -0.7133  0.3705
6.47e+09  -0.776  0.3011  -0.01725  0.005173  0.0217  0.001674  -0.5817  0.5699
6.471e+09  -0.722  0.6309  -0.01555  0.03655  -0.04068  0.005821  -0.2761  0.7353
6.472e+09  -0.4861  0.7759  0.01475  0.009158  0.02901  0.0001963  -0.08995  0.8098
6.474e+09  -0.1841  0.8747  0.005107  0.0213  0.03703  -0.01369  0.1927  0.7454
6.475e+09  0.1489  0.8793  -0.004929  0.01217  -0.03374  -0.01248  0.46  0.6015
6.476e+09  0.4466  0.8438  0.008936  0.01931  0.003166  0.01329  0.617  0.4353
6.478e+09  0.6485  0.5679  -0.02362  0.01627  -0.04322  -0.01681  0.7785  0.2159
6.479e+09  0.8814  0.2833  -0.01386  0.02129  0.01638  0.02745  0.7816  -0.0736
6.48e+09  0.9196  0.02194  -0.002443  -0.005177  -0.02282  0.04415  0.683  -0.3315
6.481e+09  0.8633  -0.2692  -0.01034  0.02936  -0.01662  -0.09854  0.5442  -0.5372
6.482e+09  0.6756  -0.6239  -0.02119  0.02221  -0.06442  0.02181  0.3553  -0.7013
6.484e+09  0.455  -0.7739  -0.02987  -0.02982  -0.03135  0.04314  0.06096  -0.7796
6.485e+09  0.2137  -0.9025  -0.009197  -0.008725  0.002299  -0.001023  -0.2218  -0.7834
6.486e+09  -0.1087  -0.879  -0.01945  -0.01806  -0.006331  -0.001564  -0.4406  -0.6433
6.488e+09  -0.4242  -0.7913  0.0004812  -0.03245  -0.006201  0.01622  -0.6687  -0.4117
6.489e+09  -0.7175  -0.5773  -0.01406  -0.01862  -0.00116  0.03419  -0.7457  -0.1728
6.49e+09  -0.8951  -0.3205  0.03757  0.02779  -0.03053  -0.04055  -0.7021  0.1134
6.491e+09  -0.9491  -0.0005702  0.005551  0.01714  -0.01404  0.007085  -0.6809  0.3455
6.492e+09  -0.8964  0.3238  0.01134  -0.01344  0.01613  -0.03267  -0.5327  0.5398
6.494e+09  -0.7789  0.6429  0.01045  -0.001735  0.01784  0.01072  -0.2683  0.6991
6.495e+09  -0.4928  0.8182  -0.01929  0.00898  -0.05816  0.04658  -0.01936  0.7608
6.496e+09  -0.1104  0.9  0.008762  0.02841  -0.04572  -0.05891  0.2606  0.7174
6.498e+09  0.1739  0.9452  0.02604  -0.04213  -0.01206  -0.004022  0.4515  0.6351
6.499e+09  0.5473  0.7843  -0.005159  -0.03572  0.01243  -0.01316  0.5912  0.3956
6.5e+09  0.7858  0.5765  0.003204  -0.009424  0.01258  0.01589  0.7422  0.1614
6.501e+09  0.9243  0.2999  0.04228  0.01673  0.0109  -0.05548  0.7429  -0.09873
6.502e+09  0.9561  -0.04992  0.02049  -0.01382  0.02421  -0.03017  0.6768  -0.3254
6.504e+09  0.8675  -0.379  -0.03141  -0.05374  -0.0372  0.001227  0.4905  -0.5705
6.505e+09  0.671  -0.6113  -0.01383  -0.02731  0.02882  -0.05673  0.2825  -0.7767
6.506e+09  0.4423  -0.8648  0.01682  0.01673  0.002915  0.04602  0.01693  -0.7629
6.508e+09  0.1064  -0.9688  0.005579  -0.003137  -0.04465  -0.003767  -0.242  -0.7456
6.509e+09  -0.1919  -0.914  0.02163  -0.008305  -0.02441  -0.006365  -0.52  -0.5743
6.51e+09  -0.5389  -0.8178  -0.02417  -0.01423  0.04078  0.01615  -0.6269  -0.3736
6.511e+09  -0.7807  -0.593  0.01582  0.01047  -0.003207  0.06134  -0.7448  -0.141
6.512e+09  -0.9301  -0.2067  -0.008272  0.02604  0.03399  0.04183  -0.7315  0.155
6.514e+09  -0.8981  0.05069  -0.02807  -0.01299  0.0004642  0.02415  -0.6253  0.3943
6.515e+09  -0.8927  0.393  -0.008387  -0.02344  0.0107  0.04441  -0.4907  0.5633
6.516e+09  -0.6863  0.6873  0.01588  0.003189  0.0429  0.02173  -0.2639  0.7145
6.518e+09  -0.4291  0.8506  -0.005352  0.01314  -0.001885  0.03578  0.00609  0.7423
6.519e+09  -0.0773  0.9437  0.029  -0.006014  0.06347  0.02543  0.258  0.6967
6.52e+09  0.2536  0.9044  -0.0287  0.006441  0.05071  0.05288  0.5009  0.5278
6.521e+09  0.5355  0.7632  -0.02566  -0.007171  -0.03815  0.03681  0.6612  0.329
6.522e+09  0.8511  0.5949  0.001456  -0.00425  -0.009444  0.04922  0.7454  0.07498
6.524e+09  0.9199  0.1921  0.01897  0.01655  -0.02763  -0.002646  0.7144  -0.1692
6.525e+09  0.9464  -0.1419  -0.02939  0.005104  -0.0495  0.00942  0.5939  -0.4225
6.526e+09  0.856  -0.421  -0.00944  0.0028  -0.01861  0.0008877  0.4198  -0.5741
6.528e+09  0.6214  -0.7129  0.007395  0.005259  0.05064  0.04828  0.1829  -0.6874
6.529e+09  0.3206  -0.9319  -0.03116  0.003598  -0.03316  -0.0173  -0.03891  -0.7046
6.53e+09  0.00366  -1  0.01231  0.01295  -0.0498  0.007497  -0.2637  -0.6257
6.531e+09  -0.3089  -0.9362  -0.01494  -0.008281  -0.01464  0.003268  -0.4797  -0.4932
6.532e+09  -0.6299  -0.7549  0.0212  -0.006901  0.0084  -0.02356  -0.598  -0.2961
6.534e+09  -0.8685  -0.508  0.02402  -0.0371  0.04368  -0.002539  -0.6384  -0.09084
6.535e+09  -0.9905  -0.2049  -0.03068  -0.005619  -0.03412  -0.01699  -0.592  0.1073
6.536e+09  -1.011  0.2003  0.01953  -0.00187  -0.002766  0.005102  -0.6102  0.2722
6.538e+09  -0.865  0.5168  0.0235  0.004484  0.01453  0.004444  -0.4704  0.4944
6.539e+09  -0.53  0.7921  0.004841  0.005754  0.0102  0.03219  -0.2623  0.5984
6.54e+09  -0.333  0.9546  0.01085  -0.02975  0.01721  -0.007213  -0.07091  0.6961
6.541e+09  0.07658  1.028  -0.00783  -0.02629  -0.01291  0.004281  0.181  0.6813
6.542e+09  0.3625  0.9062  -0.007889  0.002283  0.03131  0.03222  0.4097  0.5857
6.544e+09  0.7017  0.6822  0.029  0.01659  -0.03426  0.04984  0.5705  0.4298
6.545e+09  0.8381  0.4011  0.01551  0.02257  0.01401  -0.01073  0.6881  0.1955
6.546e+09  1.02  0.04281  -0.03749  0.03792  -0.002889  -0.0392  0.7299  -0.1159
6.548e+09  0.9704  -0.2383  0.002902  -0.02218  -0.02199  0.02231  0.6445  -0.3365
6.549e+09  0.7966  -0.5485  0.008177  0.0199  0.003355  0.008899  0.4965  -0.5463
6.55e+09  0.5621  -0.7994  -0.01945  -0.0119  0.02504  -0.001603  0.2775  -0.675
6.551e+09  0.2619  -0.897  -0.0264  -0.01328  0.01863  -0.04501  0.06322  -0.7222
