# Hz S RI R 50
6.25e+09  -0.5904  0.6294  -0.005839  -0.005692  0.05897  -0.01339  0.1966  0.4925
6.251e+09  -0.3599  0.7712  -0.01133  0.009966  -0.0494  0.03192  0.3918  0.3755
6.252e+09  -0.08341  0.8917  0.004752  0.02434  -0.03407  0.0404  0.5245  0.2018
6.254e+09  0.2064  0.806  0.01149  -0.005467  0.003192  -0.05227  0.5963  -0.0003677
6.255e+09  0.5115  0.7293  -0.02514  0.03395  0.04213  -0.02863  0.6279  -0.2052
6.256e+09  0.7003  0.497  -0.001363  0.002469  -0.01076  0.05052  0.4796  -0.4507
6.258e+09  0.7764  0.1879  -0.01565  -0.002456  -0.005685  0.003102  0.2588  -0.5938
6.259e+09  0.8164  -0.06845  -0.02465  0.01029  0.003305  -0.01866  0.01648  -0.6943
6.26e+09  0.7528  -0.4  0.02301  0.002023  -0.007782  0.03213  -0.2155  -0.6968
6.261e+09  0.6381  -0.5607  0.008966  0.0117  -0.004884  -0.002649  -0.4372  -0.5369
6.262e+09  0.3268  -0.733  -0.02153  -0.003969  0.003487  -0.05141  -0.6332  -0.3229
6.264e+09  0.08133  -0.8145  -0.009144  -0.02606  0.02757  -0.01355  -0.7129  -0.09293
6.265e+09  -0.2374  -0.7821  0.003358  0.01677  -0.001496  -0.01134  -0.7007  0.132
6.266e+09  -0.4541  -0.6797  0.001214  -0.01859  0.01623  -0.008605  -0.5875  0.4008
6.268e+09  -0.7207  -0.4217  -0.01161  0.002802  -0.06904  -0.0008009  -0.452  0.6034
6.269e+09  -0.801  -0.1906  -0.02699  -0.00421  0.02273  0.01249  -0.1976  0.7455
6.27e+09  -0.8717  0.1235  -0.01181  0.01582  -0.0007227  -0.001001  0.05291  0.7541
6.271e+09  -0.7537  0.3684  0.00569  -0.01986  0.009829  0.05668  0.3085  0.6741
6.272e+09  -0.5483  0.5683  0.007125  0.006023  -0.03734  0.05016  0.5632  0.5209
6.274e+09  -0.2894  0.7822  0.00928  0.0178  -0.007914  0.006065  0.6801  0.3217
6.275e+09  -0.1098  0.8357  -0.01689  0.02284  -0.035  0.0359  0.76  0.06603
6.276e+09  0.2686  0.8344  -0.006634  -0.006458  0.03626  -0.03247  0.7196  -0.246
6.278e+09  0.4931  0.6494  -0.03165  -0.03784  -0.01004  0.06232  0.6276  -0.4859
6.279e+09  0.7133  0.4333  -0.004828  -0.001163  0.01829  0.00485  0.4186  -0.6287
6.28e+09  0.7293  0.186  -0.02208  -0.04099  -0.05925  -0.03461  0.1511  -0.7562
6.281e+09  0.8012  -0.1276  -0.02295  0.006986  0.04833  -0.04049  -0.1275  -0.7757
6.282e+09  0.7503  -0.3537  0.01169  0.02492  0.02961  -0.07843  -0.3807  -0.6985
6.284e+09  0.5538  -0.6372  -0.01255  0.01135  -0.04502  -0.009763  -0.5877  -0.5242
6.285e+09  0.3157  -0.7847  0.01204  -0.005539  -0.00706  0.03368  -0.7169  -0.2947
6.286e+09  0.00878  -0.7915  -0.009147  0.01446  0.04678  0.05351  -0.7851  0.003712
6.288e+09  -0.212  -0.7541  -0.01241  0.004343  -0.009646  0.006622  -0.7498  0.2196
6.289e+09  -0.5012  -0.6422  -0.001849  0.007057  -0.07172  -0.02883  -0.6552  0.4775
6.29e+09  -0.7052  -0.4343  -0.001092  -0.00939  0.02748  0.03383  -0.3948  0.6823
6.291e+09  -0.8265  -0.1811  0.04374  0.01412  -0.01363  0.03908  -0.1608  0.7909
6.292e+09  -0.8412  0.1289  -0.0162  0.0098  0.01994  -0.006206  0.09372  0.8093
6.294e+09  -0.7336  0.3855  0.003175  0.01024  0.02875  -0.0341  0.4121  0.7319
6.295e+09  -0.5728  0.6367  0.02642  -0.01122  -0.0008704  -0.03219  0.646  0.5413
6.296e+09  -0.2995  0.7579  -0.003763  -0.007311  -0.0139  -0.03555  0.8024  0.2847
6.298e+09  0.01522  0.8163  0.003931  -0.0008747  -0.06788  -0.02346  0.8285  0.003284
6.299e+09  0.3084  0.7476  -0.001726  0.01631  -0.007712  -0.04658  0.767  -0.2935
6.3e+09  0.575  0.6638  -0.02672  0.02216  0.0608  -0.01251  0.636  -0.5325
6.301e+09  0.7128  0.371  -0.00938  0.01317  -0.001868  0.003776  0.426  -0.735
6.302e+09  0.8328  0.1188  -0.003571  0.0004551  -0.02834  -0.002278  0.1775  -0.8309
6.304e+09  0.8431  -0.1355  0.0129  0.01038  0.004455  -0.003103  -0.1278  -0.8452
6.305e+09  0.7174  -0.455  -0.0004503  -0.01091  -0.01322  -0.005297  -0.4234  -0.7675
6.306e+09  0.5508  -0.6502  -0.01519  0.02111  -0.0009407  0.015  -0.6628  -0.5691
6.308e+09  0.281  -0.8251  -0.001282  -0.002511  -0.02212  0.03223  -0.8064  -0.2984
6.309e+09  0.01031  -0.8466  -0.005189  0.01807  0.03444  -0.01414  -0.8559  0.0002931
6.31e+09  -0.3296  -0.7566  -0.03195  -0.003647  0.03049  -0.02739  -0.8184  0.2903
6.311e+09  -0.5442  -0.6755  -0.0274  -0.002411  0.003827  -0.06465  -0.6387  0.5563
6.312e+09  -0.7177  -0.4458  -0.01591  -0.02002  -0.02873  -0.01983  -0.4484  0.7576
6.314e+09  -0.8411  -0.09208  0.01716  -0.005924  -0.05902  0.000857  -0.1606  0.834
6.315e+09  -0.7914  0.192  0.02265  0.03064  0.02681  -0.03425  0.1414  0.8688
6.316e+09  -0.6796  0.4486  0.009536  0.007091  -0.02684  0.05309  0.4204  0.7799
6.318e+09  -0.4896  0.6715  -0.001187  -0.006857  -0.002443  0.03252  0.6863  0.5695
6.319e+09  -0.1844  0.7674  -0.005819  -0.001008  -0.008738  0.04575  0.8152  0.3258
6.32e+09  0.06469  0.8379  -0.008298  0.02588  -0.008498  0.008769  0.8969  0.002857
6.321e+09  0.3272  0.747  0.007407  0.01324  0.02366  0.008386  0.8224  -0.2698
6.322e+09  0.6146  0.5925  -0.01747  -0.008491  -0.01727  -0.02449  0.6933  -0.5431
6.324e+09  0.8003  0.3777  -0.01126  -0.008938  -0.01379  0.02473  0.454  -0.7775
6.325e+09  0.8535  0.02545  0.000659  0.01916  0.02905  0.03272  0.1824  -0.9
6.326e+09  0.7793  -0.2277  -0.0009792  0.02674  -0.004659  0.04399  -0.1279  -0.8766
6.328e+09  0.6757  -0.4581  0.02196  -0.01559  0.009499  0.008454  -0.4242  -0.7572
6.329e+09  0.4406  -0.7358  -0.0005404  -0.001428  -0.02095  0.05002  -0.6628  -0.6017
6.33e+09  0.2158  -0.8405  -0.02935  -0.001881  -0.04928  0.02991  -0.8569  -0.3565
6.331e+09  -0.1043  -0.8796  0.008146  -0.004386  -0.007344  -0.01851  -0.9098  -0.04188
6.332e+09  -0.4173  -0.7292  -0.02257  -0.01079  0.01561  -0.009741  -0.842  0.2772
6.334e+09  -0.6539  -0.5994  0.0005865  -0.01431  0.001768  -0.02259  -0.6975  0.5472
6.335e+09  -0.8204  -0.3578  0.004237  0.01956  0.001635  -0.008308  -0.5304  0.762
6.336e+09  -0.8885  -0.04029  -0.0158  0.0188  -0.004667  0.04909  -0.154  0.9345
6.338e+09  -0.7819  0.2816  0.007453  0.04737  -0.002629  0.03209  0.147  0.9226
6.339e+09  -0.703  0.562  -0.01015  -0.02833  0.008196  0.03355  0.41  0.8181
6.34e+09  -0.4138  0.7373  -0.002474  0.02507  0.01575  -0.04494  0.6733  0.5957
6.341e+09  -0.1435  0.8811  -0.006424  -0.005566  -0.0003826  0.04408  0.8527  0.3424
6.342e+09  0.2063  0.8587  0.01745  0.01366  -0.003744  0.01667  0.9443  0.07151
6.344e+09  0.474  0.7169  0.008594  0.002174  0.007778  -0.02535  0.8579  -0.2726
6.345e+09  0.7137  0.518  0.01092  0.02576  0.005896  0.003844  0.7578  -0.546
6.346e+09  0.8245  0.2713  0.03939  0.04751  -0.01915  -0.01694  0.4664  -0.7624
6.348e+09  0.8816  -0.01679  -0.004312  -0.0004115  -0.01813  0.0002955  0.1989  -0.9301
6.349e+09  0.8014  -0.3521  0.04115  0.01663  -0.0691  0.008766  -0.077  -0.9015
6.35e+09  0.6059  -0.6064  -0.01647  -0.005523  -0.01683  -0.01734  -0.3868  -0.8522
6.351e+09  0.3887  -0.7753  0.02334  -0.04179  -0.00161  0.03338  -0.6908  -0.6168
6.352e+09  0.07529  -0.8753  0.0124  -0.01097  0.01126  -0.01582  -0.8708  -0.3787
6.354e+09  -0.2142  -0.7742  0.009539  0.0126  0.05079  0.02339  -0.9343  -0.06372
6.355e+09  -0.5473  -0.7309  -0.01743  -0.01846  0.01109  -0.006879  -0.9337  0.2399
6.356e+09  -0.7618  -0.5025  0.03957  -0.0395  -0.03061  0.0006237  -0.7895  0.5762
6.358e+09  -0.8648  -0.2363  0.02309  -0.006091  0.01025  0.007669  -0.5423  0.7732
6.359e+09  -0.8799  0.06571  -0.004192  0.0073  -0.005072  -0.02372  -0.2276  0.925
6.36e+09  -0.7387  0.3956  -0.03672  -0.04164  -0.01604  -0.01221  0.1087  0.933
6.361e+09  -0.5534  0.6742  0.01459  0.02702  0.01449  -0.008828  0.4403  0.8421
6.362e+09  -0.3575  0.8204  -0.0177  -0.001342  -0.03911  0.02099  0.649  0.6786
6.364e+09  -0.03416  0.8872  0.004796  -0.01254  0.0007291  0.005736  0.8681  0.3734
6.365e+09  0.2822  0.8424  -0.01262  -0.03465  -0.01123  -0.02468  0.9667  0.07433
6.366e+09  0.5726  0.6684  0.01244  0.01168  -0.01776  -0.01043  0.934  -0.2565
6.368e+09  0.7733  0.4516  0.01477  -0.004673  -0.01701  -0.006241  0.7604  -0.5268
6.369e+09  0.8525  0.1622  0.01492  0.01138  0.03389  -0.009827  0.499  -0.783
6.37e+09  0.9156  -0.1055  0.02036  0.009334  0.02222  0.02833  0.2295  -0.9193
6.371e+09  0.7211  -0.4597  0.03053  0.009586  -0.0106  -0.009315  -0.07117  -0.9454
6.372e+09  0.5305  -0.6846  -0.0144  -0.008789  0.04983  -0.02897  -0.374  -0.8989
6.374e+09  0.2665  -0.8161  -0.01847  -0.008294  0.001831  0.005352  -0.6838  -0.7192
6.375e+09  -0.04259  -0.8598  -0.01444  0.04589  0.0007895  -0.03391  -0.8544  -0.4062
6.376e+09  -0.3348  -0.7948  0.01721  -0.02251  0.003482  0.0237  -0.9479  -0.08503
6.378e+09  -0.6174  -0.6596  0.01789  0.02112  0.006798  -0.04821  -0.926  0.248
6.379e+09  -0.8167  -0.4416  -0.02896  0.02442  0.00939  7.774e-06  -0.7983  0.5416
6.38e+09  -0.9096  -0.1055  0.02272  0.0448  -0.01088  0.003658  -0.5347  0.7456
6.381e+09  -0.8412  0.1803  0.04192  -0.05113  0.04765  -0.01408  -0.268  0.9126
6.382e+09  -0.7508  0.4838  0.03143  -0.001407  -0.02554  -0.008207  0.05009  0.8981
6.384e+09  -0.5359  0.6963  0.03012  -0.008551  -0.02053  -0.01329  0.3729  0.8506
6.385e+09  -0.2111  0.8444  0.008573  0.007874  0.01502  -0.01248  0.6574  0.6968
6.386e+09  0.06705  0.8893  0.0258  0.02933  -0.02638  -0.0123  0.8682  0.453
6.388e+09  0.4036  0.8201  -0.03486  -0.02452  0.0457  -0.005866  0.9566  0.1302
6.389e+09  0.6325  0.6052  -0.01783  0.03043  -0.009981  -0.01787  0.928  -0.1763
6.39e+09  0.8396  0.3319  0.03459  0.0428  0.006121  0.04518  0.7572  -0.5218
6.391e+09  0.9189  0.07314  -0.01585  -0.02507  0.01615  -0.05086  0.594  -0.7641
6.392e+09  0.8736  -0.2404  -0.03053  0.02796  0.02702  0.04313  0.2906  -0.8461
6.394e+09  0.6923  -0.4912  -0.003953  -0.01213  -0.01095  -0.03092  -0.008584  -0.9044
6.395e+09  0.5202  -0.78  -0.01851  0.03741  -0.001346  -0.006074  -0.3334  -0.8393
6.396e+09  0.2072  -0.9371  0.001024  -0.02454  -0.01801  -0.00545  -0.6057  -0.7218
6.398e+09  -0.1134  -0.8654  0.01674  0.005301  -0.04271  -0.01327  -0.7791  -0.4455
6.399e+09  -0.4294  -0.791  0.005647  -0.006819  0.009665  -0.0001566  -0.9095  -0.1439
6.4e+09  -0.6925  -0.6155  -0.03121  -0.0112  -0.02882  0.05398  -0.9099  0.1842
6.401e+09  -0.8069  -0.3064  -0.04322  -0.03526  -0.003061  0.005643  -0.8111  0.4972
6.402e+09  -0.8648  0.01201  -0.04045  0.01218  0.02069  -0.007127  -0.5944  0.72
6.404e+09  -0.8705  0.2662  0.03086  -0.01211  -0.0543  -0.01642  -0.3066  0.8597
6.405e+09  -0.6673  0.5444  -0.01995  -0.0007168  0.0384  -0.03292  0.01778  0.9086
6.406e+09  -0.3827  0.7687  0.01584  0.02167  0.01319  0.007524  0.2979  0.8515
6.408e+09  -0.1525  0.8754  -0.001413  -0.02531  -0.003911  -0.01746  0.6144  0.6701
6.409e+09  0.1321  0.8136  4.551e-05  0.01434  -0.02393  0.004216  0.7497  0.4558
6.41e+09  0.4226  0.795  -0.009297  -0.03174  0.01394  -0.01263  0.8922  0.1778
6.411e+09  0.7143  0.5497  0.006641  0.04757  0.03426  -0.009987  0.8758  -0.1172
6.412e+09  0.7852  0.2671  0.005383  0.01665  -0.01858  0.02101  0.8373  -0.4293
6.414e+09  0.8607  0.03498  0.02415  0.01906  0.01229  0.02529  0.6033  -0.6897
6.415e+09  0.8121  -0.3445  -0.01706  -0.0236  0.02043  0.0349  0.3208  -0.8715
6.416e+09  0.6844  -0.5941  -0.01858  -0.002187  0.02101  -0.01088  0.05026  -0.8473
6.418e+09  0.4288  -0.8134  0.01796  0.01154  0.01831  -0.01073  -0.2903  -0.8627
6.419e+09  0.1376  -0.8683  -0.0182  0.01999  0.008835  0.03774  -0.5837  -0.6766
6.42e+09  -0.1828  -0.8633  -0.019  0.002646  0.03281  -0.02824  -0.7296  -0.4863
6.421e+09  -0.4711  -0.7703  -0.007101  0.01275  0.03335  -0.03106  -0.8799  -0.1967
6.422e+09  -0.6772  -0.5701  -0.004404  -0.01615  0.04309  -0.009538  -0.8799  0.1174
6.424e+09  -0.8325  -0.2728  -0.01286  0.01683  0.03101  0.03113  -0.7917  0.436
6.425e+09  -0.8404  0.02968  -0.009803  -0.01237  0.02235  0.04778  -0.5845  0.6613
6.426e+09  -0.7932  0.3318  -0.02093  0.005926  0.005868  -0.009886  -0.3416  0.8368
6.428e+09  -0.6244  0.5663  0.0009551  0.007638  -0.00597  0.01445  -0.02759  0.8438
6.429e+09  -0.4042  0.7726  0.003399  0.01754  -0.003214  -0.02077  0.229  0.811
6.43e+09  -0.143  0.8853  -0.03831  -0.01297  -0.007156  -0.02275  0.5329  0.6973
6.431e+09  0.1961  0.8795  0.02099  -0.0117  -0.006032  0.01427  0.697  0.475
6.432e+09  0.4592  0.7113  0.02989  -0.01578  -0.01038  -0.03371  0.8304  0.1772
6.434e+09  0.7026  0.5564  0.001643  0.02379  0.00143  0.03727  0.8496  -0.08185
6.435e+09  0.8382  0.2115  -0.02082  0.02908  -0.01616  0.01416  0.7857  -0.3849
6.436e+09  0.8783  -0.06758  0.04371  -0.01729  0.04576  -0.003234  0.6259  -0.6342
6.438e+09  0.8599  -0.385  0.01398  0.02746  0.01515  -0.01247  0.3554  -0.7688
6.439e+09  0.6441  -0.6176  0.00422  -0.01188  0.02037  -0.01286  0.05305  -0.8655
6.44e+09  0.369  -0.7801  -0.01872  0.02409  -0.04157  0.002076  -0.2292  -0.8452
6.441e+09  0.1676  -0.8963  -0.01344  0.01093  -0.0363  -0.005758  -0.4956  -0.6929
6.442e+09  -0.1945  -0.8571  0.04115  -0.01183  0.01226  0.04202  -0.7354  -0.493
6.444e+09  -0.5399  -0.7382  -0.04124  0.02649  0.0298  0.01802  -0.8253  -0.2268
6.445e+09  -0.7572  -0.5179  -0.04579  0.04079  -0.01133  -0.02718  -0.8451  0.07253
6.446e+09  -0.8953  -0.1889  -0.05412  0.0186  0.02685  -0.005155  -0.8383  0.3403
6.448e+09  -0.8444  0.0695  0.01526  0.0312  0.02988  0.03785  -0.6096  0.6184
6.449e+09  -0.8389  0.3138  -0.03246  -0.002331  0.06693  0.01796  -0.3298  0.752
6.45e+09  -0.6648  0.5741  0.003535  0.04272  -0.004346  0.000427  -0.09708  0.7908
6.451e+09  -0.4584  0.8206  0.001678  0.03806  -0.05056  -0.01673  0.1952  0.7715
6.452e+09  -0.07865  0.8482  -0.05485  -0.03568  -0.005446  -0.01562  0.502  0.6764
6.454e+09  0.1879  0.8452  0.005685  0.005959  -0.03981  -0.01262  0.7076  0.4917
6.455e+09  0.4855  0.7291  0.003794  -0.01744  0.0117  0.02377  0.832  0.2113
6.456e+09  0.7081  0.5144  -0.01666  -0.01053  0.01119  0.005043  0.8117  -0.05376
6.458e+09  0.8562  0.2244  -0.02238  0.03351  0.041  -0.02492  0.7724  -0.338
6.459e+09  0.8505  -0.08709  0.03981  0.02338  -0.01718  0.02542  0.5896  -0.5582
6.46e+09  0.8041  -0.4045  0.02941  0.004946  0.007582  -0.03769  0.3283  -0.7079
6.461e+09  0.6264  -0.6425  0.04304  0.004494  0.03415  -0.02296  0.04941  -0.773
6.462e+09  0.3527  -0.8247  0.01686  -0.01922  -0.09308  -0.002428  -0.1897  -0.7868
6.464e+09  0.08311  -0.8617  0.0163  0.002485  -0.00979  -0.03356  -0.5121  -0.6928
6.465e+09  -0.2169  -0.8909  -0.008533  -0.05377  -0.04464  -0.01633  -0.6211  -0.4671
6.466e+09  -0.4962  -0.6833  0.01581  -0.03359  -0.01693  0.06833  -0.8102  -0.2095
6.468e+09  -0.6858  -0.5107  0.009985  -0.00274  0.01082  0.01576  -0.8133  0.08129
6.469e+09  -0.9095  -0.2267  -0.004652  -0.03485  0.02636  -0.006881  -0.696  0.3169
6.47e+09  -0.9086  0.09692  -0.005821  -0.005634  -0.0154  0.0007551  -0.5517  0.5773
6.471e+09  -0.7784  0.3764  0.005911  -0.03183  0.03074  -0.02762  -0.3417  0.7372
6.472e+09  -0.6888  0.6076  0.00268  0.000857  0.002351  -0.01081  -0.07237  0.7837
6.474e+09  -0.4039  0.7747  0.001254  -0.03898  -0.01552  0.02065  0.2066  0.764
6.475e+09  -0.05657  0.8814  -0.03252  0.02234  0.006106  -0.008195  0.4872  0.6759
6.476e+09  0.2383  0.8715  -0.002855  0.01295  0.007  0.03774  0.6693  0.4046
6.478e+09  0.4805  0.742  -0.04672  0.01063  -0.01582  0.04031  0.7475  0.1988
6.479e+09  0.7543  0.5848  0.0317  0.02902  -0.0175  0.009251  0.7526  -0.05964
6.48e+09  0.8775  0.2318  0.01014  0.002178  0.001008  0.01969  0.711  -0.3132
6.481e+09  0.8623  -0.07229  0.02757  -0.003583  0.1123  0.01376  0.5814  -0.5893
6.482e+09  0.7826  -0.4296  -0.006199  0.01703  -0.01979  0.0258  0.3315  -0.7216
6.484e+09  0.6054  -0.6809  0.003556  0.02802  -0.03909  -0.01037  0.05677  -0.7488
6.485e+09  0.3424  -0.7888  0.01024  -0.002901  0.008881  0.0469  -0.2111  -0.7077
6.486e+09  0.1009  -0.8934  0.003329  -0.002757  -0.04354  -0.0165  -0.4314  -0.6223
6.488e+09  -0.231  -0.851  -0.02465  -0.01318  0.02242  -0.03247  -0.6021  -0.4628
6.489e+09  -0.5118  -0.7774  0.01279  0.03872  -0.0248  0.008321  -0.7533  -0.2093
6.49e+09  -0.7201  -0.4624  0.01243  -0.02509  -0.02986  0.01067  -0.7896  0.06272
6.491e+09  -0.9029  -0.213  -0.02874  0.01788  0.03892  -0.0178  -0.7124  0.3541
6.492e+09  -0.8896  0.09379  0.007803  0.05053  0.00217  -0.06469  -0.5052  0.5677
6.494e+09  -0.7177  0.45  -0.004236  0.02104  -0.0008121  0.05874  -0.3033  0.6853
6.495e+09  -0.6008  0.6197  0.03196  -0.02842  0.02639  -0.02947  -0.03519  0.7518
6.496e+09  -0.3938  0.8562  0.007235  -0.03826  -0.02572  0.06771  0.2375  0.7694
6.498e+09  -0.05767  0.9531  0.02969  -0.02509  -0.01494  0.001782  0.4773  0.6329
6.499e+09  0.2578  0.8768  0.0285  0.04513  -0.04515  -0.005188  0.6478  0.3947
6.5e+09  0.5412  0.7003  -0.008227  -0.02073  -0.03575  -0.008651  0.7725  0.1284
6.501e+09  0.7191  0.5321  0.002073  0.003009  0.01809  0.01773  0.7736  -0.07679
6.502e+09  0.8962  0.2114  -0.02515  -0.0069  0.0007165  0.03011  0.6774  -0.3453
6.504e+09  0.9105  -0.1186  -0.004304  -0.02382  -0.02932  0.01818  0.4721  -0.5908
6.505e+09  0.7898  -0.4383  -0.0113  -0.02974  -0.03657  0.02558  0.3085  -0.711
6.506e+09  0.6207  -0.6327  -0.008196  -0.0171  -0.01905  0.0587  0.03137  -0.7496
6.508e+09  0.3407  -0.8565  0.04057  -0.001646  0.02206  -0.007019  -0.2219  -0.7524
6.509e+09  0.07062  -0.9255  -0.02566  -0.03999  0.00866  0.06286  -0.4768  -0.5608
6.51e+09  -0.2837  -0.9118  0.02289  -0.002154  -0.003612  0.02018  -0.6486  -0.3564
6.511e+09  -0.5851  -0.7714  -0.01806  0.01538  -0.01331  -0.01783  -0.7419  -0.1181
6.512e+09  -0.8002  -0.4879  -0.01107  -0.0004987  0.01732  -0.04401  -0.7177  0.146
6.514e+09  -0.9189  -0.1799  0.008496  0.007186  -0.03847  0.03296  -0.6707  0.3708
6.515e+09  -0.9043  0.1201  -0.01385  0.01396  -0.03466  0.03112  -0.5095  0.5851
6.516e+09  -0.8144  0.5003  -9.104e-05  -0.01025  -0.001499  0.01869  -0.227  0.721
6.518e+09  -0.6252  0.7537  -0.001113  0.00908  0.002223  0.01067  0.03317  0.7638
6.519e+09  -0.3068  0.8629  -0.02254  -0.00639  -0.02883  -0.03385  0.2893  0.7043
6.52e+09  0.003677  0.9737  -0.01667  -0.007131  0.009932  0.02601  0.5384  0.5696
6.521e+09  0.3809  0.8716  0.005  0.006597  0.005335  -0.00319  0.6958  0.307
6.522e+09  0.5894  0.7373  -0.01338  0.01408  0.0261  -0.01099  0.7524  0.1098
6.524e+09  0.8085  0.5046  0.002598  -0.03039  0.003666  -0.01643  0.7315  -0.1613
6.525e+09  0.9454  0.1228  0.01488  -0.0003077  0.001943  0.02427  0.6183  -0.4006
6.526e+09  0.9352  -0.204  -0.02253  -0.00406  -0.01292  -0.007536  0.4652  -0.5957
6.528e+09  0.879  -0.4699  0.004773  -0.01364  0.0333  -0.009113  0.2074  -0.7156
6.529e+09  0.5615  -0.7517  0.04993  -0.01274  -0.01918  0.001251  -0.05092  -0.702
6.53e+09  0.2692  -0.9327  0.003852  -0.01865  0.001972  -0.03197  -0.3039  -0.6471
6.531e+09  -0.06994  -0.9669  0.005222  0.01825  0.02872  0.03582  -0.4508  -0.5169
6.532e+09  -0.4063  -0.8876  0.01922  -0.003351  -0.01682  -0.01955  -0.6044  -0.2843
6.534e+09  -0.6678  -0.7207  0.04163  0.002414  0.003013  -0.01829  -0.6237  -0.09317
6.535e+09  -0.8495  -0.4344  0.03151  -0.0005469  -0.01389  0.0008969  -0.6162  0.1085
6.536e+09  -0.9475  -0.1384  -0.01955  -0.009654  -0.04267  0.03355  -0.5746  0.309
6.538e+09  -0.9205  0.2455  -0.00479  0.01005  -0.0211  -0.002985  -0.4277  0.4699
6.539e+09  -0.7694  0.5939  0.0162  0.01044  0.03404  0.009754  -0.2599  0.6164
6.54e+09  -0.5276  0.8197  0.01279  0.01262  0.007114  -0.0169  -0.03943  0.6723
6.541e+09  -0.2194  0.9782  -0.01372  0.004408  0.003552  0.02724  0.1953  0.6612
6.542e+09  0.1568  0.9558  0.0044  0.01975  -0.03061  0.01034  0.4258  0.5684
6.544e+09  0.4207  0.9043  -0.007008  0.0107  -0.02299  -0.01728  0.5924  0.3913
6.545e+09  0.6951  0.6404  0.01282  0.004911  -0.0156  -0.007452  0.7143  0.1914
6.546e+09  0.9238  0.379  0.003196  0.00446  -0.001392  0.008601  0.6644  -0.0723
6.548e+09  1.04  0.005347  -0.005517  0.002498  -0.02718  0.00986  0.6465  -0.297
6.549e+09  0.9758  -0.3188  -0.007365  -0.007425  -0.004765  0.03029  0.5172  -0.5628
6.55e+09  0.7433  -0.6624  -0.01378  -0.001266  0.02662  -0.01636  0.3295  -0.6883
