# Hz S RI R 50
6.25e+09  -0.4045  0.7388  0.01354  -0.01156  0.009633  -0.00812  0.1382  0.4759
6.251e+09  -0.067  0.8882  -0.006743  -0.01204  0.0217  0.01723  0.3737  0.3848
6.252e+09  0.1819  0.8462  0.008708  0.003303  -0.006648  -0.03044  0.531  0.241
6.254e+09  0.3902  0.7274  -0.002029  -0.004524  0.02077  -0.05329  0.6167  0.03152
6.255e+09  0.6684  0.5294  -0.008326  0.01007  -0.01571  -0.001955  0.5861  -0.2209
6.256e+09  0.8426  0.3246  -0.03918  -0.01404  -0.01473  -0.0613  0.5039  -0.4477
6.258e+09  0.8406  -0.05243  0.01757  0.006659  -0.0136  -0.03951  0.2456  -0.635
6.259e+09  0.8267  -0.3495  0.0205  -0.00265  0.004101  0.004637  0.02556  -0.6611
6.26e+09  0.6081  -0.5896  0.03321  0.01954  0.01885  -0.02404  -0.2105  -0.6818
6.261e+09  0.4012  -0.678  -0.0003541  -0.009589  0.005494  -0.01268  -0.4547  -0.5427
6.262e+09  0.1653  -0.853  0.006928  -0.005094  0.04992  0.03019  -0.5895  -0.3298
6.264e+09  -0.1785  -0.8246  -0.01933  -0.007484  -0.06213  0.007365  -0.7123  -0.09646
6.265e+09  -0.445  -0.6696  0.04056  -0.003445  -0.02643  -0.02126  -0.745  0.1595
6.266e+09  -0.6564  -0.5547  -0.00957  0.01669  -0.003383  -0.0007756  -0.6278  0.3736
6.268e+09  -0.7406  -0.258  -0.005854  0.01031  -0.0008972  -0.02207  -0.4747  0.5888
6.269e+09  -0.8875  0.0879  0.002509  0.01254  -0.008162  0.06063  -0.1906  0.7175
6.27e+09  -0.8039  0.2972  0.01656  -0.01385  -0.01561  0.009038  0.07631  0.7243
6.271e+09  -0.5712  0.5262  -0.01519  -0.01948  0.01411  0.03319  0.3218  0.6684
6.272e+09  -0.3913  0.7018  -0.03807  0.02582  -0.02242  0.0505  0.5438  0.5125
6.274e+09  -0.1218  0.8331  -0.0009469  -0.003673  -0.006712  0.03903  0.6954  0.3148
6.275e+09  0.2125  0.8205  0.002964  -0.005175  0.02135  0.02476  0.7564  0.08193
6.276e+09  0.4889  0.6884  0.02219  -0.02943  0.03393  -0.04552  0.7075  -0.2345
6.278e+09  0.6427  0.4411  0.001468  0.008557  -0.008524  0.004316  0.5963  -0.4752
6.279e+09  0.8112  0.2518  -0.02299  0.009883  0.01533  -0.05861  0.4181  -0.6252
6.28e+09  0.8214  0.006882  0.00824  -0.01276  -0.06961  -0.01425  0.1503  -0.7454
6.281e+09  0.7708  -0.3942  0.0005504  0.009472  -0.03082  -0.05379  -0.135  -0.7904
6.282e+09  0.6133  -0.5693  0.002798  0.01407  -0.003738  0.01361  -0.3503  -0.6739
6.284e+09  0.4122  -0.7573  0.03315  -0.007046  0.04101  -0.002579  -0.5556  -0.4986
6.285e+09  0.1069  -0.8062  0.009572  0.01529  -0.01071  -0.07209  -0.7558  -0.2862
6.286e+09  -0.2196  -0.8366  0.002797  -0.02143  0.05701  -0.03834  -0.8178  -0.04219
6.288e+09  -0.4866  -0.6739  -0.02086  0.002432  0.02935  -0.01854  -0.7508  0.2555
6.289e+09  -0.6305  -0.4986  0.01309  0.006811  0.02027  -0.06232  -0.6364  0.5137
6.29e+09  -0.7844  -0.2754  0.0006702  -0.02776  0.03001  0.04313  -0.4338  0.6771
6.291e+09  -0.8785  0.08322  -0.01141  -0.02104  0.02437  0.01651  -0.1292  0.7895
6.292e+09  -0.7231  0.3363  -0.02859  0.01354  -0.02206  -0.07916  0.1485  0.7966
6.294e+09  -0.6093  0.6229  0.01157  0.0117  -0.02704  -0.03671  0.404  0.7035
6.295e+09  -0.3377  0.7756  -0.02396  -0.008844  -0.08723  -0.07317  0.6047  0.5265
6.296e+09  -0.03854  0.8231  0.01166  0.006817  0.02311  0.01324  0.7846  0.3128
6.298e+09  0.221  0.7745  -0.01187  0.02773  0.05119  0.0491  0.8183  0.02295
6.299e+09  0.4716  0.6387  -0.006091  0.01067  -0.02147  0.01433  0.7811  -0.2836
6.3e+09  0.7257  0.4355  0.01017  0.017  -0.03011  -0.0156  0.6355  -0.537
6.301e+09  0.7981  0.1384  0.02631  -0.01887  0.02528  -0.01997  0.431  -0.7231
6.302e+09  0.8605  -0.09281  -0.007304  -0.01732  0.02562  -0.02538  0.1589  -0.8052
6.304e+09  0.7292  -0.3908  -0.01046  0.006155  0.01451  -0.0002424  -0.1286  -0.835
6.305e+09  0.5585  -0.598  -0.01009  -0.0104  0.01975  0.04485  -0.4218  -0.7781
6.306e+09  0.3101  -0.7578  0.007351  0.006653  -0.03939  -0.0118  -0.6732  -0.5397
6.308e+09  0.01783  -0.841  0.01343  -0.02019  -0.04818  -0.01427  -0.8035  -0.2928
6.309e+09  -0.2593  -0.7589  -0.0231  0.02705  0.00338  -0.02411  -0.8621  0.02839
6.31e+09  -0.5315  -0.6842  0.003886  -0.02766  0.0208  -0.009406  -0.8122  0.2932
6.311e+09  -0.7187  -0.4051  -0.02303  0.003965  -0.0222  -0.003318  -0.674  0.5686
6.312e+09  -0.8336  -0.1734  0.02541  -0.01057  0.05254  -0.008348  -0.4554  0.7347
6.314e+09  -0.8671  0.1865  0.01793  -0.0436  0.06794  0.02103  -0.1657  0.8562
6.315e+09  -0.7398  0.3873  0.03732  -0.0113  -0.01469  0.04189  0.183  0.8395
6.316e+09  -0.4606  0.6286  -0.0225  0.003371  0.05164  0.0247  0.4368  0.7599
6.318e+09  -0.2801  0.8369  -0.01797  -0.0298  -0.0193  0.05783  0.6746  0.5929
6.319e+09  0.0618  0.8392  0.001101  0.0169  -0.02302  -0.01265  0.8144  0.3216
6.32e+09  0.2722  0.7354  0.001672  -0.003277  -0.007367  0.01626  0.8763  0.01802
6.321e+09  0.5701  0.5768  -0.01465  -0.023  0.001267  0.01632  0.8202  -0.3119
6.322e+09  0.7692  0.4355  0.009982  -0.02372  0.02775  0.01958  0.7239  -0.5508
6.324e+09  0.835  0.1761  0.008461  -0.001225  -0.01117  -0.01091  0.473  -0.7523
6.325e+09  0.8432  -0.2167  -0.006817  -0.004977  -0.09417  -0.02444  0.1667  -0.8965
6.326e+09  0.719  -0.4221  -0.008471  -0.01515  -0.04139  0.03438  -0.1302  -0.8858
6.328e+09  0.4959  -0.6741  -0.0002096  0.003261  0.02059  -0.01362  -0.4654  -0.7926
6.329e+09  0.2474  -0.819  -0.003937  -0.0279  0.06758  0.01351  -0.6886  -0.5819
6.33e+09  -0.1017  -0.8587  0.00352  -0.003562  -0.01128  -0.008564  -0.8511  -0.3217
6.331e+09  -0.3294  -0.7822  0.01592  -0.0362  0.0385  0.01127  -0.9334  -0.02009
6.332e+09  -0.6095  -0.6282  0.0126  -0.00551  0.02574  0.02696  -0.8477  0.2853
6.334e+09  -0.8042  -0.3666  -0.01495  -0.0119  -0.03733  -0.03712  -0.7341  0.5583
6.335e+09  -0.876  -0.02253  0.004673  -0.03211  0.01408  -0.0401  -0.4514  0.7913
6.336e+09  -0.8322  0.2224  0.01048  0.01868  0.01528  0.008214  -0.1708  0.878
6.338e+09  -0.6892  0.4518  0.01253  -0.02167  0.002654  0.01688  0.1203  0.9108
6.339e+09  -0.4665  0.7746  0.03157  -0.02245  0.009688  0.0373  0.4366  0.8395
6.34e+09  -0.2109  0.8573  0.03184  0.01026  0.006783  -0.001206  0.7101  0.6358
6.341e+09  0.1344  0.8257  -0.004283  -1.413e-05  0.03747  0.05808  0.8581  0.355
6.342e+09  0.406  0.7986  0.002641  -0.02049  -0.01671  0.03537  0.9223  0.04806
6.344e+09  0.6298  0.5953  -0.02308  -0.01777  0.001897  -0.01773  0.8864  -0.2592
6.345e+09  0.8967  0.3823  0.00931  -0.02238  0.04741  -0.01276  0.7484  -0.5711
6.346e+09  0.8627  0.01372  0.02123  0.02046  -0.02005  -0.02185  0.5112  -0.7677
6.348e+09  0.8135  -0.3169  0.01049  0.009457  -0.02775  0.00743  0.2185  -0.9016
6.349e+09  0.6901  -0.5531  -0.01266  0.0114  -0.03864  0.03186  -0.08495  -0.9165
6.35e+09  0.4346  -0.8013  -0.006688  -0.01012  0.05835  -0.02637  -0.4261  -0.8003
6.351e+09  0.19  -0.9361  0.07669  -0.009697  0.03801  0.01411  -0.6979  -0.6492
6.352e+09  -0.1675  -0.8504  0.03216  0.0007355  -0.02254  0.02131  -0.8444  -0.3765
6.354e+09  -0.4575  -0.7897  0.008264  -0.001475  -0.02376  0.03194  -0.9006  -0.06828
6.355e+09  -0.7204  -0.538  -0.01119  0.02124  -0.02314  0.01178  -0.9315  0.2221
6.356e+09  -0.8282  -0.2153  -0.01139  -0.02693  0.02024  0.01014  -0.7442  0.5464
6.358e+09  -0.8913  0.05349  0.0008067  -0.01643  -0.02938  -0.02089  -0.546  0.7727
6.359e+09  -0.8451  0.3614  -0.01732  0.0138  0.03741  -0.00943  -0.2278  0.9477
6.36e+09  -0.6386  0.5837  -0.005732  0.009081  -0.008404  -0.009976  0.0669  0.9298
6.361e+09  -0.3948  0.7591  -0.0024  -0.01291  -0.03821  0.04128  0.4061  0.8595
6.362e+09  -0.08036  0.8685  -0.003298  0.008861  0.03975  -0.0102  0.6535  0.6285
6.364e+09  0.2885  0.8203  0.03742  -0.0176  0.02155  0.01091  0.8942  0.3825
6.365e+09  0.5055  0.7119  0.01079  0.00342  0.02768  -0.01587  0.938  0.1041
6.366e+09  0.7403  0.5334  -0.02204  0.02119  -0.007191  -0.03735  0.9082  -0.2351
6.368e+09  0.8815  0.2192  -0.01049  0.006758  -0.01797  0.008293  0.814  -0.5577
6.369e+09  0.9139  -0.1342  0.02462  -0.01017  0.02398  0.002333  0.5585  -0.7656
6.37e+09  0.8124  -0.3957  0.01672  0.02525  0.03402  -0.02358  0.2854  -0.9084
6.371e+09  0.5907  -0.6145  0.00138  -0.01079  -0.02348  -0.01909  -0.1044  -0.9549
6.372e+09  0.3238  -0.8355  -0.003221  -0.01913  -0.01621  -0.0271  -0.4054  -0.8308
6.374e+09  0.06763  -0.9159  -0.02989  -0.01012  -0.04318  0.01106  -0.6473  -0.6395
6.375e+09  -0.2794  -0.8734  0.03954  0.02979  0.01514  0.00487  -0.8228  -0.4467
6.376e+09  -0.5269  -0.7343  -0.01815  -0.03134  -0.02646  0.01929  -0.9189  -0.0877
6.378e+09  -0.7765  -0.4408  -0.07826  -0.008913  -0.04472  -0.01918  -0.9331  0.2274
6.379e+09  -0.9118  -0.1485  -0.031  -0.03285  0.01847  0.0007154  -0.7991  0.507
6.38e+09  -0.8679  0.09454  0.01156  -0.01926  0.01345  0.02745  -0.568  0.7384
6.381e+09  -0.7739  0.4404  0.001712  -6.51e-05  0.00488  0.003521  -0.2762  0.8801
6.382e+09  -0.6036  0.7136  0.0184  -0.0383  -0.05125  -0.02934  0.0721  0.9743
6.384e+09  -0.3107  0.8263  0.03542  -0.03148  0.04725  -0.007156  0.3107  0.8624
6.385e+09  0.001342  0.9717  -0.02607  -0.03838  -0.03189  -0.02362  0.6907  0.6418
6.386e+09  0.3414  0.8326  0.004526  0.004862  -0.007714  0.008817  0.8238  0.4202
6.388e+09  0.5704  0.6449  -0.02051  0.05862  0.02937  0.03884  0.9241  0.1072
6.389e+09  0.8092  0.4844  0.01752  0.01035  0.01225  -0.03808  0.864  -0.1728
6.39e+09  0.9028  0.1437  -0.02454  -0.02141  0.04206  -0.005829  0.719  -0.5488
6.391e+09  0.9183  -0.1727  0.02402  0.0158  0.01169  -0.0116  0.5733  -0.7175
6.392e+09  0.7898  -0.4838  -0.0199  -0.002983  -0.09689  0.0007177  0.276  -0.9101
6.394e+09  0.5417  -0.6379  0.02864  0.03125  -0.006588  0.02128  -0.04996  -0.923
6.395e+09  0.2536  -0.8411  0.01737  -0.01786  -0.01167  -0.01891  -0.3039  -0.8497
6.396e+09  -0.02083  -0.9226  -0.03232  0.02291  -0.02394  -0.01323  -0.6515  -0.6912
6.398e+09  -0.3484  -0.8834  -0.02081  0.01693  -0.01159  0.01525  -0.8268  -0.42
6.399e+09  -0.6119  -0.6187  -0.008384  0.02539  0.01831  -0.02239  -0.9246  -0.1413
6.4e+09  -0.8125  -0.4509  -0.01153  0.03122  -0.01257  -1.252e-05  -0.8979  0.1939
6.401e+09  -0.8745  -0.1148  0.009138  0.01267  0.001339  0.03299  -0.812  0.4781
6.402e+09  -0.8529  0.1755  -0.009385  0.004372  0.008665  -0.02025  -0.604  0.6625
6.404e+09  -0.7574  0.4815  0.02947  0.02238  -0.03724  -0.03977  -0.3343  0.8788
6.405e+09  -0.5298  0.6871  0.01446  0.01678  -0.03107  0.01936  -0.007739  0.9332
6.406e+09  -0.2431  0.8392  0.01637  -0.01812  -0.04161  -0.0256  0.2728  0.8687
6.408e+09  0.07381  0.8779  0.0002456  -0.01883  -0.01974  -0.02157  0.6207  0.7304
6.409e+09  0.3772  0.822  0.003769  -0.006214  0.0161  -0.01484  0.7673  0.454
6.41e+09  0.5765  0.6478  -0.001778  -0.004197  0.001524  0.01601  0.8617  0.2073
6.411e+09  0.8546  0.4088  -0.03125  0.0195  0.03501  -0.003991  0.9166  -0.07561
6.412e+09  0.8738  0.05271  -0.005333  0.04553  -0.03033  0.00794  0.8373  -0.448
6.414e+09  0.9019  -0.2195  0.01862  -0.01274  -0.005228  0.01637  0.6353  -0.6783
6.415e+09  0.722  -0.4293  -0.0315  0.02898  0.05334  -0.03033  0.3441  -0.8321
6.416e+09  0.5075  -0.7677  0.003627  0.02694  -0.005571  0.02219  0.008383  -0.864
6.418e+09  0.2504  -0.8609  -0.01701  -0.003531  0.04377  -0.03308  -0.2817  -0.8777
6.419e+09  -0.08436  -0.8464  -0.0394  -0.03681  -0.01764  0.008756  -0.5497  -0.7465
6.42e+09  -0.3304  -0.812  -0.0109  0.00927  0.001141  -0.02187  -0.7593  -0.4691
6.421e+09  -0.6171  -0.6209  -0.005649  -0.01367  0.03022  -0.0086  -0.872  -0.1803
6.422e+09  -0.7656  -0.3574  -0.02291  -0.02518  0.04849  0.0218  -0.8399  0.1242
6.424e+09  -0.8922  -0.02275  -0.008209  0.07312  0.007789  -0.0371  -0.7991  0.412
6.425e+09  -0.8123  0.2135  0.003637  -0.01244  0.006571  -0.02531  -0.6077  0.6327
6.426e+09  -0.7693  0.4848  -0.006656  -0.02098  0.008865  0.01397  -0.3499  0.8165
6.428e+09  -0.4943  0.711  -0.00108  -0.006236  0.01441  0.01601  -0.02845  0.8696
6.429e+09  -0.245  0.8791  0.05727  -0.01799  0.004369  0.03289  0.2436  0.847
6.43e+09  0.06838  0.9316  -0.05095  0.009152  0.01532  0.0413  0.5296  0.6949
6.431e+09  0.4148  0.7749  0.05689  0.04518  -0.01038  0.04423  0.7182  0.4871
6.432e+09  0.6723  0.602  0.001142  -0.01913  -0.02096  -0.06406  0.8225  0.1477
6.434e+09  0.828  0.328  -0.02663  0.001141  0.01743  -0.02694  0.8717  -0.06175
6.435e+09  0.8879  0.05373  -0.005604  0.01857  -0.003442  -0.004482  0.7986  -0.3992
6.436e+09  0.8851  -0.2682  -0.006051  0.002789  0.02387  -0.02344  0.6651  -0.6075
6.438e+09  0.7256  -0.5316  0.0157  -0.01774  0.03414  -0.01424  0.3694  -0.8112
6.439e+09  0.4547  -0.7346  -0.01101  0.03606  0.02221  0.04172  0.07384  -0.8562
6.44e+09  0.1449  -0.8787  -0.008998  -0.03293  0.01083  -0.0139  -0.237  -0.855
6.441e+09  -0.1363  -0.8564  0.02137  -0.01661  -0.01672  0.001227  -0.4554  -0.6859
6.442e+09  -0.3771  -0.8277  0.04233  -0.02599  -0.02603  0.07156  -0.683  -0.5142
6.444e+09  -0.6955  -0.5756  -0.03919  -0.001714  -0.0718  0.02032  -0.8262  -0.2463
6.445e+09  -0.8218  -0.304  -0.03229  -0.0425  -0.002277  0.002138  -0.8297  0.07706
6.446e+09  -0.896  -0.05043  -0.05338  0.01227  -0.001315  0.03981  -0.7923  0.3545
6.448e+09  -0.8516  0.2568  -0.01047  0.03432  -0.04825  0.01333  -0.5981  0.6098
6.449e+09  -0.6879  0.5336  -0.009455  0.03054  0.003528  -0.04712  -0.3608  0.7354
6.45e+09  -0.491  0.7482  -0.01056  -0.00462  0.01121  -0.003127  -0.08323  0.7756
6.451e+09  -0.2263  0.8815  -0.007054  0.02447  0.001319  0.01228  0.2416  0.8011
6.452e+09  0.07701  0.8677  0.006282  -0.01297  0.04659  0.04444  0.4768  0.6669
6.454e+09  0.38  0.765  0.02111  -0.01397  -0.01054  0.0002533  0.6922  0.4834
6.455e+09  0.636  0.6159  0.02868  -0.01568  -0.005827  0.01726  0.8038  0.1709
6.456e+09  0.8817  0.3732  0.01974  -0.01199  0.006076  -0.005477  0.8071  -0.14
6.458e+09  0.868  0.009662  -0.01582  -0.002121  0.05207  -0.007105  0.7578  -0.3429
6.459e+09  0.8732  -0.2862  0.022  -0.03596  -0.005611  0.01121  0.5648  -0.603
6.46e+09  0.6925  -0.5444  0.001506  -0.01923  0.01669  0.03241  0.3423  -0.7093
6.461e+09  0.4773  -0.7342  -0.01175  0.0009008  0.02798  0.0144  0.04278  -0.829
6.462e+09  0.2164  -0.8887  -0.009793  -0.005836  0.007105  -0.05467  -0.1993  -0.8034
6.464e+09  -0.1512  -0.8639  -0.09373  0.02219  0.01174  -0.007642  -0.4373  -0.6642
6.465e+09  -0.4227  -0.7806  -0.03841  -0.02741  -0.005085  -0.03361  -0.6566  -0.4526
6.466e+09  -0.694  -0.5908  0.009607  -0.02771  -0.01374  0.007346  -0.7803  -0.187
6.468e+09  -0.8299  -0.3142  0.05646  -0.02394  0.01525  0.005203  -0.7504  0.08442
6.469e+09  -0.8946  -0.08207  0.009721  0.003605  -0.0236  0.0357  -0.7392  0.3698
6.47e+09  -0.8457  0.2736  -0.008376  0.02033  0.03046  -0.04342  -0.5373  0.605
6.471e+09  -0.7098  0.5483  0.03689  -0.02264  0.03679  -0.02397  -0.3388  0.7264
6.472e+09  -0.4853  0.7815  -0.04667  -0.01273  0.03591  -0.02156  -0.07218  0.7941
6.474e+09  -0.1869  0.8654  -0.02653  -0.0112  -0.004307  -0.009768  0.2014  0.7804
6.475e+09  0.109  0.869  0.008592  -0.05176  0.005255  0.004793  0.4761  0.6102
6.476e+09  0.4305  0.7689  0.05451  0.01545  0.01263  0.003406  0.6701  0.4221
6.478e+09  0.664  0.584  0.02043  0.03712  0.009295  0.06662  0.7671  0.2224
6.479e+09  0.8639  0.3843  0.01596  0.02551  0.0004352  0.007459  0.7597  -0.0532
6.48e+09  0.9094  0.03771  0.04402  -0.02388  0.04468  -0.02643  0.6517  -0.3559
6.481e+09  0.874  -0.2898  0.02467  0.005846  0.03327  -0.001964  0.5517  -0.5782
6.482e+09  0.7046  -0.5647  -0.01704  -0.04268  0.05558  0.03565  0.3407  -0.7012
6.484e+09  0.4431  -0.7742  -0.02328  -0.001812  0.004708  0.00038  0.06128  -0.7885
6.485e+09  0.1782  -0.8755  0.02652  -0.03303  -0.02317  -0.04894  -0.1993  -0.7182
6.486e+09  -0.138  -0.8683  0.001166  -0.01134  0.01022  -0.01717  -0.4533  -0.622
6.488e+09  -0.4603  -0.8152  0.007076  -0.005288  0.05656  -0.002609  -0.6385  -0.4426
6.489e+09  -0.7783  -0.6018  0.001166  0.01604  0.04221  0.001993  -0.7445  -0.1701
6.49e+09  -0.8964  -0.2844  0.007902  -0.02031  0.01872  -0.03577  -0.7816  0.107
6.491e+09  -0.931  0.01822  -0.007858  -0.04715  -0.01822  -0.03853  -0.6782  0.3553
6.492e+09  -0.8519  0.3361  -0.01422  -0.03713  0.007114  0.02997  -0.4997  0.5405
6.494e+09  -0.7126  0.5858  0.03526  -0.01046  -0.02517  0.03245  -0.3049  0.7331
6.495e+09  -0.4508  0.7837  0.02497  -0.001505  0.04443  -0.06116  -0.0184  0.7844
6.496e+09  -0.2056  0.9085  -0.008352  -0.00831  0.01248  -0.0007568  0.1956  0.7236
6.498e+09  0.1964  0.9421  -0.03794  0.004502  -0.0385  -0.03604  0.4535  0.6484
6.499e+09  0.4739  0.83  -0.004157  0.01752  -0.01949  0.01561  0.6369  0.403
6.5e+09  0.7602  0.5719  0.01038  -7.9e-05  -0.02544  -0.03934  0.7161  0.1604
6.501e+09  0.9514  0.2851  -0.01714  -0.03681  -0.0376  -0.02689  0.7418  -0.1039
6.502e+09  0.9217  -0.05303  0.06212  -0.00608  -0.005901  0.009654  0.7044  -0.3408
6.504e+09  0.8099  -0.3281  0.01186  -0.03343  -0.04371  -0.003805  0.5265  -0.5505
6.505e+09  0.7133  -0.5978  -0.02007  -0.008194  -0.001189  -0.0128  0.2787  -0.7156
6.506e+09  0.4393  -0.8096  -0.01221  -0.01049  -0.002537  0.05688  -0.002466  -0.7541
6.508e+09  0.1381  -0.9745  -0.02451  -0.03995  0.05573  -0.05724  -0.2494  -0.7272
6.509e+09  -0.1931  -0.8984  -0.004662  -0.0387  0.03033  -0.005267  -0.4907  -0.6104
6.51e+09  -0.5491  -0.7757  0.006797  0.01226  -0.000456  0.07196  -0.6243  -0.3954
6.511e+09  -0.7494  -0.6108  0.03311  -0.01883  0.001501  0.01398  -0.7432  -0.1407
6.512e+09  -0.8896  -0.2287  0.0132  -0.009368  -0.02449  -0.009429  -0.7257  0.1117
6.514e+09  -0.9382  0.05159  0.01541  0.02243  -0.0335  -0.01257  -0.6589  0.3745
6.515e+09  -0.8975  0.3613  0.001812  -0.02262  -0.001841  0.03975  -0.4403  0.572
6.516e+09  -0.7235  0.6921  0.01278  0.008988  0.01517  0.01882  -0.2413  0.74
6.518e+09  -0.38  0.8615  -0.004867  -0.02768  -0.0472  -0.05146  -0.01667  0.7626
6.519e+09  -0.07466  0.9628  -0.007296  -0.01713  -0.01771  -0.01125  0.2651  0.6941
6.52e+09  0.2737  0.9632  -0.005766  -0.004543  -0.02384  0.04601  0.4945  0.5374
6.521e+09  0.5364  0.8006  0.0373  0.009909  0.01675  -0.01293  0.6325  0.3068
6.522e+09  0.7569  0.5575  0.02539  -0.005501  -0.0089  0.02102  0.7491  0.09928
6.524e+09  0.9293  0.2302  0.01026  -0.0003287  -0.002632  0.05016  0.7174  -0.1371
6.525e+09  0.8735  -0.09511  -1.172e-05  -0.0005999  0.04808  0.007733  0.6457  -0.4152
6.526e+09  0.84  -0.4479  -0.03167  0.002464  -0.002133  -0.02406  0.4207  -0.5791
6.528e+09  0.5951  -0.7563  0.01366  0.002763  -0.01898  0.006925  0.2023  -0.6946
6.529e+09  0.422  -0.9233  -0.01885  -0.004603  0.003587  -0.01673  -0.06281  -0.6471
6.53e+09  0.04358  -0.9945  0.002566  -0.005015  0.007228  -0.003345  -0.3095  -0.6201
6.531e+09  -0.3196  -0.9264  -0.01539  0.003369  -0.02515  -0.05545  -0.4271  -0.4993
6.532e+09  -0.6179  -0.7215  0.003029  -0.005827  -0.021  -0.05648  -0.5843  -0.2982
6.534e+09  -0.8351  -0.4893  -0.001195  0.01154  0.001376  0.03073  -0.6482  -0.07888
6.535e+09  -1.016  -0.1436  0.007869  -0.02893  -0.01013  -0.05518  -0.6382  0.1163
6.536e+09  -0.9889  0.1616  0.0325  -0.009895  0.006496  -0.03583  -0.5624  0.2912
6.538e+09  -0.8167  0.5003  -0.008114  -0.002332  -0.03799  0.06644  -0.4394  0.4786
6.539e+09  -0.6221  0.7943  -0.01852  0.003921  -0.03509  0.02007  -0.2541  0.6486
6.54e+09  -0.3337  0.9332  0.02224  0.03058  -0.008722  0.04507  -0.004377  0.7103
6.541e+09  0.02286  0.983  0.01337  -0.01286  0.01558  -0.01682  0.1885  0.6979
6.542e+09  0.327  0.9181  -0.0162  0.01289  -0.01605  -0.0238  0.407  0.5601
6.544e+09  0.6763  0.6945  -0.03107  -0.00511  -0.0009048  0.0192  0.5983  0.3945
6.545e+09  0.9284  0.3986  0.003458  0.002737  -0.02746  -0.004017  0.7087  0.1314
6.546e+09  1.005  0.08802  0.006707  -0.009003  0.0233  -0.02282  0.762  -0.097
6.548e+09  0.9515  -0.2651  0.01127  -0.0216  -0.03327  0.01497  0.6094  -0.3348
6.549e+09  0.8151  -0.56  0.01861  0.03065  0.03235  -0.013  0.4786  -0.532
6.55e+09  0.5078  -0.8047  0.007331  0.00543  -0.01885  0.0121  0.26  -0.6623
