# Hz S RI R 50
6.25e+09  -0.656  0.5008  0.02166  0.006889  -0.001027  -0.06524  0.1793  0.483
6.251e+09  -0.4291  0.6723  -0.009115  -0.04589  -0.01318  -0.01602  0.3721  0.4212
6.252e+09  -0.1862  0.7094  -0.005139  0.02742  -0.001169  -0.007872  0.5185  0.2388
6.254e+09  0.09637  0.7961  -0.01479  0.03405  0.05143  -0.009981  0.6095  0.002658
6.255e+09  0.3602  0.7287  -0.003363  -0.04031  -0.09326  0.001063  0.5603  -0.2123
6.256e+09  0.5751  0.5677  -0.02475  0.02615  0.01113  -0.001729  0.4882  -0.4682
6.258e+09  0.7258  0.2961  -0.02756  0.008412  0.002427  -0.01938  0.2665  -0.6168
6.259e+09  0.8496  0.07735  -0.02869  0.02003  -0.01843  -0.05825  0.009482  -0.6948
6.26e+09  0.8048  -0.2336  0.003226  0.0001197  -0.006377  -0.04069  -0.2068  -0.6442
6.261e+09  0.663  -0.5025  0.01457  0.00198  -0.04515  -0.01582  -0.4656  -0.5511
6.262e+09  0.4621  -0.6861  -0.02668  0.02448  -0.005876  -0.003265  -0.6057  -0.3275
6.264e+09  0.177  -0.8484  -0.04017  -0.01998  0.007957  -0.005599  -0.6906  -0.1073
6.265e+09  -0.1018  -0.8284  -0.02191  -0.01083  -0.02202  0.05707  -0.7094  0.1716
6.266e+09  -0.3784  -0.756  0.02222  -0.0461  -0.04414  -0.02446  -0.6017  0.3735
6.268e+09  -0.6349  -0.5665  0.02932  0.007507  0.03946  0.04194  -0.4475  0.5989
6.269e+09  -0.81  -0.3424  0.01611  -0.02065  0.03887  -0.02297  -0.2041  0.7147
6.27e+09  -0.8402  -0.005191  -0.01912  -0.001219  -0.03017  -0.002145  0.04217  0.7247
6.271e+09  -0.7582  0.2837  -0.01244  0.001347  0.05519  -0.01185  0.3122  0.6824
6.272e+09  -0.6221  0.4567  -0.01333  0.001225  -0.03464  0.02568  0.5574  0.5354
6.274e+09  -0.4408  0.7068  -0.02556  0.005176  0.04847  0.0282  0.6762  0.3022
6.275e+09  -0.2169  0.8577  -0.005319  0.01186  -0.02906  -0.02027  0.7795  0.04662
6.276e+09  0.143  0.7943  -0.03373  -0.01442  0.01271  -0.01876  0.7223  -0.2198
6.278e+09  0.4367  0.7137  0.006566  0.01466  0.051  -0.002048  0.6256  -0.4951
6.279e+09  0.5837  0.5707  0.005013  -0.01399  0.02481  -0.01004  0.415  -0.6122
6.28e+09  0.7362  0.2787  -0.04956  -0.0008804  -0.004222  0.03301  0.171  -0.7385
6.281e+09  0.8365  0.0349  0.03575  0.00817  -0.02564  0.01494  -0.1329  -0.7883
6.282e+09  0.811  -0.1813  0.007674  0.004489  -0.04553  -0.03555  -0.3693  -0.6817
6.284e+09  0.6122  -0.5394  0.01685  0.008613  -0.005395  -0.0312  -0.5936  -0.5088
6.285e+09  0.4098  -0.7266  -0.006095  0.0009519  0.017  0.00648  -0.7242  -0.3202
6.286e+09  0.1364  -0.7842  0.02357  0.02045  -0.034  -0.01769  -0.7898  0.008233
6.288e+09  -0.1566  -0.8122  0.00631  -0.008197  -0.03384  0.002964  -0.768  0.2518
6.289e+09  -0.3991  -0.73  0.004982  0.000489  -0.02664  0.01328  -0.6172  0.479
6.29e+09  -0.609  -0.5146  0.0175  -0.0104  -0.00705  -0.04487  -0.4135  0.7196
6.291e+09  -0.7593  -0.2877  -0.02414  -0.01668  -0.006741  0.007685  -0.1679  0.7667
6.292e+09  -0.8327  -0.02606  0.02437  0.01397  -0.02355  0.01855  0.1219  0.7973
6.294e+09  -0.7702  0.2329  0.0329  -0.0007499  -0.006717  -0.01564  0.3679  0.7034
6.295e+09  -0.6122  0.5141  0.02006  0.0186  -0.002496  -0.02243  0.6466  0.497
6.296e+09  -0.4666  0.707  0.01088  0.0008414  0.005933  0.009386  0.7592  0.2848
6.298e+09  -0.143  0.8069  -0.0009157  0.01119  0.03133  -0.02757  0.8159  0.0121
6.299e+09  0.2075  0.7945  0.004399  0.001011  -0.06278  0.03812  0.7586  -0.2692
6.3e+09  0.3974  0.7205  -0.0218  -0.03057  -0.04492  0.008364  0.6686  -0.5414
6.301e+09  0.6954  0.4666  -0.01073  -0.008717  3.824e-05  -0.01827  0.4205  -0.7054
6.302e+09  0.7914  0.2454  0.0007148  -0.01925  -0.0186  -0.006435  0.1245  -0.8536
6.304e+09  0.8222  0.01289  0.01189  0.0348  -0.04371  0.004675  -0.1532  -0.8101
6.305e+09  0.7628  -0.3216  0.00205  0.01149  -0.01241  0.01274  -0.4095  -0.7534
6.306e+09  0.6216  -0.5855  0.003787  -0.02837  0.01355  0.05794  -0.6488  -0.5699
6.308e+09  0.3822  -0.7209  -0.01506  -0.02271  0.003668  -0.02456  -0.8266  -0.2969
6.309e+09  0.08475  -0.875  0.022  0.001475  0.01109  0.06541  -0.8339  -0.005988
6.31e+09  -0.1657  -0.8287  -0.01155  -0.0008919  0.01224  -0.02576  -0.8242  0.2868
6.311e+09  -0.473  -0.703  -0.004481  0.0181  -0.0204  0.0288  -0.6669  0.5154
6.312e+09  -0.6529  -0.4861  0.0002566  -0.02629  0.0009692  -0.006779  -0.4184  0.7422
6.314e+09  -0.8278  -0.2423  0.004158  -0.01094  -0.01502  0.01825  -0.1775  0.8339
6.315e+09  -0.8197  0.09615  0.006525  -0.002813  0.0129  0.01322  0.1626  0.8903
6.316e+09  -0.8042  0.3572  0.0164  -0.01943  0.06584  -0.007736  0.4054  0.7616
6.318e+09  -0.6424  0.6008  -0.0007205  -0.004839  0.03974  -0.02271  0.6621  0.5668
6.319e+09  -0.3501  0.7977  0.01381  0.0299  0.01556  -0.07686  0.8279  0.3299
6.32e+09  -0.0431  0.867  -0.0249  0.02094  -0.0008391  0.05055  0.8834  0.008372
6.321e+09  0.1822  0.8738  0.02015  -0.02074  -0.002113  0.000739  0.8398  -0.2897
6.322e+09  0.4979  0.7483  -0.02092  -0.0002328  -0.02154  0.005517  0.6881  -0.5707
6.324e+09  0.6969  0.4405  0.04163  0.0367  -0.04668  -0.02121  0.4478  -0.7506
6.325e+09  0.7753  0.2147  0.02556  -0.002432  0.01666  -0.01713  0.1932  -0.8874
6.326e+09  0.8779  -0.1053  0.02953  0.02238  0.00689  -0.002851  -0.1526  -0.9159
6.328e+09  0.8001  -0.3926  0.004566  0.02284  -0.02689  -0.00302  -0.4037  -0.8061
6.329e+09  0.549  -0.6331  -0.0006132  -0.01118  -0.02723  -0.02832  -0.6602  -0.6088
6.33e+09  0.2988  -0.7633  -0.02312  -0.02923  -0.04764  -0.01095  -0.8674  -0.3533
6.331e+09  0.06148  -0.8475  -0.0002281  -0.02213  -0.002316  0.007232  -0.8873  -0.06065
6.332e+09  -0.2876  -0.8107  0.003786  -0.04749  -0.007203  0.07127  -0.8591  0.3143
6.334e+09  -0.499  -0.6529  -0.01777  -0.0153  0.009285  -0.01131  -0.743  0.5998
6.335e+09  -0.7745  -0.4496  0.01927  -0.002084  0.001186  -0.04788  -0.4408  0.7653
6.336e+09  -0.8293  -0.1537  -0.02765  -0.003862  0.02712  -0.005741  -0.1872  0.8817
6.338e+09  -0.8461  0.1342  0.003529  -0.05064  -0.00752  0.01599  0.1043  0.9171
6.339e+09  -0.7305  0.3826  -0.01428  -0.01962  0.02307  0.01843  0.4037  0.8443
6.34e+09  -0.5326  0.6626  0.001065  0.02765  -0.03963  0.009032  0.682  0.6428
6.341e+09  -0.2329  0.8363  0.006166  -0.0304  0.005217  -0.01336  0.8462  0.333
6.342e+09  0.01646  0.8184  -0.002673  0.02577  -0.001774  -0.01161  0.9777  0.03269
6.344e+09  0.3133  0.8007  -0.01949  -0.01993  -0.08694  0.01433  0.8858  -0.2714
6.345e+09  0.5936  0.5946  -0.00496  -0.006469  -0.01921  0.04702  0.7484  -0.5642
6.346e+09  0.7477  0.355  0.01353  -0.003476  -0.01713  -0.01798  0.519  -0.7947
6.348e+09  0.8963  0.1058  -0.0608  0.00131  0.01933  0.05133  0.1933  -0.9071
6.349e+09  0.8681  -0.2556  0.03899  0.03557  0.02207  -0.003008  -0.1427  -0.9298
6.35e+09  0.7455  -0.4818  0.0193  -0.003077  0.009724  0.05261  -0.3987  -0.7957
6.351e+09  0.4858  -0.6494  0.0494  0.01087  0.02139  0.0163  -0.7034  -0.6193
6.352e+09  0.1946  -0.8286  0.002914  -0.006503  0.01723  -0.04858  -0.8621  -0.3866
6.354e+09  -0.08667  -0.8884  -0.02374  0.005975  -0.03669  0.02341  -0.9307  -0.064
6.355e+09  -0.4346  -0.764  0.00273  -0.01723  0.02799  -0.03547  -0.8625  0.2592
6.356e+09  -0.6522  -0.5699  -0.04485  0.04674  -0.0155  -0.01411  -0.7736  0.5821
6.358e+09  -0.8174  -0.361  -0.02062  -0.006974  0.01794  -0.004795  -0.5193  0.8145
6.359e+09  -0.9102  0.02861  0.01268  0.01936  -0.01531  -0.03687  -0.2536  0.9248
6.36e+09  -0.8355  0.2716  0.006258  0.007192  -0.008238  -0.01876  0.0773  0.9507
6.361e+09  -0.6807  0.5747  -0.0005335  -0.01754  0.02941  0.02841  0.406  0.8395
6.362e+09  -0.4636  0.7987  -0.0223  0.01975  -0.03666  0.01129  0.6689  0.6793
6.364e+09  -0.1362  0.8675  -0.009936  -0.0007647  0.02123  0.02536  0.8978  0.3704
6.365e+09  0.1672  0.841  0.01525  -0.01178  0.004146  0.0005332  0.9378  0.02832
6.366e+09  0.4828  0.7583  0.006427  -0.004245  -0.01929  -0.03728  0.9139  -0.2693
6.368e+09  0.6945  0.5651  -0.0212  -0.008243  0.03475  0.01906  0.7987  -0.5684
6.369e+09  0.8258  0.2669  0.007446  -0.009174  -0.001024  0.01806  0.538  -0.7543
6.37e+09  0.9089  -0.01601  0.03683  -0.005147  0.01671  0.03453  0.2301  -0.8929
6.371e+09  0.8174  -0.3419  -0.03121  -0.01051  0.009618  -0.006128  -0.05662  -0.8989
6.372e+09  0.6212  -0.6047  0.01761  0.007329  0.03027  -0.005699  -0.4024  -0.9118
6.374e+09  0.3526  -0.8109  -0.02032  -0.01122  0.003408  0.0007676  -0.6308  -0.667
6.375e+09  0.103  -0.855  -0.0268  -2.473e-06  0.05359  0.01687  -0.8611  -0.3855
6.376e+09  -0.2423  -0.8749  0.01688  0.01998  -0.02708  0.03465  -0.9376  -0.08751
6.378e+09  -0.4771  -0.7624  0.009108  0.01703  -0.00279  -0.007699  -0.9455  0.2387
6.379e+09  -0.7143  -0.5173  0.004982  0.02254  0.02839  -0.0168  -0.7794  0.5249
6.38e+09  -0.8702  -0.214  -0.001044  0.01418  0.03193  0.02788  -0.5659  0.7081
6.381e+09  -0.9011  0.1023  0.002693  -0.0266  -0.01984  -0.01236  -0.2363  0.928
6.382e+09  -0.8169  0.4009  -0.01481  -0.03437  -0.02713  -0.01746  0.03147  0.9447
6.384e+09  -0.6093  0.608  -0.03832  0.03857  -0.02843  -0.002227  0.3913  0.8727
6.385e+09  -0.3702  0.8652  -0.00375  -0.02228  0.04417  0.01055  0.6795  0.6517
6.386e+09  0.007236  0.9171  0.01175  -0.02703  0.005529  -0.04856  0.8708  0.4492
6.388e+09  0.2746  0.8653  -0.007494  0.0187  0.004068  0.008368  0.914  0.1127
6.389e+09  0.516  0.6588  0.002341  0.02411  -0.003997  -0.006755  0.9098  -0.2054
6.39e+09  0.7427  0.4966  -0.006965  0.0005213  0.01996  0.008202  0.784  -0.4999
6.391e+09  0.8338  0.1914  -0.02189  -0.0136  -0.01812  0.02084  0.6058  -0.6908
6.392e+09  0.9075  -0.1453  -0.005672  0.002048  0.03571  0.06137  0.3003  -0.8756
6.394e+09  0.6976  -0.4648  -0.003924  -0.02527  0.01253  -0.006709  -0.02036  -0.9418
6.395e+09  0.5888  -0.67  -0.002667  -0.03471  -0.01571  -0.007336  -0.3744  -0.8565
6.396e+09  0.3506  -0.7977  0.01637  0.02224  0.02959  -0.000401  -0.6494  -0.6949
6.398e+09  -0.017  -0.9205  -0.002322  -0.02935  -0.000436  0.02877  -0.836  -0.444
6.399e+09  -0.3077  -0.8463  0.03675  0.005923  0.02054  -0.008436  -0.9393  -0.1607
6.4e+09  -0.5749  -0.7156  -0.0009959  -0.0129  -0.04598  -0.03679  -0.9684  0.1793
6.401e+09  -0.7695  -0.4706  0.03828  0.02615  -0.04266  -0.03625  -0.8064  0.5224
6.402e+09  -0.8506  -0.1385  -0.002519  0.02292  0.0005008  -0.02865  -0.5787  0.74
6.404e+09  -0.8745  0.2179  0.003576  0.04849  0.0184  0.07458  -0.3348  0.8675
6.405e+09  -0.841  0.4882  0.02653  0.008847  0.01325  0.005518  0.0266  0.8749
6.406e+09  -0.5168  0.6962  0.01999  0.04585  -0.01494  -0.0323  0.3361  0.8295
6.408e+09  -0.3086  0.8139  0.03642  0.01051  0.0007156  -0.04575  0.593  0.7102
6.409e+09  0.05518  0.8445  0.001026  0.01734  0.01638  0.02551  0.7718  0.4082
6.41e+09  0.3278  0.829  0.02666  -0.04937  0.002917  -0.003244  0.8991  0.2089
6.411e+09  0.5593  0.6681  0.005502  0.01722  -0.01509  -3.67e-05  0.898  -0.1439
6.412e+09  0.8178  0.4595  0.001442  -0.03727  0.002787  -0.009938  0.8087  -0.453
6.414e+09  0.8628  0.1391  -0.0109  -0.0236  0.01764  0.03154  0.589  -0.6607
6.415e+09  0.8958  -0.2011  0.02944  0.0004835  0.02783  0.01133  0.3053  -0.7921
6.416e+09  0.7161  -0.4687  -0.0385  -0.01336  -0.01897  0.03603  -0.02082  -0.9047
6.418e+09  0.5292  -0.7271  -0.01075  -0.04169  0.01728  0.03727  -0.3043  -0.8149
6.419e+09  0.201  -0.8379  0.001503  0.007494  -0.03475  -0.05326  -0.5281  -0.7043
6.42e+09  -0.09422  -0.8354  0.005704  0.0175  -0.05042  0.001928  -0.7411  -0.4377
6.421e+09  -0.3774  -0.7866  0.01049  0.003605  -0.004366  -0.0414  -0.8692  -0.1875
6.422e+09  -0.5802  -0.6239  0.0262  -0.003908  0.06182  0.01592  -0.9109  0.1498
6.424e+09  -0.7815  -0.3545  -0.02124  0.006029  0.03846  -0.0218  -0.773  0.3787
6.425e+09  -0.8211  -0.03764  -0.01046  -0.00837  -0.001709  -0.04018  -0.5806  0.5909
6.426e+09  -0.8722  0.1988  0.01281  -0.00308  -0.005477  -0.001847  -0.3437  0.8173
6.428e+09  -0.7253  0.5152  -0.02461  0.01104  -0.02283  0.02777  -0.04497  0.909
6.429e+09  -0.5131  0.7587  -0.008763  0.01086  -0.02596  0.004288  0.2996  0.8206
6.43e+09  -0.2282  0.8467  -0.002381  -0.01641  -0.02107  0.0009573  0.4711  0.6881
6.431e+09  0.1045  0.9092  0.01956  0.03384  -0.00655  -0.01406  0.7331  0.4993
6.432e+09  0.4035  0.8119  0.01613  -0.00874  0.0194  0.01067  0.8785  0.2434
6.434e+09  0.6198  0.6321  -0.009105  0.002479  0.02399  0.02403  0.8653  -0.09272
6.435e+09  0.8182  0.3822  9.018e-05  0.01872  -0.01704  -0.007421  0.7609  -0.3785
6.436e+09  0.8263  0.03195  0.01313  0.02123  -0.09082  6.239e-05  0.6149  -0.6702
6.438e+09  0.7658  -0.2466  -0.009557  -0.01899  -0.03335  0.02787  0.3572  -0.8047
6.439e+09  0.708  -0.4813  0.01458  -0.06375  -0.05629  0.04147  0.00622  -0.8668
6.44e+09  0.4569  -0.6969  0.008463  -0.006098  0.01627  -0.01508  -0.2154  -0.8283
6.441e+09  0.2432  -0.8538  0.03875  -0.01398  0.004083  -0.03267  -0.4898  -0.7224
6.442e+09  -0.1037  -0.9108  -0.01701  0.01903  -0.004957  -0.002069  -0.7332  -0.4495
6.444e+09  -0.3748  -0.8077  -0.003566  -0.01653  0.02706  -0.02921  -0.7965  -0.2191
6.445e+09  -0.625  -0.5807  0.04606  0.01001  0.03456  -0.0655  -0.8235  0.06636
6.446e+09  -0.8239  -0.3534  -0.004196  -0.01694  0.006788  0.02  -0.7455  0.349
6.448e+09  -0.8518  -0.09754  0.01795  -0.03535  0.006029  0.04225  -0.6137  0.5682
6.449e+09  -0.8188  0.275  0.02262  0.01412  0.004676  -0.05039  -0.3521  0.7544
6.45e+09  -0.7266  0.5091  -0.02963  -0.04047  -0.0005441  0.02381  -0.06624  0.8467
6.451e+09  -0.4258  0.7529  -0.01464  -0.01823  0.01144  0.02413  0.2375  0.8302
6.452e+09  -0.183  0.8642  0.03639  0.007479  0.03271  0.02374  0.5083  0.6799
6.454e+09  0.08082  0.849  0.04293  0.0143  -0.0388  0.01468  0.6908  0.4476
6.455e+09  0.397  0.7565  -0.002087  0.02189  -0.03476  0.0258  0.8133  0.1987
6.456e+09  0.6265  0.6459  0.007418  -0.006814  -0.02456  -0.051  0.8731  -0.05199
6.458e+09  0.8408  0.3809  0.05148  -0.03357  -0.002366  0.02148  0.7367  -0.4015
6.459e+09  0.8892  -0.006357  0.009785  0.002917  -0.04508  0.006437  0.5777  -0.5885
6.46e+09  0.7903  -0.2169  0.002162  -0.02742  0.03127  0.003789  0.3249  -0.7472
6.461e+09  0.6403  -0.5724  0.01025  0.0179  0.04651  0.003428  0.1148  -0.7838
6.462e+09  0.4764  -0.6826  0.04013  0.03731  0.01565  -0.02246  -0.2236  -0.7455
6.464e+09  0.1714  -0.8263  -0.009593  0.008093  -0.00468  -0.04653  -0.4608  -0.662
6.465e+09  -0.1526  -0.8701  0.002137  -0.01918  -0.017  0.02754  -0.6058  -0.4372
6.466e+09  -0.4025  -0.7939  0.008569  -0.03752  0.006721  0.004935  -0.7335  -0.1863
6.468e+09  -0.6391  -0.6101  -0.00605  -0.01779  -0.0133  -0.006731  -0.8107  0.09843
6.469e+09  -0.7984  -0.3104  -0.02885  0.00568  -0.02672  0.01537  -0.7017  0.3511
6.47e+09  -0.8626  -0.04013  -0.071  0.005092  0.004423  0.02884  -0.5406  0.5469
6.471e+09  -0.8352  0.2711  -0.00795  0.02428  -0.007085  0.03584  -0.3279  0.7796
6.472e+09  -0.7228  0.521  0.03529  -0.00379  0.02745  0.006952  -0.08219  0.7801
6.474e+09  -0.4651  0.7305  -0.01606  -0.01304  -0.02383  0.05398  0.2233  0.737
6.475e+09  -0.1737  0.9061  0.01655  -0.00835  0.04185  -0.01276  0.4594  0.6598
6.476e+09  0.1759  0.8737  0.01463  0.03415  -0.01458  0.02085  0.6387  0.4273
6.478e+09  0.3995  0.7424  -0.0248  -0.009255  -0.04664  0.02574  0.79  0.1598
6.479e+09  0.6767  0.565  0.02191  0.03165  -0.07406  -0.002386  0.78  -0.07429
6.48e+09  0.8187  0.316  -0.01441  0.03253  0.01924  -0.01262  0.6463  -0.3047
6.481e+09  0.9096  0.04515  0.05972  -0.000974  -0.01561  0.005792  0.593  -0.576
6.482e+09  0.8156  -0.2917  -0.0005732  0.01245  -0.01974  0.03311  0.338  -0.77
6.484e+09  0.7047  -0.5714  -0.01492  -0.02725  0.03258  -0.03217  0.06602  -0.8197
6.485e+09  0.4584  -0.7763  -0.009146  -0.003971  -0.009091  -0.006528  -0.1975  -0.7256
6.486e+09  0.1493  -0.8748  -0.006405  -0.02758  0.03219  0.0008407  -0.4464  -0.6342
6.488e+09  -0.1541  -0.9206  0.00242  -0.005608  -0.009566  0.006888  -0.709  -0.3955
6.489e+09  -0.4667  -0.8229  0.0203  -0.01628  0.02916  0.03078  -0.7638  -0.1888
6.49e+09  -0.7014  -0.5592  -0.004117  -0.01721  -0.00688  0.04964  -0.7162  0.09678
6.491e+09  -0.8562  -0.3306  -0.0004282  0.03366  -0.01168  0.009405  -0.6499  0.3562
6.492e+09  -0.8601  -0.002678  0.02185  0.01882  -0.05093  -0.0128  -0.5253  0.5544
6.494e+09  -0.868  0.3851  0.02714  0.01829  0.0191  -0.07522  -0.2982  0.6965
6.495e+09  -0.7073  0.5575  0.0206  -0.02441  -0.02428  -0.05356  -0.03134  0.7561
6.496e+09  -0.4553  0.7455  0.01317  -0.01814  -0.03022  -0.004301  0.1964  0.7508
6.498e+09  -0.1585  0.8828  5.737e-05  -0.0216  0.005886  0.0394  0.4666  0.5964
6.499e+09  0.1722  0.8827  -0.03392  -0.0009941  0.01992  0.04993  0.6422  0.4177
6.5e+09  0.4529  0.8045  0.02392  0.0337  -0.02841  -0.03859  0.7704  0.1489
6.501e+09  0.6886  0.5467  0.04141  0.003899  0.05193  -0.002089  0.7622  -0.09973
6.502e+09  0.8558  0.3014  -0.02792  0.01019  -0.01784  0.01704  0.6682  -0.3879
6.504e+09  0.9077  0.004807  0.01055  0.01396  -0.03463  0.007789  0.5166  -0.6054
6.505e+09  0.826  -0.3735  0.00898  0.01985  -0.03294  -0.002979  0.3163  -0.7265
6.506e+09  0.6921  -0.5943  -0.001167  -0.01459  -0.01883  -0.005724  0.02693  -0.7347
6.508e+09  0.4233  -0.8017  0.01086  -0.01412  -0.0147  -0.01115  -0.2722  -0.7558
6.509e+09  0.08694  -0.8951  0.009166  -0.0122  -0.006702  0.02699  -0.4836  -0.614
6.51e+09  -0.1912  -0.9063  0.01876  0.02107  0.03333  0.002484  -0.6585  -0.4272
6.511e+09  -0.4893  -0.7698  -0.003696  0.006393  0.03747  -0.04289  -0.7457  -0.1238
6.512e+09  -0.7439  -0.5483  -0.02754  0.01658  -0.01905  0.009882  -0.7681  0.1116
6.514e+09  -0.8599  -0.267  -0.02149  0.005705  -0.007976  -0.01512  -0.6254  0.4052
6.515e+09  -0.9804  0.02118  -0.03246  0.02107  -0.0567  0.0201  -0.4904  0.6193
6.516e+09  -0.8644  0.3273  -0.03674  -0.00482  0.01068  -0.003383  -0.2632  0.6883
6.518e+09  -0.6773  0.6167  0.02507  -0.003328  -0.03846  0.01726  0.03429  0.7454
6.519e+09  -0.4049  0.8803  0.005338  -0.002179  -0.03225  -0.03064  0.2828  0.715
6.52e+09  -0.1369  0.9497  0.01977  -0.05399  -0.01193  -0.0532  0.4974  0.5441
6.521e+09  0.2483  0.9098  0.04371  -0.004077  -0.03206  -0.03423  0.6638  0.3406
6.522e+09  0.5384  0.7878  0.05217  0.002804  -0.02204  0.0409  0.697  0.09094
6.524e+09  0.7532  0.5501  -0.02121  0.0181  0.02481  0.04388  0.7079  -0.1054
6.525e+09  0.942  0.3248  0.01284  -0.03237  -0.006049  -0.03897  0.5986  -0.4045
6.526e+09  0.979  -0.08062  -0.02958  0.04778  -0.03016  -0.01792  0.4392  -0.5949
6.528e+09  0.8527  -0.431  -0.004141  0.01002  -0.008101  0.02419  0.1816  -0.6628
6.529e+09  0.6582  -0.6792  -0.004461  -0.004087  0.001685  -0.04902  -0.03658  -0.6981
6.53e+09  0.3909  -0.891  -0.01701  0.02875  -0.01301  -0.0332  -0.2992  -0.6181
6.531e+09  0.03349  -0.9474  -0.008987  0.03389  -0.02049  0.0017  -0.464  -0.4715
6.532e+09  -0.3275  -0.9647  0.0152  -0.00284  0.02043  0.01236  -0.6074  -0.298
6.534e+09  -0.5643  -0.7797  -0.01135  -0.01437  -0.01349  -0.02014  -0.6226  -0.08549
6.535e+09  -0.8577  -0.5354  -0.001275  0.005449  0.01698  0.03653  -0.6168  0.1141
6.536e+09  -0.9737  -0.2131  0.0204  0.002591  -0.04712  -0.03489  -0.5591  0.3384
6.538e+09  -0.9413  0.1353  -0.03192  0.004011  -0.01708  0.02926  -0.483  0.5014
6.539e+09  -0.8303  0.5165  -0.03091  0.007783  -0.0125  0.01818  -0.2807  0.6158
6.54e+09  -0.6222  0.7484  -0.02926  -0.01077  -0.01795  -0.01077  -0.03708  0.6904
6.541e+09  -0.3347  0.8902  -0.01813  0.02653  -0.06436  -0.01081  0.2045  0.6768
6.542e+09  0.008675  0.9923  -0.008259  0.0282  0.01487  -0.0222  0.3874  0.58
6.544e+09  0.3645  0.8833  0.01989  -0.01855  0.01887  0.04274  0.5976  0.3964
6.545e+09  0.6345  0.7243  -0.002152  -0.0006456  0.02786  0.04528  0.7029  0.1615
6.546e+09  0.7922  0.498  0.01556  -0.0109  0.04652  -0.04377  0.7397  -0.09149
6.548e+09  0.9672  0.1209  -0.01569  -0.001866  -0.001926  0.02362  0.6576  -0.3411
6.549e+09  0.944  -0.187  -0.00271  -0.03069  -0.04005  -0.06809  0.4952  -0.5458
6.55e+09  0.7889  -0.5095  -0.04307  -0.003725  -0.02088  -0.02436  0.3063  -0.6907
