# Hz S RI R 50
6.25e+09  -0.4232  0.7524  -0.02085  0.0428  -0.03686  -0.03142  0.1451  0.5092
6.251e+09  -0.1351  0.8605  -0.02717  -0.02235  -0.033  -0.03397  0.3335  0.4109
6.252e+09  0.1828  0.8427  -0.02223  0.01177  -0.013  -0.04573  0.5086  0.2336
6.254e+09  0.4434  0.7579  0.01826  0.0221  0.01666  -0.03038  0.6086  -0.0002341
6.255e+09  0.6524  0.5315  -0.006787  0.01304  0.06769  -0.005164  0.5813  -0.2093
6.256e+09  0.7762  0.293  6.165e-06  0.0006385  0.05283  0.007136  0.4726  -0.4546
6.258e+09  0.8575  -0.03687  -0.006354  -0.01509  0.007917  -0.009768  0.2877  -0.6202
6.259e+09  0.7686  -0.3523  -0.002056  -0.03456  0.02356  -0.01686  0.06736  -0.6868
6.26e+09  0.5636  -0.5588  0.0005525  0.05623  -0.01773  0.0818  -0.1986  -0.6603
6.261e+09  0.3291  -0.8035  0.004987  -0.01614  0.0114  -0.03838  -0.4268  -0.5308
6.262e+09  0.1029  -0.8527  0.01014  -0.006462  0.002424  -0.04491  -0.627  -0.3886
6.264e+09  -0.2076  -0.8296  0.02619  0.02654  0.02109  0.01866  -0.712  -0.1133
6.265e+09  -0.4317  -0.7606  0.0202  0.0355  -0.005069  -0.01129  -0.6673  0.1624
6.266e+09  -0.7169  -0.4962  -0.006185  -0.02463  -0.00795  0.02403  -0.5981  0.4139
6.268e+09  -0.7985  -0.2018  -0.02714  -0.02487  -0.009916  0.005321  -0.4222  0.5593
6.269e+09  -0.7798  0.06537  -0.01819  0.01093  -0.03258  0.03274  -0.1918  0.7346
6.27e+09  -0.7578  0.3155  -0.002685  -0.01392  0.01344  -0.01005  0.08547  0.7128
6.271e+09  -0.6216  0.5931  0.006196  0.0009992  0.02288  0.003316  0.3384  0.6719
6.272e+09  -0.352  0.7664  -0.02009  0.01679  -0.009435  -0.01392  0.5168  0.5132
6.274e+09  -0.1424  0.7872  -0.0007755  0.01046  -0.009996  -0.0276  0.685  0.3299
6.275e+09  0.1785  0.7969  0.01602  0.01119  -0.03503  -0.01935  0.7317  0.04317
6.276e+09  0.4782  0.698  0.01809  -0.02488  -0.006784  0.0109  0.741  -0.2263
6.278e+09  0.6787  0.5158  -0.01407  -0.009172  -0.02386  0.03816  0.6184  -0.475
6.279e+09  0.8128  0.2108  -0.02649  -0.007202  -0.01681  0.02668  0.4396  -0.6618
6.28e+09  0.8358  -0.1142  0.0191  0.0113  0.0005499  -0.02327  0.1934  -0.7679
6.281e+09  0.7582  -0.4242  0.001666  0.0224  0.005373  -0.02251  -0.1011  -0.7824
6.282e+09  0.5354  -0.5216  -0.02302  0.008811  -0.05597  0.01701  -0.3641  -0.6887
6.284e+09  0.3533  -0.7559  0.006278  0.002559  -0.03397  0.04759  -0.5818  -0.5008
6.285e+09  0.0609  -0.847  0.008964  0.0239  -0.009028  -0.02516  -0.748  -0.2726
6.286e+09  -0.2259  -0.7668  -0.0006557  -0.02349  -0.04355  0.01937  -0.7664  -0.03531
6.288e+09  -0.5541  -0.6244  0.001521  -0.02647  0.03068  0.02215  -0.7382  0.2217
6.289e+09  -0.6807  -0.4259  0.008751  -0.0005231  0.00468  0.03545  -0.5928  0.4965
6.29e+09  -0.7681  -0.1869  -0.0139  0.03607  -0.00235  -0.01424  -0.4244  0.6723
6.291e+09  -0.7716  0.06722  -0.01941  -0.03206  -0.007751  -0.005521  -0.1586  0.8053
6.292e+09  -0.6904  0.3937  0.008942  -0.000677  0.01283  0.02236  0.1165  0.8093
6.294e+09  -0.5819  0.5326  0.004065  -0.01323  -0.02829  -0.04707  0.4313  0.7262
6.295e+09  -0.3532  0.7564  -0.01775  0.004672  0.01251  0.03871  0.6009  0.5485
6.296e+09  -0.03603  0.8989  -0.009955  0.007906  -0.01107  -0.01175  0.7787  0.2684
6.298e+09  0.2117  0.7157  0.02387  0.023  -0.03949  0.001533  0.8381  0.009928
6.299e+09  0.5329  0.698  0.003061  0.003251  0.04812  0.03277  0.7864  -0.3111
6.3e+09  0.7442  0.4149  -0.007931  0.02331  0.01044  -0.005824  0.6253  -0.5151
6.301e+09  0.8318  0.172  -0.01493  -0.000879  -0.01453  -0.009805  0.4419  -0.7199
6.302e+09  0.8116  -0.1014  -0.01893  -0.01586  0.0003235  -0.0366  0.164  -0.8451
6.304e+09  0.7202  -0.4144  -0.01967  0.01745  -0.02427  0.03677  -0.1792  -0.8397
6.305e+09  0.5807  -0.6493  0.03229  0.05443  0.01453  0.05144  -0.3932  -0.723
6.306e+09  0.338  -0.796  -0.01176  0.03026  0.006009  0.002624  -0.6377  -0.5242
6.308e+09  -0.009618  -0.8273  -0.01413  0.01964  -0.03865  0.0215  -0.8025  -0.2966
6.309e+09  -0.2775  -0.7936  -0.009755  -0.04301  0.04418  0.01891  -0.8488  -0.02094
6.31e+09  -0.558  -0.6671  0.02938  0.002961  0.05308  0.007617  -0.7864  0.274
6.311e+09  -0.7452  -0.4609  0.008959  -0.005529  0.05247  -0.03597  -0.6291  0.5466
6.312e+09  -0.8351  -0.1318  0.02529  -0.03279  0.02599  0.03561  -0.4528  0.7736
6.314e+09  -0.7885  0.1599  -0.01208  -0.003422  0.03076  -0.01975  -0.153  0.8575
6.315e+09  -0.7693  0.4472  -0.02054  0.01702  0.04568  -0.01096  0.1383  0.8622
6.316e+09  -0.533  0.6733  0.0274  -0.02981  -0.08892  0.02288  0.414  0.7783
6.318e+09  -0.2568  0.7956  6.113e-05  0.003055  -0.04492  -0.01012  0.6513  0.5909
6.319e+09  0.01265  0.88  0.0225  -0.007481  -0.02965  0.03419  0.8362  0.3089
6.32e+09  0.3622  0.7617  -0.007994  0.01415  0.02431  -0.01693  0.8669  0.02613
6.321e+09  0.5928  0.6807  -0.02163  0.01754  0.05163  -0.008079  0.8559  -0.2977
6.322e+09  0.7485  0.4184  -0.006679  0.003559  0.0003523  -0.01951  0.6863  -0.586
6.324e+09  0.8359  0.09157  0.02354  -0.04374  0.02673  -0.04553  0.5074  -0.7585
6.325e+09  0.861  -0.2325  0.01797  0.01922  0.02461  0.01631  0.1863  -0.9106
6.326e+09  0.7172  -0.5074  -0.02344  -0.004059  -0.001903  -0.02799  -0.1054  -0.8883
6.328e+09  0.4861  -0.6427  0.00266  -0.02045  0.01221  0.02177  -0.4212  -0.7927
6.329e+09  0.1753  -0.9123  -0.01147  -0.002128  0.0275  0.01144  -0.6865  -0.6272
6.33e+09  -0.09238  -0.8549  0.003314  0.01465  -0.0153  -0.005999  -0.8304  -0.2981
6.331e+09  -0.3821  -0.7486  0.01569  0.01848  -0.02385  -0.008854  -0.891  -0.01666
6.332e+09  -0.6657  -0.6433  -0.01404  0.01758  -0.0008836  0.0198  -0.8619  0.2772
6.334e+09  -0.7813  -0.3345  -0.01157  0.03251  -0.02549  -0.04168  -0.7031  0.5637
6.335e+09  -0.9034  -0.03936  0.01078  0.01923  -0.01829  0.01636  -0.4693  0.7989
6.336e+09  -0.8452  0.2974  0.01032  0.0108  -0.03613  -0.02491  -0.1501  0.9043
6.338e+09  -0.6631  0.4768  0.002066  -0.0008008  -0.02014  -0.03173  0.1101  0.9127
6.339e+09  -0.4709  0.7442  0.00882  0.008093  0.01473  -0.01321  0.4236  0.8058
6.34e+09  -0.1811  0.856  -0.02967  0.03794  -0.02142  -0.02616  0.696  0.6684
6.341e+09  0.1614  0.8143  -0.003807  0.002901  0.01445  0.0405  0.8773  0.3494
6.342e+09  0.4455  0.7968  0.01277  0.03421  -0.004613  0.01244  0.9643  0.0519
6.344e+09  0.6537  0.5928  0.01537  0.01619  0.01323  0.03155  0.9017  -0.2742
6.345e+09  0.8507  0.2727  -0.006807  0.002088  -0.04189  0.01677  0.7826  -0.5801
6.346e+09  0.8349  -0.04925  -0.007056  0.01319  -0.006387  0.016  0.5217  -0.7508
6.348e+09  0.7875  -0.2725  0.03982  -0.004086  -0.01748  0.01694  0.2216  -0.8775
6.349e+09  0.6793  -0.592  -0.0199  0.02531  -0.02973  0.006046  -0.1419  -0.9544
6.35e+09  0.4777  -0.7881  -0.03656  -0.01423  -0.03593  0.04642  -0.4409  -0.8285
6.351e+09  0.1046  -0.9023  0.02656  -0.007695  -0.01733  -0.02059  -0.6772  -0.6168
6.352e+09  -0.2271  -0.8648  0.02036  0.02424  0.04031  -0.01456  -0.8266  -0.3706
6.354e+09  -0.5205  -0.7347  0.02517  0.02257  0.01349  -0.006541  -0.9764  -0.04696
6.355e+09  -0.7657  -0.5366  -0.006891  -0.003104  0.02362  0.02987  -0.9179  0.278
6.356e+09  -0.9131  -0.2871  0.007459  0.01435  0.01058  0.004172  -0.7688  0.5175
6.358e+09  -0.8806  0.0821  0.0326  0.003096  -0.006244  -0.0227  -0.5246  0.8147
6.359e+09  -0.8058  0.346  -0.0007834  -0.02663  -0.01585  -0.01565  -0.2881  0.9512
6.36e+09  -0.634  0.6481  0.02921  0.03469  0.006605  0.05688  0.1138  0.9236
6.361e+09  -0.3627  0.7814  -0.01174  0.01256  0.03738  -0.01311  0.3925  0.8747
6.362e+09  -0.06343  0.869  0.02387  -0.006052  -0.08056  -0.02149  0.6687  0.6613
6.364e+09  0.2724  0.8405  -0.009985  -0.02405  0.01504  0.03761  0.8921  0.4068
6.365e+09  0.4987  0.7249  -0.003588  -0.003957  -0.01534  -0.008349  0.9347  0.08612
6.366e+09  0.7466  0.5094  0.01564  -0.01288  -0.02609  0.01197  0.9188  -0.2122
6.368e+09  0.8735  0.2076  -0.01824  -0.0202  -0.01166  -0.006684  0.7999  -0.5806
6.369e+09  0.8387  -0.1061  -0.01965  -0.02422  -0.006159  -0.01835  0.5638  -0.7568
6.37e+09  0.7677  -0.4096  -0.02363  0.01442  -0.04471  0.03293  0.2471  -0.919
6.371e+09  0.6039  -0.6953  -0.004733  -0.003093  -0.02491  -0.0132  -0.07716  -0.948
6.372e+09  0.3611  -0.8141  -0.02504  0.03424  -0.03477  0.03419  -0.3967  -0.8863
6.374e+09  0.007751  -0.9117  0.02693  -0.005597  0.03443  0.008942  -0.6961  -0.6972
6.375e+09  -0.2938  -0.8308  0.01983  -0.008392  -0.0196  0.001885  -0.8038  -0.4002
6.376e+09  -0.588  -0.684  0.004885  -0.01017  0.008238  0.01971  -0.9537  -0.1149
6.378e+09  -0.7593  -0.4563  0.01743  0.04703  -0.02288  -0.01154  -0.9152  0.1865
6.379e+09  -0.9186  -0.174  0.02441  -0.0253  -0.02224  -2.86e-05  -0.7866  0.5363
6.38e+09  -0.886  0.1694  0.06234  -0.04291  -0.05389  -0.002619  -0.517  0.7771
6.381e+09  -0.7469  0.4813  -0.005593  0.006573  -0.01137  -0.01011  -0.3039  0.917
6.382e+09  -0.507  0.7174  -0.02248  -0.002686  -0.006389  -0.0187  0.05261  0.91
6.384e+09  -0.2911  0.8788  0.01533  0.02059  0.02012  0.03665  0.3689  0.8683
6.385e+09  0.05251  0.8667  0.01302  -0.0006125  -0.004628  -0.01371  0.6376  0.6987
6.386e+09  0.3439  0.8759  0.01569  -0.01088  -0.02262  -0.02046  0.8907  0.4493
6.388e+09  0.5661  0.64  0.02391  0.01762  0.06144  -0.02013  0.9314  0.1111
6.389e+09  0.7705  0.4328  -0.001806  -0.005297  0.01023  -0.02729  0.9245  -0.2006
6.39e+09  0.8659  0.1382  0.04388  -0.01683  -0.01193  -0.01917  0.7735  -0.5212
6.391e+09  0.8564  -0.1786  -0.003163  0.02563  -0.01673  -0.02497  0.6116  -0.7369
6.392e+09  0.7376  -0.5226  -0.00477  -0.02501  0.0189  0.02378  0.2761  -0.8816
6.394e+09  0.5515  -0.6987  0.04587  0.03631  0.007486  -0.03835  -0.01173  -0.9239
6.395e+09  0.249  -0.8099  -0.05905  -0.01955  -0.0251  -0.003823  -0.3595  -0.806
6.396e+09  -0.09831  -0.8793  0.01102  0.02984  -0.01128  0.03184  -0.5656  -0.6863
6.398e+09  -0.3536  -0.8008  -0.01878  -0.001293  -0.02975  -0.04181  -0.8001  -0.3995
6.399e+09  -0.5935  -0.6558  0.002329  0.01168  -0.02891  0.01159  -0.9384  -0.134
6.4e+09  -0.7493  -0.381  0.02508  -0.00201  -0.003369  -0.03185  -0.8787  0.1829
6.401e+09  -0.8782  -0.1255  -0.005418  0.03286  -0.04591  -0.002414  -0.8054  0.4913
6.402e+09  -0.8608  0.2089  0.01266  -0.001284  -0.02953  -0.04099  -0.5408  0.7072
6.404e+09  -0.7082  0.4388  -0.03882  0.03071  -0.02858  0.01437  -0.3126  0.8451
6.405e+09  -0.4848  0.6991  0.0577  -0.005618  0.009091  -0.01687  -0.006788  0.9016
6.406e+09  -0.2138  0.8007  0.006166  -0.02851  -0.03162  0.02659  0.3231  0.8859
6.408e+09  0.05524  0.8607  -0.002956  0.02869  -0.02889  0.002833  0.5872  0.6781
6.409e+09  0.35  0.8028  0.001987  -0.02981  0.01359  -0.003509  0.8055  0.4949
6.41e+09  0.6434  0.6138  -0.002115  -0.06912  0.03278  0.03493  0.9244  0.1731
6.411e+09  0.8315  0.3607  0.003649  -0.04533  0.05964  0.05631  0.8753  -0.1071
6.412e+09  0.9217  0.03569  0.03821  -0.03126  0.007785  0.0009175  0.7855  -0.4701
6.414e+09  0.8366  -0.2721  0.01238  -0.01631  -0.02256  0.0247  0.5917  -0.687
6.415e+09  0.7247  -0.5447  0.03953  -0.008945  -0.01595  0.01801  0.3692  -0.8352
6.416e+09  0.5036  -0.7061  -0.03724  0.0492  0.04114  0.04191  0.04967  -0.8807
6.418e+09  0.2226  -0.8617  -0.02369  0.0201  0.04251  0.01935  -0.2492  -0.8002
6.419e+09  -0.09294  -0.8854  -0.009338  -0.0431  -0.02611  0.02305  -0.5636  -0.6967
6.42e+09  -0.4059  -0.8092  -0.02252  0.0009395  -0.02287  0.03135  -0.7638  -0.5042
6.421e+09  -0.6748  -0.5932  0.01771  -0.03418  -0.007199  0.003655  -0.8344  -0.216
6.422e+09  -0.7523  -0.3522  -0.01687  -0.009403  0.01424  -0.01373  -0.8898  0.09705
6.424e+09  -0.8404  -0.03689  -0.003383  0.03903  0.02362  0.02401  -0.7519  0.3988
6.425e+09  -0.8769  0.2688  -0.02199  0.000253  -0.0001512  0.01502  -0.5884  0.6523
6.426e+09  -0.681  0.5084  -0.02569  0.02033  0.04896  -0.03264  -0.3241  0.842
6.428e+09  -0.476  0.7273  -0.01945  -0.006214  0.02109  -0.001259  -0.02896  0.8559
6.429e+09  -0.2043  0.8723  -0.001143  0.02769  -0.006595  -0.001879  0.2695  0.8196
6.43e+09  0.133  0.923  0.04385  0.005801  -0.04021  0.02883  0.5117  0.7237
6.431e+09  0.4753  0.7629  0.01735  0.008164  -0.01815  -0.02321  0.7381  0.4677
6.432e+09  0.6305  0.5836  0.09539  -0.02908  -0.01024  0.03583  0.8246  0.2146
6.434e+09  0.8237  0.3348  -0.02479  -0.01506  0.01433  0.01934  0.872  -0.07569
6.435e+09  0.8876  -0.01663  -0.002666  -0.03177  -0.02454  -0.0207  0.7669  -0.4295
6.436e+09  0.8469  -0.2329  -0.01201  -0.001063  -0.001261  -0.01104  0.5969  -0.631
6.438e+09  0.6959  -0.5485  0.008855  -0.01238  0.02648  -0.01525  0.3486  -0.8226
6.439e+09  0.4718  -0.8004  -0.02026  0.03645  0.01169  -0.0261  0.07703  -0.8502
6.44e+09  0.1885  -0.8508  -0.04435  0.006277  0.03001  -0.05209  -0.2602  -0.7994
6.441e+09  -0.1321  -0.8825  0.007253  -0.03108  0.004053  -0.004328  -0.5104  -0.6682
6.442e+09  -0.4071  -0.8039  0.01502  -0.04817  -0.02167  0.001567  -0.7218  -0.5015
6.444e+09  -0.6196  -0.5956  -0.01064  0.02706  -0.04066  -0.04565  -0.8002  -0.2202
6.445e+09  -0.7925  -0.3227  -0.01177  -0.02924  0.001179  -0.008338  -0.8388  0.07007
6.446e+09  -0.9001  -0.04621  0.02685  0.03083  -0.004189  -0.009424  -0.781  0.4093
6.448e+09  -0.8352  0.2587  0.004502  0.008026  -0.01531  -0.07548  -0.5993  0.5864
6.449e+09  -0.6944  0.5644  0.01658  0.001517  -0.01241  0.007978  -0.3416  0.7812
6.45e+09  -0.481  0.7857  0.01327  -0.02557  0.006034  -0.04775  -0.08337  0.8217
6.451e+09  -0.1675  0.8523  -0.05386  -0.01807  0.02882  -0.02399  0.2262  0.7895
6.452e+09  0.09167  0.8348  0.04394  0.01221  0.018  -0.05893  0.4794  0.6638
6.454e+09  0.3706  0.7667  -3.856e-05  -0.0003557  -0.04001  -0.0121  0.6691  0.403
6.455e+09  0.6729  0.6325  -0.01417  0.01505  0.01561  0.01161  0.8035  0.2604
6.456e+09  0.8174  0.3331  0.008164  0.01134  -0.02915  0.00906  0.836  -0.1068
6.458e+09  0.9117  -0.0055  -0.01254  0.004649  0.001024  -0.008267  0.7327  -0.3393
6.459e+09  0.8637  -0.3065  0.01916  0.003189  -0.03352  -0.05061  0.5918  -0.6083
6.46e+09  0.69  -0.5369  -0.04631  0.03188  -0.06032  -0.05131  0.3553  -0.7249
6.461e+09  0.4576  -0.782  0.00589  -0.03043  0.01489  -0.0335  0.06788  -0.8014
6.462e+09  0.1599  -0.8251  0.01822  0.01784  0.0008838  0.03654  -0.1908  -0.8009
6.464e+09  -0.07975  -0.9051  -0.02426  -0.01435  -0.008743  0.03334  -0.456  -0.6344
6.465e+09  -0.4381  -0.8027  0.006897  0.00689  -0.01182  0.05625  -0.6935  -0.4254
6.466e+09  -0.6743  -0.5776  0.02454  0.05661  0.07071  0.00894  -0.7817  -0.1876
6.468e+09  -0.8597  -0.2773  0.003155  -0.0178  -0.02435  0.008508  -0.7669  0.09651
6.469e+09  -0.9328  -0.05946  0.01389  0.005869  -0.01642  -0.00414  -0.7319  0.3455
6.47e+09  -0.8425  0.3058  -0.01018  0.05743  -0.04448  -0.0248  -0.5417  0.5684
6.471e+09  -0.6818  0.604  -0.03792  -0.05232  0.009438  -0.04243  -0.3304  0.7055
6.472e+09  -0.4534  0.7563  -0.02557  0.03051  0.03252  0.00249  -0.04152  0.7799
6.474e+09  -0.1632  0.9023  -0.03364  -0.01986  -0.02051  -0.02217  0.2047  0.7271
6.475e+09  0.1299  0.9287  -0.01603  -0.001176  -0.01812  0.01113  0.4723  0.6604
6.476e+09  0.4511  0.8085  0.001333  -0.01173  0.02881  -0.008852  0.6575  0.4647
6.478e+09  0.6745  0.5782  -0.01097  0.004933  -0.04542  -0.02645  0.75  0.2495
6.479e+09  0.8925  0.3194  -0.01119  -0.02425  0.008007  -0.02861  0.8136  -0.09005
6.48e+09  0.8723  -0.02089  -0.02598  0.02075  0.0399  0.05204  0.7361  -0.3258
6.481e+09  0.857  -0.3344  -0.04977  0.0006022  -0.02038  0.0007983  0.5351  -0.5503
6.482e+09  0.7156  -0.6313  0.01135  -0.004318  -0.01564  0.07755  0.36  -0.7218
6.484e+09  0.4369  -0.7899  0.001437  -0.04723  -0.009682  -0.009258  0.04702  -0.8015
6.485e+09  0.1038  -0.8965  0.01469  -0.01625  0.06415  -0.0169  -0.1916  -0.7524
6.486e+09  -0.1824  -0.8547  0.02493  -0.01243  -0.02639  0.03253  -0.486  -0.6193
6.488e+09  -0.471  -0.7739  -0.02348  -0.0317  0.0195  0.03526  -0.6126  -0.3905
6.489e+09  -0.7134  -0.5337  -0.04304  0.01885  0.01299  0.01776  -0.7038  -0.176
6.49e+09  -0.8441  -0.3408  -0.005099  -0.006183  0.012  -0.007446  -0.7737  0.09214
6.491e+09  -0.9352  0.0213  0.03235  -0.0007736  0.008996  -0.02924  -0.6649  0.3414
6.492e+09  -0.8738  0.3305  0.01845  0.02202  0.04594  -0.02869  -0.5324  0.5784
6.494e+09  -0.6892  0.6493  0.01424  -0.02174  -0.03095  0.01976  -0.3038  0.7006
6.495e+09  -0.4023  0.8121  0.0169  0.01303  0.0003248  -0.04064  -0.04619  0.8027
6.496e+09  -0.07287  0.9661  -0.01398  -0.05973  0.04019  -0.02439  0.1906  0.7336
6.498e+09  0.2161  0.9053  -0.00419  -0.007479  0.02567  -0.01602  0.4606  0.6209
6.499e+09  0.4945  0.8193  -0.02381  0.02056  -0.006162  -0.0272  0.6304  0.4377
6.5e+09  0.7633  0.5253  0.02631  0.001843  0.00218  -0.03055  0.7172  0.1837
6.501e+09  0.8546  0.2341  -0.02903  -0.003305  -0.001556  -0.01255  0.713  -0.1017
6.502e+09  0.9334  -0.05376  -0.02799  -0.01597  -0.03052  -0.005889  0.6519  -0.361
6.504e+09  0.8577  -0.3657  -0.002371  0.04759  0.002898  0.05077  0.5206  -0.6042
6.505e+09  0.6811  -0.68  0.007991  0.001127  -0.03185  -0.01898  0.2217  -0.6809
6.506e+09  0.3733  -0.8378  0.0006558  0.006429  0.02763  0.005262  0.004875  -0.7956
6.508e+09  0.1211  -0.9204  -0.01484  -0.01012  0.01995  0.04515  -0.2211  -0.7167
6.509e+09  -0.2426  -0.9131  0.02373  0.01143  0.006245  -0.01959  -0.488  -0.6337
6.51e+09  -0.5336  -0.7357  0.0321  -0.03198  -0.01807  0.03061  -0.6793  -0.4039
6.511e+09  -0.7846  -0.5615  -0.008262  -0.05301  -0.05394  -0.02106  -0.726  -0.1294
6.512e+09  -0.9436  -0.1988  -0.02359  0.0044  0.06616  -0.05647  -0.7286  0.1247
6.514e+09  -0.9419  0.09691  0.05579  0.004061  -0.001438  0.05231  -0.6384  0.403
6.515e+09  -0.8711  0.4178  -0.02836  -0.01045  -0.04065  0.04479  -0.4932  0.5847
6.516e+09  -0.6829  0.7087  -0.003715  0.02272  -0.03287  -0.02069  -0.2424  0.7151
6.518e+09  -0.363  0.9196  -0.005203  -0.01394  0.01563  -0.07938  -0.01744  0.7523
6.519e+09  -0.04047  0.9424  -0.01319  -0.02177  0.02109  0.06687  0.2785  0.6865
6.52e+09  0.2873  0.871  0.02283  -0.0241  0.03477  0.06593  0.4672  0.5725
6.521e+09  0.5981  0.7742  0.01088  -0.0238  0.02118  0.03153  0.6291  0.3585
6.522e+09  0.8666  0.569  -0.0166  -0.003475  0.009054  -0.01974  0.7448  0.08363
6.524e+09  0.9628  0.1993  0.01783  -0.01395  -0.01836  0.05227  0.7442  -0.1778
6.525e+09  0.9409  -0.1259  -0.03174  -0.02491  -0.03573  0.0685  0.5922  -0.3987
6.526e+09  0.8469  -0.4503  -0.0199  -0.02975  0.02443  0.006106  0.3934  -0.5756
6.528e+09  0.6189  -0.7512  0.009104  -0.02385  0.01954  0.01007  0.236  -0.6855
6.529e+09  0.364  -0.9183  -0.02289  0.02137  -0.00854  -0.02074  -0.04995  -0.6765
6.53e+09  0.03415  -0.9933  -0.002691  0.009153  -0.02451  -0.02158  -0.2576  -0.6286
6.531e+09  -0.3158  -0.9187  -0.008783  0.005056  -0.01698  -0.004333  -0.5101  -0.5259
6.532e+09  -0.6531  -0.7326  0.005916  0.007536  -0.02958  0.006788  -0.6039  -0.2766
6.534e+09  -0.8676  -0.4849  -0.009915  0.0134  0.01154  0.02436  -0.6532  -0.09461
6.535e+09  -0.968  -0.1343  -0.001035  -0.03125  -0.001748  0.02246  -0.6378  0.1131
6.536e+09  -0.9508  0.2214  0.006727  0.01797  0.07815  0.006198  -0.5395  0.3057
6.538e+09  -0.8516  0.5202  0.0405  -0.008241  0.02875  0.0387  -0.4319  0.4697
6.539e+09  -0.5751  0.7968  0.007517  -0.01064  -0.02763  0.02572  -0.2622  0.5988
6.54e+09  -0.2731  0.8567  0.01666  -0.008628  -0.02929  0.02362  -0.0429  0.6795
6.541e+09  0.07954  0.9419  -0.01784  -0.0197  0.03482  0.004262  0.1479  0.6683
6.542e+09  0.4513  0.8838  0.01539  0.0004908  -0.000802  -0.01016  0.3869  0.5701
6.544e+09  0.7107  0.684  -0.003144  0.0279  -0.0183  -0.04515  0.5424  0.4158
6.545e+09  0.8436  0.4112  -0.03806  -0.001351  -0.02845  0.07305  0.6949  0.142
6.546e+09  0.9662  0.04408  -0.002811  -0.01972  -1.42e-05  0.006116  0.7089  -0.09131
6.548e+09  0.9761  -0.3253  0.02016  0.03346  0.008558  0.04343  0.6402  -0.3524
6.549e+09  0.7807  -0.5777  -0.02596  -0.003228  0.03304  -0.01298  0.446  -0.5716
6.55e+09  0.538  -0.806  0.009774  -0.01094  0.01527  0.02559  0.2905  -0.6849
