# Hz S RI R 50
6.25e+09  -0.3376  0.8078  0.02104  -0.004512  0.005841  -0.01454  0.1646  0.5048
6.251e+09  -0.1073  0.8147  -0.01686  0.02398  -0.06747  0.01359  0.388  0.4186
6.252e+09  0.1751  0.7819  -0.03688  0.0157  -0.02257  0.0706  0.5307  0.246
6.254e+09  0.4895  0.7173  -0.005998  -0.02515  -0.02976  -0.009817  0.5912  0.03546
6.255e+09  0.6736  0.5044  -0.03508  -0.004164  0.04317  0.02039  0.5691  -0.1931
6.256e+09  0.8451  0.2865  -0.04023  -0.007749  -0.02294  0.006136  0.4914  -0.4528
6.258e+09  0.8418  -0.06678  -0.004566  -0.01462  -0.01175  0.008127  0.3164  -0.5783
6.259e+09  0.7889  -0.326  0.001301  0.009141  0.001679  -0.006388  0.01803  -0.6889
6.26e+09  0.6974  -0.626  0.006808  -0.004765  0.003678  -0.01513  -0.2238  -0.6575
6.261e+09  0.4053  -0.8154  -0.0149  -0.003256  0.0003943  0.03041  -0.4489  -0.5201
6.262e+09  0.06606  -0.8527  0.02676  -0.006264  -0.008467  -0.04187  -0.6206  -0.3588
6.264e+09  -0.2647  -0.819  -0.002824  0.0002788  0.0269  -0.0204  -0.7014  -0.1049
6.265e+09  -0.4988  -0.6887  0.01174  0.009761  0.03391  0.03819  -0.7249  0.1499
6.266e+09  -0.6658  -0.4927  -0.002761  -0.008779  -0.004913  -0.005272  -0.5868  0.3849
6.268e+09  -0.7995  -0.2213  0.007933  -0.00782  0.005377  -0.04008  -0.4081  0.5949
6.269e+09  -0.8544  0.1112  0.02401  0.0099  -0.03885  0.05757  -0.1884  0.7123
6.27e+09  -0.7476  0.3727  0.04305  -0.003583  0.01622  0.02203  0.05615  0.7239
6.271e+09  -0.5678  0.578  -0.0122  -0.01309  0.02442  0.003063  0.309  0.659
6.272e+09  -0.3637  0.7725  -0.01456  0.0001357  -0.02971  -0.009469  0.5223  0.5259
6.274e+09  -0.0391  0.7442  0.03864  0.03375  -0.01157  0.0169  0.7122  0.3244
6.275e+09  0.2417  0.8486  -0.01201  0.008799  0.0284  -0.02301  0.7605  0.03988
6.276e+09  0.5587  0.7013  0.03842  -0.01477  -0.01796  0.04421  0.7208  -0.2112
6.278e+09  0.6709  0.4352  0.004388  -0.002461  0.05659  0.03455  0.6271  -0.4821
6.279e+09  0.7736  0.1735  -0.005645  -0.01037  0.03861  0.01103  0.4117  -0.6303
6.28e+09  0.8375  -0.08923  0.01131  -0.007915  -0.01021  -0.02858  0.1717  -0.7662
6.281e+09  0.7567  -0.4084  0.003638  0.0004159  -0.006943  -0.02488  -0.08913  -0.7682
6.282e+09  0.5585  -0.5694  0.007768  0.03188  -0.01441  0.03512  -0.357  -0.6847
6.284e+09  0.2891  -0.7858  -0.008337  0.00997  0.02159  0.07252  -0.598  -0.5209
6.285e+09  0.008288  -0.8859  -0.004063  0.003881  0.03604  -0.02242  -0.7112  -0.3206
6.286e+09  -0.2288  -0.8186  -0.006605  0.01662  0.01992  0.02439  -0.8122  -0.02559
6.288e+09  -0.5036  -0.6865  0.02195  -0.02018  -0.05875  0.02372  -0.7633  0.2723
6.289e+09  -0.7493  -0.4873  0.02681  0.00187  0.03093  0.007543  -0.6415  0.5202
6.29e+09  -0.8086  -0.1655  0.02195  0.009429  0.05746  -0.009414  -0.4188  0.6734
6.291e+09  -0.8281  0.0938  0.01181  0.004098  -0.01262  0.02724  -0.1705  0.7912
6.292e+09  -0.7101  0.3293  0.003964  -0.01805  -0.03763  0.03289  0.1158  0.8138
6.294e+09  -0.5264  0.6705  0.008726  -0.02242  0.0119  -0.008046  0.4049  0.6829
6.295e+09  -0.3126  0.7509  0.01288  0.01241  -0.01734  -0.04655  0.6092  0.5832
6.296e+09  -0.06688  0.8107  -0.009  0.005435  -0.03224  0.07629  0.7866  0.2527
6.298e+09  0.2923  0.8167  0.02667  0.01305  -0.003468  0.02814  0.8304  -0.0133
6.299e+09  0.5715  0.643  0.01549  -0.001584  -0.02002  0.01403  0.7744  -0.2504
6.3e+09  0.6816  0.4506  0.008144  -0.01924  -0.04304  -0.02391  0.6585  -0.5078
6.301e+09  0.8067  0.212  0.009802  -0.008879  0.0257  0.009413  0.4295  -0.7521
6.302e+09  0.8497  -0.1607  -0.01194  0.01244  -0.02124  -0.06068  0.1751  -0.8222
6.304e+09  0.6934  -0.4287  -0.02592  -0.006596  0.02385  0.01286  -0.142  -0.8174
6.305e+09  0.5192  -0.6092  0.0009764  0.002017  -0.01855  0.01216  -0.453  -0.7254
6.306e+09  0.2831  -0.7678  -0.03803  0.003278  0.007897  -0.01462  -0.6329  -0.5627
6.308e+09  0.02637  -0.8546  -0.005844  -0.005721  0.001434  0.007418  -0.82  -0.3294
6.309e+09  -0.3595  -0.7974  0.01376  0.002821  -0.01737  0.01227  -0.8701  -0.005516
6.31e+09  -0.533  -0.5916  0.002524  0.03397  -0.0001074  0.02155  -0.8175  0.3006
6.311e+09  -0.7482  -0.43  0.01238  0.01365  0.00417  0.01961  -0.6902  0.5563
6.312e+09  -0.8276  -0.1646  -0.004186  0.003129  -0.0004728  0.04319  -0.4629  0.7239
6.314e+09  -0.805  0.1752  -0.01525  -0.003159  -0.0003814  0.00576  -0.1555  0.8543
6.315e+09  -0.7221  0.4485  -0.02085  0.003168  -0.006389  0.009505  0.1449  0.8747
6.316e+09  -0.4974  0.6302  -0.0002509  0.01194  -0.01017  0.01281  0.4279  0.7582
6.318e+09  -0.2698  0.7739  0.00516  0.01458  -0.0008446  -0.0006223  0.6816  0.5772
6.319e+09  0.0334  0.882  -0.0226  -0.000578  -0.01164  0.008234  0.8549  0.3228
6.32e+09  0.3308  0.807  0.01151  -0.03123  0.02996  0.006576  0.9046  -0.006973
6.321e+09  0.5869  0.6205  0.01627  -0.03219  0.0286  0.00311  0.8466  -0.309
6.322e+09  0.7722  0.3665  -0.0174  0.004823  0.03077  0.05334  0.6854  -0.5624
6.324e+09  0.8818  0.07397  -0.02192  -0.006121  -0.0314  0.02557  0.4696  -0.7666
6.325e+09  0.8476  -0.1617  -0.0139  -0.006793  0.04091  0.00065  0.1774  -0.8832
6.326e+09  0.6939  -0.4537  0.004735  -0.006836  0.03544  -0.04951  -0.1067  -0.8863
6.328e+09  0.5294  -0.7223  -0.004012  0.02872  -0.01697  -0.04182  -0.4664  -0.7929
6.329e+09  0.1873  -0.8906  0.001126  0.001702  -0.02337  -0.01703  -0.6592  -0.577
6.33e+09  -0.06787  -0.8583  -0.03171  -0.01675  -0.008841  -0.03149  -0.8635  -0.3126
6.331e+09  -0.3765  -0.7358  0.01525  -0.04618  -0.008204  0.007817  -0.9341  -0.01571
6.332e+09  -0.6756  -0.526  0.01618  -0.0002472  -0.02104  -0.03118  -0.8981  0.2846
6.334e+09  -0.7794  -0.3605  -0.0008123  0.01371  0.0227  -0.06387  -0.7263  0.5752
6.335e+09  -0.9081  -0.05911  0.03793  -0.02368  0.008587  0.02678  -0.4738  0.7776
6.336e+09  -0.8438  0.2489  0.004571  -0.009493  -0.02904  -0.02131  -0.1811  0.9092
6.338e+09  -0.705  0.5223  -0.01379  0.02551  -0.03798  0.02263  0.1225  0.9461
6.339e+09  -0.4402  0.7542  0.0001268  -0.02647  -0.01963  0.02257  0.4136  0.8019
6.34e+09  -0.1358  0.8838  0.01783  -0.008817  0.005551  -0.001356  0.7043  0.6281
6.341e+09  0.1569  0.8588  -0.01762  -0.01064  -0.02561  0.01829  0.8645  0.3704
6.342e+09  0.4198  0.7653  0.007257  0.02731  0.02229  0.02943  0.9348  0.04835
6.344e+09  0.7011  0.568  0.002968  -0.001467  0.01782  -0.02491  0.8858  -0.3068
6.345e+09  0.831  0.3286  0.01467  -0.0129  0.003901  -0.03175  0.8063  -0.6054
6.346e+09  0.9074  -0.0335  -0.001799  -0.01068  0.0475  -0.01566  0.496  -0.7998
6.348e+09  0.825  -0.2953  0.03228  0.01498  0.0359  0.02587  0.2284  -0.9254
6.349e+09  0.6556  -0.6212  -0.02041  0.0009562  0.004395  -0.01474  -0.1327  -0.9061
6.35e+09  0.3619  -0.763  0.03296  0.003309  -0.01331  -0.01684  -0.4283  -0.8376
6.351e+09  0.09419  -0.9455  -0.002738  -0.001623  0.04894  -0.0003074  -0.6483  -0.6422
6.352e+09  -0.2255  -0.8495  -0.03689  0.005735  0.01457  0.01866  -0.922  -0.3773
6.354e+09  -0.4938  -0.7609  0.007965  -0.03692  0.02519  0.02254  -0.9421  -0.008984
6.355e+09  -0.6575  -0.5176  -0.01751  -0.006154  0.00763  -0.005444  -0.8838  0.262
6.356e+09  -0.8628  -0.2347  0.01116  0.003973  -0.01578  0.008969  -0.763  0.5504
6.358e+09  -0.9037  0.08706  0.009989  0.02521  0.0006589  0.005242  -0.561  0.7832
6.359e+09  -0.8057  0.353  0.007928  -0.01602  0.03105  -0.02075  -0.2581  0.8892
6.36e+09  -0.5793  0.6466  -0.007446  0.009638  0.04126  -0.0325  0.09735  0.9566
6.361e+09  -0.3481  0.8091  -0.009715  0.03357  -0.01905  0.01948  0.3867  0.8568
6.362e+09  -0.01132  0.9114  0.01211  0.01712  0.01167  -0.04941  0.7072  0.6742
6.364e+09  0.2249  0.8896  -0.009835  0.0216  -0.001596  0.04481  0.8601  0.3974
6.365e+09  0.622  0.7048  0.0004674  0.03094  -0.0282  -0.002223  0.9309  0.04689
6.366e+09  0.7939  0.5672  0.002894  0.01249  -0.0003768  0.004932  0.9282  -0.2453
6.368e+09  0.8858  0.1685  0.03063  -0.01232  0.009997  -0.01765  0.7609  -0.5527
6.369e+09  0.8782  -0.1426  0.01524  0.01846  -0.01903  0.01066  0.5433  -0.7749
6.37e+09  0.8101  -0.4119  0.01213  0.01875  -0.02972  -0.0351  0.2845  -0.9117
6.371e+09  0.5756  -0.6916  0.01099  -0.002542  0.04803  -0.04888  -0.08091  -0.9539
6.372e+09  0.2998  -0.8279  0.01495  0.0001629  0.007374  0.005025  -0.4115  -0.8727
6.374e+09  -0.01529  -0.9141  -0.006165  0.02082  0.008091  -0.01955  -0.7037  -0.678
6.375e+09  -0.2922  -0.8621  -0.05282  0.00329  -0.01783  0.02054  -0.8763  -0.4128
6.376e+09  -0.5486  -0.7128  -0.01204  -0.00979  -0.007837  0.01933  -0.9376  -0.08727
6.378e+09  -0.7851  -0.4427  0.0356  -0.03142  -0.01404  0.0219  -0.9446  0.2173
6.379e+09  -0.9016  -0.1331  -0.02182  0.0158  -0.01738  0.008857  -0.7834  0.5617
6.38e+09  -0.8928  0.1293  -0.03791  0.0006793  -0.003075  -0.01129  -0.5664  0.7542
6.381e+09  -0.7487  0.4477  0.01719  0.01519  -0.001844  0.02053  -0.3028  0.887
6.382e+09  -0.569  0.6841  0.005664  0.01065  -0.05551  -0.017  0.05986  0.9372
6.384e+09  -0.282  0.7993  -0.01648  0.02187  -0.009585  0.0143  0.3308  0.8871
6.385e+09  0.04784  0.913  -0.02663  0.001939  0.00191  -0.01398  0.6336  0.6645
6.386e+09  0.3828  0.8098  -0.02922  0.01158  -0.01432  -0.02759  0.8421  0.4307
6.388e+09  0.5945  0.6792  -0.0008345  -0.001087  -0.01565  0.01378  0.8704  0.1086
6.389e+09  0.8082  0.4365  -0.01357  0.0037  -0.03531  0.02882  0.9035  -0.21
6.39e+09  0.8695  0.09868  0.006583  -0.02087  0.03547  0.009085  0.7881  -0.4992
6.391e+09  0.8348  -0.1771  0.043  -0.03609  0.008735  -0.003136  0.6067  -0.7176
6.392e+09  0.732  -0.5264  -0.007999  -0.01806  -0.002226  -0.02222  0.2782  -0.8308
6.394e+09  0.5111  -0.7262  -0.002198  -0.03321  0.02953  0.008501  -0.055  -0.9217
6.395e+09  0.2789  -0.8651  0.03041  -0.002066  0.02822  0.009005  -0.3432  -0.8692
6.396e+09  -0.02703  -0.8617  -0.00592  0.001714  -0.01459  -0.01568  -0.6004  -0.6929
6.398e+09  -0.4077  -0.7889  -0.002217  0.0189  0.04814  -0.01283  -0.7882  -0.4704
6.399e+09  -0.5903  -0.6648  -0.0001863  -0.006585  0.0257  0.01111  -0.9027  -0.1757
6.4e+09  -0.8461  -0.3787  0.03149  0.02793  -0.02111  0.02472  -0.8846  0.2029
6.401e+09  -0.8709  -0.04845  0.01999  -0.02061  -0.003828  -0.009554  -0.8463  0.4532
6.402e+09  -0.8066  0.2234  0.0004931  -0.002262  -0.002635  -0.008273  -0.5811  0.7462
6.404e+09  -0.6927  0.5146  0.03929  0.02629  0.04677  -0.001439  -0.3057  0.8713
6.405e+09  -0.4733  0.7669  0.006342  0.01551  -0.006212  0.03039  0.009332  0.8843
6.406e+09  -0.2473  0.8614  0.01881  -0.01676  -0.02326  -0.005101  0.3023  0.868
6.408e+09  0.07269  0.8597  -0.001991  0.03306  0.005043  0.02636  0.6193  0.7183
6.409e+09  0.4092  0.7833  -0.001554  0.005826  -0.00756  -0.002568  0.7319  0.474
6.41e+09  0.6538  0.6128  -0.05197  -0.06227  -0.04268  -0.01772  0.9043  0.1617
6.411e+09  0.8076  0.3398  0.05348  0.01824  0.03277  0.01287  0.8574  -0.1409
6.412e+09  0.8853  0.03604  0.03179  0.04827  -0.01122  -0.01153  0.7865  -0.4168
6.414e+09  0.8463  -0.2507  0.006546  -0.003741  -0.0012  0.04307  0.598  -0.7173
6.415e+09  0.7284  -0.4849  -0.0102  -0.007037  0.0131  -0.01087  0.3329  -0.8684
6.416e+09  0.5124  -0.7189  -0.04563  0.001381  -0.04026  0.01206  0.01179  -0.8948
6.418e+09  0.1944  -0.8389  -0.01212  -0.03164  0.05934  0.03171  -0.2804  -0.8551
6.419e+09  -0.1249  -0.8768  0.01392  -0.008597  0.0134  -0.0738  -0.5371  -0.7237
6.42e+09  -0.3562  -0.7768  -0.03296  -0.02863  0.0385  0.02722  -0.752  -0.4726
6.421e+09  -0.6481  -0.597  -0.02047  -0.00623  -0.00626  -0.01887  -0.8237  -0.1951
6.422e+09  -0.8183  -0.3473  -0.01802  -0.01065  -0.02635  -0.01803  -0.9062  0.08578
6.424e+09  -0.9229  -0.04301  0.05602  -0.03039  -0.01622  0.01877  -0.8172  0.4218
6.425e+09  -0.8603  0.2898  0.02716  -0.007831  0.007888  -0.009357  -0.6174  0.6437
6.426e+09  -0.7058  0.5075  0.01717  -0.05499  0.04873  0.001197  -0.3041  0.7547
6.428e+09  -0.4357  0.7478  0.05131  0.02172  0.02489  0.03446  -0.05955  0.8885
6.429e+09  -0.1952  0.8801  0.02209  -0.002629  0.07608  -0.02497  0.2562  0.8141
6.43e+09  0.1949  0.886  -0.006066  0.01012  -0.02198  -0.01602  0.538  0.6841
6.431e+09  0.4374  0.7714  -0.04296  -0.003267  -0.01817  -0.003553  0.7251  0.4929
6.432e+09  0.6518  0.6143  0.02593  -0.002082  0.02149  0.01731  0.8271  0.2624
6.434e+09  0.7828  0.3278  0.0146  0.01133  0.01409  0.02417  0.8957  -0.08434
6.435e+09  0.8539  0.04732  -0.005124  -0.01798  -0.01431  -0.01651  0.7954  -0.3723
6.436e+09  0.8223  -0.3166  0.006925  -0.001362  0.0004066  -0.04165  0.6047  -0.621
6.438e+09  0.6794  -0.5916  0.007352  0.01559  -0.01437  -0.008434  0.3992  -0.7976
6.439e+09  0.452  -0.7251  -0.01769  0.02419  -0.02594  0.02475  0.104  -0.8544
6.44e+09  0.153  -0.8358  0.02965  0.03957  -0.005857  0.002161  -0.195  -0.8357
6.441e+09  -0.08748  -0.9045  0.04128  0.001285  0.003651  0.008987  -0.477  -0.6779
6.442e+09  -0.4531  -0.7736  -0.01891  -0.01125  -0.008625  0.0007133  -0.7224  -0.456
6.444e+09  -0.6741  -0.6014  -0.04406  -0.006143  0.01671  0.006899  -0.8552  -0.2151
6.445e+09  -0.8403  -0.2958  -0.04548  0.02044  -0.01327  0.02608  -0.8487  0.08297
6.446e+09  -0.9282  0.00146  -0.001528  -0.02699  -0.01694  -0.02777  -0.7239  0.3748
6.448e+09  -0.8631  0.3017  -0.0006934  0.04711  -0.01639  -0.01726  -0.6043  0.5983
6.449e+09  -0.6709  0.5086  -0.01545  -0.006954  -0.02098  -0.02484  -0.3588  0.7027
6.45e+09  -0.4849  0.7472  0.01648  0.03239  -0.02578  -0.02833  -0.03991  0.8415
6.451e+09  -0.1268  0.8295  0.0174  -0.0002588  -0.02012  0.01175  0.2251  0.8376
6.452e+09  0.1423  0.8583  0.02423  0.02483  -0.003921  -0.0681  0.4759  0.7038
6.454e+09  0.5  0.8011  -0.02018  -0.008594  -0.02059  -0.007946  0.7041  0.4674
6.455e+09  0.6717  0.5806  0.02251  -0.03799  0.00731  -0.02688  0.8383  0.2456
6.456e+09  0.8498  0.328  -0.03041  0.0146  -0.03205  0.08483  0.8034  -0.1119
6.458e+09  0.8806  0.03403  0.02655  0.03584  -0.05659  0.03233  0.7607  -0.3007
6.459e+09  0.8363  -0.3051  0.0386  0.007594  0.002058  0.03349  0.5037  -0.5235
6.46e+09  0.684  -0.5897  0.004337  -0.009081  0.008174  -0.003163  0.3592  -0.7422
6.461e+09  0.4343  -0.752  -0.01428  0.02375  0.03563  -0.01092  0.08422  -0.825
6.462e+09  0.1625  -0.8491  -0.001758  -0.02894  -0.04409  0.02272  -0.1769  -0.7988
6.464e+09  -0.1937  -0.8757  0.03873  -0.0272  0.006604  0.03005  -0.5339  -0.6375
6.465e+09  -0.4709  -0.7646  -0.04585  -0.008268  -0.005857  0.0004087  -0.6508  -0.5012
6.466e+09  -0.6995  -0.5786  -0.0002415  -0.004695  -0.004774  0.0218  -0.7536  -0.1857
6.468e+09  -0.822  -0.3026  0.02697  -0.03913  -0.03273  0.02606  -0.8165  0.05952
6.469e+09  -0.8732  0.01577  -0.009829  -0.01252  0.002383  0.006897  -0.7839  0.3388
6.47e+09  -0.8804  0.3078  -0.004742  -0.03496  -0.06368  -0.04027  -0.5772  0.5737
6.471e+09  -0.6408  0.6183  -0.01493  0.06351  0.002645  0.02134  -0.3868  0.737
6.472e+09  -0.4376  0.7638  -0.001041  0.02413  0.02643  0.07366  -0.05295  0.7792
6.474e+09  -0.1297  0.9018  -0.01049  -0.003301  -0.003202  0.01179  0.2083  0.749
6.475e+09  0.1595  0.9361  -0.001004  -0.03248  0.01238  0.04169  0.4614  0.6587
6.476e+09  0.472  0.7621  0.02979  0.009928  0.007945  -0.003026  0.6561  0.404
6.478e+09  0.7118  0.57  -0.005354  -0.03908  0.006965  0.03934  0.7703  0.2072
6.479e+09  0.8362  0.3386  0.02353  -0.01107  -0.02644  0.03922  0.8165  -0.0653
6.48e+09  0.923  -0.02248  -0.004219  0.006707  -0.005319  -0.05292  0.6933  -0.3453
6.481e+09  0.8284  -0.3149  0.008391  -0.03268  -0.005058  0.00712  0.5299  -0.5697
6.482e+09  0.6637  -0.5723  0.04483  0.03841  0.01283  -0.04774  0.3024  -0.7564
6.484e+09  0.4092  -0.772  -0.00286  0.02306  -0.008993  -0.003514  0.07309  -0.8097
6.485e+09  0.08256  -0.8829  0.01427  -0.04638  0.03204  -0.04063  -0.2133  -0.7045
6.486e+09  -0.1988  -0.8895  0.0185  -0.03978  -0.001331  -0.01853  -0.5152  -0.5889
6.488e+09  -0.4883  -0.7507  -0.003296  -0.03275  -0.02639  0.01517  -0.6777  -0.4359
6.489e+09  -0.7011  -0.5239  0.004716  -0.05018  0.01841  0.03957  -0.7679  -0.2099
6.49e+09  -0.8718  -0.2857  -0.006181  0.004871  0.02906  0.04633  -0.8001  0.1148
6.491e+09  -0.8928  0.03404  0.01935  0.02524  -0.04229  -0.0002818  -0.6755  0.3545
6.492e+09  -0.809  0.3285  0.01466  0.02124  0.0434  -0.006495  -0.5124  0.5406
6.494e+09  -0.6613  0.6362  -0.01418  -0.01522  -0.01421  -0.03758  -0.2998  0.6978
6.495e+09  -0.4307  0.8478  -0.01093  -0.02712  0.009596  -0.02603  -0.04789  0.7386
6.496e+09  -0.1326  0.9328  0.01539  0.01195  0.01738  0.06033  0.2261  0.7421
6.498e+09  0.2125  0.9809  0.004755  -0.04276  0.0422  -0.02228  0.446  0.61
6.499e+09  0.4614  0.7529  0.001327  -0.006495  0.03996  -0.006047  0.6555  0.3505
6.5e+09  0.7306  0.5168  0.0311  -0.02527  -0.02759  0.02798  0.7433  0.2022
6.501e+09  0.8982  0.2531  -0.02791  0.004111  -0.02251  -0.02231  0.7694  -0.1143
6.502e+09  0.973  -0.1001  -0.01195  -0.01447  0.06408  0.009199  0.6819  -0.351
6.504e+09  0.8031  -0.3982  0.02136  0.0245  0.06316  0.01639  0.5284  -0.5524
6.505e+09  0.6857  -0.6053  0.01974  0.01622  0.0001119  -0.01867  0.2918  -0.6946
6.506e+09  0.4034  -0.8191  -0.04464  0.008625  0.04287  -0.005083  0.03174  -0.7465
6.508e+09  0.07567  -0.9878  0.0144  -0.01958  0.05719  0.01424  -0.2143  -0.7252
6.509e+09  -0.3124  -0.9133  -0.004929  0.0006632  0.02357  0.03767  -0.4904  -0.5844
6.51e+09  -0.5641  -0.7533  -0.02237  -0.003042  0.01725  0.01435  -0.6206  -0.3716
6.511e+09  -0.7945  -0.5188  0.01551  0.005804  3.449e-05  -0.03911  -0.7739  -0.1776
6.512e+09  -0.845  -0.2351  -0.001475  -0.01264  -0.04928  -0.01159  -0.7473  0.1616
6.514e+09  -0.9578  0.1269  -0.01997  -0.01977  -0.005726  0.01129  -0.6635  0.3932
6.515e+09  -0.8815  0.3931  -0.006912  0.005291  0.05127  -0.03263  -0.4882  0.5943
6.516e+09  -0.6417  0.6899  -0.04323  -0.0163  0.02206  0.04067  -0.2558  0.7225
6.518e+09  -0.3703  0.9119  -0.01547  0.006013  0.02714  0.05298  -0.03128  0.7318
6.519e+09  -0.05514  1.007  -0.001996  0.03127  0.03294  0.0009476  0.2754  0.7199
6.52e+09  0.2988  0.9188  0.01886  0.0148  -0.0112  -0.03785  0.4936  0.5324
6.521e+09  0.6612  0.7627  -0.01472  0.03691  0.02448  0.0475  0.7166  0.3639
6.522e+09  0.804  0.4859  0.01637  4.484e-05  0.009985  0.04281  0.7218  0.1033
6.524e+09  0.9564  0.1534  0.0004283  -0.01979  0.03242  0.01526  0.7147  -0.1826
6.525e+09  0.955  -0.1513  0.0005642  -0.01521  0.01649  0.01418  0.6076  -0.3804
6.526e+09  0.8331  -0.4987  0.03401  -0.01843  0.006774  0.01358  0.4677  -0.5695
6.528e+09  0.6354  -0.7522  0.004975  -0.006761  0.01222  -0.006686  0.2034  -0.7036
6.529e+09  0.3178  -0.9178  0.02388  -0.004908  0.02606  -0.02446  -0.05837  -0.719
6.53e+09  -0.0189  -0.9509  0.002967  0.001301  -0.02378  -0.01389  -0.2747  -0.6532
6.531e+09  -0.2994  -0.8979  0.01145  0.01182  -0.02069  -0.02736  -0.4808  -0.5024
6.532e+09  -0.678  -0.7421  0.02129  -0.002034  0.02373  0.04921  -0.5963  -0.3024
6.534e+09  -0.8818  -0.4551  0.03732  -0.0377  0.02778  0.02033  -0.6113  -0.09541
6.535e+09  -0.9523  -0.08466  -0.02692  -0.009828  0.06186  0.005448  -0.6123  0.1085
6.536e+09  -0.9362  0.2313  0.02307  0.01063  -0.006793  0.008222  -0.5893  0.3022
6.538e+09  -0.784  0.5939  0.005875  0.0007892  0.000265  -0.04361  -0.4404  0.5164
6.539e+09  -0.5934  0.8416  -0.02413  0.03085  -0.006481  0.03732  -0.2757  0.6015
6.54e+09  -0.2551  0.9331  0.02155  -0.01227  -0.04336  -0.00987  -0.05018  0.6475
6.541e+09  0.08701  0.974  0.004274  0.007918  -0.001591  -0.002405  0.1638  0.6695
6.542e+09  0.4289  0.8842  0.02462  0.03309  0.02918  0.01906  0.416  0.5841
6.544e+09  0.7353  0.6616  0.02281  -0.007137  0.004294  -0.006237  0.6168  0.388
6.545e+09  0.8799  0.3721  -0.01165  0.03483  -0.02139  -0.01541  0.717  0.1718
6.546e+09  0.9822  0.05001  -0.04298  -0.01153  0.0432  -0.01165  0.7258  -0.07034
6.548e+09  0.8878  -0.3153  0.003042  -0.02545  0.04855  0.01395  0.6369  -0.3458
6.549e+09  0.7414  -0.6209  0.01059  0.01285  0.02077  -0.008076  0.4932  -0.542
6.55e+09  0.5307  -0.8029  -0.042  -0.01346  0.02551  0.02055  0.3001  -0.7159
