# Hz S RI R 50
6.25e+09  -0.1712  0.8938  -0.04524  -0.01079  0.007819  0.0104  0.1155  0.5025
6.251e+09  0.1709  0.8398  -0.01305  -0.01453  -0.02236  0.01742  0.3985  0.4089
6.252e+09  0.4428  0.7672  -0.03565  -0.002317  -0.01736  -0.03114  0.5357  0.2247
6.254e+09  0.6805  0.5719  -0.01036  0.004061  0.05912  -0.007498  0.6028  0.005224
6.255e+09  0.8553  0.2747  -0.009868  -0.02487  -0.009079  0.02406  0.5718  -0.2352
6.256e+09  0.8306  -0.02565  -0.007327  0.02534  0.01933  0.04623  0.4934  -0.4691
6.258e+09  0.8535  -0.3214  -0.0003019  -0.005225  -0.0432  -0.02175  0.2633  -0.6136
6.259e+09  0.6724  -0.5362  -0.01399  -0.01697  0.02231  -0.0383  0.04217  -0.6845
6.26e+09  0.4168  -0.7448  0.01248  0.01691  0.01345  0.00774  -0.231  -0.6532
6.261e+09  0.1282  -0.8573  -0.002163  -0.001153  -0.01933  -0.01669  -0.4315  -0.5261
6.262e+09  -0.1921  -0.822  -0.0181  -0.03226  0.05021  0.02462  -0.5946  -0.3477
6.264e+09  -0.4824  -0.7326  -0.01014  0.003238  0.0407  -0.03866  -0.6872  -0.09725
6.265e+09  -0.638  -0.4963  -0.0218  -0.03057  0.008513  -0.06617  -0.7296  0.1553
6.266e+09  -0.8446  -0.2507  0.03607  0.02301  -0.02926  -0.01084  -0.6163  0.3909
6.268e+09  -0.8253  0.01901  0.01374  -0.03127  0.02208  0.009194  -0.4481  0.6118
6.269e+09  -0.7719  0.3162  0.02286  -0.01817  -0.005605  0.0215  -0.1926  0.7227
6.27e+09  -0.6106  0.5283  -0.003719  0.00456  0.008469  -0.01266  0.05495  0.7346
6.271e+09  -0.4041  0.7681  0.01639  -0.005511  0.0001114  -0.04092  0.3435  0.6883
6.272e+09  -0.107  0.8715  0.02708  -0.025  -0.02302  0.006701  0.5165  0.5351
6.274e+09  0.1849  0.8581  -0.02019  -0.01782  0.02513  0.02506  0.7006  0.3059
6.275e+09  0.427  0.7596  -0.006356  -0.008444  -0.03119  -0.03855  0.7788  0.0458
6.276e+09  0.655  0.4533  -0.01214  0.03001  0.03998  0.001948  0.7502  -0.225
6.278e+09  0.8156  0.2364  -0.00463  -0.01602  -0.06271  -0.01582  0.6068  -0.4749
6.279e+09  0.8285  -0.04395  -0.0208  -0.01387  0.00714  -0.007997  0.3923  -0.6657
6.28e+09  0.7811  -0.2756  0.01658  -0.01187  0.02233  0.02314  0.1624  -0.7419
6.281e+09  0.5759  -0.5719  0.003909  0.01535  0.04331  -0.03302  -0.1429  -0.7574
6.282e+09  0.3149  -0.7968  0.01059  -0.00975  -0.01467  0.04226  -0.3669  -0.7071
6.284e+09  0.1117  -0.8573  0.01554  0.01893  0.03984  -0.03127  -0.6056  -0.5232
6.285e+09  -0.2368  -0.8127  -0.00919  0.02084  -0.006504  0.01319  -0.7444  -0.2762
6.286e+09  -0.5132  -0.7026  0.002733  -0.002387  0.009957  0.05277  -0.8045  -0.01043
6.288e+09  -0.7291  -0.4451  0.02163  0.02631  0.0113  0.01692  -0.7493  0.2443
6.289e+09  -0.7884  -0.1913  0.01819  -0.006205  -0.02475  -0.01471  -0.6227  0.4815
6.29e+09  -0.8294  0.1203  -0.02154  -0.01156  0.01065  0.01309  -0.396  0.6691
6.291e+09  -0.7623  0.398  -0.02487  0.01672  -0.04487  -0.005567  -0.1527  0.7618
6.292e+09  -0.5416  0.6513  -0.008708  0.02555  0.0442  -0.02006  0.1465  0.7835
6.294e+09  -0.3295  0.724  -0.04032  -0.01742  -0.01522  -0.06948  0.4279  0.7194
6.295e+09  -0.06004  0.8458  -0.02012  0.02967  0.04797  0.01266  0.6066  0.5266
6.296e+09  0.2642  0.7931  0.02526  -0.01649  -0.0008862  0.01936  0.7766  0.3113
6.298e+09  0.5611  0.6521  -0.0001734  -0.003237  -0.02253  0.02371  0.798  0.03115
6.299e+09  0.7285  0.4475  -0.02383  0.002151  0.03574  0.03119  0.7567  -0.2982
6.3e+09  0.8171  0.1368  0.02626  -0.02988  -0.04741  -0.03516  0.6319  -0.5224
6.301e+09  0.8452  -0.1518  0.01844  -0.01201  -0.02849  -0.01662  0.399  -0.7042
6.302e+09  0.7253  -0.4618  0.01143  -0.01101  0.004672  -0.03009  0.151  -0.8376
6.304e+09  0.5963  -0.6544  0.01356  -0.01218  -0.03465  -0.009594  -0.151  -0.8305
6.305e+09  0.3047  -0.7981  0.005485  0.01289  0.01437  -0.003326  -0.3942  -0.7685
6.306e+09  0.01984  -0.8422  -0.001451  -0.01473  0.004658  -0.01132  -0.6396  -0.5415
6.308e+09  -0.3414  -0.7748  -0.006021  0.02879  -0.005758  -0.008859  -0.8183  -0.3054
6.309e+09  -0.5706  -0.6632  -0.003809  -0.04459  0.04336  -0.01963  -0.8592  -0.001486
6.31e+09  -0.7557  -0.3675  -0.006267  -0.0126  0.03104  0.02264  -0.83  0.2958
6.311e+09  -0.7772  -0.1055  0.009729  0.002081  -0.005324  -0.05677  -0.6723  0.5767
6.312e+09  -0.8695  0.1212  0.02041  0.02887  -0.03746  -0.03621  -0.4415  0.7106
6.314e+09  -0.6987  0.4446  0.02205  -0.01976  -0.00775  0.0585  -0.1922  0.8578
6.315e+09  -0.5589  0.6525  -0.003259  -0.001826  0.01739  0.03514  0.1328  0.849
6.316e+09  -0.267  0.7995  -0.007036  -0.009057  -0.05724  -0.007301  0.4155  0.7935
6.318e+09  0.02234  0.9039  -0.004471  -0.004478  -0.00065  -0.0017  0.6479  0.603
6.319e+09  0.3487  0.7924  0.01167  0.004971  0.008654  0.02215  0.8375  0.3165
6.32e+09  0.5574  0.5968  0.01083  0.04585  0.03188  0.04649  0.8964  0.03652
6.321e+09  0.7543  0.4103  -0.02189  -0.01364  0.02426  0.0191  0.856  -0.2883
6.322e+09  0.8828  0.1534  -0.01734  0.00446  -0.01191  0.02521  0.6763  -0.5345
6.324e+09  0.8704  -0.2155  -0.01548  0.01164  0.02025  0.02389  0.4967  -0.7468
6.325e+09  0.6989  -0.4935  -0.01523  0.01042  0.004261  0.007092  0.1872  -0.8915
6.326e+09  0.5094  -0.6838  -0.005786  0.000988  -0.03535  -0.008228  -0.1437  -0.8968
6.328e+09  0.2154  -0.8318  0.01774  -0.01718  -0.01224  -0.01194  -0.4105  -0.8326
6.329e+09  -0.09701  -0.8293  -0.01474  -0.02342  -0.04605  -0.02046  -0.7064  -0.5772
6.33e+09  -0.3364  -0.7828  0.01685  0.006694  0.0002168  0.02924  -0.832  -0.3411
6.331e+09  -0.6411  -0.6303  0.01151  -0.002619  -0.04328  -0.0005782  -0.9118  -0.04684
6.332e+09  -0.7668  -0.3149  0.04287  -0.01942  0.01439  0.04864  -0.8796  0.3085
6.334e+09  -0.8928  -0.02847  0.05112  0.0122  0.02588  0.01014  -0.7282  0.5674
6.335e+09  -0.8414  0.2784  -0.0341  0.0122  0.007551  -0.03743  -0.4994  0.7476
6.336e+09  -0.7059  0.5537  -0.01541  -0.004723  -0.05543  -0.002511  -0.2031  0.9185
6.338e+09  -0.4368  0.773  0.02303  -0.03292  0.03201  0.01947  0.1477  0.8996
6.339e+09  -0.1502  0.8654  0.003858  0.005862  -0.04505  -0.002155  0.4324  0.8093
6.34e+09  0.142  0.8695  -0.003891  0.01161  0.01329  0.005903  0.7126  0.6392
6.341e+09  0.4539  0.7286  0.008542  0.00112  0.008569  -0.007348  0.8704  0.3324
6.342e+09  0.718  0.543  0.02698  -0.03147  0.04247  -0.03274  0.9334  0.04392
6.344e+09  0.8328  0.2809  0.0172  -0.01251  -0.02528  0.01295  0.9047  -0.2928
6.345e+09  0.8271  0.003102  -0.01312  0.02736  -0.03137  0.006346  0.7364  -0.5697
6.346e+09  0.8061  -0.3286  -0.006599  -0.0007766  0.04269  0.01167  0.533  -0.8145
6.348e+09  0.6811  -0.6088  0.015  0.008618  0.01926  0.01694  0.234  -0.91
6.349e+09  0.3819  -0.7644  0.005419  0.008594  -0.02265  0.03197  -0.1046  -0.8975
6.35e+09  0.1512  -0.8789  -0.01938  0.04004  -0.001977  0.02645  -0.412  -0.8753
6.351e+09  -0.2224  -0.9121  0.01453  -0.009214  -0.02301  0.02861  -0.6533  -0.6487
6.352e+09  -0.5448  -0.7126  -0.02594  -0.008321  0.00965  0.09365  -0.8652  -0.3862
6.354e+09  -0.7234  -0.4709  -0.02156  -0.0196  -0.01769  -0.00163  -0.9351  -0.05564
6.355e+09  -0.8345  -0.1963  -0.01512  -4.57e-06  0.06664  -0.0004976  -0.9013  0.2824
6.356e+09  -0.9013  0.07267  0.009319  0.01556  0.002612  -0.03468  -0.7482  0.5653
6.358e+09  -0.809  0.3641  0.03783  -0.006064  0.01776  0.01491  -0.5552  0.781
6.359e+09  -0.6025  0.6837  -0.001654  0.01388  0.04546  0.005649  -0.2706  0.9322
6.36e+09  -0.4039  0.8111  0.02815  0.03934  -0.01254  0.0164  0.0829  0.9509
6.361e+09  -0.03535  0.9251  -0.01685  -0.01959  0.02859  0.03053  0.4119  0.8734
6.362e+09  0.3091  0.8323  0.04903  -0.0008123  0.06066  -0.0137  0.6534  0.6477
6.364e+09  0.5197  0.7134  0.001248  -0.007366  0.0195  -0.0371  0.8935  0.3944
6.365e+09  0.741  0.4492  -0.03048  -0.002423  -0.0029  0.01003  0.9187  0.1035
6.366e+09  0.865  0.1737  -0.002473  0.02942  0.0161  0.008863  0.937  -0.2542
6.368e+09  0.8787  -0.1094  0.01321  -0.005004  -0.01225  0.01348  0.7915  -0.5476
6.369e+09  0.7446  -0.4351  -0.03053  0.002926  -0.002875  -0.01353  0.5297  -0.7383
6.37e+09  0.5161  -0.6941  -0.008917  0.003018  -0.04839  1.926e-05  0.242  -0.9261
6.371e+09  0.3206  -0.8287  -0.01544  -0.0144  -0.08596  0.01422  -0.09741  -0.9648
6.372e+09  0.007683  -0.9301  -0.01703  0.01087  0.015  0.00556  -0.3989  -0.8459
6.374e+09  -0.3183  -0.7716  0.001452  0.001851  0.005522  0.00347  -0.6352  -0.6652
6.375e+09  -0.5884  -0.6789  0.02096  0.006518  -0.07751  0.03419  -0.8451  -0.3833
6.376e+09  -0.77  -0.4457  0.03561  0.04266  -0.02939  -0.02989  -0.9293  -0.03157
6.378e+09  -0.8723  -0.2021  0.03809  -0.003425  -0.01906  -0.003108  -0.8844  0.2526
6.379e+09  -0.8744  0.1747  -0.006472  0.05786  0.05022  0.01143  -0.772  0.5644
6.38e+09  -0.7213  0.4697  0.0007806  -0.001838  -0.002036  0.001654  -0.5428  0.7466
6.381e+09  -0.5143  0.6521  0.0218  0.008904  0.0108  -0.01702  -0.2683  0.9605
6.382e+09  -0.2453  0.8425  0.01191  -0.01758  -0.02124  0.0263  0.02619  0.9314
6.384e+09  0.05578  0.9176  0.02465  0.01796  -0.01058  0.009444  0.3326  0.8443
6.385e+09  0.3662  0.8328  -0.0249  0.05927  -0.02164  -0.01597  0.6727  0.6463
6.386e+09  0.6665  0.6286  -0.003068  -0.01726  -0.0001771  0.01306  0.8511  0.418
6.388e+09  0.7701  0.388  0.02617  0.009567  0.02791  0.000909  0.9139  0.08396
6.389e+09  0.8768  0.1109  -0.02754  0.03633  0.02307  -0.00692  0.94  -0.2046
6.39e+09  0.862  -0.1662  0.02975  -0.009541  -0.0005034  0.0221  0.8193  -0.4958
6.391e+09  0.7938  -0.4741  -0.00785  -0.03003  0.02247  0.03762  0.5597  -0.7211
6.392e+09  0.5733  -0.7428  -0.03548  0.001706  0.0198  0.01783  0.3177  -0.9031
6.394e+09  0.2679  -0.8547  0.06412  -0.03729  0.0625  0.00259  0.002848  -0.9035
6.395e+09  -0.0287  -0.8619  -0.01683  -0.005784  -0.003497  -0.01815  -0.3287  -0.8302
6.396e+09  -0.3972  -0.8092  -0.01219  0.008336  0.03663  0.002216  -0.5929  -0.7208
6.398e+09  -0.6549  -0.6221  0.01195  0.009468  0.02934  0.01646  -0.8078  -0.437
6.399e+09  -0.8339  -0.3562  -0.02681  -0.02045  -0.01159  0.04011  -0.9367  -0.1234
6.4e+09  -0.8381  -0.07589  -0.0518  -0.000837  -0.03897  0.008146  -0.9495  0.1401
6.401e+09  -0.8292  0.2297  0.03651  0.01316  -0.02264  -0.00912  -0.8248  0.4589
6.402e+09  -0.7306  0.555  -0.0357  0.02164  0.0635  -0.02633  -0.6193  0.696
6.404e+09  -0.4846  0.6917  -0.003926  0.01965  0.03815  -0.009368  -0.3502  0.8894
6.405e+09  -0.2019  0.8705  -0.01364  -0.03561  -0.0256  -0.01948  0.01459  0.9276
6.406e+09  0.07214  0.9145  -0.04395  0.008717  -0.02175  0.007789  0.3077  0.829
6.408e+09  0.3547  0.7519  -0.03801  -0.0257  0.01493  -0.01066  0.5776  0.6874
6.409e+09  0.6862  0.5861  -0.03376  -0.002681  0.05559  0.005648  0.7712  0.4492
6.41e+09  0.8503  0.3716  -0.03384  -0.03664  0.00647  -0.05121  0.8775  0.1512
6.411e+09  0.8495  0.05657  0.01262  -0.02041  -0.01057  -0.01606  0.8861  -0.1399
6.412e+09  0.8275  -0.2404  0.03634  0.01898  -0.02756  -0.02274  0.7827  -0.4048
6.414e+09  0.6862  -0.5404  0.04244  -0.01067  -0.02621  0.006372  0.6043  -0.6734
6.415e+09  0.4757  -0.7694  -0.02402  0.02175  0.006123  -0.01447  0.289  -0.8599
6.416e+09  0.1885  -0.8629  -0.01977  -0.008609  0.002733  0.009079  0.03435  -0.9126
6.418e+09  -0.1359  -0.8644  -0.004432  0.0115  0.001868  0.01107  -0.3152  -0.8702
6.419e+09  -0.4501  -0.7837  -0.01644  0.009849  0.006775  0.07985  -0.554  -0.7197
6.42e+09  -0.6423  -0.5964  0.001188  -0.03305  -0.02503  -0.04543  -0.7517  -0.4839
6.421e+09  -0.7869  -0.3762  0.04059  0.03403  -0.01386  -0.05629  -0.8697  -0.2048
6.422e+09  -0.8865  -0.03327  0.02492  -0.01642  0.04097  -0.04467  -0.9032  0.1293
6.424e+09  -0.8572  0.2479  0.00168  -0.03229  -0.0241  -0.003818  -0.774  0.3974
6.425e+09  -0.7086  0.5415  -0.02742  -0.002375  -0.01181  -0.01215  -0.624  0.6601
6.426e+09  -0.4354  0.7159  0.0208  0.03956  -0.0128  -0.01026  -0.311  0.7922
6.428e+09  -0.167  0.9151  0.001375  -0.01487  -0.06119  -0.04657  -0.06454  0.8232
6.429e+09  0.1329  0.9283  0.008589  -0.02178  -0.05127  -0.03834  0.2713  0.8436
6.43e+09  0.4291  0.7725  -0.004694  0.02958  -0.0288  -0.03475  0.5398  0.7044
6.431e+09  0.6744  0.5877  -0.02127  -0.00217  -0.01511  0.02073  0.7376  0.5066
6.432e+09  0.8728  0.3205  -0.01025  -0.002959  -0.008876  0.002005  0.829  0.2272
6.434e+09  0.8693  0.02588  0.02243  -0.02798  -0.05691  -0.0246  0.8092  -0.1211
6.435e+09  0.8852  -0.263  0.02209  0.0189  0.03534  0.01676  0.7247  -0.3989
6.436e+09  0.6837  -0.5743  0.02166  -0.05398  -0.004395  0.03101  0.63  -0.598
6.438e+09  0.4516  -0.803  0.03959  0.04581  -0.04914  -0.01343  0.3815  -0.8267
6.439e+09  0.1749  -0.8898  0.03256  -0.0266  -0.01834  -0.02882  0.08221  -0.8829
6.44e+09  -0.1476  -0.912  0.01876  -0.01196  -0.07535  0.04592  -0.1552  -0.7743
6.441e+09  -0.4762  -0.769  0.01012  -0.0124  0.03546  -0.02483  -0.4702  -0.6941
6.442e+09  -0.7378  -0.5739  0.01568  -0.008317  0.03469  -0.0138  -0.686  -0.4899
6.444e+09  -0.8156  -0.2879  0.02407  0.01903  -0.000877  -0.0221  -0.813  -0.2399
6.445e+09  -0.9399  0.0432  0.04252  -0.04432  0.06165  0.0263  -0.8978  0.04625
6.446e+09  -0.8985  0.2716  -0.03068  -0.02494  -0.01672  -0.06649  -0.7345  0.3402
6.448e+09  -0.7007  0.5958  -0.02104  0.02996  0.02386  -0.008063  -0.5778  0.6368
6.449e+09  -0.4581  0.7814  0.0082  -0.008009  -0.02078  0.05077  -0.3616  0.687
6.45e+09  -0.139  0.9369  0.01173  -0.05523  -0.005914  -0.02956  -0.07338  0.8589
6.451e+09  0.1941  0.9272  -0.004743  -0.02035  0.003448  0.007679  0.2213  0.8077
6.452e+09  0.4704  0.803  -0.02119  0.009165  0.03128  -0.01409  0.4762  0.6629
6.454e+09  0.7021  0.4847  0.009832  0.0007787  0.02506  0.02169  0.6885  0.4343
6.455e+09  0.8708  0.3198  0.003408  -0.0154  -0.03158  -0.0344  0.825  0.212
6.456e+09  0.8733  -0.01784  -0.02327  -0.01725  0.000978  -0.03785  0.847  -0.07542
6.458e+09  0.8553  -0.3306  0.01637  0.004639  0.02162  0.0338  0.7004  -0.3293
6.459e+09  0.7076  -0.6114  0.02216  -0.02333  -0.02882  0.04624  0.5979  -0.5924
6.46e+09  0.4261  -0.8174  -0.01433  0.04015  -0.05123  0.01247  0.3513  -0.7211
6.461e+09  0.148  -0.9239  0.03673  0.02979  0.02219  -0.008989  0.05231  -0.8076
6.462e+09  -0.1622  -0.8383  0.02636  0.007277  -0.02186  0.03167  -0.2253  -0.7924
6.464e+09  -0.4738  -0.7943  -0.005382  -0.01909  0.02457  0.02556  -0.4762  -0.6603
6.465e+09  -0.7497  -0.5443  -0.05776  0.0009544  -0.03141  0.006226  -0.6445  -0.4433
6.466e+09  -0.8479  -0.2589  -0.05527  0.04842  0.0183  -0.07553  -0.7754  -0.2276
6.468e+09  -0.9276  0.07275  -0.005901  -0.00332  0.004413  -0.00829  -0.8337  0.07356
6.469e+09  -0.8398  0.3738  0.01737  -0.02493  0.007513  0.02089  -0.7665  0.3437
6.47e+09  -0.6636  0.6364  -0.0379  0.005975  0.03743  -0.05026  -0.5703  0.6167
6.471e+09  -0.4027  0.8298  -0.01011  0.01699  0.01992  0.01133  -0.3331  0.7316
6.472e+09  -0.1126  0.9368  -0.03817  0.00132  -0.003953  0.03434  -0.08627  0.7874
6.474e+09  0.1978  0.8826  0.03006  -0.04799  -0.01624  0.0003667  0.1986  0.7638
6.475e+09  0.5926  0.748  0.008398  0.004535  -0.02301  0.0072  0.5039  0.6219
6.476e+09  0.7901  0.5808  -0.02353  0.0135  -0.06956  -0.009516  0.6695  0.4466
6.478e+09  0.9285  0.2129  0.02801  -0.01029  -0.007436  -0.001958  0.7523  0.1946
6.479e+09  0.9437  -0.02684  -0.007066  -0.03738  -0.01355  -0.012  0.786  -0.09896
6.48e+09  0.8841  -0.3902  0.02661  0.03253  -0.0004357  0.001886  0.714  -0.3592
6.481e+09  0.6558  -0.7114  0.005229  0.0334  -0.01868  0.01804  0.545  -0.5225
6.482e+09  0.3349  -0.8813  -0.01741  0.03137  -0.003575  0.032  0.3511  -0.6757
6.484e+09  0.04591  -0.9546  -0.04542  -0.01443  0.007637  0.008952  0.03414  -0.8192
6.485e+09  -0.3062  -0.9093  0.007032  -0.01197  -0.001744  -0.01013  -0.2178  -0.7287
6.486e+09  -0.5407  -0.7553  -0.006408  0.005658  -0.01801  -0.03908  -0.4553  -0.6068
6.488e+09  -0.8502  -0.5132  -0.0217  0.01344  0.03857  0.01521  -0.643  -0.4068
6.489e+09  -0.8952  -0.1665  -0.01386  -0.01526  0.003781  -0.05872  -0.7451  -0.1772
6.49e+09  -0.9124  0.1472  -0.008756  -0.007922  0.02254  0.04877  -0.7481  0.0853
6.491e+09  -0.7911  0.4759  -0.006513  -0.02815  0.009192  -0.03468  -0.7014  0.3239
6.492e+09  -0.599  0.7215  0.01016  0.06245  0.04162  -0.02362  -0.5341  0.6088
6.494e+09  -0.3287  0.9211  0.01449  0.01636  0.06751  -0.01093  -0.2645  0.7008
6.495e+09  -0.007978  0.9123  -0.01485  0.007263  0.006496  -0.003731  -0.02948  0.7804
6.496e+09  0.3165  0.9214  0.04175  0.01661  -0.02964  0.03144  0.2168  0.7331
6.498e+09  0.6145  0.7577  0.03354  0.01843  0.0485  0.01002  0.4578  0.6054
6.499e+09  0.8511  0.4746  -0.000519  -0.01993  0.01557  0.01035  0.6902  0.4451
6.5e+09  0.9907  0.1309  0.004537  0.003913  -0.01793  0.0003937  0.7439  0.1156
6.501e+09  0.9176  -0.1893  0.02788  0.01285  0.03396  -0.006938  0.7421  -0.1027
6.502e+09  0.7946  -0.4798  0.004427  -0.01627  0.01844  0.01383  0.6837  -0.3655
6.504e+09  0.5604  -0.7484  0.03155  -0.01746  0.05643  0.01101  0.4816  -0.5365
6.505e+09  0.3148  -0.9104  -0.02659  -0.021  0.01364  -0.06995  0.2792  -0.7398
6.506e+09  -0.07242  -0.9873  0.0475  0.05093  0.01195  0.004836  0.04385  -0.776
6.508e+09  -0.3869  -0.8692  -0.005842  -0.003337  -0.05047  0.02209  -0.2399  -0.6885
6.509e+09  -0.6724  -0.6909  0.01025  0.02199  -0.01504  1.317e-05  -0.4717  -0.5979
6.51e+09  -0.9081  -0.3684  0.0002036  -0.04011  -0.06061  0.0218  -0.6791  -0.4129
6.511e+09  -0.9436  -0.004164  -0.0009431  -0.03593  -0.01342  0.02716  -0.7182  -0.1543
6.512e+09  -0.9958  0.3064  0.005404  0.003348  -0.01238  -0.01661  -0.7269  0.1384
6.514e+09  -0.7743  0.5292  0.02317  0.04988  0.03746  0.0695  -0.6334  0.366
6.515e+09  -0.5643  0.8097  0.01041  0.01558  -0.009646  -0.01932  -0.5239  0.5695
6.516e+09  -0.2787  0.884  -0.003909  0.007712  0.01158  -0.01304  -0.2286  0.7066
6.518e+09  0.1538  0.9039  0.01118  -0.0251  0.05125  0.04083  0.0123  0.7738
6.519e+09  0.4539  0.8872  -0.005204  -0.01333  0.01989  0.009336  0.2519  0.7165
6.52e+09  0.7442  0.6019  0.02137  0.005139  -0.03441  -0.05714  0.4815  0.5382
6.521e+09  0.8992  0.3362  0.01773  -0.01603  -0.03315  0.01279  0.6413  0.3633
6.522e+09  0.9723  -0.04028  -0.01416  0.03398  0.01227  -0.0101  0.736  0.1114
6.524e+09  0.8828  -0.3899  0.003089  0.0141  -0.008712  -0.004577  0.7377  -0.1248
6.525e+09  0.7222  -0.6755  0.002077  -0.03334  0.05195  0.02196  0.6369  -0.3913
6.526e+09  0.4626  -0.8266  -0.01546  0.01413  0.0354  0.008831  0.4567  -0.5791
6.528e+09  0.1101  -1.007  -0.06184  0.01425  -0.02125  -0.01375  0.2066  -0.6575
6.529e+09  -0.201  -0.963  0.009954  -0.000898  0.009542  0.03511  -0.08642  -0.7015
6.53e+09  -0.5447  -0.7858  0.01422  0.01521  -0.009768  0.005841  -0.2738  -0.5936
6.531e+09  -0.7784  -0.5964  0.008874  0.01893  -0.04398  0.02947  -0.504  -0.478
6.532e+09  -0.9201  -0.2616  0.01061  0.0265  -0.006762  0.02454  -0.5941  -0.2628
6.534e+09  -0.9601  0.1165  0.01314  0.003828  -0.02495  0.01674  -0.6494  -0.0919
6.535e+09  -0.8565  0.4112  0.01325  0.01031  -0.02373  0.01714  -0.6352  0.1025
6.536e+09  -0.6278  0.6788  -0.01985  -0.02217  0.02272  0.06455  -0.5603  0.3372
6.538e+09  -0.3986  0.8762  0.02333  -0.007383  0.0345  0.02779  -0.4383  0.5098
6.539e+09  -0.07118  0.8964  0.04526  0.005877  0.01041  0.01705  -0.2791  0.6324
6.54e+09  0.2841  0.9067  -0.00186  0.001684  -0.03322  0.005895  -0.0406  0.6441
6.541e+09  0.5829  0.759  -0.02312  -0.007824  0.01376  -0.003863  0.163  0.6981
6.542e+09  0.8107  0.4386  0.001205  0.02095  0.01281  -0.02197  0.408  0.5482
6.544e+09  0.8672  0.1249  0.02127  -0.0007479  -0.00377  -0.03485  0.5884  0.4127
6.545e+09  0.8992  -0.1782  -0.02257  0.001554  -0.02818  -0.03817  0.6988  0.1966
6.546e+09  0.7643  -0.4811  0.007338  0.003422  0.02125  -0.0329  0.6885  -0.07314
6.548e+09  0.5405  -0.6972  -0.005941  0.01238  -0.04707  -0.02144  0.7014  -0.3183
6.549e+09  0.2653  -0.8804  0.005652  -0.01121  -0.009276  0.04517  0.4849  -0.5338
6.55e+09  -0.04534  -0.9072  0.002065  0.0101  -0.02105  -0.004813  0.2898  -0.6935
6.551e+09  -0.2889  -0.8178  -0.01403  0.00736  0.02493  0.001988  0.007168  -0.7295
