# Hz S RI R 50
6.25e+09  -0.3073  0.846  -0.02013  0.0004106  0.007296  0.007192  0.1963  0.4652
6.251e+09  -0.02473  0.8658  -0.0007512  -0.003099  -0.05431  -0.01153  0.3603  0.4258
6.252e+09  0.3053  0.822  -0.035  0.006426  0.005426  0.0467  0.5435  0.2288
6.254e+09  0.5628  0.7102  -0.002454  -0.01075  0.007905  0.02617  0.6  0.01215
6.255e+09  0.6956  0.4351  0.01228  -0.0005048  -0.02763  -0.006095  0.6091  -0.2385
6.256e+09  0.8577  0.1155  0.01658  0.02903  0.008475  -0.02586  0.4709  -0.4419
6.258e+09  0.8599  -0.1046  0.00372  0.01815  0.01422  -0.02146  0.2583  -0.6038
6.259e+09  0.7291  -0.3897  -0.02551  -0.01005  -0.01456  -5.623e-05  0.01593  -0.6842
6.26e+09  0.5225  -0.6199  0.003232  -0.03579  0.02285  -0.008018  -0.2029  -0.6552
6.261e+09  0.2983  -0.8212  -0.009496  -0.0291  0.004639  0.01133  -0.4549  -0.5382
6.262e+09  -0.005084  -0.8199  0.04341  -0.02848  0.01048  0.03123  -0.6188  -0.3548
6.264e+09  -0.3248  -0.8167  -0.001328  0.006038  0.003116  0.002381  -0.6894  -0.09783
6.265e+09  -0.5728  -0.6469  0.003533  0.01033  0.02666  -0.009061  -0.6756  0.1603
6.266e+09  -0.7142  -0.3857  -0.03395  -0.01017  -0.02437  0.03057  -0.5579  0.3786
6.268e+09  -0.8481  -0.1595  0.008813  -0.009361  -0.02405  0.0002514  -0.4558  0.596
6.269e+09  -0.7831  0.1774  -0.03193  -0.02513  -0.04093  0.03897  -0.1889  0.7132
6.27e+09  -0.7036  0.4357  -0.008933  0.01051  -0.05286  0.01791  0.09472  0.7532
6.271e+09  -0.4697  0.6743  -0.0161  -0.02174  0.007856  0.001763  0.3149  0.6669
6.272e+09  -0.2953  0.781  0.01606  0.003781  0.01013  0.02401  0.5283  0.5135
6.274e+09  -0.01616  0.7953  -0.00678  0.006782  -0.005049  -0.0915  0.6938  0.334
6.275e+09  0.3042  0.7662  -0.001749  -0.03638  -0.04966  -0.02358  0.7802  0.06015
6.276e+09  0.5754  0.5758  -0.01499  -0.002927  -0.006912  0.01681  0.7291  -0.2269
6.278e+09  0.7915  0.3871  0.01174  0.01583  0.03953  0.01019  0.6189  -0.4694
6.279e+09  0.8987  0.1524  0.009811  -0.02825  0.06277  0.01637  0.4117  -0.6654
6.28e+09  0.8094  -0.2192  -0.00494  -0.004399  -0.02351  -0.002102  0.1788  -0.772
6.281e+09  0.7484  -0.4456  0.01437  0.003141  -0.008518  -0.0321  -0.1096  -0.7616
6.282e+09  0.5297  -0.6532  0.005447  -0.004055  -0.0002895  0.04176  -0.3779  -0.6796
6.284e+09  0.1875  -0.7574  0.02313  0.01442  0.003825  0.01602  -0.568  -0.5472
6.285e+09  -0.04514  -0.8198  0.009875  -0.004513  0.01344  0.009418  -0.7177  -0.2872
6.286e+09  -0.3281  -0.712  -0.01266  0.001623  0.02805  -0.04336  -0.8149  0.02687
6.288e+09  -0.5582  -0.6055  -0.0005409  0.002395  0.01441  0.003545  -0.7723  0.2773
6.289e+09  -0.7366  -0.3383  0.04435  -0.02387  -0.0107  0.01783  -0.6287  0.4867
6.29e+09  -0.8173  -0.06604  0.02003  0.001687  -0.02333  -0.0004737  -0.4145  0.6912
6.291e+09  -0.826  0.1905  0.04403  -0.008483  0.02396  -0.004889  -0.1106  0.7984
6.292e+09  -0.6764  0.4393  0.01578  0.01157  0.03186  0.06056  0.124  0.8083
6.294e+09  -0.477  0.7114  0.01548  -0.0279  0.006219  -0.01303  0.3854  0.6917
6.295e+09  -0.2301  0.8235  -0.02083  -0.01306  0.0149  -0.002484  0.6232  0.5258
6.296e+09  0.04835  0.8028  -0.01491  -0.002262  0.02102  0.04667  0.756  0.2747
6.298e+09  0.332  0.7429  0.01408  -0.04125  -0.01714  0.02125  0.8282  0.01597
6.299e+09  0.5307  0.5277  -0.01832  -0.02931  0.004684  -0.0513  0.782  -0.3139
6.3e+09  0.7618  0.3423  0.01088  0.02213  -0.01657  0.002893  0.6399  -0.5303
6.301e+09  0.8236  0.06942  0.0006996  0.004187  -0.05031  0.05533  0.4021  -0.7278
6.302e+09  0.7459  -0.1902  0.006559  -0.003939  0.00222  -0.009794  0.1597  -0.8318
6.304e+09  0.6857  -0.4621  -0.001011  -0.0121  0.0273  -0.01309  -0.1131  -0.8476
6.305e+09  0.4241  -0.6805  -0.03154  -0.01508  0.0004092  -0.0102  -0.4175  -0.7312
6.306e+09  0.158  -0.8605  -0.04074  0.03537  0.04396  -0.0127  -0.6556  -0.5545
6.308e+09  -0.1256  -0.8434  0.00561  0.03535  -0.02814  0.0311  -0.8087  -0.2985
6.309e+09  -0.3628  -0.8015  0.01174  -0.005697  0.01171  0.0234  -0.8528  -0.01032
6.31e+09  -0.6218  -0.574  -0.006536  -0.01998  0.01121  -0.00286  -0.8049  0.2697
6.311e+09  -0.8157  -0.2735  0.03576  0.00326  -0.005339  0.01932  -0.6507  0.5846
6.312e+09  -0.8167  -0.04234  0.02626  -0.02967  -0.04636  -0.0001888  -0.4467  0.7556
6.314e+09  -0.7857  0.2564  0.02485  -0.02116  -0.05591  0.02661  -0.1896  0.8716
6.315e+09  -0.6076  0.5062  0.008368  0.01458  -0.02844  0.02194  0.1336  0.8662
6.316e+09  -0.3906  0.7351  -0.001537  0.002814  0.02298  0.003322  0.4252  0.7681
6.318e+09  -0.126  0.8044  -0.03754  0.01741  0.01001  0.008614  0.647  0.5559
6.319e+09  0.14  0.8422  -0.003341  -0.01385  -0.02603  0.01977  0.7985  0.342
6.32e+09  0.4262  0.7252  0.01699  0.01731  0.0386  -0.003592  0.8978  0.02041
6.321e+09  0.7152  0.4921  -0.008575  -0.004258  -0.04123  -0.005689  0.843  -0.2936
6.322e+09  0.8485  0.264  -0.02968  -0.007406  0.02823  -0.04375  0.7018  -0.5674
6.324e+09  0.8452  -0.0362  0.006142  0.01328  0.00686  0.009921  0.4937  -0.8002
6.325e+09  0.7943  -0.3146  0.02034  0.008451  0.006403  -0.0343  0.1542  -0.8789
6.326e+09  0.6198  -0.5562  0.01339  -0.0008779  -0.02926  0.006695  -0.1796  -0.8952
6.328e+09  0.3897  -0.7338  0.04284  -0.02433  0.007584  -0.04807  -0.4314  -0.7989
6.329e+09  0.07231  -0.8479  -0.008923  -0.01809  0.001255  -0.03387  -0.6523  -0.6066
6.33e+09  -0.2576  -0.7936  0.002052  -0.003578  -0.01246  -0.02473  -0.8486  -0.3471
6.331e+09  -0.5023  -0.7485  -0.01602  0.01476  0.0003216  -0.008522  -0.8856  -0.04272
6.332e+09  -0.6918  -0.4922  0.006508  0.01912  0.0067  0.002426  -0.8708  0.2714
6.334e+09  -0.8748  -0.2605  0.003129  -0.01172  0.01719  -0.03527  -0.7146  0.6108
6.335e+09  -0.8474  0.07757  -0.02138  -0.004498  -0.03986  0.05042  -0.4498  0.7913
6.336e+09  -0.7605  0.3963  0.01686  0.01907  0.02461  0.0358  -0.1801  0.8882
6.338e+09  -0.6319  0.6205  -0.02236  -0.002936  -0.009036  0.02333  0.1285  0.8986
6.339e+09  -0.3969  0.841  0.01937  0.01317  -0.008435  -0.03067  0.3907  0.8159
6.34e+09  -0.0879  0.9623  0.003996  0.02389  0.01369  -0.02064  0.6913  0.6341
6.341e+09  0.2693  0.8418  0.01697  0.017  -0.01007  0.006811  0.8381  0.3542
6.342e+09  0.5589  0.7206  -0.01371  -0.06452  0.01071  0.006783  0.9306  0.02292
6.344e+09  0.7316  0.4796  -0.004738  0.002409  -0.004496  0.06244  0.9013  -0.2378
6.345e+09  0.8715  0.145  0.004845  0.0008277  0.0249  -0.01235  0.7505  -0.5582
6.346e+09  0.8689  -0.1519  0.02064  -0.02393  0.01019  -0.05301  0.5118  -0.7782
6.348e+09  0.794  -0.4564  -0.01265  -0.02439  0.02954  -0.03186  0.2052  -0.9086
6.349e+09  0.567  -0.7128  -0.004214  -0.01297  0.04972  -0.01989  -0.09611  -0.9296
6.35e+09  0.2477  -0.8573  0.03126  0.03347  -0.03027  -0.02579  -0.4285  -0.8331
6.351e+09  -0.04122  -0.9062  0.000256  -0.003922  -0.04162  0.02765  -0.6745  -0.6435
6.352e+09  -0.3678  -0.8527  0.01684  -0.008349  -0.03558  0.04296  -0.8443  -0.4079
6.354e+09  -0.575  -0.6353  -0.03074  -0.00926  -0.004389  0.001998  -0.9689  -0.05598
6.355e+09  -0.7814  -0.4675  0.005594  -0.00113  0.01385  0.02416  -0.8998  0.2978
6.356e+09  -0.9407  -0.1038  0.02699  0.02922  0.05713  -0.01123  -0.7421  0.5397
6.358e+09  -0.903  0.2184  -0.004124  0.02459  -0.0107  0.006541  -0.5388  0.7892
6.359e+09  -0.7557  0.4989  -0.01823  0.03305  -0.004241  0.006698  -0.2417  0.9192
6.36e+09  -0.5178  0.734  0.001849  0.03623  -0.01006  -0.00277  0.07637  0.9372
6.361e+09  -0.2722  0.8361  -0.01311  0.009866  -0.005452  0.01325  0.4047  0.8788
6.362e+09  0.1116  0.8977  0.02822  -0.002423  0.03648  0.009878  0.6844  0.6779
6.364e+09  0.3901  0.825  0.02067  -0.003497  -0.01116  -0.003939  0.8412  0.4099
6.365e+09  0.6026  0.5928  -0.005555  -0.0005828  0.0338  0.002569  0.9528  0.1175
6.366e+09  0.8272  0.3829  0.03445  -0.03206  0.01191  -0.01152  0.9129  -0.236
6.368e+09  0.8674  0.09225  0.001801  0.01106  -0.01938  -0.01513  0.7615  -0.5706
6.369e+09  0.8467  -0.2604  0.002103  -0.01512  0.01783  0.02311  0.5149  -0.7643
6.37e+09  0.7182  -0.532  -0.01463  -0.01483  0.02138  0.004007  0.2541  -0.8741
6.371e+09  0.4646  -0.7219  0.02853  -0.01356  -0.009328  -0.01873  -0.1009  -0.9533
6.372e+09  0.1945  -0.8857  0.005088  0.01431  -0.04284  -0.007361  -0.409  -0.8333
6.374e+09  -0.1149  -0.8809  0.002749  0.01507  0.006441  0.007164  -0.6834  -0.6902
6.375e+09  -0.4211  -0.7885  -0.003035  -0.0119  -0.001441  0.0003541  -0.8623  -0.4107
6.376e+09  -0.7063  -0.6211  -0.008196  0.03151  -0.03256  -0.04653  -0.9432  -0.1309
6.378e+09  -0.8419  -0.3351  -0.01162  0.008985  0.06756  -0.01925  -0.893  0.2608
6.379e+09  -0.8722  -0.02321  0.01376  0.01859  -0.02463  0.00377  -0.7894  0.5319
6.38e+09  -0.8435  0.2359  0.005946  0.01518  -0.04316  -0.0153  -0.5627  0.7871
6.381e+09  -0.6896  0.5619  -0.04179  0.008994  0.007433  0.04068  -0.2575  0.8584
6.382e+09  -0.484  0.7679  0.01266  -0.01483  0.01078  0.01641  0.04316  0.9698
6.384e+09  -0.1709  0.9025  -0.005176  -0.04849  -0.0007264  -0.001194  0.3899  0.8081
6.385e+09  0.1114  0.8915  -0.0184  0.01178  0.01845  0.0262  0.6432  0.6423
6.386e+09  0.4207  0.7842  0.0198  -0.01353  0.01972  0.009291  0.8235  0.4424
6.388e+09  0.6875  0.5445  0.00725  -0.006959  0.00846  0.0373  0.9386  0.1633
6.389e+09  0.8355  0.3366  -0.02097  -0.01546  0.01607  0.02631  0.8948  -0.2448
6.39e+09  0.9332  0.04652  -0.02362  -0.01117  -0.02836  -0.005601  0.7747  -0.4953
6.391e+09  0.8493  -0.2899  -0.005966  -0.00159  -0.07086  -0.03412  0.5608  -0.7109
6.392e+09  0.6723  -0.6195  0.002039  0.02496  -0.03739  0.04312  0.2853  -0.8695
6.394e+09  0.3897  -0.763  -0.01916  -0.01243  -0.01356  -0.02873  0.002571  -0.9344
6.395e+09  0.1808  -0.8807  0.02927  -0.04102  0.006724  -0.01837  -0.3146  -0.8814
6.396e+09  -0.1631  -0.846  0.003604  -0.001584  -0.004249  0.00375  -0.6348  -0.6652
6.398e+09  -0.437  -0.7876  0.01121  0.004114  -0.02968  -0.001055  -0.798  -0.4301
6.399e+09  -0.6736  -0.573  0.04877  -0.01535  -0.05843  0.006502  -0.9224  -0.1442
6.4e+09  -0.8289  -0.2911  0.005255  -0.002695  -0.007218  -0.03699  -0.9021  0.1848
6.401e+09  -0.8899  0.03387  -0.01013  -0.0305  -0.03134  -0.03115  -0.8286  0.4393
6.402e+09  -0.8015  0.3392  -0.01815  0.02128  -0.009752  0.001784  -0.6427  0.657
6.404e+09  -0.654  0.6126  -0.01388  0.01141  0.03685  -0.006592  -0.3242  0.8478
6.405e+09  -0.4111  0.8365  -0.01617  -0.002721  0.00263  -0.01459  0.01052  0.9246
6.406e+09  -0.1271  0.8748  0.004066  -0.006924  -0.03183  -0.03712  0.2635  0.879
6.408e+09  0.1807  0.8405  0.02319  0.03371  0.0319  0.01574  0.5857  0.725
6.409e+09  0.4986  0.71  -0.01298  0.01581  0.009106  0.005773  0.8152  0.4797
6.41e+09  0.7126  0.5152  0.006338  -0.003421  -0.004016  -0.005539  0.9045  0.1479
6.411e+09  0.8515  0.2906  -0.01862  0.02584  0.04295  -0.04606  0.8706  -0.1359
6.412e+09  0.8715  -0.03505  0.01428  -0.02462  -0.01025  -0.03369  0.7482  -0.4211
6.414e+09  0.8021  -0.3491  0.01749  0.005672  0.02617  -0.03945  0.6106  -0.683
6.415e+09  0.6484  -0.5876  0.009804  -0.0424  0.0187  0.01853  0.3415  -0.8236
6.416e+09  0.3966  -0.7933  -0.04169  -0.0292  -0.02874  0.01436  0.02146  -0.8778
6.418e+09  0.1302  -0.9228  -0.01503  -0.01441  0.02079  -0.03592  -0.2932  -0.872
6.419e+09  -0.2133  -0.8624  -0.002944  0.01727  0.01111  -0.01537  -0.5525  -0.6754
6.42e+09  -0.5068  -0.7354  0.001045  0.01606  -0.008742  -0.02473  -0.7364  -0.5034
6.421e+09  -0.7707  -0.5007  0.001568  0.01997  -0.002647  0.0321  -0.8601  -0.1707
6.422e+09  -0.903  -0.2527  -0.0005781  -0.032  -0.02924  -0.01029  -0.8863  0.0467
6.424e+09  -0.8788  0.06568  0.01964  0.0004035  -0.03446  -0.03401  -0.8253  0.43
6.425e+09  -0.8032  0.3809  0.0152  -2.319e-05  0.007831  0.008504  -0.6076  0.6254
6.426e+09  -0.5928  0.6053  0.01296  -0.01098  0.01041  0.02404  -0.3647  0.8053
6.428e+09  -0.3658  0.7804  0.0126  -0.0222  -0.01227  0.02032  -0.0688  0.8728
6.429e+09  -0.05984  0.8619  0.04221  0.01088  -0.004345  -0.02431  0.2409  0.8441
6.43e+09  0.2619  0.8537  0.005109  0.06491  -0.03019  0.02832  0.5232  0.7234
6.431e+09  0.5184  0.7158  0.02175  -0.04118  -0.02913  -0.07793  0.7124  0.4956
6.432e+09  0.7198  0.4884  0.03333  -0.01285  0.02463  0.004471  0.8208  0.2049
6.434e+09  0.9012  0.2376  -0.05658  0.03178  0.07132  -0.01096  0.8843  -0.1012
6.435e+09  0.9438  -0.04478  0.02418  -0.0009059  0.02679  0.03977  0.7424  -0.3472
6.436e+09  0.8419  -0.3497  0.0165  -0.02518  0.0006701  -0.01605  0.5646  -0.6243
6.438e+09  0.6178  -0.609  0.0434  0.001388  0.03308  0.01491  0.3562  -0.8065
6.439e+09  0.4153  -0.833  0.0568  -0.01198  -0.06792  -0.02236  0.04892  -0.837
6.44e+09  0.05383  -0.8958  0.02106  -0.0156  -0.001605  0.01735  -0.2555  -0.8485
6.441e+09  -0.2159  -0.881  -0.01059  -0.02861  0.01762  -6.692e-05  -0.5095  -0.6634
6.442e+09  -0.4805  -0.676  -0.006251  0.0008698  -0.01735  0.02426  -0.6898  -0.4552
6.444e+09  -0.7128  -0.4875  0.04694  -0.01325  0.00863  -0.03438  -0.8441  -0.2267
6.445e+09  -0.8595  -0.1813  -0.004339  0.04532  -0.009363  -0.005684  -0.913  0.09813
6.446e+09  -0.9886  0.08026  0.01712  -0.02237  0.02113  -0.01079  -0.753  0.3353
6.448e+09  -0.8078  0.383  -0.02946  0.00446  0.016  -0.04078  -0.5746  0.6225
6.449e+09  -0.6081  0.6441  0.03495  -0.03388  -0.01377  0.01703  -0.336  0.7343
6.45e+09  -0.3797  0.7599  0.000188  -0.01784  -0.04594  0.05035  -0.09604  0.8358
6.451e+09  -0.08384  0.8891  -0.04657  -0.02442  0.00456  -0.03196  0.2325  0.7955
6.452e+09  0.2657  0.8296  0.007381  0.01236  0.07194  0.03969  0.5027  0.6763
6.454e+09  0.515  0.6582  -0.002682  -0.03758  0.000447  0.03707  0.6883  0.4323
6.455e+09  0.7883  0.521  -0.0256  0.01131  0.003336  0.0119  0.7586  0.1982
6.456e+09  0.8877  0.2159  0.001813  0.006947  0.001949  0.007816  0.8099  -0.05505
6.458e+09  0.9053  -0.1178  -0.01256  -0.0001336  -0.005786  0.02904  0.7205  -0.3144
6.459e+09  0.8755  -0.3825  0.01008  -0.009434  0.02258  -0.01838  0.585  -0.5873
6.46e+09  0.5597  -0.6446  -0.03308  -0.005248  -0.02418  -0.01773  0.3359  -0.7076
6.461e+09  0.3269  -0.8019  -0.01644  0.01073  -0.009068  -0.04162  0.1075  -0.7808
6.462e+09  0.09083  -0.941  -0.01354  -0.002448  0.01738  0.02948  -0.1973  -0.7508
6.464e+09  -0.2594  -0.9026  -0.02094  -0.0004081  -0.01516  -0.03192  -0.4612  -0.644
6.465e+09  -0.6376  -0.7653  0.03151  0.01596  0.03681  0.0521  -0.6782  -0.4821
6.466e+09  -0.7607  -0.5041  -0.04556  -0.04979  0.01513  0.01828  -0.8035  -0.2447
6.468e+09  -0.8738  -0.2275  -0.03737  0.02229  0.0186  0.003726  -0.776  0.09264
6.469e+09  -0.9132  0.1275  -0.01601  -0.02145  -0.002655  -0.05127  -0.7191  0.3221
6.47e+09  -0.818  0.4659  0.0174  -0.02469  0.00943  0.02034  -0.5899  0.5755
6.471e+09  -0.6488  0.7394  0.05917  0.03868  0.04767  0.005489  -0.387  0.7037
6.472e+09  -0.3366  0.8329  0.03635  0.01855  -0.003026  0.038  -0.05186  0.775
6.474e+09  -0.06718  0.9434  -0.02423  0.004769  -0.01346  -0.01379  0.1807  0.7519
6.475e+09  0.2792  0.9021  -0.02193  0.001504  0.01841  -0.01937  0.4846  0.6474
6.476e+09  0.5606  0.7262  0.004359  -0.01692  0.008073  0.0009702  0.6595  0.4858
6.478e+09  0.8045  0.5561  0.007104  -0.005808  0.007075  -0.001083  0.79  0.2061
6.479e+09  0.9406  0.1954  0.0116  0.0277  0.04068  0.0007132  0.7984  -0.07256
6.48e+09  0.8757  -0.2087  0.04242  -0.0141  0.03287  0.004442  0.6822  -0.3498
6.481e+09  0.8321  -0.5081  -0.04281  0.01227  0.003415  -0.02227  0.5505  -0.5766
6.482e+09  0.6565  -0.6946  -0.01919  0.004401  0.01295  0.03339  0.3601  -0.7205
6.484e+09  0.2859  -0.9037  0.002193  0.004018  0.01834  0.00608  0.05022  -0.7729
6.485e+09  0.02876  -0.9632  0.009461  0.0103  -0.03691  -0.05242  -0.2388  -0.7685
6.486e+09  -0.3479  -0.8515  -0.01379  -0.04017  0.0215  -0.001359  -0.492  -0.6314
6.488e+09  -0.6531  -0.6873  0.01636  0.03076  -0.0935  0.0006746  -0.643  -0.4563
6.489e+09  -0.7617  -0.4697  0.004693  -0.01353  0.01993  0.0199  -0.7807  -0.1462
6.49e+09  -0.9436  -0.1318  -0.02337  0.02342  -0.007236  0.0009029  -0.7793  0.06473
6.491e+09  -0.9096  0.1227  -0.01401  -0.04323  -0.0548  -0.02793  -0.6754  0.3349
6.492e+09  -0.789  0.4665  -0.0164  0.01069  0.0009623  -0.002698  -0.5436  0.5328
6.494e+09  -0.5807  0.7132  0.0406  0.01827  -0.02819  0.0203  -0.3536  0.7161
6.495e+09  -0.3518  0.8682  0.02564  -0.00628  -0.02106  0.01099  -0.01375  0.7503
6.496e+09  0.0371  0.9255  -0.01136  -0.008597  0.03027  -0.0255  0.224  0.7373
6.498e+09  0.3387  0.8091  -0.003741  -0.01031  -0.01209  0.01107  0.4777  0.6223
6.499e+09  0.62  0.7256  0.03587  -0.007174  0.01656  -0.001763  0.6454  0.4321
6.5e+09  0.8369  0.4298  0.0002246  0.002891  -0.01539  0.04225  0.7148  0.121
6.501e+09  0.9569  0.1603  0.0005604  0.01479  -0.02111  0.005593  0.771  -0.08027
6.502e+09  0.9323  -0.2168  0.007488  0.005463  0.04303  -0.02355  0.6612  -0.3485
6.504e+09  0.8022  -0.5381  -0.00636  0.0106  0.008203  0.02634  0.5433  -0.561
6.505e+09  0.5504  -0.785  0.000868  -0.02697  -0.02283  0.05073  0.276  -0.7045
6.506e+09  0.2359  -0.9098  0.001201  -0.004363  0.03374  0.01487  0.01041  -0.7697
6.508e+09  -0.03729  -0.9394  0.02091  -0.02191  0.02705  -0.06699  -0.2481  -0.7291
6.509e+09  -0.3755  -0.8796  0.01399  0.02403  -0.01636  0.00915  -0.4944  -0.5845
6.51e+09  -0.651  -0.7017  -0.01036  0.006918  -0.007207  0.009096  -0.6508  -0.3737
6.511e+09  -0.8194  -0.4082  0.01941  0.02292  0.01406  -0.008983  -0.7096  -0.1356
6.512e+09  -0.9443  -0.07105  -0.04514  0.04336  -0.07377  -0.03493  -0.7743  0.1139
6.514e+09  -0.9867  0.2056  -0.00289  0.0007054  0.03577  0.003301  -0.6552  0.3732
6.515e+09  -0.7719  0.5452  0.01036  0.01019  0.04556  0.01235  -0.4618  0.6142
6.516e+09  -0.5502  0.7878  -0.006545  -0.01261  -0.02674  0.007715  -0.2608  0.7243
6.518e+09  -0.2179  0.9151  0.02475  -0.01305  0.01187  0.02339  -0.02062  0.7477
6.519e+09  0.1834  0.9414  -0.03745  -0.01311  -0.005151  -0.01091  0.2801  0.7316
6.52e+09  0.4381  0.8585  0.0459  -0.003153  -0.01775  -0.03927  0.4925  0.5777
6.521e+09  0.7147  0.618  -0.02067  0.0262  0.01227  0.004799  0.6608  0.3344
6.522e+09  0.89  0.4121  -0.01723  -0.02187  -0.003796  0.06192  0.7548  0.09977
6.524e+09  0.965  0.03289  0.02762  -0.04127  -0.02421  0.01902  0.69  -0.1637
6.525e+09  0.8731  -0.3047  0.01694  0.0003551  0.02968  0.01677  0.6  -0.3812
6.526e+09  0.7427  -0.5608  -0.01715  0.01515  0.03073  -0.05714  0.4384  -0.5967
6.528e+09  0.5087  -0.8559  0.002491  -0.03649  -0.004976  0.04185  0.2138  -0.6971
6.529e+09  0.1753  -0.9625  0.0007822  -0.02383  0.01643  -0.04729  -0.08879  -0.6819
6.53e+09  -0.1681  -0.9743  0.01031  0.04603  0.04127  -0.008166  -0.2853  -0.5959
6.531e+09  -0.5016  -0.8666  0.008389  -0.009026  0.0154  0.02853  -0.4448  -0.4772
6.532e+09  -0.7158  -0.6258  0.0081  -0.0002871  0.01153  0.008336  -0.5968  -0.2679
6.534e+09  -0.9462  -0.2828  0.02314  0.01277  0.01964  0.04842  -0.6191  -0.08764
6.535e+09  -1.001  0.009481  -0.01055  -0.005832  -0.01107  -0.03097  -0.6219  0.09899
6.536e+09  -0.8422  0.3958  0.009944  -0.005488  -0.007537  0.004983  -0.5823  0.3426
6.538e+09  -0.7065  0.7052  -0.03497  -0.006589  -0.007352  -0.004204  -0.429  0.4589
6.539e+09  -0.4124  0.8697  -0.005456  -0.0009582  -0.01915  0.03057  -0.2548  0.6169
6.54e+09  -0.1226  0.9789  0.01908  0.0172  -0.01723  0.005383  -0.05261  0.6689
6.541e+09  0.2914  0.9278  -0.03105  -0.02947  -0.03001  0.00455  0.2386  0.6623
6.542e+09  0.6552  0.7379  0.03176  0.0004635  -0.04407  0.007745  0.4108  0.5498
6.544e+09  0.7978  0.5126  0.02624  0.004217  0.01547  0.002662  0.6209  0.3769
6.545e+09  0.9269  0.2405  -0.005475  0.01287  0.01951  0.03917  0.7051  0.173
6.546e+09  0.9425  -0.1247  -0.001046  -0.02144  -0.03133  0.01843  0.7601  -0.0595
6.548e+09  0.8619  -0.4592  0.01047  -0.0137  -0.004078  -0.01003  0.6403  -0.3377
6.549e+09  0.6419  -0.7039  -0.01843  -0.02646  0.02786  0.008589  0.5064  -0.5395
6.55e+09  0.3943  -0.865  0.0003335  0.007837  -0.03425  0.01682  0.2723  -0.6779
