# Hz S RI R 50
6.25e+09  -0.3078  0.8033  -0.01558  -0.02978  0.03119  0.03092  0.1617  0.4923
6.251e+09  -0.07173  0.8657  0.00827  -0.001205  -0.02391  -0.03141  0.3388  0.391
6.252e+09  0.2662  0.8494  0.008816  -0.03556  -0.0594  0.01315  0.5365  0.2479
6.254e+09  0.514  0.6116  -0.0178  0.004073  -0.0219  -0.03554  0.6084  0.006859
6.255e+09  0.7025  0.443  -0.01258  0.0263  0.04605  -0.01464  0.5683  -0.2376
6.256e+09  0.8297  0.1548  -0.02587  0.01189  -0.00613  -0.02713  0.4949  -0.4447
6.258e+09  0.844  -0.1493  0.001658  0.004582  -0.001618  -0.03268  0.3131  -0.6128
6.259e+09  0.7398  -0.4418  -0.01621  0.002759  -0.01365  0.009673  0.0673  -0.6611
6.26e+09  0.5454  -0.6355  0.01653  -0.02178  -0.0003914  0.001765  -0.206  -0.6777
6.261e+09  0.2689  -0.7951  0.00184  -0.01496  -0.01369  0.004418  -0.4395  -0.5287
6.262e+09  0.04938  -0.819  0.01438  -0.002389  0.02634  -0.001344  -0.6243  -0.3465
6.264e+09  -0.2753  -0.7602  0.04904  -0.001797  -0.04828  0.03504  -0.7221  -0.0729
6.265e+09  -0.5108  -0.6533  -0.004869  0.02237  0.02435  -0.007132  -0.7337  0.1534
6.266e+09  -0.7838  -0.4711  -0.01354  -0.03854  -0.02224  -0.05586  -0.6259  0.396
6.268e+09  -0.7656  -0.1538  -0.0009281  0.003549  -0.04335  0.02216  -0.4246  0.5982
6.269e+09  -0.8181  0.1025  0.002794  0.02132  -0.04552  -0.04006  -0.1763  0.7528
6.27e+09  -0.7038  0.3461  0.0184  0.0009484  0.02212  0.03816  0.05584  0.7304
6.271e+09  -0.5411  0.6783  -0.006159  0.04285  -0.0001153  -0.06153  0.3389  0.6453
6.272e+09  -0.2706  0.8235  0.00213  0.01731  -0.05112  -0.003582  0.552  0.5246
6.274e+09  0.001831  0.8423  -0.01387  -0.00257  -0.02921  0.05571  0.6875  0.3152
6.275e+09  0.3284  0.7659  0.03339  -0.01532  -0.01029  -0.009118  0.7651  0.04231
6.276e+09  0.5582  0.6738  0.02645  0.03102  0.03251  -0.03637  0.748  -0.2226
6.278e+09  0.7224  0.3908  0.00629  -0.007171  0.0243  -0.02422  0.5791  -0.4732
6.279e+09  0.777  0.1638  0.01452  -0.0193  0.01752  -0.01002  0.416  -0.6418
6.28e+09  0.8222  -0.1754  -0.003451  0.002565  -0.02329  0.01412  0.154  -0.7237
6.281e+09  0.7783  -0.4329  0.02129  0.001941  0.02486  -0.04343  -0.1319  -0.7522
6.282e+09  0.5205  -0.6463  -0.004586  0.0337  0.01389  -0.01393  -0.3797  -0.695
6.284e+09  0.2577  -0.7774  0.01612  -0.005695  0.0714  -0.04624  -0.5945  -0.5078
6.285e+09  -0.0001626  -0.8371  -0.02179  -0.02865  -0.008645  -0.09455  -0.7709  -0.2872
6.286e+09  -0.3837  -0.782  0.006022  -0.004459  -0.01412  -0.01003  -0.7825  -8.255e-05
6.288e+09  -0.5314  -0.5887  -0.04309  -0.01385  -0.02835  -0.04892  -0.8023  0.2588
6.289e+09  -0.7246  -0.37  0.0107  0.01261  -0.01659  0.01179  -0.6395  0.4825
6.29e+09  -0.8354  -0.1771  0.0002766  0.03768  0.04937  -0.04082  -0.4093  0.7086
6.291e+09  -0.8387  0.1633  0.01298  -0.003639  -0.02766  -0.00221  -0.1365  0.8024
6.292e+09  -0.7229  0.4816  0.02234  0.01587  0.02804  0.02101  0.1351  0.8136
6.294e+09  -0.4709  0.6648  -0.01549  0.008856  0.02833  0.0566  0.3967  0.7109
6.295e+09  -0.2843  0.8121  -0.00654  -0.04565  -0.009387  -0.06258  0.6223  0.54
6.296e+09  0.05587  0.8415  -0.00792  0.0008953  -0.024  0.008631  0.7651  0.2985
6.298e+09  0.3426  0.8235  -0.01626  0.02113  0.02843  -0.04549  0.8137  0.007705
6.299e+09  0.6471  0.6231  -0.01688  -0.001631  0.01783  0.03678  0.7857  -0.2804
6.3e+09  0.7494  0.3314  -0.01792  0.009124  0.008421  0.04611  0.6472  -0.5026
6.301e+09  0.8503  0.05702  0.007443  -0.02101  0.07725  0.02234  0.4366  -0.7298
6.302e+09  0.8676  -0.1796  0.001628  0.006668  -0.06082  0.01828  0.1486  -0.8069
6.304e+09  0.7684  -0.4903  -0.01215  -0.03309  0.03179  -0.02703  -0.1378  -0.8377
6.305e+09  0.477  -0.6459  0.0156  -0.008513  0.02253  0.02852  -0.436  -0.7597
6.306e+09  0.2174  -0.8021  -0.01906  -0.01309  -0.01742  0.01586  -0.6629  -0.544
6.308e+09  -0.07203  -0.824  0.0234  -0.03669  -0.01616  0.01539  -0.8  -0.288
6.309e+09  -0.3278  -0.7429  -0.02072  0.01012  0.01913  0.03003  -0.8626  0.02368
6.31e+09  -0.6116  -0.5564  0.0175  0.01275  -0.05681  0.001306  -0.8137  0.292
6.311e+09  -0.7806  -0.3403  -0.02674  -0.01501  0.01424  -0.0295  -0.6363  0.554
6.312e+09  -0.8521  -0.0554  0.02384  0.01895  0.01487  -0.01351  -0.4513  0.7493
6.314e+09  -0.819  0.236  0.02919  -0.004863  -0.02957  -0.01125  -0.1166  0.8543
6.315e+09  -0.7086  0.4947  -0.0008572  -0.03489  0.01525  -0.01561  0.1311  0.8697
6.316e+09  -0.433  0.6961  -0.002096  0.0385  0.002146  0.01417  0.4539  0.7609
6.318e+09  -0.174  0.8522  0.01494  0.03416  -0.003562  0.0198  0.637  0.5627
6.319e+09  0.137  0.8332  -0.00386  -0.01081  0.01244  -0.03872  0.8454  0.3292
6.32e+09  0.4492  0.7188  -0.002893  0.02267  -0.005274  -0.04983  0.8969  0.01982
6.321e+09  0.6375  0.5693  -0.02754  -0.009034  -0.0285  0.01849  0.8635  -0.3013
6.322e+09  0.8402  0.2717  -0.03027  -0.0005047  -0.07009  0.001188  0.6735  -0.5402
6.324e+09  0.8161  0.01079  -0.03586  -0.02332  0.04824  0.04671  0.4657  -0.7739
6.325e+09  0.8078  -0.3061  -0.003952  0.02203  -0.03129  0.02535  0.1831  -0.8758
6.326e+09  0.6639  -0.5872  -0.0205  0.001998  -0.004939  -0.05857  -0.1139  -0.9009
6.328e+09  0.4319  -0.7539  0.003543  0.03096  0.03488  -0.04438  -0.4353  -0.7731
6.329e+09  0.1371  -0.851  -0.02545  0.02953  -0.03862  0.005589  -0.6898  -0.5671
6.33e+09  -0.2043  -0.896  -0.001291  -0.01275  -0.04379  -0.02073  -0.8515  -0.3386
6.331e+09  -0.4078  -0.6867  -0.004441  -0.02509  -0.01209  -0.00444  -0.9262  -0.01502
6.332e+09  -0.6974  -0.5203  -0.03792  0.01642  -0.01813  0.01626  -0.8813  0.2693
6.334e+09  -0.7794  -0.2333  0.009833  0.01529  0.01721  0.01711  -0.7209  0.5772
6.335e+09  -0.8649  0.06659  0.004635  0.008963  -0.0004078  0.02164  -0.5063  0.7702
6.336e+09  -0.8179  0.3999  -0.02593  -0.021  -0.02407  0.02147  -0.1961  0.8893
6.338e+09  -0.6504  0.6417  -0.00955  0.02298  -0.01431  -0.02482  0.1495  0.8956
6.339e+09  -0.3816  0.7924  0.02901  0.003035  -0.003791  -0.007701  0.4334  0.8395
6.34e+09  -0.09915  0.8846  0.001656  -0.002204  0.07017  -0.0198  0.6879  0.6335
6.341e+09  0.2699  0.845  -0.04857  0.01825  0.004127  -0.01414  0.8416  0.3191
6.342e+09  0.5393  0.7504  0.01082  0.02604  -0.04538  0.01486  0.9714  0.02854
6.344e+09  0.724  0.4519  0.01892  0.01577  -0.003659  0.01674  0.9213  -0.2406
6.345e+09  0.8704  0.225  -0.024  0.01345  -0.01916  0.002654  0.7461  -0.5554
6.346e+09  0.9103  -0.09346  -0.02021  0.006334  0.001871  0.007429  0.5014  -0.7934
6.348e+09  0.8034  -0.4205  -0.0159  -0.01612  -0.001011  0.02022  0.1999  -0.8903
6.349e+09  0.6155  -0.631  -0.003133  -0.01869  -0.009487  0.007898  -0.1314  -0.921
6.35e+09  0.3332  -0.8443  0.01919  0.0445  -0.02717  -0.006618  -0.4085  -0.8309
6.351e+09  0.02189  -0.846  -0.01696  -0.002859  -0.00667  -0.02768  -0.7183  -0.6777
6.352e+09  -0.282  -0.8448  0.01816  0.02792  -0.008578  0.02432  -0.8843  -0.4102
6.354e+09  -0.5927  -0.6523  0.02126  0.06588  0.02744  0.03368  -0.9522  -0.0718
6.355e+09  -0.7572  -0.4175  0.02549  0.008848  -0.01856  0.05202  -0.9097  0.2367
6.356e+09  -0.9078  -0.1859  -0.0006003  -0.01209  0.003392  0.006741  -0.7579  0.5425
6.358e+09  -0.8788  0.1624  -0.03854  -0.0105  -0.03725  0.0442  -0.5229  0.752
6.359e+09  -0.7613  0.4326  0.0008149  -0.01217  0.04281  -0.03884  -0.2464  0.9531
6.36e+09  -0.5875  0.7238  0.01274  -0.01181  -0.01721  -0.02678  0.106  0.9263
6.361e+09  -0.262  0.8801  0.0383  9.317e-05  -0.01603  -0.02253  0.4258  0.8675
6.362e+09  0.005644  0.9113  -0.02549  -0.01472  0.03407  0.00346  0.6924  0.6974
6.364e+09  0.3062  0.7988  0.004213  -0.02695  0.005437  0.05413  0.8624  0.4111
6.365e+09  0.5925  0.6752  -0.007009  0.007776  -0.01049  -0.001188  0.9863  0.06235
6.366e+09  0.7533  0.4201  0.005674  -0.01043  0.009347  -0.004462  0.9649  -0.2636
6.368e+09  0.8755  0.06253  0.02142  0.0004702  -0.01879  0.03487  0.7892  -0.5271
6.369e+09  0.8928  -0.2113  -0.01638  0.0163  -0.005208  0.009885  0.5141  -0.7937
6.37e+09  0.7793  -0.5016  -0.01126  0.03262  -0.02169  -0.01077  0.2753  -0.9366
6.371e+09  0.5391  -0.7427  -0.04522  -0.01553  -0.02613  -0.006988  -0.0849  -0.9219
6.372e+09  0.1634  -0.8339  -0.004679  0.002266  0.02118  0.02809  -0.4176  -0.89
6.374e+09  -0.06502  -0.9361  -0.01488  -0.006842  0.02093  0.01892  -0.6877  -0.6684
6.375e+09  -0.3793  -0.829  -0.01915  -0.0006476  0.01573  -0.008475  -0.8513  -0.3703
6.376e+09  -0.6445  -0.6346  0.01119  0.01017  0.01391  0.01603  -0.9464  -0.0511
6.378e+09  -0.8357  -0.4033  -0.02304  -0.02873  0.01186  -0.02847  -0.9217  0.2307
6.379e+09  -0.9004  -0.05345  -0.0221  0.02276  0.01392  -0.01627  -0.7706  0.5049
6.38e+09  -0.8757  0.315  -0.01151  0.003062  -0.017  0.03106  -0.5682  0.7555
6.381e+09  -0.6789  0.5311  -0.02776  -0.005918  -0.02423  -0.03462  -0.2125  0.9028
6.382e+09  -0.4773  0.767  0.02417  0.006034  0.008995  0.0141  0.05694  0.954
6.384e+09  -0.2328  0.859  -0.01637  0.02774  0.01276  -0.05292  0.3624  0.8872
6.385e+09  0.0901  0.8841  -0.03594  0.02614  -0.02939  -0.01599  0.6482  0.6728
6.386e+09  0.3964  0.8032  0.00392  0.001922  -0.04037  -0.02889  0.8558  0.3975
6.388e+09  0.6563  0.5767  0.007834  -0.03016  -0.02333  0.007131  0.8865  0.1428
6.389e+09  0.8573  0.3162  0.01373  -0.03736  0.01532  0.01714  0.9236  -0.2127
6.39e+09  0.8406  0.04434  -0.004198  -0.009687  -0.03777  -0.0199  0.7776  -0.4931
6.391e+09  0.8462  -0.2719  -0.003966  0.03761  -0.01236  0.02832  0.6029  -0.7057
6.392e+09  0.7107  -0.5476  0.0008069  -0.008276  -0.0154  -0.03322  0.3226  -0.8747
6.394e+09  0.4503  -0.784  -0.01538  0.02287  -0.03249  -0.01047  -0.08798  -0.8711
6.395e+09  0.1951  -0.8969  0.02094  0.02793  0.05216  0.007361  -0.3266  -0.8236
6.396e+09  -0.1603  -0.8845  0.04159  0.04091  -0.04024  0.04376  -0.6242  -0.6665
6.398e+09  -0.4408  -0.7851  -0.001094  0.00842  -0.02266  -0.02258  -0.781  -0.4546
6.399e+09  -0.6772  -0.6027  -0.00555  0.01694  -0.02278  -0.01107  -0.9035  -0.1107
6.4e+09  -0.841  -0.3048  0.01914  0.0206  -0.03256  0.01311  -0.9505  0.1621
6.401e+09  -0.8406  0.02902  0.02715  -0.01175  0.01298  -0.01256  -0.7813  0.4514
6.402e+09  -0.8237  0.255  0.0025  -0.04454  0.001534  -0.04232  -0.6271  0.6914
6.404e+09  -0.6482  0.5479  0.009739  0.03105  -0.02223  0.03635  -0.338  0.8718
6.405e+09  -0.4321  0.7752  0.03963  0.005398  0.008302  0.03674  0.0302  0.9331
6.406e+09  -0.1696  0.8807  -0.05221  0.004535  0.08064  0.008912  0.3038  0.8451
6.408e+09  0.1744  0.8769  0.03142  0.004565  0.01986  0.02716  0.5608  0.6913
6.409e+09  0.4199  0.6921  0.03611  0.0064  0.0117  -0.02205  0.777  0.4531
6.41e+09  0.661  0.5137  -0.01093  0.03315  0.01018  -0.0286  0.896  0.1321
6.411e+09  0.8716  0.2659  -0.04459  0.01289  -0.02718  0.01165  0.8829  -0.1142
6.412e+09  0.9044  -0.006136  0.01723  -0.004372  -0.01152  -0.03085  0.7744  -0.4303
6.414e+09  0.8258  -0.3873  -0.01396  -0.006778  -0.0072  0.03027  0.6349  -0.6612
6.415e+09  0.6646  -0.597  -0.01874  0.02602  -0.01938  -0.01671  0.3093  -0.8849
6.416e+09  0.4518  -0.7287  0.009787  -0.005295  0.02636  -0.008619  0.03922  -0.9229
6.418e+09  0.08596  -0.8443  0.01186  -0.02852  -0.05421  0.03117  -0.2957  -0.8079
6.419e+09  -0.2169  -0.8382  -0.02082  -0.01821  0.03415  0.01912  -0.5127  -0.6724
6.42e+09  -0.4786  -0.7845  0.008774  0.005327  -0.01125  0.001093  -0.793  -0.493
6.421e+09  -0.7759  -0.5688  -0.02436  -0.02195  -0.009341  -0.03788  -0.8234  -0.2596
6.422e+09  -0.7734  -0.2282  -0.04438  -0.01895  -0.03654  0.01625  -0.8985  0.06972
6.424e+09  -0.8807  0.05979  0.01602  -0.004542  0.05489  0.02343  -0.7988  0.4127
6.425e+09  -0.8258  0.3377  0.006466  0.03107  0.02447  0.02771  -0.6322  0.6324
6.426e+09  -0.6541  0.5876  -0.02303  0.01911  -0.000354  -0.02156  -0.3416  0.7722
6.428e+09  -0.3835  0.8068  -0.001598  -0.01239  0.04223  -0.01811  -0.03731  0.8841
6.429e+09  -0.1266  0.8557  0.03552  0.01212  0.02492  0.01464  0.2647  0.8147
6.43e+09  0.2172  0.8788  -0.055  -0.004321  0.009212  -0.007787  0.5257  0.7
6.431e+09  0.526  0.7272  0.008556  0.01046  0.02009  -0.02537  0.7215  0.4694
6.432e+09  0.701  0.5325  0.001043  0.007473  0.005313  0.009951  0.8889  0.2258
6.434e+09  0.8201  0.235  0.00583  -0.002955  0.002889  -0.002786  0.8739  -0.02502
6.435e+09  0.8954  -0.06639  0.03455  0.002567  0.01245  0.01854  0.7807  -0.3836
6.436e+09  0.8175  -0.3588  0.01048  0.02465  -0.009737  0.003958  0.5591  -0.6219
6.438e+09  0.6501  -0.6236  0.002516  0.03992  -0.004628  -0.01484  0.3494  -0.8288
6.439e+09  0.4105  -0.8015  0.047  0.007451  0.004786  0.01318  0.07945  -0.834
6.44e+09  0.1058  -0.8484  -0.003159  0.01317  -0.01945  0.004386  -0.2728  -0.8616
6.441e+09  -0.2063  -0.8568  -0.01713  -0.01892  0.05192  -0.0212  -0.5103  -0.711
6.442e+09  -0.4656  -0.7808  0.002481  0.0299  -0.02431  -0.01437  -0.7495  -0.4856
6.444e+09  -0.729  -0.4914  0.04411  0.01444  -0.03433  -0.001376  -0.8147  -0.1636
6.445e+09  -0.8321  -0.2744  0.02292  0.005631  0.00167  -0.02928  -0.8788  0.08004
6.446e+09  -0.9015  0.07601  0.01744  0.003144  -0.004601  -0.008516  -0.7553  0.3844
6.448e+09  -0.7907  0.4113  0.001644  -0.01097  0.004026  0.01305  -0.6113  0.6441
6.449e+09  -0.5994  0.6289  -0.01609  -0.01248  0.007319  -0.02194  -0.3498  0.7345
6.45e+09  -0.3599  0.8297  -0.01882  0.0022  -0.006906  0.007083  -0.08345  0.817
6.451e+09  -0.1286  0.9412  0.04881  -0.01597  -0.01715  0.05763  0.2209  0.7938
6.452e+09  0.2481  0.8269  0.04079  -0.003446  -0.0003895  0.0392  0.477  0.6627
6.454e+09  0.5177  0.7032  0.0004978  0.00536  -0.007344  -0.0003291  0.6952  0.494
6.455e+09  0.7631  0.5067  0.002685  -0.01592  -0.02869  0.01737  0.8294  0.216
6.456e+09  0.8335  0.1936  -0.01811  -0.008692  0.02144  0.01717  0.8242  -0.09212
6.458e+09  0.891  -0.07401  0.006168  -0.002845  0.02458  0.02596  0.7813  -0.3832
6.459e+09  0.8166  -0.429  0.0411  0.01053  -0.0232  -0.005852  0.578  -0.6049
6.46e+09  0.5932  -0.6078  -0.01217  -0.02781  -0.03086  -0.04203  0.3297  -0.7531
6.461e+09  0.3723  -0.8059  -0.01956  0.005201  0.02437  -0.0224  0.08492  -0.7979
6.462e+09  0.07686  -0.9048  0.01793  -0.0319  -0.0258  -0.03804  -0.2098  -0.7459
6.464e+09  -0.1803  -0.8669  0.02475  -0.02003  0.01163  -0.01595  -0.4606  -0.6643
6.465e+09  -0.5518  -0.704  -0.008231  -0.012  0.04404  0.05102  -0.6557  -0.4544
6.466e+09  -0.7192  -0.5104  0.01482  0.01414  -0.03655  -0.01135  -0.7592  -0.1778
6.468e+09  -0.9211  -0.2271  0.02976  0.001447  -0.05385  0.02632  -0.7814  0.06987
6.469e+09  -0.8423  0.05986  0.01305  0.04267  -0.0227  -0.01517  -0.7666  0.3595
6.47e+09  -0.7726  0.3803  0.0002463  0.04386  -0.01419  0.01989  -0.5695  0.5569
6.471e+09  -0.5973  0.6559  0.02468  -0.01681  -0.04172  0.002896  -0.3441  0.7286
6.472e+09  -0.3824  0.7962  -0.02986  -0.008714  0.008586  0.04873  -0.08022  0.8262
6.474e+09  -0.02704  0.8943  -0.04259  0.001357  0.003894  -0.05566  0.1643  0.7335
6.475e+09  0.2597  0.9157  -0.01889  0.009738  0.05057  -0.007895  0.4505  0.6342
6.476e+09  0.5824  0.75  -0.05157  -0.02212  -0.02474  -0.05584  0.6605  0.4483
6.478e+09  0.756  0.507  0.00208  0.007443  -0.05977  0.03572  0.7425  0.2079
6.479e+09  0.8949  0.1863  0.03859  -0.008767  0.007773  -0.01689  0.8229  -0.09543
6.48e+09  0.9144  -0.107  0.03743  -0.01565  -0.0196  -0.04416  0.7326  -0.3496
6.481e+09  0.8311  -0.4191  0.02582  -0.03139  -0.01193  -0.01891  0.5622  -0.5381
6.482e+09  0.6438  -0.686  -0.03245  0.005554  0.01982  -0.01331  0.3195  -0.6876
6.484e+09  0.3415  -0.8574  0.03498  0.03157  0.007075  -0.01099  0.08641  -0.7702
6.485e+09  0.02196  -0.9515  -0.02588  -0.0303  -0.01753  -0.06208  -0.1863  -0.7366
6.486e+09  -0.2942  -0.9253  0.004058  0.01827  0.01291  0.002117  -0.4935  -0.6285
6.488e+09  -0.6186  -0.7572  0.02726  0.04948  -0.00961  -0.02696  -0.6194  -0.4328
6.489e+09  -0.8172  -0.5022  0.01254  -0.001304  -0.01651  -0.0007194  -0.748  -0.1568
6.49e+09  -0.9374  -0.2323  -0.004706  -0.008925  2.479e-05  0.0005356  -0.7668  0.08658
6.491e+09  -0.9773  0.1584  -0.009749  0.005682  -0.007113  0.02019  -0.7057  0.3354
6.492e+09  -0.8077  0.4696  0.01434  0.04631  0.02581  -0.02967  -0.5285  0.5306
6.494e+09  -0.5847  0.7024  0.01634  -0.009872  0.02007  -0.04202  -0.2975  0.7383
6.495e+09  -0.3553  0.8301  -0.02495  0.01369  -0.006501  -0.03518  -0.07899  0.8166
6.496e+09  0.02312  0.8939  -0.05893  0.01131  0.04355  0.02656  0.2297  0.7289
6.498e+09  0.3331  0.8699  0.003292  0.007238  0.01845  0.01487  0.483  0.5826
6.499e+09  0.6336  0.7286  0.03133  0.005524  0.01651  -0.03855  0.6595  0.4237
6.5e+09  0.8218  0.4869  0.001648  -0.006918  0.04089  0.00423  0.7577  0.1454
6.501e+09  0.8503  0.107  0.008462  -0.01493  0.0128  -0.008241  0.7207  -0.09417
6.502e+09  0.9508  -0.196  0.02624  0.008354  -0.009852  -0.005061  0.6644  -0.3968
6.504e+09  0.8053  -0.5063  0.002846  -0.0002581  0.03015  -0.02823  0.5003  -0.5438
6.505e+09  0.5843  -0.6741  -0.02888  -0.00819  0.03373  0.0347  0.3057  -0.6961
6.506e+09  0.304  -0.9015  0.002103  0.01818  0.002927  -0.0006187  0.006001  -0.7492
6.508e+09  -0.03843  -0.9384  -0.04805  0.011  0.01823  0.007776  -0.261  -0.6999
6.509e+09  -0.3307  -0.8389  -0.01279  -0.01359  0.02929  -0.01429  -0.5049  -0.5467
6.51e+09  -0.6536  -0.7359  -0.000922  0.006199  0.032  0.04863  -0.6819  -0.4165
6.511e+09  -0.8621  -0.4716  0.009169  0.04629  -0.004304  0.05269  -0.7554  -0.1171
6.512e+09  -0.9549  -0.09858  -0.002176  0.01622  0.01112  0.005799  -0.7202  0.1325
6.514e+09  -0.9133  0.227  -0.03308  0.04355  0.0298  -0.004454  -0.6084  0.3523
6.515e+09  -0.8231  0.5713  -0.007457  -0.01449  0.02711  -0.0407  -0.4705  0.6037
6.516e+09  -0.5284  0.8505  0.03415  -0.04904  0.01743  0.0236  -0.2236  0.6887
6.518e+09  -0.2203  0.9775  0.005346  -0.00285  0.0103  -0.004691  0.008296  0.7349
6.519e+09  0.0957  0.9968  -0.01459  0.01482  0.009756  -0.002996  0.3049  0.6825
6.52e+09  0.3902  0.8724  0.001537  -0.02018  0.006146  -0.02128  0.4803  0.5726
6.521e+09  0.6973  0.6363  0.01142  0.007771  -0.02282  0.03267  0.6512  0.3841
6.522e+09  0.894  0.4076  0.00572  0.008113  -0.0181  -0.0002271  0.7237  0.07617
6.524e+09  0.9679  0.02154  0.01671  -0.02407  0.03038  0.008801  0.7432  -0.2085
6.525e+09  0.9098  -0.3157  0.02946  -0.04777  0.02538  -0.004243  0.5903  -0.3955
6.526e+09  0.79  -0.6115  -0.005328  0.01934  0.001929  0.06184  0.4098  -0.6018
6.528e+09  0.5295  -0.8437  -0.0312  0.02054  0.02429  -0.02239  0.2075  -0.6881
6.529e+09  0.1968  -0.999  0.004577  0.02798  0.03999  0.02422  -0.02905  -0.7326
6.53e+09  -0.1547  -0.9476  0.02173  -0.004982  -0.01733  -0.001761  -0.3067  -0.6195
6.531e+09  -0.4671  -0.8364  0.03485  -0.01727  -0.04142  0.00377  -0.4584  -0.4725
6.532e+09  -0.7811  -0.6155  -0.004058  0.008503  -0.03549  -0.03392  -0.5768  -0.2849
6.534e+09  -0.89  -0.3102  0.03305  -0.009836  0.01131  -0.04749  -0.6452  -0.09961
6.535e+09  -0.976  0.008161  -0.005596  -0.001195  0.02785  0.005887  -0.667  0.0911
6.536e+09  -0.8874  0.301  0.0236  -0.00423  -0.01134  0.04594  -0.5632  0.2935
6.538e+09  -0.7439  0.6526  -0.03077  -0.00306  -0.01953  0.05325  -0.4435  0.4588
6.539e+09  -0.4463  0.8896  -0.008679  -0.002971  -0.04002  -0.004144  -0.2749  0.6084
6.54e+09  -0.1317  0.9379  0.0259  0.01497  0.006955  0.05622  -0.05281  0.6898
6.541e+09  0.2239  0.9862  0.01502  0.02447  0.01969  -0.03237  0.1704  0.6443
6.542e+09  0.5333  0.8297  0.009101  0.008725  0.06186  -0.0353  0.3912  0.576
6.544e+09  0.8043  0.5186  -0.003433  -0.00359  -0.05528  0.005956  0.6028  0.3988
6.545e+09  0.9216  0.2523  0.03711  -0.01927  -0.01306  0.04716  0.6756  0.2027
6.546e+09  1.035  -0.1106  0.003651  -0.02291  0.02177  0.05602  0.7113  -0.05039
6.548e+09  0.8506  -0.4489  0.004546  0.04996  0.007291  -0.05895  0.642  -0.3265
6.549e+09  0.6899  -0.675  -0.01269  -0.000483  0.05479  0.04719  0.5253  -0.5562
6.55e+09  0.3576  -0.8662  -0.001211  0.008742  -0.001151  0.03328  0.2567  -0.7156
6.551e+09  0.05119  -0.9783  0.01207  0.007674  -0.03305  -0.01115  0.03216  -0.7464
