# Hz S RI R 50
6.25e+09  0.3039  0.7936  0.01978  -0.01926  0.01322  -0.001168  0.1512  0.4565
6.251e+09  0.5884  0.5969  -0.004389  -0.02067  0.0323  0.0716  0.3768  0.4004
6.252e+09  0.7898  0.378  0.01754  -0.006817  0.01174  0.04954  0.5502  0.2262
6.254e+09  0.8659  0.06105  -0.0104  -0.02678  -0.02238  0.01698  0.6252  0.006446
6.255e+09  0.8322  -0.2326  0.01911  0.01011  0.01334  -0.02588  0.5544  -0.2432
6.256e+09  0.6979  -0.5364  0.04068  -0.001112  -0.01562  -0.02192  0.4292  -0.4575
6.258e+09  0.4007  -0.7706  0.002011  0.004765  0.006525  -0.003602  0.2946  -0.6253
6.259e+09  0.1335  -0.7981  -0.02827  0.01247  0.04377  0.0232  0.04222  -0.6838
6.26e+09  -0.1037  -0.81  0.0009598  0.005722  -0.085  -0.009932  -0.2049  -0.6368
6.261e+09  -0.3677  -0.722  -0.02109  0.008659  -0.003746  -0.05471  -0.4838  -0.54
6.262e+09  -0.6016  -0.5749  0.04881  0.0006888  0.06212  -0.01887  -0.6315  -0.3446
6.264e+09  -0.7151  -0.2591  -0.01827  -0.02386  -0.02441  -0.05475  -0.7108  -0.08662
6.265e+09  -0.8819  -0.02006  0.03034  0.02073  0.00677  0.01289  -0.717  0.1327
6.266e+09  -0.8026  0.2851  -0.008764  -0.007041  0.02443  -0.03886  -0.6329  0.4132
6.268e+09  -0.6473  0.5229  -0.01053  -0.03147  0.02727  -0.009075  -0.3895  0.5771
6.269e+09  -0.4362  0.6923  0.006391  -0.002828  0.0076  -0.03468  -0.2152  0.6859
6.27e+09  -0.173  0.8322  -0.01506  -0.01999  -0.004065  0.0101  0.06596  0.7668
6.271e+09  0.1326  0.848  0.01452  -0.01123  0.005233  -0.01282  0.3103  0.6747
6.272e+09  0.4657  0.686  -0.00215  -0.007814  0.000424  -0.04176  0.5528  0.548
6.274e+09  0.6512  0.5452  -0.01375  -0.002777  0.04344  0.01756  0.7146  0.3318
6.275e+09  0.7631  0.2799  0.03265  0.02075  0.03425  -0.02012  0.762  0.04087
6.276e+09  0.758  -0.06164  -0.01851  0.03534  -0.03326  0.004296  0.7094  -0.2181
6.278e+09  0.7447  -0.3255  0.01275  0.0002443  0.03851  -0.002697  0.6234  -0.4698
6.279e+09  0.6315  -0.5427  -0.007368  0.01763  0.03155  -0.009187  0.4241  -0.6633
6.28e+09  0.4358  -0.7311  0.00938  -0.02187  -0.03551  0.01624  0.1517  -0.7708
6.281e+09  0.0643  -0.8796  0.02079  0.004429  0.001405  0.0273  -0.1201  -0.7865
6.282e+09  -0.1759  -0.8238  0.01342  0.005438  0.003424  0.005398  -0.355  -0.6823
6.284e+09  -0.4806  -0.7095  0.01412  -0.02118  -0.02712  0.01019  -0.6073  -0.5253
6.285e+09  -0.6882  -0.4399  0.01958  0.01248  -0.01711  -0.01847  -0.7362  -0.3265
6.286e+09  -0.797  -0.1367  0.009125  -0.01982  0.01612  0.008039  -0.7844  -0.002288
6.288e+09  -0.8364  0.1529  0.004366  0.01052  -0.0289  0.003366  -0.7575  0.2515
6.289e+09  -0.7515  0.4291  0.0009941  0.001089  0.05187  -0.001971  -0.6342  0.5057
6.29e+09  -0.5431  0.6315  -0.002319  -0.0001657  -0.05603  0.04253  -0.4239  0.6905
6.291e+09  -0.282  0.7885  0.005977  -0.02177  0.01914  -0.01274  -0.1562  0.7781
6.292e+09  -0.04058  0.8714  -0.006003  0.02206  -0.03242  0.002007  0.1326  0.7987
6.294e+09  0.2404  0.8297  0.01114  -0.008369  0.02472  -0.0313  0.3949  0.6625
6.295e+09  0.5079  0.6886  -0.01113  -0.013  0.0313  0.0226  0.6171  0.5425
6.296e+09  0.7787  0.3911  0.01348  0.002452  0.03624  -0.03365  0.7541  0.3198
6.298e+09  0.7811  0.08113  -0.02081  -0.0122  -0.001636  0.005344  0.7962  -0.02039
6.299e+09  0.8165  -0.1735  0.01219  -0.01182  0.02702  -0.0148  0.8068  -0.2392
6.3e+09  0.7257  -0.4608  -0.03142  0.02778  0.04745  0.006421  0.6579  -0.5275
6.301e+09  0.495  -0.7134  0.01001  -0.0008907  0.002201  -0.02823  0.4009  -0.7189
6.302e+09  0.2653  -0.748  -0.0275  0.0002233  -0.04295  0.0333  0.1625  -0.8584
6.304e+09  -0.02859  -0.806  0.007711  -0.01804  -0.05005  0.08774  -0.122  -0.8317
6.305e+09  -0.3561  -0.7394  0.0007083  -0.02346  -0.05953  -0.02229  -0.4207  -0.7369
6.306e+09  -0.5737  -0.6121  -0.01351  0.00619  0.05064  0.01281  -0.6402  -0.5467
6.308e+09  -0.7863  -0.3542  0.008708  0.006996  0.02643  0.0002274  -0.8226  -0.3298
6.309e+09  -0.8846  -0.1091  -0.007701  -0.007163  -0.01882  -0.04097  -0.8632  0.02831
6.31e+09  -0.8501  0.2615  0.01057  -0.01333  -0.0004793  0.01386  -0.8125  0.2815
6.311e+09  -0.6488  0.4758  -0.02076  -0.01013  -0.02587  0.01481  -0.6852  0.5583
6.312e+09  -0.5158  0.6658  -0.02314  -0.03288  -0.02292  0.02774  -0.4455  0.735
6.314e+09  -0.2139  0.8438  -0.03347  -0.02284  -0.0245  -0.009974  -0.1555  0.8252
6.315e+09  0.07577  0.8502  -0.01899  0.02144  -0.008211  0.03979  0.1641  0.8524
6.316e+09  0.408  0.7063  -0.00985  0.005506  -0.02098  0.0207  0.4273  0.7751
6.318e+09  0.6433  0.5708  -0.02492  0.02088  0.03282  0.02708  0.6693  0.5683
6.319e+09  0.7986  0.3474  0.02544  0.02416  -0.0001257  -0.02905  0.8033  0.2999
6.32e+09  0.8746  -0.01443  -0.012  0.03821  0.007896  0.009181  0.8583  -0.01181
6.321e+09  0.797  -0.3092  -0.007096  -0.008189  -0.02092  -0.009273  0.8237  -0.2981
6.322e+09  0.6664  -0.5448  0.01184  -0.009571  0.005945  -0.00792  0.6805  -0.5639
6.324e+09  0.4461  -0.7536  0.02211  0.003958  -0.00576  0.0601  0.4663  -0.7681
6.325e+09  0.09056  -0.8351  -0.01999  0.01272  -0.05784  -0.03354  0.1791  -0.8808
6.326e+09  -0.1617  -0.8165  -0.03803  -0.004086  0.009946  0.003285  -0.1457  -0.9284
6.328e+09  -0.5147  -0.7363  0.01172  -0.02538  -0.01534  0.04408  -0.4179  -0.7823
6.329e+09  -0.7105  -0.4934  -0.00745  -0.0191  0.007352  0.02256  -0.7009  -0.6267
6.33e+09  -0.8075  -0.2397  0.02715  0.007672  -0.02991  0.008416  -0.8397  -0.3309
6.331e+09  -0.8649  0.07117  0.02599  -0.005128  0.01678  -0.02249  -0.9176  -0.00231
6.332e+09  -0.833  0.3954  -0.00521  -0.008149  0.001051  -0.01487  -0.8948  0.2615
6.334e+09  -0.5756  0.61  0.0243  0.03547  -0.01971  -0.04028  -0.7514  0.5445
6.335e+09  -0.3884  0.794  -0.03022  0.01715  -0.03724  0.006621  -0.507  0.7499
6.336e+09  -0.02663  0.889  0.01341  0.002742  -0.02466  -0.01056  -0.1662  0.877
6.338e+09  0.2688  0.833  0.01273  0.01266  -0.03017  -0.001799  0.1328  0.9173
6.339e+09  0.5471  0.6496  -0.01144  0.0402  -0.01916  -0.04915  0.4279  0.8082
6.34e+09  0.7419  0.4359  -0.05293  -0.003102  -0.00849  0.04846  0.6547  0.6269
6.341e+09  0.8758  0.1629  -0.0117  -0.007548  0.01173  0.03584  0.8022  0.3437
6.342e+09  0.8305  -0.1263  0.006768  0.02786  0.03639  -0.00799  0.9577  0.03544
6.344e+09  0.7838  -0.4697  0.03702  -0.005915  -0.01335  -0.01958  0.9019  -0.2469
6.345e+09  0.5441  -0.6959  -0.02297  -0.03081  -0.04305  0.02594  0.7258  -0.575
6.346e+09  0.286  -0.8255  0.005171  -0.0164  -0.005925  -0.02203  0.5227  -0.7544
6.348e+09  -0.01581  -0.8781  0.003347  0.01054  -0.02801  0.007831  0.2481  -0.9205
6.349e+09  -0.3233  -0.7806  -0.008409  -0.01436  -0.00177  -0.001989  -0.1082  -0.9165
6.35e+09  -0.5883  -0.6614  0.0002983  -0.00675  -0.00237  -0.04074  -0.3912  -0.8602
6.351e+09  -0.804  -0.399  -0.006038  0.006318  0.0338  -0.02938  -0.6731  -0.662
6.352e+09  -0.8501  -0.1068  0.04847  -0.02635  -0.04331  -0.01406  -0.8693  -0.3841
6.354e+09  -0.8074  0.2182  -0.003207  0.005221  0.05043  0.0106  -0.9238  -0.0643
6.355e+09  -0.7331  0.4864  -0.009522  0.01358  0.01128  -0.01735  -0.9106  0.2857
6.356e+09  -0.4505  0.7192  0.04531  0.007873  0.04728  0.002868  -0.7932  0.5399
6.358e+09  -0.1969  0.8851  0.008749  -0.01471  -0.04938  -0.03595  -0.5039  0.7903
6.359e+09  0.1213  0.9184  0.03455  0.0261  0.06067  -0.001664  -0.2427  0.9292
6.36e+09  0.4438  0.8119  0.00794  -0.009476  -0.01422  -0.03837  0.08422  0.9233
6.361e+09  0.6276  0.6007  -0.016  -0.02726  -0.02174  -0.002488  0.4124  0.8646
6.362e+09  0.8418  0.3369  -0.01522  -0.02349  -0.0557  -0.02237  0.6902  0.6243
6.364e+09  0.9081  0.01714  0.002866  -0.03159  0.01575  0.06298  0.852  0.3787
6.365e+09  0.8175  -0.2773  0.03061  -0.007372  0.07685  0.004886  0.9328  0.08857
6.366e+09  0.6766  -0.6114  0.005271  -0.009874  0.05011  -0.01812  0.8749  -0.288
6.368e+09  0.443  -0.7871  0.01721  -0.004256  0.0003697  0.009617  0.7904  -0.5278
6.369e+09  0.1673  -0.8951  0.001886  0.02442  -0.006056  -0.01181  0.5425  -0.745
6.37e+09  -0.1767  -0.8744  0.01488  -0.04584  -0.02107  0.03404  0.2818  -0.8865
6.371e+09  -0.4537  -0.7562  0.00376  -0.03063  -0.02798  -0.01718  -0.09238  -0.9405
6.372e+09  -0.7126  -0.5391  -0.007093  0.01173  -0.01985  0.02028  -0.419  -0.8281
6.374e+09  -0.7979  -0.3122  0.00938  -0.04013  0.001748  0.005138  -0.6563  -0.7177
6.375e+09  -0.9109  0.03137  0.004248  0.0252  -0.04121  -0.04388  -0.9051  -0.3561
6.376e+09  -0.8463  0.3397  0.02258  -0.0177  0.003786  0.007685  -0.9893  -0.1108
6.378e+09  -0.6724  0.6414  -0.0131  0.009227  -0.02647  -0.02197  -0.9324  0.2346
6.379e+09  -0.358  0.8512  0.002743  -0.01933  -0.006316  -0.01507  -0.7883  0.5278
6.38e+09  -0.1003  0.8887  0.02247  0.02075  -0.03416  -0.01863  -0.5371  0.7703
6.381e+09  0.2523  0.845  -0.02005  0.01347  0.02861  0.01473  -0.2869  0.8726
6.382e+09  0.5315  0.7152  0.04201  -0.007502  -0.02698  0.01599  0.06519  0.9233
6.384e+09  0.7536  0.4824  -0.04418  -0.008357  0.0158  -0.006698  0.3307  0.8402
6.385e+09  0.8749  0.2412  0.03556  0.01765  -0.002898  -0.02923  0.6561  0.6868
6.386e+09  0.8962  -0.125  0.01256  -0.004552  -0.001412  0.005169  0.8184  0.431
6.388e+09  0.7788  -0.3972  0.01491  0.005835  0.01717  0.03276  0.9699  0.119
6.389e+09  0.5525  -0.6814  -0.01941  -0.02763  -0.03654  0.007863  0.8862  -0.1833
6.39e+09  0.3324  -0.8411  0.008491  0.01715  -0.01354  -0.03089  0.7496  -0.4994
6.391e+09  -0.0358  -0.8861  0.009759  -0.01948  -0.009581  -0.03537  0.5432  -0.7258
6.392e+09  -0.2799  -0.8422  -0.005128  0.01847  -0.01726  -0.00106  0.2848  -0.8583
6.394e+09  -0.5662  -0.6708  -0.008262  0.05541  -0.01224  -0.01891  -0.006607  -0.9745
6.395e+09  -0.7591  -0.454  -0.009114  -0.02716  0.03758  -0.04831  -0.3705  -0.8714
6.396e+09  -0.878  -0.1075  0.005922  0.0165  -0.04619  0.03044  -0.6501  -0.6918
6.398e+09  -0.8921  0.2133  0.001417  -0.01547  -0.0005682  0.0002524  -0.7691  -0.4539
6.399e+09  -0.7397  0.4695  0.005939  0.02441  0.008448  0.01991  -0.9414  -0.1283
6.4e+09  -0.5496  0.6985  0.02288  0.001255  -0.01378  0.001629  -0.8952  0.1713
6.401e+09  -0.3027  0.7976  0.03555  0.003825  -0.0182  -0.07824  -0.788  0.4363
6.402e+09  0.04527  0.8577  -0.04296  -0.03948  0.03373  0.002206  -0.5802  0.7166
6.404e+09  0.3448  0.8088  0.003274  -0.0143  -0.002741  -0.002282  -0.2844  0.8273
6.405e+09  0.6011  0.6307  -0.03184  -0.03396  0.0426  -0.001243  -0.0459  0.9246
6.406e+09  0.7186  0.4432  0.002739  0.01044  -0.05717  -0.0001275  0.3118  0.8363
6.408e+09  0.8696  0.09171  0.009897  -0.00312  0.001789  -0.02015  0.5528  0.7321
6.409e+09  0.8483  -0.2564  -0.01265  0.02922  0.004418  -0.00562  0.7947  0.4905
6.41e+09  0.7126  -0.546  0.03441  0.002644  -0.04186  -0.03335  0.942  0.1828
6.411e+09  0.5732  -0.7245  -0.03699  -0.02483  0.02385  -0.003869  0.9123  -0.1592
6.412e+09  0.2108  -0.8273  -0.01718  -0.008699  -0.01049  0.01383  0.8059  -0.4672
6.414e+09  -0.07527  -0.8779  0.007185  0.03568  -0.02311  0.01692  0.5955  -0.6592
6.415e+09  -0.4007  -0.7507  0.002132  -0.05008  0.02287  -0.025  0.3442  -0.8516
6.416e+09  -0.7166  -0.5934  0.01435  -0.02234  -0.06697  0.01256  0.01232  -0.8681
6.418e+09  -0.8348  -0.3471  -0.02415  -0.04755  -0.0222  -0.02339  -0.2863  -0.9021
6.419e+09  -0.8652  0.001618  0.02517  0.00579  -0.02203  0.01888  -0.5471  -0.7475
6.42e+09  -0.8671  0.3024  -0.001935  -0.02697  0.04258  0.003145  -0.7282  -0.4969
6.421e+09  -0.7078  0.5806  -0.02974  0.005684  0.02309  -0.001302  -0.838  -0.165
6.422e+09  -0.456  0.7771  0.01354  0.01992  0.01089  -0.01104  -0.9217  0.08345
6.424e+09  -0.1079  0.9207  0.01116  0.01947  0.008488  -0.0009122  -0.82  0.4114
6.425e+09  0.1842  0.8318  0.02642  0.02373  -0.004921  -0.03551  -0.625  0.6158
6.426e+09  0.5134  0.7139  -0.008489  0.01933  0.03388  0.01479  -0.333  0.8093
6.428e+09  0.7276  0.5265  -0.03263  0.001342  0.01914  0.07042  -0.03108  0.8299
6.429e+09  0.8653  0.2469  0.00527  -0.0007722  0.01961  0.02656  0.2068  0.8517
6.43e+09  0.8974  -0.09374  0.02931  0.01508  -0.04016  0.01739  0.528  0.7349
6.431e+09  0.8374  -0.4008  -0.006397  0.0116  -0.02246  0.01177  0.7109  0.4988
6.432e+09  0.6255  -0.6931  -0.0005071  -0.04811  0.01668  0.02355  0.854  0.1409
6.434e+09  0.3782  -0.8284  0.01259  -0.005945  0.01947  0.007204  0.8931  -0.07821
6.435e+09  0.02965  -0.9168  -0.04067  -0.04325  -0.02465  -0.01899  0.7656  -0.4253
6.436e+09  -0.259  -0.8601  0.05338  0.05021  0.02037  0.0169  0.5994  -0.5773
6.438e+09  -0.5604  -0.7265  -0.002956  -0.001201  0.01967  -0.02771  0.357  -0.8048
6.439e+09  -0.7738  -0.4349  -0.02535  -0.04082  0.04161  -0.003944  0.08396  -0.8843
6.44e+09  -0.8881  -0.1239  -0.04553  -0.03327  0.005006  -0.001469  -0.2283  -0.8092
6.441e+09  -0.8879  0.2207  0.008018  -2.965e-06  -0.04132  -0.02346  -0.4788  -0.7194
6.442e+09  -0.7951  0.5129  -0.0289  0.01876  0.02029  -0.01303  -0.7281  -0.452
6.444e+09  -0.5173  0.8048  0.01515  0.03468  -0.0563  0.03529  -0.8116  -0.2081
6.445e+09  -0.1688  0.8634  -0.00394  -0.0393  -0.03411  -0.03288  -0.8599  0.05742
6.446e+09  0.03967  0.8746  -0.03397  0.02682  -0.01199  -0.002121  -0.8173  0.3778
6.448e+09  0.4016  0.7663  0.002583  0.01527  -0.01991  0.02368  -0.6174  0.5688
6.449e+09  0.6585  0.6004  0.00329  -0.01989  0.01938  -0.03471  -0.3342  0.7539
6.45e+09  0.8667  0.353  0.04331  0.004466  0.005714  0.03387  -0.04502  0.8626
6.451e+09  0.9334  -0.02704  0.01207  0.0418  0.06522  -0.01548  0.212  0.8109
6.452e+09  0.8177  -0.3698  0.007857  -0.03794  0.001764  -0.002852  0.4985  0.6415
6.454e+09  0.6536  -0.608  0.01517  -0.009239  -0.01688  -0.01211  0.7091  0.472
6.455e+09  0.3518  -0.8254  0.01005  0.04394  0.0176  0.02643  0.7733  0.2154
6.456e+09  0.08374  -0.8746  0.01626  0.03646  -0.008903  -0.03164  0.8366  -0.0532
6.458e+09  -0.2251  -0.8893  -0.01349  0.04009  0.01971  -0.01176  0.7616  -0.345
6.459e+09  -0.5641  -0.7664  0.04408  -0.008362  -0.02182  0.04009  0.6132  -0.5912
6.46e+09  -0.7827  -0.4685  0.02245  0.02074  -0.01317  -0.0004089  0.3266  -0.726
6.461e+09  -0.9507  -0.1225  0.001205  0.02455  0.01606  0.02395  0.06983  -0.775
6.462e+09  -0.8977  0.1425  -0.0117  0.02492  0.00453  -0.007866  -0.2526  -0.7934
6.464e+09  -0.751  0.4564  0.04032  -0.05776  -0.04732  -0.03575  -0.4951  -0.6681
6.465e+09  -0.5513  0.6932  -0.0105  -0.02565  -0.01614  0.02492  -0.686  -0.4743
6.466e+09  -0.2051  0.8431  0.02135  -0.05992  -0.03134  -0.03784  -0.8296  -0.1731
6.468e+09  0.08803  0.9169  -0.003412  -0.009482  -0.03312  0.01216  -0.7844  0.08103
6.469e+09  0.3844  0.7846  0.03626  0.006474  0.05928  0.06692  -0.6995  0.3105
6.47e+09  0.7228  0.5984  -0.01513  0.04167  -0.0005401  0.07076  -0.5681  0.5614
6.471e+09  0.8323  0.2696  0.007012  0.003458  -0.03616  -0.01545  -0.351  0.7152
6.472e+09  0.9222  -0.0548  0.03458  -0.02851  0.02659  0.04636  -0.07356  0.7589
6.474e+09  0.8485  -0.344  -0.003634  0.01432  0.01353  0.02256  0.2146  0.7559
6.475e+09  0.6103  -0.5782  -0.001347  0.03603  -0.02437  0.02549  0.448  0.6548
6.476e+09  0.4114  -0.7833  -0.02073  0.006616  0.02642  -0.01424  0.652  0.4703
6.478e+09  0.05918  -0.9139  -0.015  0.02051  0.0203  -0.04021  0.8115  0.2112
6.479e+09  -0.2833  -0.8742  0.02677  0.009338  -0.002779  0.0006219  0.7932  -0.09307
6.48e+09  -0.5152  -0.6154  -0.01762  0.022  -0.06711  -0.01982  0.6767  -0.3607
6.481e+09  -0.7605  -0.4159  0.02589  -0.05033  0.01989  -0.06079  0.5191  -0.5322
6.482e+09  -0.8705  -0.1699  0.01116  -0.02273  0.02159  -0.0339  0.3184  -0.7308
6.484e+09  -0.8775  0.2149  -0.004475  0.0204  0.0006749  0.03104  0.06598  -0.7627
6.485e+09  -0.7656  0.498  0.02059  0.006281  0.02082  -0.0411  -0.2076  -0.7624
6.486e+09  -0.4604  0.7471  -0.01057  0.003951  0.01624  0.004708  -0.4526  -0.639
6.488e+09  -0.195  0.8398  0.006802  0.002337  -0.00176  0.04362  -0.6569  -0.4422
6.489e+09  0.08787  0.883  -0.01943  -0.01559  0.007886  -0.007971  -0.7268  -0.1568
6.49e+09  0.4291  0.8068  -0.03121  0.001067  -0.0173  -0.05928  -0.7349  0.06366
6.491e+09  0.6742  0.4979  0.01038  0.0002837  0.01435  -0.01702  -0.6764  0.3387
6.492e+09  0.8142  0.273  0.01413  0.01832  -0.03118  0.02728  -0.5395  0.5614
6.494e+09  0.8411  -0.05106  -0.006371  -0.02705  -0.02195  -0.04088  -0.2971  0.6854
6.495e+09  0.7889  -0.3708  0.009732  -0.01245  0.007237  -0.0007904  -0.06381  0.7765
6.496e+09  0.5853  -0.6131  -0.01047  -0.01076  -0.02556  0.01166  0.2408  0.7495
6.498e+09  0.2666  -0.7379  -0.009934  -0.01407  -0.001367  -0.0165  0.4426  0.6139
6.499e+09  0.02851  -0.7867  -0.009275  0.0108  0.01346  -0.00352  0.628  0.4347
6.5e+09  -0.2331  -0.754  0.04283  0.03697  -0.01559  0.00417  0.7432  0.1209
6.501e+09  -0.5482  -0.6141  -0.01517  0.02272  0.004344  -0.003746  0.7963  -0.09972
6.502e+09  -0.7237  -0.3179  -0.008367  -0.01668  0.02784  0.03177  0.6593  -0.3277
6.504e+09  -0.8294  -0.08348  -0.01762  0.02278  0.001752  0.01814  0.5131  -0.5629
6.505e+09  -0.7726  0.2157  0.01033  -0.01239  -0.03351  -0.02321  0.2832  -0.7057
6.506e+09  -0.6194  0.4531  -0.001181  -0.0001347  0.05955  0.02042  0.01912  -0.7937
6.508e+09  -0.4209  0.6457  -0.01924  -0.01275  -0.00789  0.002103  -0.2416  -0.6884
6.509e+09  -0.1428  0.7866  -0.02182  0.01276  0.01112  -0.0236  -0.4735  -0.5842
6.51e+09  0.1226  0.7015  -0.02957  0.01366  0.006591  0.04275  -0.6663  -0.4116
6.511e+09  0.3387  0.7044  0.01829  -0.02664  0.03457  -0.04325  -0.7347  -0.1205
6.512e+09  0.6073  0.4265  0.007942  0.02226  -0.01438  -0.0193  -0.7743  0.128
6.514e+09  0.7086  0.2532  -0.01196  0.03208  0.01574  0.02919  -0.6456  0.3674
6.515e+09  0.7307  -0.07213  -0.008086  -0.02159  0.02478  0.0409  -0.4727  0.5729
6.516e+09  0.721  -0.3343  -0.06701  -0.01254  -0.03235  -0.02994  -0.2757  0.7024
6.518e+09  0.4854  -0.5568  0.002231  0.01471  0.00252  -0.06127  -0.00358  0.7296
6.519e+09  0.298  -0.7012  -0.005436  0.02109  0.04701  0.005298  0.2894  0.6864
6.52e+09  0.004282  -0.7488  -0.0005364  -0.002283  -0.01827  -0.001398  0.5239  0.5331
6.521e+09  -0.2357  -0.687  0.004818  -0.01102  0.03539  0.02602  0.6849  0.3685
6.522e+09  -0.4388  -0.5939  -0.01673  0.003842  -0.06501  -0.03428  0.7007  0.08698
6.524e+09  -0.6471  -0.3669  0.0133  -0.02656  -0.02252  -0.006772  0.7103  -0.1421
6.525e+09  -0.693  -0.109  0.005137  -0.0316  -0.03045  -0.004046  0.609  -0.4373
6.526e+09  -0.6703  0.2168  -0.004589  -0.02187  -0.02934  0.003039  0.4369  -0.5943
6.528e+09  -0.5807  0.4723  -0.004776  0.03142  -0.04767  -0.04629  0.1752  -0.7481
6.529e+09  -0.3367  0.6392  -0.004835  -0.02364  -0.01482  -0.04812  -0.01541  -0.7537
6.53e+09  -0.163  0.694  -0.009302  0.02277  -0.04825  -0.01093  -0.2645  -0.6449
6.531e+09  0.05878  0.7115  -0.02285  -0.008471  -0.02756  0.002457  -0.5012  -0.4991
6.532e+09  0.3404  0.6655  -0.0009046  0.00506  0.000933  0.03243  -0.5736  -0.2446
6.534e+09  0.557  0.4887  -0.01238  -0.02687  0.007133  -0.06352  -0.6437  -0.0993
6.535e+09  0.6892  0.202  0.007472  0.00191  0.01045  0.04652  -0.6563  0.1134
6.536e+09  0.7143  -0.01939  0.03305  0.02619  -0.04108  -0.07339  -0.5587  0.294
6.538e+09  0.6018  -0.3307  0.0006016  -0.007846  -0.009226  0.03646  -0.4437  0.4971
6.539e+09  0.4845  -0.5504  0.0004032  0.02983  -0.01631  0.06605  -0.2663  0.608
6.54e+09  0.2297  -0.6216  -0.01972  -0.01903  -0.04411  0.03866  -0.05872  0.7012
6.541e+09  0.02282  -0.7173  0.001939  0.04627  -0.0149  0.01746  0.1898  0.643
6.542e+09  -0.2585  -0.7532  0.001041  0.01671  -0.03928  -0.01868  0.422  0.5692
6.544e+09  -0.4716  -0.619  0.01063  0.005912  0.03545  0.007302  0.5726  0.3755
6.545e+09  -0.6342  -0.3833  0.02262  0.008581  -0.02334  -0.007529  0.706  0.2346
6.546e+09  -0.6949  -0.09852  0.02194  0.03678  0.009019  -0.06464  0.6969  -0.06097
6.548e+09  -0.7428  0.1195  0.021  -0.001761  -0.02074  -0.01648  0.6644  -0.3002
6.549e+09  -0.5959  0.4287  0.01984  0.01856  -0.01724  -0.04796  0.5403  -0.5319
6.55e+09  -0.4569  0.6157  0.01948  -0.02653  0.01236  0.03743  0.2883  -0.671
