# Hz S RI R 50
6.25e+09  -0.2996  0.792  -0.04478  -0.02008  -0.06332  -0.01891  0.1556  0.4952
6.251e+09  -0.02971  0.8971  -0.004181  -0.01756  0.0001931  -0.0004589  0.3637  0.4069
6.252e+09  0.3203  0.8289  -0.007791  -0.03054  -0.00527  0.04572  0.5314  0.2394
6.254e+09  0.5198  0.6578  -0.009301  -0.01985  -0.004698  0.0237  0.6376  0.0164
6.255e+09  0.7863  0.4462  -0.03323  -0.01187  0.02913  0.01289  0.6018  -0.2379
6.256e+09  0.8404  0.2009  -0.02441  -0.01157  0.01374  -0.01092  0.4666  -0.4657
6.258e+09  0.8438  -0.09409  -0.02079  -0.0002243  -0.02472  -0.06239  0.2181  -0.6042
6.259e+09  0.7022  -0.4055  -0.0147  0.006463  0.08145  -0.01487  0.05182  -0.6398
6.26e+09  0.5228  -0.6457  0.006606  -0.04193  0.05298  -0.01838  -0.2285  -0.6604
6.261e+09  0.3046  -0.8235  -5.685e-05  -0.003767  -0.01321  -0.0001215  -0.4672  -0.5521
6.262e+09  0.01162  -0.8243  -0.02201  -0.01732  -0.04549  0.03049  -0.6167  -0.3556
6.264e+09  -0.2576  -0.7786  -0.01936  0.005848  0.03202  0.0563  -0.7182  -0.08665
6.265e+09  -0.5436  -0.6544  0.003141  -0.009089  0.0004054  0.04904  -0.7096  0.1492
6.266e+09  -0.6723  -0.4288  0.02297  -0.04348  -0.05365  -0.005042  -0.5837  0.3904
6.268e+09  -0.8574  -0.197  0.03198  0.008311  0.02953  0.04701  -0.466  0.5504
6.269e+09  -0.8424  0.1765  0.0286  -0.009044  -0.02815  0.03888  -0.2156  0.7454
6.27e+09  -0.7142  0.3949  -0.008522  -0.01641  -0.02561  0.01227  0.09442  0.7298
6.271e+09  -0.5371  0.6047  -0.00132  -0.02107  0.001088  -0.004112  0.314  0.6404
6.272e+09  -0.3697  0.791  -0.006876  0.01266  -0.0262  -0.04921  0.5626  0.526
6.274e+09  0.02618  0.8554  -0.005775  0.01083  0.00532  -0.05323  0.6819  0.2796
6.275e+09  0.2739  0.793  -0.004366  0.02018  -0.03644  -0.004573  0.7637  0.03936
6.276e+09  0.5049  0.6229  0.005057  0.01901  -0.009139  0.02845  0.7268  -0.2068
6.278e+09  0.6947  0.4102  -0.0001193  0.01047  0.02605  -0.01115  0.6157  -0.4748
6.279e+09  0.8327  0.1085  0.005932  0.02148  0.02118  0.01125  0.4377  -0.6324
6.28e+09  0.8099  -0.1344  0.003911  0.009295  0.01287  0.01047  0.1492  -0.7582
6.281e+09  0.7539  -0.4361  0.003926  -0.005197  -0.05303  0.03278  -0.1253  -0.7543
6.282e+09  0.4987  -0.626  0.003244  0.001251  -0.04037  -0.04657  -0.3871  -0.6933
6.284e+09  0.2903  -0.7733  0.005883  0.01683  -0.00474  -0.006438  -0.6004  -0.5433
6.285e+09  0.04691  -0.8275  0.01531  -0.009246  0.006498  -0.01078  -0.7609  -0.2915
6.286e+09  -0.2361  -0.786  -0.00809  -0.03992  0.005277  -0.03065  -0.7939  -0.04105
6.288e+09  -0.5732  -0.6373  0.01693  0.002093  0.02253  -0.01419  -0.762  0.2774
6.289e+09  -0.7751  -0.42  0.008117  0.006977  0.03121  -0.0198  -0.6134  0.4841
6.29e+09  -0.8566  -0.1487  0.01785  0.01789  0.02266  0.03298  -0.4467  0.6998
6.291e+09  -0.8557  0.1511  0.04093  -0.004808  -0.05601  0.03761  -0.172  0.7878
6.292e+09  -0.6404  0.4564  0.03193  0.007057  -0.01235  -0.05418  0.1341  0.8147
6.294e+09  -0.5143  0.6977  0.01602  -0.01064  0.03731  -0.01843  0.3829  0.6959
6.295e+09  -0.2668  0.8057  -0.02515  -0.01002  0.006603  -0.01802  0.5887  0.5645
6.296e+09  0.01973  0.797  0.008245  0.01575  0.06094  -0.008855  0.8072  0.2815
6.298e+09  0.3367  0.7948  -0.01205  0.004376  0.01523  -0.01289  0.8315  0.03393
6.299e+09  0.5582  0.6238  -0.02937  -0.01008  0.03025  0.02313  0.8023  -0.2911
6.3e+09  0.7795  0.3999  0.007939  0.0005642  0.04544  -0.04078  0.6247  -0.5314
6.301e+09  0.8324  0.0883  -0.01803  0.003124  -0.009005  0.0355  0.4237  -0.7311
6.302e+09  0.7836  -0.1788  0.02899  0.01911  -0.008255  0.02001  0.128  -0.8057
6.304e+09  0.692  -0.4706  -0.003355  0.02297  -0.06922  -0.04383  -0.1377  -0.8133
6.305e+09  0.5267  -0.6749  -0.001864  0.009514  -0.00395  0.04783  -0.4382  -0.7485
6.306e+09  0.1948  -0.8  -0.04291  -0.001455  0.004586  -0.0001659  -0.6673  -0.5424
6.308e+09  -0.07243  -0.8025  0.01142  -0.02526  -0.01868  -0.01315  -0.7734  -0.3085
6.309e+09  -0.3637  -0.7495  0.02429  0.005279  -0.0004229  0.02796  -0.8477  0.01566
6.31e+09  -0.6127  -0.5502  -0.01367  -0.02953  0.03237  0.006341  -0.7982  0.2719
6.311e+09  -0.7281  -0.3537  0.005688  -0.01672  -0.008527  -0.002786  -0.6534  0.5385
6.312e+09  -0.8264  -0.05971  -0.02086  0.01504  -0.01797  -0.01953  -0.4414  0.7705
6.314e+09  -0.8352  0.2665  0.006723  -0.00611  0.009333  -0.04883  -0.1756  0.8669
6.315e+09  -0.6283  0.4704  0.02279  -0.002197  -0.008266  -0.002724  0.1482  0.866
6.316e+09  -0.4653  0.6575  -0.001184  0.03541  0.03925  -0.006011  0.4106  0.7562
6.318e+09  -0.1244  0.864  -0.01196  0.03357  0.01096  0.03529  0.6806  0.5764
6.319e+09  0.09641  0.874  -0.02813  0.003186  0.0039  -0.01642  0.82  0.3268
6.32e+09  0.4176  0.7118  0.001772  -0.009172  0.05344  -0.01783  0.9042  -0.00292
6.321e+09  0.6819  0.5782  -0.02417  0.005081  -0.04236  0.01565  0.8483  -0.2958
6.322e+09  0.8428  0.2838  -0.02265  0.02304  0.02288  0.03148  0.716  -0.5417
6.324e+09  0.8773  0.003725  -0.002374  0.02094  0.007282  0.01409  0.4824  -0.7614
6.325e+09  0.7532  -0.2736  0.02314  -0.01462  0.006912  -0.02075  0.1467  -0.8586
6.326e+09  0.6234  -0.5491  0.02486  0.009645  -0.0173  -0.006114  -0.1418  -0.8877
6.328e+09  0.4353  -0.723  0.004865  0.01276  0.008075  -0.03304  -0.3984  -0.7807
6.329e+09  0.1645  -0.8784  -0.005371  -0.01774  0.0178  0.0458  -0.6898  -0.5877
6.33e+09  -0.1806  -0.8407  -0.02353  0.007734  -0.01826  0.007101  -0.8376  -0.359
6.331e+09  -0.4521  -0.7237  -0.009234  -0.0115  0.03242  -0.01244  -0.937  -0.0485
6.332e+09  -0.6814  -0.5597  -0.003077  0.00589  -0.01537  0.0464  -0.8555  0.2937
6.334e+09  -0.8007  -0.3159  -0.01749  0.011  0.02476  0.03913  -0.705  0.5877
6.335e+09  -0.8754  0.09623  -0.005842  -0.009603  0.01403  0.06883  -0.5227  0.7677
6.336e+09  -0.7901  0.358  0.005052  0.03709  -0.01941  -0.03209  -0.1788  0.903
6.338e+09  -0.6647  0.5602  -0.00938  -0.01323  -0.004378  -0.001392  0.08554  0.8913
6.339e+09  -0.3837  0.7739  -0.012  0.03549  0.02565  -0.001519  0.3929  0.8567
6.34e+09  -0.05105  0.8657  0.0009815  0.005554  -0.0009522  -0.002204  0.672  0.6487
6.341e+09  0.2077  0.8029  0.03018  -0.01808  -0.0332  0.005511  0.8538  0.3375
6.342e+09  0.5096  0.7351  -0.006269  0.01035  -0.04127  -0.007745  0.9302  0.05378
6.344e+09  0.707  0.5061  -0.008906  -0.02027  0.02244  0.003448  0.8633  -0.2513
6.345e+09  0.8542  0.21  0.007713  0.003344  -0.009056  -0.01882  0.7515  -0.5655
6.346e+09  0.9351  -0.05363  0.003368  0.01275  0.04699  -0.04106  0.5051  -0.7845
6.348e+09  0.775  -0.3956  -0.02272  0.03485  -0.036  -0.02395  0.2282  -0.9222
6.349e+09  0.6359  -0.6868  0.01178  0.02481  -0.002715  0.0249  -0.1205  -0.935
6.35e+09  0.3326  -0.7953  0.02015  0.001235  0.008731  -0.01511  -0.4054  -0.8358
6.351e+09  0.07508  -0.8691  0.00306  0.019  0.04022  -0.01266  -0.671  -0.7118
6.352e+09  -0.2398  -0.8483  -0.003592  -0.006605  -0.005747  0.03455  -0.893  -0.4058
6.354e+09  -0.5298  -0.6901  -0.01037  -0.01764  -0.04865  0.008803  -0.9554  -0.06002
6.355e+09  -0.7555  -0.4128  0.003061  0.0004585  -0.04077  0.02836  -0.8935  0.2469
6.356e+09  -0.8883  -0.192  0.02454  -0.02488  0.0002606  0.007368  -0.7427  0.5502
6.358e+09  -0.8871  0.1539  -0.01087  0.01975  0.00376  -0.07855  -0.512  0.7631
6.359e+09  -0.7542  0.4357  0.01388  0.01095  -0.03166  0.005043  -0.2133  0.9157
6.36e+09  -0.5839  0.696  0.002799  -0.01929  -0.05999  -0.002305  0.1137  0.9534
6.361e+09  -0.2796  0.8337  0.01833  -0.01157  -0.004629  0.00576  0.4004  0.8576
6.362e+09  0.009749  0.9234  -0.04401  0.007479  0.05094  0.01622  0.6783  0.6685
6.364e+09  0.3344  0.8165  0.02076  0.03113  0.03141  0.0165  0.8692  0.3805
6.365e+09  0.5973  0.6597  0.006532  -0.02575  0.01111  -0.06505  0.9301  0.1157
6.366e+09  0.7428  0.3823  0.008481  -0.01794  -0.04379  0.03721  0.8989  -0.2565
6.368e+09  0.9185  0.1462  -0.01827  -0.01117  -0.008959  -0.07456  0.7572  -0.5728
6.369e+09  0.8868  -0.1726  -0.01747  0.009613  -0.04358  0.02255  0.5547  -0.7897
6.37e+09  0.7414  -0.5198  0.00739  0.01657  -0.001466  4.061e-05  0.2279  -0.9067
6.371e+09  0.5211  -0.7246  -0.004037  0.01139  0.03251  0.01336  -0.06677  -0.9528
6.372e+09  0.2582  -0.8669  -0.008829  -0.03658  -0.0303  0.005245  -0.4115  -0.8661
6.374e+09  -0.0673  -0.9495  -0.03398  0.009701  0.001353  0.005754  -0.6776  -0.6876
6.375e+09  -0.408  -0.7605  0.04538  0.01146  -0.01247  0.0111  -0.8419  -0.4142
6.376e+09  -0.6264  -0.6071  -0.03331  -0.03439  0.00179  0.002735  -0.9271  -0.09009
6.378e+09  -0.789  -0.3774  0.009667  -0.001197  0.005824  0.005253  -0.8604  0.2296
6.379e+09  -0.8717  -0.05328  -0.007871  -0.02576  -0.004514  -0.00765  -0.7686  0.5415
6.38e+09  -0.847  0.2491  0.01852  0.0008743  0.004828  0.03519  -0.558  0.7581
6.381e+09  -0.7519  0.5052  -0.00948  0.0006396  -0.01576  0.02453  -0.2495  0.9021
6.382e+09  -0.5175  0.7093  0.0009265  -0.001969  -0.01708  -0.0135  0.04395  0.9432
6.384e+09  -0.2146  0.8642  -0.01706  0.0182  0.02213  -0.06634  0.3613  0.8836
6.385e+09  0.1123  0.8625  -0.002985  0.01353  0.03506  0.01249  0.6797  0.7114
6.386e+09  0.4459  0.7751  0.02346  -0.01779  -0.005874  -0.04641  0.8472  0.4289
6.388e+09  0.6418  0.5902  -0.03717  0.007941  -0.01009  -0.002997  0.906  0.1208
6.389e+09  0.8716  0.3571  0.02471  0.01211  -0.07716  -0.02995  0.9314  -0.1769
6.39e+09  0.9211  0.03878  0.03369  -0.005554  -0.007105  -0.008848  0.8321  -0.5078
6.391e+09  0.8609  -0.2638  0.00471  0.001003  -0.01887  -0.001563  0.5539  -0.7327
6.392e+09  0.6735  -0.5145  0.02341  0.04522  -0.01084  -0.02864  0.275  -0.8486
6.394e+09  0.4974  -0.7585  0.006319  -0.02447  -0.008795  0.01199  -0.02148  -0.9389
6.395e+09  0.1362  -0.8551  0.01131  0.0026  0.01433  -0.04606  -0.3347  -0.8271
6.396e+09  -0.1101  -0.9168  -0.02154  0.02753  -0.03088  -0.00811  -0.5975  -0.7007
6.398e+09  -0.381  -0.8446  -0.01953  -0.005361  0.005896  -0.02837  -0.7975  -0.4639
6.399e+09  -0.6585  -0.5593  0.001442  -0.02465  0.05041  -0.04076  -0.8828  -0.1327
6.4e+09  -0.8669  -0.3276  0.01175  0.01578  -0.008474  0.01184  -0.917  0.202
6.401e+09  -0.8804  0.01204  -0.02146  -0.01646  0.001908  0.06106  -0.831  0.4445
6.402e+09  -0.908  0.2752  0.007345  -0.03276  0.02104  0.0034  -0.5462  0.7101
6.404e+09  -0.6635  0.5613  0.03724  0.02341  -0.01342  0.03347  -0.246  0.8932
6.405e+09  -0.4586  0.7532  0.06008  -0.01918  -0.003238  -0.02186  0.02373  0.8916
6.406e+09  -0.1348  0.8656  0.03997  -0.02954  -0.01803  -0.0322  0.3008  0.8806
6.408e+09  0.1573  0.9094  -0.02409  0.02854  0.005811  0.01579  0.5702  0.706
6.409e+09  0.4092  0.7516  -0.01737  0.02402  -0.03245  -0.01335  0.7844  0.5082
6.41e+09  0.6959  0.5598  -0.006593  -0.03461  0.01202  -0.02679  0.8521  0.1874
6.411e+09  0.828  0.2965  -0.0428  -0.02894  -0.003789  -0.03837  0.8802  -0.1658
6.412e+09  0.9054  -0.03415  0.003023  0.002997  0.03217  -0.01628  0.837  -0.4493
6.414e+09  0.7792  -0.2965  0.02465  0.003463  0.0184  -0.01397  0.5888  -0.7158
6.415e+09  0.653  -0.5929  -0.01591  -0.02759  -0.04462  0.02094  0.312  -0.8626
6.416e+09  0.3857  -0.7363  -0.03723  -0.03994  -0.008004  0.04056  0.009417  -0.8874
6.418e+09  0.185  -0.8872  0.004221  -0.02572  -0.02366  0.01347  -0.3133  -0.8834
6.419e+09  -0.1602  -0.8526  -0.02549  0.03213  0.01739  -0.02075  -0.57  -0.7205
6.42e+09  -0.4501  -0.7316  -0.005728  0.02887  0.01988  -0.01715  -0.7857  -0.493
6.421e+09  -0.6583  -0.5301  -0.001741  -0.03572  -0.02506  0.007125  -0.917  -0.1877
6.422e+09  -0.8689  -0.2678  0.03116  0.0163  -0.02368  0.02134  -0.8879  0.135
6.424e+09  -0.8312  0.0378  -0.006226  -0.03139  0.01634  -0.005696  -0.7571  0.3875
6.425e+09  -0.8268  0.3549  0.01752  -0.03786  0.01989  0.002522  -0.6169  0.6845
6.426e+09  -0.6264  0.652  -0.004636  -0.01433  0.004352  -0.004927  -0.3718  0.8419
6.428e+09  -0.4474  0.7532  -0.02177  0.03788  -0.02364  -0.04983  -0.06519  0.8685
6.429e+09  -0.08911  0.8745  0.008085  -0.04363  -0.03129  0.007358  0.2544  0.8749
6.43e+09  0.1808  0.8627  0.02447  -0.01413  -0.01914  0.03417  0.4875  0.7217
6.431e+09  0.4711  0.7148  -0.03017  0.02117  -0.01039  0.03001  0.723  0.5023
6.432e+09  0.7225  0.5809  0.002305  -0.04887  0.01528  -0.001669  0.8378  0.1936
6.434e+09  0.8678  0.2934  -0.02557  -0.01789  0.01176  0.02165  0.8356  -0.1042
6.435e+09  0.9248  -0.0609  -0.009224  -0.03062  0.002884  -0.02334  0.8029  -0.3846
6.436e+09  0.8228  -0.3831  -0.009533  -0.006352  0.01561  0.008866  0.62  -0.6114
6.438e+09  0.6748  -0.6261  -0.04133  0.0141  0.04756  -0.02272  0.3706  -0.76
6.439e+09  0.4058  -0.7613  -0.02454  -0.04033  0.02161  0.03229  0.07679  -0.8567
6.44e+09  0.1196  -0.8825  -0.0007328  -0.02796  0.003886  0.009619  -0.1907  -0.83
6.441e+09  -0.1855  -0.8657  0.009365  -0.01593  0.009103  -0.01557  -0.4819  -0.6678
6.442e+09  -0.4892  -0.7702  0.02038  0.03894  -0.02877  -0.02468  -0.7465  -0.4614
6.444e+09  -0.6829  -0.5703  -0.03081  0.06233  -0.03144  0.02423  -0.8296  -0.2182
6.445e+09  -0.8298  -0.2668  0.02291  0.009535  0.01254  -0.0007624  -0.826  0.06594
6.446e+09  -0.9109  0.05079  0.004799  -0.01617  0.02979  0.006913  -0.7692  0.3688
6.448e+09  -0.8543  0.3252  -0.01002  0.02987  -0.004982  -0.002912  -0.6054  0.5798
6.449e+09  -0.6527  0.5489  0.02629  -0.02107  -0.02171  0.02493  -0.3058  0.7666
6.45e+09  -0.4121  0.8178  -0.01493  -0.005941  -0.006645  0.0302  -0.0189  0.8588
6.451e+09  -0.1391  0.8661  0.02964  0.01926  -0.05608  0.005692  0.1929  0.815
6.452e+09  0.1917  0.8884  -0.03361  -0.03057  -0.05073  -0.02176  0.469  0.6722
6.454e+09  0.5269  0.7398  -0.000903  0.0625  -0.04219  -0.03506  0.7082  0.5199
6.455e+09  0.7296  0.5506  0.001328  0.01279  0.03653  -0.03922  0.7691  0.2057
6.456e+09  0.8996  0.2354  -0.01005  -0.02455  -0.01431  0.001411  0.8174  -0.1045
6.458e+09  0.8867  -0.1045  0.03044  0.01697  0.04396  -0.01635  0.7622  -0.3647
6.459e+09  0.8252  -0.3563  0.005659  -0.009502  0.02326  0.001537  0.5599  -0.5879
6.46e+09  0.6559  -0.7056  0.01756  -0.04206  -0.008967  0.03258  0.3206  -0.7151
6.461e+09  0.3807  -0.831  0.002674  0.01606  0.02407  7.122e-05  0.08313  -0.8001
6.462e+09  0.08302  -0.9227  0.03626  0.0162  0.01095  -0.04424  -0.2048  -0.82
6.464e+09  -0.2193  -0.824  -0.0174  0.03292  -0.009767  0.01943  -0.4617  -0.6615
6.465e+09  -0.4955  -0.7274  -0.02308  -0.01311  0.02622  -0.01521  -0.6829  -0.479
6.466e+09  -0.714  -0.5329  -0.02028  -0.0006583  -0.03823  0.04401  -0.8069  -0.1868
6.468e+09  -0.8655  -0.2688  -0.02019  -0.0465  -0.008097  -0.01108  -0.8199  0.07953
6.469e+09  -0.9116  0.1085  0.05073  0.05832  -0.0166  -0.01075  -0.7463  0.3117
6.47e+09  -0.8039  0.376  0.01669  0.02552  0.04746  -0.03467  -0.5534  0.5815
6.471e+09  -0.6033  0.6093  0.02638  -0.03466  -0.02068  -0.006381  -0.3413  0.7197
6.472e+09  -0.3511  0.8669  0.01261  -0.04311  0.01182  -0.04441  -0.02792  0.8437
6.474e+09  -0.09882  0.9119  0.005858  -0.00719  -0.0009906  -0.03976  0.2064  0.737
6.475e+09  0.3093  0.8568  0.001223  0.03726  -0.01348  0.02514  0.4107  0.6443
6.476e+09  0.5152  0.7691  0.03366  -0.003295  0.04759  0.0336  0.6644  0.4649
6.478e+09  0.7854  0.5274  0.002936  0.01754  -0.04097  0.007922  0.7988  0.1948
6.479e+09  0.8552  0.2482  -0.02384  0.00747  0.03396  -0.0004967  0.7498  -0.05702
6.48e+09  0.9535  -0.1071  0.01317  -0.01388  0.007993  0.03478  0.7132  -0.3245
6.481e+09  0.8409  -0.3782  0.02638  0.02214  -0.04225  0.01813  0.5577  -0.618
6.482e+09  0.654  -0.6764  0.02741  0.02354  -0.01457  0.03294  0.308  -0.7118
6.484e+09  0.3727  -0.8282  0.02828  -0.004593  -0.001905  -0.004973  0.05107  -0.8114
6.485e+09  0.05225  -0.9005  0.01723  0.00244  -0.04924  -0.05062  -0.1662  -0.7355
6.486e+09  -0.2702  -0.8529  0.02822  -0.01712  -0.01145  -0.02345  -0.4791  -0.5978
6.488e+09  -0.5575  -0.6675  -0.01364  -0.01843  0.03492  -0.02234  -0.6769  -0.4213
6.489e+09  -0.7872  -0.5211  0.00763  -0.03779  -0.03534  -0.000215  -0.7743  -0.1982
6.49e+09  -0.9185  -0.2476  0.0155  0.01349  -0.01635  0.01818  -0.7641  0.09179
6.491e+09  -0.9739  0.1427  -0.005935  -0.04901  0.0032  -0.001637  -0.7476  0.3372
6.492e+09  -0.8472  0.4202  0.01358  -0.008375  0.02518  0.02919  -0.55  0.5664
6.494e+09  -0.6291  0.7237  -0.0101  -0.01646  0.02899  -0.006071  -0.3146  0.7109
6.495e+09  -0.3816  0.8919  0.02012  0.01727  0.05309  -0.004857  -0.0476  0.7477
6.496e+09  -0.02655  0.8888  0.01221  -0.003825  -0.006434  -0.001192  0.2647  0.7267
6.498e+09  0.2531  0.8865  0.0004932  0.04705  0.04243  -0.003588  0.4737  0.6177
6.499e+09  0.6164  0.7793  -0.01051  0.00808  -0.03361  0.008894  0.6732  0.4186
6.5e+09  0.7979  0.4396  -0.02432  -0.008963  0.01477  0.04571  0.8001  0.1909
6.501e+09  0.9111  0.1601  -0.004183  -0.01769  -0.01988  -0.05612  0.7758  -0.08384
6.502e+09  0.9432  -0.1304  -0.01215  0.001766  0.009951  0.008733  0.6807  -0.3479
6.504e+09  0.7871  -0.4507  -0.002966  0.009346  -0.0514  0.01216  0.51  -0.5702
6.505e+09  0.6195  -0.7089  0.04212  -0.002239  -0.03352  0.01318  0.2788  -0.7388
6.506e+09  0.3803  -0.9357  -0.00298  0.02043  0.03051  0.03994  -0.001469  -0.7527
6.508e+09  0.01451  -0.9481  -0.01461  0.007907  -0.03494  -0.0366  -0.2799  -0.751
6.509e+09  -0.3287  -0.9423  0.004486  -0.02275  0.06989  0.01219  -0.5047  -0.5834
6.51e+09  -0.6111  -0.7378  0.01706  -0.01649  0.005545  0.002094  -0.6254  -0.3813
6.511e+09  -0.8086  -0.4226  -0.005733  -0.003219  -0.03459  -0.05466  -0.754  -0.1195
6.512e+09  -0.9262  -0.1707  0.02149  -0.02366  0.009683  -0.03141  -0.733  0.1257
6.514e+09  -0.9877  0.1919  0.02287  0.01724  -0.01412  0.01746  -0.6464  0.3887
6.515e+09  -0.8042  0.5169  -0.005999  -0.03611  -0.05565  -0.07264  -0.474  0.5714
6.516e+09  -0.5914  0.8159  0.01804  0.02285  -0.02556  0.01187  -0.2316  0.7124
6.518e+09  -0.2884  0.963  -0.02119  0.001717  -0.04794  0.0354  -0.002347  0.7307
6.519e+09  0.05708  0.9296  -0.02  0.004448  0.02056  -0.02242  0.2894  0.6937
6.52e+09  0.4403  0.8878  0.00609  0.02528  0.01777  0.03347  0.5329  0.5503
6.521e+09  0.6572  0.7182  0.01171  0.05401  0.05701  -0.0668  0.6678  0.3425
6.522e+09  0.8958  0.4139  0.02862  -0.002093  -0.01015  -0.01971  0.7178  0.06645
6.524e+09  1.03  0.05623  -0.006765  -0.01946  0.04402  0.0007901  0.7439  -0.1723
6.525e+09  0.9327  -0.2332  0.002472  0.03088  -0.01819  0.04394  0.643  -0.4044
6.526e+09  0.8051  -0.5575  0.01253  0.04392  0.02191  0.0008827  0.4183  -0.5928
6.528e+09  0.5483  -0.8037  0.001596  -0.01722  -0.007139  -0.01207  0.1634  -0.6792
6.529e+09  0.2396  -0.969  -0.02513  0.03478  0.0007308  0.04469  -0.06531  -0.7179
6.53e+09  -0.1347  -0.9451  0.003512  -0.001965  0.003351  0.01644  -0.324  -0.6532
6.531e+09  -0.4363  -0.8638  0.005561  -0.01808  -0.001121  0.06958  -0.4936  -0.4674
6.532e+09  -0.7358  -0.6219  -0.0008477  -0.006292  -0.02784  0.003798  -0.5365  -0.3529
6.534e+09  -0.9019  -0.3363  -0.005103  0.01753  -0.02543  0.0169  -0.6543  -0.0908
6.535e+09  -0.9859  -0.02181  0.00499  0.006786  0.03847  0.08992  -0.5959  0.1014
6.536e+09  -0.9287  0.3182  -0.0002974  -0.01485  0.00372  0.006786  -0.546  0.3277
6.538e+09  -0.7751  0.6821  -0.01486  0.0264  0.06219  -9.68e-05  -0.4494  0.5115
6.539e+09  -0.4921  0.8488  -0.0006126  0.001399  -0.02434  0.04791  -0.2785  0.6086
6.54e+09  -0.1259  0.9584  -0.009424  -0.007749  0.02495  -0.01248  -0.03528  0.6408
6.541e+09  0.1688  0.9825  -0.02208  -0.03974  0.0194  0.04832  0.2148  0.6667
6.542e+09  0.4887  0.8285  -0.02165  -0.02175  0.004886  0.0006892  0.3985  0.5823
6.544e+09  0.7396  0.5756  -0.01384  -0.005111  -0.01503  0.02714  0.5606  0.3945
6.545e+09  0.8971  0.2298  -0.01656  -0.02105  0.02877  -0.01785  0.6791  0.1757
6.546e+09  0.9625  -0.1074  -0.02994  0.006961  0.01191  0.0215  0.7314  -0.06418
6.548e+09  0.9065  -0.3666  0.01219  -0.01888  -0.01774  0.0001394  0.6618  -0.3319
6.549e+09  0.7114  -0.7575  0.004826  0.009383  -0.03495  -0.003588  0.5029  -0.5245
6.55e+09  0.4397  -0.863  0.03332  0.03101  -0.04864  -0.06237  0.295  -0.6683
