# Hz S RI R 50
6.25e+09  -0.4194  0.7505  -0.01862  0.02209  -0.08951  0.02099  0.1306  0.5277
6.251e+09  -0.1699  0.8658  0.04304  -0.01076  -0.01046  0.02099  0.3902  0.4066
6.252e+09  0.1324  0.8568  -0.003484  -0.02622  -0.03765  0.01245  0.5248  0.2354
6.254e+09  0.4624  0.7461  -0.002981  0.005687  -0.004177  0.008328  0.5871  0.002092
6.255e+09  0.7182  0.5472  0.01143  -0.03479  -0.007422  0.02721  0.5754  -0.2741
6.256e+09  0.7823  0.3417  -0.004202  -0.01149  0.03754  0.02326  0.4711  -0.4486
6.258e+09  0.7933  -0.01208  0.01166  -0.01525  0.002078  -0.04687  0.304  -0.6215
6.259e+09  0.7172  -0.3403  0.01839  0.0378  0.03067  -0.001209  0.0508  -0.6591
6.26e+09  0.6368  -0.571  -0.04133  0.001583  -0.02379  0.05005  -0.2256  -0.6645
6.261e+09  0.3449  -0.7595  -0.0005549  0.0008312  0.03084  0.07398  -0.4435  -0.5287
6.262e+09  0.1399  -0.8861  -0.01307  0.006453  -0.04413  -0.002188  -0.6475  -0.3248
6.264e+09  -0.1332  -0.7872  0.009549  -0.01417  -0.04808  -0.0434  -0.6799  -0.05751
6.265e+09  -0.4686  -0.6728  -0.01589  0.02924  -0.04701  -0.02423  -0.7036  0.1485
6.266e+09  -0.6688  -0.5331  0.02415  -0.0216  0.02276  -0.01075  -0.6362  0.4177
6.268e+09  -0.7824  -0.2479  -0.007696  -0.003613  0.0001069  0.003139  -0.4154  0.6137
6.269e+09  -0.8591  0.0635  -0.01872  -0.004141  0.005923  -0.03819  -0.1909  0.7048
6.27e+09  -0.7505  0.3216  -0.002811  -0.02411  0.002217  0.01637  0.04133  0.7352
6.271e+09  -0.6369  0.577  0.02547  0.03403  9.256e-05  -0.01257  0.3226  0.6702
6.272e+09  -0.3713  0.7566  -0.02575  0.01008  0.04332  -0.03877  0.5352  0.5322
6.274e+09  -0.1669  0.8775  -0.006452  -0.0283  -0.01647  0.0291  0.6841  0.3061
6.275e+09  0.173  0.8175  -0.004995  0.006161  -0.0449  -0.05774  0.7603  0.03296
6.276e+09  0.4639  0.6961  0.00638  0.02655  -0.08446  -0.03176  0.719  -0.2267
6.278e+09  0.653  0.4777  0.01371  -0.01656  0.0247  0.003825  0.5861  -0.4657
6.279e+09  0.7929  0.2327  -0.01045  -0.006856  0.001499  0.004135  0.3798  -0.6537
6.28e+09  0.8356  -0.03031  0.0005631  -0.01177  0.04295  0.01967  0.1293  -0.7783
6.281e+09  0.7573  -0.3568  0.005046  0.02355  -0.02519  0.008836  -0.09928  -0.7813
6.282e+09  0.6355  -0.5845  -0.01912  -0.02933  0.04662  -0.01642  -0.3527  -0.7041
6.284e+09  0.4091  -0.7571  0.02427  0.001258  0.0121  -0.01591  -0.6015  -0.5162
6.285e+09  0.07231  -0.8082  -0.0002982  0.02945  -0.01409  -0.03118  -0.7336  -0.2942
6.286e+09  -0.1923  -0.8237  0.007986  -0.01777  -0.06671  -0.0104  -0.7885  -0.006647
6.288e+09  -0.4656  -0.7101  0.0003557  -0.021  0.03734  0.032  -0.764  0.2399
6.289e+09  -0.709  -0.4886  -0.002001  -0.0005908  0.02278  -0.05558  -0.6085  0.4623
6.29e+09  -0.8254  -0.1667  0.009667  -0.006068  0.02359  -0.02267  -0.4175  0.7222
6.291e+09  -0.8283  0.03302  0.001201  -0.001925  0.006841  0.009071  -0.14  0.7769
6.292e+09  -0.756  0.3032  0.0004004  -0.005062  0.002614  -0.05231  0.1412  0.768
6.294e+09  -0.5984  0.5678  -0.03291  -0.001952  0.02999  0.01679  0.3753  0.7228
6.295e+09  -0.3354  0.8112  0.004045  0.0408  -0.04539  0.02412  0.5996  0.5342
6.296e+09  -0.03231  0.8424  -0.01808  -0.02114  -0.0214  -0.02431  0.7736  0.28
6.298e+09  0.1864  0.7557  0.005786  0.008011  -0.02853  -0.01615  0.8457  -0.007163
6.299e+09  0.4742  0.693  -0.01876  0.007675  0.01738  0.01632  0.7463  -0.2583
6.3e+09  0.711  0.388  -0.03266  0.01089  0.00657  -0.02679  0.6227  -0.5029
6.301e+09  0.8056  0.2108  0.00289  -0.01286  0.02744  0.004445  0.4246  -0.7219
6.302e+09  0.8377  -0.0441  0.02517  0.008428  0.01338  0.01047  0.1475  -0.792
6.304e+09  0.7332  -0.3609  -0.01431  -0.001574  0.01262  -0.003127  -0.1231  -0.8337
6.305e+09  0.5241  -0.6261  0.005952  0.01664  0.04117  -0.02825  -0.4356  -0.7247
6.306e+09  0.3048  -0.6981  -0.002843  -0.01315  0.007349  -0.02317  -0.6461  -0.5606
6.308e+09  0.01898  -0.8559  0.02087  0.0006132  -0.02649  -0.01288  -0.7848  -0.2748
6.309e+09  -0.2296  -0.8113  -0.03021  -0.01044  0.01744  0.02262  -0.855  -0.01206
6.31e+09  -0.514  -0.7077  0.02033  -0.0006402  0.03026  0.005737  -0.824  0.2623
6.311e+09  -0.6972  -0.4646  0.01066  0.01056  -0.01473  -0.03959  -0.6739  0.5378
6.312e+09  -0.8283  -0.158  -0.003581  -0.00123  0.001573  0.004667  -0.4117  0.7743
6.314e+09  -0.8217  0.1511  -0.006635  0.02335  0.03081  0.03346  -0.1549  0.8642
6.315e+09  -0.6933  0.4403  0.01493  0.01119  0.02801  -0.01056  0.1436  0.8655
6.316e+09  -0.5567  0.6361  -0.01287  0.01452  0.05213  -0.01949  0.4059  0.7429
6.318e+09  -0.296  0.7833  0.0008914  -0.02128  -0.0348  0.007555  0.6636  0.5506
6.319e+09  -0.006417  0.8386  0.006606  -0.006281  0.04152  0.01293  0.8461  0.2935
6.32e+09  0.3331  0.7657  0.009199  0.0434  0.00272  -0.006081  0.8884  0.003959
6.321e+09  0.5407  0.6615  -0.02536  0.00461  0.01581  0.05131  0.8275  -0.2683
6.322e+09  0.7206  0.446  0.0007346  0.00319  -0.02021  0.04995  0.7043  -0.5378
6.324e+09  0.8426  0.1275  0.03584  -0.004649  -0.01447  0.01255  0.4759  -0.7881
6.325e+09  0.8487  -0.1562  0.03939  0.01013  -0.01661  -0.006645  0.1935  -0.8885
6.326e+09  0.7236  -0.4346  -0.01022  0.01572  -0.02424  0.01101  -0.1421  -0.8908
6.328e+09  0.5589  -0.7054  0.0225  -0.012  0.01317  0.02037  -0.4304  -0.8301
6.329e+09  0.2274  -0.8677  -0.01788  -0.001582  -0.03349  -0.01431  -0.6723  -0.573
6.33e+09  -0.08151  -0.8431  -0.02809  -0.001233  -0.02987  0.05243  -0.8431  -0.3415
6.331e+09  -0.3572  -0.7548  0.04115  0.03208  -0.02173  -0.01337  -0.9278  -0.01451
6.332e+09  -0.5969  -0.623  0.03131  0.0316  -9.263e-06  -0.01647  -0.8718  0.2942
6.334e+09  -0.8076  -0.3752  0.02344  -0.03161  0.01236  0.01117  -0.6899  0.5462
6.335e+09  -0.8442  -0.1195  0.01258  0.01411  -0.01331  0.007335  -0.4884  0.7796
6.336e+09  -0.8522  0.2376  -0.01422  -0.01636  0.003204  0.008818  -0.1769  0.8972
6.338e+09  -0.7283  0.48  -0.009259  0.005397  0.009694  0.00015  0.1031  0.8989
6.339e+09  -0.5122  0.7495  0.00199  -0.03261  -0.01755  0.02208  0.4533  0.824
6.34e+09  -0.2744  0.8121  0.01019  0.004449  0.03602  -0.01488  0.7339  0.6462
6.341e+09  0.1453  0.9396  -0.02826  -0.03906  -0.02933  0.03501  0.8599  0.3393
6.342e+09  0.4037  0.7663  0.02613  0.02583  -0.0257  -0.01553  0.9411  0.03632
6.344e+09  0.6923  0.6096  0.002733  -0.01345  0.02109  0.00333  0.891  -0.273
6.345e+09  0.816  0.3175  0.01828  -0.01605  0.004052  0.0185  0.736  -0.5316
6.346e+09  0.8951  0.01616  0.009919  -0.0091  0.02756  -0.04744  0.5117  -0.8025
6.348e+09  0.8392  -0.3132  -0.002086  0.0175  0.01351  0.03168  0.211  -0.8828
6.349e+09  0.6794  -0.565  0.03834  0.02943  -0.02852  -0.02442  -0.1232  -0.9387
6.35e+09  0.4012  -0.765  -0.0001593  -0.01549  0.03408  0.0346  -0.4307  -0.7936
6.351e+09  0.1224  -0.8618  -0.009625  0.0187  -0.01062  0.009166  -0.6785  -0.6253
6.352e+09  -0.1699  -0.8401  0.01099  -0.008117  -0.01921  0.04313  -0.8861  -0.4031
6.354e+09  -0.4762  -0.7759  -0.01713  0.01581  0.005411  0.00388  -0.9591  -0.06414
6.355e+09  -0.6845  -0.5704  0.003272  0.008467  0.02464  0.03426  -0.885  0.2441
6.356e+09  -0.8548  -0.2342  -0.01137  -0.03518  0.0494  0.002318  -0.7635  0.563
6.358e+09  -0.8701  0.03017  -0.01186  0.006201  0.007492  0.009397  -0.5347  0.7443
6.359e+09  -0.8085  0.3304  0.01189  0.003117  0.01257  -0.01207  -0.2417  0.9222
6.36e+09  -0.6739  0.6227  0.01085  -0.02667  0.04483  -0.009451  0.1028  0.9388
6.361e+09  -0.4076  0.7843  -0.01317  -0.0002777  0.04553  0.01719  0.4007  0.8398
6.362e+09  -0.1083  0.9123  -0.01642  0.009297  -0.02777  -0.00926  0.6941  0.654
6.364e+09  0.2137  0.86  0.03011  -0.0108  0.01008  -0.01684  0.8186  0.4414
6.365e+09  0.4802  0.7447  0.0182  0.01213  0.0001187  0.04758  0.968  0.09493
6.366e+09  0.7091  0.5249  0.01077  -0.006434  0.03072  -0.02117  0.896  -0.2368
6.368e+09  0.8534  0.2429  0.02667  -0.04293  -0.04079  0.0138  0.7895  -0.5687
6.369e+09  0.8835  -0.09442  0.01246  -0.01045  -0.02979  -0.01807  0.5516  -0.7554
6.37e+09  0.7586  -0.3793  -0.03786  0.00992  -0.04919  -0.04984  0.2786  -0.9511
6.371e+09  0.6692  -0.6378  -0.01158  0.009078  0.03546  -0.01271  -0.07564  -0.9646
6.372e+09  0.3305  -0.8129  -0.005514  -0.02541  -0.03029  -0.03055  -0.3768  -0.876
6.374e+09  0.08221  -0.9063  -0.0357  0.004734  0.01681  -0.0128  -0.6417  -0.7277
6.375e+09  -0.2204  -0.8646  0.00482  -0.02362  -0.006416  -0.05377  -0.86  -0.3993
6.376e+09  -0.5255  -0.6809  -0.01054  0.01524  -0.0008549  -0.01832  -0.9374  -0.06879
6.378e+09  -0.7811  -0.4626  0.005998  0.0205  0.002387  0.01279  -0.8865  0.2584
6.379e+09  -0.846  -0.156  -0.01263  0.01353  0.04654  0.01432  -0.785  0.5169
6.38e+09  -0.8794  0.08778  0.01916  -0.02091  0.005591  0.0516  -0.5517  0.7472
6.381e+09  -0.7741  0.4338  0.02581  0.01226  0.009248  -0.007616  -0.251  0.917
6.382e+09  -0.5653  0.6856  0.01533  -0.0001177  0.0345  -0.01789  0.04194  0.9718
6.384e+09  -0.3337  0.8143  0.00268  -0.02907  -0.01176  0.03362  0.3904  0.8681
6.385e+09  -0.02907  0.8903  0.001089  0.007264  -0.001042  -0.005292  0.6232  0.6872
6.386e+09  0.3372  0.8253  -8.611e-05  0.03879  0.02086  0.02305  0.8519  0.4157
6.388e+09  0.5506  0.6843  -0.02554  0.02186  -0.008799  0.0142  0.8803  0.07748
6.389e+09  0.8043  0.4556  0.01916  -0.01925  -0.01013  0.03414  0.9284  -0.2164
6.39e+09  0.8245  0.1892  -0.04998  0.02359  -0.01829  -0.03063  0.7641  -0.4946
6.391e+09  0.8876  -0.1696  -0.04331  0.01574  -0.0164  0.01619  0.533  -0.7312
6.392e+09  0.7603  -0.442  -0.06287  0.005724  -0.03392  0.001211  0.264  -0.9178
6.394e+09  0.5514  -0.7297  0.05502  -0.006826  -0.02467  -0.0235  -0.006578  -0.9464
6.395e+09  0.2755  -0.8403  -0.01081  -0.02157  0.0117  0.006182  -0.3597  -0.8037
6.396e+09  -0.03247  -0.8637  0.02984  0.004424  -0.04747  0.02304  -0.5982  -0.6978
6.398e+09  -0.3449  -0.8699  0.01783  -0.01293  0.00609  0.02325  -0.8233  -0.4563
6.399e+09  -0.6219  -0.6701  -0.004428  0.02015  -0.02499  -0.002498  -0.8814  -0.1701
6.4e+09  -0.7802  -0.4352  0.01011  -0.01145  0.01768  0.01178  -0.9327  0.1817
6.401e+09  -0.851  -0.1237  -0.03573  0.01867  0.0181  0.02346  -0.8052  0.4345
6.402e+09  -0.8349  0.2424  -0.04389  0.0003156  -0.006051  0.07785  -0.5723  0.7117
6.404e+09  -0.7222  0.47  0.01274  0.004956  0.04524  -0.006328  -0.2736  0.8699
6.405e+09  -0.5214  0.6797  0.001534  0.02161  -0.0003775  0.01632  0.004465  0.9156
6.406e+09  -0.2374  0.8775  -0.01109  -0.01616  0.03831  -0.00117  0.2869  0.8848
6.408e+09  0.03296  0.86  0.03421  -0.03064  0.007358  0.02305  0.547  0.6905
6.409e+09  0.2835  0.8343  -0.01776  0.02227  -0.006335  0.03891  0.7831  0.4817
6.41e+09  0.5594  0.6594  0.01961  -0.05424  0.01079  0.01758  0.8885  0.144
6.411e+09  0.7761  0.3752  0.01242  0.06933  0.03479  0.06747  0.9206  -0.1362
6.412e+09  0.8257  0.09207  -0.02361  -0.01829  -0.04164  0.04836  0.8319  -0.4125
6.414e+09  0.8198  -0.1945  0.0008149  -0.008154  0.01717  0.02052  0.6356  -0.6628
6.415e+09  0.7491  -0.5022  -0.01918  -0.005226  -0.002905  0.00305  0.3353  -0.8117
6.416e+09  0.552  -0.7236  0.02261  0.005354  -0.01996  0.01577  0.03614  -0.9648
6.418e+09  0.1537  -0.8133  -0.01205  -0.02322  -0.01457  0.009229  -0.2552  -0.8673
6.419e+09  -0.08178  -0.8719  -0.02031  -0.0004008  0.001115  0.008983  -0.5659  -0.6952
6.42e+09  -0.3997  -0.8052  -0.01434  -0.05155  0.02898  0.02134  -0.7391  -0.502
6.421e+09  -0.6333  -0.6044  -0.02414  -0.01735  -0.01592  0.05513  -0.8486  -0.2358
6.422e+09  -0.8031  -0.3604  -0.004532  -0.01478  0.05955  0.03759  -0.9281  0.1548
6.424e+09  -0.8711  -0.01536  0.01463  -0.05937  -0.01334  -0.004015  -0.7869  0.4011
6.425e+09  -0.8707  0.2624  -0.002293  0.002752  0.03423  -0.005309  -0.5647  0.6273
6.426e+09  -0.6623  0.4628  0.01745  0.03175  0.03829  -0.04286  -0.3294  0.8056
6.428e+09  -0.5344  0.7162  0.004501  -0.02771  -0.006692  -0.05947  -0.03189  0.8923
6.429e+09  -0.292  0.8653  -0.06075  -0.04481  -0.008412  -0.02212  0.2263  0.885
6.43e+09  0.1421  0.8904  0.004601  0.01876  0.0261  -0.01574  0.5304  0.7173
6.431e+09  0.3719  0.8271  0.003264  0.0024  0.02416  0.01316  0.7094  0.4997
6.432e+09  0.6738  0.6244  -0.03074  -0.0163  0.005777  -0.01844  0.8168  0.224
6.434e+09  0.8277  0.3306  -0.009195  -0.01059  0.001552  0.01886  0.8623  -0.08298
6.435e+09  0.9278  0.08139  -0.0324  -0.01629  0.0563  0.05522  0.7828  -0.3498
6.436e+09  0.827  -0.2325  -0.005552  0.01284  -0.01407  0.003713  0.5897  -0.6278
6.438e+09  0.767  -0.5066  -0.01183  0.03702  0.0127  0.0008714  0.3483  -0.7485
6.439e+09  0.4942  -0.7349  0.004634  -0.001422  0.01656  0.06995  0.02754  -0.863
6.44e+09  0.1623  -0.8488  0.00768  -0.0239  -0.03441  -0.04735  -0.2144  -0.8356
6.441e+09  -0.08605  -0.859  -0.03536  -0.03363  -0.04386  -0.04566  -0.5175  -0.707
6.442e+09  -0.399  -0.8417  0.02027  -0.01843  0.03315  -0.01462  -0.6726  -0.4722
6.444e+09  -0.6073  -0.6393  -0.003812  -0.01232  -0.01819  -0.02446  -0.8345  -0.2217
6.445e+09  -0.8427  -0.3467  -0.005019  -0.01682  0.04218  0.04421  -0.859  0.07583
6.446e+09  -0.8477  -0.05913  -0.03232  0.002773  0.02919  -0.03284  -0.7741  0.3582
6.448e+09  -0.8795  0.2491  0.01796  0.017  0.01982  0.07145  -0.5634  0.5671
6.449e+09  -0.7044  0.5219  0.01843  0.0226  0.04432  -0.02565  -0.3935  0.7544
6.45e+09  -0.4801  0.7271  -0.01299  -0.01097  0.003761  -0.007749  -0.08863  0.8071
6.451e+09  -0.1669  0.9462  0.001417  -0.005343  -0.004439  -0.0111  0.2192  0.8649
6.452e+09  0.07721  0.8714  0.02129  -0.02634  0.009316  -0.0002912  0.4593  0.6446
6.454e+09  0.3654  0.783  -0.01926  -0.01708  0.00975  0.02349  0.6925  0.437
6.455e+09  0.6167  0.6435  -0.02185  0.01631  -0.0001494  -0.02945  0.7876  0.1826
6.456e+09  0.8436  0.3289  0.02018  -0.002261  0.03504  -0.01068  0.8404  -0.05734
6.458e+09  0.8499  0.0378  0.02783  0.02065  0.03997  0.000561  0.7218  -0.3845
6.459e+09  0.8533  -0.2269  -0.000301  0.04759  -0.04868  -0.04026  0.5376  -0.552
6.46e+09  0.719  -0.5187  0.01862  -0.005707  -0.02401  -0.008863  0.35  -0.7446
6.461e+09  0.4933  -0.6977  0.03794  0.02896  -0.01459  -0.01512  0.06004  -0.7952
6.462e+09  0.189  -0.8566  -0.01944  -0.04042  -0.02662  -0.007028  -0.2318  -0.7727
6.464e+09  -0.1731  -0.931  0.003481  -0.0066  0.005327  0.04495  -0.4804  -0.6892
6.465e+09  -0.4704  -0.7998  0.005058  -0.0472  0.02977  0.03466  -0.6601  -0.4479
6.466e+09  -0.681  -0.6333  0.03968  0.01434  -0.004249  -0.01916  -0.8138  -0.2081
6.468e+09  -0.8566  -0.2996  0.01083  -0.01826  -0.0004741  -0.01377  -0.7575  0.08297
6.469e+09  -0.9233  -0.03066  -0.03882  0.01266  -0.02717  -0.01143  -0.7171  0.3097
6.47e+09  -0.8585  0.2418  0.02757  -0.02092  0.05388  0.0404  -0.5611  0.5852
6.471e+09  -0.6703  0.4952  -0.04261  -0.01847  0.009997  0.001753  -0.3574  0.7614
6.472e+09  -0.4737  0.7702  -0.02872  0.006347  -0.006886  -0.006149  -0.08727  0.8234
6.474e+09  -0.2414  0.8359  0.02276  -0.01198  -0.0296  -0.009272  0.1947  0.7437
6.475e+09  0.1107  0.8832  0.02418  0.01507  0.04499  -0.04117  0.4503  0.624
6.476e+09  0.4334  0.7654  -0.03522  0.0001415  -0.03784  -0.03298  0.6242  0.4197
6.478e+09  0.6559  0.5281  0.0238  0.02207  0.006204  -0.01894  0.7461  0.2106
6.479e+09  0.8347  0.3225  0.01892  -0.003784  0.004762  -0.01256  0.7735  -0.08156
6.48e+09  0.8784  0.03928  -0.008827  -0.03236  0.02784  -0.01859  0.6794  -0.3258
6.481e+09  0.8466  -0.3251  -0.01269  0.005623  0.01219  -0.05549  0.5486  -0.5724
6.482e+09  0.7308  -0.5675  -0.02729  0.01911  -0.05237  0.04372  0.3273  -0.719
6.484e+09  0.4826  -0.7678  -0.01174  0.02677  0.03495  0.02325  0.06214  -0.7401
6.485e+09  0.1197  -0.9239  -0.03825  0.006882  -0.005546  -0.02242  -0.2213  -0.7551
6.486e+09  -0.1312  -0.9296  0.0319  0.04578  0.01807  0.03942  -0.4637  -0.6588
6.488e+09  -0.4531  -0.7761  0.03157  0.03686  -0.01374  0.01081  -0.655  -0.4425
6.489e+09  -0.682  -0.5718  0.005039  0.007557  -0.02045  -0.04194  -0.7696  -0.2088
6.49e+09  -0.9012  -0.354  -0.007533  0.035  0.01354  0.04961  -0.8162  0.02183
6.491e+09  -0.9468  -0.02365  0.006677  0.02756  -0.02352  0.01462  -0.7457  0.3739
6.492e+09  -0.8838  0.2976  0.01081  -0.004186  -0.04165  0.02353  -0.5221  0.5676
6.494e+09  -0.6971  0.5693  -0.02019  -0.01473  0.01108  0.003256  -0.3116  0.7186
6.495e+09  -0.3908  0.8131  0.02452  -0.04115  -0.01795  0.01167  -0.031  0.7379
6.496e+09  -0.1303  0.9232  -0.01367  0.001139  -0.0002495  0.01436  0.2155  0.7161
6.498e+09  0.1349  0.9571  0.03079  -0.01557  -0.02681  -0.0004535  0.4561  0.6686
6.499e+09  0.49  0.7894  0.01369  -0.00871  -0.01254  -0.04047  0.6539  0.3799
6.5e+09  0.7413  0.5734  -0.001139  0.01846  -0.03082  0.0204  0.7555  0.1786
6.501e+09  0.888  0.3308  -0.04832  -0.02147  0.008422  0.02884  0.7504  -0.0537
6.502e+09  0.9909  -0.0675  -0.02997  -0.03541  0.02859  0.008167  0.6687  -0.3503
6.504e+09  0.8741  -0.3264  -0.07446  0.02336  -0.04314  -0.0001552  0.4932  -0.5656
6.505e+09  0.6978  -0.615  -0.007385  -0.01497  0.02759  -0.03566  0.274  -0.7339
6.506e+09  0.4309  -0.8429  0.001577  -0.002498  0.03938  0.01045  0.00978  -0.7737
6.508e+09  0.1355  -0.9349  -0.02479  -0.01258  -0.04668  0.01836  -0.2682  -0.7021
6.509e+09  -0.2503  -0.9347  0.0173  -0.01675  -0.02933  -0.01958  -0.4459  -0.5934
6.51e+09  -0.5204  -0.7665  -0.006054  0.007473  -0.003446  0.003224  -0.6808  -0.3542
6.511e+09  -0.8006  -0.5339  -0.009355  0.007843  0.03227  -0.06034  -0.754  -0.1513
6.512e+09  -0.9603  -0.3164  -0.01636  -0.04873  -0.03318  -0.01594  -0.751  0.1
6.514e+09  -0.9126  0.07802  -0.01601  -0.01707  0.0005698  -0.01387  -0.6606  0.3655
6.515e+09  -0.9004  0.3551  0.01783  -0.005445  -0.01849  -0.06304  -0.487  0.6058
6.516e+09  -0.6527  0.6387  -0.02729  -0.04252  -0.007228  0.01574  -0.2282  0.7545
6.518e+09  -0.396  0.8622  -0.03195  0.003155  0.01286  0.008984  0.02038  0.7303
6.519e+09  -0.1147  0.9881  -0.008255  0.04819  0.009701  0.002574  0.295  0.7161
6.52e+09  0.2417  0.9354  0.03022  0.01464  -0.008283  0.004797  0.4817  0.5634
6.521e+09  0.6234  0.787  -0.04478  -0.03065  0.03554  0.03272  0.6539  0.3449
6.522e+09  0.7892  0.5386  0.01772  -0.003621  -0.02077  0.01867  0.7506  0.09911
6.524e+09  0.9075  0.1774  -0.008329  -0.0004991  0.009749  -0.036  0.7054  -0.1761
6.525e+09  0.9871  -0.1134  0.0004004  -0.01458  -0.008537  0.04648  0.6143  -0.4003
6.526e+09  0.8626  -0.439  0.0008125  -0.008418  -0.03635  0.01655  0.4062  -0.6145
6.528e+09  0.6703  -0.6909  -0.02364  0.02177  0.03053  0.02596  0.2051  -0.6853
6.529e+09  0.3686  -0.9512  -0.02715  0.01437  0.05667  -0.02494  -0.106  -0.6676
6.53e+09  0.01013  -0.9697  0.005599  0.005555  -0.0227  0.02638  -0.2766  -0.6118
6.531e+09  -0.3275  -0.9428  -0.009347  -0.005964  0.003975  0.02678  -0.4841  -0.4742
6.532e+09  -0.5984  -0.7259  0.009226  -0.008981  0.06968  -0.01029  -0.6067  -0.2888
6.534e+09  -0.8373  -0.4776  0.004248  0.0004313  0.007724  -0.0421  -0.6432  -0.05713
6.535e+09  -0.986  -0.2097  -0.004287  -0.03583  0.03602  0.01571  -0.6203  0.1377
6.536e+09  -0.9627  0.1599  -0.01492  -0.006946  -0.02606  0.02357  -0.566  0.3152
6.538e+09  -0.8068  0.5371  0.00653  -0.005544  -0.04479  -0.002596  -0.4189  0.5119
6.539e+09  -0.5875  0.8025  -0.003272  -0.007307  -0.1077  0.006848  -0.2692  0.6219
6.54e+09  -0.3089  0.9232  -0.01519  0.0003194  0.006637  0.006623  -0.06199  0.6913
6.541e+09  0.04296  0.9583  0.009194  -0.01432  -0.01387  0.0244  0.1895  0.6838
6.542e+09  0.3621  0.9238  -0.01555  0.008  0.01544  0.02012  0.4274  0.6097
6.544e+09  0.6944  0.722  0.00928  0.01372  -0.04977  -0.006897  0.5788  0.4102
6.545e+09  0.8379  0.4401  0.0267  0.02819  -0.03113  0.01917  0.7127  0.1704
6.546e+09  0.9919  0.08951  0.01471  0.01175  0.04728  0.008435  0.7453  -0.06342
6.548e+09  0.9377  -0.196  0.01285  -0.01459  -0.001316  0.001755  0.6714  -0.3284
6.549e+09  0.7602  -0.4987  0.006274  -0.001892  -0.014  -0.003556  0.4768  -0.5558
6.55e+09  0.5663  -0.7818  0.004002  0.0285  -0.01373  0.03791  0.2687  -0.7029
