# Hz S RI R 50
6.25e+09  -0.4081  0.7913  -0.01229  0.004953  0.01836  0.01484  0.1764  0.4781
6.251e+09  -0.1214  0.8331  -0.01759  -0.01144  -0.003921  0.008276  0.3936  0.3976
6.252e+09  0.1762  0.8407  -0.008394  0.04182  0.005565  0.02366  0.5367  0.2328
6.254e+09  0.4654  0.7245  -0.01817  -0.03062  -0.06129  0.01192  0.6214  0.01708
6.255e+09  0.7167  0.5048  0.01121  0.007342  -0.02046  -0.01394  0.5687  -0.2434
6.256e+09  0.8259  0.265  -0.006792  0.007116  0.01275  -0.03609  0.4626  -0.4524
6.258e+09  0.8563  -0.01572  0.009088  0.002739  -0.01112  -0.009015  0.3149  -0.5924
6.259e+09  0.7808  -0.3522  -2.709e-05  0.02475  0.04102  -0.0004781  0.06402  -0.6753
6.26e+09  0.5624  -0.6152  0.01091  0.01178  -0.0005461  0.0004204  -0.225  -0.6494
6.261e+09  0.4746  -0.7535  -0.04402  -0.03485  0.05288  0.0463  -0.4592  -0.5373
6.262e+09  0.1118  -0.8296  -0.008466  0.02405  -0.05287  -0.03051  -0.6403  -0.3372
6.264e+09  -0.192  -0.8053  0.0003786  -0.03319  -0.03187  0.01331  -0.7131  -0.09239
6.265e+09  -0.4856  -0.7301  0.001587  0.01339  -0.03501  -0.01476  -0.7121  0.1539
6.266e+09  -0.6514  -0.4982  -0.03772  -0.01152  0.03091  -0.0009213  -0.6015  0.3951
6.268e+09  -0.7679  -0.2093  0.006133  -0.02406  -0.05053  -0.02076  -0.4254  0.6197
6.269e+09  -0.829  0.06263  -0.00754  -0.001176  0.005725  -0.009741  -0.205  0.6979
6.27e+09  -0.7297  0.3227  -0.008131  0.00625  -0.03534  -0.01382  0.06717  0.7596
6.271e+09  -0.569  0.6235  0.002511  -0.002589  0.02697  -0.004173  0.346  0.6925
6.272e+09  -0.3821  0.7244  0.04103  0.009858  -0.0115  -0.01114  0.5498  0.507
6.274e+09  -0.0994  0.8351  -0.02347  0.008979  0.000376  0.007075  0.7203  0.2858
6.275e+09  0.2417  0.8047  -0.007265  0.01236  0.0284  -0.01958  0.7697  0.02662
6.276e+09  0.4838  0.7382  -0.0159  -0.0173  -0.005914  -0.01897  0.76  -0.224
6.278e+09  0.7146  0.4892  -0.0276  -0.0067  0.01217  -0.01762  0.5721  -0.4684
6.279e+09  0.7574  0.2112  -0.01037  -0.001786  0.04613  0.0003314  0.4336  -0.6715
6.28e+09  0.7936  -0.04008  -0.02089  0.01594  0.0222  0.01818  0.1628  -0.7476
6.281e+09  0.7763  -0.3443  -0.006039  0.02567  -0.01251  -0.02872  -0.0762  -0.77
6.282e+09  0.5797  -0.6781  -0.01449  0.02032  -0.02884  0.0261  -0.3656  -0.7013
6.284e+09  0.3464  -0.7257  0.01539  0.002127  0.003658  0.001676  -0.6007  -0.5396
6.285e+09  0.04004  -0.8513  0.01709  0.02027  0.05728  0.01062  -0.7126  -0.2921
6.286e+09  -0.2144  -0.8518  -0.01712  -0.03779  -0.01904  0.0229  -0.7845  -0.03246
6.288e+09  -0.4307  -0.6591  0.003597  -0.004149  0.003395  -0.025  -0.7434  0.2431
6.289e+09  -0.6851  -0.482  -0.03699  -0.035  0.02769  -0.04321  -0.6141  0.4847
6.29e+09  -0.7786  -0.1769  0.001702  -0.006755  -0.02458  -0.02799  -0.394  0.6992
6.291e+09  -0.8053  0.1207  0.00175  0.03243  0.0685  0.026  -0.1371  0.8177
6.292e+09  -0.7284  0.3298  -0.03841  -0.02923  0.03054  0.01185  0.1315  0.7974
6.294e+09  -0.5362  0.6014  0.01314  0.01382  0.05086  0.02797  0.393  0.725
6.295e+09  -0.3184  0.7362  0.02624  -0.01016  0.01334  0.01135  0.6308  0.5322
6.296e+09  -0.02436  0.8649  -0.01999  0.01049  0.02126  -0.006972  0.7729  0.2563
6.298e+09  0.2371  0.7486  0.02251  0.01048  -0.02113  -0.04843  0.8431  0.01787
6.299e+09  0.5181  0.675  0.004425  -0.03885  0.02801  0.01763  0.7684  -0.2796
6.3e+09  0.7306  0.5132  -0.03346  0.01316  0.0264  -0.03386  0.6445  -0.5346
6.301e+09  0.8133  0.172  -0.006403  -0.006993  0.04387  -0.01642  0.4452  -0.7252
6.302e+09  0.8222  -0.1451  -0.005892  0.03497  0.003439  -0.00386  0.1143  -0.8187
6.304e+09  0.7307  -0.4252  -0.004585  -0.0007358  -0.01549  -0.05581  -0.1523  -0.8219
6.305e+09  0.4902  -0.6037  -0.0009843  0.001207  0.00741  -0.01035  -0.4112  -0.7526
6.306e+09  0.2911  -0.7363  -0.002414  -0.01193  0.01949  0.02349  -0.6231  -0.5593
6.308e+09  0.0311  -0.8685  -0.000266  -0.02017  0.05207  -0.04662  -0.8107  -0.2916
6.309e+09  -0.2564  -0.8017  0.01113  -0.01259  0.01891  -0.005609  -0.9015  0.01548
6.31e+09  -0.549  -0.641  -0.02109  0.02415  -0.02469  0.03781  -0.8223  0.3195
6.311e+09  -0.7162  -0.4449  0.001676  -0.007534  0.04036  0.02693  -0.6437  0.5711
6.312e+09  -0.7802  -0.09062  0.005306  -0.01748  -0.001473  -0.0255  -0.4211  0.7728
6.314e+09  -0.8283  0.1848  -0.01913  0.01819  -0.02536  -0.008105  -0.1767  0.845
6.315e+09  -0.7091  0.4339  -0.02187  0.02239  0.0392  0.003024  0.166  0.8873
6.316e+09  -0.5268  0.6771  -0.01076  0.01157  0.03392  0.05162  0.4691  0.7951
6.318e+09  -0.2581  0.8337  0.01805  -0.03067  0.04394  -0.02344  0.665  0.564
6.319e+09  0.06803  0.8766  0.01766  -0.009366  -0.02903  -0.01956  0.8283  0.3373
6.32e+09  0.3506  0.7654  -0.01014  -0.03396  0.001553  -0.003478  0.8691  0.005953
6.321e+09  0.5875  0.6289  0.01625  -0.004683  -0.03326  0.02382  0.8248  -0.3327
6.322e+09  0.782  0.3732  -0.01587  0.01019  -0.0181  -0.02698  0.672  -0.5615
6.324e+09  0.8739  0.09719  -0.03537  0.01385  -0.01981  0.0197  0.4743  -0.7437
6.325e+09  0.8304  -0.2398  0.003278  0.02243  0.02249  -0.006937  0.1772  -0.8859
6.326e+09  0.7001  -0.4425  -0.04375  0.02753  0.02533  0.03074  -0.1281  -0.8526
6.328e+09  0.5439  -0.6882  -0.01495  0.01845  -0.01246  0.03179  -0.4284  -0.7968
6.329e+09  0.1588  -0.8469  -0.009683  -0.008437  0.06705  -0.008934  -0.6762  -0.6126
6.33e+09  -0.09878  -0.8041  0.0285  0.01903  0.007308  -0.04714  -0.8879  -0.3259
6.331e+09  -0.3842  -0.7764  -0.02673  0.0001866  0.02122  -0.01162  -0.9036  -0.01844
6.332e+09  -0.5731  -0.5887  0.01551  0.0003901  -0.001085  0.0191  -0.8658  0.2753
6.334e+09  -0.7844  -0.3117  0.008341  -0.04171  -0.0009517  -0.008586  -0.716  0.5768
6.335e+09  -0.8973  -0.04669  -0.01458  -0.02896  0.02921  -0.004836  -0.4802  0.7738
6.336e+09  -0.8545  0.2701  0.003868  -0.01873  -0.04155  0.02515  -0.1968  0.9204
6.338e+09  -0.7314  0.5337  0.05357  0.009745  0.02832  -0.009366  0.1191  0.9093
6.339e+09  -0.4872  0.7777  -0.008321  0.004049  0.00795  0.02623  0.3847  0.8462
6.34e+09  -0.1432  0.8347  0.001923  0.008331  0.04697  0.004018  0.6888  0.5985
6.341e+09  0.1204  0.8575  -0.02067  -0.01086  -0.03874  -0.006198  0.856  0.4114
6.342e+09  0.4451  0.7636  0.0008503  -0.0215  0.002649  0.01616  0.934  0.04537
6.344e+09  0.6685  0.5279  0.01035  0.01738  0.01415  -0.007259  0.886  -0.2815
6.345e+09  0.859  0.3191  -0.02831  0.03681  0.01875  0.01237  0.7388  -0.6058
6.346e+09  0.9147  -0.0666  0.002975  -0.002479  -0.01275  -0.03564  0.4987  -0.7995
6.348e+09  0.8463  -0.235  -0.01652  0.02643  0.0116  0.004639  0.2468  -0.9005
6.349e+09  0.6374  -0.6096  -0.01733  -0.02224  0.0002747  0.03484  -0.118  -0.9042
6.35e+09  0.3749  -0.8053  0.02191  -0.009946  -0.01662  -0.03  -0.4178  -0.8386
6.351e+09  0.1017  -0.9123  -0.005854  0.006942  0.004867  0.001835  -0.6741  -0.6464
6.352e+09  -0.1922  -0.8663  0.01947  0.03517  -0.02381  -0.002732  -0.8494  -0.3914
6.354e+09  -0.4918  -0.7318  -0.01359  0.00338  0.005341  -0.02664  -0.8929  -0.07323
6.355e+09  -0.7428  -0.4727  0.01085  0.0153  -0.01299  0.05483  -0.8734  0.2597
6.356e+09  -0.8367  -0.1941  -0.01291  0.02511  -0.02375  -0.03031  -0.762  0.5528
6.358e+09  -0.8906  0.09608  -0.004791  0.01871  -0.038  0.02614  -0.4975  0.7544
6.359e+09  -0.8269  0.3884  -0.01296  -0.002839  -0.05898  -0.01995  -0.2326  0.9341
6.36e+09  -0.6143  0.6389  0.01661  0.007847  0.002142  0.01334  0.07489  0.9259
6.361e+09  -0.3245  0.8267  0.0277  0.02117  -0.0582  -0.01476  0.4272  0.8562
6.362e+09  -0.1142  0.907  -0.03327  -0.02732  0.005368  0.004928  0.7176  0.6662
6.364e+09  0.1875  0.8546  -0.0137  0.009627  0.01913  -0.03588  0.8778  0.4152
6.365e+09  0.5417  0.7307  -0.008383  -0.02129  0.00512  -0.008501  0.9148  0.05343
6.366e+09  0.7385  0.4672  -0.03517  -0.02039  0.009418  0.007942  0.9171  -0.2425
6.368e+09  0.8601  0.2227  -0.01805  0.006524  -0.02102  0.02348  0.7635  -0.5443
6.369e+09  0.8295  -0.1108  0.009318  -0.005547  -0.023  -0.003413  0.5172  -0.796
6.37e+09  0.7871  -0.4338  0.01078  0.008678  -0.03562  -0.009507  0.2367  -0.882
6.371e+09  0.6238  -0.7046  -0.01514  -0.02729  0.02887  0.008232  -0.08373  -0.9598
6.372e+09  0.2931  -0.8298  -0.0216  -0.01621  -0.01771  -0.06709  -0.3964  -0.869
6.374e+09  0.02579  -0.8865  -0.02903  -0.02903  -0.01136  -0.05221  -0.6679  -0.6696
6.375e+09  -0.3027  -0.8251  0.02706  -0.02337  0.0138  0.01973  -0.8464  -0.3858
6.376e+09  -0.5743  -0.6246  -0.01414  0.01412  -0.01852  -0.04256  -0.965  -0.1156
6.378e+09  -0.8193  -0.459  0.02929  -0.008835  -0.04678  -0.01553  -0.9155  0.2262
6.379e+09  -0.9086  -0.1326  -0.008152  0.0117  -0.002926  -0.04969  -0.7829  0.5431
6.38e+09  -0.8384  0.1245  -0.01679  1.441e-05  0.04986  0.009773  -0.5519  0.7515
6.381e+09  -0.7771  0.4711  0.0332  0.02076  -0.004838  -0.0391  -0.263  0.9333
6.382e+09  -0.558  0.6792  0.00642  -0.0007862  -0.005466  -0.008848  0.04395  0.9457
6.384e+09  -0.2948  0.8406  -0.04636  -0.03213  -0.01856  0.01932  0.3891  0.8855
6.385e+09  0.03718  0.8702  0.01322  -0.03376  -0.00607  -0.01259  0.6403  0.6363
6.386e+09  0.3553  0.8264  0.006764  -0.01054  0.005338  0.01183  0.8374  0.4103
6.388e+09  0.6192  0.651  0.005474  0.005374  0.0004802  0.005521  0.9139  0.09059
6.389e+09  0.7777  0.3869  -0.02079  0.0008538  -0.03968  -0.01897  0.8883  -0.2142
6.39e+09  0.9127  0.1176  0.00401  -0.009658  0.01218  -0.02356  0.767  -0.4739
6.391e+09  0.8338  -0.1808  -0.006685  -0.02775  -0.01002  -0.05001  0.5911  -0.7209
6.392e+09  0.7986  -0.4487  -0.04296  0.006546  -0.04491  0.01067  0.3111  -0.8621
6.394e+09  0.5464  -0.749  0.009071  -0.004378  0.001281  -0.00839  -0.0321  -0.9121
6.395e+09  0.2503  -0.8271  -0.03215  0.007856  -0.04205  -0.00263  -0.3121  -0.8774
6.396e+09  -0.04171  -0.8825  0.01473  0.01535  0.02899  -0.03214  -0.5956  -0.6965
6.398e+09  -0.3298  -0.7887  0.02165  -0.004364  -0.05649  -0.02864  -0.7969  -0.452
6.399e+09  -0.628  -0.6789  0.02503  -0.04795  -0.004066  -0.07246  -0.9134  -0.1768
6.4e+09  -0.8062  -0.3866  -0.02459  0.01054  0.03815  -0.008283  -0.9415  0.1803
6.401e+09  -0.8802  -0.0832  0.02531  -0.007331  0.003671  -0.008012  -0.8203  0.4707
6.402e+09  -0.8666  0.2048  0.04138  0.02635  0.03167  -0.05724  -0.6105  0.7166
6.404e+09  -0.7274  0.5303  0.03986  -0.01692  0.0124  0.02076  -0.3165  0.8895
6.405e+09  -0.5191  0.6957  -0.0181  -0.003075  0.02922  0.01866  -0.04195  0.8681
6.406e+09  -0.2452  0.8789  -0.00967  -0.01146  -0.02098  -0.05789  0.2876  0.8662
6.408e+09  0.07328  0.8987  -0.01639  0.0154  -0.0167  0.03309  0.6049  0.6824
6.409e+09  0.3895  0.7982  0.01156  -0.03885  -0.001495  -0.00684  0.7999  0.4394
6.41e+09  0.631  0.6155  -0.001943  -0.01518  0.02262  0.0002322  0.8835  0.1641
6.411e+09  0.7455  0.3534  -0.01405  0.0168  0.009112  -0.02168  0.9083  -0.09936
6.412e+09  0.8689  0.05382  -0.04808  -0.01748  -0.0235  0.02036  0.809  -0.4184
6.414e+09  0.8835  -0.2324  -0.007276  -0.009387  0.01714  0.02322  0.5488  -0.6808
6.415e+09  0.7429  -0.5028  -0.005508  -0.01909  0.006825  -0.01155  0.3049  -0.8196
6.416e+09  0.5056  -0.7042  -0.06297  0.02771  -0.01288  0.005893  -0.004834  -0.8833
6.418e+09  0.1815  -0.8546  -0.02053  -0.001232  -0.005657  0.0217  -0.2722  -0.8401
6.419e+09  -0.06146  -0.9025  0.0316  0.0287  0.02348  -0.02872  -0.5364  -0.6956
6.42e+09  -0.4257  -0.8169  0.03307  0.005457  -0.01351  -0.02884  -0.7432  -0.4302
6.421e+09  -0.6312  -0.6089  -0.005885  0.0001624  0.03508  0.006555  -0.8263  -0.2114
6.422e+09  -0.7804  -0.3594  0.01153  0.001515  0.01289  -0.03831  -0.856  0.1015
6.424e+09  -0.9001  -0.04446  0.01336  -0.05063  0.02099  0.03223  -0.7924  0.3673
6.425e+09  -0.8687  0.2616  -0.005284  -0.0166  0.01472  0.02389  -0.6067  0.6514
6.426e+09  -0.6788  0.5377  0.001858  -0.04062  0.03077  0.008367  -0.3436  0.7997
6.428e+09  -0.5035  0.7691  -0.03133  -0.01406  -0.002618  -0.01767  -0.08108  0.8255
6.429e+09  -0.2375  0.7852  -0.02085  0.04373  0.004884  0.003393  0.27  0.8147
6.43e+09  0.1204  0.8591  -0.002297  0.0051  -0.02916  0.01358  0.5111  0.7359
6.431e+09  0.424  0.7952  -0.02431  -0.02622  0.01223  -0.01291  0.746  0.4732
6.432e+09  0.6565  0.6331  -0.01487  0.02658  -0.01218  -0.002989  0.8946  0.223
6.434e+09  0.776  0.2984  0.02068  -0.001992  0.0225  -0.01573  0.8712  -0.1125
6.435e+09  0.8661  0.02518  -0.02389  0.03059  -0.02117  0.04593  0.7492  -0.3892
6.436e+09  0.8361  -0.289  0.03288  0.01964  0.03451  -0.007423  0.6486  -0.6122
6.438e+09  0.6799  -0.585  -0.03556  -0.0008472  0.04027  0.008252  0.3572  -0.791
6.439e+09  0.4873  -0.7539  0.05597  -0.01649  -0.05664  0.01359  0.09579  -0.828
6.44e+09  0.1715  -0.84  -0.003221  0.03118  0.01691  0.007547  -0.2655  -0.7875
6.441e+09  -0.1756  -0.87  0.002634  0.02629  0.02206  0.01903  -0.5071  -0.69
6.442e+09  -0.4188  -0.7994  -0.00617  -0.01089  0.03429  0.05076  -0.6631  -0.5142
6.444e+09  -0.6382  -0.5964  -0.03278  0.01526  0.02148  -0.0008743  -0.8109  -0.1979
6.445e+09  -0.8625  -0.3423  -0.04668  -0.01538  -0.00778  0.002272  -0.8989  0.05201
6.446e+09  -0.8961  0.008949  0.02491  -0.06713  -0.03164  0.01313  -0.7782  0.4019
6.448e+09  -0.8597  0.2808  -0.002429  -0.01039  0.0246  0.001091  -0.6134  0.5879
6.449e+09  -0.7037  0.5769  0.005236  -0.02908  0.0174  -0.02935  -0.3153  0.8351
6.45e+09  -0.464  0.7541  0.01274  0.023  0.01189  0.03486  -0.05415  0.8811
6.451e+09  -0.1297  0.8367  0.04409  0.01231  -0.007148  -0.02547  0.2238  0.8324
6.452e+09  0.1439  0.8804  -0.0197  -0.02159  0.008277  -0.03602  0.4882  0.7055
6.454e+09  0.4135  0.8357  0.02285  0.02821  0.0004587  -0.01933  0.6894  0.4477
6.455e+09  0.7074  0.6103  -0.02016  -0.01746  -0.05395  -0.01773  0.8139  0.2202
6.456e+09  0.7923  0.2495  0.01868  -0.02467  0.0002855  0.03591  0.834  -0.08789
6.458e+09  0.9149  0.01943  0.01053  0.06296  0.0227  0.005738  0.7606  -0.3359
6.459e+09  0.8362  -0.2728  0.04268  -0.0001395  -0.02987  0.004557  0.5641  -0.5982
6.46e+09  0.7223  -0.5583  -0.07924  -0.04147  -0.005844  -0.002133  0.3341  -0.7633
6.461e+09  0.4768  -0.809  -0.07229  0.009651  0.02795  0.01202  0.08772  -0.817
6.462e+09  0.1841  -0.9329  -0.02628  0.01212  -0.003843  0.02716  -0.1992  -0.7942
6.464e+09  -0.1527  -0.8799  -0.03287  -0.01597  0.01062  0.004118  -0.4759  -0.6789
6.465e+09  -0.4208  -0.8261  -0.0139  0.03188  -0.02324  -0.04008  -0.6764  -0.4605
6.466e+09  -0.6844  -0.5566  -0.00687  0.02551  0.02963  0.03078  -0.7588  -0.1852
6.468e+09  -0.7955  -0.2721  -0.03669  0.0036  0.005646  -0.0551  -0.8287  0.08971
6.469e+09  -0.9142  0.03027  0.005329  0.02214  -0.05718  -0.00426  -0.7527  0.3547
6.47e+09  -0.8183  0.2718  -0.000997  -0.02274  -0.0195  -0.02654  -0.5854  0.5656
6.471e+09  -0.7035  0.5432  0.02852  0.01347  0.004671  0.03763  -0.3111  0.7182
6.472e+09  -0.4847  0.7864  0.02603  0.05959  -0.01198  0.0249  -0.1004  0.7499
6.474e+09  -0.1892  0.8939  -0.006632  0.01724  -0.0082  5.402e-05  0.2267  0.7578
6.475e+09  0.1589  0.8984  0.0252  0.008507  -0.06551  0.002441  0.4605  0.6551
6.476e+09  0.4736  0.7727  -0.01497  -0.007238  0.02515  -0.02847  0.6428  0.4174
6.478e+09  0.6532  0.5611  -0.002565  0.008807  0.05489  0.03055  0.7625  0.2032
6.479e+09  0.8381  0.2383  -0.01409  0.00491  0.01103  0.04676  0.8115  -0.08479
6.48e+09  0.8993  0.004235  0.01983  -0.01656  -0.01002  -0.01662  0.7677  -0.3697
6.481e+09  0.8505  -0.3003  0.01183  0.004552  0.02747  -0.0002408  0.5219  -0.5911
6.482e+09  0.6794  -0.5998  0.01213  0.0003084  -0.02957  0.01074  0.3368  -0.7369
6.484e+09  0.4281  -0.8034  0.002842  0.0015  0.05089  -0.0234  0.02883  -0.7756
6.485e+09  0.1165  -0.9294  -0.01414  -0.03045  0.0003152  0.02248  -0.224  -0.7009
6.486e+09  -0.1718  -0.8831  -0.01555  -0.01821  0.04769  -0.02597  -0.4564  -0.6145
6.488e+09  -0.4529  -0.7591  0.009361  -0.01976  0.03024  -0.05966  -0.6478  -0.4044
6.489e+09  -0.7106  -0.5974  0.02911  -0.01973  -0.0392  -0.002822  -0.7221  -0.2052
6.49e+09  -0.8428  -0.3157  0.01564  -0.005133  0.02184  0.02955  -0.779  0.07503
6.491e+09  -0.9692  0.03534  -0.02464  -0.0003312  0.03219  -0.03814  -0.6857  0.3512
6.492e+09  -0.8153  0.3762  0.04817  -0.001298  -0.01752  0.01647  -0.5241  0.5716
6.494e+09  -0.7275  0.6156  0.009561  0.005472  0.01331  -0.006537  -0.3057  0.6765
6.495e+09  -0.4267  0.8225  -0.03622  0.00235  -0.01915  0.04693  -0.06914  0.7335
6.496e+09  -0.0944  0.8939  0.0377  0.03489  0.0205  -0.05452  0.208  0.7482
6.498e+09  0.2164  0.9718  -0.04216  -0.01859  0.003901  -0.02342  0.458  0.6025
6.499e+09  0.5115  0.8223  0.01407  0.04644  -0.01181  -0.01179  0.6528  0.4161
6.5e+09  0.7859  0.5312  -0.02788  -0.02895  0.03178  0.01196  0.7549  0.1438
6.501e+09  0.8995  0.2553  -0.01061  -0.002351  -0.01845  0.02376  0.7862  -0.1111
6.502e+09  0.9099  -0.1066  -0.01626  0.002773  0.01717  0.004425  0.711  -0.3793
6.504e+09  0.834  -0.3735  0.0232  -0.02263  0.03501  0.01098  0.5327  -0.5625
6.505e+09  0.6783  -0.7369  0.01139  0.003222  0.006138  -0.01575  0.3228  -0.7174
6.506e+09  0.426  -0.8424  0.004353  -0.002387  0.02892  -0.01345  0.005713  -0.7347
6.508e+09  0.05705  -0.9262  0.02666  -0.005257  0.01129  0.03017  -0.2432  -0.734
6.509e+09  -0.2368  -0.9537  -0.01668  0.03894  -0.03578  -0.05663  -0.5077  -0.5501
6.51e+09  -0.5272  -0.8239  -0.01867  -0.04033  -0.02004  0.01647  -0.6434  -0.3988
6.511e+09  -0.8093  -0.6088  -0.009893  -0.004779  -0.04923  -0.01492  -0.7053  -0.1545
6.512e+09  -0.9387  -0.2974  0.02782  0.006124  0.01015  -0.04194  -0.7363  0.1444
6.514e+09  -0.9643  0.1079  -0.006136  0.02466  0.002028  0.02218  -0.6223  0.3904
6.515e+09  -0.9311  0.4509  0.005486  -0.006838  -0.007546  0.02754  -0.4851  0.5769
6.516e+09  -0.6535  0.6921  -0.02665  0.01311  -0.02733  -0.005743  -0.2137  0.688
6.518e+09  -0.385  0.9481  0.002906  0.03648  0.02125  0.01452  -0.003494  0.7405
6.519e+09  -0.03059  0.9551  0.01569  0.009663  -0.06465  -4.767e-05  0.2722  0.7064
6.52e+09  0.2922  0.9073  0.004009  -0.005426  0.02733  0.01384  0.4978  0.5323
6.521e+09  0.6147  0.7636  -0.02703  -0.004793  -0.00255  -0.06968  0.6376  0.3335
6.522e+09  0.8616  0.4831  -0.0001856  0.03952  -0.02185  -0.01807  0.7448  0.1196
6.524e+09  0.9367  0.1296  -0.01756  -0.006711  0.01064  -0.06562  0.7009  -0.1301
6.525e+09  0.9823  -0.1488  0.0156  0.0217  -0.03956  -0.06053  0.6424  -0.4082
6.526e+09  0.7972  -0.4974  -0.009666  0.007417  0.01883  0.02851  0.413  -0.5674
6.528e+09  0.5903  -0.754  -0.0226  -0.009036  -0.04161  0.02242  0.1934  -0.6836
6.529e+09  0.3398  -0.928  0.03697  -0.02078  0.03123  0.003231  -0.03321  -0.6844
6.53e+09  -0.01882  -1.023  -0.01265  -0.006509  0.005426  0.02288  -0.3263  -0.6443
6.531e+09  -0.3308  -0.8847  0.01702  -0.001477  0.03123  -0.00655  -0.4494  -0.4791
6.532e+09  -0.6458  -0.7688  0.006508  -0.002904  0.03026  -0.03533  -0.6173  -0.2892
6.534e+09  -0.8465  -0.4079  0.006499  0.02273  -0.02985  -0.00609  -0.6518  -0.1109
6.535e+09  -0.9706  -0.1359  -0.02414  0.005822  0.018  -0.03752  -0.6091  0.0656
6.536e+09  -0.9535  0.2274  0.01766  -0.003492  -0.05443  -0.01099  -0.5507  0.3321
6.538e+09  -0.8529  0.5057  0.03578  -0.0152  0.0178  -0.03506  -0.4085  0.4899
6.539e+09  -0.597  0.8225  -0.008644  0.02045  0.007189  -0.004324  -0.2668  0.5997
6.54e+09  -0.2785  0.9414  0.005886  0.02246  -0.01781  0.01535  -0.06157  0.6839
6.541e+09  0.09536  0.9833  -0.003628  0.006858  0.00419  0.01586  0.1527  0.6995
6.542e+09  0.3764  0.889  0.003764  -0.001255  -0.04162  0.0071  0.4222  0.5774
6.544e+09  0.767  0.7136  -0.006616  -0.002816  -0.01317  0.05232  0.6088  0.4327
6.545e+09  0.9023  0.3864  0.0184  0.0194  0.008234  0.02017  0.7162  0.1975
6.546e+09  0.9604  0.03106  -0.006574  -0.008947  0.03307  -0.02288  0.7042  -0.09932
6.548e+09  0.9431  -0.3053  0.003006  -0.0006535  0.0009572  -0.01797  0.6414  -0.2969
6.549e+09  0.7923  -0.5162  0.01097  -0.005558  0.0082  0.01515  0.5232  -0.5297
6.55e+09  0.5256  -0.8035  -0.01903  -0.007714  -0.02114  -0.0009313  0.2961  -0.7066
