# Hz S RI R 50
6.25e+09  0.7861  0.3449  0.01477  0.005617  -0.06163  -0.01602  0.1784  0.4941
6.251e+09  0.808  0.05818  0.06075  -0.03708  0.03708  0.02354  0.3809  0.4143
6.252e+09  0.8482  -0.2444  -0.01347  0.006269  -0.001399  -0.06755  0.5348  0.2561
6.254e+09  0.6939  -0.521  0.02578  -0.004631  0.02123  -0.09097  0.6069  0.02273
6.255e+09  0.4029  -0.7414  0.00435  -0.02939  -0.03617  -0.005606  0.5876  -0.2296
6.256e+09  0.1317  -0.8247  -0.012  0.02022  -0.006204  0.0004772  0.4686  -0.4639
6.258e+09  -0.1554  -0.7997  0.006907  -0.003038  -0.0033  0.0121  0.2728  -0.6557
6.259e+09  -0.449  -0.6857  0.01459  -0.009703  0.003491  -0.01814  0.06953  -0.687
6.26e+09  -0.6425  -0.476  0.01655  0.02166  0.0002655  -0.04536  -0.2403  -0.6384
6.261e+09  -0.7603  -0.2054  0.003098  -0.001297  0.07  0.04005  -0.4449  -0.5314
6.262e+09  -0.8032  0.06046  -0.007659  0.04083  0.002509  0.001123  -0.5818  -0.3667
6.264e+09  -0.7696  0.3232  0.01313  0.008921  -0.03635  -0.03414  -0.6993  -0.1029
6.265e+09  -0.6033  0.6056  0.01924  0.04465  -0.002472  -0.01387  -0.6915  0.1433
6.266e+09  -0.3251  0.7007  0.04272  -0.009343  -0.00337  -0.02348  -0.6021  0.3678
6.268e+09  -0.1118  0.8035  0.01228  0.008196  -0.02623  -0.001195  -0.4442  0.558
6.269e+09  0.2463  0.7801  0.03604  0.004202  -0.02021  -0.01015  -0.2051  0.7114
6.27e+09  0.5234  0.7134  -0.02454  -0.002698  0.01538  0.03074  0.0595  0.7498
6.271e+09  0.6581  0.4259  0.02501  -0.0001467  -0.03151  -0.05008  0.3156  0.6303
6.272e+09  0.7957  0.1666  0.01039  0.001682  -0.03933  0.02937  0.523  0.5338
6.274e+09  0.7997  -0.1265  -0.02411  -0.006644  0.03406  -0.03652  0.7084  0.3107
6.275e+09  0.7316  -0.3925  0.01356  0.008958  0.03143  0.01606  0.7268  0.023
6.276e+09  0.5412  -0.69  -0.01941  -0.002472  -0.03291  -0.01997  0.7302  -0.194
6.278e+09  0.2825  -0.81  0.0007692  0.02296  -0.01956  0.06037  0.5754  -0.4975
6.279e+09  -0.02559  -0.7777  -0.0046  0.03725  0.0109  -0.01717  0.4055  -0.6473
6.28e+09  -0.3172  -0.7689  0.002503  -0.02036  0.02637  -0.01321  0.1838  -0.7677
6.281e+09  -0.5378  -0.6177  0.0043  -0.02258  -0.05613  0.009629  -0.0844  -0.7968
6.282e+09  -0.7236  -0.3777  0.01101  -0.01476  0.007924  0.01122  -0.3973  -0.6644
6.284e+09  -0.8119  -0.05838  -0.0162  0.008658  -0.04395  0.02844  -0.6115  -0.4919
6.285e+09  -0.7429  0.2314  0.02008  0.0003621  0.03358  0.04283  -0.7182  -0.2768
6.286e+09  -0.6354  0.4605  0.002792  0.001048  0.02008  0.03589  -0.7787  -0.017
6.288e+09  -0.397  0.6561  -0.001367  -0.01568  -0.06115  0.03697  -0.7489  0.2705
6.289e+09  -0.1563  0.7921  -0.04201  -0.006845  -0.02557  0.0273  -0.6312  0.4869
6.29e+09  0.1538  0.771  0.01227  0.02838  0.02084  0.02441  -0.4211  0.7023
6.291e+09  0.3774  0.6813  -0.0002126  -0.003398  0.01803  0.01378  -0.14  0.8071
6.292e+09  0.6459  0.4955  0.02225  0.0007451  -0.002512  0.02118  0.1184  0.8181
6.294e+09  0.8159  0.2308  0.02481  0.01346  0.00857  -0.02749  0.4153  0.6921
6.295e+09  0.8499  -0.09785  0.002435  -0.01572  0.006298  -0.04013  0.6399  0.5289
6.296e+09  0.7133  -0.314  -0.01866  -0.01791  -0.01614  -0.001346  0.7897  0.3006
6.298e+09  0.6109  -0.5749  0.007915  -0.02802  0.04879  -0.008082  0.833  -0.006062
6.299e+09  0.3164  -0.7798  0.002795  0.008436  -0.02791  -0.01739  0.7715  -0.263
6.3e+09  0.06867  -0.8054  0.02765  0.02746  -0.03277  -0.02368  0.6549  -0.5102
6.301e+09  -0.2569  -0.7849  -0.01736  0.0005759  0.01184  -0.05096  0.4631  -0.7458
6.302e+09  -0.4698  -0.6553  -0.01781  0.009558  0.05228  -0.01224  0.1471  -0.8424
6.304e+09  -0.6973  -0.4159  -0.02796  -0.03393  -0.04186  -0.02705  -0.1196  -0.8483
6.305e+09  -0.8186  -0.1288  -0.01579  0.00986  -0.03608  -0.01085  -0.416  -0.7345
6.306e+09  -0.8358  0.09526  0.02524  0.01083  -0.006927  0.008598  -0.6273  -0.5545
6.308e+09  -0.6959  0.3999  0.007586  0.02568  -0.0008708  -0.008704  -0.8042  -0.3071
6.309e+09  -0.5555  0.6235  0.01085  0.00511  -0.03609  0.009636  -0.837  -0.01456
6.31e+09  -0.2693  0.7852  -0.0003361  0.02366  -0.0394  -0.01345  -0.8214  0.2773
6.311e+09  -0.004057  0.7643  0.05017  0.03441  -0.03688  0.003404  -0.6908  0.5385
6.312e+09  0.3806  0.8012  -0.003664  0.003854  0.01809  -0.01057  -0.4408  0.7338
6.314e+09  0.5441  0.5775  0.03366  0.01506  0.07553  0.03835  -0.1645  0.8625
6.315e+09  0.7027  0.3806  -0.01681  -0.02418  -0.01597  0.00548  0.113  0.878
6.316e+09  0.8494  0.04644  -0.01949  0.01805  0.0009075  -0.05387  0.4727  0.7732
6.318e+09  0.7896  -0.1873  -0.000789  0.01747  0.05198  0.02885  0.6458  0.5839
6.319e+09  0.6954  -0.5253  0.006759  0.02862  -0.04794  -0.0267  0.826  0.2987
6.32e+09  0.4615  -0.6802  0.01972  -0.01679  -0.01011  0.02634  0.9039  0.01662
6.321e+09  0.165  -0.8218  -0.02595  -0.006985  0.03292  -0.04641  0.841  -0.2995
6.322e+09  -0.1574  -0.8065  0.003192  0.002788  -0.009163  -0.01933  0.6947  -0.568
6.324e+09  -0.3644  -0.7295  0.001549  -0.007004  0.001367  0.06079  0.4452  -0.7751
6.325e+09  -0.6131  -0.5937  0.02716  -0.03162  0.003307  -0.01508  0.1537  -0.8954
6.326e+09  -0.8028  -0.3114  -0.01491  0.005862  -0.05919  0.04579  -0.1242  -0.8675
6.328e+09  -0.8034  0.03789  0.008467  -0.01134  0.01639  -0.008194  -0.4192  -0.8249
6.329e+09  -0.7855  0.3004  -0.001723  0.02311  0.04884  0.00783  -0.6481  -0.5664
6.33e+09  -0.627  0.5961  -0.02143  -0.032  -0.009284  -0.0167  -0.8642  -0.3385
6.331e+09  -0.4119  0.751  0.01014  0.02065  0.05265  0.03823  -0.9002  -0.006661
6.332e+09  -0.04912  0.8679  0.01224  0.01884  0.00793  0.03833  -0.8642  0.2855
6.334e+09  0.2165  0.8035  -0.01908  -0.0165  0.0298  0.001646  -0.7295  0.5261
6.335e+09  0.5509  0.6825  0.005907  0.01052  -0.007949  -0.005  -0.4867  0.7488
6.336e+09  0.736  0.4434  -0.003016  0.0378  0.001047  -0.01086  -0.1822  0.9213
6.338e+09  0.7932  0.1837  0.005515  0.005443  0.01296  0.007556  0.1447  0.94
6.339e+09  0.7985  -0.1029  0.007771  -0.0326  0.01366  0.03285  0.4259  0.84
6.34e+09  0.7285  -0.4005  0.0002123  -0.005034  0.009276  0.03924  0.6992  0.6535
6.341e+09  0.551  -0.633  0.02094  0.02068  0.005678  -0.03279  0.8765  0.3344
6.342e+09  0.2563  -0.7719  0.01291  0.01968  -0.01315  0.02833  0.9139  0.02742
6.344e+09  -0.04845  -0.8322  -0.0302  -0.01284  -0.00682  0.03066  0.8569  -0.2886
6.345e+09  -0.2823  -0.7787  -0.005992  0.04294  0.02912  -0.00573  0.7619  -0.5322
6.346e+09  -0.579  -0.5739  -0.02199  -0.02811  -0.01721  0.03024  0.5002  -0.7902
6.348e+09  -0.7776  -0.3873  0.01631  -0.01355  0.01546  0.02766  0.212  -0.8986
6.349e+09  -0.8257  -0.05804  0.009511  -0.001689  -0.03445  0.02477  -0.159  -0.9511
6.35e+09  -0.8295  0.277  -0.007526  -0.006231  -0.06409  0.02549  -0.4342  -0.8478
6.351e+09  -0.6522  0.5331  -0.01895  0.03138  -0.02198  -0.002981  -0.6758  -0.6575
6.352e+09  -0.4591  0.6914  -0.004004  0.008434  -0.03228  -0.03698  -0.8784  -0.3678
6.354e+09  -0.1569  0.7968  0.02788  -0.0005941  0.0458  -0.008594  -0.9619  -0.05949
6.355e+09  0.1234  0.8203  -0.02695  0.01736  0.002913  -0.004304  -0.9241  0.2672
6.356e+09  0.4131  0.7419  -0.03355  -0.05046  -0.01472  -0.03152  -0.7675  0.5447
6.358e+09  0.6501  0.5869  0.01825  0.002807  0.01385  -0.03582  -0.5515  0.7823
6.359e+09  0.7718  0.237  -0.004731  0.01514  0.00185  0.02173  -0.2307  0.9301
6.36e+09  0.857  -0.02535  -0.02074  -7.021e-05  0.01405  0.004691  0.09938  0.922
6.361e+09  0.7982  -0.3517  0.009388  -0.00441  -0.07106  0.02733  0.4283  0.8403
6.362e+09  0.628  -0.59  -0.05216  -0.01821  -0.03063  0.03674  0.6588  0.6381
6.364e+09  0.3649  -0.7628  -0.002648  0.01852  0.03152  -0.03838  0.916  0.3993
6.365e+09  0.07138  -0.8646  0.03653  -0.02538  0.01095  -0.04302  0.9507  0.06311
6.366e+09  -0.1882  -0.7608  -0.006585  -0.01043  0.02609  -0.06549  0.9175  -0.2578
6.368e+09  -0.5138  -0.7122  0.01265  0.009336  0.006017  0.003877  0.7476  -0.5716
6.369e+09  -0.6939  -0.4591  -0.02264  -0.02875  0.002215  -0.006072  0.5452  -0.7972
6.37e+09  -0.874  -0.1967  0.001812  0.00312  -0.009564  -0.03011  0.2663  -0.9281
6.371e+09  -0.8417  0.1085  -0.004734  -0.01594  -0.01408  -0.007612  -0.05708  -0.9132
6.372e+09  -0.7207  0.4515  0.001001  -0.00923  0.006225  0.02855  -0.3805  -0.8725
6.374e+09  -0.5432  0.668  -0.02758  -0.003344  0.02743  0.019  -0.6899  -0.7107
6.375e+09  -0.2282  0.7762  0.02504  -0.007173  -0.009687  -0.01069  -0.9163  -0.4004
6.376e+09  0.01986  0.8454  -0.0075  -0.01737  0.03307  0.0587  -0.9523  -0.1163
6.378e+09  0.2915  0.7224  -0.02245  0.02076  -0.02312  0.03778  -0.8947  0.2576
6.379e+09  0.5811  0.6199  -0.01016  -0.02228  0.01125  0.01793  -0.7774  0.5015
6.38e+09  0.7792  0.3632  0.008249  0.009834  -0.0003796  -0.008819  -0.5419  0.706
6.381e+09  0.8791  -0.001902  0.03752  0.008823  -0.009079  0.0007007  -0.2074  0.9235
6.382e+09  0.8108  -0.2754  0.01593  -0.006168  -0.02006  0.004639  0.05281  0.948
6.384e+09  0.6707  -0.4901  0.003932  -0.0004666  -0.004387  -0.05061  0.3584  0.8539
6.385e+09  0.3942  -0.7857  -0.04107  -0.007514  -0.06172  -0.007273  0.6198  0.6356
6.386e+09  0.1535  -0.8114  -0.006533  0.02801  -0.05179  0.01188  0.8372  0.4066
6.388e+09  -0.126  -0.8442  0.03979  -0.01783  0.01226  -0.04667  0.9467  0.1371
6.389e+09  -0.4502  -0.7285  -0.01818  0.03765  -0.01725  -0.006583  0.9156  -0.1765
6.39e+09  -0.6833  -0.4982  -0.01989  -0.03856  0.02208  -0.001259  0.7756  -0.5352
6.391e+09  -0.8013  -0.2041  0.02653  0.008857  0.03216  -0.007273  0.5915  -0.7177
6.392e+09  -0.8391  0.131  0.04558  0.04263  0.01368  0.04004  0.2691  -0.8871
6.394e+09  -0.7525  0.4093  -0.04735  -0.02299  -0.06002  0.005096  -0.02993  -0.9103
6.395e+09  -0.5783  0.6456  0.02467  -0.02263  -0.02213  0.01143  -0.3758  -0.8431
6.396e+09  -0.2854  0.7658  -0.01303  -0.01558  -0.008028  0.01728  -0.6299  -0.6991
6.398e+09  -0.003882  0.8487  0.02261  0.01337  -0.005054  0.01447  -0.7818  -0.4872
6.399e+09  0.3036  0.7942  0.01589  0.003227  0.01152  -0.01517  -0.9011  -0.1481
6.4e+09  0.5109  0.6804  0.009488  0.008326  0.01163  0.0311  -0.8538  0.1623
6.401e+09  0.7763  0.3689  0.02326  -0.01483  -0.01733  -9.51e-05  -0.8019  0.4435
6.402e+09  0.8083  0.1145  -0.02092  -0.02522  -0.02746  -0.01164  -0.5776  0.754
6.404e+09  0.8549  -0.2279  0.01792  -0.006379  0.005246  0.009726  -0.3089  0.8691
6.405e+09  0.7129  -0.4836  -0.002948  -0.0176  -0.02058  2.4e-05  0.04191  0.9281
6.406e+09  0.4528  -0.7256  0.007468  -0.01103  -0.01173  0.008075  0.3645  0.855
6.408e+09  0.2229  -0.8435  -0.0306  -0.0007226  0.006239  0.00517  0.5818  0.728
6.409e+09  -0.1634  -0.8434  0.008892  -0.005195  -0.03631  0.05271  0.803  0.4211
6.41e+09  -0.447  -0.7509  0.004502  -0.03243  -0.03082  -0.02981  0.878  0.1665
6.411e+09  -0.687  -0.5452  0.006778  0.02441  0.05786  0.01347  0.9199  -0.1225
6.412e+09  -0.8611  -0.2557  -0.009799  -0.004768  -0.0004012  0.01298  0.7747  -0.456
6.414e+09  -0.8375  0.07389  -0.04136  -0.02224  -0.02501  -0.002614  0.589  -0.6812
6.415e+09  -0.7709  0.3894  -0.001949  -0.06202  0.0132  -0.03702  0.3186  -0.8247
6.416e+09  -0.6218  0.6153  0.01946  -0.01567  0.02212  -0.00581  0.02381  -0.9204
6.418e+09  -0.3361  0.8121  -0.01983  -0.03072  -0.008185  0.01594  -0.2857  -0.8315
6.419e+09  -0.04073  0.9113  0.02047  0.01267  0.02094  -0.00467  -0.5582  -0.6987
6.42e+09  0.3295  0.7975  0.03206  0.04216  -0.04956  0.01222  -0.7632  -0.4662
6.421e+09  0.6036  0.6377  0.02249  0.02809  -0.008492  0.0237  -0.8446  -0.1939
6.422e+09  0.7882  0.4025  -0.09208  -0.02094  -0.01128  0.02564  -0.8842  0.1284
6.424e+09  0.8324  0.05927  -0.05684  -0.03922  0.03339  0.0007657  -0.7675  0.412
6.425e+09  0.7917  -0.2902  0.05666  -0.009916  0.01302  0.08602  -0.6338  0.6441
6.426e+09  0.6877  -0.5139  0.03373  0.004396  -0.04065  0.002108  -0.3376  0.7908
6.428e+09  0.3988  -0.8106  -0.01382  0.008637  -0.007993  -0.0483  -0.0282  0.8614
6.429e+09  0.1401  -0.8596  -0.01511  0.003127  0.04644  0.04745  0.2374  0.8201
6.43e+09  -0.1816  -0.8074  0.04552  0.01107  -0.009134  0.02152  0.4935  0.7387
6.431e+09  -0.4726  -0.6958  -0.03418  -0.004482  -0.03081  -0.008951  0.6543  0.5016
6.432e+09  -0.7191  -0.5052  0.01925  -0.008119  -0.03046  -0.01267  0.8405  0.195
6.434e+09  -0.9005  -0.1507  0.007869  -0.09565  -0.03001  0.01011  0.871  -0.08449
6.435e+09  -0.8009  0.1273  -0.01146  0.01651  0.03333  -0.056  0.7108  -0.37
6.436e+09  -0.7524  0.4267  0.007392  -0.008532  -0.008045  0.02623  0.5851  -0.6543
6.438e+09  -0.5225  0.6809  -0.0166  0.01273  0.02989  0.04117  0.3718  -0.8103
6.439e+09  -0.2313  0.7854  -0.008765  -0.0074  0.01119  -0.00372  0.04837  -0.8843
6.44e+09  0.08923  0.8423  -0.006124  0.007193  -0.02792  0.001162  -0.2227  -0.8232
6.441e+09  0.3761  0.7808  -0.01472  -0.02979  0.008756  0.01328  -0.4992  -0.667
6.442e+09  0.6067  0.5387  -0.01807  -0.006789  0.00414  -0.06532  -0.7227  -0.464
6.444e+09  0.778  0.2669  -0.00436  0.007497  0.03721  0.01937  -0.8502  -0.2587
6.445e+09  0.8468  -0.01787  0.003998  0.01515  -0.01916  -0.03409  -0.8472  0.08664
6.446e+09  0.7643  -0.3366  0.02618  0.01304  -0.008782  -0.01258  -0.7522  0.3211
6.448e+09  0.6031  -0.5668  -0.006025  -0.02371  -0.03533  -0.01213  -0.6092  0.6171
6.449e+09  0.3338  -0.799  -0.01622  -0.02418  -0.01748  0.01249  -0.3635  0.7603
6.45e+09  0.05814  -0.8277  -0.02485  0.00545  0.05917  0.062  -0.06919  0.8565
6.451e+09  -0.2266  -0.7678  0.01015  -0.06346  -0.0005048  0.02879  0.2168  0.7825
6.452e+09  -0.4948  -0.6087  -0.002591  -0.009891  -0.01363  0.005583  0.4762  0.6839
6.454e+09  -0.6986  -0.4237  0.01617  -0.021  0.01151  0.02507  0.6708  0.4794
6.455e+09  -0.7758  -0.1095  0.01266  -0.004739  0.02447  0.03105  0.8244  0.2127
6.456e+09  -0.7972  0.2124  -0.01004  0.02396  0.03693  0.02378  0.844  -0.1115
6.458e+09  -0.6583  0.4722  -0.0589  0.0227  0.01849  -0.02368  0.7673  -0.3245
6.459e+09  -0.5255  0.6862  -0.000746  0.02916  0.03454  0.03513  0.5884  -0.5441
6.46e+09  -0.1526  0.8109  -0.02468  -0.01651  -0.006772  0.01331  0.3454  -0.7368
6.461e+09  0.128  0.8243  0.008662  0.02875  -0.02111  -0.01697  0.07782  -0.8225
6.462e+09  0.3859  0.7287  -0.03224  -0.02249  0.0309  0.01911  -0.2046  -0.7551
6.464e+09  0.6593  0.4759  0.01624  -0.02916  -0.02605  -0.01741  -0.4459  -0.6713
6.465e+09  0.7091  0.2508  -0.007879  0.02516  0.01158  0.0197  -0.6486  -0.4819
6.466e+09  0.7798  -0.0278  0.01178  0.008646  -0.03877  0.03147  -0.7767  -0.1955
6.468e+09  0.7458  -0.3664  -0.06236  -0.009967  0.009056  -0.01107  -0.7925  0.0463
6.469e+09  0.5014  -0.5379  -0.01801  0.01438  0.01324  0.008576  -0.7393  0.35
6.47e+09  0.3051  -0.7334  0.006034  -0.002013  -2.425e-06  -0.02008  -0.592  0.578
6.471e+09  0.0004407  -0.7637  -0.003453  0.0003286  0.0157  -0.0426  -0.3563  0.7256
6.472e+09  -0.2561  -0.7369  0.02222  0.008168  0.01092  -0.02318  -0.04389  0.7573
6.474e+09  -0.5026  -0.5645  -0.02305  0.004761  0.01736  -0.04406  0.1721  0.7515
6.475e+09  -0.7503  -0.4079  -0.04947  0.004775  -0.02692  -0.02188  0.4651  0.6281
6.476e+09  -0.7172  -0.07778  0.02507  -0.0008778  -0.04031  0.006281  0.6599  0.4826
6.478e+09  -0.7611  0.1728  -0.01857  -0.01157  -0.008466  0.02047  0.8271  0.181
6.479e+09  -0.6008  0.5013  -0.02332  0.01294  0.002471  -0.05427  0.7558  -0.08666
6.48e+09  -0.4092  0.6506  0.02689  0.005223  0.0223  0.0003764  0.7386  -0.324
6.481e+09  -0.1223  0.8022  -0.02427  -0.003678  0.02819  -0.02057  0.525  -0.5757
6.482e+09  0.111  0.7965  0.003469  -0.00948  0.02856  0.007977  0.3727  -0.7283
6.484e+09  0.3524  0.6769  -0.002063  -0.01691  0.04001  0.007061  0.03022  -0.7615
6.485e+09  0.607  0.4908  0.007221  -0.02111  0.03209  -0.04363  -0.1854  -0.7375
6.486e+09  0.7075  0.2878  -0.0003927  -0.00228  0.01966  0.05072  -0.454  -0.6227
6.488e+09  0.7861  -0.02278  0.03268  0.0162  -0.005404  -0.05444  -0.6431  -0.4681
6.489e+09  0.7194  -0.2518  0.0268  -0.01737  -0.03452  0.02059  -0.7652  -0.1906
6.49e+09  0.5388  -0.5564  -0.02037  0.04361  0.05044  -0.0073  -0.7669  0.07795
6.491e+09  0.3321  -0.6829  -0.01424  -0.03866  -0.02275  -0.02147  -0.6917  0.3657
6.492e+09  0.09139  -0.7566  -0.02175  -0.01338  -0.01085  -0.02866  -0.4985  0.5702
6.494e+09  -0.2024  -0.7729  0.005276  0.02396  -0.02129  -0.01434  -0.2713  0.7485
6.495e+09  -0.4313  -0.6225  -0.01456  -0.01914  -0.02419  0.01096  -0.04066  0.7495
6.496e+09  -0.6551  -0.3833  0.007686  0.01497  0.008286  -0.05965  0.2143  0.7511
6.498e+09  -0.746  -0.1618  0.003472  0.00463  0.0209  0.01001  0.474  0.6417
6.499e+09  -0.7619  0.0915  -0.009673  0.01637  -0.01892  -0.05489  0.6431  0.4129
6.5e+09  -0.6492  0.3832  0.03146  0.00747  -0.01383  -0.01388  0.7369  0.1497
6.501e+09  -0.4957  0.6118  0.01115  0.02333  -0.01143  0.02661  0.7613  -0.1104
6.502e+09  -0.2633  0.6779  -0.03107  0.04913  -0.0352  0.03346  0.6699  -0.3848
6.504e+09  0.02658  0.7878  0.01778  -0.03763  0.02606  -0.04223  0.4927  -0.5503
6.505e+09  0.2724  0.7388  -0.002392  0.02844  0.02735  0.01133  0.3416  -0.73
6.506e+09  0.5306  0.5695  -0.003117  0.01916  0.05422  0.03118  0.02525  -0.7678
6.508e+09  0.6373  0.3882  -0.004412  0.002273  0.02683  0.01656  -0.2816  -0.7492
6.509e+09  0.8025  0.1195  0.002261  -0.04703  -0.01843  -0.0123  -0.4739  -0.5849
6.51e+09  0.7476  -0.1774  0.02696  -0.02079  0.03678  0.05687  -0.6651  -0.3794
6.511e+09  0.6356  -0.4125  -0.02746  -8.931e-05  -0.04158  0.01069  -0.7533  -0.1629
6.512e+09  0.4854  -0.6211  -0.001872  0.01273  -0.03631  0.07364  -0.749  0.1482
6.514e+09  0.1713  -0.7461  0.03445  0.02256  -0.02116  -0.0184  -0.6479  0.3794
6.515e+09  -0.05854  -0.7687  0.02061  0.04061  -0.02792  0.01287  -0.4565  0.5714
6.516e+09  -0.3578  -0.7095  -0.02748  -0.01875  0.003156  -0.002437  -0.2116  0.6925
6.518e+09  -0.5441  -0.5484  0.0307  0.004  -0.02196  -0.01745  0.02361  0.7302
6.519e+09  -0.748  -0.2471  0.02425  -0.005887  0.004731  -0.04133  0.2585  0.7144
6.52e+09  -0.7647  -0.03658  0.02239  0.01492  -0.01909  -0.003539  0.4634  0.5372
6.521e+09  -0.7406  0.2896  -0.02301  0.0002138  -0.00884  -0.04082  0.6116  0.3412
6.522e+09  -0.5851  0.4813  -0.02048  -0.01106  0.023  0.009418  0.7427  0.1079
6.524e+09  -0.3646  0.681  0.01379  0.04054  -0.009349  0.02883  0.7151  -0.1697
6.525e+09  -0.09305  0.7862  0.0231  0.002399  -0.02213  0.000409  0.5966  -0.4231
6.526e+09  0.1251  0.7866  0.03516  0.03341  0.02635  -0.006515  0.431  -0.6082
6.528e+09  0.4602  0.7126  0.02139  0.014  0.01344  -0.0101  0.1843  -0.6988
6.529e+09  0.6199  0.4532  0.02805  -0.01094  0.05213  -0.01284  -0.04194  -0.7212
6.53e+09  0.7727  0.236  -0.008312  0.02097  0.003759  -0.01545  -0.2851  -0.6265
6.531e+09  0.8001  -0.05576  0.009645  -0.01938  -0.01788  0.01907  -0.5008  -0.534
6.532e+09  0.7303  -0.3249  0.008508  -0.02394  -0.01926  0.02986  -0.6045  -0.2728
6.534e+09  0.5383  -0.5566  0.02464  -0.03709  0.003069  -0.009555  -0.64  -0.09412
6.535e+09  0.3276  -0.7253  0.03137  0.02182  -0.006689  -0.02247  -0.599  0.109
6.536e+09  0.0226  -0.8104  0.02031  0.004112  -0.04527  -0.05483  -0.5838  0.3106
6.538e+09  -0.2138  -0.8235  -0.0148  0.01572  0.03288  0.003682  -0.459  0.4816
6.539e+09  -0.4555  -0.6562  0.00947  -0.03399  0.0492  0.03364  -0.286  0.5945
6.54e+09  -0.6893  -0.4295  -0.002799  0.02926  -0.0481  0.05278  -0.04184  0.665
6.541e+09  -0.8401  -0.1945  -0.01935  -0.03898  -0.006764  0.001886  0.1695  0.6891
6.542e+09  -0.8069  0.1251  0.03383  0.02057  0.04075  -0.01453  0.4056  0.6047
6.544e+09  -0.7197  0.4286  0.02047  0.0155  0.0008232  -0.006708  0.6324  0.4174
6.545e+09  -0.4646  0.6742  -0.04009  -0.02967  -0.01583  -0.06444  0.6902  0.1903
6.546e+09  -0.2557  0.7768  0.01988  0.005333  -0.02351  -0.02394  0.7263  -0.06595
6.548e+09  0.09638  0.87  0.007983  0.006106  -0.007791  -0.03816  0.6664  -0.3029
6.549e+09  0.3138  0.8257  0.05393  -0.007916  0.02998  -0.01024  0.5194  -0.5406
6.55e+09  0.5809  0.5679  0.01494  0.0111  0.01212  -0.0109  0.3049  -0.6569
