# Hz S RI R 50
6.25e+09  -0.403  0.7699  0.001432  0.0136  0.03341  -0.0353  0.1563  0.4755
6.251e+09  -0.08866  0.8413  -0.04869  0.02982  0.01894  -0.04693  0.3857  0.3705
6.252e+09  0.2148  0.7941  0.03916  0.03992  -0.008179  0.01042  0.5032  0.2333
6.254e+09  0.4854  0.7077  -0.02374  -0.0205  0.0304  -0.02476  0.6119  0.008391
6.255e+09  0.6548  0.5317  -0.02255  -0.0189  0.03113  -0.05503  0.6019  -0.2292
6.256e+09  0.8062  0.2758  0.02355  0.01485  0.007423  0.02342  0.4673  -0.4395
6.258e+09  0.8193  -0.07934  0.0122  0.004296  0.02047  0.008504  0.3055  -0.5955
6.259e+09  0.7955  -0.2962  -0.01346  -0.01069  0.01364  0.01136  0.04759  -0.6979
6.26e+09  0.6179  -0.6292  0.003328  0.02356  -0.001048  0.001253  -0.2066  -0.6603
6.261e+09  0.3152  -0.7741  -0.01731  0.001384  0.005695  -0.04462  -0.4473  -0.5285
6.262e+09  0.1278  -0.7935  0.0298  0.01886  0.00931  0.005962  -0.6253  -0.3198
6.264e+09  -0.1715  -0.8151  0.004863  -0.02723  0.03083  -0.000258  -0.6966  -0.1146
6.265e+09  -0.5219  -0.7033  0.02258  0.003113  0.007499  -0.01672  -0.7256  0.1614
6.266e+09  -0.7131  -0.4926  -0.03246  0.0221  0.006985  0.0479  -0.6391  0.3916
6.268e+09  -0.7919  -0.226  0.006391  -0.008086  0.02419  -0.036  -0.4363  0.5555
6.269e+09  -0.7876  0.1269  0.02292  0.01951  0.02314  0.06099  -0.2003  0.7057
6.27e+09  -0.773  0.294  0.01606  0.04334  -0.02462  0.02677  0.09112  0.7481
6.271e+09  -0.596  0.5538  0.02321  0.02072  -0.01538  -0.01003  0.315  0.6791
6.272e+09  -0.3159  0.7377  0.01055  0.01492  0.008495  -0.01797  0.5572  0.5392
6.274e+09  -0.1051  0.8231  -0.0179  0.008311  0.05578  0.03343  0.7044  0.3092
6.275e+09  0.1544  0.8072  0.05501  -0.06303  0.05613  0.007918  0.7361  0.05315
6.276e+09  0.4785  0.6612  -0.01946  0.009588  0.03363  -0.059  0.7207  -0.2445
6.278e+09  0.6723  0.5214  0.00712  -0.01511  -0.009568  0.05328  0.6202  -0.4736
6.279e+09  0.7983  0.2535  -0.01857  0.02821  -0.02642  0.01748  0.4218  -0.6552
6.28e+09  0.7868  -0.03452  0.001291  0.001177  0.0468  0.05862  0.1875  -0.7741
6.281e+09  0.7779  -0.3637  -0.008145  0.009537  0.001334  -0.005251  -0.09527  -0.7829
6.282e+09  0.5669  -0.5557  -0.02165  -0.001268  -0.008884  -0.03759  -0.3936  -0.7074
6.284e+09  0.3144  -0.8096  -0.002219  -0.006038  0.03404  0.01177  -0.5893  -0.5152
6.285e+09  0.05173  -0.7976  0.02155  -0.009572  -0.02158  0.01613  -0.7456  -0.3049
6.286e+09  -0.1697  -0.8063  -0.00803  0.008091  -0.03352  0.04479  -0.7987  -0.0154
6.288e+09  -0.5009  -0.6591  0.03666  -0.01363  0.009939  -0.05161  -0.7922  0.2443
6.289e+09  -0.6875  -0.4667  -0.02596  0.01223  -0.001333  -0.0257  -0.6088  0.5077
6.29e+09  -0.8133  -0.2093  0.004603  0.0236  0.01946  -0.01399  -0.4015  0.7088
6.291e+09  -0.8463  0.1167  -0.009403  0.01192  0.02482  0.03569  -0.1404  0.8312
6.292e+09  -0.7342  0.3865  -0.004857  -0.0281  0.01836  0.001851  0.1483  0.7971
6.294e+09  -0.5713  0.5656  0.01325  0.005378  -0.003653  -0.02181  0.397  0.7094
6.295e+09  -0.326  0.7109  -0.008522  -0.01177  0.01146  0.02596  0.5883  0.5333
6.296e+09  -0.01578  0.8216  0.005899  0.00796  -5.697e-05  -0.002842  0.7735  0.3251
6.298e+09  0.2321  0.8085  0.01253  0.0261  0.03876  0.01459  0.8247  0.03528
6.299e+09  0.4791  0.6969  -0.01665  -0.01229  0.03599  -0.03816  0.7759  -0.2924
6.3e+09  0.6875  0.4403  0.01675  0.009564  0.02226  -0.009897  0.6445  -0.5328
6.301e+09  0.823  0.1808  -0.008633  -0.00605  -0.006422  -0.02018  0.4147  -0.7049
6.302e+09  0.7716  -0.1322  -0.02486  -0.0116  -0.0228  0.03685  0.1415  -0.8442
6.304e+09  0.7569  -0.3985  0.02249  0.01655  -0.007871  0.03342  -0.1267  -0.8092
6.305e+09  0.571  -0.6095  -0.01683  0.01414  0.02048  -0.03647  -0.4103  -0.7332
6.306e+09  0.2886  -0.8347  -0.03029  -0.004778  0.01063  0.004691  -0.6545  -0.5304
6.308e+09  0.01385  -0.8049  0.03164  -0.00428  -0.02919  -0.0192  -0.8157  -0.2918
6.309e+09  -0.2635  -0.83  -0.0219  -0.005506  0.008152  0.01678  -0.8521  -0.01387
6.31e+09  -0.4937  -0.6617  -0.01107  -0.02711  -0.004754  -0.005243  -0.8342  0.2773
6.311e+09  -0.7259  -0.396  -0.009928  -0.01561  -0.0291  -0.03691  -0.64  0.5593
6.312e+09  -0.8124  -0.1515  -0.02386  -0.03735  -0.001341  -0.04877  -0.4557  0.7355
6.314e+09  -0.8047  0.1568  0.007417  -3.133e-05  0.03023  0.00733  -0.1726  0.8256
6.315e+09  -0.7539  0.428  0.009185  -0.007901  -0.003101  -0.0146  0.1422  0.8376
6.316e+09  -0.5296  0.6693  -0.002903  -0.01307  -0.0005417  0.002683  0.4449  0.7601
6.318e+09  -0.235  0.7752  -0.009848  -0.0006214  0.001445  0.01139  0.6651  0.5982
6.319e+09  0.06644  0.8428  0.01548  -0.02659  0.03451  0.007528  0.8363  0.3174
6.32e+09  0.3586  0.7955  -0.02854  0.03398  0.003131  -0.07526  0.8803  -0.02355
6.321e+09  0.5822  0.6671  -0.0008146  -0.02451  -0.08128  -0.01757  0.8532  -0.3071
6.322e+09  0.7479  0.4371  0.009707  0.01067  0.005719  -0.02067  0.6953  -0.5548
6.324e+09  0.8232  0.06065  0.02545  0.00369  0.001949  -0.07082  0.4677  -0.7685
6.325e+09  0.7822  -0.1887  -0.01505  -0.002055  0.01271  -0.01922  0.1737  -0.8868
6.326e+09  0.6934  -0.4533  -0.02634  0.01113  0.02216  0.0001374  -0.1435  -0.8904
6.328e+09  0.4927  -0.7093  0.004233  0.02894  0.04911  -0.00431  -0.3962  -0.8167
6.329e+09  0.2976  -0.824  0.02166  -0.02113  0.04094  0.02119  -0.6964  -0.5867
6.33e+09  -0.08824  -0.8794  -0.002982  0.01869  0.02721  -0.0276  -0.7924  -0.3304
6.331e+09  -0.3682  -0.7869  -0.02041  0.003288  0.02228  -0.02942  -0.9106  -0.03184
6.332e+09  -0.6185  -0.6231  0.02032  -0.005239  0.01107  -0.03297  -0.8949  0.2795
6.334e+09  -0.8202  -0.3609  0.004167  0.01233  -0.01603  0.0112  -0.7124  0.5919
6.335e+09  -0.8853  -0.04947  0.03913  -0.02962  -0.01045  0.01735  -0.4672  0.8139
6.336e+09  -0.8312  0.2774  0.004312  0.001136  0.02456  0.06298  -0.198  0.9227
6.338e+09  -0.6265  0.5702  0.002658  -0.01465  -0.00829  -0.0249  0.09282  0.9229
6.339e+09  -0.4841  0.7471  -0.04879  0.01288  -0.0005817  0.01638  0.4137  0.8156
6.34e+09  -0.156  0.8298  0.001862  -0.02345  0.01531  -0.02866  0.6854  0.6296
6.341e+09  0.1512  0.8808  -0.01965  -0.02084  -0.01669  -0.0005328  0.8409  0.3654
6.342e+09  0.4322  0.7287  0.02163  -0.0004221  0.0279  -0.03223  0.938  0.05529
6.344e+09  0.6752  0.5534  -0.002675  -0.02479  0.0269  -0.006849  0.9158  -0.2792
6.345e+09  0.8177  0.3068  0.02399  0.01696  -0.00119  -0.0009825  0.7194  -0.5187
6.346e+09  0.8554  0.01052  -0.006758  0.01202  -0.01089  0.0263  0.5367  -0.8001
6.348e+09  0.8112  -0.2666  0.02152  0.003875  0.02814  -0.02333  0.2278  -0.9003
6.349e+09  0.663  -0.6014  -0.02339  -0.002356  -0.04559  0.01646  -0.1095  -0.9154
6.35e+09  0.4216  -0.8088  -0.007015  -0.002231  0.002996  -0.02977  -0.3823  -0.8669
6.351e+09  0.1397  -0.9097  0.01429  -0.0004549  -0.002837  -0.02091  -0.6444  -0.6474
6.352e+09  -0.1941  -0.8513  0.006874  0.02727  -0.02017  0.03198  -0.9045  -0.347
6.354e+09  -0.4822  -0.7364  -0.01625  0.008134  0.006388  0.01946  -0.9539  -0.04753
6.355e+09  -0.7052  -0.5259  -0.02232  -0.001625  -0.05619  0.02929  -0.9316  0.281
6.356e+09  -0.8203  -0.2562  0.0005586  0.002276  -0.005395  0.006376  -0.7945  0.588
6.358e+09  -0.871  0.07069  -0.04617  0.0449  0.01107  -0.005971  -0.55  0.7819
6.359e+09  -0.7816  0.3481  0.02205  0.02832  0.01144  -0.01687  -0.2337  0.9098
6.36e+09  -0.6337  0.613  -0.004101  0.002853  -0.003762  0.001752  0.1051  0.9508
6.361e+09  -0.3803  0.8588  -0.005663  -0.003568  -0.01675  0.01382  0.4428  0.8393
6.362e+09  -0.06696  0.9247  0.03563  0.006466  -0.00266  0.03102  0.6704  0.6716
6.364e+09  0.2445  0.9371  -0.02071  -0.004954  0.004896  0.03211  0.8252  0.3763
6.365e+09  0.4914  0.7673  0.01168  0.01829  -0.01879  0.008179  0.9361  0.07652
6.366e+09  0.7336  0.4538  -0.001263  -0.03585  -0.03052  -0.002507  0.9065  -0.2567
6.368e+09  0.8297  0.2765  0.03981  0.03499  -0.03608  0.07868  0.8072  -0.5576
6.369e+09  0.8793  -0.1066  0.001934  0.008678  0.03486  0.009506  0.5173  -0.7761
6.37e+09  0.7809  -0.4186  -0.03473  -0.01255  -0.02257  -0.03261  0.2499  -0.932
6.371e+09  0.5642  -0.6609  0.04939  -0.03074  0.01123  0.04608  -0.06494  -0.8871
6.372e+09  0.2964  -0.8119  -0.003056  -0.06469  -0.03462  0.04707  -0.387  -0.899
6.374e+09  -0.01575  -0.8943  -0.009334  0.003958  0.03989  0.03737  -0.7028  -0.6959
6.375e+09  -0.2429  -0.8028  -0.02882  -0.006104  0.01244  -0.04497  -0.8496  -0.3822
6.376e+09  -0.5789  -0.6834  0.007816  -0.0002656  0.01812  -0.03894  -0.9752  -0.1096
6.378e+09  -0.7939  -0.4402  -0.03286  -0.0251  0.03418  0.02467  -0.9213  0.2603
6.379e+09  -0.8606  -0.1714  -0.04577  -0.008414  0.01364  -0.02812  -0.8013  0.5119
6.38e+09  -0.8493  0.1491  -0.002843  0.006421  -0.03709  -0.02557  -0.5349  0.7854
6.381e+09  -0.7566  0.4301  0.02568  0.006891  0.02819  0.0007402  -0.3138  0.906
6.382e+09  -0.5538  0.7301  0.02414  -0.02188  -0.01833  -0.003854  0.0827  0.9599
6.384e+09  -0.3444  0.8746  -0.01779  -0.01776  0.01029  -0.002525  0.4222  0.8835
6.385e+09  0.02811  0.8993  0.02052  -0.03691  0.06604  -0.005638  0.6528  0.7201
6.386e+09  0.3693  0.8383  -0.01465  -0.0009132  0.02965  -0.01202  0.8057  0.4491
6.388e+09  0.583  0.6762  -0.02662  -0.008582  -0.01279  0.000894  0.9462  0.1413
6.389e+09  0.8242  0.4114  -0.0001319  0.02028  -0.04755  0.01775  0.8869  -0.2219
6.39e+09  0.8285  0.1338  -0.01385  0.009874  -0.02625  0.03069  0.7359  -0.5478
6.391e+09  0.9208  -0.264  -0.004312  0.0142  0.02691  0.02222  0.5289  -0.7184
6.392e+09  0.7095  -0.4799  -0.02362  -0.007936  0.02623  -0.02314  0.3505  -0.8749
6.394e+09  0.5094  -0.708  0.009983  -0.03958  0.02215  -0.03337  0.02124  -0.9255
6.395e+09  0.3073  -0.8498  0.005531  0.01581  -0.001201  0.01682  -0.3602  -0.8972
6.396e+09  -0.08723  -0.9169  0.01876  -0.02809  -0.02449  0.03511  -0.5827  -0.688
6.398e+09  -0.3497  -0.8627  0.01549  0.009205  -0.006459  -0.01155  -0.7926  -0.452
6.399e+09  -0.6336  -0.6315  -0.02333  -0.009458  0.04146  -0.004503  -0.9077  -0.1396
6.4e+09  -0.7689  -0.3612  0.03995  -0.01996  0.02583  0.03352  -0.89  0.2121
6.401e+09  -0.8892  -0.08365  -0.0005485  0.02241  0.008438  0.04138  -0.8055  0.4583
6.402e+09  -0.8517  0.2291  -0.004322  -0.0421  0.01529  -0.01566  -0.5819  0.7322
6.404e+09  -0.726  0.5152  0.03666  -0.00227  -0.006611  -0.01449  -0.3162  0.8339
6.405e+09  -0.5256  0.7218  -0.02518  -0.05472  0.001894  -0.003826  -0.01692  0.9362
6.406e+09  -0.2322  0.8375  -0.003546  -0.0323  -0.04176  -0.02947  0.285  0.9057
6.408e+09  0.08457  0.8858  0.03158  -0.01407  0.008633  -0.01488  0.5691  0.6694
6.409e+09  0.3848  0.7707  -0.009967  0.005102  -0.01367  0.00295  0.8106  0.4298
6.41e+09  0.603  0.6484  -0.005103  -0.01423  0.06116  0.0007002  0.848  0.1488
6.411e+09  0.8138  0.3672  -0.009049  0.006239  -0.02174  -0.01878  0.8924  -0.182
6.412e+09  0.862  0.04308  -0.03728  -0.005755  -0.0005744  0.02449  0.7933  -0.4266
6.414e+09  0.7934  -0.25  0.004923  0.04022  0.02509  0.04209  0.5913  -0.6593
6.415e+09  0.7519  -0.5145  0.02997  0.0168  0.03285  -0.03754  0.3393  -0.89
6.416e+09  0.5262  -0.772  0.006328  -0.0106  0.006374  -0.01202  0.05804  -0.8923
6.418e+09  0.2398  -0.8631  -0.03525  -0.02049  0.009332  -0.01784  -0.2857  -0.8539
6.419e+09  -0.07398  -0.8803  0.0202  0.03401  -0.01129  -0.04113  -0.5108  -0.6946
6.42e+09  -0.3399  -0.8257  0.0125  -0.004903  -0.01445  0.02883  -0.7345  -0.4737
6.421e+09  -0.6557  -0.6351  -0.02071  -0.02072  -0.005794  0.01566  -0.8764  -0.2014
6.422e+09  -0.7564  -0.3439  -0.02724  0.006134  -0.02405  0.006542  -0.8814  0.1091
6.424e+09  -0.8845  -0.08558  -0.03234  -0.06963  0.01128  -0.00501  -0.7626  0.3821
6.425e+09  -0.8671  0.2425  0.01974  -0.02251  0.007563  -0.01087  -0.5992  0.6167
6.426e+09  -0.6963  0.5337  0.02494  -0.01031  -0.04846  -0.02629  -0.311  0.8133
6.428e+09  -0.5227  0.7502  -0.02314  -0.005694  -0.009348  0.02242  -0.0325  0.8593
6.429e+09  -0.1648  0.9005  0.03007  7.011e-05  0.0146  -0.0724  0.2355  0.8759
6.43e+09  0.1309  0.8235  -0.008258  -0.05106  -0.009103  -0.01664  0.5417  0.6861
6.431e+09  0.4211  0.7708  0.05647  -0.03811  0.03188  0.008601  0.6628  0.4607
6.432e+09  0.6174  0.5623  -0.02228  -0.01779  0.008654  0.03281  0.8557  0.2177
6.434e+09  0.8424  0.306  0.009563  0.06216  -0.02526  -0.004846  0.8533  -0.07402
6.435e+09  0.8362  0.01521  -0.0145  0.013  0.02423  0.07729  0.8092  -0.445
6.436e+09  0.8803  -0.2651  -0.03824  -0.03579  -0.002573  0.03964  0.5936  -0.6168
6.438e+09  0.7242  -0.5676  -0.01645  0.004262  -0.0168  0.01732  0.3538  -0.7803
6.439e+09  0.4491  -0.7705  -0.007039  0.02872  -0.05588  0.01127  0.1024  -0.8734
6.44e+09  0.2146  -0.8954  0.03364  0.02818  0.01845  -0.02383  -0.2547  -0.8486
6.441e+09  -0.1148  -0.9465  0.01492  -0.006592  -0.01821  -0.0362  -0.4806  -0.6919
6.442e+09  -0.4872  -0.8001  -0.04952  -0.01162  0.02921  0.008591  -0.7408  -0.503
6.444e+09  -0.6626  -0.5975  -0.01554  -0.0161  0.0105  0.01711  -0.834  -0.2357
6.445e+09  -0.8581  -0.2629  -0.003138  0.01581  -0.01771  -0.006292  -0.8846  0.08706
6.446e+09  -0.9153  -0.1049  0.01814  0.004321  -8.542e-06  -0.01283  -0.7544  0.3332
6.448e+09  -0.8897  0.316  -0.03967  -0.02941  -0.005652  -0.01389  -0.5883  0.5378
6.449e+09  -0.721  0.5669  0.02641  -0.005184  -0.02069  -0.05534  -0.3503  0.7957
6.45e+09  -0.4375  0.7115  0.03908  0.003228  -0.01143  0.005978  -0.1136  0.8562
6.451e+09  -0.1644  0.8878  0.004201  0.001797  -0.01511  0.02089  0.2325  0.8357
6.452e+09  0.1272  0.8754  0.03194  -0.01681  0.01555  -0.002051  0.4802  0.6652
6.454e+09  0.4519  0.8137  0.02036  -0.01005  -0.002705  -0.01236  0.6803  0.4278
6.455e+09  0.6255  0.6045  0.02253  0.01369  -0.08922  -0.002003  0.7566  0.201
6.456e+09  0.8749  0.3704  0.005425  0.02458  -0.0004521  0.08524  0.8021  -0.08184
6.458e+09  0.8822  -0.02308  -0.01301  0.006948  0.007511  -0.01368  0.762  -0.3123
6.459e+09  0.8735  -0.3207  0.03583  -0.04815  0.01672  0.02509  0.5849  -0.5747
6.46e+09  0.6897  -0.5475  0.00546  -0.007405  -0.0276  0.005804  0.3069  -0.7249
6.461e+09  0.4358  -0.7402  -0.02703  0.03796  6.505e-05  -0.011  0.03679  -0.8434
6.462e+09  0.1863  -0.8815  0.01101  0.04854  0.001618  0.02677  -0.2022  -0.7703
6.464e+09  -0.1398  -0.8918  -0.02743  -0.02048  -0.01862  -0.04928  -0.4422  -0.6468
6.465e+09  -0.434  -0.7989  0.01669  0.05227  0.0131  0.01201  -0.6633  -0.4285
6.466e+09  -0.6911  -0.6115  0.003975  -0.003784  0.02939  -0.02389  -0.7934  -0.1926
6.468e+09  -0.8507  -0.3604  -0.01685  -0.008748  -0.0298  -0.02458  -0.811  0.06957
6.469e+09  -0.8836  0.0658  0.004322  -0.04232  0.01811  0.03071  -0.7364  0.3354
6.47e+09  -0.8714  0.3365  0.05199  0.009791  -0.03384  0.01673  -0.5697  0.572
6.471e+09  -0.6758  0.5658  -0.01775  0.02062  -0.02302  -0.0624  -0.3104  0.7218
6.472e+09  -0.4603  0.7604  -0.002324  -0.006003  -0.01023  0.0179  -0.09898  0.7585
6.474e+09  -0.2069  0.91  -0.01228  0.01671  -0.03383  0.04961  0.2155  0.7087
6.475e+09  0.199  0.9278  -0.01124  -0.02191  0.001855  0.01038  0.4613  0.6479
6.476e+09  0.4161  0.7831  -0.03606  0.01606  -0.03009  0.003213  0.6371  0.4361
6.478e+09  0.7213  0.5947  0.00856  0.032  -0.02574  0.0115  0.7478  0.1812
6.479e+09  0.8534  0.3649  -0.008129  0.0008598  0.009712  0.0219  0.7846  -0.1113
6.48e+09  0.9212  0.004203  0.01226  -0.03065  0.01503  -0.003946  0.6978  -0.3769
6.481e+09  0.8476  -0.3081  0.008065  0.02885  0.04878  0.06107  0.4993  -0.5208
6.482e+09  0.7126  -0.5455  0.01158  -0.004482  0.02742  0.006983  0.3282  -0.7144
6.484e+09  0.418  -0.7833  0.0424  0.01515  0.006282  0.01977  0.04559  -0.788
6.485e+09  0.1646  -0.9623  -0.04529  -0.008713  -0.0005718  0.02375  -0.2074  -0.7371
6.486e+09  -0.1451  -0.8903  0.02523  0.01969  0.0161  0.002952  -0.46  -0.6232
6.488e+09  -0.4753  -0.7749  0.01203  -0.02915  -0.02322  0.004935  -0.6742  -0.422
6.489e+09  -0.7192  -0.5569  -0.00311  -0.00971  -0.006681  0.00937  -0.7456  -0.1643
6.49e+09  -0.9049  -0.2993  0.009918  -0.006096  -0.0306  -0.08095  -0.7853  0.08387
6.491e+09  -0.9534  -0.001871  0.009262  0.07288  0.006203  -0.03209  -0.682  0.3368
6.492e+09  -0.8085  0.3501  0.0006351  0.01795  0.01577  -0.05036  -0.4883  0.564
6.494e+09  -0.7031  0.6449  0.01512  0.006224  0.004477  0.032  -0.2891  0.7208
6.495e+09  -0.3699  0.7963  0.003507  0.003143  0.0232  -0.03775  -0.01947  0.7542
6.496e+09  -0.1662  0.9145  -0.004934  -0.01172  -0.03768  -0.05306  0.2526  0.7203
6.498e+09  0.21  0.909  0.01954  0.0234  0.0548  0.005286  0.4591  0.63
6.499e+09  0.5027  0.7993  -0.0189  -0.004159  0.004215  -0.003809  0.6464  0.4012
6.5e+09  0.7535  0.5643  -0.009856  0.01215  -0.02263  -0.03338  0.7689  0.1643
6.501e+09  0.8752  0.3033  -0.006745  0.01361  0.0224  -0.001941  0.7377  -0.05292
6.502e+09  0.9433  -0.02182  -0.03868  0.003127  -0.01728  -0.05135  0.6631  -0.3768
6.504e+09  0.9021  -0.348  -0.01483  -0.004273  -0.005908  0.015  0.5014  -0.5609
6.505e+09  0.6829  -0.5966  0.04536  -0.009453  0.07501  0.01415  0.27  -0.6806
6.506e+09  0.4222  -0.8286  0.01164  0.01137  -0.01975  0.01512  0.02505  -0.7474
6.508e+09  0.1042  -0.9917  0.03646  -0.008615  0.02582  -0.0549  -0.2345  -0.7122
6.509e+09  -0.2809  -0.9197  0.004017  -0.009137  0.05813  0.003623  -0.4743  -0.594
6.51e+09  -0.5025  -0.7884  0.02752  -0.006173  -0.00236  -0.02229  -0.62  -0.4031
6.511e+09  -0.7682  -0.5936  -0.005616  0.02193  -0.03468  0.02448  -0.7776  -0.165
6.512e+09  -0.8725  -0.2139  0.007841  0.004753  -0.002734  -0.02239  -0.7434  0.1689
6.514e+09  -0.9336  0.08754  -0.0086  -0.04237  -0.04597  0.01126  -0.6377  0.3744
6.515e+09  -0.89  0.4136  0.02385  -0.0267  0.01556  -0.007146  -0.5048  0.5872
6.516e+09  -0.6817  0.7021  0.01579  0.04102  -0.01062  -0.0201  -0.24  0.7209
6.518e+09  -0.3977  0.9527  0.01684  0.02249  -0.02843  0.01587  0.005753  0.7291
6.519e+09  -0.04982  0.9781  -0.02659  -0.04494  0.02706  -0.04942  0.2529  0.7049
6.52e+09  0.2559  0.9349  0.006729  0.01636  0.01035  -0.01553  0.5065  0.5522
6.521e+09  0.6053  0.7874  -0.01411  -0.009259  0.03787  0.03052  0.646  0.3356
6.522e+09  0.8217  0.538  0.001388  0.05068  -0.02804  0.003447  0.7563  0.1142
6.524e+09  0.9949  0.1842  0.01654  0.01915  0.03859  -0.008979  0.688  -0.1756
6.525e+09  0.957  -0.0935  -0.004518  0.007568  0.01675  -0.02104  0.6256  -0.3939
6.526e+09  0.8119  -0.4438  0.01948  -0.02305  -0.03583  -0.005695  0.4451  -0.5997
6.528e+09  0.6377  -0.7155  -0.03016  -0.01038  0.03523  -0.008513  0.1747  -0.7362
6.529e+09  0.3871  -0.9401  0.0337  0.01267  0.002191  0.005747  -0.06606  -0.7036
6.53e+09  -0.0584  -1.009  0.02177  0.02145  0.006229  -0.02947  -0.2916  -0.5896
6.531e+09  -0.2978  -0.8973  0.01301  0.02921  -0.008671  0.004615  -0.5001  -0.4762
6.532e+09  -0.6263  -0.7481  -0.001489  -0.004817  0.04665  -0.03205  -0.6257  -0.3045
6.534e+09  -0.867  -0.4644  0.01113  0.01221  -0.03455  -0.01279  -0.651  -0.06806
6.535e+09  -0.9999  -0.1226  -0.01159  -0.02067  -0.0199  0.003298  -0.6585  0.106
6.536e+09  -0.9068  0.2361  -0.00456  0.02189  -0.005004  0.06983  -0.5344  0.2966
6.538e+09  -0.7857  0.4968  0.03244  0.01187  0.03725  0.04429  -0.4635  0.5021
6.539e+09  -0.543  0.7328  0.001998  -0.02089  0.04802  -0.04322  -0.3024  0.6283
6.54e+09  -0.2693  0.8829  -0.007396  -0.01424  -0.02096  0.01744  -0.05453  0.6946
6.541e+09  0.08161  0.9517  0.01954  -0.006091  0.006122  0.0429  0.179  0.6511
6.542e+09  0.4658  0.8916  0.01298  0.005315  -0.01624  0.004659  0.4258  0.55
6.544e+09  0.703  0.7179  -0.01748  -0.007287  -0.02472  0.0174  0.5599  0.3556
6.545e+09  0.869  0.394  -0.007499  -0.005208  -0.03385  -0.008651  0.7273  0.1902
6.546e+09  0.964  0.04794  -0.001705  0.009729  0.02662  0.001212  0.7276  -0.1164
6.548e+09  0.8854  -0.2711  -0.002047  -0.03358  -0.02237  -0.0171  0.6615  -0.3372
6.549e+09  0.7938  -0.5973  -0.02301  -0.01815  0.005256  0.008549  0.526  -0.512
6.55e+09  0.5215  -0.7895  0.03931  0.00969  0.009364  -0.001842  0.3037  -0.6597
