# Hz S RI R 50
6.25e+09  -0.682  0.3955  -0.02611  -0.005835  0.02383  0.0054  0.1753  0.4818
6.251e+09  -0.4853  0.5998  -0.02706  0.01432  -0.04296  -0.02402  0.3734  0.4227
6.252e+09  -0.3052  0.753  -0.02663  0.003221  -0.04904  -0.02248  0.5666  0.2145
6.254e+09  0.02814  0.8229  -0.02704  0.01268  0.07179  0.05272  0.5913  0.05892
6.255e+09  0.2067  0.8089  0.02691  0.003599  -0.03636  -0.01901  0.6064  -0.2047
6.256e+09  0.5069  0.6501  -0.0006394  0.03666  -0.01094  0.04105  0.4798  -0.4611
6.258e+09  0.8266  0.4669  0.01639  0.01464  0.005842  0.02212  0.2838  -0.6225
6.259e+09  0.8442  0.146  0.002491  -0.01847  0.04252  0.002365  0.02679  -0.669
6.26e+09  0.8376  -0.1691  -0.0007398  0.02527  0.02412  0.0102  -0.2037  -0.6575
6.261e+09  0.6905  -0.4204  0.01283  -0.002667  0.01636  -0.01735  -0.4066  -0.5436
6.262e+09  0.595  -0.5971  -0.01674  -0.0255  0.008825  0.04748  -0.5938  -0.3323
6.264e+09  0.2982  -0.837  -0.002039  -0.01474  0.009515  -0.01749  -0.7082  -0.1579
6.265e+09  0.02395  -0.7734  0.01143  -0.02858  0.01837  0.05607  -0.6916  0.1539
6.266e+09  -0.2603  -0.7682  0.001259  0.0006175  0.01405  -0.00642  -0.6204  0.4089
6.268e+09  -0.5031  -0.6353  -0.005489  0.00789  0.01934  0.01827  -0.4441  0.5866
6.269e+09  -0.6873  -0.4908  0.0162  0.002903  0.03238  0.03053  -0.1848  0.7122
6.27e+09  -0.8525  -0.1524  -0.02976  -0.003393  -0.04486  0.01536  0.1135  0.7575
6.271e+09  -0.8134  0.1273  0.01939  -0.01381  0.01642  0.01976  0.3427  0.6539
6.272e+09  -0.6923  0.4152  0.01281  -0.006241  -0.005182  0.02091  0.5543  0.4905
6.274e+09  -0.5077  0.5835  0.001598  0.01198  0.02144  0.08206  0.7181  0.2877
6.275e+09  -0.3164  0.7857  -0.009807  0.01846  0.01838  -0.005481  0.7613  -0.001006
6.276e+09  -0.06056  0.7901  -0.01871  0.01198  0.03662  -0.01048  0.7193  -0.2052
6.278e+09  0.3175  0.7552  0.0108  -0.002926  0.0585  0.0109  0.5884  -0.4325
6.279e+09  0.541  0.6278  0.01382  -0.01491  0.01578  0.008235  0.3807  -0.6147
6.28e+09  0.7182  0.3856  0.01865  -0.002917  0.04774  -0.02756  0.168  -0.7995
6.281e+09  0.8266  0.1416  0.01593  -0.002149  -0.02957  -0.02016  -0.1078  -0.7482
6.282e+09  0.7614  -0.1184  0.006419  0.02564  0.02926  0.05392  -0.3894  -0.699
6.284e+09  0.7068  -0.4356  -0.004666  0.01072  -0.01468  -0.004943  -0.5965  -0.5344
6.285e+09  0.5079  -0.6392  -0.01187  -0.0276  0.01875  -0.02851  -0.7161  -0.3057
6.286e+09  0.2912  -0.7764  0.003666  -0.008253  0.01526  -0.01902  -0.8065  -0.04506
6.288e+09  -0.02505  -0.8089  0.02082  0.007943  -0.005216  0.02363  -0.762  0.2475
6.289e+09  -0.2888  -0.793  0.005646  -0.002317  0.01677  0.004364  -0.6098  0.5036
6.29e+09  -0.541  -0.5957  0.005545  -0.01043  0.04517  0.00726  -0.4015  0.7016
6.291e+09  -0.7225  -0.4044  0.001922  0.02251  -0.01402  -0.06857  -0.1269  0.8028
6.292e+09  -0.8072  -0.09533  0.01731  -0.0007145  0.02178  -0.006615  0.1009  0.7636
6.294e+09  -0.8041  0.1588  -0.03743  0.01574  0.01291  0.005621  0.398  0.7276
6.295e+09  -0.7354  0.4001  0.03394  0.004499  0.0453  -0.001634  0.6386  0.5482
6.296e+09  -0.4969  0.6262  -0.02456  -0.01903  0.04358  -0.01998  0.7873  0.2472
6.298e+09  -0.296  0.7676  -0.027  2.616e-05  0.05023  -0.02252  0.8512  0.02241
6.299e+09  0.05145  0.8139  0.01264  0.03404  0.02272  -0.03768  0.789  -0.2816
6.3e+09  0.3531  0.7819  0.01197  -0.02708  0.03648  -0.005209  0.6223  -0.5166
6.301e+09  0.6148  0.602  -0.002547  -0.01001  -0.009446  0.0006117  0.4427  -0.7017
6.302e+09  0.7273  0.3492  0.02061  0.009346  -0.03771  -0.02858  0.1771  -0.845
6.304e+09  0.7912  0.07285  0.01129  0.005025  -0.01775  -0.02099  -0.1511  -0.8323
6.305e+09  0.7994  -0.1994  -0.003685  -0.0007085  0.01514  -0.02261  -0.4239  -0.7031
6.306e+09  0.689  -0.4863  0.02314  0.009786  0.02569  0.003131  -0.6307  -0.5623
6.308e+09  0.4768  -0.6519  -0.03676  0.01935  0.04215  -0.02754  -0.8051  -0.2876
6.309e+09  0.2526  -0.8438  0.01386  -0.01946  0.02393  -0.007089  -0.8803  0.0003044
6.31e+09  -0.03459  -0.8399  -0.00317  -0.02152  -0.008631  0.03927  -0.8219  0.3023
6.311e+09  -0.3371  -0.7459  -0.02257  0.02274  -0.03738  0.01477  -0.6852  0.5474
6.312e+09  -0.5971  -0.6085  -0.017  -0.004705  -0.007685  -0.002287  -0.4223  0.7415
6.314e+09  -0.7806  -0.3735  0.01314  0.003433  0.01075  0.01295  -0.1494  0.8548
6.315e+09  -0.8196  -0.09428  -0.006899  0.02014  0.0251  0.02044  0.1453  0.8859
6.316e+09  -0.7979  0.2486  0.01263  -0.02083  -0.005259  0.02838  0.4586  0.7766
6.318e+09  -0.683  0.4773  -0.01223  -0.01405  0.05417  -0.07149  0.6923  0.5494
6.319e+09  -0.4849  0.6754  -0.008278  0.01341  -0.01581  0.02006  0.8478  0.3109
6.32e+09  -0.1886  0.8651  0.0006203  -0.01341  -0.01422  0.02852  0.8847  0.01081
6.321e+09  0.1148  0.8102  0.0143  -0.006293  0.03346  0.04756  0.844  -0.3471
6.322e+09  0.4221  0.7712  0.0254  -0.01878  0.008058  0.004918  0.6928  -0.5418
6.324e+09  0.6321  0.5408  0.01989  -0.005294  -0.01478  0.01082  0.4694  -0.8077
6.325e+09  0.7665  0.3198  0.01983  -0.02146  -0.0208  0.0416  0.164  -0.8905
6.326e+09  0.7984  0.004097  -0.01965  0.02115  -0.01853  0.004004  -0.1514  -0.8803
6.328e+09  0.8044  -0.2454  0.01104  -0.0108  -0.01798  -0.008353  -0.4087  -0.7736
6.329e+09  0.6791  -0.5285  -0.004071  0.02818  0.01347  0.001629  -0.6631  -0.5906
6.33e+09  0.4464  -0.7395  -0.01502  -0.002147  -0.006429  0.01009  -0.8354  -0.3561
6.331e+09  0.1165  -0.7835  -0.008679  -0.01392  0.002624  0.01239  -0.9331  -0.04342
6.332e+09  -0.1415  -0.8077  -0.007666  -0.02836  0.02114  0.006502  -0.8892  0.3041
6.334e+09  -0.4543  -0.751  -0.001891  0.002383  -0.01617  0.03967  -0.6891  0.5799
6.335e+09  -0.6168  -0.5485  -0.0001694  -0.03289  -0.04749  -0.03148  -0.4794  0.7944
6.336e+09  -0.812  -0.2641  0.01158  -0.005073  0.01957  -0.02144  -0.1979  0.9177
6.338e+09  -0.8569  0.009811  -0.01653  0.01951  -0.01426  0.01284  0.124  0.9324
6.339e+09  -0.8216  0.3024  -0.0128  0.0176  -0.01419  0.02861  0.3977  0.8279
6.34e+09  -0.6252  0.5907  -0.009677  -0.035  0.01401  0.01672  0.6848  0.6398
6.341e+09  -0.4211  0.762  -0.008078  -0.004808  0.03268  -0.07333  0.8266  0.3496
6.342e+09  -0.1461  0.8655  0.0157  -0.006301  -0.00582  0.005667  0.9006  0.07235
6.344e+09  0.2027  0.8432  0.01439  0.008531  -0.02868  0.01889  0.9247  -0.2534
6.345e+09  0.4806  0.7546  0.002741  -0.0185  0.0238  -0.003733  0.7647  -0.574
6.346e+09  0.7449  0.5196  -0.01413  -0.01702  -0.01184  -0.003185  0.5111  -0.7841
6.348e+09  0.8129  0.1984  -0.0096  0.02233  -0.05143  -0.03457  0.2298  -0.9244
6.349e+09  0.8669  -0.1181  0.02451  -0.001936  -0.0142  -0.03493  -0.07732  -0.9572
6.35e+09  0.8188  -0.3955  -0.01455  -0.03216  0.01181  0.03519  -0.4034  -0.8039
6.351e+09  0.6046  -0.6117  -0.008582  -0.01217  -0.01193  0.01278  -0.6738  -0.6421
6.352e+09  0.3428  -0.848  0.009857  0.02035  0.005319  0.002084  -0.8799  -0.3886
6.354e+09  0.05382  -0.8589  -0.00745  -0.0324  -0.01121  -0.01353  -0.9092  -0.04133
6.355e+09  -0.2815  -0.8581  -0.007373  -0.00296  0.02315  0.04071  -0.9515  0.2633
6.356e+09  -0.5899  -0.651  -0.0378  -0.00196  -0.02468  0.03909  -0.7672  0.5431
6.358e+09  -0.7639  -0.4373  -0.01968  0.01015  0.01862  0.009367  -0.5077  0.8012
6.359e+09  -0.8092  -0.1686  -0.00329  -0.0006105  0.001639  -0.06656  -0.2486  0.9445
6.36e+09  -0.8904  0.148  0.02084  -0.03985  0.009531  -0.04712  0.09321  0.9338
6.361e+09  -0.7501  0.4638  -0.02742  0.03029  -0.004522  -0.008798  0.4558  0.899
6.362e+09  -0.5241  0.7047  -0.0205  0.02489  0.02197  0.01005  0.6635  0.666
6.364e+09  -0.2559  0.8771  0.02392  0.002852  0.007973  -0.04234  0.8656  0.3806
6.365e+09  0.02924  0.8692  -0.006945  0.002513  0.02289  0.0156  0.9179  0.09567
6.366e+09  0.3446  0.7995  0.01242  0.0364  0.06014  -0.0007945  0.953  -0.2506
6.368e+09  0.6118  0.6151  0.003688  0.02268  -0.02098  -0.04019  0.7922  -0.5664
6.369e+09  0.7791  0.3369  -0.006071  -0.01202  0.03768  -0.0067  0.527  -0.7863
6.37e+09  0.8218  0.08701  0.02171  -0.02666  0.01334  -0.01999  0.2731  -0.9083
6.371e+09  0.8328  -0.2101  -0.01231  -0.006578  -0.04735  -0.05961  -0.06284  -0.949
6.372e+09  0.7193  -0.5462  -0.0009108  -0.01414  -0.02227  -0.008145  -0.3787  -0.8692
6.374e+09  0.4925  -0.7318  -0.03253  0.02804  -0.01379  0.02725  -0.686  -0.6411
6.375e+09  0.181  -0.8117  -0.003887  0.03895  0.006204  0.0004532  -0.8187  -0.4091
6.376e+09  -0.0842  -0.8843  0.002258  0.009943  0.009327  -0.0193  -0.986  -0.09339
6.378e+09  -0.4011  -0.7774  -0.01433  -0.002145  0.009135  -0.03624  -0.858  0.2162
6.379e+09  -0.6118  -0.5865  0.02431  0.03282  -0.0195  -0.005156  -0.7727  0.5706
6.38e+09  -0.842  -0.3736  0.009355  0.008482  -0.0162  0.06531  -0.5682  0.762
6.381e+09  -0.8767  -0.01673  0.02599  0.001542  0.001059  0.02665  -0.2742  0.9274
6.382e+09  -0.8314  0.2871  -0.02484  -0.01269  0.005427  -0.01472  0.04378  0.9523
6.384e+09  -0.7269  0.5452  -0.02869  -0.01714  0.01081  0.01111  0.3514  0.846
6.385e+09  -0.4491  0.7643  0.002344  0.00093  0.008769  -0.01269  0.6641  0.7061
6.386e+09  -0.1287  0.8449  -0.0119  -0.0159  0.002114  -0.01271  0.8443  0.4134
6.388e+09  0.1768  0.8804  0.001551  -0.02763  -0.02544  0.02054  0.9254  0.1321
6.389e+09  0.4471  0.7954  0.03312  -0.02026  -3.072e-05  -0.0007623  0.9621  -0.2313
6.39e+09  0.6636  0.5759  -0.02258  0.0008597  0.03192  0.01742  0.8032  -0.5479
6.391e+09  0.839  0.3122  -0.0312  -0.01882  0.007477  0.03653  0.5409  -0.7478
6.392e+09  0.863  -0.01707  0.01989  -0.01293  0.02707  -0.02437  0.2706  -0.8662
6.394e+09  0.8578  -0.3213  -0.001999  -0.01867  0.0314  -0.01603  -0.044  -0.9029
6.395e+09  0.6729  -0.6289  -0.04089  0.00015  0.0157  -0.01969  -0.3471  -0.8523
6.396e+09  0.4032  -0.762  -0.005258  0.006425  0.02482  -0.02212  -0.595  -0.714
6.398e+09  0.08844  -0.9309  0.01613  -0.01742  -0.03579  0.01993  -0.8223  -0.4174
6.399e+09  -0.1581  -0.8818  0.01919  0.002372  0.00633  0.02377  -0.9058  -0.1557
6.4e+09  -0.5009  -0.6951  0.006277  -0.01347  0.01952  -0.01282  -0.8603  0.2197
6.401e+09  -0.7223  -0.5127  0.0008914  -0.03178  -0.02857  0.0329  -0.7575  0.4789
6.402e+09  -0.8383  -0.2636  -0.01017  0.01962  0.02004  -0.03552  -0.6033  0.7166
6.404e+09  -0.8926  0.08527  -0.009033  0.02063  -0.008299  0.02029  -0.2817  0.8627
6.405e+09  -0.802  0.3362  -0.03094  0.01065  0.0106  -0.05356  -0.003597  0.8937
6.406e+09  -0.601  0.6097  -0.006904  -0.03998  0.01841  -0.009835  0.3032  0.8739
6.408e+09  -0.4001  0.7462  0.003417  -0.0001368  0.01712  -0.0006672  0.5735  0.736
6.409e+09  -0.07314  0.8716  0.02756  -0.02465  -0.01781  0.01378  0.7895  0.4792
6.41e+09  0.2117  0.8396  0.01815  -0.01673  -0.01815  -0.04208  0.9297  0.1567
6.411e+09  0.5819  0.6776  -0.00635  0.01064  0.01803  0.02848  0.9432  -0.1194
6.412e+09  0.7116  0.4177  0.01734  -0.009079  0.005322  0.01448  0.7866  -0.4048
6.414e+09  0.8605  0.1945  0.007325  -0.03603  -0.01785  0.02828  0.6165  -0.654
6.415e+09  0.8935  -0.1169  0.03057  0.006181  -0.03962  0.0154  0.3493  -0.8447
6.416e+09  0.784  -0.4167  0.03879  0.02126  0.003382  0.03084  0.0188  -0.8789
6.418e+09  0.5703  -0.6426  -0.004246  -0.007117  0.0001725  0.03985  -0.2516  -0.8456
6.419e+09  0.3525  -0.8012  0.004938  -0.007358  0.03994  0.02848  -0.5572  -0.7142
6.42e+09  0.03876  -0.8764  -0.008067  0.03096  -0.06357  0.004263  -0.7621  -0.5177
6.421e+09  -0.2804  -0.7971  -0.03478  0.005747  -0.002231  -0.02065  -0.8494  -0.2046
6.422e+09  -0.6133  -0.6987  -0.05588  -0.03256  -0.02045  -0.02078  -0.8966  0.142
6.424e+09  -0.7266  -0.4501  -0.0121  0.02291  -0.0107  0.01651  -0.7912  0.433
6.425e+09  -0.8995  -0.2169  0.04832  -0.006428  0.01324  0.0005579  -0.5897  0.6657
6.426e+09  -0.8603  0.09361  -0.008852  -0.007543  -0.02067  -0.01826  -0.328  0.8008
6.428e+09  -0.7941  0.4173  -0.03114  0.02377  -0.005782  -0.05406  -0.05042  0.8495
6.429e+09  -0.5317  0.6555  -0.01697  0.003061  -0.031  0.06195  0.2373  0.7892
6.43e+09  -0.3104  0.848  0.02111  -0.001649  -0.02432  -0.03372  0.5418  0.6843
6.431e+09  -0.003191  0.9313  -0.0338  -0.02363  0.001003  0.03417  0.7056  0.5168
6.432e+09  0.2647  0.8338  -0.01383  0.03707  -0.01159  -0.01037  0.8118  0.1986
6.434e+09  0.5621  0.6561  -0.02208  -0.05425  0.008347  -0.05747  0.8705  -0.1254
6.435e+09  0.758  0.3995  -0.007785  0.03548  0.019  0.05111  0.8252  -0.3776
6.436e+09  0.9159  0.1571  -0.03188  -0.001739  -0.0442  0.03249  0.57  -0.5939
6.438e+09  0.8645  -0.1282  0.005829  0.02971  0.01479  0.04424  0.3471  -0.8725
6.439e+09  0.7498  -0.4523  -0.0001361  0.03587  0.05285  -0.01825  0.04907  -0.8816
6.44e+09  0.4967  -0.63  0.00196  0.05651  0.007718  0.01313  -0.2843  -0.8289
6.441e+09  0.2472  -0.8149  -0.03367  -0.0266  -0.01491  -0.01709  -0.4535  -0.7387
6.442e+09  -0.07556  -0.8815  -0.05459  0.05629  0.04552  -0.001955  -0.732  -0.4473
6.444e+09  -0.3058  -0.8435  -0.0149  -0.01864  0.001616  -0.003818  -0.8221  -0.2078
6.445e+09  -0.6105  -0.6563  0.01741  0.01648  0.019  0.01875  -0.8877  0.06173
6.446e+09  -0.7793  -0.4314  0.02483  -0.02404  -0.004758  -0.0237  -0.7677  0.3421
6.448e+09  -0.8255  -0.09226  -0.06343  0.02398  0.008754  -0.02079  -0.6194  0.5526
6.449e+09  -0.8778  0.148  -0.0103  1.716e-06  -0.05891  -0.03153  -0.3421  0.7528
6.45e+09  -0.7473  0.4776  -0.00269  0.02812  -0.01177  -0.001642  -0.06203  0.8343
6.451e+09  -0.5096  0.6807  -0.02413  0.0133  0.04135  -0.006164  0.1804  0.8329
6.452e+09  -0.2498  0.8314  0.03084  0.06992  0.05054  0.02026  0.4923  0.6538
6.454e+09  0.06615  0.8566  0.006192  0.02985  -0.03873  0.019  0.6888  0.4773
6.455e+09  0.3045  0.8181  0.01588  0.02272  0.002214  -0.009805  0.7697  0.1732
6.456e+09  0.6033  0.7077  0.02195  0.000577  -0.03728  -0.02656  0.8314  -0.08195
6.458e+09  0.7201  0.3918  -0.03251  0.03183  -0.003092  0.004985  0.7572  -0.3695
6.459e+09  0.8875  0.1617  -0.04041  0.001163  0.07597  -0.004632  0.5912  -0.5835
6.46e+09  0.8579  -0.1555  0.005206  0.01103  0.05876  -0.009004  0.3468  -0.7317
6.461e+09  0.7405  -0.4862  0.03553  0.02808  -0.04922  -0.007688  0.09452  -0.8332
6.462e+09  0.4854  -0.6746  0.00276  -0.01402  -0.002315  0.01935  -0.2087  -0.7702
6.464e+09  0.2172  -0.8598  0.04517  -0.005235  -0.006463  0.01258  -0.4381  -0.6836
6.465e+09  -0.02997  -0.8446  -0.02969  0.02481  0.006603  -0.0197  -0.6415  -0.4108
6.466e+09  -0.3265  -0.7611  -0.003361  -0.009389  0.01403  -0.01754  -0.7631  -0.1894
6.468e+09  -0.6339  -0.6639  -0.01317  0.01833  -0.04328  0.03996  -0.8084  0.07652
6.469e+09  -0.8254  -0.3468  0.005285  0.01837  0.02663  -0.02485  -0.7049  0.3638
6.47e+09  -0.8684  -0.1391  0.0003928  0.001612  0.02331  0.06236  -0.569  0.5493
6.471e+09  -0.8291  0.1315  -0.01816  0.008481  0.005174  0.02443  -0.3031  0.7309
6.472e+09  -0.7344  0.5282  0.01145  -0.004007  -0.01753  0.05263  -0.06217  0.775
6.474e+09  -0.455  0.6893  -0.0394  -0.03002  -0.02129  -0.07031  0.2079  0.7709
6.475e+09  -0.3181  0.8673  0.004277  0.002433  -0.05956  -0.04852  0.4498  0.6293
6.476e+09  0.02125  0.8909  -0.01386  -0.03326  0.01617  0.008137  0.6474  0.4533
6.478e+09  0.4031  0.7728  0.0134  -0.01976  -0.008049  0.01917  0.7923  0.1783
6.479e+09  0.6008  0.6629  0.03408  0.03411  -0.04176  0.01167  0.7611  -0.05712
6.48e+09  0.7379  0.3926  0.009696  0.0297  -0.04034  -0.0292  0.6665  -0.3368
6.481e+09  0.9028  0.0969  -0.007071  -0.02096  -0.01809  -0.001936  0.5569  -0.5776
6.482e+09  0.8296  -0.2011  0.02065  -0.01943  0.005314  -0.03448  0.3425  -0.6913
6.484e+09  0.7392  -0.481  0.01158  -0.0074  0.03504  -0.002539  0.00365  -0.8003
6.485e+09  0.513  -0.7343  0.04076  0.01038  0.02286  -0.04002  -0.2051  -0.7598
6.486e+09  0.3195  -0.8863  -0.0104  -0.01252  0.01966  -0.02624  -0.429  -0.6569
6.488e+09  -0.08438  -0.8429  0.05728  -0.01058  -9.688e-05  -0.001112  -0.6104  -0.3845
6.489e+09  -0.3222  -0.8516  -0.01671  -0.03165  -0.01922  0.04739  -0.7945  -0.1853
6.49e+09  -0.5988  -0.6158  0.01799  0.01136  -0.01855  -0.02256  -0.715  0.07294
6.491e+09  -0.7985  -0.3871  -0.02271  0.0194  0.02193  -0.04946  -0.7244  0.3696
6.492e+09  -0.8632  -0.09602  -0.01307  -0.02396  0.008989  -0.0125  -0.5267  0.5232
6.494e+09  -0.8409  0.1786  -0.0007694  0.02852  0.01361  -0.004029  -0.3177  0.6948
6.495e+09  -0.7628  0.4948  -0.00141  0.01928  -0.006663  0.007227  -0.03006  0.7704
6.496e+09  -0.4967  0.7203  -0.005517  0.03686  0.01376  -0.01466  0.2242  0.7369
6.498e+09  -0.2595  0.8687  -0.02111  -0.01428  -0.0001547  0.006951  0.4049  0.609
6.499e+09  0.08736  0.9529  0.0338  -0.01969  0.008608  0.02352  0.6403  0.4133
6.5e+09  0.3277  0.8016  -0.04456  0.01491  -0.03322  -0.04514  0.7248  0.1672
6.501e+09  0.6163  0.6376  0.005073  -0.01195  -0.04466  -0.01027  0.7476  -0.1373
6.502e+09  0.7945  0.3674  0.006428  -0.02257  0.03271  0.03587  0.6756  -0.3564
6.504e+09  0.9315  0.06272  0.02955  0.02136  0.01011  -0.01497  0.5064  -0.5363
6.505e+09  0.8599  -0.2928  -0.01075  0.02083  0.05161  -0.04207  0.2923  -0.689
6.506e+09  0.6819  -0.5329  0.001371  0.02235  -0.02608  -0.05241  0.02699  -0.741
6.508e+09  0.5131  -0.7554  -0.02966  -0.01161  -0.02121  -0.005765  -0.2643  -0.7571
6.509e+09  0.1793  -0.9268  -0.002971  0.01158  0.01184  -0.003004  -0.4836  -0.5736
6.51e+09  -0.105  -0.9046  0.0128  -0.00897  -0.01712  -0.007808  -0.6407  -0.3846
6.511e+09  -0.3935  -0.841  0.0002804  -0.02459  0.00585  0.01068  -0.7538  -0.1463
6.512e+09  -0.6962  -0.6677  0.03887  0.0368  -0.04814  0.04418  -0.7436  0.1517
6.514e+09  -0.8313  -0.384  0.01535  0.0172  0.05188  0.01378  -0.6416  0.4007
6.515e+09  -0.9301  -0.01924  -0.03821  0.04849  -0.01844  0.006671  -0.4539  0.5767
6.516e+09  -0.8625  0.2442  -0.02523  0.0108  0.01085  0.06602  -0.2387  0.7427
6.518e+09  -0.72  0.5775  0.01511  -0.006988  0.002495  0.003824  0.01607  0.7673
6.519e+09  -0.5035  0.8535  -0.005144  -0.02025  -0.01342  -0.005451  0.2648  0.6752
6.52e+09  -0.1804  0.9776  0.005592  0.001263  -0.01185  -0.07895  0.5244  0.5898
6.521e+09  0.1093  0.9544  0.0159  -0.0002518  0.03331  -0.02065  0.632  0.352
6.522e+09  0.4787  0.8307  -0.02239  0.05089  0.003853  0.016  0.7139  0.117
6.524e+09  0.6634  0.61  0.02368  -0.01198  -0.005104  -0.0238  0.6999  -0.1813
6.525e+09  0.9133  0.351  -0.02931  -0.0197  0.01874  0.003501  0.6341  -0.4008
6.526e+09  0.9772  0.02032  0.02524  0.03484  0.01884  0.02259  0.4234  -0.6023
6.528e+09  0.8715  -0.3486  -0.006232  -0.008748  -0.02393  -0.01847  0.2012  -0.6583
6.529e+09  0.7121  -0.6393  0.05428  -0.006668  -0.01166  0.008348  -0.03385  -0.6964
6.53e+09  0.4119  -0.8373  0.0222  0.01973  -0.002766  -0.01922  -0.3061  -0.632
6.531e+09  0.1563  -0.9892  0.04073  0.001676  0.009681  -0.06992  -0.4979  -0.4636
6.532e+09  -0.1558  -0.9042  -0.00234  0.001556  0.004212  0.006665  -0.5977  -0.2807
6.534e+09  -0.5392  -0.8242  0.02862  -0.03469  0.03404  0.004172  -0.6393  -0.06769
6.535e+09  -0.7653  -0.627  -0.02868  0.007826  0.005517  -0.02899  -0.6041  0.1336
6.536e+09  -0.8876  -0.3238  -0.007874  0.02159  0.01581  0.0348  -0.5576  0.2934
6.538e+09  -0.992  0.03152  -0.006574  -0.01885  -9.41e-05  -0.002189  -0.4364  0.4639
6.539e+09  -0.8962  0.4017  0.03414  0.008329  -0.0167  0.006148  -0.255  0.591
6.54e+09  -0.6843  0.6407  0.006177  -0.04739  0.05406  0.04255  -0.02102  0.6608
6.541e+09  -0.4419  0.8664  0.0001275  0.01225  -0.01684  -0.03661  0.192  0.6884
6.542e+09  -0.09219  0.9698  -0.01382  -0.04476  -0.03257  0.02867  0.4262  0.5648
6.544e+09  0.2281  0.9103  0.01942  -0.0008974  -0.006541  -0.001039  0.5794  0.3857
6.545e+09  0.5829  0.809  0.03374  -0.002479  0.0126  0.03079  0.7109  0.1743
6.546e+09  0.8272  0.5933  -0.02032  0.006791  -0.0113  -0.003115  0.7004  -0.09669
6.548e+09  0.8759  0.2256  0.02837  0.003458  0.000938  0.01621  0.6454  -0.3587
6.549e+09  0.9592  -0.1425  0.01017  0.01647  -0.0158  -0.03156  0.4696  -0.5227
6.55e+09  0.866  -0.4196  -0.001853  0.02814  0.01311  0.0145  0.2947  -0.6708
