# Hz S RI R 50
6.25e+09  -0.3722  0.7782  -0.04063  -0.0434  -0.01584  0.04879  0.1871  0.4688
6.251e+09  -0.08553  0.8399  0.0334  -0.01156  -0.07036  0.04344  0.3901  0.3892
6.252e+09  0.1757  0.8125  -0.01153  0.0283  -0.06112  0.004683  0.5367  0.2816
6.254e+09  0.4571  0.7581  -0.02227  -0.004746  -0.02287  -0.01271  0.6043  0.003602
6.255e+09  0.6955  0.5181  0.02433  0.0129  -0.0137  0.02265  0.5844  -0.2124
6.256e+09  0.8198  0.2599  0.02024  0.009016  0.03363  0.02203  0.4652  -0.4428
6.258e+09  0.8585  -0.02613  0.02067  0.02457  0.03569  0.008011  0.2346  -0.6223
6.259e+09  0.773  -0.3394  -0.01375  -0.003974  0.03627  0.02586  0.01556  -0.7093
6.26e+09  0.6757  -0.6067  -0.009971  0.03094  -0.0154  -0.01366  -0.2344  -0.6332
6.261e+09  0.4171  -0.7417  0.02487  0.01216  -0.009263  0.03628  -0.4369  -0.536
6.262e+09  0.04592  -0.8178  0.007881  -0.0171  -0.01078  0.0008424  -0.5834  -0.3622
6.264e+09  -0.1784  -0.7848  0.02905  0.02308  0.03876  -0.03966  -0.7002  -0.09479
6.265e+09  -0.4652  -0.6921  -0.01971  -0.005657  0.09387  -0.02237  -0.7093  0.1729
6.266e+09  -0.6509  -0.4821  -0.005983  0.009293  0.008542  0.02168  -0.6346  0.3699
6.268e+09  -0.8563  -0.1911  -0.00439  -0.0555  -0.00337  -0.00401  -0.4279  0.6164
6.269e+09  -0.8051  0.05129  0.001365  -0.01622  0.02981  0.01936  -0.187  0.7065
6.27e+09  -0.7942  0.3279  0.007038  0.0214  -0.0007212  -0.01549  0.04507  0.7576
6.271e+09  -0.5994  0.5697  0.008899  -0.01427  0.01691  -0.04356  0.2971  0.6682
6.272e+09  -0.4007  0.7551  -0.01972  0.0164  0.03676  0.03727  0.5533  0.5462
6.274e+09  -0.09113  0.8633  -0.04779  -0.007813  -0.04569  0.02388  0.6877  0.3316
6.275e+09  0.1989  0.8424  0.01225  -0.01196  0.01623  -0.01243  0.7375  0.02281
6.276e+09  0.5169  0.7096  0.01017  0.02601  -0.003696  -0.03287  0.7517  -0.2107
6.278e+09  0.6537  0.4733  0.01014  0.0146  0.03742  -0.002852  0.6165  -0.4322
6.279e+09  0.7492  0.2362  -0.006858  -0.04706  0.0317  0.003507  0.4013  -0.6342
6.28e+09  0.791  -0.004062  -0.01188  -0.01228  -0.03061  0.01531  0.1538  -0.7614
6.281e+09  0.8131  -0.3982  0.01987  -0.009175  0.03911  0.03353  -0.1173  -0.7797
6.282e+09  0.6376  -0.6339  -0.01579  0.002396  0.03314  0.004811  -0.3393  -0.6838
6.284e+09  0.3807  -0.7356  -0.005232  -0.01861  -0.01884  0.0006029  -0.5735  -0.5234
6.285e+09  0.05128  -0.8428  0.02534  0.01241  0.0296  0.04542  -0.7232  -0.2814
6.286e+09  -0.2052  -0.7758  0.01061  0.02119  -0.0452  0.01994  -0.8124  -0.01419
6.288e+09  -0.4912  -0.6909  0.01233  0.01607  0.001233  -0.01148  -0.7861  0.2574
6.289e+09  -0.6566  -0.462  0.002205  0.01108  0.0377  0.001363  -0.6445  0.4821
6.29e+09  -0.7839  -0.1895  0.001406  -0.009536  0.04046  0.004958  -0.4094  0.6743
6.291e+09  -0.8107  0.1111  -0.01044  0.00944  0.02321  0.03605  -0.1712  0.7813
6.292e+09  -0.7978  0.3856  0.02645  -0.01988  0.001482  0.003856  0.1138  0.79
6.294e+09  -0.6112  0.5983  0.0008278  0.01976  0.03656  -0.0362  0.4104  0.7169
6.295e+09  -0.3554  0.7514  -0.000491  -0.03038  -0.01917  0.01668  0.6149  0.5414
6.296e+09  -0.09616  0.8476  -0.001404  -0.03325  -0.03021  -0.009459  0.7776  0.2992
6.298e+09  0.1843  0.7738  -0.0002668  0.01333  -0.03464  0.02829  0.8187  0.02466
6.299e+09  0.4843  0.6384  -0.01389  0.006458  0.00807  -0.03057  0.8067  -0.2731
6.3e+09  0.7145  0.4934  -0.01788  0.03339  -0.02454  -0.01923  0.6346  -0.546
6.301e+09  0.7815  0.1763  -0.02909  0.004478  0.05463  -0.04379  0.3918  -0.7027
6.302e+09  0.8132  -0.1386  0.0002351  -0.0003332  0.02711  0.05101  0.1629  -0.7991
6.304e+09  0.7443  -0.4413  -0.009931  0.03382  -0.01315  -0.0008245  -0.1454  -0.835
6.305e+09  0.5875  -0.6168  -0.007917  -0.01811  -0.02167  -0.01274  -0.4091  -0.7333
6.306e+09  0.31  -0.7634  -0.006422  -0.009125  0.00465  -0.04868  -0.6254  -0.5506
6.308e+09  0.007307  -0.7748  -0.01595  -0.002218  0.02085  0.06335  -0.7753  -0.2829
6.309e+09  -0.276  -0.7801  -0.00751  0.007114  -0.003149  0.005855  -0.8533  0.01929
6.31e+09  -0.5133  -0.6632  0.02513  -0.0154  0.02497  0.01621  -0.832  0.2862
6.311e+09  -0.743  -0.4248  -0.001038  -0.007197  -0.02175  0.05553  -0.7292  0.5474
6.312e+09  -0.8369  -0.1313  0.01296  0.002532  0.04398  -0.03916  -0.4119  0.7412
6.314e+09  -0.8155  0.1702  0.01562  -0.00956  0.002253  -0.06332  -0.1798  0.85
6.315e+09  -0.6681  0.4323  0.03681  0.004067  -0.001268  -0.04301  0.1375  0.8879
6.316e+09  -0.5302  0.6147  -0.008696  -0.008664  -0.0418  -0.004639  0.43  0.785
6.318e+09  -0.2525  0.8197  0.007273  -0.02883  -0.01275  0.06363  0.6887  0.5844
6.319e+09  -0.0001387  0.8635  0.02116  0.01567  -0.003191  0.01126  0.8152  0.3158
6.32e+09  0.3084  0.8187  0.02587  0.02708  -0.02269  -0.02273  0.8967  -0.009866
6.321e+09  0.6398  0.6376  -0.001238  0.01356  0.05136  0.007959  0.8081  -0.2804
6.322e+09  0.777  0.4294  0.01386  0.03743  -0.0435  0.009356  0.6882  -0.562
6.324e+09  0.8398  0.1176  0.01426  0.002249  0.04616  0.01337  0.4844  -0.7785
6.325e+09  0.8589  -0.1997  0.0003606  0.02761  -0.00709  -0.002276  0.1571  -0.8642
6.326e+09  0.7362  -0.4831  0.01413  -0.004552  0.02426  0.002539  -0.1216  -0.8751
6.328e+09  0.4963  -0.6806  0.009032  0.001559  0.01676  0.02288  -0.4253  -0.7961
6.329e+09  0.2157  -0.8403  -0.02139  -0.01042  0.02646  0.009731  -0.6683  -0.5811
6.33e+09  -0.04515  -0.8325  -0.006848  -0.02651  -0.007969  -0.02396  -0.8374  -0.349
6.331e+09  -0.4043  -0.8252  -0.02311  0.01009  -0.0581  -0.009202  -0.9273  -0.03921
6.332e+09  -0.5822  -0.6262  -0.007604  0.001956  0.0001405  0.0188  -0.8639  0.3
6.334e+09  -0.8185  -0.373  -0.02061  -0.01955  -0.01005  -0.02384  -0.6834  0.554
6.335e+09  -0.8846  -0.07026  -0.01699  0.007165  -0.008449  0.06698  -0.4899  0.8113
6.336e+09  -0.8625  0.2297  -0.02006  -0.02024  -0.02345  0.009815  -0.1597  0.9001
6.338e+09  -0.7061  0.455  0.004616  -0.02077  0.001659  0.0289  0.1008  0.9083
6.339e+09  -0.5067  0.7001  0.01132  0.0304  -0.014  0.02716  0.418  0.8545
6.34e+09  -0.1728  0.8654  -0.007428  0.03531  -0.01874  0.01085  0.6554  0.5918
6.341e+09  0.1179  0.8711  -0.04378  -0.02061  -0.004741  0.03668  0.8406  0.3396
6.342e+09  0.4221  0.7928  -0.02568  0.01887  0.02391  -0.01618  0.9239  0.03011
6.344e+09  0.6734  0.5529  0.01433  -0.003539  -0.008327  -0.04192  0.8885  -0.273
6.345e+09  0.8389  0.3232  -0.02279  -0.03719  0.01907  -0.006947  0.7727  -0.566
6.346e+09  0.8903  -0.02206  0.001922  -0.003927  -0.01601  0.007425  0.5284  -0.7516
6.348e+09  0.7675  -0.3107  -0.009375  0.004264  0.01289  0.003519  0.225  -0.9234
6.349e+09  0.6495  -0.5834  0.003724  0.01201  0.01145  -0.00444  -0.08955  -0.8932
6.35e+09  0.3966  -0.7525  0.01873  0.01819  0.008582  0.06212  -0.4098  -0.8371
6.351e+09  0.1162  -0.8789  0.03378  0.005231  -0.01975  0.05102  -0.705  -0.601
6.352e+09  -0.1932  -0.8758  -0.009797  0.01955  -0.00687  0.009863  -0.8526  -0.3499
6.354e+09  -0.4803  -0.784  0.05809  0.01473  -0.007359  0.02048  -0.941  -0.0443
6.355e+09  -0.662  -0.5612  -0.02347  -0.007192  -0.02468  0.04751  -0.8968  0.2948
6.356e+09  -0.8285  -0.2346  0.003747  0.04902  0.02492  -0.04227  -0.7418  0.5966
6.358e+09  -0.8915  0.05726  -0.01638  -0.005393  0.02977  -0.01978  -0.5239  0.7567
6.359e+09  -0.782  0.3585  -0.0001869  0.01354  0.00872  0.04504  -0.2367  0.9162
6.36e+09  -0.6342  0.6696  0.0005799  0.004443  -0.01995  0.06156  0.1103  0.9205
6.361e+09  -0.3785  0.7673  -0.01123  -0.01917  -0.04005  0.0222  0.4226  0.8579
6.362e+09  -0.07038  0.9043  -0.004451  -0.01289  -0.005765  0.06973  0.6571  0.6391
6.364e+09  0.2579  0.8983  0.03702  0.001179  0.04533  0.01341  0.8639  0.4346
6.365e+09  0.5196  0.7152  0.03343  0.001625  -0.006921  -0.007498  0.9635  0.1033
6.366e+09  0.7239  0.4963  -0.02419  0.00626  -0.001417  0.007596  0.9058  -0.2822
6.368e+09  0.8887  0.2465  -0.0003576  -0.01079  -0.01525  -0.03857  0.7705  -0.5239
6.369e+09  0.8741  -0.09626  0.02209  0.01548  0.01067  -0.0223  0.559  -0.8004
6.37e+09  0.7766  -0.3853  -0.02237  -0.0168  -0.05442  0.008533  0.2469  -0.8722
6.371e+09  0.5746  -0.6412  0.00682  -0.02152  0.03196  0.0267  -0.1112  -0.941
6.372e+09  0.2899  -0.8455  0.006839  0.01564  0.007191  -0.01491  -0.3819  -0.8309
6.374e+09  0.0132  -0.8816  -0.02819  -0.03586  -0.01039  0.04871  -0.6827  -0.6215
6.375e+09  -0.3204  -0.8372  0.0001317  -0.05674  0.054  0.02094  -0.8487  -0.4152
6.376e+09  -0.5242  -0.6525  -0.008501  0.01824  -0.01132  -0.0006423  -0.9406  -0.05632
6.378e+09  -0.7715  -0.4686  -0.01483  0.008922  0.01151  -0.03069  -0.9416  0.2222
6.379e+09  -0.8765  -0.1489  0.006017  0.009848  -0.01129  -0.008712  -0.7246  0.4966
6.38e+09  -0.8563  0.131  -0.02374  -0.01834  -0.0239  -0.03195  -0.565  0.7286
6.381e+09  -0.7455  0.4305  -0.01294  -0.0001107  -0.02842  0.04256  -0.2102  0.9185
6.382e+09  -0.5901  0.6965  0.0363  0.05003  0.008649  0.04838  0.04943  0.9218
6.384e+09  -0.2771  0.8845  0.01233  -0.0178  -0.0006316  0.004534  0.3869  0.8642
6.385e+09  0.01514  0.8947  -0.03646  -0.007796  -0.03325  -0.03457  0.6202  0.6321
6.386e+09  0.3472  0.8468  0.01132  0.002669  -0.01322  0.01489  0.8598  0.4328
6.388e+09  0.5556  0.6613  -0.005988  -0.01454  -0.003387  0.002334  0.9291  0.115
6.389e+09  0.8271  0.482  0.01196  0.02675  -0.02106  -0.01145  0.8862  -0.2483
6.39e+09  0.8924  0.1267  0.03262  -0.01011  -0.0007623  -0.006798  0.7909  -0.5293
6.391e+09  0.8533  -0.1949  -0.009688  0.02111  -0.009384  -0.005839  0.5797  -0.7104
6.392e+09  0.768  -0.4599  -0.0571  -0.001603  0.04388  -0.02538  0.317  -0.8993
6.394e+09  0.5482  -0.7133  0.00297  -0.01891  -0.0004144  0.02915  -0.02951  -0.8829
6.395e+09  0.2699  -0.8677  -0.04718  -0.0007863  0.001709  -0.02043  -0.3772  -0.8795
6.396e+09  -0.01693  -0.887  0.02058  -0.008699  -0.03323  0.01168  -0.5913  -0.6713
6.398e+09  -0.3338  -0.828  0.01289  0.006719  0.01176  -0.01177  -0.797  -0.4358
6.399e+09  -0.6471  -0.6578  0.02793  0.01285  0.02822  -0.0306  -0.8999  -0.1215
6.4e+09  -0.8553  -0.4443  0.001001  0.001285  0.01882  -0.0397  -0.8794  0.1484
6.401e+09  -0.8307  -0.117  -0.001314  0.004821  -0.01372  0.01703  -0.8097  0.5089
6.402e+09  -0.8613  0.2101  -0.01063  0.02886  -0.03535  0.00218  -0.5818  0.7041
6.404e+09  -0.6948  0.5246  0.01556  0.05095  0.02747  0.01161  -0.3301  0.9054
6.405e+09  -0.5373  0.725  0.02814  -0.01542  0.01091  0.04571  0.03629  0.9475
6.406e+09  -0.2768  0.8236  0.01237  -0.009544  0.03749  -0.002229  0.3047  0.8693
6.408e+09  0.07316  0.8863  -0.03002  0.01817  -0.03354  -0.01354  0.5854  0.7333
6.409e+09  0.3677  0.8562  0.02148  -0.01259  -0.002049  -0.006923  0.7697  0.4419
6.41e+09  0.6225  0.6243  0.003621  0.03654  -0.01717  0.008719  0.9566  0.1909
6.411e+09  0.798  0.3563  0.00745  0.007945  0.02218  -0.01392  0.8859  -0.1885
6.412e+09  0.8458  0.05527  0.02143  -0.0209  0.02673  -0.03735  0.8259  -0.3871
6.414e+09  0.8621  -0.176  -0.02093  -0.0335  -0.006221  -0.02394  0.604  -0.6656
6.415e+09  0.7469  -0.5238  -0.02627  0.02524  0.002735  0.04539  0.3326  -0.856
6.416e+09  0.4977  -0.728  0.02878  0.00987  -0.01858  0.04223  0.02283  -0.8827
6.418e+09  0.1947  -0.8554  -0.0132  0.006753  0.04961  0.00247  -0.2556  -0.8672
6.419e+09  -0.08715  -0.9176  0.005628  0.01709  0.011  -0.03557  -0.5448  -0.6938
6.42e+09  -0.3827  -0.7997  -0.04347  -0.006682  -0.01039  0.01195  -0.7184  -0.5116
6.421e+09  -0.6892  -0.5863  0.05894  0.005928  0.02109  -0.00297  -0.8335  -0.1906
6.422e+09  -0.8053  -0.3768  -0.002932  0.004939  -0.002194  -0.0135  -0.826  0.1047
6.424e+09  -0.8838  -0.05376  0.005616  -0.02715  -0.01091  0.04915  -0.8274  0.3856
6.425e+09  -0.8616  0.2741  -0.03357  0.007219  -0.01666  0.04033  -0.6061  0.6202
6.426e+09  -0.6805  0.5309  0.02664  -0.01468  0.06266  -0.005358  -0.2957  0.8279
6.428e+09  -0.4672  0.7327  0.01055  0.035  -0.02404  -0.03108  -0.02594  0.8798
6.429e+09  -0.2146  0.8613  0.05134  0.02714  0.01066  0.001311  0.2393  0.8493
6.43e+09  0.05791  0.91  0.04968  0.003806  -0.01014  0.002905  0.5587  0.7055
6.431e+09  0.3938  0.738  0.02607  0.02472  -0.01769  -0.005111  0.6955  0.5152
6.432e+09  0.617  0.585  -0.04185  0.02629  0.04129  0.0129  0.8145  0.1485
6.434e+09  0.8419  0.3924  -0.007545  -0.07964  -0.04943  -0.006511  0.8341  -0.1065
6.435e+09  0.8742  0.03354  -0.005135  0.002641  -0.03497  0.01687  0.8077  -0.3518
6.436e+09  0.8419  -0.2674  -0.004652  -0.03923  0.01396  0.02995  0.6058  -0.5988
6.438e+09  0.7518  -0.5197  -0.006626  0.01275  -0.01057  0.03188  0.3633  -0.7326
6.439e+09  0.4719  -0.7718  -0.02563  -0.009238  0.01996  -0.004753  0.0757  -0.8864
6.44e+09  0.1395  -0.8447  -0.01256  -0.04846  0.03951  0.02552  -0.2471  -0.8095
6.441e+09  -0.1121  -0.8975  0.01057  0.02483  -0.02905  0.02564  -0.5097  -0.6316
6.442e+09  -0.4144  -0.7848  0.02046  -0.02321  -0.001303  -0.03309  -0.6839  -0.4569
6.444e+09  -0.6248  -0.632  0.02134  -0.05254  -0.02765  0.01857  -0.8334  -0.186
6.445e+09  -0.7908  -0.3313  0.02246  0.03174  0.01952  -0.01667  -0.8154  0.07054
6.446e+09  -0.9264  -0.0456  -0.016  0.006759  0.02021  0.004037  -0.7446  0.3648
6.448e+09  -0.867  0.2767  -0.02507  -0.02563  -0.01908  -0.04907  -0.5762  0.5805
6.449e+09  -0.7082  0.536  0.02184  -0.04733  0.01619  -0.03977  -0.3358  0.744
6.45e+09  -0.4893  0.7825  -0.01901  -0.01177  -0.02887  -0.01411  -0.0423  0.8616
6.451e+09  -0.1458  0.8606  0.02367  0.009115  0.004873  0.01573  0.1979  0.8293
6.452e+09  0.101  0.866  0.02405  -0.03132  -0.008822  -0.0236  0.4855  0.7067
6.454e+09  0.4145  0.8336  -0.04086  0.01343  -0.03177  0.007456  0.6929  0.4405
6.455e+09  0.6116  0.621  -0.03398  0.03332  -0.06493  0.007287  0.8356  0.235
6.456e+09  0.7765  0.31  -0.05544  -0.004774  0.005227  -0.02824  0.7887  -0.0534
6.458e+09  0.8734  0.06931  0.0197  -0.01598  0.005415  0.01817  0.7998  -0.3201
6.459e+09  0.8445  -0.3302  0.003401  -0.01453  0.02979  -0.03562  0.6074  -0.5487
6.46e+09  0.6873  -0.5763  -0.006661  0.01126  0.02691  0.05498  0.3275  -0.768
6.461e+09  0.4569  -0.7725  -0.006524  -0.007849  -0.004006  0.005654  0.06804  -0.8377
6.462e+09  0.1836  -0.88  0.01584  0.0279  0.02786  0.01992  -0.236  -0.8038
6.464e+09  -0.1672  -0.8919  -0.03623  -0.01815  -0.05072  -0.05835  -0.4454  -0.6353
6.465e+09  -0.4265  -0.8453  -0.01701  -0.009374  -0.02682  0.0166  -0.6822  -0.4616
6.466e+09  -0.669  -0.5925  0.03105  -0.01339  -0.02515  0.007423  -0.7728  -0.2298
6.468e+09  -0.8316  -0.3127  0.006629  -0.05256  -0.00292  -0.02257  -0.7885  0.08932
6.469e+09  -0.901  -0.03542  -0.009014  0.01871  0.02825  0.04253  -0.7249  0.3508
6.47e+09  -0.8953  0.27  -0.04509  0.0228  0.01807  0.04205  -0.5497  0.5631
6.471e+09  -0.7094  0.5892  0.00821  -0.00615  0.005754  0.006309  -0.3888  0.7185
6.472e+09  -0.4278  0.7383  -0.01788  -0.02114  0.006446  -0.02323  -0.06872  0.7826
6.474e+09  -0.2313  0.8832  -0.0129  -0.00117  0.003297  0.008988  0.1744  0.7729
6.475e+09  0.1614  0.8849  0.005058  0.02019  0.05145  -0.004755  0.4443  0.6217
6.476e+09  0.4254  0.8015  -0.002444  -0.01207  -0.01003  -0.03124  0.6351  0.4867
6.478e+09  0.7104  0.6184  0.02175  0.003649  -0.0207  0.05301  0.7362  0.1946
6.479e+09  0.8535  0.3236  0.006629  0.0252  0.04722  0.04727  0.787  -0.08653
6.48e+09  0.9445  -0.0116  0.006626  0.01573  0.01769  -0.01014  0.6971  -0.3224
6.481e+09  0.8691  -0.2645  -0.01879  -0.03503  -0.02803  0.0384  0.5424  -0.5475
6.482e+09  0.7123  -0.5888  -0.0245  -0.03487  -0.004707  0.01016  0.3418  -0.7264
6.484e+09  0.4992  -0.8328  0.05904  0.0524  -0.009348  0.04754  0.03967  -0.8113
6.485e+09  0.1811  -0.8708  -0.02963  -0.009608  0.0005008  0.004702  -0.1747  -0.7489
6.486e+09  -0.1581  -0.9092  -0.002114  0.004849  0.0264  -0.01848  -0.459  -0.6323
6.488e+09  -0.4796  -0.8009  -0.01583  -0.03971  0.01358  0.02212  -0.6294  -0.4226
6.489e+09  -0.6884  -0.6  0.007288  0.003369  0.004225  0.02097  -0.7466  -0.2117
6.49e+09  -0.8587  -0.3082  -0.009396  0.000651  -0.02896  -0.03034  -0.7865  0.06911
6.491e+09  -1.006  0.0227  -0.006203  0.03619  -0.0593  -0.03455  -0.6258  0.3637
6.492e+09  -0.8519  0.3662  0.005325  -0.03319  -0.01164  -0.01175  -0.5062  0.5807
6.494e+09  -0.726  0.5937  0.000869  -0.002245  0.03812  -0.01547  -0.2824  0.6953
6.495e+09  -0.4293  0.8333  -0.01496  0.03025  -0.02838  0.01784  -0.08822  0.7874
6.496e+09  -0.1201  0.8853  -0.03764  -0.02255  0.02326  -0.03324  0.2696  0.7328
6.498e+09  0.197  0.9249  0.01809  0.01025  -0.01002  0.05211  0.4617  0.6214
6.499e+09  0.511  0.7874  -0.03156  0.04486  -0.05411  -0.005302  0.6364  0.3949
6.5e+09  0.7827  0.5712  -0.001299  0.0463  -0.04815  -0.0193  0.7403  0.142
6.501e+09  0.8713  0.2466  -0.01928  0.03326  -0.03538  -0.004234  0.7617  -0.1073
6.502e+09  0.9214  -0.03302  0.0273  -0.03239  0.01402  -0.02881  0.6545  -0.2997
6.504e+09  0.802  -0.3454  -0.007361  -0.01549  -3.783e-05  -0.01673  0.5248  -0.5568
6.505e+09  0.6782  -0.6161  -0.004244  -0.02957  0.03084  0.01359  0.3197  -0.7386
6.506e+09  0.3562  -0.8145  0.02102  -0.03801  0.009882  0.01898  -0.002562  -0.7752
6.508e+09  0.1389  -0.9303  0.006569  -0.005804  -0.02316  -0.01586  -0.2469  -0.7357
6.509e+09  -0.2008  -0.923  0.01315  0.02051  0.03924  -0.003026  -0.4889  -0.5938
6.51e+09  -0.5625  -0.7618  0.01337  -0.01551  0.01446  0.003121  -0.6419  -0.4003
6.511e+09  -0.7755  -0.5275  0.005292  -0.03254  -0.01396  0.006527  -0.7211  -0.1412
6.512e+09  -0.9183  -0.2743  -0.008079  -0.00697  0.002116  -0.01143  -0.7379  0.1183
6.514e+09  -0.9605  0.05075  0.006113  0.01734  -0.004219  0.02753  -0.6182  0.3996
6.515e+09  -0.8787  0.4509  -0.002218  -0.02824  0.01298  -0.03727  -0.4846  0.5707
6.516e+09  -0.684  0.6737  0.01828  -0.007915  0.01956  -0.03235  -0.2529  0.6983
6.518e+09  -0.4251  0.9018  0.01662  0.01225  0.005457  0.02366  -0.04898  0.7592
6.519e+09  -0.08858  1  0.004556  0.02875  0.002365  -0.04707  0.3202  0.6736
6.52e+09  0.2938  0.9542  0.008612  0.0243  -0.0396  -0.001365  0.4827  0.55
6.521e+09  0.5572  0.7848  -0.03115  -0.02164  0.01281  0.03162  0.665  0.3539
6.522e+09  0.812  0.5369  0.006178  -0.005284  0.006385  0.05493  0.7177  0.1266
6.524e+09  0.9221  0.2225  0.02085  -0.02375  0.02166  -0.02604  0.7024  -0.1653
6.525e+09  1.009  -0.1292  -0.0245  0.046  0.003684  -0.008734  0.5844  -0.4045
6.526e+09  0.8965  -0.4678  0.03228  0.01848  -0.006553  -0.03078  0.4376  -0.6249
6.528e+09  0.6699  -0.7712  0.02739  0.002158  0.007395  0.02937  0.2185  -0.6963
6.529e+09  0.3242  -0.9104  -0.03318  0.032  0.02826  0.03959  -0.03037  -0.703
6.53e+09  0.03181  -1.023  0.01294  -0.03174  0.04543  0.05728  -0.3041  -0.6518
6.531e+09  -0.3443  -0.8863  -0.01398  0.02601  -0.02041  0.03046  -0.4553  -0.4725
6.532e+09  -0.6434  -0.7786  0.009389  0.002902  0.01583  0.02183  -0.6175  -0.2937
6.534e+09  -0.8003  -0.4885  0.02897  0.003115  0.05409  -0.0459  -0.6494  -0.05477
6.535e+09  -0.9454  -0.1279  -0.03146  -0.0297  0.02695  0.01297  -0.6239  0.1293
6.536e+09  -0.9216  0.2159  0.0003459  0.01241  -0.004078  0.004082  -0.5487  0.2913
6.538e+09  -0.8609  0.4995  -0.01855  -0.01969  0.03677  -0.02887  -0.4052  0.4737
6.539e+09  -0.5872  0.8278  -0.008812  -0.004829  0.06229  0.005894  -0.3072  0.5856
6.54e+09  -0.3729  0.9259  0.02484  -0.01488  -0.000501  -0.005639  -0.05646  0.6583
6.541e+09  0.075  0.9848  -0.02118  0.02057  0.009939  0.03108  0.1913  0.6875
6.542e+09  0.4118  0.9296  0.01383  0.01316  -0.03284  0.08804  0.3911  0.5736
6.544e+09  0.6722  0.7626  -0.01359  0.01089  -0.004594  -0.02165  0.5645  0.4043
6.545e+09  0.9088  0.4593  0.007643  -0.01356  0.0534  -0.037  0.693  0.1539
6.546e+09  0.9816  0.08333  -0.01552  -0.007312  -0.02621  -0.02609  0.7204  -0.09184
6.548e+09  0.9371  -0.2211  0.009511  0.001066  0.001876  -0.02583  0.7017  -0.3357
6.549e+09  0.7577  -0.5634  -0.005491  0.01412  0.04622  0.01649  0.4926  -0.5293
6.55e+09  0.5259  -0.8102  -0.009214  0.01536  -0.03507  0.006489  0.2778  -0.6951
6.551e+09  0.1974  -0.9217  0.002462  -0.007606  -0.02161  0.006827  0.04913  -0.7118
