# Hz S RI R 50
6.25e+09  -0.335  0.7666  -0.01783  -0.01252  -0.03225  -0.02209  0.1609  0.453
6.251e+09  -0.07783  0.8085  -0.0007035  0.002053  0.02959  0.01555  0.3819  0.4062
6.252e+09  0.1985  0.8447  0.01037  -0.007433  -0.02215  0.06383  0.4869  0.2658
6.254e+09  0.455  0.7673  0.004971  0.01041  0.003217  -0.0211  0.6242  0.018
6.255e+09  0.6696  0.5195  -0.007389  -0.02572  0.0006533  0.02043  0.6058  -0.2285
6.256e+09  0.8118  0.2654  0.03721  0.02939  0.008151  -0.03474  0.4826  -0.4275
6.258e+09  0.8983  -0.04291  -0.02838  0.02398  0.02044  -0.04825  0.2497  -0.5778
6.259e+09  0.7874  -0.3384  0.00527  -0.005862  -0.03588  0.02409  0.03877  -0.6817
6.26e+09  0.6532  -0.6449  -0.0009076  -0.008538  0.05193  0.02923  -0.178  -0.6332
6.261e+09  0.3408  -0.7712  0.01272  0.01732  0.03983  0.01282  -0.445  -0.57
6.262e+09  0.03179  -0.8244  -0.003386  0.00288  0.01293  -0.002546  -0.6285  -0.3314
6.264e+09  -0.2436  -0.8183  0.03368  -0.01425  -0.01714  -0.01184  -0.6906  -0.08789
6.265e+09  -0.4779  -0.7123  0.03587  -0.03376  -0.005042  0.02931  -0.6766  0.175
6.266e+09  -0.6574  -0.5017  0.04395  0.01548  0.02219  -0.017  -0.5801  0.3816
6.268e+09  -0.7896  -0.2044  0.01018  0.009593  0.04712  0.002417  -0.3982  0.6169
6.269e+09  -0.8497  0.03865  -0.001183  0.01085  -0.01242  0.00435  -0.1928  0.7105
6.27e+09  -0.7527  0.3806  -0.01187  -0.01254  0.04924  0.1018  0.07291  0.7518
6.271e+09  -0.6133  0.5572  -0.01066  0.02377  0.02252  0.003582  0.282  0.6597
6.272e+09  -0.3098  0.7854  0.02819  -0.009965  -0.002208  0.01689  0.5345  0.5067
6.274e+09  -0.06028  0.8542  0.00987  -0.002071  -0.004416  -0.005504  0.7009  0.3208
6.275e+09  0.2437  0.778  -0.008386  0.01803  0.009386  -0.01352  0.7709  0.006466
6.276e+09  0.4987  0.7008  -0.01858  -0.01743  0.02911  -0.05384  0.7396  -0.2043
6.278e+09  0.6729  0.5024  0.01632  0.00882  0.00573  -0.02962  0.6099  -0.4743
6.279e+09  0.8262  0.2338  0.02026  -0.0161  0.002837  0.01598  0.4284  -0.6396
6.28e+09  0.815  -0.1082  0.0413  -0.01826  0.001742  0.01207  0.1636  -0.7536
6.281e+09  0.7014  -0.4148  0.04164  -0.003589  0.03014  -0.01383  -0.09464  -0.779
6.282e+09  0.5731  -0.629  0.0005294  0.01137  0.01535  -0.021  -0.3734  -0.6815
6.284e+09  0.3246  -0.7721  -0.006864  0.01682  -0.01126  -0.00602  -0.5867  -0.4919
6.285e+09  -0.005303  -0.8328  -0.04121  0.003534  -0.04471  0.02337  -0.7821  -0.2839
6.286e+09  -0.2913  -0.7635  0.013  0.03314  0.01639  0.003858  -0.8171  -0.002412
6.288e+09  -0.5734  -0.6339  0.006391  -0.008379  0.01643  -0.05984  -0.763  0.2434
6.289e+09  -0.721  -0.4623  -0.03981  -0.02788  -0.06734  -0.01391  -0.6273  0.5114
6.29e+09  -0.8288  -0.1599  -0.02364  0.009633  0.0326  0.01959  -0.4147  0.6635
6.291e+09  -0.763  0.1139  -0.0006339  -0.0004823  0.02735  0.01058  -0.1245  0.7792
6.292e+09  -0.6982  0.439  -0.02604  -0.01162  0.005099  0.0177  0.09116  0.8245
6.294e+09  -0.5569  0.5761  0.004576  -0.0029  0.06144  -0.02799  0.4139  0.7194
6.295e+09  -0.2494  0.7495  -0.000782  -0.04173  -0.04008  -0.06554  0.6384  0.5393
6.296e+09  -0.07424  0.8123  -0.01293  -0.0005929  -0.0254  -0.03942  0.8084  0.2791
6.298e+09  0.2674  0.7838  -0.008877  0.0166  -0.01657  0.007155  0.8492  0.03568
6.299e+09  0.5577  0.6434  -0.02823  -0.005952  -0.005039  0.03981  0.8115  -0.2821
6.3e+09  0.7184  0.4896  0.008948  0.003944  0.04224  0.04253  0.6405  -0.5022
6.301e+09  0.7878  0.1663  -0.01055  0.02575  -0.01233  -0.003008  0.4391  -0.7007
6.302e+09  0.8138  -0.1293  -0.02116  0.02829  -0.04696  -0.01655  0.1408  -0.7756
6.304e+09  0.7576  -0.3847  0.001047  0.01294  0.0246  -0.00914  -0.1704  -0.8119
6.305e+09  0.5125  -0.6354  0.01166  0.007753  -0.005288  -0.0005587  -0.4481  -0.7512
6.306e+09  0.2164  -0.7594  0.004956  -0.00574  0.03179  -0.006013  -0.6708  -0.5433
6.308e+09  0.04755  -0.804  -0.01802  -0.01431  -0.02264  0.02245  -0.7564  -0.3172
6.309e+09  -0.3011  -0.8158  -0.006326  0.01073  -0.03828  0.02075  -0.8492  -0.007553
6.31e+09  -0.5515  -0.6552  0.01667  -0.001058  -0.01102  0.03037  -0.7978  0.2898
6.311e+09  -0.7229  -0.3694  0.01321  -0.04118  0.00415  -0.01111  -0.6388  0.5519
6.312e+09  -0.8089  -0.1064  0.02003  -0.02599  -0.03572  0.01044  -0.4494  0.7514
6.314e+09  -0.8392  0.1968  0.03502  -0.009827  0.01631  -0.01258  -0.1441  0.8789
6.315e+09  -0.7125  0.4437  -0.0088  0.004935  0.01163  -0.01226  0.1313  0.8871
6.316e+09  -0.5034  0.6521  0.03502  0.01068  0.02999  -0.01908  0.4205  0.773
6.318e+09  -0.2133  0.8417  0.006334  0.01093  0.003824  0.04194  0.6621  0.5852
6.319e+09  0.08491  0.8953  -0.001012  -0.01667  -0.04572  0.0237  0.8411  0.271
6.32e+09  0.3617  0.832  0.01898  -0.03817  -0.02032  -0.002313  0.903  0.03247
6.321e+09  0.6156  0.5633  -0.005829  0.0001282  0.005757  0.01434  0.8589  -0.2993
6.322e+09  0.7695  0.3928  -0.03419  -0.006835  -0.03254  -0.03946  0.7046  -0.5417
6.324e+09  0.8055  0.09634  -0.002223  -0.002495  -0.02965  -0.03556  0.4324  -0.7808
6.325e+09  0.8357  -0.2388  -0.02373  0.03797  0.02008  0.03305  0.1682  -0.8819
6.326e+09  0.7166  -0.5263  -0.005508  0.001441  -0.007662  0.02477  -0.1412  -0.8895
6.328e+09  0.4937  -0.6847  -0.02765  0.02378  0.04319  0.02983  -0.4212  -0.7977
6.329e+09  0.2161  -0.8209  -0.004354  0.01562  -0.03331  -0.01729  -0.7076  -0.6141
6.33e+09  -0.09806  -0.8484  0.0006135  -0.01115  -0.02131  0.0288  -0.8503  -0.3347
6.331e+09  -0.3871  -0.7617  -0.00851  0.03228  -0.0235  -0.02609  -0.8845  -0.05487
6.332e+09  -0.6814  -0.5821  -0.01358  0.03222  -0.006978  0.01449  -0.8829  0.2671
6.334e+09  -0.7914  -0.3279  -0.00939  0.006001  -0.003917  -0.01123  -0.7078  0.5285
6.335e+09  -0.8461  -0.02139  -0.003339  0.03805  -0.02481  0.01177  -0.5141  0.7814
6.336e+09  -0.8602  0.2132  -0.002104  0.006184  -0.02982  -0.07154  -0.18  0.8821
6.338e+09  -0.7678  0.561  -0.03337  -0.02431  0.007479  0.0119  0.1311  0.9415
6.339e+09  -0.4433  0.7252  -0.004426  -0.00125  0.03603  0.00293  0.4439  0.8118
6.34e+09  -0.1877  0.8552  -0.04133  -0.01767  -0.02166  0.0005736  0.6897  0.6225
6.341e+09  0.1582  0.8416  0.01022  0.01916  -0.05503  0.03595  0.9235  0.3431
6.342e+09  0.4256  0.6946  -0.01613  -0.02054  -0.06528  0.00351  0.9145  0.04886
6.344e+09  0.7194  0.5688  0.004213  -0.02214  0.04702  -0.003624  0.8896  -0.2882
6.345e+09  0.8037  0.2523  -0.003926  0.02696  -0.022  -0.01691  0.7339  -0.5882
6.346e+09  0.8772  0.007765  -0.00873  0.008362  0.01943  -0.01146  0.5057  -0.7803
6.348e+09  0.7557  -0.3519  0.001004  -0.02187  -0.01515  -0.05851  0.2245  -0.8875
6.349e+09  0.6196  -0.6289  -0.01471  -0.01436  -0.03361  0.02561  -0.1413  -0.9811
6.35e+09  0.4141  -0.8153  0.00793  -0.03991  -0.03496  -0.03159  -0.3731  -0.8343
6.351e+09  0.09874  -0.8812  -0.003892  0.01672  -0.03342  -0.02238  -0.6702  -0.6522
6.352e+09  -0.2039  -0.9118  0.01278  0.03214  0.02727  -0.008403  -0.8288  -0.3877
6.354e+09  -0.4552  -0.7254  -0.002422  0.03725  -0.01269  0.03646  -0.9415  -0.0901
6.355e+09  -0.69  -0.5294  -0.03059  0.01113  0.003671  -0.005559  -0.8866  0.2538
6.356e+09  -0.8376  -0.2196  -0.002683  -0.008203  -0.03779  0.03746  -0.7359  0.5378
6.358e+09  -0.8871  0.08193  0.003408  -0.02757  0.0413  -0.007745  -0.5325  0.7932
6.359e+09  -0.8404  0.3919  -0.0008633  0.01352  0.02152  -0.004563  -0.2062  0.9043
6.36e+09  -0.6455  0.6429  0.002206  -0.01575  0.00552  0.01012  0.08407  0.9529
6.361e+09  -0.3513  0.7924  -0.01922  0.002232  -0.01836  0.03996  0.4166  0.813
6.362e+09  -0.04754  0.8744  0.03313  0.006035  0.02934  0.02873  0.69  0.6484
6.364e+09  0.2709  0.8817  -0.007121  0.01867  0.005579  0.002306  0.896  0.4037
6.365e+09  0.5511  0.7472  -0.01269  -0.001792  0.01431  0.04142  0.9518  0.06185
6.366e+09  0.7676  0.4726  0.0245  -0.04078  -0.01672  -0.03482  0.9537  -0.2753
6.368e+09  0.902  0.1588  0.05094  -0.004044  -0.07117  0.02382  0.7874  -0.5561
6.369e+09  0.8531  -0.1468  0.00097  -0.05685  -0.008742  -0.03198  0.5701  -0.7756
6.37e+09  0.7632  -0.4183  0.01446  -0.00404  -0.02499  0.02198  0.2507  -0.9393
6.371e+09  0.5851  -0.6478  -0.001387  -0.02273  -0.008424  0.005841  -0.1023  -0.9345
6.372e+09  0.3367  -0.7957  0.01995  0.005406  -0.05852  -0.02951  -0.4353  -0.8636
6.374e+09  -0.004866  -0.9077  -0.04648  0.00954  0.01777  -0.04624  -0.6505  -0.691
6.375e+09  -0.3482  -0.8537  -0.04156  0.01917  -0.02711  0.03439  -0.8829  -0.4467
6.376e+09  -0.5974  -0.6682  -0.001494  0.03595  0.05205  0.008348  -0.9191  -0.1166
6.378e+09  -0.7558  -0.4332  -0.01528  -0.01656  -0.005982  0.01413  -0.9353  0.2231
6.379e+09  -0.876  -0.147  0.01205  0.001046  0.009899  0.00269  -0.804  0.4857
6.38e+09  -0.8639  0.2148  -0.04237  -0.01122  -0.001411  0.00687  -0.5589  0.7752
6.381e+09  -0.7739  0.4787  -0.0209  0.009948  0.006722  -0.01801  -0.2819  0.9129
6.382e+09  -0.5301  0.6991  0.01177  0.007183  0.00869  0.02544  0.07886  0.9151
6.384e+09  -0.2687  0.8312  -0.01093  0.01231  -0.008994  0.0219  0.3726  0.8786
6.385e+09  0.0266  0.9307  0.02798  -0.01395  0.00655  -0.02894  0.6523  0.7098
6.386e+09  0.3214  0.8044  0.02839  -0.02613  0.01495  0.02838  0.8162  0.4687
6.388e+09  0.6525  0.6205  0.04957  -0.03233  0.03342  -0.007455  0.9242  0.08812
6.389e+09  0.8157  0.3904  -0.0003655  -0.0132  -0.03074  0.001008  0.9007  -0.188
6.39e+09  0.9048  0.1364  0.01927  0.03273  -0.04594  0.01082  0.8109  -0.4895
6.391e+09  0.889  -0.2576  -0.03769  -0.01778  0.01603  0.014  0.612  -0.7347
6.392e+09  0.7556  -0.4611  0.01162  0.01091  -0.01434  -0.02371  0.3159  -0.8889
6.394e+09  0.4923  -0.7311  0.01413  -0.009812  0.03141  0.008823  0.001823  -0.9121
6.395e+09  0.2313  -0.8484  0.01086  -0.00135  0.04383  -0.03166  -0.3436  -0.8282
6.396e+09  -0.07208  -0.8665  0.0008204  -0.03611  -0.005035  0.06375  -0.6425  -0.6561
6.398e+09  -0.3368  -0.8223  0.008692  -0.02544  -0.009519  -0.03486  -0.842  -0.4618
6.399e+09  -0.609  -0.6143  -0.01212  -0.008662  -0.007119  -0.01891  -0.9101  -0.142
6.4e+09  -0.8294  -0.3886  0.04857  0.05967  0.02114  -0.03728  -0.8834  0.1715
6.401e+09  -0.8363  -0.04373  0.0013  -0.004232  0.03047  -0.01425  -0.7911  0.4802
6.402e+09  -0.8572  0.2892  0.0132  -0.03759  -0.06668  0.01952  -0.5957  0.7151
6.404e+09  -0.7287  0.4673  -0.01364  0.009832  -0.008206  0.008396  -0.3021  0.8664
6.405e+09  -0.5075  0.7043  -0.00975  -0.00336  0.02861  -0.00262  -0.01971  0.9252
6.406e+09  -0.2304  0.856  0.02151  -0.0102  -0.04516  -0.006945  0.3461  0.826
6.408e+09  0.09716  0.9012  -0.01562  -0.0422  0.02917  -0.0121  0.585  0.7421
6.409e+09  0.3565  0.7975  -0.01021  -0.01731  -0.02293  -0.01741  0.7991  0.3948
6.41e+09  0.5861  0.5798  -0.01712  -0.02575  0.05026  0.05239  0.8843  0.1842
6.411e+09  0.8012  0.3725  0.002534  0.01044  0.05458  0.0006478  0.8685  -0.1184
6.412e+09  0.8632  0.007876  -0.03303  0.02691  0.01562  0.04462  0.8316  -0.4055
6.414e+09  0.8331  -0.2292  -0.005371  -0.0133  -0.009997  0.02961  0.542  -0.6365
6.415e+09  0.7552  -0.5841  -0.006844  -0.01068  -0.003326  -0.01093  0.3074  -0.8259
6.416e+09  0.4752  -0.7878  -0.05348  -0.01268  0.002008  -0.01183  0.02844  -0.9267
6.418e+09  0.1903  -0.9124  0.002273  -0.06124  0.006684  0.01586  -0.2938  -0.8529
6.419e+09  -0.07115  -0.8672  -0.0001048  0.02861  -0.02088  -0.007224  -0.573  -0.7108
6.42e+09  -0.4445  -0.8334  -0.004442  -0.01278  0.01848  0.004476  -0.7279  -0.4835
6.421e+09  -0.6265  -0.5763  -0.01888  -0.004138  -0.01712  -0.02513  -0.8747  -0.2254
6.422e+09  -0.8187  -0.3581  0.0006962  0.04435  0.02415  -0.05392  -0.8784  0.09773
6.424e+09  -0.9276  -0.01632  -0.01256  -0.002199  -0.03152  0.0102  -0.8569  0.4294
6.425e+09  -0.8644  0.2633  0.004418  -0.008071  0.0008237  0.01349  -0.602  0.6228
6.426e+09  -0.7151  0.5139  -0.01141  0.01294  0.02975  0.02986  -0.3121  0.8169
6.428e+09  -0.4661  0.7862  -0.02894  0.02781  0.01031  0.03137  -0.06017  0.9062
6.429e+09  -0.2035  0.8574  0.005929  0.009882  0.02076  0.0005012  0.2361  0.8277
6.43e+09  0.1305  0.9136  -0.009856  0.001621  -0.02909  -0.005741  0.5249  0.7155
6.431e+09  0.4328  0.8024  0.007377  0.03964  -0.02512  -0.003642  0.6566  0.4725
6.432e+09  0.6687  0.6176  -0.02519  0.01996  0.03477  -0.005337  0.8383  0.2277
6.434e+09  0.8426  0.3105  0.008262  -0.01851  0.02597  -0.006153  0.9112  -0.1033
6.435e+09  0.8831  0.03796  -0.0004642  0.03693  0.01245  -0.02271  0.8116  -0.3718
6.436e+09  0.8616  -0.2239  0.02118  0.008857  -0.000521  0.06085  0.6487  -0.592
6.438e+09  0.7256  -0.5885  -0.04917  0.02275  0.01866  -3.045e-06  0.3674  -0.8041
6.439e+09  0.5001  -0.7793  -0.001776  -0.009348  -0.0224  0.03356  0.08046  -0.8668
6.44e+09  0.1411  -0.8953  -0.004314  -0.01305  -0.01398  0.006112  -0.2185  -0.816
6.441e+09  -0.1376  -0.8958  -0.01652  -0.05864  -0.01889  -0.006063  -0.4736  -0.7308
6.442e+09  -0.4804  -0.7345  -0.005828  -0.02835  0.04742  0.05505  -0.7322  -0.4767
6.444e+09  -0.6523  -0.5859  0.003658  -0.01603  0.02356  -0.005055  -0.843  -0.2381
6.445e+09  -0.8739  -0.279  0.02626  -0.00441  0.01867  -0.005334  -0.8479  0.07893
6.446e+09  -0.8977  -0.03497  0.0177  0.01054  -0.02082  -0.0216  -0.8054  0.3934
6.448e+09  -0.8686  0.3589  0.002505  -0.01428  0.02008  0.01569  -0.5992  0.5953
6.449e+09  -0.7154  0.6134  0.02884  -0.01918  -0.04252  0.03194  -0.3751  0.7859
6.45e+09  -0.4619  0.7737  -0.02707  0.01254  -0.0514  -0.007271  -0.02395  0.8878
6.451e+09  -0.2077  0.8539  0.02468  -0.02412  0.008422  -0.02131  0.2286  0.7917
6.452e+09  0.1744  0.8512  -0.01554  -0.02598  -0.05355  0.0007975  0.5131  0.6749
6.454e+09  0.3669  0.8127  0.01885  -0.0001474  0.04123  -0.02883  0.7087  0.4601
6.455e+09  0.6436  0.5822  0.01208  -0.06094  0.02856  -0.005072  0.8205  0.2231
6.456e+09  0.8752  0.2795  0.03788  -0.0008375  0.0217  -0.01553  0.8353  -0.1081
6.458e+09  0.8976  -0.02964  0.002921  -0.0252  0.03021  0.0428  0.7454  -0.376
6.459e+09  0.882  -0.2879  0.01192  -0.01343  0.038  0.01221  0.5619  -0.5317
6.46e+09  0.6898  -0.5286  -0.02842  -0.01184  0.04744  0.02484  0.3147  -0.7795
6.461e+09  0.446  -0.76  0.02411  0.02082  0.001825  -0.01817  0.05674  -0.7918
6.462e+09  0.1126  -0.8438  0.0324  0.0287  0.003431  0.01803  -0.2438  -0.7955
6.464e+09  -0.159  -0.88  -0.02542  -0.01968  0.006093  -0.03584  -0.4794  -0.7023
6.465e+09  -0.463  -0.77  0.007173  -0.03495  0.03939  -0.02396  -0.6831  -0.4861
6.466e+09  -0.6735  -0.5384  -0.02829  -0.0122  -0.0328  -0.02228  -0.7831  -0.1745
6.468e+09  -0.8396  -0.3092  0.03005  -0.009893  -0.01179  0.03878  -0.8104  0.08871
6.469e+09  -0.9405  -0.03464  0.002651  0.008455  -0.01906  -0.00501  -0.6812  0.3344
6.47e+09  -0.8543  0.3134  -0.004396  -0.0284  -0.03266  -0.03257  -0.5241  0.6066
6.471e+09  -0.7053  0.5578  0.02707  0.003668  -0.01123  0.008775  -0.3534  0.7784
6.472e+09  -0.4211  0.7488  -0.02523  0.006773  -0.002981  -0.02573  -0.03075  0.7886
6.474e+09  -0.1306  0.8779  0.03179  0.0005984  -0.03991  -0.04404  0.2141  0.7393
6.475e+09  0.1506  0.9334  0.02724  0.01086  -0.03645  -0.002472  0.4377  0.6676
6.476e+09  0.4277  0.7816  0.03325  0.03851  -0.006871  0.0007963  0.6194  0.4726
6.478e+09  0.7128  0.5498  -0.007387  0.003673  0.01111  0.005348  0.764  0.2194
6.479e+09  0.8428  0.2949  -0.01202  -0.02609  -0.04947  0.006527  0.7917  -0.07956
6.48e+09  0.8895  -0.01519  0.003057  -0.03151  0.01645  0.02727  0.6804  -0.3521
6.481e+09  0.8014  -0.3821  -0.01624  -0.0001849  -0.03716  0.02007  0.5426  -0.5949
6.482e+09  0.6878  -0.5978  -0.01594  -0.04612  -0.03753  -0.04602  0.3106  -0.7151
6.484e+09  0.4248  -0.7897  -0.007412  -0.02595  0.008169  0.03545  0.01816  -0.7794
6.485e+09  0.1089  -0.852  -0.006375  0.0246  0.01791  -0.05036  -0.1583  -0.7557
6.486e+09  -0.1427  -0.9209  -0.03032  -0.0002239  0.02392  -0.04289  -0.4528  -0.5895
6.488e+09  -0.4579  -0.7655  0.003141  -0.031  -0.009038  0.01249  -0.6825  -0.4009
6.489e+09  -0.7268  -0.5147  -0.02489  -0.007943  -0.0227  0.01002  -0.7378  -0.1627
6.49e+09  -0.8734  -0.2891  -0.01834  0.03297  0.02707  0.0238  -0.7673  0.09539
6.491e+09  -0.9694  0.05525  -0.01781  0.006832  0.009513  0.0306  -0.6944  0.3563
6.492e+09  -0.8188  0.3332  -0.04636  -0.01745  -0.005663  -0.02845  -0.5051  0.5668
6.494e+09  -0.6981  0.6309  0.03468  0.003035  -0.006849  -0.04215  -0.2751  0.7014
6.495e+09  -0.4356  0.8321  -0.0194  -0.0002881  0.02463  0.04238  -0.02951  0.7569
6.496e+09  -0.1048  0.9248  0.01622  -0.02211  -0.01901  0.09541  0.2596  0.7548
6.498e+09  0.2295  0.9196  -0.0684  -0.009241  0.005907  0.01634  0.502  0.5996
6.499e+09  0.5269  0.7279  0.01248  -0.006171  0.0259  0.001725  0.6624  0.3973
6.5e+09  0.7076  0.5367  -0.02495  -0.01136  0.05781  0.006118  0.7609  0.1632
6.501e+09  0.9157  0.304  -0.02043  0.006102  -0.008748  0.0165  0.7383  -0.1297
6.502e+09  0.9731  -0.09982  -0.02753  0.03428  0.0057  -0.003887  0.6732  -0.3467
6.504e+09  0.8349  -0.3832  -0.01572  0.04083  0.005821  -0.05871  0.5119  -0.5833
6.505e+09  0.6635  -0.7036  -0.01463  -0.04876  0.02947  -0.02623  0.2858  -0.6848
6.506e+09  0.3886  -0.8632  0.02656  -0.01513  -0.02159  -0.01179  0.01609  -0.747
6.508e+09  0.08176  -0.9388  0.02573  0.01056  0.01011  0.01195  -0.2648  -0.6912
6.509e+09  -0.2631  -0.8839  0.01395  0.02712  -0.04432  -0.002524  -0.5145  -0.6111
6.51e+09  -0.5541  -0.7787  -0.03033  -0.00343  -0.03004  -0.04609  -0.6935  -0.3913
6.511e+09  -0.8214  -0.563  -0.007491  -0.003621  -0.008232  0.07973  -0.7357  -0.1141
6.512e+09  -0.9118  -0.2538  -0.00671  -0.009179  0.0142  -0.02258  -0.739  0.1022
6.514e+09  -0.9095  0.1355  0.007741  -0.01681  0.004428  -0.02527  -0.6559  0.3678
6.515e+09  -0.8485  0.4636  0.03538  0.008463  0.02925  -0.01845  -0.4749  0.5952
6.516e+09  -0.7024  0.7218  0.02455  0.02684  0.02105  -0.01788  -0.2507  0.7199
6.518e+09  -0.356  0.8943  0.01135  -0.05438  0.004417  -0.02407  0.01146  0.7382
6.519e+09  -0.06698  0.9804  -0.0002121  0.00467  -0.002559  0.01046  0.2642  0.6888
6.52e+09  0.3146  0.9483  0.003057  -0.0283  0.01106  0.03795  0.513  0.5472
6.521e+09  0.6443  0.7447  0.003911  -0.0006329  -0.02644  0.02051  0.6647  0.3476
6.522e+09  0.8542  0.504  0.009376  -0.01692  0.03737  -0.03655  0.7071  0.1013
6.524e+09  0.9831  0.1895  0.01004  0.01086  0.02433  0.0339  0.6932  -0.1746
6.525e+09  0.993  -0.1834  -0.007884  0.01143  -0.03927  -0.0217  0.6393  -0.3877
6.526e+09  0.8159  -0.5089  0.009794  0.008611  0.02403  0.04195  0.443  -0.5542
6.528e+09  0.5893  -0.802  -0.0005943  -0.02108  -0.01989  0.009229  0.159  -0.691
6.529e+09  0.3165  -0.9468  0.00216  -0.02241  0.01152  -0.01556  -0.04822  -0.6997
6.53e+09  -0.05575  -0.971  -0.03946  -0.008019  -0.00402  0.03496  -0.3135  -0.6342
6.531e+09  -0.3888  -0.9096  -0.01092  -0.02277  0.01048  0.02395  -0.5022  -0.4647
6.532e+09  -0.6956  -0.7712  0.02737  -0.02892  -0.000604  0.03247  -0.5696  -0.2586
6.534e+09  -0.8732  -0.4292  -0.01383  0.02994  0.001436  -0.03689  -0.6506  -0.1162
6.535e+09  -1.002  -0.07731  -0.01879  -0.03999  0.02167  0.01175  -0.6427  0.1094
6.536e+09  -0.9404  0.223  0.003216  0.02374  0.01162  0.03943  -0.5887  0.3015
6.538e+09  -0.788  0.5767  -0.01173  0.01553  -0.0639  0.05409  -0.4647  0.4791
6.539e+09  -0.5814  0.8111  0.001633  -0.0138  0.06353  0.01663  -0.2111  0.5972
6.54e+09  -0.2011  0.9607  -0.0002288  -0.007631  0.01154  -0.03991  -0.03926  0.6945
6.541e+09  0.114  0.9631  0.001251  0.01645  -0.001967  0.01884  0.1862  0.6829
6.542e+09  0.4773  0.8804  0.01143  -0.01301  -0.001939  0.01248  0.4095  0.579
6.544e+09  0.7035  0.663  -0.0303  0.008246  -0.03772  0.0114  0.6086  0.4118
6.545e+09  0.8726  0.3997  -0.00391  -0.01336  0.05262  -0.01766  0.7294  0.1775
6.546e+09  0.9357  -0.01053  0.003554  0.0003591  -0.04274  -0.01054  0.7486  -0.06403
6.548e+09  0.9275  -0.3006  0.01917  -0.0318  -0.03007  -0.01457  0.628  -0.3453
6.549e+09  0.7447  -0.6126  0.001603  0.006414  -0.08095  0.02777  0.4903  -0.5455
6.55e+09  0.4956  -0.8242  -0.02395  0.02647  -0.03972  0.007538  0.3015  -0.6859
