# Hz S RI R 50
6.25e+09  -0.2549  0.8181  0.01802  0.004965  0.01371  0.01959  0.1521  0.4738
6.251e+09  0.0003446  0.8472  -0.004444  0.03058  -0.01891  0.02345  0.3643  0.4005
6.252e+09  0.3063  0.8091  -0.02513  0.006091  -0.02768  -0.01191  0.5498  0.2328
6.254e+09  0.6038  0.6318  -0.007726  0.0126  -0.009834  -0.01853  0.5747  0.0161
6.255e+09  0.7401  0.477  -0.005553  -0.01572  -0.03455  -0.03865  0.617  -0.2417
6.256e+09  0.8631  0.1112  0.00541  0.001604  0.07563  -0.04778  0.4661  -0.4462
6.258e+09  0.8427  -0.1891  -0.00298  0.0142  0.0002464  0.04724  0.296  -0.6086
6.259e+09  0.7286  -0.3819  0.04706  -0.0004979  -0.008066  -0.02784  0.03732  -0.7156
6.26e+09  0.5132  -0.6893  0.02139  0.005768  -0.002112  0.001904  -0.2032  -0.6592
6.261e+09  0.2908  -0.7978  -0.0178  0.01541  0.02015  0.02651  -0.4278  -0.5538
6.262e+09  0.01363  -0.8868  0.04716  0.02376  0.05144  -0.007628  -0.5757  -0.3433
6.264e+09  -0.2997  -0.7711  -0.002034  -0.0179  -0.04511  -0.03392  -0.6786  -0.1092
6.265e+09  -0.5481  -0.6463  0.0086  -0.024  0.04816  -0.02944  -0.7175  0.1536
6.266e+09  -0.7075  -0.404  -0.00951  0.002426  -0.04544  -0.04885  -0.6141  0.4398
6.268e+09  -0.8424  -0.01947  -0.037  -0.005121  0.004129  0.01436  -0.4271  0.6382
6.269e+09  -0.8262  0.1244  0.00907  0.0181  0.02864  0.03182  -0.2159  0.6816
6.27e+09  -0.6965  0.4312  0.0009368  -0.008801  0.03943  0.03091  0.07065  0.7338
6.271e+09  -0.5491  0.6445  -0.0001766  0.01908  -0.01843  0.01016  0.3375  0.6801
6.272e+09  -0.2609  0.8152  -0.01823  0.01265  -0.003298  0.03612  0.5381  0.5007
6.274e+09  0.02543  0.7998  0.003937  0.005086  0.01969  0.01047  0.7068  0.2724
6.275e+09  0.2933  0.7303  0.02286  0.01117  0.07819  -0.02324  0.745  0.06717
6.276e+09  0.5058  0.6166  0.02723  -0.004794  0.02346  0.06482  0.738  -0.2248
6.278e+09  0.7347  0.3835  -0.009019  3.306e-05  0.03756  -0.01679  0.6048  -0.4687
6.279e+09  0.838  0.007917  0.02637  0.01083  -0.03449  -0.01679  0.4005  -0.6572
6.28e+09  0.7813  -0.1956  -0.02706  0.0164  -0.01258  0.002071  0.1386  -0.7844
6.281e+09  0.7399  -0.4157  -0.01533  0.007845  -0.02661  -0.05064  -0.121  -0.7969
6.282e+09  0.4857  -0.676  0.001325  -0.01626  -0.01088  -0.00954  -0.349  -0.6771
6.284e+09  0.2714  -0.7991  -0.007915  0.007711  0.01228  0.04632  -0.6006  -0.5348
6.285e+09  -0.1177  -0.8454  -0.004696  0.003617  -0.01736  0.05497  -0.7496  -0.2958
6.286e+09  -0.3416  -0.7358  -0.01883  -0.003606  0.04246  0.001292  -0.8002  -0.02219
6.288e+09  -0.5746  -0.5396  -0.016  0.002182  0.03502  -0.0391  -0.73  0.2671
6.289e+09  -0.7247  -0.332  -0.01329  -0.003444  0.01426  0.01568  -0.5902  0.5199
6.29e+09  -0.7753  -0.09487  0.02959  0.009498  -0.008182  0.02019  -0.3889  0.6891
6.291e+09  -0.8273  0.2099  -0.01693  0.006601  -0.05907  0.0145  -0.2128  0.816
6.292e+09  -0.684  0.4159  -0.009794  0.04292  0.02107  0.01572  0.1256  0.8101
6.294e+09  -0.49  0.6896  0.009761  0.005508  0.01004  0.06204  0.3955  0.7201
6.295e+09  -0.2567  0.8502  -0.006572  0.02572  -0.03717  -0.04868  0.6262  0.5219
6.296e+09  0.09225  0.8086  0.01472  0.03979  0.004641  -0.01892  0.8023  0.3197
6.298e+09  0.2976  0.6819  -0.008265  -0.01491  -0.02255  -0.02106  0.8233  -0.002809
6.299e+09  0.5739  0.5622  -0.01034  0.008738  -0.01089  0.01665  0.7807  -0.2799
6.3e+09  0.7311  0.2993  -0.019  -0.03543  0.01786  0.06092  0.6272  -0.516
6.301e+09  0.8465  -0.05497  -0.01186  -0.004589  0.003878  -0.03005  0.4119  -0.7231
6.302e+09  0.8445  -0.2056  0.005456  -0.007027  -0.01312  -0.03296  0.1334  -0.837
6.304e+09  0.6688  -0.4485  0.0208  -0.007255  -0.01185  -0.02154  -0.1547  -0.8359
6.305e+09  0.4095  -0.7068  -0.01648  -0.01259  -0.02689  0.01922  -0.4118  -0.7324
6.306e+09  0.1857  -0.7944  -0.001185  0.04536  -0.04427  -0.01216  -0.6528  -0.5449
6.308e+09  -0.1355  -0.8455  0.002449  -0.006063  -0.02558  -0.01951  -0.79  -0.2854
6.309e+09  -0.3863  -0.787  -0.01959  -0.03353  0.00534  0.0169  -0.8349  -0.03266
6.31e+09  -0.6105  -0.5306  0.01698  0.01364  0.01758  -0.004194  -0.8269  0.2753
6.311e+09  -0.8263  -0.3  -0.0461  0.01496  -0.0507  -0.02176  -0.6586  0.5219
6.312e+09  -0.8173  -0.02822  0.02239  -0.00977  -0.02016  -0.001258  -0.4395  0.7637
6.314e+09  -0.797  0.2742  -0.002785  -0.008405  0.03743  0.04408  -0.1566  0.8512
6.315e+09  -0.6069  0.591  0.02094  0.02056  -0.03015  -0.01757  0.1456  0.8726
6.316e+09  -0.4337  0.7325  0.02597  -0.0009453  0.04919  0.02142  0.4453  0.7952
6.318e+09  -0.1192  0.8093  -0.02766  0.001866  0.04933  -0.02548  0.678  0.5808
6.319e+09  0.2079  0.8553  7.768e-05  0.01929  -0.01278  0.02504  0.84  0.3343
6.32e+09  0.4248  0.734  0.01393  0.005591  0.01783  -0.0521  0.9221  -0.01341
6.321e+09  0.6816  0.5267  -0.005049  -0.03325  0.01854  0.016  0.8579  -0.3209
6.322e+09  0.7508  0.2513  -0.009408  0.02668  0.04124  -0.0008556  0.6998  -0.5779
6.324e+09  0.8577  -0.01547  0.02903  -0.00503  0.02867  0.01804  0.4778  -0.7714
6.325e+09  0.7777  -0.308  0.05842  0.009366  -0.04301  0.03132  0.1652  -0.8788
6.326e+09  0.6193  -0.5717  0.01287  -0.006677  -0.01208  0.02853  -0.1315  -0.9041
6.328e+09  0.3819  -0.7549  0.02062  -0.03884  0.00529  -0.07212  -0.41  -0.8032
6.329e+09  0.1187  -0.9286  0.01783  0.003608  -0.01436  -0.02051  -0.6845  -0.6128
6.33e+09  -0.175  -0.812  -0.003162  -0.01714  -0.01193  0.01195  -0.8806  -0.3362
6.331e+09  -0.4819  -0.6819  -0.01447  0.00841  0.02348  -0.04301  -0.8875  -0.01531
6.332e+09  -0.7121  -0.5333  -0.03362  -0.004234  0.002135  -0.03585  -0.8583  0.2834
6.334e+09  -0.8302  -0.1693  0.00682  0.03453  0.02063  -0.01951  -0.732  0.5838
6.335e+09  -0.8297  0.09185  -0.03217  -0.03661  0.02969  -0.02466  -0.4953  0.7664
6.336e+09  -0.7818  0.3894  0.03257  0.01069  -0.005249  0.03532  -0.1685  0.9071
6.338e+09  -0.5486  0.5652  -0.002385  -0.02172  -0.04162  0.006666  0.1256  0.8894
6.339e+09  -0.382  0.8034  -0.009198  -0.01345  -0.05104  -0.01951  0.426  0.8266
6.34e+09  -0.0568  0.8783  0.009986  -0.01209  -0.01937  0.05291  0.7172  0.6413
6.341e+09  0.2437  0.8586  -0.01123  -0.01527  0.002293  0.02648  0.8444  0.3606
6.342e+09  0.5441  0.6838  -0.004835  -0.01121  0.01132  0.0152  0.9108  0.05778
6.344e+09  0.7784  0.4243  -0.03999  -0.007018  0.03737  -0.02384  0.8813  -0.2703
6.345e+09  0.866  0.181  -0.005258  -0.0127  0.03921  0.007352  0.741  -0.5787
6.346e+09  0.8486  -0.1681  -0.01043  0.01433  -0.02529  0.02013  0.505  -0.7862
6.348e+09  0.7601  -0.4063  0.003893  0.01525  -0.01252  -0.04867  0.2243  -0.8788
6.349e+09  0.5572  -0.628  -0.007742  -0.007286  -0.02629  0.01195  -0.1408  -0.9547
6.35e+09  0.2174  -0.8764  0.00603  -0.003414  0.0215  0.01006  -0.4327  -0.8442
6.351e+09  -0.01649  -0.8942  0.01827  0.009698  -0.01683  0.03988  -0.6662  -0.6866
6.352e+09  -0.3229  -0.8052  -0.02  -0.007643  0.03745  -0.0008366  -0.8562  -0.3768
6.354e+09  -0.6132  -0.6706  -0.02502  0.01269  -0.01234  -0.02849  -0.9656  -0.03281
6.355e+09  -0.8299  -0.4459  -0.03249  0.02048  -0.005421  -0.007042  -0.8745  0.2519
6.356e+09  -0.8905  -0.09102  -0.01366  -0.01412  -0.002096  -0.03474  -0.7157  0.5272
6.358e+09  -0.8487  0.1697  -0.003271  0.02725  0.001919  0.02744  -0.5213  0.7647
6.359e+09  -0.6806  0.5471  0.008952  -0.03088  -0.02725  0.005187  -0.2393  0.9397
6.36e+09  -0.5705  0.6817  0.01306  0.02196  -0.003149  0.02249  0.08271  0.9439
6.361e+09  -0.2641  0.9044  -0.01037  -0.03237  -0.001455  0.02393  0.4438  0.8507
6.362e+09  0.08012  0.9119  0.001902  0.0009382  -0.001186  0.03177  0.6963  0.6783
6.364e+09  0.3525  0.8331  0.03327  -0.02548  -0.006081  -0.04684  0.8413  0.3715
6.365e+09  0.6508  0.5829  0.005067  -0.03148  -0.01768  0.005692  0.9247  0.09228
6.366e+09  0.8091  0.4022  -0.01854  0.003852  0.004385  0.014  0.8775  -0.264
6.368e+09  0.8972  0.1377  0.005383  0.02193  -0.03128  -0.000591  0.781  -0.5784
6.369e+09  0.8615  -0.2573  0.009308  -0.01305  0.03369  0.003306  0.5479  -0.7607
6.37e+09  0.7148  -0.5078  -0.007305  -0.001309  -0.006724  0.03086  0.2585  -0.9077
6.371e+09  0.5008  -0.7654  -0.01758  0.004458  0.01802  -0.03287  -0.09465  -0.9492
6.372e+09  0.2157  -0.9307  -0.004973  -0.007157  -0.01993  0.04971  -0.414  -0.8317
6.374e+09  -0.1181  -0.8613  -0.007634  -0.005098  -0.009404  0.0494  -0.6599  -0.659
6.375e+09  -0.4315  -0.7519  -0.01983  -0.01149  -0.01244  -0.01079  -0.8709  -0.4241
6.376e+09  -0.6286  -0.6191  -0.006407  0.01649  0.02763  0.02604  -0.929  -0.05823
6.378e+09  -0.8142  -0.3361  -0.01359  -0.01866  0.01273  0.009686  -0.895  0.2652
6.379e+09  -0.9118  -0.02958  -0.01674  0.001188  0.003321  0.01434  -0.8065  0.5096
6.38e+09  -0.8856  0.2951  0.01909  -0.03759  0.02307  -0.02438  -0.5688  0.7837
6.381e+09  -0.6786  0.5533  0.009456  -0.01217  -0.05732  0.02964  -0.2882  0.8961
6.382e+09  -0.4566  0.7679  -0.007509  0.005577  -0.008158  -0.02493  0.07851  0.9644
6.384e+09  -0.2189  0.8465  0.03076  -0.005392  -0.05002  0.01401  0.3878  0.8499
6.385e+09  0.1645  0.8311  0.008426  -0.003214  -0.02498  0.0162  0.6349  0.6656
6.386e+09  0.4462  0.782  0.03172  0.05087  -0.02211  -0.02306  0.8229  0.4552
6.388e+09  0.6982  0.6077  0.01022  0.008605  0.02103  0.02312  0.9292  0.1088
6.389e+09  0.8238  0.3164  -0.01658  -0.005226  0.04997  -0.02168  0.8986  -0.2115
6.39e+09  0.8808  -0.009542  -0.03916  -0.02359  0.0178  0.001149  0.8176  -0.5286
6.391e+09  0.8258  -0.3491  0.001121  0.0257  0.005222  0.01196  0.5879  -0.702
6.392e+09  0.7257  -0.5814  0.01652  -0.03997  0.008211  0.02369  0.3133  -0.8648
6.394e+09  0.4383  -0.7721  -0.03228  0.006397  0.001183  -0.0449  -0.02225  -0.9419
6.395e+09  0.1638  -0.8956  0.05261  -0.01344  0.03168  0.009513  -0.3533  -0.8762
6.396e+09  -0.1734  -0.864  -0.0119  0.004562  0.004858  0.04585  -0.5779  -0.629
6.398e+09  -0.4518  -0.7328  -0.03271  -0.01047  0.007846  -0.001589  -0.8063  -0.422
6.399e+09  -0.7086  -0.5556  -0.009521  0.00651  -0.02935  0.01978  -0.9211  -0.1479
6.4e+09  -0.8719  -0.2334  0.01392  -0.008119  0.02164  -0.04097  -0.897  0.1421
6.401e+09  -0.8384  0.05362  -0.0305  0.01875  0.007723  -0.0124  -0.7687  0.499
6.402e+09  -0.8243  0.3249  0.006189  0.005474  0.06351  -0.01019  -0.5977  0.6994
6.404e+09  -0.6683  0.6093  0.02817  0.0479  -0.02112  0.02863  -0.2991  0.8358
6.405e+09  -0.4003  0.7892  0.03857  -0.0233  -0.04479  0.01038  0.02725  0.9138
6.406e+09  -0.1151  0.8176  -0.0174  -0.01193  -0.02558  0.004474  0.3146  0.8841
6.408e+09  0.1805  0.841  -0.06416  0.002371  -0.03075  0.02988  0.5338  0.6683
6.409e+09  0.4952  0.7389  -0.01177  0.01487  -0.05322  -0.005426  0.814  0.4768
6.41e+09  0.6726  0.5402  0.02095  -0.03039  -0.0007234  -0.006222  0.8672  0.1485
6.411e+09  0.791  0.2963  -0.01114  0.0009705  -0.04146  -0.01145  0.8877  -0.1316
6.412e+09  0.9057  -0.01929  -0.006399  0.03334  0.03131  0.01319  0.8216  -0.4542
6.414e+09  0.8015  -0.3544  0.01945  0.02412  0.03702  -0.001694  0.5883  -0.6681
6.415e+09  0.6087  -0.5923  -0.01151  0.005314  -0.001786  0.01265  0.3053  -0.8463
6.416e+09  0.3641  -0.788  -0.001962  -0.03316  0.01545  -0.005492  -0.02202  -0.9058
6.418e+09  0.09292  -0.8794  -0.007333  -0.0313  -0.001447  -0.01445  -0.3151  -0.8768
6.419e+09  -0.2125  -0.8827  -0.02785  -0.01121  -0.05136  0.004343  -0.5542  -0.6842
6.42e+09  -0.5058  -0.7038  0.000614  0.02691  0.01803  -0.003391  -0.7568  -0.4466
6.421e+09  -0.7391  -0.5056  -0.01086  0.007634  0.06082  0.01176  -0.8937  -0.2009
6.422e+09  -0.8156  -0.1765  0.04031  -0.01845  0.009228  0.001661  -0.8465  0.1105
6.424e+09  -0.8793  0.0646  -0.01552  0.01448  -0.008916  -0.01997  -0.8145  0.4123
6.425e+09  -0.7778  0.3478  -0.01325  0.01067  0.00401  0.03501  -0.6041  0.7137
6.426e+09  -0.6583  0.6009  0.01313  -0.01354  -0.02263  0.0396  -0.3351  0.7953
6.428e+09  -0.4117  0.8429  0.01799  0.006591  -0.04904  0.00966  -0.07136  0.876
6.429e+09  -0.03243  0.8586  -0.08901  -0.03128  0.008533  -0.01614  0.2519  0.8679
6.43e+09  0.2597  0.8662  0.02459  0.002158  -0.04457  -0.01165  0.5403  0.6711
6.431e+09  0.5268  0.7822  0.01223  -0.0669  0.008873  -0.005256  0.7559  0.4501
6.432e+09  0.7452  0.5209  0.005005  -0.01238  -0.0202  0.004667  0.8553  0.2293
6.434e+09  0.8822  0.269  -5.234e-05  -0.01798  0.06353  0.01344  0.866  -0.06447
6.435e+09  0.8894  -0.03906  0.03795  0.03066  -0.04818  0.04085  0.7809  -0.3659
6.436e+09  0.8095  -0.3969  -0.02055  0.02805  -0.06105  0.0006972  0.5977  -0.5856
6.438e+09  0.6099  -0.5957  0.01291  -0.03256  -0.02527  0.0489  0.3811  -0.7994
6.439e+09  0.3407  -0.8078  0.0158  0.01845  0.003401  -0.03379  0.05532  -0.82
6.44e+09  0.08216  -0.8792  0.03618  0.0346  -0.02331  0.01928  -0.2348  -0.8321
6.441e+09  -0.2474  -0.8257  0.02833  0.01794  0.03961  0.01824  -0.4996  -0.6972
6.442e+09  -0.4597  -0.7678  0.01213  -0.0054  0.01535  0.01677  -0.6959  -0.4585
6.444e+09  -0.7632  -0.4746  0.0123  0.002109  -0.05678  0.01417  -0.8234  -0.192
6.445e+09  -0.8771  -0.2114  0.04701  -0.006594  -0.02593  -0.02035  -0.8154  0.1056
6.446e+09  -0.9035  0.07969  0.004351  0.047  -0.01188  -0.01738  -0.745  0.3962
6.448e+09  -0.8255  0.3436  0.01155  0.03558  0.01537  0.01639  -0.5867  0.5769
6.449e+09  -0.6256  0.6237  0.01118  0.03792  -0.02243  -0.01585  -0.3539  0.7461
6.45e+09  -0.3339  0.8333  -0.01302  0.01739  0.02471  -0.01994  -0.07989  0.8536
6.451e+09  -0.06785  0.9259  -0.02498  -0.01955  0.01979  0.01076  0.2377  0.797
6.452e+09  0.2509  0.8243  0.0149  0.003745  0.003887  -0.01675  0.4771  0.7113
6.454e+09  0.5285  0.6941  0.05203  -0.0197  -0.02275  0.00182  0.6672  0.4783
6.455e+09  0.7327  0.5013  0.03803  -0.0336  0.0292  -0.03056  0.7863  0.1869
6.456e+09  0.9047  0.2397  0.01207  0.0008133  -0.05776  0.06347  0.8945  -0.1164
6.458e+09  0.9135  -0.1096  0.02994  0.009685  0.003556  -0.002054  0.772  -0.3139
6.459e+09  0.7672  -0.371  -0.008793  -0.0292  -0.02662  -0.03536  0.5919  -0.555
6.46e+09  0.6198  -0.6775  -0.03793  -0.03088  0.006804  0.002499  0.3409  -0.7588
6.461e+09  0.3385  -0.7724  0.07138  0.0352  0.03721  -0.008809  0.01242  -0.8023
6.462e+09  0.05247  -0.8981  -0.01141  -0.02027  0.06321  0.04724  -0.2004  -0.8321
6.464e+09  -0.2785  -0.8347  -0.001563  -0.04272  0.007347  -0.06973  -0.4788  -0.6732
6.465e+09  -0.5651  -0.7383  -0.01679  0.03533  0.02109  0.01555  -0.685  -0.4421
6.466e+09  -0.7862  -0.4886  0.01535  0.03255  -0.02912  0.005894  -0.7984  -0.2042
6.468e+09  -0.8663  -0.1899  -0.01527  -0.01281  0.01156  -0.005043  -0.7843  0.04882
6.469e+09  -0.848  0.1253  0.008031  0.001878  -0.02244  0.03567  -0.7725  0.3505
6.47e+09  -0.884  0.4314  0.02441  -0.05932  0.04867  0.01211  -0.5618  0.5501
6.471e+09  -0.6405  0.6637  -0.03628  0.00923  -0.01463  0.05173  -0.3442  0.722
6.472e+09  -0.3413  0.8631  -0.01603  0.01982  -0.01946  0.01666  -0.03529  0.7392
6.474e+09  -0.05566  0.9201  -0.008158  -0.02364  0.01047  -0.01443  0.1908  0.7708
6.475e+09  0.2795  0.8606  -0.02282  -0.04155  0.05647  0.03764  0.429  0.6529
6.476e+09  0.5881  0.6676  0.01244  0.04737  -0.01754  0.03514  0.6552  0.4621
6.478e+09  0.8206  0.4473  -0.02273  -0.000598  0.01002  0.03735  0.7558  0.1787
6.479e+09  0.9004  0.1966  -0.0145  0.01052  -0.05579  0.05058  0.7926  -0.08977
6.48e+09  0.9192  -0.1634  0.008048  0.01158  -0.0372  0.008575  0.6986  -0.3236
6.481e+09  0.819  -0.4594  0.0232  -0.02583  0.01456  -0.03771  0.5667  -0.5931
6.482e+09  0.5388  -0.676  -0.0246  0.007515  0.04106  0.0156  0.3298  -0.7264
6.484e+09  0.3379  -0.8983  -0.02252  -0.004388  0.01956  0.04386  0.07002  -0.8091
6.485e+09  0.06579  -0.9332  -0.008053  0.006293  0.01516  -0.008337  -0.2258  -0.7523
6.486e+09  -0.3611  -0.8373  -0.02129  0.04538  -5.257e-05  0.02796  -0.4759  -0.6127
6.488e+09  -0.5801  -0.7183  -0.01774  0.004854  -0.01262  0.02574  -0.6563  -0.4438
6.489e+09  -0.8285  -0.4857  0.008151  -0.01094  -0.0122  -0.02224  -0.7501  -0.2359
6.49e+09  -0.8812  -0.1645  -0.003999  0.01085  -0.01111  0.006858  -0.7658  0.09934
6.491e+09  -0.9116  0.1231  0.01085  0.006924  0.03821  -0.01019  -0.6779  0.3215
6.492e+09  -0.8546  0.4765  -0.01694  0.01525  0.001244  -0.01376  -0.5123  0.5478
6.494e+09  -0.5825  0.7402  -0.01004  -0.02575  -0.04204  0.03931  -0.3206  0.6995
6.495e+09  -0.2937  0.9015  0.03298  0.02082  0.008669  0.03058  -0.01845  0.7457
6.496e+09  0.07133  0.9423  -0.00797  0.01076  0.01084  -0.02845  0.2337  0.7473
6.498e+09  0.3406  0.8551  -0.006833  -0.01303  0.001216  -0.01035  0.486  0.601
6.499e+09  0.6363  0.733  0.01617  0.002199  -0.006596  -0.003025  0.6518  0.419
6.5e+09  0.8139  0.4121  -0.005858  0.03201  0.03521  -0.003163  0.72  0.1307
6.501e+09  0.909  0.1374  0.03214  -0.01267  -0.0378  -0.005081  0.733  -0.1184
6.502e+09  0.9006  -0.222  0.02327  0.004527  0.03791  0.03311  0.6722  -0.3816
6.504e+09  0.8215  -0.5051  -0.01022  0.0114  0.01356  0.003851  0.5201  -0.6137
6.505e+09  0.5272  -0.7411  -0.06086  -0.009783  -0.01711  -0.04806  0.2778  -0.6919
6.506e+09  0.2514  -0.9241  0.02894  0.01068  -0.04281  0.06241  -0.01342  -0.7124
6.508e+09  -0.0868  -0.9893  0.01543  0.02276  0.003435  0.06729  -0.2488  -0.7498
6.509e+09  -0.4091  -0.834  0.01399  0.02018  0.001261  -0.01676  -0.4875  -0.6164
6.51e+09  -0.6403  -0.7518  0.01688  0.03103  -0.0118  0.01694  -0.6681  -0.3794
6.511e+09  -0.845  -0.4523  0.0141  -0.0124  -0.02939  0.009991  -0.7541  -0.1185
6.512e+09  -0.8792  -0.05654  0.02418  -0.02541  0.007324  6.182e-05  -0.7273  0.1175
6.514e+09  -0.9662  0.2626  -0.03057  0.01872  0.03909  0.02948  -0.6724  0.3604
6.515e+09  -0.818  0.5363  -0.01936  -0.03645  -0.01206  0.007307  -0.4506  0.5831
6.516e+09  -0.5475  0.8347  0.05734  -0.02249  -0.0154  0.01656  -0.228  0.7114
6.518e+09  -0.2183  0.9772  -0.002432  0.02345  0.01206  -0.02664  0.01403  0.7484
6.519e+09  0.06535  0.9423  0.006068  -0.001051  0.003222  0.01628  0.2371  0.6932
6.52e+09  0.4201  0.8334  -0.04609  0.01917  -0.03133  -0.01011  0.4622  0.558
6.521e+09  0.7346  0.6227  -0.006205  0.02682  -0.003343  -0.007416  0.6464  0.3279
6.522e+09  0.8914  0.3896  0.02446  0.02898  0.04193  -0.00365  0.7497  0.09247
6.524e+09  0.9957  0.01592  -0.02458  -0.004956  0.01719  0.03472  0.7252  -0.184
6.525e+09  0.9112  -0.3394  0.007249  -0.01095  0.0009137  -0.03635  0.5927  -0.3881
6.526e+09  0.7311  -0.5762  0.001365  -0.00246  0.03178  0.0143  0.3978  -0.5807
6.528e+09  0.4822  -0.8798  0.01871  0.01138  0.02653  0.03844  0.2359  -0.6844
6.529e+09  0.1826  -0.9239  0.03125  0.01396  -0.03165  -0.03087  -0.08779  -0.6841
6.53e+09  -0.1812  -0.9187  -0.0113  0.0383  -0.08101  0.01005  -0.2992  -0.6488
6.531e+09  -0.5494  -0.823  0.003469  0.01938  -0.006042  0.02664  -0.4598  -0.4573
6.532e+09  -0.7982  -0.5966  0.0201  -0.01812  0.02746  -0.01008  -0.6088  -0.3057
6.534e+09  -0.9561  -0.2755  -0.04021  0.03063  -0.034  0.007886  -0.6314  -0.08188
6.535e+09  -0.9385  0.07369  -0.005629  0.006629  0.02401  -0.009633  -0.6285  0.08842
6.536e+09  -0.8812  0.3705  0.001734  0.003981  0.03361  0.01799  -0.5739  0.3408
6.538e+09  -0.7188  0.7101  0.000174  -0.02985  -0.02446  0.03187  -0.4141  0.4725
6.539e+09  -0.3716  0.852  -0.01382  0.02204  -0.05881  0.003183  -0.2796  0.6196
6.54e+09  -0.07192  0.9598  0.01741  -0.009378  -0.02518  0.01657  -0.05318  0.655
6.541e+09  0.2878  0.8761  -0.01407  0.005744  -0.008831  -0.0002941  0.1783  0.6627
6.542e+09  0.5643  0.7804  0.01351  0.004563  0.0297  -0.005533  0.4009  0.5677
6.544e+09  0.7789  0.5709  -0.01257  -0.04391  0.004063  0.03308  0.5769  0.4217
6.545e+09  0.984  0.2198  -0.01603  0.01729  0.007144  0.05601  0.7057  0.159
6.546e+09  0.943  -0.1395  -0.02431  -0.00817  0.004795  0.00854  0.6975  -0.09267
6.548e+09  0.8506  -0.4221  0.003206  -0.02833  0.05387  0.03886  0.6569  -0.3298
6.549e+09  0.6363  -0.7345  -0.01802  -0.01702  0.05417  0.01776  0.4937  -0.5439
6.55e+09  0.3988  -0.9101  0.03872  -0.005411  0.0391  0.01967  0.2685  -0.6887
6.551e+09  -0.04936  -0.9957  0.002703  0.01067  0.002946  0.01939  0.0312  -0.734
