# Hz S RI R 50
6.25e+09  -0.4281  0.785  -0.01597  -0.006766  -0.01831  0.008661  0.1804  0.5054
6.251e+09  -0.1847  0.8989  0.0005223  0.02669  -0.04958  0.01022  0.3999  0.4037
6.252e+09  0.1946  0.8856  -0.001394  -0.01326  -0.007722  -0.02121  0.5212  0.2446
6.254e+09  0.4323  0.7507  0.008832  0.01926  -0.01641  -0.00205  0.5831  0.02821
6.255e+09  0.6915  0.4722  -0.01385  0.02528  0.01356  0.0423  0.6186  -0.1755
6.256e+09  0.8189  0.2697  -0.02774  0.02924  -0.003105  0.007255  0.4629  -0.443
6.258e+09  0.8166  -0.07232  -0.009458  0.02472  0.01184  0.01121  0.286  -0.6029
6.259e+09  0.7552  -0.3432  -0.002845  0.007539  -0.01601  0.0003685  0.04474  -0.6571
6.26e+09  0.6004  -0.5688  -0.004416  0.0009237  -0.0428  -0.02948  -0.2063  -0.6334
6.261e+09  0.432  -0.7721  0.007131  -0.03037  -0.01815  0.03004  -0.3995  -0.5319
6.262e+09  0.1469  -0.851  0.01512  -0.01474  0.04413  -0.02808  -0.6087  -0.3267
6.264e+09  -0.1911  -0.8392  0.01301  0.002867  -0.0566  0.01123  -0.7228  -0.08849
6.265e+09  -0.4506  -0.6791  -0.02967  0.03153  -0.03074  -0.002791  -0.7345  0.1792
6.266e+09  -0.6931  -0.5077  -0.01426  -0.02241  -0.04173  -0.04131  -0.5769  0.3879
6.268e+09  -0.7899  -0.2602  0.01524  -0.003184  -0.06368  -0.06152  -0.4219  0.5853
6.269e+09  -0.8897  0.03158  -0.02083  0.02594  0.03661  0.03827  -0.1967  0.6831
6.27e+09  -0.8147  0.2866  -0.009125  0.009629  -0.02529  -0.03234  0.03397  0.7265
6.271e+09  -0.6241  0.5219  -0.01136  0.02082  0.03822  -0.01232  0.3216  0.6521
6.272e+09  -0.3784  0.7689  0.01463  -0.004728  -0.03653  -0.007809  0.5618  0.5446
6.274e+09  -0.09743  0.8059  -0.03749  -0.01623  0.02532  -0.07625  0.7078  0.3133
6.275e+09  0.1601  0.8175  -0.003342  -0.03427  -0.03293  0.03751  0.767  0.05599
6.276e+09  0.4207  0.6451  0.03264  -0.02235  0.03983  -0.06571  0.7245  -0.204
6.278e+09  0.6439  0.5357  -0.02108  -0.004594  -0.01607  0.04511  0.5857  -0.475
6.279e+09  0.7994  0.2394  -0.03121  -0.01078  0.03735  -0.03124  0.3986  -0.6544
6.28e+09  0.8726  -0.06978  0.009299  0.00357  -0.02816  0.01985  0.1365  -0.7406
6.281e+09  0.7313  -0.314  0.01701  0.0261  -0.009532  -0.0007234  -0.133  -0.768
6.282e+09  0.5863  -0.5494  -0.02366  0.01429  -0.01697  -0.0108  -0.375  -0.6981
6.284e+09  0.3287  -0.7342  -0.01321  -0.01328  0.008662  -0.02032  -0.5668  -0.546
6.285e+09  0.08488  -0.8572  0.02092  0.01503  0.02447  -0.0196  -0.7177  -0.2764
6.286e+09  -0.2385  -0.7728  0.007782  0.007258  -0.01125  -0.02112  -0.7877  -0.007716
6.288e+09  -0.4818  -0.6793  0.009579  -0.00479  0.01132  -0.02333  -0.7695  0.2633
6.289e+09  -0.6702  -0.5141  0.009839  0.01057  0.03342  -0.01953  -0.6404  0.5011
6.29e+09  -0.8112  -0.2083  -0.02155  0.008215  0.01156  0.07302  -0.4398  0.7316
6.291e+09  -0.8183  0.08897  -0.01594  -0.02122  -0.01724  -0.00889  -0.1665  0.7805
6.292e+09  -0.8043  0.3867  0.002038  -0.02439  0.02929  0.06874  0.1261  0.8179
6.294e+09  -0.5756  0.6359  0.01447  -0.001113  -0.0198  -0.011  0.4165  0.7212
6.295e+09  -0.3471  0.7313  0.01401  0.01194  -0.05015  -0.00417  0.6437  0.511
6.296e+09  -0.05534  0.8178  -0.008938  0.001821  -0.01963  -0.005503  0.7737  0.2748
6.298e+09  0.2164  0.8415  0.004224  -0.003814  -0.01439  0.02753  0.8348  0.0242
6.299e+09  0.5233  0.6805  -0.03618  -0.001521  0.03427  0.06725  0.7916  -0.2711
6.3e+09  0.7081  0.4624  -0.01853  0.0127  0.02618  -0.00944  0.6164  -0.5175
6.301e+09  0.8175  0.2056  0.007397  -0.03735  -0.001278  0.04755  0.4423  -0.7462
6.302e+09  0.8166  -0.08508  -0.04163  -0.002463  0.04353  -0.04051  0.1379  -0.822
6.304e+09  0.7981  -0.4444  -0.002296  -0.0111  -0.004374  0.01734  -0.1747  -0.8201
6.305e+09  0.5405  -0.653  -0.01452  0.02325  0.005571  -0.08567  -0.3954  -0.7504
6.306e+09  0.3215  -0.7675  0.01131  -0.02499  -0.03068  0.01446  -0.6414  -0.5054
6.308e+09  0.04987  -0.8466  -0.003202  0.0006232  -0.04235  0.03765  -0.808  -0.2972
6.309e+09  -0.2855  -0.7746  -0.002118  0.03564  -0.02022  -0.002579  -0.8401  -0.0259
6.31e+09  -0.5148  -0.6626  -0.013  -0.00347  0.02475  0.03327  -0.8047  0.3108
6.311e+09  -0.7194  -0.433  -0.008888  0.01223  -0.005042  0.01599  -0.6828  0.5657
6.312e+09  -0.9134  -0.1547  -0.001284  0.04695  -0.01626  0.01072  -0.444  0.7562
6.314e+09  -0.813  0.1189  -0.01351  0.003537  0.02158  0.001447  -0.1723  0.8246
6.315e+09  -0.6635  0.4673  -0.005744  -0.003099  -0.03722  0.02979  0.1807  0.863
6.316e+09  -0.5478  0.6417  0.01421  -0.001504  0.05674  -0.01083  0.4532  0.7574
6.318e+09  -0.2616  0.808  -0.001346  -0.009538  0.001132  -0.01224  0.6517  0.5815
6.319e+09  0.01257  0.8211  0.01945  -0.008718  -0.0236  0.03199  0.8232  0.3324
6.32e+09  0.2831  0.7425  0.01041  0.002352  -0.009129  -0.03062  0.858  0.005176
6.321e+09  0.5722  0.6173  0.0413  0.04878  -0.009157  -0.01078  0.8293  -0.3312
6.322e+09  0.7329  0.3786  0.03996  0.001487  -0.04276  -0.02324  0.6913  -0.5527
6.324e+09  0.8553  0.1181  0.0009363  -0.01204  0.02736  -0.03269  0.4815  -0.7711
6.325e+09  0.8921  -0.2366  0.02678  -0.01737  -0.02538  -0.04376  0.1737  -0.9227
6.326e+09  0.7194  -0.4761  0.04304  0.01474  0.003439  -0.04176  -0.1678  -0.8777
6.328e+09  0.5314  -0.6771  0.01648  -0.02637  0.01121  -0.04616  -0.4277  -0.7537
6.329e+09  0.2564  -0.8526  -0.0179  0.005898  -0.03569  0.03274  -0.6937  -0.5919
6.33e+09  -0.05631  -0.8874  -0.00339  0.001423  -0.01766  -0.03335  -0.8486  -0.3545
6.331e+09  -0.346  -0.7787  -0.02471  -0.0172  -0.01634  0.03939  -0.9177  -0.03428
6.332e+09  -0.6398  -0.6012  -0.03257  -0.01582  0.0072  -0.04935  -0.8943  0.2986
6.334e+09  -0.7862  -0.3844  -0.02854  -0.00691  0.003313  -0.0107  -0.6982  0.5721
6.335e+09  -0.8733  -0.03418  0.03013  -0.01609  -0.02742  0.004246  -0.4496  0.7666
6.336e+09  -0.831  0.279  -4.563e-05  0.005738  0.0008024  -0.01749  -0.1529  0.9142
6.338e+09  -0.7194  0.5214  0.05491  -0.01237  0.003618  -0.005551  0.1246  0.8858
6.339e+09  -0.4815  0.7339  0.02028  0.0004314  0.01845  0.008351  0.3902  0.8178
6.34e+09  -0.1778  0.8421  0.001827  -0.005975  -0.01895  -0.008095  0.6755  0.6009
6.341e+09  0.1137  0.8392  0.02557  -0.000624  -0.02445  -0.02698  0.8234  0.3503
6.342e+09  0.4221  0.7775  0.0113  -0.02261  -0.03448  -0.00764  0.9368  0.01322
6.344e+09  0.6587  0.6014  -0.02592  -0.005199  -0.0003047  0.01292  0.9192  -0.3015
6.345e+09  0.8613  0.3374  -0.01714  0.02505  0.002927  0.01531  0.7494  -0.5722
6.346e+09  0.874  0.007728  0.02053  -0.00421  0.04958  -0.01353  0.5129  -0.7646
6.348e+09  0.8334  -0.2918  -0.04877  0.04644  -0.03002  -0.04629  0.2222  -0.8895
6.349e+09  0.6687  -0.5267  -0.001472  0.006091  -0.001264  -0.003499  -0.1176  -0.9457
6.35e+09  0.4224  -0.767  -0.004489  0.02516  0.05155  0.009908  -0.4282  -0.8416
6.351e+09  0.1263  -0.9102  -0.0192  -0.01763  0.01145  0.02221  -0.7013  -0.6732
6.352e+09  -0.1707  -0.8922  -0.005217  0.02817  -0.03623  0.01939  -0.8668  -0.3557
6.354e+09  -0.4495  -0.7997  -0.01086  -0.02434  -0.004846  -0.01164  -0.9396  -0.08317
6.355e+09  -0.68  -0.5606  -0.03253  -0.02803  -0.01284  0.01679  -0.8916  0.2503
6.356e+09  -0.8385  -0.2781  0.02171  0.009728  0.01446  -0.00205  -0.7694  0.5368
6.358e+09  -0.8711  0.004465  -0.0247  -0.03184  -0.0008654  0.04728  -0.5134  0.7632
6.359e+09  -0.8158  0.3351  -0.02652  -0.05094  -0.0009391  -0.02189  -0.255  0.9332
6.36e+09  -0.6316  0.5636  -0.02235  0.02594  0.03283  -0.01415  0.06534  0.9511
6.361e+09  -0.4272  0.7787  -0.003823  -0.01162  0.02251  -0.01895  0.4506  0.872
6.362e+09  -0.0438  0.9488  0.029  0.05377  -0.02269  -0.006986  0.6596  0.6906
6.364e+09  0.2257  0.8676  0.003583  0.04253  0.03289  0.03383  0.866  0.3785
6.365e+09  0.5038  0.7096  -0.01307  0.03998  0.02134  0.007473  0.9243  0.07531
6.366e+09  0.7733  0.5247  -0.01038  -0.03659  -0.03701  0.02858  0.9387  -0.2706
6.368e+09  0.8804  0.2267  -0.007855  0.001796  -0.008826  0.003181  0.7652  -0.5584
6.369e+09  0.8229  -0.1318  0.007609  -0.009422  0.0005465  -0.04115  0.5353  -0.7775
6.37e+09  0.7996  -0.3875  0.01218  0.04914  0.0006186  0.00256  0.2455  -0.9463
6.371e+09  0.6341  -0.6878  -0.0012  0.01293  -0.01541  -0.008599  -0.1067  -0.9466
6.372e+09  0.3304  -0.8412  -0.01026  0.002223  -0.02241  0.03246  -0.3403  -0.8737
6.374e+09  0.0318  -0.8414  0.01483  0.03062  -0.0166  0.01319  -0.6502  -0.6797
6.375e+09  -0.2669  -0.8958  -0.0213  -0.02651  -0.03788  0.03919  -0.8477  -0.4591
6.376e+09  -0.6061  -0.7077  0.003285  0.02194  0.01603  0.02857  -0.9355  -0.161
6.378e+09  -0.7526  -0.4428  -0.01977  0.005003  -0.001198  0.0102  -0.946  0.2432
6.379e+09  -0.8626  -0.2452  -0.003821  -0.01761  0.05324  -0.01858  -0.8057  0.5011
6.38e+09  -0.8857  0.1628  -0.03784  0.01433  -0.01883  -0.02638  -0.565  0.7695
6.381e+09  -0.7272  0.4801  -0.05862  0.006539  0.01161  0.004054  -0.2652  0.9051
6.382e+09  -0.5981  0.6577  -0.002619  0.01519  -0.007314  -0.006731  0.07945  0.9238
6.384e+09  -0.2726  0.8686  0.002064  0.01623  0.02641  0.003397  0.4036  0.8921
6.385e+09  0.04093  0.9213  -0.01329  -0.007593  -0.01744  -0.04217  0.6529  0.7097
6.386e+09  0.2858  0.8694  -0.02115  -0.02707  -0.02821  0.009691  0.8412  0.4506
6.388e+09  0.6139  0.7111  -0.006925  0.03348  0.03412  -0.0432  0.9429  0.1129
6.389e+09  0.773  0.4273  0.002025  -0.02737  0.01268  -0.04078  0.8678  -0.2292
6.39e+09  0.9505  0.1638  0.02055  0.02684  0.007495  -0.03777  0.7539  -0.4873
6.391e+09  0.9006  -0.1704  -0.03894  -0.02861  0.02351  -0.002595  0.5547  -0.7501
6.392e+09  0.7563  -0.4892  0.006097  -0.03283  0.03939  -0.0192  0.326  -0.9142
6.394e+09  0.5211  -0.6789  -0.02204  0.02228  0.0002074  -0.05928  -0.03751  -0.9518
6.395e+09  0.2727  -0.8578  -0.01118  0.01381  -0.03586  -0.05017  -0.3268  -0.8668
6.396e+09  0.005287  -0.9003  -0.03224  -0.0444  -0.01104  0.03739  -0.6521  -0.663
6.398e+09  -0.2996  -0.8223  0.03022  0.01531  0.0256  -0.005854  -0.8162  -0.4239
6.399e+09  -0.6016  -0.6506  -0.03825  -0.01183  -0.01811  -0.01939  -0.8635  -0.1181
6.4e+09  -0.8314  -0.4229  0.006344  -0.04062  0.02966  -0.0157  -0.86  0.1599
6.401e+09  -0.8438  -0.0841  -0.004774  0.01507  0.008374  -0.02874  -0.7623  0.4677
6.402e+09  -0.8766  0.2047  0.0135  -0.03407  -0.01955  0.005056  -0.6235  0.7585
6.404e+09  -0.7111  0.5226  -0.01259  -0.01032  -0.01688  0.01628  -0.3033  0.8912
6.405e+09  -0.4768  0.7155  -0.003712  0.01748  0.01372  -0.008528  0.02875  0.8925
6.406e+09  -0.2727  0.8501  -0.002121  -0.001497  0.005712  0.01141  0.3361  0.8412
6.408e+09  0.04446  0.8569  -0.01373  -0.007071  -0.03271  0.01365  0.5808  0.6785
6.409e+09  0.3488  0.7574  0.00589  -0.0264  -0.01669  0.04188  0.7843  0.497
6.41e+09  0.5688  0.6911  0.01831  -0.02507  -0.01075  -0.04086  0.9209  0.1808
6.411e+09  0.8628  0.4054  0.01843  -0.01777  -0.03145  0.005908  0.8965  -0.1394
6.412e+09  0.8743  0.06697  -0.01667  -0.0007324  -0.02082  0.003703  0.8355  -0.4206
6.414e+09  0.8435  -0.1913  0.02058  0.0212  0.007925  -0.005535  0.585  -0.6841
6.415e+09  0.7058  -0.5165  -0.004764  0.01474  -0.06131  0.04111  0.3442  -0.8489
6.416e+09  0.4906  -0.7251  -0.02652  -0.0124  -0.01347  -0.008751  0.03607  -0.8981
6.418e+09  0.2217  -0.8445  0.002211  -0.009317  0.02258  -0.009272  -0.2598  -0.8904
6.419e+09  -0.09085  -0.9234  0.0523  0.02167  0.03567  -0.01881  -0.5281  -0.6752
6.42e+09  -0.3517  -0.8508  -0.01394  -0.005205  -0.04664  -0.03893  -0.7234  -0.43
6.421e+09  -0.6108  -0.6348  -0.0003129  -0.01352  0.001366  0.03319  -0.8935  -0.181
6.422e+09  -0.7854  -0.3584  -0.02301  -0.003168  -0.009452  0.02226  -0.9014  0.1064
6.424e+09  -0.863  -0.07398  0.02442  -0.009312  -0.05879  0.00525  -0.7695  0.4565
6.425e+09  -0.8331  0.2245  0.01892  0.03613  0.003883  -0.04189  -0.5885  0.653
6.426e+09  -0.7162  0.4893  0.06604  0.02266  -0.02887  -0.07572  -0.335  0.8103
6.428e+09  -0.4583  0.7305  -0.02704  -0.00791  0.01781  0.004099  -0.05819  0.9261
6.429e+09  -0.2003  0.9134  0.02539  -0.01302  0.02659  -0.03522  0.243  0.8114
6.43e+09  0.07553  0.872  -0.03583  -0.0008721  0.01645  -0.06688  0.5195  0.7027
6.431e+09  0.4037  0.8149  0.002429  -0.0006108  0.01104  -0.0396  0.7564  0.4874
6.432e+09  0.6724  0.6029  0.001326  0.05332  0.0006885  0.02536  0.8059  0.1643
6.434e+09  0.8042  0.3487  -0.005731  0.04373  -0.02263  -0.04344  0.8053  -0.09631
6.435e+09  0.8638  0.09669  0.02024  0.01957  -0.03608  -0.01979  0.7943  -0.3819
6.436e+09  0.8182  -0.1973  -0.04402  0.004982  0.01174  0.04155  0.5939  -0.577
6.438e+09  0.6991  -0.5306  0.02231  0.01004  -0.01248  0.0012  0.3496  -0.7816
6.439e+09  0.481  -0.7155  0.02541  0.001377  -0.03197  -0.009878  0.05752  -0.823
6.44e+09  0.2866  -0.8279  -0.0213  0.01818  -0.04497  0.03285  -0.257  -0.8262
6.441e+09  -0.1034  -0.9174  -0.01061  0.01039  -0.04193  -0.04652  -0.5086  -0.7088
6.442e+09  -0.3951  -0.8059  -0.02277  -0.01035  -0.007219  0.06427  -0.6895  -0.4521
6.444e+09  -0.6386  -0.6317  -0.02456  -0.04546  0.04295  -0.00125  -0.7956  -0.1995
6.445e+09  -0.828  -0.3432  0.00856  -0.02849  0.0266  0.02052  -0.8467  0.07291
6.446e+09  -0.8386  -0.0847  0.006634  -0.01118  0.005963  -0.0008174  -0.7713  0.3464
6.448e+09  -0.7857  0.2566  0.01328  0.0249  0.02109  0.01218  -0.5987  0.6161
6.449e+09  -0.7207  0.5523  -0.00882  -0.01519  -0.02273  -0.02041  -0.3211  0.7906
6.45e+09  -0.509  0.7893  -0.02641  -0.0001088  -0.0466  -0.01066  -0.07336  0.8104
6.451e+09  -0.2009  0.8895  0.002367  -0.02124  -0.01709  -0.006861  0.2153  0.8098
6.452e+09  0.07516  0.8644  0.03005  0.03793  0.01165  -0.002122  0.5012  0.658
6.454e+09  0.4162  0.8085  0.04793  -0.00482  -0.0002544  0.02781  0.7223  0.4461
6.455e+09  0.6807  0.6172  -0.003814  0.02199  0.03835  -0.01924  0.7614  0.1745
6.456e+09  0.8291  0.3094  -0.002719  0.005368  0.04682  0.006317  0.8231  -0.09013
6.458e+09  0.855  0.04183  0.0001777  -0.02199  0.02496  0.001202  0.7428  -0.3651
6.459e+09  0.847  -0.212  0.03215  0.02367  0.009084  -0.009893  0.574  -0.6158
6.46e+09  0.6776  -0.533  0.005715  -0.03575  -0.01697  -0.04313  0.347  -0.7387
6.461e+09  0.5153  -0.7435  0.008866  -0.02921  0.00254  -0.09114  0.03317  -0.8275
6.462e+09  0.1611  -0.8949  0.01273  0.02698  0.03217  0.001546  -0.2692  -0.8023
6.464e+09  -0.1144  -0.8765  -0.02328  0.02465  0.04946  0.01556  -0.5136  -0.6819
6.465e+09  -0.4149  -0.7665  0.008263  -0.01523  0.06545  -0.04419  -0.6474  -0.4474
6.466e+09  -0.6928  -0.6111  0.008281  -0.02026  0.03987  0.01416  -0.7451  -0.1556
6.468e+09  -0.8403  -0.3416  -0.02771  -0.01647  0.01609  -0.04891  -0.7606  0.09435
6.469e+09  -0.8831  -0.04096  0.007133  0.02969  0.01101  -0.04087  -0.7507  0.371
6.47e+09  -0.8404  0.2509  0.0004945  0.0485  0.02769  0.01195  -0.5335  0.6029
6.471e+09  -0.7297  0.5994  -0.0117  0.0108  -0.02592  -0.03972  -0.3259  0.754
6.472e+09  -0.4585  0.7736  -0.01627  -0.001076  -0.002209  -0.0294  -0.0357  0.7729
6.474e+09  -0.1659  0.8785  -0.04395  0.03914  -0.005104  0.001666  0.2243  0.6848
6.475e+09  0.1573  0.9021  0.04572  -0.05527  -0.06591  -0.03442  0.4658  0.622
6.476e+09  0.4413  0.8279  0.03619  -0.006072  -0.0004119  -0.0218  0.6349  0.4309
6.478e+09  0.6412  0.5886  0.01056  -0.02205  -0.006824  0.06305  0.7891  0.1785
6.479e+09  0.8179  0.3361  -0.02953  0.04423  -0.01242  0.007128  0.7765  -0.0935
6.48e+09  0.8905  -0.005025  0.03775  -0.02069  0.01273  -0.06519  0.6905  -0.3084
6.481e+09  0.8861  -0.3179  -0.02404  -0.01912  0.01103  -0.0008314  0.5394  -0.5653
6.482e+09  0.7591  -0.6099  -0.03972  0.03493  0.002618  -0.04841  0.3484  -0.6866
6.484e+09  0.5005  -0.7483  0.0004893  -0.01312  0.01794  -0.02691  0.06011  -0.7688
6.485e+09  0.1458  -0.9477  -0.001661  -0.02306  -0.02818  0.01467  -0.2328  -0.7463
6.486e+09  -0.173  -0.9142  0.00863  0.05404  0.01048  -0.01458  -0.4507  -0.6107
6.488e+09  -0.4362  -0.794  -0.04064  -0.0004386  -0.002441  0.01106  -0.6491  -0.4659
6.489e+09  -0.6673  -0.612  -0.0112  0.0007229  -0.004294  -0.003582  -0.7558  -0.2068
6.49e+09  -0.8256  -0.3506  0.04446  -0.03218  -0.00993  0.002422  -0.7546  0.08531
6.491e+09  -0.9564  0.004589  0.005811  0.03105  0.02293  0.01087  -0.6957  0.3346
6.492e+09  -0.8745  0.3072  -0.03755  -0.01163  -0.0008203  -0.03082  -0.5285  0.6047
6.494e+09  -0.7215  0.6014  0.01045  0.005447  0.01104  0.01407  -0.3131  0.712
6.495e+09  -0.4688  0.8414  0.002428  -0.01356  0.01436  0.02191  -0.0217  0.7607
6.496e+09  -0.183  0.8747  -0.03116  0.004499  -0.00118  -0.04162  0.259  0.7414
6.498e+09  0.2219  0.9535  -0.03464  0.007739  0.02636  0.0548  0.4338  0.6245
6.499e+09  0.4833  0.8069  -0.02284  0.01717  0.01365  -0.03544  0.5942  0.4057
6.5e+09  0.7341  0.5431  -0.01758  -0.02792  -0.03009  -0.01512  0.7859  0.1707
6.501e+09  0.9502  0.2401  -0.008852  -0.0212  0.02606  0.01637  0.7491  -0.1271
6.502e+09  0.9417  -0.03255  -0.01241  -0.006658  0.006941  -0.01938  0.7136  -0.3351
6.504e+09  0.8765  -0.3442  -0.005045  -0.009956  0.007286  -0.01091  0.538  -0.5812
6.505e+09  0.661  -0.6619  0.001252  0.0001237  0.0131  0.01265  0.2645  -0.7245
6.506e+09  0.4268  -0.8411  0.008322  0.01474  0.01833  -0.03986  -0.01069  -0.7394
6.508e+09  0.1455  -0.8913  -0.02378  0.01504  -0.03905  0.003119  -0.257  -0.7137
6.509e+09  -0.1987  -0.9165  0.009381  -0.01497  0.006364  0.03584  -0.5126  -0.6011
6.51e+09  -0.516  -0.7582  -0.01658  -0.03953  0.01914  -0.01463  -0.619  -0.3808
6.511e+09  -0.7714  -0.5789  -0.02316  -0.002153  -0.04363  0.01673  -0.7485  -0.1344
6.512e+09  -0.939  -0.2664  -0.005694  0.0186  -0.008455  0.05587  -0.7109  0.1427
6.514e+09  -0.9903  0.06246  -0.01806  0.004639  0.06744  0.031  -0.6428  0.3689
6.515e+09  -0.8652  0.3972  0.04169  0.01582  0.03956  0.0227  -0.4916  0.5653
6.516e+09  -0.7122  0.6847  0.01352  -0.01011  0.001357  -0.03984  -0.2405  0.7281
6.518e+09  -0.3906  0.8499  -0.005958  -0.0004921  0.01817  0.03094  -0.001778  0.7302
6.519e+09  -0.1029  0.9516  -0.02438  -0.01751  -0.006388  0.03249  0.2774  0.7107
6.52e+09  0.2644  0.9148  -0.02588  0.03644  0.04531  0.007557  0.4798  0.5675
6.521e+09  0.5404  0.7477  -0.03113  0.02833  -0.03405  0.002021  0.6377  0.3765
6.522e+09  0.7905  0.5291  -0.01643  0.005746  -0.00554  0.05918  0.727  0.08441
6.524e+09  0.9315  0.2522  0.003713  0.03121  -0.00799  0.01039  0.7419  -0.1311
6.525e+09  0.9757  -0.09934  -0.01145  0.01146  0.007833  -0.01977  0.6194  -0.3642
6.526e+09  0.8208  -0.4591  -0.01418  -0.007616  -0.02052  0.01326  0.4216  -0.5963
6.528e+09  0.7086  -0.7273  0.0171  -0.04774  0.04694  0.04676  0.1745  -0.67
6.529e+09  0.338  -0.9366  -0.002704  -0.02244  -0.04506  0.006148  -0.05352  -0.7019
6.53e+09  -0.01947  -0.9695  -0.01257  0.0153  -0.001523  -0.01644  -0.2976  -0.6429
6.531e+09  -0.3415  -0.8875  0.002598  -0.02065  -0.02493  0.01593  -0.4409  -0.4439
6.532e+09  -0.6127  -0.7728  -0.02792  -0.02353  0.0111  0.0346  -0.5702  -0.2985
6.534e+09  -0.8383  -0.5623  -0.03225  -0.03365  0.01117  0.0017  -0.6629  -0.09623
6.535e+09  -0.9922  -0.176  -0.02329  0.01617  -0.08764  0.02419  -0.6146  0.09996
6.536e+09  -0.9895  0.1897  0.003128  -0.001586  -0.02012  -0.01427  -0.5727  0.2794
6.538e+09  -0.8492  0.5803  -0.005282  0.007777  0.01139  0.01446  -0.4425  0.4672
6.539e+09  -0.571  0.7374  0.01793  0.02382  0.003833  -0.008824  -0.2939  0.5873
6.54e+09  -0.2513  0.8912  -0.03042  0.025  -0.03294  0.02338  -0.05256  0.6738
6.541e+09  0.0352  1.014  -0.02927  -0.03696  0.00466  0.005451  0.1591  0.6553
6.542e+09  0.362  0.8717  0.02058  0.01076  0.01997  -0.01353  0.4059  0.5625
6.544e+09  0.6382  0.7594  0.02358  0.00667  -0.01284  -0.01755  0.6115  0.3842
6.545e+09  0.861  0.4623  0.02556  0.004436  -0.06627  0.02372  0.6808  0.1461
6.546e+09  0.999  0.1319  -0.02505  -0.02593  0.009331  -0.02072  0.7179  -0.0642
6.548e+09  0.9883  -0.3471  -0.0002393  -0.02217  0.01478  0.04954  0.677  -0.3276
6.549e+09  0.7887  -0.5351  0.003465  -0.02889  -0.02412  0.002805  0.5228  -0.5153
6.55e+09  0.5308  -0.7819  0.02574  0.005812  -0.008756  -0.004491  0.2818  -0.6779
