# Hz S RI R 50
6.25e+09  -0.6589  0.6091  -0.01595  0.01678  -0.04052  -0.02433  0.16  0.5058
6.251e+09  -0.4231  0.6539  0.005374  -0.001183  0.01672  0.0389  0.3827  0.42
6.252e+09  -0.07565  0.8752  -0.02289  -0.0006576  -0.02116  -0.004529  0.523  0.2715
6.254e+09  0.192  0.8412  0.01745  0.007838  -0.0007557  0.001168  0.5996  -0.02591
6.255e+09  0.4265  0.7612  -0.01639  0.02682  -0.06671  -0.01998  0.5727  -0.2416
6.256e+09  0.6428  0.5147  0.01784  0.01114  -0.0164  0.001348  0.4446  -0.4523
6.258e+09  0.8199  0.2367  0.01183  0.03298  -0.004716  0.008314  0.2617  -0.617
6.259e+09  0.8099  -0.001638  0.01217  -0.001312  0.05846  -0.006058  0.06336  -0.6815
6.26e+09  0.7167  -0.3361  -0.01135  0.02174  0.02632  -0.01158  -0.1933  -0.6489
6.261e+09  0.5542  -0.6223  0.0343  0.003449  0.0117  0.05948  -0.4273  -0.5441
6.262e+09  0.3287  -0.7558  0.01609  -0.03022  0.003294  0.03661  -0.6538  -0.3412
6.264e+09  0.1348  -0.8117  0.009778  0.00983  -0.003015  0.009181  -0.7383  -0.0874
6.265e+09  -0.183  -0.8065  0.007272  -0.009356  0.05693  0.0634  -0.6904  0.2032
6.266e+09  -0.4699  -0.6843  -0.0009419  -0.005016  0.0507  -0.01617  -0.5842  0.3952
6.268e+09  -0.6511  -0.5331  0.001786  -0.04507  -0.05581  -0.02469  -0.4301  0.569
6.269e+09  -0.7733  -0.2311  -0.02967  0.005651  -0.01844  0.04716  -0.1706  0.7342
6.27e+09  -0.8573  0.05329  -0.006849  0.004561  0.001765  0.03833  0.08473  0.7157
6.271e+09  -0.7381  0.3409  -0.03049  -0.04175  -0.06283  -0.03511  0.2873  0.7079
6.272e+09  -0.6496  0.6212  0.009171  0.01892  0.04002  0.03233  0.5397  0.5438
6.274e+09  -0.3415  0.7408  0.005011  0.01139  -0.01859  -0.02162  0.7034  0.3025
6.275e+09  -0.1372  0.8273  -0.01292  -0.001893  0.01704  -0.006048  0.7332  0.02071
6.276e+09  0.1461  0.789  -0.001415  0.0104  -0.009849  -0.009464  0.7099  -0.1949
6.278e+09  0.4366  0.6749  0.005664  -0.002669  -0.02776  -0.0332  0.6414  -0.4814
6.279e+09  0.6742  0.4872  -0.005713  -0.0003276  -0.0003893  0.01263  0.4071  -0.6547
6.28e+09  0.8609  0.2384  -0.00177  0.01641  -0.02475  0.03114  0.1544  -0.7651
6.281e+09  0.8174  -0.05347  0.01395  0.0002759  -0.03186  -0.006292  -0.1553  -0.7497
6.282e+09  0.7749  -0.2495  0.0217  -0.0003757  -0.01004  0.01319  -0.3628  -0.6826
6.284e+09  0.6195  -0.532  0.02697  -0.0001897  0.02061  -0.05659  -0.6057  -0.5213
6.285e+09  0.3421  -0.7187  0.02156  0.002308  -0.01036  -0.02766  -0.7344  -0.2978
6.286e+09  0.07119  -0.8079  0.007214  -0.007257  -0.01959  -0.07426  -0.7841  0.01229
6.288e+09  -0.1884  -0.7952  -0.006847  -0.001464  -0.04986  -0.01905  -0.7727  0.2566
6.289e+09  -0.496  -0.7083  0.01742  -0.01491  0.03285  -0.05053  -0.6352  0.5292
6.29e+09  -0.623  -0.5207  0.03916  0.02352  -0.01324  0.04083  -0.4233  0.6907
6.291e+09  -0.7996  -0.2177  -0.007233  -0.02634  -0.002937  -0.001381  -0.1319  0.8175
6.292e+09  -0.8428  0.09326  0.0218  0.01025  -0.0261  -0.04283  0.1302  0.8124
6.294e+09  -0.7091  0.3256  0.008109  0.002166  -0.05091  -0.007942  0.3984  0.7147
6.295e+09  -0.5864  0.6267  -0.001917  -0.03461  0.02023  -0.01676  0.6358  0.5472
6.296e+09  -0.3513  0.7565  -0.02136  0.006073  0.04403  0.02477  0.773  0.3006
6.298e+09  -0.08687  0.8279  -0.01889  0.01298  0.07085  0.008582  0.8274  0.009795
6.299e+09  0.2291  0.7596  -0.04132  -0.0169  0.03042  0.06267  0.8212  -0.2708
6.3e+09  0.4937  0.7341  0.02387  0.0152  -0.00489  0.03941  0.6485  -0.5293
6.301e+09  0.7037  0.4747  -0.01418  0.02269  -0.01976  0.007287  0.434  -0.7334
6.302e+09  0.8245  0.195  0.0143  -0.006636  0.04187  0.01812  0.1647  -0.8241
6.304e+09  0.7886  -0.1  -0.008555  0.01656  0.067  -0.02558  -0.1276  -0.8401
6.305e+09  0.7921  -0.3919  0.01691  0.000399  -0.002384  0.02933  -0.4096  -0.7677
6.306e+09  0.5663  -0.6  0.004608  0.02438  -0.01489  0.0005195  -0.6612  -0.5426
6.308e+09  0.3632  -0.7829  0.0001208  -0.01943  0.01009  0.006231  -0.8093  -0.318
6.309e+09  0.03243  -0.8215  -0.00391  -0.02837  0.02084  -0.02187  -0.8854  0.009344
6.31e+09  -0.2335  -0.8187  0.001949  -0.001172  -0.002233  0.01087  -0.8033  0.2806
6.311e+09  -0.5451  -0.6775  -0.003874  0.002032  -0.01279  0.0003969  -0.6512  0.5319
6.312e+09  -0.7399  -0.4285  0.03553  0.005098  0.005563  0.0126  -0.4307  0.7967
6.314e+09  -0.8342  -0.1555  -0.0001693  0.004451  -0.01746  0.01561  -0.1367  0.8914
6.315e+09  -0.8337  0.1445  -0.0121  -0.009931  -0.008407  0.02523  0.168  0.87
6.316e+09  -0.7678  0.4449  -0.003768  0.00228  -0.00328  -0.03597  0.4258  0.7587
6.318e+09  -0.5727  0.6954  -0.005332  0.009776  -0.02104  -0.03609  0.6697  0.5556
6.319e+09  -0.2677  0.7755  -0.008392  -0.003129  -0.03035  -0.03364  0.806  0.3265
6.32e+09  -0.01078  0.8229  0.01041  0.02665  0.02997  -0.009675  0.8687  -0.01176
6.321e+09  0.2582  0.8096  0.02178  0.01963  -0.01172  0.005526  0.8418  -0.2674
6.322e+09  0.5737  0.6113  -0.0171  -0.01601  0.04863  -0.04301  0.6971  -0.5771
6.324e+09  0.7406  0.4045  0.03286  0.03237  -0.0496  -0.0419  0.4592  -0.7506
6.325e+09  0.8672  0.1243  -0.005679  -0.01108  0.0008836  -0.01151  0.1666  -0.8882
6.326e+09  0.8782  -0.1466  -0.007731  0.01855  -0.02128  -0.04545  -0.1475  -0.8706
6.328e+09  0.7312  -0.4588  -0.01875  0.0136  -0.02034  0.01247  -0.4348  -0.8168
6.329e+09  0.5725  -0.6459  -0.002455  -0.0154  0.01939  -0.02968  -0.7007  -0.5928
6.33e+09  0.253  -0.8104  -0.01937  0.0101  0.003719  -0.01351  -0.8206  -0.3254
6.331e+09  -0.08325  -0.8492  -0.005682  -0.03621  0.0316  0.01876  -0.9128  -0.008338
6.332e+09  -0.3083  -0.7514  -0.004049  0.008217  0.006653  -0.02158  -0.8549  0.2826
6.334e+09  -0.6343  -0.6185  -0.00271  -0.003019  -0.02584  0.03411  -0.6906  0.5575
6.335e+09  -0.7663  -0.3883  0.01995  0.02311  0.01055  0.01382  -0.4667  0.7672
6.336e+09  -0.9059  -0.09596  0.01218  0.02416  0.06323  0.02258  -0.213  0.891
6.338e+09  -0.9026  0.2105  -0.01618  0.007815  -0.003705  -0.04557  0.1522  0.8833
6.339e+09  -0.6989  0.4983  0.01494  -0.0428  -0.04255  -0.05306  0.3696  0.8252
6.34e+09  -0.4692  0.7164  0.01424  0.04193  0.03276  0.01286  0.6904  0.6843
6.341e+09  -0.1966  0.8367  0.008431  -0.0002589  -0.002567  0.008952  0.8473  0.3585
6.342e+09  0.0816  0.8855  0.002858  0.04173  0.008884  -0.02334  0.9604  0.05031
6.344e+09  0.3974  0.8087  -0.01752  -0.005797  0.001878  0.02886  0.8758  -0.2839
6.345e+09  0.6394  0.5763  -0.01869  -0.006504  -0.008648  -0.01097  0.7503  -0.5399
6.346e+09  0.8446  0.3744  0.022  7.446e-05  -0.05553  -0.005982  0.5187  -0.8356
6.348e+09  0.8561  0.05014  -0.0334  0.03389  -0.01474  -0.008048  0.1903  -0.9251
6.349e+09  0.8223  -0.3103  -0.01842  -0.02791  0.01134  -0.03944  -0.1324  -0.9297
6.35e+09  0.7101  -0.5502  0.02392  -0.01913  0.02568  0.004057  -0.419  -0.8013
6.351e+09  0.4231  -0.8092  0.01262  -0.0001789  0.008023  -0.01892  -0.6616  -0.6967
6.352e+09  0.1671  -0.8569  -0.01012  0.04407  0.009194  -0.01464  -0.8486  -0.3846
6.354e+09  -0.1422  -0.8541  0.02617  0.01994  0.02024  0.009739  -0.9217  -0.1021
6.355e+09  -0.5021  -0.769  0.01145  -0.01185  -0.01319  -0.04766  -0.9312  0.2833
6.356e+09  -0.6779  -0.5045  -0.02189  -0.05079  0.009278  0.01883  -0.7554  0.5369
6.358e+09  -0.8083  -0.2819  0.02572  0.02648  -0.02771  -0.03947  -0.5581  0.779
6.359e+09  -0.9123  0.06406  -0.0005391  -0.01302  0.007851  -0.02421  -0.1996  0.9456
6.36e+09  -0.8292  0.3555  -0.008145  -0.009142  0.002257  0.02248  0.1613  0.9224
6.361e+09  -0.6482  0.6432  0.03541  -0.01928  -0.02349  0.01441  0.4064  0.8315
6.362e+09  -0.3981  0.8218  -0.02056  0.04484  -0.01549  -0.02714  0.6617  0.6525
6.364e+09  -0.07563  0.8994  -0.009354  -0.01142  0.03619  0.02631  0.8259  0.3929
6.365e+09  0.2196  0.8653  0.03787  0.01478  0.02143  -0.01843  0.9714  0.06169
6.366e+09  0.5098  0.706  0.0001304  -0.01989  -0.007799  -0.004354  0.9192  -0.2307
6.368e+09  0.6966  0.4733  -0.004223  0.0512  0.006872  -0.004502  0.7216  -0.5613
6.369e+09  0.8313  0.2222  0.005645  -0.002049  -0.02098  -0.005039  0.5504  -0.7961
6.37e+09  0.9018  -0.07619  -0.02891  0.02129  -0.008113  -0.0008186  0.2593  -0.913
6.371e+09  0.8332  -0.3948  0.02891  0.0139  -0.01717  0.007911  -0.05129  -0.9694
6.372e+09  0.5868  -0.6582  0.04042  0.02665  -0.01609  -0.0513  -0.3739  -0.873
6.374e+09  0.3587  -0.8264  -0.03349  0.02723  -0.003481  0.006295  -0.663  -0.6581
6.375e+09  0.02563  -0.931  0.001739  -0.007876  -0.01471  -0.01073  -0.8273  -0.4432
6.376e+09  -0.3015  -0.8164  0.02009  -0.01464  0.01056  0.04412  -0.9593  -0.1117
6.378e+09  -0.5587  -0.6775  0.02307  -0.005198  0.0367  -0.006228  -0.8944  0.2829
6.379e+09  -0.7629  -0.4466  -0.03496  0.02526  -0.02059  -0.006259  -0.7868  0.5091
6.38e+09  -0.8308  -0.1915  -0.02135  0.008368  0.008969  -0.04953  -0.5381  0.7315
6.381e+09  -0.9005  0.1886  0.006957  0.003454  -0.03377  0.02488  -0.2725  0.89
6.382e+09  -0.7893  0.4905  0.03678  -0.04195  -0.002108  -0.01012  0.07065  0.9231
6.384e+09  -0.5523  0.6819  0.004137  -0.01015  -0.02198  0.01334  0.3732  0.8486
6.385e+09  -0.2853  0.8142  -0.01856  -0.007901  0.002961  -0.01692  0.6224  0.6536
6.386e+09  0.007072  0.8915  -0.004902  0.0283  -0.003276  -0.08645  0.8555  0.4185
6.388e+09  0.3395  0.8081  -0.04226  8.526e-05  -0.01181  0.02162  0.9321  0.1002
6.389e+09  0.5577  0.6642  -0.01256  0.002422  0.02652  -0.002632  0.9221  -0.2336
6.39e+09  0.8168  0.4463  0.01577  0.01588  -0.02321  -0.008729  0.7497  -0.4935
6.391e+09  0.8944  0.1173  -0.007722  0.02511  -0.03083  0.006085  0.5833  -0.7201
6.392e+09  0.8927  -0.1686  0.003212  -0.01344  -0.01826  -0.0007544  0.2771  -0.8712
6.394e+09  0.7512  -0.4601  0.002692  0.01235  0.01153  -0.004227  -0.03742  -0.9146
6.395e+09  0.4936  -0.7326  0.02911  0.003512  0.002171  0.07693  -0.357  -0.8846
6.396e+09  0.2516  -0.8584  0.002221  -0.0156  -0.01253  0.002375  -0.6055  -0.6939
6.398e+09  -0.05476  -0.9237  -0.03489  0.02316  0.01305  -0.008352  -0.8274  -0.4324
6.399e+09  -0.3581  -0.7815  0.04117  -0.02804  0.01276  -0.04561  -0.919  -0.1552
6.4e+09  -0.6157  -0.61  -0.03966  -0.01838  -0.03146  0.03819  -0.9197  0.1595
6.401e+09  -0.7801  -0.3847  0.0422  -0.03447  0.002523  0.01196  -0.8648  0.4605
6.402e+09  -0.8724  -0.0948  0.02295  -0.04293  -0.005302  0.02937  -0.57  0.6926
6.404e+09  -0.8247  0.214  0.06768  0.01442  0.008257  -0.02674  -0.3307  0.8561
6.405e+09  -0.6815  0.5091  0.05406  -0.03623  0.01204  0.02025  0.03616  0.8507
6.406e+09  -0.5315  0.7534  -0.004891  0.04121  0.01001  0.01288  0.2987  0.8602
6.408e+09  -0.2038  0.8992  -0.04202  -0.003305  0.02635  0.02391  0.5747  0.7072
6.409e+09  0.1091  0.881  0.007741  0.01376  0.002618  0.003618  0.7856  0.4291
6.41e+09  0.3937  0.8406  0.00969  -0.0516  0.01376  -0.001956  0.9029  0.2177
6.411e+09  0.6548  0.6504  0.008402  0.009616  0.0008438  -0.01311  0.8536  -0.1512
6.412e+09  0.7875  0.3549  -0.02257  -0.02506  0.004123  0.01435  0.8223  -0.4549
6.414e+09  0.8501  0.05238  -0.06741  0.006096  0.002845  0.02981  0.5794  -0.6692
6.415e+09  0.8198  -0.2362  0.04357  0.006741  -0.001705  0.02104  0.3421  -0.8605
6.416e+09  0.6616  -0.5068  0.02099  -0.02864  0.0252  -0.04433  0.02797  -0.9383
6.418e+09  0.4816  -0.7063  0.01062  0.002967  -0.002019  -0.009352  -0.2377  -0.901
6.419e+09  0.1794  -0.884  0.02069  0.01915  -0.01003  0.03307  -0.5684  -0.704
6.42e+09  -0.1058  -0.8735  0.01336  -0.02355  0.05677  0.0288  -0.7383  -0.5005
6.421e+09  -0.3937  -0.7494  -0.01143  0.03441  -0.03078  0.004375  -0.9054  -0.2086
6.422e+09  -0.6302  -0.6235  -0.007662  0.01323  -0.03099  0.007169  -0.8848  0.1075
6.424e+09  -0.7847  -0.2933  -0.02142  -0.02125  -0.03487  -0.02137  -0.7703  0.3683
6.425e+09  -0.8951  -0.00248  -0.003774  0.013  -0.002005  -0.01363  -0.6022  0.6438
6.426e+09  -0.8357  0.2529  -0.01219  0.002802  2.476e-05  0.03087  -0.3507  0.8017
6.428e+09  -0.6725  0.5637  -0.03291  0.003764  0.007601  -0.01659  -0.05474  0.8854
6.429e+09  -0.4503  0.7303  -0.02168  0.02266  -0.03618  -0.02096  0.2666  0.845
6.43e+09  -0.1275  0.8655  -0.0001475  -0.002506  0.04328  0.05552  0.5141  0.7398
6.431e+09  0.1892  0.8753  -0.04359  -0.0115  0.006372  -0.03303  0.738  0.5269
6.432e+09  0.3964  0.7396  0.03802  0.02592  -0.002939  -0.03411  0.8768  0.1893
6.434e+09  0.6706  0.56  0.02846  -0.001868  0.03388  -0.004694  0.8375  -0.09355
6.435e+09  0.8351  0.3285  -0.01415  -0.04264  0.03604  0.004895  0.7711  -0.3748
6.436e+09  0.9197  0.01398  0.01055  0.01452  0.002189  -0.007548  0.6148  -0.5988
6.438e+09  0.8581  -0.2813  -0.01813  -0.005198  -0.01049  0.0222  0.3514  -0.7715
6.439e+09  0.6447  -0.5437  -0.03136  0.00602  0.009058  0.007228  0.07095  -0.8744
6.44e+09  0.4416  -0.7585  -0.01596  0.01818  -0.02816  0.06328  -0.2046  -0.8136
6.441e+09  0.1614  -0.8822  -0.02308  0.02687  -0.04701  0.04433  -0.507  -0.7161
6.442e+09  -0.1145  -0.8973  -0.008822  -0.01984  0.009636  0.01482  -0.697  -0.4398
6.444e+09  -0.4336  -0.7456  -0.02012  -0.0211  -0.04173  -0.01659  -0.7778  -0.2049
6.445e+09  -0.6277  -0.5272  0.0189  0.01867  -0.05301  -0.01435  -0.8194  0.05301
6.446e+09  -0.8373  -0.3297  0.02599  -0.009326  0.01862  -0.04752  -0.7468  0.3575
6.448e+09  -0.8771  -0.004363  -0.04898  0.04947  0.05558  -0.003119  -0.5813  0.607
6.449e+09  -0.8317  0.332  0.06354  0.03038  -0.003756  0.06511  -0.3587  0.7721
6.45e+09  -0.6839  0.5094  0.02472  0.01361  0.04067  0.005874  -0.1193  0.8349
6.451e+09  -0.4411  0.7222  0.001511  0.007964  0.0135  0.01305  0.2281  0.8075
6.452e+09  -0.1388  0.845  -0.005629  0.05253  0.03348  -0.0471  0.4928  0.6871
6.454e+09  0.1448  0.8663  -0.01775  0.04783  0.00766  0.0111  0.6822  0.4904
6.455e+09  0.452  0.7292  0.01908  0.01267  0.05611  -0.01997  0.8139  0.2333
6.456e+09  0.6541  0.5293  0.04822  0.02067  0.01777  0.03848  0.8273  -0.07423
6.458e+09  0.8484  0.2565  -0.0144  0.03091  0.0469  -0.03641  0.7055  -0.3339
6.459e+09  0.8578  -0.04199  0.02743  -0.04072  0.01662  0.0242  0.5773  -0.6162
6.46e+09  0.7535  -0.2929  -0.04436  0.02529  -0.01357  -0.007311  0.336  -0.7317
6.461e+09  0.6061  -0.6022  -0.02255  0.0126  -0.02243  0.03626  0.07918  -0.7991
6.462e+09  0.4036  -0.6998  -0.02959  0.01751  0.006562  0.03215  -0.2362  -0.766
6.464e+09  0.1326  -0.8326  0.04673  -0.005287  -0.04104  -0.03912  -0.479  -0.6316
6.465e+09  -0.1381  -0.8625  0.009541  -0.01087  0.02145  -0.01304  -0.6441  -0.46
6.466e+09  -0.4572  -0.7807  -0.01258  -0.006067  -0.001128  -0.02023  -0.7176  -0.23
6.468e+09  -0.6712  -0.572  0.008167  -0.001434  -0.004751  -0.05328  -0.8012  0.04676
6.469e+09  -0.8326  -0.287  -0.02621  -0.027  -0.02184  0.01804  -0.707  0.3519
6.47e+09  -0.8587  0.008046  -0.01793  0.02878  0.03732  0.02432  -0.561  0.5626
6.471e+09  -0.7707  0.2925  -0.001397  -0.03123  -0.01893  0.01773  -0.3199  0.6966
6.472e+09  -0.6908  0.5966  -0.008129  -0.06457  0.02488  -0.01584  -0.07308  0.7876
6.474e+09  -0.4386  0.7455  -0.01026  -0.0145  -0.01375  0.05693  0.2067  0.7686
6.475e+09  -0.1058  0.9097  -0.005875  0.01652  0.01584  0.02798  0.5028  0.64
6.476e+09  0.1591  0.8868  0.01893  0.05657  0.0341  -0.007392  0.6643  0.4452
6.478e+09  0.4539  0.7445  0.0375  -0.03805  -0.0245  -0.0225  0.7173  0.2183
6.479e+09  0.6993  0.5618  -0.00931  -0.008661  -0.0002212  0.03325  0.764  -0.08085
6.48e+09  0.8371  0.2593  -0.0001401  -0.0354  -0.02154  0.02936  0.6795  -0.3141
6.481e+09  0.902  -0.04084  -0.009662  -0.05318  0.02287  0.000223  0.4909  -0.5589
6.482e+09  0.8025  -0.3723  -0.02361  0.00403  -0.02037  0.02213  0.3243  -0.7595
6.484e+09  0.6922  -0.6591  0.03347  0.001721  -0.02394  -0.02735  0.0333  -0.8031
6.485e+09  0.4251  -0.7672  -0.005379  -0.01532  0.02111  0.04686  -0.2239  -0.7489
6.486e+09  0.04717  -0.8986  -0.01533  -0.01685  0.03332  -0.02602  -0.4408  -0.6271
6.488e+09  -0.1938  -0.8893  0.04493  -0.0006364  0.01562  -0.008019  -0.6436  -0.4371
6.489e+09  -0.5098  -0.7502  0.01834  -0.00141  0.0312  -0.004473  -0.7532  -0.1902
6.49e+09  -0.7248  -0.5364  0.02365  -0.01393  0.01061  0.05519  -0.7762  0.1375
6.491e+09  -0.8716  -0.2782  0.0476  0.0108  -0.01313  0.03671  -0.6877  0.3534
6.492e+09  -0.9007  0.05321  -0.01175  0.002671  0.02121  0.09501  -0.5236  0.5543
6.494e+09  -0.8254  0.3758  -0.02914  0.0255  -0.03193  -0.07624  -0.2929  0.6588
6.495e+09  -0.6155  0.5769  0.0348  -0.02881  0.006443  -0.02465  -0.02676  0.781
6.496e+09  -0.423  0.8306  -0.02923  -0.01529  0.03842  -0.009108  0.243  0.7406
6.498e+09  -0.1352  0.8599  0.03086  0.02575  -0.02413  0.01237  0.4609  0.5945
6.499e+09  0.2079  0.8698  -0.005263  0.01715  0.02634  -0.01153  0.6388  0.4285
6.5e+09  0.5015  0.7371  -0.002077  0.02912  -0.0117  -0.01945  0.7316  0.1709
6.501e+09  0.7493  0.5158  0.0117  0.0205  -0.006137  -0.04428  0.7489  -0.1165
6.502e+09  0.864  0.2283  -0.0324  -0.02462  -0.02347  -0.01658  0.6847  -0.3518
6.504e+09  0.94  -0.04792  -0.0113  0.04201  0.003371  -0.02796  0.5144  -0.5667
6.505e+09  0.8227  -0.3481  0.03053  -0.01101  0.01587  0.04471  0.277  -0.7027
6.506e+09  0.672  -0.6386  -0.01235  0.01792  -0.02294  0.006744  0.002397  -0.8159
6.508e+09  0.4095  -0.8127  0.01103  0.02817  0.05778  0.0001173  -0.2461  -0.7317
6.509e+09  0.04196  -0.9005  0.04994  0.005714  -0.01871  0.02249  -0.4582  -0.5815
6.51e+09  -0.2776  -0.918  -0.04643  -0.01521  -0.03098  -0.02486  -0.6322  -0.3822
6.511e+09  -0.5155  -0.7531  -0.0147  -0.02833  -0.021  0.01038  -0.7777  -0.126
6.512e+09  -0.7792  -0.4955  0.03322  -0.003204  -0.02079  -0.03403  -0.7626  0.146
6.514e+09  -0.8797  -0.2355  0.006743  -0.03212  0.02192  0.005954  -0.6759  0.3567
6.515e+09  -0.9155  0.06631  -0.01857  -0.0379  -0.03022  0.05386  -0.478  0.5576
6.516e+09  -0.8154  0.4057  0.005953  -0.01474  -0.003774  0.03746  -0.2399  0.7065
6.518e+09  -0.6441  0.6428  -0.0002794  0.01346  -0.01559  -0.01033  0.03858  0.746
6.519e+09  -0.4147  0.8384  0.01257  0.01521  0.03872  0.01299  0.2692  0.6947
6.52e+09  -0.06411  0.9575  -0.03819  0.009864  -0.03933  -0.07977  0.5143  0.5583
6.521e+09  0.325  0.8557  -0.0146  -0.002989  0.007831  0.007166  0.6729  0.33
6.522e+09  0.5767  0.779  0.02884  -0.02072  -0.03234  0.01514  0.7177  0.09982
6.524e+09  0.8399  0.4678  -0.01865  0.001171  0.02032  -0.03398  0.7271  -0.1709
6.525e+09  0.9351  0.198  0.004683  -0.01933  0.002526  0.004417  0.6246  -0.4083
6.526e+09  1.008  -0.1101  -0.01234  0.01232  -0.01007  0.02341  0.4225  -0.5598
6.528e+09  0.8579  -0.4373  0.0171  -0.0009913  0.02296  -0.0193  0.1814  -0.6936
6.529e+09  0.6205  -0.7194  -0.01722  0.03876  -0.001685  0.001352  -0.06325  -0.6625
6.53e+09  0.3721  -0.884  -0.01138  0.02649  0.02805  -0.02554  -0.2719  -0.5847
6.531e+09  0.009523  -0.8906  -0.0009903  0.03695  0.04763  0.01901  -0.4342  -0.4589
6.532e+09  -0.3559  -0.877  -0.01856  -0.005715  0.04889  -0.05083  -0.6089  -0.3257
6.534e+09  -0.5693  -0.7193  0.02136  0.007796  -0.04088  0.02096  -0.6366  -0.0984
6.535e+09  -0.8532  -0.4476  -0.006405  0.02269  -0.0164  0.03478  -0.6485  0.163
6.536e+09  -0.9593  -0.102  0.01611  -0.0157  -0.00351  0.02705  -0.5836  0.3216
6.538e+09  -0.9232  0.1995  -0.0004838  0.002633  -0.07143  -0.03526  -0.4416  0.4829
6.539e+09  -0.8717  0.4853  -0.006391  0.01555  -0.008756  0.009544  -0.2955  0.6053
6.54e+09  -0.6181  0.8208  0.01108  0.01016  0.04686  -0.006589  -0.05356  0.6729
6.541e+09  -0.3455  0.9413  -0.02771  -0.0081  0.007722  -0.03113  0.1787  0.6508
6.542e+09  0.1297  0.9035  -0.0224  -0.02084  0.0122  0.005161  0.4184  0.5357
6.544e+09  0.3852  0.9274  0.002203  0.02655  -0.02189  0.004918  0.5642  0.4107
6.545e+09  0.7395  0.7187  0.00988  -0.002463  0.03279  -0.006169  0.7308  0.1686
6.546e+09  0.8518  0.4349  -0.02293  0.008339  -0.00248  -0.004816  0.7194  -0.05787
6.548e+09  0.9846  0.07879  -0.01808  -0.01055  0.000873  0.003947  0.6858  -0.3476
6.549e+09  0.9383  -0.2485  0.005255  -0.0008963  0.0146  -0.01464  0.4967  -0.5138
6.55e+09  0.7581  -0.6058  -0.01246  -0.0004625  0.0172  0.03971  0.2998  -0.6403
