# Hz S RI R 50
6.25e+09  -0.4192  0.8061  -0.009249  -0.02804  0.01876  0.02316  0.1536  0.4416
6.251e+09  -0.167  0.8819  -0.003284  -0.0351  -0.05819  -0.02729  0.3896  0.4443
6.252e+09  0.1984  0.8473  0.07219  -0.003935  -0.03476  0.01327  0.5406  0.2398
6.254e+09  0.4279  0.669  0.008684  0.01336  -0.00892  -0.03041  0.6294  0.02727
6.255e+09  0.6936  0.4627  -0.01952  0.01217  -0.01224  0.007849  0.5911  -0.2288
6.256e+09  0.85  0.2548  0.009712  -0.02232  0.008584  -0.02244  0.4841  -0.4123
6.258e+09  0.8161  -0.08275  -0.00989  -0.01087  -0.005681  0.01175  0.2794  -0.6025
6.259e+09  0.7651  -0.3467  0.005613  -0.01744  0.01385  -0.05036  0.07016  -0.6515
6.26e+09  0.5915  -0.5584  0.02457  0.003942  0.003616  -0.04492  -0.2127  -0.6644
6.261e+09  0.3488  -0.7533  0.01273  0.01847  0.01807  0.006521  -0.4354  -0.5767
6.262e+09  0.098  -0.8034  0.02083  -0.006532  0.01509  0.01038  -0.593  -0.3701
6.264e+09  -0.2013  -0.8869  0.0191  -0.01921  -0.06952  -0.003224  -0.6611  -0.09386
6.265e+09  -0.4847  -0.6799  -0.009859  -0.0007667  -0.04325  0.04593  -0.6846  0.1744
6.266e+09  -0.7134  -0.4707  -0.004664  0.04946  -0.01615  -0.02938  -0.6048  0.3904
6.268e+09  -0.7944  -0.1972  0.03887  0.009563  0.02486  -0.006007  -0.4109  0.5847
6.269e+09  -0.7976  0.04214  -0.003753  -0.009227  0.007931  -0.009443  -0.1911  0.739
6.27e+09  -0.7237  0.3771  -0.01708  -0.004937  0.0461  -0.01516  0.06172  0.7406
6.271e+09  -0.5791  0.5945  0.01259  -0.009105  0.0242  -0.003151  0.3161  0.6614
6.272e+09  -0.3648  0.7708  -0.006356  -0.002951  0.001364  -0.03472  0.5292  0.5414
6.274e+09  -0.02923  0.8046  0.01596  0.01866  -0.04132  0.02364  0.7161  0.2926
6.275e+09  0.2289  0.7941  -0.004189  -0.006958  0.01618  -0.005015  0.7531  0.04343
6.276e+09  0.4639  0.6963  -0.01548  0.01319  0.009457  -0.005767  0.7713  -0.2151
6.278e+09  0.709  0.466  -0.02767  0.003386  -0.04574  0.01201  0.6173  -0.4461
6.279e+09  0.8266  0.2608  0.02112  -0.01378  -0.02384  0.0595  0.4113  -0.6657
6.28e+09  0.8596  -0.1  -0.0311  0.001059  -0.03889  -0.02977  0.1569  -0.7419
6.281e+09  0.7595  -0.3819  0.01395  0.0311  0.03521  0.03187  -0.1203  -0.7444
6.282e+09  0.5893  -0.5526  0.001666  0.003241  0.001551  0.01638  -0.3584  -0.6808
6.284e+09  0.3229  -0.8119  -0.01246  0.009746  0.05384  -0.01071  -0.5682  -0.5514
6.285e+09  0.03897  -0.8234  -0.004031  -3.371e-05  0.00912  0.03283  -0.7172  -0.2865
6.286e+09  -0.2549  -0.8069  -0.01052  0.02638  0.005522  0.0331  -0.7733  -0.02159
6.288e+09  -0.4809  -0.6905  0.02892  0.003021  0.02766  0.01054  -0.7357  0.2603
6.289e+09  -0.6723  -0.4275  0.01838  0.003207  0.001394  0.03882  -0.6584  0.5392
6.29e+09  -0.8322  -0.2261  -0.008816  -0.002627  0.01218  -0.02758  -0.3967  0.7099
6.291e+09  -0.756  0.08149  0.009427  0.008987  0.01534  -0.006505  -0.1481  0.7787
6.292e+09  -0.7407  0.3696  -0.00694  -0.003934  -0.04069  -0.008709  0.1186  0.8031
6.294e+09  -0.5517  0.6523  -0.01318  0.00973  -0.02463  0.01065  0.4497  0.7163
6.295e+09  -0.3657  0.7508  0.04004  -0.009  -0.007479  -0.03227  0.614  0.5217
6.296e+09  -0.02513  0.8745  -0.006242  0.03268  -0.007301  0.02189  0.7923  0.3376
6.298e+09  0.3084  0.7492  -0.01776  0.002165  -0.0004766  -0.02036  0.8447  0.002391
6.299e+09  0.5163  0.6994  0.02377  -0.006586  0.02746  -0.03722  0.7568  -0.2722
6.3e+09  0.6876  0.4449  -0.02354  0.03231  0.07974  -0.02773  0.6748  -0.5468
6.301e+09  0.8098  0.1563  0.02801  -0.02023  0.01938  -0.02502  0.4286  -0.727
6.302e+09  0.8646  -0.1142  -0.007974  -0.03342  0.01298  0.0351  0.1745  -0.8404
6.304e+09  0.7542  -0.4227  -0.002924  0.01688  -0.002708  -0.005481  -0.1443  -0.8556
6.305e+09  0.5199  -0.6569  -0.01274  0.009593  -0.02307  -0.03997  -0.4139  -0.7225
6.306e+09  0.2502  -0.7962  -0.008437  0.01561  -0.04291  -0.003373  -0.6449  -0.5409
6.308e+09  0.02505  -0.8511  -0.02048  0.007027  -0.03814  -0.05005  -0.7933  -0.2984
6.309e+09  -0.3399  -0.7707  0.01304  0.01216  0.03282  0.06586  -0.8549  0.02542
6.31e+09  -0.535  -0.6804  -0.002175  0.02185  -0.01453  -0.05642  -0.832  0.3091
6.311e+09  -0.7484  -0.4107  -0.0006661  0.001059  0.04089  -0.04339  -0.6842  0.5678
6.312e+09  -0.8247  -0.07704  -0.003023  -0.01315  -0.03365  -0.0263  -0.4452  0.7489
6.314e+09  -0.7926  0.2055  -0.02702  -0.00279  -0.001175  -0.009539  -0.1271  0.8845
6.315e+09  -0.6984  0.4541  -0.01013  0.0206  0.00539  0.01573  0.1594  0.894
6.316e+09  -0.4962  0.6838  0.005035  -0.002534  -0.03959  -0.009752  0.4065  0.7321
6.318e+09  -0.2425  0.8379  -0.02704  0.03744  -0.02332  -0.01081  0.6596  0.5635
6.319e+09  0.05998  0.8546  0.02655  0.01609  0.004705  0.026  0.8242  0.3273
6.32e+09  0.3207  0.7692  -0.02333  -0.002039  -0.02379  -0.04101  0.8769  0.01018
6.321e+09  0.592  0.5792  -0.007115  0.004337  0.05865  -0.02636  0.8364  -0.3064
6.322e+09  0.8438  0.4329  -0.0227  -0.01045  0.01489  0.006454  0.6764  -0.5533
6.324e+09  0.9094  0.05625  0.009419  8.217e-05  0.005128  0.0009563  0.4625  -0.7335
6.325e+09  0.804  -0.2025  -0.01263  0.01483  0.02044  0.02928  0.192  -0.8787
6.326e+09  0.7107  -0.506  0.01002  0.0007889  0.006166  -0.005675  -0.1463  -0.8963
6.328e+09  0.526  -0.7268  0.003254  -0.01787  0.04106  -0.01793  -0.4328  -0.7783
6.329e+09  0.2013  -0.851  0.003176  0.005597  0.007849  -0.03144  -0.6522  -0.6073
6.33e+09  -0.0994  -0.8311  0.008656  0.002597  0.002383  0.001959  -0.8401  -0.3219
6.331e+09  -0.3756  -0.7612  0.02122  -0.02121  0.006158  -0.00324  -0.9114  -0.02062
6.332e+09  -0.6477  -0.5794  -0.01785  0.009346  0.03494  0.02814  -0.8812  0.2632
6.334e+09  -0.7681  -0.3112  0.0231  -0.004128  -0.00288  0.01696  -0.7552  0.5403
6.335e+09  -0.8771  -0.04994  -0.04202  0.02  -0.03811  0.006555  -0.4717  0.7691
6.336e+09  -0.7805  0.3082  -0.02199  -0.00786  -0.02225  0.05579  -0.1967  0.8736
6.338e+09  -0.6351  0.5391  -0.02571  -0.003704  0.07679  -0.003145  0.135  0.9214
6.339e+09  -0.3921  0.7539  0.02513  0.009494  0.02113  -0.0332  0.4523  0.8238
6.34e+09  -0.1704  0.8617  -0.01025  0.03451  0.006131  -0.008343  0.6811  0.6589
6.341e+09  0.1635  0.8618  0.0008993  0.03009  0.01589  0.01653  0.8835  0.3427
6.342e+09  0.4404  0.7765  -0.0228  -0.01035  0.04451  0.003538  0.9119  0.04947
6.344e+09  0.6655  0.538  -0.0154  0.02428  0.002481  0.03149  0.9108  -0.2437
6.345e+09  0.7919  0.2553  -0.005367  -0.007208  -0.006721  -0.01573  0.7337  -0.5531
6.346e+09  0.9252  -0.01326  -0.01279  -0.0006686  0.005332  0.01237  0.5163  -0.7954
6.348e+09  0.8214  -0.2964  -0.0001002  -0.007763  0.02523  0.00924  0.1664  -0.934
6.349e+09  0.7248  -0.5619  -0.02144  0.004285  0.02299  -0.03276  -0.09074  -0.9195
6.35e+09  0.3948  -0.8182  -0.004065  -0.04456  0.04289  0.02244  -0.4164  -0.8068
6.351e+09  0.1574  -0.8492  0.02828  -0.008181  -0.05031  -0.005323  -0.6643  -0.6593
6.352e+09  -0.1866  -0.8853  0.01385  0.01041  0.008762  -0.01869  -0.8159  -0.3548
6.354e+09  -0.502  -0.7891  -0.00694  0.003154  0.009712  0.005945  -0.9597  -0.05825
6.355e+09  -0.7286  -0.5226  -0.01135  0.005479  -0.04868  0.006169  -0.9394  0.2308
6.356e+09  -0.8522  -0.2019  0.006641  0.007176  -0.01701  0.03572  -0.7772  0.5205
6.358e+09  -0.8982  0.03938  0.01846  0.008214  0.06052  0.02405  -0.5817  0.7735
6.359e+09  -0.8382  0.4134  -0.01477  0.03448  0.006675  -0.003203  -0.2437  0.8959
6.36e+09  -0.6355  0.6372  0.01177  0.01373  -0.02753  -0.02125  0.09176  0.9177
6.361e+09  -0.3637  0.7913  0.0115  0.02678  -0.002494  0.02734  0.4194  0.8677
6.362e+09  -0.06221  0.9605  0.002362  0.01522  -0.01922  -0.0301  0.6906  0.6752
6.364e+09  0.2357  0.8172  -0.01829  0.01381  0.03398  0.03375  0.8676  0.378
6.365e+09  0.5124  0.7244  0.0001319  -0.03316  -0.06329  0.01874  0.9261  0.06228
6.366e+09  0.7624  0.4392  -0.001524  0.01539  -0.002464  0.02049  0.8773  -0.2243
6.368e+09  0.8483  0.21  0.002411  -0.01473  -0.01939  -0.02725  0.7861  -0.5402
6.369e+09  0.8887  -0.1576  -0.02405  -0.01976  -0.009216  0.004356  0.5241  -0.7604
6.37e+09  0.8094  -0.4642  0.01944  0.01267  0.005994  -0.004178  0.2309  -0.9409
6.371e+09  0.5122  -0.6909  0.03054  0.0294  -0.004133  -0.005191  -0.08752  -0.9557
6.372e+09  0.3115  -0.8984  -0.01141  -0.01546  -0.03897  0.005577  -0.3864  -0.8813
6.374e+09  0.007116  -0.8462  -0.06302  -0.014  -0.009049  0.00676  -0.66  -0.6748
6.375e+09  -0.3073  -0.8582  0.01753  0.05307  -0.003029  0.05743  -0.8858  -0.4027
6.376e+09  -0.5754  -0.6845  0.0053  0.01651  -0.01148  0.001225  -0.945  -0.09444
6.378e+09  -0.7666  -0.4023  0.0115  -0.02582  0.02217  -0.03698  -0.9335  0.23
6.379e+09  -0.8913  -0.1115  0.0009065  -0.01597  -0.004521  -0.02618  -0.7959  0.5386
6.38e+09  -0.8999  0.1969  0.0001568  -0.00645  -0.021  0.01702  -0.5779  0.7826
6.381e+09  -0.7513  0.5203  0.005456  -0.0252  -0.02554  -0.0431  -0.2704  0.9324
6.382e+09  -0.5416  0.6992  0.005529  0.02754  0.003613  0.004948  0.09214  0.9087
6.384e+09  -0.2473  0.8539  0.0118  0.01693  0.005648  0.002969  0.3967  0.864
6.385e+09  0.05928  0.8821  -0.03991  -0.002725  -0.005512  0.03934  0.6812  0.6522
6.386e+09  0.341  0.8614  0.0256  -0.006981  0.0357  0.007053  0.8291  0.4594
6.388e+09  0.6188  0.6539  0.02716  0.01709  0.04048  0.00733  0.9035  0.1132
6.389e+09  0.8159  0.4298  0.04278  -0.001197  0.01501  -0.03381  0.8616  -0.2011
6.39e+09  0.8366  0.08742  0.01332  0.02625  -0.04789  -0.009756  0.7693  -0.4841
6.391e+09  0.9024  -0.2379  -0.04916  -0.02468  0.009414  0.002799  0.5654  -0.7696
6.392e+09  0.7746  -0.4421  -0.003447  -0.008693  0.03621  0.02983  0.2761  -0.8851
6.394e+09  0.4971  -0.7311  -0.02823  0.01174  -0.001267  -0.02188  -0.0323  -0.9434
6.395e+09  0.1968  -0.8494  -0.009499  -0.003349  0.02146  -0.001334  -0.3723  -0.8845
6.396e+09  -0.008635  -0.894  -0.00281  0.03472  0.001725  -0.03257  -0.6106  -0.6558
6.398e+09  -0.3557  -0.8318  -0.03016  0.02689  -0.05065  -0.02822  -0.8003  -0.4293
6.399e+09  -0.6255  -0.609  -0.01326  0.02989  -0.03406  -0.007243  -0.8962  -0.1236
6.4e+09  -0.8158  -0.3959  0.0504  -0.005638  0.006854  -0.04651  -0.868  0.1544
6.401e+09  -0.8728  -0.07683  0.02609  0.006353  0.0008675  0.007019  -0.7657  0.5055
6.402e+09  -0.8586  0.2325  -0.01729  -0.006725  -0.01352  -0.004251  -0.634  0.7278
6.404e+09  -0.6912  0.4592  0.0467  -0.01347  0.01504  0.01115  -0.3005  0.9214
6.405e+09  -0.5261  0.7044  -0.007892  0.02755  0.01632  0.02542  0.02667  0.9709
6.406e+09  -0.2242  0.8142  -0.02303  -0.04626  -0.0105  -0.02143  0.2944  0.8802
6.408e+09  0.1205  0.8876  -0.01071  0.04493  0.005318  0.0655  0.5964  0.6596
6.409e+09  0.3868  0.7549  -0.004016  -0.01043  -0.03212  0.04437  0.7605  0.4647
6.41e+09  0.6148  0.6245  0.0008302  -0.008387  0.007651  -0.02538  0.9157  0.1436
6.411e+09  0.7992  0.3469  0.004775  -0.04631  -0.02005  0.03423  0.9202  -0.1243
6.412e+09  0.865  0.03438  0.02537  -0.02174  -0.0745  -0.05185  0.8138  -0.4677
6.414e+09  0.8403  -0.2816  0.02152  -0.00802  -0.06458  0.04572  0.5722  -0.7159
6.415e+09  0.703  -0.4914  0.01028  -0.02227  -0.01904  0.01009  0.2994  -0.8102
6.416e+09  0.4978  -0.7804  -0.004328  0.02717  -0.001422  0.002614  0.05028  -0.8773
6.418e+09  0.2029  -0.8481  -0.0229  -0.0359  -0.001978  -0.02983  -0.2714  -0.8708
6.419e+09  -0.09794  -0.9153  -0.0291  -0.04132  -0.01373  -0.004614  -0.5816  -0.674
6.42e+09  -0.4203  -0.7863  0.02398  0.007661  0.0006943  0.01143  -0.7579  -0.4721
6.421e+09  -0.6431  -0.5914  -0.008372  -0.04566  0.03226  0.02093  -0.8448  -0.1948
6.422e+09  -0.7615  -0.2928  -0.009114  -0.03207  -0.01634  -0.01324  -0.8642  0.07729
6.424e+09  -0.8466  -0.07373  0.003852  0.0342  -0.02753  -0.01265  -0.781  0.3614
6.425e+09  -0.8563  0.2849  0.06197  0.01724  0.03016  -0.002929  -0.6183  0.6227
6.426e+09  -0.7124  0.476  0.02369  -0.01399  -0.001194  0.001473  -0.3266  0.7983
6.428e+09  -0.4149  0.7441  -0.03581  -0.01921  0.04602  -0.03471  -0.03312  0.8931
6.429e+09  -0.1196  0.8575  0.01093  0.01851  0.03328  0.0001723  0.2344  0.8342
6.43e+09  0.1124  0.8235  -0.04558  0.01003  0.003287  -0.05289  0.5369  0.7462
6.431e+09  0.4272  0.7842  0.01689  0.01066  0.005823  0.002114  0.7019  0.4485
6.432e+09  0.6517  0.5701  0.04358  -0.002087  0.02976  -0.03838  0.8635  0.2014
6.434e+09  0.8071  0.322  0.02217  -0.01296  -0.01376  -0.0154  0.8688  -0.08886
6.435e+09  0.8395  -0.04155  0.02635  -0.006322  -0.06683  -0.001554  0.7325  -0.4058
6.436e+09  0.843  -0.2514  0.01839  -0.01224  -0.01659  0.02375  0.613  -0.6337
6.438e+09  0.704  -0.556  0.01887  -0.02369  -0.01632  0.07777  0.3478  -0.7895
6.439e+09  0.488  -0.7554  0.01804  0.0008939  0.02814  0.03916  0.05512  -0.8539
6.44e+09  0.1705  -0.9021  -0.01921  -0.01379  -0.00605  0.068  -0.1915  -0.7964
6.441e+09  -0.166  -0.8644  0.02497  0.0207  -0.05031  -0.01585  -0.5067  -0.6886
6.442e+09  -0.412  -0.7848  0.01494  0.02338  -0.03147  -0.0275  -0.7132  -0.4636
6.444e+09  -0.6855  -0.5937  0.03068  -0.007532  -0.001893  -0.002076  -0.825  -0.2157
6.445e+09  -0.8061  -0.327  -0.0006614  0.03668  -0.03903  0.01687  -0.8417  0.08482
6.446e+09  -0.8585  -0.0144  0.02739  0.01536  0.04086  0.0125  -0.7818  0.3043
6.448e+09  -0.854  0.2828  -0.01883  -0.002559  -0.03044  0.01373  -0.5884  0.6062
6.449e+09  -0.6697  0.5336  0.02751  -0.001843  0.04837  0.007279  -0.3982  0.8055
6.45e+09  -0.4409  0.7682  -0.008558  -0.01886  0.004053  -0.01289  -0.1279  0.8171
6.451e+09  -0.1662  0.883  0.01233  -0.03017  -0.02806  0.005905  0.2183  0.8101
6.452e+09  0.1391  0.873  0.01275  0.01019  0.02777  0.003745  0.5116  0.6551
6.454e+09  0.3922  0.7838  -0.004486  0.016  0.01847  0.02523  0.7278  0.4604
6.455e+09  0.6939  0.5557  0.01004  -0.02176  -0.003278  0.01626  0.7597  0.1584
6.456e+09  0.818  0.2981  3.351e-05  -0.02285  0.01709  0.04174  0.8762  -0.07851
6.458e+09  0.9072  0.03724  0.02618  0.02043  -0.03098  0.04631  0.7418  -0.3453
6.459e+09  0.8213  -0.2954  0.01954  0.02006  0.02531  -0.01859  0.5641  -0.5813
6.46e+09  0.7149  -0.5447  -0.0114  -0.02097  -0.01723  -0.02101  0.3582  -0.7564
6.461e+09  0.494  -0.7498  -0.01871  -0.02592  -0.007901  -0.003494  0.002183  -0.7902
6.462e+09  0.1505  -0.8594  0.0008033  0.0189  -0.07593  0.01258  -0.1652  -0.7794
6.464e+09  -0.1374  -0.9031  -0.03083  0.01249  -0.03348  0.02853  -0.4485  -0.6566
6.465e+09  -0.408  -0.7739  0.04482  -0.02215  0.02617  -0.005653  -0.6534  -0.4354
6.466e+09  -0.6592  -0.5728  0.04064  0.00391  0.006808  0.03152  -0.7601  -0.2373
6.468e+09  -0.864  -0.2934  -0.01598  -0.02119  -0.01914  0.04806  -0.7755  0.09677
6.469e+09  -0.8666  0.02877  -0.02752  0.004276  9.534e-05  0.009019  -0.769  0.3842
6.47e+09  -0.8136  0.3355  -0.03341  -0.006851  0.005093  0.008044  -0.5698  0.5644
6.471e+09  -0.7248  0.5157  0.01849  0.02785  0.03  0.007679  -0.3036  0.7467
6.472e+09  -0.4257  0.8003  0.002042  -0.004346  0.03353  -0.02205  -0.05521  0.7779
6.474e+09  -0.1833  0.906  0.01676  0.04685  -0.0009188  0.05903  0.204  0.8077
6.475e+09  0.1734  0.9599  0.01063  -0.05531  -0.01452  -0.0233  0.4671  0.6591
6.476e+09  0.5017  0.7777  -0.001571  0.002723  0.001058  -0.01359  0.6577  0.453
6.478e+09  0.7504  0.6211  -0.02045  -0.01112  0.01705  -0.003905  0.7784  0.2075
6.479e+09  0.9202  0.3236  -0.003329  0.04781  -0.01744  0.02335  0.8033  -0.05504
6.48e+09  0.9437  -0.01911  -0.01236  0.004391  0.02239  -0.01085  0.6588  -0.335
6.481e+09  0.8495  -0.3605  -0.02271  0.004222  0.01896  -0.002408  0.5704  -0.557
6.482e+09  0.6861  -0.6084  0.0286  -0.0221  0.006207  -0.006033  0.3161  -0.7091
6.484e+09  0.3965  -0.8093  0.03624  0.004662  -0.05301  0.004599  0.05335  -0.8073
6.485e+09  0.1047  -0.9516  0.01879  0.004103  -0.04245  0.03904  -0.2297  -0.7673
6.486e+09  -0.1845  -0.9032  0.02594  0.0192  0.06481  0.005187  -0.4831  -0.5802
6.488e+09  -0.4741  -0.7729  0.009056  0.0295  -0.008712  -0.01463  -0.6467  -0.4401
6.489e+09  -0.7291  -0.5679  0.04991  -0.007016  -0.04724  -0.004669  -0.7634  -0.2043
6.49e+09  -0.9097  -0.2829  -0.005513  -0.04686  0.05261  -0.001508  -0.7634  0.06397
6.491e+09  -0.9271  0.03751  0.01944  -0.03362  0.02819  -0.02945  -0.6848  0.3303
6.492e+09  -0.9232  0.3223  -0.05235  -0.01626  -0.01225  0.01993  -0.5354  0.579
6.494e+09  -0.6857  0.5989  0.02544  -0.009198  0.04015  -0.007053  -0.3091  0.7307
6.495e+09  -0.4496  0.8457  0.01446  -0.01559  0.02538  0.01276  -0.06904  0.7749
6.496e+09  -0.05074  0.8922  0.007115  -0.01523  0.02862  0.01969  0.2789  0.7205
6.498e+09  0.2558  0.884  -0.003939  -0.03887  -0.003872  0.05169  0.4356  0.6245
6.499e+09  0.5677  0.8076  -0.01696  0.007816  0.01596  -0.008999  0.6291  0.4283
6.5e+09  0.7529  0.5412  0.01292  -0.02244  -0.04196  0.01892  0.7466  0.1444
6.501e+09  0.9052  0.2218  0.04496  -0.02994  0.03775  0.01296  0.7499  -0.1369
6.502e+09  0.9145  -0.1348  -0.01112  0.0124  -0.04001  0.02598  0.6408  -0.3779
6.504e+09  0.7811  -0.3917  0.01405  0.004625  -0.02374  0.005467  0.5467  -0.556
6.505e+09  0.6465  -0.6536  0.009183  0.02478  -0.000856  -0.01704  0.3094  -0.7013
6.506e+09  0.4161  -0.8768  0.01589  0.001467  0.02862  0.01686  0.02489  -0.7072
6.508e+09  0.0997  -0.8999  -0.001512  -0.01323  0.06079  0.01451  -0.2312  -0.7248
6.509e+09  -0.2766  -0.9011  -0.02111  -0.02921  -0.003469  -0.05147  -0.4902  -0.6102
6.51e+09  -0.5649  -0.7637  0.002648  0.01158  2.068e-05  0.02758  -0.6247  -0.3889
6.511e+09  -0.8135  -0.5106  0.01838  -0.02736  -0.02139  0.009044  -0.7597  -0.1129
6.512e+09  -0.9091  -0.2094  -0.01438  0.02916  0.009882  -0.05803  -0.7287  0.165
6.514e+09  -0.9799  0.1535  0.00856  -0.008855  0.04019  -0.03783  -0.6325  0.3906
6.515e+09  -0.8497  0.4226  0.009192  -0.0003784  0.02718  -0.001464  -0.4475  0.6008
6.516e+09  -0.6636  0.698  0.009835  0.01944  0.007121  0.002422  -0.269  0.6956
6.518e+09  -0.3626  0.8702  -0.03186  -0.005879  -0.03758  -0.0265  0.01975  0.766
6.519e+09  -0.02457  0.9608  0.01716  0.01503  0.006912  0.004747  0.2574  0.6754
6.52e+09  0.3212  0.8884  0.002978  -0.01885  -0.01939  -0.02149  0.4579  0.5836
6.521e+09  0.6042  0.7867  -0.01756  -0.00466  -0.0117  -0.004731  0.6314  0.357
6.522e+09  0.8272  0.4979  0.01601  -0.01672  0.01326  -0.03795  0.744  0.1052
6.524e+09  1.026  0.1637  -0.01704  -0.0198  -0.00281  0.03396  0.7028  -0.1486
6.525e+09  0.9159  -0.1937  -0.02828  -0.000754  0.04046  -0.007731  0.5504  -0.3906
6.526e+09  0.8776  -0.5648  -0.002406  0.013  -0.03203  0.0401  0.4396  -0.5785
6.528e+09  0.605  -0.8004  -0.009302  -0.005449  -0.006514  0.008284  0.1644  -0.6864
6.529e+09  0.358  -0.8913  -0.02827  -0.02661  0.003386  -0.002824  -0.06585  -0.7091
6.53e+09  -0.05952  -0.9558  0.02132  -0.01223  0.003095  0.01017  -0.262  -0.6675
6.531e+09  -0.3454  -0.9318  0.007188  0.002748  0.03274  -0.02383  -0.4556  -0.4863
6.532e+09  -0.6957  -0.7715  -0.03256  -0.02013  0.007148  -0.03865  -0.5978  -0.2647
6.534e+09  -0.875  -0.4507  0.03606  0.03421  0.00202  0.02129  -0.6306  -0.07332
6.535e+09  -0.9403  -0.1469  -0.02005  0.0353  -0.01419  -0.006033  -0.6307  0.09826
6.536e+09  -0.9838  0.2072  0.01048  0.02661  0.01673  -0.01838  -0.5565  0.3309
6.538e+09  -0.8067  0.5892  -0.01108  0.02338  -0.009664  -0.02381  -0.4383  0.5036
6.539e+09  -0.5649  0.8378  -0.03537  0.0036  -0.01917  -0.05495  -0.241  0.5987
6.54e+09  -0.3207  0.9749  0.0004315  0.008004  0.02612  0.05124  -0.04394  0.6905
6.541e+09  0.07263  0.9699  0.03547  -0.003604  -0.01977  -0.01019  0.1623  0.6722
6.542e+09  0.4469  0.9032  0.0138  0.01926  -0.003326  0.0408  0.4176  0.5623
6.544e+09  0.6835  0.6743  0.003009  0.02473  0.0306  0.04351  0.6362  0.4197
6.545e+09  0.8915  0.4112  -0.02912  0.04044  -0.0214  -0.02206  0.7254  0.1575
6.546e+09  0.9218  0.05714  -0.01141  0.005697  0.05519  0.00942  0.7285  -0.1212
6.548e+09  0.893  -0.2809  0.002635  -0.01815  0.02726  0.04318  0.6532  -0.3448
6.549e+09  0.7653  -0.5744  0.02639  -0.01021  0.0156  -0.008023  0.5082  -0.5418
6.55e+09  0.4731  -0.8169  0.0004245  0.01095  0.01028  -0.01137  0.307  -0.7102
