# Hz S RI R 50
6.25e+09  -0.4118  0.7495  0.02113  -0.01322  -0.01337  0.002535  0.1467  0.5047
6.251e+09  -0.1542  0.8011  0.01598  0.002993  -0.005144  0.02467  0.3672  0.376
6.252e+09  0.1452  0.8726  -0.004428  -0.008802  0.03838  0.01955  0.5202  0.2591
6.254e+09  0.4852  0.7632  -0.0286  0.0005348  -0.01639  -0.008214  0.6291  0.0002087
6.255e+09  0.7014  0.52  0.01352  0.004178  0.03196  -0.08573  0.5808  -0.2186
6.256e+09  0.8207  0.3134  0.02426  0.01715  0.004117  0.0007596  0.4694  -0.4193
6.258e+09  0.8332  -0.002897  0.006521  0.01861  0.009132  0.03213  0.2764  -0.6363
6.259e+09  0.8213  -0.3178  0.007009  0.001926  0.01027  0.009991  0.05042  -0.6911
6.26e+09  0.6524  -0.5236  0.007431  0.006913  -0.02451  -0.004885  -0.1831  -0.6496
6.261e+09  0.3945  -0.7375  0.01692  0.02695  0.02093  0.003704  -0.4499  -0.5311
6.262e+09  0.1122  -0.8132  -0.02446  -0.002083  0.02866  -0.02035  -0.6233  -0.349
6.264e+09  -0.2024  -0.8154  -0.002451  -0.02659  -0.01245  0.0279  -0.6977  -0.1083
6.265e+09  -0.4414  -0.7458  0.02097  0.0147  0.02484  0.005233  -0.7202  0.1609
6.266e+09  -0.5793  -0.5123  0.008599  -0.01853  -0.005688  -0.03094  -0.592  0.3995
6.268e+09  -0.8353  -0.2465  -0.005663  -0.01368  0.04341  -0.02691  -0.4404  0.5959
6.269e+09  -0.8434  0.01805  0.0005782  -0.005477  -0.00751  0.03735  -0.2042  0.7232
6.27e+09  -0.7401  0.3201  0.00505  0.01949  0.04233  0.02352  0.05728  0.7715
6.271e+09  -0.6542  0.5539  -0.005806  0.007864  0.004899  0.06455  0.3317  0.7124
6.272e+09  -0.3893  0.7746  0.007115  -0.03646  -0.03296  -0.0233  0.5647  0.4837
6.274e+09  -0.07916  0.8439  -0.03908  -0.002875  0.02123  0.003285  0.6999  0.2921
6.275e+09  0.1985  0.8243  0.0002521  -0.02541  -0.01397  -0.03524  0.7629  0.03871
6.276e+09  0.4854  0.7258  -5.531e-05  -0.02333  0.03817  -0.01781  0.716  -0.2248
6.278e+09  0.6628  0.5229  0.02051  -0.0582  -0.02859  -0.01796  0.6116  -0.4987
6.279e+09  0.8005  0.2867  -0.0007659  0.01643  0.05186  -0.01566  0.4179  -0.6749
6.28e+09  0.836  -0.03362  -0.01826  0.001813  0.000918  -0.04575  0.1593  -0.7942
6.281e+09  0.7418  -0.3138  0.004357  -0.003002  0.009504  0.007545  -0.1004  -0.7302
6.282e+09  0.6336  -0.5722  -0.009585  -0.01965  0.03177  0.009127  -0.3666  -0.6689
6.284e+09  0.3262  -0.7644  -0.001944  -0.02183  0.02409  -0.02712  -0.6029  -0.5425
6.285e+09  0.08358  -0.8376  -0.00999  0.002219  0.009269  0.01649  -0.7217  -0.2608
6.286e+09  -0.2045  -0.8505  0.0132  0.002936  0.02638  0.004009  -0.7931  -0.0133
6.288e+09  -0.4611  -0.7025  0.02695  -0.001074  -0.00924  -0.02345  -0.7705  0.2808
6.289e+09  -0.6733  -0.5141  -0.02034  0.002471  -0.01518  0.01847  -0.6134  0.5206
6.29e+09  -0.8229  -0.2163  0.02135  -0.01002  0.05145  0.02704  -0.3925  0.6747
6.291e+09  -0.8304  0.09483  -0.03136  0.02067  -0.02786  -0.02218  -0.1894  0.7728
6.292e+09  -0.7459  0.366  -0.02356  -0.004712  -0.0006464  0.05003  0.134  0.7998
6.294e+09  -0.5672  0.6142  0.02258  -0.05013  0.01277  -0.03384  0.3954  0.7306
6.295e+09  -0.351  0.7345  -0.004081  0.01808  0.05847  0.002226  0.6333  0.568
6.296e+09  -0.07581  0.865  0.01998  0.02607  0.01081  0.04538  0.7722  0.2731
6.298e+09  0.2841  0.8  0.03196  0.01231  -0.05144  0.004822  0.8419  -0.003079
6.299e+09  0.5483  0.637  0.03857  0.00152  -0.01338  0.1061  0.7994  -0.2623
6.3e+09  0.7145  0.452  0.003566  0.01954  -0.01732  -0.004672  0.6602  -0.5558
6.301e+09  0.8415  0.1729  -0.01818  0.002628  -0.003502  0.009188  0.3967  -0.6883
6.302e+09  0.8829  -0.05688  0.0009276  0.01173  -0.01889  0.03217  0.1709  -0.7772
6.304e+09  0.7399  -0.3454  -0.007709  -0.001818  -0.0395  -0.0004112  -0.1503  -0.839
6.305e+09  0.5327  -0.6165  -0.004874  0.03222  0.02871  0.008175  -0.4514  -0.7175
6.306e+09  0.3055  -0.7992  -0.005387  -0.01123  0.02099  0.00516  -0.6642  -0.5636
6.308e+09  0.03114  -0.8473  -0.01714  0.007741  -0.008141  -0.01792  -0.8113  -0.3173
6.309e+09  -0.2777  -0.8758  0.01474  0.01285  0.03521  0.008297  -0.8513  -0.006318
6.31e+09  -0.4551  -0.6578  0.01301  -0.006132  -0.001682  0.01747  -0.8682  0.2706
6.311e+09  -0.7226  -0.4437  0.03148  -0.01902  0.02153  -0.03347  -0.6556  0.5497
6.312e+09  -0.8087  -0.1936  0.02933  -0.003838  0.01313  0.0007102  -0.4306  0.7353
6.314e+09  -0.8026  0.1567  0.003697  0.02323  -0.08063  -0.001486  -0.1746  0.8695
6.315e+09  -0.7376  0.3772  0.01295  0.004265  0.01475  0.0123  0.1202  0.8445
6.316e+09  -0.5188  0.6044  0.04185  0.008232  0.02623  -0.03338  0.4186  0.7736
6.318e+09  -0.2785  0.8491  -0.009222  0.01316  -0.02911  -0.0524  0.6783  0.5648
6.319e+09  0.004007  0.8663  0.03371  0.005127  0.002197  0.0388  0.8298  0.3213
6.32e+09  0.2672  0.7873  -0.003911  0.02513  0.0252  -0.02966  0.874  0.01056
6.321e+09  0.5332  0.6262  0.001175  -0.01433  0.03642  -0.03259  0.8841  -0.2812
6.322e+09  0.7499  0.4291  -0.02054  0.008136  0.009479  0.003847  0.6992  -0.5561
6.324e+09  0.8789  0.1199  -0.0331  0.004175  -0.009017  -0.0354  0.4459  -0.7859
6.325e+09  0.8776  -0.1926  0.01647  -0.0003379  -0.01589  -0.005787  0.1827  -0.8484
6.326e+09  0.7171  -0.5091  -0.03043  -0.003173  -0.007425  0.02268  -0.1608  -0.8762
6.328e+09  0.5322  -0.6946  -0.005947  0.03046  0.003665  -0.02742  -0.4494  -0.7979
6.329e+09  0.1937  -0.7766  -0.002815  0.01373  0.03726  0.03033  -0.6465  -0.5909
6.33e+09  -0.07285  -0.861  0.02458  0.01636  0.01437  -0.03338  -0.8564  -0.3195
6.331e+09  -0.3795  -0.8224  0.001458  -0.001623  0.03395  -0.001953  -0.8887  -0.03378
6.332e+09  -0.634  -0.6156  0.006398  -0.03048  0.01478  -0.02608  -0.8882  0.3248
6.334e+09  -0.7643  -0.4008  -0.01931  0.01857  -0.02599  -0.002277  -0.7133  0.5625
6.335e+09  -0.8467  -0.09429  0.007074  0.009833  0.003316  0.0229  -0.4479  0.7775
6.336e+09  -0.846  0.2343  -0.01777  0.03704  0.01653  0.03275  -0.208  0.8909
6.338e+09  -0.6869  0.5477  0.03821  -0.003037  0.007473  0.03442  0.1319  0.9004
6.339e+09  -0.5244  0.689  0.01227  -0.005052  -0.03682  -0.02272  0.4778  0.8043
6.34e+09  -0.2261  0.8919  -0.03498  -0.01176  0.02516  -0.0134  0.6739  0.608
6.341e+09  0.1068  0.8938  0.03063  -0.02165  0.02244  0.03756  0.8579  0.3393
6.342e+09  0.3588  0.7894  -0.02111  -0.008944  -0.02507  0.002179  0.8959  0.02113
6.344e+09  0.6372  0.5752  0.004018  -0.001486  -0.001463  0.0717  0.9027  -0.2704
6.345e+09  0.8458  0.3325  -0.01804  0.02334  0.009996  0.01322  0.7704  -0.555
6.346e+09  0.9179  0.03728  0.02663  -0.005669  -0.0249  -0.01628  0.5113  -0.7914
6.348e+09  0.7965  -0.3047  -0.003218  0.000324  -0.04008  0.01474  0.2144  -0.9194
6.349e+09  0.6893  -0.5505  -0.03742  0.03396  0.01201  0.00195  -0.1113  -0.9193
6.35e+09  0.4784  -0.7627  0.005164  0.01505  0.0108  -0.01073  -0.4206  -0.8368
6.351e+09  0.1684  -0.9348  0.0283  0.02293  -0.03491  -0.07412  -0.7031  -0.6812
6.352e+09  -0.1676  -0.8836  0.04115  0.02286  0.008024  -0.02444  -0.8626  -0.3519
6.354e+09  -0.4843  -0.7655  0.01058  -0.03189  0.01742  0.01216  -0.9894  -0.05142
6.355e+09  -0.7085  -0.546  -0.0003991  -0.03752  0.004573  0.04991  -0.8756  0.2457
6.356e+09  -0.8306  -0.2522  0.01308  -0.001757  0.04731  0.02163  -0.786  0.552
6.358e+09  -0.9083  0.05339  0.03781  0.004191  -0.000543  0.005852  -0.5412  0.8009
6.359e+09  -0.8017  0.3361  0.01186  -0.01779  0.02075  -0.02795  -0.2403  0.8956
6.36e+09  -0.6833  0.6054  -0.01524  -0.00881  -0.004163  0.01923  0.07334  0.9338
6.361e+09  -0.3738  0.8356  0.005905  0.01732  -0.05448  0.02405  0.4433  0.8852
6.362e+09  -0.1274  0.8721  -0.00907  0.01338  0.002006  -0.03048  0.6659  0.6719
6.364e+09  0.2163  0.8641  0.0197  0.03952  0.007142  0.0459  0.8376  0.397
6.365e+09  0.4703  0.7028  0.02688  -0.002194  0.03257  0.001302  0.9549  0.06803
6.366e+09  0.7585  0.514  0.002377  0.0007313  0.02363  0.02378  0.9193  -0.2233
6.368e+09  0.8435  0.2195  0.02505  0.01311  -0.02332  -0.05158  0.7739  -0.5547
6.369e+09  0.9104  -0.05718  0.03057  0.04684  0.01086  -0.02122  0.6019  -0.7767
6.37e+09  0.7458  -0.3933  0.02077  -0.01657  0.006668  -0.02054  0.2284  -0.9025
6.371e+09  0.6368  -0.7014  -0.00295  -0.01876  0.03974  -0.02569  -0.03881  -0.9461
6.372e+09  0.3224  -0.8505  -0.02055  0.01671  -0.01102  -0.03033  -0.4018  -0.8834
6.374e+09  0.1068  -0.8944  -0.01152  0.02234  -0.01676  -0.01568  -0.6704  -0.695
6.375e+09  -0.2701  -0.8258  -0.001976  0.001463  -0.002105  0.04183  -0.8612  -0.3924
6.376e+09  -0.5138  -0.6992  -0.002923  0.00871  -0.03655  0.04486  -0.9313  -0.1227
6.378e+09  -0.7691  -0.4315  -0.02853  0.01445  -0.002062  -0.006928  -0.9231  0.2216
6.379e+09  -0.9001  -0.147  -0.01243  -0.009583  0.01825  -0.001153  -0.7817  0.5322
6.38e+09  -0.8617  0.1603  0.02976  -0.01371  -0.003418  0.01129  -0.5479  0.7385
6.381e+09  -0.8414  0.4296  0.03028  -0.01668  -0.006867  -0.00841  -0.2393  0.921
6.382e+09  -0.6049  0.6807  -0.01422  0.03931  0.004406  -0.006705  0.0857  0.9204
6.384e+09  -0.3346  0.8541  -0.02669  0.01166  0.004844  0.02916  0.375  0.8332
6.385e+09  -0.009912  0.9189  0.01086  0.001406  0.03455  -0.0478  0.5936  0.6731
6.386e+09  0.3064  0.8332  -0.02993  -0.03831  0.01167  0.03816  0.8408  0.4224
6.388e+09  0.5424  0.7319  -0.02821  -0.01677  0.02878  0.006358  0.9557  0.1109
6.389e+09  0.816  0.4143  -0.01742  -0.04551  -0.01543  -0.02799  0.8795  -0.1882
6.39e+09  0.8688  0.1631  -0.01634  0.0342  -0.01147  0.0434  0.8139  -0.5174
6.391e+09  0.9219  -0.1398  -0.02507  -0.007427  -0.01364  -0.02446  0.5656  -0.7432
6.392e+09  0.7818  -0.4662  -0.001901  0.01702  0.004948  0.01926  0.3057  -0.9236
6.394e+09  0.5261  -0.6911  -0.01808  0.0005729  -0.01301  -0.004147  -0.0553  -0.9399
6.395e+09  0.2571  -0.8778  -0.005754  -0.00943  -0.04033  0.009382  -0.3394  -0.7808
6.396e+09  -0.04081  -0.8856  -0.03327  0.02281  0.02481  -0.04783  -0.5845  -0.7029
6.398e+09  -0.3456  -0.79  -0.003331  0.02285  0.02922  0.003787  -0.817  -0.4684
6.399e+09  -0.5831  -0.6876  -0.02523  -0.01146  -0.01731  0.03745  -0.8808  -0.1105
6.4e+09  -0.7172  -0.4343  -0.02306  0.01254  -0.04777  -0.01515  -0.8978  0.2179
6.401e+09  -0.8662  -0.1466  0.01902  -0.003617  0.01537  0.05892  -0.7996  0.4589
6.402e+09  -0.7989  0.2468  -0.02741  0.007095  -0.006838  -0.0447  -0.5991  0.7737
6.404e+09  -0.7349  0.4897  -0.02973  0.03804  0.01812  0.02128  -0.3097  0.8971
6.405e+09  -0.5201  0.6804  0.06191  0.007495  -0.02779  0.06323  -0.01861  0.914
6.406e+09  -0.3048  0.8159  0.004705  -0.01311  -0.01909  -0.01869  0.321  0.8597
6.408e+09  0.0242  0.8313  -0.01467  -0.003651  0.04658  -0.0218  0.5748  0.6976
6.409e+09  0.3606  0.8458  0.02165  0.006506  0.00388  -0.03514  0.7637  0.4859
6.41e+09  0.6137  0.662  0.0003746  -0.04358  -0.008031  0.02567  0.8851  0.1878
6.411e+09  0.8073  0.3812  -0.01686  0.0241  -0.003358  -0.007431  0.8753  -0.1478
6.412e+09  0.8858  0.09336  0.02798  -0.003936  0.002975  -0.01189  0.8042  -0.4079
6.414e+09  0.8791  -0.2408  -0.01912  -0.007224  0.02434  0.004517  0.6124  -0.6345
6.415e+09  0.7354  -0.5465  -0.001303  -0.006825  0.003008  -0.004102  0.2913  -0.8107
6.416e+09  0.538  -0.739  0.02087  0.02036  0.04586  -0.01476  0.007914  -0.9201
6.418e+09  0.2141  -0.8293  0.006031  -0.02457  0.006882  0.01109  -0.2712  -0.8619
6.419e+09  -0.06623  -0.9159  0.02978  0.002045  0.03326  -0.04188  -0.5643  -0.6939
6.42e+09  -0.3566  -0.8159  -0.01091  -0.03163  0.002614  -0.0183  -0.7335  -0.4749
6.421e+09  -0.6264  -0.6482  -0.00377  0.02031  -0.004424  0.007515  -0.8033  -0.2066
6.422e+09  -0.7769  -0.3831  -0.03326  0.04538  -0.04569  0.01837  -0.9166  0.09218
6.424e+09  -0.8934  -0.04002  -0.02289  -0.004069  0.01785  0.03205  -0.7927  0.4144
6.425e+09  -0.8033  0.2307  0.01917  -0.01376  0.000174  -0.05629  -0.5924  0.6537
6.426e+09  -0.6995  0.4807  0.01119  0.02557  0.0247  -0.004136  -0.3346  0.7944
6.428e+09  -0.5232  0.7265  0.01664  0.00894  0.009733  0.01753  -0.0599  0.9348
6.429e+09  -0.1788  0.8483  0.00826  0.05053  0.02161  0.06497  0.2275  0.8134
6.43e+09  0.1334  0.9197  -0.008923  0.05417  0.006525  0.002434  0.501  0.7092
6.431e+09  0.3946  0.7938  -0.0006313  0.01053  -0.02115  -0.03319  0.7122  0.4832
6.432e+09  0.6471  0.643  0.0206  0.02568  -0.001639  -0.00621  0.8469  0.1802
6.434e+09  0.7831  0.3669  0.02147  -0.01315  0.00139  0.008309  0.8716  -0.05251
6.435e+09  0.8651  0.04853  0.03872  0.02923  0.003887  -0.01885  0.7731  -0.3722
6.436e+09  0.8706  -0.2878  0.008886  0.04252  0.01272  -0.04334  0.5931  -0.5858
6.438e+09  0.7188  -0.5092  0.00078  0.00488  -0.04478  0.02611  0.3532  -0.7259
6.439e+09  0.4945  -0.7322  0.01171  0.02678  0.005613  -0.0134  0.1033  -0.8351
6.44e+09  0.2046  -0.8857  -0.02153  -0.001538  -0.05415  -0.02552  -0.2419  -0.787
6.441e+09  -0.149  -0.8902  0.01525  -0.02053  -0.002697  0.009687  -0.5187  -0.6574
6.442e+09  -0.402  -0.7946  0.05151  0.02593  0.04654  -0.007164  -0.7196  -0.498
6.444e+09  -0.6493  -0.5593  0.02273  0.001128  0.05069  -0.01039  -0.8695  -0.2344
6.445e+09  -0.8178  -0.375  -0.06146  0.01384  0.01175  0.03807  -0.8238  0.09303
6.446e+09  -0.8659  -0.06617  -0.01132  -0.01205  -0.01923  0.03015  -0.7732  0.3694
6.448e+09  -0.8377  0.2431  -0.0006082  0.03884  -0.01176  0.03255  -0.5951  0.6242
6.449e+09  -0.7778  0.5098  -0.01254  0.03918  0.0256  -0.003687  -0.337  0.7747
6.45e+09  -0.4517  0.7533  7.978e-05  -0.02067  -0.007887  -0.007964  -0.06181  0.8269
6.451e+09  -0.2032  0.9171  -0.01816  -0.01746  -0.0009664  0.02864  0.2384  0.7902
6.452e+09  0.0612  0.8346  -0.003816  0.008224  -0.05199  -0.007045  0.4689  0.6796
6.454e+09  0.406  0.8144  -0.02598  -0.0124  0.02139  -0.05256  0.7226  0.4194
6.455e+09  0.7083  0.5781  0.004363  -0.007884  -0.009786  -0.02018  0.8233  0.2181
6.456e+09  0.8214  0.3633  -0.01222  -0.006439  0.03671  0.04211  0.8068  -0.08512
6.458e+09  0.8848  -0.02001  0.0498  0.01208  0.06345  0.03485  0.7275  -0.333
6.459e+09  0.8702  -0.2555  0.05613  0.02838  0.007192  -0.0188  0.5478  -0.5561
6.46e+09  0.6995  -0.5182  -0.003365  0.005082  -0.008866  -0.04333  0.3356  -0.7476
6.461e+09  0.4159  -0.7994  -0.003818  -0.03183  0.02046  0.02563  0.07407  -0.7493
6.462e+09  0.2071  -0.8929  -0.01288  0.006676  -0.007561  -0.06892  -0.2304  -0.7937
6.464e+09  -0.1256  -0.9139  0.007019  0.02105  0.01523  -0.01588  -0.4528  -0.6506
6.465e+09  -0.3957  -0.8328  -0.004176  0.02226  -0.009191  -0.004435  -0.6313  -0.4802
6.466e+09  -0.6442  -0.6124  0.05042  -0.009206  0.03494  -0.02222  -0.7855  -0.216
6.468e+09  -0.8327  -0.3897  0.02793  -0.002818  -0.01162  -0.03256  -0.789  0.02649
6.469e+09  -0.9008  -0.04087  0.02096  0.002961  0.04742  0.01635  -0.7273  0.3072
6.47e+09  -0.8996  0.2741  0.01333  -0.01778  -0.004663  0.02273  -0.5877  0.5522
6.471e+09  -0.6638  0.5279  -0.04521  -0.0009481  0.0208  0.001059  -0.2877  0.6808
6.472e+09  -0.4752  0.7796  0.02978  0.03076  0.008715  -0.02247  -0.08637  0.7798
6.474e+09  -0.2724  0.9102  -0.02687  0.04296  -0.03156  -0.02885  0.2137  0.784
6.475e+09  0.1323  0.9097  0.03557  -0.0149  -0.01046  -0.02441  0.46  0.6411
6.476e+09  0.4427  0.8279  -0.03132  -0.0299  0.0853  0.005777  0.6752  0.4503
6.478e+09  0.7225  0.6177  0.006679  -0.004221  -0.0009954  0.04975  0.7388  0.2328
6.479e+09  0.8042  0.3224  0.02569  0.03544  -0.01443  0.02982  0.7873  -0.09991
6.48e+09  0.9208  0.06381  0.01065  0.003222  -0.01313  0.03316  0.7266  -0.3556
6.481e+09  0.8752  -0.2146  -0.0424  0.005756  0.005993  -0.02611  0.5576  -0.5917
6.482e+09  0.7012  -0.5923  -0.01063  -0.01141  0.009324  0.02821  0.3733  -0.7264
6.484e+09  0.4673  -0.8138  -0.03005  0.03461  -0.007127  -0.03206  0.05259  -0.7945
6.485e+09  0.1629  -0.8293  0.0355  0.03046  0.01209  -0.02398  -0.21  -0.733
6.486e+09  -0.1752  -0.8913  -0.03208  0.03983  0.00356  -0.02497  -0.4552  -0.6423
6.488e+09  -0.4134  -0.8061  0.003199  -0.0243  0.0311  -0.036  -0.6375  -0.4293
6.489e+09  -0.7449  -0.6535  0.0127  0.01706  -0.01357  -0.02373  -0.7652  -0.1758
6.49e+09  -0.8262  -0.3212  -0.01115  0.01747  0.01925  -0.03009  -0.765  0.07564
6.491e+09  -0.976  0.02048  -0.0659  0.04095  0.04806  -0.02942  -0.7059  0.339
6.492e+09  -0.8616  0.3437  0.01413  -0.008034  -0.04718  -0.007971  -0.5176  0.616
6.494e+09  -0.7076  0.5374  -0.0006603  0.01989  0.01074  0.04249  -0.3092  0.7015
6.495e+09  -0.4358  0.8212  0.04197  -0.00929  0.02265  0.009108  -0.08005  0.7525
6.496e+09  -0.1641  0.8999  0.01387  0.01249  -0.01383  -0.04398  0.2682  0.7313
6.498e+09  0.1706  0.9034  -0.03604  0.02202  0.001526  -0.01418  0.4812  0.6629
6.499e+09  0.4528  0.8551  0.01717  0.02378  -0.03448  0.002518  0.6507  0.3963
6.5e+09  0.6858  0.558  -0.0002942  -0.01592  0.03607  -0.03834  0.7534  0.1991
6.501e+09  0.8948  0.2941  -0.01269  -0.0179  0.03273  -0.01575  0.7538  -0.1052
6.502e+09  0.9218  -4.519e-05  -0.03191  0.03326  -0.05121  0.0399  0.6566  -0.3673
6.504e+09  0.9105  -0.3818  0.03814  0.01434  0.01847  -0.01917  0.4948  -0.6063
6.505e+09  0.7041  -0.6348  0.02899  -0.01416  -0.0009719  0.04139  0.2817  -0.7016
6.506e+09  0.4457  -0.8505  -0.03296  0.02883  -0.01963  0.05267  0.0336  -0.7577
6.508e+09  0.1363  -0.9623  -0.008182  -0.001333  0.03685  -0.03699  -0.2516  -0.7059
6.509e+09  -0.1868  -0.9053  -0.01017  -0.02692  -0.005732  0.003004  -0.5052  -0.5856
6.51e+09  -0.4944  -0.8267  0.03289  0.0219  0.0363  -0.01272  -0.6734  -0.3572
6.511e+09  -0.7882  -0.522  0.03139  0.002059  -0.05943  -0.01945  -0.7675  -0.1397
6.512e+09  -0.8632  -0.2479  0.04348  -0.005787  0.003776  0.03209  -0.725  0.1119
6.514e+09  -0.9663  0.04139  -0.03149  -0.02352  0.01475  0.005265  -0.6501  0.3704
6.515e+09  -0.9033  0.3341  -0.01539  -0.00872  0.004198  0.0419  -0.5039  0.569
6.516e+09  -0.6821  0.6822  0.007971  -0.03519  -0.03976  0.003236  -0.2398  0.7217
6.518e+09  -0.4582  0.8614  -0.0184  -0.02733  0.009874  0.01385  -0.01817  0.7641
6.519e+09  -0.09547  0.9821  -0.02316  -0.001595  -0.003368  0.04961  0.2982  0.6902
6.52e+09  0.2127  0.9447  -0.02262  0.003521  0.008962  -0.06696  0.4923  0.5558
6.521e+09  0.5705  0.7827  0.01089  -0.02591  0.08574  -0.01398  0.6598  0.3349
6.522e+09  0.8411  0.5367  0.03076  0.01444  0.01255  0.05308  0.7493  0.0945
6.524e+09  0.9746  0.2509  0.03598  -0.004035  0.05737  0.02679  0.701  -0.1384
6.525e+09  0.9901  -0.1307  0.03228  -0.0008397  0.04116  0.03712  0.6265  -0.4113
6.526e+09  0.8697  -0.4696  -0.009684  -0.009271  -0.01568  -0.02869  0.4524  -0.5753
6.528e+09  0.6853  -0.7337  0.01009  -0.01107  0.03944  -0.02472  0.2152  -0.7155
6.529e+09  0.3436  -0.9271  -0.008111  0.02826  -0.05815  -0.02283  -0.05461  -0.6801
6.53e+09  0.05799  -0.9643  0.01761  0.008601  -0.01295  -0.007661  -0.2482  -0.6517
6.531e+09  -0.3226  -0.9647  -0.02533  0.00384  -0.03319  -0.03039  -0.4767  -0.4883
6.532e+09  -0.6095  -0.7302  -0.009708  -0.02933  0.04009  -0.05336  -0.5758  -0.2651
6.534e+09  -0.8611  -0.4576  -0.006999  0.00573  -0.03072  0.03582  -0.6404  -0.1221
6.535e+09  -0.9759  -0.1474  0.002582  -0.01081  -0.03291  0.06969  -0.6254  0.09355
6.536e+09  -1.017  0.2102  0.002334  -0.0173  0.03968  0.0008666  -0.5569  0.3216
6.538e+09  -0.8347  0.4837  0.01097  0.02371  -0.0002485  0.00345  -0.4482  0.4444
6.539e+09  -0.6165  0.7542  -0.03266  0.01051  0.06066  0.05697  -0.2842  0.6304
6.54e+09  -0.2933  0.8999  -0.02611  0.01075  -0.0365  -0.009573  -0.05824  0.6448
6.541e+09  0.03006  0.9409  -0.001857  -0.008739  0.001197  -0.03008  0.2087  0.6396
6.542e+09  0.3728  0.8513  -0.01211  0.001516  -0.02177  -0.001631  0.418  0.5509
6.544e+09  0.6301  0.7343  0.01695  -0.009028  0.01879  0.02835  0.601  0.3917
6.545e+09  0.7999  0.4731  -0.01384  -0.03545  0.01268  -0.009657  0.6986  0.1836
6.546e+09  0.9675  0.1185  -0.03624  -0.001411  0.01215  0.009844  0.733  -0.09287
6.548e+09  0.9853  -0.2619  0.001204  -0.04162  -0.01632  -0.01701  0.6664  -0.3363
6.549e+09  0.7892  -0.5359  -0.01901  -0.03957  0.03913  0.01173  0.5156  -0.5276
6.55e+09  0.5402  -0.7715  0.001875  -0.01107  -0.05406  -0.03529  0.3039  -0.6528
