# Hz S RI R 50
6.25e+09  -0.6599  0.587  -0.01582  0.01199  -0.0632  -0.02902  0.1539  0.5022
6.251e+09  -0.4041  0.7198  0.002625  -0.02349  -0.002448  0.01767  0.3397  0.4175
6.252e+09  -0.08797  0.8567  -0.006268  0.001528  -0.005023  0.03179  0.5393  0.2744
6.254e+09  0.1831  0.8254  0.0002382  0.04955  -0.02311  0.01004  0.6441  0.01376
6.255e+09  0.4991  0.7244  -0.02173  -0.00625  0.04694  -0.05222  0.5777  -0.2187
6.256e+09  0.6817  0.5207  0.01554  0.01129  -0.08119  -0.03132  0.4835  -0.4595
6.258e+09  0.8411  0.2911  0.02114  0.02166  -0.03611  -0.05131  0.2875  -0.6099
6.259e+09  0.8253  -0.06225  0.01818  0.016  0.05706  0.01582  0.03598  -0.6876
6.26e+09  0.7618  -0.3243  -0.005648  -0.02231  -0.06101  -0.00714  -0.234  -0.6816
6.261e+09  0.5877  -0.5977  -0.002842  0.002576  0.05537  -0.002915  -0.4719  -0.5412
6.262e+09  0.3854  -0.7379  -0.00268  0.007943  0.008812  0.05129  -0.5997  -0.381
6.264e+09  0.03322  -0.7501  0.001773  -0.01359  0.01201  -0.03322  -0.7373  -0.1697
6.265e+09  -0.1901  -0.8345  0.01465  0.01566  -0.05001  0.01388  -0.7203  0.1757
6.266e+09  -0.4492  -0.6932  0.01323  0.02994  -0.02219  0.02835  -0.6162  0.4112
6.268e+09  -0.6629  -0.4582  -0.01292  0.005137  -0.01517  0.03409  -0.44  0.5804
6.269e+09  -0.7679  -0.2832  0.01732  -0.01827  0.01464  -0.04654  -0.1882  0.7147
6.27e+09  -0.8228  0.09142  -0.02843  0.008851  0.02901  -0.01983  0.07143  0.7491
6.271e+09  -0.7355  0.3737  0.00516  0.005078  0.005078  0.00608  0.3238  0.6526
6.272e+09  -0.553  0.6032  0.002096  -0.007474  -0.0126  -0.0027  0.5207  0.5378
6.274e+09  -0.3911  0.6952  -0.0392  -0.02664  0.03802  -0.04566  0.7132  0.2946
6.275e+09  -0.1092  0.8081  0.006601  0.01821  0.005467  0.01888  0.7771  0.069
6.276e+09  0.2268  0.7879  0.009099  0.0172  0.04378  0.01724  0.7262  -0.238
6.278e+09  0.5151  0.6324  -0.01426  -0.02386  0.009038  0.009322  0.5977  -0.4797
6.279e+09  0.7208  0.4556  -0.003256  0.02304  -0.001446  -0.02065  0.4069  -0.6542
6.28e+09  0.7612  0.2138  -0.02229  -0.004908  0.07872  -0.03299  0.1569  -0.7712
6.281e+09  0.8448  -0.01562  -0.01453  -0.007358  0.0644  -0.006079  -0.09493  -0.7285
6.282e+09  0.7215  -0.3611  0.001643  -0.0192  0.006295  0.003857  -0.3514  -0.698
6.284e+09  0.5272  -0.5791  0.01518  0.001765  0.06933  -0.06114  -0.5834  -0.5287
6.285e+09  0.3829  -0.7606  -0.01411  -0.02484  -0.01558  -0.01367  -0.7387  -0.307
6.286e+09  0.05155  -0.8164  -0.007493  0.01246  -0.008773  -0.02773  -0.7675  -0.01316
6.288e+09  -0.1744  -0.7954  0.01666  0.02169  -0.01161  -0.01043  -0.7698  0.2552
6.289e+09  -0.4637  -0.6695  -0.006276  -0.01364  0.02682  0.03796  -0.6179  0.5294
6.29e+09  -0.7163  -0.4398  -0.01235  -0.006523  -0.02958  0.03799  -0.45  0.6746
6.291e+09  -0.7866  -0.2017  -0.01024  0.02648  -0.01506  0.01054  -0.1709  0.798
6.292e+09  -0.7441  0.09151  0.001773  0.02438  0.02983  -1.919e-05  0.1067  0.83
6.294e+09  -0.7609  0.3581  -0.01844  -0.004231  -0.03152  -0.01479  0.405  0.7045
6.295e+09  -0.5987  0.5888  0.003974  0.002617  0.001275  0.0001039  0.6321  0.5297
6.296e+09  -0.3416  0.7894  -0.003676  -0.002839  -0.02503  0.01713  0.7806  0.3178
6.298e+09  -0.02082  0.8473  0.007033  -0.004201  -0.0103  -0.01945  0.8258  0.04102
6.299e+09  0.2705  0.7689  0.01387  0.02577  0.004008  -0.002577  0.8033  -0.3194
6.3e+09  0.4957  0.6424  -0.00116  -0.0142  0.02134  -0.06864  0.6278  -0.5266
6.301e+09  0.6794  0.3819  -0.008998  0.005898  0.01535  -0.01722  0.4351  -0.7436
6.302e+09  0.8126  0.1756  -0.00215  0.01655  0.0411  -0.005868  0.1261  -0.8011
6.304e+09  0.8469  -0.05959  0.0009537  0.009088  -0.001447  0.006802  -0.1194  -0.8294
6.305e+09  0.6631  -0.3935  0.009855  0.01793  0.03407  0.06562  -0.3938  -0.7282
6.306e+09  0.5051  -0.6737  0.0168  -0.01087  0.007164  -0.009186  -0.6591  -0.5367
6.308e+09  0.2992  -0.7729  -0.01159  -0.01899  0.03647  0.04006  -0.8002  -0.2971
6.309e+09  0.06671  -0.8245  0.0005577  -0.005161  -0.003216  -0.02079  -0.9118  -0.006108
6.31e+09  -0.279  -0.7366  -0.01644  -0.01569  0.02  -0.002386  -0.8018  0.2697
6.311e+09  -0.5491  -0.6159  0.01826  -0.02224  0.007659  -0.02701  -0.6828  0.5156
6.312e+09  -0.7173  -0.4201  0.003122  -0.01881  0.05171  0.03299  -0.4213  0.7441
6.314e+09  -0.8369  -0.1598  -0.02405  0.02833  -0.08071  0.0062  -0.1589  0.8403
6.315e+09  -0.8444  0.1653  -0.01334  -0.01386  -0.01455  0.01389  0.1207  0.8593
6.316e+09  -0.7593  0.402  0.01332  -0.006575  0.01597  0.002774  0.4055  0.7499
6.318e+09  -0.5455  0.6607  0.001379  -0.002789  0.008844  -0.01492  0.652  0.5704
6.319e+09  -0.3297  0.786  -0.002171  0.05208  0.03224  -0.03953  0.8423  0.3252
6.32e+09  0.01214  0.8308  0.0006522  -0.01474  0.003312  0.03108  0.8613  -0.01024
6.321e+09  0.3538  0.7977  0.02126  -0.01217  0.03283  -0.05162  0.8156  -0.2619
6.322e+09  0.5892  0.5961  -0.03872  -0.01655  -0.02131  0.00297  0.6816  -0.5716
6.324e+09  0.7354  0.3951  -0.001598  -0.0009503  0.004926  0.00149  0.4844  -0.7464
6.325e+09  0.8341  0.09797  0.006036  0.01254  0.006166  -0.002164  0.1675  -0.9009
6.326e+09  0.8334  -0.1574  -0.006624  -0.001805  -0.02205  -0.007991  -0.1443  -0.8976
6.328e+09  0.7231  -0.5132  0.01169  -0.01208  0.02247  -0.008611  -0.4024  -0.8243
6.329e+09  0.494  -0.6784  0.003291  -0.03883  0.02918  -0.03988  -0.6477  -0.6007
6.33e+09  0.2637  -0.8668  -0.03332  -0.03187  0.05881  0.003377  -0.8457  -0.3585
6.331e+09  -0.02917  -0.8668  -0.02598  0.005399  -0.001892  -0.02487  -0.916  -0.05479
6.332e+09  -0.3391  -0.8078  -0.002248  -0.01099  -0.03839  -0.01982  -0.8578  0.2801
6.334e+09  -0.615  -0.6346  -0.002914  -0.02462  -0.03176  -0.0007603  -0.7192  0.5748
6.335e+09  -0.7609  -0.3744  -0.0002038  -0.03731  -0.01772  -0.01247  -0.52  0.7786
6.336e+09  -0.8764  -0.08568  0.009362  0.00582  -0.02432  -0.006286  -0.1905  0.8861
6.338e+09  -0.8429  0.2718  0.0008528  -0.02109  -0.01538  0.01463  0.116  0.9374
6.339e+09  -0.7066  0.5279  -0.03647  0.05813  0.00765  0.02733  0.4486  0.8141
6.34e+09  -0.4514  0.7728  -0.01919  0.006465  -0.01199  0.006481  0.6521  0.6209
6.341e+09  -0.1913  0.8692  0.01816  -0.009587  -0.01106  -0.004226  0.8518  0.3637
6.342e+09  0.1203  0.8371  -0.01523  0.008444  -0.02673  -0.00924  0.9181  0.03555
6.344e+09  0.4336  0.7687  -0.002424  0.007901  -0.04896  -0.05928  0.899  -0.3138
6.345e+09  0.7198  0.576  -0.0001553  -0.01627  -0.01235  0.01064  0.7174  -0.531
6.346e+09  0.8546  0.2844  -0.009102  0.02079  0.01786  -0.02404  0.5172  -0.7944
6.348e+09  0.9157  -0.03628  -0.002516  0.01818  0.005608  -0.01077  0.178  -0.8844
6.349e+09  0.8605  -0.3065  -0.007897  -0.03291  0.01289  -0.02143  -0.1167  -0.9174
6.35e+09  0.6582  -0.5679  -0.007336  -0.01572  -0.02439  -0.0222  -0.426  -0.827
6.351e+09  0.397  -0.7581  -0.003167  -0.008282  -0.03745  -0.04444  -0.6555  -0.6617
6.352e+09  0.1432  -0.8878  -0.006336  -0.004159  0.02196  -0.001107  -0.8814  -0.4082
6.354e+09  -0.1721  -0.8899  -0.01219  0.01369  0.0442  -0.03586  -0.9352  -0.05111
6.355e+09  -0.4798  -0.7649  -0.01444  0.02813  0.02836  -0.006786  -0.9035  0.2458
6.356e+09  -0.7004  -0.5564  0.01575  -0.005833  -0.02553  0.02561  -0.7188  0.5451
6.358e+09  -0.8682  -0.2219  0.01043  0.02393  0.03906  0.004133  -0.5424  0.779
6.359e+09  -0.8555  0.06735  -0.02858  0.02765  0.00882  -0.03065  -0.2488  0.9467
6.36e+09  -0.8595  0.4156  0.01148  0.01523  0.03022  -0.01784  0.1044  0.882
6.361e+09  -0.6572  0.5799  -0.04656  -0.01387  -0.009322  0.01019  0.3942  0.8515
6.362e+09  -0.3819  0.8032  -0.01155  0.02262  -0.01789  -0.02453  0.6791  0.6699
6.364e+09  -0.03897  0.8339  0.01054  0.01499  -0.01487  0.01005  0.8619  0.3595
6.365e+09  0.2499  0.7632  -0.02713  0.02909  0.004617  -0.008942  0.9169  0.061
6.366e+09  0.5174  0.7059  0.01082  0.01677  -0.00287  0.01623  0.9609  -0.2461
6.368e+09  0.7217  0.4881  0.03323  -0.01064  -0.02388  0.006232  0.791  -0.5703
6.369e+09  0.8958  0.2086  -0.006038  0.004062  -0.02409  0.006372  0.5661  -0.7381
6.37e+09  0.869  -0.111  -0.01506  -0.03335  0.02149  0.05553  0.2644  -0.9153
6.371e+09  0.8059  -0.4181  0.01734  -0.01135  0.07569  0.01287  -0.09786  -0.9317
6.372e+09  0.5637  -0.6745  0.01401  0.01674  0.04605  0.04808  -0.3835  -0.8622
6.374e+09  0.3411  -0.8358  0.01231  0.0152  -0.02813  0.02722  -0.654  -0.6365
6.375e+09  0.01359  -0.878  -0.05138  0.0009673  0.009917  -0.008724  -0.8479  -0.4165
6.376e+09  -0.287  -0.8373  0.01066  -0.004234  -0.02737  -0.01882  -0.9413  -0.0715
6.378e+09  -0.6104  -0.6908  0.02282  -0.01341  0.002429  -0.0425  -0.9311  0.2271
6.379e+09  -0.754  -0.4317  -0.0326  0.02062  -0.02326  0.001399  -0.7846  0.5396
6.38e+09  -0.8802  -0.1109  -0.002292  -0.02754  -0.0302  -0.03419  -0.604  0.7152
6.381e+09  -0.8968  0.1514  0.004053  -0.0232  -0.04244  0.03133  -0.2243  0.875
6.382e+09  -0.7771  0.5126  0.0008941  -0.007387  0.04768  0.005663  0.08724  0.9381
6.384e+09  -0.5188  0.6965  0.00885  0.004773  -0.02639  0.005497  0.354  0.8595
6.385e+09  -0.2725  0.8818  -0.02175  0.01401  0.00371  0.009766  0.6708  0.6826
6.386e+09  0.01376  0.879  0.004358  -0.005775  0.02396  0.02101  0.8347  0.3853
6.388e+09  0.3559  0.8393  0.01508  0.02669  0.01378  -0.01744  0.9279  0.1294
6.389e+09  0.5846  0.6895  -0.009194  0.003035  -0.001248  -0.00649  0.8821  -0.191
6.39e+09  0.8003  0.3929  -0.03109  -0.001321  -0.0348  0.0104  0.8136  -0.4873
6.391e+09  0.8565  0.06286  0.009756  0.006861  -0.01772  0.002953  0.5486  -0.7824
6.392e+09  0.8698  -0.2272  -0.01593  0.01789  -0.0007867  -0.00676  0.3072  -0.9018
6.394e+09  0.7205  -0.509  0.006522  -0.01156  -0.01104  0.006753  -0.03342  -0.919
6.395e+09  0.5264  -0.7156  -0.01955  -0.003694  0.01849  -0.03833  -0.348  -0.8313
6.396e+09  0.2284  -0.8694  -0.04033  -0.004689  -0.03285  0.03976  -0.6271  -0.6859
6.398e+09  -0.1584  -0.9055  -0.01595  -0.005685  -0.01924  -0.0005776  -0.7912  -0.4225
6.399e+09  -0.3591  -0.8481  -0.01074  0.01451  0.008685  0.002059  -0.9029  -0.1346
6.4e+09  -0.6167  -0.6255  0.01762  0.005324  -0.01274  -0.02  -0.8625  0.2052
6.401e+09  -0.8313  -0.3875  -0.02442  -0.002632  -0.006292  0.008633  -0.7673  0.5201
6.402e+09  -0.8776  -0.005828  0.02311  -0.003891  0.04952  -0.02138  -0.6187  0.7267
6.404e+09  -0.8293  0.2114  0.005024  -0.02922  -0.001269  0.01441  -0.3081  0.8881
6.405e+09  -0.6612  0.5146  0.004228  0.001553  0.0008577  -0.03574  -0.0002  0.8936
6.406e+09  -0.4356  0.793  -0.02388  -0.02082  0.02273  -0.0005225  0.3334  0.8663
6.408e+09  -0.1885  0.872  -0.01348  -0.007008  -0.05488  0.02361  0.5864  0.7175
6.409e+09  0.1401  0.8522  -0.03157  -0.00599  0.04136  -0.006123  0.8034  0.4887
6.41e+09  0.3773  0.8006  0.02898  0.01463  0.06613  -0.003302  0.9188  0.1813
6.411e+09  0.6634  0.5399  -0.008867  0.01308  0.03222  -0.01773  0.9107  -0.118
6.412e+09  0.8516  0.3063  -0.01754  -0.03771  -0.002643  0.007265  0.8261  -0.4441
6.414e+09  0.8552  0.05326  0.005611  0.01994  -0.03085  0.006109  0.5903  -0.6581
6.415e+09  0.8157  -0.3027  -0.04413  -0.01116  0.01968  -0.0167  0.3476  -0.7935
6.416e+09  0.6826  -0.5354  0.03478  -0.02929  0.004997  -0.02236  0.04856  -0.9102
6.418e+09  0.4388  -0.7947  0.04164  0.01976  0.002877  0.03386  -0.2475  -0.8534
6.419e+09  0.1597  -0.8852  0.006364  -0.007547  0.04219  0.03482  -0.5508  -0.7037
6.42e+09  -0.1408  -0.8842  0.01178  -0.006143  0.03479  0.04222  -0.7552  -0.4907
6.421e+09  -0.4579  -0.7838  -0.00509  0.009045  0.03167  0.02492  -0.8441  -0.2299
6.422e+09  -0.6574  -0.6024  0.02482  -0.06826  -0.0445  -0.03014  -0.8617  0.1208
6.424e+09  -0.8044  -0.3014  0.004286  0.046  0.01363  -0.0445  -0.7949  0.3883
6.425e+09  -0.8885  0.005464  -0.003382  0.02048  -0.04916  -0.04296  -0.6449  0.6098
6.426e+09  -0.8271  0.2701  -0.0006301  -0.0138  0.0241  -0.0177  -0.3093  0.7863
6.428e+09  -0.6469  0.6005  0.0137  0.06925  0.02681  -0.02516  -0.04876  0.9033
6.429e+09  -0.4037  0.7937  0.002432  -0.01614  -0.02274  0.04534  0.2548  0.8648
6.43e+09  -0.1516  0.8411  0.03014  -0.007219  -0.02656  -0.007463  0.4978  0.7322
6.431e+09  0.208  0.8695  0.01529  -0.007978  -0.0006861  -0.008887  0.7398  0.5069
6.432e+09  0.4508  0.7584  -0.01057  -0.007239  0.01745  0.03562  0.8267  0.1905
6.434e+09  0.6698  0.5724  -0.001723  -0.01059  0.05313  -0.009879  0.8488  -0.08228
6.435e+09  0.8262  0.2978  -0.05828  0.01933  -0.01552  0.0405  0.7869  -0.3585
6.436e+09  0.8344  -0.02475  -0.02275  -0.05349  -0.01125  -0.006442  0.592  -0.6398
6.438e+09  0.82  -0.3173  0.0213  -0.01035  0.01675  0.0402  0.3741  -0.7969
6.439e+09  0.672  -0.5488  0.008791  0.01849  -0.009356  -0.0233  0.08609  -0.8048
6.44e+09  0.4245  -0.7708  0.006903  -0.009189  -0.01376  -0.01348  -0.2295  -0.86
6.441e+09  0.1449  -0.9016  0.0094  -0.01106  0.007041  -0.01221  -0.5062  -0.6688
6.442e+09  -0.1497  -0.8618  0.01522  0.009022  0.004169  0.002853  -0.7485  -0.4671
6.444e+09  -0.4407  -0.7504  0.02067  0.009057  0.03219  -0.05504  -0.7886  -0.2421
6.445e+09  -0.6608  -0.5224  0.0349  0.003353  -0.007503  -0.04341  -0.8561  0.1067
6.446e+09  -0.8051  -0.2827  0.01398  -0.01529  0.0268  0.02139  -0.7571  0.3331
6.448e+09  -0.9108  0.01919  0.02335  -0.02908  -0.01599  -0.03758  -0.6166  0.589
6.449e+09  -0.8106  0.364  0.02926  0.02168  0.04189  0.03916  -0.3588  0.742
6.45e+09  -0.6451  0.5847  0.003234  -0.01692  -0.008147  -0.03898  -0.05781  0.8358
6.451e+09  -0.4028  0.7496  0.01552  -0.03234  -0.01319  0.03437  0.1752  0.7832
6.452e+09  -0.09313  0.9002  -0.05096  0.005661  -0.0116  0.0408  0.4779  0.6817
6.454e+09  0.1497  0.8539  -0.01577  0.01362  0.0233  -0.02761  0.7146  0.4361
6.455e+09  0.4798  0.741  0.02562  0.03352  0.009151  -0.001689  0.7828  0.2258
6.456e+09  0.668  0.5982  0.01145  0.01263  0.007999  -0.00419  0.8517  -0.06549
6.458e+09  0.8066  0.2898  -0.001494  -0.03886  -0.0008076  0.02868  0.7769  -0.2927
6.459e+09  0.8739  -0.06742  0.0025  -0.004927  -0.0185  -0.04576  0.5442  -0.5962
6.46e+09  0.7843  -0.3477  -0.01483  0.01777  -0.01467  -0.002669  0.3045  -0.747
6.461e+09  0.645  -0.6001  -0.008064  0.0136  -0.02516  0.03028  0.05332  -0.8577
6.462e+09  0.369  -0.7013  -0.01055  -0.01266  -0.01539  -0.05855  -0.2351  -0.8105
6.464e+09  0.1602  -0.8477  0.01742  0.006325  -0.0415  0.0513  -0.5212  -0.6742
6.465e+09  -0.1977  -0.8289  0.03187  -0.003984  -0.03053  -0.01046  -0.6702  -0.4409
6.466e+09  -0.4913  -0.7308  0.00148  -0.04034  -0.03561  0.02908  -0.7451  -0.1977
6.468e+09  -0.6883  -0.5597  -0.01029  -0.01947  -0.03487  -0.02063  -0.7969  0.03593
6.469e+09  -0.8536  -0.2033  0.002009  -0.05966  -0.04304  -0.01629  -0.7403  0.3365
6.47e+09  -0.8926  -0.01898  -0.0005817  0.008136  -0.02209  0.03458  -0.5572  0.5879
6.471e+09  -0.8325  0.3711  -0.02754  0.002155  -0.001553  -0.01903  -0.3728  0.6951
6.472e+09  -0.6794  0.6246  0.01433  -0.005586  0.004438  -0.007515  -0.103  0.7914
6.474e+09  -0.4238  0.7795  0.0407  -0.02974  0.01433  -0.0009647  0.2185  0.7754
6.475e+09  -0.09462  0.8892  0.02681  -0.0353  -0.0198  0.03675  0.5096  0.6567
6.476e+09  0.1775  0.8961  -0.0001143  -0.02404  -0.03526  0.02217  0.6668  0.4368
6.478e+09  0.435  0.7355  -0.02228  -0.0005308  0.01444  0.04595  0.7436  0.2315
6.479e+09  0.7347  0.557  0.0123  -0.0445  -0.05811  0.02938  0.7457  -0.08715
6.48e+09  0.8989  0.2372  0.005549  0.0459  0.02766  0.03002  0.7026  -0.3378
6.481e+09  0.8977  -0.03272  0.009757  0.01283  0.01686  0.004146  0.5361  -0.5157
6.482e+09  0.8278  -0.3664  0.008458  -0.002752  0.03875  -0.02459  0.35  -0.7236
6.484e+09  0.5861  -0.6227  -0.01379  -0.01391  -0.01382  -0.02086  0.0508  -0.7617
6.485e+09  0.4097  -0.776  -0.03994  0.008048  -0.01423  0.0006676  -0.2051  -0.7246
6.486e+09  0.1115  -0.8196  0.01077  0.01539  -0.01046  -0.05411  -0.4645  -0.6014
6.488e+09  -0.2171  -0.8924  0.02033  -0.01557  -0.01171  -0.05864  -0.6652  -0.4192
6.489e+09  -0.4972  -0.7328  -0.01107  -0.03273  -0.03651  -0.01598  -0.7478  -0.1977
6.49e+09  -0.6988  -0.527  0.01224  -0.006444  0.004479  0.02286  -0.7618  0.08324
6.491e+09  -0.8896  -0.24  0.01099  -0.02751  0.0177  0.01419  -0.7218  0.3516
6.492e+09  -0.9389  0.06302  0.002688  -0.001772  0.01809  -0.02258  -0.5009  0.565
6.494e+09  -0.8643  0.3699  -0.002342  0.01012  -0.005108  -0.02327  -0.2758  0.7273
6.495e+09  -0.6325  0.6559  0.01538  -0.006778  -0.05046  -0.04233  -0.02569  0.7585
6.496e+09  -0.416  0.7887  0.02942  -0.04347  0.01138  0.001191  0.2195  0.6661
6.498e+09  -0.05734  0.9604  0.05111  -0.01681  -0.02801  0.002002  0.4523  0.6358
6.499e+09  0.2292  0.8596  0.02642  -0.0206  0.02968  -0.04956  0.6639  0.4395
6.5e+09  0.5014  0.7067  -0.04396  0.003777  0.02544  -0.03776  0.7558  0.2227
6.501e+09  0.7394  0.4857  0.03567  0.005081  -0.03091  0.04834  0.769  -0.1147
6.502e+09  0.8742  0.2549  -0.0146  -0.007991  0.02794  -0.01969  0.6864  -0.3937
6.504e+09  0.9409  -0.07831  0.0115  0.008538  -0.006125  -0.02824  0.5145  -0.5759
6.505e+09  0.8267  -0.384  0.01887  0.001997  -0.01793  0.001269  0.289  -0.7605
6.506e+09  0.6005  -0.6886  0.01113  -0.01859  0.01829  -0.02004  0.01245  -0.7436
6.508e+09  0.3795  -0.8356  -0.008539  -0.00618  0.01686  -0.03273  -0.2278  -0.6941
6.509e+09  0.1123  -0.9131  -0.01122  0.004473  -0.03556  0.03026  -0.5061  -0.627
6.51e+09  -0.2797  -0.9018  -0.00506  0.02708  0.05808  0.01751  -0.6141  -0.377
6.511e+09  -0.5128  -0.7389  -0.04851  0.02422  0.034  0.02793  -0.7439  -0.1288
6.512e+09  -0.7416  -0.5569  0.006395  0.001162  -0.06344  0.06054  -0.7406  0.1449
6.514e+09  -0.86  -0.2689  -0.01097  -0.03331  -0.002002  -0.004175  -0.6241  0.385
6.515e+09  -0.9013  0.1423  0.043  -0.004624  -0.05171  0.02612  -0.483  0.579
6.516e+09  -0.8045  0.4006  -0.006658  -0.01448  -0.006447  0.02123  -0.2488  0.6898
6.518e+09  -0.6092  0.6909  -0.0003653  -0.02486  -0.087  0.01056  0.04645  0.7522
6.519e+09  -0.3715  0.8872  -0.00574  -0.01945  -0.02904  -0.03594  0.289  0.6717
6.52e+09  -0.02943  0.9111  0.005949  -0.01223  0.005735  0.01023  0.4777  0.5888
6.521e+09  0.3247  0.8813  -0.002407  0.02061  0.02437  0.02833  0.6374  0.3441
6.522e+09  0.5899  0.7627  0.0001797  -0.0007104  0.01598  -0.0121  0.7416  0.1001
6.524e+09  0.805  0.4801  0.02047  0.01812  0.04674  -0.04183  0.6976  -0.1849
6.525e+09  0.9083  0.1822  -0.007088  -0.004807  0.02838  -0.07059  0.5952  -0.3941
6.526e+09  0.941  -0.1405  0.008146  0.007168  0.05591  0.02282  0.4335  -0.5969
6.528e+09  0.8749  -0.5354  -0.003072  -0.008673  0.0302  -0.01686  0.1884  -0.6792
6.529e+09  0.6512  -0.7306  0.01737  0.04843  -0.07505  0.02615  -0.09652  -0.6861
6.53e+09  0.3038  -0.9121  0.003484  0.009363  0.02509  -0.04373  -0.2756  -0.642
6.531e+09  0.003099  -0.9526  0.01419  -0.01351  0.01436  0.02677  -0.4404  -0.498
6.532e+09  -0.3404  -0.9423  -0.01782  -0.007038  0.007656  -0.0198  -0.6065  -0.3293
6.534e+09  -0.596  -0.6982  -0.01419  -0.0141  0.02406  -0.006867  -0.6285  -0.08873
6.535e+09  -0.916  -0.4852  0.002984  -0.001004  -0.008873  -0.00601  -0.5986  0.1278
6.536e+09  -0.9527  -0.07776  0.03233  -0.008757  -0.00352  -0.01614  -0.5997  0.3165
6.538e+09  -0.9709  0.2378  0.01133  -0.01872  0.004187  0.02109  -0.4838  0.4347
6.539e+09  -0.7977  0.543  -0.001595  -0.04533  0.05378  0.01218  -0.2858  0.5898
6.54e+09  -0.6051  0.7822  -0.0192  0.03081  -0.0318  -0.01813  -0.06453  0.6631
6.541e+09  -0.2454  0.9414  -0.01364  0.01405  0.03481  0.02575  0.1799  0.6996
6.542e+09  0.09314  0.9646  0.01404  -0.02265  0.03702  -0.02346  0.4025  0.5705
6.544e+09  0.3916  0.8545  0.03078  -0.02867  0.02924  0.03611  0.5842  0.3979
6.545e+09  0.6811  0.6573  0.005697  -0.02992  0.03898  0.03136  0.6874  0.2112
6.546e+09  0.9389  0.4343  -0.004251  -0.04589  0.001731  -0.02632  0.7291  -0.0847
6.548e+09  0.989  0.02269  -0.04847  0.03719  0.01539  0.03721  0.6582  -0.3212
6.549e+09  0.968  -0.2611  0.01159  0.01804  0.00276  0.0281  0.4755  -0.5019
6.55e+09  0.8066  -0.5705  0.004509  -0.004994  0.02927  0.001211  0.2999  -0.6749
