# Hz S RI R 50
6.25e+09  -0.6757  0.4035  0.02287  0.00914  0.009145  0.03281  0.1392  0.4769
6.251e+09  -0.4777  0.6608  -0.001447  0.02923  -0.01553  0.05262  0.3436  0.3888
6.252e+09  -0.2696  0.7597  -0.01215  0.03011  0.02453  0.02528  0.4975  0.2292
6.254e+09  0.01927  0.8524  0.005954  -0.01571  -0.01358  -0.01805  0.6201  -0.004916
6.255e+09  0.3299  0.8078  -0.01116  -0.008028  -0.003326  -0.01279  0.5826  -0.2152
6.256e+09  0.5784  0.6399  0.009279  -0.007532  0.01143  0.02195  0.5202  -0.4615
6.258e+09  0.75  0.3912  0.02487  0.01616  -0.04012  0.005167  0.268  -0.6166
6.259e+09  0.8322  0.1534  0.009163  0.006898  -0.007126  0.0332  0.04411  -0.6923
6.26e+09  0.7947  -0.1797  0.008721  0.009586  -0.01293  -0.03477  -0.2432  -0.6618
6.261e+09  0.696  -0.4414  -0.003667  0.01081  -0.01426  -0.006902  -0.4178  -0.5472
6.262e+09  0.5528  -0.6528  0.01327  -0.02188  0.05975  0.02863  -0.6058  -0.3648
6.264e+09  0.2219  -0.7765  -0.001863  0.005922  -0.06716  -0.01404  -0.6944  -0.08208
6.265e+09  -0.02298  -0.8608  -0.001684  0.009293  0.03218  0.01792  -0.7201  0.1582
6.266e+09  -0.2886  -0.7198  0.005508  0.005441  0.03533  -0.02845  -0.6297  0.4064
6.268e+09  -0.5757  -0.6597  0.02581  0.03362  -0.02953  0.004559  -0.4538  0.5621
6.269e+09  -0.8026  -0.3769  0.002045  0.004256  -0.01039  -0.0599  -0.2049  0.7298
6.27e+09  -0.8352  -0.09017  -0.02019  -0.005729  -0.006625  -0.03592  0.08458  0.7585
6.271e+09  -0.7747  0.1695  -0.007924  0.007259  -0.004028  0.01244  0.3269  0.6902
6.272e+09  -0.708  0.4413  0.009037  0.0006669  0.005662  0.01055  0.5651  0.5329
6.274e+09  -0.5059  0.6873  0.03827  0.00114  0.002345  0.02157  0.6851  0.3069
6.275e+09  -0.2352  0.7648  0.01329  -0.005001  -0.004381  -0.002714  0.7598  0.05672
6.276e+09  0.08446  0.8064  0.0003921  0.00546  -0.01556  -0.00556  0.7018  -0.2527
6.278e+09  0.2933  0.7781  -0.02768  -0.005394  -0.001292  7.049e-05  0.5972  -0.488
6.279e+09  0.5374  0.598  0.01334  -0.005423  -0.01896  0.0604  0.4211  -0.6509
6.28e+09  0.7597  0.3896  -0.00112  -0.02155  -0.03885  -0.04362  0.1773  -0.7653
6.281e+09  0.8509  0.1196  -0.02083  0.03263  0.01321  -0.02415  -0.09755  -0.7732
6.282e+09  0.8193  -0.2075  0.01561  -0.03329  0.04229  -0.003136  -0.3714  -0.6895
6.284e+09  0.6768  -0.4331  0.002475  -0.01637  -0.00429  -0.03395  -0.6234  -0.5215
6.285e+09  0.4844  -0.6545  -0.02754  0.01962  -0.009964  0.02591  -0.7491  -0.3095
6.286e+09  0.2138  -0.8212  -0.01109  0.01834  0.02244  0.03763  -0.7654  0.006544
6.288e+09  -0.09872  -0.7687  0.0146  -0.001064  -0.02747  0.01732  -0.7623  0.2469
6.289e+09  -0.3213  -0.7196  -0.01082  -0.01599  -0.001738  0.03353  -0.6057  0.5013
6.29e+09  -0.6262  -0.544  -0.007329  0.01084  0.06756  -0.002097  -0.425  0.7229
6.291e+09  -0.7711  -0.3578  -0.007953  -0.02317  -0.01791  -0.06838  -0.1594  0.7931
6.292e+09  -0.8154  -0.05798  0.001503  0.01707  0.04239  0.0009432  0.1389  0.8115
6.294e+09  -0.793  0.1969  0.02178  -0.009477  -0.03113  0.03427  0.3903  0.6999
6.295e+09  -0.6476  0.471  -0.005233  0.001813  0.005942  0.002356  0.6399  0.544
6.296e+09  -0.4496  0.7487  -0.00232  0.02098  -0.02577  -0.01516  0.773  0.2574
6.298e+09  -0.2142  0.8138  0.01724  -0.02626  -0.02254  -0.05765  0.8238  0.03662
6.299e+09  0.1208  0.8186  -0.01282  -0.0178  -0.01198  0.02341  0.7831  -0.2661
6.3e+09  0.3614  0.7582  -0.006028  0.01216  -0.006399  -0.02452  0.6541  -0.506
6.301e+09  0.5743  0.5774  -0.01281  -0.008692  0.03987  -0.02604  0.4096  -0.7293
6.302e+09  0.7751  0.3546  0.0007187  0.009605  -0.01903  -0.03107  0.1702  -0.8111
6.304e+09  0.8174  0.008685  0.0006549  -0.001613  0.01328  0.01604  -0.1629  -0.8154
6.305e+09  0.7514  -0.2261  -0.004454  0.006337  0.03868  0.03854  -0.4331  -0.7598
6.306e+09  0.6954  -0.484  0.02784  -0.0222  0.03783  0.001011  -0.6615  -0.5358
6.308e+09  0.3908  -0.7241  0.03756  0.006487  0.01145  -0.003028  -0.808  -0.2819
6.309e+09  0.1651  -0.7841  -0.02435  0.02171  -0.01213  -0.003066  -0.8616  -0.009777
6.31e+09  -0.1464  -0.7703  -0.003382  0.00324  0.007823  0.0109  -0.8094  0.2895
6.311e+09  -0.4314  -0.6954  0.02264  -0.007887  -0.005065  0.01567  -0.6613  0.5549
6.312e+09  -0.6624  -0.5099  0.0249  -0.02477  -0.04772  0.008945  -0.4684  0.7679
6.314e+09  -0.8203  -0.2708  0.007651  -0.004041  -0.03148  0.06413  -0.1534  0.8453
6.315e+09  -0.8488  -0.0145  -0.01697  -0.009319  0.02012  0.01213  0.1125  0.8854
6.316e+09  -0.7997  0.2248  0.01452  -0.002041  0.01943  -0.006228  0.4254  0.7541
6.318e+09  -0.6882  0.5701  -0.02283  -0.01204  0.03928  0.01196  0.691  0.5749
6.319e+09  -0.4732  0.746  -0.0015  0.0218  0.01963  -0.01023  0.8209  0.3103
6.32e+09  -0.1152  0.8028  0.01005  0.01491  0.01425  0.05381  0.9014  0.002742
6.321e+09  0.1401  0.8045  0.03042  0.002225  0.04723  -0.01358  0.8454  -0.312
6.322e+09  0.5134  0.7293  -0.01511  0.00949  0.009589  -0.01111  0.6856  -0.6117
6.324e+09  0.6835  0.5232  -0.03526  -0.001135  -0.03434  0.02488  0.4447  -0.7576
6.325e+09  0.7682  0.222  -0.005239  0.0246  -0.005816  0.02422  0.1609  -0.8895
6.326e+09  0.8465  -0.02033  0.04015  0.01559  -0.01931  -0.01156  -0.1673  -0.8832
6.328e+09  0.7962  -0.318  -0.01422  0.002213  0.03432  -0.01401  -0.4407  -0.8329
6.329e+09  0.6303  -0.5829  -0.01213  -0.002965  0.01791  0.01182  -0.6785  -0.5858
6.33e+09  0.3964  -0.8089  -0.004605  -0.002481  -0.01385  -0.03322  -0.8933  -0.3431
6.331e+09  0.1224  -0.8472  0.0009377  0.03701  0.03915  0.02182  -0.9111  0.003775
6.332e+09  -0.1977  -0.8439  -0.01677  0.04726  0.01132  -0.03767  -0.8524  0.3101
6.334e+09  -0.4609  -0.6882  -0.02196  0.03875  -0.003443  -0.01161  -0.7374  0.5381
6.335e+09  -0.7145  -0.497  -0.01553  -0.04252  0.03184  0.04778  -0.5009  0.7332
6.336e+09  -0.8708  -0.2036  0.02974  -0.01965  0.01622  -0.014  -0.2051  0.8907
6.338e+09  -0.7871  0.07415  0.01589  0.0005703  0.01869  0.001054  0.103  0.9221
6.339e+09  -0.7538  0.3938  -0.02525  -0.0273  -0.02577  0.001353  0.4335  0.7997
6.34e+09  -0.5602  0.6085  -0.005039  -0.0114  0.03046  -0.004085  0.6542  0.6214
6.341e+09  -0.3552  0.7963  -0.001165  0.0144  0.01381  0.001941  0.8932  0.3467
6.342e+09  -0.04191  0.8605  -0.01826  -0.006429  0.04778  -0.001378  0.9288  0.04915
6.344e+09  0.2996  0.8276  -0.0493  -0.0231  -0.03461  -0.02653  0.9095  -0.2346
6.345e+09  0.5538  0.7024  0.002071  -0.01327  0.01017  0.01248  0.7515  -0.5669
6.346e+09  0.748  0.4513  -0.004098  -0.00447  0.009359  -0.002985  0.5323  -0.801
6.348e+09  0.8583  0.1485  -0.0141  -0.005058  0.006764  0.0147  0.2219  -0.9192
6.349e+09  0.8487  -0.1682  -0.02075  -0.02487  -0.02574  0.003894  -0.1133  -0.9272
6.35e+09  0.7761  -0.4329  0.02836  -0.04428  0.00825  -0.009689  -0.4612  -0.8296
6.351e+09  0.5019  -0.6698  -0.01669  -0.005217  -0.0187  0.008  -0.7034  -0.6658
6.352e+09  0.2374  -0.787  -0.007861  -8.086e-05  -0.001007  0.01063  -0.8363  -0.3847
6.354e+09  -0.04751  -0.9055  -0.05073  0.01104  0.0003204  0.05834  -0.9346  -0.05619
6.355e+09  -0.3014  -0.7966  -0.003681  -0.0001394  -0.03431  -0.03325  -0.9024  0.2805
6.356e+09  -0.597  -0.6393  -0.001125  0.01291  0.01156  -0.01489  -0.7603  0.5381
6.358e+09  -0.7896  -0.4083  0.01384  0.01386  0.02597  0.01812  -0.5313  0.8154
6.359e+09  -0.8495  -0.06976  -0.01937  0.02334  -0.004786  0.07178  -0.2117  0.9277
6.36e+09  -0.8476  0.241  0.04647  0.01518  -0.0005627  0.04009  0.07423  0.9359
6.361e+09  -0.7702  0.4553  -0.04018  0.01731  0.01548  0.005211  0.4435  0.8838
6.362e+09  -0.5443  0.6996  -0.03451  -0.01029  0.01428  0.02617  0.6709  0.6654
6.364e+09  -0.2189  0.8525  -0.01274  0.01679  -0.006476  -0.04019  0.881  0.402
6.365e+09  0.1012  0.8863  -0.002628  0.009444  -0.03193  -0.03955  0.9351  0.06006
6.366e+09  0.4419  0.8124  0.03711  -0.02519  -0.02688  -0.008349  0.9282  -0.2723
6.368e+09  0.6457  0.6127  0.01593  -0.04271  -0.004833  0.05051  0.7826  -0.577
6.369e+09  0.8165  0.2825  -0.02133  0.03675  0.01077  0.04073  0.5522  -0.8069
6.37e+09  0.8688  0.01755  -0.01693  0.02032  0.01567  -0.06291  0.2754  -0.9158
6.371e+09  0.8645  -0.2696  0.000891  0.008365  0.02642  0.004847  -0.06046  -0.935
6.372e+09  0.6976  -0.5756  -0.0134  0.01595  0.01459  -0.01625  -0.3819  -0.8537
6.374e+09  0.4139  -0.7967  -0.007077  -0.002661  0.02312  0.0001749  -0.7077  -0.6526
6.375e+09  0.1972  -0.8505  0.002007  -0.002603  -0.05278  0.01208  -0.8614  -0.4108
6.376e+09  -0.1432  -0.854  0.0145  0.01383  -0.05295  0.01165  -0.9509  -0.08164
6.378e+09  -0.4761  -0.7391  0.009485  0.01838  -0.01058  -0.02219  -0.9382  0.2381
6.379e+09  -0.6758  -0.5632  0.02368  -0.0006329  -0.00872  0.01085  -0.7573  0.5167
6.38e+09  -0.8123  -0.2967  -0.009947  -0.04674  -0.02948  0.02775  -0.5479  0.8012
6.381e+09  -0.8668  0.04799  0.005103  -0.005177  -0.007467  -0.001737  -0.3007  0.9242
6.382e+09  -0.8118  0.3478  0.01197  -0.01071  0.001311  -0.005973  0.06805  0.9315
6.384e+09  -0.6116  0.5806  0.008977  -0.002259  -0.00357  0.01815  0.3515  0.8834
6.385e+09  -0.3758  0.7963  -0.03992  -0.02584  0.03882  0.03119  0.6757  0.688
6.386e+09  -0.1018  0.8597  -0.02663  0.01703  0.01802  0.05297  0.8215  0.4419
6.388e+09  0.1928  0.902  -0.001413  0.01603  -0.007239  0.03348  0.9397  0.1064
6.389e+09  0.481  0.7109  0.04142  0.04719  -0.02603  -0.06604  0.9193  -0.2081
6.39e+09  0.71  0.484  -0.001506  0.0003694  -0.01719  0.03393  0.7679  -0.4959
6.391e+09  0.856  0.2734  -0.02542  0.031  -0.04383  0.01648  0.5586  -0.7192
6.392e+09  0.925  -0.1183  -0.02943  0.03656  0.0464  -0.03121  0.2931  -0.9065
6.394e+09  0.7386  -0.3829  0.001359  -0.007405  0.009439  -0.01589  -0.02744  -0.9248
6.395e+09  0.6555  -0.6015  0.006179  0.02793  -0.0415  -0.01915  -0.3884  -0.8694
6.396e+09  0.3673  -0.8068  0.01178  0.006152  0.009195  -0.009086  -0.593  -0.6994
6.398e+09  0.06386  -0.8938  0.0105  -0.03503  -0.006344  0.05369  -0.8496  -0.4268
6.399e+09  -0.2081  -0.8694  -0.02275  -0.02054  0.01246  -0.03097  -0.8944  -0.212
6.4e+09  -0.5011  -0.7017  -0.01122  -0.0287  0.01147  0.06408  -0.9115  0.1569
6.401e+09  -0.7147  -0.4693  -0.02606  0.05106  -0.01543  -0.01575  -0.7883  0.4661
6.402e+09  -0.8427  -0.1927  0.003716  -0.02413  0.04072  -0.01758  -0.5634  0.7388
6.404e+09  -0.8309  0.09956  -0.03138  0.01811  -0.03121  -0.006865  -0.2939  0.8843
6.405e+09  -0.7664  0.418  0.05989  -0.03403  -0.02884  0.007683  0.01614  0.9032
6.406e+09  -0.6057  0.641  0.02974  0.02538  -0.02614  -0.0009066  0.3213  0.8897
6.408e+09  -0.3583  0.8109  0.04184  0.0293  0.05256  0.006064  0.6025  0.6942
6.409e+09  -0.03309  0.8718  -0.01155  0.01758  0.02202  -0.005996  0.8091  0.4731
6.41e+09  0.2518  0.8218  0.00545  0.01206  -0.007215  -0.01581  0.8591  0.1616
6.411e+09  0.4978  0.6529  -0.002799  0.02899  0.01598  -0.02372  0.9113  -0.1223
6.412e+09  0.7344  0.3585  0.01368  -0.01978  0.0349  0.01565  0.7455  -0.4297
6.414e+09  0.8835  0.161  0.0002838  -0.001905  -0.02993  0.03074  0.5615  -0.6646
6.415e+09  0.8438  -0.1584  0.003723  -0.04068  -0.005635  -0.02054  0.3507  -0.8408
6.416e+09  0.7359  -0.4195  0.01607  -0.006437  0.004428  0.00346  0.04817  -0.8904
6.418e+09  0.5674  -0.693  0.01155  -0.01369  0.02235  0.02127  -0.2779  -0.8733
6.419e+09  0.2281  -0.7822  0.02914  -0.002462  -0.01188  0.0155  -0.5081  -0.7297
6.42e+09  -0.06358  -0.8956  0.001945  0.01682  0.02397  -0.03218  -0.7608  -0.4556
6.421e+09  -0.3175  -0.8751  -0.001894  0.0004124  -0.01709  0.0201  -0.873  -0.1834
6.422e+09  -0.5713  -0.6518  0.006059  -0.01051  0.06643  0.02904  -0.8477  0.1001
6.424e+09  -0.7201  -0.3825  -0.03054  0.008735  -0.03121  0.04847  -0.7151  0.4044
6.425e+09  -0.8179  -0.07358  0.04951  -0.01406  -0.01859  -0.008579  -0.5945  0.6622
6.426e+09  -0.8338  0.235  -0.03044  -0.01074  -0.01164  -0.03725  -0.3816  0.8045
6.428e+09  -0.6729  0.4499  0.01294  0.006273  0.03021  0.02687  -0.07718  0.8736
6.429e+09  -0.5448  0.6474  -0.01072  -0.01832  0.06336  0.02772  0.2589  0.8508
6.43e+09  -0.2238  0.7485  -0.03022  -0.003183  -0.03643  -0.02676  0.5475  0.6909
6.431e+09  0.0177  0.9232  -0.02055  0.02037  -0.00779  0.03306  0.7  0.5094
6.432e+09  0.3234  0.8006  -0.05154  -0.03155  0.03122  0.01736  0.8437  0.1742
6.434e+09  0.6329  0.6042  0.01224  -0.005708  -0.02436  0.001284  0.8836  -0.05075
6.435e+09  0.7821  0.4287  -0.009466  -0.02471  0.02657  0.05678  0.805  -0.3957
6.436e+09  0.8412  0.1154  -0.06132  0.009167  -0.03743  -0.03171  0.5861  -0.592
6.438e+09  0.8655  -0.2163  0.03427  0.02024  -0.04074  -0.01319  0.3441  -0.7599
6.439e+09  0.7148  -0.462  0.05559  -0.04702  -0.006987  -0.03773  0.05039  -0.8745
6.44e+09  0.5162  -0.688  -0.05345  0.05065  -0.01408  -0.006343  -0.2272  -0.8455
6.441e+09  0.221  -0.8207  -0.021  0.01323  0.05079  -0.06042  -0.517  -0.6971
6.442e+09  -0.0441  -0.8674  -0.01957  -0.01315  0.02739  0.006008  -0.7049  -0.5149
6.444e+09  -0.3331  -0.7667  0.01046  -0.01792  0.009366  0.03028  -0.8263  -0.2523
6.445e+09  -0.6122  -0.6511  0.02186  0.03375  0.009899  0.01261  -0.8252  0.1101
6.446e+09  -0.8069  -0.373  0.02235  0.02773  0.02107  0.01731  -0.758  0.3283
6.448e+09  -0.8942  -0.1111  -0.01138  0.004634  0.01831  0.03449  -0.5925  0.6472
6.449e+09  -0.7963  0.2055  -0.01224  -0.01283  0.006299  0.03498  -0.3478  0.7322
6.45e+09  -0.7106  0.5027  -0.02129  0.0129  0.02467  -0.01684  -0.06719  0.8266
6.451e+09  -0.5222  0.7412  -0.05  0.008113  0.00829  8.095e-05  0.2209  0.8073
6.452e+09  -0.2317  0.8228  0.001066  -0.002714  0.04382  0.03465  0.5092  0.6347
6.454e+09  0.05397  0.8816  -0.05878  -0.007459  -0.06677  -0.005171  0.6984  0.4876
6.455e+09  0.382  0.7857  0.01866  0.0157  0.02442  0.01014  0.8103  0.2295
6.456e+09  0.6474  0.6702  0.01764  -0.02218  0.03362  0.009501  0.8493  -0.04612
6.458e+09  0.7928  0.3327  0.02105  -0.02443  0.03017  -0.0167  0.752  -0.4063
6.459e+09  0.8405  0.05634  -0.00931  0.01034  -0.005828  0.02496  0.5682  -0.622
6.46e+09  0.8502  -0.2352  -0.0144  -0.05543  0.03196  -0.01435  0.3522  -0.7642
6.461e+09  0.6717  -0.4754  0.003657  0.01237  0.04117  -0.02174  0.09539  -0.8117
6.462e+09  0.5168  -0.7245  0.01588  0.02541  -0.003655  -0.06255  -0.2208  -0.8115
6.464e+09  0.2213  -0.8386  -0.0201  -0.05352  0.001075  0.004948  -0.4503  -0.6619
6.465e+09  -0.05792  -0.8765  0.03695  0.01006  -0.05194  -0.02255  -0.7046  -0.432
6.466e+09  -0.3462  -0.7895  0.0283  0.01376  -0.0186  -0.03354  -0.7712  -0.2135
6.468e+09  -0.6272  -0.5723  -0.009172  0.01182  0.008255  -0.02284  -0.7692  0.06639
6.469e+09  -0.7626  -0.3249  -0.02496  0.006728  -0.01406  0.0496  -0.7244  0.3477
6.47e+09  -0.9165  -0.1395  0.0432  0.002685  0.005172  0.04218  -0.5938  0.5781
6.471e+09  -0.8422  0.2415  -0.02754  -0.01536  -0.01997  -0.01635  -0.353  0.7219
6.472e+09  -0.7629  0.497  -0.003471  0.01693  -0.007374  0.04761  -0.1201  0.7561
6.474e+09  -0.501  0.7185  -0.04219  -0.02369  -0.02683  0.004523  0.1997  0.7597
6.475e+09  -0.152  0.8572  0.0302  -0.008698  -0.03772  0.02907  0.481  0.6583
6.476e+09  0.1195  0.8438  0.0161  -0.009476  0.008905  -0.03881  0.6112  0.4376
6.478e+09  0.4047  0.8376  -0.001527  -6.635e-05  0.02631  -0.02948  0.7663  0.2267
6.479e+09  0.6578  0.6372  -0.008033  -0.00514  -0.02558  0.001681  0.765  -0.06786
6.48e+09  0.793  0.3529  0.0393  0.02945  0.01128  -0.002432  0.7143  -0.3787
6.481e+09  0.8708  0.08667  0.02315  -0.0006516  -0.02279  -0.0009198  0.5431  -0.5567
6.482e+09  0.8581  -0.2626  -0.005317  -0.01822  -0.03461  0.002161  0.3375  -0.6999
6.484e+09  0.7397  -0.4946  0.03029  0.0206  0.0475  0.0667  0.03521  -0.7452
6.485e+09  0.481  -0.7207  -0.009991  -0.03024  -0.02241  0.01028  -0.2052  -0.71
6.486e+09  0.152  -0.8668  -0.02857  0.01073  -0.02842  -0.01684  -0.4843  -0.621
6.488e+09  -0.09731  -0.9213  -0.0141  0.02769  0.0102  0.04782  -0.6515  -0.4381
6.489e+09  -0.4463  -0.8301  0.0269  0.02542  0.01657  0.01043  -0.7447  -0.2082
6.49e+09  -0.6063  -0.5838  0.01195  0.01383  -0.01521  -0.01095  -0.7436  0.1017
6.491e+09  -0.7634  -0.2836  0.03085  0.00738  -0.02247  0.01417  -0.7143  0.3092
6.492e+09  -0.8901  -0.02939  0.02948  0.0301  0.05351  0.0399  -0.5103  0.6014
6.494e+09  -0.8429  0.2399  0.01096  0.01809  0.05881  0.03384  -0.3172  0.7294
6.495e+09  -0.7328  0.5262  0.006132  -0.005201  0.05584  -0.006381  -0.04358  0.7312
6.496e+09  -0.4671  0.7905  -0.03526  -0.002009  -0.02063  -0.01106  0.2027  0.7458
6.498e+09  -0.2092  0.8474  0.01695  -0.02103  0.007893  0.0131  0.4275  0.5993
6.499e+09  0.1301  0.9043  0.01628  0.02657  -0.02798  0.02896  0.6469  0.4046
6.5e+09  0.3895  0.7576  -0.02397  -0.01478  0.01272  0.0106  0.7202  0.2022
6.501e+09  0.725  0.6076  -0.03962  0.004396  -0.0087  -0.03826  0.7789  -0.1165
6.502e+09  0.8828  0.3246  -0.01494  -0.0249  0.02291  -0.008784  0.6733  -0.3132
6.504e+09  0.9472  -0.006491  0.01067  -0.01978  -0.04015  0.008773  0.4921  -0.5683
6.505e+09  0.8885  -0.2609  -0.009102  -0.006184  0.02223  0.02247  0.2797  -0.7159
6.506e+09  0.6617  -0.5925  -0.01059  0.001778  0.008373  0.02345  0.009251  -0.7239
6.508e+09  0.4303  -0.7936  -0.02421  0.02661  -0.02763  -0.01666  -0.2472  -0.6858
6.509e+09  0.1846  -0.8895  0.006486  -0.0292  0.009954  -0.0656  -0.4409  -0.625
6.51e+09  -0.2111  -0.9267  0.01689  -0.01087  -0.02666  0.009436  -0.661  -0.3592
6.511e+09  -0.5058  -0.7974  0.02077  -0.01269  -0.01038  -0.009561  -0.7503  -0.11
6.512e+09  -0.7091  -0.5521  -0.01363  0.03119  -0.02992  0.04291  -0.7536  0.1268
6.514e+09  -0.7841  -0.307  0.002181  -0.01903  -0.001262  -0.03054  -0.6347  0.4168
6.515e+09  -0.92  -0.01935  -0.00932  -0.02776  0.0242  -0.02709  -0.4953  0.6084
6.516e+09  -0.862  0.3554  0.004387  0.01588  0.0419  -0.01017  -0.2768  0.7191
6.518e+09  -0.7156  0.5817  0.009054  0.03143  0.01689  0.008694  -0.01081  0.7414
6.519e+09  -0.4708  0.7835  0.02143  -0.02015  -0.009552  0.001258  0.241  0.6863
6.52e+09  -0.1336  0.9517  0.003511  -0.01327  -0.05674  -0.008277  0.5203  0.5596
6.521e+09  0.1939  0.9287  0.00345  -0.01432  0.006411  -0.009808  0.6239  0.3262
6.522e+09  0.4865  0.8352  -0.02821  -0.006924  0.0001579  -0.01209  0.7209  0.1206
6.524e+09  0.7253  0.5706  -0.02099  0.003438  0.02012  -0.05143  0.6926  -0.1797
6.525e+09  0.848  0.2902  0.04624  -0.01896  -0.005214  -0.03851  0.6083  -0.4149
6.526e+09  0.9534  -0.038  0.021  0.0001271  -0.01445  -0.01154  0.4319  -0.5871
6.528e+09  0.8878  -0.3306  0.01276  -0.01522  0.003334  0.04477  0.2001  -0.6863
6.529e+09  0.7402  -0.6563  -0.01075  0.00912  0.009272  -0.05486  -0.06219  -0.7565
6.53e+09  0.412  -0.8175  -0.009915  -0.01523  0.03997  -0.006452  -0.3032  -0.6115
6.531e+09  0.1251  -0.933  -0.01457  -0.01872  0.03205  -0.07162  -0.4472  -0.478
6.532e+09  -0.2363  -0.9513  0.009743  -0.01181  -0.008942  0.008781  -0.5946  -0.3174
6.534e+09  -0.4804  -0.8417  0.02597  -0.003566  0.06097  -0.009706  -0.6286  -0.08305
6.535e+09  -0.8805  -0.5432  0.0188  0.005892  -0.02459  0.02918  -0.6388  0.09415
6.536e+09  -0.9512  -0.2575  0.0002746  0.01271  0.04371  0.00563  -0.594  0.3081
6.538e+09  -0.977  0.1485  0.01927  0.01189  -0.04404  -0.02927  -0.461  0.5061
6.539e+09  -0.8907  0.4036  0.006466  0.009554  -0.03884  0.0004418  -0.2626  0.626
6.54e+09  -0.6391  0.6505  0.02298  0.001093  -0.02401  -0.01249  -0.07237  0.6771
6.541e+09  -0.3545  0.8809  0.005497  -0.04623  -0.03536  0.06691  0.1725  0.6735
6.542e+09  -0.07499  0.9212  0.0171  0.005787  -0.03779  -0.02129  0.4061  0.6077
6.544e+09  0.2999  0.9519  0.01039  0.01475  -0.02792  0.01227  0.5948  0.3869
6.545e+09  0.6158  0.7401  0.02379  0.006845  -0.02059  -0.05203  0.7008  0.1915
6.546e+09  0.8634  0.5009  0.03102  0.003038  -0.00888  0.01334  0.728  -0.05693
6.548e+09  1.001  0.1977  0.01561  -0.02602  -0.05832  -0.06369  0.6512  -0.3436
6.549e+09  0.9912  -0.121  0.003601  -0.01253  -0.04698  -0.01651  0.474  -0.5814
6.55e+09  0.831  -0.4774  0.0005289  -0.01076  -0.01056  -0.002264  0.2875  -0.6754
