# Hz S RI R 50
6.25e+09  -0.2826  0.8307  -0.01448  -0.00905  0.01624  -0.02396  0.1697  0.4849
6.251e+09  0.0587  0.9211  0.005471  -0.03212  -0.00392  -0.04767  0.3437  0.4069
6.252e+09  0.2647  0.7861  -0.009688  0.007229  0.01122  -0.02302  0.5339  0.2282
6.254e+09  0.5722  0.6525  0.002243  -0.02164  0.01547  -0.02734  0.6507  0.04562
6.255e+09  0.7308  0.4193  -0.01002  -0.01783  -0.05616  0.008147  0.5624  -0.2171
6.256e+09  0.872  0.1116  0.002082  0.004424  -0.009201  0.003759  0.456  -0.4437
6.258e+09  0.8128  -0.1945  0.01092  -0.004561  -0.01669  0.002527  0.2793  -0.5883
6.259e+09  0.7427  -0.4601  0.009795  0.01006  0.01921  0.01141  0.02257  -0.6713
6.26e+09  0.5507  -0.7382  0.006591  0.02801  -0.005935  0.02463  -0.2512  -0.6593
6.261e+09  0.2668  -0.7797  -0.001648  0.01063  0.03467  -0.05589  -0.4579  -0.5408
6.262e+09  -0.02432  -0.8237  -0.02112  0.00153  0.03075  0.0302  -0.6216  -0.326
6.264e+09  -0.2875  -0.7639  -0.01314  -0.01576  -0.02987  -0.03949  -0.7283  -0.08207
6.265e+09  -0.549  -0.6606  -0.002246  -0.003913  0.064  -0.01063  -0.6788  0.1568
6.266e+09  -0.7048  -0.3872  0.03826  -0.01059  0.05603  -0.01654  -0.5943  0.4196
6.268e+09  -0.8442  -0.08925  0.01828  -0.0135  -0.02472  0.02276  -0.4625  0.59
6.269e+09  -0.7714  0.1513  -0.01714  -0.03093  -0.0195  0.02204  -0.2003  0.7428
6.27e+09  -0.6657  0.3944  0.04109  -0.005037  -0.01995  -0.003196  0.05897  0.7381
6.271e+09  -0.5185  0.6291  0.0217  0.009  -0.01754  -0.001858  0.3206  0.6741
6.272e+09  -0.2239  0.7778  0.0176  0.008584  0.00591  0.003804  0.5141  0.532
6.274e+09  0.09809  0.8629  -0.02502  -0.01532  0.01075  -0.03128  0.6862  0.3053
6.275e+09  0.309  0.7785  -0.006117  -0.006416  0.02517  -0.01405  0.7829  0.04683
6.276e+09  0.5745  0.6274  -0.007291  -0.001758  -0.0007778  -0.009124  0.7478  -0.2422
6.278e+09  0.7933  0.3913  0.01574  0.01254  -0.01313  -0.007086  0.6104  -0.4754
6.279e+09  0.846  0.06769  -0.002473  0.02791  -0.01852  -0.002603  0.4046  -0.6648
6.28e+09  0.8346  -0.2217  -0.02146  0.01642  0.01957  0.02825  0.164  -0.7926
6.281e+09  0.6773  -0.4803  0.005119  0.003069  0.008996  0.04968  -0.1153  -0.7986
6.282e+09  0.432  -0.6866  0.04098  -0.02701  0.0166  -0.005827  -0.3623  -0.6959
6.284e+09  0.2165  -0.8146  -0.02563  0.0342  -0.003063  -0.006798  -0.6101  -0.5091
6.285e+09  -0.1155  -0.8041  0.007423  -0.02548  -0.01514  0.02749  -0.7133  -0.3056
6.286e+09  -0.3936  -0.7808  0.008847  0.01163  -0.01917  0.03672  -0.7769  -0.01306
6.288e+09  -0.5797  -0.5847  0.007076  0.01418  0.04878  -0.05274  -0.7664  0.2643
6.289e+09  -0.7655  -0.3174  -0.01669  0.006385  0.02179  -0.02513  -0.6062  0.5186
6.29e+09  -0.8303  -0.08546  -0.03884  0.04724  0.01999  0.008198  -0.4318  0.6846
6.291e+09  -0.7505  0.2784  0.005845  -0.02784  0.08512  0.0003246  -0.1638  0.7944
6.292e+09  -0.672  0.5499  0.00681  0.005772  0.03694  -0.02703  0.1137  0.8115
6.294e+09  -0.4682  0.7212  0.0001449  -0.003098  0.003878  -0.0358  0.4146  0.7039
6.295e+09  -0.1271  0.7885  0.02123  -0.03145  0.01455  -0.04535  0.6357  0.5318
6.296e+09  0.07684  0.8284  -0.003426  0.007761  0.0104  -0.006757  0.7817  0.2657
6.298e+09  0.3795  0.7542  -0.00509  -0.03092  0.02255  0.02223  0.851  0.01536
6.299e+09  0.6829  0.5875  0.01137  0.006987  0.003665  -0.03592  0.7954  -0.2689
6.3e+09  0.7772  0.3467  -0.001818  0.001334  -0.0003393  0.05491  0.6579  -0.497
6.301e+09  0.8021  0.02569  0.0009483  -0.001674  0.03019  -0.04191  0.4399  -0.6932
6.302e+09  0.7883  -0.2924  0.01907  -0.003417  -0.01631  -0.01612  0.1609  -0.8259
6.304e+09  0.6463  -0.5391  0.002521  0.008469  0.01924  0.01625  -0.0985  -0.8277
6.305e+09  0.4621  -0.7359  -0.004266  0.03402  0.005991  0.04461  -0.4056  -0.7154
6.306e+09  0.1542  -0.8246  0.04262  -0.02487  0.03883  -0.009035  -0.6384  -0.5868
6.308e+09  -0.1559  -0.7593  -0.03681  -0.0298  -0.01755  -0.01121  -0.7965  -0.3085
6.309e+09  -0.4025  -0.6952  -0.01629  -0.01533  0.008056  -0.01514  -0.8819  0.006227
6.31e+09  -0.6372  -0.487  0.004583  -0.003777  -0.006579  -0.02018  -0.843  0.2761
6.311e+09  -0.8246  -0.258  -0.007406  0.01251  0.01132  -0.04082  -0.6702  0.5174
6.312e+09  -0.8629  -0.004624  -0.008536  -0.005795  0.003247  0.04136  -0.4281  0.7129
6.314e+09  -0.7287  0.3146  0.02661  -0.02117  -0.002541  0.01247  -0.1927  0.8377
6.315e+09  -0.6596  0.5655  -0.01997  -0.009127  -0.00707  0.06555  0.1708  0.8678
6.316e+09  -0.3974  0.7688  -0.01483  -0.0065  -0.01093  0.00568  0.4192  0.7714
6.318e+09  -0.1434  0.8217  -0.01592  -0.01199  0.01503  0.00797  0.6745  0.5548
6.319e+09  0.126  0.8515  0.01763  -0.02195  -0.01246  -0.01367  0.8485  0.3226
6.32e+09  0.4612  0.7495  0.02614  0.04454  -0.01236  -0.08332  0.8883  0.003958
6.321e+09  0.7017  0.533  0.03879  0.00615  -0.02473  0.007643  0.8264  -0.2841
6.322e+09  0.8124  0.2558  -0.006448  0.02193  -0.02344  0.04831  0.6893  -0.5594
6.324e+09  0.895  -0.104  -0.01205  0.005284  -0.06312  0.0134  0.4648  -0.7215
6.325e+09  0.7523  -0.3258  0.01273  -0.01579  0.005714  -0.02128  0.1327  -0.8894
6.326e+09  0.5558  -0.6633  -0.01074  0.0381  -0.02059  0.04833  -0.1155  -0.8892
6.328e+09  0.3712  -0.8442  -0.008065  -0.01758  0.02633  0.01522  -0.4514  -0.7631
6.329e+09  0.1037  -0.8773  -0.0124  -0.0159  -0.0164  -0.02741  -0.691  -0.5959
6.33e+09  -0.2183  -0.8043  0.01488  0.007701  0.008574  -0.01314  -0.8609  -0.318
6.331e+09  -0.4714  -0.6902  0.007632  -0.01402  0.02502  -0.01411  -0.8992  -0.06178
6.332e+09  -0.7162  -0.4712  0.009593  0.01992  -0.007816  0.004355  -0.8805  0.2684
6.334e+09  -0.8233  -0.2151  0.01805  0.01859  -0.01808  0.03252  -0.7335  0.5631
6.335e+09  -0.9057  0.1028  0.002263  0.0001852  0.01836  -0.003595  -0.4618  0.7838
6.336e+09  -0.7426  0.4063  -0.0359  0.0394  0.01607  -0.02132  -0.2025  0.9249
6.338e+09  -0.5369  0.6249  0.0003103  -0.02145  0.01866  0.04115  0.09449  0.8973
6.339e+09  -0.3128  0.8153  0.003001  0.006852  -0.04356  0.003857  0.4227  0.7932
6.34e+09  0.04597  0.8446  -0.004954  -0.001049  0.01261  -0.01925  0.6913  0.6416
6.341e+09  0.3287  0.8845  0.02367  -0.02127  0.01124  0.03488  0.8552  0.3262
6.342e+09  0.5597  0.7243  -0.02059  0.001841  0.004551  -0.02872  0.9446  0.02613
6.344e+09  0.7529  0.4428  -0.02332  0.05551  -0.008572  0.01185  0.8634  -0.262
6.345e+09  0.8394  0.1592  -0.02606  -0.02382  -0.0156  0.01588  0.7583  -0.5834
6.346e+09  0.8773  -0.1675  -0.00965  0.01825  0.00317  -0.008948  0.511  -0.7999
6.348e+09  0.7406  -0.4802  0.008245  -0.01489  0.02132  -0.001579  0.2048  -0.9012
6.349e+09  0.5003  -0.713  -0.009212  0.00681  -0.01075  -0.01984  -0.1215  -0.9097
6.35e+09  0.3092  -0.8401  0.01961  0.006192  0.007842  -0.02713  -0.4042  -0.8465
6.351e+09  -0.02319  -0.8909  0.04381  -0.01375  -0.005971  -0.03566  -0.6589  -0.6709
6.352e+09  -0.3514  -0.8392  -0.04295  -0.02021  0.00997  -0.007188  -0.8681  -0.3605
6.354e+09  -0.5859  -0.6585  0.001709  0.0162  -0.02083  -0.015  -0.8979  -0.05879
6.355e+09  -0.7756  -0.4103  -0.00374  -0.04161  0.02208  0.01378  -0.9039  0.2579
6.356e+09  -0.8916  -0.1122  0.01463  -0.02906  -0.005889  0.03073  -0.747  0.5473
6.358e+09  -0.8469  0.2295  0.03138  -0.006488  0.001157  -0.04234  -0.5166  0.7883
6.359e+09  -0.7482  0.5149  0.01009  -0.005225  -0.04946  -0.02214  -0.2588  0.9009
6.36e+09  -0.531  0.7326  0.008609  0.02057  0.03207  0.02865  0.1121  0.9406
6.361e+09  -0.2169  0.903  -0.00312  -0.01649  0.01694  -0.01405  0.4387  0.8293
6.362e+09  0.08112  0.8811  0.0008188  0.01045  -0.03591  0.03017  0.6887  0.648
6.364e+09  0.4097  0.8026  0.0006694  0.006165  -0.0005312  0.03153  0.8851  0.3928
6.365e+09  0.6427  0.5766  0.006384  -0.0004376  0.05509  -0.02248  0.9343  0.08999
6.366e+09  0.8001  0.3196  -0.009272  0.004368  0.002763  0.02144  0.9651  -0.2517
6.368e+09  0.8795  0.1049  0.005253  0.03603  0.0202  0.01618  0.774  -0.5364
6.369e+09  0.8413  -0.2323  0.01462  0.004772  -0.02698  -0.008983  0.5133  -0.7725
6.37e+09  0.7164  -0.5433  -0.01448  -0.00639  0.01741  -0.00827  0.2814  -0.9512
6.371e+09  0.4853  -0.7118  0.007686  0.003342  -0.03347  -0.03708  -0.1224  -0.9407
6.372e+09  0.1768  -0.8893  -0.001956  0.001074  -0.02375  0.02858  -0.4422  -0.8383
6.374e+09  -0.143  -0.8623  -0.002715  -0.02163  -0.03138  0.01471  -0.6814  -0.6622
6.375e+09  -0.3799  -0.7767  -0.03665  -0.01831  0.05037  0.04015  -0.8166  -0.4209
6.376e+09  -0.7092  -0.6095  -0.01232  0.004206  -0.01639  0.006455  -0.9602  -0.06596
6.378e+09  -0.7909  -0.3499  0.02141  0.05413  -0.007036  0.00233  -0.9266  0.2105
6.379e+09  -0.8972  -0.0007842  -0.004989  -0.0464  0.02207  0.02381  -0.788  0.5326
6.38e+09  -0.8726  0.307  0.008064  0.001706  -0.02558  0.03403  -0.5383  0.7736
6.381e+09  -0.6696  0.5927  -0.0447  -0.007203  -0.01756  0.0269  -0.2684  0.8738
6.382e+09  -0.4236  0.7629  -0.01822  0.05187  -0.03463  -0.02675  0.02823  0.9256
6.384e+09  -0.1963  0.9147  -0.01521  0.008149  0.02145  0.01177  0.3653  0.8253
6.385e+09  0.1769  0.8812  0.01653  0.02927  0.02018  -0.003051  0.6247  0.6962
6.386e+09  0.4675  0.745  0.03037  -0.01925  0.04032  0.02867  0.8215  0.4331
6.388e+09  0.7278  0.5168  -0.03065  0.03972  -0.06006  0.003808  0.9518  0.09379
6.389e+09  0.8941  0.2529  0.01373  0.00125  0.04623  0.0122  0.8833  -0.1926
6.39e+09  0.8692  0.01099  -0.001986  -0.008921  0.01871  0.003856  0.752  -0.5305
6.391e+09  0.8541  -0.335  0.02041  0.01749  -0.03056  0.004806  0.621  -0.7429
6.392e+09  0.6763  -0.5891  0.01126  -0.003979  -0.03919  -0.003161  0.318  -0.8797
6.394e+09  0.4411  -0.7799  0.0359  0.01525  -0.01978  0.01552  -0.04292  -0.9646
6.395e+09  0.1207  -0.8743  -0.0586  -0.007732  0.01872  -0.001598  -0.3243  -0.8349
6.396e+09  -0.1864  -0.8864  -0.002049  0.001333  0.0259  0.02129  -0.6063  -0.6674
6.398e+09  -0.4561  -0.752  0.01971  -0.0265  0.02669  -0.004905  -0.816  -0.4275
6.399e+09  -0.7424  -0.505  -0.01013  0.0109  -0.001286  0.004886  -0.9153  -0.1498
6.4e+09  -0.8129  -0.2684  -0.0007853  -0.007315  0.007678  -0.03365  -0.9006  0.1854
6.401e+09  -0.864  0.02935  -0.006021  -0.003147  0.02283  -0.018  -0.7974  0.4616
6.402e+09  -0.8338  0.415  0.03477  -0.009152  0.007799  0.03615  -0.5785  0.7251
6.404e+09  -0.6247  0.599  0.02362  -0.01012  -0.004505  -0.0331  -0.2738  0.8735
6.405e+09  -0.3742  0.8091  -0.007156  0.04039  -0.01648  -0.002126  0.04732  0.9167
6.406e+09  -0.1345  0.881  -0.02083  0.01299  0.002833  -0.006549  0.2915  0.9014
6.408e+09  0.2315  0.8451  0.009326  0.02416  0.001619  0.03872  0.5459  0.6742
6.409e+09  0.4906  0.7012  -0.01275  -0.01587  0.03188  0.02467  0.7649  0.4645
6.41e+09  0.7696  0.478  0.01006  0.007618  -0.04254  -0.009427  0.859  0.1958
6.411e+09  0.8553  0.2334  -0.02196  -0.05233  0.0236  -0.02642  0.8742  -0.1399
6.412e+09  0.841  -0.0576  0.004725  -0.007178  0.02113  0.01445  0.7923  -0.4736
6.414e+09  0.8347  -0.3685  -0.02708  0.007391  -0.0005884  0.0503  0.5762  -0.6777
6.415e+09  0.6306  -0.6649  -0.04105  -0.04253  0.02591  -0.009233  0.3357  -0.8308
6.416e+09  0.3407  -0.7929  -0.0261  0.03129  -0.01294  -0.05961  -0.004615  -0.9064
6.418e+09  0.07739  -0.9207  -0.03158  -0.0144  -0.02852  -0.03495  -0.2519  -0.8957
6.419e+09  -0.3103  -0.8857  -0.02274  -0.037  0.03052  -0.003122  -0.5106  -0.6683
6.42e+09  -0.492  -0.6994  -0.03748  0.01744  0.01658  -0.03135  -0.7427  -0.5019
6.421e+09  -0.776  -0.509  -3.419e-05  -0.006668  -0.01279  -0.01385  -0.9046  -0.1397
6.422e+09  -0.8536  -0.1383  0.01904  -0.02056  -0.01973  0.01556  -0.8719  0.1449
6.424e+09  -0.8641  0.0707  0.04681  0.002446  0.02708  0.03445  -0.803  0.3845
6.425e+09  -0.7977  0.3952  -0.004869  0.03644  0.002534  -0.03156  -0.6146  0.6013
6.426e+09  -0.6561  0.6779  -0.03755  -0.008681  -0.02115  0.001659  -0.3007  0.762
6.428e+09  -0.3729  0.8719  -0.001561  -0.007796  0.02698  0.02162  -0.05041  0.8555
6.429e+09  -0.01493  0.9122  -0.03818  0.02961  0.006907  -0.07734  0.2359  0.8578
6.43e+09  0.2674  0.8827  0.0165  -0.04555  -0.01593  0.06047  0.5197  0.6844
6.431e+09  0.5132  0.7011  -0.02061  -0.01003  -0.005004  0.008923  0.7322  0.48
6.432e+09  0.7917  0.5369  0.02051  0.003255  -0.0337  0.04307  0.7893  0.2766
6.434e+09  0.9192  0.229  -0.01392  0.0114  0.009727  -0.004099  0.8276  -0.07527
6.435e+09  0.8445  -0.1135  0.006071  -0.01781  -0.01125  -0.01962  0.7396  -0.3971
6.436e+09  0.7752  -0.4035  -0.01242  -0.07863  0.02785  0.02878  0.6294  -0.5964
6.438e+09  0.6304  -0.6201  0.007161  -0.02566  0.02099  0.01604  0.3281  -0.7106
6.439e+09  0.3764  -0.8476  0.008811  -0.01695  -0.005331  -0.03905  0.09418  -0.8661
6.44e+09  0.03417  -0.8586  0.04989  0.05173  0.07476  -0.04549  -0.2446  -0.8112
6.441e+09  -0.2673  -0.7937  -0.01721  -0.04163  -0.01462  -0.03673  -0.4707  -0.7083
6.442e+09  -0.5606  -0.7544  -0.02863  -0.02133  -0.01135  0.02054  -0.7336  -0.4803
6.444e+09  -0.7832  -0.4648  -0.01042  -0.0253  -0.01578  0.03684  -0.8079  -0.2228
6.445e+09  -0.8645  -0.1833  0.01791  0.03713  0.01945  0.03423  -0.823  0.06226
6.446e+09  -0.8495  0.1473  -0.03584  -0.03197  -0.06144  -0.02632  -0.7529  0.3322
6.448e+09  -0.8052  0.4127  -0.01813  -0.006013  -0.01052  0.02399  -0.5887  0.6022
6.449e+09  -0.5817  0.6392  -0.02032  0.01856  0.035  -0.001572  -0.3307  0.7411
6.45e+09  -0.3108  0.8429  -0.03206  -0.001335  0.02462  0.0126  -0.06813  0.8303
6.451e+09  -0.01412  0.9304  0.01514  0.01693  0.01218  0.03709  0.2135  0.7727
6.452e+09  0.3082  0.8667  0.02148  -0.004373  -0.02452  0.06465  0.4691  0.6844
6.454e+09  0.6132  0.6871  0.02532  -0.09025  0.02213  -0.07222  0.7315  0.4438
6.455e+09  0.7598  0.5396  0.05627  -0.003732  -0.03737  0.01785  0.8458  0.2433
6.456e+09  0.8769  0.1749  -0.02395  0.007388  0.01788  -0.0422  0.8318  -0.1378
6.458e+09  0.857  -0.1248  -0.004706  -0.005006  -0.04743  -0.04726  0.7175  -0.3141
6.459e+09  0.8052  -0.4204  0.00523  -0.0001733  0.003693  -0.01116  0.593  -0.5569
6.46e+09  0.6048  -0.6627  -0.006582  0.003959  0.002279  -0.04124  0.3387  -0.7531
6.461e+09  0.3379  -0.8404  -0.007576  0.001572  0.003177  -0.03796  0.06618  -0.8381
6.462e+09  -0.0414  -0.8861  0.007066  0.0335  0.03852  0.01189  -0.2225  -0.7973
6.464e+09  -0.2565  -0.8388  0.002552  -0.002406  0.004249  -0.0164  -0.4666  -0.6554
6.465e+09  -0.5436  -0.6962  -0.001871  0.02856  0.0457  -0.003745  -0.6363  -0.436
6.466e+09  -0.7553  -0.4658  0.01672  0.04051  -0.04003  -0.02309  -0.7697  -0.1947
6.468e+09  -0.8895  -0.2122  0.01466  -0.003591  -0.028  0.001419  -0.761  0.09946
6.469e+09  -0.9209  0.1314  0.003162  0.04258  -0.01454  0.03457  -0.7121  0.3433
6.47e+09  -0.8684  0.4673  0.0002301  -0.0451  0.002023  -0.06461  -0.5335  0.5507
6.471e+09  -0.5516  0.7099  0.005366  -0.0172  -0.02447  -0.01365  -0.2988  0.7327
6.472e+09  -0.3817  0.8996  -0.02747  -0.04285  -0.02948  -0.0173  -0.06776  0.802
6.474e+09  -0.00394  0.9292  0.003326  0.02377  -0.01922  0.01005  0.205  0.7182
6.475e+09  0.3108  0.8756  -0.02906  -0.03129  0.01651  0.02529  0.4584  0.6774
6.476e+09  0.6677  0.6889  -0.009073  -0.01158  0.01516  0.0382  0.6412  0.4394
6.478e+09  0.7848  0.4656  -0.01067  0.01403  -0.0137  -0.006649  0.7596  0.1663
6.479e+09  0.9292  0.1399  -0.02256  -0.03441  -0.06945  0.001651  0.7888  -0.09813
6.48e+09  0.9434  -0.1846  -0.0001035  -0.001862  -0.01715  0.01673  0.7156  -0.2943
6.481e+09  0.7558  -0.4825  0.002386  0.02556  -0.0005301  0.02064  0.5354  -0.5721
6.482e+09  0.6051  -0.7123  -0.007301  0.007787  -0.002138  0.04664  0.3356  -0.7022
6.484e+09  0.2789  -0.9014  0.04035  -0.008063  0.01055  -0.01483  0.06139  -0.7371
6.485e+09  -0.05327  -0.9478  -0.03338  0.007932  -0.04288  0.01211  -0.197  -0.7474
6.486e+09  -0.3742  -0.8474  0.005055  0.003494  -0.01966  -0.02453  -0.4338  -0.6298
6.488e+09  -0.6108  -0.6829  -0.003692  -0.02919  -0.009747  0.03267  -0.6212  -0.424
6.489e+09  -0.8449  -0.4742  0.01095  -0.0007407  -0.001471  0.02228  -0.7621  -0.1538
6.49e+09  -0.9849  -0.1133  -0.0135  0.008973  -0.01524  -0.0508  -0.774  0.0686
6.491e+09  -0.9162  0.1724  0.02657  -0.01903  0.008083  -0.03193  -0.7084  0.3617
6.492e+09  -0.7629  0.5533  -0.03093  0.01011  0.01298  0.01074  -0.5354  0.6061
6.494e+09  -0.5192  0.7553  0.004108  -0.04068  -0.04027  0.01023  -0.2871  0.6701
6.495e+09  -0.2572  0.8746  0.01853  0.01648  -0.03858  -0.1078  -0.07881  0.7631
6.496e+09  0.0969  0.9458  -0.004267  -0.01418  -0.02775  0.03323  0.2309  0.7361
6.498e+09  0.3417  0.897  -0.02269  -0.00851  0.04727  0.004977  0.4841  0.615
6.499e+09  0.6815  0.6725  -0.0248  -0.01188  -0.03232  -0.008485  0.6188  0.3937
6.5e+09  0.877  0.4138  0.03171  -0.04841  0.05415  -0.03132  0.7311  0.1461
6.501e+09  1.018  0.02681  -0.001384  -0.02793  0.01641  -0.02965  0.7519  -0.1036
6.502e+09  0.8921  -0.1955  0.00199  0.0194  0.004822  0.009524  0.6518  -0.3579
6.504e+09  0.7556  -0.5514  -0.01065  0.01406  -0.04301  0.02692  0.4965  -0.5359
6.505e+09  0.507  -0.7622  0.006184  0.004281  -0.02494  0.01115  0.2623  -0.7128
6.506e+09  0.2458  -0.9609  -0.02738  -0.005358  -0.003065  -0.04353  0.03445  -0.7656
6.508e+09  -0.1123  -0.9772  -0.003059  -0.02212  -0.006142  -0.045  -0.2603  -0.7284
6.509e+09  -0.4138  -0.8285  0.002021  -0.02291  0.04735  0.06124  -0.4983  -0.5892
6.51e+09  -0.5985  -0.6866  -0.004342  0.009711  0.01178  -0.03756  -0.6636  -0.3726
6.511e+09  -0.9118  -0.4154  -0.001884  0.01461  0.04937  0.002104  -0.7428  -0.1455
6.512e+09  -0.9402  -0.05947  -0.006322  0.0521  -0.03344  -0.002801  -0.7503  0.146
6.514e+09  -0.8605  0.3268  -0.005564  0.01643  -0.006712  0.02299  -0.6532  0.3912
6.515e+09  -0.7532  0.5579  0.02534  -0.0184  0.01205  -0.0137  -0.4959  0.5487
6.516e+09  -0.4937  0.8961  -0.05653  -0.00661  0.02187  0.02446  -0.2492  0.7355
6.518e+09  -0.1887  0.9558  -0.004121  -0.02492  -0.001847  -0.05157  -0.01978  0.7405
6.519e+09  0.1559  1.001  -0.005819  0.0006125  0.02008  -0.002402  0.248  0.6795
6.52e+09  0.493  0.812  -0.02428  0.009479  -0.01447  -0.02536  0.5075  0.5439
6.521e+09  0.805  0.6505  -0.007764  0.004892  0.002433  -0.02828  0.6335  0.3476
6.522e+09  0.9317  0.3111  -0.03315  0.008438  0.03496  -0.005782  0.7332  0.08329
6.524e+09  0.9454  -0.007058  0.03146  -0.02239  -0.003227  0.02195  0.7055  -0.1696
6.525e+09  0.8858  -0.4091  -0.01956  -0.01748  -0.0192  0.004506  0.6061  -0.4269
6.526e+09  0.7292  -0.6805  -0.02501  0.01148  0.04077  0.0124  0.4387  -0.5626
6.528e+09  0.4732  -0.8294  0.0216  -0.0004867  0.03857  0.004238  0.1846  -0.7057
6.529e+09  0.1726  -0.9985  0.01471  -0.008528  -0.04225  0.0196  -0.06893  -0.6963
6.53e+09  -0.2824  -0.9827  -0.02288  0.02304  -0.01214  -0.01473  -0.3065  -0.6397
6.531e+09  -0.5016  -0.8311  -0.002738  0.005711  -0.07111  -0.06086  -0.4834  -0.4921
6.532e+09  -0.83  -0.5944  -0.03007  -0.03907  0.05711  -0.002344  -0.5894  -0.3496
6.534e+09  -0.9612  -0.2542  0.004166  0.01772  0.03439  0.007168  -0.645  -0.08809
6.535e+09  -0.9578  0.1011  -0.000399  0.01978  0.01427  -0.02302  -0.6472  0.1132
6.536e+09  -0.8525  0.4458  -0.02567  -0.01515  0.04636  0.007783  -0.5508  0.316
6.538e+09  -0.6844  0.7024  0.02739  -0.05479  -0.01923  -0.008257  -0.43  0.5239
6.539e+09  -0.369  0.934  0.02323  0.01359  0.022  0.02724  -0.2779  0.5926
6.54e+09  -0.05726  0.9032  -0.0004432  0.01859  0.01649  0.04282  -0.03091  0.6818
6.541e+09  0.2853  0.9255  0.009741  -0.01375  -0.03234  0.02505  0.174  0.6482
6.542e+09  0.6575  0.6747  -0.009647  -0.0195  0.004831  0.002073  0.4127  0.5515
6.544e+09  0.8546  0.5125  -0.02129  -0.01213  -0.007525  -0.01964  0.6115  0.3989
6.545e+09  0.9202  0.1681  0.004312  0.007675  -0.01476  0.003686  0.7335  0.1502
6.546e+09  0.9262  -0.1961  0.00702  -0.007351  0.03939  0.01432  0.7127  -0.04169
6.548e+09  0.8262  -0.4606  -0.02692  -0.01923  0.005641  0.01669  0.6658  -0.3538
6.549e+09  0.5952  -0.7102  0.03705  -0.01109  0.006453  -0.0008554  0.5173  -0.5122
6.55e+09  0.3122  -0.8736  0.03716  -0.02181  0.005152  -0.05347  0.2843  -0.6817
