# Hz S RI R 50
6.25e+09  -0.1617  0.9224  0.003423  0.004201  -0.008822  0.04479  0.1579  0.502
6.251e+09  0.1684  0.8514  0.003383  0.0008519  -0.02235  0.01805  0.3569  0.3893
6.252e+09  0.499  0.7277  -0.005421  -0.01615  -0.02478  0.04185  0.5356  0.2452
6.254e+09  0.6688  0.4797  -0.01267  0.01156  -0.03885  -0.003393  0.5881  0.03696
6.255e+09  0.8254  0.2983  -0.004129  0.01653  -0.0007001  -0.05702  0.6024  -0.2132
6.256e+09  0.8423  0.01244  0.006355  0.003907  -0.0418  0.03252  0.486  -0.4473
6.258e+09  0.7985  -0.3021  0.006938  -0.002135  0.01723  -0.03384  0.2956  -0.5938
6.259e+09  0.6246  -0.5702  -0.0001937  -0.004227  0.0076  -0.04297  0.03814  -0.6824
6.26e+09  0.3245  -0.7198  -0.01744  0.004138  0.005238  -0.01961  -0.2112  -0.6562
6.261e+09  0.1088  -0.8622  0.02935  0.0122  0.02701  -0.04025  -0.4535  -0.5864
6.262e+09  -0.2303  -0.8474  -0.009685  -0.00304  -0.02614  0.03659  -0.6052  -0.3653
6.264e+09  -0.4418  -0.723  -0.002837  -0.01777  -0.0506  -0.023  -0.7184  -0.09415
6.265e+09  -0.6851  -0.5033  0.002416  -0.002184  0.04663  -0.03529  -0.7196  0.1565
6.266e+09  -0.8314  -0.2392  -0.01685  0.0135  0.03292  -0.05139  -0.6253  0.3965
6.268e+09  -0.8519  0.008897  -0.01074  0.02361  0.001213  0.04545  -0.4317  0.5978
6.269e+09  -0.7563  0.322  -0.007994  -0.01766  -0.04308  0.02579  -0.1808  0.7059
6.27e+09  -0.6035  0.587  -0.02854  -0.004989  -0.001576  -0.03989  0.08813  0.7603
6.271e+09  -0.3922  0.765  -0.01536  -0.02252  -0.007876  -0.02341  0.3418  0.661
6.272e+09  -0.1146  0.8409  0.02408  -0.005946  0.03249  0.0518  0.5543  0.5338
6.274e+09  0.218  0.773  0.02696  -0.01215  0.03297  -0.06092  0.6903  0.2758
6.275e+09  0.4339  0.7121  0.02024  -0.01406  0.0254  -0.02249  0.7514  0.07103
6.276e+09  0.6866  0.4961  -0.0007297  0.01108  -0.02748  -0.01983  0.7351  -0.2259
6.278e+09  0.7935  0.2604  0.003622  -0.01844  -0.04629  0.01329  0.6038  -0.4961
6.279e+09  0.7652  -0.05575  -0.006138  -0.005433  0.02163  0.02801  0.4593  -0.6518
6.28e+09  0.7956  -0.3906  0.01261  0.009098  -0.01608  -0.02175  0.1616  -0.7621
6.281e+09  0.5611  -0.5828  -0.01152  -0.02432  -0.03122  -0.04321  -0.1301  -0.7457
6.282e+09  0.3192  -0.7598  -0.01884  0.02505  -0.01431  -0.03292  -0.3656  -0.692
6.284e+09  0.0332  -0.8509  -0.01798  0.005651  0.04584  0.02843  -0.5761  -0.521
6.285e+09  -0.2352  -0.8238  0.01623  0.002689  0.04115  0.03245  -0.6871  -0.3087
6.286e+09  -0.5496  -0.6797  -0.01232  0.01053  0.01631  0.00714  -0.7783  0.0002157
6.288e+09  -0.677  -0.4154  0.01648  0.001673  0.01203  0.03541  -0.722  0.2639
6.289e+09  -0.8399  -0.1488  0.004042  -0.00116  -0.05179  -0.05008  -0.6559  0.5234
6.29e+09  -0.8207  0.1075  -0.0228  -0.009525  -0.01315  0.04197  -0.4275  0.6517
6.291e+09  -0.7475  0.3942  -0.005221  -0.016  -0.02129  -0.0254  -0.1396  0.7982
6.292e+09  -0.5423  0.6349  0.01554  0.004816  0.02689  0.001471  0.1219  0.7843
6.294e+09  -0.3235  0.7698  0.0001075  0.01011  -0.03889  0.04642  0.3947  0.7114
6.295e+09  0.01163  0.8601  -0.01072  -0.01845  0.0319  0.04154  0.6447  0.5385
6.296e+09  0.2507  0.8439  0.01623  -0.007427  0.04272  -0.003909  0.758  0.2879
6.298e+09  0.5776  0.6626  -0.003501  0.03531  -0.01667  -0.004949  0.8128  0.02021
6.299e+09  0.7076  0.3878  0.006109  -0.008378  -0.01687  -0.02555  0.81  -0.2944
6.3e+09  0.7843  0.1449  -0.007341  0.01795  0.01641  0.01935  0.6667  -0.5425
6.301e+09  0.8034  -0.1409  -0.004516  0.01384  -0.006877  0.01084  0.4341  -0.6941
6.302e+09  0.7097  -0.4007  -0.01247  -0.03888  0.01914  0.01188  0.1418  -0.8064
6.304e+09  0.5621  -0.66  0.007639  0.008581  -0.02832  0.03229  -0.129  -0.8384
6.305e+09  0.3088  -0.8048  0.008448  -0.03889  -0.05151  0.06287  -0.4439  -0.7565
6.306e+09  -0.06316  -0.8113  -0.01398  -0.007355  -0.003164  -0.003623  -0.6493  -0.5491
6.308e+09  -0.3478  -0.7698  -0.01751  0.01077  0.003435  0.004158  -0.8077  -0.297
6.309e+09  -0.5263  -0.6131  0.01778  0.001899  -0.02619  -0.01772  -0.896  -0.02166
6.31e+09  -0.8011  -0.4295  -0.0113  -0.007797  -0.01562  -0.01415  -0.8267  0.2734
6.311e+09  -0.8476  -0.1093  0.02764  0.004689  0.04258  -0.01032  -0.6646  0.5514
6.312e+09  -0.8339  0.1851  -0.01233  -0.02437  0.02337  -0.02541  -0.4375  0.7306
6.314e+09  -0.6946  0.5094  0.003737  0.01101  0.01074  -0.009201  -0.156  0.8746
6.315e+09  -0.5283  0.6448  -0.008468  0.01178  -0.01744  0.01462  0.139  0.877
6.316e+09  -0.2101  0.8004  0.03236  0.003554  0.003451  0.01418  0.4218  0.7549
6.318e+09  0.04614  0.8788  0.03656  -0.02494  0.009898  -0.02312  0.6362  0.5746
6.319e+09  0.3376  0.7397  -0.004054  0.0211  0.03897  0.01914  0.8245  0.3208
6.32e+09  0.5948  0.6752  -0.01236  -0.006887  -0.04655  0.05291  0.8708  0.02112
6.321e+09  0.7586  0.3419  0.02839  -0.04041  0.0001796  0.008855  0.8115  -0.3085
6.322e+09  0.8707  0.06209  0.001682  0.007113  -0.006751  0.02854  0.7066  -0.5953
6.324e+09  0.8825  -0.2602  0.01259  -0.005378  -0.03916  -0.00225  0.4677  -0.775
6.325e+09  0.6883  -0.5269  0.0265  -0.0006106  0.00498  -0.05463  0.172  -0.903
6.326e+09  0.496  -0.6904  0.02375  0.002902  0.004428  0.09147  -0.1494  -0.8928
6.328e+09  0.2382  -0.8498  0.01572  0.01134  0.07998  -0.008192  -0.4221  -0.7867
6.329e+09  -0.09075  -0.8545  -0.006703  0.02448  0.01477  0.01938  -0.6919  -0.5916
6.33e+09  -0.4101  -0.7343  -0.001828  0.008618  -0.03189  0.02393  -0.8497  -0.356
6.331e+09  -0.6271  -0.5691  -0.01034  0.05248  -0.01307  0.02314  -0.8679  -0.01773
6.332e+09  -0.8023  -0.3192  -0.0251  0.01144  0.04811  -0.02  -0.8553  0.3004
6.334e+09  -0.8811  0.03027  0.006708  0.002654  -0.02359  -0.001218  -0.7357  0.5506
6.335e+09  -0.8303  0.3516  0.01319  0.007023  -0.006242  0.008865  -0.5066  0.7885
6.336e+09  -0.6798  0.6056  -0.006122  -0.0212  -0.002082  0.002077  -0.2  0.9024
6.338e+09  -0.4706  0.756  -0.01444  -0.05582  0.007961  -0.03507  0.1178  0.9368
6.339e+09  -0.1549  0.8452  -0.03083  -0.02265  0.02714  0.04565  0.394  0.8131
6.34e+09  0.1378  0.9072  5.125e-05  0.003032  0.008104  -0.0004124  0.6906  0.5813
6.341e+09  0.4477  0.7663  -0.02442  0.01779  -0.02797  0.07086  0.8545  0.3399
6.342e+09  0.6627  0.5609  -0.02384  -0.01034  0.003861  0.05053  0.9351  0.02887
6.344e+09  0.8476  0.2637  0.0158  -0.002628  -0.01341  0.008557  0.9263  -0.2484
6.345e+09  0.9424  -0.07768  -0.02313  0.03749  0.001428  -0.0008555  0.7522  -0.5554
6.346e+09  0.8031  -0.3475  -0.02846  0.002373  0.02067  -0.000469  0.5167  -0.7635
6.348e+09  0.5837  -0.6315  0.02184  0.0009591  0.009604  0.02428  0.1953  -0.911
6.349e+09  0.3899  -0.8179  -0.02076  0.03355  0.0374  0.04007  -0.1  -0.9369
6.35e+09  0.08714  -0.8743  0.001892  -0.003545  0.005817  0.01166  -0.4142  -0.8414
6.351e+09  -0.1868  -0.8896  0.0008662  -0.01592  0.006034  0.0006946  -0.654  -0.6602
6.352e+09  -0.481  -0.759  -0.006079  0.02266  -0.02524  -0.0205  -0.8545  -0.4003
6.354e+09  -0.7252  -0.4571  0.02726  -0.02669  -0.001741  -0.02871  -0.9263  -0.06782
6.355e+09  -0.8333  -0.2277  -0.0006261  -0.03433  -0.04347  -0.02155  -0.9161  0.2616
6.356e+09  -0.8821  0.109  -0.01687  -0.0184  0.03805  0.04857  -0.7697  0.5512
6.358e+09  -0.7591  0.4163  -0.002121  0.01847  0.03756  0.01593  -0.5247  0.8362
6.359e+09  -0.5907  0.6567  -0.01573  0.0139  -0.009304  -0.03542  -0.2044  0.9263
6.36e+09  -0.3297  0.827  0.01536  -0.02311  -0.00589  -0.01655  0.1122  0.9342
6.361e+09  -0.05174  0.8058  -0.005598  0.03503  -0.01515  -0.003447  0.4319  0.8548
6.362e+09  0.2918  0.8436  0.005139  -0.007075  0.002428  0.06745  0.6758  0.6635
6.364e+09  0.5711  0.6922  -0.009943  -0.007269  0.03765  -0.03699  0.8786  0.3891
6.365e+09  0.7803  0.4367  -0.01446  -0.002962  -0.02416  0.01269  0.9299  0.07013
6.366e+09  0.8468  0.146  -0.009659  -0.003722  -0.01943  0.03187  0.8875  -0.2395
6.368e+09  0.8992  -0.1775  -0.005538  0.02393  0.05024  -0.006171  0.7492  -0.5765
6.369e+09  0.81  -0.4427  0.01168  0.02609  0.045  -0.0119  0.5926  -0.7678
6.37e+09  0.5815  -0.6818  0.0004556  0.04468  0.0007851  -0.001301  0.2237  -0.9439
6.371e+09  0.2776  -0.8391  -0.00191  0.02079  -0.04796  0.01384  -0.05288  -0.9271
6.372e+09  0.03002  -0.8886  -0.01475  -0.0008343  -0.003301  -0.01684  -0.3978  -0.8921
6.374e+09  -0.3546  -0.8608  -0.004727  0.03995  -0.01681  -0.01412  -0.6252  -0.7243
6.375e+09  -0.6252  -0.694  -0.02912  -0.02242  0.00787  -0.0005023  -0.8714  -0.3953
6.376e+09  -0.7727  -0.4148  0.01242  0.01974  0.004722  -0.0389  -0.9377  -0.08223
6.378e+09  -0.8958  -0.1177  0.007695  -0.002001  0.005462  -0.0009938  -0.9636  0.2434
6.379e+09  -0.9065  0.2107  0.01033  0.008881  -0.05888  -0.03364  -0.7695  0.5051
6.38e+09  -0.7077  0.4587  -0.032  -0.02932  0.0222  -0.003047  -0.5531  0.7485
6.381e+09  -0.5739  0.7833  0.00251  -0.005786  -0.01137  -0.009603  -0.259  0.9194
6.382e+09  -0.2279  0.8773  -0.002361  0.04276  0.01043  -0.02507  0.07178  0.9336
6.384e+09  0.0554  0.8847  -0.00498  0.03015  -0.008359  0.003651  0.3686  0.8775
6.385e+09  0.3724  0.8693  -0.03843  -0.004494  -0.01962  0.01069  0.6191  0.6516
6.386e+09  0.5919  0.6153  -0.03638  -0.02114  -0.03736  -0.07262  0.861  0.4495
6.388e+09  0.8093  0.3933  -0.0348  -0.02629  -0.01084  0.007339  0.9231  0.1403
6.389e+09  0.8648  0.07765  -0.004027  0.02004  0.02985  0.01367  0.9338  -0.2405
6.39e+09  0.8661  -0.2261  0.0253  -0.003815  -0.03868  -0.001645  0.771  -0.5116
6.391e+09  0.719  -0.5103  0.0447  0.02518  0.008217  -0.006709  0.5215  -0.7438
6.392e+09  0.4825  -0.7279  -0.0264  0.03259  -0.002383  0.01462  0.264  -0.8948
6.394e+09  0.2188  -0.8991  0.0213  -0.04373  0.01292  0.02314  -0.0721  -1.001
6.395e+09  -0.05273  -0.858  -0.005347  0.03822  0.08512  0.01484  -0.3563  -0.8514
6.396e+09  -0.412  -0.7628  0.01705  -0.01813  0.001488  0.01534  -0.6129  -0.674
6.398e+09  -0.6381  -0.604  0.01258  -0.006175  -0.03105  -0.004879  -0.8026  -0.4529
6.399e+09  -0.8379  -0.3655  -0.00575  -0.01614  -0.02198  0.003893  -0.9152  -0.1649
6.4e+09  -0.8615  -0.1048  -0.02876  -0.02312  0.02704  -0.006074  -0.8771  0.1649
6.401e+09  -0.8543  0.2276  0.01228  -0.006381  0.007269  -0.01551  -0.809  0.43
6.402e+09  -0.7074  0.5601  -0.006985  -0.01481  -0.002893  0.00452  -0.6502  0.7023
6.404e+09  -0.4953  0.7363  -0.03172  -0.01182  -0.0007421  -0.006632  -0.3425  0.8551
6.405e+09  -0.2331  0.8781  -0.02532  -0.008951  0.02486  -0.02387  -0.008557  0.8915
6.406e+09  0.1183  0.8684  -0.001394  0.01662  -0.009621  0.00469  0.3445  0.859
6.408e+09  0.373  0.7912  0.009299  -0.01336  0.01729  0.01339  0.6063  0.7188
6.409e+09  0.6648  0.5813  -0.01131  -0.01148  -0.0225  0.008543  0.7906  0.4711
6.41e+09  0.782  0.3313  0.02595  0.002272  0.008544  0.03619  0.9021  0.1503
6.411e+09  0.9014  0.004907  -0.031  -0.01407  -0.03143  0.01821  0.9091  -0.1549
6.412e+09  0.8698  -0.2889  -0.02797  0.02881  0.01594  0.02181  0.7836  -0.4021
6.414e+09  0.66  -0.5481  -0.02475  0.02013  -0.008212  -0.004519  0.6161  -0.7114
6.415e+09  0.4591  -0.7968  -0.00387  -0.03991  -0.00342  -0.00797  0.3303  -0.8456
6.416e+09  0.2109  -0.8699  0.01758  0.02988  -0.02167  0.0001926  0.01118  -0.9033
6.418e+09  -0.08283  -0.8535  -0.01318  0.02444  -0.03534  0.05198  -0.2947  -0.8298
6.419e+09  -0.4372  -0.7475  -0.02251  0.0264  -0.02305  0.02718  -0.5436  -0.695
6.42e+09  -0.7011  -0.5952  0.02514  -0.0076  -0.05342  -0.0113  -0.7826  -0.4574
6.421e+09  -0.8394  -0.3713  -0.01225  0.02725  0.02155  0.009132  -0.8668  -0.215
6.422e+09  -0.8643  -0.01027  -0.02711  0.06062  -0.004925  0.03475  -0.8975  0.115
6.424e+09  -0.8324  0.2862  0.001499  0.006619  -0.003334  0.02519  -0.7761  0.43
6.425e+09  -0.682  0.5805  -0.01117  0.0313  0.01924  -0.02544  -0.5926  0.6404
6.426e+09  -0.4322  0.7617  -0.0201  0.001057  -0.009236  0.01693  -0.3471  0.837
6.428e+09  -0.1978  0.8255  0.05212  0.02102  -0.05947  -0.07665  -0.05338  0.8904
6.429e+09  0.1151  0.8888  -0.01503  -0.001315  0.005141  -0.03211  0.2378  0.8324
6.43e+09  0.4404  0.7309  0.01535  0.03249  -0.0001464  -0.05253  0.5151  0.7136
6.431e+09  0.6722  0.5478  -0.02499  -0.02062  0.0118  0.01504  0.7291  0.5009
6.432e+09  0.8003  0.2933  0.03673  -0.05266  0.04967  0.008934  0.8837  0.2593
6.434e+09  0.9519  0.03254  -0.006093  -0.04816  0.02241  -0.001298  0.8505  -0.09009
6.435e+09  0.8446  -0.3325  0.04702  -0.004026  0.03476  0.01673  0.8085  -0.3682
6.436e+09  0.6649  -0.5826  0.001549  -0.01435  -0.02526  0.02996  0.5921  -0.6704
6.438e+09  0.4164  -0.7731  0.005867  -0.03529  -0.008569  -0.03277  0.367  -0.768
6.439e+09  0.1728  -0.8377  0.002894  -0.009883  0.005393  0.03325  0.086  -0.8424
6.44e+09  -0.216  -0.8993  0.001304  0.04211  -0.01848  -0.02459  -0.2661  -0.8248
6.441e+09  -0.4873  -0.8012  -0.01823  0.02905  -0.001785  -0.01221  -0.4815  -0.6891
6.442e+09  -0.6764  -0.5485  -0.02602  -0.03557  -0.01851  -0.02266  -0.6983  -0.4788
6.444e+09  -0.8269  -0.343  -0.009472  -0.05911  -0.02909  0.03254  -0.7893  -0.212
6.445e+09  -0.8623  0.02395  -0.0246  0.01386  -0.01083  -0.006917  -0.8124  0.09368
6.446e+09  -0.8196  0.312  -0.0004065  0.02539  -0.00545  0.07144  -0.7855  0.3666
6.448e+09  -0.6651  0.5936  -0.001991  -0.01986  0.04725  -0.02461  -0.5915  0.569
6.449e+09  -0.461  0.77  0.01818  0.03533  0.02104  -0.02475  -0.3404  0.7611
6.45e+09  -0.1616  0.9264  0.05216  -0.005525  0.002374  -0.007028  -0.05463  0.8337
6.451e+09  0.2066  0.8695  -0.005371  -0.002457  -0.03632  -0.02048  0.2039  0.7612
6.452e+09  0.4489  0.7557  -0.01383  -0.006478  -0.0005396  0.0203  0.472  0.6654
6.454e+09  0.7375  0.5794  -0.004685  -0.03093  -0.01614  -0.01653  0.6911  0.4533
6.455e+09  0.9085  0.2235  -0.005094  0.003531  0.02941  0.03683  0.7931  0.2205
6.456e+09  0.9039  -0.01748  0.01082  -0.002022  -0.0228  -0.009159  0.8199  -0.1108
6.458e+09  0.8663  -0.4178  0.01568  -0.02841  -0.01936  0.03009  0.7301  -0.3499
6.459e+09  0.6627  -0.5979  0.0365  0.02742  -0.003803  -0.0103  0.5378  -0.5536
6.46e+09  0.4197  -0.8137  0.006586  -0.02257  -0.01167  0.01536  0.3584  -0.7206
6.461e+09  0.1074  -0.8966  -0.002507  -0.03226  0.02111  -0.03304  0.06168  -0.7996
6.462e+09  -0.2789  -0.9008  0.02293  0.009843  0.03491  -0.01273  -0.2392  -0.8147
6.464e+09  -0.5181  -0.7708  0.01958  -0.03934  -0.01317  0.006793  -0.4343  -0.6455
6.465e+09  -0.7582  -0.5748  -0.002363  0.003602  -0.06716  0.04349  -0.6309  -0.4692
6.466e+09  -0.8744  -0.199  -0.02696  -0.02448  0.01847  -0.0301  -0.7581  -0.2029
6.468e+09  -0.9521  0.07111  -0.01267  -0.01083  0.01213  0.006034  -0.7607  0.04025
6.469e+09  -0.8541  0.4068  -0.03871  0.009095  0.03122  -0.01723  -0.6981  0.3535
6.47e+09  -0.6524  0.6899  0.007963  -0.009046  -0.02829  0.01239  -0.5374  0.5534
6.471e+09  -0.3612  0.8555  0.008808  -0.006217  -0.01269  0.000314  -0.3321  0.7248
6.472e+09  -0.04771  0.8827  -0.05378  -0.01208  0.007686  0.005191  -0.0274  0.7956
6.474e+09  0.2696  0.8961  0.007485  0.03975  -0.003706  -0.01344  0.2539  0.7688
6.475e+09  0.56  0.7617  0.02036  -0.01835  0.03978  -0.003648  0.4236  0.6465
6.476e+09  0.8044  0.5221  -0.0124  -0.006476  0.03256  -0.03412  0.6674  0.4943
6.478e+09  0.9163  0.2774  -0.01109  -0.007033  0.02485  -0.05511  0.7726  0.2166
6.479e+09  0.9075  -0.1363  -0.0002943  0.02564  0.04116  0.01556  0.7937  -0.1261
6.48e+09  0.8276  -0.4675  0.02093  0.01162  0.02026  0.0009511  0.7323  -0.3621
6.481e+09  0.6384  -0.6828  0.01476  0.04068  0.0005447  -0.03184  0.5242  -0.5761
6.482e+09  0.3605  -0.8322  0.005001  -0.01129  -0.0004891  -0.03025  0.2865  -0.6891
6.484e+09  -0.008074  -0.9572  -0.03162  0.007034  0.03564  0.009773  0.07846  -0.7377
6.485e+09  -0.2594  -0.8792  -0.01023  0.0006511  0.004073  0.07942  -0.2518  -0.7641
6.486e+09  -0.6002  -0.6928  -0.00499  -0.01093  -0.01498  0.02367  -0.4611  -0.6422
6.488e+09  -0.8122  -0.4287  0.03661  -0.009491  0.02093  0.01507  -0.6391  -0.4165
6.489e+09  -0.9669  -0.1455  -0.03303  0.009091  0.01232  0.05996  -0.7549  -0.168
6.49e+09  -0.922  0.1397  -0.01883  -0.0286  -0.01801  -0.04109  -0.7997  0.0856
6.491e+09  -0.7609  0.5085  -0.001749  0.04716  -0.03727  -0.003259  -0.6932  0.3243
6.492e+09  -0.5288  0.7446  0.01122  0.00813  0.05643  0.01524  -0.505  0.5767
6.494e+09  -0.353  0.8907  -0.03479  0.02222  -0.03372  0.04069  -0.3191  0.6771
6.495e+09  -0.01263  0.9305  0.005326  -0.003566  -0.02432  0.02767  0.01106  0.7567
6.496e+09  0.4049  0.8458  -0.004507  0.001954  0.03374  0.02304  0.292  0.7358
6.498e+09  0.6174  0.7375  -0.003062  0.0009079  -0.03956  -0.006295  0.4889  0.644
6.499e+09  0.8446  0.4294  0.014  0.03306  0.002646  -0.01028  0.6579  0.4207
6.5e+09  0.9755  0.0847  -0.0161  0.04098  0.005468  -0.01654  0.7846  0.1547
6.501e+09  0.9397  -0.2377  0.02025  -0.009711  0.06418  -0.01592  0.7859  -0.07474
6.502e+09  0.8094  -0.5221  0.01759  0.003414  0.03966  0.03823  0.6533  -0.3519
6.504e+09  0.5507  -0.808  0.009999  -0.03046  0.01164  0.05415  0.5038  -0.5866
6.505e+09  0.2592  -0.9158  -0.01524  -0.03167  -0.001544  -0.01353  0.2847  -0.7098
6.506e+09  -0.0742  -0.9427  -8.679e-05  0.02122  0.01953  -0.007195  0.01417  -0.7797
6.508e+09  -0.4371  -0.8548  0.02654  -0.0007783  0.02511  -0.06312  -0.2464  -0.6977
6.509e+09  -0.7383  -0.6563  -0.02953  0.006761  -0.03628  -0.02258  -0.4761  -0.6378
6.51e+09  -0.8805  -0.3591  0.004175  0.002492  0.03818  -0.02527  -0.668  -0.3792
6.511e+09  -0.9154  -0.02904  -0.03063  -0.02201  -0.04739  -0.007453  -0.7262  -0.1274
6.512e+09  -1.008  0.2794  0.009869  -0.01962  0.0004578  -0.02746  -0.7443  0.145
6.514e+09  -0.7589  0.5884  -0.01362  0.04695  -0.05804  0.001423  -0.6536  0.3473
6.515e+09  -0.5217  0.8213  -0.0004049  0.0415  0.01638  -0.005855  -0.4797  0.5799
6.516e+09  -0.1669  0.9603  -0.03056  -0.01232  -0.006793  -0.01235  -0.2173  0.6695
6.518e+09  0.1907  0.9394  -0.001278  -0.00524  0.04739  -0.003618  0.03007  0.756
6.519e+09  0.4859  0.8436  -0.012  0.01332  -0.005818  -0.00956  0.2597  0.6826
6.52e+09  0.7313  0.5755  -0.02486  -0.01666  0.02287  0.02161  0.4895  0.5244
6.521e+09  0.8939  0.3301  0.009898  -0.01475  0.02878  -0.01271  0.6733  0.3765
6.522e+09  0.9648  -0.02175  -0.02074  -0.005389  -0.003749  -0.01476  0.7279  0.1203
6.524e+09  0.9184  -0.3759  0.04085  0.0438  -0.0228  -0.05291  0.7016  -0.1643
6.525e+09  0.7451  -0.6285  -0.002416  0.02393  -0.004021  -0.006292  0.5904  -0.3995
6.526e+09  0.4394  -0.8214  -0.02872  0.02067  -0.02126  0.02725  0.4131  -0.5768
6.528e+09  0.1419  -0.9291  -0.01207  0.03176  -0.01127  0.0132  0.1913  -0.6789
6.529e+09  -0.2297  -0.9666  0.02876  -0.01696  -0.007877  -0.04176  -0.03738  -0.7084
6.53e+09  -0.5815  -0.7469  -0.0182  0.01049  -0.02212  -0.009395  -0.2913  -0.6533
6.531e+09  -0.7662  -0.4912  -0.01328  -0.02735  0.04464  0.01863  -0.4483  -0.5023
6.532e+09  -0.9352  -0.1839  -0.01639  0.0174  -0.04276  0.04309  -0.5723  -0.2646
6.534e+09  -0.9893  0.09284  0.001238  0.01291  -0.0395  0.02936  -0.6223  -0.08581
6.535e+09  -0.8621  0.4994  -9.665e-05  0.0237  0.01163  -0.06734  -0.6162  0.1123
6.536e+09  -0.653  0.6464  0.01724  -0.005273  0.03847  -0.02142  -0.5547  0.314
6.538e+09  -0.3469  0.8517  -0.01007  0.0345  -0.002348  0.01075  -0.4386  0.4829
6.539e+09  0.04508  0.894  -0.009739  -0.04392  -0.01428  -0.003288  -0.263  0.6244
6.54e+09  0.2709  0.8303  -0.005092  -0.0058  -0.00633  0.00321  -0.03788  0.6755
6.541e+09  0.626  0.6947  -0.01573  -0.02015  -0.01946  -0.02068  0.1855  0.6637
6.542e+09  0.8088  0.454  -0.001992  -0.0252  0.01518  0.04098  0.4365  0.586
6.544e+09  0.886  0.1346  -0.005763  -0.006627  -0.102  0.03963  0.5937  0.4088
6.545e+09  0.8533  -0.1879  -0.002592  0.0271  0.02869  0.02137  0.7133  0.1916
6.546e+09  0.7697  -0.5258  -0.03026  -0.01433  -0.01089  -0.01162  0.6949  -0.06676
6.548e+09  0.5653  -0.7182  -0.01855  -0.03109  -0.006605  -0.001236  0.6543  -0.324
6.549e+09  0.2397  -0.8996  -0.01056  0.02303  -0.01443  -0.02182  0.5224  -0.5282
6.55e+09  -0.05211  -0.9701  0.01869  -0.01676  -0.01305  0.002234  0.3107  -0.6552
