# Hz S RI R 50
6.25e+09  -0.7122  0.3548  0.009527  -0.01444  -0.02875  -0.04356  0.15  0.4903
6.251e+09  -0.5708  0.6522  0.01086  0.02369  -0.0295  -0.04347  0.3518  0.4189
6.252e+09  -0.3439  0.8286  -0.004676  0.002426  0.0556  0.05376  0.5256  0.257
6.254e+09  0.002561  0.8537  -0.02451  0.02583  -0.006318  -0.02992  0.6093  0.02083
6.255e+09  0.1911  0.8004  -0.01946  0.000984  0.04057  0.0007533  0.6223  -0.2109
6.256e+09  0.492  0.7013  -0.02685  0.01042  -0.008736  -0.03569  0.4627  -0.4129
6.258e+09  0.6888  0.4741  -0.01243  -0.02886  -0.002014  -0.01345  0.2762  -0.5844
6.259e+09  0.7831  0.2022  -0.008637  -0.002799  0.0005146  -0.01138  0.06231  -0.6665
6.26e+09  0.7797  -0.06759  0.02601  -0.0002275  -0.08131  0.01387  -0.2025  -0.6515
6.261e+09  0.7272  -0.3763  0.02446  0.0009484  0.000576  -0.03073  -0.4578  -0.5315
6.262e+09  0.5297  -0.6126  0.002162  0.02479  -0.06626  -0.02438  -0.6006  -0.376
6.264e+09  0.3036  -0.7506  0.01653  -0.0002243  0.006981  -0.01189  -0.6826  -0.1121
6.265e+09  0.004801  -0.7919  0.01601  0.01064  0.02384  0.04053  -0.7124  0.1597
6.266e+09  -0.1853  -0.8073  -0.02098  0.03582  0.0009993  -0.04448  -0.6094  0.3769
6.268e+09  -0.5171  -0.6461  -0.002797  -0.002697  -0.03958  0.03372  -0.4181  0.6053
6.269e+09  -0.7424  -0.4197  0.007386  -0.007821  -0.04041  -0.02733  -0.1995  0.6903
6.27e+09  -0.7922  -0.2127  0.00464  -0.04975  -0.05926  0.01564  0.07479  0.7359
6.271e+09  -0.8345  0.1541  -0.01521  0.00127  -0.01879  0.01439  0.3162  0.7141
6.272e+09  -0.7205  0.3904  -0.01051  0.02294  -0.07553  0.005925  0.5216  0.5237
6.274e+09  -0.5373  0.6562  0.00206  -0.005493  0.06042  0.003893  0.7002  0.3095
6.275e+09  -0.3244  0.7471  0.03137  0.006527  -0.01658  -0.03949  0.7647  0.05707
6.276e+09  -0.01639  0.8093  -0.001206  0.008319  0.07503  -0.02027  0.7703  -0.2593
6.278e+09  0.2346  0.7523  -0.004399  -0.02167  0.00338  0.005049  0.612  -0.4743
6.279e+09  0.5195  0.6603  -0.01728  0.01917  -0.006464  0.01725  0.4162  -0.6568
6.28e+09  0.7145  0.4422  0.005118  0.009746  -0.02699  -0.03063  0.144  -0.7712
6.281e+09  0.8069  0.131  0.03339  0.006399  -0.008499  -0.01189  -0.112  -0.7745
6.282e+09  0.8401  -0.1248  -0.02494  0.01222  -0.02661  -0.02271  -0.377  -0.68
6.284e+09  0.6842  -0.4  0.002759  -0.0007839  -0.0284  -0.001644  -0.58  -0.5348
6.285e+09  0.5267  -0.6398  0.04182  -0.03442  0.0425  0.01238  -0.7408  -0.2918
6.286e+09  0.2768  -0.7719  -0.02155  0.01182  -0.03181  0.04528  -0.788  -0.0252
6.288e+09  0.02709  -0.8426  -0.0215  0.02673  0.03828  0.04211  -0.761  0.2615
6.289e+09  -0.2985  -0.7834  0.001665  -0.004638  0.03966  -0.04863  -0.6047  0.5046
6.29e+09  -0.4912  -0.654  -0.0006033  0.04671  0.01785  0.03086  -0.3947  0.7074
6.291e+09  -0.7244  -0.4156  0.02406  -0.00646  -0.02137  -0.03901  -0.1679  0.7994
6.292e+09  -0.8269  -0.1125  -0.001839  0.02651  0.06114  -0.01021  0.1519  0.7794
6.294e+09  -0.8017  0.1781  -0.001399  -0.02082  0.009916  0.07333  0.4106  0.6992
6.295e+09  -0.7063  0.4191  0.0141  -0.01427  -0.03344  0.01046  0.5957  0.5049
6.296e+09  -0.5047  0.71  -0.005718  0.02722  -0.04115  -0.02238  0.7703  0.2953
6.298e+09  -0.2943  0.7993  0.01064  0.003568  -0.02807  0.02391  0.8555  0.004265
6.299e+09  -0.03348  0.8116  0.02969  0.00811  0.03139  -0.001718  0.7943  -0.2882
6.3e+09  0.3332  0.7811  0.03352  0.01425  0.0994  -0.006386  0.6341  -0.527
6.301e+09  0.5407  0.6831  0.02317  0.005437  0.04202  0.00535  0.4408  -0.7142
6.302e+09  0.7214  0.405  -0.02123  -0.0004639  0.006158  0.02519  0.1928  -0.8252
6.304e+09  0.8005  0.1382  -0.006511  0.02533  0.002916  0.02389  -0.1345  -0.8337
6.305e+09  0.8093  -0.206  0.006784  0.01463  -0.008335  0.01224  -0.4119  -0.7202
6.306e+09  0.6571  -0.4523  -0.01301  0.0296  -0.003461  -0.02314  -0.6083  -0.5275
6.308e+09  0.5155  -0.6951  0.0167  -0.009519  0.009902  -0.01166  -0.8099  -0.2635
6.309e+09  0.2437  -0.7958  -0.03259  -0.02186  0.002716  -0.02583  -0.8771  -0.01375
6.31e+09  -0.05291  -0.8657  -0.03175  0.01025  0.03722  0.03133  -0.8174  0.2871
6.311e+09  -0.3066  -0.7608  0.003684  0.01685  -0.006721  -0.02984  -0.6543  0.5567
6.312e+09  -0.5536  -0.5833  -0.01707  0.003068  0.02771  -0.004537  -0.4282  0.7738
6.314e+09  -0.7512  -0.3954  -0.01043  -0.002173  0.01451  0.02213  -0.1635  0.8878
6.315e+09  -0.8152  -0.105  -0.01421  -0.02268  -0.03472  0.03865  0.1418  0.8378
6.316e+09  -0.8199  0.2019  0.007532  -0.01622  -0.01831  -0.03456  0.4359  0.756
6.318e+09  -0.6979  0.4622  0.002183  0.01991  -0.0137  0.05698  0.6983  0.589
6.319e+09  -0.5025  0.7075  -0.01394  0.0393  0.04777  -0.03285  0.8383  0.317
6.32e+09  -0.2281  0.8193  0.008786  -0.003802  0.01592  -0.01322  0.8937  0.027
6.321e+09  0.08806  0.7997  0.002619  -0.0008225  0.01333  0.01028  0.8622  -0.3188
6.322e+09  0.3503  0.7268  -0.002504  -0.007599  -0.05209  -0.005275  0.7046  -0.5789
6.324e+09  0.5859  0.5696  0.00955  0.01069  0.001635  -0.01358  0.4927  -0.7631
6.325e+09  0.756  0.3427  -0.006231  -0.03293  0.01406  0.02454  0.1749  -0.8997
6.326e+09  0.8537  0.07615  0.006155  0.00482  -0.005782  0.01019  -0.1557  -0.8615
6.328e+09  0.8329  -0.3248  -0.002866  0.01827  0.01111  0.04892  -0.4236  -0.7854
6.329e+09  0.6585  -0.5133  -0.01546  -0.00921  -0.02672  -0.01788  -0.6703  -0.6078
6.33e+09  0.4326  -0.7201  -0.002367  0.005081  -0.04791  0.01372  -0.8372  -0.3399
6.331e+09  0.2195  -0.865  -0.04055  0.03466  0.05622  0.01362  -0.912  -0.0395
6.332e+09  -0.1435  -0.833  -0.006487  -0.03402  0.0631  -0.009043  -0.8467  0.2874
6.334e+09  -0.4264  -0.7533  0.00716  0.01826  -0.01219  -0.009775  -0.7695  0.5814
6.335e+09  -0.6615  -0.5654  -0.001876  -0.009918  -0.009696  -0.03756  -0.4869  0.7826
6.336e+09  -0.8104  -0.2467  -0.01624  0.0005216  0.02321  -0.02229  -0.1667  0.8893
6.338e+09  -0.9074  0.05103  0.0107  0.004498  -0.006406  -0.02572  0.1417  0.9375
6.339e+09  -0.8689  0.363  0.002871  -0.00426  -0.0152  -0.006576  0.4208  0.8416
6.34e+09  -0.6336  0.5591  -0.01515  0.02118  0.03431  0.01716  0.6865  0.6183
6.341e+09  -0.4353  0.7681  0.01817  -0.02357  -0.001309  -0.0139  0.8517  0.3595
6.342e+09  -0.08848  0.8223  0.02199  -0.001925  -0.01474  0.01144  0.8879  0.05021
6.344e+09  0.2461  0.8392  -0.02082  -0.01174  0.02854  0.02767  0.8863  -0.26
6.345e+09  0.504  0.7155  -0.005283  -0.0328  -0.01044  -0.01546  0.6881  -0.5064
6.346e+09  0.665  0.4991  -0.006499  0.005424  0.02007  0.007017  0.4872  -0.7651
6.348e+09  0.8574  0.2155  -0.0004573  -0.004913  -0.04938  -0.01431  0.2483  -0.9401
6.349e+09  0.8413  -0.1003  0.003374  -0.008128  -0.01849  -0.01518  -0.0879  -0.9647
6.35e+09  0.7546  -0.4156  0.01872  -0.00305  -0.02765  0.003545  -0.4027  -0.8674
6.351e+09  0.6128  -0.6117  0.03686  0.0346  0.02093  0.01575  -0.6662  -0.6488
6.352e+09  0.3602  -0.7995  0.008327  -0.02141  -0.02857  0.03687  -0.9039  -0.3676
6.354e+09  0.04443  -0.8452  -0.01068  0.004349  -0.04275  -0.02292  -0.957  -0.04818
6.355e+09  -0.2616  -0.8524  0.04463  0.02697  0.05561  0.0203  -0.8758  0.247
6.356e+09  -0.5627  -0.6664  0.00487  -0.004523  -0.009158  0.03917  -0.7591  0.594
6.358e+09  -0.742  -0.4456  -0.0001013  -0.01805  0.007129  0.001735  -0.5336  0.7971
6.359e+09  -0.8598  -0.178  0.02247  -0.001528  -0.02852  -0.02226  -0.2234  0.8854
6.36e+09  -0.8837  0.1977  -0.03106  -0.01091  -0.008082  0.01201  0.1016  0.9788
6.361e+09  -0.7675  0.4377  -0.01715  -0.00443  -0.03094  0.001471  0.3922  0.8447
6.362e+09  -0.5493  0.6827  -0.002087  -0.004295  0.04155  -0.03808  0.6507  0.6153
6.364e+09  -0.2715  0.8841  0.002327  -0.006044  0.01747  0.02547  0.8606  0.4041
6.365e+09  0.06737  0.8707  0.02864  0.04366  -0.001046  -0.02713  0.9401  0.08835
6.366e+09  0.3144  0.8109  0.006697  -0.02271  -0.04274  -0.01127  0.9126  -0.2402
6.368e+09  0.5836  0.6528  -0.01043  0.02171  -0.02966  0.008543  0.7714  -0.5413
6.369e+09  0.7653  0.3507  9.801e-05  -0.01784  0.03103  0.01055  0.5075  -0.7582
6.37e+09  0.9069  0.131  0.01334  0.01613  -0.000505  0.04267  0.2402  -0.9092
6.371e+09  0.7921  -0.2294  0.02647  0.02048  -0.0008106  0.005093  -0.0845  -0.9399
6.372e+09  0.7404  -0.4634  0.01386  0.01953  0.008387  0.01563  -0.4119  -0.8416
6.374e+09  0.5176  -0.695  -0.007195  0.02138  -0.007296  -0.04144  -0.6769  -0.6838
6.375e+09  0.2794  -0.8223  -0.008003  -0.02792  0.0003628  0.01247  -0.8409  -0.3696
6.376e+09  -0.09425  -0.8764  -0.009785  0.0002644  0.02476  -0.005986  -0.9245  -0.1148
6.378e+09  -0.3741  -0.8187  0.001157  0.05037  -0.03865  0.04857  -0.9286  0.2566
6.379e+09  -0.6864  -0.622  -0.01841  0.009839  0.000247  0.09924  -0.7697  0.5464
6.38e+09  -0.8383  -0.3714  -0.01959  -0.03284  -0.00975  -0.009529  -0.5444  0.7549
6.381e+09  -0.8549  -0.03669  0.004151  0.006629  -0.007243  0.0006037  -0.2496  0.8701
6.382e+09  -0.843  0.2461  0.008044  0.01281  -0.003183  -0.00517  -0.002178  0.9482
6.384e+09  -0.6614  0.5387  0.008144  0.01597  -0.007948  0.007144  0.3715  0.8946
6.385e+09  -0.4938  0.7631  -0.01604  0.02802  -0.01853  0.04745  0.6454  0.7012
6.386e+09  -0.1609  0.8488  -0.002327  -0.002429  -0.008884  -0.0419  0.8098  0.4386
6.388e+09  0.1349  0.9178  0.05192  0.01012  0.009684  0.01059  0.9176  0.04439
6.389e+09  0.4562  0.7932  0.04784  -0.009079  0.0209  0.02934  0.9071  -0.2444
6.39e+09  0.676  0.5641  -0.009535  0.04178  0.03147  -0.007275  0.8187  -0.5017
6.391e+09  0.8436  0.2814  0.02613  -0.04305  -0.02024  -0.01407  0.544  -0.7281
6.392e+09  0.8847  -0.0465  -0.02701  -0.009741  -0.0119  -0.03019  0.3212  -0.8851
6.394e+09  0.7988  -0.3208  -0.004143  0.003477  0.009643  0.009096  -0.04193  -0.9348
6.395e+09  0.6666  -0.6275  -0.01054  0.004116  -0.04698  -0.002085  -0.351  -0.8866
6.396e+09  0.4042  -0.7796  0.01399  -0.003797  0.02589  0.001203  -0.6049  -0.681
6.398e+09  0.1237  -0.8865  0.001391  0.01246  0.06593  0.02338  -0.8147  -0.4514
6.399e+09  -0.2141  -0.8632  -0.0001429  -0.0391  0.04352  0.01224  -0.954  -0.1045
6.4e+09  -0.4563  -0.7011  -0.04626  -0.002585  -0.03769  -0.05143  -0.923  0.1883
6.401e+09  -0.714  -0.6159  0.001995  0.0494  0.05327  -0.02386  -0.7858  0.45
6.402e+09  -0.8115  -0.2197  -0.01928  -0.029  0.04839  0.01659  -0.6002  0.7588
6.404e+09  -0.9163  0.1009  -0.02518  0.02405  0.01566  0.01134  -0.3257  0.8354
6.405e+09  -0.7914  0.3961  -0.007135  0.02915  -0.01376  -0.01639  -0.004218  0.9268
6.406e+09  -0.6292  0.6329  0.01656  -0.01792  0.03096  -0.0261  0.3192  0.8189
6.408e+09  -0.3671  0.7831  -0.01218  -0.0395  0.007044  0.03982  0.5849  0.729
6.409e+09  -0.08269  0.8849  0.04639  -0.0196  0.05407  -0.01006  0.7667  0.4353
6.41e+09  0.273  0.8706  -0.02165  -0.03461  -0.01431  0.009848  0.9251  0.1902
6.411e+09  0.5173  0.6766  0.01763  -0.02912  -0.0462  0.009153  0.8778  -0.184
6.412e+09  0.7211  0.4869  0.03009  -0.0174  -0.04748  -0.02877  0.8272  -0.4378
6.414e+09  0.7877  0.2179  0.007615  0.02889  -0.002726  -0.03211  0.5831  -0.6853
6.415e+09  0.8559  -0.1182  0.01047  -0.0109  0.02583  0.01186  0.2945  -0.8615
6.416e+09  0.8062  -0.3939  0.01874  0.007498  0.03651  -0.06248  0.03423  -0.9142
6.418e+09  0.6205  -0.6545  -0.009083  0.01321  0.008924  -0.03351  -0.2933  -0.8604
6.419e+09  0.3476  -0.7802  0.03972  0.02217  0.06621  0.003081  -0.5777  -0.6925
6.42e+09  0.0109  -0.8911  -0.04087  -0.02886  0.03719  0.0377  -0.7651  -0.5061
6.421e+09  -0.2785  -0.8748  -0.04466  -0.008261  -0.05208  -0.003533  -0.875  -0.2117
6.422e+09  -0.5044  -0.6958  0.006923  0.002696  -0.00222  0.04878  -0.8707  0.1206
6.424e+09  -0.7061  -0.4337  0.0256  0.01777  0.006906  -0.01711  -0.7778  0.3999
6.425e+09  -0.8396  -0.1686  0.02528  0.005869  -0.03359  -0.02534  -0.5832  0.6405
6.426e+09  -0.7995  0.1062  -0.0377  0.008628  -0.02353  0.01174  -0.3689  0.7909
6.428e+09  -0.729  0.442  0.01184  -0.02006  0.02948  0.007264  -0.06456  0.8842
6.429e+09  -0.5843  0.6213  0.000228  -0.00313  0.03976  0.008929  0.2566  0.8663
6.43e+09  -0.2836  0.8191  -0.01317  0.009645  0.01724  0.05482  0.4898  0.6849
6.431e+09  -0.03838  0.903  -0.01216  0.0002558  -0.007564  0.02483  0.7452  0.4673
6.432e+09  0.271  0.8065  -0.000348  0.01447  0.009592  0.03063  0.7996  0.1765
6.434e+09  0.529  0.6459  0.01402  -0.02817  0.06313  0.03529  0.8634  -0.08773
6.435e+09  0.7372  0.4774  0.03195  -0.05112  -0.01042  -0.02  0.7711  -0.3958
6.436e+09  0.8519  0.1736  -0.05058  -0.03205  0.0364  -0.002545  0.614  -0.5955
6.438e+09  0.8821  -0.1831  0.02426  -0.03109  0.04244  -0.01687  0.3563  -0.7386
6.439e+09  0.7585  -0.437  -0.01582  0.04007  0.01561  0.001236  0.1195  -0.8424
6.44e+09  0.5714  -0.6771  0.03078  -0.004525  -0.02279  6.495e-06  -0.2211  -0.83
6.441e+09  0.2819  -0.8113  -0.009999  0.03226  0.02654  0.04183  -0.4797  -0.667
6.442e+09  -0.01644  -0.8317  0.01181  -0.009971  0.01778  -0.005257  -0.674  -0.4847
6.444e+09  -0.2768  -0.8807  0.005016  0.03325  0.01371  -0.02446  -0.8007  -0.1894
6.445e+09  -0.6085  -0.6574  -0.02919  0.03699  -0.0375  0.03875  -0.8503  0.092
6.446e+09  -0.7197  -0.3851  -0.0359  0.02921  -0.01722  -0.06013  -0.8129  0.3101
6.448e+09  -0.8512  -0.1277  -0.01641  -0.001668  -0.008143  0.07803  -0.6063  0.6042
6.449e+09  -0.8402  0.1626  -0.001933  0.02523  -0.05419  -0.02145  -0.3515  0.7677
6.45e+09  -0.6841  0.4506  0.0149  -0.01009  0.02969  0.04695  -0.06801  0.8638
6.451e+09  -0.5097  0.7049  0.001915  0.05277  0.02659  -0.04366  0.2536  0.8385
6.452e+09  -0.2899  0.8504  0.01217  -0.01745  0.01332  -0.02643  0.4845  0.6785
6.454e+09  0.00684  0.8361  -0.001825  -0.05233  -0.05201  0.04912  0.7233  0.4258
6.455e+09  0.3103  0.7713  -0.01803  -0.009785  -0.005158  -0.05757  0.7897  0.2119
6.456e+09  0.5797  0.6547  -0.03424  -0.02957  0.01494  -0.06233  0.7918  -0.06027
6.458e+09  0.7774  0.4589  0.009391  0.01289  -0.01493  -0.02219  0.762  -0.3966
6.459e+09  0.8589  0.1316  0.01067  -0.01717  0.02888  0.004049  0.535  -0.5878
6.46e+09  0.8538  -0.176  0.01165  0.004928  -0.007985  0.006258  0.3207  -0.7223
6.461e+09  0.7297  -0.4586  0.008767  -0.002761  -0.03325  -0.0178  0.08367  -0.7972
6.462e+09  0.5473  -0.7215  0.005151  0.01971  0.01243  0.03682  -0.1904  -0.8464
6.464e+09  0.3251  -0.8129  -0.003719  0.007817  -0.03239  -0.001645  -0.5003  -0.6646
6.465e+09  -0.05442  -0.8572  -0.01115  -0.004106  -0.02292  0.02653  -0.6651  -0.4539
6.466e+09  -0.3484  -0.7994  -0.004561  0.01327  -0.01445  0.04495  -0.797  -0.2228
6.468e+09  -0.5978  -0.6437  -0.04736  -0.01918  0.002931  -0.01046  -0.786  0.07274
6.469e+09  -0.8061  -0.4184  -0.01359  0.03433  -0.009504  0.06373  -0.7454  0.3202
6.47e+09  -0.8195  -0.1158  0.01074  -0.01196  -0.01434  -0.02473  -0.5302  0.5661
6.471e+09  -0.9138  0.1987  -0.01248  0.007899  0.01432  0.04114  -0.3515  0.7456
6.472e+09  -0.752  0.4639  0.02213  0.03677  0.0234  -0.01435  -0.08064  0.7737
6.474e+09  -0.4709  0.7075  0.01791  -0.02077  -0.00366  -0.02189  0.1996  0.7059
6.475e+09  -0.2495  0.8885  0.01064  0.02833  -0.04599  -0.01487  0.4495  0.6568
6.476e+09  0.06497  0.8687  -0.01064  -0.03987  -0.01053  -0.008467  0.6843  0.4008
6.478e+09  0.3269  0.7883  0.003924  0.004866  0.004377  0.02017  0.7619  0.1905
6.479e+09  0.5567  0.6747  -0.001558  -0.009685  0.04465  -0.05324  0.7823  -0.0891
6.48e+09  0.7684  0.416  0.02301  -0.02726  0.004575  -0.02016  0.7112  -0.3467
6.481e+09  0.8492  0.1263  -0.004551  0.000404  -0.009016  -0.004179  0.5457  -0.5556
6.482e+09  0.9253  -0.2117  -0.007222  -0.03843  0.002109  0.01141  0.3088  -0.7386
6.484e+09  0.7615  -0.4634  0.03368  -0.02091  -0.002023  -0.0639  0.08916  -0.8114
6.485e+09  0.5306  -0.7472  0.002396  -0.02208  0.00536  -0.03951  -0.2047  -0.7186
6.486e+09  0.2544  -0.877  0.02609  0.001102  -0.03997  0.05009  -0.4188  -0.6403
6.488e+09  -0.02906  -0.8675  0.005985  -0.02703  0.02111  -0.02045  -0.6276  -0.4225
6.489e+09  -0.3785  -0.7745  -0.02553  0.007255  0.003609  -0.001839  -0.691  -0.1578
6.49e+09  -0.6607  -0.635  -0.004695  -0.001214  -0.00172  -0.04861  -0.7593  0.06534
6.491e+09  -0.8234  -0.3634  -0.01432  0.004146  0.01488  0.002137  -0.6912  0.3688
6.492e+09  -0.8902  -0.04631  0.02455  0.01965  -0.03195  0.01553  -0.5305  0.5498
6.494e+09  -0.872  0.2414  0.01186  -0.03024  -0.03553  0.00542  -0.2905  0.7607
6.495e+09  -0.6882  0.5419  -0.03837  -0.003818  0.02883  -0.014  -0.04352  0.7715
6.496e+09  -0.4692  0.7351  9.244e-05  0.02181  0.02143  -0.01846  0.226  0.7227
6.498e+09  -0.2239  0.8582  -0.02022  0.01431  0.02103  0.02281  0.4504  0.6404
6.499e+09  0.05927  0.892  0.03171  0.03159  -0.03191  -0.03512  0.6433  0.4354
6.5e+09  0.4132  0.8695  -0.04421  0.01682  -0.01327  -0.0153  0.7391  0.1041
6.501e+09  0.6293  0.59  0.01033  -0.001189  -0.02202  -0.006849  0.7426  -0.1174
6.502e+09  0.8006  0.4187  -0.01426  -0.0044  -0.005982  -0.01096  0.677  -0.3577
6.504e+09  0.8808  0.08433  0.009285  -0.01734  0.006578  0.01769  0.4994  -0.5854
6.505e+09  0.8781  -0.2331  -0.002649  0.0377  0.04521  -0.007268  0.2756  -0.6833
6.506e+09  0.7469  -0.5359  0.004078  0.02647  -0.02466  -0.05027  -0.007886  -0.7489
6.508e+09  0.528  -0.7751  -0.03163  0.008484  0.007858  0.05792  -0.2696  -0.7073
6.509e+09  0.2789  -0.8981  0.01401  -0.02027  -0.001613  -0.02566  -0.489  -0.5765
6.51e+09  -0.1438  -0.906  -0.01423  0.005967  -0.06232  0.01803  -0.6834  -0.3641
6.511e+09  -0.3778  -0.8012  -0.05153  0.03254  -0.04461  -0.0239  -0.7389  -0.1135
6.512e+09  -0.6703  -0.6784  -0.002493  -0.001195  0.00159  0.02542  -0.7567  0.1432
6.514e+09  -0.8092  -0.3445  0.01949  -0.002703  0.04414  -0.05993  -0.6658  0.3737
6.515e+09  -0.8915  -0.05289  0.002922  -0.01143  -0.03392  -0.01708  -0.5027  0.5862
6.516e+09  -0.9162  0.2906  -0.02455  -0.02755  0.02893  -0.03531  -0.2689  0.7055
6.518e+09  -0.7035  0.5493  0.02413  -0.01454  0.004495  0.002976  0.02635  0.7618
6.519e+09  -0.5008  0.7593  -0.005481  -0.02162  -0.01523  0.06492  0.2712  0.6656
6.52e+09  -0.1647  0.8995  -0.01849  -0.02728  0.005673  -0.001837  0.5123  0.5622
6.521e+09  0.1081  0.922  -0.02517  -0.03214  -0.01211  0.002968  0.6624  0.3777
6.522e+09  0.397  0.7784  -0.001395  -7.971e-05  -0.0248  -0.01128  0.6943  0.09705
6.524e+09  0.7  0.6214  -0.01713  0.01427  0.02905  -0.004618  0.7286  -0.1541
6.525e+09  0.9091  0.302  -0.03087  -0.01987  -0.05624  -0.02398  0.6726  -0.3973
6.526e+09  0.9759  -0.001538  0.006674  -0.02169  0.06676  -0.063  0.4162  -0.5287
6.528e+09  0.9335  -0.3504  0.0203  -0.0147  0.04661  0.00574  0.1969  -0.6841
6.529e+09  0.689  -0.5927  -0.03044  0.0043  0.009258  -0.04527  -0.06471  -0.7294
6.53e+09  0.5036  -0.8391  -0.006805  0.01115  -0.02939  -0.02245  -0.2595  -0.6342
6.531e+09  0.1319  -0.8964  -0.01186  0.03446  0.01344  -0.01185  -0.4399  -0.4639
6.532e+09  -0.2123  -0.9216  0.03926  0.02045  0.002977  -0.01378  -0.5761  -0.3001
6.534e+09  -0.503  -0.8568  -0.0007725  -0.03235  -0.03456  -0.003158  -0.6337  -0.1028
6.535e+09  -0.6722  -0.6199  -0.0278  0.02654  0.01594  -0.01946  -0.6506  0.1321
6.536e+09  -0.9203  -0.2889  -0.0374  -0.01499  -0.01542  0.002889  -0.5878  0.3121
6.538e+09  -0.956  0.07386  0.02205  -0.02622  0.03447  0.01623  -0.4686  0.458
6.539e+09  -0.9234  0.4073  -0.006928  -0.0008604  0.01749  -0.00644  -0.3045  0.6164
6.54e+09  -0.7185  0.6421  -0.02403  -0.02603  0.0007998  -0.02981  -0.08404  0.6854
6.541e+09  -0.3858  0.8226  0.001003  0.009332  -0.01844  -0.04555  0.1776  0.6751
6.542e+09  -0.111  0.9897  0.006657  -0.0133  0.0007362  0.005286  0.4209  0.5237
6.544e+09  0.2481  0.9107  -0.005505  0.01044  0.001323  0.00685  0.6092  0.3953
6.545e+09  0.5704  0.7746  0.01625  -0.02705  -0.01723  0.02875  0.6991  0.1907
6.546e+09  0.798  0.555  0.00187  0.005874  0.01501  -0.00187  0.7498  -0.0797
6.548e+09  0.9522  0.3192  0.01131  0.008453  0.009561  0.007944  0.6427  -0.3219
6.549e+09  0.9667  -0.1182  -0.03009  0.002803  0.0173  -0.01564  0.4962  -0.5309
6.55e+09  0.8523  -0.4907  -0.01267  0.0001305  0.02179  -0.0005748  0.2824  -0.6791
