# Hz S RI R 50
6.25e+09  -0.1675  0.7943  0.0274  -0.0008661  -0.0903  -0.03548  0.1432  0.4655
6.251e+09  0.137  0.8163  0.01808  -0.01221  -0.01789  0.02049  0.3923  0.3929
6.252e+09  0.4247  0.8187  0.001176  0.008196  0.01657  -0.01419  0.5234  0.2578
6.254e+09  0.6211  0.603  -0.0405  0.004164  -0.03271  0.02354  0.6076  -0.007924
6.255e+09  0.7725  0.3697  0.0002837  -0.001069  -0.02797  0.02956  0.5818  -0.1928
6.256e+09  0.8673  0.05821  -0.008893  0.04437  -0.02116  -0.01198  0.454  -0.449
6.258e+09  0.8028  -0.2989  -0.0009947  0.03615  -0.002429  -0.01602  0.2822  -0.6199
6.259e+09  0.68  -0.4797  -0.009919  -0.001551  0.02127  0.02289  0.03296  -0.6609
6.26e+09  0.4459  -0.7297  -0.04288  0.00168  0.004492  0.0572  -0.2039  -0.6473
6.261e+09  0.1724  -0.8516  -0.005969  -0.003142  -0.004045  0.01072  -0.4503  -0.5429
6.262e+09  -0.1841  -0.7693  -0.01748  -0.03303  -0.0005687  -0.0602  -0.614  -0.3384
6.264e+09  -0.3976  -0.7491  -0.005784  -0.01011  0.001294  -5.401e-05  -0.7425  -0.1271
6.265e+09  -0.6393  -0.6103  -0.008459  0.01105  -0.009394  -0.01185  -0.6733  0.1377
6.266e+09  -0.7791  -0.365  -0.008545  0.004569  -0.04091  0.04405  -0.5871  0.4046
6.268e+09  -0.8527  0.01182  -0.008257  -0.00189  -0.01668  -0.03273  -0.4385  0.6
6.269e+09  -0.7782  0.2793  -0.01808  0.016  0.0006433  -0.01558  -0.2118  0.7081
6.27e+09  -0.6235  0.5381  0.00879  0.0117  -0.05017  0.01518  0.02662  0.74
6.271e+09  -0.4455  0.7323  0.01429  -0.01322  -0.005332  0.05048  0.2954  0.6702
6.272e+09  -0.1397  0.7392  0.01088  -0.02792  -0.001503  -0.04973  0.5103  0.5243
6.274e+09  0.1054  0.8064  -0.002334  -0.005841  -0.02669  -0.03872  0.693  0.2845
6.275e+09  0.4205  0.7269  0.03978  -0.008747  0.01436  -0.05265  0.73  0.04503
6.276e+09  0.6281  0.5417  0.01964  -0.003032  -0.02272  -0.07417  0.7351  -0.1882
6.278e+09  0.8319  0.2011  0.009765  0.02265  -0.006736  -0.04368  0.6013  -0.4451
6.279e+09  0.8131  -0.04912  0.004018  0.02025  -0.0387  0.01811  0.4373  -0.6277
6.28e+09  0.7894  -0.2801  0.0002261  0.01116  -0.03221  0.0517  0.1546  -0.7454
6.281e+09  0.6454  -0.5173  -0.009  0.01517  0.01595  -0.04706  -0.117  -0.7713
6.282e+09  0.4647  -0.7045  0.02396  -0.0003152  0.006965  0.01923  -0.3675  -0.6651
6.284e+09  0.09105  -0.793  -0.01124  0.003185  0.005895  -0.03961  -0.5623  -0.4744
6.285e+09  -0.1915  -0.7898  -0.01448  -0.02173  0.06559  -0.03749  -0.7354  -0.2785
6.286e+09  -0.477  -0.6647  0.03175  -0.03166  -0.03302  -0.03191  -0.8142  0.009192
6.288e+09  -0.6378  -0.5421  0.01912  0.00947  0.01285  0.03123  -0.7493  0.275
6.289e+09  -0.7895  -0.2802  0.001479  -0.005382  0.03593  -0.006738  -0.6052  0.4812
6.29e+09  -0.793  0.07935  -0.02765  0.008464  -0.0562  0.05344  -0.4003  0.6936
6.291e+09  -0.7948  0.3322  -0.01087  0.008177  0.01737  -0.04265  -0.1702  0.8083
6.292e+09  -0.6407  0.6214  -0.01339  -0.003138  0.004751  -0.02002  0.1283  0.7904
6.294e+09  -0.399  0.7641  0.0154  -0.03159  -0.008128  0.02309  0.3989  0.703
6.295e+09  -0.1246  0.8744  0.001223  0.03717  -0.009606  -0.007751  0.5984  0.5711
6.296e+09  0.2003  0.7666  -0.0008337  0.001202  -0.06286  0.06022  0.7683  0.2725
6.298e+09  0.4956  0.6464  -0.0005274  0.008541  0.0252  0.01382  0.8271  0.02878
6.299e+09  0.675  0.4571  0.01576  0.0005391  0.05871  -0.02203  0.8069  -0.2481
6.3e+09  0.8104  0.2329  0.004805  -0.005634  -0.02368  0.02368  0.63  -0.5338
6.301e+09  0.8583  -0.05477  0.003845  0.0305  0.01775  -0.0002683  0.4419  -0.7032
6.302e+09  0.7535  -0.3565  -0.01487  -0.01788  0.009925  0.02178  0.1486  -0.8502
6.304e+09  0.5902  -0.6011  0.01263  -0.007439  0.02517  -0.0009464  -0.1312  -0.8601
6.305e+09  0.3433  -0.7237  -0.009487  -0.02489  0.005182  -0.01597  -0.4187  -0.727
6.306e+09  0.07165  -0.8572  0.008537  0.008556  0.05091  -0.02777  -0.6546  -0.5741
6.308e+09  -0.246  -0.7972  0.0125  -0.0175  -0.006373  0.004119  -0.8159  -0.3104
6.309e+09  -0.5373  -0.6834  -0.04093  0.02477  -0.002152  0.02587  -0.8739  -0.0234
6.31e+09  -0.7104  -0.4982  -0.00993  0.01253  0.04212  -0.04691  -0.802  0.2869
6.311e+09  -0.854  -0.1869  -0.01692  0.02819  0.0287  0.01126  -0.6498  0.5348
6.312e+09  -0.8022  0.1016  -0.01919  -0.01747  -0.02687  -0.03576  -0.4353  0.769
6.314e+09  -0.7572  0.4145  0.01266  0.01204  -0.02465  -0.0128  -0.1616  0.8582
6.315e+09  -0.5481  0.632  -0.02236  0.01781  0.001481  -0.02454  0.1224  0.8617
6.316e+09  -0.3175  0.8332  -0.0371  -0.01262  0.02277  0.01921  0.3942  0.7755
6.318e+09  -0.009045  0.8985  0.01744  -0.01075  -0.02276  0.005076  0.6599  0.5622
6.319e+09  0.3235  0.7911  -0.04335  -0.007555  -0.001376  0.008858  0.8032  0.2859
6.32e+09  0.521  0.6807  0.03559  -0.01425  0.05034  -0.00486  0.8786  0.03093
6.321e+09  0.7908  0.4266  -0.01473  0.03697  0.001628  0.001065  0.8629  -0.3188
6.322e+09  0.8264  0.1772  0.01659  0.02385  0.0001995  -0.001145  0.6943  -0.5296
6.324e+09  0.8398  -0.1928  0.02739  -0.01645  0.04347  0.001663  0.4698  -0.7771
6.325e+09  0.7475  -0.468  0.02159  -0.03033  0.01118  0.009366  0.146  -0.8716
6.326e+09  0.5378  -0.6941  -0.04115  -0.02188  0.01372  -0.01656  -0.1524  -0.8982
6.328e+09  0.2527  -0.8205  -0.003476  0.01205  0.02265  -0.01405  -0.4478  -0.8176
6.329e+09  -0.0336  -0.8415  0.001367  -0.01063  -0.03129  0.002842  -0.6804  -0.5808
6.33e+09  -0.2917  -0.761  0.00938  -0.003712  -0.008181  -0.02272  -0.827  -0.3278
6.331e+09  -0.5965  -0.6698  0.03525  -0.004606  0.003054  -0.02446  -0.9058  -0.06251
6.332e+09  -0.7528  -0.357  0.03155  0.01089  0.004726  -0.04354  -0.877  0.2972
6.334e+09  -0.8706  -0.1083  0.01711  0.01677  0.03212  -0.019  -0.7347  0.5206
6.335e+09  -0.8365  0.1925  0.04848  -0.03144  -0.01844  0.01344  -0.4992  0.7702
6.336e+09  -0.7224  0.4961  -0.003445  -0.04206  0.01612  0.03284  -0.1947  0.9011
6.338e+09  -0.4563  0.7417  -0.00334  0.008098  0.003714  -0.05531  0.1369  0.9099
6.339e+09  -0.1996  0.8493  0.001326  0.02615  -0.04643  0.03301  0.4145  0.7905
6.34e+09  0.0744  0.8853  -0.01177  -0.01091  0.02795  -0.01636  0.6968  0.5543
6.341e+09  0.3604  0.7961  -0.03211  -0.012  0.01952  0.03873  0.8247  0.3794
6.342e+09  0.665  0.5842  0.02244  0.05289  -0.008103  0.01276  0.9364  0.03603
6.344e+09  0.7956  0.3876  -0.01976  -0.002262  0.04256  0.008597  0.8951  -0.2575
6.345e+09  0.8434  0.05077  0.01589  0.00169  -7.199e-05  0.009099  0.7427  -0.5656
6.346e+09  0.8  -0.2558  0.003881  0.008258  -0.01105  -0.01599  0.4811  -0.7637
6.348e+09  0.6656  -0.5163  0.0007994  0.01478  -0.01684  -0.01016  0.2256  -0.8937
6.349e+09  0.4683  -0.7916  0.01541  -0.02664  0.004309  0.01236  -0.1058  -0.89
6.35e+09  0.1924  -0.8319  0.004481  -0.0007865  0.02495  0.03792  -0.3863  -0.8069
6.351e+09  -0.143  -0.8545  -0.0004481  0.002386  0.009702  0.06097  -0.6414  -0.6822
6.352e+09  -0.4384  -0.7826  -0.02775  0.0434  -0.04471  0.006842  -0.9027  -0.3863
6.354e+09  -0.6993  -0.5408  0.02424  0.03315  -0.01393  -0.04388  -0.9136  -0.03866
6.355e+09  -0.8513  -0.2961  0.0384  0.01848  -0.02963  0.02537  -0.8865  0.2381
6.356e+09  -0.9408  -0.01409  -0.02818  -0.01126  -0.004206  -0.008722  -0.77  0.565
6.358e+09  -0.8335  0.3056  -0.01347  -0.03333  0.04254  -0.01808  -0.5373  0.7676
6.359e+09  -0.6538  0.5821  0.01468  -0.02329  -0.04748  -0.006734  -0.23  0.9312
6.36e+09  -0.4342  0.7737  0.001863  -0.01736  0.006689  -0.008934  0.06696  0.9667
6.361e+09  -0.0866  0.8821  0.02655  -0.006015  0.004185  0.001121  0.4297  0.846
6.362e+09  0.2087  0.9099  -0.0165  -0.05046  0.01969  -0.02926  0.6938  0.6824
6.364e+09  0.5289  0.7244  -0.02037  0.02877  0.009552  0.04924  0.8956  0.412
6.365e+09  0.7041  0.5332  -0.002701  -0.01555  0.002796  0.01657  0.9512  0.08163
6.366e+09  0.8474  0.2547  0.002582  -0.02157  0.03082  0.03268  0.884  -0.2328
6.368e+09  0.8658  -0.04358  0.03329  0.009491  0.01781  0.03361  0.7765  -0.5386
6.369e+09  0.7901  -0.3823  0.02237  0.01353  0.009813  -0.00277  0.5655  -0.7598
6.37e+09  0.626  -0.6623  0.01385  -0.006422  -0.01344  0.01041  0.2362  -0.8934
6.371e+09  0.4302  -0.7762  0.00114  0.01366  0.0006389  0.0431  -0.08973  -0.9486
6.372e+09  0.06076  -0.9062  0.01086  0.009129  -0.01825  -0.0001781  -0.4168  -0.8693
6.374e+09  -0.2288  -0.8485  -0.0004206  0.03057  0.007461  0.0133  -0.653  -0.6712
6.375e+09  -0.5318  -0.7233  -0.006858  0.01688  -0.0002994  -0.03082  -0.8288  -0.442
6.376e+09  -0.776  -0.5102  -0.003335  0.04036  -0.0143  0.002872  -0.9332  -0.06355
6.378e+09  -0.8798  -0.1761  -0.008745  0.02137  0.001915  0.005679  -0.94  0.2688
6.379e+09  -0.8727  0.1548  0.059  -0.02299  0.0338  -0.03476  -0.769  0.5501
6.38e+09  -0.7892  0.4337  -0.04087  -0.03039  0.00402  -0.0158  -0.6009  0.7291
6.381e+09  -0.5879  0.6478  0.00405  0.01004  0.001577  -0.02599  -0.219  0.9365
6.382e+09  -0.3254  0.7951  -0.02196  0.01563  0.0111  -0.01686  0.07581  0.9334
6.384e+09  -0.05412  0.8405  0.005529  -0.01271  -0.02712  -0.002828  0.4392  0.8392
6.385e+09  0.2653  0.8441  -0.01402  0.01257  -0.03323  0.02019  0.6808  0.6563
6.386e+09  0.5869  0.7345  0.01716  -0.02631  -0.01201  0.0005865  0.8173  0.3793
6.388e+09  0.782  0.4488  0.003409  -0.006418  0.02486  -0.01815  0.9243  0.1229
6.389e+09  0.8909  0.1719  -0.004523  0.02867  0.01693  0.003155  0.9414  -0.2041
6.39e+09  0.9123  -0.1633  -0.0115  -0.01269  -0.04981  0.01872  0.8241  -0.512
6.391e+09  0.7722  -0.4182  -0.02637  0.0441  -0.0001041  0.02134  0.6128  -0.7274
6.392e+09  0.6027  -0.6109  0.01751  -0.02262  0.006313  0.01513  0.3222  -0.8897
6.394e+09  0.3193  -0.8979  -0.03335  0.03735  -0.03241  0.05289  -0.04109  -0.9394
6.395e+09  -0.0314  -0.9056  0.01877  -0.002724  0.007345  -0.009731  -0.3852  -0.8803
6.396e+09  -0.3111  -0.8499  -0.01846  -0.004405  -0.0156  0.01701  -0.5753  -0.7132
6.398e+09  -0.5537  -0.6672  -0.005119  -0.02898  -0.01364  -0.0258  -0.8167  -0.4475
6.399e+09  -0.7741  -0.441  0.02377  -0.009891  0.03913  -0.002572  -0.8785  -0.1304
6.4e+09  -0.8652  -0.1451  0.009024  -0.0204  -0.01454  -0.007776  -0.919  0.1874
6.401e+09  -0.8801  0.1799  0.039  -0.003889  -0.01487  -0.04389  -0.8194  0.4736
6.402e+09  -0.796  0.4092  0.01398  0.006135  0.0041  -0.03093  -0.5919  0.7232
6.404e+09  -0.5961  0.691  0.05575  -0.0309  0.02559  0.01634  -0.2926  0.8407
6.405e+09  -0.2387  0.8191  0.004187  -0.01274  0.01886  0.01407  -0.007351  0.9051
6.406e+09  0.02354  0.8756  0.02416  0.003856  -0.04206  -0.02096  0.3044  0.8897
6.408e+09  0.3442  0.8309  0.001052  -0.01084  -0.007958  -0.02248  0.5333  0.6835
6.409e+09  0.5583  0.6567  0.0277  0.00398  -0.01078  0.01727  0.789  0.4793
6.41e+09  0.8222  0.417  -0.006952  -0.006949  0.01455  0.03437  0.9346  0.1586
6.411e+09  0.869  0.1172  0.03889  -0.03155  0.01869  0.02631  0.8648  -0.1543
6.412e+09  0.8503  -0.1466  0.005844  -0.004116  0.0007868  -0.005698  0.7996  -0.4013
6.414e+09  0.7626  -0.4757  0.0284  0.002111  -0.02106  0.01161  0.5734  -0.6857
6.415e+09  0.5666  -0.6858  -0.03309  -0.008359  0.07837  0.02134  0.3602  -0.8518
6.416e+09  0.2913  -0.822  -0.0204  0.01909  -0.004275  0.007473  0.01422  -0.8902
6.418e+09  -0.04882  -0.8304  -0.02084  0.04271  -0.0008678  -0.01162  -0.3184  -0.8508
6.419e+09  -0.295  -0.8887  -0.006239  -0.004369  0.0308  -0.02651  -0.5823  -0.7348
6.42e+09  -0.6468  -0.6538  0.01304  -0.006957  -0.004159  -0.002557  -0.7373  -0.4956
6.421e+09  -0.7604  -0.3909  0.01631  -0.01024  -0.0001731  -0.004515  -0.8637  -0.1539
6.422e+09  -0.9067  -0.1116  -0.03675  0.03086  0.007835  -0.02572  -0.8719  0.1291
6.424e+09  -0.8743  0.1807  0.003626  -0.006007  0.01859  -0.02062  -0.7569  0.3943
6.425e+09  -0.7385  0.42  0.03845  -0.005071  -0.0264  0.006405  -0.622  0.6415
6.426e+09  -0.5105  0.7506  0.005039  0.03008  -0.01399  0.03917  -0.3808  0.8012
6.428e+09  -0.2373  0.8828  -0.002661  0.03403  -0.03118  0.001258  -0.1173  0.882
6.429e+09  0.05226  0.8931  0.002971  0.004686  -0.01836  0.00173  0.2535  0.8195
6.43e+09  0.3016  0.8013  0.07081  0.01008  -0.03442  0.0515  0.4674  0.706
6.431e+09  0.6352  0.662  0.01446  -0.006915  -0.01323  -0.03903  0.6924  0.5369
6.432e+09  0.783  0.4125  -0.004278  0.0293  0.01809  0.02044  0.8498  0.2113
6.434e+09  0.8969  0.07439  0.001251  -0.01361  -0.02056  -0.03007  0.8623  -0.1194
6.435e+09  0.8586  -0.271  0.01337  -0.004256  0.007961  -0.01865  0.7447  -0.3963
6.436e+09  0.7418  -0.5283  -0.01203  0.02358  -0.04237  -0.001356  0.6036  -0.6488
6.438e+09  0.5392  -0.7265  -0.008374  0.008646  -0.04012  -0.001844  0.396  -0.7649
6.439e+09  0.3202  -0.868  -0.007029  0.022  0.04077  -0.0312  0.08987  -0.8741
6.44e+09  -0.07534  -0.8574  -0.02115  -0.03415  0.03898  0.0262  -0.2042  -0.7756
6.441e+09  -0.3915  -0.8039  0.009078  -0.02882  0.01714  0.0001796  -0.5338  -0.6548
6.442e+09  -0.6294  -0.5967  -0.009491  0.01052  0.06613  -0.02749  -0.6702  -0.5139
6.444e+09  -0.8468  -0.4076  -0.0162  0.01915  -0.02238  -0.03798  -0.7977  -0.1934
6.445e+09  -0.8993  -0.07254  0.001961  0.01464  0.006934  0.02585  -0.8583  0.09437
6.446e+09  -0.8311  0.221  -0.01054  0.01574  0.02147  0.0198  -0.7463  0.3605
6.448e+09  -0.8006  0.5279  -0.03911  0.01491  0.01088  0.04672  -0.5958  0.6071
6.449e+09  -0.5334  0.6807  -0.01204  0.00987  -0.01655  0.04846  -0.3791  0.7826
6.45e+09  -0.2562  0.8828  0.02092  -0.02418  -0.01455  0.0504  -0.02319  0.8287
6.451e+09  0.06608  0.9334  0.01147  -0.008682  -0.00988  0.02175  0.2542  0.8179
6.452e+09  0.3826  0.7833  0.002471  0.003958  -0.01543  -0.02303  0.4796  0.7007
6.454e+09  0.6948  0.5622  -0.01153  -0.02361  0.0002376  -0.01727  0.7017  0.5082
6.455e+09  0.7426  0.3484  0.02328  0.04119  0.01778  0.02352  0.8039  0.2356
6.456e+09  0.8968  0.08689  -0.004795  0.03775  0.001912  -0.01735  0.8425  -0.1163
6.458e+09  0.912  -0.2634  -0.009511  -0.0363  -0.01047  -0.01174  0.7602  -0.3319
6.459e+09  0.7245  -0.5392  -0.004086  -0.02854  0.01123  -0.0136  0.5569  -0.6088
6.46e+09  0.538  -0.745  -0.002397  -0.01942  0.02794  -0.0125  0.2956  -0.7522
6.461e+09  0.2262  -0.92  0.001281  0.02746  -0.05846  0.006164  0.09649  -0.7889
6.462e+09  -0.09976  -0.9185  0.0338  -0.05009  0.02211  -0.04307  -0.2033  -0.7871
6.464e+09  -0.4158  -0.8304  0.006956  0.01146  -0.03293  -0.03483  -0.4623  -0.661
6.465e+09  -0.6752  -0.5854  -0.01246  -0.001972  0.02713  -0.0122  -0.665  -0.4691
6.466e+09  -0.8615  -0.3361  0.01524  0.03645  -0.006712  0.03598  -0.8186  -0.1938
6.468e+09  -0.914  -0.05533  0.002201  0.0166  0.0358  -0.01278  -0.7951  0.07221
6.469e+09  -0.8359  0.2517  -0.02297  0.01467  0.0382  0.002834  -0.7142  0.4006
6.47e+09  -0.736  0.5578  0.02239  -0.03268  -0.01762  0.007233  -0.5475  0.5657
6.471e+09  -0.5063  0.7831  -0.02321  -0.01318  -0.01996  -0.04721  -0.332  0.7516
6.472e+09  -0.1969  0.9172  -0.02915  0.01654  0.04259  -0.03999  -0.06003  0.7997
6.474e+09  0.1593  0.9588  -0.02704  -0.02354  0.01948  0.007411  0.2236  0.7548
6.475e+09  0.4458  0.7909  -0.009769  0.03292  -0.02191  0.01114  0.479  0.6634
6.476e+09  0.6271  0.6291  -0.02025  -0.01083  -0.03739  -0.02854  0.6821  0.4713
6.478e+09  0.9184  0.3486  -0.01224  0.01654  -0.03777  0.007699  0.7855  0.1768
6.479e+09  0.9093  0.02667  -0.005481  -0.03588  0.01409  -0.01797  0.7542  -0.1062
6.48e+09  0.8925  -0.3249  -0.0007585  0.004224  0.0107  -0.006117  0.7332  -0.3124
6.481e+09  0.7328  -0.6441  0.05133  -0.01326  -0.0427  0.003959  0.5422  -0.5863
6.482e+09  0.4529  -0.8018  9.763e-05  0.002946  -0.02804  0.0427  0.3346  -0.7125
6.484e+09  0.1192  -0.9317  -0.01049  -0.009544  0.04307  -0.00059  0.06058  -0.7806
6.485e+09  -0.1988  -0.9063  -0.01001  0.02807  -0.03202  -0.0356  -0.2198  -0.7316
6.486e+09  -0.4901  -0.7789  0.004038  0.009373  0.05474  -0.02011  -0.4021  -0.6361
6.488e+09  -0.6649  -0.5894  0.004043  -0.02068  -0.01998  -0.01188  -0.6509  -0.4256
6.489e+09  -0.9581  -0.2607  0.01498  0.01067  -0.001331  -0.0201  -0.7795  -0.1491
6.49e+09  -0.9421  0.04001  0.02214  -0.03339  0.05258  0.007372  -0.7787  0.09388
6.491e+09  -0.8458  0.356  -0.001867  -0.01524  -0.01217  0.0851  -0.6974  0.3339
6.492e+09  -0.6887  0.6265  0.03924  -0.01548  0.03817  0.00155  -0.5422  0.5355
6.494e+09  -0.4203  0.8342  0.01076  0.0374  -0.0155  0.02634  -0.32  0.7258
6.495e+09  -0.08621  0.9361  -0.003056  0.0235  0.03124  0.04169  -0.02362  0.7698
6.496e+09  0.232  0.9131  0.03021  -0.01669  -0.01873  -0.06031  0.2286  0.7527
6.498e+09  0.6198  0.7993  -0.03429  0.0258  0.03468  0.0486  0.5017  0.6088
6.499e+09  0.7884  0.6121  0.04729  0.02615  -0.02392  -0.01492  0.6629  0.44
6.5e+09  0.9388  0.2537  -0.0269  -0.02405  0.0384  0.03353  0.725  0.1569
6.501e+09  0.9722  -0.08308  -0.04197  -0.0303  0.02464  -0.02019  0.7886  -0.07944
6.502e+09  0.8536  -0.4418  0.04033  0.02649  0.02062  0.0102  0.6604  -0.348
6.504e+09  0.6737  -0.6463  0.005679  0.0133  0.0001883  -0.009592  0.4699  -0.5395
6.505e+09  0.3796  -0.9006  -0.00726  -0.03062  0.0244  0.009928  0.2926  -0.7112
6.506e+09  0.06093  -0.9507  0.009926  -0.03173  -0.02072  0.002655  0.01034  -0.7441
6.508e+09  -0.298  -0.9171  0.01022  -0.002188  -0.01414  -0.03324  -0.2661  -0.7216
6.509e+09  -0.5387  -0.7649  0.02422  -0.04019  0.02545  -0.03407  -0.4601  -0.6066
6.51e+09  -0.8498  -0.5421  0.001422  -0.03268  0.017  -0.009742  -0.6505  -0.4072
6.511e+09  -0.9194  -0.2172  -0.003329  0.01899  0.05327  -0.01159  -0.7572  -0.1791
6.512e+09  -0.9115  0.111  -0.01304  0.01101  -0.0163  0.00239  -0.7314  0.1481
6.514e+09  -0.8174  0.4779  -0.02434  -0.007864  -0.02577  -0.0195  -0.6301  0.3668
6.515e+09  -0.6087  0.7406  0.03578  0.0325  0.02361  0.02409  -0.4568  0.5837
6.516e+09  -0.3231  0.9306  0.03499  -0.00922  -0.02348  0.06258  -0.2473  0.6957
6.518e+09  0.02194  0.9862  0.03693  0.01718  -0.002515  0.009525  0.02223  0.7531
6.519e+09  0.3687  0.9025  -0.003045  0.01946  -0.02895  0.02628  0.2602  0.6816
6.52e+09  0.6384  0.79  0.009243  -0.04076  -0.006424  -0.02877  0.4801  0.5912
6.521e+09  0.8521  0.4733  0.0005512  -0.00683  -0.03228  -0.01842  0.6437  0.3329
6.522e+09  0.9805  0.1317  -0.0203  -0.02398  0.02383  -0.03495  0.6969  0.107
6.524e+09  0.9167  -0.2218  -0.003793  0.0008641  -0.05984  -0.02668  0.7198  -0.1636
6.525e+09  0.8274  -0.5182  0.009103  0.03752  0.03464  0.0502  0.6561  -0.4217
6.526e+09  0.5478  -0.8035  -0.01412  -0.04502  0.007852  0.01685  0.4136  -0.5859
6.528e+09  0.2654  -0.987  0.01342  -0.006676  -0.02063  0.01228  0.2284  -0.6588
6.529e+09  -0.04349  -0.9629  0.004001  0.01271  0.03607  0.004334  -0.06498  -0.7029
6.53e+09  -0.4199  -0.8423  1.508e-05  -0.01889  -0.01376  -0.003037  -0.2805  -0.6596
6.531e+09  -0.6778  -0.6765  0.009345  0.008103  -0.01998  0.01841  -0.485  -0.4613
6.532e+09  -0.8699  -0.4019  0.004101  0.01596  -0.02484  -0.002309  -0.5917  -0.3146
6.534e+09  -0.9681  -0.007469  0.01427  -0.002226  0.002892  -0.05122  -0.6407  -0.07895
6.535e+09  -0.9302  0.3027  -0.002278  -0.003141  -0.02876  0.006747  -0.6271  0.1197
6.536e+09  -0.7579  0.6013  0.02727  -0.01855  -0.01368  0.002958  -0.5936  0.308
6.538e+09  -0.4872  0.8173  0.0005611  -0.01294  -0.0009472  0.004835  -0.4256  0.4641
6.539e+09  -0.174  0.9031  0.0009583  -0.005353  -0.008346  0.03347  -0.2467  0.6115
6.54e+09  0.1392  0.9927  -0.001924  -0.01262  -0.02226  -0.03186  -0.08459  0.6845
6.541e+09  0.476  0.8186  0.0009574  0.01927  0.04689  -0.07209  0.215  0.6448
6.542e+09  0.7481  0.5901  -0.005188  0.01988  0.0237  -0.0325  0.4205  0.6064
6.544e+09  0.8727  0.2896  -0.005363  0.006879  -0.004424  -0.03061  0.5834  0.4116
6.545e+09  0.9212  -0.0651  0.0156  -0.01257  0.03414  -0.0347  0.6976  0.1953
6.546e+09  0.8478  -0.3091  -0.01044  0.01159  -0.02092  0.06416  0.7178  -0.08778
6.548e+09  0.661  -0.652  -0.00461  0.01726  -0.03217  0.0477  0.6689  -0.3223
6.549e+09  0.4071  -0.7617  -0.03211  -0.007628  -0.01286  0.00616  0.5159  -0.5048
6.55e+09  0.1272  -0.9294  0.01863  -0.01164  0.005724  -0.02955  0.2996  -0.6653
