# Hz S RI R 50
6.25e+09  -0.4366  0.7122  -0.01405  0.001425  -0.01388  0.06349  0.1586  0.4431
6.251e+09  -0.1261  0.8682  0.002381  -0.007741  0.04922  0.03412  0.3465  0.397
6.252e+09  0.1777  0.8225  0.0005582  -0.04604  0.03746  0.05089  0.5201  0.2742
6.254e+09  0.4446  0.7932  0.01281  -0.000476  0.03365  -0.01797  0.6001  0.03702
6.255e+09  0.6962  0.5323  -0.03578  0.02287  -0.04854  0.001836  0.5888  -0.2025
6.256e+09  0.8133  0.2597  0.008898  0.03115  0.04298  -1.254e-05  0.4523  -0.4413
6.258e+09  0.9017  -6.338e-05  0.01814  0.001078  0.005897  0.01183  0.2728  -0.6048
6.259e+09  0.7743  -0.3258  0.01231  -0.01677  0.02808  -0.02372  0.05223  -0.6717
6.26e+09  0.6933  -0.4913  0.006503  0.008671  0.008511  -0.007259  -0.22  -0.6378
6.261e+09  0.4083  -0.7591  0.01213  -0.009142  -0.001955  0.02506  -0.4226  -0.5321
6.262e+09  0.0483  -0.8459  -0.02086  -0.02068  0.0008276  -0.01461  -0.6153  -0.369
6.264e+09  -0.176  -0.7919  0.003057  0.03818  -0.04553  0.01612  -0.7392  -0.1094
6.265e+09  -0.4538  -0.7257  0.02563  0.01419  0.04446  0.02466  -0.722  0.154
6.266e+09  -0.6502  -0.5361  -0.01274  -0.001238  -0.01533  0.02389  -0.6145  0.3793
6.268e+09  -0.7455  -0.2733  -0.004704  -0.01165  -0.00522  -0.05329  -0.4422  0.5737
6.269e+09  -0.8232  0.04756  0.006699  -0.009016  0.01865  0.001907  -0.1884  0.6953
6.27e+09  -0.7522  0.3056  -0.0214  0.0174  0.01051  -0.02039  0.07621  0.7515
6.271e+09  -0.5645  0.5435  -0.04115  0.01667  -0.06325  0.01637  0.2766  0.6845
6.272e+09  -0.4175  0.7507  0.002141  -0.009472  -0.01021  -0.04215  0.5251  0.5149
6.274e+09  -0.1118  0.8406  -0.02909  0.02024  -0.01633  -0.003159  0.6983  0.3256
6.275e+09  0.1621  0.8228  0.0001082  -0.02133  -0.03311  -0.0307  0.759  0.03501
6.276e+09  0.4136  0.6234  -0.02405  -0.004314  -0.002003  -0.01942  0.737  -0.2392
6.278e+09  0.6309  0.4938  0.01042  -0.01193  0.03697  -0.01288  0.6046  -0.4636
6.279e+09  0.8261  0.2489  0.002776  0.007044  -0.01923  -0.09265  0.4002  -0.6521
6.28e+09  0.8491  -0.0823  -0.01154  0.03262  -0.04845  -0.01066  0.1469  -0.7689
6.281e+09  0.8204  -0.333  0.0006148  0.05081  0.05223  0.001933  -0.1097  -0.7442
6.282e+09  0.5991  -0.5565  -0.01075  0.003033  -0.02406  0.01062  -0.3909  -0.6877
6.284e+09  0.3568  -0.7855  -0.00247  0.01514  0.04778  0.02314  -0.579  -0.5336
6.285e+09  0.06263  -0.7973  0.001487  -0.01058  -0.05112  -0.01586  -0.7318  -0.2994
6.286e+09  -0.2343  -0.8207  0.02224  0.02244  -0.002912  -0.02372  -0.803  0.007882
6.288e+09  -0.4908  -0.6982  0.006518  -0.01081  -0.006404  -0.02044  -0.7501  0.2256
6.289e+09  -0.719  -0.5134  0.01823  -0.04303  0.009947  0.07159  -0.6442  0.4984
6.29e+09  -0.8254  -0.2516  0.008156  0.003156  -0.005799  0.01155  -0.4113  0.7048
6.291e+09  -0.8236  0.08237  0.004557  -0.004002  -0.04265  0.02723  -0.1544  0.8097
6.292e+09  -0.7343  0.3249  0.006189  0.01235  -0.01454  0.005724  0.1151  0.8133
6.294e+09  -0.6345  0.5579  -0.01561  -0.0256  -0.0004281  0.03902  0.4045  0.7093
6.295e+09  -0.3304  0.7644  0.009442  -0.00917  -0.00527  0.001494  0.6074  0.5501
6.296e+09  -0.05377  0.8397  -0.009817  0.01209  -0.002949  -0.02631  0.74  0.2817
6.298e+09  0.2465  0.7454  0.007312  -0.03033  -0.04615  -0.001211  0.8403  0.01664
6.299e+09  0.4799  0.6814  0.0007138  -0.02771  -0.06408  0.03056  0.7894  -0.2595
6.3e+09  0.703  0.4434  -0.001544  -0.01191  0.03751  0.01996  0.6667  -0.5157
6.301e+09  0.861  0.223  -0.005603  -0.01397  -0.007832  -0.02726  0.4061  -0.7358
6.302e+09  0.8467  -0.1145  0.0137  0.01706  -0.03371  -0.005172  0.1604  -0.8298
6.304e+09  0.6831  -0.3414  -0.01308  0.008988  0.005517  0.01129  -0.1471  -0.8255
6.305e+09  0.5551  -0.6083  0.01392  -0.002078  0.01097  -0.02972  -0.4106  -0.7245
6.306e+09  0.3285  -0.7287  -0.005506  0.03498  -0.0188  -0.01147  -0.6528  -0.5715
6.308e+09  0.03405  -0.8031  -0.01242  -0.01273  -0.004893  0.009243  -0.7897  -0.2753
6.309e+09  -0.2605  -0.8206  0.007465  0.00867  -0.0076  0.07344  -0.8442  0.01591
6.31e+09  -0.5041  -0.6618  0.001739  -0.002538  -0.02698  0.01028  -0.8332  0.2996
6.311e+09  -0.7779  -0.4555  -0.008347  -0.001116  0.07151  0.01695  -0.6768  0.549
6.312e+09  -0.8382  -0.1516  0.002616  0.0114  0.04666  0.005947  -0.435  0.7306
6.314e+09  -0.8489  0.1328  0.003987  0.001282  -0.02801  -0.01532  -0.1264  0.8495
6.315e+09  -0.7253  0.37  0.01044  0.03349  0.009416  0.04014  0.1493  0.8767
6.316e+09  -0.5588  0.6227  -0.00674  -0.02804  0.03206  -0.01935  0.4434  0.7778
6.318e+09  -0.326  0.7812  -0.01588  0.03074  0.04061  0.02181  0.6874  0.5879
6.319e+09  -0.03003  0.8479  -0.0168  0.01435  -0.007826  -0.03571  0.8339  0.2908
6.32e+09  0.3101  0.7868  0.04803  -0.003369  0.0131  -0.07219  0.8788  0.04791
6.321e+09  0.6074  0.6606  -0.004321  0.002563  -0.00486  0.00511  0.8459  -0.293
6.322e+09  0.743  0.4172  -0.01135  0.003281  0.0217  0.01328  0.6902  -0.5903
6.324e+09  0.8565  0.1019  0.0195  -0.0006609  0.008703  0.03856  0.4568  -0.7453
6.325e+09  0.8776  -0.1594  -0.002953  -0.01494  0.04914  0.02728  0.1664  -0.8779
6.326e+09  0.7074  -0.4484  -0.01597  -0.01356  -0.03632  0.06079  -0.1235  -0.8698
6.328e+09  0.5377  -0.6636  0.0223  0.007912  0.009118  0.00085  -0.4739  -0.8008
6.329e+09  0.3009  -0.8308  -0.0265  0.0159  0.01692  -0.02724  -0.6767  -0.5649
6.33e+09  -0.04734  -0.8698  -0.05133  -0.009731  0.01962  -0.0007777  -0.8235  -0.3154
6.331e+09  -0.3683  -0.776  -0.01712  -0.01501  -0.05346  0.01499  -0.9205  -0.04516
6.332e+09  -0.5795  -0.6018  0.004025  0.01037  -0.01621  0.0008679  -0.8388  0.2724
6.334e+09  -0.8095  -0.4471  0.0159  0.0235  0.02074  -0.01072  -0.7241  0.6035
6.335e+09  -0.9041  -0.04178  0.007615  -0.001738  -0.00231  0.01479  -0.4767  0.7652
6.336e+09  -0.8145  0.2365  -0.02304  0.008134  -0.003354  0.01051  -0.1838  0.8903
6.338e+09  -0.7158  0.5533  0.00624  0.003068  -0.01113  0.002208  0.1217  0.896
6.339e+09  -0.5212  0.7269  0.02179  0.02242  4.065e-05  -0.02463  0.4241  0.8227
6.34e+09  -0.241  0.8203  0.01927  -0.01713  -0.02607  -0.04777  0.6757  0.6207
6.341e+09  0.06466  0.8609  0.005679  0.007065  -0.001028  0.01148  0.8634  0.3527
6.342e+09  0.4372  0.8077  -0.005592  0.01061  0.03479  0.02648  0.902  0.03927
6.344e+09  0.6518  0.6156  -0.01718  -0.001349  0.04543  -0.009179  0.8793  -0.2852
6.345e+09  0.8147  0.3273  0.002626  -0.01742  -0.01755  -0.0127  0.7605  -0.5532
6.346e+09  0.919  0.02251  -0.005205  0.02485  -0.03442  -0.01436  0.5218  -0.7849
6.348e+09  0.8314  -0.2964  -0.009816  0.01285  0.04066  -0.01607  0.186  -0.9283
6.349e+09  0.6831  -0.5859  0.0002885  0.001369  0.04058  -0.06491  -0.08331  -0.9242
6.35e+09  0.4775  -0.7491  0.01847  -0.0151  0.04225  0.02761  -0.4273  -0.8498
6.351e+09  0.1098  -0.8751  0.002283  -0.006851  -0.02156  -0.05023  -0.6871  -0.6488
6.352e+09  -0.1482  -0.9213  -0.007487  0.0401  -0.0384  -0.03999  -0.868  -0.3238
6.354e+09  -0.4595  -0.7514  -0.002014  0.04375  -0.004396  0.03923  -0.9149  -0.0823
6.355e+09  -0.7277  -0.5242  -0.001192  -0.0136  -0.01472  0.02472  -0.9125  0.3092
6.356e+09  -0.8155  -0.2837  -0.007763  -0.009797  0.02435  -0.0228  -0.7553  0.5653
6.358e+09  -0.8709  0.02734  0.004081  0.0128  0.009847  -0.06789  -0.5329  0.8021
6.359e+09  -0.847  0.3389  -0.01293  0.01301  0.03253  0.01527  -0.2474  0.8822
6.36e+09  -0.6569  0.6473  -0.006717  -0.03348  0.01222  -0.03337  0.06885  0.9416
6.361e+09  -0.408  0.8434  0.02804  0.003713  0.002966  0.0155  0.4027  0.8487
6.362e+09  -0.1183  0.9202  -0.02071  0.01779  0.01217  0.00333  0.6865  0.6674
6.364e+09  0.1911  0.8038  0.01111  -0.03577  -0.01988  0.009829  0.815  0.3614
6.365e+09  0.4865  0.7276  -0.01662  -0.01901  -0.004025  -0.02698  0.9269  0.06091
6.366e+09  0.7184  0.4957  -0.008449  0.01553  -0.0005305  -0.01559  0.9257  -0.2267
6.368e+09  0.8743  0.2145  0.05023  0.03708  0.01786  -0.001482  0.7717  -0.5299
6.369e+09  0.8864  -0.1052  0.01889  -0.03889  -0.004489  -0.03686  0.5749  -0.7892
6.37e+09  0.8439  -0.3896  -0.008774  -0.04552  0.04071  0.02424  0.264  -0.8971
6.371e+09  0.6203  -0.6709  -0.004702  -0.0146  -0.01918  0.03183  -0.09885  -0.9585
6.372e+09  0.3365  -0.8202  0.01638  -0.006857  0.0115  -0.04817  -0.3889  -0.856
6.374e+09  0.02729  -0.8817  -0.02537  -0.005725  -0.02425  -0.004471  -0.6489  -0.6466
6.375e+09  -0.2597  -0.8869  -0.004226  0.0009623  -9.91e-05  -0.0004784  -0.8391  -0.4354
6.376e+09  -0.532  -0.7226  0.04  -0.03269  0.01251  0.0258  -0.9188  -0.1102
6.378e+09  -0.7562  -0.4539  0.008561  0.01808  -0.06116  0.0229  -0.8923  0.2175
6.379e+09  -0.887  -0.1446  -0.004889  -0.0264  0.01031  -0.04381  -0.7936  0.5154
6.38e+09  -0.8832  0.1157  0.01541  0.009149  0.02784  -0.0533  -0.5413  0.7559
6.381e+09  -0.7601  0.414  0.01276  -0.006326  -0.0264  -0.005321  -0.273  0.913
6.382e+09  -0.5987  0.7376  -0.0073  0.01312  -0.002549  -0.02693  0.04047  0.9369
6.384e+09  -0.3277  0.8048  -0.01853  0.009576  -0.01972  -0.003522  0.3246  0.8373
6.385e+09  -0.01375  0.8725  -0.0151  -0.003368  0.009164  -0.03179  0.6479  0.6789
6.386e+09  0.3135  0.8471  0.04885  -0.0135  0.01045  -0.01316  0.8206  0.3677
6.388e+09  0.549  0.6674  -0.02287  0.01498  0.04219  -0.01897  0.894  0.1057
6.389e+09  0.8082  0.4539  -0.01959  -0.002905  0.02909  -0.01007  0.9199  -0.1904
6.39e+09  0.8483  0.1809  -0.005887  -0.06382  0.03872  0.05423  0.8005  -0.528
6.391e+09  0.853  -0.1335  -0.02641  0.03117  0.001814  -0.02775  0.5697  -0.7675
6.392e+09  0.7653  -0.5245  -0.02254  -0.005959  -0.03916  0.00938  0.2508  -0.8731
6.394e+09  0.5766  -0.7096  -0.03098  -0.01696  0.01009  -0.01818  -0.03194  -0.9344
6.395e+09  0.304  -0.8461  -0.06347  0.00934  -0.007132  0.0421  -0.3397  -0.867
6.396e+09  -0.0265  -0.9095  0.007522  0.02961  -0.03726  0.04073  -0.5813  -0.729
6.398e+09  -0.3251  -0.8833  -0.04024  -0.01892  -0.03661  0.01239  -0.7983  -0.4635
6.399e+09  -0.6258  -0.6369  0.03625  -0.03247  0.01485  -0.01604  -0.9017  -0.1897
6.4e+09  -0.8274  -0.3637  0.01537  0.02075  0.01905  0.03075  -0.8885  0.1733
6.401e+09  -0.9075  -0.1171  -0.00959  0.009433  0.0212  0.05062  -0.8214  0.4328
6.402e+09  -0.844  0.223  0.03156  0.04168  0.01224  -0.01429  -0.5708  0.7073
6.404e+09  -0.7788  0.5003  -0.03791  0.006018  -0.03012  0.03553  -0.3164  0.8803
6.405e+09  -0.5215  0.7517  0.02038  -0.05151  -0.01642  -0.01514  0.03318  0.916
6.406e+09  -0.2534  0.8502  -0.01718  0.03041  -0.005517  0.04669  0.3256  0.8024
6.408e+09  0.02837  0.8995  0.01831  -0.01769  0.06093  -0.008456  0.5922  0.6721
6.409e+09  0.3194  0.8414  -0.0007562  -0.02286  -0.01036  -0.003132  0.7892  0.4558
6.41e+09  0.5719  0.6432  -0.008239  0.01048  0.003129  -0.01995  0.9193  0.1979
6.411e+09  0.7463  0.401  -0.02843  0.01213  -0.01111  0.03883  0.9105  -0.1374
6.412e+09  0.9156  0.07722  0.005731  0.004961  0.02156  -0.03928  0.8198  -0.4279
6.414e+09  0.8764  -0.1712  -0.07014  0.04448  0.003354  -0.003953  0.5443  -0.677
6.415e+09  0.7077  -0.5109  -0.007713  -0.01765  0.01147  0.05377  0.3287  -0.8492
6.416e+09  0.5248  -0.6635  0.01867  -0.008524  -0.01522  -0.00885  0.05757  -0.9058
6.418e+09  0.2236  -0.85  0.014  0.02266  0.00397  0.04407  -0.2594  -0.8727
6.419e+09  -0.08798  -0.8981  -0.01127  -0.0432  0.007444  0.001728  -0.5417  -0.7257
6.42e+09  -0.3986  -0.7852  -0.01737  0.0256  -0.02805  -0.0117  -0.7626  -0.4359
6.421e+09  -0.6375  -0.6314  0.03296  -0.02315  -0.01399  0.04888  -0.8446  -0.2
6.422e+09  -0.7927  -0.3357  0.02561  0.008788  0.04144  0.001297  -0.9173  0.1157
6.424e+09  -0.8949  -0.05618  0.007475  -0.002509  -0.004004  0.02097  -0.7658  0.3997
6.425e+09  -0.8746  0.194  0.01089  -0.0005049  0.006742  -0.002413  -0.6094  0.6459
6.426e+09  -0.7496  0.4855  -0.01654  0.006679  0.05605  -0.004997  -0.364  0.7888
6.428e+09  -0.5002  0.7504  -0.01265  0.01851  -0.02763  -0.02902  -0.04737  0.8643
6.429e+09  -0.2556  0.8972  0.003042  0.01053  0.0243  -0.01697  0.2343  0.8325
6.43e+09  0.05993  0.9121  -0.004611  -0.005499  -0.04573  0.03024  0.4813  0.6803
6.431e+09  0.3574  0.7962  0.001594  0.03154  0.04076  -0.07136  0.7239  0.5146
6.432e+09  0.6133  0.5917  0.01556  -0.02643  -0.01166  0.03267  0.8422  0.2395
6.434e+09  0.7794  0.3119  -0.03607  0.008414  0.04369  0.0273  0.8584  -0.07562
6.435e+09  0.8987  0.06682  0.01037  -0.04566  -0.008042  0.01236  0.7958  -0.3607
6.436e+09  0.8692  -0.2287  -0.03437  -0.008516  0.06317  -0.019  0.6216  -0.6212
6.438e+09  0.7108  -0.4598  -4.449e-05  0.01269  0.02348  0.02225  0.4211  -0.7747
6.439e+09  0.471  -0.7602  -0.06317  -0.02236  0.05535  0.01588  0.1143  -0.8221
6.44e+09  0.1841  -0.8879  -0.04421  -0.03081  0.03725  -0.004063  -0.2916  -0.84
6.441e+09  -0.06659  -0.8402  0.0003134  0.04889  -0.004151  0.005917  -0.5043  -0.6554
6.442e+09  -0.3993  -0.7563  -0.005525  0.02399  -0.003621  0.02003  -0.693  -0.4704
6.444e+09  -0.6228  -0.6192  0.001352  0.006082  -0.02364  0.06464  -0.8002  -0.1917
6.445e+09  -0.8157  -0.3911  -0.01621  -0.01972  -0.01412  0.04605  -0.8508  0.1076
6.446e+09  -0.8563  -0.05952  -0.04511  -0.009319  -0.02422  0.01812  -0.7387  0.3611
6.448e+09  -0.8728  0.2276  -0.02559  0.002672  -0.0254  -0.03678  -0.5839  0.5878
6.449e+09  -0.7386  0.4886  0.03147  0.01699  0.00158  0.0459  -0.3456  0.7169
6.45e+09  -0.5149  0.7493  -0.04365  -0.007645  -0.004051  0.0008957  -0.08589  0.8106
6.451e+09  -0.2098  0.8914  0.02424  -0.008557  0.03645  -0.0237  0.2084  0.8293
6.452e+09  0.09614  0.9322  0.006719  -0.01246  0.0167  -0.0008844  0.4821  0.7069
6.454e+09  0.4021  0.7917  -0.01582  -0.0271  0.002535  -0.01526  0.6803  0.4803
6.455e+09  0.6541  0.6249  0.02111  0.000241  0.01676  -0.01647  0.7887  0.2177
6.456e+09  0.8631  0.3712  -0.01855  -0.003042  -0.007383  -0.05408  0.8753  -0.05735
6.458e+09  0.8818  0.06209  0.02868  0.0005425  0.0236  -0.03065  0.7692  -0.311
6.459e+09  0.8165  -0.2365  -0.01529  -0.008365  -0.02838  0.07286  0.606  -0.5365
6.46e+09  0.7057  -0.5492  -0.01993  -0.03554  -0.01469  -0.02141  0.3184  -0.7714
6.461e+09  0.4941  -0.7894  -0.009471  0.02432  -0.002862  -0.04063  0.06839  -0.8535
6.462e+09  0.2335  -0.8266  0.006596  0.05454  0.04341  0.01454  -0.2257  -0.7959
6.464e+09  -0.09504  -0.9066  0.02093  -0.0108  0.04514  -0.03097  -0.4771  -0.6753
6.465e+09  -0.4292  -0.8196  0.01041  0.0198  -0.0377  -0.0007248  -0.6733  -0.4542
6.466e+09  -0.6513  -0.5968  -0.02491  -0.03422  0.05778  0.03748  -0.7816  -0.2383
6.468e+09  -0.8405  -0.2829  0.0232  -0.03082  -0.05457  0.009091  -0.7694  0.06948
6.469e+09  -0.914  -0.007187  -0.01754  -0.004079  0.02207  0.01449  -0.757  0.3651
6.47e+09  -0.84  0.2772  -0.0197  0.005192  -0.002193  0.0202  -0.4927  0.5393
6.471e+09  -0.7152  0.5291  0.05921  0.03819  -0.06602  0.002048  -0.3697  0.768
6.472e+09  -0.4715  0.7692  0.01273  0.01561  -0.02163  -0.04293  -0.0242  0.767
6.474e+09  -0.1432  0.8738  -0.02661  0.01639  0.02498  -0.02823  0.1935  0.7873
6.475e+09  0.09744  0.8572  0.01529  -0.0128  0.02604  0.02229  0.4706  0.6151
6.476e+09  0.4526  0.8243  0.03295  0.00839  -0.01104  -0.02838  0.6498  0.4432
6.478e+09  0.6855  0.5709  0.05019  0.02132  -0.04064  -0.018  0.7727  0.191
6.479e+09  0.8379  0.3248  -0.01208  -0.007429  -0.01889  0.01866  0.7548  -0.08873
6.48e+09  0.9053  -0.02353  0.01045  0.01813  0.004744  0.005437  0.72  -0.3412
6.481e+09  0.8613  -0.2906  0.04696  0.009956  0.004609  -0.0286  0.5727  -0.5777
6.482e+09  0.6996  -0.5357  -0.00404  0.01726  -0.01623  0.02461  0.3019  -0.7058
6.484e+09  0.4161  -0.7854  -0.01516  0.003829  0.008426  0.008463  0.05429  -0.7618
6.485e+09  0.118  -0.9196  -0.01714  -0.001033  0.03087  0.03254  -0.2079  -0.7192
6.486e+09  -0.1499  -0.8884  -0.01711  0.004025  0.001043  -0.05325  -0.4268  -0.6547
6.488e+09  -0.4094  -0.811  -0.02995  -0.04449  0.02799  -0.02855  -0.6739  -0.4424
6.489e+09  -0.6686  -0.6286  -0.008204  -0.01327  0.01445  -0.03388  -0.772  -0.1631
6.49e+09  -0.881  -0.3139  -0.04564  -0.04314  -0.0258  -0.01055  -0.7708  0.05489
6.491e+09  -0.8881  -0.03602  0.01651  0.01783  -0.01837  0.01265  -0.6498  0.3322
6.492e+09  -0.9095  0.3603  0.04034  0.0107  -0.001326  0.001625  -0.5438  0.5191
6.494e+09  -0.6906  0.5817  -0.01172  0.01015  0.03125  -0.05049  -0.2985  0.7088
6.495e+09  -0.4675  0.8024  0.03029  0.01302  -0.0332  -0.01048  -0.03522  0.7641
6.496e+09  -0.1284  0.9643  0.004915  0.008964  -0.06874  0.0006412  0.2298  0.7297
6.498e+09  0.1347  0.9804  -0.03195  -0.00613  0.01526  -0.002636  0.4775  0.6263
6.499e+09  0.5307  0.8098  -0.03276  -0.0009092  0.02475  -0.02823  0.6601  0.4021
6.5e+09  0.7377  0.5591  0.01293  -0.01978  -0.07968  0.01404  0.7646  0.1627
6.501e+09  0.9071  0.2748  -0.01575  0.003452  0.01682  0.06615  0.7612  -0.09989
6.502e+09  0.9079  0.02359  0.05078  0.01066  -0.02805  -0.02612  0.6786  -0.3435
6.504e+09  0.8545  -0.391  0.01414  -0.02251  -0.03947  0.02025  0.4993  -0.537
6.505e+09  0.7101  -0.6161  0.01837  -0.01666  0.003782  -0.01474  0.2446  -0.6919
6.506e+09  0.4963  -0.8632  0.02975  -0.005709  0.01672  -0.02271  0.05272  -0.7566
6.508e+09  0.1272  -0.9482  -0.01228  -0.018  -0.01454  -0.04907  -0.2343  -0.7041
6.509e+09  -0.1526  -0.9185  -0.01718  -0.01191  -0.01683  0.02835  -0.5167  -0.6045
6.51e+09  -0.5605  -0.8183  0.01699  0.01952  -0.003801  0.01096  -0.5942  -0.3847
6.511e+09  -0.7974  -0.5966  0.003579  -0.004332  -0.01988  0.0545  -0.7666  -0.138
6.512e+09  -0.8645  -0.2707  0.01555  -0.004108  -0.005064  -0.02958  -0.728  0.1383
6.514e+09  -0.9222  3.732e-05  -0.006628  -0.009859  -0.01985  0.01626  -0.6882  0.3653
6.515e+09  -0.8783  0.3786  0.04422  -0.007377  -0.03044  0.01855  -0.4784  0.5623
6.516e+09  -0.6724  0.7187  -0.0136  -0.02176  0.03567  0.05466  -0.2142  0.6903
6.518e+09  -0.4178  0.8787  0.03084  0.01036  0.001827  0.03426  0.0265  0.7788
6.519e+09  -0.03476  0.9464  -0.0206  -0.006048  0.001434  0.0009396  0.2522  0.6889
6.52e+09  0.3349  0.9424  -0.006926  -0.01453  0.03803  0.03596  0.5053  0.5507
6.521e+09  0.5774  0.796  -0.005896  -0.0116  -0.01707  0.03147  0.6497  0.3743
6.522e+09  0.8191  0.5388  -0.0261  0.008178  0.01466  -0.01678  0.7222  0.09542
6.524e+09  0.9858  0.2131  -0.009194  0.019  -0.01488  -0.02729  0.7268  -0.1917
6.525e+09  1.005  -0.1453  0.02698  0.01398  0.01086  0.001423  0.5815  -0.3988
6.526e+09  0.8818  -0.4884  0.02994  0.004273  0.004527  0.03557  0.4293  -0.6115
6.528e+09  0.6251  -0.7347  0.0005536  -0.04337  0.0001057  0.01939  0.2211  -0.6784
6.529e+09  0.3698  -0.9046  -0.0136  -0.001625  0.01014  -0.008299  -0.02237  -0.7101
6.53e+09  0.04102  -0.988  0.02616  0.03481  0.04266  -0.001561  -0.2732  -0.6227
6.531e+09  -0.3135  -0.9086  -0.005305  -0.004561  -0.01059  0.01802  -0.5287  -0.4611
6.532e+09  -0.6468  -0.7922  0.01896  0.01021  -0.06131  -0.04421  -0.5813  -0.3125
6.534e+09  -0.8601  -0.5164  -0.01748  0.02303  0.01265  0.01688  -0.6725  -0.08886
6.535e+09  -0.9711  -0.1582  -0.03177  -0.004376  -0.009871  0.0198  -0.5991  0.1326
6.536e+09  -0.9864  0.1742  0.01047  0.003755  -0.009724  0.07583  -0.5702  0.3128
6.538e+09  -0.8287  0.4974  -0.02236  0.002703  -0.0808  0.04765  -0.4407  0.4601
6.539e+09  -0.5743  0.7823  -0.002163  -0.004604  -0.04651  -0.006189  -0.2808  0.6257
6.54e+09  -0.3305  0.912  0.02137  -0.008934  0.0257  0.05506  -0.04734  0.7163
6.541e+09  0.01749  0.9557  -0.01225  0.0164  -0.05048  -0.04414  0.1925  0.6645
6.542e+09  0.4034  0.9158  -0.009511  -0.006405  0.01862  0.04056  0.3855  0.606
6.544e+09  0.6858  0.733  0.0005797  -0.0007642  -0.02625  -0.03369  0.5993  0.4098
6.545e+09  0.8212  0.4519  -0.01683  0.01092  -0.04241  -0.03177  0.679  0.1821
6.546e+09  0.9413  0.1055  -0.02006  0.01254  -0.05391  0.03016  0.7549  -0.09884
6.548e+09  0.9849  -0.2291  0.02043  0.002607  0.064  -0.02836  0.6455  -0.3311
6.549e+09  0.785  -0.4994  -0.02588  -0.001597  0.02857  -0.004336  0.4921  -0.5008
6.55e+09  0.574  -0.7937  0.02136  0.0102  -0.03372  0.02714  0.2806  -0.6809
