# Hz S RI R 50
6.25e+09  -0.7704  0.2844  -0.0052  0.004835  -0.04246  0.02466  0.1851  0.5007
6.251e+09  -0.6679  0.5596  -0.01035  -0.001358  -0.03559  -0.007055  0.3591  0.4204
6.252e+09  -0.3739  0.7394  -0.01646  -0.01094  0.0267  0.05714  0.5041  0.2405
6.254e+09  -0.1509  0.8244  0.00909  0.01686  -0.01081  0.04043  0.6394  -0.002358
6.255e+09  0.1454  0.818  -0.004399  0.0364  0.01527  0.01589  0.5558  -0.2633
6.256e+09  0.3875  0.6887  -0.01174  0.02904  0.01813  0.008919  0.4453  -0.4555
6.258e+09  0.6495  0.575  -0.00488  -0.01755  0.02567  -0.03066  0.3061  -0.6466
6.259e+09  0.7757  0.2679  -0.01452  0.0006933  -0.03828  0.04878  0.02746  -0.6424
6.26e+09  0.8571  -0.00233  -0.02081  -0.03029  -0.05307  0.01168  -0.1961  -0.6742
6.261e+09  0.734  -0.2716  -0.001168  -0.01792  -0.04637  -0.008312  -0.435  -0.5632
6.262e+09  0.6451  -0.5513  -0.007158  0.02117  0.009491  -0.004907  -0.6154  -0.3367
6.264e+09  0.3872  -0.7184  -0.02167  -0.001545  -0.03364  -0.05865  -0.7052  -0.09132
6.265e+09  0.1363  -0.8472  -0.03843  0.01012  0.01489  0.01287  -0.722  0.1602
6.266e+09  -0.133  -0.7666  -0.03009  0.01238  0.04871  0.02949  -0.6086  0.3672
6.268e+09  -0.4752  -0.7159  -0.03064  -0.009971  0.03953  -0.004807  -0.4448  0.6189
6.269e+09  -0.6124  -0.5337  0.001784  0.009711  -0.005639  -0.03032  -0.1916  0.7038
6.27e+09  -0.7825  -0.2838  -0.007583  0.03049  0.01362  -0.03385  0.08645  0.7344
6.271e+09  -0.8418  0.03673  0.0235  0.0239  -0.003958  -0.004102  0.3015  0.6253
6.272e+09  -0.7627  0.3112  0.01761  -0.01959  -0.02825  0.01456  0.5517  0.5662
6.274e+09  -0.647  0.5412  0.03094  0.01993  -0.01187  0.009769  0.7028  0.2862
6.275e+09  -0.3708  0.7042  0.005553  -0.01926  -0.01172  -0.04222  0.7517  0.05568
6.276e+09  -0.1296  0.8547  0.001442  0.01137  -0.0213  0.01789  0.7319  -0.2084
6.278e+09  0.1992  0.7958  0.01717  -0.01433  -0.002449  0.01927  0.6315  -0.4596
6.279e+09  0.4636  0.705  0.02437  -0.0005664  -0.01532  -0.03046  0.3903  -0.6537
6.28e+09  0.6403  0.5099  -0.01024  0.01146  -0.0632  -0.01326  0.1463  -0.7489
6.281e+09  0.8105  0.2461  -0.009299  0.002312  0.01129  0.004925  -0.1158  -0.7598
6.282e+09  0.7803  -0.01419  -0.002527  -0.0172  0.03634  -0.0125  -0.3801  -0.6575
6.284e+09  0.8263  -0.3072  0.002739  -0.01227  0.02964  -0.005314  -0.5829  -0.4823
6.285e+09  0.6311  -0.5895  -0.003894  0.004181  -0.1016  -0.0499  -0.7304  -0.2859
6.286e+09  0.363  -0.7423  0.002554  0.004479  0.04061  0.02538  -0.791  -0.04595
6.288e+09  0.09937  -0.7726  -0.0003643  0.004229  0.06665  -0.05611  -0.7749  0.2801
6.289e+09  -0.1775  -0.7642  0.005159  -0.02647  0.03348  -0.007316  -0.6156  0.4868
6.29e+09  -0.4357  -0.6744  -0.021  0.005084  -0.03775  -0.026  -0.4456  0.6944
6.291e+09  -0.5595  -0.4771  -0.005274  -0.01298  0.03497  -0.01226  -0.1471  0.7924
6.292e+09  -0.8345  -0.2536  -0.01873  -0.02404  0.01867  0.07812  0.1482  0.7995
6.294e+09  -0.7963  0.06686  0.01903  -0.001347  -0.03004  0.06204  0.3964  0.7631
6.295e+09  -0.7522  0.3831  0.01433  -0.001714  -0.05873  0.01743  0.6207  0.521
6.296e+09  -0.5721  0.56  -0.009741  -0.001455  0.01545  0.0135  0.7638  0.287
6.298e+09  -0.3141  0.7087  -0.007505  0.03218  -0.01502  0.01727  0.8524  -0.003037
6.299e+09  -0.05951  0.8032  0.03606  0.007306  0.001997  -0.02645  0.7653  -0.2618
6.3e+09  0.2677  0.7469  -0.008866  -0.0001658  0.0232  -0.0464  0.6837  -0.5262
6.301e+09  0.4857  0.675  -0.02989  -0.01061  0.03195  -0.04907  0.4537  -0.721
6.302e+09  0.7038  0.4772  0.008346  -0.007111  -0.0371  -0.01342  0.1866  -0.8086
6.304e+09  0.7699  0.2143  -0.04317  0.009948  -0.009376  -0.002616  -0.1644  -0.8237
6.305e+09  0.8219  -0.07244  -0.02096  0.01131  0.03584  -0.0356  -0.4406  -0.7447
6.306e+09  0.6922  -0.3409  0.0004352  -0.02171  -0.01454  -0.02142  -0.6413  -0.524
6.308e+09  0.603  -0.6086  0.006676  -0.007626  0.01988  0.03555  -0.7668  -0.3253
6.309e+09  0.3221  -0.7564  -0.009853  -0.004629  -0.007649  0.01043  -0.8677  -0.006262
6.31e+09  -0.02404  -0.8666  0.0206  0.008568  0.001018  0.0415  -0.8057  0.3193
6.311e+09  -0.2467  -0.7776  -0.01989  0.01691  -0.006909  -0.003853  -0.6507  0.5651
6.312e+09  -0.4894  -0.6242  0.005065  0.02074  -0.000914  0.01494  -0.4667  0.7311
6.314e+09  -0.7725  -0.4502  0.003894  -0.01498  0.0382  -0.02257  -0.1978  0.8331
6.315e+09  -0.8116  -0.1574  -0.00163  0.01455  0.008848  0.01695  0.1529  0.8814
6.316e+09  -0.8407  0.09706  -0.02499  0.0304  0.04792  0.02562  0.4033  0.7455
6.318e+09  -0.7238  0.437  -0.01883  -0.03104  -0.02158  0.007703  0.6393  0.6145
6.319e+09  -0.5885  0.6736  -0.02877  0.01365  -0.01209  -0.008172  0.871  0.3124
6.32e+09  -0.281  0.7352  -0.02747  0.005908  -0.03223  0.002395  0.8539  0.05687
6.321e+09  -0.002142  0.8557  0.03018  -0.01489  0.04431  0.03066  0.8522  -0.2833
6.322e+09  0.2512  0.7754  -0.007023  0.02055  0.02598  0.0008602  0.6903  -0.5739
6.324e+09  0.5446  0.6488  0.01442  0.006473  0.04766  0.02513  0.4739  -0.7691
6.325e+09  0.7046  0.4133  -0.04359  0.01234  0.01865  0.07573  0.1545  -0.8687
6.326e+09  0.8436  0.09659  0.01105  0.004656  -9.808e-07  -0.009217  -0.1114  -0.8565
6.328e+09  0.8318  -0.1361  0.01838  0.001411  0.0129  -0.03163  -0.4473  -0.7748
6.329e+09  0.72  -0.4719  0.01387  0.02304  0.06408  -0.05235  -0.6757  -0.5936
6.33e+09  0.513  -0.6551  0.02316  -0.01063  -0.01969  0.06058  -0.8239  -0.3332
6.331e+09  0.2737  -0.7542  -0.01212  0.0226  0.02325  -0.02984  -0.9194  -0.004661
6.332e+09  -0.06971  -0.8088  -0.01101  -0.03111  -0.009052  -0.04643  -0.8915  0.3052
6.334e+09  -0.3386  -0.7532  -0.008428  0.02151  0.01019  0.01163  -0.7463  0.5686
6.335e+09  -0.5639  -0.6443  -0.01805  0.003597  -0.0271  -0.01099  -0.4796  0.7728
6.336e+09  -0.7478  -0.3597  0.007552  -0.01841  -3.988e-06  -0.0124  -0.2181  0.917
6.338e+09  -0.882  -0.07178  0.01288  0.01857  0.01374  0.008792  0.1127  0.9303
6.339e+09  -0.8318  0.2605  -0.03185  0.01839  -0.002393  -0.0009488  0.4239  0.7926
6.34e+09  -0.703  0.4841  0.0232  -0.03374  0.02513  0.003248  0.6686  0.6423
6.341e+09  -0.4398  0.7008  0.004452  0.0322  -0.01204  0.03661  0.8058  0.3552
6.342e+09  -0.1862  0.828  -0.02878  -0.02367  0.005064  -0.04197  0.9274  0.04054
6.344e+09  0.06531  0.8596  0.01804  0.01878  -0.02351  -0.04332  0.8746  -0.2911
6.345e+09  0.4011  0.6821  -0.01419  0.01752  -0.006518  -0.03894  0.7468  -0.5678
6.346e+09  0.63  0.5891  -0.0008425  0.02387  -0.01739  0.01649  0.4767  -0.7972
6.348e+09  0.7803  0.2999  0.01053  0.05033  0.02312  -0.03361  0.2107  -0.8909
6.349e+09  0.8898  0.01164  -0.003466  -0.01517  0.004576  0.002976  -0.1167  -0.9355
6.35e+09  0.8803  -0.29  -0.04001  0.001302  0.01074  -0.03884  -0.4023  -0.853
6.351e+09  0.6245  -0.5397  -0.0319  -0.002977  -0.02333  -0.01374  -0.6912  -0.6533
6.352e+09  0.4122  -0.7298  -0.007258  -0.01593  -0.02514  0.001487  -0.8967  -0.389
6.354e+09  0.104  -0.8364  0.02119  -0.05214  -0.008807  -0.02246  -0.9321  -0.06812
6.355e+09  -0.1964  -0.8364  0.01096  -0.003833  0.01697  0.001347  -0.9303  0.3183
6.356e+09  -0.4773  -0.779  -0.01844  0.00773  -0.007645  0.02326  -0.758  0.535
6.358e+09  -0.6994  -0.5686  -0.0004074  -0.03098  0.006606  -0.01423  -0.4922  0.8116
6.359e+09  -0.8306  -0.2876  -0.02843  -0.01566  0.01159  0.002761  -0.1991  0.8966
6.36e+09  -0.8888  0.04244  -0.0004775  0.001088  -0.01803  0.0002942  0.08826  0.9543
6.361e+09  -0.804  0.4018  0.0368  0.02252  0.01528  0.02783  0.406  0.83
6.362e+09  -0.622  0.6762  0.0208  0.003017  -0.001605  0.02837  0.6839  0.676
6.364e+09  -0.3757  0.8238  -0.02162  -0.002365  0.001716  0.05197  0.8474  0.4298
6.365e+09  -0.08622  0.8294  -0.005133  0.01611  -0.02875  -0.02328  0.9474  0.09131
6.366e+09  0.2172  0.8155  -0.02  -0.001058  0.04711  -0.00573  0.9147  -0.2657
6.368e+09  0.5296  0.6694  -0.01893  -0.02143  0.002393  -0.02673  0.7633  -0.5512
6.369e+09  0.7679  0.4512  -0.01947  -0.001771  -0.01017  -0.007501  0.5483  -0.7725
6.37e+09  0.8621  0.1606  0.009474  0.01397  0.04097  0.01196  0.271  -0.947
6.371e+09  0.8686  -0.1344  -0.02084  -0.04863  -0.03816  -0.0008247  -0.04508  -0.9523
6.372e+09  0.716  -0.4022  -0.02352  0.01167  -0.04463  -0.02318  -0.4157  -0.8856
6.374e+09  0.583  -0.7004  0.03447  0.02547  -0.007766  -0.01424  -0.6754  -0.6407
6.375e+09  0.3129  -0.8616  -0.04481  -0.01784  0.005034  0.01023  -0.8375  -0.435
6.376e+09  -0.01359  -0.91  0.0091  -0.01519  0.01052  -0.02261  -0.9332  -0.09252
6.378e+09  -0.3251  -0.8213  -0.003431  0.01446  -0.006133  -0.02335  -0.9483  0.2039
6.379e+09  -0.6008  -0.639  0.03026  -0.01754  -0.02422  -0.02154  -0.7691  0.516
6.38e+09  -0.7349  -0.4712  0.01851  0.02599  -0.01929  0.06062  -0.5277  0.7524
6.381e+09  -0.8463  -0.125  -0.02136  0.003931  0.01053  -0.01083  -0.251  0.9417
6.382e+09  -0.8451  0.2413  -0.0104  -0.0005851  -0.02781  0.002325  0.05759  0.9754
6.384e+09  -0.6984  0.5038  -0.000836  0.02639  0.003284  0.002839  0.3727  0.8916
6.385e+09  -0.5619  0.7395  -7.311e-05  -0.02527  0.02958  -0.03644  0.6237  0.6684
6.386e+09  -0.2881  0.8783  -0.01955  0.03722  0.0004954  0.05993  0.8461  0.4541
6.388e+09  0.07463  0.9217  -0.01773  -0.0007936  -0.04342  -0.0003627  0.9298  0.1533
6.389e+09  0.3642  0.8088  -0.002806  -0.002492  0.04637  -0.000489  0.9124  -0.2209
6.39e+09  0.6741  0.664  -0.03519  0.02196  0.03905  -0.01563  0.78  -0.4992
6.391e+09  0.823  0.3474  0.01727  0.03007  0.03322  -0.04867  0.5742  -0.7403
6.392e+09  0.8724  0.03271  -0.01564  0.0294  0.01429  0.01203  0.2588  -0.8499
6.394e+09  0.8651  -0.2575  0.01883  -0.03704  -0.01528  -0.03119  -0.01113  -0.9043
6.395e+09  0.6812  -0.5569  -0.02173  0.00951  -0.03277  0.008727  -0.2793  -0.8485
6.396e+09  0.4374  -0.7243  0.0182  -0.01325  0.0363  -0.05894  -0.6041  -0.677
6.398e+09  0.1744  -0.8459  0.01523  0.05411  0.01686  0.004705  -0.804  -0.4568
6.399e+09  -0.1386  -0.8615  0.01684  -0.01667  -0.02899  0.03251  -0.9275  -0.1625
6.4e+09  -0.4265  -0.7666  0.03118  -0.04383  -0.01586  -0.02462  -0.9062  0.1574
6.401e+09  -0.679  -0.5883  0.03378  -0.001207  0.03833  0.002295  -0.7948  0.4749
6.402e+09  -0.8031  -0.2918  -0.006474  0.02747  -0.03224  -0.007903  -0.5723  0.7074
6.404e+09  -0.8251  -0.02938  -0.02553  0.02046  -0.0001237  -0.03682  -0.354  0.8826
6.405e+09  -0.8028  0.3101  0.05537  -0.03683  -0.008467  -0.0379  -0.01252  0.9582
6.406e+09  -0.6805  0.5211  -0.02104  0.02289  -0.04943  -0.01516  0.2917  0.8833
6.408e+09  -0.4022  0.7503  -0.01263  -0.05107  -0.00509  -0.02043  0.6494  0.6917
6.409e+09  -0.1257  0.8736  0.002422  0.03021  0.0447  0.01813  0.7918  0.4626
6.41e+09  0.1781  0.8196  -0.03876  0.0263  0.01561  0.007366  0.9129  0.1709
6.411e+09  0.4595  0.7145  0.001618  0.01036  0.0332  -0.04537  0.8946  -0.1089
6.412e+09  0.719  0.5937  0.02688  0.03375  0.005238  -0.005257  0.8152  -0.4567
6.414e+09  0.8368  0.2949  0.007356  -0.02455  -0.01231  0.02089  0.5834  -0.676
6.415e+09  0.8603  0.0326  0.00609  -0.01382  -0.0427  0.01728  0.2875  -0.771
6.416e+09  0.7986  -0.302  0.006142  -0.006051  -0.002795  0.03951  0.05271  -0.8941
6.418e+09  0.6049  -0.6  0.0138  0.01017  -0.01063  0.01433  -0.2895  -0.8444
6.419e+09  0.4249  -0.7409  0.01835  0.01377  -0.008778  -0.02543  -0.6069  -0.7337
6.42e+09  0.07726  -0.8304  0.05014  0.02723  -0.02502  0.01135  -0.7539  -0.4843
6.421e+09  -0.2201  -0.8019  -0.02022  -0.0005607  0.008171  0.02312  -0.8584  -0.1953
6.422e+09  -0.4901  -0.7294  0.008391  0.05007  0.0238  -0.04236  -0.8814  0.137
6.424e+09  -0.6828  -0.537  -0.01645  0.001495  -0.03037  -0.02698  -0.8046  0.4174
6.425e+09  -0.8182  -0.2645  0.01983  0.02111  -0.007236  0.00296  -0.5798  0.6385
6.426e+09  -0.8734  0.06569  -0.004734  -0.03393  -0.0201  -0.01156  -0.3526  0.7851
6.428e+09  -0.7781  0.3576  0.01439  -0.0372  0.06157  0.00766  0.007537  0.8553
6.429e+09  -0.5661  0.6131  -0.01775  0.03955  -0.02963  0.006795  0.2496  0.8348
6.43e+09  -0.394  0.7496  0.03885  0.01304  -0.04623  0.001792  0.5075  0.7121
6.431e+09  -0.08567  0.863  -0.03939  0.007006  -0.08117  0.02036  0.7498  0.4625
6.432e+09  0.2333  0.846  -0.03008  -0.0115  -0.02699  -0.05877  0.8755  0.2047
6.434e+09  0.4932  0.7216  0.01148  0.02451  0.02438  -0.01078  0.8312  -0.1267
6.435e+09  0.6787  0.5267  0.04447  -0.0107  -0.0676  0.009091  0.7805  -0.4109
6.436e+09  0.8667  0.2003  0.02604  -0.006602  0.02296  -0.0292  0.5914  -0.61
6.438e+09  0.8705  -0.0915  -0.001323  0.01817  8.226e-05  0.01245  0.3818  -0.7567
6.439e+09  0.7394  -0.457  0.01382  0.01037  -0.01149  -0.0377  0.06006  -0.8962
6.44e+09  0.5717  -0.6095  0.01909  0.006612  0.02758  -0.02641  -0.2029  -0.8205
6.441e+09  0.3375  -0.7923  0.02422  -0.026  0.01828  0.006603  -0.4945  -0.7356
6.442e+09  0.07478  -0.873  0.03178  0.01677  0.02053  -0.0183  -0.6722  -0.4663
6.444e+09  -0.2361  -0.8049  0.008142  -0.05033  0.005274  -0.003103  -0.8686  -0.224
6.445e+09  -0.5504  -0.6837  -0.02147  -0.01579  0.0202  0.04027  -0.8383  0.09767
6.446e+09  -0.7097  -0.4372  -0.0403  -0.01695  -0.006522  0.02223  -0.7644  0.3023
6.448e+09  -0.8083  -0.1983  -0.02718  0.04451  -0.009225  -0.02143  -0.5641  0.5696
6.449e+09  -0.8729  0.1579  -0.03148  0.03134  -0.008296  -0.0168  -0.382  0.7459
6.45e+09  -0.7837  0.4461  0.02845  -0.04847  0.03552  0.01351  -0.03108  0.8908
6.451e+09  -0.562  0.6539  0.03136  0.006947  0.01934  -0.0278  0.229  0.7901
6.452e+09  -0.3286  0.7822  0.03066  -0.005149  0.0219  0.04441  0.482  0.6655
6.454e+09  -0.03384  0.8392  -0.009427  -0.009261  0.002602  -0.0112  0.6765  0.4842
6.455e+09  0.3075  0.8202  0.01729  0.03867  -0.03351  -0.01175  0.815  0.2501
6.456e+09  0.5208  0.7144  0.01506  0.03709  -0.009325  -0.05791  0.7912  -0.06028
6.458e+09  0.7456  0.4426  0.02863  0.005759  0.001868  -0.05181  0.7223  -0.4315
6.459e+09  0.8352  0.07471  -0.0004921  0.0003411  0.045  -0.02629  0.5606  -0.5988
6.46e+09  0.7928  -0.146  -0.04678  0.01903  0.0208  0.02647  0.3687  -0.765
6.461e+09  0.7775  -0.4359  -0.008773  -0.01121  0.03738  -0.004014  0.03892  -0.8172
6.462e+09  0.5906  -0.6551  -0.007293  0.01443  -0.01049  -0.02515  -0.2296  -0.7813
6.464e+09  0.3443  -0.794  0.02495  0.03666  0.02976  -0.02804  -0.4617  -0.6401
6.465e+09  0.004966  -0.8612  -0.006253  -0.008319  0.0248  -0.0211  -0.6514  -0.4907
6.466e+09  -0.2203  -0.8259  -0.01429  -0.01664  -0.004257  0.01085  -0.7467  -0.1726
6.468e+09  -0.4872  -0.6578  -0.0134  -0.005122  -0.03411  -0.05485  -0.7569  0.03389
6.469e+09  -0.7903  -0.4776  0.02672  0.0211  -0.004354  0.02684  -0.7301  0.3477
6.47e+09  -0.8562  -0.1496  0.02501  -0.01851  -0.008637  0.008265  -0.5649  0.5532
6.471e+09  -0.8978  0.1154  -0.006675  -0.009574  -0.008259  -0.02192  -0.3493  0.7805
6.472e+09  -0.7715  0.4491  -0.01833  -0.04755  -0.002232  -0.02815  -0.08956  0.7583
6.474e+09  -0.5707  0.6128  -0.01025  0.02603  -0.0008427  0.01061  0.2161  0.79
6.475e+09  -0.2999  0.8552  -0.005445  -0.01082  0.02472  0.001091  0.4676  0.6577
6.476e+09  -0.007623  0.8705  -0.02097  0.005105  0.02135  0.01568  0.6674  0.4628
6.478e+09  0.3226  0.8648  0.02675  0.02324  -0.04284  0.02281  0.7663  0.2055
6.479e+09  0.5145  0.6693  0.00263  -0.01339  0.003363  -0.03635  0.763  -0.07261
6.48e+09  0.7553  0.4858  0.02895  0.003328  -0.008252  0.06056  0.6975  -0.3627
6.481e+09  0.8867  0.1263  0.02802  0.005781  -0.004353  0.004452  0.5693  -0.6052
6.482e+09  0.8516  -0.1162  -0.04365  0.004731  -0.01507  0.01972  0.3024  -0.7494
6.484e+09  0.7711  -0.4459  0.001454  -0.01617  0.02201  -0.03494  0.03992  -0.8025
6.485e+09  0.5483  -0.6224  0.0006483  0.01938  -0.008858  0.003348  -0.2257  -0.7629
6.486e+09  0.2354  -0.8348  0.008282  0.006727  -0.01285  0.01084  -0.4423  -0.6444
6.488e+09  -0.03558  -0.8888  0.04847  0.009726  0.007414  0.003141  -0.6136  -0.4186
6.489e+09  -0.289  -0.7843  -0.007064  0.01123  0.003774  0.01057  -0.7585  -0.1395
6.49e+09  -0.6221  -0.6258  0.03105  0.02458  -0.04004  -0.01295  -0.7708  0.09814
6.491e+09  -0.7813  -0.4499  -0.006675  0.007496  -0.006962  -0.02359  -0.6954  0.3606
6.492e+09  -0.8833  -0.1613  -0.02853  0.01879  0.003367  0.04066  -0.5465  0.589
6.494e+09  -0.8227  0.1194  0.00976  0.01892  -0.01385  -0.02968  -0.3081  0.7142
6.495e+09  -0.8044  0.4696  -0.004965  -0.04478  0.01215  -0.02002  0.001946  0.748
6.496e+09  -0.5539  0.713  -0.02548  -0.007435  0.009503  -0.03227  0.1954  0.725
6.498e+09  -0.2299  0.7698  -0.02438  0.007334  0.03013  0.01447  0.4774  0.6056
6.499e+09  0.08217  0.9239  -0.02166  0.00141  0.05781  -0.01233  0.6279  0.4038
6.5e+09  0.3373  0.7818  -0.02603  -0.003119  0.03556  0.007137  0.7336  0.1541
6.501e+09  0.6043  0.701  -0.03667  0.01121  -0.0103  0.003023  0.786  -0.1054
6.502e+09  0.7548  0.4738  -0.01025  0.01497  -1.432e-05  0.0386  0.6785  -0.3671
6.504e+09  0.8651  0.123  -0.03013  -0.01019  0.01581  -0.03532  0.5343  -0.591
6.505e+09  0.9032  -0.1719  -0.04452  -0.04729  -0.003629  0.05516  0.2457  -0.7153
6.506e+09  0.7651  -0.5131  0.0344  0.01759  0.03913  0.01016  -0.004476  -0.7604
6.508e+09  0.5043  -0.7321  -0.01522  0.02913  -0.009242  0.005874  -0.2392  -0.7315
6.509e+09  0.2591  -0.8324  -0.01703  0.01139  -0.01341  0.04352  -0.447  -0.5738
6.51e+09  -0.0379  -0.9361  0.001545  -0.02444  -0.007808  0.02049  -0.6634  -0.3578
6.511e+09  -0.3677  -0.8246  -0.01663  0.0257  -0.005931  0.03524  -0.8043  -0.1242
6.512e+09  -0.6447  -0.6359  -0.007581  -0.000678  0.006761  0.009042  -0.7632  0.1334
6.514e+09  -0.8292  -0.3979  -0.02371  0.04075  -0.01883  0.01922  -0.6405  0.4191
6.515e+09  -0.9266  -0.1121  0.02775  -0.003396  0.009556  0.03982  -0.4535  0.5486
6.516e+09  -0.8557  0.2336  0.006339  0.004515  0.03237  0.01317  -0.2207  0.6992
6.518e+09  -0.7551  0.5448  -0.000641  -0.001839  -0.003186  -0.0005477  0.005875  0.7381
6.519e+09  -0.5366  0.7897  -0.02547  0.05979  -0.01207  -0.02986  0.2911  0.6914
6.52e+09  -0.2558  0.8872  0.005157  0.007147  0.004261  0.02113  0.5018  0.5662
6.521e+09  0.0788  0.8954  -0.0007609  0.0006803  -0.02809  -0.02376  0.6412  0.3358
6.522e+09  0.417  0.8512  0.006895  -0.02114  -0.01061  -0.0009273  0.7317  0.1112
6.524e+09  0.6764  0.6904  -0.01329  0.02859  0.03636  0.03249  0.7016  -0.1514
6.525e+09  0.8966  0.4071  0.02741  -0.007478  0.01949  -0.03134  0.5949  -0.4027
6.526e+09  0.9121  0.08049  0.008853  -0.02245  -0.0106  0.03477  0.431  -0.5785
6.528e+09  0.9021  -0.2672  -0.002811  0.01009  -0.03142  -0.04032  0.2153  -0.7263
6.529e+09  0.7732  -0.5984  0.008057  0.003256  0.005579  -0.011  -0.04655  -0.6824
6.53e+09  0.5178  -0.7591  -0.01723  0.003698  0.003324  -0.04167  -0.264  -0.6581
6.531e+09  0.1737  -0.9601  0.03076  -0.02711  0.03768  0.06886  -0.4773  -0.4857
6.532e+09  -0.1682  -0.9257  0.003318  -0.03417  -0.002687  0.01056  -0.5662  -0.296
6.534e+09  -0.4776  -0.882  0.01319  -0.003052  -0.01192  -0.02422  -0.6607  -0.07382
6.535e+09  -0.6744  -0.6138  -0.002803  0.008553  0.00759  0.006433  -0.6062  0.1329
6.536e+09  -0.8694  -0.3575  -0.007649  -0.01948  0.004933  0.02523  -0.5643  0.3133
6.538e+09  -0.989  -0.0493  0.01787  0.01257  0.02126  0.01104  -0.4611  0.4728
6.539e+09  -0.905  0.334  -0.006729  -0.01932  -0.02233  0.0003487  -0.2514  0.6207
6.54e+09  -0.7271  0.6644  -0.002637  0.04768  0.02812  0.01032  -0.06954  0.6608
6.541e+09  -0.4779  0.8746  0.002146  -0.01902  -0.01595  0.007424  0.1916  0.6468
6.542e+09  -0.1741  0.9133  -0.006057  0.03137  0.01576  0.01643  0.4394  0.5771
6.544e+09  0.2064  0.9323  -0.009613  -0.0475  0.004047  -6.333e-05  0.5698  0.3796
6.545e+09  0.5208  0.8628  0.02899  -0.02515  -0.005496  0.01052  0.6872  0.1725
6.546e+09  0.8105  0.6047  -0.01673  0.01023  0.008028  0.01553  0.7134  -0.091
6.548e+09  0.9565  0.2481  0.003825  0.00815  -0.03315  -0.02594  0.664  -0.3084
6.549e+09  0.9724  -0.0689  0.004874  0.009566  0.05748  0.007281  0.5263  -0.5134
6.55e+09  0.9117  -0.3525  0.01144  -0.01929  -0.002098  0.02638  0.289  -0.6678
