# Hz S RI R 50
6.25e+09  -0.3465  0.7912  -0.04034  -0.001658  -0.02541  -0.0864  0.1684  0.4736
6.251e+09  -0.1015  0.8306  0.009688  -0.006131  -0.001411  0.02017  0.3547  0.4251
6.252e+09  0.1982  0.8944  0.02764  0.02205  -0.005588  -0.02032  0.5273  0.2291
6.254e+09  0.5244  0.7077  -0.02353  0.01416  0.03398  -0.01265  0.6346  0.01971
6.255e+09  0.6708  0.543  -0.008826  0.02402  -0.01886  0.0287  0.5743  -0.255
6.256e+09  0.8145  0.1572  0.03845  0.0004553  -0.06337  0.04681  0.4642  -0.4674
6.258e+09  0.8129  -0.05176  0.007438  0.01696  -0.003686  -0.046  0.3166  -0.6071
6.259e+09  0.7825  -0.3674  -0.0008702  -0.003489  -0.02012  -0.02412  0.07587  -0.656
6.26e+09  0.5727  -0.6118  0.01801  -0.02853  0.03223  -0.07251  -0.1962  -0.6476
6.261e+09  0.4159  -0.738  0.03199  -0.003617  -0.02217  -0.001282  -0.4195  -0.5242
6.262e+09  0.06688  -0.8026  0.01532  -0.006663  -0.005877  0.03723  -0.6372  -0.3392
6.264e+09  -0.1831  -0.8636  0.04232  0.008963  0.05678  0.01028  -0.6952  -0.08634
6.265e+09  -0.5566  -0.6207  0.01073  -0.02371  0.08157  0.002199  -0.6946  0.1464
6.266e+09  -0.6934  -0.4738  -0.03022  -0.02022  -0.008355  0.0006314  -0.5965  0.3723
6.268e+09  -0.8012  -0.2437  0.01902  0.04398  -0.03129  -0.04153  -0.4365  0.6038
6.269e+09  -0.8388  0.04728  0.004211  0.038  0.008975  0.02013  -0.1825  0.7268
6.27e+09  -0.7375  0.3687  -0.006758  -0.007171  -0.009395  0.04628  0.07087  0.7323
6.271e+09  -0.5288  0.6391  0.006785  -0.04406  0.006548  -0.009313  0.3196  0.6497
6.272e+09  -0.4019  0.7698  -0.01797  -0.006971  -0.03462  -0.02249  0.5325  0.5445
6.274e+09  -0.0831  0.8542  0.02158  -0.02979  -0.01125  0.0002811  0.6885  0.3179
6.275e+09  0.1908  0.7423  -0.02051  0.0224  0.003908  0.03146  0.7873  0.03951
6.276e+09  0.5345  0.6733  -0.03057  0.001392  0.002422  -0.05098  0.7422  -0.2342
6.278e+09  0.6799  0.4662  0.03851  -0.008928  0.003815  0.02703  0.6307  -0.5057
6.279e+09  0.8212  0.2159  -0.007759  0.003269  -0.01851  -0.02349  0.4346  -0.6521
6.28e+09  0.7959  -0.1152  0.02901  0.04113  0.01102  0.07542  0.1902  -0.7369
6.281e+09  0.7702  -0.3408  0.005171  0.01991  0.01997  0.01486  -0.09767  -0.7719
6.282e+09  0.5371  -0.633  0.006365  -0.00566  0.03504  -0.00273  -0.3723  -0.7377
6.284e+09  0.3473  -0.7601  0.0008122  -0.02564  -0.001846  0.0112  -0.5948  -0.4896
6.285e+09  0.02798  -0.847  0.0277  -0.01513  -0.06071  -0.05851  -0.7192  -0.2906
6.286e+09  -0.2279  -0.7899  -0.02037  0.01606  0.01174  -0.01797  -0.7847  -0.006586
6.288e+09  -0.5537  -0.6643  0.002855  -0.005844  0.04106  -0.01615  -0.7477  0.2265
6.289e+09  -0.7176  -0.4645  -0.03287  0.01626  -0.01786  0.007315  -0.635  0.5061
6.29e+09  -0.8207  -0.1769  0.008492  0.02141  -0.002971  -0.00662  -0.4159  0.6773
6.291e+09  -0.8272  0.1685  0.0279  -0.02203  -0.07731  0.005172  -0.1339  0.7962
6.292e+09  -0.7669  0.4059  -0.007191  0.005435  0.04002  0.01117  0.1224  0.7945
6.294e+09  -0.5615  0.6498  0.01347  -0.0009988  -0.02065  0.01243  0.4038  0.7205
6.295e+09  -0.3281  0.7578  -0.01539  -0.01149  -0.02232  0.02913  0.6506  0.534
6.296e+09  -0.03124  0.8002  -0.02962  -0.003511  0.002491  -0.01398  0.7866  0.2993
6.298e+09  0.2633  0.7619  -0.01075  0.004067  0.008536  -0.01019  0.8516  -0.01898
6.299e+09  0.5254  0.6268  0.003042  -0.02252  -0.03284  0.02417  0.7739  -0.3216
6.3e+09  0.7422  0.3885  0.004081  5.778e-05  -0.009194  0.001128  0.6432  -0.516
6.301e+09  0.8149  0.1717  0.005944  -0.01299  0.01372  0.07234  0.4092  -0.7393
6.302e+09  0.8086  -0.1627  0.004425  -0.03639  0.008718  0.02793  0.1577  -0.815
6.304e+09  0.7682  -0.4414  -0.003628  0.0001705  0.02995  0.03636  -0.1329  -0.8246
6.305e+09  0.4854  -0.6505  0.001161  -0.01375  -0.01581  -0.001718  -0.4338  -0.7582
6.306e+09  0.2791  -0.7678  -0.0154  0.005929  0.06141  0.0182  -0.6607  -0.54
6.308e+09  -0.02747  -0.8135  0.0142  -0.02088  -0.01026  -0.009914  -0.8264  -0.2994
6.309e+09  -0.2998  -0.7787  -0.003426  -0.0005136  -0.0005575  -0.006889  -0.8777  -0.04342
6.31e+09  -0.5174  -0.6298  -0.004675  -0.005719  0.03585  -0.03956  -0.8114  0.284
6.311e+09  -0.7749  -0.3796  -0.03028  -0.006453  0.02554  -0.01646  -0.6777  0.5589
6.312e+09  -0.8358  -0.1069  0.01467  0.02691  0.02902  0.001856  -0.4563  0.7562
6.314e+09  -0.7903  0.188  -0.001548  0.02217  -0.02722  0.005777  -0.1314  0.849
6.315e+09  -0.7042  0.4648  0.0327  0.01374  -0.01375  -0.001141  0.1166  0.8613
6.316e+09  -0.5166  0.7266  0.009481  -0.01633  0.01579  -0.006973  0.4177  0.7772
6.318e+09  -0.2416  0.8206  0.001107  0.03494  0.008706  -0.03604  0.6942  0.5945
6.319e+09  0.05965  0.8371  0.02894  0.01009  -0.02671  -0.0357  0.8497  0.3138
6.32e+09  0.3795  0.8197  -0.01528  0.006745  0.01824  -0.002495  0.9076  0.02868
6.321e+09  0.6338  0.592  -0.008263  0.01941  0.01364  0.0009862  0.8561  -0.3082
6.322e+09  0.837  0.3604  -0.02516  0.005333  -0.001202  -0.003993  0.6736  -0.5808
6.324e+09  0.8785  0.1016  -0.001924  0.01405  0.001641  -0.0126  0.4678  -0.7562
6.325e+09  0.8202  -0.2501  -0.01246  0.0126  -0.03441  0.01227  0.1691  -0.8699
6.326e+09  0.7099  -0.5276  0.01591  0.002234  0.02553  -0.00558  -0.1212  -0.9069
6.328e+09  0.5003  -0.7213  0.006926  0.02169  -0.006438  0.02123  -0.4281  -0.7723
6.329e+09  0.1685  -0.8449  -0.007863  0.02197  0.01246  -0.01508  -0.6721  -0.5829
6.33e+09  -0.09883  -0.8595  0.02055  0.01761  -0.05226  -0.00983  -0.8441  -0.3617
6.331e+09  -0.3747  -0.7549  0.0008183  0.006397  0.03216  -0.04973  -0.9177  -0.04005
6.332e+09  -0.6672  -0.5905  -0.0005674  0.01882  -0.01256  0.008897  -0.9042  0.2957
6.334e+09  -0.7656  -0.2931  0.03419  0.01315  0.002005  -0.009298  -0.7226  0.5885
6.335e+09  -0.8989  -0.04348  -0.03032  -0.03915  0.01635  0.03577  -0.4823  0.7577
6.336e+09  -0.844  0.2892  0.003705  -0.02552  -0.03412  0.02313  -0.2286  0.9257
6.338e+09  -0.6952  0.6054  -0.004846  0.01938  0.04477  0.001785  0.1248  0.9267
6.339e+09  -0.448  0.7186  0.01413  -0.009959  0.0007771  -0.02267  0.4364  0.8107
6.34e+09  -0.1583  0.8589  0.005694  -0.01949  0.01503  -0.005152  0.6888  0.6228
6.341e+09  0.2038  0.891  0.01952  0.009594  0.009239  0.02711  0.8415  0.3214
6.342e+09  0.4602  0.7366  0.01333  0.05809  0.05822  -0.003173  0.9307  0.004967
6.344e+09  0.6776  0.5831  -0.004829  0.02164  0.02159  -0.008169  0.9009  -0.287
6.345e+09  0.8056  0.2763  -0.02593  0.007775  -0.0109  -0.03981  0.714  -0.5686
6.346e+09  0.845  -0.05868  0.01702  -0.01519  -0.000692  0.03395  0.5142  -0.7879
6.348e+09  0.8568  -0.3205  -0.009523  -0.001677  0.02785  0.005866  0.2012  -0.9034
6.349e+09  0.678  -0.5745  0.03947  -0.04122  0.0459  -0.01965  -0.0992  -0.8971
6.35e+09  0.385  -0.8045  0.003738  -0.06241  -0.01407  -0.04723  -0.4335  -0.8508
6.351e+09  0.09452  -0.911  -0.000409  0.0115  -0.01336  0.02514  -0.659  -0.6135
6.352e+09  -0.2156  -0.8644  -0.003175  0.0007123  0.03313  0.002287  -0.8524  -0.3745
6.354e+09  -0.4659  -0.7325  0.02951  0.01742  -0.01598  0.01353  -0.967  -0.05911
6.355e+09  -0.6969  -0.5355  -0.0172  -0.02949  0.03173  -0.0006781  -0.9242  0.2657
6.356e+09  -0.8647  -0.2535  0.006895  -0.03026  -0.01786  0.01593  -0.7822  0.5945
6.358e+09  -0.8588  0.1031  0.0219  -0.0273  0.02296  0.02078  -0.5475  0.7892
6.359e+09  -0.8079  0.3919  -0.01017  0.005261  -0.03062  0.02874  -0.2265  0.9489
6.36e+09  -0.5665  0.636  -0.006122  0.01661  -0.0008181  -0.05178  0.1065  0.9427
6.361e+09  -0.3446  0.8132  -0.02098  0.01305  0.01755  -0.04529  0.3995  0.8471
6.362e+09  -0.06243  0.9072  -0.03358  -0.01355  0.01888  0.03997  0.6288  0.6455
6.364e+09  0.2265  0.8518  -0.03046  0.01669  -0.03786  -0.006304  0.8634  0.3641
6.365e+09  0.5359  0.7374  -0.0254  -0.005953  -0.01302  0.004998  0.9558  0.0576
6.366e+09  0.7968  0.5256  -0.006468  0.03204  0.03438  -0.0002246  0.9241  -0.2765
6.368e+09  0.859  0.1612  0.0006422  -0.02497  -0.01506  -0.003961  0.7894  -0.5317
6.369e+09  0.8558  -0.1279  0.01188  0.001456  0.008621  0.04856  0.5302  -0.7783
6.37e+09  0.7654  -0.4665  -0.008565  0.01644  0.007216  0.009193  0.2376  -0.9149
6.371e+09  0.5698  -0.693  -0.02195  -0.01443  -0.01263  0.05134  -0.04663  -0.9589
6.372e+09  0.3157  -0.8562  0.006664  -0.0165  -0.03029  0.002562  -0.4095  -0.8377
6.374e+09  0.01332  -0.9002  -0.01109  -0.02056  0.001188  -0.02482  -0.6452  -0.7259
6.375e+09  -0.325  -0.827  0.02202  0.007554  0.01658  -0.004925  -0.8567  -0.3996
6.376e+09  -0.5919  -0.6649  0.01358  -0.01262  0.003274  -0.01767  -0.9774  -0.0713
6.378e+09  -0.7766  -0.4136  0.03079  -0.009497  0.006176  -0.007402  -0.9026  0.2232
6.379e+09  -0.8717  -0.123  -0.009148  -0.00461  -0.01345  -0.005402  -0.7587  0.5648
6.38e+09  -0.9026  0.1915  0.01634  -0.01128  0.02979  0.03061  -0.5191  0.755
6.381e+09  -0.7513  0.46  0.007195  0.02012  -0.03005  -0.0165  -0.2912  0.8645
6.382e+09  -0.5829  0.6736  -0.04455  0.02884  -0.02144  -0.001957  0.09369  0.9612
6.384e+09  -0.2505  0.8378  -0.02392  -0.004052  -0.03491  0.01148  0.3736  0.8649
6.385e+09  0.06438  0.8618  -0.0009687  -0.0022  0.01761  0.0007733  0.6838  0.7017
6.386e+09  0.3406  0.8156  0.01404  -0.01025  0.02718  0.0152  0.8589  0.4271
6.388e+09  0.6162  0.6687  0.01248  0.02219  -0.01777  0.01631  0.9256  0.081
6.389e+09  0.8008  0.4068  0.05835  -0.03933  0.03222  0.024  0.9088  -0.1927
6.39e+09  0.8778  0.116  0.01003  0.0404  0.02378  -0.05263  0.7676  -0.5539
6.391e+09  0.9026  -0.24  0.009414  0.01769  0.031  0.004881  0.5503  -0.7346
6.392e+09  0.6974  -0.4582  -0.02251  0.01806  0.03088  -0.01069  0.2934  -0.9225
6.394e+09  0.5692  -0.7091  -0.01306  -0.02915  -0.03522  0.01105  -0.009875  -0.8766
6.395e+09  0.2659  -0.8245  -0.04257  -0.03462  -0.0192  0.003253  -0.3582  -0.8247
6.396e+09  -0.08507  -0.9117  -0.02  0.03515  -0.01684  -0.04879  -0.644  -0.6781
6.398e+09  -0.3863  -0.8119  -0.001273  0.007667  0.005363  0.006165  -0.7918  -0.4081
6.399e+09  -0.6321  -0.6093  -0.02786  -0.01469  -0.07345  0.04674  -0.8882  -0.1463
6.4e+09  -0.8431  -0.346  0.02965  -0.01914  -0.03013  0.01349  -0.8891  0.2081
6.401e+09  -0.908  -0.05293  0.0214  0.03087  -0.06829  0.0005571  -0.7816  0.4689
6.402e+09  -0.8393  0.2039  0.007175  -0.03827  -0.03763  0.03138  -0.5958  0.6674
6.404e+09  -0.6822  0.5201  -0.02427  0.01061  0.006323  -0.003677  -0.3148  0.8948
6.405e+09  -0.4693  0.7537  -0.01808  0.01179  -0.03619  -0.00313  0.03039  0.9179
6.406e+09  -0.2094  0.8367  -0.04979  0.008038  -0.007345  -0.02782  0.2825  0.8646
6.408e+09  0.1084  0.8872  -0.02118  0.0006868  -0.03036  -0.03256  0.5831  0.7091
6.409e+09  0.4368  0.8691  0.02942  -0.03385  -0.004017  0.00525  0.7681  0.4449
6.41e+09  0.6504  0.5914  -0.02661  -0.01717  -0.01722  0.004137  0.9159  0.1705
6.411e+09  0.806  0.3556  0.005012  -0.005355  -0.03036  0.02953  0.8636  -0.1541
6.412e+09  0.9058  0.02441  0.02001  0.03899  -0.04573  -0.02572  0.7817  -0.464
6.414e+09  0.7962  -0.2554  0.0007932  0.01223  0.003342  0.02157  0.6179  -0.6252
6.415e+09  0.726  -0.5371  0.001917  -0.03003  0.03006  0.006525  0.3109  -0.8517
6.416e+09  0.4737  -0.7939  0.02845  0.004789  0.002996  -0.01533  0.03474  -0.9029
6.418e+09  0.1638  -0.8611  0.02587  0.02082  -0.02405  -0.008801  -0.2842  -0.8821
6.419e+09  -0.1164  -0.862  0.01625  -0.02865  0.01572  -0.004135  -0.5554  -0.709
6.42e+09  -0.386  -0.78  -0.03265  0.03948  0.003762  -0.02411  -0.7544  -0.4498
6.421e+09  -0.6779  -0.577  0.0256  -0.03496  0.006362  0.01136  -0.8865  -0.1814
6.422e+09  -0.8687  -0.3238  -0.06159  -0.03746  0.01247  0.03298  -0.8902  0.09162
6.424e+09  -0.885  -0.06395  -0.006107  -0.01128  -0.03085  0.00142  -0.7749  0.4042
6.425e+09  -0.8262  0.3091  0.009685  -0.01309  -0.0216  0.05828  -0.6041  0.6314
6.426e+09  -0.7161  0.5987  0.0001635  0.001323  -0.01516  0.03767  -0.3441  0.8021
6.428e+09  -0.4302  0.7697  -0.03918  0.009725  -0.03142  -0.002494  -0.05387  0.8689
6.429e+09  -0.2042  0.8778  0.01622  -0.0124  0.006669  0.002808  0.2392  0.7784
6.43e+09  0.1237  0.8476  -0.0131  0.01229  -0.03942  -0.02271  0.5278  0.7212
6.431e+09  0.4204  0.7293  0.01866  0.03342  0.0157  0.02247  0.7717  0.49
6.432e+09  0.6803  0.5557  -0.02682  0.003082  0.05306  0.01523  0.8474  0.1925
6.434e+09  0.8324  0.3107  -0.006416  0.01904  -0.01906  -0.001354  0.8295  -0.07951
6.435e+09  0.9528  0.01334  -0.01978  0.001894  0.02965  -0.02459  0.7897  -0.3824
6.436e+09  0.8356  -0.305  0.03285  0.02088  -0.02229  0.03436  0.6023  -0.6232
6.438e+09  0.6617  -0.5471  0.03449  0.0406  -0.02118  -0.02364  0.3973  -0.7899
6.439e+09  0.4624  -0.7656  -0.007098  0.01152  -0.0288  -0.01106  0.04914  -0.8309
6.44e+09  0.2151  -0.8844  0.02973  0.004151  -0.01517  0.00254  -0.227  -0.8211
6.441e+09  -0.1931  -0.8822  -0.0135  -0.022  0.03042  0.01902  -0.4966  -0.7271
6.442e+09  -0.4028  -0.7832  -0.01264  0.01865  -0.05222  -0.01852  -0.7113  -0.4874
6.444e+09  -0.7382  -0.5505  -0.01009  -0.0002785  0.02197  0.0106  -0.8664  -0.1993
6.445e+09  -0.8383  -0.2754  -0.02473  -0.01167  0.0739  -0.003159  -0.8554  0.101
6.446e+09  -0.8816  0.02568  0.04615  -0.02074  0.01521  0.03402  -0.7568  0.3549
6.448e+09  -0.8346  0.3129  -0.04397  0.007754  0.01406  -0.03047  -0.572  0.6129
6.449e+09  -0.6978  0.5807  0.03096  0.00856  -0.03972  -0.0173  -0.4205  0.8003
6.45e+09  -0.42  0.7663  0.02781  -0.01646  0.02  -0.03562  -0.06964  0.8834
6.451e+09  -0.1506  0.9025  0.03697  0.03398  -0.002864  0.03616  0.2789  0.7686
6.452e+09  0.2095  0.8805  -0.0005694  -0.0315  -0.02456  0.02359  0.4902  0.6867
6.454e+09  0.4949  0.7633  -0.002201  -0.004864  -0.01726  0.0162  0.7087  0.479
6.455e+09  0.7437  0.5624  0.03649  -0.00659  0.01949  0.02485  0.7996  0.1612
6.456e+09  0.9168  0.3021  0.01987  0.03117  -0.0638  0.02883  0.8405  -0.06392
6.458e+09  0.883  -0.054  -0.001835  -0.008686  0.01051  -0.02419  0.7442  -0.3829
6.459e+09  0.845  -0.3386  -0.0005062  0.05391  0.001045  -0.0245  0.5532  -0.5464
6.46e+09  0.677  -0.5777  0.001475  0.01604  -0.02368  0.04219  0.3496  -0.7773
6.461e+09  0.4336  -0.7701  -0.0141  -0.01432  0.002238  -0.02075  0.08615  -0.8123
6.462e+09  0.177  -0.8561  -0.0001385  0.02298  -0.005001  0.01902  -0.2263  -0.7903
6.464e+09  -0.09875  -0.9054  -0.01878  -0.01414  -0.1011  -0.03202  -0.4505  -0.6519
6.465e+09  -0.4187  -0.7468  -0.02556  0.00108  0.03372  4.122e-05  -0.6473  -0.4393
6.466e+09  -0.6938  -0.5645  -0.008935  -0.02013  -0.008589  0.04664  -0.7592  -0.1437
6.468e+09  -0.8582  -0.2641  0.02615  0.01217  -0.0315  0.03269  -0.8172  0.03575
6.469e+09  -0.8858  -0.01701  0.03918  0.01223  -0.04907  0.005923  -0.7439  0.3664
6.47e+09  -0.8514  0.34  -0.0408  -0.01473  0.02497  0.03537  -0.5007  0.5686
6.471e+09  -0.6848  0.5775  -0.02981  0.04675  0.01152  0.0006965  -0.3363  0.7102
6.472e+09  -0.4255  0.8104  0.03156  -0.02849  -0.01097  -0.04722  -0.04423  0.7929
6.474e+09  -0.1563  0.9228  0.01703  0.00946  -0.04627  -0.04242  0.2309  0.7898
6.475e+09  0.1515  0.9047  -0.03509  0.01114  0.02958  0.05117  0.4436  0.6337
6.476e+09  0.4808  0.7553  0.004865  0.03404  -0.06694  0.03179  0.7063  0.4666
6.478e+09  0.7053  0.5778  0.01202  -0.005725  0.005374  0.01851  0.7623  0.2157
6.479e+09  0.8679  0.272  0.01761  0.007546  0.02611  -0.01319  0.7853  -0.06531
6.48e+09  0.9178  -0.03541  -0.02607  0.03046  -0.01344  -0.0322  0.6681  -0.3169
6.481e+09  0.8749  -0.3375  0.01896  0.01456  0.05176  0.03854  0.5314  -0.524
6.482e+09  0.7421  -0.6491  0.01252  0.0176  0.03495  0.02489  0.3226  -0.713
6.484e+09  0.4869  -0.7561  -0.001665  0.04248  0.01574  -0.02005  0.02737  -0.7749
6.485e+09  0.1558  -0.8829  -0.04135  0.000125  0.0231  -0.0242  -0.2289  -0.7275
6.486e+09  -0.2509  -0.9338  -0.002412  0.01019  -0.02183  0.01485  -0.4575  -0.6425
6.488e+09  -0.4931  -0.8081  0.01575  -0.03736  -0.006577  -0.03047  -0.6147  -0.4588
6.489e+09  -0.7215  -0.5276  0.01187  -0.02915  0.01423  0.001727  -0.7275  -0.1779
6.49e+09  -0.8728  -0.2644  -0.01908  0.01758  -0.009645  0.02495  -0.7855  0.1029
6.491e+09  -0.9175  0.06574  0.005539  0.01114  0.01105  -0.007744  -0.6568  0.3531
6.492e+09  -0.8248  0.3105  -0.0009926  0.003553  0.04733  0.03764  -0.5557  0.5494
6.494e+09  -0.6508  0.6363  -0.006247  0.03961  -0.0007297  -0.01236  -0.2887  0.7141
6.495e+09  -0.4275  0.822  0.02483  -0.00493  0.002803  0.02151  -0.05128  0.7463
6.496e+09  -0.06433  0.9596  -0.004532  0.003374  0.04107  -0.03333  0.2339  0.7387
6.498e+09  0.267  0.92  0.009331  -0.001253  -0.007566  0.002204  0.4652  0.5933
6.499e+09  0.5639  0.8212  -0.02625  0.02304  0.02258  0.0165  0.6563  0.4127
6.5e+09  0.7633  0.4874  0.04088  -0.03129  0.03328  -0.08341  0.731  0.1797
6.501e+09  0.8758  0.2304  -0.001622  0.02759  -0.0223  0.01317  0.7802  -0.0786
6.502e+09  0.9044  -0.08764  0.02169  0.02309  -0.008511  -0.007566  0.6976  -0.3781
6.504e+09  0.8127  -0.3744  0.007181  -0.003913  -0.02087  -0.008245  0.5209  -0.5582
6.505e+09  0.6502  -0.7196  0.02351  0.003845  -0.06279  -0.04392  0.3126  -0.6985
6.506e+09  0.3571  -0.8708  0.004748  -0.03151  0.0008707  0.05497  0.06101  -0.8116
6.508e+09  0.06914  -0.9719  -0.03446  0.03851  -0.02328  -0.04627  -0.259  -0.7363
6.509e+09  -0.2772  -0.9061  -0.01783  -0.005945  -0.03574  -0.04487  -0.481  -0.5852
6.51e+09  -0.5785  -0.7136  0.03041  -0.01421  0.01151  0.0122  -0.6791  -0.3642
6.511e+09  -0.8088  -0.4887  -0.0007723  -0.004134  -0.07212  -0.04194  -0.7613  -0.1184
6.512e+09  -0.887  -0.2535  0.01723  -0.03167  0.008901  0.01174  -0.7784  0.1454
6.514e+09  -0.9628  0.1182  -0.02937  -0.01261  0.01605  -0.03339  -0.6433  0.39
6.515e+09  -0.8377  0.47  -0.002484  -0.01875  0.01121  0.01277  -0.4835  0.5773
6.516e+09  -0.6111  0.765  -0.04299  0.0005036  0.01423  0.0008208  -0.2488  0.7138
6.518e+09  -0.366  0.8942  -0.02265  -0.01977  0.01327  0.007947  -0.002463  0.7899
6.519e+09  -0.0453  0.9671  -0.03136  -0.033  0.01732  0.008252  0.2626  0.7075
6.52e+09  0.3208  0.9363  0.005834  -0.03983  0.01504  0.03418  0.491  0.5283
6.521e+09  0.6194  0.7319  -0.02332  -0.04005  -0.03599  -0.06341  0.6393  0.361
6.522e+09  0.8574  0.5128  -0.002112  0.01812  0.00251  0.03809  0.7372  0.1116
6.524e+09  0.9512  0.1725  -0.02767  0.00611  0.06721  -0.003182  0.7738  -0.1688
6.525e+09  0.9528  -0.1715  0.01389  -0.02093  0.03765  -0.02037  0.6084  -0.3936
6.526e+09  0.8242  -0.5581  -0.03572  -0.0203  0.04231  0.007503  0.4319  -0.5866
6.528e+09  0.6062  -0.8129  -0.006077  0.0173  -0.003413  -0.005197  0.1624  -0.6883
6.529e+09  0.3029  -0.9309  0.01503  0.0181  0.02692  -0.03646  -0.04928  -0.708
6.53e+09  -0.01653  -0.9459  0.02168  0.01419  0.04373  0.03641  -0.2839  -0.6406
6.531e+09  -0.3408  -0.9378  0.01832  -0.01467  -0.01654  -0.003462  -0.4506  -0.4802
6.532e+09  -0.6673  -0.7399  0.003452  0.01344  0.0002949  -0.01988  -0.5744  -0.2996
6.534e+09  -0.8897  -0.4656  -0.03098  0.00545  0.03134  0.03645  -0.6089  -0.1009
6.535e+09  -0.9868  -0.05914  0.02486  0.02204  0.03237  0.01045  -0.6229  0.07651
6.536e+09  -0.9696  0.2684  0.01881  -0.01168  -0.02909  0.002682  -0.5719  0.3067
6.538e+09  -0.8507  0.5819  -0.02733  0.01534  0.04218  -0.02274  -0.452  0.4659
6.539e+09  -0.5645  0.8323  0.02389  0.009992  0.02206  0.07165  -0.2704  0.6366
6.54e+09  -0.2228  0.9558  -0.00554  -0.008674  -0.01423  -0.02749  -0.06149  0.6872
6.541e+09  0.08414  0.9675  0.009041  0.003454  0.008783  -0.01995  0.1642  0.6934
6.542e+09  0.4959  0.8912  -0.01471  -0.02028  -0.003266  -0.009425  0.4265  0.5626
6.544e+09  0.7704  0.624  -0.002327  -0.01852  0.03555  -0.02791  0.5498  0.4047
6.545e+09  0.9119  0.3686  -0.001568  -0.01239  -0.01307  0.006351  0.6768  0.1876
6.546e+09  1.017  0.02473  -0.002849  -0.01243  0.007338  0.005037  0.7005  -0.05519
6.548e+09  0.9103  -0.2958  -0.00221  -0.002131  0.01734  -0.005851  0.6305  -0.3673
6.549e+09  0.7641  -0.6577  -0.001521  0.01156  -0.0565  0.02305  0.4953  -0.5287
6.55e+09  0.4902  -0.8003  -0.01487  0.0145  -0.01655  -0.002447  0.2889  -0.6641
