# Hz S RI R 50
6.25e+09  0.1516  0.8617  -0.01868  0.03194  -0.02022  0.01512  0.1541  0.4927
6.251e+09  0.4839  0.7975  -0.02159  -0.02448  0.01728  0.05901  0.3946  0.4069
6.252e+09  0.6782  0.5512  -0.005566  0.01095  0.02098  -0.05671  0.5593  0.2577
6.254e+09  0.8323  0.3013  0.007142  0.007574  -0.0175  0.006899  0.5932  0.02837
6.255e+09  0.8226  -0.05996  0.0179  -0.02105  -0.02282  -0.0002247  0.5594  -0.236
6.256e+09  0.8441  -0.2315  -0.008295  0.01324  -0.05745  -0.005192  0.4574  -0.4243
6.258e+09  0.6138  -0.5625  -0.02252  0.003204  0.03935  0.01257  0.2675  -0.615
6.259e+09  0.4468  -0.7716  -0.006475  -0.01126  0.003608  0.0344  0.03348  -0.6812
6.26e+09  0.13  -0.8531  -0.01014  -0.04902  -0.01317  -0.008677  -0.223  -0.6303
6.261e+09  -0.1894  -0.8844  0.007789  -0.006973  -0.0477  -0.06058  -0.4582  -0.5326
6.262e+09  -0.4147  -0.7199  0.01458  0.004301  -0.04025  0.02939  -0.6089  -0.359
6.264e+09  -0.71  -0.496  -0.02569  -0.02828  -0.02378  0.02661  -0.6921  -0.103
6.265e+09  -0.8384  -0.2647  0.036  0.02968  0.02164  0.01427  -0.7129  0.1496
6.266e+09  -0.8624  0.01441  0.004507  -0.05392  -0.01807  0.03324  -0.596  0.3971
6.268e+09  -0.7571  0.3109  0.01262  0.001823  0.03825  -0.02556  -0.4426  0.6124
6.269e+09  -0.5893  0.5766  -0.01366  0.02576  0.02703  -0.001979  -0.1859  0.7062
6.27e+09  -0.3539  0.7461  0.01991  0.006928  0.01645  -0.007498  0.05602  0.757
6.271e+09  -0.118  0.8213  -0.02909  -0.00758  0.04053  -0.02163  0.3265  0.6932
6.272e+09  0.1693  0.7937  -0.01104  0.003014  0.03372  0.02349  0.5756  0.5055
6.274e+09  0.4392  0.7399  0.005018  -0.004313  -0.008608  0.01949  0.7057  0.2993
6.275e+09  0.684  0.4777  -0.01303  0.003518  0.03378  -0.009229  0.8009  0.0255
6.276e+09  0.8044  0.294  -0.004422  0.001858  0.01453  0.03244  0.7472  -0.2234
6.278e+09  0.8303  -0.08091  0.01498  0.01363  -0.01809  0.01595  0.6108  -0.4128
6.279e+09  0.7801  -0.3526  -0.002358  -0.02481  0.02724  -0.01158  0.4295  -0.6598
6.28e+09  0.6125  -0.6023  0.03102  0.01238  0.04572  -0.02436  0.146  -0.7634
6.281e+09  0.2991  -0.761  0.004715  -0.001776  -0.009478  0.004212  -0.1256  -0.7667
6.282e+09  0.0749  -0.8366  0.005702  0.02656  0.07043  0.01648  -0.3975  -0.672
6.284e+09  -0.2123  -0.782  0.006406  -0.001981  0.01451  -0.008413  -0.5865  -0.5076
6.285e+09  -0.4647  -0.6629  -0.0244  0.01538  0.000934  0.009911  -0.7312  -0.2541
6.286e+09  -0.6784  -0.4954  -0.008298  0.003817  0.001583  -0.01176  -0.8035  -0.01422
6.288e+09  -0.8156  -0.1555  0.01241  0.03427  0.01449  0.02461  -0.7485  0.277
6.289e+09  -0.8238  0.09086  0.0132  0.02939  0.002196  -0.02314  -0.6445  0.4597
6.29e+09  -0.7103  0.3876  0.01388  0.007005  -0.01429  0.05881  -0.4343  0.7165
6.291e+09  -0.5637  0.6121  -0.008636  0.0201  -0.01471  0.05976  -0.1586  0.7883
6.292e+09  -0.274  0.8145  0.0117  -0.0288  0.02054  -0.01919  0.1331  0.8199
6.294e+09  -0.05024  0.8529  0.0132  0.01062  -0.01562  0.01758  0.4067  0.749
6.295e+09  0.2722  0.818  -0.01329  -0.01663  0.01986  -0.008921  0.628  0.5303
6.296e+09  0.5909  0.668  -0.03795  -0.01231  0.01828  -0.004111  0.7555  0.312
6.298e+09  0.7482  0.4068  -0.006141  0.003217  0.04192  0.009616  0.8219  0.0167
6.299e+09  0.8257  0.1206  -0.02924  0.0325  -0.02863  0.01212  0.7809  -0.2925
6.3e+09  0.8157  -0.1784  0.01827  0.0145  -0.0007124  0.03011  0.6172  -0.5347
6.301e+09  0.6783  -0.4492  -0.009442  -0.005184  0.01521  -0.01641  0.4065  -0.7142
6.302e+09  0.4611  -0.6662  0.00506  0.008036  -0.0001573  -0.03987  0.1609  -0.8328
6.304e+09  0.2476  -0.7311  -0.02953  0.01392  -0.04298  -0.004632  -0.1038  -0.8229
6.305e+09  -0.05511  -0.8484  0.0126  -0.0005722  0.02008  -0.06489  -0.4203  -0.7693
6.306e+09  -0.3708  -0.8215  0.02104  -0.01177  0.02426  -0.01088  -0.6411  -0.5397
6.308e+09  -0.5578  -0.6527  -0.01351  0.02793  0.02078  0.009897  -0.7989  -0.2968
6.309e+09  -0.742  -0.3449  0.009448  0.01057  -0.01811  -0.02552  -0.8277  -0.01464
6.31e+09  -0.8331  -0.06427  0.01588  -0.02484  -0.01005  0.02372  -0.8221  0.2865
6.311e+09  -0.8056  0.2327  -0.00695  0.02881  0.01272  0.008776  -0.662  0.5304
6.312e+09  -0.701  0.4972  -0.0198  -0.007309  -0.03086  -0.006213  -0.4495  0.7596
6.314e+09  -0.4684  0.7258  -0.0007588  0.007692  0.0002508  -0.00433  -0.1644  0.8807
6.315e+09  -0.1545  0.8381  0.001782  -0.009233  -0.002368  0.038  0.1213  0.8405
6.316e+09  0.07858  0.8032  -0.003171  0.01454  0.02827  0.01971  0.4161  0.7679
6.318e+09  0.3949  0.7485  -0.05126  0.02491  0.002417  -0.03642  0.6891  0.5356
6.319e+09  0.6368  0.5841  -0.01922  -0.00433  -0.04111  -0.033  0.8169  0.3198
6.32e+09  0.7919  0.3274  -0.0108  -0.002678  -0.02787  0.008458  0.8927  0.009744
6.321e+09  0.9263  0.02723  -0.00137  -0.00464  0.05943  -0.007006  0.8272  -0.2658
6.322e+09  0.7877  -0.3018  -0.0009966  0.009926  0.02827  -0.0482  0.6989  -0.577
6.324e+09  0.6807  -0.5379  0.005297  0.01563  -0.04498  0.01885  0.4803  -0.7701
6.325e+09  0.4698  -0.7458  -0.01892  0.01129  -0.01781  -0.003052  0.1501  -0.8792
6.326e+09  0.1577  -0.8003  0.0152  0.01767  -0.0349  0.03103  -0.1477  -0.8835
6.328e+09  -0.1228  -0.8251  -0.01556  0.01851  -0.007118  0.04995  -0.429  -0.7729
6.329e+09  -0.4678  -0.7112  -0.005852  0.02599  0.01671  0.05696  -0.6871  -0.6244
6.33e+09  -0.7093  -0.5141  0.01482  0.02183  0.046  -0.03323  -0.8515  -0.323
6.331e+09  -0.8201  -0.2621  -0.01406  0.03327  -0.0121  0.05832  -0.8989  -0.005033
6.332e+09  -0.9021  0.01453  -0.0366  0.0174  -0.02117  -0.0226  -0.8672  0.2577
6.334e+09  -0.8682  0.3801  -0.006429  -0.02555  0.0205  -0.0005463  -0.7119  0.5977
6.335e+09  -0.6239  0.6016  -0.02926  -0.01612  0.02587  0.02848  -0.4868  0.7789
6.336e+09  -0.356  0.7562  -0.0157  -0.003235  -0.02386  -0.066  -0.149  0.8709
6.338e+09  -0.08705  0.8904  0.008513  0.01555  0.05449  0.02547  0.125  0.8874
6.339e+09  0.2164  0.8993  0.008445  -0.006948  -0.02363  -0.05356  0.4399  0.7755
6.34e+09  0.4775  0.7118  0.04056  0.02134  0.008026  -0.02542  0.6965  0.6124
6.341e+09  0.6907  0.5172  -0.0006326  -0.03389  -0.01162  0.02462  0.8561  0.3217
6.342e+09  0.8546  0.1775  0.01797  0.02129  0.0307  0.03993  0.9361  0.03968
6.344e+09  0.8532  -0.09405  0.01941  0.008375  -0.008319  -0.009565  0.8758  -0.298
6.345e+09  0.7844  -0.3906  0.01019  -0.02962  0.03949  0.02816  0.728  -0.5672
6.346e+09  0.5977  -0.6475  0.004373  -0.03836  0.0467  -0.01302  0.5196  -0.7804
6.348e+09  0.3386  -0.8204  0.03444  0.01116  0.02959  -0.02939  0.1996  -0.926
6.349e+09  0.0107  -0.9387  -0.00806  -0.008068  0.01879  0.02018  -0.09144  -0.9319
6.35e+09  -0.3234  -0.8261  -0.03361  -0.04427  0.06037  0.007586  -0.428  -0.8559
6.351e+09  -0.5646  -0.6511  -0.0009861  -0.0009616  0.009269  0.052  -0.6332  -0.6297
6.352e+09  -0.7618  -0.4647  0.002829  -0.04229  0.002261  0.001292  -0.873  -0.37
6.354e+09  -0.8779  -0.1486  -0.01979  0.00554  0.009327  0.0009735  -0.9399  -0.0851
6.355e+09  -0.8892  0.1915  0.02284  -0.005848  0.01303  -0.04922  -0.92  0.2514
6.356e+09  -0.7738  0.4499  -0.026  0.01902  0.009407  -0.00855  -0.7633  0.5921
6.358e+09  -0.5395  0.7172  -0.01539  -0.003465  0.02798  0.003244  -0.5355  0.7605
6.359e+09  -0.2355  0.8742  -0.008373  0.02097  -0.02999  -0.01781  -0.1813  0.9104
6.36e+09  -0.003605  0.9181  0.01507  -0.004635  0.07318  0.0234  0.1051  0.9427
6.361e+09  0.3596  0.8258  -0.03979  -0.01408  -0.03706  0.01023  0.438  0.8659
6.362e+09  0.5995  0.6447  0.01887  -0.005981  0.03279  -0.03798  0.7064  0.6654
6.364e+09  0.7741  0.3592  0.01414  -0.01977  0.04111  0.01501  0.8542  0.4158
6.365e+09  0.8702  0.04169  -0.01761  -0.02443  0.04442  0.01465  0.9175  0.07123
6.366e+09  0.8037  -0.2173  -0.005449  0.02661  -0.02517  -0.00875  0.914  -0.259
6.368e+09  0.7443  -0.4788  0.004807  0.02636  -0.01959  0.04078  0.7959  -0.5467
6.369e+09  0.557  -0.7555  -0.00226  -0.01752  -0.02715  0.02834  0.5907  -0.7732
6.37e+09  0.2344  -0.8338  -0.002137  -0.01867  0.01482  0.009421  0.243  -0.874
6.371e+09  -0.08907  -0.8796  0.01963  0.006341  -0.01319  -0.01184  -0.08703  -0.9448
6.372e+09  -0.4334  -0.7889  0.01476  -0.006468  0.02488  0.02872  -0.4288  -0.8509
6.374e+09  -0.6514  -0.5943  -0.02873  -0.03368  -0.01302  0.004583  -0.6845  -0.6719
6.375e+09  -0.8011  -0.3248  -0.009896  0.007161  0.04249  0.01399  -0.8783  -0.4402
6.376e+09  -0.8742  0.01683  -0.0142  0.01038  -0.01582  0.005758  -0.9693  -0.07742
6.378e+09  -0.8552  0.2778  -0.008228  0.01039  0.01232  0.0007154  -0.9236  0.2365
6.379e+09  -0.6977  0.5735  -0.0226  0.04567  0.02783  -0.0396  -0.7637  0.4987
6.38e+09  -0.4874  0.7729  -0.01812  0.0009507  -0.006951  -0.005247  -0.5421  0.7421
6.381e+09  -0.1909  0.8622  0.006164  -0.007757  -0.02236  -0.04684  -0.3052  0.9093
6.382e+09  0.1082  0.8593  -0.01855  -0.02688  0.02357  -0.02852  0.06099  0.9544
6.384e+09  0.442  0.8007  -0.01938  -0.02299  0.03873  -0.0007971  0.4228  0.8655
6.385e+09  0.7239  0.5787  0.006052  -0.03409  -0.02597  -0.0215  0.632  0.6327
6.386e+09  0.8396  0.3549  -0.03327  -0.00061  -0.027  -0.01239  0.8359  0.4371
6.388e+09  0.8511  0.008176  0.01529  0.01011  -0.01128  0.003165  0.9049  0.1348
6.389e+09  0.8236  -0.2859  0.002604  0.03456  -0.01967  -0.01458  0.9403  -0.1916
6.39e+09  0.6651  -0.6104  -0.03802  0.01226  -0.03028  -0.002614  0.7921  -0.5031
6.391e+09  0.4307  -0.7847  -0.006645  0.003977  0.01201  0.03157  0.5716  -0.7266
6.392e+09  0.205  -0.8987  0.02084  -0.0005111  0.01702  0.01926  0.2698  -0.8817
6.394e+09  -0.1463  -0.8373  -0.02865  0.03545  -0.02899  -0.03296  -0.04186  -0.9704
6.395e+09  -0.4164  -0.7854  -0.003853  -0.03975  -0.01796  0.03537  -0.3656  -0.8604
6.396e+09  -0.7217  -0.5705  0.01339  -0.01094  0.02405  -0.00211  -0.6403  -0.6686
6.398e+09  -0.8746  -0.2478  0.001584  -0.01838  -0.002711  -0.00543  -0.7768  -0.4643
6.399e+09  -0.8666  0.05818  -0.01056  -0.02833  0.08646  -0.008915  -0.8843  -0.1532
6.4e+09  -0.8253  0.3403  -0.001181  -0.01178  -0.03094  0.03497  -0.9321  0.1808
6.401e+09  -0.6328  0.5946  0.01598  -0.00873  0.002505  -0.03384  -0.7836  0.4633
6.402e+09  -0.3971  0.7864  0.03422  0.009037  0.002279  -0.001853  -0.5613  0.7078
6.404e+09  -0.07218  0.8708  0.03163  -0.02122  -0.05774  -0.008011  -0.281  0.8311
6.405e+09  0.2185  0.9026  -0.04809  0.03142  -0.04198  -0.01013  0.0513  0.9165
6.406e+09  0.4664  0.7244  -0.01645  0.01349  -0.009513  -0.01568  0.2862  0.8812
6.408e+09  0.7184  0.5874  -0.007446  -0.01658  0.01238  0.04769  0.6175  0.7092
6.409e+09  0.886  0.2508  0.01149  0.002274  -0.009286  0.003997  0.8107  0.4748
6.41e+09  0.8924  -0.05979  -0.01329  -0.03155  -0.009944  0.0004128  0.8919  0.1619
6.411e+09  0.8645  -0.3233  0.006698  -0.02641  -0.0378  0.003338  0.9214  -0.1315
6.412e+09  0.6385  -0.6383  -0.0137  -0.009682  -0.01596  -0.01135  0.7472  -0.4291
6.414e+09  0.3973  -0.8061  -0.02135  0.01772  -0.02572  0.01848  0.5877  -0.683
6.415e+09  0.07565  -0.8269  -0.00482  -0.06125  -0.03132  0.004145  0.3558  -0.8569
6.416e+09  -0.2348  -0.8327  -0.02328  -0.01773  -0.05111  -0.02588  0.03973  -0.879
6.418e+09  -0.5306  -0.7296  -0.005598  0.03966  -0.02904  -0.009005  -0.2466  -0.8704
6.419e+09  -0.7181  -0.4753  0.01925  -0.003661  0.05809  0.0424  -0.5434  -0.7323
6.42e+09  -0.8552  -0.2158  0.01319  0.0543  0.02939  0.002181  -0.7911  -0.5147
6.421e+09  -0.8634  0.08902  -0.03903  0.01318  -0.009533  0.01254  -0.8659  -0.1675
6.422e+09  -0.7379  0.3927  -0.01138  0.02666  0.07604  -0.04841  -0.8972  0.09407
6.424e+09  -0.6219  0.6325  0.001133  -0.01444  0.003388  -0.0002878  -0.7484  0.3986
6.425e+09  -0.3379  0.881  -0.02662  0.01669  0.003246  -0.01552  -0.5518  0.6293
6.426e+09  -0.04384  0.866  0.01969  0.02896  -0.009281  0.01328  -0.3611  0.8134
6.428e+09  0.2933  0.8887  -0.01995  -0.01094  -0.003202  -0.001843  -0.01452  0.8176
6.429e+09  0.5254  0.6726  0.0106  -0.004723  -0.04138  0.04019  0.2357  0.8568
6.43e+09  0.7692  0.4568  -0.06313  0.01305  -0.05098  -0.009905  0.5274  0.6669
6.431e+09  0.8857  0.1814  0.04195  0.005635  -0.01978  -0.01577  0.6624  0.4979
6.432e+09  0.8826  -0.158  -0.03733  0.01413  -0.002501  0.009707  0.8037  0.1475
6.434e+09  0.8172  -0.4381  0.0117  0.01546  0.03202  0.01441  0.8516  -0.08943
6.435e+09  0.5855  -0.7786  -0.02639  -0.0431  -0.01703  0.001191  0.8018  -0.3407
6.436e+09  0.3245  -0.8667  0.01348  -0.005606  -0.02524  0.000463  0.6594  -0.6431
6.438e+09  -0.03134  -0.8902  0.009381  -0.0004456  0.004065  0.006256  0.3787  -0.7497
6.439e+09  -0.3503  -0.8598  0.002251  -0.03525  -0.03454  -0.02949  0.01943  -0.8331
6.44e+09  -0.6073  -0.6966  0.01622  -0.001752  0.02675  0.00142  -0.232  -0.8115
6.441e+09  -0.7805  -0.4185  -0.04261  -0.01028  -0.01414  -0.007788  -0.4934  -0.7439
6.442e+09  -0.9076  -0.09773  0.00618  -0.01114  0.03045  -0.03011  -0.6744  -0.5074
6.444e+09  -0.9026  0.1933  0.03451  0.01304  0.006783  0.002144  -0.8065  -0.2435
6.445e+09  -0.7487  0.4759  -0.0116  -0.02019  -0.002104  -0.01282  -0.8427  0.07989
6.446e+09  -0.5057  0.7446  -0.03017  -0.001571  -0.04932  0.04091  -0.7645  0.3459
6.448e+09  -0.2414  0.8472  -0.0009783  0.003357  -0.01808  -0.02306  -0.6129  0.5707
6.449e+09  0.05305  0.9222  0.00512  -0.00417  -0.03568  0.0002073  -0.3016  0.7716
6.45e+09  0.4157  0.8386  -0.014  0.01394  -0.001612  0.01854  -0.06399  0.8663
6.451e+09  0.6501  0.662  -0.02362  -0.01471  0.002369  -0.008002  0.2296  0.8056
6.452e+09  0.8117  0.3284  -0.01423  -0.02599  0.0328  -0.03526  0.4616  0.6846
6.454e+09  0.909  0.05276  -0.02824  0.01445  -0.03363  0.001258  0.6993  0.5034
6.455e+09  0.8977  -0.2548  -0.04713  -0.0139  -0.0201  0.01473  0.7926  0.209
6.456e+09  0.7653  -0.6159  -0.03005  -0.04208  -0.04798  -0.02234  0.7831  -0.05672
6.458e+09  0.45  -0.8371  -0.004348  -0.02621  -0.01578  -0.03839  0.7629  -0.358
6.459e+09  0.1661  -0.9067  -0.002449  0.004685  -0.05653  -0.007919  0.5997  -0.5616
6.46e+09  -0.1044  -0.8839  -0.0008078  -0.01676  0.0004651  -0.005723  0.362  -0.7624
6.461e+09  -0.4911  -0.8266  0.02286  0.02446  0.006225  -0.06154  0.007699  -0.8587
6.462e+09  -0.7154  -0.6349  -0.02527  -0.001991  -0.01194  -0.01526  -0.2253  -0.8281
6.464e+09  -0.8908  -0.2805  0.03832  0.01197  -0.001442  0.007985  -0.4519  -0.662
6.465e+09  -0.9176  0.013  -0.02571  0.01481  -0.04  -0.005167  -0.6707  -0.4857
6.466e+09  -0.8945  0.3407  -0.0281  -0.004178  0.003229  0.009767  -0.7876  -0.1998
6.468e+09  -0.6902  0.6215  -0.003173  0.0203  -0.005326  0.04403  -0.7766  0.1174
6.469e+09  -0.4422  0.8166  0.02302  0.008834  -0.06359  0.007412  -0.7711  0.3543
6.47e+09  -0.05717  0.9029  0.02431  0.02611  -0.004644  0.02495  -0.5324  0.5632
6.471e+09  0.262  0.8953  -0.004138  -0.005144  0.00294  0.01886  -0.3366  0.7002
6.472e+09  0.5694  0.7874  -0.008137  0.00419  -0.0401  0.006967  -0.008549  0.7709
6.474e+09  0.7831  0.49  -0.0257  0.03012  -0.03953  0.02191  0.205  0.7505
6.475e+09  0.9443  0.18  0.01602  -0.002094  -0.02498  -0.02016  0.4526  0.6302
6.476e+09  0.9488  -0.1428  0.002822  0.02663  0.02208  0.01082  0.6752  0.4455
6.478e+09  0.8373  -0.4792  -0.02371  0.03838  -0.02423  -0.01397  0.746  0.1954
6.479e+09  0.5874  -0.7232  0.01847  0.0262  -0.009949  -0.03742  0.7668  -0.06564
6.48e+09  0.3241  -0.8777  0.007242  0.03327  0.0004715  0.005866  0.6804  -0.3126
6.481e+09  0.003835  -0.9221  -0.006753  0.001086  -0.02074  0.005773  0.5579  -0.5707
6.482e+09  -0.3547  -0.9006  0.01533  0.04614  -0.03473  0.005021  0.3186  -0.6745
6.484e+09  -0.6713  -0.6573  -0.006372  -0.03858  -0.01549  -0.0133  0.07677  -0.7132
6.485e+09  -0.8155  -0.4653  -0.006277  -0.02381  -0.04767  -0.009074  -0.203  -0.7512
6.486e+09  -0.9422  -0.1137  -0.009785  0.04702  0.01899  -0.0407  -0.47  -0.5839
6.488e+09  -0.8904  0.3439  0.009175  0.02359  -0.02434  0.0241  -0.6562  -0.45
6.489e+09  -0.7905  0.5911  0.01423  0.003077  -0.02185  0.04712  -0.73  -0.1729
6.49e+09  -0.5364  0.7858  -0.006526  0.03615  -0.01058  0.02765  -0.7968  0.08084
6.491e+09  -0.1584  0.9255  -0.01533  0.03132  -0.05349  0.00217  -0.6839  0.3574
6.492e+09  0.1249  0.9046  -0.03629  0.02874  -0.01663  -0.01121  -0.4804  0.5694
6.494e+09  0.4786  0.7693  0.03421  0.02107  0.01827  -0.0001826  -0.3217  0.7046
6.495e+09  0.7209  0.5563  -0.003626  0.02699  -0.05009  -0.01232  -0.06247  0.7695
6.496e+09  0.9458  0.2998  0.07652  -0.02595  -0.02979  -0.05303  0.2615  0.7065
6.498e+09  0.9119  -0.04048  0.00183  -0.04059  0.06544  0.01777  0.4457  0.6369
6.499e+09  0.8489  -0.377  -0.01976  -0.01425  -0.005918  -0.03402  0.6321  0.421
6.5e+09  0.6706  -0.5903  0.02489  -0.03092  -0.01793  -0.06018  0.7573  0.1777
6.501e+09  0.3777  -0.8451  0.01484  0.0619  -0.003772  -0.007422  0.7568  -0.117
6.502e+09  0.1163  -0.9422  0.02665  0.0269  -0.01354  -0.05206  0.6785  -0.3629
6.504e+09  -0.2767  -0.9393  -0.04332  0.00416  0.00984  -0.01996  0.5123  -0.588
6.505e+09  -0.5517  -0.6995  0.001652  -0.02948  -0.03415  -0.03821  0.2841  -0.7051
6.506e+09  -0.8218  -0.5037  6.472e-05  -0.02137  0.02011  0.001468  0.009952  -0.8055
6.508e+09  -0.8865  -0.1857  -0.02652  0.0123  -0.009012  -0.002603  -0.2825  -0.7106
6.509e+09  -0.9225  0.1893  0.005084  -0.01242  -0.003872  -0.04045  -0.4705  -0.5899
6.51e+09  -0.7403  0.5136  0.003863  0.02313  -0.02213  0.0469  -0.608  -0.4112
6.511e+09  -0.5519  0.6852  -0.004723  -0.03381  0.001291  -0.02672  -0.7381  -0.1687
6.512e+09  -0.2827  0.7912  0.01937  -0.01057  -0.02869  0.01575  -0.7293  0.1182
6.514e+09  0.02118  0.9004  -0.003707  -0.0125  -0.01995  -0.006223  -0.6454  0.3767
6.515e+09  0.3622  0.8204  -0.0069  -0.01122  0.004758  -0.04882  -0.5317  0.591
6.516e+09  0.5775  0.5733  0.0005951  -0.0287  0.02582  0.02726  -0.2721  0.7553
6.518e+09  0.8495  0.3299  -0.01773  0.0004245  0.009164  -0.0002891  0.005593  0.7434
6.519e+09  0.8932  0.006147  -0.01034  -0.0114  -0.0245  0.06104  0.2516  0.7071
6.52e+09  0.8545  -0.3376  0.03153  -0.00652  -0.01603  -0.001913  0.4641  0.5642
6.521e+09  0.6653  -0.5756  0.001695  0.01179  -0.02051  -0.04651  0.6537  0.3288
6.522e+09  0.5027  -0.7395  -0.02709  -0.02146  0.001471  -0.002379  0.7408  0.07665
6.524e+09  0.1027  -0.8792  0.01642  -0.05018  0.004849  0.01222  0.7129  -0.1499
6.525e+09  -0.1853  -0.8181  -0.006022  -0.03145  -0.006548  -0.02554  0.6044  -0.3849
6.526e+09  -0.5011  -0.6621  0.003347  -0.03725  0.02078  -0.02305  0.4088  -0.5614
6.528e+09  -0.645  -0.4642  -0.03462  0.02983  -0.05036  0.03279  0.2023  -0.6677
6.529e+09  -0.8112  -0.2525  -0.0001349  0.02427  -0.00158  -0.03515  -0.01267  -0.6978
6.53e+09  -0.8191  0.1076  0.006393  -0.001573  -0.006765  -0.04174  -0.2838  -0.6119
6.531e+09  -0.7327  0.403  -0.003831  0.009302  0.01908  0.003902  -0.4459  -0.5005
6.532e+09  -0.5351  0.6133  -0.0223  -0.01029  0.07523  0.02937  -0.5905  -0.3037
6.534e+09  -0.2832  0.7965  0.007162  -0.003706  0.0346  -0.00228  -0.627  -0.04722
6.535e+09  -0.03428  0.8793  0.003938  0.01342  -0.02539  -0.04842  -0.6237  0.08529
6.536e+09  0.3008  0.7707  -0.01227  -0.02167  0.02074  0.01513  -0.5971  0.2738
6.538e+09  0.541  0.6011  -0.006877  -0.01899  0.04248  0.02346  -0.4342  0.4812
6.539e+09  0.7232  0.3668  -0.02038  -0.02578  -0.003235  0.02807  -0.2504  0.5694
6.54e+09  0.8083  0.05142  0.00797  -0.006723  0.003358  0.00269  -0.03022  0.672
6.541e+09  0.7738  -0.242  0.01362  0.04987  -0.04118  -0.05311  0.1771  0.6738
6.542e+09  0.6561  -0.4361  -0.01342  0.003501  -0.004138  0.03628  0.4004  0.5375
6.544e+09  0.4491  -0.6848  0.01574  0.01546  0.01064  0.0172  0.5903  0.3765
6.545e+09  0.1762  -0.8227  0.002664  0.003789  -0.006252  0.01086  0.6825  0.1785
6.546e+09  -0.1416  -0.762  0.01156  -0.0292  0.01567  0.02254  0.7156  -0.1132
6.548e+09  -0.3927  -0.6911  0.004488  -0.01376  -0.002795  -0.01408  0.6367  -0.3353
6.549e+09  -0.6182  -0.4779  0.002414  -0.0299  -0.001148  0.002659  0.4948  -0.5632
6.55e+09  -0.7193  -0.2481  0.02019  0.01147  0.04741  -0.004917  0.2423  -0.6848
