# Hz S RI R 50
6.25e+09  -0.0511  0.8699  -0.01685  -0.02892  0.05412  -0.04232  0.1907  0.4597
6.251e+09  0.2684  0.8646  -0.01242  -0.03545  0.02145  0.006745  0.378  0.4009
6.252e+09  0.5389  0.6792  -0.02445  0.01394  -0.03718  -0.01599  0.5381  0.2376
6.254e+09  0.7393  0.4564  -0.01187  0.000139  0.006528  0.02982  0.6219  0.05027
6.255e+09  0.8064  0.1601  -0.02287  0.0285  -0.01445  0.05163  0.5743  -0.2257
6.256e+09  0.8966  -0.1183  0.0175  0.01007  0.08887  0.002848  0.4627  -0.4169
6.258e+09  0.7341  -0.4208  -0.02221  -0.0006784  0.02282  0.001362  0.2508  -0.587
6.259e+09  0.5209  -0.679  -0.01144  0.002129  0.02535  -0.01999  0.03734  -0.7027
6.26e+09  0.3026  -0.8043  0.01028  0.02549  0.02224  -0.02407  -0.1968  -0.6552
6.261e+09  0.03613  -0.8743  0.03591  0.02922  -0.01043  -0.0538  -0.4472  -0.5343
6.262e+09  -0.2411  -0.8112  -0.01022  0.007253  -0.006744  -0.004068  -0.6283  -0.3401
6.264e+09  -0.5497  -0.671  -0.02484  -0.0007241  0.03146  -0.00917  -0.6931  -0.09322
6.265e+09  -0.7091  -0.3279  -0.03543  0.01262  -0.01042  -0.02555  -0.716  0.1632
6.266e+09  -0.8116  -0.1592  0.00126  0.01079  -0.0163  0.004452  -0.6205  0.3856
6.268e+09  -0.8098  0.1647  -0.0023  -0.002833  -0.02939  0.02174  -0.4223  0.6012
6.269e+09  -0.7656  0.4197  -0.02146  -0.0171  -0.01752  0.028  -0.1782  0.7053
6.27e+09  -0.5279  0.6515  -0.007269  -0.009913  -0.004315  -0.01171  0.05548  0.7281
6.271e+09  -0.2784  0.8372  -0.01158  -0.01917  -0.01513  -0.01448  0.3099  0.6705
6.272e+09  -0.03353  0.8508  0.00422  -0.01391  0.05849  0.04205  0.5536  0.4976
6.274e+09  0.2675  0.7924  -0.009974  -0.002545  0.002764  -0.07608  0.6914  0.2616
6.275e+09  0.5853  0.6715  0.02427  0.03097  0.03716  -0.00106  0.7675  0.01096
6.276e+09  0.7033  0.3928  -0.02049  -0.009284  -0.01636  -0.0264  0.7481  -0.2389
6.278e+09  0.8133  0.1097  -0.01076  -0.03213  0.008668  0.001881  0.5862  -0.4926
6.279e+09  0.8244  -0.17  0.03188  0.0006645  0.007348  -0.003605  0.4269  -0.6718
6.28e+09  0.7605  -0.4767  0.006981  0.0004314  0.08432  0.03212  0.1426  -0.7515
6.281e+09  0.4996  -0.6913  0.01238  0.01935  0.02569  -0.01593  -0.1193  -0.778
6.282e+09  0.2267  -0.7774  0.00158  -0.0005231  -0.06553  0.041  -0.3636  -0.6979
6.284e+09  -0.03571  -0.8422  -0.008757  0.01889  0.02529  -0.00863  -0.6141  -0.4855
6.285e+09  -0.3371  -0.7465  0.0008916  0.02266  -0.02015  -0.009391  -0.7675  -0.2885
6.286e+09  -0.5655  -0.6394  -0.001539  0.001415  -0.01293  0.04337  -0.8097  -0.01737
6.288e+09  -0.7428  -0.3408  0.01401  -0.0005856  -0.03378  -0.0119  -0.7507  0.2831
6.289e+09  -0.7992  -0.09929  0.003621  -0.01301  -0.02812  -0.06559  -0.6207  0.5231
6.29e+09  -0.8111  0.2216  -0.01155  0.0243  -0.01301  0.02275  -0.4365  0.6884
6.291e+09  -0.6922  0.5199  0.0218  -0.007147  -0.04055  -0.02673  -0.1482  0.7768
6.292e+09  -0.4668  0.6822  0.009798  -0.0007379  0.05466  0.01265  0.09928  0.7938
6.294e+09  -0.185  0.8371  0.001975  0.04032  0.005442  -0.04098  0.3934  0.6649
6.295e+09  0.06152  0.8704  -0.004627  0.01361  0.02463  0.03096  0.618  0.5347
6.296e+09  0.3452  0.7496  0.004887  -0.003545  -0.01174  -0.03727  0.7501  0.3153
6.298e+09  0.6388  0.5996  0.004125  -0.02715  0.005188  -0.0002633  0.8183  0.04942
6.299e+09  0.759  0.3526  0.02902  0.04183  -0.01011  -0.06165  0.8127  -0.2801
6.3e+09  0.858  0.0421  -0.001543  0.01887  0.01766  0.005449  0.6498  -0.5301
6.301e+09  0.7617  -0.2404  0.001247  0.007143  0.0131  0.02572  0.4714  -0.7294
6.302e+09  0.6555  -0.5172  0.004206  0.01833  -0.01324  -0.02037  0.1659  -0.8502
6.304e+09  0.4614  -0.7324  -0.01524  -0.009681  -0.02767  -0.03079  -0.1451  -0.8226
6.305e+09  0.1745  -0.81  -0.005667  0.03721  -0.002123  0.01922  -0.4186  -0.7401
6.306e+09  -0.2027  -0.7766  0.01364  0.008418  0.01127  0.003708  -0.6409  -0.5641
6.308e+09  -0.4334  -0.7772  0.01492  -0.005478  -0.01725  0.007023  -0.7955  -0.2948
6.309e+09  -0.6424  -0.5407  -0.02705  -0.01916  0.0533  -0.06931  -0.8634  0.0008439
6.31e+09  -0.8152  -0.2487  -0.01639  -0.008254  -0.02135  0.002481  -0.8155  0.2801
6.311e+09  -0.8108  0.014  -0.0006434  0.02458  -0.02069  -0.05273  -0.6506  0.5488
6.312e+09  -0.8157  0.3246  -0.03548  -0.00518  -0.004934  0.05437  -0.4637  0.7626
6.314e+09  -0.6123  0.5745  -0.0006328  0.03266  0.0308  0.03636  -0.1613  0.8714
6.315e+09  -0.3666  0.7858  -0.00241  0.02918  0.01742  0.02662  0.1196  0.8693
6.316e+09  -0.1242  0.8726  -0.03338  -0.0008046  0.0002431  0.0112  0.43  0.75
6.318e+09  0.1979  0.854  -0.02766  0.02137  -0.01125  -0.04814  0.6605  0.5833
6.319e+09  0.4515  0.7578  0.004099  -0.006586  -0.04141  -0.01553  0.8348  0.2783
6.32e+09  0.7039  0.4828  -0.03138  0.04847  0.07146  -0.002034  0.8523  0.03681
6.321e+09  0.8414  0.2621  -0.007999  -0.02272  0.002949  -0.02337  0.8609  -0.2714
6.322e+09  0.8707  -0.07633  0.03917  0.02163  0.01114  0.02703  0.6786  -0.5519
6.324e+09  0.8211  -0.352  0.0099  0.009354  0.02391  -0.02797  0.4544  -0.783
6.325e+09  0.5984  -0.5921  -0.01129  0.003883  -0.01652  0.02381  0.1826  -0.8671
6.326e+09  0.3188  -0.8007  -0.01332  0.002337  0.02878  0.04228  -0.1243  -0.8734
6.328e+09  0.03398  -0.8317  -0.01868  0.009272  0.02508  -0.0279  -0.4174  -0.8086
6.329e+09  -0.2683  -0.7905  0.002395  -0.0258  -0.03882  -0.01705  -0.6757  -0.5949
6.33e+09  -0.5302  -0.6754  -0.003773  -0.002673  0.01946  0.001981  -0.8387  -0.3306
6.331e+09  -0.7388  -0.4765  -0.007819  -0.01612  0.04972  -0.003229  -0.9263  -0.0572
6.332e+09  -0.8761  -0.1863  0.01809  0.0007821  0.007969  -0.03924  -0.9069  0.2847
6.334e+09  -0.8469  0.1493  -0.01356  -0.03579  -0.01945  -0.02782  -0.7086  0.5873
6.335e+09  -0.8212  0.3698  0.004221  0.01472  -0.003751  -0.01785  -0.5117  0.7528
6.336e+09  -0.5215  0.6098  0.01011  -0.01579  0.01402  0.02491  -0.2239  0.8789
6.338e+09  -0.3317  0.7962  0.02928  0.01351  -0.006176  -0.01595  0.108  0.9078
6.339e+09  -0.02431  0.8554  0.006239  0.0001401  0.03101  -0.02899  0.4088  0.8033
6.34e+09  0.3015  0.8967  0.01188  0.008823  0.006481  -0.007043  0.698  0.5907
6.341e+09  0.5658  0.6652  0.03939  0.03919  -0.03544  0.03877  0.8805  0.3908
6.342e+09  0.793  0.4302  -0.01536  0.002381  0.0242  0.01165  0.9405  0.04217
6.344e+09  0.8884  0.1386  0.01754  0.008423  -0.01309  -0.03804  0.8731  -0.2768
6.345e+09  0.866  -0.1606  -0.03139  -0.008796  -0.02204  -0.01147  0.7196  -0.6063
6.346e+09  0.7258  -0.4581  0.01433  0.008451  0.02081  0.01433  0.545  -0.7996
6.348e+09  0.5505  -0.703  -0.01217  -0.02354  0.03138  -0.02772  0.2474  -0.8559
6.349e+09  0.222  -0.8464  -0.02173  0.001717  -0.02212  -0.01996  -0.1202  -0.9407
6.35e+09  -0.07655  -0.9038  -0.02504  0.01561  -0.02312  -0.001138  -0.425  -0.8479
6.351e+09  -0.3533  -0.7625  -0.02159  0.002709  -0.0005963  0.04189  -0.6945  -0.6413
6.352e+09  -0.6129  -0.6454  0.02862  -0.01903  -0.01022  0.0407  -0.8546  -0.3604
6.354e+09  -0.8138  -0.3756  -0.03523  0.01269  0.0161  -0.003528  -0.9501  -0.05576
6.355e+09  -0.8783  -0.06015  0.03502  0.01541  -0.02863  -0.01499  -0.8822  0.2405
6.356e+09  -0.8435  0.2143  -0.01344  0.02607  -0.03966  -0.011  -0.7603  0.5882
6.358e+09  -0.7079  0.542  0.006247  0.01703  0.01448  -0.0199  -0.5544  0.7625
6.359e+09  -0.503  0.7195  -0.0468  -0.02461  -0.02582  0.02709  -0.2233  0.8993
6.36e+09  -0.211  0.856  0.01147  -0.0196  0.01527  0.02068  0.05469  0.9614
6.361e+09  0.1124  0.9006  0.02877  0.002437  0.009653  0.02986  0.3941  0.799
6.362e+09  0.4128  0.7903  -0.01143  0.01136  0.01414  0.03022  0.6415  0.68
6.364e+09  0.6756  0.595  -0.02232  0.01954  -0.02292  0.05335  0.8649  0.377
6.365e+09  0.8293  0.3032  0.008267  0.01354  -0.00368  -0.03747  0.9898  0.0826
6.366e+09  0.9071  -0.02429  -0.01826  0.005129  0.00559  -0.01242  0.926  -0.2401
6.368e+09  0.8692  -0.2709  0.03264  0.003289  -0.01207  -0.009638  0.8124  -0.5255
6.369e+09  0.6841  -0.5133  -0.008369  -0.02132  -0.003688  -0.003943  0.5561  -0.7832
6.37e+09  0.4257  -0.8113  -0.01896  -0.01745  -0.01177  0.02118  0.2574  -0.8965
6.371e+09  0.1402  -0.8421  0.004803  0.006754  -0.01298  -0.0216  -0.08524  -0.9223
6.372e+09  -0.1363  -0.8875  0.005421  0.01695  0.01626  0.004899  -0.3732  -0.8767
6.374e+09  -0.4628  -0.7645  -0.01647  -0.01141  0.04272  -0.0003966  -0.6801  -0.6838
6.375e+09  -0.7233  -0.6066  -0.0044  -0.00675  0.01744  0.01366  -0.8086  -0.4219
6.376e+09  -0.8448  -0.3282  -0.002359  -0.03164  0.01107  0.01974  -0.9283  -0.07906
6.378e+09  -0.8821  0.01063  0.0291  -0.008977  0.002384  0.02931  -0.9213  0.2449
6.379e+09  -0.8107  0.334  -0.02167  0.01433  -0.01889  0.006027  -0.7908  0.5411
6.38e+09  -0.6189  0.6222  0.007374  -0.0296  0.04851  -0.003788  -0.5389  0.7645
6.381e+09  -0.4493  0.826  0.01172  0.00543  0.003424  -0.005014  -0.2459  0.8994
6.382e+09  -0.1004  0.8867  -0.03492  -0.001653  -0.004612  -0.02825  0.07704  0.9676
6.384e+09  0.2087  0.8362  -0.01932  0.01651  0.04588  -0.003979  0.4031  0.8256
6.385e+09  0.463  0.7562  0.01268  0.04854  0.03788  -0.01864  0.6304  0.6216
6.386e+09  0.7249  0.5352  0.007249  0.009441  -0.003236  0.01592  0.8604  0.4056
6.388e+09  0.8386  0.3155  0.01782  -0.001655  -0.0185  0.006565  0.9417  0.09659
6.389e+09  0.87  -0.06226  0.01615  -0.008371  -0.02312  -0.03432  0.8797  -0.22
6.39e+09  0.8167  -0.3655  0.002374  0.02889  0.02319  0.04036  0.786  -0.5199
6.391e+09  0.6237  -0.5969  -0.02084  -0.02078  0.01794  -0.02172  0.5525  -0.7464
6.392e+09  0.3803  -0.7957  -0.04326  0.01063  -0.01815  -0.01767  0.2832  -0.865
6.394e+09  0.1093  -0.8839  0.0004879  0.004309  -0.04148  -0.01097  -0.07055  -0.9362
6.395e+09  -0.2144  -0.8612  -0.02162  -0.02033  0.0389  0.01696  -0.3343  -0.832
6.396e+09  -0.5035  -0.732  0.01976  0.03633  -0.02062  -0.01971  -0.6145  -0.6871
6.398e+09  -0.6979  -0.5277  0.005649  -0.02727  -0.04785  0.02498  -0.8109  -0.4103
6.399e+09  -0.8471  -0.2461  -0.03226  -0.04497  0.02227  0.04301  -0.9126  -0.153
6.4e+09  -0.9134  0.1216  -0.006567  -0.01891  0.005793  -0.0128  -0.8647  0.1878
6.401e+09  -0.7767  0.3885  0.04139  -0.00414  -0.02297  0.006035  -0.7702  0.4855
6.402e+09  -0.6381  0.6539  0.007716  -0.01953  0.009914  -0.00416  -0.5897  0.7113
6.404e+09  -0.3521  0.7502  0.02738  -0.003886  -0.001296  -0.03062  -0.2993  0.9016
6.405e+09  0.00451  0.8778  -0.01387  -0.02332  0.001298  0.02924  0.03571  0.9259
6.406e+09  0.2623  0.8701  0.003743  0.008803  0.02675  -0.05716  0.3826  0.8506
6.408e+09  0.5244  0.7601  0.01748  0.02656  0.0009387  -0.04577  0.582  0.7021
6.409e+09  0.7379  0.5029  -0.007838  0.02003  0.007281  -0.00145  0.7354  0.4634
6.41e+09  0.8758  0.1939  0.01616  -0.00957  0.01713  -0.004061  0.8913  0.1907
6.411e+09  0.8638  -0.1495  0.005041  -0.0007533  -0.03082  -0.01929  0.9025  -0.08871
6.412e+09  0.7836  -0.387  0.03822  0.008492  -0.004424  0.01205  0.8209  -0.4501
6.414e+09  0.548  -0.6838  0.006734  0.0259  -0.04895  -0.04663  0.5342  -0.6883
6.415e+09  0.3421  -0.8129  -0.05955  0.02499  0.05298  -0.01647  0.3451  -0.821
6.416e+09  -0.03625  -0.896  0.03717  0.0001127  -0.01413  -0.02862  0.008744  -0.8946
6.418e+09  -0.2539  -0.9049  -0.01535  -0.0167  -0.01058  0.02171  -0.2366  -0.8625
6.419e+09  -0.5312  -0.6911  -0.04521  -0.01853  0.03096  0.04877  -0.5634  -0.678
6.42e+09  -0.7694  -0.4408  0.01367  -0.001095  0.006038  0.001246  -0.7766  -0.4457
6.421e+09  -0.8997  -0.183  -0.01932  0.00533  0.006905  0.01113  -0.8418  -0.2463
6.422e+09  -0.9132  0.1337  0.05185  -0.01278  0.01231  -0.01753  -0.8556  0.11
6.424e+09  -0.811  0.3864  -0.01283  0.01241  0.02259  -0.03102  -0.7792  0.3806
6.425e+09  -0.5843  0.6332  -0.01349  0.004156  0.02371  -0.00849  -0.6093  0.6654
6.426e+09  -0.3248  0.8676  -0.008793  -0.01994  0.01502  -0.04092  -0.3105  0.861
6.428e+09  -0.02863  0.8896  0.01834  0.01223  -0.06329  0.01553  -0.03763  0.8745
6.429e+09  0.2792  0.8658  -0.06776  0.0117  -0.02115  0.02873  0.2433  0.8379
6.43e+09  0.5675  0.6616  0.05243  -0.01546  -0.00994  0.02162  0.5067  0.7412
6.431e+09  0.785  0.418  -0.01092  0.0005638  -0.003507  0.005132  0.7616  0.4973
6.432e+09  0.8801  0.155  -0.0005643  -0.03031  0.02785  -0.006603  0.8705  0.178
6.434e+09  0.9131  -0.1409  -0.03332  0.02312  -0.005858  -0.0474  0.8693  -0.1219
6.435e+09  0.7648  -0.4246  -0.0003258  0.02099  -0.06759  -0.02174  0.7587  -0.3843
6.436e+09  0.5334  -0.7272  -0.04667  0.008006  0.0163  0.009817  0.6303  -0.6143
6.438e+09  0.3472  -0.8436  -0.01805  -0.06009  0.03268  0.01101  0.3334  -0.7996
6.439e+09  -0.01528  -0.9262  -0.01525  0.01394  0.01112  0.01346  0.08625  -0.8328
6.44e+09  -0.3091  -0.8715  -0.06465  -0.05482  0.004233  -0.0273  -0.2442  -0.8048
6.441e+09  -0.6163  -0.6988  0.02335  0.009726  -0.01904  0.03106  -0.4502  -0.681
6.442e+09  -0.8266  -0.4206  -0.01545  -0.0283  -0.05047  -0.01318  -0.7147  -0.4761
6.444e+09  -0.9074  -0.1426  -0.042  0.01401  -0.01638  -0.01464  -0.877  -0.2076
6.445e+09  -0.8493  0.2387  -0.009189  -0.006867  -0.02426  -0.008678  -0.8498  0.0377
6.446e+09  -0.7941  0.4383  -0.01422  -0.02085  -0.01716  -0.01634  -0.7612  0.367
6.448e+09  -0.5494  0.7496  -0.01082  -0.0002505  -0.02029  0.03182  -0.6061  0.6513
6.449e+09  -0.3583  0.8776  0.01481  0.02626  0.01584  -0.01752  -0.375  0.7645
6.45e+09  0.05974  0.9173  -0.00118  -0.003242  -0.02028  -0.01105  -0.07288  0.8144
6.451e+09  0.3695  0.8682  -0.01129  -0.04447  -0.01743  0.03489  0.1983  0.8119
6.452e+09  0.6576  0.6453  0.02312  -0.006391  -0.02879  0.03933  0.4526  0.6861
6.454e+09  0.7898  0.3971  -0.05331  -0.03937  0.008079  -0.04021  0.6586  0.4456
6.455e+09  0.8951  0.1027  -0.001339  0.01634  -0.039  0.006673  0.8001  0.1974
6.456e+09  0.8682  -0.2431  -0.0043  -0.004124  -0.03444  0.02989  0.817  -0.08517
6.458e+09  0.7478  -0.5197  0.005949  -0.01606  0.04649  -0.01141  0.7916  -0.3868
6.459e+09  0.5467  -0.7436  0.03101  0.02321  -0.002167  -0.02275  0.5609  -0.5773
6.46e+09  0.2544  -0.8474  -0.01954  0.0006826  -0.05498  -0.006287  0.3796  -0.785
6.461e+09  -0.09882  -0.8816  0.02686  0.007626  -0.02642  0.01132  0.06161  -0.8092
6.462e+09  -0.4254  -0.8383  0.01748  0.009323  -0.03714  -0.05609  -0.1947  -0.7789
6.464e+09  -0.6917  -0.6814  0.008606  -0.01375  -0.02547  0.01322  -0.4709  -0.6763
6.465e+09  -0.8857  -0.3804  -0.0008513  0.06181  -0.009344  -0.05507  -0.6745  -0.4224
6.466e+09  -0.8908  -0.04472  -0.001405  -0.01647  0.00788  -0.01263  -0.7677  -0.228
6.468e+09  -0.8974  0.2763  -0.04539  -0.00777  0.006093  0.009609  -0.8304  0.04972
6.469e+09  -0.7213  0.5882  -0.04405  -0.04878  -0.03115  0.03919  -0.7301  0.3752
6.47e+09  -0.5241  0.8104  -0.01466  -0.006655  0.03614  -0.02471  -0.5506  0.5289
6.471e+09  -0.1563  0.9015  0.009259  0.01527  -0.05689  -0.009734  -0.3551  0.7163
6.472e+09  0.1478  0.9454  -0.003283  0.02195  -0.04877  -0.009943  -0.05439  0.7499
6.474e+09  0.4931  0.8115  0.02587  0.04991  -0.01392  0.03228  0.2203  0.7762
6.475e+09  0.71  0.6468  -0.007031  -0.01905  -0.005134  0.0005262  0.4605  0.6248
6.476e+09  0.8777  0.3669  0.03009  -0.005668  -0.002019  0.003792  0.6078  0.4053
6.478e+09  0.922  -0.02923  -0.01947  -0.0001325  0.008445  -0.01887  0.7415  0.1695
6.479e+09  0.8559  -0.2874  0.001209  0.007088  -0.01428  -0.01918  0.7657  -0.117
6.48e+09  0.7218  -0.5744  0.008482  0.003391  -0.06652  0.02862  0.7105  -0.3484
6.481e+09  0.4191  -0.8551  0.03031  0.001954  -0.04471  0.01497  0.5489  -0.5245
6.482e+09  0.1416  -0.9622  -0.01485  0.003489  -0.03191  -0.01006  0.28  -0.7322
6.484e+09  -0.2108  -0.9413  -0.01834  -0.01608  -0.04331  -0.05521  0.09036  -0.7596
6.485e+09  -0.4788  -0.7613  -0.02418  0.01538  -0.005189  0.03033  -0.1877  -0.7456
6.486e+09  -0.79  -0.5972  -0.00552  -0.004916  0.0116  0.01396  -0.429  -0.6361
6.488e+09  -0.9057  -0.2402  0.01213  0.03706  0.02871  -0.01573  -0.614  -0.4182
6.489e+09  -0.9463  0.1231  0.01294  -0.002619  0.02555  0.004105  -0.7545  -0.1367
6.49e+09  -0.8464  0.4359  -0.01094  -0.03265  -0.05125  0.07079  -0.7832  0.05047
6.491e+09  -0.6743  0.6333  0.004939  0.00902  0.05771  0.01677  -0.6809  0.362
6.492e+09  -0.3857  0.8898  -0.01046  0.03376  -0.01841  -0.04387  -0.5136  0.5513
6.494e+09  -0.0564  0.955  -0.0524  -0.02415  -0.01713  -0.02977  -0.2734  0.7262
6.495e+09  0.2405  0.9261  0.02544  -0.04803  -0.02945  0.009857  -0.02954  0.7387
6.496e+09  0.54  0.716  0.03162  -0.04674  -0.03337  0.05787  0.2172  0.7302
6.498e+09  0.8588  0.502  0.0179  0.01583  0.04155  -0.02534  0.477  0.621
6.499e+09  0.902  0.2023  -0.0007154  -0.001281  0.002305  0.01474  0.6488  0.4176
6.5e+09  0.9261  -0.1525  0.02493  0.002179  -0.03788  0.01913  0.7297  0.1731
6.501e+09  0.7862  -0.527  -0.009858  -0.01368  -0.03842  -0.007831  0.7434  -0.102
6.502e+09  0.6339  -0.6966  -0.01208  -0.01273  0.02627  0.01488  0.6623  -0.3746
6.504e+09  0.3347  -0.9474  0.005028  0.02455  -0.03696  -0.05038  0.5506  -0.5729
6.505e+09  -0.01818  -0.9783  0.005074  -0.008557  0.004989  -0.00235  0.2836  -0.6966
6.506e+09  -0.3855  -0.8563  0.00267  0.02943  0.002908  -0.0228  0.03608  -0.7377
6.508e+09  -0.64  -0.6943  -0.003544  -0.01691  -0.01149  0.01775  -0.2336  -0.728
6.509e+09  -0.8636  -0.4162  0.02903  0.01035  0.04782  -0.005066  -0.505  -0.6471
6.51e+09  -0.9322  -0.1275  -0.002884  0.03504  -0.0004628  -0.003143  -0.6762  -0.3849
6.511e+09  -0.9307  0.2481  -0.04492  -0.04392  -0.01653  -0.01164  -0.7436  -0.1384
6.512e+09  -0.761  0.549  -0.02251  -0.02554  -0.0002468  0.001981  -0.7566  0.1093
6.514e+09  -0.4824  0.748  -0.01392  -0.01081  0.03887  0.006395  -0.6462  0.3919
6.515e+09  -0.1914  0.946  0.002407  0.0005095  0.03929  -0.0112  -0.5371  0.5647
6.516e+09  0.1322  0.9436  -0.01043  0.02545  -0.002547  -0.05163  -0.2949  0.7428
6.518e+09  0.4415  0.8188  0.004391  0.01456  0.002554  0.05551  0.01561  0.7515
6.519e+09  0.6454  0.5825  -0.0251  0.0326  -0.05267  0.02191  0.2934  0.6784
6.52e+09  0.8648  0.2698  0.001193  0.02135  0.0269  0.03428  0.4858  0.572
6.521e+09  0.8938  -0.01943  -0.01853  -0.01366  -0.007843  0.04426  0.6651  0.3354
6.522e+09  0.8873  -0.3559  0.01332  0.001362  0.04555  -0.007044  0.7374  0.1071
6.524e+09  0.7314  -0.5906  -0.01475  -0.03866  0.04429  0.05645  0.7322  -0.153
6.525e+09  0.4447  -0.8277  0.02274  -0.008243  0.01239  0.02052  0.5867  -0.4079
6.526e+09  0.1894  -1.01  -0.02677  -0.04169  0.0257  -0.05237  0.4472  -0.5833
6.528e+09  -0.2498  -0.8681  -0.01287  -0.002871  -0.002735  -0.03308  0.1982  -0.6932
6.529e+09  -0.5343  -0.8304  -0.02153  0.03056  -0.003935  0.0356  -0.04195  -0.6757
6.53e+09  -0.7874  -0.4765  -0.02523  0.004063  0.02118  -0.004647  -0.3019  -0.6473
6.531e+09  -0.8842  -0.2153  0.02651  0.007742  0.02948  -0.01642  -0.4646  -0.5167
6.532e+09  -0.9536  0.05764  0.003031  -0.01272  0.002193  -0.006403  -0.6046  -0.2837
6.534e+09  -0.833  0.3366  0.01392  -0.01906  0.01829  -0.01588  -0.6547  -0.09695
6.535e+09  -0.6119  0.7375  0.003013  0.03086  0.002918  -0.04295  -0.5964  0.1279
6.536e+09  -0.369  0.8476  0.01988  -0.01244  0.00999  0.00416  -0.5661  0.31
6.538e+09  0.01417  0.9136  -0.002621  0.02682  -0.02072  -0.0002197  -0.4717  0.4923
6.539e+09  0.2922  0.8685  -0.01041  0.00716  0.01852  -0.003658  -0.2784  0.593
6.54e+09  0.5785  0.6818  0.03455  -0.02176  -0.003248  -0.03251  -0.05476  0.6804
6.541e+09  0.7634  0.4408  0.02225  -0.02577  -0.03846  -0.02618  0.1558  0.682
6.542e+09  0.8809  0.1763  0.009773  0.008949  -0.02185  0.07532  0.399  0.5921
6.544e+09  0.779  -0.1936  -0.00724  -0.02615  0.03194  -0.01876  0.5695  0.3848
6.545e+09  0.7458  -0.438  -0.02168  0.02038  -0.004803  0.00644  0.7148  0.2038
6.546e+09  0.5378  -0.7626  0.003413  0.002102  0.01732  -0.01513  0.7085  -0.09659
6.548e+09  0.2571  -0.8607  0.02983  -0.000425  -0.00806  0.03911  0.6648  -0.3291
6.549e+09  -0.1358  -0.8633  -0.0074  0.03603  0.02329  0.03799  0.51  -0.5191
6.55e+09  -0.3847  -0.7839  0.01571  -0.01326  0.05796  0.03171  0.2926  -0.6816
