# Hz S RI R 50
6.25e+09  -0.4234  0.7639  0.005036  0.02758  -0.02674  0.05245  0.1453  0.5305
6.251e+09  -0.1173  0.818  -0.03961  -0.001886  0.01412  0.0111  0.3517  0.4124
6.252e+09  0.1584  0.8145  0.008935  -0.007884  0.02302  0.005384  0.5362  0.245
6.254e+09  0.465  0.7468  0.009313  -0.03603  0.01817  -0.03412  0.5845  0.01181
6.255e+09  0.6454  0.5317  0.01608  0.01126  -0.02962  0.04287  0.6061  -0.2247
6.256e+09  0.8014  0.2902  -0.02708  0.02268  0.05032  0.02035  0.4904  -0.4536
6.258e+09  0.891  -0.05156  0.03399  -0.004262  0.02808  0.001715  0.2553  -0.6359
6.259e+09  0.7613  -0.2938  -0.01036  -0.008142  0.006685  -0.003428  0.03946  -0.6738
6.26e+09  0.6237  -0.5328  -0.01222  0.001497  -0.01118  0.01548  -0.1842  -0.6788
6.261e+09  0.4541  -0.8016  0.02245  -0.007188  -0.02689  0.05209  -0.4326  -0.5444
6.262e+09  0.152  -0.8454  0.00789  -0.02684  0.04735  -0.01903  -0.6066  -0.3484
6.264e+09  -0.1698  -0.8724  -0.004784  -0.0292  -0.01459  -0.001941  -0.7225  -0.1162
6.265e+09  -0.3957  -0.7355  -0.007602  -0.01402  -0.00782  -0.04438  -0.7273  0.154
6.266e+09  -0.6595  -0.5387  -0.004638  0.03119  0.01497  -0.01923  -0.6275  0.3857
6.268e+09  -0.8484  -0.2501  0.000656  0.03303  0.03063  -0.001283  -0.4377  0.5746
6.269e+09  -0.8175  0.06538  -0.02943  0.008349  -0.01218  -0.02322  -0.1963  0.699
6.27e+09  -0.7979  0.3293  0.004974  0.01832  -0.04834  0.008961  0.05634  0.7266
6.271e+09  -0.6839  0.5803  0.0274  -0.01742  -0.06382  -0.03393  0.347  0.6584
6.272e+09  -0.3789  0.7519  0.001139  -0.01405  -0.01503  -0.007883  0.5371  0.5029
6.274e+09  -0.08421  0.8524  -0.02  -0.02536  -0.007993  0.01076  0.6866  0.3289
6.275e+09  0.1765  0.8384  -0.008369  0.01466  0.001182  -0.01923  0.7601  0.02205
6.276e+09  0.4353  0.6974  -0.008113  0.01674  0.002154  0.03671  0.723  -0.2465
6.278e+09  0.6222  0.531  -0.04398  -0.004301  0.004555  0.009286  0.6126  -0.5111
6.279e+09  0.785  0.2025  0.02159  0.01701  -0.005959  0.02027  0.4192  -0.6784
6.28e+09  0.8128  -0.03428  0.0294  -0.0002271  -0.005514  -0.01636  0.1512  -0.7784
6.281e+09  0.7415  -0.2589  -0.01408  -0.0008844  -0.0169  -0.0542  -0.1067  -0.7979
6.282e+09  0.5913  -0.5936  -0.004747  0.01955  0.006949  -3.941e-05  -0.3835  -0.6741
6.284e+09  0.3889  -0.7564  0.02392  -0.01623  0.01833  0.0539  -0.5782  -0.5368
6.285e+09  0.07132  -0.781  0.003709  0.009453  0.03513  0.01045  -0.7586  -0.2747
6.286e+09  -0.2527  -0.7965  0.004308  0.001005  -0.03688  -0.04429  -0.7845  -0.02749
6.288e+09  -0.4833  -0.7046  -0.006074  0.01377  -0.006452  0.01703  -0.7541  0.2777
6.289e+09  -0.6469  -0.5098  0.006568  0.01903  0.0561  0.02061  -0.6278  0.5191
6.29e+09  -0.7938  -0.1673  0.03232  0.004238  0.031  -0.09036  -0.4386  0.6894
6.291e+09  -0.8388  0.04304  0.01455  -0.01533  -0.03961  -0.06955  -0.1777  0.7755
6.292e+09  -0.7451  0.3531  -0.01679  0.008698  -0.007073  -0.0102  0.1278  0.8071
6.294e+09  -0.6221  0.6224  0.001221  0.02493  -0.01858  -0.004888  0.4113  0.7106
6.295e+09  -0.3688  0.7662  0.01055  0.009376  0.02974  0.03007  0.6293  0.5447
6.296e+09  -0.03159  0.7989  -0.003196  -0.006753  0.04551  -0.01949  0.8152  0.2689
6.298e+09  0.221  0.8078  0.007855  0.02651  0.007991  0.01488  0.8315  -0.006334
6.299e+09  0.5837  0.7026  -0.02279  0.01047  -0.02232  -0.07971  0.7913  -0.2457
6.3e+09  0.696  0.4657  -0.01686  -0.01611  -0.03009  -0.01094  0.6291  -0.5279
6.301e+09  0.8256  0.2002  -0.02709  -0.007173  0.0189  0.02982  0.4305  -0.7092
6.302e+09  0.8562  -0.1096  0.02307  -0.01149  -0.05982  0.02071  0.1649  -0.8387
6.304e+09  0.7272  -0.3463  0.01387  -0.008731  0.003071  -0.00661  -0.1692  -0.8199
6.305e+09  0.5192  -0.5952  -0.01543  -0.009024  -0.0549  -0.03501  -0.417  -0.746
6.306e+09  0.3379  -0.7052  0.009641  -0.04317  0.07672  -0.043  -0.6621  -0.5462
6.308e+09  0.0218  -0.807  0.009859  0.01186  -0.05743  -0.01694  -0.8045  -0.2983
6.309e+09  -0.2547  -0.786  0.0209  0.01653  -0.03938  -0.01526  -0.8766  0.0009953
6.31e+09  -0.4992  -0.6915  -0.0288  -0.01474  -0.02209  -0.01156  -0.8038  0.3314
6.311e+09  -0.7009  -0.4546  -0.02793  0.006657  0.03315  -0.01232  -0.6395  0.5277
6.312e+09  -0.871  -0.1391  0.01826  -0.0181  0.0161  -0.03311  -0.4329  0.7195
6.314e+09  -0.7731  0.1172  -0.007872  0.02877  0.02567  0.05891  -0.1666  0.8656
6.315e+09  -0.7612  0.4193  -0.01402  0.02471  0.003939  -0.0497  0.141  0.8732
6.316e+09  -0.5194  0.6084  0.006491  0.01152  -0.000194  -0.01754  0.4349  0.77
6.318e+09  -0.3206  0.7637  -0.03594  0.01441  -0.01502  0.02645  0.6803  0.5592
6.319e+09  -0.03955  0.8391  -0.007405  -0.01028  -0.001417  0.02562  0.8176  0.2855
6.32e+09  0.2849  0.8061  -0.01025  0.05419  -0.02725  0.00169  0.8969  0.02146
6.321e+09  0.5869  0.5894  0.001101  -0.01631  -0.03443  -0.04853  0.8711  -0.3129
6.322e+09  0.7813  0.4152  0.01965  0.004354  -0.06589  0.01144  0.6858  -0.5618
6.324e+09  0.7947  0.121  0.02327  0.01501  -0.001637  -0.01286  0.4566  -0.7821
6.325e+09  0.8347  -0.2095  0.02595  0.02497  -0.0368  0.03627  0.1676  -0.8763
6.326e+09  0.7229  -0.4456  0.01865  -0.01724  0.01657  -0.02851  -0.1292  -0.8827
6.328e+09  0.5133  -0.6796  -0.005267  0.001511  -0.03235  -0.03902  -0.4413  -0.7611
6.329e+09  0.2453  -0.8201  0.008926  0.02866  0.02392  -0.005689  -0.6684  -0.613
6.33e+09  -0.05303  -0.833  0.00375  -0.00962  -0.01527  0.009257  -0.8585  -0.3427
6.331e+09  -0.331  -0.7993  0.02466  0.008001  -0.03698  0.00842  -0.91  -0.03278
6.332e+09  -0.6015  -0.6252  -0.01683  -0.05086  0.05445  -0.01785  -0.8958  0.3013
6.334e+09  -0.817  -0.349  -0.01509  0.01435  -0.005266  0.01107  -0.7253  0.5577
6.335e+09  -0.8631  -0.04084  0.03498  0.01793  -0.01212  0.03917  -0.4796  0.7337
6.336e+09  -0.895  0.1515  0.006069  0.02923  -0.005541  -0.01364  -0.1672  0.8865
6.338e+09  -0.7121  0.4861  0.005434  0.005973  0.05066  0.05036  0.1177  0.9176
6.339e+09  -0.4927  0.702  0.04039  -0.01193  -0.009995  0.04209  0.4159  0.8466
6.34e+09  -0.2262  0.8246  0.02674  0.02103  -0.04061  0.0482  0.657  0.5525
6.341e+09  0.05759  0.8675  0.02136  -0.04623  -0.03064  0.05032  0.8804  0.3494
6.342e+09  0.4238  0.8095  0.003511  -0.01614  -0.003418  0.02209  0.9366  0.03255
6.344e+09  0.6602  0.6071  0.02602  -0.00426  -0.02257  0.005848  0.9009  -0.2752
6.345e+09  0.8082  0.3528  0.02278  0.03055  -0.002807  0.01049  0.8129  -0.5335
6.346e+09  0.862  0.02447  0.0048  0.01587  -0.01946  0.04055  0.515  -0.7695
6.348e+09  0.8565  -0.2531  0.02957  -0.0008919  0.03812  0.003099  0.2294  -0.9332
6.349e+09  0.6801  -0.5364  -0.03145  0.001519  -0.003535  0.04172  -0.1177  -0.9186
6.35e+09  0.4022  -0.7488  0.004004  -0.03267  0.03255  -0.01934  -0.431  -0.8609
6.351e+09  0.1236  -0.8686  -0.01489  -0.04581  -0.02404  -0.006986  -0.6716  -0.6593
6.352e+09  -0.1518  -0.9031  0.004182  -0.02143  -0.01831  0.03336  -0.8484  -0.3334
6.354e+09  -0.4634  -0.7522  -0.02718  0.01856  0.01402  -0.0372  -0.934  -0.05752
6.355e+09  -0.6936  -0.5443  0.02922  0.06329  0.04704  -0.06871  -0.8797  0.2686
6.356e+09  -0.8545  -0.2738  -0.008466  -0.005567  0.03163  0.008039  -0.769  0.5433
6.358e+09  -0.8835  0.07911  0.02479  -0.0219  0.02228  -0.003061  -0.5453  0.7835
6.359e+09  -0.8467  0.3021  0.006402  0.01412  0.02488  0.03839  -0.2115  0.9175
6.36e+09  -0.6436  0.6316  -0.02566  -0.004713  0.004247  -0.04269  0.08528  0.9418
6.361e+09  -0.3608  0.7673  -0.005387  0.01932  0.02939  -0.02426  0.4152  0.8546
6.362e+09  -0.1148  0.8925  -0.03393  -0.02226  -0.0339  0.02532  0.7054  0.6878
6.364e+09  0.2321  0.876  0.002135  -0.0003876  0.003184  0.04649  0.8565  0.3591
6.365e+09  0.4968  0.7162  -0.008426  -0.002755  -0.01509  -0.01193  0.9364  0.05737
6.366e+09  0.7029  0.5021  0.003269  0.02275  0.01523  -0.01609  0.8583  -0.2503
6.368e+09  0.8143  0.2348  -0.02935  0.0698  -0.02121  0.02366  0.7821  -0.5334
6.369e+09  0.9089  -0.1011  -0.02613  0.02871  -0.007552  0.0314  0.5394  -0.7856
6.37e+09  0.793  -0.3736  -0.005391  0.007129  0.002435  0.008917  0.2635  -0.8797
6.371e+09  0.6322  -0.6953  -0.005668  -0.01135  -0.02831  0.003708  -0.09182  -0.9496
6.372e+09  0.4031  -0.8007  0.0003872  0.02332  0.003058  0.009965  -0.4118  -0.8475
6.374e+09  0.07183  -0.9296  -0.02236  0.02092  0.02198  0.01357  -0.6634  -0.7137
6.375e+09  -0.3052  -0.8614  -0.007071  0.03567  -0.05056  0.02181  -0.8695  -0.3781
6.376e+09  -0.5097  -0.6868  0.001763  0.02727  -0.03521  -0.02758  -0.9172  -0.0922
6.378e+09  -0.7563  -0.4836  0.01977  0.01487  -0.04432  -0.02227  -0.8899  0.2282
6.379e+09  -0.8501  -0.2102  0.0002701  -0.02256  0.02012  0.02342  -0.8082  0.5633
6.38e+09  -0.8331  0.103  0.007671  0.006446  0.002045  0.002593  -0.5493  0.7338
6.381e+09  -0.8195  0.4273  -0.01812  0.004298  -0.02388  -0.009533  -0.2445  0.9179
6.382e+09  -0.5492  0.6566  -0.01171  0.05579  -0.005246  -0.001833  0.05217  0.954
6.384e+09  -0.3214  0.8533  -0.01991  0.01241  -0.04431  0.007603  0.3737  0.8985
6.385e+09  -0.02806  0.8743  -0.01564  -0.01875  0.021  0.0362  0.6316  0.7069
6.386e+09  0.2566  0.8508  -0.01151  -0.01939  -0.02897  0.02223  0.8276  0.4511
6.388e+09  0.5691  0.6381  0.05158  -0.002943  -0.004316  -0.05567  0.9342  0.09123
6.389e+09  0.7784  0.4542  0.006266  -0.01735  0.02733  -0.03336  0.9246  -0.1913
6.39e+09  0.8646  0.167  -0.02641  0.004101  -0.004965  0.01311  0.7448  -0.5156
6.391e+09  0.8668  -0.1493  -0.01266  -0.01929  0.006242  -0.01797  0.6074  -0.7028
6.392e+09  0.7436  -0.4853  0.03268  0.03031  0.008592  -0.01691  0.2976  -0.89
6.394e+09  0.5389  -0.6898  -0.002398  0.007645  -0.04279  0.004399  -0.04993  -0.9527
6.395e+09  0.2599  -0.824  -0.02669  0.02764  -0.001721  -0.03703  -0.372  -0.8338
6.396e+09  -0.05452  -0.9165  -0.02192  -0.02305  0.05334  -0.008344  -0.5735  -0.6816
6.398e+09  -0.2974  -0.8093  0.03997  -0.005326  0.0469  0.02274  -0.8296  -0.458
6.399e+09  -0.5938  -0.6269  -0.01018  0.02137  -0.00235  0.02817  -0.8605  -0.1788
6.4e+09  -0.7608  -0.4428  0.01529  -0.006922  -0.01488  -0.03347  -0.9013  0.151
6.401e+09  -0.9135  -0.1261  0.01004  0.0124  0.01539  0.01467  -0.7994  0.4723
6.402e+09  -0.8786  0.1513  -0.01411  -0.03021  0.02377  0.00767  -0.6161  0.7316
6.404e+09  -0.7425  0.4597  -0.002395  0.01596  0.03558  -0.03244  -0.3357  0.8652
6.405e+09  -0.5544  0.7198  -0.02101  0.005432  -0.005351  -0.02807  0.02667  0.8978
6.406e+09  -0.2405  0.8674  -0.01776  -0.0237  0.0292  0.01004  0.2993  0.8143
6.408e+09  0.0676  0.8419  0.03123  0.00275  -0.005287  0.005655  0.6285  0.703
6.409e+09  0.3206  0.791  -0.01759  0.03038  0.03024  0.04421  0.8005  0.4987
6.41e+09  0.5811  0.6766  -0.002431  -0.009349  -0.01873  0.04239  0.8771  0.1519
6.411e+09  0.8162  0.3922  -0.01234  -0.01444  -0.01507  -0.01711  0.9221  -0.1938
6.412e+09  0.9001  0.1062  0.01921  -0.0207  0.01798  0.03282  0.7955  -0.4461
6.414e+09  0.8651  -0.1982  0.01997  0.01753  0.01704  0.002619  0.6024  -0.6688
6.415e+09  0.7778  -0.5357  0.06018  -0.01203  -0.04161  0.02812  0.3169  -0.8721
6.416e+09  0.4895  -0.7312  -0.02135  0.008894  0.01201  0.0009579  0.004543  -0.9274
6.418e+09  0.279  -0.8357  -0.005627  0.01691  0.01117  -0.05446  -0.2924  -0.8312
6.419e+09  -0.02797  -0.8955  -0.01619  -0.008606  -0.03337  0.01243  -0.5282  -0.7522
6.42e+09  -0.3766  -0.7564  -0.04832  -0.02307  -0.001357  0.001798  -0.7804  -0.4781
6.421e+09  -0.6062  -0.6718  -0.05318  0.0225  -0.02039  0.006242  -0.8263  -0.1744
6.422e+09  -0.7825  -0.3964  0.03073  -0.004412  0.02151  0.007765  -0.8749  0.166
6.424e+09  -0.9345  -0.08422  -0.01088  0.0004761  -0.03444  -0.02473  -0.7742  0.3985
6.425e+09  -0.8144  0.2462  -0.01638  0.01323  0.03855  0.02484  -0.5959  0.6738
6.426e+09  -0.717  0.4704  -0.01304  0.001389  -0.02344  -0.02765  -0.3477  0.8179
6.428e+09  -0.5142  0.747  -0.03354  0.01192  0.003164  0.01336  -0.05415  0.8626
6.429e+09  -0.2681  0.8468  0.02649  -0.02357  -0.01127  -0.009103  0.2235  0.9048
6.43e+09  0.1574  0.9004  -0.002227  -0.004331  0.04834  -0.009601  0.4904  0.722
6.431e+09  0.3824  0.8102  0.02198  0.02174  -0.001772  0.01103  0.7222  0.4733
6.432e+09  0.6163  0.5912  -0.00756  0.007278  0.001255  0.006116  0.8071  0.1977
6.434e+09  0.8202  0.35  0.02196  0.02131  0.02341  0.08228  0.8465  -0.06887
6.435e+09  0.8544  0.08646  -0.01867  0.04281  0.004461  0.02727  0.8109  -0.4205
6.436e+09  0.8323  -0.2175  0.02598  -0.004853  -0.03641  0.0143  0.5595  -0.6046
6.438e+09  0.7312  -0.5464  0.01481  -0.01394  -0.001021  0.04196  0.3957  -0.7831
6.439e+09  0.5271  -0.6938  -0.02677  0.02616  -0.004615  -0.003535  0.0367  -0.8394
6.44e+09  0.1899  -0.8669  0.002672  -0.02011  -0.01941  -0.05246  -0.2396  -0.7603
6.441e+09  -0.07819  -0.8988  -0.003163  -0.01329  0.02007  0.03237  -0.527  -0.7092
6.442e+09  -0.3955  -0.774  -0.02911  -0.001071  0.03868  0.05366  -0.6894  -0.4472
6.444e+09  -0.6664  -0.6116  -0.02581  -0.03849  0.0177  -0.03583  -0.7971  -0.2006
6.445e+09  -0.8452  -0.3771  -0.001541  -0.0238  0.002558  0.05767  -0.8156  0.03347
6.446e+09  -0.8969  -0.05919  -0.02047  0.04387  0.06552  0.0107  -0.7745  0.3876
6.448e+09  -0.8103  0.2585  0.02914  0.02024  -0.01533  -0.001104  -0.6125  0.609
6.449e+09  -0.733  0.5386  -0.04037  -0.03684  -0.02978  -0.05209  -0.4087  0.7648
6.45e+09  -0.476  0.7429  0.03109  -0.00236  0.001767  -0.06256  -0.09767  0.8404
6.451e+09  -0.2042  0.9054  -0.0124  -0.02485  0.01697  0.08788  0.205  0.7893
6.452e+09  0.1152  0.897  0.02001  0.02131  0.04137  0.0332  0.4902  0.6769
6.454e+09  0.375  0.7291  -0.0101  0.03473  0.0354  0.01042  0.6874  0.4478
6.455e+09  0.6432  0.6473  -0.01758  0.03436  0.0254  -0.02391  0.774  0.2143
6.456e+09  0.8192  0.3475  -0.017  0.01235  0.006647  -0.03681  0.8583  -0.0962
6.458e+09  0.8686  0.07635  0.006041  0.01478  -0.01927  -0.01284  0.7114  -0.3852
6.459e+09  0.8559  -0.251  -0.01834  0.01909  -0.03923  0.01316  0.5852  -0.5635
6.46e+09  0.7001  -0.5744  -0.009311  -0.04523  -0.05182  0.0008992  0.3089  -0.7304
6.461e+09  0.4731  -0.733  -0.0316  -0.01081  0.0005918  0.001213  0.08538  -0.8149
6.462e+09  0.2107  -0.8564  -0.03339  -0.01718  0.009403  0.01656  -0.2073  -0.7754
6.464e+09  -0.09373  -0.901  0.01075  -0.005496  -0.01429  0.004119  -0.4796  -0.6391
6.465e+09  -0.4791  -0.8418  -0.02606  -0.02703  0.007548  0.00541  -0.6755  -0.4772
6.466e+09  -0.6863  -0.6432  -0.03681  0.01388  0.01205  -0.01436  -0.8308  -0.1809
6.468e+09  -0.8176  -0.3562  0.04443  -0.02322  0.01207  -0.01999  -0.799  0.08825
6.469e+09  -0.8976  -0.004854  0.01138  0.002377  -0.0187  -0.01525  -0.6992  0.3054
6.47e+09  -0.8409  0.2841  0.03018  0.02926  -0.02021  -0.03378  -0.5551  0.5875
6.471e+09  -0.7747  0.6004  -0.00265  -0.001116  0.04038  0.02592  -0.3482  0.747
6.472e+09  -0.4061  0.7121  0.0125  -0.006561  -0.01198  -0.04134  -0.04958  0.8422
6.474e+09  -0.1942  0.9182  -0.0133  0.0098  -0.02323  -0.0128  0.1607  0.7607
6.475e+09  0.1425  0.9452  0.02599  0.02905  0.001982  -0.02467  0.45  0.6729
6.476e+09  0.4589  0.7571  -0.03378  0.02647  -0.0231  -0.07741  0.6499  0.4595
6.478e+09  0.6645  0.6211  -0.005953  0.01902  0.01358  0.00317  0.7265  0.2206
6.479e+09  0.8046  0.2905  -0.01028  -0.008662  -0.008951  0.01726  0.7694  -0.07622
6.48e+09  0.9634  0.04718  0.008596  -0.0002486  0.008203  -0.02471  0.7352  -0.3398
6.481e+09  0.8262  -0.2843  -0.01177  0.009878  -0.01911  -0.02904  0.5316  -0.5785
6.482e+09  0.6787  -0.6079  0.007611  -0.01295  -0.04913  0.02061  0.2993  -0.6847
6.484e+09  0.488  -0.7709  0.01845  -0.002051  -0.03923  -0.02004  0.09933  -0.7625
6.485e+09  0.1726  -0.8322  -0.02053  -0.01616  0.04211  0.01267  -0.2036  -0.7604
6.486e+09  -0.1045  -0.9214  0.02173  0.01269  -0.02085  0.0172  -0.4335  -0.6105
6.488e+09  -0.4556  -0.8134  -0.03013  0.02498  0.04332  -0.009196  -0.6146  -0.4248
6.489e+09  -0.7335  -0.6206  -0.04478  -0.002568  0.0223  0.03982  -0.7481  -0.102
6.49e+09  -0.8584  -0.324  -0.003113  0.01151  -0.001265  -9.648e-05  -0.7772  0.08995
6.491e+09  -0.9185  -0.007855  -0.00664  0.023  0.05095  -0.04025  -0.6919  0.3794
6.492e+09  -0.8093  0.2577  -0.0009857  0.02136  -0.01075  0.004635  -0.574  0.5765
6.494e+09  -0.7202  0.5833  -0.03901  0.01036  0.026  -0.06556  -0.2985  0.7481
6.495e+09  -0.534  0.7838  -0.01039  0.02412  0.06066  -0.003141  -0.06179  0.7544
6.496e+09  -0.1835  0.9063  -0.000924  -0.02575  0.003659  -0.008243  0.2172  0.7424
6.498e+09  0.1802  0.8633  0.03667  -0.03533  0.04717  0.006509  0.464  0.5989
6.499e+09  0.4775  0.7963  -0.009556  -0.001349  -0.01161  -0.01635  0.6451  0.4097
6.5e+09  0.7063  0.5848  0.001101  -0.01392  -0.003838  0.001614  0.7596  0.1883
6.501e+09  0.8465  0.2891  0.002754  -0.01571  -0.01583  0.01216  0.7143  -0.09165
6.502e+09  0.9254  -0.005494  0.02486  -0.01089  -0.06782  -0.0009309  0.6677  -0.3418
6.504e+09  0.8315  -0.3217  0.003368  -0.006274  0.01239  -0.009611  0.5475  -0.5579
6.505e+09  0.6911  -0.6688  0.002037  0.01702  -0.02172  -0.01593  0.298  -0.6958
6.506e+09  0.4503  -0.8166  0.01367  -0.008837  0.0118  0.01411  -0.002162  -0.7472
6.508e+09  0.1484  -0.9574  0.001195  0.05171  -0.03123  -0.01279  -0.2228  -0.7454
6.509e+09  -0.1909  -0.9108  0.006403  -0.002478  -0.01986  0.04182  -0.5221  -0.6253
6.51e+09  -0.4681  -0.7978  -0.01498  -0.01944  0.003604  0.002929  -0.6356  -0.3835
6.511e+09  -0.7475  -0.5137  -0.02911  -0.03653  -0.01659  0.03622  -0.7622  -0.145
6.512e+09  -0.883  -0.2427  -0.004924  0.01127  -0.008982  0.02789  -0.7514  0.1043
6.514e+09  -1.001  0.04166  0.01929  0.004484  0.03308  -0.00958  -0.6061  0.4204
6.515e+09  -0.9052  0.425  -0.01598  -0.0006397  -0.0006961  0.00215  -0.4492  0.5997
6.516e+09  -0.7214  0.6556  0.001748  -0.01861  -0.002865  -0.04177  -0.2437  0.7135
6.518e+09  -0.3914  0.8926  0.01789  0.03779  0.01484  -0.009282  0.005343  0.7583
6.519e+09  -0.09903  0.9837  -0.01141  -0.003579  -0.01818  -0.0174  0.2578  0.7154
6.52e+09  0.2554  0.9384  0.009956  0.007718  0.01839  0.02672  0.5037  0.565
6.521e+09  0.5086  0.7623  -0.002445  0.002035  0.002764  0.02557  0.6172  0.3412
6.522e+09  0.7835  0.5206  -0.03264  -0.0195  -0.006369  0.003175  0.7133  0.08266
6.524e+09  0.9123  0.2615  -0.009053  -0.003601  -0.001954  -0.001994  0.7157  -0.1326
6.525e+09  1.007  -0.131  0.03503  -0.03363  -0.002045  -0.006543  0.5916  -0.4138
6.526e+09  0.8614  -0.4024  0.01859  0.008891  0.001244  0.007442  0.4116  -0.6147
6.528e+09  0.6427  -0.6686  0.01118  0.01999  0.05096  0.004993  0.1973  -0.6652
6.529e+09  0.3532  -0.9229  0.00496  -0.02996  0.001804  -0.000401  -0.02799  -0.7029
6.53e+09  0.02012  -0.9934  -0.02622  -0.04181  -0.02456  -0.02386  -0.2794  -0.6471
6.531e+09  -0.3304  -0.9069  -0.0001677  -0.02023  0.03109  0.002205  -0.5146  -0.494
6.532e+09  -0.6517  -0.7672  0.01892  -0.0093  -0.01012  0.04059  -0.5764  -0.2833
6.534e+09  -0.8394  -0.4942  0.00929  0.003767  -0.02856  0.02836  -0.6205  -0.1012
6.535e+09  -0.9491  -0.1367  -0.03543  -0.009969  -0.04109  0.02598  -0.6562  0.127
6.536e+09  -0.9972  0.1959  -0.01666  0.008694  0.02157  0.001882  -0.5597  0.3087
6.538e+09  -0.8152  0.5653  -0.03285  -0.01796  -0.02308  0.05157  -0.4443  0.4802
6.539e+09  -0.6088  0.7859  -0.009046  -0.02883  -0.01398  0.02844  -0.2533  0.6186
6.54e+09  -0.2699  0.9635  0.01242  0.01275  -0.01826  -0.01745  -0.07179  0.6822
6.541e+09  0.03595  1.014  -0.0143  0.0255  0.02045  0.01376  0.153  0.6824
6.542e+09  0.3559  0.8914  -0.02507  0.00167  0.0299  -0.01526  0.4172  0.594
6.544e+09  0.5869  0.701  -0.003887  -0.03087  0.03421  0.01482  0.57  0.3981
6.545e+09  0.8469  0.4016  0.03132  0.02248  0.008908  0.03368  0.6676  0.1949
6.546e+09  0.98  0.08683  -0.017  -0.0006455  0.009104  0.01768  0.7133  -0.08086
6.548e+09  0.9468  -0.2568  -0.003673  0.0008294  -0.0415  0.02021  0.6548  -0.345
6.549e+09  0.8363  -0.5299  -0.02195  -0.0183  0.02697  -0.04338  0.5123  -0.5415
6.55e+09  0.5662  -0.7564  -0.01208  -0.02272  0.02005  0.02862  0.2908  -0.7107
