# Hz S RI R 50
6.25e+09  -0.3591  0.7833  0.009269  0.007113  0.03923  0.02263  0.1557  0.4668
6.251e+09  -0.07578  0.845  0.00842  0.03955  -0.038  0.01849  0.3477  0.402
6.252e+09  0.3012  0.8086  0.001562  -0.01415  0.0225  0.0174  0.5443  0.2587
6.254e+09  0.5108  0.6993  -0.02614  0.0041  0.009637  -0.02827  0.6278  0.01484
6.255e+09  0.6928  0.421  0.03475  0.02462  -0.02174  -0.001475  0.5646  -0.2302
6.256e+09  0.8262  0.1876  0.004946  0.0002164  0.07137  0.04104  0.4751  -0.4583
6.258e+09  0.8646  -0.1191  0.004829  0.01107  0.04485  0.00375  0.3027  -0.5784
6.259e+09  0.7355  -0.4365  0.01859  -0.002533  0.02978  -0.004694  0.04013  -0.6561
6.26e+09  0.5583  -0.6337  -0.002573  0.03166  -0.01048  0.002444  -0.1944  -0.6645
6.261e+09  0.317  -0.7612  -0.02162  0.01366  0.0309  -0.01367  -0.4325  -0.5357
6.262e+09  0.009997  -0.8413  -0.02356  -0.03015  0.01493  0.002257  -0.62  -0.3353
6.264e+09  -0.2794  -0.8132  -0.04717  0.0004488  -0.01833  0.03476  -0.7115  -0.1001
6.265e+09  -0.4882  -0.695  0.03135  0.03944  0.01243  -0.005225  -0.7249  0.148
6.266e+09  -0.7106  -0.4479  0.006596  0.003527  -0.001148  -0.0009642  -0.6219  0.3781
6.268e+09  -0.8007  -0.1603  -0.0175  0.007028  -0.01788  0.054  -0.4387  0.5941
6.269e+09  -0.7964  0.1944  -0.002118  0.02982  0.01628  0.003145  -0.1976  0.696
6.27e+09  -0.7417  0.4028  0.0006336  0.006366  -0.005485  -0.005486  0.08274  0.7759
6.271e+09  -0.5532  0.6169  0.01038  0.02307  -0.02085  0.02141  0.3116  0.6711
6.272e+09  -0.339  0.7947  0.035  -0.01164  0.0177  -0.041  0.5681  0.5289
6.274e+09  -0.01236  0.8371  0.000776  -0.001467  -0.01717  0.07213  0.7066  0.3171
6.275e+09  0.3028  0.7317  -0.01391  -0.003618  -0.01381  0.05679  0.7602  0.04795
6.276e+09  0.5957  0.6304  -0.007686  0.002975  0.04835  -0.0009599  0.7349  -0.2247
6.278e+09  0.7363  0.4065  -0.005561  0.007606  0.04087  0.03108  0.6279  -0.4339
6.279e+09  0.8407  0.1634  -0.01323  0.00259  -0.0008565  -0.02419  0.4123  -0.6789
6.28e+09  0.8423  -0.18  -0.009695  0.01892  0.02857  0.00858  0.1994  -0.7685
6.281e+09  0.718  -0.4383  -0.008533  -0.007733  0.02774  -0.06811  -0.09591  -0.7375
6.282e+09  0.5046  -0.6851  -0.001319  -0.01515  -0.0372  -0.02476  -0.371  -0.7077
6.284e+09  0.2579  -0.7934  0.03822  0.02362  0.02541  -0.009399  -0.6053  -0.5156
6.285e+09  0.01532  -0.8169  -0.001385  0.04434  0.07217  0.02347  -0.7451  -0.2886
6.286e+09  -0.2816  -0.783  0.005737  0.01083  -0.04533  -0.04171  -0.7999  -0.02617
6.288e+09  -0.5853  -0.6129  0.005031  0.01458  -0.03412  -0.000913  -0.7329  0.2577
6.289e+09  -0.6549  -0.3157  0.008626  -0.0003202  0.03887  0.00963  -0.6342  0.4988
6.29e+09  -0.8227  -0.06724  0.01449  0.02891  0.002193  0.01432  -0.4102  0.7175
6.291e+09  -0.8236  0.1703  0.01077  0.01  -0.06594  0.01203  -0.1629  0.7787
6.292e+09  -0.719  0.4596  -0.01574  0.01392  0.003793  0.003841  0.1645  0.8197
6.294e+09  -0.5289  0.6416  -0.02868  -0.007076  -0.06142  0.02526  0.3862  0.7034
6.295e+09  -0.2581  0.7699  0.02882  0.006741  0.005831  0.003138  0.5907  0.5593
6.296e+09  0.0607  0.8319  -0.04079  -0.02378  -0.0159  -0.03719  0.7752  0.2732
6.298e+09  0.3154  0.7846  -0.001886  0.01498  -0.04592  0.0403  0.8371  0.02007
6.299e+09  0.5729  0.601  -0.01398  -0.01333  -0.02735  -0.0009634  0.7742  -0.2457
6.3e+09  0.7653  0.3967  0.03102  0.03627  -0.04309  -0.009169  0.6307  -0.5397
6.301e+09  0.8156  0.07282  0.01968  -0.0007541  0.00208  -0.008454  0.4147  -0.7253
6.302e+09  0.7875  -0.224  0.02948  -0.003295  -0.00956  -0.03774  0.1451  -0.8272
6.304e+09  0.6908  -0.5313  -0.0237  0.01559  0.01167  0.04922  -0.1354  -0.8426
6.305e+09  0.4757  -0.6459  0.01893  -0.01285  -0.0126  0.01668  -0.4306  -0.7301
6.306e+09  0.2579  -0.7816  0.008962  0.01981  0.0465  0.006962  -0.6528  -0.558
6.308e+09  -0.0997  -0.8359  -0.0008749  -0.01702  0.01142  0.03649  -0.7935  -0.3253
6.309e+09  -0.3194  -0.7261  0.002834  0.01485  0.02277  -0.05622  -0.8204  0.002485
6.31e+09  -0.5811  -0.5988  -0.03442  0.0001487  -0.03448  0.02949  -0.8021  0.3263
6.311e+09  -0.796  -0.3731  0.02068  -0.01897  -0.02495  0.0264  -0.6914  0.5424
6.312e+09  -0.8401  -0.04358  -0.00823  -0.0002302  -0.00713  -0.01686  -0.4504  0.7465
6.314e+09  -0.8262  0.2124  0.0178  -0.003963  0.004655  -0.03984  -0.1499  0.8442
6.315e+09  -0.7074  0.4785  -0.01269  0.002374  0.02428  0.01025  0.1489  0.8684
6.316e+09  -0.4347  0.7392  -0.002493  0.01207  -0.02015  -0.008467  0.4352  0.7439
6.318e+09  -0.2279  0.7954  -0.04255  -0.003379  -0.04422  -0.0343  0.6731  0.59
6.319e+09  0.1239  0.8598  -0.02906  0.01584  0.004592  -0.001016  0.8408  0.2982
6.32e+09  0.3917  0.7403  -0.02281  -0.01757  0.03554  0.05535  0.8844  0.01282
6.321e+09  0.6304  0.5567  0.008707  0.01055  -0.04352  -0.02756  0.8398  -0.2896
6.322e+09  0.814  0.289  -0.01891  -0.001021  -0.03159  -0.01218  0.6603  -0.5205
6.324e+09  0.8968  0.01766  0.004123  0.01262  -0.0409  -0.003483  0.4867  -0.7571
6.325e+09  0.8379  -0.2688  -0.02263  0.04684  0.01669  0.03509  0.1671  -0.8626
6.326e+09  0.6496  -0.5709  0.0209  -0.0002952  0.0125  0.006566  -0.156  -0.8707
6.328e+09  0.4687  -0.7432  -0.02018  0.02598  0.009057  -0.03543  -0.4581  -0.7695
6.329e+09  0.1693  -0.8269  -0.0063  0.01979  0.01249  0.03945  -0.6749  -0.611
6.33e+09  -0.1001  -0.8064  -0.02736  -0.0146  0.02567  0.0004194  -0.8333  -0.3667
6.331e+09  -0.4814  -0.6998  -0.008167  -0.02865  0.006996  -0.002036  -0.8988  -0.0007986
6.332e+09  -0.7119  -0.4997  0.02348  -0.008654  0.04705  -0.01138  -0.8476  0.2899
6.334e+09  -0.8191  -0.2752  0.002383  -0.03376  0.0593  0.006032  -0.726  0.5621
6.335e+09  -0.9234  0.04635  -0.02645  -0.009286  -0.04098  -0.01367  -0.5005  0.7219
6.336e+09  -0.8097  0.3067  0.01653  -0.00708  -0.01299  -0.01349  -0.2113  0.9134
6.338e+09  -0.6782  0.5987  -0.02611  -0.03401  -0.02191  0.01834  0.1132  0.9228
6.339e+09  -0.3984  0.8165  -0.03409  -0.004729  -0.006571  -0.02796  0.4131  0.808
6.34e+09  -0.09837  0.8629  -0.03067  0.0137  0.002456  -0.002519  0.6947  0.6243
6.341e+09  0.2355  0.7833  0.008451  -0.01822  0.04157  0.00274  0.8658  0.335
6.342e+09  0.5347  0.7532  0.005306  -0.002361  0.01026  -0.002498  0.9211  0.07716
6.344e+09  0.7485  0.5104  -0.02681  -0.02252  0.04898  0.02451  0.9252  -0.2567
6.345e+09  0.8139  0.2278  -0.01612  -0.01164  0.02454  0.003065  0.7538  -0.5667
6.346e+09  0.8942  -0.08627  -0.01327  0.008781  0.007567  0.002036  0.5172  -0.7357
6.348e+09  0.8314  -0.3685  -0.02253  0.01417  -0.02033  -0.02425  0.1907  -0.9059
6.349e+09  0.6169  -0.6178  -0.05416  0.002994  0.01971  -0.03259  -0.1073  -0.9516
6.35e+09  0.3745  -0.7485  -0.01259  -0.02451  -0.02198  -0.01106  -0.4304  -0.8432
6.351e+09  0.07  -0.8812  -0.03774  -0.02723  0.007288  -0.01069  -0.6562  -0.6419
6.352e+09  -0.2927  -0.8167  0.01945  -0.01953  0.001865  -0.01598  -0.879  -0.3845
6.354e+09  -0.5562  -0.7126  -0.007889  -0.01414  -0.02776  -0.003492  -0.9401  -0.06706
6.355e+09  -0.737  -0.4766  0.008014  0.004912  0.02404  -0.03282  -0.8812  0.2497
6.356e+09  -0.8576  -0.1715  0.01927  -0.002756  0.01538  0.0005355  -0.7755  0.5684
6.358e+09  -0.8723  0.1314  -0.01031  0.01084  0.006537  -0.002591  -0.545  0.7705
6.359e+09  -0.788  0.4302  -0.015  0.02114  -0.0005861  -0.02036  -0.2737  0.916
6.36e+09  -0.5598  0.697  0.0204  -0.001392  0.007029  -0.04896  0.05922  0.9296
6.361e+09  -0.3055  0.8669  0.007745  0.006505  -0.02034  -0.005072  0.4066  0.8301
6.362e+09  0.004877  0.8988  0.0001476  -0.02105  0.03873  -0.004062  0.7219  0.7058
6.364e+09  0.3691  0.8624  0.004277  0.00448  -0.0234  -0.01904  0.9106  0.3793
6.365e+09  0.658  0.6472  -0.01976  -0.02582  0.01382  0.02426  0.9661  0.08188
6.366e+09  0.7398  0.4001  0.003687  -0.006772  0.02381  0.02557  0.8958  -0.2966
6.368e+09  0.8554  0.07676  -0.009051  0.006644  -0.05483  0.02068  0.8017  -0.5331
6.369e+09  0.8634  -0.2362  0.01148  0.02942  0.01871  -0.01632  0.5407  -0.7684
6.37e+09  0.7572  -0.5009  -0.01328  -0.02309  0.03618  0.05481  0.2453  -0.9196
6.371e+09  0.5527  -0.684  -0.03712  0.001735  -0.01309  -0.01086  -0.07742  -0.9809
6.372e+09  0.2463  -0.8672  0.00476  0.001638  0.04508  0.009592  -0.4218  -0.8162
6.374e+09  -0.09102  -0.8974  -0.04262  0.03145  -0.016  0.04228  -0.5773  -0.6945
6.375e+09  -0.3411  -0.866  -0.003216  0.009729  -0.02783  0.01418  -0.8335  -0.4069
6.376e+09  -0.6149  -0.5856  -0.00428  -0.01069  -0.03567  0.0002127  -0.8981  -0.117
6.378e+09  -0.7921  -0.4273  0.005796  -0.0002388  0.02855  -0.0235  -0.8938  0.2278
6.379e+09  -0.8269  -0.02527  0.0001252  0.007067  0.0166  -0.02142  -0.7904  0.5093
6.38e+09  -0.8594  0.2071  -0.02199  -0.01723  0.000717  -0.03595  -0.5591  0.7788
6.381e+09  -0.7181  0.5371  -0.03564  -0.04296  -0.006656  -0.01176  -0.2649  0.8678
6.382e+09  -0.5219  0.7282  -0.0076  -0.006341  -0.007938  0.01912  0.02049  0.9449
6.384e+09  -0.2223  0.8822  0.03013  0.02653  0.003463  0.05124  0.3682  0.8669
6.385e+09  0.1289  0.8947  0.01569  -0.0005379  0.03489  0.01042  0.648  0.6964
6.386e+09  0.4123  0.7359  0.002382  -0.004652  0.001465  -0.004268  0.8285  0.4414
6.388e+09  0.6555  0.5746  -0.04297  0.0228  -0.007384  0.001523  0.9584  0.1212
6.389e+09  0.86  0.3405  -0.02163  0.007776  0.01052  -0.03715  0.866  -0.1866
6.39e+09  0.8724  0.03888  0.02392  -0.004354  0.04093  -0.0126  0.778  -0.512
6.391e+09  0.8233  -0.267  0.01461  -0.04603  0.04416  0.02834  0.5678  -0.7406
6.392e+09  0.6966  -0.5847  0.01435  -0.008677  0.01112  -0.03339  0.3189  -0.8594
6.394e+09  0.468  -0.7609  0.01137  -0.006947  -0.002664  -0.01559  0.01861  -0.9202
6.395e+09  0.1782  -0.9326  -0.03977  0.005432  0.02772  -0.01193  -0.3418  -0.8405
6.396e+09  -0.18  -0.8955  -0.02663  -0.03856  0.001736  0.02276  -0.5895  -0.7042
6.398e+09  -0.4611  -0.7912  -0.03045  -0.034  0.01045  -0.008535  -0.8564  -0.4259
6.399e+09  -0.6754  -0.6034  -0.02847  0.002252  -0.02648  -0.04328  -0.8833  -0.1423
6.4e+09  -0.8565  -0.3203  0.0006088  0.01669  0.0261  0.01471  -0.9315  0.147
6.401e+09  -0.8642  -0.02119  -0.02771  0.01098  0.0191  -0.04951  -0.7734  0.4644
6.402e+09  -0.8393  0.2749  0.01127  -0.01876  -0.02728  -0.02939  -0.5591  0.7434
6.404e+09  -0.6242  0.5147  0.03324  -0.02606  -0.02633  -0.006756  -0.3091  0.8633
6.405e+09  -0.4241  0.7531  0.01676  0.0263  0.03922  0.007189  -0.001405  0.9186
6.406e+09  -0.141  0.8455  0.03345  0.005557  -0.01594  0.004519  0.2915  0.8735
6.408e+09  0.1053  0.9005  -0.02055  0.01898  -0.01109  0.03647  0.5825  0.695
6.409e+09  0.4701  0.7747  0.01826  -0.008448  0.005227  -0.01127  0.7804  0.4549
6.41e+09  0.6658  0.5781  -0.01791  -0.02117  0.03621  0.07298  0.9203  0.1589
6.411e+09  0.8382  0.3358  -0.0552  0.04534  0.04392  -0.02832  0.8998  -0.1433
6.412e+09  0.9069  -0.009913  -0.006145  -0.02594  -0.02893  -0.005076  0.7964  -0.4405
6.414e+09  0.8373  -0.3053  0.004908  0.01087  0.03024  0.006705  0.6092  -0.7188
6.415e+09  0.722  -0.6008  0.0005732  -0.034  0.08664  -0.01753  0.3041  -0.8348
6.416e+09  0.4433  -0.7732  0.08327  -0.004965  0.02174  0.006077  0.09034  -0.8993
6.418e+09  0.128  -0.8865  0.02006  0.005102  0.02905  0.03309  -0.2654  -0.8425
6.419e+09  -0.1856  -0.8942  0.04549  -0.03367  -0.005287  0.01596  -0.5218  -0.6967
6.42e+09  -0.4277  -0.7319  -0.0144  0.0222  0.04151  0.0006598  -0.7932  -0.4634
6.421e+09  -0.7128  -0.5918  0.01088  -0.01372  -0.0159  -0.04607  -0.8678  -0.1872
6.422e+09  -0.8323  -0.3585  -0.03922  -0.02223  0.03638  -0.006862  -0.9289  0.125
6.424e+09  -0.868  0.02297  0.006466  -0.02271  0.0442  -0.02803  -0.7415  0.4503
6.425e+09  -0.8264  0.3259  0.01388  -0.02691  -0.01543  -0.06949  -0.5792  0.6247
6.426e+09  -0.6737  0.6229  -0.007692  -0.01236  0.05501  0.01575  -0.3661  0.8043
6.428e+09  -0.4277  0.7688  0.008328  0.0203  -0.01144  0.001438  -0.03711  0.893
6.429e+09  -0.1337  0.8922  0.02754  -0.02178  0.001781  -0.006059  0.2535  0.8417
6.43e+09  0.1361  0.8737  0.004709  -0.03652  0.01915  0.04763  0.483  0.6852
6.431e+09  0.5032  0.7172  0.03566  -0.02802  0.03146  0.04186  0.7343  0.4904
6.432e+09  0.6581  0.5269  0.03347  0.01633  0.006486  -0.003026  0.8396  0.1964
6.434e+09  0.8643  0.2368  0.01328  -0.04622  -0.008131  -0.05152  0.8419  -0.07701
6.435e+09  0.9394  -0.02007  -0.02614  0.03467  0.02567  -0.01859  0.7734  -0.319
6.436e+09  0.8221  -0.3153  -0.0006483  -0.02012  0.01207  0.007089  0.582  -0.621
6.438e+09  0.7121  -0.6289  0.02251  0.02252  0.03306  -0.00222  0.3786  -0.7595
6.439e+09  0.3917  -0.7803  0.01103  0.04656  -0.04429  -0.04713  0.07378  -0.8446
6.44e+09  0.1372  -0.9406  0.0135  0.02522  0.03132  0.03163  -0.2558  -0.8543
6.441e+09  -0.2124  -0.8628  0.02716  -0.01226  -0.005863  0.02469  -0.5162  -0.7315
6.442e+09  -0.4309  -0.7762  -0.0165  0.01978  0.04369  0.0475  -0.7002  -0.489
6.444e+09  -0.6914  -0.5813  -0.007526  -0.04268  -0.0008738  -0.02263  -0.8341  -0.1946
6.445e+09  -0.8336  -0.279  0.01735  0.01945  0.01377  -0.02421  -0.8287  0.08017
6.446e+09  -0.9216  0.04252  0.03523  -0.01542  -0.04562  -0.002828  -0.787  0.3507
6.448e+09  -0.8321  0.326  -0.000834  0.007804  0.009911  -0.01042  -0.6096  0.6293
6.449e+09  -0.6345  0.6235  -0.05916  0.01792  0.006057  0.0442  -0.3243  0.7287
6.45e+09  -0.3886  0.7813  0.01206  -0.004207  0.005172  0.03573  -0.06065  0.8275
6.451e+09  -0.04539  0.9078  -0.02114  -0.001127  -0.018  0.008993  0.2024  0.7489
6.452e+09  0.241  0.8933  -0.002148  0.02821  0.03752  0.001889  0.4694  0.7066
6.454e+09  0.4558  0.7557  0.04298  -0.003845  -0.03049  -0.02364  0.6716  0.4493
6.455e+09  0.7693  0.5138  -0.02222  0.01776  0.008585  0.03086  0.8175  0.2407
6.456e+09  0.8968  0.2459  -0.01119  -0.004099  -0.0157  0.04182  0.8758  -0.07325
6.458e+09  0.8676  -0.09681  -0.02338  -0.002003  0.02105  0.00972  0.786  -0.3761
6.459e+09  0.813  -0.3976  0.04106  0.01059  0.03025  0.01167  0.532  -0.5876
6.46e+09  0.6659  -0.6583  -0.002701  0.02344  -0.02293  -0.001139  0.3409  -0.7439
6.461e+09  0.4196  -0.8595  -0.02049  -0.03554  -0.05752  -0.005137  0.03519  -0.8709
6.462e+09  0.07624  -0.899  0.01237  0.008121  -0.04377  0.01786  -0.2291  -0.7727
6.464e+09  -0.3015  -0.8439  0.01805  -0.01373  -0.005486  0.0203  -0.5092  -0.6414
6.465e+09  -0.5396  -0.7766  0.01667  0.02035  0.01235  0.04625  -0.6717  -0.4723
6.466e+09  -0.7265  -0.5212  -0.01709  0.004743  0.0009989  -0.003473  -0.7579  -0.2227
6.468e+09  -0.8476  -0.193  0.004435  0.03445  -0.03678  0.008589  -0.8189  0.06969
6.469e+09  -0.8907  0.05796  0.004234  0.00433  0.01668  -0.03977  -0.7428  0.313
6.47e+09  -0.8243  0.297  0.01387  0.04098  -0.0212  0.009802  -0.5486  0.5259
6.471e+09  -0.6804  0.6025  -0.01024  0.05195  0.001358  -0.01299  -0.3417  0.7342
6.472e+09  -0.3852  0.8315  -0.01064  0.03488  -0.01921  0.04959  -0.07761  0.7909
6.474e+09  -0.06282  0.9043  -0.01855  0.006037  -0.02724  -0.03648  0.2241  0.7682
6.475e+09  0.2252  0.8845  -0.004838  0.01484  -0.03352  -0.0003134  0.4914  0.6434
6.476e+09  0.51  0.7091  -0.006133  -0.0134  -0.01068  -0.01694  0.6641  0.422
6.478e+09  0.696  0.5136  0.02051  -0.02611  -0.05365  -0.02864  0.7377  0.2345
6.479e+09  0.9046  0.2451  -0.01775  0.01318  -0.004736  -0.04746  0.7874  -0.1102
6.48e+09  0.912  -0.04621  -0.02774  0.0172  0.02061  -0.003294  0.7103  -0.3309
6.481e+09  0.8266  -0.3753  0.03708  0.004401  0.03209  0.04586  0.5759  -0.5862
6.482e+09  0.6184  -0.7072  -0.0395  -0.005218  -0.01909  -0.01324  0.3329  -0.7007
6.484e+09  0.3735  -0.8176  -0.004826  -0.00921  0.04689  0.004469  0.07036  -0.7427
6.485e+09  0.04535  -0.9247  -0.03895  -0.01758  0.03586  0.005046  -0.1839  -0.7694
6.486e+09  -0.2637  -0.8671  -0.005924  -0.01262  -0.03888  -0.007065  -0.4743  -0.6646
6.488e+09  -0.6101  -0.7386  0.01821  -0.01151  0.01646  0.01384  -0.6459  -0.4222
6.489e+09  -0.7709  -0.5491  -0.01945  0.00307  -0.00186  0.02701  -0.7737  -0.1836
6.49e+09  -0.9043  -0.2195  0.02266  -0.006094  -0.02184  -0.001871  -0.7692  0.103
6.491e+09  -0.9679  0.109  0.02707  -0.06234  0.001483  -0.03502  -0.6563  0.3648
6.492e+09  -0.8733  0.4106  -0.04339  -0.0227  -0.0008913  -0.008411  -0.5739  0.5689
6.494e+09  -0.6325  0.6927  -0.01705  -0.001169  0.03842  -0.0465  -0.308  0.711
6.495e+09  -0.3806  0.9254  0.009748  0.04516  -0.0179  0.01892  -0.0307  0.7577
6.496e+09  -0.06058  0.9343  -0.02293  0.02018  0.01064  -0.02396  0.2437  0.7278
6.498e+09  0.3025  0.934  0.01821  -0.009561  -0.0636  -0.0514  0.4508  0.6235
6.499e+09  0.6361  0.6746  0.01827  0.02784  0.0001758  0.0161  0.6689  0.4072
6.5e+09  0.7714  0.498  -0.0002885  0.01192  -0.04188  0.0147  0.7311  0.1704
6.501e+09  0.9305  0.2122  0.02758  -0.0168  0.01917  -0.003952  0.7414  -0.07325
6.502e+09  0.8957  -0.2027  -0.02155  0.01922  -0.02041  0.01716  0.6643  -0.3853
6.504e+09  0.8751  -0.4616  0.02849  -0.007421  0.01705  -0.01146  0.4874  -0.5561
6.505e+09  0.6041  -0.7301  -0.008524  -0.007936  -0.01314  -0.01104  0.2541  -0.703
6.506e+09  0.2939  -0.8793  -0.0416  -0.007923  0.03246  0.0009718  0.05547  -0.7259
6.508e+09  -0.009203  -0.9404  0.01629  -0.005706  -0.02374  0.01193  -0.2382  -0.6883
6.509e+09  -0.3431  -0.885  0.005713  0.01655  0.03626  -0.01883  -0.4939  -0.562
6.51e+09  -0.6422  -0.7781  -0.002798  -0.02899  -0.02889  0.0644  -0.6329  -0.3945
6.511e+09  -0.7868  -0.4489  0.0122  -0.04349  0.04816  -0.002767  -0.7349  -0.1064
6.512e+09  -0.9728  -0.1792  -0.02278  -0.02658  -0.009932  -0.01898  -0.7381  0.1066
6.514e+09  -0.9793  0.1644  -0.004015  0.0391  0.01506  0.02428  -0.6522  0.4161
6.515e+09  -0.7699  0.5079  -0.01867  -0.01606  0.01181  -0.003508  -0.4937  0.6001
6.516e+09  -0.5776  0.8016  -0.05594  -0.01142  -0.03233  0.03585  -0.2674  0.707
6.518e+09  -0.2869  0.8983  0.009815  0.02367  0.007593  0.001643  -0.01373  0.7421
6.519e+09  0.09094  0.9636  0.007743  0.0216  -0.02124  -0.01434  0.2691  0.6749
6.52e+09  0.3965  0.9224  -0.02793  0.005205  0.01593  -0.02189  0.5006  0.5605
6.521e+09  0.6414  0.7206  0.0044  0.01573  -0.0194  0.01256  0.6676  0.352
6.522e+09  0.8691  0.4682  -0.003119  0.05382  0.006633  0.03635  0.7139  0.09379
6.524e+09  0.9659  0.1068  0.005432  -0.01803  -0.02291  -0.03193  0.6914  -0.1697
6.525e+09  0.9704  -0.2645  -0.01038  -0.001701  0.01133  0.002638  0.6199  -0.3946
6.526e+09  0.7759  -0.5699  0.01144  0.01212  -0.01955  0.002423  0.4531  -0.5729
6.528e+09  0.5396  -0.8369  0.002529  -0.0009813  -0.036  0.03627  0.1779  -0.7179
6.529e+09  0.2126  -0.924  -0.009404  0.01285  0.006135  0.04196  -0.05176  -0.6816
6.53e+09  -0.1019  -0.965  -0.01091  -0.001995  0.01365  0.03768  -0.2909  -0.6334
6.531e+09  -0.4332  -0.815  0.03021  -0.0008701  -0.03629  -0.05016  -0.4479  -0.4748
6.532e+09  -0.7342  -0.6913  0.007765  0.005115  0.02465  0.0009479  -0.5641  -0.3088
6.534e+09  -0.9343  -0.3778  -0.007501  0.009137  -0.02764  -0.01391  -0.599  -0.07553
6.535e+09  -0.9918  -0.02684  -0.006237  -0.01998  0.01058  -0.01933  -0.6261  0.1411
6.536e+09  -0.928  0.2536  -0.01127  -0.006819  -0.0003478  0.03501  -0.5743  0.3185
6.538e+09  -0.7781  0.5753  -0.0023  0.002184  -0.0286  -0.0605  -0.4753  0.4831
6.539e+09  -0.4633  0.8575  -0.03954  0.06094  0.01157  -0.03237  -0.255  0.6168
6.54e+09  -0.2063  0.919  -0.01926  -0.002048  0.02559  0.03772  -0.0448  0.679
6.541e+09  0.2218  0.9664  -0.02182  0.01344  0.01448  0.003216  0.1914  0.6945
6.542e+09  0.4676  0.8521  -0.02676  -0.02531  -0.01369  -0.02115  0.4069  0.5802
6.544e+09  0.7861  0.5804  -0.02909  0.007388  -0.02597  0.02449  0.5876  0.4089
6.545e+09  0.9172  0.29  0.005102  0.01683  0.005819  0.01696  0.6939  0.1792
6.546e+09  0.939  -0.02513  -0.00373  0.009123  0.04981  0.03145  0.709  -0.1029
6.548e+09  0.8955  -0.4278  -0.001031  0.01924  -0.03071  -0.01717  0.6437  -0.3195
6.549e+09  0.7606  -0.6697  -0.01319  -0.03854  0.04616  -0.008337  0.5207  -0.5117
6.55e+09  0.4293  -0.8129  -0.003746  -0.005238  -0.012  0.01494  0.2981  -0.6533
