# Hz S RI R 50
6.25e+09  -0.4484  0.8003  0.005648  -0.01695  -0.02446  0.04215  0.1498  0.4613
6.251e+09  -0.137  0.8182  -0.03001  0.01542  0.02009  -0.05372  0.3872  0.4087
6.252e+09  0.2183  0.8621  0.008348  -0.0004341  -0.03571  0.01206  0.551  0.2447
6.254e+09  0.4364  0.692  0.01195  -0.008246  0.04827  0.008566  0.584  0.001567
6.255e+09  0.7281  0.5331  -0.0144  -0.005817  -0.006742  0.07952  0.5963  -0.2409
6.256e+09  0.7654  0.2703  0.005407  0.01086  -0.0331  -0.0115  0.4867  -0.4359
6.258e+09  0.8456  -0.02011  -0.02  0.01815  -0.04195  -0.02732  0.2982  -0.5999
6.259e+09  0.7816  -0.3386  0.0349  0.01134  -0.007129  -0.03892  0.06376  -0.6872
6.26e+09  0.6487  -0.5211  0.01877  -0.002116  0.0272  -0.01589  -0.2469  -0.6527
6.261e+09  0.4839  -0.747  -0.03875  0.01282  -0.03546  -0.01091  -0.4297  -0.5306
6.262e+09  0.1039  -0.8565  -0.01411  -0.01495  -0.01723  -0.02225  -0.6176  -0.3395
6.264e+09  -0.1933  -0.7446  -0.001578  0.0003998  -0.03587  0.04797  -0.732  -0.1204
6.265e+09  -0.4326  -0.7381  0.013  0.002353  0.009218  -0.03359  -0.675  0.1492
6.266e+09  -0.6333  -0.4588  0.001021  -0.01504  0.005038  -0.06548  -0.6357  0.3813
6.268e+09  -0.808  -0.2852  -0.01301  0.003386  0.01063  -0.005482  -0.4078  0.6217
6.269e+09  -0.8672  0.0651  0.0148  -0.009234  -0.01002  -0.02444  -0.1951  0.7042
6.27e+09  -0.7725  0.3475  0.01851  -0.01101  -0.01224  0.008358  0.0743  0.735
6.271e+09  -0.6175  0.5523  -0.0006007  0.01851  -0.0007961  0.0509  0.3235  0.7003
6.272e+09  -0.4272  0.7295  0.02139  0.002739  -0.04429  0.05036  0.5515  0.5277
6.274e+09  -0.1273  0.7887  0.0324  -0.02404  0.0251  -0.0007358  0.7081  0.2786
6.275e+09  0.2  0.7883  0.02357  0.04158  0.03533  0.004531  0.7792  0.0466
6.276e+09  0.4497  0.6537  -0.00081  0.0158  -0.01271  -0.02009  0.7417  -0.2107
6.278e+09  0.6581  0.4976  0.01268  -0.01346  -0.06958  -0.01721  0.6288  -0.4499
6.279e+09  0.7511  0.2459  0.002807  -0.02707  0.009623  -0.02462  0.414  -0.6419
6.28e+09  0.7944  -0.07458  0.001021  0.005061  0.003646  -0.05254  0.1829  -0.7498
6.281e+09  0.7534  -0.3236  0.006288  0.004242  0.01056  -0.01197  -0.1157  -0.7609
6.282e+09  0.6258  -0.5448  0.01296  -0.009955  -0.01294  -0.04001  -0.353  -0.6856
6.284e+09  0.3599  -0.7359  0.004526  0.0354  -0.06983  0.0002345  -0.6215  -0.5158
6.285e+09  0.07847  -0.8122  0.007208  -0.03762  0.08159  -0.006895  -0.7492  -0.2742
6.286e+09  -0.2146  -0.7829  0.0185  0.001419  0.01689  0.04152  -0.7589  -0.007634
6.288e+09  -0.4968  -0.656  -0.002224  -0.001697  0.04457  -0.02488  -0.7817  0.2236
6.289e+09  -0.6994  -0.4784  0.0006384  0.02627  0.01546  -0.0157  -0.6279  0.5153
6.29e+09  -0.7804  -0.2017  -0.01294  -0.008935  0.0005066  -0.0426  -0.4319  0.7347
6.291e+09  -0.8069  0.08573  0.02502  -0.01226  -0.003445  -0.01577  -0.1819  0.8299
6.292e+09  -0.7251  0.3464  -0.003342  0.01509  0.003237  0.03131  0.1156  0.7696
6.294e+09  -0.5852  0.5955  0.0105  0.01427  -0.00681  -0.006939  0.4117  0.7057
6.295e+09  -0.3578  0.7515  -0.04061  0.03665  -0.01525  0.01166  0.6311  0.5408
6.296e+09  -0.003076  0.8272  -0.01912  0.009325  -0.01544  -0.02157  0.811  0.291
6.298e+09  0.2228  0.7874  0.0134  -0.02061  0.003305  0.01548  0.8081  0.006419
6.299e+09  0.4602  0.682  0.005538  -0.01199  0.06206  -0.009942  0.7743  -0.2939
6.3e+09  0.6765  0.4534  0.02751  -0.02568  -0.03469  0.002353  0.6379  -0.4923
6.301e+09  0.8511  0.2191  -0.03046  -0.02246  -0.01065  0.003533  0.4102  -0.6921
6.302e+09  0.8622  -0.1065  -0.008132  0.008584  -0.01336  -0.008451  0.1759  -0.8393
6.304e+09  0.7496  -0.4414  0.002243  0.0265  0.01777  0.03619  -0.1468  -0.8437
6.305e+09  0.57  -0.6185  -0.005592  0.01474  -0.04037  0.002319  -0.4503  -0.7435
6.306e+09  0.3053  -0.7685  -0.005018  -0.002899  -0.01191  0.00603  -0.6542  -0.5702
6.308e+09  0.03476  -0.8408  0.01237  -0.0182  -0.06884  0.05169  -0.8156  -0.2923
6.309e+09  -0.2836  -0.7719  -0.008723  -0.009563  0.0559  0.009386  -0.8523  -0.004075
6.31e+09  -0.5051  -0.6654  -0.008896  0.007578  -0.0324  -0.014  -0.8366  0.2756
6.311e+09  -0.7362  -0.3825  -0.01313  0.0135  0.03887  0.02942  -0.6733  0.5574
6.312e+09  -0.8681  -0.1684  0.007565  0.01727  0.03922  0.003614  -0.4672  0.7417
6.314e+09  -0.8516  0.1682  0.006198  0.01991  0.05695  -0.004807  -0.152  0.8725
6.315e+09  -0.7601  0.3825  0.005149  0.008057  0.04287  0.02846  0.08565  0.8739
6.316e+09  -0.5355  0.6239  -0.0174  0.006403  0.06047  -0.02598  0.4258  0.7864
6.318e+09  -0.2846  0.7879  0.005411  -0.009837  0.0007987  0.009245  0.6405  0.5748
6.319e+09  0.04986  0.8463  -0.02259  0.04056  0.02209  0.002897  0.8504  0.3086
6.32e+09  0.3249  0.7809  -0.007559  -0.05174  0.01109  0.01561  0.9044  -0.03132
6.321e+09  0.5729  0.6262  -0.004119  -0.02398  0.03391  0.001906  0.8579  -0.294
6.322e+09  0.7183  0.3958  -0.02293  -0.006882  0.005675  0.009042  0.7383  -0.5718
6.324e+09  0.869  0.1363  -0.01768  0.02132  0.05456  -0.002168  0.4786  -0.7408
6.325e+09  0.8431  -0.1757  0.004561  0.007825  -0.008241  0.0009551  0.1721  -0.9002
6.326e+09  0.6972  -0.4373  0.005938  -0.01084  0.04271  -0.0414  -0.1039  -0.9273
6.328e+09  0.5078  -0.6793  -0.003341  0.02226  0.0268  -0.005111  -0.4497  -0.7769
6.329e+09  0.2601  -0.811  0.002992  -0.004269  0.03957  0.03792  -0.6448  -0.61
6.33e+09  -0.03118  -0.8828  -0.0005536  0.01078  0.01228  -0.02463  -0.8508  -0.2881
6.331e+09  -0.3021  -0.8034  -0.01448  -0.0223  0.01424  -0.02122  -0.8748  0.012
6.332e+09  -0.6034  -0.6426  0.0142  -0.01024  -0.0009418  -0.04481  -0.8604  0.2803
6.334e+09  -0.7747  -0.3878  0.008243  0.009666  0.02377  -0.01345  -0.6924  0.5782
6.335e+09  -0.885  -0.1084  -0.004963  -0.01415  0.00156  0.02677  -0.4995  0.7691
6.336e+09  -0.9004  0.2633  0.02709  0.00084  -0.004734  -0.00115  -0.1885  0.906
6.338e+09  -0.661  0.4659  -0.008452  -0.01147  0.04621  0.03396  0.1121  0.9531
6.339e+09  -0.4834  0.7246  -0.006261  0.008393  -0.02753  0.009167  0.4376  0.7921
6.34e+09  -0.1942  0.8417  0.0004547  0.0009922  -0.02656  -0.01585  0.6959  0.6101
6.341e+09  0.09904  0.825  -0.03086  -0.001813  0.02383  -0.02781  0.8374  0.3727
6.342e+09  0.3949  0.8068  0.001287  -0.009311  0.007969  -0.00769  0.9176  0.06393
6.344e+09  0.6733  0.5767  -0.009647  -0.02713  0.01724  -0.02587  0.8681  -0.2961
6.345e+09  0.8471  0.3474  0.006849  0.001223  -0.022  -0.02404  0.7725  -0.5092
6.346e+09  0.8648  0.02573  -0.004463  -0.02275  0.0464  0.001244  0.5239  -0.7738
6.348e+09  0.9037  -0.289  0.02846  0.02115  -0.02976  0.03053  0.1789  -0.9272
6.349e+09  0.7103  -0.5894  0.00386  -0.01495  -0.007461  0.03046  -0.115  -0.9407
6.35e+09  0.4247  -0.7301  -0.0219  -0.009405  0.04766  0.01779  -0.41  -0.8663
6.351e+09  0.1476  -0.8661  0.006145  0.02647  -0.003315  0.008405  -0.654  -0.628
6.352e+09  -0.1755  -0.8426  -0.01506  0.01472  -0.02004  0.02174  -0.8913  -0.3777
6.354e+09  -0.4712  -0.7501  0.009898  0.01106  -0.02321  0.0388  -0.9258  -0.04839
6.355e+09  -0.701  -0.5891  -0.006729  -0.03502  0.004347  -0.003397  -0.9055  0.2469
6.356e+09  -0.843  -0.2719  -0.01228  -0.05136  -0.04289  -0.03025  -0.7542  0.517
6.358e+09  -0.8867  0.03288  0.009045  -0.05376  0.05607  0.02927  -0.5497  0.7644
6.359e+09  -0.8468  0.3975  -0.01572  0.03499  -0.03254  -0.01913  -0.2426  0.9229
6.36e+09  -0.6626  0.5703  -0.006534  0.01557  -0.04066  -0.05412  0.04507  0.9426
6.361e+09  -0.3654  0.8102  0.00281  -0.002274  0.01637  0.008582  0.4373  0.8458
6.362e+09  -0.07665  0.8672  -0.02298  0.02425  -0.03138  0.04595  0.6625  0.6629
6.364e+09  0.2004  0.8289  -0.0009458  -0.01581  0.02243  0.02527  0.8811  0.397
6.365e+09  0.4673  0.7251  -0.002936  0.02629  0.01064  -0.02115  0.9293  0.06445
6.366e+09  0.7541  0.4715  -0.01383  0.007116  0.05372  0.003999  0.9186  -0.2391
6.368e+09  0.8983  0.2252  -0.002774  0.01336  -0.03962  -0.01553  0.8037  -0.5608
6.369e+09  0.8535  -0.07768  -0.003935  -0.01381  -0.0393  0.006555  0.5066  -0.7594
6.37e+09  0.8362  -0.3755  0.01742  -0.008959  0.02239  -0.005364  0.2678  -0.9249
6.371e+09  0.5813  -0.6165  -0.006343  -0.02032  0.02774  0.007468  -0.08121  -0.9652
6.372e+09  0.4154  -0.782  0.004112  -0.02303  0.004934  -0.01121  -0.3936  -0.8807
6.374e+09  0.03986  -0.8904  0.02091  -0.0159  -0.0001904  -0.005312  -0.6663  -0.679
6.375e+09  -0.2823  -0.8948  0.05343  -0.001401  -0.02161  0.01423  -0.8489  -0.4451
6.376e+09  -0.5535  -0.7329  9.996e-05  -0.01387  0.002286  0.006225  -0.9575  -0.1251
6.378e+09  -0.7551  -0.4596  -0.01544  0.003537  -0.0275  0.01989  -0.9182  0.243
6.379e+09  -0.8561  -0.1802  0.0488  0.003948  -0.005428  0.02135  -0.8  0.4957
6.38e+09  -0.9082  0.1504  -0.0146  -0.03035  -0.002997  0.02724  -0.5757  0.7607
6.381e+09  -0.8099  0.4141  -0.009193  0.02379  0.03423  -0.03049  -0.2502  0.9066
6.382e+09  -0.602  0.6144  0.02884  0.01008  -0.00102  0.005382  0.06772  0.9547
6.384e+09  -0.3244  0.8413  -0.03118  0.008533  -0.02288  -0.01118  0.3735  0.9014
6.385e+09  -0.006504  0.9015  -0.01863  -0.02654  -0.02399  -0.02883  0.6706  0.6655
6.386e+09  0.2729  0.8478  0.02607  -0.01069  0.01824  0.04419  0.8263  0.4525
6.388e+09  0.5729  0.6491  -0.01309  0.03299  -0.0005954  0.0292  0.9187  0.1263
6.389e+09  0.8288  0.4459  0.004687  0.02818  -0.004943  0.03646  0.9245  -0.2081
6.39e+09  0.8866  0.1768  0.0007137  0.02143  0.0009874  -0.01204  0.8139  -0.5126
6.391e+09  0.9113  -0.2071  -0.01864  0.005926  0.03252  -0.01663  0.5747  -0.7527
6.392e+09  0.7556  -0.438  -0.009371  -0.01375  0.008713  0.01215  0.2641  -0.8549
6.394e+09  0.5814  -0.7418  -0.01472  -0.009836  0.002017  -0.06491  -0.01583  -0.9504
6.395e+09  0.2848  -0.8482  -0.02864  0.03841  0.03029  -0.009866  -0.3322  -0.8843
6.396e+09  -0.03792  -0.8708  -0.00936  -0.01792  0.006032  -0.003457  -0.6404  -0.7363
6.398e+09  -0.3513  -0.847  0.004933  0.02  -0.03185  0.02721  -0.8627  -0.4279
6.399e+09  -0.5957  -0.6976  -0.02265  0.009851  0.0001749  -7.864e-05  -0.8807  -0.1188
6.4e+09  -0.8161  -0.445  -0.05277  0.003765  -0.0496  -0.02319  -0.8766  0.1864
6.401e+09  -0.8887  -0.06959  0.01859  -0.01068  -0.0379  0.01204  -0.8227  0.4755
6.402e+09  -0.8739  0.2081  0.007684  9.388e-05  -0.01057  0.04795  -0.5909  0.7531
6.404e+09  -0.7828  0.5072  -0.03447  -0.008497  -0.01321  -0.004985  -0.3579  0.9055
6.405e+09  -0.5731  0.7316  -0.01566  -0.008084  0.02539  -0.01301  0.01601  0.899
6.406e+09  -0.227  0.8335  0.02241  0.004001  -0.009146  -0.001893  0.3465  0.8449
6.408e+09  0.0162  0.8841  0.04431  0.01668  0.01687  0.01121  0.6114  0.7025
6.409e+09  0.3219  0.8277  -0.03358  -0.02979  -0.009643  0.0146  0.786  0.4524
6.41e+09  0.6624  0.6373  -0.002841  0.002603  -0.03477  0.02371  0.917  0.1824
6.411e+09  0.7922  0.373  0.02743  0.01868  0.01603  0.02495  0.9057  -0.124
6.412e+09  0.8414  0.09119  -0.007056  0.0396  0.0175  0.01215  0.8037  -0.416
6.414e+09  0.8584  -0.2498  0.0262  0.01365  -0.03649  0.01272  0.6396  -0.673
6.415e+09  0.7036  -0.5164  0.01185  0.008355  -0.007153  -0.01488  0.3477  -0.8613
6.416e+09  0.5241  -0.7705  -0.02151  0.007567  0.01026  0.03294  0.01299  -0.8915
6.418e+09  0.2078  -0.8967  0.01629  -0.02283  -0.0008826  0.02894  -0.3098  -0.8843
6.419e+09  -0.08556  -0.9466  0.0061  -0.01411  -0.005945  -0.02249  -0.5663  -0.7018
6.42e+09  -0.3899  -0.7595  0.0003354  -0.01475  0.019  -0.02492  -0.711  -0.4882
6.421e+09  -0.602  -0.6022  -0.008368  -0.03068  0.009544  -0.04392  -0.8238  -0.1862
6.422e+09  -0.7962  -0.415  0.00108  -0.04187  -0.02758  -0.02199  -0.8761  0.1079
6.424e+09  -0.8467  -0.1241  0.01284  -0.0178  0.008487  -0.0004101  -0.788  0.3904
6.425e+09  -0.8885  0.2542  0.001302  -0.007423  -0.01346  0.003401  -0.5881  0.6231
6.426e+09  -0.6958  0.5314  0.0742  0.01315  -0.01056  -0.01541  -0.3478  0.8148
6.428e+09  -0.488  0.7432  -0.01276  0.009224  -0.002843  -0.03351  -0.06065  0.8686
6.429e+09  -0.1725  0.8648  0.009924  0.0266  0.01051  -0.01184  0.2794  0.8697
6.43e+09  0.1332  0.9023  -0.007725  0.02735  0.009526  0.006586  0.5208  0.7058
6.431e+09  0.4229  0.7334  -0.03305  -0.02542  -0.002939  -0.001301  0.7503  0.5112
6.432e+09  0.6844  0.654  0.01856  -0.01266  0.01698  -0.01804  0.8075  0.174
6.434e+09  0.8356  0.4255  0.01069  -0.04739  -0.01358  -0.05914  0.8576  -0.1211
6.435e+09  0.9484  0.02944  -0.01341  0.01486  -0.03261  -0.04927  0.7984  -0.3723
6.436e+09  0.8432  -0.2621  0.04332  -0.03755  -0.01364  0.02992  0.6176  -0.648
6.438e+09  0.7254  -0.5167  0.001882  -0.00817  0.03607  0.02009  0.3567  -0.8521
6.439e+09  0.4577  -0.7767  -0.0009473  -0.05025  0.0166  -0.0006601  0.083  -0.8864
6.44e+09  0.1948  -0.881  -0.03436  -0.03484  -0.01859  -0.0223  -0.2174  -0.7746
6.441e+09  -0.07183  -0.8688  0.02111  -0.05141  0.009517  0.03132  -0.5264  -0.6947
6.442e+09  -0.3451  -0.8486  0.008633  -0.005216  0.01789  0.002571  -0.703  -0.4293
6.444e+09  -0.6927  -0.624  0.01389  0.01544  0.008749  -0.006288  -0.8462  -0.1806
6.445e+09  -0.8291  -0.3816  -0.01202  0.03611  0.01389  -0.005178  -0.8482  0.07449
6.446e+09  -0.8762  -0.05767  -0.008908  0.01328  0.04348  0.01078  -0.7297  0.4261
6.448e+09  -0.8315  0.2916  -0.006722  0.03882  0.04404  -0.0006501  -0.5793  0.6052
6.449e+09  -0.716  0.5355  0.02503  0.004848  0.03629  -0.02491  -0.3331  0.7317
6.45e+09  -0.5188  0.7355  -0.0284  0.01283  -0.007347  -0.005897  -0.07389  0.8522
6.451e+09  -0.1393  0.8805  -0.01542  -0.01784  -0.002904  0.005579  0.2051  0.7571
6.452e+09  0.1384  0.9076  -0.01629  0.04083  0.006574  0.009816  0.4775  0.661
6.454e+09  0.3803  0.8257  0.01483  0.01225  -0.04883  -0.01141  0.6897  0.4546
6.455e+09  0.6224  0.5742  -0.005918  0.02481  -0.0182  0.02213  0.7785  0.2204
6.456e+09  0.8353  0.3349  0.03582  -0.0218  -0.02136  -0.04668  0.8694  -0.0921
6.458e+09  0.8913  0.06874  0.003609  -0.0007911  0.0268  -0.007665  0.7505  -0.3362
6.459e+09  0.8389  -0.2211  -0.02213  0.006999  0.01907  -0.03055  0.5455  -0.5674
6.46e+09  0.7055  -0.5404  0.006233  0.03494  0.03043  0.02461  0.3366  -0.7591
6.461e+09  0.5177  -0.7646  0.01304  -0.0001689  -0.004302  -0.05928  0.04711  -0.8179
6.462e+09  0.1752  -0.9203  0.01498  -0.008907  0.02717  0.06571  -0.2237  -0.7961
6.464e+09  -0.1701  -0.8697  0.03894  -0.01735  -0.01996  -0.04743  -0.4982  -0.6616
6.465e+09  -0.3664  -0.8111  -0.01435  0.04584  0.01589  0.01726  -0.7087  -0.4386
6.466e+09  -0.6134  -0.5994  -0.01669  0.02383  0.0523  0.0007002  -0.7759  -0.1993
6.468e+09  -0.7719  -0.372  -0.001426  0.008628  -0.02131  -0.06715  -0.7921  0.07481
6.469e+09  -0.8723  -0.08009  0.01004  0.02982  0.02663  -0.05105  -0.7495  0.3544
6.47e+09  -0.8779  0.2582  -0.012  -0.02184  0.02044  0.03874  -0.5312  0.5838
6.471e+09  -0.673  0.5525  -0.01943  0.01789  0.01995  -0.008929  -0.3172  0.7217
6.472e+09  -0.444  0.7531  -0.0267  -0.02074  -0.01617  0.05634  -0.05778  0.8136
6.474e+09  -0.2087  0.8472  -0.005594  -0.02174  -0.01793  0.001753  0.2108  0.8046
6.475e+09  0.1648  0.8906  0.01732  0.04263  0.02873  0.02137  0.4364  0.6985
6.476e+09  0.4227  0.7789  -0.03934  -0.04725  0.0187  0.01771  0.6632  0.4481
6.478e+09  0.6311  0.6123  0.004291  0.009869  -0.0268  -0.0145  0.7251  0.1676
6.479e+09  0.8681  0.3144  -0.008243  0.0009242  -0.00332  0.02145  0.8194  -0.1108
6.48e+09  0.8681  0.01504  0.01094  -0.001242  0.0383  0.01361  0.7338  -0.3627
6.481e+09  0.885  -0.2427  -0.03114  0.02537  -0.02136  0.01503  0.5569  -0.6177
6.482e+09  0.7006  -0.6102  0.05185  -0.01374  -0.01336  0.0357  0.3294  -0.7135
6.484e+09  0.4726  -0.7398  -0.0129  0.02526  -0.05383  -0.01964  0.06435  -0.7845
6.485e+09  0.1571  -0.9032  -0.001489  0.05583  0.06325  -0.00885  -0.1922  -0.78
6.486e+09  -0.09622  -0.8763  -0.0303  0.01439  -0.02939  0.01259  -0.4714  -0.6397
6.488e+09  -0.4371  -0.8028  0.01467  -0.01485  0.02732  0.02426  -0.6427  -0.4121
6.489e+09  -0.6908  -0.6384  0.03703  0.02423  -0.01471  -0.02143  -0.7818  -0.2147
6.49e+09  -0.8524  -0.3404  -0.006364  -0.02676  -0.01487  0.0121  -0.7391  0.05499
6.491e+09  -0.8263  0.02715  0.01828  0.001484  0.01511  -0.002719  -0.6968  0.3517
6.492e+09  -0.891  0.3459  0.04333  0.01156  0.03951  -0.0398  -0.4953  0.5565
6.494e+09  -0.7206  0.5811  0.02135  -0.01499  0.002499  0.007675  -0.284  0.771
6.495e+09  -0.3862  0.7923  -0.01529  0.007861  -0.003872  0.02053  -0.01225  0.7739
6.496e+09  -0.1659  0.9233  -0.06985  -0.0006198  -0.05693  -0.003483  0.244  0.7579
6.498e+09  0.1783  0.9868  0.02272  0.005621  0.005189  -0.01064  0.4467  0.6133
6.499e+09  0.5008  0.8396  -0.01168  0.01402  0.02272  -0.009831  0.6064  0.4216
6.5e+09  0.7032  0.5889  0.0173  -0.04893  0.01699  -0.02099  0.7382  0.1854
6.501e+09  0.878  0.3115  -0.0101  0.0085  0.004891  0.01562  0.7608  -0.1018
6.502e+09  0.957  0.009846  -0.008503  0.003113  -0.01547  -0.0009877  0.6585  -0.3824
6.504e+09  0.9136  -0.2737  -0.0144  0.0204  -0.004051  0.03933  0.5077  -0.5891
6.505e+09  0.7062  -0.6367  -0.02816  -0.007306  -0.001381  -0.08022  0.2362  -0.7289
6.506e+09  0.4201  -0.7906  -0.01336  0.02164  -0.001673  0.02176  -0.01201  -0.7551
6.508e+09  0.1674  -0.9991  -0.01454  -0.001294  -0.01247  -0.03989  -0.2773  -0.7026
6.509e+09  -0.2307  -0.8917  -0.01277  -0.0001049  0.02397  0.07387  -0.473  -0.58
6.51e+09  -0.54  -0.8025  0.01522  -0.01404  0.05865  0.02371  -0.6752  -0.3981
6.511e+09  -0.7304  -0.6108  -0.002781  0.0151  -0.00546  0.02836  -0.742  -0.1099
6.512e+09  -0.9706  -0.3173  0.01019  0.000927  0.0141  -0.06147  -0.7463  0.1508
6.514e+09  -1.017  0.06744  0.007762  0.005654  -0.004185  0.06534  -0.6549  0.3561
6.515e+09  -0.9485  0.3811  -0.003719  0.02736  -0.0135  -0.006279  -0.4723  0.5764
6.516e+09  -0.6382  0.6914  0.009965  0.01204  0.04073  0.02992  -0.2641  0.7194
6.518e+09  -0.3588  0.8806  0.01082  0.001218  0.02368  -0.0005601  0.01848  0.7558
6.519e+09  -0.08916  0.9369  0.008845  0.00405  -0.06524  0.000212  0.2445  0.7042
6.52e+09  0.2518  0.9156  0.01663  -0.05286  -0.02137  -0.008741  0.4835  0.511
6.521e+09  0.5293  0.7516  -0.02814  0.03612  -0.06039  -0.01915  0.6833  0.3663
6.522e+09  0.8275  0.5448  -0.01477  -0.02821  0.03421  -0.004443  0.739  0.09663
6.524e+09  0.9852  0.2339  0.0146  -0.001038  -0.01797  0.02384  0.6969  -0.1306
6.525e+09  0.957  -0.14  -0.01069  0.007837  0.0337  -0.01115  0.6006  -0.367
6.526e+09  0.8503  -0.4313  0.01078  -0.01819  -0.007339  -0.04342  0.4445  -0.5793
6.528e+09  0.6397  -0.7131  -0.02772  -0.01284  0.02871  -0.05834  0.2076  -0.7063
6.529e+09  0.3692  -0.8781  -0.02878  0.02587  0.01324  0.0001882  -0.03791  -0.7113
6.53e+09  0.07083  -0.9321  0.01135  0.008374  -0.02724  -0.009177  -0.2965  -0.6554
6.531e+09  -0.2483  -0.9161  0.01247  -0.0285  -0.04527  -0.00592  -0.4686  -0.4233
6.532e+09  -0.5987  -0.7128  0.0008797  -0.03275  -0.006512  -0.01519  -0.6241  -0.2784
6.534e+09  -0.8617  -0.4531  -0.008472  -0.005844  0.02035  -0.0004278  -0.6634  -0.07448
6.535e+09  -0.9878  -0.1885  0.0008214  -0.01094  0.01775  0.04069  -0.6276  0.1013
6.536e+09  -0.9301  0.1034  -0.00455  -0.01699  0.02569  -0.03031  -0.55  0.3382
6.538e+09  -0.8873  0.5162  -0.01971  0.001749  0.0406  0.023  -0.4516  0.483
6.539e+09  -0.6185  0.7715  -0.008427  0.02878  0.0009096  -0.01173  -0.2955  0.5678
6.54e+09  -0.3196  0.8918  0.02693  6.918e-05  0.02251  0.02167  -0.03511  0.6721
6.541e+09  0.02685  1.01  -0.003402  -0.01839  -0.0008488  -0.03585  0.2149  0.6427
6.542e+09  0.3594  0.8981  -0.003827  0.02158  0.05187  0.01323  0.4249  0.5768
6.544e+09  0.6427  0.7453  -0.02236  -0.001977  0.0517  -0.006765  0.6088  0.3965
6.545e+09  0.8415  0.3952  -0.001558  -0.01786  0.0361  0.01487  0.7097  0.1694
6.546e+09  0.957  0.1219  -0.006944  0.0276  0.02739  0.01849  0.7237  -0.0569
6.548e+09  0.972  -0.2129  0.05011  0.01799  0.02044  -0.006146  0.6263  -0.3553
6.549e+09  0.7884  -0.5358  0.01771  -0.005495  -0.01311  0.05102  0.495  -0.5508
6.55e+09  0.511  -0.7656  -0.009732  0.02277  0.0489  0.004094  0.2933  -0.6589
