# Hz S RI R 50
6.25e+09  -0.3603  0.8869  -0.004776  0.01398  -0.01733  0.02557  0.1739  0.4529
6.251e+09  -0.0007994  0.8688  -0.01595  0.01461  0.00605  0.06889  0.3856  0.3892
6.252e+09  0.3042  0.8066  -0.03605  -0.004647  0.04941  -0.02091  0.5307  0.2405
6.254e+09  0.5413  0.7307  0.01181  0.01475  -0.02877  0.02221  0.5938  0.02711
6.255e+09  0.7136  0.4414  -0.01489  0.01398  0.02058  0.03106  0.6314  -0.2446
6.256e+09  0.8095  0.1734  0.01391  -0.01181  0.02909  -0.006947  0.501  -0.4575
6.258e+09  0.8487  -0.1568  0.00675  -0.001973  0.04355  0.03499  0.2855  -0.5632
6.259e+09  0.6878  -0.3656  -0.01813  0.02992  0.06176  -0.08547  0.03349  -0.6588
6.26e+09  0.5586  -0.6458  0.02191  -0.004853  -0.09147  -0.0001024  -0.2241  -0.662
6.261e+09  0.3298  -0.7783  0.00934  -0.00236  -0.05687  -0.01719  -0.4333  -0.54
6.262e+09  -0.03011  -0.8734  -0.008965  -0.02154  0.02611  -0.04611  -0.6227  -0.3473
6.264e+09  -0.302  -0.765  0.0186  0.003684  0.01355  -0.02888  -0.7037  -0.1164
6.265e+09  -0.5444  -0.6493  -0.00621  -0.01051  0.03233  0.02416  -0.7089  0.1722
6.266e+09  -0.7233  -0.454  0.01358  -0.0463  -0.02194  0.01053  -0.6072  0.4221
6.268e+09  -0.8127  -0.1548  0.01231  -0.00549  -0.003062  0.005046  -0.4377  0.605
6.269e+09  -0.7952  0.1225  -0.0158  -0.007805  0.04983  -0.05248  -0.2016  0.6914
6.27e+09  -0.7043  0.3972  -0.0009058  -0.01352  0.05266  -0.01519  0.0662  0.7635
6.271e+09  -0.582  0.6493  0.021  -0.03898  -0.0216  -0.04926  0.2997  0.6804
6.272e+09  -0.2833  0.8462  0.001849  0.01533  0.01117  0.02234  0.5568  0.5155
6.274e+09  0.004607  0.8357  0.005322  0.00133  0.04014  0.01457  0.6835  0.2778
6.275e+09  0.2818  0.7604  -0.02396  0.001877  0.01456  -0.004542  0.7367  0.03165
6.276e+09  0.548  0.6059  -0.01947  -0.01201  -0.003163  -0.01023  0.7161  -0.2123
6.278e+09  0.7256  0.4253  0.008328  0.0001259  0.07897  0.03148  0.6175  -0.4794
6.279e+09  0.8614  0.07616  -0.01165  0.009732  0.05343  0.01692  0.4049  -0.6346
6.28e+09  0.7883  -0.124  -0.01442  -0.02508  -0.08428  0.0153  0.1736  -0.7696
6.281e+09  0.7202  -0.422  0.02429  0.02217  0.03659  -0.003593  -0.1102  -0.7585
6.282e+09  0.5157  -0.6816  0.0002826  0.01514  0.001981  0.009951  -0.3757  -0.695
6.284e+09  0.2654  -0.7869  0.007737  0.01252  0.006611  -0.03015  -0.5995  -0.5082
6.285e+09  -0.0225  -0.8597  -0.01468  -0.003917  0.002176  -0.071  -0.7343  -0.2737
6.286e+09  -0.2972  -0.7334  0.01833  -0.013  0.004623  -0.01518  -0.7765  -0.0156
6.288e+09  -0.5727  -0.6053  -0.0179  -0.02979  0.02486  0.02001  -0.7144  0.28
6.289e+09  -0.7881  -0.3512  0.01388  0.03273  0.01359  0.01738  -0.6392  0.5152
6.29e+09  -0.8424  -0.1135  -0.00936  0.03002  0.02815  -0.02242  -0.4242  0.7004
6.291e+09  -0.8517  0.1411  -0.003891  0.00455  -0.02467  -0.01525  -0.1304  0.7665
6.292e+09  -0.7415  0.4295  -0.005818  0.01545  0.002629  -0.007571  0.1042  0.8099
6.294e+09  -0.5152  0.6742  0.03566  -0.002991  0.03094  0.05033  0.3952  0.6953
6.295e+09  -0.2432  0.8271  -0.01336  -0.007071  0.001457  0.01477  0.6355  0.5521
6.296e+09  0.06696  0.8515  0.02768  0.01634  0.04114  0.001042  0.7934  0.2854
6.298e+09  0.3252  0.7696  0.009927  0.0276  0.05187  -0.01368  0.8364  -0.002139
6.299e+09  0.5986  0.5786  0.003627  0.02667  -0.03654  -0.07251  0.7929  -0.2945
6.3e+09  0.8358  0.3893  0.00434  0.006349  -0.04796  0.02436  0.6482  -0.5179
6.301e+09  0.8404  0.05937  -0.03058  0.03146  -0.01192  -0.0343  0.4284  -0.7326
6.302e+09  0.8142  -0.1746  0.005707  -0.004615  -0.01228  -0.02411  0.1795  -0.8253
6.304e+09  0.6693  -0.4925  -0.01514  -0.01786  -0.01747  -0.05875  -0.1482  -0.8536
6.305e+09  0.4656  -0.6521  -0.01067  0.01347  -0.02668  0.01955  -0.4383  -0.7529
6.306e+09  0.2174  -0.7876  -0.01465  -0.02913  -0.01123  -0.01706  -0.6418  -0.5779
6.308e+09  -0.0554  -0.8528  -0.009047  -0.01203  0.01659  -0.02128  -0.811  -0.2771
6.309e+09  -0.3628  -0.7676  -0.004357  0.000273  -0.005411  0.0001868  -0.854  -0.002517
6.31e+09  -0.6318  -0.5547  -0.03317  -0.002495  -0.009405  0.01099  -0.7957  0.2903
6.311e+09  -0.7921  -0.3126  0.01752  0.002549  0.03149  0.0004605  -0.6661  0.5339
6.312e+09  -0.869  -0.05745  0.005286  0.01477  0.03188  -0.01044  -0.4546  0.7542
6.314e+09  -0.793  0.2578  0.01356  0.01692  0.04007  -0.01125  -0.1643  0.8439
6.315e+09  -0.6986  0.5402  -0.0004102  0.01288  -0.01299  -0.004771  0.1436  0.8684
6.316e+09  -0.4355  0.7001  0.02437  -0.01872  -0.01087  0.004075  0.4367  0.7579
6.318e+09  -0.2023  0.7983  -0.0084  0.007686  0.02834  -0.04355  0.6553  0.561
6.319e+09  0.1563  0.873  0.01215  -0.009819  0.002839  -0.01804  0.8414  0.312
6.32e+09  0.4279  0.74  -0.007416  -0.0114  -0.02295  0.005934  0.8896  0.03156
6.321e+09  0.6468  0.617  -0.02331  0.002005  -0.02406  0.01693  0.8101  -0.3246
6.322e+09  0.8455  0.2978  -0.01155  -0.02757  -0.01706  0.03235  0.6946  -0.5282
6.324e+09  0.8769  -0.02871  -0.01482  0.009275  -0.02067  -0.006711  0.451  -0.815
6.325e+09  0.7932  -0.278  -0.02564  -0.009839  -0.01984  0.02145  0.1563  -0.9042
6.326e+09  0.6293  -0.5504  0.001537  -0.01439  0.0006914  -0.01013  -0.1208  -0.8767
6.328e+09  0.3718  -0.7529  0.01574  -0.01434  -0.02322  -0.0192  -0.4163  -0.7896
6.329e+09  0.134  -0.8619  -0.02636  0.01208  0.02303  0.02554  -0.6709  -0.6173
6.33e+09  -0.1528  -0.8487  -0.01465  -0.009787  -0.02643  -0.03531  -0.8344  -0.3788
6.331e+09  -0.4553  -0.7179  -0.008409  0.004645  -0.01179  0.05325  -0.9354  -0.02871
6.332e+09  -0.7056  -0.5184  0.009277  0.005709  -0.02656  0.03025  -0.8974  0.2686
6.334e+09  -0.8418  -0.2454  0.006961  0.03307  0.01243  0.02772  -0.7288  0.5609
6.335e+09  -0.8721  0.07369  0.006435  0.01433  -0.03653  0.008975  -0.4937  0.8152
6.336e+09  -0.7786  0.3237  -0.0004083  -0.01089  -0.03154  0.02511  -0.1862  0.9316
6.338e+09  -0.6379  0.6315  -0.0001834  -0.0124  -0.01515  -0.01567  0.1569  0.897
6.339e+09  -0.3916  0.7592  -0.02262  0.007688  0.03699  -0.01771  0.4096  0.7803
6.34e+09  -0.1011  0.8306  0.0006661  -0.008539  0.05163  0.04275  0.6839  0.6512
6.341e+09  0.2074  0.8865  0.01097  0.01999  0.0114  0.01575  0.8371  0.3344
6.342e+09  0.5281  0.7231  -0.01665  0.0007275  -0.04974  0.006296  0.908  0.05869
6.344e+09  0.7185  0.4731  -0.02118  0.004133  0.06124  -0.03425  0.8695  -0.2925
6.345e+09  0.8612  0.1959  -0.006899  0.02095  -0.03944  0.01991  0.7326  -0.5593
6.346e+09  0.8499  -0.09837  0.003638  0.01413  0.02239  0.02598  0.4822  -0.8134
6.348e+09  0.7872  -0.4393  -0.04418  0.02499  -0.02544  -0.01405  0.1967  -0.9048
6.349e+09  0.6048  -0.6575  -0.005618  -0.01067  -0.003211  -0.01577  -0.1153  -0.9044
6.35e+09  0.3468  -0.7948  0.00236  0.008626  0.023  -0.01563  -0.3879  -0.842
6.351e+09  0.00495  -0.8574  0.02161  -0.00157  -0.03911  -0.05315  -0.6841  -0.68
6.352e+09  -0.2848  -0.8303  0.02247  0.02557  0.01356  0.0008641  -0.9042  -0.3718
6.354e+09  -0.5749  -0.7242  -0.01284  -0.03757  -0.02951  -0.004215  -0.9607  -0.06867
6.355e+09  -0.8099  -0.4445  0.04387  0.02086  0.04754  -0.03964  -0.9061  0.2928
6.356e+09  -0.8694  -0.1775  -0.001201  0.01526  -0.007979  -0.03146  -0.7732  0.5638
6.358e+09  -0.8635  0.192  -0.026  -0.004288  0.04283  0.01783  -0.5299  0.8211
6.359e+09  -0.7297  0.4294  -0.0499  0.0409  0.0458  -0.02426  -0.2054  0.8839
6.36e+09  -0.5588  0.7273  -0.05163  -0.02677  0.06051  -0.03828  0.1006  0.9891
6.361e+09  -0.2503  0.8148  0.005613  0.01499  -0.02986  0.00636  0.4146  0.875
6.362e+09  0.07528  0.8899  0.02675  0.009709  0.03787  -0.01508  0.6877  0.6681
6.364e+09  0.3459  0.819  -0.0008859  -0.005209  -0.007007  0.05247  0.8799  0.3788
6.365e+09  0.676  0.6494  0.004516  -0.004298  -0.02961  0.003144  0.9427  0.0724
6.366e+09  0.7888  0.4041  0.03423  0.03575  -0.01613  0.001962  0.9301  -0.2218
6.368e+09  0.8933  0.1067  0.0572  0.01049  0.009788  0.05907  0.7812  -0.5579
6.369e+09  0.8501  -0.2214  0.006785  -0.007763  0.002728  0.02121  0.5011  -0.7566
6.37e+09  0.7299  -0.5409  0.01263  -0.03795  0.01887  0.05664  0.2458  -0.8825
6.371e+09  0.4775  -0.6761  0.01805  0.01117  -0.02249  0.005578  -0.06318  -0.9599
6.372e+09  0.24  -0.8321  0.0002663  -0.007587  0.009064  -0.007061  -0.3969  -0.8379
6.374e+09  -0.09187  -0.886  -0.05072  -0.004644  0.03769  0.03258  -0.676  -0.6695
6.375e+09  -0.4001  -0.7741  -0.004152  -0.007227  0.005018  0.009076  -0.8252  -0.4053
6.376e+09  -0.6445  -0.6507  -0.0183  -0.001585  -0.02329  -0.003509  -0.9608  -0.07873
6.378e+09  -0.8709  -0.3729  -0.009585  0.007134  0.01425  0.03385  -0.9054  0.3079
6.379e+09  -0.9004  -0.09335  0.001536  0.02622  0.01368  -0.02347  -0.7976  0.5369
6.38e+09  -0.8481  0.2981  -0.02758  0.03264  -0.03467  0.01206  -0.5381  0.7935
6.381e+09  -0.7177  0.5807  -0.02879  0.02614  -0.004923  -0.0639  -0.3051  0.9437
6.382e+09  -0.4885  0.789  0.01125  0.01242  -0.01802  -0.03012  0.05607  0.9417
6.384e+09  -0.196  0.8435  0.007158  0.03804  0.02329  0.02603  0.413  0.8912
6.385e+09  0.1022  0.8744  -0.04154  -0.03461  -0.01633  -0.006276  0.643  0.6891
6.386e+09  0.4361  0.7798  0.01983  0.03932  -0.0284  0.05325  0.8329  0.4226
6.388e+09  0.6618  0.6224  -0.03098  -0.01741  -0.03159  0.0049  0.9422  0.18
6.389e+09  0.8376  0.3654  0.01485  -0.02147  -0.01722  -0.0004641  0.9438  -0.2104
6.39e+09  0.9306  -0.00784  0.0001889  -0.003236  -0.03427  0.04491  0.7953  -0.4884
6.391e+09  0.8124  -0.3205  0.00365  0.01324  -0.02069  -0.05535  0.5887  -0.7394
6.392e+09  0.7195  -0.5678  -0.03077  -0.01918  -0.02353  -0.01602  0.2696  -0.9254
6.394e+09  0.449  -0.7643  0.01345  -0.002778  -0.003161  0.03689  -0.01646  -0.9315
6.395e+09  0.1541  -0.885  -0.02165  0.01434  0.03555  -0.02421  -0.3232  -0.8583
6.396e+09  -0.1987  -0.8814  0.005998  -0.01663  0.01278  -0.01109  -0.6668  -0.7134
6.398e+09  -0.4578  -0.7557  -0.02265  -0.00829  0.009556  -0.002006  -0.7896  -0.447
6.399e+09  -0.6705  -0.5895  -0.04434  -0.00681  0.05534  -0.02473  -0.9183  -0.1355
6.4e+09  -0.8411  -0.2942  0.002448  0.02429  -0.0008845  -0.04178  -0.8973  0.2211
6.401e+09  -0.8715  0.01135  0.03226  -0.03292  0.01047  -0.01714  -0.817  0.4299
6.402e+09  -0.8446  0.2915  -0.01982  0.02042  0.04133  -0.05035  -0.5733  0.6809
6.404e+09  -0.7046  0.5739  -0.00349  -0.01968  -0.02681  -0.009158  -0.2863  0.8719
6.405e+09  -0.4428  0.7571  -0.00427  -0.01138  0.007101  -0.02366  0.03086  0.8974
6.406e+09  -0.1707  0.8519  0.01381  -0.01985  -0.01738  -0.02004  0.3153  0.8882
6.408e+09  0.1507  0.8674  -0.002508  -0.04233  0.05407  0.01286  0.5652  0.6552
6.409e+09  0.4861  0.737  0.001574  0.006878  -0.01235  -0.04293  0.777  0.462
6.41e+09  0.6993  0.5958  0.005338  0.02323  -0.01412  -0.02742  0.8982  0.1213
6.411e+09  0.8275  0.2626  -0.01383  -0.009066  -0.05549  -0.021  0.9022  -0.1409
6.412e+09  0.8725  -0.0271  0.02777  0.01322  -0.01197  0.006146  0.7573  -0.4755
6.414e+09  0.7911  -0.3083  -0.002047  -0.01638  -0.0326  0.005683  0.6183  -0.6894
6.415e+09  0.6349  -0.6008  0.01438  0.0135  -0.004457  -0.007862  0.3652  -0.7971
6.416e+09  0.4179  -0.7485  -0.02366  0.01053  -0.02512  -0.003741  0.004147  -0.9014
6.418e+09  0.1131  -0.858  0.008754  0.01096  0.01059  -0.01104  -0.2818  -0.8532
6.419e+09  -0.2079  -0.8752  -0.002377  -0.01667  -0.01379  0.005077  -0.6158  -0.7101
6.42e+09  -0.4736  -0.7558  0.0314  -0.01253  -0.01063  -0.04398  -0.7367  -0.4408
6.421e+09  -0.7117  -0.5745  -0.01229  0.004592  0.002803  -0.00506  -0.9236  -0.1804
6.422e+09  -0.8328  -0.2663  -0.02614  0.03252  -0.0232  0.001451  -0.8761  0.1366
6.424e+09  -0.8709  0.06298  -0.03452  0.0192  0.01026  0.03104  -0.7669  0.4375
6.425e+09  -0.8474  0.3447  0.012  0.01707  -0.008115  -0.03225  -0.6  0.644
6.426e+09  -0.6764  0.5909  -0.0116  0.007592  -0.03625  -0.005669  -0.3614  0.808
6.428e+09  -0.4065  0.7947  -0.006888  0.02523  0.03824  0.03065  -0.06385  0.8541
6.429e+09  -0.1448  0.8924  0.005895  -0.0004328  -0.0176  -0.004248  0.2115  0.8453
6.43e+09  0.18  0.8641  0.01544  0.001066  0.01212  0.01945  0.4861  0.6771
6.431e+09  0.5128  0.7679  -0.0318  -0.01637  0.01048  0.02537  0.6979  0.5012
6.432e+09  0.7223  0.51  -0.004182  -0.01094  0.01395  0.02649  0.8043  0.2169
6.434e+09  0.8497  0.2034  -0.01847  -0.04432  -0.01068  0.007038  0.8429  -0.1533
6.435e+09  0.7819  -0.05136  0.01049  -0.03481  -0.01732  0.04328  0.7989  -0.3725
6.436e+09  0.7839  -0.3966  0.03844  0.01402  0.01959  -0.02715  0.5289  -0.6451
6.438e+09  0.6458  -0.6412  -0.01401  -0.03401  -0.01992  -0.03126  0.3372  -0.7977
6.439e+09  0.3436  -0.8028  0.01709  -0.03443  -0.01645  0.01203  0.01254  -0.878
6.44e+09  0.1005  -0.8818  -0.008503  -0.04848  0.01673  -0.006469  -0.2392  -0.8219
6.441e+09  -0.2008  -0.8972  0.04464  -0.0001742  0.05882  0.008145  -0.4693  -0.7339
6.442e+09  -0.4509  -0.7886  -0.009056  -0.01479  -0.01445  -0.04628  -0.716  -0.4968
6.444e+09  -0.6923  -0.488  -0.005613  -0.02761  -0.01647  -0.00701  -0.815  -0.1817
6.445e+09  -0.8595  -0.2167  0.0224  -0.01274  0.01729  -0.01841  -0.8314  0.09303
6.446e+09  -0.9258  0.07397  -0.02258  0.01085  -0.001716  -0.01411  -0.7329  0.3757
6.448e+09  -0.8187  0.3774  0.006005  -0.001089  0.02715  -0.04519  -0.5756  0.5757
6.449e+09  -0.6998  0.6015  0.01679  -0.01675  0.03284  0.03571  -0.3768  0.7746
6.45e+09  -0.3886  0.8286  -0.006331  -0.01668  -0.01823  0.006109  -0.08179  0.8081
6.451e+09  -0.0753  0.8896  0.005705  -0.01055  -0.01377  0.01436  0.2326  0.7702
6.452e+09  0.2365  0.8613  0.00716  -0.0065  0.03441  0.02026  0.5181  0.6672
6.454e+09  0.5551  0.6743  -0.00983  0.008058  -0.02959  -0.01076  0.6643  0.4657
6.455e+09  0.676  0.5162  -0.03583  -0.06608  0.06346  -0.008535  0.8149  0.2282
6.456e+09  0.8775  0.2492  -0.001871  0.05415  0.01385  0.00901  0.8297  -0.04809
6.458e+09  0.9294  -0.09471  -0.007855  0.04103  -0.04242  0.01342  0.7357  -0.3848
6.459e+09  0.7909  -0.4196  0.01801  -0.02911  -0.02117  0.02036  0.6093  -0.5855
6.46e+09  0.6729  -0.6128  0.02736  0.005047  0.01145  -0.02671  0.3476  -0.7616
6.461e+09  0.3125  -0.8416  0.02322  -0.01404  0.005618  0.05241  0.0775  -0.8111
6.462e+09  0.09062  -0.9226  -0.01437  -0.02223  0.006028  -0.01023  -0.248  -0.7816
6.464e+09  -0.2437  -0.8639  0.007072  0.005347  0.04738  0.06894  -0.4498  -0.6467
6.465e+09  -0.5369  -0.7459  -0.03904  -0.03509  -0.01652  0.02755  -0.6724  -0.4772
6.466e+09  -0.7804  -0.502  -0.02616  -0.07046  0.01616  0.02353  -0.7729  -0.1869
6.468e+09  -0.9136  -0.2238  -0.001619  -0.01362  0.02876  -0.01325  -0.8014  0.06675
6.469e+09  -0.954  0.1232  0.009982  -0.03315  -0.01987  0.00183  -0.7207  0.3493
6.47e+09  -0.8445  0.3625  -0.01703  -0.02824  0.01212  0.02685  -0.5477  0.534
6.471e+09  -0.6135  0.602  0.037  -0.003315  0.03185  -0.007238  -0.3329  0.6972
6.472e+09  -0.3654  0.8691  -0.01212  0.02211  0.0009386  -0.01876  -0.04326  0.8154
6.474e+09  -0.06725  0.9068  0.0223  -0.006147  -0.05932  -0.01846  0.1811  0.7678
6.475e+09  0.3138  0.9199  -0.002013  -0.03699  -0.002337  -0.02326  0.4695  0.6904
6.476e+09  0.5306  0.6902  -0.02767  0.006178  -0.04047  -0.02395  0.6373  0.4428
6.478e+09  0.754  0.5197  -0.006008  0.0009681  -0.009428  0.037  0.7759  0.2023
6.479e+09  0.9219  0.288  0.0218  0.004534  0.008433  -0.01116  0.7455  -0.0668
6.48e+09  0.8715  -0.1137  0.002243  -0.01786  -0.01777  -0.007352  0.6672  -0.3176
6.481e+09  0.7725  -0.4069  0.001669  -0.01445  0.006136  -0.01801  0.5536  -0.5921
6.482e+09  0.6165  -0.689  0.006582  0.006368  0.005098  -0.02721  0.3517  -0.75
6.484e+09  0.3463  -0.8664  0.004982  0.00332  0.02328  0.04093  0.03578  -0.7267
6.485e+09  0.04186  -0.939  0.01689  0.02463  -0.03005  -0.03249  -0.1942  -0.7235
6.486e+09  -0.3348  -0.8898  -0.007469  0.0006831  0.01254  -0.02519  -0.4582  -0.6144
6.488e+09  -0.6001  -0.724  0.01445  -0.008526  -0.01464  -0.004997  -0.6328  -0.4187
6.489e+09  -0.7426  -0.5253  -0.02845  0.03243  -0.01155  0.01788  -0.7634  -0.1662
6.49e+09  -0.9202  -0.2022  0.01495  0.02548  0.01389  -0.03175  -0.7298  0.1166
6.491e+09  -0.9475  0.1678  0.002535  -0.02924  0.01892  -0.003643  -0.6303  0.347
6.492e+09  -0.8312  0.4531  0.001891  0.02304  0.007018  0.0142  -0.4984  0.5547
6.494e+09  -0.5805  0.6982  0.07678  0.01014  0.01238  0.0146  -0.3137  0.6607
6.495e+09  -0.3433  0.8457  -0.03725  0.01358  -0.01703  -0.0007647  -0.04434  0.7561
6.496e+09  -0.04539  0.9328  0.05728  -0.01673  -0.02312  -0.007664  0.2082  0.7464
6.498e+09  0.2884  0.9281  0.01405  0.035  0.01006  -0.03569  0.4619  0.6251
6.499e+09  0.6305  0.7073  -0.01326  0.02744  0.005769  -0.006064  0.6586  0.3936
6.5e+09  0.8371  0.4846  0.01869  0.008409  0.006655  0.03278  0.7475  0.1136
6.501e+09  0.91  0.1565  -0.01572  -0.01466  0.03987  0.0111  0.7612  -0.1145
6.502e+09  0.9898  -0.1735  -0.03204  -0.009454  -0.0285  0.009083  0.662  -0.3751
6.504e+09  0.8172  -0.4731  0.01102  -0.02384  -0.04318  -0.005495  0.5021  -0.5888
6.505e+09  0.6289  -0.7552  -0.003715  -0.01792  0.03181  -0.0144  0.2205  -0.7174
6.506e+09  0.2727  -0.9153  0.008514  0.02509  0.02026  0.02136  0.001831  -0.7404
6.508e+09  -0.0004152  -0.9389  -0.01039  0.01549  0.0164  0.06725  -0.2488  -0.7296
6.509e+09  -0.3365  -0.9206  -0.0163  0.03422  -0.02119  -0.02131  -0.4419  -0.6231
6.51e+09  -0.6386  -0.7858  0.03075  -0.006015  0.02184  -0.01576  -0.6372  -0.3737
6.511e+09  -0.8508  -0.4192  0.01996  -0.004866  -0.0176  -0.008536  -0.7376  -0.1466
6.512e+09  -0.9913  -0.1269  0.00173  0.01986  0.02327  -0.04814  -0.736  0.1293
6.514e+09  -0.8862  0.1836  0.04529  0.02061  -0.02454  -0.02104  -0.6227  0.3978
6.515e+09  -0.8218  0.5162  -0.02707  0.0241  -0.01825  -0.02125  -0.4864  0.5793
6.516e+09  -0.5677  0.7021  0.01968  0.002738  -0.0221  0.04265  -0.2346  0.7069
6.518e+09  -0.2241  0.9765  0.02528  -0.04855  -0.006692  0.003466  0.02236  0.7234
6.519e+09  0.04518  0.9342  -0.003899  -0.02942  -0.0239  0.01722  0.2447  0.7062
6.52e+09  0.4062  0.9212  0.02035  0.0104  -0.01549  0.01458  0.4994  0.5574
6.521e+09  0.7122  0.6533  0.0009462  -0.01706  0.04919  0.03587  0.6724  0.3377
6.522e+09  0.918  0.3918  -0.01318  -0.002227  0.001712  0.03855  0.7346  0.1269
6.524e+09  0.9642  0.05843  -0.02033  0.02075  0.0318  0.01398  0.6871  -0.1593
6.525e+09  0.9598  -0.3152  -0.01752  -0.004547  0.01674  -0.02772  0.6289  -0.4159
6.526e+09  0.781  -0.6189  0.004845  0.007842  0.01493  0.0192  0.4148  -0.5736
6.528e+09  0.5518  -0.805  -0.01491  -0.01299  0.006551  -0.02024  0.1853  -0.6743
6.529e+09  0.1785  -0.9832  0.001201  0.04354  -0.00368  -0.03268  -0.04474  -0.706
6.53e+09  -0.158  -0.9349  0.04664  0.008473  0.004092  0.04645  -0.2782  -0.6315
6.531e+09  -0.4553  -0.8899  -0.01672  0.003185  -0.01712  0.02262  -0.4711  -0.4617
6.532e+09  -0.7416  -0.6201  0.00416  -0.02538  0.01088  0.06728  -0.6025  -0.3154
6.534e+09  -0.9417  -0.3443  0.0136  0.01749  -0.006921  0.02458  -0.6079  -0.08404
6.535e+09  -0.9912  0.0094  0.0007971  0.0208  -0.006467  0.05711  -0.6339  0.1172
6.536e+09  -0.8536  0.3674  -0.01459  -0.02993  0.04114  -0.04134  -0.5617  0.2896
6.538e+09  -0.7375  0.6269  0.04348  -0.009359  -0.001192  0.005981  -0.4573  0.4827
6.539e+09  -0.446  0.8186  -0.006494  0.00708  -0.001115  -0.02002  -0.2686  0.6298
6.54e+09  -0.1593  0.9544  -0.00824  0.00954  -0.002313  -0.03178  -0.04348  0.6908
6.541e+09  0.2567  0.9791  0.01408  -0.02319  -0.04118  -0.00734  0.1982  0.7048
6.542e+09  0.4991  0.7847  0.001108  -0.02148  -0.002152  -0.02762  0.4188  0.5722
6.544e+09  0.7885  0.5422  -0.00138  -0.01479  -0.06105  0.01952  0.5707  0.4094
6.545e+09  0.9308  0.267  -0.01271  -0.02063  -0.01412  0.0158  0.6937  0.1518
6.546e+09  0.9849  -0.08968  0.00424  -0.003643  0.03141  0.03927  0.7411  -0.06081
6.548e+09  0.8629  -0.4019  -0.008708  -0.006402  -0.02991  0.0121  0.6277  -0.3297
6.549e+09  0.7035  -0.7213  -0.01119  0.005045  0.025  -0.03386  0.5127  -0.5381
6.55e+09  0.372  -0.8937  -0.0003384  0.03896  0.03216  0.01804  0.308  -0.6813
