# Hz S RI R 50
6.25e+09  -0.4762  0.8103  0.0352  -0.04348  0.01424  -0.01484  0.1635  0.4586
6.251e+09  -0.1026  0.7732  -0.03962  -0.01146  -0.04196  0.004602  0.3331  0.4172
6.252e+09  0.1649  0.7832  -0.01436  -0.01755  -0.04361  -0.00641  0.5474  0.2449
6.254e+09  0.4046  0.6834  -0.02953  -0.01682  -0.002619  -0.01514  0.6037  0.001021
6.255e+09  0.6979  0.5356  0.01651  0.00449  0.006527  0.01194  0.5821  -0.2409
6.256e+09  0.7895  0.2823  0.02164  0.04578  -0.01721  0.03348  0.4741  -0.4448
6.258e+09  0.8003  -0.05239  -0.01231  -0.008666  0.02397  -0.01351  0.2928  -0.6132
6.259e+09  0.7804  -0.3097  0.01414  -0.01067  0.00455  0.09144  0.02584  -0.6474
6.26e+09  0.6109  -0.588  -0.00523  -0.03124  -0.02505  0.03268  -0.2162  -0.6682
6.261e+09  0.4505  -0.7585  -0.01517  0.0008728  0.02015  -0.03388  -0.4784  -0.5533
6.262e+09  0.07998  -0.7693  -0.02339  -0.007375  0.05622  -0.0102  -0.6386  -0.3231
6.264e+09  -0.1709  -0.8082  0.03489  0.003516  0.02567  -0.04999  -0.7486  -0.1079
6.265e+09  -0.4817  -0.6731  0.01488  -0.02624  0.01788  0.02871  -0.6824  0.1777
6.266e+09  -0.7004  -0.5136  0.007523  -0.0131  -0.0004118  0.02356  -0.5887  0.3924
6.268e+09  -0.8127  -0.2749  -0.0169  -0.0173  -0.01072  -0.05452  -0.4383  0.5699
6.269e+09  -0.8003  0.02703  -0.002289  0.01179  -0.009619  -0.03096  -0.1471  0.7179
6.27e+09  -0.7557  0.3116  0.01397  -0.01068  0.05894  -0.05764  0.05818  0.7982
6.271e+09  -0.6167  0.5766  -0.01044  -0.007355  -0.0175  0.05704  0.3408  0.6824
6.272e+09  -0.3314  0.7439  -0.006213  0.01026  0.04258  0.02037  0.5789  0.5157
6.274e+09  -0.1001  0.8581  -0.005351  -0.0009235  0.001993  -0.005303  0.7109  0.3077
6.275e+09  0.1917  0.7783  -0.03733  -0.01604  0.02014  -0.04616  0.7558  0.004093
6.276e+09  0.4146  0.7505  0.0002213  0.02422  0.06493  0.005698  0.7195  -0.241
6.278e+09  0.6679  0.5087  0.002672  0.02377  0.006059  0.01425  0.5812  -0.4523
6.279e+09  0.7853  0.234  0.001973  -0.04066  -0.02098  -0.001898  0.4312  -0.6544
6.28e+09  0.828  -0.05622  0.009618  0.001287  0.03355  0.003999  0.1825  -0.7979
6.281e+09  0.7758  -0.343  -0.009617  0.01227  -0.01618  -0.03724  -0.1203  -0.7552
6.282e+09  0.6508  -0.5659  0.004237  0.009629  -0.001767  0.04122  -0.3679  -0.722
6.284e+09  0.3816  -0.7303  -0.008468  0.005532  -0.00994  -0.02288  -0.5882  -0.5376
6.285e+09  0.0812  -0.8082  -0.001239  0.02456  -0.02542  -0.02315  -0.7508  -0.2817
6.286e+09  -0.2195  -0.8114  -0.04862  0.01586  0.003387  0.01323  -0.81  -0.0335
6.288e+09  -0.4465  -0.7097  -0.0008924  0.009243  0.0291  0.01651  -0.7717  0.2705
6.289e+09  -0.6757  -0.4743  0.008967  0.004611  -0.01575  -0.01441  -0.6312  0.4972
6.29e+09  -0.8536  -0.1836  -0.01071  -0.004524  -0.02864  -0.01101  -0.4077  0.7134
6.291e+09  -0.8185  0.1092  0.02802  0.02707  0.05641  -0.07035  -0.1651  0.8163
6.292e+09  -0.7587  0.351  0.02197  0.00959  0.01514  -0.04557  0.1437  0.7834
6.294e+09  -0.6391  0.6261  0.02457  0.002277  -0.009186  0.03094  0.408  0.7261
6.295e+09  -0.332  0.7827  -0.0431  -0.01988  -0.01555  -0.01653  0.609  0.534
6.296e+09  -0.0803  0.8152  -0.02291  -0.01104  0.01072  -0.03225  0.7526  0.2923
6.298e+09  0.2576  0.7704  -0.02328  0.0001964  0.001026  0.004822  0.8372  0.003762
6.299e+09  0.485  0.6808  0.01221  0.00412  0.03827  0.02308  0.7629  -0.2864
6.3e+09  0.7646  0.4468  0.0005766  -0.009474  -0.02619  0.06794  0.6496  -0.5385
6.301e+09  0.8029  0.2211  -0.003909  -0.0182  0.01556  -0.006276  0.4236  -0.733
6.302e+09  0.8666  -0.1463  0.01997  -0.02408  -0.01707  0.005078  0.1461  -0.8556
6.304e+09  0.7839  -0.3667  0.02555  -0.005127  -0.01322  -0.06857  -0.1116  -0.877
6.305e+09  0.5689  -0.5567  -0.01571  0.01027  0.01208  0.05122  -0.3994  -0.7472
6.306e+09  0.3181  -0.7672  0.01098  -0.02582  0.01457  -0.02236  -0.6353  -0.5619
6.308e+09  0.03532  -0.8244  0.01676  0.02735  0.03504  0.006887  -0.844  -0.3244
6.309e+09  -0.2663  -0.7789  -0.002141  0.01243  0.007812  -0.008954  -0.8483  -0.01519
6.31e+09  -0.4627  -0.667  0.003006  0.02416  -0.02721  -0.04409  -0.8585  0.3163
6.311e+09  -0.6709  -0.4664  -0.01668  0.02014  -0.004919  -0.02536  -0.6562  0.559
6.312e+09  -0.7614  -0.1586  0.01082  -0.02947  0.01416  0.03953  -0.4597  0.7589
6.314e+09  -0.8408  0.1646  0.008135  0.01586  -0.03253  -0.0329  -0.1716  0.8509
6.315e+09  -0.7539  0.4046  -0.001134  0.01931  -0.003212  -0.05325  0.1361  0.881
6.316e+09  -0.5803  0.6511  -0.009109  0.00554  0.03538  -0.001775  0.4427  0.7594
6.318e+09  -0.2691  0.7859  0.02001  -0.04207  0.02373  -0.02783  0.6606  0.582
6.319e+09  -0.0008139  0.8958  0.01341  0.008219  -0.03226  -0.01028  0.8322  0.3327
6.32e+09  0.3148  0.7951  -0.00669  0.004886  0.007435  -0.02212  0.8817  -0.005683
6.321e+09  0.5358  0.659  0.03031  0.021  -0.00983  -0.05934  0.8847  -0.3155
6.322e+09  0.7225  0.3876  0.01466  0.01241  0.01487  -0.01614  0.7007  -0.5399
6.324e+09  0.8603  0.1133  0.01498  -0.003719  -0.01557  0.01027  0.4858  -0.7654
6.325e+09  0.8646  -0.1714  -0.03337  0.01989  -0.05756  0.005382  0.1869  -0.9026
6.326e+09  0.7512  -0.4618  0.01023  0.006509  0.01383  0.03517  -0.1223  -0.8897
6.328e+09  0.5332  -0.6535  -0.0009523  0.01511  0.02409  0.02974  -0.4407  -0.7914
6.329e+09  0.2462  -0.8446  -0.01037  0.001894  0.01282  -0.02487  -0.6763  -0.6189
6.33e+09  -0.03418  -0.8992  -0.02508  -0.02014  0.0005438  -0.02645  -0.8711  -0.3272
6.331e+09  -0.3475  -0.8071  -0.01575  0.000689  -0.001905  0.03474  -0.8936  -0.04589
6.332e+09  -0.6106  -0.6015  -0.01154  0.01957  -0.05553  -0.009817  -0.8691  0.2963
6.334e+09  -0.7659  -0.3505  -0.002387  0.02643  0.03428  -0.02298  -0.7347  0.5381
6.335e+09  -0.8789  -0.07839  0.01859  -0.00139  0.006561  -0.03864  -0.5121  0.7449
6.336e+09  -0.8156  0.2418  0.002484  -0.001997  0.01768  0.03142  -0.195  0.8981
6.338e+09  -0.6567  0.5033  -0.0004485  -0.01492  -0.004053  0.01119  0.1236  0.8572
6.339e+09  -0.5459  0.7476  -0.002049  0.01143  -0.03755  -0.001469  0.4092  0.8279
6.34e+09  -0.2113  0.9133  -0.03037  -0.0137  0.0246  -0.002103  0.6687  0.6048
6.341e+09  0.08523  0.8359  0.01759  0.01164  0.0296  -0.0274  0.8622  0.3351
6.342e+09  0.3697  0.7745  0.007948  0.04979  -0.05102  0.008158  0.9166  0.04666
6.344e+09  0.6809  0.5805  -0.008292  0.01288  -0.0204  -0.02292  0.9065  -0.2853
6.345e+09  0.8431  0.3362  0.02565  0.01849  -0.04275  0.02131  0.7145  -0.5328
6.346e+09  0.8873  -0.003577  0.02072  0.01186  0.05125  0.03103  0.4815  -0.8119
6.348e+09  0.8513  -0.2831  0.0004702  -0.001526  -0.02892  0.01002  0.2102  -0.8984
6.349e+09  0.6468  -0.5522  -0.02798  -0.004064  -0.009253  -0.04684  -0.111  -0.8976
6.35e+09  0.4344  -0.7796  -0.03002  0.01484  0.03644  -0.04331  -0.435  -0.857
6.351e+09  0.1845  -0.841  0.002507  -0.02592  0.02014  -0.004706  -0.6876  -0.6415
6.352e+09  -0.1695  -0.8836  0.02249  0.02179  -0.01435  0.003068  -0.8591  -0.4114
6.354e+09  -0.4759  -0.7581  0.02948  0.02937  0.003206  -0.02019  -0.9083  -0.0459
6.355e+09  -0.6437  -0.5909  0.0243  0.01616  -0.01832  -0.03287  -0.9006  0.2352
6.356e+09  -0.8555  -0.263  0.025  -0.01773  0.01797  0.0139  -0.7853  0.5723
6.358e+09  -0.8882  0.06756  -0.00368  -0.002387  0.002562  0.04695  -0.5245  0.7824
6.359e+09  -0.8262  0.3239  -0.01028  -0.008079  0.02876  -0.001717  -0.1974  0.9242
6.36e+09  -0.6999  0.6087  -0.009835  0.02373  -0.02279  -0.01114  0.1033  1.004
6.361e+09  -0.3848  0.8127  -0.05221  0.004343  -0.007401  0.01118  0.396  0.8682
6.362e+09  -0.1222  0.8643  -0.01139  -0.04572  0.06074  0.02038  0.6373  0.6757
6.364e+09  0.2397  0.9288  -0.02079  0.01477  -0.000476  0.02364  0.8584  0.4269
6.365e+09  0.5023  0.7175  0.01834  -0.01596  -0.02455  0.02081  0.9594  0.07062
6.366e+09  0.7558  0.5227  -0.01676  -0.03623  0.07682  0.03987  0.9253  -0.2627
6.368e+09  0.8803  0.2282  0.005155  -0.01265  -0.0008339  -0.02175  0.7863  -0.5626
6.369e+09  0.9068  -0.08912  0.01512  0.01907  -0.0124  -0.0263  0.5362  -0.7713
6.37e+09  0.7765  -0.3663  -0.01669  -0.008619  0.02111  -0.01798  0.2336  -0.9191
6.371e+09  0.6333  -0.6526  0.01082  0.01121  0.003339  -0.008956  -0.0593  -0.9616
6.372e+09  0.3302  -0.8061  0.0188  -0.009002  -0.0006112  0.00459  -0.4098  -0.8336
6.374e+09  0.04616  -0.932  0.0268  -0.02266  0.01362  -0.004358  -0.6866  -0.6349
6.375e+09  -0.2767  -0.856  0.0175  -0.03161  0.03347  -0.01559  -0.8788  -0.4046
6.376e+09  -0.5284  -0.7606  -0.01836  -0.03358  -0.04746  -0.003874  -0.952  -0.099
6.378e+09  -0.7604  -0.4719  0.008258  0.01776  -0.01963  0.05018  -0.8854  0.2233
6.379e+09  -0.8873  -0.1529  -0.0145  0.009731  -0.04835  0.002749  -0.8075  0.5404
6.38e+09  -0.8563  0.1443  -0.04694  0.04065  -0.002959  -0.03282  -0.5361  0.7389
6.381e+09  -0.7863  0.4304  -0.01338  -0.01806  0.007261  0.01007  -0.2596  0.8993
6.382e+09  -0.6011  0.7056  -0.0007348  0.01449  -0.01108  -0.03607  0.0379  0.9121
6.384e+09  -0.357  0.8107  -0.0255  -0.04253  0.01537  -0.00328  0.4186  0.8717
6.385e+09  0.02178  0.9187  -0.02929  -0.01229  0.01322  -0.005691  0.721  0.7017
6.386e+09  0.315  0.8218  -0.002295  0.005243  0.02562  -0.01383  0.8212  0.4506
6.388e+09  0.6036  0.6969  -0.04783  0.02391  0.01646  -0.006786  0.9345  0.06605
6.389e+09  0.7889  0.4569  0.04327  0.02484  -0.01439  0.01549  0.9505  -0.1935
6.39e+09  0.9153  0.1762  0.004653  0.01189  -0.004995  0.06061  0.7945  -0.4931
6.391e+09  0.8939  -0.2065  -0.03493  -0.007228  -0.02813  0.01991  0.5194  -0.7388
6.392e+09  0.7576  -0.45  -0.003049  0.01184  0.01841  0.01057  0.2931  -0.8534
6.394e+09  0.5917  -0.6956  0.03255  -0.00107  -0.02264  -0.01747  -0.02641  -0.9458
6.395e+09  0.3168  -0.7994  -0.01743  0.03522  -0.05574  0.01708  -0.3357  -0.8626
6.396e+09  -0.04387  -0.8817  -0.04696  -0.01699  0.001071  -0.02055  -0.592  -0.6561
6.398e+09  -0.3393  -0.8391  -0.0394  0.00389  -0.01476  0.02157  -0.8061  -0.4528
6.399e+09  -0.6169  -0.65  0.01521  0.001518  -0.001328  0.01957  -0.936  -0.1898
6.4e+09  -0.8115  -0.3868  -0.01169  0.008357  0.00455  0.03098  -0.8802  0.169
6.401e+09  -0.8702  -0.09384  0.06032  0.009293  0.001166  0.01439  -0.8  0.4709
6.402e+09  -0.8923  0.219  -0.02107  -0.005497  -0.01542  0.004203  -0.5189  0.7215
6.404e+09  -0.7273  0.4745  0.01637  0.004918  0.01265  0.01454  -0.3299  0.8842
6.405e+09  -0.5044  0.7016  0.02326  0.05802  0.006036  -0.03669  -0.01165  0.9224
6.406e+09  -0.2627  0.8223  -0.02576  0.01897  0.02262  -0.01955  0.2783  0.8512
6.408e+09  0.02665  0.8758  -0.02171  0.03981  -0.01803  0.01152  0.5831  0.7186
6.409e+09  0.3722  0.8065  -0.009684  0.05245  0.01272  0.02975  0.8065  0.4353
6.41e+09  0.5841  0.6862  -0.000533  0.04031  -0.01852  0.03754  0.8706  0.1676
6.411e+09  0.7768  0.4313  -0.02117  -0.02245  0.007686  0.05156  0.9312  -0.1373
6.412e+09  0.8863  0.09752  -0.03925  0.005131  0.001462  -0.004691  0.8112  -0.4171
6.414e+09  0.9286  -0.1814  -0.007762  0.02344  -0.01191  -0.02986  0.6218  -0.7066
6.415e+09  0.7455  -0.5092  -0.01574  0.02785  0.0654  0.00284  0.339  -0.8248
6.416e+09  0.5927  -0.7023  0.03275  0.01935  0.04136  0.03642  0.03383  -0.8985
6.418e+09  0.2339  -0.8809  0.03798  0.003501  0.05282  0.0008376  -0.2827  -0.8521
6.419e+09  -0.04556  -0.8912  -0.08271  0.04008  0.009714  -0.04475  -0.5989  -0.6699
6.42e+09  -0.3674  -0.8169  -0.002885  -0.0326  0.02135  0.03699  -0.8034  -0.4462
6.421e+09  -0.6114  -0.6046  -0.01244  0.01869  0.02302  -0.002735  -0.9114  -0.2017
6.422e+09  -0.816  -0.4314  0.0166  -0.00244  0.001129  -0.01841  -0.8493  0.1002
6.424e+09  -0.9161  -0.05178  0.03321  0.009538  0.00301  -0.03223  -0.8296  0.396
6.425e+09  -0.852  0.217  -0.009451  0.006202  0.05341  -0.003811  -0.5538  0.6575
6.426e+09  -0.7748  0.5082  0.007356  0.03716  0.01497  -0.007078  -0.3218  0.8278
6.428e+09  -0.4696  0.7307  -0.03142  0.004678  0.04319  -0.006134  -0.07956  0.9103
6.429e+09  -0.1988  0.8236  -0.05392  -0.01709  0.008726  0.02326  0.25  0.8656
6.43e+09  0.06788  0.8808  -0.01277  0.01751  0.008617  -0.003856  0.5118  0.7064
6.431e+09  0.3706  0.7824  0.01724  0.02246  0.01552  0.0239  0.6921  0.4925
6.432e+09  0.6022  0.6607  -0.009349  -0.04653  -0.02322  0.002023  0.8659  0.1735
6.434e+09  0.7776  0.4003  0.01638  0.0247  -0.001879  -0.0365  0.8716  -0.09045
6.435e+09  0.8701  0.03487  0.02487  -0.01224  0.007448  0.002428  0.8096  -0.3546
6.436e+09  0.8497  -0.2254  0.01275  0.01787  -0.05695  0.01624  0.6413  -0.6214
6.438e+09  0.7635  -0.4991  -0.006754  0.0004312  -0.0002312  0.005541  0.3512  -0.8089
6.439e+09  0.4881  -0.7187  -0.03644  0.0265  -0.0011  -0.0193  0.07498  -0.8705
6.44e+09  0.1919  -0.8702  -0.03969  -0.004434  -0.02136  0.03693  -0.1925  -0.8142
6.441e+09  -0.08017  -0.8653  -0.04223  -0.007883  0.002014  0.02249  -0.5165  -0.7191
6.442e+09  -0.3993  -0.8108  0.02801  0.04182  -0.0264  -0.01242  -0.7192  -0.4521
6.444e+09  -0.6328  -0.661  0.0406  0.007379  -0.0282  0.01738  -0.8689  -0.2154
6.445e+09  -0.8562  -0.3744  0.02063  -0.03138  -0.02025  -0.004327  -0.8358  0.1045
6.446e+09  -0.8758  -0.04786  -0.01864  0.008208  0.01019  0.0115  -0.7762  0.3549
6.448e+09  -0.8109  0.2381  0.03406  -0.01487  0.007073  0.06511  -0.5801  0.5892
6.449e+09  -0.7263  0.5513  0.001257  -0.000654  -0.03404  0.02633  -0.3511  0.7418
6.45e+09  -0.5244  0.737  -0.01271  -0.0254  -0.000605  0.04359  -0.06896  0.8348
6.451e+09  -0.2108  0.8957  -0.001025  -0.02744  0.03167  0.008463  0.2165  0.8058
6.452e+09  0.1339  0.8502  0.02604  0.02968  -0.005069  -0.009948  0.4678  0.7147
6.454e+09  0.4086  0.8094  -0.01219  -0.02825  0.03967  -0.02509  0.6753  0.4948
6.455e+09  0.6239  0.6308  -0.03774  0.008087  -0.03118  0.04952  0.7911  0.2484
6.456e+09  0.805  0.3214  -0.00203  0.001281  0.02215  0.02526  0.8268  -0.122
6.458e+09  0.8329  0.0481  -0.02769  0.01833  -0.02181  -0.000359  0.7232  -0.3411
6.459e+09  0.8281  -0.2406  -0.02483  -0.008046  -0.04806  0.01627  0.5948  -0.5905
6.46e+09  0.6555  -0.5244  0.01456  0.0009009  0.03021  0.05139  0.3376  -0.7962
6.461e+09  0.4679  -0.7437  -0.02533  0.001289  -0.003279  0.01487  0.08174  -0.797
6.462e+09  0.2206  -0.8915  0.03413  0.02095  0.02373  0.01772  -0.2137  -0.7704
6.464e+09  -0.133  -0.9079  0.001542  0.03905  0.01755  -0.005671  -0.4589  -0.6425
6.465e+09  -0.3596  -0.7667  -0.01503  0.002098  0.009139  0.001028  -0.6382  -0.4999
6.466e+09  -0.638  -0.6096  0.01379  0.004571  0.009657  -0.004251  -0.7748  -0.1986
6.468e+09  -0.8057  -0.2932  -0.03744  -0.02208  -0.001731  -0.06015  -0.8064  0.06908
6.469e+09  -0.8837  -0.06949  0.005542  0.03722  -0.02558  0.04965  -0.7511  0.3252
6.47e+09  -0.7995  0.3042  -0.04237  0.01679  -0.006265  0.01227  -0.5999  0.5845
6.471e+09  -0.6724  0.5214  -0.03351  0.004718  -0.02758  -0.01866  -0.3241  0.7367
6.472e+09  -0.5059  0.7515  -0.02014  -0.01772  0.01263  -0.0163  -0.04069  0.7935
6.474e+09  -0.177  0.9221  0.009525  -0.02291  0.009548  0.09893  0.2426  0.7392
6.475e+09  0.1863  0.9023  -0.04004  0.03995  -0.002344  0.03276  0.4104  0.6276
6.476e+09  0.4707  0.8184  0.02251  0.0322  0.01815  -0.02791  0.6265  0.4708
6.478e+09  0.6888  0.66  0.01918  0.02865  0.05947  -0.05637  0.7453  0.1993
6.479e+09  0.8025  0.3046  0.02747  0.02067  -0.04553  -0.01929  0.7988  -0.07757
6.48e+09  0.9151  -0.008573  0.007176  -0.009063  0.02048  -0.03194  0.6847  -0.3594
6.481e+09  0.8597  -0.2766  -0.04212  0.0255  0.02248  0.0007501  0.544  -0.577
6.482e+09  0.7245  -0.5575  -0.004863  -0.02592  0.02101  -0.004107  0.3166  -0.7236
6.484e+09  0.472  -0.8083  0.0009314  -0.01554  0.008742  0.02649  0.07753  -0.7976
6.485e+09  0.1286  -0.9404  -0.01477  -0.005113  0.01848  0.00576  -0.2298  -0.7639
6.486e+09  -0.1701  -0.9189  0.003088  -0.02694  -0.02272  0.0007194  -0.4798  -0.6105
6.488e+09  -0.4412  -0.8389  0.01983  0.03586  0.007741  -0.04154  -0.6905  -0.4367
6.489e+09  -0.6909  -0.5808  -0.006564  -0.02379  -0.009852  0.05222  -0.7162  -0.1976
6.49e+09  -0.8727  -0.3198  0.01694  -0.007058  -0.003768  0.0234  -0.7549  0.09799
6.491e+09  -0.9506  -0.03415  -0.003919  0.03303  -0.02814  0.02564  -0.6915  0.353
6.492e+09  -0.8529  0.2827  -0.005454  -0.03283  0.01369  -0.01993  -0.537  0.5712
6.494e+09  -0.7596  0.629  0.04995  0.01203  -0.009567  -0.01128  -0.2739  0.7502
6.495e+09  -0.4245  0.8327  -0.05877  -0.02265  -0.01421  0.002058  -0.03523  0.7779
6.496e+09  -0.1863  0.9297  0.0041  -0.0007305  0.01225  -0.01921  0.2515  0.7174
6.498e+09  0.1463  0.9002  -0.03207  0.0153  -0.0289  0.06035  0.502  0.6133
6.499e+09  0.4903  0.8204  -0.00893  0.008511  -0.005101  0.01287  0.6553  0.4035
6.5e+09  0.7281  0.5877  0.008479  0.009686  0.04564  0.004344  0.7536  0.1439
6.501e+09  0.8802  0.3122  -0.01406  0.01032  0.008172  -0.008502  0.7453  -0.1114
6.502e+09  0.9352  -0.008821  0.007896  0.03151  -0.003345  0.01852  0.6599  -0.3613
6.504e+09  0.8905  -0.3428  0.01024  0.02107  0.004213  0.01788  0.5134  -0.5752
6.505e+09  0.684  -0.6329  -0.003886  -0.008047  -0.01665  -0.03478  0.3184  -0.7047
6.506e+09  0.4252  -0.8083  0.0231  -0.01995  0.0122  -0.005884  0.02611  -0.7344
6.508e+09  0.1503  -0.8842  0.02848  -0.01771  -0.003161  0.005614  -0.2081  -0.7449
6.509e+09  -0.2055  -0.9792  -0.0005224  -0.005625  -0.01448  -0.02173  -0.4561  -0.5889
6.51e+09  -0.5261  -0.8276  0.02521  0.01699  -0.003421  -0.04656  -0.6708  -0.4079
6.511e+09  -0.7367  -0.5487  -0.006806  0.02961  -0.003774  0.07206  -0.7611  -0.1506
6.512e+09  -0.9421  -0.2956  0.02773  -0.03325  0.002088  -0.05796  -0.7158  0.1178
6.514e+09  -0.9029  0.07448  0.002902  -0.009091  0.01706  -0.0375  -0.6573  0.3743
6.515e+09  -0.86  0.4215  -0.0004462  0.01192  -1.273e-05  0.0271  -0.5021  0.5667
6.516e+09  -0.7106  0.6693  -0.01366  0.02281  -0.02793  -0.01834  -0.2526  0.7082
6.518e+09  -0.382  0.8752  -0.02318  -0.0177  -0.006382  0.04877  -0.0261  0.7863
6.519e+09  -0.07793  0.9199  -0.0005961  -0.004303  0.01389  0.004362  0.2664  0.6525
6.52e+09  0.2544  0.9394  0.004931  -0.02901  -0.02319  -0.03501  0.4951  0.5525
6.521e+09  0.6105  0.8285  0.02422  0.01177  -0.008617  -0.01485  0.6556  0.3722
6.522e+09  0.7512  0.5062  0.00551  0.03583  -0.01538  -0.005561  0.7344  0.1086
6.524e+09  0.9441  0.2196  -2.007e-05  0.002799  0.03539  -0.01415  0.744  -0.1448
6.525e+09  0.9807  -0.08613  0.02857  -0.01567  0.003001  0.002022  0.6245  -0.4315
6.526e+09  0.8911  -0.4507  0.007644  -0.002618  0.03666  -0.004349  0.4195  -0.5751
6.528e+09  0.639  -0.7097  -0.01267  -0.04939  -0.02948  0.01004  0.1716  -0.6793
6.529e+09  0.3855  -0.8901  0.01848  0.0323  -0.02607  -0.006939  -0.04841  -0.702
6.53e+09  0.06773  -1.014  -0.02257  0.002368  0.01698  0.004914  -0.2969  -0.6289
6.531e+09  -0.3312  -0.9545  0.009082  -0.01794  -0.04744  0.003321  -0.4389  -0.4973
6.532e+09  -0.5653  -0.75  0.007775  -0.01366  0.001518  -0.0345  -0.5771  -0.2715
6.534e+09  -0.8055  -0.4898  -0.02259  0.03184  0.01112  0.005312  -0.6527  -0.1085
6.535e+09  -0.9833  -0.1501  -0.001321  0.0256  -0.01952  0.006106  -0.6319  0.1191
6.536e+09  -0.9828  0.1523  -0.001933  -0.005828  -0.01606  -0.006658  -0.5525  0.2936
6.538e+09  -0.817  0.4886  -0.01324  -0.01065  -0.01696  0.007157  -0.4388  0.5054
6.539e+09  -0.5836  0.7509  0.004119  -0.0103  0.0213  0.02115  -0.2758  0.6292
6.54e+09  -0.3162  0.9155  0.03519  0.008564  0.02853  -0.02812  -0.05577  0.6723
6.541e+09  0.02254  0.9808  -0.01049  -0.007625  -0.009595  0.04361  0.1603  0.6758
6.542e+09  0.3484  0.8953  -0.001998  -0.0004086  0.02357  0.0005676  0.4104  0.5657
6.544e+09  0.6189  0.6761  -0.01796  0.003336  0.01357  0.06424  0.5891  0.4122
6.545e+09  0.8618  0.4742  0.0269  0.007385  -0.0344  0.02809  0.6761  0.1531
6.546e+09  1.005  0.03752  -0.03603  0.006283  -0.03589  0.04231  0.7072  -0.1106
6.548e+09  0.8966  -0.2325  0.003122  0.01431  0.02535  0.08453  0.6531  -0.3215
6.549e+09  0.8069  -0.5834  -0.02124  0.01226  -0.03837  -0.01583  0.4808  -0.5322
6.55e+09  0.5653  -0.7995  -0.007672  0.02337  -0.01401  0.02498  0.3029  -0.6574
