# Hz S RI R 50
6.25e+09  -0.3841  0.7684  0.008093  -0.01514  -0.004729  0.004332  0.1833  0.4747
6.251e+09  -0.09331  0.8939  0.01203  0.01353  -0.02589  0.03013  0.3829  0.3881
6.252e+09  0.1682  0.8578  -0.03587  -0.0205  0.03852  -0.02488  0.5185  0.2535
6.254e+09  0.4442  0.7385  -0.03789  -0.01913  0.004168  -0.05251  0.5831  0.02153
6.255e+09  0.6809  0.499  0.02154  -0.01127  0.01474  0.03768  0.5838  -0.221
6.256e+09  0.8172  0.2584  -0.01987  0.00847  0.00637  -0.001631  0.4376  -0.4353
6.258e+09  0.8377  -0.07531  -0.007627  0.01866  -0.05047  0.01027  0.2945  -0.5933
6.259e+09  0.7738  -0.3516  -0.01093  0.01287  0.01602  0.02653  0.03269  -0.6663
6.26e+09  0.6449  -0.597  -0.02238  -0.01451  -0.007329  0.01513  -0.2111  -0.6822
6.261e+09  0.3993  -0.7332  -0.02069  0.02608  0.01308  -0.0193  -0.461  -0.5615
6.262e+09  0.06377  -0.8159  0.001629  -0.02297  0.03701  0.07522  -0.6246  -0.3316
6.264e+09  -0.2077  -0.8318  -0.01692  0.006875  -0.005639  -0.0415  -0.7152  -0.1328
6.265e+09  -0.4895  -0.6959  0.03276  -0.02921  0.02017  0.02096  -0.7202  0.135
6.266e+09  -0.6586  -0.5139  0.007089  -0.03657  0.006832  0.01306  -0.589  0.3841
6.268e+09  -0.7786  -0.2484  -0.01185  -0.03838  -0.005497  -0.0248  -0.435  0.6097
6.269e+09  -0.8592  0.07396  -0.0007575  -0.02276  -0.002025  0.03646  -0.1851  0.7513
6.27e+09  -0.7753  0.373  -0.004922  0.009371  0.03888  -0.04675  0.05124  0.73
6.271e+09  -0.6048  0.5947  -0.02752  0.01648  0.03832  -0.02184  0.3161  0.6744
6.272e+09  -0.3558  0.7655  0.005118  0.01844  -0.001321  0.02196  0.5425  0.5438
6.274e+09  -0.1643  0.8918  0.02922  -0.008767  -0.01266  0.009044  0.6901  0.2748
6.275e+09  0.1748  0.8161  -0.0257  -0.01245  -0.0004314  -0.03949  0.767  0.06276
6.276e+09  0.4506  0.6618  0.01828  -0.007922  0.04075  0.03371  0.7161  -0.2183
6.278e+09  0.627  0.5437  -0.02533  -0.02065  0.03768  -0.016  0.614  -0.5154
6.279e+09  0.815  0.1925  0.01975  0.03404  -0.001124  -0.01487  0.4309  -0.6408
6.28e+09  0.865  -0.1016  0.004524  -0.01482  0.0447  0.004678  0.1568  -0.7554
6.281e+09  0.7461  -0.3734  -0.004107  -0.01463  0.03856  -0.01315  -0.08307  -0.7874
6.282e+09  0.5861  -0.5838  0.00777  0.01067  0.0742  -0.009756  -0.3593  -0.7107
6.284e+09  0.3486  -0.7329  0.003975  -0.02492  -0.04092  0.0325  -0.5757  -0.5146
6.285e+09  0.03745  -0.8663  0.0008635  -0.008279  0.0377  -0.01124  -0.7164  -0.3043
6.286e+09  -0.2625  -0.8177  0.004428  0.001548  0.009121  -0.05955  -0.8342  -0.01441
6.288e+09  -0.471  -0.6707  -0.02054  0.01076  0.003382  0.07543  -0.7612  0.2561
6.289e+09  -0.6206  -0.4104  0.02498  -0.006998  -0.01034  -0.02099  -0.6437  0.526
6.29e+09  -0.7603  -0.1527  -0.0213  -0.007779  -0.003351  -0.02253  -0.4136  0.6724
6.291e+09  -0.8697  0.0714  0.0361  0.004857  0.008444  -0.08109  -0.1507  0.8157
6.292e+09  -0.7257  0.3947  0.0129  -0.0109  -0.05797  -0.01011  0.1417  0.8046
6.294e+09  -0.5573  0.6283  0.001114  -0.01258  -0.02037  -0.03334  0.4153  0.7155
6.295e+09  -0.3045  0.8025  0.0298  0.01933  0.02206  -0.03796  0.6334  0.568
6.296e+09  -0.01506  0.8447  -0.01684  0.02525  0.01788  0.02098  0.7996  0.2914
6.298e+09  0.3063  0.8357  0.007591  -0.01162  -0.001237  0.00638  0.8143  0.01182
6.299e+09  0.5099  0.6233  0.00396  -0.01118  0.01718  0.04654  0.7648  -0.2571
6.3e+09  0.7151  0.3939  -0.009949  0.01252  -0.04471  0.007123  0.6357  -0.5432
6.301e+09  0.8079  0.1343  0.01821  -0.009522  0.01415  -0.03207  0.443  -0.6867
6.302e+09  0.8803  -0.08518  -0.004399  -0.01347  -0.04156  -0.01037  0.1689  -0.8223
6.304e+09  0.7429  -0.3905  0.009569  0.006819  -0.005848  0.03069  -0.1162  -0.8124
6.305e+09  0.5314  -0.6428  -0.006419  0.03165  0.05615  0.02561  -0.4397  -0.7371
6.306e+09  0.2859  -0.7863  -0.0086  0.0001159  -0.007946  -0.02602  -0.6422  -0.5691
6.308e+09  0.0153  -0.8124  0.006015  -0.004952  -0.002919  0.0141  -0.7761  -0.2978
6.309e+09  -0.2834  -0.8019  0.03102  0.02393  0.001636  0.0003139  -0.8433  -0.01568
6.31e+09  -0.5318  -0.6485  -0.0028  -0.0149  -0.02631  0.01197  -0.8046  0.3017
6.311e+09  -0.7291  -0.4473  -0.009522  -0.01692  0.0296  -0.03327  -0.6509  0.5318
6.312e+09  -0.836  -0.1687  0.002281  -0.01803  0.004977  -0.02352  -0.4587  0.7488
6.314e+09  -0.7901  0.1381  0.0006414  -0.02349  -0.007179  -0.006774  -0.1327  0.8556
6.315e+09  -0.7398  0.4391  -0.03118  0.04125  0.00541  -0.05303  0.1362  0.8515
6.316e+09  -0.5386  0.6719  0.01645  -0.01311  0.02362  0.002871  0.3849  0.7678
6.318e+09  -0.2747  0.8088  -0.01289  -0.005665  -0.05008  -0.06152  0.6737  0.5611
6.319e+09  0.05176  0.8477  -0.0121  0.009288  -0.01029  0.02184  0.8366  0.3251
6.32e+09  0.3113  0.7788  -0.007357  -0.01287  0.005522  -0.01492  0.8855  0.008802
6.321e+09  0.5525  0.6325  0.007857  -0.008345  0.002734  0.05267  0.8472  -0.2731
6.322e+09  0.7589  0.3937  -0.02497  0.01197  -0.03311  0.03379  0.7165  -0.6026
6.324e+09  0.8409  0.1264  0.02088  0.004056  0.003976  0.008809  0.4711  -0.7829
6.325e+09  0.8095  -0.1822  0.0004173  -0.01409  0.002305  0.03129  0.1725  -0.8665
6.326e+09  0.7325  -0.4894  -0.009248  0.03239  0.01528  -0.005843  -0.1332  -0.8997
6.328e+09  0.545  -0.6527  -0.03296  -0.01651  0.01751  -0.004018  -0.4254  -0.7611
6.329e+09  0.2108  -0.7489  0.01315  -0.0007272  -0.05137  0.01094  -0.6478  -0.6132
6.33e+09  -0.09228  -0.8771  -0.0148  0.005996  -0.03093  -0.01972  -0.8421  -0.3378
6.331e+09  -0.3813  -0.7884  0.006564  0.0005508  -0.01173  -0.07445  -0.9081  -0.005321
6.332e+09  -0.6251  -0.5992  0.003619  0.006368  0.008734  0.05383  -0.8676  0.3041
6.334e+09  -0.785  -0.3499  0.01029  0.01809  -0.01263  0.007701  -0.6973  0.5666
6.335e+09  -0.8519  -0.05733  -0.001617  0.005677  0.014  -0.04931  -0.4797  0.7946
6.336e+09  -0.8512  0.2739  0.01468  0.05169  0.007699  0.004928  -0.1589  0.9278
6.338e+09  -0.6992  0.5261  0.03001  0.02518  -0.04335  0.01352  0.1089  0.9185
6.339e+09  -0.4276  0.7395  -0.009226  -0.005426  0.004816  0.007552  0.4176  0.8194
6.34e+09  -0.2139  0.8563  -0.005393  0.01185  -0.01902  -0.01009  0.6746  0.6239
6.341e+09  0.1396  0.8496  0.0007977  0.004307  0.02509  0.002063  0.862  0.367
6.342e+09  0.4489  0.7508  -0.006003  -0.03658  0.02694  -0.01153  0.9328  0.0724
6.344e+09  0.664  0.6136  -0.01728  0.00206  -0.01052  0.01612  0.841  -0.2941
6.345e+09  0.8428  0.2892  0.0003964  0.01013  -0.01813  -0.01419  0.7334  -0.5843
6.346e+09  0.902  0.01752  -7.245e-05  -0.0142  0.02799  -0.02561  0.4734  -0.7784
6.348e+09  0.8198  -0.3181  -0.0121  -0.0242  0.02019  -0.01146  0.2242  -0.8759
6.349e+09  0.709  -0.5923  0.03541  0.008274  0.01308  0.02825  -0.1419  -0.922
6.35e+09  0.4482  -0.796  -0.02022  -0.05094  -0.004324  0.01269  -0.4239  -0.8197
6.351e+09  0.1013  -0.9205  -0.001997  -0.01615  0.014  -0.04602  -0.6482  -0.6233
6.352e+09  -0.2056  -0.8162  0.002902  -0.0006728  -0.01445  0.00142  -0.8506  -0.3786
6.354e+09  -0.4754  -0.7494  -0.02917  0.02685  -0.02327  -0.009002  -0.9589  -0.04801
6.355e+09  -0.6883  -0.5535  -0.0351  -0.002863  0.01496  0.008268  -0.9364  0.2474
6.356e+09  -0.8592  -0.2065  -0.01609  -0.0222  -0.003682  -0.003791  -0.7428  0.5624
6.358e+09  -0.9048  0.0949  -0.01797  -0.02503  -0.004881  -0.0653  -0.552  0.7832
6.359e+09  -0.7995  0.3795  0.005385  0.03584  -0.03613  0.0289  -0.2295  0.9308
6.36e+09  -0.5927  0.6115  0.01209  0.003102  -0.01569  0.03067  0.1093  0.9467
6.361e+09  -0.3799  0.8083  0.04339  0.009861  0.04562  0.001969  0.4108  0.8803
6.362e+09  -0.08886  0.923  0.02214  0.00316  -0.01332  0.003083  0.6265  0.6409
6.364e+09  0.2377  0.8515  0.01083  -0.01143  -0.01103  0.04299  0.902  0.4189
6.365e+09  0.5184  0.7288  -0.008587  -0.01778  -0.02307  0.02158  0.9482  0.08278
6.366e+09  0.7183  0.4943  -0.03081  -0.01661  0.06758  -0.01017  0.9126  -0.217
6.368e+09  0.85  0.2508  0.0006369  0.006245  -0.07089  -0.0172  0.7806  -0.5346
6.369e+09  0.919  -0.1223  -0.009427  -0.03237  -0.03688  0.000341  0.5361  -0.7552
6.37e+09  0.7814  -0.438  -0.0272  -0.009419  -0.03843  -0.01916  0.1712  -0.9298
6.371e+09  0.6498  -0.6476  -0.002304  0.0161  -0.02875  -0.01559  -0.0947  -0.9807
6.372e+09  0.3701  -0.8354  0.01206  -0.02907  0.01344  0.01776  -0.4248  -0.8514
6.374e+09  0.02653  -0.8591  -0.03426  0.03263  -0.0321  0.0001462  -0.6544  -0.6757
6.375e+09  -0.2673  -0.8146  -0.01188  -0.004237  -0.006462  -0.01607  -0.8264  -0.4231
6.376e+09  -0.566  -0.6936  0.04635  0.01131  0.02893  -0.05231  -0.9738  -0.07064
6.378e+09  -0.7535  -0.4892  0.01666  0.03042  0.02288  0.008351  -0.9566  0.1684
6.379e+09  -0.8692  -0.1882  0.01734  -0.04181  0.03025  0.02115  -0.8038  0.5428
6.38e+09  -0.915  0.121  -0.02579  -0.05118  -0.05295  0.04619  -0.5181  0.778
6.381e+09  -0.7519  0.445  -0.02279  -0.001565  0.01372  0.03731  -0.2548  0.8902
6.382e+09  -0.5834  0.737  0.02187  -0.01156  0.01216  -0.01643  0.04549  0.9243
6.384e+09  -0.2619  0.8405  -0.01914  -0.03544  0.005224  -0.04184  0.3695  0.9009
6.385e+09  0.04602  0.9378  -0.0302  0.06854  -0.05019  -0.04904  0.6336  0.6717
6.386e+09  0.283  0.8425  -0.007796  -0.01676  -0.03767  -0.02994  0.8199  0.4168
6.388e+09  0.5913  0.6438  -0.02703  -0.01286  0.02512  -0.008523  0.9489  0.1068
6.389e+09  0.7832  0.3863  -0.02075  -0.01686  0.06785  -0.009011  0.899  -0.1784
6.39e+09  0.8643  0.1065  0.001252  -0.02442  -0.01327  -0.03809  0.7868  -0.4978
6.391e+09  0.8915  -0.2118  0.008122  -0.004053  -0.01505  0.01533  0.5556  -0.7393
6.392e+09  0.7517  -0.5159  0.01993  0.01757  0.0176  0.002101  0.2907  -0.8402
6.394e+09  0.6124  -0.7157  -0.005705  0.009736  0.004258  -0.0005078  -0.04466  -0.9166
6.395e+09  0.2493  -0.8847  -0.02053  -0.01371  -0.03606  -0.006066  -0.3373  -0.8246
6.396e+09  -0.03485  -0.8669  0.01656  0.01768  0.005203  -0.02357  -0.6184  -0.6924
6.398e+09  -0.331  -0.8625  0.02737  -0.008743  -0.0206  0.02336  -0.7762  -0.4978
6.399e+09  -0.6553  -0.6706  -0.04429  -0.01544  0.038  0.03916  -0.9169  -0.2025
6.4e+09  -0.7788  -0.4022  0.01405  0.008353  0.005638  -0.0418  -0.8927  0.1959
6.401e+09  -0.8657  -0.1089  -0.02175  -0.0191  0.01238  0.001835  -0.8029  0.4845
6.402e+09  -0.8109  0.1994  -0.04419  0.02965  -0.03713  0.005963  -0.5878  0.7443
6.404e+09  -0.7438  0.4681  -0.02126  -0.0007245  -0.06916  0.003942  -0.297  0.9152
6.405e+09  -0.5714  0.7299  -0.007209  -0.02396  0.01012  -0.01291  0.01122  0.8783
6.406e+09  -0.2271  0.8921  0.008327  -0.01881  0.01802  -0.03384  0.3387  0.8458
6.408e+09  0.1226  0.8741  -0.02363  -0.01105  0.02957  0.02555  0.5704  0.6931
6.409e+09  0.424  0.801  -0.04487  -0.02105  0.01777  -0.02221  0.7905  0.5064
6.41e+09  0.5989  0.6499  0.003803  -0.02179  0.008244  0.05454  0.8884  0.1782
6.411e+09  0.8119  0.3558  -0.009913  0.03038  0.0126  -0.01603  0.8875  -0.1388
6.412e+09  0.8543  0.06013  -0.008705  0.01397  0.007089  0.004797  0.8811  -0.4169
6.414e+09  0.8481  -0.2825  0.01452  0.02368  0.001124  -0.02793  0.5802  -0.6939
6.415e+09  0.7183  -0.5117  0.02477  -0.03519  0.01704  0.001658  0.3467  -0.8287
6.416e+09  0.5235  -0.6733  0.01447  0.01837  0.02058  0.001102  0.03605  -0.889
6.418e+09  0.1986  -0.8126  -0.07054  -0.03786  0.02801  0.02196  -0.245  -0.8963
6.419e+09  -0.04465  -0.866  -0.02287  -0.007354  0.007544  0.0009688  -0.5716  -0.7333
6.42e+09  -0.3765  -0.7696  0.02913  0.04431  -0.009492  -0.0508  -0.7575  -0.465
6.421e+09  -0.6421  -0.6304  0.02581  -0.01659  0.04427  -0.004699  -0.8559  -0.1682
6.422e+09  -0.81  -0.3009  -0.0121  0.0105  -0.02366  0.009855  -0.8659  0.1449
6.424e+09  -0.8974  -0.06269  -1.037e-05  -0.02086  0.005192  -0.03134  -0.7922  0.4095
6.425e+09  -0.8779  0.23  -0.03054  0.0378  -0.05429  0.01155  -0.5954  0.6601
6.426e+09  -0.6502  0.4882  0.01025  0.01116  0.02139  -0.01958  -0.3177  0.8243
6.428e+09  -0.4546  0.7933  0.00964  -0.005489  0.00551  -0.04369  -0.08544  0.8952
6.429e+09  -0.2175  0.8717  0.02214  -0.007236  0.02184  -0.06559  0.2183  0.8215
6.43e+09  0.07387  0.8211  -0.01606  -0.03752  0.01943  -0.01478  0.5386  0.6887
6.431e+09  0.3925  0.7591  0.03126  0.01578  -0.07645  -0.04197  0.7638  0.5061
6.432e+09  0.6307  0.6045  0.004654  -0.006638  0.004161  0.03133  0.8557  0.1939
6.434e+09  0.7995  0.3572  -3.492e-05  -0.01331  0.008834  0.05346  0.8238  -0.06402
6.435e+09  0.8798  0.005896  0.04443  0.01954  0.07098  -0.01326  0.7228  -0.3666
6.436e+09  0.8645  -0.2316  0.01475  -0.04293  -0.02257  0.003041  0.6132  -0.612
6.438e+09  0.7278  -0.4904  -0.0009117  0.01771  0.003604  0.01371  0.3277  -0.7706
6.439e+09  0.4803  -0.7151  -0.05444  -0.01987  -0.04759  0.02925  0.03856  -0.8861
6.44e+09  0.1837  -0.8449  -0.02006  0.01365  0.001273  0.0624  -0.2225  -0.8208
6.441e+09  -0.1063  -0.8911  0.008763  0.001571  0.01598  0.02154  -0.5015  -0.6746
6.442e+09  -0.4018  -0.7757  0.007288  0.005852  0.008965  -0.02542  -0.6969  -0.471
6.444e+09  -0.7022  -0.6146  -0.008032  0.006124  0.0249  0.05001  -0.8489  -0.2045
6.445e+09  -0.8025  -0.3257  0.04251  -0.02503  -0.05068  0.0223  -0.8406  0.0999
6.446e+09  -0.881  -0.03873  0.01549  -0.01515  0.03104  0.01323  -0.7586  0.3368
6.448e+09  -0.8325  0.2873  0.02732  -0.003678  -0.004588  -0.04035  -0.5834  0.6129
6.449e+09  -0.6848  0.529  0.009207  -0.008351  0.02592  -0.005453  -0.3301  0.8087
6.45e+09  -0.4304  0.7223  -0.0691  0.01148  -0.007567  -0.01846  -0.056  0.8127
6.451e+09  -0.2131  0.8848  -0.008528  -0.0101  0.03712  0.04317  0.2047  0.7897
6.452e+09  0.08162  0.8833  -0.02237  -0.00748  -0.04849  -0.01283  0.4708  0.7035
6.454e+09  0.4231  0.7994  -0.00648  0.04051  0.02822  0.03502  0.6865  0.5034
6.455e+09  0.6477  0.5911  -0.032  -0.02907  0.04291  0.0007707  0.8273  0.2043
6.456e+09  0.8744  0.3483  -0.01548  0.02925  0.01522  -0.02058  0.835  -0.03543
6.458e+09  0.8817  -0.00339  -0.01853  -0.0005007  0.04704  -0.01646  0.74  -0.3302
6.459e+09  0.8448  -0.3433  0.01011  0.002353  0.0003537  0.04291  0.5575  -0.5653
6.46e+09  0.6887  -0.5321  -0.002977  -0.01274  -0.005802  -0.009104  0.3403  -0.6998
6.461e+09  0.4713  -0.7604  -0.01766  -0.01467  -0.0384  0.005304  0.04361  -0.8312
6.462e+09  0.1563  -0.8378  0.03018  -0.01026  -0.009645  -0.003915  -0.2263  -0.7887
6.464e+09  -0.1677  -0.8882  -0.01959  0.06098  -0.01079  0.008043  -0.4659  -0.6472
6.465e+09  -0.4821  -0.7926  0.01736  -0.000228  -0.04256  0.02416  -0.6659  -0.4703
6.466e+09  -0.7175  -0.6092  0.02989  -0.006518  0.02972  -0.01796  -0.7585  -0.1826
6.468e+09  -0.862  -0.389  0.02984  0.03149  0.02744  0.01237  -0.7997  0.06453
6.469e+09  -0.9087  -0.01381  0.0171  -0.02246  0.009562  -0.03409  -0.719  0.3512
6.47e+09  -0.8593  0.336  0.001314  0.05452  0.0005265  0.03734  -0.5339  0.5701
6.471e+09  -0.6785  0.5263  0.0112  0.01377  0.003693  -0.009508  -0.3451  0.7218
6.472e+09  -0.4893  0.785  0.0007521  0.01053  -0.01107  0.0115  -0.1148  0.8011
6.474e+09  -0.1247  0.9636  -0.02391  0.0423  0.02211  -0.02382  0.2012  0.7539
6.475e+09  0.1582  0.9  -0.01862  -0.0301  -0.023  0.01536  0.4526  0.667
6.476e+09  0.4704  0.8138  -0.001657  0.04674  -0.01817  -0.02124  0.6206  0.4478
6.478e+09  0.7032  0.6019  0.04096  0.00748  0.01667  -0.02049  0.7902  0.2098
6.479e+09  0.8543  0.2849  -0.01748  -0.0006816  0.02996  -0.02224  0.8201  -0.09343
6.48e+09  0.9079  -0.007357  -0.01137  0.02501  0.007943  0.05532  0.6832  -0.3417
6.481e+09  0.8841  -0.3092  -0.03175  -0.02655  -0.007586  0.03445  0.5454  -0.5679
6.482e+09  0.7075  -0.5975  0.01337  0.005157  0.02515  -0.01868  0.3231  -0.701
6.484e+09  0.467  -0.7559  -0.0583  -0.01296  -0.01359  0.003857  0.08406  -0.7747
6.485e+09  0.1761  -0.9075  0.02535  0.002915  -0.00294  0.05446  -0.2241  -0.7271
6.486e+09  -0.2461  -0.8648  -0.01963  0.01806  0.01819  -0.01572  -0.47  -0.651
6.488e+09  -0.5342  -0.7877  -0.02014  -0.001505  -0.009403  0.005155  -0.6385  -0.4323
6.489e+09  -0.7135  -0.5744  -0.01165  -0.01667  -0.03547  0.01468  -0.7693  -0.1521
6.49e+09  -0.8708  -0.2639  -0.04191  -0.01163  0.003645  -0.01848  -0.735  0.1183
6.491e+09  -0.9087  0.06334  0.014  -0.01589  -0.01912  -0.06031  -0.6997  0.3452
6.492e+09  -0.8715  0.3341  0.002238  -0.04042  -0.05184  0.01595  -0.5261  0.5404
6.494e+09  -0.7654  0.6246  -0.03914  0.001591  0.01197  -0.007607  -0.3144  0.6874
6.495e+09  -0.4453  0.7991  0.03711  0.002422  0.0295  -0.01285  -0.02253  0.7592
6.496e+09  -0.1175  0.9397  0.003547  -0.02154  0.01539  -0.005178  0.2667  0.7687
6.498e+09  0.1737  0.9802  -0.03272  0.001367  -0.02667  0.03942  0.515  0.6084
6.499e+09  0.5003  0.7668  0.016  0.01137  -0.05927  0.009305  0.7022  0.405
6.5e+09  0.7924  0.5545  -0.01498  -0.01441  0.02439  -0.01765  0.7843  0.1683
6.501e+09  0.9383  0.3152  0.02533  -0.01687  0.05673  -0.0133  0.7756  -0.1272
6.502e+09  0.9467  -0.01325  -0.02603  0.003081  0.006686  -0.01925  0.6519  -0.3532
6.504e+09  0.8957  -0.3882  0.00597  -0.01993  0.003499  0.0001395  0.518  -0.5991
6.505e+09  0.6604  -0.636  -0.005591  0.04085  0.00583  -0.02599  0.3157  -0.7146
6.506e+09  0.3969  -0.8845  0.0231  -0.04373  0.04492  0.0191  -0.004329  -0.7446
6.508e+09  0.1389  -0.9971  0.05414  0.02292  0.01051  0.02239  -0.2297  -0.7125
6.509e+09  -0.2469  -0.8805  0.04644  0.02627  0.001608  0.02847  -0.4976  -0.5825
6.51e+09  -0.5338  -0.7913  -0.001128  0.01935  -0.01216  -0.02458  -0.6449  -0.3984
6.511e+09  -0.7712  -0.5621  0.02921  -0.006859  0.0103  -0.03069  -0.7459  -0.1249
6.512e+09  -0.9711  -0.2597  -0.02143  -0.009396  -0.008407  0.01755  -0.7446  0.173
6.514e+09  -0.9414  0.1299  -0.01718  -0.002297  0.05926  -0.002111  -0.6422  0.3665
6.515e+09  -0.8902  0.3907  0.0394  -0.003785  0.02063  -0.02472  -0.5035  0.6077
6.516e+09  -0.7164  0.7402  0.01973  0.01975  -0.0004066  -0.002379  -0.2378  0.719
6.518e+09  -0.3815  0.8987  -0.004774  0.02044  0.0009617  0.0001446  -0.009542  0.7432
6.519e+09  -0.06952  0.9502  -0.002502  0.01924  -0.04468  -0.002314  0.2539  0.6609
6.52e+09  0.2652  0.9932  0.02214  0.00764  0.05027  -0.01117  0.4994  0.533
6.521e+09  0.5787  0.7559  0.001226  0.00947  -0.00144  -0.02386  0.6162  0.3393
6.522e+09  0.8141  0.5693  0.01916  0.03698  -0.006628  0.02808  0.7254  0.1329
6.524e+09  0.9759  0.1597  0.02923  0.01132  0.01795  0.08976  0.7473  -0.1443
6.525e+09  0.9573  -0.1337  -0.02036  -0.02153  -0.005033  -0.01891  0.6133  -0.3935
6.526e+09  0.8532  -0.4896  0.01403  -0.01891  -0.003862  -0.01404  0.4429  -0.5434
6.528e+09  0.6019  -0.7383  0.006365  0.003248  0.01893  0.01228  0.191  -0.7232
6.529e+09  0.3483  -0.9223  -0.003233  0.00956  -0.002142  0.04054  -0.04404  -0.6835
6.53e+09  0.007237  -0.9605  -0.01192  -0.02934  -0.005519  -0.01294  -0.2893  -0.6403
6.531e+09  -0.2968  -0.9404  0.02182  -0.0154  0.009274  0.05524  -0.4789  -0.4661
6.532e+09  -0.6939  -0.7242  -0.01383  0.01953  0.001109  -0.00327  -0.6138  -0.3012
6.534e+09  -0.9169  -0.5248  0.003838  -0.01746  0.00942  0.03557  -0.639  -0.08675
6.535e+09  -0.9509  -0.1537  0.02466  0.02261  -0.02099  0.04132  -0.6341  0.1006
6.536e+09  -0.9969  0.2804  -0.003056  -0.02185  0.002495  0.02369  -0.5319  0.2922
6.538e+09  -0.7747  0.5072  0.03777  0.004444  0.007716  0.01222  -0.4577  0.4693
6.539e+09  -0.6117  0.8005  -0.008106  0.03438  -0.05063  0.02374  -0.2712  0.6235
6.54e+09  -0.2535  0.9045  -0.01261  -0.01788  0.03541  -0.0473  -0.04264  0.6827
6.541e+09  0.04132  0.9953  -0.01546  0.004534  -0.001282  0.08384  0.1958  0.6729
6.542e+09  0.419  0.8666  0.03087  0.02306  0.04129  0.009084  0.4227  0.5684
6.544e+09  0.7144  0.702  0.007712  -0.01751  0.0121  -0.01407  0.5941  0.3969
6.545e+09  0.8616  0.3887  0.008414  0.02391  -0.006779  0.02212  0.6703  0.1673
6.546e+09  0.9459  0.08363  -0.02399  0.01212  -0.05205  -0.0108  0.6713  -0.05563
6.548e+09  0.9711  -0.2594  -0.02393  0.009723  0.04819  0.01459  0.6314  -0.3813
6.549e+09  0.8229  -0.5313  0.01454  0.007761  -0.02169  -0.007291  0.5014  -0.5556
6.55e+09  0.5099  -0.8121  -0.0182  0.02255  -0.06339  -0.02691  0.286  -0.669
