# Hz S RI R 50
6.25e+09  -0.6282  0.6013  -0.00156  -0.01215  -0.0224  -0.02255  0.1234  0.4786
6.251e+09  -0.3652  0.8008  -0.0005478  0.03312  0.004077  -0.007485  0.3605  0.4257
6.252e+09  -0.01861  0.8621  -0.005882  -0.01823  -0.02447  -0.005425  0.5555  0.2542
6.254e+09  0.2235  0.8375  -0.002253  0.01505  0.01418  -0.05596  0.5908  0.001447
6.255e+09  0.5219  0.6757  -0.03632  -0.02901  -0.01145  0.03045  0.5885  -0.2734
6.256e+09  0.6413  0.5143  -0.01061  0.005366  -0.00156  0.02279  0.4875  -0.432
6.258e+09  0.876  0.2475  0.02045  0.02899  0.06566  0.02338  0.3117  -0.6207
6.259e+09  0.8304  -0.001464  -0.0003075  -0.02032  0.04999  0.03574  0.0433  -0.6905
6.26e+09  0.7604  -0.3251  -0.004287  0.003502  0.04473  -0.04317  -0.2281  -0.6437
6.261e+09  0.6011  -0.598  -0.02072  0.005474  0.003474  0.0353  -0.4523  -0.5862
6.262e+09  0.3531  -0.7843  -0.002748  0.0002026  0.001541  -0.009209  -0.6215  -0.3604
6.264e+09  0.08723  -0.875  -0.003965  0.008296  0.008239  0.007355  -0.7092  -0.07829
6.265e+09  -0.292  -0.8623  0.01963  0.0337  -0.008131  -0.02828  -0.7162  0.1267
6.266e+09  -0.4877  -0.6401  -0.01351  0.02924  -0.005831  0.01465  -0.5829  0.4115
6.268e+09  -0.7139  -0.4188  0.0145  -0.008612  0.001432  -0.002521  -0.4554  0.6033
6.269e+09  -0.8148  -0.1516  0.02436  0.02257  0.0612  -0.01827  -0.1871  0.6928
6.27e+09  -0.8067  0.1255  0.01277  0.009552  -0.0684  -0.002717  0.07117  0.7364
6.271e+09  -0.7285  0.3106  -0.003753  -0.02428  -0.02348  0.001398  0.3586  0.674
6.272e+09  -0.5789  0.5731  -0.04592  0.01156  0.004372  0.03414  0.5217  0.5119
6.274e+09  -0.2576  0.749  0.002578  0.00952  -0.01287  -0.0366  0.6872  0.2707
6.275e+09  -0.06706  0.7627  -0.003656  -0.01238  -0.04207  -0.003113  0.7433  0.06748
6.276e+09  0.199  0.7877  0.01201  0.007294  5.532e-05  -0.001122  0.7075  -0.2114
6.278e+09  0.4504  0.65  0.005213  0.01487  0.02068  0.02728  0.6084  -0.4572
6.279e+09  0.6765  0.4209  0.001502  0.004763  -0.01162  0.06  0.4224  -0.6418
6.28e+09  0.8025  0.1774  0.03014  -0.001738  0.02901  -0.02789  0.1726  -0.7619
6.281e+09  0.8471  -0.08966  0.02289  0.003946  0.02882  -0.04816  -0.1327  -0.7858
6.282e+09  0.7865  -0.3464  0.005481  0.01346  -0.01178  -0.01932  -0.4008  -0.7126
6.284e+09  0.5611  -0.6061  0.009218  0.008591  0.002253  0.02457  -0.5825  -0.5628
6.285e+09  0.314  -0.7815  -0.001157  -0.01013  0.003907  0.03626  -0.7048  -0.2831
6.286e+09  0.02245  -0.8093  -0.01677  0.0227  -0.005051  -0.008314  -0.8083  -0.04306
6.288e+09  -0.2826  -0.7989  0.03504  -0.0172  0.01532  0.04727  -0.7292  0.2534
6.289e+09  -0.4919  -0.6474  -0.0007701  0.02598  -0.01364  0.02351  -0.6269  0.504
6.29e+09  -0.6974  -0.4346  0.006418  0.01991  0.03653  0.02877  -0.3882  0.6794
6.291e+09  -0.8016  -0.2082  -0.007933  0.04749  0.02253  -0.0248  -0.1485  0.8004
6.292e+09  -0.8337  0.1042  0.05424  -0.03892  -0.03104  -0.003186  0.1122  0.8193
6.294e+09  -0.7469  0.3336  -0.009869  0.04004  0.0002778  0.007966  0.4244  0.696
6.295e+09  -0.5599  0.6019  -0.02839  -0.001873  -0.02184  -0.006544  0.6021  0.5488
6.296e+09  -0.3035  0.7528  0.008098  0.007304  -0.01431  -0.0171  0.8248  0.2898
6.298e+09  0.01543  0.8449  -0.01041  0.01328  -0.01916  -0.05882  0.8533  0.02121
6.299e+09  0.2432  0.8055  0.005905  -0.007389  -0.01492  -0.0007209  0.7902  -0.2524
6.3e+09  0.4927  0.633  -0.008657  0.006197  -0.0098  0.004653  0.6551  -0.4893
6.301e+09  0.7155  0.4185  0.01199  -0.03295  -0.04387  -0.001702  0.4116  -0.7271
6.302e+09  0.8563  0.1786  -0.01263  0.00711  0.02607  -0.03626  0.16  -0.8435
6.304e+09  0.8463  -0.1583  0.02221  -0.001215  -0.005329  0.0344  -0.1505  -0.8381
6.305e+09  0.7316  -0.418  -0.01947  0.03066  0.004405  -0.05274  -0.421  -0.7343
6.306e+09  0.5437  -0.6302  0.03978  0.01165  -0.01329  -0.03969  -0.653  -0.5672
6.308e+09  0.2763  -0.7802  0.01758  -0.01504  -0.003585  0.001253  -0.8102  -0.2916
6.309e+09  -0.01591  -0.8371  0.02543  -0.008176  0.02377  -0.0009414  -0.8469  -0.009485
6.31e+09  -0.2874  -0.7842  -0.02064  -0.04741  -0.02645  0.05358  -0.8304  0.3046
6.311e+09  -0.5702  -0.6075  0.007309  -0.01088  -0.0528  0.006984  -0.6628  0.541
6.312e+09  -0.7535  -0.3779  0.00947  -0.01214  -0.0203  -0.04865  -0.433  0.7536
6.314e+09  -0.8434  -0.1616  -0.01015  -0.01742  -0.0102  0.03146  -0.1475  0.8338
6.315e+09  -0.7949  0.185  -0.005514  0.006263  0.0378  -0.01898  0.1506  0.8616
6.316e+09  -0.685  0.4339  -0.0288  0.02372  0.01963  -0.02669  0.4368  0.761
6.318e+09  -0.5005  0.6726  0.01404  -0.01924  -0.02956  -0.02882  0.662  0.6032
6.319e+09  -0.2386  0.8083  -0.0357  -0.02483  -0.01113  0.07548  0.8127  0.3186
6.32e+09  0.05705  0.843  -0.03111  -0.01982  -0.03289  -0.01963  0.9272  0.009083
6.321e+09  0.3227  0.7728  0.01012  -0.01576  0.005563  -0.02691  0.8591  -0.3269
6.322e+09  0.5973  0.6669  -0.03223  0.01581  0.003722  -0.03228  0.6768  -0.5607
6.324e+09  0.7892  0.364  0.01413  0.04119  -0.009679  0.005941  0.4952  -0.7669
6.325e+09  0.8797  0.06732  0.00137  0.003238  -0.01368  0.007282  0.1588  -0.8651
6.326e+09  0.8245  -0.2037  -0.01957  -0.003909  -0.01685  0.0005295  -0.1321  -0.9249
6.328e+09  0.6872  -0.5028  0.01413  -0.04401  -0.03189  -0.01992  -0.4274  -0.7763
6.329e+09  0.4941  -0.666  -0.006158  0.04312  0.003977  -0.03315  -0.668  -0.5912
6.33e+09  0.1752  -0.8041  -0.01184  0.01838  -0.02692  0.01413  -0.8715  -0.3607
6.331e+09  -0.1122  -0.8637  -0.004657  0.008569  0.02345  -0.00888  -0.9007  -0.01847
6.332e+09  -0.3677  -0.7583  -0.01872  0.02894  0.02951  -0.0004835  -0.8677  0.2741
6.334e+09  -0.667  -0.5891  -0.02213  0.02617  0.002136  0.04658  -0.6982  0.5567
6.335e+09  -0.8295  -0.3815  0.01292  -0.005612  0.005208  -0.04687  -0.4985  0.7706
6.336e+09  -0.8754  -0.00615  0.01423  -0.00412  -0.049  -0.01171  -0.1898  0.9072
6.338e+09  -0.8228  0.2735  0.0126  0.004935  0.004323  0.01309  0.1208  0.965
6.339e+09  -0.7288  0.5689  -0.01275  0.009784  0.01055  -0.006365  0.4396  0.7972
6.34e+09  -0.4556  0.6883  -0.03971  -0.008109  0.05575  -0.003388  0.6825  0.627
6.341e+09  -0.1589  0.9061  -0.0337  0.02954  -0.03861  0.04162  0.8329  0.335
6.342e+09  0.1356  0.8582  0.03436  0.03489  -0.02005  -6.738e-05  0.9532  0.06853
6.344e+09  0.4693  0.7654  0.01707  0.03595  0.03199  0.00186  0.8558  -0.2744
6.345e+09  0.6952  0.5371  -0.007873  -0.02252  -0.005765  -0.03099  0.75  -0.5763
6.346e+09  0.8047  0.2758  0.02176  0.01975  -0.02315  -0.02625  0.4832  -0.7683
6.348e+09  0.8749  -0.03396  0.01954  -0.002515  0.01758  0.005432  0.244  -0.9396
6.349e+09  0.8397  -0.346  0.01253  -0.0437  -0.01102  -0.0156  -0.08084  -0.9535
6.35e+09  0.6684  -0.6008  -0.000582  -0.0004648  0.009907  -0.01703  -0.3947  -0.8065
6.351e+09  0.3939  -0.7769  -0.006374  -0.01975  -0.004547  -0.006253  -0.6525  -0.6286
6.352e+09  0.09055  -0.8818  -0.009859  -1.708e-05  0.002928  0.004385  -0.878  -0.3471
6.354e+09  -0.1806  -0.8328  0.02489  0.01942  -0.005517  -0.04873  -0.936  -0.05887
6.355e+09  -0.5024  -0.7244  0.007717  -0.001533  0.003112  -0.03711  -0.926  0.2562
6.356e+09  -0.7713  -0.5208  -0.006875  0.0005781  -0.03295  -0.002037  -0.8068  0.5587
6.358e+09  -0.8747  -0.2142  0.002992  0.01624  -0.01061  0.02011  -0.5261  0.7758
6.359e+09  -0.936  0.09877  -0.03011  -0.01009  -0.005992  -0.03227  -0.2235  0.9306
6.36e+09  -0.8119  0.4177  -0.005398  -0.003065  -0.02997  0.009484  0.07082  0.9067
6.361e+09  -0.5683  0.6143  -0.01249  0.01166  0.03615  -0.003683  0.4245  0.8679
6.362e+09  -0.3992  0.789  0.02327  -0.01039  -0.0608  -0.009624  0.7176  0.6755
6.364e+09  -0.04501  0.8329  0.01675  -0.02512  -0.01476  0.04008  0.8259  0.4169
6.365e+09  0.2659  0.8185  -0.0155  -0.00989  -0.008839  -0.01478  0.9764  0.03812
6.366e+09  0.5497  0.6785  -0.009453  -0.0004512  0.00245  -0.03454  0.9259  -0.2466
6.368e+09  0.7274  0.443  0.02463  0.01263  -0.01784  -0.02491  0.77  -0.5812
6.369e+09  0.8489  0.1844  0.002483  -0.006423  0.03164  0.0267  0.5555  -0.7446
6.37e+09  0.8789  -0.1666  -0.000403  -0.03308  -0.02506  0.004492  0.2542  -0.906
6.371e+09  0.7742  -0.4542  0.02733  0.005897  0.005977  -0.01663  -0.06829  -0.9892
6.372e+09  0.5749  -0.6577  -0.03725  -0.03126  0.003182  0.02952  -0.365  -0.8505
6.374e+09  0.3083  -0.8244  -0.01869  -0.00487  -0.007208  -0.03827  -0.631  -0.6794
6.375e+09  -0.04911  -0.8944  0.02921  -0.008931  0.03123  0.0194  -0.8259  -0.4046
6.376e+09  -0.3042  -0.8515  -0.02541  -0.01229  0.02648  0.006264  -0.9479  -0.08691
6.378e+09  -0.6139  -0.6758  -0.002451  -0.01454  -0.003969  0.03099  -0.9134  0.2491
6.379e+09  -0.8008  -0.44  0.009824  0.03072  -0.05174  -0.01118  -0.7892  0.5182
6.38e+09  -0.8435  -0.0888  0.04018  0.01127  0.05418  0.02164  -0.5513  0.773
6.381e+09  -0.8865  0.1916  0.03408  0.004607  -0.008512  0.0155  -0.3034  0.9323
6.382e+09  -0.7407  0.4905  0.002619  0.0198  -0.01397  0.006273  0.06432  0.9697
6.384e+09  -0.494  0.6681  -0.01859  -0.01574  -0.003529  0.02317  0.3805  0.8349
6.385e+09  -0.2671  0.8623  0.01345  -0.01993  -0.04054  0.009138  0.635  0.6817
6.386e+09  0.09109  0.8717  0.01211  -0.04075  0.01697  0.04323  0.8162  0.4036
6.388e+09  0.3603  0.8221  -0.01553  -0.009671  -0.01954  0.0338  0.933  0.1268
6.389e+09  0.6182  0.6216  -0.006373  0.02397  -0.03414  -0.01428  0.9036  -0.2002
6.39e+09  0.8269  0.4001  -0.01598  0.01048  -0.007342  -0.006569  0.783  -0.4799
6.391e+09  0.8819  0.07733  -0.002659  0.01078  0.02077  0.02057  0.5906  -0.745
6.392e+09  0.8638  -0.192  0.05067  -0.01253  -0.04095  0.02739  0.2652  -0.8757
6.394e+09  0.6873  -0.5254  0.004056  -0.001651  0.01817  -0.02861  -0.02789  -0.9473
6.395e+09  0.5238  -0.7362  0.00802  0.0006129  -0.01741  -0.009299  -0.3453  -0.8633
6.396e+09  0.2625  -0.8192  -0.01033  0.02437  0.05367  -0.006883  -0.595  -0.6607
6.398e+09  -0.1157  -0.8675  -0.0264  0.01134  -0.06554  -0.02279  -0.7992  -0.4199
6.399e+09  -0.3957  -0.8216  0.01772  0.005908  0.02299  -0.03771  -0.916  -0.175
6.4e+09  -0.6723  -0.6132  -0.04349  0.04008  0.02928  0.02383  -0.916  0.149
6.401e+09  -0.8449  -0.3319  0.04366  -0.03708  -0.03387  -0.02267  -0.7742  0.4354
6.402e+09  -0.8774  -0.03461  -0.003984  -0.004705  -0.0495  0.01066  -0.6155  0.7226
6.404e+09  -0.8393  0.2819  0.01975  0.008331  -0.007096  -0.02862  -0.3284  0.8346
6.405e+09  -0.6781  0.5204  -0.0136  -0.0358  -0.01689  -0.01634  0.02824  0.9239
6.406e+09  -0.5008  0.767  0.01294  -0.0216  0.02511  0.01029  0.3145  0.882
6.408e+09  -0.2075  0.8523  -0.02778  -0.01052  -0.006237  0.001621  0.582  0.71
6.409e+09  0.1643  0.9178  0.019  -0.05323  -0.04768  0.0306  0.787  0.4798
6.41e+09  0.4392  0.7321  -0.02066  -0.001631  0.006528  0.005417  0.8735  0.1365
6.411e+09  0.7064  0.5631  0.01169  -0.007412  -0.01906  0.03894  0.8752  -0.133
6.412e+09  0.8565  0.3274  0.01249  -0.01162  0.01117  0.01728  0.803  -0.4485
6.414e+09  0.897  -0.01667  0.03513  -0.04025  0.02291  0.0109  0.6135  -0.6788
6.415e+09  0.8465  -0.3046  -0.002367  -0.04258  -0.002194  0.03179  0.3247  -0.8497
6.416e+09  0.6481  -0.5764  0.03139  -0.006416  0.02268  -0.01866  0.03651  -0.9083
6.418e+09  0.4381  -0.7918  -0.05332  -0.03814  -0.003028  -0.002082  -0.3154  -0.8562
6.419e+09  0.1343  -0.8609  -0.0005758  0.02001  -0.02352  0.01416  -0.53  -0.6917
6.42e+09  -0.1334  -0.8659  0.02933  -0.02494  -0.02143  0.009335  -0.7555  -0.4776
6.421e+09  -0.4569  -0.7536  0.008649  0.003713  0.0009216  0.01467  -0.9009  -0.1778
6.422e+09  -0.6233  -0.5403  -0.004727  0.02526  -0.02189  0.0603  -0.8863  0.1057
6.424e+09  -0.796  -0.2672  -0.02569  -0.01948  -0.0113  0.02312  -0.7923  0.4131
6.425e+09  -0.8844  0.009097  -0.01491  0.00907  -0.001487  -0.03726  -0.6113  0.6967
6.426e+09  -0.805  0.2613  0.01995  -0.00843  -0.009223  -0.05425  -0.3616  0.7881
6.428e+09  -0.734  0.6103  -0.04901  -0.003506  -0.02154  0.02287  -0.03003  0.9277
6.429e+09  -0.4161  0.795  0.003459  -0.01707  -0.006883  -0.0151  0.2484  0.7807
6.43e+09  -0.1818  0.897  -0.0125  0.01594  0.04585  0.02888  0.51  0.7233
6.431e+09  0.1584  0.899  0.00615  0.01611  -0.01422  0.02426  0.7168  0.474
6.432e+09  0.4247  0.7613  -0.009471  0.02198  -0.01115  0.005126  0.8141  0.2275
6.434e+09  0.7086  0.5446  -0.009846  0.00207  0.002039  0.02048  0.8324  -0.08229
6.435e+09  0.8011  0.2852  -0.0219  0.04166  0.005959  -0.02378  0.7739  -0.3666
6.436e+09  0.8986  0.01596  -0.0011  -0.02515  -0.002599  -0.02079  0.6005  -0.6051
6.438e+09  0.8315  -0.3495  -0.005075  0.02559  0.04179  0.03956  0.355  -0.7786
6.439e+09  0.725  -0.5878  -0.004129  -0.03739  0.007978  0.03067  0.04297  -0.8617
6.44e+09  0.3828  -0.7545  -0.00322  0.01173  0.002646  0.01472  -0.2418  -0.8295
6.441e+09  0.1701  -0.8209  0.04692  0.01425  -0.01037  0.02629  -0.4488  -0.7118
6.442e+09  -0.2162  -0.9055  0.01031  0.01277  0.03376  0.002903  -0.7475  -0.4804
6.444e+09  -0.4513  -0.7302  -0.005106  -0.01211  0.0113  0.02529  -0.7976  -0.1949
6.445e+09  -0.7163  -0.5259  -0.02316  -0.03278  0.02149  -0.02815  -0.8526  0.085
6.446e+09  -0.8808  -0.2456  0.004147  -0.01023  -0.0154  0.01003  -0.7326  0.3843
6.448e+09  -0.8522  0.04465  0.009338  -0.006719  0.008929  0.0007087  -0.6054  0.6263
6.449e+09  -0.7907  0.2486  -0.0464  0.00682  0.04744  0.03437  -0.3573  0.7119
6.45e+09  -0.617  0.6161  0.02449  0.003201  -0.04692  0.02712  -0.06811  0.8143
6.451e+09  -0.4126  0.6997  0.02607  -0.03738  -0.008343  0.00273  0.2286  0.8201
6.452e+09  -0.1156  0.8753  0.002479  0.03296  0.03709  0.04833  0.5022  0.6723
6.454e+09  0.1737  0.8556  0.001686  0.05978  -0.004627  -0.01123  0.6755  0.4782
6.455e+09  0.4427  0.7472  -0.02826  0.001894  0.05819  0.03817  0.767  0.1872
6.456e+09  0.6869  0.4663  0.02382  -0.0112  -0.07825  -0.04952  0.8458  -0.01151
6.458e+09  0.8569  0.2718  -0.005092  0.02043  0.04186  0.02626  0.7305  -0.3445
6.459e+09  0.9142  -0.05265  0.0199  0.005581  0.0008645  -0.03765  0.5654  -0.592
6.46e+09  0.7943  -0.332  0.05284  0.02496  0.01948  0.003155  0.3152  -0.7631
6.461e+09  0.6153  -0.5861  -0.01813  0.003081  0.0004922  -0.02852  0.05576  -0.8263
6.462e+09  0.4337  -0.8254  0.02097  0.03125  -0.03332  -0.0232  -0.2217  -0.7901
6.464e+09  0.1274  -0.8897  0.03148  -0.006389  0.006962  -0.03432  -0.4547  -0.6877
6.465e+09  -0.1727  -0.8325  0.01854  0.01968  -0.01153  -0.01753  -0.6828  -0.5033
6.466e+09  -0.4763  -0.7051  -0.01822  -0.02592  -0.03355  -0.01775  -0.7849  -0.248
6.468e+09  -0.6986  -0.5474  0.006434  -0.02334  0.03196  0.05752  -0.7969  0.04479
6.469e+09  -0.8824  -0.2621  0.0228  -0.02129  0.02701  0.02895  -0.7135  0.36
6.47e+09  -0.8768  0.09692  -0.01011  -0.02048  0.01704  -0.03151  -0.522  0.5994
6.471e+09  -0.7986  0.3032  0.06079  -0.02872  -0.01023  -0.01149  -0.3037  0.7047
6.472e+09  -0.662  0.6284  0.005552  0.02076  0.005967  0.03744  -0.02137  0.7586
6.474e+09  -0.4078  0.7932  0.03253  -0.02152  0.04727  0.0001819  0.2355  0.7974
6.475e+09  -0.08736  0.89  -0.008676  0.02044  -0.03325  0.009521  0.4465  0.6484
6.476e+09  0.1959  0.8918  0.009325  0.009936  -0.02473  0.06388  0.6676  0.4143
6.478e+09  0.5339  0.6927  0.00362  0.008306  -0.006036  0.02978  0.7589  0.1787
6.479e+09  0.7035  0.5476  0.04236  0.001138  -0.0114  0.01895  0.792  -0.08534
6.48e+09  0.8856  0.2994  0.01115  0.004345  -0.002431  0.03342  0.6892  -0.3653
6.481e+09  0.8913  -0.06444  -0.02725  0.02108  -0.04519  0.01881  0.5279  -0.6057
6.482e+09  0.7845  -0.3866  0.002406  -0.02505  -0.04825  0.03637  0.3318  -0.739
6.484e+09  0.6367  -0.6481  -0.01652  0.009132  0.001097  -0.01714  0.05965  -0.7707
6.485e+09  0.4261  -0.7967  0.0433  -0.0336  -0.004947  0.01016  -0.2531  -0.7834
6.486e+09  0.08742  -0.9253  0.007313  0.001991  -0.009854  0.0247  -0.4477  -0.6788
6.488e+09  -0.2479  -0.9002  -0.05521  0.01585  0.005072  -0.05888  -0.6907  -0.4171
6.489e+09  -0.4786  -0.7404  -0.03077  -0.008213  -0.0145  -0.01171  -0.7843  -0.1661
6.49e+09  -0.7554  -0.4652  -0.02687  0.04724  -0.01772  0.03337  -0.7492  0.106
6.491e+09  -0.7979  -0.2962  -0.02195  -0.02591  -0.0436  0.004152  -0.6864  0.328
6.492e+09  -0.914  0.129  0.04328  -0.002297  0.02178  -0.03771  -0.5134  0.5372
6.494e+09  -0.8107  0.3733  0.005589  0.02677  -0.02186  -0.02329  -0.277  0.6909
6.495e+09  -0.6471  0.6583  0.02318  0.02606  0.04738  -0.01503  -0.03324  0.761
6.496e+09  -0.3362  0.8532  0.02159  -0.008042  -0.03066  0.01846  0.2195  0.7621
6.498e+09  -0.02833  0.8936  -0.02812  0.01693  -0.02765  -0.03804  0.476  0.6403
6.499e+09  0.2564  0.8587  0.01829  -0.01142  0.0334  -0.02077  0.6444  0.4054
6.5e+09  0.5451  0.7628  -0.0001293  -0.02558  0.01584  -0.0261  0.7805  0.1552
6.501e+09  0.8058  0.5308  0.01575  -0.02799  -0.02261  0.03848  0.7431  -0.1213
6.502e+09  0.8892  0.2215  -0.004729  0.02284  0.004887  0.004619  0.6631  -0.3306
6.504e+09  0.8916  -0.108  -0.02179  -0.003211  0.0128  -0.002793  0.4972  -0.5832
6.505e+09  0.801  -0.4074  0.03591  -0.01715  0.02783  -0.02125  0.3001  -0.7073
6.506e+09  0.6098  -0.6877  0.01654  0.005878  0.03201  0.02391  0.01395  -0.7328
6.508e+09  0.3584  -0.8547  0.0208  -0.005433  0.03065  0.06948  -0.2417  -0.7729
6.509e+09  0.05579  -0.9485  0.004193  -0.03728  -0.03852  -0.03731  -0.5026  -0.5874
6.51e+09  -0.2534  -0.878  -0.0422  0.01084  -0.04849  0.02729  -0.6855  -0.3992
6.511e+09  -0.5693  -0.7627  0.02387  -0.008747  -0.02148  -0.000828  -0.7559  -0.1715
6.512e+09  -0.7954  -0.5097  0.001293  -0.01626  0.01823  0.03338  -0.7304  0.121
6.514e+09  -0.9035  -0.2415  0.002152  -0.001541  0.00414  -0.01504  -0.6245  0.375
6.515e+09  -0.9207  0.1433  0.01117  0.01672  0.001939  -0.09385  -0.473  0.5944
6.516e+09  -0.7974  0.4398  0.02031  0.03193  0.01665  0.0229  -0.2689  0.6902
6.518e+09  -0.6946  0.6668  -0.02249  -0.005896  0.0373  -0.01375  0.0217  0.7777
6.519e+09  -0.3526  0.8603  -0.01926  0.03445  -0.01803  0.001944  0.2837  0.6913
6.52e+09  0.002042  0.943  -0.008478  0.03238  -0.00705  -0.007771  0.4618  0.5677
6.521e+09  0.3141  0.922  -0.001937  0.02928  -0.05339  0.03342  0.6795  0.3733
6.522e+09  0.608  0.7717  0.01759  0.01235  0.02323  0.01313  0.7048  0.08791
6.524e+09  0.8028  0.4512  0.006657  -0.01649  -0.009539  0.02549  0.685  -0.1583
6.525e+09  0.9464  0.1742  0.01224  -0.01456  0.002185  0.01348  0.5949  -0.4118
6.526e+09  0.925  -0.138  -0.003646  -0.04973  -0.01771  -0.01266  0.4019  -0.565
6.528e+09  0.8096  -0.4613  -0.002665  -0.009766  0.02755  -0.0139  0.2152  -0.6895
6.529e+09  0.5868  -0.7244  0.01526  -0.01579  0.01305  0.007678  -0.08722  -0.7225
6.53e+09  0.2412  -0.9  0.01027  -0.03409  -0.01562  0.04336  -0.2715  -0.6209
6.531e+09  -0.02118  -0.9781  0.02129  0.0323  -0.003764  0.008266  -0.4911  -0.4743
6.532e+09  -0.4052  -0.932  0.01287  0.01678  0.0183  -0.04481  -0.6271  -0.2743
6.534e+09  -0.6711  -0.7219  0.01554  -0.04343  -0.0008228  0.02539  -0.6028  -0.08986
6.535e+09  -0.8753  -0.4565  -0.03099  0.0008955  -0.04753  0.04936  -0.6148  0.09558
6.536e+09  -0.8961  -0.1523  -0.008705  0.006758  -0.002239  -0.01463  -0.5418  0.2817
6.538e+09  -0.9783  0.2087  -0.04047  -0.008264  -0.008076  -0.02849  -0.4176  0.4908
6.539e+09  -0.8332  0.5459  0.04097  -0.01666  0.03418  0.01991  -0.2675  0.6259
6.54e+09  -0.5532  0.8089  -0.003545  0.0299  -0.008531  0.04604  -0.03027  0.6866
6.541e+09  -0.2555  0.9637  0.03449  -0.003073  -0.05254  0.01225  0.1987  0.6712
6.542e+09  0.1053  0.9877  -0.009079  0.01057  0.03145  0.04307  0.4104  0.5901
6.544e+09  0.4204  0.8644  -0.01969  -0.0237  0.01502  -0.04601  0.6035  0.4004
6.545e+09  0.7035  0.6708  0.006517  0.02398  0.0003826  -0.003118  0.6888  0.1595
6.546e+09  0.8932  0.384  0.01337  0.01818  -0.02104  -0.0006359  0.7077  -0.07036
6.548e+09  0.9878  0.04467  0.005019  0.0264  -0.02218  -0.04148  0.666  -0.3413
6.549e+09  0.9066  -0.2847  0.008362  0.002877  -0.04177  -0.007721  0.4766  -0.5242
6.55e+09  0.7603  -0.6006  -0.00225  -0.01932  0.0175  0.06908  0.2252  -0.6533
