# Hz S RI R 50
6.25e+09  0.4484  0.7409  0.03403  -0.02117  0.002027  -0.05731  0.1531  0.4799
6.251e+09  0.6629  0.587  -0.01487  -0.02778  -0.01365  -0.02554  0.3691  0.3959
6.252e+09  0.8187  0.2899  -0.02204  -0.002675  0.03211  0.003785  0.5056  0.2585
6.254e+09  0.8717  0.01143  0.004804  -0.00427  0.06433  -0.03353  0.5812  0.01293
6.255e+09  0.8166  -0.2832  -0.00723  -0.03818  -0.001621  -0.009875  0.5696  -0.2267
6.256e+09  0.6237  -0.52  -0.0106  0.02411  0.03028  -0.006568  0.4943  -0.4614
6.258e+09  0.3797  -0.738  0.003844  0.01543  -0.006033  0.01277  0.2929  -0.6024
6.259e+09  0.04274  -0.8163  0.02887  0.01026  0.0004827  0.006517  0.04365  -0.6982
6.26e+09  -0.1912  -0.8031  0.02657  0.000315  -0.02002  0.02249  -0.2162  -0.6355
6.261e+09  -0.4643  -0.7423  0.007933  -0.0003556  0.00407  -0.01658  -0.4561  -0.5547
6.262e+09  -0.6577  -0.5605  0.0003088  -0.01389  -0.03672  -0.0465  -0.5967  -0.3729
6.264e+09  -0.7816  -0.2417  -0.01389  0.008323  0.01602  0.05403  -0.6977  -0.1098
6.265e+09  -0.8395  0.05775  0.03465  0.03341  0.07555  -0.02118  -0.6895  0.1832
6.266e+09  -0.7649  0.3376  0.03447  -0.01414  0.00893  0.00519  -0.6087  0.3814
6.268e+09  -0.6505  0.5762  -0.01885  0.01654  -0.03044  0.0449  -0.4608  0.586
6.269e+09  -0.3559  0.795  0.004541  0.0008373  -0.01563  -0.000491  -0.2516  0.7276
6.27e+09  -0.02893  0.8051  -0.01414  -0.004508  0.04206  0.03964  0.1099  0.7558
6.271e+09  0.273  0.8332  -0.02054  -0.03603  -0.03374  0.02299  0.3048  0.668
6.272e+09  0.5127  0.6442  -0.05022  -0.006897  -0.03592  -0.001162  0.5463  0.5123
6.274e+09  0.6561  0.4036  -0.01223  -0.01434  -0.01521  0.02213  0.6889  0.2818
6.275e+09  0.8257  0.1694  0.006802  0.01943  -0.05694  -0.009118  0.7395  0.06499
6.276e+09  0.8419  -0.1281  -0.005768  0.017  -0.01325  -0.04224  0.7283  -0.2104
6.278e+09  0.7293  -0.4389  0.01528  -0.005065  0.006613  0.004857  0.6234  -0.4609
6.279e+09  0.5646  -0.6207  0.002026  -0.003975  -0.03864  0.004685  0.4212  -0.6608
6.28e+09  0.3412  -0.7942  0.01485  -0.01796  -0.003578  0.02946  0.1533  -0.7638
6.281e+09  -0.0334  -0.8334  0.03747  -0.01912  -0.03046  0.002965  -0.09851  -0.7433
6.282e+09  -0.2973  -0.7649  0.04119  -0.01688  -0.0487  0.04906  -0.3774  -0.6889
6.284e+09  -0.4925  -0.6312  -0.02838  0.001912  0.002424  -0.05775  -0.62  -0.508
6.285e+09  -0.6897  -0.4056  -0.005424  -0.01142  0.05337  -0.01109  -0.7489  -0.2639
6.286e+09  -0.7958  -0.07697  0.004778  -0.01496  0.03619  0.0293  -0.7994  -0.008912
6.288e+09  -0.759  0.2694  0.006295  -0.02669  -0.02681  -0.001846  -0.7581  0.2847
6.289e+09  -0.687  0.5081  -0.01146  0.03745  -0.03492  0.01828  -0.6341  0.502
6.29e+09  -0.4499  0.7057  -0.0005545  0.004284  -0.02691  0.06409  -0.417  0.6857
6.291e+09  -0.2186  0.7846  -0.002304  0.006729  0.001649  -0.01999  -0.1742  0.8164
6.292e+09  0.09268  0.7785  -0.009258  -0.01405  -0.01121  -0.04429  0.1344  0.8144
6.294e+09  0.3781  0.7581  -0.00986  -0.00431  0.0003712  0.0104  0.3935  0.6904
6.295e+09  0.5977  0.6163  -0.02871  0.01707  -0.0154  -0.03324  0.6474  0.5087
6.296e+09  0.7043  0.4198  0.0305  0.04234  -0.03861  0.006757  0.7899  0.3117
6.298e+09  0.7977  0.1022  0.007452  0.02427  -0.002832  0.01649  0.8149  -0.0009323
6.299e+09  0.7615  -0.2886  -0.005449  0.02022  0.007329  -0.04932  0.7781  -0.2781
6.3e+09  0.6793  -0.5289  0.0231  -0.01918  -0.01942  0.01543  0.6212  -0.5092
6.301e+09  0.41  -0.7009  -0.002186  0.01597  -0.05855  0.03353  0.4392  -0.713
6.302e+09  0.1527  -0.8281  0.003285  -0.001916  -0.03848  -0.02484  0.15  -0.8321
6.304e+09  -0.1017  -0.8416  0.02024  -0.02361  -0.01645  -0.03422  -0.1635  -0.8541
6.305e+09  -0.4239  -0.758  0.01191  -0.005085  -0.01013  0.04058  -0.4301  -0.7366
6.306e+09  -0.6811  -0.5403  0.02805  -0.02646  -0.01166  -0.009639  -0.6256  -0.5352
6.308e+09  -0.7781  -0.289  -0.004537  0.02818  -0.02201  0.01786  -0.8202  -0.3222
6.309e+09  -0.852  0.007639  0.002762  0.006306  0.007144  -0.02774  -0.8423  0.001834
6.31e+09  -0.7912  0.3802  -0.0008493  0.01496  0.01286  -0.01344  -0.8279  0.301
6.311e+09  -0.616  0.5688  -0.01385  0.009818  -0.02059  0.004412  -0.6621  0.5533
6.312e+09  -0.3795  0.7338  0.006541  0.03558  0.02518  -0.04801  -0.423  0.7017
6.314e+09  -0.07298  0.8266  -0.007234  -0.01897  0.02153  -0.02685  -0.1545  0.8823
6.315e+09  0.1953  0.8229  0.006212  0.03482  0.007572  -0.0148  0.1336  0.8467
6.316e+09  0.4815  0.6659  -0.02099  -0.001614  0.06849  0.01972  0.4456  0.7725
6.318e+09  0.7289  0.4774  -0.01658  -0.005309  -0.01093  -0.01335  0.666  0.5454
6.319e+09  0.7829  0.1936  0.003074  -0.007671  -0.01923  -0.04009  0.8416  0.2848
6.32e+09  0.8274  -0.09442  0.02716  -0.000528  0.003978  0.03539  0.8964  0.02983
6.321e+09  0.7537  -0.3248  -0.006394  -0.01522  -0.03145  0.0512  0.8657  -0.2772
6.322e+09  0.5948  -0.6602  -0.006685  -0.01122  -0.01245  -0.02343  0.7152  -0.565
6.324e+09  0.2944  -0.8009  -0.01109  -0.03503  -0.006458  -0.009069  0.4879  -0.7826
6.325e+09  0.02924  -0.8496  -0.005434  -0.01348  0.0369  0.02515  0.1815  -0.8872
6.326e+09  -0.2959  -0.7694  -0.0347  -0.04244  0.02705  -0.0172  -0.1263  -0.9059
6.328e+09  -0.5812  -0.6586  -0.001668  0.008633  0.003603  -0.01864  -0.4225  -0.816
6.329e+09  -0.731  -0.405  -0.03217  -0.0034  -0.01227  -0.02514  -0.6608  -0.5704
6.33e+09  -0.8591  -0.1471  0.01707  -0.008335  0.01241  0.03053  -0.8532  -0.3013
6.331e+09  -0.8283  0.1552  -0.002736  0.01339  -0.03068  0.03656  -0.9099  -0.02938
6.332e+09  -0.755  0.4735  -0.001103  -0.001384  -0.04962  -0.02857  -0.884  0.3148
6.334e+09  -0.4912  0.7183  -0.0147  0.02832  0.01515  0.02825  -0.7  0.5336
6.335e+09  -0.2338  0.8069  -0.006874  -0.02136  -0.01815  -0.03838  -0.4757  0.7605
6.336e+09  0.005833  0.8598  0.01783  -0.006027  -0.01272  -0.01769  -0.1958  0.89
6.338e+09  0.3833  0.7631  0.02006  0.002914  -0.01597  -0.01889  0.1505  0.9325
6.339e+09  0.6336  0.632  -0.03196  -0.00311  -0.008088  -0.01094  0.4468  0.8305
6.34e+09  0.7993  0.3594  -0.01546  -0.007386  -0.02767  0.03775  0.6627  0.6355
6.341e+09  0.8618  0.04125  0.02945  0.02703  -0.04751  0.007168  0.8768  0.3547
6.342e+09  0.8838  -0.2996  -0.009694  0.0005534  0.02746  -0.007676  0.9186  0.07661
6.344e+09  0.6472  -0.5706  0.0004641  0.002907  0.01196  0.02168  0.9162  -0.2943
6.345e+09  0.4493  -0.7492  0.01944  -0.02838  0.04187  0.02854  0.718  -0.5516
6.346e+09  0.1421  -0.8267  -0.007294  0.008916  -0.01027  0.01909  0.5127  -0.785
6.348e+09  -0.0982  -0.8441  0.02188  -0.01502  0.02437  -0.03342  0.2006  -0.9291
6.349e+09  -0.4407  -0.7472  0.005649  0.01852  0.01473  0.006998  -0.1215  -0.8891
6.35e+09  -0.727  -0.5685  -0.003741  -0.001157  -0.009637  -0.02449  -0.4369  -0.8447
6.351e+09  -0.8041  -0.2845  -0.009277  0.005925  0.02316  0.01096  -0.6887  -0.6576
6.352e+09  -0.8619  0.02371  -0.005319  0.003981  0.03785  0.02555  -0.8804  -0.4056
6.354e+09  -0.7854  0.3247  -0.02034  0.0261  -0.02538  -0.03177  -0.9359  -0.06799
6.355e+09  -0.6645  0.5791  0.0005834  -0.03478  -0.02093  0.05733  -0.9069  0.2384
6.356e+09  -0.41  0.7833  0.03643  0.0205  -0.02815  -0.02625  -0.765  0.5592
6.358e+09  -0.1073  0.8408  0.01158  -0.007633  -0.002367  0.01085  -0.5035  0.7653
6.359e+09  0.1991  0.8302  0.02197  0.01129  0.00453  -0.001894  -0.2306  0.9205
6.36e+09  0.4842  0.7315  0.001539  0.01884  -0.04552  0.0006909  0.06816  0.8927
6.361e+09  0.6937  0.4577  -0.005786  0.004259  0.001707  0.005713  0.409  0.8189
6.362e+09  0.8413  0.1732  -0.04312  -0.00492  -0.001185  -0.002  0.6485  0.6584
6.364e+09  0.8975  -0.04942  -0.02865  0.01147  0.006047  -0.009459  0.8892  0.4367
6.365e+09  0.8031  -0.3848  0.04497  -0.02842  -0.01806  0.001024  0.9671  0.06195
6.366e+09  0.5856  -0.625  0.04972  -0.02756  -0.006207  -0.03288  0.9349  -0.2609
6.368e+09  0.3637  -0.8337  -0.007763  -0.03995  -0.003896  -0.01643  0.757  -0.5688
6.369e+09  -0.01475  -0.8841  0.005552  -0.005236  -0.009155  -0.0282  0.5489  -0.7838
6.37e+09  -0.26  -0.8082  -0.004552  -0.03282  -0.01869  -0.01852  0.2271  -0.9178
6.371e+09  -0.5166  -0.7014  0.03098  0.008524  0.03582  0.01204  -0.06233  -0.9456
6.372e+09  -0.7411  -0.4295  0.00138  -0.007258  -0.02516  0.03755  -0.3738  -0.8269
6.374e+09  -0.9234  -0.1623  -0.006259  -0.005938  -0.004282  0.01851  -0.6552  -0.6222
6.375e+09  -0.8802  0.1748  -0.02768  0.02701  0.008671  0.02418  -0.8792  -0.413
6.376e+09  -0.7839  0.4786  0.001041  0.004892  0.03328  0.01742  -0.9007  -0.0969
6.378e+09  -0.561  0.6837  -0.03773  0.01278  -0.09483  -0.002885  -0.9366  0.2717
6.379e+09  -0.2826  0.8275  -0.01831  -0.0007971  -0.02277  0.02602  -0.7457  0.575
6.38e+09  -0.003376  0.9032  0.005517  -0.0273  -0.02696  -0.02601  -0.5761  0.7956
6.381e+09  0.3247  0.8379  0.04827  0.007798  -0.01811  0.001908  -0.3113  0.9098
6.382e+09  0.6192  0.6124  0.02476  0.0005073  -0.01014  0.01106  0.07104  0.9348
6.384e+09  0.8021  0.3687  -0.01344  0.02558  -0.04021  0.01487  0.3564  0.8567
6.385e+09  0.8968  0.05109  0.009831  -0.06353  0.008188  -0.0482  0.6604  0.6469
6.386e+09  0.9277  -0.2475  0.02601  0.01183  0.04117  0.003407  0.8601  0.4138
6.388e+09  0.757  -0.4665  -0.03109  -0.03582  0.02392  0.0579  0.957  0.1367
6.389e+09  0.4414  -0.7366  -0.007906  0.002958  -0.005734  0.02474  0.9249  -0.1862
6.39e+09  0.2001  -0.8433  0.01941  -0.01131  -0.02075  0.04053  0.7696  -0.4574
6.391e+09  -0.07968  -0.8746  0.02904  0.01739  -0.00774  -0.0367  0.5407  -0.7825
6.392e+09  -0.3584  -0.7734  -0.01994  0.02299  0.007653  0.04316  0.2572  -0.8794
6.394e+09  -0.6324  -0.6141  0.001167  0.009063  -0.04407  -0.009244  0.01362  -0.9197
6.395e+09  -0.8389  -0.3419  -0.01928  -0.001811  -0.017  -0.02806  -0.3491  -0.844
6.396e+09  -0.8915  -0.01477  0.01579  -0.02258  0.009253  0.03277  -0.6335  -0.6644
6.398e+09  -0.8387  0.3  -0.01724  -0.02403  -0.05069  -0.01488  -0.8124  -0.4295
6.399e+09  -0.6043  0.6067  -0.01226  -0.0245  0.0106  0.02739  -0.9129  -0.1812
6.4e+09  -0.4199  0.7956  -0.006379  0.01524  0.01975  -0.01944  -0.9329  0.1716
6.401e+09  -0.1611  0.8403  -0.004532  -0.003487  0.01059  0.03263  -0.7719  0.4572
6.402e+09  0.182  0.8754  0.02234  0.001427  0.0176  -0.02458  -0.5558  0.7327
6.404e+09  0.5069  0.7276  -0.03037  0.008729  0.0002556  -0.02607  -0.3132  0.8279
6.405e+09  0.7245  0.5306  -0.02442  0.001073  0.02634  -0.01597  0.01886  0.9263
6.406e+09  0.8297  0.2683  -0.0086  0.04597  -0.007226  0.003228  0.3176  0.8532
6.408e+09  0.8707  -0.03541  -0.01841  -0.007553  -0.03016  0.03889  0.5723  0.6971
6.409e+09  0.8074  -0.326  -0.02959  0.02469  0.01662  0.04522  0.8198  0.4829
6.41e+09  0.6112  -0.6317  -0.01649  -0.003642  0.0009186  0.01967  0.9337  0.1851
6.411e+09  0.3939  -0.7955  0.0213  -0.03671  -0.005029  -0.01236  0.8756  -0.1635
6.412e+09  0.07356  -0.8354  -0.0181  0.01651  -0.0293  0.03952  0.7989  -0.4059
6.414e+09  -0.1915  -0.8575  0.02012  0.001891  0.01751  -0.02288  0.5644  -0.674
6.415e+09  -0.533  -0.7488  0.007819  0.01703  -0.05649  0.03932  0.3348  -0.8636
6.416e+09  -0.7859  -0.46  0.05413  -0.02078  -0.03466  0.01576  0.03659  -0.8926
6.418e+09  -0.8265  -0.165  0.03611  0.004471  0.01924  0.01505  -0.2782  -0.8442
6.419e+09  -0.9603  0.1556  0.01458  -0.005919  0.0224  0.01024  -0.5559  -0.679
6.42e+09  -0.7884  0.4792  -0.003264  0.04515  0.007854  -0.02285  -0.7477  -0.5234
6.421e+09  -0.5814  0.683  0.04886  0.03406  0.04082  0.03556  -0.8549  -0.1784
6.422e+09  -0.3121  0.8577  -0.01174  0.009824  0.01287  0.04597  -0.9147  0.0644
6.424e+09  0.06341  0.8961  -0.0109  0.06298  0.006621  0.0007599  -0.8047  0.3918
6.425e+09  0.3946  0.8179  -0.02734  -0.04276  0.03481  -0.02696  -0.5756  0.6524
6.426e+09  0.6101  0.6705  -0.01652  -0.01465  -0.00161  -0.0005133  -0.3413  0.7828
6.428e+09  0.8264  0.378  0.007976  -0.03942  0.02415  0.02795  -0.05297  0.863
6.429e+09  0.8967  0.04118  0.02073  0.009473  -0.008711  -0.05128  0.229  0.8648
6.43e+09  0.8881  -0.2857  0.01527  0.001253  0.03737  0.02286  0.4928  0.6718
6.431e+09  0.7414  -0.5296  -0.0006531  0.034  -0.03118  -0.000885  0.6995  0.4314
6.432e+09  0.4997  -0.7531  0.001115  0.02356  0.007351  8.715e-05  0.8503  0.214
6.434e+09  0.1641  -0.8811  0.01536  -0.006904  0.03218  -0.008265  0.8593  -0.1434
6.435e+09  -0.1061  -0.8657  0.04543  -0.02138  0.0237  0.02856  0.7539  -0.3854
6.436e+09  -0.5099  -0.7916  -0.0002413  -0.0207  -0.0439  0.04791  0.645  -0.6354
6.438e+09  -0.7288  -0.5365  0.03649  0.002005  -0.03156  0.006722  0.3262  -0.7981
6.439e+09  -0.8869  -0.2233  -0.04401  -0.02039  0.0574  -0.02756  0.06234  -0.8227
6.44e+09  -0.8538  0.09614  -0.0008347  -0.01347  -0.00661  0.00552  -0.2501  -0.8498
6.441e+09  -0.8212  0.3873  0.05972  0.0472  -0.01478  0.01766  -0.4899  -0.6894
6.442e+09  -0.6083  0.6391  0.004873  0.04015  0.03277  -0.02168  -0.6501  -0.5194
6.444e+09  -0.3284  0.8498  -0.01471  0.04068  -0.02513  0.01792  -0.8418  -0.201
6.445e+09  -0.06879  0.932  -0.01764  0.02379  0.01841  0.006673  -0.8534  0.1041
6.446e+09  0.3048  0.8057  0.01121  -0.007957  -0.02398  -0.008856  -0.7666  0.3654
6.448e+09  0.6161  0.7456  -0.03595  -0.01282  -0.01894  0.01707  -0.5489  0.6321
6.449e+09  0.7787  0.455  0.004506  0.01915  -0.01151  -0.06234  -0.3591  0.7203
6.45e+09  0.8688  0.04894  -0.01219  0.0009164  0.04804  0.02188  -0.1063  0.8161
6.451e+09  0.8531  -0.1961  0.01911  -0.05642  0.03341  0.00662  0.2317  0.7862
6.452e+09  0.7407  -0.576  0.03702  0.01299  0.03533  0.01724  0.5182  0.6738
6.454e+09  0.529  -0.7479  -0.02084  -0.05771  -0.02223  -0.01147  0.6856  0.4687
6.455e+09  0.1365  -0.9119  0.01177  0.01389  0.06227  -0.02317  0.7755  0.2012
6.456e+09  -0.1283  -0.8702  0.02874  0.006704  0.007222  -0.002062  0.8487  -0.05504
6.458e+09  -0.5185  -0.7643  0.06433  0.01821  0.02615  -0.008964  0.7167  -0.3742
6.459e+09  -0.7304  -0.5603  0.0175  0.01709  -0.01991  -0.03992  0.5537  -0.6012
6.46e+09  -0.858  -0.2781  0.02125  0.002194  0.02648  -0.01282  0.2921  -0.7798
6.461e+09  -0.8948  0.04864  0.01577  -0.01974  0.02659  -0.006275  0.05793  -0.803
6.462e+09  -0.8355  0.3991  0.002648  0.02581  0.008786  0.0257  -0.2408  -0.796
6.464e+09  -0.6454  0.6686  -0.0189  0.031  -0.02875  -0.02275  -0.4554  -0.6301
6.465e+09  -0.3055  0.8245  0.01329  0.03152  0.006805  0.0004814  -0.7015  -0.4206
6.466e+09  0.004438  0.8993  -0.02709  0.006342  -0.03347  0.05923  -0.8007  -0.182
6.468e+09  0.3653  0.8407  0.004347  0.04757  -0.01701  0.04447  -0.7652  0.1266
6.469e+09  0.5798  0.6432  -0.02148  0.02637  -0.006759  -0.002978  -0.7275  0.3722
6.47e+09  0.7831  0.3995  0.0317  0.0109  -0.005995  -0.009486  -0.5384  0.5918
6.471e+09  0.8774  0.09004  0.01867  0.0152  -0.004192  0.008147  -0.2986  0.7382
6.472e+09  0.8871  -0.24  -0.01445  -0.01289  0.04422  -0.01878  -0.07443  0.7659
6.474e+09  0.6869  -0.5391  0.003574  -0.01799  0.003772  0.02171  0.2004  0.7595
6.475e+09  0.386  -0.7587  -0.00554  -0.0008641  0.04839  -0.02857  0.4705  0.6607
6.476e+09  0.09397  -0.8433  0.01389  0.005694  0.006307  -0.04506  0.6886  0.453
6.478e+09  -0.1969  -0.8527  -0.0004829  -0.002887  0.02381  -0.03226  0.7487  0.137
6.479e+09  -0.4918  -0.7061  0.03363  -0.03082  -0.02111  0.0102  0.7939  -0.09589
6.48e+09  -0.7635  -0.4891  0.06092  0.02864  0.03337  -0.05467  0.7308  -0.3753
6.481e+09  -0.8432  -0.2218  -0.02179  -0.008095  0.02932  0.02127  0.5273  -0.5777
6.482e+09  -0.8744  0.1432  0.02815  0.01106  0.07063  0.004244  0.3249  -0.7304
6.484e+09  -0.7466  0.3978  0.02221  0.001339  -0.01422  0.0448  0.04787  -0.7182
6.485e+09  -0.5011  0.6294  0.01222  0.02531  0.02236  0.003611  -0.246  -0.7542
6.486e+09  -0.2717  0.7636  0.003051  -0.01426  -0.004664  0.03157  -0.4714  -0.6482
6.488e+09  0.07202  0.7735  0.02438  -0.04864  0.01674  0.007142  -0.665  -0.477
6.489e+09  0.3744  0.7325  -0.009102  -0.03599  -0.05245  -0.03804  -0.7557  -0.2239
6.49e+09  0.6098  0.6137  0.007726  -0.01104  0.008964  -0.007608  -0.789  0.07446
6.491e+09  0.7046  0.2534  -0.01685  0.01753  -0.04756  0.01591  -0.6945  0.2984
6.492e+09  0.8024  -0.01004  -0.0265  -0.02386  -0.05811  0.04769  -0.5392  0.5777
6.494e+09  0.8239  -0.3333  -0.006945  0.03727  0.07298  -0.0004845  -0.2979  0.6967
6.495e+09  0.5639  -0.5138  -0.01116  -0.01719  0.03834  -0.04034  -0.01774  0.7468
6.496e+09  0.3412  -0.6967  -0.01589  -0.005352  -0.01004  0.044  0.2254  0.7736
6.498e+09  0.07276  -0.8112  0.01355  -0.009824  0.0102  0.003155  0.4295  0.6455
6.499e+09  -0.2106  -0.7883  0.01552  0.0002661  0.03653  -0.0199  0.6243  0.4229
6.5e+09  -0.532  -0.6157  -0.02521  -0.002251  -0.02492  -0.004972  0.7324  0.1692
6.501e+09  -0.6871  -0.4309  -0.01798  -0.005808  0.0334  -0.01265  0.7619  -0.1163
6.502e+09  -0.8067  -0.1255  0.03584  0.01999  0.0003993  0.02574  0.6582  -0.3535
6.504e+09  -0.7423  0.2064  -0.01839  -0.01414  -0.02908  -0.03661  0.5059  -0.5911
6.505e+09  -0.6289  0.4121  -0.04481  -0.02067  -0.007047  0.02365  0.3093  -0.695
6.506e+09  -0.4235  0.6016  0.02631  -0.01897  -0.004726  -0.06067  0.04511  -0.7371
6.508e+09  -0.1733  0.7191  -0.01755  -0.03151  -0.03336  -0.02668  -0.2605  -0.7466
6.509e+09  0.09243  0.753  0.01078  -0.004146  0.01595  0.02736  -0.4931  -0.6194
6.51e+09  0.3413  0.6622  -0.005572  -0.03297  -0.005092  0.04196  -0.6852  -0.3743
6.511e+09  0.5584  0.5153  0.03363  -0.01046  -0.01886  -0.01133  -0.7328  -0.1109
6.512e+09  0.7105  0.2458  -0.01534  -0.02964  -0.04658  -0.01725  -0.7423  0.1124
6.514e+09  0.7623  0.005493  0.01872  0.004299  -0.005478  -0.009659  -0.6312  0.3855
6.515e+09  0.6515  -0.2698  0.01665  0.008168  0.01707  0.01763  -0.4612  0.557
6.516e+09  0.5443  -0.5368  -0.03361  0.00199  0.02713  -0.04465  -0.2318  0.6779
6.518e+09  0.3372  -0.6629  -0.00169  0.009365  0.04439  0.01846  0.03428  0.7455
6.519e+09  0.04851  -0.7515  0.01189  0.008598  -0.006107  -0.01773  0.2938  0.6971
6.52e+09  -0.157  -0.7101  -0.03612  0.001782  -0.02559  0.01366  0.484  0.5914
6.521e+09  -0.4409  -0.6319  -0.03576  0.02725  0.04283  0.0134  0.6628  0.3633
6.522e+09  -0.6319  -0.3781  0.01674  0.00251  -0.003153  0.03146  0.7372  0.1229
6.524e+09  -0.7058  -0.1293  0.01098  -0.01359  -0.0209  0.06337  0.7053  -0.1684
6.525e+09  -0.7311  0.1251  -0.006288  0.000106  -0.01393  0.07204  0.6213  -0.4146
6.526e+09  -0.6429  0.3644  -0.02072  0.01416  -0.02247  -0.02472  0.4714  -0.5773
6.528e+09  -0.4568  0.5999  -0.02328  0.009579  0.009815  -0.01692  0.1924  -0.6976
6.529e+09  -0.2248  0.7171  0.04647  0.01217  0.00842  0.04794  -0.02721  -0.7054
6.53e+09  0.09749  0.7462  -0.003475  0.006911  -0.01767  -5.498e-06  -0.2956  -0.6492
6.531e+09  0.335  0.6672  0.01527  -0.03291  -0.02624  -0.007492  -0.4316  -0.4552
6.532e+09  0.5646  0.4682  0.01025  -0.01367  -0.006138  -0.007989  -0.5957  -0.2718
6.534e+09  0.6611  0.3068  0.00108  -0.0004959  0.02838  -0.02813  -0.6252  -0.07256
6.535e+09  0.726  -0.07416  0.004645  -0.007667  -0.008084  -0.006135  -0.6567  0.1194
6.536e+09  0.7337  -0.2881  -0.004471  -0.009058  -0.0292  0.02133  -0.5632  0.2782
6.538e+09  0.5959  -0.4627  -0.0004376  -0.0001201  -0.04533  0.008642  -0.4203  0.4887
6.539e+09  0.308  -0.6465  0.002783  -0.00837  -0.004345  -0.02031  -0.2634  0.6437
6.54e+09  0.06587  -0.7866  -0.03633  -0.004744  -0.03039  -0.03181  -0.04541  0.6621
6.541e+09  -0.1726  -0.6853  0.0138  -0.01034  -0.00975  0.04673  0.1786  0.6703
6.542e+09  -0.4296  -0.597  0.009509  -0.01265  0.04171  -0.00147  0.402  0.5935
6.544e+09  -0.5771  -0.3991  0.04063  -0.01328  -0.001286  -0.02109  0.5932  0.4226
6.545e+09  -0.7706  -0.1451  0.001651  0.009746  0.0382  -0.02782  0.7129  0.1754
6.546e+09  -0.7717  0.07166  -0.001156  0.0312  0.03892  -0.03625  0.7093  -0.0997
6.548e+09  -0.6111  0.3604  0.01166  0.004515  -0.01122  -0.01582  0.6738  -0.3131
6.549e+09  -0.4589  0.5552  0.008266  0.002624  0.0558  0.005969  0.4987  -0.522
6.55e+09  -0.2225  0.7152  -0.01526  -0.01022  0.02231  -0.009331  0.2823  -0.6986
