# Hz S RI R 50
6.25e+09  -0.1841  0.851  0.003947  0.02247  -0.01361  0.009844  0.1439  0.5038
6.251e+09  0.1028  0.826  0.007052  -0.009916  -0.02987  -0.02141  0.3599  0.4103
6.252e+09  0.3882  0.7652  0.01103  0.0101  0.0617  -0.02756  0.4968  0.2078
6.254e+09  0.6856  0.6066  -0.008932  0.02402  0.04294  -0.01827  0.6084  0.01021
6.255e+09  0.7272  0.2977  -0.03977  -0.02396  -0.00417  -0.002029  0.6195  -0.251
6.256e+09  0.8569  0.05348  0.01158  0.0486  0.03386  0.03005  0.4834  -0.4426
6.258e+09  0.8106  -0.2317  -0.01875  0.02815  0.02144  0.002154  0.3198  -0.6188
6.259e+09  0.663  -0.5621  -0.004223  -0.01574  -0.0198  -0.04677  0.009169  -0.6517
6.26e+09  0.4882  -0.6937  0.001464  0.03297  0.03798  -0.04011  -0.2132  -0.6505
6.261e+09  0.1758  -0.817  -0.02116  -0.0012  -0.01884  0.03096  -0.4416  -0.5403
6.262e+09  -0.0858  -0.8558  9.388e-05  -0.01462  0.02477  0.02166  -0.6171  -0.3365
6.264e+09  -0.3533  -0.7395  0.01819  0.01372  -0.04425  -0.03928  -0.6723  -0.1037
6.265e+09  -0.6066  -0.5968  0.02521  -0.001239  -0.02094  0.01529  -0.7106  0.1815
6.266e+09  -0.7971  -0.3462  0.01652  -0.02991  -0.0007888  -0.02656  -0.6043  0.3756
6.268e+09  -0.8525  -0.1092  0.0262  -0.006296  0.06063  -0.004184  -0.4334  0.5802
6.269e+09  -0.7935  0.266  0.008248  -0.0179  -0.004574  -0.02999  -0.2092  0.7087
6.27e+09  -0.6944  0.5384  -0.01206  0.01611  -0.08411  -0.01969  0.08248  0.7415
6.271e+09  -0.4254  0.7387  -0.002327  -0.02835  0.00585  -0.04534  0.3516  0.6721
6.272e+09  -0.1473  0.8061  -0.0315  0.03454  0.01227  -0.0408  0.5317  0.5179
6.274e+09  0.1064  0.8276  0.003547  0.02401  -0.01772  0.06404  0.6828  0.281
6.275e+09  0.3711  0.717  0.01303  0.007909  0.04244  0.02973  0.7648  0.07269
6.276e+09  0.6347  0.5608  0.01904  0.01557  0.03228  -0.05556  0.745  -0.2221
6.278e+09  0.7673  0.2475  -0.007887  0.006151  -0.06168  0.02137  0.5831  -0.4466
6.279e+09  0.8705  0.04048  0.01199  0.004356  0.01432  -0.009544  0.4214  -0.6552
6.28e+09  0.7653  -0.2729  0.01957  0.02989  0.02298  0.0002451  0.1534  -0.7596
6.281e+09  0.6346  -0.4798  0.0458  0.01306  0.0454  -0.007956  -0.09268  -0.7395
6.282e+09  0.3799  -0.72  0.004541  -0.006747  0.0401  0.01973  -0.4023  -0.7084
6.284e+09  0.09252  -0.8036  0.01154  0.004372  -0.0284  0.03089  -0.635  -0.4929
6.285e+09  -0.1312  -0.8425  -0.01489  0.02469  -0.009637  0.04147  -0.7113  -0.2854
6.286e+09  -0.4786  -0.7383  0.001914  -0.005245  -0.008761  -0.04632  -0.7954  -0.01784
6.288e+09  -0.6281  -0.5403  0.00468  -0.003082  -0.02015  0.03105  -0.7728  0.258
6.289e+09  -0.7648  -0.2465  -0.01357  -0.004466  -0.02077  0.03692  -0.5877  0.5173
6.29e+09  -0.824  -0.01071  -0.01591  -0.004737  -0.04923  0.01745  -0.4549  0.6897
6.291e+09  -0.7461  0.2964  -0.02646  -0.01786  -0.02388  -0.01677  -0.1645  0.8045
6.292e+09  -0.6244  0.5168  0.0009418  -0.007748  0.01042  -0.01201  0.1284  0.792
6.294e+09  -0.3628  0.7508  0.006673  0.01384  -0.003391  -0.0317  0.3781  0.7409
6.295e+09  -0.09459  0.8666  -0.01453  0.01054  0.01078  -0.02276  0.6133  0.5647
6.296e+09  0.1605  0.7912  0.01505  0.01587  0.0166  0.02269  0.749  0.3048
6.298e+09  0.5032  0.6962  -0.0184  -0.02695  0.004802  0.006695  0.8015  0.007572
6.299e+09  0.639  0.5375  0.0208  -0.009428  -0.01868  -0.01565  0.7684  -0.2903
6.3e+09  0.7825  0.2001  0.00403  -0.01436  -0.02947  0.01397  0.6306  -0.5012
6.301e+09  0.8086  -0.07879  -0.00172  -0.00796  -0.002802  0.03554  0.4201  -0.7165
6.302e+09  0.7815  -0.3546  -0.02622  -0.008608  -0.00358  0.01083  0.1361  -0.8198
6.304e+09  0.5229  -0.6132  -0.0003854  -0.0101  -0.01454  0.008281  -0.1349  -0.8185
6.305e+09  0.361  -0.8046  0.003223  -0.0002022  0.04817  -0.01241  -0.4217  -0.7525
6.306e+09  0.05862  -0.8056  0.005562  0.0009623  0.03368  -0.02032  -0.6602  -0.5549
6.308e+09  -0.2233  -0.7729  -0.01244  0.03592  -0.019  -0.03076  -0.7991  -0.3011
6.309e+09  -0.4666  -0.6927  0.01384  0.003558  0.03461  0.00656  -0.8369  -0.04213
6.31e+09  -0.745  -0.4918  0.01539  -0.007544  -0.03758  -0.0235  -0.8181  0.2864
6.311e+09  -0.8726  -0.2025  -0.005653  -0.005762  0.02889  -0.01858  -0.6914  0.5402
6.312e+09  -0.8873  0.00878  -0.0004383  0.01991  0.01045  -0.01404  -0.464  0.7923
6.314e+09  -0.7369  0.4006  0.001868  0.002067  0.01938  -0.02593  -0.1597  0.8236
6.315e+09  -0.5738  0.5676  -0.01715  -0.02307  -0.01632  0.001452  0.1473  0.8353
6.316e+09  -0.3102  0.8077  0.00385  0.03112  -0.003045  0.004728  0.4425  0.7347
6.318e+09  -0.0737  0.8106  0.02461  -0.01067  -0.02612  0.008501  0.6769  0.5844
6.319e+09  0.2432  0.9028  0.01638  0.008966  0.002339  0.0164  0.8366  0.2894
6.32e+09  0.5767  0.6435  0.006762  -0.006853  -0.002722  -0.02244  0.8818  0.01004
6.321e+09  0.7253  0.4857  -0.01328  -0.003933  0.01143  -0.00431  0.8029  -0.3224
6.322e+09  0.8299  0.1773  -0.005685  -0.006107  0.006578  -0.01873  0.6897  -0.5599
6.324e+09  0.8327  -0.1653  -0.01985  -0.01491  -0.02572  0.03244  0.4664  -0.7758
6.325e+09  0.7324  -0.4513  -0.01679  0.01399  -0.03509  -0.0348  0.1738  -0.8336
6.326e+09  0.5673  -0.644  -0.01483  -0.009682  -0.02422  -0.0239  -0.1155  -0.8948
6.328e+09  0.275  -0.8432  -0.001725  -0.009815  0.00446  -0.01554  -0.4548  -0.7993
6.329e+09  -0.04303  -0.8307  -0.004412  -0.01778  -0.006356  -0.01116  -0.6887  -0.5761
6.33e+09  -0.3777  -0.8138  -0.01554  0.01377  -0.03013  -0.00553  -0.842  -0.3022
6.331e+09  -0.5875  -0.6249  0.01138  -0.01272  0.002653  -0.003512  -0.9027  -0.02633
6.332e+09  -0.7655  -0.3961  0.01055  0.01416  0.04835  0.03651  -0.8579  0.2966
6.334e+09  -0.8826  -0.1041  -0.001355  -0.005248  0.02322  -0.02687  -0.72  0.5553
6.335e+09  -0.8569  0.1734  -0.05327  0.01831  -0.02826  0.0109  -0.512  0.7986
6.336e+09  -0.7428  0.5112  0.006366  -0.02776  0.04652  -0.02472  -0.2114  0.9284
6.338e+09  -0.5002  0.7069  -0.01146  0.0212  0.009183  -0.01164  0.1197  0.908
6.339e+09  -0.1735  0.8995  -0.01814  -0.006639  -0.008404  0.05486  0.4303  0.8329
6.34e+09  0.08343  0.8816  -0.006751  0.03993  0.009379  -0.02829  0.6556  0.6516
6.341e+09  0.3507  0.8157  0.0005338  -0.01194  -0.01354  0.01211  0.8644  0.3704
6.342e+09  0.6255  0.6433  -0.001312  0.01628  0.01951  -0.04862  0.9479  0.01696
6.344e+09  0.8075  0.3403  0.01222  0.03348  0.002457  0.06362  0.9109  -0.2914
6.345e+09  0.9194  0.07521  -0.02065  -0.02513  -0.02411  0.008906  0.7633  -0.5824
6.346e+09  0.8583  -0.1852  0.03403  0.03098  0.02382  0.03431  0.5599  -0.7858
6.348e+09  0.7017  -0.5359  0.004413  0.02176  -0.003599  -0.03745  0.2245  -0.9265
6.349e+09  0.4585  -0.7381  -0.003107  -0.02368  -0.02113  0.01443  -0.09069  -0.9191
6.35e+09  0.1772  -0.8287  0.008634  -0.008208  -0.006991  0.03674  -0.4503  -0.8534
6.351e+09  -0.1826  -0.9099  -0.0012  -0.01464  -0.008513  -0.03044  -0.6712  -0.6591
6.352e+09  -0.422  -0.7893  -0.01029  0.002431  0.01706  -0.03032  -0.8717  -0.3797
6.354e+09  -0.707  -0.5264  -0.006785  0.01245  0.04483  -0.03865  -0.9217  -0.07215
6.355e+09  -0.82  -0.3247  0.002547  -0.001809  3.242e-06  -0.007713  -0.9276  0.2618
6.356e+09  -0.8796  -0.007923  -0.006861  -0.005554  -0.03134  -0.03857  -0.7463  0.5849
6.358e+09  -0.8704  0.318  0.02393  -0.02487  0.04116  0.006426  -0.5558  0.7409
6.359e+09  -0.6612  0.5351  -0.02226  -0.009082  0.0183  -0.01671  -0.2416  0.9282
6.36e+09  -0.4292  0.8116  0.004175  0.02025  0.02933  -0.01452  0.1081  0.933
6.361e+09  -0.1028  0.8901  -0.001249  -0.007427  -0.09451  0.01419  0.4227  0.8208
6.362e+09  0.1568  0.8329  -0.02257  -0.01416  -0.007941  -0.02258  0.7026  0.6618
6.364e+09  0.453  0.7779  0.04263  -0.005754  -0.008521  0.03819  0.8686  0.4035
6.365e+09  0.7084  0.5838  -0.02738  -0.006748  0.02593  -0.03346  0.94  0.113
6.366e+09  0.8809  0.2483  0.0001759  0.007621  0.007833  0.01244  0.9163  -0.2513
6.368e+09  0.8814  -0.076  0.00387  -0.01468  0.04604  -0.02924  0.7722  -0.5918
6.369e+09  0.8328  -0.357  0.02919  0.004875  0.02953  -0.03754  0.4988  -0.7523
6.37e+09  0.6477  -0.5905  0.02656  -0.02398  0.01779  0.02103  0.2424  -0.9011
6.371e+09  0.4084  -0.7735  -0.007513  0.005688  -0.03879  -0.007201  -0.09938  -0.9484
6.372e+09  0.06131  -0.9293  -0.0002071  1.525e-05  -0.01272  -0.02544  -0.4038  -0.9014
6.374e+09  -0.2255  -0.8875  -0.0003902  -0.004615  -0.009371  -0.03981  -0.6902  -0.6571
6.375e+09  -0.4583  -0.76  -0.01687  0.006686  -0.01891  0.0473  -0.8139  -0.3999
6.376e+09  -0.776  -0.4842  -0.03994  -0.01265  -0.01795  0.01183  -0.9104  -0.07136
6.378e+09  -0.9125  -0.207  0.01997  0.01763  -0.01262  0.009616  -0.9481  0.2262
6.379e+09  -0.8521  0.08633  -0.004201  -0.009302  0.04719  -0.0084  -0.7888  0.5066
6.38e+09  -0.8387  0.3727  0.05263  0.0302  -0.00614  -0.04986  -0.5864  0.7521
6.381e+09  -0.5974  0.6703  -0.04665  -0.01862  0.01679  -0.0148  -0.2534  0.893
6.382e+09  -0.3472  0.8485  0.0001294  0.02455  0.02697  0.02479  0.06212  0.9573
6.384e+09  -0.01886  0.9238  0.03288  -0.008016  0.004243  0.04338  0.3412  0.8556
6.385e+09  0.2922  0.8356  0.00598  -0.001248  -0.01536  0.003259  0.6236  0.6739
6.386e+09  0.55  0.7002  -0.03366  -0.01525  -0.008644  -0.01781  0.8632  0.4274
6.388e+09  0.7607  0.518  -0.01432  -0.02541  -0.04747  0.005289  0.9163  0.1418
6.389e+09  0.8604  0.1762  0.01973  0.03751  0.02678  0.005142  0.885  -0.1997
6.39e+09  0.891  -0.1421  0.005629  -0.01723  0.01331  0.03603  0.783  -0.5251
6.391e+09  0.7755  -0.4414  -0.01846  -0.001049  -0.01591  0.01102  0.5573  -0.76
6.392e+09  0.5889  -0.6867  -0.02509  -0.01187  0.006619  0.002611  0.2611  -0.8177
6.394e+09  0.3213  -0.8451  0.04055  -0.02239  0.008118  0.03597  -0.002548  -0.9259
6.395e+09  -0.0144  -0.8723  0.003876  0.04803  0.03488  -0.04897  -0.3343  -0.8412
6.396e+09  -0.2762  -0.8471  0.002094  0.01719  -0.006123  -0.04991  -0.6281  -0.694
6.398e+09  -0.5865  -0.7053  0.01057  -0.02515  -0.008646  -0.03402  -0.8013  -0.4414
6.399e+09  -0.7394  -0.456  0.02585  -0.01499  -0.003066  0.02982  -0.8585  -0.1334
6.4e+09  -0.8688  -0.1723  -0.03471  0.02263  0.06095  0.009298  -0.9172  0.1089
6.401e+09  -0.8767  0.1951  0.0009244  0.02162  -0.007054  -0.002718  -0.8189  0.4384
6.402e+09  -0.6993  0.4097  -0.0269  0.03905  -0.009511  -0.05199  -0.6155  0.7207
6.404e+09  -0.5888  0.6799  0.005667  0.007642  -0.03004  -0.03134  -0.333  0.9051
6.405e+09  -0.2763  0.8825  -0.002014  0.009048  -0.01162  0.01351  -0.02847  0.8973
6.406e+09  -0.03185  0.8677  0.02983  0.02137  0.02939  -0.0662  0.2843  0.8595
6.408e+09  0.3121  0.855  -0.03005  0.03364  -0.03787  -0.03842  0.6208  0.7357
6.409e+09  0.5742  0.7102  -0.03435  0.03051  -0.002657  -0.02407  0.8241  0.4681
6.41e+09  0.8191  0.4407  -0.03993  -0.04543  0.03744  0.01256  0.8921  0.1324
6.411e+09  0.8461  0.1731  -0.02012  -0.002081  -0.0314  0.02473  0.8968  -0.1289
6.412e+09  0.8385  -0.141  0.009415  -0.02067  -0.0409  0.01534  0.7829  -0.4333
6.414e+09  0.7635  -0.4762  -0.003648  0.01236  0.02388  0.01935  0.6239  -0.6895
6.415e+09  0.518  -0.7105  0.04092  0.04018  0.009647  0.02822  0.4038  -0.8601
6.416e+09  0.274  -0.8419  -0.002898  0.01176  0.007409  -0.0196  0.03054  -0.9249
6.418e+09  -0.02138  -0.9114  0.0315  -0.008618  0.0179  0.004071  -0.3336  -0.8932
6.419e+09  -0.3319  -0.8587  -0.02533  -0.003992  -0.03562  0.02213  -0.5189  -0.6773
6.42e+09  -0.602  -0.6403  0.02386  -0.009781  0.01691  -0.007784  -0.7371  -0.4829
6.421e+09  -0.8075  -0.4513  0.02808  0.01048  -0.03976  0.02725  -0.8989  -0.2102
6.422e+09  -0.8678  -0.08443  0.02055  0.02558  -0.05247  0.02028  -0.9164  0.1003
6.424e+09  -0.8439  0.1785  0.01575  0.00216  -0.01736  -0.02125  -0.7429  0.4142
6.425e+09  -0.718  0.4938  -0.02216  -0.03163  0.03385  0.009925  -0.5764  0.643
6.426e+09  -0.4993  0.746  0.0001404  -0.003311  -0.08025  -0.008698  -0.3351  0.7689
6.428e+09  -0.238  0.8022  -0.01112  0.02022  -0.03161  0.02367  -0.0391  0.883
6.429e+09  0.07144  0.9308  -0.01888  0.01915  0.04934  -0.0011  0.249  0.8421
6.43e+09  0.3296  0.836  0.01955  0.01505  0.03033  -0.01155  0.493  0.7098
6.431e+09  0.6211  0.6557  -0.04073  -0.00213  0.02464  0.006523  0.718  0.5234
6.432e+09  0.791  0.4105  0.01053  -0.004367  0.01975  0.006002  0.8467  0.1865
6.434e+09  0.8679  0.09384  0.006509  0.03031  0.003899  0.03116  0.8827  -0.03001
6.435e+09  0.8901  -0.2074  0.003518  -0.02031  -0.005023  0.03546  0.7128  -0.3729
6.436e+09  0.7651  -0.5071  -0.05369  0.01617  -0.01988  -0.007947  0.5978  -0.6106
6.438e+09  0.5381  -0.7155  -0.02725  0.004837  0.02672  -0.003397  0.3307  -0.772
6.439e+09  0.2461  -0.8715  0.004333  0.03326  -0.02266  0.01143  0.08106  -0.8379
6.44e+09  -0.1072  -0.917  0.05292  -0.02573  0.00782  -0.0381  -0.2553  -0.7874
6.441e+09  -0.3175  -0.8285  -0.01522  0.01309  -0.005389  0.01242  -0.4566  -0.6953
6.442e+09  -0.587  -0.6487  0.007399  0.02069  0.02376  -0.01221  -0.6769  -0.466
6.444e+09  -0.8047  -0.4095  -0.003751  -0.04054  -0.03564  -0.009974  -0.809  -0.1894
6.445e+09  -0.8802  -0.08913  0.031  0.01193  0.006597  -0.01452  -0.8438  0.09021
6.446e+09  -0.8657  0.2512  -0.02524  -0.03105  0.003326  -0.007105  -0.764  0.3615
6.448e+09  -0.759  0.5307  -0.02535  0.011  -0.01643  0.07703  -0.6145  0.6398
6.449e+09  -0.5284  0.7217  -0.004739  0.002577  -0.02382  -0.05248  -0.4104  0.79
6.45e+09  -0.2496  0.8987  0.00608  -0.02274  0.02822  0.02491  -0.001764  0.881
6.451e+09  0.09789  0.8876  -0.004694  0.03725  -0.05885  0.006271  0.2103  0.7906
6.452e+09  0.3746  0.8312  0.00563  0.02088  -0.08486  -0.03553  0.4802  0.6633
6.454e+09  0.6175  0.6306  -0.005156  0.01938  -0.04972  0.005527  0.6897  0.4692
6.455e+09  0.8245  0.388  0.0008428  -0.003566  -0.03158  -0.02484  0.8294  0.2167
6.456e+09  0.8588  0.03646  0.003229  -0.01267  0.01037  0.009159  0.8378  -0.06978
6.458e+09  0.838  -0.2087  -0.004091  -0.03498  -0.007363  0.007014  0.7468  -0.3894
6.459e+09  0.7568  -0.5393  0.01868  -0.01788  -0.009567  0.08145  0.612  -0.5753
6.46e+09  0.5407  -0.7679  -0.004613  0.0108  -0.003336  -0.02931  0.3627  -0.7372
6.461e+09  0.193  -0.8703  0.02213  0.02203  0.06632  0.03038  0.04112  -0.8079
6.462e+09  -0.06708  -0.8937  0.0672  0.0104  0.06487  -0.01108  -0.1996  -0.8042
6.464e+09  -0.3759  -0.8109  0.04467  -0.01408  0.02842  0.001552  -0.4799  -0.6519
6.465e+09  -0.6661  -0.5994  -0.004473  -0.04615  0.02067  -0.01191  -0.66  -0.4926
6.466e+09  -0.8098  -0.3942  0.004212  0.005487  0.0113  -0.0175  -0.8006  -0.218
6.468e+09  -0.9176  -0.05916  -0.01261  0.03124  -0.06451  -0.006535  -0.8026  0.09564
6.469e+09  -0.8532  0.2315  0.03621  -0.02422  -0.01363  0.02591  -0.7014  0.3611
6.47e+09  -0.7314  0.5309  0.01462  -0.03613  -0.01521  0.03368  -0.5609  0.5799
6.471e+09  -0.5163  0.7397  0.01603  -0.007854  0.003106  -0.01672  -0.3073  0.7256
6.472e+09  -0.2142  0.9347  -0.02572  0.005454  -0.008047  -0.01594  -0.05449  0.7304
6.474e+09  0.08057  0.8907  0.01175  0.0009404  -0.02532  -0.0181  0.1786  0.734
6.475e+09  0.4666  0.781  0.009477  -0.03166  0.01675  0.01241  0.4317  0.6655
6.476e+09  0.7109  0.6142  -0.01399  -0.01203  -0.028  0.009191  0.6267  0.4513
6.478e+09  0.8758  0.3507  -0.02707  0.01519  0.0219  -0.0279  0.7776  0.1813
6.479e+09  0.9896  -0.02017  -0.02533  -0.006321  -0.0453  -0.00637  0.757  -0.06958
6.48e+09  0.8947  -0.2791  0.009955  -0.0008548  -0.08624  0.02261  0.693  -0.3713
6.481e+09  0.7595  -0.573  0.02623  -0.004226  0.04357  -0.002891  0.5376  -0.5533
6.482e+09  0.496  -0.7711  0.02441  0.04025  0.07013  0.03913  0.3169  -0.7076
6.484e+09  0.1511  -0.9019  0.007219  -0.02394  -0.04443  -0.04011  0.05778  -0.7827
6.485e+09  -0.125  -0.9025  -0.00613  0.01254  -0.03559  0.03575  -0.1926  -0.7353
6.486e+09  -0.4721  -0.8223  0.007892  0.01521  0.01585  -0.02022  -0.4759  -0.6001
6.488e+09  -0.7517  -0.6235  -0.01881  -0.002464  0.02041  0.008108  -0.6401  -0.4364
6.489e+09  -0.8392  -0.2969  0.008684  0.01416  0.09054  0.0004  -0.7493  -0.1706
6.49e+09  -1.009  0.007594  0.01734  0.002597  0.02545  0.05497  -0.7862  0.05363
6.491e+09  -0.802  0.3365  0.03355  0.01858  -0.03951  0.04189  -0.6801  0.3597
6.492e+09  -0.7734  0.6224  0.02076  0.008033  0.01451  0.02929  -0.5042  0.5298
6.494e+09  -0.4614  0.8347  -0.01016  0.00603  -0.0472  -0.0185  -0.3225  0.6965
6.495e+09  -0.1133  0.924  0.01317  0.002208  -0.01441  -0.013  -0.02953  0.8014
6.496e+09  0.2097  0.9392  -0.01618  0.003544  -0.03427  -0.02883  0.2273  0.7458
6.498e+09  0.4609  0.7452  0.03112  0.03882  0.02277  0.01737  0.4613  0.5929
6.499e+09  0.7391  0.6256  -0.00955  -0.02987  0.02077  0.0007908  0.6545  0.414
6.5e+09  0.9287  0.1962  0.01235  0.05132  -0.07745  -0.01595  0.7472  0.154
6.501e+09  0.9407  -0.07441  0.04251  0.03536  0.005229  -0.03329  0.739  -0.09141
6.502e+09  0.8398  -0.3735  -0.007211  -0.0003886  -0.007563  0.008606  0.6689  -0.3536
6.504e+09  0.6705  -0.691  0.01568  -0.02557  0.003296  0.04068  0.5319  -0.5946
6.505e+09  0.389  -0.8736  0.01429  -0.03169  -0.0357  0.004963  0.2769  -0.6984
6.506e+09  0.1487  -0.9218  -0.004975  0.01716  -0.02813  -0.01438  0.024  -0.7052
6.508e+09  -0.2573  -0.9446  0.01622  0.004323  -0.03962  -0.005195  -0.2191  -0.7066
6.509e+09  -0.5816  -0.7309  -0.0211  0.02712  0.006586  0.008974  -0.4584  -0.5782
6.51e+09  -0.7958  -0.5359  0.02706  0.01093  -0.0002045  0.0226  -0.6118  -0.4038
6.511e+09  -0.9465  -0.2208  -0.04224  -0.0009062  0.02085  -0.02422  -0.744  -0.1317
6.512e+09  -0.9598  0.1128  0.02199  -0.02631  0.0133  0.04326  -0.7354  0.1068
6.514e+09  -0.8159  0.4888  0.006088  0.002884  0.03177  0.01217  -0.6554  0.3621
6.515e+09  -0.6477  0.7289  0.02201  -0.01502  -0.001377  -0.03099  -0.4478  0.5613
6.516e+09  -0.3265  0.9291  -0.01866  -0.0315  0.007215  0.01405  -0.2252  0.7212
6.518e+09  -0.06781  1.046  -0.007519  -0.006702  -0.02035  0.02391  0.0117  0.7614
6.519e+09  0.3639  0.9407  0.006824  0.006471  0.05111  -0.03578  0.2326  0.7072
6.52e+09  0.6075  0.7587  0.04583  0.00847  0.0623  0.01421  0.4939  0.5508
6.521e+09  0.8184  0.4988  -0.006961  0.01548  0.005648  0.008091  0.6668  0.3692
6.522e+09  0.9169  0.154  0.01065  -0.007535  -0.0265  0.06003  0.7536  0.06894
6.524e+09  0.9508  -0.1755  0.0343  0.04758  -0.02403  -0.08571  0.7238  -0.1211
6.525e+09  0.8012  -0.483  0.01039  -0.01299  0.007888  -0.01375  0.5793  -0.4071
6.526e+09  0.6319  -0.769  0.03126  0.007629  0.02216  0.002486  0.4102  -0.5708
6.528e+09  0.2966  -0.9175  0.00933  -0.009065  0.05921  0.006704  0.1839  -0.6952
6.529e+09  -0.07117  -0.9788  -0.001508  -0.008143  -0.02278  0.0115  -0.03894  -0.7173
6.53e+09  -0.3459  -0.9233  0.005364  0.01801  0.0122  0.06119  -0.2762  -0.6132
6.531e+09  -0.7035  -0.6961  -0.04186  0.05928  0.006351  0.02598  -0.464  -0.464
6.532e+09  -0.8633  -0.413  0.007793  -0.03374  -0.006836  -0.01838  -0.5918  -0.3113
6.534e+09  -0.9838  -0.08816  -0.003707  0.05572  -0.01335  0.01236  -0.6287  -0.08934
6.535e+09  -0.9476  0.2654  0.0192  -0.005933  0.002403  -0.02106  -0.6344  0.1424
6.536e+09  -0.7387  0.5647  -0.03981  0.006924  0.04809  -0.03573  -0.5828  0.3053
6.538e+09  -0.5673  0.8246  -0.01214  -0.009897  -0.01035  0.01163  -0.4499  0.473
6.539e+09  -0.2143  0.9155  0.002877  -0.001869  0.00106  -0.03531  -0.3054  0.6495
6.54e+09  0.1893  0.8955  -0.01844  0.01533  0.02951  0.004818  -0.05464  0.681
6.541e+09  0.4394  0.8062  0.01695  -0.005776  0.004046  -0.00187  0.1668  0.6586
6.542e+09  0.7313  0.6237  0.01011  -0.003258  -0.03174  0.08867  0.3876  0.5846
6.544e+09  0.8605  0.344  -0.04516  0.01316  -0.03294  0.03066  0.5876  0.397
6.545e+09  0.968  0.001493  0.01252  0.01396  -0.07384  -0.0257  0.6946  0.1619
6.546e+09  0.9265  -0.3155  0.003094  0.006628  0.006627  0.0301  0.6857  -0.06183
6.548e+09  0.693  -0.6044  -0.02346  0.05122  -0.01616  -0.0263  0.6709  -0.3334
6.549e+09  0.427  -0.8269  -0.005947  0.001342  -0.01885  0.006134  0.5054  -0.5235
6.55e+09  0.1173  -0.9508  0.01419  -0.01368  -0.0236  -0.0376  0.3065  -0.6473
