# Hz S RI R 50
6.25e+09  -0.2419  0.7562  -0.01555  -0.00637  -0.02407  -0.05026  0.1849  0.4463
6.251e+09  0.04311  0.805  -0.03989  -0.01261  0.005153  -0.04767  0.3633  0.4125
6.252e+09  0.3499  0.7919  -0.00688  0.03849  -0.01066  0.001511  0.5362  0.2704
6.254e+09  0.5744  0.6016  -0.005493  -0.007803  -0.0476  0.06168  0.6028  -0.008472
6.255e+09  0.7825  0.3476  0.02504  -0.01118  -0.04136  -0.02923  0.6088  -0.2554
6.256e+09  0.8222  0.08099  0.009703  0.004254  -0.01885  -0.03254  0.4773  -0.4365
6.258e+09  0.8188  -0.2377  0.02011  0.004057  -0.03678  -0.005543  0.2834  -0.6125
6.259e+09  0.6781  -0.4557  0.005651  0.01706  -0.036  0.03104  0.01522  -0.6907
6.26e+09  0.5469  -0.7056  -0.002603  -0.008679  -0.01529  0.05881  -0.2202  -0.6617
6.261e+09  0.241  -0.8225  0.02143  0.005488  -0.02448  -0.05528  -0.4267  -0.5171
6.262e+09  -0.004235  -0.8842  -0.02398  -0.04386  0.04045  0.05243  -0.5877  -0.3645
6.264e+09  -0.4027  -0.8287  0.01242  -0.009457  -0.0377  -0.07508  -0.7022  -0.1179
6.265e+09  -0.6067  -0.6215  -0.02002  -0.01358  0.01529  -0.02215  -0.6745  0.1384
6.266e+09  -0.8423  -0.3869  -0.006976  -0.01995  -0.02109  0.01038  -0.5988  0.3691
6.268e+09  -0.8363  -0.05889  0.0129  -0.02223  0.001222  0.03419  -0.4642  0.5785
6.269e+09  -0.7805  0.2612  -0.004689  -0.04014  0.03907  0.07138  -0.1942  0.7062
6.27e+09  -0.7274  0.4357  0.01363  0.01108  0.05832  0.07108  0.09631  0.7247
6.271e+09  -0.4825  0.7384  -0.01763  0.002008  0.03413  -0.01858  0.3507  0.7077
6.272e+09  -0.1904  0.8622  0.02631  -0.01403  0.02807  0.02789  0.5202  0.5233
6.274e+09  0.1276  0.8345  0.0007488  0.01163  -0.04657  0.03744  0.6808  0.3365
6.275e+09  0.3359  0.7674  -0.007362  0.02172  0.008385  -0.02639  0.7556  0.0672
6.276e+09  0.6154  0.5451  0.01236  0.007882  -0.0506  0.05749  0.7066  -0.2507
6.278e+09  0.7464  0.3609  -0.02225  -0.007537  -0.02514  -0.01291  0.6057  -0.4694
6.279e+09  0.8283  0.09209  0.004838  0.0375  0.01246  0.0483  0.4465  -0.6726
6.28e+09  0.7938  -0.1953  -0.0286  -0.006903  0.01781  0.04713  0.1866  -0.7718
6.281e+09  0.6581  -0.4628  0.001434  -0.03262  0.02248  -0.01207  -0.08914  -0.7754
6.282e+09  0.4092  -0.7277  0.01146  -0.02949  0.01195  -0.02793  -0.358  -0.6904
6.284e+09  0.1536  -0.8208  -0.01299  -0.01615  -0.01222  0.003096  -0.6007  -0.5152
6.285e+09  -0.07425  -0.8215  0.02162  -0.02588  0.0519  -0.003987  -0.745  -0.2946
6.286e+09  -0.3815  -0.6887  -0.0209  0.008916  0.01074  -0.02884  -0.7861  -0.05095
6.288e+09  -0.6658  -0.5611  0.01785  0.007983  -0.02317  0.007372  -0.7493  0.2556
6.289e+09  -0.8134  -0.2827  0.0046  0.007004  0.02079  0.005384  -0.6138  0.5225
6.29e+09  -0.8824  -0.005283  0.02622  -0.00236  -0.0231  -0.009466  -0.4209  0.7042
6.291e+09  -0.7647  0.2786  0.01316  -0.01101  0.005445  -0.005594  -0.1553  0.8168
6.292e+09  -0.6284  0.506  -0.001893  -0.008618  -0.006089  -0.05377  0.1497  0.7605
6.294e+09  -0.4475  0.7371  0.01613  0.005333  0.02597  -0.03474  0.4043  0.7011
6.295e+09  -0.1083  0.7944  -0.01488  0.02633  -0.02207  0.02181  0.6406  0.554
6.296e+09  0.1401  0.8422  0.02083  -0.02058  -0.01274  0.005969  0.778  0.2731
6.298e+09  0.4318  0.7605  -0.01066  -0.002129  -0.002655  -0.04419  0.8319  -0.002976
6.299e+09  0.67  0.5411  -0.00536  -0.02912  -0.006479  -0.0166  0.8085  -0.2758
6.3e+09  0.8203  0.2648  -0.006961  -0.005644  -0.03107  -0.04634  0.6617  -0.5383
6.301e+09  0.8078  0.01913  -0.01081  -0.002364  0.003007  0.01862  0.4526  -0.7054
6.302e+09  0.838  -0.2626  -0.02305  0.01836  -0.02321  0.0001088  0.1734  -0.8274
6.304e+09  0.5457  -0.5465  -0.0321  -0.0135  0.01045  -0.003539  -0.1309  -0.824
6.305e+09  0.436  -0.7907  -0.007292  -0.01183  -0.001173  -0.04723  -0.4277  -0.7258
6.306e+09  0.1196  -0.8085  -0.01775  -0.01788  -0.007036  -0.009175  -0.6411  -0.534
6.308e+09  -0.1837  -0.8384  -0.01922  -0.01511  -0.02998  -0.02478  -0.8052  -0.3535
6.309e+09  -0.4349  -0.7448  0.003175  -0.03021  0.06155  -0.03266  -0.8662  -0.05307
6.31e+09  -0.6677  -0.4632  -0.01812  -0.02809  0.03399  -0.02387  -0.8379  0.2827
6.311e+09  -0.8128  -0.2582  -0.02527  -0.007121  0.0219  -0.02128  -0.6911  0.5432
6.312e+09  -0.8465  0.1092  0.019  0.0065  -0.01277  -0.02852  -0.4427  0.7429
6.314e+09  -0.7955  0.2725  0.007952  0.00357  -0.03188  -0.02884  -0.1773  0.8759
6.315e+09  -0.5799  0.6139  0.05924  0.03584  0.004147  0.01807  0.1405  0.8557
6.316e+09  -0.4074  0.7859  0.03995  -0.006059  -0.03634  -0.01428  0.4555  0.7447
6.318e+09  -0.06911  0.8338  0.01947  -0.008848  0.03165  -0.02385  0.6537  0.5859
6.319e+09  0.2312  0.7992  -0.01923  -0.005254  0.01563  0.004676  0.8295  0.2809
6.32e+09  0.5071  0.6696  -0.01674  0.006293  0.03868  0.008522  0.8989  0.01946
6.321e+09  0.6925  0.4728  0.02862  0.01612  0.008244  -0.004143  0.8719  -0.2922
6.322e+09  0.8036  0.2063  -0.006124  -0.0002979  0.009541  -0.02191  0.6685  -0.5636
6.324e+09  0.8324  -0.061  -0.02425  -0.01586  -0.02606  -0.003985  0.4782  -0.7561
6.325e+09  0.797  -0.3665  -0.009267  -0.0365  0.003908  0.01425  0.1697  -0.8978
6.326e+09  0.5222  -0.5966  0.01619  0.009116  -0.01551  0.005397  -0.1697  -0.871
6.328e+09  0.3193  -0.7982  0.0003752  -0.004597  -0.01442  0.01541  -0.4216  -0.787
6.329e+09  0.04045  -0.8716  0.01266  -0.003911  -0.008127  0.01032  -0.6854  -0.6078
6.33e+09  -0.2492  -0.788  0.001026  0.00536  0.01595  -0.01943  -0.8554  -0.3544
6.331e+09  -0.5288  -0.693  -0.01092  -0.02324  0.0177  0.05315  -0.897  -0.01927
6.332e+09  -0.7088  -0.4452  0.01452  -0.01945  0.02641  0.01195  -0.8573  0.2951
6.334e+09  -0.8669  -0.1401  0.01539  -0.01013  -0.01357  0.03734  -0.6973  0.5698
6.335e+09  -0.8867  0.1576  0.00484  -0.04837  0.0598  -0.02855  -0.5171  0.7636
6.336e+09  -0.7708  0.4368  -0.000777  0.04873  0.01613  0.004805  -0.1929  0.9222
6.338e+09  -0.5092  0.6702  -0.01011  0.03091  0.01959  -0.04923  0.1172  0.9085
6.339e+09  -0.2885  0.8554  -0.02035  0.01613  -0.006565  0.02888  0.4456  0.8072
6.34e+09  0.08622  0.8817  -0.04006  -0.008874  -0.04507  0.02516  0.6997  0.6077
6.341e+09  0.3248  0.8107  -0.03473  -0.02124  0.002223  -0.02616  0.8448  0.3703
6.342e+09  0.6024  0.6216  -0.008069  -0.03573  -0.001778  0.02272  0.9477  0.03632
6.344e+09  0.8147  0.4097  0.02115  0.02166  -0.009629  -0.01635  0.8903  -0.2692
6.345e+09  0.899  0.0886  0.007679  -0.02213  0.01061  0.01942  0.7364  -0.5748
6.346e+09  0.907  -0.2484  0.02254  -0.02281  0.03398  0.02396  0.5026  -0.7879
6.348e+09  0.6872  -0.5444  -0.01425  0.01387  -0.009007  0.01645  0.2278  -0.9174
6.349e+09  0.4818  -0.762  0.01502  -0.006025  -0.00749  0.02297  -0.125  -0.9346
6.35e+09  0.2462  -0.8522  0.02489  0.002459  0.0005111  -0.01626  -0.454  -0.8347
6.351e+09  -0.1111  -0.8608  -0.05578  -0.01875  -0.02425  -0.001057  -0.6883  -0.6736
6.352e+09  -0.38  -0.7704  -0.01573  -0.03687  -0.03142  0.00259  -0.8664  -0.3743
6.354e+09  -0.6591  -0.635  -0.02092  -0.01132  -0.007734  0.02831  -0.9093  -0.1138
6.355e+09  -0.8269  -0.4284  0.003326  0.003099  0.0009658  0.0389  -0.8895  0.2929
6.356e+09  -0.9193  -0.08876  0.006938  0.02015  0.002071  -0.01293  -0.7304  0.5472
6.358e+09  -0.8397  0.2735  -0.001038  -0.003742  -0.009789  0.0291  -0.5172  0.8309
6.359e+09  -0.6959  0.5118  0.01858  0.05376  0.02639  -0.03579  -0.2189  0.9077
6.36e+09  -0.4613  0.754  -0.03513  0.01152  0.04437  -0.07639  0.09814  0.9632
6.361e+09  -0.1943  0.8574  0.02604  0.006102  -0.0008767  0.01994  0.3732  0.8479
6.362e+09  0.1366  0.8509  -0.01608  0.03064  0.0251  0.02349  0.6755  0.6742
6.364e+09  0.4105  0.8134  -0.001568  0.01417  -0.007959  0.03578  0.8878  0.3535
6.365e+09  0.6595  0.6161  -0.004238  0.01267  0.0006072  0.001481  0.9655  0.07543
6.366e+09  0.8205  0.366  0.008853  0.01064  0.05919  -0.000931  0.9227  -0.2537
6.368e+09  0.9126  -0.006922  -0.007937  -0.0121  0.02404  -0.01641  0.8007  -0.5462
6.369e+09  0.8402  -0.322  0.005648  -0.002601  -0.00603  -0.03266  0.557  -0.8153
6.37e+09  0.7217  -0.576  0.01363  -0.01474  0.006823  -0.007568  0.2499  -0.9077
6.371e+09  0.4358  -0.7532  -0.003542  0.04296  -0.03587  0.04513  -0.1025  -0.9219
6.372e+09  0.1106  -0.8584  0.03765  -0.005732  0.01054  0.004784  -0.4113  -0.8474
6.374e+09  -0.1665  -0.823  0.01476  0.04285  -0.02472  -0.01629  -0.666  -0.6432
6.375e+09  -0.4566  -0.7618  -0.001174  0.02343  -0.02621  0.004755  -0.8639  -0.4434
6.376e+09  -0.688  -0.5185  -0.03615  0.01507  0.03829  -0.03529  -0.8933  -0.1073
6.378e+09  -0.8548  -0.3075  0.007756  0.0005915  0.02419  -0.005219  -0.9086  0.195
6.379e+09  -0.9294  0.04311  -0.01356  -0.007437  0.006499  0.01244  -0.7862  0.4954
6.38e+09  -0.8182  0.3539  -0.00432  -0.02354  0.04134  0.01613  -0.5696  0.7794
6.381e+09  -0.5969  0.6285  -0.01554  -0.008195  -0.01255  0.01363  -0.2693  0.9156
6.382e+09  -0.3918  0.8044  0.01882  0.03047  -0.01505  -0.02758  0.06583  0.9577
6.384e+09  -0.105  0.8665  0.007728  0.009172  -0.03487  0.04057  0.3803  0.8573
6.385e+09  0.2383  0.8966  0.002334  -0.01349  -0.008526  -0.01048  0.5971  0.6603
6.386e+09  0.501  0.7086  0.005869  0.04129  -0.02533  0.009391  0.8481  0.4343
6.388e+09  0.7213  0.5723  -0.008376  0.02021  0.04035  -0.03336  0.8957  0.1022
6.389e+09  0.849  0.2423  -0.003399  -0.0539  0.01463  -0.02523  0.8848  -0.2328
6.39e+09  0.8973  -0.0979  0.005197  -0.006127  -0.01085  0.001994  0.8001  -0.4933
6.391e+09  0.8317  -0.423  -0.0006393  0.04981  -0.004017  0.01014  0.5557  -0.7284
6.392e+09  0.6079  -0.6618  -0.0161  0.006373  -0.03008  0.05168  0.3106  -0.8948
6.394e+09  0.382  -0.7836  0.0109  0.01461  -0.02363  -0.04289  -0.01796  -0.8873
6.395e+09  0.03187  -0.8923  0.02121  -0.02514  0.02873  -0.01721  -0.3679  -0.8539
6.396e+09  -0.2595  -0.8839  -0.01056  -0.0214  -0.01592  0.01204  -0.6046  -0.7092
6.398e+09  -0.5404  -0.6867  0.02511  0.04148  0.01061  0.02371  -0.8351  -0.4597
6.399e+09  -0.71  -0.5657  0.01447  -0.03031  -0.01982  -0.0007806  -0.9102  -0.1023
6.4e+09  -0.9062  -0.1817  -0.005139  -0.03667  -0.03772  0.04615  -0.8919  0.1525
6.401e+09  -0.8869  0.1371  -0.03779  0.001155  0.03293  0.03099  -0.8083  0.4501
6.402e+09  -0.7616  0.3722  0.01687  -0.003386  -0.0007975  0.01699  -0.5543  0.7397
6.404e+09  -0.608  0.6607  -0.008982  -0.0002924  -0.01829  0.01233  -0.3101  0.9008
6.405e+09  -0.3335  0.844  0.01476  -0.04916  -0.01664  -0.001902  0.009333  0.9358
6.406e+09  0.0129  0.9105  -0.01084  0.003058  0.03957  -0.05822  0.2779  0.8481
6.408e+09  0.2392  0.8459  -0.03052  0.004653  0.004515  -0.022  0.5641  0.7081
6.409e+09  0.5373  0.6454  0.007451  0.006745  0.01681  -0.01837  0.7653  0.4655
6.41e+09  0.7501  0.4385  0.02297  -0.02207  -0.01016  0.006636  0.887  0.207
6.411e+09  0.8305  0.1868  -0.01549  0.01652  -0.05336  0.01139  0.8924  -0.1222
6.412e+09  0.8815  -0.08948  0.00754  -0.01701  0.01486  0.0608  0.8316  -0.4818
6.414e+09  0.7663  -0.3983  0.01207  0.0008994  0.009829  -0.05188  0.595  -0.661
6.415e+09  0.5865  -0.6453  -0.03249  -0.02702  -0.01921  0.02957  0.3461  -0.8108
6.416e+09  0.3203  -0.8225  0.009013  0.02376  0.01963  -0.03837  0.02508  -0.8511
6.418e+09  0.03071  -0.8724  -0.01499  0.02589  -0.02195  -0.0164  -0.2949  -0.8637
6.419e+09  -0.3104  -0.8532  0.01976  -0.007549  -0.04822  -0.05143  -0.5603  -0.6618
6.42e+09  -0.5537  -0.7202  0.004302  0.009455  -0.01623  -0.009711  -0.7903  -0.446
6.421e+09  -0.7265  -0.4531  -0.009937  -0.04093  -0.003819  -0.02616  -0.8391  -0.1954
6.422e+09  -0.8542  -0.1797  0.01573  0.05561  -0.01592  0.008094  -0.8854  0.1009
6.424e+09  -0.9029  0.1609  0.01274  -0.02394  0.0398  0.0374  -0.8015  0.403
6.425e+09  -0.8079  0.4429  0.01017  0.003375  -0.01625  -0.004271  -0.6269  0.6655
6.426e+09  -0.6069  0.7034  -0.04308  -0.01488  0.002372  0.05106  -0.362  0.7825
6.428e+09  -0.3123  0.8299  0.02188  -0.01039  -0.03072  0.003991  -0.04215  0.9127
6.429e+09  -0.00244  0.8799  0.04418  -0.0272  0.02262  -0.007151  0.2794  0.8947
6.43e+09  0.3204  0.8568  -0.01871  -0.0647  0.01025  0.01909  0.4965  0.7188
6.431e+09  0.5451  0.7216  0.00976  0.02921  -0.00412  -0.03499  0.7276  0.5002
6.432e+09  0.7644  0.4017  -0.00446  -0.03068  0.02034  -0.00545  0.792  0.1612
6.434e+09  0.8595  0.1985  0.02385  0.01301  0.01964  -0.06515  0.8767  -0.0862
6.435e+09  0.8855  -0.1391  -0.01822  -0.04371  0.02867  0.01377  0.7723  -0.3672
6.436e+09  0.7396  -0.4237  -0.004935  -0.005105  0.03706  0.0258  0.6124  -0.5963
6.438e+09  0.5548  -0.6688  -0.02498  -0.02163  -0.002052  0.005437  0.343  -0.8351
6.439e+09  0.2771  -0.8599  -0.01432  -0.02306  -0.01031  -0.0169  0.04417  -0.8654
6.44e+09  -0.01015  -0.9351  -0.01011  -0.02691  0.04111  0.07561  -0.2642  -0.8447
6.441e+09  -0.317  -0.8177  -0.03451  -0.06664  -0.01924  -0.0003858  -0.4505  -0.7082
6.442e+09  -0.6073  -0.684  0.004912  0.01734  -0.01151  0.01653  -0.6899  -0.4892
6.444e+09  -0.8241  -0.4528  -0.005068  -0.01765  0.01017  0.01505  -0.7926  -0.2361
6.445e+09  -0.883  -0.1452  0.04835  0.00879  0.02888  0.0125  -0.8715  0.1133
6.446e+09  -0.9195  0.1419  -0.0365  -0.01001  0.01433  -0.03197  -0.7769  0.3794
6.448e+09  -0.8092  0.4668  0.02581  -0.009289  0.01698  -0.04076  -0.5922  0.5852
6.449e+09  -0.5836  0.7163  -0.02204  0.01398  -0.01138  0.02696  -0.3751  0.7374
6.45e+09  -0.3219  0.9124  0.004607  -0.003575  -0.01472  0.05657  -0.09772  0.8079
6.451e+09  0.03784  0.8681  0.01024  0.03661  -0.04051  -0.002347  0.2063  0.8134
6.452e+09  0.3437  0.8124  0.02832  -0.0008617  0.02062  -0.06896  0.4775  0.6711
6.454e+09  0.5948  0.6853  -0.02302  0.01738  -0.02981  0.008527  0.7072  0.4839
6.455e+09  0.8008  0.4329  0.009308  0.02148  -0.01139  -0.02359  0.7867  0.2127
6.456e+09  0.9115  0.1153  0.01587  -0.01599  -0.006567  0.04503  0.8176  -0.07773
6.458e+09  0.9279  -0.1795  -0.01834  0.05779  0.02774  -0.03705  0.7573  -0.3761
6.459e+09  0.7776  -0.4906  0.008599  0.004688  0.006419  0.02144  0.5684  -0.5524
6.46e+09  0.6382  -0.7189  -0.01201  -0.00668  0.03754  0.05451  0.3415  -0.7759
6.461e+09  0.2498  -0.9045  0.06577  -0.0108  -0.007703  0.01496  0.0553  -0.8324
6.462e+09  -0.004174  -0.9013  -0.05606  -0.03806  0.03913  0.01626  -0.278  -0.7902
6.464e+09  -0.3584  -0.8815  -0.0006225  0.0188  -0.05112  0.04133  -0.4814  -0.6512
6.465e+09  -0.5871  -0.7157  0.0178  0.007728  -0.05155  -0.01323  -0.7079  -0.4844
6.466e+09  -0.749  -0.419  0.01368  -0.01613  -0.001618  -0.003957  -0.7702  -0.1771
6.468e+09  -0.8895  -0.1082  -0.02346  0.006914  0.05868  0.01325  -0.7929  0.07535
6.469e+09  -0.8596  0.1948  -0.02952  0.01259  0.03276  0.03418  -0.7136  0.3019
6.47e+09  -0.7866  0.487  0.02211  -0.01635  -0.01381  -0.05033  -0.5291  0.5867
6.471e+09  -0.5389  0.7545  -0.02971  -0.007436  0.03775  0.009433  -0.3192  0.7722
6.472e+09  -0.2664  0.9072  -0.03113  0.04304  0.00972  0.03371  -0.05248  0.8039
6.474e+09  0.02678  0.8965  0.02594  -0.00868  -0.04508  -0.01636  0.2147  0.7673
6.475e+09  0.3557  0.8136  -0.0283  0.001803  0.01243  0.007388  0.4671  0.6148
6.476e+09  0.6054  0.6686  0.006611  0.02363  -0.02111  -0.004432  0.6407  0.4377
6.478e+09  0.8432  0.3778  -0.009216  0.02407  0.002136  -0.01623  0.7829  0.2283
6.479e+09  0.936  0.1435  0.02736  0.03231  -0.0005903  0.002102  0.8018  -0.1217
6.48e+09  0.915  -0.2446  -0.02171  0.003239  0.01561  0.02598  0.7071  -0.3367
6.481e+09  0.7368  -0.5644  0.02518  0.03186  0.07498  0.03311  0.5436  -0.5551
6.482e+09  0.5393  -0.7287  0.01486  0.04951  -0.004769  -0.05213  0.345  -0.6841
6.484e+09  0.2479  -0.8763  -0.01272  -0.01259  -0.04436  0.02262  0.03801  -0.7683
6.485e+09  0.002463  -0.8903  0.00638  0.03462  0.007448  0.003948  -0.2355  -0.7221
6.486e+09  -0.4086  -0.8081  -0.004616  0.0209  0.002536  0.05414  -0.4893  -0.6105
6.488e+09  -0.6743  -0.6515  0.002964  0.01533  -0.02689  -0.03842  -0.6103  -0.4339
6.489e+09  -0.8757  -0.4469  -0.003764  0.01699  -0.001255  0.01534  -0.7748  -0.2329
6.49e+09  -0.9325  -0.03101  -0.003879  0.02811  0.02989  0.0005569  -0.7908  0.0809
6.491e+09  -0.9319  0.2641  0.006863  0.004657  -0.02337  0.02902  -0.6993  0.3498
6.492e+09  -0.7567  0.5325  -0.01671  0.0001862  0.02787  -0.006086  -0.4978  0.58
6.494e+09  -0.5028  0.7524  -0.006716  0.009753  -0.03889  0.0208  -0.3464  0.6927
6.495e+09  -0.198  0.8832  0.03518  -0.01257  -0.005719  -0.02387  -0.03343  0.761
6.496e+09  0.09914  0.9203  0.003275  -0.009697  0.006754  0.02883  0.2415  0.7322
6.498e+09  0.4917  0.8579  0.01115  -0.02973  0.03804  -0.0001469  0.4729  0.5936
6.499e+09  0.6629  0.6053  -0.01165  -0.03342  -0.01353  0.03516  0.5855  0.4003
6.5e+09  0.8746  0.3726  -0.01188  -0.05128  -0.006008  -0.01523  0.7752  0.1438
6.501e+09  0.9488  0.02506  -0.01361  -0.01144  0.005366  0.02579  0.7614  -0.1178
6.502e+09  0.86  -0.3254  0.02854  0.004657  0.02316  0.003561  0.6735  -0.3172
6.504e+09  0.7593  -0.6  0.009735  0.002879  0.03059  0.02261  0.5246  -0.5693
6.505e+09  0.4871  -0.8321  0.01773  -0.02344  0.03647  0.003105  0.2834  -0.7038
6.506e+09  0.1524  -0.9981  0.03861  -0.02047  0.02788  0.01931  -0.0136  -0.7632
6.508e+09  -0.1654  -0.9319  -0.01272  0.01018  -0.007829  0.003183  -0.2816  -0.7218
6.509e+09  -0.5268  -0.8133  0.009458  0.002851  0.01905  -0.01364  -0.4395  -0.6022
6.51e+09  -0.728  -0.6345  -0.0146  0.01604  -0.0004165  -0.002693  -0.658  -0.3985
6.511e+09  -0.8632  -0.3358  -0.01113  -0.02888  0.04735  0.05941  -0.7484  -0.1716
6.512e+09  -0.9956  0.03501  -0.02065  -0.01634  -0.04222  -0.03437  -0.7313  0.1396
6.514e+09  -0.8817  0.3641  0.004199  -0.01094  -0.01384  -0.01117  -0.6463  0.3711
6.515e+09  -0.7282  0.6585  -0.001998  0.01532  -0.0124  -0.01665  -0.4997  0.5535
6.516e+09  -0.4514  0.8389  -0.004367  0.02637  -0.01814  -0.002877  -0.2243  0.6766
6.518e+09  -0.08837  0.9722  0.01927  -0.015  -0.025  -0.01295  0.03868  0.7323
6.519e+09  0.2428  0.9632  0.04623  0.01883  -0.005067  0.02283  0.3167  0.6673
6.52e+09  0.5709  0.7547  0.01006  -0.01532  0.01863  -2.753e-06  0.5241  0.5623
6.521e+09  0.7866  0.5503  -0.0067  0.008246  0.005981  -0.02555  0.6461  0.3587
6.522e+09  0.939  0.2449  -0.01559  -0.01377  -0.032  0.008988  0.7168  0.1162
6.524e+09  1.031  -0.04492  -0.0003162  0.01757  0.01524  0.0237  0.7404  -0.1807
6.525e+09  0.8676  -0.4111  0.03056  0.003769  -0.02951  -0.01642  0.6212  -0.3879
6.526e+09  0.6618  -0.6896  0.01619  0.0085  -0.03032  -0.04522  0.4305  -0.574
6.528e+09  0.3523  -0.8746  0.01748  0.01023  -0.08138  0.008529  0.1646  -0.6823
6.529e+09  0.06478  -0.949  0.02891  -0.004384  0.004577  0.022  -0.01852  -0.7242
6.53e+09  -0.3146  -0.917  -0.000239  0.004842  -0.01036  -0.02003  -0.2704  -0.6262
6.531e+09  -0.5865  -0.7241  0.005587  -0.04073  -0.0065  -0.02697  -0.4525  -0.4889
6.532e+09  -0.8498  -0.5167  -0.001623  0.01857  0.02851  -0.009933  -0.5848  -0.2743
6.534e+09  -0.9498  -0.1423  -0.00272  -0.02318  0.01349  -0.003225  -0.6569  -0.07334
6.535e+09  -0.949  0.2589  -0.01046  -0.008049  0.01897  0.001952  -0.6269  0.1317
6.536e+09  -0.7939  0.4719  0.02836  -0.02458  0.02281  0.009373  -0.6056  0.277
6.538e+09  -0.6217  0.7793  -0.0278  -0.000863  -0.004277  0.006065  -0.4759  0.4675
6.539e+09  -0.257  0.9292  -0.03577  -0.01341  -0.01048  -0.04422  -0.2716  0.6355
6.54e+09  0.07271  0.9771  -0.02262  -0.0263  -0.007627  -0.04135  -0.04593  0.6913
6.541e+09  0.3115  0.8813  8.391e-05  0.0104  0.01842  -0.02944  0.1882  0.6808
6.542e+09  0.6596  0.6843  -0.004663  0.002736  -0.001896  0.05154  0.3956  0.5228
6.544e+09  0.8291  0.4231  -0.006485  0.02092  -0.02523  -0.01159  0.6098  0.4072
6.545e+09  0.929  0.1215  -0.03477  -0.03061  -0.03139  -0.007979  0.7322  0.178
6.546e+09  0.9511  -0.2638  0.0003683  -0.007279  -0.01569  -0.0003445  0.7174  -0.09861
6.548e+09  0.7886  -0.5546  -0.02052  -0.00285  0.04221  0.0415  0.6438  -0.3202
6.549e+09  0.4719  -0.8355  0.01535  -0.03396  -0.05087  0.0002119  0.524  -0.5416
6.55e+09  0.2495  -0.9441  0.0002099  -0.004461  -0.004102  -0.009382  0.2926  -0.6666
