# Hz S RI R 50
6.25e+09  -0.6764  -0.2862  -0.02377  -0.03805  -0.02524  -0.007329  0.1661  0.4427
6.251e+09  -0.8018  0.03356  -0.01923  0.03742  0.05414  -0.01851  0.34  0.4141
6.252e+09  -0.8446  0.1819  -0.05538  0.012  0.02514  0.02116  0.5073  0.2268
6.254e+09  -0.6437  0.4969  -0.04955  0.0261  0.007985  0.01869  0.6408  0.01659
6.255e+09  -0.4237  0.6599  -0.02564  -0.005856  0.0281  -0.004856  0.5696  -0.231
6.256e+09  -0.1657  0.7735  -0.03231  0.01835  -0.0007804  -0.02778  0.4676  -0.4341
6.258e+09  0.1434  0.7852  0.002047  0.02751  -0.006366  0.02298  0.2561  -0.6089
6.259e+09  0.4053  0.7567  -0.01562  -0.006299  -0.004923  -0.07767  0.05555  -0.6938
6.26e+09  0.6089  0.5509  0.008028  0.007042  -0.06287  -0.06495  -0.2169  -0.644
6.261e+09  0.7236  0.2898  -0.02271  0.01642  -0.02731  -0.01749  -0.4475  -0.5602
6.262e+09  0.8011  0.006664  -0.02818  -0.02115  -0.01936  0.02239  -0.6097  -0.3607
6.264e+09  0.7834  -0.3195  -0.003516  -0.01226  -0.009315  -2.903e-06  -0.6979  -0.09214
6.265e+09  0.5885  -0.4991  0.01362  -0.002818  0.002087  0.04623  -0.7376  0.1543
6.266e+09  0.4105  -0.7087  -0.002676  0.01772  -0.004684  0.02626  -0.6055  0.3931
6.268e+09  0.1757  -0.7398  -0.002281  -0.01981  0.01933  -0.004483  -0.4234  0.5933
6.269e+09  -0.1524  -0.78  0.004575  -0.0005975  0.0009399  -0.028  -0.219  0.7168
6.27e+09  -0.3708  -0.6851  0.02704  0.005225  0.05973  -0.02659  0.06953  0.7273
6.271e+09  -0.6717  -0.5345  0.01455  -0.02411  0.04688  0.02969  0.3099  0.6273
6.272e+09  -0.7136  -0.2779  0.01501  -0.01117  -0.003071  -0.04895  0.5366  0.5235
6.274e+09  -0.7276  0.0385  -0.01018  0.02038  0.05509  -0.04022  0.7137  0.3051
6.275e+09  -0.7904  0.2914  0.005684  0.05058  0.03755  0.01307  0.7251  0.03396
6.276e+09  -0.5823  0.5085  0.009823  0.0004087  -0.01758  -0.005955  0.7194  -0.2364
6.278e+09  -0.3554  0.7216  0.005479  -0.002258  -0.004485  -0.0235  0.6339  -0.4564
6.279e+09  -0.137  0.804  -0.0004503  0.02147  0.007934  0.04418  0.4224  -0.6522
6.28e+09  0.1763  0.8019  -0.02864  -0.00925  0.02562  -0.02633  0.1439  -0.7823
6.281e+09  0.4261  0.6918  -0.005462  -0.01293  0.01159  0.02707  -0.09917  -0.7772
6.282e+09  0.6957  0.4362  -0.01462  0.01039  -0.007439  -0.02882  -0.3678  -0.693
6.284e+09  0.7566  0.2427  0.003084  0.001739  -0.0474  0.01504  -0.6059  -0.5391
6.285e+09  0.7845  -0.011  0.005889  0.008055  -0.02358  0.03431  -0.7189  -0.2752
6.286e+09  0.732  -0.341  -0.008327  -0.003361  0.007178  -0.07402  -0.8055  -0.02654
6.288e+09  0.5541  -0.5065  0.0162  -0.01672  -0.01276  -0.005316  -0.7731  0.2797
6.289e+09  0.2966  -0.7366  0.008553  0.02361  -0.004432  -0.001638  -0.5947  0.5002
6.29e+09  0.04496  -0.7836  0.002439  0.01597  0.005588  -0.007942  -0.432  0.7039
6.291e+09  -0.232  -0.8379  0.0009687  0.01582  -0.00675  0.0284  -0.1438  0.7752
6.292e+09  -0.4876  -0.6608  0.004758  -0.01836  -0.0122  -0.00714  0.1313  0.8332
6.294e+09  -0.7187  -0.4501  0.01461  -0.003499  -0.0367  0.04499  0.3822  0.6737
6.295e+09  -0.7797  -0.1998  -0.0206  -0.01677  -0.01199  -0.02923  0.6187  0.5313
6.296e+09  -0.8283  0.1275  -0.02704  -0.01495  -0.01531  -0.05649  0.7777  0.2889
6.298e+09  -0.7329  0.4038  -0.001066  -0.01349  -0.006177  -0.003201  0.8432  0.02768
6.299e+09  -0.4841  0.6048  -0.01546  -0.004932  -0.01188  1.025e-05  0.7991  -0.2982
6.3e+09  -0.2434  0.7565  -0.009039  0.01128  0.02533  -0.02485  0.6728  -0.4949
6.301e+09  -0.04263  0.796  -0.01456  -0.02549  0.006961  -0.0003415  0.4274  -0.7025
6.302e+09  0.2546  0.7362  0.04439  0.01251  -0.038  -0.02361  0.1637  -0.8448
6.304e+09  0.5217  0.5966  -0.003608  0.006821  -0.01823  -0.02085  -0.1193  -0.8046
6.305e+09  0.7031  0.4141  0.006539  -8.093e-05  0.001074  0.04399  -0.4074  -0.7561
6.306e+09  0.7845  0.1511  -0.0101  -0.01009  -0.04103  -0.03659  -0.665  -0.569
6.308e+09  0.7793  -0.1207  -0.006702  -0.01287  -0.02588  0.03228  -0.7789  -0.295
6.309e+09  0.7299  -0.4527  -0.05259  0.0002092  0.04119  0.02401  -0.8774  0.007217
6.31e+09  0.5478  -0.6576  -0.008899  -0.02224  0.02582  0.01179  -0.801  0.2954
6.311e+09  0.2486  -0.7543  0.01574  0.02196  -0.03326  -0.01304  -0.6752  0.5432
6.312e+09  -0.02884  -0.8102  -0.005973  -0.02975  -0.01184  -0.02052  -0.4197  0.7652
6.314e+09  -0.3119  -0.7355  0.00129  -0.0257  0.0177  0.0391  -0.1473  0.8574
6.315e+09  -0.6053  -0.5845  0.0003855  -0.01809  -0.02829  0.02464  0.1577  0.8583
6.316e+09  -0.7195  -0.4116  0.0003343  0.007734  -0.01262  -0.0203  0.4567  0.7473
6.318e+09  -0.8485  -0.1018  0.01072  -0.02167  0.003606  -0.01465  0.6676  0.5433
6.319e+09  -0.8002  0.1506  -0.02784  0.01582  -0.02608  0.05619  0.8263  0.3142
6.32e+09  -0.6588  0.4919  0.03272  0.01194  -0.03098  -0.02928  0.8578  0.02707
6.321e+09  -0.4851  0.7079  0.03106  -0.02374  -0.01416  0.02983  0.8064  -0.312
6.322e+09  -0.1773  0.8369  -0.01975  0.02151  -0.009643  -0.01912  0.6832  -0.5658
6.324e+09  0.09338  0.794  0.004109  0.0001382  0.01029  -0.0128  0.4425  -0.769
6.325e+09  0.3772  0.722  -0.01178  0.02616  0.03928  -0.006414  0.2077  -0.8433
6.326e+09  0.5853  0.5023  0.01484  0.01858  -0.01078  -0.02941  -0.1605  -0.8878
6.328e+09  0.7515  0.3365  0.02565  -0.001608  0.04471  -0.05865  -0.4176  -0.7997
6.329e+09  0.8835  0.0129  -0.0321  0.01021  -0.007194  -0.02168  -0.6868  -0.6266
6.33e+09  0.7753  -0.2545  -0.002719  0.0114  -0.02132  -0.01886  -0.8635  -0.3227
6.331e+09  0.6628  -0.4661  0.01741  0.004448  0.02107  0.04192  -0.8872  -0.03183
6.332e+09  0.4074  -0.7063  0.003638  0.009124  -0.01132  0.0007786  -0.8677  0.2826
6.334e+09  0.1552  -0.869  -0.03289  -0.02414  -0.02694  0.002352  -0.7258  0.5824
6.335e+09  -0.1354  -0.8081  0.03093  0.03937  0.02093  0.03402  -0.5075  0.7783
6.336e+09  -0.4068  -0.7175  0.02122  -0.02124  0.01391  0.01378  -0.1943  0.8878
6.338e+09  -0.6379  -0.4989  0.01391  0.01248  0.007773  -0.03225  0.1349  0.9361
6.339e+09  -0.8209  -0.2681  -0.004983  0.003709  0.03271  0.0108  0.4141  0.805
6.34e+09  -0.8216  0.02744  0.01017  0.005465  -0.03429  0.05149  0.6375  0.6034
6.341e+09  -0.7707  0.3237  -0.01385  0.003147  -0.03207  -0.03052  0.8825  0.3493
6.342e+09  -0.6032  0.5881  -0.002865  0.009093  0.01275  0.02158  0.9177  0.02411
6.344e+09  -0.3987  0.7763  0.003551  -0.01289  0.01457  0.01877  0.8846  -0.266
6.345e+09  -0.06153  0.8533  -0.02676  0.02981  -0.02659  0.0238  0.7301  -0.5713
6.346e+09  0.2472  0.8369  -0.003153  0.01004  -0.03543  0.00978  0.4937  -0.805
6.348e+09  0.525  0.6829  0.01732  0.006143  -0.003454  -0.01565  0.2093  -0.9166
6.349e+09  0.7205  0.4654  0.01762  -0.009123  0.00424  0.03264  -0.1342  -0.8993
6.35e+09  0.7904  0.2102  -0.004992  -0.004827  0.03492  -0.01049  -0.4281  -0.8622
6.351e+09  0.8073  -0.1623  -0.01508  0.00438  0.001543  0.04848  -0.7133  -0.658
6.352e+09  0.7982  -0.4043  -0.001464  -0.004695  -0.002918  -0.0141  -0.885  -0.3635
6.354e+09  0.5105  -0.6243  0.01915  -0.03149  -0.009202  -0.00753  -0.9348  -0.04501
6.355e+09  0.2502  -0.7837  0.02466  -0.0181  0.008625  -0.005771  -0.9278  0.2321
6.356e+09  -0.04955  -0.8943  0.00242  0.0249  -0.04208  -0.003999  -0.788  0.5769
6.358e+09  -0.291  -0.8452  -0.02511  0.008201  -0.008481  -0.03108  -0.5328  0.7962
6.359e+09  -0.5433  -0.6188  -0.05424  -0.002095  0.002809  -0.01392  -0.2206  0.8946
6.36e+09  -0.7296  -0.3681  0.01188  0.01639  0.01318  -0.002788  0.1186  0.9485
6.361e+09  -0.8411  -0.1232  -0.006358  0.00745  -0.029  -0.03804  0.4075  0.8678
6.362e+09  -0.8673  0.2157  0.01734  -0.02868  -0.01421  -0.002563  0.7101  0.7152
6.364e+09  -0.7699  0.46  -0.002055  0.01133  0.003004  -0.005851  0.8606  0.4121
6.365e+09  -0.4941  0.7176  -0.001877  0.03414  0.01829  -0.0004555  0.996  0.07567
6.366e+09  -0.2093  0.8521  0.03644  0.03525  0.02277  -0.003848  0.9066  -0.2412
6.368e+09  0.07007  0.842  -0.04628  0.008633  -0.02212  -0.003353  0.7814  -0.5601
6.369e+09  0.4041  0.734  0.0001806  0.01957  0.009951  -0.006993  0.5636  -0.8245
6.37e+09  0.6211  0.5772  -0.02561  0.01547  0.004102  -0.0722  0.2595  -0.9678
6.371e+09  0.8455  0.3165  0.02839  0.005557  -0.01254  0.02973  -0.08682  -0.9196
6.372e+09  0.8612  -0.00586  -0.0008755  0.009211  0.007213  -0.01037  -0.3938  -0.8425
6.374e+09  0.8542  -0.2624  -0.02256  0.0282  0.01733  0.01653  -0.6589  -0.6604
6.375e+09  0.7128  -0.5489  -0.009613  0.01196  0.003058  0.004071  -0.841  -0.4049
6.376e+09  0.449  -0.8118  0.03954  0.008437  0.003022  0.008645  -0.9442  -0.03937
6.378e+09  0.134  -0.8578  0.0343  -0.02824  -0.00157  0.01341  -0.8662  0.2055
6.379e+09  -0.172  -0.8349  -0.001901  -0.02141  0.02481  -0.04049  -0.8244  0.5603
6.38e+09  -0.4889  -0.718  -0.003698  0.02514  -0.02342  0.03891  -0.5615  0.7442
6.381e+09  -0.6604  -0.5299  0.01712  0.01087  0.05615  -0.01322  -0.2507  0.9023
6.382e+09  -0.8413  -0.2289  0.008509  0.007809  -0.02599  0.02458  0.05954  0.9844
6.384e+09  -0.8444  0.1206  -0.009808  -0.01053  0.007704  0.003946  0.3835  0.8552
6.385e+09  -0.7903  0.3657  -0.02122  0.013  0.007152  0.007089  0.6595  0.6919
6.386e+09  -0.64  0.5643  0.03237  0.004466  0.03969  0.01387  0.8154  0.4481
6.388e+09  -0.3386  0.7897  0.03855  0.02343  -0.04527  -0.01477  0.9467  0.111
6.389e+09  -0.04275  0.8771  0.02807  -0.0385  -0.006969  -0.004947  0.9232  -0.1727
6.39e+09  0.3002  0.8122  0.02934  -0.02224  -0.01486  -0.009422  0.7808  -0.4951
6.391e+09  0.5692  0.6412  0.05187  -0.008265  -0.01299  -0.005224  0.5641  -0.7645
6.392e+09  0.7839  0.4148  0.03343  0.0219  0.02267  0.01068  0.2743  -0.8904
6.394e+09  0.8646  0.1474  -0.0365  0.02691  0.0351  0.001388  -0.01444  -0.9512
6.395e+09  0.8835  -0.1392  -0.006284  0.02401  0.01353  0.03848  -0.3811  -0.8092
6.396e+09  0.6792  -0.4473  -0.01371  -0.01211  -0.03519  0.0326  -0.6127  -0.6849
6.398e+09  0.5552  -0.6476  -0.03683  -0.00018  0.006025  -0.01675  -0.8135  -0.4185
6.399e+09  0.2982  -0.8591  0.03519  -0.01537  0.06782  -0.02434  -0.8926  -0.1118
6.4e+09  -0.05386  -0.8539  -0.004008  0.00235  -0.04867  0.028  -0.8809  0.1636
6.401e+09  -0.3206  -0.7988  0.005944  0.007956  0.02422  -0.0009167  -0.8337  0.4745
6.402e+09  -0.5977  -0.5715  0.02224  -0.0215  -0.01171  0.04926  -0.5987  0.6795
6.404e+09  -0.8047  -0.3989  -0.004711  -0.0207  -0.0269  -0.008371  -0.2665  0.8528
6.405e+09  -0.8558  -0.04977  -0.009884  0.01258  -0.008541  -0.005156  0.04238  0.9334
6.406e+09  -0.776  0.2081  0.03683  0.0002195  -0.01675  0.01039  0.3365  0.8651
6.408e+09  -0.6955  0.5244  0.01398  0.01554  -0.005352  -0.02537  0.5948  0.7226
6.409e+09  -0.4737  0.726  0.01479  0.01227  -0.01369  0.0001588  0.7844  0.4592
6.41e+09  -0.1968  0.8443  -0.01386  0.005636  -0.03407  -0.01808  0.8714  0.1956
6.411e+09  0.09076  0.8628  0.003815  -0.01183  -0.02154  -0.001489  0.8695  -0.1475
6.412e+09  0.4173  0.764  0.02581  0.01822  0.002265  0.0415  0.8299  -0.46
6.414e+09  0.6627  0.5654  -0.002776  -0.008123  0.006327  0.03228  0.5914  -0.6975
6.415e+09  0.8163  0.3456  -0.002783  -0.01063  0.01215  0.01096  0.3983  -0.8376
6.416e+09  0.866  0.04587  -0.01144  0.03024  -0.03585  -0.03807  0.01722  -0.9426
6.418e+09  0.827  -0.3084  0.006605  -0.008078  0.01132  0.02383  -0.2544  -0.8431
6.419e+09  0.6616  -0.5722  -0.02344  -0.05858  -0.01449  0.04589  -0.55  -0.7046
6.42e+09  0.4508  -0.744  0.01052  -0.01885  0.005603  0.009261  -0.7404  -0.4476
6.421e+09  0.1371  -0.8709  -0.02014  -0.009817  -0.001943  -0.02201  -0.832  -0.2178
6.422e+09  -0.2072  -0.8738  0.02351  0.008185  0.04471  0.01659  -0.9421  0.132
6.424e+09  -0.4472  -0.757  -0.01611  0.05275  -0.02284  -0.01409  -0.8002  0.4042
6.425e+09  -0.6456  -0.5363  0.01827  -0.01961  -0.02304  -0.01066  -0.6123  0.6283
6.426e+09  -0.8236  -0.303  -0.02331  -0.01237  0.02906  -0.01866  -0.3537  0.7618
6.428e+09  -0.8491  0.01398  -0.0114  0.02787  -0.004997  0.009053  -0.09505  0.85
6.429e+09  -0.7832  0.3498  -0.001281  0.01262  0.02875  0.02829  0.3163  0.8281
6.43e+09  -0.6403  0.609  0.01337  0.02283  -0.03601  0.00554  0.5127  0.6897
6.431e+09  -0.3313  0.7348  -0.04811  0.02675  0.02625  0.003276  0.7187  0.4806
6.432e+09  -0.01445  0.863  -0.0103  -0.02157  0.01579  -0.01866  0.8201  0.2012
6.434e+09  0.221  0.8298  -0.02355  0.01728  -0.005688  0.07252  0.8564  -0.07038
6.435e+09  0.5435  0.7301  0.001757  0.04623  -0.01552  0.04652  0.7544  -0.4067
6.436e+09  0.6953  0.4599  0.02169  0.02358  0.03514  0.02113  0.622  -0.6262
6.438e+09  0.8241  0.1915  0.02095  0.01939  -0.01066  -0.0372  0.3593  -0.7778
6.439e+09  0.8082  -0.08959  -0.03196  0.007799  -0.01231  -0.003776  0.04851  -0.8719
6.44e+09  0.7988  -0.4165  -0.0264  -0.03315  -0.02171  0.0348  -0.2874  -0.8463
6.441e+09  0.5514  -0.6008  0.003355  0.02314  -0.02032  -0.01278  -0.4969  -0.7045
6.442e+09  0.244  -0.8085  -0.02678  -0.02895  0.03216  0.01058  -0.7136  -0.4973
6.444e+09  -0.01278  -0.7961  -0.002973  -0.008213  -0.03881  0.01016  -0.8951  -0.2281
6.445e+09  -0.1822  -0.8239  0.0191  0.01196  0.01835  -0.02169  -0.8313  0.06213
6.446e+09  -0.5045  -0.6329  -0.01017  -0.007693  0.01693  0.01911  -0.7925  0.3613
6.448e+09  -0.7486  -0.4556  -0.02593  0.01213  -0.02113  -0.02679  -0.637  0.597
6.449e+09  -0.8211  -0.09533  -0.008493  -0.02753  -0.006849  -0.03865  -0.36  0.7369
6.45e+09  -0.827  0.1786  -0.01868  -0.007763  -0.0202  -0.01222  -0.06475  0.8955
6.451e+09  -0.767  0.4013  -0.01644  -0.04276  -0.003574  -0.01477  0.2402  0.7931
6.452e+09  -0.6009  0.6107  0.01457  0.003849  -0.01103  -0.03913  0.4636  0.7
6.454e+09  -0.2851  0.7837  -0.005223  0.001825  0.009215  -0.03598  0.6823  0.4881
6.455e+09  -0.02075  0.833  0.005867  -0.02881  0.02122  0.007759  0.8211  0.2005
6.456e+09  0.2978  0.8005  0.02246  -0.00664  0.02088  -0.01576  0.8781  -0.04983
6.458e+09  0.5842  0.6169  -0.03057  -0.009179  -0.0321  0.03949  0.739  -0.3361
6.459e+09  0.6963  0.3959  -0.0287  -0.009309  0.003843  -0.01084  0.5503  -0.5598
6.46e+09  0.891  0.1087  -0.02126  0.01281  -0.04034  0.01101  0.3635  -0.7596
6.461e+09  0.7728  -0.1571  0.009818  -0.04217  -0.008815  -0.009112  0.04449  -0.8095
6.462e+09  0.7364  -0.4005  0.01281  -0.01061  0.009618  0.03046  -0.2014  -0.7453
6.464e+09  0.5247  -0.6357  0.001858  0.03997  0.01437  0.01579  -0.5047  -0.6545
6.465e+09  0.2538  -0.7685  -0.001399  0.04666  -0.01922  0.05341  -0.6692  -0.4926
6.466e+09  -0.03804  -0.8405  -0.03003  -0.002926  -0.005008  -0.004913  -0.7521  -0.188
6.468e+09  -0.3497  -0.7891  -0.03405  0.002871  -0.0079  -0.008749  -0.7643  0.07298
6.469e+09  -0.5833  -0.6635  0.01267  -0.006458  -0.06605  0.03059  -0.7674  0.3241
6.47e+09  -0.7606  -0.3829  0.01307  0.02623  0.0169  0.03263  -0.5519  0.5746
6.471e+09  -0.8602  -0.1217  -0.01471  0.007901  -0.01672  0.02358  -0.316  0.76
6.472e+09  -0.7762  0.1496  0.03258  -0.001977  -0.02156  0.02018  -0.09189  0.7896
6.474e+09  -0.6971  0.4562  -0.002685  -0.01908  0.04665  0.02328  0.2109  0.7584
6.475e+09  -0.4973  0.6349  0.02453  0.008198  -0.02461  0.008941  0.427  0.6425
6.476e+09  -0.2531  0.8542  -0.01481  0.01079  -0.01789  -0.05455  0.6573  0.4533
6.478e+09  0.08719  0.8272  -0.06449  -0.02362  -0.01336  0.02258  0.7443  0.187
6.479e+09  0.3872  0.7877  0.0008316  -0.01005  0.01128  -0.03553  0.7784  -0.04949
6.48e+09  0.6505  0.5684  -0.01117  0.02888  0.01949  0.0156  0.6968  -0.3408
6.481e+09  0.7453  0.3346  0.004742  0.001901  -0.01723  -0.0374  0.5441  -0.5628
6.482e+09  0.7663  0.03825  -0.005299  -0.01769  0.048  0.01385  0.3215  -0.6833
6.484e+09  0.8362  -0.2127  -0.0292  -0.008138  0.01625  0.01288  0.06728  -0.7812
6.485e+09  0.7456  -0.4801  0.001369  -0.006247  -0.02075  -0.01939  -0.2407  -0.7424
6.486e+09  0.4882  -0.6918  0.006028  0.02694  0.0404  0.0172  -0.4896  -0.6201
6.488e+09  0.1879  -0.792  -0.02067  -0.01067  0.02031  0.01928  -0.6524  -0.4909
6.489e+09  -0.05096  -0.8295  0.007198  -0.04208  0.01756  -0.02549  -0.7612  -0.1788
6.49e+09  -0.3522  -0.7606  0.02743  0.02161  -0.02373  0.04937  -0.7504  0.101
6.491e+09  -0.5882  -0.5965  0.05455  -0.00206  0.04911  -0.0004514  -0.6931  0.3309
6.492e+09  -0.7768  -0.35  -9.083e-05  -0.02294  0.04824  -0.007724  -0.4925  0.5622
6.494e+09  -0.9026  -0.1225  -0.04685  -0.02961  -0.01129  -0.02798  -0.2685  0.6754
6.495e+09  -0.792  0.2275  -0.01811  0.03904  0.01957  -0.01997  -0.009738  0.8018
6.496e+09  -0.711  0.4923  -0.01135  0.008863  -0.003105  -0.00732  0.2235  0.7341
6.498e+09  -0.4817  0.6884  -0.006336  0.03384  0.003829  0.02194  0.429  0.6009
6.499e+09  -0.1469  0.8319  -0.007479  -0.03823  -0.01123  0.02122  0.6417  0.4275
6.5e+09  0.03072  0.8083  -0.03621  0.01954  0.02559  -0.01272  0.7466  0.165
6.501e+09  0.4256  0.7697  0.0281  0.02152  -0.04701  0.01722  0.7496  -0.1436
6.502e+09  0.6493  0.6009  0.02584  -0.00805  -0.02553  -0.01733  0.68  -0.3889
6.504e+09  0.7572  0.3698  -0.03259  -0.005873  0.009346  -0.01891  0.5072  -0.5654
6.505e+09  0.8181  0.02707  0.01473  0.0234  -0.000383  -0.02485  0.2773  -0.7167
6.506e+09  0.819  -0.2649  0.04029  0.01499  0.04084  -0.06028  -0.003984  -0.7545
6.508e+09  0.6574  -0.5498  -0.02909  0.003077  0.03804  0.003841  -0.2517  -0.7132
6.509e+09  0.4419  -0.7436  0.02992  -0.006138  -0.02196  -0.0358  -0.4899  -0.5952
6.51e+09  0.1924  -0.8289  -0.02315  0.0114  0.01793  -0.0414  -0.6384  -0.3849
6.511e+09  -0.08917  -0.8209  0.02355  -0.01461  -0.02418  0.03579  -0.7058  -0.1413
6.512e+09  -0.4319  -0.7753  0.03221  -0.01259  0.001636  0.01608  -0.725  0.139
6.514e+09  -0.6327  -0.5769  -0.004079  -0.04189  0.03615  0.01312  -0.6483  0.3745
6.515e+09  -0.843  -0.356  -0.01453  -0.03136  0.05178  0.03108  -0.487  0.5786
6.516e+09  -0.8757  -0.03826  -0.00331  0.005128  -0.0261  0.01775  -0.2708  0.6799
6.518e+09  -0.8861  0.2803  0.007588  -0.0175  0.005438  -0.0001151  0.01251  0.7546
6.519e+09  -0.6778  0.5707  -0.001985  -0.03107  0.004965  0.01712  0.2802  0.6884
6.52e+09  -0.444  0.7846  0.04812  0.02028  -0.008521  -0.04085  0.4728  0.5806
6.521e+09  -0.1223  0.8624  -0.009038  0.02403  -0.02333  -0.01671  0.6357  0.3705
6.522e+09  0.1493  0.8968  -0.02567  -0.01095  0.02619  0.01388  0.7767  0.102
6.524e+09  0.4844  0.8058  0.02828  0.01995  -0.05276  0.01479  0.7278  -0.1536
6.525e+09  0.7709  0.6025  -0.01132  -0.01396  0.02932  0.004028  0.5819  -0.3752
6.526e+09  0.9015  0.2962  0.0001086  -0.005701  0.01243  0.01105  0.392  -0.5943
6.528e+09  0.9156  -0.08696  0.01182  0.02171  0.007517  0.01791  0.1838  -0.7146
6.529e+09  0.8467  -0.3252  0.03209  0.0289  0.03575  -0.0318  -0.01645  -0.7004
6.53e+09  0.6381  -0.6415  0.002673  -0.03276  -0.02695  0.01345  -0.312  -0.6605
6.531e+09  0.3924  -0.8198  0.02168  0.02887  0.002248  -0.05696  -0.4645  -0.4903
6.532e+09  0.1157  -0.9607  0.003799  0.0006136  -0.005799  0.01751  -0.5923  -0.3007
6.534e+09  -0.2038  -0.9405  0.01988  -0.02757  -0.03892  0.006551  -0.6402  -0.06498
6.535e+09  -0.5044  -0.7682  0.01535  0.02338  -0.01215  -0.01742  -0.6223  0.1286
6.536e+09  -0.7508  -0.5213  0.02375  0.02079  -0.05221  -0.04866  -0.5564  0.3065
6.538e+09  -0.9326  -0.2296  0.02161  0.03042  0.001449  -0.0005396  -0.4693  0.459
6.539e+09  -0.9208  0.05641  -0.00552  0.02158  0.01331  -0.03609  -0.2958  0.6068
6.54e+09  -0.8796  0.4025  -0.006161  0.01208  -0.03574  0.002008  -0.02344  0.6666
6.541e+09  -0.7379  0.7571  -0.01856  -0.02847  -0.01184  -0.0642  0.2177  0.6942
6.542e+09  -0.357  0.8737  -0.006975  0.0267  0.05793  0.03099  0.4063  0.5904
6.544e+09  -0.03467  0.9167  -0.03024  -0.01065  0.01417  -0.02251  0.6113  0.4096
6.545e+09  0.2924  0.9039  0.01453  -0.02099  -0.01615  0.03198  0.6821  0.1499
6.546e+09  0.5729  0.7467  -0.004713  0.02001  0.01992  -0.006937  0.7087  -0.08428
6.548e+09  0.8512  0.5283  0.008726  0.005226  -0.006845  -0.02034  0.6833  -0.3123
6.549e+09  0.891  0.2282  0.01352  -0.03132  0.003198  0.009786  0.4984  -0.5462
6.55e+09  0.9266  -0.1378  0.004809  0.01599  0.01098  -0.00775  0.2873  -0.6864
