# Hz S RI R 50
6.25e+09  -0.704  0.4885  -0.01195  -0.02665  -0.0212  0.03701  0.1552  0.4925
6.251e+09  -0.4385  0.7219  -0.02861  -0.001129  0.04053  0.02553  0.3362  0.4035
6.252e+09  -0.2162  0.8055  0.01582  0.02711  0.06102  0.03021  0.5439  0.2509
6.254e+09  0.07398  0.8294  -0.004544  -0.005277  -0.007218  0.1037  0.6073  0.04101
6.255e+09  0.3502  0.7647  0.01956  -0.01145  0.01118  0.009059  0.6061  -0.2283
6.256e+09  0.6734  0.5264  -0.02309  0.00917  -0.02382  -0.01639  0.4805  -0.4406
6.258e+09  0.7816  0.3528  0.008437  -0.002715  0.0411  -0.01822  0.2891  -0.5911
6.259e+09  0.8406  0.08858  0.001908  0.0147  -0.005026  -0.007019  0.04737  -0.6704
6.26e+09  0.8011  -0.2128  -0.008497  -0.02806  0.006955  -0.01573  -0.2149  -0.6652
6.261e+09  0.6243  -0.4985  -0.01885  -0.01025  -0.02849  -0.005385  -0.4532  -0.5463
6.262e+09  0.4645  -0.6566  0.0005289  -0.01975  -0.001984  0.05172  -0.6446  -0.3343
6.264e+09  0.1823  -0.8457  0.01089  -0.01085  -0.02087  0.004747  -0.6827  -0.1086
6.265e+09  -0.1016  -0.8261  0.01592  -0.002713  0.02758  0.008613  -0.6874  0.1399
6.266e+09  -0.3561  -0.7816  -0.002465  0.002606  0.006571  -0.03954  -0.6286  0.4422
6.268e+09  -0.5801  -0.5446  -0.009285  -0.02123  -0.03057  -0.06341  -0.4481  0.5783
6.269e+09  -0.6881  -0.3386  -0.01703  0.006774  0.01771  -0.0006495  -0.2088  0.6861
6.27e+09  -0.7951  -0.05761  -0.01007  -0.01067  0.03256  -0.0244  0.05446  0.7548
6.271e+09  -0.7685  0.2589  -0.0215  -0.004082  -0.01643  -0.01449  0.3283  0.6774
6.272e+09  -0.6205  0.4516  -0.02078  -0.01871  0.007268  0.00928  0.5506  0.5458
6.274e+09  -0.4737  0.6825  -0.02112  -0.01481  0.04275  -0.001981  0.726  0.2934
6.275e+09  -0.1901  0.7388  0.00988  0.01299  -0.01287  0.02167  0.789  0.04039
6.276e+09  0.06403  0.837  -0.002272  -0.00398  0.03853  -0.0176  0.73  -0.2126
6.278e+09  0.3633  0.7162  0.01312  0.001164  -0.0126  -0.0311  0.6051  -0.4566
6.279e+09  0.6666  0.5793  0.005922  0.01723  0.01048  0.03544  0.4145  -0.6799
6.28e+09  0.7234  0.2951  0.01148  0.00896  0.04088  -0.009697  0.1649  -0.7509
6.281e+09  0.8553  0.08123  0.007222  -0.0193  0.02202  -0.01751  -0.09916  -0.7832
6.282e+09  0.7748  -0.2413  0.02242  -0.007667  -0.001616  0.01605  -0.3676  -0.669
6.284e+09  0.6467  -0.5108  -0.000555  -0.001649  0.05365  -0.01333  -0.6169  -0.52
6.285e+09  0.4087  -0.7045  0.000484  0.02148  0.0236  -0.01394  -0.7314  -0.269
6.286e+09  0.1867  -0.7948  -0.02068  -0.007745  0.06117  0.02562  -0.7854  -0.02851
6.288e+09  -0.1444  -0.8235  -0.01397  0.02735  0.04012  -0.02385  -0.7624  0.2538
6.289e+09  -0.4138  -0.7565  0.006669  -0.004  -0.0541  -0.01747  -0.6313  0.5039
6.29e+09  -0.6292  -0.5545  0.0079  0.0241  0.02827  0.01734  -0.4124  0.7045
6.291e+09  -0.8099  -0.274  -0.02436  0.008191  0.05072  0.03754  -0.1486  0.7793
6.292e+09  -0.8606  0.004623  0.006718  -0.004756  0.0008683  0.01861  0.1419  0.8316
6.294e+09  -0.7826  0.3373  0.0259  -0.03316  0.0207  0.0007253  0.4135  0.7149
6.295e+09  -0.662  0.5367  -0.00585  0.01391  0.02149  0.03115  0.6017  0.5512
6.296e+09  -0.3934  0.6937  -0.01025  -0.01824  -0.0002842  -0.01153  0.7575  0.2984
6.298e+09  -0.1284  0.8937  0.01753  -0.02158  0.02991  -0.00451  0.8096  0.02806
6.299e+09  0.1626  0.838  0.005259  0.003559  -0.0009631  -0.0156  0.8187  -0.2655
6.3e+09  0.491  0.7349  0.00585  0.02239  0.01104  0.0006561  0.6473  -0.5201
6.301e+09  0.6558  0.5321  -0.01848  0.03327  -0.02713  0.01874  0.4356  -0.7106
6.302e+09  0.7723  0.3033  0.01092  0.005737  0.01588  -0.0221  0.1437  -0.8202
6.304e+09  0.8612  -0.01397  0.0002382  0.01228  0.03837  -0.05744  -0.1529  -0.8408
6.305e+09  0.7278  -0.2997  -0.01433  0.006985  0.01461  0.05086  -0.4045  -0.7602
6.306e+09  0.6275  -0.5403  -0.00679  0.03719  -0.0118  0.02685  -0.6613  -0.5222
6.308e+09  0.3917  -0.6914  0.01202  -0.0452  -0.02683  0.002796  -0.7794  -0.292
6.309e+09  0.1541  -0.8498  -0.01361  -0.01321  -0.01126  0.01507  -0.892  0.01175
6.31e+09  -0.2379  -0.8094  0.01348  -0.01076  -0.02516  0.02451  -0.7997  0.2867
6.311e+09  -0.4779  -0.726  -0.02352  -0.01083  0.004747  0.02823  -0.6581  0.5492
6.312e+09  -0.6391  -0.5115  0.00702  -0.01139  0.01939  0.02734  -0.4345  0.7499
6.314e+09  -0.7848  -0.2329  0.01244  0.0185  -0.009047  -0.009403  -0.1884  0.8721
6.315e+09  -0.8472  -0.005757  -0.01265  -0.01525  0.01896  -0.01876  0.1856  0.8719
6.316e+09  -0.8053  0.3801  -0.0127  -0.01685  0.004701  0.006157  0.4281  0.7974
6.318e+09  -0.6263  0.548  0.01021  0.02388  -0.02875  0.01716  0.6644  0.5505
6.319e+09  -0.3512  0.7307  0.01105  -0.009075  0.00328  -0.0009291  0.8346  0.3356
6.32e+09  -0.05827  0.8656  -0.01011  -0.01785  -0.01935  0.02977  0.8876  0.02836
6.321e+09  0.2442  0.8343  -0.01123  0.03812  0.01123  0.01242  0.8496  -0.2901
6.322e+09  0.5076  0.6701  -0.003835  -0.004339  0.003234  0.003338  0.6883  -0.5942
6.324e+09  0.7417  0.4838  0.02963  0.04926  0.03276  -0.00696  0.4581  -0.7638
6.325e+09  0.8149  0.2041  -0.008558  0.001722  -0.0381  -0.02217  0.1799  -0.8637
6.326e+09  0.8694  -0.1134  0.00848  -0.01629  -0.02734  -0.02279  -0.1114  -0.8732
6.328e+09  0.7707  -0.4256  -0.00866  0.009204  0.03623  0.06821  -0.4587  -0.8258
6.329e+09  0.6277  -0.6186  -0.02144  0.03747  0.01309  0.02076  -0.697  -0.5995
6.33e+09  0.3196  -0.7468  0.0106  0.03799  0.01869  0.01802  -0.8354  -0.3161
6.331e+09  0.03487  -0.8371  0.00626  -0.007083  0.005589  0.0008381  -0.9103  -0.03663
6.332e+09  -0.2742  -0.7948  -0.02885  0.02025  -0.03534  -0.02885  -0.862  0.3294
6.334e+09  -0.5726  -0.6645  -0.03387  0.01696  -0.02203  0.04568  -0.7127  0.5814
6.335e+09  -0.7836  -0.4202  0.0207  0.0224  -0.01338  0.005113  -0.5052  0.7837
6.336e+09  -0.8458  -0.1139  -0.008736  0.003286  0.03564  -0.003318  -0.1888  0.8879
6.338e+09  -0.8278  0.1753  -0.009731  -0.005091  -0.04668  0.008305  0.137  0.9017
6.339e+09  -0.7641  0.4117  -0.02312  -0.006036  -0.02223  -0.06921  0.4144  0.8145
6.34e+09  -0.5479  0.6542  -0.008871  -0.003202  -0.03697  0.03297  0.6813  0.632
6.341e+09  -0.3189  0.8388  -0.01249  0.01793  -0.01139  -0.003507  0.8541  0.3475
6.342e+09  0.06472  0.836  0.01824  -0.02445  0.006549  0.03499  0.9202  0.06143
6.344e+09  0.3391  0.7984  -0.01604  -0.02175  -0.0297  -0.01088  0.8749  -0.2588
6.345e+09  0.5728  0.6611  -0.01726  0.008696  -0.006583  0.02377  0.7529  -0.5943
6.346e+09  0.7943  0.4258  -0.01677  -0.0278  -0.05416  -0.01271  0.4765  -0.7657
6.348e+09  0.8371  0.1417  0.006924  -0.02007  0.004105  0.02623  0.1781  -0.9044
6.349e+09  0.893  -0.2561  -0.04337  0.02565  0.06347  -0.002899  -0.07058  -0.9423
6.35e+09  0.6766  -0.5557  0.007773  -0.02662  0.01755  -0.04292  -0.4241  -0.8686
6.351e+09  0.4696  -0.6806  0.01108  -0.002669  0.02526  0.00463  -0.7004  -0.6492
6.352e+09  0.2093  -0.8805  -0.00653  -0.02812  0.003608  0.02551  -0.8801  -0.4042
6.354e+09  -0.09224  -0.8554  0.04412  0.02704  0.003083  0.001675  -0.9605  -0.0894
6.355e+09  -0.4084  -0.8088  0.01043  -0.01633  -0.03863  -0.02808  -0.9113  0.2702
6.356e+09  -0.6362  -0.6236  0.01784  0.005764  0.00521  0.02144  -0.7702  0.5798
6.358e+09  -0.7968  -0.3471  -0.01548  0.002583  0.01586  0.0206  -0.5145  0.7921
6.359e+09  -0.8723  -0.03925  -0.01593  -0.001771  0.03154  -0.004974  -0.2171  0.9439
6.36e+09  -0.8615  0.2627  -0.01698  0.007225  0.04787  0.022  0.1219  0.9317
6.361e+09  -0.691  0.5125  -0.02153  0.03795  -0.002483  0.02979  0.4084  0.8668
6.362e+09  -0.4715  0.769  -0.01133  -0.01617  0.0239  -0.003147  0.6519  0.6558
6.364e+09  -0.1831  0.8741  0.01603  -0.027  -0.0188  0.008648  0.8907  0.4162
6.365e+09  0.159  0.8941  0.02336  -0.01866  -0.02275  -0.04913  0.9358  0.005405
6.366e+09  0.4166  0.7796  -0.03068  0.007659  0.001595  -0.007196  0.9327  -0.2516
6.368e+09  0.6792  0.5475  -0.00685  0.00574  -0.05333  0.008854  0.7744  -0.5093
6.369e+09  0.8487  0.3022  -0.03467  0.01468  0.001309  0.02762  0.5309  -0.7861
6.37e+09  0.8344  -0.065  -0.02505  0.006705  -0.02013  -0.02314  0.2418  -0.9271
6.371e+09  0.8046  -0.38  0.01496  -0.04411  -0.008949  -0.02636  -0.02291  -0.9146
6.372e+09  0.6523  -0.6391  0.01092  0.01979  0.02702  -0.02103  -0.3621  -0.839
6.374e+09  0.4399  -0.7472  0.0238  -0.02631  0.007063  0.01111  -0.6965  -0.6843
6.375e+09  0.1052  -0.8871  -0.03143  0.01984  -0.01738  0.02571  -0.8591  -0.4159
6.376e+09  -0.2147  -0.8372  -0.009517  -0.02625  -0.01754  0.04701  -0.9714  -0.04525
6.378e+09  -0.4716  -0.7689  0.04721  -0.03087  0.001238  0.009674  -0.9062  0.204
6.379e+09  -0.6841  -0.5444  -0.0446  -0.04142  -0.01971  0.0204  -0.7533  0.5184
6.38e+09  -0.825  -0.2021  0.008249  -0.0101  0.001188  -0.0003463  -0.5909  0.7583
6.381e+09  -0.8776  0.06123  0.001712  0.03059  -0.003227  -0.03795  -0.2643  0.8784
6.382e+09  -0.8026  0.4164  0.01647  -0.02006  -0.0135  -0.01007  0.04023  0.9588
6.384e+09  -0.6174  0.6555  -0.0311  0.01663  0.02746  0.01476  0.3989  0.8486
6.385e+09  -0.2699  0.8192  0.01646  0.02476  -0.03915  0.02566  0.6813  0.6491
6.386e+09  -0.09099  0.8653  -0.01813  -0.01461  0.03395  -0.01864  0.809  0.4297
6.388e+09  0.2407  0.7947  0.01177  -6.044e-05  0.001675  -0.01178  0.9235  0.098
6.389e+09  0.5129  0.75  -0.01423  0.0179  0.03134  -0.006865  0.932  -0.1968
6.39e+09  0.7375  0.5267  -0.01504  0.01656  -0.02807  0.001709  0.7973  -0.5008
6.391e+09  0.7834  0.2286  -0.01503  0.03465  0.03351  -0.04302  0.5445  -0.7238
6.392e+09  0.8623  -0.1697  -0.0007796  0.02155  0.001174  0.1101  0.3015  -0.8474
6.394e+09  0.769  -0.3851  0.01828  0.04554  0.03261  0.04123  0.02447  -0.9154
6.395e+09  0.59  -0.6764  -0.009901  -0.03438  0.0131  -0.02091  -0.3456  -0.8845
6.396e+09  0.286  -0.8358  0.02031  -0.03571  -0.04955  -0.0116  -0.5914  -0.7205
6.398e+09  0.006404  -0.8642  -0.002302  0.01733  0.03947  -0.00668  -0.8043  -0.4204
6.399e+09  -0.2873  -0.8148  0.001408  0.01293  -0.009935  -0.04373  -0.9239  -0.154
6.4e+09  -0.6144  -0.6894  -0.008816  0.03995  0.004154  -0.02411  -0.9063  0.1421
6.401e+09  -0.7888  -0.4572  -0.02071  0.0005811  0.01706  0.04272  -0.7841  0.4345
6.402e+09  -0.8638  -0.132  -0.02  0.008413  -0.02161  -0.02411  -0.6056  0.7155
6.404e+09  -0.8244  0.1699  0.04927  0.002908  0.04734  -0.03043  -0.3411  0.8937
6.405e+09  -0.7682  0.4705  0.03895  -0.01817  0.00491  -0.003285  -0.01547  0.9373
6.406e+09  -0.5173  0.708  -0.013  -0.02639  -0.0005375  0.03097  0.3255  0.8456
6.408e+09  -0.2775  0.8023  0.01528  0.02878  -0.01061  0.02784  0.6678  0.6798
6.409e+09  0.02406  0.8689  0.01235  0.001332  -0.02932  0.02395  0.8213  0.478
6.41e+09  0.3067  0.8176  0.03758  -0.01328  0.03611  0.03744  0.8967  0.132
6.411e+09  0.5983  0.6796  -0.0009961  -0.0004028  0.01768  -0.02958  0.8976  -0.177
6.412e+09  0.75  0.4328  0.01347  0.02266  0.03681  -0.006668  0.7851  -0.3911
6.414e+09  0.9119  0.1667  -0.008646  -0.03925  -0.03571  0.04402  0.5937  -0.7074
6.415e+09  0.8729  -0.2003  0.009282  -0.01278  -0.03588  -0.01207  0.31  -0.8224
6.416e+09  0.7293  -0.4744  0.02099  -0.01543  -0.01367  0.0298  0.06768  -0.9348
6.418e+09  0.4849  -0.6915  -0.02343  -0.04587  0.0221  0.008374  -0.2483  -0.8434
6.419e+09  0.2875  -0.8431  0.00238  -0.02145  -0.006054  0.01163  -0.5571  -0.6982
6.42e+09  -0.06395  -0.8474  -0.04315  -0.003438  0.01982  -0.01221  -0.7491  -0.4858
6.421e+09  -0.3598  -0.8309  -0.04834  0.007687  -0.006625  -0.006582  -0.8992  -0.2093
6.422e+09  -0.6324  -0.5928  -0.03119  -0.03682  -0.008597  0.02052  -0.857  0.1581
6.424e+09  -0.8102  -0.3825  0.01325  -0.01874  -0.01015  -0.01519  -0.7893  0.412
6.425e+09  -0.8607  -0.04812  0.02809  0.01707  -0.02329  0.05735  -0.634  0.6598
6.426e+09  -0.8955  0.2439  -0.005562  -0.001042  -0.02085  -0.05093  -0.311  0.7932
6.428e+09  -0.7411  0.5099  0.0173  0.00049  -0.008593  0.02519  -0.01959  0.8696
6.429e+09  -0.4982  0.6675  0.01353  -0.01432  0.01454  -0.01613  0.228  0.8465
6.43e+09  -0.2687  0.8591  0.008167  -0.01299  -0.003114  -0.03819  0.4972  0.6957
6.431e+09  0.05628  0.8552  0.009745  -0.06281  0.01077  0.0114  0.7141  0.5368
6.432e+09  0.3755  0.8012  -0.00444  -0.01829  -0.07161  -0.01679  0.8434  0.1944
6.434e+09  0.6264  0.5984  -0.001093  -0.01558  -0.01734  0.03927  0.873  -0.07605
6.435e+09  0.7818  0.3589  -0.007179  -0.01493  0.03963  0.008407  0.7781  -0.3298
6.436e+09  0.856  0.0604  0.03851  -0.01586  -0.0005888  -0.006785  0.6276  -0.6076
6.438e+09  0.8562  -0.2552  0.0148  0.0194  0.02684  0.004384  0.3299  -0.8271
6.439e+09  0.7419  -0.4927  0.01177  0.01559  -0.03701  0.01225  0.1225  -0.8495
6.44e+09  0.5175  -0.733  -0.02601  -0.002174  -0.02187  -0.04846  -0.1941  -0.8027
6.441e+09  0.1996  -0.8589  0.02595  -0.02794  -0.02767  0.01735  -0.4518  -0.7521
6.442e+09  -0.1043  -0.885  0.02072  -0.00916  0.01316  -0.05556  -0.7044  -0.5142
6.444e+09  -0.3712  -0.7814  -0.03928  -0.003545  -0.02194  -0.02031  -0.8013  -0.271
6.445e+09  -0.6276  -0.604  -0.01977  0.02074  0.008048  0.04785  -0.8161  0.07343
6.446e+09  -0.8005  -0.3242  -3.732e-05  0.02845  0.02823  -0.05173  -0.7874  0.3449
6.448e+09  -0.8957  -0.06371  0.007558  -0.002555  0.01236  0.0003248  -0.5592  0.6369
6.449e+09  -0.8258  0.2017  -0.04678  -0.01161  -0.00283  0.01027  -0.3507  0.7702
6.45e+09  -0.6652  0.5451  0.03478  -0.002568  -0.02183  -0.03926  -0.04491  0.8218
6.451e+09  -0.4172  0.7614  -0.008854  -0.003937  3.031e-05  -0.004794  0.2229  0.7994
6.452e+09  -0.216  0.8411  -0.003687  -0.003638  0.006419  -0.03484  0.4367  0.7064
6.454e+09  0.1139  0.8368  -0.002927  0.003574  -0.004641  0.001316  0.6924  0.4549
6.455e+09  0.3749  0.8153  0.008795  0.03215  -0.02817  -0.03875  0.8177  0.2267
6.456e+09  0.6764  0.6227  -0.01998  -0.02712  -0.01087  0.03257  0.7935  -0.065
6.458e+09  0.7821  0.3722  0.001327  0.035  -0.03906  0.0109  0.7145  -0.3653
6.459e+09  0.825  0.03649  0.01747  -0.01619  -0.05509  0.01244  0.5732  -0.6027
6.46e+09  0.8558  -0.2264  -0.01573  -0.07399  0.005539  0.007373  0.3418  -0.7668
6.461e+09  0.6659  -0.5467  0.03072  0.02746  0.05279  0.01463  0.05693  -0.8169
6.462e+09  0.5093  -0.6975  0.02832  -0.02376  0.00661  0.05955  -0.1999  -0.7965
6.464e+09  0.1839  -0.8499  0.02491  0.05632  -0.0312  -0.0006232  -0.4791  -0.6602
6.465e+09  -0.1185  -0.877  0.03238  -0.05267  0.002152  -0.04035  -0.6409  -0.4523
6.466e+09  -0.383  -0.7972  0.01271  0.0002239  -0.04874  0.01274  -0.8287  -0.2394
6.468e+09  -0.6418  -0.626  -0.005564  0.03659  -0.004727  -0.006938  -0.7887  0.03044
6.469e+09  -0.8034  -0.3471  -0.02955  0.003789  -0.0224  0.005839  -0.7497  0.368
6.47e+09  -0.8795  -0.04699  0.02131  -0.01236  0.02193  0.02512  -0.5556  0.5615
6.471e+09  -0.8546  0.3337  0.01237  -0.02914  -0.01777  0.04638  -0.3499  0.7383
6.472e+09  -0.7034  0.5268  0.04934  -0.02442  -0.02133  0.04306  -0.0262  0.798
6.474e+09  -0.4703  0.7559  -0.008695  -0.01418  0.01961  -0.04546  0.2253  0.7554
6.475e+09  -0.2171  0.8983  -0.002929  0.01697  0.008715  -0.03617  0.4766  0.6735
6.476e+09  0.1215  0.8413  -0.01127  -0.00748  0.05387  0.01282  0.6519  0.4473
6.478e+09  0.3969  0.8112  -0.01061  0.03133  -0.01382  -0.04369  0.7804  0.2458
6.479e+09  0.6331  0.575  0.0376  -0.03524  0.04886  0.04217  0.7959  -0.1024
6.48e+09  0.8337  0.2823  0.03112  -0.01855  -0.007423  0.03383  0.7497  -0.3366
6.481e+09  0.8752  0.00435  -0.001593  -0.02422  0.04109  -0.02116  0.5435  -0.5458
6.482e+09  0.7481  -0.2771  0.002933  0.01137  -0.01899  0.01381  0.2828  -0.7356
6.484e+09  0.6928  -0.5604  -0.002795  -0.0007967  0.01412  -0.02367  0.03447  -0.7815
6.485e+09  0.4469  -0.7018  0.03669  -0.02509  0.04048  -0.004814  -0.202  -0.7143
6.486e+09  0.1431  -0.8815  0.06652  -0.04934  -0.01743  0.005204  -0.454  -0.6311
6.488e+09  -0.2008  -0.9404  0.00039  -0.008016  0.02604  -0.001729  -0.6729  -0.4587
6.489e+09  -0.4622  -0.7454  0.001125  -0.006406  0.01089  -0.02979  -0.7525  -0.1724
6.49e+09  -0.6857  -0.5486  0.009602  -0.0197  -0.00979  1.469e-05  -0.7794  0.07196
6.491e+09  -0.8091  -0.3046  0.04248  0.00415  0.01313  -0.05127  -0.6526  0.3576
6.492e+09  -0.9278  0.01397  0.01526  0.006054  -0.03259  -0.04413  -0.5063  0.5685
6.494e+09  -0.8208  0.3548  0.02172  -0.002074  -0.01069  -0.006575  -0.323  0.6999
6.495e+09  -0.7306  0.5417  -0.0394  0.02606  0.02816  -0.03161  -0.04415  0.7955
6.496e+09  -0.4415  0.7598  0.02724  -0.003054  -0.008327  -0.0002963  0.2238  0.7837
6.498e+09  -0.1449  0.906  -0.006675  0.02562  0.009341  -0.06863  0.4638  0.6202
6.499e+09  0.1566  0.8807  -0.02154  -0.02724  0.02806  0.03871  0.6821  0.4105
6.5e+09  0.5291  0.8436  0.027  -0.01296  -0.02446  0.01143  0.7854  0.1676
6.501e+09  0.7062  0.5625  0.01015  0.02416  0.03082  -0.009786  0.7804  -0.133
6.502e+09  0.8198  0.2799  -0.0001227  0.01936  0.03333  0.007651  0.6661  -0.3148
6.504e+09  0.9357  -0.0001585  0.01175  -0.02553  0.003551  0.01338  0.5231  -0.5426
6.505e+09  0.7907  -0.3167  -0.01225  0.007087  0.008349  0.03634  0.2859  -0.7276
6.506e+09  0.6617  -0.6027  0.04603  0.01553  0.006497  -0.03644  0.01863  -0.7543
6.508e+09  0.443  -0.8187  -0.02558  -0.01412  -0.0342  0.02774  -0.2322  -0.7117
6.509e+09  0.1214  -0.9286  0.009693  -0.02508  0.008111  0.02089  -0.4358  -0.602
6.51e+09  -0.1961  -0.9162  -0.02154  0.02727  0.01786  0.02898  -0.6618  -0.3628
6.511e+09  -0.5205  -0.8046  0.01896  0.03429  0.02236  -0.009128  -0.7289  -0.1386
6.512e+09  -0.7384  -0.5631  0.02206  0.01403  -0.05117  -0.01089  -0.7621  0.1514
6.514e+09  -0.9241  -0.2861  -0.01285  -0.01386  -0.03729  -0.04332  -0.6512  0.3633
6.515e+09  -0.8966  0.03713  0.00233  -0.01288  0.004955  -0.01674  -0.4656  0.5805
6.516e+09  -0.8103  0.2876  -0.00416  0.0123  0.02526  0.001203  -0.2493  0.6958
6.518e+09  -0.6737  0.6448  0.00389  -0.02075  0.03272  -0.0078  -0.03255  0.7354
6.519e+09  -0.4638  0.8333  -0.0163  0.009249  0.03134  0.02656  0.2529  0.6956
6.52e+09  -0.1291  0.9894  0.0215  -0.02083  0.003884  0.02362  0.5049  0.5604
6.521e+09  0.216  0.9314  -0.004859  0.004291  0.05435  0.01931  0.6373  0.3847
6.522e+09  0.5344  0.8048  0.03286  0.009872  0.02237  -0.009075  0.7519  0.07483
6.524e+09  0.7429  0.5811  -0.02051  0.01172  -0.04738  -0.03405  0.712  -0.1725
6.525e+09  0.907  0.2679  0.003487  0.01597  0.008095  -0.04389  0.6077  -0.4172
6.526e+09  0.9293  -0.1047  -0.01027  -0.01829  0.01125  -0.01578  0.4008  -0.5758
6.528e+09  0.8954  -0.4222  0.01736  -0.0009434  0.005724  -0.02092  0.2094  -0.7017
6.529e+09  0.7083  -0.6817  -0.01975  -0.01035  -0.01082  -0.03251  -0.08012  -0.68
6.53e+09  0.4483  -0.8572  0.005861  0.03318  -0.02561  0.06591  -0.2893  -0.6548
6.531e+09  0.02538  -0.9625  -0.0214  -0.01398  -0.01603  0.01267  -0.4816  -0.4563
6.532e+09  -0.3056  -0.9595  -0.04621  0.01514  0.02172  0.01993  -0.5836  -0.3214
6.534e+09  -0.5842  -0.7961  -0.05131  -0.02546  -0.007022  -0.004026  -0.6395  -0.08337
6.535e+09  -0.8474  -0.478  0.02207  0.0127  -0.05818  -0.01798  -0.624  0.1034
6.536e+09  -0.953  -0.2112  0.01304  0.0002562  -0.01215  0.06297  -0.5772  0.2831
6.538e+09  -0.9525  0.1532  -0.02074  0.006332  -0.02413  -0.002145  -0.4746  0.4558
6.539e+09  -0.8775  0.4853  0.01137  0.01368  -0.005725  0.02596  -0.2535  0.5933
6.54e+09  -0.6598  0.7842  -0.005752  0.01516  0.01777  0.01934  -0.108  0.7006
6.541e+09  -0.3646  0.9254  0.003501  0.007623  0.01489  0.007194  0.1769  0.6917
6.542e+09  -0.0107  1.014  0.01912  -0.02185  -0.0434  -0.06449  0.3736  0.6087
6.544e+09  0.3423  0.9157  0.004144  0.01519  -0.04064  0.04059  0.6042  0.3814
6.545e+09  0.6089  0.7217  0.02002  0.002798  -0.014  0.07908  0.7194  0.1696
6.546e+09  0.8615  0.4637  0.004358  -0.01906  0.03134  -0.01308  0.7471  -0.09733
6.548e+09  1.01  0.1405  -0.01124  0.03359  0.004013  -0.02819  0.6629  -0.3427
6.549e+09  0.9327  -0.2389  0.001542  0.004597  -0.05746  0.01949  0.5162  -0.5851
6.55e+09  0.8547  -0.5641  -0.004851  -0.01681  0.02646  0.01736  0.292  -0.6951
6.551e+09  0.5697  -0.8022  0.01361  0.02089  -0.001488  0.01225  0.06058  -0.7468
