# Hz S RI R 50
6.25e+09  0.7964  0.2137  -0.009149  -0.01322  0.02803  0.06138  0.1482  0.456
6.251e+09  0.8383  -0.03997  0.01101  0.004853  0.02562  -0.02758  0.3716  0.4141
6.252e+09  0.7248  -0.4145  0.04302  0.006644  -0.006507  -0.03335  0.5306  0.2546
6.254e+09  0.5496  -0.6552  -0.007704  0.004149  -0.0227  -0.01484  0.6108  0.01814
6.255e+09  0.2838  -0.7716  0.02096  0.03972  -0.0238  -0.02118  0.5868  -0.2534
6.256e+09  -0.01253  -0.8522  -0.02521  -0.006932  0.0218  -0.01373  0.4862  -0.4737
6.258e+09  -0.2836  -0.7836  -0.009433  -0.002922  -0.005864  0.00957  0.2666  -0.5824
6.259e+09  -0.5734  -0.6411  0.01445  -0.01706  0.02836  0.01227  0.06478  -0.6825
6.26e+09  -0.8007  -0.3589  -0.02553  -0.0002846  -0.05144  0.01848  -0.2093  -0.6437
6.261e+09  -0.8001  -0.07873  0.03013  0.007032  0.03112  -0.02498  -0.4352  -0.5252
6.262e+09  -0.8044  0.2211  -0.03488  -0.01526  0.0575  0.04299  -0.6053  -0.3679
6.264e+09  -0.6551  0.4368  -0.01745  -0.005199  0.01727  0.1007  -0.7406  -0.1021
6.265e+09  -0.4516  0.6521  0.03284  0.01082  0.03514  -0.02806  -0.7324  0.1417
6.266e+09  -0.1768  0.7794  0.01563  -0.02838  0.04931  0.004536  -0.6001  0.4302
6.268e+09  0.1445  0.7777  -0.00531  0.01144  -0.0385  0.005131  -0.4009  0.5812
6.269e+09  0.3848  0.7062  -0.01918  0.001221  0.008285  -0.0265  -0.203  0.685
6.27e+09  0.617  0.5245  -0.0107  -0.01015  -0.02656  -0.01913  0.09166  0.7427
6.271e+09  0.8064  0.234  -0.003826  0.0285  0.01262  0.04132  0.3333  0.6991
6.272e+09  0.8309  -0.04832  -0.01403  0.01174  0.03894  -0.04634  0.5147  0.5048
6.274e+09  0.7379  -0.2976  0.007456  0.0328  -0.002804  -0.01202  0.6692  0.2871
6.275e+09  0.6203  -0.5864  -0.001848  0.01534  -0.06756  0.02995  0.7283  0.002133
6.276e+09  0.3481  -0.7047  0.009975  -0.01184  -0.01343  0.012  0.745  -0.241
6.278e+09  0.07994  -0.8539  0.008131  -0.03049  0.006008  0.01323  0.6276  -0.4578
6.279e+09  -0.2293  -0.7548  -0.003037  0.0009719  0.007542  -0.03147  0.4118  -0.6707
6.28e+09  -0.4442  -0.6353  -0.005383  0.01015  -0.009597  0.01441  0.1724  -0.789
6.281e+09  -0.6957  -0.418  0.003947  0.0102  -0.02037  -0.02641  -0.1153  -0.7438
6.282e+09  -0.7604  -0.1808  0.0003151  0.02247  0.03975  0.02548  -0.3566  -0.7209
6.284e+09  -0.7755  0.1564  0.004336  0.02224  -0.01925  0.02884  -0.5927  -0.5368
6.285e+09  -0.6845  0.4041  -0.01139  -0.01856  0.01205  0.03217  -0.7292  -0.2899
6.286e+09  -0.5299  0.6427  0.008842  -0.005058  0.02329  0.03402  -0.8237  0.01214
6.288e+09  -0.2928  0.7773  -0.02424  -0.01471  0.04101  -0.03529  -0.7629  0.2646
6.289e+09  -0.035  0.8086  0.0009534  0.01595  -0.01469  0.05725  -0.6329  0.514
6.29e+09  0.284  0.7725  -0.01164  0.00109  -0.008735  0.05341  -0.4132  0.7211
6.291e+09  0.5387  0.5878  -0.004999  0.01001  -0.01747  0.004639  -0.1645  0.8098
6.292e+09  0.7515  0.3525  -0.02212  0.003284  -0.009388  0.0008277  0.1112  0.7945
6.294e+09  0.8215  0.05089  -0.007875  0.01246  0.009809  0.01066  0.4308  0.742
6.295e+09  0.7644  -0.2373  -0.001253  0.008897  0.01462  0.01093  0.591  0.535
6.296e+09  0.657  -0.4713  -0.01246  -0.02767  -0.0292  -0.0195  0.7754  0.3023
6.298e+09  0.4365  -0.703  0.02422  -0.00417  -0.06134  -0.02681  0.8065  0.00789
6.299e+09  0.1429  -0.7928  0.0004438  0.001115  -0.03623  -0.07463  0.8264  -0.2584
6.3e+09  -0.1348  -0.7753  -0.01117  -0.001027  0.04074  -0.04458  0.6397  -0.523
6.301e+09  -0.3842  -0.739  0.01492  -0.0101  0.01291  -0.004409  0.4496  -0.7158
6.302e+09  -0.653  -0.5446  -0.01076  -0.01938  -0.05107  -0.0223  0.1597  -0.8321
6.304e+09  -0.8274  -0.3194  0.007769  0.009897  -0.01716  0.02217  -0.1491  -0.8153
6.305e+09  -0.8504  -0.001343  0.03936  -0.01136  -0.0158  -0.01689  -0.4029  -0.7555
6.306e+09  -0.7813  0.3071  -0.01721  4.821e-05  0.01109  0.0004265  -0.6897  -0.5768
6.308e+09  -0.5762  0.5366  0.009026  0.01029  -0.005658  -0.003422  -0.7869  -0.2723
6.309e+09  -0.3156  0.7294  0.02203  0.006564  -0.006767  0.02372  -0.8655  -0.04995
6.31e+09  -0.0588  0.8471  -0.006992  0.006659  -0.03258  -0.02011  -0.8276  0.2611
6.311e+09  0.2521  0.7898  0.01477  -0.01242  -0.002702  0.002013  -0.6618  0.5395
6.312e+09  0.5325  0.6755  0.004801  0.02968  0.005332  0.02195  -0.4267  0.7807
6.314e+09  0.6816  0.4461  -0.0234  -0.01823  -0.02538  0.01407  -0.1649  0.8727
6.315e+09  0.7772  0.1799  0.00788  -0.002194  0.00686  -0.01652  0.1163  0.8774
6.316e+09  0.8495  -0.1141  -0.004289  -0.001182  -0.02411  -0.00861  0.4441  0.7975
6.318e+09  0.7002  -0.3677  0.01908  0.004931  -0.01421  -0.03441  0.6683  0.5837
6.319e+09  0.5932  -0.6308  -0.02204  -0.009  -0.001127  -0.0004401  0.8255  0.3085
6.32e+09  0.262  -0.7569  0.01425  -0.01068  0.007623  -0.04618  0.8907  0.00295
6.321e+09  -0.04756  -0.8281  0.002093  -0.02508  -0.0201  -0.02735  0.8456  -0.2541
6.322e+09  -0.3415  -0.7593  0.00154  0.005556  0.03211  -0.01522  0.6904  -0.514
6.324e+09  -0.548  -0.5679  -0.004905  -0.02265  0.04181  0.04427  0.4493  -0.7557
6.325e+09  -0.7205  -0.3666  0.001609  -0.01205  -0.02824  0.06637  0.2022  -0.8722
6.326e+09  -0.8276  -0.1072  -0.005024  -0.0009443  0.0262  0.05188  -0.1248  -0.8779
6.328e+09  -0.7669  0.2245  -0.01037  0.001564  0.02833  -0.01527  -0.4038  -0.7661
6.329e+09  -0.645  0.5062  0.04521  0.01772  0.02557  -0.01365  -0.6661  -0.6013
6.33e+09  -0.4615  0.7458  -0.02439  -0.02067  -0.01186  -0.02409  -0.8222  -0.3305
6.331e+09  -0.2043  0.8357  0.01577  -0.01297  -0.03905  0.003358  -0.914  -0.004179
6.332e+09  0.1813  0.8296  0.02991  0.00135  0.02321  0.008927  -0.8569  0.2608
6.334e+09  0.4425  0.6979  0.03408  -0.02196  0.01119  0.03501  -0.7341  0.5551
6.335e+09  0.6545  0.5396  0.01723  -0.01889  0.04061  -0.01199  -0.4708  0.7846
6.336e+09  0.7984  0.2317  0.01432  -0.03144  -0.004801  0.02665  -0.2029  0.8562
6.338e+09  0.8724  -0.08128  0.01583  0.008366  0.009316  -0.02933  0.1326  0.9044
6.339e+09  0.7409  -0.3666  -0.0289  0.02514  -0.002564  -0.07848  0.4002  0.7949
6.34e+09  0.5853  -0.6207  -0.01467  -0.004887  0.04244  -0.04552  0.6964  0.6257
6.341e+09  0.3391  -0.7765  -0.02003  0.01519  -0.009563  0.009117  0.8417  0.3652
6.342e+09  0.05267  -0.8601  -0.005348  -0.008509  0.0007861  0.01801  0.9199  0.0487
6.344e+09  -0.2473  -0.8584  -0.01012  -0.006574  0.03968  0.02407  0.918  -0.268
6.345e+09  -0.4732  -0.6662  -0.007237  -0.001639  0.03712  0.01235  0.7237  -0.5398
6.346e+09  -0.7301  -0.4149  0.02242  0.03251  0.003851  0.03566  0.5156  -0.7889
6.348e+09  -0.8813  -0.1978  0.02332  -0.02061  -0.04808  0.01957  0.2364  -0.907
6.349e+09  -0.8191  0.1324  -0.001705  0.0153  0.02258  -0.02506  -0.1075  -0.9435
6.35e+09  -0.7377  0.4559  0.0004864  0.03391  0.01722  -0.02319  -0.4014  -0.813
6.351e+09  -0.4696  0.6648  -0.05134  -0.007417  0.0305  -0.01286  -0.6637  -0.6413
6.352e+09  -0.2503  0.785  0.005194  -0.00939  0.0001104  0.005398  -0.8704  -0.3797
6.354e+09  0.06952  0.8616  0.00219  0.02805  0.03652  -0.02052  -0.9385  -0.07402
6.355e+09  0.3429  0.7711  0.01905  -0.01725  0.001005  0.0006427  -0.8937  0.2352
6.356e+09  0.6901  0.612  0.024  0.003962  -0.01188  0.03782  -0.7365  0.5635
6.358e+09  0.7512  0.3552  0.02278  0.02876  0.01879  0.02141  -0.5242  0.7765
6.359e+09  0.8443  0.04939  0.00176  0.01132  0.03007  -0.02994  -0.2097  0.9492
6.36e+09  0.8147  -0.2599  0.02724  -0.02229  -0.02452  -0.05531  0.089  0.9496
6.361e+09  0.6575  -0.5391  -0.002478  -0.003985  0.009098  0.04874  0.4181  0.8048
6.362e+09  0.4445  -0.6803  0.007202  -0.007736  0.02124  -0.02429  0.6771  0.6538
6.364e+09  0.1827  -0.8  -0.03317  -0.01327  -0.0153  0.004719  0.8527  0.385
6.365e+09  -0.1361  -0.8079  0.03677  -0.0154  0.06274  0.01333  0.9392  0.08824
6.366e+09  -0.4409  -0.7098  0.001018  -0.006391  0.03898  0.02642  0.9219  -0.2647
6.368e+09  -0.6558  -0.4736  -0.009219  -0.02513  0.007419  -0.01565  0.7644  -0.5626
6.369e+09  -0.7809  -0.2523  -0.0178  -0.006982  -0.001132  0.02317  0.5328  -0.7829
6.37e+09  -0.8737  0.09893  -0.0006133  0.01492  0.03895  -0.02598  0.2414  -0.8953
6.371e+09  -0.719  0.3961  0.01447  0.02265  -0.006469  -0.00831  -0.06903  -0.9246
6.372e+09  -0.5803  0.6449  -0.01814  0.02144  -0.05431  0.01848  -0.413  -0.8704
6.374e+09  -0.3022  0.7676  -0.02244  -0.04679  -0.01098  -0.02159  -0.6649  -0.7087
6.375e+09  -0.04833  0.8683  0.02675  0.01353  0.01654  -0.03993  -0.8347  -0.3977
6.376e+09  0.2601  0.7526  0.004163  0.03378  0.006162  0.003863  -0.9326  -0.1049
6.378e+09  0.5677  0.6443  -0.0251  -0.04783  0.02208  -0.0452  -0.9456  0.231
6.379e+09  0.7223  0.3901  -0.005835  -0.03102  0.03121  0.007669  -0.7987  0.5509
6.38e+09  0.8075  0.07722  0.03976  -0.03119  -0.03779  -0.003499  -0.5853  0.7999
6.381e+09  0.8653  -0.2247  -0.02186  0.02015  0.01046  -0.006981  -0.2714  0.9131
6.382e+09  0.7057  -0.4847  -0.005798  -0.01822  0.01953  -0.02203  0.09662  0.9662
6.384e+09  0.4541  -0.665  0.05936  -0.03859  0.04645  0.01273  0.3727  0.8301
6.385e+09  0.2048  -0.8253  -0.006851  -0.01243  -0.007921  0.04274  0.6683  0.6562
6.386e+09  -0.1084  -0.837  0.02409  -0.006712  -0.001549  0.01473  0.833  0.434
6.388e+09  -0.4348  -0.7122  0.01841  0.00184  0.02429  0.001313  0.9039  0.09845
6.389e+09  -0.6569  -0.5103  -0.002701  -0.007284  0.02393  -0.0326  0.9306  -0.1965
6.39e+09  -0.8249  -0.2874  0.01055  -0.02287  0.04217  0.02259  0.7766  -0.5449
6.391e+09  -0.8737  0.01096  0.03455  0.07001  -0.03117  0.01376  0.5713  -0.702
6.392e+09  -0.7965  0.2904  -0.00995  -0.03742  -0.002177  -0.05949  0.2724  -0.8925
6.394e+09  -0.6448  0.6343  0.00328  -0.002619  0.009415  -0.006715  -0.05325  -0.9121
6.395e+09  -0.3425  0.779  9.511e-05  -0.006813  0.01833  -0.008467  -0.3555  -0.8787
6.396e+09  -0.0791  0.8841  -0.01863  0.009159  -0.005258  0.0426  -0.6077  -0.7027
6.398e+09  0.2575  0.7999  0.002735  0.04786  -0.006899  -0.005336  -0.7676  -0.4409
6.399e+09  0.5447  0.6817  -0.005669  0.000596  0.005019  0.02716  -0.9091  -0.1689
6.4e+09  0.7567  0.4089  -0.02362  -0.006288  0.02457  0.007541  -0.8855  0.1688
6.401e+09  0.8223  0.1525  -0.0148  -0.007922  0.0002629  -0.01245  -0.8019  0.4892
6.402e+09  0.8092  -0.2085  0.002356  -0.02936  0.02112  0.06363  -0.5784  0.7035
6.404e+09  0.7278  -0.514  0.01384  0.004658  -0.001959  0.01919  -0.379  0.8662
6.405e+09  0.4882  -0.7079  0.02177  0.03765  0.02523  -0.002473  0.002684  0.9091
6.406e+09  0.199  -0.7983  0.01145  -0.01106  0.005723  0.01417  0.3205  0.8767
6.408e+09  -0.0623  -0.851  -0.0265  -0.01679  -0.007011  0.002067  0.5772  0.7069
6.409e+09  -0.3509  -0.7845  -0.02621  -0.03624  0.01449  0.01235  0.7516  0.4813
6.41e+09  -0.6495  -0.5541  -0.01641  -2.338e-05  -0.02464  -0.03296  0.8794  0.1428
6.411e+09  -0.8032  -0.2939  2.111e-05  -0.02554  0.02659  -0.02284  0.9116  -0.2152
6.412e+09  -0.8936  0.01995  0.006687  -0.003672  -0.02066  -0.008095  0.8327  -0.4207
6.414e+09  -0.7756  0.3508  -0.003233  0.006199  0.02563  0.02029  0.6349  -0.6827
6.415e+09  -0.598  0.5957  -0.02225  -0.0175  -0.01395  0.0557  0.3349  -0.8703
6.416e+09  -0.3577  0.7387  -0.02257  0.01602  -0.01509  0.03462  0.06325  -0.9114
6.418e+09  0.02247  0.8803  0.03394  0.01134  -0.008085  0.02411  -0.2724  -0.8486
6.419e+09  0.3198  0.8251  0.007739  -0.002137  0.00634  0.003786  -0.5615  -0.7553
6.42e+09  0.5434  0.6657  0.01343  0.02185  0.05906  0.02219  -0.7219  -0.4487
6.421e+09  0.7525  0.4057  -0.02271  0.03421  0.01337  0.00787  -0.8584  -0.1965
6.422e+09  0.8081  0.08692  0.006835  -0.0397  0.02929  0.00174  -0.8817  0.1177
6.424e+09  0.8187  -0.2154  0.01203  -0.01511  0.02117  0.009427  -0.8084  0.4021
6.425e+09  0.6994  -0.5036  0.04005  -0.001593  -0.007471  -0.02688  -0.5734  0.6311
6.426e+09  0.5114  -0.7127  0.0003628  0.02965  -0.007859  -0.008698  -0.352  0.8069
6.428e+09  0.1584  -0.858  0.06408  0.03021  -0.02256  -0.01078  -0.07239  0.853
6.429e+09  -0.129  -0.8387  -0.02468  0.006559  -0.009846  -0.02002  0.2941  0.8446
6.43e+09  -0.4623  -0.725  -0.0216  0.01038  0.02214  -0.03578  0.5207  0.6823
6.431e+09  -0.6717  -0.544  0.01894  -0.0008354  -0.01707  -0.01545  0.703  0.5322
6.432e+09  -0.8172  -0.2352  0.02609  -0.02299  -0.01319  0.006725  0.8695  0.2226
6.434e+09  -0.8143  0.09358  -0.02944  0.005594  -0.006726  -0.01225  0.876  -0.06586
6.435e+09  -0.7282  0.4347  0.03748  0.01151  0.02758  0.0548  0.7589  -0.3803
6.436e+09  -0.5812  0.6272  0.02228  -0.03663  0.002867  0.007862  0.6259  -0.6148
6.438e+09  -0.2526  0.7851  0.003588  0.01083  -0.02969  0.02004  0.3212  -0.7902
6.439e+09  0.08336  0.8459  0.003395  -0.06148  -0.004943  0.006695  0.03215  -0.8443
6.44e+09  0.3422  0.7648  0.02015  -0.01538  -0.02795  -0.02013  -0.2466  -0.8259
6.441e+09  0.6388  0.5651  0.02578  -0.002135  -0.02225  -0.02454  -0.4907  -0.714
6.442e+09  0.7424  0.3276  0.006283  0.06083  0.0154  0.02519  -0.6781  -0.5216
6.444e+09  0.8406  0.09301  0.02618  0.002895  0.007612  -0.02305  -0.8434  -0.1853
6.445e+09  0.7742  -0.3049  -0.0131  0.03326  0.004292  -0.01477  -0.8263  0.0882
6.446e+09  0.6084  -0.5796  -0.01469  -0.02931  -0.02016  0.006034  -0.7185  0.3898
6.448e+09  0.3505  -0.7622  0.01337  -0.009423  0.03034  0.1006  -0.5814  0.5842
6.449e+09  0.08882  -0.785  -0.03908  -0.008245  0.015  0.03174  -0.3466  0.7687
6.45e+09  -0.1952  -0.7996  0.03298  -0.01167  0.04487  0.004041  -0.04218  0.8432
6.451e+09  -0.4805  -0.6883  -0.01634  0.01585  -0.01369  -0.002322  0.2262  0.823
6.452e+09  -0.7018  -0.4596  -0.03979  -0.0539  0.004179  -0.03873  0.4587  0.701
6.454e+09  -0.8006  -0.169  -0.01228  -0.03347  -0.06538  -0.05203  0.6551  0.4987
6.455e+09  -0.7815  0.1196  0.001324  0.01484  0.01551  -0.01166  0.8234  0.1896
6.456e+09  -0.7076  0.373  -0.001856  0.0244  -0.04939  -0.0008354  0.8074  -0.07444
6.458e+09  -0.4798  0.6313  -0.001744  -0.04908  -0.01031  0.007783  0.7237  -0.3669
6.459e+09  -0.2022  0.7917  -0.01403  -0.02472  -0.05817  -0.0005203  0.6155  -0.5976
6.46e+09  0.03529  0.8062  0.02326  0.03435  0.03322  -0.02699  0.3378  -0.6882
6.461e+09  0.3746  0.7482  -0.002935  0.002597  0.03175  -0.01761  0.08638  -0.8063
6.462e+09  0.5669  0.5803  -0.06745  -0.05342  -0.02501  -0.03312  -0.2161  -0.8068
6.464e+09  0.8234  0.3764  0.003286  -0.009945  0.01489  0.007315  -0.45  -0.6873
6.465e+09  0.7697  0.04984  -0.0357  -0.005586  -0.009687  0.03482  -0.6802  -0.4859
6.466e+09  0.7425  -0.2743  0.02193  0.02292  0.01494  -0.00973  -0.775  -0.1779
6.468e+09  0.5837  -0.5176  0.03678  -0.02513  0.06259  0.01013  -0.815  0.07219
6.469e+09  0.3856  -0.719  0.007238  -0.01079  -0.003967  0.002461  -0.7411  0.3525
6.47e+09  0.0764  -0.759  0.002716  -0.005443  0.01809  -0.007269  -0.5728  0.5714
6.471e+09  -0.18  -0.7444  0.01618  0.01176  -0.01719  -0.03348  -0.2824  0.8029
6.472e+09  -0.3953  -0.6591  0.05235  -0.02644  -0.001396  -0.01568  -0.01787  0.739
6.474e+09  -0.6621  -0.4597  -0.01585  0.01712  0.02054  -0.03538  0.1602  0.7888
6.475e+09  -0.7585  -0.1823  0.0003476  -0.009336  0.02299  -0.01047  0.4643  0.5946
6.476e+09  -0.8025  0.05688  0.0279  0.003345  -0.03107  0.0451  0.6519  0.421
6.478e+09  -0.7554  0.3526  -0.01933  0.004711  0.01953  0.01287  0.799  0.1961
6.479e+09  -0.6026  0.5461  0.01638  0.02442  -0.03647  0.05021  0.7434  -0.08169
6.48e+09  -0.2798  0.7011  0.01495  0.03586  -0.0183  -0.0008128  0.6858  -0.3438
6.481e+09  0.00693  0.7381  -0.02026  -0.02519  -0.002411  -0.01229  0.5461  -0.5171
6.482e+09  0.2386  0.6898  0.02535  0.01696  -0.0035  -0.01112  0.3008  -0.7242
6.484e+09  0.4954  0.614  -0.02312  0.05687  0.001705  0.01506  0.0707  -0.7918
6.485e+09  0.6697  0.3482  -0.005008  -0.01091  -0.01554  -0.01275  -0.2227  -0.7789
6.486e+09  0.7189  0.1334  -0.02106  0.03823  -0.01915  -0.02133  -0.428  -0.657
6.488e+09  0.754  -0.1955  0.01854  0.01454  -0.0245  0.00754  -0.6292  -0.4504
6.489e+09  0.6603  -0.4587  -0.03579  -0.06088  0.009705  -0.007145  -0.6863  -0.1837
6.49e+09  0.4179  -0.5943  -0.02302  0.01189  0.003935  -0.01469  -0.7487  0.101
6.491e+09  0.1691  -0.7775  0.04653  -0.02192  -0.00385  0.02206  -0.6883  0.3692
6.492e+09  -0.1072  -0.8064  -0.03893  0.009976  0.04043  -0.01881  -0.5222  0.57
6.494e+09  -0.3066  -0.7256  0.03127  -0.01013  0.01448  -0.03019  -0.2911  0.7163
6.495e+09  -0.5732  -0.5395  -0.001816  -0.01046  0.02865  0.05329  -0.04406  0.7719
6.496e+09  -0.6803  -0.2862  -0.06385  0.05133  -0.004882  0.02553  0.2539  0.7755
6.498e+09  -0.7053  0.02097  -0.007386  -0.01203  0.01315  -0.04427  0.4871  0.6167
6.499e+09  -0.7279  0.2919  -0.007351  -0.006906  -0.03181  0.02444  0.6433  0.4434
6.5e+09  -0.5553  0.5298  -0.001159  0.008096  0.01758  0.04993  0.7389  0.1888
6.501e+09  -0.3965  0.7101  0.03382  -0.004004  0.04319  -0.01973  0.7438  -0.0957
6.502e+09  -0.1573  0.729  0.007811  0.004236  -0.03967  0.0194  0.6608  -0.3555
6.504e+09  0.1404  0.7501  -0.06265  -0.01085  0.005815  0.03997  0.5401  -0.5747
6.505e+09  0.4106  0.6019  0.02114  -0.01007  -0.01919  -0.02075  0.2765  -0.6937
6.506e+09  0.688  0.4763  0.006274  -0.01255  0.03275  0.07816  0.0273  -0.7995
6.508e+09  0.7544  0.1993  0.009528  -0.02154  0.01718  0.04107  -0.2401  -0.7271
6.509e+09  0.7631  -0.0295  0.004652  0.001733  -0.000821  0.02602  -0.5107  -0.5805
6.51e+09  0.695  -0.3148  0.01644  -0.006563  0.01794  0.001885  -0.6299  -0.3813
6.511e+09  0.5674  -0.531  0.01012  0.04601  0.03327  0.02586  -0.7116  -0.1038
6.512e+09  0.3255  -0.7317  0.009521  0.006937  -0.03397  0.0142  -0.7386  0.1634
6.514e+09  0.09343  -0.7957  -0.02004  -0.02498  0.02637  0.04501  -0.6597  0.393
6.515e+09  -0.2063  -0.8141  0.03188  0.007964  -0.001578  -0.02901  -0.4852  0.5602
6.516e+09  -0.4602  -0.6221  0.01229  -0.009348  0.003593  -0.02839  -0.2442  0.7215
6.518e+09  -0.6677  -0.4433  0.06131  -0.01131  -0.006791  0.04417  0.01279  0.7497
6.519e+09  -0.7963  -0.1849  -0.01294  -0.01381  0.02546  0.05386  0.2406  0.6807
6.52e+09  -0.8138  0.09622  0.02372  -0.006083  -0.01571  0.02159  0.4871  0.5293
6.521e+09  -0.695  0.3934  -0.04562  -0.02008  -0.01696  -0.06082  0.6541  0.3562
6.522e+09  -0.5168  0.6128  0.01692  0.007461  0.01399  -0.001785  0.7415  0.1207
6.524e+09  -0.2736  0.7893  -0.02907  -0.01604  0.006039  -0.02398  0.7407  -0.1547
6.525e+09  0.02978  0.7712  -0.01106  0.004047  -0.02332  0.008958  0.568  -0.4053
6.526e+09  0.3325  0.7922  0.003  -0.0006033  -0.009279  0.04423  0.4158  -0.5857
6.528e+09  0.5164  0.6047  0.005737  -0.01213  0.00141  -0.06292  0.1825  -0.7001
6.529e+09  0.7015  0.3687  0.01248  0.006719  -0.0123  0.005314  -0.1002  -0.7043
6.53e+09  0.8599  0.1377  0.02668  -0.02834  0.01977  -0.02744  -0.2746  -0.6345
6.531e+09  0.8188  -0.178  -0.02129  -0.01509  0.008037  0.035  -0.4483  -0.4703
6.532e+09  0.6677  -0.4612  -0.002559  0.01827  -0.004283  0.01447  -0.5935  -0.2945
6.534e+09  0.448  -0.6534  -0.02962  -0.03848  0.06436  -0.01225  -0.6463  -0.08549
6.535e+09  0.2097  -0.8163  0.006106  0.01228  -0.02545  0.03975  -0.614  0.1393
6.536e+09  -0.03093  -0.8626  0.01709  -0.00663  -0.007842  0.05986  -0.568  0.3103
6.538e+09  -0.3869  -0.7912  -0.009422  0.04565  0.009311  0.03668  -0.4641  0.4851
6.539e+09  -0.6358  -0.5718  0.01143  -0.003793  -0.01457  -0.02318  -0.2989  0.5834
6.54e+09  -0.7692  -0.3719  -0.01255  0.02143  0.08643  -0.003136  -0.04831  0.658
6.541e+09  -0.864  -0.02195  -0.03011  0.009458  -0.04387  0.04569  0.1933  0.6856
6.542e+09  -0.829  0.309  0.009351  -0.002724  0.06623  -0.001352  0.4074  0.5977
6.544e+09  -0.6637  0.5056  -0.004402  0.0338  0.04506  0.009285  0.6012  0.3961
6.545e+09  -0.4629  0.7278  0.02567  0.02077  -0.02085  0.01219  0.6853  0.1876
6.546e+09  -0.1931  0.8456  -0.01727  -0.01853  0.04006  -0.01187  0.7305  -0.04058
6.548e+09  0.1947  0.8238  0.01035  -0.001281  0.03497  -0.04344  0.6544  -0.3394
6.549e+09  0.4616  0.7475  0.008322  0.008104  0.08678  0.008642  0.5184  -0.5673
6.55e+09  0.6536  0.494  0.01183  -0.007947  -0.0611  0.03194  0.2627  -0.6905
