# Hz S RI R 50
6.25e+09  -0.4693  0.805  0.004333  -0.0198  -0.002578  0.03887  0.1806  0.51
6.251e+09  -0.08707  0.7825  0.002406  0.01957  -0.02029  0.01583  0.3656  0.441
6.252e+09  0.1075  0.8446  -0.01023  -0.002092  0.04929  -0.02448  0.5189  0.2509
6.254e+09  0.4002  0.725  -0.03909  0.006038  0.04566  -0.04167  0.6152  0.02047
6.255e+09  0.6861  0.5865  -0.03612  0.03261  0.03878  -0.02507  0.5875  -0.2278
6.256e+09  0.8202  0.2178  -0.02107  0.01603  0.05844  -0.02622  0.4784  -0.4479
6.258e+09  0.8681  -0.01366  -0.028  -0.003025  -0.009209  -0.0309  0.2996  -0.6058
6.259e+09  0.7491  -0.2776  -0.009623  0.01143  0.01523  -0.01885  0.03791  -0.6974
6.26e+09  0.623  -0.5852  -0.003742  -0.002704  0.001866  0.007478  -0.2137  -0.6431
6.261e+09  0.3521  -0.801  -0.02787  0.003388  -0.01808  -0.04493  -0.4384  -0.5426
6.262e+09  0.1006  -0.8335  -0.01363  -0.0123  -0.001782  -0.01516  -0.6115  -0.3547
6.264e+09  -0.122  -0.8038  0.004104  -0.009577  0.008407  0.01188  -0.7101  -0.1123
6.265e+09  -0.4145  -0.6986  -0.02204  -0.0296  0.03689  0.01706  -0.686  0.1542
6.266e+09  -0.6603  -0.4847  -0.03145  0.006889  -0.02356  0.003515  -0.6117  0.3584
6.268e+09  -0.7993  -0.1843  -0.002161  0.0167  -0.04216  0.03214  -0.4229  0.6261
6.269e+09  -0.7932  0.03899  -0.02369  -0.0157  -0.003318  0.002379  -0.1994  0.7301
6.27e+09  -0.7461  0.2737  0.02447  0.02341  -0.01377  0.01417  0.0622  0.7645
6.271e+09  -0.6418  0.5153  0.01758  -0.02873  0.008457  0.0276  0.32  0.6899
6.272e+09  -0.368  0.7062  -0.01543  -0.00552  -0.02842  -0.02411  0.5732  0.5132
6.274e+09  -0.09394  0.7995  -0.01486  0.03001  -0.004665  0.03033  0.6852  0.2977
6.275e+09  0.2023  0.8442  -0.01481  0.01515  0.01676  -0.0001351  0.7671  0.02858
6.276e+09  0.4708  0.6779  -0.006109  -0.0008822  0.06829  0.01508  0.7528  -0.2171
6.278e+09  0.6496  0.525  0.02541  -0.002506  0.02939  -0.01487  0.5967  -0.4766
6.279e+09  0.7609  0.2858  0.0004451  0.02015  -0.02816  0.03633  0.4308  -0.673
6.28e+09  0.8482  -0.0618  -0.005716  0.004283  -0.004502  -0.0126  0.1621  -0.7611
6.281e+09  0.8038  -0.3367  -0.006976  -0.01225  0.01034  0.007722  -0.1276  -0.7906
6.282e+09  0.5528  -0.5872  -0.02526  0.01873  -0.01884  -0.03305  -0.3318  -0.7055
6.284e+09  0.3977  -0.7491  -0.004156  -0.01204  -0.003478  0.002733  -0.5822  -0.503
6.285e+09  0.1056  -0.8691  0.01917  -0.01169  -0.02166  -0.04245  -0.7287  -0.2978
6.286e+09  -0.1832  -0.8391  0.0274  0.009479  -0.01084  -0.02833  -0.7969  -0.03522
6.288e+09  -0.4596  -0.6683  0.009663  0.0219  0.03611  -0.04863  -0.7381  0.2258
6.289e+09  -0.7131  -0.4928  0.005439  0.01977  -0.01974  0.0122  -0.6416  0.5285
6.29e+09  -0.7879  -0.2294  -0.01838  0.009703  -0.0521  -0.0009895  -0.4269  0.6821
6.291e+09  -0.8071  0.08211  -0.001595  0.009805  -0.007945  -0.06485  -0.1711  0.7971
6.292e+09  -0.7252  0.3829  0.001023  -0.02789  0.005754  -0.04398  0.1191  0.8499
6.294e+09  -0.5672  0.5671  0.02099  -0.02684  0.05599  -0.07318  0.3885  0.7066
6.295e+09  -0.3446  0.786  0.005441  -0.01331  0.05603  0.05176  0.6504  0.5167
6.296e+09  -0.01813  0.8281  0.005078  -0.0168  0.05432  -0.05572  0.7345  0.3009
6.298e+09  0.2859  0.8271  -0.004002  -0.0112  -0.02263  -0.01015  0.8444  -0.00928
6.299e+09  0.5137  0.6556  0.00837  -0.01932  -0.0441  0.02312  0.784  -0.2705
6.3e+09  0.6963  0.4987  -0.005677  0.003054  -0.01694  0.01635  0.6253  -0.5269
6.301e+09  0.8129  0.186  -0.0005836  -0.01621  -0.0213  0.004728  0.4539  -0.7646
6.302e+09  0.8634  -0.1052  -0.01186  -0.02445  0.03861  -0.006899  0.133  -0.8142
6.304e+09  0.8227  -0.4141  -0.01563  -0.002356  -0.006978  -0.05618  -0.119  -0.8306
6.305e+09  0.5479  -0.6047  0.03183  0.01555  -0.03696  0.03146  -0.4421  -0.7675
6.306e+09  0.3521  -0.8118  0.004651  0.016  0.008713  -0.008575  -0.6466  -0.5569
6.308e+09  0.04365  -0.8229  -0.005634  0.01144  -0.02131  -0.03192  -0.7902  -0.2871
6.309e+09  -0.2458  -0.7845  0.001866  0.007383  0.04051  0.008637  -0.8477  0.003109
6.31e+09  -0.4709  -0.6621  0.0104  0.002792  0.01598  -0.01662  -0.8402  0.3048
6.311e+09  -0.7304  -0.4168  0.0009692  -0.01779  -0.007415  0.02986  -0.6806  0.5511
6.312e+09  -0.8648  -0.1833  -0.006495  -0.02294  0.001009  -0.004267  -0.4206  0.7929
6.314e+09  -0.854  0.1367  0.00962  0.02179  -0.02842  -0.01301  -0.1695  0.842
6.315e+09  -0.7558  0.4412  0.025  0.009172  -0.02514  -0.02501  0.159  0.8607
6.316e+09  -0.5867  0.6306  0.01615  0.01415  0.01104  -0.05482  0.41  0.7913
6.318e+09  -0.3229  0.8152  0.009184  -9.594e-05  -0.02467  -0.0414  0.6685  0.5854
6.319e+09  -0.004615  0.8669  -0.002172  -0.009325  -0.001441  -0.001514  0.8304  0.3075
6.32e+09  0.3322  0.7974  0.01517  0.02673  -0.0144  -0.01697  0.8714  0.01386
6.321e+09  0.5597  0.6727  -0.008387  0.008423  -0.01388  -0.004943  0.8374  -0.2743
6.322e+09  0.7366  0.3991  -0.009354  -0.01708  -0.01444  -0.02824  0.7133  -0.5432
6.324e+09  0.8584  0.1139  0.02285  -0.002996  -0.009218  0.004996  0.4433  -0.7855
6.325e+09  0.8504  -0.177  0.004559  -0.002585  0.01652  -0.0258  0.1995  -0.8739
6.326e+09  0.7623  -0.4273  -0.01439  0.00476  -0.009804  -0.01543  -0.1367  -0.8837
6.328e+09  0.5287  -0.6747  -0.009192  0.0342  -0.01145  0.05507  -0.4497  -0.7689
6.329e+09  0.2252  -0.8166  -0.03412  -0.01466  0.02312  0.01736  -0.6887  -0.615
6.33e+09  -0.04016  -0.8625  0.000632  -0.003181  -0.02041  -0.01481  -0.8609  -0.3188
6.331e+09  -0.3722  -0.7996  0.02683  0.007236  0.005865  0.01031  -0.9079  -0.0327
6.332e+09  -0.5931  -0.5889  -0.02001  -0.007356  -0.02557  0.01124  -0.8502  0.2642
6.334e+09  -0.7888  -0.362  0.0009374  0.00346  -0.01822  0.0126  -0.7208  0.5402
6.335e+09  -0.8658  -0.07238  0.006982  0.01714  -0.009205  -0.05073  -0.5021  0.8011
6.336e+09  -0.8239  0.2549  0.007963  0.01062  -0.02341  -0.0157  -0.1831  0.8957
6.338e+09  -0.7027  0.4625  0.02656  -0.01168  0.02802  0.01066  0.1542  0.8941
6.339e+09  -0.4629  0.7374  0.01622  0.007194  0.006187  0.01906  0.446  0.8407
6.34e+09  -0.2301  0.8925  0.007247  -0.01121  0.02466  0.04305  0.6524  0.6421
6.341e+09  0.09059  0.8815  -0.02297  0.01132  0.01955  -0.01592  0.8449  0.3444
6.342e+09  0.4254  0.7688  0.02193  -0.02148  -0.07526  -0.05789  0.9257  0.03378
6.344e+09  0.6474  0.6155  0.0164  0.01758  0.03041  0.03844  0.8593  -0.2874
6.345e+09  0.8485  0.3252  0.01853  0.0125  -0.01758  0.01752  0.7796  -0.5847
6.346e+09  0.8656  0.06481  -0.02526  -0.05062  0.00357  -0.01877  0.5136  -0.7643
6.348e+09  0.8742  -0.3332  0.0007112  -0.005776  0.03061  0.004433  0.2286  -0.8976
6.349e+09  0.6578  -0.5952  0.008594  0.005032  0.03668  0.04669  -0.1002  -0.9547
6.35e+09  0.4832  -0.7844  0.03235  -0.04383  -0.01494  -0.009928  -0.4566  -0.8632
6.351e+09  0.1704  -0.8431  -0.03606  -0.03855  0.01621  0.04808  -0.6828  -0.6464
6.352e+09  -0.1891  -0.8491  0.02221  0.02159  0.007892  0.00405  -0.8615  -0.4051
6.354e+09  -0.4463  -0.7526  -0.02245  0.008342  0.004679  -0.04896  -0.9886  -0.07759
6.355e+09  -0.6821  -0.5272  -0.004814  0.002981  0.02323  -0.01631  -0.9285  0.2906
6.356e+09  -0.8577  -0.2521  0.004458  0.02465  -0.04693  0.03688  -0.7852  0.5835
6.358e+09  -0.9039  0.02598  0.03771  0.05253  0.02519  -0.01988  -0.541  0.8055
6.359e+09  -0.8401  0.3535  -0.0002115  -0.01024  -0.005238  -0.04133  -0.2123  0.8878
6.36e+09  -0.6254  0.6057  0.009542  0.001106  0.01402  -0.01998  0.06607  0.9638
6.361e+09  -0.4071  0.7809  0.0169  0.006487  -0.04419  0.005397  0.3719  0.829
6.362e+09  -0.0742  0.9032  -0.002261  -0.005081  -0.0126  0.02155  0.6658  0.6676
6.364e+09  0.2191  0.804  0.01023  -0.02057  -0.007034  -0.004835  0.8577  0.3984
6.365e+09  0.5288  0.7236  -0.04336  0.007572  0.02325  0.01662  0.9388  0.07837
6.366e+09  0.7137  0.4831  -0.05619  -0.008237  0.01186  0.05544  0.9201  -0.2176
6.368e+09  0.8697  0.2346  0.02755  -0.01485  0.04515  -0.03884  0.7864  -0.5608
6.369e+09  0.8425  -0.1028  -0.01112  0.01647  -0.005413  -0.002237  0.5496  -0.7813
6.37e+09  0.7983  -0.4073  -0.01103  0.007808  -0.02011  -0.01472  0.2624  -0.9128
6.371e+09  0.5946  -0.6373  0.03452  -0.001049  0.05987  0.01255  -0.08333  -0.9364
6.372e+09  0.3556  -0.7931  -0.02048  -0.03261  -0.00894  0.01409  -0.3931  -0.8866
6.374e+09  0.0311  -0.8974  -0.02574  0.01817  0.06444  0.02971  -0.7246  -0.6901
6.375e+09  -0.3009  -0.8376  -0.02533  -0.04305  0.04173  0.02132  -0.8583  -0.4164
6.376e+09  -0.571  -0.6577  -0.005434  -0.002792  0.02109  0.006274  -0.9464  -0.06239
6.378e+09  -0.7244  -0.4402  -0.007911  -0.03611  0.01106  0.01498  -0.909  0.2313
6.379e+09  -0.8739  -0.2099  0.01245  0.01166  -0.03787  -0.006943  -0.7868  0.5198
6.38e+09  -0.9421  0.1685  0.006093  0.005908  0.0263  -0.01458  -0.5383  0.7475
6.381e+09  -0.7724  0.4221  -0.008981  0.03238  -0.02309  0.01143  -0.2783  0.8998
6.382e+09  -0.5904  0.6565  0.002725  0.008517  -0.01695  -0.03176  0.02828  0.9162
6.384e+09  -0.331  0.8656  0.007764  -0.008572  0.02558  -0.02011  0.3535  0.8791
6.385e+09  -0.06111  0.9047  0.02848  -0.0464  0.03911  -0.02234  0.6701  0.7363
6.386e+09  0.3033  0.8582  -0.03518  0.02136  0.01852  0.007227  0.836  0.4041
6.388e+09  0.6058  0.6642  -0.000892  0.01141  -0.00943  0.02905  0.9476  0.1099
6.389e+09  0.7708  0.4421  0.03874  -0.006503  -0.01814  -0.01121  0.9072  -0.2137
6.39e+09  0.8999  0.1345  -0.02021  0.01231  -0.02122  0.01552  0.8099  -0.4634
6.391e+09  0.8595  -0.1563  -0.01559  0.02684  0.001032  -0.01577  0.5619  -0.749
6.392e+09  0.7761  -0.4209  0.02546  0.04552  -0.006104  -0.03926  0.2641  -0.8911
6.394e+09  0.5668  -0.6601  -0.01249  0.008763  0.0007114  -3.959e-05  -0.01469  -0.9373
6.395e+09  0.3076  -0.8786  0.03253  -0.002765  0.03915  -0.0129  -0.3522  -0.8371
6.396e+09  -0.009574  -0.9266  0.002473  0.01312  0.003173  -0.01121  -0.623  -0.7233
6.398e+09  -0.3417  -0.7977  0.01554  -0.02372  0.02201  -0.007046  -0.7644  -0.4378
6.399e+09  -0.608  -0.6669  -0.01722  -0.005315  -0.01113  -0.01207  -0.895  -0.09946
6.4e+09  -0.7459  -0.4375  -0.007071  -0.02162  -0.01281  0.03201  -0.886  0.1509
6.401e+09  -0.9021  -0.132  -0.01909  -0.003859  -0.01063  0.008047  -0.8315  0.4449
6.402e+09  -0.901  0.2328  0.004279  0.003986  0.009546  -0.004385  -0.5994  0.7109
6.404e+09  -0.7782  0.4729  0.01096  0.007424  -0.02165  -0.008604  -0.2525  0.9018
6.405e+09  -0.5279  0.6899  -0.005617  0.0009907  0.05154  -0.0001292  0.02406  0.9831
6.406e+09  -0.2564  0.862  0.001849  0.002828  0.0107  0.07922  0.3171  0.8778
6.408e+09  0.06184  0.8529  -0.0372  -0.008663  0.005212  0.04503  0.5597  0.7042
6.409e+09  0.3702  0.847  -0.00255  0.03089  -0.03378  -0.001479  0.788  0.4724
6.41e+09  0.6007  0.6235  0.007444  -0.03507  0.006552  -0.02221  0.8812  0.1523
6.411e+09  0.7475  0.3953  -0.01165  -0.03169  0.02568  0.02197  0.8665  -0.1484
6.412e+09  0.9129  0.1028  0.00566  -0.0526  -0.0173  0.003571  0.7921  -0.4458
6.414e+09  0.8225  -0.2142  0.0179  -0.004399  -0.02  -0.03997  0.5676  -0.6634
6.415e+09  0.7295  -0.4892  0.0154  0.02551  -0.01274  0.0648  0.3093  -0.8621
6.416e+09  0.4774  -0.7354  -0.01547  -0.009861  0.02051  0.02294  0.01033  -0.9153
6.418e+09  0.2508  -0.8569  -0.02699  -0.01113  0.003462  -0.01396  -0.2803  -0.8626
6.419e+09  -0.04839  -0.8664  0.02147  0.007155  0.03883  -0.02439  -0.5758  -0.6868
6.42e+09  -0.3841  -0.8188  -0.007264  -0.002021  0.01422  -0.06629  -0.759  -0.4926
6.421e+09  -0.6294  -0.6313  0.02165  -0.01857  0.01676  0.01365  -0.8379  -0.1629
6.422e+09  -0.7942  -0.3535  -0.03197  -0.03037  0.01148  -0.01686  -0.9165  0.1051
6.424e+09  -0.8772  -0.09735  -0.001021  -0.001952  -0.02905  -0.001807  -0.821  0.3569
6.425e+09  -0.8896  0.2193  -0.009497  -0.02863  -0.006489  0.02548  -0.5751  0.6733
6.426e+09  -0.6894  0.4892  -0.001492  -0.002742  -0.04309  -0.05521  -0.3236  0.8132
6.428e+09  -0.541  0.7499  0.0034  0.01147  -0.008536  -0.02709  -0.05188  0.8575
6.429e+09  -0.2552  0.8905  -0.0004297  -0.01357  -0.01617  -0.01288  0.2841  0.8384
6.43e+09  0.09217  0.8582  0.0248  -0.01576  -0.005027  0.006838  0.5102  0.7143
6.431e+09  0.4111  0.8004  -0.02434  0.001889  -0.01441  0.00972  0.7139  0.4914
6.432e+09  0.6342  0.5941  0.01366  0.04297  0.008316  0.01432  0.8453  0.1647
6.434e+09  0.818  0.3825  0.002635  -0.01246  0.00915  -0.01087  0.8568  -0.08238
6.435e+09  0.8833  0.08798  0.00623  -0.01778  -0.02518  -0.006301  0.7596  -0.3652
6.436e+09  0.822  -0.2412  0.01991  -0.01209  0.01948  0.003772  0.5777  -0.6261
6.438e+09  0.6966  -0.506  0.02914  -0.02656  -0.00344  -0.03577  0.3514  -0.7636
6.439e+09  0.536  -0.7139  -0.04947  0.03213  -0.0008575  0.0119  0.06438  -0.8601
6.44e+09  0.2182  -0.8447  0.02756  -0.02634  -0.01506  0.000746  -0.2538  -0.8397
6.441e+09  -0.06815  -0.9132  -0.0286  -0.01592  0.01582  -0.01824  -0.4579  -0.7413
6.442e+09  -0.3526  -0.7352  -0.02974  0.001713  0.009567  0.02744  -0.6767  -0.4502
6.444e+09  -0.6382  -0.6058  -0.03276  0.005862  -0.006938  0.04194  -0.8017  -0.1834
6.445e+09  -0.8345  -0.3393  -0.02386  -0.0007857  0.03177  -0.02205  -0.847  0.07339
6.446e+09  -0.9327  -0.0986  -0.01611  -0.03822  0.002739  -0.006712  -0.795  0.3321
6.448e+09  -0.8861  0.2927  -0.03752  0.00823  -0.01004  0.007511  -0.5748  0.6111
6.449e+09  -0.7522  0.5333  -0.03668  0.01086  -0.007937  -0.01592  -0.3661  0.7733
6.45e+09  -0.5582  0.7322  -0.0175  0.01808  0.01543  -0.01486  -0.09129  0.8631
6.451e+09  -0.1726  0.8989  0.02954  0.02577  0.008453  0.008088  0.2288  0.8023
6.452e+09  0.09221  0.8926  -0.005631  -0.02746  0.03503  -0.01048  0.449  0.6704
6.454e+09  0.3957  0.8143  -0.02337  -0.05104  -0.05574  0.02385  0.6793  0.5065
6.455e+09  0.7031  0.6049  -0.03041  0.01551  -0.01073  -0.01492  0.7998  0.2029
6.456e+09  0.824  0.3481  0.01472  0.01069  0.03006  0.04091  0.8473  -0.05634
6.458e+09  0.9048  0.08176  0.02129  0.02727  -0.04767  0.04251  0.7119  -0.3631
6.459e+09  0.876  -0.2588  0.01224  -0.0009093  -0.01329  0.02521  0.5635  -0.5726
6.46e+09  0.7515  -0.5871  -0.02733  -0.02204  -0.005917  -0.05551  0.4006  -0.7466
6.461e+09  0.5158  -0.7766  -0.02449  -0.02237  -0.03708  -0.04039  0.07939  -0.7986
6.462e+09  0.2243  -0.8783  -0.0008798  0.02625  0.01986  -0.03309  -0.1893  -0.7977
6.464e+09  -0.1066  -0.8631  -0.01091  -0.01679  0.0015  -0.04979  -0.4732  -0.6451
6.465e+09  -0.4436  -0.7507  -0.04001  0.03333  -0.03163  0.03632  -0.6804  -0.4251
6.466e+09  -0.6552  -0.5511  0.006605  -0.006373  -0.03533  -0.04375  -0.784  -0.1913
6.468e+09  -0.8636  -0.3618  0.02369  0.04221  0.02029  -0.02934  -0.8064  0.08549
6.469e+09  -0.9087  -0.0621  0.009511  -0.003077  0.01936  0.0124  -0.712  0.3237
6.47e+09  -0.871  0.3177  0.0392  -0.05302  -0.007795  -0.0522  -0.5271  0.5924
6.471e+09  -0.7425  0.5152  -0.03347  -0.04252  0.002255  0.01435  -0.2741  0.6821
6.472e+09  -0.4922  0.779  -0.03179  0.002136  0.003201  0.04388  -0.09446  0.7788
6.474e+09  -0.1944  0.9157  0.008623  -1.085e-06  0.04947  -0.008314  0.2428  0.7765
6.475e+09  0.1181  0.8967  0.007187  -0.0007743  -0.01436  -0.006659  0.4812  0.5924
6.476e+09  0.4618  0.8071  -0.02644  0.02676  -0.006053  0.04135  0.6448  0.4695
6.478e+09  0.7177  0.5718  0.04755  -0.01546  -0.01209  -0.04824  0.7998  0.173
6.479e+09  0.8748  0.3936  -0.03187  0.02206  0.005951  -0.02528  0.7853  -0.1073
6.48e+09  0.8756  0.01046  0.01773  -0.002494  -0.03139  0.01744  0.6979  -0.3497
6.481e+09  0.8163  -0.3361  0.005849  -0.01094  0.01781  -0.02179  0.5726  -0.5333
6.482e+09  0.6361  -0.5882  -0.02  -0.06622  0.01938  -0.04581  0.3316  -0.7134
6.484e+09  0.4343  -0.803  -0.03151  -0.01977  -0.02285  -0.003985  0.1025  -0.7487
6.485e+09  0.1511  -0.8798  -0.006141  0.01402  -0.0009993  -0.01777  -0.212  -0.728
6.486e+09  -0.1827  -0.9121  0.008598  -0.01428  -0.04355  -0.04329  -0.4625  -0.6056
6.488e+09  -0.4387  -0.808  0.0252  -0.01415  -0.03019  0.03027  -0.6177  -0.4268
6.489e+09  -0.7181  -0.5862  0.009512  0.01473  -0.06664  0.04095  -0.7286  -0.1497
6.49e+09  -0.885  -0.3322  0.01128  -0.03996  -0.04533  0.00743  -0.7923  0.07679
6.491e+09  -0.9274  0.008147  -0.009892  -0.01508  0.009219  0.05806  -0.6517  0.3203
6.492e+09  -0.8709  0.3004  0.02009  -0.01242  0.02267  0.03557  -0.5425  0.5917
6.494e+09  -0.6942  0.5708  0.0274  -0.01082  -0.03939  -0.02616  -0.2894  0.6804
6.495e+09  -0.4756  0.7368  -0.02878  0.03423  0.05715  0.005527  -0.03681  0.7665
6.496e+09  -0.1877  0.9088  0.005785  0.01098  0.06473  0.01898  0.2235  0.7572
6.498e+09  0.1383  0.9368  -0.003666  0.0178  0.03447  0.01561  0.4736  0.6088
6.499e+09  0.4945  0.78  -0.01069  -0.00226  0.01282  0.01602  0.6152  0.4273
6.5e+09  0.7396  0.5879  0.01653  -0.001512  0.01058  -0.01482  0.7425  0.1539
6.501e+09  0.839  0.2832  -0.02056  -0.008267  -0.01448  -0.005786  0.7538  -0.07739
6.502e+09  0.8899  -0.006844  0.01123  -0.03822  0.05967  -0.01819  0.7173  -0.3573
6.504e+09  0.7972  -0.3585  0.01228  -0.01715  0.03182  0.0111  0.4989  -0.5329
6.505e+09  0.7204  -0.5472  0.008907  -0.01655  0.007643  -0.0008994  0.2848  -0.7264
6.506e+09  0.4458  -0.8149  0.01336  0.02328  -0.00659  0.006002  0.004001  -0.7664
6.508e+09  0.09309  -0.9532  -0.02042  -0.02151  -0.006432  0.03398  -0.2379  -0.732
6.509e+09  -0.2109  -0.9168  0.01483  0.001886  0.03307  -0.007849  -0.4695  -0.5875
6.51e+09  -0.5242  -0.7743  -0.0512  0.0199  0.00692  -0.02933  -0.6741  -0.3916
6.511e+09  -0.7444  -0.6296  0.01637  0.006701  0.02384  -0.009449  -0.7549  -0.157
6.512e+09  -0.8546  -0.2383  0.02472  -0.01916  -0.04004  -0.04216  -0.7334  0.1494
6.514e+09  -0.9301  0.09804  -0.02283  0.02241  0.03806  0.001547  -0.6009  0.4106
6.515e+09  -0.8832  0.397  0.02683  -0.03524  0.01493  -0.008024  -0.4749  0.5693
6.516e+09  -0.6946  0.6837  -0.005579  -0.0381  0.03122  0.02518  -0.2593  0.725
6.518e+09  -0.4188  0.8515  0.02074  -0.01004  -0.01469  0.02882  -0.01782  0.7188
6.519e+09  -0.1105  0.9376  -0.01087  0.03427  0.001187  0.01313  0.2643  0.7269
6.52e+09  0.2426  0.9437  -0.002291  -0.004232  -0.02353  0.02142  0.4949  0.5879
6.521e+09  0.5367  0.812  0.001558  -0.006529  -0.03751  0.00194  0.6667  0.3099
6.522e+09  0.7815  0.5167  -0.0203  0.008692  0.002387  -0.01539  0.7179  0.07806
6.524e+09  0.9171  0.2217  0.01506  0.006079  -0.02784  -0.03115  0.7241  -0.1897
6.525e+09  0.9294  -0.1182  -0.02262  0.004043  -0.01057  0.01018  0.5816  -0.4334
6.526e+09  0.9415  -0.4443  0.01295  -0.001808  -0.01464  -0.00584  0.4479  -0.5951
6.528e+09  0.6208  -0.7418  0.01915  -0.02523  -0.02718  -0.0156  0.2259  -0.6767
6.529e+09  0.3662  -0.9317  0.004461  0.006183  0.01074  -0.04991  -0.07959  -0.6718
6.53e+09  0.05553  -0.9464  -0.01272  0.008878  0.04084  0.02286  -0.3035  -0.6199
6.531e+09  -0.2903  -0.9549  -0.009219  0.0103  0.007039  -0.01241  -0.4603  -0.4918
6.532e+09  -0.5855  -0.7722  0.02314  -0.00781  0.03038  -0.0007413  -0.5883  -0.3279
6.534e+09  -0.8152  -0.5179  -0.01856  -0.01149  0.02849  -0.03755  -0.607  -0.07524
6.535e+09  -0.961  -0.1582  -0.00704  -0.00199  0.07754  0.05974  -0.6654  0.129
6.536e+09  -0.9552  0.1751  0.001613  -0.00384  0.01575  0.005524  -0.5598  0.3177
6.538e+09  -0.8669  0.5074  -0.01723  0.009745  -0.02241  -0.02863  -0.4321  0.48
6.539e+09  -0.6062  0.7321  -0.005731  -0.01724  0.005374  0.007815  -0.2854  0.6245
6.54e+09  -0.2924  0.9275  -0.01912  0.02216  -0.006685  0.05739  -0.05864  0.6738
6.541e+09  0.04405  0.9817  0.001732  0.001482  0.01299  0.02598  0.1762  0.6691
6.542e+09  0.3599  0.9057  -0.01778  -0.001544  0.02104  0.03618  0.4287  0.5878
6.544e+09  0.6763  0.7216  -0.001215  0.02552  0.02165  0.07419  0.5997  0.392
6.545e+09  0.9054  0.4232  0.005498  0.006681  0.05013  0.00212  0.6692  0.1948
6.546e+09  1.008  0.06846  0.007116  -0.01456  0.06843  0.06474  0.7285  -0.06226
6.548e+09  0.9237  -0.2876  0.01834  -0.02881  -0.00485  0.007271  0.6356  -0.3167
6.549e+09  0.7962  -0.5546  0.03991  -0.02437  -0.007736  0.03133  0.4756  -0.555
6.55e+09  0.5635  -0.8447  0.0366  0.01148  0.0107  0.03335  0.2643  -0.6989
