# Hz S RI R 50
6.25e+09  -0.6424  0.6045  -0.008343  -0.01585  -0.0003774  0.001936  0.1583  0.4971
6.251e+09  -0.4488  0.7594  -0.01043  -0.02158  -0.02137  0.04767  0.3976  0.4274
6.252e+09  -0.1117  0.8894  -0.04071  0.01088  -0.04242  -0.05842  0.5602  0.2437
6.254e+09  0.1466  0.8231  -0.0005147  0.004932  0.075  -0.01723  0.588  0.03265
6.255e+09  0.4337  0.7143  -0.02192  0.04013  0.01465  -0.02588  0.5926  -0.2192
6.256e+09  0.6322  0.5429  -0.0246  -0.01276  0.03041  -0.06224  0.4932  -0.4353
6.258e+09  0.7575  0.2771  -0.003076  0.04875  -0.03086  0.0457  0.2871  -0.5944
6.259e+09  0.788  -0.03578  0.03062  -0.004176  -0.05123  0.000829  0.02233  -0.6577
6.26e+09  0.757  -0.2768  -0.001579  0.04888  -0.03265  -0.01314  -0.1987  -0.6604
6.261e+09  0.5985  -0.5287  -0.00188  0.01516  -0.006064  0.01828  -0.4368  -0.4871
6.262e+09  0.3952  -0.7165  -0.0178  0.005174  -0.006879  0.009475  -0.6133  -0.3099
6.264e+09  0.1427  -0.8216  -0.005028  -0.02085  0.008125  0.01978  -0.7173  -0.09948
6.265e+09  -0.1752  -0.8311  -0.02453  0.01811  0.005514  -0.02135  -0.6926  0.1472
6.266e+09  -0.4218  -0.6644  0.04905  -0.03323  0.003111  0.003903  -0.639  0.3749
6.268e+09  -0.6398  -0.5506  0.0081  -0.01652  0.02848  0.003238  -0.4416  0.602
6.269e+09  -0.7692  -0.2842  0.02288  -0.01177  0.02291  0.01897  -0.2119  0.6712
6.27e+09  -0.8743  -0.01977  0.02902  0.01418  0.03124  0.06577  0.02532  0.7306
6.271e+09  -0.7571  0.2741  0.01199  0.0353  -0.03475  -0.01954  0.3303  0.6758
6.272e+09  -0.6153  0.5267  0.008946  0.009435  -0.01479  0.05132  0.5386  0.5428
6.274e+09  -0.38  0.7597  0.004243  -0.01976  -0.03352  0.03987  0.6951  0.3376
6.275e+09  -0.1641  0.8078  -0.005418  0.01213  -0.01576  0.02939  0.7505  0.06999
6.276e+09  0.1835  0.7892  0.000121  0.01008  0.02711  0.001395  0.764  -0.2132
6.278e+09  0.4585  0.7269  0.006531  -0.00398  0.01241  -0.04131  0.6162  -0.4774
6.279e+09  0.619  0.4821  0.01335  0.003838  0.02683  0.04129  0.4166  -0.6419
6.28e+09  0.7981  0.2351  -0.007133  0.01839  -0.02599  -0.01062  0.1698  -0.7746
6.281e+09  0.81  -0.02564  0.0195  0.02737  -0.04409  0.01395  -0.124  -0.8107
6.282e+09  0.7349  -0.2997  0.03179  -0.009962  -0.01841  0.0357  -0.3355  -0.6552
6.284e+09  0.588  -0.5955  0.01325  0.02654  0.01349  0.04389  -0.5901  -0.5417
6.285e+09  0.4252  -0.6964  -0.007098  0.01406  0.01074  -0.001401  -0.7153  -0.3057
6.286e+09  0.08032  -0.8716  0.01389  -0.01557  0.02868  0.01197  -0.7859  -0.01944
6.288e+09  -0.1733  -0.8219  -0.0123  0.00947  -0.03398  -0.01005  -0.7746  0.2265
6.289e+09  -0.4971  -0.6888  -0.0009825  -0.0014  -0.03929  -0.00504  -0.6496  0.5094
6.29e+09  -0.6442  -0.5233  -0.005548  -0.02283  0.01422  -0.05205  -0.4083  0.704
6.291e+09  -0.793  -0.2425  -0.01339  0.003519  -0.02055  0.0182  -0.1551  0.8141
6.292e+09  -0.7878  0.04571  -0.01223  -0.001497  0.01317  -0.02704  0.0814  0.8057
6.294e+09  -0.7496  0.3022  -0.01247  0.0002081  -0.04484  0.06198  0.3626  0.7329
6.295e+09  -0.5876  0.5673  0.003635  -0.002882  -0.01425  -0.03713  0.6234  0.5337
6.296e+09  -0.3596  0.7044  -0.008257  0.001003  0.0001431  0.00842  0.7993  0.3081
6.298e+09  -0.09785  0.8495  0.01581  0.01701  0.006815  0.003963  0.8162  -0.007761
6.299e+09  0.2136  0.8422  -0.005708  -0.005668  -0.005741  0.03276  0.7858  -0.2877
6.3e+09  0.3738  0.6648  0.02305  0.01636  -0.05253  -0.006361  0.6474  -0.5396
6.301e+09  0.6909  0.5017  -0.04246  0.006051  0.0205  0.05619  0.4034  -0.718
6.302e+09  0.7714  0.2602  -0.02534  0.003502  0.01136  -0.02116  0.1527  -0.8378
6.304e+09  0.84  -0.01354  0.02826  -0.005608  0.03969  -0.01149  -0.1412  -0.8139
6.305e+09  0.7679  -0.3258  0.03681  -0.02764  -0.03198  0.01779  -0.4308  -0.7549
6.306e+09  0.5667  -0.5791  -0.02989  0.01331  -0.0001164  -0.01431  -0.6419  -0.5556
6.308e+09  0.3705  -0.7618  -0.01878  0.01923  -0.03453  0.05373  -0.7963  -0.3091
6.309e+09  0.09428  -0.788  -0.01553  -0.005922  0.006132  -0.04402  -0.849  -0.000745
6.31e+09  -0.2431  -0.8167  -0.0007395  -0.002361  -0.04576  0.07327  -0.831  0.3039
6.311e+09  -0.4762  -0.6708  0.0111  0.03418  -0.04971  0.02452  -0.6671  0.5373
6.312e+09  -0.6737  -0.4827  0.01346  -0.02669  -0.02273  0.06429  -0.4235  0.7428
6.314e+09  -0.8141  -0.1816  -0.0009507  -0.00154  0.04713  0.02477  -0.1813  0.8785
6.315e+09  -0.7918  0.07451  0.008015  -0.001966  0.01662  -0.007275  0.1746  0.8775
6.316e+09  -0.7711  0.3749  0.004763  0.007307  0.00547  -0.02233  0.4524  0.7602
6.318e+09  -0.5785  0.6059  0.01174  0.03296  0.006293  0.0135  0.6904  0.5834
6.319e+09  -0.3026  0.7477  -0.002735  -0.002323  0.01244  0.0457  0.827  0.3208
6.32e+09  -0.03179  0.8466  0.00858  0.0009696  -0.0106  -0.01921  0.9033  0.01903
6.321e+09  0.2881  0.7631  -0.009093  -0.01219  -0.007127  -0.01568  0.8784  -0.3017
6.322e+09  0.5883  0.6636  -0.00851  -0.006697  0.0184  0.06579  0.694  -0.548
6.324e+09  0.7226  0.4674  -0.01562  0.02562  -0.06206  -0.008347  0.4296  -0.7672
6.325e+09  0.8464  0.1836  -0.0455  -0.01772  -0.04614  0.002968  0.1869  -0.9018
6.326e+09  0.7903  -0.1938  0.006476  -0.02268  0.01702  -0.01592  -0.1293  -0.8916
6.328e+09  0.7245  -0.3567  -0.018  -0.004421  -0.02874  0.008959  -0.4299  -0.7645
6.329e+09  0.5399  -0.7023  0.04208  0.002433  -0.03569  0.02369  -0.6769  -0.6077
6.33e+09  0.2773  -0.7916  -0.01297  0.004728  0.01156  0.04844  -0.8606  -0.3394
6.331e+09  -0.02358  -0.8399  -0.004399  0.01337  0.02164  0.01769  -0.9037  0.01201
6.332e+09  -0.3109  -0.8265  0.01957  -0.0001376  -0.01683  0.01282  -0.8429  0.2296
6.334e+09  -0.5898  -0.638  -0.003589  0.0342  -0.02419  0.03454  -0.743  0.5971
6.335e+09  -0.824  -0.425  -0.01743  0.03348  -0.03175  -0.01105  -0.4946  0.7954
6.336e+09  -0.8877  -0.09398  0.05228  0.01057  0.01407  -0.005868  -0.2034  0.908
6.338e+09  -0.8421  0.2109  0.00077  0.01658  -0.002333  0.03786  0.1648  0.9054
6.339e+09  -0.7025  0.4884  -0.01533  -0.05991  -0.02497  0.01318  0.4256  0.8072
6.34e+09  -0.5249  0.7473  0.004406  0.004207  0.008816  -0.03874  0.7343  0.6074
6.341e+09  -0.257  0.8484  0.036  0.009584  -0.001276  -0.01046  0.8237  0.312
6.342e+09  0.1264  0.8688  -0.02794  -0.01174  0.03404  0.008617  0.8967  0.01382
6.344e+09  0.4217  0.8006  0.03254  -0.03046  0.01068  -0.02274  0.8774  -0.2754
6.345e+09  0.6634  0.6456  -0.001729  0.01844  0.03332  0.05278  0.7622  -0.5759
6.346e+09  0.8006  0.3503  -0.0238  0.003605  0.0079  0.05174  0.5483  -0.778
6.348e+09  0.8798  0.08859  -0.02231  0.04164  0.01383  -0.01468  0.2049  -0.9007
6.349e+09  0.8314  -0.2668  -0.00274  -0.02439  0.01482  0.0209  -0.1144  -0.9357
6.35e+09  0.7196  -0.5318  0.02995  -0.01874  0.001116  0.01771  -0.4076  -0.8663
6.351e+09  0.4672  -0.7285  -0.01541  -0.03071  0.04707  0.005675  -0.6909  -0.6421
6.352e+09  0.2006  -0.8796  0.05486  -0.01062  0.01857  0.002969  -0.8617  -0.3809
6.354e+09  -0.1614  -0.897  0.01066  0.001347  0.02963  0.01945  -0.9162  -0.06716
6.355e+09  -0.4298  -0.7409  0.01183  -0.01214  -0.0368  0.01116  -0.9053  0.2437
6.356e+09  -0.6628  -0.5633  -0.004258  0.02773  -0.003136  0.009735  -0.775  0.5428
6.358e+09  -0.8417  -0.286  0.000609  0.007709  0.01031  0.04291  -0.5298  0.7684
6.359e+09  -0.8877  -0.01701  -0.01355  -0.003385  0.05957  0.01352  -0.2329  0.9083
6.36e+09  -0.8114  0.3322  -0.00843  0.03982  -0.06205  0.06047  0.101  0.9503
6.361e+09  -0.6644  0.6003  -0.002282  0.03147  -0.03503  0.02837  0.404  0.848
6.362e+09  -0.3625  0.7791  0.008778  -0.03952  0.02014  -0.01122  0.6586  0.6553
6.364e+09  -0.1133  0.8723  0.003737  -0.00685  0.006681  -0.04224  0.8972  0.3659
6.365e+09  0.2777  0.8679  -0.03569  0.02381  -0.02344  -0.01371  0.9459  0.08941
6.366e+09  0.4727  0.7539  -0.002003  0.03011  -0.04406  -0.01335  0.896  -0.2637
6.368e+09  0.6932  0.5142  -0.01391  -0.03686  -0.008483  0.03873  0.7626  -0.5656
6.369e+09  0.8811  0.2337  0.03668  0.003346  0.0445  -0.02113  0.5193  -0.7713
6.37e+09  0.887  -0.09233  -0.01693  -0.01503  -0.00279  0.006455  0.2972  -0.9206
6.371e+09  0.7757  -0.3578  0.01  -0.03965  0.02329  -0.04309  -0.06873  -0.9299
6.372e+09  0.6259  -0.6285  -0.009402  0.0117  0.009911  0.01285  -0.4124  -0.8745
6.374e+09  0.3825  -0.8375  0.006993  -0.02181  0.03449  0.02134  -0.686  -0.6622
6.375e+09  -0.001963  -0.8945  -0.02995  -0.018  0.0002957  -0.04322  -0.8432  -0.4132
6.376e+09  -0.2644  -0.8321  -0.02189  0.01113  0.008177  0.04526  -0.9342  -0.09415
6.378e+09  -0.5454  -0.7097  0.05415  -0.01189  -0.007297  0.02327  -0.9268  0.2771
6.379e+09  -0.7626  -0.4806  0.01596  0.01126  -0.01719  0.02337  -0.7912  0.5024
6.38e+09  -0.8992  -0.2128  0.001558  -0.004455  -0.02108  -0.01431  -0.5502  0.7257
6.381e+09  -0.8901  0.1078  0.02235  -0.01072  0.01259  0.01435  -0.2569  0.9192
6.382e+09  -0.7893  0.4314  0.01803  -0.009884  -0.04941  0.01302  0.0665  0.9852
6.384e+09  -0.5687  0.7013  0.009241  0.02038  -0.00545  0.04249  0.3986  0.848
6.385e+09  -0.3263  0.8663  0.002898  -0.02067  0.03353  0.03046  0.671  0.6909
6.386e+09  -0.02588  0.8645  -0.01825  -0.007456  0.02056  0.05461  0.8418  0.3996
6.388e+09  0.3062  0.8369  -0.02178  -0.03751  -0.006438  0.005722  0.907  0.1341
6.389e+09  0.6185  0.6761  0.05551  0.05753  -0.02858  0.01033  0.9026  -0.1754
6.39e+09  0.7817  0.495  -0.03016  -0.01475  -0.03735  0.02606  0.7703  -0.5139
6.391e+09  0.8729  0.169  0.01299  0.02578  -0.01717  0.03083  0.5685  -0.7475
6.392e+09  0.9027  -0.1622  -0.03424  -0.00523  -0.009098  0.03123  0.2816  -0.8869
6.394e+09  0.7405  -0.4807  0.005731  -0.02548  0.0154  -0.04542  0.005782  -0.9379
6.395e+09  0.5754  -0.6792  -0.005915  0.01727  0.05862  -0.01015  -0.324  -0.8623
6.396e+09  0.2364  -0.8539  0.01435  0.02795  -0.002975  0.01537  -0.6217  -0.7067
6.398e+09  -0.0401  -0.8903  -0.006143  0.01994  0.01021  0.002874  -0.8078  -0.4654
6.399e+09  -0.3274  -0.8374  0.004618  0.02629  -0.0149  0.02458  -0.903  -0.1455
6.4e+09  -0.6263  -0.6816  -0.003713  -0.0182  -0.00917  -0.001907  -0.901  0.1754
6.401e+09  -0.7742  -0.4042  -0.03332  -0.04125  -0.02412  -0.03993  -0.7862  0.4697
6.402e+09  -0.892  -0.08232  -0.024  0.009034  0.03047  -0.01332  -0.5449  0.752
6.404e+09  -0.8305  0.2155  0.003907  0.009729  0.009862  0.01087  -0.3049  0.8528
6.405e+09  -0.7047  0.4865  -0.004148  0.03393  -0.01762  -0.02854  0.02021  0.9175
6.406e+09  -0.5328  0.7495  0.01975  0.003784  -0.01648  -0.02072  0.2864  0.8862
6.408e+09  -0.2372  0.8177  0.01922  -0.01054  0.009027  0.02973  0.5806  0.6872
6.409e+09  0.04978  0.8334  -0.0007915  0.01415  -0.02318  -0.009904  0.7702  0.4599
6.41e+09  0.3336  0.8338  -0.00191  -0.001413  -0.01416  0.01725  0.9145  0.1916
6.411e+09  0.5979  0.6468  -0.01616  -0.04147  -0.03308  0.03358  0.8767  -0.1433
6.412e+09  0.7817  0.4062  0.00767  -0.005785  -0.05116  -0.02147  0.8372  -0.4739
6.414e+09  0.9152  0.07106  0.01259  0.0006275  0.02095  0.03445  0.5999  -0.6776
6.415e+09  0.8443  -0.2305  -0.0141  0.01378  -0.005554  -0.01458  0.3448  -0.8647
6.416e+09  0.6926  -0.5528  0.01924  0.009213  0.005261  0.04271  -0.03061  -0.9209
6.418e+09  0.5204  -0.7276  -0.03838  -0.001202  -0.07957  0.02625  -0.3234  -0.887
6.419e+09  0.214  -0.8493  -0.0148  0.01224  0.0293  0.01326  -0.488  -0.7229
6.42e+09  -0.09378  -0.869  -0.04726  0.01685  0.00304  0.01955  -0.7339  -0.4668
6.421e+09  -0.3391  -0.7504  -0.01644  0.01636  0.01511  -0.02036  -0.8277  -0.1757
6.422e+09  -0.6282  -0.6461  -0.008006  -0.00692  -0.03302  0.03013  -0.8738  0.07812
6.424e+09  -0.7496  -0.4009  -0.01698  0.0004507  0.005353  0.009564  -0.7702  0.3942
6.425e+09  -0.8753  -0.02563  -0.001365  0.01429  0.02364  0.01902  -0.556  0.6153
6.426e+09  -0.8499  0.2134  -0.04109  0.009894  0.006982  0.0004497  -0.3761  0.8271
6.428e+09  -0.6774  0.535  0.01645  0.01134  0.05349  0.03574  -0.03247  0.8644
6.429e+09  -0.469  0.7059  0.0006208  0.01847  -0.02229  -0.002158  0.2385  0.8761
6.43e+09  -0.175  0.8538  0.005468  -0.03491  0.005198  0.009411  0.5347  0.7316
6.431e+09  0.1427  0.8888  0.03303  0.01507  -0.01951  -0.005445  0.7252  0.5224
6.432e+09  0.4225  0.7431  -0.007028  0.04797  0.06018  -0.02617  0.8678  0.2527
6.434e+09  0.6397  0.5846  -0.001803  0.00633  -0.0371  0.005816  0.8595  -0.09388
6.435e+09  0.7566  0.33  0.02182  0.008049  -0.01974  -0.0199  0.7912  -0.3874
6.436e+09  0.872  0.02981  -0.02079  0.008242  0.03055  0.004355  0.5998  -0.6395
6.438e+09  0.7984  -0.2441  -0.01362  0.01109  0.004269  0.004897  0.3276  -0.8248
6.439e+09  0.6612  -0.5161  0.06394  0.04939  -0.005581  -0.02613  0.1046  -0.8639
6.44e+09  0.502  -0.7204  0.03288  0.02989  0.009702  -0.0125  -0.2311  -0.815
6.441e+09  0.1802  -0.8135  0.007599  -0.02583  0.009757  0.04115  -0.4692  -0.7291
6.442e+09  -0.1071  -0.8534  0.007492  0.05428  -0.01106  0.0268  -0.7466  -0.4726
6.444e+09  -0.4556  -0.7396  -0.005741  0.02748  -0.02621  -0.003244  -0.8075  -0.2001
6.445e+09  -0.7054  -0.5657  -0.01104  0.05672  0.01576  -0.01145  -0.8186  0.06734
6.446e+09  -0.7769  -0.3106  0.03791  -0.03546  -0.06615  -0.005905  -0.8204  0.3981
6.448e+09  -0.8635  0.01783  0.008883  -0.02779  -0.00717  -0.01713  -0.5722  0.5481
6.449e+09  -0.8514  0.2463  -0.04217  -0.01678  -0.01552  -0.0428  -0.352  0.698
6.45e+09  -0.6285  0.5618  0.006369  0.03106  0.02223  -0.0516  -0.05706  0.8464
6.451e+09  -0.4471  0.7236  -0.024  -0.0001907  -0.005578  0.01066  0.2298  0.7827
6.452e+09  -0.1876  0.8886  0.02036  -0.03991  0.002305  -0.002979  0.452  0.6332
6.454e+09  0.123  0.8567  0.007864  0.005215  0.02134  -0.02559  0.6948  0.4922
6.455e+09  0.3938  0.7195  0.01059  0.023  -0.02659  -0.05548  0.8129  0.1886
6.456e+09  0.6504  0.6143  0.009957  0.01744  -0.01837  -0.005626  0.8091  -0.08411
6.458e+09  0.8266  0.317  0.02889  0.01295  0.05251  -0.01329  0.7464  -0.3547
6.459e+09  0.8436  0.0204  0.004244  -0.002988  0.03822  -0.003014  0.5497  -0.5964
6.46e+09  0.8719  -0.3108  -0.03693  0.01204  0.01058  0.02397  0.3504  -0.7764
6.461e+09  0.6777  -0.5525  0.02998  0.01034  0.01861  -0.0265  0.04975  -0.7979
6.462e+09  0.4171  -0.7317  0.00646  -0.003619  -0.04564  0.02049  -0.1543  -0.7765
6.464e+09  0.1794  -0.8412  0.01056  -0.03553  0.0442  0.03191  -0.4452  -0.6218
6.465e+09  -0.1669  -0.8691  0.03045  0.04008  -0.006557  -0.002984  -0.6545  -0.4702
6.466e+09  -0.4057  -0.8232  0.02544  -0.01277  -0.04408  0.004841  -0.7918  -0.2229
6.468e+09  -0.6385  -0.6009  -0.02068  0.03808  0.01447  -0.00145  -0.8088  0.07833
6.469e+09  -0.8118  -0.3009  0.02777  -0.02321  0.05471  0.0009809  -0.7597  0.3497
6.47e+09  -0.8968  -0.04462  0.03087  -0.01756  0.006789  -0.03917  -0.5701  0.6001
6.471e+09  -0.8407  0.2712  -0.0132  0.02797  0.02732  0.02626  -0.3228  0.6932
6.472e+09  -0.6441  0.5812  -0.02956  -0.01043  -0.002167  -0.01169  -0.04534  0.7761
6.474e+09  -0.4311  0.7226  0.02627  -0.007647  -0.03027  0.02298  0.2276  0.7616
6.475e+09  -0.08521  0.8407  -0.007922  0.0154  -0.03421  -0.02628  0.4586  0.6642
6.476e+09  0.1214  0.852  -0.01613  0.02696  0.001676  -0.04892  0.6057  0.4169
6.478e+09  0.4706  0.8155  -0.04962  -0.01976  -0.01708  -0.02574  0.7642  0.1784
6.479e+09  0.6343  0.581  -0.05481  -0.005982  0.01186  -0.02818  0.7972  -0.02888
6.48e+09  0.8409  0.3439  0.004825  0.03455  -0.01639  0.03261  0.6801  -0.3559
6.481e+09  0.9001  -0.004752  0.02997  -0.009794  0.0009082  -0.04207  0.537  -0.5946
6.482e+09  0.8629  -0.2833  -0.03577  0.02424  0.005684  -0.01591  0.299  -0.7059
6.484e+09  0.7524  -0.5998  0.01716  -0.002417  -0.04493  -0.03939  0.07321  -0.8092
6.485e+09  0.3879  -0.7761  -0.03982  0.006625  0.03699  0.01663  -0.2683  -0.7191
6.486e+09  0.1159  -0.9033  -0.005386  -0.02227  0.0004938  -0.0318  -0.4806  -0.6008
6.488e+09  -0.1929  -0.8468  0.03936  -0.02045  0.003035  -0.01159  -0.6311  -0.4186
6.489e+09  -0.4934  -0.7885  -0.01011  0.0008344  0.01401  0.04084  -0.7228  -0.2097
6.49e+09  -0.7419  -0.5423  -0.005298  -0.004759  -0.006859  -0.03999  -0.7497  0.08415
6.491e+09  -0.8871  -0.2734  0.01366  0.01316  -0.01969  -0.009993  -0.6827  0.3447
6.492e+09  -0.9212  0.03526  -0.03329  -0.03169  0.02137  -0.03406  -0.5441  0.5313
6.494e+09  -0.8265  0.3504  0.01058  0.03546  -0.01981  0.04013  -0.3172  0.6905
6.495e+09  -0.6561  0.5908  0.005022  0.01003  -0.0265  -0.01584  -0.04273  0.7775
6.496e+09  -0.4236  0.7957  0.01749  -0.01643  -0.03516  0.002528  0.2402  0.7568
6.498e+09  -0.1221  0.8921  0.04779  -0.06031  0.03511  -0.03061  0.4889  0.596
6.499e+09  0.219  0.8774  0.004409  0.001216  0.008091  -0.03562  0.6665  0.4044
6.5e+09  0.4618  0.7723  0.0126  -0.01952  -0.03213  0.02183  0.763  0.2092
6.501e+09  0.7146  0.5639  0.01592  0.004278  -0.01376  0.008207  0.7365  -0.1387
6.502e+09  0.8373  0.2588  0.005453  0.02007  0.03827  0.03043  0.6742  -0.37
6.504e+09  0.9287  -0.07368  0.02909  -0.01184  0.004651  -0.04302  0.5091  -0.6004
6.505e+09  0.8331  -0.3665  -0.02813  -0.007022  0.03417  0.00262  0.269  -0.7067
6.506e+09  0.6525  -0.5951  -0.01979  0.02913  -0.007932  0.01088  0.04144  -0.7444
6.508e+09  0.4051  -0.8042  -0.03844  -0.004641  -0.07953  0.01975  -0.2445  -0.713
6.509e+09  0.05787  -0.8921  0.0134  -0.01188  -0.03855  0.03062  -0.4562  -0.6256
6.51e+09  -0.1966  -0.9487  -0.02595  -0.01752  0.04947  0.02148  -0.647  -0.3261
6.511e+09  -0.5187  -0.7847  0.02055  -0.02459  -0.004672  -0.009572  -0.7665  -0.1559
6.512e+09  -0.7626  -0.6005  -0.01021  -0.01144  0.0004157  0.01642  -0.743  0.1361
6.514e+09  -0.8952  -0.2699  -0.02155  0.03158  0.02017  0.03876  -0.64  0.3635
6.515e+09  -0.9476  0.06007  -0.02511  0.008477  0.05404  -0.02077  -0.4889  0.5516
6.516e+09  -0.8521  0.3997  0.03249  0.01379  -0.01167  0.02138  -0.2546  0.7045
6.518e+09  -0.6609  0.668  -0.0149  -0.02198  0.02274  0.07507  0.02776  0.7718
6.519e+09  -0.4241  0.866  -0.02579  -0.02697  -0.003695  -0.01921  0.2548  0.7276
6.52e+09  -0.06788  0.9283  -0.0118  0.009285  -0.006  -0.02058  0.5041  0.5405
6.521e+09  0.288  0.9107  -0.009679  -0.03687  -0.03191  -0.04527  0.5938  0.3256
6.522e+09  0.5621  0.7882  0.04906  0.01079  0.02394  -0.04804  0.7244  0.0814
6.524e+09  0.7491  0.5361  -0.003905  0.002285  -0.01232  -0.05123  0.7021  -0.1119
6.525e+09  0.9279  0.2234  0.03702  0.01277  0.01679  0.01369  0.6063  -0.4036
6.526e+09  0.9826  -0.1386  -0.002711  -0.02468  -0.01184  -0.01813  0.4369  -0.6044
6.528e+09  0.963  -0.4645  -0.006838  -0.01669  0.0003865  -0.006974  0.1945  -0.7113
6.529e+09  0.6058  -0.7591  0.01871  0.0009571  0.01663  -0.04552  -0.03145  -0.7114
6.53e+09  0.379  -0.8845  -0.02259  -0.02694  0.02034  -0.03847  -0.283  -0.643
6.531e+09  0.02529  -0.9796  0.01811  0.02491  -0.0133  0.02128  -0.4899  -0.4602
6.532e+09  -0.3393  -0.9002  0.0111  -0.02153  0.01595  0.02997  -0.5972  -0.2715
6.534e+09  -0.6073  -0.7554  -0.03373  0.004556  -0.02089  0.008181  -0.6091  -0.08539
6.535e+09  -0.8113  -0.4947  0.005209  -0.008137  -0.03833  0.02837  -0.6394  0.128
6.536e+09  -0.9708  -0.1729  -0.01282  0.03017  -0.006963  -0.001815  -0.5551  0.3274
6.538e+09  -0.9906  0.1685  0.001591  -0.02921  -0.0172  -0.001688  -0.4499  0.4926
6.539e+09  -0.8204  0.479  -0.012  -0.001555  -0.01929  0.01929  -0.2657  0.6088
6.54e+09  -0.5659  0.7147  -0.005417  -0.002212  -0.01452  -0.008577  -0.05866  0.6505
6.541e+09  -0.3111  0.9244  0.006291  -0.01331  -0.006369  -0.04754  0.208  0.6599
6.542e+09  0.04463  0.9952  0.009427  -0.03384  0.03207  -0.02491  0.4231  0.5751
6.544e+09  0.4067  0.8845  -0.009944  -0.03  -0.02346  -0.01134  0.5938  0.4229
6.545e+09  0.6628  0.6976  -0.003263  -0.008423  0.005517  0.02401  0.7093  0.1659
6.546e+09  0.8552  0.4198  -0.02032  -0.01653  0.01077  -0.004411  0.7384  -0.06865
6.548e+09  0.9563  0.06032  0.01578  0.01447  -0.004898  -0.05087  0.6464  -0.2993
6.549e+09  0.9298  -0.2167  -0.0281  -0.01617  -0.004676  0.03608  0.5139  -0.5021
6.55e+09  0.8337  -0.5616  -0.01374  -0.01836  -0.008363  0.01261  0.2647  -0.694
