# Hz S RI R 50
6.25e+09  -0.3505  0.7715  -0.01438  0.01471  -0.01299  -0.005125  0.1869  0.472
6.251e+09  -0.1634  0.8124  -0.003757  -0.01521  -0.04861  0.03598  0.3585  0.4416
6.252e+09  0.1668  0.8099  -0.03714  -0.03137  0.02126  -0.01051  0.5325  0.2429
6.254e+09  0.4341  0.7166  0.002846  0.02726  0.06337  0.03876  0.5782  0.02856
6.255e+09  0.7039  0.5514  -0.00155  -0.03068  0.04479  0.008205  0.6104  -0.237
6.256e+09  0.8099  0.3089  0.006224  -0.009232  -0.04448  0.03704  0.5035  -0.4271
6.258e+09  0.8423  -0.07479  0.005507  0.009874  -0.0003492  -0.006603  0.2208  -0.6126
6.259e+09  0.7874  -0.3529  -0.01746  0.03097  -0.02879  -0.02651  0.06151  -0.6422
6.26e+09  0.5907  -0.5395  -0.02189  -0.003019  -0.03881  0.0186  -0.228  -0.6359
6.261e+09  0.408  -0.7291  0.003396  -0.01223  -0.02017  -0.004084  -0.4315  -0.5467
6.262e+09  0.143  -0.8434  -0.006673  0.03125  0.00962  -0.02985  -0.6235  -0.3513
6.264e+09  -0.234  -0.8073  0.03934  0.006793  -0.04205  -0.04537  -0.7093  -0.1078
6.265e+09  -0.4224  -0.6667  0.0006793  0.002743  -0.04869  -0.0196  -0.7051  0.1371
6.266e+09  -0.6687  -0.5017  -0.004959  -0.02732  -0.02886  -0.03611  -0.6032  0.4034
6.268e+09  -0.801  -0.2594  -0.007408  0.02087  -0.02036  -0.008582  -0.4448  0.568
6.269e+09  -0.8198  0.0698  0.01053  0.004286  -0.01819  0.01831  -0.1926  0.7194
6.27e+09  -0.7162  0.3394  0.02416  -0.01249  -0.04931  -0.03027  0.09143  0.7412
6.271e+09  -0.561  0.5598  0.01743  0.004966  -0.07151  -0.05931  0.3211  0.6776
6.272e+09  -0.3957  0.739  -0.004509  -0.02107  0.03978  0.02729  0.5583  0.5315
6.274e+09  -0.0655  0.8335  -0.0118  -0.005709  0.05284  0.03792  0.725  0.2997
6.275e+09  0.1317  0.8219  -0.008167  0.008888  0.04898  -0.01638  0.7709  0.01029
6.276e+09  0.4713  0.7225  0.02186  0.01127  0.02205  -0.0005316  0.738  -0.2182
6.278e+09  0.6218  0.5574  0.008921  0.001878  -0.00723  0.02028  0.6152  -0.4669
6.279e+09  0.7598  0.2535  0.005664  -0.01298  -0.02089  0.08723  0.4248  -0.6448
6.28e+09  0.8463  -0.01038  0.004037  0.001371  0.01014  -0.0628  0.1375  -0.7583
6.281e+09  0.7376  -0.3343  -0.01878  0.01163  -0.0006559  -0.01069  -0.1101  -0.7772
6.282e+09  0.604  -0.5517  -0.01984  -0.02219  -0.04521  -0.0187  -0.3665  -0.7174
6.284e+09  0.371  -0.7433  0.001331  -0.01805  -0.01033  0.002289  -0.5932  -0.5099
6.285e+09  0.1217  -0.8756  0.009538  -0.0308  0.02435  -0.04837  -0.7067  -0.2672
6.286e+09  -0.2224  -0.8005  -0.02836  0.02723  0.002275  0.05193  -0.8081  -0.01735
6.288e+09  -0.5087  -0.6882  0.025  0.05114  -0.06866  -0.006348  -0.7391  0.2841
6.289e+09  -0.6515  -0.5182  -5.911e-05  0.0112  -0.0008712  0.03918  -0.6166  0.5097
6.29e+09  -0.8125  -0.1847  0.003573  -0.006293  -0.007606  0.002168  -0.4093  0.7223
6.291e+09  -0.8015  0.04399  -0.02066  -0.01464  0.003679  -0.03492  -0.1352  0.8218
6.292e+09  -0.8052  0.3457  0.02107  -0.01906  0.002609  0.009369  0.1339  0.825
6.294e+09  -0.6117  0.5425  -0.01907  -0.004447  -0.04345  -0.0112  0.3857  0.7244
6.295e+09  -0.3589  0.7887  0.01583  -0.009969  -0.008846  0.004259  0.6329  0.5371
6.296e+09  -0.05006  0.8169  -0.01532  0.003337  0.02292  -0.0418  0.7452  0.2926
6.298e+09  0.2073  0.7973  0.02645  0.01224  0.0254  -0.01712  0.8492  -0.02179
6.299e+09  0.4735  0.6451  0.02091  0.007112  -0.01211  0.06168  0.7858  -0.2278
6.3e+09  0.7297  0.4519  0.02982  0.001698  0.04253  0.022  0.6362  -0.5203
6.301e+09  0.8875  0.1914  -0.02521  -0.005069  -0.04406  -0.007262  0.4204  -0.7414
6.302e+09  0.8084  -0.1017  -0.01035  -0.0381  0.005468  0.01127  0.1378  -0.8224
6.304e+09  0.716  -0.3519  0.01365  0.01946  -0.02657  -0.03296  -0.146  -0.8395
6.305e+09  0.5701  -0.5874  0.02093  -0.00728  -0.02544  0.004854  -0.4269  -0.7223
6.306e+09  0.3562  -0.7269  -0.02127  -0.003366  0.005288  0.001105  -0.6409  -0.5544
6.308e+09  0.04927  -0.7841  0.04753  -0.009792  -0.01419  -0.01939  -0.7998  -0.3265
6.309e+09  -0.1931  -0.8345  -0.04045  -0.006246  0.03396  0.03907  -0.8555  -0.0113
6.31e+09  -0.4901  -0.6412  -0.01144  0.0269  -0.01739  0.004232  -0.8245  0.3076
6.311e+09  -0.6785  -0.391  -0.009319  0.01108  -0.009322  0.01411  -0.6874  0.5395
6.312e+09  -0.8379  -0.1327  0.02075  -0.01746  -0.02512  -0.05569  -0.4644  0.7655
6.314e+09  -0.8586  0.1611  -0.03032  -0.003002  0.02614  0.003489  -0.1722  0.847
6.315e+09  -0.7549  0.4464  -0.001164  0.005509  0.02952  -0.04684  0.1563  0.8521
6.316e+09  -0.5845  0.6379  0.004901  -0.008331  -0.01129  0.008622  0.4299  0.7503
6.318e+09  -0.2969  0.7785  -0.01064  -0.01195  -0.03425  -0.009681  0.6604  0.5957
6.319e+09  -0.03346  0.8445  0.0209  0.0142  -0.03958  0.08302  0.844  0.3062
6.32e+09  0.3153  0.7815  -0.00325  -0.01554  0.02955  -0.007138  0.9022  -0.01973
6.321e+09  0.5114  0.6663  0.01883  0.0003408  0.01607  -0.01662  0.8551  -0.2776
6.322e+09  0.7349  0.3907  -0.007849  -0.01562  -0.01038  -0.004769  0.6889  -0.557
6.324e+09  0.8493  0.1085  -0.02069  -0.004907  0.02906  -0.03555  0.4535  -0.7678
6.325e+09  0.8637  -0.148  0.005937  5.741e-06  -0.03605  0.05931  0.1895  -0.8765
6.326e+09  0.7513  -0.462  -0.04214  0.02565  0.01913  0.03905  -0.1414  -0.8875
6.328e+09  0.516  -0.6506  0.0174  0.009413  -0.01331  -0.02492  -0.4576  -0.7727
6.329e+09  0.2759  -0.8516  0.008817  -0.01357  -0.0328  0.02437  -0.6672  -0.6231
6.33e+09  -0.09159  -0.888  0.02223  -0.001778  0.03285  -0.04426  -0.8431  -0.3453
6.331e+09  -0.3703  -0.814  -0.0132  0.004315  0.02329  -0.002276  -0.8946  -0.04691
6.332e+09  -0.6444  -0.5478  0.001525  0.008255  0.006426  -0.008914  -0.8648  0.2793
6.334e+09  -0.7406  -0.3961  0.01932  0.006882  0.01987  0.01549  -0.7006  0.5656
6.335e+09  -0.8854  -0.03081  -0.02175  -0.009058  0.02044  0.01495  -0.4971  0.7745
6.336e+09  -0.8482  0.2427  -0.00185  -0.0334  0.06902  0.02063  -0.1996  0.8889
6.338e+09  -0.6976  0.4874  -0.03851  0.01015  0.03539  0.06662  0.1192  0.9208
6.339e+09  -0.5002  0.7746  0.01891  -0.005192  0.02206  -0.01872  0.4425  0.8317
6.34e+09  -0.2322  0.8159  0.02441  -0.01297  0.02143  0.006683  0.6667  0.6214
6.341e+09  0.1245  0.8659  -0.06516  0.01406  -0.02738  -0.01354  0.8826  0.3448
6.342e+09  0.4465  0.8008  -0.01499  0.02279  0.01493  0.01208  0.9227  0.02902
6.344e+09  0.681  0.5852  0.007784  0.02274  0.006008  0.025  0.8816  -0.2865
6.345e+09  0.8244  0.3306  -0.009186  0.01692  -0.0002185  -0.00391  0.7667  -0.535
6.346e+09  0.859  -0.004018  -0.01504  0.01244  0.01362  -0.006771  0.5333  -0.759
6.348e+09  0.8776  -0.3078  0.008999  0.0432  0.01965  -0.0472  0.2207  -0.923
6.349e+09  0.6724  -0.5641  -0.04075  -0.01163  -0.006027  -0.0004585  -0.1202  -0.9125
6.35e+09  0.4028  -0.756  0.01454  -0.02592  -0.01308  -0.03587  -0.4513  -0.8558
6.351e+09  0.1012  -0.8494  -0.01227  -0.002042  -0.04435  0.00408  -0.6928  -0.666
6.352e+09  -0.1985  -0.8763  0.007906  -0.03568  -0.01864  -0.02495  -0.8718  -0.3953
6.354e+09  -0.446  -0.7316  -0.04122  -0.01101  -0.01133  0.02984  -0.9442  -0.03095
6.355e+09  -0.7135  -0.569  -0.02114  -0.01831  -0.05532  0.01579  -0.9253  0.268
6.356e+09  -0.8304  -0.3256  -0.001291  0.03492  -0.01652  -0.03437  -0.7264  0.5731
6.358e+09  -0.8921  0.05303  -0.01174  -0.01326  -0.0339  -0.01814  -0.532  0.8233
6.359e+09  -0.8431  0.2978  -0.01613  0.01174  -0.0108  -0.01996  -0.2333  0.9199
6.36e+09  -0.6913  0.6369  0.02156  -0.005526  -0.008557  -0.01235  0.115  0.9406
6.361e+09  -0.4186  0.811  0.02594  0.0223  -0.005777  -0.01962  0.4167  0.8796
6.362e+09  -0.1077  0.8922  0.02056  0.008046  -0.001614  -0.003157  0.6917  0.6862
6.364e+09  0.2057  0.8327  -0.004169  0.02775  -0.004569  0.03464  0.8619  0.4282
6.365e+09  0.4948  0.7193  -0.007464  0.002846  0.004732  0.03733  0.9848  0.07684
6.366e+09  0.7546  0.4991  -0.02248  0.006689  -0.004773  -0.01486  0.9199  -0.2165
6.368e+09  0.8744  0.1876  -0.007399  0.005922  0.02913  0.04379  0.7827  -0.5807
6.369e+09  0.8908  -0.09797  0.01309  -0.01608  0.002364  0.0115  0.5447  -0.7981
6.37e+09  0.8216  -0.4123  -0.001722  -0.01287  -0.0002969  0.005957  0.2625  -0.9145
6.371e+09  0.6321  -0.6625  -0.01824  -0.02091  0.006022  0.02996  -0.0692  -0.9771
6.372e+09  0.3302  -0.8268  0.004863  -0.03288  0.01517  -0.009653  -0.4137  -0.8398
6.374e+09  0.03887  -0.8414  -0.005937  0.004502  0.01894  0.0497  -0.6228  -0.6713
6.375e+09  -0.261  -0.8294  -0.01157  0.0008551  0.002616  0.03049  -0.8482  -0.4251
6.376e+09  -0.5833  -0.6956  0.005139  -0.03978  -0.007159  -0.06513  -0.9535  -0.06648
6.378e+09  -0.7708  -0.4708  -0.006845  -0.05374  -0.03029  -0.0195  -0.907  0.2173
6.379e+09  -0.8605  -0.2054  -0.005207  -0.01172  -0.0385  -0.04017  -0.7631  0.5329
6.38e+09  -0.8474  0.1435  0.02919  0.00972  0.001047  0.02708  -0.5373  0.7849
6.381e+09  -0.7745  0.3742  -0.00514  0.02291  -0.01953  0.03193  -0.2303  0.8977
6.382e+09  -0.614  0.6425  -0.03717  -0.00377  0.02947  -0.01041  0.0703  0.9206
6.384e+09  -0.3104  0.8594  0.04769  -0.05283  0.03015  0.03118  0.3912  0.8572
6.385e+09  -0.01383  0.8846  0.04605  0.002017  -0.04301  -0.002352  0.6442  0.6889
6.386e+09  0.3054  0.8367  0.02412  0.002556  0.01026  0.02684  0.7992  0.3933
6.388e+09  0.5337  0.6877  0.01764  -0.002722  0.01059  0.02072  0.9488  0.1374
6.389e+09  0.7478  0.4677  -0.001989  0.02358  0.006611  0.03017  0.9495  -0.2464
6.39e+09  0.9115  0.132  -0.01582  0.001718  -0.01746  0.01606  0.771  -0.4406
6.391e+09  0.8776  -0.1563  0.02086  -0.01346  0.01253  0.02888  0.5539  -0.7622
6.392e+09  0.7495  -0.4724  0.02974  -0.02422  -0.03912  -0.02916  0.2434  -0.9109
6.394e+09  0.5498  -0.7242  0.0147  0.03656  -0.001297  0.05194  -0.07694  -0.9066
6.395e+09  0.2446  -0.8717  0.01684  0.004059  0.01079  -0.006551  -0.329  -0.856
6.396e+09  -0.01981  -0.8763  -0.004658  0.002125  -0.02052  -0.001144  -0.6058  -0.6972
6.398e+09  -0.3248  -0.8381  -0.01702  0.03108  0.01937  -0.02395  -0.7877  -0.4431
6.399e+09  -0.5572  -0.6673  0.00357  -0.02704  -0.04203  0.03634  -0.9378  -0.09916
6.4e+09  -0.7908  -0.3936  0.03041  0.008136  -0.06904  -0.01475  -0.8972  0.162
6.401e+09  -0.8705  -0.1142  0.01327  -0.0004087  0.05363  -0.02522  -0.7573  0.4885
6.402e+09  -0.8283  0.1939  0.003881  0.001666  0.007119  -0.04243  -0.5871  0.689
6.404e+09  -0.7072  0.531  -0.01356  0.03215  -0.02654  -0.0438  -0.2991  0.8546
6.405e+09  -0.5336  0.6857  0.02692  0.01496  -0.04142  -0.004515  -0.02935  0.9162
6.406e+09  -0.2538  0.8709  -0.02294  -0.03566  0.01395  0.01883  0.3428  0.9019
6.408e+09  0.02946  0.8562  0.02761  0.02495  -0.01779  -0.004056  0.5664  0.7071
6.409e+09  0.3431  0.7993  -0.02501  -0.01654  0.001781  0.03171  0.7677  0.4083
6.41e+09  0.6232  0.6242  0.01752  0.02056  0.02243  -0.04174  0.8458  0.1768
6.411e+09  0.8016  0.4375  0.01222  -0.005076  0.03126  0.0264  0.8975  -0.1681
6.412e+09  0.8938  0.1242  -0.02965  0.02852  -0.03206  0.04731  0.8061  -0.4232
6.414e+09  0.836  -0.2223  0.02435  -0.0265  0.01775  -0.04456  0.5633  -0.7034
6.415e+09  0.7043  -0.4641  -0.01646  0.02328  -0.01684  -0.02079  0.3038  -0.8599
6.416e+09  0.5012  -0.7568  0.04284  0.001528  -0.0147  -0.04255  0.0503  -0.8822
6.418e+09  0.209  -0.8349  -0.0534  0.02056  -0.005113  -0.02204  -0.2921  -0.8073
6.419e+09  -0.05357  -0.9268  0.03561  0.01953  -0.01481  0.012  -0.5703  -0.6764
6.42e+09  -0.3669  -0.8018  0.02115  0.001927  0.02372  0.0137  -0.7508  -0.4773
6.421e+09  -0.5935  -0.6368  0.01667  -0.005137  -0.04703  0.03791  -0.8877  -0.1966
6.422e+09  -0.7889  -0.4079  -0.01957  -0.01304  0.006516  0.011  -0.8999  0.1231
6.424e+09  -0.8904  -0.1088  0.01417  0.01634  0.02196  -0.003236  -0.7896  0.4296
6.425e+09  -0.8817  0.2596  -0.009473  0.02957  0.003884  -0.02544  -0.6062  0.6514
6.426e+09  -0.7127  0.4967  -0.02883  -0.01032  -0.04013  0.01206  -0.368  0.8302
6.428e+09  -0.5334  0.7344  0.0137  -0.02377  0.009498  -0.0364  -0.0648  0.881
6.429e+09  -0.2059  0.8659  0.009768  -0.02572  -0.0509  -0.04309  0.2597  0.8073
6.43e+09  0.054  0.8652  -0.01255  -0.002613  0.0324  0.009777  0.519  0.6899
6.431e+09  0.4141  0.8171  -0.01495  -0.01568  -0.01406  0.01472  0.7381  0.4805
6.432e+09  0.6638  0.6218  -0.01947  -0.01128  0.009551  0.06671  0.8483  0.2111
6.434e+09  0.8449  0.3683  -0.01088  0.03433  0.02897  -0.004193  0.8718  -0.06412
6.435e+09  0.8919  0.0871  -0.005635  0.02282  0.002911  -0.02387  0.7726  -0.3968
6.436e+09  0.8114  -0.2853  -0.02681  -0.003437  -0.0146  -0.002771  0.6221  -0.6267
6.438e+09  0.7114  -0.4955  -0.03313  -0.0005871  -0.03017  0.007754  0.3953  -0.7801
6.439e+09  0.4572  -0.7486  -0.0005593  -0.01228  -0.0292  0.03078  0.08422  -0.8758
6.44e+09  0.2151  -0.8146  -0.02114  -0.05554  -0.02955  0.008045  -0.2519  -0.8558
6.441e+09  -0.1114  -0.8907  0.0529  -0.005276  -0.01778  0.01625  -0.5267  -0.7401
6.442e+09  -0.4222  -0.8163  0.02064  0.009677  -0.02643  -0.009543  -0.7155  -0.5024
6.444e+09  -0.6533  -0.6384  -0.00789  0.03693  -0.008155  -0.005395  -0.8223  -0.1791
6.445e+09  -0.8153  -0.3409  0.02839  0.003853  -0.02088  -0.004965  -0.8531  0.08014
6.446e+09  -0.8841  -0.0423  -0.0605  0.02349  0.02451  -0.06205  -0.7473  0.3572
6.448e+09  -0.8681  0.2199  0.02416  -0.01009  -0.02763  0.008271  -0.5656  0.5956
6.449e+09  -0.687  0.5117  -0.03026  0.002329  0.01366  0.03337  -0.321  0.7334
6.45e+09  -0.4789  0.7752  0.0142  -0.01015  -0.01019  0.02809  -0.0873  0.803
6.451e+09  -0.1819  0.8983  -0.01641  -0.01405  0.03082  -0.00893  0.2114  0.7649
6.452e+09  0.1301  0.8695  0.01005  0.02578  -0.01893  -0.009345  0.4931  0.669
6.454e+09  0.3608  0.7894  0.00902  -0.008012  -0.03828  0.006918  0.6972  0.4628
6.455e+09  0.6983  0.6294  -0.01208  -0.01458  -0.006983  -0.041  0.7607  0.1756
6.456e+09  0.7802  0.296  0.02748  0.02663  -0.0203  0.02284  0.81  -0.123
6.458e+09  0.8741  0.04617  -0.009414  0.02959  -0.01913  0.04501  0.7168  -0.3356
6.459e+09  0.8411  -0.2312  0.009496  -0.02596  -0.01844  -0.03633  0.5644  -0.6135
6.46e+09  0.7278  -0.4913  -0.01307  -0.02634  -0.04331  -0.03641  0.3486  -0.7843
6.461e+09  0.5232  -0.7194  -0.01784  0.0297  0.01675  0.02773  0.1005  -0.8162
6.462e+09  0.2076  -0.8661  0.00629  -0.01087  0.01121  0.05935  -0.2163  -0.7757
6.464e+09  -0.1237  -0.8923  0.04042  -0.01478  0.03824  -0.002521  -0.4376  -0.6596
6.465e+09  -0.3657  -0.7953  -0.004386  -0.01862  -0.02009  0.01287  -0.6571  -0.4162
6.466e+09  -0.6713  -0.627  0.009302  -0.003041  0.04726  0.008251  -0.7942  -0.2386
6.468e+09  -0.8301  -0.281  0.02832  0.03615  -0.03072  0.004359  -0.8366  0.08314
6.469e+09  -0.9164  -0.01766  0.0197  0.00353  0.004974  0.02917  -0.7333  0.3745
6.47e+09  -0.8562  0.2698  -0.001656  0.03846  0.01092  0.01938  -0.5277  0.5921
6.471e+09  -0.7102  0.5728  -0.008318  -0.003573  0.02406  -0.004553  -0.3274  0.7499
6.472e+09  -0.4816  0.7542  -0.01482  0.00631  0.04573  0.03576  -0.1067  0.7845
6.474e+09  -0.1952  0.9182  0.03445  0.003329  -0.003835  -0.05881  0.2104  0.7561
6.475e+09  0.09161  0.8516  -0.01719  -0.002967  -0.004881  -0.0111  0.4382  0.6372
6.476e+09  0.4675  0.8223  -0.0003537  0.01995  0.00325  0.001451  0.6731  0.4284
6.478e+09  0.6233  0.6683  0.02936  0.01099  0.01573  -0.005901  0.7577  0.1791
6.479e+09  0.8294  0.3328  -0.03787  0.03202  -0.04781  0.01597  0.7782  -0.08887
6.48e+09  0.9153  -0.007511  -0.006481  0.02013  -0.005164  -0.02476  0.7083  -0.3443
6.481e+09  0.8657  -0.2999  -0.01208  0.01053  0.04702  -0.01283  0.5533  -0.586
6.482e+09  0.7276  -0.6018  0.004596  0.001596  -0.01643  0.0003253  0.2911  -0.7089
6.484e+09  0.4406  -0.7252  0.01969  -0.001832  0.006219  0.05033  0.03688  -0.809
6.485e+09  0.201  -0.8301  -0.0256  0.003743  -0.03998  0.001274  -0.2165  -0.748
6.486e+09  -0.1304  -0.9264  -0.007267  -0.02917  -0.0666  -0.02385  -0.4233  -0.6461
6.488e+09  -0.4466  -0.825  0.01772  -0.01461  0.01735  -0.005955  -0.6752  -0.4727
6.489e+09  -0.7295  -0.5561  0.01291  -0.02728  0.01461  0.006044  -0.7597  -0.1952
6.49e+09  -0.8665  -0.3487  0.009084  -0.007685  0.0003962  0.006157  -0.7883  0.1044
6.491e+09  -0.8805  0.02881  -0.0555  -0.01889  0.0369  0.01082  -0.6947  0.3365
6.492e+09  -0.8737  0.354  0.007576  -0.006978  0.02803  0.001442  -0.5392  0.5569
6.494e+09  -0.6935  0.5826  0.03539  0.0008256  -0.02101  0.03483  -0.3176  0.747
6.495e+09  -0.4474  0.8494  0.006586  0.02208  -0.01825  -0.01059  -0.02492  0.7761
6.496e+09  -0.1159  0.9244  0.02123  0.0278  -0.00537  0.008306  0.2361  0.7079
6.498e+09  0.1478  0.9242  0.02005  0.03054  -0.03701  -0.008258  0.4558  0.6424
6.499e+09  0.4831  0.7694  0.01883  -0.00786  0.002337  -0.02713  0.6723  0.4162
6.5e+09  0.7025  0.5909  0.02948  -0.003129  -0.013  0.03722  0.7391  0.1842
6.501e+09  0.8756  0.2642  -0.01652  0.01231  -0.009678  -0.00744  0.7918  -0.1104
6.502e+09  0.9039  -0.00702  -0.001806  0.005534  -0.04997  -0.01578  0.6992  -0.3448
6.504e+09  0.8738  -0.3507  0.0007564  -0.0225  -0.02561  -0.02546  0.5168  -0.6127
6.505e+09  0.7286  -0.6661  0.01417  -0.03428  -0.02535  0.01465  0.2547  -0.7223
6.506e+09  0.431  -0.842  -0.03681  0.006864  0.01573  -0.01767  0.01388  -0.7427
6.508e+09  0.05157  -0.9333  0.001613  -0.002019  0.01704  -0.03057  -0.2533  -0.6883
6.509e+09  -0.1664  -0.9284  -0.01828  -0.02682  -0.008525  0.03373  -0.4628  -0.5914
6.51e+09  -0.4884  -0.768  0.01528  0.02743  0.02695  -0.005766  -0.6897  -0.4156
6.511e+09  -0.7148  -0.4971  0.03217  0.001099  -0.03722  -0.05741  -0.7392  -0.1264
6.512e+09  -0.9321  -0.3027  -0.005981  0.007569  0.00165  -0.02726  -0.7276  0.1509
6.514e+09  -0.9188  0.07716  0.0305  -0.001037  0.01798  -0.05059  -0.6159  0.3886
6.515e+09  -0.9088  0.3343  0.009999  0.002345  -0.03611  -0.01653  -0.4734  0.5627
6.516e+09  -0.6738  0.6525  -0.02083  0.02416  -0.01654  0.02563  -0.2331  0.7308
6.518e+09  -0.386  0.8504  0.004075  0.01481  0.01712  -0.0202  0.007246  0.7844
6.519e+09  -0.0842  0.9245  0.007284  0.02324  -0.01183  -0.005779  0.2341  0.7063
6.52e+09  0.2682  0.926  -0.02685  -0.008555  -0.00662  0.03565  0.5108  0.5588
6.521e+09  0.541  0.7944  0.003514  0.02988  -0.01098  -0.01442  0.6197  0.3477
6.522e+09  0.78  0.5279  -0.005842  0.02342  0.03079  0.03376  0.7193  0.103
6.524e+09  0.9734  0.1704  0.003322  0.00477  0.004686  -0.01184  0.7416  -0.1637
6.525e+09  0.951  -0.1607  0.001291  0.02968  0.02209  -0.01585  0.6012  -0.3985
6.526e+09  0.8854  -0.4212  -0.02783  0.006954  -0.04116  0.03306  0.429  -0.6074
6.528e+09  0.6902  -0.685  -0.009235  0.003576  -0.05358  0.0004066  0.2021  -0.7173
6.529e+09  0.387  -0.9081  0.005716  0.01125  0.02775  0.03811  -0.05769  -0.7061
6.53e+09  0.03415  -1.037  0.01409  0.0208  0.04684  -0.03652  -0.2924  -0.6466
6.531e+09  -0.3105  -0.885  -0.008278  0.03733  0.0513  0.008286  -0.5008  -0.4715
6.532e+09  -0.6319  -0.7384  0.005978  0.008264  0.0001886  0.009731  -0.5987  -0.2989
6.534e+09  -0.8925  -0.5091  -0.05414  -0.001663  0.01709  -0.03881  -0.6107  -0.08525
6.535e+09  -0.9798  -0.1188  -0.001266  -0.02473  0.02686  0.009051  -0.6146  0.09657
6.536e+09  -0.9302  0.1499  -0.02048  0.01426  0.008295  0.0107  -0.5577  0.299
6.538e+09  -0.8171  0.4976  -0.01224  -0.00809  0.06663  0.0272  -0.4569  0.4465
6.539e+09  -0.6081  0.7661  0.02943  0.007117  -0.005886  0.002539  -0.2669  0.633
6.54e+09  -0.3081  0.919  -0.02685  0.0009786  0.009266  0.01656  -0.05492  0.6775
6.541e+09  0.04408  0.9689  0.01187  0.01825  -0.05704  0.002693  0.2049  0.6397
6.542e+09  0.3873  0.8779  -0.01732  -0.02436  0.006093  -0.002891  0.4097  0.611
6.544e+09  0.6546  0.6868  -0.01711  0.02515  -8.262e-05  -0.0007653  0.5725  0.4062
6.545e+09  0.803  0.4367  0.01215  0.004869  -0.0006954  0.0005662  0.6561  0.189
6.546e+09  0.9432  0.0942  0.03275  -0.01581  -0.007633  -0.03845  0.7424  -0.05648
6.548e+09  0.9143  -0.2399  0.0144  -0.007771  -0.01138  0.02322  0.6695  -0.3114
6.549e+09  0.7963  -0.5052  -0.01599  0.02376  0.02125  -0.04233  0.518  -0.5141
6.55e+09  0.5808  -0.8139  -0.01297  -0.02715  0.002032  0.0002295  0.3151  -0.686
