# Hz S RI R 50
6.25e+09  -0.4935  0.7289  -0.01399  -0.00424  -0.02522  0.0332  0.1736  0.4593
6.251e+09  -0.1382  0.8878  0.03543  -0.01196  0.0131  -0.006007  0.363  0.4016
6.252e+09  0.1726  0.8191  -0.0006751  0.0187  -0.03325  0.01661  0.5425  0.2288
6.254e+09  0.4936  0.691  -0.00776  -0.0119  -0.01907  -0.03199  0.6169  0.01119
6.255e+09  0.6829  0.4891  0.01638  -0.01809  -0.03049  0.02634  0.5755  -0.2296
6.256e+09  0.7957  0.2528  0.009134  0.01921  0.06445  -0.03199  0.4299  -0.4472
6.258e+09  0.8369  -0.01494  0.002183  0.00547  -0.009262  0.0505  0.2831  -0.5969
6.259e+09  0.7714  -0.3023  -0.01537  0.01912  -0.03395  -0.001158  0.0701  -0.662
6.26e+09  0.6519  -0.5824  -0.003858  -0.009126  0.01246  -0.03032  -0.2028  -0.6412
6.261e+09  0.4378  -0.7151  0.009233  0.001043  0.01522  -0.04773  -0.4427  -0.5384
6.262e+09  0.09359  -0.8115  0.02162  0.01926  -0.02475  -0.07343  -0.6543  -0.3295
6.264e+09  -0.1582  -0.8543  -0.002412  -0.0136  0.009347  0.07811  -0.7176  -0.1222
6.265e+09  -0.462  -0.7222  -0.007958  -0.0214  0.001274  -0.003821  -0.7156  0.1805
6.266e+09  -0.6522  -0.5163  0.004533  0.02227  -0.03522  0.008887  -0.6336  0.3938
6.268e+09  -0.7456  -0.2645  0.02107  -0.008636  -0.003534  -0.01782  -0.4566  0.5581
6.269e+09  -0.8172  -0.02815  0.003917  0.008691  -0.01007  0.01635  -0.2026  0.7045
6.27e+09  -0.7809  0.3553  0.006169  0.02717  0.01103  0.05555  0.03762  0.7012
6.271e+09  -0.623  0.5708  0.01489  0.01012  -0.01606  0.03684  0.2994  0.6573
6.272e+09  -0.3322  0.699  0.01236  0.01344  0.03262  0.06548  0.524  0.5065
6.274e+09  -0.1169  0.8387  -0.01177  0.02743  0.007651  -0.04681  0.6687  0.3038
6.275e+09  0.1343  0.8673  -0.01565  -0.04168  -0.03933  0.02328  0.7558  0.03589
6.276e+09  0.4277  0.7462  -0.004107  -0.02484  0.03991  -0.001442  0.7206  -0.2343
6.278e+09  0.7237  0.5179  -0.02001  -0.0354  -0.03953  0.0332  0.6078  -0.4635
6.279e+09  0.765  0.2325  0.01219  0.002082  0.02903  0.0149  0.4213  -0.6327
6.28e+09  0.8167  -0.07813  -0.01333  -0.003916  -0.0509  -0.007317  0.1621  -0.7715
6.281e+09  0.7315  -0.3307  -0.00171  -0.04027  0.03608  -0.002504  -0.1132  -0.7762
6.282e+09  0.6143  -0.6085  0.000159  0.01748  0.02824  -0.01714  -0.3891  -0.6951
6.284e+09  0.377  -0.7403  -0.02109  -0.002192  0.05411  0.006396  -0.5955  -0.5416
6.285e+09  0.1002  -0.8153  0.01699  -0.008969  0.0394  -0.04334  -0.725  -0.2745
6.286e+09  -0.1746  -0.7805  -0.013  0.004954  -0.009574  -0.01096  -0.7738  -0.02591
6.288e+09  -0.4131  -0.7129  -0.0008545  0.001716  0.04134  0.002593  -0.739  0.2442
6.289e+09  -0.6283  -0.4786  -0.02125  0.00708  0.03324  -0.02814  -0.6394  0.4888
6.29e+09  -0.808  -0.2462  -0.01783  -0.009497  -0.01173  0.0461  -0.4047  0.6914
6.291e+09  -0.8348  0.02299  0.003281  0.03136  -0.008743  -0.003361  -0.1709  0.7865
6.292e+09  -0.7676  0.3686  -0.005295  0.01529  -0.01708  0.02718  0.1204  0.7818
6.294e+09  -0.5121  0.6488  -0.006132  -0.01973  0.03269  -0.00568  0.4298  0.7276
6.295e+09  -0.279  0.7621  0.01435  0.007525  0.02347  -0.06454  0.6068  0.5286
6.296e+09  -0.03914  0.8736  0.005377  0.01472  0.004247  -0.02466  0.7851  0.2963
6.298e+09  0.182  0.8037  -0.01305  -0.002376  -0.03891  -0.03206  0.839  -0.01006
6.299e+09  0.5324  0.6958  0.009647  0.01042  -0.01886  0.01357  0.8075  -0.2672
6.3e+09  0.6832  0.4392  0.00165  -0.02026  0.03069  -0.03529  0.6446  -0.5207
6.301e+09  0.7996  0.1836  -0.00414  -0.03373  0.03024  -0.01773  0.4042  -0.7385
6.302e+09  0.8545  -0.1254  -0.04058  0.0349  0.01239  0.04209  0.1504  -0.8599
6.304e+09  0.6978  -0.3572  -0.007602  -0.002418  0.02164  -0.01222  -0.1408  -0.8764
6.305e+09  0.5178  -0.5595  -0.01136  0.007419  -0.01385  0.01238  -0.429  -0.7418
6.306e+09  0.338  -0.7509  -0.004922  -0.006929  -0.03349  0.01468  -0.6507  -0.5591
6.308e+09  0.02775  -0.8246  -0.02712  -0.02156  -0.005952  0.005406  -0.8081  -0.3204
6.309e+09  -0.2313  -0.7591  0.003344  0.02374  -0.01536  -0.0362  -0.8496  -0.01128
6.31e+09  -0.5184  -0.6765  0.02259  0.007517  0.005008  -0.004269  -0.7939  0.3066
6.311e+09  -0.7474  -0.4231  0.003195  0.004569  -0.005695  0.05949  -0.6628  0.5483
6.312e+09  -0.7789  -0.1729  -0.01872  0.0317  -0.01297  0.01198  -0.4366  0.7409
6.314e+09  -0.7977  0.1752  0.026  -0.04151  -0.01544  0.003092  -0.1713  0.8763
6.315e+09  -0.773  0.3814  0.006771  0.02056  0.01296  -0.008524  0.1404  0.8464
6.316e+09  -0.5336  0.6402  -0.01375  -0.005088  0.01481  0.005147  0.4165  0.7857
6.318e+09  -0.2834  0.7782  -0.001466  0.02299  -0.01864  0.0202  0.6521  0.6119
6.319e+09  0.01497  0.8575  -0.0009891  0.04336  0.03139  0.01278  0.8162  0.2996
6.32e+09  0.3036  0.7945  -0.008617  0.01665  -0.03573  0.01252  0.8962  0.01775
6.321e+09  0.5609  0.6134  0.03183  -0.008048  -0.01455  0.02687  0.8421  -0.311
6.322e+09  0.7043  0.4337  -0.02862  0.02228  0.0566  0.02997  0.6899  -0.5788
6.324e+09  0.9216  0.09275  0.01102  0.00162  -0.01758  -0.003556  0.4629  -0.7848
6.325e+09  0.8182  -0.1423  -0.0008492  0.03111  0.0008223  -0.01564  0.1688  -0.8539
6.326e+09  0.755  -0.452  -0.01949  0.01078  -0.0165  -0.06823  -0.1301  -0.8933
6.328e+09  0.5564  -0.6935  -0.01786  -0.03492  0.02673  -0.005722  -0.4136  -0.7946
6.329e+09  0.2843  -0.8145  -0.02447  0.02226  -0.009035  -0.004298  -0.6628  -0.6217
6.33e+09  -0.08166  -0.8135  0.0009  -0.007255  -0.01446  -0.0114  -0.8341  -0.335
6.331e+09  -0.3481  -0.8422  0.02374  -0.006599  0.02121  0.005128  -0.9349  -0.01501
6.332e+09  -0.6084  -0.6127  -0.007418  0.003212  0.02211  0.003539  -0.867  0.2537
6.334e+09  -0.7918  -0.4126  0.006708  0.001818  0.01705  0.01576  -0.6953  0.5627
6.335e+09  -0.9092  -0.09126  -0.003219  -0.02805  -0.002509  -0.05282  -0.4927  0.7839
6.336e+09  -0.812  0.1686  -0.01298  -0.001684  0.00457  0.02296  -0.1999  0.9107
6.338e+09  -0.7141  0.5172  -0.01928  0.01851  -0.02095  -0.01826  0.1216  0.9099
6.339e+09  -0.5397  0.7494  0.01259  -0.02184  0.009952  0.01588  0.4193  0.8293
6.34e+09  -0.2174  0.837  -0.01055  0.02552  0.05201  -0.02617  0.6786  0.592
6.341e+09  0.1157  0.8825  -0.03794  -0.01004  -0.02819  -0.0008655  0.8476  0.3521
6.342e+09  0.4027  0.8005  -0.01391  0.00467  0.04372  -0.0484  0.9241  0.07538
6.344e+09  0.6234  0.5558  0.02778  0.02352  -0.0389  -0.04021  0.8764  -0.2894
6.345e+09  0.8068  0.3288  0.01062  -0.0162  0.00206  -0.0001349  0.7681  -0.5641
6.346e+09  0.8932  0.02952  0.0009579  0.007997  0.02637  0.06635  0.5077  -0.804
6.348e+09  0.8929  -0.2743  0.03239  0.00205  0.01526  0.02115  0.2201  -0.9657
6.349e+09  0.6962  -0.5939  0.003853  -0.02266  -0.001674  -0.002718  -0.1053  -0.9419
6.35e+09  0.475  -0.7647  -0.03779  0.02413  -0.03553  -0.05273  -0.3989  -0.8521
6.351e+09  0.1302  -0.8669  0.006697  0.01693  -0.0177  -0.01924  -0.6469  -0.6255
6.352e+09  -0.1522  -0.9116  -0.01779  -0.01209  0.02037  0.02188  -0.8598  -0.3815
6.354e+09  -0.4419  -0.7565  0.03491  0.001977  -0.01326  -0.00606  -0.8906  -0.04019
6.355e+09  -0.7199  -0.5333  -0.01032  0.006837  0.01573  -0.004745  -0.875  0.2636
6.356e+09  -0.8912  -0.3297  -0.002908  -0.02264  0.02428  -0.009884  -0.7873  0.5705
6.358e+09  -0.8443  -0.01236  -0.03084  -0.03934  0.00261  0.01516  -0.5499  0.7605
6.359e+09  -0.8206  0.3818  -0.0001766  0.009082  0.02151  0.0006761  -0.2405  0.9483
6.36e+09  -0.6661  0.6895  0.002468  -0.005915  -0.00815  -0.006586  0.0734  0.944
6.361e+09  -0.3714  0.8426  0.03819  -0.03187  0.003039  -0.05699  0.4204  0.8494
6.362e+09  -0.1036  0.8983  -0.03608  0.003734  -0.0197  -0.004464  0.6783  0.6671
6.364e+09  0.1714  0.8906  -0.01153  -0.02869  0.03153  0.01079  0.8974  0.4034
6.365e+09  0.525  0.7673  0.00103  0.01158  0.0939  0.03077  0.8903  0.05529
6.366e+09  0.6972  0.4902  0.01144  0.0008507  0.05569  -0.008319  0.9249  -0.2121
6.368e+09  0.8221  0.2287  -0.04325  0.01603  0.01951  0.005709  0.7512  -0.5637
6.369e+09  0.8885  -0.06734  -0.006798  0.01157  -0.01671  -0.02529  0.534  -0.7845
6.37e+09  0.8179  -0.4143  -0.03544  0.004949  -0.0356  -0.008176  0.2659  -0.9624
6.371e+09  0.644  -0.6167  -0.04967  0.00085  -0.0106  -0.002404  -0.06267  -0.9607
6.372e+09  0.3009  -0.8164  -0.01804  -0.02768  0.02809  0.006481  -0.3643  -0.8675
6.374e+09  0.07485  -0.8863  0.02546  0.02327  -0.003783  -0.005366  -0.6325  -0.655
6.375e+09  -0.2538  -0.8355  -0.008524  -0.01493  0.01004  -0.00471  -0.8864  -0.3895
6.376e+09  -0.5431  -0.6693  -0.02547  -0.03562  -0.02765  0.03086  -0.9326  -0.08809
6.378e+09  -0.7437  -0.5033  0.01118  -0.01327  -0.01184  0.02598  -0.9266  0.2174
6.379e+09  -0.8802  -0.2125  0.0105  -0.0171  -0.009965  -0.01712  -0.7766  0.5571
6.38e+09  -0.8912  0.1328  0.005148  0.02094  -0.0334  -0.0135  -0.574  0.7424
6.381e+09  -0.8239  0.4316  -0.03771  -0.01581  0.007705  0.04666  -0.2746  0.9151
6.382e+09  -0.6026  0.7159  -0.01772  0.0059  0.00715  -0.01719  0.04256  0.9553
6.384e+09  -0.3285  0.868  -0.0236  0.05049  0.02968  0.0127  0.3879  0.8705
6.385e+09  -0.01593  0.8951  -0.01391  0.02005  -0.004205  -0.006132  0.6867  0.6694
6.386e+09  0.2952  0.8648  -0.01213  -0.004418  -0.009923  0.02818  0.8417  0.4266
6.388e+09  0.5657  0.7059  0.01773  0.03128  0.01608  0.03042  0.9326  0.149
6.389e+09  0.743  0.4683  0.05266  -0.001156  -0.02556  0.02652  0.9183  -0.223
6.39e+09  0.8375  0.1763  0.02298  0.01097  -0.03745  -0.01214  0.8165  -0.5424
6.391e+09  0.8762  -0.1666  0.007066  0.0002655  -0.01464  0.0197  0.5165  -0.7574
6.392e+09  0.728  -0.4797  0.0004764  -0.03167  0.0003993  0.04705  0.2558  -0.8565
6.394e+09  0.5381  -0.6929  -0.008105  0.03521  -0.008345  0.01214  -0.03563  -0.9096
6.395e+09  0.3237  -0.84  -0.02017  -0.04586  0.006437  -0.04166  -0.3217  -0.8977
6.396e+09  -0.02964  -0.8672  -0.01207  0.01431  0.02012  0.001165  -0.566  -0.7102
6.398e+09  -0.3456  -0.8046  0.01542  0.008608  0.04053  -0.007075  -0.7971  -0.4178
6.399e+09  -0.6226  -0.6415  0.01043  -0.02163  0.004684  0.0251  -0.8831  -0.1468
6.4e+09  -0.7825  -0.4299  -0.003367  0.0002045  0.02261  0.03465  -0.9225  0.1718
6.401e+09  -0.9029  -0.1216  -0.01281  0.06074  -0.04244  0.004454  -0.8483  0.4515
6.402e+09  -0.8623  0.2206  0.02306  0.04196  -0.04412  0.01504  -0.602  0.7471
6.404e+09  -0.7323  0.4741  -0.0244  -0.04747  0.01803  -0.04113  -0.2935  0.8577
6.405e+09  -0.5613  0.726  0.0002964  -0.02211  -0.01184  0.02449  0.02662  0.9534
6.406e+09  -0.2595  0.8104  0.0185  0.0184  -0.06224  -0.05881  0.2927  0.8884
6.408e+09  0.02811  0.885  -0.004084  0.01864  -0.01562  0.04031  0.5903  0.7163
6.409e+09  0.3828  0.8265  -0.02735  0.01259  0.04224  0.04479  0.7929  0.4983
6.41e+09  0.598  0.6655  0.001745  -0.01797  -0.01913  -0.02372  0.884  0.1306
6.411e+09  0.8157  0.3585  -0.009261  0.03323  -0.01294  -0.01246  0.9261  -0.1225
6.412e+09  0.8959  0.1221  -0.01185  0.03602  -0.03981  0.03271  0.8154  -0.4448
6.414e+09  0.8608  -0.2171  0.01934  -0.02981  0.003636  0.008679  0.599  -0.6436
6.415e+09  0.7355  -0.4899  0.000427  0.009459  -0.03682  0.02965  0.3093  -0.8148
6.416e+09  0.5082  -0.7211  0.01147  0.02896  0.02726  0.01023  0.04192  -0.9014
6.418e+09  0.2522  -0.8416  -0.03996  0.01738  0.01961  -0.02178  -0.2912  -0.8896
6.419e+09  -0.04193  -0.8707  -0.005791  -0.02063  -0.001614  0.008421  -0.5685  -0.7075
6.42e+09  -0.314  -0.8229  0.02308  -0.02639  -0.01299  0.00224  -0.7439  -0.5039
6.421e+09  -0.5717  -0.6655  0.0004354  -0.03684  0.05718  0.03794  -0.8537  -0.2106
6.422e+09  -0.8126  -0.3644  0.05538  -0.03284  -0.01993  0.01487  -0.9167  0.1352
6.424e+09  -0.8744  -0.08052  0.01134  0.01329  0.02624  -0.004091  -0.8046  0.409
6.425e+09  -0.8557  0.2019  -0.01488  -0.01325  -0.009652  0.03576  -0.5739  0.658
6.426e+09  -0.7297  0.5759  0.02037  -0.0133  -0.04602  -0.01723  -0.3014  0.7435
6.428e+09  -0.5053  0.6988  -0.03624  -0.004714  0.02214  -0.008145  -0.02646  0.8501
6.429e+09  -0.2377  0.8509  -0.05033  0.04052  -0.008255  -0.0186  0.2569  0.8232
6.43e+09  0.09678  0.866  0.01752  -0.005782  0.01163  0.05544  0.4811  0.7316
6.431e+09  0.3455  0.8137  0.01749  0.03349  -0.008736  0.01515  0.6469  0.5042
6.432e+09  0.6064  0.6383  -0.02243  -0.03013  -0.01635  -0.02636  0.8562  0.2446
6.434e+09  0.8122  0.3888  0.01905  0.02561  -0.01806  -0.03366  0.828  -0.1085
6.435e+09  0.8797  0.04814  0.01018  0.0172  -0.01944  0.03872  0.7836  -0.3983
6.436e+09  0.8623  -0.234  0.01145  -0.03655  -0.02915  -0.006198  0.5965  -0.6135
6.438e+09  0.7014  -0.4947  0.0004262  -0.06437  -0.01169  0.0359  0.363  -0.7902
6.439e+09  0.5024  -0.7885  0.0383  0.03842  0.02456  0.002685  0.02538  -0.8539
6.44e+09  0.2076  -0.8867  0.007819  -0.01328  0.01549  0.02406  -0.1987  -0.7931
6.441e+09  -0.08395  -0.8485  0.02074  -0.005239  0.0004459  0.04633  -0.5014  -0.6744
6.442e+09  -0.3769  -0.76  -0.01578  0.05839  -0.002668  -0.03324  -0.6918  -0.484
6.444e+09  -0.6056  -0.6011  0.004134  0.01182  -0.007066  0.04019  -0.8725  -0.1967
6.445e+09  -0.7958  -0.3804  0.007773  5.997e-05  -0.01001  0.005139  -0.8574  0.05853
6.446e+09  -0.8866  -0.04383  -0.03829  0.01156  -0.0212  0.003402  -0.7753  0.3919
6.448e+09  -0.8415  0.2074  -0.003237  -0.005217  -0.01436  -0.05826  -0.5897  0.5618
6.449e+09  -0.7285  0.5497  0.01198  0.02279  0.004834  -0.02225  -0.3686  0.7671
6.45e+09  -0.4681  0.6931  0.05148  0.01171  -0.03859  -0.01283  -0.04445  0.8815
6.451e+09  -0.2205  0.8196  -0.0441  -0.03596  -0.02844  -0.01921  0.1804  0.8113
6.452e+09  0.0777  0.9112  0.001002  0.01696  0.002452  -0.05616  0.4731  0.6867
6.454e+09  0.444  0.7752  0.008164  -0.01581  -0.01838  0.01892  0.6844  0.4701
6.455e+09  0.6675  0.6116  0.01878  0.00638  0.02212  0.004107  0.8268  0.1888
6.456e+09  0.7872  0.3088  0.01072  0.0008276  0.03051  0.07212  0.8227  -0.07285
6.458e+09  0.8739  0.03476  0.07864  0.01319  -0.01272  0.05303  0.7556  -0.3521
6.459e+09  0.8189  -0.2594  0.04636  -0.01971  -0.03195  -0.02492  0.5791  -0.5798
6.46e+09  0.7137  -0.5166  -0.00836  -0.01014  -0.02261  -0.04597  0.3441  -0.7171
6.461e+09  0.4883  -0.7685  0.006886  -0.02914  -0.00075  -0.02437  0.07512  -0.7926
6.462e+09  0.2049  -0.8198  -0.003941  0.03184  0.005677  -0.04214  -0.1489  -0.8244
6.464e+09  -0.1327  -0.8783  -0.05416  0.02019  -0.004136  0.01736  -0.4642  -0.6294
6.465e+09  -0.4284  -0.7557  0.03739  0.02347  -0.04249  0.00572  -0.6203  -0.4757
6.466e+09  -0.6829  -0.6096  -0.0403  -0.01076  -0.001363  -0.03811  -0.7374  -0.1834
6.468e+09  -0.8114  -0.3327  -0.03921  -0.04235  0.003845  -0.00356  -0.7682  0.04938
6.469e+09  -0.9363  -0.07205  -0.04939  0.003672  -0.01003  0.0255  -0.7183  0.2888
6.47e+09  -0.8984  0.2831  0.001468  0.009561  0.02701  -0.01498  -0.5574  0.5563
6.471e+09  -0.6788  0.5287  0.001665  -0.02491  0.04571  -0.01393  -0.3362  0.7293
6.472e+09  -0.4789  0.7684  0.01289  -0.05294  -0.008757  0.06871  -0.03964  0.823
6.474e+09  -0.2055  0.8608  -0.02188  0.0611  0.008531  -0.06029  0.2311  0.7768
6.475e+09  0.1302  0.9177  0.02285  0.03204  0.02803  0.0157  0.4822  0.6402
6.476e+09  0.4336  0.7531  -0.0266  0.001759  0.01011  0.008839  0.6722  0.4662
6.478e+09  0.6265  0.6583  0.01129  0.009131  0.01557  0.004754  0.7679  0.1807
6.479e+09  0.9002  0.3607  0.02093  0.00929  0.002003  0.02711  0.768  -0.08472
6.48e+09  0.8971  0.03712  -0.01028  -0.001258  -0.000379  -0.01879  0.7027  -0.3443
6.481e+09  0.8317  -0.2598  -0.02636  -0.04998  -0.01197  -0.02029  0.5717  -0.5442
6.482e+09  0.7154  -0.6366  -0.04019  0.0251  -0.001388  -0.004132  0.3387  -0.7074
6.484e+09  0.5186  -0.7955  -0.04093  0.01605  0.001949  0.003592  0.006552  -0.8114
6.485e+09  0.1226  -0.8689  0.00724  -0.00817  -0.01807  -0.01249  -0.1931  -0.7833
6.486e+09  -0.112  -0.9193  -0.01001  0.05014  0.006036  0.03635  -0.4792  -0.6558
6.488e+09  -0.443  -0.7847  -0.002925  0.01076  0.01585  0.05615  -0.6224  -0.4452
6.489e+09  -0.732  -0.6342  -0.01056  0.03082  -0.02784  -0.01763  -0.7728  -0.1785
6.49e+09  -0.8317  -0.3498  0.03414  0.009923  0.04019  0.0205  -0.7818  0.06144
6.491e+09  -0.9385  -0.02549  -0.003705  -0.009354  0.06225  0.03252  -0.6724  0.3671
6.492e+09  -0.8551  0.2918  0.002399  -0.009315  0.004503  -0.001824  -0.5328  0.5493
6.494e+09  -0.7501  0.5059  0.006318  -0.02394  -0.03413  -0.007555  -0.2928  0.7183
6.495e+09  -0.4774  0.7652  0.0436  -0.03962  -0.0001571  0.01007  -0.0376  0.7738
6.496e+09  -0.1158  0.9964  -0.001098  0.03788  -0.01517  0.02133  0.2441  0.7203
6.498e+09  0.1795  0.89  -0.009091  -0.009953  0.005111  0.01188  0.4676  0.5839
6.499e+09  0.441  0.809  -0.02079  0.01211  0.00142  0.06166  0.6303  0.4523
6.5e+09  0.6901  0.5732  -0.02174  0.000887  0.05576  -0.01494  0.707  0.1976
6.501e+09  0.9225  0.3177  0.02211  0.003867  0.002885  0.0005615  0.766  -0.09302
6.502e+09  0.9662  -0.01992  0.02755  0.02556  0.009012  -0.03095  0.6928  -0.3634
6.504e+09  0.8974  -0.2758  0.02009  0.04659  -0.0512  0.003968  0.5477  -0.5665
6.505e+09  0.7133  -0.6725  0.02309  -0.007039  0.03333  0.05919  0.2961  -0.7049
6.506e+09  0.4457  -0.8158  0.04018  -0.02203  -0.03077  -0.004461  0.02017  -0.7667
6.508e+09  0.1117  -0.9149  0.005339  -0.007445  -0.06867  0.04483  -0.2539  -0.6943
6.509e+09  -0.21  -0.9461  0.01859  0.004279  -0.01704  -0.007272  -0.5127  -0.5896
6.51e+09  -0.5178  -0.7344  0.01347  -0.03946  0.005652  0.0347  -0.6598  -0.371
6.511e+09  -0.7587  -0.5683  0.009085  -0.008235  0.02624  0.04908  -0.7268  -0.171
6.512e+09  -0.9039  -0.2341  0.008357  0.006844  0.009424  0.03975  -0.7451  0.1615
6.514e+09  -0.9596  0.02951  -0.00644  -0.0188  -0.06569  0.01586  -0.669  0.3802
6.515e+09  -0.8881  0.376  -0.01058  0.03989  -0.02681  0.008075  -0.4839  0.5829
6.516e+09  -0.7057  0.6751  0.05847  -0.01725  -0.03796  0.01512  -0.2626  0.716
6.518e+09  -0.425  0.892  0.002012  0.02445  0.01957  0.0134  0.02326  0.7539
6.519e+09  -0.08415  0.8858  0.0249  0.04368  -0.0298  0.06555  0.2968  0.6956
6.52e+09  0.2699  0.9654  -0.01165  -0.008858  -0.04802  0.002299  0.5165  0.554
6.521e+09  0.5563  0.7843  0.008758  -0.02858  0.04864  -0.01982  0.6839  0.3485
6.522e+09  0.7884  0.5519  0.00379  0.01736  -0.0647  0.005188  0.7416  0.1383
6.524e+09  0.9151  0.2282  0.01124  -0.04064  0.02919  -0.03809  0.6928  -0.1264
6.525e+09  1.015  -0.1156  0.006954  -0.02557  -0.0006408  -0.01574  0.5928  -0.3632
6.526e+09  0.8255  -0.4522  -0.006492  0.01005  -0.002313  0.01824  0.3876  -0.599
6.528e+09  0.6367  -0.7539  0.01949  0.007706  0.05807  0.004163  0.183  -0.6967
6.529e+09  0.3751  -0.8456  0.02223  0.02213  -0.01397  0.02874  -0.0434  -0.7062
6.53e+09  0.06166  -0.9708  0.001146  -0.0001505  -0.05291  0.003868  -0.2678  -0.6333
6.531e+09  -0.3723  -0.8799  -0.01797  4.717e-05  -0.01328  -0.03707  -0.4596  -0.462
6.532e+09  -0.6452  -0.7345  0.02146  -0.01961  0.04405  0.003793  -0.6096  -0.3128
6.534e+09  -0.8718  -0.4648  0.006211  -0.01028  -0.02781  0.04504  -0.6243  -0.09605
6.535e+09  -0.9227  -0.2159  0.02786  -1.121e-05  -0.007759  0.02872  -0.6154  0.1159
6.536e+09  -0.954  0.1934  0.04238  -0.005711  -0.0312  0.02671  -0.555  0.2956
6.538e+09  -0.8754  0.4913  -0.01105  -0.01903  -0.003498  0.05462  -0.4299  0.4823
6.539e+09  -0.6451  0.7602  -0.008496  0.02754  0.04343  0.02086  -0.2552  0.6113
6.54e+09  -0.2789  0.9747  -0.01388  0.02719  0.04079  0.0803  -0.0388  0.6797
6.541e+09  0.04082  0.9009  -0.01646  -0.0201  -0.02345  0.002959  0.1876  0.6829
6.542e+09  0.3987  0.9268  0.004835  0.02157  0.02592  0.01104  0.44  0.5637
6.544e+09  0.7202  0.7646  0.005533  -0.02409  0.007091  0.004223  0.6083  0.3863
6.545e+09  0.8127  0.3946  -0.03749  -0.01444  -0.008281  0.0229  0.6993  0.1295
6.546e+09  0.9796  0.1408  0.02544  0.003056  0.04766  0.02846  0.7218  -0.09198
6.548e+09  0.8916  -0.1894  -0.02569  0.02179  0.01145  0.00707  0.6366  -0.3313
6.549e+09  0.7713  -0.5279  0.01303  0.01212  -0.07569  0.05327  0.4942  -0.4867
6.55e+09  0.5289  -0.8227  0.002745  -0.01754  -0.008059  -0.01993  0.3128  -0.683
