# Hz S RI R 50
6.25e+09  -0.6375  0.567  -0.05309  -0.05245  -0.03652  -0.0225  0.1359  0.488
6.251e+09  -0.41  0.6795  -0.0009268  -0.002116  0.03734  -0.06149  0.3639  0.3804
6.252e+09  -0.1349  0.8344  0.01345  -0.0006533  0.04219  0.005895  0.5036  0.2443
6.254e+09  0.2503  0.8544  -0.003118  -0.00293  -0.01086  0.01501  0.5947  0.04365
6.255e+09  0.391  0.7134  -0.002652  0.01742  0.02183  0.03488  0.575  -0.2034
6.256e+09  0.7415  0.557  -0.006075  0.01089  0.03494  -0.001583  0.4718  -0.4574
6.258e+09  0.8205  0.2315  0.009876  0.04571  -0.0007146  0.01113  0.2681  -0.6111
6.259e+09  0.8368  -0.08796  0.02381  -0.01713  -0.003251  0.02151  0.02345  -0.6345
6.26e+09  0.8132  -0.3939  -0.0129  0.01834  -0.01959  -0.04058  -0.213  -0.6765
6.261e+09  0.5725  -0.5841  0.01267  0.00972  -0.01593  0.0259  -0.4582  -0.5063
6.262e+09  0.4305  -0.776  -0.02265  0.01955  0.01354  -0.02231  -0.6394  -0.3517
6.264e+09  0.03493  -0.7906  0.02106  0.006735  0.02385  0.02487  -0.7076  -0.08446
6.265e+09  -0.1562  -0.7745  0.00226  0.0009437  0.02914  -0.006508  -0.6904  0.1613
6.266e+09  -0.4427  -0.6844  0.02525  0.002508  0.05148  0.02026  -0.6281  0.3989
6.268e+09  -0.6654  -0.4748  0.008146  0.04727  0.02142  -0.0007578  -0.4267  0.6039
6.269e+09  -0.8074  -0.2316  0.01607  0.01945  0.004308  -0.02925  -0.1989  0.7189
6.27e+09  -0.7943  0.07237  -0.02718  0.006839  0.01679  0.03159  0.06612  0.7629
6.271e+09  -0.7455  0.3225  0.00555  0.01255  0.05299  0.01465  0.3467  0.659
6.272e+09  -0.5937  0.5472  0.01117  -0.002687  -0.03057  0.001884  0.5662  0.5528
6.274e+09  -0.3265  0.6978  0.004135  -0.004068  0.001325  -0.05142  0.6967  0.2986
6.275e+09  -0.09236  0.7598  0.02629  0.02397  -0.01797  0.03888  0.7817  0.02965
6.276e+09  0.2272  0.8735  0.0007511  -0.004774  -0.03897  0.001503  0.7532  -0.2299
6.278e+09  0.4657  0.6447  -0.006218  0.01704  0.004241  0.1308  0.6326  -0.4832
6.279e+09  0.7003  0.4687  0.02602  0.01992  0.03339  -0.02141  0.4426  -0.645
6.28e+09  0.7985  0.1922  0.01562  0.006938  0.05736  -0.005732  0.1632  -0.7705
6.281e+09  0.7956  -0.04762  0.02638  0.02807  -0.01483  0.01776  -0.1093  -0.7901
6.282e+09  0.7576  -0.3296  -0.001642  0.006163  -0.01444  0.06101  -0.3921  -0.7087
6.284e+09  0.5974  -0.6364  -0.01844  0.02136  -0.0004306  0.04683  -0.5602  -0.5039
6.285e+09  0.3719  -0.7885  0.04138  0.01513  -0.005657  -0.004333  -0.7338  -0.2572
6.286e+09  0.09245  -0.8225  0.007694  0.002934  0.00595  0.01074  -0.8095  -0.01854
6.288e+09  -0.2463  -0.7401  0.0002435  -0.002538  -0.01557  -0.03201  -0.7646  0.2559
6.289e+09  -0.5437  -0.6821  0.003034  0.01055  0.01808  0.002091  -0.6099  0.4789
6.29e+09  -0.6463  -0.4936  -0.02177  0.006295  0.009932  -0.03019  -0.408  0.6983
6.291e+09  -0.8572  -0.1717  0.000157  -0.01423  0.0008762  -0.01518  -0.1391  0.7929
6.292e+09  -0.8243  0.08628  0.0204  -0.03704  -0.02027  -0.006258  0.1051  0.7908
6.294e+09  -0.771  0.3437  0.003536  0.00169  -0.03067  -0.00814  0.4048  0.7042
6.295e+09  -0.6002  0.5993  0.006013  0.003725  -0.01755  0.02094  0.594  0.5289
6.296e+09  -0.305  0.7719  -0.0158  -0.003901  -0.02622  -0.02182  0.7352  0.2969
6.298e+09  -0.004801  0.8426  -0.04156  0.02324  0.04084  0.001514  0.8075  0.03376
6.299e+09  0.2769  0.7316  -0.01477  -0.001896  -0.02675  0.02351  0.771  -0.319
6.3e+09  0.5325  0.6569  -0.009379  -0.03138  0.0006871  0.01401  0.6432  -0.5323
6.301e+09  0.6782  0.416  0.02832  0.00157  -0.01213  7.594e-05  0.4388  -0.653
6.302e+09  0.8263  0.2003  0.005087  -0.002319  0.006774  -0.02814  0.1654  -0.8284
6.304e+09  0.8131  -0.08747  0.02888  0.01985  -0.03295  0.03257  -0.1253  -0.8482
6.305e+09  0.7153  -0.4208  -0.009116  0.02428  0.01745  -0.05512  -0.4473  -0.7284
6.306e+09  0.5431  -0.6336  0.02224  0.0003792  -0.01406  0.02905  -0.6629  -0.5598
6.308e+09  0.2941  -0.7615  0.03338  0.01569  0.02313  0.004121  -0.8016  -0.2985
6.309e+09  0.01972  -0.8859  -0.01989  -0.02782  -0.0005108  -0.05886  -0.8497  -0.01512
6.31e+09  -0.3466  -0.7776  0.005346  0.01751  0.03402  -0.01286  -0.7967  0.3034
6.311e+09  -0.5892  -0.5672  -0.01229  0.0007672  -0.03324  -0.005859  -0.6948  0.5694
6.312e+09  -0.7429  -0.4218  0.04087  0.01978  -0.001174  0.02038  -0.4381  0.7225
6.314e+09  -0.8053  -0.1751  0.001397  0.01351  0.0155  -0.01139  -0.1951  0.837
6.315e+09  -0.8312  0.09902  -0.003764  0.01186  0.04105  0.008074  0.127  0.8794
6.316e+09  -0.7133  0.4262  -0.01025  0.008817  0.00584  0.0344  0.4064  0.7735
6.318e+09  -0.5625  0.6318  -0.002166  -0.01753  0.05231  -0.0001664  0.6782  0.5665
6.319e+09  -0.2939  0.8308  0.0117  -0.02455  0.01865  -0.03313  0.8274  0.3118
6.32e+09  0.03281  0.8755  -0.002107  0.01123  0.01162  0.02569  0.9194  0.02017
6.321e+09  0.3212  0.7769  -0.008992  0.006365  0.02855  0.01309  0.8074  -0.2893
6.322e+09  0.527  0.6115  -0.0131  0.01037  0.02493  -0.01865  0.709  -0.5736
6.324e+09  0.7792  0.3886  -0.01302  0.001166  0.03535  0.01528  0.4781  -0.738
6.325e+09  0.8274  0.08672  -0.003568  0.004688  -0.008517  0.03672  0.1787  -0.8806
6.326e+09  0.8181  -0.1658  -0.007667  -0.01697  0.02703  0.01471  -0.132  -0.8817
6.328e+09  0.7427  -0.4985  0.01179  0.02492  0.04782  -0.04453  -0.4231  -0.7916
6.329e+09  0.4571  -0.707  -0.01069  0.02499  0.01116  -0.03147  -0.6554  -0.6173
6.33e+09  0.2611  -0.8165  -0.02992  0.0082  -0.0153  0.01928  -0.8563  -0.3345
6.331e+09  -0.05184  -0.8553  0.008357  0.02641  0.04118  0.006652  -0.9075  -0.0008146
6.332e+09  -0.3139  -0.7987  -0.0518  0.003456  0.002417  -0.04931  -0.863  0.2968
6.334e+09  -0.6643  -0.6118  -0.00277  0.002782  -0.0005075  -0.02544  -0.7194  0.6105
6.335e+09  -0.769  -0.3462  0.02329  -0.03379  -0.04358  -0.005139  -0.5079  0.7591
6.336e+09  -0.8657  -0.05619  0.01462  0.03224  0.0361  -0.01668  -0.2091  0.8862
6.338e+09  -0.8296  0.2066  -0.01555  0.00595  0.01633  0.01309  0.1078  0.9069
6.339e+09  -0.6934  0.4754  -0.02117  -0.006509  0.01877  -0.03726  0.4204  0.8343
6.34e+09  -0.4798  0.7414  -0.05241  -0.01347  0.03815  0.02034  0.682  0.6434
6.341e+09  -0.1354  0.8669  0.0005702  -0.005319  -0.01346  -0.01177  0.865  0.3528
6.342e+09  0.07844  0.8695  0.006996  0.01781  0.006552  0.00322  0.9155  0.01469
6.344e+09  0.4312  0.7329  -0.006004  -0.03513  -0.0215  -0.01025  0.8933  -0.2765
6.345e+09  0.6647  0.5767  -0.0206  -0.02292  -0.01677  -0.03112  0.7776  -0.5452
6.346e+09  0.8193  0.3168  0.02785  -0.002109  0.01116  0.04093  0.4976  -0.7871
6.348e+09  0.8474  0.002179  0.01012  0.004471  -0.02376  0.009288  0.1779  -0.8864
6.349e+09  0.8685  -0.3273  0.02214  -0.007833  0.04973  0.04868  -0.1471  -0.9346
6.35e+09  0.6796  -0.6009  -0.02245  -0.006484  0.01773  -0.00325  -0.4148  -0.8017
6.351e+09  0.4355  -0.7871  -0.004184  0.00175  0.004598  -0.004126  -0.6627  -0.6239
6.352e+09  0.1017  -0.8319  0.0251  0.008241  0.01659  -0.0615  -0.8095  -0.412
6.354e+09  -0.1879  -0.8426  -0.006961  0.01481  -0.015  -0.04877  -0.9512  -0.05892
6.355e+09  -0.4743  -0.7317  -0.008206  0.002602  -0.02232  0.006643  -0.885  0.2699
6.356e+09  -0.6665  -0.5619  -0.001862  -0.05618  0.006647  -0.01371  -0.7643  0.5612
6.358e+09  -0.8313  -0.2237  -0.01753  0.001702  -0.05212  -0.03249  -0.536  0.7687
6.359e+09  -0.8433  0.04733  0.005541  -0.01203  0.005564  0.0118  -0.2421  0.9499
6.36e+09  -0.7915  0.3751  -0.0419  -0.0004927  0.01522  -0.02201  0.06476  0.948
6.361e+09  -0.6128  0.67  -0.01232  -0.01707  -0.04304  -0.02996  0.4335  0.8365
6.362e+09  -0.382  0.8017  0.0007067  7.579e-06  -0.009463  0.02284  0.6831  0.6227
6.364e+09  -0.03669  0.8775  -0.009832  -0.02758  0.01216  -0.001667  0.921  0.3929
6.365e+09  0.2597  0.8452  0.0008144  -0.004525  0.01984  -0.01215  0.9541  0.06622
6.366e+09  0.5056  0.7136  -0.00522  0.02652  -0.005368  0.01112  0.9469  -0.1952
6.368e+09  0.7382  0.4976  0.003737  -0.003159  -0.03251  -0.02648  0.7643  -0.567
6.369e+09  0.8748  0.1891  0.0005411  -0.002001  -0.02076  -0.01131  0.5095  -0.7716
6.37e+09  0.8406  -0.1091  0.005024  0.004227  0.008216  0.02125  0.2447  -0.9122
6.371e+09  0.7996  -0.3944  -0.03701  -0.009841  0.01982  -0.007143  -0.09987  -0.9098
6.372e+09  0.6188  -0.6786  -0.002285  -0.01274  -0.01812  0.02329  -0.3965  -0.8667
6.374e+09  0.3048  -0.8085  0.02662  0.0002676  -0.02376  -0.03017  -0.672  -0.6834
6.375e+09  0.03061  -0.9157  0.006978  -0.0004051  -0.03794  -0.006915  -0.8539  -0.3653
6.376e+09  -0.3106  -0.8518  -0.01317  -0.02769  -0.0006926  -0.008911  -0.9772  -0.1165
6.378e+09  -0.5637  -0.6811  0.01095  -0.01836  -0.002793  -0.04421  -0.9205  0.2486
6.379e+09  -0.7454  -0.4296  0.02805  0.01114  -0.01321  0.0112  -0.8111  0.5268
6.38e+09  -0.8744  -0.1407  -0.00294  0.009289  -4.907e-05  -0.004018  -0.5489  0.7807
6.381e+09  -0.9104  0.1613  -0.04778  0.002827  0.01753  -0.006252  -0.2586  0.8963
6.382e+09  -0.7635  0.478  -0.02822  -0.004889  -0.011  -0.0167  0.0437  0.9351
6.384e+09  -0.5133  0.713  0.06959  0.03142  -0.0263  -0.02485  0.3501  0.8171
6.385e+09  -0.2677  0.8385  -0.003833  -0.03187  -0.02398  0.01306  0.6252  0.6845
6.386e+09  0.05459  0.9025  0.01139  0.01814  0.01644  0.01425  0.8113  0.4262
6.388e+09  0.347  0.8507  -0.01967  0.02402  -0.02203  0.01748  0.9177  0.1227
6.389e+09  0.6302  0.6654  0.008453  0.0321  0.02935  -0.01155  0.8932  -0.2351
6.39e+09  0.8161  0.371  0.007134  0.01728  -0.02068  0.06666  0.7936  -0.5011
6.391e+09  0.893  0.1188  0.03652  -0.01507  -0.01678  0.03772  0.5354  -0.737
6.392e+09  0.8492  -0.1794  -0.02767  -0.01844  0.03002  -0.05685  0.2476  -0.9081
6.394e+09  0.7323  -0.5073  0.001945  0.009881  -0.001455  -0.009426  -0.0462  -0.9061
6.395e+09  0.492  -0.7215  -0.02879  0.01827  0.02568  -0.00444  -0.3873  -0.8299
6.396e+09  0.2224  -0.8477  -0.01217  0.03107  0.05234  0.01194  -0.6065  -0.679
6.398e+09  -0.1023  -0.8576  0.02092  0.02705  0.05464  0.001473  -0.8039  -0.4306
6.399e+09  -0.3937  -0.7893  0.003759  0.01475  -0.007211  0.07968  -0.8889  -0.13
6.4e+09  -0.6139  -0.6411  0.004373  -0.01136  0.03609  -0.03024  -0.8597  0.1722
6.401e+09  -0.8225  -0.3708  0.01302  -0.02461  0.006558  0.05037  -0.7855  0.4767
6.402e+09  -0.9335  -0.01807  -0.02397  -0.02566  0.02387  0.02062  -0.5978  0.7234
6.404e+09  -0.8118  0.2288  0.001892  0.009695  0.006109  0.02164  -0.3269  0.9001
6.405e+09  -0.7037  0.5107  -0.00337  0.009901  -0.008098  -0.05298  0.01664  0.9667
6.406e+09  -0.4807  0.775  -0.01083  0.06192  0.0384  0.0279  0.3311  0.8553
6.408e+09  -0.1804  0.8683  0.0129  -0.02242  0.01477  -0.04206  0.5514  0.6794
6.409e+09  0.1313  0.8595  -0.02899  0.02705  -0.01354  -0.007812  0.7855  0.4838
6.41e+09  0.4561  0.8246  0.003222  0.009666  -0.03809  0.003188  0.9175  0.1993
6.411e+09  0.6695  0.614  -0.02828  0.01275  -0.01334  -0.05725  0.8671  -0.117
6.412e+09  0.7813  0.3498  0.02159  0.007827  0.06041  0.004242  0.7903  -0.421
6.414e+09  0.847  0.03143  -0.02469  -0.01038  0.04249  0.03971  0.5762  -0.6748
6.415e+09  0.8626  -0.2451  -5.039e-05  -0.0008846  -0.01151  0.01882  0.3452  -0.8034
6.416e+09  0.626  -0.5508  -0.007299  -0.023  -0.004995  -0.04458  0.003633  -0.9114
6.418e+09  0.4622  -0.7437  0.007496  0.01064  0.0001126  0.02556  -0.2654  -0.8357
6.419e+09  0.1474  -0.8553  -0.01758  0.005035  -0.02797  0.02597  -0.5293  -0.7148
6.42e+09  -0.1612  -0.8415  -0.0001011  0.01683  -0.006878  0.05173  -0.7364  -0.463
6.421e+09  -0.3807  -0.764  0.01365  0.0008196  0.005194  0.04274  -0.8681  -0.1831
6.422e+09  -0.6513  -0.5864  0.01878  -0.02001  -0.03481  -0.01084  -0.8984  0.1271
6.424e+09  -0.782  -0.2701  0.01818  0.005261  -0.03566  0.0257  -0.7585  0.4144
6.425e+09  -0.8759  0.02563  -0.02651  -0.01321  -0.007665  0.05417  -0.6283  0.6593
6.426e+09  -0.8228  0.2753  -0.005391  -0.0003585  -0.01557  0.04563  -0.3286  0.8327
6.428e+09  -0.6902  0.5911  -0.004664  -0.00142  0.01096  0.02111  -0.06324  0.8665
6.429e+09  -0.4142  0.7492  0.07216  0.01818  -0.07046  0.0143  0.2676  0.86
6.43e+09  -0.1778  0.8628  -0.002259  0.001489  0.004503  0.03349  0.4892  0.7019
6.431e+09  0.181  0.8235  0.02087  0.0644  0.0006595  0.0129  0.7641  0.5118
6.432e+09  0.4624  0.7319  0.04154  0.0208  0.0219  0.005849  0.8508  0.2059
6.434e+09  0.6796  0.5694  -0.03796  -0.04806  0.007782  0.04659  0.8776  -0.08675
6.435e+09  0.7899  0.2672  -0.02971  0.02453  0.03645  -0.07047  0.7399  -0.3768
6.436e+09  0.8914  0.0616  0.004987  -0.01274  0.02542  0.00738  0.575  -0.5735
6.438e+09  0.8329  -0.3111  0.004382  0.005832  0.005311  0.01365  0.3721  -0.791
6.439e+09  0.624  -0.5395  -0.005871  0.00622  -0.02237  0.06656  0.09777  -0.8523
6.44e+09  0.4292  -0.7843  0.04103  -0.03285  -0.02262  0.02906  -0.1931  -0.8216
6.441e+09  0.1667  -0.8579  0.0008559  -0.04378  0.00764  -0.03556  -0.4881  -0.6817
6.442e+09  -0.1689  -0.8838  0.003466  0.02313  0.03076  -0.008101  -0.7075  -0.4548
6.444e+09  -0.4847  -0.734  0.03273  -0.007421  0.02095  -0.03695  -0.8432  -0.2162
6.445e+09  -0.6716  -0.5481  -0.04372  -0.07341  0.03307  0.05699  -0.7797  0.1027
6.446e+09  -0.8479  -0.2606  0.008646  -0.01335  0.01046  0.0101  -0.8043  0.3542
6.448e+09  -0.8697  -0.02651  -0.007889  0.03059  0.01844  0.002188  -0.5845  0.6089
6.449e+09  -0.8175  0.2896  0.01154  -0.002181  -0.031  -0.00688  -0.376  0.7216
6.45e+09  -0.6428  0.5852  -0.001597  0.04098  -0.0006895  0.009186  -0.05738  0.8073
6.451e+09  -0.4076  0.7323  0.001732  0.002378  -0.008399  0.01958  0.1951  0.7836
6.452e+09  -0.1452  0.8886  -0.04513  0.01191  -0.02529  0.01568  0.4726  0.6333
6.454e+09  0.1304  0.8614  0.00856  -0.04281  -0.02718  0.02508  0.7219  0.5144
6.455e+09  0.4038  0.7176  -0.002438  0.02044  0.0001354  -0.04859  0.819  0.2256
6.456e+09  0.6967  0.5623  -0.006387  0.02671  -0.0086  -0.02507  0.8313  -0.1293
6.458e+09  0.8213  0.3164  0.0291  0.03706  -0.01856  -0.005546  0.7575  -0.3355
6.459e+09  0.8225  -0.0432  0.03283  -0.01523  0.03549  0.03804  0.587  -0.5913
6.46e+09  0.7915  -0.3254  0.01471  -0.01335  0.04517  -0.01445  0.3191  -0.723
6.461e+09  0.6414  -0.5682  -0.03568  -0.03629  0.01299  0.0007265  0.09519  -0.8197
6.462e+09  0.4548  -0.8254  -0.03346  -0.02784  0.04142  0.01666  -0.2132  -0.7489
6.464e+09  0.1564  -0.8303  -0.04721  0.01644  0.02116  -0.01467  -0.4486  -0.6452
6.465e+09  -0.1422  -0.8649  -0.06921  -0.02078  0.0333  0.01537  -0.6414  -0.4795
6.466e+09  -0.4654  -0.7055  0.04958  0.02007  0.06779  -0.002487  -0.7844  -0.2273
6.468e+09  -0.6959  -0.524  0.02409  -0.04018  0.04144  0.04166  -0.7812  0.09813
6.469e+09  -0.8018  -0.2532  0.04076  0.01399  0.03243  -0.01402  -0.7471  0.3352
6.47e+09  -0.8733  0.002594  -0.0153  -0.009676  -0.03456  -0.0006811  -0.5531  0.5537
6.471e+09  -0.8507  0.3487  0.002048  -0.02412  0.03171  0.004211  -0.3565  0.7384
6.472e+09  -0.6392  0.5699  0.02697  0.01663  0.01433  0.002891  -0.09978  0.8116
6.474e+09  -0.4609  0.8109  -0.01283  0.01736  -0.0227  0.009553  0.2201  0.7811
6.475e+09  -0.1022  0.8599  0.01566  0.03786  0.02212  -0.007372  0.5113  0.6349
6.476e+09  0.1987  0.8626  -0.01044  0.02031  0.0367  -0.03723  0.6444  0.4551
6.478e+09  0.4692  0.72  -0.00533  0.0243  -0.01988  0.01075  0.7653  0.1604
6.479e+09  0.6815  0.5239  -0.02908  -0.003049  0.002249  -0.008717  0.7828  -0.09442
6.48e+09  0.8469  0.2293  0.009548  -0.001752  -0.05279  0.03024  0.7311  -0.367
6.481e+09  0.8913  -0.03477  -0.02474  0.007124  -0.04001  -0.04091  0.5474  -0.5856
6.482e+09  0.7662  -0.35  0.0003483  0.02761  -0.007387  0.04375  0.3261  -0.7009
6.484e+09  0.6729  -0.5838  -0.015  -0.01088  0.0021  0.01379  0.03675  -0.7616
6.485e+09  0.3644  -0.8605  -0.02351  0.01315  0.02949  -0.01691  -0.2008  -0.7045
6.486e+09  0.1145  -0.8946  0.02463  -0.01195  -0.004637  -0.0766  -0.451  -0.628
6.488e+09  -0.1884  -0.8367  0.03012  -0.0481  0.05024  -0.007154  -0.6369  -0.4487
6.489e+09  -0.5127  -0.7205  0.03052  -0.002253  0.02635  0.02983  -0.7176  -0.1784
6.49e+09  -0.696  -0.5967  -0.02271  -0.01023  -0.03036  -0.007476  -0.7519  0.07368
6.491e+09  -0.8913  -0.2594  0.01568  -0.02704  -0.02666  -0.03094  -0.6964  0.3539
6.492e+09  -0.846  0.05126  0.002312  -0.01472  0.0006056  0.0172  -0.5616  0.5713
6.494e+09  -0.8004  0.3459  -0.02747  -0.01582  0.01004  0.02136  -0.3067  0.723
6.495e+09  -0.6334  0.6306  -0.02981  0.001626  0.03463  -0.0209  -0.06022  0.7923
6.496e+09  -0.3447  0.8198  0.02307  -0.01383  -0.004978  0.02084  0.2188  0.7317
6.498e+09  -0.1342  0.9233  0.03142  -0.02483  -0.02652  0.008483  0.4871  0.6465
6.499e+09  0.2684  0.8532  -0.02932  -0.02296  -0.01746  -0.001191  0.6874  0.3993
6.5e+09  0.5367  0.7923  -0.02847  0.01904  -0.01795  -0.03435  0.7612  0.1466
6.501e+09  0.7448  0.5309  0.03403  0.0003189  0.03453  -0.01211  0.7881  -0.1268
6.502e+09  0.9173  0.1809  -0.02783  0.04331  0.003426  -0.0297  0.6611  -0.35
6.504e+09  0.9342  -0.1468  0.03422  -0.01158  -0.06131  -0.009935  0.4914  -0.5354
6.505e+09  0.8373  -0.4008  -0.03083  0.002213  0.005262  0.0004784  0.2874  -0.701
6.506e+09  0.6543  -0.6305  -0.02938  -0.01205  -0.01649  -0.02795  0.006588  -0.746
6.508e+09  0.4124  -0.8267  0.009331  -0.05332  -0.01301  0.01682  -0.2706  -0.7207
6.509e+09  0.06048  -0.9183  -0.00604  -0.01667  -0.000821  0.007567  -0.4775  -0.5931
6.51e+09  -0.2381  -0.9097  0.03004  -0.005247  -0.03582  0.03245  -0.6627  -0.3762
6.511e+09  -0.4849  -0.7803  -0.01075  0.03132  0.008989  -0.02733  -0.758  -0.1241
6.512e+09  -0.7822  -0.4898  -0.008959  -0.01888  0.04848  -0.04141  -0.6982  0.1023
6.514e+09  -0.9389  -0.1839  0.01742  0.006176  0.005082  -0.07326  -0.657  0.3838
6.515e+09  -0.8921  0.1335  0.01085  0.002826  0.04316  0.0202  -0.4691  0.5727
6.516e+09  -0.8195  0.4265  0.03264  0.004918  -0.02618  0.002331  -0.2307  0.7068
6.518e+09  -0.6341  0.713  -0.01055  0.00827  0.01831  -0.00979  -0.01834  0.7612
6.519e+09  -0.3509  0.844  -0.02374  -0.002943  -0.004564  -0.02314  0.2544  0.7231
6.52e+09  -0.07995  0.946  0.002455  -0.000972  0.02262  0.03577  0.4787  0.5311
6.521e+09  0.2848  0.9007  -0.01614  -0.007595  0.03229  0.05181  0.6619  0.3444
6.522e+09  0.5754  0.7717  0.001539  0.01139  -0.02847  -0.003135  0.7225  0.0925
6.524e+09  0.8752  0.403  0.005607  -0.03618  0.0613  0.0002178  0.7271  -0.1442
6.525e+09  0.9621  0.1533  0.01404  -0.01362  -0.001795  -0.01523  0.6119  -0.4121
6.526e+09  1.017  -0.1734  -0.01046  -0.001432  0.03461  -0.01773  0.4271  -0.5953
6.528e+09  0.7919  -0.5114  0.009194  -0.01403  0.02283  0.07103  0.1974  -0.6957
6.529e+09  0.5799  -0.7032  0.008814  -0.02066  0.001442  0.001143  -0.05608  -0.6935
6.53e+09  0.3578  -0.9548  -0.0006447  0.03838  0.04101  0.01189  -0.2757  -0.6539
6.531e+09  0.03273  -1.004  0.001889  -0.01001  0.01635  -0.002768  -0.4571  -0.5009
6.532e+09  -0.3379  -0.901  -0.01235  -0.01517  -0.03525  0.03241  -0.5505  -0.2913
6.534e+09  -0.6567  -0.7646  0.02289  -0.0347  0.03077  0.001024  -0.6428  -0.07604
6.535e+09  -0.9084  -0.4513  0.01301  -0.01062  -0.0327  0.02776  -0.6308  0.1217
6.536e+09  -0.9457  -0.1182  0.008067  0.002944  -0.0505  0.01714  -0.5561  0.3181
6.538e+09  -1.011  0.2308  -0.0007794  -0.01446  -0.03453  -0.02737  -0.423  0.4754
6.539e+09  -0.846  0.4987  0.001754  0.0001059  -0.004374  -0.00582  -0.2497  0.5924
6.54e+09  -0.5375  0.7756  0.04295  -0.005903  0.04106  0.02311  -0.0496  0.7246
6.541e+09  -0.2958  0.9428  0.01636  0.001516  0.01069  0.03188  0.1972  0.6685
6.542e+09  0.01468  0.9739  0.01556  -0.01006  -0.01333  -0.02793  0.4231  0.5685
6.544e+09  0.3978  0.9236  -0.02401  0.03106  -0.02955  -0.01195  0.5835  0.4158
6.545e+09  0.6804  0.6744  0.03388  0.0124  -0.05629  -0.03359  0.7212  0.1858
6.546e+09  0.8998  0.406  0.001496  0.03932  -0.002245  0.01072  0.7167  -0.04967
6.548e+09  0.972  0.03883  0.01157  -2.178e-05  -0.0223  -0.06969  0.6689  -0.2997
6.549e+09  0.954  -0.2844  -0.01414  -0.01848  -0.02691  0.01554  0.4718  -0.5311
6.55e+09  0.731  -0.5731  0.02622  -0.000363  -0.007433  0.0187  0.2709  -0.7076
