# Hz S RI R 50
6.25e+09  -0.2941  0.8299  -0.01954  -0.006776  -0.03747  0.007777  0.1694  0.4978
6.251e+09  0.04397  0.9485  -0.02991  -0.007366  0.0259  -0.00889  0.3645  0.3978
6.252e+09  0.299  0.7773  -0.01199  -0.00249  -0.02785  -0.005303  0.5269  0.2603
6.254e+09  0.5764  0.6247  -0.01969  0.01055  -0.05482  -0.01463  0.6064  -0.005262
6.255e+09  0.7516  0.4013  -0.006218  -0.01014  0.01186  0.01905  0.6016  -0.2319
6.256e+09  0.7775  0.1022  -0.01259  0.02623  -0.02878  -0.04847  0.4702  -0.4663
6.258e+09  0.8336  -0.1915  0.02062  -0.009828  0.02002  -0.002676  0.2548  -0.5945
6.259e+09  0.6849  -0.4624  -0.001368  0.02413  -0.04851  -0.03618  0.03972  -0.6861
6.26e+09  0.5071  -0.6408  -0.006446  0.0491  -0.003071  -0.02109  -0.249  -0.6762
6.261e+09  0.243  -0.7846  -0.008174  0.02317  0.05329  -0.02785  -0.42  -0.5055
6.262e+09  -0.0596  -0.8719  0.02378  -0.03162  -0.04694  0.02881  -0.6007  -0.325
6.264e+09  -0.2847  -0.7457  -0.04247  -0.01191  -0.007041  0.03823  -0.7424  -0.1132
6.265e+09  -0.5731  -0.6108  0.004623  -0.02772  -0.009686  -0.02037  -0.7092  0.1477
6.266e+09  -0.7379  -0.425  0.01144  -0.03828  -0.001662  0.01629  -0.6075  0.3877
6.268e+09  -0.8599  -0.1373  0.003644  -0.01643  0.01357  0.007897  -0.4525  0.565
6.269e+09  -0.8412  0.1723  -0.01544  -0.03353  0.02173  0.01025  -0.191  0.691
6.27e+09  -0.6919  0.4214  0.002285  0.005457  0.01266  -0.02325  0.03718  0.7124
6.271e+09  -0.5502  0.6386  -0.003447  -0.008988  -0.001318  -0.0211  0.3332  0.6679
6.272e+09  -0.2525  0.8214  -0.01399  0.03957  -0.0002515  -3.264e-05  0.5418  0.4851
6.274e+09  0.07887  0.87  -0.01848  0.003984  -0.03671  0.02944  0.6911  0.3011
6.275e+09  0.355  0.7211  -0.00835  0.01225  -0.02565  -0.0214  0.7884  0.0653
6.276e+09  0.5873  0.6009  0.02161  -0.04885  0.01288  -0.03266  0.6991  -0.2151
6.278e+09  0.7159  0.3481  -0.05122  0.006342  0.02381  0.02677  0.6311  -0.4672
6.279e+09  0.8765  0.1165  -0.03473  -0.004075  0.04664  0.0418  0.4313  -0.6641
6.28e+09  0.8017  -0.2443  0.00804  -0.01009  0.02029  0.02905  0.1799  -0.7486
6.281e+09  0.6968  -0.4731  0.01042  -0.01951  -0.01283  -0.0565  -0.09954  -0.7315
6.282e+09  0.4943  -0.6639  0.002277  -0.002372  -0.004251  0.006149  -0.3617  -0.6677
6.284e+09  0.2642  -0.8122  -0.008566  -0.01874  -0.0513  0.02673  -0.6187  -0.4937
6.285e+09  -0.0661  -0.7795  0.02349  0.01215  -0.04409  0.032  -0.7261  -0.2878
6.286e+09  -0.335  -0.7373  -0.006669  0.02231  -0.01977  -0.005152  -0.7945  -0.01272
6.288e+09  -0.5902  -0.5752  0.0501  -0.02087  -0.005276  -0.07217  -0.7518  0.2613
6.289e+09  -0.8365  -0.3028  -0.01442  -0.01963  -0.01407  0.01852  -0.6106  0.5328
6.29e+09  -0.842  -0.09005  0.0219  0.0242  -0.03882  0.06107  -0.4105  0.6709
6.291e+09  -0.8286  0.2488  0.0008191  -0.001105  0.04299  -0.03792  -0.175  0.7549
6.292e+09  -0.6988  0.5266  -0.003221  0.007652  0.08188  0.03222  0.1427  0.8049
6.294e+09  -0.4435  0.7014  -0.01664  0.008403  0.00688  -0.05095  0.3844  0.6892
6.295e+09  -0.234  0.8421  0.02376  0.02255  -0.01305  -0.0109  0.6483  0.5389
6.296e+09  0.1263  0.8504  -0.01612  -0.03381  0.006145  -0.004882  0.7746  0.2739
6.298e+09  0.3714  0.7295  0.01387  0.03239  -0.02729  0.01054  0.8235  0.008377
6.299e+09  0.6583  0.5579  -0.0156  -0.0152  0.002477  -0.0117  0.7964  -0.29
6.3e+09  0.7771  0.3046  -0.02362  0.01405  0.02532  -0.03852  0.6414  -0.5359
6.301e+09  0.8019  0.04064  -0.01554  -0.005797  0.03528  -0.03647  0.4262  -0.7026
6.302e+09  0.8022  -0.2476  -0.02128  -0.004009  -0.000204  -0.004003  0.1411  -0.8601
6.304e+09  0.6667  -0.5211  -0.02598  -0.01349  -0.001832  0.0285  -0.1377  -0.837
6.305e+09  0.433  -0.6966  0.02763  -0.005469  -0.005615  -0.01091  -0.464  -0.716
6.306e+09  0.1206  -0.8577  -0.03424  -0.04095  0.02188  0.04861  -0.6226  -0.5536
6.308e+09  -0.1294  -0.8262  -0.004664  -0.01464  0.01001  0.003378  -0.8179  -0.3036
6.309e+09  -0.3981  -0.702  0.001071  -0.003076  -0.01115  -0.01713  -0.8763  0.01179
6.31e+09  -0.695  -0.5651  -0.01512  -0.009343  -0.02105  -0.02606  -0.8269  0.3261
6.311e+09  -0.7961  -0.3201  0.01566  0.02057  0.02646  -0.005168  -0.6707  0.5732
6.312e+09  -0.7791  0.04843  0.01559  -0.02365  -0.03083  -0.006248  -0.4442  0.7691
6.314e+09  -0.7858  0.3058  0.01461  -0.01378  -0.003317  0.02804  -0.1628  0.8654
6.315e+09  -0.6323  0.5727  -0.02434  0.02458  -0.03296  -0.0217  0.1623  0.8419
6.316e+09  -0.3915  0.749  0.0139  -0.01138  0.01877  0.01048  0.4698  0.7527
6.318e+09  -0.1368  0.8706  0.01874  0.006355  0.0457  -0.04628  0.6691  0.5824
6.319e+09  0.185  0.8192  -0.007578  -0.004792  -0.0008033  0.02883  0.8458  0.3043
6.32e+09  0.4985  0.7562  0.02943  -0.01514  0.001343  0.004998  0.8985  0.01815
6.321e+09  0.6506  0.4813  -0.006121  0.008984  0.01549  -0.01601  0.8297  -0.2775
6.322e+09  0.8182  0.2391  0.000102  0.005763  0.004718  0.01492  0.7213  -0.5842
6.324e+09  0.8434  -0.04858  -0.009671  -0.03678  0.044  -0.04032  0.4797  -0.7584
6.325e+09  0.7827  -0.3136  -0.02592  0.005343  -0.008493  -0.03139  0.1717  -0.8723
6.326e+09  0.6125  -0.6393  -0.01199  -0.02229  -0.04721  0.0266  -0.1365  -0.8728
6.328e+09  0.4113  -0.8054  -0.01025  -0.0106  -0.04586  -0.007997  -0.4234  -0.812
6.329e+09  0.06308  -0.8097  -0.01402  0.0102  -0.001177  -0.04569  -0.6764  -0.6205
6.33e+09  -0.2491  -0.8298  -0.01884  0.03313  0.01747  0.02107  -0.8355  -0.353
6.331e+09  -0.531  -0.7308  0.002695  0.007605  -0.03555  0.03148  -0.884  0.002139
6.332e+09  -0.7031  -0.4791  -0.02705  -0.001335  0.02339  -0.01757  -0.883  0.2721
6.334e+09  -0.8172  -0.1713  0.02155  0.02663  0.02287  -0.03956  -0.7127  0.5481
6.335e+09  -0.815  0.1178  0.006251  -0.0346  -0.008588  0.01849  -0.5192  0.7822
6.336e+09  -0.7419  0.401  0.03518  0.004525  -0.01827  0.003934  -0.1845  0.8912
6.338e+09  -0.5815  0.6441  -0.03021  0.008335  -0.02613  8.776e-05  0.1174  0.8938
6.339e+09  -0.3095  0.8197  -0.01056  -0.02943  -0.0384  0.04897  0.4436  0.8052
6.34e+09  -0.02424  0.8291  -0.005379  -0.01977  0.007711  0.00289  0.6463  0.6261
6.341e+09  0.3059  0.8531  0.006594  -0.014  0.05605  0.02314  0.863  0.4081
6.342e+09  0.5674  0.6439  0.02699  0.02029  0.01438  0.008283  0.9341  0.07457
6.344e+09  0.7508  0.4515  0.04856  -0.01036  0.01608  0.02189  0.8929  -0.2552
6.345e+09  0.8984  0.1762  -0.008419  -0.02507  -0.01351  -0.004045  0.7234  -0.5725
6.346e+09  0.8667  -0.1085  -0.02198  -0.03683  -0.03218  -0.05679  0.5136  -0.7904
6.348e+09  0.7158  -0.4615  0.02746  0.01772  -0.02146  -0.06009  0.2378  -0.9222
6.349e+09  0.5466  -0.6905  0.01664  0.01628  -0.04401  0.02459  -0.12  -0.8901
6.35e+09  0.2971  -0.8584  -0.02718  0.02529  -0.02461  0.02641  -0.4565  -0.8256
6.351e+09  -0.002651  -0.9029  0.00653  0.01212  0.00913  0.01062  -0.7356  -0.6353
6.352e+09  -0.3474  -0.8236  -0.01096  -0.03665  0.04142  0.03662  -0.8384  -0.3835
6.354e+09  -0.6013  -0.6281  0.0505  0.01177  -0.01707  -0.01409  -0.9535  -0.07879
6.355e+09  -0.8302  -0.3755  -0.01856  -0.02302  -0.0518  0.0314  -0.8927  0.2539
6.356e+09  -0.8879  -0.07057  0.0238  -0.02755  0.02389  -0.005616  -0.7787  0.5611
6.358e+09  -0.8433  0.2493  0.03055  -0.01154  -0.02942  0.01437  -0.5499  0.8061
6.359e+09  -0.7333  0.5453  -0.01382  0.0197  0.01594  0.0102  -0.2174  0.9596
6.36e+09  -0.5039  0.7411  0.005695  0.008931  0.008853  -0.002723  0.07393  0.9143
6.361e+09  -0.2241  0.9063  -0.04641  0.02221  0.03243  0.0303  0.4254  0.8632
6.362e+09  0.122  0.9371  -0.03451  0.0343  -0.003826  0.02226  0.6729  0.6597
6.364e+09  0.4007  0.8172  0.05314  -0.03156  0.03203  0.02925  0.873  0.4129
6.365e+09  0.6861  0.622  0.006243  -0.03531  -0.003984  -0.04897  0.9738  0.04797
6.366e+09  0.8191  0.3358  0.001895  0.03514  -0.04597  0.03366  0.8857  -0.2401
6.368e+09  0.9155  0.05679  0.01921  0.003405  -0.01007  0.001666  0.756  -0.5467
6.369e+09  0.8007  -0.2912  0.01459  0.02156  0.01546  -0.01135  0.5826  -0.7938
6.37e+09  0.6987  -0.5578  -0.01936  -0.02383  0.04636  0.01135  0.3114  -0.902
6.371e+09  0.4893  -0.7379  -0.02784  0.002643  -0.02276  -0.01593  -0.04768  -0.9084
6.372e+09  0.1758  -0.9182  0.002073  -0.0228  0.006124  0.02947  -0.3833  -0.8935
6.374e+09  -0.1399  -0.8444  -0.01092  0.04695  -0.05449  0.00765  -0.6272  -0.6611
6.375e+09  -0.4674  -0.7596  -0.01791  -0.02241  0.02584  -0.01804  -0.8161  -0.4371
6.376e+09  -0.6626  -0.5624  -0.01025  0.01514  -0.01588  0.06624  -0.951  -0.09383
6.378e+09  -0.8359  -0.2871  -0.01319  -0.03774  -0.0007152  0.004746  -0.9019  0.2513
6.379e+09  -0.8684  -0.04428  -0.03169  -0.01088  -0.02497  0.02969  -0.8227  0.5248
6.38e+09  -0.8217  0.2947  0.007279  -0.01215  0.01136  0.01154  -0.559  0.7403
6.381e+09  -0.6931  0.6273  0.01226  -0.005739  -0.005753  -0.02671  -0.2825  0.8931
6.382e+09  -0.4386  0.7585  0.0144  0.02578  -0.004588  0.03481  0.1066  0.9302
6.384e+09  -0.156  0.8679  -0.01218  -0.01101  -0.01435  0.005871  0.3603  0.8463
6.385e+09  0.1598  0.9041  0.004632  0.009168  -0.01372  0.02761  0.613  0.6879
6.386e+09  0.447  0.7741  0.007798  0.004791  -0.0253  0.02151  0.8181  0.4227
6.388e+09  0.7255  0.5684  0.0007383  -0.001218  -0.03786  -0.003335  0.9425  0.07959
6.389e+09  0.8884  0.2625  -0.01098  0.02088  0.002674  0.04627  0.9117  -0.2054
6.39e+09  0.877  -0.02648  0.01361  0.02478  -0.006956  0.01342  0.7861  -0.4539
6.391e+09  0.8181  -0.3323  0.02577  0.009053  -0.01771  0.03887  0.5656  -0.7681
6.392e+09  0.6999  -0.5608  0.02654  -0.02574  -0.00718  0.02903  0.3047  -0.9118
6.394e+09  0.4236  -0.8005  -0.005494  0.009673  -0.01412  -0.01657  -0.01921  -0.9366
6.395e+09  0.1479  -0.8477  0.03508  -0.02803  0.001999  -0.01207  -0.3596  -0.8327
6.396e+09  -0.1916  -0.8909  -0.01188  -0.01605  -0.002648  -0.01393  -0.6681  -0.6363
6.398e+09  -0.4749  -0.7552  0.003694  0.03522  -0.03393  0.001772  -0.8308  -0.4606
6.399e+09  -0.718  -0.5415  0.04516  -0.0167  -0.02632  -0.009004  -0.8825  -0.1277
6.4e+09  -0.8796  -0.2552  0.01259  0.04171  0.008575  0.01283  -0.894  0.1808
6.401e+09  -0.9187  0.007672  0.01061  0.04223  0.005833  -0.04882  -0.8138  0.4343
6.402e+09  -0.8238  0.3899  -0.02027  0.003679  0.005896  -0.02282  -0.618  0.7174
6.404e+09  -0.6523  0.6289  0.003919  0.04832  -0.02311  -0.006015  -0.3257  0.8729
6.405e+09  -0.3397  0.7809  -0.01511  -0.07031  -0.001125  0.03747  0.01429  0.9105
6.406e+09  -0.08783  0.8401  0.05404  0.01591  0.01225  0.03445  0.318  0.8716
6.408e+09  0.2402  0.8493  -0.05206  0.0668  -0.01567  -0.04355  0.5988  0.7318
6.409e+09  0.4728  0.7216  0.03378  0.008733  0.01644  0.04359  0.796  0.4826
6.41e+09  0.7602  0.5416  -0.009693  0.05406  0.01137  -0.001662  0.8833  0.1691
6.411e+09  0.8684  0.2559  0.004706  -0.004002  0.02237  0.007598  0.854  -0.1309
6.412e+09  0.8691  -0.09463  0.02557  -0.008634  0.06357  -0.02026  0.8535  -0.4258
6.414e+09  0.8157  -0.4019  0.02926  0.01969  -0.01184  0.002051  0.599  -0.6565
6.415e+09  0.6739  -0.6383  -0.01384  0.03747  0.04096  0.02456  0.3684  -0.8701
6.416e+09  0.3469  -0.7884  -0.00702  0.01447  0.008382  -0.0009941  -0.03463  -0.8761
6.418e+09  0.03867  -0.8824  0.03885  0.006123  0.02922  -0.01622  -0.2709  -0.8504
6.419e+09  -0.2525  -0.8216  0.03293  0.0354  0.01252  -0.01404  -0.5858  -0.7281
6.42e+09  -0.5202  -0.7191  0.004868  -0.002  -0.0265  0.001944  -0.7387  -0.4934
6.421e+09  -0.6986  -0.5128  0.05543  -0.009229  0.009593  -0.02738  -0.8458  -0.1944
6.422e+09  -0.8399  -0.2555  0.008254  -0.004384  0.00253  -0.02231  -0.8698  0.1096
6.424e+09  -0.8743  0.1087  0.001102  0.04614  0.01462  0.04286  -0.6958  0.4243
6.425e+09  -0.8134  0.4102  -0.01434  -0.06926  0.02398  -0.01201  -0.5513  0.6601
6.426e+09  -0.5891  0.6242  0.03862  -0.03498  -0.05216  -0.02126  -0.337  0.8175
6.428e+09  -0.3831  0.8452  -0.008752  0.07456  -0.004614  0.0312  -0.04433  0.8875
6.429e+09  -0.06663  0.9188  -0.01597  0.02597  0.008993  -0.04575  0.218  0.8446
6.43e+09  0.2405  0.8733  -0.02625  0.05287  0.03383  0.007742  0.5281  0.6853
6.431e+09  0.5521  0.7448  -0.04681  0.08429  0.01317  -0.03017  0.7208  0.5121
6.432e+09  0.7837  0.504  -0.01228  -0.004949  -0.01194  0.02952  0.7943  0.203
6.434e+09  0.8707  0.1966  -0.002608  -0.01314  0.05767  0.07743  0.8667  -0.08075
6.435e+09  0.8328  -0.141  -0.02406  -0.03568  -0.01767  -0.04145  0.7936  -0.3402
6.436e+09  0.8073  -0.4689  0.02939  -0.01016  0.01933  0.00638  0.6349  -0.6338
6.438e+09  0.5686  -0.6485  0.0212  -0.01552  -0.01251  0.02212  0.3362  -0.8258
6.439e+09  0.3662  -0.7658  -0.01113  -0.03695  0.006026  0.01621  0.01289  -0.8275
6.44e+09  0.04545  -0.8993  0.02621  0.02367  -0.02338  0.01812  -0.2131  -0.8161
6.441e+09  -0.2204  -0.8362  -0.01353  0.02766  0.02434  -0.01037  -0.5146  -0.7235
6.442e+09  -0.5323  -0.7076  -0.008182  -0.0365  0.01571  0.0193  -0.7066  -0.4683
6.444e+09  -0.7421  -0.4628  -0.007162  -0.02983  0.01593  0.0309  -0.8348  -0.2031
6.445e+09  -0.8721  -0.2467  -0.03249  0.0218  -0.01155  0.01162  -0.8381  0.08103
6.446e+09  -0.8798  0.1135  -0.06729  0.0278  -0.0008478  -0.0168  -0.765  0.3644
6.448e+09  -0.8096  0.4286  -0.01776  -0.001376  0.007589  0.01374  -0.6295  0.6084
6.449e+09  -0.567  0.6583  -0.009533  0.002741  0.07969  -0.02415  -0.2993  0.7761
6.45e+09  -0.3281  0.8171  -0.0007586  -0.01041  0.01311  -0.0452  -0.04051  0.7983
6.451e+09  -0.04821  0.8816  0.02087  0.006928  0.02052  0.01256  0.2258  0.8131
6.452e+09  0.2452  0.8781  0.00646  0.02284  0.008533  0.01818  0.4903  0.658
6.454e+09  0.5993  0.6866  0.02127  0.03672  -0.00716  0.01866  0.6758  0.5318
6.455e+09  0.7712  0.4281  0.001152  -0.01527  -0.02626  -0.0272  0.7946  0.1994
6.456e+09  0.8996  0.1406  -0.01538  -0.01042  0.006187  0.03425  0.8161  -0.1034
6.458e+09  0.9312  -0.141  0.02573  -0.008859  0.005568  0.005794  0.74  -0.3526
6.459e+09  0.8194  -0.46  -0.03653  0.00895  -0.02931  -0.03475  0.5784  -0.5564
6.46e+09  0.5436  -0.666  0.01028  -0.02273  0.000115  -0.02053  0.3566  -0.7657
6.461e+09  0.3896  -0.7713  0.006764  -0.0126  0.005897  -0.03158  0.02168  -0.7885
6.462e+09  0.003283  -0.8806  -0.03896  -0.03287  -0.003824  0.004459  -0.2065  -0.7814
6.464e+09  -0.2786  -0.8248  0.0004236  0.004784  0.02953  0.06466  -0.4791  -0.6809
6.465e+09  -0.5786  -0.652  0.02082  0.06209  -0.06777  -0.01749  -0.6667  -0.4663
6.466e+09  -0.7667  -0.4936  -0.001713  -0.0168  0.006736  0.01367  -0.807  -0.2055
6.468e+09  -0.9017  -0.1519  -0.0177  -0.06255  0.004005  -0.02788  -0.7999  0.06214
6.469e+09  -0.8817  0.1649  -0.0231  0.01291  -0.008647  0.009204  -0.7383  0.3265
6.47e+09  -0.8351  0.4843  -0.001052  -0.01881  -0.004213  -0.01019  -0.5617  0.5568
6.471e+09  -0.5692  0.7702  0.03728  -0.01763  0.02137  0.02421  -0.3035  0.7204
6.472e+09  -0.327  0.8879  -0.02277  -0.01039  0.04796  0.0162  -0.07848  0.7746
6.474e+09  0.03262  0.9813  -0.06299  -0.0162  0.06061  0.00673  0.1923  0.7679
6.475e+09  0.3063  0.8764  -0.02399  -0.002737  0.008492  0.02421  0.4814  0.6501
6.476e+09  0.578  0.7371  0.009514  0.003052  0.04061  -0.004414  0.6103  0.4245
6.478e+09  0.8571  0.4649  -0.02914  -0.002321  -0.01069  0.02461  0.7986  0.1906
6.479e+09  0.9457  0.1543  0.01189  0.02186  -0.03051  -0.009004  0.7783  -0.07365
6.48e+09  0.9118  -0.1461  -0.01029  -0.02991  -0.01676  0.006006  0.6763  -0.299
6.481e+09  0.7846  -0.4737  -0.009621  0.02731  0.06105  -0.01313  0.5681  -0.5563
6.482e+09  0.5785  -0.7372  0.01168  -0.04713  0.006204  0.0009601  0.3208  -0.7195
6.484e+09  0.271  -0.847  0.01331  0.03753  -0.02378  0.05326  0.05448  -0.8007
6.485e+09  -0.06439  -0.9431  0.00272  0.001842  -0.03228  -0.007469  -0.2298  -0.7604
6.486e+09  -0.3792  -0.8519  0.01727  0.02237  0.02025  -0.02525  -0.4838  -0.6262
6.488e+09  -0.5875  -0.7319  0.004946  -0.02148  -0.02721  0.003472  -0.6432  -0.4002
6.489e+09  -0.8102  -0.4692  0.01674  -0.02145  0.01507  -0.02864  -0.7431  -0.171
6.49e+09  -0.9419  -0.09276  -0.03008  0.002789  0.01232  -0.01701  -0.7572  0.107
6.491e+09  -0.9577  0.2402  -0.0003867  0.01627  0.008029  -0.006345  -0.6903  0.3037
6.492e+09  -0.7841  0.5179  0.003422  -0.007704  -0.05651  -0.02664  -0.5249  0.5419
6.494e+09  -0.597  0.7639  -0.007655  -0.03704  0.001645  -0.008305  -0.305  0.7165
6.495e+09  -0.2472  0.9444  -0.003497  0.03955  0.05103  0.01669  -0.0413  0.7497
6.496e+09  0.07465  0.9276  0.02529  0.02844  0.008878  0.004573  0.1934  0.7246
6.498e+09  0.4341  0.9075  0.01723  0.006673  0.01848  0.007105  0.4651  0.5913
6.499e+09  0.6553  0.669  -0.009239  0.0006793  -0.01608  -0.01595  0.6305  0.3847
6.5e+09  0.8737  0.3979  -0.0213  0.02685  0.008887  -0.0009556  0.7299  0.1844
6.501e+09  0.9131  0.1122  -0.01989  -0.0112  0.006035  -0.02465  0.7817  -0.1104
6.502e+09  0.9057  -0.2001  -0.02262  -0.01657  0.02642  0.008845  0.6845  -0.3447
6.504e+09  0.7291  -0.543  -0.02139  -0.01683  0.03881  0.06272  0.5221  -0.5726
6.505e+09  0.5299  -0.7343  -0.02121  -0.009544  0.007088  0.0111  0.2956  -0.7083
6.506e+09  0.2346  -0.91  0.004166  0.01278  -0.01876  0.03059  0.02968  -0.7471
6.508e+09  -0.144  -0.9734  0.02162  0.03327  -0.0677  0.05414  -0.2535  -0.723
6.509e+09  -0.4694  -0.8233  0.00651  0.0006261  0.01662  -0.02206  -0.5092  -0.5812
6.51e+09  -0.7023  -0.6901  0.01198  -0.02319  0.004135  0.01857  -0.6674  -0.3834
6.511e+09  -0.924  -0.4059  -0.0113  -0.006318  0.006256  -0.04969  -0.7753  -0.107
6.512e+09  -0.9213  0.01499  -0.01383  0.03425  -0.000572  0.01091  -0.753  0.1363
6.514e+09  -0.9014  0.333  0.01118  0.02983  -0.01657  -0.03025  -0.6964  0.3262
6.515e+09  -0.7559  0.6349  0.01485  0.005182  0.008997  0.02649  -0.4824  0.5917
6.516e+09  -0.4771  0.8746  0.01948  -0.05402  -0.08682  0.03357  -0.2726  0.6964
6.518e+09  -0.1511  0.9242  -0.02317  0.01659  0.03989  -0.017  0.009068  0.7223
6.519e+09  0.178  0.9204  0.004763  -0.02033  -0.004326  0.02534  0.284  0.7117
6.52e+09  0.4835  0.7995  0.009771  -0.01913  -0.04312  0.01339  0.486  0.5506
6.521e+09  0.7425  0.6482  0.03119  0.01784  -0.01011  0.007372  0.648  0.3841
6.522e+09  0.8867  0.2707  0.03293  0.008496  -0.0304  0.02248  0.7154  0.1182
6.524e+09  0.9642  -0.05242  0.02295  -0.001887  0.00477  -0.02249  0.7001  -0.1374
6.525e+09  0.8992  -0.3304  -0.01164  0.02498  3.259e-05  0.007566  0.6184  -0.4091
6.526e+09  0.7187  -0.6628  0.008924  0.01951  0.01874  0.0135  0.453  -0.5837
6.528e+09  0.4435  -0.8204  0.0375  0.01317  0.01625  0.041  0.1898  -0.7054
6.529e+09  0.05838  -0.9881  0.01871  -0.01055  0.0007799  -0.0107  -0.06421  -0.6971
6.53e+09  -0.2638  -0.9124  -0.01176  -0.004898  0.05522  -0.004872  -0.2956  -0.6472
6.531e+09  -0.57  -0.8265  -0.006409  -0.001415  0.03098  -0.01567  -0.4428  -0.4662
6.532e+09  -0.8079  -0.58  -0.00893  -0.01512  0.01774  0.03468  -0.5924  -0.2675
6.534e+09  -0.9754  -0.2636  -0.006034  -0.004041  -0.01579  -0.04887  -0.6265  -0.07602
6.535e+09  -0.9579  0.1136  -0.02926  0.0001829  0.005585  -0.001274  -0.6338  0.1206
6.536e+09  -0.849  0.4088  0.02248  0.0249  0.01816  0.046  -0.5199  0.3261
6.538e+09  -0.6863  0.6675  0.009064  -0.01489  -0.01615  0.004107  -0.4274  0.4897
6.539e+09  -0.4092  0.8379  0.01343  0.008527  -0.01285  0.04018  -0.2972  0.6137
6.54e+09  -0.04335  0.9583  0.0299  -0.03401  -0.01661  -0.004338  -0.04667  0.674
6.541e+09  0.3167  0.9678  -0.001153  0.005843  0.04961  -0.009473  0.1894  0.6554
6.542e+09  0.6085  0.7142  0.01312  -0.01254  -0.02181  0.0162  0.4258  0.5638
6.544e+09  0.7788  0.5003  0.003101  0.01554  0.01148  -0.03  0.5855  0.4076
6.545e+09  0.9514  0.127  -0.02026  0.01753  0.07517  0.02841  0.7352  0.181
6.546e+09  0.8935  -0.08936  -0.01375  0.007359  0.0252  0.02406  0.714  -0.1228
6.548e+09  0.8381  -0.4985  -0.02161  -0.02086  -0.05702  -0.03991  0.63  -0.3312
6.549e+09  0.5928  -0.7659  0.003996  0.007002  -0.001873  0.001177  0.4878  -0.5292
6.55e+09  0.2634  -0.931  -0.03803  -0.01614  0.01016  -0.03215  0.3037  -0.6836
6.551e+09  -0.04175  -0.9794  -0.01845  -0.005252  0.007937  0.01629  0.04777  -0.7182
