# Hz S RI R 50
6.25e+09  -0.6073  0.5602  0.008696  -0.02525  -0.07286  -0.00656  0.1944  0.4862
6.251e+09  -0.4456  0.7855  -0.01707  -0.006336  -0.06606  -0.02642  0.3702  0.3917
6.252e+09  -0.07263  0.8374  -0.008778  -0.02531  -0.04299  -0.01885  0.5222  0.2638
6.254e+09  0.1743  0.8145  0.02674  -0.03374  0.0004678  -0.01274  0.5694  -0.004061
6.255e+09  0.4263  0.7178  -0.001607  0.01594  0.00775  -0.01686  0.5794  -0.2287
6.256e+09  0.7073  0.5021  -0.02348  -0.002845  -0.03135  0.01031  0.4742  -0.4617
6.258e+09  0.7649  0.253  0.004303  0.01225  0.008794  0.0139  0.275  -0.5748
6.259e+09  0.8225  -0.0008608  0.003834  0.03776  0.009039  0.06133  0.05342  -0.6644
6.26e+09  0.7952  -0.2893  0.004452  -0.02209  0.03023  -0.01102  -0.2381  -0.6525
6.261e+09  0.601  -0.5711  0.004632  0.02301  -0.000733  -0.0525  -0.4495  -0.5373
6.262e+09  0.3928  -0.7273  0.009201  0.00381  0.00494  -0.009105  -0.6211  -0.3555
6.264e+09  0.1061  -0.795  0.003022  -0.009201  0.0779  -0.03016  -0.7112  -0.09753
6.265e+09  -0.1554  -0.8352  -0.02709  -0.01396  -0.02229  0.06554  -0.738  0.1421
6.266e+09  -0.4403  -0.7057  0.03607  0.01651  -0.01907  -0.02346  -0.6348  0.4091
6.268e+09  -0.6981  -0.6037  -0.001225  0.01001  -0.05673  -0.02287  -0.4169  0.6342
6.269e+09  -0.7949  -0.3039  0.01298  -0.01995  -0.01296  0.003642  -0.2132  0.6923
6.27e+09  -0.8676  0.06646  -0.02616  -0.01249  -0.06693  0.01368  0.06941  0.791
6.271e+09  -0.7697  0.3234  -0.002027  0.009084  0.002887  0.007826  0.3257  0.6884
6.272e+09  -0.618  0.5569  -0.00498  -0.02231  -0.0004581  0.03179  0.5324  0.5232
6.274e+09  -0.383  0.725  -0.01145  -0.0004604  -0.02439  -0.05902  0.7014  0.3058
6.275e+09  -0.1281  0.8624  -0.01501  0.03684  0.02538  -0.005707  0.7764  0.03733
6.276e+09  0.1907  0.7892  0.03318  0.02235  -0.04469  -0.01312  0.7339  -0.2104
6.278e+09  0.4599  0.7073  0.01922  0.01702  -0.01163  0.02204  0.6359  -0.4632
6.279e+09  0.6462  0.4513  -0.00733  -0.001272  -0.01356  -0.01553  0.4455  -0.638
6.28e+09  0.7723  0.1818  -0.006477  -0.009344  0.03404  0.01876  0.1649  -0.7469
6.281e+09  0.8576  0.03105  0.01813  0.009148  -0.001279  -0.02585  -0.09999  -0.7635
6.282e+09  0.7999  -0.3072  -0.04611  0.006286  0.02686  0.0002951  -0.366  -0.7203
6.284e+09  0.6272  -0.5914  -0.02579  0.01753  0.01319  0.01051  -0.5938  -0.5299
6.285e+09  0.361  -0.7747  0.004573  -0.01056  0.03581  0.02084  -0.7493  -0.2887
6.286e+09  0.0993  -0.8145  0.02575  0.01207  0.01971  -0.04442  -0.7928  -0.03844
6.288e+09  -0.1804  -0.8146  0.006528  -0.01815  0.03811  0.05105  -0.7401  0.2448
6.289e+09  -0.4815  -0.6095  -0.00774  -0.005596  -0.01537  0.01122  -0.6009  0.4965
6.29e+09  -0.676  -0.4964  0.006638  0.001338  0.02053  -0.04241  -0.4223  0.7084
6.291e+09  -0.8129  -0.1342  -0.0004652  0.007444  -0.01868  0.03372  -0.1574  0.78
6.292e+09  -0.8518  0.06925  -0.01989  0.02014  0.009566  0.02584  0.1347  0.815
6.294e+09  -0.8197  0.3471  -0.007262  0.01713  -0.008721  -0.004159  0.3857  0.7068
6.295e+09  -0.5456  0.5521  -0.006253  -0.005295  -0.01897  0.07371  0.6413  0.5383
6.296e+09  -0.344  0.7518  0.01406  -0.03131  0.003224  0.01096  0.7921  0.2781
6.298e+09  -0.04808  0.7943  -0.01287  -0.007252  0.0286  0.01988  0.835  0.002998
6.299e+09  0.2109  0.7951  0.003242  0.01738  0.05139  0.0394  0.7854  -0.2784
6.3e+09  0.4501  0.6058  0.02481  -0.02809  -0.04096  -0.03493  0.6534  -0.526
6.301e+09  0.6723  0.5078  -0.0024  -0.006601  0.03585  0.008211  0.4228  -0.7145
6.302e+09  0.8244  0.2378  0.0424  0.006606  0.008384  0.01547  0.1746  -0.8517
6.304e+09  0.8178  -0.05691  0.01434  0.005502  -0.04221  0.01369  -0.1564  -0.8475
6.305e+09  0.7645  -0.3047  -0.02083  -0.02209  0.0269  0.03577  -0.3916  -0.7427
6.306e+09  0.594  -0.5732  0.01211  -0.001004  -0.01943  0.02279  -0.6566  -0.5862
6.308e+09  0.3169  -0.7525  0.01317  0.001345  0.0159  -0.03174  -0.801  -0.2845
6.309e+09  0.06246  -0.8478  0.01556  0.02952  0.04779  -0.001713  -0.8789  -0.04568
6.31e+09  -0.2944  -0.8233  0.01571  0.02534  -0.0321  0.03268  -0.8167  0.3066
6.311e+09  -0.5125  -0.6791  -0.0102  0.02217  -0.02543  0.0226  -0.6924  0.5359
6.312e+09  -0.7274  -0.4285  0.01285  0.02982  -0.01719  -0.01211  -0.4527  0.7512
6.314e+09  -0.795  -0.1736  -0.001548  -0.03174  -0.03326  0.004964  -0.1672  0.8645
6.315e+09  -0.802  0.1203  -0.01496  0.02255  -0.0114  0.007338  0.1025  0.8317
6.316e+09  -0.7309  0.3924  -0.004759  -0.01763  0.007265  0.01498  0.4292  0.798
6.318e+09  -0.516  0.6461  0.02059  -0.003093  0.04738  0.03187  0.6636  0.5804
6.319e+09  -0.3018  0.7893  -0.02062  -0.004202  0.02321  -0.01507  0.8586  0.294
6.32e+09  -0.00774  0.8488  -0.02274  -0.01379  0.003616  -0.002305  0.8954  0.01399
6.321e+09  0.3147  0.7536  -0.0186  -0.01133  -0.01668  0.005276  0.8373  -0.2887
6.322e+09  0.5784  0.6813  -0.005879  0.009616  -0.04152  0.02697  0.7121  -0.554
6.324e+09  0.7611  0.4398  0.02948  0.004992  -0.02007  -0.02953  0.465  -0.7539
6.325e+09  0.8704  0.1255  -0.001182  0.01658  0.01467  -9.707e-05  0.1615  -0.8625
6.326e+09  0.7603  -0.1854  -0.003922  0.02099  -0.0408  0.004832  -0.1072  -0.906
6.328e+09  0.7562  -0.3861  0.01722  -0.007764  -0.06625  -0.009678  -0.4312  -0.7599
6.329e+09  0.5411  -0.6421  -0.02449  -0.00523  0.007426  -0.006195  -0.678  -0.5644
6.33e+09  0.2362  -0.8019  0.002852  -0.008167  -0.03595  0.0003173  -0.8246  -0.3645
6.331e+09  -0.04314  -0.8472  0.009219  -0.01316  0.03781  0.01439  -0.904  -0.006518
6.332e+09  -0.3386  -0.8115  0.005959  0.0002369  0.05304  0.03221  -0.8662  0.2569
6.334e+09  -0.58  -0.6124  -0.001002  -0.000134  0.0148  -0.007855  -0.7162  0.5945
6.335e+09  -0.7481  -0.3811  0.002042  -0.03653  -0.01565  -0.007162  -0.4798  0.7996
6.336e+09  -0.8818  -0.03727  -0.02806  -0.01115  -0.02814  -0.01758  -0.158  0.9107
6.338e+09  -0.8031  0.2407  0.01827  -0.01362  0.0126  0.01249  0.1015  0.9087
6.339e+09  -0.7017  0.4717  0.01537  0.02393  0.02288  0.03439  0.4399  0.8383
6.34e+09  -0.4512  0.7158  -0.009435  0.02003  -0.02135  -0.03075  0.6481  0.6309
6.341e+09  -0.2417  0.8502  -0.02032  -0.02174  0.003009  0.02878  0.889  0.3545
6.342e+09  0.07895  0.9078  0.01234  0.03353  -0.02688  0.01988  0.9198  0.04932
6.344e+09  0.3861  0.7938  0.02079  0.005095  0.000876  -0.03136  0.8915  -0.2929
6.345e+09  0.6199  0.5801  -0.006482  -0.02456  0.03292  -0.02739  0.755  -0.5793
6.346e+09  0.7749  0.3332  -0.03467  0.04822  -0.03376  0.002657  0.5522  -0.8057
6.348e+09  0.8497  0.07214  0.04223  -0.01265  0.0109  0.02779  0.1768  -0.9018
6.349e+09  0.848  -0.2405  0.01916  0.02157  0.03018  0.04234  -0.1185  -0.905
6.35e+09  0.6698  -0.5788  0.004847  0.02413  -0.04387  -0.0366  -0.4479  -0.8517
6.351e+09  0.4673  -0.7723  -0.009845  0.03393  -0.00768  -0.01938  -0.6472  -0.6186
6.352e+09  0.196  -0.8748  0.04697  -0.003636  0.0322  0.007636  -0.8471  -0.4093
6.354e+09  -0.174  -0.8719  0.003662  0.003955  0.005939  0.005691  -0.985  -0.0442
6.355e+09  -0.4354  -0.7613  -0.007842  -0.01189  -0.01092  0.01029  -0.9131  0.2412
6.356e+09  -0.6545  -0.5289  0.01191  -0.01339  0.01643  0.007276  -0.7975  0.5559
6.358e+09  -0.8729  -0.3001  0.01482  0.02178  -0.07068  -0.01209  -0.5523  0.7631
6.359e+09  -0.898  0.04213  -0.02505  0.02757  0.002922  0.01713  -0.2197  0.9382
6.36e+09  -0.8002  0.2841  -0.02735  0.02249  0.02136  0.06735  0.1165  0.9056
6.361e+09  -0.6596  0.6131  0.0005511  0.0259  -0.003796  -0.02248  0.4273  0.8852
6.362e+09  -0.4306  0.8358  0.01809  -0.006407  -0.026  -0.06705  0.6838  0.6666
6.364e+09  -0.1346  0.8935  -0.02531  0.04044  0.002637  0.02746  0.8569  0.43
6.365e+09  0.2269  0.8607  0.003564  -0.003905  -0.01961  -0.04416  0.999  0.06365
6.366e+09  0.4931  0.7229  0.0007609  0.009218  -0.02091  -0.01321  0.8983  -0.2463
6.368e+09  0.7226  0.4856  -0.01457  0.01948  0.02944  0.007461  0.7892  -0.5646
6.369e+09  0.8401  0.1762  0.005648  -0.01622  0.02625  -0.02543  0.5335  -0.7802
6.37e+09  0.8886  -0.0581  -0.006794  -0.008636  0.007688  0.007238  0.2606  -0.9773
6.371e+09  0.8064  -0.3962  0.006676  0.0008579  -0.000813  -0.004479  -0.05324  -0.9294
6.372e+09  0.6266  -0.6488  0.03212  -0.008344  -0.009618  0.007551  -0.3768  -0.8905
6.374e+09  0.3369  -0.8079  -0.02709  0.04676  0.07395  0.0354  -0.6484  -0.6877
6.375e+09  0.02543  -0.8746  -0.006186  0.01009  -0.002873  -0.0172  -0.873  -0.4036
6.376e+09  -0.293  -0.8307  0.01445  -0.01245  -0.008922  -0.01408  -0.9315  -0.07194
6.378e+09  -0.558  -0.716  -0.0123  0.05162  0.02487  0.01234  -0.9067  0.239
6.379e+09  -0.7775  -0.4885  -0.027  -0.02747  -0.004468  -0.04034  -0.7626  0.4859
6.38e+09  -0.8621  -0.1758  -0.02219  -0.01058  0.03582  -0.00743  -0.5873  0.7407
6.381e+09  -0.9243  0.1207  -0.02637  -0.0115  -0.01086  -0.000416  -0.2792  0.9111
6.382e+09  -0.7847  0.4309  -0.008878  0.01829  0.01459  0.002444  0.0853  0.9217
6.384e+09  -0.5822  0.6947  0.005584  0.01277  0.05319  -0.02185  0.3653  0.8588
6.385e+09  -0.3187  0.8628  -0.001573  -0.02347  -0.03461  -0.02512  0.652  0.6992
6.386e+09  -0.01043  0.8892  0.06292  0.01781  0.01357  -0.01115  0.8305  0.4453
6.388e+09  0.349  0.8477  -0.03613  0.01162  0.02291  -0.02629  0.9414  0.1024
6.389e+09  0.6116  0.6628  0.02376  0.001555  -0.02281  0.01578  0.9162  -0.1941
6.39e+09  0.7777  0.4474  0.05415  0.005725  0.03585  0.007452  0.8003  -0.4994
6.391e+09  0.8169  0.1283  -0.04034  0.01839  0.01007  0.03077  0.5897  -0.7678
6.392e+09  0.8805  -0.1327  0.0105  0.0221  -0.07758  0.03803  0.2835  -0.8861
6.394e+09  0.7677  -0.4617  0.004736  -0.006057  0.04308  -0.02669  -0.04802  -0.9454
6.395e+09  0.5413  -0.7596  0.01195  -0.01813  0.01269  0.03487  -0.3543  -0.8342
6.396e+09  0.2512  -0.874  0.0307  0.01143  0.02931  -0.01149  -0.5983  -0.6878
6.398e+09  -0.06285  -0.8949  -0.005578  -0.007655  -0.02875  0.01812  -0.788  -0.4097
6.399e+09  -0.3875  -0.8161  0.009012  -0.003175  0.000703  -0.008107  -0.9189  -0.1579
6.4e+09  -0.6153  -0.7111  -0.02492  -0.008049  0.002653  -0.02351  -0.9006  0.1465
6.401e+09  -0.8029  -0.3979  -0.004348  0.02426  0.02087  0.01945  -0.7902  0.4839
6.402e+09  -0.883  -0.05382  0.0005284  -0.0067  0.005482  0.009065  -0.6142  0.7041
6.404e+09  -0.8319  0.2423  0.009591  0.006606  0.03178  -0.04015  -0.316  0.9282
6.405e+09  -0.7165  0.4731  0.03214  0.01989  0.003257  0.06864  -0.0131  0.8981
6.406e+09  -0.5142  0.7022  0.02289  -0.0004293  -0.04738  0.02954  0.367  0.8332
6.408e+09  -0.1905  0.8323  0.01939  0.0135  0.0173  0.03628  0.5675  0.7276
6.409e+09  0.07703  0.8846  0.02921  -0.01091  -0.02925  0.007699  0.7641  0.4511
6.41e+09  0.3858  0.7412  0.0481  -0.04014  0.02684  0.0351  0.8738  0.1719
6.411e+09  0.6276  0.6125  0.02295  -0.02008  0.01154  0.03477  0.8851  -0.1618
6.412e+09  0.8056  0.3687  -0.01656  -0.01976  0.0003371  -0.04883  0.7476  -0.4558
6.414e+09  0.8642  0.05213  0.05203  0.002643  0.01706  0.03711  0.605  -0.6984
6.415e+09  0.8247  -0.2918  0.02879  -0.01158  -0.0156  -0.03659  0.3119  -0.841
6.416e+09  0.7257  -0.4751  -0.01113  0.01517  -0.02728  0.02132  0.09078  -0.9012
6.418e+09  0.5025  -0.7179  -0.02887  0.02583  -0.04633  0.02003  -0.2593  -0.8091
6.419e+09  0.1861  -0.8646  0.02369  0.02486  -0.007801  -0.03025  -0.5186  -0.7021
6.42e+09  -0.1193  -0.8638  -0.02153  -0.0005017  0.01834  0.01541  -0.7117  -0.5051
6.421e+09  -0.3833  -0.7629  -0.01226  0.04216  0.02584  -0.03713  -0.9053  -0.185
6.422e+09  -0.6149  -0.59  0.02615  -0.006955  0.006603  -0.03166  -0.9195  0.1549
6.424e+09  -0.7931  -0.3356  0.03267  0.02881  0.04906  -0.0003483  -0.7794  0.4192
6.425e+09  -0.8403  -0.01602  -0.02413  0.02036  0.02845  -0.01961  -0.5856  0.6275
6.426e+09  -0.8716  0.3015  -0.03098  -0.00269  0.01699  0.02493  -0.313  0.8313
6.428e+09  -0.6655  0.5108  0.02563  0.005158  -0.05784  0.03125  -0.03626  0.8554
6.429e+09  -0.4851  0.7427  -0.01614  -0.01679  -0.01327  0.04039  0.2297  0.8514
6.43e+09  -0.1544  0.8627  -0.01111  0.01693  -0.003684  0.01165  0.4789  0.7007
6.431e+09  0.1603  0.8938  0.009276  -0.02764  0.04216  -0.01707  0.7186  0.5168
6.432e+09  0.4539  0.7794  0.02708  -0.005238  -0.01165  -0.02594  0.8397  0.2313
6.434e+09  0.6848  0.5549  0.01733  0.02612  0.002314  -0.01158  0.847  -0.08664
6.435e+09  0.8156  0.3243  -0.004243  -0.003628  -0.001521  -0.009901  0.7724  -0.3688
6.436e+09  0.8939  0.02386  0.06289  0.0247  -0.02295  0.01487  0.5996  -0.627
6.438e+09  0.7815  -0.3126  0.06842  0.02926  -0.02484  -0.01713  0.3638  -0.7832
6.439e+09  0.6919  -0.5667  -0.00453  0.03208  -0.004134  0.009886  0.05338  -0.8373
6.44e+09  0.4366  -0.7381  -0.01837  -0.007398  -0.0004685  0.03125  -0.2744  -0.8152
6.441e+09  0.1643  -0.8356  0.02953  -0.01761  0.01442  -0.03072  -0.4782  -0.7103
6.442e+09  -0.1388  -0.8583  0.02013  -0.001052  0.02565  0.03451  -0.7407  -0.4816
6.444e+09  -0.4152  -0.7392  -0.03967  -0.02973  0.03256  -0.03358  -0.8461  -0.2111
6.445e+09  -0.6743  -0.5732  -0.02647  -0.01457  0.03034  -0.009922  -0.8723  0.09011
6.446e+09  -0.882  -0.3188  0.009996  0.002649  0.04115  -0.02099  -0.7854  0.3381
6.448e+09  -0.8842  0.03329  -0.02285  0.008261  0.0005749  -0.004943  -0.6059  0.5627
6.449e+09  -0.7926  0.3079  0.007263  -0.007402  0.02842  0.001028  -0.3931  0.7703
6.45e+09  -0.7199  0.5483  -0.0522  -0.01049  -0.02276  0.0419  -0.07096  0.8423
6.451e+09  -0.4626  0.7616  0.03911  0.03179  0.03635  0.01445  0.1747  0.7994
6.452e+09  -0.2016  0.8759  0.004703  0.003694  0.03537  -0.02485  0.4539  0.6753
6.454e+09  0.1455  0.872  0.007822  0.008767  -0.01251  0.04957  0.6639  0.4915
6.455e+09  0.462  0.7781  0.004582  0.00915  0.006214  0.05274  0.7935  0.252
6.456e+09  0.6941  0.5246  -0.01508  0.01644  0.01104  0.02236  0.7914  -0.07934
6.458e+09  0.8493  0.2871  -0.01433  0.03632  0.001322  -0.03173  0.7119  -0.3651
6.459e+09  0.9241  0.01996  -0.004076  -0.009414  0.006913  0.003682  0.5423  -0.6007
6.46e+09  0.8554  -0.3016  -0.01896  -0.02919  0.01354  -0.01181  0.345  -0.7423
6.461e+09  0.6053  -0.5737  0.009628  -0.01381  0.02371  -0.008237  0.03525  -0.8986
6.462e+09  0.425  -0.769  0.04064  0.01883  -0.001387  -0.01576  -0.1569  -0.7803
6.464e+09  0.1809  -0.8761  -0.03013  0.01459  -0.02228  -0.008367  -0.4953  -0.6674
6.465e+09  -0.1332  -0.9246  -0.00657  -0.02446  0.003242  0.008012  -0.6211  -0.4533
6.466e+09  -0.4298  -0.7427  0.0223  0.004319  -0.01371  0.01814  -0.7794  -0.2152
6.468e+09  -0.7087  -0.5561  -0.01041  0.0261  0.0186  -0.01947  -0.7848  0.03847
6.469e+09  -0.8512  -0.2626  0.01638  0.00779  -0.02561  0.04236  -0.7427  0.3445
6.47e+09  -0.8893  0.032  0.01514  0.01549  -0.01575  -0.03326  -0.5591  0.577
6.471e+09  -0.8344  0.3405  -0.05585  0.0007853  -0.0134  -0.05563  -0.3337  0.7186
6.472e+09  -0.6713  0.6175  -0.005595  -0.01073  -0.001966  -0.04449  -0.04653  0.7995
6.474e+09  -0.4203  0.7113  0.02027  -0.01011  0.03647  0.0356  0.2015  0.7592
6.475e+09  -0.1009  0.9048  0.04142  0.01366  0.05911  -0.0002413  0.4947  0.6177
6.476e+09  0.1741  0.8668  -0.03312  -0.006507  0.005087  0.005197  0.6498  0.4157
6.478e+09  0.4799  0.7495  -0.002378  0.01182  0.04873  0.02471  0.7378  0.1818
6.479e+09  0.7075  0.567  -0.008121  0.02313  -0.005344  0.02217  0.8108  -0.07998
6.48e+09  0.8559  0.2977  -0.01073  0.001188  -0.008414  -0.002118  0.7325  -0.3389
6.481e+09  0.9268  0.02208  0.004963  0.02295  -0.006561  0.04193  0.5338  -0.5124
6.482e+09  0.8262  -0.3652  -0.02016  0.03892  0.01733  0.01337  0.2979  -0.6691
6.484e+09  0.6564  -0.5301  0.04204  0.02149  -0.01751  -0.02144  0.05282  -0.7716
6.485e+09  0.4201  -0.8137  0.01117  -0.03172  -0.01632  -0.06218  -0.2493  -0.7729
6.486e+09  0.1268  -0.8657  -0.01245  0.002018  -0.002146  0.008156  -0.4565  -0.6686
6.488e+09  -0.2096  -0.8366  0.02668  0.006192  -0.01414  -0.005846  -0.5971  -0.439
6.489e+09  -0.5026  -0.753  0.0002143  0.01175  0.04351  0.003121  -0.7381  -0.1731
6.49e+09  -0.7296  -0.5326  -0.007026  0.03411  -0.0148  -0.03236  -0.7837  0.08749
6.491e+09  -0.8683  -0.2879  0.008036  0.003225  -0.008835  -0.05721  -0.7299  0.3466
6.492e+09  -0.9004  0.06139  0.04355  0.01116  0.02134  -0.0202  -0.5104  0.5558
6.494e+09  -0.8137  0.2977  0.02137  -0.003554  -0.001509  0.01939  -0.2722  0.7233
6.495e+09  -0.6155  0.5815  0.01998  -0.001202  -0.01588  0.0148  -0.01016  0.7906
6.496e+09  -0.3874  0.7848  0.00722  -0.005296  0.0237  -0.0224  0.2196  0.7443
6.498e+09  -0.08514  0.8757  -0.03012  -0.0453  0.02299  -0.05055  0.4252  0.6467
6.499e+09  0.284  0.9155  -0.01857  0.01776  -0.02016  7.283e-05  0.6645  0.4406
6.5e+09  0.5092  0.6931  0.009069  -0.01523  -0.008569  -0.03983  0.7738  0.1613
6.501e+09  0.7554  0.5915  -0.02902  0.01513  -0.02116  0.004213  0.7715  -0.08953
6.502e+09  0.9117  0.2826  0.006886  -0.01376  0.01724  0.04422  0.7078  -0.3564
6.504e+09  0.9161  -0.03426  0.03991  0.03509  -0.003305  0.02386  0.5127  -0.5962
6.505e+09  0.8282  -0.3486  -0.01695  -0.01876  -0.04683  -0.01285  0.2551  -0.7151
6.506e+09  0.6223  -0.678  0.003002  -0.01405  0.07223  0.03607  -0.0298  -0.7797
6.508e+09  0.3881  -0.8281  0.02812  -0.03438  0.009887  -0.01062  -0.2215  -0.7354
6.509e+09  0.06026  -0.9355  0.003531  0.01085  0.01198  -0.04764  -0.5136  -0.6205
6.51e+09  -0.2454  -0.8375  0.01493  -0.05213  0.03896  0.027  -0.629  -0.3985
6.511e+09  -0.5561  -0.7881  -0.006408  -0.009934  0.00831  -0.04797  -0.7077  -0.1396
6.512e+09  -0.7428  -0.5364  0.008006  0.001172  0.02174  0.0222  -0.735  0.1417
6.514e+09  -0.9074  -0.2515  -0.002274  0.02321  0.06302  -0.004204  -0.6333  0.4008
6.515e+09  -0.9463  0.1109  -0.04593  0.04715  0.0112  -0.06333  -0.4823  0.5888
6.516e+09  -0.8083  0.4267  0.02756  -0.01991  0.0467  -0.00951  -0.2788  0.6922
6.518e+09  -0.6454  0.6705  -0.01185  -0.01521  -0.01126  -0.03775  0.01259  0.7694
6.519e+09  -0.356  0.8571  -0.03054  -0.0121  -0.01585  -0.02  0.2944  0.6817
6.52e+09  -0.03672  0.9338  0.02885  -0.03053  0.05685  -0.009824  0.5194  0.5653
6.521e+09  0.2831  0.9653  0.008915  0.01352  0.06004  -0.02295  0.6595  0.3267
6.522e+09  0.5789  0.7334  -0.009993  -0.02213  -0.019  -0.06826  0.6893  0.06296
6.524e+09  0.7545  0.5125  0.01911  0.04346  -0.02511  -0.00273  0.6991  -0.1632
6.525e+09  0.9498  0.2326  -0.001842  0.009717  0.01875  -0.004218  0.6634  -0.4103
6.526e+09  0.9822  -0.1815  -0.01636  0.02464  -0.01252  0.00771  0.4233  -0.5648
6.528e+09  0.8103  -0.4257  -0.02337  0.001391  -0.0133  0.03729  0.1779  -0.6933
6.529e+09  0.6112  -0.7012  0.005173  0.01173  -0.01948  0.017  -0.0599  -0.6723
6.53e+09  0.3646  -0.9234  0.01527  0.01626  -0.001094  -0.01757  -0.2959  -0.5895
6.531e+09  -0.0402  -0.9857  -0.009585  0.03947  -0.004105  0.02329  -0.5014  -0.4803
6.532e+09  -0.3354  -0.9076  -0.006883  -0.008491  -0.03725  -0.002299  -0.5844  -0.2579
6.534e+09  -0.6733  -0.7442  0.01923  -0.02785  -0.006766  0.01648  -0.6325  -0.06854
6.535e+09  -0.8204  -0.4664  -0.000346  0.004155  -0.02274  -0.06285  -0.6292  0.1007
6.536e+09  -0.9689  -0.1477  0.003832  0.006291  0.004404  -0.01568  -0.5493  0.2954
6.538e+09  -0.9754  0.1353  0.007083  0.0006999  -0.04765  0.02025  -0.4025  0.5028
6.539e+09  -0.8148  0.5197  -0.0114  -0.009833  0.0115  0.01665  -0.2688  0.633
6.54e+09  -0.611  0.8192  -0.03393  -0.04008  0.01049  -0.001807  -0.05811  0.6988
6.541e+09  -0.3507  0.929  -0.008405  0.02318  0.01586  -0.02487  0.2361  0.6839
6.542e+09  0.05326  0.9878  0.008715  0.01226  -0.008362  -0.01646  0.4488  0.5707
6.544e+09  0.3766  0.9192  -0.002891  0.0005722  -0.02304  -0.05011  0.5892  0.4071
6.545e+09  0.6967  0.6876  0.04384  0.008388  0.05024  0.02937  0.7087  0.1511
6.546e+09  0.8397  0.4364  -0.0041  -0.01791  0.02483  -0.007493  0.7441  -0.05828
6.548e+09  1.01  0.08758  -0.04955  0.005603  -0.01524  0.0468  0.6224  -0.32
6.549e+09  0.888  -0.3014  -0.02022  -0.02206  -0.01451  -0.009683  0.5056  -0.5557
6.55e+09  0.7627  -0.57  0.01359  -0.01447  0.0491  0.04785  0.2765  -0.6857
