# Hz S RI R 50
6.25e+09  -0.3701  0.7957  -0.02211  -0.02338  0.01383  0.01232  0.1742  0.4762
6.251e+09  -0.09834  0.8508  -0.0156  0.01509  0.01499  -0.01418  0.3745  0.397
6.252e+09  0.2807  0.8339  -0.04447  0.01927  0.0002937  0.01227  0.5151  0.2146
6.254e+09  0.5071  0.6568  -0.008939  -0.001496  0.003202  0.03295  0.65  0.03239
6.255e+09  0.7483  0.5566  0.0146  -0.01144  0.03921  -0.03747  0.6182  -0.2443
6.256e+09  0.875  0.151  -0.0225  0.01968  -0.008894  -0.04057  0.4868  -0.4525
6.258e+09  0.8655  -0.09311  0.02386  0.03667  -0.01254  0.02614  0.3066  -0.6106
6.259e+09  0.7319  -0.3594  0.0126  -0.02073  0.01972  0.03594  0.03884  -0.6702
6.26e+09  0.605  -0.6004  -0.01063  -0.01914  0.002088  0.02639  -0.2101  -0.6642
6.261e+09  0.4004  -0.785  -0.03138  -0.01072  -0.019  -0.04106  -0.4815  -0.5603
6.262e+09  0.05229  -0.869  0.02155  -0.01028  -0.06339  -0.03319  -0.6302  -0.3387
6.264e+09  -0.212  -0.7901  0.02788  0.008803  0.0189  0.01195  -0.7161  -0.1248
6.265e+09  -0.5383  -0.6654  -0.006019  -0.01043  -0.02886  -0.02375  -0.7106  0.1591
6.266e+09  -0.6388  -0.4887  -0.006345  0.0001157  -0.03651  0.02922  -0.6152  0.4107
6.268e+09  -0.8226  -0.2109  -0.01272  -0.005248  0.04687  -0.02029  -0.415  0.5974
6.269e+09  -0.831  0.0873  -0.009231  0.01002  -0.05297  -0.005441  -0.2071  0.7008
6.27e+09  -0.7531  0.3955  -0.0008642  -0.0115  -0.001282  0.07202  0.06685  0.776
6.271e+09  -0.5077  0.6144  -0.02706  -0.007655  0.02016  -0.04336  0.3364  0.6752
6.272e+09  -0.3887  0.8185  0.00255  0.01211  -0.01289  0.05743  0.5181  0.5178
6.274e+09  -0.01073  0.867  -0.0128  -0.02348  0.05743  -0.05237  0.654  0.3043
6.275e+09  0.24  0.8136  0.008871  -0.006971  0.02295  -0.02627  0.769  0.08627
6.276e+09  0.5116  0.6557  -0.005908  -0.003214  0.02027  -0.005954  0.7389  -0.2175
6.278e+09  0.7432  0.4422  0.02269  -0.005096  -0.01349  -0.01009  0.6093  -0.4695
6.279e+09  0.8508  0.1119  0.02198  -0.03128  -0.02574  0.01286  0.4163  -0.6124
6.28e+09  0.8222  -0.09309  0.004811  -0.001439  -0.01153  -0.04045  0.1918  -0.7345
6.281e+09  0.7422  -0.4338  -0.01248  0.002213  0.01045  0.01197  -0.127  -0.7598
6.282e+09  0.5488  -0.6235  0.02501  0.0157  -0.01556  0.05783  -0.3573  -0.7048
6.284e+09  0.2771  -0.7784  -0.01564  -0.01611  -0.0557  -0.02497  -0.5972  -0.5589
6.285e+09  -0.03458  -0.801  -0.02347  -0.01166  0.04661  -0.02596  -0.7495  -0.2949
6.286e+09  -0.258  -0.7769  0.006918  -0.006213  -0.04048  0.0002891  -0.7907  -0.02978
6.288e+09  -0.5253  -0.6387  -0.01566  0.04426  -0.05245  -0.04245  -0.7737  0.2542
6.289e+09  -0.7338  -0.4648  -0.008105  -0.02185  -0.004254  0.0004074  -0.5916  0.5125
6.29e+09  -0.7875  -0.1699  0.04772  -0.01361  0.006052  -0.02822  -0.4016  0.7073
6.291e+09  -0.8412  0.15  0.01994  -0.002789  0.04093  -0.01031  -0.1538  0.7852
6.292e+09  -0.6905  0.4035  -0.01146  0.007018  0.006452  -0.02122  0.1083  0.7991
6.294e+09  -0.5078  0.6461  -0.03565  0.01017  0.01902  -0.02105  0.3801  0.7125
6.295e+09  -0.2693  0.7864  -0.006613  0.003918  0.0004343  -0.0002442  0.6148  0.5208
6.296e+09  0.01342  0.7914  -0.003825  0.01124  -0.03513  -0.09479  0.748  0.3004
6.298e+09  0.2421  0.7735  0.007443  -0.003214  0.0159  0.02418  0.8114  0.03462
6.299e+09  0.5411  0.6096  0.01301  -0.02893  -0.005501  0.07614  0.7883  -0.2779
6.3e+09  0.7778  0.4148  0.01375  0.01056  0.0353  -0.004155  0.6588  -0.5409
6.301e+09  0.8229  0.1217  0.00384  -0.01729  -0.01418  0.001787  0.4084  -0.7307
6.302e+09  0.7694  -0.196  -0.02188  0.02426  0.02804  0.01519  0.1663  -0.8214
6.304e+09  0.7105  -0.4308  0.01341  0.001465  -0.01768  -0.05385  -0.1461  -0.8286
6.305e+09  0.4676  -0.6599  -0.01414  -0.002485  -0.01346  0.001242  -0.4197  -0.7466
6.306e+09  0.2399  -0.8218  0.02687  0.002196  -0.04059  -0.01937  -0.621  -0.5507
6.308e+09  -0.0362  -0.8537  -0.01283  -0.009381  -0.03274  0.0375  -0.7914  -0.2803
6.309e+09  -0.3614  -0.7918  0.04693  0.01005  -0.01572  -0.01351  -0.8702  0.001052
6.31e+09  -0.5581  -0.5835  0.03293  -0.001913  -0.0007296  0.01579  -0.8289  0.2897
6.311e+09  -0.7707  -0.3328  -0.01164  -0.01403  0.003565  -0.02392  -0.6841  0.5637
6.312e+09  -0.8213  -0.1094  0.01955  -0.002675  0.02529  -0.02901  -0.4315  0.7586
6.314e+09  -0.7456  0.195  -0.02071  -0.022  0.008746  0.02768  -0.1567  0.8498
6.315e+09  -0.6618  0.4463  0.000116  -0.00978  -0.01509  -0.008351  0.1585  0.8945
6.316e+09  -0.5083  0.6931  -0.01809  -0.00305  0.0462  0.003422  0.45  0.7722
6.318e+09  -0.2465  0.8514  -0.01394  -0.02123  -0.0309  -0.0001743  0.6862  0.5608
6.319e+09  0.08145  0.8507  0.003472  -0.002991  0.03344  -0.003512  0.8494  0.3069
6.32e+09  0.3478  0.7764  0.01067  -0.02783  0.01562  -0.005596  0.8839  0.02436
6.321e+09  0.6146  0.5635  -0.009073  -0.007194  0.02301  -0.06002  0.8348  -0.2739
6.322e+09  0.8055  0.3265  0.0123  0.02061  -0.03339  -0.009272  0.7088  -0.5471
6.324e+09  0.8375  0.004094  0.015  0.004234  0.03177  0.007158  0.4631  -0.7525
6.325e+09  0.8192  -0.2429  -0.01248  -0.005877  0.007143  -0.02797  0.1632  -0.8996
6.326e+09  0.6515  -0.4934  0.01279  -0.009543  0.03439  -0.02868  -0.1541  -0.9129
6.328e+09  0.4781  -0.7058  0.004824  -0.005438  -0.003323  0.06057  -0.4546  -0.7568
6.329e+09  0.104  -0.8511  0.0192  -0.03517  0.01144  0.0428  -0.6866  -0.6062
6.33e+09  -0.1533  -0.8226  0.01682  -0.005236  -0.01277  0.01158  -0.8107  -0.3365
6.331e+09  -0.4323  -0.7395  -0.01365  0.0021  0.001017  0.0151  -0.9023  -0.01476
6.332e+09  -0.6709  -0.5632  -0.02579  0.01977  0.02778  0.02111  -0.9074  0.3479
6.334e+09  -0.8  -0.2995  0.000768  0.01021  0.002872  -0.02521  -0.6915  0.5564
6.335e+09  -0.9424  -0.02754  -0.01803  0.0368  -0.03468  0.04306  -0.5384  0.7758
6.336e+09  -0.8295  0.3272  0.02665  -0.01651  0.0274  -0.01352  -0.202  0.9065
6.338e+09  -0.648  0.5692  -0.02421  0.007657  0.06653  -0.002214  0.1113  0.9028
6.339e+09  -0.397  0.7588  0.02572  0.004633  -0.002032  0.01796  0.4643  0.8245
6.34e+09  -0.1192  0.863  0.01539  0.02828  0.01497  -0.03865  0.6673  0.6219
6.341e+09  0.1474  0.8243  -0.008982  0.03544  0.004949  -0.002672  0.8606  0.3662
6.342e+09  0.509  0.7264  0.01191  0.05279  -0.03956  0.03317  0.9016  0.03935
6.344e+09  0.6886  0.5181  0.03732  0.001845  -0.007774  -0.009762  0.8876  -0.2457
6.345e+09  0.8482  0.1889  0.006507  0.02024  0.003607  -0.02968  0.7286  -0.579
6.346e+09  0.8467  -0.05021  0.01512  0.03862  0.01213  0.01681  0.4835  -0.7816
6.348e+09  0.803  -0.388  0.005738  0.02443  0.05407  -0.02817  0.2242  -0.8972
6.349e+09  0.6819  -0.6192  -0.02601  0.007696  0.0009194  -0.002636  -0.1335  -0.9347
6.35e+09  0.433  -0.82  -0.001286  0.001505  -0.01038  0.01255  -0.4135  -0.8589
6.351e+09  0.09124  -0.9272  0.008522  0.001771  -0.03064  -0.01273  -0.691  -0.6634
6.352e+09  -0.2572  -0.8211  0.02244  -0.002433  0.02187  0.03061  -0.869  -0.3451
6.354e+09  -0.5272  -0.7766  -0.02256  -0.03177  -0.02398  -0.03862  -0.9332  -0.03694
6.355e+09  -0.7395  -0.4333  0.05201  -0.01373  -0.007538  0.0139  -0.9183  0.2539
6.356e+09  -0.8588  -0.1998  0.001902  0.02784  -0.03273  -0.02886  -0.7948  0.5218
6.358e+09  -0.8641  0.128  0.02984  0.02866  -0.01572  -0.01358  -0.543  0.7909
6.359e+09  -0.7977  0.4173  0.004566  0.01143  0.03509  -0.06045  -0.2189  0.9146
6.36e+09  -0.5842  0.6323  0.007278  -0.002126  -0.02411  -0.01323  0.057  0.9512
6.361e+09  -0.3062  0.8613  -0.009562  -0.003659  0.01633  0.04793  0.3878  0.8506
6.362e+09  -0.007013  0.8994  -0.02794  -0.05183  -0.03115  -0.01759  0.6965  0.6554
6.364e+09  0.3011  0.8443  0.01178  0.03508  -0.07259  0.05041  0.8876  0.3581
6.365e+09  0.559  0.7284  0.006925  0.02148  -0.04102  -0.01953  0.9358  0.0668
6.366e+09  0.8228  0.4434  0.02187  -0.007491  0.03241  -0.02298  0.9008  -0.2419
6.368e+09  0.8728  0.1655  -0.009531  0.02074  0.005194  0.004456  0.7459  -0.5683
6.369e+09  0.8754  -0.1834  0.007099  -0.01091  0.05582  0.01365  0.5359  -0.7882
6.37e+09  0.736  -0.4844  0.02551  0.009051  0.04248  -0.0169  0.2418  -0.9326
6.371e+09  0.5896  -0.7118  -0.0467  0.009183  -0.0206  -0.01524  -0.07057  -0.9363
6.372e+09  0.2895  -0.861  -0.01521  0.004191  0.0171  0.03461  -0.4214  -0.9013
6.374e+09  0.001749  -0.8923  -0.00892  0.04428  -0.01056  -0.004416  -0.6709  -0.7098
6.375e+09  -0.3352  -0.825  0.02527  0.004556  0.005053  0.001759  -0.8696  -0.4544
6.376e+09  -0.6144  -0.6907  -0.03364  -0.02356  -0.02851  0.01411  -0.9441  -0.09436
6.378e+09  -0.7587  -0.4156  -0.02426  -0.003831  0.0222  0.02971  -0.9439  0.2458
6.379e+09  -0.863  -0.1239  0.001502  0.03399  -0.02959  -0.003589  -0.7962  0.5672
6.38e+09  -0.8883  0.239  -0.001684  -0.01994  -0.001422  -0.005215  -0.5659  0.7725
6.381e+09  -0.7862  0.4965  0.05243  0.006061  -0.00104  -0.05054  -0.264  0.8924
6.382e+09  -0.4908  0.7383  -0.04804  -0.01848  9.629e-05  -0.003662  0.04638  0.9458
6.384e+09  -0.2458  0.8697  -0.009935  -0.03862  -0.02849  -0.007739  0.3742  0.8502
6.385e+09  0.1334  0.8879  0.03145  -0.01753  0.008168  0.01977  0.6575  0.6776
6.386e+09  0.3702  0.8442  -0.0008417  -0.0003294  0.03542  -0.02842  0.815  0.4198
6.388e+09  0.662  0.6233  0.01835  0.01975  -0.001453  0.01334  0.9311  0.06456
6.389e+09  0.8102  0.3365  0.007453  -0.002299  -0.02641  0.02455  0.9193  -0.2125
6.39e+09  0.9035  0.06549  -0.006307  -0.02015  -0.01039  0.01332  0.8007  -0.517
6.391e+09  0.8793  -0.2636  -0.008119  -0.03445  0.04018  -0.03567  0.5259  -0.724
6.392e+09  0.7288  -0.5383  -6.734e-05  -0.01454  -0.04343  -0.007146  0.3149  -0.8584
6.394e+09  0.5008  -0.7494  0.01789  -0.00203  0.03836  0.008075  -0.05888  -0.9354
6.395e+09  0.2109  -0.8955  -0.04805  0.01867  -0.001521  -0.01339  -0.3247  -0.8752
6.396e+09  -0.06785  -0.8709  0.04177  -0.02165  -0.03327  0.02952  -0.594  -0.662
6.398e+09  -0.391  -0.7716  0.03435  -6.643e-05  0.01016  -0.05184  -0.7884  -0.4452
6.399e+09  -0.6838  -0.6118  -0.02068  0.01435  -0.009856  0.014  -0.9158  -0.1642
6.4e+09  -0.8067  -0.3896  -0.02027  0.01914  0.005007  -0.01156  -0.91  0.1517
6.401e+09  -0.8469  -0.05677  -0.02658  -0.01306  -0.004918  0.02287  -0.7958  0.4216
6.402e+09  -0.8591  0.2615  0.02547  -0.005525  -0.003539  0.0009732  -0.6246  0.7597
6.404e+09  -0.6906  0.571  -0.01468  0.0102  0.001776  -7.615e-05  -0.2877  0.8379
6.405e+09  -0.423  0.7316  0.007392  -0.00659  0.0462  -0.003578  0.04439  0.896
6.406e+09  -0.1834  0.8679  0.03674  0.01125  0.01009  0.08083  0.2879  0.8398
6.408e+09  0.1332  0.8141  -0.04334  -0.01165  0.03166  0.026  0.5619  0.6806
6.409e+09  0.4301  0.7243  -0.04978  0.006989  0.02138  -0.02285  0.8091  0.4756
6.41e+09  0.5999  0.558  0.003395  -0.01413  0.00561  -0.006943  0.8792  0.2012
6.411e+09  0.8276  0.2993  -0.02607  -0.02882  0.01729  0.002063  0.8843  -0.1674
6.412e+09  0.9205  0.05244  0.03928  0.006164  0.01116  -0.01822  0.7823  -0.4179
6.414e+09  0.8429  -0.2695  -0.005124  -0.02344  -0.002267  -0.002452  0.5582  -0.6747
6.415e+09  0.6925  -0.5593  0.01769  -0.02223  0.02467  -0.0211  0.324  -0.834
6.416e+09  0.4805  -0.783  0.02574  -0.04551  0.03002  -0.02324  0.0378  -0.857
6.418e+09  0.1468  -0.8872  -0.004346  -0.002917  -0.03917  0.01879  -0.2845  -0.8464
6.419e+09  -0.1541  -0.8852  0.00629  0.02148  0.00196  0.01459  -0.5394  -0.7214
6.42e+09  -0.4073  -0.786  -0.005384  -7.782e-05  -0.009135  -0.01687  -0.75  -0.4996
6.421e+09  -0.6454  -0.5413  0.01159  0.02652  0.007394  0.02859  -0.8542  -0.2157
6.422e+09  -0.8426  -0.2852  -0.03421  -0.0003142  -0.003416  -0.03299  -0.8938  0.1127
6.424e+09  -0.9031  -0.04412  -0.007874  0.004024  0.04727  0.005087  -0.7621  0.3813
6.425e+09  -0.8092  0.2599  -0.01579  0.02197  0.04237  -0.06406  -0.5939  0.6265
6.426e+09  -0.6826  0.5676  0.002181  0.0206  -0.000976  0.00792  -0.3305  0.8295
6.428e+09  -0.461  0.7716  0.04759  -0.01738  0.003947  0.01712  -0.08221  0.879
6.429e+09  -0.1391  0.8564  -0.0043  0.006164  -0.003274  -0.01992  0.3045  0.8547
6.43e+09  0.1607  0.8859  -0.01983  0.03338  0.02576  -0.005186  0.5658  0.706
6.431e+09  0.4443  0.7473  -0.01561  -0.01004  -0.007223  0.02522  0.7089  0.4644
6.432e+09  0.7  0.5766  -0.002841  0.01396  -0.02996  -0.01045  0.8581  0.2557
6.434e+09  0.8632  0.2835  -0.003884  -0.009774  -0.02237  0.02806  0.885  -0.09006
6.435e+09  0.8659  0.008796  -0.0231  0.02172  -0.03582  -0.01081  0.7656  -0.3765
6.436e+09  0.7822  -0.3144  0.02254  -0.02422  -0.05556  0.02508  0.6279  -0.6144
6.438e+09  0.6711  -0.581  -7.566e-05  -0.02449  -0.003139  -0.02267  0.3146  -0.7899
6.439e+09  0.464  -0.7656  -0.01307  0.02175  -0.02307  -0.02939  0.04837  -0.8625
6.44e+09  0.1128  -0.8619  -0.02268  -0.03085  -0.02135  -0.02874  -0.2087  -0.8042
6.441e+09  -0.1595  -0.8845  0.01539  -0.002443  0.03183  -0.01145  -0.4957  -0.7111
6.442e+09  -0.4779  -0.7483  0.01749  0.0092  0.01828  -0.05125  -0.7539  -0.4376
6.444e+09  -0.6743  -0.5209  0.02939  -0.00993  0.001154  0.01491  -0.8178  -0.2123
6.445e+09  -0.8166  -0.2999  0.06206  -0.05101  0.01348  0.001438  -0.7863  0.06679
6.446e+09  -0.9075  0.01323  0.01116  -0.01342  0.01226  -0.02752  -0.7974  0.3239
6.448e+09  -0.8264  0.2928  -0.007449  -0.006162  -0.006961  0.02493  -0.5784  0.6155
6.449e+09  -0.6555  0.639  -0.02394  -0.001701  -0.008469  0.0116  -0.3578  0.7693
6.45e+09  -0.4433  0.8075  0.02012  0.02564  0.05568  -0.009527  -0.05086  0.7985
6.451e+09  -0.09861  0.8689  0.01979  0.01284  0.005118  0.01281  0.1974  0.8025
6.452e+09  0.2296  0.8782  0.01422  -0.02216  -0.04327  0.03067  0.4538  0.6628
6.454e+09  0.5423  0.7473  0.007438  -0.03905  -0.006806  0.03491  0.7156  0.5095
6.455e+09  0.6964  0.5822  -0.009596  -0.03386  0.007955  -0.02953  0.7692  0.2443
6.456e+09  0.8722  0.2813  -0.0001095  -0.03795  0.03493  -0.02117  0.8918  -0.08647
6.458e+09  0.901  -0.06498  -0.02616  -0.01364  -0.03752  0.002194  0.7447  -0.3347
6.459e+09  0.8663  -0.3729  0.01381  0.002437  -0.01113  0.005705  0.5509  -0.58
6.46e+09  0.6734  -0.5483  0.002241  -0.002084  0.02218  0.000771  0.3477  -0.767
6.461e+09  0.4126  -0.7909  0.02874  0.00888  0.003307  0.02634  0.0832  -0.8055
6.462e+09  0.1007  -0.8586  0.01906  -0.02088  -0.007483  -0.01454  -0.2026  -0.7575
6.464e+09  -0.1377  -0.8632  -0.007547  0.04582  -0.01042  -0.02821  -0.4964  -0.6587
6.465e+09  -0.4595  -0.7426  0.03591  0.01199  0.02087  -0.002131  -0.702  -0.4893
6.466e+09  -0.7089  -0.5676  -0.01351  -0.01576  -0.006376  -0.06379  -0.7432  -0.1778
6.468e+09  -0.8783  -0.2687  -0.009733  0.02155  0.007338  -0.01041  -0.7482  0.03588
6.469e+09  -0.9228  0.001892  0.007854  -0.007779  0.04995  -0.005664  -0.7282  0.3733
6.47e+09  -0.824  0.3586  -0.02211  0.05119  0.001712  0.03654  -0.5678  0.5515
6.471e+09  -0.7233  0.6292  -0.004419  -0.01622  -0.0009126  -0.03469  -0.3146  0.6927
6.472e+09  -0.3958  0.7736  -0.0192  0.03603  -0.05228  0.03798  -0.04927  0.7927
6.474e+09  -0.1091  0.8712  0.02337  0.006345  0.00689  -0.03102  0.1766  0.7564
6.475e+09  0.2466  0.9052  0.007712  -0.02179  0.005771  -0.02997  0.4432  0.6734
6.476e+09  0.476  0.7632  0.02459  -0.02671  -0.01864  -0.01218  0.6605  0.4185
6.478e+09  0.6757  0.5618  0.02323  0.01263  -0.02026  -0.0005566  0.7627  0.2007
6.479e+09  0.9169  0.2675  -0.005482  -0.02917  0.02108  -0.005997  0.7563  -0.1078
6.48e+09  0.8777  -0.075  0.0166  -0.01725  -0.01855  -0.02239  0.6924  -0.3443
6.481e+09  0.8836  -0.3836  -0.0104  -0.02319  0.00515  0.001946  0.5299  -0.5918
6.482e+09  0.6494  -0.6548  0.005343  0.001697  -0.06159  0.009432  0.3401  -0.7406
6.484e+09  0.4175  -0.842  0.00761  0.04634  0.03702  0.01637  0.02793  -0.7826
6.485e+09  0.1099  -0.9399  -0.04815  -0.02865  -0.008601  0.03294  -0.1975  -0.7551
6.486e+09  -0.2443  -0.9213  0.00844  -0.04061  0.02658  0.02187  -0.4377  -0.648
6.488e+09  -0.559  -0.7573  -0.01682  0.04631  0.0104  -0.01099  -0.636  -0.3996
6.489e+09  -0.7115  -0.4996  -0.03896  0.02526  0.005468  -0.03821  -0.7674  -0.1864
6.49e+09  -0.8344  -0.291  -0.01952  0.007345  -0.002067  -0.02852  -0.7704  0.05718
6.491e+09  -0.8783  0.09774  0.0007129  -0.02152  0.01571  -0.04143  -0.6877  0.3344
6.492e+09  -0.8272  0.3726  0.007985  -0.003575  -0.03157  -0.04078  -0.5114  0.5743
6.494e+09  -0.65  0.6148  0.007036  -0.002073  0.004414  0.01468  -0.2992  0.6737
6.495e+09  -0.3713  0.8721  -0.0298  0.0403  0.03619  -0.01199  -0.05953  0.7984
6.496e+09  -0.08095  0.8944  -0.005982  0.04083  0.04855  -0.01489  0.2172  0.7631
6.498e+09  0.2466  0.8918  0.005735  -0.00662  0.00961  -0.03959  0.4892  0.6108
6.499e+09  0.6106  0.7428  0.0007235  -0.01188  0.01473  -0.01079  0.6538  0.4209
6.5e+09  0.7846  0.4543  -0.006748  0.04556  -0.03709  0.02611  0.7525  0.1539
6.501e+09  0.9329  0.2712  0.01893  -0.001103  0.005189  -0.0379  0.7445  -0.1078
6.502e+09  0.941  -0.09078  0.007575  -0.0008118  0.02089  0.01788  0.7152  -0.3556
6.504e+09  0.8407  -0.4241  -0.03326  -0.006299  -0.01758  -0.007362  0.5904  -0.5747
6.505e+09  0.671  -0.7039  0.001035  -0.0764  -0.001471  0.007291  0.2245  -0.6983
6.506e+09  0.3371  -0.8253  0.001341  -0.01238  0.02276  0.01175  0.0405  -0.7373
6.508e+09  0.04278  -1.003  0.006929  -0.0006259  0.02849  0.04472  -0.2562  -0.7288
6.509e+09  -0.2675  -0.9493  0.06091  0.001172  -0.002435  0.04914  -0.4726  -0.5653
6.51e+09  -0.6492  -0.775  -0.03573  -0.01513  -0.001264  0.01138  -0.6641  -0.3936
6.511e+09  -0.7902  -0.4851  -0.01001  0.01024  -0.02712  0.01911  -0.7684  -0.1189
6.512e+09  -0.9698  -0.185  -0.04223  -0.02997  -0.03682  0.003675  -0.7569  0.1596
6.514e+09  -0.9932  0.1506  -0.01691  -0.02471  0.01765  -0.005928  -0.6567  0.4278
6.515e+09  -0.7908  0.529  -0.005503  0.04398  -0.004176  -0.05058  -0.505  0.5847
6.516e+09  -0.6187  0.7598  0.01791  -0.01534  -0.05607  0.02567  -0.2718  0.7024
6.518e+09  -0.3615  0.911  0.01559  0.04211  -0.03394  0.007258  0.02828  0.7798
6.519e+09  -0.01356  0.8912  -0.02947  -0.004319  -0.01061  -0.03264  0.2349  0.7118
6.52e+09  0.3146  0.9071  -0.01238  -0.007535  0.0163  -0.002078  0.5041  0.5627
6.521e+09  0.677  0.6929  -0.02435  0.05065  -0.03368  -0.008116  0.6452  0.3238
6.522e+09  0.8859  0.5088  0.005668  -0.005691  0.003064  -0.05413  0.7124  0.08076
6.524e+09  0.9835  0.08706  -0.0155  -0.02091  -0.008659  0.02535  0.7136  -0.1569
6.525e+09  0.9637  -0.204  -0.03711  -0.007071  -0.02827  0.01492  0.6258  -0.4125
6.526e+09  0.8727  -0.537  -0.00788  -0.009315  -0.00248  0.003601  0.4337  -0.5656
6.528e+09  0.6259  -0.7809  -0.0148  0.002177  -0.01288  0.02886  0.1592  -0.6855
6.529e+09  0.2222  -0.924  0.01606  -0.01002  -0.01567  -0.03824  -0.06047  -0.7054
6.53e+09  -0.02461  -0.9873  0.009103  -0.0351  0.006207  -0.02459  -0.2861  -0.6514
6.531e+09  -0.4702  -0.8914  -0.02518  0.02109  0.00268  -0.04991  -0.4862  -0.509
6.532e+09  -0.7062  -0.7136  -0.01241  -0.01006  0.02562  -0.02661  -0.5817  -0.2935
6.534e+09  -0.8826  -0.4617  -0.02909  0.00546  -0.004265  -0.01679  -0.625  -0.09422
6.535e+09  -0.9453  -0.08467  -0.00716  -0.001323  -0.00128  -0.003068  -0.6279  0.1245
6.536e+09  -0.9374  0.3222  -0.007694  -0.02467  0.008241  -0.026  -0.5843  0.2772
6.538e+09  -0.7588  0.6309  -0.04531  0.007417  0.01271  0.01833  -0.4594  0.4385
6.539e+09  -0.5033  0.7918  0.01365  0.01574  0.02166  -0.0466  -0.2288  0.6325
6.54e+09  -0.2018  0.9573  0.005323  0.01809  0.00115  0.01735  -0.04064  0.6751
6.541e+09  0.1379  0.9665  0.007818  0.02658  -0.03281  -0.0208  0.1717  0.6833
6.542e+09  0.4861  0.8252  0.01094  0.02919  -0.03348  0.007776  0.4186  0.6212
6.544e+09  0.7676  0.6321  -0.01611  0.007573  0.006586  -0.0392  0.5624  0.4099
6.545e+09  0.9519  0.3565  -0.0009198  -0.02371  -0.03183  -0.01534  0.6912  0.2064
6.546e+09  0.9734  -0.01773  0.01878  0.001477  -0.02056  -0.02757  0.6994  -0.04837
6.548e+09  0.9477  -0.33  -0.00507  -0.01549  -0.02753  0.0628  0.647  -0.2954
6.549e+09  0.7058  -0.6725  0.02037  0.004248  0.01269  -0.001932  0.5093  -0.5225
6.55e+09  0.4309  -0.8582  0.003388  0.001256  0.0265  -0.006953  0.2813  -0.684
