# Hz S RI R 50
6.25e+09  -0.8462  0.07689  0.0109  -0.007665  -0.01783  0.02008  0.2001  0.481
6.251e+09  -0.7176  0.3578  0.02906  0.013  0.04436  0.01487  0.3551  0.425
6.252e+09  -0.6157  0.5856  0.03305  -0.01259  0.003253  -0.004627  0.5149  0.2645
6.254e+09  -0.3349  0.7233  -0.002363  0.006011  0.02544  0.006375  0.6092  0.04904
6.255e+09  -0.04339  0.8144  0.01512  0.02307  0.006509  -0.0312  0.5528  -0.23
6.256e+09  0.222  0.8096  -0.02819  0.009319  0.01406  0.004843  0.4724  -0.4652
6.258e+09  0.5126  0.6557  0.01291  -0.033  -0.02542  -0.04211  0.274  -0.6183
6.259e+09  0.6334  0.441  0.007513  -0.0372  0.0106  0.02494  0.01045  -0.6972
6.26e+09  0.8218  0.1913  -0.0019  3.184e-05  0.0008603  0.05475  -0.2316  -0.6496
6.261e+09  0.7792  -0.07025  -0.01638  0.01993  0.05161  0.04927  -0.4256  -0.52
6.262e+09  0.7294  -0.3518  0.01746  0.007993  -0.003003  0.01614  -0.6112  -0.2983
6.264e+09  0.5422  -0.6259  0.03687  0.01238  0.04392  0.005517  -0.7026  -0.1012
6.265e+09  0.3459  -0.7536  -0.03086  0.01285  0.01465  -0.03927  -0.683  0.1547
6.266e+09  0.07768  -0.8057  -0.02181  -0.01442  0.01504  -0.02833  -0.5971  0.395
6.268e+09  -0.2488  -0.7701  -0.0138  -1.15e-05  -0.002829  0.07604  -0.4105  0.5868
6.269e+09  -0.4676  -0.6743  -0.01284  0.00381  0.01001  0.02239  -0.2051  0.7056
6.27e+09  -0.6464  -0.4639  -0.02033  0.001847  -0.06662  0.01226  0.06092  0.7597
6.271e+09  -0.7696  -0.1509  -0.02408  -0.04543  -0.02569  0.03822  0.3069  0.639
6.272e+09  -0.7875  0.08322  0.00472  0.008991  -0.03247  0.01476  0.5293  0.5064
6.274e+09  -0.6922  0.3765  0.008347  -0.0004724  -0.009667  0.01086  0.6687  0.3046
6.275e+09  -0.573  0.5814  0.0001753  0.01618  0.02835  0.02463  0.7937  0.03926
6.276e+09  -0.2903  0.7819  0.00207  0.01322  0.02037  0.007681  0.72  -0.2521
6.278e+09  -0.02125  0.8088  -0.009559  0.0172  0.008049  -0.03621  0.6055  -0.4417
6.279e+09  0.2744  0.7504  -0.005711  0.01534  0.07538  -0.01329  0.4263  -0.6801
6.28e+09  0.5577  0.6393  -0.009724  -0.004442  -0.003182  -0.02851  0.1866  -0.7664
6.281e+09  0.6989  0.4318  0.005319  0.01163  -0.02791  0.02462  -0.1134  -0.774
6.282e+09  0.7607  0.1735  0.03314  0.01887  -0.03001  0.01193  -0.3598  -0.7167
6.284e+09  0.8228  -0.15  -0.009765  -0.02245  -0.07203  0.04456  -0.6155  -0.5242
6.285e+09  0.7283  -0.3924  0.04018  -0.02317  0.009333  -0.01359  -0.7152  -0.2946
6.286e+09  0.5864  -0.5999  0.005255  0.01298  -0.01317  -0.01548  -0.8159  -0.009648
6.288e+09  0.2627  -0.7536  0.02087  -0.003628  -0.06274  -0.001795  -0.7674  0.2696
6.289e+09  0.03988  -0.8662  -0.004231  -0.02481  -0.02081  -0.002835  -0.6408  0.5263
6.29e+09  -0.3286  -0.7931  -0.01257  0.0317  0.01935  0.007743  -0.4009  0.7155
6.291e+09  -0.5559  -0.6113  -0.004402  0.004771  -0.03044  0.002862  -0.1857  0.7888
6.292e+09  -0.7054  -0.3945  0.01736  0.01388  -0.01862  0.003474  0.1402  0.8151
6.294e+09  -0.7784  -0.0838  -0.01342  -0.01015  0.04839  0.0005011  0.4032  0.7486
6.295e+09  -0.7888  0.1499  -0.0166  -0.0214  0.04885  0.004861  0.5986  0.527
6.296e+09  -0.755  0.4202  -0.04609  -0.01536  0.01022  0.03776  0.7674  0.2928
6.298e+09  -0.4481  0.6105  -0.01368  -0.01263  -0.02677  -0.03178  0.8409  -0.01141
6.299e+09  -0.2206  0.7924  0.01785  0.00213  0.02204  -0.02505  0.7623  -0.2757
6.3e+09  0.03024  0.7737  0.04358  0.02009  0.04899  0.01917  0.647  -0.527
6.301e+09  0.307  0.7909  -0.03433  -0.01343  0.02854  0.04295  0.4218  -0.7502
6.302e+09  0.5659  0.6456  0.007658  -0.01336  0.02627  0.009301  0.1163  -0.8217
6.304e+09  0.7471  0.3335  0.00209  -0.01274  -0.01144  -0.04446  -0.1331  -0.8375
6.305e+09  0.812  0.08897  -0.006362  0.009905  0.03106  -0.01089  -0.4112  -0.7069
6.306e+09  0.8131  -0.1533  0.0271  -0.001787  -0.004554  0.03035  -0.6404  -0.5666
6.308e+09  0.6978  -0.4651  -0.00664  -0.01648  -0.01962  -0.03925  -0.7714  -0.3108
6.309e+09  0.4926  -0.6735  -0.001461  0.007837  0.03075  -0.03298  -0.859  -0.03331
6.31e+09  0.2181  -0.7425  -0.00927  0.004902  0.03344  0.04117  -0.7993  0.297
6.311e+09  -0.08491  -0.8035  0.03106  -0.01414  0.01682  0.009382  -0.6492  0.5469
6.312e+09  -0.4005  -0.77  -0.008317  0.04873  0.003922  0.009588  -0.4351  0.7594
6.314e+09  -0.6101  -0.5928  -0.01412  -0.007382  -0.0008277  -0.01169  -0.1477  0.8662
6.315e+09  -0.7504  -0.2757  -0.01777  -0.01317  0.03298  0.002198  0.129  0.8732
6.316e+09  -0.8412  -0.06148  -0.02444  0.02461  -0.06173  0.004941  0.4306  0.7387
6.318e+09  -0.7979  0.203  -0.007024  -0.01968  0.005205  0.03006  0.6756  0.5902
6.319e+09  -0.6833  0.4756  0.02547  0.008172  0.006477  0.02418  0.8324  0.3493
6.32e+09  -0.4047  0.7244  0.01943  -0.01554  0.0007049  0.0007833  0.8746  0.01165
6.321e+09  -0.1497  0.7685  -0.01852  0.01408  0.01217  -0.0222  0.8187  -0.2819
6.322e+09  0.1219  0.843  -0.01355  -0.01055  0.05784  0.005757  0.6871  -0.5772
6.324e+09  0.3958  0.7304  0.008323  -0.01964  0.01546  0.03807  0.481  -0.762
6.325e+09  0.6124  0.5381  -0.03337  -0.01863  -0.001763  -0.0237  0.192  -0.8745
6.326e+09  0.7745  0.3252  -0.003194  0.003875  0.01027  -0.009079  -0.1329  -0.8706
6.328e+09  0.8341  -0.02877  -0.007245  -0.003757  -0.01737  -0.00833  -0.4563  -0.7763
6.329e+09  0.7967  -0.2742  -0.002285  -0.03025  0.02694  -0.01477  -0.6715  -0.6239
6.33e+09  0.6326  -0.5034  -0.01384  -0.01925  0.009465  -0.04956  -0.8376  -0.3272
6.331e+09  0.4062  -0.7408  0.01108  -0.007309  0.02271  -0.04663  -0.9097  -0.00937
6.332e+09  0.1008  -0.8689  0.01645  0.03357  0.01072  0.004955  -0.8966  0.2804
6.334e+09  -0.2017  -0.8259  -0.001615  -0.01543  -0.04187  0.009868  -0.7241  0.5361
6.335e+09  -0.4219  -0.6982  0.01559  -0.0005629  -0.02606  0.004163  -0.4895  0.7725
6.336e+09  -0.6466  -0.4973  -0.02602  -0.001481  -0.01018  -0.007006  -0.1838  0.9083
6.338e+09  -0.7633  -0.244  0.01149  0.006178  0.01205  -0.006513  0.1373  0.9062
6.339e+09  -0.8818  0.02919  -0.0305  -0.01614  -0.02126  0.01043  0.4554  0.8138
6.34e+09  -0.8067  0.3923  0.004351  -0.02008  -0.01002  0.05549  0.6859  0.6185
6.341e+09  -0.636  0.6184  0.003078  0.007859  0.0203  -0.01107  0.8499  0.3513
6.342e+09  -0.3296  0.7537  0.04215  -0.01524  0.0171  -0.02719  0.9398  0.043
6.344e+09  -0.07581  0.8508  0.005949  0.01261  0.04013  0.003866  0.9009  -0.3059
6.345e+09  0.213  0.8362  -0.01619  0.002697  0.02267  -0.001186  0.7406  -0.549
6.346e+09  0.4519  0.6805  -0.0103  -0.01231  0.006592  -0.00204  0.4992  -0.7969
6.348e+09  0.7287  0.4456  0.03177  0.01882  -0.001509  0.02065  0.2145  -0.8973
6.349e+09  0.8428  0.1403  -0.011  0.03386  -0.04839  -0.05758  -0.0746  -0.9198
6.35e+09  0.8523  -0.1358  -0.002853  0.0523  -0.0124  -0.03716  -0.413  -0.8055
6.351e+09  0.736  -0.4489  0.01191  -0.01613  -0.01255  -0.003217  -0.687  -0.6567
6.352e+09  0.5936  -0.6951  0.02035  -0.01388  -0.002679  -0.02148  -0.8795  -0.3967
6.354e+09  0.3241  -0.8052  -0.01099  0.01555  0.006696  0.01639  -0.9462  -0.06145
6.355e+09  0.01374  -0.8831  -0.02359  0.002295  0.03399  0.003998  -0.9211  0.3035
6.356e+09  -0.3449  -0.8136  0.007446  -0.03787  0.03568  0.03451  -0.7552  0.5558
6.358e+09  -0.6064  -0.6348  0.005658  0.02083  -0.01355  0.01192  -0.5206  0.758
6.359e+09  -0.7536  -0.3824  5.475e-05  0.01664  0.007674  0.01849  -0.239  0.9174
6.36e+09  -0.8911  -0.1177  -0.01354  0.008595  0.00787  -0.04024  0.07957  0.9221
6.361e+09  -0.7955  0.1502  -0.01364  0.01566  -0.04227  -0.01749  0.415  0.8698
6.362e+09  -0.7135  0.5175  -0.01652  -0.01656  -0.02941  0.01859  0.7068  0.6975
6.364e+09  -0.4825  0.6756  -0.004675  0.03225  -0.02068  -0.005221  0.8778  0.4045
6.365e+09  -0.1909  0.8315  -0.01424  0.02307  0.0004698  -0.02073  0.9191  0.0678
6.366e+09  0.1012  0.8474  -0.004793  -0.02643  0.05956  -0.0388  0.9172  -0.2659
6.368e+09  0.3916  0.8017  0.0009886  0.01977  0.01498  -0.002832  0.7626  -0.5329
6.369e+09  0.5899  0.5687  -0.009015  0.02412  0.001793  0.02021  0.5447  -0.7791
6.37e+09  0.8726  0.3532  -0.01817  0.02748  -0.0277  0.01422  0.2233  -0.9078
6.371e+09  0.8657  0.08437  0.032  -0.002615  -0.007105  -0.001892  -0.05573  -0.979
6.372e+09  0.8144  -0.2736  -0.04027  0.01045  -0.02697  0.05568  -0.3835  -0.8652
6.374e+09  0.6715  -0.5846  0.007067  -0.03981  -0.01021  0.07523  -0.6361  -0.6532
6.375e+09  0.4129  -0.7572  -0.01495  -0.06058  -0.02955  0.02711  -0.8346  -0.4067
6.376e+09  0.1692  -0.8689  0.01011  -0.01073  -0.01165  -0.005749  -0.9258  -0.09407
6.378e+09  -0.1684  -0.8757  0.03063  0.003384  0.004639  -0.04418  -0.8654  0.1874
6.379e+09  -0.3788  -0.7503  0.02571  0.02159  -0.03329  -0.000235  -0.7903  0.4996
6.38e+09  -0.6754  -0.5638  0.05152  -0.02676  -0.01219  0.007378  -0.5562  0.7587
6.381e+09  -0.8271  -0.2808  -0.02176  -0.0183  0.04728  -0.0295  -0.2583  0.9296
6.382e+09  -0.8609  -0.002922  -0.001335  -0.06117  0.004373  0.02899  0.05611  0.9329
6.384e+09  -0.7843  0.33  0.01038  -0.0008788  0.01681  -0.0001117  0.4328  0.8882
6.385e+09  -0.6766  0.6566  0.009445  0.002552  -0.0377  -0.04796  0.6795  0.6371
6.386e+09  -0.3767  0.789  0.05589  -0.02189  0.004062  -0.006858  0.7894  0.4507
6.388e+09  -0.07704  0.8922  -0.01262  -0.01638  -0.01865  0.02807  0.9091  0.1391
6.389e+09  0.2776  0.8314  -0.005875  0.02986  0.002438  -0.04981  0.9433  -0.2306
6.39e+09  0.4857  0.6829  0.02703  -0.01607  -0.02438  0.006307  0.727  -0.4913
6.391e+09  0.7124  0.4581  -0.02244  0.01325  0.01362  0.03421  0.564  -0.7196
6.392e+09  0.8218  0.2141  -0.005208  0.0489  0.0342  0.03326  0.2347  -0.8729
6.394e+09  0.8898  -0.1232  -0.02224  -0.03784  -0.0157  0.02804  -0.0513  -0.9232
6.395e+09  0.8179  -0.3983  0.03063  0.006378  -0.004144  -0.03005  -0.3358  -0.8686
6.396e+09  0.5952  -0.6719  -0.005463  -0.02958  -0.02905  -0.009374  -0.5814  -0.6997
6.398e+09  0.3295  -0.8166  0.05466  0.008491  -0.00916  0.008959  -0.8193  -0.4525
6.399e+09  0.0704  -0.8576  -0.0009301  0.008245  -0.002263  0.04203  -0.8326  -0.1517
6.4e+09  -0.3389  -0.7781  -0.01486  -0.01969  0.02507  -0.04423  -0.8982  0.2258
6.401e+09  -0.5415  -0.6278  -0.01537  -0.032  0.01805  0.01422  -0.826  0.506
6.402e+09  -0.7317  -0.4299  -0.03575  0.01526  -0.01284  -0.0055  -0.5772  0.7174
6.404e+09  -0.8624  -0.1717  -0.01787  0.02944  -0.00828  -0.02278  -0.2969  0.833
6.405e+09  -0.8761  0.1383  -0.01571  0.009494  0.0274  -0.005785  -0.002479  0.9233
6.406e+09  -0.7416  0.4454  -0.02295  -0.01108  -0.004366  0.01557  0.3565  0.8601
6.408e+09  -0.5589  0.707  0.006932  0.03203  0.04032  0.01786  0.5678  0.6747
6.409e+09  -0.2489  0.8359  0.002163  0.01658  0.04561  -0.03748  0.744  0.4581
6.41e+09  0.03277  0.883  -0.01068  0.008034  -0.05959  -0.04111  0.9196  0.1597
6.411e+09  0.3406  0.8176  0.01647  0.01154  -0.0449  0.04463  0.8911  -0.1486
6.412e+09  0.619  0.6  0.01769  0.02085  -0.06303  -0.02934  0.7778  -0.4784
6.414e+09  0.7995  0.409  0.01669  0.007685  -0.03775  -0.01786  0.6322  -0.6914
6.415e+09  0.8695  0.0875  -0.02538  -0.006164  0.001733  0.05028  0.3418  -0.8154
6.416e+09  0.8079  -0.1502  -0.02628  0.003464  -0.05298  0.03424  0.009505  -0.8652
6.418e+09  0.7407  -0.4901  0.01421  -0.0001099  0.02089  0.02993  -0.3218  -0.842
6.419e+09  0.5112  -0.7154  -0.03475  0.04136  -0.008517  0.00759  -0.5468  -0.7152
6.42e+09  0.2446  -0.7901  -0.02772  -0.02503  0.002438  -0.01318  -0.7716  -0.4883
6.421e+09  -0.08408  -0.927  -0.07692  0.0434  -0.005642  0.01908  -0.9108  -0.2448
6.422e+09  -0.4235  -0.8182  -0.02779  -0.01206  -0.001304  -0.005748  -0.8468  0.09948
6.424e+09  -0.6721  -0.5813  -0.02389  0.02374  0.02212  -0.00826  -0.78  0.3502
6.425e+09  -0.8048  -0.3681  0.03747  -0.01812  -0.04923  0.01266  -0.6178  0.6029
6.426e+09  -0.8811  -0.01175  0.0007041  -0.02879  -0.009076  0.05791  -0.3305  0.8225
6.428e+09  -0.8209  0.2525  0.03523  0.02824  -0.009954  0.0004228  -0.04886  0.908
6.429e+09  -0.692  0.4928  0.04303  -0.04459  -0.01051  0.01838  0.2365  0.794
6.43e+09  -0.4808  0.7252  -0.009607  0.02084  -0.02347  -0.00549  0.5312  0.7138
6.431e+09  -0.2063  0.847  0.006247  0.00809  -0.02636  -0.03168  0.7211  0.5001
6.432e+09  0.0672  0.8618  -0.01791  0.03586  -0.0009261  0.03701  0.8716  0.1615
6.434e+09  0.4533  0.7987  0.01162  -0.005437  -0.02226  -0.008431  0.8675  -0.1252
6.435e+09  0.6184  0.5627  0.02086  0.01887  0.007504  0.03757  0.7407  -0.3807
6.436e+09  0.7962  0.3461  -0.04279  0.04169  0.008997  -0.05175  0.5953  -0.624
6.438e+09  0.877  0.04545  -0.02897  -0.04579  -0.0319  -0.00424  0.3721  -0.7649
6.439e+09  0.791  -0.2959  -0.02087  0.01379  0.00636  0.001862  0.07854  -0.8457
6.44e+09  0.6978  -0.5311  0.02435  0.05161  0.01235  -0.01684  -0.2072  -0.8447
6.441e+09  0.4482  -0.7179  -0.02709  -0.003431  0.01028  0.007526  -0.5068  -0.7006
6.442e+09  0.1627  -0.8933  -0.0148  0.03301  0.03087  0.007985  -0.7593  -0.5085
6.444e+09  -0.1544  -0.8253  -0.01256  8.384e-05  -0.05488  -0.0039  -0.8346  -0.2327
6.445e+09  -0.465  -0.7823  -6.357e-06  -0.0133  -0.006931  -0.02767  -0.8237  0.09532
6.446e+09  -0.6576  -0.5371  0.001105  0.02562  0.00196  0.00552  -0.8116  0.3613
6.448e+09  -0.8366  -0.2618  -0.003067  -0.005665  0.02968  -0.0262  -0.6314  0.6148
6.449e+09  -0.8787  0.05608  0.0544  0.007282  -0.02621  0.007744  -0.3707  0.7922
6.45e+09  -0.8397  0.3094  0.0467  0.0121  0.04107  -0.01151  -0.07455  0.8374
6.451e+09  -0.6493  0.6157  0.02935  0.01142  0.02241  -0.0193  0.197  0.8382
6.452e+09  -0.405  0.7762  -0.03515  -0.003665  0.01926  -0.01011  0.5287  0.6447
6.454e+09  -0.119  0.8488  -0.003358  -7.641e-05  -0.06708  -0.009494  0.6843  0.4857
6.455e+09  0.1431  0.8122  -0.03188  0.006537  -0.0001409  0.01747  0.8191  0.2109
6.456e+09  0.4305  0.734  0.02124  -0.01247  -0.04798  0.02287  0.808  -0.06934
6.458e+09  0.6903  0.4688  0.04449  -0.01362  -0.02993  0.04431  0.7638  -0.3246
6.459e+09  0.8314  0.2963  0.05473  0.006346  0.001993  -0.01594  0.5863  -0.5218
6.46e+09  0.8827  -0.07212  0.03757  0.001431  -0.01219  -0.003497  0.3457  -0.751
6.461e+09  0.7967  -0.2923  -0.0317  -0.02394  0.03514  0.002653  0.02188  -0.8527
6.462e+09  0.6341  -0.5731  -0.001544  0.02548  0.02422  0.03345  -0.2526  -0.7927
6.464e+09  0.4023  -0.7415  0.05242  -0.06781  0.005808  0.04856  -0.4658  -0.65
6.465e+09  0.1381  -0.8474  -0.0121  0.006099  0.02648  0.01607  -0.6581  -0.4631
6.466e+09  -0.2087  -0.8746  0.02907  0.004173  0.00445  0.001177  -0.7575  -0.1723
6.468e+09  -0.4214  -0.7156  0.001355  -0.006614  -0.006405  0.03084  -0.7692  0.08432
6.469e+09  -0.7015  -0.5539  0.0001775  0.02331  0.04655  -0.01752  -0.7143  0.313
6.47e+09  -0.8221  -0.2186  -0.04541  0.01495  -0.01177  -0.009104  -0.5492  0.528
6.471e+09  -0.7997  0.06312  -0.01023  0.01144  0.008074  0.01301  -0.3385  0.727
6.472e+09  -0.7911  0.3413  -0.05506  -0.0005774  0.02807  -0.0184  -0.04343  0.7841
6.474e+09  -0.5913  0.5651  0.04904  -0.007789  -0.00885  0.04436  0.1897  0.7544
6.475e+09  -0.3497  0.775  0.01058  -0.0004749  -0.01058  0.001029  0.455  0.6392
6.476e+09  -0.08363  0.8451  -0.03229  0.003588  0.01688  -0.001703  0.6592  0.4448
6.478e+09  0.1834  0.8121  0.01241  -0.03867  -0.04076  0.01521  0.773  0.1566
6.479e+09  0.4728  0.7583  0.04944  -0.05248  -0.02073  -0.0282  0.7805  -0.08645
6.48e+09  0.6942  0.5022  -0.002878  0.01894  0.003897  0.01943  0.7045  -0.3167
6.481e+09  0.7933  0.2762  0.01187  -0.03679  0.004625  -0.01335  0.5469  -0.5786
6.482e+09  0.8917  -0.1159  0.005789  -0.02662  0.006621  -0.02657  0.3493  -0.7148
6.484e+09  0.7798  -0.3446  -0.03806  0.005244  -0.01073  -0.005955  0.07851  -0.7792
6.485e+09  0.6652  -0.6467  -0.04545  -0.02573  -0.01098  0.03454  -0.2188  -0.7975
6.486e+09  0.4053  -0.8038  -0.007747  0.00852  0.02259  0.02682  -0.4259  -0.6297
6.488e+09  0.0697  -0.8545  -0.03312  0.008816  -0.01795  0.002881  -0.6592  -0.3953
6.489e+09  -0.2569  -0.7812  0.008225  0.000117  0.03037  0.004481  -0.7495  -0.1735
6.49e+09  -0.4705  -0.6568  0.012  -0.006284  -0.002914  0.01855  -0.792  0.07749
6.491e+09  -0.703  -0.5188  0.01296  -0.02186  0.02071  0.04463  -0.6616  0.3011
6.492e+09  -0.8496  -0.1852  -0.004809  -0.03429  -0.007315  0.02193  -0.5095  0.5431
6.494e+09  -0.8285  0.1171  0.01907  0.01561  0.007857  0.0124  -0.3393  0.6966
6.495e+09  -0.7832  0.3443  -0.003003  0.004508  0.01799  -0.03473  -0.04249  0.7499
6.496e+09  -0.6427  0.66  0.01884  0.007847  -0.05289  0.02757  0.2294  0.724
6.498e+09  -0.3419  0.7821  -0.007176  -0.001455  0.01644  0.004983  0.4681  0.5868
6.499e+09  -0.07371  0.8129  -0.001178  0.002075  0.02912  0.0256  0.6532  0.4383
6.5e+09  0.2011  0.8798  0.003693  -0.03997  -0.0201  0.004367  0.7631  0.1676
6.501e+09  0.4883  0.7674  -0.03832  0.008836  -0.03359  0.007443  0.7592  -0.146
6.502e+09  0.7338  0.509  -0.01824  0.005059  -0.07804  0.0312  0.6492  -0.3448
6.504e+09  0.8507  0.2043  0.01071  0.02024  -0.002133  -0.01609  0.5164  -0.5981
6.505e+09  0.8548  -0.1301  -0.02885  0.006977  -0.03456  0.006423  0.2854  -0.7263
6.506e+09  0.8191  -0.4647  -0.009807  0.03628  0.02033  -0.03635  0.01297  -0.7712
6.508e+09  0.6032  -0.6341  0.03763  -0.01035  0.002811  0.04409  -0.2596  -0.7422
6.509e+09  0.3819  -0.8145  0.05003  0.02941  -0.009994  0.01636  -0.4993  -0.5828
6.51e+09  0.06067  -0.8828  0.005481  -0.01416  -0.01311  -0.01951  -0.638  -0.3662
6.511e+09  -0.2709  -0.8335  0.003617  0.01289  0.02165  0.05922  -0.7418  -0.1269
6.512e+09  -0.5727  -0.7045  0.01459  0.001677  -0.01672  -0.02569  -0.7261  0.1266
6.514e+09  -0.698  -0.5007  0.001613  -0.005398  0.01209  0.01664  -0.6569  0.3659
6.515e+09  -0.9348  -0.2124  -0.008576  0.02498  -0.0194  0.03008  -0.5038  0.5591
6.516e+09  -0.8855  0.1834  0.0283  -0.01321  -0.01716  -0.0281  -0.2565  0.6865
6.518e+09  -0.7978  0.4426  0.02944  -0.01124  -0.02559  0.02105  -0.0186  0.7277
6.519e+09  -0.6468  0.6727  0.01019  0.01736  -0.01922  -0.03105  0.2562  0.6607
6.52e+09  -0.3443  0.8126  0.01222  0.01993  0.0348  0.03402  0.4715  0.5519
6.521e+09  -0.06629  0.9307  0.001251  0.01798  -0.01951  -0.003563  0.6409  0.3187
6.522e+09  0.2589  0.871  0.01569  0.005356  -0.06664  -0.02747  0.706  0.0874
6.524e+09  0.5877  0.7195  -0.001383  -0.01391  0.004129  0.03737  0.7041  -0.1501
6.525e+09  0.7604  0.4878  0.05168  0.02795  -0.02076  -0.06633  0.6343  -0.4044
6.526e+09  0.9145  0.1446  -0.01731  -0.02372  0.03254  -0.0567  0.4275  -0.5866
6.528e+09  0.9812  -0.1572  -0.03115  0.02457  -0.002373  0.01344  0.2435  -0.6909
6.529e+09  0.8054  -0.4628  -0.01995  -0.008141  0.04347  -0.01606  -0.03403  -0.6982
6.53e+09  0.5944  -0.7086  -0.02206  0.01311  -0.01293  -0.008693  -0.2644  -0.6377
6.531e+09  0.3101  -0.8893  -0.0008121  0.01268  0.001428  -0.06019  -0.4679  -0.4669
6.532e+09  0.01366  -0.9221  0.004287  -0.0002561  -0.005643  -0.01247  -0.6124  -0.2906
6.534e+09  -0.356  -0.8881  -0.01268  -0.007905  -0.002264  -0.006825  -0.6596  -0.08247
6.535e+09  -0.5875  -0.6868  -0.009069  0.003332  -0.009021  0.02477  -0.5986  0.103
6.536e+09  -0.8771  -0.4685  0.02334  -0.0295  -0.04299  0.02264  -0.5932  0.2972
6.538e+09  -0.9545  -0.1082  -0.0112  -0.02375  -0.0005534  0.04466  -0.4333  0.5074
6.539e+09  -0.9146  0.1684  0.04226  -0.01994  -0.0005105  -0.003843  -0.3009  0.5801
6.54e+09  -0.8293  0.5583  -0.02073  -0.007894  0.02595  -0.05349  -0.03285  0.7007
6.541e+09  -0.5925  0.769  0.01429  0.01494  0.01081  -0.01646  0.1673  0.6656
6.542e+09  -0.2696  0.8568  -0.02472  -0.01709  0.01247  0.006932  0.4428  0.6026
6.544e+09  0.0954  0.9751  0.007472  0.04858  0.03126  0.005691  0.6055  0.3891
6.545e+09  0.4326  0.855  0.03129  -0.009828  0.01125  -0.02548  0.7326  0.1967
6.546e+09  0.6632  0.6618  -0.005954  0.02251  -0.0238  0.006311  0.7574  -0.08989
6.548e+09  0.8817  0.3419  -0.01119  0.002655  -0.01692  0.02183  0.6824  -0.3433
6.549e+09  0.9801  0.04979  0.01282  0.005624  -0.01771  0.02199  0.4751  -0.5173
6.55e+09  0.9418  -0.2898  -0.004426  -0.01348  -0.06178  0.02847  0.2746  -0.6597
