# Hz S RI R 50
6.25e+09  -0.3622  0.734  -0.02417  0.01233  -0.07485  0.007958  0.1645  0.5088
6.251e+09  -0.1011  0.865  -0.001298  0.01141  -0.001255  0.05324  0.3545  0.4327
6.252e+09  0.2361  0.8338  -0.006134  0.001612  -0.01731  -0.03181  0.5392  0.2705
6.254e+09  0.4622  0.698  0.02416  -0.0219  0.003561  -0.02742  0.6423  0.02037
6.255e+09  0.6543  0.5137  0.01091  0.0359  0.01163  -0.03001  0.5828  -0.2242
6.256e+09  0.814  0.2827  0.01694  -0.009654  -0.04096  0.01514  0.4684  -0.4342
6.258e+09  0.8102  -0.1244  -0.02899  0.03275  0.0295  -0.03353  0.278  -0.6054
6.259e+09  0.7629  -0.3714  -0.00142  -0.02285  -0.02342  -0.01057  0.02757  -0.6547
6.26e+09  0.5669  -0.6112  0.003002  0.00488  0.01144  -0.01391  -0.217  -0.6312
6.261e+09  0.4057  -0.7755  0.007183  0.007337  -0.004467  0.02891  -0.454  -0.55
6.262e+09  0.06481  -0.8411  -0.01467  -0.00721  -0.01306  -0.04969  -0.6396  -0.3404
6.264e+09  -0.2335  -0.7781  -0.006316  -0.01963  -0.005121  0.02498  -0.729  -0.08472
6.265e+09  -0.5531  -0.7372  0.02994  -0.0243  0.0218  0.001694  -0.7336  0.1784
6.266e+09  -0.6782  -0.4762  -0.002423  0.0001369  0.01663  -0.02718  -0.6253  0.4142
6.268e+09  -0.7901  -0.2063  0.009474  -0.004198  -0.005212  -0.02747  -0.4207  0.5688
6.269e+09  -0.7799  0.08561  -0.001713  -0.02448  -0.041  0.03372  -0.2111  0.726
6.27e+09  -0.7761  0.3299  -0.01329  0.01062  0.02483  0.00926  0.05177  0.7775
6.271e+09  -0.5606  0.6183  0.02168  0.02974  0.003362  -0.03073  0.2938  0.6621
6.272e+09  -0.3564  0.7923  0.03352  0.02107  0.006655  0.003831  0.5621  0.51
6.274e+09  -0.06888  0.8215  -0.03139  0.007489  -0.04649  -0.009722  0.6965  0.3386
6.275e+09  0.2189  0.772  -0.004968  0.02188  -0.009629  -0.0039  0.7299  0.02383
6.276e+09  0.5223  0.7005  -0.01165  0.002408  -0.006367  0.02129  0.7217  -0.2418
6.278e+09  0.6864  0.4558  -0.001559  0.0368  -0.05161  0.03739  0.5793  -0.4756
6.279e+09  0.8253  0.161  0.003555  0.02205  0.01082  -0.06468  0.3994  -0.659
6.28e+09  0.8275  -0.1104  0.000911  -0.0116  -0.009525  -0.005381  0.1868  -0.7628
6.281e+09  0.696  -0.4173  -0.008795  -0.005726  0.01644  -0.04119  -0.1034  -0.7659
6.282e+09  0.575  -0.6192  -0.02492  0.01171  -0.009691  -0.01142  -0.3436  -0.6897
6.284e+09  0.3197  -0.7671  -0.01636  0.01025  -0.02313  -0.03374  -0.5678  -0.5016
6.285e+09  0.05195  -0.8713  -0.006136  -0.01657  -0.01596  0.07884  -0.7409  -0.3001
6.286e+09  -0.2303  -0.8386  -0.01061  -0.02646  0.05668  -0.03722  -0.7777  -0.001096
6.288e+09  -0.528  -0.6321  0.005553  0.01804  -0.03643  0.004624  -0.7254  0.2451
6.289e+09  -0.711  -0.4707  0.0242  -0.01037  -0.05565  -0.007109  -0.6249  0.5162
6.29e+09  -0.8148  -0.1874  0.02215  0.01516  -0.0247  0.01314  -0.4494  0.6842
6.291e+09  -0.767  0.1169  0.009744  0.001134  -0.01329  0.01551  -0.1591  0.7943
6.292e+09  -0.7221  0.4368  -0.009736  0.01063  -0.05584  -0.01404  0.1413  0.8362
6.294e+09  -0.5456  0.5996  0.002211  -0.002094  -0.02578  -0.005951  0.3867  0.6901
6.295e+09  -0.3228  0.8114  0.002079  -0.02853  -0.0229  -0.0338  0.6179  0.5186
6.296e+09  -0.001032  0.8527  0.006143  -0.01747  -0.009989  0.07913  0.7774  0.2942
6.298e+09  0.268  0.7654  -0.006566  0.02488  -0.002966  0.01645  0.834  0.03403
6.299e+09  0.5305  0.6098  -0.01119  -0.02686  0.01005  -0.01115  0.808  -0.2644
6.3e+09  0.7192  0.3582  -0.008083  0.009475  -0.02254  -0.04995  0.6572  -0.5471
6.301e+09  0.8269  0.1452  0.01689  0.01513  0.0181  -0.02791  0.4122  -0.7284
6.302e+09  0.8694  -0.1729  0.01808  0.01725  0.0194  -0.02634  0.1681  -0.8492
6.304e+09  0.7181  -0.455  0.01213  0.01582  -0.0104  -0.004559  -0.1545  -0.8516
6.305e+09  0.5495  -0.6724  0.01312  -0.0003208  -0.0004897  -0.006225  -0.4141  -0.73
6.306e+09  0.2832  -0.8304  -0.02776  -0.00114  -0.0137  -0.04546  -0.6475  -0.5479
6.308e+09  -0.004263  -0.8322  -0.02278  -0.0194  -0.005543  -0.03109  -0.8116  -0.3014
6.309e+09  -0.3216  -0.7602  0.01909  -0.0006467  -0.01138  -0.05447  -0.85  0.007993
6.31e+09  -0.552  -0.6732  0.01634  -0.03455  -0.005911  0.01466  -0.8158  0.2933
6.311e+09  -0.7598  -0.386  -0.04001  -0.008105  -0.003799  0.002261  -0.6753  0.5378
6.312e+09  -0.8644  -0.07822  0.01005  0.007242  0.02745  9.509e-05  -0.4457  0.7653
6.314e+09  -0.795  0.1995  -0.0003936  0.02601  0.05525  -0.01903  -0.1476  0.8699
6.315e+09  -0.7075  0.4562  0.01209  -0.01757  0.03987  0.05261  0.1512  0.8462
6.316e+09  -0.5009  0.6829  0.003272  0.003295  -0.01119  -0.009972  0.4621  0.791
6.318e+09  -0.2137  0.8236  -0.02722  0.017  0.02421  -0.008099  0.6781  0.5808
6.319e+09  0.1029  0.8953  -0.02385  -0.002351  -0.01529  -0.04129  0.8301  0.3015
6.32e+09  0.2557  0.7386  0.009466  0.01822  -0.01041  0.01071  0.9066  0.005376
6.321e+09  0.5737  0.6265  0.009059  -0.0109  0.002978  -0.03786  0.8402  -0.3649
6.322e+09  0.7752  0.3525  0.001994  -0.00448  0.02297  0.003272  0.6983  -0.5457
6.324e+09  0.8503  0.0608  0.006472  0.02251  0.01287  -0.009316  0.4412  -0.7405
6.325e+09  0.8131  -0.2241  0.01075  -0.0138  -0.0699  -0.01929  0.1627  -0.876
6.326e+09  0.7096  -0.4697  -0.009022  0.004237  -0.04364  -0.004152  -0.1185  -0.9025
6.328e+09  0.494  -0.7538  0.004868  0.00204  0.03186  -0.04593  -0.3968  -0.7977
6.329e+09  0.1848  -0.8392  0.004096  0.01311  0.04008  0.01266  -0.6705  -0.606
6.33e+09  -0.07712  -0.8496  -0.02838  -0.02825  -0.008218  0.04228  -0.8767  -0.3159
6.331e+09  -0.4021  -0.7704  -0.009818  0.02484  0.01044  -0.003385  -0.9039  -0.01307
6.332e+09  -0.6412  -0.5775  0.02357  0.02489  -0.003324  0.05011  -0.8413  0.2999
6.334e+09  -0.848  -0.3145  0.005362  0.01253  0.06211  -0.008977  -0.7246  0.553
6.335e+09  -0.8931  -0.003109  0.003918  -0.003015  -0.002175  0.006431  -0.512  0.7826
6.336e+09  -0.8308  0.3025  0.002872  -0.006078  0.03546  0.04841  -0.1721  0.8648
6.338e+09  -0.6461  0.5542  0.004446  0.02045  -0.006852  0.005416  0.1131  0.8973
6.339e+09  -0.4157  0.7488  0.001978  -0.002922  -0.02292  0.03808  0.4024  0.8397
6.34e+09  -0.1078  0.845  0.03132  0.01183  0.02785  -0.02524  0.6723  0.606
6.341e+09  0.1894  0.8854  0.01864  -0.009473  0.01858  0.01844  0.8469  0.3363
6.342e+09  0.4839  0.7508  -0.01578  -0.02135  0.03138  -0.02832  0.9419  0.03143
6.344e+09  0.7084  0.5354  -0.008946  0.006191  -0.03401  0.009865  0.8979  -0.2646
6.345e+09  0.8267  0.2245  -0.05908  -0.01239  0.008844  0.002663  0.7272  -0.5752
6.346e+09  0.8729  -0.03507  0.00199  -0.0196  -0.01485  0.01541  0.4916  -0.7649
6.348e+09  0.8332  -0.3533  -0.01305  -0.0201  0.004711  -0.02965  0.2008  -0.9405
6.349e+09  0.644  -0.6089  -0.00242  -0.005216  -0.01053  0.005742  -0.1143  -0.923
6.35e+09  0.4209  -0.8358  -0.02772  -0.02503  0.01565  0.02437  -0.4376  -0.8229
6.351e+09  0.07237  -0.8882  -0.02187  -0.01555  -0.002649  -0.05846  -0.6602  -0.6476
6.352e+09  -0.223  -0.8475  0.0063  -0.04367  -0.00533  -0.06298  -0.8794  -0.3898
6.354e+09  -0.4929  -0.7403  -0.003319  0.01009  0.007379  0.05208  -0.9588  -0.06478
6.355e+09  -0.7405  -0.4859  -0.008622  0.004859  0.01136  -0.02826  -0.8995  0.2451
6.356e+09  -0.8603  -0.2159  0.001604  -0.01029  -0.02897  -0.01295  -0.7425  0.5624
6.358e+09  -0.8988  0.1014  -0.00908  -0.04588  0.03152  -0.04025  -0.5405  0.8118
6.359e+09  -0.7752  0.4225  -0.01359  -0.02377  -0.009207  0.002696  -0.2667  0.8341
6.36e+09  -0.5927  0.6831  0.00721  0.04477  0.02238  -0.009178  0.1164  0.9545
6.361e+09  -0.3021  0.8174  -0.03182  0.00853  -0.004083  -0.02428  0.4066  0.8466
6.362e+09  -0.01885  0.8897  -0.02738  0.06478  -0.04102  -0.01614  0.6923  0.6406
6.364e+09  0.3227  0.8581  -0.003058  -0.01444  -0.01445  -0.01802  0.8507  0.3934
6.365e+09  0.5382  0.6999  -0.02433  0.02474  -0.03079  0.02843  0.9321  0.05448
6.366e+09  0.7732  0.474  0.04563  -0.01115  -0.009413  0.03069  0.9112  -0.2825
6.368e+09  0.8665  0.1155  -0.03638  0.002761  0.01302  -0.01599  0.767  -0.5177
6.369e+09  0.8402  -0.159  -0.001108  0.0159  -0.02989  -0.008855  0.5179  -0.7914
6.37e+09  0.8429  -0.4764  -0.008715  0.02241  -0.03125  -0.01749  0.2254  -0.9468
6.371e+09  0.5228  -0.6647  -0.02787  -0.004796  -0.01832  -0.05683  -0.07337  -0.9541
6.372e+09  0.301  -0.844  0.0235  -0.0153  0.0496  -0.008626  -0.4193  -0.8951
6.374e+09  -0.005814  -0.855  0.02037  0.008266  -0.02543  -0.04209  -0.6466  -0.6957
6.375e+09  -0.3171  -0.8235  0.01061  0.01579  -0.00829  0.02942  -0.8595  -0.4573
6.376e+09  -0.5752  -0.6704  0.01004  -0.01098  0.00262  0.03502  -0.9241  -0.09222
6.378e+09  -0.8167  -0.4232  -0.001124  0.03557  -0.00161  0.001656  -0.9021  0.2078
6.379e+09  -0.8913  -0.1042  -0.001948  -0.05898  0.01199  0.03896  -0.7727  0.5653
6.38e+09  -0.8285  0.1612  0.003107  -0.01163  0.02696  -0.01171  -0.5374  0.7421
6.381e+09  -0.7409  0.5007  -0.005824  0.01179  -0.0324  0.006177  -0.2819  0.9071
6.382e+09  -0.551  0.7536  0.007702  0.01055  0.02577  0.04169  0.06924  0.9354
6.384e+09  -0.2395  0.8574  0.01807  -0.02175  -0.01344  -0.004027  0.3715  0.8322
6.385e+09  0.0809  0.9025  -0.03174  -0.002271  -0.01003  0.008368  0.6706  0.7236
6.386e+09  0.3456  0.7715  0.04438  0.005994  -0.02252  0.02409  0.8439  0.4336
6.388e+09  0.5793  0.6322  0.01984  0.03108  0.002952  -0.02269  0.9332  0.1245
6.389e+09  0.8097  0.4026  0.003201  -0.05889  -0.0008908  0.04845  0.9359  -0.1793
6.39e+09  0.8712  0.0612  -0.02866  -0.02669  0.0306  -0.006512  0.7975  -0.4891
6.391e+09  0.8581  -0.2741  0.04274  0.02197  -0.0178  0.03627  0.5598  -0.6984
6.392e+09  0.7292  -0.4963  -0.01044  -0.017  0.003718  -0.021  0.2909  -0.8968
6.394e+09  0.5129  -0.7426  -0.001099  0.001726  -0.02926  0.003801  -0.01405  -0.9402
6.395e+09  0.2174  -0.8748  -0.02431  -0.003378  0.03288  -0.004959  -0.3716  -0.8473
6.396e+09  -0.09305  -0.899  0.003684  0.005794  0.005741  0.03063  -0.6192  -0.694
6.398e+09  -0.3502  -0.8251  -0.0386  0.02864  0.01249  0.004135  -0.8343  -0.4744
6.399e+09  -0.6796  -0.5944  0.02624  0.007337  -0.03776  0.006918  -0.9232  -0.2014
6.4e+09  -0.797  -0.3595  -0.006463  -0.01556  -0.01806  0.02153  -0.9237  0.1729
6.401e+09  -0.8554  -0.03487  -0.005712  -0.004171  0.005831  0.0271  -0.8801  0.4965
6.402e+09  -0.8698  0.2582  -0.06883  -0.02299  -0.01661  -0.02542  -0.5854  0.7115
6.404e+09  -0.742  0.4623  0.0298  0.004589  -0.01369  -0.02581  -0.3281  0.8804
6.405e+09  -0.4258  0.7535  0.002372  0.02753  0.01414  0.01237  0.0009543  0.9106
6.406e+09  -0.196  0.8638  0.01303  0.01797  0.008415  -0.0194  0.2817  0.876
6.408e+09  0.1355  0.8466  -0.03416  -0.01114  0.0005304  0.0137  0.6037  0.7096
6.409e+09  0.3853  0.7758  -0.04042  -0.05999  -0.03624  -0.09267  0.7578  0.4485
6.41e+09  0.6001  0.6004  0.009113  0.002678  -0.01367  0.06051  0.9084  0.1956
6.411e+09  0.8252  0.3024  0.00306  -0.02416  0.02314  0.007769  0.8893  -0.1384
6.412e+09  0.9074  0.06714  0.02752  0.04457  0.0625  -0.03307  0.8069  -0.4437
6.414e+09  0.8783  -0.2994  0.005189  -0.002333  0.006273  -0.001114  0.6488  -0.6718
6.415e+09  0.7052  -0.5382  -0.02906  -0.01012  -0.01706  0.04691  0.3248  -0.8029
6.416e+09  0.4414  -0.756  0.01091  0.007635  0.003665  0.003486  0.01067  -0.9168
6.418e+09  0.1439  -0.8357  -0.02633  0.01994  -0.029  -0.03271  -0.2436  -0.8714
6.419e+09  -0.1292  -0.8764  -0.001099  0.01596  0.01905  0.01375  -0.5306  -0.7194
6.42e+09  -0.3779  -0.7674  0.01621  -0.01762  -0.032  -0.02529  -0.7487  -0.4847
6.421e+09  -0.6367  -0.6236  -0.007465  0.01968  0.01937  -0.0008084  -0.8926  -0.2373
6.422e+09  -0.7977  -0.3405  0.02273  0.01315  -0.0065  -0.00981  -0.8768  0.1134
6.424e+09  -0.9023  -0.002673  -0.001834  -0.0009721  -0.06783  -0.001628  -0.7921  0.3913
6.425e+09  -0.8632  0.2661  0.02601  0.02962  -0.01703  0.02914  -0.6099  0.6343
6.426e+09  -0.6342  0.5713  -0.03072  -0.005239  0.04376  0.003306  -0.3501  0.7881
6.428e+09  -0.4767  0.7496  0.04243  -0.006501  -0.03147  -0.0322  -0.03968  0.8536
6.429e+09  -0.1418  0.8632  0.02899  0.03674  0.007996  0.01477  0.2341  0.8457
6.43e+09  0.1583  0.8958  0.01852  0.00287  -0.009777  0.02448  0.5405  0.6898
6.431e+09  0.4182  0.7601  0.03144  0.0005747  0.04229  -0.004252  0.7602  0.5159
6.432e+09  0.6716  0.5505  0.0168  0.0103  -0.02421  0.001396  0.8318  0.2272
6.434e+09  0.792  0.2685  0.004453  -0.01164  -0.02645  -0.02868  0.8606  -0.1188
6.435e+09  0.9308  0.02398  -0.01224  0.02054  -0.04988  0.0451  0.7872  -0.3782
6.436e+09  0.8812  -0.297  0.001873  0.008001  0.01027  -0.01073  0.6291  -0.6451
6.438e+09  0.6706  -0.552  -0.0109  -0.003087  -0.02446  -0.03437  0.3358  -0.765
6.439e+09  0.4256  -0.7724  -0.01189  -0.04883  -0.01934  0.02804  0.05538  -0.839
6.44e+09  0.1182  -0.8635  -0.01888  -0.06229  -0.01235  0.02233  -0.2542  -0.8313
6.441e+09  -0.1099  -0.868  0.01647  -0.01564  -0.03689  -0.03608  -0.4979  -0.6763
6.442e+09  -0.486  -0.7393  0.03233  -0.01016  0.02354  -0.04845  -0.6596  -0.4888
6.444e+09  -0.6652  -0.579  -0.002864  -0.035  0.02818  -0.004662  -0.8491  -0.2095
6.445e+09  -0.8118  -0.257  0.006807  -0.0245  0.04425  -0.0151  -0.8281  0.06964
6.446e+09  -0.8896  0.04049  0.01702  -0.00212  0.02733  -0.002402  -0.7645  0.344
6.448e+09  -0.838  0.3035  -0.0036  0.03824  -0.04323  0.001886  -0.5812  0.6102
6.449e+09  -0.7279  0.5595  -0.03706  0.01039  -0.01447  -0.01512  -0.3378  0.7328
6.45e+09  -0.3729  0.7997  0.0249  0.02363  -0.009926  -0.02219  -0.04722  0.8179
6.451e+09  -0.1287  0.9024  -0.001649  0.007029  -0.01349  0.01089  0.2365  0.8519
6.452e+09  0.2006  0.8815  -0.0252  0.008022  -0.009651  0.01841  0.4959  0.7034
6.454e+09  0.4727  0.7435  -0.008867  0.01557  -0.02659  -0.02252  0.7011  0.5191
6.455e+09  0.7466  0.5424  0.03086  0.01641  -0.00453  -0.02221  0.8037  0.2213
6.456e+09  0.8419  0.2692  0.006707  0.005297  0.003553  0.03677  0.8435  -0.01181
6.458e+09  0.9173  0.0191  -0.007499  0.03631  -0.001558  -0.009152  0.7767  -0.3213
6.459e+09  0.7949  -0.4016  -0.006949  -0.01846  0.007662  -0.04759  0.5605  -0.5486
6.46e+09  0.7426  -0.564  0.04693  -0.004771  -0.03611  -0.002528  0.3327  -0.7183
6.461e+09  0.4098  -0.8426  0.02509  0.02491  -0.01055  0.01677  0.08438  -0.8353
6.462e+09  0.1298  -0.9  -0.04564  0.01946  0.0008372  0.03049  -0.2366  -0.77
6.464e+09  -0.1556  -0.842  -0.005387  0.01354  0.03672  -0.0232  -0.478  -0.6664
6.465e+09  -0.4639  -0.7541  0.008629  0.01231  0.01536  0.03015  -0.6704  -0.4651
6.466e+09  -0.7094  -0.5183  -0.0334  -0.02018  0.02963  0.02431  -0.7543  -0.1861
6.468e+09  -0.8164  -0.2243  0.03262  -0.04636  -0.01469  -0.06608  -0.7934  0.08836
6.469e+09  -0.9032  0.08268  0.003565  -0.004465  0.07623  0.03137  -0.7408  0.3354
6.47e+09  -0.8891  0.3492  0.04813  0.02766  -0.01352  -0.01995  -0.5448  0.5954
6.471e+09  -0.6284  0.6268  0.05927  0.0115  -0.05947  0.02269  -0.2647  0.742
6.472e+09  -0.4253  0.7576  0.008162  0.03722  -0.03262  -0.007069  -0.1166  0.7443
6.474e+09  -0.1028  0.8658  0.02502  -0.002646  0.04668  -0.01222  0.2539  0.7761
6.475e+09  0.19  0.9061  -0.02293  0.07383  -0.01018  0.03129  0.4547  0.68
6.476e+09  0.4984  0.8149  -0.009667  -0.0834  -0.02562  -0.03842  0.6586  0.4724
6.478e+09  0.759  0.5525  0.01138  0.01444  0.03291  -0.002707  0.7556  0.194
6.479e+09  0.8182  0.2932  -0.007104  -0.00727  -0.04611  -0.041  0.7568  -0.07098
6.48e+09  0.9623  -0.05138  -0.004649  -0.02451  -0.0319  -0.02858  0.7247  -0.3407
6.481e+09  0.898  -0.322  0.005376  0.00528  -0.02167  0.05226  0.556  -0.582
6.482e+09  0.6616  -0.671  -0.004032  -0.009767  -0.03962  -0.002722  0.3311  -0.7231
6.484e+09  0.4196  -0.8264  -0.0003909  0.01977  -0.02039  0.006893  0.03389  -0.7898
6.485e+09  0.09035  -0.8942  0.009038  0.02335  0.05959  0.01689  -0.2294  -0.7166
6.486e+09  -0.2496  -0.9575  -0.009512  -0.02464  -0.01575  -0.005023  -0.4315  -0.622
6.488e+09  -0.4732  -0.7482  0.01742  0.004191  0.05242  -0.03538  -0.6612  -0.4383
6.489e+09  -0.687  -0.5467  -0.009494  -0.00749  -0.04645  0.007476  -0.7233  -0.1882
6.49e+09  -0.8996  -0.2256  0.03274  0.009486  0.07605  -0.01568  -0.7335  0.06058
6.491e+09  -0.9112  0.007588  0.01561  0.01372  0.005399  -0.06009  -0.6522  0.3469
6.492e+09  -0.8473  0.3718  0.01864  0.02307  -0.05366  0.01509  -0.5395  0.5694
6.494e+09  -0.6659  0.6476  -0.0122  -0.01706  0.0252  -0.02035  -0.3083  0.7304
6.495e+09  -0.3972  0.8447  7.04e-05  -0.003964  -0.02016  0.001731  -0.0341  0.786
6.496e+09  -0.0579  0.9218  -0.01213  0.02218  -0.02293  -0.04099  0.2559  0.7085
6.498e+09  0.2481  0.9281  -0.01788  -0.02682  0.006853  -0.048  0.486  0.6092
6.499e+09  0.5121  0.7849  -0.008599  -0.003757  0.01497  -0.004753  0.65  0.4324
6.5e+09  0.7799  0.5186  -0.022  -0.01231  0.05207  -0.02812  0.7451  0.1502
6.501e+09  0.9184  0.2212  0.00971  0.01356  -0.03027  -0.001352  0.7928  -0.1345
6.502e+09  0.9575  -0.124  0.01855  0.01594  -0.01061  0.0166  0.6767  -0.345
6.504e+09  0.805  -0.4578  -0.02206  0.01067  0.006356  -0.03189  0.5039  -0.5822
6.505e+09  0.6415  -0.6739  0.01281  -0.008838  -0.001775  0.006978  0.264  -0.6928
6.506e+09  0.3772  -0.7976  -0.02086  -0.04733  0.0205  -0.03617  -0.02123  -0.7766
6.508e+09  0.07473  -0.9283  0.03026  0.004301  -0.01089  -0.03164  -0.2278  -0.7258
6.509e+09  -0.3173  -0.9013  -0.02272  -0.01244  -0.0338  -0.03183  -0.4783  -0.6036
6.51e+09  -0.5807  -0.7792  -0.008799  -0.01383  0.03166  0.002194  -0.648  -0.3542
6.511e+09  -0.8079  -0.5133  -0.01842  -0.00986  -0.0399  0.02322  -0.7218  -0.1598
6.512e+09  -0.9028  -0.1938  -0.005945  0.02349  0.003687  0.037  -0.7231  0.1329
6.514e+09  -0.9418  0.1666  -0.02881  0.03406  -0.01893  0.004469  -0.6796  0.368
6.515e+09  -0.8735  0.4569  -0.01126  -0.008085  -0.06791  -0.01233  -0.487  0.6086
6.516e+09  -0.6511  0.7568  0.00479  0.03051  -0.01085  0.02493  -0.2765  0.7196
6.518e+09  -0.3041  0.8699  0.01733  0.02392  -0.04204  0.04829  0.000815  0.7712
6.519e+09  -0.00726  1.002  -0.0112  0.01923  0.02502  0.02994  0.269  0.6597
6.52e+09  0.3313  0.9108  -0.005237  -0.02473  0.01069  0.003297  0.4854  0.5456
6.521e+09  0.6625  0.7557  -0.002263  0.006396  0.01462  0.03303  0.6585  0.3504
6.522e+09  0.8285  0.4108  0.0003941  0.039  0.06329  0.009651  0.6989  0.1189
6.524e+09  0.9678  0.1549  -0.04255  0.001585  0.04023  -0.00612  0.6967  -0.1541
6.525e+09  0.9423  -0.2444  0.002353  -0.01891  -0.01043  -0.03612  0.6341  -0.403
6.526e+09  0.821  -0.5238  -0.03122  0.01466  -0.06954  0.04634  0.4326  -0.5883
6.528e+09  0.5694  -0.7938  0.01435  0.0009893  0.04253  -0.01372  0.1671  -0.7088
6.529e+09  0.3008  -0.8916  0.008235  -0.01324  0.02374  -0.02117  -0.0447  -0.6851
6.53e+09  -0.04464  -0.9814  -0.03988  -0.03185  -0.006402  0.04655  -0.2622  -0.6734
6.531e+09  -0.3804  -0.8681  -0.007774  -0.007083  -0.01225  -0.002548  -0.4735  -0.472
6.532e+09  -0.6788  -0.6981  0.008961  -0.03994  -0.05978  -0.03124  -0.6032  -0.2963
6.534e+09  -0.886  -0.3781  -0.01461  -0.03008  0.005223  -0.0429  -0.6612  -0.1009
6.535e+09  -0.987  -0.09011  -0.01353  -0.0006609  -0.03671  0.001291  -0.6625  0.1113
6.536e+09  -0.9274  0.2922  -0.02597  -0.003486  0.03106  -0.06137  -0.5147  0.3282
6.538e+09  -0.7835  0.5984  -0.006209  -0.02653  0.01876  0.001625  -0.4305  0.4643
6.539e+09  -0.533  0.7966  -0.001482  0.04395  0.008573  -0.01075  -0.2841  0.6299
6.54e+09  -0.1677  0.9304  -0.01915  -0.0283  -0.004909  0.03229  -0.0333  0.7127
6.541e+09  0.1613  0.9739  0.01471  -0.0063  0.02985  -0.002215  0.1882  0.6911
6.542e+09  0.4343  0.8648  0.007342  -0.01336  -0.04142  -0.04653  0.4265  0.5539
6.544e+09  0.723  0.5944  -0.02931  0.01758  -0.03775  0.04798  0.5873  0.3678
6.545e+09  0.8948  0.3815  0.006726  0.01999  0.02197  -0.02967  0.7165  0.1708
6.546e+09  0.9772  -0.04559  0.0003131  -0.03325  -0.03851  0.01292  0.7393  -0.07762
6.548e+09  0.9172  -0.3225  -0.0388  -0.007453  -0.004239  -0.01112  0.6715  -0.2792
6.549e+09  0.7619  -0.6005  -0.006671  0.01857  0.009898  -0.009765  0.5129  -0.5608
6.55e+09  0.4791  -0.8006  0.02999  -0.01136  -0.02061  -0.03078  0.3023  -0.685
