# Hz S RI R 50
6.25e+09  -0.4305  0.7765  -0.01566  0.002405  0.01773  0.06772  0.1685  0.4658
6.251e+09  -0.1464  0.8412  -0.01479  -0.01379  0.02754  0.04215  0.348  0.3895
6.252e+09  0.2138  0.8276  -0.005542  -0.00977  0.03295  -0.07282  0.5329  0.2412
6.254e+09  0.4855  0.7518  0.007438  0.01475  0.04801  -0.01512  0.5949  0.01634
6.255e+09  0.691  0.5102  -0.009448  -0.009525  0.02278  -0.0008035  0.5894  -0.218
6.256e+09  0.8579  0.2101  -0.007093  0.004902  -0.001969  -0.03576  0.4921  -0.4156
6.258e+09  0.8389  -0.1245  0.0228  0.01994  0.0115  -0.0205  0.3201  -0.6131
6.259e+09  0.7556  -0.3389  -0.004674  0.0003621  0.05613  0.02526  0.03632  -0.6722
6.26e+09  0.6293  -0.6236  -0.01695  -0.01193  -0.0368  0.005862  -0.2086  -0.6448
6.261e+09  0.3574  -0.712  0.01581  -0.007312  0.007377  -0.01145  -0.4503  -0.5339
6.262e+09  0.02965  -0.7836  0.006246  -0.01543  -0.04405  0.009411  -0.6473  -0.3675
6.264e+09  -0.2396  -0.8053  0.03765  -0.007698  0.005988  0.01481  -0.7486  -0.1053
6.265e+09  -0.462  -0.6678  0.01399  -0.03267  -0.008382  -0.03251  -0.6976  0.1511
6.266e+09  -0.6594  -0.504  0.01231  0.01585  0.01905  0.004143  -0.5941  0.4033
6.268e+09  -0.8339  -0.231  -0.02976  0.01243  -0.008389  -0.0485  -0.4254  0.6026
6.269e+09  -0.8384  0.08106  -0.01372  0.0267  0.03127  -0.01444  -0.1643  0.7164
6.27e+09  -0.8145  0.3649  -0.0004189  0.003509  0.05269  -0.006586  0.06521  0.7493
6.271e+09  -0.5511  0.549  0.02286  0.007348  0.04775  -0.01624  0.3443  0.6573
6.272e+09  -0.3119  0.7708  0.01652  -0.01286  -0.01133  0.01219  0.5443  0.4813
6.274e+09  -0.06109  0.8756  0.004401  -0.004364  0.04346  -0.003277  0.6919  0.3224
6.275e+09  0.2245  0.7937  0.01649  0.001385  0.03586  -0.06857  0.768  0.03167
6.276e+09  0.5319  0.6729  -0.009315  0.02398  0.029  0.00361  0.7345  -0.219
6.278e+09  0.6267  0.4805  -0.001598  -0.03601  -0.006298  -0.05298  0.5906  -0.4784
6.279e+09  0.8  0.207  0.0128  0.00586  0.02593  -0.001291  0.4078  -0.6462
6.28e+09  0.7919  -0.08292  0.02387  -0.02485  -0.0515  -0.04279  0.1643  -0.7695
6.281e+09  0.7457  -0.3812  -0.02302  -0.03187  0.0042  0.02834  -0.09601  -0.7463
6.282e+09  0.6107  -0.5863  -0.004744  0.00698  0.004273  0.04826  -0.3644  -0.7149
6.284e+09  0.3281  -0.7722  0.007941  0.02225  0.001323  0.01592  -0.5877  -0.5452
6.285e+09  0.04134  -0.7739  0.02196  -0.00781  0.0006483  -0.01719  -0.7282  -0.2809
6.286e+09  -0.2592  -0.7562  0.0198  0.009338  0.02279  -0.04158  -0.7866  -0.05009
6.288e+09  -0.5068  -0.7061  0.0007702  0.004877  -0.02806  -0.01327  -0.7615  0.2563
6.289e+09  -0.685  -0.476  -0.01273  -0.009335  0.02705  0.00427  -0.635  0.468
6.29e+09  -0.8009  -0.1411  -0.002666  0.01486  0.02221  -0.01489  -0.3934  0.6558
6.291e+09  -0.8097  0.08501  -0.0009108  -0.00251  0.01941  0.009859  -0.1677  0.8089
6.292e+09  -0.7167  0.4032  0.004129  0.007986  -0.02481  0.0428  0.1188  0.7985
6.294e+09  -0.5235  0.6555  0.003606  0.01193  0.06424  0.00961  0.382  0.7192
6.295e+09  -0.3113  0.8716  -0.03149  -0.02732  0.05627  0.003189  0.6021  0.5422
6.296e+09  -0.01077  0.7974  0.01225  -0.006342  -0.01741  0.05594  0.7755  0.2667
6.298e+09  0.2207  0.8308  0.02186  0.01361  -0.02582  0.05865  0.8562  0.01428
6.299e+09  0.544  0.6329  0.02857  0.03398  -0.02678  -3.564e-05  0.7926  -0.2626
6.3e+09  0.7208  0.4164  0.009931  0.006709  0.005046  0.0271  0.6441  -0.5215
6.301e+09  0.8081  0.1401  0.004155  0.002298  -0.01449  0.03639  0.4136  -0.72
6.302e+09  0.8552  -0.1431  -0.002298  -0.02221  -0.01917  -0.02937  0.1443  -0.8393
6.304e+09  0.6968  -0.4313  0.00936  -0.03518  -0.01271  -0.03186  -0.1336  -0.8191
6.305e+09  0.5419  -0.6373  -0.01708  -0.01649  0.04589  0.00281  -0.4384  -0.7274
6.306e+09  0.2656  -0.7586  0.01038  -0.008843  0.02409  0.009033  -0.6376  -0.5707
6.308e+09  -0.01825  -0.83  -0.04156  -0.02769  -0.05495  0.006084  -0.8117  -0.3318
6.309e+09  -0.3033  -0.7944  0.0023  -0.02106  -0.009013  -0.04226  -0.8643  -0.0007246
6.31e+09  -0.5255  -0.5986  0.03017  -0.02017  -0.01234  0.009935  -0.8198  0.2939
6.311e+09  -0.7434  -0.3984  0.004734  -0.001147  0.04062  -0.0203  -0.6582  0.5658
6.312e+09  -0.8174  -0.1451  -0.009814  0.005205  -0.02432  0.01432  -0.4385  0.7371
6.314e+09  -0.8066  0.182  0.008019  -0.01306  -0.02148  0.04527  -0.1646  0.8595
6.315e+09  -0.733  0.4546  0.005648  0.008175  -0.009812  -0.04106  0.1248  0.8585
6.316e+09  -0.5311  0.6792  -0.02733  0.0008386  0.00651  0.01617  0.4123  0.7626
6.318e+09  -0.233  0.7832  0.001816  -0.001069  0.0169  0.06972  0.6671  0.5458
6.319e+09  0.02781  0.8856  -0.02885  -0.00407  -0.04214  -0.02165  0.8312  0.3048
6.32e+09  0.3034  0.7777  -0.005988  0.02276  -0.03663  0.02285  0.9087  -0.01513
6.321e+09  0.5716  0.5895  -0.002023  -0.01791  -0.03634  -0.004419  0.8679  -0.3228
6.322e+09  0.7954  0.42  -0.004411  0.01961  0.007832  0.02147  0.6873  -0.5538
6.324e+09  0.817  0.07372  0.02146  3.38e-05  0.007118  0.01751  0.4444  -0.7759
6.325e+09  0.8283  -0.2074  0.0216  0.007619  0.02758  -0.05103  0.1802  -0.8924
6.326e+09  0.7282  -0.4532  0.01956  0.02771  -0.004444  0.06938  -0.129  -0.9099
6.328e+09  0.4898  -0.7166  -0.02307  0.02114  0.01906  -0.01142  -0.4172  -0.7736
6.329e+09  0.2345  -0.8288  -0.04619  -0.02271  0.008608  0.01159  -0.6812  -0.5965
6.33e+09  -0.01432  -0.8827  -0.03293  0.03283  0.01485  -0.02865  -0.8364  -0.3185
6.331e+09  -0.426  -0.7414  0.02082  -0.02699  0.03808  0.008035  -0.9373  0.007677
6.332e+09  -0.6469  -0.5921  0.03419  0.02621  -0.03048  -0.01372  -0.8747  0.3078
6.334e+09  -0.7568  -0.336  0.01103  -0.001583  0.03564  -0.0002761  -0.7154  0.5309
6.335e+09  -0.8803  -0.04681  0.004067  0.008712  0.01533  -0.0078  -0.5161  0.7835
6.336e+09  -0.8218  0.2266  0.02298  0.01051  0.07135  -0.02542  -0.1722  0.8745
6.338e+09  -0.6919  0.5508  0.01424  0.005192  -0.01576  -0.02097  0.1058  0.9062
6.339e+09  -0.4052  0.7193  0.004181  -0.01278  0.01426  0.005815  0.4341  0.8418
6.34e+09  -0.1596  0.8483  0.001108  0.02159  0.01749  0.03789  0.7333  0.6132
6.341e+09  0.1425  0.8565  -0.00324  0.03667  0.06873  0.02487  0.8113  0.3512
6.342e+09  0.4953  0.7632  0.02584  0.003066  0.03859  -0.02788  0.9146  0.06447
6.344e+09  0.6949  0.5592  0.005787  0.01569  -0.03277  0.04625  0.8996  -0.2669
6.345e+09  0.8139  0.2776  0.0249  -0.01906  -0.01404  0.01262  0.7686  -0.5829
6.346e+09  0.8758  -0.005472  -0.01291  -0.04935  -0.006932  0.02722  0.5039  -0.7933
6.348e+09  0.8453  -0.3119  -0.008401  -0.008408  0.00248  -0.01355  0.208  -0.8994
6.349e+09  0.6645  -0.5942  -0.02556  0.01919  -0.01829  -0.04846  -0.1394  -0.9257
6.35e+09  0.4057  -0.7415  0.0384  0.02627  -0.01057  0.01192  -0.4148  -0.8431
6.351e+09  0.1067  -0.9085  0.0204  -0.0239  -0.01985  -0.03145  -0.6595  -0.6644
6.352e+09  -0.212  -0.866  -0.004351  0.0005536  -0.0206  0.006181  -0.856  -0.3486
6.354e+09  -0.5023  -0.7649  -0.004125  -0.002044  -0.01787  0.04095  -0.9338  -0.07927
6.355e+09  -0.7133  -0.5916  0.0337  -0.03092  0.0174  -0.0511  -0.9048  0.1967
6.356e+09  -0.8936  -0.2363  0.006991  -0.006576  0.01811  -0.003554  -0.7591  0.5647
6.358e+09  -0.8656  0.07758  -0.01606  0.02766  0.0261  -0.004823  -0.5399  0.7863
6.359e+09  -0.7996  0.3572  0.008457  0.0282  0.01253  -0.01749  -0.2319  0.8882
6.36e+09  -0.6242  0.6458  -0.002863  -0.02954  -0.02771  -0.01279  0.06321  0.9272
6.361e+09  -0.3478  0.8498  0.003373  0.0411  -0.001384  0.003128  0.4147  0.8668
6.362e+09  -0.01047  0.828  -0.0006106  0.007094  -0.02806  0.008583  0.6907  0.677
6.364e+09  0.2648  0.8648  -0.01904  -0.02779  -0.01088  -0.01405  0.889  0.4241
6.365e+09  0.512  0.7128  0.009746  0.007905  -0.00364  -0.02362  0.9427  0.0438
6.366e+09  0.7565  0.4538  -0.01755  0.005932  0.001461  0.01358  0.9321  -0.262
6.368e+09  0.8724  0.195  0.005208  -0.005731  -0.00897  0.008244  0.7546  -0.5709
6.369e+09  0.851  -0.1053  -0.0086  -0.028  -0.02089  -0.03068  0.5307  -0.769
6.37e+09  0.7875  -0.426  -0.006373  0.008023  -0.03663  -0.001605  0.2085  -0.9056
6.371e+09  0.5898  -0.6445  -0.01517  0.008275  -0.0008322  0.0213  -0.07767  -0.9826
6.372e+09  0.3043  -0.8467  -0.02547  0.006757  -0.02202  -0.02028  -0.3976  -0.8704
6.374e+09  0.007492  -0.8318  -0.01333  -0.02429  -0.01021  -0.01827  -0.6724  -0.6435
6.375e+09  -0.3244  -0.8658  0.01212  -0.01728  -0.01933  0.006101  -0.8786  -0.4368
6.376e+09  -0.5633  -0.6981  -0.01286  0.01344  0.05046  -0.009703  -0.9019  -0.1118
6.378e+09  -0.7607  -0.4222  -0.05065  -0.0006347  0.02652  -0.01039  -0.9285  0.2291
6.379e+09  -0.9152  -0.1569  0.0261  -0.0407  0.02306  -0.0151  -0.8163  0.5497
6.38e+09  -0.8908  0.1533  -0.03486  0.0223  0.03242  0.04444  -0.5721  0.7803
6.381e+09  -0.7833  0.4618  -0.02602  -0.01737  0.02194  -0.007116  -0.2726  0.8982
6.382e+09  -0.5449  0.7214  0.008067  -0.03322  0.004119  -0.02723  0.02952  0.9131
6.384e+09  -0.2912  0.8511  -0.04031  0.007423  0.04612  0.004855  0.371  0.8763
6.385e+09  0.0499  0.8647  0.00827  0.003986  -0.002607  0.03466  0.67  0.6581
6.386e+09  0.3235  0.8011  -0.01516  0.001613  -0.0176  -0.01319  0.8231  0.4291
6.388e+09  0.5728  0.6692  0.01917  0.004765  0.001061  0.01367  0.921  0.09665
6.389e+09  0.7914  0.4167  0.01034  -0.004052  -0.03003  -0.01077  0.8919  -0.2324
6.39e+09  0.8857  0.07734  -0.04657  0.003414  0.04618  -0.03554  0.7397  -0.4995
6.391e+09  0.8368  -0.2121  0.007719  -0.01157  -0.02537  0.03307  0.537  -0.743
6.392e+09  0.7994  -0.4942  -0.03951  0.01397  0.01836  0.02553  0.2646  -0.8798
6.394e+09  0.5103  -0.6945  0.005469  -0.03432  0.03533  0.001976  -0.06133  -0.9289
6.395e+09  0.2849  -0.8538  0.002827  -0.01033  0.01993  0.008987  -0.3576  -0.8604
6.396e+09  -0.1025  -0.9372  0.0006083  -0.003833  -0.02821  -0.0344  -0.5735  -0.6675
6.398e+09  -0.355  -0.8088  -0.01781  0.002864  -0.0001863  0.004906  -0.7604  -0.415
6.399e+09  -0.628  -0.6486  0.02578  -0.02166  -0.0298  0.01783  -0.9219  -0.1398
6.4e+09  -0.7835  -0.3673  0.02396  -0.02915  -0.001094  0.008205  -0.9424  0.1367
6.401e+09  -0.8889  -0.04721  0.05349  -0.003587  0.01645  -0.02758  -0.7464  0.4867
6.402e+09  -0.8515  0.2226  0.01951  0.02509  -0.004049  0.02514  -0.6186  0.7504
6.404e+09  -0.7328  0.5289  0.003402  0.004962  -0.005014  -0.02194  -0.3275  0.9326
6.405e+09  -0.5375  0.7381  -0.02405  -0.0218  -0.04189  -0.02533  -0.01674  0.9134
6.406e+09  -0.3135  0.8045  -0.02858  0.007398  -0.02729  0.004193  0.2913  0.8923
6.408e+09  0.05423  0.8502  -0.005685  -0.01789  -0.0237  -0.0005876  0.6  0.7141
6.409e+09  0.399  0.8184  0.00417  0.05186  -0.01986  -0.002135  0.7846  0.4721
6.41e+09  0.6136  0.5759  0.01581  -0.0173  0.0436  -0.006851  0.9119  0.1415
6.411e+09  0.7709  0.3788  0.01701  -0.009235  -0.0243  0.01132  0.9296  -0.1064
6.412e+09  0.867  0.04686  0.0266  -0.01434  -0.009531  0.01725  0.7917  -0.3862
6.414e+09  0.8473  -0.2135  0.01465  0.01052  0.06297  0.002552  0.5993  -0.6729
6.415e+09  0.7292  -0.5179  -0.01542  0.01603  -0.0325  -0.01165  0.3423  -0.8184
6.416e+09  0.4874  -0.7475  0.01367  0.03418  0.01442  0.0237  -0.009105  -0.8804
6.418e+09  0.2196  -0.8977  -0.03291  0.0217  0.03546  -0.04059  -0.2892  -0.8596
6.419e+09  -0.1137  -0.9135  -0.03956  -0.01908  -0.01537  -0.02726  -0.5485  -0.7321
6.42e+09  -0.4188  -0.7681  -0.0005808  0.006834  -0.01794  -0.001391  -0.7992  -0.4968
6.421e+09  -0.6964  -0.5348  0.05168  -0.02795  -0.0509  -0.003118  -0.8332  -0.2495
6.422e+09  -0.8019  -0.3719  -0.01213  -0.0329  0.01033  -0.005449  -0.8972  0.1449
6.424e+09  -0.9126  -0.01879  -0.01847  -0.01478  0.03474  0.00374  -0.7624  0.426
6.425e+09  -0.8755  0.253  -0.01677  -0.00554  0.007447  0.01782  -0.5597  0.6395
6.426e+09  -0.7351  0.5746  -0.006046  -0.02951  -0.02455  0.03551  -0.3099  0.8053
6.428e+09  -0.4653  0.7706  -0.005435  0.02582  -0.04751  -0.02268  -0.07078  0.8823
6.429e+09  -0.1633  0.8526  -0.06289  -0.02776  0.03431  0.003442  0.2462  0.8661
6.43e+09  0.1481  0.8552  0.04568  -0.02281  -0.005735  0.008779  0.5248  0.7079
6.431e+09  0.3989  0.8324  0.005228  -0.01177  0.01069  0.04277  0.7172  0.4852
6.432e+09  0.6657  0.6507  0.002195  0.04753  -0.02668  0.01226  0.8644  0.2579
6.434e+09  0.8323  0.3282  -0.04324  -0.0271  0.001364  0.01303  0.8538  -0.04992
6.435e+09  0.891  0.004179  0.02681  -0.003002  0.03124  -0.02931  0.7784  -0.4458
6.436e+09  0.8178  -0.3062  0.02328  -0.02536  -0.01602  -0.04121  0.6034  -0.6587
6.438e+09  0.6778  -0.5682  0.02001  -0.0161  0.02507  0.02019  0.3759  -0.7729
6.439e+09  0.4743  -0.7749  0.01306  0.04983  0.003548  0.04314  0.05054  -0.9003
6.44e+09  0.1723  -0.8726  -0.04037  0.01892  -0.03099  0.006424  -0.2175  -0.834
6.441e+09  -0.1501  -0.8756  0.006316  0.006946  0.01689  0.009633  -0.4916  -0.6657
6.442e+09  -0.4423  -0.7251  0.003958  0.03118  -0.004965  0.005782  -0.6471  -0.4867
6.444e+09  -0.6893  -0.5957  -0.02483  0.03408  -0.01335  0.01518  -0.8637  -0.2333
6.445e+09  -0.8369  -0.3094  0.01908  -0.04186  -0.006914  -0.05695  -0.8369  0.06541
6.446e+09  -0.831  -0.02044  -0.0455  -0.01409  -0.00433  -0.03497  -0.7905  0.3475
6.448e+09  -0.8265  0.2492  0.04338  0.004837  0.03601  0.04974  -0.5288  0.6172
6.449e+09  -0.6473  0.6448  0.02458  -0.00902  0.006454  0.0009718  -0.3307  0.7385
6.45e+09  -0.4754  0.7628  -0.01972  0.02248  0.02488  0.0314  -0.1029  0.8264
6.451e+09  -0.1911  0.8257  0.02169  -0.0255  0.0128  -0.004908  0.1832  0.8648
6.452e+09  0.1578  0.8833  0.01106  0.01554  -0.01944  -0.03118  0.4549  0.6724
6.454e+09  0.474  0.7565  0.01413  0.0005719  0.02675  -0.07424  0.7099  0.4323
6.455e+09  0.6787  0.5878  -0.01367  -0.01175  -0.007018  -0.02053  0.8105  0.1933
6.456e+09  0.8511  0.2913  -0.009011  -0.00722  -0.004274  0.04494  0.8239  -0.04272
6.458e+09  0.9003  -0.02813  0.02923  0.01499  -0.03255  0.03361  0.7394  -0.3666
6.459e+09  0.846  -0.2763  0.03005  -0.01377  0.009048  -0.03341  0.5893  -0.5913
6.46e+09  0.6765  -0.5788  0.02166  0.0457  -0.0182  0.03304  0.3499  -0.7841
6.461e+09  0.4494  -0.725  -0.03667  0.0462  0.01562  0.01402  0.08434  -0.8228
6.462e+09  0.1578  -0.8892  0.04319  0.02951  0.001158  0.02088  -0.2057  -0.7576
6.464e+09  -0.1604  -0.9025  0.0147  0.007854  -0.01503  0.006236  -0.4972  -0.7208
6.465e+09  -0.4913  -0.7782  -0.01342  0.002583  -0.06279  0.005817  -0.6349  -0.4372
6.466e+09  -0.6409  -0.5364  0.003584  0.01304  0.008997  -0.02981  -0.7972  -0.2379
6.468e+09  -0.9184  -0.3368  0.01503  -0.008092  -0.002083  0.01242  -0.8245  0.06364
6.469e+09  -0.9316  -0.004299  0.02047  -0.01316  0.01275  -0.01724  -0.7092  0.3477
6.47e+09  -0.8076  0.2324  0.007513  0.03166  -0.01345  -0.02669  -0.5827  0.6054
6.471e+09  -0.6879  0.576  -0.006218  -0.03171  -0.02924  -0.03456  -0.3449  0.6632
6.472e+09  -0.4359  0.7471  0.01045  0.01504  0.004758  -0.05018  -0.003791  0.8049
6.474e+09  -0.1276  0.9049  0.02199  -0.01313  -0.09445  0.006771  0.1882  0.7696
6.475e+09  0.1509  0.9271  -0.01333  0.0276  0.02302  0.004648  0.4616  0.6223
6.476e+09  0.4271  0.78  -0.009827  -0.02405  0.05624  -0.03689  0.6831  0.4583
6.478e+09  0.6845  0.5905  -0.003249  -0.01605  -0.00183  0.01851  0.7613  0.2278
6.479e+09  0.8323  0.2891  -0.009937  -0.02662  -0.01949  -0.01372  0.7912  -0.0657
6.48e+09  0.9013  0.003181  0.03827  -0.004924  -0.0375  0.00809  0.6828  -0.3633
6.481e+09  0.7847  -0.3134  0.01553  0.02036  -0.0108  0.04433  0.5347  -0.5632
6.482e+09  0.6605  -0.6318  -0.01717  -0.001207  0.002454  -0.0114  0.2859  -0.7237
6.484e+09  0.43  -0.8002  -6.389e-05  0.001798  -0.03957  0.008015  0.04612  -0.807
6.485e+09  0.1772  -0.9285  -0.02865  -0.02168  0.008249  0.003398  -0.2264  -0.746
6.486e+09  -0.1516  -0.9214  0.04072  0.03464  0.006948  -0.02164  -0.4553  -0.6395
6.488e+09  -0.472  -0.8208  -0.002398  -0.008777  -0.001713  0.02092  -0.6087  -0.4195
6.489e+09  -0.7136  -0.6012  -0.02468  0.002678  -0.02713  0.05892  -0.7816  -0.2336
6.49e+09  -0.8928  -0.2279  0.01163  0.03363  -0.03892  0.0326  -0.7905  0.04535
6.491e+09  -0.8787  0.01821  -0.003214  0.03366  0.04979  0.05941  -0.7063  0.3312
6.492e+09  -0.845  0.3977  -0.01516  0.01566  -0.01209  -0.008017  -0.5757  0.5475
6.494e+09  -0.6935  0.5873  -0.01882  -0.01557  0.04725  0.04974  -0.3328  0.7366
6.495e+09  -0.4538  0.8643  0.01086  -0.01148  -0.01519  0.003806  -0.07803  0.7789
6.496e+09  -0.1235  0.9158  -0.01581  -0.03857  0.01418  -0.04128  0.2557  0.706
6.498e+09  0.2143  0.9407  -0.01555  -0.008883  0.02881  0.01169  0.4461  0.6205
6.499e+09  0.5044  0.7744  0.05119  0.009082  -0.01932  0.01975  0.6631  0.4377
6.5e+09  0.7353  0.5643  0.006658  0.01055  -0.0211  0.01804  0.7554  0.1596
6.501e+09  0.8683  0.276  -0.004352  -0.005519  0.004398  -0.02309  0.7531  -0.09061
6.502e+09  0.9046  -0.1059  0.004236  0.02798  0.03895  -0.02284  0.6407  -0.3706
6.504e+09  0.8587  -0.3724  0.01325  0.008436  -0.04785  -0.03781  0.5165  -0.5744
6.505e+09  0.6773  -0.6565  0.002049  -0.01367  0.003635  0.00873  0.2833  -0.7284
6.506e+09  0.3644  -0.8702  -0.04433  0.04527  -0.02271  0.000936  0.05564  -0.7223
6.508e+09  0.04804  -0.8814  0.02624  0.02023  -0.001142  -0.03839  -0.2226  -0.744
6.509e+09  -0.1977  -0.914  -0.003232  -0.01253  0.05095  -0.0368  -0.4574  -0.6083
6.51e+09  -0.5585  -0.7877  0.01009  0.009405  -0.05989  0.0518  -0.6796  -0.3915
6.511e+09  -0.769  -0.5  0.02744  -0.02025  0.03799  -0.02442  -0.7343  -0.1438
6.512e+09  -0.9367  -0.2406  -0.0005659  -0.01601  -0.03211  0.01688  -0.7243  0.1224
6.514e+09  -0.973  0.1809  0.03254  0.02708  -0.02793  0.02376  -0.65  0.4047
6.515e+09  -0.8603  0.3992  0.004745  -0.02778  -0.03323  -0.02418  -0.4972  0.5993
6.516e+09  -0.65  0.6632  -0.01976  0.003634  -0.02795  0.01917  -0.2867  0.7087
6.518e+09  -0.3694  0.9227  -0.003136  0.01528  0.04314  -0.01861  0.02871  0.7131
6.519e+09  0.0003434  0.9873  0.02929  0.004848  -0.01676  0.0419  0.2722  0.7015
6.52e+09  0.262  0.9325  0.0342  0.01301  -0.0003961  -0.02577  0.4984  0.5327
6.521e+09  0.5625  0.7587  -0.01005  -0.002811  0.01212  0.03614  0.6356  0.3433
6.522e+09  0.8693  0.4651  -0.0001039  0.001512  -0.01431  0.01411  0.7779  0.1273
6.524e+09  0.9391  0.1763  0.008579  -0.02249  -0.01448  -0.02293  0.6988  -0.1392
6.525e+09  1.005  -0.197  -0.01997  -0.01366  -0.01542  -0.002842  0.6456  -0.3847
6.526e+09  0.8523  -0.5312  0.0007571  -0.01132  -0.0208  0.02307  0.4684  -0.5638
6.528e+09  0.5913  -0.7369  -0.02308  -0.0263  -0.001049  -0.04826  0.2021  -0.7248
6.529e+09  0.3537  -0.9044  -0.003831  0.001108  0.01081  -0.02401  -0.06497  -0.6905
6.53e+09  -0.08224  -0.971  -0.02695  -0.001058  0.04048  -0.03276  -0.2658  -0.6326
6.531e+09  -0.3138  -0.9392  0.009001  0.0088  -0.03288  -0.008326  -0.4772  -0.4606
6.532e+09  -0.6804  -0.7229  -0.01272  -0.01382  -0.005319  0.01304  -0.585  -0.3478
6.534e+09  -0.8605  -0.4521  -0.004492  0.005087  -0.008652  -0.00778  -0.6105  -0.0412
6.535e+09  -0.9776  -0.1396  -0.0154  0.02108  0.06477  0.01757  -0.6446  0.1307
6.536e+09  -0.9338  0.2355  0.0052  0.02857  -0.021  0.007381  -0.5584  0.2987
6.538e+09  -0.7934  0.5452  0.02075  -0.006677  0.006788  0.04046  -0.4171  0.4468
6.539e+09  -0.5619  0.7834  0.01444  0.005381  -0.01869  -0.0307  -0.2596  0.6219
6.54e+09  -0.2643  0.9754  -0.009482  -0.0009452  -0.02397  -0.0186  -0.03365  0.6893
6.541e+09  0.08615  0.9948  -0.006695  0.03155  -0.0192  -0.003006  0.1978  0.6367
6.542e+09  0.4162  0.8974  -0.0009886  0.02372  0.007293  -0.001366  0.4348  0.5656
6.544e+09  0.749  0.7169  0.0003588  -0.004985  0.04478  -0.00565  0.5644  0.4356
6.545e+09  0.8731  0.3834  0.02832  0.0283  0.01321  -0.01175  0.7198  0.1542
6.546e+09  0.9058  0.06411  -0.02418  -0.01577  0.02358  -0.018  0.7234  -0.06086
6.548e+09  0.8872  -0.2639  -0.0261  0.00381  -0.03916  -0.01631  0.6183  -0.296
6.549e+09  0.7818  -0.5837  0.009768  -0.008836  -0.02436  -0.02641  0.4838  -0.5406
6.55e+09  0.5336  -0.8486  0.01086  -0.02262  0.01661  -0.007421  0.2961  -0.6481
