# Hz S RI R 50
6.25e+09  0.08224  -0.7325  0.01066  -0.00849  0.009428  -0.04648  0.1824  0.4914
6.251e+09  -0.2376  -0.7498  0.006729  0.0009765  -0.005921  0.01745  0.3772  0.402
6.252e+09  -0.4488  -0.6801  -0.01216  -0.02618  0.03796  0.008906  0.5526  0.2387
6.254e+09  -0.6108  -0.4696  -0.01538  -0.01917  0.04511  0.005537  0.6131  0.001698
6.255e+09  -0.7508  -0.1132  -0.008283  0.008583  0.0213  -0.05077  0.5895  -0.2075
6.256e+09  -0.7969  0.115  0.03076  0.01273  0.008587  0.01585  0.4586  -0.4379
6.258e+09  -0.6975  0.3918  -0.003417  0.02514  -0.005686  -0.004427  0.2922  -0.6076
6.259e+09  -0.5205  0.5759  -0.00588  -0.001991  0.04759  -0.0282  0.03609  -0.6782
6.26e+09  -0.2237  0.7628  -0.01983  -0.007906  0.05581  0.0281  -0.1888  -0.6376
6.261e+09  0.02762  0.7528  0.01818  0.008532  0.03503  -0.05269  -0.4392  -0.5661
6.262e+09  0.3474  0.6947  -0.01355  -0.01131  -0.04453  0.001718  -0.6172  -0.38
6.264e+09  0.488  0.5609  0.01361  -0.005746  0.03313  -0.03017  -0.6984  -0.1082
6.265e+09  0.6892  0.343  0.003378  0.0132  -0.006835  0.005721  -0.7129  0.1688
6.266e+09  0.7866  0.03748  -0.01918  -0.003115  0.009316  0.08211  -0.6178  0.4106
6.268e+09  0.7494  -0.2651  -0.01162  -0.02185  0.02573  0.02323  -0.4555  0.5942
6.269e+09  0.6958  -0.5394  0.005208  0.02808  -0.02547  -0.01955  -0.1953  0.7078
6.27e+09  0.4133  -0.6351  0.01626  -0.003121  -0.0115  0.02403  0.07055  0.7392
6.271e+09  0.1673  -0.7411  0.005408  -0.006128  -0.0228  0.0007426  0.3229  0.6853
6.272e+09  -0.1428  -0.8256  0.02493  0.002961  0.003094  0.04818  0.5514  0.5211
6.274e+09  -0.3899  -0.6533  -0.0275  0.02366  -0.01172  -0.0316  0.6988  0.2923
6.275e+09  -0.5986  -0.468  -0.01305  0.003649  -0.09001  0.04738  0.7457  0.04415
6.276e+09  -0.7067  -0.2817  0.01136  -0.02141  -0.06031  -0.01389  0.7191  -0.2312
6.278e+09  -0.813  0.08752  0.007647  -0.02028  -0.04209  0.001923  0.5935  -0.4551
6.279e+09  -0.7133  0.3179  -0.01345  -0.01897  0.04075  -0.01356  0.3766  -0.6431
6.28e+09  -0.5425  0.5478  0.004656  0.004868  0.06775  -0.04703  0.1686  -0.7757
6.281e+09  -0.4006  0.6787  0.03735  -0.01218  0.03028  0.03833  -0.09879  -0.7741
6.282e+09  -0.102  0.8723  -0.01953  -0.008572  -0.005911  0.01574  -0.3577  -0.683
6.284e+09  0.2033  0.7582  -0.03361  -0.01347  -0.002932  -0.005048  -0.5997  -0.5203
6.285e+09  0.4402  0.6787  -0.004707  0.03682  0.02807  -0.04147  -0.7183  -0.2955
6.286e+09  0.6448  0.4311  0.007711  0.01136  0.07506  -0.02904  -0.7707  0.02481
6.288e+09  0.78  0.1702  -0.01968  0.01094  0.03952  -0.03721  -0.7656  0.2421
6.289e+09  0.7664  -0.1131  0.01811  0.01965  -0.05119  0.006777  -0.6256  0.5295
6.29e+09  0.7642  -0.3232  0.01135  0.01477  0.0163  -0.05882  -0.411  0.6981
6.291e+09  0.5137  -0.5811  0.007413  0.0163  -0.06016  -0.02659  -0.1491  0.8208
6.292e+09  0.271  -0.7473  -0.003752  0.01165  -0.01372  -0.01873  0.1136  0.8158
6.294e+09  -0.01495  -0.816  -0.01315  0.01497  -0.001583  0.03023  0.4075  0.7051
6.295e+09  -0.238  -0.7421  -0.008719  -0.002839  -0.04717  0.02302  0.6393  0.5116
6.296e+09  -0.5292  -0.6331  -0.01085  0.007279  0.003888  -0.0491  0.7942  0.3041
6.298e+09  -0.7119  -0.3975  0.01727  0.01707  -0.003153  0.0181  0.8662  0.01563
6.299e+09  -0.7388  -0.09973  -0.0316  -0.0104  0.05303  -0.05004  0.7753  -0.2642
6.3e+09  -0.8016  0.2206  -0.01018  -0.00589  -0.03184  0.02596  0.6253  -0.56
6.301e+09  -0.6595  0.4522  -0.01121  -0.01689  0.01004  0.03422  0.4217  -0.7011
6.302e+09  -0.4807  0.7076  0.007963  -0.0205  0.01147  0.01935  0.1521  -0.8461
6.304e+09  -0.207  0.7247  -0.01495  -0.01809  -0.000161  -0.01201  -0.141  -0.8364
6.305e+09  0.06751  0.8171  -0.03786  -0.0003323  0.004007  0.01336  -0.4414  -0.7169
6.306e+09  0.373  0.7269  -0.04899  0.01231  -0.02032  -0.01911  -0.6164  -0.5538
6.308e+09  0.5786  0.5678  -0.024  0.01369  -0.002656  -0.00889  -0.8167  -0.2902
6.309e+09  0.7656  0.2974  0.001467  -0.0373  -0.02736  -0.01481  -0.871  0.002647
6.31e+09  0.7555  0.03654  0.001526  -0.01526  0.05403  -0.02857  -0.784  0.3135
6.311e+09  0.7916  -0.3241  0.002531  -0.002994  -0.05954  -0.02893  -0.6806  0.5487
6.312e+09  0.6611  -0.5123  0.02735  -0.009858  0.03037  0.04951  -0.4324  0.7835
6.314e+09  0.3636  -0.7079  -0.01437  0.0119  -0.01011  -0.01749  -0.1387  0.8574
6.315e+09  0.1554  -0.8105  -0.0003878  -0.008916  -0.01352  -0.01216  0.1484  0.835
6.316e+09  -0.1656  -0.809  -0.001158  0.01184  -0.05225  0.01545  0.4444  0.757
6.318e+09  -0.4129  -0.6585  -0.003611  0.004585  0.003577  -0.04467  0.6455  0.5537
6.319e+09  -0.6597  -0.4971  0.01595  0.001903  -0.00231  0.05801  0.8431  0.3673
6.32e+09  -0.7817  -0.2553  -0.033  0.03466  -0.001278  -0.05468  0.8721  -0.01201
6.321e+09  -0.7922  0.0396  0.00558  -0.0002156  -0.04679  0.02959  0.8438  -0.2781
6.322e+09  -0.751  0.2996  -0.01085  0.03489  0.004127  0.005902  0.6856  -0.5519
6.324e+09  -0.5628  0.5731  -0.01156  -0.002091  0.01355  -0.01816  0.4811  -0.7631
6.325e+09  -0.3773  0.7081  -0.02058  -0.000891  0.04068  -0.01919  0.1827  -0.8849
6.326e+09  -0.121  0.8133  0.009869  0.004819  -0.0003408  -0.01195  -0.1458  -0.8964
6.328e+09  0.2342  0.7978  0.01994  0.00153  -0.01201  -0.03279  -0.4508  -0.7891
6.329e+09  0.5063  0.6558  -0.04326  -0.006489  0.01071  0.02159  -0.7096  -0.5985
6.33e+09  0.7064  0.4151  -0.02169  0.008879  0.0004911  0.01898  -0.8229  -0.3367
6.331e+09  0.8157  0.1448  0.002583  -0.01543  -0.0004731  0.02258  -0.8999  0.004843
6.332e+09  0.7953  -0.141  -0.01389  0.00692  -0.0189  -0.01975  -0.8306  0.2982
6.334e+09  0.6877  -0.3988  -0.001344  0.002884  0.01199  0.0346  -0.7056  0.5527
6.335e+09  0.5064  -0.6455  0.005816  0.03734  0.01507  0.03477  -0.5063  0.7621
6.336e+09  0.2326  -0.7357  -0.02209  -0.01629  0.01928  -0.009256  -0.1496  0.9034
6.338e+09  -0.05499  -0.8289  -0.006208  -0.00791  0.0369  0.007846  0.148  0.9271
6.339e+09  -0.3502  -0.7649  -0.006691  0.006517  0.02984  0.0009111  0.4424  0.807
6.34e+09  -0.5952  -0.5773  0.003912  0.04216  -0.06478  0.002729  0.6661  0.6311
6.341e+09  -0.7843  -0.3972  0.03193  -0.02665  0.006362  -0.02442  0.8442  0.3558
6.342e+09  -0.8189  -0.04168  -0.03649  -0.005563  0.02602  0.003571  0.967  0.05126
6.344e+09  -0.7743  0.2657  0.02479  -0.04051  -0.02748  -0.005479  0.8821  -0.2314
6.345e+09  -0.639  0.4871  -0.005528  0.02986  -0.01504  0.02607  0.7376  -0.5705
6.346e+09  -0.4827  0.7357  0.004312  0.03397  -0.0006062  0.004321  0.5355  -0.7819
6.348e+09  -0.1821  0.7829  0.006754  -0.004532  0.003669  0.03511  0.2084  -0.9269
6.349e+09  0.1406  0.8388  -0.002497  -0.01039  0.03852  0.02586  -0.1367  -0.924
6.35e+09  0.4663  0.7281  -0.01787  -0.03925  0.03001  -0.03898  -0.432  -0.8761
6.351e+09  0.6463  0.5083  -0.02139  -0.0105  -0.01159  -0.02179  -0.6811  -0.6348
6.352e+09  0.7483  0.2583  0.02624  0.007017  -0.01361  -0.004071  -0.8528  -0.3809
6.354e+09  0.8088  0.001404  -0.003417  0.02934  0.0311  0.02302  -0.9267  -0.07832
6.355e+09  0.7813  -0.3367  0.001533  -0.02405  -0.01559  0.05726  -0.9037  0.264
6.356e+09  0.5994  -0.5742  -0.01324  -0.01828  -0.008214  -0.006966  -0.74  0.5929
6.358e+09  0.3571  -0.7693  -0.01685  -0.01022  0.0006642  0.01276  -0.5347  0.7847
6.359e+09  0.06973  -0.8278  -0.001378  0.04591  -0.02715  0.01391  -0.2308  0.9644
6.36e+09  -0.2599  -0.766  -0.01857  -0.02365  -0.02756  0.01408  0.05705  0.9366
6.361e+09  -0.5054  -0.6672  -0.03098  0.04451  0.02766  -0.01593  0.406  0.8659
6.362e+09  -0.722  -0.3938  0.05133  0.0123  0.003527  0.005084  0.6875  0.6526
6.364e+09  -0.8644  -0.1588  -0.01896  0.01821  -0.03023  0.01259  0.8115  0.3654
6.365e+09  -0.8236  0.1752  -0.00644  -0.0004121  -0.04213  -0.001712  0.9385  0.06192
6.366e+09  -0.6965  0.4356  -0.01954  0.02858  0.01146  0.01718  0.9399  -0.2357
6.368e+09  -0.5169  0.642  -0.03409  -0.009224  0.01147  0.01999  0.8033  -0.5275
6.369e+09  -0.2231  0.809  -0.004036  0.0147  -0.004712  0.00218  0.5329  -0.7676
6.37e+09  0.09814  0.8021  -0.02102  -0.02018  0.02872  0.02674  0.2115  -0.8714
6.371e+09  0.3803  0.7358  -0.02422  -0.00545  -0.03131  -0.011  -0.06203  -0.9693
6.372e+09  0.6322  0.5914  0.006357  0.001186  0.04289  -0.03227  -0.3609  -0.8727
6.374e+09  0.7672  0.3541  -0.00719  -0.03096  -0.01901  0.03424  -0.6363  -0.7396
6.375e+09  0.8992  0.008131  0.0226  0.003139  0.04893  0.009654  -0.8307  -0.4036
6.376e+09  0.7626  -0.2494  -0.01145  0.01088  0.01202  -0.02024  -0.8756  -0.1035
6.378e+09  0.6331  -0.6406  0.02641  0.002114  -0.02291  -0.005042  -0.92  0.2327
6.379e+09  0.3751  -0.7518  -0.01497  0.02084  -0.001541  -0.001248  -0.7641  0.5255
6.38e+09  0.08611  -0.873  0.01292  -0.003012  -0.01768  0.008256  -0.5478  0.7694
6.381e+09  -0.2188  -0.8201  0.01123  -0.01735  0.02385  0.01489  -0.2672  0.8766
6.382e+09  -0.4542  -0.7121  -0.01133  0.04202  0.02657  -0.0187  0.02551  0.9422
6.384e+09  -0.6735  -0.5349  -0.01523  0.005644  -0.02328  -0.01279  0.3638  0.8306
6.385e+09  -0.8568  -0.251  -0.0009198  -0.003275  -0.01312  0.002963  0.661  0.6695
6.386e+09  -0.8758  0.09904  -0.00409  -0.04008  -0.03825  0.01759  0.8144  0.4071
6.388e+09  -0.7849  0.3952  -0.009589  -0.02626  -0.01686  0.03374  0.9309  0.1141
6.389e+09  -0.5607  0.6441  -0.006572  -0.01588  -0.01096  -0.02281  0.8817  -0.2337
6.39e+09  -0.2923  0.7911  -0.008729  0.0151  -0.01174  0.02408  0.794  -0.4964
6.391e+09  -0.01325  0.8743  0.02826  0.01196  -0.04772  0.01783  0.5598  -0.7641
6.392e+09  0.3524  0.7852  -0.0008919  -0.02095  -0.002812  -0.01293  0.2838  -0.8669
6.394e+09  0.5865  0.6468  -0.01031  -0.01158  -0.02196  -0.02573  -0.03655  -0.9501
6.395e+09  0.7809  0.3939  0.04435  -0.007461  -0.009448  -0.003977  -0.3734  -0.8811
6.396e+09  0.867  0.05529  -0.007383  -0.02689  0.03145  -0.02447  -0.5866  -0.6535
6.398e+09  0.8652  -0.2285  0.006594  -0.004352  0.02995  -0.01182  -0.8311  -0.4474
6.399e+09  0.6759  -0.5227  0.01322  0.02612  0.00519  0.03617  -0.9085  -0.1056
6.4e+09  0.4905  -0.7023  0.01444  0.009609  0.06012  0.01938  -0.8856  0.1748
6.401e+09  0.1518  -0.8068  -0.02599  0.003982  0.01426  0.006736  -0.8102  0.4735
6.402e+09  -0.1854  -0.855  -0.04821  -0.06913  0.02476  -0.008518  -0.5897  0.6733
6.404e+09  -0.3897  -0.7121  -0.04715  -0.01333  0.0479  -0.03456  -0.3223  0.8777
6.405e+09  -0.6492  -0.5129  0.02041  0.01756  -0.01045  -0.0009025  -0.03162  0.8933
6.406e+09  -0.8015  -0.2867  -0.006426  -0.01252  0.0243  0.01984  0.3108  0.8573
6.408e+09  -0.8289  -0.03124  0.001532  0.01122  -0.02026  -0.0008047  0.612  0.7156
6.409e+09  -0.7848  0.2867  -0.0163  0.04138  -0.01057  0.02421  0.8221  0.4135
6.41e+09  -0.6252  0.5776  -0.02763  -0.03339  -0.01223  -0.002236  0.9062  0.189
6.411e+09  -0.4276  0.7368  0.005966  -0.06012  0.01631  0.04564  0.886  -0.1647
6.412e+09  -0.04499  0.8847  -0.003747  0.01274  -0.01837  -0.02014  0.8002  -0.4423
6.414e+09  0.2356  0.8543  0.09231  0.003876  0.03727  -0.009649  0.603  -0.6409
6.415e+09  0.5077  0.6748  -0.0005094  -0.04645  -0.01306  -0.04112  0.3212  -0.841
6.416e+09  0.6869  0.4366  -0.006965  0.004886  -0.02532  0.007974  0.01583  -0.9304
6.418e+09  0.8008  0.1457  0.01152  -0.05362  -0.009453  -0.03156  -0.2549  -0.7992
6.419e+09  0.8564  -0.128  0.01393  -0.03135  -0.00959  -0.01641  -0.5821  -0.6892
6.42e+09  0.7401  -0.4222  0.005247  0.03586  -0.03232  0.04076  -0.7623  -0.4738
6.421e+09  0.5497  -0.6813  0.009082  -0.03722  0.02912  0.01854  -0.8521  -0.2598
6.422e+09  0.2799  -0.8541  -0.008159  -0.02318  -0.02837  0.00734  -0.8744  0.08333
6.424e+09  -0.03976  -0.8182  0.03593  -0.04961  -0.005354  -0.01212  -0.7723  0.3723
6.425e+09  -0.3849  -0.7809  -0.01513  0.02148  -0.01242  0.04634  -0.6134  0.6136
6.426e+09  -0.6247  -0.5443  0.01608  0.01869  0.01175  0.02456  -0.3206  0.823
6.428e+09  -0.8101  -0.3811  -0.06454  -0.02662  0.05615  -0.01382  -0.07001  0.9199
6.429e+09  -0.824  -0.06814  0.002464  -0.003471  0.0006084  0.00314  0.2325  0.8474
6.43e+09  -0.8138  0.2479  0.01243  -0.01326  0.02325  -0.01985  0.5207  0.7317
6.431e+09  -0.6448  0.4953  -0.02833  -0.024  -0.004745  -0.0001835  0.7265  0.479
6.432e+09  -0.4485  0.7174  -0.01423  0.02785  -0.005791  0.01529  0.8419  0.2699
6.434e+09  -0.2064  0.82  -0.01836  -0.01305  0.0179  -0.03812  0.8715  -0.1006
6.435e+09  0.1126  0.8609  0.009078  -0.009949  -0.01666  0.03621  0.8054  -0.3925
6.436e+09  0.3909  0.7265  -0.01484  -0.01828  0.004563  0.05152  0.609  -0.6377
6.438e+09  0.6571  0.5299  0.0001265  0.0037  -0.01509  -0.02338  0.3471  -0.7989
6.439e+09  0.7981  0.2997  -0.00294  0.01451  -0.01501  -0.04261  0.09109  -0.9297
6.44e+09  0.867  -0.019  0.00992  0.04722  0.01442  -0.04209  -0.2727  -0.7997
6.441e+09  0.7745  -0.3147  0.01805  -0.04835  -0.03745  -0.03115  -0.4639  -0.6745
6.442e+09  0.6248  -0.5556  0.02179  0.03234  -0.01352  -0.007144  -0.6561  -0.4806
6.444e+09  0.3736  -0.7022  -0.01012  -0.06686  -0.004579  0.04128  -0.8536  -0.1825
6.445e+09  -0.001054  -0.8355  0.01567  0.002489  -0.01264  0.0048  -0.8587  0.09331
6.446e+09  -0.2053  -0.7955  -0.03414  -0.02548  -0.0004014  0.02427  -0.8165  0.3682
6.448e+09  -0.4633  -0.6775  0.01095  0.002976  0.003272  0.01781  -0.5894  0.6154
6.449e+09  -0.6226  -0.4973  -0.04638  -0.01199  -0.05018  -0.007959  -0.3568  0.7602
6.45e+09  -0.7916  -0.2366  -0.02653  -0.0348  -0.01454  -0.02325  -0.05429  0.8287
6.451e+09  -0.8006  0.138  0.005533  0.01461  -0.03107  0.01126  0.1973  0.7744
6.452e+09  -0.7675  0.3401  0.0203  -0.01367  0.05226  0.05013  0.4937  0.6836
6.454e+09  -0.5967  0.6262  -0.01225  -0.03276  -0.005678  0.01171  0.6521  0.449
6.455e+09  -0.2919  0.7784  -0.01905  -0.001612  0.02693  -0.06041  0.7987  0.1927
6.456e+09  0.009906  0.8389  0.02979  -0.0001503  0.0363  -0.008594  0.8603  -0.06385
6.458e+09  0.26  0.7737  -0.01002  -0.01224  -0.01428  0.03772  0.7428  -0.3369
6.459e+09  0.4952  0.647  -0.02958  0.0281  -0.02865  -0.01457  0.5574  -0.591
6.46e+09  0.731  0.4357  0.0249  -0.03464  -0.03179  0.054  0.3204  -0.7243
6.461e+09  0.8324  0.1204  0.0403  0.01107  0.01141  0.008961  0.03377  -0.7942
6.462e+09  0.8523  -0.1162  0.04116  0.008723  -0.005248  0.03847  -0.213  -0.7999
6.464e+09  0.7178  -0.4266  -0.01809  -0.004572  0.02272  0.005667  -0.4274  -0.6845
6.465e+09  0.54  -0.6749  -0.01595  -0.009285  -0.01852  -0.01392  -0.6823  -0.5109
6.466e+09  0.2116  -0.7894  -0.03999  -0.03951  -0.06251  -0.03075  -0.8076  -0.189
6.468e+09  -0.06568  -0.7981  -0.01226  -0.03981  0.01375  0.02938  -0.8107  0.0476
6.469e+09  -0.3358  -0.7902  0.05461  0.0286  0.03269  0.0168  -0.7209  0.3244
6.47e+09  -0.5386  -0.6456  0.004892  0.002431  0.04061  -0.008873  -0.556  0.5068
6.471e+09  -0.8105  -0.3628  0.01204  0.02186  0.03256  0.006384  -0.3447  0.6836
6.472e+09  -0.7875  -0.0565  -0.006111  -0.03364  0.03415  0.0133  -0.09829  0.7728
6.474e+09  -0.7845  0.1894  0.01106  -0.03214  -0.005845  0.01054  0.2341  0.7617
6.475e+09  -0.6878  0.4787  0.006088  0.0416  0.01661  0.045  0.4691  0.6392
6.476e+09  -0.4848  0.6305  -0.03457  0.01483  -0.01672  0.00642  0.6293  0.4358
6.478e+09  -0.2536  0.7737  0.01523  0.03097  0.005424  0.07351  0.7541  0.2066
6.479e+09  0.08007  0.7771  -0.0102  0.03214  -0.02301  0.01376  0.7854  -0.1122
6.48e+09  0.3568  0.7426  -0.003684  -0.007583  -0.0283  0.05204  0.7189  -0.2958
6.481e+09  0.5803  0.5493  0.01739  -0.009096  0.000224  0.04003  0.5727  -0.5442
6.482e+09  0.7006  0.3395  -0.07235  0.02237  0.006581  -0.01641  0.3593  -0.6772
6.484e+09  0.8085  0.03345  0.04697  0.007855  0.0198  -0.03456  0.07305  -0.7881
6.485e+09  0.7555  -0.2119  -0.02631  0.006337  -0.009977  -0.03016  -0.2666  -0.802
6.486e+09  0.6788  -0.5105  0.005401  0.001162  -0.008209  0.007237  -0.4759  -0.6127
6.488e+09  0.4484  -0.6821  0.006005  0.01025  0.01387  0.02608  -0.6656  -0.4211
6.489e+09  0.2159  -0.7672  -0.0034  0.01129  0.01604  -0.007037  -0.7615  -0.2058
6.49e+09  -0.1287  -0.8238  0.018  -0.002579  0.03494  0.007564  -0.738  0.09453
6.491e+09  -0.4394  -0.7661  0.009125  -0.019  0.02725  -0.02809  -0.6592  0.3528
6.492e+09  -0.6067  -0.5166  -0.0008616  -0.002331  0.02608  -0.009647  -0.5607  0.5488
6.494e+09  -0.7093  -0.3596  -0.01104  0.01056  0.03197  0.01558  -0.3264  0.6986
6.495e+09  -0.8278  -0.02158  0.004372  -0.02891  -0.01459  -0.03609  -0.03922  0.7834
6.496e+09  -0.7731  0.2532  0.01238  0.006043  -0.02778  -0.007995  0.2124  0.7253
6.498e+09  -0.627  0.5104  -0.005629  0.01682  0.0002897  -0.05459  0.4846  0.6037
6.499e+09  -0.4294  0.7038  0.03028  -0.02772  0.03041  -0.0171  0.6364  0.4386
6.5e+09  -0.1417  0.7917  0.0214  -0.01146  0.0004974  -0.04087  0.7889  0.1507
6.501e+09  0.1686  0.8045  0.02202  -0.0246  -0.02387  -0.002007  0.746  -0.08899
6.502e+09  0.3949  0.7133  0.01756  -0.008111  -0.00425  0.03717  0.6786  -0.3735
6.504e+09  0.6692  0.5809  0.01177  0.02531  0.004163  0.02928  0.5105  -0.6404
6.505e+09  0.7928  0.2919  0.01173  -0.03724  -0.02081  -0.0005867  0.323  -0.7103
6.506e+09  0.8475  0.0207  0.0157  0.04667  0.02925  0.0494  0.04484  -0.75
6.508e+09  0.7449  -0.241  0.0144  0.01437  -0.0002081  -0.006825  -0.2119  -0.7317
6.509e+09  0.6163  -0.5357  -0.04853  0.02742  0.000847  -0.05871  -0.4968  -0.6137
6.51e+09  0.3895  -0.7419  0.003119  0.003269  0.01872  -0.06991  -0.6092  -0.3719
6.511e+09  0.08632  -0.8439  0.00772  0.00593  0.01829  -0.01788  -0.7404  -0.1172
6.512e+09  -0.1522  -0.8701  0.01445  -0.01535  0.002927  0.004572  -0.7601  0.1307
6.514e+09  -0.4244  -0.6934  -0.003544  0.01803  0.02464  0.009745  -0.6555  0.3764
6.515e+09  -0.7068  -0.5103  0.01939  -0.01361  0.02959  -0.003867  -0.4961  0.5619
6.516e+09  -0.7923  -0.2485  0.005772  -0.001001  -0.03457  0.02478  -0.2658  0.7042
6.518e+09  -0.8536  0.01957  -0.03485  -0.01769  -0.01894  -0.03626  0.02633  0.7592
6.519e+09  -0.7312  0.3328  0.01188  0.0265  -0.0747  0.02204  0.3022  0.6475
6.52e+09  -0.6358  0.603  0.003238  -0.02293  0.01874  -0.01965  0.4804  0.5169
6.521e+09  -0.3565  0.7652  -0.003351  0.02522  0.01763  0.002329  0.6838  0.3615
6.522e+09  -0.08755  0.8894  -0.005228  -0.03101  -0.05103  -0.06489  0.7347  0.1057
6.524e+09  0.2014  0.7968  -0.01004  -0.02618  0.02575  0.03582  0.7254  -0.1688
6.525e+09  0.4532  0.7237  0.01976  0.008126  0.01352  0.02045  0.6067  -0.4026
6.526e+09  0.7154  0.5668  0.005317  -0.0008953  -0.02899  -0.006882  0.4233  -0.5635
6.528e+09  0.8431  0.1732  -0.01917  0.01569  -0.05091  0.02155  0.1874  -0.7016
6.529e+09  0.8833  -0.06388  0.009458  0.009999  -0.03801  0.03135  -0.04421  -0.7288
6.53e+09  0.8224  -0.4034  -0.02687  -0.003244  0.0546  0.03578  -0.2765  -0.6024
6.531e+09  0.6664  -0.6237  0.0152  0.0245  0.008226  -0.01065  -0.4624  -0.5023
6.532e+09  0.3165  -0.8696  0.0066  -0.02597  -0.04133  0.01925  -0.6207  -0.3167
6.534e+09  -0.005918  -0.8964  -0.007052  -0.02256  0.01961  -0.05209  -0.6291  -0.08837
6.535e+09  -0.2396  -0.8122  -0.03385  0.01539  0.007971  0.03927  -0.6077  0.1034
6.536e+09  -0.5647  -0.7363  -0.01957  0.003788  -0.03537  -0.01456  -0.5763  0.296
6.538e+09  -0.7602  -0.4572  -0.008437  0.01655  -0.02185  -0.03022  -0.4955  0.4724
6.539e+09  -0.8881  -0.16  -0.04265  -0.03321  0.03913  0.012  -0.2642  0.6099
6.54e+09  -0.8851  0.1663  -0.004031  0.008432  0.02122  0.00149  -0.0547  0.697
6.541e+09  -0.8334  0.4453  -0.003216  -0.003939  0.01551  0.01922  0.1997  0.6622
6.542e+09  -0.5834  0.6983  -0.01542  0.004181  0.02713  -0.01199  0.4061  0.5554
6.544e+09  -0.2858  0.8007  -0.02563  -0.0003041  0.01262  -0.01889  0.5899  0.3873
6.545e+09  0.02475  0.9342  -0.01597  -0.001354  -0.0002666  -0.02623  0.6913  0.1798
6.546e+09  0.3381  0.8742  0.008175  0.003517  0.007008  0.004547  0.7477  -0.1089
6.548e+09  0.6283  0.7062  0.01944  -0.03211  0.03911  0.04595  0.6604  -0.3607
6.549e+09  0.8189  0.4262  0.002396  -0.005059  0.004326  -0.03898  0.5209  -0.513
6.55e+09  0.8855  0.07689  0.01015  -0.007724  0.0883  0.001579  0.297  -0.6784
