# Hz S RI R 50
6.25e+09  -0.5127  0.7619  -0.008662  -0.006447  -0.04118  -0.0004229  0.1774  0.4735
6.251e+09  -0.147  0.8705  0.003957  -0.01503  -0.03956  0.009258  0.3819  0.4061
6.252e+09  0.1725  0.8888  -0.01503  -0.002091  -0.03286  0.01207  0.5506  0.2184
6.254e+09  0.3976  0.7139  -0.01573  0.01212  -0.006794  -0.003664  0.5874  0.04277
6.255e+09  0.617  0.5178  -0.02309  0.01031  -0.08446  0.04049  0.5493  -0.1988
6.256e+09  0.8604  0.2404  -0.0334  0.03101  -0.01317  0.000532  0.4331  -0.4253
6.258e+09  0.8339  -0.08493  -0.002639  -0.01085  -0.003539  0.01391  0.2823  -0.6127
6.259e+09  0.8265  -0.2898  -0.01021  -0.03391  0.04035  0.03124  0.0211  -0.6862
6.26e+09  0.5632  -0.5605  0.009738  -0.002732  -0.04962  0.0285  -0.1623  -0.6589
6.261e+09  0.3832  -0.7458  0.009086  -0.01608  0.02468  -0.02911  -0.4254  -0.5605
6.262e+09  0.06805  -0.8466  -0.06079  -0.008871  -0.04302  -0.0608  -0.6349  -0.3358
6.264e+09  -0.2119  -0.8377  -0.02339  -0.01649  0.04024  -0.02715  -0.7161  -0.1289
6.265e+09  -0.4714  -0.686  0.02652  0.004673  -0.01919  0.02238  -0.6913  0.1263
6.266e+09  -0.6469  -0.5405  -0.008603  0.002917  0.01276  0.03188  -0.5983  0.3784
6.268e+09  -0.7905  -0.2084  -0.00647  0.0114  -0.02936  -0.02284  -0.4272  0.5932
6.269e+09  -0.8513  0.02194  0.02036  0.01734  0.01884  -0.004875  -0.2572  0.7323
6.27e+09  -0.7607  0.3182  -0.01927  0.01025  -0.0004874  0.01278  0.06195  0.7199
6.271e+09  -0.5769  0.6034  -0.02383  -0.006787  -0.01102  -0.0006734  0.3214  0.6684
6.272e+09  -0.3768  0.7561  -0.02793  -0.00316  0.007941  -0.00529  0.5388  0.5467
6.274e+09  -0.07374  0.8456  -0.02415  0.01825  -0.04469  -0.02725  0.7026  0.3243
6.275e+09  0.2117  0.8439  -0.005936  -0.009293  0.03393  0.0593  0.7198  0.0631
6.276e+09  0.4787  0.6749  0.01976  0.003202  -0.02534  -0.01559  0.7376  -0.2197
6.278e+09  0.7101  0.4817  -0.02304  0.001642  0.001382  0.03434  0.6108  -0.4854
6.279e+09  0.8063  0.2599  -0.008607  0.01095  0.01235  -0.0514  0.3954  -0.6425
6.28e+09  0.8265  -0.05743  -0.01607  0.008144  0.05205  0.01779  0.1725  -0.7287
6.281e+09  0.7711  -0.3282  -0.02337  -0.02347  0.03485  -0.01238  -0.1003  -0.7413
6.282e+09  0.6155  -0.636  0.01889  -0.008657  0.008506  -0.0427  -0.3745  -0.7004
6.284e+09  0.3626  -0.7431  -0.0002033  0.008317  0.02561  0.05535  -0.6108  -0.534
6.285e+09  0.1286  -0.8129  -0.00841  0.003368  -0.02565  -0.01251  -0.771  -0.3401
6.286e+09  -0.2377  -0.8482  0.003196  -0.0159  -0.02298  -0.02575  -0.7949  -0.02729
6.288e+09  -0.4895  -0.6233  0.002954  0.01432  0.001705  0.002771  -0.7537  0.2639
6.289e+09  -0.6719  -0.5134  -0.01156  0.02353  0.0767  -0.02738  -0.6254  0.5315
6.29e+09  -0.7886  -0.2541  0.01788  0.006566  -0.05461  0.03718  -0.3808  0.6964
6.291e+09  -0.8592  0.06829  -0.01743  0.007119  0.05127  0.001798  -0.1496  0.8378
6.292e+09  -0.7444  0.3774  0.005465  0.006026  -0.003874  0.02713  0.09768  0.7761
6.294e+09  -0.6197  0.6533  0.02122  -0.008616  0.03384  0.044  0.3843  0.7144
6.295e+09  -0.3119  0.7547  -0.002756  0.00862  0.002521  0.009442  0.6266  0.5372
6.296e+09  -0.08324  0.8851  -0.004887  0.0179  -0.03817  -0.01459  0.7956  0.2665
6.298e+09  0.2072  0.8309  0.0183  0.002675  0.04081  0.008819  0.832  -0.007731
6.299e+09  0.5169  0.656  -0.007814  0.005337  0.01288  0.00797  0.7717  -0.2789
6.3e+09  0.644  0.4422  0.009027  -0.009646  -0.01643  0.01585  0.6496  -0.5346
6.301e+09  0.8158  0.2112  -0.01124  -0.03198  0.005568  0.001842  0.418  -0.6947
6.302e+09  0.8009  -0.1216  -0.01685  -0.01041  -0.01205  -0.05478  0.1397  -0.8109
6.304e+09  0.7528  -0.3947  -0.00649  0.02398  -0.03564  0.03161  -0.1709  -0.8043
6.305e+09  0.5967  -0.6425  -0.007352  0.02263  -0.01498  -0.02903  -0.4205  -0.7158
6.306e+09  0.3167  -0.7663  0.001241  0.01237  0.06524  -0.02698  -0.6498  -0.5826
6.308e+09  0.02239  -0.8102  0.004475  -0.02679  0.00372  -0.04393  -0.8037  -0.2876
6.309e+09  -0.2683  -0.8284  0.007467  0.01835  0.01442  -0.02003  -0.8695  -0.02975
6.31e+09  -0.4733  -0.6666  -0.01803  -0.00955  -0.006469  -0.004058  -0.8555  0.2688
6.311e+09  -0.7088  -0.3908  0.02295  -0.007541  -0.04162  -0.008817  -0.6671  0.5447
6.312e+09  -0.82  -0.1952  0.004726  0.01117  0.0158  0.008221  -0.4688  0.7547
6.314e+09  -0.7947  0.1664  -0.003555  -0.01768  0.02699  0.02401  -0.1574  0.8656
6.315e+09  -0.7204  0.3857  0.0107  0.01452  -0.0493  -0.02008  0.1307  0.8558
6.316e+09  -0.5317  0.6454  0.03089  0.02551  0.0238  0.01051  0.407  0.7724
6.318e+09  -0.3349  0.7995  -0.02728  0.01347  -0.03026  -0.01397  0.6901  0.5759
6.319e+09  0.009513  0.8846  -0.02331  0.0284  -0.01331  0.007071  0.8546  0.3422
6.32e+09  0.3168  0.8371  0.01566  0.03046  -0.01202  0.02312  0.9088  -0.003162
6.321e+09  0.5821  0.6789  -0.001613  0.002502  -0.007107  -0.06496  0.8369  -0.3096
6.322e+09  0.7506  0.4145  -0.03202  0.02449  0.02065  0.0007723  0.6663  -0.5728
6.324e+09  0.8429  0.1288  0.02128  0.04125  -0.03287  -0.0176  0.4815  -0.782
6.325e+09  0.8686  -0.2001  0.01573  -0.0005404  -0.004976  -0.03115  0.1804  -0.8657
6.326e+09  0.7367  -0.4647  -0.007467  -0.01055  0.01077  -0.02102  -0.1473  -0.8525
6.328e+09  0.5017  -0.7827  0.002896  0.0004104  -0.01875  0.02358  -0.456  -0.8086
6.329e+09  0.2525  -0.8185  0.005158  -0.02351  0.002831  -0.003965  -0.6605  -0.6184
6.33e+09  -0.03601  -0.8827  0.01677  0.02233  -0.03023  -0.0299  -0.8296  -0.3579
6.331e+09  -0.3809  -0.8143  -0.009886  0.003023  -0.01386  0.04398  -0.9356  0.009077
6.332e+09  -0.5907  -0.5805  -0.01097  0.03813  -0.03751  -0.02427  -0.8753  0.2933
6.334e+09  -0.7702  -0.3656  -0.02351  -0.002145  0.01012  -0.02252  -0.7537  0.5207
6.335e+09  -0.8455  -0.06024  0.006056  -0.01934  -0.0335  -0.01308  -0.4992  0.7831
6.336e+09  -0.8575  0.2586  0.008072  -0.003661  0.002473  -0.05068  -0.1793  0.9009
6.338e+09  -0.7095  0.5626  -0.001956  -0.02928  -0.008836  0.003473  0.1523  0.9274
6.339e+09  -0.4832  0.6587  -0.006018  -0.03399  -0.0237  -0.00436  0.4467  0.7719
6.34e+09  -0.2395  0.8531  0.02686  0.001681  -0.003407  0.05241  0.6734  0.6318
6.341e+09  0.1193  0.8684  -0.008288  0.02866  -0.03932  -0.04167  0.8389  0.3682
6.342e+09  0.4003  0.8192  -0.005864  -0.01025  -0.04222  0.03616  0.9533  0.0467
6.344e+09  0.6796  0.5849  -0.003029  -0.03879  -0.00772  -0.04004  0.9014  -0.2703
6.345e+09  0.8616  0.306  0.01235  0.01398  0.002036  0.003746  0.7654  -0.5736
6.346e+09  0.9219  -0.008864  0.02462  0.03807  -0.02294  -0.002725  0.5002  -0.7831
6.348e+09  0.8375  -0.3475  0.01817  0.01439  0.004227  -0.01942  0.1973  -0.9306
6.349e+09  0.6836  -0.5875  0.04606  0.005449  -0.01814  0.03913  -0.08206  -0.9496
6.35e+09  0.4771  -0.7576  -0.0009654  0.01841  -0.03171  -0.03429  -0.4546  -0.821
6.351e+09  0.1361  -0.8767  -0.001168  0.02272  0.0007184  0.001164  -0.6777  -0.6423
6.352e+09  -0.1847  -0.854  -3.254e-05  0.003746  0.02212  0.01774  -0.9196  -0.347
6.354e+09  -0.4938  -0.7823  -0.0105  -0.008619  -0.002343  0.02498  -0.9151  -0.07283
6.355e+09  -0.7051  -0.5429  0.01379  0.007854  0.008041  0.006212  -0.9092  0.2373
6.356e+09  -0.8346  -0.2546  -0.03531  -0.0452  0.02203  -0.03415  -0.7294  0.5542
6.358e+09  -0.9446  0.02409  -0.001147  -0.01647  0.04855  0.00154  -0.5303  0.7752
6.359e+09  -0.8164  0.3962  0.01345  -0.0164  -0.01636  0.0151  -0.2091  0.8941
6.36e+09  -0.673  0.6268  0.06309  -0.02347  -0.01472  0.02052  0.08229  0.9569
6.361e+09  -0.4423  0.7917  -0.0237  0.008605  -0.001593  0.01995  0.4099  0.821
6.362e+09  -0.09864  0.9086  -0.0004216  0.04743  0.02283  0.008979  0.6559  0.6834
6.364e+09  0.2695  0.8445  0.02344  -0.03603  -0.02285  0.01961  0.8957  0.3594
6.365e+09  0.5225  0.7202  0.01276  0.02224  -0.01978  -0.004476  0.9536  0.06096
6.366e+09  0.7455  0.4819  -0.0008909  0.04795  0.01242  0.02949  0.9565  -0.228
6.368e+09  0.8139  0.2176  -0.01361  -0.001407  -0.03086  0.0182  0.7683  -0.5905
6.369e+09  0.8955  -0.09288  -0.01953  -0.01292  0.01026  -0.03198  0.5141  -0.7799
6.37e+09  0.8027  -0.4099  -0.02343  0.02197  -0.01875  0.007143  0.2352  -0.9207
6.371e+09  0.6155  -0.6947  -0.009759  0.0303  0.01223  -0.002731  -0.1071  -0.9097
6.372e+09  0.3722  -0.8162  0.002836  0.03756  0.001051  0.05163  -0.3968  -0.8468
6.374e+09  0.01343  -0.9156  0.005899  0.0005873  0.02004  0.008226  -0.6745  -0.6489
6.375e+09  -0.291  -0.8819  -0.03338  0.03005  -0.02512  0.05199  -0.866  -0.3592
6.376e+09  -0.5777  -0.7134  -0.01354  0.01937  -0.003171  0.009914  -0.9648  -0.09197
6.378e+09  -0.8017  -0.4717  -0.03919  0.009584  -0.01328  -0.005408  -0.9099  0.2315
6.379e+09  -0.8502  -0.2213  0.03405  0.009022  0.003673  0.05751  -0.8009  0.5231
6.38e+09  -0.8706  0.1513  0.009972  0.02586  -0.03275  0.0101  -0.5591  0.7302
6.381e+09  -0.737  0.4255  -0.02425  -0.01197  -0.049  0.0462  -0.2663  0.8953
6.382e+09  -0.5707  0.6504  -0.002118  0.008541  0.04866  -0.005732  0.06253  0.9215
6.384e+09  -0.3362  0.8082  -0.04687  -0.01784  0.02722  0.05718  0.3266  0.8509
6.385e+09  -0.0528  0.8803  0.04808  -0.01559  -0.004054  0.003353  0.646  0.6448
6.386e+09  0.289  0.8273  0.03746  -0.01718  0.02063  0.03207  0.8385  0.4442
6.388e+09  0.5729  0.6902  -0.03463  -0.01706  -0.0002076  -0.007031  0.9173  0.09225
6.389e+09  0.7784  0.4241  0.00185  0.03092  -0.03929  0.03036  0.8925  -0.2321
6.39e+09  0.9185  0.1135  -0.0436  0.002644  0.005401  -0.03328  0.7683  -0.5295
6.391e+09  0.9027  -0.1801  0.02896  0.004483  -0.0007932  -0.03356  0.5753  -0.7326
6.392e+09  0.7611  -0.4783  -0.01651  -0.02898  0.003487  0.02692  0.2934  -0.8554
6.394e+09  0.5713  -0.6805  -0.04918  0.003116  0.01944  -0.002153  -0.009261  -0.9178
6.395e+09  0.2361  -0.8639  -0.007806  -0.02974  0.02986  0.01844  -0.3293  -0.8494
6.396e+09  -0.02184  -0.8748  -0.003048  0.01991  -0.02148  -0.0162  -0.6286  -0.6692
6.398e+09  -0.3626  -0.8069  0.01237  0.0325  0.02686  0.04788  -0.791  -0.4159
6.399e+09  -0.5774  -0.6127  -0.03325  -0.00501  -0.009404  -0.01271  -0.9022  -0.1523
6.4e+09  -0.8123  -0.4219  0.01066  -0.05164  -0.007102  0.01528  -0.9042  0.1651
6.401e+09  -0.8979  -0.08568  -0.0148  -0.01142  0.009784  0.006103  -0.8445  0.483
6.402e+09  -0.8855  0.1878  -0.01536  -0.03657  -0.01815  0.05185  -0.5976  0.697
6.404e+09  -0.744  0.4723  -0.01073  0.02005  0.0003532  0.0262  -0.2868  0.8599
6.405e+09  -0.5178  0.6709  -0.002601  -0.02956  0.0009741  0.01561  -0.006733  0.9294
6.406e+09  -0.2234  0.8522  -0.02409  -0.002402  -0.01241  0.01771  0.3437  0.8571
6.408e+09  0.0152  0.8744  0.03916  -0.005917  0.006345  -0.02359  0.5788  0.7127
6.409e+09  0.3472  0.796  -0.0007275  -0.02744  0.01957  -0.01598  0.7989  0.4724
6.41e+09  0.6333  0.6105  -0.03121  -0.002647  0.03351  0.02451  0.9048  0.1643
6.411e+09  0.8164  0.3987  0.006949  -0.05639  0.02305  -0.00172  0.8964  -0.1414
6.412e+09  0.8996  0.04215  -0.07207  -0.01662  -0.0129  -0.01081  0.827  -0.4417
6.414e+09  0.8194  -0.2032  -0.01246  -0.05516  -0.01541  0.01242  0.637  -0.6943
6.415e+09  0.7962  -0.4366  0.03624  0.008342  0.01449  0.02857  0.3707  -0.8755
6.416e+09  0.5225  -0.7591  0.005167  0.01559  -0.001246  0.05096  0.008065  -0.9191
6.418e+09  0.2535  -0.8597  0.004025  0.01714  -0.001758  0.0485  -0.2635  -0.9021
6.419e+09  -0.1021  -0.8793  0.03016  -0.0005131  -0.02976  0.03138  -0.5116  -0.6811
6.42e+09  -0.3589  -0.7818  0.008878  0.002312  0.004162  -0.01624  -0.7403  -0.427
6.421e+09  -0.5787  -0.6265  0.01757  -0.01515  -0.0221  -0.001552  -0.9105  -0.2131
6.422e+09  -0.7949  -0.3773  -0.01761  -0.002786  0.001943  -0.01168  -0.8645  0.1097
6.424e+09  -0.9018  -0.1181  0.04431  0.003936  0.02613  0.0187  -0.7623  0.4497
6.425e+09  -0.8217  0.2565  0.02531  0.01131  0.03927  0.03127  -0.6247  0.6291
6.426e+09  -0.7274  0.5306  -0.005612  0.02101  0.009633  -0.02056  -0.3672  0.8073
6.428e+09  -0.5295  0.7377  0.03997  0.01606  -0.07078  0.000173  -0.1002  0.9219
6.429e+09  -0.2126  0.8375  -0.003152  -0.01126  0.0305  -0.009841  0.2533  0.8594
6.43e+09  0.06946  0.858  -0.04796  0.009354  -0.008624  0.01834  0.5078  0.6847
6.431e+09  0.3848  0.7805  -0.03515  0.009161  -0.009134  -0.06342  0.7107  0.4526
6.432e+09  0.6247  0.6115  -0.03635  0.03679  0.001507  -0.03367  0.8752  0.1968
6.434e+09  0.8092  0.3634  0.04102  -0.05317  0.002498  0.01173  0.8541  -0.07043
6.435e+09  0.907  0.0163  -0.02561  0.0003642  0.01806  0.01842  0.8049  -0.3484
6.436e+09  0.8038  -0.3265  0.005196  0.01014  -0.01727  0.005521  0.5735  -0.6223
6.438e+09  0.7031  -0.4953  0.006643  0.07737  0.0115  0.01537  0.3489  -0.7906
6.439e+09  0.4616  -0.743  -0.02065  0.001299  0.04002  0.01671  0.04354  -0.824
6.44e+09  0.174  -0.8624  -0.0269  0.01832  0.002154  -0.009138  -0.2538  -0.7671
6.441e+09  -0.04746  -0.8914  -0.001771  0.02775  -0.003268  0.05314  -0.5036  -0.7158
6.442e+09  -0.3894  -0.7729  0.002005  -0.008351  -0.01754  0.004471  -0.6549  -0.4432
6.444e+09  -0.665  -0.6218  -0.04902  -0.03082  -0.002661  0.02257  -0.8215  -0.2541
6.445e+09  -0.7753  -0.3444  0.005032  0.04638  -0.006915  -0.007717  -0.8686  0.1078
6.446e+09  -0.918  -0.05147  0.03205  0.04206  0.04935  -0.002619  -0.7584  0.3259
6.448e+09  -0.8298  0.2113  0.03432  0.07636  -0.04266  0.004761  -0.6357  0.5915
6.449e+09  -0.7226  0.472  -0.01064  0.06006  -0.0003896  -0.02811  -0.3346  0.7366
6.45e+09  -0.4917  0.7292  0.01858  -0.01797  0.03895  -0.024  -0.104  0.8195
6.451e+09  -0.2166  0.8399  -0.05542  -0.04391  -0.01656  0.04342  0.2095  0.783
6.452e+09  0.05246  0.8607  -0.05148  -0.02589  -0.04874  0.02013  0.4703  0.702
6.454e+09  0.4091  0.828  -0.004461  0.02778  0.005355  -0.01287  0.6767  0.4594
6.455e+09  0.6824  0.6313  0.03559  0.005682  0.04931  0.03573  0.7551  0.2365
6.456e+09  0.8281  0.3541  -0.03679  0.01979  -0.01821  0.04098  0.818  -0.06744
6.458e+09  0.8616  -0.00668  -0.009217  -0.005762  -0.01774  -0.02918  0.805  -0.3685
6.459e+09  0.8773  -0.262  0.02869  0.03094  -0.02309  0.00836  0.6102  -0.5552
6.46e+09  0.7176  -0.6118  -0.03892  -0.005505  0.01839  0.005764  0.3352  -0.7444
6.461e+09  0.493  -0.7478  0.02302  -0.03446  0.007377  -0.01221  0.03188  -0.8287
6.462e+09  0.1751  -0.9189  -0.01201  0.01394  -0.0524  -0.009278  -0.1993  -0.7345
6.464e+09  -0.08595  -0.9093  -0.02701  -0.0007307  0.01885  0.0007835  -0.4494  -0.6738
6.465e+09  -0.4253  -0.782  -0.01257  -0.02826  -0.007315  -0.0146  -0.6925  -0.4673
6.466e+09  -0.659  -0.5798  -0.02042  0.0294  -0.02002  0.05633  -0.7904  -0.2355
6.468e+09  -0.8703  -0.3729  0.01446  -0.0329  0.07215  -0.02789  -0.8166  0.06296
6.469e+09  -0.9121  -0.01026  0.007256  0.03786  -0.03229  0.01056  -0.7283  0.3144
6.47e+09  -0.8999  0.2933  -0.02567  0.003438  0.03024  0.03363  -0.5471  0.5388
6.471e+09  -0.671  0.5415  -0.03071  -0.01939  0.02454  -0.03156  -0.3565  0.7408
6.472e+09  -0.499  0.7924  -0.03921  -0.0269  -0.02685  -0.03123  -0.06824  0.7976
6.474e+09  -0.2044  0.8565  0.002864  -0.04514  0.004218  -0.02482  0.1817  0.7842
6.475e+09  0.108  0.9071  -0.02317  -0.005093  -0.01332  0.0128  0.4621  0.6632
6.476e+09  0.4608  0.8173  0.01907  0.01596  0.02007  0.03888  0.6847  0.4213
6.478e+09  0.6886  0.5902  0.01076  0.03138  0.05098  0.02542  0.6908  0.187
6.479e+09  0.84  0.3496  0.02344  0.01044  0.04671  0.03065  0.7833  -0.0992
6.48e+09  0.918  0.03634  0.003892  0.01536  0.001403  0.01961  0.7343  -0.3463
6.481e+09  0.9027  -0.2581  0.0005935  0.009772  -0.01684  -0.01564  0.5156  -0.5499
6.482e+09  0.7533  -0.5801  -0.006352  0.00238  -0.01589  -0.03833  0.3291  -0.6995
6.484e+09  0.5085  -0.7656  -0.01419  0.00141  0.03179  -0.006869  0.03967  -0.7801
6.485e+09  0.1657  -0.8938  0.006858  -0.01046  0.05818  -0.01587  -0.22  -0.7691
6.486e+09  -0.1745  -0.9103  0.03234  0.04352  -0.01402  0.01484  -0.4572  -0.63
6.488e+09  -0.4912  -0.8083  -0.01581  0.05966  0.04664  -0.0256  -0.6535  -0.4164
6.489e+09  -0.6804  -0.5731  0.02851  0.02244  0.000784  -0.01652  -0.7386  -0.2016
6.49e+09  -0.8964  -0.2953  -0.005888  -0.004944  -0.007397  -0.01979  -0.8135  0.08302
6.491e+09  -0.925  -0.02686  0.01492  -0.004765  0.03078  -0.02507  -0.6962  0.3615
6.492e+09  -0.8633  0.3176  -0.0199  0.03028  0.0007498  0.04622  -0.538  0.5727
6.494e+09  -0.6877  0.5729  0.02549  -0.01604  0.0102  -0.01624  -0.2862  0.676
6.495e+09  -0.4185  0.8098  -0.02214  -0.01197  -0.02483  -0.006186  -0.01958  0.7861
6.496e+09  -0.1614  0.8865  0.00296  -0.02654  0.02762  0.008037  0.2238  0.7448
6.498e+09  0.1719  0.8811  -0.009685  0.0007823  0.04504  -0.01327  0.4836  0.6401
6.499e+09  0.4978  0.7898  0.03298  -0.005874  -0.03235  0.07086  0.6635  0.3779
6.5e+09  0.7581  0.6336  0.05659  0.02035  -0.02275  -0.05455  0.7608  0.16
6.501e+09  0.8659  0.2988  0.01046  0.02448  0.04719  -0.02954  0.7361  -0.08465
6.502e+09  0.9964  -0.06814  -0.04502  0.0005582  0.03743  0.05193  0.6838  -0.3323
6.504e+09  0.8605  -0.3571  -0.004429  0.008638  0.02955  0.04487  0.4748  -0.5447
6.505e+09  0.6732  -0.6836  -0.004237  0.0104  0.02137  -0.004865  0.254  -0.739
6.506e+09  0.4088  -0.8672  -0.003771  0.001823  -0.003953  -0.05045  -0.01044  -0.7602
6.508e+09  0.1221  -0.929  0.002691  0.006486  0.01011  0.00525  -0.2574  -0.7333
6.509e+09  -0.1981  -0.9292  0.02517  -0.004148  -0.01956  -0.02874  -0.4719  -0.5932
6.51e+09  -0.438  -0.761  0.02702  -0.003804  -0.07235  0.05252  -0.6816  -0.3768
6.511e+09  -0.8039  -0.5776  -0.04301  0.006851  0.0791  -0.01288  -0.7565  -0.1317
6.512e+09  -0.8742  -0.2419  0.00951  0.02828  -0.02469  -0.0226  -0.7064  0.1079
6.514e+09  -0.9612  0.03272  0.01143  0.00809  -0.03362  0.00435  -0.6097  0.3796
6.515e+09  -0.8691  0.3946  -0.007729  -0.009084  -0.02476  -0.00976  -0.5073  0.568
6.516e+09  -0.7058  0.6704  0.02501  -0.005749  -0.00109  0.02465  -0.2294  0.6903
6.518e+09  -0.438  0.8717  -0.001017  -0.002195  0.003115  -0.0636  0.02931  0.7051
6.519e+09  -0.06619  0.9635  0.01265  -0.002767  0.0235  0.02194  0.2562  0.6679
6.52e+09  0.2036  0.9288  0.037  -0.01482  0.01548  0.03088  0.4785  0.5582
6.521e+09  0.6021  0.8368  -0.01366  -0.02317  -0.01056  -0.0107  0.6457  0.3122
6.522e+09  0.766  0.5516  -0.02333  0.00453  -0.008016  -0.05164  0.7339  0.08889
6.524e+09  0.9759  0.243  -0.006462  0.0211  -0.04708  0.001915  0.7256  -0.1607
6.525e+09  0.9245  -0.1271  0.008286  -0.005445  -0.003381  -0.03409  0.6235  -0.3988
6.526e+09  0.8937  -0.4419  -0.01715  0.005461  0.03788  0.008756  0.3979  -0.5759
6.528e+09  0.6508  -0.7001  0.02165  -0.01807  -0.004322  0.01583  0.1824  -0.6814
6.529e+09  0.3955  -0.9196  0.001786  -0.007287  -0.02143  -0.02567  -0.0543  -0.7224
6.53e+09  -0.002036  -0.9891  -0.01078  0.05545  0.0166  -0.01315  -0.3  -0.6478
6.531e+09  -0.3601  -0.9422  0.02109  0.01754  0.02071  0.02279  -0.4775  -0.4711
6.532e+09  -0.6506  -0.7114  -0.02379  0.00537  -0.03082  -0.01924  -0.5711  -0.2472
6.534e+09  -0.8463  -0.4881  -0.004632  -0.01228  0.03724  0.005982  -0.6642  -0.0633
6.535e+09  -0.9451  -0.1957  -0.01279  -0.009523  0.007908  -0.02365  -0.6102  0.1588
6.536e+09  -0.9768  0.1707  -0.02939  -0.01361  0.02025  -0.0382  -0.6186  0.3312
6.538e+09  -0.8751  0.5069  0.01149  0.007401  -0.02165  0.03256  -0.4507  0.4879
6.539e+09  -0.6262  0.7629  -0.000709  -0.01702  0.04161  0.0257  -0.269  0.6155
6.54e+09  -0.2749  0.9808  0.05251  -0.02459  -0.007994  -0.01799  -0.06226  0.6879
6.541e+09  0.06519  0.9882  0.008545  -0.007228  -0.00319  0.01899  0.1724  0.6704
6.542e+09  0.4018  0.8775  0.001475  0.04124  0.0106  0.003928  0.3999  0.5643
6.544e+09  0.6107  0.7337  0.02269  0.0142  -0.02911  0.08064  0.6104  0.3905
6.545e+09  0.8655  0.4027  -0.02826  0.003902  -0.02033  0.0008975  0.6661  0.1598
6.546e+09  0.9405  0.09184  -0.0167  0.01953  -0.008958  0.03501  0.7349  -0.04842
6.548e+09  0.923  -0.2173  -0.03351  -0.01946  0.02205  -0.0233  0.6304  -0.3391
6.549e+09  0.8077  -0.5367  0.005343  -0.0002489  0.02585  0.02884  0.503  -0.5399
6.55e+09  0.577  -0.8269  -0.02905  -0.02042  0.01677  0.01252  0.3099  -0.6486
