# Hz S RI R 50
6.25e+09  -0.7329  0.3887  -0.0306  0.03445  0.01072  -0.01382  0.1744  0.443
6.251e+09  -0.4894  0.6098  0.01931  -0.002358  -0.04167  -0.02689  0.3951  0.4068
6.252e+09  -0.2299  0.8092  -0.0309  0.03201  0.01352  0.007089  0.536  0.2319
6.254e+09  0.1032  0.8658  0.004125  0.01781  -0.04598  -0.02538  0.6178  -0.03555
6.255e+09  0.3291  0.7742  0.01145  -0.02725  -0.01443  0.06689  0.5912  -0.2226
6.256e+09  0.5605  0.6162  -0.007002  0.01518  0.0166  -0.01353  0.4799  -0.4324
6.258e+09  0.7203  0.3826  -8.468e-05  -0.03138  -0.05061  0.0315  0.2874  -0.5912
6.259e+09  0.8257  0.1176  -0.02039  0.004647  0.01189  0.0005013  0.04634  -0.6853
6.26e+09  0.8253  -0.2041  -0.007504  0.02958  -0.03931  -0.01837  -0.1747  -0.6535
6.261e+09  0.7522  -0.4952  -0.01109  -0.003446  0.01362  0.03962  -0.4575  -0.5594
6.262e+09  0.5111  -0.6515  -0.007748  0.005769  0.007911  0.01918  -0.6017  -0.3739
6.264e+09  0.2272  -0.7624  0.03123  -0.03445  0.05243  0.008842  -0.7076  -0.09361
6.265e+09  -0.07332  -0.8827  -0.0001702  0.0003501  0.01257  0.01136  -0.7023  0.1359
6.266e+09  -0.3187  -0.8017  -0.01712  -0.01268  0.01442  0.02866  -0.6116  0.3822
6.268e+09  -0.5944  -0.5655  0.007451  0.04407  0.05148  0.01011  -0.447  0.5921
6.269e+09  -0.8013  -0.3222  -0.008472  0.005046  -0.05267  -0.00829  -0.1563  0.6999
6.27e+09  -0.8215  -0.08419  -0.01609  0.01092  0.04138  0.0005158  0.0812  0.7181
6.271e+09  -0.8473  0.1908  0.02005  -0.02979  0.04437  -0.02586  0.3204  0.688
6.272e+09  -0.7061  0.4328  0.01045  -0.02249  0.004969  0.0384  0.5551  0.5202
6.274e+09  -0.5106  0.6522  0.02464  0.006137  -0.02486  0.01642  0.6798  0.3206
6.275e+09  -0.2518  0.7858  0.01598  -0.004048  -0.06758  0.002715  0.7623  0.01576
6.276e+09  0.0311  0.7963  0.007224  0.01561  0.02142  0.03651  0.7248  -0.2034
6.278e+09  0.2889  0.771  -0.01982  -0.004081  0.05021  0.0231  0.6039  -0.4642
6.279e+09  0.6276  0.5799  0.02055  0.00429  -0.05242  0.01762  0.407  -0.6654
6.28e+09  0.7813  0.3734  -0.001876  -0.00477  0.04748  0.02059  0.1531  -0.7635
6.281e+09  0.8174  0.022  0.008559  0.002511  0.02473  0.01575  -0.1226  -0.7929
6.282e+09  0.8445  -0.1819  -0.007734  -0.01327  0.002079  0.009652  -0.3615  -0.7187
6.284e+09  0.718  -0.4534  0.001951  -0.00662  0.01864  0.03185  -0.5803  -0.4952
6.285e+09  0.4748  -0.6503  -0.01553  -0.01507  -0.01995  -0.002391  -0.7131  -0.2842
6.286e+09  0.1909  -0.7964  -0.0222  0.002939  0.03184  -0.01602  -0.7983  -0.04604
6.288e+09  -0.09508  -0.8265  0.03773  0.01483  -0.006892  0.04051  -0.7793  0.2944
6.289e+09  -0.2983  -0.7633  0.003684  -0.01762  -0.01462  0.04705  -0.6115  0.5035
6.29e+09  -0.6037  -0.6075  -0.01203  -0.004618  -0.001575  -0.003508  -0.4153  0.6969
6.291e+09  -0.8123  -0.3464  -0.00385  -0.007323  0.002827  0.05713  -0.1509  0.7747
6.292e+09  -0.8414  -0.1031  -0.003786  0.03065  0.01142  0.003235  0.1801  0.8134
6.294e+09  -0.8143  0.2214  -0.01568  -0.03259  -0.02022  0.0419  0.4005  0.7309
6.295e+09  -0.6199  0.4663  0.04921  -0.00557  0.01985  0.008081  0.6024  0.5524
6.296e+09  -0.4145  0.6575  -0.01948  0.009136  -0.04754  -0.04518  0.746  0.3135
6.298e+09  -0.1175  0.7765  -0.007813  0.01317  0.01614  -0.01154  0.8482  -0.03245
6.299e+09  0.06408  0.8661  0.008066  -0.006788  -0.01646  9.656e-05  0.767  -0.2787
6.3e+09  0.3142  0.7214  0.006197  -0.0086  -0.007247  0.02013  0.6372  -0.5288
6.301e+09  0.615  0.5339  -0.0005966  0.02504  -0.008931  0.01752  0.4328  -0.7297
6.302e+09  0.7812  0.3058  -0.0005264  -0.0007229  0.001099  -0.01664  0.1433  -0.8301
6.304e+09  0.8273  0.06191  0.01906  0.008506  0.0353  0.03328  -0.1491  -0.8506
6.305e+09  0.7942  -0.2197  -0.01631  0.01032  0.04665  0.01352  -0.4026  -0.7481
6.306e+09  0.6936  -0.5233  0.002622  0.006646  0.00347  0.03147  -0.6791  -0.5751
6.308e+09  0.4094  -0.6416  0.02101  -0.005684  0.05158  -0.05011  -0.8213  -0.2684
6.309e+09  0.133  -0.8102  -0.02732  0.002843  -0.09262  0.03297  -0.868  0.01041
6.31e+09  -0.1073  -0.8257  -0.05305  0.01451  0.02399  -0.02939  -0.8149  0.3028
6.311e+09  -0.4689  -0.7824  0.01108  -0.01334  -0.00424  0.005432  -0.6583  0.5604
6.312e+09  -0.5995  -0.5456  0.01061  -0.003302  -0.04721  0.01661  -0.4838  0.7647
6.314e+09  -0.834  -0.3218  0.01209  -0.01372  0.02834  -0.02542  -0.1673  0.8776
6.315e+09  -0.878  0.009601  -0.03533  0.003673  -0.0311  0.00269  0.1533  0.8471
6.316e+09  -0.8187  0.2927  -0.004419  -0.02598  0.01613  0.05694  0.4388  0.7625
6.318e+09  -0.643  0.5534  0.006502  0.01116  -0.02059  -0.03338  0.6463  0.5637
6.319e+09  -0.3938  0.7403  0.002875  0.01084  0.000467  -0.007886  0.8148  0.3034
6.32e+09  -0.1321  0.8263  -0.01372  0.0002567  0.01656  -0.001919  0.8924  0.0127
6.321e+09  0.1905  0.8142  -0.009445  -0.005236  0.006577  0.02922  0.8781  -0.3015
6.322e+09  0.4303  0.7296  -0.008449  -0.01989  -0.01515  0.01839  0.7066  -0.5764
6.324e+09  0.6827  0.536  -0.0004393  0.007027  -0.006564  -0.01922  0.4559  -0.7888
6.325e+09  0.8187  0.2847  -0.002662  -0.006296  0.03363  -0.001393  0.1657  -0.9055
6.326e+09  0.8858  -0.1022  0.02568  -0.02261  0.005172  0.01863  -0.09401  -0.8781
6.328e+09  0.7251  -0.3487  0.01693  -0.01102  0.03467  0.03067  -0.4357  -0.768
6.329e+09  0.6447  -0.592  0.0303  0.006683  0.02001  0.04016  -0.6588  -0.5833
6.33e+09  0.3629  -0.8147  -0.02159  -0.007315  0.01364  -0.02926  -0.8692  -0.3156
6.331e+09  0.06799  -0.8189  0.007326  -0.004916  -0.01143  0.02033  -0.9006  0.005295
6.332e+09  -0.1894  -0.8176  0.001474  -0.008008  0.01426  0.01251  -0.8998  0.2899
6.334e+09  -0.5339  -0.6997  0.01529  0.01727  -0.02569  -0.006589  -0.7359  0.5724
6.335e+09  -0.6811  -0.4533  0.008876  0.02176  -0.003195  0.03077  -0.4907  0.8233
6.336e+09  -0.8671  -0.2054  0.004779  -0.0007298  0.01843  -0.007167  -0.2193  0.8917
6.338e+09  -0.8462  0.1107  0.002479  -0.002292  -0.01726  0.008135  0.09185  0.9107
6.339e+09  -0.7449  0.4302  -0.009047  0.02367  0.02218  0.0008254  0.4242  0.8335
6.34e+09  -0.5826  0.6222  -0.001617  -0.01434  -0.001471  -0.006182  0.6836  0.6629
6.341e+09  -0.3064  0.8262  0.05259  0.005962  0.02158  0.01007  0.8526  0.3461
6.342e+09  -0.06795  0.8188  -0.008016  -0.03055  0.042  -0.03335  0.9546  0.02144
6.344e+09  0.2671  0.804  0.002444  0.02613  -0.02108  -0.02543  0.8677  -0.2858
6.345e+09  0.57  0.6524  0.01507  0.03475  -0.02213  0.005432  0.7315  -0.5327
6.346e+09  0.7299  0.3934  -0.003536  -0.01162  -0.02441  -0.009437  0.4981  -0.7635
6.348e+09  0.8422  0.1342  0.009355  0.01144  -0.0156  0.01804  0.2179  -0.8732
6.349e+09  0.8155  -0.1347  0.02504  -0.01358  -0.01576  0.002685  -0.07566  -0.9239
6.35e+09  0.7599  -0.473  -0.02188  0.007177  0.01519  0.005385  -0.3989  -0.8364
6.351e+09  0.5523  -0.6719  0.009771  0.01699  -0.02939  -0.02387  -0.675  -0.651
6.352e+09  0.2491  -0.8344  0.01336  0.03357  -0.01101  0.001775  -0.8549  -0.3834
6.354e+09  -0.0207  -0.886  0.01212  0.02205  -0.01721  0.062  -0.9575  -0.08307
6.355e+09  -0.3491  -0.8157  0.01242  -0.003765  -0.03997  0.02248  -0.8852  0.2128
6.356e+09  -0.6169  -0.6058  0.01516  0.02653  0.03161  0.02331  -0.7629  0.5529
6.358e+09  -0.7724  -0.3627  -0.01248  0.06265  0.0008539  -0.01851  -0.5259  0.7969
6.359e+09  -0.9055  -0.09875  -0.01382  -0.009326  -0.01928  0.009636  -0.2252  0.904
6.36e+09  -0.861  0.2251  -0.02176  -0.005851  0.01669  -0.01664  0.09449  0.9279
6.361e+09  -0.7348  0.5061  0.007128  -0.006165  -0.01368  -0.04005  0.3947  0.8182
6.362e+09  -0.5228  0.7468  -0.03208  0.03605  -0.04487  -0.01959  0.685  0.6838
6.364e+09  -0.1812  0.8259  0.02882  -0.007639  -0.04119  -0.00882  0.8513  0.3622
6.365e+09  0.1254  0.8767  0.01738  -0.01795  0.02274  -0.01643  0.9582  0.0518
6.366e+09  0.389  0.7459  -0.005597  -0.02408  0.004536  0.02191  0.9199  -0.2712
6.368e+09  0.6097  0.5945  0.01574  0.0371  0.01366  -0.01193  0.76  -0.5207
6.369e+09  0.84  0.2976  0.007487  -0.02826  -0.004974  -0.06441  0.52  -0.7389
6.37e+09  0.8675  0.058  0.05036  -0.01308  0.03005  0.04823  0.247  -0.893
6.371e+09  0.8425  -0.3435  0.03544  0.03273  -0.006272  0.01525  -0.1115  -0.9455
6.372e+09  0.7039  -0.5471  0.01417  0.004273  0.02821  -0.01904  -0.3512  -0.8612
6.374e+09  0.4613  -0.7706  0.01485  -0.001559  0.02992  -0.02685  -0.6502  -0.71
6.375e+09  0.1638  -0.8687  -0.000294  -0.004825  0.05099  -0.02287  -0.8796  -0.4247
6.376e+09  -0.1642  -0.8684  -0.004064  -0.03771  0.02713  -0.005309  -0.8962  -0.08606
6.378e+09  -0.48  -0.7712  -0.001454  0.005273  0.001358  -0.05416  -0.911  0.2646
6.379e+09  -0.684  -0.5294  0.03636  0.02213  -0.00622  -0.02879  -0.7986  0.5084
6.38e+09  -0.8136  -0.239  -0.01692  -0.01905  -0.005215  -0.02568  -0.5214  0.7696
6.381e+09  -0.8895  0.03722  0.0007396  0.01997  0.04785  0.004259  -0.2301  0.8883
6.382e+09  -0.8045  0.3421  0.0003646  0.002832  -0.05678  -0.006461  0.05184  1
6.384e+09  -0.6622  0.5898  -0.05474  -0.04624  0.02666  -0.03453  0.3822  0.9027
6.385e+09  -0.3723  0.8058  0.02779  -0.005189  0.0266  -0.0003685  0.645  0.6945
6.386e+09  -0.07435  0.8615  0.02438  -0.02868  0.05329  -0.02005  0.7813  0.3816
6.388e+09  0.194  0.8303  -0.003881  0.00677  0.05823  0.001888  0.903  0.13
6.389e+09  0.5289  0.7041  -0.02768  0.007278  -0.03641  -0.0238  0.9214  -0.2072
6.39e+09  0.6878  0.4738  -0.02526  0.00676  0.02603  -0.0429  0.8024  -0.5221
6.391e+09  0.8723  0.2556  0.003936  0.03635  0.03981  -0.04768  0.5719  -0.7285
6.392e+09  0.8682  -0.08165  -0.0217  -0.03029  0.009123  0.03859  0.2929  -0.8848
6.394e+09  0.7835  -0.411  -0.006917  0.0005679  -0.01408  -0.01529  -0.009956  -0.8998
6.395e+09  0.6067  -0.6371  0.004328  0.01048  0.02355  -0.06384  -0.3869  -0.8402
6.396e+09  0.4163  -0.8203  -0.03283  -0.004905  -0.02174  -0.01729  -0.6107  -0.6678
6.398e+09  0.04587  -0.8499  0.0007105  0.02559  -0.005061  0.008603  -0.8237  -0.3808
6.399e+09  -0.2308  -0.8592  0.004075  0.03351  0.03696  -0.00213  -0.9056  -0.1415
6.4e+09  -0.5178  -0.7299  -0.0341  -0.01611  -0.03116  0.005823  -0.8885  0.1765
6.401e+09  -0.7664  -0.5021  -0.004491  -0.01746  -0.03594  0.01307  -0.7638  0.4307
6.402e+09  -0.8456  -0.1567  0.03907  -0.0185  0.01093  0.01496  -0.5632  0.6821
6.404e+09  -0.8971  0.1148  -0.03209  -0.001163  0.02614  0.007859  -0.2721  0.816
6.405e+09  -0.743  0.4422  -0.03268  0.004965  0.01986  0.005725  0.02197  0.9385
6.406e+09  -0.5906  0.6228  0.007368  -0.006267  0.004224  -0.01154  0.3457  0.8404
6.408e+09  -0.3749  0.7873  -0.04101  0.01582  -0.000984  -0.0612  0.5833  0.7168
6.409e+09  -0.02249  0.884  -0.01063  0.001046  0.0019  0.0231  0.7838  0.477
6.41e+09  0.295  0.8388  2.605e-05  -0.01512  0.01099  -0.004194  0.8285  0.1728
6.411e+09  0.5688  0.6501  0.01821  -0.007169  0.003024  -0.05047  0.9151  -0.1301
6.412e+09  0.7212  0.4483  -0.01699  0.01744  -0.001872  0.001867  0.7391  -0.4387
6.414e+09  0.8221  0.1618  -0.002606  -0.02391  -0.005649  -0.0188  0.5679  -0.6481
6.415e+09  0.8525  -0.1733  -0.009346  0.01308  -0.03095  0.01228  0.3553  -0.8442
6.416e+09  0.764  -0.4417  0.004283  0.01156  -0.003016  0.01963  0.02243  -0.89
6.418e+09  0.5691  -0.6763  0.01025  -0.04407  -0.02392  -0.01126  -0.2637  -0.8395
6.419e+09  0.2453  -0.8291  0.02355  -0.004386  0.03282  0.01771  -0.5556  -0.7053
6.42e+09  -0.02396  -0.8792  0.002471  0.0436  -0.003897  0.01941  -0.7369  -0.4899
6.421e+09  -0.2988  -0.8109  -0.004937  -0.003634  0.009265  -0.02399  -0.8712  -0.1724
6.422e+09  -0.5807  -0.6079  0.01648  0.07249  0.04039  0.02144  -0.8493  0.0778
6.424e+09  -0.7585  -0.3827  -0.03098  0.01571  0.01202  0.01391  -0.7573  0.4067
6.425e+09  -0.896  -0.08523  -0.009247  0.03567  -0.00401  0.02576  -0.6125  0.6688
6.426e+09  -0.847  0.2074  0.006915  0.009419  -0.05119  -0.01413  -0.3868  0.8237
6.428e+09  -0.7595  0.4349  0.01404  -0.01533  0.003872  0.02093  0.002668  0.8469
6.429e+09  -0.5382  0.6861  0.01303  -0.01576  0.01864  0.003753  0.2955  0.8653
6.43e+09  -0.1924  0.8261  0.009787  0.02504  0.01122  0.01951  0.5144  0.7135
6.431e+09  0.03926  0.8959  -0.004891  -0.01739  0.04626  -0.003986  0.7086  0.486
6.432e+09  0.3822  0.8138  -0.02791  -0.01594  0.01043  0.02804  0.8705  0.2299
6.434e+09  0.5867  0.6696  -0.008523  0.002994  0.04421  0.003744  0.8718  -0.08184
6.435e+09  0.7328  0.3931  -0.02065  -0.03836  -0.0155  -0.005986  0.8032  -0.3674
6.436e+09  0.8655  0.09513  0.03777  0.01967  0.003502  0.02455  0.579  -0.5849
6.438e+09  0.8413  -0.2  -0.01846  0.0106  -0.05686  -0.01129  0.3696  -0.8279
6.439e+09  0.7123  -0.4683  0.01688  -0.00119  -0.01637  0.03633  0.09353  -0.8651
6.44e+09  0.4654  -0.6754  -0.0524  -0.005184  0.007001  0.02651  -0.2414  -0.8079
6.441e+09  0.2252  -0.792  -0.02083  -0.004567  -0.02008  -0.02161  -0.5169  -0.7173
6.442e+09  -0.0621  -0.9188  -0.02899  0.05305  0.02258  0.0676  -0.7258  -0.5125
6.444e+09  -0.3427  -0.7797  0.004176  -0.03705  0.04214  0.02994  -0.8395  -0.2154
6.445e+09  -0.5118  -0.5818  -0.001675  0.04101  0.02437  -0.004565  -0.8826  0.09797
6.446e+09  -0.7592  -0.3217  0.005171  -0.009364  -0.006041  -0.006984  -0.7725  0.363
6.448e+09  -0.8519  -0.07067  0.007922  0.02801  0.01755  0.01574  -0.5856  0.5675
6.449e+09  -0.8497  0.2211  0.01759  -0.04108  0.05618  -0.02166  -0.4019  0.783
6.45e+09  -0.7023  0.5285  0.02485  -0.01663  0.006985  0.03029  -0.05547  0.8339
6.451e+09  -0.4531  0.7041  0.04587  0.02165  0.04044  0.06393  0.2386  0.8477
6.452e+09  -0.2269  0.8455  0.03667  -0.014  0.04202  0.03382  0.4409  0.637
6.454e+09  0.09488  0.8237  0.01203  -0.0417  0.01613  -0.01879  0.7017  0.4492
6.455e+09  0.3416  0.7413  0.00429  -0.01202  -0.0338  -0.01774  0.8299  0.2121
6.456e+09  0.5928  0.5589  0.02481  0.02963  -0.01102  -0.04358  0.8475  -0.0812
6.458e+09  0.777  0.4005  -0.002998  -0.04511  -0.009751  0.01214  0.7322  -0.3554
6.459e+09  0.8762  0.05443  -0.01433  -0.02039  -0.02795  -0.02726  0.5762  -0.5593
6.46e+09  0.8062  -0.2186  -0.0425  0.01358  -0.0286  -0.004995  0.3318  -0.7247
6.461e+09  0.6946  -0.5387  -0.008522  -0.02683  0.01319  0.05281  0.05913  -0.8071
6.462e+09  0.4961  -0.7238  0.001092  0.01434  0.0003501  -0.006463  -0.1981  -0.7961
6.464e+09  0.1908  -0.8209  0.02122  0.01341  -0.04835  -0.03756  -0.48  -0.6489
6.465e+09  -0.06025  -0.8206  -0.04764  -0.00999  0.02075  -0.06997  -0.6882  -0.4754
6.466e+09  -0.3711  -0.7246  0.01083  -0.04766  -0.01739  -0.01101  -0.7421  -0.2152
6.468e+09  -0.6251  -0.6096  0.002749  0.05933  0.04343  0.002064  -0.834  0.09334
6.469e+09  -0.7612  -0.3857  0.0007403  0.0161  0.0002449  -0.02233  -0.735  0.3309
6.47e+09  -0.8983  -0.001558  0.01423  0.03007  0.004324  0.006038  -0.5809  0.5551
6.471e+09  -0.812  0.2556  0.03799  0.02773  0.00963  0.002149  -0.3461  0.7048
6.472e+09  -0.7006  0.5271  0.02778  0.02582  0.03083  0.03021  -0.04402  0.7777
6.474e+09  -0.4844  0.729  -0.01524  0.001645  0.005645  0.01018  0.2144  0.8033
6.475e+09  -0.246  0.8997  -0.04449  -0.004818  0.02282  -0.02257  0.4741  0.6138
6.476e+09  0.07144  0.8664  -0.01317  -0.02852  -0.01634  0.0006876  0.6748  0.4602
6.478e+09  0.3826  0.7904  -0.01523  -0.01883  -0.01289  -0.0572  0.7487  0.161
6.479e+09  0.6709  0.6064  -0.003101  0.02455  -0.04155  0.005114  0.768  -0.07842
6.48e+09  0.8021  0.3513  -0.005026  -0.01587  -0.04352  -0.0211  0.7228  -0.3461
6.481e+09  0.8488  0.02523  0.002819  0.008697  0.004547  0.04342  0.5264  -0.546
6.482e+09  0.8728  -0.3039  -0.01782  0.009581  -0.03838  0.03028  0.3414  -0.7267
6.484e+09  0.7443  -0.52  0.04983  0.01312  -0.002338  -0.02993  0.05971  -0.8098
6.485e+09  0.4384  -0.7385  0.005279  -0.01932  -0.01896  0.05555  -0.1967  -0.7025
6.486e+09  0.2042  -0.8711  0.035  0.01664  -0.006275  0.001261  -0.4687  -0.6205
6.488e+09  -0.07423  -0.8565  -0.01138  0.008291  -0.04972  0.02297  -0.6526  -0.3932
6.489e+09  -0.4286  -0.7685  -0.03841  -0.02213  -0.01802  0.007947  -0.7139  -0.1643
6.49e+09  -0.6386  -0.6492  0.0171  -0.001144  0.03272  -0.003303  -0.7359  0.0543
6.491e+09  -0.8523  -0.32  -0.02488  -0.006775  -0.01574  0.02536  -0.7034  0.3199
6.492e+09  -0.8682  -0.07041  0.006242  0.01788  -0.04454  0.008611  -0.5226  0.5753
6.494e+09  -0.8211  0.3136  -0.01407  -0.01691  -0.01851  -0.02717  -0.3094  0.6812
6.495e+09  -0.753  0.5746  -0.01394  -0.02546  0.03414  0.007544  -0.04763  0.7883
6.496e+09  -0.5144  0.7444  0.001439  -0.02155  -0.02536  -0.03295  0.2366  0.7197
6.498e+09  -0.14  0.8779  0.0003866  -0.00868  0.02433  -0.01831  0.4575  0.6142
6.499e+09  0.143  0.9077  -0.002109  -0.005687  -0.08256  0.006244  0.6395  0.427
6.5e+09  0.4594  0.8553  -0.01419  0.01748  -0.01542  -0.002809  0.7563  0.1557
6.501e+09  0.6862  0.5616  -0.01343  -0.01485  -0.03812  -0.0311  0.7564  -0.1144
6.502e+09  0.7966  0.3015  -0.02986  0.03201  0.001297  0.0207  0.6471  -0.3759
6.504e+09  0.9098  0.02747  -0.05376  -0.04949  -0.05742  -0.006633  0.4998  -0.5854
6.505e+09  0.7914  -0.2692  0.02652  0.005707  0.007799  0.008277  0.2849  -0.7123
6.506e+09  0.7118  -0.567  -0.001728  0.001738  0.01198  -0.01022  0.01425  -0.7688
6.508e+09  0.4506  -0.746  -0.03815  -0.00819  -0.0001149  0.02515  -0.2453  -0.7191
6.509e+09  0.2171  -0.8712  -0.00753  -0.004102  0.009182  0.001689  -0.4805  -0.6015
6.51e+09  -0.1507  -0.883  -0.02078  -0.009212  -0.01869  -0.01579  -0.6786  -0.3767
6.511e+09  -0.4935  -0.796  0.02177  -0.0005549  -0.03946  0.004677  -0.7309  -0.106
6.512e+09  -0.7156  -0.5772  -0.0001103  -0.01795  0.04677  0.02123  -0.7664  0.1353
6.514e+09  -0.8636  -0.3283  0.004777  -0.01336  -0.02835  -0.01734  -0.6684  0.3868
6.515e+09  -0.9029  -0.0221  0.02755  0.007734  -0.002736  0.02576  -0.4561  0.5624
6.516e+09  -0.8189  0.3147  -0.007946  0.04899  0.006371  0.0196  -0.251  0.7118
6.518e+09  -0.7204  0.5711  0.0008828  0.008066  0.01794  -0.0668  0.01543  0.7757
6.519e+09  -0.4205  0.793  0.01498  -0.008215  -0.02138  0.004317  0.2822  0.703
6.52e+09  -0.18  0.9092  -0.04101  -0.01425  -0.009201  0.03212  0.5203  0.5233
6.521e+09  0.1719  0.9196  0.002467  -0.04048  -0.03055  -0.008013  0.6292  0.3457
6.522e+09  0.5018  0.8451  -0.02633  0.005579  -0.0006059  0.00943  0.7027  0.1016
6.524e+09  0.7206  0.5746  -0.002676  0.03314  -0.02499  -0.02421  0.7089  -0.1662
6.525e+09  0.8855  0.3337  -0.01435  0.02553  0.04012  -0.06987  0.5972  -0.3655
6.526e+09  0.9249  -0.08784  -0.02435  0.03687  0.004947  -0.01664  0.42  -0.6035
6.528e+09  0.884  -0.347  -0.005091  0.01957  0.009388  0.008778  0.2089  -0.6934
6.529e+09  0.752  -0.6833  0.0006061  -0.003568  -0.04154  -0.03959  -0.04463  -0.7115
6.53e+09  0.3843  -0.8733  -0.005587  -0.0147  0.003649  0.03786  -0.2613  -0.6253
6.531e+09  0.06556  -0.9442  0.007667  0.02193  0.03543  -0.002815  -0.4631  -0.4851
6.532e+09  -0.243  -0.8877  -0.009451  -0.01624  0.009756  0.006335  -0.597  -0.3161
6.534e+09  -0.5421  -0.776  0.01949  0.002747  0.02545  -0.08788  -0.6329  -0.08081
6.535e+09  -0.7564  -0.5806  -0.007858  0.00174  -0.01514  -0.03814  -0.5918  0.1359
6.536e+09  -0.9304  -0.2496  -0.009642  0.001749  -0.009204  -0.01262  -0.5552  0.3199
6.538e+09  -0.9841  0.1001  0.006338  -0.008078  -0.01053  0.02084  -0.436  0.484
6.539e+09  -0.8584  0.3989  -0.0227  0.01097  -0.01013  -0.01572  -0.2833  0.6099
6.54e+09  -0.6789  0.6969  -0.01066  0.03466  0.005959  -0.02691  -0.07894  0.6877
6.541e+09  -0.3623  0.9022  0.01029  0.01742  -0.006651  0.03079  0.1776  0.6467
6.542e+09  -0.03423  0.9607  -0.01478  -0.02556  0.02368  0.09992  0.4447  0.5732
6.544e+09  0.2924  0.9539  -0.02622  -0.004091  0.005409  -0.002603  0.5513  0.4223
6.545e+09  0.5832  0.7679  -0.008175  0.02461  0.01245  0.009436  0.7197  0.1581
6.546e+09  0.8269  0.5424  0.01603  -0.01358  0.001528  0.01275  0.7282  -0.06832
6.548e+09  0.9778  0.1908  -0.009462  -0.01255  0.004417  -0.02378  0.6618  -0.3284
6.549e+09  0.9912  -0.1989  0.0002958  0.01507  -0.02611  0.0004704  0.5267  -0.539
6.55e+09  0.8771  -0.4312  0.01386  -0.01282  -0.02282  0.05063  0.2802  -0.6718
