# Hz S RI R 50
6.25e+09  -0.4363  0.807  -0.00204  -0.004401  -0.01459  0.02726  0.146  0.4865
6.251e+09  -0.1935  0.8519  -0.001138  -0.001242  0.008746  0.05772  0.3276  0.3657
6.252e+09  0.2249  0.8715  -0.003987  0.02103  0.02209  -0.004385  0.5154  0.2185
6.254e+09  0.4666  0.7249  -0.02191  -0.03658  0.01476  -0.03042  0.602  0.02552
6.255e+09  0.6986  0.5135  -0.01909  0.02397  -0.01854  0.0849  0.6159  -0.2192
6.256e+09  0.7979  0.3149  0.002448  0.01471  0.00501  0.00506  0.4804  -0.4607
6.258e+09  0.7984  -0.01596  -0.000868  0.01112  -0.02882  -0.03406  0.2824  -0.6138
6.259e+09  0.7391  -0.3021  0.02546  0.01032  0.06391  0.05857  0.05566  -0.6861
6.26e+09  0.6351  -0.5375  -0.003697  -0.01516  -0.03196  0.01776  -0.2249  -0.6309
6.261e+09  0.4063  -0.7588  0.00639  0.00388  0.008665  -0.01103  -0.4667  -0.5243
6.262e+09  0.1223  -0.8474  0.01166  -0.006402  -0.0508  -0.05996  -0.6176  -0.331
6.264e+09  -0.1797  -0.8129  0.00986  -0.0156  -0.01004  -0.03385  -0.7156  -0.125
6.265e+09  -0.4067  -0.7208  -0.03086  0.00081  -0.01284  -0.01303  -0.7179  0.1555
6.266e+09  -0.633  -0.492  0.0142  -0.044  0.003269  0.00755  -0.642  0.4326
6.268e+09  -0.8396  -0.2833  0.009698  -0.01126  -0.02917  0.0001331  -0.4422  0.5779
6.269e+09  -0.8359  -0.006506  0.01073  -0.02013  0.03366  0.006488  -0.1903  0.7218
6.27e+09  -0.7528  0.3278  0.02435  0.01968  -0.02522  0.05848  0.05718  0.7391
6.271e+09  -0.6333  0.6227  -0.02598  0.01788  -0.05834  0.04019  0.325  0.6763
6.272e+09  -0.3467  0.7272  -0.0005283  -0.02429  -0.03786  -0.001494  0.5312  0.5453
6.274e+09  -0.1103  0.8596  -0.00122  -0.0005904  -0.002393  -0.03676  0.6794  0.3155
6.275e+09  0.1992  0.79  0.001047  0.02104  0.007078  0.02284  0.7469  0.06332
6.276e+09  0.4864  0.6832  0.001173  0.00153  -0.0184  -0.06001  0.7374  -0.209
6.278e+09  0.6362  0.4417  0.0166  0.006842  -0.002628  -0.04998  0.6153  -0.4738
6.279e+09  0.7762  0.2095  -0.0107  -0.03792  -0.005134  0.03413  0.4032  -0.6204
6.28e+09  0.8559  -0.02603  -0.00986  0.009157  -0.01143  -0.04097  0.1762  -0.729
6.281e+09  0.7975  -0.3361  0.02603  0.01319  -0.004511  0.001968  -0.09442  -0.7702
6.282e+09  0.6024  -0.5298  0.008603  0.04489  -0.01838  0.04953  -0.3561  -0.7063
6.284e+09  0.4006  -0.7346  -0.02948  -0.04467  0.03181  -0.02909  -0.5832  -0.4957
6.285e+09  0.1307  -0.8056  -0.02351  -0.01889  -0.03653  0.0234  -0.7711  -0.2753
6.286e+09  -0.2468  -0.8316  -0.01837  0.01351  0.01633  0.0519  -0.7699  -0.007888
6.288e+09  -0.4354  -0.6682  0.01749  -0.002005  0.02737  -0.03155  -0.7411  0.2649
6.289e+09  -0.6949  -0.4652  0.01475  0.0138  -0.01278  -0.03384  -0.5904  0.4815
6.29e+09  -0.8167  -0.2426  -0.001188  -0.009355  0.01481  -0.003741  -0.3985  0.6773
6.291e+09  -0.8429  0.09112  -0.01775  0.007169  0.0257  0.05848  -0.1308  0.8173
6.292e+09  -0.7848  0.3565  0.01595  -0.01031  0.04549  0.01378  0.157  0.8141
6.294e+09  -0.5646  0.5606  0.04188  -0.01178  0.01074  -0.04365  0.3534  0.7048
6.295e+09  -0.3306  0.7566  0.007491  -0.02174  0.003308  -0.04399  0.6493  0.567
6.296e+09  -0.06759  0.8318  0.008262  -0.005221  0.03572  0.02018  0.7525  0.2828
6.298e+09  0.2267  0.7509  -0.02825  -0.01253  -0.01526  -0.03513  0.8152  -0.007249
6.299e+09  0.4734  0.6421  -0.008904  0.01042  -0.04217  0.003124  0.7922  -0.2466
6.3e+09  0.6881  0.482  -0.01525  0.007498  0.006299  -0.001927  0.6376  -0.5151
6.301e+09  0.8012  0.1893  0.008452  -0.0289  -0.03174  -0.01779  0.4032  -0.7409
6.302e+09  0.8502  -0.1246  0.007987  0.01696  0.0006398  0.06588  0.1324  -0.838
6.304e+09  0.7192  -0.4177  -0.02346  -0.01102  -0.007573  0.03956  -0.1451  -0.8612
6.305e+09  0.5634  -0.5814  0.007674  -0.009143  -0.01686  -0.02148  -0.4359  -0.75
6.306e+09  0.3221  -0.8011  0.005694  -0.01914  -0.003331  0.01921  -0.6531  -0.5596
6.308e+09  0.02817  -0.7966  -0.0018  0.02094  -0.03753  0.00375  -0.7962  -0.3353
6.309e+09  -0.2897  -0.8662  0.01208  0.003609  -0.02624  0.01072  -0.8912  0.01509
6.31e+09  -0.5176  -0.6488  0.004597  -0.00362  -0.02351  0.005921  -0.8169  0.3022
6.311e+09  -0.7301  -0.4585  0.01439  -0.01216  0.004171  0.01673  -0.6323  0.5715
6.312e+09  -0.8074  -0.1829  0.01125  0.01431  -0.04284  0.0006256  -0.459  0.7529
6.314e+09  -0.77  0.1117  -0.01926  -0.01194  -0.008284  0.01838  -0.1739  0.8626
6.315e+09  -0.7535  0.4126  0.02762  -0.0254  -0.01685  -0.02115  0.1769  0.8697
6.316e+09  -0.5365  0.636  -0.003769  -0.01816  -0.0116  0.02464  0.4174  0.7588
6.318e+09  -0.2866  0.7697  -0.02365  -0.02411  0.04246  0.03417  0.6438  0.578
6.319e+09  0.01104  0.8545  -0.003406  0.02001  0.01656  0.04645  0.8511  0.2978
6.32e+09  0.2854  0.7688  -0.0008047  0.0364  -0.03116  0.02707  0.886  -0.0202
6.321e+09  0.5101  0.6367  0.04026  0.01059  0.01006  0.01134  0.8427  -0.2954
6.322e+09  0.7254  0.4401  -0.005891  0.02341  0.0001666  0.01892  0.7089  -0.5545
6.324e+09  0.8979  0.1168  -0.002344  -0.004865  0.03777  -0.008537  0.4726  -0.7795
6.325e+09  0.8111  -0.1681  0.01345  0.008612  0.01737  -0.01115  0.1798  -0.8958
6.326e+09  0.7405  -0.4845  -0.02918  0.01121  0.03448  -0.006516  -0.1591  -0.8983
6.328e+09  0.5028  -0.7008  -0.01896  0.0004638  -0.01037  -0.01603  -0.426  -0.7944
6.329e+09  0.2451  -0.8411  -0.03117  0.04762  0.03754  -0.03059  -0.6934  -0.5896
6.33e+09  -0.03225  -0.863  0.003042  0.02444  -0.01227  -0.01318  -0.8466  -0.3881
6.331e+09  -0.3277  -0.8209  0.007049  -0.01455  0.009414  0.02161  -0.8949  -0.03615
6.332e+09  -0.5983  -0.6151  -0.03302  0.0123  0.02699  0.04689  -0.8615  0.3286
6.334e+09  -0.7834  -0.3631  -0.02167  -0.02115  0.03058  -0.009901  -0.7192  0.5585
6.335e+09  -0.8129  -0.06697  0.03642  -0.01706  -0.03033  -0.006977  -0.5016  0.7804
6.336e+09  -0.8431  0.1452  -0.01611  0.01322  0.03504  -0.01465  -0.1719  0.8824
6.338e+09  -0.7158  0.4841  -0.007318  -0.007896  -0.01025  0.03228  0.1227  0.9287
6.339e+09  -0.4969  0.7604  0.006485  0.02439  0.003526  0.005171  0.441  0.8199
6.34e+09  -0.1912  0.8595  0.02065  0.02484  -0.02829  0.01377  0.7018  0.5983
6.341e+09  0.09072  0.875  -0.003876  -0.03659  0.01498  -0.01952  0.8454  0.3497
6.342e+09  0.4148  0.7954  0.009619  -0.02069  -0.01875  -0.02161  0.933  0.06578
6.344e+09  0.6149  0.6051  -0.00302  -0.0008746  0.007544  0.05148  0.8723  -0.2679
6.345e+09  0.813  0.3379  0.01198  0.002172  -0.04609  0.01108  0.7458  -0.5449
6.346e+09  0.8439  0.01191  -0.002446  0.04566  0.03516  -0.04493  0.538  -0.7913
6.348e+09  0.869  -0.2563  0.005752  -0.003206  -0.03891  0.005384  0.1961  -0.9125
6.349e+09  0.6879  -0.5668  -0.01032  0.02095  -0.01109  -0.01751  -0.1066  -0.9085
6.35e+09  0.4488  -0.768  -0.009723  0.01639  0.024  0.02133  -0.4  -0.8553
6.351e+09  0.1253  -0.8658  -0.03438  -0.009002  0.01213  0.04374  -0.6922  -0.5972
6.352e+09  -0.1967  -0.8312  -0.001866  -0.01724  0.0006051  -0.04748  -0.8248  -0.3764
6.354e+09  -0.4524  -0.7498  -0.002951  -0.01273  0.02964  0.02796  -0.9241  -0.07692
6.355e+09  -0.6871  -0.5376  0.004728  -0.01264  -0.001945  0.006181  -0.9073  0.2543
6.356e+09  -0.8822  -0.237  0.00343  -0.03624  0.004782  0.04794  -0.7694  0.5241
6.358e+09  -0.8626  0.07614  0.008717  0.005245  -0.01998  0.04649  -0.5394  0.8172
6.359e+09  -0.8488  0.2955  -0.000383  -0.035  -0.02553  -0.006796  -0.2341  0.9232
6.36e+09  -0.6744  0.5947  -0.01255  0.001835  0.04384  0.004429  0.09351  0.945
6.361e+09  -0.3897  0.7588  -0.002159  0.02089  0.025  0.005309  0.3904  0.8657
6.362e+09  -0.09044  0.8806  0.00586  -0.01284  -0.0144  0.01166  0.6972  0.6856
6.364e+09  0.2486  0.8499  0.01397  0.02054  0.03617  -0.004002  0.8396  0.4289
6.365e+09  0.4999  0.7542  -0.003185  -0.005016  0.01196  0.01922  0.9462  0.06779
6.366e+09  0.7314  0.5632  0.005499  -0.03061  -0.02862  0.0196  0.9064  -0.2342
6.368e+09  0.9  0.195  -0.04436  0.01727  0.02315  0.03066  0.7672  -0.5679
6.369e+09  0.9173  -0.07714  -0.0104  -0.007361  0.0313  0.01839  0.5666  -0.7782
6.37e+09  0.7788  -0.4101  -0.007141  0.07502  0.03456  -0.0285  0.2397  -0.9484
6.371e+09  0.657  -0.6484  0.0002927  0.01749  -0.0243  -0.008235  -0.09856  -0.9515
6.372e+09  0.3268  -0.8186  0.005117  -0.01431  -0.0009116  0.03105  -0.4014  -0.838
6.374e+09  0.02336  -0.8976  0.02947  -0.02326  -0.05059  0.001823  -0.6717  -0.6619
6.375e+09  -0.2497  -0.8678  -0.01013  -0.01887  0.02977  0.04057  -0.8246  -0.4233
6.376e+09  -0.5445  -0.726  0.0312  0.01732  0.03611  0.03394  -0.9062  -0.1199
6.378e+09  -0.7966  -0.4944  -0.0278  -0.004903  -0.002633  0.004447  -0.8823  0.2443
6.379e+09  -0.894  -0.1777  -0.001988  0.02911  -0.03032  -0.01826  -0.8107  0.5485
6.38e+09  -0.9444  0.1246  0.02473  -0.005858  0.00712  0.04292  -0.53  0.715
6.381e+09  -0.7871  0.4457  0.0152  -9.968e-05  0.01648  0.006303  -0.2739  0.8688
6.382e+09  -0.5539  0.6627  -0.03574  -0.007693  -0.02479  -0.05545  0.09368  0.9431
6.384e+09  -0.3167  0.7745  0.02841  0.02719  0.004846  0.008579  0.379  0.8483
6.385e+09  -0.01639  0.9038  -0.0003965  0.02163  0.02081  0.02336  0.6166  0.6949
6.386e+09  0.2629  0.8514  0.02578  0.02392  -0.02432  -0.009814  0.8118  0.4053
6.388e+09  0.5782  0.6742  0.01586  0.008463  0.0263  -0.009279  0.921  0.07249
6.389e+09  0.8287  0.4803  -0.03473  0.01839  -0.02881  -0.02259  0.8964  -0.2448
6.39e+09  0.8752  0.1628  -0.01341  -0.006234  -0.02713  0.02157  0.794  -0.5238
6.391e+09  0.8519  -0.1729  0.002261  -0.01458  0.0307  0.02146  0.6144  -0.7135
6.392e+09  0.8245  -0.4555  0.03315  0.01448  0.00483  -0.01614  0.261  -0.8712
6.394e+09  0.5498  -0.7159  0.004518  0.007658  0.02295  0.0145  -0.05577  -0.8998
6.395e+09  0.2928  -0.8482  -0.01782  0.002334  -0.02313  -0.01414  -0.327  -0.8382
6.396e+09  0.04705  -0.9052  0.005769  0.00288  -0.0137  0.02365  -0.6239  -0.7165
6.398e+09  -0.3516  -0.8293  -0.0219  0.004364  -0.006506  -0.003264  -0.8028  -0.4071
6.399e+09  -0.5936  -0.6915  0.04624  0.03349  0.0332  0.02028  -0.9145  -0.1828
6.4e+09  -0.8412  -0.4111  -0.02224  0.01843  0.01497  0.00522  -0.9152  0.2051
6.401e+09  -0.8691  -0.1191  -0.01604  -0.01401  -0.02247  0.02882  -0.8021  0.4492
6.402e+09  -0.8302  0.2032  0.001116  0.0215  -0.03256  -0.009608  -0.5636  0.6848
6.404e+09  -0.6979  0.4738  -0.01784  -0.008996  0.02974  -0.01112  -0.3307  0.8657
6.405e+09  -0.5063  0.6408  -0.01256  -0.02472  -0.006321  0.007412  0.02253  0.9591
6.406e+09  -0.2742  0.8834  -0.01312  -0.03916  -0.02583  0.07067  0.3647  0.8435
6.408e+09  0.09759  0.8784  -0.01904  3.536e-05  0.02549  0.00988  0.62  0.7208
6.409e+09  0.3481  0.8173  -0.02655  -0.01695  -0.02146  0.08576  0.7793  0.4801
6.41e+09  0.5821  0.6503  -0.01251  -0.009719  -0.06714  -0.03691  0.913  0.141
6.411e+09  0.8313  0.43  -0.008183  0.03041  0.007722  -0.02192  0.8919  -0.146
6.412e+09  0.9141  0.07492  -0.004498  0.002602  -0.01638  -0.02905  0.7885  -0.424
6.414e+09  0.8556  -0.2309  -0.05216  -0.01674  0.001846  -0.0432  0.5946  -0.6839
6.415e+09  0.7144  -0.5362  -0.05548  -0.02615  0.02696  0.02859  0.3744  -0.8742
6.416e+09  0.5344  -0.7215  -0.01182  0.001065  0.002377  -0.002309  0.003359  -0.9154
6.418e+09  0.2073  -0.8059  0.03942  0.01347  -0.03128  -0.008815  -0.2916  -0.9227
6.419e+09  -0.06003  -0.8384  -0.02866  0.04568  -0.01119  -0.02243  -0.5951  -0.7072
6.42e+09  -0.3647  -0.7943  0.03233  0.02078  0.02913  0.02135  -0.7553  -0.5087
6.421e+09  -0.5935  -0.6196  -0.003694  -0.007373  -0.009154  0.02486  -0.8364  -0.1677
6.422e+09  -0.741  -0.3615  -0.005672  0.02152  0.02954  -0.04917  -0.8654  0.07353
6.424e+09  -0.9388  -0.05369  0.05091  -0.005213  -0.01552  -0.004274  -0.8022  0.3939
6.425e+09  -0.8561  0.1978  -0.0058  -0.01445  0.01145  -0.01264  -0.626  0.6405
6.426e+09  -0.7311  0.5154  0.007124  -0.002442  -0.03311  0.01864  -0.3675  0.8092
6.428e+09  -0.4977  0.6803  -0.01422  0.03644  0.05518  -0.008875  -0.04854  0.9209
6.429e+09  -0.24  0.844  0.06895  -0.0005532  0.03519  0.01148  0.267  0.8183
6.43e+09  0.09135  0.8662  -0.004679  0.03322  -0.05627  0.02284  0.5382  0.6936
6.431e+09  0.4201  0.8168  -0.06162  -0.01191  -0.009925  0.008381  0.7334  0.4971
6.432e+09  0.6589  0.5969  0.02377  -0.004361  0.01609  0.01926  0.8671  0.183
6.434e+09  0.7869  0.3233  0.007239  0.005302  0.001511  -0.02625  0.8044  -0.0734
6.435e+09  0.8628  0.07418  -0.02109  -0.003398  -0.04564  -0.001958  0.7729  -0.3937
6.436e+09  0.7895  -0.2712  -0.003348  0.006838  -0.012  -0.002568  0.6027  -0.6278
6.438e+09  0.7684  -0.5717  0.003502  -0.01049  -0.01469  -0.009239  0.3432  -0.8019
6.439e+09  0.5284  -0.7139  -0.0193  0.003747  0.0162  0.03894  0.04273  -0.8231
6.44e+09  0.211  -0.9076  0.01599  -0.003507  -0.006216  -0.02888  -0.231  -0.8108
6.441e+09  -0.1138  -0.8839  0.03032  0.008539  0.01618  0.02842  -0.4703  -0.6947
6.442e+09  -0.3651  -0.8347  0.07538  -0.0145  -0.01778  -0.02205  -0.7162  -0.4541
6.444e+09  -0.6168  -0.5989  -0.01386  -0.04137  -0.04236  0.02763  -0.8384  -0.1762
6.445e+09  -0.8313  -0.3487  0.02433  0.008679  -0.02715  0.009994  -0.8607  0.08615
6.446e+09  -0.9207  -0.05347  0.009088  -0.02953  -0.04203  0.01958  -0.7599  0.3897
6.448e+09  -0.8587  0.2639  0.04618  0.006381  0.04558  -0.01884  -0.5855  0.5761
6.449e+09  -0.7054  0.5767  0.02987  -0.01311  0.07671  0.001286  -0.354  0.7715
6.45e+09  -0.4816  0.6901  0.04184  0.0156  0.01694  0.01716  -0.09667  0.8176
6.451e+09  -0.1484  0.8609  -0.01012  0.0395  -0.003446  0.01067  0.2135  0.8041
6.452e+09  0.1741  0.9039  0.01671  -0.0385  0.003423  -0.00881  0.4404  0.6715
6.454e+09  0.3926  0.7419  0.02369  -0.007297  0.006842  -0.01441  0.6946  0.4604
6.455e+09  0.6737  0.5954  -0.01421  -0.002623  0.01052  -0.00206  0.7942  0.2376
6.456e+09  0.8136  0.3757  -0.03145  -0.001563  0.006423  0.04474  0.845  -0.05033
6.458e+09  0.8944  0.07384  -0.007644  -0.003778  -0.03814  0.02302  0.7339  -0.3413
6.459e+09  0.8151  -0.2422  -0.01947  0.02465  0.03089  -0.003391  0.5763  -0.6125
6.46e+09  0.7081  -0.5193  -0.006994  0.01465  -0.007543  -0.008842  0.3343  -0.7211
6.461e+09  0.4741  -0.8034  -0.009653  0.02004  -0.02517  0.01661  0.06041  -0.8028
6.462e+09  0.2193  -0.8988  -0.01  -0.008851  -0.02059  -0.02343  -0.1728  -0.7666
6.464e+09  -0.09145  -0.9107  0.03943  0.0238  0.01713  -0.001809  -0.4586  -0.6586
6.465e+09  -0.3921  -0.8013  -0.01946  -0.03155  0.0004295  -0.01295  -0.6589  -0.4641
6.466e+09  -0.6672  -0.6404  0.02632  0.03566  0.03072  -0.0158  -0.7958  -0.2158
6.468e+09  -0.9047  -0.3438  0.0008617  -0.00108  0.01848  0.01427  -0.8047  0.0541
6.469e+09  -0.9264  -0.05117  0.006448  0.03443  0.00509  0.007411  -0.7446  0.3254
6.47e+09  -0.8526  0.2198  0.004057  -0.008853  0.01988  -0.009445  -0.5772  0.558
6.471e+09  -0.7184  0.5707  0.002844  -0.01925  -0.01946  -0.00504  -0.3535  0.7588
6.472e+09  -0.4504  0.7787  -0.04127  -0.03051  0.0001596  0.01988  -0.05544  0.7818
6.474e+09  -0.2061  0.8706  -0.01615  0.05698  0.02123  0.04897  0.1992  0.7229
6.475e+09  0.1336  0.8723  -0.04549  0.01082  -0.05077  0.003841  0.4629  0.6468
6.476e+09  0.4201  0.8475  -0.0124  -0.01985  -0.02562  -0.008887  0.6216  0.4843
6.478e+09  0.7463  0.5649  0.01736  -0.02702  -0.0004732  -0.00939  0.7777  0.1899
6.479e+09  0.8597  0.3526  0.01633  0.01456  0.02479  -0.0004152  0.7761  -0.09455
6.48e+09  0.8785  0.0429  -0.02391  -0.001779  0.0001835  -0.03741  0.7253  -0.3398
6.481e+09  0.9039  -0.306  0.05043  -0.02434  -0.04088  0.01346  0.5055  -0.5981
6.482e+09  0.7276  -0.606  -0.0354  0.02905  -0.02135  0.02239  0.3614  -0.7348
6.484e+09  0.4595  -0.7831  0.008072  -0.001928  -0.03154  -0.01644  0.04296  -0.7532
6.485e+09  0.1516  -0.904  0.02814  -0.004998  0.01775  0.04374  -0.1991  -0.7862
6.486e+09  -0.1727  -0.8819  -0.008428  -9.405e-05  -0.0321  -0.002417  -0.4573  -0.6191
6.488e+09  -0.4903  -0.8584  -0.00609  -0.02903  0.001255  0.04169  -0.6776  -0.4304
6.489e+09  -0.693  -0.6349  0.05412  -0.03722  -0.02492  -0.0414  -0.776  -0.1493
6.49e+09  -0.8148  -0.3381  0.024  -0.006317  0.03581  -0.01369  -0.7853  0.1014
6.491e+09  -0.9243  0.03161  0.01173  -0.02165  -0.001138  0.01036  -0.6851  0.3567
6.492e+09  -0.8103  0.3177  -0.02404  -0.01437  -0.03745  0.002383  -0.5421  0.5437
6.494e+09  -0.6877  0.6182  -0.004817  0.04062  -0.04196  0.02578  -0.3168  0.726
6.495e+09  -0.3986  0.8518  -0.001588  0.01707  0.01068  0.003211  -0.06082  0.7785
6.496e+09  -0.1864  0.9138  -0.02038  -0.01248  -0.01973  0.005645  0.2113  0.7553
6.498e+09  0.198  0.9439  0.008261  0.01831  0.008236  0.04671  0.4756  0.583
6.499e+09  0.4906  0.8592  0.004187  -0.01307  -0.00692  0.0136  0.6188  0.3768
6.5e+09  0.7403  0.5896  -0.009087  0.03186  0.008155  -0.0181  0.7541  0.1368
6.501e+09  0.9237  0.2827  0.00714  0.02157  -0.02711  0.003857  0.7622  -0.1083
6.502e+09  0.9471  -0.05469  0.006481  0.01817  -0.03423  0.008575  0.6362  -0.3827
6.504e+09  0.8038  -0.3228  0.002195  -0.03642  0.02159  0.01157  0.5261  -0.5874
6.505e+09  0.6873  -0.639  0.001991  0.002701  0.02095  -0.003753  0.3009  -0.6901
6.506e+09  0.4854  -0.8577  0.03925  -0.02219  -0.005817  0.07598  -0.003415  -0.757
6.508e+09  0.1367  -0.9381  -0.01967  -0.02273  0.01895  0.06015  -0.2556  -0.6936
6.509e+09  -0.2134  -0.9434  -0.02077  0.02167  0.03347  -0.004259  -0.4968  -0.5862
6.51e+09  -0.4743  -0.8427  -0.00894  0.003353  0.007973  -0.00924  -0.6688  -0.363
6.511e+09  -0.7779  -0.5675  0.01014  0.005015  -0.02938  -0.004149  -0.7568  -0.1279
6.512e+09  -0.9311  -0.276  0.01382  -0.001235  -0.0286  -0.04347  -0.7314  0.169
6.514e+09  -0.9434  0.07388  0.003839  -0.004464  0.0002472  0.02759  -0.6751  0.3889
6.515e+09  -0.8653  0.3966  0.01837  -0.02755  0.06555  -0.003885  -0.4865  0.5677
6.516e+09  -0.6568  0.6504  0.004246  0.006715  0.001187  -0.02487  -0.2181  0.734
6.518e+09  -0.4021  0.8641  -0.009618  -0.0215  -0.0438  0.002557  0.0336  0.7509
6.519e+09  -0.1241  0.9616  0.01001  0.02066  0.01238  0.009794  0.2532  0.7047
6.52e+09  0.239  0.9075  0.008585  0.0284  -0.06845  0.03623  0.4909  0.51
6.521e+09  0.5474  0.7707  -0.00664  0.006609  0.05383  0.01222  0.695  0.3816
6.522e+09  0.8449  0.496  0.0198  -0.00684  0.02833  0.04355  0.7482  0.09281
6.524e+09  0.9239  0.2601  -0.01433  -0.01086  0.03088  0.005382  0.7074  -0.1459
6.525e+09  0.9538  -0.112  -0.04419  -0.03292  0.00221  0.03832  0.6155  -0.4006
6.526e+09  0.8719  -0.4088  0.02331  0.001304  -0.02896  -0.02729  0.4386  -0.5994
6.528e+09  0.63  -0.7181  -0.02297  -0.01799  0.01786  -0.07354  0.2245  -0.7234
6.529e+09  0.329  -0.9317  0.005436  0.01935  -0.009361  0.02352  -0.03204  -0.7296
6.53e+09  0.05672  -1.013  0.02421  -0.009395  0.0168  -0.006643  -0.3017  -0.6224
6.531e+09  -0.2954  -0.9195  -0.008697  -0.01698  0.0238  0.005454  -0.4841  -0.4696
6.532e+09  -0.5654  -0.7719  0.004551  0.01362  0.001587  -0.04189  -0.5785  -0.2797
6.534e+09  -0.8643  -0.5242  0.01733  -0.002906  0.01709  0.03966  -0.6196  -0.07527
6.535e+09  -0.999  -0.1625  -0.01249  -0.008607  0.0153  -0.04519  -0.6566  0.09191
6.536e+09  -0.9405  0.2047  0.002453  0.01687  0.03148  -0.0179  -0.5504  0.2903
6.538e+09  -0.8609  0.5246  -0.002516  0.006609  -0.02559  0.02563  -0.4543  0.4764
6.539e+09  -0.6288  0.7803  -0.007186  0.02113  0.001047  0.03889  -0.2852  0.601
6.54e+09  -0.3276  0.9182  0.001642  0.02207  -0.02858  0.0003628  -0.04511  0.6734
6.541e+09  0.08702  0.9747  0.005674  0.004075  -0.02885  -0.04338  0.1863  0.668
6.542e+09  0.4182  0.8916  -0.01334  0.02852  0.0008203  -0.02259  0.4289  0.6076
6.544e+09  0.671  0.7463  0.03646  0.02244  -0.02386  0.02048  0.6285  0.3981
6.545e+09  0.8121  0.4414  -0.008823  -0.0319  0.02301  -0.03744  0.7021  0.2037
6.546e+09  0.9646  0.09669  0.00799  -0.01011  0.02739  -0.0131  0.7189  -0.06655
6.548e+09  0.9482  -0.2263  -0.009954  -0.03099  0.04093  -0.02653  0.6596  -0.3148
6.549e+09  0.8166  -0.5184  -0.001288  -0.0111  -0.01722  0.02173  0.5071  -0.5316
6.55e+09  0.5814  -0.7698  -0.0163  -0.01093  -0.05607  0.00797  0.311  -0.682
