# Hz S RI R 50
6.25e+09  -0.6867  0.56  0.01223  0.006412  -0.0588  0.01169  0.1539  0.4849
6.251e+09  -0.3534  0.7497  0.01112  0.008409  -0.005388  -0.02056  0.3994  0.3972
6.252e+09  -0.1269  0.8271  -0.02568  -0.02667  0.04878  0.07925  0.5271  0.2442
6.254e+09  0.1687  0.804  0.007486  0.002393  -0.003786  0.01265  0.6201  0.03746
6.255e+09  0.4414  0.7807  -0.007384  0.0174  -0.007615  0.04679  0.6046  -0.2373
6.256e+09  0.685  0.4786  0.02614  0.0401  0.004629  -0.05276  0.5043  -0.4428
6.258e+09  0.8363  0.2953  0.00147  0.002227  -0.01969  -0.006406  0.3019  -0.6013
6.259e+09  0.7939  -0.005653  0.05878  -0.01914  0.01458  0.02963  0.07505  -0.6576
6.26e+09  0.8254  -0.2679  0.003198  -0.02875  -0.04172  0.04659  -0.2046  -0.64
6.261e+09  0.5362  -0.5862  0.01672  0.006892  -0.0178  0.04501  -0.4737  -0.5335
6.262e+09  0.3664  -0.7621  0.005034  0.01722  -0.01118  -0.01312  -0.6297  -0.3458
6.264e+09  0.1288  -0.8099  0.02197  -0.005894  0.006151  -0.03332  -0.7222  -0.09891
6.265e+09  -0.2233  -0.8121  -0.01206  -0.01465  -0.002176  -0.02195  -0.7144  0.141
6.266e+09  -0.4788  -0.6874  -0.01044  0.02376  0.05906  0.02368  -0.6131  0.4092
6.268e+09  -0.6855  -0.5031  -0.01947  -0.02115  -0.0353  0.05229  -0.4317  0.593
6.269e+09  -0.7371  -0.2677  0.01201  -0.02261  0.03416  -0.03772  -0.183  0.7159
6.27e+09  -0.8693  0.04794  -0.01211  0.02281  0.04707  -0.01652  0.0724  0.734
6.271e+09  -0.8311  0.3505  -0.003244  -0.0228  -0.06237  -0.002729  0.3425  0.696
6.272e+09  -0.6137  0.5639  0.01992  0.02571  0.01727  -0.02311  0.543  0.5532
6.274e+09  -0.4465  0.712  0.01592  0.002138  0.01258  -0.02887  0.6912  0.3016
6.275e+09  -0.1018  0.8603  -0.02155  0.00346  0.0135  0.03041  0.7897  0.06434
6.276e+09  0.1783  0.8202  0.01974  -0.01269  0.02371  0.02874  0.7424  -0.2239
6.278e+09  0.4367  0.7059  0.03386  0.008435  -0.0008504  -0.0151  0.6199  -0.4779
6.279e+09  0.5953  0.5576  -0.01005  -0.02014  -0.03927  -0.00241  0.4182  -0.6676
6.28e+09  0.7852  0.2274  0.004312  -0.002626  -0.02427  -0.02405  0.1702  -0.7674
6.281e+09  0.8192  -0.02793  0.002306  0.02054  -0.02629  0.03758  -0.1046  -0.7706
6.282e+09  0.7841  -0.334  -0.01891  0.02427  0.02647  -0.0006595  -0.3735  -0.6798
6.284e+09  0.6079  -0.5249  -0.01889  -0.00668  0.01183  0.009754  -0.5925  -0.5272
6.285e+09  0.3669  -0.7055  0.008757  0.01281  -0.02836  0.01702  -0.7384  -0.2896
6.286e+09  0.09158  -0.8395  0.01289  -0.001983  0.02001  -0.04308  -0.7861  0.006697
6.288e+09  -0.1747  -0.7531  -0.02456  -0.02555  -0.03682  0.07819  -0.757  0.2529
6.289e+09  -0.4838  -0.6937  -0.00388  -0.01609  -0.03393  0.02513  -0.6252  0.5102
6.29e+09  -0.6709  -0.4412  0.006468  -0.01402  0.02839  0.01403  -0.4394  0.6808
6.291e+09  -0.8093  -0.2358  -0.001376  -0.002226  0.0003408  -0.02985  -0.1687  0.7724
6.292e+09  -0.8403  0.0395  -0.0116  0.03159  0.0485  -0.0727  0.1362  0.7942
6.294e+09  -0.727  0.3189  -0.004745  0.01113  -0.02235  -0.0451  0.3906  0.7364
6.295e+09  -0.5593  0.5853  -0.004061  0.008161  -0.002547  -0.03551  0.6323  0.547
6.296e+09  -0.3685  0.7098  0.02539  -0.01975  -0.04008  0.02361  0.7683  0.2791
6.298e+09  -0.06022  0.8739  -0.007517  0.002195  -0.01554  -0.04516  0.8162  -0.0003734
6.299e+09  0.2189  0.8315  -0.009073  0.03027  -0.04577  0.01818  0.7934  -0.3005
6.3e+09  0.5161  0.6573  0.008243  -0.0138  0.06305  0.02395  0.6578  -0.5182
6.301e+09  0.638  0.5091  0.0215  -0.006624  -0.02347  0.02829  0.4126  -0.717
6.302e+09  0.8008  0.2382  0.009766  0.01027  -0.02828  0.04677  0.1515  -0.8018
6.304e+09  0.7963  -0.1371  -0.007799  -0.01283  -0.003566  9.431e-05  -0.1105  -0.8476
6.305e+09  0.7171  -0.3533  0.003706  -0.01978  -0.0174  -0.01651  -0.4166  -0.6956
6.306e+09  0.5853  -0.66  0.004777  -0.01549  -0.01977  0.01336  -0.6871  -0.5459
6.308e+09  0.3075  -0.7426  0.005273  0.01626  -0.02526  -0.02156  -0.7988  -0.2845
6.309e+09  0.04045  -0.8251  0.01679  0.02471  0.005753  -0.01028  -0.8656  -0.001543
6.31e+09  -0.2422  -0.7846  -0.01371  0.005176  0.01099  -0.02177  -0.834  0.2502
6.311e+09  -0.4848  -0.6643  -0.01801  -0.02079  0.008971  -0.02757  -0.6852  0.5596
6.312e+09  -0.6771  -0.436  0.01721  0.0002812  -0.02139  -0.008295  -0.4155  0.7164
6.314e+09  -0.7894  -0.2236  0.00918  0.02841  0.01229  0.04823  -0.1725  0.8525
6.315e+09  -0.8484  0.136  0.001958  0.005381  0.02803  0.0136  0.1471  0.8581
6.316e+09  -0.7418  0.4272  -0.002385  0.02136  -0.0285  0.03093  0.3949  0.749
6.318e+09  -0.5839  0.6273  -0.002857  -0.01275  -0.03977  0.0325  0.67  0.5794
6.319e+09  -0.2846  0.8098  0.001824  0.01785  -0.00259  0.0428  0.8555  0.3436
6.32e+09  -0.01255  0.8215  0.01218  0.01578  -0.01318  -0.03718  0.9078  0.05807
6.321e+09  0.2536  0.8041  -0.0006987  -0.009749  -0.02881  0.01319  0.8135  -0.2794
6.322e+09  0.5598  0.6628  -0.01486  0.03231  0.01471  0.02006  0.6967  -0.5542
6.324e+09  0.7235  0.3728  0.01084  -0.006862  -0.01986  -0.04528  0.464  -0.7481
6.325e+09  0.8503  0.1344  -0.01747  -0.01826  0.004369  0.01631  0.1702  -0.8638
6.326e+09  0.8182  -0.173  -0.006309  0.00167  -0.009525  -0.03597  -0.1096  -0.912
6.328e+09  0.7242  -0.4926  0.02049  0.001133  -0.02469  -0.01009  -0.4388  -0.7778
6.329e+09  0.4935  -0.6561  -0.002903  0.02016  -0.02625  -0.01703  -0.6445  -0.605
6.33e+09  0.2755  -0.8626  -0.02074  -0.005875  -0.04022  0.006741  -0.8533  -0.3281
6.331e+09  -0.05559  -0.8785  0.008097  0.002002  0.006773  0.004618  -0.8941  -0.01402
6.332e+09  -0.3662  -0.8051  0.0343  -0.03857  0.02963  -0.01517  -0.8658  0.3173
6.334e+09  -0.6438  -0.6227  0.02343  -0.007914  0.02469  0.001046  -0.7322  0.5308
6.335e+09  -0.8039  -0.4074  -0.004875  -0.02063  -0.03728  0.008866  -0.4782  0.8022
6.336e+09  -0.881  -0.107  0.01279  -0.03008  0.04378  0.02496  -0.2268  0.9187
6.338e+09  -0.8272  0.2643  -0.043  0.02652  0.00587  -0.002672  0.1408  0.8915
6.339e+09  -0.7006  0.4522  0.00481  0.001489  0.06928  -0.05409  0.4317  0.8101
6.34e+09  -0.518  0.7191  0.0424  -0.03903  0.005379  0.0237  0.673  0.6445
6.341e+09  -0.2251  0.8316  -0.004129  -0.01678  -0.03575  -0.03617  0.8555  0.3778
6.342e+09  0.09573  0.8479  -0.02086  0.01229  -0.01712  -0.03511  0.914  0.04043
6.344e+09  0.3487  0.7809  -0.01958  -0.013  -0.01525  0.01769  0.8807  -0.2813
6.345e+09  0.6582  0.5628  -0.01671  0.01823  0.03765  -0.01333  0.7526  -0.5534
6.346e+09  0.8049  0.3805  0.002003  1.87e-05  0.05054  0.04815  0.5135  -0.7686
6.348e+09  0.8566  0.04048  0.009266  -0.008898  0.01759  0.01018  0.2214  -0.8818
6.349e+09  0.8488  -0.3055  0.01588  0.01966  -0.01678  -0.02098  -0.1173  -0.9318
6.35e+09  0.6973  -0.5158  0.01311  0.0005064  0.006535  -0.03598  -0.4419  -0.8286
6.351e+09  0.4548  -0.746  -0.00614  0.00101  -0.02205  0.02353  -0.6978  -0.6651
6.352e+09  0.1783  -0.8634  0.01164  -0.01731  0.03164  0.0006892  -0.8691  -0.3353
6.354e+09  -0.1227  -0.8861  -0.0114  -0.01656  -0.04591  0.007477  -0.9442  -0.07784
6.355e+09  -0.4892  -0.7355  -0.005495  -0.02287  -0.04841  0.01237  -0.9139  0.2631
6.356e+09  -0.668  -0.5427  -0.006782  0.04887  0.01026  -0.005383  -0.7851  0.5305
6.358e+09  -0.798  -0.2293  0.001615  -0.007258  -0.02854  -0.01334  -0.5423  0.7764
6.359e+09  -0.8461  0.02725  -0.05832  -0.01451  0.008458  -0.01338  -0.2511  0.9549
6.36e+09  -0.7678  0.3966  -0.0347  0.008757  -0.008931  0.007657  0.1109  0.9411
6.361e+09  -0.6027  0.6579  -0.03099  0.01127  -0.027  -0.02677  0.3931  0.8567
6.362e+09  -0.4114  0.8103  -0.008897  -0.0163  -0.01492  0.02292  0.6809  0.6386
6.364e+09  -0.07231  0.8644  -0.006969  0.01173  -0.03825  0.08254  0.8814  0.3659
6.365e+09  0.2086  0.8137  -0.00577  -0.001003  0.03362  -0.001299  1.003  0.09649
6.366e+09  0.5198  0.6521  -0.04094  0.004797  -0.02698  0.0213  0.8749  -0.2405
6.368e+09  0.7207  0.5444  0.02521  -0.02573  0.008649  0.003968  0.8134  -0.5246
6.369e+09  0.8715  0.2495  0.01492  -0.01536  -0.03109  0.007434  0.5572  -0.7984
6.37e+09  0.8758  -0.0904  0.02547  -0.005287  0.0001293  -0.01936  0.228  -0.8804
6.371e+09  0.775  -0.3674  -0.00834  -0.02022  -0.008339  0.007242  -0.07801  -0.9459
6.372e+09  0.6334  -0.6464  0.04395  0.000325  0.01859  0.02094  -0.4013  -0.8777
6.374e+09  0.3457  -0.7815  -0.03503  0.008114  -0.0002835  -0.0307  -0.6821  -0.657
6.375e+09  -0.02877  -0.862  -0.007168  0.05307  -0.00443  0.01696  -0.8784  -0.4019
6.376e+09  -0.2709  -0.8475  0.04912  -0.001106  0.006731  -0.01598  -0.9836  -0.06463
6.378e+09  -0.5504  -0.6754  -0.0227  0.0201  0.03959  0.02323  -0.9162  0.2861
6.379e+09  -0.7467  -0.4645  -0.0002116  -0.006909  -0.01803  0.01032  -0.8208  0.503
6.38e+09  -0.8895  -0.1503  0.01621  0.01865  -0.01145  0.00851  -0.5821  0.7418
6.381e+09  -0.8826  0.1156  -0.0237  -0.01679  0.02037  0.05303  -0.2621  0.9305
6.382e+09  -0.7673  0.4224  0.04814  0.005113  0.01519  0.007361  0.1001  0.9627
6.384e+09  -0.5907  0.6778  -0.01994  0.03352  0.01695  0.04121  0.4004  0.8897
6.385e+09  -0.2651  0.8224  -0.008124  0.03465  0.0239  -0.0117  0.6341  0.6895
6.386e+09  0.007763  0.875  0.01264  -0.01875  0.02218  -0.01392  0.8137  0.4316
6.388e+09  0.3262  0.835  0.01217  -0.01165  0.01248  0.0567  0.8987  0.159
6.389e+09  0.5918  0.6481  -0.01586  -0.0224  0.03159  -0.01029  0.9077  -0.1792
6.39e+09  0.7734  0.4056  0.003629  -0.02297  0.008659  -0.01793  0.7752  -0.5231
6.391e+09  0.8682  0.174  -0.01265  -0.02529  -0.02987  -0.02805  0.5775  -0.7358
6.392e+09  0.8502  -0.1754  0.001467  -0.02903  0.03614  -0.0006232  0.2622  -0.8237
6.394e+09  0.7401  -0.4695  0.01871  -0.03713  0.008881  -0.01872  -0.03368  -0.9206
6.395e+09  0.5683  -0.7269  0.0009591  -0.01659  3.311e-05  -0.04879  -0.3366  -0.853
6.396e+09  0.2356  -0.8389  -0.0288  -0.003711  0.005492  0.0285  -0.6065  -0.6873
6.398e+09  -0.04576  -0.9074  0.01633  0.02312  0.009989  -0.01985  -0.8355  -0.4277
6.399e+09  -0.372  -0.769  -0.04509  0.008993  -0.01926  0.02551  -0.8759  -0.1387
6.4e+09  -0.6422  -0.642  -0.009148  0.04983  0.04544  0.01968  -0.918  0.1643
6.401e+09  -0.8281  -0.3685  -0.01921  0.005997  -0.01522  0.04416  -0.7323  0.5128
6.402e+09  -0.8494  -0.06528  -0.007864  -0.002841  -0.04157  0.01439  -0.6102  0.678
6.404e+09  -0.8615  0.1831  0.007532  0.01437  -0.03741  -0.03749  -0.3044  0.8923
6.405e+09  -0.703  0.4679  -0.01721  0.009564  -0.01654  -0.03627  0.01761  0.9424
6.406e+09  -0.5078  0.7357  0.0005419  -0.01564  0.04018  -0.0159  0.3218  0.8441
6.408e+09  -0.1869  0.8456  0.006288  -0.04866  -0.01153  -0.006151  0.5867  0.6981
6.409e+09  0.07343  0.8326  -0.004595  0.001143  0.002222  0.03582  0.7499  0.4735
6.41e+09  0.3832  0.7884  0.006384  0.02436  0.03018  0.00318  0.88  0.1601
6.411e+09  0.5918  0.6561  0.0314  -0.009242  -0.002463  -0.0209  0.8894  -0.1203
6.412e+09  0.8217  0.3288  -0.05902  -0.00302  0.01509  -0.01274  0.793  -0.4301
6.414e+09  0.9127  0.01872  0.01839  0.04053  -0.04847  -0.001003  0.594  -0.6806
6.415e+09  0.7822  -0.2681  0.001409  -0.01281  -0.01131  0.001122  0.3279  -0.832
6.416e+09  0.7165  -0.5036  -0.03327  -0.002797  -0.02521  -0.04801  0.07399  -0.9099
6.418e+09  0.4796  -0.7083  -0.02015  -0.01257  -0.03172  -0.00428  -0.3017  -0.8453
6.419e+09  0.1341  -0.8518  0.03403  -0.01539  -0.01058  -0.01526  -0.5696  -0.6806
6.42e+09  -0.1238  -0.8545  -0.03275  0.01535  -0.02747  0.02202  -0.7542  -0.488
6.421e+09  -0.4076  -0.817  -0.02225  -0.0189  0.02341  0.04196  -0.8764  -0.1761
6.422e+09  -0.6758  -0.5497  0.05073  -0.002842  -0.03695  -0.008424  -0.8806  0.1097
6.424e+09  -0.7946  -0.3153  -0.004925  -0.02838  -0.007107  -0.0006683  -0.7413  0.3579
6.425e+09  -0.8453  -0.06264  0.03432  0.02078  0.04598  0.03562  -0.6194  0.6196
6.426e+09  -0.7883  0.2886  0.04147  -0.01233  -0.01761  -0.01165  -0.3614  0.8151
6.428e+09  -0.6977  0.5767  -0.004496  0.0008089  0.02265  -0.007052  -0.01863  0.9009
6.429e+09  -0.4542  0.7598  -0.02681  0.003305  -0.00676  0.03101  0.2496  0.8115
6.43e+09  -0.1554  0.847  0.013  -0.003062  -0.05416  0.01119  0.5202  0.72
6.431e+09  0.1746  0.8553  0.01796  -0.0171  0.0003263  -0.02503  0.682  0.457
6.432e+09  0.388  0.7293  0.02949  0.0005129  -0.02605  0.02525  0.8468  0.1863
6.434e+09  0.7196  0.6098  0.01309  0.004661  0.008782  -0.008104  0.8735  -0.0695
6.435e+09  0.8445  0.3338  -0.02857  -0.01691  -0.01618  -0.02746  0.7648  -0.3574
6.436e+09  0.8899  0.004465  -0.01544  0.01085  -0.02864  0.002149  0.5849  -0.5667
6.438e+09  0.8413  -0.2901  -0.007961  0.004769  -0.005245  -0.003592  0.3299  -0.7715
6.439e+09  0.6701  -0.5838  0.00707  -0.01793  -0.009375  -0.03556  0.05032  -0.8478
6.44e+09  0.4296  -0.769  -0.01367  0.02425  -0.0305  -0.02421  -0.1931  -0.8181
6.441e+09  0.1808  -0.8709  0.05158  0.02436  0.03678  -0.001695  -0.4663  -0.6924
6.442e+09  -0.1789  -0.8753  -0.02405  0.02105  0.009087  0.01754  -0.7275  -0.5016
6.444e+09  -0.4834  -0.781  -0.05522  -0.00173  -0.04665  0.003978  -0.8038  -0.2338
6.445e+09  -0.6685  -0.5653  0.006588  0.09217  0.008917  -0.04841  -0.8375  0.07607
6.446e+09  -0.8582  -0.2956  -0.001384  -0.006044  -0.01433  -0.0191  -0.7539  0.3564
6.448e+09  -0.8724  0.003133  0.05052  0.00137  -0.00234  -3.934e-05  -0.5776  0.5508
6.449e+09  -0.7841  0.2982  -0.01452  0.02108  -0.008615  0.02753  -0.3701  0.7045
6.45e+09  -0.6794  0.546  0.01083  0.007428  0.02098  0.03025  -0.06369  0.8434
6.451e+09  -0.414  0.7373  -0.05288  -0.01945  -0.005873  -0.02746  0.2021  0.8176
6.452e+09  -0.1155  0.8208  0.02993  0.002673  -0.006812  -0.004445  0.472  0.679
6.454e+09  0.2007  0.8215  -0.006436  0.03094  -0.01839  0.03162  0.6954  0.4859
6.455e+09  0.4732  0.7441  -0.04004  0.0164  -0.02713  -0.0577  0.8236  0.2516
6.456e+09  0.7099  0.5615  -0.01769  0.01018  0.01828  0.009462  0.8381  -0.06077
6.458e+09  0.8222  0.2888  -0.01124  0.00377  -0.0284  0.008578  0.7992  -0.4029
6.459e+09  0.8768  -0.03254  -0.02129  0.02379  0.05969  -0.02644  0.5603  -0.6151
6.46e+09  0.8497  -0.2915  0.02985  0.01226  -0.000446  -0.01974  0.3208  -0.7206
6.461e+09  0.645  -0.6308  -0.02782  0.01021  0.01727  -0.006517  0.07307  -0.831
6.462e+09  0.4834  -0.7271  0.05852  0.006298  -0.01655  -0.01902  -0.184  -0.754
6.464e+09  0.1745  -0.8705  -0.007113  -0.0134  -0.0406  -0.003636  -0.4545  -0.6373
6.465e+09  -0.1717  -0.8182  0.02556  0.0321  0.08068  -0.03906  -0.6827  -0.4638
6.466e+09  -0.4309  -0.7549  -0.008197  -0.00611  -0.01926  -0.007219  -0.7766  -0.2197
6.468e+09  -0.6913  -0.5476  0.01827  -0.01422  -0.05924  0.01895  -0.7781  0.062
6.469e+09  -0.8818  -0.2734  0.01731  0.02792  0.02688  0.01372  -0.7361  0.3392
6.47e+09  -0.8929  0.03527  0.02718  0.01022  -0.01755  -0.02471  -0.5353  0.6115
6.471e+09  -0.8743  0.3595  -0.03434  0.008845  0.00632  0.04472  -0.3346  0.7327
6.472e+09  -0.7077  0.5845  -0.01929  0.02462  -0.02069  -0.0165  -0.03559  0.7949
6.474e+09  -0.4156  0.7662  -0.02556  -0.04705  -0.007509  0.01003  0.2279  0.7647
6.475e+09  -0.1422  0.8892  -0.02511  0.004306  -0.02156  -0.05762  0.432  0.6232
6.476e+09  0.1656  0.8796  -0.04374  -0.02115  -0.01468  -0.00459  0.6461  0.437
6.478e+09  0.4255  0.7705  -0.01025  -0.01841  -0.01346  -0.02267  0.7407  0.169
6.479e+09  0.7076  0.5745  -0.002845  -0.003639  0.00808  -0.009861  0.7839  -0.04507
6.48e+09  0.8775  0.2723  0.04544  -0.009353  0.02959  -0.03192  0.6883  -0.3212
6.481e+09  0.9115  -0.07288  -0.03862  0.02078  -0.04552  -0.02718  0.5431  -0.5565
6.482e+09  0.8581  -0.3445  0.008929  0.01912  0.06486  -0.02722  0.3181  -0.7251
6.484e+09  0.677  -0.591  -0.01344  -0.0002909  -0.02099  -0.0117  0.05461  -0.8119
6.485e+09  0.3864  -0.7518  -0.04942  -7.703e-05  -0.01519  0.01661  -0.2195  -0.7798
6.486e+09  0.1684  -0.9034  -0.01327  -0.006439  0.00551  -0.0008836  -0.464  -0.6407
6.488e+09  -0.2351  -0.8526  -0.02004  -0.01773  0.01291  -0.01267  -0.611  -0.449
6.489e+09  -0.5515  -0.6986  -0.008151  -0.01229  -0.01002  -0.0167  -0.7511  -0.2142
6.49e+09  -0.7122  -0.5405  0.006331  0.04006  0.03178  -0.009776  -0.7871  0.08942
6.491e+09  -0.8651  -0.2268  0.01012  -0.004676  0.0217  0.04201  -0.7153  0.3498
6.492e+09  -0.89  0.06182  0.02284  0.02089  0.003239  0.01793  -0.5368  0.5586
6.494e+09  -0.7974  0.3473  -0.02103  -0.01591  -0.0178  -0.0316  -0.2903  0.6941
6.495e+09  -0.6738  0.6275  -0.0191  -0.02541  0.0214  -0.005972  -0.03668  0.8047
6.496e+09  -0.3775  0.8245  -0.009508  -0.01589  0.0107  0.008063  0.2145  0.73
6.498e+09  -0.1201  0.9267  -0.006093  0.007495  -0.01572  0.04049  0.4565  0.6276
6.499e+09  0.2542  0.876  -0.004325  0.0005067  -0.05443  0.0006845  0.6224  0.4332
6.5e+09  0.4839  0.7554  -0.02323  0.008197  -0.003163  0.002599  0.726  0.1847
6.501e+09  0.7326  0.4797  -0.01323  -0.001025  -0.004286  0.001055  0.7533  -0.1418
6.502e+09  0.8467  0.2427  -0.002517  -0.001495  -0.004342  0.01384  0.6706  -0.3711
6.504e+09  0.8486  -0.004372  0.01769  0.01881  0.006496  -0.05549  0.4881  -0.5592
6.505e+09  0.8469  -0.3569  -0.02169  -0.02312  0.07599  -0.02839  0.2625  -0.7018
6.506e+09  0.6762  -0.6609  0.0147  -0.007554  0.03505  -0.04038  0.004755  -0.7616
6.508e+09  0.3945  -0.8222  0.002558  -0.005084  0.01029  -0.0107  -0.2376  -0.7128
6.509e+09  0.05481  -0.9099  -0.00601  0.00986  -0.006112  -0.0311  -0.5251  -0.5607
6.51e+09  -0.2833  -0.876  -0.008132  0.0378  -0.01668  0.001432  -0.6654  -0.3803
6.511e+09  -0.5643  -0.7779  0.003654  -0.02255  -0.03865  0.02707  -0.7161  -0.1094
6.512e+09  -0.7445  -0.5315  0.007285  0.003111  -0.01246  -0.002397  -0.7331  0.1573
6.514e+09  -0.9105  -0.2611  -0.03688  0.06721  -0.0783  0.03757  -0.661  0.3612
6.515e+09  -0.9194  0.1025  -0.001826  -0.00229  -0.001702  -0.01204  -0.4915  0.5643
6.516e+09  -0.8296  0.4064  -0.009836  -0.01206  -0.01053  -0.007736  -0.2671  0.7198
6.518e+09  -0.6529  0.6411  -0.01688  -0.01325  -0.001797  -0.008943  0.01364  0.7377
6.519e+09  -0.3909  0.9058  -0.01208  0.02124  0.001795  0.02311  0.2465  0.7109
6.52e+09  -0.07677  0.9446  0.009258  -0.01822  0.01887  0.009808  0.4497  0.5662
6.521e+09  0.2703  0.9285  -0.01449  0.004544  0.006607  0.02711  0.6669  0.3643
6.522e+09  0.5916  0.7482  -0.03076  0.009628  -0.05314  0.004382  0.7208  0.1087
6.524e+09  0.7889  0.5225  -0.006952  0.004662  0.007161  0.03802  0.7219  -0.1797
6.525e+09  0.9356  0.1484  0.006886  -0.004729  -0.03347  0.04769  0.6186  -0.4195
6.526e+09  0.9541  -0.1167  0.01209  0.04674  -0.01456  0.01863  0.4534  -0.5867
6.528e+09  0.7842  -0.4704  -0.001394  0.01454  -0.01239  -0.006937  0.2243  -0.7031
6.529e+09  0.6067  -0.7656  0.005747  -0.004001  -0.03862  -0.002565  -0.08126  -0.7374
6.53e+09  0.3216  -0.9175  -0.0006951  -0.03156  -0.04321  -0.02611  -0.2998  -0.6226
6.531e+09  0.03595  -0.9402  0.05225  0.01009  0.002149  -0.0006694  -0.4875  -0.4835
6.532e+09  -0.3489  -0.9436  -0.02168  0.001589  0.00386  0.04514  -0.568  -0.286
6.534e+09  -0.6219  -0.7308  -0.01066  -0.03364  0.03843  0.007392  -0.6459  -0.08791
6.535e+09  -0.8561  -0.4446  8.286e-05  -0.01975  0.02202  -0.05957  -0.6307  0.1103
6.536e+09  -0.9463  -0.134  0.03666  0.02973  -0.002301  -0.03867  -0.5593  0.3068
6.538e+09  -0.948  0.1488  -0.008005  -0.003878  0.01088  0.003201  -0.4335  0.4682
6.539e+09  -0.797  0.5085  0.009488  0.02181  0.01334  0.03806  -0.2691  0.6312
6.54e+09  -0.5989  0.765  -0.01727  0.01759  0.04612  -0.01524  -0.03438  0.6629
6.541e+09  -0.306  0.9362  -0.005266  -0.00979  -0.004887  0.06161  0.2025  0.6829
6.542e+09  0.06117  1.018  -0.002827  -0.02892  -0.03832  0.01069  0.4228  0.6039
6.544e+09  0.4155  0.8776  0.02777  0.01344  -0.01174  -0.006705  0.5885  0.3934
6.545e+09  0.6834  0.6982  0.008186  -0.03002  0.01862  -0.023  0.7074  0.1888
6.546e+09  0.9045  0.4464  -0.01968  -0.003652  0.03534  0.08024  0.7114  -0.08899
6.548e+09  0.987  0.09182  0.007497  0.006873  0.02906  -0.009388  0.6449  -0.2976
6.549e+09  0.8827  -0.2301  -0.009815  0.01101  -0.0005662  -0.01093  0.4836  -0.5389
6.55e+09  0.7916  -0.6034  0.007193  0.001559  -0.01975  0.001277  0.3182  -0.6846
