# Hz S RI R 50
6.25e+09  -0.3939  0.7459  0.00292  0.01495  0.01388  -0.01946  0.1701  0.4701
6.251e+09  -0.09197  0.8605  -0.005438  0.02081  -0.01657  0.02039  0.3993  0.4105
6.252e+09  0.2094  0.8556  0.00611  0.006597  -0.02495  0.02971  0.5403  0.2393
6.254e+09  0.5047  0.6642  0.02006  -0.003591  0.04465  -0.03402  0.6358  0.004049
6.255e+09  0.6863  0.5802  -0.0003203  0.009676  -0.008829  -0.001369  0.5469  -0.2429
6.256e+09  0.8052  0.2622  0.01634  -0.02006  -0.03624  -0.02952  0.4765  -0.4496
6.258e+09  0.8535  0.06773  -0.009228  0.0389  0.0529  -0.01983  0.2931  -0.5894
6.259e+09  0.7664  -0.3271  0.0477  -0.003136  0.001448  0.004429  0.004527  -0.6892
6.26e+09  0.6647  -0.5671  0.003071  -0.01363  -0.0318  0.01116  -0.2126  -0.6511
6.261e+09  0.4176  -0.7813  -0.02192  -0.001503  0.01418  -0.02516  -0.4473  -0.5627
6.262e+09  0.1287  -0.7986  -0.04498  -0.007173  -0.007242  -0.004586  -0.6118  -0.3503
6.264e+09  -0.2545  -0.8402  0.02266  0.0138  0.04154  -0.01102  -0.7077  -0.07198
6.265e+09  -0.4767  -0.7144  0.01746  0.004501  -0.02894  0.03182  -0.7127  0.1617
6.266e+09  -0.698  -0.4862  -0.009997  -0.00582  0.01214  -0.03665  -0.6153  0.412
6.268e+09  -0.7697  -0.2305  0.006383  -0.0256  -0.04301  0.03731  -0.4421  0.5899
6.269e+09  -0.812  0.06539  -0.003722  -0.0118  -0.06101  -0.03817  -0.1991  0.6858
6.27e+09  -0.79  0.3412  0.01149  -0.03026  0.02567  -0.06008  0.03779  0.7338
6.271e+09  -0.5705  0.5228  -0.02141  -0.03059  -0.03937  0.003741  0.3403  0.6487
6.272e+09  -0.3565  0.719  -0.02159  -0.01749  0.03749  0.02819  0.5639  0.5515
6.274e+09  -0.09957  0.8369  -0.005867  -0.02657  0.04012  -0.03033  0.7202  0.305
6.275e+09  0.2354  0.7941  0.004386  -0.01403  0.00383  0.01812  0.7491  0.02588
6.276e+09  0.4606  0.6549  -0.01143  0.05375  0.008745  -0.02423  0.7336  -0.238
6.278e+09  0.6505  0.4881  -0.01958  -0.02226  0.02355  0.01931  0.614  -0.4517
6.279e+09  0.8037  0.251  0.007353  0.01245  0.03599  0.01291  0.4497  -0.6505
6.28e+09  0.8348  -0.1022  0.02064  -0.00689  -0.02625  -0.03674  0.1688  -0.7581
6.281e+09  0.759  -0.3441  0.006988  -0.01579  -0.02963  0.03065  -0.1074  -0.7766
6.282e+09  0.589  -0.5549  0.001398  -0.01033  0.02126  0.03784  -0.3671  -0.6933
6.284e+09  0.3831  -0.686  -0.009026  -0.007154  0.02436  0.01474  -0.59  -0.5268
6.285e+09  0.04181  -0.8225  -0.02264  0.01219  0.003543  -0.01574  -0.7285  -0.2707
6.286e+09  -0.1751  -0.8168  -0.007318  -0.004089  -0.04305  -0.003874  -0.8051  -0.04012
6.288e+09  -0.5027  -0.6583  0.0009024  -0.01628  -0.02574  0.04481  -0.7432  0.2806
6.289e+09  -0.6902  -0.4679  -0.02115  0.01838  -0.048  0.003011  -0.6185  0.5034
6.29e+09  -0.7599  -0.1837  -0.02471  -0.01508  -0.01588  0.001156  -0.3821  0.7003
6.291e+09  -0.8384  0.05608  -0.0008431  -0.01024  -0.02304  -0.01055  -0.09574  0.7713
6.292e+09  -0.7357  0.4295  0.01611  -0.0225  -0.02329  0.006928  0.09412  0.796
6.294e+09  -0.5747  0.6157  0.02301  -0.0003261  -0.02189  0.003293  0.363  0.7307
6.295e+09  -0.3487  0.7985  -0.01786  -0.004189  -0.02183  0.03983  0.6329  0.5159
6.296e+09  -0.07888  0.8442  0.0003385  -0.01378  0.03736  -0.03466  0.7695  0.2863
6.298e+09  0.2331  0.7831  -0.01143  -0.03361  0.003868  -0.01716  0.8318  0.02516
6.299e+09  0.4471  0.6923  0.001368  0.003493  0.01528  -0.02494  0.7594  -0.2906
6.3e+09  0.7398  0.3912  0.006712  -0.01767  0.05094  0.01884  0.6587  -0.5172
6.301e+09  0.8008  0.2174  0.004803  -0.0214  0.0929  0.007475  0.4771  -0.7374
6.302e+09  0.8629  -0.09067  0.005203  0.0147  -0.02507  0.01433  0.1328  -0.8414
6.304e+09  0.7226  -0.366  -0.0059  -0.01539  -0.006581  0.02581  -0.1552  -0.8375
6.305e+09  0.5991  -0.5909  0.005737  0.03281  0.00892  0.01213  -0.4235  -0.7437
6.306e+09  0.2973  -0.7891  0.01721  0.01855  -0.04729  -0.02717  -0.6651  -0.5347
6.308e+09  -0.002604  -0.8466  -0.0148  -0.02001  0.02563  0.008187  -0.8195  -0.2866
6.309e+09  -0.2966  -0.7563  0.01157  -0.01706  0.008548  -0.01437  -0.8542  -0.02103
6.31e+09  -0.5091  -0.6598  -0.01037  0.0194  0.00873  -0.02571  -0.7941  0.2813
6.311e+09  -0.6874  -0.4408  0.006346  -0.01362  -0.005469  -0.01984  -0.6612  0.5703
6.312e+09  -0.7953  -0.1728  0.01025  -0.003402  -0.04126  -0.06781  -0.4375  0.7799
6.314e+09  -0.8552  0.1919  0.004089  0.02305  -0.03068  -0.01684  -0.1591  0.8162
6.315e+09  -0.7261  0.4818  -0.03012  0.03114  0.0274  0.03522  0.1516  0.8337
6.316e+09  -0.5293  0.6196  0.02309  -0.003647  -0.01349  -0.01251  0.41  0.7713
6.318e+09  -0.2737  0.804  -0.003241  -0.001791  -0.01753  -0.01279  0.6539  0.6033
6.319e+09  0.007801  0.8675  -0.002245  -0.008248  -0.005054  0.03004  0.8529  0.3204
6.32e+09  0.295  0.8324  0.02819  0.00094  0.02106  0.03763  0.8591  0.01849
6.321e+09  0.5914  0.6901  0.01974  0.01116  -0.03492  0.04907  0.8628  -0.2545
6.322e+09  0.7871  0.4015  0.01467  -0.02661  0.02483  0.01248  0.672  -0.526
6.324e+09  0.8544  0.1512  -0.0344  0.0095  0.02773  -0.02649  0.4662  -0.7588
6.325e+09  0.8297  -0.2102  -0.0153  0.01959  -0.009999  0.003254  0.171  -0.8832
6.326e+09  0.742  -0.4683  -0.01616  -0.00927  -0.01215  -0.02929  -0.1539  -0.8841
6.328e+09  0.4618  -0.6992  -0.006274  -0.0372  -0.06484  -0.02586  -0.4305  -0.791
6.329e+09  0.1959  -0.8608  -0.01418  -0.001686  -0.02827  -0.006985  -0.6628  -0.5848
6.33e+09  -0.01599  -0.8638  0.00515  -0.01887  0.0338  -0.01123  -0.8451  -0.3232
6.331e+09  -0.357  -0.7909  0.0009764  -0.005681  0.05439  -0.01613  -0.9031  -0.0419
6.332e+09  -0.6315  -0.6207  0.0008596  0.007043  -0.03313  -0.002387  -0.9034  0.2801
6.334e+09  -0.7908  -0.3941  -8.103e-05  0.008374  -0.006571  -0.01013  -0.7278  0.5574
6.335e+09  -0.8589  -0.1198  -0.0002393  0.001107  0.04588  0.02126  -0.4798  0.7582
6.336e+09  -0.8393  0.2775  -0.01899  -0.01168  -0.01342  -0.03802  -0.1914  0.9114
6.338e+09  -0.7229  0.5479  -0.0005643  0.0134  0.04266  0.03847  0.09964  0.9122
6.339e+09  -0.4429  0.7534  -0.03602  -0.01222  -0.02499  -0.02198  0.4239  0.7976
6.34e+09  -0.1692  0.8211  0.00301  0.01022  0.02593  0.06513  0.702  0.6266
6.341e+09  0.1466  0.8858  -0.01062  -0.0007956  -0.06306  0.00803  0.842  0.3537
6.342e+09  0.3998  0.8371  0.003603  -0.03073  -0.01731  -0.009268  0.9437  0.06788
6.344e+09  0.6417  0.5382  -0.02842  -0.007931  -0.01162  0.02476  0.8831  -0.2835
6.345e+09  0.8281  0.3748  0.01447  0.009109  -0.01285  0.01474  0.7479  -0.5768
6.346e+09  0.8977  0.0436  -0.002573  -0.002849  -0.0336  -0.01508  0.5174  -0.786
6.348e+09  0.7979  -0.3608  -0.01024  -0.01541  0.02701  -0.007107  0.246  -0.9271
6.349e+09  0.6715  -0.5796  -0.01264  0.003389  -0.007762  0.04276  -0.1115  -0.948
6.35e+09  0.4318  -0.7767  0.03143  -0.03484  -0.03401  0.02402  -0.4028  -0.8629
6.351e+09  0.1451  -0.8736  0.002352  0.02898  -0.06929  -0.04142  -0.6711  -0.622
6.352e+09  -0.1617  -0.8503  -0.007301  -0.01686  -0.04536  -0.01685  -0.9044  -0.3329
6.354e+09  -0.4448  -0.7475  -0.004187  -0.0001348  0.02701  -0.08837  -0.9301  -0.02425
6.355e+09  -0.6663  -0.5594  0.005121  -0.06889  0.03981  -0.05526  -0.9234  0.2479
6.356e+09  -0.8495  -0.245  0.02945  0.008523  -0.01213  -0.05651  -0.7145  0.5554
6.358e+09  -0.8792  0.0892  -0.02618  0.02847  -0.0006216  -0.005021  -0.5103  0.7632
6.359e+09  -0.8093  0.3493  -0.00377  0.03158  -0.006852  -0.004428  -0.2114  0.8808
6.36e+09  -0.6511  0.6138  -0.01599  -0.005561  -0.005714  0.007558  0.1573  0.9424
6.361e+09  -0.3738  0.7959  0.01855  -0.01767  -0.01071  0.01442  0.4034  0.8609
6.362e+09  -0.0741  0.8924  0.01757  -0.02443  -0.03142  0.03192  0.6699  0.7072
6.364e+09  0.2291  0.8558  -0.01008  -0.01516  -0.0318  0.009736  0.8479  0.395
6.365e+09  0.5078  0.715  0.03372  -0.01557  0.02085  0.003148  0.9631  0.04099
6.366e+09  0.7422  0.5239  0.001939  -0.04078  0.01531  0.01306  0.8861  -0.2238
6.368e+09  0.8706  0.2387  0.01683  0.00673  0.002877  -0.02315  0.7583  -0.5419
6.369e+09  0.8787  -0.09802  -0.01343  0.004765  0.028  0.04716  0.5005  -0.7857
6.37e+09  0.813  -0.411  0.009259  0.009818  -0.02826  0.03494  0.2265  -0.916
6.371e+09  0.5999  -0.7043  -0.008355  -0.01434  0.01627  0.0122  -0.03656  -0.9773
6.372e+09  0.3341  -0.8013  0.01002  -0.03287  0.008241  -0.03981  -0.3786  -0.8889
6.374e+09  0.026  -0.8762  0.04428  0.03484  0.005716  -0.03598  -0.675  -0.674
6.375e+09  -0.2591  -0.865  -0.02415  -0.01871  0.01531  0.04235  -0.8925  -0.4149
6.376e+09  -0.5417  -0.6489  -0.01128  -0.011  -0.01006  -0.0002366  -0.9396  -0.08975
6.378e+09  -0.7634  -0.4395  -0.001353  0.02887  0.03405  -0.01621  -0.918  0.2273
6.379e+09  -0.8581  -0.195  0.02893  0.008584  0.00182  0.0313  -0.7722  0.499
6.38e+09  -0.9163  0.1637  -0.02012  -0.05165  0.02754  -0.009952  -0.5291  0.7474
6.381e+09  -0.763  0.4753  -0.01558  -0.01248  0.01992  -0.008919  -0.2451  0.9181
6.382e+09  -0.5714  0.6849  -0.018  -0.01131  -0.01998  0.004616  0.05195  0.9432
6.384e+09  -0.2733  0.8879  -0.05521  -0.01341  -0.03101  -0.01054  0.36  0.8656
6.385e+09  0.007872  0.9116  0.02868  -0.01654  -0.01338  -0.05951  0.6385  0.7245
6.386e+09  0.326  0.875  0.01388  -0.01028  -0.02694  0.009348  0.8389  0.4049
6.388e+09  0.5818  0.6912  -0.04751  0.0001894  -0.003374  -0.01502  0.9526  0.1392
6.389e+09  0.7679  0.4019  -0.02184  -0.0006219  -0.03979  0.01156  0.9244  -0.17
6.39e+09  0.8751  0.1368  0.0006473  0.005659  -0.02476  0.06228  0.8237  -0.5181
6.391e+09  0.831  -0.1488  0.01173  -0.03876  0.002204  -0.002284  0.5495  -0.7503
6.392e+09  0.6956  -0.4849  0.02542  0.02174  0.002168  0.03079  0.3015  -0.9277
6.394e+09  0.6033  -0.7033  -0.01074  -0.02842  -0.04584  -0.01426  -0.0334  -0.9209
6.395e+09  0.2803  -0.8729  -0.001604  0.05566  -0.00115  -0.001785  -0.3396  -0.8856
6.396e+09  -0.07207  -0.9057  -0.01889  0.03154  0.03621  -0.01438  -0.5883  -0.7231
6.398e+09  -0.373  -0.8338  0.01684  -0.001056  -0.01483  0.02742  -0.7842  -0.4394
6.399e+09  -0.624  -0.6179  -0.02717  0.01648  0.003718  -0.01263  -0.9064  -0.1475
6.4e+09  -0.8141  -0.4208  -0.004587  -0.02084  -0.001671  0.02701  -0.9098  0.1706
6.401e+09  -0.8662  -0.06246  -0.01573  0.006215  0.01777  -0.008393  -0.8144  0.4575
6.402e+09  -0.8479  0.18  0.02109  -0.005725  0.01419  -0.01675  -0.5818  0.71
6.404e+09  -0.7482  0.5142  0.01884  0.01279  0.01582  -0.01224  -0.337  0.8738
6.405e+09  -0.5254  0.6805  -0.0182  -0.02134  -0.008675  -0.04316  -0.03759  0.9297
6.406e+09  -0.2602  0.8671  0.01477  -0.009081  0.03031  0.02691  0.3109  0.8889
6.408e+09  0.06008  0.8688  -0.02994  0.0131  0.008372  -0.04315  0.6178  0.7069
6.409e+09  0.3634  0.8154  0.03344  0.07437  0.05697  -0.01596  0.7478  0.4442
6.41e+09  0.5967  0.5885  0.0227  0.005059  -0.008482  0.00526  0.9474  0.1995
6.411e+09  0.8069  0.3856  0.01227  -0.01494  -0.01352  0.02634  0.9177  -0.1719
6.412e+09  0.9415  0.09901  0.00191  0.02943  0.05862  -0.009713  0.8085  -0.444
6.414e+09  0.8503  -0.1904  0.02538  -0.02562  0.02458  0.006517  0.6045  -0.6767
6.415e+09  0.71  -0.4929  0.01084  -0.004824  -0.02287  -0.02627  0.3268  -0.8582
6.416e+09  0.506  -0.7543  0.002918  -0.05237  -0.02492  0.01871  0.05523  -0.934
6.418e+09  0.1653  -0.8187  0.02706  -0.01473  0.03454  0.009472  -0.3214  -0.8406
6.419e+09  -0.1365  -0.8986  0.006606  0.01826  -0.001641  0.009623  -0.5477  -0.6935
6.42e+09  -0.4059  -0.7711  -0.05002  0.002102  -0.005668  0.01651  -0.7616  -0.4587
6.421e+09  -0.6015  -0.6568  -0.01924  -0.05529  -0.003188  -0.01043  -0.9252  -0.1552
6.422e+09  -0.8301  -0.3646  0.01544  -0.0261  -0.009521  0.01532  -0.931  0.06569
6.424e+09  -0.8581  -0.0744  -0.06264  -0.0008162  0.006854  -0.005902  -0.7982  0.4011
6.425e+09  -0.7994  0.292  -0.002832  0.01236  0.02144  0.004072  -0.5946  0.6367
6.426e+09  -0.702  0.5318  0.01628  0.01546  -0.003318  -0.002645  -0.3317  0.8079
6.428e+09  -0.481  0.7466  -0.04649  0.03691  0.0516  0.01801  -0.06475  0.8691
6.429e+09  -0.2348  0.8884  0.0213  -0.05629  -0.01082  -0.01782  0.2179  0.8728
6.43e+09  0.1078  0.907  -0.002255  -0.007654  -0.004967  -0.003779  0.5087  0.7323
6.431e+09  0.4058  0.7649  -0.01317  0.00442  0.02301  -0.03029  0.7563  0.5092
6.432e+09  0.6675  0.6275  -0.002679  0.01713  0.04229  0.01734  0.8716  0.2417
6.434e+09  0.7964  0.3556  -0.01319  -0.02149  0.02231  0.03535  0.8968  -0.1103
6.435e+09  0.8932  0.05099  -0.02103  -0.01155  0.01333  0.01671  0.7926  -0.3733
6.436e+09  0.8463  -0.2855  -0.02923  -0.04232  0.01813  -0.02662  0.6024  -0.5811
6.438e+09  0.7001  -0.5756  -0.03605  0.001172  0.03426  -0.02668  0.3176  -0.8225
6.439e+09  0.523  -0.7455  -0.03038  0.01088  0.02461  0.01272  0.08721  -0.8588
6.44e+09  0.2635  -0.8978  -0.004684  0.03781  0.03097  -0.02024  -0.2171  -0.8314
6.441e+09  -0.09787  -0.8679  -0.01314  -0.009082  -0.004424  0.01352  -0.5079  -0.7088
6.442e+09  -0.3849  -0.7741  -0.04291  0.01807  0.008819  -0.04679  -0.7212  -0.4777
6.444e+09  -0.6365  -0.5337  0.03398  -0.001152  0.003881  -0.000452  -0.9082  -0.2327
6.445e+09  -0.8241  -0.3336  -0.009503  0.005609  0.008472  -0.03314  -0.8409  0.08523
6.446e+09  -0.8601  -0.007091  0.01135  -0.01247  -0.02574  -0.0217  -0.7449  0.3874
6.448e+09  -0.8155  0.301  -0.0006384  -0.01854  0.01275  0.001324  -0.5826  0.6016
6.449e+09  -0.7248  0.4972  -0.03467  -0.005611  -0.03057  -0.02044  -0.3597  0.7471
6.45e+09  -0.4424  0.6822  0.02554  0.00847  -0.01827  -0.007106  -0.1185  0.8228
6.451e+09  -0.1847  0.8184  0.009295  -0.01088  0.01547  -0.002341  0.2011  0.7921
6.452e+09  0.1223  0.8629  -0.01449  -0.01047  0.001206  -0.008053  0.4861  0.6793
6.454e+09  0.4541  0.7946  0.04811  0.004654  0.02399  -0.04075  0.6734  0.4602
6.455e+09  0.6625  0.6335  -0.0282  -0.001854  -0.01102  0.01316  0.8121  0.184
6.456e+09  0.8518  0.3383  -0.003013  0.03685  0.002597  0.03012  0.8481  -0.07266
6.458e+09  0.9099  0.044  0.01483  -0.002076  -0.02044  0.04142  0.7522  -0.3082
6.459e+09  0.8464  -0.2976  0.02562  0.02917  0.003749  1.258e-05  0.5804  -0.5789
6.46e+09  0.7709  -0.5478  0.02141  -0.01166  0.003899  0.009339  0.3699  -0.7175
6.461e+09  0.5103  -0.7242  -0.004905  -0.01094  0.01174  -0.00521  0.06183  -0.7738
6.462e+09  0.2139  -0.8617  0.002148  0.009674  0.02388  -0.008135  -0.2028  -0.7568
6.464e+09  -0.1228  -0.8811  0.01644  0.01913  0.02681  -0.01181  -0.4895  -0.6429
6.465e+09  -0.3779  -0.8019  0.01164  -0.02469  0.0008881  0.01235  -0.6299  -0.4543
6.466e+09  -0.6768  -0.601  -0.009758  0.006324  -0.03166  -0.05156  -0.797  -0.1913
6.468e+09  -0.8594  -0.3651  0.03154  -0.007756  0.01358  0.02013  -0.8021  0.1014
6.469e+09  -0.9347  -0.02566  -0.03581  -0.00166  0.04124  0.02031  -0.7162  0.3173
6.47e+09  -0.8225  0.2825  -0.02771  -0.001935  -0.01674  0.01682  -0.569  0.5821
6.471e+09  -0.7179  0.5485  0.007123  -0.0206  -0.04607  0.003903  -0.3522  0.7256
6.472e+09  -0.4369  0.7797  0.01382  -0.01134  0.05408  0.04509  -0.07042  0.7786
6.474e+09  -0.1552  0.8964  0.02823  0.02522  -0.03327  -0.002828  0.1867  0.7133
6.475e+09  0.1694  0.9052  0.01849  0.02001  0.03337  0.01203  0.5207  0.6337
6.476e+09  0.4135  0.8452  -0.001016  0.02154  0.01378  -0.01412  0.6598  0.4491
6.478e+09  0.6876  0.6116  -0.009926  0.02969  0.003379  -0.02748  0.7273  0.1705
6.479e+09  0.8928  0.3096  -0.02557  0.003336  0.01365  0.003752  0.7525  -0.02828
6.48e+09  0.8881  0.02227  -0.007936  -0.0009413  -0.001438  0.01038  0.6579  -0.384
6.481e+09  0.8514  -0.2481  0.04158  -0.01962  -0.007975  0.03478  0.4931  -0.5713
6.482e+09  0.7035  -0.5563  -0.005094  -0.009046  0.03394  -0.05374  0.3365  -0.7371
6.484e+09  0.4524  -0.7336  -0.03082  0.04622  -0.03318  0.0004182  0.00943  -0.7762
6.485e+09  0.1292  -0.9062  0.02246  -0.01007  -0.01413  -0.02058  -0.1955  -0.8181
6.486e+09  -0.1683  -0.924  0.03168  0.03201  0.01786  -0.003912  -0.3881  -0.6696
6.488e+09  -0.4946  -0.8066  0.02362  -0.01205  -0.03475  0.02245  -0.6311  -0.4242
6.489e+09  -0.7232  -0.6065  -0.007011  0.001714  -0.01073  0.03895  -0.7588  -0.1719
6.49e+09  -0.8606  -0.2946  0.01181  -0.01313  0.01124  -0.01864  -0.7512  0.07734
6.491e+09  -0.8869  0.01861  0.03251  0.01324  0.01679  0.03372  -0.7091  0.3813
6.492e+09  -0.8208  0.3487  -0.008805  0.02017  -0.03548  0.03329  -0.5584  0.5564
6.494e+09  -0.6546  0.6232  -0.006479  0.02916  0.05355  -0.02075  -0.3151  0.718
6.495e+09  -0.4188  0.8004  0.003341  -0.003834  -0.04024  -0.04084  -0.05614  0.764
6.496e+09  -0.161  0.9286  0.02306  -0.009112  0.04446  0.0002925  0.2734  0.7168
6.498e+09  0.1544  0.8801  0.06925  0.01785  0.01836  0.03193  0.4225  0.6065
6.499e+09  0.5062  0.7733  -0.02926  0.01915  -0.06017  0.04265  0.6796  0.4076
6.5e+09  0.6927  0.5626  -0.02236  0.03174  0.005264  0.0135  0.7369  0.1754
6.501e+09  0.8837  0.2678  -0.005395  0.01247  -0.01862  0.009175  0.7517  -0.1098
6.502e+09  0.8842  -0.03848  -0.002238  -0.03331  0.03406  -0.01777  0.7101  -0.3539
6.504e+09  0.8732  -0.3116  0.004228  -0.01758  -0.003888  -0.005326  0.5299  -0.5326
6.505e+09  0.6862  -0.6408  0.01301  0.02712  -0.004544  0.04164  0.2729  -0.683
6.506e+09  0.4103  -0.8649  0.004647  -0.00367  -0.02095  0.01104  0.0286  -0.7949
6.508e+09  0.1408  -0.9305  0.002584  -0.01417  0.03184  -0.01619  -0.247  -0.7399
6.509e+09  -0.214  -0.866  -0.004875  0.0008413  0.0188  -0.003688  -0.4664  -0.5786
6.51e+09  -0.5504  -0.816  0.01584  0.02594  -0.02875  -0.006206  -0.6296  -0.3981
6.511e+09  -0.7773  -0.5653  0.001595  0.008587  0.03621  0.02015  -0.7646  -0.1589
6.512e+09  -0.9186  -0.274  0.01595  0.01645  0.009216  -0.02531  -0.7509  0.1029
6.514e+09  -0.9323  0.08566  -0.01837  0.03059  -0.06999  -0.06335  -0.6529  0.3736
6.515e+09  -0.8629  0.382  -0.01436  -0.03387  -0.006106  -0.01322  -0.4747  0.5477
6.516e+09  -0.7505  0.6738  0.01519  0.01073  -0.02318  0.022  -0.2782  0.7094
6.518e+09  -0.4077  0.8668  0.005862  -0.007303  0.04395  0.001522  0.02792  0.7162
6.519e+09  -0.1136  1.004  -0.02758  0.02141  -0.03881  0.0344  0.2432  0.7009
6.52e+09  0.2695  0.9394  0.01316  0.01818  -0.02581  0.03505  0.4555  0.544
6.521e+09  0.5184  0.7721  0.002521  0.04079  -0.03083  0.01423  0.6293  0.326
6.522e+09  0.7973  0.5324  0.02808  -0.02662  0.05684  -0.006216  0.7161  0.1074
6.524e+09  0.9268  0.2199  -0.00131  -0.02274  0.004052  -0.001636  0.6994  -0.1534
6.525e+09  0.9442  -0.1505  -0.03404  0.008049  0.002975  0.02791  0.603  -0.3768
6.526e+09  0.8527  -0.4657  -0.02847  -0.000498  0.003545  0.01228  0.4524  -0.5928
6.528e+09  0.6614  -0.7383  -0.02647  -0.02496  0.01068  -0.01346  0.2132  -0.6951
6.529e+09  0.3032  -0.9133  -0.001504  -0.01088  0.02042  -0.004587  -0.06892  -0.6961
6.53e+09  -0.02598  -0.9467  -0.004317  0.02799  0.01344  0.01319  -0.259  -0.5764
6.531e+09  -0.3094  -0.9316  0.02673  0.01071  0.003991  -0.07164  -0.448  -0.4834
6.532e+09  -0.6058  -0.7391  -0.002274  0.01648  0.02403  0.0391  -0.6097  -0.2757
6.534e+09  -0.8479  -0.4427  0.02259  -0.01444  -0.01283  0.05213  -0.6346  -0.05505
6.535e+09  -0.94  -0.1595  -0.003925  -0.003031  0.009604  -0.00973  -0.6167  0.1262
6.536e+09  -0.9639  0.1474  0.003014  -0.01581  0.03072  0.03198  -0.5508  0.3236
6.538e+09  -0.8439  0.5069  -0.01671  0.02253  -0.0301  -0.04005  -0.4405  0.4648
6.539e+09  -0.6017  0.7716  0.002045  0.009664  0.06913  0.05163  -0.2854  0.6376
6.54e+09  -0.2709  0.9049  -0.02778  0.00511  -0.008641  -0.001559  -0.05302  0.6756
6.541e+09  0.01454  1.015  0.006238  -0.001712  0.01399  -0.03671  0.1646  0.6412
6.542e+09  0.4289  0.8852  -0.004511  -0.004291  0.01654  -0.03754  0.3961  0.5944
6.544e+09  0.6507  0.7309  0.005211  -0.005864  -0.01015  -0.06272  0.577  0.3743
6.545e+09  0.8466  0.5022  -0.02135  0.02678  -0.01783  0.02682  0.7005  0.1842
6.546e+09  0.9536  0.08753  -0.02798  -0.01334  0.0106  -0.01806  0.7121  -0.1293
6.548e+09  0.9549  -0.274  -0.001989  0.02987  0.02649  0.0585  0.6301  -0.3122
6.549e+09  0.8403  -0.5087  -0.01757  -0.006497  0.002767  0.006126  0.5355  -0.5388
6.55e+09  0.5035  -0.8083  -0.02836  -0.04508  -0.00571  0.03541  0.3004  -0.7362
