# Hz S RI R 50
6.25e+09  -0.3927  0.7514  0.00921  -0.02595  -0.02642  -0.003262  0.1783  0.4695
6.251e+09  -0.1121  0.8577  -0.00236  0.02135  0.05056  -0.007648  0.3769  0.4039
6.252e+09  0.1834  0.8723  -0.018  0.02445  0.02232  -0.002058  0.5245  0.2795
6.254e+09  0.4922  0.7417  0.01691  -0.01749  0.01312  -0.009014  0.5932  0.005927
6.255e+09  0.6922  0.5311  0.02022  0.004399  0.02204  -0.01399  0.5969  -0.2703
6.256e+09  0.8012  0.2085  0.001555  0.003373  -0.02205  0.02314  0.4749  -0.4701
6.258e+09  0.85  -0.03166  0.001126  -0.0007308  -0.01312  -0.08961  0.2698  -0.6083
6.259e+09  0.729  -0.345  -0.03129  0.01775  -0.02106  0.04808  0.0332  -0.6733
6.26e+09  0.5912  -0.527  0.01515  -0.03887  0.009822  0.01759  -0.2326  -0.641
6.261e+09  0.4273  -0.7686  0.001952  -0.00801  0.03991  -0.05227  -0.4463  -0.5437
6.262e+09  0.08702  -0.8438  0.01013  0.004981  -0.01139  0.002754  -0.601  -0.3508
6.264e+09  -0.2537  -0.7938  -0.001658  0.0003685  -0.006357  0.07561  -0.7104  -0.08044
6.265e+09  -0.4697  -0.683  -0.02354  -0.02804  0.05571  -0.0306  -0.708  0.1605
6.266e+09  -0.6562  -0.5291  0.01826  -0.009392  0.02922  -0.01415  -0.6158  0.4061
6.268e+09  -0.8504  -0.2699  -0.02417  -0.0194  0.01136  -0.008854  -0.4289  0.5681
6.269e+09  -0.7974  0.06457  -0.02393  0.02684  0.07134  -0.02148  -0.2089  0.7096
6.27e+09  -0.7671  0.3225  7.055e-05  -0.004463  -0.01966  0.03009  0.08264  0.7399
6.271e+09  -0.5893  0.5889  0.05689  0.02922  -0.02107  -0.03183  0.343  0.675
6.272e+09  -0.3903  0.7558  0.004459  0.01668  -0.02576  0.03068  0.5466  0.5122
6.274e+09  -0.05982  0.8304  -0.03103  -0.04246  -0.006858  -0.006619  0.6632  0.289
6.275e+09  0.1564  0.747  0.0001002  0.01763  0.01956  0.005134  0.7619  0.02482
6.276e+09  0.5103  0.6682  -0.00965  0.01321  0.04351  -0.002285  0.7044  -0.1944
6.278e+09  0.7353  0.4477  0.01765  -0.02648  -0.004774  -0.02198  0.59  -0.4294
6.279e+09  0.8275  0.2584  -0.01292  0.01129  -0.01942  0.04513  0.4062  -0.674
6.28e+09  0.845  -0.0664  0.003835  0.000531  -0.000166  0.000966  0.1826  -0.7384
6.281e+09  0.7485  -0.3494  -0.03133  -0.01604  -0.004353  0.004037  -0.1127  -0.7581
6.282e+09  0.6515  -0.5852  -0.01698  0.01662  0.008323  0.006879  -0.3682  -0.6774
6.284e+09  0.3562  -0.7395  -0.03531  0.0008394  0.02157  0.01152  -0.5979  -0.548
6.285e+09  0.02547  -0.8821  0.004725  -0.00839  -0.006131  -0.03227  -0.7173  -0.2675
6.286e+09  -0.1772  -0.8103  -0.03884  0.01654  0.03612  -0.02074  -0.7709  -0.004148
6.288e+09  -0.5238  -0.6642  0.001915  -0.02066  -0.003612  0.06023  -0.7414  0.2664
6.289e+09  -0.6801  -0.4383  -0.01164  0.0006205  -0.03928  0.01241  -0.6224  0.4725
6.29e+09  -0.7967  -0.2058  0.01222  -0.001784  0.05471  -0.01597  -0.4004  0.6778
6.291e+09  -0.8074  0.1351  0.02821  -0.03045  0.02537  -0.01258  -0.1484  0.8094
6.292e+09  -0.7372  0.3852  -0.002004  0.0105  -0.02479  0.01557  0.09881  0.8238
6.294e+09  -0.5467  0.5727  0.01579  0.01709  0.02572  0.01193  0.4062  0.7214
6.295e+09  -0.3049  0.7244  0.01663  0.01462  0.009241  -0.01093  0.5995  0.5144
6.296e+09  -0.006257  0.834  0.01662  -0.02112  0.009995  -0.005743  0.7614  0.3076
6.298e+09  0.2591  0.8253  -0.01055  -0.01016  -0.007449  0.01325  0.8362  0.01741
6.299e+09  0.5082  0.6272  -0.008123  -0.008543  -0.02816  -0.0175  0.8049  -0.261
6.3e+09  0.7098  0.4609  0.01971  -0.005303  -0.018  0.05839  0.6215  -0.5139
6.301e+09  0.8449  0.147  0.03857  -0.01836  -0.0308  0.09106  0.4482  -0.7424
6.302e+09  0.8615  -0.1348  0.02317  -0.003123  -0.01268  0.01255  0.153  -0.7993
6.304e+09  0.7429  -0.3832  -0.01101  -0.003076  0.05865  0.03104  -0.1294  -0.787
6.305e+09  0.5166  -0.663  -0.001517  -0.01716  -0.01999  -0.05341  -0.4001  -0.7587
6.306e+09  0.2442  -0.7689  0.02723  0.02123  0.005643  0.002548  -0.6645  -0.5686
6.308e+09  -0.005352  -0.8678  -0.001975  0.007535  0.009149  -0.02525  -0.7795  -0.2982
6.309e+09  -0.2888  -0.7948  -0.00944  -0.01176  -0.008429  -0.00739  -0.8739  -0.02029
6.31e+09  -0.5667  -0.6432  -0.0009059  0.01092  0.02967  0.00211  -0.8247  0.3075
6.311e+09  -0.7445  -0.4339  0.03822  -0.01722  0.03818  -0.02454  -0.6881  0.558
6.312e+09  -0.7936  -0.1393  -0.005406  0.02086  0.02767  0.02103  -0.4544  0.7692
6.314e+09  -0.8486  0.1186  0.007108  -0.01654  -0.009227  -0.03843  -0.1722  0.8622
6.315e+09  -0.7024  0.3999  0.0164  -0.00544  -0.0218  0.008661  0.1386  0.8641
6.316e+09  -0.5105  0.6657  0.01073  0.02786  -0.05787  0.02526  0.4612  0.7653
6.318e+09  -0.2594  0.7926  -0.05288  -0.02294  -0.009268  -0.007777  0.6562  0.5805
6.319e+09  0.06198  0.8556  -0.01084  -0.003862  -0.01838  0.02604  0.8503  0.3244
6.32e+09  0.3117  0.7906  -0.008684  0.005108  0.02479  0.01176  0.8836  -0.0005076
6.321e+09  0.634  0.5678  0.004931  -0.02417  0.02743  0.01294  0.8272  -0.2905
6.322e+09  0.7856  0.3994  0.01757  -0.009481  -0.06034  0.007771  0.7118  -0.5893
6.324e+09  0.8519  0.07177  -0.01405  -0.005281  0.02891  0.002463  0.4627  -0.7778
6.325e+09  0.825  -0.2058  -0.02678  -0.007332  -0.005871  -0.005815  0.2083  -0.9174
6.326e+09  0.6769  -0.5272  0.0008957  0.04116  -0.02656  -0.0006806  -0.1457  -0.889
6.328e+09  0.4937  -0.7027  -0.01907  -0.02247  -0.03272  -0.01247  -0.4425  -0.7942
6.329e+09  0.2209  -0.8112  -0.01221  -0.003902  0.0211  -0.04704  -0.6869  -0.6061
6.33e+09  -0.09909  -0.869  0.0276  -0.00927  0.0309  0.01355  -0.8379  -0.3647
6.331e+09  -0.394  -0.776  -0.0001612  -0.02106  0.02074  0.0167  -0.8969  -0.001215
6.332e+09  -0.5995  -0.6561  -0.005161  0.03544  0.008976  0.03966  -0.863  0.2872
6.334e+09  -0.7968  -0.3472  0.01211  -0.006958  0.01043  0.006477  -0.7856  0.6003
6.335e+09  -0.8676  -0.0006004  0.007541  0.009313  -0.0007937  0.01805  -0.4633  0.7835
6.336e+09  -0.833  0.2585  0.007684  0.003513  -0.02747  -0.008083  -0.1994  0.898
6.338e+09  -0.7079  0.5664  0.03814  -0.02246  -0.0009162  0.04985  0.1384  0.9025
6.339e+09  -0.4436  0.7453  -0.01547  0.05108  0.01293  0.02733  0.4314  0.8049
6.34e+09  -0.1779  0.8574  -0.004567  -0.01691  0.005781  0.008341  0.6864  0.6396
6.341e+09  0.131  0.8331  0.009925  0.002224  -0.01861  -0.01956  0.8317  0.398
6.342e+09  0.41  0.7511  0.003022  -0.01426  -0.01295  -0.04417  0.9035  0.01994
6.344e+09  0.6839  0.6166  0.03498  0.008057  0.006867  0.02662  0.8823  -0.2558
6.345e+09  0.8318  0.3037  -0.007932  -0.02514  -0.003416  0.02043  0.7546  -0.5712
6.346e+09  0.8577  0.00496  -0.004282  -0.04852  -0.04865  -0.02134  0.4944  -0.7682
6.348e+09  0.835  -0.3415  -0.0314  -0.01313  0.02891  0.02378  0.2059  -0.9614
6.349e+09  0.6598  -0.5569  0.02746  -0.002857  -0.005979  0.00876  -0.1146  -0.9346
6.35e+09  0.4224  -0.8107  -0.02483  -0.003426  -0.03192  0.004402  -0.3986  -0.8011
6.351e+09  0.1514  -0.8379  0.00373  0.02536  -0.04536  0.04477  -0.6942  -0.6539
6.352e+09  -0.2104  -0.882  0.007792  0.005434  0.03045  -0.007999  -0.8854  -0.3861
6.354e+09  -0.5426  -0.7506  0.002796  0.0253  -0.02048  0.008897  -0.9616  -0.07221
6.355e+09  -0.7323  -0.5431  0.03053  -0.01279  -0.01848  0.007864  -0.9174  0.2571
6.356e+09  -0.8613  -0.2745  0.02587  -0.003549  0.04462  0.02028  -0.7224  0.5483
6.358e+09  -0.8833  0.109  0.02133  -0.02644  0.02333  -0.03472  -0.5584  0.7787
6.359e+09  -0.8324  0.3865  0.01424  -0.01309  -0.01247  -0.02796  -0.2367  0.9209
6.36e+09  -0.6294  0.6439  -0.03334  -0.04662  -0.03565  0.03497  0.129  0.907
6.361e+09  -0.3778  0.8157  0.008296  -0.01322  -0.01748  0.003269  0.3946  0.834
6.362e+09  -0.02513  0.9044  -0.005632  0.01551  0.006626  0.02567  0.7083  0.6685
6.364e+09  0.2639  0.8162  -0.01779  -0.01141  0.05054  0.02534  0.8344  0.4273
6.365e+09  0.5407  0.7242  -0.01843  -0.003699  0.005119  0.01225  0.9373  0.07211
6.366e+09  0.7566  0.5102  0.01373  0.005753  -0.001022  -0.001404  0.8948  -0.2261
6.368e+09  0.8766  0.1443  -0.005193  -0.001187  -0.01029  0.02486  0.7785  -0.5029
6.369e+09  0.9038  -0.146  -0.008149  0.02407  -0.01762  -0.01014  0.5321  -0.7499
6.37e+09  0.7885  -0.4032  -0.02071  0.02136  -0.02349  -0.004524  0.2938  -0.9481
6.371e+09  0.5941  -0.6536  -0.01384  0.02113  0.039  0.006847  -0.06868  -0.9408
6.372e+09  0.3233  -0.8107  0.01089  -0.04299  0.007222  0.06591  -0.4115  -0.8684
6.374e+09  0.06618  -0.9002  3.008e-05  -0.03235  -0.03588  -0.004142  -0.6692  -0.6493
6.375e+09  -0.2898  -0.8554  0.0001319  -0.01781  0.003874  0.05267  -0.8501  -0.3962
6.376e+09  -0.6015  -0.6686  -0.01317  0.003999  0.02141  0.01088  -0.9568  -0.1227
6.378e+09  -0.791  -0.428  0.02705  0.009622  -0.008271  0.0222  -0.9514  0.2201
6.379e+09  -0.8957  -0.1994  0.008489  0.01717  0.04402  -0.002463  -0.7819  0.4995
6.38e+09  -0.8438  0.1349  -0.008262  0.03733  0.05217  0.02775  -0.583  0.7529
6.381e+09  -0.7961  0.4862  0.02941  0.008756  -0.02429  -0.01197  -0.2285  0.8997
6.382e+09  -0.5615  0.6974  -0.009046  0.005358  0.01137  -0.01274  0.06185  0.9336
6.384e+09  -0.2967  0.8054  -0.01588  -0.01131  0.00608  -0.006643  0.3733  0.8479
6.385e+09  -0.02654  0.8665  -0.03577  -0.02803  -0.008019  -0.03159  0.661  0.692
6.386e+09  0.3036  0.838  0.01249  -0.01465  -0.009813  -0.0363  0.8351  0.4259
6.388e+09  0.6149  0.6625  -0.01566  0.0009512  0.04248  -0.01065  0.9205  0.1321
6.389e+09  0.7992  0.4363  0.0005199  0.01286  0.02133  0.01081  0.928  -0.2069
6.39e+09  0.8622  0.0835  0.04468  0.05955  0.0224  0.02334  0.7851  -0.5058
6.391e+09  0.9158  -0.1707  0.01869  0.002591  0.02643  0.04547  0.5624  -0.7404
6.392e+09  0.7662  -0.4928  0.003877  0.0139  -0.00768  0.003143  0.2633  -0.9015
6.394e+09  0.5417  -0.6592  0.01671  0.04116  -0.01097  0.02881  -0.01026  -0.8962
6.395e+09  0.2658  -0.8946  -0.006468  0.02631  0.003875  -0.01548  -0.3556  -0.8235
6.396e+09  -0.06031  -0.9341  0.01327  0.0174  -0.00209  -0.004334  -0.6077  -0.6679
6.398e+09  -0.3605  -0.8358  -0.1012  0.02011  0.04256  -0.003342  -0.792  -0.4306
6.399e+09  -0.592  -0.6509  0.03517  -0.01376  0.03786  0.0463  -0.8809  -0.1392
6.4e+09  -0.8008  -0.3874  0.005233  0.003762  0.01118  0.04265  -0.8933  0.1216
6.401e+09  -0.9035  -0.09427  0.001946  0.01051  0.02544  -0.01213  -0.7986  0.4736
6.402e+09  -0.8707  0.2245  0.04338  -0.0001682  -0.02069  -0.01481  -0.5424  0.6959
6.404e+09  -0.7866  0.5451  0.01264  0.01158  -0.0009672  0.00358  -0.3158  0.8928
6.405e+09  -0.5187  0.7185  -0.02367  -0.007487  -0.006195  -0.01332  -0.0234  0.9257
6.406e+09  -0.1916  0.863  0.01251  -0.00096  0.004445  0.003679  0.2823  0.8444
6.408e+09  0.1256  0.8295  0.01247  0.00954  -0.01115  0.05029  0.607  0.6959
6.409e+09  0.3629  0.764  -0.004129  0.0234  -0.03548  -0.009824  0.7636  0.4397
6.41e+09  0.599  0.6232  0.06999  -0.01016  0.009097  -0.007611  0.8871  0.1874
6.411e+09  0.8065  0.3549  0.01773  -0.00576  0.009602  0.04232  0.8407  -0.161
6.412e+09  0.8384  0.04702  -0.01878  0.02731  0.07887  -0.01444  0.7976  -0.4149
6.414e+09  0.8928  -0.2869  -0.001691  -0.003999  -0.01973  -0.0132  0.6031  -0.7007
6.415e+09  0.6923  -0.5094  0.003839  -0.03193  -0.03186  -0.06383  0.2959  -0.8365
6.416e+09  0.5028  -0.789  0.02867  0.04792  0.03891  0.03464  0.005845  -0.8469
6.418e+09  0.2341  -0.8751  0.02074  -0.003354  0.01448  -0.02147  -0.2841  -0.8796
6.419e+09  -0.07751  -0.9067  0.01636  -0.01303  -0.006568  -0.000376  -0.5448  -0.7035
6.42e+09  -0.3873  -0.8056  -0.007784  0.008632  0.0144  0.01356  -0.7499  -0.5005
6.421e+09  -0.614  -0.6173  0.03371  0.04701  0.02247  -0.01642  -0.8159  -0.1961
6.422e+09  -0.8087  -0.3488  0.04739  0.01795  0.02739  0.03972  -0.8995  0.1156
6.424e+09  -0.8376  -0.07057  -0.01278  0.02357  0.0315  0.02023  -0.7722  0.378
6.425e+09  -0.7942  0.266  0.003153  0.008235  0.01602  -0.004292  -0.6557  0.6672
6.426e+09  -0.6908  0.5216  0.02876  -0.01311  0.01752  -0.01198  -0.3127  0.7872
6.428e+09  -0.5165  0.8079  -0.01223  0.007539  0.01657  0.01069  -0.05329  0.8635
6.429e+09  -0.2191  0.8962  0.01563  -0.03409  -0.002319  0.03009  0.2533  0.8077
6.43e+09  0.091  0.9021  0.008451  0.02168  -0.01844  -0.00282  0.4956  0.7065
6.431e+09  0.4441  0.8088  0.0143  -0.01845  0.009229  0.008163  0.7183  0.4827
6.432e+09  0.6656  0.6117  0.03171  -0.004636  0.02543  0.003524  0.869  0.2322
6.434e+09  0.8316  0.3373  -0.03531  -0.02905  -0.01059  -0.008292  0.8705  -0.07474
6.435e+09  0.8793  0.04877  0.01836  0.001992  0.03199  -0.005354  0.7401  -0.3779
6.436e+09  0.8685  -0.2412  0.001738  -0.02499  -0.02481  0.01328  0.6273  -0.6103
6.438e+09  0.7113  -0.5318  -0.02547  -0.001073  -0.01638  0.01938  0.3206  -0.7669
6.439e+09  0.4497  -0.7335  -0.002741  -0.004339  -0.0255  -0.01403  0.027  -0.8863
6.44e+09  0.218  -0.8556  -0.005746  -0.003081  -0.02951  0.009336  -0.2667  -0.7917
6.441e+09  -0.1292  -0.8967  -0.04241  -0.004352  -0.02311  0.02854  -0.4781  -0.722
6.442e+09  -0.4151  -0.8047  0.01366  -0.01128  -0.004425  0.01883  -0.7101  -0.469
6.444e+09  -0.705  -0.5688  -0.03335  -0.03449  -0.02499  0.003094  -0.8452  -0.2405
6.445e+09  -0.828  -0.323  0.03014  0.007307  0.0215  0.01713  -0.8113  0.1148
6.446e+09  -0.9037  -0.03228  0.0438  0.0217  -0.003997  0.03223  -0.7695  0.3454
6.448e+09  -0.8348  0.2738  0.01134  0.001367  0.03436  -0.004531  -0.6075  0.5998
6.449e+09  -0.6553  0.5208  0.004956  -0.02938  -0.007622  -0.003186  -0.3774  0.7682
6.45e+09  -0.4506  0.7546  -0.02285  -0.01481  -0.01846  0.01778  -0.09455  0.8488
6.451e+09  -0.1593  0.863  0.03017  -0.01052  0.06222  0.02159  0.2391  0.8013
6.452e+09  0.1471  0.8512  -0.02476  0.005679  -0.003695  0.0217  0.4716  0.6801
6.454e+09  0.4404  0.7832  0.03336  0.04485  -0.02163  0.03105  0.6883  0.5177
6.455e+09  0.6636  0.5902  -0.03256  -0.003275  0.04745  0.002676  0.7862  0.2022
6.456e+09  0.8088  0.3074  0.01311  0.02674  -0.00692  -0.009073  0.8258  -0.1183
6.458e+09  0.8444  -0.0244  -0.01815  0.01811  0.01251  0.01163  0.7229  -0.4192
6.459e+09  0.8956  -0.3172  0.02072  -0.04829  0.02278  -0.004424  0.5695  -0.5889
6.46e+09  0.7114  -0.5975  -0.02309  0.001817  -0.003007  -0.02084  0.3364  -0.7
6.461e+09  0.4655  -0.8123  0.007437  -0.006237  0.02831  0.02707  0.05355  -0.8341
6.462e+09  0.1961  -0.8839  0.01524  -0.02366  -0.0002008  0.01008  -0.2156  -0.7978
6.464e+09  -0.122  -0.901  -0.004774  0.01598  -0.009598  0.03858  -0.4732  -0.643
6.465e+09  -0.4133  -0.8032  0.0126  -0.03155  0.01076  -0.004953  -0.6381  -0.4551
6.466e+09  -0.6932  -0.6209  0.04225  0.02462  -0.004777  -0.0058  -0.7672  -0.2045
6.468e+09  -0.7964  -0.2647  -0.007867  -0.006398  -0.02726  0.007704  -0.7754  0.07564
6.469e+09  -0.8832  0.02456  -0.009937  0.03947  -0.01341  -0.006946  -0.7302  0.3602
6.47e+09  -0.8817  0.3028  -0.04294  -0.04564  0.03723  -0.008627  -0.5727  0.5732
6.471e+09  -0.6881  0.519  -0.003288  0.04608  -0.005408  -0.0135  -0.3459  0.6534
6.472e+09  -0.4829  0.8271  -0.03006  -0.01643  -0.02952  -0.004626  -0.07354  0.814
6.474e+09  -0.1897  0.9107  -0.009251  0.01417  0.0213  -0.06384  0.2238  0.7603
6.475e+09  0.1749  0.8994  -0.01884  0.003369  -0.0008125  -0.04525  0.4092  0.6273
6.476e+09  0.4769  0.7425  0.01727  0.01477  0.003474  -0.01157  0.686  0.4687
6.478e+09  0.7266  0.5133  -0.009032  -0.01601  0.006122  0.0003881  0.7427  0.1879
6.479e+09  0.887  0.2943  -0.02968  -0.04066  -0.02305  -0.01547  0.752  -0.0986
6.48e+09  0.9373  -0.004386  -0.04273  -0.001819  -0.005677  0.004306  0.709  -0.3497
6.481e+09  0.8611  -0.3209  -0.03745  0.006225  0.00406  -0.04271  0.5855  -0.5303
6.482e+09  0.712  -0.5758  0.01449  0.02406  7.35e-05  0.01368  0.3397  -0.6828
6.484e+09  0.478  -0.7734  0.01139  0.004091  -0.00181  0.0451  0.0889  -0.803
6.485e+09  0.1151  -0.9115  -0.0119  0.006963  0.0001045  -0.01287  -0.2347  -0.7743
6.486e+09  -0.1718  -0.8961  -0.04428  -0.05018  0.004008  -0.009486  -0.4562  -0.6648
6.488e+09  -0.4882  -0.771  0.0162  0.01444  0.01719  0.002316  -0.6341  -0.415
6.489e+09  -0.6864  -0.4845  0.01876  -0.02387  -0.02407  0.003596  -0.7765  -0.1731
6.49e+09  -0.8836  -0.2932  -0.04013  -0.01932  0.02933  -0.04563  -0.763  0.08737
6.491e+09  -0.941  0.02694  0.006154  -0.01065  -0.0005763  -0.01334  -0.6975  0.3682
6.492e+09  -0.8545  0.36  0.03688  -0.0187  -0.02151  -0.003592  -0.4996  0.5358
6.494e+09  -0.686  0.6269  0.03565  0.02409  -0.0521  0.01575  -0.3146  0.6638
6.495e+09  -0.4303  0.7817  0.01175  0.0308  0.0183  0.02754  -0.006745  0.7662
6.496e+09  -0.1056  1.003  0.02168  0.0002957  -0.03894  0.02573  0.1992  0.683
6.498e+09  0.2328  0.9644  0.02193  -0.01557  0.01281  -0.006592  0.4917  0.6012
6.499e+09  0.5302  0.7766  -0.0379  -0.002042  0.0259  -0.02874  0.6598  0.3762
6.5e+09  0.7934  0.5387  0.004252  -0.008654  -0.01498  0.02046  0.7408  0.162
6.501e+09  0.9489  0.2525  0.004394  0.0144  -0.07369  0.007179  0.7212  -0.1111
6.502e+09  0.9783  -0.04823  0.002055  0.0436  0.02045  0.01427  0.666  -0.354
6.504e+09  0.838  -0.3488  -0.02126  -0.02316  -0.009061  -0.03727  0.536  -0.5624
6.505e+09  0.6545  -0.6696  -0.01232  -0.01559  0.05002  0.01126  0.2842  -0.7148
6.506e+09  0.4107  -0.8457  -0.0106  -0.01697  0.0003508  0.01821  0.01919  -0.7591
6.508e+09  0.06473  -0.9402  -0.01657  -0.001585  -0.006537  0.02845  -0.2422  -0.7324
6.509e+09  -0.206  -0.9019  -0.006711  -0.02197  0.003444  -0.04413  -0.4687  -0.5506
6.51e+09  -0.5496  -0.8009  0.02316  -0.01914  0.01384  -0.006917  -0.6328  -0.3473
6.511e+09  -0.7384  -0.5289  0.004465  0.0125  -0.01398  0.02237  -0.7309  -0.1608
6.512e+09  -0.9414  -0.2431  0.01308  -0.04073  -0.01838  0.04359  -0.7251  0.1121
6.514e+09  -0.9636  0.09753  0.0075  0.03282  0.04786  0.01632  -0.6049  0.3923
6.515e+09  -0.8396  0.4263  -0.006711  -0.02735  -0.03554  0.0464  -0.5117  0.567
6.516e+09  -0.6268  0.7185  -0.01068  0.008387  -0.01317  0.008395  -0.2562  0.7069
6.518e+09  -0.3734  0.8909  0.009673  0.002621  0.006683  0.008343  -0.009383  0.7647
6.519e+09  -0.04887  0.9581  -0.0008296  -0.01858  -0.01875  -0.04653  0.2591  0.6926
6.52e+09  0.3389  0.9076  -0.003895  0.001311  0.02454  -0.04501  0.4845  0.6184
6.521e+09  0.5876  0.7654  0.006278  0.03262  -0.01225  -0.04882  0.6449  0.3274
6.522e+09  0.8522  0.4816  0.01555  -0.02078  -0.02427  -0.05875  0.7372  0.1022
6.524e+09  0.966  0.1984  0.00125  -0.01349  -0.02392  0.003302  0.7242  -0.1783
6.525e+09  0.9798  -0.1551  -0.008833  0.01289  -0.01016  0.01989  0.5959  -0.4138
6.526e+09  0.8739  -0.4582  -0.004005  -0.008727  -0.002688  -0.01509  0.429  -0.5826
6.528e+09  0.6465  -0.7183  -0.02093  0.04391  -0.01538  -0.03812  0.2198  -0.6576
6.529e+09  0.3792  -0.9412  -0.007261  -0.02559  -0.04863  -0.04183  -0.02063  -0.7472
6.53e+09  -0.00215  -0.9803  0.0003694  -0.0029  0.0139  -0.02482  -0.2744  -0.625
6.531e+09  -0.3761  -0.8523  -0.01134  -0.03066  -0.0006372  0.01023  -0.471  -0.4825
6.532e+09  -0.6219  -0.7036  0.003562  -0.03153  -0.03702  0.004085  -0.5536  -0.3013
6.534e+09  -0.8526  -0.4244  -0.008443  0.006792  0.01834  -0.002246  -0.6571  -0.07861
6.535e+09  -0.9668  -0.1516  0.006701  -0.004681  -0.03368  -0.02105  -0.6305  0.07854
6.536e+09  -0.9083  0.2154  -0.01713  -0.01543  0.04937  -0.005264  -0.5569  0.3356
6.538e+09  -0.8274  0.5511  0.01889  0.005201  0.03451  0.01228  -0.468  0.4525
6.539e+09  -0.5542  0.7641  0.01021  0.001497  -0.01581  -0.0008336  -0.2763  0.59
6.54e+09  -0.3001  0.9287  0.02291  0.006665  0.0428  -0.01522  -0.02498  0.6486
6.541e+09  0.01714  0.9824  -0.009287  0.05211  0.03287  -0.04361  0.1945  0.681
6.542e+09  0.4265  0.915  0.01585  -0.007529  -0.001236  -0.04026  0.4415  0.5461
6.544e+09  0.6663  0.6615  0.005257  0.01955  -0.0169  0.03595  0.5815  0.3949
6.545e+09  0.8579  0.4073  -0.03071  0.03231  -0.0174  -0.004689  0.6799  0.1702
6.546e+09  0.9318  0.007971  0.01178  0.009832  0.02284  0.004641  0.7397  -0.0853
6.548e+09  0.9201  -0.3371  0.01112  -0.03154  0.03605  -0.03998  0.6632  -0.3421
6.549e+09  0.8439  -0.5487  -0.002197  -0.02731  0.00887  -0.02934  0.5079  -0.5527
6.55e+09  0.4962  -0.8126  0.02125  -0.009302  -0.04494  0.02224  0.325  -0.6669
