# Hz S RI R 50
6.25e+09  0.3404  0.8956  -0.007219  -0.009702  0.002508  0.01455  0.1633  0.4869
6.251e+09  0.6199  0.7104  -0.004852  0.000492  0.02441  0.004623  0.3854  0.4143
6.252e+09  0.8276  0.445  -0.01029  0.006416  9.152e-05  0.01022  0.5359  0.236
6.254e+09  0.9304  0.1417  0.001363  -0.008078  0.006267  -0.003926  0.6105  0.007532
6.255e+09  0.9373  -0.1758  0.003647  0.01353  -0.009544  -0.01426  0.5871  -0.2434
6.256e+09  0.7917  -0.4775  0.009905  0.001343  0.00738  -0.009382  0.4882  -0.4503
6.258e+09  0.5797  -0.7354  -0.002221  0.001928  0.002793  -0.01187  0.2639  -0.5937
6.259e+09  0.2956  -0.8759  0.001239  -0.002244  0.006524  -0.003062  0.03417  -0.6881
6.26e+09  -0.04896  -0.9373  0.005082  0.007317  0.002314  -0.001514  -0.2186  -0.6573
6.261e+09  -0.389  -0.8516  -0.0002538  0.001597  -0.01367  -0.01887  -0.4492  -0.5487
6.262e+09  -0.6293  -0.6779  0.0009248  0.003606  -0.007751  0.005278  -0.6249  -0.3432
6.264e+09  -0.8577  -0.4062  -2.898e-05  -0.0005571  0.01421  0.006116  -0.7082  -0.1078
6.265e+09  -0.9275  -0.1023  -0.006689  0.002179  -0.005278  -0.006816  -0.7054  0.1537
6.266e+09  -0.8994  0.2289  0.003033  -0.006529  0.006812  -0.0006459  -0.616  0.3987
6.268e+09  -0.7699  0.5171  -0.00433  0.001568  -0.01614  0.009241  -0.4402  0.5857
6.269e+09  -0.5399  0.743  0.004129  0.0001035  0.004893  -0.005322  -0.1987  0.7177
6.27e+09  -0.2244  0.9026  0.003307  -0.0008126  -0.002104  -0.01502  0.06361  0.7408
6.271e+09  0.1049  0.9089  -0.005448  0.006397  -0.001426  0.008731  0.3242  0.6718
6.272e+09  0.398  0.8293  -0.001104  0.004182  -0.0004772  0.002097  0.5439  0.5273
6.274e+09  0.682  0.6509  -0.005156  -0.009116  -0.006543  0.01487  0.6962  0.3001
6.275e+09  0.8605  0.368  0.001818  0.005937  -0.007757  0.01977  0.7559  0.04012
6.276e+09  0.9173  0.04152  0.01299  -0.005734  0.01017  -0.003228  0.7231  -0.2269
6.278e+09  0.8879  -0.2725  0.01034  -0.004777  -0.0111  -0.005066  0.6166  -0.4746
6.279e+09  0.7353  -0.5522  0.003542  0.006363  0.004377  0.002067  0.4249  -0.6493
6.28e+09  0.5004  -0.8021  -0.0002755  -0.0006975  -0.008754  0.00382  0.1649  -0.7591
6.281e+09  0.1733  -0.916  0.001076  0.00915  -0.0008202  0.005727  -0.105  -0.7767
6.282e+09  -0.1337  -0.9207  -0.003557  -0.0146  0.01834  0.003323  -0.3681  -0.6886
6.284e+09  -0.4478  -0.8106  -0.00728  -0.005669  -0.007877  -0.01165  -0.5834  -0.521
6.285e+09  -0.7158  -0.6193  -0.01497  -0.001216  0.002746  -0.005921  -0.7352  -0.2873
6.286e+09  -0.8704  -0.3144  0.009972  -0.004515  -0.003612  0.001662  -0.7879  -0.01258
6.288e+09  -0.9369  0.008142  0.009252  -0.001145  0.01079  0.01513  -0.7612  0.2668
6.289e+09  -0.8812  0.3335  0.003871  -0.00334  -0.01247  -0.005905  -0.6188  0.5068
6.29e+09  -0.71  0.6175  -0.002311  -0.006717  0.005503  -0.002836  -0.4244  0.6915
6.291e+09  -0.4636  0.8208  0.001347  0.002553  0.001013  -0.005369  -0.1556  0.7916
6.292e+09  -0.1368  0.9293  -0.0007573  0.001562  -0.004875  0.002077  0.1293  0.807
6.294e+09  0.1962  0.9154  0.003644  0.00113  -0.006621  -0.01409  0.3893  0.7199
6.295e+09  0.4932  0.793  6.294e-05  -0.0005166  -0.002606  -0.006685  0.6183  0.5301
6.296e+09  0.7457  0.5716  0.006187  0.000196  0.003961  -0.01079  0.7794  0.2937
6.298e+09  0.908  0.2761  -0.002406  -0.005778  -0.002631  -0.001231  0.826  0.006781
6.299e+09  0.9432  -0.06408  0.002002  0.0003428  -0.0002693  0.0004899  0.7868  -0.2677
6.3e+09  0.8773  -0.3751  -0.009044  0.004839  0.003115  0.007827  0.6365  -0.5258
6.301e+09  0.6854  -0.6624  -0.004167  -0.006689  -0.008319  0.009722  0.428  -0.7353
6.302e+09  0.4188  -0.8619  0.0002801  -0.002435  -0.01421  0.01175  0.1533  -0.828
6.304e+09  0.08259  -0.9543  -1.594e-05  -0.00266  -0.011  -0.008877  -0.1484  -0.8364
6.305e+09  -0.2273  -0.9288  -0.008152  0.002438  -0.007919  -0.01285  -0.4302  -0.7373
6.306e+09  -0.5477  -0.7802  -0.004877  0.0009085  -0.007878  0.003312  -0.649  -0.5509
6.308e+09  -0.7916  -0.545  -0.0004606  -0.002561  0.01385  0.01365  -0.8006  -0.3049
6.309e+09  -0.9382  -0.2519  0.001595  0.005332  -0.005208  0.01315  -0.8622  0.005424
6.31e+09  -0.9529  0.1134  0.002349  -0.003104  0.003637  0.00865  -0.813  0.296
6.311e+09  -0.871  0.4372  0.003005  -0.002318  -0.001612  0.009461  -0.6661  0.5599
6.312e+09  -0.6676  0.7199  -0.002338  -6.022e-06  0.003075  -0.006565  -0.4445  0.7568
6.314e+09  -0.3683  0.904  -0.002348  -0.009607  -0.0004121  -0.008363  -0.1725  0.8574
6.315e+09  -0.05292  0.9553  -0.01249  -0.001047  -0.01051  0.006536  0.141  0.8564
6.316e+09  0.3097  0.9393  0.009221  0.001136  0.00708  0.005857  0.4417  0.7698
6.318e+09  0.6267  0.7863  0.001963  0.00468  -0.000193  0.0134  0.6773  0.5713
6.319e+09  0.8616  0.519  -0.00378  0.006896  -0.002266  -0.002932  0.8202  0.3124
6.32e+09  0.9893  0.1869  -0.01162  -0.01198  0.006525  0.003228  0.8883  0.006324
6.321e+09  0.9696  -0.1654  -0.006993  0.006179  0.009601  -0.009545  0.8406  -0.2852
6.322e+09  0.864  -0.5025  -0.008736  0.006621  -0.01354  -0.006439  0.6943  -0.5605
6.324e+09  0.652  -0.7695  0.01136  0.002533  -0.007216  0.000559  0.4607  -0.7719
6.325e+09  0.3416  -0.9582  0.000576  -0.0006516  -0.001512  -0.005373  0.1756  -0.8894
6.326e+09  -0.02217  -1.023  -0.001774  -0.006182  -0.009277  0.01392  -0.1341  -0.9027
6.328e+09  -0.3719  -0.9518  -0.002068  -0.001017  0.005854  -0.0005013  -0.4348  -0.7984
6.329e+09  -0.696  -0.7631  -0.009333  -0.009194  0.01119  -0.002961  -0.6872  -0.5952
6.33e+09  -0.9208  -0.5009  -0.006004  -0.00615  -0.002548  -0.005825  -0.8591  -0.3253
6.331e+09  -1.036  -0.1386  0.003304  0.01181  0.003684  -0.002936  -0.9178  -0.02493
6.332e+09  -1.023  0.2254  -0.004407  0.001747  -0.002104  -0.005759  -0.8639  0.289
6.334e+09  -0.873  0.5601  -0.002113  -0.006585  0.00371  -0.001722  -0.7121  0.5608
6.335e+09  -0.6286  0.8635  0.005457  -0.0008283  -0.006265  -0.005595  -0.4781  0.7722
6.336e+09  -0.2903  1.026  0.001814  0.003948  -1.507e-05  0.01588  -0.1823  0.8971
6.338e+09  0.06795  1.068  -0.005091  0.003897  -0.0006971  0.004468  0.1233  0.9112
6.339e+09  0.442  0.975  0.008234  0.006227  0.0003192  -0.01301  0.4187  0.8111
6.34e+09  0.76  0.7667  -0.01722  0.006545  0.002039  -0.006513  0.6826  0.6323
6.341e+09  0.9844  0.4525  0.01193  -0.0001984  0.000613  0.009562  0.8567  0.3502
6.342e+09  1.083  0.08319  0.00061  0.001901  -0.0009052  0.001873  0.9244  0.03817
6.344e+09  1.057  -0.3035  0.007308  -0.01078  0.001368  -0.00531  0.8924  -0.2758
6.345e+09  0.8894  -0.64  -0.008192  0.0006666  0.005404  -0.00649  0.7347  -0.5694
6.346e+09  0.6108  -0.9171  -0.004537  0.002014  -0.006035  -0.0112  0.5021  -0.7727
6.348e+09  0.2368  -1.088  0.001343  -0.0008902  -0.003516  0.0007754  0.2129  -0.9097
6.349e+09  -0.1427  -1.104  -0.007814  0.002382  -0.01187  -0.006203  -0.1143  -0.9382
6.35e+09  -0.5198  -0.9971  -0.004636  -0.005459  0.007701  0.008323  -0.4352  -0.846
6.351e+09  -0.8491  -0.7565  -0.009611  -0.0009699  0.0005902  -0.004272  -0.6906  -0.6547
6.352e+09  -1.064  -0.408  -0.0001143  -0.003161  0.005837  -0.001735  -0.8566  -0.3726
6.354e+09  -1.14  -0.02263  -0.0008962  -0.005303  -0.0003653  0.007176  -0.9451  -0.06125
6.355e+09  -1.081  0.3681  -0.001276  -0.007322  0.0003461  0.002309  -0.905  0.267
6.356e+09  -0.8904  0.7349  0.001203  0.002703  0.001089  -0.0006225  -0.7692  0.566
6.358e+09  -0.5857  0.9917  0.002397  0.007798  -8.923e-05  -0.01193  -0.5337  0.781
6.359e+09  -0.2035  1.14  0.004829  0.0111  -0.007038  0.007942  -0.2232  0.9154
6.36e+09  0.2034  1.147  0.00775  0.002229  -0.01063  -0.0009591  0.09591  0.9446
6.361e+09  0.5894  1.014  -0.00562  0.006826  -0.0006341  -0.003763  0.4194  0.8489
6.362e+09  0.9091  0.7336  -0.006128  0.008247  -0.005634  0.002093  0.6834  0.6538
6.364e+09  1.119  0.3872  0.0002886  -0.004844  -0.003572  0.005483  0.8583  0.3977
6.365e+09  1.199  -0.02789  -9.551e-05  0.0008829  0.007703  -0.01163  0.9464  0.05807
6.366e+09  1.104  -0.448  -0.004835  0.003186  -0.003552  -0.002508  0.91  -0.2374
6.368e+09  0.901  -0.8305  -0.0004778  0.008601  -0.005544  0.01175  0.777  -0.5606
6.369e+09  0.5722  -1.064  -0.004687  0.001215  -0.003494  -0.007986  0.5472  -0.7833
6.37e+09  0.1728  -1.217  -0.009044  0.003283  -0.004463  -0.00548  0.2436  -0.9154
6.371e+09  -0.2807  -1.22  0.01154  0.005397  -0.003617  -0.002889  -0.081  -0.9409
6.372e+09  -0.6774  -1.036  -0.002614  0.007527  -0.006907  0.01271  -0.4077  -0.8593
6.374e+09  -0.9946  -0.7394  -0.007424  0.001449  -0.00454  0.009627  -0.6732  -0.6858
6.375e+09  -1.209  -0.3539  -0.005043  -0.001398  -0.001241  -0.004467  -0.859  -0.4065
6.376e+09  -1.273  0.09455  0.01222  -0.004742  -0.008449  0.004089  -0.9467  -0.09118
6.378e+09  -1.155  0.5237  0.007966  -0.005095  0.0004869  -0.01114  -0.9173  0.2393
6.379e+09  -0.9294  0.9179  -0.002443  -0.003899  -0.01014  0.002194  -0.7916  0.5249
6.38e+09  -0.5569  1.172  0.001337  -0.001429  -0.002417  0.002044  -0.5559  0.7669
6.381e+09  -0.08516  1.301  0.007895  -0.009856  0.006086  -0.001905  -0.2593  0.9203
6.382e+09  0.3606  1.273  0.009498  0.008376  -0.01125  -0.004082  0.04485  0.943
6.384e+09  0.78  1.063  -0.001102  -0.005776  0.002772  0.004941  0.3758  0.8665
6.385e+09  1.1  0.7405  -0.001007  0.009062  -0.007904  -0.01386  0.6453  0.6732
6.386e+09  1.31  0.3159  -0.005487  -0.02262  -0.01341  -5.851e-05  0.8454  0.4284
6.388e+09  1.361  -0.1629  0.001739  0.00981  -0.007682  0.0175  0.9257  0.1136
6.389e+09  1.23  -0.6354  0.006668  0.003927  0.004627  0.0009072  0.9031  -0.2073
6.39e+09  0.9518  -1.027  0.0007225  -0.006997  0.01427  0.01232  0.7839  -0.5042
6.391e+09  0.5318  -1.308  -0.001125  0.0007229  -0.003236  -0.0001041  0.5646  -0.7441
6.392e+09  0.04516  -1.419  -0.007441  -0.02068  -0.004352  -0.0001938  0.2855  -0.8839
6.394e+09  -0.4641  -1.363  -0.008021  -0.003846  -0.0007218  -0.002402  -0.0347  -0.9323
6.395e+09  -0.8851  -1.123  0.006421  -0.00677  0.005774  -0.008442  -0.3437  -0.86
6.396e+09  -1.26  -0.763  0.0008965  -0.002713  -0.000416  -0.008612  -0.622  -0.6855
6.398e+09  -1.466  -0.2727  -0.004756  -0.0004059  -0.01506  -0.00424  -0.7936  -0.4582
6.399e+09  -1.5  0.2497  -0.004471  0.003027  -0.01024  -0.005388  -0.904  -0.1357
6.4e+09  -1.297  0.7661  -0.01142  0.0009808  -0.006657  -0.0004005  -0.8929  0.1651
6.401e+09  -0.9728  1.164  0.001162  0.01848  0.0007962  0.001724  -0.7946  0.4809
6.402e+09  -0.5016  1.441  -0.0006431  0.004418  0.007285  0.009261  -0.5893  0.7051
6.404e+09  0.0586  1.523  0.008832  0.0006827  -0.0005072  0.0003318  -0.3112  0.8663
6.405e+09  0.5874  1.453  -0.007098  0.01022  -0.004748  0.0003251  0.001549  0.9092
6.406e+09  1.05  1.174  -0.01441  -0.002478  -0.004689  -0.002324  0.3192  0.8566
6.408e+09  1.403  0.7477  0.004145  0.001091  -0.009161  -0.01005  0.5905  0.6999
6.409e+09  1.589  0.2136  0.01598  0.002959  -0.006681  -0.00134  0.7864  0.469
6.41e+09  1.597  -0.3849  0.01331  -0.006395  0.002735  -0.02122  0.8942  0.1681
6.411e+09  1.375  -0.9242  -0.0007941  0.003026  -0.01576  0.01011  0.898  -0.1501
6.412e+09  0.9829  -1.338  -0.008266  -0.0005948  -0.01619  0.01018  0.7942  -0.4417
6.414e+09  0.4477  -1.638  -0.003087  -0.006509  -0.009742  0.03342  0.5858  -0.6805
6.415e+09  -0.1644  -1.7  0.0002099  0.003243  0.01176  0.003359  0.3295  -0.8374
6.416e+09  -0.7703  -1.539  0.01142  -0.002459  -0.008376  -0.001311  0.01712  -0.903
6.418e+09  -1.286  -1.208  0.004805  -0.005896  -0.006582  0.007355  -0.2776  -0.8399
6.419e+09  -1.628  -0.676  0.0006426  -0.004403  -0.008409  -0.005706  -0.5444  -0.7066
6.42e+09  -1.784  -0.07187  -0.003531  -0.007103  0.00182  -0.0001962  -0.7566  -0.4633
6.421e+09  -1.738  0.5454  -0.01847  0.003413  -0.004488  0.001853  -0.8746  -0.1942
6.422e+09  -1.439  1.136  -0.003031  0.007974  0.001953  0.002752  -0.879  0.1119
6.424e+09  -0.9649  1.584  -0.003569  -0.003718  -0.006424  -0.01067  -0.7892  0.4044
6.425e+09  -0.3427  1.866  -0.001349  -0.001697  -0.01342  0.005644  -0.6065  0.6464
6.426e+09  0.3205  1.871  0.006065  0.005822  -0.001984  -0.0008935  -0.3453  0.8157
6.428e+09  0.9833  1.683  0.005087  -0.00137  -0.009738  -0.002705  -0.06042  0.8691
6.429e+09  1.537  1.247  0.0106  -0.01299  -0.0123  0.02017  0.26  0.8301
6.43e+09  1.899  0.6208  -0.00104  0.002055  -0.001403  -0.00559  0.5181  0.6887
6.431e+09  2.043  -0.08072  0.00252  -0.01083  -0.002709  -0.01031  0.729  0.4793
6.432e+09  1.902  -0.8033  -0.0005295  -0.006123  -0.003641  0.0004489  0.8596  0.2159
6.434e+09  1.53  -1.451  0.002404  0.0004255  -0.007093  -0.001786  0.8667  -0.08757
6.435e+09  0.9277  -1.914  -0.002098  0.0008186  -0.001973  -0.008639  0.7756  -0.3736
6.436e+09  0.2006  -2.154  -0.001982  0.0005884  0.004376  0.008695  0.5958  -0.6155
6.438e+09  -0.6036  -2.136  0.008817  0.0007902  -0.01099  0.02403  0.3392  -0.7698
6.439e+09  -1.328  -1.8  0.005901  0.009813  0.001588  -0.01335  0.06525  -0.8661
6.44e+09  -1.915  -1.237  0.008758  -0.007851  0.002952  -0.004274  -0.2367  -0.8201
6.441e+09  -2.243  -0.4987  -0.0007798  0.01199  -9.905e-06  -0.0003817  -0.4944  -0.6848
6.442e+09  -2.342  0.349  0.0004944  -0.007115  0.02014  0.01836  -0.7188  -0.4801
6.444e+09  -2.092  1.184  -0.002892  0.005364  -0.01477  0.02045  -0.8176  -0.2266
6.445e+09  -1.575  1.867  0.01942  0.0005918  -0.01311  -0.02659  -0.8396  0.08457
6.446e+09  -0.8081  2.358  0.0002887  -0.01373  0.02274  -0.008907  -0.7632  0.366
6.448e+09  0.0666  2.532  -0.01019  -0.0026  -0.003981  -0.005042  -0.585  0.6011
6.449e+09  0.9498  2.388  -0.008486  0.004019  -0.00527  -0.02569  -0.3707  0.7682
6.45e+09  1.806  1.94  0.002926  -0.008305  0.01668  0.01706  -0.06298  0.8516
6.451e+09  2.41  1.191  0.01914  0.004473  -0.01059  0.003403  0.2234  0.8121
6.452e+09  2.735  0.276  -0.004773  0.009812  0.009077  0.01572  0.4969  0.6784
6.454e+09  2.717  -0.7636  0.0005799  0.002391  -0.0007172  -0.0009851  0.6942  0.4686
6.455e+09  2.321  -1.722  -0.003547  -0.01254  -0.003138  0.0197  0.8066  0.201
6.456e+09  1.596  -2.465  -0.005571  0.001885  0.01002  -0.02034  0.8256  -0.0815
6.458e+09  0.6265  -2.941  0.005294  -0.00227  0.002171  0.005572  0.7321  -0.3384
6.459e+09  -0.4688  -3.039  -0.003377  -0.01553  0.01079  -0.005789  0.5722  -0.5786
6.46e+09  -1.584  -2.758  -0.003567  -0.002686  -0.004716  0.006995  0.3422  -0.7453
6.461e+09  -2.522  -2.08  0.002582  -0.009181  -0.007118  -0.002639  0.05879  -0.8171
6.462e+09  -3.169  -1.062  0.001499  0.001016  0.01339  -0.0199  -0.2185  -0.7828
6.464e+09  -3.411  0.1773  -0.006481  -0.00155  -0.00634  0.02048  -0.4759  -0.6527
6.465e+09  -3.267  1.391  -0.003406  0.007968  0.02156  -0.01285  -0.6643  -0.4576
6.466e+09  -2.593  2.579  -0.008197  0.004442  -0.009111  0.009993  -0.7928  -0.2091
6.468e+09  -1.567  3.433  -0.004155  -0.01013  0.01681  -0.02876  -0.802  0.08897
6.469e+09  -0.1887  3.881  -0.001293  0.008827  -0.006398  -0.01201  -0.7128  0.3337
6.47e+09  1.27  3.797  0.007102  0.009764  0.01068  0.03561  -0.5627  0.5673
6.471e+09  2.677  3.217  0.007542  -0.003745  -0.0137  -0.04887  -0.334  0.7367
6.472e+09  3.782  2.111  -0.005193  -0.003014  0.06001  0.009822  -0.0483  0.8015
6.474e+09  4.462  0.6059  0.01593  -0.002978  -0.004184  0.0005373  0.2121  0.7727
6.475e+09  4.577  -1.138  -0.006904  -0.0004087  -0.006134  0.0002894  0.4621  0.6279
6.476e+09  3.978  -2.809  0.01854  0.01806  0.004544  -0.01748  0.6439  0.4383
6.478e+09  2.778  -4.3  0.01128  -0.001899  0.03223  -0.03547  0.7607  0.173
6.479e+09  1.05  -5.241  0.003652  -0.003626  -0.01928  -0.02837  0.7932  -0.08919
6.48e+09  -0.9964  -5.437  -0.00687  -0.0001236  -0.02703  -0.04798  0.7125  -0.3385
6.481e+09  -3.107  -5.016  -0.02456  -0.003883  -0.01593  0.01682  0.5615  -0.5625
6.482e+09  -5.029  -3.584  0.005777  -0.01267  -0.03618  -0.05901  0.3124  -0.7184
6.484e+09  -6.332  -1.445  -0.002896  -0.001273  -0.05574  0.03834  0.06367  -0.7608
6.485e+09  -6.776  1.159  0.001496  0.016  -0.02765  -0.06326  -0.2225  -0.7421
6.486e+09  -6.096  3.892  -0.005193  0.002764  0.02908  0.03856  -0.457  -0.6266
6.488e+09  -4.433  6.237  -0.01188  -0.002346  0.1224  0.03554  -0.6377  -0.4249
6.489e+09  -1.518  7.963  -0.00612  0.004894  0.03623  0.00379  -0.7544  -0.1815
6.49e+09  1.972  8.332  0.008156  -0.001416  0.03632  0.02726  -0.7723  0.09068
6.491e+09  5.546  7.179  -0.002378  0.004295  0.01022  -0.009453  -0.6853  0.3452
6.492e+09  8.506  4.454  -0.007272  0.008288  0.0139  0.01886  -0.5365  0.5664
6.494e+09  10.08  0.3345  -9.85e-05  0.008409  -0.006349  -0.004094  -0.303  0.7161
6.495e+09  9.696  -4.358  0.02252  -0.004794  0.005436  0.04596  -0.04861  0.7654
6.496e+09  7.055  -8.496  0.01002  0.004007  0.01576  0.02273  0.2322  0.7419
6.498e+09  2.52  -11.14  -0.0001019  -0.004952  0.01405  -0.03773  0.4614  0.6144
6.499e+09  -2.913  -11.25  0.0005617  -0.004558  0.008434  -0.03651  0.6473  0.415
6.5e+09  -10.06  -9.663  -0.003292  0.006157  -0.09289  -0.07553  0.7416  0.1693
6.501e+09  -10.91  -4.086  -0.01751  -0.01125  -0.02344  -0.04034  0.7393  -0.1121
6.502e+09  -11.4  1.381  -0.01121  0.0011  -0.0008382  -0.03849  0.6673  -0.3691
6.504e+09  -9.23  6.111  -0.007757  -0.0009946  0.000764  0.01271  0.5113  -0.5676
6.505e+09  -5.312  9.18  0.003414  0.01764  0.006965  -0.00481  0.2819  -0.7104
6.506e+09  -0.7525  10.06  -0.003283  -0.006312  -0.04925  -0.007405  0.009095  -0.7627
6.508e+09  3.443  8.915  -0.004436  0.01413  0.006416  0.0105  -0.2566  -0.7113
6.509e+09  6.422  6.313  0.01548  0.01572  0.01265  0.0137  -0.4808  -0.586
6.51e+09  7.989  2.865  0.0118  0.00368  -0.03123  -0.01653  -0.6476  -0.3917
6.511e+09  7.961  -0.5161  -0.002415  0.0005911  -0.0006585  -0.01074  -0.7397  -0.1404
6.512e+09  6.683  -3.43  0.0007035  -0.01318  0.0195  -0.01718  -0.7507  0.1257
6.514e+09  4.563  -5.41  0.007601  -0.001373  0.004018  -0.02936  -0.6449  0.3902
6.515e+09  1.975  -6.39  0.01061  0.005118  -0.01411  -0.02646  -0.4814  0.5759
6.516e+09  -0.5602  -6.319  0.008343  -0.005751  -0.01211  0.05485  -0.2541  0.7055
6.518e+09  -2.752  -5.308  0.007235  -0.01586  0.004006  0.001994  0.0184  0.7443
6.519e+09  -4.306  -3.692  -0.002728  0.0007181  0.01272  0.004343  0.2753  0.6971
6.52e+09  -5.161  -1.742  -0.005323  -0.005962  -0.004883  0.0005909  0.4948  0.5659
6.521e+09  -5.161  0.2638  0.003452  -0.01294  -0.0005005  -0.01071  0.6597  0.3389
6.522e+09  -4.485  2.081  0.00772  -0.0006035  -0.01482  0.0341  0.7275  0.08858
6.524e+09  -3.242  3.431  -0.01262  -0.001341  -0.01905  -0.008601  0.7112  -0.1607
6.525e+09  -1.692  4.186  -0.001097  0.006678  -0.01128  0.003822  0.6169  -0.3873
6.526e+09  -0.07744  4.351  -0.004596  0.002102  -0.00289  -5.943e-05  0.4416  -0.5804
6.528e+09  1.459  3.897  0.01196  0.005233  0.005136  -0.002732  0.1901  -0.6813
6.529e+09  2.685  3.037  -0.001097  0.01134  0.009128  -0.007043  -0.06669  -0.6923
6.53e+09  3.475  1.793  0.01064  -0.0006497  0.008815  -0.006628  -0.2932  -0.6276
6.531e+09  3.75  0.4007  0.002133  0.007477  -0.02077  -0.001782  -0.4831  -0.4844
6.532e+09  3.526  -0.9612  0.007645  -0.009065  -0.0417  -0.008758  -0.5875  -0.2857
6.534e+09  2.858  -2.059  -0.0003487  -0.005312  -0.01251  -0.01113  -0.6402  -0.08939
6.535e+09  1.862  -2.864  0.006549  -0.004656  -0.02264  0.008282  -0.6182  0.1059
6.536e+09  0.665  -3.224  -0.01274  -0.01179  -0.02459  0.005789  -0.5627  0.3088
6.538e+09  -0.4919  -3.185  -0.007404  -0.008771  0.01066  0.04139  -0.4593  0.4723
6.539e+09  -1.566  -2.714  1.271e-05  -0.00361  0.005249  0.01259  -0.2726  0.6054
6.54e+09  -2.35  -1.918  -0.005762  0.004364  -0.01421  0.0166  -0.05661  0.6849
6.541e+09  -2.816  -0.9392  -0.007529  0.0003386  0.006824  0.02656  0.1857  0.6733
6.542e+09  -2.899  0.141  0.004585  0.002661  0.001762  -0.0006082  0.4139  0.5695
6.544e+09  -2.588  1.111  -0.004162  0.01065  -0.003489  -0.007306  0.5983  0.407
6.545e+09  -1.95  1.907  0.004724  0.004516  0.01478  0.005899  0.7012  0.1579
